!Keysight Technologies,M9804A,MY58100912,A.14.10.03
!Date: Thursday, April 27, 2023 10:28:33
!Correction: S11(C  6-Port  ) 
!S12(C  6-Port  ) 
!S13(C  6-Port  ) 
!S14(C  6-Port  ) 
!S15(C  6-Port  ) 
!S16(C  6-Port  ) 
!S21(C  6-Port  ) 
!S22(C  6-Port  ) 
!S23(C  6-Port  ) 
!S24(C  6-Port  ) 
!S25(C  6-Port  ) 
!S26(C  6-Port  ) 
!S31(C  6-Port  ) 
!S32(C  6-Port  ) 
!S33(C  6-Port  ) 
!S34(C  6-Port  ) 
!S35(C  6-Port  ) 
!S36(C  6-Port  ) 
!S41(C  6-Port  ) 
!S42(C  6-Port  ) 
!S43(C  6-Port  ) 
!S44(C  6-Port  ) 
!S45(C  6-Port  ) 
!S46(C  6-Port  ) 
!S51(C  6-Port  ) 
!S52(C  6-Port  ) 
!S53(C  6-Port  ) 
!S54(C  6-Port  ) 
!S55(C  6-Port  ) 
!S56(C  6-Port  ) 
!S61(C  6-Port  ) 
!S62(C  6-Port  ) 
!S63(C  6-Port  ) 
!S64(C  6-Port  ) 
!S65(C  6-Port  ) 
!S66(C  6-Port  ) 
!S6P File: Measurement: :
# Hz S  RI   R 50
500000000 -0.33544 -0.033949 -0.0094163 -0.0039668 -0.0081946 0.01139 -0.0040484 0.012048
0.012359 0.0045663 -0.004944 0.0074169
-0.009256 -0.0041795 -0.41993 -0.048431 0.007329 -0.011611 0.0012385 0.010842
0.0077212 0.002268 0.0015142 0.012607
-0.0081528 0.011384 0.0075047 -0.011611 -0.26418 0.21148 0.0067411 0.0030454
-0.00021319 0.0082217 0.00072202 0.011847
-0.004367 0.011764 0.0013734 0.010793 0.0068697 0.003013 -0.32727 0.048504
-0.019024 -0.0053475 0.016869 0.025167
0.012511 0.0050574 0.007392 0.0025001 -0.00038222 0.0081458 -0.019262 -0.0060863
-0.22543 -0.18272 -0.026709 0.0031546
-0.0050693 0.0079349 0.0013302 0.012054 0.0008561 0.011925 0.017495 0.025078
-0.026969 0.0043884 -0.27085 -0.13304
560000000 -0.31458 0.12534 -0.02414 -0.063147 0.00021613 0.012176 0.0065865 0.0087168
0.010153 0.0039252 0.0096603 0.0082232
-0.02391 -0.063037 -0.37617 0.10922 -0.042057 -0.036123 0.013652 0.0030107
-0.012897 -0.0044019 0.0050611 -0.0011696
-7.2793e-05 0.012167 -0.041717 -0.036043 -0.18222 0.25855 -0.00021723 -0.004864
0.018511 0.0040842 0.0068279 -0.0057468
0.0070404 0.0091858 0.013641 0.0034502 -0.00052587 -0.004666 -0.30124 0.13672
0.0044509 -0.025314 0.0052898 -0.020161
0.010714 0.0032242 -0.013305 -0.0053921 0.019704 0.0042952 0.005256 -0.02459
-0.28462 -0.0099515 0.0067187 -0.050669
0.0098992 0.0083294 0.0047292 -0.00085842 0.0072415 -0.0055179 0.0049663 -0.01997
0.0072304 -0.052143 -0.33299 0.016817
620000000 -0.27318 0.10921 -0.02339 0.0069963 0.0033777 0.0079637 0.007154 -0.005298
0.010251 -0.00010206 0.00087223 -0.0018342
-0.023247 0.0069093 -0.40239 0.063403 -0.01887 -7.5963e-06 -0.0017256 -0.0018327
0.010579 -0.0066759 0.00087183 -0.0028285
0.0034464 0.0079869 -0.018968 -0.00010418 -0.15218 0.26837 -0.0020584 -0.0051009
-0.0036941 -0.0031102 0.0081543 -0.0032748
0.0069323 -0.0051484 -0.0017851 -0.0018123 -0.0017923 -0.0050327 -0.25962 0.14574
-0.039301 -0.01878 0.015347 0.023781
0.010878 -0.0013317 0.010539 -0.0069101 -0.0037474 -0.0031744 -0.03948 -0.018428
-0.20484 -0.0475 -0.041616 0.01578
0.00070837 -0.0023024 0.00089257 -0.0028552 0.0079568 -0.0029101 0.014676 0.02381
-0.04024 0.013662 -0.24955 -0.018096
680000000 -0.23238 0.19235 -0.027786 -0.014177 0.0048408 0.0051007 0.00092491 -0.0077644
-0.0029632 -0.01122 0.0045259 -0.0076168
-0.027677 -0.014207 -0.38684 0.16012 -0.032915 -0.0011087 -0.0016125 -0.00045435
-0.0028749 -0.008491 -0.00065866 -0.0025449
0.004859 0.0050334 -0.032956 -0.0010628 -0.1019 0.28774 -0.00075754 -3.7864e-06
-0.0023066 0.0012243 -0.0026134 -0.0097199
0.00095142 -0.0080034 -0.0015843 -0.00054673 -0.00058355 -4.2499e-05 -0.21862 0.19605
-0.023069 -0.0083486 -0.010442 -0.010359
-0.0030117 -0.011031 -0.0028976 -0.0085562 -0.0023289 0.00088449 -0.023779 -0.0086919
-0.25141 0.049204 -0.0051364 -0.0095946
0.0042226 -0.0079723 -0.00065598 -0.0024899 -0.0025482 -0.0095859 -0.010583 -0.010087
-0.0050106 -0.0089545 -0.26376 0.085753
740000000 -0.18951 0.18811 -0.038297 0.026089 0.012674 -0.0049906 -0.00072264 -0.0042356
-0.0046404 -0.0016918 -0.006102 0.0031834
-0.03815 0.02605 -0.33465 0.17883 -0.034561 0.035257 -0.0008571 -0.0064206
-0.011312 0.0079147 -0.0024662 -0.005933
0.012582 -0.0050323 -0.034333 0.03534 -0.068237 0.28679 -0.0010196 0.0035984
-0.0028592 -0.0037571 -0.00094418 0.00042811
-0.00070403 -0.0042848 -0.00080069 -0.0065237 -0.0011099 0.0037251 -0.20141 0.20298
-0.042612 -0.0075155 0.023125 0.013135
-0.0046434 -0.0019535 -0.010919 0.0080992 -0.0030023 -0.0038197 -0.042333 -0.0081435
-0.15687 0.070706 -0.043047 0.00044642
-0.0063891 0.0030468 -0.0030553 -0.0062001 -0.00090828 0.00069789 0.022906 0.013319
-0.042878 0.00060732 -0.25258 0.091161
800000000 -0.15773 0.22859 -0.022429 0.017089 0.005346 -0.010484 -0.0048068 -0.0019736
-0.0042618 0.0029564 0.004275 0.00067678
-0.022442 0.017115 -0.33694 0.24884 -0.007627 0.034006 -0.0020174 0.0021855
-0.00050475 0.0032376 0.0013399 0.0054552
0.0053049 -0.01049 -0.007518 0.034022 -0.026742 0.30956 0.001199 0.0014803
0.000695 0.0035129 -0.0018664 0.00091936
-0.0049053 -0.001872 -0.0020988 0.0022347 0.0011952 0.0014673 -0.17393 0.23065
-0.028331 0.012476 0.013162 -0.0097648
-0.0041225 0.0027586 -0.00019137 0.0032882 0.00074873 0.0036162 -0.02822 0.012574
-0.20012 0.094613 -0.017908 0.017567
0.0042347 0.0010748 0.0012294 0.0053212 -0.0018908 0.0010824 0.013081 -0.0098606
-0.017591 0.017345 -0.24643 0.14713
860000000 -0.12284 0.25007 -0.017179 0.031236 -0.003509 -0.0096585 -0.0025638 0.0013407
0.0042519 0.0050398 -0.0030012 -0.0032838
-0.017357 0.03122 -0.28932 0.29051 0.0081699 0.033927 0.00043819 0.0021036
0.0046261 -5.868e-05 0.0033411 0.00030006
-0.0035974 -0.0096473 0.00834 0.033977 0.021492 0.31733 -0.00029199 -0.00029449
0.0029014 -0.0017614 0.0014106 0.0044519
-0.002797 0.0014453 0.00040991 0.0020734 -0.00039258 -0.00031406 -0.13826 0.24265
-0.017935 0.018539 -0.0063506 -0.0092242
0.0042106 0.0050931 0.0045973 0.00040402 0.0028644 -0.0016536 -0.018179 0.01868
-0.15053 0.14396 -0.024079 0.0153
-0.0026656 -0.0034065 0.0026353 0.00014493 0.0014375 0.0043367 -0.0060373 -0.0092805
-0.024527 0.015457 -0.19495 0.18973
920000000 -0.097457 0.27311 0.005328 0.037794 -0.009312 -0.0041846 -0.0017454 0.0023781
0.0012607 0.0017546 0.0024645 -0.0012594
0.0053249 0.037717 -0.25999 0.31181 0.027946 0.021526 0.0016328 0.0011453
0.0066865 -0.0007041 0.0036976 -0.0028223
-0.0093084 -0.0041543 0.027987 0.021461 0.068004 0.31757 0.0017155 -0.00010691
0.0012774 -0.00046784 0.00081979 -0.0010018
-0.0017658 0.0023672 0.0016417 0.0012611 0.0017218 -0.0001163 -0.11388 0.25906
-0.010639 0.029934 0.0027145 -0.0062256
0.0014555 0.0016741 0.006723 -0.00070117 0.0012449 -0.00049035 -0.010456 0.029906
-0.14109 0.14997 -0.0021961 0.027643
0.0024818 -0.0011922 0.0035312 -0.0029525 0.00065718 -0.0010879 0.0025937 -0.0064239
-0.0020676 0.02728 -0.20276 0.20445
980000000 -0.049686 0.29254 0.017923 0.029787 -0.0086733 0.0047063 0.0023931 0.0037159
0.0038617 -0.0016586 -0.002998 -0.002223
0.017873 0.029721 -0.20722 0.34498 0.032739 0.0044192 0.0019076 4.4648e-06
0.00085618 -0.0062445 -0.00071831 -0.0023376
-0.0086113 0.0047282 0.032803 0.0043275 0.11435 0.3106 0.00038425 -0.0011545
-1.3729e-05 -0.0020292 0.0014978 -0.00013769
0.002422 0.0036056 0.0019147 -9.5652e-05 0.00041633 -0.0012219 -0.075663 0.27032
0.0074183 0.028355 -0.0095148 -0.0068572
0.0038632 -0.0016772 0.0009797 -0.0062743 -1.1553e-05 -0.0020873 0.0076666 0.028388
-0.10999 0.17727 0.0047284 0.018547
-0.0028162 -0.0020109 -0.00072768 -0.0022305 0.0015189 -0.0001851 -0.0093788 -0.0067316
0.0052537 0.018673 -0.16015 0.24992
1040000000 -0.0066058 0.30095 0.033153 0.017602 -0.0010137 0.0068672 0.0028597 0.00072465
6.7426e-05 -0.0037712 -0.00072338 -0.0014079
0.033093 0.017596 -0.17148 0.358 0.028804 -0.01489 0.0014675 -0.0016859
-0.0026299 -0.0021913 -0.0014855 -0.0027573
-0.0010175 0.0068406 0.028762 -0.014987 0.16034 0.29656 -0.00048905 -0.0013825
-0.0014757 -0.00075849 -0.00041294 -0.0011843
0.0028098 0.00074722 0.0014181 -0.0016963 -0.00050213 -0.001353 -0.048081 0.28064
0.017875 0.016955 -0.0030502 0.0021923
-9.7552e-05 -0.0036733 -0.002618 -0.0022261 -0.0015128 -0.00066847 0.017895 0.016941
-0.079572 0.18668 0.013216 0.017785
-0.00059995 -0.0013415 -0.0016343 -0.0027116 -0.00043906 -0.001112 -0.0029639 0.0021628
0.013159 0.017748 -0.13914 0.27147
1100000000 0.039276 0.30777 0.03557 -0.0047271 0.0029796 0.0037017 0.0025815 -0.0014609
-0.0021386 -0.0029921 -0.0037838 1.6949e-05
0.035575 -0.0046812 -0.1279 0.37463 0.014696 -0.027409 6.5987e-05 -0.0018133
-0.0030877 -0.00042092 -0.0033448 -0.0004181
0.0029848 0.0037044 0.014635 -0.027534 0.2064 0.27587 -0.0017879 0.00024619
-0.001665 0.00070335 -0.00085976 -0.00035437
0.0025804 -0.0014822 3.0832e-05 -0.0017986 -0.0017579 0.00026893 -0.0074523 0.28532
0.022188 0.004991 -0.0022485 0.0010676
-0.0021816 -0.002974 -0.0031201 -0.00036697 -0.0016307 0.00068468 0.022211 0.0049537
-0.061068 0.20032 0.018644 0.0085408
-0.0038285 0.00014986 -0.0033797 -0.0004355 -0.00091213 -0.00035423 -0.0022252 0.001105
0.018585 0.0085268 -0.092041 0.30054
1160000000 0.090837 0.30215 0.023517 -0.020824 0.0026564 -0.00062417 -5.9719e-05 -0.0025677
-0.0041323 -0.0002904 -0.001001 0.004027
0.023432 -0.020835 -0.084033 0.37841 -0.0038207 -0.028649 -0.0017602 -0.00155
-0.0022564 0.0027523 -0.0013345 0.0015426
0.0026653 -0.00060798 -0.0039203 -0.028614 0.24918 0.24492 -0.00059731 0.0016968
-0.00037762 0.0018237 -0.0010447 0.00010621
-5.9026e-05 -0.0026222 -0.0017862 -0.0015654 -0.00061277 0.0016731 0.031899 0.28243
0.01887 -0.0095786 -0.0027381 0.0056718
-0.0041385 -0.00036526 -0.0022041 0.0026799 -0.00037023 0.0017807 0.018899 -0.0096126
-0.027975 0.20971 0.017267 0.00063373
-0.00095162 0.0041092 -0.0013724 0.0015381 -0.00097486 0.00015846 -0.0027109 0.0057566
0.017338 0.00067865 -0.045143 0.3036
1220000000 0.13525 0.29017 0.010015 -0.029786 -0.0015411 -0.00089639 -0.00017642 -0.0011836
-0.0025251 0.0025634 0.0012459 0.0019143
0.0099966 -0.029755 -0.040068 0.38983 -0.016599 -0.020702 -0.0024639 0.00042856
0.00030243 0.0027623 -0.00069314 0.0016844
-0.0015348 -0.0009068 -0.016729 -0.020665 0.28823 0.20587 0.00089376 0.0015412
0.00060183 0.0010621 0.0002304 0.00068348
-0.00018176 -0.0011554 -0.0024784 0.00043831 0.00085028 0.0015629 0.071523 0.27376
0.008974 -0.014882 0.0029797 0.001819
-0.0024585 0.0025846 0.00034797 0.0027965 0.00060893 0.001097 0.0088977 -0.014939
-0.0044046 0.21959 0.013331 -0.012103
0.0013238 0.0018012 -0.00068434 0.0017326 0.00029693 0.00068397 0.0029791 0.0017268
0.013333 -0.012109 -0.013513 0.32111
1280000000 0.18461 0.26734 -0.0079591 -0.02801 -0.001904 0.0023389 -0.0011138 -0.002019
-0.00060234 0.0030317 0.002538 0.0010931
-0.0079473 -0.02801 0.0054665 0.38055 -0.023201 -0.0083099 -0.00095417 0.0014019
0.0015988 0.0014766 0.00050613 0.0020662
-0.0019163 0.0023412 -0.023256 -0.0082255 0.31885 0.162 0.0013499 -0.00020186
0.00096468 8.9823e-05 0.00029404 0.00040317
-0.0010972 -0.0019971 -0.00093893 0.0014411 0.0013916 -0.00018244 0.10796 0.25765
0.00047734 -0.016438 0.00061814 0.00010983
-0.00057078 0.0030691 0.0016063 0.0014633 0.00097546 0.00011033 0.00048088 -0.016403
0.032709 0.22357 0.0028509 -0.014018
0.0025016 0.0011275 0.00054508 0.0021105 0.0002356 0.00046935 0.00057711 0.00014223
0.0028561 -0.013958 0.034331 0.3225
1340000000 0.22141 0.23317 -0.017497 -0.018666 0.0008279 0.0043318 -0.0019702 -0.00069926
0.001442 0.0024893 0.0015941 -0.0015307
-0.017485 -0.018655 0.044711 0.37212 -0.021191 0.004008 -7.8117e-05 0.0019001
0.0016638 0.00057982 0.0013227 0.00083933
0.0008318 0.0042889 -0.021218 0.0041528 0.34095 0.11384 0.00089976 -0.0008528
0.00057421 -0.00034992 0.00020179 0.00022738
-0.0019463 -0.00072924 -5.9817e-05 0.001924 0.00090404 -0.00090873 0.14076 0.2377
-0.0072175 -0.013562 0.0015099 -0.00017564
0.0014511 0.002489 0.001655 0.00057626 0.0005583 -0.00040474 -0.0072344 -0.013581
0.063574 0.21916 -0.0033511 -0.012444
0.001546 -0.0015146 0.0012914 0.00082453 0.00018286 0.00023088 0.001538 -0.00015515
-0.0033399 -0.012417 0.07356 0.31844
1400000000 0.25398 0.19449 -0.023076 -0.0073941 0.0049543 0.0030712 -0.0020346 0.00075748
0.0024426 0.00059591 0.00011831 -0.0013649
-0.023029 -0.007372 0.081536 0.35904 -0.014611 0.012006 0.0013257 0.0012575
0.00087415 -0.00081825 0.001104 0.00032292
0.0049527 0.0030847 -0.014596 0.012072 0.35405 0.059978 7.2147e-05 -0.0013576
-3.539e-06 -0.00030713 0.00031327 0.00022487
-0.0020419 0.00074155 0.0013351 0.0012393 6.9611e-05 -0.0013509 0.17074 0.20954
-0.01196 -0.0077679 -0.00048729 -0.00093495
0.0024818 0.00058924 0.00086424 -0.00082864 -1.8032e-05 -0.00027337 -0.012029 -0.0077586
0.097237 0.21448 -0.0094036 -0.0080802
0.00012479 -0.0013219 0.0011756 0.00031886 0.00030054 0.00029187 -0.00050065 -0.00095766
-0.009397 -0.0080323 0.11839 0.30777
1460000000 0.27627 0.15007 -0.020223 0.0044621 0.0053762 -0.0016819 -0.0015012 0.0017509
0.0018812 -0.00072244 -0.00034378 -0.00087858
-0.020166 0.0044367 0.11562 0.33728 -0.0061998 0.014894 0.0016411 0.00016432
0.00076776 -0.00099689 0.0011847 -0.00064364
0.005434 -0.0016996 -0.0061648 0.01491 0.35983 0.0053 -0.0010549 -0.0011335
0.000285 -0.00010537 0.00064353 -0.00036255
-0.0014791 0.0017665 0.0016618 0.00018028 -0.00099782 -0.0010995 0.19786 0.18051
-0.012422 -0.0026443 -0.0011202 0.0012903
0.001928 -0.00075839 0.00075533 -0.0010436 0.00026491 -0.00016761 -0.012463 -0.0026381
0.1274 0.19966 -0.010714 -0.0028998
-0.00038222 -0.0008727 0.0011636 -0.00064941 0.00063335 -0.00040249 -0.0011172 0.0013142
-0.010688 -0.0029171 0.15198 0.28669
1520000000 0.28795 0.10823 -0.014703 0.010066 0.0030571 -0.0040101 0.00016668 0.0025544
0.0016162 -0.0016798 -0.001124 -0.00016914
-0.014706 0.010022 0.14914 0.32254 0.0012099 0.012896 0.0015552 -0.0007752
0.0001028 -0.00084043 0.00031697 -0.0010067
0.0030437 -0.0040805 0.0012666 0.012902 0.35289 -0.051299 -0.00086796 -0.00031489
0.0005404 -0.0007133 -5.0448e-05 2.3256e-08
0.00018462 0.0025272 0.0015496 -0.00077264 -0.00086223 -0.00031822 0.22214 0.14226
-0.011922 0.0016098 0.00091384 0.0016392
0.0015896 -0.0017211 0.00011085 -0.00084273 0.00051246 -0.0007084 -0.011942 0.0016678
0.15579 0.18472 -0.010832 0.0012885
-0.0011819 -0.00011918 0.00027375 -0.00099985 -6.9191e-05 -8.5175e-05 0.00089653 0.0016257
-0.010826 0.0012815 0.18581 0.26651
1580000000 0.29699 0.061685 -0.0082169 0.013153 -0.00093463 -0.0046635 0.0014154 0.0017753
-0.00050838 -0.0020173 -0.0003582 0.00043392
-0.0082373 0.013182 0.17644 0.29765 0.0048665 0.0082978 0.00042769 -0.0014989
-0.00028954 -0.00097325 -0.00026542 -0.00088582
-0.001018 -0.0046367 0.0048915 0.0082851 0.33222 -0.10895 -0.0014289 0.00047954
-0.0002189 -0.0010218 0.00013162 -0.00048731
0.0013959 0.0017807 0.00042585 -0.0015159 -0.0014531 0.00045852 0.2371 0.10205
-0.009574 0.0053937 0.0017461 0.000652
-0.00049382 -0.0019702 -0.00029949 -0.00095712 -0.00028626 -0.0010472 -0.0095566 0.0053953
0.18049 0.16595 -0.0086973 0.0065297
-0.00034395 0.00034427 -0.00026585 -0.00085521 9.0235e-05 -0.00045487 0.0017142 0.00066567
-0.008728 0.0065148 0.21815 0.23971
1640000000 0.2983 0.0199 -0.001657 0.012266 -0.0025621 -0.0024281 0.0025254 0.00093596
-0.00082496 -0.0010585 -0.00029352 0.00066941
-0.001665 0.012244 0.20587 0.27243 0.0057059 0.0037047 -0.00065717 -0.0016073
-0.0008982 -0.00049681 -0.0005501 -0.00066693
-0.0026502 -0.0024022 0.0056903 0.0036819 0.30346 -0.15795 -0.00082103 0.001216
-0.00095131 -0.00080827 -0.00011765 -0.00031734
0.0025161 0.00096394 -0.00066573 -0.0015986 -0.00078925 0.0012057 0.24988 0.051776
-0.0063893 0.0062342 0.0020338 -0.00066432
-0.00085496 -0.0011005 -0.00091987 -0.00050059 -0.00085584 -0.00090016 -0.0063821 0.0062522
0.20374 0.14043 -0.0044573 0.0085776
-0.00033461 0.00064186 -0.00055248 -0.00063643 -0.00016835 -0.00029995 0.002014 -0.00065077
-0.0044344 0.008536 0.24419 0.20849
1700000000 0.2904 -0.025679 0.0018204 0.0096353 -0.0032943 1.0963e-05 0.0029257 -0.00103
-0.0016163 -0.00035637 0.00064359 0.00039897
0.0018366 0.0096871 0.22401 0.24058 0.0039315 0.00086847 -0.0013498 -0.00054499
-0.00081118 -4.1543e-05 -0.00092718 -0.00039464
-0.0033223 0.00013059 0.0039566 0.00092784 0.25986 -0.19755 0.00030142 0.0015633
-0.0017586 -0.00031237 -0.00060248 -0.00083692
0.002939 -0.0011117 -0.0013424 -0.00055182 0.00031931 0.0016064 0.24635 0.00018622
-0.004708 0.0068087 0.0011825 -0.0019397
-0.0016326 -0.00026895 -0.00080548 -6.2375e-05 -0.0017542 -0.00030237 -0.0047216 0.0068624
0.22146 0.11869 -9.4759e-05 0.0089626
0.00057001 0.00038053 -0.00091305 -0.00040803 -0.00063025 -0.00084887 0.0012006 -0.0019056
-9.2004e-05 0.0089773 0.26084 0.17387
1760000000 0.27704 -0.074157 0.0042603 0.0065156 -0.0022423 0.00078386 0.001372 -0.0032798
-0.00094089 0.00064457 0.00043214 -0.00044906
0.00427 0.0065135 0.24963 0.20033 0.0017631 -0.0010064 -0.001079 0.00014737
-0.0012013 0.00083398 -0.0006449 0.00054367
-0.0021781 0.00071401 0.0018472 -0.00098077 0.21059 -0.23068 0.0010525 0.0013144
-0.0011868 0.0013186 -0.0014664 -0.00048887
0.0013424 -0.0033043 -0.001082 0.00015695 0.0010362 0.0012656 0.23563 -0.052462
-0.0023438 0.0065512 -0.00055607 -0.0020668
-0.00089391 0.00064839 -0.0011997 0.00083748 -0.0012627 0.0012221 -0.0023205 0.0065539
0.23636 0.08179 0.0035003 0.0063759
0.00041119 -0.00037637 -0.00058894 0.00054184 -0.0013393 -0.00048376 -0.00054773 -0.0020698
0.003504 0.0063926 0.27358 0.13595
1820000000 0.2514 -0.11101 0.0046351 0.002915 -0.00014747 0.0024272 -0.00088838 -0.0030219
-0.00078064 0.00053409 0.00013433 -9.6518e-05
0.0046711 0.0028975 0.25918 0.16999 -0.00020701 4.8647e-05 -0.0013766 0.00080016
-0.000201 0.0013865 -0.00052352 0.00056809
-0.000107 0.002376 -0.00012632 3.1629e-05 0.16029 -0.24611 0.0015006 0.00044981
-0.00055987 0.002073 -0.0013168 0.00053787
-0.00087035 -0.003028 -0.0013978 0.00078361 0.0014454 0.00047035 0.20375 -0.099969
-0.0012782 0.005495 -0.001438 -0.0012412
-0.0007714 0.00054727 -0.00016674 0.0013797 -0.00049045 0.0021293 -0.0012746 0.0054763
0.25252 0.050436 0.0045529 0.0032007
9.3768e-05 3.4187e-06 -0.00050412 0.00057095 -0.0013121 0.00051136 -0.0014427 -0.0012408
0.0045044 0.0031674 0.27598 0.099869
1880000000 0.21543 -0.15037 0.002649 0.00050186 -0.00027026 0.0021225 -0.0028379 -0.0022357
-0.00041103 0.0012536 0.00033591 -0.00064352
0.0025585 0.00049883 0.26312 0.12335 -0.0020978 0.001676 -0.00026832 0.0016906
0.00060862 0.0013655 0.00023582 0.00095855
-0.00036585 0.0022057 -0.0020313 0.001666 0.1083 -0.2552 0.001876 -0.001047
0.0014394 0.0020263 -0.00079826 0.0013945
-0.0029123 -0.0022414 -0.00026627 0.0016987 0.0018353 -0.0010388 0.16126 -0.13901
-0.0012433 0.004445 -0.0022225 0.00088744
-0.00042177 0.0012514 0.00057014 0.0013782 0.0014344 0.0020278 -0.001246 0.0044845
0.25366 0.015288 0.0040639 0.001238
0.00039507 -0.00076148 0.00018331 0.00089714 -0.00086006 0.0014373 -0.0021388 0.00090156
0.0040857 0.0012918 0.27615 0.065586
1940000000 0.176 -0.17501 0.00035043 -0.0013264 0.0012983 0.0019271 -0.0036727 0.00044314
0.0010714 0.0010407 -0.00072309 -0.00057135
0.00034874 -0.0013912 0.26306 0.091548 -0.00097572 0.0038654 0.00092069 0.0013522
0.0020568 0.00057127 0.00081985 0.00021552
0.0013355 0.0018443 -0.00099702 0.0037974 0.062294 -0.24861 0.0004708 -0.0022733
0.0025313 0.00066632 0.00035657 0.0016016
-0.0037261 0.00055786 0.00092366 0.0013728 0.00042872 -0.0022609 0.10788 -0.16763
-0.0022544 0.0041274 -0.0010988 0.001846
0.0010445 0.0010899 0.0020365 0.00058249 0.0024865 0.0006515 -0.0021852 0.0041314
0.25282 -0.025474 0.0028833 -0.0017198
-0.00073046 -0.00074072 0.00088255 0.0001699 0.00043727 0.0015096 -0.0011387 0.0018392
0.0029307 -0.0017346 0.26488 0.029582
2000000000 0.12975 -0.18872 -0.0033443 0.00051398 0.0024461 0.0016163 -0.0022846 0.0036694
0.00099251 0.00051919 -0.00067992 0.00041548
-0.0034452 0.0004995 0.24845 0.056337 -0.00081346 0.0055483 0.0017206 0.00040307
0.0015774 -0.0014359 0.00051519 8.9098e-05
0.0025539 0.0015718 -0.00080316 0.0055385 0.019349 -0.23426 -0.0014168 -0.0013343
0.0021543 -0.0011223 0.0015642 0.0013064
-0.0021953 0.0037153 0.0017228 0.00034398 -0.0014574 -0.0013863 0.054743 -0.17553
-0.0034966 0.0051197 0.00027741 0.0020731
0.0010009 0.00055473 0.0015721 -0.0014727 0.002166 -0.0011526 -0.0035448 0.0050501
