!Keysight Technologies,M9804A,MY58100912,A.14.10.03
!Date: Thursday, April 27, 2023 10:28:33
!Correction: S11(C  6-Port  ) 
!S12(C  6-Port  ) 
!S13(C  6-Port  ) 
!S14(C  6-Port  ) 
!S15(C  6-Port  ) 
!S16(C  6-Port  ) 
!S21(C  6-Port  ) 
!S22(C  6-Port  ) 
!S23(C  6-Port  ) 
!S24(C  6-Port  ) 
!S25(C  6-Port  ) 
!S26(C  6-Port  ) 
!S31(C  6-Port  ) 
!S32(C  6-Port  ) 
!S33(C  6-Port  ) 
!S34(C  6-Port  ) 
!S35(C  6-Port  ) 
!S36(C  6-Port  ) 
!S41(C  6-Port  ) 
!S42(C  6-Port  ) 
!S43(C  6-Port  ) 
!S44(C  6-Port  ) 
!S45(C  6-Port  ) 
!S46(C  6-Port  ) 
!S51(C  6-Port  ) 
!S52(C  6-Port  ) 
!S53(C  6-Port  ) 
!S54(C  6-Port  ) 
!S55(C  6-Port  ) 
!S56(C  6-Port  ) 
!S61(C  6-Port  ) 
!S62(C  6-Port  ) 
!S63(C  6-Port  ) 
!S64(C  6-Port  ) 
!S65(C  6-Port  ) 
!S66(C  6-Port  ) 
!S6P File: Measurement: :
# Hz S  RI   R 50
500000000 -0.33556 -0.03384 -0.0097349 -0.0039793 -0.0081 0.011501 -0.0041064 0.012059
0.012003 0.0046441 -0.0046716 0.0073271
-0.0097161 -0.0039744 -0.4197 -0.047967 0.0074681 -0.011092 0.0012633 0.010536
0.0078434 0.0028829 0.0013867 0.012731
-0.0081009 0.01151 0.0074463 -0.011109 -0.26419 0.21192 0.0065331 0.002784
0.0002652 0.0084822 0.00015202 0.011616
-0.0039956 0.011971 0.0012191 0.010468 0.0065037 0.0027981 -0.32672 0.048439
-0.019415 -0.0055926 0.017301 0.02531
0.012609 0.0040574 0.0081986 0.0025292 2.7465e-05 0.0084104 -0.019267 -0.0052138
-0.22583 -0.18338 -0.026811 0.0045986
-0.0044159 0.0082452 0.0012212 0.011601 0.00021736 0.011465 0.018122 0.02524
-0.027182 0.0033443 -0.27023 -0.13102
560000000 -0.3139 0.12513 -0.02416 -0.062781 -0.00028393 0.012013 0.0064053 0.0096512
0.011432 0.0036614 0.009553 0.0080935
-0.024091 -0.062701 -0.37718 0.1095 -0.041058 -0.036452 0.013569 0.0034537
-0.013462 -0.0050712 0.0049717 -0.0016119
-0.00025372 0.012036 -0.04118 -0.03644 -0.18293 0.25926 -0.00043633 -0.0047435
0.019444 0.0039774 0.0069532 -0.0059353
0.0064266 0.0095351 0.013538 0.0035532 -0.00047842 -0.0048782 -0.30192 0.13602
0.0034293 -0.024497 0.0056929 -0.020053
0.010629 0.0033863 -0.01224 -0.0044413 0.01839 0.0039596 0.0044005 -0.025258
-0.28329 -0.0095045 0.0063199 -0.050328
0.010015 0.0076086 0.0049427 -0.00094242 0.0069483 -0.0057366 0.0055211 -0.019655
0.0059803 -0.051604 -0.33249 0.017474
620000000 -0.27262 0.10952 -0.023247 0.0069993 0.0032897 0.0081628 0.0072626 -0.0056331
0.01092 -0.00039367 0.00047916 -0.0017321
-0.023231 0.0069964 -0.40234 0.063503 -0.018929 -0.00027444 -0.0014941 -0.001961
0.010293 -0.0069832 0.00087468 -0.0026668
0.0033084 0.0081569 -0.018947 -0.00022729 -0.15255 0.26853 -0.0019419 -0.0051445
-0.0036902 -0.0027358 0.008166 -0.0030817
0.0072289 -0.005606 -0.0014681 -0.0019259 -0.0019189 -0.0050247 -0.25991 0.14568
-0.038705 -0.019027 0.014785 0.023545
0.010989 -0.00017163 0.010328 -0.0070788 -0.0036516 -0.0032177 -0.039203 -0.018484
-0.20523 -0.046409 -0.040129 0.015183
0.00047249 -0.001778 0.00086052 -0.0024859 0.0080916 -0.0033256 0.014873 0.024366
-0.040981 0.016171 -0.25004 -0.018553
680000000 -0.23216 0.19228 -0.027834 -0.014181 0.0049848 0.0050892 0.00066916 -0.0077299
-0.0029909 -0.010786 0.0037205 -0.0074014
-0.027806 -0.014188 -0.38652 0.16018 -0.032756 -0.0011116 -0.0016421 -0.00054743
-0.003092 -0.0085734 -0.00082317 -0.0026933
0.0049859 0.0050842 -0.032795 -0.0010301 -0.10163 0.28779 -0.00066904 -3.1812e-05
-0.0024721 0.00098756 -0.0024516 -0.0096898
0.00074005 -0.0077499 -0.0016214 -0.00056111 -0.00070033 -1.9895e-05 -0.21835 0.19601
-0.02354 -0.0088315 -0.010592 -0.010179
-0.0031843 -0.010661 -0.0030888 -0.0084987 -0.002356 0.00098828 -0.023399 -0.0089247
-0.25142 0.04854 -0.0042745 -0.010003
0.0044288 -0.0078065 -0.00083451 -0.0025883 -0.0027879 -0.0098308 -0.010705 -0.010201
-0.0048651 -0.0093169 -0.26439 0.085923
740000000 -0.1894 0.18827 -0.038513 0.026285 0.0126 -0.0050774 -0.00085925 -0.0041169
-0.0048611 -0.0019778 -0.0063172 0.0033537
-0.038498 0.026227 -0.33503 0.1789 -0.034415 0.034927 -0.00094035 -0.006263
-0.011379 0.0084859 -0.0026754 -0.0060458
0.012584 -0.0051017 -0.03433 0.035054 -0.068083 0.28706 -0.0011992 0.0033458
-0.0027499 -0.0035236 -0.00087634 0.00055633
-0.00090747 -0.0041419 -0.00097323 -0.0062078 -0.0012315 0.0033721 -0.20143 0.2032
-0.042573 -0.0078629 0.022873 0.012687
-0.0045962 -0.0018119 -0.011204 0.0084992 -0.0029122 -0.0037759 -0.042332 -0.0076562
-0.15714 0.070898 -0.042218 0.00065744
-0.0063455 0.0032681 -0.0024451 -0.0060965 -0.00092056 0.00046574 0.022975 0.012908
-0.042923 0.0011277 -0.25231 0.091627
800000000 -0.15792 0.22848 -0.022414 0.017225 0.0051849 -0.010484 -0.0047798 -0.0020398
-0.0041222 0.0029038 0.0048148 0.00066745
-0.022412 0.017209 -0.33692 0.24891 -0.0076132 0.033957 -0.0019183 0.0022323
-0.00027923 0.003334 0.0015006 0.005326
0.0051662 -0.010501 -0.0075197 0.034005 -0.026738 0.30965 0.0012066 0.0015044
0.00077909 0.0035406 -0.0017278 0.00082276
-0.0047954 -0.0020029 -0.0019272 0.0022091 0.0012143 0.0014938 -0.17385 0.23077
-0.028268 0.012457 0.013135 -0.010087
-0.0040167 0.0027256 -0.00019844 0.0033667 0.00082176 0.0035356 -0.028264 0.01257
-0.19978 0.094859 -0.01785 0.01741
0.0043927 0.00094388 0.0013908 0.0053901 -0.0018507 0.0009302 0.013264 -0.009979
-0.017692 0.017047 -0.24552 0.14683
860000000 -0.12293 0.25001 -0.017129 0.031161 -0.0034706 -0.0097585 -0.0025924 0.0012646
0.0044516 0.005055 -0.0028332 -0.0031353
-0.017124 0.031125 -0.2893 0.29092 0.0081995 0.033933 0.00033368 0.0021242
0.0046152 0.00025271 0.003331 7.6208e-06
-0.0035071 -0.0097552 0.0082981 0.033935 0.021635 0.31737 -0.00038756 -0.00032511
0.0027537 -0.0016303 0.0015683 0.0044559
-0.0026066 0.0012791 0.00035658 0.0020753 -0.0003633 -0.00032656 -0.1382 0.24277
-0.018022 0.018645 -0.0062732 -0.0093583
0.0045012 0.0050464 0.0046794 6.5746e-05 0.0028078 -0.0016325 -0.017833 0.018602
-0.15115 0.14416 -0.024941 0.01477
-0.0028138 -0.0030281 0.0032512 0.00019541 0.0014578 0.0044744 -0.0062014 -0.0092029
-0.024388 0.015027 -0.1946 0.19039
920000000 -0.09731 0.27343 0.0053994 0.037921 -0.0092326 -0.0040681 -0.001744 0.0024089
0.0012646 0.0015275 0.0022774 -0.0011095
0.0053896 0.037868 -0.26009 0.3118 0.027938 0.021498 0.0015786 0.001186
0.0067737 -0.00087001 0.0036723 -0.0029403
-0.0092374 -0.0040511 0.028022 0.021435 0.068063 0.3176 0.0017413 -0.00011381
0.0013019 -0.00055826 0.00078683 -0.0010625
-0.0017197 0.0024122 0.0015846 0.0012049 0.0017296 -0.00012649 -0.11382 0.25913
-0.010658 0.02999 0.0027705 -0.0060342
0.0011812 0.0015905 0.0066207 -0.00095144 0.0012657 -0.00053988 -0.010531 0.030011
-0.14115 0.14993 -0.0022564 0.027492
0.0023557 -0.0011304 0.0035112 -0.0030411 0.00069779 -0.0011445 0.0027043 -0.0062858
-0.0023469 0.027329 -0.20311 0.20482
980000000 -0.049696 0.29286 0.017878 0.029857 -0.0087094 0.0047604 0.0024233 0.0036491
0.0039226 -0.0016214 -0.0029521 -0.002151
0.017866 0.029838 -0.20728 0.34527 0.032637 0.0044147 0.0018947 -0.0001449
0.0009303 -0.006216 -0.00063302 -0.0022746
-0.0086942 0.0048006 0.032665 0.0043181 0.11435 0.31054 0.00042056 -0.0012452
1.6356e-05 -0.0020101 0.0015892 -0.00011165
0.0024139 0.003646 0.0018944 -0.00012768 0.00041067 -0.0012421 -0.075452 0.27034
0.0075437 0.028479 -0.0095743 -0.0067973
0.0039882 -0.0016457 0.0010003 -0.0061106 3.481e-05 -0.0020045 0.0076382 0.028503
-0.11001 0.17734 0.0048953 0.018413
-0.0028939 -0.0020687 -0.0006152 -0.0022578 0.0016192 -7.3613e-05 -0.009588 -0.0064812
0.004945 0.018395 -0.15945 0.25005
1040000000 -0.0064187 0.30099 0.033175 0.017624 -0.0010002 0.006864 0.0028687 0.00063905
4.3243e-05 -0.0036864 -0.00069866 -0.001372
0.033157 0.017608 -0.17138 0.35812 0.028808 -0.014861 0.0014363 -0.0016833
-0.0026545 -0.0021978 -0.001652 -0.0026202
-0.00096646 0.0068655 0.02877 -0.014952 0.16038 0.29652 -0.00051146 -0.0013903
-0.0014807 -0.00076556 -0.00047384 -0.0011414
0.0028903 0.00061556 0.0014612 -0.0016674 -0.00051613 -0.0013896 -0.047942 0.28059
0.017939 0.016894 -0.0029406 0.0022047
1.5772e-05 -0.0037115 -0.0026229 -0.0021875 -0.001502 -0.00071634 0.018001 0.016896
-0.079658 0.18694 0.013164 0.017885
-0.00062804 -0.0015019 -0.0015029 -0.0025836 -0.00040645 -0.0011809 -0.0030384 0.0022777
0.013128 0.018031 -0.13895 0.27177
1100000000 0.03942 0.30788 0.035544 -0.0046162 0.003006 0.0036881 0.0025983 -0.0014936
-0.0021271 -0.0029843 -0.0037948 5.0986e-05
0.035515 -0.0046039 -0.12766 0.37484 0.014704 -0.027424 7.7603e-06 -0.0018155
-0.0031334 -0.00042467 -0.0033817 -0.00043616
0.0030273 0.0036761 0.014608 -0.027499 0.20652 0.27584 -0.0017503 0.00030438
-0.0016669 0.00065276 -0.00092766 -0.00037081
0.0025996 -0.0015008 2.0319e-05 -0.0018228 -0.0017505 0.00029699 -0.0073046 0.28537
0.022275 0.0049829 -0.0022982 0.001006
-0.0021349 -0.0029645 -0.0031344 -0.0003879 -0.0016569 0.00066055 0.022249 0.0049476
-0.061068 0.20062 0.018546 0.0085136
-0.0037635 6.1143e-05 -0.003474 -0.00042504 -0.00094743 -0.00036814 -0.0021591 0.0011241
0.01856 0.0086235 -0.091742 0.30068
1160000000 0.09116 0.30218 0.023514 -0.02081 0.0026872 -0.00062162 -5.8358e-05 -0.0025542
-0.0040941 -0.00033823 -0.0009472 0.004074
0.023522 -0.020783 -0.083907 0.37859 -0.0038212 -0.028564 -0.0017771 -0.0015378
-0.0022535 0.0027008 -0.0013138 0.0016145
0.0026964 -0.00062067 -0.0039611 -0.028562 0.24931 0.24485 -0.00054161 0.0017289
-0.000333 0.0017629 -0.00099585 8.7691e-05
-7.5264e-05 -0.0025617 -0.0017664 -0.0015322 -0.0005458 0.00171 0.03201 0.28239
0.018874 -0.0096084 -0.0026966 0.005755
-0.0041199 -0.00033204 -0.0022197 0.0026855 -0.00034237 0.0017667 0.018826 -0.0095871
-0.027826 0.20991 0.017182 0.00063237
-0.00096742 0.0039925 -0.0012706 0.0015028 -0.001024 8.2269e-05 -0.0026313 0.0057397
0.01717 0.00059433 -0.045139 0.30358
1220000000 0.13563 0.29014 0.010033 -0.029708 -0.0015535 -0.00086747 -0.00022349 -0.0011462
-0.0024698 0.0025137 0.0012675 0.0017783
0.010046 -0.029677 -0.039879 0.38994 -0.016587 -0.020631 -0.0024815 0.00043947
0.00031947 0.0027617 -0.00066322 0.0016715
-0.0015494 -0.00085739 -0.016697 -0.020571 0.28831 0.20585 0.00090145 0.0015033
0.00063363 0.0010714 0.00032421 0.00068381
-0.00022255 -0.0011516 -0.0024906 0.00045366 0.00089486 0.0015205 0.071644 0.27371
0.0089419 -0.014895 0.0030475 0.0017938
-0.0024885 0.0025571 0.00032468 0.0027668 0.00060709 0.0010607 0.0089175 -0.014899
-0.0042301 0.21974 0.013345 -0.011914
0.0012955 0.0018353 -0.00069754 0.0017112 0.00031119 0.00074153 0.0030248 0.0017435
0.013366 -0.011948 -0.013265 0.32111
1280000000 0.18494 0.26725 -0.007921 -0.027985 -0.001836 0.0023682 -0.0011419 -0.0020016
-0.00059864 0.0030399 0.0025394 0.0011017
-0.0078884 -0.027964 0.005719 0.3806 -0.023171 -0.0082865 -0.00095682 0.0014353
0.0016191 0.0014038 0.00055097 0.0019556
-0.0018251 0.0023718 -0.023231 -0.008185 0.3189 0.16179 0.0013486 -0.00020394
0.00093041 6.9463e-05 0.00032648 0.00038483
-0.0011434 -0.0019932 -0.00096006 0.0014312 0.0013656 -0.00020352 0.10797 0.25753
0.00046638 -0.01645 0.00064163 2.82e-05
-0.0005663 0.0030433 0.0016287 0.0014447 0.00096523 3.3586e-05 0.00043379 -0.016448
0.033004 0.22366 0.0028162 -0.013779
0.0025048 0.0010453 0.00053403 0.0020012 0.00025421 0.00044747 0.00069395 0.00014331
0.0028632 -0.013805 0.034594 0.32264
1340000000 0.22156 0.23291 -0.017434 -0.018656 0.00081575 0.0042666 -0.0019567 -0.00070735
0.0014523 0.0025098 0.0015668 -0.0014728
-0.017401 -0.018642 0.044884 0.37209 -0.021123 0.0040438 -5.4483e-05 0.0018982
0.0016448 0.0006036 0.0012821 0.00083972
0.00082732 0.0042508 -0.02112 0.0041463 0.3411 0.11375 0.00087885 -0.00092031
0.00054817 -0.00039228 0.00018417 0.00022049
-0.0019458 -0.0006918 -4.5071e-05 0.0019038 0.00088629 -0.00090974 0.14082 0.23766
-0.0072522 -0.013588 0.0015917 -0.00017215
0.0014723 0.0024769 0.0016407 0.00057551 0.00055271 -0.00041367 -0.0073129 -0.01355
0.063784 0.21916 -0.0031247 -0.012289
0.0015666 -0.001504 0.001335 0.00080337 0.00021718 0.00021521 0.0014977 -0.0002003
-0.0031167 -0.012341 0.073751 0.31862
1400000000 0.25405 0.19427 -0.022987 -0.0074201 0.0049547 0.0030628 -0.0020484 0.00076466
0.0024285 0.00061466 0.00013296 -0.0013686
-0.022961 -0.0074179 0.081741 0.35899 -0.014585 0.011994 0.0013153 0.001233
0.00086554 -0.0007954 0.0011337 0.00031415
0.0049633 0.0030334 -0.014541 0.012079 0.3542 0.059819 5.1592e-05 -0.0013377
-4.7359e-05 -0.00029163 0.00030093 0.00020538
-0.0020403 0.00078161 0.0013198 0.0012286 6.1581e-05 -0.001341 0.17075 0.20946
-0.011983 -0.0077772 -0.00055355 -0.00096743
0.0024386 0.00058132 0.00085825 -0.00079884 -3.2442e-05 -0.00027197 -0.012027 -0.0077572
0.097457 0.21444 -0.0091577 -0.0081231
0.00013964 -0.001343 0.0011622 0.00031866 0.00032355 0.00026144 -0.00053337 -0.0010209
-0.0091636 -0.0080401 0.11866 0.30787
1460000000 0.27638 0.1499 -0.020151 0.00442 0.0053737 -0.0017275 -0.0014954 0.0017639
0.0018756 -0.00073693 -0.0003226 -0.00083242
-0.020135 0.0044044 0.1158 0.3372 -0.0061991 0.014796 0.0016468 0.00017778
0.00079584 -0.00098393 0.0011517 -0.00062182
0.0053767 -0.0017502 -0.0061235 0.014834 0.35981 0.0050611 -0.0010569 -0.0011188
0.00023262 -8.328e-05 0.00064038 -0.00033318
-0.0014856 0.0017635 0.0016471 0.00016456 -0.0010384 -0.0011169 0.19786 0.18044
-0.012456 -0.0026589 -0.0012036 0.0013204
0.0018723 -0.00075755 0.00078848 -0.0010047 0.00023047 -9.4125e-05 -0.01248 -0.0026089
0.12768 0.19958 -0.010443 -0.0029945
-0.00036296 -0.00082611 0.0011758 -0.00063719 0.00066108 -0.00033004 -0.0011738 0.0012702
-0.010473 -0.0029692 0.15233 0.28665
1520000000 0.28804 0.10804 -0.014681 0.0099955 0.0030722 -0.0039932 0.00015672 0.0025364
0.0016145 -0.001665 -0.0010941 -0.00013387
-0.014676 0.009974 0.14931 0.32244 0.0012076 0.012867 0.0015525 -0.00076249
0.00011953 -0.00083816 0.00028561 -0.0010057
0.0030546 -0.0040133 0.001277 0.012874 0.35279 -0.051416 -0.0008912 -0.00032828
0.00054692 -0.00074544 -1.7323e-05 -3.4014e-05
0.00016913 0.0025508 0.0015525 -0.00076687 -0.000881 -0.00033249 0.22209 0.14223
-0.011937 0.0016444 0.00086323 0.0016619
0.0015944 -0.0016802 9.6384e-05 -0.00083755 0.00052051 -0.00075111 -0.011938 0.0016857
0.15605 0.18463 -0.010682 0.0010799
-0.0011058 -0.00015153 0.0003004 -0.0010161 5.9753e-06 -3.4201e-05 0.00087096 0.0016545
-0.010684 0.0010685 0.18632 0.26659
1580000000 0.29706 0.061499 -0.0082643 0.013127 -0.00096729 -0.0046211 0.0013867 0.0017784
-0.00049532 -0.001986 -0.00033045 0.00040698
-0.0082656 0.01311 0.17658 0.29756 0.0048534 0.0082545 0.00043969 -0.0014997
-0.00028023 -0.00098009 -0.0002782 -0.00088331
-0.00098259 -0.0046247 0.004892 0.0082274 0.33215 -0.10901 -0.0013941 0.00046389
-0.00027161 -0.00098957 0.00014009 -0.00050747
0.0014004 0.0017626 0.00043131 -0.0015061 -0.0014211 0.00046497 0.23713 0.102
-0.0095452 0.0054215 0.0017251 0.00065619
-0.00050997 -0.0019553 -0.00029025 -0.00096705 -0.00025233 -0.0010276 -0.0095207 0.0054507
0.18083 0.16585 -0.0087081 0.0062949
-0.00034625 0.00040072 -0.00026805 -0.00089266 0.00014116 -0.00051259 0.0017294 0.00068436
-0.0087016 0.0062615 0.21873 0.23968
1640000000 0.29848 0.019643 -0.0017034 0.012245 -0.0026361 -0.0023918 0.0025484 0.00097156
-0.00078611 -0.0010406 -0.00032305 0.00066638
-0.0017157 0.012226 0.20602 0.27227 0.0056138 0.0036611 -0.00066194 -0.0015894
-0.00089218 -0.00050168 -0.00055003 -0.00064408
-0.0026419 -0.0023677 0.0056408 0.0036287 0.30339 -0.15811 -0.00080636 0.0012016
-0.00094658 -0.00084901 -0.0001131 -0.00027411
0.0025495 0.0009539 -0.0006711 -0.001581 -0.00080301 0.0012089 0.24989 0.051745
-0.0063587 0.006241 0.0020407 -0.00061452
-0.00079036 -0.0010422 -0.00090021 -0.00049398 -0.00096772 -0.00083596 -0.0063469 0.0062733
0.20398 0.14024 -0.0045292 0.0083559
-0.00034246 0.00068636 -0.00055656 -0.00066956 -0.00013139 -0.00035746 0.0020357 -0.00061108
-0.0045224 0.0083382 0.24468 0.20825
1700000000 0.2904 -0.025905 0.001758 0.0096624 -0.0033277 9.7899e-05 0.0029002 -0.0010712
-0.0016339 -0.00035351 0.00060886 0.00039058
0.0017587 0.0096421 0.22408 0.24045 0.0038366 0.00085079 -0.0013482 -0.000561
-0.00081844 -5.5444e-05 -0.00093102 -0.00041605
-0.0033309 0.00011235 0.003846 0.0008398 0.2597 -0.19778 0.00032667 0.0015612
-0.0017301 -0.00034166 -0.0005779 -0.00080456
0.0029077 -0.0010904 -0.0013457 -0.00055622 0.0003081 0.0015655 0.24637 0.00020092
-0.0046729 0.0068304 0.0012178 -0.0019034
-0.0016205 -0.00033698 -0.00080915 -4.7332e-05 -0.0017162 -0.00032772 -0.0046776 0.0068441
0.22163 0.11847 -0.00022117 0.008817
0.00064491 0.00038627 -0.00091814 -0.00041276 -0.00057614 -0.00089426 0.0012142 -0.0019218
-0.00023181 0.0088511 0.26125 0.17348
1760000000 0.27703 -0.074445 0.0042537 0.0065418 -0.0021556 0.00079266 0.0013936 -0.0032876
-0.00092499 0.00066002 0.00040478 -0.0004254
0.0042474 0.0065349 0.24972 0.20018 0.0017046 -0.00092949 -0.0010718 0.00017183
-0.0012114 0.00084005 -0.00062383 0.00055428
-0.0021544 0.00079853 0.001692 -0.00094472 0.21058 -0.23063 0.0010265 0.0013262
-0.001223 0.0012344 -0.0014482 -0.0003917
0.0013681 -0.0032749 -0.0010765 0.00017482 0.0010439 0.0013307 0.23565 -0.052558
-0.0022862 0.0065344 -0.000553 -0.0020715
-0.0009419 0.00065097 -0.0012056 0.00084569 -0.0012197 0.0013011 -0.0023024 0.0065078
0.23658 0.081498 0.0032947 0.0062536
0.00040906 -0.00039201 -0.00061216 0.0005601 -0.0014535 -0.00041749 -0.00053402 -0.0020692
0.0033 0.0063037 0.27386 0.13548
1820000000 0.25134 -0.1113 0.0046517 0.0029412 -0.00010623 0.0023598 -0.00088559 -0.0030345
-0.00079402 0.00047777 0.00010428 -0.00016218
0.0046456 0.0029367 0.25927 0.16986 -0.00017315 0.00012543 -0.0014035 0.00080465
-0.00016105 0.0013918 -0.00049397 0.000546
-8.2601e-05 0.0023619 -0.00016916 0.00012497 0.16033 -0.24615 0.0014717 0.00042856
-0.00043941 0.0021186 -0.0012748 0.0005102
-0.00091181 -0.0030464 -0.0013825 0.00081612 0.0014627 0.00045619 0.20385 -0.10002
-0.0013109 0.005454 -0.001474 -0.0012285
-0.0007948 0.00050258 -0.00014745 0.001396 -0.00046177 0.0020783 -0.0012772 0.0054694
0.25266 0.050044 0.0043251 0.0031538
0.00010521 -9.1e-05 -0.00048014 0.00056144 -0.0012942 0.0004765 -0.0014342 -0.0012237
0.0043508 0.0031997 0.27622 0.099233
1880000000 0.2153 -0.15067 0.0025904 0.00058061 -0.00033 0.0020631 -0.0028462 -0.0022568
-0.00045846 0.0013444 0.00034245 -0.00064542
0.0025946 0.00057352 0.26316 0.12318 -0.0020743 0.0017371 -0.0002651 0.0017016
0.00062988 0.0013722 0.00018507 0.00097232
-0.00030939 0.0020659 -0.002076 0.0017471 0.1082 -0.25531 0.0018646 -0.0010062
0.0014291 0.0020426 -0.00087886 0.0014137
-0.0028557 -0.002252 -0.00025018 0.0016878 0.0018778 -0.0010387 0.16137 -0.13914
-0.0012476 0.0044247 -0.0021523 0.00086421
-0.00040182 0.0013465 0.00063241 0.0013803 0.001416 0.0020331 -0.0012298 0.0044584
0.25363 0.014916 0.0039609 0.0014696
0.00035723 -0.00061844 0.00019144 0.00095362 -0.00080164 0.0013768 -0.002189 0.00089625
0.0038937 0.0014232 0.27611 0.065133
1940000000 0.17562 -0.17535 0.00037732 -0.0013273 0.0012356 0.0018926 -0.0037179 0.00043143
0.0010952 0.0010484 -0.00074465 -0.00060487
0.00038573 -0.001324 0.26313 0.09144 -0.00092936 0.0038553 0.00092638 0.0013495
0.0020367 0.00057442 0.00082534 0.00019445
0.0012395 0.0018994 -0.00090603 0.0038628 0.062378 -0.24876 0.00045684 -0.0023109
0.0024489 0.0006569 0.00029601 0.0015982
-0.0037382 0.00043732 0.0009401 0.0013348 0.00045196 -0.0022926 0.10783 -0.16774
-0.0022469 0.0041177 -0.0011182 0.0018203
0.0010924 0.001012 0.002034 0.00055532 0.0024457 0.00062003 -0.0022648 0.0041258
0.25273 -0.025786 0.0028052 -0.0016023
-0.00068 -0.00067575 0.00085953 0.0002152 0.00036124 0.001609 -0.0011124 0.001815
0.0028161 -0.00157 0.26494 0.029034
2000000000 0.12952 -0.18877 -0.0034166 0.00048145 0.0024002 0.0015011 -0.0022635 0.0036673
0.00092865 0.00046185 -0.00066993 0.00033749
-0.0034194 0.00048258 0.24847 0.056091 -0.00078293 0.0055268 0.0017109 0.00036116
0.0016128 -0.0015224 0.00055379 0.00015797
0.0024158 0.0014874 -0.00074364 0.0055337 0.019265 -0.23435 -0.0013692 -0.0013316
0.0021203 -0.0011657 0.0015759 0.0012196
-0.0022398 0.0036618 0.001721 0.00035186 -0.0013884 -0.0013129 0.054811 -0.17564
-0.0036209 0.0050998 0.00029452 0.0020564
0.00098988 0.00045087 0.0015976 -0.001519 0.0021249 -0.0011292 -0.003617 0.0051247
