!Keysight Technologies,M9804A,MY58100912,A.14.10.03
!Date: Thursday, April 27, 2023 10:28:33
!Correction: S11(C  6-Port  ) 
!S12(C  6-Port  ) 
!S13(C  6-Port  ) 
!S14(C  6-Port  ) 
!S15(C  6-Port  ) 
!S16(C  6-Port  ) 
!S21(C  6-Port  ) 
!S22(C  6-Port  ) 
!S23(C  6-Port  ) 
!S24(C  6-Port  ) 
!S25(C  6-Port  ) 
!S26(C  6-Port  ) 
!S31(C  6-Port  ) 
!S32(C  6-Port  ) 
!S33(C  6-Port  ) 
!S34(C  6-Port  ) 
!S35(C  6-Port  ) 
!S36(C  6-Port  ) 
!S41(C  6-Port  ) 
!S42(C  6-Port  ) 
!S43(C  6-Port  ) 
!S44(C  6-Port  ) 
!S45(C  6-Port  ) 
!S46(C  6-Port  ) 
!S51(C  6-Port  ) 
!S52(C  6-Port  ) 
!S53(C  6-Port  ) 
!S54(C  6-Port  ) 
!S55(C  6-Port  ) 
!S56(C  6-Port  ) 
!S61(C  6-Port  ) 
!S62(C  6-Port  ) 
!S63(C  6-Port  ) 
!S64(C  6-Port  ) 
!S65(C  6-Port  ) 
!S66(C  6-Port  ) 
!S6P File: Measurement: :
# Hz S  RI   R 50
500000000 -0.33512 -0.034014 -0.0097639 -0.0042846 -0.0081902 0.011728 -0.0041412 0.01188
0.01292 0.0049164 -0.005725 0.0079458
-0.0097403 -0.0042901 -0.41931 -0.048323 0.0076929 -0.011577 0.0019486 0.01108
0.007556 0.002652 0.0012257 0.012011
-0.0081703 0.011738 0.0076738 -0.011582 -0.26422 0.21162 0.0068777 0.002959
-0.00019576 0.0083407 0.0010262 0.011381
-0.0040189 0.011766 0.0020789 0.011113 0.0068366 0.0028976 -0.32721 0.048355
-0.019289 -0.0054691 0.018483 0.025382
0.012772 0.0044352 0.0079495 0.0027743 6.0039e-05 0.008215 -0.019315 -0.0055282
-0.22537 -0.18205 -0.027726 0.0032219
-0.0043488 0.0078362 0.0016148 0.012667 0.00024594 0.01172 0.017772 0.024587
-0.02748 0.0036479 -0.26957 -0.13023
560000000 -0.31435 0.1262 -0.024199 -0.063119 -7.9252e-05 0.012241 0.0072159 0.0093092
0.010575 0.0030183 0.0097229 0.0077206
-0.024134 -0.063071 -0.37607 0.1091 -0.041466 -0.036446 0.013161 0.0039028
-0.013701 -0.0047238 0.0055209 -0.0012161
-6.2788e-05 0.012238 -0.041605 -0.036401 -0.18245 0.25938 -0.00088082 -0.0052862
0.019239 0.003789 0.0071868 -0.0052137
0.0069705 0.0090439 0.013288 0.0042169 -0.00097186 -0.0052331 -0.30214 0.13642
0.0048012 -0.024823 0.0048917 -0.019676
0.010889 0.0037476 -0.013014 -0.004328 0.01878 0.0037404 0.0043214 -0.025416
-0.28368 -0.0089162 0.0075214 -0.05121
0.0098341 0.0080215 0.0043527 -0.00085553 0.0070987 -0.0063291 0.0056453 -0.019799
0.007418 -0.05122 -0.33348 0.018089
620000000 -0.27255 0.10976 -0.023258 0.0069196 0.0033658 0.0082806 0.0070865 -0.0053863
0.010198 -0.00090318 0.0012917 -0.0018204
-0.023235 0.0068949 -0.40243 0.063702 -0.018906 -4.4651e-05 -0.0014089 -0.0018529
0.010708 -0.0070045 0.00088111 -0.0030807
0.0034004 0.0082774 -0.018922 5.5518e-06 -0.15242 0.2683 -0.0017486 -0.0051916
-0.0040419 -0.0035217 0.0079627 -0.0024068
0.0068989 -0.0052355 -0.0013705 -0.0019478 -0.0017782 -0.0051864 -0.26073 0.1456
-0.039491 -0.018846 0.014275 0.024175
0.010465 -0.00098939 0.010108 -0.0070679 -0.0037736 -0.0030583 -0.038078 -0.019424
-0.20362 -0.047407 -0.040039 0.014126
-1.1563e-05 -0.0013699 0.00058004 -0.0022016 0.0084813 -0.0028681 0.015392 0.023071
-0.040194 0.014135 -0.2521 -0.019905
680000000 -0.23242 0.19209 -0.027676 -0.014148 0.0051444 0.0050504 0.00056937 -0.0079286
-0.0030531 -0.010974 0.004105 -0.0079429
-0.027645 -0.014141 -0.38669 0.16039 -0.032771 -0.00098614 -0.0015358 -0.00050499
-0.0029741 -0.0085787 -0.00066468 -0.0027192
0.0051538 0.0050345 -0.0328 -0.00089814 -0.10166 0.28781 -0.00061461 -1.6553e-05
-0.0023551 0.0010486 -0.0024486 -0.0099501
0.00081442 -0.0079074 -0.0014227 -0.00043816 -0.00059946 -0.00010304 -0.21825 0.19648
-0.023549 -0.0083713 -0.010597 -0.010369
-0.002719 -0.01088 -0.0030798 -0.0085741 -0.0023453 0.0011409 -0.023731 -0.0092307
-0.25175 0.048613 -0.0046328 -0.0090634
0.0039849 -0.0083747 -0.00084562 -0.0028638 -0.0024537 -0.0095621 -0.011398 -0.0098158
-0.0045446 -0.0091863 -0.2634 0.086237
740000000 -0.1897 0.18837 -0.038612 0.026281 0.01268 -0.0051623 -0.0010291 -0.0040679
-0.0049238 -0.0018661 -0.0059485 0.0030286
-0.038577 0.026252 -0.33463 0.17916 -0.034952 0.035181 -0.00082643 -0.006362
-0.011071 0.0081251 -0.0030774 -0.0060653
0.012658 -0.0051993 -0.034869 0.035334 -0.068045 0.28672 -0.0013453 0.0035886
-0.0030903 -0.0035955 -0.00065538 0.00050912
-0.00095637 -0.0040734 -0.00086662 -0.006353 -0.0013331 0.0036268 -0.20155 0.20277
-0.04281 -0.0078511 0.023276 0.01295
-0.0046024 -0.0020262 -0.011137 0.0085885 -0.0031324 -0.0036412 -0.042214 -0.0082412
-0.15656 0.071013 -0.043177 0.00066506
-0.0061725 0.0031779 -0.0027734 -0.0061638 -0.00083577 0.00077628 0.023317 0.012491
-0.043038 0.00062185 -0.25128 0.091664
800000000 -0.15772 0.22821 -0.022294 0.017213 0.00531 -0.010468 -0.0048269 -0.0021901
-0.0042893 0.0026563 0.0043205 0.0010318
-0.022305 0.017196 -0.337 0.24897 -0.0076807 0.034031 -0.0019257 0.0021225
-0.0002824 0.0031577 0.0012588 0.0053183
0.0052872 -0.010491 -0.007587 0.034078 -0.026707 0.30976 0.0011382 0.0014157
0.00083442 0.0034375 -0.0019186 0.00090792
-0.0048273 -0.0021213 -0.0019471 0.0021346 0.0011295 0.0014352 -0.17373 0.23066
-0.028442 0.012352 0.013145 -0.0099436
-0.0043354 0.0031007 -0.00053197 0.0034604 0.00066652 0.0036716 -0.028252 0.012759
-0.19963 0.095122 -0.018307 0.017073
0.0049957 0.0006372 0.0016783 0.0054395 -0.0017803 0.00083342 0.013165 -0.010063
-0.018145 0.017315 -0.24591 0.14706
860000000 -0.12302 0.24983 -0.017008 0.031154 -0.0034672 -0.0097449 -0.0025527 0.001154
0.0043289 0.0054018 -0.0025688 -0.0033203
-0.017034 0.031122 -0.28911 0.29079 0.0082747 0.033933 0.00039749 0.002134
0.0044724 8.2441e-05 0.0033234 0.00014439
-0.0034932 -0.0097536 0.0083702 0.033937 0.021677 0.31736 -0.0003252 -0.00027163
0.0027763 -0.001542 0.0014683 0.0043643
-0.002629 0.0011295 0.00041738 0.002051 -0.00031513 -0.00028138 -0.13828 0.24256
-0.017996 0.018541 -0.0061555 -0.0094269
0.0043976 0.0051297 0.0045215 1.3214e-05 0.002714 -0.001737 -0.018017 0.01835
-0.15155 0.14339 -0.024008 0.015155
-0.0025475 -0.0032745 0.0033105 1.7845e-05 0.0015057 0.0044157 -0.0060381 -0.0091439
-0.024153 0.015246 -0.1951 0.19031
920000000 -0.097373 0.27348 0.0053341 0.037879 -0.0092859 -0.004088 -0.0017282 0.0023918
0.0012628 0.0016927 0.0024444 -0.0011714
0.0053003 0.037857 -0.26003 0.31189 0.027952 0.021534 0.0016424 0.0011658
0.0065604 -0.0010012 0.0034584 -0.0028098
-0.0092928 -0.0040675 0.028049 0.021475 0.068075 0.31767 0.0017376 -0.00013563
0.0012296 -0.00047461 0.00064391 -0.00096907
-0.0017401 0.0024593 0.0016213 0.0011647 0.0017207 -0.00013065 -0.11362 0.2593
-0.010695 0.029867 0.0026965 -0.0062786
0.001382 0.0015861 0.0067405 -0.00080158 0.001278 -0.0005183 -0.010648 0.029998
-0.14129 0.1498 -0.0021148 0.027842
0.0023036 -0.0012354 0.0036601 -0.0029353 0.0008552 -0.0010666 0.0026611 -0.0061012
-0.0021932 0.027708 -0.20217 0.20548
980000000 -0.049584 0.29291 0.01795 0.029869 -0.0086846 0.0047844 0.0025232 0.0037038
0.0040015 -0.0018379 -0.0028719 -0.0022122
0.017882 0.029857 -0.20724 0.34528 0.032664 0.0044398 0.0019546 1.5892e-05
0.00096553 -0.006236 -0.00077261 -0.0023722
-0.0086568 0.0048051 0.032696 0.0043306 0.11439 0.31054 0.00041508 -0.0011629
1.0891e-05 -0.0020471 0.0015647 -0.00023518
0.0025465 0.0037126 0.0019411 -1.4001e-05 0.0004319 -0.0011755 -0.075498 0.27032
0.0075272 0.028338 -0.0093989 -0.0067451
0.0039178 -0.0017045 0.00095789 -0.0060698 -4.6027e-05 -0.0020382 0.0075551 0.028428
-0.10997 0.17753 0.0047685 0.018645
-0.0029286 -0.0019591 -0.00057069 -0.002179 0.0015959 -7.7601e-05 -0.0093906 -0.006662
0.0047386 0.018708 -0.15965 0.2504
1040000000 -0.0064758 0.30101 0.033243 0.017669 -0.00096764 0.0068652 0.002883 0.00063784
0.0001045 -0.0036746 -0.00060437 -0.0015137
0.033155 0.017704 -0.17145 0.35809 0.028814 -0.014881 0.0014856 -0.001592
-0.0025409 -0.0021831 -0.0015385 -0.0026086
-0.00093374 0.0068609 0.028772 -0.014985 0.16042 0.29651 -0.00053903 -0.0013673
-0.0014506 -0.0006456 -0.00040859 -0.0012088
0.0028574 0.00064759 0.0015075 -0.0016069 -0.00052119 -0.0013642 -0.047942 0.28063
0.017873 0.016941 -0.0029636 0.0022089
-5.4518e-05 -0.003857 -0.0026595 -0.002189 -0.0015473 -0.00077442 0.017974 0.016883
-0.079664 0.18675 0.013313 0.018067
-0.00064105 -0.0014791 -0.001718 -0.0026264 -0.00051054 -0.00114 -0.0029291 0.0022814
0.013275 0.01787 -0.13887 0.2717
1100000000 0.039446 0.30792 0.035564 -0.0046334 0.002965 0.0036729 0.0025779 -0.0015079
-0.002147 -0.0029831 -0.0038083 0.00013901
0.035509 -0.0046128 -0.12769 0.37488 0.014659 -0.027416 6.9723e-05 -0.0018356
-0.0031137 -0.00034829 -0.0033757 -0.00044589
0.0029893 0.0036669 0.014564 -0.027497 0.20654 0.27583 -0.0017374 0.00030489
-0.0016583 0.00067177 -0.0009675 -0.00028188
0.0025814 -0.0015188 5.5222e-05 -0.0018453 -0.0017393 0.00030618 -0.007286 0.2854
0.022234 0.0050062 -0.0022526 0.0010632
-0.0021082 -0.0029805 -0.0030988 -0.00037565 -0.00168 0.00072117 0.022258 0.0049943
-0.060959 0.20062 0.018683 0.0084725
-0.003818 3.8048e-05 -0.0033632 -0.00044981 -0.0010099 -0.00038589 -0.0022618 0.0010432
0.01859 0.0084343 -0.091625 0.30089
1160000000 0.09128 0.30218 0.023545 -0.020774 0.0026959 -0.00060644 -6.6784e-05 -0.0026245
-0.0041506 -0.0003212 -0.0010249 0.0040955
0.023504 -0.020724 -0.083963 0.37868 -0.0038156 -0.02856 -0.0017207 -0.0015328
-0.0021962 0.002658 -0.0012164 0.0015473
0.0027075 -0.00061548 -0.0039523 -0.02856 0.24929 0.24482 -0.00054056 0.0017041
-0.00034321 0.00174 -0.00095104 3.1931e-05
-5.7707e-05 -0.0026196 -0.0017246 -0.0015756 -0.00054501 0.0017063 0.032029 0.28237
0.018884 -0.0096158 -0.002722 0.0057248
-0.0041324 -0.00035327 -0.0021478 0.0026524 -0.00029656 0.0018015 0.018822 -0.0095936
-0.027879 0.2101 0.017073 0.0006151
-0.00089267 0.0042105 -0.0013347 0.0015105 -0.00098443 0.00010571 -0.002703 0.0058049
0.017062 0.00069966 -0.045008 0.3036
1220000000 0.13565 0.29007 0.010024 -0.029743 -0.001532 -0.00086144 -0.00017731 -0.0011508
-0.0024749 0.0025625 0.0013733 0.0018283
0.010017 -0.029705 -0.039838 0.38999 -0.016588 -0.020626 -0.0024744 0.00046389
0.00030402 0.0027544 -0.00064453 0.001695
-0.0015382 -0.00084796 -0.016694 -0.020576 0.28832 0.20582 0.00090252 0.0014795
0.00061405 0.0010777 0.00037691 0.00070891
-0.0002049 -0.0011601 -0.0024868 0.00044833 0.00086549 0.0014905 0.07166 0.27372
0.008941 -0.014865 0.0030249 0.0018263
-0.0024496 0.0025441 0.00035248 0.0027985 0.00059829 0.001045 0.0089423 -0.014862
-0.0040378 0.21989 0.013401 -0.011857
0.0012909 0.0017292 -0.00062854 0.0017037 0.00034835 0.00069844 0.0030596 0.0018263
0.013395 -0.01187 -0.013199 0.32103
1280000000 0.18501 0.26723 -0.0079365 -0.027994 -0.0018152 0.0023772 -0.0011552 -0.0019737
-0.00059471 0.0030209 0.0024922 0.0011232
-0.0078984 -0.027965 0.0058142 0.38062 -0.023164 -0.0082806 -0.00097473 0.0014408
0.0016006 0.0013954 0.00047696 0.0020724
-0.0018073 0.0023815 -0.02322 -0.0081837 0.31893 0.16181 0.0013688 -0.00019579
0.00095741 9.1652e-05 0.00029811 0.00040136
-0.0011515 -0.0019691 -0.00097043 0.0014616 0.0013678 -0.00021436 0.10801 0.25752
0.00055618 -0.016454 0.00068938 0.00010066
-0.00057 0.0030587 0.0015865 0.0014101 0.00094272 2.6931e-05 0.00050088 -0.016454
0.033145 0.22379 0.0029229 -0.013783
0.0025046 0.0010624 0.00054538 0.0019469 0.00025101 0.00041133 0.00067663 9.5317e-05
0.0028905 -0.013785 0.034653 0.32252
1340000000 0.22159 0.23287 -0.017445 -0.018639 0.00084321 0.0042919 -0.0019434 -0.00069411
0.0014243 0.0024905 0.0015829 -0.0014982
-0.017419 -0.018629 0.044878 0.3721 -0.021146 0.0040593 -3.3052e-05 0.0019236
0.001628 0.00060485 0.0013047 0.00082456
0.0008549 0.0042856 -0.021148 0.0041682 0.34106 0.11375 0.00087386 -0.00089049
0.00056589 -0.00037446 0.00014202 0.00027167
-0.0019567 -0.00066731 -4.7104e-05 0.0019222 0.00086681 -0.00088945 0.14086 0.23759
-0.0071848 -0.013578 0.0015492 -0.00023108
0.0014635 0.0025272 0.0016274 0.00055896 0.00057111 -0.00036688 -0.0072362 -0.013563
0.063976 0.21921 -0.0030642 -0.012306
0.0015472 -0.0014963 0.0012644 0.00079847 0.00019552 0.00022162 0.0015933 -0.00019857
-0.0030976 -0.012352 0.073711 0.31844
1400000000 0.25406 0.1942 -0.022975 -0.0074402 0.004951 0.0030238 -0.0020514 0.00075863
0.0024808 0.00057783 0.00015244 -0.0012871
-0.022949 -0.0074439 0.081799 0.35899 -0.014581 0.011972 0.0012957 0.0012341
0.00086869 -0.00080105 0.0011524 0.00033383
0.0049739 0.0030036 -0.014538 0.012063 0.35414 0.05981 6.3752e-05 -0.0013502
7.2054e-06 -0.00027313 0.00025226 0.00025114
-0.002061 0.00078285 0.0013077 0.0012456 6.2848e-05 -0.0013258 0.17081 0.20944
-0.01197 -0.0077927 -0.00053315 -0.001029
0.0024648 0.00059504 0.00088388 -0.00081067 -1.4816e-05 -0.00028088 -0.011981 -0.0078111
0.097697 0.21447 -0.0091867 -0.0081364
0.00018354 -0.0013565 0.0011547 0.00028227 0.00032037 0.00018915 -0.00051831 -0.0010108
-0.0092022 -0.0081043 0.11882 0.30784
1460000000 0.27635 0.1499 -0.020155 0.0044577 0.005384 -0.0016652 -0.0014486 0.0017488
0.0018808 -0.00073668 -0.00041746 -0.00086887
-0.020148 0.0044325 0.11581 0.3372 -0.006217 0.014834 0.0016669 0.00016981
0.00075382 -0.00097898 0.0011791 -0.00062824
0.0053704 -0.0016813 -0.0061482 0.014888 0.35981 0.0050018 -0.001029 -0.0010937
0.00026523 -0.00010943 0.00062674 -0.00034536
-0.0014608 0.0017482 0.0016664 0.00015463 -0.0010314 -0.0011168 0.1979 0.18038
-0.012423 -0.0027093 -0.0011279 0.0012978
0.0018376 -0.00077824 0.00078274 -0.0010343 0.00024679 -0.0001267 -0.012418 -0.0026613
0.12785 0.19947 -0.010478 -0.002983
-0.00035165 -0.00079937 0.0011546 -0.00063189 0.00060976 -0.00035739 -0.0011915 0.0013003
-0.010491 -0.0030217 0.15221 0.28677
1520000000 0.28804 0.10802 -0.014682 0.0099942 0.0030543 -0.0040185 0.00017548 0.0025521
0.0015987 -0.0016892 -0.0011436 -0.00014378
-0.014677 0.0099727 0.14934 0.32246 0.00119 0.012852 0.0015718 -0.0007492
0.00013014 -0.000839 0.00027327 -0.00099582
0.003035 -0.0040313 0.0012617 0.01286 0.35274 -0.051458 -0.00085693 -0.00029821
0.00053599 -0.00073027 -9.0156e-05 -3.1926e-05
0.00017532 0.0025613 0.0015644 -0.00076988 -0.00087432 -0.00030388 0.22211 0.14216
-0.01196 0.0016035 0.00090193 0.0016094
0.0016195 -0.0016891 0.00013507 -0.00083252 0.00056649 -0.00073731 -0.011933 0.001607
0.15615 0.1845 -0.010663 0.001097
-0.001098 -0.00013397 0.00029123 -0.0010354 8.9738e-06 -3.2654e-05 0.00087622 0.0016275
-0.010658 0.0010601 0.18627 0.26654
1580000000 0.29706 0.061444 -0.0082771 0.013122 -0.00098022 -0.0046393 0.0013692 0.0017745
-0.00048464 -0.0019978 -0.00038641 0.0003824
-0.0082831 0.01311 0.17661 0.29754 0.0048661 0.0082304 0.00043787 -0.001491
-0.00026941 -0.00097779 -0.00024526 -0.00085701
-0.0010035 -0.0046364 0.004908 0.0082192 0.33227 -0.10902 -0.0014264 0.00044245
-0.00028874 -0.0010091 0.00012026 -0.00044538
0.0013865 0.0017668 0.00043033 -0.0014941 -0.0014269 0.00046617 0.23709 0.102
-0.0095941 0.0053547 0.0016713 0.00067475
-0.00051819 -0.0019689 -0.00028791 -0.00098428 -0.00025698 -0.0010095 -0.0095986 0.0053712
0.18085 0.16569 -0.0087245 0.0062688
-0.00032635 0.00038809 -0.00026331 -0.00086659 0.00013602 -0.00050296 0.0017153 0.00067135
-0.0087503 0.0062944 0.21882 0.23966
1640000000 0.2985 0.019612 -0.0017065 0.012243 -0.0025906 -0.0023961 0.0025548 0.00093676
-0.00078397 -0.0010813 -0.00035958 0.00065157
-0.0017241 0.012233 0.20605 0.27227 0.0056279 0.0036796 -0.00065623 -0.0015832
-0.0008888 -0.00050307 -0.00052715 -0.00067121
-0.0026028 -0.0023751 0.0056607 0.0036454 0.30348 -0.15806 -0.00078294 0.0012534
-0.00095969 -0.00081289 -9.5187e-05 -0.00033138
0.0025442 0.00094954 -0.00067878 -0.0015784 -0.00076341 0.0012315 0.24987 0.05176
-0.0063954 0.0062321 0.0019938 -0.00064446
-0.00078258 -0.0010272 -0.0009116 -0.00049513 -0.00095251 -0.00084061 -0.0063943 0.0062529
0.20393 0.1401 -0.0045618 0.0083063
-0.00031714 0.00069735 -0.00057052 -0.00064591 -0.00015342 -0.00029978 0.0020123 -0.00059574
-0.0046048 0.0083154 0.24485 0.20818
1700000000 0.29037 -0.025962 0.0017598 0.0096413 -0.0033436 9.7606e-05 0.0029062 -0.001093
-0.0016547 -0.00034207 0.00060773 0.00041204
0.0017618 0.0096393 0.22412 0.24043 0.0038299 0.00086218 -0.0013272 -0.00055451
-0.00083473 -5.7911e-05 -0.00092214 -0.00042355
-0.0033452 0.00011975 0.0038405 0.00084022 0.25975 -0.19783 0.00032775 0.0015657
-0.0016943 -0.00036399 -0.00052107 -0.00087959
0.0029082 -0.0010954 -0.0013304 -0.00054587 0.00031974 0.0016053 0.24635 0.00022016
-0.0047467 0.0068417 0.0011998 -0.0018535
-0.0016414 -0.00036531 -0.00079531 -3.9022e-05 -0.0016764 -0.00027372 -0.0047474 0.0068589
0.22151 0.11837 -0.00023396 0.0088106
0.00064436 0.00038011 -0.00089907 -0.00040074 -0.00051093 -0.00084555 0.0012116 -0.0019174
-0.00027349 0.0088438 0.26137 0.17339
1760000000 0.27705 -0.074509 0.0042324 0.0065599 -0.0021729 0.00077305 0.001333 -0.0032813
-0.00094667 0.00064172 0.00042289 -0.00039314
0.0042293 0.0065553 0.24973 0.20016 0.001705 -0.00095163 -0.0010777 0.00016568
-0.0012057 0.00084042 -0.00062921 0.00054232
-0.0021675 0.00078556 0.0016962 -0.0009697 0.21061 -0.23067 0.0010231 0.001284
-0.0011802 0.0012484 -0.0013947 -0.00049461
0.001365 -0.0032568 -0.0010795 0.00018488 0.0010092 0.0012993 0.23573 -0.052515
-0.0023328 0.0065572 -0.0005379 -0.0020026
-0.00092657 0.00066205 -0.0012203 0.00086614 -0.0012001 0.001237 -0.0023316 0.0065732
0.23645 0.081469 0.0032534 0.0063514
0.00041096 -0.00043971 -0.00063584 0.00055449 -0.001477 -0.000379 -0.00051749 -0.0020677
0.0032882 0.0064149 0.27383 0.13534
1820000000 0.25132 -0.11139 0.0046606 0.002945 -0.00010803 0.0023319 -0.00087848 -0.0030379
-0.00082258 0.00053842 7.8278e-05 -3.8899e-05
0.0046509 0.0029378 0.25929 0.16984 -0.00017714 0.00013368 -0.0013815 0.0007973
-0.00017383 0.001392 -0.00056726 0.00058028
-8.4958e-05 0.0023299 -0.00017517 0.00013617 0.16024 -0.24611 0.0015008 0.00050898
-0.00049075 0.0020778 -0.0013216 0.00042077
-0.0008812 -0.0030172 -0.0013734 0.00080711 0.0015367 0.00043564 0.2039 -0.10001
-0.0012889 0.0054714 -0.0014215 -0.0011587
-0.00078081 0.00056108 -0.00015017 0.001407 -0.00041068 0.002109 -0.0012647 0.0055586
0.25251 0.050106 0.0042751 0.0032424
0.00014461 -0.00010179 -0.00048417 0.00055293 -0.0013157 0.00049027 -0.0014501 -0.001232
0.0043183 0.0032577 0.27615 0.099182
1880000000 0.21528 -0.15068 0.0025915 0.00055675 -0.00027811 0.0021018 -0.0029033 -0.0022044
-0.00046408 0.0013735 0.00035607 -0.00071589
0.0025942 0.00055055 0.26322 0.12315 -0.0020982 0.001714 -0.00026763 0.0016933
0.00061986 0.0013717 0.00018379 0.00094638
-0.00027222 0.0021134 -0.0020929 0.0017428 0.10826 -0.25536 0.0018512 -0.0010755
0.0014037 0.0019836 -0.00091248 0.0014133
-0.0028999 -0.0021984 -0.00025864 0.0016794 0.0018557 -0.0010516 0.16133 -0.13905
-0.0012722 0.0044712 -0.0021304 0.0008826
-0.00042719 0.0013404 0.00064777 0.0013954 0.0014121 0.0020357 -0.0012536 0.004496
0.25361 0.014964 0.0039264 0.0015338
0.00030071 -0.0006407 0.00017024 0.00094611 -0.00090912 0.0013326 -0.0021877 0.00086527
0.0040168 0.0015025 0.27584 0.065072
1940000000 0.17556 -0.17532 0.00039889 -0.0013005 0.0013113 0.0018585 -0.0037777 0.00037882
0.0010872 0.0010505 -0.00076954 -0.0006912
0.00039572 -0.0012963 0.26317 0.091415 -0.00087872 0.0038553 0.00094333 0.0013189
0.002029 0.00058168 0.00086455 0.0002526
0.0013221 0.0018601 -0.00085363 0.0038694 0.062381 -0.24877 0.0005476 -0.0022567
0.0024234 0.00063188 0.0003153 0.0016162
-0.0037179 0.00042607 0.00092459 0.0013495 0.00046877 -0.0023115 0.10785 -0.1678
-0.0022211 0.0041676 -0.0010563 0.0017586
0.0011191 0.0010504 0.002031 0.00057473 0.0024331 0.00066187 -0.0021573 0.0041455
0.2527 -0.025699 0.0028984 -0.0015479
-0.00071674 -0.00061301 0.00083175 0.00019854 0.00036429 0.0015409 -0.0010901 0.0018644
0.0029083 -0.0016398 0.26496 0.029327
2000000000 0.12945 -0.18876 -0.0034366 0.00052597 0.0024407 0.0015369 -0.0022546 0.0036266
0.0010017 0.00043923 -0.00072752 0.0002523
-0.003424 0.00052324 0.24847 0.056063 -0.00078427 0.0055186 0.0016591 0.00038756
0.0016148 -0.0014817 0.00057338 9.4912e-05
0.0024451 0.0015267 -0.00075302 0.0055274 0.019111 -0.23438 -0.0013862 -0.0012617
0.0021684 -0.0011222 0.0016331 0.0013733
-0.0022671 0.0035813 0.0016998 0.00035446 -0.0013696 -0.0013947 0.054723 -0.17566
-0.0034895 0.0051812 0.00024775 0.0020148
