!Keysight Technologies,M9804A,MY58100912,A.14.10.03
!Date: Thursday, April 27, 2023 10:28:33
!Correction: S11(C  6-Port  ) 
!S12(C  6-Port  ) 
!S13(C  6-Port  ) 
!S14(C  6-Port  ) 
!S15(C  6-Port  ) 
!S16(C  6-Port  ) 
!S21(C  6-Port  ) 
!S22(C  6-Port  ) 
!S23(C  6-Port  ) 
!S24(C  6-Port  ) 
!S25(C  6-Port  ) 
!S26(C  6-Port  ) 
!S31(C  6-Port  ) 
!S32(C  6-Port  ) 
!S33(C  6-Port  ) 
!S34(C  6-Port  ) 
!S35(C  6-Port  ) 
!S36(C  6-Port  ) 
!S41(C  6-Port  ) 
!S42(C  6-Port  ) 
!S43(C  6-Port  ) 
!S44(C  6-Port  ) 
!S45(C  6-Port  ) 
!S46(C  6-Port  ) 
!S51(C  6-Port  ) 
!S52(C  6-Port  ) 
!S53(C  6-Port  ) 
!S54(C  6-Port  ) 
!S55(C  6-Port  ) 
!S56(C  6-Port  ) 
!S61(C  6-Port  ) 
!S62(C  6-Port  ) 
!S63(C  6-Port  ) 
!S64(C  6-Port  ) 
!S65(C  6-Port  ) 
!S66(C  6-Port  ) 
!S6P File: Measurement: :
# Hz S  RI   R 50
500000000 -0.33526 -0.033251 -0.010048 -0.0042258 -0.0083411 0.011516 -0.0041076 0.011443
0.012546 0.004307 -0.0042531 0.0080071
-0.0099501 -0.0041049 -0.41954 -0.04898 0.0075028 -0.011596 0.0017383 0.01084
0.0077958 0.0025921 0.0012031 0.011705
-0.0083717 0.011487 0.0074936 -0.011613 -0.26407 0.21163 0.006825 0.0028273
-0.00016887 0.0084113 0.00060587 0.01146
-0.0041031 0.011429 0.0017037 0.010711 0.0068452 0.002826 -0.32734 0.048959
-0.019374 -0.0055145 0.017825 0.024894
0.012115 0.0048626 0.0076861 0.0025927 -0.00010259 0.0085478 -0.019125 -0.0060399
-0.22476 -0.18298 -0.02731 0.0041294
-0.0047773 0.0077288 0.0014592 0.012288 0.00063147 0.011656 0.017278 0.025623
-0.026923 0.0039298 -0.26992 -0.13185
560000000 -0.31459 0.12569 -0.023727 -0.063122 -4.7887e-05 0.012434 0.0067594 0.0095287
0.01106 0.0033811 0.0096533 0.0079205
-0.023796 -0.063238 -0.37674 0.10959 -0.041514 -0.03667 0.01312 0.0036092
-0.013477 -0.0049122 0.0052231 -0.00087981
4.5924e-05 0.012411 -0.041514 -0.036586 -0.18269 0.25914 -0.000296 -0.005211
0.01935 0.0042506 0.0069113 -0.0057475
0.0070851 0.0089678 0.013118 0.0037792 -0.00056134 -0.005133 -0.30222 0.13602
0.0040262 -0.02481 0.0055315 -0.020241
0.011017 0.0037186 -0.013584 -0.0045563 0.019005 0.0035656 0.0043783 -0.025203
-0.28424 -0.0098255 0.0070171 -0.051695
0.0096553 0.0083885 0.0049144 -0.0013396 0.0068837 -0.0057064 0.005519 -0.01973
0.0064179 -0.051538 -0.33212 0.017573
620000000 -0.27294 0.11004 -0.02322 0.0070861 0.0033929 0.0081827 0.0070676 -0.0054239
0.010672 -0.00096054 0.00069063 -0.0018844
-0.023119 0.007103 -0.40237 0.063542 -0.018905 -0.00013226 -0.0015802 -0.0019351
0.010312 -0.0071451 0.00080276 -0.0024274
0.0034279 0.0081473 -0.018896 -0.00012053 -0.15238 0.26833 -0.0018954 -0.0051487
-0.0037494 -0.0032092 0.0079905 -0.0031422
0.0071525 -0.0053084 -0.0016415 -0.0020431 -0.0017853 -0.0050556 -0.25984 0.14585
-0.038923 -0.018529 0.014491 0.024106
0.010598 -0.00085432 0.01055 -0.006866 -0.003794 -0.0031409 -0.039405 -0.018551
-0.20496 -0.04783 -0.040966 0.014807
0.00073409 -0.0021626 0.00058045 -0.0027048 0.0081902 -0.0028229 0.014968 0.023582
-0.04129 0.014572 -0.25012 -0.018818
680000000 -0.23233 0.19219 -0.027657 -0.014159 0.0050859 0.0049776 0.0007368 -0.0079944
-0.0032855 -0.010867 0.0043986 -0.0076513
-0.027621 -0.014198 -0.38677 0.16022 -0.032874 -0.0010186 -0.0015741 -0.00060593
-0.0029261 -0.0086988 -0.00065105 -0.0024506
0.0051762 0.0049906 -0.032917 -0.00095667 -0.10173 0.28774 -0.00067537 -5.6255e-05
-0.0023656 0.000931 -0.0026603 -0.0096561
0.00066281 -0.0078223 -0.0017296 -0.00069803 -0.00077869 -0.00014681 -0.21851 0.19607
-0.023229 -0.0085758 -0.010513 -0.010106
-0.0028639 -0.010735 -0.0030205 -0.0085453 -0.0022393 0.0010885 -0.023185 -0.0086328
-0.25087 0.048753 -0.0046561 -0.0095302
0.0044266 -0.0078173 -0.0006577 -0.0026082 -0.0026054 -0.0097407 -0.010695 -0.010425
-0.0049695 -0.0095018 -0.264 0.084911
740000000 -0.18957 0.18832 -0.038738 0.026015 0.012568 -0.0052361 -0.00083914 -0.0041444
-0.0045796 -0.0021014 -0.0061038 0.0030737
-0.03869 0.026042 -0.33478 0.17907 -0.034585 0.034941 -0.00090555 -0.0062367
-0.011341 0.0083794 -0.0026168 -0.005892
0.012601 -0.0051902 -0.034595 0.035049 -0.067968 0.28708 -0.0011815 0.0033837
-0.0031521 -0.003849 -0.00083542 0.00048807
-0.00086303 -0.0042516 -0.00093945 -0.0063889 -0.0012389 0.0033859 -0.20149 0.20286
-0.042165 -0.0078239 0.023172 0.012818
-0.0047893 -0.0019437 -0.011304 0.0083985 -0.0030556 -0.0033373 -0.042393 -0.0076117
-0.15746 0.070566 -0.042697 0.0016019
-0.0061291 0.0033171 -0.0023464 -0.0061476 -0.00081894 0.00052088 0.022983 0.012552
-0.042703 0.0014353 -0.2522 0.09197
800000000 -0.15811 0.22848 -0.022276 0.017022 0.0052564 -0.010515 -0.0048426 -0.0021396
-0.0042282 0.00277 0.0043572 0.0010397
-0.022382 0.016991 -0.33698 0.2489 -0.0075829 0.033916 -0.0019402 0.0022005
-0.00042927 0.0033452 0.0012814 0.0053089
0.0051223 -0.010502 -0.0074524 0.033992 -0.026703 0.3096 0.0011825 0.0014835
0.00071713 0.0034914 -0.001944 0.00094139
-0.0047811 -0.002179 -0.0019531 0.002355 0.0012185 0.0015007 -0.17383 0.23066
-0.02827 0.012548 0.013003 -0.010035
-0.0041635 0.002686 -0.00030939 0.0033876 0.00070946 0.0035471 -0.028216 0.012613
-0.19985 0.095291 -0.018009 0.017431
0.0044432 0.00076108 0.0013228 0.0055868 -0.0017926 0.0010443 0.013106 -0.009759
-0.01776 0.017488 -0.24633 0.14664
860000000 -0.12293 0.24995 -0.017057 0.03119 -0.0034719 -0.009694 -0.0025899 0.0013163
0.0043103 0.0051268 -0.0028147 -0.002901
-0.017071 0.031008 -0.28958 0.29086 0.0081152 0.033942 0.00039197 0.002057
0.0045973 0.00016592 0.0030563 0.00017623
-0.0034484 -0.0097681 0.0082524 0.033949 0.021521 0.31734 -0.00037863 -0.00030461
0.0028203 -0.0016067 0.0014017 0.0044493
-0.0025432 0.0013023 0.00033751 0.002002 -0.00040655 -0.00032612 -0.1382 0.24281
-0.018049 0.018611 -0.0063073 -0.0093854
0.0046715 0.0051736 0.004493 0.00019618 0.0028014 -0.0017473 -0.017972 0.018488
-0.1512 0.14431 -0.024388 0.015201
-0.0030241 -0.0032489 0.0032837 0.00026098 0.0014518 0.0044178 -0.0062154 -0.0093627
-0.024259 0.015301 -0.19474 0.19027
920000000 -0.09737 0.27334 0.0053159 0.037904 -0.0092885 -0.0040173 -0.0017941 0.0024447
0.0012204 0.0015843 0.0025221 -0.0010642
0.0053152 0.037853 -0.26013 0.31175 0.027959 0.021534 0.0015891 0.0011632
0.0066588 -0.00090865 0.0034861 -0.0029302
-0.0092742 -0.0040093 0.028031 0.021483 0.068057 0.31761 0.0017602 -0.00012995
0.0012308 -0.00055903 0.00065647 -0.0011414
-0.001734 0.0024454 0.0015755 0.0012167 0.0017444 -0.00010592 -0.11386 0.25915
-0.010574 0.029812 0.0026056 -0.0064154
0.001246 0.0016744 0.0065437 -0.00073616 0.001283 -0.00049585 -0.010619 0.029921
-0.14111 0.15002 -0.0023455 0.027504
0.0024067 -0.0012273 0.0037046 -0.0029256 0.00083648 -0.0011782 0.0026023 -0.006358
-0.0022211 0.027442 -0.20323 0.20486
980000000 -0.04964 0.29276 0.017866 0.029839 -0.0086762 0.0047275 0.0024126 0.003727
0.0038894 -0.0017186 -0.0029417 -0.0020991
0.017816 0.029883 -0.20736 0.3451 0.032638 0.0044527 0.0019645 -1.6401e-05
0.00096908 -0.0062016 -0.00049654 -0.0023493
-0.0086515 0.0047682 0.032654 0.0043192 0.11431 0.3105 0.00042448 -0.0011893
-4.2759e-05 -0.0020705 0.001622 -0.00012366
0.0024776 0.003702 0.002007 -0.0001011 0.00045223 -0.0012278 -0.075547 0.27046
0.0075636 0.02834 -0.0093726 -0.0066609
0.0038867 -0.0016915 0.0010232 -0.0062705 -1.0769e-06 -0.002018 0.0076334 0.028393
-0.10992 0.17768 0.0050923 0.018409
-0.0029569 -0.0020874 -0.00080229 -0.0021804 0.0015342 -6.7505e-05 -0.0094504 -0.0066851
0.0050754 0.018538 -0.16031 0.24949
1040000000 -0.0065711 0.301 0.033268 0.017604 -0.0010198 0.0068727 0.0028424 0.00066726
6.5123e-05 -0.0037719 -0.00063253 -0.0014746
0.033157 0.017562 -0.17147 0.35812 0.028847 -0.014858 0.0014633 -0.0016747
-0.0026543 -0.0022283 -0.001492 -0.0026276
-0.0010017 0.0068802 0.028789 -0.014947 0.16031 0.29655 -0.00050462 -0.0013954
-0.0015116 -0.00078162 -0.0004397 -0.0011588
0.0028975 0.0006323 0.0014532 -0.0016405 -0.00051532 -0.0013855 -0.04802 0.28057
0.018002 0.016931 -0.0029685 0.0021666
3.4957e-05 -0.0037627 -0.0027014 -0.0022147 -0.0014982 -0.00082666 0.017976 0.016891
-0.079484 0.18684 0.013316 0.018002
-0.00063595 -0.0013896 -0.0015667 -0.0026707 -0.00036695 -0.0011265 -0.0030181 0.0021783
0.013279 0.017896 -0.13907 0.2714
1100000000 0.039326 0.30778 0.035549 -0.004617 0.0029932 0.0037129 0.0025987 -0.0014639
-0.002108 -0.0030026 -0.0038503 1.9136e-05
0.035536 -0.004573 -0.12783 0.37477 0.014707 -0.027404 6.4747e-05 -0.0018187
-0.0031084 -0.00044624 -0.003463 -0.00042005
0.0030192 0.0037117 0.014568 -0.027492 0.20646 0.27587 -0.001773 0.00028232
-0.0016281 0.00066915 -0.0009537 -0.00036175
0.0025978 -0.0014518 0.00010033 -0.0017964 -0.0017536 0.00029069 -0.0074328 0.28534
0.022223 0.0049191 -0.0022047 0.0010789
-0.0021447 -0.0029877 -0.0030159 -0.00030272 -0.0016716 0.00066829 0.022257 0.004957
-0.060894 0.20033 0.018694 0.0084181
-0.0037302 5.3099e-05 -0.0033447 -0.00036763 -0.00091701 -0.00039644 -0.0022031 0.0011467
0.01864 0.0084616 -0.091935 0.30083
1160000000 0.090977 0.30208 0.023534 -0.020761 0.0026685 -0.0006261 -7.888e-05 -0.0025608
-0.0041561 -0.00036651 -0.00098147 0.0040603
0.023544 -0.020755 -0.084023 0.3786 -0.0038074 -0.028577 -0.0017322 -0.0015868
-0.0022642 0.0026766 -0.0013586 0.0014904
0.0026831 -0.00064107 -0.0039081 -0.028555 0.24916 0.2449 -0.00057268 0.0017102
-0.00035506 0.0017995 -0.0010147 0.00016844
-8.9407e-05 -0.0025621 -0.0017325 -0.0015726 -0.00056651 0.0016967 0.031948 0.2824
0.018861 -0.0095833 -0.0027722 0.0056844
-0.0041474 -0.00026375 -0.0022996 0.0026772 -0.00030916 0.0017722 0.018843 -0.0096605
-0.027804 0.2096 0.017255 0.00055914
-0.00099136 0.0040377 -0.0012861 0.0016357 -0.0010036 0.00012554 -0.0027317 0.0057241
0.017371 0.00055747 -0.045159 0.30384
1220000000 0.13545 0.2901 0.010043 -0.029752 -0.0015169 -0.00087618 -0.00017055 -0.0011553
-0.0024615 0.0025901 0.0012665 0.0018699
0.010052 -0.029701 -0.039969 0.38993 -0.016559 -0.020659 -0.0024695 0.00044185
0.00031001 0.0028092 -0.00067699 0.0017531
-0.0015192 -0.00084762 -0.016682 -0.020604 0.28825 0.20595 0.00092646 0.0015349
0.00061837 0.0010755 0.0002725 0.00070503
-0.00020282 -0.001164 -0.0024575 0.00047248 0.00090782 0.0015059 0.071564 0.27372
0.0089133 -0.014929 0.0029829 0.0017465
-0.0024827 0.0025735 0.00033451 0.0027493 0.00059157 0.0010689 0.0089035 -0.01494
-0.0043438 0.21957 0.013453 -0.01216
0.0013283 0.0018933 -0.00067436 0.0017032 0.00029645 0.00070594 0.0030287 0.0017394
0.013423 -0.012052 -0.013314 0.3212
1280000000 0.18468 0.26726 -0.0079068 -0.028006 -0.0018423 0.0023415 -0.0010907 -0.0019771
-0.00056159 0.0030586 0.0024927 0.0010508
-0.0078629 -0.027992 0.0056417 0.38063 -0.023154 -0.0082757 -0.00093041 0.0014386
0.0016179 0.001467 0.0005355 0.0019666
-0.001825 0.0023531 -0.023207 -0.0081989 0.31888 0.16188 0.0013618 -0.00020864
0.00092283 5.7732e-05 0.00029746 0.00042795
-0.0011194 -0.0019584 -0.0009363 0.0014531 0.0013522 -0.00018086 0.10791 0.2576
0.00046472 -0.016434 0.00064863 8.0931e-05
-0.00059504 0.0030587 0.0016215 0.0014408 0.0009374 9.5388e-05 0.00041408 -0.016428
0.032687 0.22348 0.0028818 -0.013984
0.0025026 0.0010176 0.00056315 0.0020336 0.00026124 0.00038397 0.00067917 7.5472e-05
0.0028907 -0.013965 0.034329 0.32265
1340000000 0.22142 0.233 -0.017422 -0.018706 0.00080748 0.0042694 -0.0019567 -0.00067867
0.0014631 0.002477 0.0015814 -0.0014679
-0.017387 -0.018695 0.044799 0.37212 -0.021124 0.0040112 -6.6992e-05 0.001904
0.0016516 0.00059942 0.0013025 0.00083529
0.00083047 0.004275 -0.021115 0.0041445 0.34102 0.11384 0.00087509 -0.00089118
0.00055128 -0.00038457 0.00024176 0.00022858
-0.0019554 -0.00069546 -6.3524e-05 0.001936 0.00088672 -0.00087438 0.14077 0.23762
-0.0072563 -0.013565 0.0014885 -0.00017362
0.0015103 0.0024827 0.0016721 0.00057755 0.00054032 -0.00036698 -0.0072682 -0.013552
0.063533 0.21916 -0.00324 -0.012584
0.0015608 -0.0014945 0.0013045 0.00080748 0.00018602 0.0002489 0.0014926 -0.00014045
-0.003259 -0.01255 0.073555 0.3185
1400000000 0.25388 0.19438 -0.023003 -0.0074429 0.0049296 0.003056 -0.0020504 0.00075498
0.002438 0.00061165 0.00014744 -0.0013545
-0.022978 -0.0074548 0.081611 0.35901 -0.014585 0.011974 0.0013199 0.0012199
0.00087414 -0.00078874 0.0011633 0.00031033
0.0049729 0.0030494 -0.014546 0.012071 0.35418 0.059939 6.7537e-05 -0.0013694
-1.7145e-05 -0.00027727 0.00030643 0.00022595
-0.0020541 0.00077846 0.0013162 0.0012255 5.7135e-05 -0.0013628 0.17073 0.20948
-0.011969 -0.0077922 -0.00052069 -0.00093479
0.0024272 0.0005767 0.00087129 -0.00081979 -2.4392e-05 -0.00030911 -0.012016 -0.007737
0.097242 0.21449 -0.0094052 -0.0081088
0.00012697 -0.0013713 0.0011175 0.00030221 0.00031674 0.00023417 -0.00053079 -0.00096167
-0.0093908 -0.0081161 0.11863 0.3078
1460000000 0.27625 0.15011 -0.020182 0.0044077 0.0053555 -0.0016917 -0.0014948 0.0017802
0.0018917 -0.00075066 -0.00035409 -0.00086463
-0.020166 0.0043788 0.11569 0.33725 -0.0061998 0.014818 0.0016721 0.00018454
0.00081275 -0.0010245 0.0011553 -0.00063181
0.0053782 -0.0017258 -0.0061462 0.014862 0.35984 0.0050849 -0.0010505 -0.0011152
0.00022213 -0.00010789 0.00063338 -0.00033219
-0.0014743 0.001771 0.001676 0.00017817 -0.0010298 -0.0010935 0.19786 0.18048
-0.012445 -0.002639 -0.0011487 0.0013487
0.001894 -0.00077437 0.00078839 -0.00099318 0.0002553 -0.00010818 -0.012444 -0.0026286
0.12744 0.19969 -0.010739 -0.0029458
-0.00034153 -0.00086225 0.0011352 -0.00062581 0.00068677 -0.00028731 -0.0011485 0.0012896
-0.010737 -0.0029545 0.15218 0.28675
1520000000 0.28796 0.10818 -0.01474 0.0099985 0.0030914 -0.0040145 0.00014486 0.0025402
0.001609 -0.0016756 -0.0011331 -0.00017386
-0.014732 0.0099857 0.14918 0.32246 0.0011805 0.01287 0.001558 -0.00075204
0.00010094 -0.00084218 0.00031094 -0.00099887
0.0030751 -0.0040146 0.0012504 0.012858 0.35271 -0.051294 -0.00085071 -0.00033548
0.00055772 -0.00076945 -2.3678e-05 -8.2708e-05
0.00015548 0.0025493 0.0015565 -0.00076307 -0.00085778 -0.00034864 0.22208 0.14228
-0.011938 0.0016494 0.00088529 0.0016803
0.0015765 -0.0017081 9.4093e-05 -0.00085334 0.00054966 -0.00076801 -0.011951 0.0016813
0.15591 0.18475 -0.010861 0.0012029
-0.0011594 -0.00018263 0.00030011 -0.0010003 -5.4966e-05 -1.8304e-06 0.00091483 0.0016562
-0.010855 0.0012153 0.18594 0.26654
1580000000 0.29701 0.061702 -0.0082837 0.013143 -0.00098598 -0.0046519 0.0013708 0.0017642
-0.00053328 -0.0020011 -0.00035454 0.00038147
-0.0082919 0.013129 0.17648 0.29763 0.0048587 0.0082438 0.00043021 -0.0015057
-0.000294 -0.00097984 -0.00026658 -0.00088373
-0.00098186 -0.0046463 0.0048991 0.0082519 0.33223 -0.10887 -0.0014217 0.00046706
-0.00026158 -0.00098781 0.0001375 -0.0005165
0.0014253 0.0017829 0.00042704 -0.0014976 -0.0014347 0.00044992 0.23709 0.10204
-0.0095315 0.0054113 0.0017514 0.00065024
-0.00051928 -0.0019655 -0.00030345 -0.00096019 -0.00026862 -0.0010504 -0.009557 0.0054683
0.18068 0.16603 -0.0087934 0.0065136
-0.00038671 0.00042823 -0.00026845 -0.0008981 0.00013635 -0.00048822 0.0017493 0.00067178
-0.0087883 0.0065035 0.21842 0.23968
1640000000 0.29851 0.019821 -0.0016912 0.01225 -0.0026068 -0.0024404 0.0025407 0.00095143
-0.00080116 -0.0010802 -0.00034606 0.00067698
-0.0017171 0.012235 0.20594 0.27236 0.0056427 0.0036702 -0.00066986 -0.0016002
-0.00090586 -0.00050271 -0.0005244 -0.00067065
-0.0026387 -0.002402 0.0056809 0.0036573 0.30333 -0.1581 -0.00081505 0.0012241
-0.00099728 -0.00080916 -0.00011004 -0.00032689
0.0025389 0.00094796 -0.0006748 -0.0016026 -0.00080591 0.0011897 0.24989 0.051783
-0.0063786 0.0062429 0.0020655 -0.00064878
-0.00083152 -0.0010625 -0.00089118 -0.00049612 -0.00093825 -0.00085618 -0.0063664 0.0062854
0.20384 0.14041 -0.004515 0.0085595
-0.00031598 0.00067267 -0.00053981 -0.00067407 -0.00010737 -0.00035946 0.0020411 -0.00065202
-0.0045336 0.0085573 0.24444 0.20835
1700000000 0.29036 -0.025758 0.0017745 0.0096504 -0.0032945 4.6878e-05 0.0028981 -0.0010475
-0.0016579 -0.00034041 0.00062758 0.00040816
0.0017526 0.0096438 0.224 0.24052 0.0038774 0.00087276 -0.0013439 -0.00056629
-0.00081849 -5.0624e-05 -0.00091532 -0.00041433
-0.0032703 6.8176e-05 0.0038715 0.00088775 0.25976 -0.19761 0.00032202 0.0015846
-0.0017298 -0.0003058 -0.00057543 -0.00093007
0.002897 -0.0010683 -0.0013484 -0.00055765 0.00032164 0.0016171 0.24637 0.00020163
-0.0046845 0.0068451 0.0012291 -0.001944
-0.0016804 -0.00031874 -0.0008187 -4.9569e-05 -0.001722 -0.00032906 -0.0046855 0.0068593
0.22153 0.11862 -0.00012242 0.0089894
0.00061157 0.00041136 -0.00091997 -0.00039769 -0.00059924 -0.00083181 0.001196 -0.0019441
-0.00010774 0.0089843 0.26104 0.17358
1760000000 0.27713 -0.074296 0.0042406 0.0065793 -0.0021801 0.00078738 0.001367 -0.0032655
-0.00096608 0.00065431 0.00041643 -0.00040672
0.0042475 0.0065772 0.24962 0.20027 0.0016682 -0.00095721 -0.0010823 0.00016098
-0.0012201 0.00081785 -0.00061846 0.00053854
-0.002195 0.00076935 0.001704 -0.00098416 0.21055 -0.23065 0.0010426 0.0013152
-0.0011762 0.0012283 -0.0013928 -0.00043231
0.0013525 -0.0032681 -0.0010835 0.0001898 0.0010652 0.0012933 0.23566 -0.052497
-0.0022806 0.0065453 -0.00051063 -0.0020834
-0.00091747 0.0006438 -0.0012171 0.00087213 -0.0011742 0.0012783 -0.0022604 0.0065482
0.23645 0.081634 0.0035013 0.006384
0.00041553 -0.00042865 -0.00062569 0.0005427 -0.0013927 -0.00048882 -0.00052562 -0.0021123
0.0034842 0.006369 0.27364 0.13568
1820000000 0.25135 -0.1113 0.0046794 0.0029243 -8.4518e-05 0.0023567 -0.00089381 -0.0030509
-0.00079283 0.00053668 8.2531e-05 -0.00012192
0.0046622 0.0029009 0.25918 0.16996 -0.00015017 0.00012266 -0.0013728 0.0008005
-0.00017868 0.0013959 -0.00050169 0.00053609
-6.3358e-05 0.0023727 -0.0001791 0.00011201 0.1603 -0.24605 0.0014964 0.00045811
-0.00047636 0.0020873 -0.0013102 0.00049653
-0.00093683 -0.0030449 -0.0013783 0.00081941 0.0014599 0.0004801 0.20381 -0.1
-0.0012677 0.0054704 -0.0014586 -0.0012483
-0.00077443 0.00051095 -0.00015205 0.0014233 -0.00045503 0.0021278 -0.0012576 0.0054722
0.2526 0.050248 0.0045152 0.003192
0.00013618 -0.00010858 -0.0005109 0.00057648 -0.0012789 0.00052959 -0.0014695 -0.0012497
0.0045317 0.0031867 0.27608 0.099559
1880000000 0.21537 -0.1505 0.0025773 0.00053839 -0.00033124 0.0020796 -0.0028534 -0.0022388
-0.00043573 0.0013347 0.00030866 -0.00066871
0.0025791 0.00056115 0.26313 0.12329 -0.0020861 0.0017578 -0.00027025 0.0016966
0.00061926 0.0013652 0.00018647 0.00092317
-0.00034163 0.0020812 -0.0020844 0.0017669 0.10839 -0.25532 0.0018811 -0.0010158
0.0013992 0.002013 -0.00086228 0.0013508
-0.0028262 -0.0021972 -0.00027338 0.0016919 0.001935 -0.0010199 0.16129 -0.13909
-0.0012206 0.0044038 -0.0021784 0.0008335
-0.00043243 0.0013519 0.00063246 0.0013741 0.0014104 0.0020496 -0.0011942 0.0043863
0.2537 0.015127 0.0040833 0.0013679
0.00033978 -0.00064491 0.00022755 0.00092933 -0.0009276 0.0014634 -0.0021711 0.00090174
0.0041043 0.0013795 0.27605 0.065396
1940000000 0.17567 -0.17526 0.00035555 -0.0013128 0.0013174 0.0018631 -0.0037435 0.00045637
0.0011129 0.0010027 -0.00073052 -0.00063111
0.0003847 -0.0013132 0.26311 0.091544 -0.00089653 0.0038931 0.0009448 0.0013324
0.0020561 0.00058485 0.00082833 0.00024695
0.0012971 0.0018439 -0.00087461 0.0038616 0.062374 -0.24852 0.00046168 -0.0022948
0.0024821 0.00067129 0.00032413 0.0016038
-0.0037429 0.00041234 0.00096658 0.0013585 0.0003648 -0.0023051 0.10783 -0.16762
-0.0022583 0.0040698 -0.0011351 0.0017929
0.0011407 0.00099889 0.0020564 0.00057434 0.0024465 0.00062165 -0.0022808 0.0040757
0.25281 -0.025584 0.0029733 -0.0016955
-0.00070635 -0.00060202 0.00084006 0.00019468 0.00027777 0.0015176 -0.0011583 0.0017829
0.0029737 -0.0017186 0.26483 0.02951
2000000000 0.12955 -0.1887 -0.0033976 0.0004728 0.0023873 0.0015564 -0.0022567 0.0036299
0.00095401 0.00047458 -0.00070454 0.00042256
-0.0033986 0.00046019 0.24842 0.056194 -0.00077189 0.0055447 0.0017336 0.00036461
0.0016008 -0.0015051 0.00053332 9.1432e-05
0.0024049 0.0014506 -0.00077395 0.0055075 0.019386 -0.23424 -0.0013788 -0.0013689
0.0021342 -0.0010735 0.0016029 0.0012218
-0.0022568 0.0036796 0.0017002 0.00036738 -0.0013915 -0.0012789 0.05482 -0.17557
-0.003585 0.0050766 0.00030937 0.0021356
