!Keysight Technologies,M9804A,MY58100912,A.14.10.03
!Date: Thursday, April 27, 2023 10:28:33
!Correction: S11(C  6-Port  ) 
!S12(C  6-Port  ) 
!S13(C  6-Port  ) 
!S14(C  6-Port  ) 
!S15(C  6-Port  ) 
!S16(C  6-Port  ) 
!S21(C  6-Port  ) 
!S22(C  6-Port  ) 
!S23(C  6-Port  ) 
!S24(C  6-Port  ) 
!S25(C  6-Port  ) 
!S26(C  6-Port  ) 
!S31(C  6-Port  ) 
!S32(C  6-Port  ) 
!S33(C  6-Port  ) 
!S34(C  6-Port  ) 
!S35(C  6-Port  ) 
!S36(C  6-Port  ) 
!S41(C  6-Port  ) 
!S42(C  6-Port  ) 
!S43(C  6-Port  ) 
!S44(C  6-Port  ) 
!S45(C  6-Port  ) 
!S46(C  6-Port  ) 
!S51(C  6-Port  ) 
!S52(C  6-Port  ) 
!S53(C  6-Port  ) 
!S54(C  6-Port  ) 
!S55(C  6-Port  ) 
!S56(C  6-Port  ) 
!S61(C  6-Port  ) 
!S62(C  6-Port  ) 
!S63(C  6-Port  ) 
!S64(C  6-Port  ) 
!S65(C  6-Port  ) 
!S66(C  6-Port  ) 
!S6P File: Measurement: :
# Hz S  RI   R 50
500000000 -0.33623 -0.033554 -0.0099886 -0.0041629 -0.0080473 0.011424 -0.0040615 0.01181
0.012595 0.0040355 -0.0045605 0.0078704
-0.0098397 -0.0043093 -0.4193 -0.048752 0.0074922 -0.011179 0.0012707 0.010622
0.0083751 0.0023835 0.000942 0.011881
-0.0080904 0.011326 0.0075952 -0.011619 -0.26412 0.21189 0.0064753 0.002841
8.1097e-05 0.0084709 0.00011635 0.011599
-0.0040184 0.011743 0.0013101 0.011014 0.0064372 0.0029336 -0.32687 0.048343
-0.019035 -0.0053048 0.01799 0.024987
0.012499 0.0038857 0.0080141 0.0022455 0.00011302 0.0084925 -0.019082 -0.0053066
-0.22515 -0.1832 -0.026642 0.0043929
-0.0045247 0.0076966 0.00077443 0.012085 4.8523e-05 0.011718 0.017993 0.024979
-0.026648 0.0044148 -0.27024 -0.13172
560000000 -0.31483 0.12561 -0.024051 -0.063094 -0.00013697 0.012165 0.0063152 0.0096617
0.010612 0.0034471 0.0099544 0.0076648
-0.023679 -0.062685 -0.37625 0.10923 -0.041394 -0.03592 0.013634 0.0038171
-0.0127 -0.0042285 0.00469 -0.00076313
-0.00034969 0.012145 -0.041959 -0.036365 -0.18296 0.25906 -0.00061383 -0.004936
0.018432 0.0041124 0.0069634 -0.006029
0.0066345 0.009606 0.013951 0.0033615 -0.00065843 -0.0050659 -0.30196 0.13634
0.0045246 -0.025265 0.0053026 -0.019848
0.010841 0.0036854 -0.013426 -0.0047294 0.018614 0.0042799 0.0045005 -0.025286
-0.28551 -0.0094533 0.0069319 -0.051534
0.0096254 0.0079127 0.0049783 -0.00071084 0.0069349 -0.0060408 0.0052971 -0.019839
0.0068974 -0.051517 -0.33226 0.017434
620000000 -0.27254 0.11 -0.023222 0.0069073 0.0034349 0.0080599 0.0073297 -0.0054726
0.010605 -0.00057033 0.00056364 -0.0021307
-0.023308 0.0068181 -0.40238 0.063506 -0.018962 -0.00018131 -0.0014843 -0.0018235
0.010332 -0.007121 0.00074898 -0.0024892
0.0031808 0.0084391 -0.018967 1.4431e-05 -0.15261 0.2685 -0.0018369 -0.0050376
-0.0036311 -0.0032992 0.0079699 -0.00337
0.0070723 -0.0056052 -0.0016666 -0.0019148 -0.0019357 -0.0051198 -0.25988 0.14594
-0.039283 -0.01867 0.014829 0.024533
0.010684 -0.00044797 0.010432 -0.0071213 -0.0035894 -0.0032633 -0.039317 -0.018633
-0.20464 -0.047621 -0.041549 0.014386
0.00015828 -0.0021526 0.00084813 -0.0024188 0.0078759 -0.0033951 0.01474 0.024451
-0.041508 0.014387 -0.2511 -0.018939
680000000 -0.23219 0.19221 -0.02784 -0.014165 0.0049277 0.0050734 0.00063514 -0.0076964
-0.003138 -0.010852 0.0042896 -0.0078828
-0.027749 -0.014233 -0.38662 0.16017 -0.032758 -0.0011542 -0.0016927 -0.00057169
-0.0029996 -0.0085168 -0.0007636 -0.0026813
0.0050069 0.0050838 -0.032845 -0.0010629 -0.10168 0.28773 -0.00069743 -1.8965e-05
-0.0023842 0.0010258 -0.002713 -0.0097641
0.00070702 -0.0076956 -0.0016418 -0.0003789 -0.00069389 -1.8975e-05 -0.21826 0.19589
-0.023379 -0.0088301 -0.010739 -0.010341
-0.0031166 -0.010896 -0.0028663 -0.0085253 -0.0024151 0.0010038 -0.023359 -0.0088237
-0.25091 0.048155 -0.0051952 -0.0093411
0.0040858 -0.0076158 -0.00072157 -0.0027357 -0.002672 -0.0096706 -0.010721 -0.010374
-0.0051557 -0.0093619 -0.26302 0.085564
740000000 -0.18935 0.18813 -0.03847 0.026322 0.01258 -0.0051205 -0.00091844 -0.0041105
-0.0044595 -0.0019928 -0.0063355 0.0033224
-0.038583 0.026219 -0.33471 0.17902 -0.034447 0.034947 -0.00094023 -0.0063493
-0.011203 0.0082128 -0.0023918 -0.0062316
0.012635 -0.0051112 -0.034449 0.034997 -0.068134 0.28703 -0.0010732 0.0033568
-0.0029976 -0.00374 -0.00068397 0.00041962
-0.00084095 -0.00418 -0.00080656 -0.0063293 -0.0011023 0.0033717 -0.20146 0.20302
-0.042201 -0.0077424 0.023069 0.012779
-0.0046717 -0.0022303 -0.011151 0.0082873 -0.003041 -0.0036653 -0.04224 -0.0076698
-0.15801 0.070206 -0.043054 0.0013863
-0.0061675 0.0033698 -0.0026022 -0.0064419 -0.00064106 0.00046083 0.023099 0.012763
-0.043071 0.0013238 -0.25108 0.091197
800000000 -0.15791 0.22863 -0.022395 0.017157 0.0052235 -0.010504 -0.00475 -0.0020033
-0.004107 0.0027402 0.0044461 0.0009162
-0.022447 0.017101 -0.33705 0.24894 -0.0076191 0.033958 -0.0019357 0.0022162
-0.00030853 0.0032964 0.0014446 0.0053911
0.0051196 -0.010488 -0.0075043 0.034022 -0.026769 0.30966 0.0012077 0.0014733
0.00076259 0.0035081 -0.0018662 0.00089446
-0.0048158 -0.0020928 -0.0019326 0.0021909 0.0012063 0.001448 -0.17388 0.23074
-0.02823 0.012548 0.013171 -0.009912
-0.0041999 0.0027757 -0.00050448 0.0033849 0.00072811 0.0034978 -0.028234 0.012603
-0.19987 0.095439 -0.017798 0.017473
0.0045208 0.00088176 0.0012683 0.0053949 -0.0018826 0.00088934 0.01317 -0.0099229
-0.017837 0.017452 -0.24612 0.14698
860000000 -0.1229 0.24993 -0.017147 0.031162 -0.0034872 -0.0097119 -0.0025742 0.0012614
0.0044288 0.00509 -0.0028384 -0.0030802
-0.017117 0.031205 -0.28934 0.29077 0.008155 0.033969 0.00033539 0.0020387
0.0047201 0.0001092 0.0032365 0.00021737
-0.0035004 -0.0096836 0.0083197 0.033938 0.021591 0.31736 -0.00036853 -0.00034273
0.002802 -0.0016379 0.0014492 0.0044875
-0.0025758 0.0013072 0.00024932 0.001971 -0.0003839 -0.00032084 -0.13818 0.24264
-0.017745 0.018602 -0.0061981 -0.0091565
0.0043457 0.0049523 0.0045948 -4.4035e-05 0.0028467 -0.001733 -0.017725 0.01864
-0.15094 0.1442 -0.02443 0.015076
-0.0029816 -0.0031289 0.0032949 0.00017559 0.0014837 0.0044964 -0.0062436 -0.0091609
-0.024415 0.01506 -0.19507 0.19017
920000000 -0.097515 0.2733 0.0052961 0.037886 -0.0092887 -0.0040887 -0.0017308 0.0023902
0.0011604 0.0016199 0.0023784 -0.0011151
0.0051996 0.037872 -0.2601 0.31174 0.027919 0.021506 0.0015501 0.0011776
0.0067022 -0.00095329 0.0034792 -0.00295
-0.0093327 -0.0040448 0.028019 0.021427 0.068043 0.31759 0.0017007 -9.7916e-05
0.0013071 -0.00051627 0.00066072 -0.0011363
-0.0017772 0.0024424 0.0015417 0.0011418 0.0017083 -9.8383e-05 -0.11382 0.25916
-0.010529 0.030018 0.0027521 -0.0062798
0.0012492 0.0015392 0.0066183 -0.00097676 0.0013042 -0.00055798 -0.010488 0.030053
-0.14114 0.15008 -0.0024184 0.027307
0.0023909 -0.0011229 0.0034887 -0.0028275 0.00059815 -0.0010704 0.0027236 -0.0062838
-0.0024255 0.027326 -0.2035 0.20472
980000000 -0.049556 0.29285 0.01792 0.02985 -0.0086955 0.0047625 0.0024333 0.0036974
0.0039316 -0.0016564 -0.0029777 -0.0020743
0.01785 0.029832 -0.20728 0.34523 0.032609 0.0044289 0.0019376 -9.5964e-05
0.0009201 -0.0061434 -0.00071743 -0.0022109
-0.0086349 0.0047934 0.032714 0.0043501 0.11433 0.31052 0.0004438 -0.0012255
3.7121e-06 -0.0020034 0.0015737 -5.4911e-05
0.0025056 0.0036973 0.0019073 -5.9508e-05 0.00041785 -0.0012141 -0.075483 0.27036
0.0076055 0.028432 -0.0095221 -0.0065388
0.0038982 -0.0017171 0.00093513 -0.0061228 2.0617e-05 -0.002045 0.0076512 0.028427
-0.11012 0.17763 0.0049412 0.018368
-0.0030561 -0.0021457 -0.00064419 -0.0022828 0.0016021 -0.00010109 -0.0095606 -0.006533
0.0049481 0.01837 -0.15993 0.24951
1040000000 -0.0064465 0.30089 0.0332 0.017611 -0.00099575 0.0068122 0.0029211 0.00064738
-2.8537e-05 -0.0037499 -0.00058994 -0.0015047
0.033143 0.017688 -0.17144 0.35812 0.028778 -0.014815 0.0014854 -0.001687
-0.0025881 -0.0021834 -0.0014311 -0.0025774
-0.0009945 0.006881 0.028768 -0.014947 0.16034 0.2965 -0.00049686 -0.0013807
-0.001523 -0.00074703 -0.00037922 -0.0011902
0.0028898 0.00066726 0.0014457 -0.0016597 -0.00050946 -0.0013832 -0.047944 0.28056
0.018011 0.016912 -0.0030631 0.0021942
8.6436e-06 -0.0037236 -0.0026661 -0.0021841 -0.0015077 -0.00071731 0.018055 0.01689
-0.079377 0.18692 0.013228 0.017988
-0.00062702 -0.0015184 -0.0014664 -0.0026095 -0.00039619 -0.0011771 -0.0030474 0.0021937
0.013225 0.017983 -0.13915 0.27125
1100000000 0.039397 0.30782 0.035563 -0.0046443 0.0030067 0.0037023 0.0026184 -0.0014586
-0.0020734 -0.0029779 -0.0037533 4.1898e-05
0.03553 -0.0046199 -0.12776 0.37482 0.014679 -0.027374 4.7329e-05 -0.0018021
-0.0030936 -0.00040896 -0.003418 -0.00044312
0.0030065 0.0036812 0.014596 -0.027477 0.20648 0.27587 -0.001752 0.00032088
-0.0016392 0.00068254 -0.00087935 -0.00034225
0.0026304 -0.0014748 3.1688e-05 -0.0018052 -0.0017458 0.00030585 -0.0073592 0.28534
0.022225 0.0049424 -0.0021948 0.0011306
-0.0021084 -0.00298 -0.0030875 -0.00040703 -0.0016175 0.00067228 0.02224 0.004913
-0.060866 0.20048 0.018667 0.0085653
-0.0037898 6.5241e-05 -0.0034426 -0.00045637 -0.00087199 -0.00037784 -0.0022053 0.0011344
0.018655 0.0085674 -0.091746 0.3008
1160000000 0.091133 0.30211 0.023551 -0.020794 0.0027121 -0.00063894 -9.2742e-05 -0.0025694
-0.0041726 -0.00038272 -0.00096267 0.0040217
0.023538 -0.020736 -0.083962 0.37855 -0.0038387 -0.028551 -0.0017511 -0.0015646
-0.002202 0.0026681 -0.0013004 0.0015217
0.0026918 -0.00064871 -0.0039795 -0.028576 0.24926 0.24484 -0.0005702 0.0017207
-0.00035541 0.0017906 -0.00099365 5.5699e-05
-7.1453e-05 -0.0025762 -0.0017379 -0.0015481 -0.00056325 0.0017178 0.031977 0.28238
0.018849 -0.009663 -0.0027001 0.0057082
-0.0041237 -0.00036956 -0.0022332 0.0026739 -0.00033888 0.0018035 0.01883 -0.0096902
-0.027606 0.20971 0.017216 0.00057322
-0.00098751 0.0040747 -0.0013417 0.0015182 -0.00098618 7.2067e-05 -0.0026782 0.0057158
0.01719 0.00057777 -0.045157 0.3037
1220000000 0.13555 0.29013 0.010039 -0.029732 -0.0015273 -0.00086947 -0.00021442 -0.001163
-0.0024755 0.0025435 0.001243 0.0018693
0.010046 -0.029655 -0.039897 0.38993 -0.016592 -0.020629 -0.0024721 0.0004388
0.00033857 0.0027943 -0.00067721 0.0017204
-0.0015534 -0.00084565 -0.016686 -0.020565 0.28825 0.20585 0.00090574 0.0015342
0.00063632 0.0010463 0.00030562 0.00071373
-0.0002196 -0.00118 -0.0024794 0.00045389 0.00089982 0.0015366 0.071596 0.27372
0.0088962 -0.014972 0.0030255 0.0017406
-0.0024766 0.0025487 0.00035339 0.0027969 0.00062371 0.0010459 0.0088702 -0.014989
-0.0041483 0.21959 0.013385 -0.012037
0.0012515 0.0018747 -0.00065645 0.0017334 0.00031122 0.00070844 0.003022 0.0017413
0.013364 -0.012029 -0.01331 0.32112
1280000000 0.18484 0.26726 -0.0079333 -0.028004 -0.0018334 0.0023737 -0.0011329 -0.0019842
-0.00059189 0.0030654 0.002466 0.0010664
-0.0078974 -0.027994 0.0056959 0.38058 -0.023167 -0.0082871 -0.00095803 0.0014227
0.0016088 0.001459 0.00050706 0.0019858
-0.0018247 0.0023701 -0.023231 -0.0082193 0.31886 0.16184 0.0013586 -0.00021339
0.00093046 5.3979e-05 0.00024985 0.00041643
-0.0011427 -0.0019976 -0.00095422 0.0014314 0.0013553 -0.00021591 0.10792 0.25756
0.00040301 -0.016468 0.00067476 0.00014149
-0.00056373 0.0030642 0.0016246 0.0014722 0.0009214 6.0853e-05 0.00037207 -0.016468
0.032938 0.22339 0.0028731 -0.013815
0.0025128 0.0010352 0.00054801 0.0019949 0.00024851 0.00043539 0.00067702 0.00013494
0.0028763 -0.013809 0.034353 0.32264
1340000000 0.22148 0.23295 -0.017426 -0.018657 0.00080168 0.0042626 -0.0019558 -0.00069528
0.0014541 0.0024931 0.0015784 -0.001487
-0.017415 -0.018639 0.04484 0.3721 -0.02113 0.0040384 -4.1838e-05 0.0018935
0.0016559 0.00060193 0.0013383 0.00080445
0.00084032 0.0042573 -0.021137 0.0041526 0.34106 0.11379 0.00091056 -0.00090649
0.00057838 -0.00042119 0.00024174 0.0002087
-0.0019416 -0.0006791 -5.4214e-05 0.0019002 0.00090706 -0.00090536 0.14078 0.23766
-0.0073341 -0.013573 0.0015052 -0.00018253
0.0014774 0.0024895 0.001661 0.00057401 0.00058979 -0.00040913 -0.0073656 -0.013568
0.063631 0.21895 -0.003156 -0.012432
0.0015788 -0.001497 0.0013258 0.00081402 0.00023545 0.0002125 0.0015073 -0.00019152
-0.003164 -0.012426 0.073605 0.31853
1400000000 0.25392 0.19432 -0.02301 -0.007436 0.0049376 0.0030487 -0.0020494 0.00076671
0.0024306 0.00061511 0.00015495 -0.0013553
-0.022983 -0.0074327 0.081697 0.35897 -0.014588 0.011976 0.0013108 0.0012236
0.00086972 -0.00079166 0.0011436 0.00034161
0.0049681 0.0030314 -0.014531 0.012063 0.35414 0.059851 5.5277e-05 -0.0013546
-9.9917e-06 -0.00029694 0.00033292 0.00027155
-0.0020421 0.00080576 0.0013098 0.0012378 6.1186e-05 -0.0013437 0.17076 0.2095
-0.012053 -0.007756 -0.00054768 -0.00098093
0.0024414 0.00058043 0.00085984 -0.00079027 -6.6868e-06 -0.00030059 -0.01208 -0.0077294
0.097228 0.2143 -0.0092578 -0.0080794
0.00011873 -0.0013539 0.0011607 0.00031255 0.00033776 0.00026558 -0.00054207 -0.00099079
-0.0092619 -0.0080869 0.11875 0.3079
1460000000 0.27631 0.14999 -0.020174 0.0044268 0.0053597 -0.0017357 -0.0015073 0.0017674
0.0018717 -0.00074313 -0.00038049 -0.0008512
-0.020163 0.0044147 0.11575 0.33722 -0.0062013 0.014812 0.0016553 0.00018756
0.00079834 -0.0010069 0.0011585 -0.0006403
0.005345 -0.0017285 -0.0061487 0.014857 0.35978 0.0050825 -0.0010568 -0.0011266
0.000243 -9.2425e-05 0.00063769 -0.00033852
-0.0014809 0.0017673 0.0016513 0.00016933 -0.0010546 -0.0011277 0.19787 0.18046
-0.012482 -0.002596 -0.0011714 0.0012785
0.0018719 -0.00075842 0.00078215 -0.0010272 0.0002297 -9.2444e-05 -0.012503 -0.0025637
0.12738 0.19956 -0.010544 -0.0029816
-0.00035942 -0.00083022 0.0011656 -0.00062396 0.00064647 -0.00035614 -0.0011767 0.0012812
-0.010549 -0.0029699 0.15233 0.28689
1520000000 0.28802 0.10815 -0.014689 0.0099949 0.0030666 -0.0040104 0.0001411 0.0025501
0.0015912 -0.0016727 -0.0010873 -0.00015087
-0.014697 0.0099845 0.14925 0.32244 0.0011952 0.012862 0.0015611 -0.00075957
0.00010368 -0.00084016 0.00029758 -0.0010185
0.0030465 -0.0040211 0.0012694 0.012859 0.35277 -0.051404 -0.00087786 -0.00032188
0.00053825 -0.00074449 -2.2914e-05 -5.6826e-05
0.00016445 0.0025502 0.0015569 -0.0007692 -0.00087513 -0.00032216 0.22211 0.14226
-0.011943 0.0017143 0.00088343 0.0016581
0.0015789 -0.0016838 8.8903e-05 -0.00084079 0.00053983 -0.0007483 -0.011941 0.0017471
0.15571 0.18469 -0.010747 0.0011187
-0.001113 -0.00013925 0.00029215 -0.0010045 -3.3472e-05 -7.6492e-05 0.00088393 0.0016621
-0.010744 0.0011211 0.1861 0.2666
1580000000 0.29701 0.061552 -0.0082739 0.013125 -0.00095969 -0.0046431 0.0013827 0.0017611
-0.00050061 -0.0020082 -0.00033515 0.00039215
-0.0082861 0.013108 0.17653 0.29759 0.0048319 0.0082614 0.00043579 -0.001509
-0.00027113 -0.00097359 -0.00025244 -0.00088489
-0.00099109 -0.0046361 0.0048784 0.0082324 0.33214 -0.10903 -0.0014245 0.0004589
-0.00025879 -0.0010025 0.00015366 -0.00051147
0.0013914 0.0017748 0.00042566 -0.0015046 -0.0014274 0.00044985 0.2371 0.10203
-0.0095111 0.005477 0.0017354 0.000684
-0.00053147 -0.0019792 -0.0002987 -0.00096626 -0.00026905 -0.0010067 -0.009504 0.0055031
0.18056 0.16604 -0.0087343 0.0063172
-0.00033172 0.00038291 -0.00026393 -0.00089886 0.00015232 -0.00050617 0.001738 0.00067663
-0.008734 0.006313 0.2186 0.23972
1640000000 0.29849 0.019733 -0.0017069 0.012243 -0.0026098 -0.0023633 0.002543 0.00094973
-0.00080288 -0.0010569 -0.00034593 0.00067372
-0.0017155 0.012232 0.20597 0.27231 0.005624 0.0036612 -0.00065592 -0.0015952
-0.0008973 -0.00049539 -0.00053452 -0.00067928
-0.0026122 -0.0023823 0.0056549 0.003634 0.30345 -0.15807 -0.00078798 0.0012044
-0.00094691 -0.00082523 -0.00012265 -0.00034481
0.0025466 0.00094907 -0.00067454 -0.0015872 -0.00079191 0.0012093 0.24989 0.05175
-0.0063297 0.0062974 0.0020593 -0.00060496
-0.00080629 -0.0010445 -0.00090069 -0.00048818 -0.00094274 -0.00082621 -0.0063102 0.0063091
0.20379 0.14052 -0.0045642 0.008395
-0.00032478 0.00068737 -0.00055359 -0.00066637 -0.00011001 -0.00033234 0.0020528 -0.00060933
-0.0045488 0.0083941 0.24467 0.2083
1700000000 0.29037 -0.025836 0.0017648 0.0096748 -0.003343 6.5539e-05 0.0029187 -0.0010648
-0.0016557 -0.0003332 0.00063505 0.00038575
0.0017552 0.0096571 0.22405 0.24049 0.0038451 0.00086222 -0.0013397 -0.00056274
-0.00080978 -6.0362e-05 -0.00090859 -0.00041549
-0.0033317 0.0001259 0.0038187 0.00085366 0.25969 -0.1977 0.00031953 0.0015982
-0.0017452 -0.00032977 -0.00055453 -0.00091765
0.0028999 -0.0010922 -0.00135 -0.00055774 0.00032924 0.0015757 0.24635 0.00016139
-0.0046437 0.0068254 0.0012308 -0.0018907
-0.0016555 -0.00034256 -0.00080043 -4.3209e-05 -0.0017439 -0.00032772 -0.0046268 0.0068378
0.22155 0.11873 -0.00021497 0.0088869
0.00063304 0.00038351 -0.00094107 -0.00041593 -0.00055906 -0.00091478 0.001224 -0.0019063
-0.00019554 0.0088843 0.26124 0.17346
1760000000 0.27706 -0.074385 0.0042473 0.0065536 -0.0021718 0.00077307 0.0013582 -0.0032494
-0.0009477 0.00063502 0.00042329 -0.0003823
0.0042403 0.0065554 0.24968 0.20022 0.0017089 -0.00095012 -0.0010862 0.00015582
-0.0012075 0.0008195 -0.00061581 0.00054031
-0.0021404 0.00079481 0.0017198 -0.00095029 0.2106 -0.23054 0.0010399 0.0012997
-0.0012159 0.0012491 -0.00141 -0.00039612
0.0013484 -0.0032776 -0.0010827 0.00016809 0.0010371 0.001298 0.23567 -0.05249
-0.0022766 0.0065441 -0.00054885 -0.0020838
-0.00092436 0.00063906 -0.0011975 0.00083458 -0.001222 0.0012494 -0.0022631 0.0065463
0.23658 0.081747 0.0033393 0.0063174
0.00042646 -0.0003933 -0.00062039 0.00055227 -0.0014181 -0.00040198 -0.00054874 -0.0020884
0.0033457 0.006318 0.27378 0.13559
1820000000 0.25135 -0.1113 0.0046459 0.0029162 -0.0001086 0.0023429 -0.00089669 -0.0030482
-0.00079511 0.00049551 0.00011417 -9.9798e-05
0.004645 0.0029168 0.25923 0.16991 -0.00016838 0.00010184 -0.001383 0.00079735
-0.00015967 0.0013747 -0.00051252 0.00054123
-9.9594e-05 0.0023062 -0.00017853 0.00010769 0.1603 -0.24615 0.0014673 0.00046087
-0.00046479 0.0020855 -0.0012998 0.00043719
-0.00089425 -0.0030165 -0.0013918 0.00081682 0.0014748 0.00044956 0.20381 -0.099978
-0.0012677 0.0054401 -0.0014215 -0.0012448
-0.00078857 0.00051963 -0.00016781 0.0013819 -0.00046525 0.0020939 -0.0012615 0.0054478
0.25271 0.050271 0.0043932 0.0031901
9.8668e-05 -0.00012454 -0.00048908 0.00055727 -0.0013115 0.00043874 -0.0014391 -0.0012431
0.0043872 0.0031787 0.27614 0.099391
1880000000 0.21534 -0.15061 0.0026086 0.00054243 -0.00032545 0.0020752 -0.0028676 -0.0022642
-0.00041409 0.0013008 0.00036337 -0.00066947
0.0025812 0.00056038 0.26315 0.12321 -0.0020758 0.0017223 -0.00026388 0.0016945
0.00060917 0.0013715 0.00017994 0.00095164
-0.00029847 0.0020689 -0.0020396 0.001733 0.10832 -0.25536 0.0018742 -0.00098286
0.0013812 0.0020385 -0.00078047 0.0013462
-0.0028919 -0.0022303 -0.0002664 0.0016969 0.0018777 -0.00098227 0.16126 -0.13906
-0.0012788 0.0043697 -0.0021804 0.00084504
-0.00041613 0.0013289 0.00062584 0.0013864 0.0013915 0.0020388 -0.0012648 0.0043735
0.25384 0.015045 0.0039933 0.0014149
0.00033444 -0.00065252 0.00016839 0.00094935 -0.00078572 0.0013371 -0.0021642 0.00085807
0.0039914 0.0014069 0.27603 0.065184
1940000000 0.17564 -0.1753 0.0003752 -0.0013237 0.0012587 0.0018875 -0.0037375 0.00043762
0.0010842 0.001044 -0.00070588 -0.00063752
0.00038463 -0.0013244 0.26313 0.091475 -0.00090975 0.0038559 0.00091336 0.0013605
0.0020159 0.00058055 0.0008721 0.00022244
0.0012684 0.0018981 -0.00088395 0.0038548 0.062444 -0.24868 0.00044362 -0.0023151
0.0024678 0.00067595 0.00041243 0.001677
-0.003738 0.00044914 0.00093506 0.0013547 0.00046264 -0.0022931 0.10786 -0.16772
-0.0022588 0.004085 -0.001152 0.0018911
0.0010927 0.001024 0.0020216 0.00058606 0.0024533 0.00067512 -0.0022493 0.004085
0.25296 -0.025709 0.0028325 -0.0015845
-0.00069913 -0.00060831 0.00086019 0.0002057 0.00043914 0.0016519 -0.0011536 0.0018975
0.0028239 -0.0015741 0.26479 0.029285
2000000000 0.12953 -0.1887 -0.003457 0.00050763 0.0023874 0.0015057 -0.0022147 0.0036882
0.00096446 0.00050306 -0.00066209 0.00040283
-0.0034167 0.00047909 0.24844 0.056137 -0.00077413 0.0055264 0.0017072 0.00037349
0.0016187 -0.0014882 0.00055578 0.00012219
0.0024198 0.0015265 -0.00075258 0.0055031 0.019224 -0.23432 -0.0013799 -0.0013737
0.0021386 -0.0011243 0.0014873 0.0012945
-0.0022315 0.0036696 0.0017261 0.00037671 -0.0014005 -0.0013601 0.054817 -0.17564
-0.0036078 0.0050706 0.0002923 0.0021032
