!Keysight Technologies,M9804A,MY58100912,A.14.10.03
!Date: Thursday, April 27, 2023 10:28:33
!Correction: S11(C  6-Port  ) 
!S12(C  6-Port  ) 
!S13(C  6-Port  ) 
!S14(C  6-Port  ) 
!S15(C  6-Port  ) 
!S16(C  6-Port  ) 
!S21(C  6-Port  ) 
!S22(C  6-Port  ) 
!S23(C  6-Port  ) 
!S24(C  6-Port  ) 
!S25(C  6-Port  ) 
!S26(C  6-Port  ) 
!S31(C  6-Port  ) 
!S32(C  6-Port  ) 
!S33(C  6-Port  ) 
!S34(C  6-Port  ) 
!S35(C  6-Port  ) 
!S36(C  6-Port  ) 
!S41(C  6-Port  ) 
!S42(C  6-Port  ) 
!S43(C  6-Port  ) 
!S44(C  6-Port  ) 
!S45(C  6-Port  ) 
!S46(C  6-Port  ) 
!S51(C  6-Port  ) 
!S52(C  6-Port  ) 
!S53(C  6-Port  ) 
!S54(C  6-Port  ) 
!S55(C  6-Port  ) 
!S56(C  6-Port  ) 
!S61(C  6-Port  ) 
!S62(C  6-Port  ) 
!S63(C  6-Port  ) 
!S64(C  6-Port  ) 
!S65(C  6-Port  ) 
!S66(C  6-Port  ) 
!S6P File: Measurement: :
# Hz S  RI   R 50
500000000 -0.33924 -0.021328 -0.01127 -0.0032806 -0.0081472 0.012815 -0.0035032 0.01211
0.011943 0.0036829 -0.0032713 0.0081093
-0.011284 -0.0033191 -0.41911 -0.039306 0.0064065 -0.011485 0.0016616 0.012828
0.0074627 0.002346 0.0016723 0.014336
-0.0081242 0.012834 0.0064113 -0.01148 -0.26364 0.2206 0.0070035 0.0040048
-0.00084376 0.0078468 0.0019412 0.012271
-0.0035212 0.012116 0.0016578 0.01282 0.0069834 0.0040022 -0.33141 0.059314
-0.020269 -0.0064989 0.01486 0.025263
0.011979 0.0036385 0.0074758 0.0023234 -0.00082942 0.0078715 -0.020281 -0.0064606
-0.23402 -0.16924 -0.025323 0.0044378
-0.0032701 0.0081527 0.0017085 0.014319 0.0019252 0.012273 0.014851 0.025295
-0.025342 0.004435 -0.28377 -0.08812
560000000 -0.31359 0.13518 -0.02638 -0.06053 0.0012435 0.011893 0.005509 0.0098895
0.009764 0.0042836 0.010454 0.0077316
-0.026204 -0.060569 -0.37586 0.11611 -0.042265 -0.035248 0.013151 0.004
-0.012113 -0.0043914 0.0030222 -0.00099038
0.0012235 0.01192 -0.042398 -0.035202 -0.18122 0.26644 -0.00036976 -0.0045678
0.01859 0.0039585 0.0064332 -0.0062732
0.0055415 0.009909 0.013137 0.0039993 -0.00036742 -0.0045709 -0.30651 0.14611
0.00080793 -0.02367 0.0033923 -0.01916
0.0098207 0.0043706 -0.01213 -0.0044247 0.018585 0.003938 0.00079739 -0.02366
-0.28812 0.0038711 0.0047682 -0.047006
0.010485 0.0077023 0.0030658 -0.00099121 0.0064323 -0.0062322 0.0033852 -0.019187
0.0048033 -0.047039 -0.33026 0.051412
620000000 -0.27151 0.12105 -0.023427 0.0075323 0.004003 0.0082822 0.0072492 -0.005457
0.010863 -0.0013528 0.00071755 -0.0025184
-0.023407 0.0075472 -0.40149 0.071091 -0.019294 0.00061182 -0.0010944 -0.0019195
0.010315 -0.0066387 0.0015094 -0.0021385
0.0040083 0.0082802 -0.019304 0.00064055 -0.14993 0.27567 -0.00092131 -0.00465
-0.0036604 -0.002771 0.0081835 -0.0028603
0.0072927 -0.0054532 -0.00109 -0.0019183 -0.0009169 -0.0046457 -0.26393 0.15809
-0.039765 -0.01749 0.011846 0.02418
0.010816 -0.0013883 0.010309 -0.0066656 -0.0036844 -0.002783 -0.039762 -0.017466
-0.21056 -0.034207 -0.038536 0.014665
0.00069845 -0.0025019 0.0015051 -0.0021425 0.0081773 -0.002857 0.01185 0.024193
-0.038542 0.014632 -0.25608 0.022322
680000000 -0.22824 0.20333 -0.027665 -0.01218 0.0053684 0.0046648 0.0011329 -0.0069478
-0.0030597 -0.010836 0.0042757 -0.0067424
-0.027657 -0.012181 -0.38489 0.16592 -0.032075 0.00035884 -0.0012805 -0.00045896
-0.0025967 -0.008996 -0.001379 -0.002044
0.005354 0.004624 -0.032091 0.00041581 -0.098737 0.29365 -0.00091201 -0.00032327
-0.0016533 0.00017889 -0.0032478 -0.0086292
0.0011273 -0.0069345 -0.0012787 -0.00047605 -0.00091242 -0.00034239 -0.21738 0.20671
-0.025784 -0.0051831 -0.0092825 -0.0086233
-0.0030784 -0.010853 -0.002622 -0.0090108 -0.0016574 0.00017869 -0.025823 -0.0051744
-0.25193 0.063978 -0.0066502 -0.0065021
0.0042752 -0.0067431 -0.0013622 -0.0020269 -0.0032391 -0.0086156 -0.0092846 -0.0085996
-0.0066528 -0.0064937 -0.25472 0.11872
740000000 -0.18473 0.19798 -0.036784 0.026388 0.012234 -0.0057095 -0.00045778 -0.0040619
-0.0047355 -0.003071 -0.0054198 0.0031347
-0.036767 0.0264 -0.33282 0.18549 -0.033202 0.034884 -0.0011216 -0.0063108
-0.01132 0.0078793 -0.0022547 -0.0055617
0.012187 -0.0057414 -0.033153 0.03497 -0.064935 0.29261 -0.0018007 0.00306
-0.003152 -0.0040706 -0.0017502 0.00080263
-0.00047354 -0.0040626 -0.0011248 -0.0062997 -0.0017946 0.0030683 -0.19929 0.21493
-0.042682 -0.0035881 0.022452 0.012902
-0.0047279 -0.0030713 -0.011331 0.0078965 -0.0031328 -0.0041042 -0.042735 -0.0035411
-0.15743 0.086574 -0.039257 0.0034307
-0.0054194 0.0031377 -0.0022815 -0.005573 -0.0017458 0.00081004 0.022464 0.012907
-0.039221 0.003423 -0.24342 0.1284
800000000 -0.15074 0.23549 -0.021211 0.017483 0.0045606 -0.01042 -0.0044285 -0.0017991
-0.0033862 0.0024844 0.003468 0.00047959
-0.021203 0.017463 -0.33353 0.25401 -0.0067347 0.03349 -0.0023402 0.0023091
-0.00044955 0.0031706 0.0010187 0.0051412
0.0045358 -0.010434 -0.0066552 0.033517 -0.02257 0.31455 0.00083928 0.0017313
0.00036182 0.0035271 -0.0018163 0.0011808
-0.0044342 -0.0018004 -0.0023343 0.0023214 0.0008354 0.0017333 -0.16927 0.24114
-0.026906 0.016514 0.012767 -0.01009
-0.0033775 0.00252 -0.00043724 0.0031841 0.000367 0.0035264 -0.026929 0.016583
-0.19562 0.11237 -0.015953 0.018668
0.0034704 0.00047023 0.0010375 0.0051204 -0.0018071 0.0011844 0.012776 -0.010103
-0.015964 0.018666 -0.23146 0.17502
860000000 -0.11616 0.25551 -0.015853 0.03081 -0.003769 -0.0094681 -0.0022502 0.0011475
0.0042598 0.0046796 -0.0028674 -0.0027552
-0.015898 0.030779 -0.28605 0.29499 0.009077 0.033122 0.00017754 0.0022791
0.0041551 0.00013983 0.0031741 0.00048256
-0.0037861 -0.0094554 0.0091554 0.033116 0.025777 0.32152 -0.00040181 -3.3548e-05
0.00249 -0.0013095 0.0016301 0.0041365
-0.0022436 0.0011568 0.00019146 0.0022762 -0.00039834 -3.3455e-05 -0.13235 0.2518
-0.015401 0.020757 -0.0055398 -0.0088451
0.0042885 0.004697 0.0041707 0.000128 0.0024852 -0.0013103 -0.015396 0.020809
-0.14348 0.1586 -0.022051 0.016208
-0.0028536 -0.0027765 0.0031826 0.00047257 0.001631 0.0041412 -0.0055463 -0.0088345
-0.022056 0.016213 -0.1816 0.21545
920000000 -0.089632 0.27708 0.0061996 0.036676 -0.0092944 -0.0038692 -0.0015007 0.0018241
0.0011699 0.0013122 0.0025148 -0.0016824
0.0061484 0.03666 -0.25582 0.31528 0.028143 0.020298 0.0017128 0.0010034
0.0068864 -0.00075117 0.0036948 -0.0028384
-0.0092894 -0.0038574 0.028193 0.020243 0.072995 0.32145 0.0019402 -0.00015494
0.0014668 -0.00057604 0.00084718 -0.0010737
-0.0015092 0.0018186 0.0017245 0.0010132 0.0019348 -0.00015261 -0.10644 0.26728
-0.0074041 0.030898 0.002801 -0.0063261
0.0011724 0.0012961 0.0069071 -0.00077356 0.0014654 -0.00057092 -0.0073397 0.030938
-0.13068 0.1641 1.9155e-05 0.025836
0.0025081 -0.001697 0.0037011 -0.0028519 0.0008446 -0.0010737 0.0027956 -0.0063287
4.7529e-06 0.025841 -0.18253 0.23009
980000000 -0.042576 0.29485 0.01842 0.028467 -0.0084027 0.0047707 0.0020042 0.0030625
0.0039968 -0.0018591 -0.0031622 -0.0021599
0.018344 0.028445 -0.20392 0.34771 0.032427 0.0033796 0.002035 -0.00036799
0.0016397 -0.0061609 -0.00057838 -0.0023471
-0.0083842 0.0047852 0.032438 0.0032913 0.1195 0.31345 0.00048201 -0.0012961
0.00015093 -0.002326 0.0013948 -0.00026924
0.0019979 0.0030379 0.0020443 -0.00035317 0.00048387 -0.0012947 -0.067345 0.27653
0.010978 0.028422 -0.0085374 -0.0065498
0.0039761 -0.0018758 0.0016425 -0.0061719 0.00014825 -0.0023252 0.011047 0.028427
-0.097855 0.18831 0.0062194 0.017984
-0.0031781 -0.0021418 -0.00056312 -0.0023496 0.0013964 -0.00027374 -0.0085416 -0.0065442
0.00622 0.01799 -0.13855 0.26908
1040000000 0.00026275 0.30208 0.032911 0.015868 -0.0010651 0.0065663 0.0023588 0.00057272
0.00015401 -0.0032763 -0.00079349 -0.0013136
0.032835 0.015906 -0.16813 0.36084 0.027829 -0.015537 0.0014357 -0.0017975
-0.0024109 -0.002461 -0.0014833 -0.0026818
-0.0010418 0.0065788 0.027777 -0.01563 0.16602 0.29891 -0.00057472 -0.0014881
-0.0016048 -0.00091341 -0.00045851 -0.0010363
0.0023467 0.00056675 0.0014511 -0.0017873 -0.00057553 -0.0014854 -0.03921 0.28551
0.020864 0.015638 -0.002699 0.0010751
0.00012342 -0.0032889 -0.0024063 -0.0024725 -0.0016163 -0.00091185 0.020909 0.015615
-0.065873 0.19489 0.013684 0.015847
-0.00080875 -0.0013147 -0.0014798 -0.002693 -0.00046646 -0.0010365 -0.0026881 0.0010851
0.013685 0.015848 -0.11391 0.28911
1100000000 0.045819 0.30827 0.034438 -0.0057106 0.002742 0.0035709 0.0021329 -0.00098947
-0.0018858 -0.0027303 -0.0035372 0.00048335
0.034391 -0.0056684 -0.1245 0.37704 0.013638 -0.027482 -0.00013718 -0.0017951
-0.0033273 -0.00059031 -0.0033388 -0.00025952
0.0027565 0.0035551 0.01357 -0.027549 0.21269 0.27681 -0.0018609 0.00017937
-0.0018532 0.00053562 -0.0010015 -0.00021584
0.0021368 -0.0010105 -0.00013654 -0.0017921 -0.0018605 0.00017216 0.0019473 0.28841
0.024711 0.0025649 -0.0026428 0.00021748
-0.0019019 -0.0027221 -0.0033255 -0.00059082 -0.0018665 0.00053996 0.024744 0.0025226
-0.047294 0.20666 0.018328 0.006407
-0.0035412 0.00047896 -0.0033369 -0.00025143 -0.0010074 -0.00021524 -0.0026447 0.00022514
0.01832 0.0064025 -0.067125 0.31344
1160000000 0.096565 0.30207 0.022092 -0.021362 0.0022863 -0.00044616 -6.0933e-05 -0.0020308
-0.003835 -0.00048756 -0.00071482 0.0038282
0.022062 -0.021321 -0.080533 0.38076 -0.0047477 -0.028066 -0.00165 -0.0015211
-0.0025807 0.0025656 -0.0013631 0.0016678
0.0022952 -0.00043644 -0.0048494 -0.028071 0.255 0.24448 -0.00081433 0.0017986
-0.00047607 0.0019262 -0.00081779 0.00015404
-6.8964e-05 -0.0020295 -0.0016405 -0.0015038 -0.00082061 0.001794 0.041224 0.28368
0.02019 -0.012498 -0.0029857 0.0044036
-0.0038198 -0.00047555 -0.0025513 0.0025766 -0.00048178 0.0019238 0.020202 -0.012519
-0.01394 0.21325 0.016914 -0.0016014
-0.00070198 0.0038277 -0.00135 0.0016805 -0.00082095 0.00016123 -0.0029797 0.0044067
0.016901 -0.0016169 -0.020108 0.31381
1220000000 0.14133 0.28931 0.0084322 -0.029381 -0.001637 -0.00036682 0.00013505 -0.00095392
-0.0023338 0.0022865 0.0012373 0.0018052
0.0084274 -0.029353 -0.03625 0.39171 -0.017062 -0.019784 -0.0024113 0.00044649
8.9213e-05 0.0029013 -0.00056486 0.0018929
-0.0016415 -0.00035498 -0.017145 -0.019738 0.29366 0.20427 0.00079082 0.0018545
0.00069089 0.0012797 0.00042522 0.00056285
0.00014351 -0.00094666 -0.0024143 0.00046634 0.00079858 0.0018515 0.081318 0.27336
0.0092854 -0.018511 0.001511 0.0013559
-0.0023175 0.0022922 0.00011564 0.0029137 0.00069033 0.0012704 0.0092718 -0.01853
0.0099416 0.22005 0.011721 -0.013342
0.0012391 0.0017922 -0.00055724 0.0019046 0.00042813 0.00056471 0.0015048 0.0013532
0.011719 -0.013349 0.012799 0.32638
1280000000 0.19001 0.26572 -0.0089818 -0.026907 -0.0015262 0.0029012 -0.00099245 -0.0019913
-0.00066112 0.0028623 0.0023687 0.00090053
-0.0089602 -0.026876 0.0093793 0.38201 -0.02319 -0.0075407 -0.0010586 0.0013996
0.0017161 0.0016912 0.00073157 0.0017683
-0.0015163 0.0029039 -0.023231 -0.0074595 0.32304 0.15929 0.0016417 3.0043e-05
0.0011163 0.00022088 0.00028059 0.00013822
-0.0009891 -0.0019865 -0.0010584 0.0013947 0.0016369 3.7626e-05 0.11725 0.25457
-0.0006266 -0.019965 -0.00057879 0.00050411
-0.00065508 0.0028665 0.0017256 0.0016894 0.001113 0.00021821 -0.00065356 -0.019978
0.045793 0.22158 0.001229 -0.014848
0.0023732 0.00088935 0.00074281 0.0017628 0.00028002 0.00013992 -0.00058596 0.00050957
0.0012386 -0.01486 0.058689 0.3246
1340000000 0.22644 0.23095 -0.017895 -0.017107 0.0013884 0.0043222 -0.0017196 -0.00092888
0.0013922 0.0024986 0.0014885 -0.00147
-0.017868 -0.017087 0.048653 0.37319 -0.020706 0.0047599 -0.00014087 0.0020257
0.0019862 0.00069375 0.0013396 0.00064911
0.0014045 0.0043243 -0.020706 0.004841 0.34411 0.11129 0.0013341 -0.00095517
0.00065599 -0.00053037 0.00010973 0.00026992
-0.0017203 -0.00094129 -0.0001307 0.0020239 0.0013393 -0.0009639 0.14878 0.23276
-0.0099038 -0.016674 0.00054636 0.0011538
0.0014002 0.0024926 0.0019925 0.00069093 0.00065329 -0.00054346 -0.0099398 -0.016681
0.075286 0.21528 -0.005071 -0.012771
0.0014764 -0.00148 0.0013457 0.00064966 0.00011394 0.00027027 0.00054233 0.0011623
-0.0050617 -0.012784 0.097502 0.31705
1400000000 0.25853 0.1916 -0.022516 -0.0059029 0.0052945 0.0026964 -0.0021084 0.00055191
0.0022701 0.00078486 0.00013788 -0.0014051
-0.022483 -0.0058897 0.085635 0.35956 -0.013945 0.01233 0.001357 0.0013483
0.0012253 -0.00085727 0.0011206 7.7588e-05
0.0053062 0.0026846 -0.01391 0.01239 0.35672 0.057215 0.00014838 -0.0019656
3.1715e-05 -0.00044102 0.00030677 0.00014308
-0.0021156 0.00056318 0.0013611 0.001342 0.00014518 -0.0019744 0.17696 0.20227
-0.015748 -0.0096118 -0.0004784 0.00048296
0.0022785 0.00077741 0.0012179 -0.00087361 3.2558e-05 -0.00044831 -0.015778 -0.009596
0.10717 0.20896 -0.010844 -0.0075502
0.00013709 -0.0014139 0.0011227 6.4744e-05 0.00030616 0.00014364 -0.00047538 0.00048546
-0.010835 -0.0075668 0.14067 0.30304
1460000000 0.28 0.14702 -0.019135 0.0054375 0.0054627 -0.002201 -0.001607 0.0017136
0.0019347 -0.00051413 -0.00038161 -0.00089736
-0.019115 0.0054175 0.1195 0.33732 -0.0055933 0.014851 0.0018123 0.00016792
0.0008001 -0.0013218 0.0010801 -0.00054445
0.0054627 -0.0022121 -0.0055446 0.014884 0.36152 0.0027785 -0.0014979 -0.00141
0.00013709 -0.00018106 0.0005755 -0.00033942
-0.0016028 0.0017082 0.0018088 0.00016412 -0.0014985 -0.0014159 0.20108 0.17223
-0.016815 -0.002533 -0.00025949 0.0022726
0.0019374 -0.00051611 0.00079539 -0.0013314 0.00013733 -0.00018102 -0.016845 -0.0025044
0.13519 0.19316 -0.011712 -0.0017491
-0.00037829 -0.00089696 0.0010814 -0.00055844 0.00058223 -0.00034432 -0.00025788 0.00228
-0.011709 -0.0017633 0.17253 0.28055
1520000000 0.29141 0.1045 -0.013294 0.01031 0.0029374 -0.0041764 0.0001632 0.0026007
0.0020253 -0.0016228 -0.0010901 -8.0374e-05
-0.013289 0.010291 0.15298 0.32207 0.0016324 0.012613 0.0017086 -0.0009038
-4.3895e-05 -0.0011008 0.00027072 -0.00090818
0.0029232 -0.004183 0.0016893 0.012613 0.35424 -0.053532 -0.0014768 -0.00027918
0.00050118 -0.00086995 -2.1398e-05 -9.4023e-05
0.00016359 0.0026006 0.0017078 -0.0009121 -0.0014781 -0.00027991 0.22235 0.13408
-0.01576 0.0034877 0.0019849 0.0019671
0.0020288 -0.0016359 -5.3346e-05 -0.0011042 0.00050017 -0.00087439 -0.015778 0.0035328
0.16245 0.17767 -0.011237 0.0025848
-0.0010966 -7.7661e-05 0.00026384 -0.00091188 -2.0299e-05 -9.2798e-05 0.0019975 0.0019619
-0.011252 0.0025573 0.20472 0.25768
1580000000 0.29931 0.057842 -0.0070599 0.012713 -0.0011077 -0.0047192 0.0015527 0.0018567
-0.00010107 -0.002096 -0.0002846 0.00040315
-0.0070648 0.012697 0.17997 0.29657 0.0051094 0.0079419 0.00040918 -0.0017402
-0.00060673 -0.0010134 -0.00021267 -0.00079308
-0.0011218 -0.004725 0.0051448 0.0079158 0.33355 -0.11123 -0.0016705 0.0010299
-0.00028558 -0.0010954 0.00017859 -0.0005662
0.001552 0.0018573 0.00039745 -0.0017381 -0.001663 0.0010299 0.23415 0.094931
-0.012139 0.008638 0.0025305 0.0003673
-0.00011979 -0.0021056 -0.00061292 -0.0010046 -0.00029452 -0.0011024 -0.012137 0.0086799
0.18544 0.15826 -0.0087868 0.0076723
-0.00028457 0.00041121 -0.00021727 -0.00079861 0.00017679 -0.00056859 0.0025325 0.00035859
-0.0087945 0.0076557 0.23459 0.22932
1640000000 0.30015 0.016205 -0.00091834 0.011338 -0.0028233 -0.0024856 0.0027217 0.00086537
-0.00070328 -0.0015764 -0.00021313 0.00065096
-0.00092847 0.011335 0.2091 0.2711 0.0056881 0.0034254 -0.00088001 -0.0016792
-0.0010595 -0.0003031 -0.00051903 -0.00059656
-0.0028343 -0.0024743 0.0056974 0.0034052 0.3042 -0.15986 -0.0005058 0.0016368
-0.0011637 -0.0008415 -0.00015672 -0.00019408
0.0027309 0.00085142 -0.00088479 -0.0016735 -0.00051036 0.0016377 0.24464 0.047408
-0.0075713 0.010216 0.0025514 -0.001254
-0.00072904 -0.0015885 -0.001068 -0.0002839 -0.0011635 -0.0008375 -0.0075581 0.010246
0.20667 0.13303 -0.0040614 0.0093394
-0.00021 0.00065508 -0.00052172 -0.00059258 -0.00015656 -0.00019806 0.0025589 -0.0012693
-0.0040687 0.0093296 0.25891 0.19703
1700000000 0.29156 -0.029505 0.0020672 0.0085818 -0.0034712 0.00028557 0.0029464 -0.0013757
-0.0020125 -0.00078062 0.00066891 0.00031058
0.0020608 0.0085802 0.22695 0.23908 0.0038746 0.00060623 -0.0015258 -0.00046187
-0.00074957 0.00022822 -0.0008752 -0.00044559
-0.003466 0.00030669 0.0038755 0.00058452 0.26113 -0.19977 0.00077463 0.0014876
-0.0018795 -6.7137e-05 -0.00059435 -0.00079687
0.0029352 -0.0013869 -0.0015223 -0.00046362 0.00077645 0.0014967 0.24077 -0.00083047
-0.004128 0.010869 0.0013875 -0.0023314
-0.0020179 -0.0007725 -0.00074804 0.00023481 -0.0018792 -7.1838e-05 -0.0041059 0.01088
0.22255 0.11171 0.00044606 0.0094944
0.00067644 0.00030699 -0.00088028 -0.00043793 -0.00059766 -0.00079844 0.001378 -0.0023382
0.00043912 0.0094843 0.27355 0.16151
1760000000 0.2779 -0.077749 0.0039454 0.0054743 -0.0021965 0.00094703 0.00098223 -0.0035189
-0.0014892 0.00063446 0.00045638 -0.00042995
0.0039316 0.0054724 0.25208 0.19846 0.0016321 -0.0013105 -0.0011759 0.00031421
-0.00093247 0.00092396 -0.0006376 0.00048834
-0.0021896 0.00094832 0.0016262 -0.0013282 0.21175 -0.23326 0.0014048 0.00073567
-0.0011683 0.0016077 -0.001387 -0.00023426
0.000968 -0.0035199 -0.0011823 0.00031294 0.0014054 0.0007297 0.23128 -0.050302
-0.0003788 0.01006 -0.000388 -0.0024995
-0.001502 0.00065794 -0.00092058 0.00092778 -0.0011511 0.0016046 -0.00036987 0.010077
0.23553 0.076057 0.0041137 0.0068995
0.00045552 -0.00043663 -0.00063458 0.0004943 -0.0013888 -0.00022549 -0.00039631 -0.0025023
0.004114 0.0068925 0.28435 0.12319
1820000000 0.25203 -0.11442 0.003923 0.0022096 -1.7479e-05 0.0024059 -0.0012701 -0.0028612
-0.001161 0.0010655 -1.0671e-07 -0.00011886
0.003919 0.0022156 0.26143 0.16824 -0.00021872 -0.00016241 -0.0011639 0.0010155
0.00012938 0.001252 -0.00049166 0.00058497
-6.2984e-06 0.002394 -0.00021759 -0.00015968 0.16119 -0.24827 0.0012352 -7.9244e-05
7.1925e-05 0.0022652 -0.0013047 0.00054544
-0.0012799 -0.0028651 -0.0011595 0.0010246 0.0012286 -7.8643e-05 0.20232 -0.095715
0.0016786 0.0080888 -0.0015439 -0.0014656
-0.0011484 0.0010741 0.000136 0.0012433 7.5809e-05 0.0022613 0.0016947 0.0080939
0.25114 0.04654 0.0050077 0.0033751
-4.3435e-06 -0.00011741 -0.00048766 0.00058917 -0.0012994 0.00054613 -0.0015493 -0.0014546
0.0050024 0.0033752 0.28543 0.085771
1880000000 0.21567 -0.15406 0.0016314 0.00025267 -0.000382 0.0021024 -0.0029696 -0.0018245
-0.00022251 0.0018576 0.00022204 -0.00049105
0.0016335 0.00025796 0.26503 0.12122 -0.0024225 0.001603 -0.00010077 0.0016137
0.00060755 0.00099202 0.00018957 0.00097959
-0.00037428 0.0020946 -0.0024179 0.0016068 0.10801 -0.25807 0.0013112 -0.0010693
0.0016941 0.0016319 -0.00074633 0.0013825
-0.0029705 -0.0018154 -9.1828e-05 0.0016063 0.0013161 -0.0010688 0.16316 -0.13588
0.0028841 0.0055218 -0.0022693 0.00015196
-0.00019989 0.0018605 0.0006101 0.00099852 0.0016849 0.0016268 0.0028964 0.0055169
0.2526 0.013408 0.0047636 0.0011805
0.00021217 -0.00049313 0.00019496 0.00098203 -0.00075192 0.0013852 -0.0022869 0.00016249
0.0047626 0.0011815 0.28346 0.051499
1940000000 0.17548 -0.17897 -0.00044707 -0.0011004 0.001531 0.0020373 -0.0035798 0.0007725
0.0015446 0.0010959 -0.00057697 -0.00063029
-0.00045049 -0.0010925 0.26449 0.089768 -0.0012203 0.0040299 0.00090803 0.0011263
0.0016106 0.000345 0.00084811 0.00031876
0.0015346 0.0020264 -0.0012017 0.0040341 0.061826 -0.25067 0.00011574 -0.0016272
0.0022292 0.00019513 0.00037525 0.0015191
-0.0035816 0.00078518 0.00091711 0.0011186 0.00012461 -0.0016317 0.11155 -0.16627
0.0020918 0.0035031 -0.0014424 0.0010389
0.0015524 0.001079 0.0016142 0.00033774 0.0022245 0.00019587 0.0020942 0.0035058
0.25294 -0.025767 0.0037061 -0.0018502
-0.00058969 -0.00062545 0.00084673 0.00031368 0.0003824 0.0015254 -0.0014432 0.0010534
0.0037035 -0.0018506 0.27084 0.014831
2000000000 0.12893 -0.19274 -0.0041292 0.0010578 0.0026646 0.001528 -0.0021578 0.0033048
0.0013607 3.8075e-06 -0.00045791 0.00044109
-0.0041375 0.0010554 0.24996 0.054291 -0.00089621 0.0058164 0.0014908 0.00033683
0.001115 -0.0011848 0.00049181 1.4045e-05
0.0026726 0.001513 -0.00086445 0.0058294 0.018291 -0.23592 -0.00096137 -0.0008659
0.0016709 -0.0011052 0.0016986 0.00096752
-0.0021474 0.0033166 0.0014915 0.00032693 -0.00097001 -0.00086078 0.058714 -0.17732
0.00027415 0.0026334 -0.00032247 0.0020392
0.0013635 -4.9798e-06 0.0010995 -0.0011971 0.0016681 -0.001102 0.00028341 0.0026408
0.24569 -0.060048 0.00031599 -0.0029307
