!Keysight Technologies,M9804A,MY58100912,A.14.10.03
!Date: Thursday, April 27, 2023 10:28:33
!Correction: S11(C  6-Port  ) 
!S12(C  6-Port  ) 
!S13(C  6-Port  ) 
!S14(C  6-Port  ) 
!S15(C  6-Port  ) 
!S16(C  6-Port  ) 
!S21(C  6-Port  ) 
!S22(C  6-Port  ) 
!S23(C  6-Port  ) 
!S24(C  6-Port  ) 
!S25(C  6-Port  ) 
!S26(C  6-Port  ) 
!S31(C  6-Port  ) 
!S32(C  6-Port  ) 
!S33(C  6-Port  ) 
!S34(C  6-Port  ) 
!S35(C  6-Port  ) 
!S36(C  6-Port  ) 
!S41(C  6-Port  ) 
!S42(C  6-Port  ) 
!S43(C  6-Port  ) 
!S44(C  6-Port  ) 
!S45(C  6-Port  ) 
!S46(C  6-Port  ) 
!S51(C  6-Port  ) 
!S52(C  6-Port  ) 
!S53(C  6-Port  ) 
!S54(C  6-Port  ) 
!S55(C  6-Port  ) 
!S56(C  6-Port  ) 
!S61(C  6-Port  ) 
!S62(C  6-Port  ) 
!S63(C  6-Port  ) 
!S64(C  6-Port  ) 
!S65(C  6-Port  ) 
!S66(C  6-Port  ) 
!S6P File: Measurement: :
# Hz S  RI   R 50
500000000 -0.33823 -0.022028 -0.010543 -0.0035509 -0.0082061 0.01281 -0.0038778 0.012025
0.011772 0.0039411 -0.0034668 0.0075542
-0.011203 -0.004009 -0.41868 -0.039389 0.0065234 -0.011593 0.0017005 0.012393
0.0073559 0.0026278 0.0018161 0.013692
-0.0078571 0.012814 0.0069871 -0.01142 -0.26372 0.22062 0.0068656 0.0038316
-0.00084169 0.0079753 0.0017629 0.011706
-0.0029167 0.010759 0.0011872 0.012715 0.0068145 0.0036707 -0.33124 0.058794
-0.020786 -0.0062725 0.015443 0.024719
0.01186 0.0028439 0.0073344 0.0021047 -0.00064174 0.0079721 -0.020604 -0.0063223
-0.23336 -0.16989 -0.025943 0.004968
-0.0036411 0.0064343 0.0014655 0.01373 0.0018159 0.011826 0.015431 0.024733
-0.02577 0.0049102 -0.28309 -0.088582
560000000 -0.31411 0.13635 -0.026273 -0.059995 0.0011685 0.011604 0.00573 0.010225
0.00965 0.0045381 0.010844 0.0079565
-0.025654 -0.059922 -0.37551 0.11578 -0.042557 -0.035618 0.013106 0.004131
-0.011825 -0.0047897 0.0029703 -0.00082238
0.00088659 0.012218 -0.04257 -0.035316 -0.1807 0.26628 -0.00063632 -0.0045249
0.018701 0.0037817 0.0063511 -0.0063091
0.0061346 0.010809 0.013235 0.0038774 -0.00049751 -0.0044269 -0.30606 0.14602
0.0012051 -0.024477 0.0036645 -0.018621
0.010368 0.0046827 -0.013024 -0.0042275 0.019004 0.0041488 0.00075852 -0.02486
-0.28942 0.0029357 0.0058523 -0.047717
0.011964 0.0079252 0.0032476 -0.00026406 0.0064743 -0.0063816 0.0039505 -0.018392
0.0058634 -0.047456 -0.33002 0.05323
620000000 -0.27081 0.12017 -0.023225 0.0075147 0.003989 0.0082702 0.007015 -0.0054946
0.011016 -0.0015472 0.00094418 -0.0023602
-0.023014 0.007664 -0.40143 0.070908 -0.019292 0.00053918 -0.00099512 -0.0017676
0.0099665 -0.0066467 0.0017525 -0.0021245
0.0037886 0.0082113 -0.019168 0.00063252 -0.14983 0.27566 -0.0010481 -0.0047431
-0.0035873 -0.0027631 0.0080418 -0.003261
0.0067431 -0.0051836 -0.0012872 -0.0019705 -0.0011406 -0.0045829 -0.26419 0.15789
-0.039114 -0.017229 0.011408 0.024137
0.010389 -0.0010962 0.010455 -0.0066109 -0.0035453 -0.0029091 -0.03931 -0.017385
-0.21145 -0.035157 -0.037523 0.014866
0.00039896 -0.002554 0.0013282 -0.0027481 0.0077343 -0.0030021 0.011797 0.02451
-0.03783 0.014578 -0.25665 0.021161
680000000 -0.22791 0.20347 -0.027702 -0.012042 0.0053139 0.0047588 0.00098077 -0.0071788
-0.0032413 -0.010681 0.0042196 -0.0067113
-0.0273 -0.012004 -0.38495 0.16591 -0.032025 0.00033445 -0.0011647 -0.00059091
-0.0026815 -0.0091077 -0.0014639 -0.0019352
0.0056719 0.0048268 -0.032117 0.00037602 -0.098604 0.29353 -0.00089023 -0.00031731
-0.001756 3.2673e-05 -0.0033852 -0.0082345
0.0010331 -0.0065423 -0.0012497 -0.00051874 -0.00081523 -0.00022114 -0.21797 0.20663
-0.025641 -0.0048125 -0.0087162 -0.0085567
-0.0033077 -0.010932 -0.0027355 -0.0091315 -0.001368 -0.00017315 -0.025863 -0.0051872
-0.25145 0.064449 -0.0076617 -0.0065189
0.0047527 -0.0064666 -0.0013167 -0.00211 -0.0033866 -0.0082842 -0.0093006 -0.0087839
-0.007453 -0.0061861 -0.2554 0.11938
740000000 -0.18521 0.19834 -0.036946 0.026293 0.012206 -0.0058943 -0.00048606 -0.0039601
-0.0050167 -0.0032779 -0.0053362 0.0029301
-0.036643 0.026113 -0.33315 0.18565 -0.033504 0.0348 -0.00095643 -0.0062879
-0.011673 0.008163 -0.0023093 -0.0050234
0.012322 -0.0055271 -0.032987 0.034849 -0.064977 0.29243 -0.0018303 0.0030336
-0.0032894 -0.0042363 -0.0019122 0.00074434
-0.00035067 -0.0044906 -0.0015055 -0.0061992 -0.001783 0.0030154 -0.19939 0.21476
-0.042566 -0.0030861 0.022573 0.012655
-0.004459 -0.0029888 -0.01127 0.0072945 -0.0035037 -0.0039536 -0.042622 -0.0031819
-0.1572 0.086141 -0.039954 0.0039298
-0.0055118 0.0028408 -0.0027973 -0.0053589 -0.0017512 0.00055534 0.022594 0.0125
-0.03986 0.0043865 -0.24312 0.12849
800000000 -0.15058 0.23504 -0.021099 0.017537 0.0046466 -0.010451 -0.0043863 -0.0017893
-0.003623 0.002429 0.0035539 0.00053253
-0.021518 0.017348 -0.33343 0.25386 -0.0067891 0.033549 -0.0023218 0.0023498
-0.00041147 0.0032534 0.0010464 0.0050056
0.0047006 -0.010466 -0.0067005 0.033556 -0.022589 0.31459 0.0008359 0.0017614
0.00034222 0.0036312 -0.0018105 0.0010689
-0.0047312 -0.001543 -0.002352 0.0023606 0.00090905 0.0016766 -0.16917 0.24122
-0.027025 0.016412 0.012872 -0.00978
-0.0039346 0.0027331 -0.0003472 0.0031526 0.00032585 0.0035493 -0.026956 0.016463
-0.19538 0.11301 -0.015728 0.018429
0.0032094 0.0011597 0.0011888 0.0051788 -0.0016412 0.0012364 0.013015 -0.010031
-0.015931 0.01851 -0.23149 0.17504
860000000 -0.11602 0.25567 -0.015931 0.030716 -0.0036968 -0.0094756 -0.0022904 0.00105
0.0041846 0.0046716 -0.002534 -0.0026735
-0.01586 0.030761 -0.28581 0.29489 0.0090855 0.033168 0.00011571 0.0022877
0.0041369 3.2228e-05 0.0033825 0.00033926
-0.0037957 -0.0094273 0.0091755 0.033063 0.025738 0.32155 -0.00043183 -5.1699e-05
0.0025067 -0.0013227 0.0016927 0.0042006
-0.0019897 0.0011205 0.0001043 0.0023019 -0.00034051 4.0551e-05 -0.1322 0.25198
-0.015606 0.020844 -0.005671 -0.0089939
0.0045957 0.0045948 0.004154 0.00025124 0.0025635 -0.0012178 -0.015545 0.020887
-0.14352 0.15868 -0.021389 0.016112
-0.0028233 -0.0027452 0.0032425 0.00035784 0.0013667 0.0042067 -0.0058864 -0.0087218
-0.021564 0.015741 -0.18116 0.21538
920000000 -0.089723 0.27704 0.0063191 0.036608 -0.0092659 -0.003938 -0.0015396 0.0017944
0.0013007 0.0013564 0.0024559 -0.0017568
0.0060998 0.036648 -0.2558 0.31514 0.02816 0.020271 0.0017571 0.0010119
0.0070382 -0.00059813 0.0036912 -0.002744
-0.0093084 -0.0038538 0.02827 0.020145 0.073049 0.32143 0.0019268 -0.00016509
0.0014354 -0.00052337 0.00085129 -0.00093399
-0.0014704 0.0018049 0.001854 0.0009979 0.0019052 -0.00018657 -0.10651 0.26734
-0.007369 0.030829 0.0027762 -0.0064777
0.0011811 0.001661 0.006941 -0.00070386 0.0015007 -0.00050297 -0.007372 0.030879
-0.13085 0.16431 -0.0002071 0.025909
0.0026499 -0.0014749 0.0039505 -0.0030016 0.0009541 -0.0011426 0.0027883 -0.0063985
-3.0005e-05 0.025995 -0.18255 0.2301
980000000 -0.042448 0.295 0.018404 0.028454 -0.0084407 0.0047563 0.0020748 0.0030217
0.0040755 -0.0017541 -0.0031106 -0.0021771
0.018379 0.02851 -0.20389 0.34766 0.032407 0.0033361 0.0020515 -0.00022826
0.0016559 -0.0060358 -0.00051033 -0.002296
-0.0084044 0.0047734 0.032473 0.0033029 0.11948 0.31346 0.00050652 -0.0013106
0.00017526 -0.0023293 0.0013653 -0.00023523
0.0020579 0.003112 0.0019557 -0.00039156 0.00048206 -0.0013187 -0.067368 0.27639
0.010968 0.028421 -0.0084388 -0.0065883
0.0038976 -0.0017134 0.0017143 -0.0063518 7.5585e-05 -0.0023009 0.011013 0.028337
-0.097841 0.18842 0.0063284 0.017802
-0.0033295 -0.0023081 -0.00078565 -0.0022906 0.0013887 -0.0002362 -0.0085893 -0.0066444
0.0062542 0.01769 -0.13888 0.26911
1040000000 -9.5143e-06 0.30205 0.032922 0.015907 -0.0010812 0.006575 0.0023785 0.00049226
0.00016748 -0.0033403 -0.00080618 -0.0015105
0.032875 0.015884 -0.16815 0.36091 0.027823 -0.01558 0.0013876 -0.0017552
-0.0023951 -0.0025108 -0.0015944 -0.0026539
-0.0010021 0.0065652 0.027733 -0.015624 0.16608 0.29893 -0.00057354 -0.0014965
-0.0016212 -0.00097693 -0.00055895 -0.0010318
0.0023431 0.00056513 0.0014681 -0.0018068 -0.00060104 -0.0015162 -0.039164 0.28554
0.020911 0.015695 -0.0026599 0.001109
-9.7784e-05 -0.0032502 -0.0024359 -0.0025255 -0.0016371 -0.00099487 0.020967 0.015616
-0.065654 0.19497 0.013658 0.01558
-0.00079055 -0.0013849 -0.0014356 -0.0026923 -0.0005036 -0.0010472 -0.0026682 0.0011404
0.013542 0.01566 -0.11441 0.28877
1100000000 0.045848 0.30833 0.034467 -0.0056902 0.0027244 0.003595 0.0021127 -0.0010165
-0.0018608 -0.0028245 -0.0035202 0.00047979
0.034472 -0.0056455 -0.12462 0.37708 0.01359 -0.027495 -0.00013877 -0.0017717
-0.0032956 -0.00062728 -0.003245 -0.00022886
0.0027281 0.0035494 0.013529 -0.027513 0.21269 0.27679 -0.0018593 0.00020184
-0.001872 0.0005649 -0.0010675 -0.00020135
0.0022332 -0.00089913 -0.00019212 -0.0018107 -0.001846 0.0001945 0.0019453 0.28843
0.024754 0.0025379 -0.002581 0.00023195
-0.0019024 -0.0028245 -0.003327 -0.00059302 -0.0018615 0.00058782 0.024739 0.0025087
-0.047297 0.20661 0.018382 0.0065613
-0.0034469 0.00046136 -0.0033842 -0.00034537 -0.00099863 -0.00020163 -0.002656 0.00017845
0.018492 0.0064466 -0.067139 0.31365
1160000000 0.096562 0.30207 0.022104 -0.0214 0.0022865 -0.00042547 -2.739e-05 -0.0019792
-0.003882 -0.00056589 -0.00080959 0.0038858
0.022102 -0.021371 -0.080624 0.38086 -0.0047685 -0.028061 -0.0016749 -0.0015256
-0.0025441 0.0025657 -0.0013556 0.0016089
0.0022679 -0.00045622 -0.0048637 -0.028033 0.25503 0.24449 -0.00081388 0.0017941
-0.00046972 0.001919 -0.00078755 0.00010002
-2.7706e-05 -0.0020908 -0.0016054 -0.0014725 -0.00080389 0.0018002 0.04117 0.28378
0.020137 -0.012541 -0.0030857 0.0044395
-0.0038534 -0.00047896 -0.0026046 0.0025455 -0.00046439 0.0019279 0.020113 -0.012542
-0.01409 0.21313 0.016801 -0.0016326
-0.00070559 0.0038614 -0.0012491 0.0017115 -0.00085465 0.00011433 -0.0031761 0.0043787
0.016779 -0.001577 -0.02005 0.3137
1220000000 0.14136 0.28936 0.0084368 -0.029448 -0.0016274 -0.00035723 0.00019289 -0.00095988
-0.0023498 0.0022379 0.0012368 0.0017826
0.0084836 -0.029391 -0.036281 0.39176 -0.017062 -0.01976 -0.0023644 0.00046067
0.00010585 0.0029338 -0.00054038 0.0018924
-0.0016535 -0.00035651 -0.017131 -0.019735 0.29372 0.20428 0.00082903 0.0018602
0.0006835 0.001262 0.00044232 0.0005956
0.00011546 -0.00090795 -0.0024037 0.00049626 0.00082363 0.0018637 0.081323 0.27325
0.0093462 -0.018572 0.001501 0.0013428
-0.0023868 0.0022308 0.00016512 0.0029307 0.00070998 0.0012812 0.0093195 -0.018599
0.0099509 0.2201 0.011738 -0.013303
0.0013098 0.0018514 -0.00053604 0.0019192 0.00041604 0.00061194 0.001584 0.0013566
0.011761 -0.013297 0.012852 0.3263
1280000000 0.19007 0.2658 -0.0090378 -0.026966 -0.0015308 0.0029022 -0.00097998 -0.0019858
-0.00062573 0.002823 0.0023461 0.00088412
-0.0090207 -0.02696 0.0093697 0.38211 -0.023173 -0.0075134 -0.001053 0.0014006
0.0017369 0.0016969 0.00073077 0.0017491
-0.0015507 0.0029042 -0.023226 -0.007456 0.32309 0.15929 0.0016393 5.6665e-05
0.001114 0.00018854 0.0002224 0.00015433
-0.00094347 -0.0019549 -0.0010545 0.0014144 0.0016094 3.339e-05 0.11729 0.25456
-0.00059305 -0.019964 -0.00056916 0.0004752
-0.00058724 0.0028232 0.0016938 0.0017107 0.0010874 0.00018038 -0.00061305 -0.020024
0.04577 0.22162 0.0011653 -0.014804
0.0023959 0.00086591 0.00074815 0.0017766 0.00030249 0.00015212 -0.000611 0.00052208
0.0011705 -0.014732 0.059039 0.32483
1340000000 0.22642 0.23101 -0.017959 -0.017087 0.0013685 0.0043207 -0.0017309 -0.0009113
0.0013587 0.0025212 0.0014397 -0.0015248
-0.017951 -0.017103 0.0487 0.37324 -0.020693 0.0047565 -0.00013973 0.0020209
0.0019557 0.00072702 0.0013174 0.00064125
0.0014211 0.0043195 -0.020681 0.0048472 0.34413 0.11125 0.001343 -0.00096086
0.00063799 -0.00053927 6.2957e-05 0.00023432
-0.0017456 -0.00093 -0.00014744 0.0020096 0.0013571 -0.00098186 0.14877 0.2327
-0.0098499 -0.01668 0.00058957 0.0011341
0.0013775 0.0025082 0.002035 0.00067217 0.0006212 -0.00050644 -0.0099042 -0.0167
0.075329 0.21525 -0.0051977 -0.012674
0.001496 -0.0014318 0.0012655 0.00063947 9.5044e-05 0.00023742 0.00058211 0.0011719
-0.0051712 -0.012683 0.097482 0.3171
1400000000 0.25851 0.19152 -0.022601 -0.0058524 0.0052753 0.0027293 -0.0021514 0.00055744
0.0022891 0.00079088 0.0001734 -0.0014172
-0.022591 -0.0058803 0.085641 0.35956 -0.013916 0.012297 0.0013507 0.0013594
0.0012315 -0.00086202 0.0011186 7.7921e-05
0.0053076 0.0026485 -0.013889 0.012378 0.35672 0.057224 0.00013091 -0.0019586
4.8295e-05 -0.00045703 0.00028176 0.00018921
-0.0021043 0.00063386 0.0013745 0.0013477 0.00015758 -0.0019607 0.17692 0.20225
-0.015792 -0.0096426 -0.0004709 0.00049751
0.0023102 0.00083883 0.0012349 -0.00089708 -1.2267e-05 -0.00042713 -0.01582 -0.0095782
0.1072 0.20897 -0.010846 -0.0075996
0.00011839 -0.0013537 0.0011489 4.0153e-05 0.00031632 0.00017186 -0.00046959 0.00047655
-0.01087 -0.0075553 0.14059 0.30301
1460000000 0.28008 0.14705 -0.01916 0.0055533 0.0054904 -0.0021879 -0.0015954 0.0017067
0.0019264 -0.00049984 -0.0003249 -0.00090402
-0.01915 0.0055219 0.11959 0.33732 -0.0056002 0.014804 0.0018355 0.00015211
0.00079995 -0.0013243 0.0010928 -0.00054688
0.0054729 -0.0022642 -0.0055448 0.014861 0.36155 0.0027066 -0.0014832 -0.0014616
0.00014349 -0.00017922 0.00059955 -0.00034434
-0.001676 0.0017137 0.0018109 0.00016419 -0.0014812 -0.0014156 0.20105 0.17223
-0.016845 -0.0025496 -0.00033108 0.0022603
0.0018607 -0.00045963 0.0007977 -0.0012702 0.00012433 -0.00016615 -0.016882 -0.0025218
0.13526 0.19313 -0.011706 -0.0016736
-0.00033749 -0.00084831 0.0010083 -0.00065979 0.00060974 -0.00029541 -0.00029623 0.0022708
-0.011687 -0.0017397 0.17255 0.28037
1520000000 0.2914 0.10448 -0.013257 0.010387 0.002942 -0.0041872 0.00018913 0.0026107
0.0020559 -0.0016269 -0.0010939 -4.4792e-05
-0.013257 0.010407 0.15302 0.322 0.0016455 0.012612 0.0017233 -0.00091363
-4.8951e-05 -0.0011172 0.00027898 -0.00092456
0.0029362 -0.0041975 0.0016573 0.012613 0.35428 -0.053553 -0.001457 -0.00027881
0.00050857 -0.00086578 -1.6604e-05 -9.8482e-05
0.00017046 0.0025453 0.001679 -0.00091049 -0.0014808 -0.0002651 0.2223 0.13409
-0.015785 0.0034988 0.0019939 0.0018908
0.0019929 -0.0016524 -4.8649e-05 -0.0010904 0.00052689 -0.00085517 -0.015799 0.0035206
0.16241 0.17762 -0.011226 0.0025942
-0.0011057 -0.00013397 0.00025762 -0.00092382 -4.4864e-05 -7.8418e-05 0.0020136 0.001923
-0.011236 0.0026333 0.20484 0.25776
1580000000 0.29936 0.057767 -0.0069639 0.012768 -0.0011175 -0.0047296 0.001552 0.0018815
-0.00012424 -0.0020837 -0.00027569 0.00041099
-0.0069905 0.012772 0.17995 0.29651 0.0050938 0.0079113 0.00040051 -0.0017443
-0.00059562 -0.00099095 -0.00020009 -0.00081709
-0.0011434 -0.0047005 0.0051198 0.0078899 0.33355 -0.1112 -0.0016658 0.001042
-0.0002973 -0.0011026 0.00016498 -0.00052262
0.0015446 0.0018207 0.00042299 -0.0017621 -0.0016624 0.001026 0.23413 0.094954
-0.012179 0.0086768 0.002549 0.0004188
-0.00011086 -0.0021271 -0.00061315 -0.00098536 -0.00028761 -0.0010829 -0.012184 0.0087332
0.18538 0.15814 -0.0088074 0.0076608
-0.00033519 0.00037776 -0.00015492 -0.00081234 0.00017917 -0.00055535 0.0025555 0.00036508
-0.0087871 0.0076912 0.23447 0.22937
1640000000 0.30016 0.016114 -0.00084202 0.011357 -0.0028767 -0.0025061 0.0027086 0.00085135
-0.0006967 -0.0015898 -0.0002715 0.00068389
-0.00084319 0.011338 0.20907 0.27106 0.005648 0.003432 -0.00088795 -0.001692
-0.0010542 -0.00028695 -0.00052378 -0.00059597
-0.0028244 -0.0024771 0.005681 0.0033957 0.3042 -0.15987 -0.00049953 0.0016292
-0.001156 -0.0008595 -0.00019845 -0.00022283
0.0027938 0.00085984 -0.00087163 -0.00169 -0.00052466 0.001656 0.24463 0.047429
-0.00757 0.010237 0.0025899 -0.0012568
-0.00067513 -0.0015334 -0.0010287 -0.00027312 -0.001131 -0.00084887 -0.0075417 0.010262
0.20658 0.13296 -0.0039747 0.0093649
-0.00020718 0.00059992 -0.00055062 -0.00061378 -0.00020056 -0.00025116 0.0025738 -0.0012099
-0.0040406 0.0093541 0.25882 0.19709
1700000000 0.29153 -0.029491 0.0021491 0.0085507 -0.0034635 0.00023116 0.0029753 -0.0014015
-0.0020095 -0.00082025 0.00071667 0.00030684
0.0021234 0.0085371 0.22687 0.23909 0.0038597 0.00057222 -0.0015282 -0.00046227
-0.00072416 0.00021456 -0.00084102 -0.00044784
-0.0035159 0.00031462 0.0038901 0.00064071 0.2611 -0.1999 0.00081531 0.0014659
-0.0018943 -6.4299e-05 -0.00058475 -0.00076199
0.0028576 -0.0013785 -0.0015145 -0.00045412 0.00079347 0.0014728 0.24074 -0.00078064
-0.0040854 0.010876 0.0013447 -0.002304
-0.0020714 -0.00078302 -0.00071609 0.00020567 -0.0018529 -7.2764e-05 -0.0040726 0.010878
0.22249 0.11172 0.0004859 0.0094833
0.00069911 0.00039477 -0.00089599 -0.00041877 -0.00061553 -0.00075194 0.0013896 -0.0023449
0.0005007 0.0094941 0.27348 0.16144
1760000000 0.27791 -0.077705 0.003968 0.005383 -0.0022693 0.00093485 0.0009992 -0.0035166
-0.001477 0.00067598 0.00049651 -0.00041661
0.0039775 0.0053819 0.25204 0.19852 0.0016237 -0.0013072 -0.0011764 0.00033584
-0.00094247 0.00095386 -0.00065643 0.00049882
-0.0022277 0.00092264 0.0015986 -0.0012896 0.21179 -0.23323 0.0013909 0.00071168
-0.0011467 0.0016158 -0.0014432 -0.00023982
0.0010225 -0.0034427 -0.0012157 0.00030769 0.0013623 0.00073657 0.23133 -0.050221
-0.00036337 0.010092 -0.0003734 -0.0024604
-0.0014292 0.0006876 -0.00097924 0.00092038 -0.00113 0.0016248 -0.00033453 0.010111
0.23544 0.076152 0.0040758 0.0069538
0.00050946 -0.00042188 -0.00065039 0.00049255 -0.0013948 -0.0003012 -0.00041705 -0.0024755
0.0041008 0.0069284 0.28436 0.12316
1820000000 0.25205 -0.11431 0.0039214 0.0021422 -2.9413e-05 0.0023856 -0.0012532 -0.0028681
-0.001149 0.0010837 -4.8409e-05 -0.00010682
0.0039179 0.0021824 0.26139 0.16828 -0.00023289 -0.00016459 -0.00117 0.0010354
0.0001059 0.0012478 -0.00049187 0.00055073
1.5112e-05 0.0024386 -0.00026137 -0.00016506 0.16109 -0.24828 0.0012511 -7.1088e-05
3.7383e-05 0.0022653 -0.0012614 0.00050018
-0.001298 -0.0029189 -0.0011274 0.0010202 0.0012653 -4.5968e-05 0.20234 -0.095699
0.0017228 0.0080724 -0.0015422 -0.001443
-0.001183 0.001073 0.00014869 0.001255 8.0993e-05 0.0022454 0.0017316 0.0080977
0.25112 0.046602 0.0049952 0.0033913
-6.0252e-05 -9.885e-05 -0.00046071 0.00054223 -0.001277 0.00052178 -0.0015233 -0.0014653
0.0050084 0.0033774 0.2853 0.08577
1880000000 0.2157 -0.15404 0.001617 0.00016509 -0.00037184 0.0021712 -0.00296 -0.0018665
-0.00023152 0.0018433 0.00022105 -0.00047076
0.0016229 0.00016115 0.26505 0.12127 -0.0024183 0.0015878 -0.00011631 0.0015712
0.00060941 0.0009827 0.00018829 0.00098777
-0.00037198 0.0020851 -0.0024104 0.0016127 0.10806 -0.25804 0.0013033 -0.0010838
0.0017083 0.0016144 -0.00074561 0.0013893
-0.0029861 -0.0018355 -0.00011334 0.0016243 0.0013172 -0.0010776 0.16325 -0.13585
0.002914 0.0055057 -0.0023015 0.00018768
-0.0001784 0.0018183 0.00060002 0.00098228 0.0017199 0.0016351 0.0029217 0.0054832
0.25256 0.01346 0.0047744 0.001156
0.00022861 -0.0004427 0.00016477 0.00098282 -0.00068898 0.0013722 -0.0022872 0.0001848
0.0047327 0.001157 0.28332 0.051511
1940000000 0.1756 -0.17884 -0.00052635 -0.0011279 0.0015539 0.0020394 -0.0035292 0.00071782
0.0015632 0.0011446 -0.00062379 -0.0005711
-0.00049152 -0.0011081 0.26451 0.089784 -0.0012454 0.0040304 0.00094224 0.0011238
0.001601 0.00039455 0.00079544 0.00031422
0.0015903 0.0019869 -0.0012585 0.0040778 0.061771 -0.25076 0.00013618 -0.0016209
0.0021801 0.00021449 0.00031935 0.0014708
-0.0034506 0.00087593 0.00084886 0.0011007 0.00014988 -0.0016233 0.11159 -0.16634
0.0021296 0.0034713 -0.0014121 0.0010552
0.001541 0.0012024 0.0015597 0.00031616 0.0021989 0.00020287 0.0021142 0.0034484
0.253 -0.025696 0.0037048 -0.001845
-0.000588 -0.00074645 0.00077457 0.00032589 0.00037915 0.0014633 -0.0013734 0.0011067
0.0037225 -0.0018679 0.27074 0.014897
2000000000 0.12898 -0.19272 -0.0041889 0.0010653 0.0026445 0.0014974 -0.0021475 0.003309
0.0013511 -1.4621e-05 -0.00042323 0.00051319
-0.0041945 0.0010777 0.24994 0.054291 -0.00085482 0.0057863 0.0014671 0.00036403
0.0010943 -0.0011901 0.00049003 3.3597e-05
0.002727 0.0015555 -0.00087269 0.0058159 0.018379 -0.23592 -0.0009962 -0.00090226
0.001628 -0.0011097 0.0016533 0.00088795
-0.0021756 0.0035088 0.0014467 0.00042558 -0.00095966 -0.00080627 0.058733 -0.17739
0.00031765 0.0026423 -0.00038019 0.0020579
0.0013116 3.6734e-05 0.0010675 -0.0011437 0.0016357 -0.0011132 0.00027363 0.0026121
0.24578 -0.060052 0.00034365 -0.0029716
