!Keysight Technologies,M9804A,MY58100912,A.14.10.03
!Date: Thursday, April 27, 2023 10:28:33
!Correction: S11(C  6-Port  ) 
!S12(C  6-Port  ) 
!S13(C  6-Port  ) 
!S14(C  6-Port  ) 
!S15(C  6-Port  ) 
!S16(C  6-Port  ) 
!S21(C  6-Port  ) 
!S22(C  6-Port  ) 
!S23(C  6-Port  ) 
!S24(C  6-Port  ) 
!S25(C  6-Port  ) 
!S26(C  6-Port  ) 
!S31(C  6-Port  ) 
!S32(C  6-Port  ) 
!S33(C  6-Port  ) 
!S34(C  6-Port  ) 
!S35(C  6-Port  ) 
!S36(C  6-Port  ) 
!S41(C  6-Port  ) 
!S42(C  6-Port  ) 
!S43(C  6-Port  ) 
!S44(C  6-Port  ) 
!S45(C  6-Port  ) 
!S46(C  6-Port  ) 
!S51(C  6-Port  ) 
!S52(C  6-Port  ) 
!S53(C  6-Port  ) 
!S54(C  6-Port  ) 
!S55(C  6-Port  ) 
!S56(C  6-Port  ) 
!S61(C  6-Port  ) 
!S62(C  6-Port  ) 
!S63(C  6-Port  ) 
!S64(C  6-Port  ) 
!S65(C  6-Port  ) 
!S66(C  6-Port  ) 
!S6P File: Measurement: :
# Hz S  RI   R 50
500000000 -0.3392 -0.0213 -0.011311 -0.0033143 -0.0081523 0.012825 -0.0035312 0.012107
0.011961 0.0036751 -0.0032641 0.008109
-0.011291 -0.0033121 -0.41914 -0.039286 0.006413 -0.011475 0.0016329 0.012836
0.007461 0.0023505 0.0016718 0.014328
-0.00814 0.012828 0.0063885 -0.011486 -0.26363 0.2206 0.0070076 0.0040148
-0.00083723 0.0078568 0.0019362 0.012283
-0.0035186 0.012104 0.0016563 0.012848 0.0070067 0.0040179 -0.33141 0.059291
-0.02025 -0.0064961 0.014849 0.025268
0.011966 0.0036579 0.007472 0.0023276 -0.00083169 0.0078609 -0.020269 -0.0064855
-0.23407 -0.16919 -0.025324 0.004434
-0.0032617 0.0081168 0.0016886 0.014344 0.0019428 0.012278 0.014861 0.025266
-0.025321 0.0044318 -0.28371 -0.088205
560000000 -0.31355 0.13497 -0.026337 -0.060541 0.0012535 0.011884 0.005555 0.0098774
0.0097656 0.0042831 0.010424 0.0077354
-0.026271 -0.060498 -0.37594 0.1161 -0.042282 -0.03527 0.013126 0.0039954
-0.012118 -0.004395 0.0030427 -0.00098569
0.0012853 0.011867 -0.042382 -0.035217 -0.18119 0.26642 -0.00036603 -0.0045792
0.018585 0.0039682 0.0064428 -0.0062626
0.0055547 0.0098557 0.013143 0.0039997 -0.00036882 -0.0045774 -0.3065 0.14611
0.00080657 -0.023655 0.0033931 -0.019175
0.0097838 0.0042879 -0.012143 -0.004392 0.018603 0.0039725 0.00079424 -0.023671
-0.28808 0.0039611 0.0047723 -0.047003
0.01045 0.0077144 0.0030114 -0.0009903 0.0064421 -0.0062637 0.0033977 -0.019188
0.0047762 -0.047001 -0.33025 0.051336
620000000 -0.27147 0.121 -0.023437 0.0075585 0.003982 0.0082768 0.0072594 -0.0054446
0.010862 -0.0013557 0.00069938 -0.0025257
-0.023413 0.0075473 -0.40149 0.071124 -0.019286 0.00060496 -0.0010942 -0.0019237
0.010309 -0.0066472 0.0015154 -0.0021447
0.0039979 0.0082739 -0.019311 0.00064594 -0.14992 0.27566 -0.0009192 -0.0046439
-0.0036795 -0.0027706 0.0081796 -0.0028548
0.0072506 -0.005466 -0.0010976 -0.0019115 -0.00092479 -0.0046398 -0.26394 0.15812
-0.039753 -0.017499 0.011829 0.024196
0.01087 -0.001378 0.01031 -0.0066771 -0.003673 -0.0027765 -0.039795 -0.017477
-0.21057 -0.034109 -0.038537 0.014674
0.00070524 -0.0025315 0.0015137 -0.0021577 0.0081842 -0.0028531 0.011845 0.024204
-0.038537 0.014648 -0.25608 0.022195
680000000 -0.22819 0.20337 -0.027679 -0.01217 0.0053588 0.0046369 0.0011307 -0.0069358
-0.0030579 -0.010852 0.0042845 -0.0067482
-0.027665 -0.012174 -0.38489 0.16594 -0.032075 0.00035492 -0.0012593 -0.00047337
-0.0025943 -0.0090125 -0.0013922 -0.002042
0.0053693 0.0046408 -0.032096 0.00042213 -0.09874 0.29363 -0.00091189 -0.00034047
-0.0016647 0.00017755 -0.0032441 -0.0086321
0.001121 -0.0069404 -0.0012594 -0.00047108 -0.00090904 -0.00033767 -0.21737 0.20671
-0.025786 -0.0051722 -0.0092842 -0.0086211
-0.0030812 -0.010859 -0.0026215 -0.0090055 -0.0016505 0.00017638 -0.025819 -0.0051665
-0.25191 0.064051 -0.006658 -0.0064981
0.0042656 -0.0067464 -0.0013888 -0.0020423 -0.0032501 -0.0086365 -0.0092748 -0.0086336
-0.0066542 -0.006499 -0.25471 0.11875
740000000 -0.18463 0.19795 -0.036777 0.026385 0.012195 -0.005725 -0.0004387 -0.0040394
-0.0047329 -0.0030628 -0.005396 0.0031278
-0.036763 0.026348 -0.33279 0.18551 -0.033192 0.034883 -0.0011139 -0.0063233
-0.011329 0.0078595 -0.0022646 -0.0055617
0.012195 -0.005727 -0.033134 0.034956 -0.06496 0.29261 -0.0017984 0.0030729
-0.0031384 -0.0040739 -0.0017466 0.00080046
-0.00045376 -0.0040461 -0.0011266 -0.0063135 -0.0017997 0.0030692 -0.1993 0.21496
-0.042686 -0.0035755 0.022456 0.012899
-0.0047455 -0.003058 -0.011333 0.0079244 -0.0031472 -0.0040767 -0.042723 -0.0035305
-0.15739 0.086593 -0.039242 0.0034474
-0.0054031 0.0031423 -0.0022641 -0.0055548 -0.001755 0.00080158 0.022473 0.012898
-0.039231 0.0034261 -0.24344 0.12858
800000000 -0.15073 0.2355 -0.021217 0.017474 0.0045583 -0.010423 -0.0044424 -0.0017967
-0.0033907 0.0024956 0.0034755 0.00049303
-0.021219 0.017443 -0.33354 0.25401 -0.0067328 0.033486 -0.0023339 0.0023157
-0.00044463 0.0031793 0.001029 0.0051353
0.004535 -0.010431 -0.0066638 0.033514 -0.022573 0.31455 0.00083773 0.0017291
0.00036656 0.0035391 -0.0018096 0.0011792
-0.004433 -0.0017947 -0.0023345 0.0023086 0.00084124 0.0017314 -0.16927 0.24117
-0.026907 0.01652 0.012763 -0.010088
-0.0033833 0.0025055 -0.00043616 0.0031847 0.00036905 0.0035334 -0.026903 0.016592
-0.19561 0.11241 -0.015945 0.018669
0.003467 0.00047479 0.0010458 0.0051305 -0.0018144 0.0011852 0.01277 -0.01011
-0.015954 0.018652 -0.23146 0.17507
860000000 -0.11614 0.25551 -0.015851 0.030795 -0.0037644 -0.0094654 -0.0022584 0.0011509
0.0042517 0.0046808 -0.0028684 -0.0027561
-0.015858 0.030768 -0.28604 0.295 0.0090644 0.03311 0.00018536 0.0022907
0.0041706 0.00014004 0.0031723 0.00046883
-0.0037838 -0.009451 0.009144 0.033108 0.025773 0.3215 -0.00040247 -3.6849e-05
0.0024856 -0.0013047 0.0016243 0.0041358
-0.0022578 0.0011544 0.00018145 0.0022835 -0.00040331 -3.4598e-05 -0.13236 0.2518
-0.015393 0.020757 -0.0055417 -0.0088582
0.004278 0.0046748 0.0041736 0.00012138 0.0024834 -0.0013122 -0.015377 0.020807
-0.14348 0.15863 -0.022047 0.01622
-0.0028786 -0.0027495 0.0031738 0.00047035 0.0016243 0.004136 -0.0055475 -0.0088556
-0.022043 0.016203 -0.18162 0.21549
920000000 -0.089598 0.27711 0.0061989 0.03667 -0.0092788 -0.0038686 -0.0015162 0.0018107
0.0011638 0.0013079 0.002502 -0.0016757
0.0061865 0.036641 -0.25581 0.31527 0.02811 0.020292 0.0017266 0.0010123
0.0068956 -0.00074795 0.0036999 -0.0028536
-0.0092898 -0.003851 0.028193 0.020235 0.072982 0.32145 0.0019364 -0.00015268
0.0014658 -0.0005728 0.00084516 -0.001072
-0.0015131 0.0018117 0.0017233 0.0010039 0.0019311 -0.00015479 -0.10643 0.26732
-0.0073921 0.030906 0.0028003 -0.0063223
0.0011741 0.0013127 0.0069001 -0.00078979 0.0014745 -0.00057911 -0.0073554 0.030942
-0.13068 0.16408 2.5258e-05 0.025843
0.0025066 -0.0016877 0.0036952 -0.0028611 0.00084095 -0.001075 0.0027983 -0.0063261
1.1117e-05 0.025829 -0.18251 0.23016
980000000 -0.042546 0.29489 0.018418 0.028461 -0.0083842 0.0047739 0.0019936 0.0030428
0.0039829 -0.0018675 -0.0031788 -0.0021593
0.018393 0.028454 -0.20393 0.34772 0.032382 0.0033618 0.0020467 -0.00033221
0.001648 -0.0061337 -0.00054899 -0.0023573
-0.0083766 0.0047886 0.032434 0.0032893 0.1195 0.31344 0.00047954 -0.0013016
0.00014922 -0.0023272 0.0013929 -0.00026337
0.0020015 0.0030505 0.0020425 -0.00035647 0.00048185 -0.0012995 -0.067335 0.27655
0.01098 0.028428 -0.0085467 -0.0065576
0.0039804 -0.0018663 0.0016322 -0.0061768 0.00014985 -0.0023322 0.011046 0.028427
-0.097849 0.18832 0.0062268 0.017988
-0.0031805 -0.0021511 -0.0005711 -0.0023505 0.0013892 -0.00026776 -0.0085488 -0.006542
0.0062068 0.017984 -0.13852 0.26909
1040000000 0.00027385 0.30208 0.032905 0.015861 -0.0010376 0.0065751 0.0023491 0.00055071
0.00014009 -0.0032861 -0.00081292 -0.0013012
0.032859 0.015856 -0.16808 0.36082 0.027772 -0.015533 0.001469 -0.0017703
-0.0023862 -0.0024502 -0.001451 -0.0027093
-0.0010372 0.0065715 0.027767 -0.015625 0.16601 0.29892 -0.00057412 -0.0014843
-0.0016147 -0.0009166 -0.00045929 -0.0010347
0.002355 0.00056108 0.0014542 -0.0017817 -0.00057797 -0.0014819 -0.039215 0.28554
0.020849 0.015639 -0.0026915 0.0010727
0.00013455 -0.0032722 -0.0024013 -0.0024719 -0.0016082 -0.00091853 0.020901 0.015605
-0.065844 0.1949 0.013685 0.015855
-0.00080052 -0.0013054 -0.0014708 -0.0026872 -0.00046743 -0.0010391 -0.0026898 0.001079
0.013665 0.015848 -0.11393 0.28908
1100000000 0.045819 0.30826 0.034425 -0.0057087 0.0027468 0.0035662 0.0021396 -0.00099986
-0.0018924 -0.0027345 -0.0035447 0.00048041
0.034392 -0.005687 -0.1245 0.37704 0.013626 -0.027474 -0.00013001 -0.0017868
-0.0033204 -0.00058345 -0.0033311 -0.0002659
0.0027529 0.0035581 0.013559 -0.027543 0.21267 0.27681 -0.0018588 0.00017961
-0.0018562 0.0005396 -0.00099951 -0.00021546
0.0021376 -0.0010001 -0.00013838 -0.0017875 -0.0018653 0.00018227 0.0019845 0.28842
0.024723 0.0025485 -0.0026576 0.00021272
-0.0019043 -0.0027211 -0.0033222 -0.00058296 -0.0018518 0.0005422 0.024741 0.0025177
-0.047241 0.20668 0.018321 0.0064062
-0.0035395 0.00049164 -0.003329 -0.00024397 -0.0009995 -0.00021472 -0.0026577 0.00022495
0.018309 0.0064096 -0.067186 0.31339
1160000000 0.096544 0.30207 0.02209 -0.021354 0.0023018 -0.0004226 -6.3117e-05 -0.0020484
-0.0038284 -0.00049352 -0.00072455 0.0038182
0.022084 -0.021334 -0.080516 0.38077 -0.0047683 -0.028058 -0.0016339 -0.0014964
-0.0025669 0.0025778 -0.0013441 0.0016543
0.0022875 -0.00044255 -0.0048513 -0.02806 0.25498 0.2445 -0.00081216 0.001801
-0.00046419 0.0019306 -0.00082286 0.00015255
-6.9296e-05 -0.002044 -0.0016447 -0.0014984 -0.00081605 0.0018033 0.04121 0.28368
0.020196 -0.012496 -0.0029886 0.0044048
-0.0038505 -0.00047778 -0.0025556 0.002576 -0.0004684 0.0019288 0.020184 -0.012534
-0.013899 0.21325 0.016903 -0.001593
-0.00069405 0.0038306 -0.0013469 0.0016743 -0.00081707 0.0001489 -0.0029871 0.0044219
0.016893 -0.0016023 -0.020259 0.31372
1220000000 0.14129 0.28929 0.0084373 -0.029373 -0.0016332 -0.00036209 0.00014325 -0.00096278
-0.0023285 0.0022791 0.0012368 0.0018012
0.008454 -0.029341 -0.03624 0.39171 -0.017061 -0.019783 -0.002414 0.00045535
9.9867e-05 0.0029118 -0.00055808 0.001902
-0.0016387 -0.00034916 -0.017135 -0.01973 0.29367 0.20431 0.00079572 0.0018448
0.00069235 0.0012787 0.00042545 0.00056231
0.00013943 -0.00095145 -0.0024098 0.00045673 0.00079047 0.0018484 0.081337 0.27338
0.0092856 -0.018521 0.0015123 0.0013492
-0.002324 0.0022945 0.00011866 0.0029146 0.00069667 0.0012809 0.0092691 -0.018551
0.009988 0.22005 0.011706 -0.013344
0.0012474 0.0017957 -0.0005505 0.0019047 0.00042848 0.00056073 0.0015058 0.0013559
0.011701 -0.013345 0.012724 0.32635
1280000000 0.18995 0.26575 -0.0089715 -0.02691 -0.0015227 0.0028932 -0.00099501 -0.001988
-0.00066426 0.0028683 0.002375 0.00089983
-0.0089329 -0.02688 0.0093896 0.38201 -0.023172 -0.0075407 -0.0010548 0.0013931
0.0017241 0.0016943 0.00073043 0.0017669
-0.001512 0.0029023 -0.023222 -0.0074574 0.32307 0.15931 0.0016411 3.4713e-05
0.0011163 0.00021801 0.00028085 0.00013734
-0.00098846 -0.0019834 -0.0010579 0.001397 0.0016403 4.2085e-05 0.11726 0.25457
-0.00061847 -0.019965 -0.00057704 0.00050771
-0.00064865 0.002878 0.0017254 0.001692 0.0011091 0.00021241 -0.00066217 -0.019984
0.045841 0.22158 0.0012253 -0.014851
0.0023764 0.00089532 0.00073667 0.0017623 0.00028135 0.00013595 -0.00057491 0.00051222
0.0012244 -0.014846 0.058767 0.32461
1340000000 0.22643 0.23101 -0.017881 -0.017117 0.0013968 0.0043189 -0.0017171 -0.00093531
0.0013996 0.0024875 0.0014753 -0.0014655
-0.017853 -0.017107 0.048645 0.37319 -0.020692 0.0047545 -0.00013627 0.0020258
0.0019826 0.00069647 0.0013419 0.00064908
0.0014059 0.0043105 -0.020691 0.0048446 0.34412 0.11131 0.0013334 -0.00096327
0.00066192 -0.00053535 0.00011145 0.00026931
-0.0017175 -0.0009266 -0.00013069 0.0020179 0.0013357 -0.00096229 0.14877 0.23279
-0.0099049 -0.016668 0.00054533 0.0011636
0.0014078 0.0024874 0.0019885 0.00068361 0.00065234 -0.00053937 -0.0099494 -0.01668
0.075354 0.21527 -0.0050681 -0.012771
0.0014697 -0.0014745 0.0013365 0.0006479 0.00011057 0.00027024 0.00054318 0.0011582
-0.0050599 -0.012772 0.097543 0.31705
1400000000 0.25853 0.19165 -0.022513 -0.0059053 0.005291 0.0026972 -0.0021132 0.00054726
0.0022687 0.00078597 0.00013311 -0.0014064
-0.022483 -0.0059192 0.085631 0.35957 -0.013932 0.012316 0.0013516 0.0013422
0.0012156 -0.00085704 0.001114 7.5443e-05
0.0053073 0.002682 -0.013895 0.012383 0.35675 0.05722 0.00014505 -0.0019662
3.1423e-05 -0.00044098 0.00030606 0.00014228
-0.0021142 0.00055854 0.0013629 0.0013437 0.00014746 -0.0019718 0.17699 0.2023
-0.015746 -0.009614 -0.00047791 0.00048252
0.0022829 0.0007762 0.0012106 -0.00087025 3.1424e-05 -0.00044642 -0.015775 -0.0095894
0.10721 0.20894 -0.010846 -0.0075487
0.00013435 -0.0014105 0.0011196 6.8741e-05 0.00030692 0.00014198 -0.00047743 0.00048249
-0.010836 -0.0075577 0.14071 0.30304
1460000000 0.28004 0.14705 -0.019131 0.0054167 0.0054605 -0.0021958 -0.0016026 0.0017091
0.0019271 -0.00051401 -0.00037993 -0.00089397
-0.019124 0.0054052 0.11949 0.33732 -0.0055954 0.014831 0.001813 0.00016529
0.00079269 -0.0013159 0.0010743 -0.00055262
0.0054538 -0.0022139 -0.0055351 0.014864 0.36154 0.0027738 -0.0014881 -0.0014042
0.00013449 -0.00018259 0.00057665 -0.0003448
-0.0016012 0.0017125 0.0018134 0.00016433 -0.001491 -0.0014089 0.20107 0.17223
-0.016814 -0.0025344 -0.00026023 0.0022704
0.0019282 -0.00052351 0.00079005 -0.0013218 0.00013551 -0.00018315 -0.01684 -0.0024979
0.13521 0.19316 -0.011713 -0.001747
-0.00037343 -0.00088919 0.0010783 -0.00055625 0.000576 -0.00034029 -0.00025601 0.0022668
-0.011704 -0.0017615 0.17259 0.28056
1520000000 0.29146 0.1045 -0.013304 0.010304 0.0029334 -0.0041735 0.0001599 0.0026035
0.0020297 -0.0016166 -0.0010884 -8.4485e-05
-0.013304 0.010287 0.15299 0.32209 0.0016206 0.012599 0.0017023 -0.00090336
-3.9754e-05 -0.0010969 0.00026796 -0.00091209
0.002921 -0.0041753 0.0016892 0.012601 0.35427 -0.053523 -0.0014779 -0.00028063
0.00049768 -0.00086899 -2.3014e-05 -9.4653e-05
0.00017134 0.0025944 0.0017102 -0.00090476 -0.0014697 -0.00027938 0.22237 0.13411
-0.015762 0.0034885 0.0019837 0.0019661
0.0020247 -0.00164 -4.6515e-05 -0.0010986 0.00049954 -0.00087606 -0.015764 0.0035396
0.16247 0.17766 -0.011242 0.0025857
-0.0010889 -7.1324e-05 0.0002655 -0.00091227 -2.204e-05 -9.454e-05 0.0019906 0.001969
-0.011237 0.0025776 0.20477 0.25766
1580000000 0.29933 0.057836 -0.0070761 0.012697 -0.001104 -0.0047147 0.0015428 0.0018632
-0.00010648 -0.0020887 -0.00028474 0.0004015
-0.0070738 0.012686 0.17999 0.29658 0.0050975 0.0079217 0.00040586 -0.0017337
-0.00060247 -0.0010116 -0.00021233 -0.00079434
-0.0011286 -0.0047162 0.005134 0.0079046 0.33356 -0.11125 -0.0016672 0.0010233
-0.0002884 -0.001102 0.00017946 -0.00056503
0.0015488 0.0018511 0.00040149 -0.0017384 -0.0016643 0.0010298 0.23417 0.094911
-0.012143 0.0086385 0.0025337 0.00037274
-0.00011883 -0.0020971 -0.00061549 -0.0010131 -0.0002926 -0.0011012 -0.01214 0.0086751
0.18546 0.15825 -0.0087897 0.0076683
-0.00028316 0.00040676 -0.00021564 -0.00079508 0.00017695 -0.00056886 0.0025351 0.00036568
-0.0087862 0.0076686 0.2346 0.22932
1640000000 0.30016 0.016212 -0.00092404 0.01134 -0.002817 -0.0024857 0.0027218 0.0008667
-0.00070872 -0.0015762 -0.00021486 0.00064787
-0.00093556 0.011337 0.20911 0.27111 0.0056686 0.0034257 -0.00087563 -0.0016705
-0.0010564 -0.00029322 -0.00051916 -0.00059314
-0.0028366 -0.0024732 0.0056889 0.0033997 0.30419 -0.15986 -0.0005065 0.0016328
-0.0011631 -0.00083995 -0.00015565 -0.00019182
0.0027265 0.00085689 -0.00088829 -0.0016775 -0.00051028 0.0016424 0.24464 0.047412
-0.0075784 0.010213 0.0025615 -0.0012521
-0.00071812 -0.0015755 -0.0010644 -0.00028866 -0.0011641 -0.00083949 -0.0075603 0.010241
0.2067 0.13301 -0.0040545 0.0093427
-0.00020901 0.00065413 -0.00052001 -0.00059059 -0.00015605 -0.00019148 0.0025598 -0.0012671
-0.004059 0.0093354 0.25888 0.19704
1700000000 0.29158 -0.029495 0.002058 0.0085823 -0.003466 0.00028902 0.0029378 -0.0013742
-0.0020008 -0.00078565 0.00066827 0.00031057
0.0020521 0.0085806 0.22698 0.23909 0.0038629 0.00061735 -0.0015194 -0.00045118
-0.00075158 0.00023082 -0.00087848 -0.00044316
-0.0034665 0.00029609 0.0038644 0.00059103 0.26114 -0.19978 0.0007687 0.0014951
-0.0018763 -7.0423e-05 -0.00059374 -0.0007964
0.0029375 -0.001388 -0.0015263 -0.00045511 0.00077531 0.001497 0.24079 -0.00082841
-0.0041279 0.010865 0.0013848 -0.0023284
-0.0020129 -0.00077224 -0.00074355 0.00023824 -0.0018849 -7.0134e-05 -0.0041036 0.010885
0.22259 0.11167 0.00044114 0.0094925
0.00067243 0.00030756 -0.0008796 -0.00043825 -0.00060034 -0.00079666 0.0013729 -0.0023372
0.00044006 0.0094951 0.2735 0.16158
1760000000 0.27793 -0.077739 0.0039433 0.0054812 -0.0021935 0.00094122 0.00097215 -0.0035163
-0.0014987 0.00063549 0.00045518 -0.00043026
0.0039314 0.0054788 0.2521 0.19844 0.0016303 -0.0012906 -0.0011854 0.00030675
-0.0009329 0.00092864 -0.00063914 0.00048759
-0.0021897 0.00094391 0.0016219 -0.0013132 0.21175 -0.23325 0.0014085 0.00073456
-0.0011472 0.0016093 -0.0013846 -0.0002268
0.00096141 -0.0035165 -0.0011884 0.00031008 0.0014048 0.00073931 0.23128 -0.050309
-0.00039655 0.010069 -0.00038755 -0.0025014
-0.0014948 0.00064081 -0.00093367 0.00094219 -0.0011513 0.0016118 -0.00036124 0.010076
0.23556 0.076021 0.0041236 0.0069108
0.00045468 -0.00043323 -0.00063513 0.00049553 -0.0013868 -0.00022901 -0.00039057 -0.0025048
0.0041172 0.0069045 0.28434 0.12322
1820000000 0.25205 -0.11443 0.0039328 0.0022276 -1.2797e-05 0.0023949 -0.0012648 -0.0028721
-0.001159 0.0010665 9.9029e-07 -0.00011927
0.0039258 0.0022223 0.26144 0.16824 -0.00021678 -0.00014785 -0.0011665 0.0010164
0.00012305 0.0012546 -0.0004932 0.00058617
-1.0972e-05 0.002394 -0.00021972 -0.00014605 0.1612 -0.24825 0.0012333 -7.8903e-05
7.5385e-05 0.0022584 -0.001304 0.0005457
-0.0012806 -0.0028646 -0.0011566 0.0010237 0.0012472 -8.1013e-05 0.20232 -0.095709
0.0016786 0.0080948 -0.0015434 -0.0014615
-0.0011547 0.0010701 0.00013428 0.0012497 7.595e-05 0.0022634 0.0017032 0.0080968
0.25116 0.046517 0.0050141 0.0033798
-6.0833e-07 -0.00011768 -0.0004899 0.00058966 -0.0013033 0.00055213 -0.0015483 -0.0014611
0.0050175 0.003381 0.28544 0.085772
1880000000 0.21569 -0.15408 0.0016434 0.00025926 -0.00038033 0.0020923 -0.0029696 -0.0018285
-0.00021444 0.0018567 0.00022285 -0.00049249
0.0016463 0.00025747 0.26503 0.1212 -0.0024105 0.0016077 -9.932e-05 0.0016087
0.0006055 0.0010004 0.00018634 0.00098069
-0.00037573 0.0021014 -0.0024142 0.0016236 0.10802 -0.25807 0.0013173 -0.0010796
0.0016911 0.001635 -0.00074784 0.0013866
-0.0029702 -0.0018172 -9.2191e-05 0.0016051 0.0013107 -0.0010737 0.16318 -0.13587
0.0028767 0.0055241 -0.0022793 0.00016
-0.00020939 0.00186 0.00061195 0.00099893 0.0016954 0.0016265 0.0029007 0.0055124
0.2526 0.013389 0.004772 0.0011922
0.00021822 -0.00049361 0.00019532 0.00098194 -0.00073961 0.0013821 -0.0022777 0.00015748
0.004768 0.001194 0.28347 0.051466
1940000000 0.17549 -0.17895 -0.00043812 -0.001095 0.0015345 0.0020355 -0.0035786 0.0007765
0.0015434 0.0010914 -0.00057739 -0.00063021
-0.00043872 -0.0010957 0.26447 0.089767 -0.0012134 0.0040293 0.00091248 0.0011252
0.0016019 0.00033812 0.00084642 0.00031778
0.0015427 0.0020268 -0.0011955 0.0040427 0.061837 -0.25065 0.00012068 -0.001625
0.0022289 0.00020086 0.00037931 0.0015211
-0.0035753 0.00079255 0.00092686 0.0011214 0.00012573 -0.0016304 0.11155 -0.16625
0.0020927 0.0035002 -0.0014455 0.0010396
0.0015548 0.0010841 0.0016071 0.00033132 0.0022338 0.00019978 0.002096 0.0035024
0.25294 -0.025783 0.0037214 -0.0018502
-0.00058521 -0.00062569 0.00084908 0.00031376 0.00037957 0.00152 -0.0014439 0.0010502
0.0037153 -0.0018507 0.27086 0.014803
2000000000 0.12894 -0.19274 -0.0041204 0.0010495 0.0026628 0.0015214 -0.0021614 0.0033115
0.0013705 -6.7384e-06 -0.00045893 0.00044028
-0.0041182 0.001047 0.24994 0.054311 -0.00087549 0.0058127 0.0014917 0.00033144
0.0011097 -0.0011905 0.00049352 1.463e-05
0.0026692 0.0015131 -0.00085577 0.0058232 0.018315 -0.23591 -0.00097142 -0.00086544
0.0016696 -0.0011022 0.0016986 0.00097177
-0.0021432 0.003318 0.0014843 0.00032583 -0.00097282 -0.00086575 0.058749 -0.17732
0.0002777 0.00263 -0.0003297 0.0020449
0.001363 -1.0992e-05 0.0010984 -0.0011901 0.0016647 -0.0011103 0.00028323 0.0026307
0.2457 -0.060062 0.00032844 -0.0029365
