!Keysight Technologies,M9804A,MY58100912,A.14.10.03
!Date: Thursday, April 27, 2023 10:28:33
!Correction: S11(C  6-Port  ) 
!S12(C  6-Port  ) 
!S13(C  6-Port  ) 
!S14(C  6-Port  ) 
!S15(C  6-Port  ) 
!S16(C  6-Port  ) 
!S21(C  6-Port  ) 
!S22(C  6-Port  ) 
!S23(C  6-Port  ) 
!S24(C  6-Port  ) 
!S25(C  6-Port  ) 
!S26(C  6-Port  ) 
!S31(C  6-Port  ) 
!S32(C  6-Port  ) 
!S33(C  6-Port  ) 
!S34(C  6-Port  ) 
!S35(C  6-Port  ) 
!S36(C  6-Port  ) 
!S41(C  6-Port  ) 
!S42(C  6-Port  ) 
!S43(C  6-Port  ) 
!S44(C  6-Port  ) 
!S45(C  6-Port  ) 
!S46(C  6-Port  ) 
!S51(C  6-Port  ) 
!S52(C  6-Port  ) 
!S53(C  6-Port  ) 
!S54(C  6-Port  ) 
!S55(C  6-Port  ) 
!S56(C  6-Port  ) 
!S61(C  6-Port  ) 
!S62(C  6-Port  ) 
!S63(C  6-Port  ) 
!S64(C  6-Port  ) 
!S65(C  6-Port  ) 
!S66(C  6-Port  ) 
!S6P File: Measurement: :
# Hz S  RI   R 50
500000000 -0.33919 -0.02128 -0.011316 -0.0033205 -0.0081508 0.012835 -0.0035344 0.012108
0.01196 0.0036891 -0.0032684 0.0081042
-0.011289 -0.0033125 -0.41914 -0.039273 0.0064154 -0.011463 0.0016324 0.01284
0.0074598 0.0023399 0.0016695 0.014342
-0.0081346 0.012832 0.006394 -0.011473 -0.26359 0.22062 0.0070052 0.0040163
-0.00083113 0.0078541 0.0019374 0.01228
-0.0035197 0.012112 0.0016493 0.012851 0.0070073 0.0040176 -0.33141 0.059307
-0.020258 -0.0064962 0.014841 0.025268
0.011967 0.0036645 0.0074696 0.0023282 -0.00082825 0.0078579 -0.020265 -0.0064946
-0.23409 -0.16918 -0.02532 0.0044399
-0.0032461 0.0081146 0.0016874 0.014335 0.0019392 0.012278 0.014858 0.025263
-0.025329 0.0044236 -0.28379 -0.088012
560000000 -0.31355 0.13501 -0.026311 -0.060552 0.0012521 0.011868 0.0055386 0.0098704
0.0097727 0.0043055 0.010442 0.0077203
-0.026268 -0.060473 -0.37595 0.11612 -0.042282 -0.03524 0.013146 0.0039991
-0.012101 -0.0044249 0.0030246 -0.00097057
0.0012737 0.011857 -0.042371 -0.035198 -0.18118 0.26641 -0.00036647 -0.0045775
0.018593 0.0039761 0.0064496 -0.0062609
0.0055592 0.0098576 0.013138 0.0039913 -0.00036333 -0.004578 -0.30651 0.14611
0.00078561 -0.023653 0.0033992 -0.019162
0.0097891 0.00429 -0.012126 -0.0043899 0.018602 0.0039672 0.00078045 -0.023662
-0.2881 0.0039959 0.0047613 -0.04698
0.010448 0.0077153 0.0030207 -0.00099292 0.0064489 -0.0062663 0.0033965 -0.019162
0.0047675 -0.046984 -0.33028 0.051485
620000000 -0.27148 0.12101 -0.023435 0.0075555 0.0039874 0.0082622 0.0072498 -0.0054481
0.010866 -0.0013542 0.00071568 -0.0025225
-0.023416 0.0075449 -0.40148 0.071135 -0.019285 0.00061317 -0.0010811 -0.0019207
0.010315 -0.0066463 0.0015068 -0.0021502
0.0040039 0.0082582 -0.019299 0.0006477 -0.1499 0.27567 -0.0009277 -0.0046421
-0.00367 -0.0027727 0.0081808 -0.0028571
0.0072444 -0.0054656 -0.0010916 -0.0019173 -0.00092897 -0.0046484 -0.26393 0.15813
-0.039759 -0.017493 0.011821 0.024185
0.010864 -0.00137 0.010308 -0.0066722 -0.0036744 -0.002775 -0.039788 -0.017472
-0.21058 -0.034083 -0.038521 0.014677
0.00070714 -0.002523 0.0015052 -0.0021615 0.0081845 -0.0028595 0.011829 0.024176
-0.038527 0.014646 -0.25613 0.022484
680000000 -0.22821 0.20336 -0.027671 -0.012156 0.0053672 0.0046507 0.0011281 -0.0069487
-0.0030525 -0.010868 0.0042778 -0.0067541
-0.027647 -0.012161 -0.38486 0.16595 -0.032077 0.00034976 -0.0012588 -0.00047023
-0.0026014 -0.0090026 -0.0013878 -0.0020414
0.0053694 0.0046392 -0.032082 0.00041507 -0.098739 0.29361 -0.0009076 -0.00033694
-0.0016612 0.0001782 -0.0032478 -0.0086306
0.0011213 -0.0069442 -0.0012603 -0.00046413 -0.0009092 -0.00034212 -0.21736 0.20671
-0.025798 -0.005172 -0.0092872 -0.0086068
-0.0030755 -0.010869 -0.0026287 -0.0090191 -0.0016598 0.00017128 -0.025821 -0.0051599
-0.25193 0.064107 -0.0066456 -0.0065001
0.0042727 -0.0067535 -0.0013905 -0.0020453 -0.0032449 -0.0086325 -0.0092969 -0.0086215
-0.0066475 -0.0064947 -0.25468 0.11895
740000000 -0.18464 0.19798 -0.036747 0.026401 0.012205 -0.0057102 -0.00045185 -0.0040553
-0.0047401 -0.0030638 -0.0054132 0.0031392
-0.036742 0.026364 -0.33277 0.18549 -0.033183 0.03486 -0.0011257 -0.0063105
-0.011345 0.0078834 -0.0022526 -0.0055503
0.012187 -0.005726 -0.033125 0.034954 -0.06497 0.2926 -0.0018052 0.0030727
-0.0031515 -0.0040764 -0.0017548 0.00080014
-0.00045546 -0.0040459 -0.0011366 -0.0063224 -0.0017988 0.0030753 -0.19932 0.21499
-0.04268 -0.0035626 0.022451 0.012891
-0.0047475 -0.0030522 -0.01133 0.0079284 -0.003154 -0.0040692 -0.042718 -0.0035165
-0.1574 0.086645 -0.039232 0.0034469
-0.0054124 0.0031385 -0.0022702 -0.0055564 -0.0017459 0.00079083 0.022464 0.012874
-0.039222 0.0034254 -0.24338 0.12872
800000000 -0.15073 0.23551 -0.021213 0.01748 0.0045504 -0.010418 -0.0044156 -0.0017981
-0.0033822 0.0024906 0.003468 0.00048379
-0.021216 0.017464 -0.3335 0.254 -0.0067187 0.033479 -0.0023398 0.002302
-0.0004528 0.0031759 0.0010258 0.0051443
0.0045304 -0.01043 -0.0066542 0.033514 -0.022568 0.31454 0.00083973 0.0017341
0.00036092 0.0035327 -0.001819 0.0011789
-0.0044199 -0.0017894 -0.0023334 0.0023192 0.00084054 0.0017253 -0.16926 0.24119
-0.026906 0.016524 0.012759 -0.010088
-0.0033863 0.0025104 -0.00043284 0.0031807 0.00036975 0.0035344 -0.026911 0.016595
-0.19559 0.11245 -0.015947 0.018665
0.0034752 0.00047902 0.0010351 0.005142 -0.0018202 0.0011878 0.012757 -0.010109
-0.015954 0.018651 -0.23137 0.17517
860000000 -0.11614 0.25552 -0.01585 0.030806 -0.0037783 -0.0094594 -0.0022525 0.0011456
0.004268 0.0046841 -0.0028604 -0.0027611
-0.015859 0.030774 -0.28601 0.29498 0.0090794 0.033109 0.0001807 0.0022715
0.0041504 0.00013659 0.0031698 0.00047367
-0.0037858 -0.0094534 0.0091508 0.033101 0.025749 0.32151 -0.00040069 -3.7122e-05
0.0024844 -0.0013175 0.0016202 0.0041262
-0.002256 0.0011517 0.00018714 0.0022829 -0.0004042 -3.8038e-05 -0.13235 0.25181
-0.01539 0.020761 -0.005538 -0.0088555
0.0042789 0.0046678 0.0041744 0.00011747 0.0024838 -0.0013103 -0.015374 0.020818
-0.14344 0.15868 -0.022038 0.016211
-0.0028791 -0.0027508 0.0031789 0.00046301 0.0016305 0.0041283 -0.0055537 -0.0088481
-0.022048 0.016191 -0.18155 0.21556
920000000 -0.089601 0.27713 0.0062026 0.036672 -0.0092911 -0.0038702 -0.0015064 0.0018163
0.0011716 0.0013142 0.0025125 -0.001684
0.0061746 0.036646 -0.25577 0.31526 0.028132 0.020286 0.00171 0.0009982
0.0068799 -0.00076074 0.0036881 -0.002839
-0.0092966 -0.0038507 0.028185 0.020232 0.072981 0.32148 0.0019326 -0.00015666
0.0014635 -0.00057803 0.0008394 -0.0010691
-0.0015069 0.0018151 0.0017208 0.0010034 0.0019386 -0.00014911 -0.10641 0.26733
-0.0073963 0.0309 0.0028027 -0.0063156
0.0011674 0.0013044 0.0068933 -0.00078803 0.0014676 -0.00056898 -0.0073335 0.030937
-0.13062 0.16416 2.7799e-05 0.025826
0.0025016 -0.0016883 0.0036937 -0.0028618 0.00084305 -0.0010687 0.0027953 -0.0063266
8.0521e-06 0.025816 -0.18241 0.23022
980000000 -0.042531 0.29487 0.018409 0.028446 -0.0083957 0.0047664 0.0019961 0.0030574
0.0039848 -0.0018453 -0.0031641 -0.0021655
0.018382 0.028449 -0.20388 0.34769 0.032407 0.003375 0.0020336 -0.00037078
0.0016401 -0.0061736 -0.00057955 -0.0023573
-0.0083778 0.0047897 0.032433 0.0032858 0.11948 0.31345 0.00049047 -0.0012951
0.0001522 -0.0023225 0.0013879 -0.00027078
0.0019978 0.0030505 0.0020453 -0.00035309 0.00048247 -0.0012956 -0.067321 0.27655
0.010988 0.028429 -0.0085378 -0.006549
0.003967 -0.0018705 0.0016333 -0.0061664 0.00013865 -0.0023276 0.011059 0.028434
-0.097779 0.18834 0.0062221 0.01797
-0.0031766 -0.0021571 -0.0005639 -0.0023528 0.00139 -0.00026809 -0.0085421 -0.006534
0.0062018 0.017972 -0.13843 0.26915
1040000000 0.00027976 0.30207 0.03288 0.015864 -0.0010636 0.0065637 0.0023596 0.00057235
0.00014748 -0.0032694 -0.00079329 -0.0013049
0.032857 0.015882 -0.16808 0.3608 0.027811 -0.015542 0.0014379 -0.0017906
-0.0024122 -0.002476 -0.0014826 -0.0026777
-0.0010366 0.0065668 0.027758 -0.015619 0.16601 0.29891 -0.00057335 -0.001485
-0.0016126 -0.00091684 -0.00045708 -0.0010347
0.0023564 0.00056761 0.0014536 -0.0017872 -0.00057221 -0.0014785 -0.039187 0.28554
0.02087 0.015632 -0.0026958 0.0010795
0.00012326 -0.0032762 -0.002416 -0.0024509 -0.001623 -0.00090437 0.02092 0.015611
-0.065797 0.1949 0.013683 0.015837
-0.0008066 -0.0013093 -0.0014701 -0.0026874 -0.00046058 -0.0010304 -0.0026881 0.0010775
0.013657 0.01584 -0.11382 0.28913
1100000000 0.045834 0.30828 0.034407 -0.0057162 0.0027294 0.0035641 0.0021378 -0.00099889
-0.0018873 -0.0027277 -0.0035367 0.00048133
0.034388 -0.0056738 -0.12448 0.37703 0.013629 -0.027478 -0.00014102 -0.0017966
-0.0033273 -0.00059629 -0.003339 -0.00025464
0.0027499 0.0035575 0.013553 -0.027532 0.21268 0.27682 -0.0018558 0.00018097
-0.0018552 0.0005414 -0.0010068 -0.00021681
0.002131 -0.0010044 -0.00013921 -0.0017915 -0.0018611 0.00017603 0.0019976 0.28842
0.024727 0.0025536 -0.0026543 0.00021984
-0.0019055 -0.0027182 -0.0033356 -0.00057588 -0.001858 0.00054071 0.024748 0.0025188
-0.04724 0.20664 0.018318 0.0063995
-0.0035349 0.00048589 -0.0033345 -0.00024386 -0.0010011 -0.00021732 -0.0026527 0.00022285
0.018299 0.0064017 -0.067018 0.31343
1160000000 0.096532 0.30206 0.022053 -0.021358 0.0022878 -0.0004412 -6.5192e-05 -0.0020325
-0.0038362 -0.000483 -0.00070382 0.0038258
0.022071 -0.021318 -0.080508 0.38074 -0.0047508 -0.028045 -0.0016485 -0.001513
-0.0025791 0.0025644 -0.0013659 0.0016681
0.0022908 -0.00044495 -0.004855 -0.028043 0.25498 0.24449 -0.00081823 0.0018015
-0.00047464 0.0019381 -0.00082016 0.00015
-6.6079e-05 -0.0020411 -0.0016469 -0.0015028 -0.00081748 0.0017939 0.041247 0.28367
0.020199 -0.012505 -0.0029843 0.0044086
-0.0038465 -0.00048856 -0.0025624 0.0025966 -0.00047691 0.0019325 0.020203 -0.01253
-0.013903 0.21323 0.01691 -0.0016054
-0.00070445 0.0038337 -0.00134 0.0016713 -0.00081755 0.00015489 -0.0029785 0.0044135
0.016893 -0.0016052 -0.019994 0.31382
1220000000 0.14127 0.28929 0.0084179 -0.02936 -0.0016346 -0.00035897 0.00014296 -0.00095604
-0.0023336 0.002287 0.0012418 0.0018019
0.0084352 -0.029323 -0.036232 0.39173 -0.017054 -0.019755 -0.0024104 0.00044366
0.00010371 0.00291 -0.00056695 0.0018886
-0.0016376 -0.00035666 -0.01713 -0.01972 0.29366 0.20432 0.00079041 0.0018565
0.00069176 0.0012812 0.00042659 0.00056157
0.00014104 -0.00096106 -0.0024131 0.00045752 0.00078811 0.0018477 0.081346 0.27333
0.0092831 -0.018539 0.0015037 0.0013509
-0.0023252 0.0022893 0.00010691 0.0029158 0.0006924 0.0012772 0.0092674 -0.018547
0.0099536 0.22003 0.011704 -0.013341
0.0012455 0.0017978 -0.00054919 0.0019055 0.00042762 0.00056277 0.0015164 0.0013536
0.0117 -0.013332 0.012962 0.32638
1280000000 0.18996 0.26576 -0.0089777 -0.026888 -0.0015291 0.0029033 -0.00099515 -0.001986
-0.00066165 0.0028687 0.0023762 0.00090369
-0.0089535 -0.026878 0.0094072 0.38201 -0.023165 -0.007524 -0.0010575 0.0013933
0.0017202 0.001686 0.00072972 0.0017636
-0.0015116 0.0028954 -0.023213 -0.0074486 0.32307 0.15932 0.0016391 3.7869e-05
0.0011113 0.00021533 0.00028102 0.00013581
-0.00098951 -0.0019793 -0.001058 0.0013921 0.0016378 4.4195e-05 0.11727 0.25455
-0.00062554 -0.019981 -0.00057904 0.0005086
-0.00064211 0.0028613 0.0017283 0.0016907 0.0011135 0.00021787 -0.00066158 -0.01999
0.045797 0.22159 0.0012325 -0.01484
0.0023778 0.00088818 0.00073818 0.001768 0.00028154 0.00013555 -0.00058037 0.00050207
0.0012334 -0.014828 0.0589 0.32459
1340000000 0.22642 0.23103 -0.017882 -0.017097 0.0013974 0.0043223 -0.0017129 -0.00092634
0.0013898 0.0024871 0.0014768 -0.0014678
-0.017847 -0.017103 0.048647 0.37319 -0.020675 0.0047685 -0.00013481 0.0020191
0.0019916 0.00069665 0.0013418 0.0006466
0.0014031 0.0043144 -0.020677 0.0048418 0.34412 0.11132 0.0013392 -0.00096056
0.00065472 -0.00053449 0.00011 0.000269
-0.0017223 -0.00092843 -0.00013372 0.0020218 0.0013354 -0.00096063 0.14877 0.23276
-0.00992 -0.016689 0.00053713 0.0011496
0.0014052 0.0024915 0.0019914 0.00068275 0.00065689 -0.00054249 -0.0099628 -0.016685
0.075309 0.21532 -0.0050596 -0.012767
0.0014701 -0.0014797 0.0013429 0.00063625 0.00011047 0.0002701 0.00053725 0.0011542
-0.0050499 -0.012776 0.097651 0.31703
1400000000 0.25855 0.19166 -0.022502 -0.0058929 0.0052916 0.0026911 -0.0021129 0.0005513
0.0022662 0.00079032 0.0001342 -0.0014079
-0.022481 -0.0059093 0.085652 0.35958 -0.013916 0.012319 0.0013517 0.0013495
0.0012215 -0.00085356 0.0011193 7.5295e-05
0.0053023 0.0026793 -0.013884 0.012378 0.35676 0.057243 0.00014752 -0.0019715
3.1049e-05 -0.00044291 0.00030519 0.00014274
-0.0021159 0.00055381 0.0013605 0.0013416 0.00015046 -0.0019704 0.17697 0.20226
-0.015765 -0.0096225 -0.00048108 0.00048589
0.0022762 0.00078094 0.0012175 -0.00087621 2.9629e-05 -0.00044828 -0.01579 -0.0095931
0.10722 0.20901 -0.010841 -0.0075514
0.0001287 -0.0014111 0.0011159 6.0158e-05 0.00030513 0.00014111 -0.00048322 0.00048102
-0.010827 -0.0075667 0.14077 0.303
1460000000 0.28004 0.14705 -0.019118 0.005422 0.0054637 -0.0021986 -0.0016003 0.0017127
0.0019346 -0.00051037 -0.00038458 -0.00089079
-0.019108 0.0053974 0.1195 0.33731 -0.0055768 0.014817 0.0018124 0.00016553
0.00079493 -0.0013124 0.001075 -0.00055084
0.0054564 -0.0022118 -0.0055287 0.014844 0.36155 0.0027677 -0.0014938 -0.0014145
0.00013345 -0.00018054 0.00057699 -0.00033778
-0.0016064 0.0017133 0.0018158 0.00016137 -0.0014939 -0.0014076 0.20105 0.17221
-0.016843 -0.0025233 -0.00026524 0.0022739
0.0019273 -0.00051092 0.0007863 -0.0013295 0.00013575 -0.00018449 -0.016856 -0.0024954
0.13528 0.19321 -0.011699 -0.0017656
-0.00037762 -0.00088914 0.001089 -0.00056207 0.00057518 -0.00034524 -0.00027227 0.0022749
-0.011698 -0.00177 0.17266 0.2805
1520000000 0.29146 0.1045 -0.013298 0.010297 0.0029399 -0.0041779 0.00016146 0.0025965
0.0020298 -0.0016293 -0.0010918 -7.7845e-05
-0.013292 0.010276 0.153 0.3221 0.0016375 0.012581 0.0017073 -0.00090873
-4.6263e-05 -0.0010968 0.00026689 -0.00091236
0.0029185 -0.0041787 0.0016822 0.012582 0.35429 -0.053534 -0.0014762 -0.00028838
0.00049854 -0.00086757 -2.1472e-05 -9.4449e-05
0.00016722 0.0025951 0.0017123 -0.00091049 -0.0014697 -0.0002872 0.22234 0.1341
-0.015776 0.0035055 0.0019854 0.0019707
0.0020231 -0.0016374 -5.1756e-05 -0.0011085 0.00049822 -0.00087361 -0.015787 0.003546
0.16258 0.17768 -0.011242 0.0025614
-0.0010951 -7.4279e-05 0.00026784 -0.00090866 -2.2715e-05 -9.4988e-05 0.0019877 0.0019664
-0.011244 0.0025616 0.20483 0.25764
1580000000 0.29934 0.057816 -0.0070694 0.012696 -0.0011069 -0.0047297 0.0015478 0.0018613
-0.00010024 -0.0020949 -0.00028368 0.00040138
-0.0070687 0.012684 0.18001 0.29655 0.0050928 0.0079056 0.00041243 -0.0017397
-0.00060111 -0.0010152 -0.00021343 -0.00079712
-0.0011279 -0.004721 0.0051215 0.0078968 0.33356 -0.11127 -0.0016634 0.0010291
-0.00029092 -0.0011022 0.00017771 -0.00056479
0.0015563 0.0018531 0.00040763 -0.0017392 -0.0016626 0.0010244 0.23415 0.094927
-0.012152 0.0086571 0.0025336 0.00037425
-0.00011765 -0.0020945 -0.00061307 -0.0010061 -0.00029137 -0.0011009 -0.012142 0.0087008
0.18558 0.15822 -0.0088001 0.0076585
-0.000283 0.00040424 -0.00021322 -0.00079866 0.00017626 -0.00056903 0.002538 0.00036475
-0.0088067 0.0076538 0.23466 0.22927
1640000000 0.30017 0.0162 -0.00093422 0.011332 -0.0028199 -0.0024847 0.0027224 0.00087104
-0.00070607 -0.0015808 -0.00021452 0.00064843
-0.00093997 0.011324 0.20911 0.2711 0.0056527 0.0034212 -0.00088239 -0.0016732
-0.0010526 -0.0002972 -0.00051853 -0.00059661
-0.0028261 -0.002467 0.0056702 0.0033907 0.30419 -0.15987 -0.00050896 0.0016389
-0.0011618 -0.00084384 -0.00015655 -0.00019261
0.0027226 0.00086397 -0.00088675 -0.0016742 -0.00051255 0.0016334 0.24463 0.047428
-0.007565 0.010237 0.0025675 -0.0012534
-0.00071065 -0.0015861 -0.0010625 -0.00029198 -0.0011674 -0.00083425 -0.007552 0.010265
0.20679 0.13294 -0.0040715 0.0093491
-0.00021189 0.00065095 -0.00051948 -0.00059103 -0.00015628 -0.00019126 0.0025636 -0.0012649
-0.0040724 0.0093412 0.25896 0.19698
1700000000 0.2916 -0.029501 0.0020568 0.0085808 -0.0034687 0.0002879 0.0029478 -0.0013774
-0.0020099 -0.00078583 0.00066552 0.00031151
0.0020402 0.0085686 0.22698 0.23906 0.0038549 0.00060789 -0.0015178 -0.00045863
-0.00074207 0.00022919 -0.00087577 -0.00044686
-0.0034656 0.00030311 0.0038486 0.00059782 0.26112 -0.19978 0.00077515 0.0014906
-0.0018822 -7.6778e-05 -0.00059387 -0.00079616
0.0029414 -0.0013803 -0.0015217 -0.0004558 0.00076353 0.0014967 0.24079 -0.00080752
-0.0041065 0.010882 0.0013848 -0.0023343
-0.0020082 -0.0007712 -0.0007521 0.00023047 -0.0018866 -7.1152e-05 -0.00408 0.010903
0.22265 0.11158 0.00042744 0.0095106
0.00067091 0.00030541 -0.00087862 -0.00043983 -0.00059936 -0.00079548 0.0013852 -0.0023328
0.00043378 0.0095043 0.27361 0.16143
1760000000 0.27793 -0.077747 0.0039334 0.0054782 -0.002182 0.00094209 0.00097802 -0.003517
-0.0015013 0.0006316 0.00045633 -0.00042674
0.003921 0.005479 0.25209 0.1984 0.0016202 -0.0012913 -0.001179 0.00030604
-0.00093368 0.00092451 -0.00063887 0.00048744
-0.0021815 0.00094968 0.001609 -0.0013033 0.21172 -0.23325 0.0014091 0.00073486
-0.0011556 0.00161 -0.0013857 -0.00022906
0.00096411 -0.0035231 -0.0011859 0.00031023 0.0013994 0.00073734 0.2313 -0.050311
-0.00035798 0.010059 -0.00039348 -0.0025087
-0.0014977 0.00064543 -0.00093395 0.00093667 -0.0011606 0.0016165 -0.00034058 0.010079
0.23554 0.075937 0.0041214 0.006925
0.00045209 -0.00043419 -0.00063553 0.00049394 -0.0013844 -0.00022727 -0.00039112 -0.0025057
0.0041158 0.0069172 0.28444 0.12308
1820000000 0.25206 -0.11443 0.003926 0.0022133 -1.9018e-05 0.002393 -0.0012659 -0.0028684
-0.0011637 0.001075 2.4066e-06 -0.00011708
0.0039199 0.0022235 0.26141 0.16821 -0.00022327 -0.00013672 -0.0011646 0.0010109
0.00012672 0.0012495 -0.00049206 0.00058441
6.3749e-06 0.0023947 -0.00022346 -0.00013363 0.16118 -0.24825 0.0012434 -9.211e-05
7.5528e-05 0.0022562 -0.0012989 0.00053931
-0.0012758 -0.0028653 -0.0011591 0.0010274 0.0012415 -8.2865e-05 0.20234 -0.095716
0.0017062 0.0080806 -0.0015518 -0.0014635
-0.0011603 0.0010688 0.00013251 0.0012465 8.0257e-05 0.0022656 0.0017221 0.008085
0.25112 0.04646 0.0050188 0.0034041
-1.4166e-06 -0.00011633 -0.00048865 0.00059105 -0.0012981 0.00054772 -0.0015502 -0.001461
0.0050211 0.0033986 0.28551 0.085645
1880000000 0.21568 -0.15408 0.0016397 0.00025708 -0.00038173 0.0020971 -0.0029703 -0.0018238
-0.00021709 0.0018647 0.00022462 -0.00049104
0.0016354 0.00026186 0.26501 0.12118 -0.0024177 0.0016201 -9.7287e-05 0.001611
0.00060894 0.00099664 0.00018973 0.00098143
-0.000369 0.0020955 -0.002415 0.0016338 0.108 -0.25805 0.0013156 -0.0010665
0.0016902 0.0016296 -0.00074331 0.0013792
-0.0029708 -0.001816 -9.2783e-05 0.0016011 0.0013159 -0.0010673 0.16319 -0.13588
0.0028941 0.0054986 -0.0022803 0.00015034
-0.00020624 0.0018593 0.00061378 0.00099822 0.001689 0.0016308 0.0029105 0.0054952
0.25253 0.013365 0.0047828 0.0011975
0.00021856 -0.0004958 0.0001945 0.00098373 -0.00074371 0.0013823 -0.0022827 0.0001547
0.0047843 0.0012014 0.28349 0.051364
1940000000 0.17547 -0.17896 -0.0004508 -0.0010889 0.0015269 0.0020364 -0.0035822 0.00077206
0.0015501 0.0010938 -0.00057549 -0.00063194
-0.00044053 -0.0010872 0.26444 0.089758 -0.0012041 0.0040482 0.00090981 0.0011252
0.0016082 0.00034489 0.00084929 0.00031977
0.0015473 0.0020233 -0.0011799 0.0040471 0.061829 -0.25062 0.00012228 -0.0016334
0.0022268 0.0002016 0.00037575 0.0015192
-0.0035713 0.00078843 0.00092447 0.0011206 0.00012062 -0.0016295 0.11154 -0.16627
0.0020875 0.0034837 -0.0014474 0.0010386
0.001558 0.0010927 0.0016083 0.0003326 0.0022327 0.00019403 0.0021008 0.0034739
0.2529 -0.025761 0.0037259 -0.0018543
-0.00058363 -0.0006263 0.00085044 0.00031458 0.0003768 0.0015195 -0.0014415 0.0010455
0.0037235 -0.0018476 0.27086 0.014697
2000000000 0.1289 -0.19273 -0.004125 0.0010558 0.0026594 0.0015253 -0.0021622 0.0033142
0.0013644 -8.8067e-07 -0.00046144 0.00043913
-0.0041188 0.0010479 0.24993 0.054293 -0.00087838 0.0058163 0.0014856 0.00032756
0.0011081 -0.0011841 0.00049374 1.4523e-05
0.0026663 0.0015184 -0.00084081 0.0058277 0.018329 -0.2359 -0.00097394 -0.00086456
0.0016682 -0.0011086 0.0016964 0.00096182
-0.0021482 0.0033142 0.0014895 0.00033313 -0.00097547 -0.00086676 0.058738 -0.17733
0.00026517 0.0026096 -0.00032904 0.0020453
0.0013651 -1.1033e-05 0.0011064 -0.0012013 0.001666 -0.0011137 0.00027087 0.0026171
0.24567 -0.06003 0.0003419 -0.0029384
