!Keysight Technologies,M9804A,MY58100912,A.14.10.03
!Date: Thursday, April 27, 2023 10:28:33
!Correction: S11(C  6-Port  ) 
!S12(C  6-Port  ) 
!S13(C  6-Port  ) 
!S14(C  6-Port  ) 
!S15(C  6-Port  ) 
!S16(C  6-Port  ) 
!S21(C  6-Port  ) 
!S22(C  6-Port  ) 
!S23(C  6-Port  ) 
!S24(C  6-Port  ) 
!S25(C  6-Port  ) 
!S26(C  6-Port  ) 
!S31(C  6-Port  ) 
!S32(C  6-Port  ) 
!S33(C  6-Port  ) 
!S34(C  6-Port  ) 
!S35(C  6-Port  ) 
!S36(C  6-Port  ) 
!S41(C  6-Port  ) 
!S42(C  6-Port  ) 
!S43(C  6-Port  ) 
!S44(C  6-Port  ) 
!S45(C  6-Port  ) 
!S46(C  6-Port  ) 
!S51(C  6-Port  ) 
!S52(C  6-Port  ) 
!S53(C  6-Port  ) 
!S54(C  6-Port  ) 
!S55(C  6-Port  ) 
!S56(C  6-Port  ) 
!S61(C  6-Port  ) 
!S62(C  6-Port  ) 
!S63(C  6-Port  ) 
!S64(C  6-Port  ) 
!S65(C  6-Port  ) 
!S66(C  6-Port  ) 
!S6P File: Measurement: :
# Hz S  RI   R 50
500000000 -0.33924 -0.021227 -0.011326 -0.00331 -0.008135 0.01284 -0.003523 0.0121
0.011955 0.0037114 -0.0032675 0.0081244
-0.011307 -0.0032954 -0.41917 -0.039221 0.0063914 -0.011449 0.0016487 0.012832
0.0074736 0.0023496 0.0016769 0.014327
-0.0081186 0.01286 0.0063799 -0.011484 -0.26357 0.22071 0.007009 0.0040154
-0.00080643 0.0078603 0.0019414 0.012275
-0.0035409 0.012067 0.0016637 0.012837 0.0070108 0.0040014 -0.33138 0.059356
-0.020239 -0.006479 0.01485 0.025249
0.011986 0.0036474 0.0074497 0.0023388 -0.00080901 0.0078533 -0.020249 -0.006485
-0.23414 -0.16899 -0.025309 0.0044471
-0.0032616 0.0080478 0.0017011 0.014324 0.001954 0.012268 0.01487 0.025254
-0.02532 0.0044482 -0.28389 -0.087673
560000000 -0.31356 0.13506 -0.026351 -0.060558 0.0012604 0.011869 0.0055477 0.0098378
0.0097878 0.0043113 0.010426 0.0077356
-0.026259 -0.060409 -0.376 0.11619 -0.042294 -0.035211 0.013154 0.0039941
-0.01204 -0.0044276 0.0030325 -0.00099651
0.0013045 0.011866 -0.042379 -0.035204 -0.18119 0.26646 -0.00035955 -0.0045729
0.018602 0.0039938 0.0064417 -0.0062745
0.0055412 0.0098561 0.013135 0.0039835 -0.00036483 -0.0045898 -0.30651 0.14612
0.00080085 -0.023651 0.0033894 -0.019139
0.0098136 0.0043149 -0.012109 -0.0043209 0.01861 0.0039477 0.00077911 -0.023654
-0.28806 0.0041052 0.0047381 -0.046946
0.010501 0.0077323 0.0029995 -0.0010726 0.0064376 -0.0062586 0.0033748 -0.01917
0.0047462 -0.046952 -0.3303 0.051768
620000000 -0.2715 0.12116 -0.023447 0.0075656 0.0040342 0.0082706 0.0072646 -0.0054588
0.010889 -0.0013637 0.00070678 -0.0025287
-0.023431 0.0075786 -0.40149 0.071258 -0.01928 0.0006335 -0.0010819 -0.0019144
0.010314 -0.0066512 0.0015256 -0.0021466
0.0040201 0.0082609 -0.019288 0.00066334 -0.14983 0.27577 -0.00092109 -0.0046539
-0.0036672 -0.0027791 0.0081866 -0.0028563
0.0072099 -0.005435 -0.0010929 -0.0019234 -0.00092333 -0.0046622 -0.26386 0.15821
-0.039757 -0.017483 0.011824 0.024172
0.010844 -0.0013526 0.010315 -0.0066743 -0.0036611 -0.0027733 -0.039778 -0.017454
-0.21053 -0.033931 -0.038491 0.014676
0.00068545 -0.0024885 0.0015153 -0.0021529 0.0081918 -0.0028689 0.011852 0.024161
-0.038505 0.014675 -0.25616 0.022815
680000000 -0.22818 0.20341 -0.027653 -0.01212 0.0053719 0.0046371 0.0011313 -0.0069411
-0.0030557 -0.010881 0.0042809 -0.006758
-0.027646 -0.012137 -0.38484 0.166 -0.032053 0.00036265 -0.0012614 -0.00046779
-0.0026083 -0.0090109 -0.0013962 -0.0020474
0.0053788 0.0046283 -0.032067 0.00042372 -0.098682 0.2936 -0.00090227 -0.00033613
-0.0016623 0.00017457 -0.0032499 -0.0086338
0.0010957 -0.0069336 -0.0012587 -0.00046014 -0.00090106 -0.00032881 -0.21733 0.2067
-0.025779 -0.0051709 -0.0092545 -0.0086176
-0.0030576 -0.010863 -0.0026335 -0.0090133 -0.0016591 0.00017614 -0.025809 -0.0051423
-0.25181 0.0642 -0.0066515 -0.0065051
0.0042638 -0.0067835 -0.0013694 -0.0020433 -0.0032532 -0.0086391 -0.0092822 -0.0085988
-0.0066442 -0.0065062 -0.25465 0.11912
740000000 -0.18465 0.19807 -0.036712 0.026395 0.012205 -0.0057272 -0.00043826 -0.0040442
-0.0047424 -0.0030731 -0.0053983 0.0031378
-0.03672 0.026355 -0.33278 0.18557 -0.033159 0.034887 -0.0011262 -0.0063074
-0.011345 0.0079027 -0.0022885 -0.0055475
0.01221 -0.0057346 -0.033096 0.034955 -0.064936 0.29265 -0.0017852 0.003071
-0.003149 -0.0040709 -0.0017439 0.00079295
-0.00044051 -0.004062 -0.0011479 -0.0063016 -0.0017933 0.0030723 -0.19929 0.21499
-0.042668 -0.0035598 0.02245 0.012869
-0.0047538 -0.0030748 -0.01133 0.0079496 -0.0031563 -0.0040659 -0.042705 -0.0035137
-0.15729 0.086693 -0.039193 0.0034738
-0.005388 0.0031655 -0.0023015 -0.0055544 -0.0017514 0.00080753 0.022458 0.01286
-0.039192 0.0034482 -0.24334 0.12892
800000000 -0.15069 0.23554 -0.021187 0.017499 0.0045623 -0.010432 -0.0044294 -0.00179
-0.0033757 0.0025019 0.0034783 0.00049684
-0.021188 0.017472 -0.33345 0.25404 -0.006716 0.033472 -0.0023309 0.0023106
-0.00044895 0.0031788 0.0010242 0.0051314
0.0045334 -0.010436 -0.0066408 0.033503 -0.022498 0.31452 0.00084274 0.0017331
0.00037136 0.0035317 -0.0018137 0.0011819
-0.0044305 -0.0017939 -0.0023305 0.0023094 0.0008482 0.0017316 -0.16923 0.2412
-0.026888 0.016525 0.012748 -0.010097
-0.0033813 0.0025172 -0.00043074 0.0031872 0.00037192 0.0035333 -0.026898 0.01658
-0.19547 0.11253 -0.015924 0.018651
0.0034378 0.00046903 0.0010405 0.0051474 -0.0018162 0.0011845 0.012751 -0.010118
-0.015928 0.01863 -0.23127 0.17534
860000000 -0.11609 0.25556 -0.015833 0.030787 -0.0037682 -0.0094707 -0.0022662 0.0011565
0.0042768 0.0046855 -0.0028561 -0.0027486
-0.015836 0.030762 -0.28598 0.29501 0.0090811 0.033093 0.00018303 0.0022875
0.0041766 0.00013496 0.0031791 0.00046355
-0.0037891 -0.0094536 0.0091611 0.033088 0.025766 0.32152 -0.00040286 -3.9582e-05
0.002492 -0.0013135 0.0016241 0.0041268
-0.0022512 0.0011607 0.00018148 0.0022955 -0.00040413 -3.7641e-05 -0.13236 0.25182
-0.015365 0.020765 -0.0055418 -0.0088563
0.0042775 0.0046722 0.0041672 0.00012585 0.002501 -0.0013163 -0.01535 0.020811
-0.14337 0.15869 -0.022014 0.01619
-0.0028657 -0.0027402 0.0031896 0.00045298 0.0016283 0.0041242 -0.0055452 -0.0088506
-0.022017 0.016175 -0.18147 0.2157
920000000 -0.089532 0.27712 0.0062106 0.036636 -0.0092789 -0.0038769 -0.00152 0.0018211
0.0011754 0.0013069 0.0024984 -0.0016769
0.0061941 0.036623 -0.25574 0.31529 0.028108 0.020265 0.0017365 0.0010096
0.0068823 -0.00078918 0.0037048 -0.0028633
-0.0092935 -0.0038544 0.028181 0.020214 0.073045 0.32147 0.0019249 -0.00014919
0.0014642 -0.00057365 0.00083652 -0.0010648
-0.0015 0.0018174 0.0017259 0.0010064 0.0019257 -0.00015195 -0.10639 0.26736
-0.007375 0.030876 0.0027849 -0.0063183
0.0011844 0.0012919 0.0069118 -0.00080519 0.0014679 -0.00058686 -0.0073322 0.030918
-0.13055 0.16415 3.6302e-05 0.025812
0.0025085 -0.0016928 0.0036921 -0.0028614 0.00083637 -0.0010674 0.0027786 -0.0063287
7.2198e-06 0.025802 -0.18225 0.2304
980000000 -0.042494 0.29489 0.018397 0.028423 -0.0083831 0.0047776 0.0019925 0.003048
0.0039767 -0.0018556 -0.0031789 -0.0021597
0.018371 0.028427 -0.20387 0.34773 0.032364 0.0033398 0.0020492 -0.00034463
0.0016446 -0.0061855 -0.00055533 -0.0023625
-0.0083772 0.0047892 0.032411 0.0032761 0.11952 0.31344 0.00047543 -0.0012955
0.00014227 -0.0023206 0.001388 -0.00026105
0.0020033 0.0030482 0.00204 -0.00035955 0.00048288 -0.0013005 -0.06729 0.27657
0.010987 0.028383 -0.0085381 -0.0065444
0.0039576 -0.001884 0.0016213 -0.0061721 0.00013929 -0.0023316 0.011049 0.028384
-0.097731 0.18834 0.0062172 0.017955
-0.003176 -0.0021681 -0.00056841 -0.0023515 0.0013822 -0.00026535 -0.0085491 -0.0065364
0.006204 0.017958 -0.13826 0.26926
1040000000 0.00033286 0.30204 0.032865 0.015836 -0.0010418 0.0065675 0.0023474 0.00055526
0.00014273 -0.0032696 -0.00082076 -0.0012916
0.032848 0.015847 -0.16804 0.36082 0.027748 -0.015543 0.0014723 -0.0017824
-0.0024129 -0.0024852 -0.0014595 -0.0026984
-0.0010376 0.0065609 0.027743 -0.015629 0.16605 0.29893 -0.00057843 -0.0014798
-0.0016113 -0.00091548 -0.0004642 -0.0010265
0.0023543 0.00056275 0.0014551 -0.001793 -0.0005804 -0.0014768 -0.039181 0.28556
0.020834 0.015582 -0.0026911 0.0010847
0.00012117 -0.0032949 -0.0024117 -0.0024545 -0.0016097 -0.00090999 0.020875 0.015563
-0.065747 0.19493 0.013669 0.015827
-0.00080988 -0.0012991 -0.0014769 -0.0026826 -0.00046456 -0.0010352 -0.0026988 0.001084
0.013651 0.015821 -0.11363 0.2893
1100000000 0.045861 0.30828 0.034375 -0.0057226 0.0027374 0.0035634 0.0021335 -0.0010065
-0.0019011 -0.0027191 -0.0035426 0.00049046
0.034353 -0.0056929 -0.12446 0.37704 0.013599 -0.02747 -0.00012901 -0.0017843
-0.0033241 -0.00058225 -0.0033173 -0.00025983
0.0027445 0.0035546 0.013528 -0.027536 0.21271 0.27681 -0.001852 0.00018113
-0.0018523 0.00053761 -0.0010026 -0.00021389
0.0021385 -0.0010029 -0.00014723 -0.0017894 -0.0018579 0.0001775 0.0020458 0.28845
0.02467 0.0025305 -0.0026572 0.00022379
-0.0019121 -0.0027217 -0.0033373 -0.000559 -0.0018486 0.00054345 0.02469 0.002492
-0.047181 0.20666 0.018299 0.0063937
-0.0035462 0.00049803 -0.0033355 -0.00023098 -0.0010001 -0.00021306 -0.0026495 0.00022811
0.018285 0.006393 -0.066772 0.31355
1160000000 0.096596 0.30204 0.022022 -0.021348 0.0022782 -0.00042007 -7.1717e-05 -0.0020549
-0.0038441 -0.00047473 -0.00071544 0.0038301
0.022045 -0.021307 -0.08047 0.38076 -0.0047891 -0.028037 -0.0016279 -0.0014982
-0.0025471 0.0025663 -0.0013311 0.0016549
0.0022796 -0.00044281 -0.0048624 -0.028033 0.25502 0.24448 -0.0008167 0.0017901
-0.0004733 0.0019275 -0.00081269 0.00014723
-6.6644e-05 -0.0020453 -0.0016449 -0.0014986 -0.00081617 0.0017911 0.041266 0.28368
0.020121 -0.01249 -0.0029915 0.0044139
-0.0038474 -0.00046878 -0.0025561 0.0025968 -0.00046192 0.0019329 0.020107 -0.012526
-0.013877 0.21324 0.016881 -0.0016094
-0.0006936 0.0038381 -0.0013332 0.0016771 -0.0008174 0.0001467 -0.0029808 0.0044309
0.016881 -0.001617 -0.019817 0.31387
1220000000 0.14131 0.28931 0.0083821 -0.029348 -0.0016446 -0.0003361 0.00013226 -0.00096566
-0.0023324 0.0022951 0.0012369 0.0017983
0.0084131 -0.029309 -0.0362 0.39175 -0.017068 -0.019756 -0.002403 0.00046058
0.0001232 0.0029036 -0.00055333 0.0018968
-0.0016422 -0.00033745 -0.01714 -0.019708 0.2937 0.20429 0.00078961 0.0018494
0.00070341 0.0012759 0.00042664 0.00055733
0.0001307 -0.00095646 -0.0024038 0.00046041 0.00078906 0.0018396 0.081396 0.27337
0.0092254 -0.018466 0.0015133 0.001363
-0.0023191 0.0022886 0.00012156 0.0029075 0.00069363 0.0012752 0.0092195 -0.018489
0.0099933 0.22002 0.011677 -0.013338
0.001248 0.0017916 -0.00054653 0.001904 0.00043145 0.0005571 0.0015082 0.0013647
0.01168 -0.013329 0.01315 0.32644
1280000000 0.19 0.26572 -0.0089903 -0.026858 -0.001523 0.002911 -0.00099504 -0.0019807
-0.00065392 0.0028633 0.0023744 0.00089074
-0.0089654 -0.026842 0.0094535 0.38202 -0.023166 -0.0075144 -0.0010526 0.0013888
0.0017339 0.0016878 0.00073149 0.0017669
-0.0015104 0.0029104 -0.023215 -0.0074286 0.3231 0.15929 0.0016357 3.4159e-05
0.0011111 0.00020648 0.00027988 0.00013408
-0.0010058 -0.0019776 -0.0010504 0.0013919 0.0016411 3.3674e-05 0.11732 0.25454
-0.00063734 -0.019889 -0.00057092 0.00050737
-0.00064004 0.0028737 0.0017418 0.0016759 0.0011151 0.00021636 -0.00066965 -0.019898
0.045809 0.22159 0.0012105 -0.014832
0.0023792 0.00088248 0.00074116 0.0017552 0.00028133 0.00013393 -0.00057262 0.00051313
0.0012201 -0.014828 0.059089 0.32457
1340000000 0.22643 0.23101 -0.017869 -0.017069 0.0013998 0.0043228 -0.0017202 -0.00092281
0.0013992 0.0024818 0.0014763 -0.001473
-0.017835 -0.017067 0.0487 0.37318 -0.020669 0.0047765 -0.00013272 0.0020185
0.0019793 0.00068396 0.0013337 0.00064855
0.0014127 0.004321 -0.020669 0.0048555 0.34414 0.11128 0.0013356 -0.00096571
0.00065638 -0.00053321 0.00010902 0.00026887
-0.0017234 -0.00091943 -0.00011898 0.002022 0.0013343 -0.00096263 0.1488 0.23275
-0.0098718 -0.016599 0.00054573 0.001158
0.0014054 0.0024811 0.0019867 0.00068082 0.00065141 -0.00053475 -0.0099169 -0.016587
0.075349 0.21535 -0.0050792 -0.012748
0.0014636 -0.0014785 0.0013453 0.00064517 0.00011002 0.00026935 0.00055042 0.001159
-0.005074 -0.012758 0.097782 0.31703
1400000000 0.25859 0.19165 -0.02247 -0.0058777 0.0053086 0.0026927 -0.0021129 0.00055033
0.0022694 0.00077822 0.00014158 -0.0014009
-0.022446 -0.0058859 0.085697 0.35955 -0.013908 0.012323 0.001362 0.0013423
0.0012087 -0.0008573 0.0011157 6.9928e-05
0.0053067 0.0026796 -0.013868 0.012382 0.35679 0.057202 0.00014477 -0.0019643
3.1006e-05 -0.00044119 0.00030408 0.00014255
-0.0021042 0.00056411 0.0013603 0.0013368 0.0001483 -0.0019691 0.17701 0.20224
-0.015678 -0.0095708 -0.00047415 0.00048112
0.0022697 0.0007786 0.0012076 -0.00086979 2.9493e-05 -0.00044526 -0.01571 -0.0095493
0.10725 0.20906 -0.010838 -0.0075188
0.00013121 -0.001407 0.0011172 6.6973e-05 0.00030256 0.0001412 -0.00047368 0.00047907
-0.010832 -0.0075376 0.14096 0.30296
1460000000 0.28007 0.14703 -0.019087 0.0054175 0.0054724 -0.0022142 -0.001595 0.001702
0.001924 -0.00051673 -0.00038446 -0.00089082
-0.019077 0.0053943 0.11955 0.33729 -0.0055616 0.014822 0.0018114 0.00016284
0.00078987 -0.0013118 0.0010808 -0.00055255
0.0054645 -0.0022199 -0.005512 0.014847 0.36154 0.0026916 -0.0014941 -0.0014083
0.00013488 -0.00018053 0.0005702 -0.00033816
-0.0015917 0.0017161 0.0018157 0.0001684 -0.0014835 -0.001409 0.20107 0.1722
-0.016742 -0.0025357 -0.00025634 0.0022641
0.0019211 -0.00052519 0.00077905 -0.0013128 0.00013581 -0.00018755 -0.016758 -0.0025082
0.13532 0.19329 -0.011688 -0.0017346
-0.00039522 -0.00089006 0.001074 -0.00056178 0.00055469 -0.00034212 -0.0002602 0.0022601
-0.011687 -0.0017454 0.17278 0.28043
1520000000 0.29152 0.10452 -0.013266 0.010278 0.0029419 -0.004186 0.00016769 0.0025836
0.0020248 -0.0016234 -0.0010885 -7.6789e-05
-0.013268 0.010262 0.15304 0.32208 0.0016431 0.012575 0.001699 -0.00090562
-3.8862e-05 -0.0010934 0.00027257 -0.00091472
0.0029274 -0.004192 0.0016937 0.012583 0.35429 -0.05357 -0.001475 -0.00027809
0.0004959 -0.00087 -2.2286e-05 -9.3797e-05
0.00017337 0.0025891 0.0016982 -0.00090599 -0.001473 -0.00028458 0.22239 0.13411
-0.015702 0.003452 0.001986 0.001962
0.0020076 -0.0016326 -4.3357e-05 -0.001093 0.0004971 -0.00087634 -0.015707 0.0034857
0.16265 0.17776 -0.011222 0.0025947
-0.0010823 -7.9517e-05 0.00026713 -0.00091243 -2.2447e-05 -9.457e-05 0.0019943 0.0019557
-0.011225 0.0025817 0.205 0.25758
1580000000 0.2994 0.057767 -0.0070528 0.01267 -0.001118 -0.0047264 0.0015386 0.0018533
-0.0001101 -0.0020889 -0.00028294 0.00040073
-0.0070639 0.012653 0.18003 0.29653 0.0050974 0.0078918 0.00041199 -0.0017306
-0.0005913 -0.0010155 -0.00020731 -0.00079264
-0.0011324 -0.0047233 0.0051265 0.0078832 0.33357 -0.11134 -0.0016636 0.0010193
-0.00028853 -0.001096 0.00018043 -0.00056404
0.0015427 0.0018452 0.00040011 -0.0017359 -0.0016642 0.0010213 0.2342 0.094901
-0.012118 0.0085858 0.0025259 0.00036024
-0.00011868 -0.0020955 -0.00060385 -0.0010108 -0.00029329 -0.0010963 -0.012115 0.0086207
0.18569 0.15827 -0.0087657 0.0076542
-0.0002821 0.00040145 -0.00020852 -0.00079468 0.00017951 -0.00056766 0.0025243 0.000353
-0.0087766 0.0076551 0.23481 0.22914
1640000000 0.30021 0.016164 -0.00094308 0.011309 -0.0028268 -0.0024898 0.00271 0.00086851
-0.0007122 -0.0015668 -0.00021376 0.00064712
-0.00094654 0.011304 0.20915 0.27106 0.0056549 0.0034055 -0.00087777 -0.0016789
-0.0010546 -0.00030668 -0.00051897 -0.00059361
-0.0028314 -0.0024717 0.0056692 0.0033842 0.30415 -0.15991 -0.00051406 0.0016349
-0.0011625 -0.00082914 -0.0001547 -0.00019283
0.0027217 0.00085851 -0.00088815 -0.0016723 -0.00050673 0.0016277 0.24469 0.047392
-0.0075836 0.010157 0.0025554 -0.0012625
-0.00070992 -0.0015699 -0.0010602 -0.00029549 -0.0011644 -0.00083174 -0.0075689 0.010187
0.20694 0.13296 -0.004048 0.0093296
-0.00020978 0.00064677 -0.0005207 -0.00059224 -0.00015614 -0.00019368 0.0025588 -0.0012659
-0.004054 0.0093276 0.25907 0.19685
1700000000 0.29162 -0.029575 0.0020416 0.0085661 -0.0034696 0.00028811 0.00294 -0.0013744
-0.0020032 -0.00077652 0.00066565 0.00030837
0.0020423 0.008559 0.22701 0.23903 0.0038388 0.00060864 -0.0015153 -0.00046419
-0.0007526 0.00022287 -0.00088002 -0.00044679
-0.0034692 0.00030691 0.0038469 0.00058421 0.26113 -0.19982 0.00077545 0.0014935
-0.0018723 -6.6045e-05 -0.00059677 -0.00079799
0.002936 -0.0013739 -0.0015198 -0.00045355 0.00077456 0.0014861 0.24085 -0.00088479
-0.0041502 0.010828 0.0013742 -0.0023317
-0.002001 -0.00077158 -0.00075409 0.00022939 -0.0018767 -6.7662e-05 -0.0041394 0.010841
0.22283 0.11156 0.00044651 0.0094862
0.00066462 0.0003017 -0.00088035 -0.00043914 -0.00060176 -0.00079804 0.00137 -0.0023315
0.00045034 0.0094799 0.27376 0.16131
1760000000 0.27793 -0.077815 0.0039157 0.0054699 -0.0021877 0.00094191 0.00098305 -0.0035115
-0.0014934 0.00063047 0.00045247 -0.00042942
0.0039113 0.0054685 0.25213 0.19836 0.0016073 -0.0012982 -0.0011856 0.00030063
-0.00093835 0.00092681 -0.00064122 0.00048779
-0.0021889 0.00094773 0.0016023 -0.0013052 0.21168 -0.2333 0.0014005 0.00072558
-0.0011494 0.001605 -0.0013944 -0.00023631
0.00096438 -0.0035141 -0.0011874 0.00031281 0.0014029 0.00073779 0.2313 -0.050416
-0.00042558 0.010033 -0.00040363 -0.0024917
-0.0014901 0.00064177 -0.00093761 0.00093347 -0.0011504 0.0016116 -0.00040428 0.010043
0.23573 0.075824 0.0041194 0.0069006
0.0004483 -0.00043527 -0.00063878 0.00049533 -0.0013902 -0.00022476 -0.00039933 -0.0024988
0.0041103 0.0068894 0.2845 0.12292
1820000000 0.25205 -0.1145 0.0039067 0.0022213 -2.4243e-05 0.0024036 -0.0012637 -0.0028617
-0.0011606 0.0010575 -3.079e-06 -0.00011043
0.0038899 0.0022188 0.26143 0.16818 -0.0002284 -0.00013109 -0.0011646 0.0010187
0.00011334 0.0012595 -0.00049381 0.00059313
-8.9327e-06 0.0023936 -0.00022917 -0.00012815 0.16116 -0.24825 0.0012433 -8.1477e-05
7.2477e-05 0.0022609 -0.0012962 0.00054744
-0.0012766 -0.0028613 -0.0011724 0.0010186 0.0012364 -8.1816e-05 0.2023 -0.0958
0.0016349 0.0080806 -0.0015424 -0.0014581
-0.0011567 0.0010612 0.00012626 0.0012595 7.3891e-05 0.002262 0.0016466 0.0080814
0.25126 0.046281 0.0050072 0.0033765
8.597e-07 -0.00011289 -0.00048873 0.00059529 -0.0012972 0.00055814 -0.0015489 -0.0014488
0.0050009 0.0033744 0.28559 0.085531
1880000000 0.21564 -0.15414 0.001621 0.00027209 -0.00038377 0.0020997 -0.0029649 -0.0018217
-0.00023062 0.0018565 0.00022569 -0.00048786
0.0016139 0.00026657 0.26504 0.12113 -0.0024111 0.0016298 -9.8697e-05 0.0016026
0.00060414 0.0010114 0.0001875 0.00098483
-0.00036965 0.0021055 -0.0024159 0.0016436 0.10802 -0.25809 0.0013111 -0.0010696
0.0016897 0.001636 -0.00073909 0.0013841
-0.0029753 -0.0018169 -9.5894e-05 0.0016051 0.001314 -0.0010697 0.16312 -0.13596
0.0028368 0.0055294 -0.0022784 0.000159
-0.00021123 0.001859 0.00061429 0.0010004 0.0016906 0.0016316 0.0028472 0.0055311
0.25262 0.013131 0.0047612 0.0011839
0.00022325 -0.00049062 0.00019535 0.00098665 -0.00074462 0.0013775 -0.00228 0.00017692
0.0047599 0.0011888 0.28356 0.051216
1940000000 0.17541 -0.17901 -0.00045553 -0.0010776 0.0015333 0.0020271 -0.0035862 0.00077851
0.0015432 0.0011004 -0.00057171 -0.00062975
-0.00045415 -0.0010711 0.26444 0.08973 -0.0011957 0.0040515 0.00091173 0.0011208
0.0016174 0.00034908 0.00084996 0.00031851
0.0015408 0.0020286 -0.0011782 0.0040584 0.061794 -0.25066 0.00012387 -0.001632
0.0022338 0.00020292 0.00038188 0.0015262
-0.0035822 0.00078061 0.00092179 0.0011153 0.00013065 -0.0016373 0.11145 -0.16627
0.0020506 0.0035236 -0.0014355 0.0010486
0.0015489 0.0010867 0.0016185 0.00033508 0.0022362 0.00020262 0.0020575 0.0035288
0.25289 -0.02601 0.0037045 -0.0018502
-0.0005785 -0.00062814 0.0008538 0.00031418 0.00038603 0.0015151 -0.001433 0.0010567
0.0037002 -0.0018493 0.27087 0.014615
2000000000 0.12885 -0.19273 -0.0041254 0.0010771 0.0026573 0.0015271 -0.0021508 0.0033179
0.0013674 6.2757e-06 -0.00045706 0.00043506
-0.0041171 0.0010721 0.24993 0.054265 -0.00086219 0.0058189 0.0014841 0.00032654
0.0011189 -0.0011901 0.00049628 1.251e-05
0.0026662 0.0015126 -0.00083306 0.0058282 0.018316 -0.23592 -0.0009776 -0.00086712
0.0016702 -0.001104 0.0016931 0.00096234
-0.0021444 0.0033222 0.0014921 0.00032936 -0.00097637 -0.00086023 0.058679 -0.1773
0.00025278 0.002678 -0.00032487 0.0020489
0.0013668 3.6493e-06 0.0011087 -0.0012058 0.0016689 -0.0011039 0.0002619 0.0026853
0.2456 -0.060266 0.0003177 -0.0029272
