!Keysight Technologies,M9804A,MY58100912,A.14.10.03
!Date: Thursday, April 27, 2023 10:28:33
!Correction: S11(C  6-Port  ) 
!S12(C  6-Port  ) 
!S13(C  6-Port  ) 
!S14(C  6-Port  ) 
!S15(C  6-Port  ) 
!S16(C  6-Port  ) 
!S21(C  6-Port  ) 
!S22(C  6-Port  ) 
!S23(C  6-Port  ) 
!S24(C  6-Port  ) 
!S25(C  6-Port  ) 
!S26(C  6-Port  ) 
!S31(C  6-Port  ) 
!S32(C  6-Port  ) 
!S33(C  6-Port  ) 
!S34(C  6-Port  ) 
!S35(C  6-Port  ) 
!S36(C  6-Port  ) 
!S41(C  6-Port  ) 
!S42(C  6-Port  ) 
!S43(C  6-Port  ) 
!S44(C  6-Port  ) 
!S45(C  6-Port  ) 
!S46(C  6-Port  ) 
!S51(C  6-Port  ) 
!S52(C  6-Port  ) 
!S53(C  6-Port  ) 
!S54(C  6-Port  ) 
!S55(C  6-Port  ) 
!S56(C  6-Port  ) 
!S61(C  6-Port  ) 
!S62(C  6-Port  ) 
!S63(C  6-Port  ) 
!S64(C  6-Port  ) 
!S65(C  6-Port  ) 
!S66(C  6-Port  ) 
!S6P File: Measurement: :
# Hz S  RI   R 50
500000000 -0.34031 -0.024342 -0.010919 -0.003221 -0.0083407 0.013013 -0.0036949 0.012242
0.011797 0.004072 -0.0035292 0.0084759
-0.010906 -0.0032121 -0.42019 -0.041484 0.006177 -0.011244 0.0016212 0.01266
0.0073211 0.0021957 0.0016456 0.013679
-0.0083164 0.013025 0.0061613 -0.011263 -0.26544 0.21973 0.0067894 0.0040736
-0.0013258 0.0076822 0.0014844 0.012282
-0.0036703 0.012244 0.0016496 0.012677 0.0067915 0.0040728 -0.33353 0.056218
-0.020047 -0.0067173 0.014586 0.024483
0.011816 0.0040691 0.0073254 0.0021695 -0.0013361 0.0076821 -0.020024 -0.0066853
-0.23293 -0.17362 -0.025256 0.0045495
-0.0035317 0.0084969 0.0017347 0.013645 0.0014754 0.012242 0.014617 0.024515
-0.025286 0.0045356 -0.28088 -0.097742
560000000 -0.31527 0.13349 -0.026191 -0.060796 0.00033315 0.012048 0.0054392 0.010489
0.0092011 0.0046326 0.0099253 0.0072086
-0.026127 -0.060735 -0.37421 0.11388 -0.042027 -0.034318 0.013397 0.0037129
-0.012808 -0.0032258 0.0030728 -0.00075749
0.00036009 0.012041 -0.042152 -0.034259 -0.18153 0.26583 -0.00051054 -0.004272
0.018772 0.0038981 0.0063494 -0.0061858
0.0054665 0.010478 0.013397 0.0036862 -0.00050751 -0.0042662 -0.30686 0.14472
-8.6493e-05 -0.023242 0.0039926 -0.019647
0.0091907 0.0046203 -0.012845 -0.0032038 0.018774 0.0038797 -0.00010037 -0.02321
-0.28801 -0.00055806 0.0043148 -0.047914
0.0099385 0.0072533 0.0030856 -0.00074704 0.006272 -0.0061842 0.0040055 -0.019651
0.0042713 -0.047954 -0.33142 0.04518
620000000 -0.27248 0.11873 -0.023564 0.0079562 0.0042492 0.0080652 0.0079841 -0.0049328
0.010555 -0.0010212 0.00083164 -0.001926
-0.023543 0.0079431 -0.40215 0.069192 -0.019017 0.0011253 -0.0013905 -0.0017241
0.01107 -0.0067846 0.0013666 -0.0024691
0.0042683 0.0080505 -0.019039 0.0011752 -0.15045 0.2747 -0.0010085 -0.004882
-0.0031628 -0.0029221 0.0086488 -0.0029518
0.0079793 -0.0049535 -0.0014064 -0.0017159 -0.0010065 -0.004885 -0.26451 0.15598
-0.041014 -0.016838 0.012469 0.025308
0.010525 -0.0010352 0.011078 -0.0068238 -0.003144 -0.0028992 -0.041035 -0.016802
-0.2094 -0.040051 -0.041073 0.015203
0.00084778 -0.0018928 0.0013311 -0.0024758 0.0085339 -0.0029199 0.012466 0.025239
-0.041057 0.015183 -0.25602 0.015096
680000000 -0.22992 0.20299 -0.027415 -0.012177 0.0056002 0.0046127 0.0012452 -0.0068922
-0.0028066 -0.010804 0.0043191 -0.0069767
-0.027389 -0.012185 -0.38553 0.16527 -0.031916 0.00025387 -0.0014135 -0.00047705
-0.0022249 -0.0091413 -0.0018915 -0.002219
0.0056024 0.0046053 -0.031937 0.00034044 -0.098821 0.2938 -0.0008722 -0.00050863
-0.0016103 0.00013992 -0.0036325 -0.0087298
0.001232 -0.0068923 -0.0014165 -0.00046452 -0.00086163 -0.00051064 -0.21791 0.2063
-0.025883 -0.0046849 -0.0092523 -0.0085261
-0.0028559 -0.010805 -0.0022651 -0.0091418 -0.0016071 0.00014028 -0.025893 -0.0046452
-0.25466 0.06023 -0.0075626 -0.0065161
0.0043286 -0.0069755 -0.001882 -0.0021745 -0.0036354 -0.0087135 -0.0092316 -0.0085178
-0.0075692 -0.006546 -0.25613 0.11412
740000000 -0.18497 0.19699 -0.036665 0.027263 0.012482 -0.0056401 -0.00064109 -0.0043778
-0.0047884 -0.0030921 -0.0056143 0.0026385
-0.036648 0.02722 -0.33301 0.18424 -0.033178 0.035189 -0.00087411 -0.0063753
-0.01211 0.0076279 -0.0018664 -0.0058828
0.012461 -0.0056694 -0.033093 0.03531 -0.064877 0.29144 -0.0019708 0.0031183
-0.0030865 -0.0047195 -0.0017246 0.00098501
-0.00065495 -0.0043734 -0.00089458 -0.0063851 -0.001967 0.0031238 -0.20033 0.21391
-0.042788 -0.0033676 0.022968 0.013535
-0.0048011 -0.0030978 -0.012068 0.0077321 -0.0031019 -0.0047232 -0.042817 -0.0033135
-0.15713 0.083621 -0.039934 0.0039779
-0.0056789 0.0026928 -0.001866 -0.0058811 -0.0017391 0.00098929 0.023007 0.013564
-0.039966 0.0039312 -0.24546 0.12271
800000000 -0.15172 0.23548 -0.021064 0.017551 0.0048252 -0.010486 -0.0044759 -0.0016704
-0.0035988 0.002366 0.0036697 0.00043644
-0.021064 0.017539 -0.33464 0.25303 -0.0067651 0.033706 -0.0025692 0.0022712
-0.00066926 0.0032648 0.00089092 0.0052189
0.0047967 -0.010505 -0.0066676 0.033754 -0.023461 0.31381 0.00066594 0.0017318
0.00032951 0.0036539 -0.0017552 0.00092708
-0.0044962 -0.0016721 -0.0025644 0.0022765 0.0006671 0.0017324 -0.1706 0.24075
-0.026968 0.016875 0.013205 -0.010023
-0.0036027 0.0023929 -0.00066033 0.0033016 0.00032892 0.0036722 -0.026981 0.016921
-0.19772 0.10948 -0.015989 0.019353
0.0036807 0.00037538 0.00090634 0.0052139 -0.001758 0.00090983 0.01322 -0.010059
-0.016006 0.019331 -0.23441 0.16972
860000000 -0.11629 0.25463 -0.015703 0.030558 -0.003621 -0.0097277 -0.0020201 0.00081286
0.0041186 0.0044043 -0.0030288 -0.0027342
-0.015703 0.030525 -0.28663 0.29407 0.0090984 0.033302 5.3794e-05 0.002266
0.0038802 0.00019991 0.003066 0.00015011
-0.003647 -0.0097226 0.0092043 0.033296 0.025189 0.32094 -0.00041808 -0.00010728
0.0026139 -0.0014409 0.0017542 0.0039555
-0.0020345 0.00080934 5.6439e-05 0.0022669 -0.0004218 -0.00010645 -0.1327 0.25076
-0.014806 0.020367 -0.0056093 -0.0090533
0.0041299 0.004387 0.0038764 0.00018013 0.0026101 -0.001449 -0.014795 0.020406
-0.1445 0.15635 -0.021753 0.016526
-0.0030033 -0.0027236 0.0030915 0.00014062 0.0017699 0.0039356 -0.0055696 -0.0090956
-0.021721 0.016455 -0.18388 0.21108
920000000 -0.090521 0.27578 0.0064304 0.03653 -0.0094397 -0.0041942 -0.0015509 0.0015379
0.0012896 0.0014171 0.0025272 -0.0017308
0.0064084 0.036502 -0.25703 0.31405 0.028311 0.020433 0.0016988 0.00084019
0.0069705 -0.00080563 0.0034786 -0.0030078
-0.0094532 -0.0041743 0.028388 0.02037 0.071803 0.32077 0.0019775 -0.00017588
0.0014632 -0.00065806 0.00062069 -0.0012377
-0.0015479 0.001534 0.0017076 0.00084244 0.0019772 -0.00017617 -0.10767 0.26614
-0.0075668 0.031049 0.0028269 -0.0066834
0.0012918 0.0014212 0.0069827 -0.00084902 0.0014646 -0.00065593 -0.0075096 0.031087
-0.13233 0.16105 4.0992e-05 0.02605
0.0025131 -0.0017257 0.0034676 -0.0030185 0.00062319 -0.0012665 0.0027971 -0.0067066
3.3757e-05 0.026059 -0.18635 0.22542
980000000 -0.043636 0.29417 0.018295 0.028342 -0.0086908 0.004601 0.0018017 0.0029088
0.0038867 -0.00162 -0.0031869 -0.0020179
0.018258 0.028338 -0.20504 0.34711 0.032688 0.0033817 0.0019998 -0.00027315
0.0016566 -0.0060771 -0.00041637 -0.0024087
-0.0086756 0.0046266 0.032721 0.0032827 0.11851 0.3138 0.0005088 -0.0013225
0.00017019 -0.0022991 0.0013001 -0.00024581
0.0018177 0.0029006 0.0020062 -0.00025777 0.00050474 -0.0013261 -0.068635 0.27628
0.010889 0.028963 -0.0083893 -0.0065035
0.0038784 -0.0016302 0.0016184 -0.0061092 0.00016965 -0.0022962 0.01095 0.028953
-0.10001 0.18695 0.0066517 0.018397
-0.0031468 -0.0019897 -0.00045575 -0.0023835 0.0012846 -0.00025187 -0.0083905 -0.0064801
0.0066478 0.018393 -0.14235 0.26564
1040000000 -0.00080063 0.30108 0.032915 0.015933 -0.0013241 0.0066868 0.0022667 0.00073086
0.00013591 -0.0031139 -0.00072249 -0.0013196
0.032883 0.015924 -0.16909 0.35989 0.028091 -0.015806 0.0015084 -0.0017415
-0.0023024 -0.0025761 -0.0014352 -0.0027437
-0.0012913 0.0066885 0.028042 -0.015904 0.16553 0.29886 -0.0006151 -0.0015136
-0.0017081 -0.00089088 -0.00057388 -0.00095422
0.0022748 0.00070926 0.0015274 -0.0017295 -0.00061625 -0.0015165 -0.040075 0.28487
0.021491 0.015882 -0.0024932 0.00082516
0.00012855 -0.0031031 -0.002323 -0.0025707 -0.0016986 -0.0008857 0.021545 0.015846
-0.067296 0.1921 0.014286 0.016088
-0.00069509 -0.0013183 -0.0014472 -0.0026947 -0.00056325 -0.00094534 -0.0024827 0.00085386
0.014255 0.016114 -0.11803 0.28563
1100000000 0.043995 0.30768 0.034491 -0.0058089 0.0025876 0.0036758 0.0021212 -0.00093123
-0.0018141 -0.0028951 -0.003772 0.00030217
0.034468 -0.005786 -0.12627 0.37677 0.013679 -0.027968 -0.00011831 -0.0017922
-0.00347 -0.0007699 -0.0034601 -0.00031585
0.0026034 0.0036664 0.013581 -0.028045 0.212 0.27711 -0.0019026 0.00020412
-0.0018741 0.00061634 -0.00098802 -0.00014438
0.0021157 -0.00094365 -0.00011011 -0.0017851 -0.0019031 0.00020172 0.00046267 0.28817
0.025665 0.00224 -0.0027405 -0.00033298
-0.001833 -0.0028755 -0.0034751 -0.00074755 -0.0018831 0.00062478 0.02569 0.0022086
-0.049402 0.2043 0.018942 0.0062082
-0.0037529 0.00031433 -0.0034578 -0.00029703 -0.00099081 -0.00013232 -0.0027251 -0.00032817
0.018934 0.0062115 -0.072151 0.31101
1160000000 0.09531 0.30182 0.022059 -0.021627 0.0022244 -0.00036527 6.848e-06 -0.0018926
-0.0038691 -0.00061279 -0.0009186 0.0039371
0.022063 -0.0216 -0.081578 0.38106 -0.0050405 -0.028409 -0.0016621 -0.0016266
-0.0027047 0.0026896 -0.0013543 0.0017405
0.0022357 -0.00036852 -0.005175 -0.028402 0.25534 0.24471 -0.00080474 0.0018398
-0.0003901 0.0020351 -0.00079182 0.00022859
2.7919e-07 -0.0019072 -0.0016595 -0.0016144 -0.00081018 0.0018302 0.040283 0.28374
0.020607 -0.01331 -0.0034178 0.0043004
-0.0038895 -0.0005932 -0.0026986 0.0026942 -0.00039751 0.0020535 0.020601 -0.013341
-0.016188 0.21127 0.017204 -0.0016479
-0.00087288 0.0039442 -0.0013608 0.0017599 -0.00078924 0.00023212 -0.0034095 0.004308
0.017188 -0.0016548 -0.024599 0.31261
1220000000 0.13946 0.28918 0.0083065 -0.02966 -0.0016937 -0.000245 0.00025126 -0.00088464
-0.0024161 0.0022389 0.0012944 0.0019236
0.0083219 -0.029624 -0.037326 0.39189 -0.017471 -0.020021 -0.0024692 0.00046986
5.9642e-05 0.0031127 -0.00058341 0.001985
-0.0016811 -0.00023992 -0.017576 -0.01996 0.29345 0.20359 0.00087899 0.0018731
0.00070613 0.0013125 0.00045373 0.00063721
0.00025012 -0.00088949 -0.0024686 0.00049231 0.00088013 0.0018693 0.080048 0.27297
0.009224 -0.019498 0.0011682 0.0013865
-0.0024138 0.0022538 7.132e-05 0.0031089 0.00070039 0.0013182 0.0092008 -0.019518
0.0066571 0.21806 0.012134 -0.013916
0.0012927 0.0019101 -0.00058343 0.0019947 0.0004342 0.00064413 0.0011687 0.0013916
0.012138 -0.013928 0.0080708 0.32538
1280000000 0.1885 0.26657 -0.0094801 -0.027132 -0.001548 0.0030814 -0.00087336 -0.0020429
-0.00078171 0.0029557 0.0024319 0.00098754
-0.0094475 -0.027114 0.0087841 0.38287 -0.023661 -0.007446 -0.00098164 0.0014727
0.0018751 0.0018134 0.00076271 0.0018468
-0.0015361 0.0030867 -0.023719 -0.0073435 0.32247 0.15913 0.0017164 6.0725e-05
0.0012461 0.00023666 0.00031304 0.00010631
-0.00088197 -0.0020456 -0.00097643 0.0014768 0.0017143 6.855e-05 0.1162 0.25503
-0.0011636 -0.020859 -0.00076693 0.00064199
-0.00077281 0.0029747 0.0018867 0.0018131 0.0012383 0.0002282 -0.0012032 -0.020858
0.042557 0.22071 0.0013505 -0.015633
0.0024225 0.00098375 0.00077791 0.0018253 0.00031288 0.00010255 -0.00076515 0.00064891
0.0013564 -0.015636 0.054357 0.32485
1340000000 0.2254 0.23155 -0.018376 -0.016972 0.0015094 0.0044953 -0.0017516 -0.001003
0.0014159 0.0026169 0.0015743 -0.0014495
-0.018335 -0.016971 0.048656 0.37331 -0.02095 0.0051342 -9.611e-05 0.0020644
0.0021599 0.00065156 0.001385 0.00066626
0.0015236 0.0044849 -0.020943 0.0052463 0.34337 0.11055 0.0013164 -0.0010728
0.00070873 -0.00054298 7.1997e-05 0.00023605
-0.0017558 -0.0009944 -8.3466e-05 0.0020679 0.0013172 -0.0010707 0.1481 0.23276
-0.010905 -0.016998 0.00043458 0.0013996
0.0014302 0.0026189 0.0021734 0.00063397 0.00069636 -0.0005465 -0.010946 -0.016979
0.072171 0.21454 -0.005545 -0.013442
0.0015719 -0.0014486 0.0014083 0.00066714 6.2851e-05 0.00023486 0.00043886 0.0013925
-0.0055406 -0.013439 0.093599 0.31707
1400000000 0.25733 0.19259 -0.022863 -0.0055222 0.0055267 0.0027883 -0.0022353 0.0005594
0.0023384 0.00093563 0.00020408 -0.0014152
-0.022831 -0.0055322 0.085246 0.35964 -0.01394 0.01279 0.0013882 0.0013487
0.0012339 -0.00098585 0.0011374 3.7967e-05
0.0055364 0.0027606 -0.013897 0.012877 0.35513 0.057225 9.7245e-05 -0.0020471
-6.2747e-06 -0.00047381 0.00028399 0.0002256
-0.0022353 0.00056718 0.0014047 0.001342 0.00010354 -0.0020471 0.17583 0.2026
-0.016776 -0.0094247 -0.0005011 0.00076004
0.0023424 0.00092325 0.001234 -0.0010061 -1.6222e-06 -0.00047081 -0.016803 -0.0093906
0.10357 0.2091 -0.011653 -0.0078737
0.00019013 -0.0014239 0.001142 3.5159e-05 0.00028879 0.00022427 -0.00049183 0.0007549
-0.011647 -0.0078849 0.13633 0.30384
1460000000 0.27977 0.1481 -0.019142 0.0059995 0.005709 -0.0022353 -0.0016349 0.0017708
0.0020979 -0.00047284 -0.00034035 -0.00087381
-0.01913 0.0059852 0.1196 0.33724 -0.0053056 0.0152 0.0017767 0.00011305
0.00065671 -0.0014108 0.0010547 -0.0005645
0.005707 -0.002258 -0.0052347 0.01524 0.36078 0.0033917 -0.0016456 -0.0013777
0.0001337 -0.00015033 0.00061648 -0.00035169
-0.0016328 0.001772 0.0017838 0.00010448 -0.0016455 -0.0013857 0.20062 0.17262
-0.017636 -0.0017206 -0.00014789 0.0025544
0.0020879 -0.0004828 0.00065293 -0.0014181 0.00013448 -0.00014294 -0.017649 -0.0016713
0.13235 0.19394 -0.012522 -0.0015918
-0.00033885 -0.00087635 0.0010516 -0.00056741 0.00061482 -0.00034744 -0.00014428 0.0025483
-0.012529 -0.0016029 0.16906 0.28163
1520000000 0.29099 0.10495 -0.013016 0.010767 0.0030713 -0.004413 0.00015382 0.0027048
0.0020873 -0.00173 -0.0011309 -9.3645e-05
-0.01302 0.010741 0.15246 0.32143 0.0020537 0.012679 0.0016758 -0.00091921
-0.00015758 -0.0011075 0.00024927 -0.00092416
0.00305 -0.0044297 0.0021208 0.012678 0.35342 -0.053177 -0.0014886 -0.00020722
0.00048727 -0.00086956 9.021e-06 -0.00012592
0.00016004 0.0027053 0.0016734 -0.00092604 -0.001483 -0.00021307 0.22134 0.13402
-0.015959 0.0047012 0.0022434 0.0020686
0.0020853 -0.0017424 -0.00016514 -0.0011179 0.00048561 -0.00087321 -0.01594 0.004746
0.15945 0.17857 -0.011828 0.0031439
-0.0011417 -0.00010217 0.00023905 -0.00093787 1.968e-05 -0.00010964 0.0022447 0.0020686
-0.011822 0.0031314 0.20092 0.25891
1580000000 0.29909 0.058642 -0.0065041 0.012978 -0.0010728 -0.0049213 0.001664 0.0019595
-0.0001417 -0.0022554 -0.00031126 0.00033358
-0.0065099 0.012966 0.17914 0.29659 0.0054074 0.0077716 0.00043142 -0.0016909
-0.00062891 -0.00092362 -0.00021745 -0.00078255
-0.0010976 -0.0049207 0.0054472 0.0077463 0.33294 -0.11016 -0.0016314 0.0010992
-0.00033851 -0.0011713 7.6242e-05 -0.00063121
0.001668 0.0019521 0.00041487 -0.0016958 -0.0016318 0.0011028 0.23318 0.095628
-0.011597 0.0096632 0.0027572 0.00039607
-0.00016425 -0.0022595 -0.00063839 -0.00092834 -0.00034949 -0.0011719 -0.011578 0.0097065
0.18292 0.16002 -0.0090221 0.0084926
-0.0003098 0.00033329 -0.00021967 -0.00078224 7.7486e-05 -0.00062352 0.0027556 0.0003779
-0.0090284 0.0084953 0.23118 0.23164
1640000000 0.30013 0.016476 -0.00033864 0.011236 -0.0030001 -0.0026444 0.0028451 0.00083353
-0.00077217 -0.0016954 -0.00030548 0.00061342
-0.00035548 0.011226 0.2084 0.27086 0.0058138 0.0031619 -0.00085613 -0.0017042
-0.00095919 -0.00022943 -0.0005292 -0.00060799
-0.0030162 -0.0026262 0.0058335 0.0031255 0.30441 -0.15942 -0.00038159 0.0017262
-0.0012522 -0.00084531 -0.0002613 -0.00027006
0.0028476 0.00081494 -0.00086734 -0.0017064 -0.00038011 0.0017202 0.24391 0.047806
-0.0065316 0.010752 0.0028074 -0.0012651
-0.00077902 -0.0016888 -0.00096451 -0.00021257 -0.0012426 -0.00083026 -0.006512 0.010774
0.20497 0.13434 -0.0038682 0.010202
-0.00029197 0.00061586 -0.00053045 -0.00060394 -0.00026359 -0.00027187 0.0027977 -0.0012687
-0.0038774 0.010197 0.25606 0.19918
1700000000 0.29083 -0.028937 0.0025019 0.0081666 -0.0035919 0.0001064 0.0029414 -0.0015465
-0.0021152 -0.00075753 0.00067627 0.00037404
0.0024969 0.0081703 0.22553 0.23936 0.0038195 0.00035921 -0.0015357 -0.00050969
-0.00060003 0.00015019 -0.00086172 -0.00044083
-0.0035925 0.00012428 0.0038315 0.00034642 0.26054 -0.19892 0.00080068 0.0013944
-0.0018209 -9.0913e-05 -0.00060683 -0.00079841
0.0029346 -0.0015563 -0.0015391 -0.00051493 0.00080614 0.0013961 0.23932 0.00029306
-0.0030977 0.010696 0.0016072 -0.0025671
-0.0021201 -0.0007449 -0.00060112 0.00015334 -0.0018182 -8.4633e-05 -0.0030813 0.010704
0.2205 0.11329 0.00095612 0.010163
0.0006951 0.00036443 -0.00087183 -0.00042626 -0.00061696 -0.00080387 0.0015917 -0.0025681
0.00096003 0.010159 0.27054 0.1642
1760000000 0.27776 -0.076821 0.0040424 0.0049437 -0.0024193 0.0010384 0.00093574 -0.0035337
-0.0015699 0.00075893 0.00038254 -0.00050174
0.0040281 0.0049347 0.25137 0.19937 0.0015569 -0.001569 -0.001222 0.00029702
-0.00091525 0.00077985 -0.00063034 0.00042244
-0.0024189 0.0010501 0.0015519 -0.0015838 0.21242 -0.23256 0.0012047 0.0006036
-0.0011282 0.0015708 -0.0013238 -0.00030464
0.00092423 -0.0035363 -0.0012285 0.00029412 0.0012148 0.00060114 0.2311 -0.048659
0.0003728 0.0093803 -0.00031282 -0.002874
-0.0015703 0.00075056 -0.0009123 0.0007915 -0.0011352 0.001577 0.00040088 0.009384
0.23443 0.077818 0.0049447 0.0071476
0.00038202 -0.00050183 -0.00061859 0.00043204 -0.0013364 -0.00029495 -0.00031893 -0.0028711
0.0049399 0.0071576 0.2827 0.12639
1820000000 0.25177 -0.11385 0.0037672 0.0017705 -4.3993e-05 0.002578 -0.0013679 -0.0028978
-0.0011454 0.0011427 -0.00013165 -0.00013236
0.0037676 0.0017704 0.26061 0.16892 -0.00052556 -0.00022675 -0.0011677 0.001075
-3.126e-05 0.00113 -0.00053489 0.00051941
-3.0597e-05 0.0025811 -0.00052624 -0.00021805 0.16105 -0.24875 0.0012015 0.0002762
-0.00012186 0.0022369 -0.0014472 0.00042752
-0.0013835 -0.002891 -0.0011665 0.0010852 0.0011915 0.0002717 0.20212 -0.094619
0.0018861 0.0073259 -0.0017809 -0.0018953
-0.0011385 0.0011458 -2.558e-05 0.0011313 -0.00013098 0.00225 0.0019057 0.0073233
0.24959 0.047757 0.0058108 0.0032258
-0.00011678 -0.00014021 -0.00052662 0.00051932 -0.0014538 0.00043031 -0.0017886 -0.001882
0.0058046 0.0032171 0.28389 0.088834
1880000000 0.21574 -0.15254 0.001281 2.9705e-05 -0.0003276 0.0022065 -0.0030223 -0.00176
-0.0001584 0.0018602 0.00014512 -0.00036806
0.0012931 2.7119e-05 0.26462 0.12276 -0.0026032 0.0017093 -5.9827e-05 0.0016463
0.00042904 0.0010923 0.00010249 0.0010169
-0.00030603 0.0022063 -0.0025882 0.0017352 0.10772 -0.25739 0.001459 -0.00082551
0.0016295 0.0017875 -0.0007444 0.0014745
-0.0030307 -0.0017328 -4.4474e-05 0.0016477 0.0014572 -0.00082452 0.16359 -0.13414
0.0026743 0.0048971 -0.0026061 0.00010725
-0.00014236 0.0018645 0.00042421 0.0010815 0.0016256 0.0017865 0.0026866 0.0048857
0.25106 0.015478 0.0054547 0.00080951
0.00013162 -0.00037606 0.00011611 0.0010135 -0.00073815 0.0014656 -0.0026056 0.0001259
0.0054466 0.00081218 0.28241 0.055143
1940000000 0.17639 -0.17816 -0.00084141 -0.0011762 0.0016073 0.0018541 -0.0035351 0.00072047
0.0016113 0.0010263 -0.00042432 -0.00049575
-0.00083077 -0.0011836 0.26492 0.090628 -0.0011195 0.0039737 0.0010272 0.0011374
0.0015628 0.000591 0.00087038 0.00049522
0.0016157 0.0018389 -0.0011057 0.0039892 0.062623 -0.251 0.00033087 -0.0017432
0.0021765 0.00037744 0.00042348 0.0017791
-0.0035254 0.00073623 0.0010382 0.0011375 0.00033349 -0.0017373 0.11282 -0.16574
0.0018181 0.0031507 -0.0016786 0.0013725
0.0016314 0.0010183 0.0015754 0.00057592 0.0021752 0.00037929 0.0018289 0.0031583
0.25187 -0.024061 0.00399 -0.0025812
-0.00041251 -0.00049791 0.00088531 0.0004978 0.00044742 0.0017916 -0.00165 0.0013788
0.0039825 -0.0025766 0.27073 0.017627
2000000000 0.12911 -0.19204 -0.0045512 0.0011707 0.0023949 0.0015359 -0.0021067 0.0033782
0.0012242 6.1324e-05 -0.00048428 0.00020891
-0.004545 0.0011672 0.24997 0.055132 -0.00088591 0.0057165 0.0015103 0.00024584
0.0013025 -0.0010631 0.00062882 0.00011616
0.0024026 0.0015195 -0.00084848 0.0057205 0.017934 -0.23611 -0.00093547 -0.0010462
0.0018311 -0.001094 0.0017313 0.00099871
-0.0020837 0.003382 0.0015154 0.00023718 -0.00092755 -0.001052 0.059166 -0.17695
-8.5504e-05 0.0023358 -0.00033895 0.0022151
0.0012313 4.512e-05 0.0013008 -0.0010773 0.0018224 -0.0010948 -7.5538e-05 0.0023355
0.24414 -0.057748 0.00034118 -0.0035409
