!Keysight Technologies,M9804A,MY58100912,A.14.10.03
!Date: Thursday, April 27, 2023 10:28:33
!Correction: S11(C  6-Port  ) 
!S12(C  6-Port  ) 
!S13(C  6-Port  ) 
!S14(C  6-Port  ) 
!S15(C  6-Port  ) 
!S16(C  6-Port  ) 
!S21(C  6-Port  ) 
!S22(C  6-Port  ) 
!S23(C  6-Port  ) 
!S24(C  6-Port  ) 
!S25(C  6-Port  ) 
!S26(C  6-Port  ) 
!S31(C  6-Port  ) 
!S32(C  6-Port  ) 
!S33(C  6-Port  ) 
!S34(C  6-Port  ) 
!S35(C  6-Port  ) 
!S36(C  6-Port  ) 
!S41(C  6-Port  ) 
!S42(C  6-Port  ) 
!S43(C  6-Port  ) 
!S44(C  6-Port  ) 
!S45(C  6-Port  ) 
!S46(C  6-Port  ) 
!S51(C  6-Port  ) 
!S52(C  6-Port  ) 
!S53(C  6-Port  ) 
!S54(C  6-Port  ) 
!S55(C  6-Port  ) 
!S56(C  6-Port  ) 
!S61(C  6-Port  ) 
!S62(C  6-Port  ) 
!S63(C  6-Port  ) 
!S64(C  6-Port  ) 
!S65(C  6-Port  ) 
!S66(C  6-Port  ) 
!S6P File: Measurement: :
# Hz S  RI   R 50
500000000 -0.33963 -0.022478 -0.01059 -0.0034759 -0.0080704 0.012722 -0.0035679 0.012334
0.0117 0.0040334 -0.0036354 0.0084007
-0.010587 -0.0034715 -0.41999 -0.041007 0.0063653 -0.011672 0.0015899 0.012609
0.0075172 0.0025314 0.0015847 0.014094
-0.0080598 0.012733 0.0063494 -0.011685 -0.26444 0.21991 0.0069131 0.0038021
-0.00092776 0.0078795 0.0018078 0.012036
-0.003561 0.012344 0.0016173 0.012631 0.0069188 0.0038026 -0.33203 0.057918
-0.020333 -0.0065718 0.015737 0.025029
0.011717 0.0040124 0.00753 0.0025125 -0.00091695 0.007877 -0.020338 -0.0065577
-0.23319 -0.17167 -0.02575 0.0041345
-0.0036084 0.008413 0.0016114 0.014118 0.0018124 0.012035 0.015722 0.025039
-0.025763 0.0041316 -0.28185 -0.090719
560000000 -0.31455 0.13478 -0.025786 -0.060975 0.00060741 0.012076 0.0055886 0.010215
0.0094358 0.0047702 0.0099099 0.0074777
-0.025752 -0.060931 -0.37543 0.11606 -0.042203 -0.035678 0.013491 0.0039097
-0.012021 -0.0039301 0.0037575 -0.0011687
0.00062937 0.012064 -0.042317 -0.03562 -0.18095 0.26603 -0.00036245 -0.0044393
0.018677 0.0038811 0.0066757 -0.0063378
0.0056214 0.010217 0.013496 0.0038888 -0.00036385 -0.0044408 -0.30613 0.14595
0.00049792 -0.023655 0.0034 -0.019099
0.0094738 0.0047412 -0.012053 -0.0039165 0.018687 0.0038769 0.00047291 -0.023655
-0.28808 0.0012729 0.0049555 -0.047223
0.0099366 0.0074866 0.0037423 -0.0011899 0.0066917 -0.0063324 0.0033994 -0.019116
0.0049826 -0.047213 -0.33072 0.049852
620000000 -0.27224 0.11946 -0.023375 0.0076723 0.0038886 0.0081613 0.007525 -0.0050051
0.010987 -0.0015676 0.00039103 -0.0023449
-0.023367 0.0076619 -0.40173 0.069511 -0.01935 0.00072576 -0.0011384 -0.0019163
0.01067 -0.0065433 0.0013581 -0.0025042
0.0039108 0.0081514 -0.019384 0.00077498 -0.15055 0.27481 -0.00076483 -0.0049337
-0.0035989 -0.0025182 0.0081084 -0.0031135
0.0075335 -0.0050197 -0.0011526 -0.0019193 -0.00076751 -0.0049431 -0.26393 0.15655
-0.040799 -0.01712 0.012507 0.024039
0.010988 -0.0015829 0.010649 -0.0065902 -0.0036065 -0.0025188 -0.040801 -0.017087
-0.2091 -0.03793 -0.039689 0.015443
0.00038304 -0.0023444 0.0013552 -0.0025161 0.0081013 -0.0031062 0.012512 0.02404
-0.039738 0.015419 -0.25538 0.019801
680000000 -0.22884 0.20309 -0.027764 -0.012248 0.0054234 0.0048121 0.0013716 -0.0070821
-0.0028505 -0.010733 0.004266 -0.0070343
-0.02774 -0.012252 -0.38543 0.1652 -0.032389 0.00030658 -0.0013005 -0.0003891
-0.0024482 -0.0089233 -0.0016186 -0.0018241
0.005438 0.0047966 -0.032425 0.00038367 -0.099317 0.29365 -0.00085063 -0.00035226
-0.0016896 0.00017209 -0.0033942 -0.0085548
0.0013583 -0.007094 -0.0012995 -0.00038903 -0.00084987 -0.00034691 -0.21773 0.2062
-0.025923 -0.0051973 -0.0090457 -0.0087482
-0.0028852 -0.010732 -0.0024643 -0.0089286 -0.0016931 0.0001623 -0.025934 -0.0051735
-0.25264 0.06194 -0.0070763 -0.0062997
0.0042509 -0.0070451 -0.0016317 -0.0018188 -0.0034129 -0.008558 -0.0090883 -0.0087471
-0.0070756 -0.0062961 -0.25504 0.11734
740000000 -0.18477 0.19727 -0.037011 0.026864 0.012369 -0.0055789 -0.00083422 -0.0041884
-0.0049347 -0.0030319 -0.0059371 0.0031689
-0.036998 0.026811 -0.33312 0.18372 -0.033502 0.035187 -0.00096482 -0.0062565
-0.012196 0.0075419 -0.0020201 -0.0054017
0.012378 -0.0056213 -0.033461 0.035312 -0.06514 0.29174 -0.0018535 0.0031432
-0.0028096 -0.0045034 -0.0019575 0.0010863
-0.00085464 -0.0041831 -0.00097393 -0.0062562 -0.0018643 0.003147 -0.19993 0.21394
-0.042959 -0.0029771 0.022675 0.012894
-0.0049562 -0.0030189 -0.012175 0.0075968 -0.0028233 -0.004504 -0.042984 -0.0029396
-0.15814 0.085599 -0.039086 0.0039797
-0.0059439 0.0031773 -0.0020398 -0.0054032 -0.0019589 0.0010835 0.02269 0.012887
-0.039077 0.0039498 -0.24399 0.12559
800000000 -0.15172 0.23558 -0.021519 0.017566 0.0047599 -0.0104 -0.0045963 -0.0016301
-0.003482 0.0028819 0.0036853 0.00070523
-0.021523 0.017546 -0.33483 0.25321 -0.0068953 0.033897 -0.0024317 0.0022816
-0.00070379 0.0034326 0.0010245 0.0052302
0.0047418 -0.010417 -0.0068059 0.033944 -0.023711 0.31445 0.00083408 0.0017181
0.00038506 0.0037468 -0.0016793 0.0010197
-0.0046016 -0.001628 -0.0024324 0.0022831 0.00083691 0.0017231 -0.17034 0.24096
-0.027207 0.016715 0.012978 -0.0098812
-0.0034795 0.0028809 -0.00068783 0.0034427 0.00039001 0.0037551 -0.027194 0.016781
-0.19713 0.11092 -0.016117 0.019297
0.0037222 0.00070778 0.0010403 0.0052462 -0.0016694 0.0010233 0.01298 -0.0099024
-0.016122 0.019277 -0.23285 0.17315
860000000 -0.11604 0.25522 -0.015742 0.03084 -0.0036734 -0.0096762 -0.001998 0.0010912
0.0045468 0.004665 -0.0029038 -0.0027385
-0.015746 0.030802 -0.28658 0.29429 0.0091869 0.033412 0.00024049 0.0021653
0.0044115 0.00012776 0.0031443 0.00024937
-0.0036972 -0.0096621 0.0092927 0.033411 0.025387 0.32169 -0.00039149 -0.0001191
0.002614 -0.0013145 0.0017579 0.0040987
-0.002004 0.0010897 0.00023931 0.0021737 -0.00039136 -0.00011922 -0.13287 0.25139
-0.015191 0.020733 -0.0053676 -0.009142
0.0045695 0.0046469 0.0044194 0.00010884 0.0026163 -0.001316 -0.015172 0.020774
-0.14351 0.15756 -0.022375 0.016396
-0.0029115 -0.0027393 0.0031537 0.00023622 0.001757 0.0040964 -0.0053866 -0.0091415
-0.022403 0.016373 -0.18251 0.214
920000000 -0.090347 0.27644 0.0064232 0.036805 -0.0093865 -0.0040547 -0.0013699 0.0017332
0.0015364 0.0013214 0.0024195 -0.0017869
0.0063997 0.036777 -0.25703 0.31455 0.028399 0.020491 0.0017551 0.00083766
0.0071637 -0.00090084 0.0034478 -0.0031008
-0.0093983 -0.0040245 0.028489 0.02042 0.072187 0.32132 0.0019203 -0.00022159
0.0016653 -0.0007331 0.00074009 -0.0012203
-0.0013584 0.0017233 0.0017426 0.00084166 0.0019203 -0.0002258 -0.10758 0.26667
-0.0074296 0.031123 0.002699 -0.0065441
0.0015388 0.0013152 0.007162 -0.00092112 0.0016686 -0.00073454 -0.0073752 0.031161
-0.13149 0.16193 -0.00037233 0.025848
0.0024262 -0.0017962 0.0034363 -0.0031243 0.00073804 -0.0012226 0.0026974 -0.0065508
-0.000396 0.025847 -0.18436 0.22845
980000000 -0.043263 0.29467 0.018491 0.028553 -0.0085876 0.0047356 0.0019767 0.0028596
0.0038751 -0.0018168 -0.0031277 -0.0019921
0.018454 0.028529 -0.20493 0.34773 0.032696 0.0033745 0.0020812 -0.00035675
0.0014872 -0.0061808 -0.00052412 -0.0022678
-0.0085852 0.0047574 0.032754 0.0032717 0.11901 0.31423 0.00048761 -0.0013385
0.00011193 -0.0022859 0.0013575 -0.0002591
0.0019951 0.0028516 0.0020628 -0.00036022 0.00048884 -0.0013457 -0.068568 0.27713
0.010896 0.029117 -0.0084351 -0.0063551
0.0038824 -0.0018423 0.0014433 -0.006191 0.00010141 -0.0022865 0.010954 0.029125
-0.099632 0.18821 0.0065204 0.018863
-0.0031358 -0.0019726 -0.00054891 -0.002284 0.0013648 -0.00025728 -0.0084422 -0.0063389
0.0065153 0.018877 -0.1396 0.26817
1040000000 -0.00028989 0.3017 0.033015 0.01602 -0.0011908 0.0067197 0.0023169 0.00068799
0.00010969 -0.0031515 -0.0008013 -0.001358
0.032957 0.016017 -0.1689 0.36048 0.028051 -0.015779 0.0013714 -0.0017491
-0.0023994 -0.0025698 -0.0014652 -0.0027336
-0.0011825 0.0067319 0.028036 -0.015908 0.16604 0.29917 -0.00063933 -0.0014335
-0.0016757 -0.0009205 -0.0004871 -0.0010993
0.0023296 0.00067196 0.0013541 -0.0017392 -0.00063299 -0.0014354 -0.039513 0.28587
0.021637 0.016008 -0.0026293 0.0010407
0.00010241 -0.0031598 -0.002426 -0.0025426 -0.0016744 -0.00092279 0.021675 0.015985
-0.066588 0.19351 0.014045 0.015955
-0.00080023 -0.0013488 -0.0015057 -0.0027399 -0.00048846 -0.001095 -0.0026318 0.0010394
0.014048 0.015968 -0.11534 0.28758
1100000000 0.044632 0.3083 0.034693 -0.0057545 0.0027706 0.0036719 0.0021111 -0.0010654
-0.001854 -0.0029307 -0.0037741 0.00038063
0.034655 -0.0057335 -0.1259 0.37729 0.013729 -0.027899 -0.0001634 -0.001824
-0.0033755 -0.00069299 -0.0034318 -0.00027616
0.0027755 0.0036609 0.013642 -0.027984 0.21248 0.27741 -0.0018455 0.00022151
-0.001817 0.00064501 -0.00093816 -0.00027322
0.0021157 -0.0010759 -0.00017182 -0.0018241 -0.0018419 0.00022525 0.0013032 0.28911
0.025737 0.0023051 -0.0026006 -5.0549e-06
-0.0018653 -0.0029274 -0.0033943 -0.00067327 -0.0018188 0.00063142 0.025745 0.0022717
-0.048842 0.20563 0.018773 0.0061729
-0.0037693 0.00039878 -0.003448 -0.00025953 -0.00093353 -0.00028171 -0.0025929 -2.8592e-06
0.018781 0.0061947 -0.069513 0.31258
1160000000 0.096142 0.30239 0.022281 -0.021645 0.0024184 -0.0003694 -0.00013844 -0.002057
-0.0039345 -0.00058424 -0.00079315 0.0038384
0.022272 -0.021614 -0.080913 0.38144 -0.005043 -0.028373 -0.0016392 -0.0015272
-0.0025591 0.0025536 -0.0013168 0.001695
0.00241 -0.0003761 -0.0051457 -0.028395 0.25583 0.2449 -0.0007321 0.0018401
-0.0004602 0.0019965 -0.00086424 0.00011615
-0.00013346 -0.0020526 -0.001651 -0.0015087 -0.00073266 0.0018394 0.041533 0.28433
0.020748 -0.013353 -0.0032654 0.0044729
-0.0039296 -0.00056525 -0.0025626 0.0025774 -0.0004457 0.0019962 0.020724 -0.013379
-0.015231 0.21281 0.01694 -0.0015576
-0.00078156 0.003846 -0.0013242 0.0017019 -0.00086798 0.00011678 -0.0032558 0.0044857
0.016966 -0.001537 -0.021664 0.31385
1220000000 0.14051 0.28937 0.008523 -0.029763 -0.001566 -0.00036874 0.00012258 -0.00089478
-0.0024031 0.0022488 0.0012767 0.001842
0.0085314 -0.029733 -0.036663 0.39221 -0.017455 -0.019936 -0.0024127 0.00053148
0.00010404 0.0029963 -0.00059125 0.0019865
-0.0015714 -0.00036613 -0.017549 -0.019886 0.29396 0.20375 0.00083362 0.0017713
0.00072898 0.0012177 0.00037403 0.0005354
0.00012548 -0.00089344 -0.0024159 0.0005429 0.00083115 0.0017767 0.081342 0.2732
0.009191 -0.019532 0.0013556 0.0014888
-0.0023876 0.0022619 0.0001111 0.0029992 0.00073931 0.0012206 0.0091705 -0.019546
0.008012 0.21957 0.011867 -0.013646
0.001283 0.0018366 -0.00058739 0.0019843 0.00037718 0.00053313 0.0013536 0.0014966
0.011886 -0.013643 0.010959 0.32622
1280000000 0.18954 0.26658 -0.009332 -0.027314 -0.0015448 0.0028589 -0.00096177 -0.001951
-0.00073785 0.0029685 0.0023842 0.0008791
-0.0093063 -0.027289 0.009546 0.38291 -0.023566 -0.0073844 -0.00091273 0.00144
0.0018024 0.0017124 0.00075001 0.0018244
-0.0015359 0.0028623 -0.023629 -0.0072846 0.32304 0.15917 0.0016676 2.4297e-05
0.0011741 0.00020825 0.00024681 0.00019047
-0.0009693 -0.0019484 -0.00090036 0.0014453 0.0016703 2.6627e-05 0.11749 0.25497
-0.0011706 -0.02085 -0.00067574 0.00052873
-0.0007235 0.0029825 0.0018141 0.0017031 0.0011747 0.00020834 -0.0012172 -0.020854
0.044381 0.22216 0.001281 -0.015223
0.0023853 0.00086859 0.0007638 0.0018257 0.00024992 0.00018996 -0.0006782 0.00052857
0.0013129 -0.015245 0.057178 0.32532
1340000000 0.22642 0.23112 -0.018297 -0.017244 0.0013733 0.0042848 -0.001646 -0.00092037
0.0014565 0.0025833 0.0014923 -0.0014804
-0.018262 -0.017243 0.04929 0.37311 -0.020831 0.0050573 -8.9143e-05 0.0020145
0.0020184 0.00065377 0.001356 0.00064278
0.0013973 0.0042758 -0.020833 0.0051616 0.34407 0.11045 0.0012898 -0.0010481
0.000721 -0.00057893 8.042e-05 0.00025324
-0.0016431 -0.00090426 -7.639e-05 0.0020194 0.0012906 -0.0010539 0.1492 0.2322
-0.010922 -0.017029 0.00052968 0.0012383
0.0014722 0.0025756 0.0020276 0.00064232 0.00071938 -0.00057694 -0.010967 -0.017022
0.074386 0.21557 -0.0052832 -0.013082
0.0014889 -0.0014923 0.0013584 0.00063402 8.1726e-05 0.00025404 0.00053042 0.001239
-0.0052638 -0.013111 0.09641 0.31717
1400000000 0.25816 0.19193 -0.022966 -0.005759 0.0053505 0.00272 -0.0021323 0.00052258
0.0022937 0.00087164 0.00011451 -0.0013852
-0.022929 -0.0057677 0.085799 0.3593 -0.013844 0.012655 0.0013651 0.0013105
0.0011826 -0.00092262 0.0011127 4.0776e-05
0.0053639 0.0026992 -0.013806 0.012735 0.35576 0.057 4.5025e-05 -0.0019602
-1.7933e-05 -0.00042481 0.00032063 0.00021953
-0.002137 0.00053055 0.0013712 0.0013076 4.2803e-05 -0.0019517 0.17657 0.20185
-0.016769 -0.0094161 -0.00046122 0.00060203
0.0023046 0.00085151 0.0011722 -0.00093126 -2.2373e-05 -0.00042507 -0.016795 -0.0093797
0.10612 0.20959 -0.011259 -0.0076631
0.00010641 -0.0013907 0.0011158 2.6732e-05 0.0003197 0.00022155 -0.00046391 0.00061417
-0.011257 -0.0077 0.13903 0.30352
1460000000 0.28022 0.14724 -0.019364 0.0057767 0.0054993 -0.0021704 -0.0016256 0.0016625
0.0020311 -0.00057658 -0.00036079 -0.00082926
-0.019357 0.0057567 0.1199 0.33676 -0.0053313 0.015011 0.0017242 0.00013357
0.00072274 -0.0013679 0.0010804 -0.00055133
0.0054922 -0.0021848 -0.0052667 0.015052 0.36108 0.0029086 -0.0015602 -0.0013436
0.00010095 -0.0002005 0.00058858 -0.00032066
-0.001622 0.0016778 0.0017348 0.00013072 -0.0015725 -0.0013438 0.2011 0.17184
-0.017544 -0.0017072 -0.00020778 0.0023878
0.0020176 -0.00059137 0.00071796 -0.0013705 9.0943e-05 -0.00020463 -0.01755 -0.0016786
0.13489 0.19385 -0.012158 -0.0016163
-0.0003531 -0.00081949 0.0010806 -0.00058555 0.00058321 -0.00031803 -0.00021594 0.0023849
-0.012189 -0.0016513 0.17162 0.28113
1520000000 0.29105 0.10416 -0.013333 0.010733 0.0029509 -0.0042914 0.00013005 0.0026373
0.0019802 -0.0017132 -0.0010898 -6.3257e-05
-0.013335 0.010712 0.15257 0.32097 0.0019041 0.012553 0.0016653 -0.00088976
-9.4557e-05 -0.0011019 0.00023502 -0.00093147
0.0029327 -0.004306 0.0019674 0.012556 0.35359 -0.053588 -0.0014786 -0.00025037
0.00043365 -0.00089944 2.481e-05 -0.00012251
0.00013963 0.0026348 0.0016647 -0.00090184 -0.0014754 -0.00026136 0.2215 0.13334
-0.015905 0.0046532 0.0020873 0.0019827
0.0019752 -0.0017252 -9.5357e-05 -0.0011048 0.00043164 -0.00090409 -0.015906 0.0046795
0.1618 0.17782 -0.011562 0.0029
-0.0010837 -6.3349e-05 0.00023268 -0.00094141 2.3867e-05 -0.00012444 0.0020843 0.0019801
-0.011606 0.0028859 0.20348 0.25797
1580000000 0.29894 0.058143 -0.0068223 0.013131 -0.0011229 -0.0047459 0.0015639 0.0019523
-0.00016011 -0.0021664 -0.000247 0.00029865
-0.006826 0.013113 0.17909 0.29616 0.0052396 0.0077328 0.00043022 -0.0016872
-0.00060274 -0.00097208 -0.00023361 -0.00076276
-0.001146 -0.0047379 0.0052831 0.0077177 0.33302 -0.11029 -0.0016219 0.0010264
-0.00033643 -0.0011863 0.00010062 -0.00056935
0.0015707 0.0019556 0.00042172 -0.0016918 -0.0016186 0.0010198 0.23312 0.095113
-0.011603 0.0095691 0.0025603 0.00036577
-0.00017618 -0.0021701 -0.00061021 -0.00097017 -0.00034291 -0.0011881 -0.011584 0.0096082
0.18496 0.15879 -0.0088332 0.0081128
-0.00024748 0.00029943 -0.0002425 -0.00075538 0.00010009 -0.00057297 0.0025767 0.00036934
-0.0088736 0.0081144 0.23348 0.23053
1640000000 0.29989 0.016243 -0.00049516 0.011498 -0.0029154 -0.0024396 0.0028087 0.00087923
-0.00077136 -0.0015848 -0.00027745 0.00065854
-0.00051005 0.011491 0.20825 0.27055 0.0056943 0.0032116 -0.00084152 -0.001688
-0.0010027 -0.00022143 -0.0005319 -0.00055605
-0.0029306 -0.0024345 0.0057169 0.0031803 0.30462 -0.15965 -0.00039785 0.0016936
-0.0012157 -0.00075789 -0.00023103 -0.00026446
0.0028117 0.00087303 -0.00084154 -0.0016808 -0.00039692 0.0016946 0.24381 0.047481
-0.0066063 0.010686 0.0026395 -0.0011433
-0.00079393 -0.0015829 -0.0010095 -0.00021547 -0.0012101 -0.00075758 -0.0065792 0.010707
0.2065 0.13291 -0.0038677 0.0097784
-0.00027394 0.00066242 -0.00054233 -0.00055885 -0.00023167 -0.00026555 0.0026491 -0.0011564
-0.0039013 0.0097968 0.25831 0.19774
1700000000 0.29075 -0.028944 0.0024534 0.0084582 -0.0034555 0.00021418 0.0029559 -0.0014556
-0.0020357 -0.00065953 0.00065409 0.0003507
0.0024518 0.0084489 0.2253 0.23914 0.0036951 0.0005254 -0.0015091 -0.00048306
-0.00064017 0.00018678 -0.0008203 -0.00038005
-0.0034673 0.00022479 0.0037015 0.00050643 0.26053 -0.19931 0.00079593 0.0014374
-0.0017494 -6.7474e-05 -0.00057931 -0.00077101
0.0029457 -0.0014774 -0.0015155 -0.00047543 0.00078748 0.0014342 0.23932 0.00018655
-0.0031609 0.010651 0.0015564 -0.0024314
-0.0020493 -0.00064459 -0.00063808 0.00019161 -0.0017577 -6.6426e-05 -0.0031451 0.010672
0.22164 0.11173 0.00080632 0.0097655
0.00066142 0.00034948 -0.00082568 -0.00037722 -0.00058767 -0.00076879 0.0015629 -0.0024339
0.00079366 0.0098028 0.27248 0.16256
1760000000 0.27777 -0.076881 0.0041494 0.0051791 -0.0022406 0.0010016 0.00094732 -0.0035104
-0.0014604 0.00072721 0.0004269 -0.00040269
0.0041405 0.0051717 0.2511 0.19929 0.0015041 -0.0013399 -0.0012119 0.0002977
-0.00089555 0.00083455 -0.00057523 0.00047159
-0.0022366 0.00102 0.0014976 -0.0013478 0.21225 -0.23276 0.0012502 0.0006711
-0.001063 0.0016022 -0.0013312 -0.00028783
0.00093264 -0.0035146 -0.001209 0.00030126 0.0012513 0.00067017 0.23114 -0.048711
0.00024551 0.0094236 -0.00029229 -0.0027184
-0.0014639 0.00073801 -0.00089149 0.00084093 -0.0010622 0.0016117 0.00026296 0.0094274
0.23512 0.076272 0.0045597 0.0069179
0.0004265 -0.00040681 -0.0005718 0.00047792 -0.0013261 -0.00028778 -0.00030676 -0.0027247
0.0045606 0.0069688 0.28419 0.12445
1820000000 0.25178 -0.11385 0.0039234 0.001963 6.0903e-05 0.0024931 -0.0012852 -0.002883
-0.0010669 0.0011008 -2.7266e-05 -9.046e-05
0.0039231 0.0019611 0.26036 0.16896 -0.00041913 -3.0622e-05 -0.0011207 0.0010121
4.9814e-05 0.0011509 -0.00048789 0.00051554
7.162e-05 0.0024992 -0.000417 -2.8704e-05 0.16101 -0.24868 0.0013054 0.00012374
-1.0029e-05 0.0022476 -0.0013319 0.00045348
-0.0013021 -0.0028858 -0.0011187 0.0010193 0.0013027 0.00012625 0.20231 -0.094678
0.0017806 0.0073499 -0.0016906 -0.0017137
-0.0010645 0.0011068 6.3596e-05 0.0011601 1.915e-07 0.0022381 0.0017978 0.0073356
0.25007 0.046302 0.0054237 0.003206
-2.5389e-05 -9.3087e-05 -0.00048482 0.00051914 -0.0013308 0.00045539 -0.0016886 -0.0017282
0.0054438 0.0032508 0.28511 0.086645
1880000000 0.21588 -0.15267 0.0015245 0.00011273 -0.00022933 0.0020145 -0.0030224 -0.0018109
-0.00016139 0.0017492 0.0002105 -0.00048254
0.0015246 0.00010709 0.26444 0.12291 -0.0023885 0.0017895 -5.5612e-05 0.0016125
0.00051117 0.0010109 0.00016673 0.00093867
-0.00022993 0.0020141 -0.00238 0.001812 0.10798 -0.25733 0.0013814 -0.00091224
0.0016691 0.0017003 -0.00077474 0.00136
-0.003035 -0.0018056 -5.3575e-05 0.0016197 0.0013806 -0.00091158 0.16389 -0.13426
0.0026102 0.0049598 -0.002413 0.00016669
-0.00014759 0.0017517 0.00051152 0.0010067 0.0016744 0.0016888 0.0026245 0.0049537
0.25137 0.014151 0.0050574 0.00085245
0.00020841 -0.00048837 0.00017295 0.00093735 -0.00077126 0.0013629 -0.0024267 0.00016259
0.0051028 0.00088425 0.28333 0.052912
1940000000 0.17652 -0.17842 -0.00061523 -0.0011385 0.0014243 0.0017951 -0.0035302 0.00073745
0.0015481 0.00095985 -0.00053063 -0.00064044
-0.00061474 -0.0011339 0.26485 0.09085 -0.00098067 0.003913 0.00098247 0.0011274
0.0015621 0.00045319 0.00079445 0.00037832
0.0014292 0.0017867 -0.00096282 0.0039218 0.062822 -0.25113 0.00016329 -0.0017114
0.0021744 0.0002798 0.00038924 0.0016165
-0.0035266 0.00075399 0.00099308 0.0011237 0.00017225 -0.0017128 0.1132 -0.16588
0.0017632 0.0032633 -0.0015536 0.0011846
0.0015531 0.00095568 0.0015631 0.00044676 0.0021721 0.00027995 0.0017619 0.003259
0.25201 -0.025278 0.0036954 -0.0023146
-0.00054157 -0.0006383 0.00079578 0.00037116 0.00039964 0.0016179 -0.0015612 0.0011843
0.003739 -0.0023006 0.27149 0.01538
2000000000 0.12934 -0.19238 -0.0042145 0.0011035 0.0022993 0.001523 -0.0021131 0.0034145
0.0011713 1.1627e-05 -0.00051811 0.00025624
-0.0042181 0.0011046 0.25002 0.055322 -0.00087498 0.0055052 0.0014754 0.00027961
0.0011748 -0.0011215 0.0005547 5.2007e-05
0.00231 0.001503 -0.00084053 0.0055238 0.018017 -0.23635 -0.000948 -0.00097624
0.0017654 -0.0010434 0.0015845 0.0010202
-0.0020968 0.0034304 0.0014747 0.00027599 -0.00093403 -0.00097881 0.059604 -0.17731
-8.1501e-05 0.0024849 -0.00032312 0.0021752
0.001179 -1.0451e-06 0.0011749 -0.0011324 0.0017584 -0.001047 -6.5555e-05 0.0024842
0.24417 -0.058959 7.5611e-05 -0.0032654
