!Keysight Technologies,M9804A,MY58100912,A.14.10.03
!Date: Thursday, April 27, 2023 10:28:33
!Correction: S11(C  6-Port  ) 
!S12(C  6-Port  ) 
!S13(C  6-Port  ) 
!S14(C  6-Port  ) 
!S15(C  6-Port  ) 
!S16(C  6-Port  ) 
!S21(C  6-Port  ) 
!S22(C  6-Port  ) 
!S23(C  6-Port  ) 
!S24(C  6-Port  ) 
!S25(C  6-Port  ) 
!S26(C  6-Port  ) 
!S31(C  6-Port  ) 
!S32(C  6-Port  ) 
!S33(C  6-Port  ) 
!S34(C  6-Port  ) 
!S35(C  6-Port  ) 
!S36(C  6-Port  ) 
!S41(C  6-Port  ) 
!S42(C  6-Port  ) 
!S43(C  6-Port  ) 
!S44(C  6-Port  ) 
!S45(C  6-Port  ) 
!S46(C  6-Port  ) 
!S51(C  6-Port  ) 
!S52(C  6-Port  ) 
!S53(C  6-Port  ) 
!S54(C  6-Port  ) 
!S55(C  6-Port  ) 
!S56(C  6-Port  ) 
!S61(C  6-Port  ) 
!S62(C  6-Port  ) 
!S63(C  6-Port  ) 
!S64(C  6-Port  ) 
!S65(C  6-Port  ) 
!S66(C  6-Port  ) 
!S6P File: Measurement: :
# Hz S  RI   R 50
500000000 -0.3394 -0.021589 -0.010359 -0.0034478 -0.0077459 0.012414 -0.0031891 0.01237
0.011621 0.0033976 -0.0028345 0.0085828
-0.010345 -0.0034411 -0.41914 -0.040487 0.0068454 -0.012045 0.0017658 0.012317
0.0072744 0.0021875 0.0019175 0.013592
-0.0077331 0.012414 0.0068354 -0.012057 -0.26336 0.21999 0.0069315 0.0033884
-0.00071936 0.0077036 0.0018392 0.011467
-0.0031683 0.012386 0.0017907 0.012331 0.0069343 0.0033892 -0.33226 0.057922
-0.019696 -0.0059631 0.015086 0.02396
0.011628 0.003366 0.0072919 0.0021724 -0.00070849 0.0076982 -0.019693 -0.00595
-0.23384 -0.17063 -0.025398 0.0055662
-0.0028193 0.0085911 0.0019478 0.0136 0.0018454 0.011477 0.015105 0.023945
-0.025389 0.005563 -0.28317 -0.090823
560000000 -0.31246 0.1346 -0.025948 -0.060955 0.00095544 0.011503 0.0053079 0.0097334
0.0095243 0.0046568 0.0098199 0.0072355
-0.025914 -0.060887 -0.3739 0.11507 -0.042115 -0.034936 0.013463 0.0035523
-0.012553 -0.0039201 0.0041331 -0.0015759
0.00098189 0.011488 -0.042242 -0.034876 -0.1807 0.265 -0.00032661 -0.0046071
0.018275 0.0038538 0.0068736 -0.0064423
0.0053404 0.0097207 0.013479 0.0035328 -0.00032129 -0.0046056 -0.30573 0.14585
0.0010578 -0.024422 0.0035359 -0.01905
0.0095435 0.0046242 -0.012569 -0.0038962 0.018259 0.0038531 0.001053 -0.024429
-0.28709 0.0011544 0.0050457 -0.047884
0.0098344 0.0072423 0.0041443 -0.0015889 0.0068748 -0.0064446 0.0035338 -0.019064
0.0050563 -0.047891 -0.3299 0.050159
620000000 -0.27128 0.11989 -0.023108 0.0072775 0.0038352 0.0079763 0.0071276 -0.0051768
0.011296 -0.0016294 0.00023146 -0.0022976
-0.023085 0.0072568 -0.40128 0.069537 -0.019228 0.00034716 -0.0014009 -0.0017707
0.01071 -0.006742 0.00093501 -0.0025541
0.0038635 0.0079759 -0.019252 0.00039616 -0.1504 0.27416 -0.0010299 -0.004789
-0.0037726 -0.0026017 0.0077587 -0.0030373
0.007121 -0.0051875 -0.0014103 -0.0017744 -0.0010354 -0.0047924 -0.26371 0.15682
-0.040248 -0.01738 0.012851 0.023946
0.011303 -0.0016733 0.010708 -0.0067726 -0.0037756 -0.0026015 -0.040251 -0.017352
-0.2088 -0.037226 -0.03962 0.014586
0.00019769 -0.0022977 0.00092785 -0.0025662 0.0077476 -0.0030466 0.012848 0.023945
-0.039646 0.014567 -0.25481 0.02134
680000000 -0.22814 0.20226 -0.027646 -0.012741 0.0052546 0.0046308 0.001206 -0.0071379
-0.0030594 -0.010554 0.004058 -0.0066198
-0.027626 -0.01275 -0.38522 0.16499 -0.032228 0.00010266 -0.0015801 -0.00029769
-0.0024978 -0.0087606 -0.0017702 -0.0020574
0.0052649 0.0046293 -0.032245 0.00017878 -0.099472 0.29335 -0.00089301 -0.00022051
-0.0018222 0.0005042 -0.0034953 -0.0086592
0.001201 -0.0071279 -0.0015827 -0.00029728 -0.00089829 -0.00021704 -0.21717 0.20662
-0.025867 -0.0056084 -0.0093838 -0.0083268
-0.0030731 -0.010544 -0.0025334 -0.008764 -0.0018269 0.00051077 -0.025879 -0.0055778
-0.2515 0.061439 -0.0066404 -0.0071513
0.004034 -0.0066314 -0.0017896 -0.0020548 -0.0035086 -0.0086641 -0.0094084 -0.0083166
-0.0066379 -0.0071523 -0.25494 0.11772
740000000 -0.18502 0.19656 -0.037309 0.026281 0.012044 -0.0057369 -0.00090088 -0.0041743
-0.0047543 -0.0028543 -0.0057282 0.0030039
-0.037295 0.026234 -0.33329 0.18423 -0.033494 0.034726 -0.000916 -0.0063785
-0.011507 0.0075657 -0.0016623 -0.0052449
0.012032 -0.0057436 -0.03342 0.03483 -0.065441 0.29219 -0.001665 0.0029868
-0.002909 -0.0043286 -0.0018314 0.0010141
-0.00091428 -0.0041605 -0.00093559 -0.0064005 -0.0016655 0.0030002 -0.19988 0.21402
-0.042628 -0.0033189 0.02259 0.012228
-0.0047604 -0.0028594 -0.01149 0.0076346 -0.0028981 -0.0043396 -0.042651 -0.0032868
-0.15787 0.083945 -0.039184 0.0034034
-0.0057113 0.0030114 -0.0016722 -0.0052381 -0.0018422 0.0010115 0.022602 0.012209
-0.039182 0.0033662 -0.24289 0.12586
800000000 -0.15207 0.23531 -0.021827 0.017377 0.0045013 -0.01014 -0.0046218 -0.0016831
-0.003306 0.0028153 0.0038119 0.00060096
-0.021816 0.017351 -0.33489 0.25337 -0.0070344 0.0337 -0.0024455 0.0022649
-0.00041334 0.0033133 0.0012051 0.0051776
0.0044716 -0.010152 -0.0069435 0.033741 -0.023569 0.31485 0.00089941 0.0016542
0.00047713 0.0036663 -0.0016762 0.0010369
-0.0046111 -0.0016718 -0.0024359 0.0022838 0.00090807 0.0016512 -0.17013 0.24117
-0.027141 0.016321 0.013019 -0.0097003
-0.0032906 0.0028275 -0.00040092 0.003321 0.00048085 0.0036671 -0.027129 0.016381
-0.19696 0.11029 -0.016481 0.018408
0.0038207 0.00060185 0.0012148 0.0051913 -0.001679 0.0010318 0.012997 -0.0097139
-0.016499 0.01839 -0.2325 0.17423
860000000 -0.11667 0.25529 -0.016159 0.031015 -0.0038156 -0.0093111 -0.0021927 0.0010939
0.0045631 0.0043015 -0.0029216 -0.0025227
-0.016167 0.030976 -0.2868 0.29479 0.0089069 0.033196 0.00018833 0.0022997
0.0044998 -8.9496e-05 0.003138 0.00038625
-0.0038462 -0.0093062 0.0090153 0.033205 0.02585 0.32186 -0.00041403 -6.4132e-05
0.0026532 -0.0013105 0.0015315 0.0042406
-0.00219 0.0010978 0.0002045 0.0023038 -0.00041738 -6.4255e-05 -0.13252 0.25171
-0.015237 0.020316 -0.005828 -0.0090053
0.0045918 0.0042994 0.0045166 -0.00011807 0.0026542 -0.0013183 -0.01521 0.020361
-0.14456 0.15657 -0.022233 0.016284
-0.0029364 -0.002508 0.0031375 0.00037062 0.0015419 0.0042381 -0.0058336 -0.0090084
-0.022238 0.016264 -0.18258 0.21438
920000000 -0.090741 0.27705 0.0061077 0.037148 -0.00918 -0.0036468 -0.001435 0.0018616
0.0012773 0.0014077 0.0025791 -0.0017356
0.0060812 0.037115 -0.25686 0.3149 0.028042 0.020459 0.0017308 0.00081635
0.006767 -0.00069229 0.0035207 -0.0028401
-0.0092018 -0.0036225 0.028143 0.020398 0.072665 0.32112 0.0019264 -0.00017676
0.0014796 -0.00067126 0.00080468 -0.0010485
-0.0014352 0.0018681 0.0017353 0.00082125 0.001925 -0.00017476 -0.10736 0.26683
-0.0076974 0.030588 0.0023438 -0.0062516
0.0012761 0.0014039 0.0067779 -0.00072686 0.0014824 -0.0006819 -0.0076396 0.030615
-0.13207 0.16167 -0.00073401 0.025876
0.0025692 -0.0017404 0.0035048 -0.0028586 0.0007996 -0.0010443 0.0023413 -0.0062593
-0.00074944 0.02587 -0.18405 0.22875
980000000 -0.043352 0.2953 0.018331 0.028705 -0.0082352 0.0048216 0.0020662 0.0030764
0.0039839 -0.0016929 -0.0031059 -0.0020914
0.018299 0.0287 -0.20454 0.34819 0.032258 0.0035057 0.0020372 -0.00033877
0.0014345 -0.0059959 -0.0004586 -0.0022548
-0.0082234 0.0048296 0.0323 0.0034215 0.11927 0.31372 0.00050392 -0.00132
0.00016857 -0.0022208 0.0014493 -0.00018769
0.0020705 0.0030644 0.0020407 -0.00032974 0.00050057 -0.0013284 -0.068118 0.27715
0.01028 0.028698 -0.0083752 -0.0059898
0.0039657 -0.0017178 0.0014229 -0.0060162 0.00016789 -0.0022128 0.010348 0.028686
-0.10008 0.18763 0.0061219 0.018402
-0.0031094 -0.0020675 -0.00047796 -0.002277 0.0014494 -0.00019824 -0.0083877 -0.0059822
0.0061059 0.018396 -0.13951 0.26888
1040000000 -6.1864e-05 0.30208 0.032942 0.016246 -0.00088999 0.0066286 0.0025116 0.00053569
0.00025588 -0.0031943 -0.00061819 -0.0011898
0.032915 0.016263 -0.16822 0.36069 0.027766 -0.01534 0.0014125 -0.0017058
-0.0021903 -0.0023308 -0.0013056 -0.0026736
-0.00088452 0.0066154 0.027754 -0.015435 0.16589 0.29848 -0.00056164 -0.0014208
-0.0015758 -0.00090615 -0.00039678 -0.0010718
0.002508 0.00052069 0.0014262 -0.0016989 -0.00055444 -0.0014204 -0.039121 0.28558
0.02067 0.015881 -0.0024511 0.00134
0.00022758 -0.0031878 -0.0021926 -0.0023355 -0.0015762 -0.00090477 0.020717 0.015842
-0.066865 0.19358 0.013355 0.016083
-0.00062713 -0.0011777 -0.0013375 -0.0026722 -0.00039974 -0.0010745 -0.0024448 0.0013516
0.013341 0.016085 -0.11473 0.28826
1100000000 0.045111 0.3086 0.034478 -0.0054116 0.0028554 0.0035408 0.0021676 -0.0011795
-0.0019241 -0.0028898 -0.0035853 0.00031689
0.03445 -0.0053907 -0.12514 0.37716 0.013725 -0.027235 -0.00013661 -0.0018376
-0.0031205 -0.00064738 -0.0032506 -0.00036496
0.0028576 0.0035267 0.013641 -0.02731 0.21171 0.27683 -0.0018331 0.00021191
-0.0017487 0.00060803 -0.00092778 -0.00036108
0.0021686 -0.0011924 -0.0001338 -0.0018349 -0.0018371 0.00021435 0.0015845 0.28875
0.024679 0.0028191 -0.0024712 0.0001246
-0.0019441 -0.0028805 -0.0031271 -0.00063566 -0.0017406 0.00061544 0.024699 0.0027881
-0.048978 0.20591 0.018246 0.006501
-0.0035896 0.00033972 -0.003258 -0.00035386 -0.00092819 -0.00036351 -0.0024626 0.00012691
0.018242 0.0065022 -0.068564 0.31291
1160000000 0.096734 0.30252 0.022288 -0.021043 0.00247 -0.00050792 -0.00015888 -0.0021544
-0.0038698 -0.000549 -0.00075448 0.0036642
0.022297 -0.021005 -0.080297 0.38078 -0.0044922 -0.027895 -0.0016691 -0.0015648
-0.0024466 0.002384 -0.0012144 0.0015461
0.0024664 -0.00053166 -0.0045975 -0.027894 0.25465 0.24498 -0.00076122 0.0017864
-0.00050372 0.0018505 -0.00089357 4.4688e-05
-0.0001586 -0.0021604 -0.0016656 -0.0015534 -0.00076577 0.0017817 0.041533 0.28385
0.020087 -0.012223 -0.0030468 0.0045491
-0.0038906 -0.00053077 -0.0024276 0.0023967 -0.00050255 0.0018646 0.020085 -0.012245
-0.015033 0.21304 0.016452 -0.0010758
-0.00073756 0.0036766 -0.0012116 0.0015427 -0.00088989 3.9436e-05 -0.0030399 0.0045546
0.016454 -0.001071 -0.021089 0.31389
1220000000 0.14106 0.28916 0.0088998 -0.029182 -0.0015528 -0.00055862 3.1695e-05 -0.00089553
-0.0023198 0.0022769 0.0012725 0.0017648
0.0089094 -0.029144 -0.036574 0.39132 -0.016742 -0.019825 -0.0024059 0.00043269
1.3758e-05 0.0027979 -0.00059459 0.0018214
-0.0015532 -0.00054937 -0.016846 -0.019766 0.29308 0.20474 0.00077201 0.0017424
0.00063492 0.0011865 0.00036051 0.00052015
3.4535e-05 -0.00089993 -0.0024073 0.00044598 0.00077586 0.0017475 0.080975 0.27284
0.0093551 -0.018134 0.0016455 0.0014121
-0.0023095 0.0022859 3.3588e-05 0.0028005 0.000626 0.0011839 0.0093303 -0.018137
0.0084339 0.21966 0.011835 -0.012733
0.001279 0.0017658 -0.00058157 0.0018249 0.00036468 0.00052389 0.0016486 0.0014116
0.011826 -0.012729 0.011478 0.32629
1280000000 0.18982 0.26605 -0.0084907 -0.026964 -0.0015415 0.0026627 -0.00095788 -0.0018922
-0.0006035 0.0028752 0.0022762 0.00084318
-0.0084637 -0.026938 0.0090218 0.3821 -0.022835 -0.0077117 -0.00099433 0.0013792
0.0015613 0.0016716 0.00064765 0.0017583
-0.0015333 0.0026738 -0.0229 -0.0076188 0.32307 0.16056 0.0015495 3.9459e-05
0.001037 0.00024972 0.00028146 0.00014217
-0.00096848 -0.001879 -0.00098766 0.0013835 0.0015483 4.9932e-05 0.1169 0.25485
-0.00019932 -0.019586 -0.0004237 0.00038017
-0.00058836 0.0028882 0.0015688 0.0016564 0.0010333 0.00024188 -0.00023991 -0.019594
0.044806 0.22187 0.0016157 -0.014346
0.0022826 0.00083123 0.00065314 0.0017589 0.00028289 0.00014701 -0.00041981 0.00037937
0.0016251 -0.01435 0.057897 0.32517
1340000000 0.22635 0.23073 -0.017428 -0.01756 0.0011698 0.0041159 -0.0015816 -0.00085118
0.0014412 0.0024839 0.0014052 -0.0014447
-0.017402 -0.017551 0.04841 0.37286 -0.020529 0.0044027 -0.00018924 0.0020339
0.0018797 0.00084257 0.0013195 0.00063719
0.0011873 0.0041208 -0.020533 0.0045028 0.34485 0.11171 0.0012314 -0.00089091
0.00063103 -0.00049138 8.0745e-05 0.00020061
-0.001585 -0.00083914 -0.00017383 0.0020313 0.0012362 -0.00088479 0.14862 0.23246
-0.0093397 -0.016547 0.00070325 0.0009639
0.0014624 0.0024727 0.0018862 0.00083454 0.00063312 -0.0004926 -0.0093687 -0.016537
0.074603 0.21497 -0.0043656 -0.012547
0.0013928 -0.0014559 0.0013238 0.00063006 8.2347e-05 0.00020022 0.00070785 0.00096539
-0.0043682 -0.012541 0.096568 0.31728
1400000000 0.25774 0.19162 -0.022354 -0.006552 0.0050503 0.0026704 -0.002041 0.00046722
0.002231 0.00073258 0.00017003 -0.0013472
-0.022322 -0.0065517 0.084796 0.35959 -0.013971 0.011972 0.0013069 0.0014141
0.0012232 -0.00070095 0.0011614 0.00010196
0.0050649 0.0026441 -0.013928 0.012048 0.35702 0.057558 0.0001639 -0.0018342
2.6366e-05 -0.00042782 0.00027971 0.00011725
-0.0020367 0.00047379 0.0013156 0.0014042 0.00016101 -0.001842 0.17615 0.20246
-0.015089 -0.0098789 -0.00054023 0.0002065
0.0022411 0.00070353 0.0012245 -0.00070215 2.9943e-05 -0.00043093 -0.01511 -0.009842
0.10602 0.20893 -0.010063 -0.0076919
0.00015857 -0.0013509 0.0011613 8.6537e-05 0.00028317 0.00011665 -0.00054133 0.00020382
-0.010051 -0.0076963 0.13936 0.30371
1460000000 0.27977 0.14743 -0.019353 0.0047542 0.0052637 -0.0020481 -0.0016288 0.0015298
0.0018321 -0.00054789 -0.00031983 -0.00090528
-0.019333 0.0047323 0.11923 0.33768 -0.0058554 0.01451 0.0017823 0.00019228
0.00089845 -0.0012809 0.0011174 -0.00054275
0.0052451 -0.0020674 -0.0057975 0.014553 0.3624 0.0028314 -0.001433 -0.0013748
0.00011504 -0.00017275 0.00057893 -0.00034573
-0.0016192 0.0015298 0.0017828 0.00018412 -0.0014343 -0.001373 0.20096 0.17263
-0.016365 -0.0031847 -0.00043594 0.0021548
0.001837 -0.00056361 0.00089498 -0.0012831 0.00011373 -0.00017568 -0.016382 -0.0031412
0.13456 0.19311 -0.011204 -0.0022466
-0.00033606 -0.00089949 0.00111 -0.000557 0.00058309 -0.00034691 -0.00043281 0.0021579
-0.011215 -0.002242 0.17198 0.28137
1520000000 0.29084 0.10471 -0.013842 0.009865 0.0028016 -0.0040393 4.2992e-05 0.0025889
0.0019227 -0.0015323 -0.001061 -0.00015136
-0.013837 0.0098473 0.15242 0.32208 0.0012852 0.012506 0.0017225 -0.00088152
6.9831e-05 -0.0011956 0.00028381 -0.00096146
0.0027838 -0.0040504 0.0013548 0.012509 0.35458 -0.054257 -0.0014241 -0.00035736
0.00047305 -0.000875 -3.9972e-05 -0.00010089
4.5589e-05 0.0025909 0.0017249 -0.00089001 -0.0014251 -0.00036594 0.22182 0.13423
-0.015792 0.0027628 0.0017427 0.0018715
0.001907 -0.0015502 6.0747e-05 -0.0011957 0.00047262 -0.0008776 -0.015791 0.0027926
0.1611 0.17732 -0.011058 0.0018251
-0.0010612 -0.00014441 0.00028469 -0.00097002 -4.0564e-05 -0.00010425 0.0017509 0.0018708
-0.011056 0.0018214 0.20414 0.25816
1580000000 0.2991 0.058744 -0.0077099 0.012639 -0.0011302 -0.004458 0.001442 0.0019635
-0.0001235 -0.0020036 -0.0003471 0.00033705
-0.0077024 0.012617 0.17952 0.29734 0.0047291 0.0080075 0.00044703 -0.0017232
-0.00060901 -0.0011323 -0.0002189 -0.00081659
-0.0011569 -0.0044648 0.0047726 0.0079908 0.33348 -0.11127 -0.0016682 0.00092618
-0.00023274 -0.0011059 0.00010824 -0.00047704
0.0014438 0.0019571 0.00043327 -0.0017303 -0.0016687 0.00092164 0.23394 0.09584
-0.012607 0.0080269 0.0023119 0.00055319
-0.00014 -0.0019943 -0.00061448 -0.0011397 -0.00023823 -0.001111 -0.012593 0.0080574
0.18403 0.15859 -0.0089719 0.0070529
-0.0003462 0.0003394 -0.00022175 -0.00080994 0.00010711 -0.00048127 0.0023167 0.00054549
-0.0089764 0.0070496 0.23426 0.2303
1640000000 0.30052 0.016687 -0.001499 0.011625 -0.0026658 -0.0022348 0.0027425 0.00097546
-0.00059438 -0.0015259 -0.00028394 0.00066949
-0.0015079 0.011616 0.20917 0.27139 0.0054753 0.0036499 -0.00083213 -0.00172
-0.0011379 -0.00033177 -0.000517 -0.0005452
-0.0026774 -0.0022273 0.0054957 0.0036242 0.30447 -0.16056 -0.00052603 0.0016251
-0.0011075 -0.00081107 -0.00014237 -0.00013139
0.0027453 0.00096453 -0.00084349 -0.0017193 -0.00052186 0.0016251 0.24501 0.047702
-0.0082686 0.010022 0.0024929 -0.0010075
-0.00060464 -0.0015207 -0.001145 -0.00033111 -0.0011092 -0.00081393 -0.0082515 0.010042
0.20546 0.13315 -0.0045253 0.0088591
-0.00027852 0.00067395 -0.00052645 -0.00053972 -0.00014698 -0.00013028 0.0024883 -0.0010118
-0.0045291 0.0088591 0.25899 0.19737
1700000000 0.29173 -0.028929 0.0017172 0.0091114 -0.0032345 0.00018721 0.0029872 -0.001299
-0.0019541 -0.00075781 0.00063074 0.00041338
0.0017119 0.009104 0.22651 0.23949 0.003759 0.00089333 -0.0015466 -0.00047664
-0.00081895 0.00027736 -0.00080914 -0.00039495
-0.0032408 0.00020111 0.0037691 0.00087206 0.26026 -0.20009 0.00067436 0.0015226
-0.0017529 -0.00016859 -0.00041166 -0.00072613
0.0029828 -0.0013111 -0.0015573 -0.00047085 0.00066961 0.0015308 0.24063 -0.00029158
-0.0047628 0.011053 0.0014627 -0.0021848
-0.0019486 -0.00075152 -0.00081519 0.00028034 -0.0017602 -0.00016885 -0.0047464 0.011065
0.22084 0.11239 -6.6319e-05 0.009335
0.00063435 0.00040839 -0.00081627 -0.00038866 -0.00042054 -0.00072578 0.0014578 -0.0021979
-6.1643e-05 0.0093442 0.27296 0.16187
1760000000 0.27866 -0.077415 0.003938 0.0060842 -0.0020621 0.00086359 0.0010777 -0.0034482
-0.0015033 0.00057894 0.00052974 -0.00039179
0.0039317 0.0060753 0.25239 0.19907 0.001741 -0.0010429 -0.0012171 0.00031702
-0.00092961 0.0010096 -0.00059059 0.00047266
-0.0020638 0.00087933 0.0017401 -0.0010472 0.21158 -0.23321 0.001295 0.00076935
-0.0011209 0.0015595 -0.0012306 -0.00037296
0.0010608 -0.0034554 -0.0012113 0.00031809 0.0012867 0.00076132 0.23206 -0.049915
-0.00070434 0.01049 -0.00033549 -0.0024554
-0.0014983 0.00059199 -0.00091878 0.00102 -0.0011216 0.0015498 -0.00068929 0.01049
0.23457 0.077216 0.0035479 0.006941
0.00052478 -0.0003981 -0.00058752 0.00047809 -0.0012385 -0.00036695 -0.00033485 -0.0024509
0.0035579 0.0069411 0.28441 0.12368
1820000000 0.25219 -0.11477 0.0042133 0.002697 7.05e-05 0.0023813 -0.0011666 -0.0029263
-0.0011876 0.0010476 8.6594e-05 -0.00013738
0.0042039 0.002689 0.26137 0.16825 -9.3563e-05 0.00011936 -0.0011395 0.0010341
0.00017794 0.0012958 -0.00047453 0.00053379
7.4215e-05 0.00238 -9.6365e-05 0.0001184 0.16041 -0.24821 0.0014134 6.6088e-05
-6.958e-05 0.0022425 -0.0013618 0.00037765
-0.0011737 -0.0029293 -0.0011333 0.0010301 0.001412 6.0074e-05 0.20243 -0.096188
0.0015515 0.0085634 -0.0015758 -0.0014647
-0.0011773 0.0010553 0.0001831 0.0012983 -7.1268e-05 0.002249 0.0015655 0.0085685
0.25 0.047456 0.00464 0.0036523
8.4299e-05 -0.00013376 -0.00047225 0.00054094 -0.0013655 0.00037295 -0.001585 -0.0014533
0.0046324 0.0036484 0.28502 0.085937
1880000000 0.21571 -0.15372 0.0020534 0.00047864 -0.00040002 0.0019277 -0.0029211 -0.001899
-0.00027293 0.0018401 0.00019549 -0.00056001
0.0020462 0.00048371 0.26499 0.12188 -0.0022032 0.0016828 -5.0245e-05 0.0016165
0.00070015 0.00095517 0.00015999 0.00093016
-0.00039548 0.0019299 -0.0021908 0.0016973 0.10764 -0.25728 0.0014144 -0.0010488
0.0016131 0.0016994 -0.0008351 0.0012839
-0.0029276 -0.0018876 -4.2866e-05 0.0016195 0.0014128 -0.0010449 0.16321 -0.13561
0.0029641 0.0059575 -0.0021889 0.00024516
-0.00027083 0.0018416 0.00070429 0.00094758 0.0016132 0.0016857 0.0029828 0.0059544
0.25178 0.015181 0.0045325 0.0016242
0.00019285 -0.0005588 0.00016394 0.00092778 -0.00083803 0.001278 -0.0021893 0.00025083
0.0045351 0.0016299 0.28307 0.052454
1940000000 0.17588 -0.17907 -6.3297e-05 -0.0010672 0.0013953 0.0017436 -0.003554 0.00059561
0.0016023 0.0010717 -0.00059272 -0.0005942
-6.267e-05 -0.0010669 0.26488 0.089759 -0.00095734 0.0038023 0.0010067 0.0011065
0.00168 0.00026121 0.00078792 0.00032289
0.0014103 0.0017457 -0.0009237 0.0038173 0.062267 -0.25067 8.577e-05 -0.0016997
0.0021728 0.00027275 0.00025805 0.0014907
-0.0035549 0.00060985 0.0010134 0.0010927 8.5859e-05 -0.0017021 0.11188 -0.16663
0.0023837 0.0038597 -0.0013102 0.0011765
0.0016133 0.0010683 0.0016884 0.00024815 0.0021807 0.00026676 0.00239 0.0038601
0.25282 -0.02448 0.0036229 -0.0014537
-0.00059914 -0.00059063 0.0007897 0.00031114 0.00026938 0.0014788 -0.0013112 0.0011776
0.0036334 -0.0014554 0.27119 0.015125
2000000000 0.12865 -0.1927 -0.0037388 0.00095174 0.0023432 0.0015927 -0.0022199 0.0032868
0.0013195 1.1748e-05 -0.00059125 0.00033753
-0.0037349 0.00094935 0.24961 0.054479 -0.00080451 0.0055808 0.0014799 0.00019758
0.0010971 -0.001314 0.00050824 0.00010255
