!Keysight Technologies,M9804A,MY58100912,A.14.10.03
!Date: Thursday, April 27, 2023 10:28:33
!Correction: S11(C  6-Port  ) 
!S12(C  6-Port  ) 
!S13(C  6-Port  ) 
!S14(C  6-Port  ) 
!S15(C  6-Port  ) 
!S16(C  6-Port  ) 
!S21(C  6-Port  ) 
!S22(C  6-Port  ) 
!S23(C  6-Port  ) 
!S24(C  6-Port  ) 
!S25(C  6-Port  ) 
!S26(C  6-Port  ) 
!S31(C  6-Port  ) 
!S32(C  6-Port  ) 
!S33(C  6-Port  ) 
!S34(C  6-Port  ) 
!S35(C  6-Port  ) 
!S36(C  6-Port  ) 
!S41(C  6-Port  ) 
!S42(C  6-Port  ) 
!S43(C  6-Port  ) 
!S44(C  6-Port  ) 
!S45(C  6-Port  ) 
!S46(C  6-Port  ) 
!S51(C  6-Port  ) 
!S52(C  6-Port  ) 
!S53(C  6-Port  ) 
!S54(C  6-Port  ) 
!S55(C  6-Port  ) 
!S56(C  6-Port  ) 
!S61(C  6-Port  ) 
!S62(C  6-Port  ) 
!S63(C  6-Port  ) 
!S64(C  6-Port  ) 
!S65(C  6-Port  ) 
!S66(C  6-Port  ) 
!S6P File: Measurement: :
# Hz S  RI   R 50
500000000 -0.33846 -0.021158 -0.010408 -0.0034656 -0.0076681 0.012251 -0.0031646 0.012161
0.011685 0.0034722 -0.0029493 0.0086482
-0.0096534 -0.0035088 -0.41944 -0.040271 0.0067101 -0.011832 0.001728 0.012523
0.0074251 0.0020286 0.0017031 0.01404
-0.0075046 0.012436 0.0071008 -0.01183 -0.26339 0.21998 0.0069131 0.0035114
-0.0010068 0.0077754 0.0019123 0.011846
-0.0016924 0.011677 0.0016491 0.012596 0.0070634 0.0035039 -0.33182 0.058162
-0.019977 -0.0062154 0.015454 0.024651
0.012821 0.0028977 0.0074305 0.0017854 -0.00080647 0.0078217 -0.01978 -0.0061315
-0.23279 -0.1712 -0.025398 0.0053097
-0.0020977 0.0060414 0.0018917 0.013751 0.0021636 0.011672 0.015633 0.024569
-0.025547 0.0051938 -0.28243 -0.08996
560000000 -0.31314 0.13392 -0.025942 -0.0609 0.00095018 0.011583 0.0054686 0.0098852
0.0096644 0.0050684 0.0095904 0.0072993
-0.026944 -0.06065 -0.37441 0.11462 -0.04185 -0.035663 0.013258 0.0034494
-0.012015 -0.0037962 0.0039104 -0.0014808
0.00075617 0.010646 -0.042104 -0.035221 -0.18039 0.26553 -0.00020732 -0.0044757
0.017997 0.0040853 0.0070125 -0.0061887
0.0050114 0.010132 0.013544 0.0028162 -0.00026124 -0.0046411 -0.30562 0.1457
0.0013004 -0.024242 0.0033855 -0.019058
0.0098727 0.0042202 -0.013331 -0.0032757 0.018671 0.0040063 0.0011527 -0.024034
-0.28631 0.0012098 0.0053488 -0.046829
0.0091831 0.0073345 0.0041604 -0.0020603 0.0067964 -0.0061283 0.0034639 -0.019006
0.0049406 -0.046746 -0.33034 0.049751
620000000 -0.26967 0.11992 -0.02281 0.0072315 0.0037984 0.0079531 0.0073279 -0.0053128
0.011138 -0.0011008 0.00064422 -0.0021503
-0.022642 0.0074868 -0.40118 0.06933 -0.019178 0.00043426 -0.0015624 -0.0018746
0.010814 -0.0067221 0.0010466 -0.0025872
0.0044175 0.0078664 -0.019266 0.00042855 -0.15035 0.27412 -0.00093494 -0.0049257
-0.0036973 -0.0023475 0.0080324 -0.0029404
0.0080057 -0.0051573 -0.0012078 -0.0017791 -0.00079778 -0.0048598 -0.26398 0.15669
-0.040428 -0.01753 0.012424 0.024276
0.010935 -0.0015435 0.010713 -0.006822 -0.0037784 -0.0027575 -0.040306 -0.0173
-0.20833 -0.037738 -0.03909 0.014763
0.00082403 -0.0034316 0.0010459 -0.0025667 0.0082355 -0.0031744 0.012388 0.024015
-0.039159 0.014401 -0.25545 0.021276
680000000 -0.22823 0.20215 -0.027535 -0.012823 0.005208 0.004785 0.0010996 -0.0069813
-0.0029857 -0.01075 0.0036627 -0.0066507
-0.027623 -0.012749 -0.38521 0.16491 -0.032322 0.00013809 -0.0014585 -0.00048718
-0.0024408 -0.0088875 -0.0017103 -0.0019709
0.0049776 0.0047095 -0.032243 0.0001929 -0.099624 0.29342 -0.00087641 -0.00033723
-0.0019363 0.00031121 -0.0036228 -0.0086017
0.00080815 -0.007613 -0.0014162 -0.00049112 -0.00094954 -0.0003522 -0.21788 0.20653
-0.025867 -0.0055282 -0.0094646 -0.0087323
-0.0039825 -0.010677 -0.0023849 -0.0088345 -0.0018318 0.00042444 -0.025899 -0.0054586
-0.25183 0.061248 -0.0069336 -0.0066956
0.0031167 -0.0065525 -0.0016359 -0.0022312 -0.0036558 -0.0086472 -0.0096157 -0.0086953
-0.0069068 -0.0071124 -0.25537 0.11763
740000000 -0.18563 0.19589 -0.037361 0.026382 0.012076 -0.0054949 -0.00083266 -0.0043888
-0.0046945 -0.002749 -0.005683 0.002897
-0.036963 0.026232 -0.33373 0.1844 -0.033522 0.034646 -0.0010639 -0.0062484
-0.011587 0.0075345 -0.0017144 -0.0050169
0.012048 -0.0054893 -0.033499 0.034791 -0.065555 0.29218 -0.0018401 0.0030295
-0.0029476 -0.0042812 -0.0019891 0.000955
-0.00030418 -0.0039407 -0.0014516 -0.0061283 -0.001821 0.0031187 -0.19986 0.21425
-0.043034 -0.0034367 0.022658 0.012824
-0.0036828 -0.0025997 -0.010616 0.007859 -0.003177 -0.0041748 -0.042923 -0.0033672
-0.15728 0.084772 -0.039352 0.0029996
-0.0061705 0.0028521 -0.0025255 -0.005252 -0.0019146 0.0009096 0.022505 0.012682
-0.039478 0.0028106 -0.24303 0.12613
800000000 -0.15174 0.23493 -0.021872 0.017271 0.0045415 -0.010154 -0.0044478 -0.0017555
-0.0033782 0.0029773 0.0039397 0.00056721
-0.022144 0.017073 -0.33499 0.25313 -0.007011 0.033717 -0.0024105 0.0022747
-0.00044854 0.0033744 0.0011787 0.0051264
0.0045996 -0.01017 -0.0069833 0.033754 -0.023585 0.31481 0.00091825 0.0016358
0.00033421 0.003678 -0.0016182 0.00095548
-0.0047138 -0.0018801 -0.0023626 0.002371 0.00092955 0.0016233 -0.17003 0.24108
-0.02721 0.016479 0.013185 -0.009971
-0.0040637 0.0028585 -0.00047115 0.0029242 0.00039706 0.0038113 -0.02711 0.016393
-0.19683 0.1102 -0.016523 0.018555
0.0036127 0.00078687 0.0012093 0.0053082 -0.0015335 0.00091413 0.013197 -0.0097881
-0.016589 0.018576 -0.2324 0.17336
860000000 -0.11722 0.25537 -0.016107 0.03103 -0.0037781 -0.0092235 -0.0021523 0.0012657
0.0045242 0.0045267 -0.0029783 -0.0027899
-0.016204 0.030917 -0.28674 0.29476 0.0089563 0.033228 0.00017531 0.0023174
0.0043562 -7.3615e-05 0.0031489 0.00020496
-0.003908 -0.0092647 0.0089845 0.033214 0.025831 0.32187 -0.00044947 -5.3922e-05
0.0026796 -0.001337 0.0015585 0.0042142
-0.0021852 0.0012751 0.00012738 0.0024509 -0.00042697 -4.0402e-05 -0.13255 0.25182
-0.015252 0.020405 -0.0056533 -0.0091198
0.0045355 0.0050387 0.0045178 -0.00014637 0.0026891 -0.0011517 -0.015106 0.020416
-0.14427 0.1567 -0.022793 0.016222
-0.0029817 -0.0028375 0.0029628 0.00030801 0.0015854 0.0041227 -0.0058562 -0.0092005
-0.02269 0.016186 -0.18229 0.21434
920000000 -0.090473 0.27679 0.0061453 0.037135 -0.0091668 -0.0036281 -0.001379 0.0018435
0.0014074 0.0013278 0.0024123 -0.0017457
0.0060679 0.03712 -0.25695 0.31493 0.028091 0.020497 0.0017021 0.00088668
0.0067952 -0.00088295 0.0032658 -0.0028817
-0.009155 -0.0036314 0.028117 0.02045 0.072661 0.32113 0.0019516 -0.0001858
0.0015249 -0.00066981 0.00081029 -0.0010396
-0.0010774 0.001825 0.0018073 0.00089367 0.0019893 -0.00014427 -0.10733 0.26687
-0.0076023 0.030514 0.0023571 -0.0062458
0.0013746 0.0013212 0.0067519 -0.00084636 0.0015134 -0.00064433 -0.0075201 0.030568
-0.13208 0.16171 -0.00056134 0.025958
0.0025914 -0.0017427 0.0033358 -0.0028009 0.00077841 -0.0010027 0.0022821 -0.0062888
-0.00063442 0.025889 -0.18436 0.22866
980000000 -0.043686 0.29519 0.018261 0.028779 -0.0082536 0.0048002 0.0020729 0.0030787
0.0040284 -0.0017507 -0.0031859 -0.0020641
0.018201 0.028686 -0.20462 0.34819 0.032264 0.0035137 0.0020347 -0.00034188
0.0014379 -0.0060095 -0.0005046 -0.0022812
-0.0082688 0.0048217 0.032331 0.003408 0.11927 0.3137 0.00050525 -0.0013392
0.00015508 -0.0022548 0.001468 -0.0002469
0.0018998 0.0030504 0.0020836 -0.00035215 0.0004844 -0.0013344 -0.068065 0.27723
0.010291 0.02869 -0.00846 -0.0060929
0.0038342 -0.0018422 0.0013672 -0.0061333 8.8704e-05 -0.002215 0.010399 0.02871
-0.10005 0.18765 0.0060832 0.018509
-0.00333 -0.00222 -0.00061118 -0.0022697 0.0014174 -0.00017013 -0.0084315 -0.0060666
0.006151 0.018531 -0.13955 0.26845
1040000000 -7.7987e-05 0.30219 0.032912 0.016303 -0.00090633 0.0066122 0.0024529 0.00059017
0.00018999 -0.003258 -0.00068476 -0.0012142
0.032829 0.016321 -0.16832 0.36073 0.027799 -0.015306 0.0014279 -0.0017317
-0.0022552 -0.0023638 -0.0013463 -0.0026872
-0.0008393 0.00663 0.027732 -0.015402 0.16587 0.29851 -0.00056821 -0.0014362
-0.0015966 -0.0009154 -0.00038783 -0.0010955
0.0025542 0.00072208 0.0014078 -0.0016804 -0.00058831 -0.0014415 -0.039154 0.28556
0.020709 0.015879 -0.0025139 0.0012829
0.00010806 -0.0032585 -0.0023052 -0.0023276 -0.0016117 -0.00090218 0.020682 0.015852
-0.066995 0.1935 0.013505 0.016194
-0.00063058 -0.0011508 -0.001384 -0.0026132 -0.00039588 -0.0011139 -0.0023891 0.0012904
0.013534 0.016162 -0.11517 0.288
1100000000 0.045075 0.30853 0.03453 -0.0053766 0.0028411 0.0035379 0.0021889 -0.0011427
-0.0019089 -0.0028867 -0.0035789 0.00034999
0.034517 -0.0053409 -0.1252 0.37716 0.013741 -0.027231 -0.00013466 -0.0018181
-0.003171 -0.00066642 -0.0033038 -0.0003006
0.0028912 0.0035212 0.013652 -0.027301 0.21169 0.27686 -0.0018138 0.00019464
-0.0017857 0.00052905 -0.0009456 -0.00031647
0.0022009 -0.0011672 -0.00011003 -0.0018368 -0.0018178 0.00019461 0.0016283 0.28866
0.024633 0.0027734 -0.0024639 8.6716e-05
-0.0018229 -0.0030389 -0.0031466 -0.0007054 -0.0017712 0.00055573 0.024682 0.0027329
-0.049082 0.20586 0.018314 0.006449
-0.0038056 0.00029369 -0.0032803 -0.00036114 -0.00094367 -0.0002754 -0.0023686 0.00017076
0.018293 0.0064303 -0.069048 0.31285
1160000000 0.096621 0.3025 0.022352 -0.021002 0.002479 -0.00057376 -0.00017003 -0.0021551
-0.0038995 -0.00054093 -0.00069974 0.0036897
0.022382 -0.020973 -0.080375 0.38079 -0.0044377 -0.027909 -0.0016624 -0.0015636
-0.002551 0.0023739 -0.0012827 0.0016251
0.0024389 -0.00056886 -0.0045879 -0.027923 0.25467 0.245 -0.00075151 0.0017618
-0.00054578 0.0018411 -0.00090211 6.4957e-05
-0.00015885 -0.0020751 -0.0016721 -0.0015 -0.00073454 0.0017702 0.04153 0.28373
0.020108 -0.012224 -0.0030295 0.004554
-0.0039804 -0.00041794 -0.0024882 0.0024329 -0.00050629 0.0018389 0.020137 -0.012276
-0.015033 0.21293 0.016543 -0.00099508
-0.00065607 0.0036835 -0.001311 0.0015923 -0.00084677 0.00015069 -0.0029297 0.0045685
0.016518 -0.0010763 -0.021269 0.31405
1220000000 0.14092 0.28924 0.0089384 -0.0292 -0.0015363 -0.00057476 5.9413e-05 -0.00087473
-0.0023365 0.0022982 0.0012301 0.0017567
0.0089859 -0.029174 -0.036619 0.39127 -0.016729 -0.019837 -0.0024151 0.00044683
-4.2348e-06 0.0027765 -0.00062675 0.0018618
-0.001558 -0.00057591 -0.016832 -0.019767 0.29305 0.20476 0.00076488 0.0017735
0.0006348 0.0011941 0.00031207 0.00053515
-1.7477e-05 -0.00088386 -0.0024058 0.00049037 0.00075648 0.0017854 0.080923 0.2728
0.0093171 -0.018146 0.0016597 0.0013962
-0.0023166 0.002328 1.1678e-05 0.002783 0.00063486 0.0012228 0.0093053 -0.018143
0.0082293 0.21935 0.011863 -0.012879
0.001277 0.0018477 -0.00071661 0.0018977 0.00030331 0.00056541 0.0016105 0.0013485
0.011892 -0.012852 0.011397 0.32621
1280000000 0.18967 0.26614 -0.0084867 -0.027042 -0.0015658 0.002647 -0.00094635 -0.0018975
-0.00060988 0.0028819 0.0022918 0.00088662
-0.0084798 -0.027041 0.0089795 0.38211 -0.022843 -0.0077303 -0.0010157 0.0013604
0.0015578 0.0016882 0.00064158 0.0018
-0.0015835 0.0026419 -0.022927 -0.0076161 0.32306 0.16057 0.0015655 3.0756e-05
0.0010593 0.00024115 0.00024934 0.00019354
-0.00091602 -0.0018919 -0.00099598 0.0013451 0.0015401 4.4259e-05 0.11683 0.25483
-0.00019997 -0.019608 -0.00044163 0.00036087
-0.00052023 0.0028217 0.0015493 0.0017485 0.0010728 0.0002526 -0.00023833 -0.019624
0.044488 0.22169 0.0017236 -0.014499
0.0022694 0.00086216 0.00064496 0.0017643 0.00028802 7.6072e-05 -0.00040672 0.00040436
0.0017429 -0.014443 0.05741 0.32507
1340000000 0.2263 0.23082 -0.017407 -0.017601 0.0011469 0.0041462 -0.0015965 -0.00079276
0.0014452 0.0025088 0.0014121 -0.0014117
-0.017384 -0.017607 0.048359 0.37286 -0.020553 0.004392 -0.0001989 0.0020479
0.0019202 0.00083533 0.0013111 0.00067993
0.0011715 0.004078 -0.020546 0.0044885 0.34485 0.11172 0.0012288 -0.00089954
0.00067093 -0.00051379 9.2778e-05 0.00024174
-0.0016099 -0.00079412 -0.00018606 0.0020406 0.0012371 -0.00095127 0.1485 0.23242
-0.0093692 -0.016534 0.00070319 0.00091985
0.0013959 0.0024672 0.0019013 0.0008059 0.00064312 -0.00052706 -0.0094066 -0.01655
0.074315 0.21487 -0.0043763 -0.01258
0.0014045 -0.0013367 0.0011757 0.00065959 9.8381e-05 0.00014848 0.00067297 0.0008843
-0.0043926 -0.012576 0.096445 0.31718
1400000000 0.25769 0.19169 -0.022378 -0.006574 0.0050593 0.0026773 -0.0020452 0.00048173
0.0022012 0.0007507 0.00013473 -0.0013577
-0.022392 -0.0065996 0.084706 0.35957 -0.013966 0.011958 0.0013081 0.0013953
0.0012398 -0.00070684 0.0011633 8.464e-05
0.0050615 0.0026224 -0.01394 0.012056 0.35703 0.057506 0.00018171 -0.0018318
2.9617e-05 -0.00041226 0.00027256 0.00012922
-0.0020328 0.00050041 0.0013236 0.0013637 0.00016767 -0.0018427 0.17609 0.20246
-0.015091 -0.0098502 -0.00055009 0.00026435
0.0022406 0.00072089 0.0012458 -0.00075016 1.2104e-05 -0.000408 -0.015156 -0.0098657
0.10562 0.20896 -0.010187 -0.0077134
0.00012494 -0.0013582 0.0011924 3.577e-05 0.0002874 0.00010257 -0.00053512 0.00021929
-0.010184 -0.0077422 0.13909 0.30375
1460000000 0.27984 0.14754 -0.01936 0.0048158 0.0052518 -0.0020708 -0.001637 0.0015679
0.0018769 -0.00052085 -0.00034612 -0.00084586
-0.019352 0.0048028 0.11917 0.33769 -0.0058575 0.014484 0.0017716 0.00019147
0.00089427 -0.0012708 0.0011061 -0.00055642
0.0052977 -0.0020966 -0.005806 0.014553 0.36235 0.0027905 -0.0014396 -0.0013593
0.0001396 -0.00017182 0.00057583 -0.00035225
-0.0015962 0.0015542 0.0017605 0.00020511 -0.0014267 -0.0013731 0.20091 0.17269
-0.01638 -0.0031709 -0.00042058 0.0021989
0.0017935 -0.00053523 0.00084982 -0.0012716 0.00014602 -0.00019079 -0.016415 -0.0031068
0.13435 0.19328 -0.011275 -0.0022592
-0.00037059 -0.00087399 0.001027 -0.00060423 0.00055776 -0.00031432 -0.00042391 0.0021904
-0.011271 -0.0022819 0.17187 0.2814
1520000000 0.29088 0.10476 -0.013869 0.0099129 0.0028331 -0.0040402 4.5411e-05 0.0025745
0.0019428 -0.0015343 -0.0010851 -0.00015359
-0.01385 0.0098978 0.15236 0.32211 0.0012717 0.012515 0.00172 -0.00088755
6.4965e-05 -0.0012097 0.0002653 -0.00094426
0.0028284 -0.0040425 0.0013304 0.012546 0.35455 -0.054269 -0.0014231 -0.00035979
0.00046477 -0.00089119 -5.6146e-05 -6.7808e-05
3.746e-05 0.0025696 0.0017247 -0.00090288 -0.0014564 -0.00034919 0.22181 0.13428
-0.015779 0.002759 0.0017724 0.0019195
0.001892 -0.0015702 2.7256e-05 -0.0012068 0.00048383 -0.00090597 -0.015775 0.0028347
0.16089 0.17746 -0.011155 0.0018954
-0.001114 -0.00012743 0.00024467 -0.00091124 -0.00010124 -0.00011977 0.0017589 0.0019093
-0.011133 0.0019153 0.20397 0.2581
1580000000 0.29924 0.058771 -0.0076921 0.012698 -0.0011337 -0.0044368 0.0014566 0.0019631
-0.00012477 -0.0020331 -0.00031933 0.00034087
-0.0076872 0.012711 0.17945 0.2974 0.0047203 0.0080092 0.00046831 -0.0017266
-0.00059863 -0.001151 -0.00021593 -0.000785
-0.0011019 -0.0043469 0.0047605 0.0079968 0.33343 -0.11134 -0.001679 0.00090778
-0.00023283 -0.0011238 0.00011434 -0.00051939
0.0014831 0.0018979 0.00046363 -0.0017366 -0.0016514 0.00091629 0.23395 0.09591
-0.012572 0.0080319 0.0023071 0.00050864
-6.9629e-05 -0.0020348 -0.00062514 -0.0011349 -0.00023485 -0.0011166 -0.012588 0.0080785
0.18393 0.15882 -0.009023 0.0071179
-0.00034414 0.00025803 -0.00018594 -0.00081016 9.0565e-05 -0.00051054 0.0023076 0.00051663
-0.0090381 0.0071158 0.23404 0.23037
1640000000 0.30057 0.016669 -0.001473 0.011656 -0.0026575 -0.0022171 0.0027564 0.00097339
-0.00061686 -0.0015439 -0.00031205 0.00066169
-0.0014803 0.01165 0.20915 0.27145 0.0054719 0.0036675 -0.00083747 -0.0017131
-0.001137 -0.00032902 -0.00052708 -0.00054845
-0.002677 -0.0022479 0.0054983 0.0036269 0.30445 -0.1605 -0.00052204 0.0016596
-0.0011482 -0.00083446 -0.00017335 -0.00013729
0.0026982 0.00097158 -0.00085418 -0.0017071 -0.00052364 0.0016356 0.24507 0.047783
-0.00824 0.010028 0.0025239 -0.0010226
-0.00067153 -0.00155 -0.0011721 -0.00032749 -0.0011491 -0.00083012 -0.0082271 0.010066
0.2055 0.13333 -0.0045024 0.0089525
-0.0003361 0.00078156 -0.00052797 -0.0005526 -0.00014913 -0.00017344 0.002502 -0.001055
-0.0045161 0.0089438 0.25884 0.19746
1700000000 0.29172 -0.028992 0.0017362 0.009106 -0.0032355 0.0002105 0.0029588 -0.0013185
-0.0019602 -0.00076354 0.00062459 0.0004157
0.0017477 0.0091141 0.2265 0.23955 0.0037687 0.00088031 -0.0015496 -0.00048852
-0.00081494 0.00027094 -0.00082528 -0.00039702
-0.0032338 0.00023501 0.0037909 0.00086149 0.26019 -0.20009 0.00068904 0.0015247
-0.0017903 -0.00018162 -0.00043811 -0.00073474
0.0029685 -0.0013369 -0.0015549 -0.0004874 0.00064 0.0015281 0.24068 -0.00027677
-0.0047465 0.011074 0.0014424 -0.002224
-0.0019629 -0.00073579 -0.00081041 0.00027767 -0.0018337 -0.00016061 -0.00472 0.011076
0.22077 0.11251 -9.094e-05 0.0093915
0.00061528 0.00041575 -0.00082128 -0.00036963 -0.00039623 -0.00074516 0.0014532 -0.0022395
-9.2825e-05 0.0094337 0.27285 0.16199
1760000000 0.27869 -0.07748 0.0039734 0.0060679 -0.0020669 0.00085888 0.0010476 -0.0034413
-0.0014827 0.00059662 0.00053477 -0.00040806
0.0039662 0.0060738 0.25237 0.19917 0.001761 -0.0010558 -0.0012311 0.00031439
-0.00093309 0.00099646 -0.00056392 0.00047329
-0.002048 0.00083446 0.0017351 -0.0010678 0.2116 -0.23322 0.0013132 0.00076987
-0.0011103 0.0015524 -0.0011726 -0.00034645
0.0010127 -0.0034018 -0.0012167 0.00029638 0.0013085 0.00077546 0.23214 -0.049904
-0.00067458 0.010479 -0.00030206 -0.0025119
-0.0014965 0.00055799 -0.00092075 0.00098861 -0.001117 0.001554 -0.00061219 0.010474
0.2347 0.077315 0.003646 0.007015
0.00056278 -0.00038938 -0.00062997 0.0004393 -0.0011775 -0.00028915 -0.00029291 -0.0024998
0.0036309 0.0069991 0.28426 0.12391
1820000000 0.25211 -0.11481 0.0042354 0.0026551 4.1685e-05 0.0023723 -0.001185 -0.0029031
-0.001189 0.001043 5.466e-05 -0.00016212
0.0042362 0.0026538 0.26141 0.16831 -0.00010266 9.7185e-05 -0.0011267 0.0010295
0.00018753 0.0012815 -0.00047921 0.0005365
6.163e-05 0.0023297 -8.0678e-05 0.00010557 0.16035 -0.24821 0.0014276 6.9809e-05
-6.0849e-05 0.0022175 -0.0013261 0.00033553
-0.0011961 -0.0029947 -0.0011267 0.0010341 0.0014329 8.0697e-05 0.20241 -0.09611
0.0015759 0.0085576 -0.0015666 -0.0015344
-0.0011621 0.0010728 0.00016792 0.0012643 -5.8014e-05 0.0022265 0.001573 0.0085487
0.24995 0.047452 0.0047039 0.0036925
-7.7636e-05 -0.00012895 -0.00044032 0.00053009 -0.001335 0.00039728 -0.0016359 -0.0014474
0.0046928 0.0036969 0.28487 0.086194
1880000000 0.21559 -0.15375 0.0020745 0.00045667 -0.00037935 0.0019198 -0.0029318 -0.0019445
-0.00026281 0.0018302 0.00019085 -0.00059112
0.0020404 0.00045908 0.26504 0.1219 -0.0022056 0.0016833 -3.7579e-05 0.001616
0.00070162 0.00097948 0.00017288 0.00090958
-0.00032584 0.0019269 -0.002172 0.0016602 0.10761 -0.25725 0.0014086 -0.0010129
0.0016191 0.0016958 -0.00078575 0.0012515
-0.0029563 -0.0018039 -8.5853e-05 0.0016039 0.001372 -0.0010249 0.16325 -0.13555
0.0029636 0.0059072 -0.0022201 0.00025192
-0.00020756 0.0019261 0.00068059 0.00093046 0.0016011 0.001692 0.0029985 0.0059246
0.2517 0.015174 0.0046182 0.0016315
0.00034984 -0.00062644 0.00017363 0.00090919 -0.00079531 0.0012399 -0.0022155 0.00025949
0.0045665 0.0016285 0.28302 0.05269
1940000000 0.17599 -0.17898 -6.5317e-05 -0.0010581 0.0013185 0.0017452 -0.003605 0.00059647
0.0015401 0.0010965 -0.00061932 -0.00067229
-3.0015e-05 -0.0010964 0.26495 0.089822 -0.00094871 0.0038193 0.0010085 0.0010974
0.001658 0.00028783 0.00080261 0.00031317
0.0013687 0.0017454 -0.00091643 0.0038508 0.062233 -0.25061 9.5328e-05 -0.0016749
0.0021568 0.0002353 0.00025558 0.0015218
-0.0035417 0.00047441 0.00098366 0.0011328 9.5827e-05 -0.0016711 0.11195 -0.16663
0.0024032 0.003822 -0.0012815 0.0011351
0.0015889 0.0010136 0.0016267 0.00027181 0.0021714 0.00027527 0.0024114 0.0038002
0.25282 -0.024476 0.0037282 -0.0014683
-0.00070489 -0.00058162 0.0007462 0.00033317 0.00028049 0.0016057 -0.0012957 0.0011546
0.0036955 -0.0014498 0.27117 0.015356
2000000000 0.12845 -0.19244 -0.0037991 0.00087876 0.0023144 0.0014789 -0.0022386 0.0032726
0.0013403 7.5329e-05 -0.00060989 0.00034266
-0.0037837 0.0009501 0.24965 0.054398 -0.00078528 0.0055226 0.0014598 0.00020284
0.0010631 -0.0012699 0.0004987 9.4616e-05
