!Keysight Technologies,M9804A,MY58100912,A.14.10.03
!Date: Thursday, April 27, 2023 10:28:33
!Correction: S11(C  6-Port  ) 
!S12(C  6-Port  ) 
!S13(C  6-Port  ) 
!S14(C  6-Port  ) 
!S15(C  6-Port  ) 
!S16(C  6-Port  ) 
!S21(C  6-Port  ) 
!S22(C  6-Port  ) 
!S23(C  6-Port  ) 
!S24(C  6-Port  ) 
!S25(C  6-Port  ) 
!S26(C  6-Port  ) 
!S31(C  6-Port  ) 
!S32(C  6-Port  ) 
!S33(C  6-Port  ) 
!S34(C  6-Port  ) 
!S35(C  6-Port  ) 
!S36(C  6-Port  ) 
!S41(C  6-Port  ) 
!S42(C  6-Port  ) 
!S43(C  6-Port  ) 
!S44(C  6-Port  ) 
!S45(C  6-Port  ) 
!S46(C  6-Port  ) 
!S51(C  6-Port  ) 
!S52(C  6-Port  ) 
!S53(C  6-Port  ) 
!S54(C  6-Port  ) 
!S55(C  6-Port  ) 
!S56(C  6-Port  ) 
!S61(C  6-Port  ) 
!S62(C  6-Port  ) 
!S63(C  6-Port  ) 
!S64(C  6-Port  ) 
!S65(C  6-Port  ) 
!S66(C  6-Port  ) 
!S6P File: Measurement: :
# Hz S  RI   R 50
500000000 -0.34038 -0.024233 -0.010978 -0.0032317 -0.0083589 0.013056 -0.00372 0.012255
0.011788 0.0040931 -0.0036056 0.0084648
-0.010973 -0.0032217 -0.42028 -0.041418 0.0061562 -0.01121 0.0016212 0.012682
0.0073211 0.0021777 0.0016893 0.013643
-0.0083417 0.013061 0.0061428 -0.011218 -0.26547 0.21979 0.0068152 0.0040794
-0.0013075 0.0076939 0.0015054 0.012237
-0.0037005 0.012247 0.0016463 0.012701 0.0068042 0.0040788 -0.33344 0.056327
-0.020005 -0.0066566 0.014664 0.024497
0.011811 0.0040665 0.0073167 0.0021602 -0.0013077 0.0076945 -0.020008 -0.0066407
-0.23303 -0.17342 -0.025249 0.004576
-0.003581 0.0084684 0.0017153 0.013659 0.0015041 0.012235 0.014664 0.024474
-0.025238 0.0045629 -0.2808 -0.09752
560000000 -0.31532 0.1336 -0.026175 -0.060765 0.00033706 0.012064 0.0054179 0.010496
0.0091729 0.0046635 0.0099102 0.007234
-0.026121 -0.060681 -0.37432 0.1139 -0.042018 -0.034283 0.013394 0.0037756
-0.012808 -0.0031797 0.0030567 -0.00077422
0.00037263 0.012059 -0.042137 -0.034231 -0.18157 0.2659 -0.00052834 -0.0042998
0.018712 0.0038658 0.006337 -0.0062025
0.005444 0.010481 0.01341 0.0037517 -0.0005149 -0.0042984 -0.30675 0.14475
-5.9282e-05 -0.023229 0.0040033 -0.019562
0.009187 0.0046506 -0.01284 -0.0031476 0.018719 0.0038552 -7.0161e-05 -0.023223
-0.288 -0.00039767 0.0043202 -0.047925
0.0099301 0.0072063 0.0030355 -0.00078249 0.0063443 -0.0061955 0.0039949 -0.019564
0.0043388 -0.047931 -0.33152 0.045251
620000000 -0.2725 0.11881 -0.023591 0.0080315 0.004277 0.0080881 0.0079657 -0.0049223
0.010574 -0.0010877 0.00081504 -0.0018963
-0.02358 0.0080241 -0.40218 0.069303 -0.019017 0.0011279 -0.0013735 -0.0017278
0.011074 -0.0067658 0.0013607 -0.0024965
0.004305 0.0080764 -0.019046 0.0011697 -0.15047 0.27475 -0.00098739 -0.0049001
-0.0031706 -0.0028886 0.0085602 -0.0029585
0.0079697 -0.004929 -0.0013912 -0.0017372 -0.00098905 -0.0048996 -0.2644 0.15605
-0.040972 -0.016831 0.012488 0.025247
0.010581 -0.0011076 0.01107 -0.0068083 -0.003175 -0.0028779 -0.040981 -0.016812
-0.20931 -0.039833 -0.04103 0.015221
0.00080152 -0.0019005 0.0013517 -0.0025032 0.0085812 -0.0029736 0.012497 0.025252
-0.041048 0.015218 -0.25598 0.015267
680000000 -0.2299 0.20312 -0.02742 -0.012107 0.0055996 0.004588 0.0012368 -0.0068758
-0.0028011 -0.010841 0.0043332 -0.0069887
-0.027391 -0.012112 -0.38548 0.1654 -0.031893 0.00028504 -0.0014111 -0.00046018
-0.0022425 -0.009159 -0.0018913 -0.0022291
0.0056056 0.0045774 -0.031918 0.00036079 -0.098798 0.29385 -0.00087208 -0.00050218
-0.0016228 0.00014327 -0.0036266 -0.0087171
0.0012239 -0.0068882 -0.0014171 -0.00045826 -0.00087259 -0.00050509 -0.21784 0.20627
-0.02582 -0.0047105 -0.0092083 -0.0085307
-0.0028344 -0.010843 -0.0022723 -0.0091606 -0.0016351 0.00015119 -0.025845 -0.0047007
-0.25449 0.060383 -0.0075897 -0.0065513
0.0042975 -0.0070059 -0.0018871 -0.0022312 -0.0036256 -0.0087284 -0.0092007 -0.0085419
-0.0075811 -0.0065574 -0.25616 0.11427
740000000 -0.18492 0.19716 -0.036625 0.027323 0.012442 -0.005653 -0.00064635 -0.0043723
-0.0047978 -0.0031104 -0.0057035 0.0026886
-0.036612 0.027274 -0.33292 0.18432 -0.033167 0.035221 -0.00087649 -0.0063859
-0.012059 0.0076466 -0.0018619 -0.0058526
0.012433 -0.0056753 -0.03309 0.035331 -0.064868 0.29144 -0.0019771 0.003146
-0.003083 -0.0047266 -0.0017555 0.00098179
-0.0006662 -0.0043783 -0.00087722 -0.0063879 -0.0019706 0.0031375 -0.20033 0.2139
-0.042794 -0.0034162 0.022991 0.013525
-0.0048152 -0.0030954 -0.012043 0.007703 -0.0030966 -0.0047421 -0.042821 -0.0033597
-0.15705 0.083663 -0.039934 0.0039758
-0.0056838 0.0027175 -0.0018842 -0.0058447 -0.0017653 0.00099785 0.022995 0.013498
-0.039934 0.0039437 -0.24545 0.12299
800000000 -0.15166 0.23558 -0.021018 0.017545 0.0048367 -0.010514 -0.0044557 -0.0016433
-0.0036197 0.0023756 0.0036698 0.000449
-0.021014 0.017527 -0.33458 0.25304 -0.0067545 0.033682 -0.0025425 0.0022733
-0.00069335 0.0032803 0.00089174 0.0052215
0.0048028 -0.01053 -0.006664 0.033734 -0.023427 0.3138 0.00067326 0.0017346
0.00033604 0.003658 -0.0017434 0.00090973
-0.0044641 -0.0016514 -0.0025518 0.0022895 0.00067555 0.001735 -0.17058 0.24073
-0.026948 0.016814 0.013196 -0.010046
-0.0036116 0.002399 -0.00068472 0.0032819 0.00034478 0.0036628 -0.026935 0.016872
-0.19757 0.10949 -0.015981 0.019329
0.0036677 0.00043477 0.00090111 0.0052361 -0.0017393 0.00092022 0.013189 -0.010059
-0.015992 0.019311 -0.23433 0.16991
860000000 -0.11614 0.25471 -0.015662 0.030528 -0.003601 -0.0097454 -0.0020165 0.00082171
0.0041389 0.0044225 -0.0030162 -0.0027224
-0.015659 0.030507 -0.28657 0.29406 0.0091025 0.033276 6.8555e-05 0.002252
0.003899 0.00020401 0.0030871 0.00015385
-0.0036337 -0.0097486 0.0092192 0.033283 0.025187 0.32093 -0.00040831 -0.00012117
0.0026175 -0.0014566 0.0017641 0.0039294
-0.0020084 0.00081754 6.3845e-05 0.0022611 -0.00040967 -0.00012214 -0.13272 0.25076
-0.014829 0.02033 -0.0055993 -0.0091155
0.0041771 0.0044032 0.0039069 0.00018133 0.0026212 -0.0014647 -0.014797 0.020363
-0.14445 0.15628 -0.021708 0.016454
-0.0030331 -0.0027187 0.0030743 0.00014642 0.0017559 0.0039366 -0.0056071 -0.0091097
-0.02171 0.016442 -0.18382 0.21128
920000000 -0.090414 0.27574 0.006455 0.036481 -0.0094369 -0.0042042 -0.0015624 0.0015503
0.0013383 0.0014323 0.002516 -0.0017315
0.0064281 0.036451 -0.25701 0.31405 0.028287 0.020418 0.0017175 0.00084298
0.0069942 -0.00082169 0.003472 -0.0030413
-0.0094609 -0.0041844 0.028387 0.020358 0.071806 0.32078 0.0019718 -0.00018062
0.0014682 -0.00066795 0.00062186 -0.0012743
-0.0015542 0.001558 0.0017124 0.00084675 0.0019725 -0.00018767 -0.1077 0.26613
-0.0075851 0.031007 0.0027721 -0.0067028
0.0013525 0.0014245 0.0069828 -0.00085139 0.0014736 -0.00066816 -0.0075337 0.031042
-0.13226 0.16105 4.7028e-05 0.026044
0.0025071 -0.0017494 0.003468 -0.0030515 0.00060966 -0.0012742 0.0027643 -0.0067019
2.6917e-05 0.026041 -0.18617 0.2256
980000000 -0.043529 0.29412 0.018286 0.028281 -0.0086882 0.0046038 0.0017952 0.0029089
0.0038898 -0.0016364 -0.0031776 -0.0020235
0.018255 0.028281 -0.20502 0.34711 0.032662 0.0033627 0.0020009 -0.00025083
0.0016428 -0.0061006 -0.00043669 -0.0024084
-0.0086833 0.0046118 0.032709 0.003274 0.11853 0.31381 0.0004946 -0.0013134
0.00016833 -0.0023111 0.0012876 -0.00025246
0.0018123 0.0029023 0.0019856 -0.0002502 0.00049767 -0.0013272 -0.068628 0.2763
0.010835 0.028906 -0.0084069 -0.0064869
0.0038932 -0.0016469 0.0016004 -0.0061303 0.00016725 -0.002307 0.010892 0.028913
-0.099959 0.1869 0.0066509 0.018372
-0.0031815 -0.0020106 -0.00046157 -0.0024002 0.0012884 -0.00026011 -0.0084144 -0.0064775
0.0066311 0.018365 -0.14221 0.26569
1040000000 -0.00071221 0.301 0.032883 0.01589 -0.0013277 0.0066819 0.0022396 0.00072
0.00012705 -0.0031208 -0.00071401 -0.0013163
0.032859 0.015909 -0.16909 0.35992 0.028034 -0.015801 0.0015414 -0.0017413
-0.0023207 -0.0025702 -0.0014212 -0.0027285
-0.0013139 0.0066697 0.028022 -0.015899 0.16553 0.29889 -0.00061518 -0.0015068
-0.001706 -0.0008857 -0.00056182 -0.00094089
0.0022538 0.00070961 0.00152 -0.0017314 -0.00061579 -0.001517 -0.040072 0.28491
0.021407 0.015857 -0.0024907 0.00087805
0.00012016 -0.0031099 -0.002356 -0.0025615 -0.0017004 -0.00088316 0.021447 0.015836
-0.06731 0.1921 0.014237 0.016104
-0.00072146 -0.0013211 -0.0014447 -0.0026982 -0.00055579 -0.00094203 -0.0024872 0.00088536
0.014217 0.01609 -0.11795 0.28565
1100000000 0.044013 0.30761 0.034456 -0.0058441 0.002575 0.0036835 0.0021137 -0.00092977
-0.0018307 -0.0028966 -0.0037827 0.00029832
0.034443 -0.0058217 -0.12628 0.37682 0.013658 -0.027964 -9.5905e-05 -0.001794
-0.0034756 -0.00075178 -0.0034513 -0.00031668
0.0025886 0.0036732 0.013574 -0.02804 0.21205 0.27713 -0.0018941 0.00019915
-0.001896 0.00062335 -0.00098357 -0.00012581
0.0021181 -0.0009339 -0.00011153 -0.001792 -0.0018933 0.0001985 0.00048378 0.28822
0.025568 0.0022693 -0.0027286 -0.0003027
-0.0018312 -0.0028894 -0.0034925 -0.00073485 -0.0018889 0.00062292 0.025578 0.002231
-0.049422 0.20434 0.01891 0.0062145
-0.0037734 0.00031858 -0.0034585 -0.00029217 -0.00098837 -0.00013038 -0.0027287 -0.00029428
0.018899 0.0062134 -0.072039 0.31103
1160000000 0.09531 0.30176 0.022018 -0.021656 0.002212 -0.00033202 -7.788e-06 -0.0019028
-0.0038777 -0.0006069 -0.00091814 0.003953
0.022036 -0.021611 -0.081589 0.3811 -0.0050757 -0.028403 -0.0016393 -0.0016303
-0.0026872 0.0027015 -0.0013567 0.0017481
0.002212 -0.00035626 -0.0051926 -0.028398 0.25536 0.24472 -0.00080559 0.001827
-0.00036868 0.0020409 -0.00078912 0.00023103
6.4938e-06 -0.0019036 -0.001659 -0.0016143 -0.00080071 0.0018231 0.040329 0.28378
0.020505 -0.013237 -0.0034003 0.004321
-0.0038893 -0.00058301 -0.0026947 0.0027188 -0.00036499 0.002052 0.020491 -0.013264
-0.01625 0.21129 0.017168 -0.0016349
-0.00089171 0.003967 -0.0013444 0.0017669 -0.00078337 0.00022992 -0.0033867 0.0043313
0.01717 -0.0016375 -0.024456 0.31262
1220000000 0.13944 0.28913 0.0082479 -0.029653 -0.0016853 -0.00021436 0.00025432 -0.00089294
-0.0024223 0.0022434 0.0012937 0.0019255
0.0082687 -0.02962 -0.037323 0.39197 -0.017478 -0.020012 -0.002455 0.00046654
8.3707e-05 0.003109 -0.0005855 0.0019802
-0.0016929 -0.0002181 -0.017586 -0.019956 0.29346 0.20359 0.00087917 0.0018658
0.00071653 0.0013064 0.00044223 0.00063973
0.0002538 -0.00088508 -0.0024669 0.00047518 0.00087522 0.0018674 0.080111 0.27299
0.0091799 -0.019369 0.0011836 0.0013997
-0.002411 0.0022576 9.6063e-05 0.0031084 0.00071331 0.0013044 0.0091493 -0.019389
0.0066446 0.21815 0.012126 -0.013897
0.0013115 0.0019159 -0.00057942 0.0019906 0.0004492 0.00064287 0.0011872 0.0013956
0.012122 -0.013891 0.0082908 0.32544
1280000000 0.18847 0.26655 -0.0095214 -0.027096 -0.0015658 0.0030988 -0.00085914 -0.0020586
-0.00076544 0.0029564 0.0024329 0.00098916
-0.0094901 -0.027072 0.0088272 0.38292 -0.023662 -0.0074245 -0.00098879 0.0014745
0.0018835 0.0017883 0.00075213 0.0018262
-0.0015555 0.003107 -0.023729 -0.0073255 0.32247 0.1591 0.001707 7.1933e-05
0.0012344 0.00022675 0.00031905 0.00010176
-0.00087314 -0.002052 -0.0009797 0.0014697 0.0017073 7.7276e-05 0.11627 0.25502
-0.0011338 -0.020705 -0.00074287 0.000646
-0.00075648 0.0029589 0.0018929 0.0017906 0.0012345 0.00023004 -0.0011699 -0.020709
0.042576 0.22082 0.0013535 -0.015599
0.0024319 0.00097602 0.00076256 0.0018219 0.00031892 0.00010369 -0.00074135 0.00064609
0.0013691 -0.015591 0.054543 0.32484
1340000000 0.22534 0.23153 -0.018396 -0.01691 0.0015306 0.0045028 -0.0017526 -0.00099971
0.001419 0.002606 0.0015735 -0.0014547
-0.018371 -0.016914 0.048708 0.37336 -0.020945 0.0051518 -9.5969e-05 0.0020611
0.0021617 0.00062941 0.0013892 0.00066054
0.0015532 0.0044975 -0.02094 0.0052515 0.34337 0.11052 0.0013136 -0.0010688
0.00070661 -0.00053763 6.7725e-05 0.00023706
-0.0017562 -0.0010008 -8.8886e-05 0.0020655 0.0013226 -0.0010703 0.14816 0.23274
-0.010788 -0.016872 0.00045532 0.0013771
0.0014421 0.0026039 0.0021586 0.00061145 0.00070607 -0.00053891 -0.010828 -0.016857
0.072216 0.21467 -0.0055214 -0.013418
0.0015703 -0.0014663 0.0014022 0.00065623 6.908e-05 0.00023774 0.00045644 0.0013776
-0.0055209 -0.013414 0.093728 0.31703
1400000000 0.25726 0.19261 -0.022868 -0.0054552 0.0055535 0.002786 -0.002239 0.00055762
0.0023434 0.00092877 0.0001934 -0.0014216
-0.022837 -0.0054709 0.085343 0.35966 -0.013935 0.012806 0.0014059 0.0013436
0.0012172 -0.00099003 0.0011421 4.4213e-05
0.0055613 0.0027744 -0.013886 0.012888 0.35512 0.057234 0.00010797 -0.0020371
-7.1526e-06 -0.00046198 0.00028045 0.00021973
-0.0022304 0.00056636 0.0014085 0.0013382 0.00010067 -0.0020343 0.17587 0.20257
-0.016607 -0.0093829 -0.00047959 0.00073391
0.0023505 0.00091206 0.0012063 -0.0009972 -5.3282e-06 -0.00046469 -0.01664 -0.0093472
0.10369 0.20921 -0.011601 -0.0078661
0.00018676 -0.0014318 0.0011427 4.0189e-05 0.00028419 0.00021668 -0.00048393 0.00073991
-0.011597 -0.0078738 0.13645 0.30379
1460000000 0.27971 0.14815 -0.019122 0.0060403 0.0057368 -0.0022306 -0.0016368 0.0017659
0.0020864 -0.0004891 -0.00034804 -0.00087136
-0.019106 0.0060234 0.11967 0.33721 -0.0052933 0.015204 0.0017936 0.00011306
0.00065098 -0.0013929 0.0010619 -0.00055748
0.0057195 -0.0022563 -0.0052364 0.015242 0.36074 0.0033959 -0.0016422 -0.0013861
0.00013347 -0.00015069 0.00063036 -0.00035768
-0.0016283 0.0017834 0.0017888 0.00010854 -0.0016339 -0.0013989 0.20065 0.17258
-0.017455 -0.0017738 -0.00015251 0.0025402
0.0020848 -0.00050179 0.00064124 -0.0014027 0.00013865 -0.00015868 -0.017475 -0.0017448
0.1325 0.19401 -0.012484 -0.0016014
-0.00035071 -0.00086969 0.0010516 -0.0005629 0.00062151 -0.00035194 -0.000152 0.0025346
-0.012486 -0.001625 0.16915 0.28153
1520000000 0.29098 0.105 -0.012965 0.010786 0.0030863 -0.0044257 0.00014739 0.0027075
0.0020753 -0.0017231 -0.0011415 -8.4757e-05
-0.012963 0.010763 0.15251 0.32141 0.0020649 0.012671 0.0016814 -0.0009247
-0.00015163 -0.0011005 0.00024974 -0.00093735
0.0030595 -0.004443 0.0021357 0.012668 0.35343 -0.053129 -0.0014819 -0.00020511
0.00049278 -0.00086652 1.3699e-05 -0.00011982
0.00015664 0.0027097 0.0016737 -0.00093395 -0.0014848 -0.00020576 0.22136 0.134
-0.01584 0.0045478 0.0022215 0.0020486
0.0020709 -0.0017392 -0.00016006 -0.0010979 0.00049197 -0.00087214 -0.015841 0.0045913
0.15964 0.17858 -0.011807 0.0031096
-0.0011454 -8.2048e-05 0.00024116 -0.00093674 1.2535e-05 -0.00011935 0.0022319 0.002048
-0.011802 0.0031086 0.20096 0.25885
1580000000 0.29911 0.058727 -0.0064556 0.012983 -0.0010673 -0.0049407 0.0016676 0.0019621
-0.00016099 -0.0022418 -0.00030761 0.00033666
-0.0064568 0.012964 0.17916 0.29655 0.0054102 0.0077652 0.00042645 -0.0016936
-0.00061824 -0.00092529 -0.00021834 -0.00078344
-0.0010906 -0.0049372 0.0054591 0.0077451 0.33298 -0.11012 -0.0016303 0.0011007
-0.00034208 -0.0011713 7.8652e-05 -0.00062548
0.0016764 0.0019614 0.00042179 -0.001703 -0.0016373 0.0011013 0.23318 0.095602
-0.011585 0.0094838 0.0027465 0.00036992
-0.0001784 -0.0022465 -0.00062874 -0.00092448 -0.00034174 -0.0011797 -0.011566 0.0095182
0.18313 0.15996 -0.0090213 0.0084471
-0.00030604 0.00034145 -0.00022255 -0.00078591 7.3837e-05 -0.0006285 0.0027438 0.00036472
-0.0090264 0.0084472 0.23121 0.23158
1640000000 0.3002 0.016534 -0.00029367 0.011202 -0.0030027 -0.0026702 0.0028536 0.00082248
-0.00076409 -0.0016826 -0.00029293 0.00060504
-0.00031028 0.011192 0.20841 0.27084 0.0058273 0.0031477 -0.00087133 -0.0016987
-0.00095339 -0.00024195 -0.00053376 -0.00061066
-0.0030124 -0.0026508 0.0058439 0.0031183 0.30445 -0.15938 -0.00037931 0.0017058
-0.0012508 -0.00084514 -0.00026372 -0.00027043
0.0028588 0.00081212 -0.00086998 -0.0017012 -0.00037948 0.0017106 0.24392 0.047792
-0.0066344 0.010596 0.0027788 -0.001259
-0.00077887 -0.0016789 -0.00096085 -0.0002383 -0.0012456 -0.00084185 -0.006603 0.010616
0.2051 0.13422 -0.0038892 0.010163
-0.00028904 0.0006082 -0.00053649 -0.00061072 -0.00026693 -0.0002713 0.0027749 -0.0012621
-0.0038856 0.010166 0.25607 0.19914
1700000000 0.29089 -0.028912 0.0025259 0.0081236 -0.0036075 9.638e-05 0.0029532 -0.0015541
-0.0020914 -0.00074662 0.00068493 0.00036328
0.0025153 0.0081216 0.22551 0.23932 0.0038133 0.00035552 -0.0015401 -0.00050109
-0.00061002 0.00014492 -0.00087097 -0.00043242
-0.003605 0.00010803 0.0038196 0.00033298 0.26058 -0.19891 0.00079662 0.0014045
-0.001823 -8.4968e-05 -0.00061007 -0.00079877
0.0029455 -0.0015705 -0.0015375 -0.00048922 0.00079517 0.0013985 0.23935 0.00028064
-0.0032548 0.010607 0.0015821 -0.0025467
-0.002098 -0.00073857 -0.00061079 0.00014721 -0.0018283 -8.5328e-05 -0.0032302 0.010623
0.22057 0.11312 0.00092674 0.010133
0.00068757 0.00036325 -0.00087315 -0.00042599 -0.00061428 -0.00080021 0.0015868 -0.0025522
0.00093036 0.010133 0.27061 0.16414
1760000000 0.27785 -0.076813 0.0040419 0.0048864 -0.0024479 0.0010242 0.00093835 -0.0035386
-0.0015602 0.00073144 0.00037428 -0.00051049
0.004028 0.004895 0.25138 0.19935 0.0015598 -0.0015679 -0.0012218 0.00030582
-0.00092837 0.00077884 -0.00062467 0.00042637
-0.002439 0.0010326 0.0015505 -0.0015833 0.21246 -0.23257 0.0012102 0.00060419
-0.0011251 0.0015657 -0.0013215 -0.00029389
0.0009105 -0.0035489 -0.0012228 0.00030961 0.001214 0.00060645 0.23111 -0.048709
0.00021165 0.0093934 -0.00032566 -0.0028572
-0.0015549 0.00075428 -0.00092508 0.00078719 -0.0011301 0.001568 0.00023526 0.0093949
0.23444 0.077654 0.004905 0.007149
0.00037244 -0.00051228 -0.00062083 0.00043232 -0.0013134 -0.00029392 -0.00032612 -0.0028496
0.0049086 0.0071476 0.28275 0.12633
1820000000 0.25183 -0.11391 0.0037416 0.0017371 -3.7308e-05 0.002596 -0.0013601 -0.0028917
-0.0011454 0.0011286 -0.00013265 -0.00013166
0.0037439 0.0017395 0.2606 0.1689 -0.00053171 -0.00022119 -0.0011488 0.001072
-3.2801e-05 0.001138 -0.00053021 0.0005188
-3.2423e-05 0.0025942 -0.00053097 -0.00022358 0.16107 -0.24874 0.0012004 0.00027573
-0.00013392 0.0022465 -0.0014491 0.00043377
-0.0013802 -0.0028871 -0.0011441 0.0010817 0.0012021 0.00028153 0.20212 -0.094642
0.0017662 0.0074102 -0.0017793 -0.0018516
-0.0011406 0.0011401 -2.4353e-05 0.0011369 -0.00012563 0.0022441 0.0017905 0.0074124
0.24954 0.047631 0.0057787 0.0032256
-0.00013415 -0.00012801 -0.00052497 0.00052664 -0.0014488 0.00043969 -0.0017834 -0.0018591
0.0057796 0.0032306 0.28396 0.088769
1880000000 0.21577 -0.15258 0.0012533 2.6039e-05 -0.00034204 0.0022361 -0.0030188 -0.0017408
-0.00017672 0.0018551 0.00014704 -0.00036446
0.0012551 2.5578e-05 0.2646 0.12274 -0.0026284 0.0017187 -5.2755e-05 0.0016375
0.00042632 0.0011002 0.00011365 0.0010044
-0.00032457 0.0022352 -0.0026152 0.0017287 0.10776 -0.25737 0.0014592 -0.00082769
0.0016255 0.0017881 -0.00072897 0.0014649
-0.0030358 -0.0017293 -4.762e-05 0.0016452 0.0014643 -0.00083133 0.16359 -0.13416
0.002606 0.0050089 -0.0025883 0.00012529
-0.00017214 0.0018608 0.00043903 0.0010945 0.0016371 0.0017856 0.0026212 0.0049997
0.25097 0.015414 0.0054259 0.00082131
0.00014267 -0.00036726 0.00012296 0.0010074 -0.00073261 0.0014654 -0.0025864 0.00013282
0.005422 0.00083568 0.28248 0.055045
1940000000 0.1764 -0.17821 -0.00087786 -0.0011712 0.001622 0.0018812 -0.0035316 0.00071664
0.0016031 0.0010448 -0.00040949 -0.00050613
-0.00087 -0.0011745 0.26492 0.090615 -0.0011374 0.0040076 0.0010291 0.0011385
0.001585 0.00058337 0.00089133 0.0004999
0.0016433 0.001863 -0.0011138 0.0040177 0.062675 -0.25101 0.00032202 -0.0017282
0.0021779 0.00036262 0.0004396 0.00178
-0.0035293 0.00074416 0.001037 0.0011297 0.00032884 -0.0017382 0.11279 -0.16577
0.0018167 0.0032685 -0.0016378 0.0013778
0.001613 0.0010276 0.0015938 0.00057395 0.0021851 0.00036901 0.0018229 0.0032679
0.25182 -0.024055 0.0039668 -0.0025496
-0.00041842 -0.00049571 0.00088817 0.00049181 0.00043828 0.0017808 -0.0016337 0.0013842
0.0039672 -0.0025474 0.27078 0.017532
2000000000 0.12908 -0.19209 -0.0045845 0.0011991 0.0024174 0.0015254 -0.0021024 0.0033737
0.0012265 8.3766e-05 -0.00047434 0.00019726
-0.0045857 0.0011856 0.24995 0.055127 -0.00087556 0.0057196 0.0015121 0.00024733
0.0013113 -0.0010868 0.00062606 0.00011504
0.0024299 0.0015139 -0.00084067 0.0057438 0.018002 -0.2361 -0.00094339 -0.0010438
0.0018237 -0.001103 0.0017278 0.00096916
-0.0020848 0.0033831 0.0015189 0.00024016 -0.00093959 -0.0010522 0.059162 -0.17699
-4.3025e-05 0.0024368 -0.00030577 0.0021914
0.0012319 7.1116e-05 0.0013074 -0.0010941 0.0018261 -0.0011067 -3.2167e-05 0.0024248
