!Keysight Technologies,M9804A,MY58100912,A.14.10.03
!Date: Thursday, April 27, 2023 10:28:33
!Correction: S11(C  6-Port  ) 
!S12(C  6-Port  ) 
!S13(C  6-Port  ) 
!S14(C  6-Port  ) 
!S15(C  6-Port  ) 
!S16(C  6-Port  ) 
!S21(C  6-Port  ) 
!S22(C  6-Port  ) 
!S23(C  6-Port  ) 
!S24(C  6-Port  ) 
!S25(C  6-Port  ) 
!S26(C  6-Port  ) 
!S31(C  6-Port  ) 
!S32(C  6-Port  ) 
!S33(C  6-Port  ) 
!S34(C  6-Port  ) 
!S35(C  6-Port  ) 
!S36(C  6-Port  ) 
!S41(C  6-Port  ) 
!S42(C  6-Port  ) 
!S43(C  6-Port  ) 
!S44(C  6-Port  ) 
!S45(C  6-Port  ) 
!S46(C  6-Port  ) 
!S51(C  6-Port  ) 
!S52(C  6-Port  ) 
!S53(C  6-Port  ) 
!S54(C  6-Port  ) 
!S55(C  6-Port  ) 
!S56(C  6-Port  ) 
!S61(C  6-Port  ) 
!S62(C  6-Port  ) 
!S63(C  6-Port  ) 
!S64(C  6-Port  ) 
!S65(C  6-Port  ) 
!S66(C  6-Port  ) 
!S6P File: Measurement: :
# Hz S  RI   R 50
500000000 -0.33941 -0.021598 -0.010353 -0.0034439 -0.0077388 0.012421 -0.0031992 0.012317
0.011595 0.0033989 -0.0028168 0.0085137
-0.010337 -0.0034536 -0.41911 -0.040528 0.0068497 -0.012032 0.0017775 0.012276
0.0072799 0.0022042 0.0019307 0.013563
-0.0077057 0.012422 0.0068196 -0.012059 -0.26337 0.21997 0.0069307 0.0033975
-0.00075334 0.0077164 0.0018329 0.011482
-0.0032008 0.012309 0.0018093 0.012299 0.0069502 0.0033984 -0.33233 0.057844
-0.019713 -0.0059649 0.015039 0.023867
0.011587 0.0033553 0.0072845 0.0021913 -0.00075683 0.0077158 -0.01971 -0.0059447
-0.2337 -0.17076 -0.025379 0.0055947
-0.0028093 0.0084731 0.0019632 0.013598 0.0018294 0.011475 0.015041 0.023883
-0.025389 0.0056036 -0.28319 -0.091048
560000000 -0.31224 0.13441 -0.026071 -0.061103 0.00095771 0.011495 0.0051925 0.0097385
0.0094181 0.0047353 0.0098954 0.0071338
-0.02599 -0.06106 -0.37398 0.11509 -0.04211 -0.034927 0.013433 0.0036028
-0.012423 -0.0038914 0.0040584 -0.0015964
0.00099986 0.0115 -0.04225 -0.034875 -0.18074 0.26495 -0.00033467 -0.0046131
0.018245 0.0038498 0.006884 -0.0064359
0.0052054 0.0097069 0.013435 0.0036033 -0.00032173 -0.0046236 -0.30574 0.14584
0.001058 -0.024455 0.0035361 -0.019039
0.0094332 0.0047619 -0.012461 -0.0038273 0.018274 0.003846 0.0010496 -0.024455
-0.28717 0.00088481 0.005142 -0.047878
0.0099341 0.0070748 0.0039932 -0.0016599 0.0068998 -0.0064438 0.0035143 -0.019044
0.0051573 -0.047854 -0.32985 0.050158
620000000 -0.27129 0.11984 -0.023126 0.0072612 0.0038841 0.0079635 0.0071695 -0.0052093
0.011231 -0.0016151 0.00032036 -0.0022917
-0.023096 0.0072596 -0.40128 0.06951 -0.019209 0.00035701 -0.0013579 -0.0017534
0.01064 -0.0067524 0.0010048 -0.0024756
0.0039087 0.0079743 -0.019225 0.00040094 -0.1504 0.27417 -0.0010245 -0.004794
-0.0037809 -0.0026286 0.0078239 -0.0029902
0.0071745 -0.0051944 -0.0013717 -0.0017604 -0.0010231 -0.0047926 -0.26374 0.1567
-0.040276 -0.017304 0.012977 0.023747
0.011244 -0.0016498 0.010632 -0.0067752 -0.0037726 -0.0026124 -0.040274 -0.017287
-0.2087 -0.037407 -0.039775 0.014761
0.0003112 -0.0022874 0.00098923 -0.0025124 0.007817 -0.0030123 0.013007 0.023767
-0.039815 0.014757 -0.25439 0.021024
680000000 -0.22829 0.20217 -0.027664 -0.012796 0.00527 0.0046028 0.0011293 -0.00715
-0.0030587 -0.010517 0.0040405 -0.0066545
-0.02765 -0.012807 -0.38522 0.16494 -0.032216 7.7214e-05 -0.0015968 -0.0003206
-0.0024805 -0.008763 -0.0017399 -0.0020833
0.0052775 0.0045896 -0.032251 0.00016057 -0.099484 0.29333 -0.00090558 -0.00021197
-0.0018126 0.00049315 -0.0035016 -0.008683
0.0011163 -0.007165 -0.0015855 -0.0003249 -0.00090932 -0.00021725 -0.21731 0.20664
-0.0259 -0.0055836 -0.0094124 -0.0083931
-0.0031217 -0.010516 -0.0025156 -0.0087528 -0.0018102 0.00049354 -0.025899 -0.005563
-0.25154 0.061334 -0.0066442 -0.0071671
0.004036 -0.0067026 -0.0017321 -0.0020733 -0.0034968 -0.0086926 -0.0094079 -0.0083987
-0.0066403 -0.0071698 -0.25494 0.11765
740000000 -0.18502 0.1965 -0.037296 0.026339 0.012035 -0.0057402 -0.00088583 -0.0041549
-0.0045842 -0.0028464 -0.0057742 0.0030182
-0.037324 0.026299 -0.3333 0.18413 -0.033471 0.034688 -0.00095028 -0.0063632
-0.011575 0.0074801 -0.0016663 -0.0052704
0.012009 -0.0057606 -0.0334 0.034813 -0.065438 0.29219 -0.0016972 0.0029529
-0.0028591 -0.0043544 -0.0018233 0.0010083
-0.00088285 -0.0041509 -0.00097689 -0.0063666 -0.0017077 0.0029586 -0.19994 0.21405
-0.042627 -0.0033059 0.022529 0.012204
-0.0046434 -0.0028467 -0.011561 0.0075664 -0.0028619 -0.0043587 -0.042642 -0.0032609
-0.15773 0.083988 -0.039217 0.0034161
-0.0057449 0.0030514 -0.0016761 -0.0052728 -0.0018065 0.0010099 0.022528 0.012209
-0.039212 0.0033961 -0.2429 0.12583
800000000 -0.15202 0.23524 -0.021824 0.017358 0.0045065 -0.010114 -0.0045921 -0.00171
-0.003302 0.0027808 0.0038399 0.00059731
-0.02181 0.01731 -0.33491 0.25331 -0.0070281 0.0337 -0.0024487 0.0022492
-0.00040614 0.003311 0.0012043 0.0051423
0.0044917 -0.010146 -0.0069381 0.033753 -0.023552 0.31483 0.00089751 0.0016591
0.00048772 0.0036564 -0.0016678 0.0010339
-0.0046161 -0.00169 -0.0024473 0.0022567 0.00089644 0.0016535 -0.17012 0.24118
-0.02716 0.016313 0.013017 -0.0097148
-0.0032721 0.002795 -0.00038516 0.0033221 0.00048966 0.0036589 -0.027149 0.016368
-0.19705 0.11025 -0.016482 0.018368
0.0038652 0.0005735 0.0012251 0.0051458 -0.0016668 0.001037 0.013021 -0.009722
-0.016486 0.018359 -0.23254 0.17422
860000000 -0.11669 0.25529 -0.016162 0.031034 -0.0038288 -0.009306 -0.0022009 0.0011005
0.0045304 0.0043383 -0.0029468 -0.0025078
-0.016152 0.030989 -0.28683 0.29482 0.0089097 0.033213 0.00019472 0.0023129
0.004489 -6.6037e-05 0.0030988 0.00036762
-0.0038377 -0.0092984 0.0090017 0.033222 0.025844 0.32186 -0.0004122 -4.7935e-05
0.0026479 -0.0013123 0.0015219 0.0042506
-0.0022093 0.0011033 0.00019775 0.0023118 -0.00041436 -4.8595e-05 -0.13253 0.25177
-0.015223 0.020372 -0.0058362 -0.0089875
0.0045467 0.0043246 0.00449 -9.3238e-05 0.0026495 -0.0013232 -0.015206 0.020401
-0.1446 0.15658 -0.02231 0.016294
-0.0029334 -0.0025105 0.0031292 0.00037053 0.0015268 0.0042434 -0.0058215 -0.0089839
-0.022311 0.016257 -0.18274 0.21447
920000000 -0.090748 0.27704 0.0061311 0.037167 -0.009185 -0.0036353 -0.0014254 0.0018664
0.0012775 0.0014508 0.0025765 -0.0017256
0.0060894 0.037118 -0.25687 0.31489 0.028067 0.020469 0.0017305 0.00082523
0.0068001 -0.00068433 0.0035037 -0.0028449
-0.0091937 -0.0036135 0.028147 0.020418 0.072652 0.32111 0.0019367 -0.00016955
0.0014795 -0.00066985 0.00080234 -0.0010456
-0.0014372 0.001858 0.0017568 0.00082554 0.0019383 -0.00017029 -0.10738 0.26683
-0.0077042 0.030608 0.0023603 -0.0062587
0.0012978 0.001464 0.0068074 -0.0007151 0.0014803 -0.00066396 -0.0076394 0.030652
-0.13214 0.16171 -0.00072836 0.025909
0.002566 -0.0017456 0.0035081 -0.0028726 0.00079595 -0.001048 0.0023641 -0.0062657
-0.0007394 0.025897 -0.18415 0.22871
980000000 -0.043385 0.29533 0.01834 0.028716 -0.0082426 0.0048048 0.0020538 0.0030756
0.0039773 -0.0016999 -0.0031192 -0.0020626
0.018305 0.028686 -0.20458 0.34819 0.032272 0.0035294 0.0020696 -0.00032955
0.0014893 -0.0059923 -0.00045322 -0.0022685
-0.0082187 0.0048294 0.032304 0.0034291 0.11924 0.31371 0.00052322 -0.0013284
0.00017576 -0.0022252 0.0014589 -0.00016845
0.0020627 0.0030614 0.0020755 -0.00032558 0.00051969 -0.0013271 -0.068125 0.27716
0.010267 0.028709 -0.0083913 -0.0060322
0.0039995 -0.0017054 0.0014499 -0.006023 0.00017611 -0.0022199 0.010328 0.028691
-0.10008 0.18763 0.0061232 0.018425
-0.0031149 -0.0020474 -0.00047812 -0.0022435 0.0014615 -0.00017853 -0.0083937 -0.0060254
0.0061126 0.018405 -0.13956 0.2688
1040000000 -7.5109e-05 0.30214 0.032923 0.016238 -0.00091853 0.0066062 0.0024915 0.00054624
0.00023252 -0.0032004 -0.00062136 -0.0012217
0.032867 0.016215 -0.16824 0.36065 0.027801 -0.015357 0.0014006 -0.0017118
-0.0021553 -0.0023632 -0.00132 -0.0027131
-0.00088347 0.006608 0.027759 -0.015448 0.16588 0.29849 -0.00056186 -0.0014188
-0.0015797 -0.00092516 -0.00040572 -0.0010734
0.0024771 0.0005286 0.0014184 -0.0017041 -0.00057023 -0.0014261 -0.039119 0.28559
0.020661 0.015889 -0.0024609 0.0013416
0.00022114 -0.0031997 -0.002207 -0.0023654 -0.0015811 -0.0009119 0.020705 0.015855
-0.066884 0.19349 0.013368 0.016082
-0.00060767 -0.0012253 -0.0013529 -0.0027076 -0.00041229 -0.001072 -0.0024558 0.0013276
0.013351 0.016073 -0.1149 0.28812
1100000000 0.045072 0.30861 0.034495 -0.0054228 0.0028503 0.0035357 0.0021724 -0.0011722
-0.0019226 -0.002907 -0.0036096 0.00034463
0.034454 -0.0054099 -0.12516 0.37717 0.013744 -0.027241 -0.00013884 -0.0018286
-0.0031151 -0.0006836 -0.0032773 -0.00037762
0.0028656 0.0035211 0.013653 -0.027312 0.2117 0.27685 -0.001845 0.00020898
-0.0017429 0.00058665 -0.0009182 -0.00036602
0.0021699 -0.0011815 -0.00014396 -0.0018223 -0.0018435 0.00019844 0.001579 0.28871
0.024665 0.0028032 -0.0024597 0.00011831
-0.0019317 -0.0028937 -0.003134 -0.0006737 -0.0017458 0.00059073 0.02468 0.0027734
-0.049074 0.20587 0.018262 0.0064993
-0.0036022 0.00034892 -0.0033031 -0.00036425 -0.00092999 -0.00037976 -0.0024493 0.00011724
0.018247 0.0064996 -0.068687 0.31288
1160000000 0.096729 0.30253 0.022301 -0.021076 0.0024548 -0.00052664 -0.00015442 -0.0021504
-0.0038632 -0.00054847 -0.00075983 0.003658
0.022285 -0.021043 -0.080331 0.38077 -0.0044738 -0.0279 -0.0016632 -0.0015625
-0.0024266 0.002376 -0.0012287 0.0015277
0.0024648 -0.00052609 -0.0046006 -0.0279 0.25467 0.24499 -0.00076548 0.0017855
-0.00051146 0.0018505 -0.00089504 4.9243e-05
-0.00016106 -0.0021603 -0.0016717 -0.0015466 -0.00076903 0.0017779 0.04155 0.28381
0.020103 -0.012218 -0.0030482 0.0045419
-0.0038707 -0.00052334 -0.0024398 0.0023964 -0.000517 0.001867 0.0201 -0.012245
-0.015053 0.21296 0.016421 -0.0010795
-0.00074277 0.0036627 -0.0012313 0.0015467 -0.00090074 4.7866e-05 -0.0030477 0.0045528
0.01641 -0.0010866 -0.021121 0.31386
1220000000 0.14104 0.2892 0.0088935 -0.029206 -0.0015614 -0.000557 3.5656e-05 -0.00088984
-0.002333 0.0022713 0.0012641 0.0017453
0.0089171 -0.029185 -0.03659 0.39134 -0.016745 -0.019818 -0.0024003 0.00042565
2.5742e-05 0.0028142 -0.0006033 0.0018227
-0.0015618 -0.00054878 -0.016845 -0.019766 0.29307 0.20472 0.0007698 0.001746
0.00064116 0.0011888 0.00034868 0.00051231
3.4132e-05 -0.00089391 -0.002401 0.00045093 0.00077455 0.001751 0.080943 0.27281
0.0093537 -0.018153 0.0016509 0.0014085
-0.0023286 0.0022958 3.816e-05 0.0028158 0.00064055 0.0011867 0.0093342 -0.018169
0.0083545 0.21953 0.011852 -0.012706
0.001269 0.0017502 -0.00060628 0.0018336 0.00034956 0.0005165 0.0016459 0.0014109
0.011842 -0.012709 0.011483 0.32623
1280000000 0.18984 0.26608 -0.0084888 -0.026996 -0.001541 0.0026688 -0.00095989 -0.001882
-0.00060583 0.0028644 0.0022726 0.00083743
-0.0084691 -0.026971 0.0090049 0.38211 -0.022855 -0.0077124 -0.00098683 0.0013684
0.001581 0.0016893 0.00063974 0.0017706
-0.0015303 0.0026699 -0.022912 -0.0076201 0.32306 0.16055 0.0015545 4.6296e-05
0.0010452 0.00025467 0.00028908 0.00014506
-0.00096036 -0.0018814 -0.00098518 0.0013813 0.0015518 4.9182e-05 0.11682 0.2548
-0.00018523 -0.019605 -0.00041445 0.00038993
-0.00059586 0.0028739 0.0015931 0.0016848 0.0010426 0.00024817 -0.00022197 -0.019613
0.044684 0.22182 0.0016038 -0.014339
0.0022629 0.00084557 0.00064524 0.0017723 0.00028984 0.0001395 -0.0004207 0.000393
0.0015874 -0.014341 0.05782 0.32516
1340000000 0.22637 0.23074 -0.017455 -0.017561 0.0011665 0.0041446 -0.0015822 -0.00084536
0.0014513 0.002507 0.001396 -0.001448
-0.017427 -0.017555 0.048391 0.37284 -0.020539 0.0043932 -0.00017668 0.0020285
0.0018908 0.00085292 0.0013148 0.00064734
0.0011852 0.004136 -0.020548 0.0044963 0.34483 0.11169 0.0012465 -0.00089344
0.00064255 -0.00050342 7.0601e-05 0.00021067
-0.0015817 -0.00083815 -0.00017157 0.0020255 0.0012438 -0.00088894 0.14853 0.23245
-0.00936 -0.016563 0.00072135 0.00096402
0.001469 0.0025046 0.0018971 0.00083945 0.00064183 -0.00049213 -0.0093915 -0.016542
0.074406 0.21491 -0.0043539 -0.012518
0.0013866 -0.001442 0.0013217 0.00063857 7.1609e-05 0.00021197 0.00071475 0.00097496
-0.0043739 -0.012516 0.096595 0.3173
1400000000 0.25776 0.19164 -0.022381 -0.0065488 0.005059 0.00267 -0.002035 0.00046481
0.0022272 0.00073184 0.00016823 -0.0013358
-0.022355 -0.0065595 0.084771 0.35958 -0.013973 0.011971 0.0013078 0.0014141
0.0012304 -0.00070037 0.0011539 9.9324e-05
0.0050682 0.0026566 -0.013935 0.012059 0.357 0.057553 0.0001684 -0.0018412
3.0734e-05 -0.0004264 0.00026942 0.00012316
-0.0020424 0.00047714 0.0013162 0.0014028 0.00016675 -0.0018372 0.17605 0.20249
-0.015107 -0.0098703 -0.00054746 0.00019967
0.0022372 0.00071911 0.0012257 -0.000714 2.6574e-05 -0.00042696 -0.01514 -0.0098432
0.10582 0.20896 -0.010047 -0.0076958
0.0001634 -0.0013422 0.0011662 9.4915e-05 0.0002712 0.00012604 -0.00054632 0.00021144
-0.010046 -0.0076886 0.13936 0.30367
1460000000 0.27977 0.14739 -0.01937 0.0047784 0.0052523 -0.0020486 -0.0016281 0.0015299
0.001843 -0.00055988 -0.00032216 -0.00087873
-0.019356 0.004762 0.1192 0.33768 -0.0058573 0.014508 0.001785 0.00019465
0.00090467 -0.0012832 0.0011214 -0.00055027
0.0052463 -0.0020746 -0.0058022 0.014544 0.36238 0.0028229 -0.0014334 -0.0013673
0.00011388 -0.00016917 0.00058699 -0.0003376
-0.0016218 0.0015434 0.0017943 0.00018501 -0.0014377 -0.0013819 0.20089 0.1727
-0.016381 -0.0031571 -0.00045263 0.0021597
0.0018312 -0.00056992 0.00088097 -0.0012963 0.00011193 -0.00017565 -0.016397 -0.0031145
0.1344 0.19324 -0.011209 -0.0022281
-0.00032716 -0.00090295 0.0011087 -0.00054254 0.00058486 -0.00033613 -0.00043529 0.0021679
-0.011192 -0.0022188 0.17199 0.28135
1520000000 0.29083 0.10469 -0.013844 0.0098995 0.002797 -0.0040555 3.867e-05 0.0025817
0.001914 -0.0015385 -0.0010581 -0.00014214
-0.013841 0.009882 0.15237 0.32208 0.0012813 0.012513 0.0017188 -0.00087977
5.8076e-05 -0.0011894 0.00028566 -0.00096431
0.0027797 -0.0040633 0.001341 0.012515 0.35452 -0.054276 -0.0014346 -0.00036422
0.00045949 -0.00087555 -4.4507e-05 -0.00010388
4.5128e-05 0.0025895 0.0017142 -0.0008917 -0.0014281 -0.00036775 0.2218 0.1343
-0.015792 0.002787 0.0017317 0.0018734
0.0019028 -0.0015485 4.299e-05 -0.0012002 0.00045542 -0.00088134 -0.01578 0.0028218
0.16099 0.17745 -0.011066 0.0018144
-0.0010633 -0.00013774 0.0002817 -0.00096621 -4.5891e-05 -0.00010117 0.001744 0.0018686
-0.011041 0.0018172 0.20414 0.25817
1580000000 0.29908 0.058726 -0.007691 0.012664 -0.0011301 -0.0044571 0.0014409 0.0019621
-0.00012761 -0.0020087 -0.00033861 0.00032862
-0.0076956 0.012649 0.17947 0.29736 0.0047349 0.0080055 0.00045225 -0.0017184
-0.00060193 -0.0011383 -0.0002318 -0.00081686
-0.0011536 -0.0044613 0.0047842 0.0079937 0.33345 -0.11127 -0.0016677 0.00092274
-0.00023786 -0.0011001 0.00010194 -0.00047059
0.0014572 0.0019466 0.00044439 -0.0017329 -0.0016673 0.00092373 0.23397 0.095935
-0.01258 0.0080482 0.0022978 0.00055665
-0.00014547 -0.0020088 -0.00060706 -0.0011284 -0.00023936 -0.0010979 -0.01257 0.008078
0.18401 0.15876 -0.0089735 0.007029
-0.00033829 0.00033404 -0.00023183 -0.00081768 0.0001055 -0.00047387 0.0023065 0.000543
-0.0089539 0.0070205 0.23423 0.23034
1640000000 0.30048 0.016683 -0.0014728 0.011635 -0.0026711 -0.0022332 0.0027377 0.00097785
-0.00058845 -0.0015302 -0.0002818 0.00067481
-0.001479 0.011631 0.20913 0.27142 0.0054792 0.003648 -0.00084064 -0.0017276
-0.0011324 -0.00033878 -0.00052119 -0.00054317
-0.002683 -0.0022234 0.0055043 0.0036193 0.30445 -0.16053 -0.00051903 0.0016203
-0.0010847 -0.00081316 -0.00013058 -0.00014188
0.0027478 0.00095465 -0.00085269 -0.0017237 -0.00052679 0.0016183 0.24507 0.047751
-0.0082444 0.010019 0.0024895 -0.0010067
-0.0006073 -0.0015315 -0.0011319 -0.00033273 -0.0010903 -0.00081808 -0.0082134 0.010049
0.20552 0.13329 -0.0045323 0.0088618
-0.00027116 0.00067772 -0.00052131 -0.00054532 -0.00012952 -0.00014424 0.0024926 -0.0010252
-0.0045203 0.0088468 0.25898 0.19737
1700000000 0.29171 -0.028914 0.0017361 0.0091063 -0.00323 0.0001784 0.0029879 -0.0012926
-0.0019551 -0.00076121 0.00063586 0.00040431
0.0017386 0.009098 0.22648 0.23952 0.0037651 0.00088182 -0.0015547 -0.00048075
-0.00081236 0.00026338 -0.00080871 -0.00040347
-0.0032329 0.00018065 0.0037783 0.00087185 0.26026 -0.20008 0.0006681 0.0015215
-0.0017533 -0.0001856 -0.00039722 -0.00073538
0.0029885 -0.0013254 -0.0015604 -0.00047721 0.00066953 0.0015212 0.24069 -0.00028491
-0.0047469 0.011047 0.0014654 -0.002182
-0.0019547 -0.00075101 -0.00081246 0.0002767 -0.0017451 -0.00017901 -0.0047221 0.011066
0.22094 0.11247 -6.2648e-05 0.0093231
0.00064648 0.00039923 -0.000814 -0.00040018 -0.00040438 -0.00073882 0.0014659 -0.0021951
-5.8965e-05 0.0093007 0.27294 0.16189
1760000000 0.27862 -0.077393 0.0039635 0.0060698 -0.0020678 0.00088084 0.0010668 -0.0034586
-0.0015004 0.00058319 0.00053498 -0.00040239
0.0039595 0.0060667 0.25239 0.19912 0.0017357 -0.0010413 -0.0012235 0.00031208
-0.00092547 0.001006 -0.00058824 0.00047447
-0.0020644 0.0008836 0.0017434 -0.0010632 0.21158 -0.23318 0.0013067 0.00076607
-0.0011284 0.0015574 -0.0012243 -0.00035509
0.0010467 -0.0034597 -0.0012242 0.00031538 0.001306 0.0007665 0.23209 -0.049922
-0.00069958 0.010474 -0.00033147 -0.0024609
-0.001498 0.00059649 -0.00092094 0.0010192 -0.001119 0.0015579 -0.0006776 0.010483
0.23469 0.0772 0.0035434 0.006929
0.00053692 -0.00041212 -0.00058325 0.00048305 -0.0012242 -0.00035128 -0.00034986 -0.0024689
0.0035216 0.0069122 0.28433 0.12371
1820000000 0.25219 -0.11474 0.0042255 0.0026785 5.4576e-05 0.0023778 -0.0011764 -0.0029226
-0.0011904 0.0010484 7.4357e-05 -0.00015043
0.0042218 0.0026722 0.26137 0.16828 -9.5175e-05 0.00011537 -0.0011448 0.0010389
0.00018265 0.001293 -0.00046949 0.00053475
6.5224e-05 0.0023745 -9.006e-05 0.00011259 0.16041 -0.24821 0.0014147 7.9433e-05
-8.5249e-05 0.0022345 -0.0013554 0.00036915
-0.0011817 -0.0029129 -0.0011469 0.0010324 0.0014104 7.4764e-05 0.20244 -0.096226
0.001556 0.0085492 -0.0015725 -0.0014591
-0.0011826 0.0010515 0.00018181 0.001289 -7.865e-05 0.0022394 0.0015816 0.0085519
0.25005 0.047385 0.0046192 0.0036481
7.6821e-05 -0.00015774 -0.00046555 0.00053422 -0.0013577 0.00037776 -0.0015818 -0.0014553
0.0046012 0.0036471 0.28498 0.085963
1880000000 0.21573 -0.15368 0.0020513 0.00046511 -0.000409 0.0019323 -0.002917 -0.0019052
-0.00027537 0.0018465 0.00019718 -0.00055237
0.0020443 0.00046774 0.265 0.1219 -0.0021975 0.0016746 -5.035e-05 0.0016233
0.00068989 0.00095918 0.00015686 0.00092575
-0.00040452 0.0019369 -0.0021826 0.0016989 0.10765 -0.25727 0.0014131 -0.0010611
0.0016174 0.001701 -0.00081397 0.0012849
-0.0029266 -0.0018848 -4.038e-05 0.0016257 0.0014065 -0.0010571 0.16323 -0.13561
0.0029727 0.0059491 -0.0022058 0.00025449
-0.00025668 0.0018564 0.00070711 0.00096464 0.0016182 0.0017067 0.0029957 0.0059499
0.25177 0.015077 0.0045162 0.0016378
0.00019106 -0.00055603 0.00016503 0.00092982 -0.00081306 0.0012827 -0.0022052 0.00026022
0.0044899 0.0016456 0.28307 0.052466
1940000000 0.17593 -0.1791 -5.0876e-05 -0.0010906 0.0013865 0.0017415 -0.0035613 0.00058987
0.0016079 0.0010834 -0.00055828 -0.0005778
-4.8788e-05 -0.0010833 0.26489 0.089756 -0.00095561 0.0037998 0.0010135 0.0011099
0.001694 0.00026922 0.00080133 0.00032786
0.0013861 0.0017298 -0.00093877 0.0038064 0.062232 -0.25066 9.3549e-05 -0.0016882
0.0021733 0.0002721 0.00025989 0.0014861
-0.0035579 0.00061193 0.0010167 0.0010973 9.6224e-05 -0.0016812 0.11189 -0.16663
0.0023882 0.0038552 -0.0012948 0.0011723
0.0016014 0.0010764 0.0016909 0.00024951 0.0021693 0.00027823 0.0023898 0.0038527
0.25275 -0.024577 0.0036159 -0.0014288
-0.00056599 -0.00059064 0.00081325 0.00032 0.00025912 0.0014936 -0.0012925 0.0011836
0.0035988 -0.001412 0.27118 0.015111
2000000000 0.12871 -0.19272 -0.003745 0.00092898 0.0023452 0.0015837 -0.002224 0.0032765
0.0013205 2.9407e-05 -0.00060398 0.00034754
-0.0037318 0.00092105 0.24963 0.054473 -0.00080961 0.0055799 0.0014781 0.00018707
0.0010886 -0.0013098 0.0005 0.00010122
