!Keysight Technologies,M9804A,MY58100912,A.14.10.03
!Date: Thursday, April 27, 2023 10:28:33
!Correction: S11(C  6-Port  ) 
!S12(C  6-Port  ) 
!S13(C  6-Port  ) 
!S14(C  6-Port  ) 
!S15(C  6-Port  ) 
!S16(C  6-Port  ) 
!S21(C  6-Port  ) 
!S22(C  6-Port  ) 
!S23(C  6-Port  ) 
!S24(C  6-Port  ) 
!S25(C  6-Port  ) 
!S26(C  6-Port  ) 
!S31(C  6-Port  ) 
!S32(C  6-Port  ) 
!S33(C  6-Port  ) 
!S34(C  6-Port  ) 
!S35(C  6-Port  ) 
!S36(C  6-Port  ) 
!S41(C  6-Port  ) 
!S42(C  6-Port  ) 
!S43(C  6-Port  ) 
!S44(C  6-Port  ) 
!S45(C  6-Port  ) 
!S46(C  6-Port  ) 
!S51(C  6-Port  ) 
!S52(C  6-Port  ) 
!S53(C  6-Port  ) 
!S54(C  6-Port  ) 
!S55(C  6-Port  ) 
!S56(C  6-Port  ) 
!S61(C  6-Port  ) 
!S62(C  6-Port  ) 
!S63(C  6-Port  ) 
!S64(C  6-Port  ) 
!S65(C  6-Port  ) 
!S66(C  6-Port  ) 
!S6P File: Measurement: :
# Hz S  RI   R 50
500000000 -0.33941 -0.0216 -0.010365 -0.0034427 -0.0077644 0.0124 -0.0031773 0.012393
0.011628 0.0033961 -0.0028378 0.0085811
-0.010347 -0.0034459 -0.41915 -0.040499 0.0068518 -0.012042 0.0017504 0.012322
0.0072856 0.0021808 0.0019162 0.013604
-0.0077415 0.012403 0.0068344 -0.012065 -0.26337 0.21996 0.0069284 0.0033934
-0.00070039 0.0076982 0.0018469 0.011483
-0.0031849 0.012403 0.0017852 0.012342 0.0069292 0.0034016 -0.33223 0.057917
-0.019686 -0.0059576 0.01511 0.02395
0.01164 0.0033783 0.0072997 0.0021697 -0.0007076 0.0076904 -0.019681 -0.0059479
-0.23383 -0.17067 -0.0254 0.0055531
-0.0028562 0.0086113 0.00194 0.013603 0.0018518 0.011477 0.01512 0.023935
-0.025404 0.0055399 -0.28311 -0.090855
560000000 -0.31255 0.13458 -0.025974 -0.060934 0.00096049 0.01149 0.0053528 0.0097551
0.0095358 0.0046426 0.0098289 0.0072466
-0.025886 -0.060851 -0.37387 0.11508 -0.042134 -0.034912 0.013443 0.0035391
-0.012563 -0.0039214 0.0041316 -0.0015648
0.00099378 0.011486 -0.042274 -0.034865 -0.18071 0.265 -0.00033356 -0.0045951
0.018269 0.003856 0.0068772 -0.0064322
0.0053839 0.0097487 0.013481 0.0035293 -0.00033343 -0.004602 -0.30573 0.14582
0.0010858 -0.024434 0.0035403 -0.019068
0.0096018 0.0045784 -0.012601 -0.0038923 0.018265 0.0038542 0.0010672 -0.024409
-0.28709 0.0011371 0.0050472 -0.047914
0.0098071 0.0072758 0.0041561 -0.00158 0.0068751 -0.006439 0.0035551 -0.019066
0.005063 -0.047943 -0.32988 0.050138
620000000 -0.27133 0.11991 -0.023119 0.0072726 0.0038223 0.007977 0.0071278 -0.0051576
0.011296 -0.0016276 0.00022577 -0.0023069
-0.023077 0.0072589 -0.40126 0.069519 -0.019228 0.00035035 -0.0014014 -0.0017822
0.010709 -0.0067348 0.00093494 -0.0025512
0.003839 0.0079724 -0.019252 0.000398 -0.15041 0.27415 -0.001038 -0.0047919
-0.0037839 -0.0025896 0.0077572 -0.0030476
0.0071081 -0.0051789 -0.0014141 -0.0017763 -0.0010355 -0.0047959 -0.26375 0.15676
-0.040203 -0.017379 0.012813 0.023932
0.011325 -0.0016544 0.010711 -0.0067564 -0.0037854 -0.0025795 -0.040232 -0.017341
-0.20884 -0.037264 -0.039594 0.014597
0.00017467 -0.0023184 0.00093975 -0.0025662 0.0077468 -0.0030574 0.012796 0.023904
-0.039598 0.014589 -0.25483 0.02127
680000000 -0.22811 0.20226 -0.027652 -0.012747 0.0052651 0.0046424 0.0012143 -0.0071059
-0.00305 -0.010545 0.0040517 -0.0066113
-0.027634 -0.012744 -0.38523 0.16497 -0.032228 0.00010181 -0.0015874 -0.00029233
-0.0024979 -0.0087613 -0.0017724 -0.0020556
0.0052635 0.0046287 -0.032251 0.00017634 -0.099466 0.29336 -0.00090364 -0.00021914
-0.0018273 0.000503 -0.0034996 -0.0086637
0.0012128 -0.0071231 -0.0015856 -0.00028571 -0.00090267 -0.00022383 -0.2172 0.20665
-0.025858 -0.0056204 -0.0094079 -0.008316
-0.0030542 -0.010542 -0.0025289 -0.0087636 -0.0018249 0.00050279 -0.025871 -0.0056109
-0.25149 0.061366 -0.0066361 -0.0071586
0.0040463 -0.0066366 -0.0017894 -0.0020589 -0.0035057 -0.0086671 -0.0094056 -0.0083143
-0.0066303 -0.0071563 -0.25494 0.11769
740000000 -0.18505 0.19651 -0.037309 0.026259 0.012067 -0.0057237 -0.00090056 -0.0041503
-0.0047737 -0.0028618 -0.005736 0.0030049
-0.037313 0.026246 -0.33331 0.18423 -0.033485 0.034719 -0.00089816 -0.0063971
-0.011496 0.0075874 -0.0016497 -0.0052238
0.01204 -0.0057457 -0.033426 0.034837 -0.065434 0.29218 -0.0016628 0.0030052
-0.0029169 -0.0043331 -0.0018392 0.0010158
-0.00090767 -0.0041719 -0.00091962 -0.0063939 -0.0016768 0.0029999 -0.19989 0.21401
-0.042621 -0.0033431 0.022588 0.012222
-0.004769 -0.0028878 -0.0115 0.007656 -0.0029159 -0.0043386 -0.042641 -0.0032904
-0.15789 0.083858 -0.039192 0.0034082
-0.0057047 0.0030197 -0.0016772 -0.0052286 -0.0018354 0.0010256 0.022604 0.012216
-0.039168 0.003397 -0.2429 0.1259
800000000 -0.15207 0.23532 -0.021836 0.017375 0.0045012 -0.010137 -0.0046293 -0.0016721
-0.003301 0.0028064 0.0038137 0.00059538
-0.021848 0.017352 -0.3349 0.25336 -0.0070287 0.033699 -0.0024439 0.002274
-0.0004158 0.0033162 0.0011907 0.0051833
0.004472 -0.010157 -0.0069458 0.033749 -0.023557 0.31485 0.00090869 0.0016546
0.00048117 0.0036688 -0.0016742 0.0010337
-0.0046256 -0.0016661 -0.0024456 0.0022909 0.00090297 0.0016613 -0.17014 0.24117
-0.027141 0.016308 0.013006 -0.0097041
-0.0033081 0.0028247 -0.00039958 0.0033214 0.00048848 0.0036687 -0.027132 0.016373
-0.19702 0.11027 -0.016485 0.018413
0.0037972 0.00059949 0.0012148 0.0052033 -0.0016932 0.001041 0.013008 -0.0097139
-0.016504 0.018398 -0.23248 0.17427
860000000 -0.11668 0.25529 -0.016159 0.031005 -0.003824 -0.0093119 -0.0021911 0.0010912
0.0045743 0.0043037 -0.0029125 -0.0025193
-0.016176 0.030965 -0.28681 0.29477 0.0089158 0.033193 0.0002019 0.0023017
0.0045158 -9.513e-05 0.0031402 0.00038488
-0.0038405 -0.0093085 0.0090137 0.03321 0.025858 0.32186 -0.00041803 -6.6691e-05
0.00266 -0.001316 0.0015405 0.0042383
-0.0021842 0.0011025 0.00020986 0.0023006 -0.00041683 -6.7742e-05 -0.13252 0.25174
-0.01524 0.020312 -0.0058248 -0.0090263
0.0046083 0.0042958 0.0045236 -0.00011743 0.0026509 -0.0013216 -0.015217 0.020344
-0.14461 0.15651 -0.022217 0.016294
-0.0029236 -0.0025201 0.0031532 0.00036893 0.0015487 0.0042439 -0.0058333 -0.0090101
-0.022216 0.016289 -0.18254 0.21443
920000000 -0.090747 0.27704 0.0061051 0.037142 -0.0091966 -0.0036371 -0.0014455 0.0018616
0.0012806 0.0013974 0.0025825 -0.0017375
0.0060556 0.037105 -0.25687 0.31489 0.028068 0.020455 0.0017401 0.00082662
0.0067606 -0.00069319 0.0035038 -0.0028273
-0.0091908 -0.0036309 0.028152 0.020397 0.072657 0.32111 0.0019252 -0.00017263
0.0014729 -0.0006742 0.00079752 -0.0010453
-0.0014399 0.00187 0.0017386 0.00082046 0.0019218 -0.00016968 -0.10737 0.26686
-0.0077102 0.030588 0.0023444 -0.0062531
0.0012952 0.0013942 0.0067773 -0.00073379 0.0014762 -0.00066944 -0.0076716 0.030606
-0.13211 0.16167 -0.00071807 0.02587
0.0025722 -0.0017371 0.0034898 -0.0028561 0.00080666 -0.0010405 0.0023206 -0.0062517
-0.00074315 0.025868 -0.18402 0.2288
980000000 -0.04334 0.29533 0.018338 0.028712 -0.0082403 0.0048113 0.0020652 0.0030567
0.0039799 -0.0017013 -0.003096 -0.0020842
0.018282 0.028673 -0.20458 0.34817 0.03228 0.0035206 0.0020399 -0.00029816
0.0014365 -0.0059956 -0.00047357 -0.0022681
-0.008213 0.0048342 0.032318 0.003416 0.11926 0.31371 0.00050121 -0.001322
0.00016941 -0.0022164 0.0014497 -0.00020506
0.002071 0.0030574 0.0020377 -0.00032898 0.00050192 -0.0013253 -0.068093 0.27718
0.010263 0.028709 -0.0083873 -0.0059858
0.0039677 -0.0017173 0.0014259 -0.0060244 0.00016323 -0.0022116 0.010319 0.028699
-0.10011 0.18768 0.0061252 0.018397
-0.0031052 -0.0020724 -0.00047151 -0.0022713 0.0014518 -0.00020372 -0.0084005 -0.0059558
0.0061131 0.018399 -0.13951 0.26891
1040000000 -4.6008e-05 0.30209 0.032953 0.016263 -0.0009123 0.0066206 0.0025014 0.00051898
0.00026122 -0.0031856 -0.00060276 -0.0011843
0.032879 0.016261 -0.16823 0.36068 0.027797 -0.015346 0.0014508 -0.0016742
-0.0021875 -0.0023211 -0.0013325 -0.0026483
-0.00087542 0.0066205 0.027759 -0.015443 0.16588 0.2985 -0.00056064 -0.0014207
-0.0015778 -0.00090502 -0.00038861 -0.0010792
0.0025091 0.00052333 0.0014298 -0.0017011 -0.00055947 -0.0014234 -0.039102 0.2856
0.020668 0.015887 -0.0024477 0.0013466
0.00024184 -0.0031765 -0.0021876 -0.0023389 -0.0015806 -0.00089127 0.020695 0.015851
-0.066869 0.19361 0.013364 0.01609
-0.0006316 -0.0011723 -0.0013408 -0.0026745 -0.00038676 -0.0010751 -0.0024372 0.0013639
0.013349 0.0161 -0.11476 0.28828
1100000000 0.045114 0.3086 0.034477 -0.005407 0.0028474 0.0035335 0.0021688 -0.0011959
-0.0019221 -0.0028839 -0.0035843 0.00031721
0.034436 -0.0053803 -0.12515 0.37716 0.013734 -0.027242 -0.0001179 -0.001825
-0.0031234 -0.00064621 -0.0032599 -0.00036212
0.0028537 0.0035223 0.013645 -0.027318 0.21173 0.27684 -0.0018336 0.00021499
-0.0017478 0.00060727 -0.00092915 -0.00036314
0.0021595 -0.0011963 -0.00013864 -0.0018277 -0.0018381 0.00021395 0.0015915 0.28875
0.024674 0.0028369 -0.0024588 0.00012091
-0.0019353 -0.0028802 -0.0031314 -0.00063411 -0.0017521 0.00061321 0.024686 0.0028035
-0.048939 0.20597 0.018262 0.0065112
-0.0035794 0.00034207 -0.0032556 -0.00034776 -0.00093194 -0.00036053 -0.0024591 0.00012699
0.01825 0.0065215 -0.068556 0.31291
1160000000 0.096746 0.30254 0.022293 -0.021034 0.0024531 -0.00052152 -0.00015497 -0.0021679
-0.0038663 -0.00053899 -0.00073848 0.0036747
0.022272 -0.021003 -0.080307 0.38078 -0.0044809 -0.027898 -0.0016494 -0.0015481
-0.0024407 0.0023833 -0.0012365 0.0015455
0.0024616 -0.00052414 -0.0046146 -0.027906 0.25465 0.24498 -0.00076535 0.001782
-0.00050702 0.0018497 -0.00088773 4.2059e-05
-0.00016069 -0.0021548 -0.001663 -0.0015539 -0.00076627 0.0017804 0.041526 0.28383
0.020083 -0.012207 -0.003045 0.0045523
-0.003878 -0.00053282 -0.0024232 0.0024051 -0.00052402 0.0018537 0.020074 -0.012237
-0.014977 0.21305 0.016483 -0.001068
-0.00074378 0.0036643 -0.0012181 0.0015445 -0.0008832 4.7082e-05 -0.0030393 0.0045648
0.016473 -0.0010596 -0.021102 0.31387
1220000000 0.14104 0.28914 0.0089118 -0.029177 -0.0015596 -0.00055744 3.6515e-05 -0.00090478
-0.0023161 0.0022859 0.00127 0.0017718
0.0089112 -0.029145 -0.036583 0.3913 -0.016747 -0.019818 -0.0024105 0.0004424
1.17e-05 0.0027993 -0.00059756 0.0018216
-0.0015609 -0.00055009 -0.016855 -0.019775 0.29307 0.20472 0.00077065 0.0017416
0.00062554 0.001182 0.00036859 0.00052997
3.3856e-05 -0.00089995 -0.00241 0.00045078 0.00077153 0.0017463 0.080969 0.27285
0.0093624 -0.018109 0.0016535 0.0014191
-0.0023146 0.0022902 3.5922e-05 0.0028023 0.00061435 0.0011729 0.0093404 -0.018124
0.0084532 0.21958 0.011844 -0.012739
0.0012659 0.0017728 -0.0005797 0.0018332 0.00036307 0.0005307 0.0016542 0.0014102
0.011838 -0.012746 0.011463 0.32626
1280000000 0.18981 0.26606 -0.0084882 -0.026961 -0.0015388 0.0026673 -0.00095156 -0.001885
-0.00060176 0.0028721 0.0022768 0.00084182
-0.0084594 -0.026946 0.0090122 0.3821 -0.022851 -0.0077106 -0.0009988 0.0013761
0.0015552 0.0016696 0.00064328 0.0017616
-0.0015318 0.0026756 -0.022906 -0.0076147 0.32306 0.16054 0.0015468 4.4491e-05
0.0010343 0.0002496 0.00028147 0.00014332
-0.00096305 -0.0018804 -0.00099381 0.0013811 0.0015494 4.5217e-05 0.11686 0.25485
-0.00018057 -0.019571 -0.00041707 0.00037429
-0.0006044 0.0028824 0.0015675 0.0016568 0.0010381 0.00024452 -0.00021727 -0.01958
0.044827 0.22183 0.0016274 -0.014368
0.0022826 0.00083366 0.00065933 0.00176 0.00028 0.00014303 -0.00041934 0.00037118
0.0016313 -0.014365 0.057889 0.32519
1340000000 0.22634 0.23073 -0.017428 -0.017569 0.0011716 0.0041302 -0.0015731 -0.0008477
0.0014495 0.0024869 0.0014029 -0.0014459
-0.017384 -0.017559 0.048409 0.37283 -0.020523 0.0043947 -0.0001831 0.0020386
0.0018735 0.00083963 0.0013115 0.00063531
0.0011858 0.0041205 -0.020533 0.0045025 0.34483 0.11169 0.0012294 -0.00089334
0.00063219 -0.00048953 8.0248e-05 0.00020207
-0.0015869 -0.00084756 -0.00017588 0.0020333 0.0012311 -0.00089218 0.14858 0.23248
-0.0093003 -0.016539 0.00070768 0.00095832
0.0014596 0.0024804 0.0018861 0.00082659 0.00063021 -0.0004903 -0.0093363 -0.016524
0.074584 0.21487 -0.0043596 -0.012549
0.0013954 -0.0014573 0.0013231 0.00062511 8.634e-05 0.00020306 0.00071209 0.00095639
-0.0043689 -0.012555 0.096555 0.31727
1400000000 0.2577 0.19164 -0.022354 -0.006562 0.0050556 0.0026637 -0.0020452 0.00046759
0.0022248 0.00072127 0.00017296 -0.0013442
-0.022318 -0.0065697 0.084768 0.35957 -0.013962 0.011976 0.0013028 0.0014157
0.0012198 -0.00070051 0.0011615 9.4222e-05
0.0050646 0.0026394 -0.013931 0.01206 0.35699 0.05754 0.0001595 -0.001842
2.7831e-05 -0.00042925 0.00028118 0.00011782
-0.002042 0.00047476 0.0013118 0.0014051 0.00016356 -0.0018457 0.17611 0.20248
-0.015049 -0.0098918 -0.00054405 0.00019879
0.0022357 0.00070556 0.0012266 -0.0007089 2.5606e-05 -0.00043244 -0.015071 -0.009863
0.10594 0.20887 -0.010073 -0.0076844
0.00016577 -0.0013418 0.001165 8.679e-05 0.00028538 0.00012139 -0.00054299 0.00019697
-0.010058 -0.0076939 0.13938 0.30368
1460000000 0.27976 0.14744 -0.019343 0.0047455 0.0052554 -0.0020463 -0.0016237 0.0015268
0.0018423 -0.00055304 -0.00032243 -0.0009039
-0.019331 0.0047276 0.11922 0.33767 -0.0058407 0.014514 0.0017902 0.00020234
0.0009052 -0.0012784 0.0011171 -0.00055271
0.0052504 -0.002078 -0.0057895 0.014561 0.36237 0.0028461 -0.001429 -0.0013841
0.00011573 -0.0001745 0.00058431 -0.00034885
-0.0016239 0.001533 0.0017851 0.00018201 -0.0014311 -0.0013847 0.20094 0.17266
-0.016343 -0.0032216 -0.00044835 0.002155
0.0018264 -0.00057698 0.00089065 -0.0012947 0.00011558 -0.00017739 -0.016345 -0.0031803
0.13448 0.19307 -0.011222 -0.0022339
-0.00032348 -0.00090213 0.0011117 -0.00054735 0.00058739 -0.00035398 -0.00045608 0.0021386
-0.011226 -0.0022385 0.17202 0.28136
1520000000 0.29085 0.10475 -0.013842 0.0098624 0.0027952 -0.0040401 4.0991e-05 0.0025846
0.0019163 -0.0015321 -0.0010527 -0.00015336
-0.01384 0.0098386 0.15239 0.32207 0.0012983 0.012504 0.001722 -0.00088165
6.5376e-05 -0.0011955 0.00028729 -0.00096776
0.0027848 -0.0040521 0.0013559 0.012514 0.35454 -0.054259 -0.001427 -0.00036236
0.00047414 -0.00087666 -3.9537e-05 -0.00010637
4.6504e-05 0.0025874 0.0017269 -0.00088854 -0.0014279 -0.00036124 0.22183 0.13426
-0.015794 0.0027095 0.0017379 0.0018716
0.0019124 -0.0015422 6.0161e-05 -0.001201 0.00046988 -0.00088151 -0.01579 0.0027552
0.16097 0.1773 -0.01106 0.0018368
-0.0010516 -0.00015229 0.00028309 -0.00096641 -4.1539e-05 -0.00010677 0.0017417 0.0018728
-0.01106 0.0018331 0.20417 0.25815
1580000000 0.29911 0.058759 -0.0077051 0.012631 -0.0011333 -0.0044626 0.0014366 0.0019587
-0.00012652 -0.001994 -0.0003487 0.00033576
-0.0077182 0.012618 0.1795 0.29737 0.0047358 0.0080035 0.0004437 -0.0017313
-0.00060854 -0.0011294 -0.00022522 -0.00081307
-0.0011508 -0.0044554 0.0047804 0.0079824 0.33346 -0.11124 -0.0016754 0.00092576
-0.00023284 -0.0011056 0.00011195 -0.00047678
0.0014423 0.0019524 0.00043465 -0.0017354 -0.001673 0.00092559 0.23396 0.095866
-0.012621 0.007978 0.0023066 0.00055875
-0.00013895 -0.0019945 -0.0006141 -0.0011334 -0.00023785 -0.001108 -0.012616 0.0080155
0.18394 0.15865 -0.0089741 0.0070495
-0.00035153 0.00033414 -0.00022674 -0.00081982 0.00011084 -0.0004809 0.0023087 0.00055303
-0.0089751 0.0070482 0.23426 0.23032
1640000000 0.30053 0.016688 -0.0015046 0.011623 -0.0026724 -0.0022428 0.0027368 0.00098111
-0.00058485 -0.0015283 -0.00028297 0.00066863
-0.0015153 0.011613 0.20917 0.27138 0.0054745 0.0036387 -0.0008364 -0.0017196
-0.0011454 -0.00033544 -0.00051603 -0.0005434
-0.0026892 -0.0022218 0.0055008 0.0036151 0.30446 -0.16052 -0.00052344 0.0016328
-0.0011057 -0.00080784 -0.00014289 -0.00012809
0.0027345 0.00096736 -0.00085317 -0.0017172 -0.00052723 0.001629 0.24504 0.047721
-0.0083128 0.010001 0.0024916 -0.0010018
-0.0006037 -0.0015226 -0.001142 -0.0003221 -0.0011137 -0.00080829 -0.0083017 0.010025
0.20542 0.13323 -0.0045072 0.0088603
-0.00027676 0.00067312 -0.00052764 -0.0005366 -0.00014832 -0.00013283 0.0024862 -0.0010041
-0.0045211 0.0088611 0.25899 0.19736
1700000000 0.29177 -0.028911 0.0017132 0.009109 -0.0032375 0.00018077 0.0029892 -0.0012988
-0.0019491 -0.00076073 0.0006322 0.00041137
0.0017032 0.0091032 0.2265 0.2395 0.003752 0.00088477 -0.0015496 -0.00047678
-0.0008171 0.00027633 -0.00081433 -0.00039191
-0.0032362 0.00019459 0.0037661 0.00086319 0.26028 -0.20006 0.00067313 0.0015229
-0.0017476 -0.00016705 -0.00041344 -0.00072575
0.0029839 -0.0013096 -0.001555 -0.00047047 0.00066987 0.0015235 0.24065 -0.00030832
-0.0048094 0.011065 0.0014588 -0.0021906
-0.0019639 -0.00074765 -0.00082083 0.00028169 -0.0017547 -0.00016284 -0.0047953 0.011074
0.22081 0.1125 -6.3738e-05 0.0093383
0.00063371 0.00040746 -0.00081883 -0.00038867 -0.00042039 -0.00072991 0.0014587 -0.0021972
-6.5554e-05 0.0093428 0.27297 0.16185
1760000000 0.27866 -0.077426 0.0039427 0.0060792 -0.0020705 0.00087096 0.00107 -0.00345
-0.0014988 0.00057543 0.00052796 -0.00039356
0.0039277 0.0060843 0.2524 0.19908 0.0017331 -0.001047 -0.0012189 0.0003162
-0.00092488 0.0010067 -0.00059231 0.00047254
-0.002071 0.00087892 0.0017294 -0.0010597 0.21158 -0.2332 0.0012932 0.0007592
-0.0011264 0.0015539 -0.0012366 -0.00036867
0.0010554 -0.0034532 -0.0012247 0.00032012 0.001292 0.00076261 0.23205 -0.049931
-0.0007405 0.010524 -0.00033293 -0.0024541
-0.0015026 0.00059215 -0.00092265 0.0010142 -0.0011124 0.001547 -0.00072173 0.010521
0.23463 0.077293 0.0035545 0.0069421
0.00052416 -0.00040198 -0.00058595 0.00047854 -0.0012323 -0.00036326 -0.00033346 -0.0024598
0.0035566 0.0069427 0.28439 0.12369
1820000000 0.2522 -0.11477 0.0042207 0.0027009 7.9359e-05 0.0023804 -0.0011657 -0.002928
-0.0011811 0.0010497 8.6055e-05 -0.00013269
0.0042086 0.0027008 0.26135 0.16823 -9.7936e-05 0.000116 -0.001136 0.0010323
0.00018293 0.0012948 -0.00047653 0.00053796
9.0573e-05 0.0023754 -9.8321e-05 0.00011932 0.16043 -0.2482 0.0014132 6.8454e-05
-7.9692e-05 0.0022433 -0.0013668 0.00037701
-0.00117 -0.0029277 -0.0011365 0.0010361 0.0014106 7.1662e-05 0.20243 -0.096182
0.0015371 0.0086005 -0.0015753 -0.0014651
-0.0011839 0.0010584 0.00018603 0.0012986 -6.7173e-05 0.0022504 0.0015625 0.00861
0.25004 0.047494 0.0046423 0.0036573
8.0222e-05 -0.00013015 -0.00047533 0.00054166 -0.0013584 0.00037783 -0.0015748 -0.0014663
0.0046418 0.0036497 0.28502 0.085969
1880000000 0.21574 -0.15374 0.0020539 0.00047611 -0.00040165 0.0019276 -0.0029158 -0.0019054
-0.00027473 0.0018359 0.00019805 -0.00055807
0.0020494 0.00048676 0.26499 0.12189 -0.0022064 0.0016668 -4.9791e-05 0.0016155
0.00069673 0.00095347 0.00015395 0.00092814
-0.00040015 0.0019395 -0.0021991 0.0016916 0.10766 -0.25727 0.0014133 -0.001044
0.0016117 0.0016896 -0.00084238 0.0012822
-0.0029249 -0.0019006 -4.4521e-05 0.0016192 0.001408 -0.0010382 0.1632 -0.13559
0.0029838 0.0059895 -0.0021888 0.00023699
-0.0002586 0.0018464 0.00070238 0.00095017 0.0016127 0.0016929 0.0030006 0.0059827
0.25183 0.015218 0.0045396 0.0016177
0.00019415 -0.00055746 0.00016363 0.0009274 -0.00084417 0.0012809 -0.0021826 0.00024998
0.0045326 0.0016214 0.28306 0.052468
1940000000 0.17586 -0.17909 -6.6146e-05 -0.0010708 0.001402 0.0017505 -0.003564 0.00058289
0.0016123 0.0010807 -0.00059504 -0.00059455
-5.9428e-05 -0.0010695 0.26489 0.089757 -0.00095094 0.003804 0.0010077 0.0010962
0.0016798 0.00026499 0.0007853 0.0003171
0.0014106 0.0017491 -0.00092411 0.003808 0.062278 -0.25066 8.4622e-05 -0.0017061
0.0021786 0.00027642 0.0002596 0.0014897
-0.0035613 0.00059265 0.0010133 0.0010981 9.1114e-05 -0.0017047 0.11187 -0.1666
0.0024049 0.003884 -0.0013118 0.0011717
0.0016249 0.0010706 0.00169 0.00025134 0.0021819 0.00026615 0.0024179 0.0038724
0.25291 -0.024512 0.0036353 -0.0014537
-0.00058817 -0.00059253 0.00079102 0.00030841 0.00026486 0.0014855 -0.0013093 0.0011685
0.0036288 -0.0014596 0.27119 0.015122
2000000000 0.12865 -0.19272 -0.0037346 0.00095135 0.0023407 0.0015909 -0.0022163 0.0032862
0.0013213 1.7466e-05 -0.00058607 0.00034105
-0.0037246 0.00094589 0.24961 0.054493 -0.00080686 0.0055783 0.0014773 0.00020061
0.0010945 -0.0013146 0.00050854 0.00010435
