!Keysight Technologies,M9804A,MY58100912,A.14.10.03
!Date: Thursday, April 27, 2023 10:28:33
!Correction: S11(C  6-Port  ) 
!S12(C  6-Port  ) 
!S13(C  6-Port  ) 
!S14(C  6-Port  ) 
!S15(C  6-Port  ) 
!S16(C  6-Port  ) 
!S21(C  6-Port  ) 
!S22(C  6-Port  ) 
!S23(C  6-Port  ) 
!S24(C  6-Port  ) 
!S25(C  6-Port  ) 
!S26(C  6-Port  ) 
!S31(C  6-Port  ) 
!S32(C  6-Port  ) 
!S33(C  6-Port  ) 
!S34(C  6-Port  ) 
!S35(C  6-Port  ) 
!S36(C  6-Port  ) 
!S41(C  6-Port  ) 
!S42(C  6-Port  ) 
!S43(C  6-Port  ) 
!S44(C  6-Port  ) 
!S45(C  6-Port  ) 
!S46(C  6-Port  ) 
!S51(C  6-Port  ) 
!S52(C  6-Port  ) 
!S53(C  6-Port  ) 
!S54(C  6-Port  ) 
!S55(C  6-Port  ) 
!S56(C  6-Port  ) 
!S61(C  6-Port  ) 
!S62(C  6-Port  ) 
!S63(C  6-Port  ) 
!S64(C  6-Port  ) 
!S65(C  6-Port  ) 
!S66(C  6-Port  ) 
!S6P File: Measurement: :
# Hz S  RI   R 50
500000000 -0.33841 -0.025353 -0.011222 -0.0039349 -0.0083259 0.013351 -0.0040633 0.011992
0.011589 0.004917 -0.0038398 0.0084794
-0.009995 -0.0035 -0.42001 -0.042338 0.006251 -0.01148 0.0017107 0.012446
0.0072998 0.0023195 0.0018965 0.014163
-0.0074061 0.013261 0.0062887 -0.011573 -0.26551 0.21907 0.0067111 0.0039091
-0.0014655 0.0077736 0.0015659 0.012972
-0.0037458 0.011521 0.00074586 0.012523 0.00716 0.0037986 -0.33353 0.05592
-0.020584 -0.0071678 0.016272 0.024332
0.01231 0.0026029 0.0078339 0.0023126 -0.001935 0.0080028 -0.020132 -0.0071293
-0.23247 -0.17385 -0.025666 0.004478
-0.0039387 0.0066655 0.0011212 0.013422 0.0021346 0.012042 0.014802 0.023741
-0.02581 0.0041495 -0.27805 -0.096909
560000000 -0.31562 0.13534 -0.025724 -0.061037 0.00030902 0.012262 0.0054901 0.010441
0.0091184 0.0043868 0.010034 0.0075959
-0.025606 -0.059177 -0.37494 0.11298 -0.041896 -0.03457 0.013166 0.0039639
-0.012939 -0.0026976 0.0037957 -0.0014304
-0.00010013 0.012248 -0.041692 -0.034069 -0.18201 0.26566 -0.00030612 -0.0038496
0.018431 0.0033706 0.0067098 -0.0051823
0.0054453 0.010517 0.013743 0.0030901 -0.00013658 -0.0040879 -0.30722 0.14471
0.0010137 -0.023778 0.0033194 -0.019742
0.0098621 0.0044652 -0.01286 -0.0028349 0.019485 0.0037919 0.00052194 -0.022892
-0.28908 -0.0011763 0.0054007 -0.047499
0.0094169 0.0083881 0.0038169 -0.001705 0.0063468 -0.0055959 0.0034901 -0.019825
0.0053524 -0.04773 -0.33065 0.044086
620000000 -0.27352 0.11862 -0.023409 0.0079311 0.0043114 0.0078146 0.007902 -0.0048809
0.010398 -0.00105 0.0011026 -0.0020603
-0.022973 0.008004 -0.40192 0.068852 -0.019134 0.00092135 -0.0013149 -0.0016748
0.010957 -0.0064584 0.0016084 -0.0027967
0.0040234 0.0084376 -0.019108 0.0011063 -0.15077 0.27439 -0.001115 -0.0047053
-0.0030405 -0.0026632 0.0079813 -0.0029827
0.0079333 -0.0047476 -0.0021339 -0.0019165 -0.0012296 -0.0047513 -0.26459 0.1559
-0.040505 -0.016452 0.011195 0.025543
0.010685 -0.0012483 0.011859 -0.0061413 -0.0025797 -0.0028657 -0.040887 -0.016864
-0.21162 -0.039631 -0.04002 0.014003
0.00039611 -0.0025986 0.00049972 -0.0034793 0.0080549 -0.0028811 0.012314 0.02499
-0.040429 0.014215 -0.2569 0.013384
680000000 -0.22928 0.20188 -0.027569 -0.01177 0.0057445 0.0048317 0.0015521 -0.0069805
-0.0027013 -0.011193 0.004115 -0.0069228
-0.027194 -0.012461 -0.38564 0.16539 -0.032088 0.00030752 -0.0013446 -0.00055511
-0.0019695 -0.009181 -0.0015956 -0.0021472
0.005766 0.0043424 -0.031998 0.00053869 -0.098985 0.29368 -0.00075228 -0.00059061
-0.0016739 0.00030881 -0.0034421 -0.0088789
0.0015063 -0.0063538 -0.0012196 -0.00053446 -0.00079265 -0.00066765 -0.21807 0.20618
-0.025933 -0.0046053 -0.0090132 -0.0090244
-0.0029545 -0.011351 -0.0021823 -0.0089544 -0.0015702 0.00020934 -0.025904 -0.0047432
-0.25497 0.061268 -0.0083962 -0.0061958
0.0048388 -0.0069374 -0.0014819 -0.0017851 -0.0029863 -0.0085214 -0.0092456 -0.0084714
-0.00818 -0.0059212 -0.25581 0.11447
740000000 -0.18465 0.19652 -0.03673 0.027276 0.012384 -0.0056001 -0.00067937 -0.0043103
-0.0049229 -0.002763 -0.0053995 0.0021781
-0.036442 0.026802 -0.33369 0.1842 -0.033137 0.03511 -0.00081597 -0.0061837
-0.011219 0.0071929 -0.0022719 -0.0054321
0.012524 -0.0054194 -0.033088 0.035089 -0.064502 0.29161 -0.0020372 0.0030183
-0.0026626 -0.004412 -0.001581 0.0008418
-0.00083377 -0.004461 -0.0014843 -0.0064526 -0.0022407 0.0031896 -0.20019 0.21396
-0.043134 -0.0031996 0.023469 0.013667
-0.0039398 -0.0024294 -0.011115 0.0075623 -0.0031061 -0.0049576 -0.04273 -0.003396
-0.15777 0.082839 -0.04014 0.0040229
-0.006311 0.0021592 -0.0028562 -0.0063536 -0.0022789 0.0010786 0.022802 0.013773
-0.040034 0.0038729 -0.24591 0.12277
800000000 -0.15143 0.23494 -0.020997 0.017744 0.0047356 -0.010484 -0.004609 -0.0016811
-0.0033342 0.0024116 0.0036656 0.00030809
-0.021043 0.017455 -0.33475 0.25309 -0.0067668 0.033635 -0.0025744 0.0022268
-0.00068881 0.0031582 0.00090166 0.0052579
0.0048882 -0.010523 -0.0065979 0.033919 -0.02353 0.31375 0.00067401 0.0017524
0.00039539 0.0035093 -0.0015818 0.00098371
-0.004439 -0.0016491 -0.002337 0.0024577 0.00070287 0.0017233 -0.17062 0.24065
-0.026969 0.016653 0.013252 -0.01032
-0.003729 0.0021709 -0.0008884 0.0033444 0.00045027 0.0036413 -0.02677 0.017022
-0.19816 0.10978 -0.015851 0.019661
0.0036422 0.00064664 0.0011672 0.00586 -0.0016712 0.0010618 0.013283 -0.010068
-0.015691 0.019413 -0.23398 0.17036
860000000 -0.11641 0.25465 -0.015611 0.030487 -0.0035822 -0.0098109 -0.0020239 0.00079491
0.0040439 0.0044875 -0.0030565 -0.0026096
-0.015812 0.030416 -0.28644 0.29385 0.0090736 0.03329 0.00018948 0.0019648
0.0037481 0.00032516 0.0030295 0.00039505
-0.0035564 -0.0096923 0.0092728 0.033244 0.025175 0.32099 -0.00041963 -9.3041e-05
0.0024582 -0.0014823 0.0017392 0.0040405
-0.0023556 0.0010844 6.6543e-05 0.0023225 -0.00061636 -7.3337e-05 -0.13236 0.25073
-0.014915 0.020134 -0.005357 -0.0089717
0.0038265 0.0047345 0.0040341 6.2275e-05 0.0025614 -0.0015156 -0.014768 0.020352
-0.14435 0.15596 -0.02168 0.0168
-0.0027171 -0.0023441 0.0030866 -9.2043e-05 0.0018604 0.0037262 -0.0056506 -0.0089426
-0.021712 0.016907 -0.18436 0.21119
920000000 -0.090371 0.27578 0.006417 0.036534 -0.0094274 -0.0042002 -0.0015573 0.0015595
0.0014485 0.001729 0.0025854 -0.0015182
0.0065077 0.03652 -0.25707 0.31397 0.028334 0.020398 0.0017874 0.00077273
0.0068883 -0.00053245 0.0035307 -0.0025686
-0.0093254 -0.0041484 0.028395 0.020354 0.071868 0.32072 0.0019524 -0.00020972
0.0015564 -0.000608 0.00068364 -0.0010296
-0.0015255 0.0017143 0.0016236 0.00099078 0.0019986 -0.00020547 -0.10768 0.26613
-0.0073023 0.031163 0.002804 -0.0068927
0.0013959 0.0016437 0.0071443 -0.00080126 0.0015121 -0.00049995 -0.0073585 0.031073
-0.13223 0.1614 8.5267e-06 0.026289
0.0025905 -0.0015884 0.0033621 -0.0030352 0.00077676 -0.0013033 0.0026927 -0.0067427
0.00010436 0.026309 -0.18548 0.22525
980000000 -0.043735 0.29406 0.018231 0.028361 -0.0086681 0.0046268 0.0017892 0.0030198
0.0036288 -0.0017011 -0.0029867 -0.0021136
0.018194 0.028311 -0.20518 0.34712 0.03272 0.0033793 0.00214 -0.00014412
0.0014122 -0.0063226 -0.00066789 -0.0024446
-0.0086638 0.0046277 0.032636 0.0032857 0.11853 0.31379 0.00054747 -0.0012659
0.00010658 -0.0023618 0.0012485 -0.00031939
0.0018429 0.0028028 0.0020835 -0.00021593 0.00054465 -0.0013057 -0.068702 0.27641
0.011056 0.028935 -0.0083133 -0.0066177
0.0038175 -0.0015643 0.0016276 -0.0062622 0.00015343 -0.0022623 0.011108 0.029028
-0.10015 0.1871 0.0061432 0.018533
-0.0031778 -0.0022916 -0.00059566 -0.0021795 0.0012402 -0.00013608 -0.0081743 -0.0066908
0.006212 0.018782 -0.14277 0.2659
1040000000 -0.00071105 0.30121 0.032921 0.015929 -0.0013196 0.0066924 0.0023195 0.00078298
0.00027266 -0.0031799 -0.00081288 -0.0013162
0.032887 0.015981 -0.16908 0.35999 0.028079 -0.015813 0.0014639 -0.0017282
-0.0023219 -0.0026846 -0.0014714 -0.0028533
-0.0012835 0.0066738 0.028044 -0.015877 0.16554 0.29885 -0.00056815 -0.0014897
-0.0017881 -0.0010063 -0.00063834 -0.0010915
0.0022664 0.00075696 0.0014144 -0.0016317 -0.00059063 -0.0015188 -0.040024 0.28484
0.0218 0.01584 -0.0025487 0.00093388
-2.5773e-05 -0.0031214 -0.0023448 -0.0025053 -0.0016456 -0.00090671 0.021646 0.01587
-0.066642 0.19239 0.014024 0.016366
-0.00084454 -0.001293 -0.0014577 -0.0026156 -0.00057671 -0.00097609 -0.0024331 0.00075908
0.014107 0.01638 -0.1183 0.28518
1100000000 0.044017 0.3078 0.034504 -0.005803 0.0025968 0.0036781 0.0021066 -0.00092883
-0.0018697 -0.0030237 -0.0037653 0.00015337
0.034494 -0.0057071 -0.12629 0.37683 0.013718 -0.027929 -8.5891e-05 -0.0017796
-0.0034346 -0.00076196 -0.0035482 -0.0004336
0.0026151 0.0036987 0.013595 -0.028019 0.21201 0.2771 -0.0019096 0.00022906
-0.0019062 0.00063504 -0.0010527 -0.0001764
0.0021957 -0.00089237 -0.00012374 -0.0018235 -0.0019081 0.00019062 0.00039074 0.28821
0.025662 0.0021355 -0.0026256 -0.00030206
-0.0018234 -0.0029876 -0.0035144 -0.00085891 -0.0018744 0.00066036 0.025688 0.0022475
-0.049278 0.2041 0.018871 0.0063251
-0.0037646 0.00025656 -0.0034906 -0.00043475 -0.00095348 -0.000174 -0.0026853 -0.00031749
0.018902 0.0063853 -0.072715 0.31131
1160000000 0.095349 0.30195 0.022104 -0.021641 0.0022087 -0.00033218 -1.1524e-05 -0.0018798
-0.003979 -0.00063481 -0.00097799 0.0040492
0.022121 -0.021598 -0.081568 0.38104 -0.0050349 -0.028403 -0.0016764 -0.0015823
-0.0028037 0.0026663 -0.0013574 0.0015674
0.0022268 -0.00037687 -0.0051159 -0.028434 0.2553 0.2447 -0.00078162 0.0018639
-0.0004447 0.0019957 -0.00065431 0.00022894
-4.7083e-05 -0.0018407 -0.0016286 -0.0015748 -0.0008349 0.0018139 0.040183 0.28374
0.020615 -0.013366 -0.0034584 0.0042568
-0.0039516 -0.00053682 -0.0026549 0.0026015 -0.00039278 0.0020279 0.020572 -0.013438
-0.015955 0.21118 0.017201 -0.0018272
-0.00079718 0.0038921 -0.001276 0.0019131 -0.00079515 0.0002256 -0.0033184 0.0043075
0.017094 -0.0018425 -0.024501 0.31232
1220000000 0.13947 0.28924 0.0083323 -0.029659 -0.0016727 -0.00023946 0.00024107 -0.00089711
-0.0024394 0.0022361 0.0013694 0.0018754
0.0083568 -0.029577 -0.037309 0.39187 -0.017457 -0.020041 -0.0024714 0.00045012
9.6331e-05 0.0031576 -0.00053328 0.0020591
-0.0016698 -0.00025747 -0.017581 -0.019966 0.2934 0.20354 0.0008718 0.0018966
0.00075313 0.0012437 0.00051524 0.00058877
0.00017373 -0.00091153 -0.0024525 0.00054967 0.00092107 0.0018755 0.079934 0.27304
0.0091009 -0.019585 0.0011102 0.0014181
-0.0023847 0.0022722 0.00012627 0.003132 0.0007043 0.0012652 0.0091098 -0.019587
0.006752 0.21773 0.0122 -0.014147
0.0012787 0.0019675 -0.00070168 0.0020435 0.00050137 0.00057755 0.0011439 0.0013978
0.012209 -0.01419 0.0080856 0.32525
1280000000 0.18856 0.26666 -0.0094369 -0.027136 -0.001566 0.0030576 -0.00083915 -0.0020475
-0.00075902 0.0029421 0.0024697 0.00095414
-0.0094164 -0.027115 0.0088546 0.38283 -0.023643 -0.0074 -0.0009518 0.0014826
0.0018678 0.0017906 0.00088423 0.0018554
-0.0015777 0.0031151 -0.023734 -0.0073217 0.32254 0.15911 0.0017234 6.7016e-05
0.0012614 0.00019932 0.00027531 5.2771e-05
-0.00083625 -0.0020146 -0.0010152 0.0015105 0.0017125 4.5952e-05 0.11618 0.25512
-0.0012323 -0.020796 -0.00089586 0.00068051
-0.0007442 0.0028908 0.0018308 0.0018522 0.0012052 0.00017498 -0.0012709 -0.020885
0.042564 0.22065 0.0014678 -0.015685
0.0023449 0.0010208 0.00085427 0.0017739 0.00033401 0.00011414 -0.00082454 0.00064024
0.0014962 -0.015775 0.054563 0.3246
1340000000 0.22543 0.23156 -0.018357 -0.016979 0.0015251 0.0044436 -0.0017621 -0.001036
0.0013975 0.0026877 0.0014107 -0.0014233
-0.01834 -0.017012 0.04864 0.37327 -0.020957 0.0050796 -9.1571e-05 0.0020657
0.0021337 0.0006916 0.0014618 0.00067585
0.0014988 0.0044718 -0.020963 0.0052164 0.34339 0.11055 0.0013346 -0.0010382
0.00070062 -0.00050308 1.2922e-06 0.00030209
-0.0017116 -0.00099571 -0.00010364 0.0019934 0.0013129 -0.0010463 0.14811 0.23284
-0.010929 -0.017037 0.0004501 0.0014219
0.0014299 0.0026361 0.0020795 0.00060214 0.00069833 -0.00047499 -0.011017 -0.016955
0.07212 0.21446 -0.0055925 -0.013476
0.0016638 -0.0014457 0.0014079 0.00058743 2.987e-05 0.00024194 0.00038732 0.001431
-0.0055691 -0.013561 0.093495 0.31704
1400000000 0.25743 0.19251 -0.022804 -0.0055467 0.0054912 0.0027897 -0.0022455 0.00051441
0.0023772 0.00090541 0.00016091 -0.0013702
-0.022819 -0.0055862 0.08522 0.35962 -0.013963 0.012802 0.0013787 0.0013407
0.0012027 -0.00097378 0.0010915 -8.1743e-06
0.005524 0.0027207 -0.013882 0.012898 0.35515 0.057225 7.9873e-05 -0.0020112
-3.4395e-05 -0.00047072 0.00026218 0.00011118
-0.002262 0.00060689 0.0013714 0.0013197 8.8545e-05 -0.0020372 0.17589 0.20263
-0.016784 -0.0093604 -0.00047735 0.00081384
0.0023374 0.00087714 0.0012319 -0.00099133 -2.1276e-05 -0.00045746 -0.016836 -0.0093265
0.10347 0.20901 -0.011713 -0.0079027
0.00014491 -0.0014064 0.0011998 -7.1522e-05 0.0003237 0.00016589 -0.00053713 0.00083794
-0.011751 -0.0079519 0.13621 0.30358
1460000000 0.27983 0.14808 -0.019212 0.0059758 0.0057035 -0.0022125 -0.0016165 0.0017921
0.0021403 -0.0004688 -0.0003896 -0.00088157
-0.019169 0.0059799 0.11955 0.33723 -0.0053309 0.0152 0.0017725 0.00012511
0.00064134 -0.001384 0.0010959 -0.00059344
0.0056942 -0.0022835 -0.0052646 0.015213 0.36077 0.0034517 -0.0016288 -0.0014091
7.4046e-05 -0.0002084 0.00070011 -0.00022135
-0.001657 0.0017756 0.0017757 9.0798e-05 -0.0015797 -0.0013973 0.20066 0.17259
-0.017625 -0.001744 -0.0001169 0.0026107
0.0020278 -0.00043861 0.00067809 -0.0014446 6.633e-05 -0.00018893 -0.017642 -0.0016583
0.13221 0.19375 -0.012655 -0.001646
-0.00040873 -0.0008945 0.0010191 -0.00056869 0.00064351 -0.00026468 -9.5799e-05 0.0025248
-0.012697 -0.0016272 0.16912 0.28167
1520000000 0.29095 0.10494 -0.013053 0.010768 0.0030784 -0.0043793 0.0001301 0.0026799
0.0020812 -0.0017275 -0.00114 -0.0001548
-0.013036 0.01074 0.15242 0.32142 0.0020203 0.012657 0.0017006 -0.00092273
-0.00015032 -0.0011541 0.00024854 -0.00090028
0.0030544 -0.0043855 0.0020962 0.012714 0.35339 -0.053253 -0.001481 -0.00018032
0.0005065 -0.00087879 -6.4505e-05 -0.00015861
0.00016867 0.0026598 0.0016673 -0.0009159 -0.0014563 -0.00018126 0.22137 0.13399
-0.015971 0.0047799 0.0022299 0.0021088
0.0021164 -0.0017296 -0.00013866 -0.0011406 0.00053453 -0.00090252 -0.015928 0.0047996
0.15933 0.17849 -0.011944 0.00325
-0.0011639 -0.00013946 0.00021317 -0.0009699 -3.2572e-06 -0.00011246 0.002282 0.0021237
-0.011998 0.0032526 0.20091 0.25885
1580000000 0.29908 0.058638 -0.0065443 0.012994 -0.0010915 -0.0049387 0.0016434 0.0019701
-0.0001617 -0.0022318 -0.00032792 0.00035785
-0.0065122 0.013008 0.17907 0.29661 0.005379 0.0077913 0.00044154 -0.0016817
-0.00062315 -0.0009295 -0.00021909 -0.00081423
-0.0010863 -0.0048693 0.0054274 0.0077667 0.33292 -0.11015 -0.0016621 0.0011261
-0.00032955 -0.0011755 0.00017548 -0.00064278
0.0016288 0.0019158 0.00044679 -0.0016734 -0.0017041 0.0010982 0.2331 0.09557
-0.011553 0.0097117 0.0028248 0.00041707
-0.00013273 -0.0022993 -0.00064906 -0.00090317 -0.00037676 -0.0011845 -0.011541 0.0097704
0.18265 0.15998 -0.009136 0.0085586
-0.00041357 0.00033847 -0.00022393 -0.0007524 0.00016344 -0.00063133 0.00281 0.0004231
-0.0091626 0.0085783 0.23099 0.23169
1640000000 0.30001 0.01646 -0.00038811 0.011265 -0.0029578 -0.0026348 0.0028612 0.00081884
-0.00080563 -0.0016529 -0.00031802 0.00059635
-0.00038584 0.011275 0.20839 0.27092 0.0058402 0.0031846 -0.0008461 -0.0017009
-0.00097543 -0.00023725 -0.00050761 -0.00058366
-0.0029898 -0.002612 0.0058512 0.0031522 0.30438 -0.15946 -0.00040019 0.0016868
-0.0012468 -0.00090382 -0.00028231 -0.00022853
0.0028562 0.00083661 -0.00086785 -0.0017219 -0.00038993 0.0017191 0.24379 0.047773
-0.0064704 0.010755 0.0027967 -0.0012473
-0.00076891 -0.0016164 -0.0009913 -0.00019629 -0.0012432 -0.00084137 -0.0064977 0.010772
0.20481 0.13437 -0.0039277 0.010304
-0.00023814 0.00064311 -0.00055886 -0.00066505 -0.00025338 -0.00026588 0.0029082 -0.0012996
-0.0039824 0.010308 0.25601 0.19919
1700000000 0.29076 -0.028867 0.0024839 0.0082129 -0.0035829 0.00011975 0.0029225 -0.0015217
-0.0020574 -0.00071519 0.00069184 0.00041986
0.0024747 0.0082241 0.22549 0.23939 0.0038172 0.00039794 -0.0015445 -0.00051724
-0.00064347 0.00014516 -0.00091971 -0.00044014
-0.0035943 0.0001612 0.0038208 0.00038999 0.26043 -0.19901 0.0007991 0.0014136
-0.0018455 -0.00010416 -0.00065763 -0.00086735
0.0029677 -0.0015761 -0.0015214 -0.00050755 0.00081686 0.0013971 0.23926 0.00033178
-0.0030608 0.010681 0.0016475 -0.0025562
-0.0021131 -0.00076305 -0.00058431 0.00018302 -0.0018359 -5.42e-05 -0.003069 0.010731
0.22034 0.11336 0.00091205 0.010266
0.000715 0.00041151 -0.00082063 -0.00039494 -0.00062072 -0.00075193 0.001599 -0.0025645
0.00092287 0.0103 0.27057 0.16431
1760000000 0.27775 -0.076713 0.0040885 0.0049918 -0.0024942 0.0010602 0.00091658 -0.0035277
-0.0015158 0.00077518 0.00037554 -0.00052443
0.0040519 0.0049752 0.25139 0.19946 0.001541 -0.0015225 -0.0012361 0.00029689
-0.00089025 0.00078481 -0.00058974 0.00039979
-0.0024225 0.0010368 0.0015832 -0.0015242 0.21238 -0.23254 0.001255 0.00060336
-0.0011404 0.0016245 -0.0012794 -0.00028574
0.00092064 -0.0035678 -0.0012523 0.00026264 0.001175 0.00054766 0.23107 -0.048564
0.00044738 0.0093859 -0.00022784 -0.0028317
-0.0015123 0.00074803 -0.00088772 0.00074156 -0.001135 0.0016291 0.00043625 0.0093848
0.23433 0.078008 0.0049188 0.0073232
0.00028401 -0.00046884 -0.00062296 0.00039468 -0.0013503 -0.000316 -0.00032217 -0.0029097
0.004925 0.0073074 0.28257 0.12643
1820000000 0.25173 -0.11379 0.0037981 0.0018013 -2.2329e-06 0.0025829 -0.0013586 -0.0028945
-0.0011549 0.0010774 -9.7809e-05 -0.00014776
0.0037832 0.0018103 0.26063 0.16893 -0.00050077 -0.00019168 -0.0011772 0.0010519
-1.4481e-05 0.001111 -0.00054166 0.00051636
-6.3104e-06 0.0026344 -0.00054161 -0.00018354 0.16112 -0.24884 0.0011849 0.00019511
-7.5872e-05 0.0022174 -0.0012428 0.00038615
-0.0013612 -0.0027854 -0.0012107 0.0011005 0.0012266 0.00024917 0.20216 -0.094506
0.0018603 0.0073368 -0.0017695 -0.0019526
-0.0011473 0.0011848 -3.2166e-05 0.0010853 -6.9376e-05 0.0022506 0.0019423 0.0073256
0.24942 0.047912 0.0059142 0.0033702
-5.7482e-05 -8.8522e-05 -0.00052311 0.0005297 -0.0013406 0.00051647 -0.0017654 -0.00196
0.0059912 0.0034397 0.28382 0.089039
1880000000 0.21572 -0.15246 0.001297 7.5731e-06 -0.00027099 0.0021445 -0.0030133 -0.0017107
-0.00014284 0.0018313 0.00015105 -0.00038202
0.0013296 2.2003e-05 0.26466 0.12277 -0.0025365 0.0017417 -5.2527e-05 0.001662
0.00041618 0.0010699 4.0683e-05 0.0010235
-0.00032716 0.0021434 -0.0025767 0.001684 0.10771 -0.25732 0.0014594 -0.00078586
0.0015859 0.0017702 -0.00081866 0.0014963
-0.0030207 -0.001819 -6.1102e-05 0.0016548 0.0014685 -0.0008359 0.16368 -0.13405
0.0027176 0.0048541 -0.0026201 0.00010031
-2.5995e-05 0.0018353 0.00042469 0.0010542 0.0016844 0.0017943 0.002712 0.0049066
0.25096 0.015683 0.005613 0.00077971
7.9188e-05 -0.00049162 4.5526e-05 0.00098862 -0.00074136 0.0015518 -0.0026358 6.8015e-05
0.0056001 0.000809 0.28226 0.055244
1940000000 0.17643 -0.17818 -0.00081387 -0.0011683 0.0016227 0.0018747 -0.0034917 0.00076576
0.0016194 0.0010789 -0.00049454 -0.00054952
-0.00081674 -0.0011734 0.26491 0.090656 -0.0011271 0.003949 0.0010198 0.0011478
0.0015475 0.00056145 0.00090572 0.00048172
0.0016825 0.0019061 -0.001177 0.0039814 0.062609 -0.25099 0.00032946 -0.0017967
0.0022319 0.00029963 0.00040818 0.0017183
-0.0035229 0.00079294 0.0010439 0.0012162 0.00035291 -0.0017059 0.11299 -0.16577
0.001872 0.0031672 -0.001755 0.0013542
0.0015485 0.0010482 0.0015008 0.00068643 0.0021926 0.000347 0.0018602 0.0031252
0.25186 -0.023845 0.003988 -0.0026564
-0.00048599 -0.00046451 0.0008072 0.00064579 0.00037104 0.0016797 -0.001687 0.0013625
0.0040424 -0.0026708 0.27092 0.017415
2000000000 0.12914 -0.19201 -0.0045202 0.0010639 0.0023984 0.0015115 -0.0021082 0.0033736
0.0012696 2.1976e-05 -0.00047553 0.00022958
-0.0044989 0.0011864 0.25001 0.055068 -0.00089389 0.0056844 0.0015433 0.0002603
0.0013277 -0.0010831 0.00066034 0.00011576
0.0024957 0.0015007 -0.00083428 0.0057198 0.017945 -0.23605 -0.00094027 -0.0010477
0.0017999 -0.0011549 0.0017874 0.0010014
-0.0020974 0.0034549 0.0014143 0.0002145 -0.00094401 -0.00099301 0.05918 -0.17697
-0.00010688 0.0022227 -0.00034122 0.0021402
0.0011394 0.00015159 0.0012775 -0.001139 0.0017855 -0.0011094 -7.8457e-05 0.0022597
0.24429 -0.057566 0.00048284 -0.0035814
