!Keysight Technologies,M9804A,MY58100912,A.14.10.03
!Date: Thursday, April 27, 2023 10:28:33
!Correction: S11(C  6-Port  ) 
!S12(C  6-Port  ) 
!S13(C  6-Port  ) 
!S14(C  6-Port  ) 
!S15(C  6-Port  ) 
!S16(C  6-Port  ) 
!S21(C  6-Port  ) 
!S22(C  6-Port  ) 
!S23(C  6-Port  ) 
!S24(C  6-Port  ) 
!S25(C  6-Port  ) 
!S26(C  6-Port  ) 
!S31(C  6-Port  ) 
!S32(C  6-Port  ) 
!S33(C  6-Port  ) 
!S34(C  6-Port  ) 
!S35(C  6-Port  ) 
!S36(C  6-Port  ) 
!S41(C  6-Port  ) 
!S42(C  6-Port  ) 
!S43(C  6-Port  ) 
!S44(C  6-Port  ) 
!S45(C  6-Port  ) 
!S46(C  6-Port  ) 
!S51(C  6-Port  ) 
!S52(C  6-Port  ) 
!S53(C  6-Port  ) 
!S54(C  6-Port  ) 
!S55(C  6-Port  ) 
!S56(C  6-Port  ) 
!S61(C  6-Port  ) 
!S62(C  6-Port  ) 
!S63(C  6-Port  ) 
!S64(C  6-Port  ) 
!S65(C  6-Port  ) 
!S66(C  6-Port  ) 
!S6P File: Measurement: :
# Hz S  RI   R 50
500000000 -0.3403 -0.022428 -0.011488 -0.0036678 -0.0084288 0.012994 -0.0032879 0.012458
0.011579 0.0042697 -0.002928 0.0088419
-0.011465 -0.0036599 -0.41997 -0.039977 0.0061197 -0.01124 0.0013512 0.012694
0.0073406 0.0022233 0.0013244 0.013676
-0.0084017 0.013007 0.0061092 -0.01127 -0.26481 0.22081 0.0066427 0.0040766
-0.0014302 0.0080897 0.0012147 0.012053
-0.0032645 0.012466 0.0013779 0.012706 0.00664 0.0040789 -0.33284 0.058195
-0.020513 -0.0066665 0.014352 0.024029
0.011587 0.0042216 0.0073437 0.0022191 -0.0014249 0.0080813 -0.020529 -0.0066555
-0.2349 -0.17118 -0.02575 0.0039879
-0.0029013 0.0088391 0.0013603 0.013696 0.0012236 0.012037 0.014363 0.024028
-0.025761 0.0039821 -0.28386 -0.09159
560000000 -0.31444 0.13551 -0.0267 -0.06076 0.00094793 0.012211 0.0050758 0.010353
0.0097939 0.0048432 0.010369 0.0074593
-0.02664 -0.060702 -0.37544 0.11622 -0.042708 -0.034272 0.01327 0.0042998
-0.011465 -0.0033855 0.0028869 -0.00076877
0.00099019 0.012218 -0.042858 -0.034238 -0.182 0.26642 -4.2057e-05 -0.0045339
0.018313 0.0048739 0.0066184 -0.0064483
0.0051044 0.010358 0.013291 0.0042632 -1.6177e-05 -0.0045311 -0.30608 0.14602
0.00056017 -0.023504 0.0032742 -0.018472
0.0098089 0.0048565 -0.011468 -0.0033542 0.018279 0.0048639 0.00054365 -0.023515
-0.28907 0.0023748 0.0034594 -0.046885
0.010392 0.0074465 0.0028744 -0.00077791 0.0066136 -0.0064352 0.0032611 -0.018476
0.003471 -0.046903 -0.33015 0.051336
620000000 -0.27238 0.12082 -0.023635 0.0079136 0.0040565 0.0083403 0.00768 -0.0053055
0.011144 -0.00076156 0.00073162 -0.0027888
-0.023629 0.0078937 -0.40202 0.070836 -0.01927 0.00086248 -0.0010987 -0.0020611
0.010644 -0.0061753 0.0012319 -0.0026666
0.0040767 0.0083388 -0.019282 0.00092053 -0.15067 0.27577 -0.00085083 -0.0052727
-0.0030931 -0.0019971 0.0083556 -0.0035616
0.0076584 -0.0053049 -0.0011029 -0.0020729 -0.00083813 -0.0052884 -0.26351 0.15754
-0.041177 -0.016971 0.012482 0.024414
0.011162 -0.00079975 0.010636 -0.0061927 -0.0030832 -0.0019558 -0.041205 -0.016963
-0.2106 -0.03666 -0.041091 0.01564
0.00073415 -0.0028254 0.0012329 -0.0026555 0.0083553 -0.0035102 0.01248 0.024413
-0.041089 0.015621 -0.25853 0.021848
680000000 -0.2293 0.20435 -0.027865 -0.011663 0.0056473 0.0047536 0.0015501 -0.007156
-0.0025551 -0.010805 0.0045298 -0.0069873
-0.027836 -0.011666 -0.38501 0.16613 -0.032101 0.00045756 -0.001261 -0.00064052
-0.0020632 -0.0091142 -0.0014654 -0.0022826
0.0056493 0.0047331 -0.032135 0.00054075 -0.098603 0.29441 -0.00088148 -0.00053202
-0.0016359 -6.2514e-05 -0.0034945 -0.0087763
0.0015402 -0.0071842 -0.0012609 -0.00063784 -0.00087849 -0.00052252 -0.2174 0.20614
-0.025883 -0.0044924 -0.008979 -0.0085307
-0.0025956 -0.010812 -0.0020945 -0.0091201 -0.0016356 -5.3656e-05 -0.025907 -0.004472
-0.25336 0.063121 -0.0080028 -0.0062754
0.0045122 -0.0070024 -0.0014681 -0.002281 -0.0034876 -0.0088021 -0.0090015 -0.0085297
-0.0079937 -0.0062729 -0.2548 0.12011
740000000 -0.18489 0.19821 -0.036045 0.027013 0.012544 -0.005742 -0.00081183 -0.0042798
-0.0043633 -0.0028271 -0.00587 0.002977
-0.036026 0.026972 -0.33282 0.18481 -0.033003 0.035268 -0.0010969 -0.0063582
-0.011967 0.0075342 -0.0023385 -0.0051766
0.012524 -0.0057663 -0.032939 0.035405 -0.064646 0.29219 -0.0019203 0.0030557
-0.0029809 -0.0045763 -0.0020846 0.00080464
-0.00082163 -0.0042968 -0.001103 -0.0063674 -0.001928 0.0030402 -0.19952 0.21452
-0.042907 -0.0026321 0.022949 0.013023
-0.0044026 -0.0028165 -0.011973 0.0075622 -0.0029961 -0.0045925 -0.042957 -0.0025881
-0.15714 0.085028 -0.039852 0.0045086
-0.0058763 0.0030064 -0.0023267 -0.0051652 -0.0020872 0.00080132 0.022937 0.012997
-0.039838 0.0045014 -0.24376 0.12846
800000000 -0.15073 0.23644 -0.020979 0.017724 0.0048715 -0.010545 -0.0045591 -0.0016347
-0.0036793 0.0027084 0.0035914 0.00047878
-0.020963 0.017699 -0.33391 0.25347 -0.0066355 0.033828 -0.0024025 0.0022968
-0.00095049 0.003241 0.00098931 0.0052896
0.0048466 -0.01057 -0.006549 0.033886 -0.023137 0.31449 0.00077515 0.0018272
0.0004832 0.0036792 -0.0017163 0.001129
-0.0045671 -0.0016151 -0.0023938 0.0023027 0.00077143 0.001832 -0.16989 0.24103
-0.027157 0.017184 0.013277 -0.010012
-0.0036726 0.0027329 -0.00094747 0.0032636 0.00048771 0.0036844 -0.027155 0.017251
-0.1968 0.11189 -0.015919 0.019644
0.0035756 0.00047997 0.0010129 0.0053041 -0.0017335 0.0011334 0.013271 -0.010027
-0.01592 0.019623 -0.23161 0.17514
860000000 -0.11535 0.25569 -0.015383 0.03054 -0.0035262 -0.0098491 -0.0021722 0.00088548
0.0044046 0.0045387 -0.0027019 -0.0023871
-0.015384 0.030499 -0.28595 0.29443 0.0092884 0.033458 0.00030035 0.0020333
0.0046883 1.5671e-05 0.0031409 0.00048974
-0.0035508 -0.0098502 0.0093959 0.033471 0.025477 0.32172 -0.00043745 -5.9415e-05
0.0027261 -0.0013635 0.0019546 0.0040141
-0.0021654 0.00088626 0.00030254 0.0020158 -0.0004378 -6.3284e-05 -0.13265 0.25134
-0.015037 0.020734 -0.0051601 -0.0090219
0.0044203 0.0045165 0.0046827 -1.2712e-05 0.0027308 -0.0013739 -0.015027 0.020785
-0.14315 0.15827 -0.02124 0.017321
-0.0027143 -0.0023913 0.0031429 0.00048698 0.0019594 0.004016 -0.0051703 -0.0090209
-0.021232 0.017305 -0.18159 0.21525
920000000 -0.089144 0.27643 0.0066708 0.036433 -0.0094961 -0.0043562 -0.0013751 0.0014746
0.0014324 0.0014706 0.0027885 -0.0018079
0.0066438 0.036396 -0.25633 0.31461 0.028662 0.020337 0.0019203 0.00093498
0.0072435 -0.00073106 0.0037063 -0.0030183
-0.0094979 -0.0043429 0.028748 0.020281 0.072421 0.32165 0.0020361 -0.00022796
0.0016656 -0.00065556 0.00074734 -0.0012913
-0.0013664 0.001478 0.0019078 0.00091218 0.0020337 -0.00023523 -0.10717 0.26716
-0.0069872 0.031301 0.0027873 -0.0068305
0.0014341 0.0014769 0.0072454 -0.00077906 0.0016593 -0.00065685 -0.006949 0.031344
-0.13086 0.1633 6.0315e-05 0.02577
0.0027908 -0.0018171 0.0036787 -0.0030304 0.00073743 -0.0012933 0.0027853 -0.0068379
3.7286e-05 0.025758 -0.18326 0.23005
980000000 -0.04245 0.29439 0.018605 0.02823 -0.0088664 0.0045249 0.0019241 0.0027241
0.003896 -0.0020137 -0.0032364 -0.0020012
0.018577 0.028209 -0.20464 0.34764 0.033044 0.0031395 0.0021053 -0.00031782
0.0016473 -0.0063444 -0.0005609 -0.0023687
-0.0088437 0.0045497 0.033071 0.0030398 0.11918 0.31458 0.00040303 -0.0013621
5.3816e-05 -0.0024579 0.001266 -0.00022774
0.0019421 0.0027215 0.0021056 -0.00034708 0.00040982 -0.0013588 -0.068171 0.2772
0.011354 0.029201 -0.0083661 -0.0064413
0.0038928 -0.0020241 0.0016265 -0.0063911 5.4543e-05 -0.0024507 0.011416 0.029202
-0.09839 0.1887 0.0070091 0.018771
-0.0032365 -0.0020012 -0.00057736 -0.0023599 0.0012681 -0.00023824 -0.0083786 -0.0064274
0.0069833 0.018771 -0.13852 0.26934
1040000000 0.00031445 0.30136 0.033174 0.015665 -0.0013669 0.006719 0.0022085 0.00061689
5.8172e-05 -0.0031418 -0.00088636 -0.0014225
0.033122 0.015667 -0.16887 0.36061 0.02822 -0.016137 0.0013596 -0.0017781
-0.0024038 -0.002628 -0.0015556 -0.0028653
-0.0013454 0.00672 0.02819 -0.016247 0.16646 0.29981 -0.0006731 -0.001454
-0.0017039 -0.00084829 -0.00062382 -0.00098977
0.0022179 0.00062294 0.0013326 -0.0017928 -0.00067534 -0.0014562 -0.039303 0.28606
0.022095 0.01603 -0.002622 0.00081947
6.4889e-05 -0.003122 -0.0024446 -0.0026351 -0.0017072 -0.00083691 0.022128 0.016002
-0.065669 0.19431 0.01447 0.015931
-0.00087507 -0.0014333 -0.0015769 -0.0028367 -0.00063357 -0.00099703 -0.0026247 0.00082596
0.014454 0.015931 -0.11377 0.28894
1100000000 0.045164 0.30777 0.034688 -0.006186 0.00266 0.0037009 0.0020278 -0.00095307
-0.0019699 -0.00288 -0.0037932 0.00047462
0.034649 -0.0061606 -0.12582 0.37749 0.013667 -0.028443 -0.0001371 -0.0018172
-0.0035832 -0.00065501 -0.0034753 -0.00024058
0.0026772 0.003693 0.013575 -0.028522 0.21352 0.27772 -0.0019422 0.00027434
-0.0019174 0.00067726 -0.00099972 -0.00010206
0.0020318 -0.00095081 -0.00015081 -0.0018204 -0.0019419 0.00027962 0.001712 0.28912
0.026226 0.0018212 -0.0027911 -0.00018577
-0.0019805 -0.0028642 -0.0035868 -0.00065412 -0.0019196 0.00068438 0.026247 0.0017707
-0.04746 0.20615 0.019162 0.0058284
-0.0037801 0.0004903 -0.0034851 -0.00021899 -0.0010004 -0.00010129 -0.0027889 -0.0001785
0.019145 0.0058292 -0.067728 0.3132
1160000000 0.096117 0.30202 0.022104 -0.022148 0.0021589 -0.0002603 -0.00011455 -0.0018957
-0.0039338 -0.00054275 -0.00079092 0.0039073
0.022101 -0.022119 -0.081018 0.38196 -0.0054594 -0.028744 -0.0016588 -0.0014757
-0.0026997 0.0028216 -0.001468 0.0017792
0.0021638 -0.00026743 -0.0055889 -0.028744 0.25695 0.24472 -0.00076176 0.0018999
-0.00034816 0.0021371 -0.00075774 0.00032567
-0.00012829 -0.0018849 -0.0016698 -0.0014864 -0.00075482 0.0018963 0.041703 0.2845
0.020945 -0.014022 -0.0033129 0.0042919
-0.0039373 -0.00051368 -0.0026912 0.0028239 -0.00035666 0.0021481 0.02094 -0.014063
-0.014247 0.21276 0.017577 -0.0020925
-0.00076116 0.0039179 -0.0014735 0.0017966 -0.00075093 0.00033645 -0.0033067 0.0043086
0.017574 -0.0020965 -0.020311 0.3146
1220000000 0.14051 0.28934 0.007965 -0.030089 -0.0017329 -0.00016578 0.00023925 -0.00088129
-0.0024327 0.0023187 0.001393 0.002002
0.0079773 -0.030048 -0.036349 0.39291 -0.017961 -0.019991 -0.0024676 0.00054509
0.00015249 0.0032141 -0.00049205 0.0021516
-0.0017261 -0.00015593 -0.01807 -0.01994 0.29489 0.20295 0.00093058 0.0018543
0.00080999 0.0012338 0.00039028 0.00054717
0.0002357 -0.00087346 -0.0024661 0.00054153 0.00092361 0.0018479 0.081848 0.2735
0.0090889 -0.02034 0.0011145 0.0014025
-0.0024257 0.0023341 0.00018136 0.0032128 0.00080314 0.0012394 0.0090747 -0.020373
0.0089836 0.21957 0.011996 -0.014547
0.0014055 0.0020034 -0.00048116 0.0021501 0.00039075 0.00054847 0.0011065 0.0013972
0.011983 -0.014537 0.012853 0.32681
1280000000 0.18965 0.26643 -0.010011 -0.02737 -0.0015281 0.0030691 -0.00085083 -0.002008
-0.00079122 0.0030463 0.0024404 0.00087686
-0.0099742 -0.027345 0.010207 0.38349 -0.024081 -0.0071725 -0.00090346 0.0014975
0.0019768 0.0017598 0.00084695 0.0018493
-0.0015192 0.0030798 -0.024154 -0.0070723 0.32342 0.15799 0.0017596 4.4931e-06
0.0012673 0.00020731 0.00026082 0.00016001
-0.00086276 -0.0020053 -0.00090264 0.0014996 0.0017597 1.5758e-05 0.11795 0.25486
-0.0017916 -0.021477 -0.0008848 0.00067328
-0.00077511 0.0030501 0.0019846 0.0017547 0.0012717 0.00020423 -0.0018283 -0.021493
0.045027 0.22202 0.0010373 -0.016155
0.0024408 0.00086626 0.00086178 0.0018437 0.0002582 0.00015701 -0.00087812 0.00067458
0.0010429 -0.016153 0.058874 0.32526
1340000000 0.22648 0.23129 -0.01897 -0.016818 0.0015555 0.0045597 -0.0016883 -0.0010174
0.0015035 0.0026012 0.0015657 -0.0016022
-0.01893 -0.016803 0.0503 0.37342 -0.021132 0.0055495 -7.8266e-05 0.0020375
0.0021766 0.00057497 0.0014413 0.00060305
0.0015673 0.0045507 -0.021146 0.0056607 0.34374 0.1094 0.0013734 -0.0011383
0.00069559 -0.00061381 0.00010412 0.00024189
-0.0016893 -0.0010155 -6.0139e-05 0.0020403 0.0013821 -0.0011439 0.14961 0.23216
-0.011804 -0.017204 0.00032661 0.0015155
0.0015166 0.0025935 0.0021808 0.00056031 0.00068939 -0.0006219 -0.011852 -0.017196
0.075019 0.21558 -0.0060446 -0.013712
0.0015521 -0.0016091 0.0014509 0.00059561 0.00010857 0.00023971 0.00033161 0.001508
-0.0060399 -0.01371 0.098184 0.31703
1400000000 0.25864 0.19202 -0.023311 -0.0050301 0.005654 0.0028154 -0.0022325 0.00049478
0.0024066 0.00090137 0.0001146 -0.0014689
-0.023289 -0.0050317 0.086968 0.35913 -0.013821 0.013187 0.0014549 0.0012782
0.0012102 -0.0010481 0.0011316 -2.0662e-05
0.005671 0.0027921 -0.013783 0.013275 0.35509 0.056438 6.3819e-05 -0.0020825
3.2241e-05 -0.00047614 0.00029414 0.00024649
-0.0022275 0.00050548 0.0014621 0.0012701 6.2703e-05 -0.0020855 0.17714 0.20159
-0.017712 -0.0090519 -0.00048093 0.00091348
0.0024161 0.00089148 0.0012053 -0.0010601 2.7598e-05 -0.00047753 -0.01774 -0.009022
0.10672 0.20946 -0.012238 -0.0079418
9.9475e-05 -0.001463 0.0011354 -2.4565e-05 0.00029708 0.00024632 -0.00047712 0.00090515
-0.012233 -0.0079527 0.14088 0.30294
1460000000 0.28052 0.14717 -0.019267 0.006658 0.0058325 -0.0023001 -0.0016256 0.0017097
0.0021609 -0.00067441 -0.0004374 -0.00087004
-0.019259 0.0066385 0.12073 0.33608 -0.0048985 0.015422 0.0017761 9.5798e-05
0.00063361 -0.0014456 0.0010347 -0.00066127
0.0058296 -0.0023145 -0.0048388 0.015457 0.3602 0.0029635 -0.0016744 -0.0014193
0.00014673 -0.00025641 0.00066515 -0.00030365
-0.0016279 0.0017157 0.0017801 9.4666e-05 -0.0016667 -0.0014305 0.20128 0.17135
-0.018224 -0.00089753 1.9998e-06 0.0026256
0.002159 -0.00067726 0.00063017 -0.0014439 0.00013852 -0.00025192 -0.018245 -0.00086164
0.1354 0.19381 -0.013114 -0.0013452
-0.00044481 -0.00087383 0.0010364 -0.00067541 0.00066573 -0.00029234 5.8225e-06 0.0026278
-0.013115 -0.0013555 0.173 0.28034
1520000000 0.29158 0.10403 -0.012775 0.011379 0.0031195 -0.0045041 0.00013344 0.0027159
0.0020141 -0.0018412 -0.0011075 -3.2829e-05
-0.012773 0.011359 0.15319 0.32021 0.0023805 0.012666 0.0016736 -0.00095339
-0.000192 -0.001085 0.00020379 -0.0009398
0.0031081 -0.00451 0.0024479 0.012669 0.35322 -0.053005 -0.0015124 -0.00013521
0.00050079 -0.00092848 3.8395e-05 -0.00014787
0.00014897 0.0027232 0.0016678 -0.00096043 -0.0015135 -0.00013319 0.22173 0.13288
-0.015996 0.0056986 0.0023435 0.0020983
0.0020082 -0.0018662 -0.00020621 -0.0010879 0.0004988 -0.0009317 -0.016 0.0057476
0.16247 0.17779 -0.012201 0.0036711
-0.0011069 -2.5123e-05 0.00019813 -0.00094802 4.0235e-05 -0.00014581 0.0023473 0.0021098
-0.012191 0.00366 0.20455 0.25702
1580000000 0.29936 0.057548 -0.0059761 0.013426 -0.0012111 -0.0050455 0.0016353 0.0019703
-0.00020766 -0.0022201 -0.00025973 0.00036083
-0.0059787 0.013398 0.17926 0.29513 0.0056499 0.0075769 0.00037054 -0.0017088
-0.00062439 -0.00084495 -0.00028317 -0.00078075
-0.001229 -0.0050472 0.0057019 0.0075562 0.3332 -0.10995 -0.0016233 0.001177
-0.00046918 -0.0011873 0.000142 -0.00058036
0.001647 0.0019637 0.0003522 -0.0017186 -0.0016208 0.0011651 0.233 0.094431
-0.011039 0.010506 0.0028437 0.00031949
-0.00023126 -0.0022178 -0.00063693 -0.00084002 -0.00047088 -0.0011832 -0.011028 0.010539
0.18574 0.15863 -0.0090878 0.0090075
-0.00025875 0.00036359 -0.00028571 -0.00077724 0.0001397 -0.00058751 0.0028488 0.00030859
-0.009093 0.0090031 0.23418 0.22928
1640000000 0.2999 0.015694 0.00033648 0.011277 -0.0029763 -0.0025939 0.0028964 0.00083234
-0.00094278 -0.001575 -0.00027032 0.00060131
0.00033304 0.011267 0.20792 0.2698 0.005951 0.002961 -0.00091456 -0.0016588
-0.00095832 -0.00019054 -0.00056689 -0.00055437
-0.0029838 -0.0025795 0.0059703 0.0029308 0.30459 -0.15934 -0.00037557 0.0016468
-0.0012592 -0.00084901 -0.00023285 -0.00028809
0.0029011 0.00081997 -0.00093508 -0.0016623 -0.00038177 0.0016442 0.24329 0.04713
-0.0056362 0.011085 0.0027994 -0.001336
-0.00094963 -0.0015682 -0.00096955 -0.0001813 -0.0012699 -0.00084634 -0.0056162 0.011111
0.20731 0.13264 -0.0036786 0.010683
-0.00026551 0.00061007 -0.00057813 -0.00054668 -0.00023107 -0.00028836 0.002799 -0.0013426
-0.0036856 0.010684 0.25859 0.1969
1700000000 0.29063 -0.029513 0.0030547 0.0078161 -0.0036073 0.00018318 0.0029421 -0.0015813
-0.0020838 -0.00058577 0.00066494 0.000354
0.0030566 0.0078154 0.22491 0.23862 0.0037861 0.00016774 -0.0015429 -0.00042997
-0.00057416 0.00017943 -0.00087836 -0.00038831
-0.0036047 0.00019069 0.0037941 0.00014282 0.26069 -0.19899 0.00077273 0.001419
-0.0018974 3.0231e-05 -0.00059184 -0.00085527
0.0029287 -0.0015947 -0.0015517 -0.00041916 0.00077095 0.0014232 0.23894 8.137e-05
-0.0021928 0.010503 0.0016133 -0.0025977
-0.002088 -0.00057192 -0.00057692 0.00018085 -0.0018971 3.1402e-05 -0.0021713 0.010518
0.22249 0.11117 0.0013519 0.010431
0.00067064 0.00034988 -0.00088046 -0.00038217 -0.00059401 -0.00085599 0.0016092 -0.0026025
0.0013446 0.01043 0.27287 0.16185
1760000000 0.27728 -0.077119 0.0042393 0.0043759 -0.002394 0.00093796 0.00086415 -0.0035717
-0.0014722 0.00089055 0.00038567 -0.00045271
0.0042276 0.0043713 0.25044 0.19903 0.0014869 -0.0016484 -0.0011926 0.00036462
-0.0008926 0.00080102 -0.00058918 0.00048163
-0.0023853 0.00094983 0.0014847 -0.0016674 0.21267 -0.23244 0.0013224 0.00071447
-0.0010784 0.0016958 -0.0014683 -0.00028154
0.00085336 -0.0035797 -0.0011902 0.00036796 0.0013198 0.00071729 0.23064 -0.048544
0.00089377 0.0088093 -0.00034477 -0.0028597
-0.0014694 0.00089238 -0.00088618 0.0008029 -0.0010729 0.0017084 0.00091664 0.0088099
0.23566 0.075574 0.0052574 0.0073008
0.00037951 -0.00045525 -0.00058798 0.00048672 -0.0014684 -0.00028852 -0.00034694 -0.0028625
0.0052609 0.0072994 0.28443 0.12374
1820000000 0.25145 -0.11364 0.0035678 0.0012742 -0.00012404 0.0026104 -0.0013794 -0.0028346
-0.00096019 0.0011164 -1.8692e-05 -8.9655e-05
0.0035666 0.0012812 0.25991 0.16919 -0.00053569 -0.00026528 -0.0011227 0.0010549
9.8137e-06 0.0011181 -0.00050769 0.00053567
-0.00011328 0.0026202 -0.00054047 -0.00026361 0.16198 -0.24854 0.0012445 -3.066e-05
9.7374e-05 0.0022405 -0.0013112 0.00054951
-0.0013854 -0.0028277 -0.0011093 0.0010597 0.0012502 -2.3544e-05 0.20217 -0.094043
0.0020103 0.0066062 -0.0017065 -0.0018265
-0.00095471 0.0011163 1.6522e-05 0.0011212 9.9915e-05 0.0022479 0.0020233 0.006603
0.25052 0.045587 0.0061684 0.0032786
-2.0922e-05 -8.3801e-05 -0.00050473 0.00054248 -0.0013113 0.00055273 -0.0017124 -0.0018201
0.0061702 0.0032835 0.28555 0.08606
1880000000 0.21581 -0.15247 0.00093488 -0.00019986 -0.00041928 0.0021788 -0.0030354 -0.0017693
-6.5005e-05 0.0016648 0.00017995 -0.00054142
0.00093785 -0.00020353 0.2642 0.1231 -0.0026145 0.0015334 -3.1985e-06 0.0016137
0.00044189 0.0010451 0.00016404 0.00092445
-0.00040036 0.0021804 -0.0026105 0.0015558 0.1088 -0.25813 0.0013626 -0.00094036
0.0017564 0.0016264 -0.00076057 0.0014689
-0.0030325 -0.0017548 5.5613e-06 0.0016233 0.0013638 -0.00093614 0.16415 -0.13376
0.0024144 0.0043728 -0.0025857 -5.6915e-06
-5.7363e-05 0.0016678 0.00044772 0.001045 0.0017543 0.0016355 0.0024252 0.0043664
0.25151 0.013257 0.0057552 0.00060155
0.00017366 -0.00054405 0.00017453 0.00092788 -0.0007568 0.001477 -0.0025854 4.3051e-06
0.0057497 0.00059928 0.2836 0.052074
1940000000 0.17668 -0.17813 -0.0011642 -0.0010906 0.0014286 0.0022261 -0.0035454 0.00074967
0.0015512 0.00090766 -0.0005532 -0.00056419
-0.0011601 -0.001091 0.26465 0.091282 -0.0014548 0.0038737 0.0010159 0.0010716
0.0015728 0.00055352 0.00090258 0.00037762
0.0014377 0.0022135 -0.0014379 0.0038852 0.062868 -0.25174 0.00025381 -0.0016477
0.002271 0.00019531 0.0006391 0.0017721
-0.0035456 0.00075947 0.0010312 0.0010775 0.00024488 -0.0016397 0.11363 -0.1655
0.0013991 0.0028691 -0.00176 0.0011472
0.0015565 0.00090185 0.0015809 0.00054196 0.0022781 0.00019418 0.0014069 0.0028697
0.25191 -0.025915 0.0042272 -0.0027976
-0.00056398 -0.00055914 0.00090517 0.00037139 0.00064824 0.0017713 -0.0017653 0.0011488
0.0042258 -0.0028012 0.2717 0.014745
2000000000 0.12991 -0.19235 -0.0045524 0.0013012 0.0027366 0.0016294 -0.0020875 0.0034439
0.0011137 -1.2962e-05 -0.00050223 0.00040001
-0.0045426 0.0012992 0.25031 0.05582 -0.001199 0.0058206 0.0014749 0.0002578
0.00125 -0.0010652 0.00056683 -3.3642e-05
