!Keysight Technologies,M9804A,MY58100912,A.14.10.03
!Date: Thursday, April 27, 2023 10:28:33
!Correction: S11(C  6-Port  ) 
!S12(C  6-Port  ) 
!S13(C  6-Port  ) 
!S14(C  6-Port  ) 
!S15(C  6-Port  ) 
!S16(C  6-Port  ) 
!S21(C  6-Port  ) 
!S22(C  6-Port  ) 
!S23(C  6-Port  ) 
!S24(C  6-Port  ) 
!S25(C  6-Port  ) 
!S26(C  6-Port  ) 
!S31(C  6-Port  ) 
!S32(C  6-Port  ) 
!S33(C  6-Port  ) 
!S34(C  6-Port  ) 
!S35(C  6-Port  ) 
!S36(C  6-Port  ) 
!S41(C  6-Port  ) 
!S42(C  6-Port  ) 
!S43(C  6-Port  ) 
!S44(C  6-Port  ) 
!S45(C  6-Port  ) 
!S46(C  6-Port  ) 
!S51(C  6-Port  ) 
!S52(C  6-Port  ) 
!S53(C  6-Port  ) 
!S54(C  6-Port  ) 
!S55(C  6-Port  ) 
!S56(C  6-Port  ) 
!S61(C  6-Port  ) 
!S62(C  6-Port  ) 
!S63(C  6-Port  ) 
!S64(C  6-Port  ) 
!S65(C  6-Port  ) 
!S66(C  6-Port  ) 
!S6P File: Measurement: :
# Hz S  RI   R 50
500000000 -0.34034 -0.023708 -0.011302 -0.0029828 -0.0082642 0.013182 -0.0036477 0.011868
0.011822 0.0039596 -0.0034034 0.0083889
-0.011594 -0.0034923 -0.42001 -0.041738 0.0063549 -0.011108 0.0016434 0.012588
0.007591 0.0021646 0.0017947 0.013545
-0.0085694 0.013181 0.0060677 -0.011427 -0.26543 0.21989 0.0067596 0.0040438
-0.0011601 0.0075618 0.0012647 0.011903
-0.003902 0.012159 0.0017232 0.012672 0.0068002 0.0040961 -0.33315 0.056102
-0.019791 -0.0064942 0.014938 0.023904
0.011898 0.004276 0.0070969 0.0017796 -0.0012937 0.0075801 -0.019778 -0.0065692
-0.2336 -0.1727 -0.025776 0.0050307
-0.0033256 0.0083142 0.0017739 0.013752 0.0014233 0.012092 0.015113 0.024245
-0.025753 0.0048124 -0.28073 -0.097848
560000000 -0.31501 0.13382 -0.026616 -0.060779 0.00063976 0.011782 0.005285 0.01034
0.0087714 0.0040841 0.010741 0.007199
-0.026478 -0.061164 -0.37553 0.11475 -0.042577 -0.034458 0.013467 0.0039177
-0.012377 -0.0031586 0.0026377 -0.00016922
0.00057125 0.01205 -0.042135 -0.034509 -0.18145 0.26597 -0.00021643 -0.0041218
0.018793 0.0039633 0.0063121 -0.0065769
0.0049288 0.010337 0.013582 0.0042197 -0.0002133 -0.0039731 -0.30707 0.14491
0.00019387 -0.023654 0.0033152 -0.019825
0.0089484 0.004451 -0.011964 -0.0025907 0.01928 0.0036901 -7.037e-05 -0.023573
-0.28836 -0.00030884 0.0039382 -0.048766
0.010082 0.0079193 0.0028776 -0.00039329 0.0063721 -0.0060057 0.0034393 -0.019899
0.0043274 -0.04833 -0.32986 0.045674
620000000 -0.27296 0.11841 -0.023777 0.0079663 0.0041639 0.0082734 0.0078056 -0.0051338
0.011197 -0.0016159 0.0013797 -0.0024302
-0.023715 0.0078118 -0.4022 0.069241 -0.019046 0.0010545 -0.0012052 -0.0016311
0.010978 -0.0069078 0.0016895 -0.0021239
0.0042571 0.0080058 -0.019005 0.00096325 -0.15057 0.27485 -0.0007767 -0.0048303
-0.0032594 -0.0026117 0.0085353 -0.0027031
0.0078212 -0.0047779 -0.0012878 -0.0017568 -0.00088848 -0.0048517 -0.26448 0.15601
-0.041053 -0.017153 0.012795 0.024452
0.010931 -0.0014773 0.011076 -0.0068417 -0.0030376 -0.0024207 -0.040992 -0.016887
-0.20884 -0.03965 -0.040346 0.016038
0.0011177 -0.0027476 0.0014931 -0.0021053 0.0086634 -0.0028798 0.012691 0.024595
-0.040265 0.016031 -0.25539 0.015552
680000000 -0.22988 0.20308 -0.027455 -0.012022 0.005677 0.0045831 0.0014216 -0.0069053
-0.002557 -0.011328 0.004325 -0.0071053
-0.027446 -0.012074 -0.38549 0.1653 -0.032004 0.00036377 -0.0014204 -0.00045496
-0.0022282 -0.0091594 -0.0017568 -0.002201
0.0056562 0.0044989 -0.032022 0.00034143 -0.098878 0.29377 -0.00090555 -0.00058791
-0.0015066 1.9066e-05 -0.0037119 -0.0088098
0.0012759 -0.006913 -0.0013027 -0.00054444 -0.00090306 -0.00054454 -0.21799 0.2064
-0.025791 -0.0048816 -0.0094694 -0.0082812
-0.0027484 -0.011057 -0.0019074 -0.0091833 -0.0014586 0.00010215 -0.025803 -0.004989
-0.25407 0.060918 -0.0073189 -0.0066985
0.0043165 -0.0067394 -0.00178 -0.0021723 -0.0035973 -0.0089798 -0.0096038 -0.0085737
-0.0073495 -0.0066923 -0.25692 0.11425
740000000 -0.18491 0.19724 -0.036441 0.027064 0.01278 -0.0056256 -0.00077415 -0.004474
-0.004272 -0.0031395 -0.006123 0.0026687
-0.036496 0.027017 -0.33297 0.18401 -0.033283 0.035218 -0.00082355 -0.0062492
-0.011934 0.0077887 -0.0017294 -0.0055706
0.01258 -0.0057879 -0.033113 0.035232 -0.064848 0.2914 -0.0020463 0.0031202
-0.0029972 -0.0046491 -0.0017917 0.0011915
-0.00071971 -0.0042509 -0.00091395 -0.0062554 -0.0019994 0.0030264 -0.20029 0.21402
-0.042796 -0.0034583 0.0228 0.013593
-0.0044039 -0.0029219 -0.011875 0.0078789 -0.0028987 -0.0045547 -0.042814 -0.0033881
-0.15805 0.083677 -0.039677 0.0035611
-0.006173 0.0029199 -0.0017886 -0.005542 -0.0016847 0.00094379 0.022728 0.013392
-0.039481 0.0038431 -0.24548 0.12324
800000000 -0.15171 0.23555 -0.021076 0.01754 0.0047481 -0.010457 -0.0044274 -0.0016304
-0.0036125 0.0024943 0.0035189 0.00033229
-0.021135 0.017386 -0.33455 0.25295 -0.0067421 0.03368 -0.0024439 0.0022493
-0.00060205 0.0033439 0.0011116 0.0053125
0.0047039 -0.010609 -0.0066567 0.033682 -0.023446 0.31381 0.00075125 0.0017959
0.00034995 0.0036382 -0.0015864 0.00099674
-0.0044922 -0.0016893 -0.0024263 0.0021993 0.00075301 0.001768 -0.17056 0.24066
-0.02692 0.016818 0.013238 -0.010011
-0.0037764 0.0024096 -0.00063544 0.0030916 0.0003259 0.0034972 -0.026968 0.016922
-0.1976 0.10957 -0.015968 0.019425
0.0035605 0.00034234 0.0011315 0.0051068 -0.0016341 0.0010162 0.013221 -0.010092
-0.015924 0.019226 -0.23449 0.17031
860000000 -0.11617 0.25475 -0.015628 0.030455 -0.003612 -0.0097486 -0.0020532 0.00083042
0.004146 0.0044612 -0.0029581 -0.0026628
-0.015612 0.030401 -0.28648 0.29393 0.009062 0.033277 2.1963e-06 0.0020983
0.0039472 0.00022543 0.003108 0.00037248
-0.0036573 -0.0097506 0.0092159 0.033276 0.025216 0.32097 -0.00048683 -0.00011357
0.0024901 -0.0014456 0.0018092 0.003926
-0.0020301 0.00073656 8.2913e-05 0.0022276 -0.00049606 -6.6249e-05 -0.13265 0.25064
-0.014967 0.020194 -0.0055826 -0.0088786
0.0042662 0.0043581 0.0038745 -7.1807e-05 0.0025258 -0.0014425 -0.014907 0.020189
-0.14455 0.15593 -0.021786 0.016533
-0.0029787 -0.0025377 0.003121 0.00048233 0.0017589 0.0039523 -0.005622 -0.0089099
-0.021745 0.016672 -0.18411 0.21116
920000000 -0.090399 0.27575 0.0065391 0.036509 -0.0094033 -0.0041865 -0.0015345 0.001564
0.001221 0.0015387 0.0024927 -0.0018108
0.0064876 0.036395 -0.25711 0.3139 0.02832 0.020328 0.0016938 0.00083556
0.0069527 -0.00074242 0.0034309 -0.0029802
-0.0094864 -0.0042576 0.028394 0.020258 0.071807 0.32075 0.0019583 -0.00019484
0.0014725 -0.00054803 0.00059795 -0.0012289
-0.0014995 0.0014449 0.0016977 0.00080542 0.0019462 -0.00022538 -0.10775 0.26614
-0.0075449 0.03107 0.0027899 -0.0066405
0.0013699 0.0015085 0.0070706 -0.00092765 0.001434 -0.00059143 -0.0075299 0.03103
-0.13233 0.16091 -0.00015807 0.026079
0.0025992 -0.0017033 0.003505 -0.0030104 0.00063767 -0.0012261 0.0027454 -0.0066598
-0.00013871 0.026156 -0.18641 0.22572
980000000 -0.043524 0.29417 0.018313 0.028346 -0.0087126 0.0046146 0.0017785 0.0029805
0.0038853 -0.0016814 -0.0032 -0.0020681
0.018273 0.028277 -0.20504 0.34715 0.032647 0.0033663 0.0020259 -0.00024402
0.0016116 -0.0061099 -0.00060234 -0.0024016
-0.0086485 0.004617 0.032709 0.0032656 0.11854 0.31383 0.00054185 -0.0013268
0.00011588 -0.0023225 0.0011715 -0.00023907
0.0018232 0.0029738 0.0021035 -0.00022291 0.00055196 -0.0013207 -0.068655 0.27635
0.010809 0.028914 -0.0083528 -0.0065324
0.0038701 -0.0016508 0.0015481 -0.0061449 0.00011603 -0.002324 0.01085 0.028943
-0.099775 0.18705 0.0066407 0.018433
-0.0031735 -0.0020385 -0.00065386 -0.002281 0.0011846 -0.00027805 -0.0083902 -0.0065118
0.0067445 0.018419 -0.14199 0.2663
1040000000 -0.00061229 0.30103 0.032926 0.015871 -0.0013507 0.0066885 0.0022759 0.00073125
0.00012914 -0.0031515 -0.00072267 -0.0013017
0.032866 0.015867 -0.16913 0.35992 0.028077 -0.015818 0.0014406 -0.001739
-0.0023399 -0.0026369 -0.0015976 -0.0026983
-0.0013219 0.0066952 0.02802 -0.015896 0.16555 0.2989 -0.00058503 -0.0015098
-0.0016769 -0.00085101 -0.00056101 -0.00098863
0.0022643 0.00073659 0.001486 -0.0017173 -0.00057174 -0.0015114 -0.039981 0.28492
0.021502 0.015845 -0.0025229 0.00085793
0.00017232 -0.0031672 -0.0023679 -0.0025728 -0.0016703 -0.00086575 0.021551 0.015826
-0.067257 0.1922 0.014139 0.01609
-0.0008033 -0.0013266 -0.0015315 -0.0026902 -0.00059694 -0.00096609 -0.0024983 0.00082255
0.014244 0.016061 -0.11784 0.28561
1100000000 0.043961 0.30758 0.034439 -0.0058445 0.0025694 0.0036641 0.0021366 -0.00094417
-0.0018323 -0.00293 -0.0037868 0.00031509
0.034414 -0.0058784 -0.12627 0.37676 0.013672 -0.027984 -8.9549e-05 -0.001789
-0.0034654 -0.00073864 -0.0034679 -0.00027631
0.0025869 0.003671 0.013579 -0.02805 0.21203 0.27718 -0.0018749 0.00020002
-0.0019037 0.00057423 -0.0010019 -0.00010669
0.0021124 -0.00096571 -9.9217e-05 -0.0017949 -0.0018923 0.00020717 0.00051212 0.28825
0.025521 0.0022987 -0.0027771 -0.00031283
-0.0018154 -0.0028497 -0.0035022 -0.00070523 -0.0019355 0.00059533 0.02555 0.0022555
-0.049487 0.2044 0.018922 0.0062392
-0.003792 0.00038819 -0.003485 -0.00027327 -0.0010028 -8.5635e-05 -0.0027586 -0.00030999
0.01889 0.0061683 -0.071695 0.31098
1160000000 0.095333 0.30185 0.022035 -0.021662 0.0022175 -0.00030457 -2.5031e-06 -0.0019008
-0.0039031 -0.00057877 -0.00083937 0.0039327
0.022005 -0.021668 -0.081577 0.38107 -0.0050589 -0.028413 -0.0016592 -0.0016084
-0.0026866 0.0026449 -0.0013886 0.0017668
0.0022197 -0.00031151 -0.005178 -0.028363 0.2554 0.2447 -0.00079538 0.0018629
-0.0003811 0.0020078 -0.00083478 0.00014258
8.6772e-07 -0.0019313 -0.0016559 -0.0016186 -0.00079426 0.0018407 0.040348 0.28373
0.020476 -0.013255 -0.0033333 0.0043316
-0.0038897 -0.00049808 -0.0026778 0.0026982 -0.00038335 0.0019844 0.020467 -0.013274
-0.016203 0.21129 0.017179 -0.0015222
-0.0008243 0.0039429 -0.0013417 0.0016854 -0.00081107 0.00018951 -0.0033419 0.0043192
0.017182 -0.0015816 -0.024279 0.31269
1220000000 0.13944 0.28909 0.0082954 -0.029626 -0.0016771 -0.00016648 0.00027542 -0.00087531
-0.0023733 0.002269 0.0013337 0.0019661
0.0082787 -0.029626 -0.03731 0.39205 -0.017489 -0.019978 -0.0024549 0.00047994
0.00010482 0.0031518 -0.00056236 0.0020146
-0.001681 -0.00017274 -0.017577 -0.019898 0.29349 0.20356 0.00086208 0.0018646
0.00075737 0.0012989 0.00048269 0.00056313
0.00024646 -0.00089317 -0.0024641 0.00047402 0.00086563 0.0018764 0.080113 0.27302
0.0091613 -0.019365 0.0011823 0.0014158
-0.0024143 0.0023224 0.00011743 0.0031303 0.00073098 0.0012603 0.0091534 -0.019366
0.0067141 0.21812 0.012062 -0.013938
0.0013491 0.0019558 -0.00053604 0.0020279 0.00046459 0.00056979 0.0011931 0.001446
0.012067 -0.013909 0.0081747 0.32534
1280000000 0.18846 0.26654 -0.0095377 -0.027093 -0.0015502 0.0030957 -0.00084741 -0.0020646
-0.00075009 0.0029861 0.0024424 0.0010254
-0.0094988 -0.027079 0.0088657 0.38294 -0.023683 -0.0074125 -0.0010011 0.0014668
0.0018455 0.001776 0.00078452 0.0018295
-0.0015532 0.0030862 -0.023751 -0.0072824 0.32253 0.15904 0.0017111 6.5551e-05
0.0012323 0.00019991 0.00033733 0.00015137
-0.00086268 -0.0020808 -0.00099765 0.0014763 0.0017522 7.7135e-05 0.11625 0.25506
-0.001158 -0.020707 -0.00076501 0.00065837
-0.00072891 0.0029536 0.0018517 0.0017932 0.0012466 0.00017815 -0.0011726 -0.020696
0.04261 0.22087 0.0013237 -0.015564
0.0024784 0.0009962 0.00078722 0.00183 0.00030534 0.00017317 -0.00078276 0.0006841
0.001357 -0.015531 0.054608 0.3248
1340000000 0.22535 0.23153 -0.018399 -0.016901 0.0015255 0.0045068 -0.0017445 -0.00099635
0.0014071 0.0026282 0.0015428 -0.0014823
-0.018349 -0.01689 0.048725 0.37337 -0.020956 0.0051314 -0.00011193 0.0020839
0.0021114 0.00065174 0.0014099 0.00068015
0.001563 0.0044722 -0.020959 0.0052281 0.34341 0.1105 0.0013226 -0.0010912
0.00067862 -0.00056151 4.859e-05 0.00021904
-0.001745 -0.00098529 -0.0001126 0.0020885 0.0013095 -0.0010796 0.14817 0.23277
-0.010768 -0.016906 0.00043585 0.0013588
0.0014119 0.0025933 0.0021526 0.00062433 0.00068101 -0.00055492 -0.010792 -0.016895
0.07237 0.21473 -0.0054418 -0.013357
0.0015456 -0.0014453 0.0014004 0.00067892 4.325e-05 0.00026315 0.00043261 0.001362
-0.0054149 -0.013378 0.093786 0.31711
1400000000 0.25734 0.19258 -0.02283 -0.0054389 0.0055651 0.0027644 -0.0022239 0.00055367
0.0023149 0.00094616 0.00015745 -0.001426
-0.02281 -0.0054408 0.08537 0.35966 -0.013934 0.012804 0.0014008 0.0013477
0.0012179 -0.00099752 0.0011487 4.5742e-05
0.0055883 0.0027587 -0.01389 0.012906 0.35523 0.057194 7.3534e-05 -0.0020023
-4.3147e-05 -0.00042115 0.00027734 0.00022901
-0.0022338 0.0005557 0.0014063 0.0013288 8.4878e-05 -0.0020139 0.17589 0.20254
-0.016634 -0.0093698 -0.00048196 0.00071394
0.0023415 0.00089276 0.0012043 -0.0010167 -4.2454e-05 -0.00044348 -0.016661 -0.0093486
0.10379 0.20925 -0.011549 -0.0078635
0.00017363 -0.0014625 0.0011284 3.4144e-05 0.00029254 0.00021618 -0.0004721 0.00072918
-0.011549 -0.0078808 0.13647 0.30376
1460000000 0.27973 0.14813 -0.019124 0.0060405 0.0057392 -0.00224 -0.0016669 0.0017638
0.0020541 -0.00051271 -0.00034896 -0.00087852
-0.019112 0.0060102 0.11967 0.33722 -0.0052646 0.015184 0.0017671 0.00012171
0.00063831 -0.0014121 0.0010848 -0.00056836
0.0057195 -0.0022678 -0.0051853 0.01523 0.36069 0.0033775 -0.0016261 -0.0013829
0.0001332 -0.00015426 0.00059153 -0.00032735
-0.0016422 0.0017785 0.0017727 9.3646e-05 -0.001597 -0.0013816 0.20068 0.17254
-0.017415 -0.0017977 -0.00014811 0.0025558
0.0020658 -0.00048483 0.00063642 -0.0014345 0.00011538 -0.00018413 -0.017441 -0.0017548
0.1326 0.19402 -0.012508 -0.0015735
-0.00037169 -0.00090427 0.0010967 -0.00056262 0.00063395 -0.00031728 -0.00014935 0.0025676
-0.012494 -0.001612 0.16916 0.28155
1520000000 0.29096 0.10501 -0.012961 0.010789 0.003097 -0.0044038 0.00014799 0.0026929
0.0021026 -0.0017227 -0.0011275 -8.2945e-05
-0.012967 0.01077 0.15251 0.3214 0.0020713 0.012678 0.0016887 -0.00092201
-0.00015039 -0.0011007 0.00027367 -0.00093556
0.0030971 -0.0044197 0.0021338 0.012679 0.35341 -0.053106 -0.0015058 -0.0001909
0.00046181 -0.00088292 3.1759e-05 -0.00010303
0.00016131 0.0026999 0.0016849 -0.00094132 -0.0015075 -0.00019434 0.22136 0.13401
-0.015836 0.0045316 0.0022251 0.0020522
0.0020875 -0.0017484 -0.0001683 -0.0011047 0.00042857 -0.00089467 -0.015851 0.0045713
0.15972 0.17854 -0.011814 0.0030902
-0.0011027 -0.00010774 0.00026458 -0.00094109 1.4761e-05 -0.00011619 0.0022186 0.0020637
-0.01179 0.0030926 0.20103 0.2588
1580000000 0.29918 0.05873 -0.0064659 0.012989 -0.0010676 -0.0049514 0.001644 0.0019783
-0.00014977 -0.002233 -0.00028914 0.00034956
-0.0064548 0.012982 0.17915 0.29654 0.0054109 0.0077553 0.00041446 -0.0016955
-0.00060713 -0.00091641 -0.00022544 -0.00077822
-0.0011062 -0.0049597 0.0054492 0.0077299 0.33295 -0.11007 -0.0016459 0.0010938
-0.00032897 -0.0011763 0.0001274 -0.0006274
0.001654 0.0019593 0.00040374 -0.0017104 -0.0016453 0.0011052 0.23319 0.095559
-0.011593 0.0094661 0.0027504 0.000384
-0.00016107 -0.002262 -0.00062275 -0.00090918 -0.00032675 -0.0011858 -0.011551 0.0095
0.18321 0.15988 -0.0090473 0.0084331
-0.00027043 0.00036485 -0.00022032 -0.00077997 0.00010897 -0.00062915 0.0027413 0.00037835
-0.0090715 0.0084478 0.23129 0.23154
1640000000 0.30021 0.016564 -0.0002849 0.011216 -0.0029671 -0.0026941 0.0028463 0.00084146
-0.00076851 -0.0016618 -0.00027691 0.00064618
-0.00028952 0.011203 0.20841 0.27086 0.0058626 0.0031546 -0.00087467 -0.0016915
-0.00095622 -0.00024537 -0.00053321 -0.00059234
-0.0029451 -0.0026602 0.0058707 0.0031294 0.30442 -0.15944 -0.00038596 0.0017154
-0.001236 -0.00089925 -0.00024744 -0.00028062
0.0028726 0.00082915 -0.00088031 -0.001698 -0.00041438 0.0016993 0.24394 0.047789
-0.0066483 0.010579 0.0027848 -0.0012549
-0.00079179 -0.0016627 -0.00095679 -0.00023101 -0.0012506 -0.00088433 -0.0066279 0.010598
0.2051 0.13418 -0.0038888 0.010143
-0.00028313 0.0006469 -0.00053994 -0.00058 -0.00028242 -0.00028321 0.0027615 -0.0012713
-0.0038881 0.010152 0.25623 0.19913
1700000000 0.29097 -0.028889 0.0025181 0.0081267 -0.0035913 9.0467e-05 0.0029359 -0.0015097
-0.0020905 -0.00073291 0.00068567 0.00036438
0.0025264 0.0081192 0.22552 0.23931 0.0038139 0.00036941 -0.0015451 -0.00049203
-0.00062413 0.00013927 -0.00086964 -0.00043788
-0.003554 7.3612e-05 0.0038348 0.00034783 0.26047 -0.199 0.00081748 0.0014014
-0.0017861 -0.00010206 -0.00061282 -0.0007823
0.0029369 -0.0015354 -0.0015378 -0.00048702 0.00081352 0.0014081 0.23937 0.00029794
-0.0032499 0.010612 0.0015764 -0.0025286
-0.0020762 -0.0007293 -0.00062248 0.00014581 -0.0018335 -9.7142e-05 -0.003253 0.010649
0.22063 0.11308 0.00088567 0.010102
0.00073271 0.00031875 -0.00087501 -0.00043049 -0.00060642 -0.00081402 0.0015676 -0.002549
0.00088373 0.01013 0.27071 0.16409
1760000000 0.27786 -0.076857 0.0040474 0.0048893 -0.0024966 0.0010891 0.00091499 -0.0035438
-0.0015186 0.00071557 0.00036793 -0.00048291
0.0040469 0.0048965 0.25136 0.19935 0.0015267 -0.001578 -0.0012208 0.00029937
-0.00091516 0.00077995 -0.00060664 0.00043797
-0.0024941 0.0010962 0.001521 -0.0016102 0.21255 -0.23266 0.0012369 0.00056115
-0.0010982 0.001589 -0.0013492 -0.0002274
0.00092454 -0.003543 -0.0012151 0.00029889 0.0012463 0.00058806 0.23107 -0.048736
0.00022294 0.0094018 -0.00031798 -0.002847
-0.0015078 0.00077557 -0.00090246 0.00080203 -0.0010798 0.0016129 0.00024388 0.0094136
0.23445 0.077637 0.0048948 0.0071906
0.00038198 -0.00050809 -0.00061466 0.00045237 -0.0013228 -0.00026656 -0.00033221 -0.0028314
0.0048839 0.0071684 0.28271 0.12624
1820000000 0.25182 -0.11395 0.003752 0.001741 -3.9713e-05 0.0026259 -0.0013606 -0.0028731
-0.0011437 0.001126 -0.0001237 -0.00011837
0.0037458 0.001729 0.2606 0.16891 -0.00055384 -0.00020338 -0.0011737 0.0010576
-3.8375e-05 0.0011438 -0.00054476 0.00051992
-6.0529e-05 0.0026295 -0.00055416 -0.00019203 0.16101 -0.24876 0.0011794 0.00022268
-0.00012648 0.0022256 -0.0013876 0.00047917
-0.0014139 -0.0028712 -0.0011645 0.0010665 0.00121 0.00022423 0.20215 -0.09465
0.0017576 0.0074126 -0.0018099 -0.001832
-0.0011829 0.0011093 -1.2517e-05 0.0011306 -8.03e-05 0.0022411 0.0017805 0.0074272
0.24956 0.047591 0.0058003 0.0032623
-0.00012928 -9.6019e-05 -0.00051259 0.00050993 -0.0013832 0.00043606 -0.0017749 -0.0018158
0.0057819 0.0032621 0.28399 0.088698
1880000000 0.21575 -0.15267 0.0012757 1.5024e-05 -0.00030244 0.0021513 -0.003008 -0.001722
-0.00018218 0.0018357 0.00017745 -0.00041492
0.0012839 8.2874e-06 0.26462 0.12276 -0.0025883 0.0017117 -4.36e-05 0.0016652
0.00044106 0.0010975 0.00015704 0.00099687
-0.00030874 0.0022125 -0.0025761 0.0017519 0.10772 -0.25737 0.0014984 -0.00080806
0.0016912 0.0017528 -0.00070818 0.0014579
-0.0030528 -0.001721 -2.7672e-05 0.0016747 0.0014805 -0.00084074 0.16359 -0.13421
0.0026555 0.004986 -0.0025731 0.00015069
-0.00016648 0.0017996 0.00043481 0.0011024 0.0016726 0.0017364 0.0026434 0.0050113
0.25101 0.015431 0.005437 0.00083971
0.00017331 -0.00037011 0.00012223 0.0010064 -0.00068515 0.0014717 -0.0025923 0.00015247
0.0054148 0.00082724 0.28256 0.054915
1940000000 0.17631 -0.17836 -0.00087507 -0.0012007 0.0015714 0.0019349 -0.003522 0.0007082
0.0015927 0.0010532 -0.0004109 -0.00050644
-0.00086286 -0.0011821 0.26493 0.09062 -0.0011454 0.0039871 0.0010032 0.0011225
0.001575 0.00059352 0.00087024 0.00046782
0.0016228 0.0019453 -0.0011044 0.0040096 0.062613 -0.25095 0.00028329 -0.0017339
0.0021896 0.00035827 0.00036698 0.0017032
-0.0035463 0.00075193 0.0010283 0.0011333 0.00030923 -0.0017707 0.11276 -0.16584
0.0018042 0.0032995 -0.0016644 0.001355
0.0016128 0.0010172 0.0015882 0.0005784 0.0021883 0.00039109 0.0018204 0.0032761
0.2518 -0.024046 0.0039537 -0.0026277
-0.00041003 -0.00048434 0.00087036 0.00046683 0.00041717 0.0017168 -0.0016722 0.0013564
0.0039051 -0.0025992 0.27085 0.017196
2000000000 0.1291 -0.19216 -0.0045682 0.001179 0.0024576 0.0015037 -0.0021361 0.0033505
0.001237 8.1918e-05 -0.00045295 0.00017794
-0.004595 0.001182 0.24997 0.05514 -0.00090676 0.0057316 0.0015013 0.00024192
0.0013138 -0.0010782 0.00060607 9.6499e-05
0.0024913 0.0014446 -0.00088955 0.0057197 0.01791 -0.23608 -0.00092986 -0.0010827
0.0017749 -0.0011044 0.0016653 0.00096496
-0.0020821 0.0033903 0.0015235 0.00021836 -0.00093426 -0.0010624 0.0591 -0.17695
-6.6687e-05 0.0024649 -0.0003005 0.0022359
0.0012341 7.5835e-05 0.0013119 -0.0010775 0.0018012 -0.001097 -6.4005e-05 0.0024538
0.24414 -0.057739 0.00041041 -0.0035173
