!Keysight Technologies,M9804A,MY58100912,A.14.10.03
!Date: Thursday, April 27, 2023 10:28:33
!Correction: S11(C  6-Port  ) 
!S12(C  6-Port  ) 
!S13(C  6-Port  ) 
!S14(C  6-Port  ) 
!S15(C  6-Port  ) 
!S16(C  6-Port  ) 
!S21(C  6-Port  ) 
!S22(C  6-Port  ) 
!S23(C  6-Port  ) 
!S24(C  6-Port  ) 
!S25(C  6-Port  ) 
!S26(C  6-Port  ) 
!S31(C  6-Port  ) 
!S32(C  6-Port  ) 
!S33(C  6-Port  ) 
!S34(C  6-Port  ) 
!S35(C  6-Port  ) 
!S36(C  6-Port  ) 
!S41(C  6-Port  ) 
!S42(C  6-Port  ) 
!S43(C  6-Port  ) 
!S44(C  6-Port  ) 
!S45(C  6-Port  ) 
!S46(C  6-Port  ) 
!S51(C  6-Port  ) 
!S52(C  6-Port  ) 
!S53(C  6-Port  ) 
!S54(C  6-Port  ) 
!S55(C  6-Port  ) 
!S56(C  6-Port  ) 
!S61(C  6-Port  ) 
!S62(C  6-Port  ) 
!S63(C  6-Port  ) 
!S64(C  6-Port  ) 
!S65(C  6-Port  ) 
!S66(C  6-Port  ) 
!S6P File: Measurement: :
# Hz S  RI   R 50
500000000 -0.34006 -0.024415 -0.010928 -0.0031105 -0.0082494 0.01313 -0.0032244 0.012905
0.011133 0.0035461 -0.0033614 0.0093298
-0.010922 -0.0030955 -0.42038 -0.041427 0.006598 -0.011483 0.0016084 0.012648
0.0067971 0.0025106 0.0013437 0.013872
-0.0082331 0.013144 0.0065983 -0.011512 -0.26532 0.21896 0.0071026 0.0038106
-0.0018722 0.0083473 0.0016065 0.012144
-0.0032145 0.012913 0.0016293 0.012677 0.007118 0.0038238 -0.33262 0.05511
-0.020542 -0.0055288 0.015937 0.023883
0.011138 0.0035209 0.0068108 0.0024947 -0.0018742 0.0083406 -0.020537 -0.0055084
-0.23413 -0.17247 -0.02622 0.0056527
-0.003327 0.0093348 0.0013679 0.013888 0.0016064 0.012156 0.015957 0.02387
-0.026235 0.0056233 -0.27968 -0.10033
560000000 -0.31456 0.13332 -0.026134 -0.060448 0.00039493 0.012558 0.0054146 0.010504
0.0088674 0.0046524 0.010425 0.0071296
-0.026067 -0.060367 -0.37542 0.11432 -0.042172 -0.034818 0.013421 0.0032704
-0.012203 -0.0035728 0.0030645 -0.0013208
0.00042183 0.012542 -0.042276 -0.034749 -0.18175 0.26569 -0.00017187 -0.004047
0.018861 0.0043816 0.0071457 -0.0057805
0.005458 0.010516 0.013459 0.0032626 -0.00016894 -0.0040462 -0.3062 0.14443
0.00039392 -0.024034 0.0040069 -0.019091
0.0088605 0.0046329 -0.012192 -0.0035064 0.01885 0.0043785 0.00038272 -0.024015
-0.28785 0.0016183 0.0042032 -0.048577
0.010444 0.0071151 0.0030436 -0.0013584 0.0071664 -0.0057826 0.0040081 -0.019107
0.0042074 -0.048556 -0.33181 0.045023
620000000 -0.27272 0.11862 -0.023365 0.0077805 0.0044523 0.0080015 0.0076101 -0.004529
0.010571 -0.0016943 0.0004934 -0.0013129
-0.023353 0.0077796 -0.40283 0.06941 -0.019257 0.00072852 -0.0011735 -0.0017655
0.010555 -0.006478 0.0010668 -0.0021262
0.0044805 0.0079806 -0.019285 0.00079199 -0.15093 0.27474 -0.00081048 -0.0047812
-0.0035145 -0.002736 0.0087979 -0.0025647
0.0076128 -0.004536 -0.0011887 -0.0017716 -0.00080452 -0.0047862 -0.26468 0.15555
-0.040737 -0.017053 0.012625 0.024386
0.01058 -0.0017243 0.010545 -0.0065024 -0.0035099 -0.0027456 -0.040742 -0.017045
-0.21185 -0.039105 -0.041041 0.015575
0.00050131 -0.0013131 0.0010647 -0.0021278 0.0087859 -0.0025619 0.012624 0.024383
-0.041043 0.015574 -0.25637 0.012497
680000000 -0.2298 0.20333 -0.027705 -0.011833 0.0055862 0.0048775 0.0014138 -0.0068103
-0.0025642 -0.011342 0.0043178 -0.0073064
-0.027674 -0.011844 -0.38592 0.16568 -0.032551 0.0002558 -0.0013939 -0.00051353
-0.0020452 -0.0092273 -0.001049 -0.0023775
0.0056 0.0048706 -0.032592 0.0003354 -0.09926 0.29349 -0.00080708 -0.0005999
-0.0017516 0.00010089 -0.0032768 -0.0086345
0.0013952 -0.0068182 -0.0013953 -0.000513 -0.0008091 -0.00060454 -0.21819 0.2046
-0.025848 -0.004796 -0.0098385 -0.0083588
-0.0026071 -0.011346 -0.0020694 -0.0092191 -0.001758 0.00010193 -0.025871 -0.0047671
-0.25418 0.062059 -0.0076497 -0.0064212
0.0043048 -0.0073223 -0.0010496 -0.002383 -0.0032846 -0.0086318 -0.0098593 -0.0083547
-0.0076515 -0.0064232 -0.25684 0.11353
740000000 -0.18502 0.19719 -0.036656 0.027148 0.012636 -0.0056121 -0.00053025 -0.004317
-0.0050958 -0.0032898 -0.005325 0.0032496
-0.036622 0.0271 -0.3327 0.18455 -0.033602 0.035137 -0.0012178 -0.0061607
-0.011619 0.0077755 -0.0022013 -0.0058992
0.012637 -0.0056469 -0.033568 0.035271 -0.064957 0.29134 -0.0017593 0.0031557
-0.0034452 -0.0046316 -0.0015041 0.0011834
-0.00054355 -0.0043258 -0.0012264 -0.0061577 -0.0017504 0.0031548 -0.20094 0.21317
-0.042529 -0.0036478 0.022745 0.013243
-0.0051087 -0.0032864 -0.011603 0.0078338 -0.0034534 -0.0046526 -0.042571 -0.0036025
-0.15936 0.08637 -0.039102 0.0044755
-0.0053399 0.0032831 -0.0022206 -0.0059175 -0.0015024 0.0011631 0.022738 0.013228
-0.039115 0.0044497 -0.24653 0.12039
800000000 -0.15168 0.23544 -0.021212 0.017446 0.0047991 -0.010506 -0.004454 -0.0017627
-0.0038799 0.0027441 0.0037631 0.00040311
-0.021199 0.017422 -0.33478 0.25323 -0.0070009 0.03391 -0.002564 0.002214
-0.00085662 0.0034411 0.00088766 0.0052101
0.0047762 -0.010523 -0.0069114 0.033965 -0.024041 0.31354 0.00062708 0.0016954
0.00024157 0.0036971 -0.0016721 0.0010269
-0.0044592 -0.0017574 -0.0025647 0.0022311 0.00062341 0.0016949 -0.17113 0.24011
-0.027155 0.016795 0.013247 -0.010334
-0.0038795 0.0027464 -0.00084836 0.0034556 0.00024244 0.0037019 -0.027164 0.016849
-0.19795 0.1121 -0.015737 0.019501
0.0037659 0.00038945 0.00090255 0.0052196 -0.0016775 0.0010318 0.013244 -0.010357
-0.015735 0.019487 -0.23534 0.16856
860000000 -0.11593 0.25492 -0.015443 0.030645 -0.0034056 -0.0098938 -0.0020483 0.0010532
0.0044875 0.0045768 -0.0031273 -0.0026404
-0.015446 0.030616 -0.28642 0.29406 0.0092357 0.033565 0.00015434 0.0022612
0.0046422 0.00025093 0.0030318 0.00050335
-0.0034323 -0.0098693 0.0093627 0.033573 0.024662 0.32102 -0.00044723 -0.00010592
0.0025627 -0.0012697 0.0018041 0.0040599
-0.0020372 0.001054 0.00015215 0.0022694 -0.00044788 -0.00010579 -0.13372 0.25024
-0.015053 0.020519 -0.0054004 -0.0092688
0.0045078 0.0045578 0.0046314 0.0002288 0.0025685 -0.0012746 -0.015032 0.02056
-0.14413 0.15904 -0.02163 0.016864
-0.0031386 -0.0026348 0.0030394 0.00048853 0.0018069 0.0040528 -0.0054003 -0.0092711
-0.021628 0.016846 -0.18488 0.2101
920000000 -0.090197 0.27584 0.006416 0.036693 -0.0094565 -0.0044012 -0.0014994 0.0015284
0.0015102 0.0016644 0.002566 -0.0019466
0.0064048 0.036663 -0.25716 0.31434 0.02864 0.020644 0.0017485 0.00077886
0.0073221 -0.00059388 0.0036347 -0.0031397
-0.0094673 -0.0043731 0.028734 0.020572 0.07135 0.32096 0.0020114 -0.00022122
0.0016487 -0.00052332 0.00068749 -0.0013561
-0.001486 0.0015076 0.0017408 0.00077397 0.0020122 -0.00022078 -0.10846 0.26586
-0.0074835 0.03151 0.0030008 -0.0069722
0.0015094 0.0016513 0.0073184 -0.00063117 0.0016531 -0.00053004 -0.0074372 0.031545
-0.13227 0.1629 0.00024673 0.0261
0.0025599 -0.0019602 0.0036272 -0.0031486 0.00068108 -0.0013575 0.0029965 -0.0069799
0.00021885 0.026085 -0.18778 0.22427
980000000 -0.043419 0.29416 0.01838 0.028621 -0.0089092 0.0045649 0.0018705 0.0030186
0.0039834 -0.0015735 -0.0030169 -0.002027
0.018363 0.028609 -0.20517 0.3476 0.033085 0.0034856 0.002074 -0.0001644
0.0017202 -0.0060609 -0.0002997 -0.0024151
-0.0089064 0.0045958 0.033147 0.003371 0.11816 0.3143 0.0005073 -0.0013363
0.00020805 -0.0023096 0.0012622 -0.0001915
0.0018903 0.0030084 0.0020594 -0.00016708 0.00051499 -0.0013301 -0.069514 0.27645
0.010943 0.029529 -0.0085087 -0.0064204
0.0039826 -0.0015749 0.0016802 -0.0060975 0.00020116 -0.0023193 0.011003 0.029527
-0.099501 0.18856 0.0064968 0.0187
-0.0030274 -0.0020321 -0.00032433 -0.0024127 0.0012634 -0.00019034 -0.008514 -0.0064106
0.0064852 0.018692 -0.14299 0.26547
1040000000 -0.00062029 0.30097 0.033111 0.016119 -0.0014597 0.0068059 0.0022768 0.00072014
0.00016641 -0.0033047 -0.00073731 -0.0013548
0.033085 0.016113 -0.16916 0.36049 0.028455 -0.015968 0.0013971 -0.0017497
-0.0021971 -0.0028155 -0.0016197 -0.0028821
-0.001447 0.0068145 0.028432 -0.016103 0.16547 0.29944 -0.00070321 -0.0015644
-0.0016843 -0.00095556 -0.00057356 -0.00099487
0.002295 0.0007103 0.0013841 -0.0017323 -0.00070906 -0.0015693 -0.04065 0.28538
0.021953 0.016445 -0.0025508 0.00072697
0.00016107 -0.0032851 -0.0022421 -0.0028192 -0.0016823 -0.0009584 0.021989 0.016413
-0.066898 0.19375 0.014565 0.016382
-0.00073283 -0.001365 -0.0016404 -0.0028518 -0.00057319 -0.00099891 -0.0025479 0.00073236
0.014543 0.016375 -0.11889 0.28482
1100000000 0.044033 0.30749 0.034916 -0.0057997 0.002678 0.0038578 0.0021529 -0.0010336
-0.0017979 -0.002892 -0.0037524 0.00025611
0.034889 -0.0057743 -0.12628 0.37742 0.013871 -0.028404 -0.00015413 -0.0017986
-0.003527 -0.00067846 -0.0035221 -0.00030699
0.0026897 0.003848 0.013789 -0.0285 0.21227 0.2777 -0.0019983 0.00021347
-0.0019396 0.00062393 -0.00096761 -0.00016596
0.0021575 -0.0010368 -0.00016892 -0.0018006 -0.0019981 0.00021262 0.00018578 0.28894
0.026227 0.0024034 -0.0026578 -0.00019768
-0.0018145 -0.0028812 -0.0035493 -0.00067215 -0.0019376 0.00062662 0.026231 0.0023651
-0.048929 0.20554 0.019165 0.006503
-0.0037477 0.00027496 -0.00353 -0.00028372 -0.00096782 -0.00016881 -0.0026579 -0.00019186
0.019152 0.0065041 -0.072887 0.31086
1160000000 0.095302 0.30186 0.022499 -0.021988 0.00238 -0.00037943 -9.3221e-05 -0.0019223
-0.0039782 -0.00067672 -0.0009099 0.0038603
0.022504 -0.021953 -0.081381 0.38196 -0.0052254 -0.02901 -0.0016912 -0.0015366
-0.0028588 0.0027693 -0.0013952 0.0017713
0.0023601 -0.00039035 -0.0053451 -0.029021 0.25584 0.24506 -0.00077672 0.0019243
-0.00041615 0.0021134 -0.00089412 0.00020884
-9.9155e-05 -0.0019177 -0.0017007 -0.001527 -0.00077666 0.0019274 0.040428 0.2845
0.021274 -0.013745 -0.0034198 0.0043594
-0.0039903 -0.00064876 -0.0028659 0.0027724 -0.00041538 0.0021124 0.021262 -0.013776
-0.015466 0.21302 0.017794 -0.0018144
-0.00087036 0.0038714 -0.0013939 0.0017942 -0.00089763 0.00020919 -0.0034044 0.0043689
0.017792 -0.0018148 -0.025582 0.31266
1220000000 0.13955 0.28924 0.0084056 -0.030175 -0.0016512 -0.00034551 0.00017053 -0.00094949
-0.0025222 0.0021955 0.0012911 0.0019412
0.008431 -0.030138 -0.036839 0.3928 -0.017903 -0.020285 -0.0025008 0.00050084
8.2632e-05 0.0031199 -0.0005727 0.0020847
-0.0016661 -0.0003465 -0.018008 -0.020229 0.2941 0.20337 0.00090246 0.0020127
0.00078699 0.0013124 0.00040882 0.00065105
0.00017768 -0.00095127 -0.0025109 0.00051121 0.00090139 0.0020167 0.080618 0.27355
0.009488 -0.020199 0.0011929 0.0013887
-0.0025125 0.0022089 8.9039e-05 0.0031084 0.00079281 0.0013132 0.0094628 -0.020219
0.0075136 0.21973 0.012619 -0.014361
0.0013079 0.0019353 -0.00056491 0.0020917 0.00040892 0.00064751 0.0011916 0.001388
0.012621 -0.014357 0.0072782 0.32553
1280000000 0.18867 0.26665 -0.0096993 -0.027717 -0.0016204 0.0030367 -0.00087627 -0.0019691
-0.00082773 0.0031054 0.002525 0.0010078
-0.0096737 -0.027697 0.009787 0.38362 -0.024179 -0.007346 -0.0009817 0.0015529
0.0018961 0.0018104 0.00077723 0.001921
-0.0016078 0.0030446 -0.024235 -0.0072466 0.32288 0.15848 0.0017874 2.5554e-05
0.0012397 0.00020336 0.00023777 0.00019131
-0.00088483 -0.0019653 -0.00097477 0.0015649 0.0017906 3.2488e-05 0.11682 0.2552
-0.0015148 -0.021565 -0.00078735 0.00053073
-0.00080909 0.0031078 0.001897 0.0018092 0.0012376 0.00020666 -0.0015488 -0.021575
0.043713 0.22234 0.0015085 -0.016071
0.0025291 0.0009945 0.00079565 0.001918 0.00023674 0.0001893 -0.00078049 0.00053427
0.0015222 -0.016068 0.053852 0.32522
1340000000 0.22575 0.2315 -0.018927 -0.017268 0.00142 0.0045564 -0.0017228 -0.00098859
0.0014848 0.0026974 0.0016358 -0.0015433
-0.018898 -0.017266 0.050045 0.37347 -0.021269 0.0054636 -5.5439e-05 0.0020481
0.002193 0.00058064 0.0014544 0.00065352
0.0014437 0.0045512 -0.021265 0.0055713 0.34341 0.10978 0.0013563 -0.0011037
0.00071928 -0.0006424 3.3955e-05 0.00030095
-0.0017274 -0.00098998 -5.3824e-05 0.002056 0.0013566 -0.0011009 0.14876 0.23234
-0.011625 -0.017416 0.00035646 0.001473
0.0015005 0.002699 0.0021926 0.00055872 0.00070807 -0.00063828 -0.011669 -0.017394
0.074001 0.21609 -0.0057878 -0.013939
0.0016269 -0.0015554 0.0014648 0.00064598 3.5193e-05 0.00030194 0.00035331 0.001471
-0.0057945 -0.013947 0.093162 0.31748
1400000000 0.25764 0.19239 -0.023512 -0.0054215 0.0055383 0.0028979 -0.0022046 0.00051156
0.0024327 0.00091666 0.00024435 -0.0015298
-0.02348 -0.0054365 0.086631 0.35922 -0.013993 0.013209 0.0014499 0.0012975
0.0012435 -0.0010397 0.0011834 -3.5995e-05
0.0055587 0.0028683 -0.013944 0.013296 0.3546 0.056664 6.3906e-05 -0.00207
4.4448e-05 -0.0005141 0.00034455 0.00027872
-0.0022049 0.00051875 0.0014566 0.0012979 6.4767e-05 -0.0020692 0.17621 0.20173
-0.017544 -0.0093767 -0.00054537 0.00077042
0.0024417 0.0009109 0.0012475 -0.0010556 4.1374e-05 -0.00051484 -0.017582 -0.009338
0.10586 0.21013 -0.012026 -0.0082389
0.00023035 -0.0015317 0.0011914 -3.9938e-05 0.00034656 0.00028208 -0.00054322 0.00076913
-0.012029 -0.0082488 0.13605 0.30386
1460000000 0.27997 0.14766 -0.019612 0.0064364 0.0057049 -0.0022118 -0.0016214 0.001711
0.0021916 -0.00061878 -0.00042637 -0.00085988
-0.019605 0.0064162 0.12062 0.3362 -0.0051022 0.01544 0.0017886 0.00010924
0.00065104 -0.0014258 0.0010341 -0.00066838
0.0056985 -0.0022465 -0.0050299 0.015471 0.36013 0.0031303 -0.0016044 -0.0013886
0.0001686 -0.00021926 0.00070078 -0.00028003
-0.0016155 0.0017195 0.0017944 0.00010089 -0.0016121 -0.0013903 0.20056 0.17165
-0.018302 -0.0011377 -8.6107e-05 0.0026308
0.0021964 -0.00061921 0.00064614 -0.0014333 0.000165 -0.00022201 -0.01831 -0.0011106
0.13487 0.19439 -0.01317 -0.0016176
-0.00043171 -0.00086045 0.0010366 -0.00067276 0.00070324 -0.00027716 -9.6184e-05 0.0026205
-0.013169 -0.0016186 0.16884 0.28178
1520000000 0.29096 0.1044 -0.01317 0.011411 0.0031382 -0.0044134 0.00013882 0.0026774
0.002044 -0.0018866 -0.0011439 -2.7182e-05
-0.013164 0.011386 0.15295 0.32006 0.0023195 0.012805 0.0017266 -0.00091692
-0.00018334 -0.0010705 0.00021478 -0.00095164
0.0031279 -0.0044251 0.0023848 0.01281 0.35276 -0.052928 -0.0014442 -0.00019248
0.00052071 -0.00089166 -2.019e-06 -0.00011234
0.00015075 0.0026779 0.0017174 -0.00093477 -0.0014447 -0.00019384 0.22076 0.133
-0.016155 0.0055308 0.002305 0.0020492
0.0020374 -0.0018953 -0.00018814 -0.0010803 0.00051795 -0.00089767 -0.016151 0.0055755
0.16209 0.17832 -0.0124 0.0033833
-0.0011451 -2.2056e-05 0.00020692 -0.00095271 -3.2775e-06 -0.00011244 0.0023107 0.0020389
-0.012398 0.0033744 0.20054 0.25902
1580000000 0.29875 0.057988 -0.0062794 0.013554 -0.0011008 -0.0050368 0.0015858 0.0019079
-0.00024679 -0.0023699 -0.00024305 0.0003544
-0.0062818 0.013532 0.17901 0.29518 0.0056646 0.0076901 0.00040271 -0.0017534
-0.00064783 -0.00093153 -0.00030701 -0.00077915
-0.0011212 -0.0050247 0.0057142 0.0076689 0.33267 -0.10961 -0.0016293 0.0010556
-0.00034997 -0.0012274 0.00013554 -0.00065801
0.0015978 0.0018968 0.0003904 -0.0017574 -0.0016283 0.0010531 0.2321 0.09496
-0.011264 0.010515 0.0027953 0.00036258
-0.00026136 -0.0023821 -0.00065336 -0.00092197 -0.00034552 -0.0012245 -0.01124 0.010555
0.18529 0.15914 -0.0093732 0.008959
-0.00023998 0.00035804 -0.00030976 -0.00077851 0.00013144 -0.00066161 0.0027931 0.00035159
-0.0093762 0.0089552 0.23071 0.23191
1640000000 0.29953 0.016149 0.00018648 0.011527 -0.0029878 -0.0027673 0.002809 0.00089468
-0.00090644 -0.0016372 -0.00027124 0.00051712
0.00017098 0.011528 0.20776 0.26967 0.005969 0.0029843 -0.00095144 -0.0017228
-0.00099114 -0.00021459 -0.00058753 -0.0005741
-0.0029999 -0.00275 0.0059909 0.0029527 0.30438 -0.15878 -0.00041285 0.0016958
-0.0012911 -0.00082656 -0.00023359 -0.0002809
0.0028042 0.0008741 -0.00095428 -0.0017147 -0.00041425 0.0016907 0.2425 0.047594
-0.005749 0.011139 0.0027667 -0.0013445
-0.00092349 -0.0016343 -0.00099534 -0.00020232 -0.0012844 -0.00081466 -0.0057306 0.011164
0.20691 0.13302 -0.003773 0.010736
-0.0002682 0.00052103 -0.00059212 -0.0005665 -0.0002344 -0.00028304 0.002767 -0.0013548
-0.003783 0.010736 0.25571 0.19941
1700000000 0.29023 -0.028907 0.0030779 0.0081119 -0.0036574 8.4336e-05 0.0029739 -0.0015292
-0.0021693 -0.00057269 0.00061316 0.0003299
0.0030625 0.0081057 0.22446 0.23856 0.0038102 0.00015728 -0.0015783 -0.00047293
-0.00057323 0.00020043 -0.00086746 -0.00036104
-0.003662 9.8061e-05 0.0038112 0.0001446 0.2608 -0.1989 0.0006846 0.0014641
-0.0019741 3.9544e-05 -0.00054433 -0.00083128
0.0029645 -0.0015403 -0.0015771 -0.00046307 0.00068651 0.0014555 0.23793 0.00076388
-0.0022414 0.010577 0.0015783 -0.0026202
-0.0021757 -0.00056427 -0.00057414 0.0002021 -0.0019701 4.7076e-05 -0.0022136 0.010582
0.22188 0.11152 0.0011458 0.01052
0.00061665 0.00032634 -0.00087129 -0.00035427 -0.00054971 -0.00083227 0.0015719 -0.0026216
0.0011479 0.010518 0.27031 0.16459
1760000000 0.27715 -0.076442 0.0043674 0.0045782 -0.0023842 0.0010231 0.00096551 -0.0035322
-0.0014947 0.00090272 0.00035775 -0.00049951
0.0043634 0.0045854 0.25017 0.19917 0.0014755 -0.0015643 -0.0012266 0.00038522
-0.00088042 0.00080243 -0.00055557 0.00047353
-0.0023765 0.001036 0.0014646 -0.0015775 0.21234 -0.23217 0.0012469 0.00082978
-0.0011003 0.001742 -0.001472 -0.00034944
0.000944 -0.003534 -0.0012243 0.00039592 0.0012526 0.00083034 0.23003 -0.047639
0.00089939 0.0088854 -0.00027842 -0.0028771
-0.0014849 0.0009086 -0.00087755 0.00081553 -0.0010885 0.0017548 0.00092116 0.0088915
0.23517 0.076097 0.005288 0.0073732
0.00035448 -0.00050308 -0.00055001 0.00047845 -0.0014754 -0.00034911 -0.00028113 -0.0028815
0.0052954 0.007369 0.28249 0.12682
1820000000 0.25141 -0.11331 0.0037728 0.0014294 -0.00020998 0.0025862 -0.0013495 -0.0029224
-0.0009523 0.0012175 -7.9283e-06 -6.6699e-05
0.0037766 0.0014341 0.25948 0.16915 -0.00051353 -0.00022845 -0.0011479 0.0010948
-3.5588e-05 0.0011223 -0.00043788 0.00056227
-0.00019025 0.0025882 -0.00050976 -0.00022386 0.16147 -0.248 0.0013168 0.0001429
7.1579e-05 0.0023064 -0.0015092 0.00055397
-0.0013654 -0.0029182 -0.0011357 0.0011037 0.0013116 0.00013912 0.20165 -0.093267
0.0019716 0.0066668 -0.001768 -0.0018364
-0.00094185 0.0012286 -3.5844e-05 0.0011206 7.9609e-05 0.0023046 0.0019898 0.0066618
0.24989 0.046095 0.0061952 0.0032078
-8.7944e-06 -6.2847e-05 -0.00043188 0.0005676 -0.0015096 0.00055949 -0.0017731 -0.0018341
0.0062027 0.0032124 0.28371 0.089103
1880000000 0.21567 -0.1519 0.0012155 -0.00019623 -0.00027874 0.002342 -0.0029888 -0.0017724
0.0001179 0.001741 0.00024711 -0.00043198
0.0012036 -0.00019625 0.26379 0.1235 -0.0025825 0.0015965 4.2687e-05 0.0016885
0.00048567 0.0011359 0.00017727 0.00094251
-0.00026317 0.0023452 -0.0025697 0.0016233 0.10859 -0.25766 0.0015389 -0.00082899
0.0017449 0.001842 -0.00070493 0.0016058
-0.0029905 -0.0017612 4.9916e-05 0.0016857 0.0015406 -0.00082597 0.16383 -0.13282
0.0023503 0.0043828 -0.0025497 0.00011542
0.00013359 0.001746 0.00049334 0.0011341 0.0017514 0.001846 0.0023573 0.0043849
0.25082 0.014061 0.0059082 0.00076986
0.00024334 -0.00043608 0.00018645 0.0009443 -0.00070704 0.0016099 -0.002556 0.00011791
0.0059035 0.00076734 0.28235 0.055233
1940000000 0.17697 -0.17758 -0.00091921 -0.0011524 0.0015818 0.0018886 -0.0035103 0.00083666
0.0015628 0.0010216 -0.00049645 -0.00065017
-0.00092958 -0.00115 0.26449 0.091561 -0.0013062 0.003863 0.0011119 0.0010458
0.0016268 0.00057881 0.00085782 0.0003777
0.0015909 0.0018911 -0.0012784 0.0038756 0.062882 -0.25152 0.00034211 -0.0019188
0.0023953 0.00017002 0.0005203 0.0017101
-0.0035101 0.00085607 0.0011155 0.0010453 0.00034821 -0.0019252 0.11381 -0.16477
0.0014676 0.0029587 -0.0018065 0.0014708
0.0015783 0.0010061 0.001642 0.00056477 0.0023961 0.0001621 0.0014692 0.0029601
0.25161 -0.025157 0.0040845 -0.0027321
-0.00050371 -0.00064541 0.00086276 0.00037109 0.00052687 0.0017071 -0.0017997 0.0014729
0.0040863 -0.0027291 0.27083 0.017861
2000000000 0.12987 -0.19197 -0.0045361 0.0011108 0.0025111 0.0014648 -0.0021951 0.0033354
0.0011788 -0.00011789 -0.00048613 0.00018366
-0.0045229 0.0010981 0.25003 0.055976 -0.0010678 0.0056805 0.0014197 0.00015326
0.0013099 -0.0011349 0.00064317 2.2604e-05
