!Keysight Technologies,M9804A,MY58100912,A.14.10.03
!Date: Thursday, April 27, 2023 10:28:33
!Correction: S11(C  6-Port  ) 
!S12(C  6-Port  ) 
!S13(C  6-Port  ) 
!S14(C  6-Port  ) 
!S15(C  6-Port  ) 
!S16(C  6-Port  ) 
!S21(C  6-Port  ) 
!S22(C  6-Port  ) 
!S23(C  6-Port  ) 
!S24(C  6-Port  ) 
!S25(C  6-Port  ) 
!S26(C  6-Port  ) 
!S31(C  6-Port  ) 
!S32(C  6-Port  ) 
!S33(C  6-Port  ) 
!S34(C  6-Port  ) 
!S35(C  6-Port  ) 
!S36(C  6-Port  ) 
!S41(C  6-Port  ) 
!S42(C  6-Port  ) 
!S43(C  6-Port  ) 
!S44(C  6-Port  ) 
!S45(C  6-Port  ) 
!S46(C  6-Port  ) 
!S51(C  6-Port  ) 
!S52(C  6-Port  ) 
!S53(C  6-Port  ) 
!S54(C  6-Port  ) 
!S55(C  6-Port  ) 
!S56(C  6-Port  ) 
!S61(C  6-Port  ) 
!S62(C  6-Port  ) 
!S63(C  6-Port  ) 
!S64(C  6-Port  ) 
!S65(C  6-Port  ) 
!S66(C  6-Port  ) 
!S6P File: Measurement: :
# Hz S  RI   R 50
500000000 -0.34038 -0.024238 -0.010943 -0.0032555 -0.008307 0.012973 -0.0036615 0.012198
0.011734 0.004088 -0.0035401 0.0085038
-0.011045 -0.0032602 -0.4204 -0.041711 0.0061818 -0.011242 0.0015836 0.012717
0.0073321 0.002177 0.0016917 0.013624
-0.0082786 0.013201 0.0061355 -0.011287 -0.26542 0.21973 0.0068022 0.0040966
-0.0012953 0.0076584 0.001464 0.012218
-0.0037372 0.01209 0.0017414 0.012632 0.0067824 0.004051 -0.33356 0.056218
-0.02001 -0.0066558 0.014632 0.024504
0.011625 0.0037333 0.007147 0.0023911 -0.0012825 0.0076518 -0.020022 -0.0066542
-0.23304 -0.17369 -0.025257 0.0046391
-0.0032329 0.0080553 0.0019966 0.013701 0.0014644 0.012169 0.014557 0.024493
-0.025264 0.0046228 -0.28076 -0.097727
560000000 -0.31524 0.13351 -0.026025 -0.060788 0.00031972 0.012057 0.0053468 0.010408
0.0091104 0.0046873 0.0099544 0.0072137
-0.025962 -0.060862 -0.37468 0.11429 -0.042013 -0.03434 0.013428 0.003837
-0.012718 -0.0032167 0.0030221 -0.00073607
0.00039052 0.012051 -0.041933 -0.034488 -0.18154 0.26582 -0.00051603 -0.0042617
0.018696 0.0039039 0.0063005 -0.0062137
0.0051268 0.010643 0.01335 0.0037861 -0.00050509 -0.0042823 -0.3068 0.14468
-0.00010697 -0.023231 0.0040367 -0.019579
0.0092524 0.0045267 -0.012702 -0.0026582 0.018732 0.0038925 -9.8543e-05 -0.023219
-0.28809 -0.00066343 0.0043197 -0.04795
0.0097203 0.0071937 0.0028107 -0.0008928 0.0062989 -0.0061749 0.0040027 -0.019618
0.004319 -0.047951 -0.33153 0.045112
620000000 -0.27315 0.11868 -0.023589 0.0080737 0.0042488 0.0080544 0.0079743 -0.0049355
0.010529 -0.0010215 0.00079447 -0.001933
-0.023703 0.0078936 -0.40219 0.069078 -0.019057 0.0011204 -0.0013932 -0.0017407
0.011078 -0.0067986 0.0013865 -0.0024824
0.0039713 0.0081811 -0.01908 0.0011447 -0.15042 0.27471 -0.00094435 -0.0048788
-0.0031498 -0.0028617 0.0085661 -0.0028824
0.0079064 -0.005102 -0.0012947 -0.0017733 -0.00097664 -0.0048511 -0.26447 0.15602
-0.041037 -0.016781 0.012424 0.025294
0.010712 -0.00076605 0.010949 -0.0066389 -0.0031755 -0.0028957 -0.041058 -0.016832
-0.20935 -0.040171 -0.041055 0.015168
0.0007813 -0.0025463 0.0013034 -0.0022815 0.0084422 -0.0028985 0.012436 0.025246
-0.041101 0.015128 -0.25599 0.014941
680000000 -0.22975 0.20267 -0.027432 -0.012194 0.0055841 0.0046216 0.0012246 -0.0068664
-0.0027653 -0.010793 0.0044124 -0.0070089
-0.027356 -0.01227 -0.38555 0.16524 -0.031914 0.00025242 -0.0014251 -0.00046543
-0.002229 -0.0091313 -0.0018822 -0.0022098
0.005657 0.0044545 -0.031933 0.00032266 -0.098832 0.29379 -0.00086017 -0.00051783
-0.0016117 0.00014103 -0.0036257 -0.0087284
0.0012713 -0.006957 -0.0014518 -0.00047601 -0.00087361 -0.00049376 -0.21787 0.20626
-0.025854 -0.0046623 -0.0092273 -0.0084972
-0.0026532 -0.010826 -0.002241 -0.009175 -0.001608 0.00015782 -0.025868 -0.004669
-0.25472 0.060234 -0.0075761 -0.0065362
0.004363 -0.0069109 -0.0018921 -0.0022146 -0.0036379 -0.0087412 -0.0093026 -0.0085084
-0.0075721 -0.0065363 -0.25624 0.114
740000000 -0.18494 0.19688 -0.036718 0.027282 0.012454 -0.0056631 -0.0006627 -0.0043774
-0.0047808 -0.0030885 -0.005649 0.0027013
-0.036651 0.027096 -0.33293 0.18411 -0.033167 0.035187 -0.00090657 -0.006414
-0.012099 0.0076627 -0.0018593 -0.0058936
0.012485 -0.0057159 -0.033079 0.035313 -0.064911 0.29145 -0.0019542 0.0030964
-0.0030497 -0.0047094 -0.0017216 0.00097639
-0.00067509 -0.0042876 -0.00088922 -0.0063228 -0.0019625 0.0031213 -0.20037 0.2139
-0.042802 -0.003406 0.02297 0.013579
-0.004483 -0.003308 -0.011867 0.0075685 -0.0030774 -0.0047112 -0.042823 -0.0033576
-0.1572 0.083588 -0.039959 0.0040204
-0.0057896 0.0028779 -0.0020532 -0.0057693 -0.0017293 0.0009894 0.022982 0.013568
-0.039955 0.0039996 -0.24555 0.12271
800000000 -0.15175 0.2353 -0.02115 0.017526 0.0048249 -0.010494 -0.0044829 -0.0016775
-0.0036296 0.0023723 0.0036459 0.0004203
-0.021117 0.017469 -0.33465 0.2529 -0.0067398 0.03371 -0.0025744 0.0022617
-0.0006783 0.0032804 0.00087462 0.0052151
0.0048112 -0.010541 -0.0066254 0.033745 -0.023456 0.3138 0.0006752 0.0017352
0.00033527 0.0036576 -0.0017495 0.00091001
-0.0044735 -0.0016468 -0.0025499 0.0023071 0.00066723 0.0017281 -0.17057 0.24075
-0.026968 0.016843 0.01323 -0.010032
-0.0036638 0.0025893 -0.00068351 0.00318 0.0003352 0.0036758 -0.026953 0.016886
-0.19783 0.10947 -0.016006 0.019326
0.0036273 0.00046068 0.00088749 0.0052645 -0.0017452 0.00091262 0.013248 -0.010044
-0.016011 0.019322 -0.2344 0.16973
860000000 -0.1163 0.25467 -0.01572 0.030502 -0.003626 -0.0097299 -0.0019878 0.00080461
0.0041387 0.0044038 -0.0030028 -0.0027362
-0.015665 0.030554 -0.28662 0.29394 0.0090916 0.033301 8.4941e-05 0.0022794
0.0038557 0.00017703 0.0030938 0.00014667
-0.0036662 -0.0097448 0.0092295 0.033291 0.025182 0.32095 -0.000426 -0.00011344
0.0026094 -0.0014616 0.0017622 0.0039424
-0.0020822 0.00088352 2.4675e-05 0.002167 -0.00042027 -0.00010243 -0.13266 0.25069
-0.014796 0.020324 -0.0055902 -0.0090945
0.0042363 0.004267 0.0039474 2.6619e-05 0.0025966 -0.0014539 -0.01478 0.020305
-0.14449 0.15629 -0.021732 0.016511
-0.0029449 -0.0026538 0.0031998 0.00024157 0.0017769 0.0039386 -0.0056203 -0.0090471
-0.021753 0.016511 -0.18393 0.21106
920000000 -0.090555 0.27576 0.0064036 0.036621 -0.0094525 -0.0041965 -0.0015587 0.0015443
0.0013069 0.0014382 0.002534 -0.0017059
0.0064411 0.036552 -0.25695 0.31402 0.028295 0.020452 0.0016923 0.00082634
0.0069698 -0.00081928 0.0034959 -0.0030049
-0.0094568 -0.0041234 0.028431 0.020421 0.071805 0.32078 0.0019715 -0.00018225
0.0014432 -0.00065567 0.00062864 -0.0012515
-0.0015402 0.0015598 0.0017314 0.00083858 0.0019757 -0.00017068 -0.10772 0.26605
-0.007583 0.031056 0.0028387 -0.0067046
0.0013624 0.0013928 0.0069967 -0.00094404 0.0014511 -0.00065537 -0.0075371 0.031102
-0.13231 0.16103 7.7659e-05 0.026076
0.0024771 -0.0018631 0.0034722 -0.0031065 0.00062836 -0.0012627 0.0028401 -0.0066947
5.2183e-05 0.026076 -0.18641 0.22538
980000000 -0.043682 0.2942 0.018258 0.028375 -0.0086857 0.0045886 0.0018223 0.0029109
0.0038957 -0.0016073 -0.0031664 -0.002016
0.018276 0.028348 -0.20507 0.34711 0.032675 0.003404 0.0020056 -0.00027209
0.0016541 -0.0061046 -0.00042678 -0.0024007
-0.0086464 0.0046288 0.032729 0.003314 0.11853 0.31379 0.00050979 -0.0013147
0.00018054 -0.0022941 0.0012874 -0.00025108
0.001791 0.0028728 0.0020289 -0.00028489 0.00050263 -0.0013209 -0.068654 0.27625
0.010883 0.028959 -0.0083793 -0.0065048
0.0038629 -0.0016791 0.0015401 -0.0061583 0.00016555 -0.0022931 0.01094 0.028959
-0.09999 0.18693 0.0066697 0.018396
-0.0031706 -0.0019245 -0.00054174 -0.0023712 0.001286 -0.00025641 -0.008385 -0.006501
0.0066587 0.018405 -0.1424 0.26553
1040000000 -0.00079037 0.30105 0.032935 0.015951 -0.0013199 0.0066757 0.0022646 0.00073463
0.00012851 -0.0030928 -0.00070654 -0.0013238
0.032906 0.015931 -0.16905 0.35995 0.028091 -0.015753 0.0015111 -0.0017286
-0.0023169 -0.0026123 -0.001427 -0.0027345
-0.0013187 0.006675 0.028036 -0.015893 0.16554 0.29885 -0.00060573 -0.0015102
-0.0016974 -0.0008895 -0.00056887 -0.00094215
0.0022572 0.00071103 0.0015171 -0.0016924 -0.00060883 -0.0015126 -0.040102 0.28486
0.021485 0.015871 -0.0025027 0.00083187
0.00014721 -0.0031785 -0.0023128 -0.0025632 -0.0017011 -0.00089761 0.021522 0.01586
-0.067314 0.19209 0.014254 0.016105
-0.0007359 -0.0012666 -0.0014978 -0.0027081 -0.00057587 -0.00094943 -0.002504 0.00082744
0.014259 0.016114 -0.11809 0.28553
1100000000 0.043876 0.30768 0.034497 -0.0057948 0.0025959 0.0036695 0.0021261 -0.00092862
-0.0018086 -0.0028798 -0.0037729 0.0003058
0.034483 -0.0057783 -0.12625 0.37673 0.013688 -0.027956 -0.00010675 -0.0017897
-0.0034631 -0.00077046 -0.0034628 -0.00032485
0.0026276 0.0036547 0.013599 -0.028045 0.21201 0.27711 -0.0018901 0.00021468
-0.0018784 0.00061925 -0.00098972 -0.00013761
0.002111 -0.00094584 -0.0001036 -0.0017643 -0.0018973 0.00020341 0.00041025 0.28818
0.025667 0.0022455 -0.0027277 -0.00033392
-0.0018176 -0.0028533 -0.0034408 -0.00072795 -0.0018868 0.00062956 0.025671 0.0022221
-0.04941 0.2043 0.018941 0.0061993
-0.0037893 0.00031877 -0.0034623 -0.00033355 -0.00098968 -0.00013742 -0.0027299 -0.00032905
0.018949 0.0062052 -0.072208 0.31097
1160000000 0.095285 0.30187 0.022104 -0.021631 0.0022529 -0.00036792 3.4717e-06 -0.0018885
-0.0038884 -0.00059764 -0.00091401 0.0039281
0.022096 -0.021582 -0.081579 0.38105 -0.0050246 -0.028387 -0.0016534 -0.0016232
-0.0027109 0.0026768 -0.0013576 0.0017512
0.0022568 -0.00034388 -0.0051542 -0.028435 0.25534 0.24471 -0.0008122 0.0018407
-0.00039948 0.002028 -0.00079046 0.00023719
-8.0401e-06 -0.0019098 -0.00166 -0.0016284 -0.00081667 0.0018299 0.040245 0.28377
0.020596 -0.013311 -0.003424 0.004307
-0.0039099 -0.00059508 -0.002695 0.0026637 -0.0003923 0.0020273 0.020604 -0.013333
-0.01623 0.21126 0.017196 -0.0016499
-0.00085648 0.0039294 -0.0014087 0.001792 -0.00079058 0.00022899 -0.0034001 0.004308
0.01723 -0.0016441 -0.024631 0.31262
1220000000 0.13951 0.28915 0.008337 -0.029664 -0.0016901 -0.00024805 0.00025532 -0.00089086
-0.0024305 0.0022521 0.0012736 0.0019263
0.0083522 -0.029615 -0.037317 0.39191 -0.017478 -0.020014 -0.0024557 0.00045682
6.4717e-05 0.0031004 -0.00058847 0.0019877
-0.0016517 -0.00021463 -0.017571 -0.019956 0.29344 0.20359 0.00086232 0.0018747
0.00070128 0.0013121 0.00043511 0.00064335
0.000234 -0.00086625 -0.0024725 0.00046834 0.00086777 0.0018677 0.080026 0.27302
0.0092235 -0.019489 0.0011686 0.0013998
-0.002422 0.0022597 6.6814e-05 0.0031083 0.00069871 0.0013078 0.0092011 -0.019497
0.0066279 0.21806 0.012126 -0.013942
0.0013227 0.0019138 -0.00057203 0.0019921 0.00043239 0.00063988 0.0011732 0.0013931
0.012155 -0.013934 0.0080887 0.3254
1280000000 0.18853 0.26662 -0.0094438 -0.027133 -0.0015592 0.0030725 -0.00086736 -0.002064
-0.00078227 0.0029551 0.0024258 0.00099786
-0.0094039 -0.027098 0.008776 0.38288 -0.023649 -0.0074509 -0.00097854 0.0014686
0.0018731 0.0018237 0.00075529 0.00184
-0.0015826 0.0030871 -0.023712 -0.0073166 0.32245 0.15915 0.0017184 8.3118e-05
0.0012436 0.0002459 0.00030592 0.0001047
-0.00088862 -0.0020576 -0.0009928 0.001474 0.001717 7.6798e-05 0.11623 0.2551
-0.0011698 -0.020838 -0.00077336 0.0006408
-0.00077809 0.0029963 0.0018554 0.0018126 0.0012374 0.00023946 -0.001211 -0.020846
0.042525 0.22072 0.0013463 -0.015639
0.0024601 0.00095451 0.00082132 0.0018023 0.00030737 0.00011718 -0.0007764 0.00064274
0.0013698 -0.015647 0.05434 0.32488
1340000000 0.22547 0.23154 -0.018369 -0.016974 0.0015099 0.0044841 -0.0017528 -0.0010113
0.0014319 0.0026116 0.0015884 -0.0014482
-0.01831 -0.016978 0.048654 0.37331 -0.020949 0.0051387 -0.00010264 0.0020561
0.0021609 0.00064841 0.0013979 0.00067082
0.001523 0.0044756 -0.020948 0.0052315 0.34338 0.11054 0.0013164 -0.0010708
0.000707 -0.00053748 6.6342e-05 0.0002354
-0.0017702 -0.0009937 -0.00010255 0.0020699 0.0013177 -0.0010829 0.14815 0.23279
-0.010901 -0.016974 0.0004416 0.0014047
0.0014429 0.0025943 0.0021551 0.00061469 0.0007083 -0.0005541 -0.010933 -0.016963
0.07214 0.21456 -0.0055646 -0.013442
0.0015889 -0.001459 0.001405 0.00064218 7.221e-05 0.00023647 0.00043795 0.0014011
-0.0055422 -0.013477 0.093564 0.31708
1400000000 0.25737 0.19259 -0.022874 -0.0055215 0.0055207 0.0027743 -0.0022368 0.00055957
0.002339 0.00094052 0.0001997 -0.0014152
-0.022838 -0.0055437 0.085256 0.35965 -0.013949 0.012785 0.0014024 0.0013508
0.0012293 -0.00099047 0.0011438 4.9883e-05
0.0055364 0.0027573 -0.013901 0.01287 0.35516 0.057208 9.833e-05 -0.0020451
4.7556e-07 -0.00046628 0.00028877 0.0002266
-0.0022458 0.00057251 0.0014091 0.0013418 0.00011224 -0.002043 0.1759 0.2026
-0.01675 -0.0094144 -0.00048829 0.00076028
0.0023342 0.00090072 0.0012224 -0.0010038 1.025e-05 -0.00046014 -0.016775 -0.009378
0.10355 0.20913 -0.011676 -0.0078691
0.00019555 -0.0014218 0.00115 3.4284e-05 0.00029098 0.00022856 -0.0004902 0.00075707
-0.011664 -0.0079099 0.1363 0.30384
1460000000 0.27976 0.14806 -0.019151 0.0059696 0.0057115 -0.0022256 -0.001634 0.0017794
0.002094 -0.00047173 -0.00033789 -0.00086889
-0.019156 0.0059516 0.11959 0.33723 -0.0053266 0.015201 0.0017842 0.00011536
0.00066156 -0.0014139 0.0010462 -0.00055551
0.0056793 -0.0022796 -0.0052489 0.015228 0.3608 0.0033817 -0.0016396 -0.0013811
0.00014141 -0.00015096 0.00062658 -0.00035384
-0.0016168 0.0017741 0.0017864 0.00012199 -0.0016342 -0.0013741 0.20066 0.17256
-0.017606 -0.0017203 -0.00014403 0.0025502
0.0020677 -0.00050978 0.00065007 -0.0014305 0.00013867 -0.00014189 -0.017623 -0.0016838
0.13235 0.19395 -0.012538 -0.0015711
-0.00037982 -0.00087276 0.0010772 -0.00058904 0.00062827 -0.00035948 -0.00014036 0.0025482
-0.012557 -0.0016097 0.16899 0.28164
1520000000 0.29099 0.10488 -0.013037 0.010769 0.0030595 -0.0044174 0.00015391 0.002706
0.0020892 -0.0017237 -0.0011466 -9.5861e-05
-0.013033 0.010747 0.15245 0.32141 0.0020534 0.012681 0.0016808 -0.0009209
-0.00015925 -0.001115 0.0002478 -0.00092833
0.0030397 -0.0044043 0.0021096 0.012686 0.35345 -0.053179 -0.00149 -0.00020539
0.00048581 -0.00087279 2.1434e-05 -0.00012361
0.00015691 0.0027028 0.0016848 -0.00093269 -0.0014792 -0.00020654 0.22133 0.13395
-0.015932 0.0046653 0.0022433 0.0020592
0.0021007 -0.0017532 -0.00015731 -0.0011103 0.00048628 -0.00087761 -0.015924 0.0047076
0.15944 0.17856 -0.011825 0.0031681
-0.0011476 -0.00014071 0.00025111 -0.00094211 2.48e-05 -0.00012137 0.0022485 0.0020694
-0.011857 0.0031448 0.20083 0.25895
1580000000 0.29908 0.058657 -0.0065155 0.01299 -0.0010778 -0.0049062 0.0016619 0.0019624
-0.00014502 -0.0022552 -0.00030854 0.00033249
-0.0065382 0.012985 0.17911 0.2966 0.0053951 0.0077757 0.00042711 -0.0016992
-0.00063799 -0.00092203 -0.00021696 -0.00077956
-0.0011217 -0.0049156 0.0054541 0.0077634 0.33295 -0.11018 -0.0016349 0.0011006
-0.00033615 -0.0011705 8.5977e-05 -0.00062073
0.0016689 0.0019542 0.00042572 -0.001697 -0.0016378 0.0010973 0.2331 0.095556
-0.011589 0.0096369 0.0027624 0.00038508
-0.00016081 -0.0022701 -0.0006365 -0.00091421 -0.0003403 -0.0011652 -0.011587 0.0096658
0.18292 0.16002 -0.0090161 0.0085154
-0.00029379 0.00035752 -0.00023472 -0.00078412 7.6113e-05 -0.00061948 0.0027711 0.00038655
-0.0090548 0.0085033 0.23112 0.23168
1640000000 0.30011 0.016479 -0.00035487 0.011245 -0.0029876 -0.0026447 0.0028481 0.00082355
-0.0007624 -0.0016996 -0.00029749 0.00061059
-0.00036456 0.011248 0.2084 0.27087 0.0058089 0.0031557 -0.00085798 -0.0017013
-0.00096042 -0.00021707 -0.00052777 -0.00060442
-0.0029889 -0.0026507 0.0058504 0.0031393 0.30438 -0.15948 -0.0003881 0.0017225
-0.0012488 -0.00083114 -0.00026731 -0.00027045
0.0028541 0.0008141 -0.00086199 -0.0017005 -0.00038103 0.0017165 0.2438 0.047794
-0.0065643 0.010724 0.0027965 -0.0012637
-0.00079702 -0.0016797 -0.00097217 -0.00021954 -0.0012595 -0.00083518 -0.0065457 0.010746
0.20496 0.13432 -0.0038333 0.010224
-0.00029252 0.00063976 -0.00053024 -0.00057813 -0.00027182 -0.00027332 0.002806 -0.0012663
-0.0038825 0.010233 0.25603 0.19924
1700000000 0.29078 -0.028948 0.0025022 0.0081736 -0.0035997 0.00011867 0.0029368 -0.0015665
-0.0021083 -0.00076301 0.00069554 0.00037202
0.0024861 0.0081778 0.2255 0.23936 0.0038128 0.00037238 -0.001534 -0.00051034
-0.00060609 0.00015048 -0.00086882 -0.00043156
-0.003603 0.00012624 0.0038301 0.00035829 0.26054 -0.19895 0.00079519 0.0014051
-0.0018223 -8.6176e-05 -0.00061536 -0.00080974
0.0029423 -0.0015743 -0.0015384 -0.00049838 0.00080067 0.0014096 0.23922 0.00034382
-0.0031248 0.010695 0.0015993 -0.0025671
-0.002119 -0.00071788 -0.00061308 0.00016035 -0.0018223 -8.8924e-05 -0.003115 0.010701
0.22047 0.11328 0.0009938 0.01017
0.00070451 0.00035068 -0.00085884 -0.00043853 -0.00062807 -0.00081291 0.0015942 -0.0025735
0.00095121 0.010176 0.27055 0.16423
1760000000 0.27775 -0.076784 0.0040438 0.0049516 -0.0024314 0.0010425 0.0009268 -0.003537
-0.0015679 0.00074757 0.00038765 -0.00049942
0.0040293 0.0049625 0.25138 0.1994 0.0015568 -0.0015687 -0.0012204 0.00029832
-0.00091745 0.00078079 -0.00062337 0.00042547
-0.0024595 0.0010485 0.0015694 -0.0015696 0.2124 -0.23263 0.0012212 0.00060511
-0.0011284 0.0015708 -0.0013324 -0.00029684
0.00090581 -0.0035297 -0.0012317 0.00029247 0.001225 0.00060609 0.23106 -0.048555
0.00034814 0.0093951 -0.00031453 -0.0028753
-0.0015525 0.00074918 -0.00090456 0.00077775 -0.0011295 0.0015726 0.00036896 0.0094138
0.23441 0.077831 0.0049917 0.0071583
0.00040651 -0.00049361 -0.00060506 0.00042553 -0.0013356 -0.00030284 -0.00032565 -0.0028752
0.0049605 0.0071737 0.28268 0.12641
1820000000 0.25176 -0.11383 0.0037671 0.001797 -4.9716e-05 0.0025827 -0.0013655 -0.0028919
-0.0011475 0.0011449 -0.00012082 -0.00013954
0.0037698 0.0018121 0.26062 0.16891 -0.00052883 -0.00021284 -0.0011598 0.0010729
-2.7713e-05 0.0011282 -0.00053399 0.00051578
-3.6501e-05 0.0025754 -0.00055814 -0.00021072 0.16102 -0.24873 0.0011997 0.00026048
-0.00012722 0.0022369 -0.0014531 0.00043141
-0.0014069 -0.0028813 -0.0011827 0.0010687 0.0011934 0.00026346 0.20215 -0.094494
0.001878 0.007352 -0.0017813 -0.0018858
-0.0011474 0.0011581 -9.7292e-06 0.0011249 -0.00012776 0.0022318 0.0019037 0.0073495
0.24952 0.047747 0.0058365 0.0032143
-0.00014412 -0.00011201 -0.00053107 0.00052963 -0.0014563 0.00042779 -0.00179 -0.0018855
0.0058271 0.0032255 0.28389 0.088877
1880000000 0.21571 -0.15252 0.0013118 3.4005e-05 -0.00032207 0.0022023 -0.0030244 -0.0017308
-0.00014956 0.0018679 0.00013896 -0.00037456
0.0013211 3.4549e-05 0.26465 0.12279 -0.002588 0.0017133 -6.0215e-05 0.0016503
0.00042079 0.0010824 0.00010458 0.0010085
-0.00033388 0.0021869 -0.0025544 0.001738 0.1077 -0.25737 0.0014637 -0.00081105
0.0016199 0.001784 -0.00074309 0.0014633
-0.0030351 -0.0017274 -6.1818e-05 0.0016656 0.0014624 -0.000816 0.16369 -0.13403
0.0026778 0.0049077 -0.0026083 0.00010972
-0.00014226 0.0018696 0.00042595 0.0010648 0.0016201 0.0017736 0.0027029 0.0048961
0.251 0.015524 0.0054793 0.00080128
0.00014578 -0.00039658 0.00012272 0.0010016 -0.00074351 0.0014708 -0.0026029 0.00011713
0.0054808 0.00081401 0.28243 0.055176
1940000000 0.17638 -0.17816 -0.00082696 -0.0011809 0.0015946 0.0018367 -0.0035254 0.00074159
0.0016164 0.0010343 -0.00040966 -0.00050537
-0.00080538 -0.0011785 0.26496 0.090624 -0.0011261 0.0039604 0.0010278 0.0011517
0.0015636 0.00058967 0.00087348 0.00050362
0.0016127 0.0018158 -0.0010739 0.0039992 0.062578 -0.25102 0.00031725 -0.0017272
0.0021763 0.00038349 0.00041961 0.0017885
-0.0035122 0.00073902 0.0010391 0.0011279 0.0003189 -0.0017369 0.11294 -0.16572
0.0018181 0.0031556 -0.0016565 0.0013638
0.0016109 0.0010051 0.0015598 0.00057221 0.0021718 0.00037791 0.001838 0.0031611
0.25185 -0.023997 0.0039889 -0.0025982
-0.00043713 -0.00045096 0.00087499 0.00048411 0.00040994 0.0017708 -0.0016622 0.00137
0.0040023 -0.0025832 0.27072 0.017674
2000000000 0.12913 -0.19207 -0.0045572 0.0011717 0.00238 0.0015324 -0.0020984 0.0033699
0.0012465 6.0434e-05 -0.00047763 0.00020881
-0.0045418 0.0011548 0.24997 0.0551 -0.00088779 0.0056834 0.001519 0.00024815
0.0012992 -0.0010567 0.00062807 0.00011838
0.0023792 0.0015084 -0.00082677 0.0057078 0.017879 -0.23612 -0.00092621 -0.0010521
0.0018247 -0.001087 0.0017271 0.00098234
-0.0020817 0.0033593 0.0015216 0.00025068 -0.00093423 -0.0010537 0.059246 -0.17703
-9.0092e-05 0.0023395 -0.00034247 0.002196
0.0012451 6.8743e-05 0.0012929 -0.0010594 0.0018248 -0.001102 -7.0334e-05 0.0023424
0.2441 -0.057685 0.00034502 -0.0035585
