!Keysight Technologies,M9804A,MY58100912,A.14.10.03
!Date: Thursday, April 27, 2023 10:28:33
!Correction: S11(C  6-Port  ) 
!S12(C  6-Port  ) 
!S13(C  6-Port  ) 
!S14(C  6-Port  ) 
!S15(C  6-Port  ) 
!S16(C  6-Port  ) 
!S21(C  6-Port  ) 
!S22(C  6-Port  ) 
!S23(C  6-Port  ) 
!S24(C  6-Port  ) 
!S25(C  6-Port  ) 
!S26(C  6-Port  ) 
!S31(C  6-Port  ) 
!S32(C  6-Port  ) 
!S33(C  6-Port  ) 
!S34(C  6-Port  ) 
!S35(C  6-Port  ) 
!S36(C  6-Port  ) 
!S41(C  6-Port  ) 
!S42(C  6-Port  ) 
!S43(C  6-Port  ) 
!S44(C  6-Port  ) 
!S45(C  6-Port  ) 
!S46(C  6-Port  ) 
!S51(C  6-Port  ) 
!S52(C  6-Port  ) 
!S53(C  6-Port  ) 
!S54(C  6-Port  ) 
!S55(C  6-Port  ) 
!S56(C  6-Port  ) 
!S61(C  6-Port  ) 
!S62(C  6-Port  ) 
!S63(C  6-Port  ) 
!S64(C  6-Port  ) 
!S65(C  6-Port  ) 
!S66(C  6-Port  ) 
!S6P File: Measurement: :
# Hz S  RI   R 50
500000000 -0.33959 -0.022511 -0.010581 -0.0034471 -0.0080579 0.012704 -0.0035747 0.012343
0.011695 0.0040512 -0.003631 0.0084321
-0.010568 -0.0034378 -0.41996 -0.041032 0.0063752 -0.011674 0.0015875 0.012605
0.0075201 0.0025414 0.001602 0.014119
-0.0080523 0.012715 0.0063572 -0.011694 -0.26443 0.21987 0.0069082 0.0038032
-0.00093845 0.0078872 0.0018029 0.012035
-0.003572 0.012343 0.0015987 0.01262 0.0069153 0.0038059 -0.33203 0.057912
-0.020357 -0.0065733 0.015753 0.025024
0.011728 0.0040205 0.0075309 0.0025238 -0.00092924 0.0078853 -0.020369 -0.0065543
-0.23317 -0.17179 -0.025749 0.0041111
-0.0036253 0.008404 0.0015929 0.014101 0.0017927 0.012039 0.015718 0.025039
-0.025776 0.0040793 -0.28177 -0.090821
560000000 -0.31453 0.13468 -0.025807 -0.060982 0.00062002 0.012086 0.0055617 0.010236
0.0094186 0.0048271 0.0099265 0.0074908
-0.025742 -0.060904 -0.37538 0.116 -0.042205 -0.035699 0.013482 0.0039024
-0.012017 -0.00396 0.0037731 -0.0011578
0.00063045 0.012067 -0.042323 -0.035636 -0.18095 0.266 -0.00037424 -0.004437
0.018676 0.0039073 0.0066619 -0.0063335
0.0055915 0.010224 0.013503 0.0038837 -0.00036541 -0.0044458 -0.30611 0.14596
0.0005051 -0.023671 0.0033917 -0.019102
0.0094522 0.0047773 -0.012054 -0.0039232 0.018681 0.0038895 0.00046461 -0.023665
-0.28817 0.00119 0.0049528 -0.047222
0.0099356 0.0074551 0.0037348 -0.0012069 0.0066846 -0.0063276 0.0033837 -0.019113
0.0049792 -0.047242 -0.33071 0.049794
620000000 -0.27225 0.11942 -0.023359 0.0076726 0.0038969 0.008147 0.007529 -0.0050026
0.010989 -0.001544 0.00035807 -0.0023326
-0.023339 0.0076647 -0.40169 0.069475 -0.019341 0.00071632 -0.0011379 -0.0019302
0.010653 -0.006544 0.0013562 -0.0025006
0.0039099 0.0081333 -0.019361 0.00076347 -0.15058 0.27476 -0.00078067 -0.0049396
-0.003605 -0.0025052 0.0081158 -0.0030981
0.0075209 -0.0050211 -0.0011557 -0.001933 -0.00077888 -0.0049365 -0.26394 0.15654
-0.040788 -0.017103 0.012507 0.024059
0.010998 -0.0015783 0.010659 -0.0065747 -0.0035979 -0.002521 -0.040777 -0.017086
-0.20914 -0.038011 -0.039756 0.015453
0.00040458 -0.0023721 0.0013778 -0.0025196 0.0081176 -0.0031275 0.012505 0.024054
-0.039762 0.015432 -0.25539 0.019754
680000000 -0.22885 0.20304 -0.027747 -0.012269 0.0054353 0.0048206 0.0013618 -0.0070942
-0.0028498 -0.010736 0.0042715 -0.00705
-0.027725 -0.012272 -0.38542 0.16518 -0.032401 0.00029569 -0.0013099 -0.00038336
-0.002426 -0.0089352 -0.0016072 -0.0018269
0.0054422 0.0048005 -0.032429 0.00037714 -0.099341 0.29363 -0.00085313 -0.00035686
-0.0016815 0.000161 -0.0034036 -0.0085559
0.0013491 -0.007091 -0.0013108 -0.00038358 -0.0008479 -0.00036744 -0.21772 0.20619
-0.025949 -0.0051801 -0.0091036 -0.0087421
-0.0028843 -0.010735 -0.0024715 -0.0089372 -0.0016923 0.0001627 -0.025962 -0.0051402
-0.25268 0.061937 -0.0070872 -0.006289
0.0042486 -0.0070554 -0.001636 -0.0018257 -0.0034005 -0.0085575 -0.0090524 -0.0087341
-0.0070912 -0.0062602 -0.25509 0.11741
740000000 -0.1848 0.19724 -0.037012 0.026849 0.012387 -0.0055813 -0.00085947 -0.004192
-0.0049348 -0.0030117 -0.0059321 0.0031636
-0.037005 0.0268 -0.33313 0.18372 -0.033534 0.035164 -0.00095924 -0.0062406
-0.012183 0.0075021 -0.0020427 -0.0054129
0.012376 -0.0056006 -0.033475 0.035305 -0.065144 0.2917 -0.0018528 0.0031379
-0.0027991 -0.0044815 -0.001951 0.0010766
-0.00086798 -0.0041848 -0.00096943 -0.0062543 -0.0018598 0.0031397 -0.19994 0.21392
-0.042941 -0.0029747 0.022696 0.012928
-0.0049661 -0.0030152 -0.012193 0.0075653 -0.0028079 -0.0044752 -0.042965 -0.0029234
-0.15816 0.085524 -0.039095 0.0039895
-0.0059486 0.0031622 -0.0020577 -0.005397 -0.0019522 0.0010731 0.022701 0.012886
-0.039071 0.0039611 -0.24401 0.12567
800000000 -0.15176 0.23558 -0.021529 0.017563 0.00476 -0.010401 -0.0045951 -0.0016283
-0.0034931 0.0028817 0.0037055 0.00071186
-0.021528 0.017533 -0.33485 0.25318 -0.0069035 0.033892 -0.0024517 0.0022798
-0.00070676 0.0034407 0.0010117 0.0052383
0.0047439 -0.010413 -0.006811 0.033943 -0.02374 0.31442 0.00083949 0.0017106
0.00038145 0.0037488 -0.0016791 0.0010158
-0.0046072 -0.0016206 -0.0024328 0.0022956 0.00083448 0.0017226 -0.17032 0.24094
-0.027199 0.016742 0.01298 -0.0098713
-0.0034804 0.0028979 -0.00070279 0.0034584 0.00038782 0.0037442 -0.027212 0.016787
-0.19713 0.11092 -0.016104 0.019319
0.0036944 0.00068917 0.0010384 0.0052453 -0.0016744 0.0010166 0.012988 -0.0098748
-0.016143 0.019309 -0.23286 0.17317
860000000 -0.11608 0.25519 -0.015758 0.030849 -0.0036762 -0.009674 -0.0019913 0.0010814
0.0045465 0.0046669 -0.0029074 -0.0027356
-0.015757 0.030817 -0.28658 0.29429 0.0091905 0.033419 0.00022656 0.0021669
0.0044034 0.00014422 0.0031618 0.00024711
-0.0037022 -0.0096674 0.0093008 0.033409 0.025383 0.3217 -0.00039118 -0.0001164
0.0026072 -0.0013111 0.0017654 0.0041035
-0.0020003 0.0010878 0.00023066 0.0021793 -0.00039196 -0.00011735 -0.13286 0.25137
-0.015186 0.020713 -0.0053825 -0.0091433
0.0045584 0.0046506 0.0044045 0.00011292 0.0026023 -0.0013157 -0.015161 0.020764
-0.14346 0.15754 -0.022382 0.016429
-0.0029033 -0.002743 0.003154 0.00021666 0.0017603 0.0040921 -0.0053765 -0.0091405
-0.022376 0.016406 -0.18252 0.214
920000000 -0.090397 0.27646 0.0064284 0.036826 -0.009398 -0.0040516 -0.0013625 0.0017319
0.0015217 0.0013229 0.0024368 -0.0017848
0.0064078 0.036787 -0.25704 0.31452 0.028412 0.020499 0.0017349 0.0008381
0.0071709 -0.000881 0.0034577 -0.0031196
-0.0093991 -0.0040252 0.0285 0.020423 0.072173 0.32131 0.0019332 -0.00022543
0.0016654 -0.00072793 0.00074619 -0.0012128
-0.0013642 0.0017342 0.0017525 0.00084694 0.0019217 -0.00022693 -0.10758 0.26667
-0.0074227 0.031132 0.0027011 -0.0065459
0.0015237 0.0013198 0.0071703 -0.00091684 0.0016542 -0.00073353 -0.0073721 0.031147
-0.1315 0.16187 -0.00034748 0.025859
0.0024192 -0.0017943 0.0034233 -0.003125 0.00073564 -0.0012295 0.0026989 -0.0065533
-0.00037147 0.025839 -0.18435 0.22852
980000000 -0.043268 0.29466 0.018479 0.028577 -0.0085977 0.0047252 0.0019926 0.0028674
0.0038832 -0.0018288 -0.0031254 -0.0019823
0.018466 0.028555 -0.20495 0.34769 0.032718 0.0033933 0.0020661 -0.00036766
0.0014937 -0.006154 -0.00050596 -0.0022893
-0.0085912 0.0047546 0.032763 0.0032732 0.119 0.31424 0.00048528 -0.0013444
0.00010121 -0.0022871 0.0013604 -0.0002503
0.0020018 0.0028621 0.0020753 -0.0003539 0.00048129 -0.001342 -0.068561 0.27711
0.010906 0.029118 -0.0084294 -0.006363
0.0038828 -0.0018422 0.0014675 -0.0061833 9.5027e-05 -0.0022941 0.010969 0.02912
-0.099617 0.1882 0.006563 0.018898
-0.0031436 -0.0019722 -0.00053969 -0.0022897 0.0013644 -0.00025924 -0.0084272 -0.0063359
0.0065304 0.018883 -0.1396 0.26815
1040000000 -0.00034134 0.30169 0.033031 0.01605 -0.0012111 0.0067237 0.0023341 0.00068884
0.00010343 -0.0031754 -0.00080483 -0.0013446
0.032992 0.016032 -0.16891 0.36045 0.028091 -0.015781 0.0013332 -0.0017519
-0.0023822 -0.0025571 -0.0014836 -0.0027613
-0.001185 0.0067427 0.028039 -0.015909 0.16604 0.29917 -0.00064262 -0.0014314
-0.0016764 -0.00092025 -0.00048689 -0.0010967
0.0023331 0.00066468 0.0013452 -0.0017441 -0.0006356 -0.0014308 -0.039534 0.28585
0.021648 0.016006 -0.0026343 0.0010155
9.4852e-05 -0.0031578 -0.0024147 -0.0025441 -0.0016825 -0.00091965 0.021695 0.015973
-0.066594 0.19346 0.014088 0.015951
-0.00079236 -0.0013542 -0.0015072 -0.0027387 -0.00048286 -0.001093 -0.002628 0.0010279
0.014063 0.01596 -0.11542 0.28756
1100000000 0.044636 0.30831 0.034695 -0.0057396 0.0027712 0.0036694 0.0021131 -0.0010657
-0.0018568 -0.0029463 -0.0037789 0.00037734
0.034662 -0.0057214 -0.12593 0.37724 0.013745 -0.027897 -0.00017771 -0.0018208
-0.0033805 -0.00069028 -0.0034449 -0.00029491
0.0027865 0.0036596 0.013648 -0.027983 0.21248 0.2774 -0.0018433 0.00021729
-0.0018194 0.00064473 -0.00093636 -0.00028282
0.0021103 -0.0010772 -0.00017294 -0.0018267 -0.0018449 0.00022354 0.0013088 0.2891
0.025738 0.0022889 -0.0025973 -1.5858e-05
-0.0018663 -0.0029218 -0.0033875 -0.00067249 -0.0018308 0.00063547 0.025752 0.0022547
-0.048862 0.20558 0.018809 0.006179
-0.003769 0.00040242 -0.003445 -0.00026597 -0.00094196 -0.00027731 -0.0025897 -1.6185e-05
0.018802 0.0061779 -0.069518 0.31258
1160000000 0.0961 0.30237 0.022299 -0.021619 0.0024143 -0.0003796 -0.00012384 -0.0020408
-0.0039226 -0.00058853 -0.00080429 0.0038499
0.022295 -0.021606 -0.080905 0.38142 -0.0050153 -0.028369 -0.0016542 -0.00153
-0.0025732 0.0025748 -0.0013428 0.0016865
0.0024101 -0.00037883 -0.0051448 -0.028384 0.25581 0.24488 -0.00073303 0.0018507
-0.00045368 0.0019973 -0.00086163 0.00011798
-0.00014474 -0.0020526 -0.0016581 -0.0015157 -0.00073394 0.0018347 0.041528 0.28434
0.020738 -0.013367 -0.0032589 0.0044675
-0.0039361 -0.00056457 -0.0025662 0.0025815 -0.00046683 0.0019942 0.02073 -0.013388
-0.015235 0.21276 0.016991 -0.0015565
-0.00077774 0.0038323 -0.0013123 0.0016889 -0.00086957 0.00012922 -0.0032675 0.0044724
0.016981 -0.0015548 -0.021708 0.3139
1220000000 0.14049 0.28937 0.0085323 -0.029753 -0.0015663 -0.00037567 0.00013087 -0.00088266
-0.0023977 0.0022541 0.0012755 0.0018459
0.0085495 -0.029724 -0.036657 0.39214 -0.017448 -0.019933 -0.0024216 0.00052956
9.7538e-05 0.0030148 -0.00058345 0.0019739
-0.001566 -0.00036863 -0.017543 -0.019889 0.29395 0.20374 0.00083979 0.0017752
0.00072735 0.001226 0.00037504 0.00053317
0.00013003 -0.00088861 -0.0024178 0.00054553 0.00084831 0.0017763 0.081332 0.27324
0.0091822 -0.019542 0.001338 0.0014854
-0.0023933 0.0022601 0.00011 0.0030095 0.00072935 0.001219 0.0091553 -0.01955
0.0079685 0.21952 0.011898 -0.013691
0.001276 0.0018262 -0.00057763 0.0019774 0.00037003 0.00053224 0.0013483 0.0014898
0.011891 -0.013678 0.011015 0.32625
1280000000 0.18954 0.26656 -0.0093286 -0.027317 -0.0015492 0.0028523 -0.00095906 -0.0019524
-0.00074641 0.0029729 0.0023862 0.00087275
-0.0092955 -0.027293 0.0095242 0.3829 -0.023564 -0.0073863 -0.00091357 0.0014435
0.0018008 0.001714 0.0007533 0.0018289
-0.0015339 0.0028684 -0.023628 -0.0072878 0.32302 0.15919 0.0016704 2.1866e-05
0.0011687 0.00021048 0.00025104 0.00018696
-0.00096622 -0.0019473 -0.00090687 0.0014444 0.0016716 2.492e-05 0.1175 0.25498
-0.0011964 -0.020846 -0.00069017 0.00053379
-0.00072637 0.0029771 0.0018099 0.0017035 0.0011668 0.00021255 -0.0012321 -0.020846
0.044325 0.22214 0.0012995 -0.015293
0.0023794 0.00086679 0.00075941 0.0018191 0.00024964 0.00018787 -0.00069521 0.00053839
0.0012975 -0.015278 0.057214 0.32532
1340000000 0.22638 0.23116 -0.018294 -0.017257 0.001376 0.0042723 -0.0016445 -0.00091827
0.0014492 0.0025802 0.0015089 -0.0014739
-0.018259 -0.017266 0.049319 0.37306 -0.020835 0.0050592 -8.2554e-05 0.0020143
0.0020316 0.00065616 0.0013596 0.00063877
0.0013891 0.0042664 -0.020838 0.0051552 0.34406 0.11047 0.0012889 -0.0010479
0.00070974 -0.00058395 7.943e-05 0.00024845
-0.0016528 -0.0009127 -7.1923e-05 0.0020197 0.0012917 -0.0010499 0.14918 0.23223
-0.010943 -0.017023 0.00051026 0.0012553
0.0014668 0.0025894 0.0020333 0.00064981 0.00072014 -0.0005826 -0.010968 -0.01701
0.074322 0.21554 -0.0053007 -0.013152
0.001491 -0.0014873 0.0013554 0.00064016 8.0834e-05 0.00025111 0.00052026 0.0012557
-0.0053103 -0.013139 0.096411 0.31717
1400000000 0.25817 0.19195 -0.02296 -0.0057726 0.0053466 0.0027172 -0.0021301 0.00051168
0.0022955 0.00086673 0.00011715 -0.0013879
-0.022931 -0.0057913 0.085743 0.35926 -0.013853 0.012648 0.0013586 0.0013147
0.0011877 -0.0009159 0.0011199 3.3036e-05
0.0053548 0.0027029 -0.013812 0.01273 0.35578 0.057041 4.6153e-05 -0.0019533
-1.7249e-05 -0.00042486 0.00031859 0.00022404
-0.0021324 0.00052788 0.0013683 0.0013085 3.9365e-05 -0.0019463 0.17659 0.20186
-0.016769 -0.0094002 -0.00046763 0.00062893
0.0023001 0.00085392 0.001181 -0.00093142 -1.4277e-05 -0.00042728 -0.016797 -0.0093716
0.10601 0.20956 -0.011313 -0.0077056
0.00010959 -0.0013882 0.0011166 2.4881e-05 0.00031801 0.0002147 -0.00046863 0.00062401
-0.01131 -0.0077035 0.13908 0.30354
1460000000 0.2802 0.14725 -0.019377 0.0057599 0.005495 -0.0021579 -0.0016224 0.0016614
0.0020249 -0.00057786 -0.00035776 -0.00083284
-0.019357 0.005742 0.11989 0.33676 -0.0053367 0.015009 0.001729 0.0001323
0.0007161 -0.0013678 0.0010754 -0.0005685
0.0054854 -0.0021751 -0.0052702 0.015036 0.36109 0.0029459 -0.0015642 -0.001348
9.5631e-05 -0.0001998 0.00059365 -0.00031629
-0.001624 0.0016609 0.0017291 0.00012773 -0.0015575 -0.0013532 0.20109 0.17185
-0.017539 -0.0016993 -0.00021437 0.0024082
0.0020332 -0.00059432 0.00071118 -0.0013741 0.00010394 -0.00020076 -0.017554 -0.0016699
0.13483 0.19387 -0.012239 -0.0016339
-0.00036689 -0.00084648 0.0010654 -0.00056589 0.00058442 -0.00032132 -0.00021673 0.0023989
-0.012222 -0.0016197 0.17167 0.28106
1520000000 0.29104 0.10421 -0.013343 0.010723 0.002958 -0.004285 0.0001247 0.0026387
0.0019815 -0.0017128 -0.0010936 -6.9777e-05
-0.013345 0.01071 0.15255 0.32093 0.0018968 0.012555 0.0016656 -0.00088955
-9.184e-05 -0.0010958 0.00023583 -0.00094034
0.0029408 -0.0042945 0.0019588 0.01256 0.35361 -0.05357 -0.0014789 -0.0002554
0.00043116 -0.00089634 2.6193e-05 -0.00011894
0.0001421 0.0026333 0.0016668 -0.00090073 -0.0014755 -0.00025046 0.22151 0.13337
-0.015895 0.0046704 0.0021066 0.0019879
0.0019724 -0.0017265 -9.8669e-05 -0.0011068 0.00042987 -0.00090378 -0.015894 0.0047081
0.16171 0.17783 -0.011633 0.002928
-0.0010919 -5.6631e-05 0.00022818 -0.00093664 2.4034e-05 -0.0001214 0.0021058 0.001984
-0.011624 0.0029192 0.20346 0.25797
1580000000 0.29893 0.058152 -0.0068404 0.013138 -0.0011279 -0.0047384 0.0015551 0.001958
-0.00015895 -0.0021699 -0.00025193 0.00029894
-0.0068497 0.01312 0.17906 0.29617 0.005239 0.0077412 0.00044157 -0.0016837
-0.00060469 -0.00097062 -0.00023505 -0.00075849
-0.0011515 -0.0047369 0.0052798 0.0077154 0.33308 -0.11031 -0.0016187 0.0010182
-0.00034733 -0.0011857 0.00010857 -0.00057115
0.0015693 0.0019535 0.0004261 -0.001689 -0.0016245 0.001013 0.23313 0.095102
-0.011582 0.0095786 0.0025884 0.00037266
-0.00017863 -0.0021688 -0.00062096 -0.00096735 -0.00034199 -0.0011944 -0.01157 0.0096121
0.18487 0.15887 -0.0088891 0.0081599
-0.0002508 0.00029752 -0.00024289 -0.00076125 9.7348e-05 -0.00057037 0.0025845 0.00037302
-0.0088867 0.0081628 0.2334 0.2305
1640000000 0.2999 0.016258 -0.00051518 0.011515 -0.0029076 -0.0024472 0.0027977 0.00088084
-0.00077486 -0.001589 -0.00028045 0.00065724
-0.00051926 0.011502 0.20826 0.27052 0.0056969 0.0032191 -0.00083196 -0.0016864
-0.00099152 -0.00022819 -0.00053766 -0.00056115
-0.0029255 -0.0024248 0.0057239 0.0031872 0.30463 -0.15965 -0.00040229 0.00169
-0.0012128 -0.00075563 -0.00022621 -0.0002663
0.0028052 0.00086929 -0.0008444 -0.0016838 -0.00040144 0.0016864 0.24382 0.047491
-0.0065866 0.010679 0.0026599 -0.0011532
-0.00079011 -0.0015838 -0.0010078 -0.00022196 -0.00122 -0.00075784 -0.0065659 0.010709
0.20649 0.13297 -0.0038883 0.0098407
-0.0002767 0.00066576 -0.00054317 -0.00055947 -0.00024003 -0.00026509 0.0026586 -0.0011599
-0.00389 0.0098425 0.25823 0.19775
1700000000 0.29078 -0.028907 0.0024557 0.0084758 -0.0034535 0.00020484 0.0029634 -0.0014589
-0.0020403 -0.00066121 0.00065931 0.00035798
0.0024495 0.0084623 0.22527 0.23913 0.0036972 0.00053482 -0.0015116 -0.00048105
-0.00063489 0.00018899 -0.00082378 -0.00038544
-0.0034544 0.000226 0.0037067 0.00050968 0.26055 -0.19934 0.00079571 0.0014317
-0.0017457 -6.3282e-05 -0.00058589 -0.0007706
0.0029484 -0.0014637 -0.0015153 -0.00047744 0.0007909 0.0014333 0.23938 0.0001792
-0.0031489 0.010645 0.0015672 -0.00244
-0.0020522 -0.0006474 -0.00063902 0.00019245 -0.0017445 -6.815e-05 -0.0031261 0.010657
0.2216 0.1118 0.00080583 0.0098406
0.00066413 0.00034464 -0.00082754 -0.00037556 -0.0005862 -0.00076791 0.0015669 -0.0024434
0.00080268 0.0098345 0.27244 0.16257
1760000000 0.27778 -0.076875 0.0041421 0.00519 -0.0022449 0.00099397 0.00094657 -0.003507
-0.0014591 0.00073495 0.00043256 -0.00040327
0.0041359 0.005191 0.25111 0.19929 0.0014987 -0.001337 -0.0012165 0.000296
-0.00089104 0.00083576 -0.00057657 0.00046868
-0.0022321 0.0010097 0.0014929 -0.0013483 0.21221 -0.2328 0.0012561 0.00067008
-0.0010596 0.0016055 -0.0013266 -0.00029073
0.00093346 -0.0035075 -0.0012123 0.00030121 0.0012587 0.00066661 0.23113 -0.048724
0.00025185 0.0094081 -0.00028447 -0.0027382
-0.0014561 0.0007412 -0.00088783 0.00084798 -0.0010597 0.0016094 0.0002697 0.009414
0.23515 0.076355 0.0046046 0.0069887
0.00042796 -0.00040968 -0.00057428 0.00047811 -0.0013324 -0.00028942 -0.00029514 -0.0027368
0.0046078 0.006993 0.28413 0.12447
1820000000 0.25178 -0.11385 0.0039349 0.0019667 6.3305e-05 0.0024991 -0.0012889 -0.0028818
-0.0010616 0.0010959 -1.6346e-05 -9.3001e-05
0.0039259 0.0019744 0.26033 0.16893 -0.00041735 -2.4431e-05 -0.0011264 0.0010121
5.1715e-05 0.0011516 -0.00049011 0.00051303
7.7116e-05 0.0024931 -0.00041686 -2.118e-05 0.16098 -0.24868 0.0013007 0.00011813
-3.5042e-06 0.0022423 -0.0013329 0.00046238
-0.0013029 -0.0028782 -0.00112 0.0010211 0.0012977 0.00012582 0.20233 -0.094657
0.0017809 0.0073288 -0.0016935 -0.0017434
-0.0010511 0.0011123 5.3437e-05 0.0011491 -9.1965e-06 0.0022417 0.0017925 0.0073215
0.25011 0.04635 0.0054858 0.0032467
-2.4937e-05 -9.9724e-05 -0.00048289 0.00052475 -0.0013318 0.00045882 -0.001701 -0.0017351
0.0054854 0.0032406 0.28506 0.08673
1880000000 0.21589 -0.15268 0.0015304 0.00011257 -0.0002363 0.0020122 -0.0030241 -0.001825
-0.0001527 0.0017518 0.00021867 -0.00049865
0.0015266 0.00011619 0.26443 0.12293 -0.0023811 0.0018044 -6.0271e-05 0.0016273
0.00050981 0.0010163 0.00016778 0.00093602
-0.00022723 0.0020232 -0.0023667 0.001813 0.10794 -0.25732 0.0013892 -0.00091009
0.0016692 0.0016961 -0.00076456 0.001374
-0.003031 -0.0018086 -5.544e-05 0.0016206 0.0013845 -0.00091034 0.1639 -0.13428
0.0026001 0.0049377 -0.0024453 0.00014814
-0.00014054 0.0017502 0.00051622 0.0010109 0.0016829 0.0016943 0.0026062 0.0049402
0.25143 0.014185 0.0051483 0.00086334
0.00019959 -0.00048707 0.00017165 0.00093605 -0.00076268 0.0013608 -0.002436 0.00014953
0.0051328 0.00085868 0.28332 0.052948
1940000000 0.17648 -0.17842 -0.00061108 -0.0011416 0.0014134 0.0017958 -0.0035307 0.00073221
0.0015538 0.00095669 -0.0005368 -0.00064183
-0.00060858 -0.0011341 0.26484 0.090817 -0.00098177 0.0039103 0.00098719 0.0011279
0.0015683 0.0004683 0.00079774 0.00037641
0.0014265 0.0017883 -0.00095295 0.0039169 0.062814 -0.25109 0.00017052 -0.001708
0.002169 0.00028334 0.00041231 0.0016242
-0.0035253 0.00075918 0.001002 0.0011164 0.00016576 -0.0017082 0.11319 -0.16586
0.0017471 0.0032546 -0.0015894 0.0011805
0.0015496 0.00094687 0.0015634 0.00044713 0.0021743 0.00027902 0.0017474 0.0032402
0.25208 -0.025305 0.0037728 -0.0023388
-0.00054432 -0.00063825 0.00079326 0.00036669 0.00040884 0.0016049 -0.0015751 0.001191
0.0037653 -0.0023399 0.27147 0.015406
2000000000 0.12938 -0.19238 -0.0042098 0.0011037 0.0022987 0.0015057 -0.0021113 0.00341
0.0011761 2.209e-05 -0.0005205 0.00025931
-0.0041994 0.0010948 0.24997 0.05532 -0.00086611 0.0054892 0.0014766 0.00027722
0.0011806 -0.0011133 0.00055575 5.4302e-05
0.0023027 0.0015025 -0.00082932 0.0055034 0.018047 -0.23633 -0.00093394 -0.00098201
0.0017588 -0.0010397 0.0015872 0.0010234
-0.0021017 0.0034325 0.0014788 0.00026892 -0.00093354 -0.00098365 0.059658 -0.17733
-9.4481e-05 0.0024832 -0.00034303 0.002193
0.0011688 -3.6539e-06 0.0011713 -0.0011294 0.0017564 -0.0010532 -8.5517e-05 0.0024893
0.24418 -0.058986 0.00011976 -0.0033274
