!Keysight Technologies,M9804A,MY58100912,A.14.10.03
!Date: Thursday, April 27, 2023 10:28:33
!Correction: S11(C  6-Port  ) 
!S12(C  6-Port  ) 
!S13(C  6-Port  ) 
!S14(C  6-Port  ) 
!S15(C  6-Port  ) 
!S16(C  6-Port  ) 
!S21(C  6-Port  ) 
!S22(C  6-Port  ) 
!S23(C  6-Port  ) 
!S24(C  6-Port  ) 
!S25(C  6-Port  ) 
!S26(C  6-Port  ) 
!S31(C  6-Port  ) 
!S32(C  6-Port  ) 
!S33(C  6-Port  ) 
!S34(C  6-Port  ) 
!S35(C  6-Port  ) 
!S36(C  6-Port  ) 
!S41(C  6-Port  ) 
!S42(C  6-Port  ) 
!S43(C  6-Port  ) 
!S44(C  6-Port  ) 
!S45(C  6-Port  ) 
!S46(C  6-Port  ) 
!S51(C  6-Port  ) 
!S52(C  6-Port  ) 
!S53(C  6-Port  ) 
!S54(C  6-Port  ) 
!S55(C  6-Port  ) 
!S56(C  6-Port  ) 
!S61(C  6-Port  ) 
!S62(C  6-Port  ) 
!S63(C  6-Port  ) 
!S64(C  6-Port  ) 
!S65(C  6-Port  ) 
!S66(C  6-Port  ) 
!S6P File: Measurement: :
# Hz S  RI   R 50
500000000 -0.34069 -0.02409 -0.011003 -0.0033192 -0.0083875 0.013063 -0.0038611 0.012243
0.011894 0.0042779 -0.0036263 0.0084477
-0.011396 -0.0032601 -0.42061 -0.041203 0.006218 -0.01093 0.0015898 0.012482
0.0074355 0.0022051 0.0017944 0.013619
-0.008193 0.013127 0.0062687 -0.011043 -0.26517 0.21975 0.0067433 0.0039783
-0.0014612 0.0076063 0.0015033 0.012074
-0.0034945 0.012179 0.0014632 0.012649 0.0067304 0.0040878 -0.33355 0.056096
-0.019891 -0.0065965 0.01426 0.02422
0.011574 0.0036255 0.0075033 0.0021964 -0.00144 0.0074988 -0.019882 -0.0065621
-0.23315 -0.17302 -0.025235 0.0049131
-0.0027076 0.0080686 0.0015265 0.013654 0.00129 0.012189 0.014291 0.024191
-0.025251 0.0049098 -0.28241 -0.097442
560000000 -0.31504 0.13327 -0.026584 -0.061199 0.00059695 0.01193 0.0046305 0.010377
0.0090762 0.0045523 0.0099178 0.0074867
-0.026872 -0.060731 -0.37411 0.11531 -0.042563 -0.03398 0.013611 0.0041703
-0.012722 -0.0029532 0.0029581 -0.00089784
0.00063037 0.011889 -0.042538 -0.033862 -0.18199 0.26542 -0.00051712 -0.0041233
0.018512 0.0040985 0.0062694 -0.0065051
0.0053418 0.010666 0.013421 0.003914 -0.00022709 -0.0040465 -0.30623 0.14522
0.00059712 -0.023814 0.0031566 -0.01959
0.0089677 0.0041922 -0.012816 -0.0029682 0.018512 0.0039849 0.00048971 -0.023786
-0.28894 -0.00067001 0.0047222 -0.047929
0.010108 0.0076473 0.0027701 -0.00086077 0.0063016 -0.0064873 0.0031208 -0.019529
0.0047512 -0.047948 -0.33035 0.045076
620000000 -0.27323 0.11828 -0.023746 0.0079101 0.0041126 0.008235 0.0078356 -0.005062
0.011125 -0.0012163 0.0010695 -0.0023908
-0.023527 0.0078278 -0.4022 0.069199 -0.019215 0.00091172 -0.0012658 -0.0017347
0.011116 -0.0066117 0.0013973 -0.0027079
0.0039761 0.0080432 -0.019123 0.00087948 -0.15085 0.27517 -0.0011611 -0.0047815
-0.0027365 -0.0026827 0.007978 -0.003369
0.0075841 -0.0049677 -0.0012048 -0.0016787 -0.0011179 -0.0048472 -0.26415 0.15599
-0.041526 -0.016627 0.012388 0.024891
0.011447 -0.0015124 0.010937 -0.0066648 -0.0028086 -0.0027033 -0.041499 -0.016531
-0.20875 -0.040414 -0.040678 0.015182
0.0019695 -0.0024616 0.0013377 -0.00263 0.0077813 -0.0033161 0.012393 0.024924
-0.040732 0.015168 -0.25627 0.014683
680000000 -0.22964 0.20313 -0.02746 -0.012032 0.0056538 0.004598 0.0014252 -0.0069174
-0.0027676 -0.010936 0.0044231 -0.0067526
-0.027448 -0.012077 -0.38557 0.16529 -0.032022 0.0002109 -0.0014184 -0.00065996
-0.0020342 -0.0091652 -0.0016129 -0.0022906
0.0056151 0.0045491 -0.032018 0.00033641 -0.098936 0.29379 -0.00089316 -0.00068378
-0.0016177 -0.00011921 -0.0035193 -0.0086879
0.0015433 -0.0069451 -0.0014054 -0.00062613 -0.00091464 -0.0006367 -0.21796 0.20625
-0.02614 -0.0046055 -0.0089426 -0.0085492
-0.0027383 -0.011043 -0.0020752 -0.0092238 -0.0016461 -0.00017574 -0.026115 -0.0045212
-0.25409 0.06044 -0.0076173 -0.0068994
0.0043285 -0.0068367 -0.0017002 -0.0023456 -0.0035168 -0.0087896 -0.0090084 -0.0086213
-0.007625 -0.0068844 -0.25622 0.11508
740000000 -0.18482 0.1971 -0.036379 0.027171 0.012406 -0.0057391 -0.00078314 -0.0043504
-0.0043045 -0.0029463 -0.0062343 0.0030158
-0.036438 0.027107 -0.33287 0.18414 -0.033075 0.035116 -0.00082319 -0.0063963
-0.011763 0.0075929 -0.0016107 -0.0057411
0.012515 -0.0058144 -0.033052 0.035163 -0.064698 0.29152 -0.0019602 0.0031654
-0.0030581 -0.0047669 -0.0016695 0.0011395
-0.00073029 -0.0043346 -0.00079287 -0.0064049 -0.0019646 0.0031948 -0.20038 0.21398
-0.042622 -0.0032279 0.022934 0.013662
-0.0047455 -0.0031111 -0.011607 0.0075418 -0.00295 -0.0046778 -0.042607 -0.0031947
-0.15747 0.082212 -0.040124 0.0040894
-0.0061327 0.0029848 -0.0019978 -0.0057437 -0.001723 0.0010505 0.022964 0.013583
-0.040109 0.0040534 -0.24548 0.12332
800000000 -0.15166 0.23573 -0.021108 0.017446 0.0047757 -0.010574 -0.0045229 -0.0016705
-0.0036428 0.0024129 0.003405 0.0005021
-0.021187 0.017511 -0.33459 0.25293 -0.0066929 0.033573 -0.0025195 0.002234
-0.00066864 0.0029835 0.00099376 0.0050694
0.0047166 -0.010488 -0.0066498 0.033661 -0.023394 0.31374 0.00072874 0.0017208
0.00037298 0.0034851 -0.0016816 0.00093696
-0.0044722 -0.0016787 -0.0024756 0.0022254 0.00073095 0.0017231 -0.17059 0.24072
-0.026806 0.016712 0.013064 -0.01011
-0.0037352 0.0025045 -0.00075569 0.0030214 0.00032106 0.0034864 -0.026808 0.016747
-0.1977 0.1095 -0.015829 0.019072
0.0034083 0.00032441 0.0010174 0.0050488 -0.0017005 0.00097101 0.01307 -0.010092
-0.015825 0.019054 -0.2346 0.17002
860000000 -0.11616 0.25493 -0.015623 0.030431 -0.0035469 -0.0097249 -0.0020175 0.00077129
0.0042409 0.0042634 -0.0030793 -0.0025516
-0.015577 0.030512 -0.28651 0.29404 0.0090622 0.033262 7.7814e-05 0.0021361
0.004057 0.00011098 0.0029765 0.00037962
-0.0036401 -0.0097113 0.0092132 0.033263 0.025245 0.32095 -0.00048106 -0.0001134
0.0025984 -0.0014373 0.0017339 0.0040013
-0.0020644 0.00074995 4.1082e-05 0.0020649 -0.00047515 -0.00010291 -0.13271 0.25065
-0.014801 0.020225 -0.0056256 -0.0091588
0.004266 0.0043005 0.003932 4.5981e-05 0.0026175 -0.0014885 -0.014801 0.020227
-0.14433 0.15599 -0.021771 0.016598
-0.0029017 -0.0025225 0.0030835 0.00037965 0.0017343 0.0040198 -0.0056392 -0.0091061
-0.021766 0.016581 -0.18378 0.21116
920000000 -0.090379 0.2757 0.0064789 0.036493 -0.0094635 -0.0042576 -0.0015821 0.001531
0.0013629 0.0015281 0.0026631 -0.0019281
0.0064704 0.036491 -0.25702 0.31384 0.028307 0.020354 0.0017936 0.00087838
0.0070423 -0.00065414 0.0035363 -0.0030528
-0.0095248 -0.004157 0.028408 0.020303 0.071833 0.32077 0.0019479 -0.0001476
0.0015408 -0.00056206 0.00064169 -0.0013454
-0.0016029 0.0015003 0.0017511 0.00088812 0.0019703 -0.0001527 -0.10767 0.26612
-0.0074981 0.031076 0.0027187 -0.006831
0.0014086 0.0015389 0.0070453 -0.00067813 0.0015548 -0.00059354 -0.0074165 0.031104
-0.13213 0.16108 -0.00015374 0.02616
0.0026053 -0.001855 0.0035554 -0.0030412 0.0005968 -0.0013049 0.0027161 -0.0068527
-0.00015931 0.026147 -0.18642 0.2257
980000000 -0.043506 0.29416 0.018347 0.028285 -0.0086826 0.0045654 0.001837 0.0029926
0.0038367 -0.001568 -0.0031122 -0.0020056
0.018253 0.028322 -0.20499 0.34722 0.032654 0.0032973 0.0021027 -0.0002314
0.0015799 -0.0061713 -0.00049156 -0.0023873
-0.008696 0.0046352 0.032674 0.0032284 0.11855 0.31381 0.00054537 -0.0013333
9.4309e-05 -0.002263 0.0012221 -0.00020927
0.0018354 0.0029251 0.002065 -0.00026089 0.0005354 -0.0013512 -0.068567 0.27637
0.010808 0.028853 -0.0083701 -0.0065716
0.0038299 -0.0015962 0.0015986 -0.0062086 0.00014563 -0.0022343 0.010855 0.028874
-0.10005 0.18701 0.0066814 0.018503
-0.00302 -0.001926 -0.00049831 -0.0024041 0.0012701 -0.00019941 -0.0084037 -0.0065525
0.0066791 0.018494 -0.14188 0.26599
1040000000 -0.00069491 0.3009 0.032871 0.015725 -0.0012987 0.0066048 0.0022571 0.00073807
0.00013793 -0.0030848 -0.00075249 -0.0011921
0.03284 0.01583 -0.16897 0.35997 0.028042 -0.015862 0.0015219 -0.001779
-0.0023617 -0.0026401 -0.0015814 -0.0027127
-0.0012889 0.0066231 0.028003 -0.015955 0.16562 0.29889 -0.00059355 -0.0015119
-0.0017253 -0.00092374 -0.00055685 -0.00088449
0.0022426 0.00073086 0.0014956 -0.0017845 -0.00056571 -0.0015241 -0.040003 0.28492
0.021488 0.015795 -0.0025472 0.00084372
0.00022675 -0.0031213 -0.0022398 -0.0026017 -0.001728 -0.00083863 0.021494 0.015774
-0.067062 0.1922 0.014115 0.016129
-0.00079534 -0.0012655 -0.0016049 -0.0026 -0.00056545 -0.00094337 -0.0025315 0.00085057
0.014092 0.016117 -0.11761 0.28558
1100000000 0.043994 0.3076 0.034454 -0.0059114 0.0026042 0.0036696 0.0021138 -0.00095051
-0.0017956 -0.0028897 -0.0037706 0.00034116
0.034414 -0.0058325 -0.1263 0.37677 0.013719 -0.027971 -7.3424e-05 -0.0017788
-0.0034458 -0.00072034 -0.003442 -0.00029554
0.0026041 0.0036481 0.013626 -0.028056 0.21204 0.27712 -0.0018894 0.00022956
-0.0019087 0.0006205 -0.001026 -7.4804e-05
0.0021101 -0.00097055 -0.00010372 -0.0017775 -0.001891 0.00022605 0.00050354 0.28825
0.025521 0.0023075 -0.002732 -0.00028589
-0.0018289 -0.0029079 -0.0034861 -0.00069176 -0.0019167 0.00063542 0.025544 0.002252
-0.049452 0.20441 0.018836 0.0061737
-0.0037562 0.00035227 -0.0034624 -0.00029779 -0.0010463 -9.7747e-06 -0.0027304 -0.00026965
0.01883 0.0061808 -0.071831 0.31114
1160000000 0.095367 0.30182 0.021995 -0.021679 0.0022174 -0.0002648 -1.5311e-05 -0.001935
-0.00389 -0.00060005 -0.00083638 0.0039541
0.02199 -0.021685 -0.081559 0.38112 -0.0050973 -0.02841 -0.0016304 -0.0015903
-0.002686 0.002676 -0.0014194 0.0017163
0.0022991 -0.00030151 -0.005189 -0.028364 0.25544 0.24471 -0.00080805 0.0018272
-0.00035291 0.0020513 -0.00080405 0.0002461
1.3979e-05 -0.0019506 -0.0016357 -0.0015716 -0.00081105 0.0018297 0.040332 0.28374
0.020488 -0.013253 -0.0033719 0.0043742
-0.0039405 -0.0005741 -0.0026999 0.0026548 -0.0003691 0.0019951 0.020469 -0.01328
-0.016204 0.21136 0.017234 -0.0015883
-0.00086854 0.00398 -0.0014669 0.0017312 -0.00074089 0.00025618 -0.0033422 0.004396
0.017244 -0.0015847 -0.024151 0.31277
1220000000 0.13948 0.28908 0.0082467 -0.029627 -0.0016782 -0.00018751 0.00025575 -0.000905
-0.0024385 0.0022991 0.001332 0.0019083
0.0082657 -0.029621 -0.037313 0.39202 -0.017493 -0.019974 -0.0024487 0.0004296
0.00010108 0.0031343 -0.00056539 0.0020177
-0.0016842 -0.0001401 -0.017598 -0.019907 0.29354 0.20352 0.00087463 0.0018299
0.00074937 0.0012551 0.00041384 0.00058361
0.00022948 -0.00087577 -0.0024849 0.0004548 0.00088003 0.0018529 0.080156 0.273
0.0091542 -0.019356 0.0011944 0.0014295
-0.0023975 0.0022738 0.00013937 0.0031223 0.0007782 0.0012498 0.0091392 -0.019381
0.0067349 0.21811 0.012114 -0.013914
0.0013482 0.0019097 -0.00054952 0.0020306 0.00042083 0.00056239 0.0011917 0.0014342
0.012113 -0.013909 0.008313 0.32551
1280000000 0.18847 0.26653 -0.0095407 -0.027083 -0.0015685 0.0030943 -0.00084282 -0.0020881
-0.00073756 0.0029596 0.0024771 0.00094099
-0.0094994 -0.027078 0.0088447 0.38291 -0.023652 -0.007382 -0.00098617 0.0014684
0.0018101 0.0017997 0.00080208 0.0017672
-0.0015683 0.0031025 -0.023718 -0.00729 0.32246 0.15905 0.0017241 6.8357e-05
0.0012518 0.00015338 0.00034975 9.7383e-05
-0.00087528 -0.0020747 -0.00096969 0.0014742 0.0017064 4.9605e-05 0.11626 0.25509
-0.001131 -0.020686 -0.00074693 0.00066063
-0.00073899 0.0029776 0.0018362 0.0018039 0.0012407 0.00014969 -0.0011567 -0.020684
0.042671 0.22093 0.0013705 -0.015546
0.0024492 0.0009629 0.00076091 0.0017859 0.00034733 0.00013032 -0.00074332 0.00065095
0.001378 -0.015541 0.054596 0.32472
1340000000 0.22536 0.23151 -0.018371 -0.016887 0.0015301 0.0044849 -0.0017453 -0.00099644
0.0013967 0.0026005 0.001553 -0.0014688
-0.018344 -0.016899 0.048727 0.37333 -0.020957 0.0051175 -0.00012004 0.0020849
0.0020906 0.00063949 0.0013825 0.00064873
0.0015553 0.0044653 -0.020969 0.0052104 0.34347 0.11041 0.0013096 -0.0010596
0.00067466 -0.00053095 5.0153e-05 0.00026577
-0.0017492 -0.00097683 -0.00011994 0.0020847 0.0013265 -0.0010461 0.14819 0.23277
-0.010772 -0.016883 0.00046812 0.0013646
0.0014225 0.0026211 0.0021029 0.00065936 0.00066082 -0.00048405 -0.010809 -0.016869
0.072399 0.2147 -0.0054519 -0.013377
0.0015412 -0.0014852 0.0013686 0.00067821 1.7135e-05 0.00026831 0.00047981 0.001371
-0.0054529 -0.013381 0.093805 0.31711
1400000000 0.25731 0.19261 -0.022853 -0.0054312 0.0056261 0.0027706 -0.0022552 0.00058215
0.0023091 0.00093082 0.00016214 -0.0014482
-0.022815 -0.0054321 0.08535 0.35968 -0.013923 0.012816 0.001393 0.0013425
0.001189 -0.001026 0.0011398 4.1092e-05
0.00561 0.0027323 -0.013899 0.0129 0.35521 0.057178 0.00010953 -0.0020297
2.9205e-05 -0.00047797 0.00025043 0.00025298
-0.0022398 0.00056886 0.0014172 0.0013337 9.604e-05 -0.0020114 0.1759 0.20256
-0.016601 -0.0093969 -0.00047658 0.00073532
0.0023291 0.00090714 0.0011929 -0.0010189 1.0774e-05 -0.00048045 -0.016629 -0.0093623
0.10387 0.20921 -0.011556 -0.0078397
0.00015127 -0.0014289 0.001148 2.1754e-05 0.00024895 0.00023421 -0.00047454 0.00073598
-0.011555 -0.007859 0.13656 0.3038
1460000000 0.27975 0.1481 -0.019094 0.0060349 0.0057307 -0.0022332 -0.0016499 0.00175
0.0020582 -0.00052107 -0.0003906 -0.00088781
-0.019105 0.0060137 0.11966 0.3372 -0.0052695 0.015169 0.0018022 0.00010484
0.00067382 -0.0013984 0.0010858 -0.00056889
0.0057231 -0.0022717 -0.0051955 0.015195 0.36068 0.0034227 -0.0016572 -0.0013762
0.00015668 -0.00015225 0.0006174 -0.00033029
-0.0016388 0.0017837 0.0017829 0.00010936 -0.0016434 -0.0013739 0.20069 0.17256
-0.017444 -0.001783 -0.00012116 0.0025294
0.0020428 -0.00050363 0.000642 -0.0014257 0.00016925 -0.00015987 -0.017457 -0.0017342
0.13262 0.194 -0.012463 -0.0016328
-0.00040014 -0.00091943 0.0010746 -0.00057574 0.00063352 -0.00033019 -0.00012003 0.0025476
-0.012452 -0.0016447 0.16911 0.28158
1520000000 0.29098 0.10502 -0.012943 0.010798 0.0031124 -0.0043961 0.00015709 0.0027004
0.0020757 -0.0017335 -0.0011051 -0.0001045
-0.012944 0.010777 0.15251 0.3214 0.0020422 0.012686 0.0016775 -0.00093369
-0.00015025 -0.0011299 0.00027411 -0.00094967
0.0031015 -0.0044111 0.0020912 0.012678 0.35343 -0.053225 -0.0014935 -0.00020992
0.00049476 -0.00085635 6.5887e-05 -0.00012727
0.00016431 0.0027197 0.0016765 -0.00093563 -0.0014955 -0.00021004 0.2214 0.13399
-0.01585 0.004533 0.0022216 0.0020973
0.0020799 -0.0017387 -0.00015528 -0.0011221 0.00050933 -0.00086361 -0.015837 0.0045718
0.15969 0.17851 -0.01182 0.0031107
-0.00112 -0.00011621 0.0002669 -0.00095273 5.4568e-05 -0.0001201 0.0022367 0.0020853
-0.011817 0.0031036 0.20102 0.25884
1580000000 0.29915 0.058744 -0.0064792 0.012985 -0.0010904 -0.004966 0.001661 0.0019664
-0.0001386 -0.0022409 -0.00029436 0.00038393
-0.0064742 0.012987 0.17916 0.29653 0.0054422 0.0077613 0.0004316 -0.0016945
-0.00060746 -0.00090555 -0.00021281 -0.00078873
-0.0011115 -0.0049467 0.0054804 0.0077592 0.33295 -0.11011 -0.0016572 0.0011265
-0.00032991 -0.0011875 0.00013144 -0.00060259
0.0016628 0.0019498 0.00042667 -0.001704 -0.001634 0.0011308 0.23319 0.095558
-0.011577 0.0094595 0.0027557 0.00037207
-0.00016367 -0.0022278 -0.00060866 -0.00089854 -0.00034439 -0.0011906 -0.011559 0.0094922
0.18317 0.15984 -0.0090101 0.0084452
-0.0002555 0.00038461 -0.00022098 -0.00080119 0.00012673 -0.00061438 0.0027471 0.00035575
-0.0090147 0.0084479 0.23133 0.23153
1640000000 0.3002 0.016524 -0.00028704 0.011209 -0.0030063 -0.0026617 0.0028473 0.00081914
-0.00075896 -0.0016664 -0.00027634 0.00063298
-0.0003061 0.011203 0.20842 0.27083 0.0058551 0.0031367 -0.00087865 -0.0017025
-0.000957 -0.00023449 -0.00053749 -0.00059247
-0.0029826 -0.0026815 0.0058678 0.0031004 0.30445 -0.15942 -0.0003617 0.0017287
-0.0012152 -0.00085336 -0.00021718 -0.00026769
0.0028534 0.00082352 -0.00087775 -0.0016887 -0.00035164 0.0017083 0.24393 0.047758
-0.0066317 0.010582 0.0027775 -0.0012632
-0.0007853 -0.0016485 -0.00097203 -0.00022699 -0.0012369 -0.00085557 -0.0066043 0.010615
0.2051 0.13418 -0.0038773 0.010109
-0.00026722 0.00065775 -0.00054417 -0.00059961 -0.000204 -0.00026029 0.0027782 -0.0012782
-0.0038808 0.010099 0.25627 0.19914
1700000000 0.29095 -0.028867 0.0025186 0.0081145 -0.0035875 0.00010705 0.0029461 -0.0015141
-0.0020856 -0.00072289 0.00070957 0.00034504
0.0025024 0.0081046 0.22552 0.23929 0.0038346 0.00037471 -0.0015395 -0.00048398
-0.00063063 0.00013624 -0.00088222 -0.00042704
-0.0035717 7.3068e-05 0.0038396 0.00034024 0.26046 -0.19898 0.0007994 0.0014275
-0.0018281 -9.8901e-05 -0.00061542 -0.00081319
0.0029404 -0.0015415 -0.0015463 -0.00048056 0.0008142 0.0014304 0.23938 0.00024851
-0.0032398 0.010638 0.0015635 -0.002507
-0.0021 -0.00068828 -0.00062767 0.00014535 -0.0018218 -7.5931e-05 -0.0032254 0.010653
0.22061 0.11314 0.00087779 0.010119
0.00068512 0.0003349 -0.00087459 -0.00042032 -0.00065589 -0.00081632 0.0015702 -0.0025119
0.00087901 0.010122 0.27083 0.16407
1760000000 0.27785 -0.07692 0.0040339 0.0048929 -0.00247 0.0010887 0.00091508 -0.0035394
-0.0015049 0.00072639 0.00036587 -0.00049618
0.0040376 0.0048974 0.25137 0.19936 0.0015609 -0.001591 -0.0012083 0.00028608
-0.00091949 0.00079104 -0.00060926 0.00042023
-0.0024901 0.0011747 0.0015438 -0.0015975 0.2126 -0.23255 0.0012231 0.00063648
-0.0011091 0.0015856 -0.0013162 -0.00023676
0.00090764 -0.0035249 -0.0012186 0.0002961 0.0012164 0.00061314 0.23109 -0.048744
0.00020589 0.0093723 -0.00032925 -0.0028705
-0.0015393 0.00075781 -0.00091626 0.00079546 -0.0011042 0.0015573 0.00021993 0.0093788
0.23447 0.077626 0.0049003 0.0071445
0.00039804 -0.00051591 -0.00062173 0.00043108 -0.0013158 -0.00025884 -0.00032881 -0.0028746
0.0049078 0.0071446 0.28283 0.12629
1820000000 0.25186 -0.11394 0.0037518 0.0017499 -4.446e-05 0.0026324 -0.0013672 -0.0028387
-0.0011669 0.001163 -0.00013184 -0.00010726
0.0037574 0.0017642 0.26058 0.16889 -0.00055888 -0.00021685 -0.0011647 0.0010776
-4.2104e-05 0.0011476 -0.00054042 0.00051316
-7.6768e-05 0.0026023 -0.00057524 -0.00023621 0.16097 -0.24886 0.001169 0.00020576
-8.9912e-05 0.0022333 -0.0013287 0.00043282
-0.0014087 -0.0028741 -0.0011483 0.0010627 0.0011692 0.00020708 0.20215 -0.094715
0.0017518 0.0074272 -0.0018163 -0.0018441
-0.0011276 0.0011341 -1.9327e-05 0.0011517 -9.8819e-05 0.0022115 0.0017918 0.0074228
0.24957 0.047655 0.0057619 0.0032381
-0.00011531 -8.2042e-05 -0.00053917 0.000529 -0.0013543 0.00044509 -0.0018152 -0.0018344
0.0057627 0.0032386 0.28405 0.08858
1880000000 0.21574 -0.15265 0.0012577 8.2956e-06 -0.00030949 0.0022121 -0.0030333 -0.0017334
-0.00016344 0.0018197 0.00018153 -0.00040198
0.0012646 -3.6626e-06 0.26461 0.12274 -0.0025725 0.0017003 -4.7081e-05 0.001649
0.00042674 0.0010895 0.00012179 0.00099858
-0.00031297 0.0021771 -0.0025695 0.0017156 0.10779 -0.25747 0.0015127 -0.00081977
0.00162 0.0017808 -0.00068576 0.0014879
-0.0030242 -0.0017305 -3.8794e-05 0.0016529 0.001522 -0.00081616 0.16361 -0.13422
0.0026212 0.005013 -0.0025405 0.00014916
-0.00018487 0.0018343 0.00042006 0.0010884 0.0016357 0.0018297 0.0026415 0.0050205
0.25109 0.01541 0.00542 0.0008458
0.00013924 -0.00038571 0.00012751 0.00099033 -0.00068916 0.0013895 -0.0025409 0.00014388
0.0054145 0.00084538 0.28253 0.054887
1940000000 0.17627 -0.17833 -0.00089619 -0.001188 0.001582 0.0018756 -0.003523 0.00074637
0.0015937 0.0010447 -0.00039981 -0.00046426
-0.00090994 -0.0011882 0.26492 0.090592 -0.0011602 0.0039956 0.0010299 0.0011474
0.0015819 0.00060517 0.00086912 0.00048061
0.0015832 0.0019046 -0.0011409 0.0039992 0.062579 -0.251 0.0003396 -0.0017519
0.0021912 0.0003572 0.00044616 0.0017705
-0.0035434 0.00072879 0.0010548 0.0011349 0.00030878 -0.0017307 0.11274 -0.16577
0.0018186 0.0032973 -0.0016466 0.0013728
0.0015916 0.0010265 0.0016094 0.00059329 0.0021736 0.00032841 0.0018204 0.0032878
0.25185 -0.024051 0.0039071 -0.002547
-0.00045972 -0.0004733 0.00088366 0.00048496 0.00043071 0.0017734 -0.0016339 0.0013872
0.0039087 -0.0025498 0.2708 0.017349
2000000000 0.12916 -0.19217 -0.0045691 0.0012061 0.0024372 0.0015176 -0.0021301 0.0033381
0.0012467 9.4311e-05 -0.00047496 0.00022235
-0.0045828 0.0012095 0.24993 0.05514 -0.0009 0.0057254 0.0015234 0.00022544
0.001295 -0.0010698 0.00059437 0.00010885
0.0023804 0.0014798 -0.00087232 0.0057587 0.018001 -0.23597 -0.00093028 -0.0010896
0.0017948 -0.001102 0.0017218 0.00092442
-0.0020939 0.0033872 0.0015081 0.00022412 -0.00090162 -0.0010619 0.059184 -0.17704
-2.9915e-05 0.0024327 -0.00028832 0.0022307
0.0012912 7.8634e-05 0.0013011 -0.0010976 0.001795 -0.0010916 -4.7439e-05 0.0024284
0.24421 -0.057791 0.00033128 -0.0035075
