!Keysight Technologies,M9804A,MY58100912,A.14.10.03
!Date: Thursday, April 27, 2023 10:28:33
!Correction: S11(C  6-Port  ) 
!S12(C  6-Port  ) 
!S13(C  6-Port  ) 
!S14(C  6-Port  ) 
!S15(C  6-Port  ) 
!S16(C  6-Port  ) 
!S21(C  6-Port  ) 
!S22(C  6-Port  ) 
!S23(C  6-Port  ) 
!S24(C  6-Port  ) 
!S25(C  6-Port  ) 
!S26(C  6-Port  ) 
!S31(C  6-Port  ) 
!S32(C  6-Port  ) 
!S33(C  6-Port  ) 
!S34(C  6-Port  ) 
!S35(C  6-Port  ) 
!S36(C  6-Port  ) 
!S41(C  6-Port  ) 
!S42(C  6-Port  ) 
!S43(C  6-Port  ) 
!S44(C  6-Port  ) 
!S45(C  6-Port  ) 
!S46(C  6-Port  ) 
!S51(C  6-Port  ) 
!S52(C  6-Port  ) 
!S53(C  6-Port  ) 
!S54(C  6-Port  ) 
!S55(C  6-Port  ) 
!S56(C  6-Port  ) 
!S61(C  6-Port  ) 
!S62(C  6-Port  ) 
!S63(C  6-Port  ) 
!S64(C  6-Port  ) 
!S65(C  6-Port  ) 
!S66(C  6-Port  ) 
!S6P File: Measurement: :
# Hz S  RI   R 50
500000000 -0.34038 -0.024285 -0.010975 -0.0032206 -0.0083551 0.01305 -0.0037105 0.012256
0.011796 0.004086 -0.0036134 0.0084762
-0.010956 -0.0032218 -0.42029 -0.041437 0.0061645 -0.01121 0.0016174 0.012678
0.0073159 0.0021836 0.0016989 0.013649
-0.008337 0.013058 0.0061504 -0.011238 -0.26548 0.21976 0.0068129 0.0040703
-0.0013083 0.0076809 0.0015091 0.012242
-0.0036985 0.012262 0.0016434 0.012694 0.0068146 0.0040697 -0.33345 0.056282
-0.020007 -0.0066655 0.014663 0.024496
0.011805 0.0040745 0.0073292 0.0021661 -0.0012999 0.0076798 -0.020002 -0.0066549
-0.23299 -0.17346 -0.025225 0.0045696
-0.0035905 0.0084764 0.001727 0.013653 0.0015082 0.012241 0.014669 0.024485
-0.025236 0.0045664 -0.28082 -0.097504
560000000 -0.31532 0.1336 -0.026152 -0.060741 0.00034364 0.012078 0.0054317 0.010513
0.0091601 0.0046576 0.009922 0.0072385
-0.026105 -0.060694 -0.37435 0.11388 -0.041998 -0.034291 0.013371 0.0037557
-0.012821 -0.0031656 0.0030394 -0.00080733
0.00036802 0.012056 -0.042124 -0.034232 -0.18156 0.26591 -0.00051377 -0.0042969
0.018712 0.0038604 0.0063464 -0.0061993
0.005441 0.01049 0.013408 0.0037547 -0.00053428 -0.0042981 -0.30677 0.14473
-5.5657e-05 -0.023237 0.0039926 -0.019555
0.0091771 0.0046462 -0.012849 -0.0031635 0.01871 0.0038623 -6.1133e-05 -0.023245
-0.28796 -0.00042023 0.0043423 -0.047932
0.0099309 0.0072003 0.0030383 -0.00079118 0.0063448 -0.0062077 0.0039977 -0.019558
0.0043462 -0.04793 -0.33151 0.045286
620000000 -0.27252 0.11875 -0.023588 0.0080322 0.0042909 0.0080883 0.0079838 -0.0049113
0.010579 -0.0010951 0.0008053 -0.0018921
-0.023569 0.0080212 -0.40221 0.069266 -0.019027 0.0011177 -0.0013828 -0.0017382
0.011069 -0.0067726 0.0013513 -0.0025042
0.0043042 0.0080739 -0.019039 0.0011695 -0.15049 0.27471 -0.00098678 -0.0048898
-0.0031791 -0.0028879 0.0085487 -0.0029659
0.0079798 -0.0049413 -0.0013886 -0.0017239 -0.00099479 -0.0048893 -0.26441 0.15603
-0.040989 -0.016844 0.012474 0.02525
0.010569 -0.0011083 0.011057 -0.0068098 -0.0031769 -0.0028873 -0.041004 -0.016813
-0.20929 -0.039873 -0.041028 0.015211
0.00080075 -0.0019013 0.0013498 -0.0025014 0.008569 -0.0029707 0.01249 0.025246
-0.041053 0.015204 -0.25597 0.015235
680000000 -0.22988 0.2031 -0.027413 -0.012119 0.0056082 0.0045875 0.0012261 -0.006869
-0.0028221 -0.010839 0.0043077 -0.0069845
-0.027391 -0.012119 -0.38549 0.16539 -0.031898 0.00027286 -0.0014072 -0.00046087
-0.0022392 -0.0091416 -0.0018673 -0.0022251
0.0056101 0.0045819 -0.031925 0.00035953 -0.098808 0.29385 -0.00087528 -0.00050574
-0.0016315 0.00015573 -0.0036233 -0.0087224
0.0012268 -0.0068893 -0.0014148 -0.00045526 -0.00087966 -0.00050645 -0.21785 0.20625
-0.025832 -0.004717 -0.0092005 -0.0085323
-0.0028397 -0.01084 -0.0022714 -0.0091501 -0.0016302 0.0001556 -0.02584 -0.0047002
-0.2545 0.060353 -0.0075764 -0.0065686
0.0043122 -0.0069902 -0.0018793 -0.0022266 -0.0036373 -0.0087321 -0.0092161 -0.0085353
-0.0075664 -0.0065607 -0.25617 0.11423
740000000 -0.18493 0.19712 -0.03663 0.027298 0.01246 -0.0056542 -0.00064887 -0.0043781
-0.004805 -0.0030998 -0.0057098 0.0027136
-0.036644 0.02727 -0.33293 0.18431 -0.033157 0.035219 -0.00085984 -0.006395
-0.012056 0.0076593 -0.0018375 -0.0058481
0.012445 -0.0056754 -0.033089 0.035325 -0.064881 0.29142 -0.0019737 0.0031406
-0.0030994 -0.0047287 -0.0017602 0.00099662
-0.00066723 -0.0043764 -0.00088217 -0.006384 -0.0019777 0.0031361 -0.20034 0.21387
-0.042794 -0.0034155 0.022971 0.013526
-0.0048136 -0.003095 -0.012051 0.0077157 -0.0030963 -0.0047224 -0.042823 -0.0033559
-0.15703 0.083635 -0.039968 0.0039509
-0.0057053 0.0027193 -0.0018601 -0.0058439 -0.0017614 0.0009894 0.023029 0.013519
-0.039948 0.0039406 -0.24542 0.1229
800000000 -0.15166 0.23555 -0.021013 0.01753 0.0048337 -0.010513 -0.0044587 -0.0016522
-0.0036124 0.0023632 0.0036645 0.00044776
-0.021019 0.017517 -0.33461 0.25303 -0.0067558 0.033686 -0.0025516 0.0022732
-0.00069369 0.0032838 0.00089045 0.0052332
0.0048083 -0.010526 -0.0066581 0.033733 -0.023441 0.31382 0.00066657 0.0017323
0.00033849 0.0036606 -0.0017468 0.00090882
-0.0044739 -0.0016524 -0.0025519 0.0022817 0.00066866 0.0017282 -0.17058 0.24073
-0.026942 0.016813 0.013192 -0.010046
-0.003607 0.0023845 -0.00067955 0.0032867 0.00034351 0.0036608 -0.026943 0.016867
-0.19759 0.10948 -0.015987 0.019323
0.0036687 0.00042684 0.00092334 0.0052358 -0.001749 0.00091715 0.013192 -0.010064
-0.016001 0.019316 -0.23435 0.16985
860000000 -0.11617 0.2547 -0.015652 0.030524 -0.0036033 -0.0097488 -0.002018 0.0008143
0.0041535 0.0044136 -0.0030225 -0.0027342
-0.015675 0.030488 -0.28659 0.29405 0.009101 0.033271 5.8083e-05 0.0022639
0.0038895 0.00019955 0.003076 0.00016363
-0.0036254 -0.0097449 0.0092088 0.033284 0.025185 0.32093 -0.00040836 -0.000121
0.0026217 -0.0014613 0.0017629 0.0039358
-0.0020128 0.00082722 6.4672e-05 0.0022601 -0.00041056 -0.00011973 -0.13275 0.25075
-0.01482 0.020332 -0.0055977 -0.0091108
0.0041733 0.0043998 0.0039023 0.00017805 0.0026222 -0.0014637 -0.014814 0.020371
-0.14445 0.15625 -0.021717 0.016462
-0.0030272 -0.0027258 0.0030811 0.00014728 0.0017583 0.0039366 -0.0056064 -0.0091109
-0.021728 0.016446 -0.18384 0.21124
920000000 -0.090445 0.27576 0.0064553 0.036467 -0.0094391 -0.0042056 -0.0015696 0.0015473
0.001339 0.0014231 0.0025035 -0.0017458
0.0064095 0.036434 -0.25702 0.31402 0.028283 0.02042 0.0017213 0.00085714
0.0069868 -0.00080887 0.0034715 -0.0030209
-0.0094499 -0.0041816 0.028385 0.02036 0.071804 0.32078 0.0019712 -0.00017613
0.001461 -0.00067347 0.00061898 -0.0012679
-0.0015519 0.0015498 0.0017117 0.00084861 0.0019668 -0.00017971 -0.1077 0.26612
-0.007581 0.031018 0.0027825 -0.0067001
0.0013522 0.0014254 0.0069901 -0.00085437 0.0014799 -0.00066487 -0.0075386 0.031045
-0.13226 0.161 4.4951e-05 0.026033
0.0025077 -0.0017465 0.0034612 -0.0030478 0.00061831 -0.0012745 0.002771 -0.006703
1.6315e-05 0.026039 -0.18622 0.22558
980000000 -0.043549 0.29413 0.018302 0.028293 -0.0086906 0.0045984 0.0018013 0.0028988
0.0039055 -0.0016303 -0.0031598 -0.0020319
0.018256 0.028257 -0.20506 0.34709 0.032662 0.0033542 0.0019935 -0.00022464
0.0016179 -0.0061038 -0.00047712 -0.0023935
-0.0086733 0.0046157 0.032711 0.003274 0.11851 0.31381 0.00049172 -0.0013207
0.00016348 -0.0023086 0.0012892 -0.00025576
0.0018087 0.0029025 0.001988 -0.00025248 0.00049143 -0.0013265 -0.068655 0.27628
0.010841 0.028922 -0.0084069 -0.0064841
0.0039015 -0.0016366 0.0016104 -0.006139 0.00016793 -0.0023123 0.010892 0.028915
-0.099983 0.18683 0.0066445 0.018373
-0.0031754 -0.0020078 -0.00046097 -0.0024028 0.0012896 -0.00025841 -0.0084142 -0.0064626
0.0066347 0.018382 -0.14225 0.26566
1040000000 -0.00074728 0.30106 0.032899 0.015897 -0.0013229 0.0066802 0.0022428 0.00070522
0.00015095 -0.0031143 -0.00069787 -0.0013306
0.032832 0.015887 -0.16911 0.35992 0.028036 -0.0158 0.0015409 -0.0017054
-0.0023482 -0.0025547 -0.0014361 -0.0026773
-0.0013056 0.0066747 0.028021 -0.015901 0.16552 0.29888 -0.0006164 -0.0015147
-0.0017034 -0.00089057 -0.00056214 -0.00094621
0.002253 0.00070764 0.001519 -0.0017302 -0.0006168 -0.0015134 -0.040106 0.28492
0.02142 0.015868 -0.0024977 0.00088795
0.00013845 -0.0031071 -0.0023472 -0.0025733 -0.0016976 -0.00087689 0.02145 0.01583
-0.067348 0.19203 0.014223 0.016091
-0.00071104 -0.0013197 -0.0014452 -0.0026995 -0.0005604 -0.0009397 -0.0024859 0.00088745
0.014218 0.0161 -0.11796 0.28564
1100000000 0.044016 0.30763 0.034474 -0.0058371 0.0025795 0.0036882 0.0021174 -0.0009368
-0.0018213 -0.0028978 -0.0037817 0.00029281
0.034442 -0.0058178 -0.1263 0.37679 0.013657 -0.027961 -9.7118e-05 -0.0017798
-0.0034837 -0.00074627 -0.0034606 -0.00030319
0.0025901 0.0036729 0.013574 -0.028036 0.21202 0.27713 -0.0018993 0.00019636
-0.0018869 0.00062152 -0.00099174 -0.00012393
0.002115 -0.00093835 -0.00010895 -0.0017869 -0.0018928 0.00019699 0.0004473 0.28823
0.025586 0.0022632 -0.0027199 -0.00030393
-0.0018287 -0.0028871 -0.0034848 -0.00073602 -0.0018854 0.00063414 0.025597 0.0022336
-0.049492 0.20431 0.018908 0.0062052
-0.0037744 0.00031439 -0.0034645 -0.00029732 -0.00098816 -0.00012384 -0.0027312 -0.0002983
0.018897 0.0062103 -0.072043 0.31102
1160000000 0.095278 0.3018 0.02204 -0.021638 0.0022136 -0.00033472 1.3583e-05 -0.0019099
-0.0038698 -0.00060006 -0.00089678 0.003948
0.022022 -0.021621 -0.081604 0.38111 -0.0050696 -0.028398 -0.0016476 -0.0016112
-0.0027104 0.0026983 -0.0013793 0.001763
0.0022167 -0.00034895 -0.0051743 -0.028384 0.25535 0.24474 -0.00079877 0.0018289
-0.00037845 0.002048 -0.00077902 0.00023431
9.1384e-07 -0.0019047 -0.0016535 -0.0016153 -0.00080159 0.0018253 0.040293 0.28381
0.020526 -0.013245 -0.0034007 0.0043185
-0.0038798 -0.00057823 -0.0026861 0.0027001 -0.00037557 0.0020483 0.020507 -0.013278
-0.016301 0.21131 0.017174 -0.0016506
-0.00088545 0.0039404 -0.0013611 0.0017591 -0.00078566 0.00022795 -0.0033901 0.00433
0.017167 -0.0016383 -0.024463 0.31261
1220000000 0.13947 0.28919 0.0082673 -0.02965 -0.0016891 -0.0002194 0.00025173 -0.00089011
-0.0024156 0.0022508 0.0013083 0.0019217
0.0082734 -0.029631 -0.037331 0.39192 -0.017478 -0.020023 -0.0024631 0.00047186
7.6699e-05 0.0031102 -0.00059141 0.0019788
-0.0016911 -0.00022238 -0.017583 -0.019957 0.29346 0.20359 0.00087465 0.001863
0.00071404 0.0013122 0.00044779 0.000635
0.00024896 -0.00088583 -0.0024611 0.00047949 0.00087606 0.0018692 0.080086 0.27302
0.0091873 -0.019396 0.0011799 0.0013923
-0.0024157 0.0022638 0.00010095 0.0031063 0.00070884 0.0013163 0.0091676 -0.019415
0.0065867 0.2182 0.012129 -0.013883
0.0013126 0.0019223 -0.00057477 0.0019868 0.00044393 0.0006388 0.001193 0.0013919
0.012126 -0.013889 0.0082657 0.32543
1280000000 0.18847 0.26655 -0.0095209 -0.027094 -0.0015646 0.0030986 -0.00087125 -0.002059
-0.0007644 0.0029559 0.0024207 0.0009925
-0.0094821 -0.027083 0.008806 0.38291 -0.023656 -0.0074261 -0.0009764 0.0014589
0.0018823 0.0018096 0.00075086 0.0018261
-0.0015545 0.0031106 -0.023723 -0.0073303 0.32247 0.15911 0.0017061 6.9137e-05
0.0012331 0.00022747 0.00031846 0.00010325
-0.00087118 -0.0020546 -0.00097551 0.0014665 0.0017104 7.3151e-05 0.11628 0.25504
-0.0011405 -0.020738 -0.00074536 0.00064474
-0.00075827 0.0029589 0.0018909 0.0017936 0.0012283 0.00022452 -0.0011761 -0.020737
0.042564 0.22087 0.0013691 -0.015591
0.0024328 0.0009819 0.00076265 0.0018224 0.00031905 0.00010619 -0.00074347 0.00064753
0.0013674 -0.015592 0.054474 0.32484
1340000000 0.22534 0.23156 -0.018396 -0.016926 0.0015353 0.0044971 -0.0017552 -0.0010076
0.0014299 0.002616 0.0015874 -0.001458
-0.018356 -0.016924 0.048718 0.37333 -0.020945 0.0051513 -0.00010344 0.0020648
0.0021548 0.00063 0.0013927 0.00066537
0.0015448 0.0044959 -0.020941 0.0052467 0.34337 0.11052 0.0013195 -0.0010723
0.00070337 -0.0005516 6.7116e-05 0.00023992
-0.0017539 -0.0010002 -8.9241e-05 0.0020699 0.0013221 -0.0010734 0.14818 0.23276
-0.010817 -0.016898 0.00044661 0.0013843
0.0014408 0.0026009 0.0021605 0.00061177 0.00070809 -0.00054307 -0.010849 -0.016882
0.072229 0.21472 -0.0055135 -0.013417
0.0015741 -0.0014671 0.0014002 0.00066176 6.9071e-05 0.00023967 0.00045391 0.0013782
-0.0055142 -0.013424 0.09369 0.31704
1400000000 0.25728 0.1926 -0.022868 -0.0054724 0.0055514 0.0027897 -0.0022347 0.00055463
0.0023485 0.00093023 0.00019156 -0.0014214
-0.022837 -0.0054783 0.085305 0.35965 -0.013933 0.012801 0.0013925 0.0013464
0.0012079 -0.00099201 0.0011403 3.9913e-05
0.0055639 0.0027623 -0.013886 0.012876 0.35512 0.057241 0.00010173 -0.0020419
-9.7421e-06 -0.00046234 0.00027842 0.00022078
-0.0022304 0.00057294 0.0014175 0.00134 0.00010264 -0.0020372 0.1759 0.20257
-0.016649 -0.0093872 -0.00047954 0.00074212
0.0023566 0.00091261 0.0012102 -0.0010055 -6.127e-06 -0.00046388 -0.01667 -0.0093596
0.10373 0.20924 -0.011597 -0.0078687
0.00018681 -0.0014267 0.0011398 3.8967e-05 0.0002831 0.00021779 -0.00048009 0.00073385
-0.011594 -0.0078762 0.13643 0.3038
1460000000 0.27969 0.14816 -0.019119 0.0060279 0.0057268 -0.0022285 -0.0016299 0.0017682
0.0020855 -0.00048884 -0.0003456 -0.00087167
-0.019112 0.0060125 0.11966 0.33722 -0.0053034 0.015198 0.001787 0.00011211
0.00065931 -0.0013998 0.0010631 -0.0005591
0.0057176 -0.0022551 -0.0052336 0.01524 0.36076 0.0033901 -0.0016341 -0.0013881
0.00013222 -0.00015071 0.00063319 -0.00035123
-0.0016289 0.0017818 0.0017907 0.00010211 -0.001647 -0.0013821 0.20065 0.17256
-0.017502 -0.0017492 -0.00015875 0.0025353
0.0020883 -0.00050061 0.00064353 -0.0014112 0.00013512 -0.00015064 -0.017512 -0.0017207
0.13254 0.19399 -0.012484 -0.0016203
-0.00035588 -0.00087643 0.001054 -0.00056138 0.00063236 -0.00035714 -0.00015104 0.0025302
-0.012482 -0.0016146 0.1691 0.28156
1520000000 0.29099 0.10499 -0.012979 0.01078 0.0030842 -0.0044312 0.0001474 0.0027127
0.0020763 -0.0017257 -0.0011429 -9.0219e-05
-0.012984 0.010759 0.15248 0.3214 0.0020586 0.012671 0.0016797 -0.00092575
-0.00015255 -0.0011012 0.00024666 -0.00093517
0.0030534 -0.0044405 0.0021288 0.012676 0.35342 -0.053149 -0.0014852 -0.0002026
0.00049393 -0.00086763 1.2135e-05 -0.00011718
0.00016007 0.0027128 0.0016785 -0.00093162 -0.0014758 -0.00020235 0.22133 0.13398
-0.015858 0.0045905 0.0022253 0.0020542
0.0020701 -0.0017401 -0.00016123 -0.0011026 0.00049454 -0.00086936 -0.015853 0.0046292
0.15962 0.17852 -0.011804 0.0031057
-0.0011405 -8.8544e-05 0.00024477 -0.00093735 1.2774e-05 -0.0001159 0.002229 0.002043
-0.011805 0.0031115 0.20093 0.25886
1580000000 0.29912 0.058717 -0.0064592 0.012979 -0.0010679 -0.0049416 0.0016679 0.0019676
-0.00015974 -0.0022492 -0.00030821 0.00033695
-0.0064713 0.012968 0.17914 0.29658 0.0054072 0.0077692 0.00042406 -0.0016946
-0.00062626 -0.00092471 -0.00021721 -0.00078371
-0.0010864 -0.0049282 0.0054506 0.0077454 0.33297 -0.11011 -0.0016328 0.0011017
-0.00033681 -0.0011754 7.9431e-05 -0.0006202
0.0016735 0.0019519 0.00041868 -0.0017035 -0.0016376 0.0011026 0.23314 0.095577
-0.011578 0.0095296 0.0027436 0.00038168
-0.00017442 -0.0022497 -0.00062978 -0.00092006 -0.0003412 -0.0011768 -0.011569 0.0095585
0.18308 0.15991 -0.009029 0.0084395
-0.00030679 0.00034012 -0.00022148 -0.00078522 7.6778e-05 -0.00062759 0.0027432 0.00036934
-0.0090199 0.0084564 0.23123 0.23158
1640000000 0.30018 0.016552 -0.00029803 0.011208 -0.0030042 -0.002662 0.0028472 0.00082539
-0.0007632 -0.0016833 -0.00029164 0.0006033
-0.00031192 0.011203 0.20843 0.27084 0.0058262 0.0031533 -0.00086686 -0.0017001
-0.00095472 -0.00023988 -0.00053206 -0.00061132
-0.003016 -0.0026521 0.0058462 0.0031193 0.30444 -0.15938 -0.00037641 0.0017136
-0.0012402 -0.00083778 -0.00025982 -0.00027419
0.0028614 0.00081669 -0.0008727 -0.0017026 -0.00037788 0.0017106 0.24387 0.047804
-0.00659 0.01063 0.0027871 -0.0012498
-0.00078098 -0.0016934 -0.00096006 -0.00023053 -0.0012423 -0.00084709 -0.0065749 0.010647
0.20505 0.13421 -0.0038913 0.010156
-0.00028934 0.00061021 -0.00053391 -0.00060926 -0.00026371 -0.00027341 0.0027756 -0.0012633
-0.0038834 0.010165 0.25609 0.19914
1700000000 0.2909 -0.028901 0.0025233 0.008134 -0.0036024 9.8768e-05 0.0029544 -0.0015581
-0.0020952 -0.00075382 0.00068461 0.00036709
0.0025189 0.0081306 0.22549 0.23933 0.0038172 0.00035903 -0.0015336 -0.00049101
-0.00061226 0.00014449 -0.00087032 -0.00043427
-0.0035968 0.00011858 0.0038231 0.00033871 0.26058 -0.19891 0.0007939 0.001404
-0.0018269 -9.1809e-05 -0.00060674 -0.00079882
0.0029457 -0.0015661 -0.0015378 -0.00049017 0.00080187 0.0014027 0.23931 0.00031812
-0.0032025 0.010615 0.0015817 -0.0025533
-0.0021082 -0.00073964 -0.00061038 0.00015178 -0.0018281 -9.0459e-05 -0.003189 0.010628
0.2205 0.11316 0.00091777 0.010131
0.00068957 0.00036391 -0.00087148 -0.00042576 -0.00061394 -0.00079995 0.0015727 -0.0025511
0.00094766 0.010136 0.27063 0.16413
1760000000 0.27785 -0.076802 0.0040393 0.0048963 -0.0024396 0.0010288 0.00093682 -0.0035378
-0.0015598 0.00073759 0.00037598 -0.00050858
0.004026 0.0048967 0.25138 0.19936 0.0015603 -0.0015649 -0.00122 0.00031184
-0.00093018 0.0007827 -0.00062437 0.00042712
-0.0024351 0.0010335 0.001551 -0.0015831 0.21247 -0.23256 0.0012117 0.00060577
-0.0011276 0.0015688 -0.0013244 -0.0003021
0.00091298 -0.0035419 -0.0012174 0.00031664 0.0012089 0.00060714 0.23108 -0.04865
0.00025499 0.0093692 -0.00032511 -0.0028497
-0.00156 0.000745 -0.00092181 0.00079308 -0.0011241 0.0015698 0.00027305 0.0093734
0.2344 0.077721 0.0049032 0.0071447
0.00037399 -0.00051258 -0.00061739 0.00043231 -0.0013254 -0.00029737 -0.0003246 -0.0028457
0.0049252 0.0071415 0.28275 0.12633
1820000000 0.25182 -0.11389 0.0037541 0.0017397 -4.2321e-05 0.0025898 -0.0013723 -0.0028893
-0.0011437 0.0011315 -0.00013034 -0.00012975
0.0037506 0.0017387 0.26061 0.1689 -0.00053005 -0.00022114 -0.0011556 0.0010803
-3.1695e-05 0.0011423 -0.00053022 0.00052186
-2.6052e-05 0.002587 -0.00052778 -0.00021808 0.1611 -0.24874 0.0011998 0.00027849
-0.00013437 0.0022428 -0.0014494 0.00043693
-0.0013808 -0.0028895 -0.0011507 0.0010844 0.0011989 0.00027479 0.20212 -0.094594
0.0017897 0.007367 -0.0017805 -0.0018552
-0.0011377 0.0011526 -1.1823e-05 0.001145 -0.00013055 0.0022401 0.0018006 0.0073749
0.24954 0.047711 0.0057605 0.0032277
-0.00013156 -0.00012984 -0.00052398 0.00052348 -0.0014531 0.0004337 -0.0017863 -0.0018521
0.0057868 0.003218 0.28395 0.088808
1880000000 0.21576 -0.15256 0.0012612 2.0599e-05 -0.00034082 0.0022354 -0.0030255 -0.0017442
-0.0001796 0.0018477 0.00014818 -0.00036955
0.0012625 2.43e-05 0.26459 0.12275 -0.0026217 0.0017152 -6.0088e-05 0.0016435
0.00042633 0.0010906 0.0001128 0.0010075
-0.00032878 0.0022328 -0.0026131 0.0017375 0.10775 -0.25737 0.001454 -0.00082545
0.0016209 0.0017922 -0.00074176 0.0014661
-0.0030379 -0.0017347 -4.6221e-05 0.0016497 0.0014566 -0.00082878 0.16361 -0.13412
0.0026058 0.0049624 -0.0025948 0.00012129
-0.00015891 0.0018605 0.00044007 0.0010929 0.001627 0.0017827 0.0026254 0.0049664
0.25101 0.015484 0.0054165 0.00082713
0.00014162 -0.00036975 0.00012218 0.00101 -0.00073489 0.0014645 -0.0025919 0.00012969
0.005429 0.00080824 0.28248 0.055075
1940000000 0.17641 -0.17818 -0.00087149 -0.0011701 0.0016231 0.0018734 -0.0035257 0.00072059
0.001595 0.0010425 -0.00041341 -0.0005037
-0.00086615 -0.001172 0.26492 0.090621 -0.0011387 0.0040041 0.0010291 0.0011406
0.0015796 0.00058485 0.00088518 0.00050018
0.0016378 0.0018634 -0.0011122 0.0040092 0.062697 -0.251 0.00032848 -0.0017298
0.0021812 0.00037059 0.00043273 0.0017752
-0.0035216 0.00073656 0.0010365 0.0011281 0.00032187 -0.0017378 0.11283 -0.16572
0.0017943 0.0032434 -0.0016374 0.001376
0.0016126 0.0010281 0.0015827 0.00056741 0.0021803 0.00036601 0.0018115 0.0032472
0.25187 -0.024032 0.0039605 -0.0025519
-0.00041888 -0.00049803 0.00088829 0.00049436 0.00043902 0.0017745 -0.0016263 0.0013819
0.0039596 -0.0025628 0.27076 0.017581
2000000000 0.12909 -0.19207 -0.00458 0.0011855 0.0024186 0.0015264 -0.0021113 0.0033733
0.0012308 8.0246e-05 -0.00047584 0.00019877
-0.0045808 0.0011849 0.24994 0.055133 -0.00087032 0.0057269 0.0015107 0.00024977
0.0013126 -0.0010758 0.00062495 0.00011346
0.0024237 0.0015098 -0.0008402 0.0057421 0.018009 -0.2361 -0.00093734 -0.0010483
0.0018311 -0.0010984 0.0017175 0.00096759
-0.0020932 0.0033873 0.0015165 0.00024328 -0.00093793 -0.0010414 0.05919 -0.17698
-7.0954e-05 0.0024189 -0.00030468 0.0021843
0.0012167 6.7551e-05 0.0013002 -0.0010901 0.001822 -0.0011015 -6.4066e-05 0.0024234
