!Keysight Technologies,M9804A,MY58100912,A.14.10.03
!Date: Thursday, April 27, 2023 10:28:33
!Correction: S11(C  6-Port  ) 
!S12(C  6-Port  ) 
!S13(C  6-Port  ) 
!S14(C  6-Port  ) 
!S15(C  6-Port  ) 
!S16(C  6-Port  ) 
!S21(C  6-Port  ) 
!S22(C  6-Port  ) 
!S23(C  6-Port  ) 
!S24(C  6-Port  ) 
!S25(C  6-Port  ) 
!S26(C  6-Port  ) 
!S31(C  6-Port  ) 
!S32(C  6-Port  ) 
!S33(C  6-Port  ) 
!S34(C  6-Port  ) 
!S35(C  6-Port  ) 
!S36(C  6-Port  ) 
!S41(C  6-Port  ) 
!S42(C  6-Port  ) 
!S43(C  6-Port  ) 
!S44(C  6-Port  ) 
!S45(C  6-Port  ) 
!S46(C  6-Port  ) 
!S51(C  6-Port  ) 
!S52(C  6-Port  ) 
!S53(C  6-Port  ) 
!S54(C  6-Port  ) 
!S55(C  6-Port  ) 
!S56(C  6-Port  ) 
!S61(C  6-Port  ) 
!S62(C  6-Port  ) 
!S63(C  6-Port  ) 
!S64(C  6-Port  ) 
!S65(C  6-Port  ) 
!S66(C  6-Port  ) 
!S6P File: Measurement: :
# Hz S  RI   R 50
500000000 -0.34038 -0.02444 -0.011325 -0.00324 -0.0084091 0.013236 -0.0038499 0.012169
0.011915 0.0042438 -0.0035787 0.0085955
-0.011312 -0.0032144 -0.42053 -0.041616 0.0061225 -0.011109 0.0016204 0.012491
0.0074575 0.0022254 0.0017102 0.013575
-0.0083947 0.013256 0.0060904 -0.011134 -0.26532 0.21972 0.006762 0.0040031
-0.0014572 0.0076038 0.0014344 0.012069
-0.0038274 0.012183 0.0016438 0.012515 0.0067571 0.0040032 -0.33353 0.056189
-0.019875 -0.0066671 0.014189 0.024203
0.011915 0.0042003 0.0074743 0.0022099 -0.0014387 0.0076043 -0.019878 -0.0066575
-0.23311 -0.17276 -0.025267 0.0049313
-0.0035418 0.0084828 0.0018126 0.013656 0.0014626 0.012103 0.01424 0.024241
-0.02517 0.00493 -0.28245 -0.097472
560000000 -0.31514 0.13395 -0.026333 -0.061285 0.00059386 0.012125 0.0047505 0.010282
0.0090892 0.0045773 0.0099957 0.0074957
-0.026296 -0.061209 -0.37426 0.1155 -0.042704 -0.034172 0.013507 0.0040337
-0.012765 -0.0030655 0.0029158 -0.0008543
0.0006483 0.012103 -0.042795 -0.034127 -0.1819 0.2654 -0.00039744 -0.004017
0.018477 0.0042212 0.0062668 -0.0065176
0.0047685 0.010275 0.013524 0.004027 -0.00040342 -0.0040384 -0.3063 0.14541
0.00072402 -0.023783 0.0031289 -0.019536
0.0091386 0.0045703 -0.012837 -0.0030408 0.018485 0.0041776 0.00071374 -0.023748
-0.28877 -0.00038328 0.0046766 -0.04787
0.0099656 0.0074544 0.0029285 -0.001005 0.0063624 -0.0064511 0.0031416 -0.01958
0.0047964 -0.047882 -0.33027 0.045064
620000000 -0.27282 0.11856 -0.023776 0.0078849 0.0041312 0.0081909 0.007756 -0.0049136
0.011071 -0.001455 0.0011398 -0.0026506
-0.023765 0.0078647 -0.40228 0.069187 -0.019199 0.00095682 -0.0013201 -0.0017306
0.01113 -0.0066176 0.0013757 -0.002739
0.00411 0.0081762 -0.019212 0.0010011 -0.15077 0.27538 -0.0011551 -0.0048626
-0.0026618 -0.0025678 0.0080864 -0.0032417
0.0077358 -0.00492 -0.0013306 -0.0017202 -0.0011615 -0.0048748 -0.26402 0.15606
-0.041743 -0.016576 0.012215 0.025072
0.011078 -0.00151 0.011115 -0.0066666 -0.0026543 -0.0025539 -0.041768 -0.016548
-0.20864 -0.040654 -0.040539 0.014829
0.0011479 -0.0025741 0.0014012 -0.0027355 0.0078922 -0.0033621 0.012287 0.024922
-0.040643 0.015141 -0.25643 0.014644
680000000 -0.22974 0.20323 -0.027479 -0.012075 0.0056626 0.0045963 0.0014056 -0.0069298
-0.0026867 -0.010917 0.0044239 -0.006822
-0.027459 -0.012091 -0.38561 0.16527 -0.032 0.00018126 -0.0014383 -0.00066394
-0.002001 -0.0091836 -0.0016354 -0.0022657
0.005685 0.0045931 -0.032029 0.00025934 -0.098899 0.29379 -0.00087604 -0.0006788
-0.001609 -0.00012795 -0.0035224 -0.0086506
0.0013914 -0.006927 -0.0014371 -0.00065526 -0.00087138 -0.00067211 -0.21795 0.20626
-0.02609 -0.004578 -0.0089708 -0.0085553
-0.0027093 -0.010918 -0.0020338 -0.0091907 -0.0016078 -0.00012734 -0.026104 -0.0045408
-0.254 0.060604 -0.0076319 -0.0069018
0.0043425 -0.0067508 -0.0016342 -0.0023156 -0.0035163 -0.0087136 -0.008987 -0.0085588
-0.0076266 -0.0069075 -0.25625 0.11515
740000000 -0.18509 0.19728 -0.036321 0.026995 0.012526 -0.0057689 -0.0008064 -0.0043791
-0.0042804 -0.0030118 -0.0061969 0.0030218
-0.036326 0.026959 -0.33294 0.1842 -0.033087 0.035176 -0.00073922 -0.0064249
-0.011695 0.0075814 -0.0018007 -0.0055869
0.01252 -0.0057906 -0.033015 0.035293 -0.064803 0.29162 -0.0019471 0.0031399
-0.003096 -0.00472 -0.0016931 0.0011792
-0.00081732 -0.0043627 -0.00076578 -0.0064345 -0.0019464 0.0031515 -0.20034 0.21398
-0.042553 -0.0032981 0.022926 0.013639
-0.0043043 -0.0030381 -0.011681 0.0076355 -0.003094 -0.0047228 -0.042577 -0.0032393
-0.15736 0.082465 -0.039982 0.0040857
-0.0061455 0.0030522 -0.0016775 -0.0057229 -0.0016831 0.0011602 0.02296 0.01365
-0.040155 0.0041578 -0.24536 0.12346
800000000 -0.15181 0.23548 -0.021124 0.017407 0.0047696 -0.010598 -0.0045005 -0.0016705
-0.0036714 0.0023556 0.0034466 0.00050088
-0.021116 0.017391 -0.33448 0.25289 -0.0066333 0.033597 -0.002498 0.0022282
-0.00064709 0.0029628 0.00098119 0.0050824
0.0047267 -0.01061 -0.0065568 0.033631 -0.023393 0.3137 0.00074095 0.0017396
0.00036966 0.0034744 -0.001676 0.00093449
-0.0045103 -0.0016668 -0.0024942 0.0022306 0.00074181 0.0017386 -0.1706 0.24072
-0.026803 0.016719 0.013074 -0.010095
-0.0036627 0.0023734 -0.00064632 0.0029679 0.00037678 0.0034784 -0.026797 0.016792
-0.19761 0.10945 -0.01577 0.019013
0.0034498 0.00048345 0.001074 0.0050817 -0.0016666 0.00095197 0.013066 -0.010113
-0.015815 0.019046 -0.23461 0.17006
860000000 -0.11596 0.25478 -0.015539 0.030579 -0.0036019 -0.0096994 -0.0020153 0.00078731
0.0042204 0.0042137 -0.0030624 -0.0025124
-0.015525 0.030537 -0.28669 0.29409 0.0090485 0.033241 5.6712e-05 0.0021211
0.0040831 0.00012153 0.0030052 0.00032052
-0.0036264 -0.0096919 0.0091557 0.033244 0.025246 0.32096 -0.00048048 -0.00012016
0.0026118 -0.0014508 0.0017234 0.0039729
-0.0020015 0.00078247 6.9258e-05 0.0021248 -0.00048134 -0.0001209 -0.13266 0.25068
-0.014803 0.020255 -0.0055565 -0.0091766
0.00426 0.0041954 0.0040816 9.5395e-05 0.0026094 -0.0014439 -0.014797 0.02029
-0.14443 0.15604 -0.021632 0.016588
-0.0030999 -0.0025237 0.0029738 0.00034011 0.0017209 0.0039875 -0.0056111 -0.0091881
-0.021694 0.016509 -0.1837 0.21117
920000000 -0.090369 0.27574 0.0064387 0.036531 -0.0094864 -0.0042549 -0.0015622 0.0015167
0.0013231 0.0015014 0.0026542 -0.0018648
0.0064166 0.036495 -0.25704 0.31388 0.028302 0.020366 0.0017878 0.00087416
0.0070405 -0.00066262 0.0035501 -0.0030273
-0.0095147 -0.0042432 0.028392 0.020309 0.0718 0.32078 0.0019437 -0.00015693
0.00155 -0.00056237 0.00068569 -0.0013081
-0.0015682 0.001522 0.0017969 0.00086971 0.0019464 -0.00015904 -0.10764 0.26615
-0.0074669 0.03106 0.0027307 -0.0067997
0.0013218 0.0015098 0.007041 -0.0006994 0.0015532 -0.00055946 -0.007409 0.03109
-0.13214 0.16103 -0.00010512 0.026137
0.0026688 -0.001873 0.0035567 -0.0030759 0.00067844 -0.001303 0.0027096 -0.0068
-0.00021383 0.026129 -0.18649 0.22557
980000000 -0.043454 0.2942 0.018377 0.028332 -0.0086594 0.0045604 0.0018395 0.0029979
0.0038541 -0.001596 -0.0031736 -0.0019596
0.018365 0.028325 -0.20494 0.34727 0.032692 0.003305 0.002088 -0.00023606
0.0015897 -0.0061433 -0.00051631 -0.0023556
-0.0086474 0.0045811 0.032726 0.0032196 0.11858 0.3138 0.00055219 -0.0013334
0.00012376 -0.0022807 0.0012622 -0.00018317
0.001857 0.0029867 0.002092 -0.00023396 0.00055806 -0.0013351 -0.068573 0.27641
0.010793 0.028891 -0.0083822 -0.0065097
0.0038598 -0.0015904 0.0015585 -0.0061617 0.00012285 -0.0022864 0.010863 0.028876
-0.10011 0.18709 0.0066565 0.018517
-0.0031156 -0.001998 -0.00053295 -0.0023613 0.0012198 -0.00020347 -0.0083781 -0.0065762
0.0066476 0.018505 -0.14188 0.26595
1040000000 -0.00061379 0.30097 0.032907 0.015748 -0.0013329 0.006626 0.0022762 0.00073475
0.00014814 -0.0031009 -0.00076685 -0.001185
0.032894 0.015735 -0.169 0.35995 0.028045 -0.015846 0.0014952 -0.0017557
-0.0022914 -0.0026127 -0.0015431 -0.0027333
-0.0013115 0.0066169 0.028034 -0.015946 0.16558 0.2989 -0.00059331 -0.0015259
-0.0017171 -0.0009117 -0.00056396 -0.00091278
0.0022791 0.00072855 0.0015093 -0.0017506 -0.00059621 -0.0015162 -0.040017 0.28491
0.021479 0.015791 -0.0025318 0.00083052
0.00016381 -0.0030822 -0.0023286 -0.0026032 -0.0017122 -0.00090744 0.021529 0.015749
-0.067077 0.19218 0.014141 0.016095
-0.00078255 -0.0011856 -0.0015987 -0.002675 -0.00054877 -0.00089425 -0.0025308 0.00085361
0.01409 0.016126 -0.11759 0.28562
1100000000 0.043984 0.30759 0.034418 -0.0058886 0.0026059 0.0036629 0.0021181 -0.00095073
-0.0017803 -0.0029193 -0.0037751 0.00031161
0.034404 -0.0058682 -0.12626 0.37679 0.013673 -0.027962 -8.1971e-05 -0.0017909
-0.0034409 -0.00069821 -0.0034241 -0.00030733
0.0026164 0.0036486 0.013594 -0.028038 0.21209 0.27715 -0.0019112 0.00022586
-0.0019025 0.00060684 -0.0010325 -8.3495e-05
0.0021188 -0.00096122 -8.8441e-05 -0.001785 -0.0018997 0.00021998 0.00051161 0.28828
0.025522 0.0023048 -0.0027067 -0.00028779
-0.0017976 -0.0029057 -0.0034457 -0.00068723 -0.0018975 0.00061339 0.025533 0.0022724
-0.04952 0.20442 0.018833 0.0061949
-0.0037646 0.00034673 -0.0034324 -0.00026187 -0.0010316 -8.7832e-05 -0.0027223 -0.00027549
0.018791 0.0061767 -0.07184 0.31112
1160000000 0.09532 0.3018 0.021985 -0.021668 0.0021933 -0.00029842 -1.3552e-05 -0.0019309
-0.0038917 -0.0006171 -0.00087128 0.0039457
0.021995 -0.021647 -0.081595 0.3811 -0.0050824 -0.028416 -0.0016427 -0.0016006
-0.0026815 0.0027096 -0.0014184 0.0017354
0.0021894 -0.00031096 -0.0051974 -0.028408 0.25543 0.24464 -0.00080188 0.0018274
-0.00036985 0.0020473 -0.00078471 0.00023604
-1.4648e-05 -0.0019378 -0.0016492 -0.0015856 -0.00080841 0.0018286 0.04035 0.28372
0.020471 -0.013253 -0.0033751 0.0043841
-0.0039224 -0.00057804 -0.0027006 0.0027177 -0.00036102 0.0020602 0.020457 -0.013288
-0.016223 0.21133 0.017206 -0.0016089
-0.00080995 0.0039746 -0.0014053 0.0017378 -0.00078455 0.00024362 -0.0033611 0.0043766
0.01718 -0.001603 -0.024084 0.31274
1220000000 0.13945 0.28914 0.0082186 -0.02963 -0.0016812 -0.00018576 0.00026344 -0.00089801
-0.0024204 0.0022927 0.0013423 0.0019401
0.0082451 -0.02961 -0.037338 0.39201 -0.017501 -0.01997 -0.0024496 0.00043283
0.00011317 0.0031308 -0.0005441 0.0020234
-0.0016745 -0.00018046 -0.017598 -0.019905 0.29353 0.20353 0.00087916 0.0018374
0.00076051 0.0012467 0.00041841 0.00058843
0.0002611 -0.00090625 -0.0024539 0.00045359 0.00087684 0.0018407 0.080159 0.273
0.0091771 -0.019375 0.0011991 0.0014236
-0.0024245 0.0023026 0.00012049 0.0031358 0.00076611 0.0012552 0.0091423 -0.019391
0.0067649 0.21812 0.012097 -0.013904
0.0013354 0.0019371 -0.00058225 0.0020628 0.00040035 0.00059577 0.0011828 0.0014309
0.012086 -0.01392 0.0083241 0.32547
1280000000 0.18847 0.26652 -0.0095197 -0.027106 -0.0015473 0.0030772 -0.00083154 -0.0020889
-0.00074282 0.0029588 0.0024926 0.0009663
-0.0095049 -0.027085 0.0088757 0.38292 -0.023635 -0.0073755 -0.0009692 0.0014755
0.0018326 0.0017998 0.0007864 0.0017926
-0.0015421 0.0030844 -0.023689 -0.007283 0.32251 0.15903 0.0017139 5.6836e-05
0.0012477 0.00014273 0.00034444 9.0367e-05
-0.0008441 -0.0020801 -0.000964 0.0014758 0.0017244 5.7345e-05 0.11626 0.25508
-0.001123 -0.020692 -0.00075874 0.00064282
-0.00071955 0.0029664 0.001849 0.0018 0.0012478 0.00014531 -0.0011809 -0.02069
0.042713 0.22097 0.0013673 -0.015527
0.0024677 0.00095353 0.0008109 0.0017551 0.00035302 0.00011283 -0.00074518 0.0006493
0.0013662 -0.015541 0.054655 0.32477
1340000000 0.22539 0.23152 -0.018352 -0.016893 0.0015396 0.0044745 -0.0017471 -0.0010043
0.0013821 0.002586 0.0015526 -0.0014744
-0.018325 -0.016897 0.048757 0.37332 -0.020966 0.0051345 -0.00012624 0.0020803
0.0020947 0.00063788 0.0013766 0.00063232
0.0015588 0.004474 -0.02095 0.0052239 0.34351 0.11046 0.0013163 -0.0010644
0.00068728 -0.00053475 3.6461e-05 0.00026426
-0.0017606 -0.00099337 -0.00011804 0.0020817 0.0013191 -0.0010594 0.14819 0.23276
-0.010753 -0.01688 0.00046414 0.0013508
0.0013936 0.0025914 0.0021033 0.00063027 0.00068969 -0.00053687 -0.010791 -0.016858
0.072435 0.21475 -0.0054765 -0.013383
0.0015379 -0.0014729 0.001373 0.00064584 4.0875e-05 0.0002725 0.0004824 0.0013715
-0.0054446 -0.013359 0.093807 0.31709
1400000000 0.25732 0.19256 -0.022849 -0.0054263 0.0056422 0.0027844 -0.0022495 0.00056076
0.0023079 0.00091557 0.00017558 -0.0014395
-0.022821 -0.0054405 0.085366 0.35969 -0.013935 0.012829 0.0013954 0.0013401
0.0011797 -0.0010149 0.0011213 2.5421e-05
0.0056514 0.0027635 -0.013883 0.012916 0.35519 0.057245 0.00011252 -0.0020062
3.7852e-05 -0.00046356 0.0002591 0.00023027
-0.0022497 0.00056269 0.0014067 0.0013359 0.00011568 -0.0020106 0.17593 0.20257
-0.016605 -0.0094019 -0.00047411 0.00072573
0.0023172 0.00090437 0.0011781 -0.0010234 4.183e-05 -0.00046439 -0.016629 -0.0093611
0.10391 0.20917 -0.011548 -0.0078407
0.00015489 -0.0014435 0.0011478 3.6518e-05 0.00024327 0.00026028 -0.00047879 0.00072816
-0.011543 -0.0078279 0.13654 0.30381
1460000000 0.27976 0.14815 -0.019111 0.0060432 0.0057479 -0.0022378 -0.0016362 0.0017602
0.0020649 -0.00053054 -0.0003776 -0.00092777
-0.0191 0.006022 0.11969 0.33719 -0.0052947 0.01516 0.001798 0.00012152
0.00068485 -0.0013928 0.001076 -0.00055422
0.0057419 -0.0022631 -0.005228 0.015216 0.36066 0.0033974 -0.0016582 -0.0013993
0.00014851 -0.00016239 0.00063825 -0.00035776
-0.0016381 0.00176 0.0017957 0.00011116 -0.0016579 -0.001398 0.2007 0.17255
-0.017438 -0.0017862 -0.00011315 0.0025302
0.002059 -0.00054858 0.00066472 -0.0014003 0.00015235 -0.00016685 -0.017448 -0.0017352
0.13268 0.19398 -0.012452 -0.0016242
-0.00038896 -0.00088659 0.0011003 -0.00055378 0.00062683 -0.00032865 -0.00012766 0.0025367
-0.012449 -0.0016176 0.16915 0.28157
1520000000 0.29098 0.10498 -0.012949 0.010794 0.0031186 -0.0043921 0.00016026 0.002695
0.0020738 -0.0017325 -0.0010958 -0.00010905
-0.012951 0.010769 0.15251 0.3214 0.0020555 0.012677 0.001671 -0.00093554
-0.00015522 -0.0011258 0.00027943 -0.00095663
0.0030974 -0.0044134 0.00212 0.012683 0.35345 -0.053225 -0.0014918 -0.00018626
0.00050979 -0.00087054 6.7046e-05 -0.00011137
0.00016637 0.002701 0.0016743 -0.00093985 -0.0014865 -0.00018513 0.22141 0.13397
-0.015845 0.0045227 0.0022042 0.002091
0.0020594 -0.0017463 -0.00015288 -0.0011278 0.00051079 -0.00087541 -0.015839 0.0045658
0.15973 0.17851 -0.011801 0.003127
-0.0011104 -0.00010463 0.00026595 -0.00095204 6.5799e-05 -0.00013331 0.0022272 0.0020915
-0.011787 0.0031132 0.20107 0.25883
1580000000 0.29917 0.058736 -0.0064658 0.012989 -0.0010896 -0.0049637 0.0016652 0.0019596
-0.00013853 -0.0022247 -0.0002804 0.00038019
-0.0064739 0.012977 0.17919 0.29653 0.0054326 0.0077748 0.00043612 -0.0016885
-0.00060003 -0.00091443 -0.00020569 -0.00078215
-0.0010992 -0.0049467 0.0054717 0.0077404 0.33299 -0.11008 -0.0016594 0.0011294
-0.00032763 -0.0011907 0.00015921 -0.0006102
0.0016786 0.0019545 0.00042861 -0.0016892 -0.0016556 0.0011271 0.23319 0.095547
-0.011582 0.0094623 0.0027473 0.00037515
-0.00013786 -0.0022233 -0.00060707 -0.00090385 -0.00033606 -0.00119 -0.011565 0.009492
0.1832 0.15981 -0.0089978 0.0084235
-0.00028382 0.0003749 -0.0002203 -0.00079542 0.0001423 -0.00062752 0.0027513 0.00036439
-0.0089812 0.008449 0.23137 0.23152
1640000000 0.30022 0.016542 -0.0002891 0.011208 -0.0030023 -0.00269 0.0028434 0.00082912
-0.00075527 -0.0016594 -0.00027351 0.00063317
-0.00029978 0.011208 0.20843 0.27085 0.0058537 0.0031446 -0.00087254 -0.0017011
-0.00095675 -0.00024051 -0.00053527 -0.00059314
-0.0030283 -0.0026751 0.0058708 0.0031194 0.30445 -0.15941 -0.00035264 0.0017129
-0.001237 -0.00083966 -0.00022116 -0.0002913
0.0028534 0.00080935 -0.00088487 -0.001698 -0.000359 0.0017163 0.24394 0.047754
-0.006638 0.010595 0.0027639 -0.0012716
-0.00077547 -0.0016559 -0.00095435 -0.00023338 -0.0012348 -0.00083494 -0.0066148 0.010615
0.20512 0.13413 -0.0038453 0.010092
-0.00027355 0.00063969 -0.00054521 -0.00058588 -0.00023366 -0.00028091 0.0027656 -0.0012849
-0.0038514 0.010098 0.25628 0.19914
1700000000 0.29095 -0.02887 0.0025174 0.0081166 -0.0035987 0.00012524 0.0029385 -0.0015122
-0.002097 -0.0007218 0.00069959 0.00032777
0.0025022 0.008116 0.22553 0.2393 0.0038222 0.00036338 -0.0015497 -0.00048106
-0.00062725 0.00013367 -0.00087443 -0.00043222
-0.0035904 0.00013845 0.0038295 0.00033808 0.26053 -0.19892 0.00079676 0.0014372
-0.0018257 -8.6968e-05 -0.00061472 -0.00084116
0.0029379 -0.0015288 -0.0015505 -0.00047742 0.0007977 0.0014379 0.2394 0.00023568
-0.0032393 0.010641 0.0015622 -0.0025088
-0.0020981 -0.00071045 -0.00062628 0.00013729 -0.0018285 -7.7705e-05 -0.0032142 0.010652
0.22058 0.11311 0.00087599 0.010098
0.00070924 0.00032951 -0.00087751 -0.00042112 -0.00061729 -0.00081692 0.0015702 -0.0025079
0.00088882 0.010107 0.27085 0.16404
1760000000 0.27786 -0.076861 0.0040319 0.0048819 -0.0024666 0.0010493 0.00091498 -0.0035354
-0.0015067 0.00072422 0.00037665 -0.00051727
0.0040238 0.0048859 0.25139 0.19934 0.0015826 -0.0015767 -0.0012157 0.00028703
-0.00092306 0.00079124 -0.00060843 0.0004175
-0.0024616 0.0010649 0.0015609 -0.0015899 0.21254 -0.23256 0.0012054 0.00064673
-0.0011224 0.0015761 -0.0013344 -0.00025185
0.00089827 -0.0035389 -0.0012144 0.00029428 0.0012083 0.00064541 0.23109 -0.048768
0.00021267 0.0093778 -0.00032455 -0.0028383
-0.0014931 0.00075054 -0.00091383 0.00079803 -0.0011178 0.0015838 0.00023347 0.0093849
0.23446 0.077619 0.0048979 0.0071353
0.00035859 -0.0004931 -0.00061677 0.00043038 -0.0013268 -0.00025202 -0.00032986 -0.0028612
0.0049037 0.0071194 0.28287 0.12626
1820000000 0.25182 -0.11392 0.003734 0.0017815 -2.9606e-05 0.0026582 -0.0013794 -0.0028499
-0.0011521 0.0011627 -0.00011773 -9.7777e-05
0.0037338 0.0017821 0.26058 0.1689 -0.00054903 -0.00021138 -0.0011544 0.0010718
-2.9896e-05 0.0011405 -0.00053918 0.0005188
-6.5848e-07 0.0026482 -0.0005437 -0.0002046 0.16108 -0.24884 0.0011776 0.00021447
-7.0291e-05 0.0022304 -0.0013275 0.00044491
-0.0013985 -0.0028387 -0.0011459 0.0010811 0.0011822 0.00022155 0.20217 -0.094706
0.0017598 0.0074279 -0.0018069 -0.0018397
-0.0011406 0.0011665 -2.9256e-05 0.0011464 -8.5134e-05 0.0022444 0.0017732 0.007432
0.24956 0.04764 0.0057448 0.0032054
-0.00012681 -9.2584e-05 -0.00052609 0.0005217 -0.0013226 0.0004496 -0.0018084 -0.0018481
0.0057576 0.0032069 0.28409 0.088529
1880000000 0.21575 -0.15265 0.0012659 2.6583e-06 -0.00031285 0.0022304 -0.0030272 -0.0017346
-0.00015689 0.0018133 0.00016944 -0.00038983
0.0012629 5.9734e-06 0.26462 0.12274 -0.0025971 0.0017118 -4.1333e-05 0.0016595
0.00043641 0.0010853 0.0001019 0.00099205
-0.0003064 0.0022292 -0.0025856 0.0017285 0.10778 -0.25745 0.0015095 -0.00081529
0.0016119 0.0017832 -0.00067607 0.001434
-0.003036 -0.0017227 -3.8745e-05 0.001654 0.0015102 -0.00080952 0.16359 -0.13424
0.0026339 0.0050171 -0.0025484 0.00013791
-0.00015218 0.0018206 0.00044003 0.0010819 0.0016235 0.0017728 0.002641 0.0050178
0.25107 0.015424 0.0054109 0.00082942
0.00017817 -0.00039782 0.00011849 0.00099425 -0.00068709 0.0014657 -0.0025558 0.00015351
0.0053984 0.00083132 0.28253 0.05486
1940000000 0.17633 -0.1783 -0.00089651 -0.0011934 0.0015822 0.001884 -0.0035284 0.00073396
0.0016025 0.0010545 -0.00040067 -0.00047358
-0.00088858 -0.001199 0.26492 0.090574 -0.0011647 0.003985 0.0010333 0.0011521
0.0015921 0.00061551 0.00088688 0.0004834
0.00159 0.0018615 -0.0011413 0.0039921 0.062633 -0.25095 0.00035849 -0.0017386
0.0021973 0.00035069 0.00043206 0.0017805
-0.0035194 0.00075294 0.0010321 0.0011445 0.00036369 -0.001732 0.11276 -0.16576
0.0018149 0.0032947 -0.0016306 0.0013604
0.0016104 0.0010401 0.0016034 0.00060679 0.0022035 0.00035196 0.0018282 0.0032908
0.25188 -0.024043 0.0039 -0.0025487
-0.00038843 -0.00046073 0.00089058 0.00049226 0.00045131 0.0017437 -0.0016384 0.0013626
0.0039017 -0.0025421 0.27078 0.017328
2000000000 0.12909 -0.19218 -0.0045734 0.0011977 0.0024315 0.0015271 -0.0021041 0.0033335
0.0012387 0.00010918 -0.00047308 0.00025596
-0.0045625 0.0011996 0.24995 0.055151 -0.00090347 0.0057328 0.0015318 0.00022789
0.0012989 -0.0010624 0.00059454 0.00011269
0.0024376 0.0015015 -0.00086255 0.0057432 0.017918 -0.2359 -0.00090463 -0.0010694
0.0018197 -0.0011009 0.0017267 0.00093422
-0.002078 0.0033442 0.0015349 0.00022835 -0.0009021 -0.0010654 0.059176 -0.17701
-3.8701e-05 0.0024502 -0.00029706 0.0022423
0.0012551 9.332e-05 0.0012856 -0.0010709 0.0018162 -0.0011062 -3.4986e-05 0.0024497
0.24422 -0.057774 0.00032288 -0.0034996
