!Keysight Technologies,M9804A,MY58100912,A.14.10.03
!Date: Thursday, April 27, 2023 10:28:33
!Correction: S11(C  6-Port  ) 
!S12(C  6-Port  ) 
!S13(C  6-Port  ) 
!S14(C  6-Port  ) 
!S15(C  6-Port  ) 
!S16(C  6-Port  ) 
!S21(C  6-Port  ) 
!S22(C  6-Port  ) 
!S23(C  6-Port  ) 
!S24(C  6-Port  ) 
!S25(C  6-Port  ) 
!S26(C  6-Port  ) 
!S31(C  6-Port  ) 
!S32(C  6-Port  ) 
!S33(C  6-Port  ) 
!S34(C  6-Port  ) 
!S35(C  6-Port  ) 
!S36(C  6-Port  ) 
!S41(C  6-Port  ) 
!S42(C  6-Port  ) 
!S43(C  6-Port  ) 
!S44(C  6-Port  ) 
!S45(C  6-Port  ) 
!S46(C  6-Port  ) 
!S51(C  6-Port  ) 
!S52(C  6-Port  ) 
!S53(C  6-Port  ) 
!S54(C  6-Port  ) 
!S55(C  6-Port  ) 
!S56(C  6-Port  ) 
!S61(C  6-Port  ) 
!S62(C  6-Port  ) 
!S63(C  6-Port  ) 
!S64(C  6-Port  ) 
!S65(C  6-Port  ) 
!S66(C  6-Port  ) 
!S6P File: Measurement: :
# Hz S  RI   R 50
500000000 -0.33943 -0.021555 -0.010366 -0.0034525 -0.0077324 0.01243 -0.0031784 0.01235
0.011621 0.0034379 -0.0028266 0.0085555
-0.01036 -0.0034495 -0.41914 -0.040456 0.0068448 -0.012035 0.0017675 0.012313
0.0072962 0.0022121 0.0018964 0.013579
-0.0077235 0.012427 0.0068345 -0.012058 -0.26333 0.22002 0.006937 0.0033916
-0.00072128 0.0077191 0.0018306 0.011462
-0.0031625 0.012358 0.0017931 0.01233 0.0069423 0.0033941 -0.33227 0.057948
-0.019706 -0.0059544 0.01507 0.023905
0.011621 0.003409 0.007308 0.0021989 -0.0007194 0.0077133 -0.019703 -0.005928
-0.23384 -0.17057 -0.025393 0.0056028
-0.0028124 0.008552 0.001938 0.013599 0.0018375 0.011467 0.015072 0.023903
-0.025404 0.0055715 -0.28321 -0.090712
560000000 -0.31243 0.13457 -0.026026 -0.060979 0.00094884 0.011513 0.0052493 0.0097243
0.0094543 0.0047018 0.0098338 0.007191
-0.025969 -0.060907 -0.37394 0.11517 -0.042116 -0.034915 0.013394 0.003575
-0.012511 -0.0039031 0.0040824 -0.0016191
0.00098103 0.011509 -0.042249 -0.034856 -0.18073 0.26503 -0.00033515 -0.0046173
0.018249 0.0038491 0.0068876 -0.0064342
0.0052601 0.0097243 0.013442 0.0035584 -0.00034056 -0.0046251 -0.30569 0.1459
0.0010865 -0.024416 0.0035339 -0.019001
0.0094574 0.0047049 -0.012548 -0.003879 0.018258 0.0038489 0.0010725 -0.02443
-0.28718 0.0011559 0.005096 -0.047857
0.0098443 0.0071637 0.0040836 -0.0016154 0.0068904 -0.006437 0.0035296 -0.019005
0.0051201 -0.047869 -0.3299 0.050372
620000000 -0.27127 0.11995 -0.023119 0.0072553 0.0038719 0.0079797 0.0071792 -0.0052326
0.011241 -0.0016014 0.00033819 -0.0022914
-0.023105 0.0072599 -0.40129 0.069609 -0.019209 0.00034479 -0.0013633 -0.0017694
0.010671 -0.0067419 0.00098545 -0.0024736
0.0038861 0.0079671 -0.019238 0.00039545 -0.15036 0.2742 -0.0010262 -0.0048147
-0.0037849 -0.0025821 0.0077709 -0.0030336
0.0071601 -0.0052535 -0.0013696 -0.0017521 -0.0010238 -0.0048138 -0.26372 0.15681
-0.040209 -0.017334 0.01289 0.023805
0.011247 -0.001616 0.010662 -0.0067774 -0.0037917 -0.0025756 -0.040208 -0.017307
-0.20879 -0.037178 -0.039616 0.014687
0.00034402 -0.002307 0.00097397 -0.0024848 0.0077684 -0.0030438 0.012894 0.023804
-0.039623 0.014672 -0.25457 0.021388
680000000 -0.22813 0.20227 -0.027646 -0.012723 0.0052526 0.0046164 0.0011589 -0.0071408
-0.0030243 -0.010555 0.004011 -0.0066456
-0.027619 -0.012729 -0.38521 0.16503 -0.032222 9.9697e-05 -0.0015796 -0.00030803
-0.00248 -0.0087476 -0.0017478 -0.0020608
0.0052609 0.0046118 -0.032249 0.00018114 -0.099443 0.29336 -0.00091613 -0.00020459
-0.0018171 0.00051046 -0.0034925 -0.0086726
0.0011593 -0.0071402 -0.0015953 -0.00030203 -0.00090766 -0.00021492 -0.21723 0.20665
-0.025848 -0.0056368 -0.0094209 -0.0083814
-0.0030638 -0.010556 -0.0025098 -0.0087537 -0.0018133 0.00051289 -0.025869 -0.0056169
-0.25147 0.061474 -0.0066803 -0.0071515
0.0039949 -0.006659 -0.0017535 -0.0020553 -0.0034927 -0.0086759 -0.009434 -0.0083743
-0.0066774 -0.0071459 -0.25489 0.11788
740000000 -0.18491 0.1966 -0.037348 0.026324 0.012035 -0.0057345 -0.00090583 -0.0041434
-0.0046758 -0.0028352 -0.005778 0.0029805
-0.037332 0.026268 -0.33324 0.18421 -0.033462 0.034718 -0.00090072 -0.0063947
-0.011568 0.0075495 -0.0016151 -0.0052131
0.012028 -0.0057518 -0.033398 0.034832 -0.065411 0.29223 -0.0016763 0.0029892
-0.0028653 -0.0043275 -0.0018398 0.0010263
-0.00092585 -0.004136 -0.00092955 -0.0063948 -0.0016782 0.002992 -0.19991 0.21404
-0.042598 -0.0033473 0.022562 0.012195
-0.0046987 -0.0028359 -0.011546 0.0076041 -0.0028658 -0.0043401 -0.042606 -0.0033034
-0.15778 0.083897 -0.039135 0.0034615
-0.0057647 0.0029847 -0.0016436 -0.0052211 -0.0018359 0.0010243 0.022576 0.012178
-0.039124 0.0034452 -0.24287 0.12608
800000000 -0.15204 0.23534 -0.021832 0.017366 0.0044964 -0.010125 -0.0045858 -0.0016782
-0.0033392 0.0027785 0.00382 0.00062922
-0.021822 0.017343 -0.33488 0.2534 -0.0070191 0.033697 -0.0024361 0.0022549
-0.00041735 0.003304 0.0012129 0.005173
0.0044672 -0.010135 -0.006941 0.033748 -0.02352 0.31486 0.00090767 0.0016605
0.0004889 0.0036518 -0.0016722 0.0010382
-0.0045925 -0.0016618 -0.0024323 0.0022702 0.00090832 0.0016603 -0.17007 0.24117
-0.027163 0.016293 0.013025 -0.0096958
-0.0033206 0.0027899 -0.00039896 0.0033156 0.00049382 0.0036596 -0.027154 0.01635
-0.19694 0.11033 -0.016484 0.01837
0.0038258 0.00062571 0.0012363 0.0051672 -0.0016619 0.0010388 0.013015 -0.0097117
-0.016496 0.018344 -0.23239 0.17446
860000000 -0.11663 0.25531 -0.01616 0.031009 -0.0038183 -0.0093173 -0.0022111 0.0010807
0.0045734 0.0043069 -0.0029209 -0.0025183
-0.01616 0.030967 -0.28679 0.29484 0.0089026 0.033194 0.00019756 0.0023058
0.0045004 -0.00010487 0.0031175 0.00036791
-0.0038514 -0.0093027 0.0090089 0.033202 0.025877 0.32188 -0.00041483 -6.2341e-05
0.0026503 -0.001323 0.0015304 0.0042378
-0.0021998 0.001087 0.0002008 0.0022966 -0.00041505 -6.0721e-05 -0.13254 0.25172
-0.01523 0.02033 -0.0058135 -0.00901
0.0045855 0.0042837 0.0045048 -0.00012197 0.0026527 -0.0013234 -0.015214 0.020364
-0.14457 0.15657 -0.022252 0.016291
-0.002935 -0.0025052 0.0031315 0.00035309 0.0015343 0.0042383 -0.0058158 -0.0090065
-0.022256 0.016285 -0.18256 0.21459
920000000 -0.090684 0.27705 0.0061233 0.037139 -0.0091846 -0.003641 -0.0014392 0.0018587
0.0012837 0.001423 0.0025838 -0.0017388
0.0061061 0.037099 -0.25684 0.31492 0.028045 0.020454 0.0017633 0.00084166
0.0067671 -0.000717 0.0035009 -0.0028285
-0.0091945 -0.0036189 0.028149 0.020396 0.072689 0.3211 0.0019344 -0.0001719
0.0014696 -0.00067811 0.00079814 -0.0010466
-0.0014215 0.00187 0.0017453 0.00082653 0.0019407 -0.00018084 -0.10736 0.26685
-0.0077132 0.030581 0.0023551 -0.0062467
0.0012945 0.0014176 0.0067713 -0.00073015 0.0014734 -0.00068105 -0.0076774 0.030622
-0.13208 0.16173 -0.0007309 0.025896
0.0025799 -0.0017395 0.0035075 -0.0028575 0.00079524 -0.0010522 0.0023576 -0.0062562
-0.00075481 0.025879 -0.18396 0.2289
980000000 -0.043329 0.29533 0.018341 0.028698 -0.008234 0.0048188 0.0020635 0.0030577
0.003969 -0.0016945 -0.0030988 -0.0020765
0.018327 0.028678 -0.20452 0.34822 0.032249 0.00349 0.0020546 -0.00029089
0.0014765 -0.0060169 -0.00048665 -0.002268
-0.0082131 0.0048344 0.032294 0.0034145 0.11928 0.31372 0.00050343 -0.0013162
0.00017458 -0.0022133 0.001442 -0.00019488
0.0020714 0.0030613 0.0020519 -0.00031624 0.00049947 -0.0013216 -0.068127 0.27717
0.010257 0.028688 -0.0083834 -0.0059898
0.0039743 -0.0017174 0.0014341 -0.006024 0.00018287 -0.002218 0.010301 0.028672
-0.10005 0.18772 0.0061352 0.018395
-0.003112 -0.0020576 -0.00047796 -0.0022827 0.0014401 -0.00019447 -0.0083872 -0.0059821
0.0061243 0.018407 -0.13942 0.26895
1040000000 -3.0309e-05 0.30211 0.032916 0.016231 -0.00089835 0.006622 0.002493 0.00051237
0.00024313 -0.0031689 -0.0005953 -0.0012258
0.032898 0.016206 -0.1682 0.36069 0.027753 -0.015347 0.0014379 -0.0016869
-0.0021731 -0.0023692 -0.0013307 -0.0026597
-0.00088586 0.006613 0.027747 -0.015443 0.16593 0.29849 -0.00056911 -0.0014234
-0.0015763 -0.00090454 -0.00040606 -0.0010758
0.0024991 0.00051875 0.0014208 -0.0017105 -0.00055581 -0.0014288 -0.039119 0.28561
0.020649 0.01587 -0.0024533 0.0013345
0.00023611 -0.0031809 -0.0022058 -0.0023397 -0.0015749 -0.00090522 0.020678 0.015848
-0.066837 0.19365 0.013367 0.016051
-0.00061379 -0.0012063 -0.0013425 -0.0026836 -0.00040268 -0.0010746 -0.0024568 0.0013342
0.013364 0.016061 -0.11468 0.28823
1100000000 0.045123 0.30862 0.034464 -0.0054274 0.0028547 0.0035396 0.0021662 -0.0011904
-0.0019244 -0.0028901 -0.0035943 0.0003275
0.034441 -0.0054112 -0.12511 0.3772 0.013713 -0.027238 -0.00012088 -0.0018266
-0.0031062 -0.00067675 -0.0032677 -0.00036011
0.0028666 0.0035216 0.01364 -0.027306 0.21175 0.27684 -0.0018372 0.00021006
-0.0017375 0.00059598 -0.00091962 -0.00036881
0.0021714 -0.0011986 -0.00013078 -0.0018375 -0.0018393 0.00021028 0.0015962 0.28876
0.024651 0.0028213 -0.00246 0.00011768
-0.0019371 -0.0028883 -0.0031216 -0.00065383 -0.0017333 0.00060111 0.024649 0.0027778
-0.048928 0.20594 0.018261 0.0064849
-0.0035915 0.00033824 -0.0032665 -0.00035399 -0.0009146 -0.00037289 -0.002458 0.00012664
0.01825 0.0064953 -0.068469 0.31292
1160000000 0.096775 0.30252 0.022272 -0.021057 0.0024568 -0.00050226 -0.00015059 -0.0021774
-0.0038728 -0.00055042 -0.00074156 0.0036681
0.022288 -0.021036 -0.080271 0.38078 -0.0045098 -0.027895 -0.0016589 -0.0015417
-0.0024312 0.0023654 -0.0012407 0.0015451
0.0024605 -0.00052292 -0.0046161 -0.027889 0.25469 0.24495 -0.00076024 0.0017798
-0.00050988 0.0018435 -0.00088774 3.8703e-05
-0.00015698 -0.0021641 -0.0016668 -0.0015487 -0.00076785 0.0017703 0.041544 0.28385
0.020073 -0.012192 -0.0030453 0.0045468
-0.0038767 -0.00052474 -0.0024357 0.0023939 -0.00051082 0.0018579 0.02006 -0.012223
-0.014961 0.21309 0.016437 -0.0011142
-0.00072428 0.0036729 -0.0012126 0.0015493 -0.00089129 3.5576e-05 -0.0030433 0.0045527
0.016438 -0.0011073 -0.020946 0.3139
1220000000 0.14107 0.28914 0.0088841 -0.029179 -0.0015461 -0.00054599 3.1366e-05 -0.00090301
-0.0023326 0.0022862 0.0012668 0.0017535
0.0088943 -0.029151 -0.036562 0.39135 -0.01675 -0.019812 -0.0023989 0.00044082
2.8933e-05 0.0027903 -0.00061059 0.001821
-0.001553 -0.00054904 -0.01685 -0.019758 0.29308 0.20469 0.00077391 0.0017388
0.00063388 0.0011736 0.00035569 0.00051965
2.81e-05 -0.00090029 -0.0024023 0.00044167 0.00077245 0.001744 0.080996 0.27289
0.0093506 -0.018112 0.001654 0.0014105
-0.0023172 0.0022915 3.4374e-05 0.0027948 0.00063364 0.0011835 0.0093249 -0.018133
0.0084878 0.21964 0.011847 -0.012719
0.0012823 0.0017455 -0.00059629 0.0018185 0.00035857 0.00052049 0.0016507 0.0014098
0.011841 -0.012716 0.011633 0.32626
1280000000 0.18988 0.26606 -0.0084886 -0.026954 -0.0015448 0.0026605 -0.0009612 -0.0018855
-0.00058581 0.0028749 0.0022713 0.00083669
-0.0084691 -0.026933 0.009048 0.3821 -0.022839 -0.0076972 -0.00098566 0.0013727
0.0015582 0.0016744 0.00064388 0.0017611
-0.0015225 0.0026685 -0.022902 -0.0076087 0.32308 0.16052 0.0015453 3.9486e-05
0.0010354 0.00024971 0.00028612 0.00014706
-0.0009649 -0.0018855 -0.00098123 0.0013831 0.0015503 3.7801e-05 0.11689 0.25483
-0.00016598 -0.019545 -0.00041413 0.0003861
-0.00057657 0.0028741 0.0015778 0.0016616 0.0010335 0.00024874 -0.00020328 -0.019555
0.044866 0.22186 0.0015994 -0.014358
0.0022795 0.00083443 0.00064672 0.0017567 0.00028729 0.00014605 -0.00041321 0.00038924
0.0016062 -0.014352 0.058015 0.32515
1340000000 0.22638 0.23072 -0.017424 -0.017538 0.001169 0.0041271 -0.0015812 -0.00084109
0.0014511 0.0025051 0.0014051 -0.0014392
-0.017401 -0.017546 0.048401 0.37286 -0.020524 0.0044146 -0.00017871 0.0020335
0.0018717 0.00084436 0.0013064 0.00064986
0.001186 0.0041268 -0.020524 0.0045054 0.34484 0.11169 0.0012404 -0.00089335
0.00063863 -0.00048986 6.4634e-05 0.00020821
-0.0015863 -0.00083167 -0.00017166 0.0020337 0.0012357 -0.00088685 0.1486 0.23248
-0.0093035 -0.016529 0.00072681 0.00096549
0.0014587 0.0024907 0.0018896 0.00083184 0.00064285 -0.00049296 -0.0093364 -0.016519
0.074626 0.21495 -0.0043659 -0.012529
0.0013962 -0.0014566 0.0013165 0.00065082 6.5995e-05 0.00020885 0.00071915 0.00096976
-0.0043688 -0.012531 0.096713 0.31724
1400000000 0.25776 0.19162 -0.022344 -0.0065295 0.0050595 0.002665 -0.0020372 0.00047549
0.0022244 0.00071946 0.00016108 -0.0013386
-0.022315 -0.0065479 0.084809 0.35958 -0.013966 0.011979 0.0013014 0.0014051
0.0012256 -0.00069991 0.0011573 9.4837e-05
0.0050699 0.0026461 -0.013924 0.012051 0.35703 0.057549 0.00016972 -0.0018299
2.9289e-05 -0.00042652 0.00027226 0.00012083
-0.0020457 0.00047716 0.0013088 0.0013992 0.00016607 -0.0018352 0.17616 0.20246
-0.015031 -0.0098854 -0.0005349 0.00019999
0.0022261 0.0007136 0.0012162 -0.00070058 3.3327e-05 -0.00042829 -0.015061 -0.0098529
0.10601 0.20892 -0.010078 -0.0076875
0.00015441 -0.0013442 0.0011567 9.1649e-05 0.00027522 0.00011861 -0.0005311 0.00019833
-0.010066 -0.0076974 0.13952 0.30363
1460000000 0.2798 0.14739 -0.019326 0.0047468 0.0052561 -0.0020524 -0.0016139 0.001542
0.0018334 -0.00054516 -0.00032978 -0.00089013
-0.019319 0.00474 0.11923 0.33767 -0.0058526 0.014507 0.0017884 0.00019713
0.00090373 -0.0012744 0.0011169 -0.00054097
0.0052413 -0.0020719 -0.0057833 0.014538 0.36239 0.0028088 -0.0014246 -0.0013685
0.00012028 -0.0001714 0.00058003 -0.00034712
-0.0016131 0.0015382 0.0017858 0.00018607 -0.0014286 -0.0013717 0.20095 0.17266
-0.016325 -0.0032046 -0.00045312 0.0021485
0.00183 -0.0005646 0.00088928 -0.0012904 0.0001228 -0.00017037 -0.016318 -0.003181
0.13458 0.19312 -0.011217 -0.0022441
-0.00032789 -0.00088604 0.0011109 -0.00055177 0.00057863 -0.00034914 -0.00045937 0.0021311
-0.011219 -0.0022415 0.17211 0.28128
1520000000 0.29086 0.1047 -0.013825 0.0098608 0.0027997 -0.0040458 4.3184e-05 0.0025825
0.0019081 -0.0015259 -0.0010577 -0.00014727
-0.013826 0.009843 0.15243 0.3221 0.0012838 0.012494 0.0017197 -0.00088216
6.3135e-05 -0.0011996 0.00028096 -0.00096381
0.0027806 -0.0040549 0.0013519 0.012501 0.35456 -0.054287 -0.0014194 -0.00036451
0.00046621 -0.00088253 -4.8577e-05 -0.00010123
5.3619e-05 0.0025823 0.0017157 -0.00089194 -0.0014214 -0.00036468 0.22186 0.13427
-0.015784 0.0027072 0.0017344 0.0018702
0.0019087 -0.0015412 5.731e-05 -0.0011996 0.00046586 -0.00088481 -0.015768 0.0027396
0.16109 0.17733 -0.011069 0.0018345
-0.001054 -0.00014465 0.00027897 -0.00096449 -4.7911e-05 -0.00010151 0.0017369 0.0018641
-0.01107 0.001833 0.20424 0.25812
1580000000 0.29913 0.058698 -0.0076943 0.012625 -0.0011356 -0.0044596 0.0014351 0.0019555
-0.00013554 -0.0019936 -0.00033919 0.00033685
-0.0076931 0.012619 0.17953 0.29732 0.0047313 0.0079946 0.000451 -0.0017189
-0.00060507 -0.0011329 -0.0002264 -0.00082022
-0.0011523 -0.0044609 0.0047825 0.0079792 0.33346 -0.11128 -0.0016704 0.00092387
-0.00023494 -0.0010978 0.00011305 -0.00047884
0.0014508 0.0019488 0.00043561 -0.0017251 -0.0016688 0.0009258 0.234 0.095884
-0.012616 0.0079778 0.0022984 0.00054397
-0.00014026 -0.0019989 -0.00060746 -0.0011353 -0.00024012 -0.0011042 -0.012607 0.0080014
0.18408 0.15863 -0.0089724 0.0070511
-0.00033834 0.00034085 -0.00023057 -0.0008215 0.00011217 -0.00048147 0.0023028 0.00053297
-0.0089724 0.0070512 0.23431 0.23024
1640000000 0.30053 0.016636 -0.0014944 0.011616 -0.0026709 -0.002236 0.0027351 0.00097804
-0.0005853 -0.0015287 -0.00028191 0.00067264
-0.0015027 0.011603 0.20919 0.27138 0.0054772 0.0036475 -0.00083851 -0.0017221
-0.0011422 -0.00033593 -0.00051934 -0.00054321
-0.0026796 -0.0022248 0.0054971 0.0036129 0.30447 -0.16056 -0.00052123 0.0016147
-0.0010965 -0.00080689 -0.0001375 -0.00013225
0.0027459 0.00097212 -0.00084529 -0.0017144 -0.0005214 0.001628 0.24509 0.04769
-0.0083039 0.0099791 0.0024781 -0.0010006
-0.0005868 -0.0015261 -0.0011369 -0.00033126 -0.0010933 -0.00081063 -0.0082797 0.0099972
0.20556 0.13318 -0.0045106 0.008876
-0.00027695 0.00067734 -0.00052268 -0.00054218 -0.00014025 -0.00013086 0.0024804 -0.0010099
-0.0045108 0.008868 0.25904 0.1973
1700000000 0.29174 -0.028967 0.0017169 0.009097 -0.0032247 0.0001911 0.0029852 -0.001293
-0.0019476 -0.00076358 0.00063593 0.00041279
0.0017097 0.0090906 0.22654 0.23948 0.0037532 0.00088848 -0.0015424 -0.0004797
-0.0008168 0.00027289 -0.0008096 -0.00039769
-0.0032236 0.00019486 0.0037594 0.00086753 0.26026 -0.20009 0.00066979 0.0015228
-0.001746 -0.00016964 -0.00040894 -0.00072769
0.0029833 -0.0013102 -0.0015493 -0.00047153 0.00066943 0.0015229 0.24071 -0.00034319
-0.0048182 0.011047 0.0014647 -0.0021806
-0.0019446 -0.00074654 -0.00081495 0.00027858 -0.0017478 -0.0001716 -0.0047964 0.011058
0.22094 0.1124 -5.3379e-05 0.0093307
0.00064005 0.0004077 -0.00081154 -0.00039128 -0.00041451 -0.00072796 0.0014625 -0.0021871
-5.1345e-05 0.009331 0.27303 0.16181
1760000000 0.27863 -0.077463 0.0039358 0.0060725 -0.0020784 0.00088137 0.0010746 -0.0034535
-0.0015014 0.00057467 0.00053116 -0.00040285
0.0039284 0.0060634 0.25239 0.19906 0.0017326 -0.0010342 -0.0012146 0.00031034
-0.00093336 0.0010097 -0.00058977 0.00047329
-0.0020742 0.00088668 0.0017307 -0.0010489 0.21158 -0.23322 0.0012996 0.00077613
-0.0011219 0.0015444 -0.0012275 -0.00035321
0.0010628 -0.0034503 -0.0012179 0.0003226 0.0012997 0.00076815 0.23207 -0.049993
-0.00077029 0.010519 -0.0003288 -0.0024581
-0.0014952 0.00060153 -0.00092183 0.0010197 -0.0011165 0.0015491 -0.00073588 0.010522
0.23468 0.077164 0.0035537 0.006936
0.00052704 -0.00040929 -0.0005849 0.00047829 -0.0012349 -0.00034735 -0.00033624 -0.0024587
0.0035591 0.0069246 0.28441 0.12361
1820000000 0.25219 -0.11479 0.0042091 0.0026914 6.9172e-05 0.0023897 -0.0011736 -0.0029244
-0.00119 0.0010353 8.2828e-05 -0.00014749
0.0042002 0.0026885 0.26137 0.16824 -9.0512e-05 0.00012476 -0.0011401 0.0010296
0.00018267 0.0012953 -0.00047538 0.0005329
7.6649e-05 0.0023924 -9.3857e-05 0.00012481 0.16039 -0.24822 0.0014147 6.7943e-05
-8.7944e-05 0.0022285 -0.0013617 0.00037248
-0.0011886 -0.0029221 -0.0011331 0.0010286 0.0014174 7.4284e-05 0.20241 -0.096262
0.00153 0.0086065 -0.001577 -0.0014569
-0.0011866 0.001047 0.00018768 0.0012924 -7.8718e-05 0.0022393 0.0015511 0.0086109
0.25006 0.047396 0.0046371 0.0036465
8.1064e-05 -0.00014671 -0.00047021 0.00053535 -0.0013704 0.00037251 -0.0015774 -0.0014482
0.0046301 0.0036446 0.28507 0.085873
1880000000 0.2157 -0.15374 0.0020391 0.0004843 -0.00040627 0.0019323 -0.0029148 -0.0019032
-0.00028076 0.0018502 0.00019216 -0.00054973
0.0020393 0.00048005 0.26499 0.12186 -0.0021966 0.0016806 -5.1008e-05 0.0016179
0.00069392 0.00095662 0.00015356 0.00092678
-0.00039445 0.0019328 -0.0021971 0.0016933 0.10764 -0.25727 0.0014165 -0.0010628
0.0016062 0.0017012 -0.00082233 0.0012774
-0.0029242 -0.0018854 -4.0602e-05 0.0016269 0.0014181 -0.0010513 0.16318 -0.13564
0.0029651 0.0060038 -0.0022144 0.00025563
-0.00026921 0.0018515 0.00071079 0.00095999 0.0016162 0.001695 0.0029937 0.006
0.25179 0.015112 0.0045239 0.0016117
0.00018704 -0.00055432 0.00016481 0.00092369 -0.00082048 0.0012816 -0.0022117 0.00025742
0.0045264 0.0016135 0.28311 0.052347
1940000000 0.17588 -0.17909 -7.2157e-05 -0.0010612 0.0013912 0.001747 -0.003554 0.00058669
0.0016077 0.0010838 -0.00057591 -0.00058033
-7.6383e-05 -0.0010621 0.26485 0.089764 -0.00095637 0.0038004 0.0010115 0.001106
0.0016961 0.00026357 0.00079056 0.00032868
0.0014037 0.0017379 -0.00092381 0.0038154 0.06223 -0.25068 8.8089e-05 -0.0016934
0.0021753 0.00027589 0.00026505 0.001491
-0.0035551 0.00060536 0.0010183 0.0010994 8.7851e-05 -0.0016974 0.11183 -0.16665
0.0024034 0.0038992 -0.0013004 0.0011752
0.0016185 0.0010603 0.0016899 0.00024992 0.0021793 0.00026269 0.0024165 0.0038951
0.25283 -0.024552 0.0036074 -0.0014502
-0.00058434 -0.00057631 0.00079343 0.00032245 0.00025661 0.0014874 -0.0012939 0.0011842
0.0036137 -0.0014571 0.2712 0.015007
2000000000 0.12864 -0.19271 -0.0037417 0.00094499 0.0023465 0.0015726 -0.0022301 0.0032896
0.0013238 1.8644e-05 -0.00060269 0.00034342
-0.0037353 0.00095309 0.24965 0.054486 -0.00080955 0.0055754 0.0014724 0.0001959
0.0010953 -0.0013176 0.00050341 0.0001051
