!Keysight Technologies,M9804A,MY58100912,A.14.10.03
!Date: Thursday, April 27, 2023 10:28:33
!Correction: S11(C  6-Port  ) 
!S12(C  6-Port  ) 
!S13(C  6-Port  ) 
!S14(C  6-Port  ) 
!S15(C  6-Port  ) 
!S16(C  6-Port  ) 
!S21(C  6-Port  ) 
!S22(C  6-Port  ) 
!S23(C  6-Port  ) 
!S24(C  6-Port  ) 
!S25(C  6-Port  ) 
!S26(C  6-Port  ) 
!S31(C  6-Port  ) 
!S32(C  6-Port  ) 
!S33(C  6-Port  ) 
!S34(C  6-Port  ) 
!S35(C  6-Port  ) 
!S36(C  6-Port  ) 
!S41(C  6-Port  ) 
!S42(C  6-Port  ) 
!S43(C  6-Port  ) 
!S44(C  6-Port  ) 
!S45(C  6-Port  ) 
!S46(C  6-Port  ) 
!S51(C  6-Port  ) 
!S52(C  6-Port  ) 
!S53(C  6-Port  ) 
!S54(C  6-Port  ) 
!S55(C  6-Port  ) 
!S56(C  6-Port  ) 
!S61(C  6-Port  ) 
!S62(C  6-Port  ) 
!S63(C  6-Port  ) 
!S64(C  6-Port  ) 
!S65(C  6-Port  ) 
!S66(C  6-Port  ) 
!S6P File: Measurement: :
# Hz S  RI   R 50
500000000 -0.34041 -0.02231 -0.011487 -0.0037831 -0.008541 0.01294 -0.0032665 0.012436
0.011609 0.0042458 -0.0029015 0.0088236
-0.011474 -0.0037767 -0.41994 -0.039899 0.0061229 -0.011159 0.0013627 0.012722
0.0073312 0.0021872 0.0013568 0.013689
-0.0084911 0.012956 0.0061705 -0.011208 -0.26473 0.22072 0.0066693 0.0040859
-0.0014629 0.0081102 0.0012069 0.012042
-0.0032226 0.012399 0.0014056 0.01276 0.0066634 0.0040792 -0.33289 0.058225
-0.020514 -0.0066685 0.014353 0.024057
0.011615 0.0042628 0.007339 0.0021467 -0.001471 0.0080128 -0.020527 -0.0066506
-0.23483 -0.17125 -0.0257 0.0040213
-0.0028392 0.0088165 0.0013928 0.013759 0.0012024 0.012032 0.014334 0.024068
-0.025679 0.0040217 -0.28388 -0.091582
560000000 -0.31449 0.1355 -0.026672 -0.060718 0.00089988 0.012156 0.0050501 0.010371
0.0097741 0.0048785 0.010372 0.0074307
-0.026567 -0.060611 -0.37554 0.11616 -0.042719 -0.034149 0.013245 0.0043376
-0.011462 -0.0034293 0.0028881 -0.00074262
0.00086657 0.012234 -0.04275 -0.034281 -0.18199 0.26651 -6.596e-05 -0.0045847
0.018357 0.0048919 0.0066024 -0.0064594
0.0051331 0.01034 0.013185 0.0042733 5.7689e-05 -0.0045346 -0.30609 0.14599
0.00055928 -0.023544 0.0032906 -0.018472
0.0097652 0.0048745 -0.011561 -0.0035779 0.01829 0.0048585 0.00056441 -0.023546
-0.28902 0.0022826 0.0034715 -0.046913
0.010409 0.0074592 0.0029295 -0.00080656 0.0066536 -0.0064495 0.0033078 -0.018465
0.003484 -0.04689 -0.33015 0.051317
620000000 -0.27238 0.12084 -0.023666 0.0078927 0.0040452 0.0083742 0.007673 -0.0053155
0.011191 -0.00070361 0.00072003 -0.0027324
-0.023645 0.0078913 -0.40201 0.070816 -0.019242 0.00085313 -0.0010925 -0.0020415
0.010639 -0.0061672 0.0012258 -0.0026599
0.0040521 0.0083177 -0.019285 0.00091968 -0.1506 0.27563 -0.00084212 -0.0052834
-0.0030875 -0.0020043 0.0083603 -0.0035837
0.0077004 -0.0053098 -0.0011002 -0.0020784 -0.0008039 -0.0052621 -0.26352 0.15749
-0.04115 -0.016967 0.012519 0.02441
0.011143 -0.00084758 0.01065 -0.0061772 -0.0031587 -0.0019631 -0.041209 -0.016976
-0.21063 -0.03662 -0.041127 0.015685
0.00081447 -0.0027932 0.0012433 -0.0026769 0.0082552 -0.003455 0.012522 0.024409
-0.04115 0.015638 -0.25856 0.021849
680000000 -0.22938 0.20432 -0.027868 -0.01168 0.0056283 0.0047157 0.0015349 -0.0071633
-0.0025688 -0.010809 0.0045265 -0.0069734
-0.027831 -0.011681 -0.38502 0.16614 -0.032095 0.00048749 -0.0012519 -0.00063625
-0.0020568 -0.009124 -0.0014533 -0.0022916
0.0056557 0.004699 -0.032143 0.00054521 -0.0986 0.29442 -0.00087112 -0.00053428
-0.0016396 -5.9812e-05 -0.0034919 -0.0087764
0.0015059 -0.0071738 -0.0012581 -0.00064489 -0.00086359 -0.00051893 -0.2174 0.20612
-0.025861 -0.0044945 -0.0089953 -0.008523
-0.0026068 -0.010823 -0.0020929 -0.0091494 -0.0016314 -8.5263e-05 -0.025885 -0.0044887
-0.25336 0.063099 -0.0080047 -0.0062839
0.0045422 -0.00698 -0.0014924 -0.0022836 -0.0035004 -0.0088096 -0.0090017 -0.0085203
-0.0079918 -0.0062795 -0.25479 0.12007
740000000 -0.18494 0.19819 -0.036084 0.027041 0.01253 -0.0057584 -0.00081241 -0.0043052
-0.0043824 -0.0028589 -0.0058695 0.0029891
-0.036076 0.026992 -0.33291 0.18475 -0.032977 0.03527 -0.001067 -0.0063426
-0.011985 0.0075223 -0.0023558 -0.0051794
0.012531 -0.0057772 -0.032962 0.035405 -0.064631 0.29217 -0.001905 0.0030414
-0.0029568 -0.0045839 -0.002104 0.00080262
-0.00082193 -0.004286 -0.001114 -0.0063585 -0.0019415 0.0030842 -0.19951 0.2145
-0.042893 -0.0026455 0.022939 0.013033
-0.0043969 -0.0027352 -0.012051 0.0075908 -0.0029572 -0.0045517 -0.042906 -0.0025993
-0.15704 0.085015 -0.039883 0.0045139
-0.0058529 0.0029344 -0.0023117 -0.0052027 -0.0021027 0.00074526 0.02295 0.013033
-0.03986 0.004495 -0.24377 0.12841
800000000 -0.15076 0.23641 -0.020982 0.017716 0.0048369 -0.010537 -0.0045588 -0.0016207
-0.0036875 0.0027017 0.0035843 0.00047523
-0.020976 0.017684 -0.33394 0.25351 -0.0066138 0.033825 -0.0023961 0.0022977
-0.00094069 0.0032576 0.00099248 0.0052961
0.0048487 -0.010567 -0.0065375 0.033902 -0.023157 0.3145 0.00076936 0.0018328
0.0004864 0.0036924 -0.0017188 0.0011276
-0.0045667 -0.001611 -0.0023939 0.0023078 0.00075869 0.0018275 -0.16992 0.24102
-0.027167 0.017168 0.013276 -0.010013
-0.003699 0.0027504 -0.00094372 0.0032821 0.00048865 0.0036675 -0.027168 0.01725
-0.1968 0.1119 -0.015927 0.019644
0.0035781 0.00047653 0.0010082 0.005323 -0.0017364 0.0011256 0.013275 -0.010044
-0.015944 0.01962 -0.23166 0.17512
860000000 -0.11534 0.25573 -0.015415 0.03059 -0.0035065 -0.0098434 -0.0021809 0.00091984
0.004401 0.0045674 -0.0027014 -0.0024178
-0.015404 0.03054 -0.28598 0.29442 0.0092791 0.033507 0.00027708 0.002028
0.004664 6.8625e-05 0.0031596 0.00047794
-0.0035449 -0.0098506 0.0094026 0.033493 0.025479 0.32174 -0.00043972 -5.2427e-05
0.0027212 -0.0013387 0.0019574 0.003999
-0.0021933 0.00094643 0.00025685 0.0020416 -0.00044533 -7.0722e-05 -0.13268 0.25133
-0.015052 0.02074 -0.005153 -0.0090151
0.0044267 0.0045469 0.0046018 -6.0222e-06 0.0027191 -0.0013921 -0.015055 0.020782
-0.14317 0.15827 -0.021239 0.017289
-0.0027064 -0.0024217 0.0031958 0.00047791 0.0019573 0.0040311 -0.005159 -0.0090073
-0.021237 0.017264 -0.18163 0.21522
920000000 -0.089185 0.27642 0.0066507 0.036447 -0.0095099 -0.0043699 -0.0013623 0.0014781
0.0014365 0.0014751 0.0027873 -0.0018445
0.0066342 0.036403 -0.25637 0.31462 0.028635 0.020359 0.0018907 0.00091377
0.0072338 -0.00071271 0.0037409 -0.0029758
-0.0094949 -0.0043426 0.028745 0.020284 0.072405 0.32164 0.0020207 -0.00023355
0.0016497 -0.00064943 0.00075415 -0.0012854
-0.0013587 0.0014685 0.0019115 0.00091819 0.0020402 -0.00023127 -0.10723 0.26713
-0.0069983 0.031309 0.002789 -0.0068242
0.0014408 0.0014612 0.0072332 -0.000763 0.001676 -0.00066985 -0.0069591 0.031341
-0.13091 0.16328 3.4149e-05 0.025795
0.0027983 -0.0018412 0.0037271 -0.0029615 0.00073563 -0.0012768 0.0027974 -0.0068377
2.2173e-05 0.025784 -0.18334 0.22998
980000000 -0.042504 0.29439 0.018585 0.028225 -0.0088632 0.0045312 0.0019238 0.002737
0.003903 -0.002035 -0.0032274 -0.0020153
0.018576 0.028216 -0.20462 0.34765 0.033032 0.0031745 0.0020994 -0.00035801
0.0016464 -0.006359 -0.00058158 -0.0023452
-0.0088551 0.0045613 0.033079 0.0030437 0.11915 0.31461 0.00040776 -0.0013609
5.0299e-05 -0.0024665 0.0012627 -0.00024365
0.0019169 0.0027202 0.0021079 -0.0003545 0.00040203 -0.0013717 -0.068178 0.2772
0.011354 0.029205 -0.0083811 -0.0064395
0.0038772 -0.002034 0.0016254 -0.0063871 5.4728e-05 -0.0024999 0.011426 0.0292
-0.098389 0.18871 0.006996 0.018809
-0.0032176 -0.0019887 -0.00059676 -0.0023496 0.0012642 -0.00024485 -0.0083956 -0.0064394
0.0069813 0.018806 -0.13852 0.26936
1040000000 0.00028 0.30136 0.033156 0.01568 -0.0013666 0.0067129 0.002217 0.00063659
7.775e-05 -0.0031452 -0.00089983 -0.0014188
0.033129 0.015665 -0.16885 0.36061 0.028229 -0.0161 0.0013306 -0.0017989
-0.0023883 -0.002636 -0.0015504 -0.002821
-0.0013477 0.00671 0.028185 -0.016238 0.16645 0.29981 -0.00067575 -0.0014623
-0.0016921 -0.00084818 -0.0006391 -0.00099505
0.0022111 0.00060796 0.0013358 -0.0017938 -0.00066329 -0.0014516 -0.039314 0.28605
0.022105 0.016038 -0.0026318 0.00082681
4.8297e-05 -0.0031246 -0.0024309 -0.0026212 -0.0017349 -0.00083617 0.022149 0.016013
-0.065718 0.19429 0.014463 0.01594
-0.0008999 -0.0014316 -0.0015771 -0.0028433 -0.00064183 -0.00101 -0.0026321 0.00083007
0.014446 0.015943 -0.11381 0.2889
1100000000 0.045132 0.3078 0.03468 -0.0061694 0.00266 0.0037151 0.0020395 -0.00094708
-0.0019691 -0.0028725 -0.0037925 0.00046931
0.034657 -0.0061502 -0.12585 0.37751 0.013685 -0.028421 -0.00014113 -0.0018209
-0.0035799 -0.00065963 -0.0034614 -0.00024229
0.002692 0.0036949 0.013577 -0.028519 0.21348 0.27773 -0.0019539 0.00027552
-0.0019161 0.00067318 -0.00098778 -0.00012123
0.0020379 -0.00095331 -0.00015233 -0.0018258 -0.0019373 0.00026072 0.0016766 0.28914
0.026229 0.0018202 -0.0027753 -0.00019016
-0.0019807 -0.0028621 -0.0035961 -0.00065481 -0.0019242 0.00065945 0.026253 0.0017863
-0.047485 0.20613 0.019158 0.0058503
-0.003803 0.00048702 -0.0034663 -0.00024173 -0.0010132 -0.00010348 -0.0027798 -0.0001842
0.019146 0.005862 -0.06781 0.31319
1160000000 0.096116 0.30204 0.022101 -0.02215 0.0022021 -0.00027798 -0.00012291 -0.0018765
-0.0039271 -0.00054022 -0.0007914 0.0038928
0.022115 -0.022123 -0.081011 0.38196 -0.0054598 -0.028733 -0.0016725 -0.0015068
-0.0027161 0.0028202 -0.0014714 0.0018042
0.0021783 -0.00026158 -0.0055774 -0.028745 0.25694 0.24473 -0.00076348 0.0018978
-0.00035563 0.0021561 -0.00075696 0.00031712
-0.0001204 -0.001878 -0.0016696 -0.0014817 -0.0007577 0.0018845 0.041701 0.28451
0.020948 -0.014018 -0.0033115 0.0042975
-0.0039323 -0.00052849 -0.0027048 0.0028263 -0.00035407 0.0021348 0.020949 -0.01405
-0.014308 0.21273 0.017601 -0.0020983
-0.00075896 0.0038986 -0.0014659 0.0018043 -0.00075993 0.00034532 -0.0033033 0.0042938
0.017593 -0.0020832 -0.020372 0.31459
1220000000 0.14051 0.28935 0.00797 -0.030096 -0.0017273 -0.00017946 0.00023845 -0.00087763
-0.0024392 0.0023183 0.0014 0.001996
0.0079885 -0.03006 -0.036332 0.39295 -0.017959 -0.019993 -0.0024618 0.00053513
0.00015002 0.0032122 -0.00049525 0.002154
-0.0017308 -0.00016581 -0.018072 -0.019956 0.29486 0.20297 0.00093064 0.001849
0.0008131 0.0012354 0.00038777 0.00055945
0.00022643 -0.00086917 -0.0024733 0.00056113 0.00093783 0.0018441 0.08183 0.27348
0.0090961 -0.020346 0.0011189 0.0013964
-0.0024445 0.0023281 0.0001702 0.0031996 0.00081804 0.0012331 0.009075 -0.020365
0.0089351 0.21961 0.011992 -0.014545
0.0014133 0.0019993 -0.0004899 0.0021586 0.000394 0.0005534 0.0011197 0.0013969
0.011978 -0.01453 0.012819 0.32683
1280000000 0.18965 0.26646 -0.010001 -0.027375 -0.0015334 0.003071 -0.00085487 -0.0020052
-0.00079354 0.0030435 0.0024375 0.00087747
-0.0099599 -0.027351 0.010202 0.38351 -0.024078 -0.0071718 -0.00090433 0.0014961
0.0019831 0.0017595 0.0008542 0.0018478
-0.0015241 0.0030691 -0.024152 -0.0070686 0.3234 0.158 0.0017433 6.3735e-06
0.0012587 0.00020599 0.00026312 0.00015913
-0.00085002 -0.0019994 -0.00089981 0.0015012 0.0017431 1.414e-05 0.11795 0.25488
-0.0017786 -0.021472 -0.00087986 0.00067444
-0.00077222 0.0030452 0.0019788 0.0017591 0.0012572 0.00020271 -0.0018221 -0.02148
0.044986 0.22206 0.0010456 -0.016163
0.0024454 0.00087402 0.00086571 0.0018502 0.00025273 0.00014886 -0.00087512 0.00067501
0.0010549 -0.016162 0.058872 0.32531
1340000000 0.2265 0.23128 -0.018977 -0.016826 0.0015403 0.0045524 -0.0016866 -0.0010232
0.0015055 0.0026012 0.0015619 -0.0016018
-0.018932 -0.016827 0.050284 0.37344 -0.02114 0.0055516 -8.4729e-05 0.002039
0.002179 0.00057904 0.0014564 0.00061318
0.0015583 0.0045529 -0.021139 0.0056525 0.34374 0.10942 0.0013652 -0.0011466
0.00070773 -0.00062045 0.00010463 0.00023326
-0.001701 -0.001013 -7.3649e-05 0.0020326 0.0013669 -0.001151 0.14961 0.23216
-0.01179 -0.017209 0.00033045 0.0015025
0.0015211 0.002584 0.0021844 0.00055844 0.00070236 -0.00063246 -0.011838 -0.0172
0.075005 0.21563 -0.0060421 -0.013738
0.0015508 -0.0016096 0.0014613 0.00059454 0.00012052 0.00023455 0.00032778 0.0015054
-0.0060352 -0.013734 0.098174 0.31706
1400000000 0.25861 0.19202 -0.023334 -0.0050308 0.0056552 0.002813 -0.0022245 0.00049641
0.0024024 0.00089782 0.0001119 -0.0014675
-0.023292 -0.0050332 0.086981 0.35917 -0.013842 0.013194 0.0014545 0.001277
0.0012093 -0.0010435 0.0011332 -1.2555e-05
0.0056639 0.002789 -0.013795 0.013275 0.35506 0.056451 6.8736e-05 -0.0020741
2.4457e-05 -0.00046986 0.00029582 0.00025424
-0.0022355 0.00050063 0.0014657 0.0012733 6.726e-05 -0.0020766 0.17713 0.2016
-0.017707 -0.0090649 -0.00047648 0.0009149
0.0024163 0.00089128 0.0012073 -0.0010657 2.9764e-05 -0.00048874 -0.017737 -0.0090207
0.10673 0.20951 -0.012254 -0.0079593
9.5918e-05 -0.001465 0.0011394 -2.8598e-05 0.00030253 0.00023913 -0.00047678 0.00092027
-0.012237 -0.0079594 0.14086 0.30297
1460000000 0.28052 0.14717 -0.019278 0.0066656 0.0058336 -0.0023047 -0.001632 0.0017064
0.0021573 -0.00067021 -0.00042783 -0.00086592
-0.019259 0.0066416 0.12072 0.33611 -0.0049035 0.015406 0.0017749 9.7512e-05
0.00063668 -0.0014454 0.0010393 -0.00066521
0.0058285 -0.002337 -0.0048417 0.01545 0.36022 0.0030058 -0.0016721 -0.0014251
0.00014915 -0.00026266 0.00067461 -0.00031349
-0.0016179 0.0017234 0.0017794 9.1654e-05 -0.0016611 -0.0014163 0.20129 0.17136
-0.018217 -0.00088825 -3.44e-06 0.0026175
0.0021576 -0.00067518 0.00063511 -0.0014512 0.00014193 -0.00025019 -0.018241 -0.00086073
0.13543 0.19385 -0.013156 -0.0013656
-0.00045005 -0.0008813 0.0010426 -0.00068779 0.00067082 -0.00030972 -1.1204e-06 0.0026136
-0.013135 -0.0013649 0.17301 0.28038
1520000000 0.29154 0.104 -0.012783 0.011395 0.0031196 -0.004498 0.00013431 0.0027226
0.0020188 -0.0018392 -0.0011063 -3.9761e-05
-0.012782 0.011373 0.15318 0.32022 0.002378 0.012674 0.0016723 -0.00095767
-0.00019319 -0.001081 0.00020719 -0.00093928
0.0031091 -0.0045056 0.0024529 0.012673 0.35322 -0.053013 -0.001521 -0.00013158
0.00049741 -0.00092312 3.2182e-05 -0.00014073
0.00013821 0.0027191 0.0016662 -0.00096089 -0.0015181 -0.00012939 0.22171 0.13288
-0.016004 0.005693 0.0023423 0.0021132
0.0020137 -0.0018667 -0.00020771 -0.0010801 0.0005015 -0.00091582 -0.016002 0.0057345
0.16252 0.1778 -0.012216 0.003675
-0.0011093 -2.5454e-05 0.00019874 -0.00093921 2.9057e-05 -0.00015417 0.0023588 0.0021078
-0.012208 0.0036679 0.20455 0.25702
1580000000 0.29932 0.057578 -0.0059744 0.013434 -0.0012154 -0.005055 0.0016417 0.0019752
-0.00021124 -0.0022314 -0.00026459 0.00036428
-0.0059892 0.01341 0.17926 0.29515 0.0056643 0.0075847 0.00037466 -0.0017104
-0.00062621 -0.00084611 -0.00027912 -0.00078298
-0.0012364 -0.0050503 0.0057027 0.0075626 0.33321 -0.10995 -0.0016214 0.0011662
-0.00046398 -0.0011695 0.00015165 -0.00057974
0.0016451 0.0019618 0.00036235 -0.0017215 -0.0016097 0.0011789 0.23299 0.094459
-0.011056 0.010498 0.0028432 0.00031459
-0.00023557 -0.0022178 -0.00064099 -0.00084211 -0.00046775 -0.0011759 -0.011043 0.010538
0.18579 0.15862 -0.0091002 0.0090181
-0.00026408 0.00036234 -0.0002785 -0.00078145 0.00014618 -0.00058267 0.0028477 0.00030946
-0.0091005 0.0090174 0.23417 0.22929
1640000000 0.29987 0.015695 0.00034653 0.011287 -0.0029714 -0.0025966 0.0028968 0.00083172
-0.00093915 -0.0015687 -0.00027299 0.00060883
0.00033314 0.011276 0.20791 0.26982 0.0059542 0.0029652 -0.00092133 -0.0016604
-0.00096207 -0.00018465 -0.00057228 -0.00055264
-0.0029899 -0.0025853 0.0059616 0.0029254 0.3046 -0.15936 -0.00037363 0.0016449
-0.0012666 -0.00084855 -0.00023006 -0.00029247
0.0029004 0.00081013 -0.00092866 -0.0016646 -0.00037787 0.0016445 0.24331 0.047137
-0.0056388 0.011094 0.0027944 -0.0013382
-0.00095421 -0.0015691 -0.00096917 -0.00017552 -0.0012646 -0.00085157 -0.005623 0.011115
0.20734 0.13258 -0.0036918 0.010711
-0.0002673 0.00061302 -0.00058207 -0.00054415 -0.00023609 -0.00027864 0.0027956 -0.0013439
-0.003677 0.010704 0.25857 0.1969
1700000000 0.29061 -0.029479 0.0030588 0.0078237 -0.0035969 0.00018135 0.0029397 -0.0015906
-0.0020852 -0.00058462 0.00066686 0.00035461
0.0030555 0.0078114 0.22489 0.23864 0.0037943 0.00017559 -0.0015462 -0.00043166
-0.00057386 0.00018029 -0.00087456 -0.00038763
-0.0036012 0.0001929 0.0038021 0.00015479 0.26072 -0.19895 0.00078922 0.0014225
-0.0019048 2.3346e-05 -0.00059748 -0.00086024
0.0029327 -0.0015937 -0.0015528 -0.00042506 0.00077159 0.0014313 0.23894 9.3134e-05
-0.0021978 0.010511 0.0016115 -0.0026041
-0.0020953 -0.00057275 -0.00057669 0.00018082 -0.0019181 9.5796e-06 -0.0021698 0.010523
0.22247 0.11111 0.0013519 0.010454
0.00067643 0.00035178 -0.00087735 -0.0003751 -0.00060315 -0.00085175 0.0016122 -0.0026094
0.0013523 0.010452 0.27284 0.16186
1760000000 0.2773 -0.077044 0.004248 0.0043782 -0.0023912 0.00094038 0.00086472 -0.0035795
-0.0014767 0.00088509 0.00038492 -0.00044833
0.004242 0.0043656 0.25045 0.19907 0.0014912 -0.0016519 -0.0011881 0.00036551
-0.00089786 0.00079645 -0.00059354 0.00047917
-0.0024016 0.0009365 0.0014699 -0.0016756 0.21268 -0.23249 0.0013171 0.00072109
-0.00108 0.0016962 -0.0014548 -0.00030916
0.0008546 -0.0035823 -0.0011949 0.00037088 0.0013229 0.00071061 0.23066 -0.048538
0.00089777 0.0088179 -0.00034233 -0.0028626
-0.001469 0.00090791 -0.00089615 0.00080105 -0.001057 0.0016781 0.00091461 0.0088225
0.2356 0.07551 0.0052767 0.0073116
0.0003769 -0.00044862 -0.00059592 0.00048024 -0.0014567 -0.00030806 -0.00034761 -0.0028616
0.0052777 0.0073103 0.2844 0.12376
1820000000 0.25144 -0.1136 0.0035753 0.0012794 -0.00011626 0.0025916 -0.0013738 -0.0028347
-0.00094523 0.0011232 -2.4684e-05 -8.3842e-05
0.0035613 0.0012764 0.25993 0.16922 -0.00052766 -0.00026381 -0.0011235 0.0010501
1.1052e-05 0.0011133 -0.00050919 0.00053476
-9.6145e-05 0.0025946 -0.00055162 -0.00026652 0.16196 -0.24855 0.0012513 -3.0884e-05
0.00010618 0.0022504 -0.0013074 0.00053901
-0.0013785 -0.002837 -0.0011143 0.001065 0.001253 -2.7685e-05 0.20218 -0.094039
0.0020125 0.0066134 -0.0017089 -0.0018247
-0.000945 0.00113 2.1556e-05 0.0011214 9.3109e-05 0.0022518 0.0020321 0.0066105
0.25046 0.045562 0.0061932 0.0032876
-1.2627e-05 -8.1811e-05 -0.00050015 0.00054861 -0.0013206 0.0005445 -0.0017156 -0.0018207
0.0061893 0.0032814 0.28553 0.0861
1880000000 0.21582 -0.15243 0.00093754 -0.00020603 -0.00041796 0.0021811 -0.0030416 -0.0017713
-5.974e-05 0.0016691 0.00018268 -0.00054731
0.00094819 -0.00020802 0.26424 0.12311 -0.0026125 0.0015127 -1.154e-05 0.0016162
0.00044773 0.0010434 0.00017678 0.00092367
-0.00040345 0.0021741 -0.0026053 0.0015235 0.10884 -0.25812 0.0013548 -0.00093499
0.0017615 0.001639 -0.00074977 0.001469
-0.0030474 -0.0017536 -2.041e-06 0.0016101 0.0013633 -0.00093818 0.16416 -0.13376
0.0024185 0.0043714 -0.0025906 -6.5331e-06
-4.8692e-05 0.0016612 0.00045593 0.0010453 0.0017512 0.0016186 0.0024239 0.0043659
0.25144 0.01328 0.0057913 0.00059104
0.00018456 -0.00055713 0.00018922 0.00092465 -0.00076955 0.0014817 -0.0025812 -6.7892e-06
0.0057782 0.00059754 0.2836 0.052092
1940000000 0.17673 -0.17812 -0.0011618 -0.0011003 0.0014223 0.0022099 -0.0035416 0.00075067
0.0015582 0.00091465 -0.00054945 -0.00055899
-0.0011587 -0.0011 0.26468 0.091301 -0.0014567 0.0038697 0.0010145 0.0010666
0.00158 0.00055807 0.00090558 0.00038575
0.0014561 0.0022124 -0.0014371 0.003894 0.062864 -0.25184 0.00025645 -0.0016501
0.0022775 0.00019623 0.0006443 0.0017662
-0.0035517 0.0007767 0.0010246 0.0010578 0.00025003 -0.0016483 0.11362 -0.1655
0.0014055 0.0028652 -0.0017649 0.0011421
0.0015577 0.00089619 0.0015823 0.00053828 0.0022839 0.00019512 0.0014014 0.0028579
0.25184 -0.025837 0.0042475 -0.0028135
-0.00056938 -0.00055903 0.0009054 0.0003747 0.00066566 0.0017672 -0.0017625 0.0011462
0.0042532 -0.0028126 0.27171 0.014785
2000000000 0.12989 -0.19235 -0.0045574 0.0012935 0.0027194 0.0016248 -0.00209 0.0034354
0.00112 -2.1549e-05 -0.00050249 0.00039687
-0.0045387 0.0012866 0.25038 0.055819 -0.0012152 0.0058285 0.00148 0.00024959
0.0012541 -0.0010611 0.00056825 -4.4299e-05
