!Keysight Technologies,M9804A,MY58100912,A.14.10.03
!Date: Thursday, April 27, 2023 10:28:33
!Correction: S11(C  6-Port  ) 
!S12(C  6-Port  ) 
!S13(C  6-Port  ) 
!S14(C  6-Port  ) 
!S15(C  6-Port  ) 
!S16(C  6-Port  ) 
!S21(C  6-Port  ) 
!S22(C  6-Port  ) 
!S23(C  6-Port  ) 
!S24(C  6-Port  ) 
!S25(C  6-Port  ) 
!S26(C  6-Port  ) 
!S31(C  6-Port  ) 
!S32(C  6-Port  ) 
!S33(C  6-Port  ) 
!S34(C  6-Port  ) 
!S35(C  6-Port  ) 
!S36(C  6-Port  ) 
!S41(C  6-Port  ) 
!S42(C  6-Port  ) 
!S43(C  6-Port  ) 
!S44(C  6-Port  ) 
!S45(C  6-Port  ) 
!S46(C  6-Port  ) 
!S51(C  6-Port  ) 
!S52(C  6-Port  ) 
!S53(C  6-Port  ) 
!S54(C  6-Port  ) 
!S55(C  6-Port  ) 
!S56(C  6-Port  ) 
!S61(C  6-Port  ) 
!S62(C  6-Port  ) 
!S63(C  6-Port  ) 
!S64(C  6-Port  ) 
!S65(C  6-Port  ) 
!S66(C  6-Port  ) 
!S6P File: Measurement: :
# Hz S  RI   R 50
500000000 -0.33617 -0.039397 -0.0093581 -0.0026021 -0.0076356 0.012351 -0.0037461 0.012142
0.012599 0.004347 -0.0041256 0.0090276
-0.0092113 -0.0023607 -0.41864 -0.051775 0.0082825 -0.010965 0.0013913 0.011504
0.0081291 0.0025278 0.001629 0.012522
-0.0075907 0.012443 0.0082291 -0.010974 -0.26466 0.20855 0.0077706 0.0031336
-0.0016782 0.0077645 0.0017156 0.011579
-0.0038867 0.012169 0.00148 0.011487 0.0077827 0.0031146 -0.32977 0.043595
-0.017787 -0.0056192 0.01647 0.025861
0.012701 0.0043091 0.0081435 0.0024847 -0.0017067 0.0078154 -0.017756 -0.0056386
-0.22384 -0.19612 -0.024949 0.0056631
-0.0044361 0.0087741 0.0016782 0.012578 0.001715 0.011579 0.01644 0.025762
-0.024904 0.0056707 -0.2649 -0.1339
560000000 -0.31498 0.12238 -0.024024 -0.063888 -1.2565e-05 0.011802 0.0057225 0.010686
0.010368 0.0040428 0.011482 0.0076904
-0.023973 -0.063883 -0.37869 0.10659 -0.040487 -0.038076 0.013884 0.0036874
-0.012936 -0.0042661 0.0028625 -0.00037462
0.00014248 0.011887 -0.040641 -0.037866 -0.18315 0.25656 -0.00081878 -0.0043358
0.018825 0.004069 0.0072934 -0.0061718
0.0054987 0.01073 0.01386 0.0037344 -0.00080469 -0.0043294 -0.30509 0.13217
0.0048813 -0.023454 0.0042382 -0.021575
0.010373 0.0042823 -0.012927 -0.004053 0.018846 0.0041524 0.0048243 -0.023466
-0.28959 -0.021509 0.0089898 -0.049112
0.011259 0.0076518 0.0028894 -0.00033241 0.0072979 -0.0061758 0.0041705 -0.021621
0.0089805 -0.049102 -0.32844 0.015113
620000000 -0.27499 0.10619 -0.023244 0.0075898 0.0027602 0.0085424 0.0078896 -0.0056209
0.010915 -0.00033003 0.0017343 -0.0028631
-0.023185 0.0075245 -0.4021 0.059027 -0.01855 -0.00033352 -0.001521 -0.0020527
0.011103 -0.0070441 0.0015112 -0.0035419
0.0027865 0.008496 -0.018545 -0.00030207 -0.15374 0.26561 -0.0016352 -0.0051596
-0.0035061 -0.002896 0.0080853 -0.003652
0.0078549 -0.0056427 -0.001508 -0.0020185 -0.0016314 -0.0051484 -0.2653 0.14336
-0.037254 -0.019933 0.011844 0.026257
0.011086 -0.0004692 0.011081 -0.0070863 -0.0035005 -0.0029083 -0.037237 -0.019853
-0.20861 -0.059325 -0.041388 0.013315
0.0017232 -0.0029059 0.0014409 -0.0035972 0.0081086 -0.0036635 0.011981 0.026339
-0.041463 0.01321 -0.24977 -0.021609
680000000 -0.23458 0.19158 -0.02748 -0.014634 0.0049703 0.0052234 0.0010172 -0.0071753
-0.0033007 -0.011119 0.004748 -0.0067539
-0.027415 -0.014627 -0.38778 0.15648 -0.033026 -0.0015398 -0.0019292 -0.00047805
-0.0022746 -0.0084164 -0.0012543 -0.0017639
0.0049475 0.0052073 -0.033063 -0.0014527 -0.10279 0.28571 -0.00086224 -3.5819e-05
-0.0018972 0.0012079 -0.0028591 -0.0090157
0.0010385 -0.0072605 -0.001931 -0.00050315 -0.00084788 -3.1375e-05 -0.22091 0.19255
-0.023828 -0.0082638 -0.0098098 -0.010685
-0.0034006 -0.01122 -0.002346 -0.0084355 -0.0019096 0.0011927 -0.023839 -0.0082731
-0.25777 0.039154 -0.005007 -0.009183
0.0047915 -0.0067697 -0.0012671 -0.0017676 -0.002896 -0.0090077 -0.0097969 -0.010663
-0.0049774 -0.0091952 -0.2617 0.084001
740000000 -0.19076 0.18632 -0.038795 0.026419 0.012849 -0.0049499 -0.00011226 -0.0043284
-0.0044875 -0.0025293 -0.0059328 0.0024174
-0.038695 0.026418 -0.33549 0.17565 -0.0356 0.03511 -0.00074292 -0.0059373
-0.011433 0.0086092 -0.0017531 -0.0065253
0.012804 -0.0049128 -0.03557 0.035271 -0.069405 0.28437 -0.0020073 0.0032024
-0.0018701 -0.0049346 -0.0018961 -8.9646e-05
-0.00013633 -0.0043295 -0.00077267 -0.0059417 -0.0020284 0.0031972 -0.20415 0.20085
-0.043615 -0.0074494 0.022716 0.014817
-0.0044996 -0.0025376 -0.011363 0.008659 -0.0018058 -0.0049015 -0.043658 -0.0073941
-0.15967 0.06482 -0.043641 -0.00045762
-0.0059782 0.0024454 -0.001798 -0.006505 -0.001986 -8.1332e-05 0.022757 0.014779
-0.043594 -0.00045045 -0.24923 0.089548
800000000 -0.15819 0.22685 -0.022703 0.016676 0.005374 -0.010626 -0.004805 -0.0019555
-0.0040642 0.0022547 0.0046172 0.0004884
-0.022685 0.016653 -0.33865 0.24597 -0.0080384 0.034206 -0.0022857 0.0021771
-0.00037054 0.0030799 0.0010682 0.0051615
0.005307 -0.010673 -0.0079388 0.034261 -0.028647 0.30804 0.0012095 0.0014261
0.00034627 0.0034154 -0.0017735 0.00098728
-0.0048011 -0.0018939 -0.002295 0.0022021 0.0012053 0.0014308 -0.1763 0.22878
-0.029081 0.013605 0.01355 -0.0099977
-0.0040212 0.0023461 -0.0003774 0.0030998 0.00032277 0.0033963 -0.029097 0.013663
-0.20773 0.088196 -0.018048 0.018887
0.0046225 0.0006053 0.0010679 0.005164 -0.0017757 0.00099632 0.0135 -0.010046
-0.018079 0.018908 -0.24496 0.14007
860000000 -0.12371 0.24754 -0.017707 0.030907 -0.0034954 -0.0099929 -0.0024369 0.0010508
0.0042322 0.0047805 -0.0031873 -0.0031437
-0.017757 0.030868 -0.29125 0.28826 0.0079471 0.034421 9.9292e-05 0.0019459
0.0044314 -0.00013077 0.0033707 0.00060592
-0.0035035 -0.0099969 0.0080735 0.034434 0.019543 0.31626 -0.00063295 -0.0003641
0.0027117 -0.0016381 0.0014451 0.0044586
-0.0023704 0.0010326 8.538e-05 0.0019696 -0.00061903 -0.00036253 -0.14013 0.24062
-0.018443 0.019033 -0.0059849 -0.0096277
0.0042049 0.0049361 0.0044027 -0.00011406 0.0026928 -0.0016685 -0.01839 0.019044
-0.15723 0.14029 -0.026205 0.014873
-0.0031855 -0.0031395 0.0033468 0.00050973 0.0014464 0.0044612 -0.0060319 -0.0096197
-0.026172 0.014816 -0.19318 0.18751
920000000 -0.098848 0.2709 0.0050649 0.038261 -0.0095765 -0.004292 -0.0017729 0.0020677
0.001259 0.0018226 0.0026535 -0.001547
0.0050382 0.038216 -0.26222 0.30981 0.028341 0.022162 0.0014766 0.0010827
0.0068589 -0.00076843 0.0039372 -0.0026459
-0.0095766 -0.0042659 0.028439 0.022102 0.066109 0.31694 0.001794 -0.00010746
0.0011843 -0.00044025 0.0009745 -0.00098054
-0.0017632 0.0020413 0.0014715 0.0010795 0.0017876 -0.00010746 -0.11624 0.25797
-0.010972 0.031059 0.0036047 -0.006405
0.0012693 0.0018326 0.0068444 -0.00077709 0.0011729 -0.00043762 -0.010903 0.031099
-0.14779 0.14706 -0.0032494 0.027604
0.0026548 -0.0015753 0.0039283 -0.0026757 0.00097414 -0.00097743 0.0035961 -0.0064079
-0.0033193 0.027543 -0.20257 0.20053
980000000 -0.051371 0.29035 0.017556 0.030247 -0.009004 0.0047468 0.0021745 0.0035921
0.0039989 -0.0012111 -0.0031777 -0.0021924
0.017516 0.030237 -0.2093 0.34372 0.033399 0.0048613 0.0020822 -9.2136e-05
0.00119 -0.0057038 -0.00021633 -0.0023924
-0.0089661 0.0047728 0.033427 0.0047495 0.11253 0.3102 0.00049527 -0.0011252
0.00024395 -0.0020434 0.001572 -0.00019441
0.0022012 0.0035726 0.0021005 -8.143e-05 0.00049327 -0.0011282 -0.077901 0.26968
0.0078815 0.030117 -0.0094292 -0.0073163
0.0039771 -0.0012931 0.0011579 -0.0057197 0.00024482 -0.0020545 0.0079423 0.030128
-0.11684 0.17625 0.0046105 0.019364
-0.0031827 -0.0021992 -0.00023444 -0.0024284 0.0015617 -0.00022227 -0.0094092 -0.0073108
0.0046428 0.019334 -0.1607 0.24642
1040000000 -0.0089668 0.29875 0.033395 0.018299 -0.0011511 0.0070631 0.0026297 0.0005997
6.7715e-05 -0.0038535 -0.00022993 -0.0013244
0.033354 0.018335 -0.17357 0.35682 0.029566 -0.015057 0.0014108 -0.0017482
-0.0027052 -0.0024183 -0.0013709 -0.0023911
-0.001114 0.0070847 0.029524 -0.015169 0.15878 0.29642 -0.00049757 -0.0014986
-0.0016069 -0.00082478 -0.00030996 -0.0011824
0.0026411 0.00058714 0.0014231 -0.0017289 -0.00050052 -0.0015061 -0.050017 0.28014
0.019627 0.018308 -0.0024306 0.0016945
5.1729e-05 -0.00389 -0.0027161 -0.0023826 -0.0016078 -0.00081936 0.019679 0.018262
-0.084651 0.18515 0.013359 0.018944
-0.00019051 -0.0013337 -0.0013869 -0.0024372 -0.00030119 -0.0011821 -0.0024429 0.0017263
0.013353 0.01894 -0.13913 0.26685
1100000000 0.036565 0.30635 0.036066 -0.0042368 0.0031076 0.0039213 0.0023405 -0.0014278
-0.0020281 -0.0031233 -0.0038515 -1.1752e-05
0.03605 -0.0042266 -0.13 0.37423 0.015184 -0.028067 -7.5854e-05 -0.0018128
-0.0032351 -0.00060038 -0.003413 -0.00050668
0.0031418 0.0039274 0.015074 -0.028143 0.20519 0.27597 -0.0018163 0.00030409
-0.0017834 0.00054411 -0.0010692 -0.00050159
0.0023777 -0.0014466 -7.4259e-05 -0.0018129 -0.0018193 0.00030185 -0.0092135 0.28523
0.024783 0.0049777 -0.0025405 0.00027052
-0.0020136 -0.0030954 -0.0032429 -0.00058291 -0.0017949 0.00055557 0.024812 0.0049233
-0.066901 0.1993 0.019054 0.0090194
-0.0038362 1.3379e-05 -0.0034363 -0.0004668 -0.0010769 -0.00050573 -0.002534 0.00027019
0.019042 0.0090077 -0.093327 0.29769
1160000000 0.087917 0.30132 0.024127 -0.020832 0.0028756 -0.00064462 -0.00039084 -0.0024854
-0.0042588 -0.00073637 -0.00083408 0.004078
0.024105 -0.020784 -0.085972 0.37836 -0.0038197 -0.029267 -0.0017826 -0.0016501
-0.0025699 0.0024707 -0.0012524 0.0018328
0.0028767 -0.00063222 -0.0039616 -0.029264 0.24834 0.24493 -0.00059938 0.0017041
-0.00058952 0.0018732 -0.0010183 0.00019862
-0.00040261 -0.0024882 -0.0017834 -0.0016322 -0.00061268 0.0017006 0.030642 0.28241
0.021094 -0.01057 -0.0027824 0.005425
-0.004274 -0.00072265 -0.0025468 0.0024939 -0.00059021 0.0018898 0.021097 -0.010591
-0.033032 0.20947 0.018304 0.00093492
-0.00086036 0.0040714 -0.0012543 0.0018253 -0.0010114 0.00020104 -0.0027665 0.0054328
0.018317 0.00095061 -0.04646 0.3007
1220000000 0.13228 0.28991 0.010484 -0.030238 -0.0015217 -0.0010855 -0.00012739 -0.00090198
-0.0026434 0.0025152 0.0014038 0.0020139
0.0105 -0.030179 -0.041446 0.39014 -0.017049 -0.021134 -0.0024773 0.00046543
9.4525e-05 0.0028733 -0.00076625 0.0018717
-0.0015165 -0.0010754 -0.017175 -0.021075 0.28748 0.20559 0.00080597 0.0015135
0.00054213 0.0010925 0.00024172 0.00065806
-0.00014413 -0.00088039 -0.0024811 0.00048377 0.00080609 0.0015239 0.070582 0.27361
0.010207 -0.0172 0.002455 0.0014685
-0.0026332 0.0025249 0.00010962 0.0028828 0.00054223 0.0011001 0.010188 -0.017199
-0.010125 0.21908 0.014472 -0.01262
0.0014083 0.0020115 -0.00075308 0.0018679 0.00024726 0.00065772 0.0024453 0.0014678
0.014482 -0.012609 -0.015421 0.31806
1280000000 0.18205 0.26773 -0.0079232 -0.02865 -0.0019186 0.0023245 -0.0009505 -0.0018811
-0.00072355 0.0031045 0.0024574 0.001047
-0.0079162 -0.028627 0.0046771 0.38077 -0.023832 -0.0083152 -0.00089381 0.0014472
0.0015919 0.0016605 0.00059862 0.0020869
-0.0019103 0.0023364 -0.023898 -0.0082142 0.31775 0.16152 0.0014954 -9.0279e-05
0.0010164 0.00030299 0.00042903 0.0004584
-0.00093916 -0.0018691 -0.00089265 0.0014534 0.0015029 -9.4892e-05 0.1075 0.25696
0.00070175 -0.018917 0.00013258 -3.7307e-05
-0.00069292 0.003115 0.0015995 0.0016542 0.0010097 0.00029646 0.000666 -0.018935
0.026894 0.22327 0.0034665 -0.01473
0.0024875 0.0010601 0.00061201 0.0020856 0.0004468 0.00045658 0.00013803 -4.4294e-05
0.0034668 -0.014739 0.033187 0.32072
1340000000 0.21902 0.23364 -0.017637 -0.019116 0.00076592 0.004365 -0.001686 -0.00072493
0.0014729 0.0026899 0.0016365 -0.0014405
-0.017627 -0.019105 0.04398 0.37205 -0.021532 0.0042789 -0.0001023 0.0019168
0.001772 0.00077058 0.0013097 0.00079078
0.00077359 0.0043476 -0.021533 0.0044087 0.33943 0.11358 0.00098887 -0.00084548
0.00064385 -0.00045207 0.00021817 0.00038867
-0.0016759 -0.0007328 -8.7762e-05 0.0019282 0.00098361 -0.00085326 0.13971 0.23641
-0.0085765 -0.015916 0.00099906 0.0002211
0.0015134 0.0026914 0.0017858 0.00075604 0.00064245 -0.00045352 -0.0086139 -0.015916
0.057428 0.21897 -0.0031565 -0.013378
0.0016402 -0.0014461 0.0013161 0.00077544 0.00021102 0.00039335 0.00099349 0.00021194
-0.0031557 -0.013378 0.071459 0.31672
1400000000 0.2517 0.19508 -0.023484 -0.0075906 0.0049981 0.0030887 -0.0019444 0.0006321
0.0024533 0.00083932 0.00031372 -0.0013282
-0.023458 -0.0075983 0.080978 0.35864 -0.014729 0.012349 0.0012546 0.0012683
0.0010533 -0.00076536 0.0012616 0.00024039
0.0050093 0.0030714 -0.014693 0.012443 0.35252 0.06017 0.00014575 -0.0015129
1.7062e-05 -0.00038056 0.0005069 0.00025421
-0.0019352 0.00064078 0.0012585 0.0012625 0.00014665 -0.0015119 0.169 0.20776
-0.014174 -0.009208 -0.00081617 -0.00072505
0.0024783 0.00084549 0.0010464 -0.00076301 1.0811e-05 -0.00037795 -0.014191 -0.0091853
0.090618 0.21464 -0.0095625 -0.008951
0.00030563 -0.001331 0.0012666 0.00022249 0.00049212 0.00026161 -0.00082783 -0.00074584
-0.0095459 -0.0089544 0.11699 0.30588
1460000000 0.27386 0.15096 -0.020579 0.0046529 0.0054854 -0.001827 -0.0015619 0.0016318
0.0020725 -0.00064842 -0.00033788 -0.00094953
-0.020554 0.0046355 0.11464 0.33662 -0.0060686 0.015141 0.0016969 0.00020701
0.00092064 -0.0011977 0.0011747 -0.00060293
0.0054758 -0.0018614 -0.0059969 0.015191 0.35851 0.0060583 -0.001232 -0.0011749
0.00018293 -0.00028312 0.00069097 -0.00034266
-0.0015626 0.0016392 0.0016922 0.00020345 -0.0012243 -0.0011876 0.1952 0.17888
-0.015078 -0.0025515 -0.0010533 0.0018066
0.0020764 -0.0006794 0.00092321 -0.001213 0.00018043 -0.00029011 -0.015086 -0.0025115
0.11998 0.20011 -0.011639 -0.0031176
-0.00036167 -0.00094416 0.0011684 -0.00061583 0.00066424 -0.00033555 -0.00105 0.0018267
-0.011632 -0.0031091 0.15034 0.28542
1520000000 0.28552 0.10939 -0.014924 0.01035 0.0031669 -0.0040446 6.5822e-05 0.0025512
0.0019867 -0.0017415 -0.001063 -6.6902e-05
-0.014926 0.010325 0.14779 0.32193 0.0014629 0.012992 0.0016098 -0.00072114
3.7358e-05 -0.0010086 0.00032505 -0.0010556
0.0031504 -0.0040719 0.0015277 0.013008 0.35152 -0.050288 -0.0010179 -0.00034709
0.00062316 -0.00083859 8.8343e-06 -0.00014437
5.7872e-05 0.002545 0.0016127 -0.00073419 -0.0010173 -0.0003492 0.21845 0.14135
-0.014255 0.0028046 0.0012413 0.0020001
0.001971 -0.0017343 2.6743e-05 -0.0010087 0.00061265 -0.00084643 -0.014257 0.0028483
0.14781 0.18613 -0.011581 0.0013269
-0.0010425 -6.6728e-05 0.00032401 -0.0010539 1.3636e-05 -0.00015004 0.0012442 0.0020029
-0.01158 0.0013291 0.18397 0.26539
1580000000 0.29455 0.063559 -0.0082037 0.013527 -0.00093875 -0.0046636 0.0013109 0.0018812
-0.00041347 -0.0020372 -0.00028402 0.00039064
-0.0082189 0.013529 0.1747 0.29732 0.004998 0.008224 0.0004964 -0.0015675
-0.00054431 -0.0010298 -0.00029911 -0.00077856
-0.00096997 -0.0046761 0.0050485 0.0082033 0.33114 -0.10784 -0.0015474 0.00057464
-0.0003446 -0.0011008 0.00018246 -0.0004735
0.0013137 0.0018676 0.00047761 -0.0015576 -0.001547 0.00056524 0.2326 0.1024
-0.010708 0.0074545 0.0021259 0.00090901
-0.00041081 -0.002045 -0.00055514 -0.0010312 -0.00035971 -0.0011129 -0.010698 0.0074773
0.17226 0.16842 -0.0092936 0.0071717
-0.00027349 0.00040187 -0.00031183 -0.00077589 0.00017461 -0.00048065 0.002136 0.00089909
-0.0093072 0.0071741 0.21684 0.23852
1640000000 0.29642 0.022691 -0.0013961 0.012476 -0.0026137 -0.0025052 0.0026785 0.0010385
-0.00068293 -0.0014017 -0.00018589 0.00046629
-0.001406 0.012478 0.20396 0.27262 0.0057904 0.0035833 -0.00063333 -0.0017125
-0.00097983 -0.00039712 -0.0004677 -0.00066268
-0.0026395 -0.0024756 0.005824 0.0035449 0.30288 -0.15658 -0.00068224 0.0013909
-0.00098648 -0.0010145 -0.00014574 -0.000412
0.0026916 0.0010293 -0.00064336 -0.0017177 -0.00068927 0.0013934 0.24526 0.053852
-0.0065566 0.0083762 0.0024019 -0.00069381
-0.00069227 -0.0014036 -0.00098964 -0.00039484 -0.00097701 -0.0010026 -0.0065391 0.0083967
0.19472 0.14421 -0.0047248 0.0091475
-0.00020081 0.00046689 -0.00047265 -0.00065873 -0.0001436 -0.00040371 0.0024029 -0.0007012
-0.0047145 0.0091463 0.24247 0.20768
1700000000 0.28935 -0.022444 0.0020998 0.0096497 -0.0033652 0.00017758 0.0030599 -0.0011147
-0.001949 -0.00054154 0.00057311 0.00039072
0.0020981 0.0096315 0.22194 0.24133 0.0038594 0.00076228 -0.0014407 -0.00057131
-0.00079657 7.7459e-05 -0.00087435 -0.00041816
-0.0033676 0.00020924 0.0038695 0.00074555 0.25964 -0.19634 0.00043936 0.0016399
-0.0018472 -0.00017733 -0.0004153 -0.0008212
0.0030615 -0.0011326 -0.0014475 -0.00056642 0.00045028 0.0016302 0.24251 0.0043382
-0.0040969 0.0087519 0.0014743 -0.0021269
-0.0019518 -0.00054058 -0.00079684 8.8406e-05 -0.001833 -0.0001817 -0.0040754 0.0087629
0.212 0.12427 4.5629e-06 0.0094063
0.00057806 0.00038457 -0.00088033 -0.00041173 -0.0004148 -0.00081675 0.0014667 -0.0021478
1.0982e-05 0.0094117 0.25908 0.17297
1760000000 0.27712 -0.07081 0.0044283 0.0062954 -0.0020998 0.00086642 0.001372 -0.0033685
-0.0012249 0.00070684 0.00041457 -0.00058022
0.0044169 0.0062897 0.24781 0.20169 0.001653 -0.0011472 -0.001189 0.00018898
-0.00096165 0.00085745 -0.00052426 0.00040348
-0.0021029 0.00087464 0.0016414 -0.0011628 0.21117 -0.22989 0.0011141 0.0011229
-0.0011279 0.0013853 -0.0012548 -0.00054084
0.0013521 -0.0033522 -0.0011828 0.00020004 0.0011128 0.0011256 0.23377 -0.047011
-0.0011138 0.0079083 -0.00019888 -0.0024526
-0.001205 0.0007304 -0.00096172 0.00087907 -0.001143 0.0013932 -0.0010827 0.0079132
0.2268 0.089429 0.0038722 0.0068966
0.00041399 -0.00058039 -0.00052119 0.00040871 -0.0012678 -0.00055251 -0.00021047 -0.0024669
0.003872 0.0069015 0.27188 0.13529
1820000000 0.25262 -0.10791 0.0046304 0.0027491 8.6239e-05 0.0023998 -0.00092941 -0.0030893
-0.00098782 0.00087329 -5.0491e-05 -8.6747e-05
0.0046295 0.0027528 0.25785 0.17196 -0.00025076 0.0001302 -0.0012691 0.00091876
-2.7504e-05 0.001303 -0.00051454 0.00048613
0.00012367 0.0024005 -0.00023147 0.00013493 0.16066 -0.24531 0.0015854 0.00040102
-0.0003225 0.0022717 -0.0014256 0.0002392
-0.00095964 -0.0030822 -0.0012655 0.00092798 0.0015857 0.00039696 0.20427 -0.094163
0.00010245 0.0064183 -0.001565 -0.001464
-0.00097592 0.00088613 -1.0555e-05 0.0013102 -0.0003233 0.002272 0.00012336 0.00643
0.24395 0.060666 0.0047642 0.0033896
-4.5337e-05 -9.4361e-05 -0.00050674 0.0004837 -0.0014203 0.00025837 -0.0015732 -0.0014501
0.004762 0.0033859 0.27441 0.099246
1880000000 0.21762 -0.1483 0.0024835 0.00045326 -0.00043026 0.0020676 -0.0029837 -0.0022067
-0.00016177 0.0015094 0.00036877 -0.00053135
0.0024797 0.00045398 0.2624 0.12557 -0.0022681 0.0017019 -0.00017642 0.0016696
0.00061965 0.0011657 0.00011374 0.00092774
-0.00042141 0.0020811 -0.0022795 0.0017275 0.10808 -0.25519 0.0018122 -0.0010496
0.0014574 0.0019898 -0.0010792 0.0012924
-0.0029878 -0.0021992 -0.00016198 0.0016652 0.0018023 -0.0010497 0.16412 -0.13445
0.0006856 0.0046863 -0.002398 0.00051378
-0.00015326 0.0014982 0.0006203 0.0011641 0.0014633 0.0019854 0.00069295 0.0046861
0.2469 0.028335 0.0047861 0.00129
0.00038142 -0.00054039 0.00012834 0.00092382 -0.0010653 0.0012971 -0.0024064 0.00051865
0.0047884 0.0012872 0.27395 0.064904
1940000000 0.17839 -0.17406 0.00035136 -0.0012855 0.0013261 0.0017303 -0.0038358 0.00059499
0.0011634 0.00092484 -0.00068824 -0.00064545
0.00034717 -0.0012877 0.26311 0.093929 -0.00095438 0.0038759 0.00098694 0.0013251
0.0017997 0.00039646 0.00083897 0.0002499
0.0013523 0.0017193 -0.00094833 0.0038928 0.062459 -0.24803 0.00037452 -0.0022602
0.0024934 0.00045332 0.00022136 0.0016892
-0.00384 0.00060544 0.0010037 0.0013236 0.00037853 -0.0022701 0.11212 -0.16524
-0.00022731 0.0037337 -0.0013853 0.0014894
0.0011857 0.00091292 0.0018132 0.00038418 0.0024731 0.00044266 -0.00023339 0.0037383
0.24876 -0.010316 0.0037275 -0.0020738
-0.00069482 -0.00061237 0.00083771 0.00022946 0.00023658 0.0016895 -0.0013708 0.0014854
0.0037184 -0.0020649 0.26311 0.02908
2000000000 0.13192 -0.18896 -0.0033442 0.00048693 0.0024905 0.0015538 -0.0022029 0.0035445
0.0011004 0.00019578 -0.00076428 0.00032857
-0.0033267 0.00049863 0.24925 0.058361 -0.00079462 0.0056283 0.0015978 0.00042579
0.0012487 -0.001359 0.00050684 6.1557e-05
0.0025148 0.001555 -0.00075642 0.0056375 0.018834 -0.23345 -0.0013973 -0.0013059
0.0019269 -0.0011305 0.0016228 0.001376
-0.0021669 0.0035495 0.0016172 0.00041655 -0.001405 -0.0012987 0.058671 -0.17557
-0.0017564 0.0036998 -8.9919e-05 0.0021743
0.0010944 0.00021367 0.0012264 -0.0013808 0.0019426 -0.0011461 -0.0017609 0.0037075
