!Keysight Technologies,M9804A,MY58100912,A.14.10.03
!Date: Thursday, April 27, 2023 10:28:33
!Correction: S11(C  6-Port  ) 
!S12(C  6-Port  ) 
!S13(C  6-Port  ) 
!S14(C  6-Port  ) 
!S15(C  6-Port  ) 
!S16(C  6-Port  ) 
!S21(C  6-Port  ) 
!S22(C  6-Port  ) 
!S23(C  6-Port  ) 
!S24(C  6-Port  ) 
!S25(C  6-Port  ) 
!S26(C  6-Port  ) 
!S31(C  6-Port  ) 
!S32(C  6-Port  ) 
!S33(C  6-Port  ) 
!S34(C  6-Port  ) 
!S35(C  6-Port  ) 
!S36(C  6-Port  ) 
!S41(C  6-Port  ) 
!S42(C  6-Port  ) 
!S43(C  6-Port  ) 
!S44(C  6-Port  ) 
!S45(C  6-Port  ) 
!S46(C  6-Port  ) 
!S51(C  6-Port  ) 
!S52(C  6-Port  ) 
!S53(C  6-Port  ) 
!S54(C  6-Port  ) 
!S55(C  6-Port  ) 
!S56(C  6-Port  ) 
!S61(C  6-Port  ) 
!S62(C  6-Port  ) 
!S63(C  6-Port  ) 
!S64(C  6-Port  ) 
!S65(C  6-Port  ) 
!S66(C  6-Port  ) 
!S6P File: Measurement: :
# Hz S  RI   R 50
500000000 -0.33706 -0.039797 -0.010448 -0.0022071 -0.008484 0.013108 -0.0045195 0.012554
0.012381 0.0051029 -0.0045772 0.0089336
-0.010447 -0.0022415 -0.41957 -0.052572 0.0078214 -0.010279 0.0016291 0.012437
0.007414 0.002395 0.0018647 0.013611
-0.0084849 0.012963 0.0076551 -0.010348 -0.2654 0.20869 0.0077095 0.0036393
-0.0020877 0.0076548 0.0016463 0.012078
-0.0043931 0.012635 0.0016441 0.012385 0.007674 0.0036303 -0.33181 0.041078
-0.019626 -0.0068519 0.015943 0.026326
0.012049 0.0051906 0.0075672 0.0021323 -0.0022575 0.0076188 -0.019671 -0.0068146
-0.22051 -0.20339 -0.026681 0.0048359
-0.0048493 0.0090292 0.00172 0.013616 0.0015104 0.012017 0.015834 0.026188
-0.026714 0.0049096 -0.2645 -0.14097
560000000 -0.31728 0.1226 -0.024036 -0.063975 0.00046404 0.012439 0.0054761 0.010554
0.010307 0.0052204 0.011193 0.0080044
-0.024053 -0.063781 -0.37767 0.10688 -0.040852 -0.037543 0.013776 0.0038871
-0.012558 -0.004571 0.0032229 1.5173e-05
0.00025534 0.012116 -0.04108 -0.037407 -0.18358 0.25762 -0.00018333 -0.0042728
0.020088 0.005217 0.0063911 -0.0057708
0.0055875 0.010535 0.013618 0.0039141 -0.00020492 -0.0043942 -0.30762 0.13149
0.0047389 -0.02368 0.0043265 -0.022075
0.010351 0.005213 -0.01254 -0.0047208 0.0199 0.0052368 0.0047668 -0.023762
-0.28872 -0.029791 0.0079498 -0.048475
0.011056 0.0080702 0.0031796 -6.5749e-05 0.0063136 -0.0058285 0.0043686 -0.022105
0.0079963 -0.048522 -0.32927 0.010163
620000000 -0.27608 0.10549 -0.023126 0.0079629 0.003199 0.0084671 0.0084197 -0.0051312
0.011281 0.0002756 0.0025126 -0.0023639
-0.023179 0.0079516 -0.40258 0.058571 -0.018746 0.00014039 -0.0012242 -0.0020493
0.011539 -0.0061144 0.001429 -0.0027258
0.0033154 0.0085958 -0.018823 0.00013419 -0.15402 0.26681 -0.0015208 -0.0052477
-0.0028624 -0.0024533 0.0085454 -0.0030651
0.0082698 -0.0049941 -0.0013077 -0.0020841 -0.0015208 -0.0052369 -0.26694 0.14252
-0.03877 -0.019406 0.011964 0.026078
0.011321 8.1473e-05 0.011571 -0.0061264 -0.0028467 -0.0022507 -0.038786 -0.019312
-0.20681 -0.064737 -0.042035 0.015866
0.0027755 -0.0027444 0.001358 -0.0027266 0.0084808 -0.0029721 0.012201 0.026059
-0.042263 0.015826 -0.2467 -0.028766
680000000 -0.2355 0.19186 -0.027411 -0.014127 0.0049129 0.0052213 0.001448 -0.0076347
-0.0031103 -0.011447 0.0051071 -0.0065192
-0.027403 -0.014074 -0.38792 0.1567 -0.033014 -0.0013321 -0.0016452 -0.00074793
-0.0017971 -0.0088171 -0.00094744 -0.001622
0.0049155 0.0052882 -0.03304 -0.001265 -0.10269 0.28598 -0.00067599 -0.00020464
-0.0016264 0.00060101 -0.0030361 -0.0092436
0.0013665 -0.0076444 -0.0016362 -0.00086063 -0.00070051 -0.00020738 -0.22177 0.19341
-0.024412 -0.0072879 -0.010416 -0.010918
-0.0033166 -0.01145 -0.0018034 -0.0090287 -0.001631 0.00049714 -0.024422 -0.0072821
-0.26041 0.03407 -0.0056666 -0.0079763
0.0051687 -0.0063783 -0.00099286 -0.0016699 -0.0030972 -0.0092996 -0.010558 -0.010818
-0.0056706 -0.0079338 -0.26151 0.080127
740000000 -0.19102 0.18669 -0.038418 0.026712 0.012814 -0.0048918 -0.00032785 -0.0045182
-0.0040355 -0.0023538 -0.006163 0.0021831
-0.038426 0.026795 -0.33502 0.17568 -0.035533 0.035549 -0.00071593 -0.0062416
-0.012089 0.0080124 -0.0019242 -0.0062162
0.012776 -0.0048478 -0.03546 0.035654 -0.069347 0.28407 -0.0022542 0.0032004
-0.0019876 -0.0051754 -0.0022716 -4.6606e-05
-0.0002004 -0.0044083 -0.00070209 -0.0062809 -0.0022328 0.0031726 -0.205 0.20132
-0.044567 -0.0064538 0.023477 0.015629
-0.0042861 -0.0026429 -0.011986 0.0079753 -0.0019638 -0.0052325 -0.04463 -0.0063673
-0.1572 0.060818 -0.044892 -0.00015794
-0.006207 0.0023765 -0.0019469 -0.0060428 -0.0021867 -4.8492e-05 0.023438 0.015546
-0.044888 -6.413e-05 -0.25155 0.084912
800000000 -0.1581 0.22662 -0.022297 0.01667 0.0054367 -0.010772 -0.0049066 -0.0021306
-0.0041157 0.0020785 0.0044971 0.00016708
-0.022293 0.016642 -0.3385 0.24569 -0.0078971 0.034154 -0.0023669 0.0021468
-0.00041985 0.0029874 0.0012319 0.0051767
0.0054051 -0.010804 -0.0078304 0.034241 -0.028605 0.30743 0.00095169 0.0014784
0.00030296 0.0034752 -0.0016722 0.00082154
-0.0049033 -0.0021086 -0.0023483 0.0021594 0.00096055 0.0014827 -0.17645 0.22944
-0.029053 0.014311 0.01423 -0.01046
-0.0039547 0.0021914 -0.00050437 0.0031144 0.00027648 0.0034769 -0.029096 0.014351
-0.20716 0.084772 -0.017614 0.019534
0.0045716 -9.354e-06 0.0012974 0.0051988 -0.0017014 0.00078012 0.014197 -0.010434
-0.017593 0.019503 -0.24683 0.13501
860000000 -0.12337 0.24725 -0.017354 0.030678 -0.0032391 -0.010206 -0.0021514 0.00091295
0.0040918 0.0047635 -0.0034226 -0.0032472
-0.017413 0.030613 -0.29106 0.28787 0.0079866 0.034527 -1.7228e-05 0.0020143
0.0042445 0.00046736 0.003297 0.0005077
-0.0032724 -0.010201 0.0080899 0.034552 0.019281 0.3157 -0.00058833 -0.00030199
0.0027257 -0.0015941 0.0016274 0.004311
-0.0022128 0.00091453 -5.7802e-05 0.0019902 -0.00058082 -0.00030644 -0.14008 0.24047
-0.01825 0.019521 -0.0057778 -0.0092075
0.0041567 0.0047401 0.0041991 0.00043011 0.0027359 -0.0015702 -0.018234 0.019582
-0.15569 0.13732 -0.026473 0.015485
-0.0034524 -0.0032285 0.0032857 0.00063444 0.0015757 0.0042802 -0.0057793 -0.0092087
-0.026387 0.015536 -0.19452 0.18299
920000000 -0.098757 0.27013 0.0052254 0.037952 -0.0095984 -0.0046596 -0.0016465 0.0018064
0.00093015 0.0019701 0.0027529 -0.0016585
0.0051703 0.037941 -0.26226 0.30933 0.028353 0.022165 0.0014947 0.0011017
0.007213 -0.00048654 0.0041592 -0.0026261
-0.009617 -0.0046322 0.02846 0.02209 0.065653 0.31662 0.0018266 -0.0001464
0.0012349 -0.00024997 0.0010546 -0.0010421
-0.0016595 0.0017908 0.0015372 0.0010686 0.0018216 -0.00014259 -0.1163 0.25799
-0.010912 0.031738 0.0040879 -0.006832
0.00098264 0.0019911 0.0071437 -0.00037555 0.0011846 -0.00022149 -0.010844 0.031776
-0.14624 0.14373 -0.0027035 0.027726
0.0027623 -0.0016873 0.004015 -0.0027257 0.0010374 -0.0010414 0.0040455 -0.0068622
-0.0026934 0.02781 -0.20541 0.19637
980000000 -0.051664 0.28972 0.017571 0.030196 -0.0092681 0.004692 0.0020771 0.0034436
0.0040629 -0.0013134 -0.0033165 -0.0021521
0.0175 0.030236 -0.20959 0.34318 0.033453 0.0048211 0.0021222 -6.283e-05
0.0016453 -0.0058612 -0.00041791 -0.0025237
-0.0092794 0.0047572 0.033535 0.0047199 0.11217 0.31016 0.00056327 -0.0011169
0.00033578 -0.0021075 0.0013891 -0.00029508
0.0020825 0.0033968 0.0021558 -3.8464e-05 0.0005602 -0.0011117 -0.07761 0.26944
0.008453 0.031221 -0.0091114 -0.0077026
0.0040297 -0.0013834 0.0016176 -0.0058549 0.00031972 -0.0020911 0.0085702 0.031201
-0.11504 0.17327 0.0051064 0.020103
-0.0033018 -0.0020841 -0.00042735 -0.0024872 0.001377 -0.00029418 -0.0090677 -0.0077006
0.0050684 0.020165 -0.16335 0.24298
1040000000 -0.0095973 0.29815 0.03343 0.018269 -0.0013817 0.0071162 0.0025091 0.00059857
0.0001508 -0.0036946 -0.00027868 -0.0013215
0.03335 0.018263 -0.17408 0.35651 0.029704 -0.015111 0.0014066 -0.0017714
-0.0024677 -0.0027102 -0.0015059 -0.002678
-0.0013649 0.0070782 0.02968 -0.01527 0.15843 0.29662 -0.00049106 -0.0015952
-0.001564 -0.00099447 -0.00053612 -0.0010217
0.0025125 0.0005784 0.0014283 -0.0017518 -0.00050004 -0.0015893 -0.050213 0.27994
0.020564 0.018969 -0.0022499 0.0010052
7.7864e-05 -0.0037034 -0.0025395 -0.0026951 -0.001571 -0.0010184 0.020623 0.018934
-0.083063 0.18088 0.013515 0.019139
-0.00029974 -0.0014038 -0.0014853 -0.0026268 -0.00053758 -0.0010057 -0.0022296 0.0010059
0.01353 0.019146 -0.14268 0.26408
1100000000 0.035743 0.30601 0.036151 -0.0043089 0.0029141 0.0039806 0.0022619 -0.0013723
-0.0019917 -0.0031954 -0.0039873 9.4187e-05
0.036128 -0.0042943 -0.1306 0.37395 0.015116 -0.028332 -8.901e-05 -0.0018066
-0.0034174 -0.00081332 -0.0035629 -0.00038958
0.0029442 0.0039787 0.015059 -0.028428 0.20528 0.27611 -0.0019783 0.00028202
-0.0019081 0.00052875 -0.0011178 -0.00043255
0.0022529 -0.0013634 -8.2669e-05 -0.0018125 -0.0019689 0.00029021 -0.0092836 0.28508
0.026393 0.0050885 -0.0026944 -0.00016998
-0.0020141 -0.0032287 -0.0034295 -0.00082066 -0.0018907 0.00050216 0.026413 0.0050333
-0.065069 0.19485 0.019617 0.0091148
-0.0039693 1.4064e-05 -0.0036036 -0.00048878 -0.0011083 -0.00046278 -0.0026704 -0.00015078
0.019619 0.0090987 -0.097267 0.2955
1160000000 0.087052 0.30114 0.024087 -0.021146 0.002761 -0.00047059 -0.0003675 -0.0023043
-0.0041774 -0.00071935 -0.00095934 0.0041899
0.024089 -0.02113 -0.086771 0.37837 -0.0040549 -0.029559 -0.0017654 -0.0016585
-0.0029047 0.0025546 -0.0015045 0.0018763
0.002775 -0.00049127 -0.0041713 -0.029529 0.24854 0.24479 -0.00071028 0.0018035
-0.0007079 0.0019926 -0.00099532 0.00033401
-0.0003751 -0.002312 -0.0017597 -0.0016267 -0.00070531 0.0018075 0.030477 0.2823
0.022606 -0.011458 -0.0032335 0.0050356
-0.0042404 -0.00074988 -0.0028592 0.0025492 -0.00066964 0.0020074 0.022595 -0.011493
-0.031772 0.2041 0.01904 0.00076109
-0.00092981 0.0042367 -0.0014898 0.0018494 -0.0009916 0.00034514 -0.0031899 0.0050143
0.018995 0.00079151 -0.050085 0.29911
1220000000 0.13157 0.29012 0.010328 -0.030447 -0.0015386 -0.00082887 9.5675e-06 -0.0007541
-0.0027486 0.0024128 0.0014511 0.0021682
0.010341 -0.030407 -0.041956 0.39057 -0.01736 -0.021244 -0.0025334 0.00051463
-3.0376e-05 0.0030493 -0.00072289 0.0019784
-0.0015596 -0.00083487 -0.017482 -0.02119 0.28756 0.20533 0.00088942 0.001695
0.00067199 0.0012685 0.00035294 0.00078667
-5.2254e-06 -0.0007666 -0.0025446 0.00053944 0.00088817 0.0016914 0.070771 0.27352
0.011192 -0.018736 0.0019092 0.0014444
-0.0026814 0.0023936 2.7487e-05 0.0030811 0.00069074 0.001259 0.01114 -0.018759
-0.0094968 0.2136 0.014875 -0.013124
0.0014454 0.0021607 -0.00075311 0.0019748 0.00035835 0.00076297 0.0019141 0.001421
0.014885 -0.013127 -0.019417 0.31713
1280000000 0.18145 0.26816 -0.0083597 -0.028822 -0.0018469 0.002434 -0.00082804 -0.0019234
-0.00090139 0.0031345 0.0024643 0.0011503
-0.0083537 -0.028785 0.00446 0.38132 -0.024214 -0.0082765 -0.00091236 0.0014969
0.0016863 0.0018699 0.00073563 0.0021784
-0.0018364 0.002441 -0.024292 -0.0081745 0.31756 0.16089 0.0017029 -8.1644e-06
0.001182 0.00033926 0.00040033 0.00038166
-0.00082467 -0.0019009 -0.00091336 0.001522 0.0017069 -9.59e-07 0.10786 0.25651
0.0008878 -0.020881 -0.00040136 9.0052e-05
-0.00086301 0.0031164 0.0016964 0.0018454 0.0011823 0.00034983 0.00084261 -0.020892
0.027299 0.21776 0.0034549 -0.015532
0.0024892 0.0011508 0.00070586 0.0022067 0.00042224 0.00035244 -0.00037054 7.9196e-05
0.0034834 -0.015515 0.0292 0.32049
1340000000 0.21865 0.23413 -0.018131 -0.018893 0.00097128 0.0045408 -0.0016706 -0.00082386
0.0014491 0.0028326 0.0018465 -0.0014364
-0.018113 -0.018892 0.04403 0.37251 -0.021729 0.0046195 -5.0442e-05 0.0019429
0.0019647 0.00078901 0.0014567 0.00073303
0.0009538 0.004532 -0.021733 0.0047396 0.33889 0.11304 0.0011506 -0.00097565
0.0008259 -0.00042663 0.00024594 0.00036289
-0.0016727 -0.00082627 -5.3799e-05 0.0019676 0.0011585 -0.0009865 0.13994 0.23562
-0.0094352 -0.017682 0.00058993 0.00069192
0.0014834 0.0028158 0.0019478 0.00079256 0.00081989 -0.00042635 -0.0094685 -0.017679
0.057067 0.21334 -0.0036015 -0.014147
0.0018181 -0.0014419 0.0014884 0.00075798 0.00026493 0.00039443 0.00061946 0.00069338
-0.0036019 -0.014161 0.067586 0.31694
1400000000 0.25165 0.19565 -0.023823 -0.007134 0.0051612 0.0030954 -0.0020358 0.00057519
0.0024336 0.00094888 0.0003406 -0.0014017
-0.023797 -0.0071358 0.081339 0.35885 -0.014724 0.012748 0.0013509 0.0012928
0.0012074 -0.00078569 0.0012865 0.00016289
0.0051977 0.0030764 -0.01468 0.012845 0.35174 0.059954 0.00013362 -0.0016824
-2.6141e-05 -0.00042196 0.0004985 0.00024002
-0.0020361 0.00059135 0.0013418 0.0013028 0.0001452 -0.0016735 0.16893 0.20653
-0.015782 -0.010378 -0.00090115 -0.0002479
0.002445 0.00094479 0.0011749 -0.00080254 -3.9147e-05 -0.00043445 -0.015819 -0.010345
0.090037 0.20894 -0.010323 -0.0093434
0.00032981 -0.0013904 0.0013014 0.00016039 0.00053058 0.00025718 -0.00090749 -0.00022858
-0.010315 -0.0093629 0.11331 0.30655
1460000000 0.27406 0.15119 -0.020547 0.0052473 0.0056154 -0.0018951 -0.0015746 0.0016448
0.0022246 -0.00050868 -0.00034506 -0.0010052
-0.020528 0.0052278 0.11497 0.3365 -0.0057859 0.015467 0.0017113 0.00016956
0.00087074 -0.0012923 0.0011524 -0.00074344
0.0055929 -0.001919 -0.0057222 0.015515 0.35754 0.0060923 -0.0013621 -0.001319
0.00018477 -0.00037978 0.00066483 -0.00030508
-0.0015675 0.0016426 0.0017079 0.0001647 -0.0013789 -0.0013238 0.19442 0.17735
-0.017084 -0.0028249 -0.00085001 0.0023186
0.0022251 -0.0005373 0.00085279 -0.0013036 0.00019226 -0.00037584 -0.017097 -0.0027993
0.11877 0.19422 -0.012493 -0.0029487
-0.00039162 -0.0010078 0.001149 -0.00074396 0.0006599 -0.00031653 -0.00083689 0.0023122
-0.012505 -0.0029571 0.14691 0.2861
1520000000 0.28568 0.10933 -0.014613 0.010763 0.0033253 -0.004218 0.00010766 0.0026216
0.0021503 -0.0017801 -0.001151 -0.00011153
-0.0146 0.01074 0.14796 0.32163 0.0018134 0.013067 0.0016818 -0.00077409
1.9522e-06 -0.0010631 0.0003052 -0.0010588
0.0032981 -0.0042402 0.0018866 0.013068 0.35087 -0.04978 -0.0012169 -0.00034448
0.00061784 -0.00083147 7.0811e-05 -0.00019732
9.9481e-05 0.00262 0.0016875 -0.00078602 -0.0012106 -0.00034069 0.21693 0.14003
-0.015968 0.0035551 0.0016587 0.0022321
0.0021295 -0.0017999 -1.4506e-06 -0.0010728 0.00060047 -0.00084903 -0.015973 0.0036059
0.14599 0.18029 -0.01235 0.0018191
-0.0011455 -9.1787e-05 0.00030875 -0.0010694 7.2327e-05 -0.00019615 0.0016717 0.0022217
-0.012344 0.0018118 0.18077 0.26671
1580000000 0.29445 0.063255 -0.0077062 0.013771 -0.0010121 -0.0050038 0.0014171 0.001887
-0.00026131 -0.002189 -0.00029341 0.00046207
-0.0077066 0.013748 0.17461 0.29687 0.0052928 0.0080532 0.00050209 -0.0016478
-0.00062588 -0.001043 -0.00035155 -0.00074179
-0.0010334 -0.0050308 0.0053576 0.0080438 0.33093 -0.10706 -0.0016486 0.00075913
-0.00037978 -0.0011294 4.748e-05 -0.00049156
0.0014364 0.0018739 0.00047782 -0.0016425 -0.0016661 0.00076373 0.23031 0.10168
-0.011822 0.0087371 0.0025031 0.00091324
-0.00026776 -0.0021841 -0.00063413 -0.0010386 -0.00040464 -0.001128 -0.011815 0.0087773
0.16983 0.16241 -0.0096515 0.007961
-0.00034312 0.0005171 -0.0003627 -0.00077821 5.0402e-05 -0.00052837 0.002497 0.00090599
-0.0096429 0.0079637 0.21389 0.2404
1640000000 0.29601 0.022356 -0.00080554 0.012381 -0.0027232 -0.0025816 0.0028009 0.0010045
-0.00068656 -0.0016174 -0.00018336 0.00059135
-0.00082455 0.012369 0.20362 0.27231 0.005987 0.0033461 -0.00072188 -0.001776
-0.001037 -0.00035717 -0.00049713 -0.00065758
-0.0027309 -0.0025571 0.0060053 0.0033167 0.30283 -0.1561 -0.0006034 0.0015306
-0.0011195 -0.0010603 -0.00014463 -0.00049136
0.0027817 0.00098565 -0.00073452 -0.0017717 -0.00060488 0.0015309 0.24244 0.054202
-0.0069628 0.0098128 0.0026718 -0.00086189
-0.00072299 -0.001643 -0.0010309 -0.00034225 -0.0011082 -0.0010433 -0.0069339 0.0098387
0.19138 0.13854 -0.0045558 0.0099688
-0.00014694 0.0005689 -0.00049507 -0.00064599 -0.00012075 -0.00046303 0.0026736 -0.00087377
-0.004557 0.0099737 0.23973 0.20974
1700000000 0.28859 -0.022384 0.0024825 0.0092263 -0.0034416 0.00011353 0.0030559 -0.001234
-0.0021571 -0.00072837 0.00069448 0.00035689
0.0024677 0.0092363 0.22146 0.24118 0.0038811 0.00054695 -0.0015332 -0.00054819
-0.00077895 0.000112 -0.00090878 -0.00040743
-0.0034672 0.00012759 0.0038902 0.00053053 0.25986 -0.19585 0.00052244 0.0016507
-0.0020531 -0.00015183 -0.00042726 -0.00086685
0.003074 -0.0012585 -0.00155 -0.00053552 0.00051872 0.0016361 0.23994 0.006046
-0.0039405 0.010082 0.0016582 -0.0023787
-0.0021589 -0.00069501 -0.000776 0.00010982 -0.0020435 -0.00015256 -0.0039195 0.0101
0.20789 0.11901 0.00043529 0.010125
0.00070227 0.00037273 -0.00090757 -0.00039957 -0.00044119 -0.0008679 0.001649 -0.0023845
0.00042679 0.010122 0.25709 0.17548
1760000000 0.27638 -0.070386 0.0045161 0.0057885 -0.0023304 0.00099853 0.0012518 -0.003503
-0.0014098 0.00073982 0.00035938 -0.0006587
0.0045116 0.0057764 0.24727 0.20185 0.0015355 -0.0012388 -0.0012106 0.0002509
-0.00091355 0.00091872 -0.00054513 0.00041056
-0.0023353 0.0010338 0.0015451 -0.0012677 0.21117 -0.22943 0.0012956 0.0010586
-0.0011922 0.001639 -0.0013582 -0.00053551
0.0012162 -0.0035068 -0.0012005 0.00026745 0.0012889 0.0010813 0.23216 -0.044143
-0.00061541 0.0089976 -0.00016261 -0.0027034
-0.0013917 0.00078079 -0.00090515 0.00095255 -0.0011864 0.001632 -0.00059067 0.0090269
0.22185 0.084946 0.0045503 0.0073525
0.00037535 -0.00062527 -0.00055258 0.00043839 -0.0013786 -0.0005321 -0.00016769 -0.0027108
0.0045518 0.0073419 0.2702 0.13786
1820000000 0.25219 -0.10721 0.0044323 0.0022826 -2.7495e-05 0.0024895 -0.0010878 -0.0030351
-0.001167 0.001052 -9.7719e-05 -8.1242e-05
0.0044362 0.0023044 0.25747 0.17228 -0.0003767 -4.6149e-05 -0.0012324 0.0010252
2.9524e-05 0.0012187 -0.00048199 0.0005165
-9.6182e-06 0.0024798 -0.00038681 -3.9157e-05 0.16106 -0.24532 0.0014825 0.00035943
-0.00011243 0.0023333 -0.0013109 0.00040392
-0.0010772 -0.0030223 -0.0012325 0.001026 0.0014877 0.0003527 0.20424 -0.090926
0.00086654 0.0072975 -0.0015838 -0.0017775
-0.0011498 0.0010695 5.5958e-05 0.001214 -0.00011078 0.0023691 0.00090633 0.0072999
0.23872 0.057199 0.0055711 0.0035022
-0.00010307 -9.2046e-05 -0.00049134 0.00051831 -0.0013247 0.00036401 -0.0015813 -0.0017673
0.0055779 0.0034979 0.27329 0.10189
1880000000 0.21763 -0.14731 0.0021401 0.00023565 -0.00038974 0.0020906 -0.002944 -0.0021316
-8.9193e-05 0.0017308 0.00024842 -0.00045866
0.0021499 0.00022055 0.26216 0.12601 -0.0023869 0.001613 -0.00011607 0.0016663
0.00053756 0.0010808 9.7929e-05 0.00087524
-0.00037498 0.0020836 -0.0023589 0.0016235 0.10872 -0.25532 0.0016133 -0.0009907
0.0016492 0.0018924 -0.0010102 0.0013901
-0.0029657 -0.0021053 -0.00010987 0.0016611 0.0016272 -0.00099659 0.16559 -0.13179
0.0017395 0.0052651 -0.0025661 0.00022805
-7.7319e-05 0.0017496 0.00055976 0.0010723 0.0016524 0.0018859 0.0017491 0.0052697
0.24173 0.026038 0.0056132 0.001002
0.00024362 -0.00045197 0.00011423 0.00088671 -0.0010051 0.0014094 -0.0025973 0.00024161
0.0056014 0.0010003 0.27332 0.067362
1940000000 0.17863 -0.1733 5.45e-06 -0.0013648 0.0013929 0.0019871 -0.0036701 0.00052837
0.0014047 0.00094417 -0.00064043 -0.00046796
1.7524e-05 -0.0013206 0.26311 0.094403 -0.0011675 0.0038771 0.0010585 0.0012673
0.0017092 0.00041915 0.00078328 0.00020313
0.0014018 0.0019528 -0.0011687 0.003893 0.062364 -0.24858 0.00034956 -0.0021383
0.002423 0.00032295 0.00028141 0.0016221
-0.0036749 0.00054859 0.0010653 0.0012543 0.0003664 -0.0021296 0.11451 -0.16374
0.0010222 0.003843 -0.0016346 0.0013816
0.0014184 0.00092616 0.0017298 0.00042314 0.0024154 0.00033101 0.0010344 0.0038373
0.24421 -0.011789 0.004248 -0.0026377
-0.00067142 -0.0004485 0.00078021 0.00023567 0.00023281 0.001641 -0.0016189 0.0013944
0.0042441 -0.002633 0.26271 0.031511
2000000000 0.13252 -0.18823 -0.0037628 0.00067251 0.0024548 0.0015924 -0.002352 0.0034398
0.0011188 -1.2388e-05 -0.00070998 0.0003884
-0.0037623 0.00067581 0.2494 0.058851 -0.00097292 0.0057164 0.0015949 0.00030834
0.0012411 -0.0012639 0.00039125 0.00014309
0.0024615 0.0016076 -0.0009415 0.0057368 0.018758 -0.23398 -0.0012683 -0.0012087
0.0018629 -0.00122 0.0016209 0.0013321
-0.0023235 0.0034778 0.0016135 0.00031805 -0.0012331 -0.0012013 0.061148 -0.17548
-0.00045787 0.0032584 -0.00019469 0.0022609
0.0011107 -2.0339e-05 0.0012224 -0.0012753 0.0018185 -0.0012051 -0.00044663 0.003267
0.23913 -0.045192 0.00058396 -0.0034755
