!Keysight Technologies,M9804A,MY58100912,A.14.10.03
!Date: Thursday, April 27, 2023 10:28:33
!Correction: S11(C  6-Port  ) 
!S12(C  6-Port  ) 
!S13(C  6-Port  ) 
!S14(C  6-Port  ) 
!S15(C  6-Port  ) 
!S16(C  6-Port  ) 
!S21(C  6-Port  ) 
!S22(C  6-Port  ) 
!S23(C  6-Port  ) 
!S24(C  6-Port  ) 
!S25(C  6-Port  ) 
!S26(C  6-Port  ) 
!S31(C  6-Port  ) 
!S32(C  6-Port  ) 
!S33(C  6-Port  ) 
!S34(C  6-Port  ) 
!S35(C  6-Port  ) 
!S36(C  6-Port  ) 
!S41(C  6-Port  ) 
!S42(C  6-Port  ) 
!S43(C  6-Port  ) 
!S44(C  6-Port  ) 
!S45(C  6-Port  ) 
!S46(C  6-Port  ) 
!S51(C  6-Port  ) 
!S52(C  6-Port  ) 
!S53(C  6-Port  ) 
!S54(C  6-Port  ) 
!S55(C  6-Port  ) 
!S56(C  6-Port  ) 
!S61(C  6-Port  ) 
!S62(C  6-Port  ) 
!S63(C  6-Port  ) 
!S64(C  6-Port  ) 
!S65(C  6-Port  ) 
!S66(C  6-Port  ) 
!S6P File: Measurement: :
# Hz S  RI   R 50
500000000 -0.33675 -0.039636 -0.0095733 -0.0026821 -0.0076688 0.01244 -0.0042499 0.01205
0.013173 0.00433 -0.0050272 0.0087013
-0.009612 -0.0026612 -0.41892 -0.052034 0.0081157 -0.01082 0.0014749 0.012126
0.0076751 0.0022667 0.0012447 0.013142
-0.0076817 0.012476 0.0081295 -0.010835 -0.2653 0.20893 0.0078764 0.0034825
-0.0016548 0.0080125 0.0017729 0.012102
-0.0042981 0.011923 0.0015058 0.012191 0.0078749 0.0034762 -0.33066 0.043861
-0.01838 -0.0061318 0.015773 0.027138
0.013101 0.004242 0.0077338 0.0022517 -0.0016329 0.00802 -0.018368 -0.0060981
-0.2222 -0.19819 -0.025299 0.004727
-0.0049895 0.0085025 0.001283 0.013271 0.0017579 0.012067 0.015788 0.027157
-0.025328 0.0047228 -0.26596 -0.1358
560000000 -0.31543 0.12211 -0.02348 -0.063968 0.00012926 0.012133 0.0055751 0.010631
0.010407 0.0047946 0.011372 0.0078442
-0.023447 -0.063811 -0.37876 0.10739 -0.040628 -0.037616 0.013936 0.0041068
-0.012884 -0.0047376 0.0031814 -9.1534e-05
0.00015489 0.012031 -0.040678 -0.037572 -0.18347 0.25712 -0.00072832 -0.0045307
0.019081 0.0048899 0.0068468 -0.0065292
0.0056978 0.01069 0.013949 0.0039644 -0.00074818 -0.0045238 -0.30577 0.13196
0.0044093 -0.02387 0.0046683 -0.021283
0.010399 0.0047125 -0.012968 -0.0047697 0.019031 0.0048352 0.0043941 -0.023902
-0.28875 -0.022514 0.0090865 -0.049389
0.01132 0.0077866 0.0032907 -0.00014265 0.006882 -0.0064775 0.00466 -0.021383
0.0090998 -0.049427 -0.32875 0.012775
620000000 -0.27496 0.10676 -0.023205 0.0080238 0.0031596 0.0084887 0.0080545 -0.0056362
0.011134 -2.5409e-05 0.0018076 -0.002806
-0.023151 0.0080186 -0.40236 0.059473 -0.018463 0.00010492 -0.0014062 -0.001973
0.011261 -0.0068093 0.0015699 -0.0032851
0.0032966 0.0085321 -0.018462 0.00013994 -0.15375 0.26635 -0.0012418 -0.0049899
-0.0032493 -0.0031068 0.0081776 -0.0033129
0.0081288 -0.0056982 -0.0014064 -0.0019278 -0.0012337 -0.004974 -0.26566 0.14347
-0.037307 -0.019685 0.012356 0.026236
0.011019 -4.6308e-05 0.011244 -0.0068446 -0.0032689 -0.0030645 -0.03734 -0.019676
-0.20687 -0.061457 -0.041608 0.014242
0.0016574 -0.0028487 0.0015157 -0.0033185 0.0081414 -0.0034721 0.012306 0.026201
-0.041636 0.014166 -0.24921 -0.025302
680000000 -0.2348 0.19199 -0.027248 -0.014457 0.0049756 0.0050529 0.0012137 -0.0070869
-0.0032779 -0.011253 0.0050423 -0.0071147
-0.027166 -0.014492 -0.38762 0.15723 -0.03264 -0.0014024 -0.0016263 -0.00044073
-0.0023947 -0.0088273 -0.001229 -0.0018677
0.0050112 0.0050237 -0.032668 -0.0013213 -0.10228 0.28628 -0.00075928 -0.00016342
-0.0018468 0.00063988 -0.0027891 -0.0091536
0.0012151 -0.0071389 -0.0016455 -0.00044289 -0.00075309 -0.00016891 -0.2209 0.19353
-0.023378 -0.008059 -0.010151 -0.011649
-0.0033394 -0.011319 -0.0024529 -0.0088327 -0.0018497 0.0006432 -0.023395 -0.0080492
-0.2577 0.037381 -0.0049546 -0.0088904
0.0050166 -0.0071317 -0.0012469 -0.0018886 -0.0027897 -0.0092141 -0.010189 -0.011665
-0.0049354 -0.0088471 -0.26166 0.081866
740000000 -0.19066 0.18668 -0.038687 0.026682 0.012639 -0.0052619 -0.00027355 -0.0041134
-0.0042175 -0.0027844 -0.0063861 0.0024541
-0.038677 0.026655 -0.3348 0.17634 -0.03549 0.035024 -0.00063592 -0.0061079
-0.011889 0.0083421 -0.0019056 -0.0063182
0.012673 -0.0052246 -0.035384 0.035114 -0.068327 0.28457 -0.0021309 0.0032565
-0.002424 -0.0046948 -0.0015915 4.8447e-05
-0.00027372 -0.0041804 -0.00069814 -0.006107 -0.0021221 0.0032506 -0.20404 0.20137
-0.043263 -0.0075671 0.023036 0.014958
-0.0042592 -0.0028399 -0.011899 0.008421 -0.0024258 -0.0047362 -0.043313 -0.00754
-0.15914 0.062649 -0.043943 7.5499e-05
-0.0063895 0.002404 -0.0019739 -0.006395 -0.0015438 6.0341e-05 0.02305 0.014894
-0.043983 7.1576e-05 -0.24918 0.088461
800000000 -0.15766 0.22727 -0.022586 0.016671 0.005272 -0.010607 -0.0047454 -0.0020787
-0.0041074 0.0022173 0.0044958 0.00044273
-0.022563 0.016613 -0.33815 0.24636 -0.0078981 0.033847 -0.0023064 0.0022391
-0.00054851 0.0030572 0.0010685 0.005124
0.0052471 -0.010651 -0.0078137 0.033896 -0.027882 0.30775 0.0011355 0.0015285
0.0002629 0.0034869 -0.0017441 0.00091528
-0.0047665 -0.0020617 -0.0023101 0.0022649 0.0011352 0.0015216 -0.17577 0.22914
-0.02848 0.013325 0.013514 -0.010355
-0.0041363 0.0022912 -0.000504 0.003071 0.00027856 0.0035019 -0.028478 0.013389
-0.20635 0.086886 -0.01783 0.01887
0.0044585 0.00045691 0.0011008 0.0051566 -0.0017198 0.00091428 0.013516 -0.010398
-0.017835 0.018857 -0.24592 0.13816
860000000 -0.12299 0.24753 -0.017473 0.030592 -0.0033821 -0.0099533 -0.002336 0.00092522
0.0041037 0.0049552 -0.003138 -0.0027592
-0.017446 0.030583 -0.29059 0.28817 0.0078326 0.033929 8.4636e-05 0.0019024
0.0042902 0.00011748 0.0034713 0.00076515
-0.003402 -0.0099353 0.0079485 0.033941 0.020159 0.31556 -0.00054742 -0.00029836
0.0027779 -0.0015355 0.0013142 0.0045191
-0.0023292 0.00094894 5.6111e-05 0.0019242 -0.00054618 -0.0002998 -0.13931 0.2403
-0.018136 0.018226 -0.0062531 -0.0092061
0.0041561 0.0050551 0.0043017 7.6523e-05 0.0027742 -0.0015206 -0.018129 0.018243
-0.15621 0.13843 -0.026723 0.015189
-0.0031664 -0.0028237 0.0034958 0.0007823 0.0013533 0.0044939 -0.0062411 -0.0091227
-0.026682 0.015218 -0.19426 0.18576
920000000 -0.098547 0.27059 0.005033 0.037814 -0.0094532 -0.0043476 -0.0019198 0.0020197
0.0011133 0.0018533 0.0027957 -0.0015539
0.0049953 0.03781 -0.26161 0.30952 0.027985 0.021837 0.0012938 0.001109
0.0069418 -0.00058492 0.0040208 -0.0026451
-0.0094864 -0.0042936 0.028088 0.021771 0.066345 0.31615 0.0017777 -9.233e-05
0.0011547 -0.00039195 0.00091829 -0.0010089
-0.0019178 0.0020307 0.0013256 0.0011149 0.0017825 -8.9028e-05 -0.11558 0.25735
-0.011178 0.030276 0.0036343 -0.0063212
0.0011877 0.0018916 0.0069619 -0.00062847 0.0011637 -0.00040313 -0.011144 0.030313
-0.14713 0.14453 -0.0033814 0.027594
0.0027885 -0.0015343 0.004035 -0.0026214 0.00091411 -0.00097149 0.0036417 -0.0062795
-0.0033939 0.027581 -0.20403 0.19908
980000000 -0.051038 0.29015 0.017408 0.02995 -0.0089575 0.0047032 0.0020748 0.0036342
0.0039969 -0.0013078 -0.003306 -0.002216
0.017366 0.029958 -0.20877 0.3435 0.032754 0.0048497 0.0020286 5.5015e-05
0.001442 -0.005673 -0.00018867 -0.0024183
-0.0089302 0.0047014 0.032808 0.0047653 0.11251 0.30944 0.00046073 -0.0011483
0.00020125 -0.0020712 0.0015346 -0.00017614
0.0020925 0.0036414 0.0020213 2.8211e-05 0.00045688 -0.0011399 -0.077367 0.2686
0.0073773 0.029595 -0.0094099 -0.0072142
0.004047 -0.0012824 0.0014443 -0.0057198 0.0002129 -0.0020582 0.0074299 0.029587
-0.11639 0.17377 0.0042945 0.01942
-0.0032805 -0.0021701 -0.0001658 -0.002431 0.0015378 -0.00017017 -0.0094127 -0.0071838
0.0043082 0.019409 -0.16157 0.24518
1040000000 -0.0088153 0.29839 0.033054 0.018161 -0.0011318 0.0069003 0.0026016 0.00071784
0.00016038 -0.0038653 -0.00032089 -0.0013518
0.033018 0.018136 -0.17306 0.35643 0.029197 -0.014695 0.0014918 -0.0016173
-0.0025105 -0.0024132 -0.0013233 -0.0024332
-0.0011283 0.006896 0.029187 -0.014822 0.15839 0.29571 -0.00051276 -0.0014683
-0.0016761 -0.00078297 -0.00045171 -0.0011173
0.0025962 0.00072601 0.0014805 -0.0016258 -0.00051689 -0.001471 -0.050019 0.27891
0.018685 0.017968 -0.0023348 0.0016849
0.0001472 -0.0038567 -0.0025831 -0.0023936 -0.0016774 -0.00077518 0.018715 0.017924
-0.084378 0.18235 0.013143 0.018933
-0.00030551 -0.0013413 -0.0013508 -0.0024449 -0.00042919 -0.0010992 -0.0023066 0.0017035
0.013131 0.018985 -0.1406 0.26572
1100000000 0.03656 0.30611 0.035618 -0.0041962 0.0029358 0.0038497 0.002389 -0.0013094
-0.0020388 -0.0032402 -0.0039851 -3.8302e-05
0.035569 -0.0041779 -0.1297 0.37348 0.015093 -0.02755 1.5967e-05 -0.0017875
-0.0032565 -0.00066678 -0.0033884 -0.00054549
0.0029614 0.0038009 0.015013 -0.027641 0.20458 0.2754 -0.0018189 0.00027237
-0.0017738 0.00052328 -0.0010265 -0.00033625
0.0023655 -0.0012994 2.2185e-05 -0.0018045 -0.0018216 0.00026858 -0.0098536 0.28388
0.023859 0.0051743 -0.0025276 0.00015785
-0.0020572 -0.0031803 -0.0032596 -0.00063791 -0.0017703 0.0005259 0.02386 0.0051276
-0.066749 0.19662 0.018904 0.0089653
-0.0039487 5.0284e-05 -0.0033653 -0.00050069 -0.0010603 -0.00031848 -0.0025456 0.00017619
0.018938 0.0089874 -0.094838 0.29664
1160000000 0.087927 0.30094 0.023865 -0.020551 0.0027022 -0.00057126 -0.00021838 -0.0024373
-0.0041863 -0.00081957 -0.00093456 0.0041829
0.023858 -0.020534 -0.086167 0.37744 -0.0035854 -0.028886 -0.0016716 -0.0016751
-0.0026055 0.0024857 -0.0013399 0.0019638
0.0026875 -0.00059819 -0.0037185 -0.028891 0.24748 0.24477 -0.00062323 0.0017178
-0.00056249 0.001876 -0.0009345 0.00022055
-0.0002232 -0.0024159 -0.0017056 -0.001674 -0.00062469 0.0017174 0.029361 0.28139
0.020292 -0.0098028 -0.0028894 0.0054068
-0.0041852 -0.00077929 -0.0025906 0.0025167 -0.00055174 0.0018945 0.020281 -0.009847
-0.033401 0.20651 0.018118 0.0011592
-0.00093682 0.004173 -0.001317 0.0019429 -0.00092463 0.00022503 -0.0028884 0.0054253
0.018106 0.0011735 -0.047966 0.29963
1220000000 0.13224 0.28965 0.010371 -0.029744 -0.0015496 -0.00084331 -1.3776e-05 -0.00099284
-0.0026135 0.0024598 0.0013971 0.0019918
0.010372 -0.029729 -0.041983 0.38945 -0.016651 -0.020995 -0.002482 0.000398
0.00015032 0.0029178 -0.00073695 0.0018283
-0.001565 -0.00084419 -0.016764 -0.020943 0.28666 0.20596 0.0008408 0.0015428
0.00060069 0.0010935 0.00030039 0.00064789
-2.7512e-05 -0.00098451 -0.0024943 0.00040364 0.00083304 0.0015434 0.069094 0.27328
0.01002 -0.016213 0.0023538 0.0016008
-0.0026414 0.0024935 0.00015362 0.0029086 0.00059701 0.0011029 0.010007 -0.016226
-0.011056 0.21607 0.014491 -0.012103
0.0014077 0.001988 -0.00072861 0.001846 0.00029189 0.00065599 0.0023377 0.0015889
0.014468 -0.012135 -0.017205 0.31732
1280000000 0.18182 0.26748 -0.0077344 -0.028178 -0.001819 0.0024296 -0.00097751 -0.0020443
-0.00078849 0.0030713 0.0024774 0.0011685
-0.0076972 -0.028145 0.0037047 0.38041 -0.023445 -0.0085894 -0.00099639 0.0014247
0.0016116 0.0016638 0.00056774 0.0020757
-0.0018133 0.0024355 -0.023529 -0.0084829 0.31738 0.16219 0.0015405 -8.3616e-05
0.0010327 0.00028165 0.00046621 0.0003956
-0.00097363 -0.0020273 -0.00099165 0.0014338 0.0015415 -8.3986e-05 0.10592 0.25729
0.001064 -0.018055 0.00018659 3.2581e-05
-0.00078756 0.0030581 0.0016219 0.0016723 0.0010279 0.00027616 0.0010374 -0.018057
0.025507 0.2203 0.003636 -0.014325
0.0024931 0.0011577 0.00057102 0.0020764 0.00048073 0.00038152 0.00018446 2.4347e-05
0.0036423 -0.014337 0.03147 0.32021
1340000000 0.21871 0.23356 -0.017302 -0.018847 0.00082146 0.0044208 -0.0017629 -0.00078848
0.001457 0.0027305 0.0017674 -0.0014147
-0.017272 -0.018855 0.042983 0.37239 -0.021435 0.004015 -0.00014924 0.0019583
0.0018499 0.00076731 0.0012683 0.00078255
0.00085893 0.0044143 -0.021442 0.0041191 0.33955 0.11429 0.0010451 -0.00086993
0.00068087 -0.00047859 0.00022798 0.00028218
-0.0017619 -0.00078041 -0.00014509 0.0019547 0.0010411 -0.00086242 0.13857 0.23737
-0.0078431 -0.01537 0.0011278 0.00032097
0.0014869 0.0027321 0.0018478 0.00074661 0.00068281 -0.00048622 -0.0078761 -0.015362
0.055224 0.21647 -0.0028049 -0.013027
0.001746 -0.0014024 0.001282 0.00076753 0.00022997 0.00028774 0.0011245 0.00032354
-0.0028082 -0.013053 0.069556 0.31663
1400000000 0.25145 0.19531 -0.023038 -0.0075658 0.005061 0.003045 -0.0020371 0.00065284
0.0023966 0.00085588 0.00031615 -0.0013414
-0.023006 -0.0075875 0.080193 0.35948 -0.014851 0.012127 0.0012733 0.0013438
0.0010629 -0.000765 0.0012374 0.00029972
0.0050645 0.0030312 -0.014801 0.012219 0.35293 0.060587 0.00012211 -0.0015434
-6.0579e-05 -0.00034792 0.00046963 0.00018386
-0.0020296 0.00066352 0.00129 0.001343 0.00011996 -0.0015451 0.16843 0.20901
-0.01328 -0.0091493 -0.00073843 -0.00072468
0.0024102 0.00083945 0.0010618 -0.00077489 -6.1691e-05 -0.00035273 -0.013307 -0.0091142
0.088218 0.21297 -0.009107 -0.0088175
0.00031565 -0.0013269 0.0012372 0.00029927 0.00047931 0.00018398 -0.0007449 -0.00072703
-0.0091325 -0.0088377 0.11513 0.30618
1460000000 0.27394 0.15135 -0.020184 0.0044198 0.0054795 -0.0017829 -0.0015761 0.0017046
0.0020427 -0.00060874 -0.000356 -0.00095734
-0.020166 0.0043941 0.1144 0.33786 -0.0063612 0.015115 0.0017425 0.0002054
0.00085482 -0.0012036 0.0011832 -0.00055038
0.0054741 -0.0018081 -0.0062846 0.015158 0.35897 0.0059521 -0.0012092 -0.0011595
0.00015414 -0.00021382 0.00054432 -0.00034167
-0.0015752 0.0017044 0.0017581 0.00018782 -0.0012191 -0.0011591 0.19519 0.18026
-0.014339 -0.0029529 -0.0010525 0.0017516
0.0020564 -0.00064918 0.00084862 -0.0012195 0.00015147 -0.00021375 -0.014331 -0.0029374
0.11758 0.19907 -0.011095 -0.0032184
-0.00035426 -0.00093836 0.0011723 -0.00056679 0.00055007 -0.00035668 -0.0010577 0.0017545
-0.011108 -0.0032376 0.14876 0.28578
1520000000 0.28593 0.10965 -0.014727 0.0099414 0.0032605 -0.0040724 9.0932e-05 0.0025806
0.0020151 -0.0017383 -0.0010991 -9.8653e-05
-0.014728 0.0099282 0.1481 0.32315 0.0012998 0.013086 0.0016327 -0.00075147
7.3358e-05 -0.00098541 0.00037933 -0.00099509
0.0032607 -0.0040915 0.0013656 0.013085 0.3519 -0.050395 -0.0010352 -0.00032052
0.00065511 -0.00076001 -1.5274e-06 -0.00010331
0.00010613 0.0025887 0.0016346 -0.00075443 -0.0010277 -0.00032975 0.21908 0.14247
-0.013876 0.002148 0.0012075 0.00195
0.0020061 -0.0017362 6.2462e-05 -0.00099609 0.00065831 -0.00076862 -0.013871 0.0021851
0.14567 0.18557 -0.011318 0.00094646
-0.0010966 -8.8867e-05 0.00035759 -0.0010039 1.2862e-05 -9.7969e-05 0.0012141 0.0019432
-0.01133 0.00096013 0.18259 0.26614
1580000000 0.29504 0.063592 -0.0083089 0.013099 -0.00083565 -0.0047888 0.0013813 0.001879
-0.00038417 -0.0020034 -0.00031515 0.00045344
-0.00831 0.013081 0.1756 0.29834 0.0050106 0.0084173 0.00049029 -0.0015596
-0.00052 -0.0010067 -0.0002359 -0.00078255
-0.00085668 -0.0047859 0.0050617 0.0083887 0.33147 -0.10807 -0.0015303 0.0005785
-0.00021325 -0.0011263 0.00010221 -0.00043392
0.0013813 0.0018778 0.00048642 -0.001563 -0.00153 0.00058572 0.23363 0.10315
-0.010792 0.0067529 0.002098 0.00085161
-0.00038597 -0.0020257 -0.00053454 -0.001007 -0.00022506 -0.0011356 -0.010773 0.0067807
0.17048 0.16827 -0.0092114 0.0067163
-0.00031013 0.00045948 -0.00023974 -0.00078749 0.00010332 -0.00044581 0.002089 0.00085015
-0.0092245 0.0067432 0.21576 0.2394
1640000000 0.29703 0.02241 -0.001701 0.012259 -0.0026639 -0.0025897 0.0026922 0.0010171
-0.00062273 -0.001399 -0.00020498 0.00052903
-0.0017076 0.012255 0.20522 0.27319 0.005865 0.003659 -0.0006212 -0.0017275
-0.0009459 -0.00044683 -0.00044168 -0.00074007
-0.0026809 -0.0025719 0.005892 0.0036359 0.30309 -0.157 -0.00064457 0.0013756
-0.00098874 -0.0010569 -5.3752e-05 -0.00046993
0.0026977 0.0010041 -0.00063716 -0.0017289 -0.00064263 0.001368 0.2466 0.05398
-0.0069265 0.0079799 0.0023609 -0.00073333
-0.00063572 -0.0013965 -0.00095037 -0.00043028 -0.00099617 -0.0010688 -0.0069144 0.0079918
0.19346 0.1442 -0.0048623 0.0087454
-0.0002045 0.00052873 -0.00044803 -0.00074442 -5.388e-05 -0.00048989 0.0023589 -0.00073587
-0.0048625 0.0087794 0.24144 0.2085
1700000000 0.2898 -0.02291 0.0017408 0.0096337 -0.0035008 0.00014935 0.0030362 -0.0011787
-0.0019194 -0.00065366 0.00060682 0.00037957
0.0017336 0.0096144 0.2234 0.24137 0.0039189 0.0007297 -0.0014541 -0.00058608
-0.00079617 9.6727e-06 -0.00089404 -0.00046584
-0.0034955 0.00015416 0.0039252 0.00070631 0.25955 -0.19711 0.00038111 0.0015839
-0.0018869 -0.00030248 -0.00044186 -0.00082574
0.0030396 -0.0011885 -0.001451 -0.00057867 0.00037638 0.0015896 0.24382 0.0036971
-0.0045179 0.0086235 0.0014421 -0.0021685
-0.0019272 -0.00065011 -0.00080144 1.4924e-05 -0.0018863 -0.00031162 -0.0045044 0.0086403
0.21115 0.12417 -0.0002443 0.0092639
0.0006086 0.00036332 -0.00090574 -0.00046087 -0.00044759 -0.000828 0.0014401 -0.0021747
-0.00023781 0.0092825 0.25825 0.17392
1760000000 0.27746 -0.07148 0.0042401 0.0064759 -0.0021943 0.0009337 0.0013371 -0.00343
-0.0012389 0.0006369 0.00036406 -0.00066064
0.0042245 0.0064803 0.24922 0.2012 0.0016796 -0.0010281 -0.001163 0.00017523
-0.0010325 0.00087383 -0.00059588 0.00035702
-0.0021809 0.00095875 0.0016806 -0.0010425 0.21015 -0.23007 0.0010983 0.0011224
-0.0011648 0.0013529 -0.0012416 -0.00063824
0.0013218 -0.0034282 -0.0011669 0.00018172 0.001105 0.0011256 0.23459 -0.048294
-0.0013918 0.0079731 -0.00030937 -0.0024221
-0.0012195 0.00065095 -0.0010239 0.00087926 -0.0011555 0.0013553 -0.0013775 0.0079879
0.22625 0.08913 0.0035624 0.0068289
0.00036437 -0.00068851 -0.00060043 0.00035668 -0.0012497 -0.00063172 -0.00030816 -0.0024373
0.0035803 0.0068333 0.27112 0.13627
1820000000 0.2527 -0.10882 0.0045946 0.0028929 3.1532e-05 0.0023627 -0.00096029 -0.0030547
-0.0010881 0.00080688 -6.9424e-05 -3.9928e-05
0.0045883 0.0028981 0.25898 0.17092 -0.00015743 1.8982e-06 -0.0013259 0.00090326
-8.9913e-05 0.0013204 -0.00059813 0.00053721
2.3958e-05 0.0023657 -0.00015801 -9.4136e-06 0.16045 -0.24542 0.001401 0.00045844
-0.00037601 0.0023006 -0.0014193 0.00032006
-0.00098275 -0.0030544 -0.0013225 0.00090713 0.0013963 0.00047956 0.2043 -0.095826
-2.3074e-05 0.0064873 -0.0016228 -0.0013579
-0.0010875 0.00081189 -7.6255e-05 0.001332 -0.00037423 0.0023058 -6.8596e-06 0.0064979
0.24351 0.059986 0.0044364 0.0035307
-7.3004e-05 -6.0844e-05 -0.00059352 0.00053834 -0.0014197 0.00031248 -0.0016341 -0.001357
0.0044566 0.0035192 0.27385 0.10032
1880000000 0.21733 -0.14923 0.0025221 0.00049171 -0.00044293 0.0020191 -0.0029973 -0.0021595
-0.00028485 0.0016008 0.00028736 -0.0005101
0.0025253 0.00050517 0.26305 0.12422 -0.002265 0.0016184 -0.00022151 0.001655
0.00060436 0.0012798 9.7688e-05 0.00096216
-0.00042923 0.00202 -0.002252 0.0016356 0.10799 -0.25516 0.0019079 -0.00086464
0.0014236 0.0020936 -0.0010335 0.0013526
-0.0030076 -0.0021435 -0.00020259 0.0016622 0.001905 -0.00087125 0.1631 -0.13603
0.00054253 0.0046216 -0.0023873 0.00054707
-0.00026434 0.0016157 0.00061469 0.0012738 0.0014229 0.0020778 0.00054868 0.0046121
0.24646 0.027194 0.0045893 0.0015107
0.00029757 -0.00050546 0.00010289 0.00095152 -0.001039 0.0013634 -0.0023896 0.00055429
0.0045984 0.0015152 0.27339 0.066038
1940000000 0.17771 -0.17483 0.00034372 -0.0012992 0.0013015 0.0019367 -0.0038279 0.00051196
0.0011767 0.0010328 -0.0006349 -0.00053793
0.00034331 -0.0012999 0.26321 0.092453 -0.0011287 0.0038225 0.00097607 0.0013362
0.0018921 0.00047911 0.00084885 0.00029446
0.0012998 0.0019439 -0.0011103 0.0038206 0.061968 -0.24826 0.00048824 -0.0021901
0.0025356 0.00052994 0.00028308 0.0015391
-0.00383 0.00054716 0.00098676 0.0013323 0.00048299 -0.0021893 0.11044 -0.16596
-0.00053011 0.0036313 -0.0013475 0.0016384
0.0011837 0.0010309 0.0018885 0.00046441 0.002531 0.00049624 -0.00052495 0.0036274
0.24801 -0.011988 0.0036217 -0.0017948
-0.00067044 -0.00052156 0.00085156 0.00028517 0.00027187 0.0015269 -0.0013642 0.0016406
0.0036315 -0.0017987 0.26272 0.030497
2000000000 0.13106 -0.18933 -0.0035345 0.00057184 0.0025133 0.0016686 -0.0022958 0.0035755
0.0011231 0.00029093 -0.00071223 0.000395
-0.0035152 0.00057233 0.24874 0.057102 -0.00094811 0.0057374 0.0016332 0.00043693
0.0013501 -0.001404 0.00053866 0.00014141
0.0025007 0.0016509 -0.00091622 0.0057413 0.018548 -0.23344 -0.0012805 -0.0014731
0.002103 -0.0011484 0.0016692 0.0012879
-0.0022812 0.0035819 0.0016367 0.0004285 -0.0012712 -0.0014747 0.056827 -0.17538
-0.0021862 0.0038465 2.9929e-05 0.0021914
0.0011232 0.00027473 0.0013616 -0.0014301 0.002099 -0.0011528 -0.0021791 0.0038559
0.24142 -0.045987 0.00047181 -0.0025522
