!Keysight Technologies,M9804A,MY58100912,A.14.10.03
!Date: Thursday, April 27, 2023 10:28:33
!Correction: S11(C  6-Port  ) 
!S12(C  6-Port  ) 
!S13(C  6-Port  ) 
!S14(C  6-Port  ) 
!S15(C  6-Port  ) 
!S16(C  6-Port  ) 
!S21(C  6-Port  ) 
!S22(C  6-Port  ) 
!S23(C  6-Port  ) 
!S24(C  6-Port  ) 
!S25(C  6-Port  ) 
!S26(C  6-Port  ) 
!S31(C  6-Port  ) 
!S32(C  6-Port  ) 
!S33(C  6-Port  ) 
!S34(C  6-Port  ) 
!S35(C  6-Port  ) 
!S36(C  6-Port  ) 
!S41(C  6-Port  ) 
!S42(C  6-Port  ) 
!S43(C  6-Port  ) 
!S44(C  6-Port  ) 
!S45(C  6-Port  ) 
!S46(C  6-Port  ) 
!S51(C  6-Port  ) 
!S52(C  6-Port  ) 
!S53(C  6-Port  ) 
!S54(C  6-Port  ) 
!S55(C  6-Port  ) 
!S56(C  6-Port  ) 
!S61(C  6-Port  ) 
!S62(C  6-Port  ) 
!S63(C  6-Port  ) 
!S64(C  6-Port  ) 
!S65(C  6-Port  ) 
!S66(C  6-Port  ) 
!S6P File: Measurement: :
# Hz S  RI   R 50
500000000 -0.3368 -0.03972 -0.010348 -0.0022845 -0.008444 0.012968 -0.00435 0.012559
0.01218 0.0050978 -0.0049118 0.0089499
-0.01035 -0.0023931 -0.41948 -0.052383 0.0077597 -0.010269 0.0015922 0.012325
0.0075587 0.0021994 0.0019211 0.013813
-0.0084251 0.012918 0.0077535 -0.010395 -0.26542 0.20878 0.0076974 0.003661
-0.0022321 0.0075078 0.0017587 0.012045
-0.0043528 0.012402 0.001617 0.012383 0.0076882 0.003673 -0.33178 0.04091
-0.019755 -0.0068543 0.015818 0.026357
0.012284 0.0051948 0.0074836 0.0022825 -0.0022683 0.0075336 -0.01965 -0.0068807
-0.22035 -0.2036 -0.0268 0.0045931
-0.0045123 0.0088215 0.0018224 0.013614 0.0014896 0.012102 0.01595 0.02615
-0.026647 0.0048159 -0.26446 -0.14111
560000000 -0.31657 0.12243 -0.024209 -0.063933 0.00034954 0.01224 0.0055252 0.010586
0.010369 0.0052372 0.011095 0.0080447
-0.024243 -0.063765 -0.37701 0.10726 -0.041141 -0.037422 0.013566 0.0038529
-0.012347 -0.0047374 0.0031636 4.706e-05
0.0002692 0.012358 -0.041368 -0.037377 -0.18352 0.25736 -0.00018321 -0.0043898
0.019963 0.0053443 0.0064653 -0.0058695
0.005612 0.010678 0.013643 0.0038851 -0.00017362 -0.0044337 -0.30743 0.13139
0.0049167 -0.023919 0.0042505 -0.021813
0.010325 0.0051803 -0.012482 -0.0046258 0.020064 0.005378 0.0048378 -0.023877
-0.28884 -0.029334 0.0084311 -0.048644
0.011345 0.0079258 0.0030884 0.00020693 0.0063653 -0.0059814 0.0044092 -0.021948
0.0082626 -0.048465 -0.32915 0.010145
620000000 -0.27561 0.10574 -0.023139 0.0079394 0.0030947 0.0084769 0.0083398 -0.005192
0.011288 0.00032701 0.0026499 -0.0028761
-0.023127 0.0079342 -0.40271 0.058638 -0.018736 0.00014628 -0.0013347 -0.0020356
0.011498 -0.0061304 0.001365 -0.0027018
0.003361 0.0085064 -0.018867 0.00023322 -0.15386 0.2668 -0.0015215 -0.0051064
-0.0029749 -0.002338 0.008401 -0.003159
0.0084135 -0.0051757 -0.0013761 -0.0020327 -0.0014865 -0.0051132 -0.26703 0.14262
-0.038858 -0.019371 0.011946 0.026159
0.011378 0.00041424 0.011602 -0.0062144 -0.002926 -0.0024083 -0.038765 -0.019529
-0.20644 -0.065201 -0.042191 0.015213
0.0026773 -0.0022957 0.0013284 -0.0028826 0.0083798 -0.002972 0.011978 0.025948
-0.041921 0.015266 -0.2469 -0.029186
680000000 -0.23574 0.19188 -0.027368 -0.014207 0.0049491 0.0052575 0.0014733 -0.0076303
-0.0032445 -0.011445 0.005141 -0.0065476
-0.027317 -0.014199 -0.38791 0.15665 -0.033004 -0.0013474 -0.0017002 -0.00074758
-0.0017183 -0.0089497 -0.001008 -0.0016571
0.0049769 0.005212 -0.032998 -0.0012562 -0.10269 0.28599 -0.00068364 -0.00020586
-0.0016333 0.00055009 -0.0030281 -0.0092867
0.0014654 -0.0077098 -0.0016511 -0.00077059 -0.00067939 -0.00020213 -0.2217 0.19341
-0.024395 -0.0070783 -0.010409 -0.010896
-0.0031814 -0.011423 -0.0017922 -0.0088654 -0.0016233 0.00053511 -0.024424 -0.0070902
-0.2604 0.034145 -0.0055617 -0.0078212
0.0050511 -0.0065252 -0.00096755 -0.001661 -0.003047 -0.0092578 -0.010481 -0.010797
-0.0056544 -0.0080071 -0.26145 0.079748
740000000 -0.19084 0.18688 -0.03862 0.02687 0.012823 -0.0048948 -0.00023166 -0.0044346
-0.0041005 -0.0024634 -0.0064491 0.0020919
-0.038538 0.026729 -0.33476 0.17558 -0.035659 0.035585 -0.00071334 -0.0061994
-0.012101 0.0079278 -0.0019453 -0.0061283
0.012807 -0.0049329 -0.035515 0.035703 -0.069403 0.28395 -0.0022304 0.0032142
-0.0020083 -0.0052316 -0.0021357 -2.0619e-05
-0.00020954 -0.0045134 -0.00069725 -0.0062286 -0.0022331 0.0032172 -0.20502 0.20132
-0.0444 -0.0062454 0.023399 0.015458
-0.0041352 -0.0024853 -0.012092 0.0080863 -0.002041 -0.005245 -0.044445 -0.0062406
-0.15717 0.060422 -0.044842 0.00040198
-0.0061032 0.0022075 -0.0019462 -0.0061329 -0.002108 -4.32e-05 0.023418 0.015562
-0.044981 0.0003727 -0.25163 0.084664
800000000 -0.15825 0.22657 -0.022356 0.016585 0.0054405 -0.010762 -0.0048937 -0.0021733
-0.0041879 0.0020944 0.0045748 6.8414e-05
-0.022322 0.016517 -0.33846 0.24558 -0.0078793 0.034182 -0.0023537 0.0021523
-0.00051938 0.003004 0.0012864 0.0052004
0.0053964 -0.010847 -0.0077768 0.034188 -0.028618 0.30745 0.00095096 0.0014852
0.0002811 0.0035259 -0.0016897 0.00074858
-0.0049088 -0.0021233 -0.0023399 0.0021506 0.0009402 0.0014932 -0.17642 0.22941
-0.029075 0.014236 0.014193 -0.010538
-0.004099 0.00207 -0.00050283 0.0029476 0.00034258 0.0035355 -0.029044 0.014345
-0.2073 0.084733 -0.017555 0.019593
0.0045944 5.6124e-05 0.0013094 0.0052062 -0.001641 0.00080146 0.014195 -0.010524
-0.017664 0.019544 -0.24689 0.13485
860000000 -0.12332 0.24713 -0.017389 0.03058 -0.0032528 -0.010168 -0.0021166 0.00094672
0.0040326 0.0046039 -0.0035548 -0.0030753
-0.017372 0.030586 -0.29104 0.28773 0.0079873 0.034543 -8.8667e-06 0.0020427
0.004309 0.00036518 0.0030974 0.00057945
-0.003282 -0.010171 0.0080829 0.034555 0.019265 0.31574 -0.00058638 -0.00026854
0.0027278 -0.0016471 0.001548 0.0043014
-0.0021293 0.0009146 2.7386e-05 0.002019 -0.00057962 -0.00027169 -0.14002 0.2406
-0.018248 0.019426 -0.0058041 -0.0092704
0.0040943 0.0046544 0.00429 0.00035279 0.0026892 -0.001669 -0.018295 0.019431
-0.15567 0.13728 -0.026458 0.015248
-0.0034537 -0.0032268 0.0032403 0.00059268 0.0015928 0.0042972 -0.0059539 -0.0093634
-0.026345 0.015287 -0.19447 0.18299
920000000 -0.098715 0.27011 0.0051953 0.037964 -0.0096079 -0.0046693 -0.0016459 0.0017778
0.00095728 0.0019625 0.0027729 -0.0016195
0.0051262 0.037948 -0.26233 0.30941 0.028353 0.022156 0.0014752 0.0010766
0.0072626 -0.00036114 0.0041204 -0.0026357
-0.0096271 -0.0046241 0.028452 0.022126 0.065638 0.31663 0.0018325 -0.00015017
0.0012306 -0.00022409 0.0010381 -0.0010839
-0.0016593 0.0018064 0.0014757 0.0010966 0.0018341 -0.00014584 -0.11633 0.25799
-0.010892 0.031719 0.0040554 -0.0068396
0.00096742 0.0019886 0.0072372 -0.00044767 0.0012168 -0.00023371 -0.010838 0.031726
-0.14619 0.14371 -0.0028128 0.027863
0.0027467 -0.0017002 0.0041535 -0.0026689 0.0010237 -0.0010751 0.0040471 -0.0068324
-0.0027209 0.027888 -0.20544 0.19637
980000000 -0.051613 0.28964 0.017573 0.03023 -0.0092902 0.0046733 0.0020885 0.0034401
0.0040193 -0.0012211 -0.003286 -0.0020248
0.017498 0.030214 -0.2096 0.3432 0.033498 0.004831 0.0021461 -4.9384e-05
0.0016162 -0.0057756 -0.00036674 -0.0024548
-0.0092839 0.004705 0.033546 0.0047099 0.11217 0.31017 0.00055275 -0.0011054
0.00033588 -0.0021158 0.0013949 -0.0002922
0.0020816 0.0034043 0.0021348 -3.0123e-05 0.00055383 -0.0011067 -0.077618 0.26945
0.0084773 0.031269 -0.0091135 -0.0077065
0.0040535 -0.0012221 0.0015773 -0.005804 0.00032304 -0.0020952 0.0085459 0.031253
-0.11521 0.17321 0.004971 0.020054
-0.0033345 -0.0021528 -0.00044424 -0.0024844 0.0013971 -0.00031553 -0.0091069 -0.0076982
0.0050773 0.020127 -0.16333 0.24297
1040000000 -0.0096231 0.29821 0.033389 0.018234 -0.0013904 0.0071156 0.0025019 0.00057029
9.4566e-05 -0.0037093 -0.00024868 -0.0013648
0.033335 0.018271 -0.17406 0.35645 0.029748 -0.015176 0.0014283 -0.0017619
-0.002514 -0.0026829 -0.0014692 -0.0026767
-0.0013649 0.0071171 0.029685 -0.015309 0.15842 0.29663 -0.00050064 -0.0015941
-0.0015905 -0.0009944 -0.00051596 -0.0010368
0.0025077 0.00056131 0.0014337 -0.001765 -0.00050476 -0.0015956 -0.050196 0.27992
0.020625 0.018946 -0.0022547 0.0010557
0.00014303 -0.0037105 -0.0025378 -0.0026806 -0.0016022 -0.0009689 0.020668 0.018905
-0.082905 0.181 0.013553 0.019222
-0.00030983 -0.0013645 -0.0015294 -0.0026111 -0.00054396 -0.0010237 -0.0022927 0.0010399
0.013602 0.019158 -0.14291 0.26417
1100000000 0.035742 0.30604 0.036161 -0.004354 0.0029293 0.0040073 0.0022863 -0.001378
-0.0019595 -0.0032066 -0.0039694 6.683e-05
0.036121 -0.0042961 -0.1306 0.37392 0.015138 -0.028315 -6.4577e-05 -0.00179
-0.003452 -0.00083348 -0.0035456 -0.00043532
0.0029087 0.0039923 0.015032 -0.028405 0.20529 0.27614 -0.0019642 0.0002994
-0.0018811 0.00052533 -0.0011226 -0.00045221
0.0022723 -0.0013618 -7.3584e-05 -0.0017849 -0.0019666 0.00029636 -0.009308 0.28508
0.026345 0.0050596 -0.0026951 -0.0001344
-0.0019859 -0.0031756 -0.0034435 -0.00080285 -0.0018865 0.00051887 0.026382 0.0050165
-0.065087 0.19477 0.019616 0.0091637
-0.0039465 7.3244e-05 -0.0035705 -0.00040291 -0.0011 -0.0004572 -0.0026901 -0.00015886
0.019639 0.0091512 -0.097419 0.29559
1160000000 0.087023 0.30116 0.024067 -0.021159 0.0027292 -0.00046176 -0.0003897 -0.0023106
-0.0042033 -0.00077551 -0.000943 0.0042491
0.024042 -0.021101 -0.086799 0.3784 -0.0040336 -0.029571 -0.0017582 -0.001664
-0.0028625 0.0025549 -0.0014807 0.0019001
0.0027233 -0.00048476 -0.0041637 -0.029558 0.24852 0.24481 -0.00070871 0.0018094
-0.00069051 0.0020232 -0.00093933 0.00036318
-0.00039427 -0.0023193 -0.0017631 -0.0016435 -0.00070968 0.0018044 0.03044 0.2823
0.022617 -0.011474 -0.0032401 0.0050797
-0.0041973 -0.00071202 -0.0028797 0.0025366 -0.00067965 0.0020437 0.022613 -0.011495
-0.031785 0.20402 0.019022 0.00076414
-0.00093199 0.0042371 -0.0015003 0.001919 -0.00096444 0.0003825 -0.0031555 0.0050912
0.019035 0.00077847 -0.050058 0.29922
1220000000 0.13149 0.29012 0.010325 -0.030477 -0.0015317 -0.00084129 1.2226e-05 -0.00076674
-0.002714 0.0023935 0.0014328 0.0022032
0.010318 -0.030437 -0.041963 0.39053 -0.017332 -0.021236 -0.0025391 0.00051838
-2.5765e-05 0.0030401 -0.0007712 0.0019797
-0.0015357 -0.00082654 -0.017456 -0.021189 0.28761 0.20536 0.00087555 0.0017062
0.0006924 0.0012448 0.00036963 0.00077734
-8.0564e-06 -0.000764 -0.0025372 0.00051918 0.00086961 0.001711 0.070773 0.27356
0.011151 -0.018732 0.0019396 0.0014029
-0.0027285 0.0024099 -1.3908e-05 0.0030495 0.00068937 0.0012618 0.011132 -0.018773
-0.0096002 0.21362 0.014965 -0.013168
0.0014583 0.00213 -0.00075459 0.0019764 0.00037584 0.00078863 0.0019166 0.0013971
0.014942 -0.01318 -0.01943 0.31725
1280000000 0.18143 0.26815 -0.0083424 -0.02881 -0.0018364 0.0024221 -0.00081943 -0.0019264
-0.0008935 0.003127 0.0024519 0.0011933
-0.0083087 -0.028788 0.0044617 0.38133 -0.024198 -0.0082676 -0.0009338 0.0015172
0.0016969 0.0018838 0.0007 0.0021992
-0.0018069 0.0024252 -0.024264 -0.0081667 0.31757 0.1609 0.0016961 9.142e-06
0.0011995 0.00033256 0.0004143 0.00035256
-0.00084032 -0.0019163 -0.00091115 0.0015147 0.0016906 5.6178e-06 0.10784 0.25649
0.00085799 -0.020871 -0.00034941 0.0001062
-0.00089628 0.003131 0.0017028 0.0018754 0.0011994 0.00033756 0.00080397 -0.020885
0.027221 0.21773 0.0035286 -0.015506
0.0024671 0.001133 0.00076204 0.0021694 0.00041125 0.00033952 -0.00034412 9.5878e-05
0.0035175 -0.015556 0.029163 0.32048
1340000000 0.21864 0.23415 -0.018152 -0.018911 0.00096546 0.004535 -0.0016654 -0.00081949
0.0014416 0.0028328 0.0018409 -0.0013977
-0.018124 -0.018899 0.044023 0.37251 -0.021737 0.0045974 -5.5385e-05 0.0019617
0.0019562 0.00079784 0.0014734 0.00075852
0.00098254 0.004525 -0.021733 0.0047116 0.3389 0.11307 0.001155 -0.00096706
0.00083467 -0.00043026 0.00025699 0.00039854
-0.0016764 -0.00082369 -3.8574e-05 0.0019564 0.0011558 -0.00097642 0.13994 0.23563
-0.0094344 -0.017674 0.00058957 0.0006917
0.0014424 0.0028246 0.0019485 0.00078979 0.00083724 -0.00040939 -0.0094695 -0.017662
0.057031 0.21334 -0.0036296 -0.01418
0.0018409 -0.0014466 0.0014737 0.00072475 0.00026418 0.00040041 0.00060449 0.00065574
-0.0035552 -0.014191 0.06751 0.317
1400000000 0.25166 0.19568 -0.023799 -0.0071321 0.0051467 0.0030988 -0.0020401 0.00058029
0.0024349 0.00093241 0.00031952 -0.0014262
-0.023772 -0.0071454 0.081312 0.35886 -0.014731 0.012746 0.0013486 0.001296
0.0011941 -0.00081294 0.0012864 0.00015525
0.00518 0.003089 -0.014686 0.01285 0.35175 0.059984 0.00015327 -0.0016824
-2.8872e-06 -0.00042358 0.00055471 0.00025383
-0.0020544 0.00061384 0.001362 0.0012889 0.00014543 -0.0016731 0.16891 0.20654
-0.015799 -0.010383 -0.00087635 -0.00022568
0.0024438 0.00091112 0.0011962 -0.00084148 -1.6894e-05 -0.00042008 -0.015827 -0.010328
0.090044 0.20898 -0.010301 -0.0093267
0.00032318 -0.0014254 0.0012958 0.00014974 0.00054597 0.00025714 -0.0008924 -0.00022159
-0.010305 -0.009335 0.11328 0.30652
1460000000 0.27406 0.15118 -0.020545 0.0052317 0.0056167 -0.0018687 -0.0015962 0.0016488
0.0022422 -0.00049608 -0.00036821 -0.0010122
-0.020528 0.0052181 0.11494 0.33648 -0.0057951 0.015475 0.0017047 0.00018168
0.00087221 -0.0012963 0.0011657 -0.00072809
0.005613 -0.0019088 -0.005731 0.015532 0.35753 0.0060895 -0.0013778 -0.0013289
0.00017548 -0.00039087 0.00064378 -0.0003287
-0.0015795 0.0016589 0.0017124 0.00016918 -0.0013648 -0.0013317 0.19443 0.17736
-0.017093 -0.0028156 -0.00085438 0.0023195
0.0022269 -0.00051102 0.00086302 -0.0012946 0.00018304 -0.00038891 -0.017107 -0.0027788
0.11872 0.19423 -0.012491 -0.0029497
-0.00036315 -0.001026 0.0011438 -0.00073836 0.00065181 -0.00031628 -0.00085763 0.0023067
-0.012491 -0.0029784 0.14693 0.28615
1520000000 0.28571 0.10937 -0.014618 0.010772 0.0033229 -0.004236 9.7654e-05 0.0026102
0.0021583 -0.0017793 -0.0011235 -0.00010188
-0.01462 0.010751 0.14796 0.32166 0.0018199 0.013061 0.0016772 -0.00076971
2.7803e-06 -0.0010703 0.00031426 -0.0010552
0.0033129 -0.0042453 0.0019019 0.013055 0.35084 -0.04975 -0.0012237 -0.00035391
0.00059952 -0.00084551 9.2718e-05 -0.0001722
9.5293e-05 0.0026178 0.0016836 -0.00077907 -0.0012125 -0.00035631 0.21692 0.14005
-0.015961 0.0035593 0.0016768 0.0022405
0.0021453 -0.0017996 -3.7584e-06 -0.001064 0.00061121 -0.00083357 -0.015968 0.0036046
0.14598 0.18028 -0.012313 0.0018071
-0.0011259 -0.00010655 0.00029771 -0.0010554 8.4969e-05 -0.00017439 0.0016789 0.0022285
-0.012339 0.0017901 0.1807 0.26672
1580000000 0.29448 0.063281 -0.0077013 0.013777 -0.0010265 -0.0049932 0.0014133 0.0018866
-0.00024859 -0.002205 -0.00031205 0.00048099
-0.0077081 0.013764 0.17459 0.29687 0.0052968 0.0080561 0.00049092 -0.0016473
-0.00061491 -0.0010512 -0.00035321 -0.00076173
-0.0010359 -0.0050083 0.0053458 0.0080346 0.33098 -0.10706 -0.0016431 0.00074685
-0.00040126 -0.0011399 7.098e-05 -0.00051616
0.0014178 0.001889 0.0004775 -0.001645 -0.0016417 0.00074111 0.2303 0.10168
-0.011817 0.0087651 0.0025113 0.00091534
-0.00026624 -0.0021949 -0.00063715 -0.0010496 -0.00039214 -0.0011166 -0.011809 0.0087899
0.1698 0.16239 -0.0096421 0.007944
-0.00030815 0.00046843 -0.00035249 -0.00074387 6.01e-05 -0.00049085 0.0025264 0.00089713
-0.0096563 0.007956 0.21382 0.24041
1640000000 0.296 0.022417 -0.00081724 0.012377 -0.0027094 -0.0025888 0.0027899 0.0010133
-0.00069744 -0.0016218 -0.00017752 0.00057677
-0.00082097 0.012354 0.2036 0.27229 0.0059837 0.0033287 -0.00071731 -0.0017735
-0.0010345 -0.00035231 -0.00048193 -0.00065358
-0.0027299 -0.0025859 0.0060232 0.0032885 0.30284 -0.15615 -0.00060063 0.0015509
-0.0011162 -0.0010437 -0.00013059 -0.00050026
0.0028001 0.00098634 -0.00073338 -0.0017652 -0.00059521 0.0015545 0.24243 0.054206
-0.0069631 0.0097994 0.0026751 -0.00084304
-0.00069891 -0.0016366 -0.0010451 -0.00033465 -0.0010996 -0.0010488 -0.0069379 0.0098403
0.19135 0.13854 -0.0045664 0.00999
-0.00015627 0.00058868 -0.00049952 -0.00065457 -0.00016136 -0.00050959 0.0026638 -0.00084552
-0.0045744 0.0099793 0.23975 0.20976
1700000000 0.28858 -0.022331 0.0024887 0.0092418 -0.0034403 0.00011216 0.0030497 -0.0012521
-0.0021202 -0.00071548 0.00071465 0.00036156
0.0024742 0.0092341 0.22145 0.2412 0.0039029 0.00054572 -0.0015432 -0.00055505
-0.00075802 0.00011575 -0.00089864 -0.00039958
-0.0034615 0.00011417 0.0039126 0.00053049 0.25995 -0.19577 0.00052553 0.0016386
-0.0020335 -0.0001739 -0.00045285 -0.00085601
0.0030525 -0.0012469 -0.0015507 -0.00054748 0.00052142 0.0016455 0.23994 0.0060621
-0.0039575 0.010097 0.001643 -0.0023794
-0.0021548 -0.0006915 -0.000762 0.00012904 -0.0020221 -0.00014719 -0.003917 0.010103
0.2079 0.11898 0.00044204 0.01014
0.00070651 0.00037258 -0.00090282 -0.00039113 -0.00044772 -0.00084424 0.0016492 -0.0023699
0.0004345 0.010137 0.25703 0.17555
1760000000 0.27639 -0.070312 0.0044889 0.0057868 -0.002326 0.0010038 0.0012589 -0.0034761
-0.0014458 0.00078634 0.00036767 -0.00066221
0.0044947 0.005789 0.24723 0.20185 0.0015258 -0.0012295 -0.0012111 0.00024907
-0.00092693 0.00091588 -0.00053712 0.00042255
-0.0023127 0.0010202 0.0015234 -0.0012518 0.21117 -0.22943 0.001283 0.0010847
-0.0011428 0.001608 -0.0013495 -0.00054415
0.0012316 -0.0034951 -0.0012125 0.00026068 0.0012837 0.0010717 0.23218 -0.044136
-0.00058947 0.0090303 -0.00017561 -0.002709
-0.0014338 0.00077341 -0.00091143 0.00092458 -0.0011685 0.0016198 -0.00058225 0.0090359
0.22183 0.084976 0.0045642 0.0073553
0.00035055 -0.00065945 -0.00054317 0.00042969 -0.0013614 -0.0005343 -0.00018468 -0.0027137
0.0045422 0.0073465 0.27018 0.13789
1820000000 0.2522 -0.10714 0.0044201 0.0022997 -3.9173e-05 0.0024522 -0.00108 -0.00304
-0.001146 0.001035 -9.5745e-05 -8.6425e-05
0.0044181 0.0022944 0.25746 0.1723 -0.00036636 -3.6248e-05 -0.0012343 0.0010181
2.7393e-05 0.0012157 -0.00047767 0.00051045
-6.4215e-06 0.0024491 -0.00035059 -3.7145e-05 0.16108 -0.2453 0.0014818 0.00034683
-0.00014664 0.0023717 -0.0013592 0.00034847
-0.0010782 -0.0030359 -0.0012369 0.0010451 0.0014869 0.00036405 0.20425 -0.090899
0.00088796 0.0072766 -0.0015845 -0.0017758
-0.0011416 0.0010752 3.5582e-05 0.0012239 -0.00013554 0.0023477 0.00090367 0.0072741
0.23873 0.057259 0.0055572 0.0035118
-0.00011057 -7.5103e-05 -0.00047109 0.00051989 -0.0013647 0.00036979 -0.0015962 -0.0017694
0.005544 0.0035272 0.27323 0.10193
1880000000 0.21763 -0.1473 0.0021334 0.00022934 -0.00038144 0.0020602 -0.0029618 -0.0021008
-0.00010074 0.0017323 0.00025772 -0.00044771
0.0021438 0.00023217 0.26217 0.12603 -0.0023871 0.0015856 -0.00010331 0.0016563
0.00054147 0.0011083 9.7325e-05 0.00090354
-0.00036456 0.0020969 -0.0024021 0.0016162 0.10879 -0.25531 0.0016287 -0.0010268
0.0016644 0.0018627 -0.0010231 0.0013861
-0.0029626 -0.0021034 -8.4366e-05 0.0016528 0.0016243 -0.0010213 0.16558 -0.13176
0.0017228 0.0052696 -0.002553 0.00022944
-7.4671e-05 0.0017448 0.00054757 0.0010984 0.0016768 0.0018548 0.0017509 0.0052594
0.24171 0.026024 0.0056551 0.0010368
0.00021888 -0.00045947 0.0001033 0.00089067 -0.00097286 0.0014086 -0.002562 0.00024927
0.0056379 0.0010436 0.27335 0.067431
1940000000 0.17864 -0.17328 2.4257e-06 -0.0013504 0.0013783 0.0019646 -0.003675 0.00056175
0.0013892 0.00097869 -0.00063118 -0.00045185
5.1819e-06 -0.0013385 0.26309 0.094435 -0.0011827 0.003862 0.0010455 0.0012618
0.0017169 0.00042057 0.00077481 0.00022823
0.0014064 0.0019508 -0.0011643 0.0038869 0.062413 -0.24853 0.00038177 -0.0020859
0.0023831 0.00034929 0.00024313 0.0016752
-0.0036871 0.00058163 0.0010608 0.0012625 0.0003825 -0.0020902 0.1145 -0.16372
0.0010564 0.0038643 -0.0016342 0.0013757
0.0014002 0.00095723 0.0017081 0.0004113 0.0023954 0.00035788 0.001038 0.0038334
0.24417 -0.011718 0.004256 -0.0026679
-0.00063995 -0.00046415 0.00078727 0.00021434 0.00023745 0.0016414 -0.001625 0.0013623
0.0042578 -0.0026521 0.26262 0.031564
2000000000 0.13262 -0.18825 -0.0037277 0.00071105 0.002469 0.0015972 -0.0023471 0.0034439
0.0011139 -4.9538e-05 -0.00072518 0.00040163
-0.0037505 0.0007002 0.24938 0.058893 -0.00096853 0.005706 0.0015887 0.00032276
0.0012423 -0.0012662 0.00042302 0.00012807
0.0024727 0.0015758 -0.00093796 0.0057212 0.018807 -0.23393 -0.0012524 -0.0012082
0.0018311 -0.0012024 0.0016263 0.0013282
-0.0023344 0.0034495 0.0015895 0.0003166 -0.0012551 -0.0012086 0.061129 -0.17546
-0.00046471 0.0032275 -0.0002133 0.0022592
0.0011152 -4.3023e-05 0.0012285 -0.0012765 0.0018051 -0.0012124 -0.00046483 0.0032382
0.23917 -0.045164 0.00060093 -0.0035014
