!Keysight Technologies,M9804A,MY58100912,A.14.10.03
!Date: Thursday, April 27, 2023 10:28:33
!Correction: S11(C  6-Port  ) 
!S12(C  6-Port  ) 
!S13(C  6-Port  ) 
!S14(C  6-Port  ) 
!S15(C  6-Port  ) 
!S16(C  6-Port  ) 
!S21(C  6-Port  ) 
!S22(C  6-Port  ) 
!S23(C  6-Port  ) 
!S24(C  6-Port  ) 
!S25(C  6-Port  ) 
!S26(C  6-Port  ) 
!S31(C  6-Port  ) 
!S32(C  6-Port  ) 
!S33(C  6-Port  ) 
!S34(C  6-Port  ) 
!S35(C  6-Port  ) 
!S36(C  6-Port  ) 
!S41(C  6-Port  ) 
!S42(C  6-Port  ) 
!S43(C  6-Port  ) 
!S44(C  6-Port  ) 
!S45(C  6-Port  ) 
!S46(C  6-Port  ) 
!S51(C  6-Port  ) 
!S52(C  6-Port  ) 
!S53(C  6-Port  ) 
!S54(C  6-Port  ) 
!S55(C  6-Port  ) 
!S56(C  6-Port  ) 
!S61(C  6-Port  ) 
!S62(C  6-Port  ) 
!S63(C  6-Port  ) 
!S64(C  6-Port  ) 
!S65(C  6-Port  ) 
!S66(C  6-Port  ) 
!S6P File: Measurement: :
# Hz S  RI   R 50
500000000 -0.3363 -0.039317 -0.0093347 -0.0026042 -0.0076115 0.012303 -0.0037824 0.012216
0.012554 0.004265 -0.0042236 0.0090593
-0.0093223 -0.0026214 -0.41871 -0.051933 0.0082325 -0.010972 0.0014756 0.011444
0.0081122 0.0024701 0.0016974 0.012549
-0.0075949 0.012329 0.0082 -0.010996 -0.26471 0.20857 0.0078086 0.0031026
-0.0015954 0.007756 0.0018319 0.011613
-0.0037327 0.012211 0.0014971 0.011464 0.0078114 0.0031025 -0.32977 0.043556
-0.017818 -0.0056424 0.016417 0.025795
0.012613 0.0043119 0.0080971 0.002434 -0.0015909 0.0077677 -0.017809 -0.005632
-0.22379 -0.19625 -0.02496 0.0056142
-0.0041324 0.0090737 0.0017087 0.012581 0.0018415 0.011625 0.01643 0.025781
-0.024948 0.0056084 -0.26491 -0.13424
560000000 -0.31498 0.12216 -0.024096 -0.063862 7.8379e-05 0.011849 0.0057001 0.01051
0.010373 0.0040983 0.01157 0.0076532
-0.024087 -0.063753 -0.37854 0.1064 -0.040496 -0.037858 0.013894 0.0038881
-0.012999 -0.0040699 0.0028037 -0.0003036
0.00014278 0.011842 -0.040646 -0.037794 -0.18321 0.25648 -0.00080983 -0.0043472
0.018821 0.0040056 0.0072775 -0.0061939
0.0057196 0.010583 0.013906 0.0038204 -0.00079313 -0.0043296 -0.30508 0.13195
0.0048903 -0.02354 0.0042399 -0.021522
0.010371 0.0041228 -0.01308 -0.0040408 0.018837 0.0039749 0.0048737 -0.02354
-0.28931 -0.021653 0.0089521 -0.049147
0.011487 0.0076378 0.002826 -0.00023236 0.0072599 -0.0062228 0.0042569 -0.021544
0.0089838 -0.049155 -0.32852 0.015016
620000000 -0.27485 0.10633 -0.023232 0.0075381 0.0027505 0.0084635 0.0079016 -0.0056788
0.010918 -0.00040349 0.0017576 -0.0029098
-0.023196 0.0075075 -0.40208 0.059015 -0.018523 -0.00035839 -0.0014992 -0.0020683
0.011088 -0.0069947 0.0014727 -0.003598
0.0027477 0.0084807 -0.018551 -0.00029465 -0.15379 0.26543 -0.0015244 -0.0051793
-0.0036212 -0.0029446 0.008064 -0.0037053
0.0078718 -0.0056656 -0.0015057 -0.0020724 -0.00152 -0.0051738 -0.26539 0.14344
-0.037158 -0.02004 0.011894 0.026307
0.010972 -0.00040269 0.011102 -0.0070393 -0.0036413 -0.0029499 -0.037147 -0.020033
-0.20855 -0.059244 -0.041464 0.013313
0.001763 -0.002853 0.0014839 -0.0035819 0.0080745 -0.0037165 0.011899 0.026288
-0.041456 0.013316 -0.24991 -0.021939
680000000 -0.23457 0.19147 -0.027482 -0.014657 0.0049188 0.0052117 0.0010602 -0.0071938
-0.0032947 -0.011077 0.0048237 -0.0067547
-0.027459 -0.014672 -0.38783 0.15641 -0.033051 -0.0015545 -0.0018975 -0.00049732
-0.0022141 -0.0084305 -0.001218 -0.0018243
0.0049422 0.0051927 -0.03309 -0.0014642 -0.10282 0.28568 -0.0008402 -3.7003e-05
-0.0018657 0.0012302 -0.0028435 -0.0090239
0.0010166 -0.0072005 -0.0019096 -0.00048386 -0.00084373 -4.8047e-05 -0.22099 0.19259
-0.023837 -0.0082767 -0.0097703 -0.010781
-0.0033702 -0.011089 -0.0022444 -0.008419 -0.0018663 0.0012283 -0.023863 -0.0082596
-0.25782 0.039093 -0.0049427 -0.0091464
0.0048112 -0.006755 -0.0012386 -0.0018266 -0.0028385 -0.0090105 -0.0097989 -0.010758
-0.0049424 -0.0091644 -0.26167 0.084171
740000000 -0.1907 0.18624 -0.038842 0.026455 0.012832 -0.0049172 -0.00013214 -0.0043119
-0.0044027 -0.0025165 -0.0059096 0.002458
-0.0388 0.026391 -0.33541 0.17562 -0.035644 0.035176 -0.0007259 -0.0059275
-0.011401 0.0086029 -0.0018372 -0.0064529
0.012792 -0.0049964 -0.035593 0.035294 -0.069506 0.28426 -0.0019897 0.0031966
-0.0018447 -0.0048947 -0.0019104 -0.00021718
-0.00015377 -0.0043008 -0.00073281 -0.0059482 -0.0019927 0.0031973 -0.20413 0.20082
-0.043547 -0.0075123 0.022784 0.014841
-0.0044389 -0.0025366 -0.011401 0.0086152 -0.0018566 -0.0049129 -0.043581 -0.007465
-0.15968 0.064702 -0.043576 -0.00047757
-0.0059392 0.0024422 -0.0018613 -0.0064581 -0.0019143 -0.00019552 0.022799 0.014818
-0.043567 -0.00051577 -0.2493 0.089687
800000000 -0.1582 0.22688 -0.022743 0.016655 0.0053574 -0.010649 -0.0047896 -0.0019294
-0.0040441 0.0022759 0.0046185 0.00058137
-0.022715 0.016628 -0.33867 0.2459 -0.0080521 0.034198 -0.0022882 0.0022044
-0.00035888 0.0030825 0.0010222 0.0051626
0.0053217 -0.010636 -0.0079578 0.034266 -0.028698 0.30802 0.0012106 0.0014415
0.00037304 0.0034136 -0.0017895 0.0010261
-0.0048024 -0.0019518 -0.0022948 0.0022101 0.0012101 0.0014419 -0.17635 0.22877
-0.029098 0.013598 0.013557 -0.010016
-0.0041129 0.0022741 -0.00033926 0.0030845 0.00038578 0.0034243 -0.029091 0.01365
-0.20787 0.088188 -0.018084 0.018879
0.0045975 0.00057808 0.0010509 0.0051498 -0.0017963 0.0010442 0.013544 -0.01005
-0.018086 0.018854 -0.24504 0.14006
860000000 -0.12377 0.24749 -0.017713 0.03091 -0.0034752 -0.0099888 -0.0024346 0.0010673
0.0042015 0.0047794 -0.0032501 -0.0031275
-0.017747 0.030817 -0.29125 0.28821 0.007931 0.034454 9.6311e-05 0.0019684
0.0043368 -0.00018452 0.0033444 0.00059655
-0.0035101 -0.0099844 0.0080563 0.034463 0.019537 0.31628 -0.0006337 -0.0003513
0.002641 -0.001641 0.0014673 0.0044471
-0.0024435 0.001035 8.9775e-05 0.0019793 -0.00063284 -0.00034902 -0.14012 0.24062
-0.018444 0.018946 -0.0060242 -0.0096168
0.004232 0.0047441 0.0043374 -0.00020098 0.0026425 -0.0016544 -0.018417 0.018987
-0.15727 0.14003 -0.026258 0.01485
-0.0032267 -0.003064 0.0033595 0.00057933 0.0014708 0.0044508 -0.0060428 -0.0096149
-0.026256 0.014821 -0.19308 0.18737
920000000 -0.098824 0.27088 0.0050278 0.038248 -0.0095629 -0.0043059 -0.0017659 0.0020712
0.0012384 0.0018023 0.0026579 -0.0015464
0.0050106 0.038212 -0.26223 0.30981 0.028324 0.022196 0.0015147 0.0010714
0.0068626 -0.0007565 0.0039072 -0.0026606
-0.0095853 -0.0042728 0.02843 0.022115 0.066079 0.3169 0.001811 -8.9759e-05
0.0011696 -0.00044029 0.00096372 -0.00099063
-0.0017559 0.0020613 0.0015077 0.0010838 0.0018135 -9.6541e-05 -0.11623 0.25796
-0.011024 0.031032 0.0035843 -0.006391
0.0012425 0.0018193 0.0068607 -0.00079992 0.0011643 -0.00045612 -0.010972 0.031063
-0.14789 0.14707 -0.0032911 0.027537
0.0026705 -0.0015165 0.0039082 -0.0027045 0.00095804 -0.00098361 0.0035795 -0.0063961
-0.0033162 0.027535 -0.20268 0.20044
980000000 -0.051389 0.29034 0.017561 0.030249 -0.0089724 0.0047431 0.0021726 0.0035916
0.0040014 -0.0011786 -0.0031884 -0.0022166
0.017535 0.030236 -0.20931 0.34372 0.033355 0.0048745 0.0021123 -7.3316e-05
0.0011771 -0.0056742 -0.00023764 -0.0024338
-0.0089815 0.0047606 0.033426 0.0047498 0.11249 0.3102 0.00048133 -0.0011186
0.00026812 -0.0020279 0.0015754 -0.00020826
0.0021821 0.0035734 0.0020939 -8.5429e-05 0.00048643 -0.0011249 -0.077907 0.26967
0.0078427 0.030121 -0.0094457 -0.007314
0.0039859 -0.0011869 0.0011696 -0.0057068 0.00026058 -0.0020284 0.0079063 0.030135
-0.11705 0.17618 0.0045112 0.019341
-0.0032052 -0.0022003 -0.00023786 -0.0024509 0.0015643 -0.00021154 -0.0094603 -0.0072961
0.0044968 0.01935 -0.1607 0.24636
1040000000 -0.0089973 0.29875 0.033377 0.018307 -0.0011299 0.0070613 0.0026294 0.00058838
9.0361e-05 -0.0038644 -0.000228 -0.0013391
0.033363 0.018308 -0.17357 0.35678 0.02954 -0.015019 0.001419 -0.0017559
-0.0026918 -0.0023614 -0.0014309 -0.0023893
-0.001116 0.0070605 0.02953 -0.015163 0.15876 0.29643 -0.00050109 -0.0015063
-0.0015919 -0.00083769 -0.0003106 -0.0011831
0.0026438 0.00058205 0.001397 -0.0017385 -0.00050074 -0.0015036 -0.05 0.2801
0.019627 0.018325 -0.0024544 0.0017209
8.5446e-05 -0.0038453 -0.0027156 -0.0023931 -0.0015927 -0.00084879 0.019675 0.018299
-0.084711 0.1851 0.01328 0.018958
-0.00028038 -0.0013145 -0.0014434 -0.0024069 -0.00031635 -0.001169 -0.0024394 0.0017401
0.013262 0.018967 -0.1392 0.26668
1100000000 0.036514 0.30636 0.036093 -0.0042401 0.0031215 0.0039351 0.0023504 -0.0014417
-0.0020092 -0.0031241 -0.0038409 -1.538e-05
0.036064 -0.0042181 -0.13001 0.37421 0.015157 -0.02803 -6.7545e-05 -0.0018289
-0.003207 -0.00060932 -0.0034247 -0.0004851
0.0031439 0.0039201 0.01508 -0.02813 0.20517 0.27598 -0.0018175 0.00030008
-0.0017731 0.00053185 -0.0010711 -0.00050968
0.0023521 -0.0014578 -8.1476e-05 -0.0018237 -0.0018246 0.00029567 -0.0092271 0.28521
0.024753 0.0049652 -0.0025407 0.00028629
-0.0020303 -0.0031171 -0.0032199 -0.00059519 -0.0017758 0.00052666 0.024778 0.0049306
-0.06693 0.1993 0.018989 0.009047
-0.0038648 1.6766e-05 -0.0034283 -0.00047159 -0.0010664 -0.00049938 -0.0025272 0.00030052
0.018976 0.0090558 -0.093432 0.29745
1160000000 0.087906 0.30136 0.024119 -0.020834 0.0029018 -0.00063969 -0.00039767 -0.0024976
-0.0042361 -0.00073672 -0.00082527 0.0040851
0.024124 -0.020789 -0.086012 0.37832 -0.0038423 -0.029249 -0.0017553 -0.0016457
-0.0025906 0.0024997 -0.0012548 0.0018438
0.0028924 -0.00065698 -0.0039672 -0.029274 0.2483 0.24497 -0.00060459 0.0016987
-0.00058871 0.0018631 -0.0010285 0.00019742
-0.00040108 -0.0024942 -0.0017807 -0.0016308 -0.00060193 0.0016994 0.030625 0.28237
0.021089 -0.010577 -0.0027843 0.0054408
-0.004279 -0.00069476 -0.0025702 0.0025117 -0.00058699 0.0018532 0.021074 -0.010605
-0.033008 0.20944 0.018362 0.00096567
-0.00077201 0.0040899 -0.0012344 0.0018484 -0.0010236 0.00020512 -0.0027695 0.0054467
0.018342 0.00096944 -0.046591 0.30056
1220000000 0.13221 0.28993 0.010501 -0.030227 -0.0015061 -0.0010644 -0.00013961 -0.00090281
-0.0026398 0.0024948 0.001411 0.0020137
0.01051 -0.030193 -0.041491 0.39013 -0.017065 -0.021125 -0.0024679 0.00047206
8.3755e-05 0.0028639 -0.00077348 0.0018627
-0.00152 -0.0010746 -0.017171 -0.021071 0.28746 0.20562 0.00080599 0.0015189
0.00053291 0.0010965 0.00025094 0.00065036
-0.00013471 -0.00090888 -0.0024826 0.00048437 0.00079918 0.0015185 0.070543 0.27358
0.010188 -0.017176 0.0024595 0.0014901
-0.0026426 0.0025105 0.00010578 0.0028709 0.0005357 0.0011025 0.010164 -0.017195
-0.010104 0.21904 0.014519 -0.012586
0.0014184 0.0020007 -0.00076075 0.001869 0.00025578 0.00064711 0.0024603 0.0014841
0.014516 -0.012583 -0.015605 0.318
1280000000 0.18203 0.26777 -0.0078964 -0.028641 -0.0019135 0.0023252 -0.00095081 -0.0018714
-0.00072305 0.0031056 0.0024609 0.0010559
-0.0078756 -0.028622 0.0046051 0.38077 -0.023826 -0.0083277 -0.00089807 0.0014426
0.0015997 0.0016562 0.0006055 0.0021164
-0.0019096 0.0023424 -0.023902 -0.0082213 0.3177 0.16156 0.0015035 -9.2377e-05
0.0010199 0.00031089 0.00042761 0.00044231
-0.00096199 -0.0018754 -0.00089038 0.0014476 0.001506 -8.7394e-05 0.10744 0.25696
0.00068828 -0.018901 0.00017031 -4.3113e-05
-0.00070775 0.003112 0.0016173 0.0016471 0.0010183 0.00031234 0.00065459 -0.018912
0.026856 0.22324 0.0035062 -0.01475
0.0024703 0.0010472 0.00061637 0.0020959 0.00043293 0.00043469 0.00016529 -4.7578e-05
0.0035051 -0.014739 0.033008 0.32068
1340000000 0.21903 0.23364 -0.017636 -0.019125 0.00073902 0.0043496 -0.0016818 -0.00072868
0.0014838 0.002686 0.0016449 -0.0014498
-0.0176 -0.019121 0.043889 0.37205 -0.021528 0.0042843 -9.4945e-05 0.0019233
0.0017868 0.00076464 0.0013193 0.00078281
0.00076895 0.0043482 -0.021518 0.0044105 0.33942 0.11363 0.00099673 -0.0008411
0.00064894 -0.00043678 0.00025069 0.00036571
-0.0016785 -0.00073 -8.298e-05 0.0019319 0.0009911 -0.00083223 0.13966 0.23643
-0.0085866 -0.015899 0.0010136 0.00021782
0.0014887 0.0026753 0.0017939 0.00076228 0.00065381 -0.00044319 -0.0086236 -0.015884
0.057326 0.21888 -0.0031732 -0.013401
0.0016363 -0.0014487 0.0013249 0.00077995 0.00025137 0.00036277 0.0010146 0.00021441
-0.0031584 -0.013404 0.071273 0.31677
1400000000 0.25166 0.1951 -0.023487 -0.0076145 0.0049939 0.0030898 -0.0019571 0.00064093
0.0024453 0.00083848 0.00030346 -0.0013498
-0.023452 -0.0076172 0.080925 0.35866 -0.014734 0.012342 0.001251 0.0012628
0.0010482 -0.00076152 0.0012681 0.00022623
0.005013 0.0030808 -0.014688 0.01243 0.35249 0.060231 0.00014703 -0.0015181
2.7798e-05 -0.00037934 0.00050968 0.00023236
-0.0019449 0.00065231 0.0012606 0.0012652 0.00015585 -0.0015125 0.16894 0.20777
-0.01417 -0.0092121 -0.0008196 -0.00072633
0.0024397 0.00081365 0.0010378 -0.00076155 2.2258e-05 -0.00038014 -0.014193 -0.0091757
0.090556 0.21462 -0.0095673 -0.0089468
0.00029901 -0.0013453 0.0012669 0.00021462 0.00050582 0.00023347 -0.00082422 -0.00072196
-0.0095544 -0.008953 0.11681 0.30597
1460000000 0.27385 0.15099 -0.020592 0.0046353 0.0054828 -0.0018263 -0.0015651 0.0016264
0.00207 -0.00065523 -0.00033697 -0.00092846
-0.020572 0.0046201 0.11459 0.33663 -0.0060782 0.015146 0.0016925 0.00020899
0.0009213 -0.0012023 0.0011608 -0.00060566
0.0054656 -0.0018603 -0.0060106 0.015183 0.3585 0.0061145 -0.001221 -0.0011734
0.0001714 -0.00029714 0.00067552 -0.00034776
-0.0015569 0.0016277 0.0016947 0.0002045 -0.0012226 -0.001159 0.19517 0.17892
-0.015065 -0.0025304 -0.0010554 0.0017963
0.0020811 -0.00066741 0.00090941 -0.0012024 0.00017607 -0.00029527 -0.015074 -0.002499
0.11992 0.20014 -0.011641 -0.0031323
-0.00034089 -0.00095144 0.0011638 -0.0006108 0.00066852 -0.00035648 -0.0010617 0.0018039
-0.011634 -0.0031309 0.1503 0.28557
1520000000 0.28552 0.10945 -0.014951 0.010345 0.0031828 -0.0040384 4.5195e-05 0.0025451
0.0019981 -0.0017331 -0.0010686 -7.296e-05
-0.014943 0.010316 0.14772 0.32196 0.0014428 0.012984 0.0016129 -0.00072573
3.1465e-05 -0.0010001 0.00033914 -0.0010536
0.0031549 -0.0040589 0.0015206 0.012988 0.35153 -0.050247 -0.001021 -0.00035446
0.00061665 -0.00084719 1.1514e-05 -0.00013862
7.0028e-05 0.0025483 0.0016109 -0.00073675 -0.0010233 -0.00035829 0.21844 0.14137
-0.014242 0.002819 0.0012206 0.0019968
0.0019836 -0.0017552 2.6807e-05 -0.0010042 0.00060614 -0.00085592 -0.014247 0.0028496
0.14774 0.18617 -0.011573 0.0013142
-0.0010761 -7.1554e-05 0.00032546 -0.001054 1.1065e-05 -0.00012842 0.0012271 0.0019919
-0.011576 0.0013011 0.18395 0.26549
1580000000 0.29452 0.063613 -0.0082345 0.013548 -0.0009357 -0.0046623 0.001299 0.0018894
-0.00041615 -0.0020281 -0.00028827 0.00039227
-0.0082328 0.013525 0.17465 0.29735 0.0049882 0.0082312 0.00048718 -0.0015572
-0.00055024 -0.0010296 -0.00029697 -0.0007779
-0.00096512 -0.004665 0.0050421 0.0082178 0.33112 -0.10778 -0.0015542 0.00057421
-0.00033477 -0.0011028 0.00018114 -0.00045538
0.0013129 0.0018819 0.00048323 -0.0015581 -0.0015455 0.00056913 0.2326 0.10246
-0.010689 0.0074546 0.0021223 0.00090034
-0.00042644 -0.0020333 -0.00055672 -0.0010307 -0.00034621 -0.0011094 -0.010678 0.007483
0.17225 0.16847 -0.0092927 0.0071729
-0.00028798 0.00039521 -0.00030319 -0.00078079 0.00017358 -0.00045368 0.0021262 0.00089353
-0.0092957 0.0071631 0.21683 0.23862
1640000000 0.29643 0.022751 -0.0014065 0.012482 -0.0026043 -0.0025011 0.0026887 0.0010479
-0.00068187 -0.0013987 -0.00019471 0.00045567
-0.0014163 0.012482 0.20389 0.27265 0.0058015 0.0035846 -0.00062937 -0.0017218
-0.00097679 -0.00039532 -0.00047751 -0.00066336
-0.0026286 -0.0025092 0.0058328 0.0035555 0.30293 -0.15658 -0.00068399 0.0013766
-0.00098492 -0.0010128 -0.0001326 -0.00041727
0.0026831 0.0010285 -0.0006399 -0.0017176 -0.00068077 0.0013759 0.24526 0.053862
-0.0065537 0.0083699 0.0023997 -0.00068073
-0.00069003 -0.0013937 -0.00097649 -0.00038774 -0.00098385 -0.0010185 -0.0065271 0.0083962
0.19469 0.14427 -0.0047243 0.0091493
-0.00018819 0.00046261 -0.00047836 -0.00066834 -0.00012149 -0.00041577 0.0024057 -0.00069444
-0.0047372 0.0091432 0.24248 0.20774
1700000000 0.28935 -0.02238 0.002102 0.0096597 -0.0033753 0.00018393 0.003063 -0.0011071
-0.0019464 -0.00053757 0.00056712 0.00039157
0.0020842 0.0096571 0.22188 0.24137 0.0038503 0.00076189 -0.0014483 -0.00057027
-0.00079765 7.4344e-05 -0.0008921 -0.00042261
-0.0033749 0.00020388 0.0038629 0.00074381 0.2596 -0.19631 0.0004479 0.0016447
-0.0018411 -0.00019208 -0.00044734 -0.00083024
0.0030636 -0.0011296 -0.0014529 -0.00056221 0.00044236 0.0016547 0.24252 0.0043706
-0.00409 0.0087407 0.0014656 -0.0021156
-0.0019589 -0.00051964 -0.00079029 9.4452e-05 -0.0018464 -0.00019269 -0.0040834 0.0087606
0.21201 0.12431 8.2166e-06 0.0094008
0.00057855 0.00038359 -0.0008904 -0.00042278 -0.00044997 -0.00084093 0.0014634 -0.0021187
1.4615e-06 0.0094093 0.25905 0.17299
1760000000 0.27713 -0.070743 0.0044407 0.0063132 -0.0021205 0.00085853 0.001375 -0.003366
-0.0012238 0.00070716 0.00041694 -0.00058038
0.0044285 0.0063132 0.24776 0.20175 0.0016545 -0.0011466 -0.0011834 0.0001956
-0.00096177 0.00085405 -0.00053046 0.00040832
-0.0021073 0.00086303 0.0016473 -0.0011611 0.21119 -0.22992 0.0010962 0.0011237
-0.0011214 0.0014116 -0.001257 -0.00054403
0.0013544 -0.0033645 -0.0011937 0.00020149 0.0010966 0.0011256 0.23378 -0.046996
-0.0011186 0.0078977 -0.00020577 -0.0024486
-0.001218 0.0007332 -0.00095702 0.00086579 -0.0011265 0.0014058 -0.0011028 0.0079077
0.2268 0.089439 0.0038743 0.0068807
0.00041602 -0.00057531 -0.00052775 0.00041166 -0.0012518 -0.00055938 -0.0001989 -0.0024514
0.0038785 0.0068837 0.27193 0.13528
1820000000 0.25265 -0.10791 0.0046496 0.0027624 8.9224e-05 0.0024012 -0.00092825 -0.0031146
-0.00097028 0.00088164 -6.3656e-05 -7.59e-05
0.0046488 0.0027688 0.25779 0.172 -0.00022798 0.00012752 -0.001263 0.0009187
-1.8738e-05 0.0013097 -0.0005181 0.00048974
0.00011199 0.002383 -0.00022728 0.00013045 0.1608 -0.24527 0.0015671 0.0004029
-0.0003324 0.0022689 -0.0014188 0.0002457
-0.00094791 -0.003096 -0.0012654 0.00091869 0.0015752 0.00040319 0.20427 -0.094154
0.00010367 0.006419 -0.0015615 -0.0014444
-0.00096595 0.00088906 -8.6356e-06 0.0013168 -0.00032063 0.0022757 0.00010964 0.0064322
0.24394 0.060692 0.0047533 0.0033917
-5.1123e-05 -7.8321e-05 -0.00051153 0.00049928 -0.0014197 0.00025991 -0.0015618 -0.0014459
0.0047514 0.003396 0.27435 0.09926
1880000000 0.21762 -0.14822 0.0025006 0.00044872 -0.00042521 0.0020808 -0.002983 -0.0022146
-0.00016956 0.0014985 0.00036848 -0.00053705
0.0024886 0.00044873 0.26237 0.12564 -0.0022812 0.0017044 -0.00017171 0.0016622
0.00061253 0.0011648 0.00011871 0.00092226
-0.00041143 0.0020591 -0.0022709 0.0017268 0.10811 -0.25521 0.0018047 -0.0010406
0.0014574 0.0019754 -0.0010357 0.0013329
-0.0029958 -0.002199 -0.00016119 0.0016673 0.0018038 -0.0010413 0.16411 -0.13447
0.00066473 0.0046771 -0.0023922 0.0005167
-0.00015536 0.0015041 0.00063248 0.0011681 0.0014667 0.0019775 0.00068284 0.0046861
0.24689 0.028362 0.0047876 0.0012935
0.00036723 -0.00053273 0.00013267 0.00091952 -0.0010188 0.001342 -0.0023831 0.00052814
0.0047875 0.0012957 0.27392 0.064983
1940000000 0.17843 -0.17402 0.00036028 -0.0013018 0.0013032 0.0017354 -0.0038396 0.00059034
0.0011625 0.00092097 -0.00069339 -0.00066334
0.00036417 -0.0012933 0.26311 0.093998 -0.00095752 0.0038639 0.00098454 0.0013285
0.0018134 0.00039497 0.00085045 0.00023893
0.001331 0.0017233 -0.00092767 0.0038736 0.062555 -0.24806 0.00038597 -0.0022775
0.0024927 0.00044003 0.00022911 0.0017093
-0.0038308 0.00060795 0.00099607 0.0013189 0.00038027 -0.0022726 0.11212 -0.16524
-0.00023851 0.0037393 -0.0013716 0.0014964
0.0011735 0.00090989 0.0018183 0.00037691 0.0024821 0.0004364 -0.0002211 0.0037439
0.24874 -0.010271 0.0037198 -0.0020814
-0.00067593 -0.0006546 0.00085561 0.00022699 0.00022647 0.0017173 -0.0013779 0.0015073
0.003716 -0.0020746 0.26313 0.029096
2000000000 0.13194 -0.18895 -0.0033091 0.00048468 0.0024867 0.001566 -0.0022116 0.0035588
0.0010792 0.0001833 -0.0007756 0.00033703
-0.0033131 0.00048079 0.24921 0.058434 -0.00081057 0.0056197 0.001612 0.00040783
0.0012446 -0.0013602 0.00049796 6.3953e-05
0.0025091 0.0015285 -0.00076243 0.0056302 0.018892 -0.23342 -0.0014006 -0.0013135
0.0019307 -0.0011398 0.0016078 0.001361
-0.0021907 0.0035472 0.0015995 0.00039616 -0.0013886 -0.0013175 0.058708 -0.17552
-0.0017873 0.0037147 -7.5006e-05 0.0021525
0.0010793 0.00019309 0.0012349 -0.001371 0.0019253 -0.0011411 -0.001766 0.0037251
