!Keysight Technologies,M9804A,MY58100912,A.14.10.03
!Date: Thursday, April 27, 2023 10:28:33
!Correction: S11(C  6-Port  ) 
!S12(C  6-Port  ) 
!S13(C  6-Port  ) 
!S14(C  6-Port  ) 
!S15(C  6-Port  ) 
!S16(C  6-Port  ) 
!S21(C  6-Port  ) 
!S22(C  6-Port  ) 
!S23(C  6-Port  ) 
!S24(C  6-Port  ) 
!S25(C  6-Port  ) 
!S26(C  6-Port  ) 
!S31(C  6-Port  ) 
!S32(C  6-Port  ) 
!S33(C  6-Port  ) 
!S34(C  6-Port  ) 
!S35(C  6-Port  ) 
!S36(C  6-Port  ) 
!S41(C  6-Port  ) 
!S42(C  6-Port  ) 
!S43(C  6-Port  ) 
!S44(C  6-Port  ) 
!S45(C  6-Port  ) 
!S46(C  6-Port  ) 
!S51(C  6-Port  ) 
!S52(C  6-Port  ) 
!S53(C  6-Port  ) 
!S54(C  6-Port  ) 
!S55(C  6-Port  ) 
!S56(C  6-Port  ) 
!S61(C  6-Port  ) 
!S62(C  6-Port  ) 
!S63(C  6-Port  ) 
!S64(C  6-Port  ) 
!S65(C  6-Port  ) 
!S66(C  6-Port  ) 
!S6P File: Measurement: :
# Hz S  RI   R 50
500000000 -0.33729 -0.041229 -0.0097998 -0.0025061 -0.0079255 0.012815 -0.0043295 0.011659
0.013186 0.0045163 -0.004572 0.0089762
-0.0099542 -0.0025575 -0.41937 -0.05273 0.0079095 -0.010499 0.0016301 0.012137
0.0075268 0.0027922 0.0012864 0.013489
-0.0082574 0.012615 0.0079506 -0.010553 -0.26584 0.20889 0.0077957 0.0036249
-0.002121 0.0078072 0.0015539 0.012134
-0.0049633 0.012041 0.0015049 0.012015 0.0075564 0.0037902 -0.3325 0.041746
-0.019425 -0.0067627 0.015461 0.02704
0.012553 0.0045687 0.0073941 0.0029447 -0.0019862 0.0079326 -0.019325 -0.0066104
-0.22012 -0.20235 -0.025773 0.0049923
-0.0059613 0.0089417 0.0013707 0.012948 0.0014073 0.012246 0.015456 0.026764
-0.025705 0.0052195 -0.26487 -0.13909
560000000 -0.31621 0.12207 -0.024095 -0.063856 0.00058118 0.012279 0.0055405 0.011089
0.010964 0.0053177 0.01142 0.0079577
-0.023351 -0.063866 -0.37856 0.10741 -0.041272 -0.037975 0.014025 0.0038549
-0.012713 -0.0051577 0.0034151 -0.00054633
0.00078331 0.012902 -0.041577 -0.038013 -0.18335 0.25746 -0.00081053 -0.003838
0.019978 0.0057406 0.0066538 -0.0057098
0.0058448 0.010526 0.014335 0.0036209 -0.00062785 -0.0039808 -0.30769 0.13148
0.0036075 -0.023589 0.0040888 -0.022246
0.010257 0.0056832 -0.013735 -0.0049657 0.019559 0.0060354 0.0029818 -0.02369
-0.28895 -0.027116 0.0082889 -0.04873
0.011637 0.0074251 0.0044637 -0.00057618 0.0069166 -0.0057831 0.0043647 -0.021969
0.0084338 -0.04858 -0.32908 0.010111
620000000 -0.27585 0.10615 -0.023325 0.0080361 0.0035933 0.0089892 0.0083661 -0.0050694
0.011489 0.00010365 0.0021661 -0.0022103
-0.023181 0.0082003 -0.40285 0.058989 -0.018614 0.00036388 -0.0011 -0.0019413
0.011521 -0.0062526 0.0016036 -0.0027108
0.003527 0.0091448 -0.018671 0.00019089 -0.15382 0.26673 -0.0012144 -0.0051209
-0.0028046 -0.0023562 0.0084183 -0.0029787
0.0075416 -0.0051774 -0.00089542 -0.002266 -0.0014195 -0.0050407 -0.26741 0.1435
-0.038431 -0.019914 0.012105 0.02676
0.011112 0.00071676 0.011058 -0.0060305 -0.0024952 -0.0029674 -0.038225 -0.01985
-0.20743 -0.064064 -0.042387 0.014934
0.0015966 -0.0019745 0.0015592 -0.0031199 0.0083 -0.0030174 0.012092 0.026868
-0.042232 0.015406 -0.24849 -0.028585
680000000 -0.2348 0.19168 -0.026973 -0.014023 0.0050179 0.0053503 0.0014342 -0.0074069
-0.0028524 -0.011607 0.0055701 -0.0070884
-0.027052 -0.014074 -0.38782 0.15703 -0.03282 -0.0013195 -0.0015097 -0.00060795
-0.001955 -0.0090777 -0.00085291 -0.0015245
0.0050641 0.0051649 -0.032774 -0.0012123 -0.1024 0.28622 -0.00055391 -0.00027954
-0.0015549 0.00050576 -0.0026074 -0.0090534
0.0016352 -0.0069229 -0.0016603 -0.0004675 -0.00069078 -0.00021665 -0.22135 0.19413
-0.024094 -0.0071439 -0.010063 -0.011108
-0.003267 -0.011505 -0.0018909 -0.0090611 -0.0016008 0.00051009 -0.024169 -0.006926
-0.25991 0.0359 -0.0055365 -0.0083066
0.0060011 -0.0078607 -0.0011042 -0.001774 -0.0027757 -0.0090601 -0.0099076 -0.011028
-0.0056589 -0.0085619 -0.26153 0.08026
740000000 -0.19068 0.18725 -0.038341 0.026579 0.013136 -0.0049751 -0.00026783 -0.0043055
-0.0038221 -0.0028004 -0.0064395 0.0020946
-0.038493 0.026635 -0.33469 0.17632 -0.035598 0.035416 -0.00060673 -0.006339
-0.012152 0.0076234 -0.0020761 -0.006571
0.01317 -0.0051898 -0.035458 0.035596 -0.068695 0.28414 -0.0020668 0.0033131
-0.0018492 -0.0047997 -0.0016761 -9.031e-05
-0.00041045 -0.0045172 -0.00090258 -0.0061737 -0.0021053 0.0031953 -0.20513 0.20194
-0.044128 -0.0066108 0.023566 0.015524
-0.0036938 -0.0022673 -0.011527 0.0075823 -0.0023441 -0.0046261 -0.04379 -0.0065686
-0.15861 0.062721 -0.04421 0.00080032
-0.0068902 0.0018141 -0.0023832 -0.0064442 -0.0016233 -0.00014353 0.023515 0.015374
-0.044501 0.00057659 -0.25008 0.086302
800000000 -0.15757 0.22741 -0.022054 0.016868 0.0055383 -0.010727 -0.004653 -0.0022201
-0.0040771 0.002014 0.0047375 0.00046772
-0.022271 0.016731 -0.33819 0.24581 -0.0077496 0.033992 -0.0023406 0.0021688
-0.00053495 0.0029024 0.0010217 0.005211
0.005637 -0.010819 -0.007669 0.034147 -0.028097 0.30739 0.00096932 0.0015348
0.00020323 0.0035172 -0.001576 0.00082062
-0.0047713 -0.0021248 -0.0023682 0.0023527 0.00097074 0.001569 -0.17605 0.23012
-0.028703 0.014548 0.014183 -0.010515
-0.0039194 0.0024158 -0.00052973 0.0026635 7.0566e-05 0.003507 -0.028646 0.014494
-0.20679 0.08661 -0.017471 0.019519
0.0046727 0.00053014 0.00065537 0.0056588 -0.0015217 0.00092199 0.014002 -0.010482
-0.017496 0.019659 -0.24613 0.13628
860000000 -0.12292 0.24729 -0.017191 0.030687 -0.0032166 -0.010153 -0.0023121 0.00079603
0.0039585 0.0047067 -0.003312 -0.002883
-0.017249 0.030419 -0.29081 0.28776 0.0079235 0.034222 -0.00015632 0.0018528
0.0041305 0.00012363 0.003418 0.00072833
-0.0032707 -0.010045 0.0079746 0.034236 0.019647 0.31543 -0.000639 -0.00028254
0.0027496 -0.0015845 0.0015363 0.0043923
-0.0023571 0.00082458 -0.00025985 0.0018185 -0.00055394 -0.00028212 -0.13945 0.24061
-0.017824 0.01883 -0.0059978 -0.0093053
0.0040695 0.0049176 0.0041788 -9.9578e-05 0.0027761 -0.0014703 -0.017894 0.018898
-0.15528 0.13877 -0.026322 0.015858
-0.0036039 -0.0027023 0.0034258 0.00077197 0.0016506 0.0044055 -0.0058483 -0.0092572
-0.026429 0.015882 -0.19465 0.18367
920000000 -0.098522 0.27028 0.0051755 0.037869 -0.0095795 -0.0046062 -0.001815 0.0017563
0.00087118 0.0019528 0.0027985 -0.0016339
0.0052237 0.037791 -0.26204 0.30927 0.028219 0.021963 0.0014554 0.0011714
0.0071234 -0.00025763 0.0040278 -0.0027561
-0.0095835 -0.0045306 0.02827 0.021871 0.065858 0.31629 0.0018434 -8.2756e-05
0.0011285 -0.00025174 0.00091953 -0.0011751
-0.0016743 0.0017561 0.0015718 0.0011601 0.0018058 -2.32e-05 -0.11556 0.25797
-0.01077 0.03151 0.0040812 -0.0069677
0.00077418 0.0022166 0.0071043 -0.00044604 0.0011883 -0.00029853 -0.010677 0.031533
-0.14539 0.14459 -0.0027876 0.027878
0.0029458 -0.0017136 0.0041291 -0.0025334 0.00088263 -0.001175 0.0041149 -0.0069197
-0.002889 0.027857 -0.20483 0.19729
980000000 -0.051187 0.28943 0.017412 0.029961 -0.0092029 0.0046066 0.0020488 0.0033565
0.0038368 -0.0013623 -0.0033767 -0.0020864
0.017549 0.02986 -0.20939 0.34298 0.0332 0.0048106 0.0021008 -6.1903e-05
0.0015496 -0.0058642 -0.00028181 -0.002499
-0.0091971 0.0046417 0.033248 0.0046558 0.11219 0.3098 0.00051873 -0.0011819
0.00026013 -0.0020849 0.0014027 -0.00021376
0.0021065 0.0033075 0.0020057 -3.5326e-06 0.00052518 -0.0011885 -0.076973 0.26897
0.0085499 0.030869 -0.0090803 -0.0075454
0.0038498 -0.0014512 0.0013739 -0.0059761 0.00025172 -0.0020968 0.0085582 0.030833
-0.11389 0.17435 0.0050606 0.019913
-0.003375 -0.0020658 -0.00063984 -0.0024398 0.0014254 -0.00018558 -0.0090762 -0.0076312
0.0050077 0.019832 -0.16299 0.24372
1040000000 -0.0095179 0.29799 0.0331 0.018067 -0.0013939 0.0069293 0.002407 0.00063425
0.00019232 -0.0036604 -0.00035841 -0.0013987
0.033169 0.017997 -0.17399 0.35609 0.029467 -0.015071 0.0014561 -0.0017432
-0.0024181 -0.0026351 -0.0013351 -0.0026229
-0.0013427 0.006947 0.029443 -0.015129 0.15831 0.29622 -0.00054154 -0.0015874
-0.001565 -0.00093012 -0.00046201 -0.0010776
0.002393 0.00065296 0.0014869 -0.0017788 -0.00052736 -0.0016033 -0.049743 0.27938
0.020435 0.018595 -0.0022243 0.0010905
0.00022436 -0.0037954 -0.0024958 -0.0027727 -0.0016506 -0.0008915 0.020481 0.018594
-0.081488 0.18131 0.01371 0.019049
-0.00033861 -0.001544 -0.001426 -0.0027915 -0.00048144 -0.0010953 -0.0021548 0.0010599
0.013646 0.019124 -0.14211 0.26434
1100000000 0.035915 0.30584 0.035839 -0.0043283 0.0028221 0.0039306 0.002269 -0.0012288
-0.0019449 -0.0031975 -0.0039894 0.00010541
0.03579 -0.0043206 -0.13053 0.37351 0.015094 -0.028084 -4.3833e-05 -0.0017666
-0.00342 -0.00088377 -0.0035935 -0.00047182
0.0028254 0.0039398 0.014988 -0.028174 0.20497 0.27585 -0.0019018 0.00027013
-0.0018484 0.00050598 -0.0011166 -0.0003869
0.0022839 -0.0012485 -9.1071e-05 -0.0017764 -0.0019054 0.0002619 -0.0092541 0.28429
0.025988 0.0049814 -0.0027722 -0.00025686
-0.0018576 -0.0031781 -0.0034618 -0.00098651 -0.0018747 0.00050057 0.02603 0.0049089
-0.063746 0.19494 0.019522 0.0089133
-0.0040779 8.8466e-05 -0.0035753 -0.00031225 -0.0011352 -0.00038416 -0.0026808 -0.0002364
0.019552 0.0089268 -0.096574 0.29589
1160000000 0.087157 0.30089 0.023832 -0.020991 0.0026152 -0.00047788 -0.00028087 -0.0022454
-0.0041361 -0.00076541 -0.0010089 0.0041159
0.023858 -0.020918 -0.086881 0.3779 -0.0039463 -0.029308 -0.0017052 -0.001687
-0.0028237 0.0024903 -0.0013818 0.0018699
0.0026347 -0.0004946 -0.0040947 -0.029335 0.24812 0.24476 -0.0007093 0.0017813
-0.00065423 0.0020194 -0.00092772 0.00032968
-0.00029577 -0.0022138 -0.0017585 -0.0016865 -0.00069202 0.0017791 0.03008 0.28166
0.022189 -0.011296 -0.0031809 0.004959
-0.0041551 -0.0007933 -0.0028171 0.0025089 -0.00063228 0.0020171 0.022198 -0.011366
-0.030638 0.2038 0.018942 0.00065493
-0.0010115 0.0039879 -0.0013877 0.0017223 -0.00086194 0.00034553 -0.0031717 0.0048942
0.018932 0.00064024 -0.049632 0.29912
1220000000 0.1315 0.28995 0.010131 -0.030183 -0.0015592 -0.00076545 6.7232e-05 -0.00084077
-0.0026827 0.0023981 0.0013611 0.0020849
0.010164 -0.030117 -0.042262 0.39003 -0.017122 -0.021152 -0.0025297 0.00043994
-2.9311e-05 0.0031264 -0.00071324 0.0019401
-0.0015817 -0.00074237 -0.017252 -0.0211 0.28724 0.2054 0.00081843 0.0017313
0.00064263 0.0012598 0.00036448 0.0007099
7.2298e-05 -0.00082248 -0.0025006 0.00049116 0.00082575 0.0017352 0.070138 0.27325
0.011049 -0.01839 0.0018081 0.0013908
-0.0026952 0.002384 6.0353e-05 0.0030752 0.00062738 0.0012621 0.010979 -0.0184
-0.0087945 0.21285 0.014771 -0.01317
0.0014035 0.0021102 -0.00074724 0.0020509 0.00033653 0.0006959 0.0018323 0.0014062
0.014814 -0.01314 -0.018967 0.31712
1280000000 0.18139 0.26796 -0.0082806 -0.028457 -0.0018342 0.0025509 -0.00079732 -0.0019841
-0.00088011 0.0030278 0.0025067 0.0011614
-0.0082404 -0.028454 0.0038805 0.38104 -0.023973 -0.008358 -0.00095769 0.0014527
0.0016987 0.0018458 0.000729 0.0021352
-0.0018232 0.0025834 -0.024056 -0.0082358 0.31729 0.16132 0.0016903 7.99e-06
0.0012212 0.00034461 0.00046564 0.00036587
-0.00078861 -0.0019349 -0.0010028 0.0014994 0.0016771 2.6895e-05 0.1071 0.25662
0.00092931 -0.020598 -0.00042603 0.0001618
-0.00084119 0.0030439 0.001702 0.0018888 0.0012136 0.00034875 0.00088106 -0.020591
0.027621 0.21676 0.0033694 -0.015472
0.0025154 0.0011567 0.00064204 0.0020416 0.00048321 0.00033619 -0.00048272 0.00013195
0.0033849 -0.015436 0.029627 0.32028
1340000000 0.21847 0.23406 -0.017878 -0.018707 0.001012 0.004532 -0.0017049 -0.00087344
0.0014423 0.0028312 0.001881 -0.00139
-0.0179 -0.018714 0.043387 0.37252 -0.021647 0.0044647 -0.00013355 0.0019843
0.0019957 0.00084438 0.0014394 0.0007663
0.0010541 0.0045083 -0.021669 0.0046223 0.33896 0.11339 0.0012164 -0.00099124
0.00079007 -0.00046606 0.00022913 0.00033143
-0.0017085 -0.00084933 -0.00013121 0.0019755 0.001205 -0.00097233 0.13944 0.23612
-0.0092279 -0.017533 0.00059943 0.00072598
0.0014994 0.0027887 0.0020097 0.00082693 0.00079123 -0.0005026 -0.0092706 -0.017495
0.056911 0.21248 -0.0036214 -0.014034
0.001884 -0.0014005 0.0013609 0.00069508 0.00022676 0.0002734 0.0006126 0.00070235
-0.0035834 -0.014094 0.067959 0.31679
1400000000 0.25144 0.19571 -0.023503 -0.0070657 0.0052359 0.0030805 -0.0020977 0.00059513
0.002399 0.00095879 0.00035496 -0.0013749
-0.023499 -0.00708 0.080651 0.35919 -0.014771 0.012603 0.0013662 0.0013171
0.0012296 -0.00084579 0.0012653 0.00019333
0.0052093 0.0030641 -0.014762 0.012719 0.35189 0.060221 0.00011576 -0.0017541
-7.1363e-05 -0.00043339 0.00045717 0.00020145
-0.0020935 0.00062267 0.0013682 0.0012899 0.00013566 -0.0017574 0.16876 0.20724
-0.015494 -0.010383 -0.00091054 -0.00015359
0.0024263 0.00094946 0.0012506 -0.00090279 -6.5557e-05 -0.00042758 -0.015511 -0.010319
0.089553 0.20859 -0.010325 -0.0093235
0.00032392 -0.0013654 0.0012534 0.00014442 0.00047638 0.00026227 -0.00088637 -0.00014166
-0.010338 -0.0093448 0.11367 0.30645
1460000000 0.27396 0.15154 -0.020309 0.0051391 0.0056417 -0.001918 -0.0016011 0.0017156
0.0021944 -0.00051141 -0.00034833 -0.001006
-0.020276 0.0051336 0.11462 0.33712 -0.0059118 0.015449 0.0017441 0.00016597
0.00088582 -0.001365 0.0011781 -0.00065219
0.0056475 -0.0019261 -0.0058325 0.0155 0.35779 0.0062052 -0.0013918 -0.0013021
0.00016781 -0.00029887 0.00063494 -0.00033982
-0.0015662 0.0017167 0.0017716 0.00014277 -0.0013356 -0.0013153 0.19462 0.17809
-0.016875 -0.002967 -0.00084856 0.0023086
0.002202 -0.00051192 0.00094643 -0.0013417 0.00022624 -0.00031087 -0.016879 -0.0029342
0.1182 0.19419 -0.012403 -0.0029389
-0.00029218 -0.0010039 0.0012292 -0.00071866 0.00058346 -0.00034765 -0.00084303 0.0023449
-0.012409 -0.002925 0.14726 0.28617
1520000000 0.28587 0.10967 -0.014433 0.010562 0.0033587 -0.0042811 0.00011121 0.0026301
0.002223 -0.0017716 -0.0011611 -0.00013749
-0.01445 0.010575 0.14791 0.32236 0.0017214 0.013079 0.0016751 -0.00079493
-2.2127e-05 -0.0010578 0.00035761 -0.0010299
0.0033407 -0.0042848 0.0017811 0.013115 0.35126 -0.049746 -0.001203 -0.00030867
0.00061341 -0.00081721 7.3671e-05 -0.00011624
9.5389e-05 0.0025984 0.0016583 -0.00081006 -0.0012121 -0.00036701 0.21742 0.1406
-0.015921 0.0032896 0.0016577 0.002311
0.0022298 -0.0017794 -2.0816e-05 -0.0010608 0.00062273 -0.00082937 -0.015935 0.0033611
0.14559 0.18066 -0.012246 0.0017815
-0.0012572 -0.00016684 0.00032252 -0.0009985 0.00012083 -0.0001343 0.0016607 0.0023115
-0.012249 0.0017662 0.18111 0.26666
1580000000 0.2948 0.063543 -0.007716 0.013498 -0.00096629 -0.0049858 0.001472 0.0019352
-0.00019991 -0.0021673 -0.00032178 0.00043812
-0.0077197 0.0135 0.17487 0.29754 0.0052715 0.0081644 0.00046461 -0.0016285
-0.0006319 -0.0010217 -0.00030514 -0.00077751
-0.0009585 -0.0049552 0.0053189 0.0081416 0.33113 -0.10712 -0.0016165 0.00071197
-0.00029896 -0.0011406 0.000104 -0.00054047
0.0014736 0.0019403 0.00046422 -0.0016265 -0.0016079 0.0007038 0.23104 0.10193
-0.011934 0.0084711 0.0025932 0.00095665
-0.00017093 -0.0021449 -0.0006364 -0.0010108 -0.00032375 -0.0011309 -0.01191 0.0085031
0.16963 0.16313 -0.0095935 0.0079261
-0.0002804 0.00042176 -0.00025077 -0.00074714 0.00014811 -0.00050607 0.0026141 0.00096021
-0.0095987 0.0078876 0.21431 0.24017
1640000000 0.2965 0.022405 -0.00096255 0.012209 -0.0028037 -0.0026137 0.0028076 0.00095943
-0.00063503 -0.0016531 -0.0002228 0.00058379
-0.00097481 0.012175 0.20418 0.27276 0.0059884 0.0033966 -0.00069688 -0.0017674
-0.0010375 -0.00033863 -0.00046783 -0.00070742
-0.002775 -0.0026057 0.0060036 0.0033381 0.30321 -0.15638 -0.00054816 0.0015362
-0.0011954 -0.0010995 -0.00011234 -0.00045778
0.0027886 0.00094638 -0.00072804 -0.0017405 -0.00054739 0.0015549 0.24328 0.054139
-0.0072058 0.0097414 0.0027764 -0.00082795
-0.0006748 -0.0015777 -0.0010329 -0.00032453 -0.0011707 -0.0010549 -0.0071948 0.0097705
0.19162 0.13939 -0.0046424 0.0099533
-0.00021932 0.00054453 -0.00053157 -0.00069219 -0.00011242 -0.00044265 0.0027716 -0.00082925
-0.0046392 0.0099481 0.24013 0.20957
1700000000 0.28902 -0.022571 0.0023176 0.0091959 -0.0035092 8.8254e-05 0.0030793 -0.0013095
-0.0021386 -0.00081687 0.00066972 0.00040674
0.0023007 0.0091757 0.22222 0.2414 0.0039217 0.00057264 -0.0015225 -0.00055561
-0.000748 7.6688e-05 -0.00088136 -0.00046023
-0.0035458 0.00010143 0.0038995 0.00055033 0.25973 -0.19611 0.00056788 0.0016612
-0.0020061 -0.00015489 -0.00044471 -0.00087832
0.0030517 -0.0013382 -0.0015049 -0.00055769 0.00059808 0.0016886 0.24072 0.0055684
-0.0041454 0.01019 0.0017053 -0.0024436
-0.0021623 -0.00084956 -0.00071539 8.9149e-05 -0.0019658 -0.00013538 -0.0041134 0.010222
0.20852 0.11968 0.00032747 0.010095
0.0006243 0.00049088 -0.00089146 -0.00043163 -0.00045846 -0.00083422 0.0016893 -0.0024428
0.00031808 0.010097 0.2573 0.1752
1760000000 0.27677 -0.070747 0.0043612 0.0058511 -0.0023815 0.00096535 0.0012358 -0.0035195
-0.0014602 0.00068516 0.00039212 -0.00068438
0.0043662 0.0058301 0.24803 0.2017 0.0015949 -0.0012056 -0.001211 0.00022075
-0.00093011 0.00086136 -0.00058035 0.0004025
-0.0023588 0.0009623 0.0016251 -0.001219 0.21081 -0.22936 0.001294 0.0010004
-0.0011596 0.0015555 -0.0013728 -0.00052507
0.0011745 -0.0034944 -0.0011855 0.00024113 0.0012386 0.00097669 0.23255 -0.044883
-0.00070283 0.009243 -0.00014989 -0.0027871
-0.0014712 0.00072522 -0.00090504 0.00093015 -0.001131 0.0015583 -0.00068119 0.0092546
0.22281 0.085414 0.0044568 0.0073543
0.00043375 -0.00067003 -0.00057997 0.00040182 -0.00141 -0.00050128 -0.00013542 -0.0028026
0.0044563 0.0073582 0.27034 0.13751
1820000000 0.25235 -0.10773 0.0043593 0.0023909 -0.00011823 0.0024835 -0.001098 -0.0030196
-0.0011869 0.0010574 -5.9948e-05 -0.00010301
0.0043694 0.0023741 0.25809 0.17183 -0.00033674 -0.00014568 -0.0012882 0.0009907
-5.7278e-06 0.0012257 -0.00053111 0.00050617
-9.9598e-05 0.0025036 -0.00037205 -0.00013665 0.16113 -0.24546 0.0014393 0.00029526
-0.00016097 0.0023555 -0.0013332 0.00034356
-0.0011577 -0.0029883 -0.0012633 0.0010107 0.0014398 0.0003377 0.20429 -0.091776
0.00098539 0.0074506 -0.0016 -0.0018114
-0.0011912 0.0010804 5.1599e-06 0.0012235 -0.00013033 0.0023866 0.0010003 0.0074667
0.23978 0.057275 0.0054825 0.0035763
-5.3922e-05 -0.00010186 -0.00055646 0.00054275 -0.0012716 0.00031015 -0.0016234 -0.0017662
0.0054713 0.0036089 0.27335 0.10158
1880000000 0.21745 -0.14786 0.0021445 0.00018186 -0.00038385 0.0021174 -0.0030019 -0.0020906
-0.00015426 0.0017796 0.00022862 -0.00042867
0.002167 0.00020458 0.26258 0.12531 -0.0024104 0.0015765 -0.00013298 0.0016605
0.00050364 0.0011058 5.9052e-05 0.00092137
-0.00032999 0.0020841 -0.0023785 0.0015678 0.1086 -0.25539 0.0016915 -0.0009356
0.0015644 0.0019051 -0.0010581 0.0013768
-0.0029683 -0.0020986 -0.00019504 0.0016379 0.001653 -0.00090632 0.16518 -0.13246
0.0018866 0.0053253 -0.0025923 0.0001992
-4.8207e-05 0.0017918 0.00053747 0.0010794 0.0015688 0.0019574 0.0019081 0.0053306
0.24279 0.025639 0.005553 0.0011572
0.00023644 -0.00042401 2.3339e-05 0.00084513 -0.0010604 0.0013874 -0.0025948 0.00021395
0.0055246 0.001128 0.27327 0.067264
1940000000 0.17822 -0.17369 -7.6165e-05 -0.0013174 0.0014286 0.0020592 -0.0037158 0.00058736
0.0013659 0.0010175 -0.00058865 -0.0004522
-4.5286e-05 -0.0013155 0.26317 0.093657 -0.0012604 0.0038727 0.0010464 0.0012969
0.0017004 0.00046652 0.00079339 0.00030618
0.0014823 0.0020474 -0.0012238 0.003863 0.062235 -0.24866 0.00044278 -0.0020504
0.0024097 0.0004227 0.00022893 0.0016266
-0.0037511 0.00061663 0.0010041 0.0013185 0.00047001 -0.0020272 0.11388 -0.16409
0.001178 0.0038013 -0.0016553 0.0014321
0.0013734 0.0010418 0.0017301 0.00050124 0.0023748 0.00042007 0.0012113 0.0038168
0.24507 -0.012401 0.0042932 -0.0025374
-0.00062943 -0.00046059 0.00079218 0.00027875 0.00022174 0.0016351 -0.0016585 0.00148
0.0042666 -0.0025549 0.2626 0.03157
2000000000 0.13203 -0.18857 -0.0038712 0.00066672 0.0025421 0.0016685 -0.0023226 0.0034771
0.0011198 -3.8451e-06 -0.00071113 0.00034736
-0.0038292 0.00065715 0.24911 0.058137 -0.0010634 0.0057398 0.0015844 0.00037039
0.0012455 -0.0012314 0.00048028 0.00020107
0.0025517 0.0016646 -0.001016 0.0057501 0.018721 -0.23382 -0.0012531 -0.0012785
0.0019272 -0.0012061 0.0016647 0.0012595
-0.0022852 0.0035274 0.0015404 0.0003733 -0.0012148 -0.001341 0.060342 -0.17541
-0.00049621 0.0031656 -0.00022497 0.0023025
0.0010852 5.3368e-05 0.001201 -0.0012447 0.0019724 -0.0011898 -0.00049843 0.0031761
0.23966 -0.04607 0.00068803 -0.0033649
