!Keysight Technologies,M9804A,MY58100912,A.14.10.03
!Date: Thursday, April 27, 2023 10:28:33
!Correction: S11(C  6-Port  ) 
!S12(C  6-Port  ) 
!S13(C  6-Port  ) 
!S14(C  6-Port  ) 
!S15(C  6-Port  ) 
!S16(C  6-Port  ) 
!S21(C  6-Port  ) 
!S22(C  6-Port  ) 
!S23(C  6-Port  ) 
!S24(C  6-Port  ) 
!S25(C  6-Port  ) 
!S26(C  6-Port  ) 
!S31(C  6-Port  ) 
!S32(C  6-Port  ) 
!S33(C  6-Port  ) 
!S34(C  6-Port  ) 
!S35(C  6-Port  ) 
!S36(C  6-Port  ) 
!S41(C  6-Port  ) 
!S42(C  6-Port  ) 
!S43(C  6-Port  ) 
!S44(C  6-Port  ) 
!S45(C  6-Port  ) 
!S46(C  6-Port  ) 
!S51(C  6-Port  ) 
!S52(C  6-Port  ) 
!S53(C  6-Port  ) 
!S54(C  6-Port  ) 
!S55(C  6-Port  ) 
!S56(C  6-Port  ) 
!S61(C  6-Port  ) 
!S62(C  6-Port  ) 
!S63(C  6-Port  ) 
!S64(C  6-Port  ) 
!S65(C  6-Port  ) 
!S66(C  6-Port  ) 
!S6P File: Measurement: :
# Hz S  RI   R 50
500000000 -0.33662 -0.040861 -0.0098332 -0.002913 -0.008491 0.013063 -0.004095 0.010936
0.013022 0.0044352 -0.0052635 0.0074165
-0.009751 -0.0029446 -0.41952 -0.053252 0.0077016 -0.010578 0.0018485 0.012042
0.0075484 0.0025748 0.0013057 0.013292
-0.0084549 0.013058 0.0077062 -0.010566 -0.26578 0.20876 0.0076612 0.0033525
-0.0021465 0.0081942 0.0013761 0.012092
-0.0040741 0.010948 0.001823 0.012068 0.0076432 0.0033734 -0.33245 0.043018
-0.019064 -0.0072463 0.015251 0.028242
0.013011 0.0043625 0.007551 0.0025867 -0.0021763 0.0081971 -0.019084 -0.0072397
-0.22046 -0.20294 -0.025186 0.0044493
-0.0052429 0.0074349 0.0013204 0.013375 0.0013908 0.012084 0.015255 0.028285
-0.025188 0.0044517 -0.26501 -0.1382
560000000 -0.31769 0.12205 -0.023818 -0.06305 -5.0386e-05 0.012392 0.0054535 0.011374
0.010816 0.0057454 0.012094 0.0081759
-0.023842 -0.062918 -0.37626 0.10733 -0.041873 -0.037858 0.014532 0.0037769
-0.013528 -0.0050231 0.0049833 -0.00029078
-2.9586e-05 0.012364 -0.041992 -0.037758 -0.18297 0.25765 -0.0001846 -0.0039075
0.019899 0.0054566 0.0060591 -0.006522
0.0055895 0.011413 0.014592 0.0037473 -0.00019225 -0.0039266 -0.30774 0.13156
0.0030441 -0.024002 0.0048366 -0.021718
0.010821 0.0057043 -0.013517 -0.004993 0.019877 0.0054808 0.0030459 -0.024013
-0.28966 -0.028258 0.0077895 -0.04881
0.012043 0.0081621 0.0049922 -0.00038157 0.0060841 -0.0065064 0.0048431 -0.021754
0.007823 -0.048818 -0.32761 0.0096736
620000000 -0.27556 0.10536 -0.023452 0.007895 0.0032027 0.008548 0.0081449 -0.0058349
0.011062 0.00044906 0.0015426 -0.0022773
-0.023426 0.0078659 -0.40298 0.058544 -0.018572 0.00014695 -0.0011443 -0.0023823
0.011551 -0.0060471 0.0009338 -0.0029579
0.003249 0.0084968 -0.018611 0.00022423 -0.15391 0.26632 -0.0011132 -0.0056371
-0.0030803 -0.0025494 0.0081327 -0.0033272
0.0080876 -0.0058148 -0.001196 -0.002371 -0.0011417 -0.0056308 -0.26757 0.14243
-0.038579 -0.019565 0.011339 0.026029
0.011118 0.00040172 0.011539 -0.0060757 -0.0030591 -0.0025361 -0.038614 -0.019544
-0.20765 -0.064737 -0.042333 0.014938
0.0014955 -0.0023126 0.00092782 -0.0029065 0.008169 -0.0033116 0.011391 0.026021
-0.042377 0.014957 -0.24837 -0.028279
680000000 -0.23566 0.19237 -0.027182 -0.013668 0.0051462 0.0057445 0.0012039 -0.0069652
-0.0032695 -0.010973 0.0058615 -0.0063904
-0.027173 -0.013676 -0.38778 0.15734 -0.032635 -0.0010486 -0.0017177 -0.00025755
-0.0020621 -0.0089371 -0.00045451 -0.0012518
0.0051639 0.0057374 -0.032651 -0.00098772 -0.10221 0.28638 -0.00076461 -0.00016079
-0.0015892 0.00058913 -0.0024187 -0.0088557
0.0012327 -0.0069632 -0.0016712 -0.00027349 -0.00075718 -0.00016068 -0.22225 0.19454
-0.02415 -0.0067033 -0.0094385 -0.010786
-0.0032824 -0.010997 -0.0020996 -0.0089389 -0.0015986 0.00059682 -0.024195 -0.0066472
-0.25958 0.035452 -0.0055718 -0.0083206
0.0057387 -0.006484 -0.00046969 -0.0012835 -0.0024064 -0.0088761 -0.0095143 -0.010797
-0.005596 -0.0082964 -0.26056 0.079972
740000000 -0.19103 0.18724 -0.038712 0.026823 0.013093 -0.0048461 -9.3014e-05 -0.0048848
-0.0045966 -0.002783 -0.0064695 0.0020923
-0.038691 0.026773 -0.33503 0.17597 -0.035738 0.035441 -0.0009707 -0.006392
-0.012596 0.0081376 -0.0024663 -0.0065342
0.013054 -0.0049086 -0.035658 0.035618 -0.068587 0.28403 -0.0019103 0.0030923
-0.0020317 -0.0047517 -0.0015948 -0.00035247
-0.00018878 -0.0048912 -0.0010113 -0.0063898 -0.0019241 0.00309 -0.20536 0.20175
-0.044784 -0.0061322 0.023497 0.015604
-0.0045282 -0.0027835 -0.012538 0.0081645 -0.0020521 -0.0047299 -0.044815 -0.0061351
-0.15749 0.062853 -0.044629 0.0013438
-0.0065095 0.0020877 -0.002484 -0.0065511 -0.0016072 -0.00032172 0.023534 0.015594
-0.044619 0.0013102 -0.24994 0.086217
800000000 -0.15778 0.22706 -0.022404 0.016704 0.0055318 -0.010607 -0.0052284 -0.0018895
-0.0042261 0.0020701 0.0043598 0.00074072
-0.022379 0.016674 -0.33829 0.24582 -0.007858 0.034049 -0.0025839 0.0022187
-0.00066589 0.0028374 0.00080554 0.0053478
0.0055055 -0.010612 -0.0077612 0.034114 -0.028159 0.30748 0.00071006 0.0015807
0.00015241 0.0035163 -0.0018411 0.0011635
-0.0052234 -0.0018579 -0.0025715 0.002225 0.0007229 0.0015785 -0.17617 0.22971
-0.028851 0.014616 0.013724 -0.010712
-0.0042284 0.0021094 -0.00065247 0.0028426 0.00016043 0.0035289 -0.02885 0.014691
-0.20691 0.086653 -0.017399 0.020046
0.0043274 0.00072534 0.00082346 0.0053503 -0.0018331 0.0011594 0.013683 -0.010752
-0.01738 0.020031 -0.24729 0.13614
860000000 -0.12309 0.24747 -0.017316 0.030608 -0.0034264 -0.010145 -0.0018122 0.00061813
0.0041679 0.0045397 -0.003714 -0.0035521
-0.017305 0.030574 -0.29082 0.28778 0.0078775 0.034284 -3.5207e-07 0.0018456
0.0041849 -6.6643e-05 0.0032403 0.00068313
-0.0034577 -0.01013 0.0080079 0.034311 0.01958 0.31542 -0.00050305 -0.0004035
0.0027126 -0.0015423 0.001449 0.0041419
-0.0018397 0.00062446 -1.5292e-05 0.0018615 -0.00051033 -0.00040922 -0.13942 0.24079
-0.017756 0.018629 -0.0056758 -0.0092417
0.0042133 0.0045386 0.0041791 -7.6179e-05 0.0027162 -0.0015236 -0.017727 0.018679
-0.15457 0.13895 -0.026809 0.015923
-0.0037332 -0.0035405 0.0032565 0.00069819 0.0014655 0.0041256 -0.005681 -0.0091953
-0.026798 0.015918 -0.19457 0.18239
920000000 -0.098798 0.26969 0.0050602 0.037835 -0.0096025 -0.004725 -0.0018662 0.002061
0.00062795 0.0021701 0.0030231 -0.0014001
0.0050516 0.037809 -0.26193 0.30923 0.028177 0.021981 0.001547 0.001113
0.0070087 -0.00023865 0.0039983 -0.003033
-0.0096208 -0.0046868 0.028306 0.021928 0.065821 0.31631 0.0018817 6.8951e-06
0.0012294 -0.00037364 0.00091775 -0.001229
-0.0018401 0.0020778 0.0015559 0.0011172 0.0018756 1.9356e-05 -0.11575 0.25773
-0.010617 0.031791 0.0039357 -0.0071192
0.00063511 0.0021543 0.0069978 -0.00023826 0.0012213 -0.00036672 -0.010564 0.031825
-0.14573 0.14468 -0.0025599 0.027872
0.0030285 -0.0014239 0.0039701 -0.0030269 0.00090682 -0.001231 0.0039331 -0.0070995
-0.0025708 0.027868 -0.20528 0.19735
980000000 -0.05135 0.28969 0.017528 0.029884 -0.0091854 0.0046806 0.0021603 0.0033581
0.0039221 -0.0015014 -0.0032874 -0.0021374
0.017515 0.029894 -0.20938 0.34294 0.033203 0.0048269 0.0019879 -0.0001642
0.0014703 -0.005838 -0.00049515 -0.0023631
-0.0091757 0.004697 0.033271 0.0047412 0.11215 0.30984 0.00053941 -0.0012528
0.00025527 -0.002095 0.0013055 -0.00017652
0.0021832 0.0033339 0.0019884 -0.00012685 0.00053614 -0.0012523 -0.076853 0.26893
0.0084168 0.030586 -0.0090531 -0.0076089
0.0039439 -0.0015416 0.0014285 -0.0058516 0.00026485 -0.0021024 0.0084726 0.030597
-0.11402 0.17409 0.0048127 0.019915
-0.0032647 -0.0021639 -0.00049822 -0.0023433 0.001303 -0.00019228 -0.0090782 -0.0075887
0.0048193 0.01991 -0.16297 0.24358
1040000000 -0.0097081 0.29779 0.033266 0.017982 -0.0013223 0.0069248 0.0022363 0.00068841
2.0659e-05 -0.0035394 -0.00017051 -0.0012193
0.033255 0.018015 -0.1739 0.35605 0.029522 -0.015049 0.0014639 -0.0018851
-0.0023958 -0.0027828 -0.0015484 -0.0026727
-0.0013002 0.0069148 0.029521 -0.015166 0.15832 0.29622 -0.00053055 -0.001618
-0.0016309 -0.00091617 -0.00055626 -0.0011047
0.002233 0.00069052 0.0014518 -0.0018839 -0.00052926 -0.0016165 -0.049851 0.27929
0.020255 0.018782 -0.0023136 0.00096413
1.3796e-05 -0.0035666 -0.0024335 -0.0027529 -0.001626 -0.00091389 0.020308 0.018744
-0.081958 0.18115 0.013672 0.01937
-0.00017216 -0.0012516 -0.0015803 -0.0026223 -0.00054884 -0.0010972 -0.0023038 0.0009665
0.013651 0.019366 -0.14275 0.26431
1100000000 0.036012 0.3061 0.035961 -0.0043651 0.002831 0.0038841 0.0024502 -0.0012055
-0.0020021 -0.0032565 -0.0040872 -0.00012416
0.035921 -0.0043206 -0.13057 0.37342 0.015089 -0.028103 3.1878e-05 -0.0017864
-0.0034746 -0.00089061 -0.0036918 -0.00056687
0.0028515 0.0038669 0.014999 -0.028188 0.20492 0.27585 -0.0019323 0.00021712
-0.0018027 0.00049506 -0.0011428 -0.00030429
0.0024623 -0.0012354 2.9023e-05 -0.0017941 -0.001933 0.00022011 -0.0092968 0.28436
0.026018 0.0050499 -0.0027647 -0.00022455
-0.0020038 -0.0032375 -0.0034826 -0.00086746 -0.0018023 0.00050112 0.026038 0.0050149
-0.063955 0.19449 0.019443 0.0088983
-0.0040716 -0.00010884 -0.0037124 -0.00052646 -0.0011434 -0.00030089 -0.0027792 -0.00019106
0.019435 0.0089015 -0.096466 0.29598
1160000000 0.086966 0.30078 0.02389 -0.020973 0.0026291 -0.00047895 -0.00030403 -0.0022454
-0.0042349 -0.00089791 -0.00096418 0.0041037
0.023895 -0.020939 -0.086886 0.37794 -0.003963 -0.029319 -0.001742 -0.0016205
-0.0028515 0.0025675 -0.0013757 0.0018668
0.002638 -0.00048246 -0.0040944 -0.029324 0.24808 0.24481 -0.0007091 0.001829
-0.00059747 0.0020873 -0.00092842 0.00030471
-0.00031127 -0.0022598 -0.0017347 -0.0016045 -0.00070344 0.0018365 0.030141 0.28165
0.02224 -0.011411 -0.0031082 0.004927
-0.0042408 -0.0008937 -0.0028375 0.0026054 -0.00059204 0.0021009 0.022239 -0.011434
-0.030677 0.20382 0.01888 0.0007303
-0.00093593 0.0041213 -0.0013785 0.0018622 -0.00092003 0.00029448 -0.0031066 0.0049208
0.018872 0.00072018 -0.049677 0.29913
1220000000 0.13152 0.29005 0.010233 -0.030259 -0.0015761 -0.00080546 5.4652e-05 -0.00079647
-0.0027687 0.0024108 0.0013051 0.0020661
0.010248 -0.03021 -0.04232 0.39 -0.017174 -0.021179 -0.0024891 0.0004146
-9.9748e-05 0.003212 -0.00079858 0.0019278
-0.0015803 -0.00080413 -0.017293 -0.021119 0.28721 0.20544 0.00077325 0.0016301
0.0006598 0.0012175 0.00034328 0.00071001
5.0259e-05 -0.00079885 -0.0025009 0.00042149 0.00076969 0.0016317 0.070088 0.27327
0.010962 -0.018315 0.0016342 0.0015388
-0.0027501 0.0024107 -8.3199e-05 0.0032231 0.0006576 0.0012349 0.010931 -0.018336
-0.0086621 0.21303 0.014803 -0.013124
0.0013083 0.0020663 -0.00078602 0.0019399 0.00034326 0.00070797 0.0016385 0.00155
0.014793 -0.013133 -0.018906 0.31739
1280000000 0.18134 0.26802 -0.0083209 -0.028532 -0.0018885 0.002623 -0.00082804 -0.0019948
-0.00090178 0.0029659 0.0025482 0.0012659
-0.0082857 -0.028513 0.0037998 0.38107 -0.023958 -0.0083325 -0.00096861 0.001427
0.0017142 0.0018912 0.00074648 0.0021174
-0.0018679 0.0026303 -0.024035 -0.0082351 0.31727 0.16133 0.0016272 4.9081e-06
0.001182 0.00030634 0.00049052 0.0003352
-0.00083375 -0.0019863 -0.00096317 0.0014452 0.0016336 4.2059e-06 0.10725 0.25664
0.00094994 -0.020622 -0.00037793 2.6277e-05
-0.00087626 0.0029816 0.0017231 0.001887 0.0011861 0.00030755 0.00091372 -0.020634
0.027571 0.21685 0.0033189 -0.015441
0.0025647 0.0012445 0.00076033 0.0021134 0.00049042 0.00033119 -0.00038261 2.3517e-05
0.0033377 -0.015428 0.029179 0.32021
1340000000 0.21851 0.23406 -0.017995 -0.018777 0.0010361 0.0045387 -0.0017169 -0.00085713
0.0014343 0.0028969 0.0019279 -0.0014736
-0.017967 -0.018775 0.043297 0.37256 -0.021676 0.0044541 -7.2664e-05 0.0020528
0.001943 0.00078546 0.001399 0.00064714
0.0010536 0.0045324 -0.02168 0.00458 0.3389 0.11342 0.0012343 -0.00095506
0.00078687 -0.00048913 0.000258 0.00032964
-0.0017238 -0.00083961 -5.4474e-05 0.0020349 0.0012328 -0.00096322 0.13943 0.23612
-0.0092722 -0.017471 0.00058587 0.0007328
0.0014487 0.0028955 0.0019586 0.00077527 0.00079073 -0.00049662 -0.0093123 -0.017475
0.056722 0.21249 -0.0034687 -0.013882
0.0019076 -0.0014774 0.0013962 0.00064824 0.00026845 0.00032651 0.00059102 0.00073026
-0.003466 -0.01389 0.067749 0.31685
1400000000 0.25141 0.19574 -0.023615 -0.0070453 0.0051954 0.0030854 -0.0021002 0.00061092
0.0024297 0.00096391 0.00028631 -0.0013609
-0.023585 -0.0070535 0.08066 0.35922 -0.014765 0.012598 0.0013038 0.0012816
0.0011845 -0.000847 0.0012001 0.00023204
0.0052196 0.0030672 -0.014717 0.012689 0.35189 0.060235 3.0757e-05 -0.0017552
-4.7394e-05 -0.00044856 0.0004047 0.00034665
-0.0020969 0.00061327 0.0013132 0.0012868 2.9251e-05 -0.0017447 0.1688 0.20727
-0.015477 -0.010386 -0.00084469 -0.00018041
0.0024375 0.00094323 0.0011809 -0.0008541 -4.1083e-05 -0.00045474 -0.015504 -0.010361
0.089718 0.2084 -0.010344 -0.0093263
0.00029115 -0.0013653 0.0012141 0.00022611 0.00041012 0.0003401 -0.00084498 -0.00017863
-0.01033 -0.0093334 0.11355 0.30647
1460000000 0.27387 0.15144 -0.020405 0.005213 0.0057073 -0.0019314 -0.0016737 0.0016967
0.0021627 -0.00045652 -0.00034805 -0.00098071
-0.020383 0.0051952 0.11458 0.33718 -0.0059578 0.015464 0.0018097 0.00018814
0.00093466 -0.0013999 0.0011704 -0.00069249
0.0056936 -0.0019579 -0.0058762 0.015515 0.35782 0.0062064 -0.0013955 -0.0012844
0.00015759 -0.00022229 0.00064731 -0.00042692
-0.0016591 0.0017113 0.0018257 0.00016546 -0.0013958 -0.0012807 0.1947 0.17813
-0.016829 -0.0030023 -0.00089488 0.0023017
0.0021557 -0.00046471 0.00092664 -0.0014102 0.00015275 -0.00023136 -0.01684 -0.0029675
0.11828 0.19424 -0.012369 -0.002907
-0.00034911 -0.00096908 0.0011641 -0.00069469 0.00064168 -0.00042702 -0.00088804 0.002293
-0.012361 -0.0029058 0.14704 0.28625
1520000000 0.28575 0.1096 -0.014479 0.010662 0.0033645 -0.0042297 0.00016151 0.0026942
0.0022256 -0.0017466 -0.0011846 -0.00016467
-0.014475 0.010642 0.14782 0.32238 0.0017566 0.013111 0.0016684 -0.00083005
-1.3258e-05 -0.0010528 0.00038708 -0.0009989
0.0033462 -0.0042521 0.0018389 0.013107 0.35123 -0.049752 -0.001246 -0.00030311
0.00056667 -0.00086893 0.00012028 -0.00019975
0.00017002 0.0026896 0.0016678 -0.00082768 -0.0012425 -0.00030626 0.21747 0.14059
-0.015949 0.0033098 0.0016082 0.002262
0.002219 -0.0017637 -1.9396e-05 -0.0010565 0.00057549 -0.00086902 -0.015949 0.0033431
0.14547 0.18053 -0.012164 0.001794
-0.0011797 -0.00015085 0.00038938 -0.00099679 0.00012152 -0.00019122 0.0016058 0.0022518
-0.012154 0.0017709 0.18084 0.26674
1580000000 0.29467 0.063522 -0.0076751 0.013613 -0.00098085 -0.0049722 0.0014954 0.0019848
-0.00019002 -0.0021568 -0.00031811 0.00046418
-0.007675 0.013599 0.1748 0.29757 0.0052754 0.0081967 0.00049797 -0.0016311
-0.00060079 -0.001034 -0.00026111 -0.00081873
-0.0010061 -0.0049734 0.0053392 0.008174 0.33116 -0.10709 -0.0016233 0.00073427
-0.00036441 -0.0012059 0.00015113 -0.00060086
0.0015028 0.0019791 0.0004918 -0.0016373 -0.0016186 0.00073438 0.23105 0.10203
-0.011961 0.0085329 0.0025511 0.00089003
-0.00021037 -0.0021618 -0.00060781 -0.001043 -0.00037777 -0.0012083 -0.011943 0.0085589
0.16962 0.16323 -0.0097396 0.0078463
-0.00030785 0.00046438 -0.00026721 -0.00082025 0.00015023 -0.0006041 0.0025487 0.00088302
-0.0097426 0.0078428 0.21431 0.24042
1640000000 0.29634 0.022541 -0.00091426 0.012239 -0.0027806 -0.0026469 0.0028306 0.00099058
-0.00058946 -0.0016353 -0.00023301 0.00054107
-0.0009198 0.012233 0.20408 0.27285 0.0059812 0.0034223 -0.0007266 -0.0017748
-0.0010592 -0.00034105 -0.0004465 -0.0006937
-0.0027847 -0.0026169 0.0060004 0.0033915 0.30327 -0.15637 -0.00054344 0.0015765
-0.0011771 -0.0010956 -0.00011323 -0.00048679
0.0028419 0.00097371 -0.00075089 -0.001763 -0.00053492 0.0015674 0.24333 0.054216
-0.0072275 0.009748 0.0027426 -0.00091316
-0.00060595 -0.0016291 -0.0010619 -0.00032873 -0.0011824 -0.0010907 -0.0072134 0.0097651
0.19148 0.13932 -0.0045889 0.0099222
-0.0002416 0.0005496 -0.00043312 -0.00069172 -0.00010675 -0.0004737 0.0027485 -0.00092624
-0.0046035 0.0099238 0.23988 0.20963
1700000000 0.28896 -0.022434 0.0024039 0.0091996 -0.0035337 9.4899e-05 0.0030649 -0.0013845
-0.0021551 -0.00080378 0.00068171 0.00044593
0.0023889 0.0091953 0.2221 0.24149 0.003886 0.0005845 -0.0014936 -0.00052543
-0.00070058 7.7521e-05 -0.00088718 -0.00046614
-0.0035251 0.00011769 0.0039024 0.00055423 0.25968 -0.19612 0.00058276 0.0016799
-0.0019712 -0.00018029 -0.00047578 -0.00085933
0.0030506 -0.0013879 -0.0014854 -0.00052163 0.00057584 0.0016822 0.24067 0.0055476
-0.0041972 0.010189 0.0016239 -0.0023897
-0.0021677 -0.00078706 -0.00069725 7.8948e-05 -0.0019795 -0.00018366 -0.004172 0.010204
0.20841 0.1197 0.00034631 0.010116
0.00069152 0.00043802 -0.00089426 -0.00046671 -0.00048152 -0.00085377 0.0016145 -0.0024055
0.00033784 0.010108 0.25735 0.17506
1760000000 0.2767 -0.070597 0.0044281 0.0057804 -0.0023741 0.00096642 0.0012208 -0.0034758
-0.0014171 0.00072579 0.00036097 -0.00073935
0.0044302 0.0057805 0.24797 0.20184 0.0016594 -0.0011991 -0.0012033 0.00023013
-0.00093047 0.00087542 -0.00059121 0.00043357
-0.0023785 0.00099044 0.0016548 -0.0012107 0.211 -0.22927 0.001353 0.0010384
-0.0011071 0.0016175 -0.0013209 -0.00054881
0.001203 -0.0034895 -0.0012158 0.00023249 0.0013475 0.0010309 0.2326 -0.044847
-0.00072401 0.0092265 -0.00012972 -0.0027163
-0.0014082 0.00073536 -0.000929 0.00088341 -0.0011047 0.0016212 -0.00069007 0.0092418
0.22276 0.085434 0.0043957 0.0074857
0.00034532 -0.00074346 -0.00058291 0.00044107 -0.0013375 -0.00055 -0.00012947 -0.002721
0.0044092 0.0074892 0.27042 0.13758
1820000000 0.25243 -0.10754 0.0044247 0.0023274 -7.1232e-05 0.0025189 -0.001158 -0.0030512
-0.0011612 0.00095845 -5.985e-05 -0.00011381
0.0044123 0.0023217 0.25806 0.17196 -0.00035882 -0.00017474 -0.0013629 0.00099843
-1.9986e-05 0.0012221 -0.00050345 0.00050028
-4.8449e-05 0.0025173 -0.00036608 -0.00015708 0.16111 -0.24542 0.0014522 0.00027498
-0.00013786 0.0023944 -0.0014686 0.00033223
-0.0011773 -0.0030516 -0.0013652 0.0010306 0.001455 0.00027842 0.20438 -0.091604
0.0009387 0.0075209 -0.0017647 -0.0018731
-0.0011589 0.00097782 -5.851e-06 0.0012288 -0.00013222 0.002388 0.00095808 0.0075232
0.23967 0.057354 0.0054394 0.0036036
-5.8327e-05 -0.00010706 -0.00050113 0.00050236 -0.0014611 0.00032911 -0.0017535 -0.001872
0.0054426 0.003602 0.27329 0.10169
1880000000 0.21751 -0.14787 0.0021815 0.00010904 -0.00037487 0.002092 -0.0029676 -0.0021766
-0.0001696 0.0017765 0.00018993 -0.0004685
0.002173 0.00011316 0.2626 0.12547 -0.0023655 0.0015634 -0.00013543 0.0016907
0.00050957 0.0010921 6.5075e-05 0.00092072
-0.00035707 0.0021101 -0.002362 0.0015695 0.10864 -0.25539 0.0016576 -0.00089976
0.0016117 0.0019319 -0.00094598 0.001377
-0.0029957 -0.0021476 -0.00011811 0.0016817 0.0016634 -0.00089776 0.16523 -0.13258
0.0019222 0.0052822 -0.0025415 0.00030476
-0.00014896 0.0017727 0.00051728 0.0010915 0.0016104 0.0019214 0.0019316 0.0052856
0.24274 0.025708 0.0056024 0.0011862
0.00018321 -0.00046861 6.8761e-05 0.00092424 -0.00092952 0.0013783 -0.0025445 0.00030926
0.0056005 0.0011934 0.27338 0.067452
1940000000 0.17838 -0.17368 -7.6176e-05 -0.0013891 0.0014181 0.0020979 -0.0036327 0.00060741
0.0013944 0.0010159 -0.000648 -0.00040608
-7.6782e-05 -0.001388 0.26323 0.093731 -0.0012867 0.0038663 0.0010535 0.0012851
0.0017057 0.00044552 0.00076587 0.00033532
0.0014339 0.0020836 -0.0012673 0.0038799 0.062255 -0.24854 0.00042042 -0.0020646
0.0024143 0.00034736 0.00029691 0.0016284
-0.0036345 0.00062813 0.001045 0.0012799 0.00041658 -0.0020705 0.11404 -0.16394
0.0013122 0.0038674 -0.001629 0.0014417
0.0014056 0.0010082 0.001704 0.00044255 0.0024159 0.00033841 0.0013225 0.0038608
0.24515 -0.012255 0.004289 -0.0024696
-0.00065184 -0.00040258 0.00078209 0.00032495 0.0002954 0.0016368 -0.0016206 0.0014573
0.0042957 -0.0024669 0.26253 0.031528
2000000000 0.1321 -0.18863 -0.0038722 0.00064396 0.0025457 0.0016727 -0.0023751 0.0034687
0.0010282 4.5438e-05 -0.0007322 0.00034446
-0.0038606 0.00063088 0.24915 0.058236 -0.0011044 0.0057815 0.0015723 0.00034783
0.0012152 -0.0012229 0.00046252 0.00016943
0.0025245 0.0016618 -0.0010639 0.0057986 0.018664 -0.23373 -0.0012824 -0.0012357
0.0019014 -0.0011669 0.0016004 0.001296
-0.0023636 0.0034723 0.0015917 0.00035004 -0.0012896 -0.0012256 0.060511 -0.17543
-0.00037162 0.0031915 -0.00024915 0.0021493
0.001029 3.864e-05 0.0012117 -0.0012315 0.0018903 -0.00117 -0.00036831 0.0032079
