!Keysight Technologies,M9804A,MY58100912,A.14.10.03
!Date: Thursday, April 27, 2023 10:28:33
!Correction: S11(C  6-Port  ) 
!S12(C  6-Port  ) 
!S13(C  6-Port  ) 
!S14(C  6-Port  ) 
!S15(C  6-Port  ) 
!S16(C  6-Port  ) 
!S21(C  6-Port  ) 
!S22(C  6-Port  ) 
!S23(C  6-Port  ) 
!S24(C  6-Port  ) 
!S25(C  6-Port  ) 
!S26(C  6-Port  ) 
!S31(C  6-Port  ) 
!S32(C  6-Port  ) 
!S33(C  6-Port  ) 
!S34(C  6-Port  ) 
!S35(C  6-Port  ) 
!S36(C  6-Port  ) 
!S41(C  6-Port  ) 
!S42(C  6-Port  ) 
!S43(C  6-Port  ) 
!S44(C  6-Port  ) 
!S45(C  6-Port  ) 
!S46(C  6-Port  ) 
!S51(C  6-Port  ) 
!S52(C  6-Port  ) 
!S53(C  6-Port  ) 
!S54(C  6-Port  ) 
!S55(C  6-Port  ) 
!S56(C  6-Port  ) 
!S61(C  6-Port  ) 
!S62(C  6-Port  ) 
!S63(C  6-Port  ) 
!S64(C  6-Port  ) 
!S65(C  6-Port  ) 
!S66(C  6-Port  ) 
!S6P File: Measurement: :
# Hz S  RI   R 50
500000000 -0.33695 -0.039509 -0.0097056 -0.0027633 -0.0077958 0.012393 -0.0044486 0.012076
0.013099 0.0042952 -0.0048159 0.0083388
-0.0097075 -0.0027644 -0.419 -0.052022 0.008162 -0.010816 0.001462 0.012137
0.007693 0.0022814 0.0013337 0.013287
-0.0077635 0.012421 0.0081091 -0.010814 -0.2653 0.209 0.0079481 0.0035109
-0.0015974 0.0079708 0.0016894 0.012193
-0.0044049 0.012034 0.0015022 0.012155 0.0079338 0.0035007 -0.33066 0.043904
-0.018469 -0.0061738 0.015719 0.027134
0.013086 0.0043188 0.007716 0.0021614 -0.0016041 0.0079046 -0.018485 -0.0061916
-0.22265 -0.19794 -0.025085 0.0048848
-0.0051044 0.0086642 0.0012826 0.013193 0.0018293 0.012131 0.015701 0.027156
-0.025314 0.0047049 -0.26608 -0.13544
560000000 -0.31527 0.12218 -0.023542 -0.063893 0.0002114 0.012081 0.0055567 0.010612
0.010408 0.0046614 0.011291 0.0079824
-0.023472 -0.063846 -0.37883 0.10729 -0.040615 -0.037703 0.013921 0.0040728
-0.012969 -0.0047361 0.0033033 -0.00010674
0.00022797 0.01204 -0.040697 -0.037668 -0.18343 0.25726 -0.00083383 -0.004486
0.019127 0.004871 0.0068829 -0.0063525
0.0056294 0.010611 0.013917 0.0040811 -0.00081557 -0.0044809 -0.30546 0.13209
0.0044245 -0.02372 0.0046237 -0.021213
0.010453 0.0046135 -0.012976 -0.0047574 0.019149 0.004914 0.004407 -0.023905
-0.28884 -0.022346 0.0092287 -0.049317
0.011551 0.0079427 0.0031391 -5.168e-05 0.0069183 -0.0065771 0.0045553 -0.021094
0.0090778 -0.049357 -0.32887 0.013131
620000000 -0.27476 0.10682 -0.023222 0.007987 0.0031175 0.0085469 0.0080276 -0.005706
0.010996 6.8232e-05 0.0019348 -0.0027887
-0.023196 0.0079894 -0.40236 0.059567 -0.018413 9.1972e-05 -0.0013531 -0.0019207
0.011252 -0.0068506 0.0016106 -0.0033031
0.0032008 0.0085299 -0.018447 0.00013891 -0.15349 0.26636 -0.0012742 -0.0048895
-0.0031816 -0.0031706 0.0082478 -0.0033916
0.0080516 -0.0057112 -0.0013643 -0.0019086 -0.0012562 -0.0048842 -0.26576 0.14345
-0.037235 -0.019591 0.012512 0.026448
0.011083 0.00010292 0.011226 -0.006919 -0.0032119 -0.0032228 -0.037191 -0.019664
-0.20747 -0.061093 -0.041796 0.013657
0.0017867 -0.0027939 0.0016238 -0.0032958 0.0082375 -0.003346 0.012397 0.026235
-0.041759 0.014153 -0.24917 -0.025189
680000000 -0.23478 0.19221 -0.02725 -0.014434 0.0049819 0.0050446 0.0012429 -0.0071069
-0.0032277 -0.011308 0.0050842 -0.0068111
-0.027247 -0.014448 -0.38764 0.15727 -0.032637 -0.0014025 -0.0016255 -0.00042929
-0.0023797 -0.0087902 -0.0013046 -0.0017685
0.0049923 0.0050449 -0.032668 -0.0013168 -0.10226 0.2863 -0.00077061 -0.00014889
-0.0018117 0.0006602 -0.0027816 -0.0091413
0.001213 -0.0071174 -0.0016113 -0.00044101 -0.00078132 -0.00014859 -0.2209 0.19354
-0.023399 -0.0079731 -0.0099284 -0.011444
-0.0032883 -0.01126 -0.0024238 -0.0088193 -0.0018513 0.00064543 -0.023436 -0.0079564
-0.25792 0.037534 -0.0048807 -0.0091014
0.0050149 -0.0069875 -0.0012702 -0.001846 -0.0027749 -0.0091748 -0.0099979 -0.011659
-0.0048924 -0.0089052 -0.26157 0.082291
740000000 -0.1907 0.18657 -0.038649 0.026693 0.012671 -0.0051964 -0.00021594 -0.0042049
-0.0043102 -0.0028289 -0.0062986 0.0022708
-0.038646 0.026644 -0.33476 0.17637 -0.035433 0.034963 -0.00072256 -0.006113
-0.011877 0.0083196 -0.0018582 -0.0065067
0.012651 -0.0052338 -0.035352 0.035118 -0.068261 0.28463 -0.0021229 0.0032354
-0.002408 -0.0046893 -0.0014551 -1.2598e-05
-0.00026196 -0.0041638 -0.00070176 -0.0060997 -0.0021279 0.0032472 -0.20403 0.20141
-0.043264 -0.0075198 0.023037 0.014901
-0.0042686 -0.0028209 -0.011805 0.0084184 -0.0024203 -0.0046575 -0.043293 -0.0074308
-0.15944 0.063031 -0.04392 -0.00011364
-0.0063438 0.0024697 -0.0019996 -0.0063719 -0.0016123 -3.2408e-05 0.02301 0.015035
-0.043915 -9.743e-05 -0.24926 0.088504
800000000 -0.15769 0.22734 -0.022574 0.016632 0.0052724 -0.010635 -0.0047569 -0.0020606
-0.0041331 0.0021696 0.0044369 0.00030939
-0.022564 0.016608 -0.33812 0.24634 -0.0078751 0.033833 -0.0023216 0.0022345
-0.00055298 0.0030395 0.0010844 0.0050247
0.0052386 -0.010649 -0.0077959 0.033881 -0.027844 0.30775 0.0011393 0.0015238
0.00025314 0.0035142 -0.0017496 0.00090181
-0.0047513 -0.0020421 -0.0023215 0.0022413 0.0011334 0.0015284 -0.17575 0.22916
-0.028537 0.013417 0.013492 -0.010411
-0.0040914 0.0021737 -0.00053574 0.0030515 0.00027656 0.0035013 -0.028512 0.013436
-0.20663 0.087256 -0.017837 0.018829
0.0044709 0.0004318 0.0010861 0.0050992 -0.0017344 0.00089135 0.0135 -0.010359
-0.017813 0.018844 -0.24604 0.13828
860000000 -0.12302 0.24757 -0.017442 0.030585 -0.0033744 -0.0099329 -0.0023437 0.00097516
0.0040731 0.0049811 -0.00308 -0.0028216
-0.017444 0.030541 -0.29053 0.2882 0.0078515 0.033941 4.8005e-05 0.0019379
0.0042863 0.00014559 0.0034488 0.00063366
-0.0034076 -0.0099333 0.0079614 0.033946 0.020196 0.31556 -0.00053934 -0.00030203
0.0027863 -0.001507 0.0012965 0.0044652
-0.0023467 0.00096757 4.7329e-05 0.0019507 -0.00053975 -0.00030458 -0.13929 0.24033
-0.018095 0.018313 -0.0062117 -0.009243
0.0041581 0.0049461 0.00429 0.00012042 0.0027803 -0.0015249 -0.018069 0.018295
-0.1565 0.1389 -0.026624 0.01498
-0.0031532 -0.0027577 0.0034849 0.00075244 0.0013285 0.0045026 -0.0063055 -0.009217
-0.026651 0.015096 -0.19419 0.18596
920000000 -0.098532 0.27069 0.0049971 0.037761 -0.0094701 -0.004336 -0.0019161 0.0020142
0.001179 0.0018888 0.0027486 -0.0015751
0.0049866 0.037726 -0.26156 0.30962 0.027992 0.021839 0.0013794 0.0011125
0.006989 -0.0006041 0.0040397 -0.0026117
-0.0094832 -0.0043216 0.02808 0.021794 0.066363 0.31617 0.0018152 -6.3828e-05
0.0011936 -0.00041025 0.00087948 -0.00099506
-0.0019278 0.0020237 0.0013721 0.0011375 0.0018147 -6.7193e-05 -0.11557 0.25735
-0.011196 0.030327 0.0036594 -0.0064444
0.0011634 0.0018749 0.0070047 -0.00064458 0.0011954 -0.00040172 -0.011122 0.03036
-0.14742 0.14494 -0.0035237 0.02752
0.0027183 -0.001531 0.0040048 -0.0026977 0.00090841 -0.0010117 0.0035638 -0.0063776
-0.003411 0.027604 -0.20389 0.19904
980000000 -0.051026 0.29022 0.017397 0.029917 -0.0089458 0.0046951 0.0020783 0.0036689
0.0040227 -0.0013107 -0.0033451 -0.0022474
0.017389 0.029893 -0.20871 0.34352 0.03277 0.0048878 0.0020616 3.9514e-05
0.0014255 -0.0057248 -0.00018988 -0.0024356
-0.0089355 0.0047189 0.032807 0.0047878 0.11252 0.30945 0.00044985 -0.0011335
0.00021271 -0.0020707 0.0015202 -0.00018027
0.0020998 0.0036557 0.002036 4.5721e-05 0.00044778 -0.0011455 -0.07737 0.26863
0.0074383 0.029596 -0.0094424 -0.007261
0.0039946 -0.0013285 0.0014163 -0.005755 0.0002114 -0.0020696 0.007494 0.029588
-0.1167 0.17423 0.004308 0.019443
-0.0033333 -0.0021977 -0.00019156 -0.0024325 0.0015323 -0.00016659 -0.00944 -0.007178
0.0043187 0.019379 -0.16137 0.24527
1040000000 -0.0087608 0.29841 0.033076 0.01812 -0.0011576 0.006883 0.0026243 0.00074414
0.00016393 -0.0038371 -0.00033093 -0.001394
0.033042 0.018099 -0.17304 0.35643 0.02922 -0.014716 0.0014951 -0.0016621
-0.0025642 -0.0023719 -0.0013195 -0.0024941
-0.0011213 0.0068787 0.029177 -0.014829 0.15844 0.29568 -0.00049117 -0.0014767
-0.0016689 -0.00076384 -0.00047203 -0.0011305
0.0026292 0.0007295 0.0014781 -0.0016536 -0.00049487 -0.0014803 -0.049998 0.2789
0.018724 0.017959 -0.0023226 0.0016476
0.00013521 -0.0038282 -0.0025548 -0.0023803 -0.001673 -0.00074939 0.01877 0.017962
-0.084629 0.18294 0.013108 0.01886
-0.00038557 -0.0013336 -0.0013768 -0.0024499 -0.00047616 -0.0010903 -0.0023316 0.0017087
0.013088 0.018894 -0.14045 0.26564
1100000000 0.036621 0.30613 0.035594 -0.0042375 0.0029556 0.0038307 0.0023788 -0.001322
-0.0020386 -0.0031949 -0.0040078 -5.695e-05
0.035565 -0.0042155 -0.12967 0.37348 0.01513 -0.027554 3.3871e-05 -0.0018012
-0.0032628 -0.00066115 -0.0034315 -0.0005581
0.0029709 0.0038293 0.015031 -0.027633 0.20459 0.27544 -0.0018153 0.00028046
-0.0017516 0.00052992 -0.0010397 -0.00035366
0.0023876 -0.0013427 1.98e-05 -0.0018005 -0.0018171 0.00027885 -0.0098354 0.28391
0.023868 0.0051456 -0.0025245 0.00014838
-0.0020743 -0.0031893 -0.003278 -0.00064567 -0.0017527 0.00053397 0.023897 0.0051153
-0.066991 0.19715 0.018838 0.0089419
-0.0040033 5.9814e-07 -0.0034124 -0.00050556 -0.0010354 -0.00034123 -0.0025367 0.00015483
0.01884 0.0089396 -0.09469 0.29668
1160000000 0.088013 0.30094 0.023837 -0.020561 0.0026753 -0.0005698 -0.00023532 -0.0024365
-0.0041501 -0.00078505 -0.0010027 0.0041678
0.023844 -0.020539 -0.0861 0.37748 -0.0035741 -0.028892 -0.0016932 -0.0016831
-0.0026279 0.0025072 -0.0012924 0.0019719
0.0026787 -0.00057675 -0.0037099 -0.028901 0.24751 0.24472 -0.00062999 0.0017203
-0.00055154 0.0018915 -0.00093937 0.0002338
-0.00023112 -0.0024347 -0.0017056 -0.0016798 -0.0006237 0.0017243 0.029378 0.28143
0.020334 -0.0098024 -0.0029028 0.0054254
-0.0041876 -0.00077432 -0.0026124 0.0025163 -0.00055681 0.0019021 0.020319 -0.0098397
-0.033478 0.20709 0.017954 0.001158
-0.0009498 0.0042142 -0.0013123 0.0019243 -0.00092993 0.00023533 -0.0028443 0.0054252
0.018053 0.0011858 -0.047764 0.29955
1220000000 0.13231 0.28964 0.010363 -0.029751 -0.0015613 -0.00084279 -3.3045e-05 -0.001007
-0.0026199 0.0024507 0.0013864 0.0020218
0.010385 -0.029717 -0.041937 0.38949 -0.016638 -0.020986 -0.0024735 0.00038124
0.0001252 0.0028949 -0.00072397 0.0018435
-0.0015579 -0.00084022 -0.01675 -0.020934 0.2867 0.20593 0.00083311 0.0015313
0.00059055 0.0011059 0.00029812 0.00064797
-3.0007e-05 -0.0010061 -0.0024828 0.00039798 0.00083901 0.0015293 0.069123 0.27332
0.010061 -0.016218 0.0023664 0.0016063
-0.0026222 0.0024712 0.0001468 0.0029009 0.00059443 0.0010991 0.010042 -0.016241
-0.011101 0.21671 0.014395 -0.01215
0.0013967 0.002008 -0.00073634 0.0018323 0.00030263 0.00066526 0.0023645 0.0015818
0.014407 -0.012098 -0.017062 0.31739
1280000000 0.18187 0.26738 -0.0077426 -0.028166 -0.0018113 0.0024439 -0.00097722 -0.0020196
-0.00078523 0.0030648 0.0024706 0.0011612
-0.0076984 -0.02814 0.0037573 0.38044 -0.023471 -0.0085751 -0.00099858 0.0014152
0.0016205 0.0016828 0.00056689 0.0020596
-0.0018013 0.002445 -0.023531 -0.008487 0.31741 0.16213 0.0015254 -9.0546e-05
0.001015 0.00027704 0.00048125 0.00036409
-0.00099394 -0.002017 -0.00099585 0.0014314 0.0015182 -8.7196e-05 0.10597 0.25731
0.001105 -0.018074 0.00020525 1.6773e-05
-0.00077981 0.0030586 0.0016376 0.0016639 0.0010245 0.00028165 0.00108 -0.01808
0.025543 0.22094 0.0035625 -0.014222
0.0024868 0.0011524 0.00057388 0.0020732 0.00046485 0.00038743 0.00018825 3.2015e-05
0.0035666 -0.014262 0.031595 0.32025
1340000000 0.21869 0.23349 -0.017314 -0.018843 0.00082579 0.0044255 -0.0017606 -0.00075944
0.0014771 0.0027058 0.0017172 -0.00142
-0.017279 -0.018844 0.042998 0.37238 -0.021441 0.0040056 -0.00015025 0.0019625
0.0018519 0.00073732 0.0012811 0.00078692
0.00085222 0.0044167 -0.021442 0.0041239 0.33955 0.11426 0.0010502 -0.00086935
0.00068028 -0.00049201 0.000195 0.00030041
-0.0017633 -0.00076013 -0.00013216 0.001961 0.0010532 -0.00086537 0.13862 0.23741
-0.0078096 -0.015432 0.0011277 0.00029028
0.0014872 0.0026997 0.0018696 0.00073323 0.00068024 -0.00048947 -0.0078507 -0.015424
0.055351 0.21712 -0.002789 -0.012942
0.0017403 -0.0014102 0.0012829 0.00077475 0.00022103 0.00030373 0.001121 0.00029771
-0.0027979 -0.01294 0.069648 0.31659
1400000000 0.25146 0.19528 -0.023032 -0.0075622 0.005061 0.0030502 -0.002036 0.0006685
0.0023989 0.00085505 0.0002966 -0.001348
-0.023003 -0.0075712 0.080252 0.35948 -0.014858 0.01214 0.0012839 0.0013451
0.0010689 -0.00076075 0.0012282 0.0002909
0.0050744 0.0030287 -0.014807 0.012237 0.35292 0.060539 0.00011963 -0.0015345
-4.3223e-05 -0.00035139 0.00047878 0.00018446
-0.0020304 0.00068074 0.0012876 0.0013397 0.00011819 -0.0015353 0.16853 0.20902
-0.013313 -0.0092067 -0.00074834 -0.00072754
0.0024058 0.00083419 0.0010575 -0.00077972 -4.9997e-05 -0.00036168 -0.013332 -0.0091779
0.088398 0.21356 -0.0090466 -0.0088044
0.0002825 -0.0013456 0.001239 0.00029124 0.00047525 0.00018578 -0.00075562 -0.00072408
-0.0091029 -0.0087748 0.1152 0.30621
1460000000 0.27389 0.15132 -0.020167 0.0044294 0.0054707 -0.0018074 -0.0015883 0.0017015
0.0020615 -0.00061599 -0.00036339 -0.00095541
-0.020164 0.0044098 0.11443 0.33786 -0.006338 0.015115 0.0017345 0.00021055
0.00086278 -0.0011975 0.0011769 -0.000551
0.0054693 -0.0018207 -0.006271 0.015172 0.35897 0.0059627 -0.0012089 -0.0011533
0.00015075 -0.00023724 0.00055551 -0.00032605
-0.0015709 0.00171 0.0017471 0.00018981 -0.0012132 -0.0011501 0.19527 0.18023
-0.014366 -0.0030142 -0.0010775 0.0017345
0.0020556 -0.00062868 0.0008608 -0.0012066 0.0001337 -0.00022291 -0.014377 -0.0029877
0.11781 0.19958 -0.011087 -0.0031773
-0.00035679 -0.00096008 0.0011676 -0.00054612 0.00054685 -0.00034515 -0.001058 0.001743
-0.011038 -0.0031654 0.14881 0.28583
1520000000 0.2859 0.10971 -0.014728 0.0099418 0.0032497 -0.0040528 9.3327e-05 0.0025754
0.0020041 -0.0017218 -0.0011154 -6.9346e-05
-0.014722 0.0099336 0.14814 0.32315 0.001305 0.013089 0.001632 -0.00075061
6.1627e-05 -0.00098361 0.00038168 -0.00099888
0.0032253 -0.004081 0.0013784 0.013093 0.35189 -0.050457 -0.001033 -0.0003312
0.00066849 -0.00076309 5.4078e-06 -0.00010704
0.00010923 0.0025752 0.0016314 -0.00075927 -0.0010317 -0.00033077 0.21915 0.14246
-0.013946 0.002129 0.0012202 0.0019468
0.0019962 -0.0017427 6.4383e-05 -0.00098087 0.00066619 -0.00077209 -0.013948 0.0021678
0.14595 0.18608 -0.011246 0.00095697
-0.0010942 -7.7873e-05 0.00037485 -0.0010053 -1.8893e-06 -9.5513e-05 0.0012001 0.0019535
-0.011249 0.0009607 0.1827 0.26616
1580000000 0.29508 0.063622 -0.0082891 0.013102 -0.00085832 -0.0047941 0.0013809 0.0018825
-0.00037264 -0.0020143 -0.00031692 0.00045287
-0.0082899 0.013092 0.17563 0.29833 0.0050077 0.0083974 0.0004942 -0.0015748
-0.00052511 -0.0010102 -0.00023104 -0.00078882
-0.00087784 -0.0047922 0.0050641 0.0083902 0.33142 -0.10804 -0.0015499 0.00057599
-0.0002327 -0.001127 0.00011438 -0.00041963
0.0013886 0.0018765 0.00048398 -0.0015724 -0.001542 0.0005794 0.23368 0.10308
-0.01086 0.0067858 0.0020992 0.00086016
-0.0003969 -0.0020112 -0.00052985 -0.0010152 -0.00022811 -0.0011253 -0.010841 0.0068172
0.17075 0.16872 -0.0091342 0.0067226
-0.00032707 0.00047331 -0.00023753 -0.00079315 0.00012594 -0.00043182 0.0020827 0.00086093
-0.0091428 0.0066845 0.21579 0.23935
1640000000 0.29713 0.022428 -0.0016733 0.012251 -0.0026567 -0.0026047 0.0026955 0.0010224
-0.00062161 -0.0014005 -0.00018896 0.00051734
-0.001684 0.012231 0.20526 0.27318 0.0058535 0.0036542 -0.00062415 -0.0017279
-0.00094914 -0.0004395 -0.00043127 -0.00074758
-0.0026754 -0.0025848 0.0058831 0.0036233 0.30311 -0.15704 -0.00064702 0.0013704
-0.00099678 -0.0010694 -8.9596e-05 -0.00045049
0.0026914 0.001003 -0.00064731 -0.0017156 -0.0006579 0.0013739 0.2466 0.053898
-0.0069786 0.008028 0.0023766 -0.00071073
-0.00063297 -0.0014017 -0.00095243 -0.00043307 -0.00098935 -0.0010619 -0.0069582 0.0080518
0.19369 0.14466 -0.0048389 0.0086989
-0.0002037 0.00051801 -0.00044567 -0.00074148 -7.0473e-05 -0.00044571 0.0023566 -0.00073855
-0.0048385 0.0086887 0.24157 0.20848
1700000000 0.28991 -0.022943 0.0017634 0.0096187 -0.0035177 0.00014446 0.0030451 -0.0011611
-0.0019279 -0.00066992 0.00061744 0.00037736
0.0017558 0.0096109 0.22343 0.24134 0.0039161 0.00071587 -0.0014641 -0.00058451
-0.00080827 9.643e-06 -0.00090744 -0.00046929
-0.0035248 0.00016454 0.0039209 0.00069069 0.25947 -0.19707 0.00039307 0.0016256
-0.0019089 -0.00030975 -0.00046143 -0.0008133
0.0030356 -0.001178 -0.0014606 -0.00056969 0.00039299 0.0016252 0.24378 0.003615
-0.004535 0.0087103 0.0014298 -0.0021493
-0.001927 -0.00064838 -0.00080675 1.6538e-05 -0.0018937 -0.00029872 -0.0045058 0.0087204
0.21139 0.12466 -0.00026549 0.0092095
0.00061477 0.00037466 -0.00089495 -0.00045644 -0.00042696 -0.00083022 0.0014372 -0.0021702
-0.00023549 0.0092036 0.25838 0.17386
1760000000 0.27753 -0.071623 0.0042342 0.0064573 -0.0022135 0.00096136 0.0013366 -0.0034225
-0.0012353 0.00063688 0.00038622 -0.00066291
0.0042261 0.0064499 0.24924 0.20118 0.0016649 -0.0010297 -0.0011738 0.00018095
-0.0010307 0.00087906 -0.00059294 0.00034386
-0.0022204 0.00097302 0.0016643 -0.0010481 0.21015 -0.23012 0.0011085 0.0011296
-0.0011587 0.0013387 -0.0012334 -0.00066075
0.0013154 -0.0034268 -0.0011762 0.00018437 0.0011086 0.0011312 0.23451 -0.048338
-0.0013707 0.0080538 -0.00030957 -0.0024044
-0.0012323 0.0006494 -0.0010236 0.00089221 -0.0011685 0.0013438 -0.0013525 0.0080648
0.22652 0.089676 0.0035308 0.0067886
0.00036457 -0.00067452 -0.00059507 0.00035701 -0.0012535 -0.00063775 -0.00030493 -0.0024203
0.0035416 0.0067516 0.27122 0.13618
1820000000 0.25269 -0.10893 0.0045754 0.0028843 1.8635e-05 0.0023813 -0.00094272 -0.003065
-0.0010887 0.00081683 -9.1097e-05 -6.1727e-05
0.0045728 0.0028925 0.25901 0.17089 -0.00014754 -1.5112e-05 -0.0013249 0.00089755
-7.3562e-05 0.0013342 -0.00060115 0.00053117
3.193e-05 0.0023737 -0.00015282 -1.0843e-05 0.16044 -0.24536 0.0014072 0.00047681
-0.000379 0.0023 -0.0014176 0.00031515
-0.00096413 -0.0030647 -0.0013185 0.00090446 0.0014009 0.00048138 0.20421 -0.095815
3.2259e-05 0.0065366 -0.0016756 -0.0013358
-0.0010837 0.00082167 -6.0692e-05 0.0013341 -0.00036353 0.002308 4.9454e-05 0.006537
0.24391 0.060613 0.004379 0.0034595
-6.5904e-05 -5.5035e-05 -0.00059403 0.00054266 -0.0014241 0.00032247 -0.001648 -0.001325
0.0043768 0.0034686 0.27394 0.10023
1880000000 0.21725 -0.14933 0.0025073 0.00049992 -0.00044911 0.0020582 -0.0030073 -0.002164
-0.00026782 0.0016155 0.00028555 -0.00050576
0.0025039 0.00050048 0.26307 0.12419 -0.0022696 0.0016246 -0.00022739 0.0016656
0.00060285 0.0012632 9.307e-05 0.00095775
-0.00043885 0.0020528 -0.0022683 0.0016472 0.10798 -0.2551 0.0018662 -0.00090498
0.0014422 0.002087 -0.0010275 0.0013275
-0.0030221 -0.0021518 -0.00021457 0.0016744 0.0018761 -0.00089679 0.16306 -0.13598
0.0006106 0.0046312 -0.002406 0.00058917
-0.00025921 0.0016277 0.00061443 0.0012656 0.001451 0.0020665 0.00061857 0.0046257
0.24697 0.027861 0.0044954 0.0014776
0.00028522 -0.00050233 9.9889e-05 0.0009728 -0.0010407 0.0013449 -0.0023783 0.00055578
0.0045331 0.0014908 0.27347 0.06597
1940000000 0.17758 -0.17487 0.00033196 -0.0012848 0.0012785 0.0019534 -0.0038336 0.00052872
0.0011839 0.0010219 -0.00066122 -0.00054469
0.00033414 -0.0012838 0.26322 0.092416 -0.0011492 0.0037997 0.00097351 0.0013365
0.001874 0.00045627 0.00083842 0.0002906
0.0013031 0.0019454 -0.001115 0.0038143 0.061905 -0.24831 0.0004461 -0.002179
0.002504 0.00049722 0.00023184 0.0015066
-0.003829 0.00054341 0.00099002 0.0013294 0.0004515 -0.0021863 0.11044 -0.16592
-0.00045082 0.0036047 -0.0013389 0.0016151
0.001194 0.0010199 0.001885 0.0004449 0.0024977 0.00051531 -0.00044857 0.0036258
0.24866 -0.011364 0.0035784 -0.0018321
-0.00064757 -0.00053827 0.00085335 0.00028981 0.00026174 0.0015447 -0.0013467 0.001628
0.0035545 -0.0018131 0.26269 0.030333
2000000000 0.13092 -0.18929 -0.0035324 0.00059709 0.0025368 0.0016831 -0.0022992 0.0035731
0.0011067 0.00027818 -0.00075401 0.00041096
-0.003537 0.00060581 0.24874 0.057068 -0.00094258 0.0057397 0.0016268 0.0004377
0.0013448 -0.0014267 0.00052313 0.00014028
0.0025377 0.0016751 -0.00091015 0.0057564 0.018548 -0.2335 -0.0012767 -0.0014752
0.0020933 -0.0011605 0.0016662 0.0013109
-0.0022799 0.0035859 0.0016277 0.00042654 -0.0012676 -0.001475 0.056929 -0.17535
-0.0021286 0.0037991 4.0464e-05 0.0022212
0.0011187 0.00027994 0.0013414 -0.0014386 0.002108 -0.0011936 -0.0021289 0.0038136
0.24225 -0.04545 0.00038502 -0.0025266
