!Keysight Technologies,M9804A,MY58100912,A.14.10.03
!Date: Thursday, April 27, 2023 10:28:33
!Correction: S11(C  6-Port  ) 
!S12(C  6-Port  ) 
!S13(C  6-Port  ) 
!S14(C  6-Port  ) 
!S15(C  6-Port  ) 
!S16(C  6-Port  ) 
!S21(C  6-Port  ) 
!S22(C  6-Port  ) 
!S23(C  6-Port  ) 
!S24(C  6-Port  ) 
!S25(C  6-Port  ) 
!S26(C  6-Port  ) 
!S31(C  6-Port  ) 
!S32(C  6-Port  ) 
!S33(C  6-Port  ) 
!S34(C  6-Port  ) 
!S35(C  6-Port  ) 
!S36(C  6-Port  ) 
!S41(C  6-Port  ) 
!S42(C  6-Port  ) 
!S43(C  6-Port  ) 
!S44(C  6-Port  ) 
!S45(C  6-Port  ) 
!S46(C  6-Port  ) 
!S51(C  6-Port  ) 
!S52(C  6-Port  ) 
!S53(C  6-Port  ) 
!S54(C  6-Port  ) 
!S55(C  6-Port  ) 
!S56(C  6-Port  ) 
!S61(C  6-Port  ) 
!S62(C  6-Port  ) 
!S63(C  6-Port  ) 
!S64(C  6-Port  ) 
!S65(C  6-Port  ) 
!S66(C  6-Port  ) 
!S6P File: Measurement: :
# Hz S  RI   R 50
500000000 -0.33691 -0.039622 -0.0096591 -0.002686 -0.0077693 0.0124 -0.0044109 0.012089
0.013106 0.0043118 -0.005073 0.0086939
-0.0096769 -0.0026479 -0.41886 -0.05213 0.0081562 -0.010872 0.0015046 0.012115
0.0076751 0.0022439 0.0012403 0.013204
-0.0077017 0.012502 0.0081741 -0.010918 -0.2653 0.20891 0.0079396 0.0034018
-0.001579 0.0079202 0.0018285 0.01209
-0.0043249 0.011937 0.0015096 0.012174 0.0078958 0.0034772 -0.33074 0.043769
-0.018417 -0.0061379 0.015728 0.027094
0.013123 0.0041867 0.0076562 0.002199 -0.0015924 0.0079025 -0.018447 -0.0061101
-0.22185 -0.19854 -0.025263 0.0047247
-0.0050263 0.0084901 0.0012442 0.013245 0.001796 0.012056 0.015702 0.027068
-0.025309 0.0046881 -0.26595 -0.13612
560000000 -0.31559 0.12214 -0.023538 -0.063956 0.0001606 0.012058 0.0054027 0.010642
0.010318 0.004658 0.011402 0.0078825
-0.023405 -0.063857 -0.37883 0.10741 -0.040475 -0.037753 0.013965 0.0039848
-0.012911 -0.0047658 0.0031474 -0.00014245
0.00015667 0.01197 -0.040657 -0.037727 -0.18348 0.25718 -0.00088513 -0.0044598
0.019205 0.0048863 0.0068275 -0.0064957
0.0056431 0.010636 0.013904 0.0038038 -0.00083397 -0.004508 -0.30532 0.13214
0.0044233 -0.023741 0.0046533 -0.021286
0.01028 0.0046819 -0.01284 -0.0047653 0.019187 0.0049117 0.0042881 -0.023864
-0.28836 -0.023004 0.0090966 -0.0494
0.01144 0.0077377 0.0030967 -0.00013562 0.0068475 -0.0064623 0.0046722 -0.021171
0.0090506 -0.049446 -0.3288 0.012636
620000000 -0.27499 0.10682 -0.023182 0.0080369 0.0030816 0.0085899 0.0080112 -0.0056567
0.011101 0.00020321 0.0017878 -0.0028089
-0.023132 0.0079766 -0.40235 0.059403 -0.018441 6.6298e-05 -0.0013607 -0.0019253
0.01127 -0.0068401 0.0015857 -0.0032852
0.0033342 0.0085243 -0.018466 9.9179e-05 -0.15357 0.26623 -0.0012097 -0.0049433
-0.0031983 -0.0031892 0.0082644 -0.0032844
0.0080814 -0.0055894 -0.0013695 -0.0019375 -0.0012132 -0.0049866 -0.26577 0.14337
-0.037165 -0.019574 0.012409 0.026307
0.0111 -6.5673e-05 0.011235 -0.006853 -0.003205 -0.0031512 -0.037089 -0.019546
-0.20672 -0.061865 -0.041745 0.014169
0.0016027 -0.002748 0.0015749 -0.0032832 0.0082433 -0.0033429 0.012559 0.026425
-0.04177 0.014195 -0.24928 -0.025487
680000000 -0.23488 0.19202 -0.027222 -0.01447 0.0049548 0.0050801 0.0011696 -0.0071287
-0.0032725 -0.011279 0.0050617 -0.0070993
-0.02716 -0.014518 -0.38765 0.15715 -0.032675 -0.0014211 -0.0016352 -0.00039402
-0.002378 -0.0088176 -0.0012374 -0.0018806
0.0049675 0.0050216 -0.032687 -0.0013381 -0.10231 0.28626 -0.00079318 -0.00015909
-0.0018133 0.00064331 -0.0027722 -0.0091528
0.0011162 -0.0071044 -0.0016329 -0.0004002 -0.00078354 -0.00016492 -0.22089 0.19351
-0.023293 -0.0080061 -0.010116 -0.011619
-0.0033179 -0.011298 -0.0024103 -0.0087796 -0.001815 0.00065971 -0.023321 -0.0079862
-0.25734 0.037113 -0.0050034 -0.0089192
0.0049992 -0.0071199 -0.0012533 -0.0018871 -0.0027802 -0.0091571 -0.010106 -0.011577
-0.0050004 -0.0088375 -0.26181 0.081727
740000000 -0.19064 0.18658 -0.038702 0.026705 0.01263 -0.005172 -0.00013809 -0.0041566
-0.0042765 -0.0028021 -0.0064158 0.0024714
-0.038718 0.026655 -0.33484 0.17629 -0.035458 0.034946 -0.00066396 -0.0061032
-0.011815 0.0083387 -0.0018955 -0.0063663
0.012665 -0.0052467 -0.035411 0.035085 -0.068326 0.28459 -0.0021257 0.0032433
-0.0023847 -0.0046756 -0.0016122 2.5471e-05
-0.00024511 -0.0041863 -0.0007298 -0.0060768 -0.0020959 0.0032603 -0.20404 0.20137
-0.04324 -0.0075556 0.023008 0.014992
-0.0041742 -0.0027729 -0.011883 0.0084025 -0.002424 -0.0046569 -0.04322 -0.0074838
-0.15862 0.062671 -0.044057 -9.3977e-05
-0.006436 0.002421 -0.0018965 -0.0064084 -0.0015683 6.75e-05 0.023025 0.015087
-0.044086 -4.8566e-05 -0.24928 0.088399
800000000 -0.15761 0.22732 -0.022558 0.016671 0.0052973 -0.010587 -0.0047331 -0.0020876
-0.0041001 0.0021795 0.0044908 0.00045315
-0.022554 0.016636 -0.33818 0.2463 -0.0078831 0.033851 -0.0023051 0.0022309
-0.00053283 0.0030222 0.0010747 0.005148
0.0052662 -0.010624 -0.0078115 0.033911 -0.02789 0.30776 0.0011481 0.0015288
0.00025255 0.003493 -0.0017416 0.00090026
-0.0047442 -0.0020765 -0.002312 0.0022418 0.001127 0.0015226 -0.17577 0.22912
-0.028513 0.013335 0.013496 -0.01035
-0.0041606 0.0022766 -0.00051302 0.0030629 0.00025365 0.0035112 -0.02851 0.013375
-0.20582 0.086714 -0.017883 0.018846
0.0045101 0.00044616 0.001095 0.0051144 -0.0017249 0.00090065 0.013507 -0.01034
-0.017867 0.018853 -0.24595 0.1381
860000000 -0.12303 0.24748 -0.017446 0.0306 -0.003355 -0.0099405 -0.0022837 0.00093448
0.0041568 0.0050112 -0.0031523 -0.0028072
-0.017451 0.030548 -0.29065 0.28814 0.0078424 0.033932 5.7084e-05 0.0019408
0.0043209 0.0001186 0.0034836 0.0007525
-0.0033659 -0.0099533 0.0079646 0.033943 0.020147 0.31556 -0.00054395 -0.00033057
0.0027966 -0.0015342 0.0013123 0.0045125
-0.0023202 0.00098023 9.2378e-05 0.001922 -0.00052167 -0.00032243 -0.13925 0.24032
-0.018127 0.018216 -0.0062616 -0.0092179
0.0042041 0.0050646 0.0043299 7.5663e-05 0.0027784 -0.001521 -0.018047 0.018188
-0.15553 0.13828 -0.026748 0.01514
-0.0031612 -0.0027886 0.0034827 0.0007295 0.0013444 0.0044899 -0.0062795 -0.0092196
-0.026701 0.015135 -0.19431 0.18572
920000000 -0.098557 0.27056 0.0049834 0.037831 -0.0094655 -0.0043461 -0.001891 0.001967
0.0011429 0.0018983 0.0027876 -0.0015105
0.0050293 0.037846 -0.26157 0.30948 0.027999 0.021873 0.0013759 0.0011036
0.0070191 -0.00060846 0.0039852 -0.0026601
-0.0094633 -0.0042839 0.028116 0.021808 0.066317 0.31617 0.0018325 -8.8357e-05
0.0011942 -0.00039671 0.00091685 -0.0010218
-0.0018749 0.0020149 0.00137 0.0010984 0.0018242 -7.2115e-05 -0.11558 0.25732
-0.011198 0.030256 0.0035848 -0.0063405
0.0011936 0.0018556 0.0069971 -0.00062998 0.0011729 -0.00038568 -0.011129 0.030269
-0.14652 0.14416 -0.0034017 0.027617
0.0027877 -0.0015927 0.0038962 -0.0026654 0.00089937 -0.0010231 0.0035485 -0.0063799
-0.0033951 0.027608 -0.2042 0.19902
980000000 -0.05104 0.29011 0.017379 0.029978 -0.0089461 0.0046896 0.0020991 0.0036454
0.004005 -0.0012788 -0.0032968 -0.0021916
0.01735 0.029981 -0.20876 0.34344 0.032788 0.0049071 0.0020262 5.7392e-05
0.0014621 -0.0057296 -0.00021116 -0.0024293
-0.0089415 0.0047037 0.03284 0.0047995 0.11247 0.30944 0.00044743 -0.0011371
0.00022935 -0.0020692 0.0015312 -0.00017271
0.0020935 0.0036445 0.0020509 4.0686e-05 0.00044827 -0.0011468 -0.077397 0.2686
0.0074013 0.029593 -0.0094068 -0.0072069
0.0040758 -0.0012892 0.0014432 -0.0057768 0.00022111 -0.0020622 0.007452 0.029577
-0.1157 0.17343 0.0042475 0.019476
-0.0032542 -0.0022116 -0.00022488 -0.0024558 0.001529 -0.00017498 -0.009384 -0.0072163
0.0042643 0.019474 -0.16169 0.24508
1040000000 -0.0088692 0.29836 0.033061 0.018155 -0.0011468 0.0068962 0.0026222 0.00071653
0.0001533 -0.0038436 -0.00030974 -0.00134
0.033037 0.018168 -0.17313 0.35636 0.029228 -0.014703 0.001484 -0.0016119
-0.0025234 -0.0024542 -0.0013285 -0.0024048
-0.0011252 0.0068996 0.029192 -0.01482 0.15837 0.29568 -0.00049384 -0.0014846
-0.0016541 -0.00077537 -0.00045163 -0.001097
0.002603 0.00072753 0.0014803 -0.0016202 -0.00048248 -0.001458 -0.049977 0.27884
0.018725 0.01795 -0.0023249 0.0016885
0.0001552 -0.0038574 -0.0025553 -0.002395 -0.00165 -0.00077012 0.018772 0.017918
-0.08361 0.18185 0.01316 0.018992
-0.00029793 -0.0013391 -0.0013389 -0.0024262 -0.00044121 -0.0010753 -0.0023368 0.0017099
0.013177 0.018963 -0.14071 0.26566
1100000000 0.036522 0.30605 0.035605 -0.004201 0.0029601 0.0038233 0.0023868 -0.0013249
-0.0020568 -0.0032245 -0.003975 -1.8081e-05
0.035594 -0.0041552 -0.12976 0.37345 0.015119 -0.027553 1.1112e-05 -0.0018117
-0.0033031 -0.00068971 -0.0033916 -0.00055741
0.0029559 0.0038068 0.015028 -0.027663 0.20453 0.27543 -0.0018151 0.00026013
-0.0017521 0.00052308 -0.0010039 -0.0003431
0.0023873 -0.0012896 2.4166e-05 -0.0018157 -0.0018166 0.00026254 -0.0098397 0.28386
0.023854 0.0051483 -0.0025181 0.00017497
-0.0020477 -0.0031818 -0.0032832 -0.00065693 -0.0017548 0.00051317 0.023892 0.0051217
-0.066087 0.19587 0.018937 0.0090436
-0.0039288 1.2981e-05 -0.003388 -0.00051823 -0.0010011 -0.00035754 -0.002538 0.00017896
0.01893 0.0090292 -0.09498 0.29667
1160000000 0.087835 0.30093 0.023875 -0.020555 0.0026814 -0.00058077 -0.00021037 -0.0024127
-0.0042173 -0.00080249 -0.00094296 0.0041818
0.023861 -0.020528 -0.086195 0.37741 -0.0035348 -0.028892 -0.0017011 -0.0016855
-0.0026151 0.0024795 -0.0013408 0.0019678
0.0026849 -0.00060338 -0.0036781 -0.028903 0.24745 0.24476 -0.00062194 0.0017227
-0.00055376 0.001894 -0.00093288 0.00021725
-0.0002329 -0.0024166 -0.0016997 -0.0016865 -0.00061821 0.001718 0.029337 0.28136
0.020306 -0.0098351 -0.0028761 0.0054135
-0.0042076 -0.00078934 -0.0025858 0.002512 -0.00056558 0.0019027 0.020311 -0.009861
-0.032825 0.20559 0.018194 0.0011825
-0.000929 0.0041332 -0.0013285 0.0019659 -0.00093464 0.00022606 -0.002896 0.0054184
0.018182 0.0011325 -0.048061 0.29966
1220000000 0.13215 0.2897 0.010409 -0.029773 -0.0015519 -0.00086923 -1.5905e-05 -0.00097266
-0.0026633 0.0024665 0.0013816 0.0019946
0.010404 -0.029738 -0.041997 0.38941 -0.016622 -0.020997 -0.0024939 0.00038733
0.00011708 0.0029076 -0.00075783 0.0018344
-0.0015741 -0.00087426 -0.01675 -0.020951 0.28665 0.20597 0.00083327 0.0015387
0.00059637 0.0011047 0.0002831 0.00065413
-2.145e-05 -0.00096627 -0.0024918 0.00039495 0.00083481 0.0015475 0.069052 0.27327
0.010025 -0.016233 0.0023676 0.0015995
-0.0026501 0.0024999 0.00013524 0.0029159 0.00057972 0.001108 0.010013 -0.016242
-0.01064 0.21503 0.014564 -0.01212
0.001408 0.0019781 -0.00073368 0.0018419 0.00027578 0.00066416 0.0023664 0.0015913
0.014524 -0.012171 -0.017338 0.31739
1280000000 0.18177 0.26754 -0.0077216 -0.028206 -0.0018282 0.0024159 -0.00096451 -0.0020375
-0.00079134 0.0030742 0.0024733 0.001168
-0.0076871 -0.028183 0.0036413 0.38038 -0.023449 -0.0085938 -0.00098677 0.0014172
0.0016317 0.0016948 0.00057382 0.0020743
-0.0018413 0.0024361 -0.023528 -0.0084868 0.31735 0.16218 0.0015181 -7.5868e-05
0.0010251 0.00026364 0.0004672 0.0003979
-0.00097798 -0.0020275 -0.00098079 0.001426 0.0015329 -8.2486e-05 0.10588 0.25728
0.0010337 -0.018077 0.00019659 3.4124e-05
-0.00079324 0.003073 0.0016346 0.0016766 0.0010194 0.00026621 0.0010112 -0.018077
0.025652 0.2192 0.0036552 -0.014339
0.0024888 0.001154 0.00059696 0.0020783 0.00046538 0.0003871 0.00019072 3.2801e-05
0.0036027 -0.014358 0.031429 0.32028
1340000000 0.21866 0.2337 -0.01729 -0.018873 0.00081516 0.0044185 -0.0017579 -0.00077565
0.0014665 0.0027237 0.001775 -0.0014106
-0.017267 -0.018875 0.042922 0.37235 -0.021426 0.0039831 -0.00014781 0.0019641
0.0018674 0.00073535 0.0012715 0.00077717
0.00084367 0.0044224 -0.021444 0.0041058 0.33955 0.11431 0.0010456 -0.0008823
0.00068285 -0.00048764 0.00021821 0.00027402
-0.0017666 -0.00079855 -0.00014668 0.001965 0.0010354 -0.00087714 0.13848 0.23739
-0.0078907 -0.015356 0.001131 0.00032044
0.0014732 0.0027381 0.0018639 0.00072832 0.00067884 -0.0004876 -0.007933 -0.015351
0.055272 0.21541 -0.0027886 -0.013065
0.001753 -0.0014179 0.0012758 0.00077385 0.00021223 0.00026691 0.0011314 0.00031863
-0.0028307 -0.013065 0.069589 0.31668
1400000000 0.25148 0.19544 -0.023054 -0.0075852 0.0050441 0.0030686 -0.0020386 0.00065422
0.0024215 0.00088146 0.00031511 -0.0013398
-0.023037 -0.0075979 0.080126 0.35945 -0.014858 0.012108 0.0012853 0.001332
0.0010642 -0.00077733 0.0012306 0.00030162
0.0050531 0.0030408 -0.014824 0.012205 0.35291 0.060595 0.0001112 -0.0015405
-5.3289e-05 -0.00036104 0.00046622 0.00016682
-0.0020295 0.00065569 0.0012904 0.0013326 0.00011732 -0.0015436 0.16839 0.20905
-0.013341 -0.0091227 -0.00073986 -0.00073209
0.0024191 0.00085106 0.001059 -0.00078251 -3.9971e-05 -0.0003637 -0.01336 -0.0090848
0.087983 0.21194 -0.0091208 -0.0088812
0.0003245 -0.0013252 0.0012377 0.00029381 0.00047018 0.00018524 -0.00074266 -0.00071047
-0.0091524 -0.008844 0.11511 0.30618
1460000000 0.27399 0.15137 -0.020215 0.0044091 0.0054534 -0.0017963 -0.0015948 0.0016855
0.0020831 -0.00062314 -0.00035927 -0.00095472
-0.020194 0.0043957 0.11434 0.33785 -0.00637 0.015111 0.0017329 0.00019628
0.00084317 -0.0012082 0.0012003 -0.00055883
0.0054628 -0.001805 -0.0063066 0.015155 0.35899 0.0059937 -0.0012218 -0.0011479
0.00015526 -0.00022183 0.00054078 -0.00034706
-0.0015788 0.0017015 0.0017305 0.00019023 -0.001217 -0.001156 0.19516 0.18033
-0.014357 -0.0029154 -0.0010377 0.0017589
0.002063 -0.00064009 0.00083482 -0.0012047 0.00014929 -0.00023003 -0.014375 -0.002884
0.11727 0.19821 -0.011108 -0.0032661
-0.0003463 -0.00094412 0.0011844 -0.0005497 0.00053573 -0.00034399 -0.0010228 0.0017728
-0.011118 -0.0032258 0.14873 0.2858
1520000000 0.28598 0.10968 -0.014749 0.009947 0.0032566 -0.0040502 9.3645e-05 0.0025851
0.0020305 -0.001748 -0.0011096 -0.00011012
-0.014741 0.0099269 0.14804 0.32317 0.0012775 0.013087 0.0016349 -0.00074563
5.8839e-05 -0.00098305 0.00037942 -0.00099606
0.0032382 -0.0040855 0.0013633 0.013099 0.35189 -0.050417 -0.0010281 -0.00032036
0.00065485 -0.00078236 -1.1869e-05 -9.7948e-05
9.4002e-05 0.0025824 0.0016265 -0.0007545 -0.0010334 -0.00031859 0.21907 0.14256
-0.013857 0.0022164 0.0012042 0.0019536
0.0020057 -0.0017595 3.771e-05 -0.00098219 0.00066179 -0.00077785 -0.013862 0.0022412
0.14537 0.18482 -0.01135 0.00095873
-0.0010924 -8.4692e-05 0.00037008 -0.00099855 -1.6268e-05 -8.7084e-05 0.0012251 0.0019744
-0.011338 0.0009936 0.18251 0.26612
1580000000 0.29509 0.063546 -0.0083049 0.013105 -0.00082313 -0.0047901 0.0013775 0.0018861
-0.00037788 -0.0020209 -0.00033138 0.00046112
-0.0083099 0.013095 0.17555 0.29837 0.005001 0.0084044 0.00049126 -0.0015706
-0.00051478 -0.00099102 -0.0002382 -0.00079413
-0.00083908 -0.0047822 0.0050497 0.0083891 0.33144 -0.10805 -0.0015448 0.0005759
-0.00022425 -0.0011175 0.00010695 -0.00043876
0.0013803 0.0018752 0.00049178 -0.0015701 -0.0015401 0.00057721 0.23367 0.1032
-0.01075 0.0067997 0.0020972 0.00085859
-0.00040428 -0.0020375 -0.00051841 -0.00099445 -0.00023839 -0.0011238 -0.010739 0.0068312
0.1702 0.16761 -0.0092595 0.0067225
-0.00032327 0.00045099 -0.00024117 -0.00078834 0.00012484 -0.00043954 0.0021324 0.00085166
-0.0092289 0.0067505 0.21567 0.23942
1640000000 0.29702 0.022359 -0.001704 0.012269 -0.0026649 -0.0025742 0.0026959 0.0010186
-0.00065015 -0.0014075 -0.00021117 0.0005235
-0.0017162 0.012272 0.20517 0.27324 0.0058567 0.0036741 -0.00063082 -0.0017278
-0.00093405 -0.00043407 -0.00044789 -0.00075081
-0.0026887 -0.0025539 0.0058877 0.003648 0.30315 -0.157 -0.0006294 0.0013794
-0.00097668 -0.0010501 -7.2241e-05 -0.00047186
0.0027013 0.0010056 -0.0006291 -0.0017267 -0.00063978 0.0013784 0.24665 0.054013
-0.0068758 0.0079899 0.0023506 -0.00072879
-0.00065094 -0.0014025 -0.00093907 -0.00043102 -0.00098589 -0.0010381 -0.0068614 0.0080177
0.19331 0.14358 -0.0049283 0.0087596
-0.00020483 0.00053845 -0.00044683 -0.00074408 -6.6135e-05 -0.00047202 0.0023767 -0.0007408
-0.0048963 0.0087716 0.24133 0.20852
1700000000 0.28973 -0.022908 0.0017438 0.0096486 -0.0035049 0.00016746 0.0030456 -0.0011688
-0.0019301 -0.00065044 0.0006041 0.00037442
0.0017452 0.0096316 0.22337 0.24142 0.0039172 0.00073235 -0.0014526 -0.00059233
-0.00079155 -1.2964e-06 -0.00090493 -0.00046963
-0.0034763 0.00016295 0.0039263 0.00071274 0.25946 -0.19708 0.00040251 0.0016197
-0.0018911 -0.00028939 -0.00043835 -0.00082723
0.0030268 -0.001181 -0.0014655 -0.00058697 0.00037738 0.0016076 0.24384 0.0036846
-0.0044595 0.0086069 0.0014497 -0.0021615
-0.0019386 -0.00065118 -0.00078667 1.0733e-05 -0.0018888 -0.00029116 -0.0044443 0.0086364
0.21103 0.12351 -0.00026858 0.0093139
0.00060766 0.00037493 -0.00090674 -0.00047048 -0.00044567 -0.00083673 0.0014557 -0.0021941
-0.00022543 0.0092987 0.2581 0.17402
1760000000 0.27739 -0.071466 0.0042301 0.0064864 -0.002182 0.00097261 0.0013411 -0.003404
-0.0012339 0.00066309 0.00037706 -0.00066406
0.0042328 0.0064804 0.24918 0.20126 0.0016838 -0.0010179 -0.0011748 0.00017456
-0.0010313 0.00084973 -0.00059855 0.00036443
-0.0021793 0.00097329 0.0016881 -0.0010288 0.21018 -0.23004 0.001104 0.0011111
-0.0011499 0.0013472 -0.0012429 -0.00062854
0.0013033 -0.0034204 -0.0011673 0.00018723 0.0011294 0.0011261 0.23462 -0.048343
-0.0013457 0.0079458 -0.0002921 -0.0024349
-0.0012126 0.00065806 -0.0010154 0.00085956 -0.0011408 0.0013478 -0.001326 0.0079555
0.22621 0.088366 0.0035562 0.0068816
0.00037234 -0.00066091 -0.00059257 0.00036107 -0.00122 -0.00065533 -0.00028547 -0.0024724
0.0035898 0.0068561 0.27104 0.13636
1820000000 0.25265 -0.10873 0.0045986 0.002905 2.2078e-05 0.0023454 -0.00094095 -0.0030521
-0.0010817 0.00081846 -6.1703e-05 -3.2278e-05
0.0045868 0.0028974 0.25899 0.17098 -0.00014816 -1.7532e-05 -0.001318 0.00091077
-9.8862e-05 0.0013261 -0.00059778 0.00054193
2.7404e-05 0.0023377 -0.00014168 -2.3231e-05 0.16044 -0.24542 0.0014084 0.00047162
-0.00037093 0.0022887 -0.0014155 0.00032602
-0.00096833 -0.003036 -0.0013147 0.00091758 0.0014083 0.00047828 0.20432 -0.095882
-4.7453e-06 0.0064339 -0.0016297 -0.0013641
-0.001081 0.00081501 -9.8331e-05 0.0013219 -0.00036922 0.0023017 1.1389e-05 0.0064347
0.24346 0.059012 0.0044735 0.0035836
-4.2443e-05 -5.2878e-05 -0.00059407 0.00055206 -0.0014248 0.00033797 -0.0016328 -0.0013947
0.0044711 0.003546 0.27379 0.10042
1880000000 0.21734 -0.14911 0.0025272 0.00051199 -0.00045211 0.0020405 -0.0029986 -0.0021638
-0.00027061 0.0015985 0.00028478 -0.00051795
0.0025212 0.00049874 0.26305 0.12428 -0.002245 0.0016248 -0.00021489 0.0016747
0.0005749 0.0012833 0.00010111 0.00096581
-0.00042187 0.0020164 -0.0022358 0.0016553 0.10799 -0.25506 0.001888 -0.00086358
0.0014163 0.0020903 -0.0010359 0.0013537
-0.0030274 -0.0021514 -0.00020414 0.0016838 0.0018926 -0.00085852 0.16307 -0.13604
0.0005465 0.0045444 -0.0023973 0.0005475
-0.00026118 0.0015864 0.00058962 0.0012802 0.0014072 0.0021011 0.00055384 0.0045426
0.2463 0.026062 0.004646 0.0015636
0.00027806 -0.00052227 0.00011385 0.00096262 -0.0010298 0.0013419 -0.0024283 0.00052915
0.0046479 0.0015099 0.27339 0.066204
1940000000 0.17774 -0.17471 0.00035708 -0.0012953 0.0012916 0.0019663 -0.0038231 0.00052792
0.0011657 0.0010384 -0.00064201 -0.00053151
0.00034875 -0.001288 0.26322 0.092514 -0.0011283 0.0037925 0.00097746 0.0013453
0.0018755 0.00049643 0.00084931 0.00028858
0.0012799 0.0019497 -0.0011109 0.0038209 0.061947 -0.2483 0.00045356 -0.0021751
0.0025337 0.00053183 0.00026955 0.001526
-0.003823 0.00053811 0.0009883 0.0013342 0.00046467 -0.0022028 0.11042 -0.16593
-0.00058527 0.0035711 -0.0013587 0.0016487
0.0011839 0.0010347 0.0018997 0.00049431 0.0025349 0.00053189 -0.00059433 0.00358
0.24763 -0.013296 0.0036863 -0.0017879
-0.00068052 -0.00053012 0.00085336 0.00027942 0.00023643 0.0015416 -0.001382 0.0016875
0.0036535 -0.001818 0.26278 0.03059
2000000000 0.13115 -0.18927 -0.0035134 0.00057445 0.0025007 0.001638 -0.0022976 0.0035816
0.0011096 0.00031187 -0.00071723 0.00038835
-0.0035075 0.00055926 0.24877 0.057161 -0.00094615 0.0057235 0.0016404 0.00044897
0.001373 -0.0013875 0.00053171 0.00014469
0.0024909 0.0016347 -0.00090878 0.0057278 0.018558 -0.23338 -0.0012775 -0.001469
0.0021315 -0.0011576 0.0016818 0.0012918
-0.0022629 0.0035836 0.0016447 0.00043415 -0.0012828 -0.0014648 0.056841 -0.17538
-0.0022778 0.0038166 8.4049e-06 0.0022288
0.0011058 0.00028537 0.0013605 -0.0014138 0.0021289 -0.0011658 -0.0022828 0.0038247
0.24071 -0.047384 0.00048742 -0.0025838
