!Keysight Technologies,M9804A,MY58100912,A.14.10.03
!Date: Thursday, April 27, 2023 10:28:33
!Correction: S11(C  6-Port  ) 
!S12(C  6-Port  ) 
!S13(C  6-Port  ) 
!S14(C  6-Port  ) 
!S15(C  6-Port  ) 
!S16(C  6-Port  ) 
!S21(C  6-Port  ) 
!S22(C  6-Port  ) 
!S23(C  6-Port  ) 
!S24(C  6-Port  ) 
!S25(C  6-Port  ) 
!S26(C  6-Port  ) 
!S31(C  6-Port  ) 
!S32(C  6-Port  ) 
!S33(C  6-Port  ) 
!S34(C  6-Port  ) 
!S35(C  6-Port  ) 
!S36(C  6-Port  ) 
!S41(C  6-Port  ) 
!S42(C  6-Port  ) 
!S43(C  6-Port  ) 
!S44(C  6-Port  ) 
!S45(C  6-Port  ) 
!S46(C  6-Port  ) 
!S51(C  6-Port  ) 
!S52(C  6-Port  ) 
!S53(C  6-Port  ) 
!S54(C  6-Port  ) 
!S55(C  6-Port  ) 
!S56(C  6-Port  ) 
!S61(C  6-Port  ) 
!S62(C  6-Port  ) 
!S63(C  6-Port  ) 
!S64(C  6-Port  ) 
!S65(C  6-Port  ) 
!S66(C  6-Port  ) 
!S6P File: Measurement: :
# Hz S  RI   R 50
500000000 -0.33647 -0.040106 -0.0097367 -0.0023155 -0.008111 0.012937 -0.004319 0.012022
0.01304 0.0048169 -0.0046039 0.008911
-0.0097192 -0.0023379 -0.41938 -0.052642 0.0077369 -0.010549 0.0014727 0.012266
0.0075672 0.0026758 0.0012011 0.013465
-0.0081106 0.012957 0.0077208 -0.010569 -0.26588 0.20891 0.0076808 0.0035143
-0.0020866 0.0080202 0.0015327 0.012037
-0.0042819 0.012056 0.0014976 0.012291 0.0076667 0.0035323 -0.33243 0.041872
-0.019282 -0.0067233 0.01533 0.026961
0.013026 0.0048021 0.0075612 0.0026656 -0.0020747 0.008026 -0.0193 -0.0067068
-0.2205 -0.20274 -0.02555 0.0050266
-0.0045556 0.0089455 0.0012549 0.01343 0.0015138 0.012025 0.015362 0.026947
-0.025548 0.005023 -0.26508 -0.13894
560000000 -0.31638 0.12162 -0.024279 -0.063838 0.00055704 0.012105 0.0054153 0.010903
0.01049 0.0054117 0.011364 0.0078344
-0.024226 -0.063765 -0.37842 0.1076 -0.041345 -0.037908 0.014025 0.0034429
-0.012745 -0.0053424 0.0035147 -0.00022569
0.00059626 0.012085 -0.041479 -0.037839 -0.1829 0.25743 -0.00070399 -0.0037764
0.020023 0.005461 0.0064912 -0.0058528
0.0054367 0.010919 0.014051 0.0034587 -0.00071311 -0.003768 -0.30787 0.1313
0.0033558 -0.023979 0.0044582 -0.021913
0.010517 0.005413 -0.012758 -0.0053056 0.020017 0.0054585 0.0033477 -0.023988
-0.28941 -0.027279 0.0084634 -0.048616
0.011413 0.0078252 0.0035318 -0.00032138 0.0065111 -0.0057836 0.0044372 -0.02194
0.0084751 -0.048628 -0.32956 0.010493
620000000 -0.27569 0.10619 -0.023355 0.0080892 0.0036163 0.0090373 0.0082989 -0.0051356
0.011383 -0.00024482 0.0023262 -0.0022297
-0.023347 0.0080915 -0.40285 0.058981 -0.018777 0.00035138 -0.0012027 -0.0019994
0.011544 -0.0061633 0.0017193 -0.0028897
0.0035899 0.0090502 -0.018795 0.00040255 -0.15406 0.26657 -0.0011873 -0.0050569
-0.0030138 -0.002516 0.0084859 -0.0030976
0.0083058 -0.0051392 -0.0011984 -0.0020051 -0.0011507 -0.0050503 -0.26757 0.14338
-0.038112 -0.019775 0.012223 0.026806
0.011351 -0.00025531 0.011536 -0.006194 -0.0030188 -0.0025158 -0.038118 -0.01976
-0.20769 -0.064371 -0.042077 0.015126
0.0023434 -0.0022565 0.0017241 -0.0028925 0.0084748 -0.0030906 0.01221 0.02682
-0.042039 0.015102 -0.2488 -0.02692
680000000 -0.23542 0.1921 -0.027306 -0.013952 0.0049828 0.0052321 0.0013451 -0.0071801
-0.0029519 -0.011259 0.0057218 -0.0070834
-0.027263 -0.013949 -0.38782 0.15726 -0.032733 -0.0012966 -0.0016221 -0.00058092
-0.0018891 -0.0091008 -0.00087799 -0.0017074
0.0050045 0.0052147 -0.032776 -0.0011991 -0.10233 0.28625 -0.0006363 -0.00026928
-0.001607 0.00043527 -0.0026763 -0.009136
0.0013371 -0.0071825 -0.0016281 -0.00058487 -0.0006343 -0.00028243 -0.22155 0.1941
-0.024166 -0.007117 -0.010236 -0.011104
-0.003022 -0.011261 -0.0019223 -0.0091131 -0.001607 0.00042171 -0.024181 -0.007084
-0.25992 0.035621 -0.0057174 -0.0082523
0.00571 -0.0070676 -0.00090344 -0.0016841 -0.0026977 -0.0091251 -0.010272 -0.011099
-0.0057113 -0.0082613 -0.26158 0.081087
740000000 -0.19069 0.18733 -0.038605 0.027045 0.013014 -0.0051699 -0.00029319 -0.0044356
-0.00393 -0.0027423 -0.0063131 0.0022484
-0.038582 0.026974 -0.33466 0.17602 -0.035509 0.035539 -0.00074043 -0.0064278
-0.012181 0.0077673 -0.001903 -0.0065798
0.013001 -0.0052009 -0.035448 0.035687 -0.068661 0.28424 -0.0020124 0.0031831
-0.0020954 -0.0048306 -0.0016145 6.6776e-05
-0.00028981 -0.0044183 -0.00074698 -0.0064277 -0.002007 0.0031696 -0.20514 0.20193
-0.044058 -0.0066527 0.023392 0.015358
-0.0039372 -0.0026462 -0.01213 0.0077951 -0.0020913 -0.0047853 -0.044095 -0.0066117
-0.15867 0.063398 -0.044125 0.00099151
-0.0063595 0.002213 -0.0019191 -0.0065854 -0.0016245 3.9108e-05 0.023439 0.01533
-0.044112 0.00095971 -0.24972 0.086425
800000000 -0.1575 0.22736 -0.022109 0.016815 0.0055425 -0.010766 -0.0046801 -0.002135
-0.0040226 0.0020312 0.004767 0.00042506
-0.0221 0.016769 -0.33804 0.24597 -0.0076997 0.034029 -0.0023847 0.0021853
-0.00069255 0.0028903 0.0010468 0.0052432
0.0055305 -0.010781 -0.0076092 0.034079 -0.028072 0.30743 0.00093233 0.0015281
0.00023398 0.0035364 -0.0015216 0.00080644
-0.0046893 -0.0021338 -0.0023726 0.0021972 0.00093465 0.0015358 -0.17606 0.22999
-0.028764 0.014555 0.014144 -0.010476
-0.0040474 0.0020232 -0.0006763 0.0028903 0.00024122 0.0035473 -0.02877 0.014609
-0.20689 0.086778 -0.017483 0.019604
0.0047554 0.00038514 0.0010872 0.0052552 -0.0015222 0.00080927 0.014144 -0.010493
-0.017496 0.019607 -0.24611 0.13666
860000000 -0.12304 0.24733 -0.017219 0.030501 -0.0032186 -0.010191 -0.0023014 0.00083148
0.0039287 0.0047672 -0.003345 -0.002921
-0.017215 0.030447 -0.29075 0.28784 0.0079198 0.034265 -0.00013397 0.0018234
0.0041381 6.6161e-05 0.0034377 0.00075218
-0.0032461 -0.010181 0.0080346 0.034272 0.01966 0.31544 -0.00061025 -0.00027992
0.0027501 -0.0015489 0.0015809 0.004372
-0.0022987 0.00082331 -0.00012318 0.001823 -0.00060548 -0.00027188 -0.13956 0.24056
-0.017912 0.018985 -0.0060258 -0.0093016
0.0039304 0.0047468 0.0041438 6.2152e-05 0.002748 -0.0015561 -0.017892 0.019025
-0.15505 0.13879 -0.026312 0.015823
-0.0033454 -0.0029247 0.0034239 0.00072249 0.0015722 0.0043765 -0.0060297 -0.0092987
-0.026305 0.015806 -0.19465 0.18367
920000000 -0.098523 0.2703 0.0053154 0.037767 -0.0095533 -0.0045553 -0.0017861 0.0017931
0.00089794 0.0019002 0.0027252 -0.0016811
0.0052709 0.037696 -0.26187 0.30927 0.028193 0.021962 0.001476 0.0011677
0.0070773 -0.00037252 0.0040975 -0.0027241
-0.0095698 -0.0045278 0.028301 0.021894 0.06588 0.31634 0.0018843 -4.1014e-05
0.0011438 -0.00034085 0.00088045 -0.0011287
-0.0017964 0.0017711 0.0014977 0.0011648 0.0018908 -3.4393e-05 -0.11566 0.25799
-0.010726 0.0316 0.0041782 -0.0068824
0.00092889 0.0018968 0.0070818 -0.00039375 0.0011417 -0.00034924 -0.010653 0.03164
-0.14527 0.14492 -0.0026827 0.027688
0.002725 -0.0016695 0.0040552 -0.0027529 0.00088115 -0.0011403 0.0041781 -0.0068897
-0.0027142 0.027682 -0.20456 0.19769
980000000 -0.051198 0.28957 0.01754 0.029911 -0.009206 0.0045939 0.0020344 0.0033924
0.0038463 -0.0013079 -0.0033692 -0.0021182
0.017497 0.029885 -0.20923 0.343 0.033201 0.0048068 0.0020794 -9.8547e-05
0.0014872 -0.0058366 -0.00032094 -0.0025262
-0.0091929 0.0046344 0.033255 0.0046742 0.1122 0.30982 0.00051571 -0.0011683
0.00024078 -0.0020965 0.0013674 -0.00021518
0.0020389 0.0033674 0.002082 -8.5855e-05 0.00050911 -0.0011738 -0.077018 0.26908
0.0085883 0.030918 -0.009073 -0.0075146
0.0038591 -0.0013229 0.0014517 -0.0058495 0.00023374 -0.0020907 0.0086556 0.030914
-0.11378 0.17448 0.0051422 0.019845
-0.0033568 -0.0020968 -0.0003363 -0.0025473 0.001372 -0.00021906 -0.0090786 -0.0075166
0.0051209 0.019832 -0.16263 0.24381
1040000000 -0.0093833 0.29808 0.033122 0.018079 -0.0013976 0.0069612 0.0024085 0.00063796
0.00018683 -0.0037094 -0.00036178 -0.001487
0.033062 0.018063 -0.17376 0.35618 0.029485 -0.015002 0.0014309 -0.0017999
-0.0024266 -0.0027243 -0.0013041 -0.0026192
-0.0013629 0.0069789 0.029442 -0.015151 0.15832 0.29627 -0.00053374 -0.0015879
-0.001592 -0.00090171 -0.00044891 -0.0010906
0.0023897 0.00062714 0.0014571 -0.0017936 -0.00053029 -0.0015837 -0.04981 0.27953
0.02043 0.018645 -0.0021751 0.0010783
0.00018048 -0.0037015 -0.002458 -0.0026949 -0.0015918 -0.00090699 0.020486 0.018616
-0.081507 0.18132 0.013629 0.019005
-0.00034812 -0.001485 -0.0013438 -0.0026401 -0.00045699 -0.0010951 -0.0021699 0.0010733
0.013625 0.019016 -0.14194 0.2644
1100000000 0.036017 0.30584 0.035804 -0.0043952 0.0028147 0.0039356 0.0022863 -0.0012492
-0.0019082 -0.0032091 -0.0039685 5.4998e-05
0.035766 -0.0043708 -0.13043 0.3735 0.01509 -0.028072 -7.8601e-05 -0.0018066
-0.0034002 -0.00088642 -0.0035698 -0.00044991
0.0028285 0.0039299 0.014985 -0.028169 0.20499 0.27583 -0.0019239 0.00025792
-0.0018335 0.00051879 -0.0011336 -0.0003239
0.0022604 -0.0012553 -7.9223e-05 -0.0017987 -0.0019257 0.00025984 -0.009209 0.28444
0.026022 0.0049422 -0.0026917 -0.00019872
-0.0019107 -0.003187 -0.003412 -0.00086037 -0.0018364 0.00052992 0.026037 0.0048982
-0.063681 0.19499 0.019505 0.0088488
-0.0039631 9.7458e-05 -0.0035742 -0.00044752 -0.0011307 -0.00031929 -0.0026886 -0.00020866
0.019486 0.0088499 -0.096296 0.29588
1160000000 0.087231 0.30087 0.023848 -0.020992 0.0026185 -0.00046573 -0.00031268 -0.0022307
-0.0041483 -0.00081926 -0.0010162 0.0041175
0.023836 -0.020964 -0.08678 0.37795 -0.0039539 -0.029274 -0.0017547 -0.0016993
-0.0027877 0.0024649 -0.0013902 0.001895
0.0026166 -0.00047917 -0.0041016 -0.029304 0.24817 0.24475 -0.00070154 0.0017819
-0.00067537 0.0020423 -0.00089798 0.00033163
-0.00031712 -0.0022318 -0.0017526 -0.0016865 -0.00069783 0.0017883 0.030156 0.28179
0.022207 -0.011341 -0.0031834 0.004928
-0.0041381 -0.00079073 -0.0027972 0.0025005 -0.00067741 0.0020395 0.022205 -0.011368
-0.030366 0.2039 0.018879 0.00068874
-0.00097867 0.0041298 -0.0013838 0.0019089 -0.00090243 0.00032595 -0.0031799 0.0049385
0.018886 0.00069451 -0.049194 0.29925
1220000000 0.13158 0.2899 0.010108 -0.03018 -0.0015888 -0.00075566 5.6351e-05 -0.00085594
-0.0027046 0.0023955 0.001356 0.0020835
0.010117 -0.030156 -0.042182 0.39006 -0.017151 -0.021135 -0.0025318 0.00046427
-2.5863e-05 0.0031273 -0.00074311 0.0019422
-0.0015947 -0.00075211 -0.017276 -0.021086 0.28726 0.20538 0.00083414 0.0017181
0.00061695 0.0012249 0.00038193 0.00070694
7.2398e-05 -0.00084594 -0.0025253 0.00047521 0.00083893 0.0017143 0.070305 0.27333
0.010957 -0.018432 0.0018209 0.0013978
-0.0026832 0.0024061 -1.4973e-05 0.0031345 0.00061328 0.0012141 0.010926 -0.018427
-0.0086347 0.21301 0.01467 -0.013093
0.0013651 0.0020755 -0.00073242 0.0019398 0.00038779 0.00071112 0.0018157 0.0013954
0.014676 -0.013082 -0.018657 0.31708
1280000000 0.18133 0.26788 -0.0082983 -0.028459 -0.0018322 0.0025557 -0.00082451 -0.0019956
-0.00090813 0.0030304 0.002525 0.0011577
-0.0082762 -0.028444 0.0039403 0.381 -0.023967 -0.0083525 -0.00094951 0.0014912
0.0017215 0.0018699 0.00072932 0.0020947
-0.0018277 0.0025668 -0.024038 -0.008247 0.31732 0.16131 0.0016824 8.3622e-06
0.0012449 0.00032916 0.00048994 0.000335
-0.00082147 -0.0019755 -0.00095451 0.0014852 0.0016792 8.7421e-06 0.10727 0.25661
0.00089456 -0.020584 -0.00040548 0.00016086
-0.00087783 0.0030336 0.0017351 0.0018553 0.001247 0.00032895 0.00086696 -0.020579
0.027846 0.21673 0.0033959 -0.015443
0.0025366 0.0011559 0.00074768 0.0021064 0.00048855 0.00033956 -0.00041299 0.00016205
0.0033991 -0.015435 0.029799 0.32031
1340000000 0.21842 0.23408 -0.017902 -0.018691 0.0010306 0.0045366 -0.0017077 -0.00085354
0.0014819 0.002818 0.0018882 -0.0014097
-0.017873 -0.018691 0.04349 0.37251 -0.021646 0.0045033 -0.00012539 0.0020101
0.0020054 0.00082202 0.0014724 0.0007657
0.0010443 0.0045355 -0.021642 0.0046175 0.33893 0.11338 0.0012138 -0.00097464
0.00078082 -0.00047682 0.00023164 0.00035528
-0.0017194 -0.00085262 -0.00011159 0.0020056 0.0012215 -0.00098733 0.1396 0.23607
-0.0092604 -0.01751 0.00059697 0.00071576
0.0014893 0.0028009 0.0020158 0.00080995 0.00077887 -0.00047689 -0.0092851 -0.017491
0.057081 0.21247 -0.0035645 -0.013994
0.0018835 -0.0014127 0.0014711 0.00075435 0.00022761 0.00035524 0.00058899 0.00072432
-0.0035585 -0.013997 0.068116 0.31676
1400000000 0.25145 0.19572 -0.02351 -0.007063 0.0052259 0.0030823 -0.002089 0.00059849
0.0024253 0.00099005 0.0003608 -0.0013855
-0.023484 -0.0070767 0.08074 0.35919 -0.014782 0.012607 0.0013466 0.0013042
0.0012307 -0.00083786 0.0012561 0.00019512
0.0052408 0.0030541 -0.014736 0.012703 0.3519 0.060206 0.00013722 -0.0017459
-3.7837e-05 -0.00043133 0.00043723 0.00022216
-0.0020933 0.00060016 0.0013578 0.0013073 0.00013244 -0.0017523 0.16888 0.20711
-0.015495 -0.010368 -0.00090147 -0.00014497
0.002424 0.00098234 0.0012276 -0.00085084 -3.3907e-05 -0.00043165 -0.01551 -0.010341
0.089718 0.20841 -0.010285 -0.0092872
0.00036275 -0.001382 0.0012566 0.00018002 0.0004359 0.00022833 -0.00090512 -0.00013775
-0.010265 -0.0092923 0.11386 0.3064
1460000000 0.27392 0.1515 -0.020273 0.0051239 0.0056642 -0.0018943 -0.0015916 0.001709
0.0021796 -0.0005034 -0.00032545 -0.0010033
-0.020261 0.0051122 0.11471 0.33713 -0.0058983 0.015433 0.0017512 0.00016839
0.0008856 -0.0013741 0.0011826 -0.00064589
0.0056655 -0.0019276 -0.0058135 0.015497 0.35777 0.0062042 -0.0013854 -0.001308
0.00015911 -0.00033276 0.00061496 -0.00033795
-0.0015832 0.0017132 0.0017642 0.00015808 -0.0013911 -0.0013107 0.19463 0.17793
-0.016854 -0.0029191 -0.00084838 0.002331
0.0021858 -0.00051329 0.00088216 -0.0013856 0.00016014 -0.00033695 -0.016854 -0.0028972
0.11817 0.19413 -0.012341 -0.0029225
-0.00032335 -0.0010024 0.0011714 -0.00067325 0.00061226 -0.00033359 -0.00083712 0.0023419
-0.012322 -0.0029246 0.14734 0.28609
1520000000 0.28585 0.10965 -0.014446 0.010532 0.0033519 -0.0043048 0.00010936 0.0026334
0.002183 -0.0017611 -0.0011462 -0.00013291
-0.014436 0.010525 0.148 0.32233 0.0017282 0.013074 0.0016701 -0.00079201
-2.003e-05 -0.0010575 0.00035099 -0.0010155
0.003332 -0.0043229 0.0018145 0.013079 0.35129 -0.049784 -0.0012177 -0.00033498
0.00063136 -0.00084134 7.9477e-05 -0.00012159
0.00011653 0.0026514 0.0016688 -0.00079786 -0.001213 -0.0003304 0.21741 0.14047
-0.015897 0.0032999 0.0016693 0.0023426
0.0021688 -0.0017839 -2.4296e-05 -0.0010611 0.00063648 -0.00084975 -0.015905 0.0033301
0.14555 0.18058 -0.012191 0.0017589
-0.001144 -0.00012144 0.00033818 -0.0010217 7.3813e-05 -0.00012451 0.0016833 0.0023418
-0.012199 0.0017503 0.18125 0.26661
1580000000 0.29483 0.06351 -0.0077102 0.01349 -0.00096438 -0.0049991 0.0014428 0.0019207
-0.00020972 -0.0021579 -0.00032257 0.00044308
-0.0077094 0.013473 0.17498 0.29752 0.005274 0.0081442 0.00046935 -0.0016165
-0.00064632 -0.0010299 -0.00030447 -0.00077881
-0.00097898 -0.0049945 0.0053327 0.0081229 0.33112 -0.10714 -0.0016128 0.00072456
-0.00030312 -0.0011492 9.8076e-05 -0.00051415
0.0014609 0.0019257 0.00046123 -0.0016272 -0.0016171 0.00072878 0.23096 0.10185
-0.011912 0.0084758 0.0025896 0.00095782
-0.00022339 -0.0021607 -0.00065228 -0.0010303 -0.00030996 -0.0011518 -0.011918 0.0085148
0.16961 0.16312 -0.0095621 0.0078598
-0.00032548 0.00044818 -0.00031339 -0.0007815 9.7741e-05 -0.00052266 0.0026058 0.00094646
-0.0095601 0.007855 0.21445 0.24007
1640000000 0.29654 0.022426 -0.00098218 0.012186 -0.0027962 -0.0026265 0.0027988 0.00094938
-0.00064889 -0.0016529 -0.00021291 0.00057376
-0.00098833 0.012169 0.20427 0.27269 0.0059859 0.0033668 -0.00069297 -0.001754
-0.0010401 -0.0003394 -0.00045308 -0.00070786
-0.002813 -0.0026119 0.0060069 0.0033357 0.30324 -0.15645 -0.00057002 0.0015499
-0.0011732 -0.0010732 -0.00012426 -0.00049204
0.0028107 0.00094435 -0.00070711 -0.0017564 -0.0005624 0.0015467 0.24317 0.054095
-0.0071992 0.009731 0.0027883 -0.00081292
-0.00065919 -0.0016463 -0.0010424 -0.00033111 -0.0011753 -0.0010774 -0.0071932 0.009762
0.19161 0.13941 -0.0046357 0.0098907
-0.00020741 0.00057265 -0.00045203 -0.00069537 -0.00012049 -0.00048929 0.0027859 -0.0008283
-0.0046411 0.0098871 0.24028 0.20941
1700000000 0.2891 -0.022615 0.0022894 0.0091669 -0.0035502 7.5953e-05 0.0030628 -0.0012971
-0.0021415 -0.00081979 0.00066775 0.00039395
0.0022832 0.0091478 0.22225 0.24131 0.0039025 0.00058021 -0.0015171 -0.00055093
-0.00074833 6.6406e-05 -0.0008838 -0.00045386
-0.0035465 8.306e-05 0.0039109 0.00054967 0.25967 -0.19609 0.00055769 0.001697
-0.0020068 -0.00014745 -0.00046415 -0.00087107
0.0030585 -0.0013271 -0.0015273 -0.00054675 0.00054015 0.0016981 0.24064 0.0055671
-0.004151 0.010208 0.0017024 -0.0024463
-0.0021364 -0.00080108 -0.00074447 8.1358e-05 -0.0020041 -0.00014253 -0.0041304 0.01023
0.20856 0.11974 0.00032233 0.010047
0.00067761 0.0003919 -0.00089436 -0.00045088 -0.00046913 -0.00088008 0.0017045 -0.0024542
0.00032894 0.010044 0.25753 0.17501
1760000000 0.27684 -0.070822 0.0043626 0.0058493 -0.0023752 0.0010103 0.001234 -0.0035041
-0.0014411 0.00070723 0.00036518 -0.0006735
0.0043431 0.0058353 0.24809 0.20162 0.001592 -0.0012039 -0.0012166 0.00021651
-0.00093654 0.00086975 -0.000583 0.00039846
-0.0023676 0.001024 0.0015789 -0.0012175 0.21083 -0.2294 0.0013178 0.00096501
-0.0011263 0.0015543 -0.0013512 -0.00050857
0.0012116 -0.0035042 -0.0012092 0.00022474 0.0013033 0.00095214 0.23254 -0.044889
-0.00070047 0.0092424 -0.00014855 -0.0027943
-0.0014387 0.00072468 -0.00093772 0.00087559 -0.0011168 0.0015464 -0.00067919 0.009252
0.22297 0.085443 0.0044504 0.0073237
0.0003579 -0.00068836 -0.00058245 0.00040641 -0.0013523 -0.00049848 -0.00015655 -0.0027924
0.0044484 0.007316 0.27057 0.1373
1820000000 0.25237 -0.10781 0.0043675 0.002378 -0.00010474 0.0024646 -0.0011082 -0.0030155
-0.0011954 0.0010595 -5.2605e-05 -0.00010784
0.0043543 0.0023861 0.25811 0.17176 -0.00034094 -0.00011861 -0.0012891 0.0009923
-1.0758e-05 0.0012368 -0.00052995 0.00051262
-9.181e-05 0.002464 -0.00034241 -0.0001151 0.16112 -0.24546 0.0014476 0.00030045
-0.00014081 0.0023917 -0.0013639 0.00033172
-0.0011205 -0.0030203 -0.0012819 0.00099718 0.0014498 0.00030743 0.20426 -0.09173
0.00096693 0.0074745 -0.001618 -0.0018037
-0.0011845 0.0010822 -1.2468e-06 0.0012351 -0.00014037 0.0023924 0.00098825 0.0074801
0.23996 0.057281 0.0053997 0.0035633
-6.036e-05 -0.00010497 -0.00052983 0.00051879 -0.0013799 0.00033254 -0.0016158 -0.0018008
0.005406 0.0035601 0.27349 0.10138
1880000000 0.21744 -0.14809 0.0021306 0.00021653 -0.00036641 0.002095 -0.0030044 -0.002105
-0.00014563 0.0017584 0.0002514 -0.00043955
0.0021241 0.00021541 0.26255 0.12527 -0.0024062 0.0015849 -0.00015006 0.001671
0.00052931 0.0011055 6.1254e-05 0.00093253
-0.00035061 0.0021105 -0.0023947 0.0015936 0.10861 -0.25543 0.0016603 -0.00093574
0.001572 0.0019472 -0.0010257 0.0013895
-0.00302 -0.0020842 -0.00013806 0.0016616 0.0016685 -0.00092558 0.16517 -0.13247
0.0018601 0.0053293 -0.0026221 0.0001849
-0.00013544 0.0017731 0.0005333 0.0011118 0.0015723 0.0019338 0.0018744 0.005329
0.24297 0.025516 0.0054982 0.0011635
0.00023887 -0.00044658 6.8176e-05 0.00092896 -0.001019 0.0013814 -0.0026199 0.00019537
0.0055 0.0011617 0.2734 0.06702
1940000000 0.17817 -0.17388 -5.5331e-05 -0.0013269 0.0013942 0.0020499 -0.0037282 0.00059184
0.0013635 0.00099637 -0.00061097 -0.00045535
-6.0852e-05 -0.0013266 0.26317 0.093589 -0.0012464 0.0038699 0.001051 0.0013028
0.001719 0.00047589 0.0007906 0.00033079
0.0014143 0.0020406 -0.0012259 0.0038737 0.062246 -0.24864 0.0004374 -0.0020402
0.0024186 0.00040078 0.00029349 0.0015865
-0.003728 0.00061191 0.001058 0.0012829 0.00044209 -0.0020492 0.11384 -0.16412
0.0012109 0.0038071 -0.0016394 0.0013995
0.0013819 0.00098179 0.0017235 0.00046082 0.0024116 0.00037275 0.0012088 0.0037962
0.24526 -0.012638 0.0042536 -0.0024897
-0.00061669 -0.00044495 0.00079521 0.00032111 0.00030274 0.0015741 -0.0016415 0.0014009
0.004248 -0.0024875 0.26266 0.031333
2000000000 0.13196 -0.18861 -0.0038397 0.00069665 0.0024987 0.0016565 -0.0023407 0.0034447
0.0011532 -1.587e-05 -0.00071358 0.0003767
-0.0038321 0.00070503 0.24915 0.058122 -0.0010683 0.0057566 0.001603 0.00034053
0.0012709 -0.0012275 0.00046531 0.00021161
0.0025127 0.0016347 -0.0010281 0.0057735 0.018678 -0.2337 -0.001245 -0.0012733
0.0019058 -0.0012057 0.00166 0.001297
-0.0023234 0.0034699 0.0015949 0.00033208 -0.0012413 -0.0012688 0.060334 -0.17544
-0.00048581 0.0031718 -0.00022336 0.002302
0.0011447 -1.3191e-05 0.0012627 -0.0012477 0.0018938 -0.0012124 -0.00047474 0.0031812
0.23968 -0.046372 0.00062341 -0.0033067
