!Keysight Technologies,M9804A,MY58100912,A.14.10.03
!Date: Thursday, April 27, 2023 10:28:33
!Correction: S11(C  6-Port  ) 
!S12(C  6-Port  ) 
!S13(C  6-Port  ) 
!S14(C  6-Port  ) 
!S15(C  6-Port  ) 
!S16(C  6-Port  ) 
!S21(C  6-Port  ) 
!S22(C  6-Port  ) 
!S23(C  6-Port  ) 
!S24(C  6-Port  ) 
!S25(C  6-Port  ) 
!S26(C  6-Port  ) 
!S31(C  6-Port  ) 
!S32(C  6-Port  ) 
!S33(C  6-Port  ) 
!S34(C  6-Port  ) 
!S35(C  6-Port  ) 
!S36(C  6-Port  ) 
!S41(C  6-Port  ) 
!S42(C  6-Port  ) 
!S43(C  6-Port  ) 
!S44(C  6-Port  ) 
!S45(C  6-Port  ) 
!S46(C  6-Port  ) 
!S51(C  6-Port  ) 
!S52(C  6-Port  ) 
!S53(C  6-Port  ) 
!S54(C  6-Port  ) 
!S55(C  6-Port  ) 
!S56(C  6-Port  ) 
!S61(C  6-Port  ) 
!S62(C  6-Port  ) 
!S63(C  6-Port  ) 
!S64(C  6-Port  ) 
!S65(C  6-Port  ) 
!S66(C  6-Port  ) 
!S6P File: Measurement: :
# Hz S  RI   R 50
500000000 -0.33687 -0.039585 -0.0096459 -0.0026798 -0.0077713 0.012416 -0.0043204 0.012071
0.013104 0.0042644 -0.0050136 0.0084947
-0.0096685 -0.0026882 -0.41893 -0.052075 0.0081596 -0.01085 0.0014702 0.012167
0.0077221 0.0022486 0.0012683 0.013305
-0.0077733 0.012413 0.0081456 -0.010884 -0.26531 0.20892 0.0078983 0.00347
-0.0016571 0.0079483 0.0018976 0.012081
-0.004316 0.012044 0.0014896 0.012174 0.0079244 0.0034791 -0.33071 0.043812
-0.018302 -0.0061048 0.015796 0.027258
0.013108 0.0043891 0.0077005 0.0022178 -0.0016166 0.0079277 -0.018373 -0.006108
-0.22181 -0.19839 -0.02522 0.004703
-0.0050332 0.0086959 0.0012426 0.01322 0.0018352 0.012074 0.015692 0.027095
-0.02517 0.0047358 -0.26591 -0.13583
560000000 -0.31544 0.12197 -0.023504 -0.063912 0.00017402 0.012055 0.0055198 0.010659
0.010403 0.0047224 0.011274 0.0077622
-0.023445 -0.063901 -0.37878 0.10723 -0.040549 -0.037692 0.013971 0.0039865
-0.013019 -0.004764 0.0032773 -0.00018634
0.00022828 0.012069 -0.040696 -0.037657 -0.18347 0.25721 -0.00078875 -0.0044449
0.019193 0.0048084 0.0068034 -0.0064578
0.0055303 0.010617 0.013969 0.0039885 -0.00078934 -0.0044432 -0.30555 0.1321
0.0043155 -0.023702 0.0046853 -0.021239
0.010374 0.0046651 -0.012938 -0.0047638 0.019183 0.0048939 0.0043833 -0.023742
-0.2884 -0.022788 0.0090333 -0.049332
0.011505 0.0078445 0.0031649 -0.00015104 0.006825 -0.0064899 0.0046589 -0.021274
0.0091908 -0.049458 -0.32886 0.012686
620000000 -0.27492 0.10676 -0.023163 0.0080386 0.0031261 0.0085701 0.0080368 -0.0056555
0.010983 5.6075e-05 0.0016222 -0.0027854
-0.023138 0.0080165 -0.40238 0.059449 -0.018429 8.4352e-05 -0.0013794 -0.0019383
0.011262 -0.0068414 0.0015895 -0.003366
0.0031413 0.0085544 -0.018455 0.00012838 -0.15354 0.26622 -0.0012326 -0.0049725
-0.0031378 -0.0031475 0.0085972 -0.0032726
0.0080226 -0.0057064 -0.0013688 -0.0019351 -0.0012353 -0.0049764 -0.26569 0.14343
-0.037224 -0.019502 0.012436 0.026528
0.011052 0.00010487 0.011249 -0.006884 -0.0031926 -0.0031725 -0.037204 -0.019592
-0.20673 -0.061907 -0.041676 0.014003
0.0017298 -0.0028465 0.0015719 -0.0032905 0.008285 -0.0032878 0.012437 0.026308
-0.041768 0.014033 -0.24963 -0.025404
680000000 -0.23473 0.19204 -0.027224 -0.014464 0.0049667 0.0050768 0.0011789 -0.0071481
-0.0033014 -0.011302 0.0049784 -0.0071175
-0.027211 -0.014457 -0.38766 0.15715 -0.032655 -0.0014171 -0.0016549 -0.00042183
-0.002397 -0.0088236 -0.0012367 -0.0019274
0.0049799 0.0050631 -0.032689 -0.0013348 -0.1023 0.28627 -0.00079101 -0.00016486
-0.0018482 0.00064861 -0.0027746 -0.0091829
0.0012261 -0.0071669 -0.0016346 -0.00042127 -0.00078128 -0.00016287 -0.22091 0.19348
-0.023302 -0.0080552 -0.01017 -0.011691
-0.0033401 -0.011293 -0.0024137 -0.0088295 -0.0018279 0.00065416 -0.023312 -0.0080272
-0.25733 0.037096 -0.0050261 -0.0088019
0.0050425 -0.0071533 -0.0012591 -0.0018867 -0.0027851 -0.0091552 -0.010122 -0.011614
-0.0049951 -0.0089396 -0.2619 0.082008
740000000 -0.1907 0.18654 -0.0387 0.02671 0.012628 -0.0052021 -0.00018253 -0.0041084
-0.004284 -0.0027587 -0.006349 0.0024155
-0.038663 0.026678 -0.33479 0.17632 -0.035437 0.034967 -0.00070206 -0.0060917
-0.011888 0.0083561 -0.0018753 -0.0063717
0.012586 -0.0052232 -0.035372 0.035117 -0.068287 0.28457 -0.0021049 0.0032485
-0.0024315 -0.0046232 -0.0015278 0.00010315
-0.00020087 -0.004133 -0.00070742 -0.0061224 -0.0021002 0.0032559 -0.20405 0.20138
-0.043263 -0.0075823 0.022988 0.015013
-0.0042892 -0.0027663 -0.011805 0.0083738 -0.0024026 -0.0046643 -0.043277 -0.0075094
-0.15872 0.06273 -0.044111 4.6187e-05
-0.0063598 0.002512 -0.0019457 -0.0063694 -0.001622 2.5041e-05 0.022996 0.014975
-0.044037 -9.8722e-05 -0.24929 0.088248
800000000 -0.15763 0.22729 -0.022559 0.016669 0.0052933 -0.010593 -0.0047256 -0.002089
-0.0041128 0.002234 0.0044833 0.00047652
-0.022537 0.016645 -0.33815 0.24633 -0.0078767 0.033844 -0.0023135 0.0022373
-0.00051272 0.0030556 0.001084 0.0051103
0.0052608 -0.01062 -0.0077944 0.033891 -0.027872 0.30774 0.0011404 0.0015246
0.00025216 0.0035152 -0.0016947 0.0009582
-0.0047413 -0.0020666 -0.0023042 0.0022534 0.0011422 0.0015209 -0.17577 0.22913
-0.02853 0.013355 0.01353 -0.010328
-0.0040992 0.0022369 -0.00050872 0.0030596 0.00025898 0.0035004 -0.028526 0.013385
-0.20591 0.086556 -0.017941 0.018787
0.004503 0.00044199 0.0010924 0.005135 -0.0017542 0.00089873 0.0135 -0.010361
-0.017871 0.01881 -0.24601 0.13807
860000000 -0.123 0.24749 -0.017461 0.030574 -0.0033704 -0.0099327 -0.0023121 0.00096243
0.0041317 0.005011 -0.0031613 -0.0028107
-0.01747 0.030531 -0.29064 0.28813 0.0078561 0.033932 6.2062e-05 0.0019228
0.0043372 0.0001286 0.0034275 0.00071697
-0.003403 -0.0099322 0.0079696 0.033947 0.020146 0.31555 -0.00053136 -0.00031741
0.0027965 -0.0015347 0.0013594 0.0045342
-0.0023141 0.00097389 7.3942e-05 0.0019223 -0.00052973 -0.00031752 -0.13929 0.24035
-0.018142 0.018228 -0.0062857 -0.0092185
0.0042008 0.0049908 0.004331 0.00010016 0.0027937 -0.0015313 -0.018115 0.018252
-0.15586 0.13821 -0.026729 0.01524
-0.0031941 -0.0027937 0.0035135 0.00073165 0.0013269 0.004509 -0.0062822 -0.009224
-0.026699 0.015124 -0.19417 0.18575
920000000 -0.098563 0.27058 0.0049928 0.0378 -0.0094752 -0.0043344 -0.0018854 0.0019983
0.0011765 0.0018725 0.0028224 -0.0015439
0.004972 0.037744 -0.2616 0.30959 0.028004 0.021877 0.0013564 0.0011102
0.006983 -0.00062771 0.003905 -0.0025593
-0.009481 -0.004326 0.028098 0.021817 0.066323 0.31618 0.0018198 -7.3317e-05
0.0011899 -0.00042325 0.00085766 -0.00097585
-0.0018847 0.0019922 0.0013638 0.0011169 0.0018245 -7.2535e-05 -0.11557 0.25735
-0.011182 0.030256 0.0035772 -0.0062839
0.0011813 0.0018585 0.0070089 -0.0006433 0.0011846 -0.00041294 -0.011138 0.030283
-0.1469 0.14415 -0.0033359 0.027684
0.0027884 -0.001525 0.0039681 -0.0026823 0.00090827 -0.0010126 0.0035711 -0.006349
-0.0033849 0.027598 -0.20385 0.19898
980000000 -0.051066 0.29015 0.017397 0.029942 -0.0089532 0.004691 0.0021014 0.0036518
0.0040284 -0.0012751 -0.0032565 -0.0022011
0.017387 0.029925 -0.20879 0.34345 0.032787 0.0049007 0.0020336 3.9579e-05
0.001446 -0.0057393 -0.00021122 -0.0024302
-0.008923 0.0047291 0.032823 0.0047945 0.11248 0.30944 0.00045497 -0.0011449
0.00021302 -0.0020617 0.0015214 -0.00018026
0.0021037 0.0036412 0.0020332 4.5788e-05 0.00045062 -0.001142 -0.077383 0.2686
0.007365 0.029553 -0.0094148 -0.007226
0.004003 -0.0013083 0.0014242 -0.0057386 0.0002175 -0.0020671 0.0074299 0.029577
-0.11613 0.17343 0.0042732 0.019494
-0.0033033 -0.002174 -0.00020905 -0.002438 0.0015316 -0.00016973 -0.0093954 -0.0072131
0.0042491 0.01947 -0.16159 0.24515
1040000000 -0.0088261 0.2984 0.033077 0.018137 -0.0011603 0.006895 0.0026148 0.00075093
0.00015017 -0.0038653 -0.00029988 -0.0013324
0.033045 0.018099 -0.17312 0.35641 0.029228 -0.014708 0.0014704 -0.0016265
-0.0025234 -0.0023981 -0.0012773 -0.002458
-0.0011168 0.0068865 0.029189 -0.014823 0.15838 0.29568 -0.00049027 -0.0014685
-0.0016358 -0.00077577 -0.00043026 -0.0010746
0.0026208 0.0007247 0.0014872 -0.0016212 -0.00048327 -0.0014755 -0.050018 0.27887
0.018717 0.017969 -0.002302 0.001718
0.00013264 -0.0038384 -0.0025552 -0.0024146 -0.0016569 -0.00075994 0.018748 0.017948
-0.084045 0.18201 0.013115 0.019001
-0.00033128 -0.0013215 -0.0013358 -0.0024293 -0.00045204 -0.0010811 -0.0023046 0.0016872
0.013108 0.018973 -0.14064 0.26559
1100000000 0.036485 0.30609 0.035598 -0.0042129 0.0029542 0.0038098 0.0023847 -0.0013207
-0.0020458 -0.0032009 -0.0039322 2.0032e-05
0.035573 -0.0042035 -0.12974 0.37346 0.015127 -0.027559 3.0302e-05 -0.001803
-0.0032751 -0.00065454 -0.0033819 -0.00052988
0.0029751 0.0038134 0.015032 -0.027643 0.20456 0.27545 -0.0018033 0.00026759
-0.0017526 0.00050932 -0.0010475 -0.00034717
0.002392 -0.0013247 1.9955e-05 -0.0018098 -0.0018042 0.00026385 -0.0098548 0.28389
0.023825 0.0051714 -0.0025942 0.00018262
-0.0020715 -0.0032178 -0.003299 -0.00065721 -0.0017573 0.00052943 0.023861 0.0051492
-0.066528 0.19614 0.018873 0.0090113
-0.0039785 1.4797e-05 -0.0033962 -0.00053864 -0.0010148 -0.00034514 -0.0025458 0.00017342
0.01888 0.0090319 -0.094964 0.29668
1160000000 0.087886 0.30097 0.023867 -0.02055 0.0026803 -0.00058448 -0.00021169 -0.0024177
-0.0042085 -0.00079537 -0.00094688 0.0041219
0.023869 -0.020538 -0.086182 0.37743 -0.0035526 -0.028901 -0.0016986 -0.0016993
-0.0025962 0.0024919 -0.0012926 0.001944
0.0026864 -0.00059864 -0.0036979 -0.028907 0.24745 0.24474 -0.00063007 0.0017297
-0.00053504 0.0018824 -0.00090131 0.00024518
-0.00021878 -0.0024226 -0.0016955 -0.0016784 -0.00062875 0.0017202 0.029353 0.2814
0.020304 -0.0098005 -0.0029022 0.0053981
-0.0042171 -0.00076902 -0.0026003 0.0025157 -0.00054935 0.0019028 0.020295 -0.0098137
-0.033212 0.20597 0.018089 0.0011865
-0.00091353 0.0041837 -0.0013334 0.0019639 -0.00092135 0.00022846 -0.0028883 0.0054092
0.018112 0.0011497 -0.048083 0.29968
1220000000 0.13224 0.28969 0.010397 -0.029762 -0.0015603 -0.00085611 -2.3082e-05 -0.00098091
-0.0026508 0.0024745 0.0013925 0.0019892
0.01041 -0.029729 -0.041987 0.38945 -0.016629 -0.020996 -0.0024828 0.00037013
0.00010379 0.0029037 -0.00073221 0.0018392
-0.0015592 -0.00085103 -0.01675 -0.020947 0.28667 0.20597 0.00082435 0.0015418
0.00057973 0.0011164 0.00030173 0.0006577
-1.8067e-05 -0.00098462 -0.0024792 0.00039475 0.00082351 0.0015388 0.069075 0.27329
0.010047 -0.016184 0.0023744 0.0015906
-0.0026422 0.0024668 0.00014388 0.0029058 0.00058203 0.0010967 0.010028 -0.016194
-0.010927 0.21548 0.014526 -0.01216
0.0013888 0.0019794 -0.00073863 0.0018495 0.00029284 0.00064851 0.0023751 0.0015992
0.014529 -0.012149 -0.017245 0.31743
1280000000 0.18181 0.26749 -0.007723 -0.028184 -0.0018133 0.0024195 -0.00097815 -0.0020392
-0.00078819 0.003063 0.002482 0.0011629
-0.0076902 -0.028152 0.0036567 0.38042 -0.023453 -0.0085924 -0.00099078 0.0014248
0.0016181 0.0016752 0.00056948 0.0020682
-0.001806 0.0024329 -0.023524 -0.0084872 0.31739 0.16217 0.0015264 -7.8388e-05
0.0010242 0.00028233 0.0004971 0.00037391
-0.00098364 -0.0020372 -0.00099014 0.0014164 0.0015308 -7.8164e-05 0.10593 0.25728
0.0010826 -0.01804 0.00019092 3.7839e-05
-0.00076948 0.0030701 0.001626 0.0016719 0.0010295 0.00026356 0.001053 -0.018043
0.025534 0.2197 0.0036375 -0.014341
0.0024753 0.0011418 0.00058851 0.0020722 0.00047185 0.00039611 0.00020047 3.6712e-05
0.003635 -0.014341 0.031435 0.3203
1340000000 0.21872 0.23359 -0.017294 -0.018849 0.00082435 0.0044281 -0.0017553 -0.00079362
0.0014542 0.0027307 0.001774 -0.0013989
-0.017252 -0.018844 0.042943 0.37238 -0.021434 0.0039968 -0.0001611 0.0019674
0.0018552 0.00074937 0.001265 0.00078087
0.00083955 0.0044233 -0.021445 0.0041136 0.33955 0.11431 0.0010413 -0.00087637
0.00069273 -0.00048166 0.00022726 0.00027257
-0.0017566 -0.00076759 -0.00015129 0.0019713 0.0010357 -0.00088122 0.13853 0.23736
-0.0078248 -0.015362 0.0011293 0.00032531
0.0014823 0.0027042 0.001862 0.00072511 0.00067916 -0.00048206 -0.0078583 -0.015351
0.055219 0.21587 -0.0028234 -0.013085
0.0017564 -0.0014191 0.0012737 0.00076867 0.00021839 0.00027378 0.0011183 0.00031986
-0.0028176 -0.013061 0.069616 0.31667
1400000000 0.25146 0.19534 -0.023038 -0.0075679 0.0050486 0.0030641 -0.0020256 0.00065613
0.0024077 0.00084829 0.00032412 -0.0013278
-0.023011 -0.0075829 0.080181 0.35948 -0.014851 0.012121 0.0012764 0.0013385
0.0010598 -0.00077383 0.0012159 0.00030048
0.0050668 0.003039 -0.014814 0.012214 0.35293 0.060574 0.00012016 -0.0015453
-6.1059e-05 -0.00035651 0.00046786 0.00018542
-0.0020305 0.00064972 0.0012823 0.0013317 0.00011728 -0.001539 0.16841 0.20901
-0.013264 -0.0091431 -0.00074589 -0.00073229
0.0024185 0.00084779 0.0010545 -0.00076722 -6.0439e-05 -0.0003599 -0.013286 -0.0091288
0.088074 0.21237 -0.0091269 -0.008857
0.00030333 -0.0013547 0.0012426 0.00029861 0.00046984 0.0001726 -0.00073237 -0.00074024
-0.009136 -0.008859 0.11514 0.30618
1460000000 0.27395 0.15133 -0.020188 0.0044073 0.005463 -0.0017909 -0.0015848 0.0016976
0.0020655 -0.00062219 -0.00034437 -0.00093955
-0.020174 0.0043908 0.11436 0.33786 -0.0063577 0.01511 0.0017383 0.00019231
0.00084523 -0.0011895 0.0011879 -0.00056196
0.0054557 -0.0018228 -0.006284 0.015159 0.35898 0.0059915 -0.0012268 -0.0011542
0.0001506 -0.00022185 0.00053108 -0.00035148
-0.0015784 0.0017029 0.0017446 0.00018248 -0.0012117 -0.0011602 0.19517 0.18027
-0.014322 -0.002987 -0.0010306 0.0017585
0.0020538 -0.0006319 0.00083907 -0.0012044 0.00015381 -0.00021901 -0.014333 -0.0029504
0.11739 0.19854 -0.011095 -0.0032451
-0.00035885 -0.00096046 0.0011921 -0.00055281 0.00053786 -0.00034584 -0.0010247 0.0017487
-0.011098 -0.0032399 0.14881 0.28577
1520000000 0.28591 0.10965 -0.014735 0.0099371 0.0032561 -0.0040583 9.4977e-05 0.0025812
0.0020264 -0.0017247 -0.0010992 -9.4155e-05
-0.014731 0.0099131 0.14809 0.32319 0.0012948 0.013084 0.0016256 -0.00075145
6.8281e-05 -0.00097899 0.00037209 -0.00099389
0.003242 -0.0040747 0.0013667 0.013085 0.35189 -0.050413 -0.0010293 -0.00031903
0.00066167 -0.00076735 -1.271e-05 -8.188e-05
0.00010255 0.0025847 0.0016242 -0.00075756 -0.0010328 -0.00032294 0.21905 0.14251
-0.013872 0.0021154 0.0011919 0.0019488
0.0020183 -0.0017487 6.0394e-05 -0.00098385 0.00065521 -0.00078026 -0.013868 0.0021599
0.14547 0.18508 -0.011335 0.00095213
-0.0011109 -9.1503e-05 0.00037003 -0.00099906 -1.6466e-05 -9.6138e-05 0.0012142 0.0019585
-0.011331 0.00096638 0.18258 0.26612
1580000000 0.295 0.06359 -0.0083125 0.013099 -0.00084496 -0.0047829 0.0013747 0.0018846
-0.00036229 -0.0020123 -0.00032812 0.00045397
-0.0083166 0.013086 0.17558 0.29837 0.0050004 0.0084044 0.0004902 -0.0015642
-0.00051994 -0.0010114 -0.00023976 -0.00079995
-0.00086826 -0.0047819 0.0050611 0.0083805 0.33144 -0.10804 -0.0015337 0.00057829
-0.00024128 -0.0011313 0.00012555 -0.00044504
0.0013864 0.0018788 0.00048877 -0.001567 -0.0015398 0.00058455 0.23363 0.10318
-0.010804 0.0067297 0.0020951 0.00085773
-0.00039071 -0.0020073 -0.00052572 -0.00099077 -0.00022166 -0.0011264 -0.010796 0.0067583
0.17026 0.1678 -0.0092434 0.006722
-0.00032401 0.00047009 -0.000244 -0.00079664 0.0001102 -0.00044196 0.0021006 0.00083797
-0.0092446 0.0067416 0.21571 0.23937
1640000000 0.29701 0.02241 -0.0017039 0.012268 -0.002668 -0.0025838 0.0026877 0.0010226
-0.0006248 -0.0014056 -0.00021067 0.00053341
-0.0017158 0.012252 0.20519 0.27325 0.0058641 0.003671 -0.00062634 -0.0017294
-0.0009442 -0.00044394 -0.00043751 -0.00074314
-0.0026839 -0.0025676 0.0058916 0.0036396 0.3031 -0.157 -0.0006477 0.0013772
-0.00098042 -0.0010535 -2.2233e-05 -0.00045812
0.002694 0.0010094 -0.00064467 -0.0017225 -0.00065735 0.0013668 0.2466 0.054011
-0.0069565 0.0079656 0.0023584 -0.00072769
-0.00064865 -0.0014011 -0.00094527 -0.00043424 -0.00098325 -0.001044 -0.0069392 0.0079821
0.19323 0.14374 -0.004902 0.0087636
-0.00020376 0.00052982 -0.00045229 -0.00074764 -7.4553e-05 -0.00046992 0.002351 -0.00074315
-0.0048966 0.0087643 0.24135 0.20851
1700000000 0.28975 -0.022864 0.0017505 0.009637 -0.0035036 0.00014948 0.0030376 -0.0011677
-0.0019274 -0.00067581 0.00059771 0.00038045
0.0017371 0.009633 0.22342 0.24141 0.0039244 0.00073226 -0.0014556 -0.00057554
-0.00078825 8.0253e-06 -0.00090523 -0.00047491
-0.0035202 0.0001665 0.0039269 0.00071114 0.25948 -0.19705 0.00038249 0.0016029
-0.0018855 -0.00030406 -0.00044591 -0.00081914
0.0030389 -0.0011899 -0.00146 -0.00057462 0.00037867 0.0016056 0.24382 0.0037126
-0.0045424 0.0086426 0.0014413 -0.0021788
-0.0019242 -0.00065166 -0.00079512 1.0016e-05 -0.0018927 -0.00029825 -0.0045319 0.0086418
0.21091 0.12371 -0.00025998 0.0092898
0.00060725 0.00037768 -0.00090705 -0.00046243 -0.00044042 -0.00083027 0.0014341 -0.0021731
-0.00025295 0.0092913 0.25816 0.17398
1760000000 0.27746 -0.071454 0.0042375 0.006476 -0.0022041 0.00096942 0.0013398 -0.0034107
-0.0012319 0.00064911 0.00037342 -0.00066078
0.0042325 0.0064746 0.2492 0.20124 0.0016705 -0.0010196 -0.0011588 0.00017794
-0.0010356 0.00086717 -0.00060374 0.00035833
-0.0022046 0.00096477 0.0016718 -0.0010305 0.21012 -0.23009 0.001114 0.0011199
-0.001156 0.0013367 -0.0012439 -0.00066112
0.0013195 -0.0034212 -0.0011673 0.00018789 0.0011135 0.0011217 0.23462 -0.048292
-0.0014065 0.0080104 -0.00029303 -0.0024432
-0.0012361 0.00066313 -0.0010281 0.00087223 -0.0011507 0.0013526 -0.0013904 0.0080051
0.22598 0.088625 0.0035643 0.0068668
0.00036929 -0.00066407 -0.00058889 0.00037044 -0.0012398 -0.00063158 -0.00030297 -0.0024352
0.0035593 0.006851 0.27103 0.13633
1820000000 0.25271 -0.10877 0.0045991 0.0028996 1.6214e-05 0.002347 -0.00094207 -0.0030536
-0.0010899 0.00080067 -5.227e-05 -4.7713e-05
0.0045905 0.0028942 0.25899 0.17095 -0.00014262 -1.7384e-05 -0.001317 0.00090152
-9.751e-05 0.0013279 -0.00059076 0.00054153
4.2293e-05 0.0023522 -0.00014312 -1.3167e-05 0.16047 -0.24537 0.0014096 0.00048232
-0.00037996 0.0023074 -0.0014329 0.00030914
-0.00095964 -0.0030385 -0.0013165 0.0009155 0.0014106 0.00047616 0.20432 -0.095846
-2.4792e-05 0.0065106 -0.0016251 -0.0013672
-0.0010855 0.00082492 -8.3152e-05 0.0013287 -0.00037953 0.0023042 -1.027e-05 0.0065043
0.24321 0.059459 0.0044679 0.0035512
-6.1065e-05 -3.7162e-05 -0.00059047 0.00054632 -0.0014164 0.00033341 -0.0016207 -0.0013626
0.0044704 0.0035386 0.27383 0.1004
1880000000 0.21736 -0.14918 0.0025314 0.00049547 -0.00044597 0.0020274 -0.0029935 -0.0021655
-0.00027366 0.0016047 0.00030106 -0.00051752
0.0025289 0.00050065 0.26305 0.12425 -0.0022591 0.0016367 -0.00022591 0.001679
0.00059159 0.0012765 9.5374e-05 0.00096031
-0.0004394 0.0020369 -0.0022528 0.0016494 0.10799 -0.25511 0.0018729 -0.00085956
0.0014272 0.0020886 -0.0010331 0.0013509
-0.003007 -0.0021495 -0.00021546 0.0016799 0.001887 -0.00086193 0.16309 -0.13606
0.00055594 0.0046096 -0.0024173 0.00053997
-0.00026262 0.001611 0.00060896 0.0012769 0.0014311 0.0020965 0.0005624 0.0046133
0.2461 0.026631 0.0046345 0.0015262
0.0002776 -0.00051648 0.00010916 0.0009613 -0.0010285 0.001357 -0.0024042 0.00054174
0.0046361 0.0015302 0.27343 0.066134
1940000000 0.17773 -0.1748 0.00034683 -0.0012898 0.0012894 0.0019655 -0.0038208 0.00052692
0.0011848 0.0010451 -0.00065037 -0.00053931
0.00034203 -0.0012858 0.2632 0.092495 -0.001122 0.0038014 0.00096965 0.0013422
0.001891 0.00048118 0.00085521 0.00029237
0.0012884 0.0019542 -0.0010977 0.0038151 0.061937 -0.24824 0.00048465 -0.0021909
0.0025269 0.00050511 0.00026471 0.0015475
-0.0038228 0.00054722 0.00097429 0.0013334 0.00048153 -0.0021853 0.11044 -0.16596
-0.00055119 0.0036492 -0.0013582 0.0016641
0.0011768 0.0010275 0.0018982 0.00046434 0.0025429 0.0005109 -0.00053869 0.0036482
0.2475 -0.012571 0.0036737 -0.0017799
-0.00064371 -0.00053111 0.00085267 0.00027986 0.00026675 0.0015306 -0.0013519 0.0016638
0.0036448 -0.0018082 0.26277 0.03057
2000000000 0.13106 -0.18935 -0.0035281 0.00057596 0.0024962 0.0016545 -0.0022902 0.0035765
0.0011254 0.00029036 -0.00072001 0.00037326
-0.0035231 0.00057967 0.24877 0.057133 -0.00093966 0.0057204 0.00164 0.0004522
0.0013567 -0.0014023 0.00054192 0.0001377
0.0025074 0.0016424 -0.00091147 0.0057401 0.018546 -0.23346 -0.0012922 -0.0014664
0.0021026 -0.0011704 0.001654 0.0012668
-0.0022699 0.0035966 0.0016457 0.00044851 -0.0012938 -0.001471 0.05684 -0.17541
-0.002213 0.0038379 1.6573e-06 0.002208
0.0011164 0.0002947 0.0013476 -0.0014133 0.0021133 -0.0011683 -0.0022011 0.0038513
0.2408 -0.046529 0.00047163 -0.0025923
