!Keysight Technologies,M9804A,MY58100912,A.14.10.03
!Date: Thursday, April 27, 2023 10:28:33
!Correction: S11(C  6-Port  ) 
!S12(C  6-Port  ) 
!S13(C  6-Port  ) 
!S14(C  6-Port  ) 
!S15(C  6-Port  ) 
!S16(C  6-Port  ) 
!S21(C  6-Port  ) 
!S22(C  6-Port  ) 
!S23(C  6-Port  ) 
!S24(C  6-Port  ) 
!S25(C  6-Port  ) 
!S26(C  6-Port  ) 
!S31(C  6-Port  ) 
!S32(C  6-Port  ) 
!S33(C  6-Port  ) 
!S34(C  6-Port  ) 
!S35(C  6-Port  ) 
!S36(C  6-Port  ) 
!S41(C  6-Port  ) 
!S42(C  6-Port  ) 
!S43(C  6-Port  ) 
!S44(C  6-Port  ) 
!S45(C  6-Port  ) 
!S46(C  6-Port  ) 
!S51(C  6-Port  ) 
!S52(C  6-Port  ) 
!S53(C  6-Port  ) 
!S54(C  6-Port  ) 
!S55(C  6-Port  ) 
!S56(C  6-Port  ) 
!S61(C  6-Port  ) 
!S62(C  6-Port  ) 
!S63(C  6-Port  ) 
!S64(C  6-Port  ) 
!S65(C  6-Port  ) 
!S66(C  6-Port  ) 
!S6P File: Measurement: :
# Hz S  RI   R 50
500000000 -0.33633 -0.039195 -0.009378 -0.0026331 -0.0076114 0.01231 -0.0037758 0.012208
0.01258 0.0044103 -0.0042125 0.0090747
-0.0093843 -0.002632 -0.41871 -0.051881 0.0082361 -0.010963 0.0014793 0.011447
0.0080033 0.0024229 0.0017477 0.01251
-0.0076095 0.012309 0.0082119 -0.01098 -0.26471 0.2086 0.0078093 0.0030988
-0.0016495 0.007741 0.0018555 0.011548
-0.0037566 0.01221 0.0014841 0.011478 0.0078137 0.0030971 -0.32977 0.043562
-0.017824 -0.005668 0.016404 0.025713
0.012576 0.0042614 0.0080881 0.0024332 -0.0015985 0.0077791 -0.017805 -0.005642
-0.224 -0.19613 -0.024986 0.0055591
-0.0041503 0.0090688 0.001707 0.012558 0.0018245 0.011615 0.016429 0.025786
-0.025036 0.0055593 -0.26483 -0.13443
560000000 -0.31498 0.12226 -0.024122 -0.063926 9.41e-05 0.011877 0.0057118 0.010513
0.010361 0.0040639 0.011586 0.0075409
-0.02408 -0.063851 -0.37859 0.10658 -0.04051 -0.037896 0.013908 0.0038406
-0.013 -0.004047 0.0028919 -0.00014451
0.00011023 0.011859 -0.040621 -0.037885 -0.1832 0.2565 -0.00080757 -0.004334
0.01879 0.0039721 0.0072483 -0.0063114
0.0057166 0.010511 0.013903 0.0038654 -0.00082159 -0.0043472 -0.30509 0.13204
0.0049576 -0.02345 0.0042757 -0.021428
0.010369 0.0041095 -0.013 -0.0041404 0.018866 0.0040221 0.0048659 -0.0235
-0.28942 -0.021555 0.008863 -0.049193
0.011581 0.0075881 0.0028158 -0.00030953 0.0072867 -0.0062072 0.0042189 -0.021589
0.0088428 -0.049158 -0.32851 0.01502
620000000 -0.27483 0.10635 -0.023236 0.0075374 0.0027306 0.0084354 0.0079235 -0.0056665
0.011063 -0.0003136 0.0017015 -0.002768
-0.023213 0.0075302 -0.40208 0.059005 -0.018509 -0.00033914 -0.0015039 -0.0020707
0.01108 -0.006974 0.0015067 -0.0035703
0.0027616 0.0084524 -0.018554 -0.00028434 -0.15375 0.26552 -0.001531 -0.0051814
-0.0037408 -0.002839 0.0081128 -0.0036209
0.0078903 -0.0056862 -0.0015227 -0.0020715 -0.0015105 -0.0051759 -0.26538 0.14343
-0.03702 -0.020185 0.011968 0.026276
0.010925 -0.00040051 0.011103 -0.0070274 -0.0036071 -0.0029235 -0.037167 -0.019998
-0.20867 -0.058889 -0.041558 0.013469
0.0017538 -0.0028977 0.0014522 -0.0035935 0.0080466 -0.0036898 0.011898 0.026334
-0.041495 0.013415 -0.25002 -0.021901
680000000 -0.23458 0.19151 -0.027477 -0.014667 0.0049359 0.0052103 0.0010569 -0.0072038
-0.0033023 -0.011037 0.004902 -0.0066622
-0.027451 -0.014664 -0.38783 0.15644 -0.033049 -0.0015525 -0.0018916 -0.0004868
-0.0022171 -0.008432 -0.0012565 -0.0018254
0.0049545 0.0052069 -0.033086 -0.0014596 -0.10278 0.28568 -0.00084038 -3.7143e-05
-0.0018534 0.0012104 -0.0028662 -0.0090411
0.0010452 -0.0072089 -0.0018956 -0.0004877 -0.00083712 -4.0925e-05 -0.22101 0.19262
-0.023905 -0.0083205 -0.0097168 -0.01075
-0.0033318 -0.01108 -0.0022465 -0.0084468 -0.0018721 0.0012158 -0.023872 -0.0082372
-0.25797 0.039144 -0.0049472 -0.0090639
0.0048122 -0.0067746 -0.0012377 -0.0018172 -0.0028619 -0.009014 -0.0097651 -0.010771
-0.0049844 -0.0090194 -0.26172 0.084184
740000000 -0.1907 0.18618 -0.038814 0.02647 0.012832 -0.0049589 -0.00013239 -0.0043188
-0.004297 -0.0025359 -0.0058462 0.0024787
-0.038802 0.026439 -0.33544 0.17561 -0.035648 0.035159 -0.00072809 -0.0059348
-0.011485 0.0085465 -0.0017443 -0.0063491
0.012809 -0.0049741 -0.035558 0.03529 -0.069491 0.2843 -0.001995 0.0031875
-0.0018387 -0.0049631 -0.0020604 -0.00018615
-0.00014662 -0.0043071 -0.00073977 -0.005934 -0.0020012 0.0031993 -0.20415 0.20083
-0.043549 -0.0075034 0.022834 0.014864
-0.0044318 -0.0025489 -0.011419 0.0086642 -0.0018399 -0.0048939 -0.043595 -0.0074461
-0.15957 0.064579 -0.043722 -0.00041536
-0.0058852 0.0024474 -0.0018595 -0.0064011 -0.0019104 -0.000222 0.022811 0.014845
-0.043705 -0.0003883 -0.24944 0.089789
800000000 -0.15816 0.22686 -0.022728 0.016655 0.0053569 -0.010629 -0.0047755 -0.0019289
-0.0040658 0.0023437 0.0046098 0.00059606
-0.022722 0.016631 -0.33866 0.24592 -0.0080385 0.034197 -0.0022997 0.0021963
-0.0004021 0.0030783 0.0010458 0.0051747
0.0053293 -0.010649 -0.0079567 0.034258 -0.028664 0.30805 0.0012116 0.0014323
0.00038781 0.0034199 -0.0017786 0.0010265
-0.0047938 -0.0019211 -0.0022869 0.0022156 0.001212 0.0014357 -0.17635 0.22879
-0.02909 0.013606 0.013532 -0.010028
-0.0040767 0.0022684 -0.00033859 0.0030789 0.0003722 0.0034044 -0.029091 0.013655
-0.20794 0.088276 -0.018053 0.01888
0.0046241 0.00057811 0.0010369 0.0051731 -0.0017873 0.001028 0.013545 -0.01004
-0.018104 0.018906 -0.24494 0.14004
860000000 -0.12376 0.24752 -0.017737 0.030889 -0.003481 -0.0099792 -0.0024249 0.0010494
0.0041961 0.0048314 -0.0032153 -0.003098
-0.017746 0.030858 -0.29125 0.28818 0.0079489 0.034442 9.1457e-05 0.0019711
0.0043091 -0.00022551 0.0033303 0.00066502
-0.0035121 -0.0099758 0.0080542 0.034442 0.019536 0.31628 -0.0006309 -0.00035246
0.0026215 -0.001637 0.0014596 0.0044597
-0.0024416 0.0010707 8.8802e-05 0.0019601 -0.00063075 -0.00035034 -0.14011 0.24063
-0.018484 0.018921 -0.0060542 -0.0096363
0.0042068 0.0047581 0.0043548 -0.00023944 0.0026471 -0.0016327 -0.018414 0.018984
-0.15727 0.13995 -0.026277 0.014861
-0.0032618 -0.0030872 0.0033582 0.00059782 0.0014723 0.0044406 -0.0060375 -0.0096044
-0.02625 0.014916 -0.19306 0.18744
920000000 -0.098792 0.27088 0.0050463 0.038253 -0.0095667 -0.0042933 -0.0017563 0.0020575
0.0012327 0.0018368 0.0026734 -0.0015318
0.0050061 0.03822 -0.26225 0.3098 0.028328 0.022174 0.0014858 0.0010754
0.0068069 -0.00078476 0.0039349 -0.002661
-0.0095794 -0.0042751 0.028434 0.022114 0.066099 0.31693 0.0018041 -9.4928e-05
0.001155 -0.00047162 0.00094604 -0.0010032
-0.0017577 0.0020626 0.0015152 0.001081 0.0017989 -8.8509e-05 -0.11622 0.25798
-0.011036 0.031033 0.0036091 -0.006403
0.0012435 0.0018147 0.0068748 -0.00080481 0.0011743 -0.00044512 -0.01095 0.03106
-0.14786 0.14706 -0.0033246 0.027565
0.0026636 -0.0015411 0.003908 -0.0026991 0.0009699 -0.00099834 0.0035974 -0.0064109
-0.0032555 0.027556 -0.20258 0.20059
980000000 -0.051346 0.29035 0.017559 0.030255 -0.0089849 0.0047526 0.0021711 0.0035864
0.0040103 -0.0011619 -0.0032005 -0.0021779
0.017501 0.030232 -0.20929 0.34368 0.033381 0.0048672 0.0020928 -9.3027e-05
0.0011907 -0.0056712 -0.00021927 -0.0024278
-0.0089695 0.0047695 0.033431 0.0047512 0.11251 0.3102 0.00049143 -0.0011303
0.00026739 -0.0020304 0.0015741 -0.00023359
0.0021808 0.0035814 0.0020914 -8.1148e-05 0.00048538 -0.0011289 -0.0779 0.26967
0.0078495 0.030129 -0.0094182 -0.0073094
0.0039966 -0.0011903 0.0011798 -0.0056937 0.00025825 -0.0020135 0.0079254 0.030134
-0.11703 0.17624 0.0045387 0.019317
-0.0031947 -0.0021837 -0.00023226 -0.0024476 0.0015741 -0.00021213 -0.0094474 -0.0072926
0.004515 0.019341 -0.16072 0.24634
1040000000 -0.0089493 0.29873 0.033386 0.018322 -0.0011547 0.0070645 0.0026395 0.00059389
8.684e-05 -0.0038495 -0.00027942 -0.0013407
0.033315 0.018326 -0.17358 0.35675 0.02956 -0.015059 0.0013842 -0.0017345
-0.0026274 -0.0024315 -0.0014404 -0.0023849
-0.0011193 0.007061 0.029522 -0.015165 0.15877 0.29644 -0.00050066 -0.0015038
-0.0015927 -0.00083865 -0.0003468 -0.0011719
0.0026285 0.00057564 0.0013976 -0.0017434 -0.0004994 -0.0015052 -0.050003 0.28011
0.019606 0.018289 -0.0024697 0.0017586
6.2767e-05 -0.0038732 -0.0026889 -0.002381 -0.0016055 -0.00081589 0.019679 0.018288
-0.084751 0.18508 0.013267 0.018923
-0.00027364 -0.0013305 -0.0014373 -0.0024059 -0.00032396 -0.001178 -0.0024472 0.0017202
0.013271 0.018953 -0.13914 0.26674
1100000000 0.036541 0.30636 0.036099 -0.0042333 0.0031149 0.0039448 0.0023506 -0.001442
-0.0020001 -0.003118 -0.0038543 8.2678e-06
0.03606 -0.0042036 -0.13002 0.37421 0.015179 -0.028042 -8.0318e-05 -0.0018244
-0.0032102 -0.00061085 -0.0034599 -0.00044981
0.0031283 0.0039264 0.015072 -0.028127 0.20519 0.27598 -0.0018286 0.00030809
-0.0018035 0.00054252 -0.0010745 -0.00051179
0.0023534 -0.0014449 -8.2228e-05 -0.0018238 -0.0018247 0.00030491 -0.0092118 0.2852
0.024754 0.0049693 -0.0025257 0.00028083
-0.0020213 -0.0031198 -0.0032047 -0.000597 -0.0017708 0.00054551 0.024785 0.004923
-0.066923 0.19932 0.019053 0.009027
-0.0038512 1.0887e-05 -0.0034298 -0.00046602 -0.00106 -0.00049994 -0.0025375 0.00028902
0.019025 0.0090374 -0.093393 0.2974
1160000000 0.087926 0.30134 0.02411 -0.020817 0.0028735 -0.00063657 -0.00038673 -0.0024793
-0.0042342 -0.00072672 -0.00081536 0.0040656
0.02409 -0.020784 -0.08602 0.3783 -0.0038181 -0.029267 -0.0017848 -0.001649
-0.0025635 0.002457 -0.0012337 0.0018423
0.0028887 -0.00065131 -0.00396 -0.029266 0.24832 0.24495 -0.00060481 0.0017003
-0.00059216 0.0018675 -0.0010201 0.00021718
-0.000393 -0.0024874 -0.0017797 -0.0016271 -0.00059892 0.0016988 0.030623 0.28238
0.021083 -0.010582 -0.0027667 0.0054338
-0.0042503 -0.0007184 -0.0025719 0.0025105 -0.00060359 0.001874 0.021091 -0.010601
-0.033009 0.20941 0.018331 0.00097355
-0.00081469 0.0040772 -0.0012422 0.0018458 -0.0010202 0.00020675 -0.0027773 0.005448
0.018312 0.0010041 -0.046633 0.30057
1220000000 0.13223 0.28989 0.010493 -0.030217 -0.0015192 -0.0010654 -0.00013379 -0.00089391
-0.0026537 0.0025032 0.0014138 0.0019996
0.010495 -0.030189 -0.041469 0.39012 -0.017052 -0.02112 -0.0024807 0.00047136
9.8888e-05 0.0028809 -0.00078779 0.0018643
-0.0015121 -0.0010631 -0.017173 -0.021069 0.28751 0.20564 0.00081377 0.00151
0.00054801 0.0010977 0.00026476 0.00064995
-0.00013317 -0.00089352 -0.0024789 0.00048469 0.00081727 0.0015199 0.070551 0.27361
0.010198 -0.017185 0.0024421 0.0014837
-0.0026304 0.0025037 0.00011043 0.0028751 0.00052603 0.0010939 0.010162 -0.017188
-0.010141 0.21906 0.014504 -0.012583
0.0014172 0.0020033 -0.00075726 0.0018725 0.00025621 0.00065281 0.0024537 0.0014845
0.014479 -0.012584 -0.015614 0.31801
1280000000 0.18204 0.26775 -0.0079018 -0.028643 -0.0019282 0.0023296 -0.00095275 -0.001887
-0.00073877 0.0030933 0.0024585 0.0010548
-0.0078903 -0.028621 0.0046181 0.38077 -0.023831 -0.0083367 -0.00088469 0.0014404
0.0016028 0.0016574 0.00059713 0.0020975
-0.0019033 0.0023316 -0.023898 -0.008224 0.31772 0.16153 0.0015082 -8.7862e-05
0.0010054 0.00030486 0.00042409 0.0004495
-0.0009526 -0.0018821 -0.00089059 0.0014554 0.0015085 -8.9774e-05 0.10746 0.25696
0.0006996 -0.018904 0.00016446 -6.2711e-05
-0.00070726 0.0031121 0.0016241 0.0016476 0.0010249 0.0003214 0.00064892 -0.01891
0.026906 0.22326 0.0034988 -0.014762
0.0024731 0.0010391 0.00061462 0.002104 0.00042576 0.0004482 0.0001665 -4.881e-05
0.0035074 -0.014756 0.033037 0.32071
1340000000 0.21903 0.23363 -0.017641 -0.019124 0.00075066 0.0043547 -0.0016746 -0.00074153
0.001473 0.0026953 0.0016509 -0.001447
-0.017609 -0.019121 0.043919 0.37203 -0.021515 0.0042868 -8.8067e-05 0.0019276
0.0017802 0.00077031 0.0013066 0.00077618
0.00076204 0.0043443 -0.021522 0.0044024 0.33943 0.11362 0.00099505 -0.00084303
0.00064806 -0.00044435 0.00024956 0.00035833
-0.001683 -0.00072825 -8.8525e-05 0.0019281 0.00099204 -0.00084277 0.13967 0.23644
-0.0085817 -0.015906 0.0010172 0.00020769
0.0015008 0.0026753 0.0017945 0.00075787 0.00064927 -0.0004398 -0.0086204 -0.015891
0.057324 0.21888 -0.003177 -0.013394
0.0016317 -0.0014551 0.0013224 0.00076918 0.00024851 0.00036771 0.0010148 0.00021386
-0.003172 -0.013396 0.071239 0.31677
1400000000 0.25165 0.19506 -0.023477 -0.0075996 0.0049968 0.0030978 -0.0019561 0.00064142
0.0024345 0.00082617 0.00030464 -0.0013413
-0.023452 -0.0076163 0.080932 0.35863 -0.014731 0.012348 0.0012455 0.0012648
0.0010389 -0.0007516 0.0012513 0.00022007
0.005015 0.0030684 -0.014695 0.012441 0.35251 0.060214 0.00014432 -0.0015151
2.6706e-05 -0.00035838 0.00049505 0.00023087
-0.0019515 0.00065395 0.0012553 0.0012597 0.00014626 -0.0015197 0.16898 0.20778
-0.014163 -0.0092089 -0.00081771 -0.0007211
0.0024418 0.00080567 0.0010373 -0.00077126 2.5946e-05 -0.0003788 -0.014196 -0.009167
0.090543 0.21461 -0.0095525 -0.0089447
0.00029098 -0.0013565 0.0012672 0.00022104 0.00050889 0.00023363 -0.00082985 -0.00072159
-0.0095367 -0.0089517 0.11681 0.30599
1460000000 0.27386 0.15098 -0.020585 0.0046498 0.0054756 -0.0018455 -0.0015654 0.0016291
0.0020723 -0.00064168 -0.00033527 -0.00095438
-0.020572 0.0046292 0.11461 0.33662 -0.0060757 0.015137 0.0016931 0.00021138
0.00092685 -0.0011992 0.0011563 -0.00061272
0.0054654 -0.001858 -0.0060053 0.015189 0.35851 0.0060756 -0.0012284 -0.0011669
0.0001797 -0.000275 0.00066921 -0.00035312
-0.0015551 0.0016376 0.0016878 0.00020197 -0.0012224 -0.0011666 0.19518 0.17893
-0.015048 -0.0025269 -0.0010682 0.0018171
0.0020815 -0.00066831 0.00091338 -0.0012081 0.00016914 -0.00029318 -0.015067 -0.0024861
0.11992 0.20012 -0.011617 -0.0030888
-0.00033723 -0.00094415 0.0011672 -0.00060913 0.00066879 -0.00033972 -0.0010568 0.0018
-0.011613 -0.0030962 0.15024 0.28556
1520000000 0.28551 0.1094 -0.014944 0.010345 0.0031769 -0.0040442 6.1465e-05 0.0025542
0.0020078 -0.0017369 -0.0010638 -7.8176e-05
-0.014943 0.01033 0.14773 0.32192 0.0014539 0.012984 0.0016123 -0.00072456
3.7589e-05 -0.0009912 0.00033842 -0.001048
0.0031591 -0.0040591 0.0015204 0.012993 0.35154 -0.050287 -0.0010229 -0.00035168
0.00062285 -0.00084028 2.7164e-05 -0.00014025
7.1878e-05 0.0025535 0.0016068 -0.00073186 -0.0010212 -0.00035125 0.21845 0.14137
-0.014241 0.002823 0.0012219 0.0020033
0.0019882 -0.0017577 2.9107e-05 -0.00099428 0.00060987 -0.00085219 -0.014244 0.0028554
0.14774 0.18614 -0.011573 0.0013074
-0.0010675 -6.4614e-05 0.00032633 -0.0010559 8.0395e-06 -0.00013669 0.0012281 0.001992
-0.011567 0.0013104 0.184 0.26548
1580000000 0.29451 0.0636 -0.0082224 0.013544 -0.000932 -0.0046618 0.0013091 0.0018968
-0.0004032 -0.002045 -0.00028223 0.00038368
-0.0082214 0.013526 0.17466 0.29734 0.0049962 0.0082343 0.00049885 -0.0015588
-0.0005402 -0.0010304 -0.00029662 -0.00078442
-0.00095952 -0.0046636 0.0050471 0.0082145 0.33112 -0.10782 -0.0015457 0.0005738
-0.0003438 -0.0010994 0.00019117 -0.00045193
0.0013108 0.0018801 0.00048238 -0.0015623 -0.0015491 0.00057038 0.23261 0.10244
-0.010696 0.0074446 0.0021142 0.00090628
-0.00042632 -0.0020243 -0.00055772 -0.0010293 -0.00033564 -0.0011085 -0.010682 0.0074794
0.17225 0.16846 -0.0092801 0.0071719
-0.00028747 0.00039744 -0.00030529 -0.00077821 0.00018608 -0.00045392 0.0021182 0.00089407
-0.0092844 0.0071656 0.21683 0.23862
1640000000 0.29643 0.022714 -0.0014033 0.012478 -0.0026145 -0.0025062 0.0026865 0.0010472
-0.00068245 -0.0013979 -0.00019479 0.00045269
-0.0014135 0.012465 0.20392 0.27262 0.0057949 0.0035902 -0.00062906 -0.0017164
-0.00097963 -0.00039505 -0.00047278 -0.00066604
-0.0026251 -0.0024861 0.0058242 0.0035533 0.30293 -0.15658 -0.00067797 0.0013752
-0.00099439 -0.0010207 -0.00012718 -0.000419
0.0026843 0.0010335 -0.00064242 -0.0017211 -0.00068573 0.0013765 0.24526 0.053851
-0.0065423 0.0083617 0.002398 -0.00068027
-0.00069248 -0.0013876 -0.00097722 -0.00039085 -0.00098004 -0.0010018 -0.0065264 0.0083863
0.19471 0.14425 -0.0047312 0.0091426
-0.00019408 0.00046138 -0.00047762 -0.00066728 -0.00014222 -0.0004233 0.0024036 -0.00069357
-0.0047351 0.0091566 0.24246 0.20776
1700000000 0.28934 -0.022402 0.0021036 0.0096563 -0.0033836 0.00018217 0.0030649 -0.0011071
-0.0019482 -0.0005354 0.00057472 0.00039026
0.0020884 0.0096536 0.22189 0.24134 0.0038547 0.00075788 -0.0014481 -0.00056094
-0.00079844 8.1219e-05 -0.00089381 -0.00042184
-0.0033876 0.00020257 0.0038614 0.00073961 0.25959 -0.19632 0.00044235 0.0016539
-0.0018482 -0.00020519 -0.00044588 -0.00082366
0.0030579 -0.0011208 -0.001451 -0.00056224 0.00044094 0.001649 0.24252 0.0043583
-0.0040908 0.0087274 0.0014667 -0.0021232
-0.0019521 -0.00052496 -0.0007933 8.5707e-05 -0.0018485 -0.00017897 -0.0040849 0.0087508
0.21202 0.12429 3.2324e-06 0.0094053
0.00057314 0.00038833 -0.00089255 -0.00041848 -0.00045261 -0.00083268 0.0014628 -0.0021257
6.343e-06 0.0094061 0.25907 0.17301
1760000000 0.27713 -0.070761 0.0044314 0.0063031 -0.0021155 0.0008604 0.0013709 -0.0033553
-0.0012193 0.00071416 0.00041618 -0.00057454
0.0044249 0.0063021 0.24778 0.20174 0.001656 -0.0011505 -0.0011914 0.00018661
-0.00097145 0.00086361 -0.000532 0.00041036
-0.0021084 0.00087728 0.0016532 -0.001158 0.21119 -0.22993 0.0010983 0.0011197
-0.0011308 0.0013998 -0.0012678 -0.00055454
0.0013533 -0.0033554 -0.0011939 0.00019272 0.0010974 0.0011172 0.23379 -0.047002
-0.0011167 0.0078956 -0.0002099 -0.0024554
-0.0012213 0.00072709 -0.00095908 0.00086499 -0.0011273 0.0014086 -0.0011039 0.007895
0.2268 0.089462 0.0038665 0.0069015
0.00041698 -0.00058537 -0.00052482 0.00041715 -0.0012593 -0.00054434 -0.00020807 -0.0024581
0.0038756 0.0068928 0.27189 0.13532
1820000000 0.25262 -0.10794 0.0046449 0.0027605 9.6024e-05 0.0023959 -0.00093308 -0.0031094
-0.00097339 0.000887 -4.9017e-05 -7.7172e-05
0.004638 0.0027573 0.25779 0.17197 -0.00023371 0.00013357 -0.001269 0.00092014
-1.9116e-05 0.001318 -0.00051326 0.00049081
0.00011103 0.0024002 -0.00023085 0.00013449 0.16076 -0.2453 0.001562 0.00040068
-0.00032832 0.002279 -0.0014318 0.00024669
-0.00094757 -0.0031049 -0.0012642 0.00092786 0.0015688 0.00040255 0.20428 -0.094163
9.4081e-05 0.0064235 -0.0015711 -0.001453
-0.00096813 0.00088502 -8.4267e-06 0.001311 -0.00033014 0.0022679 0.00011129 0.0064252
0.24392 0.060675 0.0047487 0.0033938
-5.7167e-05 -7.2805e-05 -0.00051336 0.0004959 -0.0014223 0.00026113 -0.0015741 -0.0014457
0.0047517 0.0033838 0.27437 0.099247
1880000000 0.21762 -0.14823 0.0024941 0.00044647 -0.00041208 0.0020801 -0.0029784 -0.0022123
-0.00017182 0.0014975 0.00037602 -0.00053276
0.0024914 0.0004557 0.26236 0.12561 -0.0022797 0.0017107 -0.0001678 0.0016655
0.00061645 0.0011706 0.00012542 0.00093055
-0.00040716 0.0020849 -0.0022743 0.0017242 0.10812 -0.2552 0.0018203 -0.0010402
0.0014708 0.0019765 -0.0010326 0.0013272
-0.002995 -0.002189 -0.00016398 0.0016606 0.0018173 -0.001048 0.1641 -0.13447
0.00066247 0.0046951 -0.0023935 0.00051361
-0.00016196 0.0015118 0.00063203 0.0011625 0.0014695 0.0019655 0.00067931 0.0046829
0.24686 0.028342 0.0047778 0.0012774
0.000362 -0.00054154 0.00012898 0.00092424 -0.0010433 0.0013306 -0.0023849 0.00051717
0.004777 0.0012783 0.27395 0.064993
1940000000 0.1784 -0.17404 0.0003529 -0.0013018 0.0013138 0.0017427 -0.0038401 0.00058751
0.0011652 0.00091949 -0.00067539 -0.00065176
0.00036043 -0.0012964 0.2631 0.093948 -0.00095742 0.0038557 0.00098406 0.0013255
0.0017996 0.00038272 0.00083946 0.00022548
0.0013203 0.0017314 -0.00092796 0.0038737 0.062491 -0.24804 0.0004006 -0.0022836
0.0025064 0.00046636 0.00024479 0.0017339
-0.0038356 0.00059718 0.00099112 0.0013175 0.00038527 -0.0022656 0.11211 -0.16524
-0.00022985 0.0037388 -0.0013505 0.0014945
0.0011653 0.00091137 0.0018196 0.00037812 0.0024936 0.00043686 -0.0002251 0.0037568
0.24874 -0.010287 0.003711 -0.0020875
-0.00069671 -0.00064806 0.0008531 0.00023614 0.00022752 0.0017014 -0.0013731 0.0015064
0.003719 -0.0020811 0.26311 0.029115
2000000000 0.13193 -0.18897 -0.0033113 0.00048894 0.0025011 0.0015588 -0.0022134 0.0035513
0.001084 0.00021148 -0.00080406 0.0003399
-0.0033113 0.0004883 0.24921 0.058401 -0.00079912 0.0056221 0.0015965 0.00040759
0.0012373 -0.0013564 0.00049768 6.1542e-05
0.0025028 0.0015504 -0.00077872 0.0056339 0.01886 -0.23343 -0.0014043 -0.0013271
0.0019334 -0.0011412 0.0016197 0.0013681
-0.002186 0.0035646 0.0016019 0.00039386 -0.0014126 -0.0013156 0.058708 -0.17555
-0.001773 0.0037242 -7.7551e-05 0.0021608
0.0010673 0.00018171 0.0012353 -0.001372 0.0019327 -0.001146 -0.0017708 0.0037238
0.24264 -0.044081 0.00027268 -0.002837
