!Keysight Technologies,M9804A,MY58100912,A.14.10.03
!Date: Thursday, April 27, 2023 10:28:33
!Correction: S11(C  6-Port  ) 
!S12(C  6-Port  ) 
!S13(C  6-Port  ) 
!S14(C  6-Port  ) 
!S15(C  6-Port  ) 
!S16(C  6-Port  ) 
!S21(C  6-Port  ) 
!S22(C  6-Port  ) 
!S23(C  6-Port  ) 
!S24(C  6-Port  ) 
!S25(C  6-Port  ) 
!S26(C  6-Port  ) 
!S31(C  6-Port  ) 
!S32(C  6-Port  ) 
!S33(C  6-Port  ) 
!S34(C  6-Port  ) 
!S35(C  6-Port  ) 
!S36(C  6-Port  ) 
!S41(C  6-Port  ) 
!S42(C  6-Port  ) 
!S43(C  6-Port  ) 
!S44(C  6-Port  ) 
!S45(C  6-Port  ) 
!S46(C  6-Port  ) 
!S51(C  6-Port  ) 
!S52(C  6-Port  ) 
!S53(C  6-Port  ) 
!S54(C  6-Port  ) 
!S55(C  6-Port  ) 
!S56(C  6-Port  ) 
!S61(C  6-Port  ) 
!S62(C  6-Port  ) 
!S63(C  6-Port  ) 
!S64(C  6-Port  ) 
!S65(C  6-Port  ) 
!S66(C  6-Port  ) 
!S6P File: Measurement: :
# Hz S  RI   R 50
500000000 -0.33609 -0.03928 -0.0092583 -0.0022752 -0.0075407 0.012359 -0.0040502 0.01234
0.012594 0.0043748 -0.0047144 0.0090143
-0.0092612 -0.0022708 -0.41863 -0.051955 0.0082564 -0.011079 0.0016259 0.011587
0.0077694 0.0023794 0.0017456 0.01303
-0.0075227 0.012397 0.0082403 -0.011094 -0.26477 0.20855 0.0078989 0.0031303
-0.0017034 0.0078554 0.0019544 0.011808
-0.0040345 0.012342 0.001641 0.011609 0.0079095 0.0031265 -0.32978 0.0439
-0.018004 -0.0060092 0.016235 0.02647
0.012716 0.004411 0.0077923 0.0023037 -0.0017198 0.0078336 -0.018028 -0.0060046
-0.22355 -0.19586 -0.025024 0.0049092
-0.0047144 0.0090661 0.0017614 0.013057 0.0019554 0.011794 0.016211 0.02645
-0.025029 0.0049324 -0.26541 -0.13314
560000000 -0.31476 0.12255 -0.02403 -0.064159 0.00033229 0.012 0.0054058 0.010551
0.010413 0.0042991 0.011462 0.0078157
-0.024029 -0.064106 -0.37802 0.10632 -0.040813 -0.037789 0.013999 0.0038663
-0.013314 -0.0042451 0.0030636 0.00011025
0.00038622 0.011994 -0.040941 -0.03773 -0.18299 0.25661 -0.00094353 -0.0043341
0.019152 0.0040771 0.0069582 -0.0063936
0.0054276 0.010509 0.014009 0.0038623 -0.00093969 -0.004364 -0.30493 0.13171
0.0046208 -0.02357 0.0040862 -0.021544
0.010467 0.0042154 -0.013345 -0.0041537 0.019181 0.0040879 0.004583 -0.023549
-0.28907 -0.022111 0.0089768 -0.049012
0.011489 0.00777 0.0031147 0.00012165 0.0069473 -0.0063843 0.0040464 -0.021547
0.0089753 -0.049004 -0.32862 0.014686
620000000 -0.27502 0.10605 -0.023158 0.0074867 0.0026954 0.0084622 0.0078043 -0.0056699
0.011334 -0.00041484 0.001786 -0.0029629
-0.023149 0.0074805 -0.40207 0.059061 -0.018391 -0.00029683 -0.0014966 -0.002002
0.011087 -0.0069812 0.0014996 -0.0036116
0.0027316 0.0084639 -0.018423 -0.00024806 -0.15376 0.26522 -0.0014878 -0.0051194
-0.0035009 -0.0029904 0.0083607 -0.0036765
0.007829 -0.0057192 -0.0015106 -0.0020028 -0.0014861 -0.0051118 -0.26566 0.14337
-0.03695 -0.019956 0.011848 0.026268
0.011324 -0.00036276 0.011077 -0.0070444 -0.0034701 -0.0030171 -0.036947 -0.019901
-0.20861 -0.059237 -0.041286 0.013555
0.0017356 -0.0029353 0.0014927 -0.0035964 0.0083969 -0.0036871 0.011874 0.026271
-0.04128 0.01352 -0.25002 -0.022482
680000000 -0.23453 0.19168 -0.027488 -0.014686 0.0048755 0.0051755 0.0010587 -0.0072152
-0.003334 -0.011215 0.0048607 -0.0067056
-0.027464 -0.014693 -0.38779 0.15644 -0.033051 -0.0016016 -0.0019164 -0.00045509
-0.0021805 -0.0084659 -0.0012185 -0.0019158
0.004887 0.0051745 -0.033094 -0.0015103 -0.10284 0.28566 -0.00084033 -3.6766e-05
-0.0019117 0.0011519 -0.0029218 -0.0090817
0.0010534 -0.0071959 -0.0019153 -0.00045994 -0.00083425 -4.3021e-05 -0.22114 0.19273
-0.023892 -0.0080913 -0.009637 -0.010982
-0.0034021 -0.011159 -0.0022065 -0.0084735 -0.001907 0.0011624 -0.023888 -0.0080522
-0.25797 0.038696 -0.0051243 -0.0091334
0.0048624 -0.0067151 -0.0012536 -0.0019042 -0.0029398 -0.0090922 -0.0096352 -0.010985
-0.0051001 -0.0091669 -0.26137 0.084228
740000000 -0.19076 0.18613 -0.038726 0.026411 0.012794 -0.0049046 -5.5476e-05 -0.0043183
-0.0044497 -0.0025903 -0.005878 0.002454
-0.038686 0.026371 -0.3354 0.17548 -0.03569 0.035087 -0.00068107 -0.0060367
-0.011546 0.0086491 -0.0019599 -0.0063418
0.01278 -0.0049152 -0.035606 0.03524 -0.069443 0.28426 -0.001941 0.0032336
-0.0019968 -0.0048433 -0.0018051 -0.0003315
-4.7156e-05 -0.0043291 -0.00070509 -0.0060648 -0.0019435 0.0032416 -0.20413 0.20074
-0.043617 -0.007335 0.02283 0.014971
-0.0044699 -0.0025572 -0.011464 0.0087016 -0.0019995 -0.0048521 -0.043601 -0.0072615
-0.15974 0.064359 -0.043669 -0.00061766
-0.0058036 0.0024995 -0.0019421 -0.0062674 -0.0018578 -0.00032143 0.022853 0.01495
-0.043602 -0.00065382 -0.24878 0.09006
800000000 -0.15814 0.22677 -0.022692 0.016688 0.0053426 -0.010636 -0.0047943 -0.0018659
-0.004051 0.0023974 0.0046773 0.00054425
-0.022689 0.016663 -0.33868 0.24593 -0.0080438 0.034216 -0.0023385 0.0022291
-0.00040055 0.0031151 0.0010342 0.0051517
0.0053233 -0.010663 -0.0079458 0.034284 -0.028739 0.30804 0.0011736 0.001483
0.00044139 0.0034503 -0.0017366 0.0010163
-0.0048027 -0.0018514 -0.0023331 0.0022537 0.0011787 0.0014907 -0.1763 0.22874
-0.02926 0.013579 0.013632 -0.0098731
-0.004037 0.0024025 -0.0003842 0.0031366 0.00044486 0.0034336 -0.029267 0.013665
-0.20802 0.088027 -0.018289 0.01882
0.0046692 0.00054006 0.0010449 0.005161 -0.0017451 0.0010185 0.013633 -0.0098942
-0.018284 0.018847 -0.24507 0.1402
860000000 -0.12371 0.24747 -0.017768 0.030934 -0.0035016 -0.0099714 -0.0024244 0.0010212
0.0042062 0.0049453 -0.0031321 -0.0032023
-0.017777 0.030892 -0.29127 0.28826 0.0079065 0.034472 7.6065e-05 0.0019743
0.0041477 -9.5548e-05 0.0034077 0.00074338
-0.0035331 -0.009969 0.0080225 0.03448 0.019506 0.31631 -0.00062113 -0.00032474
0.0026087 -0.0015954 0.0014726 0.0043932
-0.0024237 0.0010163 9.5211e-05 0.0019683 -0.00062345 -0.00032983 -0.14012 0.24059
-0.018571 0.018973 -0.0059701 -0.0094697
0.0042268 0.0049314 0.0041836 -9.8433e-05 0.0026146 -0.0016096 -0.018556 0.019034
-0.15746 0.1398 -0.026303 0.015045
-0.0031481 -0.0031821 0.0034072 0.00070628 0.0014783 0.0043846 -0.0059787 -0.0094635
-0.026293 0.015039 -0.19321 0.18709
920000000 -0.098837 0.27084 0.0050061 0.038209 -0.0095609 -0.0042856 -0.0017869 0.0020837
0.0013238 0.0019057 0.0025698 -0.0016693
0.0049802 0.038157 -0.26224 0.30981 0.028296 0.022161 0.0015079 0.0010723
0.0068485 -0.00074682 0.0039223 -0.002553
-0.0095771 -0.004271 0.028396 0.022099 0.066034 0.31691 0.0018118 -8.9822e-05
0.0011741 -0.0003895 0.0009133 -0.00091105
-0.0018022 0.0020816 0.0015179 0.001066 0.0018111 -9.4218e-05 -0.11622 0.25794
-0.011048 0.030978 0.0035503 -0.0063801
0.0013135 0.0019178 0.0068624 -0.0007858 0.0011677 -0.00038554 -0.010995 0.031014
-0.14807 0.14694 -0.0032479 0.027589
0.0025626 -0.0016611 0.0039442 -0.0025971 0.00092505 -0.00091498 0.0035359 -0.0063914
-0.0032605 0.027592 -0.20268 0.20025
980000000 -0.051432 0.29036 0.017535 0.030274 -0.0089844 0.0047905 0.0021652 0.0036297
0.0039693 -0.0012825 -0.0031921 -0.0022485
0.017494 0.030244 -0.20933 0.3437 0.033386 0.0048878 0.0020779 -6.3614e-05
0.0012219 -0.0058008 -0.00024496 -0.002459
-0.0089599 0.0048151 0.03343 0.0047701 0.1125 0.31022 0.00050914 -0.0011213
0.00021992 -0.0020803 0.0015454 -0.00023787
0.0021777 0.003608 0.0020857 -4.8947e-05 0.00051227 -0.0011219 -0.077886 0.26971
0.0078717 0.030093 -0.0094041 -0.0073472
0.0039514 -0.0012973 0.0011646 -0.0057865 0.00021179 -0.0020844 0.0079475 0.030093
-0.11707 0.17616 0.0044783 0.019462
-0.0032324 -0.0022294 -0.00025278 -0.0024624 0.0015332 -0.00025575 -0.0094083 -0.0073283
0.0044534 0.019467 -0.16079 0.24641
1040000000 -0.008997 0.29874 0.033403 0.018355 -0.0011595 0.0070765 0.0026496 0.00057989
0.00012507 -0.0038877 -0.00026042 -0.0012846
0.033353 0.018355 -0.17353 0.35683 0.029566 -0.015003 0.0013687 -0.0017746
-0.0027425 -0.0024965 -0.0014576 -0.0023944
-0.0011171 0.0070829 0.029527 -0.015118 0.1587 0.29648 -0.00049671 -0.0015352
-0.0015642 -0.00090301 -0.00031792 -0.0011355
0.0026413 0.00057134 0.0013836 -0.0017676 -0.00050214 -0.0015394 -0.049963 0.28008
0.019578 0.018381 -0.0024311 0.0017637
0.00010142 -0.0039137 -0.0027077 -0.0024574 -0.0015646 -0.00090061 0.01963 0.018355
-0.084726 0.18524 0.013261 0.018952
-0.00027638 -0.0012847 -0.0014633 -0.0023994 -0.00032434 -0.001128 -0.0024319 0.0017551
0.013263 0.01894 -0.13911 0.26671
1100000000 0.036478 0.30634 0.036092 -0.0042171 0.0031191 0.0039587 0.0023673 -0.0014525
-0.0020489 -0.0031105 -0.0038057 3.9283e-06
0.036053 -0.0041954 -0.13004 0.3742 0.015162 -0.027997 -7.7878e-05 -0.001798
-0.003242 -0.00057626 -0.0033721 -0.00046827
0.0031357 0.003947 0.015057 -0.028099 0.20513 0.276 -0.0018293 0.00031869
-0.001779 0.00052621 -0.0010413 -0.00049425
0.0023638 -0.0014663 -7.9709e-05 -0.001797 -0.0018337 0.00031213 -0.0092259 0.28522
0.024773 0.0049992 -0.0025027 0.00030973
-0.0020543 -0.0031021 -0.0032528 -0.00054973 -0.0018015 0.00053535 0.024807 0.0049654
-0.066855 0.19931 0.019035 0.0090316
-0.0038192 1.0251e-05 -0.0033888 -0.00045413 -0.0010439 -0.00049942 -0.0024989 0.00030884
0.019016 0.009041 -0.093627 0.29743
1160000000 0.087861 0.30139 0.024136 -0.020813 0.0028665 -0.0006518 -0.00039701 -0.0024796
-0.0042494 -0.00073756 -0.0008463 0.0041171
0.02411 -0.020779 -0.086028 0.37833 -0.0038382 -0.02928 -0.0017725 -0.0016436
-0.0025785 0.0024727 -0.0012849 0.0018714
0.0028919 -0.00066596 -0.003982 -0.029287 0.24828 0.24501 -0.00061395 0.0017162
-0.00057001 0.0018493 -0.0010218 0.00025259
-0.00040471 -0.0024916 -0.00177 -0.0016232 -0.0006162 0.00172 0.030628 0.28234
0.02111 -0.01055 -0.0027704 0.005411
-0.0042565 -0.0007131 -0.0025524 0.0025037 -0.00056546 0.0018517 0.021109 -0.010577
-0.033047 0.20948 0.018372 0.00096032
-0.00083857 0.004106 -0.0012726 0.001875 -0.001014 0.00026078 -0.0027676 0.005416
0.018363 0.00097076 -0.046793 0.3006
1220000000 0.13221 0.28992 0.01051 -0.030236 -0.0015172 -0.0010659 -0.00012842 -0.0009002
-0.0026582 0.0024795 0.0013935 0.0020122
0.010519 -0.030192 -0.041493 0.39009 -0.01704 -0.021131 -0.0024642 0.00046833
0.00010776 0.0028493 -0.00076628 0.0018489
-0.0015242 -0.0010528 -0.017162 -0.021081 0.28744 0.20566 0.00081764 0.0015124
0.000549 0.001106 0.0002609 0.00063279
-0.00013325 -0.00089508 -0.0024626 0.00048888 0.00081516 0.0015155 0.070498 0.27356
0.010203 -0.017168 0.0024832 0.0014987
-0.0026588 0.0025102 0.00011873 0.00286 0.00054131 0.0011044 0.01019 -0.017174
-0.010139 0.21904 0.014585 -0.012602
0.0013932 0.0019968 -0.00075537 0.0018572 0.00026892 0.00062247 0.0024614 0.0014994
0.014555 -0.012585 -0.015759 0.31793
1280000000 0.18199 0.26777 -0.0078904 -0.028646 -0.0019328 0.0023236 -0.00094305 -0.0018954
-0.00074321 0.0031045 0.0024701 0.0010604
-0.0078698 -0.028633 0.0045968 0.3808 -0.023854 -0.0083572 -0.00087554 0.0014303
0.001596 0.0016641 0.000602 0.0021121
-0.0019152 0.0023317 -0.023922 -0.0082448 0.31769 0.16164 0.0015031 -0.00010309
0.0010333 0.00031489 0.00042564 0.00043829
-0.00095404 -0.00189 -0.00087775 0.0014344 0.0015034 -9.6715e-05 0.1074 0.25696
0.00074887 -0.018907 0.0001463 -1.7869e-05
-0.00072417 0.0031094 0.0016045 0.0016589 0.0010428 0.00031769 0.00070627 -0.018918
0.026839 0.2232 0.0034866 -0.014692
0.0024712 0.0010468 0.00062119 0.0021056 0.00042722 0.00045166 0.00014698 -1.9179e-05
0.0034836 -0.014682 0.032895 0.32067
1340000000 0.21901 0.23367 -0.017641 -0.019125 0.00073921 0.0043581 -0.0016645 -0.00075143
0.0014966 0.0026984 0.0016633 -0.001422
-0.017602 -0.019111 0.04388 0.37206 -0.021547 0.0042785 -8.8108e-05 0.0018991
0.0017937 0.00077387 0.0013169 0.00078581
0.00076455 0.0043552 -0.02155 0.0044004 0.33943 0.11369 0.0010151 -0.00085985
0.00066302 -0.00040235 0.00025634 0.0003457
-0.00167 -0.00073979 -8.8704e-05 0.0019022 0.0010206 -0.00086198 0.13963 0.23645
-0.0085876 -0.015918 0.00098306 0.00019645
0.0015029 0.0027003 0.0017965 0.00076532 0.0006685 -0.00040217 -0.0086319 -0.015907
0.057342 0.21895 -0.0031189 -0.013378
0.0016498 -0.0014322 0.0013268 0.00078258 0.00026713 0.00033657 0.00098637 0.00019093
-0.0031201 -0.013388 0.071241 0.31671
1400000000 0.2516 0.19511 -0.023505 -0.0076262 0.0049636 0.003073 -0.0019377 0.00062695
0.0024337 0.00086867 0.00031011 -0.0013355
-0.023466 -0.0076473 0.080898 0.35863 -0.014746 0.012339 0.0012484 0.0012799
0.0010535 -0.0007558 0.001253 0.00022962
0.0049801 0.0030508 -0.014715 0.012437 0.35251 0.060277 0.00013791 -0.0015213
1.0593e-05 -0.00039649 0.00047407 0.00025075
-0.0019409 0.0006408 0.0012564 0.0012683 0.00013653 -0.0015168 0.16888 0.20781
-0.014149 -0.0092565 -0.00083223 -0.00073064
0.0024468 0.00084538 0.0010398 -0.00075493 -4.0717e-06 -0.00038814 -0.014173 -0.0092253
0.090499 0.21468 -0.0094961 -0.0089493
0.00030196 -0.001353 0.0012549 0.00022745 0.00047533 0.00025853 -0.00083181 -0.00073671
-0.0094849 -0.0089652 0.11676 0.30603
1460000000 0.27384 0.15101 -0.020614 0.0046157 0.0054753 -0.0018222 -0.0015737 0.0016235
0.0020682 -0.0006678 -0.000384 -0.00094141
-0.020594 0.0045913 0.11459 0.33663 -0.0060564 0.015139 0.0016866 0.0002139
0.00091951 -0.0012027 0.0011403 -0.00062465
0.005477 -0.0018616 -0.0059877 0.015184 0.3585 0.006178 -0.0012118 -0.0011749
0.00015791 -0.0003035 0.00064964 -0.00031349
-0.0015713 0.0016314 0.0016853 0.00020486 -0.0012278 -0.0011833 0.19511 0.179
-0.01507 -0.002553 -0.0010543 0.0017973
0.0020675 -0.00068141 0.00090526 -0.0012222 0.00016076 -0.00028993 -0.015092 -0.0025306
0.11986 0.20015 -0.011592 -0.0031455
-0.00038678 -0.00094333 0.0011332 -0.00061876 0.00063847 -0.00031303 -0.0010391 0.0017963
-0.011606 -0.0031391 0.15017 0.28561
1520000000 0.28551 0.10944 -0.014973 0.010335 0.0031729 -0.0040444 6.024e-05 0.0025343
0.0019917 -0.0017356 -0.0010621 -5.8947e-05
-0.014969 0.010312 0.1477 0.32194 0.0014556 0.01297 0.0016107 -0.00072902
4.4001e-05 -0.0010081 0.00034238 -0.0010518
0.0031479 -0.0040592 0.0015228 0.012977 0.35152 -0.050235 -0.0010186 -0.00034231
0.00060662 -0.00085255 2.7819e-06 -0.00015919
6.5658e-05 0.002534 0.0016155 -0.0007367 -0.0010151 -0.00034495 0.21839 0.14144
-0.014262 0.0027938 0.001223 0.0019893
0.0019748 -0.0017636 3.6101e-05 -0.0010184 0.00060037 -0.00086174 -0.014263 0.0028329
0.1477 0.18613 -0.011581 0.0012573
-0.0010626 -7.1335e-05 0.00033884 -0.0010583 1.7426e-05 -0.00015095 0.0012274 0.0019927
-0.011575 0.0012485 0.18386 0.26548
1580000000 0.29453 0.063624 -0.0082443 0.013549 -0.00093519 -0.0046357 0.0012927 0.0018785
-0.00040352 -0.0020464 -0.00027447 0.00039424
-0.0082484 0.013544 0.17463 0.29736 0.0049875 0.0082474 0.00050064 -0.0015666
-0.0005414 -0.0010431 -0.00029699 -0.00078653
-0.00096668 -0.0046289 0.0050364 0.0082273 0.33122 -0.10773 -0.0015325 0.00055511
-0.00030355 -0.0011097 0.00020509 -0.00045213
0.0013081 0.0018856 0.00048184 -0.0015655 -0.0015349 0.0005583 0.23261 0.10252
-0.010744 0.0074606 0.0021044 0.00091871
-0.00042476 -0.0020447 -0.00056023 -0.0010415 -0.00031138 -0.0011085 -0.010727 0.0074913
0.17214 0.16846 -0.0092804 0.0071712
-0.00027943 0.00039218 -0.00029833 -0.00079185 0.00020024 -0.00045597 0.0021087 0.00091876
-0.0092785 0.0071569 0.21673 0.23868
1640000000 0.29644 0.022741 -0.0014227 0.012504 -0.0025892 -0.0025256 0.0026935 0.0010391
-0.00067732 -0.0014035 -0.00018832 0.00046287
-0.001431 0.012494 0.20389 0.27265 0.0057851 0.0036099 -0.0006317 -0.0017155
-0.00097105 -0.00040601 -0.00048616 -0.00066228
-0.0026049 -0.0025179 0.0058254 0.0035754 0.30294 -0.15652 -0.00067378 0.0013654
-0.0009782 -0.0010005 -0.00016523 -0.00041234
0.00269 0.0010222 -0.00063889 -0.0017187 -0.00068513 0.0013643 0.2453 0.053927
-0.0065774 0.008378 0.0023961 -0.00065221
-0.00068384 -0.0014042 -0.00098149 -0.00040174 -0.00097268 -0.0010055 -0.006552 0.0084028
0.19464 0.14428 -0.0047449 0.0091355
-0.00018289 0.00045999 -0.0004866 -0.00065902 -0.00016875 -0.00041145 0.0023953 -0.00066539
-0.004749 0.0091325 0.24237 0.2078
1700000000 0.28931 -0.022365 0.0020934 0.009681 -0.0033643 0.00017187 0.0030501 -0.0011044
-0.0019495 -0.00055242 0.00058495 0.00038662
0.0020834 0.0096758 0.22185 0.24138 0.0038503 0.00076077 -0.0014503 -0.00058007
-0.00078514 8.7251e-05 -0.00089888 -0.00040735
-0.0033667 0.00018552 0.0038664 0.0007399 0.2597 -0.19625 0.00043695 0.001675
-0.001854 -0.00020765 -0.00043533 -0.00083437
0.0030517 -0.0011198 -0.0014581 -0.0005647 0.00045224 0.0016616 0.24254 0.0044092
-0.0041138 0.0087533 0.0014484 -0.0021118
-0.001954 -0.00053571 -0.00078992 8.2398e-05 -0.0018453 -0.00019471 -0.0040965 0.0087689
0.21196 0.12437 -1.1914e-06 0.0094247
0.00058717 0.00037304 -0.00090001 -0.00040519 -0.00043912 -0.00084492 0.0014384 -0.002114
-7.4798e-06 0.009421 0.25898 0.17311
1760000000 0.27717 -0.070704 0.0044483 0.0063392 -0.0020768 0.00084809 0.0013708 -0.0033802
-0.001187 0.00073453 0.00041324 -0.00054456
0.0044388 0.0063355 0.24774 0.20178 0.0016561 -0.0011327 -0.0011946 0.00019265
-0.00096129 0.00088244 -0.00053178 0.00041383
-0.0020814 0.00086954 0.0016662 -0.0011395 0.21124 -0.22983 0.0011135 0.0010923
-0.0011252 0.0013504 -0.0013295 -0.0005396
0.00134 -0.0033831 -0.0011921 0.00018753 0.0011023 0.0010877 0.23382 -0.046932
-0.0010997 0.0078992 -0.00019008 -0.0024308
-0.0011807 0.00073345 -0.00095701 0.00087928 -0.0011276 0.0013601 -0.0010758 0.0079096
0.22681 0.089556 0.0038664 0.0069252
0.00041381 -0.00055006 -0.0005277 0.00042105 -0.0013214 -0.00053923 -0.00019302 -0.0024291
0.0038608 0.0069197 0.27187 0.13543
1820000000 0.25263 -0.10788 0.0046776 0.0027609 0.00010547 0.0023879 -0.000924 -0.0030765
-0.00099487 0.00089605 -8.3072e-05 -0.00010986
0.0046601 0.0027676 0.25777 0.17203 -0.00023512 0.00012059 -0.001265 0.00091073
-1.7505e-05 0.0013067 -0.00050692 0.0004937
0.00012092 0.0023818 -0.00023208 0.00012277 0.16079 -0.24527 0.0015771 0.00042133
-0.00030963 0.0022523 -0.0014084 0.00029621
-0.00093703 -0.0030849 -0.0012705 0.00092065 0.001573 0.00041873 0.20431 -0.094156
0.00010448 0.0064221 -0.0015683 -0.0014573
-0.00098506 0.00090432 -4.3925e-06 0.0013185 -0.00031355 0.0022538 0.00012788 0.0064334
0.24388 0.060775 0.0047525 0.0034187
-7.2182e-05 -8.9278e-05 -0.00050258 0.00049712 -0.0014011 0.0002839 -0.0015705 -0.0014496
0.0047424 0.0034036 0.27437 0.099408
1880000000 0.21766 -0.14815 0.0025139 0.00046533 -0.00040213 0.002055 -0.0029661 -0.0022412
-0.00015233 0.0015065 0.00036399 -0.00052209
0.0025094 0.00046762 0.26233 0.12567 -0.0022443 0.0017057 -0.00016661 0.0016656
0.0006296 0.0011612 0.00011546 0.00093774
-0.00038683 0.0020531 -0.0022442 0.0017213 0.10818 -0.25517 0.0018244 -0.0010292
0.0014533 0.0019379 -0.0010761 0.0013272
-0.0029835 -0.0022223 -0.00016139 0.0016674 0.0018239 -0.0010336 0.16413 -0.13444
0.00070017 0.0046675 -0.0023787 0.00049991
-0.00014621 0.0015069 0.00064023 0.0011498 0.0014685 0.0019353 0.0007115 0.0046638
0.24686 0.028437 0.0048025 0.0013036
0.00035861 -0.00052333 0.00013078 0.00093371 -0.0010537 0.0013329 -0.0023722 0.00050835
0.0047948 0.001313 0.27388 0.065149
1940000000 0.1784 -0.174 0.00037486 -0.001311 0.0013366 0.0017275 -0.003861 0.00059289
0.0011489 0.00091498 -0.00066607 -0.00066395
0.00036747 -0.0013113 0.26313 0.094001 -0.00092287 0.0038619 0.0010047 0.0013255
0.0017903 0.00040483 0.00082376 0.00022561
0.0013395 0.0017186 -0.00089725 0.0038747 0.062606 -0.2479 0.0004515 -0.0022256
0.0024794 0.00046818 0.00027257 0.00166
-0.0038507 0.00060922 0.001022 0.0013201 0.00045017 -0.0022211 0.11218 -0.16518
-0.00025523 0.0037285 -0.0013612 0.0014644
0.0011575 0.00092753 0.0018041 0.00038168 0.0024685 0.00046283 -0.00024249 0.0037302
0.24873 -0.0102 0.0037348 -0.002067
-0.00067897 -0.00065464 0.00082691 0.00022144 0.00026749 0.0016559 -0.0013581 0.0014715
0.003721 -0.0020712 0.26315 0.029239
2000000000 0.13199 -0.18896 -0.0033189 0.00049479 0.0024856 0.0015629 -0.0022273 0.0035216
0.0011549 0.00020367 -0.00075658 0.00039
-0.0033143 0.00048809 0.2492 0.05847 -0.0008127 0.0056239 0.0016041 0.00042456
0.0012376 -0.0013554 0.00047893 7.3903e-05
0.0024924 0.0015381 -0.00077932 0.0056375 0.018896 -0.23346 -0.0014119 -0.0013163
0.0019531 -0.0011573 0.001637 0.0013197
-0.0021977 0.0035357 0.0016146 0.00041928 -0.001411 -0.001314 0.058717 -0.17552
-0.0017583 0.0036984 -3.7763e-05 0.0021484
0.0011422 0.00017167 0.0012346 -0.0013718 0.0019417 -0.0011709 -0.0017472 0.0037104
0.24271 -0.044007 0.00029414 -0.0028213
