!Keysight Technologies,M9804A,MY58100912,A.14.10.03
!Date: Thursday, April 27, 2023 10:28:33
!Correction: S11(C  6-Port  ) 
!S12(C  6-Port  ) 
!S13(C  6-Port  ) 
!S14(C  6-Port  ) 
!S15(C  6-Port  ) 
!S16(C  6-Port  ) 
!S21(C  6-Port  ) 
!S22(C  6-Port  ) 
!S23(C  6-Port  ) 
!S24(C  6-Port  ) 
!S25(C  6-Port  ) 
!S26(C  6-Port  ) 
!S31(C  6-Port  ) 
!S32(C  6-Port  ) 
!S33(C  6-Port  ) 
!S34(C  6-Port  ) 
!S35(C  6-Port  ) 
!S36(C  6-Port  ) 
!S41(C  6-Port  ) 
!S42(C  6-Port  ) 
!S43(C  6-Port  ) 
!S44(C  6-Port  ) 
!S45(C  6-Port  ) 
!S46(C  6-Port  ) 
!S51(C  6-Port  ) 
!S52(C  6-Port  ) 
!S53(C  6-Port  ) 
!S54(C  6-Port  ) 
!S55(C  6-Port  ) 
!S56(C  6-Port  ) 
!S61(C  6-Port  ) 
!S62(C  6-Port  ) 
!S63(C  6-Port  ) 
!S64(C  6-Port  ) 
!S65(C  6-Port  ) 
!S66(C  6-Port  ) 
!S6P File: Measurement: :
# Hz S  RI   R 50
500000000 -0.33694 -0.039575 -0.0096611 -0.0026824 -0.0077432 0.012429 -0.0043127 0.012141
0.013146 0.0043014 -0.0050542 0.008408
-0.0096136 -0.0026921 -0.41892 -0.052026 0.008145 -0.010817 0.0014583 0.012132
0.0077807 0.0022682 0.0013495 0.013131
-0.007726 0.012448 0.0081449 -0.010847 -0.26531 0.20898 0.0078763 0.0034735
-0.0016398 0.0079496 0.00175 0.012112
-0.0043251 0.012036 0.001493 0.01216 0.0079138 0.003495 -0.33067 0.043859
-0.018397 -0.0061235 0.015746 0.027075
0.01314 0.0042319 0.0076682 0.0021923 -0.0016006 0.0079651 -0.018449 -0.0060757
-0.22232 -0.19797 -0.025234 0.0047129
-0.0050304 0.0086512 0.0012679 0.013168 0.0018034 0.01212 0.015697 0.027127
-0.025296 0.0047653 -0.266 -0.13564
560000000 -0.3154 0.12205 -0.023544 -0.063913 0.00015469 0.01209 0.0055977 0.010676
0.010512 0.00467 0.011555 0.0079956
-0.023436 -0.063835 -0.37875 0.10731 -0.040585 -0.037672 0.01379 0.004119
-0.012865 -0.0047251 0.0030664 4.3582e-05
0.00020723 0.012047 -0.040734 -0.037637 -0.18352 0.25723 -0.00072472 -0.0045799
0.01906 0.0048214 0.0069742 -0.0064725
0.0056352 0.010667 0.01393 0.0039334 -0.00071399 -0.0044746 -0.30562 0.13192
0.0045692 -0.023817 0.0045921 -0.020974
0.010455 0.0047031 -0.012891 -0.0047341 0.019034 0.0048787 0.0044204 -0.023912
-0.28883 -0.022477 0.0093391 -0.049263
0.011336 0.0078171 0.0031927 -9.7695e-05 0.0068422 -0.0065255 0.004649 -0.021241
0.0092693 -0.049347 -0.32881 0.012967
620000000 -0.27489 0.10683 -0.023181 0.0080142 0.0031847 0.0085331 0.0079816 -0.0056967
0.011124 -6.8003e-05 0.0018931 -0.0027719
-0.02317 0.00803 -0.40236 0.059508 -0.018423 0.00010141 -0.0013842 -0.001936
0.01123 -0.0069018 0.0016824 -0.0031924
0.0032308 0.0085409 -0.018447 0.00014801 -0.1536 0.26634 -0.0012911 -0.0049369
-0.003179 -0.0031556 0.0083365 -0.003338
0.0080673 -0.0056877 -0.0013868 -0.0019233 -0.0012645 -0.0049644 -0.26574 0.14354
-0.037271 -0.019784 0.012425 0.026419
0.011018 1.1983e-05 0.011232 -0.0068886 -0.0031707 -0.0031126 -0.037225 -0.019727
-0.20722 -0.061115 -0.041862 0.014014
0.0017178 -0.0028313 0.0015735 -0.0032863 0.0082315 -0.0033028 0.012458 0.026142
-0.041801 0.014149 -0.24929 -0.025467
680000000 -0.23477 0.1921 -0.027237 -0.014426 0.0049636 0.0050648 0.0011743 -0.0070958
-0.0031867 -0.011315 0.005011 -0.0067858
-0.027203 -0.014446 -0.38762 0.15723 -0.03263 -0.001394 -0.001621 -0.00044793
-0.0024005 -0.008796 -0.0013133 -0.0017752
0.0049878 0.0050632 -0.032671 -0.0013177 -0.10226 0.28628 -0.00076448 -0.0001613
-0.0018518 0.00067864 -0.0028067 -0.0091718
0.0011748 -0.0071504 -0.0016338 -0.00043097 -0.00078733 -0.00017284 -0.22088 0.19348
-0.02343 -0.0080052 -0.0097995 -0.011575
-0.0032995 -0.011286 -0.0024146 -0.0088086 -0.0018276 0.00065739 -0.023407 -0.0079836
-0.25787 0.037482 -0.004883 -0.0090095
0.005029 -0.0071336 -0.001243 -0.0018674 -0.0027767 -0.0091583 -0.010169 -0.011608
-0.0049583 -0.0090054 -0.26169 0.082438
740000000 -0.19073 0.18663 -0.03868 0.026738 0.012655 -0.005243 -0.0002621 -0.0041858
-0.0042212 -0.0029193 -0.0062918 0.0025082
-0.038642 0.02665 -0.33476 0.17634 -0.035433 0.035018 -0.00068086 -0.0060943
-0.011877 0.0083375 -0.0019658 -0.0063804
0.012631 -0.0052284 -0.03536 0.03513 -0.068287 0.28459 -0.0021419 0.0032281
-0.0023708 -0.0047227 -0.0015747 -5.1532e-05
-0.00024553 -0.0041673 -0.00068421 -0.0061154 -0.0020958 0.003247 -0.20405 0.20145
-0.043217 -0.007576 0.022943 0.01501
-0.0042689 -0.002841 -0.01183 0.0083833 -0.002433 -0.0047064 -0.043279 -0.0074955
-0.15912 0.062804 -0.044042 -0.0002079
-0.0063238 0.002425 -0.0019675 -0.0063146 -0.0016109 3.5306e-05 0.023009 0.014992
-0.043961 -7.4753e-05 -0.24939 0.088501
800000000 -0.15765 0.22735 -0.022552 0.016662 0.005278 -0.010621 -0.00475 -0.0020577
-0.0041387 0.0021572 0.0045368 0.00029001
-0.022549 0.016638 -0.33813 0.24635 -0.0079015 0.03383 -0.0023215 0.0022402
-0.00058488 0.0030255 0.0011039 0.0050342
0.00524 -0.010629 -0.0078018 0.033895 -0.027855 0.30776 0.0011431 0.0015429
0.0002405 0.0035096 -0.0017303 0.00087693
-0.0047477 -0.0020638 -0.002315 0.0022536 0.0011334 0.0015187 -0.17574 0.22913
-0.028531 0.013352 0.013508 -0.01039
-0.004129 0.0021983 -0.00053732 0.003066 0.0002645 0.003506 -0.028512 0.013426
-0.20648 0.086963 -0.017789 0.018846
0.0045107 0.00041485 0.0010712 0.0051263 -0.0017273 0.00091545 0.01352 -0.010377
-0.017869 0.018829 -0.24596 0.13822
860000000 -0.12297 0.24756 -0.017447 0.030576 -0.0033727 -0.0099424 -0.0023393 0.00096529
0.0040416 0.0049372 -0.0031302 -0.002753
-0.017446 0.030542 -0.29057 0.28817 0.0078464 0.033923 5.0007e-05 0.0018992
0.0042514 0.0001295 0.0034436 0.0007337
-0.0034017 -0.0099497 0.0079715 0.033944 0.020167 0.31555 -0.00053804 -0.00029976
0.0027995 -0.0015224 0.0012902 0.0044992
-0.0023207 0.0009869 7.7534e-05 0.0019417 -0.00053092 -0.0002987 -0.13934 0.24029
-0.018134 0.01825 -0.0063046 -0.0092172
0.0041565 0.0049716 0.0043333 0.00012489 0.0027966 -0.0015232 -0.018115 0.018269
-0.15629 0.13868 -0.026753 0.015046
-0.0031725 -0.0027782 0.0034714 0.00073708 0.0013445 0.0045096 -0.0062049 -0.0091635
-0.026726 0.015167 -0.19415 0.18585
920000000 -0.098522 0.27062 0.0049957 0.037799 -0.0094493 -0.0043395 -0.00191 0.0020173
0.00117 0.0019748 0.0026626 -0.0015655
0.0049732 0.037761 -0.26153 0.30956 0.027981 0.021849 0.0013145 0.0011337
0.0069694 -0.00060577 0.0040176 -0.0026432
-0.0094845 -0.0043073 0.028104 0.021803 0.066359 0.31619 0.0017944 -8.2081e-05
0.0011767 -0.0003894 0.00087551 -0.0010263
-0.0019006 0.0020067 0.0013503 0.0011311 0.0018022 -6.4918e-05 -0.11558 0.25732
-0.01125 0.03027 0.003587 -0.0065086
0.0011649 0.0018866 0.0070064 -0.00064632 0.0011902 -0.00040963 -0.011131 0.030326
-0.14732 0.14488 -0.0034916 0.027626
0.0027855 -0.0015232 0.0039488 -0.0027161 0.00090958 -0.0010207 0.003616 -0.0062843
-0.003448 0.027563 -0.20394 0.19904
980000000 -0.051035 0.29019 0.0174 0.029945 -0.0089377 0.0046975 0.002073 0.003655
0.004005 -0.0012856 -0.0033661 -0.0022588
0.017382 0.029908 -0.20875 0.34348 0.032758 0.0048707 0.0020249 2.8896e-05
0.0014594 -0.0057416 -0.00023923 -0.0024039
-0.0089172 0.0047255 0.032828 0.0047894 0.11251 0.30943 0.0004533 -0.0011377
0.00021439 -0.0020467 0.0015516 -0.0001799
0.0021106 0.0036397 0.0020322 5.5166e-05 0.0004543 -0.0011409 -0.077399 0.26862
0.0073897 0.029567 -0.0093989 -0.0072087
0.0039888 -0.0013273 0.0014177 -0.0057447 0.00022016 -0.0020583 0.0074454 0.02956
-0.11659 0.17394 0.0043434 0.019483
-0.003307 -0.0021736 -0.00021319 -0.0024327 0.0015362 -0.00017373 -0.0094316 -0.0072198
0.0043038 0.019442 -0.16145 0.24532
1040000000 -0.008777 0.29839 0.033083 0.018134 -0.0011375 0.006892 0.0026264 0.00074431
0.0001427 -0.003816 -0.0003323 -0.0013903
0.033035 0.018099 -0.17306 0.35642 0.029198 -0.014715 0.0014865 -0.0016704
-0.0025457 -0.0024525 -0.0013668 -0.0024244
-0.0011194 0.00688 0.029195 -0.014821 0.15841 0.29571 -0.00050654 -0.0014706
-0.0016822 -0.0007647 -0.00046932 -0.0010828
0.0026146 0.00072638 0.0014802 -0.001635 -0.00049784 -0.0014667 -0.050039 0.27887
0.018665 0.017983 -0.0023613 0.0016986
0.00012579 -0.0038341 -0.0025343 -0.0023889 -0.0016603 -0.00075517 0.018745 0.017942
-0.084562 0.18259 0.013089 0.018893
-0.00032563 -0.0013465 -0.0013531 -0.0024445 -0.00045659 -0.0011015 -0.0022985 0.0017275
0.013092 0.018928 -0.14045 0.26567
1100000000 0.036556 0.30608 0.035603 -0.0042255 0.0029585 0.0038445 0.0023831 -0.0013021
-0.0020617 -0.0032068 -0.0040079 -3.2209e-05
0.035576 -0.004208 -0.12971 0.37346 0.015112 -0.027546 1.7877e-05 -0.0018011
-0.0032462 -0.00067801 -0.0034708 -0.00056043
0.0029748 0.0038115 0.01504 -0.027633 0.20457 0.27544 -0.0018215 0.00027279
-0.001755 0.0005469 -0.0010241 -0.00038378
0.0023783 -0.0013202 2.5232e-05 -0.0018072 -0.0018114 0.00027794 -0.0098705 0.28392
0.023845 0.0051501 -0.0024963 0.00017582
-0.0020652 -0.0031953 -0.0032808 -0.00065751 -0.0017612 0.00053798 0.023863 0.0051202
-0.066911 0.1968 0.018912 0.0089963
-0.0039878 9.1484e-06 -0.003402 -0.00053686 -0.0010291 -0.00033032 -0.0025538 0.00017083
0.018898 0.0089661 -0.09483 0.2967
1160000000 0.087944 0.30095 0.023852 -0.020556 0.0026809 -0.00057053 -0.00022681 -0.0024256
-0.0041792 -0.00076893 -0.00098005 0.0041432
0.023859 -0.020534 -0.086144 0.37746 -0.0035898 -0.028896 -0.0016956 -0.0016869
-0.002612 0.0024668 -0.0013346 0.0019645
0.0026846 -0.00058754 -0.0036992 -0.028897 0.2475 0.24475 -0.00063795 0.0017231
-0.00056367 0.0018792 -0.00095038 0.0002284
-0.00022741 -0.0024227 -0.0016993 -0.0016728 -0.00063268 0.0017186 0.029342 0.28143
0.020279 -0.0097996 -0.002904 0.0054283
-0.0042001 -0.00077204 -0.0025899 0.0025047 -0.00054357 0.0019001 0.020287 -0.0098212
-0.033526 0.2067 0.018082 0.0011511
-0.00092166 0.0041951 -0.0013306 0.0019446 -0.00092626 0.00022669 -0.0028981 0.0054159
0.018085 0.0012156 -0.047901 0.29964
1220000000 0.13225 0.28966 0.01038 -0.029752 -0.0015604 -0.00084004 -9.1088e-06 -0.00098493
-0.0026136 0.0024598 0.0013702 0.0019886
0.010388 -0.029721 -0.041965 0.38948 -0.016647 -0.020998 -0.0024837 0.00039085
0.00014467 0.0029011 -0.00074345 0.0018143
-0.0015619 -0.00085313 -0.016759 -0.020945 0.28669 0.20595 0.00083122 0.0015509
0.0005952 0.0010972 0.00030374 0.00065419
-1.0935e-05 -0.00098872 -0.0024796 0.00039974 0.00083434 0.0015345 0.069099 0.27332
0.010027 -0.016205 0.0023887 0.0015942
-0.0026241 0.0024799 0.00016065 0.0029029 0.00059412 0.0011 0.01003 -0.016219
-0.011174 0.2164 0.014483 -0.012182
0.0014081 0.0020008 -0.00073733 0.0018376 0.00030806 0.00065087 0.0023615 0.0015996
0.014439 -0.01215 -0.017201 0.31746
1280000000 0.18183 0.26745 -0.0077372 -0.028164 -0.0018227 0.0024356 -0.00097787 -0.0020313
-0.00077583 0.0030738 0.0024424 0.0011489
-0.0077009 -0.028144 0.003705 0.38043 -0.023461 -0.008581 -0.0010015 0.0014226
0.0016135 0.0016808 0.00057513 0.0020281
-0.0018084 0.0024343 -0.023534 -0.0084785 0.31742 0.16214 0.0015278 -8.1641e-05
0.0010191 0.00029399 0.00047716 0.00037335
-0.00097264 -0.0020396 -0.000991 0.0014249 0.0015273 -8.2598e-05 0.10596 0.25732
0.0010701 -0.018035 0.00019498 1.8434e-05
-0.00076746 0.0030686 0.0016471 0.0016591 0.0010236 0.00027516 0.0010497 -0.018051
0.025401 0.22059 0.0035746 -0.014311
0.0024975 0.001157 0.00058483 0.0020655 0.00047318 0.00039473 0.00018262 2.3143e-05
0.0035952 -0.014324 0.031482 0.32016
1340000000 0.21872 0.23356 -0.017302 -0.018838 0.00082454 0.0044167 -0.0017571 -0.00077584
0.0014917 0.0027071 0.0017265 -0.001419
-0.017269 -0.018824 0.042986 0.37239 -0.021429 0.0040204 -0.00015587 0.0019549
0.0018663 0.000746 0.0012676 0.00078142
0.00084854 0.0044285 -0.021437 0.0041222 0.33955 0.1143 0.00105 -0.00085858
0.00067898 -0.00050305 0.00019721 0.00027887
-0.0017574 -0.0007769 -0.00014139 0.0019592 0.0010471 -0.00086668 0.13861 0.2374
-0.0077996 -0.015362 0.0011068 0.00029603
0.0014872 0.0027085 0.001862 0.00073362 0.0006854 -0.00048637 -0.0078382 -0.015372
0.055191 0.21688 -0.0028025 -0.013013
0.0017584 -0.0014174 0.0012841 0.00077032 0.00023188 0.00028317 0.0011259 0.00031483
-0.002808 -0.013002 0.069593 0.31662
1400000000 0.25148 0.1953 -0.02304 -0.0075572 0.0050596 0.0030545 -0.0020249 0.00065737
0.0024112 0.00084756 0.00029318 -0.0013538
-0.023002 -0.0075664 0.080222 0.35948 -0.014854 0.012139 0.0012735 0.0013442
0.0010577 -0.00076364 0.0012307 0.00027397
0.0050708 0.0030257 -0.014808 0.012226 0.35293 0.060576 0.00012051 -0.0015329
-5.7009e-05 -0.0003637 0.0004676 0.00018464
-0.0020303 0.00066174 0.0012868 0.0013336 0.00011835 -0.0015438 0.1685 0.20902
-0.013261 -0.0091741 -0.00074141 -0.00072377
0.0024138 0.00083447 0.0010469 -0.00078161 -5.5804e-05 -0.00036082 -0.013275 -0.0091415
0.088251 0.21336 -0.0091164 -0.0088181
0.00030249 -0.0013291 0.0012424 0.0002977 0.00047599 0.00017219 -0.00074629 -0.00071176
-0.0091255 -0.0088517 0.11514 0.30622
1460000000 0.27394 0.15131 -0.020173 0.0044217 0.0054807 -0.001781 -0.0015738 0.0017137
0.0020532 -0.00061069 -0.00034137 -0.00096446
-0.020161 0.004398 0.11441 0.33786 -0.0063591 0.015118 0.0017319 0.00020146
0.00086578 -0.0011941 0.0011805 -0.00056371
0.0054662 -0.0018227 -0.0062911 0.01517 0.35896 0.0059682 -0.0012169 -0.001154
0.00015147 -0.00024413 0.0005531 -0.00031017
-0.0015656 0.0017143 0.0017485 0.00018939 -0.0012119 -0.0011517 0.19525 0.18022
-0.014318 -0.0029959 -0.0010476 0.0017507
0.0020532 -0.00063159 0.00084348 -0.001199 0.00015746 -0.00022175 -0.014338 -0.0029708
0.11767 0.19941 -0.011145 -0.0031821
-0.00036117 -0.00094801 0.0011791 -0.000553 0.00055882 -0.00033814 -0.001043 0.0017527
-0.011142 -0.0031979 0.14876 0.2858
1520000000 0.28594 0.10964 -0.014729 0.0099415 0.0032553 -0.0040675 0.00010269 0.0025806
0.0019987 -0.0017335 -0.0011032 -0.0001168
-0.014724 0.0099154 0.14813 0.32315 0.0012987 0.013083 0.0016335 -0.00075197
6.4352e-05 -0.00098099 0.00038603 -0.0010063
0.0032387 -0.0040767 0.0013751 0.013086 0.35191 -0.050407 -0.0010361 -0.0003366
0.00066434 -0.00074739 1.4258e-05 -8.4175e-05
0.00010943 0.0025819 0.0016286 -0.00075926 -0.0010347 -0.00032019 0.2191 0.14243
-0.013895 0.0021015 0.0012103 0.0019536
0.0020106 -0.0017384 5.6141e-05 -0.00098245 0.0006681 -0.00076343 -0.013898 0.0021511
0.14585 0.18591 -0.011326 0.0010073
-0.0010954 -9.4281e-05 0.0003682 -0.0010023 -3.1568e-06 -9.7615e-05 0.0012145 0.0019552
-0.011333 0.00097003 0.18267 0.2661
1580000000 0.29504 0.063551 -0.0082981 0.013095 -0.00084057 -0.0047906 0.0013906 0.0018735
-0.00037463 -0.0020065 -0.00029783 0.0004531
-0.0083032 0.013078 0.17561 0.29834 0.0050168 0.0084045 0.00049264 -0.0015577
-0.00051703 -0.0010073 -0.00022848 -0.0007787
-0.00086333 -0.0047797 0.0050687 0.0083835 0.33146 -0.10805 -0.0015353 0.00058678
-0.00022011 -0.0011249 0.00012577 -0.00043856
0.0013963 0.0018753 0.00049373 -0.0015727 -0.0015438 0.00058187 0.23364 0.1031
-0.010829 0.0067553 0.0021061 0.00082989
-0.00039805 -0.0020034 -0.00052388 -0.0010133 -0.00022567 -0.0011379 -0.010818 0.0067708
0.17063 0.16852 -0.0091699 0.0067687
-0.00031863 0.00045965 -0.0002454 -0.00079229 0.00011519 -0.00043202 0.0021113 0.00083009
-0.0091853 0.0067721 0.21577 0.23932
1640000000 0.29704 0.022388 -0.0017015 0.012252 -0.0026727 -0.0025959 0.0026921 0.0010192
-0.00063137 -0.0014008 -0.00018086 0.00052488
-0.0017038 0.012246 0.20524 0.27318 0.0058727 0.0036592 -0.0006227 -0.0017234
-0.00094505 -0.00044418 -0.00042843 -0.00075279
-0.0027009 -0.0025699 0.0058945 0.003631 0.3031 -0.15699 -0.00065158 0.0013837
-0.00099835 -0.0010704 -5.9791e-05 -0.00045239
0.002701 0.0010041 -0.00063591 -0.0017183 -0.0006455 0.0013691 0.24659 0.053899
-0.0069649 0.0079934 0.0023774 -0.0007311
-0.00064576 -0.0013974 -0.00094433 -0.00043565 -0.00099403 -0.0010602 -0.0069406 0.0080054
0.19358 0.14442 -0.0048564 0.0087535
-0.00019388 0.00053417 -0.00044655 -0.00074227 -6.8555e-05 -0.00046728 0.0023581 -0.00073724
-0.0048572 0.0087709 0.24145 0.20848
1700000000 0.28979 -0.022922 0.0017414 0.0096246 -0.0035133 0.00013302 0.0030432 -0.0011737
-0.0019264 -0.00068263 0.00061322 0.00038908
0.001745 0.0096199 0.22341 0.24136 0.0039221 0.0007221 -0.0014538 -0.00057727
-0.00078919 1.093e-05 -0.00090499 -0.0004713
-0.0035237 0.00015343 0.0039359 0.00069814 0.25952 -0.19711 0.0003828 0.0016013
-0.0019217 -0.00029693 -0.00046032 -0.0008162
0.0030381 -0.0011921 -0.001458 -0.00057545 0.00038414 0.0016042 0.24377 0.0036489
-0.0045319 0.0086741 0.0014195 -0.0021795
-0.0019206 -0.00065273 -0.00079704 1.465e-05 -0.0019005 -0.00030888 -0.0045256 0.008675
0.21126 0.12441 -0.00023322 0.0092732
0.0006107 0.00037401 -0.00090046 -0.00046337 -0.0004463 -0.0008297 0.0014279 -0.0021793
-0.00021998 0.0092699 0.25826 0.17385
1760000000 0.27746 -0.071513 0.0042266 0.0064758 -0.0022038 0.00095166 0.0013343 -0.0034131
-0.0012288 0.00064347 0.00039347 -0.00066147
0.0042202 0.0064697 0.24923 0.2012 0.0016773 -0.0010294 -0.0011676 0.00017852
-0.0010204 0.00087721 -0.00058782 0.00035117
-0.0021993 0.00097966 0.0016751 -0.0010335 0.21015 -0.23008 0.0011193 0.0011245
-0.0011435 0.0013502 -0.0012513 -0.00063329
0.0013104 -0.0034291 -0.0011696 0.00017928 0.0011132 0.0011157 0.23454 -0.048319
-0.0013928 0.0080308 -0.00032446 -0.0024414
-0.0012362 0.00065627 -0.0010202 0.00088295 -0.0011482 0.0013427 -0.0013689 0.0080281
0.22631 0.089424 0.0035851 0.0068244
0.00036426 -0.00066825 -0.00059567 0.00035982 -0.0012437 -0.00065687 -0.00031709 -0.0024263
0.003591 0.0068293 0.27113 0.13623
1820000000 0.25269 -0.10882 0.0045884 0.0028987 1.2922e-05 0.0023682 -0.00094522 -0.0030646
-0.0010833 0.00081065 -8.2617e-05 -7.3533e-05
0.0045785 0.0028983 0.25899 0.1709 -0.0001571 -7.6958e-06 -0.0013217 0.00089956
-7.4498e-05 0.0013289 -0.00059714 0.00053571
2.8478e-05 0.002379 -0.00015085 -7.6188e-06 0.16046 -0.24541 0.0014137 0.00047722
-0.00035945 0.0023094 -0.0014168 0.00032389
-0.00097609 -0.0030476 -0.0013231 0.00090961 0.0014001 0.00047262 0.20424 -0.095829
1.1402e-05 0.0065132 -0.001653 -0.0013837
-0.0010794 0.00082517 -7.6603e-05 0.001333 -0.00037284 0.0023071 9.4378e-06 0.0065215
0.24364 0.06035 0.0044677 0.0035034
-6.8603e-05 -4.0428e-05 -0.00059724 0.00054356 -0.0014174 0.00032747 -0.0016318 -0.0013452
0.0044529 0.0034876 0.27387 0.10027
1880000000 0.21732 -0.14924 0.0025162 0.00049344 -0.00046559 0.0020312 -0.0030025 -0.0021659
-0.0002659 0.0016148 0.00028692 -0.00051998
0.0025224 0.00049829 0.26305 0.12423 -0.0022665 0.0016261 -0.00022241 0.0016609
0.00060513 0.0012613 0.00010327 0.00094613
-0.0004359 0.0020449 -0.0022627 0.0016504 0.10796 -0.25514 0.001906 -0.00090343
0.0014586 0.0021038 -0.0010293 0.0013595
-0.0030091 -0.0021522 -0.00021993 0.001671 0.0018941 -0.00088856 0.16308 -0.136
0.00056316 0.0046269 -0.0024253 0.00057453
-0.00025693 0.0016192 0.00061309 0.0012739 0.0014453 0.0020899 0.00059411 0.0046284
0.24664 0.027557 0.0045898 0.00149
0.00027773 -0.0005168 0.00011063 0.00096245 -0.0010269 0.0013499 -0.002394 0.00054366
0.0046072 0.0014895 0.27345 0.066052
1940000000 0.17769 -0.17482 0.00032897 -0.0012858 0.0012652 0.0019462 -0.0038243 0.00050035
0.0011936 0.0010438 -0.00065981 -0.00051517
0.00033266 -0.0012921 0.26321 0.092425 -0.001131 0.0037909 0.00097487 0.0013313
0.0018939 0.0004573 0.00083311 0.0003121
0.0012867 0.0019567 -0.0011111 0.0038155 0.061978 -0.24833 0.00048764 -0.0022058
0.0025321 0.00049236 0.00025078 0.0015281
-0.0038143 0.00054781 0.00098264 0.0013283 0.000481 -0.0021961 0.11043 -0.16593
-0.00048691 0.0036258 -0.001316 0.0016144
0.0011952 0.0010232 0.0018953 0.00046797 0.0025259 0.00051156 -0.00048801 0.0036128
0.24826 -0.011553 0.0036341 -0.001811
-0.00064606 -0.00053141 0.00084918 0.00028387 0.00027572 0.001549 -0.0013601 0.001645
0.0036204 -0.0018287 0.26275 0.030466
2000000000 0.13107 -0.18936 -0.0035268 0.00058083 0.0025091 0.0016663 -0.0023313 0.003577
0.0011164 0.00024899 -0.00071874 0.00035927
-0.0035311 0.00059106 0.24873 0.057088 -0.00094399 0.0057342 0.0016234 0.00042732
0.0013591 -0.0014356 0.0005511 0.00012969
0.0025199 0.0016473 -0.00089972 0.005744 0.018594 -0.23347 -0.0012915 -0.0014744
0.0020966 -0.0011882 0.0016757 0.0013225
-0.0022746 0.0035901 0.0016287 0.00043011 -0.0012734 -0.0014756 0.056883 -0.17536
-0.002146 0.0038235 1.7182e-05 0.0021702
0.0011317 0.00027215 0.001339 -0.001432 0.0020884 -0.0011716 -0.0021435 0.0038357
0.24183 -0.045622 0.00045965 -0.002577
