!Keysight Technologies,M9804A,MY58100912,A.14.10.03
!Date: Thursday, April 27, 2023 10:28:33
!Correction: S11(C  6-Port  ) 
!S12(C  6-Port  ) 
!S13(C  6-Port  ) 
!S14(C  6-Port  ) 
!S15(C  6-Port  ) 
!S16(C  6-Port  ) 
!S21(C  6-Port  ) 
!S22(C  6-Port  ) 
!S23(C  6-Port  ) 
!S24(C  6-Port  ) 
!S25(C  6-Port  ) 
!S26(C  6-Port  ) 
!S31(C  6-Port  ) 
!S32(C  6-Port  ) 
!S33(C  6-Port  ) 
!S34(C  6-Port  ) 
!S35(C  6-Port  ) 
!S36(C  6-Port  ) 
!S41(C  6-Port  ) 
!S42(C  6-Port  ) 
!S43(C  6-Port  ) 
!S44(C  6-Port  ) 
!S45(C  6-Port  ) 
!S46(C  6-Port  ) 
!S51(C  6-Port  ) 
!S52(C  6-Port  ) 
!S53(C  6-Port  ) 
!S54(C  6-Port  ) 
!S55(C  6-Port  ) 
!S56(C  6-Port  ) 
!S61(C  6-Port  ) 
!S62(C  6-Port  ) 
!S63(C  6-Port  ) 
!S64(C  6-Port  ) 
!S65(C  6-Port  ) 
!S66(C  6-Port  ) 
!S6P File: Measurement: :
# Hz S  RI   R 50
500000000 -0.33664 -0.039278 -0.0093899 -0.0022883 -0.0079378 0.01252 -0.0043456 0.01192
0.013108 0.0046274 -0.0047561 0.008644
-0.0093981 -0.0022341 -0.41904 -0.052009 0.0078827 -0.010847 0.0013949 0.012057
0.0077292 0.00269 0.0012654 0.013185
-0.0078446 0.012502 0.0078617 -0.010867 -0.2655 0.20896 0.0077075 0.0035782
-0.0017501 0.0078182 0.0015914 0.012142
-0.0042993 0.011956 0.0014224 0.012094 0.0077099 0.0035759 -0.33221 0.042411
-0.01906 -0.0065327 0.015323 0.026788
0.013031 0.004589 0.007734 0.0026878 -0.0017533 0.0078188 -0.019066 -0.006524
-0.22116 -0.20079 -0.02554 0.0052804
-0.0047446 0.0086445 0.0012619 0.013226 0.0016008 0.012136 0.015345 0.026806
-0.025553 0.0052648 -0.26628 -0.13604
560000000 -0.31581 0.122 -0.024206 -0.064088 0.00058753 0.012314 0.0053803 0.010441
0.010675 0.0054983 0.011327 0.0076468
-0.02403 -0.064133 -0.37837 0.10702 -0.041083 -0.038042 0.013974 0.0036621
-0.012729 -0.0051962 0.0031562 -0.00061646
0.00055982 0.012375 -0.041185 -0.038001 -0.18301 0.25754 -0.00074507 -0.0041029
0.019424 0.0057821 0.0065 -0.0064502
0.0054444 0.010325 0.013963 0.0036472 -0.00074058 -0.0040905 -0.30703 0.13151
0.0037172 -0.024151 0.0046376 -0.021507
0.010666 0.0054915 -0.012714 -0.0051225 0.01942 0.0057722 0.0037095 -0.02414
-0.28921 -0.025055 0.0084509 -0.048554
0.011331 0.0075071 0.0031239 -0.00068539 0.0065054 -0.0064345 0.0046245 -0.02154
0.0084808 -0.048544 -0.32866 0.012346
620000000 -0.27489 0.10671 -0.023259 0.0078941 0.0034214 0.0088362 0.0084082 -0.0050651
0.011155 -0.00018978 0.001944 -0.0022114
-0.023285 0.0078523 -0.40261 0.059218 -0.018649 3.94e-05 -0.0012614 -0.0019265
0.011307 -0.0062647 0.0013046 -0.0029808
0.0033989 0.0088061 -0.018675 9.0894e-05 -0.15387 0.2661 -0.0010727 -0.0049665
-0.0031957 -0.0027521 0.008462 -0.0029643
0.0083632 -0.0050551 -0.0012589 -0.001939 -0.0010828 -0.0049671 -0.26705 0.14354
-0.038209 -0.019953 0.012201 0.026725
0.011245 -0.00024386 0.01129 -0.0062962 -0.0031975 -0.0027483 -0.038213 -0.019932
-0.20781 -0.063165 -0.041743 0.014391
0.0018045 -0.0022194 0.0013079 -0.0029967 0.008485 -0.0029692 0.012197 0.026736
-0.041757 0.014349 -0.2487 -0.024827
680000000 -0.23448 0.19198 -0.027201 -0.014265 0.0049187 0.0051518 0.0015052 -0.0068517
-0.0028524 -0.011454 0.0054669 -0.0070291
-0.027186 -0.014203 -0.38773 0.15729 -0.03281 -0.0014279 -0.0015912 -0.00053942
-0.0020507 -0.008928 -0.00081837 -0.0014746
0.004898 0.0051558 -0.032844 -0.001339 -0.10254 0.28611 -0.00063301 -0.00020085
-0.0016404 0.0005681 -0.0027768 -0.0089718
0.001394 -0.0067408 -0.0015899 -0.00053551 -0.00063679 -0.00019949 -0.22185 0.19407
-0.024159 -0.0073967 -0.010288 -0.011216
-0.0028068 -0.011355 -0.0020689 -0.0089394 -0.0016478 0.00055517 -0.02418 -0.0073767
-0.25918 0.036292 -0.0054052 -0.0085674
0.0054535 -0.0070742 -0.0008324 -0.0014555 -0.0027911 -0.0089886 -0.010289 -0.011224
-0.0054099 -0.00859 -0.26098 0.082749
740000000 -0.19075 0.187 -0.038883 0.026639 0.012652 -0.0051599 -6.91e-05 -0.004246
-0.004247 -0.0028013 -0.0063897 0.0023911
-0.038868 0.026572 -0.33476 0.17639 -0.035739 0.035257 -0.00069843 -0.0062955
-0.012125 0.0078527 -0.0020032 -0.0064407
0.012661 -0.0052045 -0.035663 0.035391 -0.068788 0.28445 -0.0020568 0.0031659
-0.0022815 -0.004877 -0.0015893 6.176e-05
-0.00015551 -0.0042272 -0.0007265 -0.0063018 -0.0020623 0.0031705 -0.20503 0.20193
-0.04394 -0.0068854 0.023045 0.015156
-0.0042225 -0.0027788 -0.012142 0.0079035 -0.0022916 -0.004875 -0.043985 -0.006848
-0.15882 0.062787 -0.043808 0.00077665
-0.0064428 0.0023147 -0.0020257 -0.0064845 -0.0015708 6.9846e-05 0.02304 0.015119
-0.043795 0.00072594 -0.24974 0.08823
800000000 -0.15762 0.22705 -0.022371 0.016713 0.0053928 -0.010748 -0.0046232 -0.0021691
-0.003966 0.0022409 0.0047184 0.00032
-0.022433 0.016669 -0.33821 0.24631 -0.0078098 0.033945 -0.0023901 0.0022272
-0.00056792 0.0029307 0.0011233 0.0051847
0.0053533 -0.010748 -0.0077287 0.034009 -0.028132 0.30779 0.0010053 0.001463
0.00019028 0.003508 -0.0016391 0.00086753
-0.0046248 -0.0021569 -0.0023914 0.0022411 0.0010089 0.0014532 -0.17609 0.23008
-0.028927 0.014444 0.014072 -0.010285
-0.0040401 0.0022994 -0.00054824 0.0029496 0.00019004 0.0035002 -0.028915 0.014501
-0.2065 0.08725 -0.017765 0.019265
0.0046815 0.00030714 0.0011354 0.0051819 -0.0016391 0.00086104 0.014082 -0.010316
-0.017814 0.019246 -0.24535 0.13824
860000000 -0.12314 0.24752 -0.017506 0.030566 -0.0033354 -0.010002 -0.002219 0.0009208
0.0040001 0.0047972 -0.0033193 -0.0028467
-0.017533 0.030541 -0.2907 0.28815 0.007953 0.034091 3.0727e-05 0.0018055
0.0042332 0.00022631 0.0034668 0.00067537
-0.0033652 -0.010009 0.0080723 0.034104 0.019978 0.3158 -0.00058085 -0.00028897
0.0026903 -0.0014509 0.001382 0.0045289
-0.0022582 0.00092993 3.3757e-05 0.0018114 -0.00058279 -0.00029138 -0.13936 0.24093
-0.018049 0.019184 -0.0061633 -0.009279
0.0039385 0.0048329 0.0042557 0.00021652 0.002683 -0.0014537 -0.018022 0.019232
-0.15506 0.13949 -0.026672 0.015479
-0.0033211 -0.0028636 0.0034474 0.00066206 0.0013961 0.0045214 -0.0061646 -0.009276
-0.026657 0.015462 -0.19397 0.18509
920000000 -0.098575 0.27051 0.0051188 0.037928 -0.0095519 -0.0043417 -0.0018272 0.0018823
0.00081167 0.0019052 0.0026589 -0.0015402
0.0051245 0.037894 -0.26178 0.3096 0.028091 0.021847 0.0013744 0.0011157
0.0068996 -0.0005769 0.0039572 -0.0025764
-0.0095492 -0.004309 0.028195 0.021793 0.066245 0.31633 0.0018427 -5.4017e-05
0.001185 -0.0003941 0.00095497 -0.0010174
-0.0018235 0.0018968 0.0013787 0.0011206 0.0018391 -6.6901e-05 -0.1156 0.25813
-0.010946 0.031409 0.0039271 -0.0067844
0.00087828 0.0018938 0.0069212 -0.00063101 0.001183 -0.00039837 -0.010897 0.031452
-0.14529 0.14517 -0.0031136 0.027724
0.0026011 -0.0015145 0.0039285 -0.0025798 0.00095017 -0.0010051 0.0039327 -0.0067809
-0.0031137 0.02769 -0.20348 0.19912
980000000 -0.051108 0.29008 0.01756 0.030026 -0.0090196 0.0046967 0.0020552 0.0034601
0.0038834 -0.0012809 -0.0032763 -0.0020324
0.017507 0.030032 -0.20892 0.34351 0.033001 0.0048111 0.002068 -4.2604e-05
0.0014773 -0.0057519 -0.00027117 -0.0023375
-0.0090147 0.0047245 0.033036 0.0046995 0.1125 0.30971 0.00053156 -0.0011432
0.00025617 -0.0020328 0.0015038 -0.00012753
0.0020422 0.0034541 0.0020782 -2.8288e-05 0.00052513 -0.0011461 -0.076916 0.26946
0.0083024 0.030853 -0.0090967 -0.0073456
0.0038908 -0.0013101 0.0014676 -0.0057489 0.00024351 -0.0020344 0.0083664 0.030854
-0.11394 0.1748 0.0048555 0.019806
-0.0032925 -0.002041 -0.00030034 -0.0023479 0.001502 -0.00012034 -0.0090987 -0.0073172
0.0048348 0.019799 -0.16159 0.24522
1040000000 -0.0089511 0.29834 0.033144 0.018057 -0.001186 0.0069779 0.0025079 0.00063805
0.00010394 -0.0036478 -0.00034877 -0.0013309
0.033113 0.018041 -0.17328 0.35653 0.029289 -0.014848 0.0014438 -0.0017316
-0.0024711 -0.0025548 -0.0013267 -0.0025141
-0.0011529 0.0069803 0.029252 -0.014964 0.15849 0.2959 -0.00051836 -0.0015705
-0.0015373 -0.0008916 -0.00039469 -0.001125
0.0025054 0.00061793 0.0014626 -0.0017305 -0.00051787 -0.0015675 -0.049476 0.27968
0.020101 0.018496 -0.0022305 0.0013823
4.6532e-05 -0.0036419 -0.0024586 -0.0025509 -0.0015528 -0.0008904 0.020156 0.018464
-0.081192 0.18194 0.013512 0.018766
-0.00037152 -0.0013346 -0.001361 -0.0025279 -0.00038729 -0.001126 -0.0022203 0.0013654
0.013503 0.018773 -0.14059 0.26541
1100000000 0.036434 0.30615 0.035728 -0.0042681 0.0029149 0.0038404 0.0022512 -0.001325
-0.0019354 -0.0031381 -0.003871 4.953e-05
0.03569 -0.0042603 -0.12986 0.37367 0.01502 -0.027736 -4.6404e-05 -0.0018299
-0.0032644 -0.0008223 -0.00348 -0.00048354
0.0029341 0.0038242 0.014919 -0.027832 0.20474 0.27553 -0.0018501 0.00022204
-0.0018308 0.00050637 -0.0010843 -0.00039687
0.0022568 -0.0013301 -4.8127e-05 -0.0018245 -0.0018549 0.00022501 -0.0088704 0.28456
0.025531 0.0050833 -0.002518 -2.7028e-05
-0.0019547 -0.0031347 -0.0032626 -0.00079693 -0.0018353 0.0005173 0.025558 0.0050418
-0.063436 0.19549 0.019316 0.0088191
-0.0038887 8.1777e-05 -0.0034834 -0.00047796 -0.0010848 -0.00038897 -0.0025265 -2.2763e-05
0.019289 0.0088397 -0.094929 0.29683
1160000000 0.087843 0.30106 0.023899 -0.020751 0.0027127 -0.00058484 -0.00034784 -0.0023409
-0.0040675 -0.00079187 -0.000887 0.0040129
0.023895 -0.02072 -0.086133 0.37783 -0.0037314 -0.028986 -0.0017254 -0.0016763
-0.0027185 0.0023995 -0.0013203 0.0019181
0.0027201 -0.00059259 -0.0038685 -0.028993 0.24773 0.24477 -0.00066923 0.0017507
-0.00067077 0.0018955 -0.00096643 0.00031637
-0.00035634 -0.0023503 -0.001721 -0.0016569 -0.00067566 0.0017445 0.030548 0.2817
0.021883 -0.010788 -0.002994 0.0050055
-0.0040749 -0.00078445 -0.002692 0.0024182 -0.00067936 0.0019054 0.021889 -0.010817
-0.029987 0.20462 0.018411 0.00088963
-0.00089566 0.0040223 -0.0013238 0.0019202 -0.00096064 0.00031477 -0.0029854 0.0050114
0.018411 0.00088506 -0.047562 0.2999
1220000000 0.13223 0.28974 0.01031 -0.029983 -0.0015803 -0.00086116 3.371e-05 -0.00086396
-0.002642 0.0023604 0.0013729 0.0019894
0.010324 -0.029955 -0.041789 0.38964 -0.016788 -0.020977 -0.0024849 0.00041563
-3.7217e-05 0.0029478 -0.00073885 0.0018631
-0.0015886 -0.00086822 -0.01691 -0.020931 0.28681 0.20575 0.00080442 0.0016098
0.00059787 0.0011993 0.00034813 0.00063304
3.3971e-05 -0.00087465 -0.0024961 0.00043246 0.00080102 0.0016056 0.070457 0.27306
0.011014 -0.017745 0.0019653 0.0013352
-0.002636 0.0023781 -1.811e-05 0.0029624 0.00059813 0.0011953 0.010991 -0.017761
-0.0078196 0.21354 0.014579 -0.012735
0.0013756 0.002012 -0.00073022 0.0018669 0.00034745 0.00063919 0.0019594 0.0013429
0.014589 -0.012729 -0.017074 0.3172
1280000000 0.18183 0.26764 -0.0079462 -0.028339 -0.0018505 0.0024333 -0.00089221 -0.00196
-0.00082841 0.0029771 0.0024663 0.0011869
-0.0079197 -0.028307 0.0040006 0.38057 -0.023582 -0.008446 -0.00097556 0.0014172
0.0015917 0.0018149 0.00065215 0.0021084
-0.0018422 0.0024331 -0.023656 -0.0083445 0.3173 0.16196 0.001569 4.9304e-06
0.0011431 0.00032855 0.00042523 0.00034932
-0.00089633 -0.0019625 -0.00096649 0.0014243 0.0015647 1.025e-05 0.10731 0.25644
0.0014086 -0.019957 -0.00037072 3.0293e-05
-0.00082093 0.0029878 0.0016033 0.0018191 0.0011366 0.00033478 0.001368 -0.019977
0.02879 0.21716 0.0034865 -0.014985
0.0024793 0.0011804 0.00065795 0.0021189 0.00042717 0.00034708 -0.00037349 3.6259e-05
0.0034845 -0.014987 0.031196 0.32024
1340000000 0.21885 0.2336 -0.017558 -0.018867 0.00087919 0.0044363 -0.0016566 -0.00085952
0.0014018 0.0027289 0.0018357 -0.0013771
-0.017532 -0.018854 0.043331 0.37225 -0.021455 0.0041492 -0.00016179 0.0019713
0.0019044 0.00089527 0.0013581 0.00077962
0.00089359 0.0044235 -0.021463 0.0042669 0.3394 0.11409 0.0011747 -0.00086371
0.0007638 -0.00045575 0.00025702 0.00033227
-0.0016603 -0.00084409 -0.00015004 0.0019711 0.0011687 -0.00085921 0.1395 0.2359
-0.0084412 -0.017277 0.0006622 0.00057656
0.001416 0.0027266 0.0019048 0.00088746 0.00076387 -0.00045596 -0.008478 -0.017266
0.058161 0.21241 -0.0031898 -0.013585
0.0018423 -0.0013865 0.0013574 0.0007658 0.00025024 0.00033479 0.00066313 0.00057944
-0.003186 -0.013578 0.069578 0.3166
1400000000 0.25158 0.19532 -0.023288 -0.0074064 0.0050238 0.0030266 -0.0020179 0.00056821
0.0023435 0.00090457 0.00033866 -0.0013105
-0.023257 -0.0074032 0.080405 0.35917 -0.014775 0.012207 0.001291 0.0013421
0.0012124 -0.00072609 0.0012458 0.00025795
0.0050364 0.003004 -0.014727 0.012307 0.35258 0.060578 0.00020457 -0.0016843
3.4246e-06 -0.00044617 0.00044254 0.00020812
-0.0020285 0.00058742 0.0013012 0.001335 0.00020554 -0.0016893 0.16866 0.20718
-0.014644 -0.010603 -0.00093404 -0.00032377
0.0023585 0.00091005 0.0012171 -0.0007507 1.1716e-06 -0.00044373 -0.014675 -0.010572
0.090651 0.20827 -0.009753 -0.0091429
0.00031759 -0.0013088 0.0012461 0.00024373 0.00043486 0.00021043 -0.0009394 -0.00032463
-0.009751 -0.0091476 0.11505 0.30605
1460000000 0.27405 0.15121 -0.020265 0.004686 0.0054788 -0.0018449 -0.0016108 0.0016929
0.0020727 -0.00044345 -0.00037433 -0.00094452
-0.020251 0.0046797 0.11447 0.33743 -0.0062208 0.015128 0.0017275 0.00022099
0.00095429 -0.0012685 0.0011251 -0.00056592
0.005478 -0.0018641 -0.0061544 0.015177 0.35875 0.0060926 -0.0012967 -0.0012882
0.00012326 -0.00029878 0.00061382 -0.00035497
-0.0015944 0.00169 0.0017326 0.00021659 -0.0013033 -0.0012923 0.19459 0.17819
-0.016258 -0.0037522 -0.00099748 0.0021956
0.0021006 -0.00045465 0.00095401 -0.0012827 0.00011674 -0.00030172 -0.016264 -0.0037176
0.11914 0.19358 -0.011825 -0.0030884
-0.00037018 -0.00093924 0.0011344 -0.00056892 0.00061561 -0.00034058 -0.00098259 0.0021843
-0.011821 -0.0030951 0.14863 0.2856
1520000000 0.28586 0.10946 -0.014663 0.010219 0.0032788 -0.0041128 6.9146e-05 0.0026454
0.0021727 -0.0016415 -0.0011376 -0.00012263
-0.01466 0.010203 0.14793 0.32274 0.0013675 0.013004 0.0016698 -0.00073529
4.5666e-05 -0.0010925 0.00033655 -0.00098695
0.0032572 -0.0041282 0.0014427 0.013007 0.35188 -0.050202 -0.0012275 -0.00038249
0.00058194 -0.00077741 5.2493e-05 -0.00010549
7.8842e-05 0.0026518 0.0016705 -0.00074508 -0.0012212 -0.00038184 0.21753 0.14082
-0.015906 0.0022951 0.0014645 0.0022325
0.0021665 -0.0016549 3.8916e-05 -0.0011006 0.00057893 -0.00078423 -0.015913 0.0023308
0.1462 0.17983 -0.011882 0.001245
-0.0011336 -0.00011071 0.00032476 -0.0010052 4.7306e-05 -9.1882e-05 0.0014752 0.0022289
-0.011885 0.0012481 0.18258 0.26597
1580000000 0.29482 0.063468 -0.0080786 0.013285 -0.00090169 -0.00477 0.0014178 0.0019506
-0.00016986 -0.0020689 -0.00035966 0.00044775
-0.0080775 0.013266 0.17519 0.29806 0.0049729 0.0082997 0.0005418 -0.0016061
-0.00059994 -0.0010948 -0.00027415 -0.00076828
-0.00093051 -0.0047797 0.0050216 0.0082799 0.33136 -0.10777 -0.0016199 0.00071088
-0.00024478 -0.0010893 0.00013833 -0.00044621
0.0014278 0.0019461 0.00052809 -0.0016156 -0.0016223 0.00070601 0.23136 0.10222
-0.012493 0.0076435 0.0023553 0.00099161
-0.00018608 -0.0020679 -0.00061692 -0.0010943 -0.00024179 -0.0010841 -0.012481 0.0076834
0.16987 0.16237 -0.0095038 0.0072988
-0.00035245 0.00046149 -0.00027874 -0.00075852 0.00014175 -0.00044373 0.0023595 0.000981
-0.0094986 0.0072926 0.21545 0.2392
1640000000 0.2968 0.022389 -0.0014014 0.01226 -0.0026276 -0.0025494 0.0027883 0.0009879
-0.00055006 -0.0016363 -0.00022742 0.0005808
-0.0014201 0.012241 0.20475 0.2731 0.0058364 0.0036381 -0.00065238 -0.0017782
-0.0010722 -0.0003758 -0.00043544 -0.00072361
-0.0026491 -0.0025354 0.0058705 0.0036144 0.30306 -0.15675 -0.00063051 0.0015372
-0.0010659 -0.0011013 -6.6047e-05 -0.00044172
0.0028003 0.00097947 -0.00066606 -0.001779 -0.00063589 0.0015368 0.24383 0.05416
-0.0081782 0.0094388 0.0026562 -0.00072917
-0.00057632 -0.0016285 -0.0010774 -0.00036274 -0.0010721 -0.0010975 -0.0081554 0.0094634
0.19166 0.13867 -0.0049316 0.0093444
-0.000204 0.00059151 -0.00044048 -0.00071754 -5.8027e-05 -0.00044114 0.0026493 -0.00074642
-0.0049374 0.0093461 0.24131 0.20845
1700000000 0.28953 -0.022777 0.0019679 0.0094877 -0.0034472 8.439e-05 0.0030848 -0.0012728
-0.0020393 -0.00087865 0.00062637 0.00045279
0.001962 0.0094859 0.22287 0.2415 0.0038982 0.00075961 -0.0015 -0.00059364
-0.00079859 0.00013634 -0.00088918 -0.00045082
-0.0034584 0.00010494 0.0039053 0.00073864 0.25959 -0.19663 0.00050921 0.0016677
-0.0019805 -0.00024404 -0.00047528 -0.00088334
0.0030828 -0.0012935 -0.0015122 -0.00058594 0.00050715 0.001668 0.24128 0.0052825
-0.0050409 0.01047 0.0016556 -0.0023021
-0.0020533 -0.00085632 -0.00079842 0.00014606 -0.0019885 -0.0002425 -0.005016 0.010481
0.20834 0.11925 -0.00014995 0.0097734
0.00064917 0.00042432 -0.00089476 -0.00044383 -0.00048314 -0.00088315 0.0016483 -0.0023129
-0.00015132 0.0097744 0.25806 0.17392
1760000000 0.27727 -0.071292 0.0043229 0.0062523 -0.0022965 0.0009899 0.0012583 -0.0034819
-0.0014979 0.00062212 0.00040785 -0.00065265
0.0043108 0.0062485 0.24882 0.20156 0.0016761 -0.001064 -0.0012182 0.00017994
-0.00092466 0.00093233 -0.00058791 0.00036724
-0.002292 0.0010045 0.0016684 -0.0010796 0.21066 -0.2297 0.0013031 0.00099221
-0.0011576 0.0015371 -0.0013257 -0.00050082
0.001252 -0.00351 -0.0012216 0.00018933 0.0013017 0.0010011 0.23299 -0.045466
-0.0012564 0.0098712 -0.00013443 -0.002589
-0.0014898 0.00062086 -0.00091779 0.00093722 -0.0011599 0.0015451 -0.0012292 0.0098838
0.22267 0.085221 0.0038884 0.0072827
0.00038836 -0.00068603 -0.00058885 0.00037248 -0.0013221 -0.00050091 -0.00014009 -0.0025919
0.0038887 0.0072904 0.27092 0.13633
1820000000 0.25254 -0.10848 0.0045189 0.0026931 2.4073e-05 0.0023789 -0.001063 -0.0030337
-0.0012427 0.0010365 -6.7355e-05 -8.3985e-05
0.0045181 0.0026802 0.25875 0.17138 -0.00021572 -2.5284e-05 -0.0013096 0.00096529
5.6877e-05 0.0012578 -0.0005374 0.00048918
2.3722e-05 0.0023852 -0.0002098 -2.5366e-05 0.16069 -0.24554 0.0014292 0.00030953
-0.00021693 0.002315 -0.0013606 0.00033532
-0.0010753 -0.0030358 -0.0013052 0.00098154 0.0014209 0.00031259 0.20432 -0.09252
0.00082476 0.0082459 -0.0015772 -0.0016271
-0.0012369 0.001047 7.0091e-05 0.0012474 -0.00019316 0.0023154 0.00085161 0.0082504
0.23972 0.057293 0.0049364 0.0038023
-8.0228e-05 -9.3359e-05 -0.00053453 0.00049711 -0.0013652 0.00033754 -0.0015755 -0.0016206
0.0049477 0.0038073 0.27363 0.10045
1880000000 0.21738 -0.14875 0.0024116 0.00037796 -0.00033219 0.0020299 -0.0030102 -0.0021343
-0.00020361 0.001825 0.00025788 -0.00050017
0.0024202 0.00037635 0.26305 0.12474 -0.0021945 0.0016772 -0.00015876 0.001656
0.00058403 0.0010768 5.4268e-05 0.00089315
-0.00030911 0.0020342 -0.0021821 0.0016942 0.10837 -0.25502 0.0017227 -0.00095437
0.0015083 0.001938 -0.0010114 0.0012582
-0.0030346 -0.0021123 -0.00014546 0.001659 0.0017138 -0.00095074 0.16488 -0.13316
0.0021355 0.0059337 -0.0024345 0.00031794
-0.00018231 0.0018141 0.00059434 0.0010682 0.001507 0.0019414 0.0021626 0.0059326
0.24298 0.025836 0.0051814 0.0015452
0.00027172 -0.00049498 5.8277e-05 0.00089459 -0.0010164 0.001269 -0.0024331 0.00032892
0.0051697 0.0015382 0.27345 0.066257
1940000000 0.17805 -0.17459 0.00019762 -0.0012985 0.0012356 0.0019344 -0.0037329 0.00059331
0.0013757 0.0011197 -0.00053817 -0.00050268
0.00020296 -0.001305 0.26336 0.092876 -0.0010932 0.0038038 0.0010212 0.0013206
0.0016989 0.00040365 0.0007971 0.00033316
0.0012421 0.0019292 -0.0010609 0.003814 0.062366 -0.24846 0.00046994 -0.0020269
0.0023885 0.00047879 0.00014066 0.0016069
-0.003734 0.00060576 0.0010254 0.001297 0.00046813 -0.0020168 0.11329 -0.16456
0.0016648 0.0041437 -0.0013711 0.0014585
0.0013843 0.0011018 0.0016922 0.00039105 0.0023979 0.00048196 0.0016781 0.004136
0.24566 -0.012381 0.0041281 -0.002046
-0.0005553 -0.00048125 0.00079717 0.00032726 0.00013443 0.0015775 -0.0013666 0.0014567
0.00414 -0.0020396 0.2627 0.030456
2000000000 0.13147 -0.18909 -0.0036071 0.00059666 0.0024803 0.0016573 -0.0023163 0.0034479
0.0011975 4.0816e-05 -0.00074502 0.00025118
-0.0036083 0.0006127 0.24904 0.057413 -0.00095939 0.0056823 0.001539 0.00038857
0.0012212 -0.0013189 0.00056219 0.00021199
0.0025041 0.0016341 -0.00091725 0.0056995 0.01861 -0.23364 -0.0012171 -0.0012873
0.0020165 -0.0011478 0.001647 0.0013183
-0.0022654 0.003482 0.0015449 0.00037502 -0.0012191 -0.0012873 0.059698 -0.17553
-5.1433e-05 0.0032731 -0.0001536 0.0021434
0.0011915 3.5096e-05 0.0012063 -0.0013346 0.0020114 -0.0011565 -4.1386e-05 0.0032764
0.24039 -0.046324 0.00079826 -0.0029476
