!Keysight Technologies,M9804A,MY58100912,A.14.10.03
!Date: Thursday, April 27, 2023 10:28:33
!Correction: S11(C  6-Port  ) 
!S12(C  6-Port  ) 
!S13(C  6-Port  ) 
!S14(C  6-Port  ) 
!S15(C  6-Port  ) 
!S16(C  6-Port  ) 
!S21(C  6-Port  ) 
!S22(C  6-Port  ) 
!S23(C  6-Port  ) 
!S24(C  6-Port  ) 
!S25(C  6-Port  ) 
!S26(C  6-Port  ) 
!S31(C  6-Port  ) 
!S32(C  6-Port  ) 
!S33(C  6-Port  ) 
!S34(C  6-Port  ) 
!S35(C  6-Port  ) 
!S36(C  6-Port  ) 
!S41(C  6-Port  ) 
!S42(C  6-Port  ) 
!S43(C  6-Port  ) 
!S44(C  6-Port  ) 
!S45(C  6-Port  ) 
!S46(C  6-Port  ) 
!S51(C  6-Port  ) 
!S52(C  6-Port  ) 
!S53(C  6-Port  ) 
!S54(C  6-Port  ) 
!S55(C  6-Port  ) 
!S56(C  6-Port  ) 
!S61(C  6-Port  ) 
!S62(C  6-Port  ) 
!S63(C  6-Port  ) 
!S64(C  6-Port  ) 
!S65(C  6-Port  ) 
!S66(C  6-Port  ) 
!S6P File: Measurement: :
# Hz S  RI   R 50
500000000 -0.33635 -0.039198 -0.0092243 -0.0022447 -0.0074686 0.012326 -0.0039496 0.012285
0.012505 0.0043369 -0.0045752 0.0090038
-0.0092259 -0.0022376 -0.41869 -0.051854 0.0082487 -0.011028 0.0015769 0.011615
0.0077893 0.0024548 0.0017121 0.013014
-0.0074349 0.012369 0.0082645 -0.011085 -0.26475 0.20859 0.0078526 0.0031998
-0.0016785 0.0078485 0.0018495 0.011847
-0.0039435 0.012275 0.001609 0.011632 0.0078441 0.0032049 -0.32977 0.043904
-0.017966 -0.0060059 0.016213 0.026579
0.012512 0.004278 0.0077866 0.0023911 -0.0016607 0.0078283 -0.017953 -0.0059852
-0.22345 -0.19595 -0.024953 0.0049019
-0.0045354 0.0089649 0.0016842 0.013012 0.0018348 0.01185 0.016215 0.026563
-0.024919 0.0049013 -0.26562 -0.13293
560000000 -0.31474 0.12262 -0.024107 -0.064163 0.00031481 0.011918 0.0054844 0.01062
0.010439 0.0042246 0.011467 0.0078606
-0.024039 -0.06408 -0.37792 0.10648 -0.040793 -0.037764 0.014046 0.0038163
-0.013155 -0.0041604 0.0031087 0.00014862
0.00036037 0.011925 -0.040983 -0.037726 -0.18301 0.2566 -0.00092128 -0.0043262
0.019014 0.0040183 0.006923 -0.0063635
0.0055607 0.010642 0.014107 0.0037935 -0.00093672 -0.004351 -0.30512 0.13175
0.0045896 -0.023544 0.0040921 -0.021647
0.010477 0.0042351 -0.013166 -0.0041418 0.018997 0.0040207 0.0045929 -0.023547
-0.28929 -0.022191 0.0089772 -0.049043
0.011446 0.0078511 0.0030863 0.00011176 0.0069262 -0.0063386 0.0040797 -0.02171
0.0090075 -0.049078 -0.32851 0.014641
620000000 -0.27495 0.10611 -0.023185 0.0074701 0.0026681 0.0084322 0.0078122 -0.0056281
0.011269 -0.00036395 0.0017649 -0.0029439
-0.023157 0.0074656 -0.40205 0.059009 -0.018445 -0.000267 -0.0015541 -0.0020322
0.011141 -0.0069748 0.0015318 -0.0035896
0.0027292 0.008472 -0.018489 -0.00025327 -0.1538 0.2654 -0.0015276 -0.0051601
-0.0035216 -0.0029628 0.0083259 -0.0036197
0.0078193 -0.0056736 -0.0015447 -0.002007 -0.0015291 -0.0051505 -0.26552 0.14336
-0.037 -0.019896 0.011814 0.026248
0.011355 -0.00037245 0.011073 -0.0070068 -0.0035228 -0.0029391 -0.037057 -0.019902
-0.2086 -0.05928 -0.041216 0.013615
0.0017367 -0.0029743 0.0014922 -0.0036256 0.0083146 -0.0036425 0.011811 0.026264
-0.041232 0.013612 -0.25 -0.022431
680000000 -0.23459 0.19171 -0.027492 -0.01469 0.0049267 0.0052168 0.0010295 -0.0072114
-0.003307 -0.011221 0.0048116 -0.0067575
-0.027463 -0.014692 -0.38778 0.15648 -0.033051 -0.0015871 -0.0018924 -0.00045575
-0.0021466 -0.0084051 -0.0012451 -0.0018667
0.0049058 0.005194 -0.033087 -0.0015012 -0.10285 0.28571 -0.00080726 -4.5086e-05
-0.0018608 0.0011787 -0.0028843 -0.0090569
0.00099661 -0.0072379 -0.001883 -0.00044993 -0.00080126 -3.8263e-05 -0.22107 0.19272
-0.023851 -0.0080893 -0.009722 -0.010975
-0.0033908 -0.011258 -0.0021516 -0.0084404 -0.0018727 0.0011742 -0.023867 -0.0080905
-0.25787 0.038637 -0.0051371 -0.0091868
0.0047831 -0.0067568 -0.00127 -0.0018693 -0.0028722 -0.0090636 -0.0097407 -0.010933
-0.0051331 -0.0091782 -0.26148 0.084218
740000000 -0.19073 0.18618 -0.038761 0.026453 0.012746 -0.0048822 -6.3098e-05 -0.0042578
-0.0044094 -0.00252 -0.0059419 0.0023914
-0.038743 0.026435 -0.33539 0.17558 -0.03564 0.035076 -0.0006804 -0.0060211
-0.011451 0.0086285 -0.0019191 -0.006375
0.012762 -0.0049435 -0.035627 0.035233 -0.069418 0.28431 -0.0019359 0.0032451
-0.0020174 -0.0048465 -0.0018172 -0.00021481
-5.8321e-05 -0.0042707 -0.00067832 -0.0060109 -0.0019341 0.0032434 -0.20412 0.20074
-0.043549 -0.0073255 0.022767 0.014924
-0.0043994 -0.0025232 -0.011443 0.0086827 -0.0020322 -0.0048586 -0.043592 -0.00728
-0.1598 0.064371 -0.043737 -0.00063415
-0.0059719 0.0024022 -0.001932 -0.0063514 -0.0017887 -0.00022511 0.022797 0.014901
-0.043686 -0.00066789 -0.24872 0.089986
800000000 -0.15819 0.22673 -0.022709 0.016683 0.0053449 -0.010623 -0.0048161 -0.0018862
-0.004046 0.0023995 0.0047035 0.00052427
-0.022701 0.016663 -0.33867 0.2459 -0.0080685 0.034234 -0.002336 0.0022445
-0.00041055 0.0031018 0.0010184 0.005141
0.0053264 -0.010658 -0.0079608 0.034281 -0.028741 0.30807 0.0011655 0.0014965
0.00044185 0.0034456 -0.0017183 0.00099927
-0.0048172 -0.0018892 -0.0023362 0.002246 0.0011624 0.0014853 -0.17629 0.22875
-0.029241 0.013601 0.013611 -0.0098836
-0.0040507 0.0024278 -0.00041731 0.0031181 0.00045376 0.0034478 -0.029241 0.013678
-0.20793 0.088072 -0.018308 0.018858
0.0047061 0.00051149 0.0010385 0.0051671 -0.0017308 0.0010019 0.013607 -0.0099186
-0.018326 0.018835 -0.24509 0.14016
860000000 -0.12364 0.24752 -0.017774 0.031005 -0.0035054 -0.010005 -0.0024491 0.0010327
0.0041783 0.0049908 -0.0031372 -0.0031621
-0.017786 0.030984 -0.2913 0.28827 0.0079261 0.034477 8.3987e-05 0.0019589
0.0041387 -8.6408e-05 0.0034008 0.00069094
-0.0035416 -0.009982 0.0080427 0.034463 0.019565 0.31632 -0.00060882 -0.00032541
0.0026051 -0.0015868 0.0014794 0.0043984
-0.0024348 0.0010444 9.9302e-05 0.0019772 -0.00060394 -0.00032646 -0.14012 0.24056
-0.01861 0.018979 -0.0059507 -0.0094522
0.0042169 0.0049544 0.0042097 -0.00010767 0.0026093 -0.0015881 -0.018591 0.019054
-0.15744 0.13976 -0.026374 0.015043
-0.0031611 -0.0031578 0.003381 0.00067505 0.0014768 0.0043773 -0.0059499 -0.0094538
-0.026364 0.015028 -0.19313 0.1871
920000000 -0.098887 0.2708 0.0050362 0.038261 -0.0095572 -0.0042963 -0.0017947 0.0020781
0.0013289 0.0019097 0.0025891 -0.0016799
0.0050048 0.038239 -0.26219 0.30975 0.028324 0.022174 0.0015185 0.001093
0.006852 -0.00073729 0.0038761 -0.0025895
-0.0095807 -0.0042557 0.028429 0.022094 0.066057 0.3169 0.0018092 -8.6027e-05
0.0011535 -0.00039922 0.00088954 -0.00091855
-0.001794 0.0020928 0.0015214 0.0010784 0.0018078 -8.5919e-05 -0.11622 0.25792
-0.011059 0.030985 0.0035405 -0.0064185
0.0013342 0.0019024 0.0068393 -0.00078837 0.0011467 -0.00040768 -0.01101 0.031036
-0.14813 0.14693 -0.0032354 0.027659
0.0025997 -0.0017122 0.003852 -0.0025675 0.0008874 -0.000914 0.0035549 -0.0064243
-0.0032243 0.027621 -0.20266 0.20022
980000000 -0.051406 0.29038 0.017522 0.030309 -0.0089822 0.0047722 0.002155 0.0036053
0.0039768 -0.0012787 -0.0031821 -0.0022134
0.017486 0.030296 -0.20931 0.34369 0.033366 0.0048954 0.0020877 -3.9224e-05
0.0012363 -0.005764 -0.000235 -0.0024727
-0.0089631 0.0047985 0.033433 0.0047612 0.11251 0.31022 0.00050536 -0.0011287
0.0002116 -0.0020706 0.0015323 -0.0002193
0.0021649 0.0036171 0.0020826 -7.1735e-05 0.00051125 -0.0011278 -0.077897 0.26971
0.0078765 0.030076 -0.0094248 -0.0073649
0.0039731 -0.0012857 0.0011823 -0.0057953 0.0002093 -0.0020777 0.0079264 0.030074
-0.11713 0.17616 0.0044619 0.019503
-0.0031794 -0.0022 -0.00025416 -0.0024593 0.0015444 -0.00021589 -0.0094431 -0.0073391
0.0044362 0.019488 -0.16074 0.24634
1040000000 -0.0089696 0.29874 0.033381 0.018383 -0.0011601 0.0070748 0.0026385 0.00056941
0.00010736 -0.003928 -0.00024285 -0.0012833
0.033345 0.01839 -0.17353 0.35675 0.029576 -0.014984 0.0014103 -0.0017224
-0.0027023 -0.0024713 -0.0014244 -0.0024247
-0.0011424 0.0070876 0.029537 -0.015127 0.15872 0.29647 -0.00051341 -0.001533
-0.0015598 -0.00091044 -0.00032323 -0.0011187
0.0026432 0.00055604 0.0013862 -0.0017399 -0.00050852 -0.0015274 -0.04998 0.28009
0.019598 0.018366 -0.0024391 0.0017398
7.7694e-05 -0.0039443 -0.0027288 -0.0024398 -0.0015744 -0.00089936 0.019639 0.018331
-0.084735 0.18524 0.013231 0.018954
-0.00021305 -0.0012979 -0.0014336 -0.0023974 -0.00032939 -0.0011243 -0.0024383 0.0017497
0.013222 0.01895 -0.13912 0.26672
1100000000 0.036497 0.30634 0.036097 -0.0042257 0.0031362 0.0039342 0.00238 -0.0014602
-0.0020138 -0.003133 -0.003822 1.7628e-05
0.036054 -0.0042 -0.13003 0.37421 0.015167 -0.028008 -5.4423e-05 -0.0018004
-0.0032238 -0.00058383 -0.0033659 -0.00049269
0.0031463 0.0039235 0.015067 -0.028116 0.20516 0.27601 -0.0018171 0.00031625
-0.0017896 0.00054233 -0.0010548 -0.00050042
0.002376 -0.0014679 -7.1024e-05 -0.0018129 -0.0018224 0.00031371 -0.0092259 0.28522
0.024774 0.0050089 -0.0025178 0.00029438
-0.0020217 -0.0031281 -0.0032273 -0.00057177 -0.0017881 0.00054582 0.02479 0.0049667
-0.066882 0.19931 0.019032 0.0090563
-0.0038083 2.7347e-05 -0.0033652 -0.00048029 -0.0010549 -0.00048427 -0.0025202 0.00030976
0.019012 0.0090604 -0.093684 0.29748
1160000000 0.08792 0.30136 0.02412 -0.020821 0.0028692 -0.00065966 -0.00040128 -0.0025015
-0.0042144 -0.00072977 -0.00086525 0.004124
0.024127 -0.020787 -0.086017 0.37831 -0.0038394 -0.029257 -0.0017562 -0.0016171
-0.0025544 0.0025065 -0.0012618 0.0018612
0.0028659 -0.00067398 -0.0039865 -0.029286 0.24831 0.24498 -0.00062205 0.0017121
-0.00053836 0.0018791 -0.0010095 0.00026884
-0.00041217 -0.0024836 -0.0017769 -0.0016209 -0.00061809 0.0017073 0.030629 0.28234
0.021125 -0.010552 -0.0027924 0.0053955
-0.0042191 -0.00070814 -0.0025274 0.0025132 -0.00055404 0.001864 0.021108 -0.010602
-0.033125 0.20943 0.018367 0.0009418
-0.00084049 0.0041336 -0.0012502 0.0018698 -0.0010149 0.00026579 -0.0027718 0.005413
0.018373 0.00094135 -0.046739 0.3006
1220000000 0.13224 0.2899 0.010513 -0.030227 -0.001511 -0.0010791 -0.00013231 -0.00091176
-0.0026695 0.002483 0.0013831 0.0020053
0.010528 -0.03019 -0.041474 0.39006 -0.017046 -0.021122 -0.0024614 0.00048273
0.00010346 0.0028683 -0.00075916 0.0018649
-0.001524 -0.0010662 -0.017169 -0.021076 0.28748 0.20563 0.00080368 0.0015257
0.00052883 0.0011116 0.00025085 0.00060393
-0.00014126 -0.0009119 -0.002473 0.00048881 0.00081327 0.0015237 0.070515 0.27356
0.01022 -0.01717 0.002482 0.0014981
-0.0026579 0.0025066 0.00012451 0.0028695 0.00053767 0.0011064 0.010201 -0.017195
-0.010171 0.21901 0.014546 -0.012559
0.0013997 0.0019924 -0.00074802 0.0018693 0.00025121 0.0006131 0.0024761 0.0014988
0.014548 -0.012563 -0.015797 0.31797
1280000000 0.18203 0.26777 -0.0078986 -0.028653 -0.0019407 0.0023318 -0.00094206 -0.0018857
-0.00074168 0.0031009 0.002488 0.001076
-0.0078854 -0.028634 0.0046145 0.38079 -0.023838 -0.0083355 -0.00087407 0.0014287
0.0015917 0.0016719 0.00060505 0.0021251
-0.0019249 0.0023388 -0.023921 -0.0082304 0.31768 0.16159 0.0015076 -0.00010532
0.001029 0.00033076 0.00041266 0.0004747
-0.00095475 -0.001881 -0.00087845 0.0014297 0.0015153 -9.473e-05 0.10742 0.25695
0.00075061 -0.018897 0.00015188 -3.3207e-05
-0.00073256 0.0030844 0.001606 0.0016715 0.0010319 0.00033078 0.00070402 -0.018911
0.026839 0.22323 0.0035031 -0.014687
0.0025107 0.0010648 0.00062325 0.0021196 0.00041453 0.00047602 0.00014989 -3.2807e-05
0.0035043 -0.014685 0.032933 0.3207
1340000000 0.21905 0.23364 -0.017642 -0.019137 0.00075025 0.0043494 -0.0016671 -0.00073925
0.0014929 0.0027029 0.0016442 -0.0014257
-0.017611 -0.019122 0.043934 0.37204 -0.02154 0.004281 -0.00010674 0.0019028
0.001791 0.00076519 0.0013066 0.00077085
0.00076325 0.004354 -0.021545 0.0043969 0.33944 0.11363 0.001008 -0.00086199
0.00065872 -0.00039319 0.00024231 0.0003375
-0.0016734 -0.0007302 -9.7943e-05 0.0019067 0.0010055 -0.00085966 0.13964 0.23643
-0.0085848 -0.015907 0.00098982 0.00019762
0.0015128 0.0026928 0.0017953 0.00075027 0.0006643 -0.00039942 -0.0086196 -0.015897
0.05732 0.21893 -0.0031109 -0.013361
0.0016332 -0.0014384 0.0013308 0.00076935 0.00024385 0.00033766 0.00099539 0.00019332
-0.0031093 -0.013349 0.07121 0.31675
1400000000 0.25165 0.19509 -0.023509 -0.0076347 0.0049748 0.0030798 -0.0019423 0.00062601
0.002449 0.00085072 0.00030893 -0.0013444
-0.023482 -0.0076478 0.080898 0.3586 -0.014755 0.012333 0.0012433 0.0012787
0.0010602 -0.00074749 0.0012349 0.00022755
0.0049873 0.0030506 -0.014707 0.012431 0.35252 0.060248 0.00013978 -0.0015243
4.8791e-06 -0.00038689 0.0004508 0.00025075
-0.0019493 0.00064202 0.001262 0.0012752 0.00014314 -0.0015131 0.16888 0.2078
-0.014151 -0.009258 -0.00083526 -0.00073868
0.0024548 0.00083537 0.0010473 -0.00074822 7.2386e-06 -0.00038709 -0.014184 -0.0092245
0.090525 0.21468 -0.009482 -0.0089548
0.0003083 -0.0013456 0.0012425 0.0002291 0.00045573 0.00024792 -0.00083421 -0.00073822
-0.0094818 -0.0089639 0.11673 0.30607
1460000000 0.2739 0.15097 -0.020631 0.004614 0.0054926 -0.001833 -0.0015651 0.0016212
0.0020689 -0.00067219 -0.00037957 -0.00093742
-0.020611 0.0046022 0.11463 0.33664 -0.0060607 0.015129 0.0016793 0.00021057
0.0009187 -0.0012102 0.0011395 -0.00061793
0.005475 -0.0018542 -0.0059909 0.015184 0.35851 0.006141 -0.0012128 -0.0011734
0.00015893 -0.00027815 0.00065888 -0.00030516
-0.001565 0.0016226 0.0016914 0.0002051 -0.0012199 -0.0011763 0.19511 0.179
-0.015076 -0.0025469 -0.0010534 0.0017907
0.0020612 -0.00067362 0.00090681 -0.001216 0.00015052 -0.00028764 -0.015087 -0.0025261
0.11986 0.20015 -0.011608 -0.0031473
-0.0003862 -0.00093014 0.0011427 -0.00061717 0.00065786 -0.00030755 -0.0010512 0.0017888
-0.011602 -0.003161 0.15011 0.28563
1520000000 0.28555 0.10938 -0.014974 0.010339 0.0031882 -0.0040268 5.2526e-05 0.0025311
0.0019958 -0.0017575 -0.0010525 -6.3071e-05
-0.014969 0.010315 0.14773 0.32192 0.0014495 0.012977 0.0016117 -0.00072148
4.1152e-05 -0.0010157 0.0003393 -0.0010479
0.0031654 -0.0040559 0.0015278 0.012983 0.35154 -0.050262 -0.0010172 -0.00035004
0.00062827 -0.0008624 1.0339e-05 -0.00014578
7.0061e-05 0.0025318 0.0016149 -0.00073805 -0.0010137 -0.00034232 0.2184 0.14143
-0.014264 0.002791 0.0012184 0.0019983
0.001983 -0.001772 2.7802e-05 -0.0010175 0.00063239 -0.00086405 -0.014268 0.0028298
0.14769 0.18611 -0.011573 0.0012607
-0.0010512 -5.1173e-05 0.00033395 -0.0010604 9.0903e-06 -0.00014719 0.001225 0.0019971
-0.011572 0.0012404 0.18383 0.26555
1580000000 0.29455 0.063605 -0.0082432 0.013564 -0.00094386 -0.0046404 0.0013054 0.0018905
-0.00040374 -0.0020493 -0.00028093 0.00038543
-0.008248 0.013546 0.17464 0.29736 0.004985 0.0082362 0.00050708 -0.0015674
-0.00054482 -0.0010394 -0.00030112 -0.00078537
-0.00095664 -0.0046323 0.0050485 0.0082146 0.33117 -0.10773 -0.0015329 0.00056132
-0.00030773 -0.0011012 0.00018867 -0.00045891
0.0013069 0.0018822 0.00048496 -0.0015672 -0.0015276 0.00056799 0.23259 0.10252
-0.010735 0.0074534 0.0020983 0.00090937
-0.00042396 -0.0020587 -0.00054934 -0.0010431 -0.00031424 -0.0011038 -0.010734 0.0074861
0.17212 0.16848 -0.0092894 0.0071435
-0.00027071 0.0003888 -0.00029932 -0.00078076 0.00019264 -0.0004632 0.0021019 0.00091362
-0.0093034 0.0071465 0.21672 0.23871
1640000000 0.29645 0.022698 -0.0014256 0.012512 -0.0026021 -0.0025081 0.00269 0.0010446
-0.00067807 -0.0014116 -0.00018419 0.00045941
-0.0014431 0.012511 0.20392 0.27261 0.0057875 0.003598 -0.00062822 -0.0017213
-0.00097815 -0.00039703 -0.00048525 -0.0006624
-0.0026048 -0.0024963 0.0058198 0.0035736 0.30297 -0.15656 -0.00067976 0.001367
-0.00098416 -0.0010012 -0.00016292 -0.00040093
0.0027037 0.0010295 -0.00064412 -0.0017214 -0.00068455 0.0013684 0.24529 0.05393
-0.0065773 0.0083715 0.0023973 -0.00065956
-0.00069302 -0.0014045 -0.00098308 -0.00039897 -0.0010002 -0.0010026 -0.0065566 0.008393
0.19464 0.14427 -0.0047594 0.0091319
-0.00018634 0.00046786 -0.00048421 -0.00065504 -0.00017187 -0.0004058 0.0023913 -0.00067136
-0.0047539 0.0091232 0.24238 0.20782
1700000000 0.28932 -0.022454 0.00211 0.0096794 -0.003383 0.00017232 0.0030515 -0.0011024
-0.0019592 -0.00055288 0.00057993 0.00037509
0.0020968 0.0096721 0.22184 0.24135 0.0038571 0.00075888 -0.00145 -0.00057426
-0.00078304 8.9321e-05 -0.00089091 -0.00040746
-0.0033747 0.00019608 0.0038562 0.00074009 0.25962 -0.19625 0.00044905 0.0016555
-0.001859 -0.00018382 -0.00044924 -0.00082403
0.0030449 -0.001118 -0.0014603 -0.00056661 0.00044735 0.0016641 0.24254 0.0044058
-0.0041095 0.0087595 0.0014418 -0.0021218
-0.0019577 -0.00053814 -0.00078277 8.9657e-05 -0.0018602 -0.00018472 -0.0040935 0.0087695
0.21194 0.12436 -1.4488e-05 0.0094128
0.00058699 0.00037077 -0.00089093 -0.00039688 -0.00045167 -0.00083186 0.0014338 -0.0021261
-1.4963e-05 0.0094161 0.25898 0.17311
1760000000 0.27717 -0.070744 0.0044519 0.0063389 -0.0020892 0.00087507 0.0013671 -0.0033723
-0.0011836 0.00073153 0.00041248 -0.00054771
0.0044472 0.0063342 0.24776 0.20176 0.0016531 -0.0011255 -0.0011839 0.00019009
-0.00096325 0.00088446 -0.00053849 0.00041749
-0.0020702 0.00088522 0.001661 -0.0011321 0.21127 -0.22987 0.001102 0.0010884
-0.0011215 0.0013411 -0.0013051 -0.00054564
0.0013563 -0.0033868 -0.0011901 0.00019709 0.0010945 0.0010869 0.23381 -0.04694
-0.0010867 0.0079089 -0.00017684 -0.0024143
-0.001189 0.00073352 -0.00095136 0.00090001 -0.001128 0.0013376 -0.0010709 0.0079028
0.2268 0.08957 0.0038447 0.0069129
0.00040608 -0.00055773 -0.00053468 0.00041937 -0.0012994 -0.00054916 -0.00018746 -0.0024267
0.0038497 0.0069121 0.27186 0.13539
1820000000 0.25262 -0.10793 0.004679 0.0027692 0.0001045 0.0024181 -0.00092238 -0.0030753
-0.00099599 0.00089941 -7.9686e-05 -9.4234e-05
0.0046682 0.0027701 0.2578 0.17201 -0.00022994 0.00012926 -0.0012609 0.0009162
-1.1683e-05 0.0013138 -0.00050561 0.00049184
0.00011639 0.0024103 -0.00023716 0.00011693 0.16079 -0.24528 0.0015853 0.00044079
-0.00029825 0.0022638 -0.0014135 0.0002749
-0.00094376 -0.0030615 -0.001259 0.00092122 0.0015769 0.0004368 0.20431 -0.094165
0.00010693 0.0064295 -0.001579 -0.0014581
-0.00098906 0.00089893 4.9455e-06 0.0013104 -0.00028584 0.002261 0.00012262 0.0064171
0.24387 0.060755 0.0047415 0.0034134
-8.3296e-05 -0.00010119 -0.00050104 0.00049634 -0.0014121 0.00028609 -0.0015874 -0.0014525
0.0047434 0.0034085 0.27439 0.099411
1880000000 0.21764 -0.14821 0.0025187 0.00045985 -0.00038514 0.0020618 -0.0029613 -0.002235
-0.00014652 0.0015052 0.00037322 -0.00051268
0.0025085 0.00046477 0.26236 0.12566 -0.0022385 0.0017169 -0.00016126 0.0016776
0.0006289 0.0011675 0.00011965 0.00092999
-0.00038239 0.0020605 -0.0022206 0.0017375 0.10815 -0.25512 0.0018158 -0.0010308
0.0014805 0.0019422 -0.0010686 0.0013516
-0.0029725 -0.0022221 -0.00015855 0.0016692 0.0018217 -0.0010298 0.16413 -0.13442
0.00070245 0.0046653 -0.0023746 0.00049088
-0.00013195 0.0015049 0.00064078 0.0011604 0.0014828 0.0019359 0.00070594 0.0046647
0.24688 0.028435 0.0047996 0.0013142
0.00036693 -0.00053012 0.00012781 0.00092729 -0.0010635 0.0013582 -0.0023745 0.0004939
0.004794 0.0013123 0.27392 0.065137
1940000000 0.17838 -0.17404 0.00036625 -0.0013146 0.0013326 0.001746 -0.0038609 0.00059561
0.0011517 0.00091799 -0.00067097 -0.00066768
0.00036766 -0.0013112 0.26313 0.093958 -0.0009217 0.0038734 0.001015 0.0013258
0.0017972 0.00039862 0.00082217 0.00021888
0.0013376 0.0017232 -0.00089716 0.0038741 0.062558 -0.24796 0.00043133 -0.0022445
0.0024545 0.00046865 0.00024955 0.0016555
-0.0038629 0.00061425 0.0010332 0.0013264 0.00043188 -0.0022395 0.1122 -0.1652
-0.00023687 0.0037388 -0.0013554 0.0014715
0.0011595 0.00091379 0.001803 0.00038881 0.0024757 0.00046905 -0.00022785 0.0037425
0.24873 -0.010192 0.003721 -0.00207
-0.00067913 -0.00065807 0.00082172 0.00020972 0.0002564 0.0016638 -0.0013514 0.0014711
0.0037203 -0.0020835 0.26314 0.029251
2000000000 0.13198 -0.18901 -0.0033316 0.00048884 0.0024795 0.0015769 -0.0022186 0.0035157
0.0011467 0.0001907 -0.00076223 0.0003597
-0.0033257 0.00048263 0.24921 0.058441 -0.00080087 0.0056172 0.0016174 0.00041954
0.0012337 -0.0013542 0.00048245 6.412e-05
0.0025002 0.0015377 -0.00074804 0.0056343 0.018871 -0.23345 -0.0014029 -0.0013174
0.0019608 -0.0011567 0.001626 0.0013182
-0.0021964 0.0035243 0.0016255 0.00041236 -0.001413 -0.0013222 0.058722 -0.17551
-0.0017567 0.0037094 -4.5238e-05 0.0021472
0.0011516 0.00018029 0.0012289 -0.0013719 0.0019502 -0.0011527 -0.0017461 0.0037113
0.24271 -0.044001 0.00029574 -0.0028113
