!Keysight Technologies,M9804A,MY58100912,A.14.10.03
!Date: Thursday, April 27, 2023 10:28:33
!Correction: S11(C  6-Port  ) 
!S12(C  6-Port  ) 
!S13(C  6-Port  ) 
!S14(C  6-Port  ) 
!S15(C  6-Port  ) 
!S16(C  6-Port  ) 
!S21(C  6-Port  ) 
!S22(C  6-Port  ) 
!S23(C  6-Port  ) 
!S24(C  6-Port  ) 
!S25(C  6-Port  ) 
!S26(C  6-Port  ) 
!S31(C  6-Port  ) 
!S32(C  6-Port  ) 
!S33(C  6-Port  ) 
!S34(C  6-Port  ) 
!S35(C  6-Port  ) 
!S36(C  6-Port  ) 
!S41(C  6-Port  ) 
!S42(C  6-Port  ) 
!S43(C  6-Port  ) 
!S44(C  6-Port  ) 
!S45(C  6-Port  ) 
!S46(C  6-Port  ) 
!S51(C  6-Port  ) 
!S52(C  6-Port  ) 
!S53(C  6-Port  ) 
!S54(C  6-Port  ) 
!S55(C  6-Port  ) 
!S56(C  6-Port  ) 
!S61(C  6-Port  ) 
!S62(C  6-Port  ) 
!S63(C  6-Port  ) 
!S64(C  6-Port  ) 
!S65(C  6-Port  ) 
!S66(C  6-Port  ) 
!S6P File: Measurement: :
# Hz S  RI   R 50
500000000 -0.33658 -0.03932 -0.0092187 -0.0022862 -0.0074572 0.01236 -0.0039741 0.012274
0.012509 0.0042543 -0.0046043 0.0089735
-0.0091865 -0.0023031 -0.41857 -0.051912 0.0082925 -0.011049 0.001616 0.011617
0.0077244 0.0024598 0.0016698 0.012998
-0.0073379 0.012335 0.0082747 -0.011068 -0.26474 0.20862 0.0078719 0.0032054
-0.0016885 0.0078845 0.0018806 0.011852
-0.0038784 0.012256 0.0017025 0.011654 0.0078763 0.0032043 -0.32976 0.043939
-0.017951 -0.0060108 0.016218 0.026546
0.012513 0.0041361 0.007713 0.0024598 -0.0016836 0.0078405 -0.01797 -0.005998
-0.22327 -0.19597 -0.024867 0.004899
-0.0043853 0.0089636 0.0017895 0.013093 0.0018665 0.011869 0.016236 0.026595
-0.024866 0.0049025 -0.2655 -0.13302
560000000 -0.31468 0.12246 -0.024062 -0.064129 0.00035064 0.011966 0.0055259 0.010697
0.01046 0.0042875 0.011401 0.0078755
-0.02398 -0.064001 -0.37803 0.10655 -0.040851 -0.037801 0.014038 0.0038945
-0.013147 -0.0042143 0.0030637 0.00011427
0.00035657 0.011998 -0.040948 -0.037762 -0.18298 0.25661 -0.00096711 -0.0043277
0.019005 0.0039875 0.0069626 -0.0063842
0.0055122 0.010779 0.014087 0.0036634 -0.00095785 -0.004279 -0.30504 0.13167
0.0046019 -0.023567 0.0041024 -0.02172
0.010572 0.0041971 -0.013317 -0.004168 0.019024 0.0039523 0.0045889 -0.023577
-0.28912 -0.022111 0.0090014 -0.049092
0.011307 0.0077731 0.0032297 0.00014279 0.0069334 -0.0063679 0.0041013 -0.021739
0.0090779 -0.049077 -0.32843 0.014703
620000000 -0.275 0.10615 -0.023193 0.0074344 0.0027235 0.0084733 0.007801 -0.0056656
0.011356 -0.00036755 0.0017135 -0.0029439
-0.023162 0.007424 -0.40208 0.059035 -0.01847 -0.00026075 -0.0015591 -0.0020194
0.011124 -0.0069551 0.0015031 -0.0036141
0.0028358 0.0084667 -0.018539 -0.00018277 -0.15385 0.26536 -0.0015067 -0.0051713
-0.0035324 -0.0028602 0.0083728 -0.0036028
0.0077671 -0.0056602 -0.0015943 -0.0020367 -0.0015291 -0.0051625 -0.26557 0.14336
-0.037045 -0.019952 0.011848 0.026311
0.011426 -0.00042067 0.011164 -0.0069809 -0.0035584 -0.0029077 -0.037049 -0.01993
-0.2084 -0.059339 -0.041209 0.013549
0.0018717 -0.0029223 0.0015355 -0.0036242 0.0083615 -0.0036042 0.01181 0.026221
-0.041148 0.013597 -0.25013 -0.022471
680000000 -0.23452 0.19166 -0.02748 -0.014624 0.0049165 0.0052151 0.0010458 -0.0072248
-0.0033289 -0.011267 0.0047934 -0.0067258
-0.027445 -0.014616 -0.38774 0.15654 -0.033028 -0.0015941 -0.0018767 -0.00047661
-0.0021288 -0.0084394 -0.0012543 -0.0018808
0.0049531 0.0052339 -0.033055 -0.0014848 -0.10284 0.28568 -0.000782 -5.4853e-05
-0.0018457 0.0011425 -0.0029109 -0.0090277
0.0010609 -0.0072305 -0.0018995 -0.00043053 -0.00078767 -4.8274e-05 -0.22107 0.19274
-0.023872 -0.0081283 -0.0097551 -0.010976
-0.0033701 -0.01125 -0.0022211 -0.0084517 -0.0018383 0.0011489 -0.023895 -0.0081048
-0.25785 0.038755 -0.0051938 -0.0091685
0.0047813 -0.0067996 -0.0012153 -0.0018672 -0.0028928 -0.0090419 -0.0097696 -0.010956
-0.0051409 -0.0091789 -0.2615 0.084185
740000000 -0.19067 0.18629 -0.038751 0.026461 0.012775 -0.0049192 -7.8581e-05 -0.0042586
-0.0043931 -0.0025973 -0.0059576 0.0024111
-0.038715 0.026416 -0.33535 0.17557 -0.035646 0.035071 -0.0006715 -0.0060256
-0.011474 0.0086676 -0.0019157 -0.0063383
0.012729 -0.0049877 -0.035522 0.035276 -0.069374 0.28433 -0.0019469 0.0032408
-0.0020522 -0.0048247 -0.0017813 -0.00026241
-0.00012753 -0.0042862 -0.00063061 -0.0060531 -0.0019212 0.0032504 -0.20409 0.20074
-0.04358 -0.007369 0.02282 0.014976
-0.0044933 -0.0026071 -0.011437 0.0087272 -0.0020013 -0.0048314 -0.043639 -0.0073233
-0.15986 0.064479 -0.043738 -0.00064138
-0.0059561 0.0023879 -0.0018548 -0.0064097 -0.00178 -0.00022172 0.022797 0.014941
-0.043558 -0.00066471 -0.24888 0.089983
800000000 -0.15817 0.22677 -0.022706 0.016719 0.0053479 -0.010619 -0.0048227 -0.0019109
-0.0040637 0.0024062 0.0046701 0.00053606
-0.0227 0.016707 -0.33863 0.24595 -0.0080639 0.034229 -0.0023345 0.0022391
-0.00042887 0.0031003 0.0010129 0.0051642
0.0053066 -0.010623 -0.0079848 0.034281 -0.028736 0.30807 0.0011555 0.0014837
0.00042019 0.0034358 -0.0017317 0.0010223
-0.0048569 -0.0019153 -0.0023205 0.0022741 0.0011466 0.0014797 -0.17627 0.22877
-0.029231 0.013573 0.013605 -0.0098843
-0.0040966 0.0024155 -0.00037569 0.003092 0.00044861 0.0034406 -0.029237 0.013631
-0.20792 0.088086 -0.018316 0.018851
0.0046782 0.00046878 0.0010397 0.0051312 -0.0017143 0.0010169 0.013608 -0.0099099
-0.018289 0.018819 -0.24517 0.1402
860000000 -0.12371 0.24755 -0.017827 0.03098 -0.0035043 -0.0099992 -0.002468 0.0010377
0.0041826 0.0049681 -0.0031482 -0.0031718
-0.017824 0.030915 -0.29119 0.28827 0.0079369 0.03447 6.9542e-05 0.0019782
0.0041735 -8.0902e-05 0.0033665 0.00070686
-0.0034874 -0.010018 0.0080671 0.034523 0.019569 0.31633 -0.00060562 -0.00030036
0.0026401 -0.0015534 0.0014721 0.0044186
-0.0024906 0.0010275 9.7042e-05 0.0019943 -0.00061141 -0.00031549 -0.14016 0.24059
-0.018636 0.018998 -0.0059507 -0.0094259
0.0041403 0.0049182 0.004158 -0.00013064 0.0026202 -0.0015975 -0.018631 0.019031
-0.15746 0.13983 -0.026409 0.015053
-0.0030923 -0.0031069 0.0034127 0.00073531 0.0014776 0.0044089 -0.0059323 -0.0094113
-0.026349 0.015005 -0.19312 0.18716
920000000 -0.09885 0.2708 0.0050578 0.038271 -0.0095633 -0.0042878 -0.0017827 0.0020934
0.0013579 0.0019088 0.002614 -0.0016947
0.0050297 0.038236 -0.26215 0.30977 0.028346 0.022168 0.0015014 0.0010987
0.0068264 -0.00073128 0.0038606 -0.0025428
-0.0095564 -0.0042564 0.02844 0.02211 0.06608 0.31692 0.0018051 -8.3557e-05
0.0011646 -0.00039491 0.00087235 -0.00091752
-0.0017792 0.002112 0.0015174 0.0011053 0.0018135 -8.541e-05 -0.11625 0.25797
-0.011096 0.030981 0.0035459 -0.0064031
0.0013483 0.0019378 0.0068486 -0.00076824 0.0011548 -0.00040638 -0.011041 0.031016
-0.14811 0.14689 -0.0032086 0.027633
0.0026081 -0.0017595 0.0038538 -0.0025921 0.00085627 -0.00092922 0.0035777 -0.0064224
-0.0032017 0.027596 -0.20263 0.20029
980000000 -0.051386 0.2904 0.017532 0.030309 -0.0089804 0.0047669 0.0021505 0.0036343
0.0039839 -0.0012704 -0.003161 -0.0022188
0.017497 0.030291 -0.20927 0.34367 0.033368 0.0048771 0.0020614 -6.929e-05
0.0012167 -0.0057985 -0.00023108 -0.0024354
-0.0089774 0.0048119 0.033429 0.0047611 0.11253 0.31023 0.00051559 -0.001124
0.0002094 -0.0020536 0.0015463 -0.00020196
0.0021743 0.0036117 0.002071 -5.569e-05 0.00050391 -0.0011123 -0.077897 0.26972
0.0078737 0.030073 -0.0094321 -0.0073537
0.0039617 -0.0012913 0.0011951 -0.0057949 0.00020277 -0.0020755 0.0079482 0.030083
-0.11712 0.17613 0.0044467 0.019473
-0.003165 -0.0021635 -0.00024551 -0.0024428 0.0015412 -0.0002017 -0.0094407 -0.0073502
0.0044356 0.01945 -0.16076 0.24632
1040000000 -0.0088868 0.29872 0.033431 0.018356 -0.0011705 0.0070656 0.0026578 0.00058333
0.00010946 -0.0039131 -0.00020754 -0.0013128
0.033401 0.018359 -0.17351 0.35675 0.02957 -0.014986 0.0013679 -0.0017411
-0.0027606 -0.0024856 -0.0013905 -0.002393
-0.001116 0.0070774 0.029528 -0.015139 0.15874 0.29645 -0.00049471 -0.0015189
-0.0015669 -0.00088662 -0.00030761 -0.0011256
0.0026484 0.00057411 0.0013815 -0.0017338 -0.00050442 -0.0015343 -0.049999 0.28013
0.019587 0.01838 -0.0024412 0.0017458
7.7321e-05 -0.0038922 -0.00272 -0.0024883 -0.0015637 -0.00090538 0.019641 0.018359
-0.084731 0.18521 0.013221 0.018988
-0.00023705 -0.0012869 -0.0014668 -0.0024158 -0.00033019 -0.001116 -0.002427 0.0017423
0.013232 0.018974 -0.13919 0.26668
1100000000 0.036537 0.30632 0.036113 -0.0042496 0.003127 0.0039117 0.0023934 -0.0014508
-0.002 -0.0031327 -0.0038165 8.5937e-06
0.036087 -0.0042221 -0.13006 0.37418 0.015153 -0.028015 -6.809e-05 -0.0018194
-0.0032294 -0.00060062 -0.0033687 -0.00049302
0.0031456 0.0039346 0.015056 -0.028115 0.20517 0.27602 -0.0018202 0.00031254
-0.001776 0.00054795 -0.0010507 -0.00047405
0.0023927 -0.0014677 -6.1801e-05 -0.0018153 -0.0018089 0.00031066 -0.009228 0.28525
0.024765 0.0050339 -0.0025296 0.00031503
-0.0020289 -0.0031373 -0.0032603 -0.00057391 -0.0017893 0.00053775 0.024789 0.0049891
-0.066916 0.19929 0.019015 0.009069
-0.0038525 2.4562e-05 -0.0033803 -0.00048959 -0.001061 -0.00050061 -0.0025118 0.00032605
0.019009 0.0090612 -0.093695 0.29748
1160000000 0.088014 0.30132 0.024147 -0.020872 0.002871 -0.00068339 -0.00039912 -0.0024789
-0.0042123 -0.00072257 -0.0008634 0.0041097
0.024145 -0.020841 -0.086063 0.37831 -0.0038496 -0.029254 -0.0017768 -0.0016464
-0.0025769 0.0024723 -0.0012449 0.0018725
0.0028632 -0.00069365 -0.0039971 -0.029281 0.24832 0.24497 -0.00063643 0.0017184
-0.0005642 0.001887 -0.0010054 0.00026477
-0.00041671 -0.0025036 -0.001785 -0.0016259 -0.00062875 0.0017228 0.030655 0.28235
0.021117 -0.010558 -0.0027746 0.0053979
-0.0042416 -0.00069275 -0.0025759 0.0025227 -0.00054379 0.0018857 0.021118 -0.010577
-0.033093 0.20946 0.018341 0.0009417
-0.00085208 0.0041231 -0.0012666 0.0018685 -0.0010119 0.00027703 -0.0027464 0.0054122
0.018369 0.0009524 -0.046831 0.30065
1220000000 0.13232 0.28982 0.010512 -0.030282 -0.0015279 -0.0010772 -0.0001354 -0.00091241
-0.0026731 0.0024832 0.0013837 0.001998
0.010522 -0.030235 -0.041498 0.39013 -0.017052 -0.02112 -0.0024664 0.00047948
0.00012041 0.0028617 -0.00076008 0.0018616
-0.0015258 -0.0010786 -0.017172 -0.021076 0.2875 0.20562 0.00080666 0.0015191
0.00053705 0.0011148 0.00025338 0.00061211
-0.00014784 -0.00090398 -0.0024896 0.00048742 0.00080139 0.0015226 0.070539 0.27356
0.010214 -0.017172 0.0024777 0.0014969
-0.002669 0.0025266 0.00011129 0.0028867 0.00053577 0.0011157 0.010198 -0.017189
-0.010182 0.219 0.014556 -0.012583
0.0013782 0.0020101 -0.0007549 0.0018571 0.00025676 0.00060769 0.0024842 0.0014971
0.014548 -0.012558 -0.015842 0.31797
1280000000 0.18206 0.26771 -0.0079511 -0.028685 -0.0019475 0.0023298 -0.00095239 -0.0018941
-0.00076001 0.0030915 0.0025035 0.0010797
-0.0079235 -0.028649 0.0046056 0.38084 -0.023828 -0.0083379 -0.00087521 0.0014269
0.0015941 0.0016796 0.00061051 0.0021171
-0.0019409 0.0023327 -0.02391 -0.0082213 0.3177 0.16157 0.001512 -9.6831e-05
0.001038 0.00032499 0.00042451 0.00046424
-0.00095413 -0.0018859 -0.0008767 0.0014458 0.001517 -9.3418e-05 0.10743 0.25695
0.00074809 -0.018895 0.00014786 -3.9457e-05
-0.00071708 0.0031014 0.0016222 0.0016753 0.001036 0.00032734 0.00070651 -0.018895
0.026856 0.22323 0.0035024 -0.014684
0.0024911 0.0010667 0.00062547 0.0020969 0.0004185 0.0004756 0.00014955 -4.2468e-05
0.0035018 -0.014694 0.032887 0.32068
1340000000 0.21905 0.23353 -0.017696 -0.019129 0.00075624 0.0043597 -0.0016724 -0.00073842
0.0015011 0.0027053 0.0016325 -0.0014347
-0.017665 -0.019133 0.043968 0.37212 -0.021526 0.0042877 -0.00010875 0.001912
0.0018038 0.00075216 0.0013293 0.00077575
0.00078672 0.004364 -0.021524 0.0043925 0.33947 0.1136 0.0010088 -0.00086848
0.00066831 -0.00039387 0.00024134 0.00034705
-0.001673 -0.0007199 -9.1986e-05 0.0019139 0.0010063 -0.00085812 0.13965 0.23643
-0.0085671 -0.015914 0.00099341 0.00020185
0.0015082 0.0027061 0.0017975 0.00073769 0.00066708 -0.00039891 -0.0086066 -0.015908
0.05736 0.21893 -0.0030923 -0.013363
0.0016262 -0.0014688 0.0013248 0.00075711 0.00023969 0.00034732 0.00099457 0.00018683
-0.0031012 -0.01335 0.071228 0.31674
1400000000 0.25159 0.19499 -0.023568 -0.0076097 0.0049897 0.0030781 -0.0019452 0.00063038
0.002447 0.00084246 0.00030891 -0.0013475
-0.023534 -0.0076237 0.080949 0.35866 -0.014733 0.012322 0.0012535 0.0012912
0.0010599 -0.00073969 0.0012478 0.00023642
0.0050113 0.0030742 -0.014687 0.012427 0.35252 0.060229 0.00014365 -0.001527
1.1108e-05 -0.00040207 0.00045306 0.00025243
-0.001937 0.00064369 0.0012669 0.0012759 0.00013899 -0.0015208 0.1689 0.20779
-0.014146 -0.0092622 -0.00083144 -0.00073073
0.0024519 0.00081929 0.001056 -0.00075001 3.7431e-06 -0.00039801 -0.014166 -0.0092311
0.090476 0.21466 -0.0094777 -0.0089647
0.00029807 -0.001355 0.001247 0.00021657 0.00045128 0.0002389 -0.00083577 -0.00073669
-0.0094757 -0.008975 0.11674 0.30608
1460000000 0.27385 0.15092 -0.020654 0.0046753 0.0055069 -0.0018143 -0.0015714 0.0016256
0.0020677 -0.00067453 -0.00037656 -0.00094365
-0.020619 0.0046519 0.11469 0.33666 -0.0060478 0.015118 0.0016856 0.00020649
0.00091511 -0.0012159 0.0011419 -0.00061146
0.0054918 -0.0018303 -0.0059708 0.015184 0.35851 0.0060811 -0.0012067 -0.0011662
0.0001673 -0.00027959 0.00065332 -0.00029816
-0.0015655 0.0016275 0.0016914 0.00019523 -0.0012058 -0.0011652 0.19512 0.17899
-0.015075 -0.0025642 -0.00105 0.001777
0.0020565 -0.00067415 0.00090229 -0.0012238 0.00015958 -0.00027457 -0.015088 -0.0025363
0.11989 0.20014 -0.011603 -0.0031592
-0.0003812 -0.00095306 0.0011486 -0.00061266 0.00066531 -0.00031155 -0.0010458 0.0017858
-0.011599 -0.0031758 0.1502 0.28563
1520000000 0.28551 0.10937 -0.014967 0.010408 0.0031955 -0.0040473 7.0263e-05 0.0025333
0.0019798 -0.0017646 -0.00105 -5.9143e-05
-0.014953 0.010383 0.14781 0.32192 0.0014514 0.012967 0.001609 -0.00073289
3.5493e-05 -0.0010088 0.00034106 -0.0010503
0.0031515 -0.0040684 0.0015185 0.012982 0.35153 -0.050307 -0.0010259 -0.0003477
0.00061921 -0.00086073 1.205e-05 -0.00014571
6.677e-05 0.0025466 0.0016054 -0.00073809 -0.0010224 -0.00034927 0.21841 0.14141
-0.014268 0.0027734 0.0012232 0.001999
0.0019721 -0.0017623 2.2251e-05 -0.0010118 0.00062187 -0.00085303 -0.014271 0.0028113
0.1477 0.18609 -0.011573 0.0012497
-0.0010614 -5.8111e-05 0.00033466 -0.0010453 1.0738e-05 -0.00014962 0.0012206 0.0019998
-0.01158 0.001241 0.18387 0.26554
1580000000 0.29454 0.063621 -0.008218 0.013612 -0.00094022 -0.0046399 0.001301 0.0018651
-0.00040728 -0.0020627 -0.00027306 0.00038586
-0.0082178 0.013593 0.1747 0.29733 0.0049834 0.0082292 0.00049566 -0.0015704
-0.00054244 -0.0010397 -0.0002914 -0.00078509
-0.00095217 -0.0046371 0.0050269 0.0082118 0.33122 -0.10777 -0.0015106 0.00056359
-0.00031549 -0.0010966 0.00019445 -0.00045562
0.0013141 0.0018652 0.00049087 -0.0015777 -0.0015157 0.00057369 0.2326 0.10253
-0.010753 0.0074556 0.0020955 0.00092255
-0.00042947 -0.0020604 -0.0005537 -0.0010393 -0.00032006 -0.0011096 -0.01075 0.0074855
0.17209 0.16847 -0.0093044 0.0071362
-0.00027712 0.00038876 -0.0003001 -0.00079664 0.00018674 -0.00045592 0.0020991 0.00090894
-0.0093079 0.0071232 0.21674 0.23869
1640000000 0.29648 0.022702 -0.0013743 0.012531 -0.0025865 -0.0025201 0.00269 0.00104
-0.00068288 -0.0014131 -0.00019429 0.00047039
-0.0013771 0.012532 0.20397 0.27257 0.0057847 0.0036067 -0.00063875 -0.0017195
-0.00098032 -0.00040006 -0.0004785 -0.00066113
-0.0026143 -0.0024893 0.0058101 0.0035764 0.30289 -0.15657 -0.00066895 0.0013685
-0.00099045 -0.0010092 -0.00016353 -0.00040828
0.002708 0.0010335 -0.00064601 -0.0017117 -0.00067806 0.0013577 0.24531 0.053906
-0.0065831 0.0083822 0.0023967 -0.00065412
-0.00068638 -0.0014094 -0.00097864 -0.0003913 -0.00098967 -0.0010136 -0.0065784 0.0084032
0.19465 0.14425 -0.0047677 0.0091296
-0.00017716 0.00048603 -0.00049601 -0.00066121 -0.00017388 -0.00040467 0.0023974 -0.00065518
-0.0047706 0.0091284 0.24239 0.20782
1700000000 0.28934 -0.022484 0.0021666 0.009675 -0.003382 0.00016032 0.0030411 -0.001104
-0.0019457 -0.00056094 0.00058454 0.00037638
0.0021595 0.009661 0.22188 0.24131 0.0038508 0.00076834 -0.0014554 -0.0005622
-0.00077223 8.2435e-05 -0.00088233 -0.00040527
-0.0033912 0.00017485 0.0038593 0.00074883 0.25961 -0.19631 0.00044559 0.001668
-0.0018679 -0.00018942 -0.00045719 -0.00083278
0.0030307 -0.0011212 -0.0014691 -0.00056604 0.00045871 0.0016694 0.24254 0.004403
-0.0041171 0.0087627 0.0014382 -0.0021206
-0.0019531 -0.0005481 -0.00078335 8.5249e-05 -0.0018683 -0.00019726 -0.0041017 0.008779
0.21192 0.12434 -2.0946e-05 0.0094007
0.00058833 0.00036553 -0.0008911 -0.00040378 -0.00046668 -0.00082768 0.0014402 -0.0021269
-1.1134e-05 0.0094191 0.25898 0.17311
1760000000 0.27723 -0.070767 0.0044974 0.0063117 -0.0020902 0.0008673 0.0013783 -0.0033628
-0.0011829 0.00074985 0.00040985 -0.00055048
0.0044886 0.0063046 0.24776 0.20173 0.0016517 -0.0011178 -0.0011807 0.00019029
-0.0009656 0.00089407 -0.00053776 0.00041367
-0.0020867 0.00089425 0.001642 -0.0011309 0.21123 -0.2298 0.0011358 0.0010947
-0.0011137 0.0013397 -0.0013164 -0.00055443
0.0013536 -0.0033695 -0.0011869 0.00020303 0.0011145 0.0011043 0.23383 -0.046945
-0.0010815 0.007913 -0.00018059 -0.0024143
-0.0011765 0.00075303 -0.0009628 0.00088982 -0.001112 0.0013388 -0.001063 0.0079274
0.22682 0.089596 0.0038439 0.0069171
0.00041013 -0.00053765 -0.00054036 0.00041906 -0.0013076 -0.00056919 -0.00019131 -0.0023986
0.0038533 0.0069333 0.27186 0.13544
1820000000 0.25264 -0.10802 0.0046964 0.002742 7.9052e-05 0.0024142 -0.00093231 -0.0030693
-0.00099557 0.00088631 -7.5973e-05 -0.00010652
0.0046946 0.0027387 0.25778 0.17198 -0.00023198 0.00011434 -0.0012532 0.00091507
-1.4952e-05 0.0013047 -0.00050275 0.00049183
8.0035e-05 0.0024245 -0.00022617 0.00011062 0.16078 -0.24535 0.0015678 0.00042258
-0.00029389 0.0022653 -0.0014191 0.00029211
-0.00095154 -0.0030616 -0.0012631 0.00092532 0.0015698 0.00042228 0.20431 -0.094183
0.00011228 0.006425 -0.0015784 -0.0014647
-0.0010014 0.00089658 9.8207e-07 0.0013135 -0.00027645 0.0022702 0.00012992 0.0064278
0.2439 0.060718 0.0047365 0.0034163
-6.9505e-05 -0.00011312 -0.00049838 0.00049321 -0.0014047 0.00030193 -0.0015753 -0.0014654
0.0047347 0.003422 0.27435 0.099403
1880000000 0.21762 -0.14828 0.0025166 0.00041028 -0.0003956 0.0020669 -0.0029376 -0.0022376
-0.00014088 0.0015244 0.00036943 -0.00052127
0.0025094 0.00040657 0.26234 0.12566 -0.0022292 0.001734 -0.00017323 0.0016685
0.00062461 0.0011613 0.00012009 0.00092668
-0.00041516 0.0020793 -0.0022286 0.0017569 0.10812 -0.2551 0.0018369 -0.0010305
0.0014618 0.001953 -0.0010585 0.001337
-0.0029631 -0.0022235 -0.00016662 0.0016692 0.0018326 -0.0010261 0.16417 -0.13445
0.00071695 0.0046779 -0.0023677 0.00049181
-0.00014352 0.001518 0.00063293 0.0011522 0.0014581 0.0019542 0.0007388 0.004677
0.24686 0.028448 0.0047997 0.0013063
0.00034825 -0.00054317 0.00012466 0.00090688 -0.0010698 0.0013497 -0.0023687 0.00049153
0.0047841 0.0013173 0.2739 0.065123
1940000000 0.17834 -0.17414 0.00033193 -0.0013585 0.0013124 0.0017374 -0.0038792 0.00058094
0.0011436 0.000914 -0.00066402 -0.00066002
0.00032072 -0.0013464 0.26314 0.093965 -0.00091762 0.0038705 0.0010075 0.0013366
0.0017891 0.00040839 0.00082168 0.00021557
0.0013019 0.0017342 -0.00091112 0.0038866 0.062561 -0.24801 0.00038873 -0.0022348
0.0024456 0.00045565 0.00025393 0.0016695
-0.0038803 0.00063435 0.001012 0.0013336 0.00040552 -0.0022342 0.11217 -0.16518
-0.00023407 0.0037348 -0.0013357 0.0014747
0.0011671 0.00090802 0.0018023 0.00038551 0.002441 0.00044482 -0.00023664 0.003739
0.24876 -0.010259 0.0037244 -0.0020585
-0.00067839 -0.00065879 0.00082226 0.00019463 0.00025434 0.0016602 -0.0013222 0.0014727
0.0037181 -0.0020554 0.26313 0.029226
2000000000 0.13197 -0.18907 -0.0033814 0.00045749 0.002485 0.0015534 -0.0022152 0.0035066
0.0011521 0.00021837 -0.00076587 0.00036163
-0.0033717 0.00047091 0.24923 0.058422 -0.00078956 0.0056223 0.0016028 0.00041703
0.0012312 -0.0013591 0.00047462 6.5888e-05
0.0024842 0.0015562 -0.00075384 0.0056311 0.018883 -0.23348 -0.0013995 -0.0013252
0.0019476 -0.0011461 0.0016366 0.0013211
-0.0022005 0.0035172 0.001607 0.0003935 -0.0013969 -0.0013287 0.058722 -0.17549
-0.0017322 0.0037336 -4.012e-05 0.0021471
0.0011539 0.00021614 0.0012344 -0.0013752 0.0019574 -0.0011456 -0.0017235 0.0037386
