!Keysight Technologies,M9804A,MY58100912,A.14.10.03
!Date: Thursday, April 27, 2023 10:28:33
!Correction: S11(C  6-Port  ) 
!S12(C  6-Port  ) 
!S13(C  6-Port  ) 
!S14(C  6-Port  ) 
!S15(C  6-Port  ) 
!S16(C  6-Port  ) 
!S21(C  6-Port  ) 
!S22(C  6-Port  ) 
!S23(C  6-Port  ) 
!S24(C  6-Port  ) 
!S25(C  6-Port  ) 
!S26(C  6-Port  ) 
!S31(C  6-Port  ) 
!S32(C  6-Port  ) 
!S33(C  6-Port  ) 
!S34(C  6-Port  ) 
!S35(C  6-Port  ) 
!S36(C  6-Port  ) 
!S41(C  6-Port  ) 
!S42(C  6-Port  ) 
!S43(C  6-Port  ) 
!S44(C  6-Port  ) 
!S45(C  6-Port  ) 
!S46(C  6-Port  ) 
!S51(C  6-Port  ) 
!S52(C  6-Port  ) 
!S53(C  6-Port  ) 
!S54(C  6-Port  ) 
!S55(C  6-Port  ) 
!S56(C  6-Port  ) 
!S61(C  6-Port  ) 
!S62(C  6-Port  ) 
!S63(C  6-Port  ) 
!S64(C  6-Port  ) 
!S65(C  6-Port  ) 
!S66(C  6-Port  ) 
!S6P File: Measurement: :
# Hz S  RI   R 50
500000000 -0.33702 -0.039653 -0.0095837 -0.0027157 -0.0077238 0.012422 -0.0043297 0.012132
0.013092 0.0043099 -0.0050784 0.0087321
-0.0095931 -0.0027339 -0.41898 -0.052033 0.0081296 -0.010787 0.0014418 0.012169
0.0076709 0.00225 0.0012021 0.013191
-0.0076855 0.012453 0.0080915 -0.010794 -0.26529 0.20894 0.0078977 0.0035192
-0.00163 0.007946 0.0017339 0.01212
-0.0043593 0.012005 0.001443 0.012137 0.0078927 0.0035303 -0.33071 0.04392
-0.018473 -0.0061658 0.0157 0.027182
0.013165 0.0042622 0.0077199 0.0022856 -0.0016279 0.0079628 -0.018486 -0.0061512
-0.22252 -0.19809 -0.025368 0.0046641
-0.0049861 0.0086102 0.0013008 0.01317 0.0017486 0.012144 0.01566 0.027193
-0.025334 0.0046714 -0.26607 -0.13571
560000000 -0.31501 0.12235 -0.0237 -0.063835 0.00018596 0.012078 0.0055934 0.010659
0.010342 0.0047465 0.011449 0.0078435
-0.023542 -0.063727 -0.37912 0.10733 -0.040601 -0.037708 0.013907 0.0040302
-0.012845 -0.0047638 0.0031349 -7.441e-05
0.00019507 0.012114 -0.04079 -0.037629 -0.18342 0.25723 -0.00078767 -0.0044824
0.019035 0.004906 0.0068801 -0.0065357
0.0057832 0.01068 0.013918 0.0040359 -0.00080074 -0.004473 -0.30563 0.13211
0.0044257 -0.023802 0.0046448 -0.021227
0.010533 0.0047008 -0.012908 -0.004727 0.019036 0.0048311 0.0044347 -0.023803
-0.28904 -0.022374 0.0091197 -0.049405
0.01156 0.0079455 0.0030805 -8.581e-05 0.0069605 -0.0064976 0.0046212 -0.021224
0.0091122 -0.04938 -0.3287 0.012876
620000000 -0.2745 0.1068 -0.02324 0.0079691 0.0032529 0.0085435 0.0080723 -0.0056249
0.011018 1.3018e-05 0.00181 -0.002793
-0.023213 0.0079482 -0.40236 0.059587 -0.018437 9.8223e-05 -0.0013597 -0.0019457
0.011238 -0.0068134 0.0016119 -0.0032611
0.0032704 0.0085304 -0.018454 0.00014738 -0.15359 0.26639 -0.0012643 -0.0049494
-0.0031806 -0.003122 0.0081814 -0.0032982
0.0081265 -0.0056139 -0.0013257 -0.0019186 -0.0012615 -0.0049621 -0.26571 0.14351
-0.03725 -0.019606 0.012296 0.02623
0.010996 -0.00025082 0.011275 -0.0068959 -0.0031805 -0.0031116 -0.037263 -0.0196
-0.20724 -0.061316 -0.041651 0.014321
0.0020121 -0.0027914 0.0016477 -0.0031852 0.0081545 -0.003345 0.012355 0.026191
-0.04166 0.014315 -0.2492 -0.025136
680000000 -0.23481 0.19202 -0.027277 -0.014422 0.0050256 0.0050649 0.0011923 -0.007121
-0.0032286 -0.011293 0.0050094 -0.0071004
-0.027275 -0.014419 -0.38762 0.15725 -0.032615 -0.0013937 -0.0016346 -0.00044714
-0.0023858 -0.0088062 -0.0012554 -0.0018555
0.0050091 0.0050476 -0.032653 -0.0013063 -0.10226 0.28629 -0.00077615 -0.00016425
-0.0018294 0.0006417 -0.002778 -0.0091565
0.0011539 -0.0071052 -0.0016217 -0.00044495 -0.00076788 -0.00015431 -0.22086 0.19347
-0.023367 -0.0080051 -0.010093 -0.011615
-0.003168 -0.011311 -0.0023934 -0.0087967 -0.0018119 0.00065778 -0.023387 -0.0079793
-0.25789 0.037549 -0.0048843 -0.0089021
0.0049761 -0.0069486 -0.0013384 -0.0017808 -0.0027742 -0.0091438 -0.010077 -0.011616
-0.0048788 -0.0089163 -0.26171 0.0821
740000000 -0.19066 0.18656 -0.038701 0.026683 0.01266 -0.0052147 -0.00019994 -0.0041334
-0.00423 -0.0028172 -0.0063559 0.0024459
-0.038697 0.026664 -0.33481 0.17643 -0.035382 0.034983 -0.00068241 -0.0061259
-0.011885 0.0083543 -0.0019169 -0.0063994
0.01267 -0.0052285 -0.035334 0.035128 -0.068303 0.28462 -0.0021076 0.003249
-0.0024496 -0.0046819 -0.0015848 5.4234e-05
-0.00022681 -0.0042082 -0.00072036 -0.0061398 -0.0021122 0.0032416 -0.20404 0.20143
-0.043229 -0.0074731 0.022981 0.014951
-0.0041939 -0.0029277 -0.011836 0.008298 -0.0024023 -0.0047101 -0.043275 -0.0074256
-0.15946 0.0631 -0.043945 4.9365e-05
-0.0062874 0.002432 -0.0019984 -0.0064036 -0.0016029 1.1035e-05 0.023013 0.014944
-0.043899 4.9435e-05 -0.24927 0.088587
800000000 -0.15773 0.22726 -0.022527 0.016576 0.0052539 -0.010639 -0.0047411 -0.0020462
-0.0041221 0.0021533 0.0044886 0.00043629
-0.022511 0.016571 -0.33808 0.24631 -0.0078989 0.033823 -0.002321 0.0022438
-0.00051611 0.0030397 0.001069 0.0051031
0.0052314 -0.010663 -0.0078029 0.033874 -0.027853 0.30775 0.0011351 0.0015223
0.00025949 0.0034989 -0.0017304 0.0008988
-0.0047447 -0.0021145 -0.0022973 0.0022271 0.0011207 0.0015224 -0.17574 0.22917
-0.028504 0.013388 0.013504 -0.010349
-0.0041026 0.0021091 -0.00055095 0.002995 0.0002421 0.0035067 -0.028503 0.013449
-0.20644 0.087157 -0.017802 0.018873
0.0045545 0.00028297 0.0011233 0.0050612 -0.0017353 0.00088574 0.013501 -0.010359
-0.017834 0.018856 -0.24592 0.13834
860000000 -0.12304 0.24748 -0.017493 0.030579 -0.0033767 -0.0099515 -0.0023484 0.00098756
0.0041433 0.0049896 -0.0031169 -0.0027558
-0.017486 0.03053 -0.29055 0.28823 0.0078358 0.033951 5.4508e-05 0.0019291
0.0043098 0.00010157 0.003482 0.0007809
-0.003406 -0.009953 0.0079479 0.033944 0.020178 0.31556 -0.00052362 -0.00029947
0.0027973 -0.0015115 0.0013238 0.0045115
-0.0023359 0.00094834 5.0665e-05 0.001918 -0.00053161 -0.0002962 -0.13931 0.24035
-0.018103 0.018298 -0.006227 -0.009194
0.0041306 0.0048755 0.0042704 0.00011785 0.002788 -0.0015206 -0.018094 0.018334
-0.1564 0.1388 -0.026628 0.01518
-0.0031425 -0.0027228 0.0034128 0.00074049 0.0013222 0.0045007 -0.006227 -0.0091922
-0.026626 0.015109 -0.19425 0.18589
920000000 -0.098539 0.27066 0.0050121 0.037802 -0.0094786 -0.0043332 -0.0019038 0.0020271
0.0011766 0.001856 0.0027824 -0.0015177
0.0049684 0.037728 -0.2616 0.3096 0.027984 0.021858 0.0013519 0.0011209
0.0069584 -0.00062821 0.0040186 -0.0026674
-0.0094949 -0.0043248 0.028093 0.021784 0.066356 0.31616 0.0018035 -7.0294e-05
0.0011816 -0.0004061 0.0009175 -0.00101
-0.0019425 0.0019879 0.0013502 0.0011367 0.0017943 -6.8363e-05 -0.11555 0.25735
-0.011162 0.030293 0.003619 -0.0063293
0.0010937 0.00192 0.0069837 -0.00064271 0.0011772 -0.00040761 -0.011122 0.03033
-0.14733 0.14484 -0.0033736 0.027583
0.0026926 -0.0015498 0.004035 -0.0026927 0.00090867 -0.0010085 0.0036036 -0.006346
-0.0033609 0.027576 -0.20396 0.19913
980000000 -0.05105 0.29015 0.017407 0.029893 -0.0089358 0.0046979 0.002064 0.0036648
0.0039884 -0.0013143 -0.0033112 -0.002219
0.017368 0.029861 -0.20876 0.34351 0.032746 0.0048842 0.0020456 3.8421e-05
0.0014638 -0.0057518 -0.00017323 -0.0024188
-0.0089361 0.0047067 0.032817 0.0047626 0.11251 0.30945 0.00045274 -0.0011437
0.00021493 -0.0020694 0.00153 -0.00017157
0.0020504 0.0036064 0.0020252 3.0264e-05 0.00044386 -0.0011388 -0.07737 0.2686
0.0074129 0.029576 -0.0094076 -0.0072116
0.0039552 -0.0013008 0.0014203 -0.0057379 0.00021109 -0.0020785 0.0074705 0.029575
-0.11663 0.17406 0.0042933 0.01942
-0.0033887 -0.0022691 -0.0002096 -0.0024243 0.001533 -0.00016056 -0.0094306 -0.0071895
0.0042844 0.019395 -0.16152 0.24522
1040000000 -0.008716 0.29843 0.033079 0.01811 -0.001136 0.0068738 0.0026156 0.00073274
0.00013309 -0.0038259 -0.00035607 -0.0013416
0.033009 0.018113 -0.17305 0.35645 0.029193 -0.014684 0.0014999 -0.0016403
-0.002544 -0.0024269 -0.0013314 -0.0024489
-0.0011032 0.0068898 0.029191 -0.014833 0.15842 0.2957 -0.00049905 -0.0014503
-0.0016741 -0.00075293 -0.00046396 -0.0011105
0.002618 0.0007271 0.0014716 -0.0016416 -0.00049402 -0.0014635 -0.050033 0.2789
0.018704 0.017946 -0.0023162 0.001665
0.00012847 -0.0038402 -0.0025897 -0.0024351 -0.0016791 -0.00076225 0.018746 0.017937
-0.084516 0.18275 0.01317 0.018915
-0.00034992 -0.0013543 -0.0013552 -0.0024552 -0.00046965 -0.0011119 -0.0023124 0.0016793
0.013166 0.018916 -0.14055 0.26571
1100000000 0.036624 0.30609 0.035614 -0.0042309 0.0029614 0.0038422 0.0023836 -0.0013145
-0.0020585 -0.0032027 -0.0039934 -2.6635e-05
0.035567 -0.0042118 -0.12967 0.37348 0.015115 -0.027534 4.1221e-05 -0.0017939
-0.0032598 -0.00067354 -0.0033875 -0.00052668
0.002957 0.003838 0.015026 -0.02762 0.20457 0.27543 -0.0018111 0.00028277
-0.0017589 0.00054572 -0.0010347 -0.0003318
0.0023924 -0.0013471 3.7107e-06 -0.0017764 -0.0018259 0.00027997 -0.0098552 0.2839
0.023854 0.0051527 -0.0025487 0.00014034
-0.0020789 -0.0032224 -0.0032651 -0.00066787 -0.001762 0.00054993 0.023872 0.0051193
-0.066945 0.19699 0.01887 0.0089517
-0.004003 -2.8161e-05 -0.0034477 -0.0005263 -0.0010478 -0.00034335 -0.0025449 0.00014693
0.018872 0.0089702 -0.094771 0.29665
1160000000 0.088011 0.30095 0.023862 -0.020553 0.0026846 -0.00056988 -0.00023072 -0.002437
-0.0041939 -0.00078684 -0.00096671 0.0041889
0.02383 -0.02052 -0.08614 0.37747 -0.0036003 -0.028876 -0.0016822 -0.0016841
-0.0026061 0.0024792 -0.0013242 0.0019401
0.0026741 -0.00057955 -0.0037098 -0.028897 0.24751 0.24473 -0.00062735 0.0017277
-0.00056093 0.0018923 -0.00093153 0.00023256
-0.00024506 -0.0024212 -0.001694 -0.0016759 -0.00062842 0.0017147 0.029358 0.28142
0.020309 -0.0097993 -0.0028913 0.0053995
-0.0041667 -0.00072294 -0.0026117 0.002493 -0.00055345 0.0018905 0.020294 -0.0098302
-0.033546 0.2069 0.018116 0.0011465
-0.0010022 0.0041664 -0.0013099 0.0019783 -0.00094875 0.00021321 -0.0028859 0.0054138
0.018116 0.0011439 -0.047875 0.29964
1220000000 0.13232 0.28962 0.01038 -0.029742 -0.0015475 -0.00084593 -2.2831e-05 -0.0010045
-0.002633 0.0024584 0.0013856 0.0019924
0.010382 -0.029712 -0.041961 0.38947 -0.016658 -0.020985 -0.0024624 0.00039289
0.00014442 0.0028918 -0.00073224 0.0018389
-0.0015594 -0.00083238 -0.016762 -0.020931 0.2867 0.20594 0.00082943 0.0015408
0.0005925 0.0010767 0.00030201 0.0006509
-1.722e-05 -0.0010062 -0.0024701 0.00040122 0.00083886 0.0015382 0.069108 0.27332
0.010046 -0.016201 0.0023472 0.0015944
-0.0025895 0.0024601 0.00015161 0.0029087 0.00059556 0.0010917 0.010024 -0.016225
-0.011126 0.21658 0.014451 -0.01215
0.0013804 0.0019819 -0.00071714 0.00183 0.00029765 0.00064884 0.0023617 0.0015962
0.014454 -0.012139 -0.017068 0.31735
1280000000 0.18186 0.2674 -0.0077391 -0.028163 -0.0018156 0.0024399 -0.00097631 -0.0020271
-0.00078157 0.0030627 0.0024879 0.0011634
-0.0077087 -0.028122 0.0037291 0.38042 -0.023472 -0.0085765 -0.0010044 0.0014233
0.0016183 0.0016723 0.00056458 0.0020642
-0.0018056 0.0024511 -0.023532 -0.0084835 0.3174 0.16214 0.0015293 -9.3149e-05
0.0010268 0.00027356 0.00046142 0.00038682
-0.00099055 -0.0020261 -0.00099333 0.0014275 0.0015373 -0.00010016 0.10596 0.25731
0.0010959 -0.018054 0.00019003 3.42e-05
-0.0007673 0.0030591 0.0016239 0.0016702 0.0010225 0.00028769 0.0010576 -0.018052
0.025417 0.22081 0.0035903 -0.014325
0.0024607 0.001143 0.0005891 0.002057 0.00046883 0.00037678 0.00017567 3.8401e-05
0.0035952 -0.014333 0.031548 0.32021
1340000000 0.21868 0.23351 -0.017306 -0.018851 0.0008274 0.0044203 -0.0017653 -0.00076634
0.0014736 0.0027034 0.0017593 -0.0014004
-0.017267 -0.018845 0.043007 0.37236 -0.02143 0.0040118 -0.00015991 0.0019513
0.0018598 0.00074232 0.0012811 0.00078697
0.00084177 0.0044212 -0.021433 0.0041165 0.33956 0.11425 0.00105 -0.0008699
0.00067107 -0.00048734 0.00021746 0.00028552
-0.0017859 -0.00076398 -0.00014194 0.0019669 0.0010382 -0.00086517 0.13861 0.23741
-0.0078083 -0.015394 0.0011077 0.00030268
0.0015037 0.0026985 0.0018696 0.00072966 0.00067306 -0.00049787 -0.0078438 -0.015382
0.055273 0.21705 -0.0028319 -0.013017
0.0017246 -0.0014285 0.0012871 0.0007782 0.00020439 0.00029834 0.0011021 0.00030008
-0.0028333 -0.013021 0.069593 0.31661
1400000000 0.25143 0.19528 -0.023037 -0.0075589 0.0050579 0.0030477 -0.0020395 0.00066261
0.0023971 0.00085827 0.00030004 -0.0013412
-0.022999 -0.0075641 0.080238 0.35948 -0.014851 0.012133 0.0012779 0.0013436
0.0010624 -0.00076761 0.0012357 0.0003158
0.0050761 0.0030326 -0.014806 0.012218 0.35291 0.060558 0.00012024 -0.0015473
-4.7324e-05 -0.00034808 0.00046998 0.00018786
-0.0020314 0.00067512 0.001288 0.0013339 0.00011097 -0.0015435 0.16852 0.20901
-0.013287 -0.0091972 -0.00073993 -0.00070379
0.002405 0.00083495 0.0010575 -0.00077952 -5.3267e-05 -0.00035047 -0.013316 -0.0091653
0.088365 0.21353 -0.0091672 -0.0088148
0.00028984 -0.0013471 0.0012396 0.00028356 0.00047563 0.00018543 -0.00074469 -0.00071081
-0.0091529 -0.0088192 0.11523 0.30617
1460000000 0.27389 0.15133 -0.020167 0.0044325 0.0054679 -0.0017934 -0.0015806 0.0016953
0.0020536 -0.00061705 -0.00034962 -0.00095201
-0.020152 0.0044128 0.11442 0.33785 -0.0063496 0.015113 0.0017422 0.00019561
0.00086152 -0.0011973 0.0011736 -0.00053536
0.0054675 -0.0018257 -0.0062747 0.015162 0.35896 0.0059518 -0.001208 -0.0011623
0.00015823 -0.00022746 0.00054708 -0.0003329
-0.0015924 0.0016945 0.0017355 0.00019668 -0.0012051 -0.0011585 0.19525 0.18022
-0.014346 -0.0030223 -0.0010603 0.0017453
0.0020378 -0.00062401 0.00085806 -0.0012095 0.00015202 -0.00023639 -0.014353 -0.0029856
0.11773 0.19958 -0.011131 -0.0031983
-0.00035083 -0.00095661 0.0011723 -0.00056393 0.00056034 -0.00032978 -0.0010541 0.0017552
-0.011118 -0.0032068 0.14881 0.28575
1520000000 0.2859 0.10971 -0.014732 0.0099492 0.0032491 -0.0040632 0.00010582 0.0025742
0.002013 -0.0017191 -0.001099 -8.8664e-05
-0.014727 0.0099245 0.14814 0.32316 0.0012979 0.013085 0.0016361 -0.00074744
5.9641e-05 -0.00098355 0.00038465 -0.0010066
0.0032107 -0.0040861 0.0013698 0.013096 0.3519 -0.050433 -0.0010322 -0.00033757
0.00066623 -0.00076154 -1.1073e-05 -0.0001022
0.00011831 0.0025767 0.0016365 -0.00076257 -0.0010293 -0.0003281 0.21911 0.14243
-0.013922 0.0021162 0.0012182 0.0019595
0.0019957 -0.0017445 5.4506e-05 -0.00098574 0.00066277 -0.00076305 -0.013917 0.0021389
0.14595 0.18605 -0.01132 0.00098653
-0.0011 -0.00010694 0.00038657 -0.0010138 -2.756e-06 -0.0001075 0.0012191 0.0019524
-0.011328 0.00098983 0.18263 0.26615
1580000000 0.29508 0.063632 -0.0082957 0.013106 -0.00085219 -0.0047859 0.0013833 0.0018752
-0.00036889 -0.0020067 -0.00032128 0.0004722
-0.0083045 0.013092 0.17562 0.29833 0.0050057 0.0084003 0.00049856 -0.0015638
-0.00052605 -0.0010147 -0.00024159 -0.00079417
-0.00087978 -0.0047981 0.0050604 0.0083801 0.33142 -0.10806 -0.001547 0.00058515
-0.00022817 -0.0011291 0.00010406 -0.00043141
0.0013946 0.0018686 0.00048402 -0.001566 -0.0015366 0.00058521 0.23366 0.10308
-0.010846 0.0067535 0.0021049 0.00084237
-0.0003937 -0.0020101 -0.00052357 -0.0010143 -0.00022702 -0.0011284 -0.010837 0.0067909
0.17074 0.16866 -0.0092013 0.0067437
-0.00030173 0.00045464 -0.0002318 -0.000783 0.00010647 -0.00043014 0.0021136 0.00083454
-0.0091974 0.0067383 0.21579 0.23937
1640000000 0.29713 0.022449 -0.0016788 0.01226 -0.0026606 -0.0025796 0.0026883 0.0010199
-0.00061905 -0.0014011 -0.00020768 0.00052757
-0.0016851 0.01225 0.20525 0.27318 0.0058596 0.0036562 -0.0006324 -0.0017244
-0.00094724 -0.00043875 -0.00043333 -0.00074099
-0.0026729 -0.0025744 0.0058967 0.0036261 0.30313 -0.15699 -0.00065551 0.0013684
-0.00099798 -0.001067 -5.4961e-05 -0.00046504
0.0026949 0.0010122 -0.00064222 -0.0017309 -0.00065965 0.0013608 0.24659 0.053904
-0.0069732 0.0080045 0.0023625 -0.0007471
-0.00064183 -0.0013854 -0.00095247 -0.00043586 -0.0010007 -0.0010734 -0.0069532 0.0080263
0.19369 0.14457 -0.0048438 0.0087634
-0.00017041 0.00052948 -0.00043486 -0.00075647 -7.1226e-05 -0.00045578 0.0023609 -0.00075128
-0.0048529 0.0087655 0.24148 0.20846
1700000000 0.2899 -0.022927 0.0017582 0.0096169 -0.0035118 0.00012619 0.0030452 -0.0011686
-0.0019102 -0.00067719 0.00060499 0.00037948
0.0017422 0.0096145 0.22342 0.24135 0.0039285 0.00072054 -0.0014609 -0.0005824
-0.00080921 1.2281e-05 -0.00088868 -0.00046108
-0.0035155 0.00014549 0.0039309 0.00069499 0.25949 -0.19711 0.00037296 0.0016076
-0.0019068 -0.00031446 -0.00043914 -0.00082471
0.0030389 -0.0011747 -0.0014643 -0.00058033 0.00037779 0.0016133 0.24377 0.0036388
-0.0045448 0.0086935 0.0014392 -0.002173
-0.0019282 -0.00066698 -0.00079429 1.4522e-05 -0.0019099 -0.0003051 -0.0045258 0.0087045
0.2114 0.12452 -0.00022342 0.0092707
0.00061668 0.00038543 -0.00091462 -0.00046027 -0.00043545 -0.00082068 0.0014396 -0.0021765
-0.00020682 0.0092729 0.25833 0.17388
1760000000 0.27754 -0.071608 0.0042275 0.0064621 -0.0022032 0.00094356 0.0013307 -0.0034144
-0.0012478 0.00064452 0.00036603 -0.00066952
0.0042321 0.0064579 0.24924 0.2012 0.0016798 -0.0010377 -0.0011665 0.0001702
-0.0010305 0.00087835 -0.00059477 0.00034908
-0.0022023 0.00096733 0.0016866 -0.0010378 0.21016 -0.23007 0.0011206 0.0011227
-0.0011506 0.0013526 -0.0012254 -0.00065133
0.0013315 -0.0033975 -0.0011584 0.0001802 0.0011053 0.00113 0.23453 -0.048323
-0.0013719 0.0080451 -0.00030146 -0.002435
-0.0012331 0.00066965 -0.0010189 0.00090156 -0.0011456 0.001351 -0.0013608 0.0080606
0.22644 0.089541 0.0036041 0.0068129
0.00038729 -0.00067355 -0.0005777 0.00035468 -0.001243 -0.00065004 -0.00030839 -0.002434
0.0035922 0.0068166 0.27114 0.13623
1820000000 0.25268 -0.10891 0.0045829 0.0028957 3.1119e-05 0.0023875 -0.00095018 -0.0030701
-0.0010965 0.0008141 -6.8407e-05 -5.7636e-05
0.0045664 0.0028897 0.259 0.17089 -0.00015944 -4.1797e-06 -0.0013212 0.00090042
-7.9801e-05 0.0013316 -0.00059596 0.00053306
3.2549e-05 0.0023932 -0.00016136 -3.7575e-06 0.16045 -0.24537 0.0014178 0.00049219
-0.00036248 0.002302 -0.0014134 0.00032368
-0.00097001 -0.0030551 -0.0013 0.00089859 0.0014154 0.00046605 0.20423 -0.095805
1.6558e-05 0.0065353 -0.001654 -0.0013498
-0.0010766 0.00082747 -6.6766e-05 0.0013406 -0.00035842 0.0023106 3.6449e-05 0.006541
0.2438 0.060429 0.0044421 0.0035001
-7.7333e-05 -7.4235e-05 -0.00059367 0.00053557 -0.0014142 0.00033428 -0.0016497 -0.0013435
0.0044485 0.0035054 0.27388 0.1003
1880000000 0.21725 -0.14935 0.0025048 0.00048484 -0.00045803 0.002042 -0.0030051 -0.0021685
-0.00027383 0.0016253 0.00028221 -0.00049536
0.0024999 0.00048079 0.26307 0.12418 -0.0022627 0.0016339 -0.00022807 0.0016565
0.00059829 0.0012657 9.5808e-05 0.00096414
-0.00044448 0.0020233 -0.0022557 0.0016424 0.10796 -0.25513 0.0018794 -0.00089572
0.0014443 0.0020887 -0.0010506 0.0013587
-0.0030139 -0.0021628 -0.00021427 0.0016616 0.0018781 -0.00090399 0.16309 -0.136
0.0006085 0.0046278 -0.0024006 0.00055597
-0.00026376 0.0016263 0.00061321 0.0012725 0.0014492 0.0020839 0.00061516 0.0046259
0.24684 0.027662 0.004603 0.0014869
0.00027969 -0.00052576 0.00010993 0.00094662 -0.0010421 0.001358 -0.0023916 0.00056313
0.0046023 0.0014791 0.27343 0.065981
1940000000 0.17755 -0.17483 0.00031524 -0.0012869 0.0012608 0.0019486 -0.0038297 0.00052513
0.0011865 0.0010355 -0.00064438 -0.00054618
0.00030837 -0.0012848 0.2632 0.092428 -0.0011369 0.0037923 0.00097488 0.0013335
0.0018846 0.00047389 0.00084624 0.00029795
0.0012759 0.0019411 -0.0011122 0.0038066 0.061974 -0.24835 0.00046857 -0.0022037
0.0025206 0.00050912 0.00026548 0.0015495
-0.0038329 0.00054173 0.00098457 0.0013189 0.00047133 -0.0022024 0.11043 -0.16593
-0.00047532 0.0036088 -0.0013619 0.0016269
0.0011905 0.0010316 0.001891 0.00044692 0.0025015 0.00049682 -0.00047479 0.0036085
0.24846 -0.011468 0.0036239 -0.0018393
-0.00064446 -0.00051536 0.00085033 0.00030393 0.000261 0.0015393 -0.0013459 0.0016321
0.0036246 -0.0018387 0.26277 0.03039
2000000000 0.13098 -0.18927 -0.0035305 0.00057193 0.0025133 0.0016812 -0.0023086 0.0035805
0.0011301 0.00027787 -0.00070501 0.00041557
-0.0035267 0.00058253 0.24878 0.057052 -0.00095057 0.0057386 0.0016304 0.00044416
0.0013416 -0.0014165 0.00055126 0.00016075
0.0025096 0.0016492 -0.00090885 0.0057395 0.018574 -0.23349 -0.0012858 -0.0014549
0.0020943 -0.0011567 0.0017013 0.0013057
-0.0022951 0.0035736 0.0016311 0.00041941 -0.0012717 -0.001459 0.056899 -0.17536
-0.0021454 0.0038156 3.4381e-05 0.0021868
0.0011401 0.00024812 0.0013651 -0.0014373 0.0020863 -0.0011836 -0.0021379 0.0038187
0.24203 -0.045562 0.00044353 -0.0025649
