!Keysight Technologies,M9804A,MY58100912,A.14.10.03
!Date: Thursday, April 27, 2023 10:28:33
!Correction: S11(C  6-Port  ) 
!S12(C  6-Port  ) 
!S13(C  6-Port  ) 
!S14(C  6-Port  ) 
!S15(C  6-Port  ) 
!S16(C  6-Port  ) 
!S21(C  6-Port  ) 
!S22(C  6-Port  ) 
!S23(C  6-Port  ) 
!S24(C  6-Port  ) 
!S25(C  6-Port  ) 
!S26(C  6-Port  ) 
!S31(C  6-Port  ) 
!S32(C  6-Port  ) 
!S33(C  6-Port  ) 
!S34(C  6-Port  ) 
!S35(C  6-Port  ) 
!S36(C  6-Port  ) 
!S41(C  6-Port  ) 
!S42(C  6-Port  ) 
!S43(C  6-Port  ) 
!S44(C  6-Port  ) 
!S45(C  6-Port  ) 
!S46(C  6-Port  ) 
!S51(C  6-Port  ) 
!S52(C  6-Port  ) 
!S53(C  6-Port  ) 
!S54(C  6-Port  ) 
!S55(C  6-Port  ) 
!S56(C  6-Port  ) 
!S61(C  6-Port  ) 
!S62(C  6-Port  ) 
!S63(C  6-Port  ) 
!S64(C  6-Port  ) 
!S65(C  6-Port  ) 
!S66(C  6-Port  ) 
!S6P File: Measurement: :
# Hz S  RI   R 50
500000000 -0.33736 -0.03955 -0.0098813 -0.0025303 -0.0075645 0.012509 -0.0042698 0.011927
0.012944 0.0044563 -0.0050172 0.0084299
-0.0098745 -0.0024055 -0.41902 -0.052093 0.0080647 -0.010936 0.0015482 0.012223
0.0077481 0.0023941 0.0013155 0.013322
-0.0075303 0.012559 0.0080652 -0.0109 -0.26531 0.20893 0.0079245 0.0035562
-0.0016847 0.0079502 0.0018948 0.012135
-0.0042162 0.012048 0.0015656 0.012318 0.0079058 0.0035251 -0.33068 0.043835
-0.018226 -0.006231 0.015856 0.027348
0.012709 0.0041396 0.0076353 0.0024962 -0.0015588 0.0080147 -0.018218 -0.0061292
-0.22142 -0.19821 -0.025228 0.0046343
-0.0048257 0.0087268 0.0013246 0.013655 0.0018391 0.012218 0.015846 0.027207
-0.025063 0.0046891 -0.26586 -0.1358
560000000 -0.3155 0.1222 -0.023693 -0.064236 0.00014462 0.012084 0.0057358 0.010641
0.010462 0.004918 0.011563 0.0078185
-0.023754 -0.064251 -0.3787 0.10725 -0.040701 -0.037723 0.013866 0.0037085
-0.012724 -0.0047692 0.0032295 -4.6115e-05
0.00016297 0.012198 -0.040841 -0.03774 -0.18362 0.25708 -0.000452 -0.0044587
0.019038 0.0049169 0.006812 -0.0063535
0.0055465 0.010547 0.013899 0.0037051 -0.00043893 -0.0044378 -0.3057 0.13232
0.0045829 -0.023726 0.0047506 -0.02129
0.010298 0.005094 -0.012907 -0.0043971 0.018743 0.0048572 0.0045947 -0.023691
-0.28773 -0.02253 0.0092558 -0.049379
0.011314 0.0077633 0.0033969 -0.00017211 0.0069421 -0.0063718 0.0047162 -0.021404
0.0091243 -0.049096 -0.32867 0.012669
620000000 -0.2746 0.10705 -0.023257 0.0078948 0.0033327 0.0085574 0.0080873 -0.005283
0.011053 -0.0005778 0.0016439 -0.0027462
-0.023232 0.0079225 -0.40247 0.059358 -0.018529 4.0277e-05 -0.0013546 -0.0018807
0.011295 -0.0067597 0.0016241 -0.0033671
0.0034594 0.0085617 -0.018565 0.00011797 -0.15388 0.26604 -0.0012783 -0.0049751
-0.003162 -0.0031029 0.0086389 -0.0032783
0.0080858 -0.005316 -0.0013538 -0.0019 -0.0012983 -0.0049848 -0.26581 0.14334
-0.037047 -0.019802 0.012351 0.02655
0.011382 -0.00067022 0.011219 -0.0068285 -0.0031593 -0.0030681 -0.037071 -0.019436
-0.20687 -0.061909 -0.041694 0.013938
0.0017819 -0.0025077 0.0015629 -0.0033546 0.0085469 -0.0033444 0.012285 0.026507
-0.041631 0.013665 -0.24946 -0.025595
680000000 -0.23499 0.19167 -0.027139 -0.014512 0.004955 0.0051073 0.0012376 -0.0070931
-0.0029679 -0.011347 0.005114 -0.0071792
-0.027128 -0.014524 -0.38764 0.15721 -0.032648 -0.0013847 -0.001673 -0.00037228
-0.0022593 -0.0087834 -0.0011614 -0.0018779
0.0049894 0.0050901 -0.032686 -0.0013013 -0.10239 0.2862 -0.00084217 -5.244e-05
-0.0016979 0.00067548 -0.002736 -0.0092531
0.0012141 -0.0070957 -0.0016966 -0.00037098 -0.00084873 -4.6484e-05 -0.22079 0.19357
-0.023333 -0.0080946 -0.01014 -0.011766
-0.0031511 -0.011064 -0.0023447 -0.0087249 -0.0017064 0.00073117 -0.023475 -0.0079623
-0.25721 0.037073 -0.0051303 -0.0088055
0.0048887 -0.0071623 -0.0013229 -0.0018842 -0.0027856 -0.0090933 -0.010169 -0.011421
-0.0049082 -0.0091263 -0.26167 0.081704
740000000 -0.19056 0.18682 -0.038821 0.02659 0.012669 -0.005196 -0.00030017 -0.0042101
-0.0039709 -0.0029093 -0.0064821 0.0022779
-0.038799 0.026584 -0.33504 0.17635 -0.035528 0.035012 -0.00073978 -0.0060943
-0.011866 0.0081732 -0.001824 -0.0064946
0.0127 -0.0052296 -0.035486 0.035152 -0.068434 0.28456 -0.0020526 0.0031828
-0.0023086 -0.0045935 -0.0015455 0.00012891
-0.00034635 -0.0042134 -0.00076315 -0.0061411 -0.0020563 0.0031945 -0.20406 0.20132
-0.043096 -0.007753 0.023022 0.014994
-0.004247 -0.0028781 -0.011836 0.0082409 -0.0023538 -0.0045686 -0.043295 -0.0077081
-0.1582 0.063013 -0.044246 3.5703e-05
-0.0064025 0.0021767 -0.0018881 -0.0065133 -0.0015214 4.8244e-05 0.023105 0.014957
-0.044305 -0.00030565 -0.24922 0.088279
800000000 -0.15768 0.22717 -0.022573 0.016653 0.0052378 -0.010629 -0.0048081 -0.0020804
-0.0040376 0.0022371 0.0044571 0.00037581
-0.022554 0.016629 -0.33815 0.24633 -0.0079161 0.033897 -0.0023285 0.0022313
-0.00048634 0.0030068 0.0010714 0.00507
0.0052221 -0.010654 -0.0078063 0.033967 -0.027937 0.30772 0.0010642 0.0015018
0.00034243 0.003522 -0.0016973 0.00090852
-0.0048432 -0.0020788 -0.0023318 0.0022116 0.0010614 0.0014921 -0.17582 0.22907
-0.028502 0.013372 0.013504 -0.010422
-0.0041364 0.002299 -0.00057275 0.0030474 0.00033752 0.0035557 -0.028558 0.013416
-0.20549 0.086458 -0.017966 0.018871
0.0044209 0.00035741 0.0011373 0.005103 -0.0017125 0.00092611 0.013509 -0.010367
-0.017935 0.018852 -0.24613 0.1378
860000000 -0.1231 0.24748 -0.017507 0.030618 -0.0033165 -0.0099614 -0.0023569 0.0009388
0.0041045 0.0049953 -0.003236 -0.0028027
-0.017463 0.030591 -0.29052 0.28824 0.0078595 0.034003 4.2856e-05 0.0019204
0.0042715 8.3669e-05 0.0033775 0.00078539
-0.0033363 -0.0099428 0.0079845 0.034014 0.020114 0.31555 -0.00051784 -0.00027152
0.0027443 -0.0015505 0.0013869 0.0044982
-0.0023685 0.00091489 3.6471e-05 0.0019322 -0.00052092 -0.00027828 -0.13941 0.2402
-0.018197 0.018224 -0.0062713 -0.0091905
0.0041856 0.0050185 0.0043695 3.9559e-05 0.0027882 -0.0015566 -0.018225 0.018322
-0.15548 0.1379 -0.026778 0.015383
-0.0032545 -0.0028831 0.0033902 0.00074317 0.0013923 0.0045724 -0.0062556 -0.0092396
-0.026782 0.015254 -0.19427 0.18532
920000000 -0.09856 0.2705 0.0050529 0.037925 -0.009436 -0.0043116 -0.0019086 0.0019869
0.0010257 0.0019619 0.002731 -0.0015993
0.0050418 0.037889 -0.26154 0.3094 0.028026 0.021892 0.0012923 0.0011109
0.0069001 -0.0005264 0.0040152 -0.0025153
-0.0094535 -0.0042705 0.028152 0.021827 0.066312 0.31621 0.0018104 -0.00010067
0.0010919 -0.0004086 0.00087652 -0.00095019
-0.0018439 0.0019865 0.001295 0.001086 0.0017919 -9.5485e-05 -0.11563 0.2572
-0.011346 0.030204 0.0036581 -0.0062854
0.0011034 0.001961 0.0068822 -0.000586 0.0011276 -0.00038386 -0.011267 0.030253
-0.14641 0.14425 -0.0032271 0.02769
0.0026744 -0.0016589 0.0039449 -0.0025421 0.00084273 -0.0009967 0.0036335 -0.0064321
-0.0033463 0.027655 -0.20411 0.19876
980000000 -0.051116 0.29007 0.0174 0.029963 -0.0089335 0.0046557 0.0020547 0.0036559
0.0040675 -0.0012727 -0.0032925 -0.0022301
0.017394 0.029939 -0.20875 0.34337 0.032829 0.0048884 0.0020257 2.0739e-05
0.0014442 -0.0057136 -0.00026719 -0.0024
-0.0089475 0.0046745 0.032916 0.0047811 0.11248 0.30944 0.00046369 -0.0011416
0.0002311 -0.0020468 0.0015117 -0.00018002
0.0020511 0.0036358 0.0020593 3.4733e-05 0.00045775 -0.0011351 -0.077451 0.26859
0.0073227 0.029572 -0.0094486 -0.0072106
0.0040451 -0.0012942 0.0014128 -0.0057752 0.00023246 -0.0020433 0.0073738 0.029547
-0.11558 0.17324 0.004299 0.019539
-0.0033203 -0.0022526 -0.00020227 -0.0024033 0.0014926 -0.00021295 -0.0095181 -0.0072497
0.0043499 0.019609 -0.16174 0.245
1040000000 -0.0089 0.29829 0.033099 0.018151 -0.0011504 0.0068783 0.0025995 0.00074165
0.00013575 -0.0038352 -0.0002814 -0.0013566
0.033019 0.018173 -0.17312 0.35635 0.029248 -0.014686 0.0014344 -0.0016176
-0.002545 -0.0025082 -0.0013038 -0.0024305
-0.0011349 0.0068821 0.029251 -0.014845 0.15834 0.29573 -0.00051214 -0.0014768
-0.0016572 -0.00082374 -0.00041872 -0.0010972
0.0025818 0.00075942 0.0014497 -0.0016502 -0.0005171 -0.0014841 -0.05012 0.27887
0.018649 0.017876 -0.0023558 0.0016914
0.00015843 -0.003815 -0.0025781 -0.0024607 -0.0016436 -0.00083294 0.018601 0.017876
-0.08344 0.18146 0.013146 0.019019
-0.00026683 -0.0013531 -0.0013492 -0.0024675 -0.0004204 -0.0010979 -0.0023367 0.0017042
0.013103 0.018936 -0.14079 0.26559
1100000000 0.036435 0.30601 0.035651 -0.0042212 0.0029618 0.0038123 0.0024025 -0.0012662
-0.0020407 -0.0031947 -0.003929 5.6553e-07
0.035614 -0.0042028 -0.12978 0.37342 0.015126 -0.027612 8.6207e-06 -0.0017639
-0.0032754 -0.00066307 -0.0033539 -0.00052068
0.0029633 0.0038112 0.015056 -0.027737 0.20457 0.27546 -0.0018371 0.00025473
-0.0017806 0.00053069 -0.0010579 -0.00032012
0.0024051 -0.0012738 6.5972e-06 -0.0017741 -0.0018337 0.0002486 -0.0099547 0.28388
0.023743 0.0051932 -0.0026066 0.00022069
-0.0020682 -0.0031608 -0.00328 -0.00064481 -0.0017719 0.00053413 0.023731 0.005172
-0.065994 0.19568 0.018935 0.0090217
-0.0039519 2.2576e-05 -0.0034222 -0.00052097 -0.0010695 -0.00035382 -0.002615 0.00024615
0.018857 0.0090623 -0.095159 0.29673
1160000000 0.087791 0.30097 0.023903 -0.020607 0.0026825 -0.00058708 -0.00021362 -0.0024091
-0.0041939 -0.00078225 -0.00092743 0.0041684
0.023866 -0.020559 -0.086268 0.37744 -0.0035809 -0.028948 -0.001659 -0.0016761
-0.0026122 0.0024789 -0.0013193 0.0019555
0.0026537 -0.00059781 -0.0036974 -0.028987 0.24749 0.2448 -0.00061296 0.0017105
-0.00058679 0.0018642 -0.00091611 0.00024763
-0.00025481 -0.0024202 -0.0016614 -0.0016629 -0.00062241 0.0017022 0.029313 0.2814
0.020223 -0.0097961 -0.0029418 0.0054224
-0.0041936 -0.00077796 -0.0026092 0.0025162 -0.00056588 0.0018601 0.02022 -0.0098566
-0.032687 0.20533 0.018123 0.0012055
-0.00095113 0.0041324 -0.001311 0.001974 -0.00094388 0.00024574 -0.0029419 0.0053794
0.018081 0.0011631 -0.048249 0.29972
1220000000 0.13213 0.28973 0.010368 -0.029832 -0.0015865 -0.00087599 7.3153e-06 -0.00097875
-0.0026332 0.0024907 0.0014105 0.0019616
0.010361 -0.029787 -0.042093 0.38938 -0.016679 -0.021081 -0.0025131 0.00038349
9.5505e-05 0.002971 -0.00073214 0.0018429
-0.0016078 -0.0008693 -0.016797 -0.021042 0.28669 0.20594 0.00082198 0.0015439
0.00058378 0.0011404 0.00030004 0.00068008
-7.8407e-06 -0.00099205 -0.0025166 0.00040073 0.00082644 0.0015459 0.069018 0.27327
0.0099937 -0.016156 0.0023703 0.0016161
-0.0026369 0.0024979 0.00010103 0.0029366 0.00060003 0.0011359 0.0099625 -0.016153
-0.010453 0.21475 0.014535 -0.012164
0.0013972 0.0020066 -0.0007125 0.0018315 0.00029137 0.00065212 0.0023724 0.0016129
0.014466 -0.01216 -0.017335 0.31744
1280000000 0.18173 0.26761 -0.0077563 -0.028243 -0.001872 0.0024389 -0.00095659 -0.0020125
-0.00083187 0.0030739 0.0024877 0.0011703
-0.0077591 -0.028228 0.0035742 0.38038 -0.023528 -0.0086334 -0.0010082 0.0014219
0.0016128 0.0016963 0.00055724 0.0020792
-0.0018742 0.0024663 -0.023625 -0.0085316 0.31733 0.16213 0.0015315 -8.5683e-05
0.0010357 0.00028191 0.00048597 0.00037857
-0.00095936 -0.0020055 -0.0009938 0.0014333 0.0015385 -9.3085e-05 0.10585 0.25727
0.0010303 -0.017997 0.0001749 5.758e-05
-0.00077518 0.0030813 0.0016507 0.0016506 0.0010474 0.00029524 0.000996 -0.017988
0.025847 0.2189 0.0036496 -0.014324
0.0024755 0.0011576 0.00057944 0.0020672 0.000488 0.00037622 0.00019511 -1.9715e-06
0.0035955 -0.014253 0.031288 0.32026
1340000000 0.21871 0.23367 -0.017376 -0.018872 0.00082178 0.0044627 -0.0017901 -0.00081171
0.0014819 0.0027146 0.0017597 -0.0013886
-0.01737 -0.018849 0.042884 0.37235 -0.021521 0.0040127 -0.00015392 0.0019587
0.0018754 0.00074691 0.0012386 0.00078777
0.00085336 0.0044538 -0.021552 0.0041334 0.33952 0.11427 0.0010473 -0.00086454
0.00070184 -0.00049655 0.00022139 0.00029975
-0.0017862 -0.00080196 -0.00014342 0.0019635 0.0010405 -0.00086928 0.13847 0.23739
-0.0078588 -0.015291 0.0011206 0.00031134
0.0014888 0.0026937 0.0018544 0.00073636 0.00069536 -0.0004908 -0.0078793 -0.015283
0.055307 0.21518 -0.0028313 -0.013052
0.0017151 -0.0013977 0.0012828 0.00079625 0.00020349 0.00028824 0.0011064 0.0002843
-0.0027616 -0.013123 0.069355 0.31666
1400000000 0.2515 0.19542 -0.02311 -0.0075348 0.0050662 0.0030969 -0.0020566 0.00064544
0.0024147 0.00087234 0.00032807 -0.0013235
-0.023102 -0.0075152 0.080087 0.35945 -0.01493 0.012181 0.0012875 0.0013368
0.0010568 -0.0007913 0.0012352 0.00031035
0.0050886 0.0030788 -0.014909 0.012289 0.35281 0.060582 0.00011481 -0.0015473
-5.9758e-05 -0.00036894 0.00046852 0.00017246
-0.0020602 0.00063728 0.0012947 0.0013242 0.00012106 -0.0015502 0.16835 0.20907
-0.013282 -0.0090685 -0.00074769 -0.00073834
0.0024264 0.00085963 0.0010577 -0.00077851 -7.355e-05 -0.00038572 -0.013306 -0.0090285
0.088159 0.21169 -0.0091443 -0.0088586
0.00032031 -0.0013566 0.0012382 0.00030272 0.00046014 0.00020228 -0.00075042 -0.00072597
-0.0091512 -0.0088492 0.11496 0.30626
1460000000 0.27395 0.15133 -0.020243 0.0045051 0.0054862 -0.0017761 -0.0015851 0.0016856
0.0020869 -0.00063367 -0.00032356 -0.00096565
-0.020224 0.0045154 0.11429 0.33785 -0.0063821 0.015208 0.0017347 0.0001842
0.00084986 -0.0011994 0.0011909 -0.00056302
0.0054879 -0.0018055 -0.0063157 0.015272 0.35887 0.0060228 -0.0012054 -0.0011795
0.0001338 -0.00023884 0.00056457 -0.00033266
-0.001585 0.0017037 0.0017405 0.00019577 -0.001204 -0.0011713 0.19514 0.18035
-0.014272 -0.0028506 -0.0010522 0.00177
0.0020928 -0.00064936 0.00082128 -0.0012301 0.00010833 -0.00023158 -0.014293 -0.0028457
0.11745 0.19797 -0.011132 -0.0031854
-0.00035319 -0.00096325 0.001191 -0.00055339 0.00059953 -0.00032073 -0.0010272 0.0017445
-0.011154 -0.0032378 0.14868 0.28586
1520000000 0.28591 0.10964 -0.01473 0.010024 0.003271 -0.0040749 8.5622e-05 0.0025909
0.0020134 -0.0017755 -0.0010846 -9.8959e-05
-0.014706 0.010037 0.14798 0.32318 0.0013409 0.013167 0.001643 -0.00074468
3.0147e-05 -0.00096281 0.0003702 -0.00099392
0.0032655 -0.0041015 0.0014109 0.013195 0.35187 -0.050318 -0.0010405 -0.00031874
0.00066623 -0.00074549 -6.2413e-06 -9.5173e-05
0.00011727 0.0025823 0.001648 -0.00075834 -0.0010382 -0.00032787 0.21908 0.14261
-0.013793 0.0021935 0.0012094 0.0019595
0.002003 -0.0017687 3.4572e-05 -0.00096691 0.00067592 -0.00076888 -0.013795 0.0022304
0.14549 0.18458 -0.011313 0.00099336
-0.0011081 -8.6255e-05 0.00038352 -0.0010029 1.278e-05 -0.00010163 0.0012334 0.0019639
-0.011363 0.00099006 0.18251 0.26617
1580000000 0.295 0.063541 -0.0082505 0.013167 -0.00081186 -0.0048323 0.0013778 0.0018893
-0.00040916 -0.0020448 -0.00032431 0.00044208
-0.0082307 0.013169 0.17546 0.29839 0.0050847 0.0084456 0.0004955 -0.0015694
-0.0005081 -0.00099565 -0.00023781 -0.00079343
-0.00083557 -0.0048418 0.0051556 0.0084375 0.33149 -0.10794 -0.0015223 0.00059835
-0.00021573 -0.0011304 0.00014027 -0.00046344
0.0013944 0.0018815 0.00048414 -0.0015701 -0.0015265 0.00060637 0.23369 0.10327
-0.010661 0.0067587 0.0021226 0.00084176
-0.00040781 -0.0020613 -0.00051934 -0.0009913 -0.00020317 -0.0011204 -0.010652 0.0067728
0.17031 0.16741 -0.0092073 0.0067661
-0.00033168 0.00046726 -0.00023819 -0.00079992 0.00014505 -0.0004515 0.0021282 0.00083671
-0.0091908 0.0068132 0.21561 0.23938
1640000000 0.29694 0.022393 -0.0016212 0.01228 -0.0026806 -0.0026043 0.0027063 0.0010259
-0.00067174 -0.0013953 -0.00019878 0.00053622
-0.0015918 0.012268 0.2051 0.27328 0.0059534 0.0036541 -0.00063977 -0.0017355
-0.00091854 -0.00043566 -0.00042424 -0.00075642
-0.0026989 -0.002595 0.0059989 0.0036221 0.3032 -0.15698 -0.00067494 0.0013815
-0.00097146 -0.0010623 -3.5921e-05 -0.00046824
0.0027117 0.0010179 -0.00064781 -0.0017259 -0.00067945 0.0013768 0.2467 0.054045
-0.0068288 0.0079215 0.0023706 -0.00075513
-0.00067088 -0.0013849 -0.00092792 -0.00042175 -0.00099226 -0.0010297 -0.0068276 0.0079357
0.19349 0.14336 -0.0048513 0.0087759
-0.00018925 0.00053206 -0.00044403 -0.00075526 -5.557e-05 -0.00047721 0.002378 -0.00072866
-0.0048523 0.0087635 0.2413 0.20855
1700000000 0.28966 -0.022862 0.0018339 0.0095995 -0.0034875 0.00012952 0.0030494 -0.0011778
-0.0019424 -0.0006425 0.000613 0.00037405
0.0018402 0.0095987 0.22331 0.24151 0.0039901 0.00068031 -0.0014658 -0.00060397
-0.00075796 -3.9634e-06 -0.00091597 -0.00047942
-0.0035094 0.00014873 0.004018 0.00065591 0.25944 -0.19711 0.00040294 0.0015802
-0.0018854 -0.00029006 -0.00046065 -0.00082402
0.0030225 -0.0012063 -0.0014681 -0.0005891 0.0004066 0.0015883 0.24391 0.0037231
-0.0044317 0.0085215 0.0014525 -0.0021873
-0.001949 -0.00063209 -0.00076444 -3.4419e-06 -0.001908 -0.00030457 -0.0044232 0.0085413
0.2113 0.12324 -0.00024446 0.0093143
0.00062191 0.0003593 -0.00091516 -0.00047144 -0.00045291 -0.00080268 0.0014288 -0.0021962
-0.00021289 0.0092982 0.25809 0.17398
1760000000 0.27733 -0.071393 0.0042805 0.0064155 -0.00221 0.00092003 0.0013355 -0.0034211
-0.0012008 0.00066162 0.00037001 -0.00067482
0.0042842 0.0063867 0.24918 0.20137 0.0017284 -0.0011033 -0.0011669 0.00018279
-0.0010335 0.00084009 -0.00061733 0.00035793
-0.0022199 0.00092918 0.0017298 -0.0011206 0.21025 -0.2301 0.0011164 0.0011042
-0.001155 0.0013424 -0.0012723 -0.00066417
0.0013198 -0.0034137 -0.0011629 0.00020116 0.0011292 0.0010958 0.2347 -0.048323
-0.001361 0.0078828 -0.00028778 -0.0024574
-0.0011973 0.00067457 -0.0010209 0.00084683 -0.0011539 0.0013432 -0.0013509 0.0078654
0.22654 0.088004 0.0036073 0.0068472
0.00039119 -0.0006584 -0.0005947 0.00036454 -0.0012793 -0.00068178 -0.00029067 -0.0024866
0.0036247 0.0068411 0.271 0.13639
1820000000 0.25264 -0.10863 0.004597 0.0028255 4.5587e-06 0.0023606 -0.00098431 -0.0030663
-0.0010539 0.00080674 -7.3393e-05 -6.7528e-05
0.0045769 0.0028107 0.25901 0.17104 -0.0001503 -9.1999e-05 -0.0013181 0.00088533
-0.00011921 0.0013227 -0.00059022 0.00053671
-7.8297e-07 0.002359 -0.0001514 -0.00010513 0.16046 -0.2454 0.0013988 0.00044098
-0.00040537 0.0023032 -0.0014304 0.00030049
-0.0010034 -0.0030414 -0.0013157 0.00089575 0.0013886 0.00043809 0.20434 -0.095929
-4.0788e-05 0.006353 -0.0016618 -0.0013735
-0.0010557 0.00079806 -0.00011197 0.001322 -0.0004189 0.0022777 -2.313e-05 0.0063622
0.24377 0.058503 0.0044738 0.0035111
-8.2106e-05 -0.00010739 -0.00057457 0.00053673 -0.0014472 0.00028438 -0.001676 -0.0013882
0.0044608 0.003495 0.27374 0.10049
1880000000 0.21735 -0.14904 0.0024915 0.00043758 -0.00046953 0.0020282 -0.0030232 -0.0021743
-0.00028417 0.0015625 0.00028331 -0.00051813
0.0024842 0.00044204 0.2631 0.12432 -0.0023008 0.0015664 -0.00022061 0.001657
0.00057063 0.0012975 9.5031e-05 0.00095997
-0.00043999 0.0020367 -0.0023013 0.0015714 0.10805 -0.25512 0.0018836 -0.00086242
0.0013899 0.0020881 -0.0010261 0.001358
-0.0030316 -0.0021656 -0.00020692 0.0016557 0.001896 -0.00086727 0.1631 -0.13611
0.00045909 0.0044773 -0.0024585 0.00056653
-0.00026593 0.0015677 0.00056972 0.0012922 0.0014209 0.0020969 0.00041829 0.0044914
0.24659 0.025362 0.004615 0.0014733
0.0002427 -0.00051996 9.7722e-05 0.00094088 -0.0010303 0.0013528 -0.0024931 0.00057076
0.0046266 0.0014292 0.27335 0.066259
1940000000 0.17779 -0.17464 0.00030082 -0.0013336 0.0012505 0.0019745 -0.0038321 0.00054286
0.0011426 0.0010373 -0.00065005 -0.00051245
0.00029394 -0.0013369 0.26326 0.092491 -0.0012169 0.003761 0.00097873 0.0013519
0.0018864 0.00051898 0.00085834 0.00029783
0.0013028 0.0019527 -0.0011982 0.0037554 0.061879 -0.24833 0.00050029 -0.0021794
0.0025028 0.00052539 0.0002202 0.0015368
-0.0038298 0.0005747 0.0009841 0.001339 0.00049975 -0.0022007 0.11045 -0.16602
-0.00064454 0.0035521 -0.0014331 0.0017016
0.0011599 0.0010104 0.0019067 0.00050638 0.002529 0.00051329 -0.00069251 0.0035458
0.24779 -0.014091 0.0036141 -0.0018402
-0.00065172 -0.00048238 0.00084067 0.00029616 0.00024094 0.001537 -0.0013753 0.0016818
0.0036521 -0.0018148 0.26272 0.030687
2000000000 0.13125 -0.1892 -0.0035641 0.00055525 0.0024952 0.0016593 -0.0023283 0.0035291
0.0010885 0.00027565 -0.00073287 0.00039183
-0.0035782 0.00055294 0.24879 0.057116 -0.0010219 0.0057341 0.0016113 0.00042165
0.0014275 -0.0013869 0.00052322 0.00015287
0.0025106 0.0016503 -0.00099985 0.0057537 0.018565 -0.23343 -0.001294 -0.0014493
0.002119 -0.0011417 0.0016869 0.0013113
-0.002279 0.0035384 0.0016242 0.00041929 -0.0012885 -0.0014532 0.056753 -0.17536
-0.0023685 0.0038466 1.1552e-05 0.0022246
0.0011016 0.0002814 0.0014081 -0.0013991 0.0021362 -0.0011486 -0.0024208 0.0038588
0.24071 -0.0483 0.00042925 -0.0025894
