!Keysight Technologies,M9804A,MY58100912,A.14.10.03
!Date: Thursday, April 27, 2023 10:28:33
!Correction: S11(C  6-Port  ) 
!S12(C  6-Port  ) 
!S13(C  6-Port  ) 
!S14(C  6-Port  ) 
!S15(C  6-Port  ) 
!S16(C  6-Port  ) 
!S21(C  6-Port  ) 
!S22(C  6-Port  ) 
!S23(C  6-Port  ) 
!S24(C  6-Port  ) 
!S25(C  6-Port  ) 
!S26(C  6-Port  ) 
!S31(C  6-Port  ) 
!S32(C  6-Port  ) 
!S33(C  6-Port  ) 
!S34(C  6-Port  ) 
!S35(C  6-Port  ) 
!S36(C  6-Port  ) 
!S41(C  6-Port  ) 
!S42(C  6-Port  ) 
!S43(C  6-Port  ) 
!S44(C  6-Port  ) 
!S45(C  6-Port  ) 
!S46(C  6-Port  ) 
!S51(C  6-Port  ) 
!S52(C  6-Port  ) 
!S53(C  6-Port  ) 
!S54(C  6-Port  ) 
!S55(C  6-Port  ) 
!S56(C  6-Port  ) 
!S61(C  6-Port  ) 
!S62(C  6-Port  ) 
!S63(C  6-Port  ) 
!S64(C  6-Port  ) 
!S65(C  6-Port  ) 
!S66(C  6-Port  ) 
!S6P File: Measurement: :
# Hz S  RI   R 50
500000000 -0.33669 -0.040096 -0.010468 -0.0022843 -0.0083609 0.012999 -0.0044432 0.012505
0.012841 0.0046484 -0.0045589 0.0090659
-0.010371 -0.0022956 -0.4195 -0.052928 0.007632 -0.010399 0.0014758 0.012221
0.007752 0.002038 0.002055 0.013627
-0.0083673 0.012933 0.0076325 -0.010489 -0.26567 0.20883 0.0076083 0.0036529
-0.00211 0.0078866 0.0013713 0.011947
-0.0043447 0.012431 0.0015325 0.012302 0.0075963 0.0036925 -0.33205 0.041041
-0.019738 -0.0067939 0.015531 0.026228
0.012661 0.0049962 0.0078852 0.0020068 -0.0020684 0.0076762 -0.019676 -0.0067772
-0.2196 -0.20396 -0.026649 0.0048716
-0.0045798 0.0091312 0.0018523 0.013535 0.0013771 0.012053 0.015728 0.025973
-0.026452 0.0052086 -0.2648 -0.1417
560000000 -0.31713 0.1224 -0.023938 -0.063911 0.00021934 0.012521 0.0058167 0.010872
0.010357 0.004707 0.011284 0.0081842
-0.02382 -0.063834 -0.37755 0.10681 -0.04117 -0.037896 0.013356 0.003661
-0.012627 -0.0047853 0.0028069 -0.000377
7.5125e-05 0.012424 -0.041172 -0.037795 -0.1834 0.25741 -0.00017655 -0.0044144
0.02011 0.0053413 0.0062894 -0.0057362
0.0058381 0.010828 0.013202 0.0040271 -0.00016346 -0.0043897 -0.308 0.13162
0.0041762 -0.023152 0.0038656 -0.022449
0.010158 0.0048266 -0.012425 -0.0046124 0.020147 0.0053183 0.0044012 -0.02314
-0.28812 -0.028736 0.0079886 -0.048729
0.011305 0.0081884 0.0028744 -0.00075547 0.0061976 -0.005765 0.0039155 -0.022302
0.0079279 -0.048862 -0.32918 0.0091325
620000000 -0.27578 0.10584 -0.02313 0.0080636 0.0034205 0.0085909 0.0081486 -0.0050496
0.011668 0.00015571 0.0027002 -0.0025399
-0.023139 0.0080225 -0.40283 0.058484 -0.018674 0.00022914 -0.0013608 -0.0021398
0.0116 -0.0059113 0.0013859 -0.0025612
0.0033867 0.0086771 -0.0187 0.00024093 -0.15383 0.26661 -0.0016149 -0.0051989
-0.002657 -0.0019993 0.0085452 -0.003045
0.0082485 -0.005109 -0.001261 -0.0020821 -0.0015773 -0.0052888 -0.26704 0.1425
-0.038839 -0.01985 0.012355 0.026137
0.011561 0.00065078 0.011448 -0.0060785 -0.0028336 -0.0020298 -0.038701 -0.019705
-0.20623 -0.063881 -0.042707 0.015336
0.0024916 -0.0021697 0.0012035 -0.0027464 0.0086043 -0.0032446 0.012424 0.026176
-0.042448 0.015851 -0.24664 -0.029261
680000000 -0.23589 0.19161 -0.027402 -0.014205 0.004983 0.0051683 0.0015718 -0.0075401
-0.0028847 -0.01131 0.0054889 -0.0066769
-0.027387 -0.014226 -0.38796 0.15657 -0.033002 -0.0013661 -0.0015714 -0.0008398
-0.001879 -0.0090973 -0.0011386 -0.0014736
0.0049568 0.0051061 -0.033044 -0.0012747 -0.10279 0.28594 -0.00068971 -0.00023866
-0.0017746 0.00043654 -0.0031706 -0.0091991
0.0015514 -0.0075005 -0.0016045 -0.00092978 -0.00072198 -0.00021783 -0.22159 0.19354
-0.024321 -0.0071162 -0.010454 -0.010915
-0.0029386 -0.011289 -0.0019489 -0.009088 -0.0018151 0.00042955 -0.02435 -0.0070088
-0.26015 0.034047 -0.0056318 -0.0082535
0.0052144 -0.0064751 -0.0010088 -0.001588 -0.0031757 -0.0093107 -0.010313 -0.011064
-0.0054921 -0.0083994 -0.2615 0.07938
740000000 -0.19107 0.18659 -0.038507 0.026872 0.012914 -0.004864 -0.00022993 -0.0043566
-0.0041853 -0.0028923 -0.006056 0.0025861
-0.038504 0.026864 -0.33485 0.17546 -0.035562 0.035499 -0.00070564 -0.0061186
-0.01242 0.0082292 -0.0019549 -0.0061971
0.012881 -0.0049206 -0.035518 0.035678 -0.069319 0.28414 -0.0023064 0.0031263
-0.0021244 -0.0051254 -0.0022192 -0.00017088
-0.00031146 -0.0044113 -0.0007063 -0.0061557 -0.002302 0.0031481 -0.20493 0.20118
-0.044452 -0.0069261 0.023387 0.015722
-0.0042107 -0.0028949 -0.012427 0.0081616 -0.0020946 -0.0051246 -0.044491 -0.0068741
-0.15775 0.061226 -0.044446 6.3072e-05
-0.0061226 0.002309 -0.0019889 -0.0064695 -0.0020816 -8.7954e-05 0.023393 0.015626
-0.044382 0.00031309 -0.25182 0.083713
800000000 -0.1579 0.2267 -0.022422 0.016754 0.0054871 -0.010749 -0.0048987 -0.0021541
-0.0041993 0.0020009 0.0045432 -2.69e-06
-0.022426 0.0167 -0.33861 0.24558 -0.0078997 0.034189 -0.0024117 0.0021599
-0.00046036 0.0029801 0.0011341 0.0052265
0.005458 -0.010838 -0.0078002 0.034235 -0.02868 0.30742 0.0009349 0.0015032
0.00035774 0.003433 -0.0015674 0.00068812
-0.0049554 -0.0021136 -0.0024221 0.0021936 0.00092397 0.0014561 -0.1766 0.22941
-0.028957 0.014296 0.014107 -0.010459
-0.0040755 0.0021821 -0.00053106 0.0030836 0.00031283 0.0034751 -0.028962 0.014319
-0.20714 0.084752 -0.017667 0.019808
0.0045472 1.6852e-05 0.0011415 0.0052798 -0.0015969 0.0007209 0.014086 -0.010405
-0.017601 0.019717 -0.24699 0.1348
860000000 -0.12351 0.24717 -0.017499 0.030665 -0.0032422 -0.010258 -0.0021595 0.00080266
0.0040578 0.0046676 -0.0033798 -0.0031818
-0.017509 0.030603 -0.29127 0.28768 0.0079626 0.034533 -0.00019216 0.002031
0.0041804 0.00042421 0.003291 0.00047939
-0.003251 -0.010265 0.0080861 0.034562 0.019223 0.3157 -0.00066426 -0.00028174
0.002685 -0.0015553 0.0018047 0.0042468
-0.002224 0.00080714 -0.00015682 0.0019997 -0.00066166 -0.00029471 -0.14009 0.24028
-0.018311 0.019181 -0.0057629 -0.0091199
0.0041237 0.0048063 0.0041834 0.0004691 0.0027048 -0.0015368 -0.018276 0.019256
-0.15585 0.13727 -0.026566 0.015632
-0.0034145 -0.0031331 0.003318 0.00039335 0.0018273 0.0042408 -0.005779 -0.0091587
-0.026774 0.015642 -0.19455 0.1824
920000000 -0.09883 0.27007 0.0051657 0.037917 -0.0096178 -0.0046292 -0.0016645 0.0018107
0.0010671 0.0019816 0.0026571 -0.0017617
0.0051328 0.037896 -0.26219 0.30926 0.028371 0.022152 0.001559 0.0010982
0.007282 -0.000431 0.0042239 -0.0027278
-0.0096045 -0.0046198 0.028491 0.022085 0.065642 0.31662 0.0018229 -0.00012745
0.0012613 -0.00027641 0.0010617 -0.0011447
-0.0016557 0.0018545 0.0016134 0.0011196 0.0018482 -0.0001323 -0.11638 0.25797
-0.010995 0.031702 0.0041657 -0.0069127
0.0011427 0.0019755 0.0073428 -0.00047776 0.0012702 -0.0003216 -0.010881 0.031774
-0.14616 0.14351 -0.0029331 0.027963
0.0027137 -0.0017912 0.0041677 -0.0027908 0.00099408 -0.0012105 0.0041403 -0.0069278
-0.0030127 0.027968 -0.20545 0.19633
980000000 -0.051769 0.28958 0.017552 0.030294 -0.0092743 0.0046628 0.002122 0.003437
0.0040015 -0.001299 -0.0034008 -0.0021395
0.017498 0.030269 -0.20981 0.34309 0.033441 0.0048637 0.002096 -0.00010187
0.0016338 -0.0058403 -0.00039833 -0.0023778
-0.009252 0.0047028 0.033513 0.0047331 0.11207 0.31019 0.0005152 -0.0011805
0.00032729 -0.002063 0.0013826 -0.00026575
0.0021199 0.0034364 0.0021168 -7.6268e-05 0.00050993 -0.0011583 -0.077659 0.26942
0.0084517 0.03129 -0.0092135 -0.0076351
0.0040046 -0.0013285 0.0016412 -0.0058894 0.00033877 -0.0020818 0.0085378 0.031297
-0.11537 0.17308 0.004724 0.020306
-0.0033574 -0.0021571 -0.00036221 -0.0023725 0.0014196 -0.00024874 -0.0092347 -0.0075821
0.0047533 0.020204 -0.16354 0.24338
1040000000 -0.0097297 0.29818 0.033434 0.018264 -0.0013602 0.0071497 0.0025269 0.00056023
0.00011877 -0.0037304 -0.00026505 -0.0014116
0.033376 0.018264 -0.17422 0.35633 0.029733 -0.015134 0.0014249 -0.0018177
-0.0025414 -0.0026935 -0.0015835 -0.0026955
-0.0013276 0.0071566 0.029696 -0.015288 0.15838 0.29661 -0.00052291 -0.0016025
-0.0015867 -0.00093868 -0.00049311 -0.0011085
0.0025118 0.00054912 0.001436 -0.0017807 -0.00052874 -0.0015943 -0.050262 0.27992
0.020606 0.019035 -0.0023508 0.001037
0.00018963 -0.0037688 -0.0025299 -0.0026647 -0.0015398 -0.00096463 0.020678 0.018988
-0.082911 0.1809 0.013581 0.01934
-0.00026947 -0.0013783 -0.0014833 -0.0026896 -0.00047436 -0.00109 -0.0023698 0.0010715
0.01362 0.019474 -0.14305 0.26399
1100000000 0.035656 0.30601 0.036149 -0.0042832 0.0029171 0.0039708 0.0022588 -0.0013727
-0.0020202 -0.0031686 -0.0039697 4.884e-05
0.036108 -0.004255 -0.13077 0.37393 0.015168 -0.028326 -9.8619e-05 -0.0018004
-0.0034278 -0.00077264 -0.0035105 -0.00044641
0.0029445 0.0039738 0.015065 -0.028437 0.20523 0.27616 -0.0019314 0.00026354
-0.0018803 0.00051013 -0.0010453 -0.00042881
0.0022372 -0.0013859 -0.00012251 -0.0018198 -0.0019216 0.00025275 -0.0093527 0.28508
0.026398 0.0051123 -0.0027125 -0.00018226
-0.0020888 -0.0031863 -0.0034487 -0.00079543 -0.0018697 0.00050075 0.026451 0.0051062
-0.06524 0.19472 0.019565 0.0090596
-0.0039834 4.8064e-05 -0.0034986 -0.0004507 -0.0010741 -0.0004548 -0.0027194 -0.00016012
0.01956 0.0091347 -0.097742 0.29537
1160000000 0.086824 0.30109 0.024129 -0.021187 0.0027533 -0.00046592 -0.00038833 -0.0023058
-0.0041911 -0.00077421 -0.0010391 0.0041524
0.024115 -0.021145 -0.086843 0.37839 -0.0040884 -0.029554 -0.0017969 -0.0017007
-0.0028458 0.0025797 -0.0013892 0.0018478
0.0027505 -0.0004558 -0.0042074 -0.029576 0.24846 0.24491 -0.00071379 0.0018364
-0.00066554 0.0020154 -0.0010676 0.00033551
-0.0003812 -0.0023239 -0.0017629 -0.0016597 -0.00071111 0.0018259 0.030402 0.28232
0.022583 -0.011436 -0.0031889 0.0050032
-0.0041646 -0.00074441 -0.0028854 0.0026069 -0.00069805 0.00201 0.022563 -0.011484
-0.031966 0.20414 0.019037 0.00079107
-0.0009853 0.0041982 -0.0013815 0.001846 -0.0010206 0.00035001 -0.0032127 0.0050576
0.018993 0.00071377 -0.050159 0.29901
1220000000 0.13144 0.29016 0.01039 -0.030476 -0.0015438 -0.00086907 -2.704e-05 -0.00077078
-0.0026945 0.0023882 0.0014189 0.0021499
0.010385 -0.030451 -0.042074 0.39051 -0.01733 -0.021251 -0.0025457 0.00050156
9.3078e-06 0.0030651 -0.00076697 0.0019466
-0.0015575 -0.00086101 -0.017456 -0.021204 0.2875 0.20534 0.00088951 0.001696
0.00068974 0.0012986 0.00038053 0.00080265
-1.0263e-05 -0.00076781 -0.0025491 0.00053483 0.00088111 0.001706 0.070741 0.27361
0.011166 -0.018666 0.0019432 0.0014373
-0.0027067 0.0024191 1.2272e-05 0.0030952 0.00068281 0.001295 0.011163 -0.018708
-0.0096958 0.21349 0.014956 -0.013197
0.001427 0.0021355 -0.00073982 0.0019507 0.00031532 0.00079079 0.0019948 0.001452
0.015009 -0.013236 -0.019603 0.31701
1280000000 0.18125 0.26823 -0.0083186 -0.02886 -0.0019029 0.0024466 -0.00082222 -0.001905
-0.00089407 0.003122 0.0025021 0.0011839
-0.008292 -0.028824 0.004322 0.38133 -0.024182 -0.008297 -0.00091895 0.001531
0.0016717 0.0018457 0.00070362 0.0021626
-0.0018867 0.0024759 -0.024262 -0.0081931 0.31753 0.16098 0.0016898 -9.1305e-07
0.0011434 0.00040092 0.00045436 0.00042038
-0.00083216 -0.0019063 -0.00092613 0.001509 0.001688 -1.1554e-06 0.10785 0.2565
0.00090757 -0.020931 -0.00033826 0.00012535
-0.00088293 0.0031368 0.001678 0.0018091 0.0011671 0.00034818 0.00087463 -0.020914
0.027176 0.21776 0.0035103 -0.015541
0.0024944 0.0011407 0.00073948 0.0021759 0.00049709 0.00040152 -0.00036999 0.00015215
0.0034477 -0.015464 0.028991 0.32062
1340000000 0.2186 0.23427 -0.018116 -0.018921 0.00096337 0.0045033 -0.0016428 -0.00084675
0.0014615 0.0028762 0.0018538 -0.0013906
-0.018091 -0.018924 0.043946 0.3725 -0.021733 0.0046258 -7.1761e-05 0.0019719
0.0019689 0.00083077 0.0014425 0.0007407
0.00098986 0.00449 -0.021736 0.004759 0.33896 0.11304 0.0011938 -0.00097308
0.00079362 -0.00042888 0.00022227 0.00034929
-0.0016442 -0.00083045 -5.8905e-05 0.0019697 0.0011855 -0.00097037 0.13994 0.23565
-0.0094098 -0.017736 0.00063061 0.0006755
0.0014567 0.0028541 0.001965 0.00079437 0.00077162 -0.0004002 -0.0094374 -0.017714
0.05696 0.21326 -0.003572 -0.014053
0.0018515 -0.0014131 0.0014571 0.00074141 0.00020234 0.00037682 0.00065971 0.00065076
-0.0035336 -0.014059 0.067435 0.31703
1400000000 0.25164 0.19576 -0.023812 -0.007163 0.0051756 0.0031753 -0.0020499 0.00056108
0.0024564 0.00093634 0.00030423 -0.0014338
-0.023785 -0.0071698 0.081207 0.35884 -0.014749 0.012774 0.001331 0.001271
0.0012166 -0.00082459 0.0012933 0.00015746
0.0051624 0.0031426 -0.01471 0.012871 0.35161 0.060052 0.00015226 -0.0016989
2.7965e-05 -0.00042942 0.00053926 0.00025415
-0.0020548 0.00057537 0.0013304 0.0012634 0.00016356 -0.0017049 0.16889 0.20655
-0.015762 -0.010396 -0.00089251 -0.00022425
0.0024777 0.00095169 0.0011944 -0.00083349 2.0697e-05 -0.0004196 -0.015805 -0.010367
0.089885 0.209 -0.010346 -0.0093374
0.00030353 -0.0013981 0.0012884 0.00017029 0.00052364 0.00028963 -0.0008886 -0.00022658
-0.0103 -0.0093389 0.11304 0.30655
1460000000 0.27403 0.15135 -0.0206 0.0052144 0.0056652 -0.0018607 -0.0015676 0.0016875
0.0022489 -0.00051999 -0.00037103 -0.0010171
-0.020591 0.005186 0.11489 0.33653 -0.0058275 0.015462 0.001719 0.00016763
0.00089079 -0.0013125 0.0011516 -0.00072426
0.0056437 -0.0018731 -0.0057531 0.015514 0.35753 0.0061565 -0.0013727 -0.001339
0.00021677 -0.00036189 0.00064291 -0.00032918
-0.0015779 0.0016694 0.0017226 0.00016733 -0.0013676 -0.0013348 0.19438 0.17739
-0.017087 -0.0028188 -0.00085018 0.0022966
0.0022475 -0.00053549 0.00087911 -0.001322 0.00021737 -0.000389 -0.017116 -0.002789
0.11865 0.19428 -0.012494 -0.0029184
-0.0003819 -0.0010263 0.0011531 -0.00071326 0.00063987 -0.00035753 -0.00084045 0.0023234
-0.012503 -0.0029347 0.14683 0.28635
1520000000 0.28572 0.10941 -0.014651 0.010788 0.0033177 -0.0042131 0.00010853 0.0025951
0.0021978 -0.0018176 -0.0011286 -9.5044e-05
-0.014649 0.010772 0.14787 0.32166 0.001815 0.013039 0.0016783 -0.00075995
2.2897e-05 -0.0010694 0.00031565 -0.0010618
0.0033117 -0.0042305 0.0018821 0.013048 0.35092 -0.049747 -0.0011783 -0.0002992
0.00059406 -0.00079898 7.6733e-05 -0.00016915
0.0001236 0.002601 0.0016819 -0.00077728 -0.0011833 -0.00031612 0.21687 0.14008
-0.016013 0.0035307 0.0016497 0.0021944
0.0021859 -0.0018297 1.0303e-05 -0.0010735 0.00059341 -0.00080767 -0.016005 0.0035686
0.14589 0.18034 -0.012339 0.0017704
-0.0011453 -7.8267e-05 0.00030405 -0.0010671 5.2353e-05 -0.00020434 0.0016636 0.0022261
-0.012307 0.0017622 0.18056 0.26687
1580000000 0.2944 0.063345 -0.0077258 0.013779 -0.00099945 -0.0049748 0.0014259 0.0019111
-0.00030085 -0.002184 -0.00032336 0.00044351
-0.0077269 0.013764 0.17448 0.2969 0.0052775 0.0080959 0.00049076 -0.0016439
-0.00064049 -0.0010557 -0.00033875 -0.00077644
-0.0010254 -0.004953 0.0053398 0.0080799 0.33087 -0.107 -0.001653 0.000734
-0.00037755 -0.0010995 0.00012582 -0.00051795
0.0014179 0.0018925 0.00047291 -0.0016535 -0.0016494 0.00073489 0.23027 0.10168
-0.011827 0.0087164 0.0025156 0.00094692
-0.0003036 -0.0021887 -0.00064918 -0.0010676 -0.00036573 -0.0011081 -0.011807 0.0087587
0.16971 0.16253 -0.0096073 0.0080016
-0.00030223 0.00046166 -0.00034017 -0.00077718 0.00012094 -0.00053439 0.0025274 0.00091553
-0.0096177 0.0079606 0.21366 0.24059
1640000000 0.29605 0.022485 -0.00081602 0.012416 -0.0027428 -0.0026056 0.0028004 0.00098189
-0.00068865 -0.0016586 -0.00016672 0.00059085
-0.00081636 0.012414 0.2035 0.27236 0.0059728 0.0033535 -0.00071258 -0.0017666
-0.0010422 -0.00034337 -0.00049507 -0.00065038
-0.0027531 -0.0025927 0.0059965 0.0033049 0.30287 -0.15606 -0.00058521 0.001553
-0.0011564 -0.001027 -0.00014306 -0.00044791
0.0027894 0.00096294 -0.00072115 -0.001772 -0.00059082 0.0015605 0.24239 0.054288
-0.0069916 0.0098116 0.0026806 -0.00084928
-0.00069891 -0.0016648 -0.0010533 -0.00034074 -0.0011531 -0.0010378 -0.0069709 0.0098367
0.19128 0.13857 -0.0045607 0.009957
-0.00015367 0.00057773 -0.00049829 -0.00064202 -0.00012923 -0.00044422 0.0026934 -0.00085718
-0.004584 0.0099797 0.23967 0.20994
1700000000 0.28853 -0.022257 0.0024969 0.0092404 -0.0034587 0.000105 0.003054 -0.00123
-0.0021519 -0.00073881 0.00070177 0.00035888
0.002476 0.0092371 0.22135 0.24127 0.0038972 0.00058186 -0.0015523 -0.00055795
-0.00077579 0.00010073 -0.00087873 -0.00041161
-0.0034692 0.00012498 0.0039092 0.00054183 0.25987 -0.19579 0.00048391 0.0016853
-0.002088 -0.00018234 -0.00042081 -0.00084657
0.00305 -0.0012514 -0.0015581 -0.000548 0.00047485 0.0016694 0.23992 0.0061246
-0.0039531 0.010103 0.0016163 -0.0023411
-0.0021365 -0.00071147 -0.00077237 0.00010878 -0.0020922 -0.00016824 -0.0039367 0.010118
0.20779 0.1191 0.00040331 0.010116
0.00070869 0.00038348 -0.0008868 -0.00041307 -0.00043656 -0.00086047 0.0016238 -0.0023584
0.00039971 0.010126 0.25691 0.17561
1760000000 0.2764 -0.070207 0.0045198 0.0057939 -0.0023398 0.0010471 0.0012588 -0.0034803
-0.0013978 0.00076516 0.00039539 -0.00062292
0.0045146 0.0057895 0.24716 0.20192 0.0015243 -0.0012451 -0.0012169 0.00026181
-0.00091228 0.00092857 -0.00054584 0.00042996
-0.0023249 0.0010275 0.0015177 -0.0012499 0.21124 -0.22949 0.0012622 0.0010685
-0.0011806 0.0015961 -0.0013861 -0.00055006
0.0012227 -0.0034976 -0.0012293 0.00025688 0.0012863 0.0010654 0.23214 -0.044064
-0.00062799 0.0090229 -0.00015432 -0.0027111
-0.0014051 0.00077457 -0.00091949 0.00092602 -0.0011609 0.001603 -0.00060869 0.009031
0.22173 0.085107 0.004558 0.0073489
0.00038571 -0.0006393 -0.00053845 0.00042833 -0.0013714 -0.00057359 -0.00017177 -0.0027016
0.0045287 0.007329 0.27008 0.13799
1820000000 0.25222 -0.10706 0.0044309 0.0023227 -8.8112e-05 0.002494 -0.0010462 -0.0030458
-0.0011385 0.001047 -6.9428e-05 -9.3086e-05
0.004435 0.002315 0.25738 0.1724 -0.00039162 -7.8089e-05 -0.0012362 0.001023
4.9282e-05 0.0012306 -0.00048462 0.00052461
-4.4366e-05 0.0024944 -0.00040121 -5.6947e-05 0.16108 -0.24543 0.0015288 0.00029743
-0.00010607 0.0023827 -0.0013872 0.0003447
-0.0010725 -0.003043 -0.0012262 0.0010356 0.001514 0.00032383 0.2043 -0.09082
0.00090026 0.0072863 -0.0016004 -0.0017958
-0.0011124 0.0010432 6.1708e-05 0.0012356 -0.00011646 0.0023757 0.00092472 0.0072918
0.2386 0.057355 0.0055734 0.0035115
-5.6994e-05 -9.2552e-05 -0.00048133 0.00052931 -0.0013091 0.00032934 -0.0016236 -0.0018176
0.0055796 0.0034996 0.27319 0.10204
1880000000 0.21765 -0.14712 0.0021443 0.00023191 -0.00038343 0.0020453 -0.0029767 -0.0021332
-8.7195e-05 0.0017304 0.00021279 -0.00053062
0.0021505 0.00022917 0.26207 0.12614 -0.0023855 0.0016215 -0.00011162 0.0016716
0.00054336 0.0010961 0.00011633 0.00085135
-0.00034562 0.0020696 -0.0023534 0.0016314 0.1088 -0.25527 0.0015982 -0.0010367
0.0016064 0.0018848 -0.00095563 0.0013153
-0.0029748 -0.0021159 -8.4805e-05 0.0016767 0.0016285 -0.0010116 0.16563 -0.13166
0.0017235 0.0052704 -0.0025345 0.00022442
-6.73e-05 0.0017428 0.00056152 0.0010945 0.0016293 0.0018749 0.0017314 0.00527
0.24163 0.026242 0.0055944 0.0010424
0.00023635 -0.00049609 0.00011003 0.0008782 -0.00097436 0.0013269 -0.0025649 0.00020989
0.0055936 0.0010366 0.27333 0.067602
1940000000 0.1787 -0.17308 1.2428e-05 -0.0013296 0.0014065 0.0020161 -0.0036425 0.00056778
0.0013714 0.00093346 -0.00066236 -0.00053279
1.516e-05 -0.001331 0.26305 0.094545 -0.0011608 0.0038711 0.0010754 0.0012895
0.001718 0.0004282 0.0007561 0.00023266
0.0014168 0.0019616 -0.0011139 0.0039 0.062575 -0.24857 0.0003974 -0.0020757
0.0023995 0.00040488 0.00023992 0.0017067
-0.0036314 0.00059742 0.0010809 0.0012884 0.00040645 -0.0020912 0.11468 -0.1637
0.0010227 0.0038636 -0.0016416 0.0013774
0.001385 0.00093106 0.0017109 0.00042717 0.0024053 0.00037651 0.0010538 0.003882
0.24413 -0.011561 0.0042489 -0.0026832
-0.00068399 -0.00051882 0.00075471 0.00022905 0.00018997 0.0016548 -0.0016401 0.0014365
0.0042085 -0.0026575 0.26272 0.031674
2000000000 0.13261 -0.18811 -0.0037162 0.00066539 0.0024826 0.0015588 -0.0023055 0.0034297
0.0011078 -5.041e-05 -0.00068718 0.00034459
-0.0037278 0.00066994 0.24938 0.059012 -0.0010042 0.0057049 0.0015948 0.00034114
0.0012501 -0.0012598 0.00045577 0.00016226
0.002501 0.0015905 -0.00094359 0.005742 0.018841 -0.23393 -0.0012911 -0.0012144
0.0018138 -0.0012001 0.0016019 0.0012858
-0.0022742 0.0034424 0.0016203 0.0003375 -0.0012691 -0.0012054 0.061197 -0.17544
-0.0004759 0.0032388 -0.00022679 0.002292
0.001116 -4.4969e-05 0.0012355 -0.0012665 0.0018016 -0.0012054 -0.00046236 0.00324
0.23909 -0.044971 0.00058422 -0.0034508
