!Keysight Technologies,M9804A,MY58100912,A.14.10.03
!Date: Thursday, April 27, 2023 10:28:33
!Correction: S11(C  6-Port  ) 
!S12(C  6-Port  ) 
!S13(C  6-Port  ) 
!S14(C  6-Port  ) 
!S15(C  6-Port  ) 
!S16(C  6-Port  ) 
!S21(C  6-Port  ) 
!S22(C  6-Port  ) 
!S23(C  6-Port  ) 
!S24(C  6-Port  ) 
!S25(C  6-Port  ) 
!S26(C  6-Port  ) 
!S31(C  6-Port  ) 
!S32(C  6-Port  ) 
!S33(C  6-Port  ) 
!S34(C  6-Port  ) 
!S35(C  6-Port  ) 
!S36(C  6-Port  ) 
!S41(C  6-Port  ) 
!S42(C  6-Port  ) 
!S43(C  6-Port  ) 
!S44(C  6-Port  ) 
!S45(C  6-Port  ) 
!S46(C  6-Port  ) 
!S51(C  6-Port  ) 
!S52(C  6-Port  ) 
!S53(C  6-Port  ) 
!S54(C  6-Port  ) 
!S55(C  6-Port  ) 
!S56(C  6-Port  ) 
!S61(C  6-Port  ) 
!S62(C  6-Port  ) 
!S63(C  6-Port  ) 
!S64(C  6-Port  ) 
!S65(C  6-Port  ) 
!S66(C  6-Port  ) 
!S6P File: Measurement: :
# Hz S  RI   R 50
500000000 -0.33669 -0.040019 -0.0096706 -0.0026456 -0.0078421 0.012425 -0.0042376 0.012076
0.012944 0.004385 -0.0047967 0.0088226
-0.0096466 -0.0026342 -0.41898 -0.05276 0.0079504 -0.011278 0.0010955 0.012065
0.0075985 0.0024442 0.00077392 0.013069
-0.0078035 0.01243 0.0079453 -0.011307 -0.2655 0.20859 0.0074955 0.0035954
-0.0017314 0.0078058 0.0013505 0.011993
-0.0042251 0.012064 0.0011166 0.012088 0.0075033 0.0035978 -0.33225 0.042741
-0.019114 -0.006461 0.015029 0.027268
0.012949 0.0043339 0.0076127 0.0024361 -0.0017303 0.0078136 -0.01911 -0.0064431
-0.2211 -0.20088 -0.025467 0.0053098
-0.0047849 0.0088295 0.00080103 0.013055 0.0013624 0.01199 0.015057 0.027249
-0.025483 0.0053005 -0.26675 -0.13541
560000000 -0.31504 0.12227 -0.023679 -0.063961 0.00033663 0.012324 0.0056854 0.010853
0.010933 0.0054393 0.011529 0.0078186
-0.023601 -0.06389 -0.37862 0.10761 -0.041226 -0.038228 0.014489 0.0040375
-0.012443 -0.0051339 0.0032877 -0.00025225
0.00035364 0.012303 -0.041367 -0.038154 -0.18304 0.25727 -0.00093639 -0.0039917
0.019312 0.0058274 0.0068563 -0.0065824
0.0057041 0.01082 0.014521 0.0040284 -0.00092924 -0.0039967 -0.3068 0.13173
0.0039345 -0.024054 0.0047376 -0.021261
0.010954 0.0054074 -0.012474 -0.0051026 0.019314 0.005812 0.0039043 -0.024054
-0.28922 -0.025113 0.009098 -0.048699
0.011552 0.0078284 0.0032911 -0.00027264 0.0068674 -0.0065767 0.0047426 -0.021259
0.0091103 -0.048702 -0.32835 0.013307
620000000 -0.27496 0.10653 -0.023149 0.0079186 0.0034456 0.0088126 0.0082128 -0.0054576
0.011008 -0.00010796 0.0017379 -0.0026189
-0.023128 0.0079138 -0.40255 0.05915 -0.018658 9.5831e-05 -0.0012973 -0.0019271
0.011267 -0.0064238 0.0013458 -0.00298
0.0034673 0.0087991 -0.018679 0.00015287 -0.15402 0.26604 -0.00090422 -0.0051003
-0.0033793 -0.0027532 0.0087359 -0.0031832
0.0082155 -0.0054811 -0.0013038 -0.0019293 -0.00090637 -0.0051094 -0.2665 0.14356
-0.038664 -0.020233 0.012853 0.026759
0.011007 -0.00011204 0.011252 -0.0064762 -0.0033778 -0.0027556 -0.038671 -0.020206
-0.20702 -0.062769 -0.042145 0.014237
0.0017175 -0.0026179 0.0013468 -0.0029766 0.0087504 -0.0031858 0.012879 0.02677
-0.042192 0.014196 -0.2479 -0.024197
680000000 -0.2352 0.19207 -0.027322 -0.014258 0.0049512 0.0050905 0.0014731 -0.007157
-0.0029558 -0.011379 0.0052888 -0.0067424
-0.027289 -0.014248 -0.38784 0.15704 -0.032842 -0.0014564 -0.0015096 -0.0005739
-0.0021158 -0.0088993 -0.001074 -0.0015487
0.0049614 0.0050705 -0.032883 -0.0013697 -0.10261 0.28611 -0.0006702 -0.00027021
-0.0016095 0.00064742 -0.0029106 -0.0091011
0.0014638 -0.0071641 -0.001519 -0.00058258 -0.00067037 -0.00027132 -0.22167 0.19397
-0.024283 -0.0075516 -0.0097861 -0.011323
-0.0030047 -0.011374 -0.0021427 -0.008894 -0.001612 0.00065435 -0.024297 -0.0075199
-0.25919 0.036471 -0.0054861 -0.0088575
0.0052961 -0.0067635 -0.0010825 -0.001542 -0.002914 -0.0090869 -0.009813 -0.011318
-0.005472 -0.0088616 -0.2607 0.083144
740000000 -0.19061 0.18673 -0.038895 0.026522 0.012787 -0.0051063 -0.00019249 -0.00436
-0.0039201 -0.0030189 -0.0064421 0.0023456
-0.038831 0.026468 -0.33465 0.17601 -0.035547 0.03529 -0.00054799 -0.0062326
-0.011901 0.0081152 -0.0020079 -0.0064107
0.012778 -0.0051521 -0.035494 0.035443 -0.068935 0.28452 -0.0020689 0.0032556
-0.0022752 -0.0048612 -0.0016238 0.00012578
-0.00017268 -0.0043638 -0.00056648 -0.0062298 -0.0020573 0.0032633 -0.20498 0.20209
-0.043595 -0.0071389 0.022933 0.015606
-0.0039657 -0.0030282 -0.011889 0.0081679 -0.0022797 -0.0048575 -0.043627 -0.0070921
-0.1593 0.063383 -0.043399 0.00041258
-0.0064217 0.0023931 -0.0020625 -0.0064321 -0.0016078 0.00011433 0.02297 0.015595
-0.043392 0.00040766 -0.25001 0.089279
800000000 -0.15753 0.22713 -0.022393 0.016636 0.0053931 -0.010678 -0.004555 -0.0020731
-0.0040224 0.0020633 0.0047638 0.00043575
-0.022382 0.016622 -0.33828 0.24618 -0.0078255 0.033955 -0.0023217 0.0021923
-0.00062821 0.0028911 0.001218 0.0052292
0.0053746 -0.010693 -0.0077352 0.034011 -0.028179 0.30774 0.00098577 0.0014963
0.00017713 0.0034717 -0.0016508 0.00092426
-0.0045631 -0.0020547 -0.0023138 0.0022037 0.00098804 0.0014991 -0.17618 0.23013
-0.028715 0.014388 0.013961 -0.010312
-0.0040224 0.0020753 -0.00062354 0.0028994 0.00018539 0.0034822 -0.028711 0.014443
-0.20681 0.087149 -0.017724 0.019438
0.0047834 0.00042475 0.0012469 0.0052352 -0.001658 0.00092973 0.013945 -0.010338
-0.017726 0.01941 -0.24551 0.13837
860000000 -0.12315 0.24738 -0.017478 0.030545 -0.0033255 -0.010026 -0.0023444 0.0008647
0.0040304 0.0048244 -0.0032156 -0.0029223
-0.017487 0.03052 -0.29085 0.28794 0.0079147 0.034067 -2.3524e-05 0.0019202
0.004221 8.9513e-05 0.0034212 0.00069714
-0.0033456 -0.010019 0.0080268 0.034063 0.019876 0.31574 -0.00059008 -0.00026439
0.0026393 -0.0014877 0.0014055 0.0044946
-0.0023359 0.00087843 -1.8462e-05 0.0019207 -0.00058988 -0.00027031 -0.13943 0.24082
-0.01809 0.019286 -0.0060983 -0.0092358
0.0040472 0.0047978 0.0042351 8.8008e-05 0.0026369 -0.0014948 -0.018062 0.019325
-0.15506 0.13934 -0.026706 0.01553
-0.0032118 -0.0028983 0.0034301 0.00067306 0.0014144 0.0045096 -0.0061091 -0.0092306
-0.026721 0.015515 -0.19394 0.18518
920000000 -0.098778 0.27041 0.0050561 0.037967 -0.0095707 -0.004333 -0.0018663 0.0018907
0.00087985 0.0018891 0.0025694 -0.0015539
0.0050328 0.037932 -0.26192 0.30956 0.028082 0.021874 0.0013517 0.0011437
0.0069448 -0.0005932 0.0039772 -0.0025503
-0.0095847 -0.0043081 0.028179 0.021803 0.066156 0.31634 0.0018513 -5.8147e-05
0.0011952 -0.00040833 0.00096094 -0.00095244
-0.0018705 0.001894 0.0013751 0.0011118 0.0018595 -5.2834e-05 -0.11559 0.25814
-0.010902 0.031381 0.0039678 -0.0065928
0.00088765 0.0018865 0.0069578 -0.00061814 0.0011901 -0.00040518 -0.010846 0.03141
-0.14517 0.14506 -0.0030308 0.027767
0.0025664 -0.0015596 0.0039666 -0.0026014 0.00096775 -0.00095105 0.0039616 -0.0065956
-0.0030464 0.027755 -0.20354 0.19944
980000000 -0.051158 0.28999 0.017536 0.030006 -0.0090258 0.0046804 0.0020664 0.0034134
0.0039137 -0.0013112 -0.0032082 -0.0021032
0.017494 0.030006 -0.20903 0.34339 0.03299 0.004823 0.0020685 -6.2153e-05
0.0015005 -0.0057532 -0.00020803 -0.0024412
-0.009014 0.0047156 0.033056 0.0046952 0.11242 0.30968 0.00051643 -0.0011459
0.00024123 -0.0020664 0.0014683 -0.00016049
0.0020761 0.0034108 0.0020907 -6.9398e-05 0.00051841 -0.0011453 -0.076993 0.26941
0.0082534 0.030872 -0.0091335 -0.0073794
0.0039178 -0.0013303 0.0014528 -0.0057594 0.0002462 -0.0020672 0.0083141 0.030873
-0.11407 0.17476 0.0046922 0.019958
-0.0032279 -0.0020852 -0.00020355 -0.0024529 0.0014698 -0.00015704 -0.0091362 -0.00737
0.0046674 0.01995 -0.16137 0.24514
1040000000 -0.0090592 0.29832 0.033117 0.018091 -0.0011953 0.0069395 0.0025339 0.00060475
0.00010923 -0.003642 -0.0002848 -0.0013715
0.033078 0.018101 -0.17339 0.35645 0.029314 -0.014829 0.0014768 -0.0017099
-0.0024539 -0.0025384 -0.0012974 -0.0025405
-0.0011614 0.0069581 0.029266 -0.014971 0.15835 0.29595 -0.00049793 -0.0015343
-0.0015571 -0.0008732 -0.00039147 -0.0011452
0.0025236 0.00060525 0.0014862 -0.001724 -0.00049981 -0.0015369 -0.049499 0.27971
0.020179 0.018562 -0.0021646 0.0014074
9.5031e-05 -0.0036384 -0.0024817 -0.0025042 -0.0015653 -0.00088106 0.020222 0.018534
-0.081043 0.18223 0.013537 0.018884
-0.00029675 -0.0013546 -0.0012989 -0.0025629 -0.00039153 -0.0011398 -0.0021619 0.001411
0.013524 0.018896 -0.14043 0.26572
1100000000 0.036255 0.30607 0.035704 -0.0042371 0.0029269 0.0038457 0.0022576 -0.0013544
-0.0019426 -0.0031552 -0.0038869 -9.3871e-05
0.035666 -0.0042155 -0.12997 0.37357 0.015028 -0.027741 -9.117e-05 -0.0018287
-0.0032432 -0.00085273 -0.003481 -0.00058591
0.0029423 0.0038372 0.014928 -0.02783 0.20469 0.27556 -0.0018572 0.00022461
-0.0018614 0.00052179 -0.0010647 -0.0003832
0.0022483 -0.0013563 -8.8742e-05 -0.0018441 -0.0018571 0.00021783 -0.0089209 0.28451
0.025578 0.0051212 -0.0025342 -9.2225e-05
-0.0019521 -0.0031537 -0.0032562 -0.00083415 -0.0018609 0.00051344 0.025599 0.005073
-0.063498 0.19552 0.019319 0.0088219
-0.0038873 -7.4995e-05 -0.0034866 -0.00057492 -0.001062 -0.00037925 -0.0025301 -8.6512e-05
0.019302 0.0088222 -0.094733 0.29677
1160000000 0.087705 0.301 0.023902 -0.020687 0.0027344 -0.00058317 -0.00032816 -0.0023195
-0.00406 -0.0008196 -0.00089355 0.0040022
0.023897 -0.02064 -0.086273 0.3777 -0.0037045 -0.028976 -0.0017634 -0.0016757
-0.0027087 0.0024002 -0.0012788 0.0019102
0.0027338 -0.00058811 -0.0038429 -0.029004 0.24761 0.2448 -0.00068247 0.0017577
-0.00069001 0.0018992 -0.00097667 0.0002671
-0.00034217 -0.0023177 -0.0017546 -0.0016807 -0.000681 0.0017605 0.030525 0.28169
0.021871 -0.010795 -0.0030826 0.0050558
-0.0040674 -0.00080671 -0.0026994 0.0024346 -0.00069096 0.0018868 0.021877 -0.010829
-0.030071 0.20471 0.018418 0.00080541
-0.00086653 0.0040147 -0.0012618 0.0019131 -0.00097922 0.000271 -0.003078 0.0050527
0.01842 0.00080483 -0.047618 0.29976
1220000000 0.13199 0.28976 0.010347 -0.029927 -0.0015911 -0.00088477 2.1171e-05 -0.00089811
-0.0026004 0.0023509 0.0013142 0.0019345
0.010357 -0.029877 -0.041988 0.38956 -0.01681 -0.020984 -0.0024868 0.00042771
-8.5485e-06 0.002921 -0.00076519 0.0018425
-0.0015984 -0.00087294 -0.016926 -0.020933 0.28671 0.20585 0.0008104 0.0016006
0.00061107 0.0011823 0.00031451 0.00065566
1.1338e-05 -0.00089401 -0.0024823 0.00043713 0.00081705 0.0016015 0.070375 0.27304
0.010993 -0.017759 0.0019758 0.001369
-0.0025888 0.0023508 1.3539e-05 0.0029253 0.00061156 0.0011874 0.010969 -0.017784
-0.0077958 0.21359 0.014506 -0.012753
0.0013158 0.0019317 -0.00074836 0.001847 0.00031411 0.00065475 0.0019735 0.0013626
0.014496 -0.012756 -0.016909 0.31734
1280000000 0.1816 0.26772 -0.0078798 -0.028303 -0.0018568 0.0024255 -0.00089372 -0.0019469
-0.00083434 0.0029829 0.0024174 0.0011632
-0.0078553 -0.028277 0.0037688 0.38048 -0.023576 -0.0084471 -0.00095259 0.0014185
0.0016027 0.0018133 0.00061038 0.00208
-0.0018388 0.0024362 -0.023653 -0.0083501 0.31721 0.16202 0.00158 9.7389e-06
0.001149 0.00035484 0.00041077 0.00035153
-0.00090221 -0.0019532 -0.00094932 0.001425 0.0015809 1.1001e-05 0.10721 0.25645
0.0013826 -0.019978 -0.00040244 -1.4743e-05
-0.00081913 0.0029919 0.0016079 0.001805 0.0011512 0.00035327 0.0013417 -0.019989
0.028783 0.21714 0.0034603 -0.014928
0.0024206 0.0011542 0.0006325 0.0020763 0.00041255 0.00034919 -0.00040376 -1.6089e-05
0.0034619 -0.01492 0.031439 0.31997
1340000000 0.21857 0.23379 -0.017476 -0.018871 0.00086557 0.0044264 -0.0016616 -0.00082966
0.0014332 0.0026745 0.0018027 -0.0013447
-0.017443 -0.018871 0.04306 0.3722 -0.021463 0.0041628 -0.00017149 0.0019685
0.0019125 0.00087113 0.0012852 0.00080004
0.00089092 0.0044347 -0.021465 0.004272 0.3393 0.11424 0.0011695 -0.00085244
0.0008081 -0.00049887 0.00017629 0.00034766
-0.0016589 -0.00083016 -0.00016677 0.0019796 0.0011665 -0.00084758 0.13945 0.23587
-0.0084281 -0.017271 0.00070807 0.00058468
0.0014413 0.0026762 0.0019292 0.00085352 0.00080999 -0.00050252 -0.0084676 -0.017262
0.058247 0.21247 -0.0032169 -0.013646
0.0017816 -0.0013598 0.0012979 0.00078446 0.00017728 0.00034712 0.00070932 0.0005826
-0.0032165 -0.013655 0.069606 0.31653
1400000000 0.25138 0.19559 -0.023209 -0.007463 0.0050233 0.0030374 -0.0020503 0.00056293
0.0023073 0.0009154 0.00032186 -0.0013439
-0.023179 -0.0074782 0.080153 0.35918 -0.014774 0.012218 0.0012819 0.0013389
0.0012036 -0.00072651 0.0012231 0.00023993
0.0050355 0.00302 -0.014732 0.012309 0.35254 0.060743 0.00020269 -0.0017106
1.1574e-06 -0.00043164 0.00044014 0.00018032
-0.0020458 0.00057453 0.0012829 0.001338 0.00020004 -0.0017019 0.16864 0.20718
-0.014673 -0.01059 -0.00088899 -0.00028254
0.0023121 0.00090151 0.0012052 -0.00073474 4.4963e-06 -0.00043255 -0.014703 -0.010557
0.090636 0.20812 -0.0098618 -0.0091172
0.00030866 -0.0013416 0.0012194 0.00023685 0.00044498 0.00017433 -0.00089241 -0.00027966
-0.0098591 -0.0091312 0.11523 0.30621
1460000000 0.27387 0.15148 -0.020235 0.0045994 0.0054723 -0.0018357 -0.001597 0.0016715
0.0020715 -0.00044579 -0.0003007 -0.00099477
-0.02022 0.0045707 0.11421 0.3375 -0.0062115 0.015139 0.0017344 0.00021819
0.0009403 -0.001279 0.0011563 -0.00061764
0.0054667 -0.0018675 -0.0061399 0.015193 0.35869 0.0062222 -0.0012606 -0.0013002
0.00010121 -0.0003187 0.00064817 -0.00031274
-0.0015851 0.0016819 0.0017436 0.00021287 -0.0012612 -0.0013096 0.19455 0.17824
-0.016223 -0.0037416 -0.00102 0.002191
0.0020758 -0.00045717 0.00093906 -0.0012889 9.5928e-05 -0.00031616 -0.016236 -0.0037183
0.11904 0.19366 -0.011808 -0.0030934
-0.00031463 -0.00099345 0.0011453 -0.00062326 0.00064426 -0.00030442 -0.0010181 0.0022008
-0.011805 -0.0031001 0.14867 0.28561
1520000000 0.2858 0.10978 -0.014682 0.010121 0.0032729 -0.004103 4.7648e-05 0.0026355
0.0021531 -0.0016253 -0.0011182 -0.00015024
-0.014675 0.010108 0.14773 0.32283 0.0013601 0.013013 0.0016811 -0.0007464
5.523e-05 -0.0010827 0.000324 -0.0009991
0.0032581 -0.0041248 0.0014407 0.013025 0.35187 -0.050005 -0.0012053 -0.0003868
0.0005744 -0.00078887 8.7316e-05 -9.6493e-05
7.0325e-05 0.0026347 0.0016754 -0.00075532 -0.0012104 -0.00038584 0.21748 0.14082
-0.015922 0.0023252 0.0014776 0.0022225
0.0021466 -0.0016516 4.7752e-05 -0.001091 0.00057383 -0.00078811 -0.015926 0.0023693
0.1461 0.17985 -0.011915 0.001315
-0.0011159 -0.00014506 0.00031735 -0.0010059 8.4641e-05 -9.3106e-05 0.0014852 0.0022208
-0.011919 0.0013052 0.18263 0.266
1580000000 0.29487 0.063742 -0.0081608 0.013208 -0.00089702 -0.0047642 0.0014051 0.0019399
-0.00013569 -0.0020702 -0.00039103 0.00043562
-0.0081628 0.013194 0.17503 0.29816 0.0049744 0.0083005 0.00053027 -0.0016045
-0.00062509 -0.0010789 -0.00026024 -0.00075883
-0.00091793 -0.0047596 0.0050227 0.0082776 0.33136 -0.10766 -0.0016377 0.00068253
-0.00023114 -0.0010772 0.00012421 -0.00045265
0.0014202 0.0019446 0.0005253 -0.0016015 -0.0016368 0.00068728 0.23132 0.10222
-0.012474 0.0076815 0.0023998 0.00094778
-0.00015581 -0.0020766 -0.00063479 -0.0010782 -0.0002409 -0.00109 -0.012456 0.007718
0.16981 0.16249 -0.0095347 0.0073062
-0.0003893 0.00043807 -0.00026318 -0.00076161 0.00012034 -0.00045437 0.0024087 0.00094636
-0.009537 0.0073027 0.21562 0.23914
1640000000 0.29687 0.022605 -0.0015098 0.012257 -0.0026154 -0.002513 0.0027718 0.00099418
-0.00053479 -0.0016443 -0.00025243 0.00060174
-0.0015137 0.012244 0.2046 0.2732 0.0058362 0.0036435 -0.00065739 -0.0017792
-0.0010669 -0.00037625 -0.00044096 -0.00071774
-0.0026238 -0.0024976 0.0058633 0.0036098 0.30311 -0.15661 -0.00062617 0.0015097
-0.0010644 -0.0010793 -3.4622e-05 -0.00047601
0.0027763 0.00098196 -0.00066826 -0.0017824 -0.00063079 0.0015055 0.24378 0.054212
-0.008156 0.0094404 0.0026348 -0.00075612
-0.00054434 -0.0016421 -0.0010698 -0.00037332 -0.0010757 -0.0010778 -0.0081338 0.0094726
0.19163 0.13878 -0.0049168 0.0093342
-0.00025248 0.00060264 -0.00044734 -0.00071878 -3.5207e-05 -0.00047753 0.0026337 -0.00076188
-0.0049259 0.0093201 0.24126 0.2084
1700000000 0.28961 -0.022608 0.0018704 0.0095216 -0.0034521 9.9609e-05 0.0030737 -0.0012531
-0.0020392 -0.0009082 0.00062802 0.00045803
0.0018661 0.0095139 0.22275 0.24159 0.0038847 0.00075471 -0.0015065 -0.00059071
-0.00080252 0.00013059 -0.00089493 -0.00045183
-0.0034446 0.0001203 0.0038882 0.00072843 0.25966 -0.1965 0.00052524 0.0016765
-0.0019764 -0.000229 -0.00046259 -0.00086924
0.0030764 -0.0012785 -0.0015133 -0.0005861 0.00052055 0.0016736 0.24125 0.0053324
-0.0050594 0.010456 0.0016295 -0.0023126
-0.0020515 -0.00089649 -0.00080287 0.00013366 -0.0019769 -0.00023255 -0.0050435 0.01047
0.20832 0.11934 -0.00012509 0.0097418
0.00063149 0.00045209 -0.00090341 -0.0004444 -0.00047109 -0.00087478 0.0016296 -0.0023232
-0.00012552 0.0097398 0.25808 0.17385
1760000000 0.27734 -0.071171 0.0042763 0.006326 -0.0022703 0.00095914 0.0012826 -0.0034703
-0.0014796 0.00059821 0.00035578 -0.00067184
0.0042637 0.006322 0.24866 0.20164 0.0016877 -0.0010631 -0.0012127 0.00017859
-0.00091562 0.00093577 -0.00060255 0.00034543
-0.0022664 0.00097552 0.0016825 -0.0010712 0.21074 -0.22961 0.0013106 0.00098784
-0.0011334 0.0015319 -0.0012807 -0.00050865
0.001264 -0.0034798 -0.0012191 0.00018428 0.0013108 0.00098523 0.23297 -0.045434
-0.0012494 0.0098733 -0.00013123 -0.0026131
-0.0014771 0.00062139 -0.00090622 0.00093917 -0.0011345 0.0015294 -0.0012285 0.0098785
0.22264 0.085321 0.0039668 0.0073126
0.00035072 -0.00067641 -0.0005959 0.000354 -0.0012752 -0.00051208 -0.00014096 -0.0026209
0.0039658 0.0073006 0.27094 0.13622
1820000000 0.25258 -0.10835 0.0045167 0.0027781 4.8362e-05 0.0023587 -0.0010144 -0.0030211
-0.0012699 0.0010301 -0.00011128 -9.3739e-05
0.0045077 0.0027686 0.2586 0.17148 -0.00020162 -7.7719e-06 -0.0013017 0.00097145
4.6344e-05 0.0012679 -0.00055589 0.00048298
6.1209e-05 0.0023507 -0.00020009 -6.1685e-06 0.16083 -0.24543 0.0014386 0.00028672
-0.00022096 0.0023198 -0.001332 0.00034806
-0.0010452 -0.0030117 -0.0013063 0.00098757 0.001438 0.00029267 0.20429 -0.092487
0.00082791 0.0082332 -0.0016222 -0.0016161
-0.0012479 0.0010433 4.9326e-05 0.0012568 -0.00021488 0.0023195 0.00085348 0.0082386
0.23972 0.057406 0.0049488 0.0037924
-0.00011746 -9.6044e-05 -0.0005479 0.00048446 -0.0013278 0.00034568 -0.0016248 -0.0016118
0.0049435 0.0037903 0.2737 0.10033
1880000000 0.21744 -0.14864 0.0024456 0.00044673 -0.00037515 0.0020352 -0.0029891 -0.0021355
-0.00019968 0.0018506 0.00028416 -0.00048015
0.0024377 0.00045361 0.26288 0.12486 -0.002215 0.0016834 -0.00015905 0.0016516
0.00060538 0.0010846 3.9379e-05 0.00090069
-0.00036394 0.0020385 -0.0022027 0.0016907 0.10849 -0.25496 0.0017071 -0.00094571
0.0015182 0.0019422 -0.0010411 0.0012684
-0.0030113 -0.0021072 -0.00015317 0.0016587 0.0017018 -0.00094237 0.16485 -0.13314
0.0020837 0.0059275 -0.0024367 0.00033006
-0.00017703 0.0018556 0.0006131 0.0010939 0.0015203 0.0019357 0.0021089 0.0059255
0.24301 0.025894 0.0051982 0.0014773
0.00027835 -0.00048289 5.0745e-05 0.00090154 -0.0010415 0.0012694 -0.0024374 0.00034281
0.0051925 0.0014739 0.27344 0.066049
1940000000 0.17803 -0.17441 0.0002424 -0.0012652 0.0012316 0.0019158 -0.0037392 0.0005421
0.0014037 0.0011082 -0.00052863 -0.00047644
0.00024384 -0.0012612 0.2632 0.093045 -0.0010841 0.0037651 0.0010173 0.0012986
0.0017144 0.00040207 0.00079374 0.00035145
0.0012517 0.0019086 -0.0010504 0.0037811 0.06245 -0.24841 0.00047309 -0.0020292
0.0024254 0.00047325 9.2498e-05 0.0015587
-0.0037362 0.00056866 0.0010284 0.0013024 0.00047018 -0.0020252 0.1133 -0.16454
0.0016432 0.0041413 -0.0014339 0.0014215
0.0014166 0.0010948 0.0017158 0.00038579 0.0024283 0.00046896 0.001649 0.0041434
0.24567 -0.012312 0.0041039 -0.0020893
-0.00053319 -0.00047061 0.0007929 0.00034171 8.6839e-05 0.0015524 -0.0014211 0.0014322
0.0040936 -0.0020913 0.26262 0.030313
2000000000 0.13154 -0.18894 -0.0035483 0.00061487 0.002518 0.0016809 -0.0023243 0.0034903
0.0011874 9.4637e-05 -0.00073268 0.00032246
-0.0035449 0.00060251 0.24891 0.057652 -0.00096847 0.0056854 0.0015435 0.00040159
0.0011801 -0.0012983 0.000553 0.00025418
0.0025288 0.0016526 -0.00093093 0.0056978 0.018709 -0.23357 -0.0012399 -0.0012656
0.0020184 -0.0011183 0.0016421 0.0013672
-0.0022945 0.0035233 0.0015464 0.00039241 -0.00124 -0.0012683 0.059664 -0.17553
-7.8544e-05 0.0032802 -0.00012597 0.0021108
0.0011849 9.4335e-05 0.0011707 -0.001308 0.0020153 -0.0011307 -6.9205e-05 0.00328
