!Keysight Technologies,M9804A,MY58100912,A.14.10.03
!Date: Thursday, April 27, 2023 10:28:33
!Correction: S11(C  6-Port  ) 
!S12(C  6-Port  ) 
!S13(C  6-Port  ) 
!S14(C  6-Port  ) 
!S15(C  6-Port  ) 
!S16(C  6-Port  ) 
!S21(C  6-Port  ) 
!S22(C  6-Port  ) 
!S23(C  6-Port  ) 
!S24(C  6-Port  ) 
!S25(C  6-Port  ) 
!S26(C  6-Port  ) 
!S31(C  6-Port  ) 
!S32(C  6-Port  ) 
!S33(C  6-Port  ) 
!S34(C  6-Port  ) 
!S35(C  6-Port  ) 
!S36(C  6-Port  ) 
!S41(C  6-Port  ) 
!S42(C  6-Port  ) 
!S43(C  6-Port  ) 
!S44(C  6-Port  ) 
!S45(C  6-Port  ) 
!S46(C  6-Port  ) 
!S51(C  6-Port  ) 
!S52(C  6-Port  ) 
!S53(C  6-Port  ) 
!S54(C  6-Port  ) 
!S55(C  6-Port  ) 
!S56(C  6-Port  ) 
!S61(C  6-Port  ) 
!S62(C  6-Port  ) 
!S63(C  6-Port  ) 
!S64(C  6-Port  ) 
!S65(C  6-Port  ) 
!S66(C  6-Port  ) 
!S6P File: Measurement: :
# Hz S  RI   R 50
500000000 -0.33653 -0.039394 -0.0094311 -0.0022739 -0.0079648 0.01254 -0.0044129 0.012064
0.013142 0.0044311 -0.0049794 0.0085922
-0.0094185 -0.0022902 -0.41895 -0.052053 0.0078993 -0.01091 0.0014121 0.012096
0.007769 0.0025779 0.00084659 0.012867
-0.0079506 0.012543 0.0078993 -0.010903 -0.26548 0.20891 0.0077278 0.0035164
-0.0016063 0.0078037 0.001653 0.011815
-0.0043652 0.011948 0.001463 0.012047 0.0077105 0.0035109 -0.3322 0.042477
-0.019147 -0.0066489 0.014851 0.027258
0.013157 0.004648 0.0076945 0.0026492 -0.0018418 0.00776 -0.019131 -0.0064223
-0.22133 -0.20075 -0.025591 0.0051169
-0.0047767 0.0086402 0.0013471 0.013211 0.0016228 0.012072 0.015291 0.026892
-0.025461 0.0050323 -0.26713 -0.13582
560000000 -0.31574 0.12228 -0.024204 -0.064101 0.00060279 0.012347 0.0053518 0.010411
0.010583 0.0049918 0.011651 0.0075233
-0.024216 -0.063992 -0.37821 0.10688 -0.041104 -0.038029 0.01416 0.0037191
-0.012863 -0.0047604 0.0027682 -7.4016e-05
0.00062487 0.012311 -0.041269 -0.037972 -0.18302 0.25757 -0.00070717 -0.0041416
0.019378 0.0053622 0.0067933 -0.0069465
0.0053827 0.010455 0.014029 0.0036766 -0.0007782 -0.0041387 -0.30686 0.13149
0.0039723 -0.023882 0.0046211 -0.021094
0.010673 0.0054771 -0.012875 -0.0051586 0.019442 0.0057937 0.0038652 -0.02438
-0.28895 -0.025178 0.0088165 -0.048764
0.011377 0.0076371 0.0031547 -0.00062385 0.0065372 -0.0065124 0.0045999 -0.021408
0.0087562 -0.048921 -0.32837 0.012646
620000000 -0.27494 0.10669 -0.023243 0.0078731 0.0034448 0.0088772 0.0082754 -0.0050708
0.011186 -5.1969e-05 0.00168 -0.0029485
-0.023224 0.0078647 -0.40262 0.059198 -0.018664 2.7201e-05 -0.0012708 -0.0019141
0.01133 -0.0064335 0.0014537 -0.003194
0.003443 0.0088684 -0.018666 7.3949e-05 -0.15389 0.26606 -0.0011218 -0.0049384
-0.0033718 -0.00261 0.0086226 -0.0032159
0.0084122 -0.0051138 -0.0012671 -0.0019178 -0.0010313 -0.0049344 -0.26702 0.1435
-0.038365 -0.019815 0.012528 0.026856
0.011224 -0.00012637 0.01129 -0.0063248 -0.0031939 -0.0027916 -0.038242 -0.019979
-0.2067 -0.062788 -0.042062 0.014764
0.0019286 -0.0021742 0.0013277 -0.0030169 0.0084973 -0.0029986 0.012337 0.026682
-0.042131 0.014877 -0.24887 -0.024155
680000000 -0.23447 0.19184 -0.027198 -0.014314 0.0048721 0.0051294 0.0013995 -0.0068364
-0.0029628 -0.01125 0.0050737 -0.0067077
-0.027169 -0.014312 -0.38773 0.15725 -0.032815 -0.0014226 -0.0015999 -0.0005252
-0.0021803 -0.0087936 -0.0014243 -0.0015065
0.0049019 0.0051165 -0.032847 -0.0013409 -0.10254 0.28611 -0.00059461 -0.00015873
-0.0017352 0.00062012 -0.0030111 -0.0089939
0.0014858 -0.006841 -0.0015874 -0.0005303 -0.00061563 -0.00019237 -0.22191 0.19404
-0.024173 -0.0076861 -0.0097981 -0.011244
-0.0029199 -0.011344 -0.0020659 -0.008957 -0.00164 0.00052651 -0.024257 -0.0073547
-0.25935 0.036111 -0.0049621 -0.0084845
0.0054865 -0.0070088 -0.00084259 -0.001468 -0.0027722 -0.0089865 -0.010353 -0.011272
-0.0049698 -0.0082235 -0.26072 0.083571
740000000 -0.19081 0.18687 -0.038877 0.026595 0.012647 -0.005177 -0.00018654 -0.0043192
-0.0040212 -0.0029643 -0.0062132 0.0023074
-0.03883 0.026575 -0.33476 0.17633 -0.035745 0.035222 -0.00077704 -0.006241
-0.012027 0.0078928 -0.0017425 -0.0066718
0.01264 -0.0051824 -0.035681 0.03538 -0.068799 0.28448 -0.0021102 0.0031294
-0.0023467 -0.0049 -0.0013883 8.8164e-05
-7.0584e-05 -0.0042565 -0.00071893 -0.0062899 -0.0021061 0.0031436 -0.20499 0.20191
-0.043901 -0.0071745 0.023106 0.015292
-0.0042628 -0.0027803 -0.012095 0.0079384 -0.0022757 -0.0048561 -0.044028 -0.0069076
-0.15884 0.06322 -0.043918 0.00039673
-0.0063353 0.0024521 -0.0020357 -0.0063987 -0.0015542 4.4128e-05 0.023103 0.01524
-0.043591 -6.5549e-06 -0.24968 0.088392
800000000 -0.15756 0.22705 -0.02239 0.01671 0.0053793 -0.010738 -0.0046277 -0.0021429
-0.0039844 0.0021325 0.0045826 0.00056153
-0.022379 0.016694 -0.3382 0.24629 -0.0078122 0.033958 -0.0023796 0.0021931
-0.00064279 0.0029337 0.0011174 0.0051409
0.0053724 -0.010763 -0.0077163 0.034005 -0.028137 0.30779 0.0010086 0.0014433
0.00014698 0.0035446 -0.001721 0.00091714
-0.0046279 -0.0021452 -0.0023776 0.0022214 0.0010037 0.0014488 -0.17613 0.23004
-0.028817 0.014411 0.013911 -0.010252
-0.0039592 0.0022545 -0.00055402 0.0029526 0.00019579 0.003512 -0.028971 0.014488
-0.20681 0.0871 -0.017669 0.019355
0.0047386 0.00031542 0.0011627 0.0051734 -0.0016395 0.00085977 0.014051 -0.010339
-0.017665 0.019378 -0.24568 0.13818
860000000 -0.12309 0.24746 -0.017525 0.030562 -0.0033519 -0.010002 -0.0022582 0.00093872
0.0040271 0.0048521 -0.0033264 -0.0028679
-0.017526 0.030544 -0.29073 0.28812 0.0079339 0.034115 1.1444e-05 0.0018328
0.0042304 0.0002258 0.0034774 0.00087516
-0.0033819 -0.0099934 0.0080537 0.034111 0.01995 0.31579 -0.00059749 -0.00029247
0.0026722 -0.0014513 0.001389 0.0045723
-0.0022142 0.00091674 3.3436e-05 0.0018223 -0.00058854 -0.00028254 -0.13939 0.24087
-0.018017 0.019178 -0.0063006 -0.009181
0.0040353 0.0047801 0.0042339 0.00020068 0.0026727 -0.0014888 -0.018062 0.019186
-0.15499 0.1393 -0.026673 0.015414
-0.0033138 -0.0028316 0.003452 0.00068611 0.0014054 0.0045195 -0.0062193 -0.0092583
-0.026473 0.015633 -0.19402 0.18526
920000000 -0.098571 0.27047 0.0051135 0.037901 -0.0095489 -0.0043504 -0.0018258 0.0018945
0.00089383 0.0019743 0.0026135 -0.0014689
0.005095 0.037876 -0.2618 0.30963 0.028086 0.021868 0.0014059 0.0010915
0.0068936 -0.00067653 0.0038434 -0.0025684
-0.0095588 -0.0043385 0.028182 0.021795 0.066228 0.31637 0.001823 -5.8324e-05
0.001237 -0.0003782 0.00093547 -0.00095632
-0.0018369 0.0018815 0.0013914 0.0011032 0.001833 -6.2385e-05 -0.11562 0.25812
-0.010996 0.031477 0.0040083 -0.0065064
0.00079142 0.0019254 0.0069457 -0.00064901 0.0011933 -0.00041526 -0.010854 0.031464
-0.14523 0.14507 -0.0030365 0.027928
0.002655 -0.0015472 0.0039286 -0.0025994 0.00095978 -0.00099683 0.0039395 -0.0067357
-0.003232 0.027874 -0.20342 0.19936
980000000 -0.051149 0.29004 0.017559 0.030038 -0.0090171 0.0046987 0.0020131 0.0034574
0.0039458 -0.001266 -0.0032219 -0.0021448
0.017514 0.030021 -0.20894 0.34347 0.032974 0.0048381 0.0020908 -2.9395e-05
0.0015099 -0.0057376 -0.00019674 -0.002374
-0.0089933 0.0047255 0.033032 0.00471 0.1125 0.3097 0.00052391 -0.0011333
0.00025181 -0.0020152 0.0015173 -0.00017002
0.0020722 0.0034482 0.0020793 -9.6879e-06 0.00052537 -0.0011417 -0.076949 0.26945
0.0082828 0.030847 -0.0090611 -0.0073659
0.0038627 -0.001302 0.0014702 -0.0057587 0.00024978 -0.002029 0.0083344 0.03086
-0.11398 0.17481 0.0046102 0.019851
-0.0032902 -0.0020006 -0.00029068 -0.0023606 0.0015029 -0.00012054 -0.0091577 -0.007347
0.0047683 0.019801 -0.16147 0.24543
1040000000 -0.0090186 0.29835 0.03316 0.018073 -0.0011877 0.006959 0.0024854 0.00062732
9.7e-05 -0.0036809 -0.00030277 -0.0013014
0.033116 0.01809 -0.17334 0.35655 0.029303 -0.014812 0.0014774 -0.0017422
-0.0024852 -0.0024865 -0.0012781 -0.0024857
-0.0011576 0.0069771 0.029256 -0.014955 0.15843 0.29594 -0.000516 -0.0015632
-0.0015923 -0.00089305 -0.00043958 -0.0011251
0.0025026 0.00061272 0.0014557 -0.001744 -0.0005047 -0.0015688 -0.049473 0.27967
0.020144 0.018643 -0.0022014 0.0013517
5.4977e-05 -0.0036728 -0.0024441 -0.002546 -0.0015559 -0.00089318 0.020167 0.018521
-0.081223 0.18225 0.013391 0.018799
-0.00033732 -0.0013199 -0.001363 -0.002523 -0.0003895 -0.0011267 -0.0022352 0.0013854
0.013545 0.018939 -0.14041 0.26539
1100000000 0.03639 0.30618 0.035734 -0.0042669 0.0029199 0.0038426 0.0022439 -0.0013213
-0.0019418 -0.0031313 -0.0038754 -5.9008e-05
0.0357 -0.0042351 -0.12988 0.37365 0.015021 -0.027719 -7.8098e-05 -0.0018102
-0.003261 -0.00082782 -0.0035124 -0.00052973
0.0029323 0.0038375 0.014919 -0.027816 0.20475 0.27554 -0.001866 0.00022226
-0.0018505 0.00049771 -0.0010881 -0.00038003
0.0022388 -0.001349 -5.2544e-05 -0.001824 -0.001871 0.00022548 -0.0088902 0.28451
0.02553 0.0051142 -0.0026334 -9.2188e-05
-0.0019842 -0.003141 -0.0032814 -0.00080701 -0.0018439 0.00050827 0.025542 0.0050579
-0.063422 0.19543 0.019378 0.0088557
-0.0038734 7.1859e-05 -0.0035031 -0.00047497 -0.0011043 -0.00039089 -0.0025184 -2.0034e-05
0.019356 0.0088751 -0.095022 0.29661
1160000000 0.08782 0.30107 0.023901 -0.020744 0.0027298 -0.000592 -0.00034997 -0.0023511
-0.0040934 -0.00077532 -0.00089329 0.0039996
0.023893 -0.020694 -0.086186 0.37782 -0.0037288 -0.028976 -0.0017065 -0.001675
-0.0027455 0.0023986 -0.0012619 0.0018775
0.0027329 -0.00059736 -0.0038731 -0.029005 0.2477 0.24478 -0.00067923 0.0017607
-0.00066167 0.0018715 -0.00096968 0.00030767
-0.00033948 -0.0023466 -0.0017252 -0.0016626 -0.00066798 0.0017551 0.030515 0.28167
0.021881 -0.010799 -0.0030456 0.0051085
-0.0040707 -0.00077606 -0.0026879 0.0024116 -0.00067698 0.0018883 0.021848 -0.010809
-0.030021 0.20455 0.018472 0.00080626
-0.00086835 0.0040283 -0.0013318 0.0019138 -0.00096727 0.0003391 -0.0029219 0.0050267
0.018438 0.00096059 -0.048013 0.29971
1220000000 0.13222 0.28978 0.01031 -0.029991 -0.0015798 -0.0008767 4.0588e-05 -0.0008563
-0.0026036 0.0023653 0.0013632 0.0019898
0.010316 -0.029943 -0.041816 0.38963 -0.016789 -0.02097 -0.0024888 0.00043601
-2.8775e-05 0.0029187 -0.00074927 0.0018835
-0.0015829 -0.00085397 -0.016902 -0.020921 0.28679 0.2058 0.0008156 0.0016035
0.00062473 0.0011925 0.00037349 0.00066145
4.4019e-05 -0.00085961 -0.0024897 0.00043725 0.00081544 0.001601 0.070445 0.27303
0.010991 -0.017754 0.0020089 0.0013578
-0.0026228 0.0023513 -1.2652e-05 0.0029531 0.00059479 0.0011864 0.010996 -0.017754
-0.0077654 0.21362 0.014574 -0.012761
0.0013741 0.0019894 -0.0007313 0.001852 0.00034854 0.00063892 0.0020037 0.0013234
0.014541 -0.012766 -0.017132 0.31744
1280000000 0.18181 0.26765 -0.007952 -0.028333 -0.0018512 0.0024223 -0.00087974 -0.00197
-0.00082542 0.0029929 0.0024658 0.0012093
-0.007919 -0.028303 0.0039663 0.38057 -0.023571 -0.0084586 -0.00096472 0.0014091
0.0015845 0.0018138 0.00061082 0.0021072
-0.0018351 0.0024349 -0.023654 -0.0083618 0.31729 0.16198 0.0015823 8.3609e-06
0.0011636 0.00037109 0.00043082 0.00035514
-0.00089837 -0.0019631 -0.00095874 0.0014189 0.0015848 1.8343e-07 0.10729 0.25643
0.0013651 -0.019947 -0.00034753 -1.8138e-05
-0.00080999 0.0029804 0.0015994 0.0018081 0.0011343 0.0003399 0.0013599 -0.019965
0.028744 0.2172 0.0034126 -0.014928
0.0024752 0.0011672 0.00064821 0.0020968 0.00043435 0.00033754 -0.00036198 1.0503e-05
0.0034784 -0.014984 0.031406 0.32008
1340000000 0.21883 0.23365 -0.017569 -0.018868 0.0008619 0.0044294 -0.0016492 -0.00082943
0.0014145 0.0026951 0.001773 -0.0013577
-0.017534 -0.018857 0.043277 0.37224 -0.021468 0.0041629 -0.00015808 0.0019689
0.0019322 0.00087743 0.0012941 0.00079013
0.00088267 0.0044398 -0.021467 0.0042704 0.3394 0.11415 0.0011746 -0.00086527
0.00077623 -0.00048816 0.00018641 0.00030219
-0.0016521 -0.00083779 -0.00014093 0.0019686 0.0011823 -0.00086556 0.13947 0.23588
-0.0084216 -0.017309 0.0007393 0.00055476
0.0014276 0.0027376 0.0019151 0.00089571 0.00075706 -0.00046577 -0.0084576 -0.017288
0.058187 0.21238 -0.0031381 -0.013631
0.0018328 -0.0013817 0.001356 0.00076126 0.00025358 0.00033814 0.00068858 0.00058479
-0.0031471 -0.013615 0.069651 0.31651
1400000000 0.25158 0.19534 -0.02328 -0.0074062 0.0050192 0.0030331 -0.0020597 0.00057798
0.0023179 0.0009028 0.00030419 -0.0013043
-0.023253 -0.0074122 0.080371 0.35916 -0.014781 0.012223 0.001284 0.0013407
0.0012196 -0.00071176 0.0012428 0.00024816
0.0050467 0.0030059 -0.014735 0.012311 0.35259 0.060627 0.00022886 -0.00168
-4.5971e-07 -0.00045894 0.0004504 0.00019118
-0.0020248 0.0005829 0.0013025 0.0013375 0.00021821 -0.0016845 0.16865 0.20715
-0.014656 -0.010604 -0.0009293 -0.00030657
0.0023443 0.00090331 0.0012166 -0.00075573 1.2619e-05 -0.00044804 -0.014685 -0.010565
0.090694 0.20819 -0.0098497 -0.0091582
0.00033125 -0.0013022 0.0012436 0.00024726 0.00043897 0.00019582 -0.00091827 -0.00032018
-0.009842 -0.0091513 0.11508 0.30618
1460000000 0.27403 0.1512 -0.02025 0.0046778 0.005485 -0.0018455 -0.0016243 0.0016928
0.0021006 -0.00042925 -0.000296 -0.00098599
-0.020246 0.0046644 0.11442 0.33743 -0.0062212 0.01513 0.0017269 0.00022802
0.0009456 -0.0012747 0.0011239 -0.00058736
0.0054774 -0.0018725 -0.0061448 0.015174 0.35875 0.0061303 -0.001322 -0.0012926
0.00010013 -0.00030759 0.00061036 -0.00032088
-0.0016078 0.0017032 0.0017327 0.00023238 -0.001308 -0.0012903 0.19458 0.17818
-0.016215 -0.0037546 -0.0010272 0.0021748
0.002064 -0.00045026 0.00094411 -0.001271 0.00012018 -0.00029372 -0.016271 -0.003727
0.11901 0.19358 -0.011845 -0.0030734
-0.00037536 -0.0009403 0.0011236 -0.00059548 0.00059564 -0.00035677 -0.00098308 0.0022098
-0.011725 -0.0030374 0.1486 0.28555
1520000000 0.28583 0.10949 -0.014653 0.010217 0.0032821 -0.0041015 6.1326e-05 0.0026528
0.0021936 -0.0016687 -0.0011183 -0.00012957
-0.014655 0.010191 0.14789 0.32275 0.0013605 0.013003 0.0016734 -0.00074535
5.047e-05 -0.0011023 0.00034568 -0.00098031
0.0032626 -0.0041295 0.0014496 0.013003 0.3519 -0.050155 -0.0012179 -0.00038212
0.00059804 -0.00078297 4.6316e-05 -9.8825e-05
8.093e-05 0.00265 0.0016713 -0.0007468 -0.0012255 -0.00039301 0.21749 0.14078
-0.015901 0.0022981 0.0014657 0.0022052
0.0021672 -0.0016476 4.4514e-05 -0.0010982 0.00058765 -0.0007775 -0.015907 0.0023382
0.14615 0.17985 -0.01188 0.0013307
-0.0011416 -0.00011625 0.00031949 -0.0010083 5.2422e-05 -0.00011444 0.0014673 0.0022162
-0.011858 0.0012582 0.18257 0.26596
1580000000 0.29479 0.063493 -0.0080791 0.01326 -0.00090423 -0.004779 0.0014111 0.0019512
-0.00016886 -0.0020536 -0.00036529 0.00044311
-0.0080794 0.013254 0.17517 0.29807 0.0049646 0.0082975 0.00053604 -0.0015992
-0.00062461 -0.001084 -0.00027138 -0.00076449
-0.00093297 -0.0047672 0.0050224 0.0082733 0.33138 -0.10777 -0.0016341 0.00069261
-0.00024299 -0.0010612 0.00013647 -0.0004341
0.0014251 0.0019482 0.00052918 -0.0016154 -0.0016338 0.00068726 0.23132 0.10224
-0.012476 0.0076489 0.0023554 0.0009514
-0.0001823 -0.002067 -0.0006238 -0.001101 -0.00024436 -0.0010798 -0.012482 0.0077003
0.16991 0.16244 -0.0095371 0.0072892
-0.00036318 0.00045371 -0.00028343 -0.00076699 0.00013306 -0.0004522 0.0023658 0.0009792
-0.0094846 0.0072674 0.21554 0.23921
1640000000 0.29676 0.022438 -0.0014145 0.012248 -0.0026254 -0.0025657 0.0028019 0.00099289
-0.00053443 -0.0016685 -0.00024241 0.00060777
-0.0014188 0.012236 0.20469 0.27313 0.0058432 0.0036484 -0.00066238 -0.0017742
-0.0010513 -0.00037672 -0.00044415 -0.00071324
-0.0026348 -0.0025407 0.0058684 0.0036171 0.30307 -0.1567 -0.00063207 0.0015351
-0.0010588 -0.0011075 6.8547e-06 -0.0004731
0.0028012 0.00097652 -0.00066119 -0.0017755 -0.0006309 0.0015345 0.24381 0.054159
-0.0081547 0.00943 0.0026485 -0.00072799
-0.00054832 -0.0016376 -0.0010766 -0.00036443 -0.0010681 -0.0011042 -0.0081458 0.0094574
0.19166 0.13875 -0.0049512 0.0093515
-0.00022403 0.00058139 -0.00044563 -0.00071782 -6.5238e-05 -0.00047206 0.0026526 -0.00074148
-0.0049385 0.0093131 0.24129 0.20841
1700000000 0.28952 -0.022698 0.0019553 0.0094899 -0.0034519 8.1513e-05 0.0030956 -0.0012692
-0.0020551 -0.0008782 0.00062436 0.00044617
0.0019467 0.0094832 0.22287 0.24155 0.0039043 0.00076258 -0.0014993 -0.00059675
-0.00078278 0.00014625 -0.0008826 -0.00046231
-0.0034515 9.6812e-05 0.0039069 0.00074274 0.25966 -0.19658 0.00050702 0.0016717
-0.0019583 -0.00023853 -0.00042604 -0.00090698
0.0030847 -0.001293 -0.0015086 -0.00058269 0.00050877 0.0016671 0.24122 0.005303
-0.0050417 0.010449 0.0015909 -0.0023062
-0.0020364 -0.00087468 -0.00079968 0.00014662 -0.0019688 -0.00024594 -0.0050193 0.01049
0.20839 0.11932 -0.0001281 0.0097401
0.00063202 0.00045007 -0.00090241 -0.00045035 -0.00047595 -0.00090527 0.0016203 -0.0023059
-0.00019448 0.0097292 0.25794 0.17389
1760000000 0.27726 -0.071234 0.0043027 0.0062526 -0.0022904 0.00097734 0.001277 -0.0034991
-0.0015061 0.00059017 0.00036496 -0.0006996
0.0042944 0.0062484 0.24879 0.20158 0.0016782 -0.0010501 -0.0012053 0.00018931
-0.0009216 0.00093373 -0.00058362 0.0003299
-0.0022842 0.0010021 0.0016708 -0.0010757 0.21064 -0.22972 0.0012961 0.00098363
-0.001157 0.0015299 -0.0012964 -0.0005288
0.0012397 -0.003492 -0.0012113 0.0001899 0.0012912 0.00099106 0.233 -0.045465
-0.0012533 0.0098914 -0.0001187 -0.0025958
-0.0014955 0.00062082 -0.00091312 0.00094055 -0.0011595 0.001541 -0.0012203 0.0098947
0.22262 0.085333 0.0039384 0.0072933
0.00039767 -0.00066082 -0.00058735 0.00036861 -0.0013251 -0.00049673 -0.0001545 -0.0026252
0.0039181 0.0072937 0.27089 0.13641
1820000000 0.25257 -0.10838 0.0045188 0.0026984 1.8161e-05 0.0023713 -0.0010689 -0.0030187
-0.0012504 0.0010276 -8.384e-05 -8.4824e-05
0.0045103 0.002703 0.25873 0.17143 -0.00021603 -2.7824e-05 -0.0013149 0.00096238
5.0377e-05 0.0012526 -0.00054166 0.00048326
1.8527e-05 0.0023802 -0.00021159 -3.0459e-05 0.16073 -0.24546 0.0014377 0.00032397
-0.00019965 0.0023137 -0.0013628 0.00032294
-0.0010786 -0.0030305 -0.0013038 0.00098059 0.0014192 0.00032793 0.2043 -0.092522
0.00083426 0.0082542 -0.0015956 -0.0016489
-0.0012437 0.0010509 6.6204e-05 0.0012524 -0.00021492 0.0023235 0.00087094 0.0082307
0.23969 0.057324 0.0049236 0.0037619
-6.9958e-05 -8.6446e-05 -0.00053683 0.00049338 -0.0013718 0.00032783 -0.0015583 -0.0016168
0.0049268 0.0038001 0.27363 0.10049
1880000000 0.21744 -0.1487 0.0024184 0.00039504 -0.00033892 0.0020321 -0.0029949 -0.0021211
-0.00018358 0.0018581 0.00020631 -0.00047764
0.0024172 0.00038701 0.26303 0.12477 -0.0022058 0.0016943 -0.00016368 0.0016538
0.00060434 0.001097 1.5378e-05 0.00090739
-0.00031796 0.0020247 -0.0021851 0.0017031 0.10843 -0.25501 0.0016766 -0.00099971
0.0015292 0.0019385 -0.0010507 0.001276
-0.003019 -0.0021256 -0.00014439 0.0016644 0.0016993 -0.00094807 0.16488 -0.13311
0.0020979 0.0059362 -0.0023755 0.00031104
-0.00017743 0.0018286 0.00059047 0.0010727 0.0015028 0.0019318 0.002134 0.0059631
0.24299 0.025818 0.0051967 0.0015747
0.00025328 -0.00050364 6.212e-05 0.00089848 -0.0010208 0.0012759 -0.0024157 0.0003424
0.005172 0.001524 0.27355 0.066231
1940000000 0.17808 -0.17454 0.00021193 -0.0012945 0.0012208 0.0019262 -0.0037329 0.00058783
0.0013987 0.0011191 -0.00052956 -0.00047857
0.00021754 -0.0012944 0.26334 0.092919 -0.0010959 0.0038036 0.0010088 0.0013171
0.0017183 0.00041369 0.00079921 0.000331
0.0012449 0.0019096 -0.001068 0.003815 0.062394 -0.24839 0.00046929 -0.0019903
0.002404 0.00051397 0.00014036 0.0015842
-0.0037284 0.00061151 0.0010324 0.0013091 0.00048466 -0.0019827 0.11331 -0.16457
0.0016329 0.004162 -0.0014239 0.0014369
0.0013753 0.0010971 0.0017011 0.000386 0.002396 0.00050599 0.0016653 0.0041309
0.24564 -0.012314 0.0041238 -0.0020672
-0.00054528 -0.00050058 0.00080387 0.0003284 0.00016833 0.0015945 -0.0013943 0.0014352
0.0041161 -0.002068 0.26264 0.030426
2000000000 0.13153 -0.18904 -0.0036097 0.00059961 0.0025019 0.0016529 -0.0023079 0.0034601
0.0012018 0.00010275 -0.00069871 0.00027359
-0.0035973 0.0005919 0.24901 0.057456 -0.0009497 0.0056965 0.0015389 0.00039326
0.0012165 -0.0013028 0.00058212 0.00022666
0.0024966 0.0016452 -0.00091302 0.0057001 0.018655 -0.23364 -0.0012123 -0.001284
0.0020244 -0.0011411 0.0016513 0.0013722
-0.0022914 0.0034615 0.0015465 0.00038628 -0.0012153 -0.0012961 0.05966 -0.17552
-3.6499e-05 0.0032509 -0.00011192 0.0021229
0.0012004 3.3804e-05 0.0012111 -0.0013205 0.0020373 -0.001131 -2.4897e-05 0.0032639
0.24043 -0.046284 0.00079871 -0.0029009
