!Keysight Technologies,M9804A,MY58100912,A.14.10.03
!Date: Thursday, April 27, 2023 10:28:33
!Correction: S11(C  6-Port  ) 
!S12(C  6-Port  ) 
!S13(C  6-Port  ) 
!S14(C  6-Port  ) 
!S15(C  6-Port  ) 
!S16(C  6-Port  ) 
!S21(C  6-Port  ) 
!S22(C  6-Port  ) 
!S23(C  6-Port  ) 
!S24(C  6-Port  ) 
!S25(C  6-Port  ) 
!S26(C  6-Port  ) 
!S31(C  6-Port  ) 
!S32(C  6-Port  ) 
!S33(C  6-Port  ) 
!S34(C  6-Port  ) 
!S35(C  6-Port  ) 
!S36(C  6-Port  ) 
!S41(C  6-Port  ) 
!S42(C  6-Port  ) 
!S43(C  6-Port  ) 
!S44(C  6-Port  ) 
!S45(C  6-Port  ) 
!S46(C  6-Port  ) 
!S51(C  6-Port  ) 
!S52(C  6-Port  ) 
!S53(C  6-Port  ) 
!S54(C  6-Port  ) 
!S55(C  6-Port  ) 
!S56(C  6-Port  ) 
!S61(C  6-Port  ) 
!S62(C  6-Port  ) 
!S63(C  6-Port  ) 
!S64(C  6-Port  ) 
!S65(C  6-Port  ) 
!S66(C  6-Port  ) 
!S6P File: Measurement: :
# Hz S  RI   R 50
500000000 -0.33666 -0.04087 -0.009954 -0.0029902 -0.0084626 0.013042 -0.0040833 0.0109
0.012946 0.0045318 -0.0053994 0.0075001
-0.0098322 -0.002979 -0.41953 -0.053313 0.0077083 -0.010568 0.001906 0.012092
0.0075113 0.002673 0.0012972 0.013553
-0.0084722 0.013059 0.0077081 -0.010611 -0.26577 0.20884 0.0076979 0.0033289
-0.0021981 0.0081329 0.0015 0.01208
-0.0041035 0.01095 0.0018555 0.012009 0.0076788 0.003405 -0.33243 0.043065
-0.019038 -0.0072641 0.015256 0.028426
0.013002 0.0044213 0.0075072 0.0024052 -0.0020666 0.0081236 -0.019042 -0.0072567
-0.22074 -0.20266 -0.025289 0.004518
-0.0052846 0.0074295 0.0013756 0.013238 0.0014218 0.012114 0.015248 0.028363
-0.025184 0.0044802 -0.26521 -0.13774
560000000 -0.31754 0.12212 -0.023971 -0.063092 -6.1106e-05 0.012432 0.0055165 0.011353
0.010717 0.0058073 0.012317 0.0080756
-0.02392 -0.062927 -0.37607 0.10733 -0.041888 -0.037775 0.014632 0.0037412
-0.013432 -0.004978 0.0048881 -0.00035943
6.8469e-06 0.012381 -0.042063 -0.037696 -0.18294 0.25765 -0.000222 -0.0038747
0.019951 0.005325 0.0060513 -0.0064013
0.005525 0.011311 0.014644 0.0039193 -0.00018217 -0.0039514 -0.30775 0.13162
0.0030782 -0.024085 0.0049082 -0.021806
0.010816 0.0058152 -0.013699 -0.005134 0.019904 0.0054413 0.0030759 -0.02407
-0.28972 -0.028617 0.0080482 -0.048637
0.012195 0.0081225 0.0048973 -0.00032102 0.0060456 -0.006504 0.004879 -0.021817
0.0079171 -0.048746 -0.32747 0.0098237
620000000 -0.27549 0.10537 -0.023418 0.0078956 0.003192 0.0085617 0.008116 -0.0057558
0.011136 0.00024888 0.0014516 -0.002186
-0.023403 0.0078892 -0.40299 0.05864 -0.018593 0.00016332 -0.0011499 -0.002382
0.011486 -0.00596 0.0008909 -0.0029255
0.0031834 0.0085746 -0.018602 0.00022993 -0.15391 0.26631 -0.0010738 -0.0056427
-0.0032791 -0.0024553 0.0082565 -0.0033187
0.0079832 -0.005819 -0.0011784 -0.0023288 -0.0011109 -0.0056132 -0.26758 0.14249
-0.038528 -0.019773 0.011422 0.026078
0.011191 0.0004214 0.011525 -0.0061416 -0.0031278 -0.0025622 -0.038564 -0.019701
-0.20763 -0.064228 -0.042341 0.015049
0.0015093 -0.0023254 0.00093913 -0.0029036 0.0082035 -0.0032752 0.011448 0.025978
-0.042386 0.015043 -0.24849 -0.027506
680000000 -0.23564 0.19247 -0.027201 -0.0137 0.0051619 0.0057191 0.0011351 -0.0069615
-0.003273 -0.010931 0.0058598 -0.0064203
-0.027184 -0.013635 -0.38777 0.15743 -0.032651 -0.0010576 -0.0016809 -0.00021494
-0.0020171 -0.0089591 -0.00048713 -0.0013131
0.0051823 0.0057389 -0.032653 -0.0009734 -0.10219 0.28639 -0.00078709 -0.00012275
-0.0015298 0.00061671 -0.0024209 -0.008869
0.0012208 -0.0069702 -0.001652 -0.000266 -0.00077477 -0.00014388 -0.22222 0.19447
-0.024184 -0.0066964 -0.0094965 -0.010826
-0.0032644 -0.010939 -0.0020651 -0.0089445 -0.0015779 0.0006445 -0.024191 -0.0066753
-0.25958 0.03543 -0.0057646 -0.0083005
0.0058271 -0.0063893 -0.00047275 -0.0013135 -0.0023974 -0.0088417 -0.009586 -0.010794
-0.005726 -0.0082889 -0.26083 0.080314
740000000 -0.19108 0.18731 -0.038621 0.026766 0.013089 -0.004827 -0.00016573 -0.0049033
-0.0044509 -0.0029275 -0.0067042 0.0022279
-0.038671 0.026759 -0.33499 0.176 -0.035727 0.035463 -0.00092537 -0.0064037
-0.012643 0.0081192 -0.0025346 -0.0066089
0.013056 -0.0048666 -0.03565 0.035635 -0.068569 0.28405 -0.0018959 0.0031074
-0.0020978 -0.0047441 -0.0016624 -0.00026945
-0.00015561 -0.004883 -0.00099173 -0.0064303 -0.0019155 0.0030701 -0.20533 0.20182
-0.044832 -0.0062665 0.023517 0.015516
-0.0045203 -0.0028036 -0.012506 0.0082815 -0.0020766 -0.0047191 -0.044839 -0.0062101
-0.15733 0.062947 -0.044739 0.0014402
-0.0065916 0.0021347 -0.0025485 -0.0064987 -0.001601 -0.000298 0.02359 0.015549
-0.044763 0.0013814 -0.24976 0.086228
800000000 -0.15781 0.22708 -0.022388 0.016675 0.0055539 -0.010616 -0.0052562 -0.0018734
-0.0041944 0.0021876 0.0044203 0.00073943
-0.022387 0.016639 -0.33821 0.24581 -0.0078541 0.034047 -0.0025937 0.0022254
-0.00068691 0.0028853 0.00079625 0.0053341
0.0055021 -0.010634 -0.0077318 0.034102 -0.028153 0.3075 0.00069932 0.001592
0.00019941 0.0035405 -0.0017264 0.0011376
-0.0052098 -0.0018617 -0.0025615 0.0022357 0.00071866 0.0015761 -0.17617 0.22975
-0.028823 0.014663 0.013628 -0.010694
-0.0042314 0.0021008 -0.00067902 0.0028164 0.00016587 0.0035479 -0.028834 0.014739
-0.20685 0.086727 -0.017427 0.0201
0.0043737 0.00075295 0.00083591 0.0053577 -0.0018217 0.0011725 0.013568 -0.010746
-0.017424 0.020138 -0.24725 0.13641
860000000 -0.12304 0.24747 -0.01727 0.030566 -0.0034356 -0.010115 -0.0018668 0.00056639
0.0041696 0.0045094 -0.0037922 -0.0034872
-0.017294 0.030542 -0.29078 0.28783 0.0078613 0.034278 1.3995e-05 0.0018009
0.0041872 -8.0796e-05 0.0032121 0.00077254
-0.0034732 -0.01012 0.0079782 0.03432 0.019611 0.31543 -0.00051289 -0.00041415
0.0026689 -0.0015544 0.0014972 0.0041378
-0.0018489 0.0006059 -2.6165e-05 0.0018628 -0.00051944 -0.00041513 -0.1394 0.24076
-0.017684 0.018606 -0.0056509 -0.0091913
0.0041556 0.0045192 0.004104 -9.5044e-05 0.002696 -0.0015682 -0.017687 0.018649
-0.15455 0.13871 -0.026754 0.016194
-0.0037555 -0.0035282 0.0032424 0.00074422 0.0014738 0.0041479 -0.0056736 -0.0091264
-0.026752 0.016068 -0.19448 0.18224
920000000 -0.098759 0.26978 0.0050734 0.03774 -0.0096299 -0.0047144 -0.001879 0.002065
0.0006354 0.0021108 0.0030819 -0.0015242
0.0050226 0.03778 -0.26195 0.30924 0.028187 0.021958 0.0015836 0.0010945
0.0069584 -0.00022154 0.0039896 -0.0029383
-0.0096428 -0.0046934 0.028273 0.021897 0.065852 0.3163 0.0018812 -4.4939e-06
0.001185 -0.00036593 0.00091225 -0.001188
-0.0018376 0.0020835 0.0015941 0.0010996 0.0018849 1.1771e-05 -0.1157 0.25773
-0.010691 0.031891 0.0039395 -0.0069593
0.00063055 0.0021612 0.00706 -0.00021683 0.0012256 -0.00037894 -0.010617 0.031908
-0.1456 0.14481 -0.0024709 0.027848
0.0030241 -0.0014187 0.0039912 -0.0030386 0.0009045 -0.0012225 0.0039323 -0.0070454
-0.0025004 0.027881 -0.20505 0.19747
980000000 -0.051266 0.28968 0.017547 0.02986 -0.0091915 0.0046856 0.0021814 0.0033241
0.0039975 -0.001515 -0.0033153 -0.0021722
0.017494 0.029836 -0.20937 0.34294 0.033194 0.0048286 0.0019885 -0.00015193
0.0014541 -0.0058249 -0.00047454 -0.0023379
-0.0091644 0.004702 0.033237 0.0047497 0.11216 0.30984 0.0005281 -0.0012604
0.0002634 -0.0020903 0.0012613 -0.0001705
0.0021703 0.0033104 0.0019861 -0.00013088 0.00052993 -0.0012627 -0.076812 0.26893
0.0084256 0.030662 -0.009058 -0.0076288
0.003911 -0.0015226 0.0013707 -0.0058446 0.00028336 -0.0021141 0.0084787 0.030646
-0.11407 0.17415 0.0048586 0.020046
-0.0032998 -0.0021366 -0.00050731 -0.0023394 0.0013017 -0.0001958 -0.0090753 -0.0075601
0.0048161 0.019957 -0.16291 0.24365
1040000000 -0.0096869 0.29778 0.033297 0.017984 -0.0013165 0.0069209 0.0022018 0.00068814
2.4186e-05 -0.003593 -7.8577e-05 -0.0012927
0.033205 0.017975 -0.17387 0.35614 0.029527 -0.015049 0.00149 -0.0018527
-0.0023661 -0.0027879 -0.0015301 -0.0026523
-0.0013008 0.0069131 0.0295 -0.015157 0.15836 0.2962 -0.00054004 -0.0015974
-0.0016531 -0.00093567 -0.00050754 -0.0011176
0.0022315 0.00068978 0.0014658 -0.0019157 -0.00053893 -0.0016133 -0.049806 0.27929
0.020235 0.018753 -0.0023104 0.0009676
2.8869e-05 -0.0035553 -0.0023719 -0.0027741 -0.0016289 -0.00092465 0.020294 0.018709
-0.082029 0.18112 0.013698 0.019363
-0.00016805 -0.001237 -0.001602 -0.0026416 -0.00055079 -0.001104 -0.002263 0.00097065
0.01362 0.019348 -0.14271 0.26434
1100000000 0.036092 0.3061 0.035922 -0.0043627 0.0028288 0.0038787 0.0024624 -0.001197
-0.0019603 -0.0032588 -0.0040681 -0.00012859
0.035886 -0.0043426 -0.13052 0.37348 0.015082 -0.028089 3.9561e-05 -0.001773
-0.0034653 -0.00087558 -0.0037028 -0.00054774
0.0028485 0.0038708 0.014991 -0.028141 0.20496 0.27586 -0.0019342 0.00021732
-0.0017952 0.0005066 -0.0011629 -0.00027864
0.0024502 -0.0012315 2.1494e-05 -0.0018172 -0.0019265 0.00021343 -0.0092729 0.28433
0.026007 0.0050306 -0.0027418 -0.00016834
-0.0020026 -0.0032574 -0.003488 -0.00088466 -0.0017999 0.00049351 0.026018 0.0049892
-0.063894 0.19449 0.01941 0.0089115
-0.0040863 -0.00011104 -0.0037376 -0.00055313 -0.0011566 -0.00029334 -0.0027725 -0.00017308
0.019468 0.008883 -0.096152 0.29595
1160000000 0.08698 0.30075 0.023839 -0.020968 0.0026287 -0.00048193 -0.00029185 -0.0022712
-0.0041912 -0.00090751 -0.00094428 0.0041054
0.023836 -0.020943 -0.08682 0.378 -0.0039665 -0.029313 -0.001731 -0.0016188
-0.0028348 0.0025712 -0.0014115 0.00183
0.0026381 -0.00049573 -0.00409 -0.029331 0.24812 0.2448 -0.00071277 0.001822
-0.00064889 0.0020689 -0.00094539 0.0002884
-0.00030752 -0.0022593 -0.0017283 -0.0016039 -0.00070367 0.001826 0.030156 0.28161
0.02221 -0.011423 -0.0031405 0.0049422
-0.0042329 -0.00087613 -0.0028334 0.0026016 -0.00059653 0.0020837 0.022208 -0.011468
-0.030613 0.20388 0.018906 0.00078056
-0.00092979 0.0041193 -0.0013845 0.0018546 -0.00090787 0.00030879 -0.003123 0.0049514
0.018873 0.00077254 -0.04956 0.2992
1220000000 0.13157 0.29003 0.010197 -0.030224 -0.001586 -0.00080031 5.0046e-05 -0.00078213
-0.0027538 0.0023968 0.0012717 0.0020451
0.010212 -0.030184 -0.042249 0.39004 -0.017177 -0.021173 -0.0024879 0.00043968
-9.4863e-05 0.0032094 -0.00078533 0.0019291
-0.0015866 -0.00079379 -0.017279 -0.021108 0.28724 0.20541 0.00078144 0.001638
0.00066332 0.0012386 0.00036314 0.00074693
6.5801e-05 -0.00079068 -0.0024929 0.0004229 0.00078183 0.0016373 0.070119 0.27327
0.010951 -0.018333 0.0016641 0.0015463
-0.0027573 0.0024191 -9.9121e-05 0.0032045 0.00066623 0.0012323 0.010925 -0.018357
-0.0086913 0.21302 0.014761 -0.013185
0.001323 0.0020692 -0.0007876 0.0019269 0.00034201 0.00072347 0.0016382 0.0015413
0.014801 -0.013146 -0.018754 0.3174
1280000000 0.18136 0.26799 -0.0083184 -0.0285 -0.0018927 0.0026262 -0.00082581 -0.0019847
-0.00089602 0.0029643 0.0025699 0.0012897
-0.008291 -0.028462 0.0038691 0.3811 -0.023956 -0.0083333 -0.00096676 0.0014298
0.0017279 0.0018845 0.00073579 0.0020906
-0.0018782 0.0026402 -0.024029 -0.0082432 0.31729 0.16131 0.0016327 6.3832e-06
0.001173 0.00030446 0.0004637 0.00033624
-0.0008429 -0.0019927 -0.000956 0.0014371 0.0016298 8.7418e-06 0.10726 0.25663
0.00097873 -0.02062 -0.00041943 4.0453e-05
-0.0008822 0.0029669 0.0017356 0.0018736 0.0011717 0.00030163 0.00093851 -0.020625
0.027645 0.21687 0.0033322 -0.015461
0.002551 0.0012448 0.00076825 0.0020965 0.00048692 0.0003271 -0.00040187 1.6842e-05
0.0033387 -0.015507 0.029338 0.32021
1340000000 0.21852 0.23402 -0.017977 -0.018741 0.0010467 0.0045336 -0.0017081 -0.00084222
0.0014304 0.0028779 0.0019188 -0.0014897
-0.017937 -0.01872 0.043365 0.37257 -0.021665 0.0044677 -7.0946e-05 0.0020481
0.001969 0.00080514 0.0013945 0.00066766
0.0010644 0.0045332 -0.02168 0.0045775 0.33892 0.11339 0.0012308 -0.0009447
0.0007899 -0.00049566 0.00025613 0.00032252
-0.0017174 -0.00083231 -4.2591e-05 0.0020296 0.0012368 -0.000958 0.13943 0.23613
-0.0092855 -0.017488 0.00058987 0.00072859
0.0014439 0.0028705 0.0019573 0.0007838 0.00078493 -0.0004933 -0.009326 -0.017486
0.056696 0.21249 -0.0034882 -0.013896
0.0019113 -0.0014824 0.0013913 0.00063656 0.0002784 0.00031946 0.0005841 0.00074658
-0.0035161 -0.013878 0.067893 0.31684
1400000000 0.25146 0.19568 -0.023564 -0.0070349 0.0051923 0.0030778 -0.0020855 0.00060559
0.0024156 0.00094809 0.00028706 -0.0013522
-0.023546 -0.0070266 0.080728 0.3592 -0.014762 0.012602 0.0013089 0.0012763
0.0011679 -0.00084452 0.0012192 0.00021818
0.0052293 0.0030637 -0.014715 0.012694 0.35189 0.060205 4.8839e-05 -0.0017587
-2.96e-05 -0.00045509 0.00040347 0.00035108
-0.0020965 0.00062143 0.0013053 0.0012912 2.5986e-05 -0.0017455 0.16883 0.20726
-0.01549 -0.010372 -0.00085101 -0.00018897
0.0024358 0.00094955 0.0011585 -0.00085263 -3.6816e-05 -0.00045435 -0.015517 -0.010349
0.08977 0.20841 -0.010408 -0.0092939
0.00026473 -0.0013777 0.0012078 0.00021577 0.00039457 0.00033963 -0.00084595 -0.00015386
-0.010357 -0.009325 0.11365 0.30643
1460000000 0.2739 0.15142 -0.020347 0.0052021 0.0057094 -0.0019361 -0.0016515 0.0016808
0.0021339 -0.00045209 -0.00031856 -0.00098013
-0.020351 0.0051815 0.11462 0.33714 -0.0059459 0.01546 0.0018064 0.00017828
0.00093338 -0.0013934 0.001152 -0.00068131
0.0057026 -0.00196 -0.0058509 0.015524 0.35782 0.0061901 -0.0013965 -0.001284
0.00013358 -0.00022337 0.00063637 -0.00044086
-0.0016487 0.0017009 0.001821 0.0001721 -0.0013938 -0.0012887 0.19469 0.17812
-0.016814 -0.0029836 -0.00093002 0.0022998
0.0021706 -0.00047254 0.00094517 -0.0014006 0.0001391 -0.00022905 -0.016831 -0.0029396
0.11832 0.19424 -0.012392 -0.0028742
-0.00034823 -0.00097702 0.0011458 -0.00071957 0.00064747 -0.00043857 -0.00088904 0.0022894
-0.012393 -0.0029217 0.14715 0.28619
1520000000 0.28575 0.10956 -0.014446 0.010635 0.0033713 -0.0042293 0.00015276 0.0026842
0.002227 -0.0017497 -0.0012001 -0.00016836
-0.014442 0.010619 0.14789 0.32236 0.001768 0.013099 0.0016691 -0.00081958
-2.2936e-05 -0.0010359 0.00039182 -0.00099751
0.0033508 -0.0042473 0.0018523 0.0131 0.35124 -0.049774 -0.0012326 -0.00029391
0.00057644 -0.00084792 0.00011407 -0.00018243
0.00016782 0.0026848 0.0016646 -0.00082444 -0.001232 -0.00029708 0.21749 0.14058
-0.015959 0.0032934 0.0016199 0.0022633
0.0022146 -0.0017658 -4.869e-06 -0.0010393 0.00056048 -0.00085937 -0.015964 0.0033381
0.14548 0.18054 -0.012166 0.0017659
-0.0011928 -0.00016259 0.00038474 -0.0010053 0.0001165 -0.00018977 0.0016191 0.0022571
-0.012176 0.0017927 0.18089 0.26671
1580000000 0.2947 0.063493 -0.007664 0.013559 -0.00099661 -0.0049735 0.0014902 0.0019771
-0.00018642 -0.0021517 -0.00031177 0.00045961
-0.0076687 0.013551 0.17485 0.29754 0.0052757 0.0081938 0.00048966 -0.0016235
-0.0005796 -0.0010421 -0.00028733 -0.00081963
-0.0010186 -0.004968 0.0053353 0.0081803 0.33116 -0.10712 -0.0016373 0.0007278
-0.0003827 -0.0011994 0.00015196 -0.00059618
0.0015035 0.0019742 0.00048467 -0.0016383 -0.0016235 0.0007339 0.23104 0.10202
-0.01197 0.0085399 0.0025505 0.00087453
-0.0002097 -0.0021493 -0.00058883 -0.0010468 -0.00038069 -0.0012137 -0.011943 0.0085859
0.16964 0.16323 -0.0097294 0.0079027
-0.00031569 0.00047077 -0.00025769 -0.00082948 0.00015022 -0.00059117 0.0025606 0.00089108
-0.0097161 0.0078421 0.21438 0.24033
1640000000 0.29638 0.022485 -0.00092202 0.012206 -0.0027851 -0.0026406 0.0028362 0.00098855
-0.00058956 -0.0016233 -0.00024677 0.0005455
-0.00093775 0.012195 0.20414 0.2728 0.0059766 0.0034206 -0.00072385 -0.0017715
-0.0010555 -0.00037152 -0.00042844 -0.00069638
-0.0027936 -0.0026195 0.0059898 0.0033755 0.30326 -0.15636 -0.00054255 0.0015626
-0.0011691 -0.0010901 -0.00010552 -0.00050888
0.0028421 0.00097481 -0.00074679 -0.001763 -0.00054322 0.0015703 0.24334 0.054191
-0.0072058 0.0097547 0.0027302 -0.00090882
-0.00060308 -0.0016311 -0.0010602 -0.00034944 -0.0011878 -0.001104 -0.0071932 0.00978
0.19149 0.13934 -0.004591 0.0099175
-0.00023363 0.00054405 -0.00044308 -0.00068988 -0.00010181 -0.00048573 0.002758 -0.00091736
-0.0045939 0.0099381 0.23997 0.20954
1700000000 0.28897 -0.022487 0.0023575 0.0091805 -0.0035355 0.00011419 0.0030549 -0.0013562
-0.0021589 -0.00080712 0.00069447 0.00046209
0.0023527 0.0091702 0.22215 0.24144 0.0038755 0.00057148 -0.0015033 -0.00052499
-0.00069515 7.636e-05 -0.00090591 -0.00046481
-0.0035409 0.00011407 0.0038873 0.00054944 0.25966 -0.19619 0.00057674 0.0016553
-0.0019848 -0.00017991 -0.00048861 -0.00085124
0.0030487 -0.0013794 -0.0014903 -0.00052103 0.00058186 0.0016618 0.2407 0.0054849
-0.0041878 0.010162 0.0016435 -0.002381
-0.002173 -0.00078878 -0.00070803 7.978e-05 -0.0019693 -0.00017999 -0.0041613 0.01018
0.20845 0.11968 0.000359 0.010131
0.0006818 0.00044725 -0.00089857 -0.00046209 -0.00049383 -0.00085313 0.0015991 -0.0024103
0.00037392 0.010138 0.25731 0.17505
1760000000 0.27672 -0.070688 0.0044096 0.0057807 -0.0023639 0.00097669 0.0012321 -0.0034839
-0.0014255 0.00071945 0.00033855 -0.00073826
0.0044042 0.0057804 0.248 0.20178 0.0016435 -0.00119 -0.001209 0.00022224
-0.00093142 0.00086911 -0.00056873 0.00043654
-0.0023645 0.00099044 0.0016287 -0.0012192 0.211 -0.22929 0.001338 0.0010324
-0.0011172 0.0016039 -0.0013549 -0.00056129
0.0012118 -0.0034829 -0.0012086 0.00023823 0.0013444 0.0010334 0.23257 -0.044894
-0.0007245 0.009202 -0.00014897 -0.0027545
-0.0014202 0.00073516 -0.00093893 0.00088384 -0.0011274 0.0016168 -0.00070371 0.0092128
0.22283 0.085384 0.0044417 0.0075013
0.00035279 -0.0007493 -0.00058778 0.00043939 -0.0013199 -0.00056402 -0.00012429 -0.0027308
0.0044254 0.0074753 0.27049 0.13751
1820000000 0.25243 -0.1076 0.0043853 0.0023458 -5.8328e-05 0.0025347 -0.0011414 -0.0030551
-0.0011588 0.00098272 -6.5757e-05 -8.6673e-05
0.0043825 0.0023477 0.2581 0.17191 -0.00037276 -0.0001545 -0.0013749 0.0010013
-2.7157e-05 0.0012344 -0.00051937 0.0004872
-4.8382e-05 0.0025314 -0.00037245 -0.0001502 0.16104 -0.24541 0.0014695 0.00026259
-0.00014568 0.0024133 -0.0014684 0.00034992
-0.0011571 -0.0030595 -0.0013605 0.0010266 0.001466 0.00027987 0.20438 -0.091616
0.00096005 0.0075091 -0.0017868 -0.0017983
-0.0011493 0.00098167 -1.4028e-05 0.0012478 -0.00013173 0.0023994 0.00096711 0.0075007
0.23972 0.057325 0.0054452 0.0035812
-6.5925e-05 -0.00010471 -0.0005134 0.0005058 -0.0014988 0.00031594 -0.001756 -0.0018788
0.0054317 0.0035731 0.27335 0.10161
1880000000 0.21747 -0.14796 0.0021641 0.00013187 -0.00035248 0.0020966 -0.0029763 -0.0021786
-0.00018053 0.0017755 0.00021492 -0.00049593
0.0021669 0.0001401 0.2626 0.1254 -0.0023772 0.0015858 -0.00013216 0.0016858
0.00051856 0.0011014 6.3262e-05 0.0009174
-0.00034338 0.0020934 -0.0023857 0.0015834 0.10859 -0.25538 0.001666 -0.00092657
0.0016058 0.0019067 -0.00094772 0.0013472
-0.0029934 -0.0021528 -0.00012193 0.001692 0.001661 -0.00090985 0.16522 -0.13265
0.001902 0.0052475 -0.0025119 0.00028575
-0.00014244 0.0017758 0.00052837 0.0011021 0.0016102 0.0019135 0.001913 0.0052565
0.24278 0.025617 0.0055909 0.0011639
0.00019864 -0.00047178 6.6221e-05 0.00092176 -0.00094729 0.0013615 -0.0025723 0.00032573
0.0056049 0.0011653 0.27345 0.067343
1940000000 0.1783 -0.17377 -7.8821e-05 -0.0013593 0.0014201 0.0020954 -0.0036628 0.00060926
0.0014349 0.00099158 -0.00066487 -0.00040201
-7.5485e-05 -0.001372 0.26322 0.093699 -0.0012766 0.0038859 0.0010611 0.0012753
0.0017211 0.00045342 0.00078118 0.00034167
0.0014359 0.0020908 -0.0012464 0.0038955 0.062222 -0.24854 0.00040755 -0.0020516
0.0024267 0.00035163 0.00033741 0.0016774
-0.0036501 0.00063274 0.0010591 0.0012817 0.00039784 -0.0020253 0.11393 -0.16393
0.0012693 0.0038771 -0.0016655 0.0014659
0.0014148 0.00098616 0.0017229 0.00044083 0.0024038 0.0003466 0.001282 0.0038728
0.24512 -0.01232 0.0042745 -0.0024446
-0.00065155 -0.00040698 0.00078834 0.00033368 0.00031774 0.0016447 -0.0015925 0.0014688
0.0042653 -0.0024505 0.26252 0.031473
2000000000 0.13206 -0.18865 -0.0038637 0.0006534 0.0025155 0.0016667 -0.0024028 0.003469
0.0010259 2.1935e-05 -0.00071372 0.0003813
-0.0038511 0.00066447 0.24919 0.058176 -0.0010689 0.00578 0.0015737 0.00034378
0.0012106 -0.0012238 0.00047095 0.00017468
0.0025382 0.0016331 -0.0010383 0.0057847 0.018705 -0.23372 -0.0012762 -0.0012487
0.0019261 -0.0011639 0.0016153 0.0013218
-0.002386 0.0034883 0.0015703 0.0003353 -0.0012567 -0.0012346 0.060546 -0.17542
-0.00034803 0.003248 -0.00021864 0.0022091
0.0010321 2.0868e-05 0.0012124 -0.0012386 0.0019108 -0.001153 -0.00034225 0.0032485
0.23978 -0.045882 0.00066974 -0.0035128
