!Keysight Technologies,M9804A,MY58100912,A.14.10.03
!Date: Thursday, April 27, 2023 10:28:33
!Correction: S11(C  6-Port  ) 
!S12(C  6-Port  ) 
!S13(C  6-Port  ) 
!S14(C  6-Port  ) 
!S15(C  6-Port  ) 
!S16(C  6-Port  ) 
!S21(C  6-Port  ) 
!S22(C  6-Port  ) 
!S23(C  6-Port  ) 
!S24(C  6-Port  ) 
!S25(C  6-Port  ) 
!S26(C  6-Port  ) 
!S31(C  6-Port  ) 
!S32(C  6-Port  ) 
!S33(C  6-Port  ) 
!S34(C  6-Port  ) 
!S35(C  6-Port  ) 
!S36(C  6-Port  ) 
!S41(C  6-Port  ) 
!S42(C  6-Port  ) 
!S43(C  6-Port  ) 
!S44(C  6-Port  ) 
!S45(C  6-Port  ) 
!S46(C  6-Port  ) 
!S51(C  6-Port  ) 
!S52(C  6-Port  ) 
!S53(C  6-Port  ) 
!S54(C  6-Port  ) 
!S55(C  6-Port  ) 
!S56(C  6-Port  ) 
!S61(C  6-Port  ) 
!S62(C  6-Port  ) 
!S63(C  6-Port  ) 
!S64(C  6-Port  ) 
!S65(C  6-Port  ) 
!S66(C  6-Port  ) 
!S6P File: Measurement: :
# Hz S  RI   R 50
500000000 -0.33667 -0.039996 -0.0096541 -0.0026284 -0.0078449 0.012406 -0.0042544 0.012076
0.01295 0.0043413 -0.0048014 0.0088112
-0.0096435 -0.0026798 -0.41899 -0.052753 0.0079622 -0.011221 0.0010972 0.012101
0.0076335 0.0024597 0.00079964 0.013031
-0.0078402 0.012426 0.0079292 -0.011333 -0.26548 0.20861 0.0074997 0.0036233
-0.0016895 0.0078133 0.0013503 0.012015
-0.0042265 0.012104 0.0011341 0.012079 0.0074906 0.003629 -0.33228 0.04275
-0.019142 -0.0064725 0.015071 0.027246
0.012937 0.004347 0.0076103 0.0024373 -0.0016884 0.0078146 -0.01916 -0.006412
-0.22104 -0.20084 -0.025571 0.0053186
-0.0047927 0.0088703 0.00082883 0.013072 0.0013335 0.012018 0.014981 0.027212
-0.025573 0.005302 -0.26663 -0.13554
560000000 -0.31507 0.1222 -0.023674 -0.063945 0.00035507 0.012282 0.0057461 0.010825
0.010965 0.0053799 0.011518 0.0078689
-0.023649 -0.063904 -0.37861 0.10769 -0.041133 -0.038258 0.014437 0.0041476
-0.012561 -0.0053051 0.0033474 -0.00031339
0.00039479 0.012302 -0.041381 -0.038156 -0.18304 0.25732 -0.00099744 -0.0040733
0.0193 0.0059265 0.0068567 -0.0066231
0.0057627 0.010879 0.014473 0.0040139 -0.0009939 -0.0040196 -0.30681 0.13175
0.0039332 -0.024093 0.0045786 -0.021174
0.010958 0.0054153 -0.01248 -0.0050916 0.019339 0.005842 0.0038632 -0.024077
-0.28908 -0.024823 0.0089941 -0.048757
0.011531 0.0078303 0.0032515 -0.00029187 0.006867 -0.0065977 0.00462 -0.021155
0.0089985 -0.048775 -0.32836 0.013181
620000000 -0.27506 0.10655 -0.023127 0.0079181 0.0033424 0.0088369 0.00822 -0.0054298
0.01095 -0.00013515 0.0016576 -0.0026799
-0.023153 0.0079029 -0.40257 0.05918 -0.01862 0.00010944 -0.0013201 -0.0019247
0.011331 -0.0064994 0.0013744 -0.0030321
0.0033567 0.0088619 -0.018697 0.00015941 -0.15387 0.26611 -0.00094664 -0.0050534
-0.0032112 -0.0027223 0.008577 -0.0030982
0.0082349 -0.0054098 -0.0013109 -0.0019299 -0.00091301 -0.0050946 -0.26642 0.14358
-0.038765 -0.020073 0.012696 0.026838
0.010942 -5.8709e-05 0.011245 -0.0064568 -0.003316 -0.0027254 -0.038721 -0.020084
-0.20696 -0.063166 -0.04207 0.0141
0.0017068 -0.0026955 0.001319 -0.0029979 0.0086003 -0.0030848 0.012724 0.026842
-0.042037 0.01408 -0.24796 -0.024655
680000000 -0.23518 0.1921 -0.027335 -0.014272 0.0049641 0.0050865 0.0014703 -0.0071491
-0.0029658 -0.011375 0.0052732 -0.0067929
-0.027304 -0.014266 -0.38785 0.15706 -0.032846 -0.0014678 -0.0015409 -0.00060876
-0.0021753 -0.0088743 -0.001075 -0.0015172
0.0049615 0.0050716 -0.032888 -0.0013655 -0.10261 0.28611 -0.00067927 -0.00028723
-0.0016832 0.00068108 -0.0028905 -0.009092
0.001451 -0.007152 -0.0015031 -0.00055785 -0.00067301 -0.00028479 -0.22173 0.194
-0.024295 -0.007534 -0.0097737 -0.011318
-0.0029544 -0.011396 -0.0021409 -0.0089067 -0.001638 0.00067886 -0.024282 -0.0074915
-0.25913 0.036432 -0.0054315 -0.0088592
0.0052229 -0.0067957 -0.0010863 -0.0015624 -0.0029079 -0.0090895 -0.0097868 -0.011279
-0.0054046 -0.0088662 -0.26067 0.082932
740000000 -0.19065 0.18672 -0.038904 0.02654 0.012774 -0.0050901 -0.00020277 -0.0043363
-0.0040761 -0.0030123 -0.0063512 0.002303
-0.038845 0.02649 -0.33466 0.17605 -0.035549 0.035264 -0.00055934 -0.0062204
-0.011803 0.008169 -0.0020298 -0.0063865
0.012784 -0.0051126 -0.035487 0.035451 -0.068921 0.2845 -0.002094 0.0032789
-0.002276 -0.004889 -0.001605 -1.909e-05
-0.00015503 -0.0043475 -0.00056901 -0.0062374 -0.0020759 0.0032758 -0.20492 0.20205
-0.043616 -0.0070831 0.022938 0.015677
-0.0039596 -0.002941 -0.01188 0.0082236 -0.0022794 -0.0048678 -0.043659 -0.0070677
-0.15939 0.063304 -0.043359 0.00011766
-0.0064123 0.0023244 -0.0020664 -0.0064425 -0.0016412 7.5157e-05 0.022967 0.015678
-0.043333 8.7937e-05 -0.25025 0.089306
800000000 -0.15756 0.22719 -0.022399 0.016636 0.0053995 -0.010648 -0.0045539 -0.0020819
-0.0040595 0.0020414 0.0047705 0.00042048
-0.022399 0.01663 -0.33829 0.24621 -0.0078184 0.033961 -0.00232 0.0021821
-0.00063716 0.0029312 0.001218 0.0052221
0.0053715 -0.010685 -0.0077375 0.034006 -0.02817 0.30776 0.0010097 0.0014969
0.00017809 0.003505 -0.0016497 0.00094709
-0.0045652 -0.0020713 -0.0023212 0.0021912 0.00099513 0.0014959 -0.17618 0.23011
-0.028757 0.014383 0.013971 -0.010312
-0.0040232 0.0020619 -0.00060619 0.0029276 0.0001754 0.0034931 -0.028761 0.014459
-0.20686 0.08716 -0.017744 0.019441
0.0047993 0.00041596 0.0012548 0.0052273 -0.0016576 0.00091464 0.013952 -0.010317
-0.017745 0.019434 -0.24557 0.13838
860000000 -0.12313 0.24742 -0.017479 0.030538 -0.003324 -0.010017 -0.002329 0.00087955
0.003996 0.0048335 -0.0032051 -0.0028966
-0.017479 0.030534 -0.29082 0.28796 0.0079315 0.034057 -4.9609e-05 0.0019334
0.004228 0.00014785 0.0034534 0.00067232
-0.0033462 -0.010011 0.0080328 0.03407 0.019894 0.31575 -0.00058059 -0.00027326
0.0026897 -0.0014783 0.001371 0.0044946
-0.0023292 0.00087154 -1.658e-05 0.0019036 -0.00058359 -0.0002754 -0.13942 0.24085
-0.01813 0.0193 -0.0060946 -0.0092879
0.0040169 0.0047951 0.0042315 7.6493e-05 0.0026626 -0.0014875 -0.018094 0.019329
-0.15502 0.13942 -0.026789 0.015386
-0.0032204 -0.0028958 0.0034294 0.0007062 0.0013731 0.0045055 -0.006108 -0.009276
-0.026782 0.015381 -0.19394 0.18531
920000000 -0.098799 0.27045 0.0050793 0.037971 -0.0095739 -0.0043522 -0.0018697 0.0018506
0.00085948 0.0018954 0.0025404 -0.0015373
0.0050297 0.037931 -0.26193 0.30961 0.028091 0.021872 0.0014127 0.0011473
0.0069575 -0.00054788 0.0039575 -0.0026492
-0.0095846 -0.0043233 0.028169 0.021799 0.066162 0.31636 0.0018681 -3.8105e-05
0.001201 -0.00036799 0.00095294 -0.00099353
-0.0018693 0.0018696 0.0013557 0.0011321 0.0018654 -4.5129e-05 -0.11556 0.25813
-0.010859 0.031358 0.003936 -0.0066866
0.00087199 0.0018874 0.0069375 -0.000605 0.0012102 -0.00038459 -0.010796 0.031387
-0.14523 0.14507 -0.0030453 0.027767
0.0025698 -0.00153 0.0039928 -0.0025876 0.00095996 -0.00098272 0.0039129 -0.0066925
-0.0030609 0.027755 -0.20356 0.19948
980000000 -0.051145 0.29001 0.017548 0.030009 -0.009013 0.0046883 0.002068 0.0034235
0.0038921 -0.0013232 -0.0032493 -0.0020747
0.017493 0.029999 -0.209 0.34341 0.033012 0.0048126 0.0020934 -6.332e-05
0.0014812 -0.0057905 -0.00019581 -0.002438
-0.0089964 0.0047204 0.033046 0.0046839 0.11243 0.3097 0.00051089 -0.0011434
0.00025966 -0.0020596 0.0014775 -0.00016118
0.0020669 0.0034094 0.0020821 -6.8697e-05 0.00050743 -0.0011475 -0.076982 0.26941
0.0082538 0.030826 -0.0091395 -0.0073843
0.0039041 -0.0013265 0.0014595 -0.0057556 0.00025318 -0.0020616 0.0083272 0.030829
-0.11411 0.17473 0.0046819 0.019964
-0.0032294 -0.0020542 -0.0002026 -0.0024348 0.0014789 -0.00015923 -0.0091373 -0.0073948
0.0046716 0.019956 -0.16138 0.24515
1040000000 -0.0090682 0.29836 0.03312 0.018092 -0.0011984 0.0069549 0.002529 0.00061405
0.00010126 -0.0036485 -0.00032108 -0.0013242
0.033072 0.018118 -0.17334 0.35649 0.029304 -0.014852 0.0014589 -0.0017356
-0.0024647 -0.0025345 -0.0012925 -0.0025532
-0.0011646 0.00696 0.029265 -0.014967 0.15837 0.29593 -0.00049946 -0.0015606
-0.0015652 -0.00085894 -0.00044073 -0.0011455
0.002516 0.00059455 0.0014902 -0.0017172 -0.00049279 -0.0015505 -0.049472 0.27966
0.020202 0.01858 -0.0021958 0.0014177
8.6505e-05 -0.0036657 -0.0024902 -0.0025125 -0.0015477 -0.00086575 0.020272 0.018532
-0.081036 0.18223 0.013521 0.018906
-0.00028442 -0.0013353 -0.0013062 -0.0025623 -0.00041346 -0.0011351 -0.0021849 0.0014221
0.013523 0.018897 -0.1404 0.26574
1100000000 0.036295 0.30609 0.035709 -0.0042442 0.0029424 0.0038304 0.002251 -0.0013547
-0.0019347 -0.0031688 -0.0039291 -0.00010196
0.035661 -0.0042222 -0.12995 0.37359 0.015032 -0.027747 -7.2299e-05 -0.001854
-0.0032408 -0.00085752 -0.0034865 -0.00060989
0.0029487 0.0038198 0.01493 -0.027839 0.20469 0.27558 -0.0018426 0.00022857
-0.0018346 0.00052381 -0.0010273 -0.00040358
0.002244 -0.0013562 -9.0568e-05 -0.0018482 -0.0018468 0.00022321 -0.008912 0.28451
0.02557 0.0051145 -0.0025498 -0.00010081
-0.0019557 -0.0031467 -0.0032481 -0.00083444 -0.0018575 0.00051012 0.025606 0.0050685
-0.063453 0.19555 0.019311 0.008833
-0.0039027 -4.5062e-05 -0.0034883 -0.00056591 -0.0010472 -0.00040254 -0.00255 -0.00010268
0.019302 0.0088405 -0.094813 0.2968
1160000000 0.087711 0.30101 0.023908 -0.02069 0.0027363 -0.00058663 -0.00034728 -0.0023026
-0.0040821 -0.00082622 -0.000895 0.0039963
0.023907 -0.02065 -0.086249 0.37771 -0.003689 -0.029004 -0.0017675 -0.0016881
-0.0027094 0.0024071 -0.0012682 0.0019193
0.0027326 -0.00059278 -0.0038402 -0.029011 0.2476 0.24479 -0.0006824 0.0017635
-0.00066295 0.0019294 -0.00099449 0.00027475
-0.00034294 -0.0023067 -0.0017586 -0.0016797 -0.00068482 0.0017575 0.030529 0.28169
0.021877 -0.010787 -0.0030621 0.005052
-0.0040779 -0.00078801 -0.0026999 0.0024281 -0.00067878 0.0019085 0.021884 -0.010816
-0.030097 0.20469 0.018424 0.0007768
-0.0008695 0.0040199 -0.0012529 0.0019001 -0.0009918 0.00027771 -0.0030509 0.0050655
0.018438 0.00077317 -0.047703 0.29976
1220000000 0.13202 0.28974 0.010349 -0.02992 -0.0015944 -0.00088208 9.3599e-06 -0.00089741
-0.0026179 0.002345 0.0013145 0.0019416
0.010355 -0.029884 -0.041965 0.38958 -0.016795 -0.020995 -0.0024971 0.00040283
2.7296e-06 0.0029141 -0.00078419 0.0018486
-0.0015995 -0.00087531 -0.01692 -0.020934 0.28673 0.20585 0.00081915 0.0016048
0.00060621 0.0011961 0.00030997 0.00064043
1.1906e-05 -0.00089897 -0.002485 0.00042857 0.00081307 0.0015944 0.070406 0.27306
0.010982 -0.017743 0.0019841 0.0013577
-0.0025771 0.0023438 1.8295e-05 0.0029216 0.00060984 0.0011878 0.010981 -0.017771
-0.0077456 0.21359 0.01454 -0.012738
0.0013232 0.0019393 -0.00075164 0.0018496 0.00031443 0.0006459 0.0019837 0.0013559
0.014528 -0.012735 -0.017011 0.31737
1280000000 0.18161 0.26772 -0.0078711 -0.028306 -0.0018465 0.0024301 -0.00088652 -0.0019569
-0.00082956 0.0029882 0.0023937 0.0011724
-0.0078514 -0.028275 0.0037982 0.38047 -0.023586 -0.0084468 -0.00094116 0.0014186
0.0015961 0.001818 0.00061576 0.0020644
-0.0018428 0.002439 -0.02365 -0.0083488 0.3172 0.16202 0.0015834 -1.022e-06
0.0011587 0.00036644 0.00042424 0.00035506
-0.00090334 -0.0019433 -0.00094661 0.0014211 0.00158 1.1194e-05 0.1072 0.25646
0.0013752 -0.019976 -0.00039221 -2.5133e-05
-0.00081317 0.0029909 0.0016125 0.0018102 0.0011479 0.00035638 0.0013329 -0.019981
0.028795 0.21713 0.003453 -0.014918
0.0024123 0.0011503 0.00062984 0.0020823 0.00042419 0.0003535 -0.00039539 -2.8761e-05
0.0034645 -0.014915 0.031385 0.31998
1340000000 0.21858 0.23377 -0.017486 -0.018877 0.00086973 0.0044376 -0.0016557 -0.00083876
0.0014123 0.0026756 0.0017869 -0.0013719
-0.017447 -0.018869 0.043087 0.37222 -0.021467 0.0041511 -0.00016993 0.001979
0.0019203 0.00085499 0.0012901 0.00078466
0.00088033 0.0044349 -0.02146 0.00427 0.33933 0.11425 0.0011616 -0.00085262
0.00081128 -0.0004947 0.00018995 0.00033945
-0.0016605 -0.00082962 -0.00016461 0.0019765 0.0011645 -0.00085785 0.13946 0.2359
-0.0084106 -0.017264 0.00070982 0.00058381
0.0014397 0.0026753 0.0019363 0.00085323 0.00080421 -0.00049749 -0.0084592 -0.017263
0.05828 0.21246 -0.0031909 -0.013652
0.0017903 -0.001367 0.0013065 0.00078794 0.00017853 0.00034646 0.00071378 0.00057776
-0.0031811 -0.01366 0.069471 0.31655
1400000000 0.25139 0.19556 -0.023218 -0.0074663 0.0050215 0.00303 -0.0020495 0.00057408
0.0023197 0.00091396 0.00031523 -0.0013346
-0.023182 -0.0074804 0.080202 0.35921 -0.014768 0.012217 0.0012787 0.001344
0.0012066 -0.00072883 0.0012378 0.00025121
0.0050339 0.003011 -0.014735 0.012313 0.35253 0.06072 0.00019078 -0.0016994
-1.1506e-05 -0.00045591 0.00044829 0.00017519
-0.0020481 0.0005815 0.0012939 0.0013435 0.00020025 -0.0017098 0.16866 0.20719
-0.014667 -0.010591 -0.00089452 -0.0002936
0.0023164 0.0009123 0.0011995 -0.00073959 -1.4342e-05 -0.00043956 -0.014699 -0.010561
0.090663 0.20811 -0.0098676 -0.0091526
0.00030426 -0.001337 0.0012257 0.00024117 0.00044295 0.00017261 -0.00090214 -0.00029977
-0.0098775 -0.0091497 0.11521 0.30623
1460000000 0.27392 0.15146 -0.020247 0.0045879 0.0054713 -0.0018374 -0.0016021 0.0016871
0.0020779 -0.00045476 -0.00029913 -0.0010025
-0.020234 0.0045744 0.11424 0.3375 -0.0062113 0.01513 0.0017289 0.0002255
0.00094053 -0.0012839 0.0011539 -0.00061945
0.0054675 -0.0018594 -0.0061384 0.015183 0.35871 0.0062152 -0.0012734 -0.0012993
0.00010489 -0.00033108 0.0006433 -0.00031685
-0.0015959 0.0016839 0.0017428 0.00021909 -0.0012662 -0.0012974 0.19455 0.17824
-0.016216 -0.0037396 -0.0010134 0.0022184
0.0020744 -0.00046667 0.00093998 -0.0012905 9.802e-05 -0.00031726 -0.016243 -0.0036991
0.11903 0.19363 -0.011788 -0.0030969
-0.00031367 -0.00098063 0.0011586 -0.00062695 0.00064555 -0.00031736 -0.0010142 0.0022222
-0.011792 -0.0030937 0.14868 0.28563
1520000000 0.28582 0.10974 -0.014685 0.010122 0.0032841 -0.0041041 5.6982e-05 0.0026439
0.0021619 -0.0016332 -0.0011113 -0.00016038
-0.014674 0.010107 0.14777 0.32285 0.0013743 0.01302 0.0016698 -0.00073935
5.5741e-05 -0.0010859 0.00032918 -0.00099735
0.003258 -0.0041245 0.0014372 0.013022 0.35185 -0.050013 -0.0012185 -0.000387
0.00057321 -0.00079721 6.8706e-05 -9.2468e-05
6.7053e-05 0.0026362 0.0016799 -0.00075925 -0.001202 -0.00038986 0.21749 0.14084
-0.015916 0.0023204 0.0014785 0.0022321
0.0021601 -0.0016372 4.9557e-05 -0.0010886 0.00055984 -0.00079435 -0.015923 0.0023592
0.14612 0.17985 -0.011925 0.0013298
-0.001121 -0.00014876 0.00032405 -0.0010112 7.6455e-05 -8.185e-05 0.0014825 0.002226
-0.011927 0.0013227 0.18265 0.26604
1580000000 0.29488 0.063708 -0.008161 0.013219 -0.00090141 -0.0047712 0.0014033 0.001946
-0.00015281 -0.0020771 -0.00039594 0.0004363
-0.0081622 0.013197 0.17508 0.29817 0.0049683 0.0083032 0.00053338 -0.0015986
-0.00062258 -0.0010804 -0.00025787 -0.0007633
-0.00091804 -0.0047664 0.0050228 0.0082883 0.33137 -0.10766 -0.0016394 0.00070209
-0.00023136 -0.0010728 0.00012678 -0.00046813
0.0014207 0.0019454 0.00052614 -0.0016054 -0.0016345 0.00070474 0.23133 0.10221
-0.012473 0.0076751 0.0023995 0.00094843
-0.00014674 -0.0020768 -0.00063409 -0.0010742 -0.00024148 -0.0010765 -0.012462 0.0077064
0.16984 0.16248 -0.0095488 0.0073
-0.00039299 0.00044367 -0.00026356 -0.00075825 0.00012437 -0.00046846 0.002398 0.00094465
-0.0095481 0.0072991 0.21562 0.23917
1640000000 0.29687 0.022574 -0.0015054 0.012255 -0.0026038 -0.0025101 0.002773 0.0009955
-0.00052615 -0.0016478 -0.00026141 0.00059439
-0.0015195 0.012253 0.20462 0.27321 0.0058379 0.0036514 -0.00065209 -0.0017841
-0.0010649 -0.0003732 -0.00043594 -0.00072888
-0.0026147 -0.002502 0.0058637 0.003616 0.30305 -0.15663 -0.00063334 0.0014987
-0.0010698 -0.0010718 -3.0854e-05 -0.00046977
0.0027706 0.00098424 -0.00066358 -0.0017757 -0.00062242 0.0015086 0.24379 0.05423
-0.0081493 0.0094382 0.0026341 -0.00075136
-0.00054879 -0.0016476 -0.0010726 -0.00037184 -0.0010617 -0.0010809 -0.0081279 0.0094611
0.19163 0.13874 -0.0049297 0.0093189
-0.00025291 0.00059862 -0.00044419 -0.00071904 -3.4416e-05 -0.00046385 0.0026234 -0.00075744
-0.0049237 0.0093064 0.24124 0.20841
1700000000 0.28961 -0.022636 0.0018742 0.0095276 -0.0034491 0.00010914 0.0030748 -0.0012725
-0.0020499 -0.00090365 0.00062238 0.00045203
0.0018633 0.009518 0.22277 0.24158 0.0038815 0.00075437 -0.0015085 -0.00059134
-0.00079544 0.00012564 -0.00088705 -0.00045407
-0.0034396 0.00012237 0.0038876 0.00073783 0.25972 -0.1965 0.00054251 0.0016806
-0.0019425 -0.00020509 -0.00046956 -0.00088715
0.0030724 -0.0012794 -0.0015187 -0.00059174 0.00052942 0.0016765 0.24127 0.0053325
-0.0050647 0.010447 0.0016293 -0.002323
-0.0020538 -0.00088842 -0.00080481 0.00013268 -0.001961 -0.00022247 -0.0050382 0.010469
0.20835 0.11933 -0.00013392 0.0097329
0.00062831 0.00045043 -0.000906 -0.0004434 -0.00046958 -0.00088471 0.0016175 -0.0023288
-0.0001386 0.0097317 0.25807 0.17383
1760000000 0.27732 -0.071214 0.004282 0.0063328 -0.0022743 0.00096134 0.0012646 -0.0034749
-0.0014816 0.00059929 0.00034992 -0.00066306
0.0042668 0.0063284 0.24869 0.20163 0.0016805 -0.0010522 -0.0012158 0.00018819
-0.0009143 0.00093699 -0.00059807 0.00034291
-0.0022682 0.00097592 0.0016719 -0.0010655 0.21072 -0.22963 0.0013091 0.0009867
-0.0011645 0.0015209 -0.001278 -0.00050956
0.0012575 -0.0034816 -0.0012257 0.00018396 0.0013024 0.00098171 0.23297 -0.045434
-0.0012563 0.0098872 -0.00013415 -0.0026041
-0.0014664 0.00061817 -0.00090844 0.00094603 -0.0011374 0.001529 -0.0012346 0.0098855
0.22265 0.085303 0.0039543 0.0073002
0.00035162 -0.00067812 -0.00059933 0.00035431 -0.0012839 -0.00051651 -0.0001475 -0.0026116
0.0039605 0.0073027 0.27091 0.13625
1820000000 0.25256 -0.10838 0.0045259 0.0027695 3.8325e-05 0.0023537 -0.0010269 -0.0030256
-0.001265 0.0010294 -0.00010759 -8.1115e-05
0.0045106 0.0027725 0.25862 0.17146 -0.00019733 -1.065e-05 -0.0013028 0.00097846
3.6791e-05 0.0012581 -0.00055308 0.00048949
5.1292e-05 0.0023606 -0.00020375 -4.7804e-06 0.16082 -0.24541 0.0014392 0.00029911
-0.00021846 0.0023138 -0.0013363 0.00033901
-0.0010435 -0.0030112 -0.0013049 0.00098649 0.0014544 0.00029334 0.2043 -0.092477
0.00083503 0.0082442 -0.0016243 -0.0016128
-0.0012628 0.0010382 5.6838e-05 0.0012607 -0.00021941 0.0023217 0.00085188 0.0082397
0.2397 0.057373 0.0049459 0.0037988
-0.00010638 -9.546e-05 -0.00054534 0.00048984 -0.0013085 0.00033536 -0.001628 -0.0016148
0.0049359 0.0037968 0.27368 0.1004
1880000000 0.21741 -0.14866 0.002453 0.00044593 -0.00037035 0.0020182 -0.0029908 -0.0021309
-0.00019533 0.0018505 0.00028648 -0.00047594
0.0024421 0.00045746 0.26289 0.12484 -0.0022018 0.0016726 -0.00014788 0.001668
0.00060495 0.0010834 4.1963e-05 0.00090399
-0.00036417 0.0020334 -0.0022083 0.0016928 0.10849 -0.25497 0.0017144 -0.00094003
0.0015094 0.0019358 -0.0010674 0.0012824
-0.003005 -0.0021036 -0.00015056 0.0016619 0.0017186 -0.00094185 0.16488 -0.13318
0.0020998 0.0059245 -0.0024426 0.00035478
-0.00017094 0.0018432 0.00061167 0.0010855 0.0015219 0.0019439 0.0021145 0.0059174
0.243 0.025858 0.0051992 0.0014829
0.00027838 -0.00047763 5.4305e-05 0.00090235 -0.0010611 0.0012801 -0.0024489 0.00033788
0.0052024 0.0014752 0.27339 0.066156
1940000000 0.178 -0.17444 0.00025093 -0.0012618 0.0012481 0.0019229 -0.0037425 0.00054152
0.0013918 0.001115 -0.00053252 -0.00046515
0.00024598 -0.0012592 0.26321 0.093029 -0.0010823 0.0037808 0.00102 0.0013119
0.0017174 0.00040334 0.00078716 0.00034924
0.0012522 0.0018992 -0.0010482 0.0037747 0.062463 -0.24836 0.00043515 -0.0020089
0.0024035 0.00047733 4.0711e-05 0.0015333
-0.0037444 0.00056114 0.0010184 0.0012924 0.00045359 -0.0020152 0.11329 -0.16454
0.0016232 0.0041207 -0.0014314 0.0014367
0.0014191 0.0010908 0.0017264 0.00037767 0.002408 0.0004774 0.0016355 0.0041313
0.24568 -0.01235 0.0041132 -0.0020888
-0.00053551 -0.00047478 0.00079532 0.00034117 4.6368e-05 0.0015442 -0.0014465 0.0014528
0.0041021 -0.0021034 0.26265 0.030375
2000000000 0.13154 -0.18897 -0.0035469 0.00060058 0.0025213 0.0016422 -0.002333 0.003479
0.0012105 7.7444e-05 -0.00072565 0.00033656
-0.0035396 0.00060042 0.24891 0.057626 -0.00096588 0.0056837 0.001541 0.00039198
0.001189 -0.0012956 0.00056382 0.00025196
0.0025374 0.0016463 -0.00093628 0.0057034 0.018706 -0.23352 -0.0012474 -0.0012752
0.0020161 -0.001131 0.0016291 0.0013645
-0.0023067 0.0035095 0.0015505 0.0003811 -0.0012335 -0.0012653 0.059657 -0.17552
-9.4367e-05 0.0032781 -0.00011796 0.002098
0.0011807 8.8336e-05 0.0011702 -0.0013173 0.0020194 -0.0011293 -9.2259e-05 0.0032702
0.24039 -0.046256 0.00080242 -0.002921
