!Keysight Technologies,M9804A,MY58100912,A.14.10.03
!Date: Thursday, April 27, 2023 10:28:33
!Correction: S11(C  6-Port  ) 
!S12(C  6-Port  ) 
!S13(C  6-Port  ) 
!S14(C  6-Port  ) 
!S15(C  6-Port  ) 
!S16(C  6-Port  ) 
!S21(C  6-Port  ) 
!S22(C  6-Port  ) 
!S23(C  6-Port  ) 
!S24(C  6-Port  ) 
!S25(C  6-Port  ) 
!S26(C  6-Port  ) 
!S31(C  6-Port  ) 
!S32(C  6-Port  ) 
!S33(C  6-Port  ) 
!S34(C  6-Port  ) 
!S35(C  6-Port  ) 
!S36(C  6-Port  ) 
!S41(C  6-Port  ) 
!S42(C  6-Port  ) 
!S43(C  6-Port  ) 
!S44(C  6-Port  ) 
!S45(C  6-Port  ) 
!S46(C  6-Port  ) 
!S51(C  6-Port  ) 
!S52(C  6-Port  ) 
!S53(C  6-Port  ) 
!S54(C  6-Port  ) 
!S55(C  6-Port  ) 
!S56(C  6-Port  ) 
!S61(C  6-Port  ) 
!S62(C  6-Port  ) 
!S63(C  6-Port  ) 
!S64(C  6-Port  ) 
!S65(C  6-Port  ) 
!S66(C  6-Port  ) 
!S6P File: Measurement: :
# Hz S  RI   R 50
500000000 -0.33672 -0.0399 -0.0096205 -0.0026542 -0.0078665 0.012416 -0.0042415 0.01203
0.012987 0.0042913 -0.00475 0.0088483
-0.0096052 -0.0026477 -0.41898 -0.052669 0.0079409 -0.011259 0.0010942 0.012137
0.007625 0.0025677 0.00075995 0.01299
-0.0078383 0.012429 0.0079327 -0.01129 -0.26548 0.2086 0.0074967 0.0036321
-0.0017474 0.0078716 0.0012042 0.012
-0.0042376 0.012054 0.0011279 0.012145 0.0074954 0.0035945 -0.33222 0.042795
-0.019089 -0.0064243 0.015151 0.027302
0.012973 0.0043087 0.0076347 0.0025579 -0.0017559 0.0078755 -0.019094 -0.0064081
-0.22087 -0.20077 -0.025429 0.0054056
-0.0047826 0.008788 0.00078668 0.013187 0.0013616 0.012004 0.015064 0.027319
-0.025469 0.005445 -0.2665 -0.13548
560000000 -0.31516 0.12229 -0.023771 -0.063967 0.00033454 0.012286 0.0057463 0.01091
0.010995 0.0052591 0.011457 0.0079638
-0.023697 -0.063898 -0.37867 0.10777 -0.041187 -0.038291 0.01437 0.0039275
-0.012493 -0.0052911 0.0033273 -0.00024505
0.00037204 0.012286 -0.041346 -0.038217 -0.18304 0.25733 -0.0008818 -0.0040261
0.01937 0.0059172 0.0068711 -0.0066684
0.0057582 0.010918 0.0144 0.0039008 -0.00089327 -0.004016 -0.30687 0.13198
0.0039736 -0.024001 0.0044881 -0.021438
0.010993 0.0052557 -0.012524 -0.0052342 0.019393 0.0058652 0.0039679 -0.023994
-0.28913 -0.024886 0.0090348 -0.048674
0.011561 0.0079222 0.0032212 -0.00027185 0.0068556 -0.006568 0.0045283 -0.021301
0.0090643 -0.048685 -0.32815 0.013175
620000000 -0.27504 0.10653 -0.023217 0.0079381 0.0034173 0.0088158 0.0082784 -0.0054782
0.010885 -0.00010285 0.0017499 -0.002635
-0.023177 0.0079292 -0.40257 0.059208 -0.018614 7.9192e-05 -0.001331 -0.0019336
0.011332 -0.0064399 0.0014534 -0.0030942
0.003482 0.0087922 -0.018639 0.00012907 -0.15394 0.26609 -0.001011 -0.0050625
-0.0031548 -0.0027415 0.0084859 -0.0031575
0.0082566 -0.0055012 -0.0013277 -0.0019344 -0.00099875 -0.0050559 -0.26652 0.14359
-0.038663 -0.02012 0.012452 0.026844
0.010963 -0.00012814 0.011308 -0.0064587 -0.0032035 -0.0027877 -0.038653 -0.020111
-0.20711 -0.063075 -0.04187 0.013974
0.001744 -0.0025424 0.0013921 -0.0030637 0.0087206 -0.0031814 0.012701 0.026843
-0.042057 0.014093 -0.24794 -0.025025
680000000 -0.23516 0.19216 -0.027343 -0.014229 0.0049769 0.0050849 0.0014739 -0.0071502
-0.0029976 -0.011373 0.0053376 -0.0068502
-0.027319 -0.014227 -0.38783 0.15714 -0.032832 -0.0014525 -0.0015156 -0.00059709
-0.0021644 -0.0089023 -0.0010999 -0.0015227
0.0049785 0.0050772 -0.032874 -0.0013685 -0.1026 0.28613 -0.00067106 -0.00028826
-0.0016352 0.00065685 -0.0029576 -0.0090963
0.0014363 -0.0071418 -0.0015093 -0.00057475 -0.00067036 -0.00028311 -0.2217 0.19397
-0.024254 -0.007563 -0.0098253 -0.011258
-0.0030358 -0.011375 -0.0021833 -0.0089157 -0.0016244 0.00064427 -0.024271 -0.0075314
-0.25912 0.036534 -0.0052944 -0.0088066
0.005308 -0.0068183 -0.0010786 -0.0015282 -0.002889 -0.009095 -0.0098094 -0.011313
-0.0054392 -0.0088433 -0.2605 0.082837
740000000 -0.19055 0.18684 -0.038855 0.02652 0.012796 -0.005092 -0.0001547 -0.0043679
-0.0040535 -0.0030405 -0.0062298 0.0023058
-0.038847 0.026496 -0.33469 0.17611 -0.035551 0.035304 -0.00058042 -0.0062233
-0.011797 0.0081696 -0.0020604 -0.0064004
0.012784 -0.0051352 -0.035499 0.035443 -0.06892 0.28449 -0.0020707 0.0032508
-0.002288 -0.004856 -0.0015492 -4.2098e-06
-0.00019449 -0.0043695 -0.00058287 -0.0062354 -0.0020758 0.0032485 -0.20495 0.20213
-0.043595 -0.0071106 0.022945 0.015623
-0.003994 -0.0030522 -0.011825 0.008233 -0.0022728 -0.0048486 -0.043628 -0.0070645
-0.15933 0.063365 -0.043447 0.00023519
-0.0063905 0.0023454 -0.0020448 -0.0064222 -0.0016481 0.00010968 0.022953 0.015629
-0.043369 0.00024646 -0.25013 0.089195
800000000 -0.15747 0.22719 -0.022381 0.016698 0.0054052 -0.010669 -0.0045599 -0.0020785
-0.0040643 0.0020654 0.0048267 0.000376
-0.022368 0.016681 -0.33826 0.24628 -0.0078339 0.033963 -0.0023292 0.0022001
-0.00064883 0.0029424 0.0012599 0.0052216
0.0053625 -0.010692 -0.0077469 0.03401 -0.02816 0.30774 0.0009938 0.0015102
0.00018565 0.0034827 -0.0016531 0.00094483
-0.0045761 -0.0020566 -0.0023158 0.0022105 0.00099584 0.0015068 -0.17613 0.23013
-0.028773 0.014386 0.013983 -0.01033
-0.0040128 0.0021125 -0.00062884 0.0029419 0.00020053 0.0034824 -0.028782 0.014461
-0.20681 0.087264 -0.0177 0.019472
0.0047768 0.00042989 0.0012207 0.0052551 -0.0016556 0.0009349 0.013932 -0.0103
-0.017782 0.019445 -0.24557 0.13831
860000000 -0.12311 0.24745 -0.017444 0.030583 -0.0033024 -0.010038 -0.0023522 0.00088571
0.0040208 0.0048166 -0.0032002 -0.0028305
-0.01746 0.030544 -0.29079 0.288 0.007934 0.034057 -2.4134e-05 0.0019242
0.0042738 0.0001533 0.0033581 0.00064947
-0.0033392 -0.010031 0.0080568 0.034068 0.019922 0.31575 -0.00058661 -0.00026654
0.0026894 -0.0014746 0.001388 0.0044704
-0.0023604 0.00088377 -1.6119e-05 0.0019228 -0.00058541 -0.00026393 -0.13943 0.24083
-0.018118 0.019292 -0.0060363 -0.0091848
0.0040544 0.0048184 0.0042667 0.00010883 0.0026753 -0.0014777 -0.018097 0.019329
-0.15512 0.13942 -0.02659 0.015397
-0.0032243 -0.0028958 0.0034064 0.0006732 0.0013907 0.0045005 -0.006099 -0.0092501
-0.026673 0.015423 -0.19406 0.18523
920000000 -0.098754 0.27042 0.0050969 0.03795 -0.0095526 -0.0043531 -0.0018764 0.0018682
0.00085268 0.0018996 0.0025555 -0.0016006
0.0050651 0.037916 -0.26185 0.30959 0.028085 0.02185 0.0013528 0.001122
0.0069638 -0.00051637 0.0040285 -0.0026998
-0.0095689 -0.0043228 0.02819 0.021788 0.066189 0.31635 0.0018447 -6.1977e-05
0.0011937 -0.00037245 0.00099869 -0.001017
-0.0018891 0.0018683 0.0013575 0.0011201 0.0018403 -6.9166e-05 -0.11559 0.25813
-0.010864 0.031364 0.0040098 -0.0066525
0.00088542 0.0019144 0.0069545 -0.00058392 0.0011993 -0.00037653 -0.01082 0.031405
-0.1452 0.14503 -0.0031142 0.027707
0.0025927 -0.0015774 0.0039703 -0.0026194 0.00097426 -0.00097428 0.0039506 -0.0066234
-0.0031001 0.027717 -0.20383 0.19954
980000000 -0.051148 0.29 0.01755 0.030006 -0.0090237 0.0046897 0.0020704 0.0034241
0.0039305 -0.0013417 -0.0032243 -0.0020964
0.01752 0.029965 -0.209 0.34339 0.032984 0.0047786 0.0020988 -6.4868e-05
0.0014676 -0.0057509 -0.00013318 -0.0024469
-0.0090067 0.0047156 0.033045 0.0046832 0.11246 0.30969 0.00051529 -0.0011416
0.00024582 -0.0020437 0.0014961 -0.00014552
0.0020766 0.0034109 0.0020989 -5.2313e-05 0.00051393 -0.0011393 -0.076992 0.2694
0.0082554 0.03083 -0.009067 -0.0074112
0.0039395 -0.0013514 0.0014663 -0.005776 0.00023564 -0.0020447 0.00833 0.030833
-0.11409 0.17469 0.0046938 0.019898
-0.0032153 -0.002093 -0.00020482 -0.0024483 0.0014643 -0.00016687 -0.0091206 -0.0073724
0.0046533 0.019938 -0.16142 0.24507
1040000000 -0.0090726 0.29838 0.033135 0.018047 -0.0011818 0.0069644 0.0025141 0.00061337
0.000117 -0.003673 -0.0003138 -0.0013048
0.033065 0.018052 -0.17337 0.35648 0.02927 -0.014856 0.0014779 -0.0017258
-0.002507 -0.0024833 -0.0013162 -0.0026088
-0.0011614 0.0069555 0.029265 -0.014977 0.15838 0.29593 -0.00049663 -0.0015462
-0.0015573 -0.00086986 -0.00044528 -0.001178
0.0025041 0.00060634 0.001496 -0.0017194 -0.00049907 -0.001544 -0.049505 0.27972
0.020185 0.018565 -0.0022157 0.0013681
0.000112 -0.0036616 -0.0025046 -0.0025006 -0.0015575 -0.00086448 0.020239 0.018523
-0.080985 0.18223 0.013588 0.018917
-0.00028515 -0.001373 -0.0013156 -0.0025594 -0.00041485 -0.0011561 -0.0021935 0.001385
0.013549 0.01888 -0.14037 0.26584
1100000000 0.036288 0.30613 0.035704 -0.0042715 0.0029252 0.0038361 0.0022489 -0.001343
-0.0019295 -0.0031699 -0.0039606 -8.6633e-05
0.035665 -0.0042544 -0.12998 0.37363 0.015 -0.027752 -6.9325e-05 -0.0018539
-0.003268 -0.00084547 -0.0034555 -0.00061412
0.0029385 0.0038334 0.014905 -0.027838 0.20472 0.27556 -0.0018452 0.00021711
-0.0018621 0.00050901 -0.0010428 -0.00036504
0.0022514 -0.0013507 -7.9945e-05 -0.0018386 -0.0018556 0.00021243 -0.008903 0.28452
0.025568 0.0051172 -0.0025347 -0.00012232
-0.0019368 -0.0031556 -0.0032591 -0.00083515 -0.0018556 0.00051656 0.02559 0.0050731
-0.063438 0.19554 0.019363 0.008814
-0.003901 -7.1433e-05 -0.0034938 -0.0005588 -0.001064 -0.00039369 -0.0025614 -9.4824e-05
0.019313 0.0088386 -0.09481 0.29675
1160000000 0.087747 0.30109 0.023907 -0.020755 0.0027215 -0.00056916 -0.00034331 -0.002305
-0.0040531 -0.00080283 -0.00095121 0.0040139
0.023878 -0.020735 -0.08625 0.37776 -0.0037194 -0.028998 -0.0017583 -0.0016865
-0.0027302 0.0024313 -0.0012783 0.0019245
0.0027146 -0.00058327 -0.0038404 -0.029001 0.24763 0.2448 -0.00068251 0.0017573
-0.00065782 0.0019139 -0.001003 0.00026975
-0.00034184 -0.0023114 -0.001758 -0.0016755 -0.00068753 0.0017557 0.03054 0.28169
0.021879 -0.010794 -0.0030684 0.0050333
-0.004057 -0.00078306 -0.0026986 0.0024209 -0.00066676 0.0019103 0.021881 -0.010823
-0.030085 0.2047 0.018438 0.00078736
-0.00088173 0.0040036 -0.0012616 0.0019236 -0.0009765 0.00026609 -0.0030652 0.0050425
0.018426 0.00077851 -0.047582 0.29973
1220000000 0.1321 0.28979 0.010307 -0.029978 -0.0015908 -0.00087345 8.8515e-06 -0.00087956
-0.0026195 0.0023518 0.0013006 0.0019428
0.010307 -0.029946 -0.041949 0.38965 -0.016804 -0.020988 -0.0025038 0.00040788
-3.5403e-05 0.0029259 -0.00073805 0.0018403
-0.0016019 -0.00087313 -0.016911 -0.020925 0.28675 0.20585 0.00080559 0.0016104
0.00061539 0.0011848 0.00032419 0.00064634
1.3311e-05 -0.00088625 -0.0025013 0.00042777 0.00080869 0.001606 0.070417 0.27307
0.010991 -0.017751 0.0019714 0.0013512
-0.0025931 0.0023671 -1.4482e-06 0.0029318 0.00061882 0.0011907 0.010976 -0.017773
-0.0077128 0.21362 0.014517 -0.012728
0.0013176 0.0019348 -0.00075023 0.0018368 0.00031337 0.00065385 0.0019826 0.0013564
0.014536 -0.012764 -0.017009 0.31736
1280000000 0.18172 0.26772 -0.007947 -0.028342 -0.0018618 0.0024376 -0.00088397 -0.0019561
-0.00082573 0.0029751 0.0024021 0.0011738
-0.0079224 -0.028312 0.003864 0.38053 -0.023573 -0.0084493 -0.00093933 0.0014139
0.0015937 0.0018269 0.0006108 0.0020922
-0.0018452 0.0024565 -0.023643 -0.0083511 0.31723 0.162 0.001571 8.4108e-06
0.001148 0.00036819 0.00042774 0.00035622
-0.00089006 -0.0019558 -0.00094338 0.0014255 0.0015738 4.4138e-06 0.10724 0.25645
0.001378 -0.019976 -0.00039738 -3.1697e-05
-0.00081973 0.0029831 0.001606 0.0018207 0.0011484 0.00035666 0.0013312 -0.019992
0.0288 0.21713 0.0034932 -0.014915
0.0024186 0.0011543 0.00062427 0.0020777 0.00042087 0.00034913 -0.00039081 -2.3935e-05
0.0034677 -0.014899 0.03144 0.31999
1340000000 0.21872 0.2337 -0.017559 -0.018848 0.00088005 0.0044352 -0.0016571 -0.00086204
0.0014175 0.0026795 0.0017872 -0.0013534
-0.017529 -0.018849 0.043186 0.37224 -0.021461 0.0041598 -0.00017738 0.0019759
0.0019161 0.00084901 0.0012749 0.00078115
0.00090088 0.0044401 -0.021461 0.0042709 0.33934 0.11422 0.001157 -0.00085126
0.00081566 -0.00050385 0.00020052 0.0003319
-0.0016652 -0.00084169 -0.00017 0.001978 0.0011585 -0.00084627 0.13946 0.23591
-0.0084115 -0.017264 0.00071394 0.00058685
0.001437 0.0026874 0.001935 0.00084695 0.00081584 -0.00051291 -0.008448 -0.017264
0.058282 0.21247 -0.0031805 -0.013655
0.0017888 -0.0013679 0.0012926 0.00078484 0.00018016 0.00034233 0.00070967 0.00058273
-0.003188 -0.013651 0.069587 0.31656
1400000000 0.25147 0.19544 -0.023268 -0.0074044 0.0050359 0.0030419 -0.002048 0.00056631
0.0023271 0.00092495 0.00031485 -0.00133
-0.023241 -0.0074154 0.080291 0.3592 -0.014773 0.012226 0.0012821 0.0013502
0.0012141 -0.00073465 0.0012252 0.00026217
0.0050456 0.0030171 -0.014734 0.012307 0.35257 0.060711 0.00018838 -0.0016996
-1.3384e-05 -0.0004411 0.00045612 0.00018643
-0.0020552 0.00056949 0.0012949 0.0013442 0.00019829 -0.0017026 0.16868 0.20718
-0.014668 -0.010582 -0.00089418 -0.00029672
0.0023247 0.00091273 0.0012048 -0.00074872 -5.1774e-06 -0.00043059 -0.014699 -0.010556
0.090691 0.20812 -0.0098818 -0.0091407
0.00030948 -0.0013297 0.001232 0.00023932 0.00044273 0.00017095 -0.00089836 -0.00029306
-0.009862 -0.0091413 0.11526 0.30625
1460000000 0.27391 0.15131 -0.020261 0.0046854 0.00549 -0.0018369 -0.0016015 0.001689
0.0020924 -0.00045331 -0.00031355 -0.00099201
-0.020245 0.0046602 0.11432 0.33747 -0.0062194 0.015128 0.0017348 0.00022317
0.00094635 -0.0012884 0.0011434 -0.00061505
0.005481 -0.0018758 -0.0061401 0.015178 0.35871 0.0062018 -0.0012704 -0.0012976
0.0001202 -0.00031654 0.00065238 -0.00031665
-0.0015914 0.0016923 0.0017372 0.00021807 -0.001268 -0.0013043 0.19457 0.17822
-0.016219 -0.0037531 -0.001032 0.0022099
0.0020853 -0.00046171 0.00093508 -0.0012962 0.00012394 -0.00031712 -0.016243 -0.0037246
0.11902 0.19364 -0.0118 -0.0031131
-0.00031621 -0.00099304 0.0011606 -0.0006223 0.00064853 -0.00031641 -0.0010211 0.0022057
-0.011779 -0.0031094 0.1487 0.28562
1520000000 0.28576 0.10961 -0.014654 0.010199 0.0032773 -0.0041101 5.0134e-05 0.002657
0.0021588 -0.0016425 -0.0011206 -0.0001672
-0.014653 0.010182 0.14782 0.32282 0.0013687 0.013013 0.0016709 -0.00074995
5.1973e-05 -0.0010899 0.00032567 -0.00099344
0.0032561 -0.0041273 0.0014465 0.013019 0.35186 -0.05004 -0.0012079 -0.0003843
0.00056684 -0.00079788 8.643e-05 -0.00011149
6.6657e-05 0.0026509 0.0016812 -0.0007592 -0.0012083 -0.00037622 0.21751 0.14085
-0.015927 0.0023186 0.0014756 0.0022338
0.0021493 -0.0016528 4.5225e-05 -0.0010929 0.00057417 -0.00079117 -0.015918 0.0023626
0.14614 0.17985 -0.011916 0.0013115
-0.001128 -0.0001397 0.00032186 -0.0010161 7.3553e-05 -8.902e-05 0.0014812 0.0022278
-0.01191 0.0013058 0.18267 0.26607
1580000000 0.29478 0.063631 -0.0080824 0.013272 -0.00089708 -0.004778 0.0014053 0.001961
-0.00014733 -0.0020726 -0.00039713 0.00044008
-0.0080915 0.013249 0.17509 0.29812 0.0049748 0.0082959 0.00053078 -0.0016029
-0.00061941 -0.0010682 -0.00026308 -0.00075565
-0.00091862 -0.004769 0.0050242 0.0082791 0.33136 -0.10769 -0.0016285 0.00069881
-0.00021686 -0.0010739 9.8579e-05 -0.00045443
0.0014255 0.0019495 0.00051693 -0.0016133 -0.0016414 0.00069142 0.23134 0.1022
-0.012477 0.0076733 0.0023958 0.00095309
-0.00016853 -0.0020793 -0.00063556 -0.0010695 -0.00023322 -0.0010913 -0.012468 0.0077144
0.16983 0.16246 -0.0095268 0.0073019
-0.00038555 0.00045365 -0.00025995 -0.00075591 0.00012304 -0.00045476 0.0024017 0.00094117
-0.0095413 0.0072889 0.21563 0.23918
1640000000 0.29675 0.022572 -0.0014168 0.012264 -0.002617 -0.0025166 0.0027742 0.00098319
-0.00053885 -0.0016474 -0.00026056 0.00059151
-0.0014197 0.012249 0.20462 0.27318 0.0058478 0.00365 -0.00065902 -0.0017809
-0.001061 -0.00036801 -0.0004434 -0.00072184
-0.0026381 -0.002498 0.0058732 0.0036202 0.30308 -0.15665 -0.00063037 0.0015072
-0.0010694 -0.0010749 -4.4257e-05 -0.00048316
0.002781 0.00097001 -0.00066871 -0.0017847 -0.00063132 0.0015044 0.24379 0.054217
-0.0081545 0.0094429 0.0026231 -0.00076251
-0.00055498 -0.001632 -0.0010699 -0.00036369 -0.0010696 -0.0010769 -0.0081366 0.0094647
0.19163 0.13875 -0.0049115 0.0093116
-0.00025191 0.00060124 -0.00044869 -0.00072003 -1.8663e-05 -0.00046996 0.0026293 -0.00076669
-0.0049347 0.0093035 0.24122 0.20841
1700000000 0.2895 -0.022563 0.0019458 0.0094811 -0.0034564 9.9068e-05 0.0030798 -0.0012786
-0.0020437 -0.00089604 0.00063061 0.00045457
0.0019287 0.0094711 0.2228 0.2416 0.0038817 0.00074976 -0.0015093 -0.00058734
-0.00079674 0.00012323 -0.00089708 -0.00044974
-0.0034649 0.00011916 0.003887 0.0007304 0.25966 -0.19653 0.00054006 0.0016784
-0.001945 -0.00022637 -0.00045975 -0.00089339
0.0030716 -0.0012867 -0.0015196 -0.00058016 0.00052954 0.001673 0.24127 0.0053274
-0.0050695 0.010455 0.0016255 -0.0023104
-0.0020499 -0.00089026 -0.00079871 0.00013431 -0.0019624 -0.00023442 -0.0050387 0.01047
0.20836 0.11931 -0.00014128 0.0097151
0.00063757 0.00044103 -0.00090737 -0.00043888 -0.00048391 -0.00087539 0.0016307 -0.0023153
-0.00014036 0.0097249 0.25804 0.17386
1760000000 0.2773 -0.071073 0.0043125 0.0062635 -0.0022778 0.00096403 0.0012693 -0.0034745
-0.0014695 0.00060055 0.00036365 -0.00066971
0.0042994 0.0062572 0.24871 0.20164 0.0016842 -0.00106 -0.0012129 0.00020062
-0.00091808 0.00093425 -0.00059976 0.00034621
-0.002266 0.00097855 0.0016799 -0.0010751 0.21071 -0.22964 0.0013125 0.00097547
-0.0011492 0.0015272 -0.0012721 -0.0005323
0.001251 -0.003493 -0.0012148 0.00019737 0.001313 0.0009786 0.23296 -0.045444
-0.0012533 0.0098848 -0.00013922 -0.0026079
-0.0014672 0.000617 -0.00090503 0.00093606 -0.0011446 0.0015263 -0.0012346 0.0098846
0.22264 0.085295 0.0039666 0.0072983
0.00034513 -0.00068082 -0.00059712 0.00035598 -0.0012847 -0.00051507 -0.00014127 -0.002604
0.0039531 0.0073002 0.27091 0.13625
1820000000 0.25261 -0.10829 0.0045206 0.0026999 4.8056e-05 0.0023794 -0.0010413 -0.0030138
-0.0012595 0.0010279 -0.00011296 -8.7277e-05
0.0045204 0.0026996 0.25868 0.17149 -0.00020472 -5.6828e-06 -0.0012944 0.00097023
4.0353e-05 0.0012606 -0.00054567 0.00048328
6.1235e-05 0.0023652 -0.00020936 -8.7142e-06 0.16083 -0.24543 0.0014418 0.000284
-0.00021993 0.0023032 -0.0013125 0.00034983
-0.0010508 -0.0030095 -0.0012971 0.00098428 0.0014465 0.0002814 0.20431 -0.092493
0.00084067 0.0082352 -0.0016348 -0.0016147
-0.0012469 0.0010363 5.6274e-05 0.0012602 -0.00021844 0.0023234 0.00086091 0.0082422
0.23972 0.057368 0.0049372 0.0038065
-0.00011035 -9.437e-05 -0.00053875 0.00049245 -0.0013247 0.0003545 -0.001628 -0.001616
0.0049331 0.0037877 0.27363 0.10039
1880000000 0.21751 -0.14859 0.0024179 0.00039368 -0.00037819 0.0020353 -0.0029872 -0.0021241
-0.00019483 0.001852 0.00027419 -0.00048885
0.0024088 0.00039197 0.26298 0.12481 -0.0022222 0.0016721 -0.00014364 0.0016599
0.00059819 0.0010874 5.1156e-05 0.00090661
-0.00035275 0.0020405 -0.0022126 0.001689 0.10846 -0.25498 0.0017039 -0.00094604
0.0015122 0.0019433 -0.0010508 0.0012861
-0.0029993 -0.0020969 -0.00013847 0.0016609 0.001709 -0.00094093 0.16487 -0.13317
0.0020909 0.0059271 -0.0024411 0.00033352
-0.00018097 0.001844 0.00060574 0.0010803 0.0015235 0.0019349 0.0021138 0.0059191
0.24301 0.025832 0.0051952 0.001494
0.0002775 -0.00048216 5.7715e-05 0.00090235 -0.0010481 0.0012691 -0.0024486 0.00035114
0.0052036 0.001483 0.27337 0.066124
1940000000 0.17811 -0.17445 0.00020077 -0.0012876 0.0012574 0.0019136 -0.0037343 0.00054686
0.0013849 0.0011224 -0.00056656 -0.00048577
0.00019992 -0.0012884 0.26327 0.092973 -0.001085 0.0037822 0.0010068 0.0012997
0.001712 0.0003922 0.00077984 0.00033739
0.0012708 0.0019124 -0.0010547 0.0037895 0.06242 -0.24842 0.00045562 -0.0020428
0.0024105 0.00047002 4.1305e-05 0.0015593
-0.0037257 0.00057503 0.0010196 0.0012922 0.00045412 -0.0020286 0.11328 -0.16454
0.0016201 0.0041367 -0.001448 0.0014347
0.0014067 0.001095 0.0017202 0.00038769 0.0024206 0.00047541 0.0016387 0.0041347
0.24566 -0.01234 0.0040958 -0.0020887
-0.00054125 -0.00046852 0.00079051 0.00034231 6.9238e-05 0.0015603 -0.0014285 0.0014476
0.0040941 -0.0020969 0.26261 0.030388
2000000000 0.13159 -0.189 -0.0036117 0.00059049 0.0025186 0.001673 -0.0023349 0.0034853
0.0012005 6.8864e-05 -0.00072096 0.00031506
-0.003612 0.00058999 0.24896 0.057522 -0.00096661 0.0056806 0.0015356 0.00038167
0.0012045 -0.001287 0.00055653 0.00026033
0.0025387 0.0016598 -0.00093417 0.0056987 0.0187 -0.23363 -0.0012199 -0.0012741
0.0020132 -0.0011176 0.0016669 0.0013522
-0.0023028 0.0034986 0.0015396 0.00038294 -0.0012331 -0.0012805 0.059686 -0.17554
-0.00010069 0.0032808 -0.00010562 0.0021258
0.0011957 7.7306e-05 0.0011776 -0.001313 0.0020222 -0.0011286 -8.9171e-05 0.0032846
0.24041 -0.046281 0.00077909 -0.0029226
