!Keysight Technologies,M9804A,MY58100912,A.14.10.03
!Date: Thursday, April 27, 2023 10:28:33
!Correction: S11(C  6-Port  ) 
!S12(C  6-Port  ) 
!S13(C  6-Port  ) 
!S14(C  6-Port  ) 
!S15(C  6-Port  ) 
!S16(C  6-Port  ) 
!S21(C  6-Port  ) 
!S22(C  6-Port  ) 
!S23(C  6-Port  ) 
!S24(C  6-Port  ) 
!S25(C  6-Port  ) 
!S26(C  6-Port  ) 
!S31(C  6-Port  ) 
!S32(C  6-Port  ) 
!S33(C  6-Port  ) 
!S34(C  6-Port  ) 
!S35(C  6-Port  ) 
!S36(C  6-Port  ) 
!S41(C  6-Port  ) 
!S42(C  6-Port  ) 
!S43(C  6-Port  ) 
!S44(C  6-Port  ) 
!S45(C  6-Port  ) 
!S46(C  6-Port  ) 
!S51(C  6-Port  ) 
!S52(C  6-Port  ) 
!S53(C  6-Port  ) 
!S54(C  6-Port  ) 
!S55(C  6-Port  ) 
!S56(C  6-Port  ) 
!S61(C  6-Port  ) 
!S62(C  6-Port  ) 
!S63(C  6-Port  ) 
!S64(C  6-Port  ) 
!S65(C  6-Port  ) 
!S66(C  6-Port  ) 
!S6P File: Measurement: :
# Hz S  RI   R 50
500000000 -0.33651 -0.039978 -0.0096467 -0.0023317 -0.0080993 0.012937 -0.0042599 0.012054
0.012995 0.0047318 -0.0046146 0.0089817
-0.0096352 -0.0023014 -0.41942 -0.052584 0.0076955 -0.010563 0.0014552 0.01233
0.0076319 0.0027651 0.0011724 0.013434
-0.0080908 0.012973 0.0076931 -0.010575 -0.26591 0.20891 0.007705 0.0035365
-0.0020117 0.008094 0.0015337 0.011981
-0.0042372 0.012071 0.0014746 0.012345 0.0077042 0.0035411 -0.33238 0.041965
-0.019271 -0.0066852 0.015291 0.026979
0.012986 0.0047586 0.0076644 0.0027316 -0.001997 0.0080826 -0.019239 -0.0066848
-0.22059 -0.20275 -0.025566 0.0050195
-0.0045941 0.0090387 0.0012119 0.013466 0.0015313 0.011999 0.015332 0.026959
-0.025566 0.0050294 -0.26513 -0.13886
560000000 -0.31649 0.12177 -0.024245 -0.063815 0.00055005 0.0121 0.0054103 0.010845
0.010448 0.0054491 0.011393 0.0077568
-0.024176 -0.063723 -0.37833 0.10737 -0.041391 -0.03784 0.014095 0.0034085
-0.012641 -0.0054208 0.0034463 -0.00018466
0.00051828 0.012043 -0.04153 -0.037812 -0.18288 0.2575 -0.00071114 -0.0037724
0.020069 0.005439 0.0065297 -0.0057261
0.0054736 0.010874 0.014104 0.003414 -0.00070289 -0.0037772 -0.30783 0.13159
0.0033124 -0.023817 0.0043625 -0.021991
0.010418 0.0054312 -0.012675 -0.0054022 0.020062 0.0054522 0.0033048 -0.023805
-0.28941 -0.026536 0.0083744 -0.048524
0.011356 0.0077791 0.0034065 -0.0001702 0.0065333 -0.0057433 0.0043519 -0.022001
0.0084147 -0.048542 -0.32963 0.010373
620000000 -0.27564 0.10618 -0.023348 0.0081335 0.003549 0.0089807 0.0083784 -0.0051745
0.011431 -0.00033402 0.0025926 -0.0022084
-0.023333 0.0081421 -0.40286 0.058997 -0.018719 0.00030297 -0.0011909 -0.0020285
0.011502 -0.006132 0.001652 -0.0028718
0.0035133 0.0090152 -0.018726 0.0003535 -0.15408 0.26673 -0.0012836 -0.0050548
-0.003006 -0.0025295 0.0084266 -0.0032724
0.0083616 -0.0051906 -0.0012087 -0.0020207 -0.0012726 -0.0050547 -0.26747 0.14323
-0.037969 -0.019684 0.012258 0.026728
0.011414 -0.00026525 0.011527 -0.0061954 -0.002999 -0.0025432 -0.037982 -0.019638
-0.20768 -0.064385 -0.041937 0.015087
0.002548 -0.0022435 0.0016573 -0.0028719 0.0084533 -0.003284 0.012264 0.026726
-0.041913 0.015086 -0.24867 -0.026743
680000000 -0.23545 0.19216 -0.02728 -0.013939 0.0049941 0.0052339 0.0013639 -0.0071967
-0.0030267 -0.011317 0.0057137 -0.0070691
-0.027248 -0.013945 -0.38778 0.15733 -0.03273 -0.0012747 -0.0016206 -0.0006146
-0.0019445 -0.0091495 -0.00092129 -0.0017682
0.0050027 0.0052239 -0.032773 -0.0011962 -0.10233 0.28628 -0.0006443 -0.00028974
-0.0015753 0.00040912 -0.0026649 -0.0091435
0.0013317 -0.0071911 -0.0016159 -0.000607 -0.00064485 -0.00028423 -0.22151 0.19408
-0.024123 -0.0072111 -0.010263 -0.011144
-0.0030492 -0.011318 -0.0019767 -0.0091424 -0.0015783 0.0004171 -0.024134 -0.0071843
-0.25967 0.035881 -0.0057797 -0.0083413
0.0057115 -0.0070829 -0.00092025 -0.0017423 -0.0026867 -0.0091295 -0.010278 -0.011142
-0.005781 -0.0083362 -0.2613 0.081204
740000000 -0.19067 0.18735 -0.038554 0.026986 0.013012 -0.0051674 -0.00028538 -0.0044363
-0.0040338 -0.0027805 -0.0062521 0.0023498
-0.038515 0.026927 -0.33467 0.17618 -0.03551 0.035496 -0.00071911 -0.006395
-0.012099 0.007828 -0.0020692 -0.006628
0.013039 -0.0051839 -0.035473 0.035622 -0.068633 0.2843 -0.0019715 0.003183
-0.0022116 -0.0047819 -0.0015285 4.7933e-05
-0.00027472 -0.0044348 -0.00073662 -0.0063952 -0.0019704 0.0031875 -0.20504 0.20183
-0.044059 -0.0067253 0.023319 0.015372
-0.00405 -0.0027821 -0.012115 0.0079034 -0.0022287 -0.0047678 -0.0441 -0.0066726
-0.15853 0.06305 -0.043949 0.0010124
-0.0062166 0.0023859 -0.0020789 -0.0066476 -0.0015134 1.3431e-05 0.023362 0.015344
-0.043953 0.00099119 -0.24957 0.086349
800000000 -0.15745 0.22736 -0.022129 0.016854 0.0055216 -0.010749 -0.004662 -0.0021569
-0.004072 0.0020777 0.0047387 0.00037116
-0.022126 0.016831 -0.33807 0.246 -0.0077399 0.034012 -0.0023969 0.0021888
-0.00067837 0.0029272 0.0010386 0.0052333
0.0055044 -0.010751 -0.0076346 0.034063 -0.028069 0.30745 0.00094504 0.001521
0.000257 0.0035506 -0.0015056 0.00079618
-0.0046652 -0.0021537 -0.0023939 0.0021874 0.00094346 0.0015212 -0.17603 0.22996
-0.028746 0.014463 0.014094 -0.01044
-0.0040696 0.0020773 -0.00068007 0.0029241 0.00025702 0.003546 -0.028757 0.014526
-0.20671 0.086714 -0.01746 0.019646
0.0047577 0.00038418 0.0010586 0.0052296 -0.0014908 0.00079418 0.01409 -0.010472
-0.01747 0.01962 -0.24605 0.13685
860000000 -0.12298 0.2473 -0.017191 0.030511 -0.0032185 -0.010199 -0.0022642 0.00081384
0.0040323 0.0047795 -0.0033169 -0.0029612
-0.017199 0.030471 -0.29078 0.28788 0.0079076 0.034253 -0.00011621 0.0018172
0.0042024 9.8865e-05 0.0034056 0.00072271
-0.0032453 -0.010194 0.0080183 0.034254 0.01968 0.31543 -0.00060815 -0.00030651
0.0027449 -0.0015745 0.0015884 0.0043467
-0.0022628 0.00081442 -9.5547e-05 0.0018097 -0.00060824 -0.00030396 -0.13954 0.24052
-0.017915 0.018925 -0.0060363 -0.0092745
0.0040131 0.0047594 0.0042012 6.1336e-05 0.0027523 -0.0015786 -0.017899 0.018966
-0.15502 0.13867 -0.026354 0.015904
-0.0033229 -0.0029326 0.0033985 0.00071088 0.0015834 0.0043552 -0.0060512 -0.0092777
-0.026376 0.01587 -0.19444 0.18353
920000000 -0.098498 0.2702 0.0052835 0.037775 -0.009563 -0.0045792 -0.0017432 0.0018003
0.00095785 0.0019524 0.002731 -0.0016521
0.0052824 0.037731 -0.26186 0.30934 0.028187 0.021972 0.0015015 0.0011427
0.007129 -0.0003318 0.0041419 -0.0027255
-0.0095857 -0.0045637 0.028297 0.021894 0.065915 0.31632 0.0018724 -5.9365e-05
0.0011383 -0.00030649 0.0009348 -0.001125
-0.0017545 0.0017839 0.0015278 0.0011396 0.0018617 -5.8048e-05 -0.11567 0.25796
-0.010835 0.0316 0.0041751 -0.0068361
0.00097409 0.001956 0.0071279 -0.00038175 0.0011431 -0.00031011 -0.010768 0.031642
-0.14528 0.14475 -0.0027414 0.027592
0.0027207 -0.0016363 0.0041093 -0.0027298 0.00092173 -0.0011124 0.0041647 -0.0068342
-0.0027545 0.027593 -0.20469 0.19775
980000000 -0.051185 0.28959 0.017544 0.029889 -0.0092068 0.004607 0.0020599 0.0033942
0.0038907 -0.0013482 -0.0033434 -0.0020984
0.017516 0.029885 -0.20919 0.34301 0.033166 0.0047693 0.0021092 -8.7038e-05
0.0014765 -0.0058351 -0.00033162 -0.0025106
-0.0092089 0.0046397 0.033238 0.0046637 0.11221 0.3098 0.00052064 -0.0011553
0.00027209 -0.0020712 0.0013886 -0.00019475
0.0020568 0.0033875 0.0021136 -7.8195e-05 0.00052186 -0.0011591 -0.077063 0.26907
0.0084708 0.030879 -0.0090556 -0.0074923
0.003877 -0.0013567 0.001483 -0.0058658 0.00027611 -0.0020685 0.0085412 0.03087
-0.11386 0.17434 0.0050765 0.01982
-0.0033618 -0.0020661 -0.00031997 -0.0025373 0.0013903 -0.00019937 -0.00906 -0.0074841
0.0050571 0.019811 -0.16249 0.24378
1040000000 -0.0093674 0.29811 0.033126 0.018064 -0.0013728 0.0069713 0.0024236 0.00062532
0.00017358 -0.0037265 -0.00035153 -0.0014867
0.033121 0.018069 -0.17375 0.3562 0.029452 -0.015009 0.0014302 -0.0017646
-0.0025067 -0.0026943 -0.0013568 -0.0026066
-0.0013726 0.0069833 0.029439 -0.015154 0.15837 0.29626 -0.00052664 -0.0015741
-0.0015913 -0.00090364 -0.00046364 -0.0010899
0.0024165 0.00061359 0.0014507 -0.001759 -0.00054412 -0.0015807 -0.049858 0.27954
0.020307 0.018669 -0.0022291 0.0011056
0.00012787 -0.0037205 -0.0025144 -0.0027023 -0.0015935 -0.00090536 0.020361 0.018649
-0.081666 0.18126 0.01362 0.019023
-0.00035364 -0.0014537 -0.0013518 -0.0026306 -0.00046635 -0.0010867 -0.0022315 0.0010995
0.013599 0.019026 -0.14192 0.26439
1100000000 0.036022 0.30586 0.035816 -0.0044123 0.0028282 0.0039423 0.0022932 -0.0012711
-0.0019144 -0.0032311 -0.0039517 6.1487e-05
0.035793 -0.0043817 -0.13039 0.37356 0.015077 -0.028082 -7.1874e-05 -0.0018051
-0.0034184 -0.00085753 -0.00357 -0.00044123
0.0028369 0.0039392 0.014985 -0.028176 0.20502 0.27586 -0.001914 0.0002729
-0.0018296 0.00054033 -0.0011297 -0.00030547
0.0022786 -0.0012812 -7.9173e-05 -0.0018068 -0.0019108 0.00028436 -0.00924 0.2845
0.025935 0.0050137 -0.0026815 -0.00018364
-0.0019325 -0.0032173 -0.0034272 -0.00085117 -0.001825 0.00053502 0.025958 0.0049811
-0.063799 0.19489 0.019477 0.0088411
-0.0039398 8.6079e-05 -0.0035611 -0.00042675 -0.001132 -0.00031004 -0.0026723 -0.00017604
0.019468 0.0088449 -0.096202 0.29592
1160000000 0.087366 0.30091 0.023829 -0.020988 0.0026348 -0.00044529 -0.00031121 -0.0022423
-0.0041243 -0.00079728 -0.00099588 0.0041274
0.023841 -0.020951 -0.08676 0.37798 -0.003999 -0.029284 -0.001743 -0.0016962
-0.0027816 0.0025113 -0.0014402 0.001911
0.0026202 -0.00047119 -0.0041128 -0.029304 0.24821 0.24473 -0.00069688 0.0017817
-0.00066905 0.0020448 -0.00088964 0.00033959
-0.000323 -0.0022453 -0.0017436 -0.0016817 -0.00069678 0.0017802 0.030147 0.28184
0.022162 -0.011208 -0.003175 0.0049817
-0.0041418 -0.00077281 -0.0027722 0.0025286 -0.00065409 0.0020411 0.022159 -0.011237
-0.030591 0.20394 0.018859 0.00070913
-0.0010101 0.0041303 -0.0014183 0.0019165 -0.00089178 0.00033628 -0.0031653 0.0049839
0.018833 0.00071305 -0.049113 0.29919
1220000000 0.13166 0.28985 0.010102 -0.03018 -0.0015745 -0.00074688 4.4578e-05 -0.000857
-0.0027011 0.0023892 0.001384 0.0021055
0.010118 -0.03014 -0.042162 0.39009 -0.017154 -0.021131 -0.0025323 0.00045435
-1.5582e-05 0.0031066 -0.00074057 0.0019251
-0.001587 -0.00074086 -0.017262 -0.021075 0.28731 0.20536 0.00083105 0.0016998
0.00061847 0.0011991 0.00039014 0.00070094
4.5689e-05 -0.00084739 -0.0025374 0.00048106 0.00083358 0.0017043 0.070339 0.2734
0.010973 -0.018261 0.0018421 0.0014076
-0.0026959 0.002396 1.5483e-06 0.0031087 0.00062534 0.0012117 0.010954 -0.018271
-0.0088616 0.21322 0.014658 -0.013033
0.0013867 0.002088 -0.00072634 0.0019375 0.0003833 0.00070499 0.0018551 0.0014048
0.014644 -0.013032 -0.018572 0.31716
1280000000 0.18145 0.26784 -0.008308 -0.028456 -0.001844 0.0025781 -0.00083573 -0.0019882
-0.00091453 0.0030407 0.0025245 0.0011336
-0.0082919 -0.028438 0.0039725 0.38101 -0.024003 -0.008354 -0.00095271 0.0014826
0.0017156 0.0018568 0.00070588 0.0021085
-0.0018352 0.0025891 -0.024064 -0.0082471 0.31735 0.16122 0.0016718 3.5512e-07
0.0012076 0.00031926 0.00049539 0.00034366
-0.00083857 -0.0019692 -0.00094716 0.0014938 0.0016685 4.7828e-06 0.10729 0.25664
0.00099605 -0.020461 -0.00036891 0.00013912
-0.0008915 0.0030528 0.001726 0.0018466 0.0012111 0.00031919 0.000957 -0.020476
0.027684 0.21704 0.0033652 -0.015411
0.0025328 0.0011367 0.00072074 0.0021033 0.00050371 0.00033947 -0.00036675 0.00013984
0.0033702 -0.015402 0.029988 0.3203
1340000000 0.21851 0.23397 -0.017911 -0.018679 0.0010246 0.0045418 -0.0017209 -0.00083792
0.0014799 0.0028047 0.0018911 -0.0014098
-0.017881 -0.01867 0.043518 0.37253 -0.021662 0.0045123 -0.00012225 0.0020065
0.001989 0.00081543 0.0014353 0.00075941
0.0010389 0.0045408 -0.021655 0.0046297 0.33893 0.11333 0.0012233 -0.00097863
0.00078525 -0.00048477 0.00024214 0.000347
-0.0017195 -0.0008267 -0.00011638 0.0020064 0.0012217 -0.00098765 0.13964 0.2361
-0.0091077 -0.017449 0.00062154 0.00068268
0.001501 0.002814 0.0020015 0.00081132 0.00078549 -0.00048468 -0.0091359 -0.017437
0.057095 0.21285 -0.0035206 -0.013939
0.001878 -0.0014141 0.0014505 0.0007578 0.00024311 0.00034768 0.00062277 0.00067921
-0.0035099 -0.013946 0.068304 0.31677
1400000000 0.25146 0.19562 -0.023508 -0.0070392 0.0052323 0.0030874 -0.0020841 0.00059659
0.002427 0.00095494 0.00036345 -0.0013867
-0.023482 -0.0070568 0.080811 0.35921 -0.014767 0.012618 0.0013451 0.0012983
0.0012034 -0.00084478 0.0012572 0.00018225
0.0052473 0.0030564 -0.014727 0.012716 0.35191 0.060147 0.00013173 -0.0017261
-3.4382e-05 -0.00043012 0.00043898 0.00021966
-0.0020805 0.00060083 0.0013576 0.00129 0.00013227 -0.0017255 0.16895 0.20712
-0.015316 -0.010382 -0.00088635 -0.00017503
0.0024304 0.00095251 0.0012194 -0.00085747 -3.4645e-05 -0.00043299 -0.015342 -0.01036
0.089959 0.20873 -0.010222 -0.0092461
0.00035975 -0.0013855 0.0012668 0.00017379 0.00044411 0.00022295 -0.00088797 -0.00017785
-0.010211 -0.0092605 0.11402 0.30637
1460000000 0.27393 0.1514 -0.020258 0.0051285 0.0056593 -0.0019177 -0.0015861 0.0017086
0.0021666 -0.0005154 -0.00033297 -0.00099818
-0.02025 0.0051216 0.11474 0.3371 -0.0058903 0.01545 0.0017485 0.00016568
0.00089297 -0.0013521 0.0011765 -0.0006423
0.0056581 -0.0019469 -0.0058237 0.015498 0.35778 0.006169 -0.0013773 -0.0013173
0.00014813 -0.00032279 0.00061027 -0.00034256
-0.0015818 0.0017161 0.0017558 0.00016455 -0.0013714 -0.0013144 0.1947 0.17795
-0.016703 -0.0030306 -0.00086404 0.0022951
0.0021684 -0.0005353 0.00089216 -0.0013724 0.00014885 -0.00032608 -0.016714 -0.0029935
0.11856 0.19432 -0.012297 -0.0029216
-0.00034384 -0.0010111 0.0011752 -0.00065326 0.00060644 -0.000351 -0.00086537 0.0022892
-0.012294 -0.0029244 0.14745 0.28603
1520000000 0.28582 0.10958 -0.014435 0.010551 0.0033475 -0.0043051 0.00012577 0.0026341
0.002153 -0.0017637 -0.0011507 -0.0001253
-0.014436 0.010529 0.14804 0.32231 0.0017397 0.013079 0.0016771 -0.00079199
-1.1143e-06 -0.0010481 0.00035399 -0.0010227
0.0033236 -0.0043152 0.0018142 0.01309 0.35129 -0.049852 -0.0011963 -0.00033885
0.00060212 -0.00082928 7.9043e-05 -0.00012769
0.00013197 0.0026318 0.0016716 -0.00080351 -0.0011958 -0.00032823 0.21748 0.14045
-0.015848 0.0031149 0.0016551 0.0023109
0.0021467 -0.0017789 -1.4101e-05 -0.0010613 0.00060672 -0.00083546 -0.015851 0.0031592
0.14601 0.18059 -0.012147 0.0017288
-0.0011481 -0.00011529 0.00034269 -0.0010318 7.6181e-05 -0.0001302 0.0016544 0.0023071
-0.012146 0.0017233 0.1813 0.26658
1580000000 0.2948 0.063482 -0.0077043 0.013482 -0.00098444 -0.0050124 0.0014526 0.0019306
-0.00023147 -0.0021334 -0.00032656 0.00045112
-0.0077048 0.013472 0.175 0.29749 0.005283 0.0081322 0.0004746 -0.0016244
-0.0006281 -0.0010324 -0.00030443 -0.00077518
-0.0010055 -0.005006 0.0053318 0.008116 0.33113 -0.10717 -0.0016212 0.00070871
-0.00030825 -0.0011426 0.00011366 -0.0005172
0.0014535 0.0019196 0.0004649 -0.0016261 -0.0016223 0.00071512 0.23105 0.10181
-0.011949 0.0083014 0.0025828 0.00095522
-0.0002333 -0.0021453 -0.00064482 -0.0010287 -0.00031396 -0.0011436 -0.011949 0.0083337
0.16999 0.16292 -0.009538 0.0078168
-0.00032636 0.00045954 -0.00031232 -0.00077588 0.00011094 -0.00051869 0.0025831 0.00094283
-0.0095386 0.0078192 0.21445 0.24001
1640000000 0.29654 0.022392 -0.00097667 0.012174 -0.0028063 -0.0026457 0.0027936 0.0009556
-0.00062302 -0.0016227 -0.00022084 0.00057339
-0.0009818 0.012168 0.20428 0.27267 0.0059801 0.0033483 -0.00069929 -0.001759
-0.0010363 -0.00036055 -0.0004686 -0.00071044
-0.0028097 -0.0026319 0.0060157 0.0033216 0.30323 -0.15648 -0.00058636 0.0015383
-0.0011662 -0.0010697 -0.00012669 -0.00049723
0.0028026 0.00094629 -0.0007139 -0.0017586 -0.00059216 0.0015387 0.24324 0.054029
-0.0073366 0.0096172 0.0027541 -0.0008255
-0.0006271 -0.0016284 -0.0010452 -0.00035104 -0.0011718 -0.0010761 -0.0073197 0.0096427
0.19186 0.13908 -0.004626 0.0098495
-0.00021504 0.00057278 -0.0004652 -0.00070518 -0.00012869 -0.00049847 0.0027408 -0.00082706
-0.0046347 0.0098438 0.24027 0.20941
1700000000 0.28914 -0.022646 0.0022981 0.0091486 -0.0035359 8.9074e-05 0.0030511 -0.0012965
-0.002108 -0.00081928 0.00068229 0.00038793
0.0022893 0.0091432 0.2223 0.2413 0.0038918 0.00055216 -0.0015307 -0.00055506
-0.00075996 5.9137e-05 -0.00088997 -0.00045463
-0.0035286 0.00010401 0.0038981 0.00052858 0.25969 -0.19617 0.00052459 0.001693
-0.001995 -0.00018738 -0.00045325 -0.00086373
0.0030468 -0.0013091 -0.0015263 -0.00055004 0.00052641 0.0016867 0.24067 0.0054297
-0.0043073 0.010167 0.0016778 -0.0024364
-0.002121 -0.00080972 -0.00075911 6.9257e-05 -0.0020042 -0.00017569 -0.0042868 0.010185
0.20867 0.11935 0.00030484 0.010009
0.00068386 0.0003921 -0.00089203 -0.00044511 -0.00046211 -0.0008653 0.0016787 -0.0024414
0.00030334 0.010016 0.25751 0.17495
1760000000 0.27686 -0.070882 0.0043419 0.0058379 -0.002372 0.00099485 0.0012225 -0.0035073
-0.0014324 0.00067423 0.00036988 -0.00066422
0.0043356 0.0058332 0.24809 0.20159 0.0015917 -0.0012187 -0.0012003 0.00020857
-0.00094746 0.00088587 -0.00059162 0.00040692
-0.0023643 0.001008 0.0015879 -0.0012257 0.21082 -0.22944 0.0013043 0.00098412
-0.0011498 0.0015389 -0.001354 -0.00053383
0.0012004 -0.0035111 -0.0012136 0.00021495 0.0012961 0.00099084 0.23248 -0.04504
-0.00084923 0.0092836 -0.00016912 -0.0027762
-0.0014352 0.00070011 -0.0009416 0.0008906 -0.0011556 0.0015389 -0.0008288 0.0092874
0.22284 0.085069 0.0044222 0.0072969
0.00036545 -0.00066933 -0.00058364 0.00040973 -0.0013509 -0.00053415 -0.00017342 -0.0027684
0.004422 0.0072942 0.27056 0.13726
1820000000 0.2524 -0.10789 0.0043611 0.0023829 -0.0001012 0.0024705 -0.0010837 -0.0030042
-0.001199 0.0010454 -8.4529e-05 -9.9901e-05
0.0043448 0.0023875 0.25814 0.17175 -0.00035612 -0.00011296 -0.0012876 0.00099714
-1.2538e-05 0.0012575 -0.00053354 0.00050242
-8.8158e-05 0.0024842 -0.00035403 -0.00010811 0.1611 -0.24546 0.0014433 0.00028503
-0.00015427 0.0023795 -0.0013455 0.0003272
-0.0011083 -0.0029999 -0.001293 0.0010034 0.0014403 0.00029404 0.20413 -0.091818
0.0008817 0.0075596 -0.001606 -0.0017749
-0.0011833 0.0010608 1.2152e-06 0.0012545 -0.00014972 0.0023947 0.0009021 0.0075617
0.23977 0.057011 0.005378 0.003566
-8.0593e-05 -9.9738e-05 -0.00052597 0.00050944 -0.0013401 0.00033528 -0.0016096 -0.0017607
0.0053742 0.0035643 0.27348 0.10132
1880000000 0.21743 -0.14821 0.00212 0.00022042 -0.00038086 0.0021056 -0.0029889 -0.0021089
-0.00017692 0.00178 0.00022231 -0.000443
0.0021162 0.00022438 0.26261 0.12524 -0.0024 0.0015771 -0.00014442 0.0016585
0.00054112 0.0011128 6.4731e-05 0.00091106
-0.00037137 0.0021193 -0.0023968 0.0015975 0.10857 -0.25549 0.0016789 -0.00095241
0.0015725 0.001941 -0.0010346 0.001386
-0.0030008 -0.0020939 -0.0001281 0.0016685 0.001674 -0.00095075 0.165 -0.13246
0.0018135 0.0054348 -0.002602 0.00022269
-0.00015514 0.001789 0.00054113 0.0011054 0.0015688 0.0019433 0.0018259 0.0054403
0.24269 0.025389 0.0054815 0.0011698
0.0002127 -0.00043635 7.3148e-05 0.00091518 -0.0010274 0.0013871 -0.0025967 0.00023608
0.0054828 0.0011729 0.27342 0.066944
1940000000 0.17807 -0.17399 -4.8805e-05 -0.0013237 0.0014031 0.0020328 -0.0037152 0.00059486
0.0013704 0.0010402 -0.00059177 -0.00044427
-5.8099e-05 -0.0013279 0.26318 0.093574 -0.0012484 0.0038438 0.0010269 0.0012924
0.0017427 0.00046229 0.00079889 0.00032285
0.0014187 0.0020391 -0.0012186 0.0038633 0.062204 -0.24868 0.00042656 -0.0020517
0.002414 0.0003991 0.00029724 0.0016055
-0.0037127 0.00061736 0.0010493 0.0012907 0.00043112 -0.002052 0.1137 -0.16401
0.0011884 0.0039114 -0.0016123 0.0014408
0.0013844 0.0010252 0.0017324 0.00045145 0.0024152 0.00039794 0.0012043 0.0039129
0.24497 -0.012578 0.0042176 -0.002476
-0.00060372 -0.00043935 0.00079846 0.00032207 0.00030013 0.0016015 -0.0016125 0.0014396
0.0042145 -0.0024731 0.26268 0.031241
2000000000 0.13183 -0.18869 -0.0038055 0.00071229 0.0025216 0.0016438 -0.0023541 0.0034397
0.0011716 -5.5591e-06 -0.00072839 0.0003724
-0.0038174 0.00069966 0.24919 0.058087 -0.0010557 0.0057631 0.0015858 0.00034459
0.0012811 -0.0012509 0.00045675 0.00019643
0.0025419 0.0016249 -0.0010159 0.0057761 0.018678 -0.23377 -0.0012582 -0.0012504
0.001916 -0.0012192 0.001658 0.0013327
-0.0023287 0.003448 0.0015961 0.00033453 -0.0012589 -0.0012579 0.060303 -0.1753
-0.00044507 0.0032688 -0.00019833 0.0022891
0.0011821 -1.3278e-05 0.0012708 -0.0012622 0.0019207 -0.0012322 -0.00043711 0.0032779
0.23956 -0.046221 0.00061108 -0.0033095
