!Keysight Technologies,M9804A,MY58100912,A.14.10.03
!Date: Thursday, April 27, 2023 10:28:33
!Correction: S11(C  6-Port  ) 
!S12(C  6-Port  ) 
!S13(C  6-Port  ) 
!S14(C  6-Port  ) 
!S15(C  6-Port  ) 
!S16(C  6-Port  ) 
!S21(C  6-Port  ) 
!S22(C  6-Port  ) 
!S23(C  6-Port  ) 
!S24(C  6-Port  ) 
!S25(C  6-Port  ) 
!S26(C  6-Port  ) 
!S31(C  6-Port  ) 
!S32(C  6-Port  ) 
!S33(C  6-Port  ) 
!S34(C  6-Port  ) 
!S35(C  6-Port  ) 
!S36(C  6-Port  ) 
!S41(C  6-Port  ) 
!S42(C  6-Port  ) 
!S43(C  6-Port  ) 
!S44(C  6-Port  ) 
!S45(C  6-Port  ) 
!S46(C  6-Port  ) 
!S51(C  6-Port  ) 
!S52(C  6-Port  ) 
!S53(C  6-Port  ) 
!S54(C  6-Port  ) 
!S55(C  6-Port  ) 
!S56(C  6-Port  ) 
!S61(C  6-Port  ) 
!S62(C  6-Port  ) 
!S63(C  6-Port  ) 
!S64(C  6-Port  ) 
!S65(C  6-Port  ) 
!S66(C  6-Port  ) 
!S6P File: Measurement: :
# Hz S  RI   R 50
500000000 -0.33733 -0.039198 -0.0098903 -0.0028277 -0.0076337 0.012419 -0.004357 0.012085
0.012972 0.0044238 -0.0048328 0.0088682
-0.01002 -0.0022705 -0.41916 -0.052388 0.0079697 -0.01107 0.0012807 0.012058
0.0079761 0.0023445 0.0012322 0.013383
-0.007699 0.012624 0.0081682 -0.011122 -0.26549 0.20886 0.0078309 0.003515
-0.0014397 0.0078897 0.0017371 0.012121
-0.0036895 0.011642 0.0016602 0.011925 0.0077359 0.0033059 -0.33099 0.043676
-0.018134 -0.0060945 0.015679 0.027039
0.01238 0.0056709 0.0076421 0.0025218 -0.0014861 0.0081242 -0.018127 -0.0059951
-0.22119 -0.19824 -0.024911 0.0050955
-0.004452 0.0090103 0.0015944 0.01276 0.0017304 0.01173 0.015545 0.026797
-0.024808 0.0049089 -0.26606 -0.13648
560000000 -0.31633 0.12382 -0.023471 -0.06436 0.00018047 0.012133 0.0054903 0.010594
0.010591 0.004983 0.011063 0.0077858
-0.022841 -0.063666 -0.37918 0.10701 -0.041074 -0.038457 0.014154 0.0040602
-0.012582 -0.0045739 0.0029827 -0.00018993
1.5126e-05 0.012827 -0.040967 -0.038104 -0.18265 0.25744 -0.0008006 -0.0044156
0.018847 0.0050357 0.0069984 -0.0065453
0.0066356 0.010745 0.014399 0.0039051 -0.00096964 -0.0046267 -0.30534 0.13228
0.0048289 -0.023713 0.0046184 -0.021345
0.010024 0.004326 -0.013429 -0.0043164 0.019583 0.0050145 0.0047616 -0.023953
-0.28766 -0.022761 0.0095427 -0.049143
0.011067 0.0069456 0.0035698 -0.0011071 0.0069155 -0.0062654 0.0046059 -0.021225
0.0095388 -0.049322 -0.32883 0.012157
620000000 -0.2755 0.10637 -0.022989 0.0077271 0.0030221 0.0085602 0.0078303 -0.0055559
0.011228 -0.00039974 0.0018188 -0.002821
-0.023051 0.0079208 -0.40227 0.059218 -0.018472 -1.7911e-06 -0.001376 -0.0018665
0.011396 -0.0067495 0.0015294 -0.0032145
0.0031227 0.0089304 -0.01857 -4.2949e-05 -0.15367 0.26594 -0.0011436 -0.0049528
-0.0034225 -0.00316 0.0083852 -0.0031386
0.0075738 -0.0049542 -0.0015465 -0.0021196 -0.001163 -0.0051651 -0.26518 0.14347
-0.03719 -0.019904 0.012424 0.02656
0.011909 0.00026289 0.011527 -0.0067452 -0.0035576 -0.0030406 -0.037427 -0.01982
-0.20602 -0.06179 -0.04156 0.013925
0.0017395 -0.0027898 0.0011734 -0.0036069 0.0083932 -0.0034926 0.012809 0.026404
-0.041582 0.013971 -0.24905 -0.025408
680000000 -0.23444 0.1929 -0.027111 -0.014377 0.005042 0.0050866 0.0013132 -0.0069495
-0.0029765 -0.011254 0.0047536 -0.007027
-0.027227 -0.014026 -0.38774 0.15728 -0.032665 -0.0014536 -0.0016731 -0.00040746
-0.0022903 -0.0087259 -0.0014668 -0.001812
0.0053555 0.005212 -0.032712 -0.0012905 -0.10246 0.28613 -0.00086326 -3.1477e-05
-0.001739 0.0007294 -0.0028377 -0.0091493
0.0012963 -0.0079699 -0.0016575 -0.00027527 -0.0008205 -6.7033e-05 -0.22098 0.19333
-0.023285 -0.008096 -0.010154 -0.011423
-0.0037213 -0.011132 -0.0021712 -0.0086193 -0.0017595 0.00074866 -0.023425 -0.0081145
-0.25649 0.036955 -0.0048536 -0.0090992
0.0046273 -0.0070865 -0.0013526 -0.0020706 -0.002838 -0.0091608 -0.010116 -0.011598
-0.0049007 -0.0093214 -0.26251 0.082254
740000000 -0.19 0.18665 -0.038938 0.02628 0.012828 -0.0051734 -0.00021947 -0.0041944
-0.0041012 -0.0029707 -0.0064796 0.0023188
-0.038803 0.026517 -0.33502 0.17637 -0.035353 0.03494 -0.00069428 -0.0060741
-0.011817 0.0081877 -0.0018919 -0.0063586
0.013042 -0.0050176 -0.03528 0.035018 -0.068525 0.28464 -0.0021399 0.0031941
-0.0022968 -0.00461 -0.0016014 8.5399e-05
-0.00010711 -0.0042121 -0.00082399 -0.0060648 -0.0020909 0.0032012 -0.20398 0.20126
-0.043175 -0.007799 0.02315 0.014975
-0.0047642 -0.0028667 -0.011158 0.0078082 -0.0023507 -0.004712 -0.043369 -0.0078102
-0.15725 0.062979 -0.044189 -0.00027069
-0.006161 0.0022423 -0.0019955 -0.0065513 -0.001665 6.2448e-05 0.023083 0.015128
-0.044167 -0.0003749 -0.24956 0.088169
800000000 -0.15808 0.22737 -0.022554 0.016754 0.0054087 -0.010487 -0.0047914 -0.0021781
-0.0041488 0.0021995 0.0044339 0.00050433
-0.022714 0.016498 -0.33828 0.24623 -0.0078636 0.033925 -0.0023074 0.0021961
-0.00050596 0.0030115 0.0010246 0.0051858
0.005031 -0.010486 -0.0078264 0.034063 -0.02795 0.30775 0.0011074 0.0014647
0.00028306 0.0035374 -0.0017755 0.00090524
-0.0051344 -0.0022266 -0.0022987 0.0023421 0.0011714 0.0015308 -0.17581 0.22899
-0.028521 0.013182 0.013484 -0.010303
-0.004305 0.0022656 -0.00062487 0.0029458 0.00030729 0.0035994 -0.028561 0.013101
-0.20473 0.086203 -0.01804 0.018852
0.0037278 0.00026918 0.00083188 0.0054347 -0.0017642 0.00094162 0.01344 -0.010364
-0.017951 0.018879 -0.24625 0.13792
860000000 -0.12328 0.24753 -0.017493 0.030692 -0.0033256 -0.0098034 -0.0023748 0.00096302
0.0040638 0.0048301 -0.0032223 -0.0029136
-0.017503 0.030595 -0.29044 0.28817 0.0078565 0.033985 -2.772e-05 0.0019323
0.0043167 3.9132e-06 0.0035788 0.00071876
-0.0033828 -0.0099033 0.0079963 0.034035 0.020054 0.31556 -0.00056061 -0.00030316
0.0028045 -0.0016053 0.0013809 0.0045939
-0.0023968 0.00079433 -0.00014551 0.0019441 -0.00059713 -0.00026744 -0.13933 0.24012
-0.018151 0.018 -0.0062762 -0.0093082
0.0039575 0.0047425 0.0044472 -9.6223e-06 0.0027407 -0.0015233 -0.01822 0.018064
-0.15441 0.13746 -0.026808 0.015169
-0.0034731 -0.0028999 0.0035492 0.00081306 0.0012988 0.0043884 -0.0063149 -0.0093481
-0.026726 0.015072 -0.1943 0.18532
920000000 -0.09823 0.27062 0.0049945 0.037805 -0.009414 -0.0043674 -0.0019395 0.0019238
0.0010844 0.0019762 0.0027287 -0.0015303
0.0050824 0.03781 -0.26175 0.30941 0.028023 0.021856 0.0013749 0.0010673
0.0070331 -0.00061196 0.0038357 -0.0025394
-0.0093797 -0.0042133 0.028102 0.021774 0.066298 0.31616 0.0018211 -0.00011063
0.0011881 -0.00044058 0.00083889 -0.00099716
-0.0019451 0.0019391 0.0014156 0.0010196 0.0018297 -6.5998e-05 -0.11562 0.25709
-0.011347 0.030101 0.0034956 -0.0064684
0.0013096 0.0019224 0.0071012 -0.00066076 0.0011123 -0.00041278 -0.011351 0.030084
-0.14561 0.14364 -0.0033308 0.027807
0.0025205 -0.0013907 0.0038457 -0.0027968 0.00089473 -0.00092636 0.0036749 -0.0065582
-0.0034553 0.027681 -0.20415 0.19879
980000000 -0.05125 0.28988 0.017407 0.02999 -0.008934 0.0046039 0.0020295 0.003635
0.0040522 -0.0012483 -0.0033199 -0.0021508
0.017416 0.030031 -0.20878 0.34338 0.032868 0.0048813 0.0020427 0.00010075
0.0014868 -0.0057779 -0.0002345 -0.0024476
-0.0089084 0.0046445 0.032904 0.0047933 0.11243 0.30945 0.00045275 -0.0011237
0.00025073 -0.0020653 0.0015067 -0.00015579
0.002169 0.0035278 0.0020583 8.0923e-05 0.00046693 -0.0011474 -0.077558 0.26853
0.0071912 0.029465 -0.0095374 -0.0072412
0.0041254 -0.0014152 0.0013013 -0.005946 0.00021801 -0.0020933 0.0072745 0.029469
-0.11501 0.17275 0.0042848 0.019732
-0.0032243 -0.002159 -0.00038529 -0.0023601 0.0015293 -0.00017526 -0.0094594 -0.0073363
0.004261 0.01969 -0.16202 0.24479
1040000000 -0.0088993 0.29812 0.032995 0.018174 -0.00117 0.0068811 0.0025895 0.00071011
0.00012427 -0.0037971 -0.00018294 -0.001358
0.033107 0.018092 -0.17335 0.35621 0.029264 -0.014729 0.0014991 -0.0015933
-0.0025276 -0.0024975 -0.0013167 -0.0024789
-0.0010288 0.0068746 0.0292 -0.014862 0.15835 0.29573 -0.00048855 -0.0015148
-0.0016143 -0.00082901 -0.00040893 -0.00108
0.0025445 0.00074873 0.0014527 -0.0016016 -0.00046886 -0.0014958 -0.050158 0.27883
0.018504 0.01786 -0.0023404 0.0018189
0.00021497 -0.0037964 -0.0026604 -0.0024785 -0.0015774 -0.00079639 0.018518 0.01781
-0.082847 0.18106 0.01313 0.01898
-0.00019549 -0.0012607 -0.0014629 -0.0025366 -0.00042124 -0.001073 -0.0024057 0.001801
0.013105 0.018938 -0.14116 0.26571
1100000000 0.036476 0.30622 0.035686 -0.0042439 0.0029249 0.0037883 0.0023696 -0.0012998
-0.0021179 -0.0032298 -0.0038924 5.0759e-05
0.035668 -0.0042009 -0.12988 0.37333 0.015162 -0.027626 1.5568e-05 -0.0017912
-0.0033465 -0.00071058 -0.0034178 -0.00052858
0.0029606 0.0037376 0.015071 -0.027706 0.20453 0.27549 -0.001804 0.00023773
-0.0017507 0.00052055 -0.0010466 -0.00039432
0.0024696 -0.0012695 1.7438e-05 -0.0018251 -0.0018045 0.00024938 -0.0099668 0.2839
0.023594 0.0051995 -0.0026008 0.00020359
-0.0021169 -0.0032079 -0.0033955 -0.00069884 -0.0017598 0.00051918 0.023621 0.0051685
-0.065667 0.19502 0.01891 0.0090603
-0.0039617 2.1857e-06 -0.0033935 -0.00057258 -0.0010505 -0.00041092 -0.0026083 0.00022975
0.018919 0.0090275 -0.095288 0.29669
1160000000 0.087706 0.30089 0.023917 -0.020652 0.0026508 -0.00058954 -0.00022228 -0.0024404
-0.0042434 -0.00077233 -0.00098645 0.0041423
0.023843 -0.020654 -0.086377 0.37739 -0.0035885 -0.028982 -0.0016802 -0.0016958
-0.0026251 0.0025012 -0.0013268 0.0019103
0.0026893 -0.00060887 -0.0037125 -0.029012 0.24745 0.24481 -0.00063458 0.001721
-0.00056779 0.0018739 -0.00096622 0.00021415
-0.00021204 -0.0024451 -0.0016651 -0.0017144 -0.00062207 0.0017209 0.029254 0.28145
0.020059 -0.0096676 -0.0029681 0.0053822
-0.0041751 -0.00073785 -0.0026936 0.0025282 -0.00054703 0.0018792 0.020075 -0.009683
-0.03244 0.20485 0.018165 0.0011889
-0.0010134 0.0041403 -0.0012206 0.0018613 -0.00092026 0.00018038 -0.0029444 0.00541
0.018116 0.0010855 -0.04831 0.29956
1220000000 0.13217 0.28981 0.010348 -0.029876 -0.0016048 -0.00085485 2.0139e-05 -0.0010081
-0.0026458 0.0024658 0.0013833 0.0020314
0.010459 -0.029834 -0.042176 0.38942 -0.016681 -0.02108 -0.0024966 0.00037316
0.00014194 0.0029208 -0.00072826 0.0017963
-0.0016067 -0.00089015 -0.016791 -0.021021 0.28668 0.20595 0.00084581 0.0015389
0.00061764 0.0011116 0.00027313 0.00063262
-6.193e-05 -0.00095372 -0.0024869 0.00040378 0.00082297 0.0015328 0.068989 0.27332
0.0099016 -0.015979 0.0023545 0.0016547
-0.0027197 0.0024903 0.00019045 0.0029077 0.00064307 0.0011242 0.0098615 -0.015967
-0.010271 0.21446 0.014449 -0.012184
0.0013153 0.0020558 -0.00073017 0.0018303 0.00025843 0.00060556 0.0023725 0.001668
0.0145 -0.012166 -0.0174 0.31746
1280000000 0.18175 0.26762 -0.0077941 -0.028258 -0.0018797 0.0024491 -0.00097526 -0.0020249
-0.00077375 0.0030906 0.002479 0.0012219
-0.007777 -0.028272 0.003496 0.38053 -0.023552 -0.0086404 -0.0010051 0.0014227
0.0016456 0.0016817 0.00056754 0.0020662
-0.0019064 0.002473 -0.023629 -0.008502 0.31736 0.16212 0.0015038 -8.8307e-05
0.0010406 0.00025961 0.00048697 0.00036348
-0.00097093 -0.0020533 -0.0010134 0.001395 0.0015266 -8.8889e-05 0.10584 0.25729
0.0010455 -0.017762 0.00016961 1.1393e-05
-0.00075896 0.0030877 0.0016942 0.0017017 0.0010465 0.00025139 0.0010055 -0.017752
0.026164 0.21878 0.0036172 -0.014413
0.0025551 0.0011141 0.00053128 0.0019967 0.00050467 0.00035118 0.00017612 7.1253e-05
0.0035944 -0.014412 0.031279 0.32013
1340000000 0.21872 0.23364 -0.01743 -0.018882 0.00081488 0.0044757 -0.0017585 -0.00081447
0.0014736 0.0026944 0.0017077 -0.0013542
-0.017415 -0.0189 0.042831 0.37244 -0.021525 0.0040104 -0.00014974 0.0019816
0.0018657 0.00071131 0.0012834 0.00081869
0.00081837 0.0044523 -0.021541 0.0041333 0.3395 0.11426 0.0010447 -0.0008794
0.00067652 -0.00048323 0.00020241 0.00031929
-0.0017207 -0.0007938 -0.00014725 0.0019534 0.001017 -0.0008766 0.13843 0.23743
-0.0077573 -0.015099 0.0011315 0.00030467
0.0015209 0.0026657 0.0018795 0.00069926 0.00065618 -0.00049933 -0.0077683 -0.015086
0.055882 0.21508 -0.0028343 -0.013205
0.0017083 -0.0013684 0.0012704 0.00080183 0.00013246 0.00029203 0.0011571 0.00031278
-0.0028077 -0.013188 0.069315 0.31665
1400000000 0.2514 0.19537 -0.023174 -0.0075311 0.0050811 0.0031061 -0.0020471 0.00065528
0.0024249 0.00090569 0.00030391 -0.0013377
-0.023165 -0.0075338 0.08005 0.35951 -0.014928 0.012184 0.0012925 0.0013408
0.0010327 -0.00077798 0.0012277 0.00031739
0.005139 0.0030564 -0.014883 0.012278 0.35277 0.060584 0.00012819 -0.0015517
-6.5431e-05 -0.00035339 0.00044618 0.00022714
-0.0020442 0.00063137 0.0012512 0.0013257 0.00013322 -0.0015397 0.16832 0.20916
-0.013095 -0.008928 -0.00070303 -0.00073775
0.0024652 0.00088427 0.0010659 -0.00078804 -6.6259e-05 -0.00033659 -0.013118 -0.0088891
0.088842 0.21157 -0.0092589 -0.0088538
0.00026733 -0.0013614 0.0012139 0.00019405 0.00045747 0.00023049 -0.00070342 -0.00070265
-0.0092149 -0.00884 0.11503 0.30624
1460000000 0.27383 0.15148 -0.020291 0.0045607 0.0054983 -0.0017637 -0.0015765 0.0016919
0.0020815 -0.0006433 -0.0003506 -0.00096282
-0.020249 0.004506 0.11431 0.33791 -0.0063726 0.015232 0.0017436 0.0001908
0.00081903 -0.0011894 0.0012025 -0.0005348
0.0054972 -0.0018211 -0.0063033 0.015264 0.35889 0.0060495 -0.001207 -0.0011599
0.00012537 -0.0002048 0.00059075 -0.00033773
-0.0015758 0.0017058 0.0017191 0.00016958 -0.0011996 -0.0011428 0.19511 0.18043
-0.014047 -0.0028478 -0.0010234 0.0017215
0.0020411 -0.00064089 0.00080952 -0.0011614 0.00013586 -0.00021529 -0.014049 -0.0027947
0.1183 0.19768 -0.011225 -0.0031782
-0.00030455 -0.001036 0.0012345 -0.00064622 0.00051553 -0.0003174 -0.0010269 0.0017273
-0.011223 -0.0032316 0.14856 0.28585
1520000000 0.2858 0.10968 -0.014731 0.010101 0.0033032 -0.0040685 0.00010669 0.0025946
0.0020102 -0.0017475 -0.0011103 -0.00010791
-0.014733 0.010122 0.14797 0.3232 0.0013216 0.013197 0.0016429 -0.00076106
3.3746e-05 -0.00096343 0.00037418 -0.0010018
0.0033068 -0.0040852 0.0013898 0.013213 0.35185 -0.050307 -0.0010568 -0.00032773
0.00064626 -0.00074433 9.1964e-06 -7.4301e-05
0.00012587 0.0025531 0.0016425 -0.00076508 -0.0010692 -0.00032818 0.21908 0.14269
-0.013593 0.0021101 0.001247 0.001928
0.0019974 -0.0017591 6.1603e-05 -0.00095187 0.00062861 -0.00075376 -0.013566 0.0021357
0.14648 0.1841 -0.011361 0.0010243
-0.0011638 -0.00013317 0.00037551 -0.001036 4.8589e-06 -9.8212e-05 0.0012363 0.0019261
-0.011384 0.0010505 0.18239 0.26621
1580000000 0.29492 0.063636 -0.0082165 0.013202 -0.00083935 -0.004854 0.0013992 0.001882
-0.00039771 -0.0020394 -0.00036343 0.000462
-0.0082293 0.013193 0.17542 0.29837 0.0050665 0.0084436 0.00051121 -0.0015891
-0.00049481 -0.00098417 -0.0002539 -0.00080245
-0.00087026 -0.0048351 0.0051448 0.0084303 0.33147 -0.1079 -0.0015326 0.00058678
-0.00021614 -0.0011021 0.00013601 -0.00043709
0.0014044 0.001892 0.00048191 -0.0015743 -0.0015282 0.00058922 0.23371 0.10336
-0.010521 0.0066022 0.0021034 0.00079296
-0.00041931 -0.0020577 -0.00050904 -0.00098013 -0.00021108 -0.0010757 -0.010492 0.0066403
0.17131 0.16668 -0.0091951 0.0068671
-0.00038039 0.00041229 -0.00022878 -0.00078552 0.00019684 -0.00049967 0.0020642 0.0007776
-0.0092101 0.0068699 0.2154 0.23939
1640000000 0.29683 0.022514 -0.0015605 0.012305 -0.0026309 -0.0025925 0.0027037 0.0010061
-0.00069522 -0.001365 -0.00021545 0.00057147
-0.0015739 0.012296 0.20507 0.27329 0.0059772 0.003672 -0.00064038 -0.0017331
-0.00091589 -0.00044025 -0.0004431 -0.00074508
-0.0026842 -0.0025946 0.0059942 0.0036459 0.30319 -0.157 -0.00065755 0.0013551
-0.00097073 -0.0010521 6.5097e-07 -0.0004419
0.002728 0.0010268 -0.00067085 -0.0017127 -0.00066909 0.0013562 0.2468 0.05413
-0.006744 0.0077317 0.0023486 -0.00075428
-0.00062601 -0.0013643 -0.00092157 -0.00043816 -0.00095003 -0.001031 -0.0067289 0.0077318
0.19447 0.14246 -0.0048875 0.0088729
-0.00021297 0.0005641 -0.00047078 -0.0007235 -3.1535e-05 -0.00045237 0.0023213 -0.0007377
-0.0048625 0.0088396 0.24121 0.20868
1700000000 0.28966 -0.022726 0.0019054 0.0096081 -0.003509 0.00013276 0.0030371 -0.0011786
-0.0019072 -0.00063297 0.00060844 0.00038913
0.0018626 0.0095892 0.22326 0.24153 0.0040172 0.00067714 -0.0014695 -0.0005818
-0.00076939 -2.9613e-05 -0.00092328 -0.00046449
-0.0035235 0.00015383 0.0040143 0.00067515 0.25958 -0.19707 0.00041181 0.0015741
-0.0018816 -0.00030258 -0.00047329 -0.000822
0.0029812 -0.001152 -0.0014865 -0.0005713 0.00042734 0.0015641 0.24402 0.0037312
-0.0044221 0.0083505 0.0014112 -0.0021931
-0.0019601 -0.0005366 -0.00073957 -3.1294e-05 -0.0018533 -0.00029234 -0.0044012 0.0083326
0.2122 0.12223 -0.00018558 0.009365
0.00068816 0.00037885 -0.00094003 -0.00045499 -0.00045965 -0.00080777 0.0014079 -0.0022246
-0.00017046 0.0093341 0.25798 0.1741
1760000000 0.27737 -0.071225 0.0043207 0.0063823 -0.0022199 0.0009421 0.0013308 -0.0033947
-0.0011795 0.00066469 0.00040314 -0.000648
0.00431 0.0064065 0.24913 0.20142 0.001737 -0.0011127 -0.0011667 0.00018864
-0.0010472 0.00081544 -0.00061852 0.00036699
-0.0022333 0.00097573 0.0017131 -0.0011124 0.21026 -0.23002 0.0010891 0.0011127
-0.0011555 0.001349 -0.0013098 -0.00063724
0.0012653 -0.0034066 -0.0011686 0.00019008 0.0010885 0.0011126 0.23479 -0.048391
-0.0014155 0.007658 -0.00032112 -0.0024502
-0.0011771 0.000648 -0.0010512 0.0008462 -0.0011645 0.0013484 -0.0014093 0.0076587
0.22743 0.086814 0.0036828 0.0068857
0.00046414 -0.00064035 -0.0005521 0.00033467 -0.0013116 -0.00057172 -0.00033311 -0.0024863
0.0036785 0.0068247 0.27083 0.13656
1820000000 0.25274 -0.10852 0.0045817 0.0027955 -3.5803e-05 0.0023234 -0.00098398 -0.0030671
-0.001027 0.00077484 -9.8285e-05 -6.8658e-05
0.0045976 0.002798 0.25896 0.1711 -0.00013746 -0.00012577 -0.0013108 0.00090074
-0.00013688 0.0013227 -0.000586 0.00053009
-1.1601e-05 0.0023568 -0.0001508 -0.0001205 0.16051 -0.24548 0.0013994 0.00045749
-0.00042059 0.0022938 -0.0014136 0.00029994
-0.00099929 -0.0030845 -0.0012909 0.00089006 0.0014131 0.00048243 0.20441 -0.096049
-0.00019642 0.0061795 -0.0017077 -0.0013438
-0.0010211 0.0007597 -0.00013006 0.0013137 -0.00041491 0.0022895 -0.0001922 0.0061524
0.24465 0.057149 0.0045584 0.0034632
-8.159e-05 -0.000114 -0.0005722 0.00051258 -0.0013945 0.00030902 -0.0017256 -0.0013436
0.0045439 0.0034674 0.27362 0.10065
1880000000 0.21739 -0.14896 0.0024889 0.00037257 -0.00045976 0.0020752 -0.0029821 -0.0021838
-0.00028821 0.0015562 0.00023481 -0.00053882
0.0024772 0.00039941 0.26307 0.12436 -0.0023024 0.0015715 -0.00019445 0.0016618
0.00053561 0.00132 0.0001207 0.0009179
-0.00039123 0.0020471 -0.0023115 0.0015674 0.10805 -0.25504 0.001927 -0.00087097
0.0014209 0.0020853 -0.0010255 0.0013041
-0.0029362 -0.0022007 -0.00021537 0.0017036 0.0018973 -0.00087862 0.16307 -0.13627
0.00020478 0.0043661 -0.0024594 0.00060959
-0.0002656 0.0015574 0.00053428 0.0013617 0.0014221 0.002084 0.00019547 0.0043373
0.2474 0.023736 0.0046772 0.0013993
0.00026165 -0.00053129 0.00010232 0.0009568 -0.001006 0.0012936 -0.0024753 0.00057959
0.0046816 0.0013955 0.27324 0.066461
1940000000 0.17794 -0.17453 0.00029783 -0.0013646 0.0013703 0.0020427 -0.003844 0.00052239
0.0011584 0.00103 -0.00060613 -0.00047846
0.00028271 -0.0013559 0.26326 0.092582 -0.0012205 0.0038226 0.00098306 0.001338
0.0019168 0.00055161 0.00082511 0.000298
0.0013396 0.0019908 -0.0011979 0.0038137 0.061977 -0.24825 0.00053632 -0.0021817
0.0025017 0.00054855 0.00021039 0.0015832
-0.0038015 0.00054837 0.00094705 0.0013533 0.00053468 -0.002197 0.1103 -0.16617
-0.00090905 0.0035307 -0.0013891 0.0017066
0.0011879 0.0010077 0.001936 0.00053319 0.002532 0.00057873 -0.00094165 0.0035169
0.24846 -0.01597 0.0036616 -0.0019545
-0.00067938 -0.00057917 0.00078813 0.00027859 0.00025334 0.0015716 -0.001387 0.0017244
0.0036468 -0.0019586 0.26268 0.030766
2000000000 0.13132 -0.18918 -0.0036181 0.00049164 0.0025285 0.0016942 -0.0023316 0.0035633
0.0010501 0.0003259 -0.00073917 0.00041523
-0.0035922 0.00055036 0.24877 0.057138 -0.0010149 0.0057229 0.0016022 0.00044586
0.00145 -0.0013995 0.00050294 0.0001371
0.0025309 0.001689 -0.00099058 0.0057508 0.018544 -0.23339 -0.0012808 -0.0014804
0.0021529 -0.0011616 0.0016114 0.0013019
-0.0022834 0.0035054 0.0015922 0.00036146 -0.0013128 -0.0015304 0.05663 -0.17544
-0.0026473 0.0039526 -7.4976e-05 0.0022673
0.0010557 0.0003489 0.001466 -0.0014161 0.0021473 -0.0011741 -0.0026982 0.0039473
0.24112 -0.050442 0.00036406 -0.0027033
