!Keysight Technologies,M9804A,MY58100912,A.14.10.03
!Date: Thursday, April 27, 2023 10:28:33
!Correction: S11(C  6-Port  ) 
!S12(C  6-Port  ) 
!S13(C  6-Port  ) 
!S14(C  6-Port  ) 
!S15(C  6-Port  ) 
!S16(C  6-Port  ) 
!S21(C  6-Port  ) 
!S22(C  6-Port  ) 
!S23(C  6-Port  ) 
!S24(C  6-Port  ) 
!S25(C  6-Port  ) 
!S26(C  6-Port  ) 
!S31(C  6-Port  ) 
!S32(C  6-Port  ) 
!S33(C  6-Port  ) 
!S34(C  6-Port  ) 
!S35(C  6-Port  ) 
!S36(C  6-Port  ) 
!S41(C  6-Port  ) 
!S42(C  6-Port  ) 
!S43(C  6-Port  ) 
!S44(C  6-Port  ) 
!S45(C  6-Port  ) 
!S46(C  6-Port  ) 
!S51(C  6-Port  ) 
!S52(C  6-Port  ) 
!S53(C  6-Port  ) 
!S54(C  6-Port  ) 
!S55(C  6-Port  ) 
!S56(C  6-Port  ) 
!S61(C  6-Port  ) 
!S62(C  6-Port  ) 
!S63(C  6-Port  ) 
!S64(C  6-Port  ) 
!S65(C  6-Port  ) 
!S66(C  6-Port  ) 
!S6P File: Measurement: :
# Hz S  RI   R 50
500000000 -0.33659 -0.040427 -0.010337 -0.0022031 -0.0085005 0.012996 -0.0042479 0.01283
0.012138 0.005672 -0.0046539 0.0099119
-0.010335 -0.0021282 -0.41947 -0.052666 0.0077214 -0.010341 0.0019731 0.01219
0.0080768 0.0023952 0.002389 0.013201
-0.0084806 0.013002 0.0077281 -0.010315 -0.26554 0.20872 0.0078432 0.0034886
-0.0019583 0.007507 0.0015811 0.011531
-0.0046201 0.01265 0.0016436 0.012213 0.007584 0.0035688 -0.33147 0.040976
-0.019783 -0.0067618 0.016533 0.026576
0.012711 0.004919 0.0079571 0.0021744 -0.0018945 0.007661 -0.020275 -0.0067118
-0.22029 -0.20404 -0.027492 0.0056372
-0.0049509 0.0092351 0.0021239 0.013536 0.0014091 0.011984 0.016733 0.026287
-0.026963 0.0041353 -0.2638 -0.14074
560000000 -0.31715 0.12228 -0.023946 -0.063572 0.00013328 0.012194 0.0056581 0.010841
0.010733 0.0041437 0.011883 0.008118
-0.024136 -0.063772 -0.37748 0.10664 -0.040995 -0.037722 0.013478 0.0033212
-0.013291 -0.0053445 0.0025886 -0.00016356
0.00030895 0.012472 -0.041046 -0.037581 -0.18337 0.25767 -6.2753e-05 -0.00382
0.020375 0.0056957 0.0068784 -0.0063424
0.0057409 0.010792 0.013479 0.003657 -8.446e-05 -0.0044094 -0.30712 0.13121
0.004172 -0.022434 0.0042571 -0.021514
0.010484 0.0049923 -0.012699 -0.0044929 0.020247 0.0052868 0.0040818 -0.023594
-0.28958 -0.028345 0.0099835 -0.048965
0.011266 0.0081202 0.0029564 -0.00044774 0.0063673 -0.0056622 0.0040802 -0.022055
0.0079584 -0.048899 -0.3291 0.010764
620000000 -0.27552 0.10549 -0.023121 0.0079226 0.0030583 0.0086164 0.0082946 -0.0052897
0.011433 0.00026605 0.0026601 -0.0029564
-0.023112 0.0079886 -0.40267 0.058654 -0.018636 7.7553e-05 -0.0013948 -0.0021547
0.011798 -0.0062814 0.0010583 -0.0026937
0.0032457 0.0085135 -0.018682 0.00019007 -0.15383 0.26644 -0.0015085 -0.00496
-0.0025117 -0.0029222 0.0084857 -0.0029378
0.0079981 -0.0051491 -0.0012208 -0.0021686 -0.0015595 -0.0051059 -0.26742 0.14239
-0.03875 -0.018812 0.011566 0.025525
0.011733 0.00030427 0.011418 -0.0059743 -0.0027157 -0.0023462 -0.038043 -0.01943
-0.20694 -0.06622 -0.041433 0.016551
0.0028787 -0.0025 0.0012051 -0.0026529 0.0083422 -0.0031548 0.012037 0.026292
-0.043499 0.015308 -0.24548 -0.02909
680000000 -0.23579 0.19157 -0.027381 -0.014238 0.0049568 0.0051624 0.0016334 -0.007776
-0.0030184 -0.011537 0.0053309 -0.0066233
-0.027403 -0.014268 -0.38783 0.15665 -0.032992 -0.0013092 -0.0014491 -0.00093177
-0.0018157 -0.0086908 -0.0010457 -0.0018567
0.0049337 0.005194 -0.03302 -0.0012272 -0.10274 0.28592 -0.00056218 -0.00037622
-0.0014343 0.00080193 -0.0026523 -0.0094752
0.0015826 -0.0076363 -0.001584 -0.00084755 -0.0007653 -0.00025475 -0.22146 0.19354
-0.024361 -0.0072174 -0.010098 -0.010482
-0.0030397 -0.011252 -0.0020018 -0.0090943 -0.0018126 0.00039821 -0.024581 -0.0072717
-0.25962 0.034241 -0.0059712 -0.0085756
0.0053265 -0.0065668 -0.0011786 -0.0015271 -0.0032008 -0.009215 -0.010241 -0.01096
-0.0055052 -0.0079179 -0.26316 0.079963
740000000 -0.19108 0.18653 -0.038391 0.026839 0.012916 -0.0048031 -0.00028649 -0.0045141
-0.0041029 -0.0029794 -0.0057271 0.0024244
-0.038423 0.026841 -0.33486 0.17541 -0.035691 0.035578 -0.00066005 -0.006157
-0.012055 0.0079321 -0.0028642 -0.0060969
0.01282 -0.0048749 -0.035528 0.035688 -0.069381 0.28396 -0.0019951 0.003071
-0.0025767 -0.0051058 -0.0017617 0.00024236
-0.00030408 -0.0044443 -0.00074843 -0.006156 -0.0023402 0.0030597 -0.20485 0.20126
-0.044123 -0.0067909 0.023514 0.015668
-0.004002 -0.0029077 -0.012445 0.0080586 -0.0019019 -0.0051948 -0.044476 -0.0067662
-0.15748 0.061781 -0.043971 -0.00038427
-0.0063119 0.0025189 -0.0020511 -0.0063417 -0.0022263 -0.00010543 0.023277 0.016024
-0.04399 -0.00049412 -0.25299 0.084232
800000000 -0.15789 0.22673 -0.02238 0.016705 0.0055433 -0.010829 -0.0048809 -0.0021068
-0.0042979 0.0021936 0.0048461 8.5259e-05
-0.022394 0.01669 -0.33856 0.24562 -0.007875 0.034196 -0.0023676 0.0021206
-0.00062812 0.0030943 0.0011271 0.0053779
0.0054239 -0.010843 -0.0078107 0.034213 -0.02865 0.30741 0.00096549 0.0015181
0.00012978 0.0035846 -0.0015718 0.00088792
-0.0049055 -0.002054 -0.0024277 0.0021788 0.00095963 0.0014876 -0.17664 0.22932
-0.028859 0.014427 0.014331 -0.010779
-0.0040843 0.002065 -0.00049849 0.0031362 0.00040938 0.0035699 -0.028951 0.014324
-0.20775 0.08473 -0.017835 0.01992
0.0045949 -3.8855e-05 0.0012016 0.0052807 -0.0014916 0.00068299 0.014053 -0.010491
-0.017767 0.019511 -0.24704 0.13615
860000000 -0.12351 0.2472 -0.017472 0.030628 -0.003217 -0.010218 -0.0020225 0.0009369
0.0039043 0.0046243 -0.0036288 -0.0029913
-0.017483 0.030562 -0.2912 0.28767 0.0079746 0.034541 -0.00015275 0.0020278
0.0042185 7.8729e-05 0.0031233 0.00053616
-0.0032657 -0.010207 0.0080725 0.034548 0.019252 0.31572 -0.00064894 -0.00029898
0.0027371 -0.0018426 0.0015789 0.0042892
-0.0021498 0.00083447 -0.00012576 0.0019645 -0.00065121 -0.0002931 -0.13995 0.24045
-0.01838 0.019093 -0.0062176 -0.0088789
0.0040155 0.0046852 0.0041246 0.00038919 0.0026565 -0.0015412 -0.018222 0.019219
-0.1549 0.13732 -0.026407 0.015324
-0.0034035 -0.0031662 0.0032376 0.00058826 0.0017609 0.0042572 -0.0058565 -0.0091325
-0.026585 0.015546 -0.19372 0.18226
920000000 -0.098902 0.27009 0.0052246 0.037978 -0.0095635 -0.0046281 -0.0017053 0.0017811
0.0010593 0.0019999 0.0030309 -0.0017141
0.0051779 0.037965 -0.26222 0.30926 0.028341 0.022155 0.0016353 0.0011205
0.0072251 -0.00037769 0.0040451 -0.002669
-0.009621 -0.0045744 0.028494 0.022072 0.065627 0.31664 0.0018524 -0.00011278
0.0011813 -0.00027825 0.0010901 -0.0012777
-0.0016924 0.0018566 0.0016087 0.0010769 0.0018468 -0.00011557 -0.11627 0.25792
-0.010908 0.031615 0.0040545 -0.0068789
0.001035 0.0019556 0.0071732 -0.00043345 0.0012366 -0.00025413 -0.010753 0.031779
-0.1462 0.14352 -0.0032748 0.028358
0.0027209 -0.0017892 0.0040617 -0.0027363 0.0010452 -0.0011306 0.0041387 -0.0070659
-0.0028379 0.027907 -0.2052 0.19575
980000000 -0.051727 0.28953 0.017526 0.030251 -0.00928 0.0046847 0.0020846 0.0033437
0.0037958 -0.001335 -0.0034284 -0.0021886
0.0175 0.030256 -0.20975 0.34306 0.033419 0.0048287 0.0021346 -0.00012242
0.0014792 -0.0058789 -0.00037577 -0.0024545
-0.0092749 0.0047015 0.033484 0.0047251 0.1121 0.31015 0.00055511 -0.0011815
0.00031907 -0.0020924 0.0014706 -0.00038483
0.0021221 0.0034331 0.0021262 -7.0753e-05 0.00053304 -0.0011409 -0.077741 0.26938
0.0084147 0.031304 -0.0089802 -0.0078741
0.0039713 -0.0012475 0.0016099 -0.0059166 0.00035762 -0.0020953 0.0084889 0.031372
-0.11509 0.17302 0.0043048 0.020167
-0.0034372 -0.00217 -0.00040103 -0.0024078 0.0013809 -0.00034721 -0.0092271 -0.0076355
0.004608 0.020024 -0.16417 0.24347
1040000000 -0.0097041 0.29814 0.033455 0.018219 -0.0013717 0.0071111 0.0025079 0.0005672
6.0068e-05 -0.0037794 -0.00024938 -0.0014908
0.033427 0.018259 -0.17413 0.35642 0.029723 -0.015209 0.0014629 -0.001689
-0.0025885 -0.0027548 -0.0014592 -0.0025457
-0.0013466 0.0071453 0.029704 -0.015298 0.15837 0.29661 -0.00051617 -0.0015897
-0.001595 -0.0010689 -0.00052505 -0.0010875
0.0025144 0.00054063 0.0014275 -0.0017736 -0.00050892 -0.0016029 -0.050254 0.27994
0.020695 0.018933 -0.0023059 0.0010508
0.00012273 -0.0038028 -0.0025323 -0.0027047 -0.0015173 -0.0009372 0.020622 0.018974
-0.082446 0.18096 0.014094 0.019348
-0.0002373 -0.0014321 -0.0015029 -0.0027391 -0.00048604 -0.0011126 -0.0022996 0.0010644
0.013422 0.019354 -0.14329 0.2638
1100000000 0.035588 0.30602 0.036146 -0.0042946 0.0029125 0.0039995 0.002295 -0.0014166
-0.0019494 -0.0032171 -0.0038596 4.9696e-06
0.036105 -0.004267 -0.1307 0.37389 0.015137 -0.028358 -3.8208e-05 -0.0018232
-0.0034871 -0.00084466 -0.0036163 -0.00045457
0.0029195 0.0039791 0.015031 -0.02843 0.20524 0.27618 -0.0019254 0.00028151
-0.0018884 0.00057403 -0.0011077 -0.00030243
0.0022772 -0.0013927 -0.00010537 -0.0018025 -0.0019411 0.00026625 -0.0092333 0.28509
0.026336 0.0051183 -0.0027814 -8.6395e-05
-0.0020373 -0.0031861 -0.0034656 -0.00077831 -0.0018796 0.00050556 0.026406 0.0050777
-0.065106 0.19473 0.019415 0.0091605
-0.003971 4.1312e-05 -0.0035379 -0.00040858 -0.0010673 -0.00044421 -0.0028124 -0.00022203
0.019648 0.0092714 -0.097149 0.29581
1160000000 0.086863 0.3011 0.02412 -0.021175 0.0027546 -0.00043184 -0.00037521 -0.0022757
-0.0042116 -0.00069968 -0.0011195 0.0041961
0.024109 -0.021136 -0.086844 0.37842 -0.0041044 -0.02957 -0.0017981 -0.0016191
-0.0029635 0.0025448 -0.0015452 0.001781
0.0027453 -0.00046028 -0.004219 -0.029558 0.24844 0.24492 -0.00069097 0.0018221
-0.00066089 0.0019844 -0.00094555 0.0002483
-0.00041863 -0.0023089 -0.0017753 -0.001679 -0.00066874 0.00184 0.030362 0.28231
0.022589 -0.011407 -0.0031853 0.0051414
-0.0041943 -0.00075249 -0.0028479 0.0025959 -0.00062546 0.0020027 0.022559 -0.011463
-0.03187 0.20417 0.01896 0.00070321
-0.0010047 0.0041966 -0.0014405 0.0018554 -0.001069 0.00035713 -0.0030253 0.0050443
0.019016 0.00079614 -0.050542 0.29893
1220000000 0.13142 0.29016 0.010365 -0.030477 -0.0015621 -0.00085596 1.441e-05 -0.00080599
-0.0027578 0.0024132 0.0013758 0.0021241
0.010374 -0.030433 -0.042019 0.39051 -0.017308 -0.021281 -0.0025246 0.00051971
-1.5372e-05 0.0030139 -0.00070506 0.001954
-0.0015474 -0.0008606 -0.017443 -0.0212 0.28752 0.20535 0.00092917 0.001707
0.00063605 0.0012909 0.00036165 0.00072155
-8.2675e-07 -0.00076423 -0.0025274 0.00052768 0.00088367 0.0017012 0.070722 0.27363
0.01119 -0.018646 0.0019609 0.0014589
-0.0026797 0.0023988 -2.3507e-06 0.0030665 0.00065039 0.0012731 0.011115 -0.018737
-0.0096541 0.2136 0.015044 -0.013115
0.0014157 0.0021697 -0.00076453 0.0019717 0.00033958 0.00081271 0.0019275 0.0014761
0.0151 -0.013239 -0.019719 0.31713
1280000000 0.18129 0.26822 -0.0083489 -0.028859 -0.0018814 0.0024384 -0.00082135 -0.0019553
-0.00091145 0.003137 0.0024835 0.001095
-0.0083247 -0.028819 0.0043669 0.3813 -0.02416 -0.0083081 -0.00089755 0.001482
0.0016687 0.0018456 0.00070898 0.0021919
-0.0018798 0.0024538 -0.024245 -0.0081795 0.31753 0.16096 0.0016656 1.983e-05
0.0012171 0.00039137 0.00041172 0.00048358
-0.0008222 -0.0019109 -0.00089562 0.0015347 0.0016862 7.5516e-07 0.10786 0.25657
0.00093098 -0.020893 -0.00037368 0.00016437
-0.00087782 0.0031287 0.0016983 0.0018667 0.001151 0.00036638 0.00083395 -0.020856
0.027132 0.21778 0.0034254 -0.015537
0.0024898 0.0011847 0.00072118 0.0021714 0.00045314 0.0004085 -0.00041994 0.00020384
0.0034567 -0.015468 0.028859 0.32065
1340000000 0.21857 0.23428 -0.018124 -0.018949 0.00096791 0.0044999 -0.0016411 -0.00080433
0.0013819 0.0028207 0.0017933 -0.0013641
-0.018107 -0.018934 0.043989 0.3725 -0.02172 0.0046144 -9.1618e-05 0.0019936
0.0019092 0.0008341 0.0014396 0.00070975
0.00097679 0.0044924 -0.021731 0.0047428 0.339 0.11307 0.0011795 -0.00097545
0.00074049 -0.00042551 0.0001847 0.00035866
-0.0016407 -0.00083282 -7.539e-05 0.0019846 0.0011417 -0.00097394 0.13997 0.23564
-0.0093998 -0.017748 0.00066059 0.00069046
0.001463 0.0028742 0.0019602 0.00080263 0.00079628 -0.00045349 -0.0094269 -0.017717
0.057091 0.2134 -0.0035948 -0.014114
0.0018397 -0.0013781 0.001443 0.00072969 0.0002102 0.00036095 0.00064755 0.00063684
-0.0036435 -0.014013 0.06734 0.31693
1400000000 0.25162 0.19577 -0.023804 -0.0071484 0.0051385 0.0031614 -0.0020405 0.00055979
0.0024867 0.00096043 0.00035056 -0.0014085
-0.023787 -0.0071592 0.08124 0.35886 -0.014763 0.012779 0.0013401 0.0012774
0.0012176 -0.00080649 0.0013081 0.00019476
0.0051718 0.0031243 -0.014713 0.012852 0.35161 0.059987 0.00015691 -0.0016779
4.2621e-05 -0.00039065 0.00051532 0.00032216
-0.0020449 0.00057714 0.0013346 0.0012528 0.00014888 -0.0016927 0.16892 0.20654
-0.01583 -0.010351 -0.00092911 -0.00024573
0.0024673 0.00092261 0.0012073 -0.00083766 1.4303e-05 -0.00042851 -0.015819 -0.010355
0.089821 0.20896 -0.010268 -0.0094109
0.00031177 -0.0014333 0.0013041 0.00015396 0.00053309 0.00028268 -0.00092847 -0.0002322
-0.010247 -0.0093053 0.11315 0.30659
1460000000 0.27399 0.15135 -0.020583 0.0052194 0.0056491 -0.0018673 -0.0015437 0.0016725
0.0022232 -0.00051072 -0.00038419 -0.0010406
-0.020567 0.0051944 0.1149 0.33652 -0.005834 0.015464 0.0017328 0.00017404
0.00085561 -0.0013217 0.0011065 -0.0007529
0.0056362 -0.0018902 -0.0057666 0.015513 0.35753 0.0061511 -0.0013732 -0.0013337
0.00015654 -0.00032153 0.00054697 -0.00039926
-0.0015705 0.0017083 0.00173 0.00016011 -0.00138 -0.0013459 0.19435 0.17747
-0.01708 -0.0028157 -0.00080997 0.0023647
0.0022489 -0.0005305 0.00088593 -0.0013173 0.00019081 -0.00037087 -0.017135 -0.0027698
0.11876 0.19419 -0.012499 -0.002933
-0.00036199 -0.0010179 0.0011362 -0.00069925 0.0006014 -0.00034209 -0.0008167 0.0023058
-0.012525 -0.002926 0.14667 0.2863
1520000000 0.28572 0.10938 -0.014635 0.010792 0.003312 -0.0042249 8.0048e-05 0.0026013
0.0021453 -0.0018049 -0.0012047 -7.3747e-05
-0.014648 0.010769 0.14787 0.32166 0.0017919 0.013048 0.0016814 -0.00078022
2.1942e-05 -0.0010717 0.00032519 -0.001053
0.0032982 -0.0042163 0.0018831 0.013042 0.35101 -0.049738 -0.0011917 -0.00033419
0.00061739 -0.0008623 5.8041e-05 -0.00017912
9.0698e-05 0.0025977 0.0016831 -0.00079027 -0.0011656 -0.00033444 0.21689 0.14006
-0.015967 0.0035271 0.0016349 0.0022677
0.0021603 -0.0018388 1.3783e-05 -0.0010672 0.00059879 -0.00083068 -0.016002 0.0035698
0.14592 0.18033 -0.012285 0.0017754
-0.0011453 -7.6573e-05 0.00030831 -0.0010636 7.6173e-05 -0.00017175 0.0016839 0.0022314
-0.012294 0.0017602 0.18062 0.26683
1580000000 0.29436 0.063361 -0.0077253 0.013768 -0.00098385 -0.0049797 0.001441 0.0019042
-0.0002219 -0.0022589 -0.00033658 0.00052076
-0.0077431 0.013766 0.17451 0.29689 0.0052953 0.0080971 0.00049674 -0.0016407
-0.00059995 -0.0010302 -0.000334 -0.0007437
-0.0010359 -0.0049537 0.0053261 0.0080686 0.33081 -0.10696 -0.0016519 0.00076013
-0.00045062 -0.0010847 0.00011426 -0.00047364
0.0014417 0.0019158 0.00047038 -0.0016467 -0.0016647 0.00073329 0.23026 0.10166
-0.011856 0.0086925 0.0025519 0.0009183
-0.00031064 -0.0021621 -0.00065902 -0.0010545 -0.00037961 -0.0010831 -0.011782 0.0087362
0.16976 0.16247 -0.0096283 0.0079901
-0.00032563 0.00047255 -0.00034353 -0.00077285 0.00013604 -0.00050906 0.0025014 0.00092896
-0.0096075 0.0080225 0.21383 0.24056
1640000000 0.29606 0.022455 -0.0008127 0.012416 -0.0027242 -0.0026017 0.0027899 0.00098565
-0.00073162 -0.0016699 -0.00019997 0.00056295
-0.00081841 0.012406 0.20351 0.27233 0.0059831 0.0033337 -0.00072304 -0.0017672
-0.0010409 -0.00035134 -0.0005009 -0.0006627
-0.0027519 -0.0025774 0.0059962 0.003295 0.30283 -0.15609 -0.00056865 0.0015296
-0.0010645 -0.0010503 -0.00015389 -0.0005007
0.0028027 0.00098726 -0.00072672 -0.0017597 -0.00058425 0.0015279 0.24239 0.054262
-0.0069742 0.0098131 0.00271 -0.00082281
-0.00069558 -0.0016563 -0.0010717 -0.00033727 -0.0011581 -0.0010323 -0.0069682 0.0097962
0.19127 0.13859 -0.0045152 0.0099629
-0.00016376 0.00058442 -0.00049442 -0.00064238 -0.00012573 -0.00045412 0.0027366 -0.00083243
-0.0045745 0.0099678 0.23958 0.20989
1700000000 0.28856 -0.022266 0.0024903 0.0092382 -0.0034522 0.00010123 0.0030413 -0.0012321
-0.0021606 -0.0006835 0.00069461 0.00035359
0.0024754 0.0092363 0.22138 0.24122 0.0038777 0.00057122 -0.0015543 -0.00056457
-0.00077795 0.00011267 -0.00090038 -0.00041037
-0.0034543 0.00010304 0.0038988 0.00051497 0.25994 -0.19582 0.00052324 0.0016595
-0.0020875 -0.00013266 -0.00052181 -0.00079715
0.00304 -0.0012524 -0.0015618 -0.00054957 0.00048842 0.0016564 0.23991 0.0061305
-0.0039489 0.010142 0.0015944 -0.0023437
-0.0021503 -0.00073429 -0.00077524 0.00011434 -0.0020637 -0.000157 -0.0039626 0.010118
0.20777 0.11907 0.00041156 0.010102
0.00071405 0.00036768 -0.00089755 -0.00040806 -0.00043431 -0.00080813 0.0016528 -0.0023708
0.00043304 0.010132 0.25692 0.17562
1760000000 0.27641 -0.070196 0.0045227 0.0058038 -0.0023683 0.00098627 0.0012347 -0.0035104
-0.0013255 0.00076798 0.0004349 -0.00067824
0.0044986 0.0058003 0.24718 0.2019 0.0015457 -0.0012311 -0.001204 0.00026011
-0.00092131 0.00093335 -0.00052622 0.00042205
-0.0023116 0.0010242 0.0015179 -0.0012347 0.21119 -0.22931 0.0012265 0.0010107
-0.0012094 0.0015298 -0.0014243 -0.00056375
0.0012333 -0.0034985 -0.0012236 0.00026309 0.0012549 0.0010896 0.23218 -0.044036
-0.00059864 0.0089896 -9.473e-05 -0.0026873
-0.0013939 0.00078944 -0.00092922 0.00093079 -0.0011809 0.0015719 -0.0006088 0.0090687
0.22182 0.08512 0.0045925 0.0072999
0.00037047 -0.00062907 -0.00053477 0.00043001 -0.0013954 -0.00060522 -0.00017504 -0.0027005
0.0045853 0.0073307 0.27016 0.13795
1820000000 0.25221 -0.10704 0.0044375 0.0023295 -0.00015067 0.0024977 -0.001047 -0.0030518
-0.0011499 0.0010479 -7.2701e-05 -6.2972e-05
0.00443 0.0023262 0.25736 0.17236 -0.00041181 -0.00011497 -0.0012112 0.0010516
6.3456e-05 0.0012497 -0.00048066 0.00050018
-0.00011093 0.0025194 -0.00040616 -0.00010486 0.16104 -0.24549 0.0015184 0.00043094
-6.7585e-05 0.0022853 -0.0013449 0.00029634
-0.0010708 -0.003032 -0.0012188 0.001045 0.0015055 0.00034123 0.20432 -0.090883
0.00083532 0.0072669 -0.0016143 -0.0017706
-0.0011197 0.0010543 4.9984e-05 0.0012391 -9.5569e-05 0.0024155 0.00091921 0.0072847
0.23858 0.057268 0.0055783 0.0035247
-0.00010477 -6.5359e-05 -0.00048131 0.00051912 -0.0013707 0.00036445 -0.0016035 -0.0017078
0.0055891 0.0035129 0.27318 0.10205
1880000000 0.21765 -0.14718 0.0021494 0.00023159 -0.0003945 0.0020109 -0.0029814 -0.0021301
-9.625e-05 0.0017514 0.00024416 -0.00045295
0.0021485 0.00022365 0.26211 0.12609 -0.0023713 0.001593 -0.00010814 0.0016659
0.00054127 0.0011212 9.3796e-05 0.00087648
-0.00038309 0.0020431 -0.0023501 0.0016188 0.10882 -0.25529 0.0016487 -0.0010444
0.0015146 0.0018962 -0.00098278 0.0013519
-0.0029575 -0.0020795 -0.00010015 0.0016755 0.0015921 -0.0010168 0.16564 -0.13167
0.0017207 0.0053262 -0.0026189 0.00020118
-9.5105e-05 0.0017322 0.00054593 0.0010968 0.0015855 0.0018855 0.0017533 0.0052846
0.24158 0.026209 0.0056544 0.0010116
0.0002395 -0.00052353 0.00010683 0.00089034 -0.00096248 0.0012715 -0.0026179 0.00016584
0.005625 0.0009836 0.27323 0.067418
1940000000 0.17866 -0.17316 2.1887e-06 -0.0013596 0.0013969 0.0019848 -0.0036579 0.00056071
0.0014592 0.0009396 -0.00066751 -0.00043499
1.8864e-05 -0.0013519 0.26305 0.094486 -0.0011849 0.0038754 0.0010781 0.0012848
0.0017458 0.00045333 0.00075326 0.00024331
0.0014286 0.0019838 -0.0011309 0.0039129 0.0625 -0.24848 0.00031858 -0.0020966
0.0024305 0.00040973 0.00019436 0.0017177
-0.0036551 0.00057678 0.0010739 0.0012736 0.00036212 -0.0020877 0.11459 -0.16369
0.0010883 0.0038262 -0.0015967 0.0013726
0.0013906 0.00091694 0.0017297 0.00041514 0.002388 0.0004045 0.0010161 0.0038358
0.24419 -0.011582 0.0042699 -0.0026681
-0.00067596 -0.00054979 0.00077504 0.00022618 0.00026176 0.0016865 -0.0016245 0.0014013
0.004221 -0.0026312 0.2626 0.031615
2000000000 0.13261 -0.18816 -0.0037367 0.00064747 0.0024586 0.0016088 -0.0022706 0.0034044
0.0011075 -6.2305e-05 -0.00074208 0.00036131
-0.0037136 0.00065328 0.24936 0.058964 -0.0010273 0.0057273 0.0015353 0.00035061
0.0012438 -0.0013364 0.00040881 0.00010082
0.0025102 0.0015993 -0.0009971 0.0057192 0.018787 -0.23379 -0.0013668 -0.0012469
0.0019105 -0.0012956 0.0015824 0.001281
-0.0023112 0.0035123 0.0015802 0.00031545 -0.0013105 -0.001225 0.061215 -0.17542
-0.00050885 0.0032764 -0.00030311 0.0022481
0.00106 -4.5689e-05 0.0012363 -0.0012735 0.0018209 -0.0012616 -0.00047912 0.0032901
0.23912 -0.045015 0.00063962 -0.0035294
