!Keysight Technologies,M9804A,MY58100912,A.14.10.03
!Date: Thursday, April 27, 2023 10:28:33
!Correction: S11(C  6-Port  ) 
!S12(C  6-Port  ) 
!S13(C  6-Port  ) 
!S14(C  6-Port  ) 
!S15(C  6-Port  ) 
!S16(C  6-Port  ) 
!S21(C  6-Port  ) 
!S22(C  6-Port  ) 
!S23(C  6-Port  ) 
!S24(C  6-Port  ) 
!S25(C  6-Port  ) 
!S26(C  6-Port  ) 
!S31(C  6-Port  ) 
!S32(C  6-Port  ) 
!S33(C  6-Port  ) 
!S34(C  6-Port  ) 
!S35(C  6-Port  ) 
!S36(C  6-Port  ) 
!S41(C  6-Port  ) 
!S42(C  6-Port  ) 
!S43(C  6-Port  ) 
!S44(C  6-Port  ) 
!S45(C  6-Port  ) 
!S46(C  6-Port  ) 
!S51(C  6-Port  ) 
!S52(C  6-Port  ) 
!S53(C  6-Port  ) 
!S54(C  6-Port  ) 
!S55(C  6-Port  ) 
!S56(C  6-Port  ) 
!S61(C  6-Port  ) 
!S62(C  6-Port  ) 
!S63(C  6-Port  ) 
!S64(C  6-Port  ) 
!S65(C  6-Port  ) 
!S66(C  6-Port  ) 
!S6P File: Measurement: :
# Hz S  RI   R 50
500000000 -0.33615 -0.039403 -0.0092288 -0.0023306 -0.0075584 0.012422 -0.0039312 0.012266
0.01272 0.0044209 -0.0045806 0.0089539
-0.0092098 -0.0023454 -0.41882 -0.052027 0.0081943 -0.011036 0.001529 0.011337
0.0078941 0.0025363 0.0016732 0.01243
-0.0075358 0.012419 0.0081849 -0.01105 -0.26476 0.20852 0.0078357 0.0030846
-0.001714 0.0078832 0.0018742 0.011608
-0.0038877 0.012266 0.0015374 0.011355 0.0078415 0.0030824 -0.32973 0.043513
-0.017829 -0.0057648 0.016632 0.025743
0.012624 0.0044024 0.0079136 0.0025101 -0.0017241 0.0078854 -0.017845 -0.0057242
-0.22379 -0.19613 -0.024934 0.0055752
-0.0044961 0.0089668 0.0017161 0.012437 0.0018443 0.011654 0.016616 0.025751
-0.024905 0.0054891 -0.26406 -0.13443
560000000 -0.31492 0.12246 -0.024153 -0.063936 0.00022608 0.011893 0.0054603 0.010503
0.010289 0.0042574 0.011381 0.0076325
-0.024068 -0.0639 -0.37818 0.10638 -0.040735 -0.03785 0.013842 0.0037965
-0.01321 -0.0041879 0.0029711 -0.00013646
0.00025648 0.011889 -0.040864 -0.037798 -0.18306 0.25649 -0.00080085 -0.0043954
0.019132 0.004074 0.0071904 -0.0063093
0.0055031 0.010512 0.013874 0.003791 -0.00081196 -0.0043785 -0.30485 0.13166
0.0046738 -0.02354 0.0043753 -0.021592
0.010361 0.0042261 -0.013152 -0.0040932 0.019028 0.0040421 0.0047716 -0.023611
-0.28912 -0.021859 0.0088865 -0.049032
0.011443 0.0076894 0.003007 -0.00015363 0.0071784 -0.0063087 0.004273 -0.021628
0.0088226 -0.048936 -0.32839 0.014963
620000000 -0.2748 0.10608 -0.023218 0.0075334 0.0026987 0.0084513 0.0078585 -0.0057819
0.011304 -0.00023555 0.0018218 -0.002879
-0.023202 0.0075168 -0.40207 0.05902 -0.018421 -0.00032059 -0.0015055 -0.0020229
0.011086 -0.0069908 0.0014924 -0.0035235
0.0027266 0.0084652 -0.018459 -0.00027538 -0.15382 0.26533 -0.0015356 -0.0051887
-0.0034906 -0.0030338 0.0082952 -0.0037217
0.0078347 -0.0058097 -0.0015174 -0.0020175 -0.001532 -0.0051819 -0.26551 0.14338
-0.036942 -0.020015 0.011933 0.026278
0.011244 -0.00026062 0.011066 -0.007027 -0.003517 -0.0029343 -0.036954 -0.019956
-0.20887 -0.059221 -0.041356 0.013469
0.0017673 -0.0028347 0.0014844 -0.0035908 0.0083287 -0.0036083 0.011904 0.026401
-0.041449 0.013362 -0.25003 -0.021919
680000000 -0.23457 0.19154 -0.027497 -0.014686 0.004934 0.0052294 0.0010717 -0.0072349
-0.0034063 -0.011172 0.0048059 -0.0067414
-0.027459 -0.014685 -0.38779 0.15643 -0.033056 -0.0015867 -0.001944 -0.00045691
-0.0021482 -0.0084531 -0.001269 -0.0018612
0.004939 0.0052185 -0.033089 -0.0014947 -0.10282 0.28568 -0.00084508 -5.2642e-05
-0.001864 0.0011603 -0.0029226 -0.009095
0.0010535 -0.0072378 -0.0019391 -0.00046235 -0.00084522 -5.9624e-05 -0.22114 0.19278
-0.02396 -0.0082449 -0.0097571 -0.010837
-0.0034156 -0.011156 -0.0022046 -0.0084506 -0.0018606 0.001163 -0.023946 -0.008209
-0.2581 0.039006 -0.0050032 -0.0091445
0.0047912 -0.0067492 -0.0012661 -0.0018604 -0.0029406 -0.0090872 -0.0097343 -0.010865
-0.0051126 -0.009174 -0.26148 0.084236
740000000 -0.19079 0.18616 -0.038764 0.02646 0.01281 -0.004889 -0.00012274 -0.0043191
-0.0043332 -0.0025871 -0.0059446 0.0023967
-0.038744 0.026435 -0.3354 0.17552 -0.035636 0.035109 -0.00070957 -0.0060087
-0.011383 0.0086138 -0.0018609 -0.0062048
0.012781 -0.0049352 -0.035559 0.035252 -0.069522 0.28431 -0.0019488 0.0031725
-0.0018811 -0.0048673 -0.0019882 -0.00031424
-0.0001342 -0.0043087 -0.00071486 -0.006021 -0.0019529 0.0031808 -0.20412 0.20078
-0.043636 -0.0074809 0.02284 0.014899
-0.0043963 -0.0025685 -0.01138 0.0086385 -0.0018395 -0.0048996 -0.043603 -0.0074334
-0.15964 0.064688 -0.04359 -0.00063179
-0.0059394 0.0024685 -0.001952 -0.0062676 -0.0019534 -0.00028675 0.022803 0.014881
-0.043589 -0.00067567 -0.24901 0.089687
800000000 -0.15823 0.22679 -0.022738 0.016681 0.0053399 -0.010644 -0.0047938 -0.0018609
-0.0040211 0.002266 0.0045958 0.00059057
-0.022733 0.016657 -0.3387 0.24591 -0.0080615 0.034214 -0.0023179 0.0021976
-0.00039448 0.0031207 0.0010006 0.005155
0.0053186 -0.010665 -0.0079697 0.034274 -0.028713 0.30804 0.0011947 0.0014812
0.00038766 0.0034016 -0.0017717 0.0010113
-0.0048073 -0.0018407 -0.0023138 0.0022062 0.0011966 0.0014736 -0.17635 0.22871
-0.029167 0.013677 0.013556 -0.0099877
-0.0040024 0.0022888 -0.00038152 0.0031448 0.00041565 0.0034367 -0.029187 0.013664
-0.20776 0.08818 -0.018108 0.018929
0.0046114 0.00058561 0.0010312 0.0051257 -0.0017587 0.0010227 0.013576 -0.01001
-0.018075 0.018864 -0.24503 0.14008
860000000 -0.12374 0.24747 -0.017766 0.030907 -0.0034957 -0.0099873 -0.0023808 0.0010235
0.0042315 0.0049147 -0.0032132 -0.0031946
-0.017775 0.030872 -0.29128 0.2882 0.0079199 0.034448 0.00011218 0.0019376
0.0043029 -9.0019e-05 0.003415 0.0006219
-0.0035222 -0.0099877 0.0080273 0.034447 0.019521 0.31629 -0.00061381 -0.00033821
0.002663 -0.0016225 0.0014467 0.0044151
-0.0023866 0.001018 0.00013216 0.0019339 -0.00061518 -0.00033775 -0.14008 0.2406
-0.018514 0.019077 -0.0059176 -0.0095622
0.0042373 0.0049238 0.0042644 -0.00014064 0.002613 -0.0016086 -0.01851 0.019077
-0.1575 0.14001 -0.026056 0.015001
-0.0031742 -0.0032058 0.0034229 0.00062168 0.0014896 0.0044172 -0.0059609 -0.0095492
-0.026041 0.015103 -0.19324 0.18709
920000000 -0.098865 0.27083 0.0050179 0.038245 -0.0095651 -0.0042649 -0.0017795 0.0020933
0.001266 0.0018367 0.0025381 -0.0015491
0.00499 0.038212 -0.26223 0.30977 0.028293 0.022153 0.0015057 0.0010778
0.0068905 -0.00077094 0.0039475 -0.0026356
-0.0095789 -0.0042509 0.028397 0.022087 0.06605 0.31688 0.0018159 -8.4356e-05
0.0011833 -0.00040116 0.00095117 -0.00090934
-0.0017788 0.0020893 0.0015179 0.0010846 0.0018145 -8.005e-05 -0.11618 0.25795
-0.011047 0.031011 0.0036463 -0.0063581
0.0012957 0.0018311 0.0069004 -0.00079459 0.0011779 -0.00040215 -0.011011 0.031027
-0.14799 0.14696 -0.0032999 0.027441
0.0025871 -0.0016224 0.0039141 -0.0026559 0.00092205 -0.00094221 0.0035547 -0.0063688
-0.0033273 0.02749 -0.20283 0.20046
980000000 -0.05141 0.29036 0.017535 0.030272 -0.0089763 0.0047758 0.0021837 0.0036136
0.0039673 -0.0012016 -0.0032087 -0.0022433
0.017482 0.030256 -0.20932 0.34371 0.033391 0.004874 0.0020741 -5.4126e-05
0.0012006 -0.0057516 -0.00027349 -0.0024989
-0.008955 0.0047901 0.033425 0.0047703 0.11249 0.3102 0.00049918 -0.0011255
0.00020831 -0.0020493 0.0015635 -0.00024354
0.0021822 0.0036055 0.0020771 -4.4545e-05 0.00050105 -0.0011292 -0.077891 0.26968
0.0079039 0.03009 -0.0094005 -0.0073517
0.0039625 -0.0012695 0.0011702 -0.0057696 0.00022058 -0.0020456 0.0079512 0.030102
-0.11708 0.17615 0.004443 0.019445
-0.0032144 -0.002187 -0.00024916 -0.0024604 0.0015638 -0.00022873 -0.0094067 -0.007319
0.0044302 0.019499 -0.16079 0.24643
1040000000 -0.0089883 0.29877 0.033383 0.018317 -0.001165 0.0070894 0.002659 0.00058884
0.00010923 -0.0038839 -0.00022164 -0.0013188
0.033333 0.018353 -0.17355 0.35679 0.029548 -0.015023 0.0013687 -0.0017519
-0.0026799 -0.0024585 -0.0014469 -0.002397
-0.0011268 0.0070737 0.029508 -0.01514 0.15871 0.29645 -0.00050098 -0.0015293
-0.0015599 -0.00084835 -0.00031578 -0.0011626
0.0026483 0.00056873 0.001389 -0.0017418 -0.0004937 -0.0015277 -0.049949 0.28007
0.019627 0.018361 -0.002442 0.0017442
9.7391e-05 -0.0039041 -0.002707 -0.0024218 -0.0015708 -0.00084673 0.019663 0.018335
-0.084695 0.18518 0.013295 0.018959
-0.00024381 -0.0013215 -0.0014559 -0.0023841 -0.00032138 -0.0011584 -0.0024363 0.0017181
0.013266 0.018977 -0.13918 0.26675
1100000000 0.036494 0.30633 0.03608 -0.0042329 0.0031143 0.0039466 0.0023827 -0.0014395
-0.0020163 -0.0031202 -0.003859 -1.5897e-05
0.036047 -0.0041934 -0.13005 0.3742 0.015164 -0.028023 -7.1259e-05 -0.0018039
-0.0032057 -0.00060166 -0.0033908 -0.00048436
0.0031414 0.0039298 0.015065 -0.028111 0.20515 0.27601 -0.0018313 0.00030165
-0.0017888 0.00052928 -0.0010273 -0.00052072
0.0023791 -0.0014514 -6.9683e-05 -0.0018023 -0.0018302 0.0003048 -0.0092233 0.2852
0.024777 0.0049806 -0.0025275 0.00028787
-0.0020179 -0.0031188 -0.0032295 -0.0005746 -0.0017936 0.00054538 0.024775 0.0049553
-0.066892 0.19929 0.019023 0.0090454
-0.0038286 1.2989e-06 -0.0033953 -0.00044004 -0.0010396 -0.00048921 -0.0025116 0.00032336
0.019012 0.0090215 -0.093568 0.2974
1160000000 0.087889 0.30136 0.02412 -0.020826 0.0028699 -0.00064739 -0.00040152 -0.0024869
-0.0042732 -0.00072546 -0.00084871 0.0041153
0.024103 -0.020774 -0.086048 0.3783 -0.0038389 -0.029281 -0.0017789 -0.0016455
-0.0025587 0.0024731 -0.0012984 0.0018772
0.0028854 -0.00065561 -0.0039792 -0.029281 0.24828 0.24498 -0.00061321 0.001706
-0.00060594 0.0018671 -0.0010237 0.0002438
-0.00041265 -0.0024938 -0.0017778 -0.0016368 -0.00061512 0.0017111 0.030635 0.28232
0.021096 -0.010548 -0.0027967 0.005451
-0.0042716 -0.00073193 -0.0025646 0.0024955 -0.00060332 0.0018487 0.021089 -0.010575
-0.032975 0.20946 0.018375 0.00099986
-0.00082089 0.0041131 -0.001276 0.0018834 -0.0010353 0.00025626 -0.0027943 0.0054486
0.01834 0.0010123 -0.0466 0.30065
1220000000 0.13222 0.28991 0.010515 -0.030237 -0.0015145 -0.001071 -0.00012753 -0.0008942
-0.0026724 0.002506 0.0013954 0.0020056
0.010521 -0.030189 -0.041488 0.39012 -0.017042 -0.021116 -0.0024806 0.00046902
0.00010845 0.0028556 -0.00077319 0.0018426
-0.0015137 -0.001066 -0.017166 -0.021066 0.28746 0.20566 0.00079823 0.0015164
0.00053754 0.0010692 0.00024247 0.00063718
-0.0001253 -0.00089824 -0.0024806 0.00048191 0.00079615 0.0015276 0.070514 0.27355
0.010195 -0.017191 0.0024682 0.0014972
-0.0026617 0.0025082 0.00011311 0.0028468 0.00054211 0.0010806 0.010175 -0.017181
-0.01018 0.21906 0.014494 -0.012571
0.0014016 0.0019996 -0.00076428 0.0018493 0.00025299 0.00063731 0.0024672 0.0014967
0.014484 -0.012572 -0.015704 0.31801
1280000000 0.18198 0.26777 -0.0078985 -0.028655 -0.0019335 0.0023349 -0.000943 -0.001876
-0.00071876 0.0031105 0.002472 0.001054
-0.0078799 -0.028629 0.0046044 0.38076 -0.02385 -0.0083348 -0.0008922 0.0014371
0.0016092 0.0016859 0.00062531 0.0021033
-0.0019213 0.0023404 -0.023916 -0.008226 0.3177 0.16158 0.0015021 -8.6696e-05
0.0010237 0.00031578 0.00042104 0.00042437
-0.00094612 -0.0018744 -0.00088686 0.0014353 0.0015064 -8.8151e-05 0.1074 0.25694
0.00070973 -0.018929 0.00017208 -2.9144e-05
-0.00071377 0.0031195 0.001618 0.0016785 0.0010251 0.00031494 0.00067948 -0.018923
0.026763 0.22322 0.0035224 -0.014707
0.0024785 0.001044 0.00062934 0.0021097 0.00042741 0.00043009 0.00017475 -1.9729e-05
0.0035259 -0.014702 0.032878 0.32071
1340000000 0.219 0.23365 -0.017631 -0.019116 0.00075771 0.004365 -0.0016619 -0.00073959
0.0014909 0.0026707 0.0016522 -0.0014431
-0.017602 -0.019113 0.043882 0.37206 -0.021528 0.0042826 -0.00010915 0.0019114
0.0017913 0.00076414 0.0013298 0.00076239
0.00077155 0.0043666 -0.021532 0.0044016 0.33941 0.11368 0.001 -0.00083926
0.00068567 -0.00045557 0.00025665 0.00033524
-0.0016702 -0.00073807 -9.923e-05 0.0019183 0.0010057 -0.00085173 0.13963 0.23643
-0.0085921 -0.015891 0.0010019 0.00021808
0.0015032 0.0026669 0.001795 0.00076125 0.00068193 -0.00043505 -0.0086294 -0.015896
0.057326 0.21894 -0.0031531 -0.013401
0.0016385 -0.0014531 0.0013375 0.00077166 0.00026941 0.00033402 0.00099337 0.00021611
-0.0031558 -0.013397 0.071254 0.31671
1400000000 0.25163 0.1951 -0.023485 -0.0076162 0.0049665 0.0030868 -0.0019537 0.00063853
0.0024374 0.00085234 0.00030992 -0.0013517
-0.023455 -0.0076219 0.080897 0.35863 -0.014748 0.012341 0.001242 0.0012771
0.0010411 -0.00075192 0.0012658 0.0002316
0.0049828 0.0030675 -0.014703 0.012439 0.3525 0.060257 0.0001383 -0.0015219
3.936e-06 -0.00036973 0.00049318 0.00023409
-0.0019509 0.00064993 0.0012564 0.0012623 0.00014259 -0.0015211 0.16889 0.20779
-0.014161 -0.0092356 -0.00082335 -0.00072109
0.0024596 0.0008305 0.0010423 -0.00074581 -4.3335e-06 -0.00037349 -0.014194 -0.0091981
0.090519 0.21465 -0.0095293 -0.0089567
0.00029749 -0.0013457 0.0012685 0.00022106 0.00048737 0.00024368 -0.00082515 -0.00072477
-0.0095157 -0.0089656 0.11681 0.30594
1460000000 0.27383 0.15101 -0.020595 0.0046293 0.005482 -0.0018406 -0.0015651 0.0016221
0.0020717 -0.00066556 -0.00033828 -0.00092609
-0.020579 0.004614 0.11458 0.33664 -0.0060798 0.015145 0.0016929 0.00020666
0.00092084 -0.0012169 0.0011684 -0.00058704
0.0054736 -0.0018818 -0.0060047 0.015204 0.35852 0.0061656 -0.0012163 -0.0011685
0.00013986 -0.00027936 0.00066484 -0.00031336
-0.0015585 0.001632 0.0016947 0.00021043 -0.0012199 -0.0011723 0.19514 0.17898
-0.01506 -0.0025456 -0.0010764 0.0017967
0.0020629 -0.00067226 0.00091515 -0.0012261 0.0001443 -0.00028683 -0.015068 -0.0025074
0.11995 0.20015 -0.011627 -0.0031291
-0.00035641 -0.00092978 0.0011588 -0.0006066 0.00065015 -0.0003004 -0.0010647 0.0017887
-0.011613 -0.0031366 0.15028 0.28555
1520000000 0.2855 0.10945 -0.01496 0.010332 0.0031761 -0.0040433 4.7707e-05 0.0025407
0.0019908 -0.0017175 -0.001056 -7.051e-05
-0.014964 0.010322 0.1477 0.32195 0.0014513 0.012976 0.0016119 -0.00071985
2.6662e-05 -0.0010125 0.00032903 -0.001046
0.0031568 -0.0040534 0.0015201 0.012985 0.35151 -0.050244 -0.0010107 -0.0003435
0.00058896 -0.00084945 9.748e-06 -0.00014218
6.0114e-05 0.0025379 0.0016077 -0.0007329 -0.0010155 -0.00035115 0.21841 0.14144
-0.014232 0.0028192 0.0012274 0.0019906
0.0019756 -0.0017431 2.1302e-05 -0.0010078 0.00060665 -0.00085793 -0.014248 0.0028607
0.14773 0.18618 -0.011572 0.0012862
-0.0010549 -6.2935e-05 0.00032468 -0.0010585 8.6031e-06 -0.00014514 0.0012302 0.0019853
-0.011578 0.0012848 0.18393 0.26547
1580000000 0.29451 0.063623 -0.0082357 0.013539 -0.00093458 -0.0046568 0.0013034 0.0018878
-0.0004103 -0.0020421 -0.0002901 0.00039377
-0.0082359 0.013521 0.17461 0.29735 0.0049883 0.0082387 0.00049965 -0.0015614
-0.00055005 -0.0010433 -0.00029029 -0.00078258
-0.00096058 -0.004652 0.0050448 0.0082239 0.33115 -0.10771 -0.0015452 0.00056909
-0.0003234 -0.0011068 0.00019363 -0.00043468
0.0013103 0.001883 0.00047949 -0.0015641 -0.0015403 0.00056589 0.23261 0.10249
-0.010711 0.0074492 0.0021253 0.00090304
-0.00043378 -0.002042 -0.0005505 -0.0010359 -0.00032804 -0.0011032 -0.010697 0.0074796
0.17216 0.16846 -0.0092836 0.0071656
-0.00028177 0.00039783 -0.00030302 -0.00077796 0.00020538 -0.00043381 0.0021162 0.00090954
-0.0092751 0.0071459 0.21674 0.23864
1640000000 0.29644 0.022756 -0.0014241 0.012493 -0.0026053 -0.002521 0.00269 0.0010312
-0.00067867 -0.0014067 -0.00018155 0.0004572
-0.001427 0.012484 0.20388 0.27263 0.00579 0.0036023 -0.00062703 -0.0017165
-0.00098162 -0.00039263 -0.00047157 -0.00066534
-0.0026196 -0.0025059 0.0058224 0.0035699 0.30292 -0.15657 -0.00068579 0.0013749
-0.00097874 -0.00099773 -0.0001491 -0.00042011
0.0026901 0.001015 -0.00063854 -0.001715 -0.00068809 0.0013728 0.24529 0.053915
-0.0065611 0.0083763 0.002396 -0.00067385
-0.00069818 -0.0014038 -0.00098438 -0.00039525 -0.00097577 -0.00099366 -0.0065569 0.008398
0.19468 0.14426 -0.0047372 0.0091305
-0.00017316 0.00045791 -0.00048678 -0.00066052 -0.00016288 -0.00040866 0.00238 -0.00067836
-0.0047569 0.0091239 0.24242 0.20777
1700000000 0.28935 -0.022367 0.0020959 0.009666 -0.0033807 0.00017309 0.0030561 -0.0011172
-0.001959 -0.00054891 0.00057109 0.00038881
0.0020855 0.0096642 0.22185 0.24136 0.0038475 0.00075763 -0.0014465 -0.00056938
-0.00079523 8.0332e-05 -0.00089141 -0.00040885
-0.0033816 0.00019811 0.0038631 0.00073742 0.25961 -0.19626 0.00045057 0.0016584
-0.0018552 -0.00019438 -0.00044026 -0.00082499
0.0030545 -0.0011262 -0.0014588 -0.00056693 0.00044501 0.001651 0.24254 0.0043782
-0.0041154 0.0087376 0.0014614 -0.002113
-0.0019596 -0.00052843 -0.0007925 9.2776e-05 -0.001852 -0.00017853 -0.0040815 0.0087568
0.21199 0.12432 3.3016e-06 0.0094112
0.00057641 0.00038298 -0.00090759 -0.00041027 -0.00044976 -0.00084025 0.0014535 -0.002112
1.3869e-05 0.0093962 0.25902 0.17304
1760000000 0.27716 -0.070737 0.0044526 0.0063135 -0.0021028 0.00085302 0.0013555 -0.0033647
-0.0012067 0.00071983 0.00042348 -0.00055821
0.004442 0.0063187 0.24773 0.20178 0.0016564 -0.0011342 -0.0011936 0.00019181
-0.00097757 0.00086646 -0.00052809 0.00041381
-0.0021016 0.00087009 0.001653 -0.0011332 0.21124 -0.22983 0.0010909 0.0011019
-0.0011461 0.0013893 -0.0012823 -0.00051492
0.0013436 -0.0033727 -0.001191 0.00019607 0.001092 0.001103 0.23381 -0.046964
-0.0011213 0.0079113 -0.00020292 -0.0024557
-0.0012076 0.00072494 -0.00095834 0.00087053 -0.0011482 0.0013802 -0.0010993 0.0079123
0.22679 0.089506 0.0038719 0.0068905
0.00041652 -0.00055699 -0.00052992 0.00041633 -0.0013099 -0.00051585 -0.0001985 -0.0024479
0.003872 0.0068813 0.27191 0.13538
1820000000 0.25265 -0.10788 0.004659 0.0027652 0.00010112 0.0024088 -0.00093507 -0.0030849
-0.00097224 0.00086274 -5.9672e-05 -5.768e-05
0.0046569 0.0027636 0.25778 0.17201 -0.00023467 0.00011794 -0.0012757 0.00091984
-2.4462e-05 0.0013072 -0.00052039 0.00049439
0.00012252 0.0023968 -0.00023177 0.00011831 0.16083 -0.24529 0.0015822 0.00041497
-0.00034833 0.002268 -0.0014171 0.0002792
-0.00095121 -0.003093 -0.001266 0.00092555 0.0015844 0.00042285 0.20428 -0.09414
0.00010677 0.0064127 -0.0015631 -0.001436
-0.00096094 0.00089634 -6.0846e-06 0.0013127 -0.00031621 0.0022747 0.00012118 0.0064287
0.24391 0.060718 0.0047547 0.0034004
-6.194e-05 -7.3588e-05 -0.00051183 0.00049052 -0.0014325 0.00025472 -0.0015752 -0.0014411
0.0047595 0.0033991 0.27436 0.099331
1880000000 0.21767 -0.14819 0.0025049 0.00046346 -0.00040304 0.0020823 -0.0029803 -0.0022321
-0.00015408 0.0014977 0.00036979 -0.00052563
0.0025079 0.00046628 0.26233 0.12566 -0.0022577 0.0017232 -0.00016818 0.0016583
0.00062934 0.0011662 0.00013703 0.00094156
-0.00038502 0.0020743 -0.0022467 0.0017373 0.10808 -0.25517 0.0018182 -0.001031
0.0014588 0.0019657 -0.0010372 0.0013141
-0.0029835 -0.0022141 -0.00015984 0.0016641 0.0018166 -0.0010337 0.16411 -0.13446
0.00067682 0.0046859 -0.0023943 0.00051118
-0.0001448 0.0014946 0.00063701 0.001164 0.0014632 0.0019538 0.00068401 0.0046622
0.24684 0.028394 0.0048069 0.0012817
0.00036871 -0.00052318 0.00014493 0.00093959 -0.0010525 0.0013485 -0.0023928 0.00052065
0.004788 0.001274 0.27393 0.065042
1940000000 0.17843 -0.17399 0.00036877 -0.0013006 0.0013044 0.00176 -0.0038485 0.00059206
0.0011773 0.00093789 -0.00067615 -0.00062326
0.00037423 -0.0013038 0.2631 0.094004 -0.00094782 0.0038598 0.00099723 0.0013269
0.0018087 0.00040962 0.00083769 0.00025786
0.0013247 0.0017513 -0.00091594 0.0038774 0.062578 -0.24798 0.00042067 -0.0022542
0.0024993 0.00046853 0.00022287 0.0016975
-0.0038492 0.00060762 0.0010068 0.0013115 0.00042064 -0.0022551 0.11215 -0.16523
-0.00023808 0.0037443 -0.0013781 0.0015047
0.0011766 0.00092573 0.0018149 0.00039313 0.0024721 0.0004655 -0.00022479 0.0037463
0.24873 -0.010216 0.0037013 -0.0020786
-0.00067401 -0.0006242 0.00083867 0.00024538 0.00025654 0.0016794 -0.001368 0.0014923
0.0037211 -0.0020614 0.26315 0.029155
2000000000 0.13196 -0.18897 -0.0033153 0.00049331 0.0024803 0.0015523 -0.002182 0.0035267
0.0011215 0.00021631 -0.0007733 0.00033548
-0.0033063 0.00048306 0.24921 0.058456 -0.00079706 0.0056175 0.0016136 0.00042192
0.0012493 -0.0013781 0.0005059 6.4961e-05
0.0024935 0.0015336 -0.00075333 0.0056308 0.018889 -0.23345 -0.0014171 -0.0013252
0.0019539 -0.001179 0.0016582 0.0013256
-0.0021682 0.0035339 0.0016224 0.00040001 -0.0014226 -0.0013307 0.058725 -0.17556
-0.0017551 0.0037155 -6.4896e-05 0.0021491
0.001111 0.0002 0.001234 -0.0013695 0.0019416 -0.0011761 -0.0017412 0.0037272
0.24266 -0.044034 0.00025044 -0.002836
