!Keysight Technologies,M9804A,MY58100912,A.14.10.03
!Date: Thursday, April 27, 2023 10:28:33
!Correction: S11(C  6-Port  ) 
!S12(C  6-Port  ) 
!S13(C  6-Port  ) 
!S14(C  6-Port  ) 
!S15(C  6-Port  ) 
!S16(C  6-Port  ) 
!S21(C  6-Port  ) 
!S22(C  6-Port  ) 
!S23(C  6-Port  ) 
!S24(C  6-Port  ) 
!S25(C  6-Port  ) 
!S26(C  6-Port  ) 
!S31(C  6-Port  ) 
!S32(C  6-Port  ) 
!S33(C  6-Port  ) 
!S34(C  6-Port  ) 
!S35(C  6-Port  ) 
!S36(C  6-Port  ) 
!S41(C  6-Port  ) 
!S42(C  6-Port  ) 
!S43(C  6-Port  ) 
!S44(C  6-Port  ) 
!S45(C  6-Port  ) 
!S46(C  6-Port  ) 
!S51(C  6-Port  ) 
!S52(C  6-Port  ) 
!S53(C  6-Port  ) 
!S54(C  6-Port  ) 
!S55(C  6-Port  ) 
!S56(C  6-Port  ) 
!S61(C  6-Port  ) 
!S62(C  6-Port  ) 
!S63(C  6-Port  ) 
!S64(C  6-Port  ) 
!S65(C  6-Port  ) 
!S66(C  6-Port  ) 
!S6P File: Measurement: :
# Hz S  RI   R 50
500000000 -0.33738 -0.039803 -0.0098416 -0.0025588 -0.0076438 0.012415 -0.0043137 0.012074
0.012807 0.0043789 -0.0051958 0.0087931
-0.0099365 -0.0025949 -0.41916 -0.052233 0.007945 -0.010947 0.0014472 0.012202
0.0078937 0.0025255 0.0013657 0.013308
-0.0076239 0.012493 0.0079312 -0.010964 -0.26541 0.20895 0.0079396 0.0034702
-0.0013801 0.0079397 0.0018604 0.011895
-0.0042885 0.012026 0.0014946 0.012215 0.0078998 0.003426 -0.33083 0.043811
-0.018154 -0.0060398 0.015673 0.026775
0.012873 0.0043377 0.0078538 0.0025009 -0.0013605 0.0079135 -0.018209 -0.0060385
-0.22151 -0.19829 -0.025124 0.0048557
-0.0049546 0.0086699 0.0012867 0.01337 0.0019087 0.011982 0.015564 0.027042
-0.024897 0.0050005 -0.26614 -0.13686
560000000 -0.31531 0.12209 -0.023983 -0.064248 0.00022182 0.012053 0.0055623 0.01052
0.010349 0.0052195 0.011312 0.0076347
-0.023841 -0.064101 -0.37875 0.10732 -0.040847 -0.037886 0.014078 0.0038843
-0.012793 -0.0045976 0.0031898 -0.00034979
0.00023083 0.012116 -0.040995 -0.037792 -0.1834 0.25694 -0.00069253 -0.0044648
0.018798 0.0049831 0.007006 -0.0065217
0.0055848 0.010536 0.014049 0.0038295 -0.00067388 -0.0044603 -0.30558 0.13229
0.0046169 -0.02371 0.0048717 -0.021466
0.010376 0.0051758 -0.012758 -0.0045658 0.018799 0.0048315 0.0046971 -0.023676
-0.28798 -0.022358 0.0093217 -0.049442
0.011399 0.0075376 0.0030295 -0.0003838 0.0070213 -0.0065446 0.0047734 -0.021393
0.0093649 -0.049371 -0.32829 0.012228
620000000 -0.27477 0.10712 -0.023283 0.007943 0.0032684 0.0088166 0.0080789 -0.0053205
0.011383 -0.00044641 0.0015941 -0.0025133
-0.023235 0.0079469 -0.40245 0.059283 -0.018559 1.853e-05 -0.0014071 -0.0019364
0.011318 -0.0067427 0.0014977 -0.0032606
0.0032961 0.0088436 -0.018586 5.2955e-05 -0.15379 0.266 -0.001126 -0.0049503
-0.0033807 -0.0032404 0.0085573 -0.0034482
0.0080527 -0.0053437 -0.001406 -0.0019515 -0.0011886 -0.0049666 -0.2655 0.14348
-0.037267 -0.01971 0.012489 0.02667
0.011559 -0.00043499 0.011294 -0.0067768 -0.0033748 -0.0031051 -0.037236 -0.019624
-0.2062 -0.062036 -0.042086 0.013647
0.0016489 -0.0028131 0.0015701 -0.0032789 0.0083991 -0.003215 0.012374 0.026357
-0.041652 0.014076 -0.24953 -0.025686
680000000 -0.23478 0.19144 -0.0272 -0.014448 0.0050066 0.0051531 0.0012685 -0.0070754
-0.002974 -0.011072 0.0050111 -0.0071428
-0.027145 -0.014483 -0.38773 0.1572 -0.032687 -0.0013724 -0.0016861 -0.00038532
-0.0022804 -0.0086469 -0.001452 -0.0019884
0.005007 0.0051275 -0.032722 -0.0012964 -0.10244 0.28616 -0.00082667 -2.983e-05
-0.0016953 0.00077729 -0.0028627 -0.0091558
0.0013304 -0.0070972 -0.0017132 -0.00038416 -0.00084449 -1.3517e-05 -0.22086 0.19341
-0.023407 -0.0080319 -0.010276 -0.011303
-0.0030909 -0.011117 -0.0023367 -0.0086821 -0.001696 0.00076115 -0.023388 -0.0080356
-0.25671 0.036789 -0.0048529 -0.0088756
0.0049765 -0.0071239 -0.0014479 -0.0018808 -0.0028264 -0.0091309 -0.010203 -0.011367
-0.004908 -0.0091464 -0.26217 0.082047
740000000 -0.19076 0.18689 -0.038786 0.026444 0.012705 -0.0051624 -0.00023464 -0.0041782
-0.0042806 -0.0028584 -0.006281 0.0021717
-0.038818 0.026463 -0.33503 0.17624 -0.035493 0.034956 -0.00065869 -0.0061346
-0.011851 0.0082465 -0.0021085 -0.0065171
0.012677 -0.0051932 -0.035412 0.035092 -0.068456 0.28457 -0.0020711 0.003217
-0.0023124 -0.0046278 -0.0015562 -7.9879e-05
-0.00023021 -0.0041893 -0.00067295 -0.0061078 -0.0020629 0.0032152 -0.20398 0.20123
-0.043333 -0.0077522 0.023044 0.015113
-0.0042232 -0.002879 -0.011892 0.0082654 -0.0023125 -0.004663 -0.043325 -0.0077186
-0.15773 0.062817 -0.044016 -3.8163e-05
-0.0064572 0.0021931 -0.001975 -0.0064697 -0.001612 9.8191e-05 0.023108 0.014946
-0.044084 -0.00015916 -0.24999 0.087822
800000000 -0.15774 0.22714 -0.022608 0.016645 0.0052546 -0.010619 -0.0048242 -0.0021139
-0.0042611 0.0022245 0.0044268 0.00032265
-0.022585 0.016623 -0.33822 0.24626 -0.0078876 0.033903 -0.0023328 0.002219
-0.00058696 0.003029 0.0011366 0.0052081
0.0052433 -0.010626 -0.0077961 0.033959 -0.027945 0.30772 0.0010543 0.0014727
0.00030044 0.0035251 -0.0017517 0.00085444
-0.0048166 -0.0021106 -0.0023563 0.0022276 0.0010536 0.0014671 -0.17582 0.22902
-0.028586 0.013202 0.013554 -0.010339
-0.0042556 0.0022625 -0.00059636 0.0030075 0.00031456 0.003559 -0.028554 0.013289
-0.20531 0.086355 -0.017945 0.018749
0.0044384 0.00040966 0.0010349 0.0051258 -0.0017686 0.00088061 0.013548 -0.010377
-0.017972 0.018714 -0.24605 0.13795
860000000 -0.12317 0.24744 -0.017482 0.030632 -0.0033153 -0.0099082 -0.0023537 0.00091453
0.0040001 0.0049028 -0.0032138 -0.0029451
-0.017471 0.030595 -0.29056 0.28819 0.0078807 0.034011 2.1085e-05 0.0019162
0.0043492 0.00010263 0.0035592 0.00064088
-0.003339 -0.009917 0.0079962 0.034027 0.020081 0.31558 -0.00053607 -0.00028348
0.0028379 -0.0015657 0.0013262 0.0045359
-0.0023338 0.0009264 4.2623e-05 0.0019273 -0.00053966 -0.00028451 -0.13934 0.24016
-0.018216 0.018205 -0.0062254 -0.009312
0.0040638 0.0049588 0.0043625 0.00013035 0.0028009 -0.0015757 -0.018194 0.018198
-0.15491 0.13782 -0.026785 0.01509
-0.0031945 -0.0029416 0.0035004 0.00077675 0.0013648 0.004605 -0.0062978 -0.0093267
-0.026833 0.015157 -0.19462 0.18521
920000000 -0.098644 0.27049 0.0050166 0.037886 -0.0094823 -0.0043189 -0.0019572 0.0019463
0.0010931 0.0019338 0.0026946 -0.0015327
0.0049613 0.037847 -0.26159 0.30942 0.028058 0.02186 0.0013429 0.0010639
0.0069869 -0.00060593 0.0039706 -0.0026198
-0.0094894 -0.0043011 0.028163 0.021812 0.06632 0.31616 0.0018139 -0.00010767
0.0011732 -0.00040794 0.00094165 -0.0010356
-0.0019247 0.0019502 0.0013297 0.0010726 0.0018113 -0.00011617 -0.11564 0.25715
-0.011348 0.030194 0.0036326 -0.0065031
0.0010885 0.0019287 0.0069926 -0.00064639 0.0011459 -0.00041683 -0.011326 0.030187
-0.14591 0.14391 -0.0034037 0.027661
0.0027554 -0.0016353 0.0038705 -0.0025159 0.0008575 -0.00098373 0.003578 -0.006434
-0.0033899 0.027711 -0.20419 0.19885
980000000 -0.05114 0.2901 0.017448 0.029977 -0.0089608 0.0046312 0.0020278 0.0036296
0.0040728 -0.0013045 -0.0033406 -0.0022624
0.017409 0.02993 -0.20876 0.34335 0.032878 0.0048853 0.002062 5.0582e-05
0.0014649 -0.0057969 -0.00014299 -0.0023985
-0.0089385 0.0046594 0.032917 0.0047781 0.11244 0.30946 0.00045504 -0.0011356
0.00024013 -0.0020508 0.0015578 -0.00020155
0.0020458 0.0036313 0.0020741 2.4018e-05 0.00046708 -0.0011365 -0.077485 0.26862
0.0072456 0.029519 -0.0094644 -0.0072681
0.0040577 -0.0013397 0.001414 -0.0057885 0.00021797 -0.0020545 0.0072909 0.029499
-0.11535 0.17294 0.0043327 0.019672
-0.0033073 -0.0022283 -0.00022636 -0.0024342 0.0015057 -0.00020843 -0.0095298 -0.0072827
0.0042597 0.0197 -0.16176 0.24465
1040000000 -0.0089725 0.29832 0.033075 0.018161 -0.0011657 0.0068766 0.0025779 0.0007413
0.00017012 -0.0037978 -0.00032265 -0.0013442
0.033006 0.01814 -0.17326 0.3563 0.029266 -0.014732 0.0014807 -0.0016015
-0.0025744 -0.0024195 -0.00136 -0.0025116
-0.0011349 0.0068832 0.029235 -0.014848 0.15836 0.29572 -0.00052434 -0.0014937
-0.0016072 -0.0008141 -0.00044372 -0.0011152
0.0025945 0.00073213 0.0014478 -0.0016301 -0.0005231 -0.0014969 -0.05014 0.27883
0.018532 0.017928 -0.0023278 0.001726
0.00015665 -0.0038088 -0.0025527 -0.0024101 -0.0016335 -0.00081693 0.018509 0.017856
-0.083251 0.18139 0.013231 0.018906
-0.00024229 -0.0013622 -0.0013132 -0.0024862 -0.00041907 -0.0011068 -0.0023129 0.0017354
0.013169 0.018875 -0.14096 0.26576
1100000000 0.036401 0.30612 0.035641 -0.004219 0.0029307 0.0037861 0.0023826 -0.0012801
-0.002072 -0.0031925 -0.0039691 -1.089e-05
0.035591 -0.0041992 -0.12983 0.3734 0.015154 -0.027632 5.7375e-06 -0.0017782
-0.0032807 -0.00069259 -0.0034251 -0.00057187
0.0029576 0.0037766 0.015058 -0.027714 0.20457 0.27545 -0.0018083 0.00023374
-0.0017335 0.00053314 -0.0010644 -0.00038306
0.0023721 -0.001276 -1.451e-05 -0.001785 -0.001809 0.00023043 -0.0099563 0.28387
0.023673 0.0052334 -0.0025621 0.0002529
-0.002092 -0.0031889 -0.003278 -0.00064696 -0.0017421 0.00054206 0.023638 0.005195
-0.065778 0.19532 0.019032 0.0091045
-0.0039195 4.9402e-05 -0.0034406 -0.00051996 -0.0010592 -0.00038863 -0.0025914 0.00025313
0.01894 0.0090407 -0.095071 0.29669
1160000000 0.087755 0.30106 0.023913 -0.020592 0.0026411 -0.0006172 -0.00022928 -0.002426
-0.0042229 -0.00077312 -0.0009641 0.0041008
0.023886 -0.020571 -0.086306 0.37741 -0.0035736 -0.028978 -0.0016691 -0.0017001
-0.0026476 0.0024783 -0.0012709 0.0019004
0.0026516 -0.00062206 -0.0037153 -0.028991 0.2475 0.24478 -0.00062959 0.0017115
-0.00057374 0.0018706 -0.00095357 0.000192
-0.00023987 -0.0024173 -0.0016935 -0.0016986 -0.00064608 0.0017087 0.029322 0.28141
0.020215 -0.0097406 -0.0029325 0.0053777
-0.004216 -0.00073412 -0.0026032 0.0025194 -0.00059053 0.0018677 0.020148 -0.0097908
-0.032539 0.20496 0.018191 0.0011728
-0.00091525 0.0041445 -0.0012904 0.0019083 -0.00095148 0.00020262 -0.00294 0.0054076
0.018174 0.0011569 -0.048154 0.29966
1220000000 0.13212 0.28977 0.010376 -0.029848 -0.001614 -0.00086909 1.0925e-05 -0.00099414
-0.0026455 0.0024446 0.0013708 0.0020007
0.010386 -0.029829 -0.042124 0.38938 -0.016685 -0.021087 -0.0025011 0.0003785
0.00011124 0.0029021 -0.00071761 0.0017808
-0.0016125 -0.00086862 -0.016802 -0.021036 0.2867 0.20591 0.00083146 0.0015505
0.00060105 0.0011178 0.00025819 0.00063144
5.0017e-06 -0.00098688 -0.0024979 0.00039311 0.00082822 0.001561 0.069005 0.27325
0.0099615 -0.016061 0.0023293 0.0016257
-0.0026464 0.0024772 0.00013867 0.0029253 0.0006171 0.0011386 0.0099203 -0.016072
-0.010406 0.21462 0.014427 -0.012261
0.001397 0.0019855 -0.00071429 0.0018162 0.00027417 0.00065232 0.0023706 0.001636
0.014455 -0.012212 -0.017415 0.31747
1280000000 0.18177 0.26766 -0.0077723 -0.028267 -0.0018893 0.0024603 -0.00097243 -0.0020025
-0.00077453 0.0030921 0.0024698 0.0011773
-0.0077611 -0.028243 0.0035344 0.38042 -0.023562 -0.0086251 -0.00099787 0.0014166
0.0016449 0.0016742 0.00057531 0.0020918
-0.0018894 0.0024697 -0.02363 -0.0085189 0.31733 0.1621 0.0015217 -9.7109e-05
0.0010379 0.00027634 0.00047071 0.00035854
-0.00097619 -0.0020042 -0.00099763 0.0014202 0.0015187 -9.8384e-05 0.10584 0.25726
0.0010738 -0.017881 0.00018071 2.0468e-05
-0.00075344 0.0030892 0.0016601 0.0016669 0.0010353 0.00026811 0.0010279 -0.017846
0.025961 0.21881 0.0036003 -0.014443
0.0024757 0.0011707 0.00060666 0.0020551 0.00047775 0.00035453 0.00017912 3.3534e-05
0.0035837 -0.01444 0.031393 0.3203
1340000000 0.21875 0.23368 -0.017406 -0.01889 0.00081709 0.0044732 -0.0017637 -0.00082185
0.0014784 0.0026593 0.0017291 -0.0013639
-0.017378 -0.018889 0.042849 0.37235 -0.021549 0.0040204 -0.00014896 0.00197
0.0018681 0.00071077 0.0012935 0.00080238
0.00084216 0.0044697 -0.021562 0.0041313 0.33947 0.11425 0.00104 -0.00087488
0.00068572 -0.00048422 0.00021927 0.00029782
-0.0017801 -0.00079898 -0.00014525 0.0019814 0.0010427 -0.00087022 0.13845 0.2374
-0.0077701 -0.015259 0.0011157 0.0002933
0.0014958 0.0026764 0.0018723 0.0007175 0.00067495 -0.00048963 -0.0077866 -0.015191
0.05556 0.21508 -0.002852 -0.01321
0.001726 -0.0013647 0.0012832 0.00080755 0.00019495 0.00031636 0.0011205 0.0003034
-0.0028439 -0.013209 0.069349 0.31663
1400000000 0.2515 0.19541 -0.02316 -0.0075356 0.0050775 0.0030881 -0.0020389 0.00063625
0.002402 0.00087096 0.00032715 -0.0013526
-0.023125 -0.0075608 0.08006 0.35946 -0.014936 0.012195 0.0012841 0.0013414
0.0010372 -0.00078125 0.0012387 0.00029453
0.0050808 0.0030705 -0.0149 0.012288 0.35272 0.060572 0.00012085 -0.0015431
-4.3678e-05 -0.00037685 0.00044635 0.00020055
-0.0020505 0.00064327 0.001289 0.0013299 0.00012244 -0.0015541 0.1683 0.20912
-0.013181 -0.0090517 -0.00071848 -0.000709
0.0024249 0.00086207 0.0010279 -0.00078242 -6.6738e-05 -0.00035664 -0.013191 -0.0089865
0.08843 0.21154 -0.0093078 -0.008817
0.00031377 -0.0013677 0.0012383 0.00029373 0.00043087 0.00020725 -0.0007283 -0.00068604
-0.0093077 -0.0088612 0.11498 0.3063
1460000000 0.27398 0.15131 -0.020254 0.0045305 0.0055037 -0.0018039 -0.0015745 0.001698
0.0020761 -0.00063495 -0.00034306 -0.00097001
-0.020245 0.0045024 0.11426 0.33787 -0.0063867 0.015241 0.0017338 0.00019102
0.00082537 -0.0012172 0.0012207 -0.00056216
0.0054961 -0.0018244 -0.0063085 0.015289 0.35885 0.006036 -0.0011984 -0.0011575
0.00010007 -0.00021873 0.0005882 -0.00034484
-0.0015691 0.0016999 0.0017331 0.00017956 -0.0011917 -0.0011453 0.19514 0.18039
-0.014206 -0.0029139 -0.0010123 0.0017551
0.0020601 -0.00065886 0.00082369 -0.001207 0.00010825 -0.00022064 -0.014162 -0.002868
0.11776 0.19777 -0.011222 -0.0031609
-0.00036461 -0.00097627 0.001227 -0.00054766 0.00060576 -0.00033689 -0.0010149 0.0017382
-0.011239 -0.0031907 0.14859 0.28585
1520000000 0.2859 0.10961 -0.01473 0.010061 0.0032923 -0.0040902 0.00010151 0.0025873
0.0020295 -0.0017488 -0.001139 -0.00011495
-0.014726 0.010055 0.14796 0.3232 0.0013429 0.013198 0.0016438 -0.00074397
3.7901e-05 -0.00096428 0.00039383 -0.0010163
0.0032749 -0.0041067 0.0014183 0.013206 0.35187 -0.050311 -0.0010498 -0.00031236
0.00066614 -0.00075716 2.8702e-05 -9.9935e-05
0.00011159 0.0025877 0.0016435 -0.00075803 -0.0010522 -0.00031951 0.21907 0.14263
-0.013772 0.0021155 0.0012459 0.0019694
0.0020033 -0.0017681 3.0332e-05 -0.00095471 0.00066553 -0.00075339 -0.013718 0.0021517
0.14585 0.18431 -0.011424 0.0010984
-0.0011299 -0.00010444 0.00038651 -0.0010137 4.2005e-05 -7.7019e-05 0.0012426 0.0019429
-0.011422 0.0010825 0.18245 0.26616
1580000000 0.29494 0.063499 -0.0082347 0.013187 -0.00082661 -0.004835 0.0013943 0.0018882
-0.00038762 -0.0020558 -0.00035584 0.00046175
-0.0082434 0.013176 0.17546 0.29842 0.0050975 0.0084606 0.00049453 -0.0015784
-0.00050455 -0.00098617 -0.00024412 -0.00081079
-0.00084396 -0.004836 0.0051474 0.0084443 0.33146 -0.10789 -0.0015282 0.00058749
-0.00020797 -0.0010999 0.00012521 -0.00042531
0.001393 0.0018852 0.00049506 -0.0015759 -0.0015231 0.00059897 0.23371 0.10332
-0.010665 0.0067002 0.002114 0.00081023
-0.00041689 -0.0020615 -0.00050137 -0.00099102 -0.00022083 -0.0010961 -0.0106 0.0066954
0.17063 0.16708 -0.0091694 0.0069292
-0.00035186 0.00046553 -0.00022988 -0.00081028 0.0001405 -0.00041398 0.002108 0.00079694
-0.0091962 0.0069282 0.21542 0.23929
1640000000 0.29686 0.022386 -0.0016113 0.012283 -0.0026602 -0.0026192 0.0027099 0.0010169
-0.00066917 -0.0013739 -0.00018981 0.00054343
-0.0016121 0.012291 0.20509 0.27332 0.0059818 0.0036576 -0.00063407 -0.0017309
-0.00091034 -0.00043543 -0.00045588 -0.00076133
-0.002674 -0.0026007 0.0060143 0.0036305 0.30316 -0.15699 -0.00066892 0.0013628
-0.00098158 -0.0010332 -4.987e-05 -0.00049872
0.0027134 0.0010007 -0.00064538 -0.0017386 -0.00066716 0.0013601 0.24676 0.054054
-0.0068579 0.0078707 0.0023449 -0.00071042
-0.0006856 -0.0013554 -0.00091191 -0.00044255 -0.00095732 -0.0010509 -0.0068123 0.0078254
0.19379 0.14293 -0.0048265 0.008875
-0.00019091 0.00054983 -0.00044199 -0.00075532 -1.4724e-05 -0.0004589 0.0023383 -0.00074257
-0.0048528 0.0088741 0.24116 0.20866
1700000000 0.2896 -0.022833 0.0018548 0.0096059 -0.0035085 0.00012999 0.0030446 -0.0011948
-0.0019186 -0.00065414 0.00062862 0.00037139
0.0018479 0.0096052 0.22331 0.24154 0.0040008 0.00068068 -0.0014716 -0.00058975
-0.00076466 -1.5679e-05 -0.00091128 -0.00047786
-0.0035056 0.00015289 0.0040142 0.000664 0.25949 -0.1971 0.0003965 0.0015582
-0.0019156 -0.00028549 -0.00047423 -0.00083865
0.0030414 -0.0012077 -0.0014752 -0.00058205 0.00039478 0.0015729 0.24393 0.0037067
-0.0044608 0.0085255 0.0014047 -0.0021843
-0.0019183 -0.00061891 -0.00077946 -1.5547e-05 -0.001903 -0.00029581 -0.0044361 0.0084607
0.21159 0.12282 -0.00015923 0.0093453
0.00062936 0.0003706 -0.00091416 -0.00046712 -0.00047174 -0.00079176 0.0013858 -0.0022017
-0.00015861 0.009366 0.25792 0.17406
1760000000 0.27728 -0.071307 0.0042813 0.0064053 -0.0022318 0.00092748 0.0013409 -0.0034046
-0.0012007 0.00067842 0.00038909 -0.00067174
0.0042823 0.0064046 0.24917 0.20137 0.0017487 -0.001128 -0.0011646 0.00018714
-0.0010289 0.00083033 -0.00061166 0.00036199
-0.0022257 0.00094213 0.0017436 -0.0011398 0.21029 -0.23007 0.0011033 0.0011142
-0.0011439 0.0013457 -0.0012964 -0.00062109
0.0013231 -0.0034092 -0.001168 0.00019381 0.0011185 0.0011069 0.23472 -0.048371
-0.0013758 0.0078436 -0.00032224 -0.0024658
-0.0011871 0.00067337 -0.0010449 0.00082955 -0.0011499 0.001358 -0.0013937 0.0077814
0.22684 0.087489 0.0037243 0.0068418
0.00038808 -0.00066422 -0.00060403 0.00037604 -0.0013173 -0.00065171 -0.00032647 -0.0024863
0.0037238 0.0068546 0.27084 0.13647
1820000000 0.25261 -0.10855 0.0045934 0.0028159 -3.5034e-05 0.0023643 -0.00098067 -0.0030551
-0.0010243 0.00081168 -9.9888e-05 -7.4994e-05
0.0045878 0.0028163 0.259 0.17107 -0.00015692 -0.00012951 -0.0013157 0.00089733
-0.00011983 0.0013137 -0.00058389 0.0005292
-2.9601e-05 0.00236 -0.00015907 -0.00013305 0.1605 -0.24545 0.0014089 0.00045601
-0.00039926 0.0022617 -0.00142 0.00030018
-0.00098811 -0.0030562 -0.0013105 0.00090724 0.0014075 0.0004537 0.20434 -0.096
-4.7995e-05 0.0063349 -0.0016698 -0.0013875
-0.0010219 0.00079486 -0.00011892 0.0013257 -0.00039893 0.002267 -9.9513e-05 0.0063046
0.2441 0.058013 0.0046101 0.0034738
-0.00010223 -8.1048e-05 -0.00057688 0.00053311 -0.0014125 0.00027822 -0.001686 -0.0013781
0.0046085 0.0034696 0.27364 0.10059
1880000000 0.21737 -0.14889 0.0024987 0.00043048 -0.00047334 0.0020462 -0.0030025 -0.0021879
-0.00027646 0.0015772 0.00020779 -0.00050705
0.0024868 0.00043325 0.26311 0.12431 -0.0023078 0.0015329 -0.00019969 0.0016559
0.00055062 0.0013029 9.157e-05 0.00092034
-0.00046276 0.0020471 -0.0023077 0.0015568 0.10804 -0.25511 0.0019199 -0.0008687
0.001426 0.0021059 -0.0010506 0.0013509
-0.0030043 -0.0021709 -0.00018607 0.0016562 0.0019112 -0.00087149 0.16306 -0.13616
0.00041761 0.0044354 -0.0024708 0.00054608
-0.0002677 0.0015651 0.00057044 0.0013229 0.0014317 0.0020937 0.00034228 0.0044471
0.24691 0.024663 0.0047048 0.0014123
0.00023368 -0.00054332 0.00011511 0.00093783 -0.0010319 0.0013483 -0.0024695 0.00057204
0.004707 0.0014315 0.27323 0.066402
1940000000 0.17789 -0.17458 0.00030966 -0.0013283 0.0012903 0.0019795 -0.0038606 0.00054317
0.0011528 0.001005 -0.00060488 -0.00048465
0.00029908 -0.0013327 0.26325 0.092516 -0.0012063 0.0037531 0.0009857 0.0013343
0.0019157 0.00053393 0.00083575 0.00029851
0.0013124 0.0019658 -0.0011736 0.0037692 0.061921 -0.24833 0.0005199 -0.0021827
0.0025257 0.00053491 0.00020578 0.0015457
-0.0038497 0.00055894 0.0010047 0.0013405 0.00052372 -0.0021703 0.11038 -0.16608
-0.00070036 0.0034915 -0.001376 0.0016717
0.0011603 0.0010038 0.0019316 0.0005213 0.0025203 0.00052738 -0.00075309 0.0035501
0.24808 -0.014881 0.0036861 -0.001962
-0.00060866 -0.00048083 0.00084301 0.0002968 0.00023983 0.0015728 -0.0013498 0.0017054
0.0036913 -0.0019761 0.26269 0.030788
2000000000 0.13133 -0.18915 -0.0035772 0.00054145 0.0025172 0.0016855 -0.0023123 0.0035562
0.0010631 0.0003033 -0.00073113 0.0003823
-0.0035708 0.0005371 0.2488 0.057137 -0.0010493 0.0057449 0.0016072 0.00043581
0.0014139 -0.0013999 0.00051544 0.00013414
0.0025344 0.0016736 -0.0010125 0.0057596 0.018503 -0.23343 -0.0012936 -0.0014606
0.0021275 -0.0011561 0.0016183 0.0013226
-0.002289 0.0035701 0.0016221 0.00043724 -0.0012797 -0.0014667 0.056721 -0.17541
-0.0024789 0.0038512 -5.9802e-05 0.0022532
0.0010597 0.00032091 0.0014176 -0.0014324 0.0021202 -0.0011789 -0.0025 0.0039424
0.24084 -0.049248 0.00038611 -0.0026896
