!Keysight Technologies,M9804A,MY58100912,A.14.10.03
!Date: Thursday, April 27, 2023 10:28:33
!Correction: S11(C  6-Port  ) 
!S12(C  6-Port  ) 
!S13(C  6-Port  ) 
!S14(C  6-Port  ) 
!S15(C  6-Port  ) 
!S16(C  6-Port  ) 
!S21(C  6-Port  ) 
!S22(C  6-Port  ) 
!S23(C  6-Port  ) 
!S24(C  6-Port  ) 
!S25(C  6-Port  ) 
!S26(C  6-Port  ) 
!S31(C  6-Port  ) 
!S32(C  6-Port  ) 
!S33(C  6-Port  ) 
!S34(C  6-Port  ) 
!S35(C  6-Port  ) 
!S36(C  6-Port  ) 
!S41(C  6-Port  ) 
!S42(C  6-Port  ) 
!S43(C  6-Port  ) 
!S44(C  6-Port  ) 
!S45(C  6-Port  ) 
!S46(C  6-Port  ) 
!S51(C  6-Port  ) 
!S52(C  6-Port  ) 
!S53(C  6-Port  ) 
!S54(C  6-Port  ) 
!S55(C  6-Port  ) 
!S56(C  6-Port  ) 
!S61(C  6-Port  ) 
!S62(C  6-Port  ) 
!S63(C  6-Port  ) 
!S64(C  6-Port  ) 
!S65(C  6-Port  ) 
!S66(C  6-Port  ) 
!S6P File: Measurement: :
# Hz S  RI   R 50
500000000 -0.33438 -0.030823 -0.0093551 -0.0044766 -0.0079523 0.011311 -0.0038305 0.011455
0.012104 0.0043166 -0.0042773 0.0072012
-0.0093545 -0.004447 -0.41854 -0.04797 0.0075338 -0.011755 0.0012768 0.010934
0.0076333 0.0028269 0.0010415 0.012004
-0.0079297 0.011315 0.0075181 -0.011785 -0.26477 0.21208 0.0067679 0.0028346
0.00036961 0.0085826 0.00068456 0.011721
-0.0038025 0.011445 0.001288 0.010926 0.0067731 0.0028362 -0.32607 0.049982
-0.018877 -0.0055332 0.017937 0.025353
0.01203 0.0043665 0.0076092 0.0028326 0.00039658 0.0085942 -0.018883 -0.0055444
-0.2267 -0.17781 -0.026128 0.0040552
-0.0043155 0.0071858 0.0010348 0.011992 0.00068096 0.01171 0.017936 0.02537
-0.026135 0.0040893 -0.27236 -0.12419
560000000 -0.31174 0.12618 -0.023409 -0.063221 -0.00031205 0.012506 0.0063609 0.010064
0.011866 0.0040264 0.0087184 0.0068441
-0.023364 -0.063151 -0.37677 0.11087 -0.042103 -0.037106 0.014254 0.004186
-0.012307 -0.0053656 0.0048073 -0.00030111
-0.00024349 0.012538 -0.042227 -0.037076 -0.18199 0.26014 -0.0013969 -0.0046027
0.019318 0.0046236 0.0064477 -0.0063639
0.0063575 0.01002 0.014255 0.0041497 -0.0013698 -0.0045845 -0.30075 0.13677
0.0040191 -0.025453 0.005664 -0.019588
0.011847 0.0040211 -0.012357 -0.0053485 0.019354 0.0045891 0.0039283 -0.025354
-0.28402 -0.0047326 0.0078088 -0.050873
0.0088134 0.0067119 0.0047888 -0.0002519 0.0064277 -0.0063295 0.0056542 -0.019625
0.0078616 -0.050864 -0.33213 0.022858
620000000 -0.27003 0.11014 -0.023053 0.0063544 0.0032336 0.0084155 0.0070281 -0.0059921
0.010897 -0.00049869 0.0010824 -0.0022627
-0.023039 0.0063744 -0.40258 0.064097 -0.019022 -0.0002801 -0.0017681 -0.002411
0.010743 -0.0067121 0.0008474 -0.0030499
0.0032951 0.0084053 -0.019036 -0.00024215 -0.15259 0.26856 -0.0018535 -0.0052062
-0.0036385 -0.003272 0.0082219 -0.0036342
0.0070201 -0.0059713 -0.0017809 -0.0024219 -0.0018536 -0.0051947 -0.25908 0.14651
-0.038765 -0.019316 0.015176 0.023498
0.010891 -0.00058058 0.010756 -0.0067687 -0.0036632 -0.0032392 -0.038791 -0.019256
-0.20391 -0.043025 -0.039376 0.014038
0.00098078 -0.0022444 0.00083003 -0.0030312 0.0082204 -0.0036165 0.015229 0.023477
-0.039267 0.013974 -0.25207 -0.012457
680000000 -0.2297 0.19158 -0.028212 -0.014578 0.0050658 0.0050366 0.00029653 -0.0080292
-0.0032964 -0.010778 0.0045676 -0.0071672
-0.028175 -0.01458 -0.38651 0.16085 -0.032624 -0.0010534 -0.0017929 -0.00061638
-0.0029573 -0.008749 -0.00099699 -0.0023864
0.0050654 0.0049958 -0.032659 -0.00095957 -0.10155 0.28796 -0.00072995 3.2811e-05
-0.0022475 0.00075239 -0.0030553 -0.0096592
0.00029491 -0.0080634 -0.0017903 -0.0006091 -0.00073457 3.0718e-05 -0.21744 0.19539
-0.023503 -0.0091042 -0.011026 -0.010143
-0.0032625 -0.010794 -0.002996 -0.0087522 -0.0023036 0.00073602 -0.023572 -0.009071
-0.24832 0.051888 -0.0047723 -0.0095495
0.0045593 -0.0071306 -0.001017 -0.0023803 -0.0030725 -0.0096523 -0.011059 -0.010146
-0.004759 -0.0095584 -0.26111 0.090683
740000000 -0.18836 0.18668 -0.03878 0.026157 0.012506 -0.0050543 -0.00081103 -0.0040098
-0.0048313 -0.002369 -0.0059563 0.0037318
-0.038751 0.026143 -0.33467 0.17954 -0.034533 0.034937 -0.00097769 -0.0062396
-0.0115 0.0085796 -0.0023851 -0.0061766
0.012495 -0.0051347 -0.034448 0.035069 -0.067855 0.28706 -0.0012283 0.0035177
-0.0029167 -0.0035779 -0.00087455 0.00084898
-0.00079989 -0.0040252 -0.0010016 -0.0062409 -0.0012478 0.0035065 -0.20093 0.20309
-0.04252 -0.0078304 0.02263 0.012948
-0.004875 -0.0024194 -0.011467 0.0086537 -0.0029422 -0.0035885 -0.04257 -0.007813
-0.15606 0.07409 -0.042821 0.0007231
-0.0059718 0.0037554 -0.0024111 -0.0061911 -0.00087323 0.00084258 0.022644 0.012919
-0.042802 0.00063698 -0.24994 0.098208
800000000 -0.15758 0.22672 -0.022999 0.017334 0.0051475 -0.010509 -0.0048117 -0.001996
-0.0039265 0.0030723 0.0045034 0.00071497
-0.023003 0.017312 -0.33672 0.24955 -0.0076186 0.033922 -0.0019939 0.0022703
-0.00017855 0.0037668 0.0012605 0.0054098
0.0051163 -0.010527 -0.0075291 0.033976 -0.026724 0.3098 0.0012978 0.0015235
0.00095882 0.003633 -0.0018042 0.0010146
-0.0047902 -0.0020217 -0.0019885 0.0022731 0.0013013 0.0015255 -0.17362 0.23083
-0.028536 0.012539 0.012935 -0.0096412
-0.003946 0.0031126 -0.00017363 0.0037781 0.00097414 0.0036339 -0.02851 0.012595
-0.1975 0.098172 -0.018156 0.017315
0.0045372 0.00072655 0.0012923 0.0054119 -0.0017936 0.0010173 0.012933 -0.009676
-0.018167 0.017289 -0.24453 0.1513
860000000 -0.12314 0.24886 -0.017189 0.031645 -0.0033881 -0.0097468 -0.0026083 0.0013404
0.0047163 0.0053836 -0.0028382 -0.0030827
-0.017217 0.031614 -0.28889 0.29137 0.0082557 0.033916 0.00027703 0.0019715
0.004625 0.00032435 0.0033286 0.00037364
-0.0034258 -0.0097353 0.0083569 0.033935 0.021762 0.31744 -0.00030098 -0.00040008
0.0028498 -0.0016153 0.0014567 0.0045392
-0.002591 0.0013401 0.00028881 0.0019523 -0.0003041 -0.00039496 -0.13803 0.24265
-0.017686 0.018241 -0.0066161 -0.0092142
0.0047369 0.0053313 0.0046334 0.00031826 0.0028673 -0.0016356 -0.017626 0.018242
-0.15018 0.14537 -0.023568 0.01519
-0.0028266 -0.0030825 0.0033362 0.00036189 0.0014706 0.0045427 -0.0065899 -0.009186
-0.023576 0.015186 -0.19328 0.19386
920000000 -0.098007 0.27293 0.0052923 0.03838 -0.0092799 -0.0039296 -0.0015923 0.0025762
0.001366 0.0015453 0.0023183 -0.0013626
0.0052786 0.038358 -0.25965 0.312 0.028002 0.021448 0.001737 0.0011171
0.0066842 -0.0010039 0.0036311 -0.0028373
-0.0092804 -0.0039156 0.028088 0.021389 0.068164 0.31767 0.0017598 -0.00022332
0.0012577 -0.00053877 0.00085544 -0.0011571
-0.0015872 0.0025824 0.0017278 0.0011086 0.0017706 -0.00022207 -0.11363 0.25916
-0.010547 0.02975 0.0024113 -0.0062139
0.001401 0.0015468 0.0067036 -0.0010331 0.0012581 -0.00053655 -0.010495 0.029769
-0.13951 0.15188 -0.0022358 0.027219
0.0023328 -0.0013971 0.0036151 -0.0028413 0.00085816 -0.0011748 0.0024158 -0.0062241
-0.0022446 0.027213 -0.19947 0.20865
980000000 -0.050225 0.29248 0.018231 0.030177 -0.0086033 0.0047671 0.0026139 0.0037667
0.0041056 -0.001838 -0.0029236 -0.0020667
0.018179 0.030159 -0.20695 0.34524 0.032713 0.0043797 0.0020345 -9.1129e-05
0.00095337 -0.0061955 -0.00065459 -0.0021971
-0.0085777 0.0047886 0.032753 0.0042733 0.11444 0.31072 0.00035877 -0.0012138
-3.0695e-05 -0.0020944 0.001506 -0.00011046
0.0026087 0.0037686 0.0020324 -0.00010642 0.00036264 -0.0012166 -0.075624 0.27093
0.0070626 0.028097 -0.0095611 -0.0065168
0.0041055 -0.0018512 0.00090186 -0.0062093 -4.5679e-05 -0.0020932 0.0070921 0.02809
-0.10852 0.17887 0.0048468 0.018327
-0.002889 -0.0020147 -0.00066542 -0.0021591 0.0014979 -0.00010104 -0.0095746 -0.0065095
0.0048383 0.018316 -0.15666 0.25278
1040000000 -0.007153 0.30096 0.033534 0.017629 -0.00095833 0.006833 0.0030049 0.00066646
8.8319e-05 -0.0038816 -0.00067163 -0.001373
0.033467 0.017662 -0.17113 0.35823 0.028783 -0.014941 0.0014812 -0.0016053
-0.0026652 -0.0021788 -0.0014306 -0.0027136
-0.00091661 0.0068237 0.028742 -0.015052 0.16054 0.29663 -0.00051617 -0.0013306
-0.0015219 -0.00074059 -0.00041853 -0.0010871
0.0029912 0.0006697 0.0014622 -0.0016282 -0.00051386 -0.0013316 -0.047895 0.28084
0.017764 0.016651 -0.0031924 0.0023108
7.7733e-05 -0.0039136 -0.0027005 -0.0021584 -0.0015231 -0.00073214 0.017778 0.016617
-0.078051 0.18801 0.013078 0.017585
-0.00065473 -0.0013905 -0.0014498 -0.0027035 -0.00040818 -0.0010923 -0.0031923 0.0023142
0.013065 0.017561 -0.13504 0.27376
1100000000 0.038651 0.30818 0.035727 -0.0047477 0.0030251 0.0035614 0.002654 -0.0016648
-0.0021822 -0.0029831 -0.0037175 3.4657e-06
0.03567 -0.004708 -0.12765 0.37492 0.014629 -0.027529 2.0733e-05 -0.0018637
-0.0030778 -0.00030479 -0.0033698 -0.00045619
0.0030315 0.0035429 0.014527 -0.027613 0.2067 0.27592 -0.0017171 0.00030327
-0.0015983 0.00072496 -0.00089737 -0.00034806
0.0026476 -0.0016557 1.7509e-05 -0.0018705 -0.0017136 0.00029385 -0.0072204 0.28562
0.021782 0.0049531 -0.0022046 0.0012847
-0.0022092 -0.0029835 -0.0030995 -0.0002885 -0.0015942 0.00073492 0.021776 0.0049125
-0.059583 0.20121 0.018138 0.0083451
-0.0037178 2.811e-05 -0.0033888 -0.0004449 -0.00090213 -0.0003437 -0.0021977 0.0012752
0.018139 0.0083503 -0.087965 0.30258
1160000000 0.090419 0.30281 0.023689 -0.021045 0.0026414 -0.00070511 -4.5289e-05 -0.0027327
-0.0041696 -0.00019252 -0.0008565 0.0040515
0.023659 -0.020981 -0.083737 0.37875 -0.0039143 -0.028576 -0.0017869 -0.001557
-0.0022648 0.0026381 -0.0012718 0.001602
0.0026473 -0.00070353 -0.004048 -0.028572 0.24951 0.24486 -0.0005023 0.0016774
-0.00031757 0.0017587 -0.00096361 0.00011053
-4.289e-05 -0.0027109 -0.0018031 -0.001563 -0.00050408 0.001678 0.032155 0.28272
0.018358 -0.0093772 -0.0026058 0.0059112
-0.0041663 -0.00017721 -0.002264 0.0026746 -0.00030775 0.0017708 0.018311 -0.0094109
-0.026449 0.21115 0.016851 0.00057834
-0.00082428 0.0040897 -0.0012682 0.0016086 -0.00096185 0.00011539 -0.0026029 0.0059027
0.016854 0.00058609 -0.041179 0.30525
1220000000 0.13513 0.29105 0.01002 -0.029907 -0.0016337 -0.00094037 -0.00033981 -0.0012195
-0.0024668 0.0026685 0.0013364 0.00184
0.010007 -0.029859 -0.039634 0.39 -0.016689 -0.0206 -0.0024765 0.00049698
0.00039058 0.0027343 -0.00066712 0.0016539
-0.0016408 -0.00092199 -0.016804 -0.020553 0.28844 0.20571 0.00091907 0.001462
0.00060947 0.0010278 0.00031374 0.00072569
-0.00032879 -0.0012106 -0.002486 0.00050176 0.00092142 0.001465 0.071814 0.27401
0.0086939 -0.014512 0.0032071 0.0018881
-0.002452 0.0026927 0.00040307 0.0027413 0.000608 0.0010215 0.0086575 -0.014513
-0.0025749 0.22097 0.012904 -0.011904
0.0013285 0.0018314 -0.00066251 0.0016755 0.00031606 0.00072271 0.0031924 0.0018736
0.012885 -0.011898 -0.0089905 0.32177
1280000000 0.18462 0.26843 -0.0079446 -0.028089 -0.001853 0.0024136 -0.0012837 -0.0019413
-0.00040307 0.0031112 0.0025198 0.00093916
-0.0079271 -0.028053 0.0060119 0.38071 -0.023169 -0.0081909 -0.00097243 0.0014458
0.0015932 0.0013549 0.00050397 0.0019191
-0.0018442 0.0024236 -0.023233 -0.0080929 0.31891 0.16175 0.0012702 -0.0002075
0.00087237 3.8665e-05 0.00030927 0.00040871
-0.0012727 -0.0019355 -0.00097069 0.0014603 0.0012721 -0.00019711 0.10822 0.2581
0.00031685 -0.0158 0.0009902 4.1405e-05
-0.00038172 0.0031278 0.0016041 0.0013436 0.00087656 4.2142e-05 0.00028518 -0.015782
0.034681 0.22481 0.0026663 -0.013736
0.0025131 0.00094595 0.00051214 0.0019185 0.00030834 0.00041531 0.00096632 3.7281e-05
0.0026684 -0.013715 0.038356 0.3229
1340000000 0.22176 0.23441 -0.017537 -0.018674 0.00077977 0.004343 -0.0020025 -0.00055641
0.0015549 0.0024044 0.0015125 -0.0015077
-0.017501 -0.018664 0.045169 0.37204 -0.02114 0.0041858 -4.205e-05 0.0019146
0.001595 0.00057421 0.0012738 0.00081917
0.00079583 0.0043329 -0.021147 0.0042968 0.34105 0.11377 0.00088604 -0.00087583
0.00051927 -0.00032217 0.00023782 0.00020421
-0.002008 -0.00055666 -3.4372e-05 0.0019209 0.00088375 -0.00087079 0.14128 0.23809
-0.0069902 -0.013058 0.0016581 -0.0003555
0.0015661 0.0023924 0.0016082 0.00056156 0.00051674 -0.00033247 -0.0069922 -0.013024
0.065912 0.22031 -0.0032301 -0.012152
0.0015271 -0.0015227 0.0012856 0.00081954 0.00024048 0.00020682 0.0016374 -0.00034283
-0.0032156 -0.012143 0.077541 0.3182
1400000000 0.25478 0.19589 -0.023014 -0.0073519 0.0049341 0.003106 -0.0019689 0.00085711
0.0024106 0.0004236 0.00017774 -0.0012824
-0.022979 -0.007351 0.081982 0.35892 -0.014536 0.012095 0.0013337 0.0011884
0.00078615 -0.00079203 0.0011876 0.00030008
0.0049595 0.003075 -0.014497 0.012183 0.35411 0.059932 2.5868e-05 -0.0013869
-6.6404e-05 -0.00033497 0.00035552 0.00024239
-0.00198 0.00086446 0.0013352 0.001185 2.8587e-05 -0.0013806 0.17143 0.20983
-0.011485 -0.0073975 -0.00047232 -0.0012312
0.0024076 0.00040406 0.00078729 -0.00080312 -6.7729e-05 -0.00033576 -0.011473 -0.007371
0.099669 0.21546 -0.0091927 -0.0077255
0.0001676 -0.0013013 0.0011924 0.00029449 0.00036055 0.00024199 -0.00046879 -0.0012082
-0.0091861 -0.007734 0.12234 0.30686
1460000000 0.27794 0.15154 -0.020167 0.0044616 0.0054047 -0.0016407 -0.0013857 0.0017657
0.0017384 -0.00087191 -0.00035821 -0.00085096
-0.02014 0.0044493 0.116 0.33712 -0.0061041 0.01483 0.0016505 0.00013636
0.00075383 -0.00095553 0.0011661 -0.00064599
0.0054017 -0.0016659 -0.0060473 0.014873 0.35977 0.0051389 -0.00099956 -0.001104
0.00029604 -0.00011577 0.00058551 -0.00037758
-0.0013813 0.0017625 0.0016561 0.00013057 -0.0010018 -0.0011061 0.19884 0.18062
-0.011762 -0.0025491 -0.0012635 0.0010947
0.0017473 -0.00088368 0.0007344 -0.00096654 0.0002944 -0.00011829 -0.01175 -0.0025345
0.13021 0.20023 -0.010437 -0.0026867
-0.00036081 -0.00086848 0.0011529 -0.00065691 0.00058403 -0.00036849 -0.0012531 0.0011275
-0.010435 -0.0026973 0.15547 0.28565
1520000000 0.29034 0.10893 -0.014638 0.010006 0.0030802 -0.0039195 0.00021888 0.0024123
0.0014234 -0.0016444 -0.001081 -0.00012517
-0.014632 0.0099891 0.14944 0.32227 0.0012885 0.012852 0.0015567 -0.00080483
0.00015545 -0.00078932 0.00029187 -0.0010481
0.0030583 -0.0039264 0.001357 0.012855 0.35281 -0.051156 -0.00078542 -0.00036039
0.0005819 -0.00072193 -3.2968e-05 -4.1022e-05
0.00023376 0.0024196 0.0015552 -0.000811 -0.00078927 -0.0003682 0.22311 0.14206
-0.011242 0.0013609 0.00074475 0.0015757
0.0014184 -0.0016649 0.00014951 -0.00079131 0.00058663 -0.00073492 -0.011234 0.0013625
0.1589 0.18499 -0.010558 0.0013086
-0.0010955 -0.00012568 0.0002852 -0.0010468 -3.4876e-05 -4.4537e-05 0.0007713 0.0015704
-0.010548 0.0013034 0.18898 0.26485
1580000000 0.29976 0.061568 -0.0082582 0.013026 -0.00095092 -0.0046666 0.0013278 0.0016894
-0.00060653 -0.0017814 -0.00030611 0.00038013
-0.0082544 0.013015 0.17666 0.29744 0.0049101 0.0082074 0.00043833 -0.0015206
-0.00024952 -0.0009837 -0.00028083 -0.00085851
-0.00096842 -0.0046613 0.0049592 0.0081977 0.33218 -0.10881 -0.0014512 0.00038402
-0.0002891 -0.0010726 0.00016202 -0.00049007
0.001341 0.0016879 0.00043447 -0.0015185 -0.0014508 0.0003905 0.23811 0.10148
-0.0090544 0.0048807 0.0015629 0.00068546
-0.00063116 -0.0017665 -0.00025407 -0.00098671 -0.00029572 -0.0010656 -0.0090478 0.0048738
0.18373 0.16587 -0.0085092 0.0064971
-0.00029938 0.00037806 -0.00028976 -0.00085998 0.00016382 -0.00049537 0.0015971 0.00066987
-0.0085094 0.0064873 0.22104 0.23781
1640000000 0.30134 0.018551 -0.0017334 0.012176 -0.0026244 -0.0023317 0.0024291 0.00099725
-0.00072544 -0.00081039 -0.00034855 0.00065403
-0.0017295 0.012163 0.20609 0.27214 0.0056756 0.0035999 -0.00067914 -0.0015991
-0.00088377 -0.00058773 -0.00056793 -0.00063661
-0.0026472 -0.0023174 0.0056949 0.003575 0.30385 -0.15788 -0.00085194 0.0011771
-0.00097094 -0.0008283 -6.7844e-05 -0.00026171
0.0024473 0.00097515 -0.00069642 -0.0015972 -0.00085457 0.0011777 0.25067 0.050788
-0.0062261 0.0055744 0.0019329 -0.00057793
-0.00074413 -0.00080501 -0.00088358 -0.00058363 -0.00096603 -0.00083115 -0.0062403 0.0055814
0.20713 0.13972 -0.004277 0.008413
-0.00033945 0.0006759 -0.00057174 -0.00063497 -7.1901e-05 -0.0002658 0.0019359 -0.00059594
-0.004285 0.0084062 0.24694 0.20622
1700000000 0.29244 -0.028122 0.0017149 0.0095371 -0.0031624 0.00010608 0.0028216 -0.00092366
-0.0014851 -0.00035756 0.0005879 0.00049067
0.001705 0.0095288 0.22408 0.24037 0.0037964 0.00083365 -0.0013584 -0.00056064
-0.00085228 -0.00014172 -0.0009158 -0.00038955
-0.003152 0.00011477 0.003809 0.00082268 0.25977 -0.19759 0.00026434 0.0015838
-0.0016577 -0.00034815 -0.00058736 -0.00091758
0.0028156 -0.00094743 -0.0013668 -0.00054784 0.0002671 0.0015835 0.24665 -0.00093241
-0.0048811 0.006183 0.0012328 -0.0018246
-0.0014981 -0.00035909 -0.00084854 -0.00013627 -0.0016554 -0.00034299 -0.0048905 0.0061912
0.22461 0.11728 0.00010585 0.0088189
0.00060772 0.00047969 -0.00091612 -0.00037501 -0.00058886 -0.00092112 0.0012218 -0.0018494
0.00010803 0.0088129 0.26296 0.17121
1760000000 0.27827 -0.077432 0.0040948 0.0064931 -0.0021174 0.00071518 0.0014445 -0.0032258
-0.00077338 0.00051877 0.00045369 -0.00035119
0.004093 0.0064878 0.24976 0.20013 0.0016308 -0.00098637 -0.0010881 0.0001816
-0.0012858 0.00083174 -0.000626 0.00053441
-0.0021133 0.00072221 0.0016409 -0.00099097 0.21066 -0.23081 0.0010454 0.0013639
-0.0011823 0.0012607 -0.0013593 -0.0003623
0.0014218 -0.0032383 -0.0010924 0.00018706 0.0010398 0.0013634 0.23543 -0.053691
-0.0027916 0.0060215 -0.00056147 -0.0019827
-0.00076409 0.00052679 -0.0012801 0.00084213 -0.001179 0.0012706 -0.0027931 0.0060493
0.23954 0.079525 0.0035304 0.0061987
0.00045455 -0.00037447 -0.00062387 0.00054693 -0.0013656 -0.00036579 -0.0005627 -0.001995
0.0035335 0.0061906 0.27526 0.13325
1820000000 0.25117 -0.11444 0.004465 0.0029894 -0.00010391 0.0021988 -0.0007546 -0.0030545
-0.0007806 0.00032192 0.0001338 -4.0591e-05
0.0044563 0.002994 0.25922 0.16977 -0.00020256 9.606e-05 -0.0013521 0.00081767
-0.0002367 0.0015113 -0.00052768 0.00057291
-9.9371e-05 0.002214 -0.00019377 0.00010358 0.16057 -0.24625 0.0015581 0.00058911
-0.00044635 0.0020474 -0.001265 0.00055409
-0.00078729 -0.0030299 -0.0013514 0.00082777 0.0015516 0.00059809 0.2031 -0.10106
-0.0018812 0.0051924 -0.0016278 -0.0011296
-0.00078606 0.00033325 -0.00022417 0.001506 -0.00044623 0.0020493 -0.0018796 0.0052082
0.25526 0.047444 0.004401 0.0029009
0.00014412 -4.9904e-05 -0.00052195 0.00058299 -0.001276 0.00056859 -0.0016403 -0.0011243
0.0043998 0.0028968 0.2772 0.096815
1880000000 0.21391 -0.15332 0.0024382 0.00074121 -0.00035965 0.0020866 -0.0028183 -0.002332
-0.00058697 0.0012686 0.00034583 -0.00068486
0.002429 0.00074449 0.26317 0.12319 -0.0020738 0.001784 -0.00016555 0.0017412
0.00068537 0.0015425 0.00023056 0.00096636
-0.00034611 0.002099 -0.0020654 0.0017965 0.10852 -0.25506 0.001977 -0.0010567
0.0014095 0.0021386 -0.00088624 0.0013941
-0.0028259 -0.0023102 -0.00015283 0.0017267 0.0019823 -0.0010539 0.16057 -0.13968
-0.0017985 0.0044574 -0.0022404 0.00098757
-0.00056955 0.0012933 0.0007037 0.001538 0.0014138 0.0021274 -0.0017896 0.0044732
0.25569 0.011858 0.0038765 0.0010549
0.00033968 -0.00067528 0.00023613 0.00096455 -0.00087025 0.0013949 -0.0022505 0.00099956
0.0038736 0.0010543 0.27679 0.062679
1940000000 0.17326 -0.17723 0.00038809 -0.0010846 0.0012088 0.0018635 -0.0038907 0.00046996
0.00091488 0.0010958 -0.00068535 -0.00067337
0.00039126 -0.001093 0.26308 0.091395 -0.00094287 0.0038407 0.00096958 0.0013192
0.0021933 0.00061031 0.00084528 0.00023595
0.0012477 0.0018456 -0.0009241 0.0038471 0.062761 -0.24885 0.00032077 -0.0025287
0.0024229 0.0006258 0.00025297 0.0015003
-0.0038796 0.00049463 0.00096914 0.0013174 0.00031937 -0.0025339 0.10705 -0.16771
-0.0027601 0.004456 -0.00094107 0.0019452
0.00092334 0.0010929 0.002207 0.00059048 0.0024242 0.00061524 -0.002749 0.0044692
0.25392 -0.029329 0.0027124 -0.001803
-0.00071771 -0.00066193 0.00085215 0.00022429 0.00025973 0.0015116 -0.00093893 0.0019484
0.0027086 -0.0018236 0.26533 0.026426
2000000000 0.12699 -0.18931 -0.0032687 0.00078846 0.0023522 0.0016263 -0.0023173 0.0037132
0.0010201 0.00058849 -0.00081634 0.00044433
-0.0032722 0.00078036 0.24835 0.056117 -0.00080488 0.0055186 0.0016442 0.00023348
0.0017569 -0.0017747 0.00055782 3.6562e-05
0.0023566 0.0016225 -0.00075569 0.0055241 0.019223 -0.23468 -0.001527 -0.0014512
0.002152 -0.0012633 0.001633 0.0013076
-0.0022934 0.0037075 0.0016574 0.0002136 -0.0015232 -0.0014628 0.054015 -0.17517
-0.0039576 0.0055365 0.00035385 0.0022161
