!Keysight Technologies,M9804A,MY58100912,A.14.10.03
!Date: Thursday, April 27, 2023 10:28:33
!Correction: S11(C  6-Port  ) 
!S12(C  6-Port  ) 
!S13(C  6-Port  ) 
!S14(C  6-Port  ) 
!S15(C  6-Port  ) 
!S16(C  6-Port  ) 
!S21(C  6-Port  ) 
!S22(C  6-Port  ) 
!S23(C  6-Port  ) 
!S24(C  6-Port  ) 
!S25(C  6-Port  ) 
!S26(C  6-Port  ) 
!S31(C  6-Port  ) 
!S32(C  6-Port  ) 
!S33(C  6-Port  ) 
!S34(C  6-Port  ) 
!S35(C  6-Port  ) 
!S36(C  6-Port  ) 
!S41(C  6-Port  ) 
!S42(C  6-Port  ) 
!S43(C  6-Port  ) 
!S44(C  6-Port  ) 
!S45(C  6-Port  ) 
!S46(C  6-Port  ) 
!S51(C  6-Port  ) 
!S52(C  6-Port  ) 
!S53(C  6-Port  ) 
!S54(C  6-Port  ) 
!S55(C  6-Port  ) 
!S56(C  6-Port  ) 
!S61(C  6-Port  ) 
!S62(C  6-Port  ) 
!S63(C  6-Port  ) 
!S64(C  6-Port  ) 
!S65(C  6-Port  ) 
!S66(C  6-Port  ) 
!S6P File: Measurement: :
# Hz S  RI   R 50
500000000 -0.33418 -0.03084 -0.0092332 -0.0044813 -0.0081113 0.011341 -0.0036567 0.011644
0.012446 0.0045658 -0.0040351 0.0078999
-0.0091855 -0.0044787 -0.41855 -0.047954 0.0074863 -0.011611 0.0013258 0.010863
0.0078606 0.0027131 0.0010514 0.012087
-0.0079373 0.011301 0.0074943 -0.011721 -0.26459 0.21209 0.0067003 0.0027553
0.00050121 0.0085454 0.00071702 0.011642
-0.0037985 0.011506 0.0012648 0.010891 0.006852 0.0028929 -0.32658 0.049209
-0.018956 -0.0050926 0.017487 0.024926
0.012209 0.0042852 0.0076233 0.0027413 0.00034127 0.0083404 -0.018727 -0.005129
-0.22694 -0.17748 -0.026845 0.0045095
-0.0042713 0.0072704 0.0011403 0.011959 0.00072927 0.011818 0.017311 0.024229
-0.026811 0.004546 -0.2734 -0.12409
560000000 -0.31125 0.12613 -0.023396 -0.063184 -0.00031465 0.012388 0.0066927 0.0096726
0.011732 0.0036613 0.0093824 0.0071692
-0.023352 -0.063054 -0.37671 0.11068 -0.04171 -0.036305 0.013551 0.0038136
-0.012379 -0.0050539 0.0048201 -0.00036189
-0.0003085 0.012419 -0.042246 -0.037008 -0.18248 0.25978 -0.00035678 -0.0050364
0.018591 0.0040877 0.0069769 -0.0062372
0.0062645 0.0099044 0.014307 0.0042437 -0.0010898 -0.0052142 -0.30171 0.13705
0.0046963 -0.025057 0.0053348 -0.019547
0.011854 0.0039745 -0.012344 -0.0052879 0.018433 0.0039516 0.0052888 -0.024766
-0.28407 -0.0049042 0.0077475 -0.050656
0.0089412 0.0066644 0.0046688 -0.00017825 0.0071331 -0.0066651 0.0050846 -0.020003
0.0079214 -0.05075 -0.33207 0.022867
620000000 -0.26965 0.11004 -0.023049 0.0063074 0.0032137 0.008443 0.0070026 -0.0056131
0.010654 -0.0010653 0.0010744 -0.0019852
-0.023014 0.0062808 -0.40259 0.064033 -0.019023 -0.00022895 -0.0016431 -0.0022567
0.010334 -0.0070342 0.00062564 -0.0027405
0.0032439 0.0084086 -0.019049 -0.00021674 -0.15261 0.26858 -0.002057 -0.0050575
-0.0034067 -0.0033769 0.0078898 -0.0037725
0.0070327 -0.0059826 -0.001757 -0.0024468 -0.0019811 -0.0053465 -0.2592 0.14663
-0.038602 -0.018914 0.015299 0.023303
0.010852 -0.00050632 0.010729 -0.0066912 -0.0035186 -0.0030471 -0.038764 -0.019148
-0.20366 -0.044497 -0.039697 0.014246
0.0010466 -0.0022748 0.00086037 -0.0030045 0.0083648 -0.0035126 0.014977 0.023309
-0.039602 0.013872 -0.25082 -0.013316
680000000 -0.22944 0.19129 -0.02824 -0.014702 0.0050359 0.0050271 0.00040936 -0.0081022
-0.0034535 -0.010882 0.0044064 -0.007177
-0.028212 -0.014689 -0.38657 0.16081 -0.032597 -0.0010404 -0.0017107 -0.00057628
-0.0029337 -0.008655 -0.00068521 -0.002333
0.0050422 0.0050132 -0.032649 -0.00095474 -0.10157 0.28803 -0.00061916 2.9227e-05
-0.0024264 0.00080715 -0.0027779 -0.0094936
0.00024969 -0.008085 -0.0017969 -0.00061476 -0.00072588 9.4825e-05 -0.21769 0.19563
-0.023496 -0.0088032 -0.011072 -0.010055
-0.0033434 -0.010813 -0.0030022 -0.0087476 -0.0023274 0.00094307 -0.023414 -0.0089653
-0.24834 0.052346 -0.0048344 -0.0095275
0.004543 -0.007089 -0.00102 -0.0023824 -0.0030036 -0.009553 -0.011143 -0.010005
-0.0051031 -0.0096814 -0.26184 0.09048
740000000 -0.18835 0.18635 -0.038878 0.026116 0.012512 -0.0049172 -0.00078981 -0.0041514
-0.0044225 -0.0022482 -0.0060954 0.0034534
-0.038861 0.02608 -0.33471 0.1795 -0.034454 0.034944 -0.00072278 -0.0063487
-0.01138 0.0084175 -0.0024549 -0.0060071
0.012497 -0.0050535 -0.034408 0.035084 -0.067796 0.28705 -0.0012682 0.003653
-0.0030025 -0.0036101 -0.00086901 0.00062437
-0.00080429 -0.0040183 -0.0010322 -0.0062107 -0.0013228 0.0035615 -0.20087 0.20296
-0.042419 -0.0078882 0.022798 0.012513
-0.0048068 -0.0023453 -0.011526 0.0086688 -0.0027499 -0.0035684 -0.042826 -0.0075563
-0.15535 0.073195 -0.042593 0.0014761
-0.0060151 0.0037448 -0.0024162 -0.0061452 -0.001017 0.00085587 0.022469 0.012537
-0.042646 0.0014556 -0.25038 0.097544
800000000 -0.15766 0.22636 -0.023078 0.017347 0.0051992 -0.010479 -0.0049216 -0.0019712
-0.0040729 0.0030329 0.0043685 0.00080093
-0.023051 0.017336 -0.33674 0.24955 -0.0076518 0.03392 -0.0019999 0.0022122
-0.00025069 0.0035895 0.0012512 0.0053759
0.0051486 -0.010523 -0.0075199 0.033967 -0.026737 0.30977 0.0012533 0.0015049
0.00089892 0.0035753 -0.0017983 0.00097073
-0.0048055 -0.0019839 -0.0020007 0.002278 0.0012535 0.0015136 -0.17349 0.23077
-0.028559 0.012367 0.0129 -0.0096631
-0.003901 0.0031065 -0.00013956 0.0038057 0.00095403 0.0035939 -0.028689 0.012389
-0.19768 0.098024 -0.017877 0.017196
0.0045441 0.00071431 0.0012699 0.0054183 -0.0017951 0.00080957 0.01292 -0.0097204
-0.017943 0.01714 -0.24411 0.1519
860000000 -0.12335 0.24867 -0.017259 0.031709 -0.0034713 -0.0096616 -0.0027191 0.0014167
0.0045366 0.0052586 -0.0027746 -0.0029865
-0.017254 0.03168 -0.28886 0.29129 0.0082368 0.03395 0.00036361 0.0019829
0.0047485 0.0002683 0.0032936 0.0002852
-0.0034087 -0.0097236 0.0083746 0.033929 0.0217 0.31745 -0.000322 -0.00035432
0.002947 -0.0016513 0.0014486 0.0043993
-0.0025695 0.0013871 0.00031126 0.00196 -0.00043027 -0.00032207 -0.13811 0.24275
-0.017903 0.018277 -0.0063353 -0.0092281
0.004734 0.0053924 0.0046593 0.00033534 0.0028556 -0.0017446 -0.017767 0.018245
-0.14975 0.14535 -0.023776 0.015317
-0.0028353 -0.0031098 0.0033418 0.00033225 0.0015504 0.0044658 -0.0064109 -0.0090053
-0.023824 0.015245 -0.19336 0.19396
920000000 -0.098235 0.2728 0.0052503 0.038449 -0.0092951 -0.0039105 -0.0015881 0.0025662
0.001373 0.0014979 0.002273 -0.0013039
0.0052279 0.038394 -0.25967 0.31193 0.027998 0.021453 0.0016805 0.0010803
0.0066844 -0.00091222 0.0036759 -0.0028875
-0.0092928 -0.0038991 0.028099 0.021395 0.068107 0.31767 0.0017868 -0.00019559
0.0013083 -0.00056382 0.00083795 -0.001061
-0.001587 0.0026133 0.0017405 0.001112 0.0017503 -0.00021804 -0.11368 0.25916
-0.010518 0.02958 0.0024155 -0.0062682
0.0013757 0.0015163 0.0067015 -0.0010369 0.0012645 -0.0005321 -0.010591 0.029684
-0.13944 0.15194 -0.0020938 0.027003
0.0022969 -0.0014053 0.0036054 -0.0028341 0.00084425 -0.0010987 0.0023167 -0.0062683
-0.0022941 0.027106 -0.19975 0.20864
980000000 -0.050477 0.29243 0.018241 0.030252 -0.0085688 0.0048096 0.0026579 0.0037963
0.0040306 -0.0018967 -0.0028988 -0.0020772
0.018221 0.030212 -0.20696 0.34513 0.032753 0.004336 0.0019283 -7.4608e-05
0.00086413 -0.00612 -0.00051969 -0.0022437
-0.0085742 0.0048122 0.032754 0.0042743 0.11444 0.3107 0.00033275 -0.0012061
-0.00011697 -0.002112 0.001519 -7.0153e-05
0.0026406 0.0038028 0.0020265 -0.00010063 0.0003609 -0.0011978 -0.075604 0.27079
0.0069667 0.028077 -0.0095027 -0.0063234
0.0041084 -0.0018818 0.00090356 -0.0061996 -0.00010531 -0.0021433 0.0070586 0.028177
-0.10887 0.17871 0.005 0.018426
-0.002919 -0.0020728 -0.00068214 -0.0022019 0.001484 -9.4773e-05 -0.0094156 -0.0062695
0.0049507 0.018423 -0.15669 0.25261
1040000000 -0.0073799 0.30099 0.033592 0.017696 -0.00094239 0.0068153 0.0030518 0.00069596
8.4685e-06 -0.0038534 -0.00057872 -0.0012602
0.033542 0.017676 -0.17123 0.35812 0.028802 -0.014944 0.0014246 -0.0016521
-0.0026509 -0.0020864 -0.0013833 -0.0026678
-0.00090499 0.0068284 0.02875 -0.015054 0.1605 0.29662 -0.00052507 -0.0013143
-0.0015926 -0.00073382 -0.00037783 -0.0010144
0.0030192 0.00065332 0.0014521 -0.001621 -0.00052162 -0.0013346 -0.047907 0.28083
0.017676 0.016793 -0.0031205 0.0024082
5.4984e-05 -0.0038829 -0.0026835 -0.0021254 -0.0014957 -0.0007177 0.017746 0.016758
-0.078434 0.18793 0.012965 0.017718
-0.00064637 -0.0013736 -0.0014368 -0.0027146 -0.00040119 -0.0011384 -0.0031712 0.0023235
0.012989 0.017709 -0.13487 0.27354
1100000000 0.03847 0.30822 0.035775 -0.0046906 0.0030359 0.0035579 0.0026964 -0.0016581
-0.0022467 -0.0029498 -0.0037406 0.00011032
0.035737 -0.0046844 -0.12775 0.37485 0.014596 -0.027543 1.9786e-05 -0.0018549
-0.0030123 -0.00027248 -0.0033963 -0.00047047
0.0030607 0.0035387 0.014521 -0.027598 0.20671 0.27596 -0.0017483 0.00028876
-0.0015563 0.00072554 -0.00095986 -0.00037217
0.0026636 -0.0016788 2.1855e-05 -0.0018819 -0.0017338 0.00031059 -0.0072444 0.28563
0.021731 0.0049947 -0.0021966 0.0012556
-0.0021952 -0.0029527 -0.0030594 -0.00027311 -0.0015844 0.00068723 0.021739 0.0049263
-0.059954 0.20125 0.017978 0.0082937
-0.0037009 1.3431e-05 -0.0033636 -0.00042294 -0.00090342 -0.00037119 -0.002164 0.0013381
0.017969 0.0083359 -0.088082 0.30287
1160000000 0.090246 0.30287 0.023742 -0.021013 0.0026214 -0.00071399 -6.5153e-05 -0.0027212
-0.0041303 -0.00022892 -0.00085801 0.0040649
0.023734 -0.020993 -0.083872 0.37872 -0.0039463 -0.028627 -0.0018004 -0.001575
-0.0021735 0.0026265 -0.0012717 0.0015871
0.0026584 -0.00072044 -0.0040614 -0.028566 0.2495 0.24487 -0.00055365 0.0016623
-0.00026464 0.0016794 -0.00095482 7.0558e-05
-6.0963e-05 -0.0027286 -0.0017925 -0.0015665 -0.00050541 0.001665 0.032154 0.28279
0.018378 -0.0092238 -0.0025341 0.0059447
-0.004161 -0.00015643 -0.0022383 0.0026656 -0.00028037 0.0017257 0.018378 -0.0092862
-0.02674 0.21129 0.016852 0.00052566
-0.00082267 0.0040841 -0.0012521 0.0016465 -0.0010177 8.5662e-05 -0.0025308 0.0059392
0.016795 0.00061707 -0.041274 0.30551
1220000000 0.13502 0.29111 0.010066 -0.029906 -0.0016412 -0.00089984 -0.00035921 -0.0012548
-0.0024123 0.0027092 0.0013146 0.0018121
0.010075 -0.029877 -0.039744 0.38998 -0.016682 -0.0206 -0.0025181 0.00045784
0.00041939 0.0027498 -0.00066493 0.0017273
-0.0016353 -0.00094332 -0.01681 -0.02055 0.28841 0.20575 0.0009184 0.0014624
0.00060515 0.00099821 0.00027743 0.00068209
-0.00035357 -0.001223 -0.0024739 0.00050402 0.00092658 0.0014508 0.071843 0.27406
0.0087539 -0.014462 0.0031817 0.0018308
-0.0024423 0.0026686 0.00039721 0.00272 0.00063797 0.00099234 0.0087382 -0.014444
-0.0027353 0.22131 0.012961 -0.011787
0.0013315 0.0018248 -0.00067044 0.001653 0.0002941 0.00069424 0.0031937 0.0018576
0.012941 -0.011779 -0.0089464 0.32177
1280000000 0.18447 0.26853 -0.0079076 -0.028115 -0.0018983 0.0023962 -0.0012867 -0.001927
-0.00035499 0.0031168 0.0024905 0.00089001
-0.0078873 -0.028084 0.0059388 0.38071 -0.023182 -0.0082046 -0.00096233 0.001465
0.0015805 0.0013959 0.0004854 0.0019106
-0.0018616 0.002416 -0.023237 -0.0081002 0.31891 0.16173 0.0012677 -0.00020672
0.00089063 2.0218e-05 0.00028419 0.00039182
-0.0012883 -0.0019225 -0.00096456 0.0014617 0.0012737 -0.0001877 0.10826 0.25812
0.0004432 -0.015761 0.00104 -9.0497e-06
-0.00038756 0.0031098 0.001593 0.0013491 0.00089745 4.8223e-05 0.00042617 -0.015754
0.034596 0.22518 0.0027017 -0.013599
0.0025044 0.00095966 0.00049562 0.0019184 0.00033333 0.00040746 0.0010302 8.428e-06
0.0027081 -0.013604 0.038298 0.32287
1340000000 0.22165 0.23454 -0.017511 -0.018716 0.00079055 0.0043145 -0.0020026 -0.00053234
0.0015309 0.0023606 0.0015319 -0.0015192
-0.017482 -0.01871 0.045112 0.37205 -0.021114 0.004195 -3.5284e-05 0.0019252
0.0015805 0.00057142 0.0013128 0.00082013
0.00077236 0.0043348 -0.021148 0.0042876 0.34105 0.11373 0.00087373 -0.00084609
0.0005141 -0.00035228 0.00026701 0.00020628
-0.0020131 -0.00052658 -3.2392e-05 0.0019246 0.00087601 -0.00085868 0.14129 0.23806
-0.0068822 -0.013061 0.001635 -0.00039075
0.001563 0.0023875 0.0015992 0.00056881 0.000474 -0.00030272 -0.0069138 -0.013042
0.066028 0.22072 -0.0032172 -0.012101
0.0015121 -0.0015191 0.0012789 0.00081512 0.0002151 0.0002092 0.0016447 -0.00038995
-0.0032134 -0.012077 0.07757 0.31812
1400000000 0.25465 0.19609 -0.023007 -0.0074044 0.0049615 0.0031123 -0.0019392 0.00086409
0.0023759 0.00042935 0.00013009 -0.0013013
-0.022974 -0.0073975 0.081923 0.35891 -0.014525 0.012101 0.0013312 0.0012189
0.00077499 -0.00075653 0.0011799 0.00029306
0.0049391 0.0030827 -0.014498 0.012183 0.35408 0.05995 1.1409e-05 -0.0013825
-3.534e-05 -0.00031649 0.00029181 0.00021192
-0.0019551 0.00086814 0.0013384 0.0011748 3.0424e-06 -0.0013869 0.17147 0.20979
-0.011381 -0.007472 -0.00047688 -0.0012249
0.0024084 0.00040699 0.00077985 -0.0007856 -7.0514e-05 -0.00032583 -0.011404 -0.0074601
0.099907 0.21567 -0.0091523 -0.0076877
0.00016013 -0.0012688 0.0011922 0.00029951 0.0003644 0.00023524 -0.00046666 -0.001247
-0.0091313 -0.0076718 0.12227 0.30687
1460000000 0.27792 0.1518 -0.020181 0.0044109 0.005396 -0.0016488 -0.0013766 0.0017692
0.0017161 -0.00085663 -0.00036629 -0.00082326
-0.020164 0.0043991 0.11594 0.33712 -0.0061046 0.014826 0.001646 0.00014383
0.0007574 -0.00095032 0.0011556 -0.0006023
0.0053974 -0.0016601 -0.0060323 0.014884 0.35986 0.0051627 -0.00099713 -0.00112
0.00024958 -0.00010295 0.00057887 -0.00037567
-0.0013563 0.0017574 0.0016478 0.00012808 -0.0010219 -0.001095 0.1988 0.18058
-0.011736 -0.0026502 -0.0012657 0.0010745
0.0017342 -0.00088255 0.00075131 -0.00097099 0.00026409 -0.00011989 -0.011748 -0.0026146
0.13051 0.20036 -0.010369 -0.0027181
-0.00035729 -0.00083595 0.0011717 -0.00064979 0.00058023 -0.00039773 -0.0012622 0.0010693
-0.010345 -0.0027268 0.15551 0.28558
1520000000 0.29046 0.10917 -0.014668 0.0099842 0.0030628 -0.0039154 0.00025442 0.0024185
0.0014163 -0.0016001 -0.0010869 -0.00012853
-0.014664 0.0099598 0.14937 0.32225 0.0012984 0.012865 0.0015517 -0.00079596
0.00017749 -0.00079885 0.00030078 -0.0010322
0.0030583 -0.0039144 0.001364 0.01286 0.35275 -0.051107 -0.00081649 -0.00034759
0.00058097 -0.0007343 -2.0125e-05 -5.6402e-05
0.00023228 0.0024038 0.0015584 -0.00080529 -0.00078072 -0.00038671 0.22308 0.14205
-0.011295 0.0012643 0.00068113 0.0015379
0.0014173 -0.0016392 0.000153 -0.00080025 0.00054811 -0.00074039 -0.011289 0.001277
0.15926 0.18487 -0.010487 0.0012448
-0.0010801 -0.0001136 0.00029004 -0.0010473 -2.8065e-05 -1.4402e-05 0.00069102 0.0015401
-0.010485 0.0012241 0.189 0.26476
1580000000 0.29996 0.061769 -0.0082797 0.013023 -0.00095461 -0.0046026 0.0013245 0.0016502
-0.00058767 -0.0017518 -0.00031051 0.00033037
-0.0082758 0.013009 0.17655 0.29744 0.0049367 0.0082084 0.0004294 -0.0015209
-0.00024631 -0.00098641 -0.00027955 -0.00088493
-0.00096084 -0.0046659 0.0049694 0.0081906 0.33224 -0.10873 -0.0014149 0.00040555
-0.00025363 -0.0010506 0.00013714 -0.00054803
0.0013428 0.0016613 0.0004318 -0.0015149 -0.0014447 0.00037062 0.23805 0.10148
-0.0091041 0.0047902 0.0015109 0.00067453
-0.00061141 -0.0017669 -0.00025773 -0.00099142 -0.00026513 -0.0010463 -0.0091218 0.0048224
0.18393 0.16569 -0.0084764 0.0063992
-0.00030465 0.00037225 -0.00029985 -0.00086178 0.00016708 -0.00049085 0.0015055 0.00067939
-0.0084472 0.0063773 0.22104 0.23781
1640000000 0.30162 0.018606 -0.0017545 0.012184 -0.0026026 -0.0023462 0.0023843 0.00098588
-0.00071695 -0.00083463 -0.00034375 0.00065553
-0.0017624 0.012165 0.20599 0.27217 0.0056556 0.0035985 -0.00069662 -0.0015903
-0.00088154 -0.00061606 -0.00056407 -0.00064574
-0.0026319 -0.0023212 0.0056994 0.0035713 0.30376 -0.15791 -0.00088103 0.0012198
-0.00098235 -0.00083197 -5.7419e-05 -0.00025802
0.0024276 0.00099134 -0.00068987 -0.0015793 -0.00088895 0.0011877 0.2506 0.05083
-0.0063703 0.0055503 0.0019024 -0.00053661
-0.00072655 -0.00081254 -0.0008894 -0.00057548 -0.00097262 -0.00083933 -0.0063699 0.0055547
0.20721 0.13943 -0.0043045 0.0083201
-0.00033765 0.00065045 -0.00056883 -0.00063611 -8.0396e-05 -0.00025775 0.0019071 -0.00053728
-0.0042987 0.0083173 0.24687 0.20618
1700000000 0.29266 -0.028231 0.0016872 0.0095343 -0.0031301 8.4975e-05 0.0028454 -0.00091737
-0.0015033 -0.00036274 0.00059251 0.0004593
0.0016858 0.0095279 0.22395 0.24041 0.0038065 0.00082937 -0.0013531 -0.00054993
-0.00086382 -0.00013937 -0.00092903 -0.0003906
-0.003143 0.00010644 0.0037995 0.00081281 0.25982 -0.19757 0.00021611 0.0015189
-0.0016641 -0.00031948 -0.0005892 -0.00099867
0.0028206 -0.00092977 -0.0013676 -0.00056252 0.00026164 0.0015835 0.24668 -0.00088764
-0.004977 0.0062212 0.0012224 -0.0017844
-0.0014882 -0.00035157 -0.00085869 -0.00013688 -0.001679 -0.00037587 -0.0049832 0.006223
0.22463 0.11703 9.668e-05 0.0087705
0.00058668 0.000487 -0.00091742 -0.00037197 -0.00059734 -0.00094907 0.0012332 -0.0017678
9.0682e-05 0.0087543 0.26295 0.1712
1760000000 0.27844 -0.07761 0.004074 0.0065097 -0.0020873 0.00070063 0.0014501 -0.0031934
-0.00081581 0.00048493 0.000464 -0.00035027
0.004063 0.0065147 0.24967 0.20021 0.0016281 -0.00096915 -0.0010813 0.00016482
-0.001286 0.0008318 -0.00063009 0.00054778
-0.0021107 0.00070017 0.0016198 -0.00098245 0.2107 -0.23067 0.0010898 0.0014006
-0.0011886 0.0012128 -0.0013836 -0.00032822
0.0014424 -0.0032159 -0.001081 0.00019436 0.0010914 0.0014282 0.23543 -0.05361
-0.002874 0.0061298 -0.00059209 -0.0019241
-0.00078694 0.00052715 -0.0012714 0.00085269 -0.0011399 0.0012925 -0.0028683 0.0061642
0.23938 0.079305 0.0034721 0.0061465
0.00044857 -0.00034609 -0.00062638 0.00054162 -0.0013927 -0.00043236 -0.0006217 -0.0019424
0.0034848 0.0061352 0.27537 0.13333
1820000000 0.25115 -0.11471 0.0044373 0.0030138 -0.00010422 0.0021924 -0.00072814 -0.0030624
-0.00078154 0.00031499 0.00012507 -8.6254e-05
0.0044459 0.0030115 0.25914 0.16984 -0.00021854 8.9415e-05 -0.0013535 0.00085277
-0.00022831 0.0015118 -0.00048813 0.00055088
-7.2386e-05 0.0021818 -0.00022361 9.8407e-05 0.16061 -0.24633 0.0015358 0.00060528
-0.00048161 0.0020361 -0.0012478 0.00056645
-0.00077679 -0.0030499 -0.0013584 0.00082006 0.0015296 0.00061101 0.20305 -0.10096
-0.0019257 0.0052935 -0.0016068 -0.0010844
-0.00080581 0.0003268 -0.00021591 0.0015194 -0.00046769 0.0020967 -0.0019231 0.0052939
0.25503 0.047338 0.004333 0.002886
0.00012799 -4.7668e-05 -0.00052017 0.00057847 -0.0012105 0.0006042 -0.0015783 -0.0010674
0.0043285 0.0028689 0.2772 0.096788
1880000000 0.21375 -0.15352 0.0024372 0.0007852 -0.00038132 0.0020196 -0.0028571 -0.002378
-0.00055947 0.0012761 0.00041642 -0.00071455
0.0024345 0.00078424 0.2631 0.12327 -0.0020684 0.0017388 -0.00019815 0.0017227
0.00069504 0.0015413 0.00023496 0.00095834
-0.00037089 0.0020687 -0.0020804 0.0017835 0.10857 -0.25508 0.0019744 -0.00107
0.0013985 0.0020823 -0.00085366 0.0013274
-0.0028303 -0.002302 -0.00018351 0.0017332 0.0019452 -0.0011047 0.16047 -0.13963
-0.0017864 0.0045002 -0.0021372 0.00094469
-0.00059058 0.001259 0.00072248 0.001516 0.0014444 0.0020573 -0.001799 0.0045106
0.25553 0.011804 0.0038681 0.0010966
0.00034023 -0.00069768 0.0002488 0.00094335 -0.00079896 0.0014055 -0.0021558 0.0009462
0.0038567 0.001095 0.27681 0.062725
1940000000 0.17307 -0.17731 0.00041732 -0.0010443 0.001218 0.0018757 -0.0039006 0.00045341
0.00092485 0.0011207 -0.00072227 -0.00069721
0.00043022 -0.0010415 0.26306 0.09146 -0.00098082 0.0038362 0.00097517 0.0013129
0.0022188 0.0005791 0.00085363 0.00020975
0.0012328 0.0018546 -0.00093158 0.003863 0.062749 -0.24887 0.0003559 -0.002536
0.0024649 0.00059204 0.00025962 0.0015523
-0.0038952 0.00047756 0.00098763 0.0013436 0.00035433 -0.0025401 0.10708 -0.1676
-0.0026739 0.0045489 -0.00088959 0.0019223
0.00093774 0.0010985 0.0021777 0.00058118 0.0024192 0.00060582 -0.0027017 0.0045536
0.25371 -0.029251 0.002681 -0.0017842
-0.00069951 -0.00067553 0.00082503 0.00021225 0.00022814 0.0014919 -0.00091098 0.0018956
0.0027009 -0.0018109 0.26528 0.02658
2000000000 0.1267 -0.18921 -0.0032542 0.00080667 0.0023087 0.0016601 -0.0023465 0.003661
0.0010447 0.00056031 -0.00078482 0.00034321
-0.0032614 0.00080883 0.24833 0.056155 -0.00080056 0.0055094 0.0016624 0.00021365
0.0017517 -0.0017797 0.00057771 9.0453e-05
0.0023323 0.0016298 -0.0007693 0.0055023 0.019291 -0.23465 -0.0015458 -0.0014778
0.0021654 -0.0012773 0.0016618 0.0013008
-0.0023038 0.0037326 0.001626 0.00023952 -0.0015303 -0.0014661 0.054062 -0.17523
-0.0038761 0.0055815 0.00044319 0.002194
