!Keysight Technologies,M9804A,MY58100912,A.14.10.03
!Date: Thursday, April 27, 2023 10:28:33
!Correction: S11(C  6-Port  ) 
!S12(C  6-Port  ) 
!S13(C  6-Port  ) 
!S14(C  6-Port  ) 
!S15(C  6-Port  ) 
!S16(C  6-Port  ) 
!S21(C  6-Port  ) 
!S22(C  6-Port  ) 
!S23(C  6-Port  ) 
!S24(C  6-Port  ) 
!S25(C  6-Port  ) 
!S26(C  6-Port  ) 
!S31(C  6-Port  ) 
!S32(C  6-Port  ) 
!S33(C  6-Port  ) 
!S34(C  6-Port  ) 
!S35(C  6-Port  ) 
!S36(C  6-Port  ) 
!S41(C  6-Port  ) 
!S42(C  6-Port  ) 
!S43(C  6-Port  ) 
!S44(C  6-Port  ) 
!S45(C  6-Port  ) 
!S46(C  6-Port  ) 
!S51(C  6-Port  ) 
!S52(C  6-Port  ) 
!S53(C  6-Port  ) 
!S54(C  6-Port  ) 
!S55(C  6-Port  ) 
!S56(C  6-Port  ) 
!S61(C  6-Port  ) 
!S62(C  6-Port  ) 
!S63(C  6-Port  ) 
!S64(C  6-Port  ) 
!S65(C  6-Port  ) 
!S66(C  6-Port  ) 
!S6P File: Measurement: :
# Hz S  RI   R 50
500000000 -0.33567 -0.032181 -0.0094719 -0.0033766 -0.0077279 0.011625 -0.0035762 0.011573
0.012276 0.0045079 -0.0040403 0.0080741
-0.0098105 -0.0044881 -0.41864 -0.047687 0.0078807 -0.011756 0.0013206 0.010788
0.0077492 0.002796 0.0012314 0.012012
-0.0080178 0.012067 0.0076221 -0.011439 -0.26398 0.21216 0.0067803 0.0027459
0.00048128 0.0087119 0.00073333 0.011605
-0.003218 0.010636 0.0020035 0.010841 0.0074478 0.0031939 -0.32667 0.049196
-0.01896 -0.005122 0.017497 0.024811
0.012401 0.0033253 0.0083136 0.0026314 -0.0014765 0.0080718 -0.01864 -0.0047698
-0.22706 -0.17781 -0.027365 0.004429
-0.0046621 0.0059944 0.0014491 0.012203 0.0013279 0.011477 0.017782 0.023981
-0.027067 0.0044132 -0.27319 -0.12475
560000000 -0.31314 0.12656 -0.024881 -0.061802 0.00029117 0.012306 0.0061635 0.0099454
0.011492 0.0038551 0.0093858 0.0071826
-0.024192 -0.062027 -0.3755 0.11193 -0.042378 -0.036355 0.013871 0.0034047
-0.012695 -0.0050178 0.0048087 -0.00055927
-0.00011569 0.012579 -0.042831 -0.036678 -0.18163 0.25915 -0.00072551 -0.0047174
0.018807 0.004153 0.0071362 -0.0060611
0.0065683 0.0093668 0.013402 0.0031319 -0.0014461 -0.0048949 -0.30054 0.13671
0.0047339 -0.024848 0.0053826 -0.019473
0.012295 0.0035587 -0.013295 -0.0031394 0.019329 0.0040462 0.0046563 -0.024508
-0.28437 -0.0052155 0.007952 -0.050929
0.0096208 0.007706 0.0041136 -0.00012025 0.0065711 -0.0061639 0.0058261 -0.019498
0.0075328 -0.050783 -0.3322 0.02296
620000000 -0.27151 0.10963 -0.022932 0.0067475 0.0034811 0.0084421 0.0070168 -0.0059504
0.010836 -0.0011667 0.00075712 -0.0018991
-0.023052 0.0068751 -0.40243 0.064466 -0.018934 -0.00015546 -0.0017014 -0.0023192
0.010598 -0.0069642 0.00045676 -0.0028073
0.0033774 0.0082586 -0.018841 -2.3314e-06 -0.15248 0.26858 -0.0018932 -0.0052404
-0.0031912 -0.0034135 0.007775 -0.0036349
0.0066169 -0.0066473 -0.0016913 -0.0021037 -0.0013864 -0.0051568 -0.25917 0.14672
-0.038867 -0.018992 0.014883 0.02355
0.010851 0.00013829 0.010912 -0.0072548 -0.0040427 -0.0036644 -0.038897 -0.018967
-0.20335 -0.044365 -0.039279 0.014026
0.00052816 -0.0020355 0.00056035 -0.0024513 0.0085628 -0.0033379 0.015134 0.023837
-0.039283 0.014002 -0.25116 -0.013711
680000000 -0.23077 0.19319 -0.027828 -0.014126 0.0049526 0.0050676 0.00055431 -0.0079908
-0.0033958 -0.010858 0.0043196 -0.007298
-0.028003 -0.014023 -0.38617 0.16117 -0.032695 -0.0010979 -0.0015821 -0.00066301
-0.0028584 -0.008632 -0.0007838 -0.0023105
0.0052512 0.0052441 -0.032711 -0.00070662 -0.10155 0.28808 -0.00069951 0.00010346
-0.0023481 0.00083072 -0.002903 -0.0095566
1.4685e-05 -0.0079204 -0.0018359 -0.00025376 -0.00098964 0.00038826 -0.21766 0.19593
-0.023548 -0.0086007 -0.011033 -0.0099927
-0.0040166 -0.010467 -0.0031079 -0.0085343 -0.002116 0.0007295 -0.02314 -0.0086448
-0.24885 0.052555 -0.0050245 -0.0095022
0.0046764 -0.0063323 -0.0011008 -0.0020785 -0.0025807 -0.009533 -0.011088 -0.010079
-0.0051341 -0.0096288 -0.26197 0.090228
740000000 -0.18859 0.18813 -0.038439 0.025984 0.012629 -0.0054189 -0.0009124 -0.0040546
-0.0043085 -0.0023166 -0.006214 0.0033718
-0.03848 0.025945 -0.33484 0.17956 -0.034848 0.035245 -0.00079331 -0.0061844
-0.011444 0.0082872 -0.0026568 -0.0060832
0.012908 -0.0048739 -0.034288 0.034903 -0.06807 0.28693 -0.0012592 0.0035316
-0.0031241 -0.0036133 -0.00082351 0.00047613
-0.00087992 -0.0046582 -0.0010208 -0.0062731 -0.0013793 0.0036575 -0.20097 0.20308
-0.042286 -0.0077612 0.022663 0.012358
-0.0047115 -0.0025851 -0.011377 0.0081366 -0.0032462 -0.0041639 -0.042517 -0.0077816
-0.15556 0.073705 -0.042272 0.0017938
-0.0066732 0.0029651 -0.0029888 -0.0061386 -0.0019087 0.0011192 0.02272 0.012439
-0.042815 0.0017319 -0.25052 0.097097
800000000 -0.15727 0.22811 -0.022773 0.017411 0.0052307 -0.010629 -0.0048836 -0.0020196
-0.0041669 0.0029612 0.0043107 0.00085187
-0.022688 0.017496 -0.33678 0.2496 -0.0077123 0.033892 -0.0019958 0.0021116
-0.00026364 0.0035248 0.0012855 0.0052954
0.0051092 -0.010401 -0.0076112 0.034075 -0.026682 0.3098 0.0012781 0.0014773
0.00085647 0.0036038 -0.0018982 0.00099441
-0.0052888 -0.0016273 -0.002164 0.0023302 0.001295 0.0014674 -0.17344 0.23086
-0.028503 0.012318 0.012921 -0.0096843
-0.0041759 0.003088 -0.00030873 0.0035612 0.0010868 0.0033792 -0.028424 0.012407
-0.1977 0.098196 -0.017872 0.017214
0.0038795 0.0012805 0.0010266 0.0058091 -0.0017929 0.00077035 0.012761 -0.0096089
-0.017916 0.01716 -0.24426 0.15165
860000000 -0.12282 0.24999 -0.016895 0.031466 -0.003514 -0.0095879 -0.0026258 0.0013882
0.0044559 0.0050948 -0.0027067 -0.0028182
-0.017012 0.031434 -0.28847 0.29132 0.0082588 0.033999 0.00038588 0.002027
0.0047176 0.00018146 0.0033891 0.00037014
-0.0035388 -0.0094956 0.0083411 0.033992 0.021781 0.31754 -0.00033483 -0.00031653
0.0028356 -0.0016274 0.0015105 0.0044296
-0.0025639 0.0011231 0.00025419 0.0019134 -0.000373 -0.00033358 -0.1381 0.24304
-0.017687 0.018104 -0.0062871 -0.0090794
0.0049715 0.0052594 0.0045801 0.00033447 0.0027698 -0.0014393 -0.017797 0.018049
-0.14949 0.14516 -0.023581 0.015506
-0.0032792 -0.0027487 0.0032691 0.00035103 0.0014274 0.0043351 -0.0063938 -0.0093322
-0.023797 0.015528 -0.19346 0.19411
920000000 -0.097281 0.27348 0.0054556 0.038161 -0.0093134 -0.0040677 -0.0016747 0.0024829
0.0013266 0.0015755 0.0024636 -0.0012881
0.0055333 0.038016 -0.25958 0.31205 0.028029 0.021403 0.0016913 0.0011
0.0067128 -0.00079406 0.0037334 -0.0027181
-0.0093453 -0.0040209 0.028127 0.021391 0.06825 0.31768 0.0017541 -0.00016296
0.0013287 -0.00048629 0.00071829 -0.0010268
-0.0015398 0.0025642 0.0016704 0.0011567 0.001736 -0.00026979 -0.11371 0.25915
-0.01047 0.029522 0.0023768 -0.0062763
0.0014804 0.0017633 0.0068504 -0.00093176 0.0013313 -0.0004065 -0.010629 0.029561
-0.1392 0.15205 -0.0020611 0.027277
0.0025225 -0.0013193 0.0038039 -0.0029494 0.00090019 -0.0013085 0.002528 -0.0062526
-0.0022679 0.027236 -0.19966 0.20834
980000000 -0.049287 0.29318 0.01829 0.029785 -0.0087038 0.0047787 0.0025569 0.0038254
0.0040742 -0.0018313 -0.0028681 -0.0021519
0.018209 0.029934 -0.20679 0.34539 0.032682 0.0043595 0.0019934 -3.4715e-05
0.00088351 -0.0061385 -0.00054002 -0.0022442
-0.008609 0.0048543 0.032751 0.0042101 0.11453 0.31073 0.00034683 -0.0012037
-6.6594e-05 -0.0021324 0.0015621 -9.7675e-05
0.0026454 0.0037745 0.0019988 -0.00013783 0.00034206 -0.0011106 -0.075492 0.271
0.0069841 0.028062 -0.0094816 -0.006397
0.0042071 -0.0017624 0.00090595 -0.0061332 3.6876e-06 -0.0020495 0.0070943 0.028074
-0.10857 0.17894 0.0051511 0.018403
-0.0030914 -0.002225 -0.00060236 -0.002565 0.0013753 2.2271e-05 -0.0096185 -0.0062538
0.0051314 0.018485 -0.15686 0.25259
1040000000 -0.0063306 0.30108 0.033496 0.01745 -0.0010283 0.0067937 0.0029908 0.00072016
2.7575e-05 -0.0037704 -0.00061991 -0.0013924
0.033427 0.017375 -0.17094 0.35832 0.02879 -0.014895 0.0014696 -0.0016143
-0.0026843 -0.0021204 -0.0013859 -0.0026391
-0.00092241 0.0067413 0.028729 -0.015081 0.1607 0.29657 -0.0005015 -0.001341
-0.0015512 -0.00071783 -0.00044387 -0.0010546
0.0028602 0.0007342 0.0015226 -0.0016169 -0.00056441 -0.0013596 -0.047838 0.28082
0.017628 0.016731 -0.0031339 0.0023082
-0.00020481 -0.003843 -0.0026183 -0.0021465 -0.0016017 -0.00072711 0.017735 0.016686
-0.078037 0.18777 0.01324 0.017716
-0.00052141 -0.0014551 -0.0013665 -0.0027112 -0.00043923 -0.0010213 -0.0031697 0.0022743
0.013183 0.01773 -0.13498 0.27372
1100000000 0.039947 0.30819 0.035623 -0.0047876 0.0029579 0.0035983 0.0026428 -0.0015668
-0.00218 -0.0029886 -0.0038072 -2.8033e-06
0.035631 -0.0048116 -0.12744 0.37502 0.014608 -0.027571 7.1574e-05 -0.0018601
-0.0030653 -0.00030822 -0.0033862 -0.00045604
0.0029927 0.0035354 0.014533 -0.027606 0.20679 0.27587 -0.0017389 0.00028163
-0.001542 0.00071262 -0.00089399 -0.00034916
0.0027663 -0.0014974 -1.4417e-06 -0.0018032 -0.0017686 0.00029699 -0.007157 0.28566
0.021698 0.0049605 -0.002124 0.0012443
-0.0021519 -0.0030138 -0.0029968 -0.00028458 -0.0017048 0.0006605 0.021693 0.0049433
-0.059598 0.20114 0.018223 0.0083062
-0.0038537 9.2803e-05 -0.0035194 -0.00031775 -0.00091827 -0.00035595 -0.0022324 0.0013087
0.018163 0.008267 -0.088035 0.30277
1160000000 0.091342 0.30249 0.02357 -0.021085 0.0026052 -0.00062435 -3.0239e-05 -0.0026569
-0.0041265 -0.00026647 -0.00086376 0.0040866
0.023499 -0.020983 -0.08353 0.37878 -0.003953 -0.028595 -0.0017708 -0.0016064
-0.0022077 0.0026584 -0.0012858 0.0016015
0.0026424 -0.00066941 -0.0040896 -0.028585 0.24959 0.24483 -0.00057255 0.0016748
-0.00023337 0.0017253 -0.0010039 7.2453e-05
-2.1149e-06 -0.0026607 -0.0017056 -0.0016481 -0.00048997 0.0016763 0.032244 0.28269
0.018264 -0.0092481 -0.0025933 0.0058891
-0.0041655 -0.00032339 -0.0022522 0.0026614 -0.0003588 0.0017931 0.018248 -0.0092912
-0.026547 0.21097 0.017029 0.00042057
-0.00079055 0.0038669 -0.0013123 0.0015211 -0.00090412 6.4436e-05 -0.0025525 0.0059237
0.016968 0.00040711 -0.041312 0.30555
1220000000 0.13615 0.29054 0.009889 -0.02985 -0.0015668 -0.00086275 -0.00027288 -0.0012309
-0.0024389 0.0026878 0.001334 0.0018725
0.009925 -0.029811 -0.039411 0.39002 -0.016701 -0.020566 -0.0024972 0.00044322
0.00042134 0.0027638 -0.00065914 0.0017398
-0.0016437 -0.00088643 -0.016821 -0.020534 0.28852 0.20564 0.00091974 0.0014881
0.00061865 0.0010101 0.00028353 0.00068191
-0.0002875 -0.0011888 -0.0025543 0.00050551 0.00088048 0.001469 0.071861 0.27399
0.0086588 -0.01441 0.0031335 0.0018759
-0.0025093 0.0026525 0.00042372 0.0028023 0.00062046 0.00087624 0.0086517 -0.014419
-0.0027391 0.22102 0.012954 -0.012049
0.0012676 0.0018932 -0.00064176 0.0018143 0.00014905 0.00074921 0.0031717 0.0018676
0.012967 -0.012062 -0.0088799 0.3217
1280000000 0.18543 0.26761 -0.0080613 -0.028022 -0.0018226 0.0024948 -0.0011898 -0.0019755
-0.00043409 0.0031395 0.0025423 0.00097219
-0.0080822 -0.027994 0.0061839 0.38071 -0.023198 -0.0081938 -0.00097511 0.0014852
0.0016256 0.0013984 0.00048674 0.0019102
-0.0018398 0.0024768 -0.023238 -0.0081309 0.31896 0.16167 0.0012711 -0.00019105
0.0008651 8.2639e-07 0.00031454 0.00042482
-0.0012609 -0.001979 -0.00093952 0.0015106 0.0012316 -0.00016029 0.10824 0.25806
0.00038819 -0.015657 0.00095904 5.3715e-05
-0.00038734 0.0030664 0.001607 0.0013649 0.00089943 4.2093e-05 0.00035998 -0.015689
0.034503 0.22506 0.0025697 -0.013932
0.0025958 0.00093337 0.00047445 0.00189 0.00022179 0.00033981 0.00098409 6.353e-05
0.0025868 -0.013919 0.038442 0.32285
1340000000 0.22231 0.2331 -0.017642 -0.018592 0.00083284 0.0043074 -0.0020103 -0.00064225
0.0015248 0.0024252 0.0015866 -0.0015491
-0.017642 -0.018574 0.04546 0.37208 -0.021137 0.0041685 -3.1879e-05 0.0019199
0.0016169 0.00055058 0.0013133 0.00084086
0.00087419 0.0043167 -0.021134 0.0042731 0.3411 0.11363 0.0008908 -0.00085267
0.00050133 -0.00036181 0.00022906 0.00019545
-0.0019876 -0.00058913 -3.7087e-05 0.0019264 0.00089049 -0.00082211 0.1413 0.23809
-0.0068732 -0.012966 0.0016348 -0.00028783
0.0015689 0.0024393 0.0016689 0.00053864 0.00047733 -0.00028658 -0.0068725 -0.012949
0.065898 0.22058 -0.0034894 -0.012305
0.0015147 -0.0015335 0.001277 0.00082778 0.00024095 0.00024346 0.0016415 -0.00033618
-0.0034855 -0.012293 0.077604 0.31804
1400000000 0.25475 0.19454 -0.023102 -0.0072396 0.0050373 0.0030422 -0.0020219 0.00082862
0.0024228 0.00048559 0.00012755 -0.0013369
-0.023054 -0.0072303 0.082163 0.35889 -0.014517 0.012081 0.0013371 0.0012262
0.00077903 -0.0007819 0.0012051 0.00027828
0.0050116 0.0030237 -0.014463 0.012181 0.35413 0.059799 4.0619e-05 -0.0013784
-6.1796e-05 -0.00031153 0.00034703 0.00018296
-0.0020002 0.00083635 0.0013435 0.0012238 5.9043e-06 -0.0013706 0.17147 0.20983
-0.011339 -0.007385 -0.00043142 -0.0011704
0.00246 0.00047289 0.00081888 -0.0007833 -7.51e-06 -0.00038594 -0.011347 -0.0073791
0.099783 0.21564 -0.0094513 -0.0077477
0.00010926 -0.0013254 0.0011995 0.00031005 0.0002885 0.00020311 -0.00043246 -0.0011983
-0.0094735 -0.0077353 0.12229 0.30664
1460000000 0.27744 0.15022 -0.020181 0.0046398 0.0053382 -0.0017179 -0.0014495 0.0018016
0.0017924 -0.00087269 -0.00038432 -0.00088056
-0.020151 0.0046219 0.1163 0.3371 -0.0061165 0.014854 0.0016682 0.00015829
0.00073348 -0.00096626 0.0011536 -0.00059679
0.0053809 -0.0017207 -0.0061016 0.014898 0.36001 0.0050286 -0.0009992 -0.0011089
0.00025804 -0.00011716 0.00060827 -0.00040988
-0.0014417 0.0018285 0.0016193 0.00012344 -0.00098717 -0.0010519 0.1989 0.18066
-0.01166 -0.0025898 -0.0012023 0.0010997
0.0018068 -0.00087842 0.0006846 -0.00096044 0.00026406 -0.00016318 -0.011658 -0.002609
0.13047 0.20042 -0.010685 -0.0026142
-0.00034011 -0.00089979 0.0011731 -0.00057616 0.00055011 -0.00032895 -0.0011987 0.0010855
-0.010677 -0.0026111 0.15544 0.28536
1520000000 0.28938 0.10799 -0.014558 0.010139 0.003084 -0.0039908 0.00019658 0.0024797
0.0014544 -0.0016868 -0.0011305 -0.00012745
-0.01456 0.010117 0.14969 0.32214 0.0012473 0.012863 0.0015651 -0.00080709
0.00013656 -0.00079397 0.00030057 -0.0010107
0.0030866 -0.0040334 0.001357 0.012889 0.35272 -0.051446 -0.00079698 -0.0003376
0.00058598 -0.00074303 -2.0116e-05 -2.0409e-05
0.0002132 0.0024229 0.0015713 -0.00078393 -0.00087376 -0.00034937 0.22321 0.14205
-0.011216 0.0012824 0.00075618 0.0015352
0.0014383 -0.0016686 0.00012582 -0.00078831 0.00057378 -0.00079824 -0.01121 0.0012973
0.15923 0.18494 -0.010708 0.0015184
-0.0012064 -7.1026e-05 0.00033338 -0.0010267 -0.00012431 1.6613e-05 0.00076189 0.0015012
-0.010698 0.001511 0.18875 0.26464
1580000000 0.29858 0.060996 -0.0081075 0.013171 -0.00092516 -0.0046515 0.0013562 0.0017011
-0.00061556 -0.0018376 -0.00030775 0.00039641
-0.0081245 0.013157 0.17684 0.2973 0.0049082 0.0082311 0.00043383 -0.0015336
-0.00024943 -0.00096268 -0.00029318 -0.00088256
-0.00096406 -0.004599 0.0049473 0.0082051 0.33219 -0.10893 -0.0014132 0.00037448
-0.00026556 -0.0010277 0.00015155 -0.00052641
0.0014273 0.0017683 0.00043159 -0.0015705 -0.0014007 0.00038595 0.23818 0.10146
-0.0090234 0.0047752 0.0015624 0.00063493
-0.00059007 -0.0018581 -0.0002181 -0.00096812 -0.00019187 -0.0010555 -0.0090777 0.0048031
0.18399 0.16578 -0.0085093 0.0066782
-0.00031678 0.00030375 -0.00028626 -0.00090381 0.00016824 -0.00056255 0.0015572 0.00061665
-0.0085032 0.0066837 0.22076 0.23776
1640000000 0.29997 0.018553 -0.0015687 0.012218 -0.002637 -0.0023223 0.0024865 0.00097497
-0.00078818 -0.00084686 -0.00027723 0.0007094
-0.0015752 0.012209 0.20632 0.27197 0.0056414 0.0036326 -0.00070396 -0.0016005
-0.0008688 -0.00058971 -0.00054983 -0.00064397
-0.00263 -0.0023401 0.0057002 0.0036114 0.30374 -0.15808 -0.00087775 0.0011837
-0.00099288 -0.00080521 -6.6925e-05 -0.00027027
0.0024824 0.00091205 -0.0007021 -0.0016262 -0.00087647 0.0011673 0.25076 0.050719
-0.0062992 0.0054928 0.001916 -0.00059295
-0.00080107 -0.00083466 -0.00087973 -0.00060386 -0.0010105 -0.00078609 -0.0062931 0.0055292
0.20735 0.13945 -0.0041896 0.0085964
-0.0003145 0.000737 -0.00061449 -0.00066027 -0.00010136 -0.00021492 0.00188 -0.00059925
-0.0041941 0.0086174 0.24658 0.20626
1700000000 0.29141 -0.027599 0.0018731 0.0095066 -0.0032216 6.7809e-05 0.0028531 -0.0010028
-0.0015668 -0.00031427 0.00061038 0.00045777
0.0018677 0.0095125 0.22418 0.2402 0.0037792 0.00085091 -0.001379 -0.00056665
-0.00085371 -0.00013788 -0.00092061 -0.00040168
-0.0032531 0.00013173 0.0038039 0.00080066 0.2596 -0.19758 0.00020371 0.0015576
-0.0016833 -0.00031302 -0.00055853 -0.00097859
0.0028125 -0.00098565 -0.0013615 -0.00054015 0.00026762 0.0015857 0.24671 -0.0010956
-0.0049519 0.0061507 0.0012146 -0.0018311
-0.0015791 -0.00027473 -0.00085545 -0.00013188 -0.0017261 -0.00032708 -0.0049243 0.0061346
0.22474 0.11702 0.00029005 0.0089525
0.00066726 0.00045297 -0.00094299 -0.0003973 -0.00072867 -0.00095066 0.0012403 -0.00185
0.00028969 0.0089406 0.2627 0.17135
1760000000 0.27762 -0.076505 0.0042506 0.006397 -0.0021858 0.0007558 0.0014136 -0.0032286
-0.00080235 0.00052997 0.00045839 -0.00043694
0.0042098 0.0063887 0.24991 0.20004 0.0016297 -0.00095067 -0.0010739 0.00019489
-0.0012859 0.00081174 -0.00061082 0.00055416
-0.0021426 0.00073568 0.0016814 -0.00097267 0.21059 -0.23074 0.0010841 0.001388
-0.0011573 0.0012458 -0.0013728 -0.00037681
0.0014138 -0.0032895 -0.0010736 0.00020278 0.00099394 0.0013146 0.2355 -0.053775
-0.0028533 0.0060685 -0.00063159 -0.0019571
-0.00077029 0.00050602 -0.0012818 0.00082225 -0.0011184 0.0012742 -0.0028394 0.0060779
0.23959 0.07926 0.0037236 0.0062023
0.00040062 -0.00042657 -0.00059053 0.00055884 -0.0013504 -0.00046581 -0.00064414 -0.0019563
0.0037329 0.0062114 0.27519 0.13348
1820000000 0.25114 -0.11341 0.0045588 0.0028579 -0.00014462 0.0023233 -0.00081347 -0.0030409
-0.0007574 0.00031395 9.0564e-05 -0.00011589
0.0045574 0.0028434 0.25934 0.1696 -0.00021644 7.0296e-05 -0.0013511 0.00084468
-0.0002358 0.0014895 -0.00050072 0.00055435
-0.00018214 0.0023162 -0.00019108 9.9e-05 0.16044 -0.24643 0.0015388 0.00058669
-0.00044979 0.0020551 -0.0013134 0.00058267
-0.00087977 -0.0030441 -0.0013662 0.00084758 0.0016007 0.00058192 0.20301 -0.10115
-0.0019628 0.0052335 -0.0016482 -0.0011402
-0.00075169 0.00035672 -0.00021896 0.0015316 -0.00046508 0.0020388 -0.0019202 0.0052259
0.25517 0.047203 0.0045641 0.0028287
0.00010388 -0.00010119 -0.00050098 0.00062314 -0.001344 0.00057819 -0.0016644 -0.0010979
0.0045567 0.0028251 0.27716 0.097008
1880000000 0.2143 -0.15245 0.0024975 0.00054919 -0.0002877 0.0020505 -0.0028764 -0.0023138
-0.00050724 0.001235 0.00029717 -0.0006481
0.0024619 0.00051399 0.26327 0.12304 -0.0020899 0.0016795 -0.00017047 0.001705
0.00068425 0.0015319 0.00024934 0.00095194
-0.00031129 0.0020773 -0.0020807 0.0017843 0.1084 -0.25529 0.0019989 -0.0011145
0.0013763 0.0020407 -0.00084867 0.0013765
-0.0028397 -0.0022146 -0.00017565 0.0017283 0.0019561 -0.0011437 0.16036 -0.13971
-0.0018523 0.0044657 -0.0022113 0.00096738
-0.00042604 0.0012696 0.00066642 0.0015946 0.001436 0.0020378 -0.0018686 0.0044223
0.25562 0.01163 0.0040361 0.00096197
0.00025059 -0.00073251 0.00030987 0.00094026 -0.00084501 0.0014541 -0.0022067 0.000952
0.0040584 0.00093747 0.2767 0.062876
1940000000 0.17421 -0.17659 0.00032822 -0.0012354 0.0012643 0.0019243 -0.0037881 0.00049638
0.00092876 0.0010571 -0.00070251 -0.00067966
0.00035167 -0.0012357 0.26324 0.091173 -0.00095237 0.0038285 0.00099484 0.0013123
0.0022042 0.00059709 0.00085961 0.00022437
0.0012335 0.0018536 -0.00098008 0.0038165 0.062738 -0.24901 0.00035357 -0.0025699
0.0024214 0.00056812 0.00028195 0.0015226
-0.0039467 0.00052427 0.0010729 0.0012836 0.00027369 -0.0025535 0.10702 -0.16777
-0.0027646 0.004515 -0.00092762 0.0019191
0.00088989 0.0011476 0.0022575 0.0005657 0.0023424 0.00052304 -0.0027891 0.0044966
0.25378 -0.029539 0.0028088 -0.0019996
-0.00066403 -0.0006152 0.00083688 0.00020489 0.00031873 0.0014066 -0.00086025 0.0019575
0.0028086 -0.0020062 0.26543 0.026753
2000000000 0.12789 -0.18929 -0.0034858 0.00064751 0.0023469 0.0015827 -0.0023229 0.0036423
0.001009 0.00050853 -0.0007094 0.00040722
-0.003409 0.00062955 0.24837 0.055929 -0.00084234 0.0055446 0.0016568 0.00020441
0.0017852 -0.0017533 0.00052582 8.4253e-05
0.0024516 0.0016336 -0.00075466 0.0055348 0.019097 -0.23436 -0.0015262 -0.0014939
0.0021862 -0.0013127 0.0016755 0.0012429
-0.0022738 0.0036827 0.0015879 0.00031176 -0.0015488 -0.0014103 0.053889 -0.17516
-0.0039667 0.005601 0.00039847 0.0021613
