!Keysight Technologies,M9804A,MY58100912,A.14.10.03
!Date: Thursday, April 27, 2023 10:28:33
!Correction: S11(C  6-Port  ) 
!S12(C  6-Port  ) 
!S13(C  6-Port  ) 
!S14(C  6-Port  ) 
!S15(C  6-Port  ) 
!S16(C  6-Port  ) 
!S21(C  6-Port  ) 
!S22(C  6-Port  ) 
!S23(C  6-Port  ) 
!S24(C  6-Port  ) 
!S25(C  6-Port  ) 
!S26(C  6-Port  ) 
!S31(C  6-Port  ) 
!S32(C  6-Port  ) 
!S33(C  6-Port  ) 
!S34(C  6-Port  ) 
!S35(C  6-Port  ) 
!S36(C  6-Port  ) 
!S41(C  6-Port  ) 
!S42(C  6-Port  ) 
!S43(C  6-Port  ) 
!S44(C  6-Port  ) 
!S45(C  6-Port  ) 
!S46(C  6-Port  ) 
!S51(C  6-Port  ) 
!S52(C  6-Port  ) 
!S53(C  6-Port  ) 
!S54(C  6-Port  ) 
!S55(C  6-Port  ) 
!S56(C  6-Port  ) 
!S61(C  6-Port  ) 
!S62(C  6-Port  ) 
!S63(C  6-Port  ) 
!S64(C  6-Port  ) 
!S65(C  6-Port  ) 
!S66(C  6-Port  ) 
!S6P File: Measurement: :
# Hz S  RI   R 50
500000000 -0.33447 -0.03116 -0.0091843 -0.0044551 -0.0077934 0.011383 -0.0037702 0.011523
0.011979 0.0044906 -0.0041146 0.0074392
-0.0091731 -0.0044549 -0.41867 -0.047773 0.0075543 -0.011779 0.0012782 0.010877
0.0075595 0.0029414 0.0010119 0.012021
-0.0077724 0.011389 0.007539 -0.011816 -0.26475 0.21203 0.0066825 0.0028189
0.00041468 0.0086662 0.00050563 0.011628
-0.003742 0.011518 0.0013016 0.010898 0.0066759 0.0028112 -0.32616 0.050135
-0.018828 -0.0055776 0.017612 0.025519
0.011975 0.0044574 0.0075844 0.0029142 0.00041585 0.0086663 -0.018821 -0.0055746
-0.2268 -0.17806 -0.026208 0.0038945
-0.0040876 0.007456 0.0010516 0.01206 0.00053048 0.011634 0.017617 0.025539
-0.026231 0.0038697 -0.27311 -0.12418
560000000 -0.31169 0.1261 -0.023723 -0.06311 -0.00036654 0.012326 0.0062095 0.009756
0.011882 0.0042275 0.0091477 0.0065385
-0.023723 -0.06302 -0.37652 0.11042 -0.041807 -0.036914 0.014317 0.004214
-0.012046 -0.0050584 0.0047781 -4.8629e-05
-0.00031998 0.012324 -0.041955 -0.036876 -0.18234 0.26028 -0.0015291 -0.004743
0.018793 0.0048572 0.0064158 -0.0068164
0.0062194 0.0097391 0.014305 0.0041859 -0.0015331 -0.0047789 -0.30042 0.13683
0.0038507 -0.025703 0.005698 -0.019493
0.011903 0.004236 -0.012144 -0.0050621 0.01885 0.0048695 0.0037943 -0.025654
-0.28401 -0.0043443 0.0077022 -0.051328
0.0092555 0.0065404 0.0047354 -3.0765e-05 0.006435 -0.0068673 0.0056839 -0.019542
0.0077954 -0.051298 -0.3322 0.023007
620000000 -0.27009 0.1103 -0.023046 0.0065136 0.0032758 0.0084521 0.0069894 -0.0060086
0.010896 -0.00033552 0.00098363 -0.0022452
-0.023045 0.0065042 -0.40251 0.064161 -0.018988 -0.00022974 -0.0017276 -0.0024278
0.010776 -0.0065777 0.00094629 -0.0030984
0.0032995 0.0084319 -0.019024 -0.00017976 -0.15261 0.26856 -0.0018606 -0.0052411
-0.0035341 -0.0032169 0.0082692 -0.0036054
0.0070034 -0.0060179 -0.0017313 -0.0024267 -0.0018648 -0.0052369 -0.25915 0.14633
-0.038725 -0.019035 0.01522 0.02345
0.01091 -0.00035166 0.010775 -0.0066429 -0.0035329 -0.0032246 -0.038727 -0.019013
-0.20373 -0.043226 -0.039231 0.014085
0.0009637 -0.0022467 0.00093967 -0.0030855 0.0082924 -0.0035963 0.015212 0.023428
-0.039179 0.01412 -0.25191 -0.01271
680000000 -0.22979 0.19175 -0.028203 -0.014517 0.0050326 0.0050037 0.00034874 -0.0079931
-0.0032396 -0.010824 0.0045764 -0.0069545
-0.028186 -0.014516 -0.38651 0.16086 -0.032654 -0.0010173 -0.0017985 -0.00055978
-0.0029648 -0.0088642 -0.0010636 -0.0024169
0.0050385 0.0049921 -0.032688 -0.00093873 -0.10154 0.28803 -0.00070062 4.8706e-05
-0.0022129 0.00078123 -0.0030867 -0.009758
0.0003309 -0.0079898 -0.0017967 -0.00055307 -0.0007067 5.2992e-05 -0.21741 0.1955
-0.023446 -0.009039 -0.011173 -0.010209
-0.0032705 -0.010838 -0.00301 -0.0088502 -0.0022179 0.00077505 -0.023489 -0.0090113
-0.24833 0.052044 -0.0046675 -0.0096509
0.0045389 -0.0069705 -0.0010702 -0.0024302 -0.0031028 -0.0097848 -0.011176 -0.01023
-0.0047083 -0.0096152 -0.26085 0.090296
740000000 -0.18849 0.18676 -0.038641 0.026113 0.012513 -0.0050793 -0.00084275 -0.0039474
-0.0049452 -0.0022661 -0.0060739 0.0037517
-0.038614 0.026111 -0.33457 0.17949 -0.034571 0.03507 -0.00093149 -0.0064243
-0.01157 0.0085935 -0.0022631 -0.0062314
0.012503 -0.0050974 -0.034493 0.035202 -0.067889 0.28703 -0.0011827 0.0035434
-0.0028511 -0.0035529 -0.00090702 0.00084848
-0.00085954 -0.0039345 -0.00093988 -0.0064378 -0.0011796 0.003552 -0.20089 0.20309
-0.04288 -0.0078328 0.022689 0.012931
-0.00497 -0.0022742 -0.011527 0.0086613 -0.0028572 -0.0035742 -0.042913 -0.0077962
-0.15541 0.073762 -0.04304 0.00050199
-0.0060789 0.0037781 -0.0022801 -0.0062557 -0.00091767 0.00085391 0.022711 0.012866
-0.043019 0.00045769 -0.24997 0.098295
800000000 -0.15745 0.2267 -0.02285 0.017359 0.0052214 -0.010535 -0.0047855 -0.001928
-0.0039181 0.0030203 0.0044992 0.00066831
-0.022843 0.017346 -0.33666 0.24955 -0.0075685 0.033956 -0.0020287 0.0022553
-0.00024459 0.0037866 0.001274 0.0054539
0.0051877 -0.01055 -0.0074716 0.034006 -0.02667 0.30983 0.001296 0.001539
0.00091306 0.0036657 -0.0018159 0.00099727
-0.0048004 -0.0019161 -0.0020056 0.0022681 0.0012855 0.0015419 -0.17363 0.23078
-0.0286 0.012517 0.012903 -0.0095767
-0.0039056 0.003032 -0.00023696 0.0037661 0.00092333 0.0036661 -0.028592 0.012587
-0.19726 0.097927 -0.01831 0.017342
0.0044896 0.00066323 0.001296 0.0054723 -0.0018229 0.00099463 0.012896 -0.0095828
-0.018313 0.017278 -0.24452 0.15138
860000000 -0.12313 0.24894 -0.017125 0.03173 -0.0033729 -0.009724 -0.0026618 0.0013612
0.004629 0.0053568 -0.0027482 -0.0030492
-0.017132 0.031695 -0.28899 0.29134 0.0082596 0.033886 0.00033724 0.0018302
0.0045507 0.00028829 0.0032902 0.00044847
-0.0034164 -0.009724 0.0083638 0.0339 0.021796 0.31746 -0.00024437 -0.00040831
0.0027372 -0.0016578 0.0014621 0.0045617
-0.0026586 0.001348 0.00031068 0.0018603 -0.00023717 -0.0004009 -0.13804 0.2428
-0.017727 0.01816 -0.0066767 -0.0093688
0.004656 0.005334 0.0045732 0.00026738 0.0027382 -0.0016565 -0.017687 0.018219
-0.14987 0.14536 -0.023493 0.015527
-0.0027617 -0.0030362 0.0032792 0.00044079 0.0014699 0.0045509 -0.0066828 -0.0093727
-0.023487 0.015542 -0.19311 0.19373
920000000 -0.097958 0.27296 0.0053053 0.03836 -0.009273 -0.003941 -0.0016104 0.0026003
0.0013554 0.0015403 0.0023534 -0.0013087
0.0052625 0.038319 -0.25967 0.31206 0.027968 0.02145 0.0017126 0.0011231
0.0067231 -0.001016 0.0035686 -0.0028281
-0.0092918 -0.0039266 0.028075 0.021391 0.068179 0.31768 0.0017465 -0.00020098
0.0012612 -0.00052391 0.00087158 -0.0011783
-0.001613 0.0025925 0.0017213 0.0011144 0.0017517 -0.00020162 -0.11367 0.25919
-0.0106 0.029675 0.0024471 -0.0062555
0.001382 0.0015424 0.0067211 -0.0010505 0.0012681 -0.00054286 -0.010542 0.029721
-0.13918 0.15177 -0.0020706 0.027264
0.0023439 -0.0013156 0.0035601 -0.0028464 0.00086134 -0.0011651 0.0024547 -0.0062702
-0.0020996 0.027259 -0.19929 0.20868
980000000 -0.050153 0.29256 0.018206 0.030144 -0.0085968 0.0047819 0.002629 0.003781
0.0040939 -0.0018592 -0.0028729 -0.0021143
0.018149 0.030107 -0.20696 0.34525 0.032707 0.0043609 0.0020188 -9.5493e-05
0.00097143 -0.006132 -0.0005916 -0.00222
-0.0085758 0.0048024 0.032757 0.0042707 0.11447 0.31073 0.00037236 -0.0012118
-6.9649e-05 -0.0021052 0.0014992 -0.0001004
0.0026321 0.0037624 0.0020183 -8.5118e-05 0.00036574 -0.0012141 -0.075677 0.27094
0.0070977 0.028164 -0.0094722 -0.0065481
0.00409 -0.0018733 0.00094059 -0.0061657 -5.8581e-05 -0.0020938 0.007153 0.028154
-0.10845 0.17872 0.0048309 0.018309
-0.0028752 -0.002127 -0.00060531 -0.0022193 0.0014899 -0.00010316 -0.0094755 -0.0065322
0.0048008 0.018291 -0.15669 0.25274
1040000000 -0.0071011 0.30099 0.033485 0.017623 -0.00095125 0.0068116 0.0030016 0.00068954
4.7663e-05 -0.0037852 -0.00067052 -0.0013788
0.03342 0.017621 -0.17112 0.35824 0.028765 -0.014942 0.0014294 -0.0016539
-0.0026443 -0.0021189 -0.0013988 -0.0027722
-0.0009261 0.0067953 0.028754 -0.015052 0.16058 0.29664 -0.0005175 -0.001338
-0.0015572 -0.00071813 -0.00043311 -0.0011034
0.0029905 0.00067722 0.0014426 -0.0016471 -0.00051404 -0.0013425 -0.047904 0.28088
0.017732 0.016647 -0.0032068 0.002328
4.4651e-05 -0.0037866 -0.0026779 -0.0021088 -0.0015516 -0.00071599 0.017771 0.016617
-0.077873 0.18789 0.013281 0.017645
-0.00066395 -0.0013924 -0.0014238 -0.0027448 -0.00043278 -0.0010999 -0.0032113 0.0023317
0.013271 0.017672 -0.13487 0.27378
1100000000 0.038751 0.30819 0.035684 -0.004766 0.003028 0.0035552 0.0026777 -0.0016174
-0.0022193 -0.0029999 -0.0037291 2.6343e-06
0.035644 -0.0047438 -0.12765 0.37491 0.014605 -0.027526 5.3271e-05 -0.0018585
-0.0031016 -0.0002733 -0.0033643 -0.00048487
0.0030374 0.0035447 0.014527 -0.02761 0.20674 0.27592 -0.001709 0.00030434
-0.0016165 0.00070713 -0.00091936 -0.0003457
0.002666 -0.0016255 4.5081e-05 -0.0018603 -0.0017131 0.00030336 -0.00721 0.28567
0.021786 0.0049101 -0.0022255 0.0012561
-0.0022194 -0.0029808 -0.0031052 -0.00025822 -0.0016085 0.00072085 0.021806 0.0048906
-0.059633 0.2011 0.018233 0.0083754
-0.0037304 1.1257e-05 -0.0033815 -0.00046474 -0.00092052 -0.0003415 -0.0022045 0.0012457
0.018215 0.0083773 -0.087929 0.30276
1160000000 0.090551 0.3028 0.023668 -0.021021 0.0026385 -0.00067112 -2.2313e-05 -0.0027207
-0.0041732 -0.00019831 -0.00087037 0.0041205
0.023648 -0.020979 -0.083685 0.37876 -0.0039585 -0.028589 -0.0017819 -0.0015597
-0.0022494 0.0026804 -0.0013054 0.001579
0.0026322 -0.00069315 -0.0040833 -0.028581 0.24951 0.24487 -0.00050476 0.0016581
-0.00026164 0.0017431 -0.00098561 0.00011824
-2.4628e-05 -0.002717 -0.0017668 -0.001547 -0.00050755 0.0016645 0.032137 0.28275
0.018281 -0.0093537 -0.0025892 0.0058895
-0.0041621 -0.00017608 -0.0022275 0.0026855 -0.00026362 0.0017517 0.018285 -0.0093717
-0.02659 0.21094 0.016986 0.00047453
-0.00086019 0.0041482 -0.0013175 0.0015914 -0.00099511 0.00011675 -0.0025606 0.0058985
0.016998 0.00046822 -0.041389 0.30542
1220000000 0.1353 0.291 0.010001 -0.029888 -0.0016063 -0.00089727 -0.00031557 -0.0012074
-0.0024643 0.0026561 0.0013438 0.0018407
0.0099995 -0.029856 -0.039601 0.38999 -0.016696 -0.020603 -0.0024843 0.00049641
0.00039559 0.0027371 -0.00064135 0.0016634
-0.0016087 -0.00089872 -0.016797 -0.020543 0.28844 0.20573 0.00092809 0.0014582
0.0006029 0.0010359 0.00031032 0.00072216
-0.0003104 -0.001205 -0.0024886 0.00051205 0.00092821 0.001464 0.071824 0.27402
0.0086771 -0.014499 0.0031996 0.0018735
-0.0024439 0.0026748 0.00041611 0.002743 0.0005993 0.001037 0.008656 -0.014511
-0.0026953 0.22089 0.012995 -0.012095
0.0013532 0.0018428 -0.00062977 0.0016718 0.00031071 0.00072927 0.0031991 0.0018811
0.012992 -0.012077 -0.0088352 0.32171
1280000000 0.18473 0.26834 -0.0079853 -0.028069 -0.0018571 0.0024137 -0.0012784 -0.0019335
-0.00040845 0.0031184 0.0024888 0.00096707
-0.0079523 -0.028043 0.0060346 0.38069 -0.023173 -0.0081827 -0.00095786 0.0014477
0.0016043 0.001354 0.00050426 0.0019383
-0.0018437 0.0024151 -0.02324 -0.0080884 0.31893 0.16173 0.0012457 -0.00019496
0.00086738 3.7346e-05 0.00029595 0.00041037
-0.0012739 -0.0019399 -0.00096559 0.0014516 0.0012436 -0.00019488 0.10826 0.25808
0.00035378 -0.015746 0.00094217 3.752e-05
-0.00038913 0.0031138 0.0016152 0.0013408 0.0008628 3.968e-05 0.00032764 -0.015745
0.03444 0.22488 0.002633 -0.013848
0.0024953 0.00096771 0.00051747 0.0019316 0.00030713 0.00040538 0.00095104 2.8538e-05
0.0026225 -0.013859 0.038448 0.32283
1340000000 0.22187 0.23424 -0.017535 -0.018659 0.00080314 0.0043146 -0.0020188 -0.00055838
0.0015237 0.0023888 0.0015362 -0.0014983
-0.017499 -0.018661 0.045201 0.37205 -0.021154 0.0041797 -4.4415e-05 0.0019312
0.0015898 0.00055616 0.0012491 0.00081637
0.00081863 0.0043211 -0.021148 0.0042777 0.34103 0.11376 0.00088973 -0.00087889
0.00049913 -0.00032996 0.00022052 0.0002148
-0.002023 -0.00055563 -4.1956e-05 0.0019271 0.00089917 -0.00087001 0.14128 0.23812
-0.0069328 -0.013024 0.0016889 -0.00032596
0.0015394 0.0023831 0.0015977 0.00055363 0.0005032 -0.00033196 -0.0069588 -0.01301
0.0658 0.22052 -0.0033608 -0.012239
0.0015266 -0.0015167 0.0012626 0.00080858 0.00021443 0.00021223 0.0016834 -0.00032983
-0.0033716 -0.012239 0.07765 0.31822
1400000000 0.25482 0.19571 -0.022999 -0.0073278 0.0049618 0.0030923 -0.0019722 0.00084955
0.0024104 0.00044123 0.00017489 -0.0012867
-0.022971 -0.0073332 0.081989 0.35891 -0.014529 0.012092 0.001323 0.0012036
0.00079698 -0.00079906 0.0011787 0.00030948
0.0049751 0.0030733 -0.014486 0.012176 0.3541 0.059889 3.6427e-05 -0.001376
-4.12e-05 -0.00035056 0.00032276 0.00021456
-0.0019745 0.00085714 0.0013341 0.001191 2.6598e-05 -0.0013687 0.17146 0.20982
-0.011416 -0.0073987 -0.00042299 -0.0011611
0.0024105 0.00042977 0.00078914 -0.00080994 -4.181e-05 -0.00034595 -0.011433 -0.0073838
0.099646 0.21563 -0.0093675 -0.0078354
0.00016819 -0.0012944 0.0011793 0.00029816 0.00032548 0.00020771 -0.00042788 -0.0011613
-0.0093681 -0.0078554 0.12244 0.3068
1460000000 0.2779 0.15135 -0.020154 0.0044617 0.0053895 -0.0016424 -0.0013759 0.0017745
0.0017639 -0.0008731 -0.00035794 -0.0008426
-0.020122 0.0044601 0.11604 0.33713 -0.0061254 0.014853 0.0016428 0.00013415
0.00074809 -0.0009636 0.0011844 -0.00064571
0.0053844 -0.0016601 -0.0060693 0.014884 0.35977 0.0050843 -0.0010136 -0.0010829
0.0003182 -8.3747e-05 0.00057369 -0.0003962
-0.0013656 0.001776 0.0016482 0.00012782 -0.0010018 -0.0010966 0.19886 0.18062
-0.011726 -0.0025945 -0.001262 0.0011455
0.0017657 -0.00088112 0.00072774 -0.00097555 0.00032151 -8.1094e-05 -0.011746 -0.0025586
0.1303 0.20041 -0.010609 -0.0026657
-0.00036803 -0.00085118 0.0011763 -0.00062996 0.00059659 -0.00040178 -0.0012364 0.0011487
-0.010617 -0.0026686 0.15553 0.28541
1520000000 0.29024 0.10879 -0.014639 0.0099942 0.0030659 -0.0039328 0.00022108 0.002444
0.0014339 -0.0016376 -0.0011066 -0.00014055
-0.014628 0.009983 0.14947 0.32226 0.0013003 0.012846 0.0015507 -0.00079233
0.00014837 -0.00078816 0.0003066 -0.0010237
0.0030384 -0.0039574 0.0013666 0.012852 0.35281 -0.051138 -0.00081358 -0.00037552
0.00055175 -0.00073836 -1.3752e-05 -4.0649e-05
0.00023619 0.0024411 0.0015511 -0.00080485 -0.00081065 -0.00037793 0.22315 0.14205
-0.011228 0.0013143 0.00077646 0.0015539
0.0014307 -0.0016574 0.00013404 -0.00079361 0.00054973 -0.00073889 -0.011226 0.0013422
0.15908 0.18509 -0.010703 0.001463
-0.0011098 -0.0001311 0.00028942 -0.0010278 -1.691e-05 -3.328e-05 0.00077844 0.0015497
-0.010714 0.0014586 0.18896 0.26467
1580000000 0.29959 0.061478 -0.0082514 0.013029 -0.00093552 -0.004669 0.0013439 0.0016832
-0.00062149 -0.001805 -0.00030467 0.00039641
-0.0082454 0.013017 0.17668 0.29744 0.004928 0.0082048 0.00044348 -0.001508
-0.00025538 -0.00098962 -0.00029288 -0.00085722
-0.00096612 -0.0046624 0.0049638 0.0081836 0.33221 -0.10888 -0.0014186 0.00040074
-0.00027398 -0.0010871 0.00014831 -0.00051461
0.0013514 0.0016799 0.00043573 -0.0015196 -0.0014153 0.00040344 0.23813 0.10143
-0.009075 0.0048298 0.0016108 0.00064991
-0.00063676 -0.0018099 -0.00026456 -0.00098455 -0.00027833 -0.0010887 -0.0090647 0.0048542
0.18388 0.16587 -0.0086007 0.0066385
-0.00030648 0.00041278 -0.00030793 -0.00086048 0.00013727 -0.00051927 0.0016237 0.00064925
-0.008603 0.006635 0.22096 0.23773
1640000000 0.30116 0.018533 -0.0017286 0.012179 -0.0025965 -0.0023103 0.0024348 0.00099685
-0.00073795 -0.00080314 -0.00032912 0.00066935
-0.0017324 0.012166 0.20612 0.27211 0.0056698 0.003601 -0.00069074 -0.0015932
-0.00086694 -0.00058248 -0.0005665 -0.00062287
-0.0026123 -0.0023038 0.0056967 0.003567 0.30386 -0.15792 -0.00086613 0.0011892
-0.00098775 -0.0008076 -8.2942e-05 -0.00026603
0.0024478 0.0009836 -0.00070268 -0.0015847 -0.00085719 0.0011902 0.25065 0.050789
-0.0062775 0.0055641 0.0019219 -0.00059298
-0.00075125 -0.00079664 -0.0008753 -0.00057507 -0.00099109 -0.00081471 -0.0062739 0.0055824
0.20727 0.13958 -0.0042787 0.0085959
-0.00031857 0.00067619 -0.00056933 -0.00062473 -8.5375e-05 -0.00026934 0.0019123 -0.00060356
-0.0042907 0.0085853 0.24676 0.20616
1700000000 0.29232 -0.028055 0.0017246 0.0095435 -0.0031479 0.00010575 0.0028368 -0.00093944
-0.0015012 -0.00035671 0.00059663 0.00048614
0.0017171 0.0095329 0.22408 0.24033 0.0037803 0.00082816 -0.001357 -0.0005666
-0.00085471 -0.00013048 -0.00092711 -0.00040277
-0.0031534 0.00011994 0.0037953 0.000806 0.25978 -0.19763 0.00025176 0.0015638
-0.0016639 -0.00038799 -0.00053934 -0.00095143
0.0028275 -0.00096223 -0.0013697 -0.00056367 0.00025204 0.001557 0.24666 -0.00096429
-0.0049157 0.0061726 0.00121 -0.0018606
-0.0015106 -0.00034624 -0.00085003 -0.00012512 -0.0016642 -0.00038305 -0.004907 0.006187
0.22473 0.11709 0.0002045 0.0089832
0.0006034 0.00047553 -0.00093182 -0.00039894 -0.00054587 -0.0009456 0.0012049 -0.0018733
0.00020789 0.0089869 0.26283 0.17126
1760000000 0.27817 -0.07731 0.0040969 0.006496 -0.0021191 0.00072317 0.0014161 -0.0032221
-0.00078155 0.00052888 0.00046279 -0.00035832
0.0040969 0.0064926 0.24977 0.20011 0.0016356 -0.00096554 -0.0010904 0.00018426
-0.0012699 0.00083491 -0.00061202 0.00053842
-0.0021135 0.00073572 0.0016393 -0.00097289 0.21066 -0.23079 0.0010424 0.0013329
-0.0011513 0.0012694 -0.0013525 -0.00039335
0.0013982 -0.0032281 -0.0010859 0.00017866 0.0010465 0.0013425 0.23542 -0.053694
-0.0027982 0.006058 -0.00059913 -0.0019867
-0.00077662 0.00053531 -0.0012648 0.0008443 -0.0011586 0.0012768 -0.0027871 0.0060724
0.23956 0.079399 0.0036717 0.0062958
0.00046262 -0.00036309 -0.00061376 0.00054795 -0.0013516 -0.00038696 -0.00060361 -0.0019753
0.0036783 0.0063 0.27523 0.13335
1820000000 0.25117 -0.11435 0.004507 0.0030067 -0.00011581 0.0023348 -0.00078469 -0.0030699
-0.0007502 0.0003076 0.00014825 -6.754e-05
0.0045004 0.0030073 0.25922 0.16975 -0.00025763 9.3203e-05 -0.0013443 0.00082312
-0.00023727 0.0015056 -0.00051581 0.00056716
-0.00011794 0.0023398 -0.00025187 9.6588e-05 0.16057 -0.24636 0.0015517 0.00063482
-0.00043718 0.0020992 -0.0012581 0.00058852
-0.00079497 -0.0030694 -0.0013389 0.0008418 0.0015455 0.00063165 0.20304 -0.10103
-0.0018992 0.0052295 -0.0016708 -0.0011604
-0.00074455 0.00032608 -0.0002207 0.0015083 -0.00043148 0.0020953 -0.0018826 0.0052331
0.2552 0.047302 0.0046025 0.0029198
0.00013499 -6.981e-05 -0.00051991 0.00056841 -0.0012701 0.00059092 -0.0016755 -0.0011651
0.0045881 0.0029363 0.27718 0.096918
1880000000 0.21394 -0.15319 0.0024473 0.00075087 -0.00037309 0.0020481 -0.0028559 -0.0023103
-0.00058474 0.0012483 0.00034606 -0.00070278
0.0024442 0.00074341 0.26313 0.12316 -0.0020722 0.0017552 -0.00018599 0.0017323
0.00068172 0.0015264 0.00024503 0.00094836
-0.00036885 0.0020546 -0.00206 0.0017531 0.1086 -0.25515 0.0019313 -0.0010727
0.0013646 0.0020464 -0.00080647 0.0013183
-0.002864 -0.0022958 -0.00017207 0.0017293 0.0019523 -0.001076 0.16047 -0.13966
-0.0018473 0.0044362 -0.0022258 0.00092689
-0.00057825 0.0012535 0.00068639 0.0015189 0.0013668 0.0020507 -0.0018437 0.0044448
0.25559 0.011742 0.0040984 0.00099614
0.00033676 -0.00069928 0.00024927 0.0009583 -0.00079943 0.0013318 -0.0022204 0.00092488
0.0040962 0.00099539 0.27678 0.062723
1940000000 0.17338 -0.17715 0.00039995 -0.0010969 0.0012707 0.001873 -0.0038871 0.00047352
0.00089475 0.0011197 -0.00069489 -0.00064545
0.00039711 -0.0011024 0.2631 0.091359 -0.00090538 0.0038513 0.00096484 0.0013118
0.0022015 0.00059211 0.00084055 0.00023646
0.001299 0.0018746 -0.00088179 0.0038611 0.062876 -0.24886 0.00033556 -0.0025533
0.0024376 0.00061289 0.00027989 0.0015478
-0.0038834 0.00050035 0.00097308 0.0013016 0.0003429 -0.0025549 0.10703 -0.16766
-0.0028169 0.0044687 -0.00094779 0.0019592
0.00090656 0.001106 0.0022129 0.00057322 0.0024547 0.00060736 -0.0028099 0.0044799
0.25381 -0.029398 0.0028453 -0.0019554
-0.00069728 -0.00062953 0.00085047 0.00023736 0.0002858 0.0015458 -0.00093848 0.0019624
0.0028385 -0.001961 0.26533 0.026521
2000000000 0.12704 -0.18933 -0.0032558 0.00072877 0.0023767 0.0017263 -0.0023532 0.003635
0.0010443 0.0005448 -0.00076572 0.00040141
-0.0032645 0.00072938 0.24836 0.0561 -0.00083713 0.0055176 0.0016607 0.00021047
0.0017766 -0.0017441 0.00057247 7.31e-05
0.0023869 0.0017082 -0.00079363 0.0055306 0.019166 -0.23468 -0.001484 -0.0014526
0.0021427 -0.0012748 0.0016107 0.0012193
-0.002326 0.0036326 0.0016692 0.00020078 -0.0014946 -0.0014534 0.053941 -0.17521
-0.0039423 0.0055569 0.00040478 0.0022042
0.0010591 0.00054344 0.0017609 -0.0017619 0.0021407 -0.0012782 -0.0039271 0.0055802
