!Keysight Technologies,M9804A,MY58100912,A.14.10.03
!Date: Thursday, April 27, 2023 10:28:33
!Correction: S11(C  6-Port  ) 
!S12(C  6-Port  ) 
!S13(C  6-Port  ) 
!S14(C  6-Port  ) 
!S15(C  6-Port  ) 
!S16(C  6-Port  ) 
!S21(C  6-Port  ) 
!S22(C  6-Port  ) 
!S23(C  6-Port  ) 
!S24(C  6-Port  ) 
!S25(C  6-Port  ) 
!S26(C  6-Port  ) 
!S31(C  6-Port  ) 
!S32(C  6-Port  ) 
!S33(C  6-Port  ) 
!S34(C  6-Port  ) 
!S35(C  6-Port  ) 
!S36(C  6-Port  ) 
!S41(C  6-Port  ) 
!S42(C  6-Port  ) 
!S43(C  6-Port  ) 
!S44(C  6-Port  ) 
!S45(C  6-Port  ) 
!S46(C  6-Port  ) 
!S51(C  6-Port  ) 
!S52(C  6-Port  ) 
!S53(C  6-Port  ) 
!S54(C  6-Port  ) 
!S55(C  6-Port  ) 
!S56(C  6-Port  ) 
!S61(C  6-Port  ) 
!S62(C  6-Port  ) 
!S63(C  6-Port  ) 
!S64(C  6-Port  ) 
!S65(C  6-Port  ) 
!S66(C  6-Port  ) 
!S6P File: Measurement: :
# Hz S  RI   R 50
500000000 -0.33507 -0.03112 -0.0093132 -0.0040428 -0.0078629 0.01146 -0.0034111 0.011598
0.012301 0.0043487 -0.003943 0.0080899
-0.0093178 -0.004019 -0.41883 -0.048305 0.0074727 -0.011909 0.0015708 0.010896
0.0076363 0.0029192 0.0013118 0.012108
-0.0078452 0.011467 0.0074385 -0.011917 -0.26478 0.21199 0.0068196 0.0028885
0.0005003 0.0087849 0.00071068 0.011643
-0.0033954 0.011627 0.0015846 0.0109 0.0068225 0.0028794 -0.32646 0.049547
-0.019033 -0.004932 0.017466 0.02494
0.01235 0.0044067 0.0076361 0.0028284 0.00044158 0.0087275 -0.019047 -0.0049285
-0.22719 -0.17823 -0.027277 0.0044361
-0.0039806 0.0081203 0.0013327 0.012114 0.00072166 0.0116 0.017484 0.024942
-0.027268 0.0044292 -0.2733 -0.12438
560000000 -0.31213 0.12641 -0.024404 -0.063805 0.00036674 0.012115 0.0064112 0.0099773
0.011753 0.0037761 0.0094033 0.0071784
-0.02436 -0.063712 -0.37645 0.11053 -0.041902 -0.036336 0.014512 0.0039883
-0.012428 -0.0049339 0.0048135 -0.00052227
0.00041857 0.012106 -0.042093 -0.03623 -0.18248 0.2599 -0.0010946 -0.0049289
0.018706 0.004113 0.007093 -0.0061109
0.0064223 0.0099726 0.014528 0.004034 -0.0010738 -0.0049585 -0.30116 0.13681
0.0046192 -0.025144 0.0053361 -0.019436
0.011762 0.0038037 -0.012494 -0.0048716 0.018729 0.0040725 0.004595 -0.025144
-0.28484 -0.0053509 0.0079976 -0.050802
0.0094326 0.0071676 0.004814 -0.00051919 0.0070723 -0.0060727 0.0053458 -0.019445
0.0080354 -0.050786 -0.33232 0.022936
620000000 -0.27056 0.11075 -0.023167 0.0066572 0.0033009 0.0081631 0.0069456 -0.0062117
0.010883 -0.00081709 0.00078982 -0.0018923
-0.023126 0.0066399 -0.40255 0.06426 -0.018952 -0.00019495 -0.0015599 -0.0021766
0.01037 -0.0068405 0.00057435 -0.0028383
0.0033477 0.0081393 -0.018972 -0.00015692 -0.15256 0.26893 -0.0019417 -0.0048764
-0.0034297 -0.0034639 0.0078564 -0.0038287
0.0070178 -0.0062191 -0.0015778 -0.0021621 -0.002003 -0.0048688 -0.25953 0.14687
-0.03837 -0.019199 0.014992 0.023484
0.010843 -0.00077581 0.010365 -0.0068816 -0.0033422 -0.0034665 -0.038376 -0.019151
-0.20402 -0.04418 -0.039324 0.014193
0.00074441 -0.0018617 0.00055934 -0.0028554 0.0079211 -0.0038446 0.01505 0.023483
-0.039358 0.01418 -0.25115 -0.013402
680000000 -0.22977 0.19207 -0.028172 -0.014401 0.0049089 0.0050629 0.00025957 -0.0078192
-0.003423 -0.010816 0.0043094 -0.0072647
-0.02813 -0.014389 -0.38647 0.16088 -0.032724 -0.0011321 -0.0016788 -0.00058102
-0.0029562 -0.0087446 -0.00084564 -0.0022405
0.0049205 0.005036 -0.032765 -0.0010286 -0.10162 0.28808 -0.00072759 8.3377e-05
-0.0024406 0.00078326 -0.00292 -0.0095085
0.00024211 -0.00781 -0.0016712 -0.00055806 -0.0007225 7.3431e-05 -0.21764 0.19543
-0.023404 -0.0087439 -0.011052 -0.0099659
-0.0034976 -0.010813 -0.0029721 -0.0087268 -0.0024597 0.00078344 -0.023455 -0.008713
-0.24888 0.052466 -0.0050369 -0.0094951
0.0043053 -0.0072791 -0.00087719 -0.0022265 -0.0029042 -0.0095051 -0.011067 -0.0099459
-0.005027 -0.0095178 -0.26199 0.090347
740000000 -0.18822 0.18719 -0.038512 0.026119 0.01254 -0.0052076 -0.00078929 -0.0040512
-0.0043685 -0.0023222 -0.0061574 0.0032723
-0.038487 0.026094 -0.33473 0.17955 -0.034538 0.034988 -0.00085927 -0.0065027
-0.011306 0.0084949 -0.0025992 -0.0060825
0.012502 -0.0052278 -0.034443 0.035095 -0.06787 0.28703 -0.0012096 0.0034876
-0.0029828 -0.0034959 -0.00080419 0.00047736
-0.00079837 -0.0040383 -0.00087148 -0.0064945 -0.0012182 0.0034732 -0.20115 0.20313
-0.042286 -0.0079719 0.022792 0.012419
-0.004408 -0.0023354 -0.011254 0.0085761 -0.0029943 -0.0035099 -0.042298 -0.0079179
-0.15599 0.073827 -0.042354 0.0018078
-0.0061983 0.00329 -0.0026235 -0.0060066 -0.00078629 0.00050585 0.022799 0.012453
-0.04239 0.0017699 -0.25047 0.097249
800000000 -0.15754 0.22744 -0.022817 0.017388 0.0050781 -0.010464 -0.0047998 -0.001931
-0.0041436 0.0030329 0.0043337 0.00084437
-0.022807 0.017364 -0.33679 0.24942 -0.0076947 0.033895 -0.0019744 0.0021971
-0.0002876 0.0035934 0.0012589 0.0053042
0.0050438 -0.010477 -0.0075836 0.033932 -0.026769 0.30979 0.0012743 0.0015279
0.00088016 0.0035899 -0.0018736 0.0010051
-0.0048091 -0.0019188 -0.0019621 0.0022004 0.0012739 0.0015243 -0.17353 0.23094
-0.028542 0.012342 0.012947 -0.0096373
-0.0041245 0.003026 -0.00028611 0.003609 0.0008901 0.0036049 -0.028525 0.012406
-0.19761 0.098318 -0.017827 0.017276
0.0043534 0.00082157 0.0012699 0.005336 -0.0018644 0.001014 0.012935 -0.0096528
-0.017838 0.017257 -0.24419 0.15185
860000000 -0.12288 0.24931 -0.017033 0.03163 -0.0034474 -0.0096847 -0.0026406 0.0013822
0.0045142 0.0051883 -0.002713 -0.0028476
-0.01702 0.031594 -0.28866 0.29132 0.0083245 0.033921 0.00033797 0.0020364
0.0047451 0.00023587 0.0033514 0.00040572
-0.0034782 -0.0096824 0.0084408 0.033926 0.021848 0.31748 -0.00027413 -0.00033982
0.0029525 -0.0016232 0.0014596 0.0044536
-0.0026402 0.0013723 0.00032634 0.0020247 -0.00027895 -0.00033771 -0.13813 0.24282
-0.017811 0.018245 -0.0062976 -0.0091341
0.0045431 0.0051515 0.0047299 0.00019578 0.0029378 -0.0016152 -0.017792 0.018293
-0.14963 0.14558 -0.023613 0.015512
-0.0027111 -0.0028308 0.0034067 0.00039239 0.0014715 0.0044487 -0.0062901 -0.0091635
-0.023599 0.015469 -0.19335 0.19428
920000000 -0.097684 0.27311 0.0053139 0.03822 -0.0093558 -0.003973 -0.0016631 0.0025329
0.0013912 0.0015149 0.0024744 -0.0012967
0.0052865 0.038185 -0.25983 0.31209 0.027996 0.021424 0.0016962 0.0010523
0.0067434 -0.00089388 0.0037101 -0.0026927
-0.009352 -0.0039553 0.028084 0.021354 0.068205 0.31768 0.001735 -0.00015823
0.0012866 -0.00056029 0.00074626 -0.001056
-0.0016603 0.0025446 0.0016956 0.00108 0.0017344 -0.00015198 -0.11369 0.25924
-0.010511 0.029496 0.0024086 -0.0062963
0.0014178 0.0015069 0.0067403 -0.00092367 0.0013002 -0.00056094 -0.010444 0.029532
-0.13921 0.15218 -0.0021226 0.02726
0.0024654 -0.0013167 0.003641 -0.002761 0.00073472 -0.0011016 0.0024165 -0.0062981
-0.002133 0.027239 -0.1996 0.20847
980000000 -0.049783 0.29273 0.018265 0.030007 -0.0086151 0.00479 0.0025871 0.0038278
0.0040419 -0.0018607 -0.002857 -0.0021121
0.018215 0.030003 -0.20687 0.34545 0.032725 0.004392 0.0020146 -4.1618e-05
0.00093184 -0.0061054 -0.00050679 -0.0022592
-0.0086005 0.0048125 0.032763 0.0042902 0.11451 0.31077 0.00034438 -0.0011726
-8.8392e-05 -0.0020917 0.0015434 -9.165e-05
0.0026059 0.0038184 0.0020009 -4.0905e-05 0.00034471 -0.0011864 -0.075499 0.27083
0.0069779 0.028018 -0.0094504 -0.0063973
0.0040578 -0.001889 0.00088538 -0.0061299 -9.4552e-05 -0.0020969 0.0070399 0.02801
-0.1085 0.17886 0.0051798 0.018407
-0.0028589 -0.0020931 -0.00053264 -0.0022895 0.0015467 -0.00010355 -0.0094454 -0.0063769
0.0051667 0.018408 -0.15679 0.25257
1040000000 -0.0066882 0.30104 0.033432 0.017555 -0.0010032 0.0067806 0.002941 0.00070315
1.4564e-05 -0.0038412 -0.00059536 -0.0013598
0.033408 0.01756 -0.17109 0.35831 0.02878 -0.014979 0.0014763 -0.0016785
-0.0026238 -0.002106 -0.0013945 -0.0026455
-0.00097436 0.0067736 0.028749 -0.015076 0.16059 0.29661 -0.00054771 -0.0013391
-0.0015838 -0.00072406 -0.00043159 -0.0010326
0.0029578 0.00069051 0.0014586 -0.0016573 -0.0005416 -0.0013433 -0.047856 0.28082
0.017653 0.016721 -0.0031041 0.0023088
1.1702e-05 -0.003836 -0.0026775 -0.0020874 -0.0015864 -0.00071847 0.01769 0.016693
-0.078063 0.18781 0.013208 0.017728
-0.00059672 -0.0013289 -0.0014235 -0.0026347 -0.00041933 -0.0010265 -0.0031046 0.0023316
0.013196 0.017718 -0.13491 0.27364
1100000000 0.039186 0.30824 0.035663 -0.0048081 0.0029863 0.0035618 0.0026708 -0.001617
-0.0022406 -0.0030391 -0.003778 3.3436e-05
0.035631 -0.0047705 -0.12746 0.37497 0.014577 -0.027526 3.868e-05 -0.0018314
-0.0030876 -0.00027815 -0.0034142 -0.00044743
0.0030018 0.0035542 0.01448 -0.027601 0.20678 0.2759 -0.0017364 0.00029113
-0.0015412 0.00072623 -0.00093562 -0.00034258
0.002674 -0.0016254 2.5049e-05 -0.0018283 -0.0017296 0.00028327 -0.0071902 0.28559
0.021727 0.0049511 -0.0021441 0.0012541
-0.002245 -0.0030239 -0.0030964 -0.00026126 -0.001541 0.00073737 0.021727 0.0049122
-0.059573 0.20112 0.01824 0.0082455
-0.0038002 7.335e-05 -0.0034328 -0.00044035 -0.00093589 -0.0003496 -0.0021496 0.0012429
0.018225 0.0082483 -0.087906 0.30281
1160000000 0.090965 0.3027 0.023583 -0.020996 0.00262 -0.00067077 -1.1159e-05 -0.0027275
-0.0041186 -0.00027067 -0.00087573 0.0040786
0.023585 -0.020965 -0.083514 0.37873 -0.003934 -0.028618 -0.0017698 -0.0016076
-0.0021813 0.0026304 -0.0012908 0.0016057
0.0026329 -0.00067969 -0.0040651 -0.02862 0.24958 0.24483 -0.0005218 0.0016442
-0.0002448 0.0016953 -0.00098653 7.7298e-05
-1.1796e-05 -0.0027137 -0.001788 -0.0015954 -0.00052054 0.0016471 0.032158 0.28269
0.018291 -0.0092727 -0.0026179 0.0058956
-0.0041351 -0.00024778 -0.0021769 0.0026436 -0.00024725 0.0017036 0.018269 -0.0093003
-0.026549 0.21096 0.016987 0.00039878
-0.00086951 0.0040992 -0.0013014 0.0016287 -0.0009793 8.6644e-05 -0.0026084 0.0059011
0.016981 0.00039213 -0.041273 0.30556
1220000000 0.13566 0.29082 0.0099105 -0.029836 -0.0016266 -0.00086985 -0.00027354 -0.0012567
-0.0024441 0.0026634 0.0013261 0.0018588
0.0099248 -0.029803 -0.03949 0.39003 -0.016693 -0.020591 -0.0024989 0.00045078
0.00043644 0.0027547 -0.0006735 0.0017454
-0.0016208 -0.00086054 -0.016812 -0.020538 0.28852 0.2057 0.00092309 0.0014549
0.00063644 0.0010001 0.00026656 0.00068062
-0.00027304 -0.0012492 -0.0024933 0.00046538 0.00092348 0.0014511 0.071824 0.274
0.0086632 -0.014441 0.0030998 0.0018778
-0.0024435 0.0026732 0.0004481 0.0027571 0.00063297 0.00099915 0.0086277 -0.01446
-0.002724 0.22101 0.012945 -0.012083
0.0013377 0.0018535 -0.00066381 0.001738 0.00027095 0.00067639 0.0030924 0.001874
0.012942 -0.012081 -0.0089025 0.32178
1280000000 0.18508 0.26808 -0.0080577 -0.028022 -0.0018449 0.0024308 -0.0012276 -0.0019869
-0.00040213 0.0031364 0.0025199 0.00097151
-0.0080343 -0.028002 0.0061109 0.38066 -0.02319 -0.0081915 -0.00095791 0.0014576
0.001626 0.0013988 0.00049992 0.0019045
-0.0018395 0.0024396 -0.023255 -0.0080921 0.31895 0.16171 0.0012631 -0.00021551
0.00086196 1.104e-05 0.00029808 0.00042284
-0.0012303 -0.0019885 -0.00094464 0.0014639 0.0012718 -0.00021866 0.1082 0.25809
0.00036607 -0.015706 0.00095104 5.2026e-05
-0.00038415 0.003137 0.0016455 0.0013874 0.00086932 1.5595e-05 0.00033173 -0.015702
0.034516 0.22502 0.0025717 -0.013928
0.0025337 0.00094929 0.00051042 0.0019169 0.00029594 0.00042068 0.00094862 5.1741e-05
0.0025708 -0.013931 0.038504 0.32287
1340000000 0.22206 0.23382 -0.017566 -0.018579 0.0008599 0.0043119 -0.0020181 -0.00059831
0.0015368 0.0023993 0.001565 -0.001542
-0.017537 -0.018581 0.045352 0.37206 -0.021128 0.004165 -4.7558e-05 0.0019042
0.0016146 0.00053595 0.0013164 0.00082917
0.0008781 0.0043067 -0.021129 0.0042786 0.34107 0.11375 0.00087221 -0.00084682
0.00050067 -0.00034519 0.00023004 0.0002236
-0.002009 -0.00059945 -4.8636e-05 0.0019138 0.00086801 -0.00083913 0.14124 0.2381
-0.0069247 -0.012999 0.0016302 -0.00027674
0.0015557 0.0024054 0.0016126 0.00054042 0.00049785 -0.00035041 -0.0069487 -0.012976
0.065863 0.2206 -0.0035004 -0.012294
0.0015624 -0.0015472 0.0013307 0.00082505 0.00022997 0.00022508 0.0016219 -0.00027386
-0.0035 -0.012285 0.077694 0.31805
1400000000 0.25484 0.19522 -0.02304 -0.0072664 0.0049821 0.0030617 -0.002004 0.00083523
0.0024186 0.00047237 0.00013062 -0.0013159
-0.023009 -0.0072795 0.082111 0.35888 -0.014521 0.012063 0.0013337 0.0012083
0.00078818 -0.00078217 0.0012026 0.00028716
0.0050068 0.0030489 -0.014482 0.012151 0.35415 0.059902 2.3907e-05 -0.0013953
-4.2629e-05 -0.00031226 0.00033717 0.00019695
-0.002001 0.00085069 0.0013396 0.0012035 2.4984e-05 -0.0013952 0.17145 0.20986
-0.011377 -0.0073942 -0.0004225 -0.0011443
0.0024146 0.00045809 0.00076967 -0.00078332 -4.7e-05 -0.00031382 -0.0114 -0.0073603
0.099738 0.21563 -0.0094672 -0.0077316
0.00012311 -0.001311 0.0011977 0.00027097 0.00033527 0.00020084 -0.00043156 -0.001131
-0.0094697 -0.0077387 0.12245 0.30666
1460000000 0.27772 0.1508 -0.020147 0.004554 0.0053882 -0.0016735 -0.0014213 0.001782
0.0017665 -0.00088467 -0.00037774 -0.00087014
-0.020125 0.0045423 0.11613 0.33706 -0.006142 0.014852 0.0016745 0.00012821
0.00073632 -0.00096305 0.0011278 -0.00058906
0.0053686 -0.0017032 -0.0060881 0.014903 0.35985 0.005075 -0.0010402 -0.0011065
0.0002511 -0.00012199 0.00058517 -0.00038894
-0.0014166 0.0017848 0.0016699 0.00012359 -0.0010358 -0.0011025 0.19884 0.18068
-0.011714 -0.0025563 -0.001194 0.0011074
0.0017666 -0.00088971 0.00073147 -0.00097746 0.00025225 -0.00010558 -0.011717 -0.0025321
0.13041 0.20041 -0.010685 -0.0025793
-0.0003889 -0.00085267 0.0011388 -0.00060564 0.00057812 -0.00039866 -0.0012011 0.0011171
-0.010688 -0.00257 0.15552 0.28533
1520000000 0.28993 0.10841 -0.014555 0.010066 0.0030818 -0.0039673 0.00023391 0.0024732
0.001431 -0.0016666 -0.0011031 -0.00013423
-0.014539 0.010041 0.14955 0.32219 0.0012706 0.012858 0.0015598 -0.000805
0.00013994 -0.00080203 0.00029233 -0.0010121
0.0030711 -0.0039942 0.0013415 0.012866 0.35284 -0.05121 -0.00081845 -0.00034682
0.00055296 -0.00076287 -2.4255e-05 -3.6612e-05
0.00024816 0.0024693 0.001558 -0.00081075 -0.00082299 -0.00034673 0.2232 0.14213
-0.011221 0.001337 0.00077507 0.0015519
0.0014316 -0.001683 0.00013998 -0.00080044 0.00055716 -0.00077707 -0.01122 0.0013612
0.15915 0.18496 -0.010701 0.0015159
-0.0011206 -0.00011682 0.00028683 -0.0010212 -2.205e-05 -4.2732e-05 0.00077365 0.0015374
-0.010702 0.0015131 0.18882 0.26459
1580000000 0.29914 0.061246 -0.0081664 0.013072 -0.00095397 -0.0046501 0.0013645 0.0017053
-0.00060705 -0.0018027 -0.00031103 0.00036833
-0.0081716 0.013058 0.17674 0.29737 0.0049157 0.0082186 0.00042309 -0.0015198
-0.00026175 -0.00097145 -0.00028003 -0.00088398
-0.00097484 -0.0046448 0.0049676 0.0082104 0.33221 -0.10889 -0.0014137 0.00040327
-0.00026698 -0.0010625 0.0001492 -0.00053332
0.0013766 0.0017084 0.00041844 -0.0015299 -0.0014138 0.00040932 0.23818 0.10148
-0.0090414 0.0047983 0.0015744 0.00062228
-0.00061745 -0.0018055 -0.00026904 -0.00096934 -0.00026654 -0.0010595 -0.0090177 0.0048132
0.18392 0.16579 -0.0084911 0.0066867
-0.00031023 0.00036552 -0.00029283 -0.00088639 0.0001422 -0.00053435 0.0015667 0.0006168
-0.0084913 0.0066943 0.22081 0.23764
1640000000 0.30065 0.018509 -0.0016385 0.012166 -0.0026228 -0.0023269 0.0024442 0.00096848
-0.00077887 -0.00084808 -0.00030987 0.00070159
-0.0016502 0.012152 0.20616 0.27204 0.0056501 0.0036075 -0.00070211 -0.0015995
-0.00086605 -0.00059346 -0.00055032 -0.00063497
-0.0026424 -0.0023194 0.0056773 0.0035787 0.30376 -0.15803 -0.00087898 0.0011845
-0.00099263 -0.00081099 -6.1941e-05 -0.0002787
0.0024542 0.0009599 -0.00070884 -0.0015955 -0.00087614 0.0011835 0.25072 0.050811
-0.0062868 0.0055421 0.0019145 -0.00058696
-0.00078388 -0.00083959 -0.00086949 -0.00058569 -0.00099385 -0.00080804 -0.0062739 0.0055606
0.20728 0.13951 -0.0041747 0.0085883
-0.00029996 0.000708 -0.00055789 -0.00063666 -5.8106e-05 -0.00027504 0.0019112 -0.00060087
-0.0041701 0.0085925 0.24657 0.20617
1700000000 0.29188 -0.027868 0.0017777 0.0095009 -0.0032268 9.5239e-05 0.0028591 -0.00096429
-0.0015482 -0.00032184 0.00059012 0.00046696
0.0017709 0.009489 0.22413 0.24029 0.003807 0.00081757 -0.0013667 -0.0005482
-0.00085284 -0.00013803 -0.00092261 -0.0004096
-0.0032282 0.00011554 0.0038132 0.0008057 0.25983 -0.1976 0.00023632 0.0015455
-0.0016892 -0.00031698 -0.00055356 -0.00096989
0.0028525 -0.00098577 -0.0013673 -0.00053753 0.00023001 0.0015511 0.24674 -0.00098623
-0.0049216 0.0061433 0.0012273 -0.0018305
-0.0015443 -0.00030739 -0.00085544 -0.00013332 -0.0016948 -0.00030168 -0.0049137 0.0061457
0.2247 0.11707 0.00029189 0.0089521
0.00060353 0.00045584 -0.00092393 -0.00039664 -0.00055006 -0.00097946 0.0012253 -0.0018324
0.00029 0.0089544 0.26265 0.17135
1760000000 0.27787 -0.07693 0.0041112 0.0064293 -0.0020866 0.00071357 0.0014347 -0.0032164
-0.000795 0.00051462 0.00045426 -0.00039867
0.0041058 0.0064251 0.24985 0.20007 0.0016764 -0.00095202 -0.0010916 0.0001843
-0.001281 0.00080273 -0.00062039 0.00055022
-0.002065 0.00072853 0.0016603 -0.00096675 0.21063 -0.23076 0.0010081 0.0013152
-0.0011738 0.0012115 -0.0013797 -0.00035558
0.0014093 -0.003215 -0.0010962 0.00019171 0.0010143 0.0013169 0.23548 -0.053721
-0.00284 0.0060585 -0.0006248 -0.0019654
-0.00078576 0.00051512 -0.0012808 0.00082223 -0.0011734 0.0012274 -0.0028272 0.0060608
0.23956 0.079317 0.0037431 0.0062146
0.00045329 -0.00041567 -0.00061641 0.0005598 -0.0013696 -0.00033005 -0.00062718 -0.0019666
0.0037469 0.0062157 0.27512 0.13353
1820000000 0.25111 -0.1139 0.0044882 0.0029365 -9.6707e-05 0.002218 -0.00078727 -0.0030666
-0.00072239 0.0003296 0.00011013 -8.6e-05
0.0044802 0.0029397 0.2593 0.16967 -0.00020144 4.6321e-05 -0.0013423 0.00082851
-0.00023668 0.0015087 -0.00050642 0.0005495
-7.1234e-05 0.0022335 -0.00020426 6.3057e-05 0.1606 -0.24627 0.0015704 0.00061772
-0.00044651 0.0020519 -0.0013006 0.00057872
-0.00080875 -0.0030592 -0.0013401 0.00083779 0.0015818 0.00060102 0.20308 -0.10106
-0.0019384 0.0052239 -0.0016338 -0.0011389
-0.00072173 0.00033408 -0.00022604 0.0015036 -0.00044319 0.0020435 -0.0019202 0.0052219
0.25518 0.047285 0.0045925 0.0028355
9.6805e-05 -9.3139e-05 -0.00050093 0.00055154 -0.0012973 0.00058068 -0.0016402 -0.0011289
0.0045904 0.0028443 0.27713 0.09707
1880000000 0.21409 -0.1528 0.0024499 0.0006647 -0.00032409 0.0020577 -0.0028585 -0.0023506
-0.0005381 0.0012389 0.00033178 -0.00069946
0.0024411 0.0006678 0.26328 0.12309 -0.0020779 0.0017401 -0.00018294 0.0017157
0.00067409 0.0015297 0.00024572 0.00095773
-0.00030952 0.0020535 -0.0020521 0.001761 0.10857 -0.25514 0.0019659 -0.0010268
0.0013677 0.0020488 -0.00085339 0.0013723
-0.0028629 -0.0023402 -0.00017284 0.0017263 0.0019676 -0.0010241 0.16045 -0.13974
-0.0018441 0.0044461 -0.0022088 0.00097759
-0.00051922 0.0012413 0.00069316 0.0015158 0.0013729 0.0020454 -0.0018392 0.004448
0.25565 0.011698 0.004051 0.00095221
0.00033496 -0.00069479 0.00024867 0.00095494 -0.00086263 0.0013704 -0.0022089 0.00098553
0.0040477 0.00094709 0.27672 0.062902
1940000000 0.17365 -0.17693 0.00038258 -0.0011708 0.0012469 0.0019054 -0.0038763 0.00046847
0.00091846 0.0010773 -0.00069034 -0.00068048
0.00038039 -0.0011636 0.26317 0.091244 -0.00093873 0.0038245 0.00096738 0.001297
0.0022024 0.00061144 0.00083917 0.00024409
0.0012795 0.0019211 -0.00092371 0.0038513 0.06275 -0.24893 0.00035043 -0.002589
0.0024655 0.00058498 0.00030338 0.0015511
-0.0038627 0.00050382 0.00097671 0.0012905 0.00035937 -0.0025867 0.10705 -0.16772
-0.0027578 0.0044822 -0.00091312 0.0019323
0.00091636 0.0010869 0.0022217 0.00058173 0.0024602 0.00058043 -0.0027526 0.0044991
0.25383 -0.029461 0.0028131 -0.0020144
-0.00071466 -0.00066432 0.00084932 0.00022633 0.00032385 0.0015721 -0.00091408 0.0019576
0.002799 -0.0020079 0.26541 0.026775
2000000000 0.1274 -0.18926 -0.003375 0.0006963 0.0023275 0.0016564 -0.0023691 0.0036188
0.0010091 0.00053066 -0.00073057 0.00039366
-0.0033764 0.00069124 0.24841 0.055946 -0.00083479 0.0054835 0.0016463 0.00017746
0.0017529 -0.0017641 0.0005242 7.2751e-05
0.0023375 0.0016441 -0.00079385 0.0055002 0.019126 -0.23472 -0.0015684 -0.0015205
0.0021388 -0.0013021 0.0016642 0.0012094
-0.0023448 0.0036448 0.0016522 0.00016517 -0.0015589 -0.0015299 0.053936 -0.17524
-0.0039633 0.0055821 0.00041161 0.0021408
0.0010044 0.00051919 0.0017477 -0.0017936 0.0021535 -0.0013047 -0.0039528 0.0055847
