!Keysight Technologies,M9804A,MY58100912,A.14.10.03
!Date: Thursday, April 27, 2023 10:28:33
!Correction: S11(C  6-Port  ) 
!S12(C  6-Port  ) 
!S13(C  6-Port  ) 
!S14(C  6-Port  ) 
!S15(C  6-Port  ) 
!S16(C  6-Port  ) 
!S21(C  6-Port  ) 
!S22(C  6-Port  ) 
!S23(C  6-Port  ) 
!S24(C  6-Port  ) 
!S25(C  6-Port  ) 
!S26(C  6-Port  ) 
!S31(C  6-Port  ) 
!S32(C  6-Port  ) 
!S33(C  6-Port  ) 
!S34(C  6-Port  ) 
!S35(C  6-Port  ) 
!S36(C  6-Port  ) 
!S41(C  6-Port  ) 
!S42(C  6-Port  ) 
!S43(C  6-Port  ) 
!S44(C  6-Port  ) 
!S45(C  6-Port  ) 
!S46(C  6-Port  ) 
!S51(C  6-Port  ) 
!S52(C  6-Port  ) 
!S53(C  6-Port  ) 
!S54(C  6-Port  ) 
!S55(C  6-Port  ) 
!S56(C  6-Port  ) 
!S61(C  6-Port  ) 
!S62(C  6-Port  ) 
!S63(C  6-Port  ) 
!S64(C  6-Port  ) 
!S65(C  6-Port  ) 
!S66(C  6-Port  ) 
!S6P File: Measurement: :
# Hz S  RI   R 50
500000000 -0.33499 -0.031118 -0.0092822 -0.0040413 -0.0078279 0.011453 -0.0034094 0.011621
0.012298 0.0043826 -0.0039511 0.0080868
-0.0092757 -0.0040283 -0.41882 -0.048328 0.0074502 -0.011908 0.0015815 0.010878
0.0076302 0.0029009 0.0013386 0.012098
-0.0078171 0.011499 0.0074214 -0.01193 -0.26484 0.21197 0.006827 0.0028865
0.0005208 0.0087274 0.00073945 0.011658
-0.0033933 0.011625 0.0016095 0.010899 0.0068398 0.0028797 -0.32644 0.049558
-0.019039 -0.004935 0.017477 0.024914
0.012352 0.0043362 0.007641 0.0028954 0.00049603 0.0087508 -0.019039 -0.0049124
-0.2272 -0.17825 -0.027298 0.0043953
-0.0039515 0.0081068 0.001352 0.012113 0.00073267 0.011634 0.017503 0.02492
-0.027273 0.0044031 -0.27332 -0.12431
560000000 -0.31205 0.12643 -0.024335 -0.063779 0.00035983 0.012099 0.0064394 0.0099745
0.011789 0.0037456 0.00939 0.0071657
-0.024294 -0.063708 -0.37658 0.11058 -0.041886 -0.036359 0.014514 0.0039949
-0.012434 -0.0049821 0.0048435 -0.00055456
0.00040683 0.012111 -0.042042 -0.036287 -0.18249 0.2599 -0.0011054 -0.004913
0.018709 0.0041323 0.0070872 -0.0060878
0.0064701 0.0099767 0.014533 0.0039908 -0.0010932 -0.0049372 -0.30112 0.13678
0.004603 -0.025106 0.0052998 -0.01943
0.011795 0.0037572 -0.012467 -0.0049391 0.018699 0.0041352 0.0046065 -0.02512
-0.28479 -0.0052847 0.0079447 -0.050772
0.0094145 0.0071822 0.0048184 -0.00055453 0.0071049 -0.0060947 0.0053171 -0.019445
0.007988 -0.050768 -0.33237 0.022922
620000000 -0.27035 0.11064 -0.023132 0.0066157 0.0032482 0.0082175 0.0069054 -0.0062151
0.010888 -0.00086629 0.00083905 -0.0019405
-0.023107 0.0066157 -0.40257 0.064244 -0.018958 -0.00019929 -0.001542 -0.0021714
0.010359 -0.0068394 0.00056826 -0.0028135
0.003274 0.0082012 -0.018969 -0.00015092 -0.15255 0.26888 -0.0019144 -0.0048523
-0.0034124 -0.003401 0.0077923 -0.0037965
0.006926 -0.0062547 -0.0015532 -0.0021713 -0.0019332 -0.0048724 -0.25949 0.14692
-0.038388 -0.019174 0.014936 0.023469
0.010918 -0.00082939 0.010338 -0.0068805 -0.0034109 -0.0034208 -0.038405 -0.019198
-0.20409 -0.04428 -0.039289 0.01415
0.00082213 -0.001923 0.00056117 -0.0028403 0.0078458 -0.0038317 0.014941 0.023434
-0.039288 0.014198 -0.25113 -0.013338
680000000 -0.2296 0.19192 -0.028215 -0.014405 0.0049051 0.0050645 0.0002493 -0.0077953
-0.0034435 -0.010803 0.0043005 -0.0072751
-0.028179 -0.014407 -0.38648 0.16086 -0.032726 -0.0011283 -0.0016806 -0.00057731
-0.0029671 -0.0087556 -0.00083356 -0.002251
0.0049191 0.0050484 -0.032755 -0.0010496 -0.10163 0.28806 -0.0007321 9.0332e-05
-0.0024434 0.00078418 -0.0029132 -0.0095273
0.00023842 -0.0078068 -0.0016878 -0.0005801 -0.00073317 8.5755e-05 -0.21765 0.19538
-0.023445 -0.0087615 -0.011038 -0.009964
-0.0034912 -0.010798 -0.0029908 -0.0087466 -0.0024418 0.00078676 -0.023452 -0.0087317
-0.24893 0.052465 -0.0050224 -0.0094929
0.0043093 -0.0072732 -0.00085574 -0.0022334 -0.0029149 -0.00951 -0.011044 -0.0099679
-0.0050116 -0.0095026 -0.26201 0.090333
740000000 -0.18811 0.18702 -0.03855 0.026092 0.012517 -0.0051911 -0.00081307 -0.0040466
-0.0043511 -0.0023213 -0.0061288 0.0032568
-0.038542 0.026067 -0.33467 0.17957 -0.034521 0.035025 -0.00085421 -0.0064665
-0.011309 0.0084851 -0.0026082 -0.0060797
0.012501 -0.0052306 -0.034472 0.035139 -0.067905 0.28704 -0.00122 0.0034798
-0.0029803 -0.0035012 -0.00079615 0.00048245
-0.00079803 -0.0040341 -0.00086581 -0.0064733 -0.0012024 0.0034823 -0.20113 0.20307
-0.042308 -0.0079933 0.022775 0.012401
-0.0043925 -0.002308 -0.011265 0.0085752 -0.002988 -0.0035226 -0.042356 -0.0079504
-0.15591 0.073853 -0.042315 0.0018396
-0.0061696 0.0032792 -0.0026197 -0.0060559 -0.00080582 0.00048643 0.022814 0.012401
-0.042332 0.0017949 -0.25052 0.097262
800000000 -0.15755 0.22728 -0.022873 0.017369 0.0050803 -0.010472 -0.0047983 -0.0019316
-0.0041416 0.0030192 0.004342 0.00084698
-0.02286 0.017339 -0.3368 0.24943 -0.0076889 0.033884 -0.0019877 0.0022028
-0.00028151 0.0035795 0.0012638 0.0052949
0.0050596 -0.010484 -0.0075936 0.033943 -0.026766 0.3098 0.0012741 0.0015211
0.00087938 0.0035842 -0.0018725 0.00099592
-0.0048275 -0.0019104 -0.0019731 0.0022193 0.001277 0.0015149 -0.17355 0.23085
-0.028538 0.01235 0.012938 -0.009646
-0.0041251 0.0030454 -0.00026075 0.003594 0.00088767 0.0035912 -0.028548 0.012408
-0.19761 0.098315 -0.017844 0.01728
0.0043248 0.00081292 0.001266 0.0053101 -0.0018767 0.00099719 0.01293 -0.0096674
-0.017847 0.017265 -0.24416 0.15181
860000000 -0.12293 0.24919 -0.017066 0.031644 -0.0034511 -0.0096865 -0.0026398 0.0013931
0.0045434 0.0051806 -0.0027316 -0.0028618
-0.01706 0.031595 -0.28865 0.29132 0.0083214 0.033908 0.00034551 0.0020378
0.0047794 0.0002541 0.0033517 0.00037039
-0.0034751 -0.0096821 0.0084374 0.033914 0.021835 0.31748 -0.00028136 -0.00034387
0.0029445 -0.0016518 0.0014663 0.0044592
-0.0026461 0.0013962 0.0003488 0.002044 -0.0002812 -0.0003434 -0.13816 0.24278
-0.017786 0.018269 -0.0062922 -0.0091221
0.0045612 0.0051674 0.0047652 0.00020178 0.0029463 -0.0016428 -0.017799 0.018315
-0.14951 0.14559 -0.023672 0.01548
-0.002728 -0.0028511 0.0033492 0.00038616 0.0014545 0.0044625 -0.0062928 -0.0091359
-0.023674 0.015436 -0.19338 0.19427
920000000 -0.09777 0.27302 0.0052768 0.038251 -0.0093415 -0.0039855 -0.0016545 0.0025472
0.0013873 0.0015136 0.0024706 -0.0012739
0.0052478 0.038189 -0.25985 0.31209 0.027971 0.021419 0.00169 0.001057
0.0067574 -0.00089222 0.0037014 -0.0027022
-0.0093495 -0.0039656 0.028072 0.021352 0.068189 0.31767 0.0017392 -0.00015962
0.0012944 -0.00055825 0.0007513 -0.0010581
-0.0016614 0.0025443 0.0017006 0.0010655 0.001733 -0.0001614 -0.11374 0.25922
-0.010483 0.029511 0.0023926 -0.0062818
0.0014131 0.0015019 0.0067345 -0.00092547 0.0012981 -0.00056103 -0.010443 0.029544
-0.13916 0.15217 -0.0021238 0.027242
0.0024611 -0.0012975 0.0036809 -0.0027115 0.00074356 -0.0010641 0.0023926 -0.0063091
-0.0021367 0.027206 -0.1996 0.20854
980000000 -0.049901 0.29267 0.018252 0.030033 -0.0085961 0.0048125 0.0026143 0.0038338
0.004054 -0.0018477 -0.0028603 -0.0021006
0.018211 0.030004 -0.20691 0.34548 0.032699 0.0043749 0.0019964 -5.8281e-05
0.00093157 -0.0061041 -0.00050777 -0.0022797
-0.0085863 0.0048294 0.032755 0.0042829 0.1145 0.31076 0.00034751 -0.001177
-8.1941e-05 -0.0020894 0.0015549 -8.7909e-05
0.0026205 0.0038287 0.0020053 -4.2156e-05 0.00035129 -0.0011859 -0.075569 0.27084
0.0070061 0.028035 -0.0094336 -0.006388
0.0040632 -0.0018846 0.00089467 -0.0061342 -7.8909e-05 -0.0020932 0.007062 0.02804
-0.10851 0.1788 0.0051998 0.018428
-0.0028426 -0.0020979 -0.00052538 -0.0022743 0.0015428 -9.3812e-05 -0.0094462 -0.0063691
0.0051717 0.018412 -0.15679 0.25259
1040000000 -0.0068108 0.30103 0.033456 0.017559 -0.00097714 0.006794 0.0029658 0.00071436
7.8594e-06 -0.0038449 -0.00058824 -0.0013362
0.0334 0.017557 -0.17111 0.35833 0.028746 -0.014979 0.0014407 -0.0016743
-0.0026255 -0.0021207 -0.0013914 -0.002674
-0.00096217 0.0067846 0.028737 -0.015087 0.16057 0.29661 -0.00053729 -0.001331
-0.0015946 -0.00072062 -0.00041807 -0.0010363
0.0029561 0.00068948 0.0014605 -0.0016789 -0.00053817 -0.0013325 -0.047899 0.28085
0.017668 0.016727 -0.0031091 0.0023009
1.5363e-05 -0.0038426 -0.0026731 -0.002106 -0.0015909 -0.00071738 0.017723 0.016691
-0.078082 0.18781 0.013223 0.017734
-0.00058411 -0.0013394 -0.0014254 -0.002644 -0.0004151 -0.0010216 -0.0030952 0.0023188
0.013205 0.017722 -0.13491 0.27372
1100000000 0.039066 0.30825 0.035682 -0.0047964 0.0029951 0.0035718 0.002671 -0.0016248
-0.0022482 -0.0030367 -0.0037763 4.8779e-05
0.035647 -0.0047738 -0.12749 0.37494 0.014568 -0.027516 2.6348e-05 -0.0018338
-0.0030787 -0.00027181 -0.0034234 -0.00045757
0.003003 0.0035508 0.014484 -0.027597 0.20677 0.27591 -0.0017365 0.00028398
-0.0015417 0.00072308 -0.0009353 -0.00034744
0.0026661 -0.001637 2.6304e-05 -0.0018319 -0.0017333 0.00029221 -0.0072182 0.28565
0.021736 0.0049368 -0.0021414 0.0012418
-0.002256 -0.0030167 -0.0031011 -0.00026848 -0.0015422 0.00073941 0.021758 0.0049041
-0.059588 0.2011 0.018239 0.0082421
-0.0037759 6.3083e-05 -0.0034285 -0.00043565 -0.00093586 -0.00034238 -0.0021354 0.001246
0.018223 0.008235 -0.087869 0.30285
1160000000 0.09083 0.30273 0.023606 -0.021025 0.0026193 -0.00066737 -1.3735e-05 -0.0027288
-0.0041171 -0.0002615 -0.00086742 0.0040736
0.023585 -0.020986 -0.083539 0.37872 -0.0039573 -0.028617 -0.0017948 -0.0016031
-0.0021732 0.0026327 -0.0013017 0.0015726
0.0026234 -0.00068551 -0.0040714 -0.028625 0.24958 0.24485 -0.00052331 0.0016517
-0.00025318 0.0016956 -0.00099682 8.2445e-05
-2.4725e-05 -0.0027395 -0.0017923 -0.0015892 -0.00052333 0.0016475 0.032156 0.28275
0.018285 -0.0093034 -0.0026143 0.0058774
-0.0041171 -0.00022463 -0.0021833 0.0026274 -0.00024271 0.0017124 0.018294 -0.0093141
-0.026575 0.21095 0.017005 0.00040436
-0.00085549 0.0040875 -0.0012988 0.0016152 -0.00098286 8.166e-05 -0.0026013 0.0058865
0.016986 0.00039107 -0.041246 0.3056
1220000000 0.13555 0.29091 0.0099189 -0.029856 -0.0016234 -0.00087099 -0.00028065 -0.0012535
-0.0024398 0.0026773 0.0013154 0.0018524
0.009921 -0.029826 -0.039539 0.39001 -0.016706 -0.020595 -0.0025003 0.00044553
0.00043809 0.0027555 -0.00066791 0.0017484
-0.0016244 -0.00086534 -0.016821 -0.020537 0.28851 0.20571 0.00092168 0.0014524
0.00063376 0.00099723 0.00026487 0.00069284
-0.00028084 -0.0012461 -0.002499 0.0004644 0.00092239 0.0014485 0.071839 0.27405
0.0086578 -0.014462 0.0030975 0.0018706
-0.0024388 0.0026983 0.00045518 0.0027484 0.00063093 0.0010033 0.0086429 -0.014471
-0.0027102 0.22103 0.012945 -0.012112
0.001338 0.0018525 -0.00066038 0.001747 0.00027093 0.00067839 0.0031004 0.0018674
0.01295 -0.012097 -0.0088208 0.32182
1280000000 0.18498 0.26817 -0.0080421 -0.028032 -0.0018633 0.0024262 -0.0012354 -0.0019774
-0.00039487 0.0031432 0.002501 0.00096101
-0.0080341 -0.028011 0.006086 0.38068 -0.023176 -0.0081883 -0.00095262 0.0014524
0.0016221 0.0013973 0.00049421 0.0019052
-0.0018404 0.0024404 -0.023246 -0.0080975 0.31895 0.16171 0.0012617 -0.00021272
0.00086915 1.1114e-05 0.00029756 0.00042821
-0.0012428 -0.0019693 -0.00094386 0.0014553 0.0012645 -0.00021026 0.10825 0.25811
0.00036069 -0.015711 0.00094595 5.351e-05
-0.00038274 0.0031386 0.001641 0.001383 0.0008739 1.4028e-05 0.00031482 -0.015721
0.034506 0.22501 0.0025803 -0.013942
0.002517 0.00095025 0.00050738 0.001903 0.00030163 0.00042321 0.00093795 4.7841e-05
0.0025871 -0.01393 0.038518 0.32288
1340000000 0.22198 0.23395 -0.01757 -0.018585 0.00085045 0.0043099 -0.0020117 -0.00059172
0.0015403 0.0023877 0.0015704 -0.0015273
-0.017539 -0.018588 0.045329 0.37206 -0.021137 0.0041725 -5.1011e-05 0.0019107
0.0016075 0.0005404 0.0013132 0.00082194
0.00086294 0.0043025 -0.021134 0.0042718 0.34105 0.11379 0.00086834 -0.00084002
0.00050551 -0.00034533 0.0002391 0.00022048
-0.00201 -0.00058575 -3.9443e-05 0.0019069 0.00087427 -0.00083746 0.1413 0.23809
-0.0069238 -0.012992 0.0016086 -0.00027293
0.0015541 0.0023929 0.0016108 0.00053115 0.0005055 -0.00034965 -0.0069534 -0.012985
0.065853 0.22062 -0.003513 -0.0123
0.0015606 -0.0015464 0.0013204 0.00081753 0.00023441 0.00022451 0.0016174 -0.00027198
-0.0035067 -0.012298 0.077682 0.31803
1400000000 0.25481 0.19538 -0.023045 -0.0072674 0.0049727 0.0030683 -0.0019827 0.00083894
0.0024153 0.00047131 0.00013107 -0.0013161
-0.023009 -0.0072732 0.082084 0.35888 -0.014524 0.012065 0.0013253 0.0012136
0.00078556 -0.00078542 0.0011953 0.0002731
0.0049947 0.0030455 -0.014485 0.01216 0.35417 0.059919 3.1043e-05 -0.0013874
-3.8428e-05 -0.00031984 0.00033517 0.00019613
-0.0019859 0.00084424 0.0013327 0.0012064 2.6644e-05 -0.001387 0.17148 0.20983
-0.011386 -0.0073953 -0.00042525 -0.0011374
0.0024159 0.00046156 0.00078134 -0.00079058 -3.6797e-05 -0.00031547 -0.011406 -0.0073716
0.09976 0.21562 -0.0094796 -0.0077144
0.00011966 -0.0013152 0.0012007 0.00028652 0.00033421 0.0001947 -0.00042943 -0.0011413
-0.0094773 -0.0077273 0.12244 0.30663
1460000000 0.27775 0.15098 -0.020143 0.0045552 0.005389 -0.0016677 -0.0014117 0.0017798
0.0017719 -0.0008777 -0.00037007 -0.00084877
-0.020121 0.0045374 0.1161 0.33707 -0.0061412 0.014851 0.0016541 0.00013228
0.00074311 -0.00096593 0.0011456 -0.00060381
0.0053811 -0.0016897 -0.0060769 0.014904 0.35983 0.0050897 -0.0010405 -0.0011083
0.00025774 -0.00011038 0.00057603 -0.0003911
-0.0014104 0.0017899 0.001664 0.00012112 -0.0010262 -0.0011035 0.19886 0.18064
-0.01171 -0.0025672 -0.0011976 0.0011179
0.0017669 -0.00089738 0.00073483 -0.00097641 0.00025906 -0.0001118 -0.011733 -0.0025392
0.1304 0.20041 -0.010696 -0.0025746
-0.00038627 -0.00085543 0.0011342 -0.00060999 0.00058238 -0.00040216 -0.00119 0.0011271
-0.010699 -0.0025885 0.15553 0.28532
1520000000 0.29004 0.10855 -0.014554 0.010057 0.0030821 -0.003979 0.00024044 0.0024696
0.0014226 -0.0016642 -0.0011092 -0.00013521
-0.014543 0.010039 0.14952 0.32222 0.0012679 0.012866 0.0015531 -0.00079869
0.00014704 -0.00080173 0.00030333 -0.0010166
0.0030714 -0.0039909 0.0013437 0.012867 0.35283 -0.051178 -0.00081624 -0.00034805
0.00055709 -0.00075671 -2.3686e-05 -4.3422e-05
0.00024353 0.0024705 0.0015531 -0.00081097 -0.00081871 -0.00035063 0.2232 0.14209
-0.011227 0.0013325 0.00077797 0.0015505
0.0014164 -0.001675 0.00013985 -0.00080663 0.0005537 -0.00076411 -0.011227 0.0013572
0.15915 0.18499 -0.010703 0.0015304
-0.0011085 -0.00012542 0.00028952 -0.0010131 -1.5875e-05 -3.9271e-05 0.00077725 0.0015464
-0.010706 0.0015173 0.18882 0.26456
1580000000 0.2993 0.061332 -0.0081655 0.013046 -0.00094959 -0.0046511 0.0013571 0.0017043
-0.00060078 -0.0017907 -0.0003121 0.00036306
-0.0081722 0.013043 0.17672 0.29739 0.0049242 0.0082142 0.00042873 -0.0015178
-0.00026227 -0.00097207 -0.0002856 -0.00087333
-0.00096955 -0.0046394 0.0049657 0.0081995 0.33222 -0.10888 -0.0014171 0.00040951
-0.00026262 -0.0010673 0.00014765 -0.00052457
0.0013723 0.0016931 0.00041878 -0.0015255 -0.0014132 0.00040575 0.23815 0.10146
-0.0090476 0.0048013 0.0015736 0.00062671
-0.00061517 -0.0017976 -0.00026448 -0.00096896 -0.00026818 -0.0010641 -0.0090379 0.0048313
0.1839 0.1658 -0.0084883 0.0066968
-0.0003123 0.00036332 -0.00029398 -0.00088715 0.00014409 -0.00053243 0.0015798 0.00061792
-0.0084905 0.0066935 0.22081 0.23763
1640000000 0.30081 0.01853 -0.0016568 0.012155 -0.0026145 -0.002342 0.0024362 0.00096786
-0.00077447 -0.00084603 -0.00031375 0.0006983
-0.0016545 0.012145 0.20614 0.27209 0.0056548 0.0036064 -0.00069016 -0.0016036
-0.00086722 -0.00059118 -0.0005507 -0.00063332
-0.0026374 -0.0023212 0.005682 0.0035763 0.30373 -0.15796 -0.00087429 0.0011834
-0.00099419 -0.00080506 -5.8346e-05 -0.000287
0.002442 0.00095741 -0.00070958 -0.0015974 -0.00087598 0.0011878 0.25069 0.050794
-0.0062999 0.0055523 0.0019165 -0.00058747
-0.00077811 -0.00083585 -0.00087603 -0.00059157 -0.00099407 -0.00080636 -0.0062876 0.0055661
0.20726 0.13955 -0.0041651 0.0085956
-0.00030566 0.0007012 -0.00055952 -0.00063959 -6.4076e-05 -0.00028326 0.001916 -0.00059963
-0.0041733 0.0086003 0.24657 0.20613
1700000000 0.29205 -0.027924 0.0017532 0.0094867 -0.003221 9.5282e-05 0.0028476 -0.00096427
-0.001533 -0.00032454 0.00058889 0.00046412
0.0017516 0.0094872 0.2241 0.24034 0.003802 0.00081073 -0.0013655 -0.00054515
-0.0008533 -0.00013655 -0.00092055 -0.0004043
-0.0032213 0.00011282 0.0038136 0.00078831 0.25987 -0.19759 0.0002309 0.0015522
-0.0016817 -0.00032008 -0.00056455 -0.00095791
0.0028485 -0.00098005 -0.0013669 -0.00053994 0.00022491 0.0015521 0.24671 -0.0009741
-0.0049324 0.0061543 0.0012313 -0.0018397
-0.0015437 -0.00031277 -0.00085451 -0.0001316 -0.0016882 -0.00031323 -0.0049221 0.0061671
0.22472 0.11708 0.00029138 0.0089521
0.00059743 0.00045715 -0.00092112 -0.00040273 -0.00055946 -0.00096969 0.001222 -0.001838
0.00029341 0.008957 0.26271 0.17128
1760000000 0.27797 -0.077057 0.0040976 0.0064347 -0.0020847 0.00070376 0.0014413 -0.0032073
-0.00078912 0.0005286 0.00045759 -0.00039135
0.0040912 0.00643 0.24982 0.2001 0.0016689 -0.00095575 -0.0010889 0.00018165
-0.0012722 0.00080421 -0.00061707 0.00055046
-0.0020769 0.00072071 0.0016634 -0.00097008 0.21063 -0.23076 0.001014 0.0013141
-0.0011645 0.0012169 -0.0013669 -0.00033738
0.0014252 -0.0032179 -0.0010877 0.00019274 0.0010116 0.0013115 0.23546 -0.053702
-0.002849 0.006061 -0.00063673 -0.0019667
-0.00079221 0.0005158 -0.001272 0.00081561 -0.0011732 0.0012076 -0.002831 0.0060804
0.23954 0.079335 0.0037441 0.0062159
0.00045168 -0.00040811 -0.00061675 0.00055015 -0.0013825 -0.00033884 -0.00063675 -0.0019672
0.0037459 0.006215 0.27514 0.13347
1820000000 0.25114 -0.11404 0.0044763 0.0029485 -0.00012268 0.002222 -0.00078439 -0.0030659
-0.00072706 0.00032542 0.00010678 -8.5011e-05
0.0044638 0.0029456 0.25927 0.1697 -0.00020942 5.4296e-05 -0.0013452 0.00082557
-0.00022892 0.0015054 -0.00051049 0.00055164
-0.00010052 0.0022255 -0.00020352 5.3719e-05 0.16062 -0.24623 0.0015827 0.00060413
-0.00045178 0.0020499 -0.0012982 0.00058745
-0.00080478 -0.0030603 -0.0013437 0.00083324 0.001584 0.00060879 0.20305 -0.10105
-0.0019233 0.0052293 -0.0016469 -0.0011338
-0.00071605 0.00033361 -0.00021722 0.0015048 -0.00044423 0.0020478 -0.0019148 0.0052432
0.25517 0.047311 0.0045915 0.0028477
0.00010786 -8.5799e-05 -0.00050386 0.00056035 -0.001287 0.00058953 -0.0016538 -0.001132
0.0045858 0.002836 0.27711 0.097051
1880000000 0.21405 -0.15293 0.0024261 0.000685 -0.00031816 0.0020648 -0.002857 -0.002358
-0.00054048 0.0012573 0.0003217 -0.00070558
0.002426 0.00068576 0.26323 0.12313 -0.0020687 0.001747 -0.00018474 0.0017174
0.00066636 0.0015322 0.00024359 0.0009536
-0.00030966 0.0020627 -0.0020613 0.001762 0.10865 -0.25515 0.0019601 -0.0010187
0.0013636 0.0020505 -0.00087039 0.001368
-0.002861 -0.0023411 -0.0001698 0.001724 0.0019678 -0.0010262 0.16044 -0.13971
-0.0018298 0.0044428 -0.0022202 0.00095905
-0.0005251 0.0012482 0.00068487 0.0015235 0.0013645 0.0020467 -0.0018246 0.0044493
0.25564 0.011717 0.0040445 0.00095452
0.00033557 -0.00070549 0.00025372 0.00095793 -0.00086563 0.0013569 -0.0022162 0.00098414
0.0040408 0.00095707 0.27672 0.062889
1940000000 0.17355 -0.17703 0.00036999 -0.0011537 0.0012262 0.0019146 -0.0038894 0.00046305
0.00090665 0.0010737 -0.00069827 -0.00069478
0.00037642 -0.0011515 0.26317 0.091261 -0.00093552 0.0038224 0.00096661 0.0012948
0.0022057 0.00060904 0.00084958 0.00024403
0.0012594 0.0019072 -0.00090876 0.0038294 0.062725 -0.24892 0.00032854 -0.0025891
0.0024514 0.00056096 0.00028649 0.001535
-0.0038744 0.00049195 0.00097973 0.0012904 0.00034159 -0.002588 0.10703 -0.16768
-0.0027439 0.0044738 -0.00092474 0.0019343
0.00092079 0.0010786 0.002212 0.00058983 0.0024714 0.00057088 -0.0027342 0.0044837
0.25384 -0.029426 0.00282 -0.0020171
-0.00070346 -0.00066779 0.00084746 0.00023474 0.0003092 0.0015503 -0.00090618 0.0019513
0.0028144 -0.0020138 0.26545 0.026788
2000000000 0.12727 -0.1893 -0.0033675 0.0007231 0.0023416 0.0016513 -0.0023865 0.0036221
0.0010181 0.0005322 -0.00073426 0.00041294
-0.0033704 0.00071604 0.24839 0.055981 -0.00081234 0.0054858 0.0016498 0.00018435
0.001767 -0.001762 0.00052722 8.3724e-05
0.0023586 0.0016467 -0.00077919 0.0055114 0.019222 -0.23471 -0.0015716 -0.0014993
0.002159 -0.0012976 0.0016525 0.0012201
-0.0023562 0.0036344 0.0016453 0.00017323 -0.001572 -0.0015044 0.053946 -0.17521
-0.0039616 0.0055696 0.00041262 0.0021521
