!Keysight Technologies,M9804A,MY58100912,A.14.10.03
!Date: Thursday, April 27, 2023 10:28:33
!Correction: S11(C  6-Port  ) 
!S12(C  6-Port  ) 
!S13(C  6-Port  ) 
!S14(C  6-Port  ) 
!S15(C  6-Port  ) 
!S16(C  6-Port  ) 
!S21(C  6-Port  ) 
!S22(C  6-Port  ) 
!S23(C  6-Port  ) 
!S24(C  6-Port  ) 
!S25(C  6-Port  ) 
!S26(C  6-Port  ) 
!S31(C  6-Port  ) 
!S32(C  6-Port  ) 
!S33(C  6-Port  ) 
!S34(C  6-Port  ) 
!S35(C  6-Port  ) 
!S36(C  6-Port  ) 
!S41(C  6-Port  ) 
!S42(C  6-Port  ) 
!S43(C  6-Port  ) 
!S44(C  6-Port  ) 
!S45(C  6-Port  ) 
!S46(C  6-Port  ) 
!S51(C  6-Port  ) 
!S52(C  6-Port  ) 
!S53(C  6-Port  ) 
!S54(C  6-Port  ) 
!S55(C  6-Port  ) 
!S56(C  6-Port  ) 
!S61(C  6-Port  ) 
!S62(C  6-Port  ) 
!S63(C  6-Port  ) 
!S64(C  6-Port  ) 
!S65(C  6-Port  ) 
!S66(C  6-Port  ) 
!S6P File: Measurement: :
# Hz S  RI   R 50
500000000 -0.33069 -0.066888 -0.010237 -0.00065492 -0.008892 0.013279 -0.0038806 0.012186
0.012814 0.0055709 -0.0043156 0.0078862
-0.010231 -0.00091628 -0.41154 -0.076295 0.0081645 -0.010212 0.00099339 0.011972
0.0083453 0.0031226 0.0010652 0.013317
-0.0089867 0.013271 0.0081907 -0.010309 -0.26538 0.19019 0.006529 0.0032963
-0.0022006 0.0093483 6.6308e-05 0.011603
-0.0040964 0.012148 0.0011221 0.012264 0.0065882 0.0034354 -0.32975 0.037096
-0.02054 -0.0041951 0.017242 0.026576
0.012963 0.0055367 0.0083387 0.0024286 -0.0022936 0.0092192 -0.020679 -0.004244
-0.23055 -0.21998 -0.028036 0.0053699
-0.0044502 0.0079908 0.0011945 0.013456 -1.0485e-05 0.011621 0.017105 0.026831
-0.027881 0.0054177 -0.26284 -0.14351
560000000 -0.32141 0.10104 -0.021155 -0.067096 -0.00040873 0.014046 0.0045978 0.012213
0.010289 0.0051488 0.010494 0.010073
-0.020866 -0.066787 -0.37303 0.09126 -0.041629 -0.039253 0.014284 0.0041989
-0.013215 -0.0042253 0.0040356 -0.0012138
-0.00017278 0.014171 -0.041762 -0.039217 -0.1867 0.24272 -0.0003391 -0.0052978
0.018748 0.0071076 0.0079188 -0.0061179
0.0047778 0.012113 0.014189 0.0037421 -0.00022821 -0.005187 -0.30736 0.13061
0.0056262 -0.023719 0.0050066 -0.021682
0.010587 0.0050639 -0.013246 -0.0039893 0.01912 0.0069769 0.0054659 -0.023663
-0.30717 -0.033663 0.010319 -0.052002
0.010419 0.009375 0.0042371 -0.0013669 0.0076155 -0.0058575 0.0051103 -0.021696
0.010224 -0.05189 -0.3339 0.0084377
620000000 -0.27901 0.08053 -0.023416 0.0095231 0.0038521 0.0096205 0.008152 -0.0040141
0.012365 -0.0023177 -0.00023511 -0.0023882
-0.023495 0.009421 -0.40237 0.036829 -0.018187 0.00046303 -0.0015617 -0.0020538
0.012905 -0.0058348 0.00096942 -0.0030783
0.0038719 0.0093908 -0.01828 0.00053295 -0.15773 0.25238 -0.00076428 -0.0049594
-0.0030489 -0.0028332 0.0096757 -0.0031094
0.00823 -0.0039999 -0.0017042 -0.0018022 -0.00076939 -0.0051058 -0.26465 0.14087
-0.039113 -0.019585 0.014057 0.02892
0.012119 -0.001812 0.013081 -0.0056049 -0.0029185 -0.0029675 -0.039427 -0.020269
-0.22434 -0.075303 -0.04368 0.012876
-0.00028016 -0.0015102 0.00084787 -0.0028324 0.0092513 -0.0031068 0.01329 0.02947
-0.043663 0.013111 -0.24665 -0.028344
680000000 -0.24473 0.17546 -0.026038 -0.014861 0.0049083 0.0057841 0.0017274 -0.0071933
-0.0013926 -0.011583 0.0066594 -0.006802
-0.026023 -0.014907 -0.39152 0.13903 -0.032282 -0.0027565 -0.0016209 -0.00024388
-0.0014275 -0.0096672 -0.00081737 -0.0020687
0.0050459 0.0056621 -0.032281 -0.0027284 -0.10775 0.27448 -0.00095413 -0.00030225
-0.001353 0.0003914 -0.0025027 -0.0091328
0.0015639 -0.0072112 -0.0015191 -0.00025733 -0.00087734 -0.00034133 -0.22079 0.19251
-0.023421 -0.0072814 -0.0097875 -0.011424
-0.0015639 -0.011284 -0.0015084 -0.0095588 -0.0012807 0.0002874 -0.023593 -0.0076054
-0.28272 0.031571 -0.0059943 -0.0073474
0.0062842 -0.0072944 -0.00082047 -0.0023367 -0.0026098 -0.0092981 -0.0097419 -0.011958
-0.006094 -0.0074289 -0.26371 0.07684
740000000 -0.19678 0.16902 -0.040365 0.027 0.014157 -0.004313 0.00026395 -0.0045463
-0.0047006 -0.0025091 -0.006181 0.0021876
-0.040469 0.026867 -0.33652 0.15794 -0.037737 0.034788 0.00035917 -0.0059671
-0.013591 0.0066035 -0.0010125 -0.0059991
0.014233 -0.0042218 -0.037676 0.035075 -0.074466 0.27224 -0.0023367 0.0031759
-0.0015474 -0.005737 -0.0017037 0.00069649
0.00031445 -0.0041441 0.00055709 -0.0062079 -0.0022842 0.0032692 -0.20476 0.1999
-0.042767 -0.010091 0.023103 0.016798
-0.005051 -0.0027158 -0.013214 0.0067151 -0.0014726 -0.0057547 -0.042557 -0.010095
-0.18103 0.063657 -0.043028 -0.00069979
-0.0064585 0.0025331 -0.0010247 -0.0060688 -0.001835 0.00071517 0.023098 0.016597
-0.042962 -0.00061823 -0.25319 0.084962
800000000 -0.16618 0.2145 -0.022391 0.01581 0.0060026 -0.010546 -0.0044426 -0.0025015
-0.0044538 0.0014958 0.004456 0.00072964
-0.022376 0.015678 -0.34491 0.22928 -0.0092685 0.034045 -0.002199 0.0020168
-0.0010323 0.0022934 0.00092831 0.0055965
0.0060691 -0.010516 -0.0091508 0.034149 -0.036079 0.29786 0.00079273 0.0014165
-9.6274e-06 0.0033191 -0.0016626 0.00092812
-0.0044783 -0.0026559 -0.0021932 0.0018809 0.00082546 0.0012978 -0.17542 0.2277
-0.028458 0.012658 0.014577 -0.010148
-0.0046294 0.0015336 -0.0010327 0.0022901 -9.9475e-05 0.0034318 -0.028344 0.012897
-0.22884 0.088749 -0.017184 0.020398
0.0042681 0.00018419 0.00097647 0.0053808 -0.0017205 0.00069895 0.014479 -0.010185
-0.017131 0.020393 -0.24772 0.13589
860000000 -0.13206 0.23452 -0.01843 0.030074 -0.0028228 -0.010453 -0.0019849 0.00018169
0.0036236 0.0050571 -0.0039989 -0.0032215
-0.018418 0.030028 -0.29808 0.27348 0.0067657 0.034751 -0.00012439 0.0021222
0.003041 0.00082559 0.0031616 0.00044996
-0.0028378 -0.010453 0.0068487 0.03479 0.010916 0.3075 -0.00057951 -0.00025876
0.0022481 -0.0016145 0.0015549 0.0039818
-0.0018089 0.00012525 2.551e-05 0.0021135 -0.00057329 -0.0002454 -0.13913 0.23852
-0.017954 0.017353 -0.0066367 -0.0089338
0.0036336 0.0052189 0.0029889 0.00082057 0.0022304 -0.0016541 -0.017953 0.017367
-0.17225 0.14351 -0.025643 0.0166
-0.0034958 -0.0030892 0.0031863 0.00078564 0.0015575 0.0040838 -0.0068514 -0.0090283
-0.025568 0.016517 -0.19683 0.18086
920000000 -0.10967 0.25814 0.0041563 0.038807 -0.0093797 -0.005343 -0.002149 0.0016275
0.00065766 0.0018342 0.0031168 -0.0010551
0.0041632 0.038689 -0.27127 0.29539 0.027913 0.023433 0.0013209 0.00088908
0.007608 0.00028148 0.0043189 -0.0031146
-0.0094322 -0.005307 0.027972 0.023407 0.056478 0.31014 0.0019434 -3.8681e-05
0.00071012 -7.1487e-05 0.00093803 -0.0017143
-0.0022764 0.0016623 0.0012082 0.0010816 0.0019153 -5.2717e-05 -0.1149 0.25564
-0.012015 0.030578 0.004443 -0.0069072
0.00056945 0.0019557 0.0077412 -1.1181e-05 0.00069867 -5.1026e-05 -0.011962 0.030538
-0.16408 0.14917 -0.0019985 0.027893
0.0028424 -0.0012695 0.0040631 -0.0030412 0.00087354 -0.0016852 0.0044292 -0.006914
-0.0020623 0.027863 -0.20563 0.19476
980000000 -0.063925 0.2793 0.015739 0.030721 -0.0098883 0.0042864 0.0014141 0.003817
0.003994 -0.0010451 -0.0031851 -0.0026914
0.015779 0.030657 -0.21961 0.33195 0.03327 0.0061364 0.001999 3.2434e-05
0.0019213 -0.0059702 -0.00022843 -0.002857
-0.0098277 0.0043087 0.033371 0.0060171 0.10256 0.30499 0.00066804 -0.0011068
0.00051306 -0.0016736 0.0012702 -0.00039207
0.0014045 0.0037778 0.0019985 -1.3117e-06 0.0006596 -0.0011229 -0.077657 0.26631
0.0068284 0.029643 -0.0098314 -0.0076973
0.0040065 -0.00122 0.0017094 -0.0058683 0.00051274 -0.0016627 0.0068485 0.02967
-0.13069 0.18244 0.005873 0.019582
-0.0034221 -0.0025867 -0.00024883 -0.0028177 0.0012212 -0.00031651 -0.0098049 -0.0077825
0.0058088 0.019536 -0.1647 0.2412
1040000000 -0.023663 0.28938 0.032819 0.020221 -0.0016806 0.0073234 0.0024984 0.00097264
0.00054835 -0.0035105 -4.5817e-05 -0.0014862
0.032797 0.020228 -0.18519 0.34648 0.030413 -0.013969 0.0016599 -0.0016186
-0.0022868 -0.002568 -0.0012557 -0.0028505
-0.0016836 0.0073562 0.030425 -0.014102 0.14857 0.29333 -0.00041716 -0.0015702
-0.0015903 -0.0008942 -0.00063574 -0.00098533
0.0024882 0.00096989 0.0016443 -0.0016492 -0.0004228 -0.0015812 -0.050909 0.27689
0.018718 0.019249 -0.002188 0.0010116
0.00032728 -0.0034791 -0.0022134 -0.0025524 -0.0016241 -0.00090493 0.018821 0.019302
-0.099027 0.19045 0.014425 0.01948
-0.00029393 -0.0016416 -0.0012139 -0.002973 -0.0006436 -0.00097521 -0.0022022 0.0010011
0.014616 0.019469 -0.14323 0.26292
1100000000 0.020926 0.29948 0.036769 -0.0025102 0.0030367 0.0043326 0.0024252 -0.00091191
-0.0021108 -0.0031977 -0.0042007 -0.00034756
0.036721 -0.0025054 -0.1417 0.36592 0.016398 -0.027875 -3.5785e-06 -0.0018752
-0.0037224 -0.0012638 -0.0037874 -0.0005967
0.0030243 0.0043227 0.016285 -0.027991 0.19539 0.27453 -0.001921 0.00016054
-0.0018181 0.00064003 -0.0011842 -0.00039484
0.0024587 -0.00086634 4.7183e-05 -0.0018685 -0.0019246 0.00017577 -0.010963 0.28225
0.024678 0.0061708 -0.0026954 -0.00038553
-0.0021183 -0.0031242 -0.0037004 -0.0010946 -0.0017711 0.00062611 0.024688 0.0061206
-0.079576 0.2041 0.019849 0.0094063
-0.0042128 -0.00022608 -0.0037182 -0.00073829 -0.0011746 -0.00034492 -0.0026895 -0.00029262
0.019812 0.0094548 -0.097446 0.29374
1160000000 0.071541 0.29673 0.025341 -0.019993 0.003115 -0.00040319 2.7409e-05 -0.0024098
-0.0041643 -0.00092727 -0.0013204 0.0043255
0.025379 -0.019972 -0.098954 0.37155 -0.0030431 -0.029589 -0.0016228 -0.0018248
-0.0028918 0.0026433 -0.0017872 0.0018431
0.003116 -0.00043316 -0.0031657 -0.029633 0.23879 0.24495 -0.00084974 0.0017889
-0.00047661 0.001926 -0.0010353 0.00036248
-6.2435e-05 -0.002387 -0.0016236 -0.0017501 -0.00084089 0.0018039 0.027381 0.28028
0.021471 -0.010108 -0.0038365 0.0052444
-0.0041401 -0.00095891 -0.0028632 0.0026077 -0.0005016 0.0019085 0.021516 -0.010145
-0.045706 0.21377 0.018998 4.0612e-05
-0.0011969 0.0042329 -0.0016217 0.0020111 -0.0010115 0.00033642 -0.0037959 0.0051737
0.01903 0.00010262 -0.050888 0.29807
1220000000 0.11518 0.28903 0.012144 -0.030204 -0.0013244 -0.0011276 0.00024446 -0.0009096
-0.0028892 0.0022921 0.0012179 0.0022684
0.012156 -0.030186 -0.054499 0.38669 -0.016842 -0.021998 -0.0026209 0.00045217
-2.9801e-06 0.0032696 -0.00074445 0.002038
-0.0013228 -0.001112 -0.016971 -0.021936 0.27864 0.20704 0.00085822 0.0017542
0.00073132 0.0012158 0.00030653 0.00054955
0.0002681 -0.00097249 -0.0025896 0.00045048 0.00086738 0.0017695 0.067212 0.27352
0.011014 -0.016767 0.0017856 0.0017151
-0.0028741 0.0023175 2.2562e-05 0.0033368 0.00076479 0.0012173 0.010955 -0.016776
-0.023929 0.22446 0.01489 -0.012992
0.0011247 0.0022575 -0.00080618 0.0020072 0.00032413 0.00055145 0.0018421 0.0017228
0.014863 -0.012955 -0.02064 0.31586
1280000000 0.16596 0.2697 -0.0069858 -0.029433 -0.0018945 0.0022804 -0.00083817 -0.0022395
-0.00087063 0.0033372 0.0027405 0.0014645
-0.0069164 -0.029438 -0.0077672 0.37915 -0.024352 -0.0087637 -0.00095506 0.0014959
0.0018631 0.0019086 0.00077735 0.0021648
-0.0019313 0.0022819 -0.02443 -0.0086965 0.30983 0.16375 0.0016331 -3.5485e-05
0.0011379 0.00018752 0.0004457 0.00025521
-0.00089189 -0.0023221 -0.0010507 0.0015049 0.0016222 -4.7962e-05 0.1042 0.25804
0.0014073 -0.0193 -0.00028995 0.00040306
-0.00085343 0.0033699 0.0018488 0.0018414 0.001164 0.00020104 0.0013406 -0.019282
0.012337 0.22896 0.0037308 -0.015946
0.0027021 0.0014572 0.00079139 0.0021829 0.0004206 0.00025904 -0.00025539 0.00039631
0.0037671 -0.015967 0.027405 0.31888
1340000000 0.20359 0.23886 -0.017195 -0.019935 0.00062591 0.0045541 -0.0020281 -0.0010069
0.0014886 0.0028194 0.0019884 -0.0015017
-0.017154 -0.019914 0.03178 0.37273 -0.021864 0.0043824 -0.00015154 0.0021176
0.0020876 0.0007507 0.0011989 0.00084618
0.00066152 0.0045567 -0.021855 0.0045263 0.33231 0.11707 0.001025 -0.00097814
0.00054146 -0.00054405 -2.9671e-05 0.0001648
-0.0020144 -0.00097391 -0.00016637 0.0020863 0.0010228 -0.0010153 0.13793 0.23891
-0.0082985 -0.016553 0.0010859 0.00071426
0.0015288 0.0027845 0.0021095 0.00071123 0.00055152 -0.0005459 -0.0083287 -0.016581
0.041607 0.22664 -0.0036153 -0.014471
0.0020008 -0.0015031 0.0012497 0.00084473 -2.9481e-05 0.00017815 0.0010654 0.00072305
-0.0036041 -0.014466 0.065412 0.31535
1400000000 0.23903 0.20277 -0.023679 -0.0083136 0.0052609 0.0033508 -0.0023529 0.00069555
0.0027484 0.0011092 0.00047474 -0.0017191
-0.023669 -0.0083151 0.070879 0.3608 -0.014967 0.012841 0.0013761 0.0013736
0.001281 -0.00085508 0.0011941 0.00011367
0.0052499 0.0033703 -0.014935 0.01291 0.34635 0.064104 -4.7512e-05 -0.0016345
9.4411e-05 -0.00032547 0.00041578 0.00027486
-0.0023758 0.00069946 0.0013799 0.0013873 -3.7408e-05 -0.0016179 0.16853 0.21054
-0.014563 -0.0098893 -0.00089721 -3.0979e-05
0.0027312 0.0010958 0.0013291 -0.00085007 8.8322e-05 -0.00032951 -0.014568 -0.0098829
0.075248 0.22454 -0.010547 -0.0096298
0.00042116 -0.0016867 0.0012168 0.00011612 0.00042308 0.00027029 -0.00090203 -2.5755e-05
-0.010529 -0.0096407 0.11024 0.30574
1460000000 0.26322 0.15996 -0.020827 0.0044218 0.0057333 -0.0017355 -0.0016015 0.0018939
0.0023384 -0.0003231 -0.00024276 -0.0010896
-0.020795 0.0044008 0.10565 0.33923 -0.0056055 0.015872 0.0017374 0.00021447
0.00092938 -0.0013866 0.0011874 -0.00051829
0.0057489 -0.0017623 -0.0055141 0.015923 0.35318 0.010176 -0.0012537 -0.0011762
0.00017703 -0.00011745 0.00070113 -0.00025958
-0.0016092 0.0019354 0.0017481 0.0002061 -0.0012761 -0.0011804 0.19566 0.18167
-0.015646 -0.0029296 -0.0007977 0.0020319
0.0023211 -0.00036705 0.00089763 -0.0013988 0.00020805 -8.1631e-05 -0.015678 -0.00291
0.10449 0.2124 -0.012584 -0.0030915
-0.00021588 -0.0011483 0.0012228 -0.00054539 0.0006878 -0.00027016 -0.00079982 0.0020638
-0.012568 -0.0030721 0.14362 0.28554
1520000000 0.27772 0.11934 -0.015137 0.010099 0.0034957 -0.0043453 0.00022017 0.0027694
0.0023935 -0.0019627 -0.0011951 -0.00012074
-0.015136 0.010091 0.14005 0.32579 0.0023891 0.013029 0.0017163 -0.00070035
3.6751e-05 -0.00098449 0.00042193 -0.0010483
0.0034862 -0.0043686 0.0024563 0.013037 0.34705 -0.045155 -0.00095028 -0.00023707
0.00080895 -0.00091841 0.00015013 -0.00010656
0.00027915 0.0027647 0.001705 -0.00073643 -0.00093945 -0.00024568 0.22018 0.14379
-0.014968 0.0028343 0.0017034 0.0022913
0.0024058 -0.0019594 2.0564e-05 -0.00097681 0.00081513 -0.00091437 -0.014948 0.0028727
0.13356 0.20121 -0.012481 0.0019059
-0.0011587 -0.00015162 0.00039488 -0.0010447 0.00011699 -0.00011565 0.0016751 0.0022784
-0.012486 0.0018752 0.17716 0.26734
1580000000 0.28884 0.073057 -0.0083633 0.013497 -0.00096809 -0.0050934 0.0016154 0.0018314
-0.00022443 -0.0024044 -0.00034467 0.00045427
-0.0083588 0.013465 0.16822 0.30083 0.0060066 0.007612 0.00055034 -0.0015903
-0.00049055 -0.001062 -0.00017844 -0.00078771
-0.00095841 -0.0051044 0.0060291 0.0075975 0.32826 -0.10326 -0.0014881 0.00044865
-0.00033274 -0.0013989 0.00035251 -0.00058071
0.0016156 0.001832 0.00054269 -0.0015734 -0.0014889 0.00043173 0.23491 0.10397
-0.011193 0.0079324 0.0024257 0.00078559
-0.00028518 -0.0024098 -0.0005171 -0.0010467 -0.0003169 -0.0014163 -0.011193 0.0079515
0.15915 0.18501 -0.0097348 0.0079665
-0.00031668 0.00049925 -0.00017768 -0.00080065 0.00030795 -0.00059942 0.0024639 0.00079739
-0.0097064 0.0079989 0.21014 0.24124
1640000000 0.29204 0.032054 -0.0014433 0.012261 -0.0030777 -0.002765 0.0028824 0.0009963
-0.00080922 -0.0017452 -0.00032234 0.00058314
-0.0014398 0.012252 0.19765 0.27697 0.0060923 0.0023895 -0.00049138 -0.0018643
-0.00083948 -0.00049956 -0.00047472 -0.00074741
-0.0031182 -0.0027379 0.0061104 0.0023675 0.29974 -0.15191 -0.00065268 0.0013111
-0.0011322 -0.0010731 -0.00016621 -0.00048058
0.0028884 0.00096747 -0.00050144 -0.0019018 -0.0006366 0.0012693 0.24784 0.05501
-0.0068184 0.0089666 0.0026871 -0.00081941
-0.00079084 -0.0017602 -0.00088164 -0.00050621 -0.0011275 -0.0011085 -0.0068161 0.0089902
0.18312 0.16313 -0.0045973 0.01021
-0.00029834 0.00058302 -0.00049274 -0.00072538 -0.00017603 -0.00039246 0.0026709 -0.00083736
-0.0046063 0.010186 0.23616 0.21162
1700000000 0.28678 -0.013308 0.0019684 0.0093977 -0.003917 0.00015327 0.003147 -0.0013225
-0.0021641 -0.00068145 0.00064769 0.00043542
0.0019872 0.0093822 0.21694 0.24562 0.0033991 -0.00068881 -0.0015146 -0.00077432
-0.0008025 -0.0002161 -0.00091044 -0.0004495
-0.0038963 0.00014551 0.003429 -0.00070271 0.25771 -0.19211 0.00018905 0.0015054
-0.0021495 -0.00017621 -0.00043287 -0.00077434
0.0031103 -0.0013381 -0.0015015 -0.00074539 0.00020147 0.0014702 0.24552 0.0045356
-0.0038849 0.0092395 0.0018232 -0.0022603
-0.0022396 -0.0006393 -0.00079442 -0.00016445 -0.0021284 -0.00019002 -0.0038904 0.0092166
0.20278 0.14409 0.00033807 0.010255
0.00068737 0.00043126 -0.00089162 -0.00049724 -0.00044673 -0.00081371 0.0017524 -0.0022511
0.00032559 0.010284 0.25426 0.17831
1760000000 0.2754 -0.062308 0.0042767 0.00603 -0.0024705 0.0013198 0.0013142 -0.0035385
-0.0013182 0.00068162 0.00029928 -0.00054014
0.004262 0.006019 0.24291 0.20616 0.00055026 -0.0022521 -0.0013336 9.5163e-06
-0.0011668 0.00079396 -0.00068423 0.0003805
-0.002449 0.0012861 0.00052589 -0.0022544 0.20945 -0.22553 0.00096015 0.001097
-0.0012548 0.0014443 -0.0013614 -0.00054381
0.0013568 -0.0035967 -0.0013459 2.186e-05 0.00097926 0.0011271 0.23644 -0.047736
-0.00064427 0.0081129 -0.00021206 -0.0027309
-0.0013169 0.00068481 -0.0011664 0.00078625 -0.0012319 0.0014726 -0.00062141 0.0081393
0.21884 0.11049 0.0045905 0.0076048
0.00031243 -0.00056029 -0.00066006 0.00038981 -0.001315 -0.0005125 -0.00019843 -0.0027741
0.0046249 0.0075845 0.26791 0.1409
1820000000 0.25249 -0.099562 0.0042906 0.0024958 0.00010271 0.0027129 -0.0010704 -0.0031782
-0.0012069 0.00097436 -0.00020041 -0.00018179
0.0042963 0.0024987 0.25414 0.17687 -0.0019216 -0.00038686 -0.001564 0.00092746
-0.00025487 0.0012 -0.00071981 0.00048772
9.5108e-05 0.0027135 -0.001899 -0.00042088 0.15902 -0.2409 0.0015924 0.00060462
-0.00019182 0.0024961 -0.0016302 0.00042692
-0.0010805 -0.0031811 -0.0016042 0.00094838 0.0016254 0.00055808 0.20684 -0.095064
0.00062823 0.0067366 -0.0017475 -0.0019121
-0.0011836 0.00093864 -0.00019973 0.0011949 -0.00011429 0.0024582 0.0006134 0.006685
0.23814 0.082784 0.0056831 0.0036704
-0.00019071 -0.00013039 -0.00069028 0.00046058 -0.0017103 0.00042053 -0.0017022 -0.0019245
0.0056602 0.0036767 0.27155 0.1057
1880000000 0.21818 -0.14108 0.0018568 0.00035326 -0.00050998 0.0025642 -0.0030754 -0.0022846
-0.00030443 0.0017253 9.7075e-05 -0.00051528
0.0018974 0.00037631 0.25878 0.13017 -0.0041295 0.00228 -0.00031722 0.0018694
0.00040815 0.0014752 7.4261e-05 0.0010531
-0.00046466 0.0025507 -0.0040887 0.0023168 0.10678 -0.25023 0.0020374 -0.00092847
0.0016061 0.0019681 -0.00088671 0.001541
-0.003069 -0.002275 -0.0002808 0.0019192 0.0020175 -0.00091213 0.16597 -0.13598
0.0012214 0.0045568 -0.0026636 9.9698e-05
-0.00030006 0.0017611 0.00044386 0.0014738 0.0016294 0.0019485 0.0012224 0.0045597
0.24351 0.051448 0.0059136 0.0011657
0.00011039 -0.00070666 7.1204e-05 0.0010543 -0.00083535 0.0016126 -0.0026745 8.7372e-05
0.0059216 0.0011746 0.27274 0.071267
1940000000 0.17926 -0.16685 -0.00021821 -0.0010616 0.0017776 0.0022916 -0.0038499 0.0003837
0.001168 0.00098047 -0.00066882 -0.00038181
-0.00027529 -0.001028 0.25998 0.099294 -0.0022245 0.0054534 0.0011813 0.0015154
0.0020078 0.0006661 0.00089935 0.0003748
0.0017672 0.002323 -0.0022212 0.0054713 0.062313 -0.24228 0.00072359 -0.0022792
0.0024278 0.00041435 0.00031064 0.0014937
-0.0038771 0.00037467 0.0011655 0.0014964 0.00072205 -0.0022832 0.11339 -0.16629
0.00012051 0.003334 -0.0017967 0.0013622
0.001209 0.00091114 0.0020173 0.00067327 0.0024133 0.00042597 0.00012029 0.0032959
0.24785 0.014086 0.0045503 -0.0028721
-0.00066642 -0.00027267 0.00089696 0.00034287 0.00028819 0.0014533 -0.0017558 0.0013687
0.0045527 -0.0028619 0.26244 0.035428
2000000000 0.13423 -0.18253 -0.0038568 0.0011371 0.0030205 0.0015487 -0.0024494 0.0037846
0.0010138 0.00048063 -0.00062815 0.00041178
-0.0038162 0.0011093 0.24692 0.064145 -0.0010412 0.0077977 0.0017548 0.00035323
0.0014736 -0.0011212 0.0005603 -1.4029e-05
0.0030848 0.0014639 -0.00098736 0.0078122 0.019982 -0.22869 -0.0015111 -0.0016886
0.0020103 -0.0011652 0.0015507 0.001395
-0.0023877 0.0039036 0.0018165 0.00035311 -0.001489 -0.0017241 0.060259 -0.17641
-0.0013713 0.0034387 -0.00042385 0.0023855
0.0010123 0.00053637 0.0014888 -0.0011433 0.0020119 -0.0011532 -0.0013935 0.0034796
