!Keysight Technologies,M9804A,MY58100912,A.14.10.03
!Date: Thursday, April 27, 2023 10:28:33
!Correction: S11(C  6-Port  ) 
!S12(C  6-Port  ) 
!S13(C  6-Port  ) 
!S14(C  6-Port  ) 
!S15(C  6-Port  ) 
!S16(C  6-Port  ) 
!S21(C  6-Port  ) 
!S22(C  6-Port  ) 
!S23(C  6-Port  ) 
!S24(C  6-Port  ) 
!S25(C  6-Port  ) 
!S26(C  6-Port  ) 
!S31(C  6-Port  ) 
!S32(C  6-Port  ) 
!S33(C  6-Port  ) 
!S34(C  6-Port  ) 
!S35(C  6-Port  ) 
!S36(C  6-Port  ) 
!S41(C  6-Port  ) 
!S42(C  6-Port  ) 
!S43(C  6-Port  ) 
!S44(C  6-Port  ) 
!S45(C  6-Port  ) 
!S46(C  6-Port  ) 
!S51(C  6-Port  ) 
!S52(C  6-Port  ) 
!S53(C  6-Port  ) 
!S54(C  6-Port  ) 
!S55(C  6-Port  ) 
!S56(C  6-Port  ) 
!S61(C  6-Port  ) 
!S62(C  6-Port  ) 
!S63(C  6-Port  ) 
!S64(C  6-Port  ) 
!S65(C  6-Port  ) 
!S66(C  6-Port  ) 
!S6P File: Measurement: :
# Hz S  RI   R 50
500000000 -0.33085 -0.066658 -0.010151 -0.00078384 -0.0088752 0.013238 -0.004235 0.011866
0.012722 0.0055148 -0.0039798 0.0077163
-0.010213 -0.00087717 -0.41165 -0.076055 0.0082633 -0.010201 0.00096126 0.012483
0.0082128 0.0028588 0.0012356 0.014136
-0.0088956 0.013407 0.0081599 -0.010288 -0.26523 0.19013 0.0067768 0.0034452
-0.0023846 0.0092763 0.0004613 0.011894
-0.0042179 0.01182 0.00095875 0.012519 0.0067926 0.0035528 -0.33005 0.037404
-0.0202 -0.0041527 0.016378 0.026794
0.012919 0.0054632 0.0083385 0.0024904 -0.0023693 0.0091115 -0.020207 -0.0045437
-0.23158 -0.21903 -0.02733 0.0055178
-0.0042615 0.0074218 0.00095144 0.013904 0.00010576 0.011966 0.016614 0.027021
-0.027759 0.0056882 -0.26435 -0.14301
560000000 -0.3212 0.10162 -0.021098 -0.066965 -0.0001969 0.014275 0.0048043 0.012154
0.010836 0.0049948 0.0099476 0.0093882
-0.021064 -0.067009 -0.37317 0.091361 -0.041295 -0.039154 0.01411 0.0038068
-0.013026 -0.0042604 0.0035676 -0.0008696
-0.000121 0.014349 -0.041523 -0.03925 -0.18689 0.24299 -0.00027637 -0.0052482
0.018814 0.0074913 0.0076053 -0.0061745
0.0048408 0.012233 0.014161 0.0038333 -0.00012257 -0.0051019 -0.30735 0.13016
0.0057229 -0.023091 0.00518 -0.02128
0.010677 0.0048686 -0.013233 -0.0039966 0.018671 0.0068982 0.005602 -0.022996
-0.30987 -0.034071 0.010038 -0.051704
0.01017 0.009505 0.0039764 -0.0011608 0.0077419 -0.0058251 0.0049717 -0.021718
0.010618 -0.052043 -0.33245 0.0085798
620000000 -0.27892 0.080835 -0.02342 0.0093727 0.0038013 0.0094006 0.0083767 -0.0039125
0.012737 -0.0018758 2.0546e-05 -0.0017741
-0.023409 0.0093922 -0.40228 0.036837 -0.018248 0.00050854 -0.0016009 -0.001907
0.013274 -0.0055008 0.00098514 -0.0032267
0.0040456 0.0091954 -0.018315 0.00052218 -0.1579 0.25236 -0.00058928 -0.0050346
-0.0026247 -0.0030397 0.0096975 -0.0032213
0.0083801 -0.0038921 -0.0017853 -0.0018866 -0.00059485 -0.0051487 -0.2643 0.14009
-0.039937 -0.019614 0.014433 0.028828
0.012247 -0.0018125 0.013306 -0.0056243 -0.0029272 -0.0028396 -0.039814 -0.019226
-0.22419 -0.07583 -0.044286 0.012975
-8.633e-05 -0.0016543 0.00079516 -0.0030733 0.0096989 -0.0031106 0.014276 0.028729
-0.043807 0.012652 -0.24629 -0.028785
680000000 -0.24467 0.17548 -0.025985 -0.014807 0.0051092 0.0055524 0.0017156 -0.0072589
-0.0014902 -0.011478 0.0065843 -0.0077836
-0.025961 -0.014877 -0.39151 0.13911 -0.032143 -0.0028722 -0.0013435 -0.00018178
-0.0013915 -0.0097565 -0.00067797 -0.0021147
0.0051804 0.0055979 -0.032269 -0.0027571 -0.1077 0.27442 -0.00074498 -0.00021294
-0.0013759 0.00020427 -0.0025459 -0.0092183
0.001765 -0.007251 -0.0014785 -0.00026203 -0.00066198 -0.00027313 -0.22145 0.1922
-0.023555 -0.0072719 -0.010117 -0.011374
-0.0012808 -0.011342 -0.0015485 -0.0096412 -0.0014054 0.00030748 -0.023534 -0.007425
-0.28194 0.031676 -0.0055544 -0.0078597
0.0067237 -0.0077771 -0.00074508 -0.0022029 -0.0025466 -0.0093697 -0.010015 -0.011569
-0.005767 -0.0080283 -0.26414 0.076994
740000000 -0.19707 0.169 -0.040422 0.027031 0.014189 -0.004145 0.00028328 -0.0041505
-0.0048254 -0.0026867 -0.0064659 0.0023753
-0.040617 0.026965 -0.33643 0.15841 -0.037673 0.034795 0.00053739 -0.0063598
-0.013352 0.0067776 -0.00076494 -0.0063923
0.0141 -0.004384 -0.037868 0.034989 -0.074389 0.27243 -0.0021738 0.0034489
-0.0016567 -0.0060454 -0.0016265 0.0010798
0.00027664 -0.0041947 0.00037904 -0.0059273 -0.0021439 0.0035068 -0.20429 0.19989
-0.042581 -0.0098888 0.023618 0.016431
-0.0047827 -0.0027 -0.01313 0.0064774 -0.001657 -0.0058755 -0.042675 -0.0095547
-0.18089 0.063908 -0.043235 -0.00020951
-0.0064302 0.0025415 -0.0013384 -0.0056542 -0.0018474 0.00092165 0.023665 0.016512
-0.042809 -0.00078702 -0.25222 0.084421
800000000 -0.16592 0.2147 -0.022323 0.015765 0.0061262 -0.010528 -0.0045266 -0.0025591
-0.0047314 0.0015689 0.003946 0.00031898
-0.022229 0.015802 -0.34492 0.22932 -0.0092154 0.034068 -0.0022381 0.0018736
-0.0010867 0.0023375 0.00070572 0.0054287
0.0061807 -0.010523 -0.0091612 0.034095 -0.03598 0.29793 0.00084084 0.0013872
-0.00011847 0.0032531 -0.0016758 0.00075016
-0.0045347 -0.0025588 -0.0021356 0.0018164 0.00084046 0.0012474 -0.17529 0.22775
-0.028341 0.012642 0.014462 -0.010179
-0.0045921 0.0014904 -0.0010964 0.0023403 -0.00018118 0.0033601 -0.028587 0.012783
-0.22898 0.08891 -0.017721 0.020271
0.0041278 0.00033377 0.0008756 0.0052058 -0.0017151 0.0004971 0.014563 -0.010213
-0.01719 0.020288 -0.24795 0.13635
860000000 -0.13198 0.23441 -0.018398 0.030011 -0.0027437 -0.01043 -0.0018234 8.8276e-05
0.0037902 0.0049615 -0.0038121 -0.0032068
-0.018416 0.029944 -0.29808 0.27351 0.0067665 0.034699 9.48e-05 0.0021035
0.0030425 0.00079153 0.0032996 0.00074693
-0.002856 -0.010432 0.0068785 0.034708 0.011028 0.30758 -0.00052056 -0.0002608
0.0023462 -0.0015732 0.0014545 0.004096
-0.0018603 0.00011462 0.0001442 0.0022051 -0.00049633 -0.00023973 -0.13895 0.23853
-0.018058 0.017549 -0.0061989 -0.0093239
0.0035869 0.0049629 0.002966 0.00073923 0.0023369 -0.0016029 -0.01811 0.017355
-0.17218 0.14347 -0.025452 0.016488
-0.0037139 -0.0030138 0.0034012 0.00048179 0.0016287 0.0042204 -0.0064147 -0.0092647
-0.025663 0.016784 -0.19655 0.18042
920000000 -0.10958 0.25812 0.0040989 0.03878 -0.0093884 -0.0052202 -0.0021851 0.0015872
0.00065965 0.0020946 0.0030966 -0.0010369
0.0041641 0.038686 -0.27132 0.29548 0.027919 0.023424 0.0012578 0.0012129
0.0076315 0.00017719 0.0039438 -0.0028904
-0.009397 -0.0052715 0.027985 0.023346 0.056589 0.31018 0.0018373 -5.2139e-05
0.00073323 -4.5073e-05 0.00078893 -0.0016777
-0.0021638 0.0015839 0.0012634 0.0010824 0.001818 -9.4767e-06 -0.115 0.25581
-0.012073 0.030506 0.0042077 -0.0069098
0.00062009 0.0020083 0.0077253 -5.0157e-05 0.00073393 -0.00011158 -0.011933 0.030551
-0.16396 0.1491 -0.0019337 0.027731
0.003032 -0.0012199 0.0042017 -0.003102 0.00072547 -0.0017417 0.0042458 -0.0069622
-0.0019954 0.027665 -0.20612 0.195
980000000 -0.063766 0.27946 0.015797 0.030756 -0.0098608 0.0042901 0.0014347 0.0039254
0.003933 -0.001221 -0.0033207 -0.002541
0.015738 0.030588 -0.21948 0.33204 0.033308 0.0060846 0.0019591 -3.8584e-06
0.001845 -0.0059532 -9.9587e-05 -0.0027211
-0.0098404 0.004327 0.033368 0.0060126 0.10269 0.30505 0.00071076 -0.0010918
0.00051036 -0.0017081 0.0012914 -0.00038127
0.0014521 0.003927 0.0019969 -1.9386e-05 0.0006805 -0.00113 -0.07758 0.2665
0.0068587 0.029595 -0.0096658 -0.0076578
0.0039284 -0.001164 0.0018129 -0.0059175 0.00049714 -0.0017037 0.0068807 0.02963
-0.13085 0.18216 0.0055614 0.020022
-0.0033525 -0.0024584 -0.00030896 -0.0028535 0.0012655 -0.00035586 -0.0097447 -0.0076934
0.0056741 0.019662 -0.16383 0.2413
1040000000 -0.023531 0.28942 0.032821 0.020234 -0.0016984 0.00737 0.0024842 0.00099113
0.00045696 -0.0033934 -0.00011058 -0.0015241
0.032813 0.020209 -0.18514 0.34655 0.030441 -0.013992 0.0016152 -0.0016408
-0.002291 -0.0024347 -0.0012149 -0.002924
-0.0016731 0.0073653 0.030421 -0.014122 0.14867 0.29335 -0.00044571 -0.0015998
-0.0016278 -0.00086723 -0.00063236 -0.0010709
0.0024779 0.00097468 0.0016457 -0.0016626 -0.00045776 -0.0016067 -0.050837 0.27687
0.018806 0.019213 -0.0023471 0.0010985
0.0004704 -0.0033542 -0.0022306 -0.0024399 -0.0014562 -0.00089858 0.018706 0.019129
-0.098908 0.19074 0.013816 0.019087
-0.00016028 -0.0015552 -0.001231 -0.0029711 -0.00065383 -0.0010788 -0.0023038 0.0010543
0.014195 0.019241 -0.1435 0.26354
1100000000 0.0211 0.2995 0.036795 -0.0025315 0.0029795 0.0043389 0.0024618 -0.00085446
-0.0021441 -0.0032075 -0.0042376 -0.00027473
0.036729 -0.0025732 -0.14162 0.36594 0.01634 -0.027893 2.3212e-05 -0.0018928
-0.0037404 -0.0012126 -0.0037254 -0.00065477
0.0030214 0.004348 0.016273 -0.027993 0.19553 0.27452 -0.0019175 0.00019055
-0.0017816 0.00059049 -0.0011529 -0.00036297
0.0024695 -0.00085656 4.241e-05 -0.0018752 -0.0019183 0.00018259 -0.010917 0.28233
0.02474 0.0062032 -0.0028222 -0.0003197
-0.0021573 -0.0031949 -0.0037391 -0.0011751 -0.0018405 0.00061371 0.024741 0.0061129
-0.079663 0.2042 0.02009 0.0091639
-0.0042119 -0.00027245 -0.0037276 -0.0007317 -0.0011476 -0.00033122 -0.0027539 -0.00033621
0.02005 0.0093538 -0.09788 0.29359
1160000000 0.071619 0.29682 0.025332 -0.019985 0.0031252 -0.00040926 -9.2151e-05 -0.0023418
-0.0041756 -0.00098809 -0.0012814 0.0043109
0.025329 -0.020011 -0.098832 0.37167 -0.0030462 -0.02957 -0.0015984 -0.001768
-0.0028565 0.0026017 -0.0017464 0.0019907
0.0031346 -0.00043591 -0.0031913 -0.029613 0.23893 0.24492 -0.00077551 0.0017839
-0.00053344 0.0019168 -0.00099968 0.00045773
-0.00011159 -0.002363 -0.0016256 -0.0017164 -0.00075444 0.0017974 0.027546 0.28021
0.021378 -0.010153 -0.0036558 0.0051019
-0.0041408 -0.00097925 -0.0029086 0.0026766 -0.00050092 0.0019364 0.021406 -0.010172
-0.045874 0.21335 0.019144 0.00019496
-0.0011654 0.004264 -0.0016008 0.0019811 -0.00098725 0.00043477 -0.003661 0.0051801
0.019154 0.000214 -0.051196 0.29764
1220000000 0.11536 0.28898 0.012154 -0.030236 -0.001329 -0.0011544 0.00028692 -0.00099216
-0.0029208 0.0023213 0.001172 0.0022049
0.012138 -0.030208 -0.054374 0.38672 -0.016845 -0.021958 -0.0026329 0.00045023
-6.5952e-06 0.003301 -0.0008387 0.0019869
-0.0013142 -0.0011148 -0.016966 -0.021922 0.2788 0.20705 0.00086507 0.0017679
0.00072775 0.0012324 0.0002572 0.00058411
0.00029073 -0.0009988 -0.0026101 0.00044544 0.0008479 0.0017454 0.067306 0.27349
0.011005 -0.016843 0.0018534 0.001811
-0.0029244 0.0023426 4.1715e-05 0.0033002 0.00074889 0.00119 0.010975 -0.016864
-0.023821 0.2244 0.014799 -0.013002
0.0011721 0.0022572 -0.00081717 0.0020268 0.00024791 0.00059815 0.001803 0.0017716
0.014888 -0.01293 -0.020633 0.31585
1280000000 0.16612 0.26968 -0.0069622 -0.029415 -0.001918 0.0022902 -0.00086914 -0.0023004
-0.00085146 0.0033503 0.0026813 0.001454
-0.0069338 -0.02941 -0.0076081 0.37917 -0.024352 -0.0087656 -0.0010222 0.0015002
0.0018739 0.0019095 0.00072636 0.0020792
-0.001948 0.0022984 -0.024427 -0.008676 0.30997 0.16367 0.0016682 -7.1045e-05
0.001165 0.00020664 0.00045724 0.00024782
-0.00087407 -0.0022967 -0.0010068 0.001537 0.0016577 -6.9107e-05 0.10435 0.25805
0.0014362 -0.019331 -0.00033269 0.00042379
-0.00085908 0.003342 0.0018926 0.0018623 0.0011702 0.00020256 0.0013609 -0.019371
0.012267 0.22901 0.0037399 -0.016057
0.0026719 0.0014262 0.00082064 0.0021906 0.00045588 0.00025469 -0.00037932 0.00038089
0.0037355 -0.016012 0.027482 0.31869
1340000000 0.20375 0.23878 -0.017199 -0.019932 0.00063311 0.0045635 -0.0019865 -0.0010219
0.0014958 0.0028823 0.0019611 -0.0015685
-0.017163 -0.019913 0.031954 0.37276 -0.021836 0.0043869 -0.00015738 0.0021082
0.0021032 0.00076485 0.0012307 0.00081996
0.00063394 0.0045587 -0.021852 0.0045113 0.3324 0.11701 0.0010297 -0.001008
0.00057816 -0.00052064 3.0884e-05 0.00013375
-0.0019923 -0.001012 -0.00017265 0.002095 0.0010201 -0.0010213 0.13803 0.23889
-0.0082964 -0.016581 0.0010015 0.00067379
0.0015492 0.00282 0.0021012 0.00072627 0.0005906 -0.00053569 -0.0083139 -0.016586
0.041596 0.22662 -0.003585 -0.014528
0.0019237 -0.0015377 0.0012446 0.00085947 6.2935e-05 0.00017518 0.0010307 0.00063892
-0.0036051 -0.014468 0.065276 0.31534
1400000000 0.23918 0.20269 -0.02369 -0.0083294 0.0052147 0.0033772 -0.002377 0.00070138
0.0027527 0.0011469 0.00046812 -0.001653
-0.023694 -0.0083183 0.071 0.36078 -0.01495 0.012826 0.001364 0.0013713
0.0013141 -0.0008415 0.0012213 0.00017758
0.0052163 0.0033212 -0.014904 0.012939 0.34643 0.063981 -3.9373e-05 -0.0016185
9.5326e-05 -0.00036025 0.00041817 0.00034777
-0.002384 0.00070332 0.0013794 0.0013861 -3.0106e-05 -0.0016126 0.16867 0.21051
-0.014557 -0.0098967 -0.00079456 -6.1935e-06
0.0027441 0.0011177 0.0013246 -0.00085694 7.0961e-05 -0.0003204 -0.014582 -0.0098707
0.075189 0.22441 -0.010552 -0.0096167
0.00044416 -0.0017179 0.0012191 0.00012255 0.00045399 0.00032437 -0.00084207 -1.8151e-06
-0.010518 -0.0095954 0.11052 0.30567
1460000000 0.26333 0.1598 -0.020831 0.0044381 0.0057699 -0.0017462 -0.0016102 0.0018915
0.0023236 -0.00034176 -0.0002819 -0.0011175
-0.020779 0.0043917 0.1058 0.33921 -0.0055968 0.015831 0.0017359 0.00020516
0.00091702 -0.0013736 0.001244 -0.00057279
0.0057575 -0.0017768 -0.0055112 0.015901 0.35322 0.0099836 -0.001281 -0.0011754
0.00017969 -7.7332e-05 0.00072515 -0.00024048
-0.0016092 0.0019074 0.0017364 0.00020135 -0.0012812 -0.0011419 0.19578 0.18163
-0.015661 -0.0029311 -0.00086496 0.0021066
0.002295 -0.00034898 0.00090019 -0.0013835 0.00021914 -7.6228e-05 -0.015707 -0.0028941
0.10454 0.21237 -0.012572 -0.0031731
-0.00027274 -0.0011312 0.0012055 -0.00058045 0.00065853 -0.00022718 -0.0008772 0.0020789
-0.012585 -0.0031205 0.14347 0.28575
1520000000 0.2778 0.11919 -0.015148 0.010113 0.0035096 -0.0043284 0.00023545 0.0027351
0.0024168 -0.0019614 -0.0011763 -0.00012927
-0.015139 0.010096 0.14016 0.32575 0.0023829 0.013024 0.0016964 -0.00070864
4.2878e-05 -0.00096711 0.00039313 -0.0010433
0.0034822 -0.0043609 0.0024526 0.013023 0.34713 -0.045297 -0.00095561 -0.00024092
0.00083414 -0.00094275 0.00011467 -0.00017142
0.00025015 0.0027345 0.0017089 -0.00073293 -0.00094711 -0.00024214 0.22019 0.1437
-0.014988 0.0028509 0.0016939 0.0022678
0.0024328 -0.002003 2.3251e-05 -0.00098238 0.00081504 -0.00090809 -0.015012 0.0028822
0.13349 0.20106 -0.012418 0.0019175
-0.0011759 -0.00011259 0.00038658 -0.0010361 9.7581e-05 -0.00016925 0.0017101 0.0022837
-0.012456 0.0019044 0.17732 0.26716
1580000000 0.28893 0.072888 -0.008355 0.013496 -0.00091275 -0.0051215 0.0016303 0.0018592
-0.00023202 -0.0024096 -0.00033889 0.00044074
-0.0083502 0.01349 0.16833 0.30078 0.0060069 0.0076171 0.00056657 -0.0015813
-0.00048068 -0.0010543 -0.00020956 -0.00076852
-0.00097242 -0.0051344 0.0060281 0.0075756 0.32825 -0.10338 -0.0014987 0.00044981
-0.00034122 -0.0014066 0.00033605 -0.00060249
0.0016493 0.0018368 0.00053901 -0.0015815 -0.001513 0.00043377 0.23502 0.1039
-0.011187 0.0079149 0.0025262 0.00076252
-0.00026898 -0.0024048 -0.0005038 -0.0010524 -0.00035052 -0.0013975 -0.01117 0.0079579
0.15915 0.185 -0.0096883 0.0080549
-0.00033546 0.00043458 -0.00018605 -0.00078036 0.00031444 -0.00064895 0.002498 0.00076765
-0.0097385 0.0080289 0.21016 0.24132
1640000000 0.29208 0.031856 -0.0014365 0.012285 -0.0031183 -0.0027467 0.0028642 0.00097564
-0.00082024 -0.0017757 -0.00029784 0.00053042
-0.0014549 0.012264 0.19778 0.27692 0.0060797 0.0023952 -0.00050175 -0.0018723
-0.00087722 -0.00049035 -0.00049424 -0.00076568
-0.0031303 -0.0027269 0.0061049 0.0023592 0.29969 -0.152 -0.00065532 0.0012888
-0.0010844 -0.0010859 -0.00022676 -0.00042846
0.0028653 0.00097103 -0.0005123 -0.0019084 -0.00063206 0.0012913 0.24786 0.054978
-0.0068194 0.0089542 0.0026365 -0.00084586
-0.00081137 -0.0017555 -0.00089033 -0.00049842 -0.0011667 -0.0011087 -0.0068312 0.0089755
0.1832 0.16299 -0.0046396 0.010109
-0.00023511 0.00055754 -0.00051263 -0.00071487 -0.00018797 -0.00037613 0.002649 -0.00082038
-0.0046478 0.010128 0.23618 0.21178
1700000000 0.28675 -0.013459 0.0019805 0.0093909 -0.0038706 0.00013722 0.0031398 -0.0013033
-0.0021622 -0.00067651 0.00069422 0.00031777
0.0019753 0.0093911 0.21705 0.24553 0.0034217 -0.00068492 -0.0015158 -0.00077638
-0.0008015 -0.00018837 -0.00086181 -0.00049221
-0.0038965 0.00014384 0.0034242 -0.00070955 0.25767 -0.19227 0.00016947 0.0015072
-0.0021778 -0.00015615 -0.00042675 -0.00079053
0.0031292 -0.0013348 -0.0015038 -0.00074483 0.00018887 0.0014425 0.24554 0.0044892
-0.0039425 0.0093137 0.0018323 -0.0022695
-0.0021934 -0.00066244 -0.00081442 -0.00014941 -0.0021261 -0.00015329 -0.0038846 0.0093193
0.20266 0.14416 0.000441 0.010285
0.00067305 0.00040386 -0.00090296 -0.00050221 -0.00049076 -0.00083098 0.0018112 -0.0023091
0.00043134 0.010332 0.25426 0.17806
1760000000 0.27544 -0.062495 0.0042838 0.0060405 -0.0024926 0.0012812 0.0012874 -0.0035647
-0.0013783 0.00063175 0.00040866 -0.00056661
0.0042877 0.0060276 0.24304 0.20611 0.00056373 -0.0022529 -0.0013424 1.1924e-05
-0.0011679 0.00076936 -0.00067244 0.00036885
-0.0024726 0.0012872 0.00052456 -0.0022676 0.2094 -0.22554 0.00095695 0.0011509
-0.0012255 0.0015367 -0.0013665 -0.00067566
0.0012934 -0.0035659 -0.0013439 1.3049e-05 0.00094925 0.0012043 0.23649 -0.047722
-0.00064847 0.0081411 -0.00015882 -0.0028045
-0.0013579 0.00070112 -0.0011574 0.00078954 -0.0012418 0.0014648 -0.00066379 0.0081483
0.21892 0.11044 0.004506 0.0076451
0.00037935 -0.00056296 -0.00065283 0.00037808 -0.0014134 -0.00058966 -0.00017443 -0.0027581
0.0045082 0.0075597 0.26814 0.14109
1820000000 0.25248 -0.099697 0.0043076 0.0024995 5.8223e-05 0.0027351 -0.0010504 -0.0031815
-0.0011964 0.0009632 -0.00016597 -0.00018721
0.0043286 0.0024991 0.25423 0.17679 -0.0019439 -0.00040064 -0.0015812 0.00095977
-0.00022603 0.0012224 -0.00068115 0.00046647
0.00012641 0.0026588 -0.0019097 -0.00039749 0.15905 -0.24106 0.0015379 0.00060762
-0.00019522 0.0024691 -0.0015767 0.00042181
-0.0010748 -0.0031982 -0.0015964 0.00094315 0.0016651 0.00049911 0.20682 -0.095186
0.00056414 0.0066892 -0.0016844 -0.0018706
-0.0011984 0.00094495 -0.00020258 0.0012178 -0.00012795 0.0024661 0.00062019 0.0066857
0.23799 0.082706 0.0056642 0.0036804
-0.00022612 -0.00015308 -0.00066772 0.00046196 -0.0016056 0.00042024 -0.0017051 -0.0018838
0.0057545 0.0036348 0.27133 0.10578
1880000000 0.21813 -0.14115 0.0018451 0.00035899 -0.00054089 0.0025368 -0.0030847 -0.0023182
-0.00027117 0.0016716 9.2343e-05 -0.00055497
0.0018665 0.00038743 0.25884 0.13009 -0.0041196 0.0023081 -0.00030127 0.0018995
0.000399 0.0014714 8.4735e-05 0.0010572
-0.00048292 0.0025387 -0.0040815 0.0023196 0.10669 -0.25013 0.0020483 -0.00091017
0.0016484 0.0019893 -0.00095178 0.0015461
-0.0030964 -0.0023029 -0.0002892 0.0019235 0.0020144 -0.00091208 0.16606 -0.13602
0.0012494 0.0045414 -0.0026825 6.1866e-05
-0.00029171 0.0016809 0.00043213 0.0015002 0.0016673 0.0019065 0.0012744 0.0045648
0.24352 0.051447 0.0059419 0.0012001
0.00016009 -0.00054397 9.3685e-05 0.0010667 -0.0009261 0.0015271 -0.0026787 9.4297e-05
0.0059098 0.0011976 0.27283 0.071244
1940000000 0.17927 -0.16703 -0.00024942 -0.001039 0.0017497 0.002298 -0.0037927 0.00036949
0.0012198 0.0009719 -0.00071442 -0.00038283
-0.00024955 -0.0010165 0.26005 0.099204 -0.0022154 0.0054469 0.0012159 0.0015328
0.0020252 0.00070457 0.00085157 0.00035231
0.0017411 0.0023204 -0.0022231 0.0054792 0.062312 -0.24242 0.00070208 -0.0023197
0.0024274 0.00045211 0.00031485 0.0015389
-0.0038122 0.00041008 0.0011785 0.0015385 0.00075749 -0.0023306 0.1134 -0.16644
0.00016855 0.0033249 -0.0018039 0.0014091
0.0012276 0.00095888 0.0020067 0.00067311 0.0024417 0.0004252 0.00017574 0.0033138
0.24782 0.013968 0.0044728 -0.0028629
-0.00068687 -0.00031758 0.0008817 0.00035141 0.00034726 0.0015029 -0.001762 0.0015171
0.004418 -0.0028468 0.26248 0.035509
2000000000 0.13418 -0.18258 -0.003839 0.0011453 0.0031036 0.0014529 -0.0024323 0.0038869
0.0010296 0.0005145 -0.00061561 0.00050923
-0.003815 0.001135 0.24695 0.064029 -0.0010669 0.0077594 0.0017527 0.00037664
0.001455 -0.0011525 0.00055175 2.6249e-05
0.0030723 0.0013898 -0.00095546 0.0077919 0.019831 -0.22876 -0.0014575 -0.0016585
0.002003 -0.0011435 0.0016727 0.0014324
-0.0024204 0.0039005 0.0018413 0.00035016 -0.00151 -0.0017367 0.060068 -0.17635
-0.0015072 0.0033441 -0.00037201 0.00233
0.0010304 0.00054262 0.0014941 -0.0011538 0.0020736 -0.0011277 -0.0015237 0.0033856
0.24477 -0.019122 0.00083545 -0.0038327
