!Keysight Technologies,M9804A,MY58100912,A.14.10.03
!Date: Thursday, April 27, 2023 10:28:33
!Correction: S11(C  6-Port  ) 
!S12(C  6-Port  ) 
!S13(C  6-Port  ) 
!S14(C  6-Port  ) 
!S15(C  6-Port  ) 
!S16(C  6-Port  ) 
!S21(C  6-Port  ) 
!S22(C  6-Port  ) 
!S23(C  6-Port  ) 
!S24(C  6-Port  ) 
!S25(C  6-Port  ) 
!S26(C  6-Port  ) 
!S31(C  6-Port  ) 
!S32(C  6-Port  ) 
!S33(C  6-Port  ) 
!S34(C  6-Port  ) 
!S35(C  6-Port  ) 
!S36(C  6-Port  ) 
!S41(C  6-Port  ) 
!S42(C  6-Port  ) 
!S43(C  6-Port  ) 
!S44(C  6-Port  ) 
!S45(C  6-Port  ) 
!S46(C  6-Port  ) 
!S51(C  6-Port  ) 
!S52(C  6-Port  ) 
!S53(C  6-Port  ) 
!S54(C  6-Port  ) 
!S55(C  6-Port  ) 
!S56(C  6-Port  ) 
!S61(C  6-Port  ) 
!S62(C  6-Port  ) 
!S63(C  6-Port  ) 
!S64(C  6-Port  ) 
!S65(C  6-Port  ) 
!S66(C  6-Port  ) 
!S6P File: Measurement: :
# Hz S  RI   R 50
500000000 -0.331 -0.066807 -0.010254 -0.00093505 -0.0089313 0.013363 -0.0040581 0.011867
0.012699 0.0053892 -0.0042714 0.0075154
-0.010222 -0.00081163 -0.41164 -0.076148 0.0082942 -0.010217 0.0010876 0.012232
0.0082723 0.0025166 0.0011088 0.013542
-0.0088983 0.013414 0.0083059 -0.010268 -0.26521 0.19003 0.0067297 0.0035064
-0.0024153 0.0091188 0.0001171 0.011669
-0.0038668 0.011766 0.0009478 0.012373 0.0067507 0.0033972 -0.32959 0.03751
-0.020165 -0.0050033 0.016613 0.027124
0.012904 0.0055033 0.008267 0.0026958 -0.0023708 0.0092409 -0.020154 -0.0050481
-0.23144 -0.21932 -0.02737 0.0044074
-0.003941 0.0075089 0.0011379 0.013708 0.00020057 0.011604 0.016836 0.027035
-0.02733 0.0042106 -0.26482 -0.14298
560000000 -0.32112 0.10171 -0.021153 -0.067162 -0.00012716 0.014152 0.0049995 0.012303
0.01067 0.0048223 0.010502 0.009868
-0.021079 -0.067185 -0.37324 0.091384 -0.041383 -0.039355 0.014114 0.0038514
-0.013214 -0.0040793 0.0039048 -0.0013847
-9.4971e-05 0.014173 -0.041597 -0.039308 -0.18688 0.24321 -0.00013994 -0.0052112
0.018665 0.0069727 0.0078002 -0.006066
0.0049011 0.012184 0.014068 0.0039522 -0.00022738 -0.005286 -0.30722 0.1301
0.005496 -0.022673 0.0053197 -0.021807
0.010641 0.0049593 -0.013159 -0.0043112 0.018693 0.007201 0.0053846 -0.022502
-0.30866 -0.034897 0.010251 -0.051825
0.010143 0.0099434 0.0037042 -0.0012367 0.0077997 -0.006094 0.0051848 -0.021644
0.010325 -0.051578 -0.33224 0.008458
620000000 -0.27855 0.080898 -0.023334 0.0094254 0.0039373 0.0093073 0.0080388 -0.0038329
0.011971 -0.0017004 -0.00033252 -0.001663
-0.023268 0.0094185 -0.40238 0.036794 -0.01817 0.00044381 -0.0016605 -0.0018997
0.013061 -0.0056059 0.0008835 -0.0031243
0.0040436 0.0092992 -0.018155 0.00046668 -0.15794 0.2523 -0.00061446 -0.0052062
-0.0029845 -0.0027577 0.0095238 -0.0031804
0.0083289 -0.0038463 -0.0015923 -0.0019829 -0.00063681 -0.0051098 -0.26492 0.14003
-0.039524 -0.01924 0.01382 0.028971
0.012167 -0.0021515 0.013131 -0.0057128 -0.0028712 -0.0027396 -0.039583 -0.019222
-0.22408 -0.075929 -0.043722 0.013293
-0.00023425 -0.0020635 0.001002 -0.0032128 0.00952 -0.0031954 0.013481 0.028798
-0.043832 0.013273 -0.24717 -0.028239
680000000 -0.24479 0.17535 -0.026081 -0.014832 0.0049963 0.005656 0.0016504 -0.0073414
-0.0013636 -0.011266 0.006241 -0.0072963
-0.02609 -0.014819 -0.39156 0.13908 -0.032161 -0.0028227 -0.0014702 -0.00027296
-0.0014516 -0.0094746 -0.00087798 -0.0020729
0.004971 0.0056175 -0.032223 -0.0027076 -0.10767 0.27442 -0.00069787 -0.00036295
-0.0013791 0.00026355 -0.0025366 -0.0092122
0.0016635 -0.0073462 -0.0014291 -0.00018025 -0.0008106 -0.00026979 -0.221 0.19223
-0.023441 -0.0076039 -0.0094939 -0.011803
-0.0014247 -0.011236 -0.0014696 -0.0095916 -0.0013699 0.00027332 -0.023379 -0.0075467
-0.28261 0.031839 -0.0059975 -0.0076014
0.0064294 -0.007375 -0.00068188 -0.0020233 -0.0025089 -0.0091216 -0.009525 -0.011658
-0.0059233 -0.0075576 -0.26392 0.076548
740000000 -0.19684 0.16891 -0.040614 0.026963 0.014198 -0.004323 0.00043888 -0.0040263
-0.0047123 -0.0026123 -0.0065312 0.0026449
-0.040564 0.026969 -0.33649 0.15775 -0.037696 0.034826 0.00053382 -0.0062093
-0.013125 0.0066683 -0.00099135 -0.0060494
0.014123 -0.0044195 -0.037638 0.035 -0.074476 0.27241 -0.0021967 0.0035442
-0.001703 -0.0060042 -0.0018195 0.0010306
0.00029954 -0.0041899 0.00054313 -0.006306 -0.0022416 0.0034927 -0.20464 0.20043
-0.042179 -0.0096957 0.023187 0.01713
-0.0048738 -0.0027734 -0.01345 0.0069233 -0.0016931 -0.00603 -0.042187 -0.0096342
-0.18144 0.063084 -0.042307 -0.00010652
-0.0064935 0.0025621 -0.00082307 -0.0061305 -0.0018502 0.0010277 0.023178 0.017103
-0.042165 4.0511e-05 -0.25317 0.085045
800000000 -0.16608 0.2146 -0.022267 0.015857 0.0060869 -0.01046 -0.0044839 -0.0026894
-0.0046176 0.0016004 0.0043328 0.00025281
-0.022232 0.015837 -0.3449 0.22932 -0.0092267 0.034084 -0.0021989 0.0018699
-0.001072 0.0023577 0.00096442 0.0053154
0.0060921 -0.010463 -0.0091396 0.034176 -0.036016 0.29793 0.00080511 0.0012926
-9.6139e-05 0.0033875 -0.0017262 0.00073163
-0.0045653 -0.0025505 -0.0021943 0.0019023 0.00080422 0.0013568 -0.1753 0.22754
-0.028614 0.012637 0.014714 -0.010509
-0.0044643 0.0015289 -0.0010134 0.0023245 -6.7338e-06 0.0033306 -0.028609 0.012721
-0.22854 0.088615 -0.017664 0.020252
0.0043227 0.00063149 0.00092473 0.00553 -0.0016938 0.00080253 0.01469 -0.010591
-0.017757 0.020275 -0.2476 0.13524
860000000 -0.13207 0.23446 -0.018429 0.030032 -0.0028398 -0.010472 -0.0018345 0.00018878
0.0035605 0.0051979 -0.0035311 -0.0030352
-0.018419 0.030044 -0.29808 0.27352 0.0067082 0.034738 3.3963e-06 0.0020952
0.0029877 0.00082694 0.003288 0.00072991
-0.002875 -0.010466 0.006831 0.034769 0.010914 0.30752 -0.00053382 -0.00025513
0.0022706 -0.0016219 0.0015524 0.0040581
-0.0018615 9.5607e-05 -2.2655e-05 0.0021213 -0.0005351 -0.00024162 -0.13898 0.23845
-0.018126 0.017277 -0.0065043 -0.0088547
0.0035811 0.0050791 0.0030371 0.00077693 0.0022908 -0.0016026 -0.018135 0.017295
-0.17225 0.1437 -0.025599 0.016484
-0.0037531 -0.0031379 0.0031353 0.00066404 0.001535 0.0040513 -0.0063804 -0.0090626
-0.025599 0.016423 -0.19655 0.18179
920000000 -0.10966 0.25812 0.004161 0.038721 -0.0093786 -0.0053331 -0.0022566 0.0016032
0.0006291 0.0019161 0.0029775 -0.0012079
0.004119 0.038695 -0.27134 0.29542 0.02789 0.023438 0.0012118 0.0011127
0.0076556 -4.4991e-05 0.0041661 -0.0030512
-0.0093941 -0.0053003 0.027992 0.023365 0.056508 0.31017 0.0018453 -7.3826e-05
0.00073632 -6.772e-05 0.00085673 -0.0017723
-0.0021834 0.0016499 0.001258 0.0011388 0.0018614 -4.7163e-05 -0.11503 0.25565
-0.011992 0.030499 0.0042815 -0.0069356
0.00070528 0.0019149 0.0076879 4.3618e-05 0.00073072 -0.00012708 -0.011958 0.030557
-0.16446 0.14934 -0.0020924 0.027812
0.0030749 -0.0012294 0.0041402 -0.0031166 0.00088539 -0.0017383 0.0042491 -0.0069044
-0.0021159 0.027832 -0.20584 0.19497
980000000 -0.063862 0.27946 0.015802 0.030646 -0.0098443 0.0043094 0.0013658 0.0038328
0.0039433 -0.0011737 -0.0034155 -0.0025615
0.01576 0.030638 -0.21961 0.33191 0.033294 0.0061513 0.0019737 -2.5958e-05
0.0018645 -0.0058726 -0.00024583 -0.0027739
-0.0098589 0.0043677 0.033372 0.0060147 0.10262 0.30502 0.00068124 -0.001119
0.00056011 -0.0016985 0.0012592 -0.00037036
0.0014023 0.0038544 0.0019795 1.9663e-06 0.00069269 -0.001094 -0.077566 0.26646
0.0066689 0.02962 -0.0098456 -0.0078066
0.0039407 -0.0011685 0.0018331 -0.0059333 0.00051606 -0.0017119 0.0067281 0.029611
-0.13093 0.1819 0.0054209 0.020078
-0.0034247 -0.0025732 -0.00018403 -0.0027226 0.0012702 -0.00037257 -0.0098238 -0.0077794
0.0053118 0.020059 -0.16446 0.2416
1040000000 -0.023679 0.28948 0.032866 0.020229 -0.001709 0.0073379 0.0023854 0.00094277
0.00041626 -0.0034515 -0.00011683 -0.0015968
0.03278 0.02024 -0.18516 0.34652 0.03044 -0.013955 0.0016305 -0.0016616
-0.0021505 -0.0024873 -0.0012206 -0.0029711
-0.001684 0.0073412 0.030421 -0.0141 0.14861 0.29336 -0.00043457 -0.0016092
-0.0015302 -0.00084601 -0.00062672 -0.0010219
0.0024627 0.00095875 0.0016489 -0.0016578 -0.00043284 -0.0016096 -0.050863 0.27687
0.018625 0.019073 -0.0022357 0.00097
0.00044395 -0.0034588 -0.0022299 -0.0024587 -0.0015309 -0.00086571 0.018659 0.019065
-0.098136 0.19005 0.013859 0.019117
-0.00010105 -0.0015672 -0.0012051 -0.0029799 -0.00062564 -0.0010118 -0.002315 0.0010103
0.013833 0.019079 -0.14329 0.26322
1100000000 0.02102 0.29947 0.036763 -0.0025652 0.003001 0.0043286 0.002457 -0.00083262
-0.0020846 -0.0031577 -0.0041728 -0.0003154
0.03672 -0.0025545 -0.14174 0.36588 0.016375 -0.027888 4.0933e-05 -0.0018654
-0.0036984 -0.001173 -0.0037151 -0.0007213
0.0030307 0.0043421 0.01628 -0.028004 0.19545 0.27454 -0.0019257 0.0001926
-0.0018114 0.00060709 -0.0011371 -0.00035006
0.0024464 -0.00085526 2.4023e-05 -0.0018728 -0.0019232 0.00018551 -0.011027 0.28226
0.024707 0.0060267 -0.0028 -0.00029288
-0.0021464 -0.0031502 -0.0037157 -0.0011862 -0.0018362 0.00062344 0.024764 0.0059873
-0.079284 0.20435 0.01996 0.009208
-0.0042231 -0.00026205 -0.0037477 -0.00067365 -0.0011566 -0.0003532 -0.00282 -0.00028867
0.019963 0.0092178 -0.097674 0.29372
1160000000 0.071572 0.29685 0.025384 -0.019994 0.003155 -0.00043202 -7.5765e-05 -0.0023514
-0.0041747 -0.00097755 -0.0012205 0.0042401
0.025368 -0.019969 -0.098909 0.37166 -0.0030294 -0.029562 -0.0016081 -0.001752
-0.0028931 0.00265 -0.001703 0.0019417
0.0031467 -0.00042507 -0.0031677 -0.029612 0.23884 0.24494 -0.00077335 0.0017955
-0.00049107 0.0018743 -0.001069 0.00041638
-5.6152e-05 -0.0023432 -0.0015827 -0.001757 -0.00075441 0.0017763 0.027458 0.28018
0.02152 -0.010012 -0.0038107 0.0052396
-0.004205 -0.00095749 -0.0028243 0.0026407 -0.00047611 0.0018991 0.021502 -0.010046
-0.046198 0.21369 0.01932 -2.264e-05
-0.0012034 0.0042215 -0.0017042 0.0018997 -0.0010834 0.00041226 -0.0037985 0.005186
0.019345 -8.4447e-06 -0.050981 0.29804
1220000000 0.11526 0.289 0.012131 -0.030225 -0.0013382 -0.0011226 0.0003024 -0.00096333
-0.0028586 0.0023139 0.0011595 0.0022674
0.012125 -0.030204 -0.054498 0.38672 -0.01684 -0.021969 -0.0026112 0.00043339
3.3703e-05 0.0032858 -0.00082286 0.0020198
-0.0013414 -0.0011231 -0.01696 -0.021928 0.27871 0.20708 0.00084044 0.001779
0.00072992 0.0011915 0.00028787 0.00057853
0.00025697 -0.00096649 -0.0026438 0.00046295 0.00085682 0.0017826 0.067303 0.27356
0.010888 -0.016764 0.0018704 0.0017472
-0.0028906 0.0023375 4.0724e-05 0.0032905 0.00072828 0.0012067 0.010879 -0.016767
-0.023894 0.22415 0.014914 -0.012904
0.0011848 0.0023049 -0.0007827 0.00204 0.00029066 0.00058763 0.0018839 0.0017778
0.014897 -0.012907 -0.020438 0.3157
1280000000 0.16607 0.26967 -0.0069626 -0.02945 -0.0019515 0.0022802 -0.00086994 -0.0023361
-0.00089105 0.0032985 0.0026726 0.0014603
-0.0069264 -0.02944 -0.0077513 0.37917 -0.024355 -0.0087784 -0.0010678 0.0014872
0.0018423 0.0018772 0.00075692 0.0021673
-0.0019458 0.002312 -0.024451 -0.0086741 0.30991 0.16371 0.0016688 -6.9263e-05
0.0011734 0.00020775 0.00047786 0.00029452
-0.0008744 -0.0022999 -0.001014 0.0015119 0.001665 -7.2088e-05 0.10429 0.25803
0.0013797 -0.019409 -0.00036212 0.00048921
-0.00086371 0.0033099 0.0018652 0.0018982 0.0011814 0.00018872 0.001353 -0.019412
0.012292 0.22883 0.0036636 -0.015968
0.0027135 0.0013958 0.0007707 0.0021513 0.000488 0.00029553 -0.00040276 0.0004325
0.0036834 -0.015954 0.0275 0.3188
1340000000 0.20368 0.23882 -0.017181 -0.019912 0.00063283 0.0045579 -0.0019457 -0.00096507
0.0015648 0.0027934 0.0019832 -0.0014929
-0.017151 -0.019891 0.031846 0.37275 -0.02183 0.0044132 -0.00015611 0.0020727
0.002077 0.00072613 0.001256 0.00081233
0.00063893 0.0045612 -0.02184 0.0045179 0.33235 0.11711 0.0010118 -0.0010285
0.00059325 -0.00054147 2.4054e-05 0.00016688
-0.0020118 -0.00097063 -0.00012293 0.0020877 0.001011 -0.0010005 0.13796 0.23891
-0.0082546 -0.016595 0.0010449 0.00064732
0.0015267 0.0027965 0.0020926 0.00074545 0.00058013 -0.00054693 -0.0082883 -0.016581
0.041652 0.22679 -0.003538 -0.014521
0.001956 -0.0015088 0.0012304 0.00079881 2.4756e-05 0.00015371 0.0010702 0.00069154
-0.0035316 -0.014522 0.065176 0.31524
1400000000 0.23908 0.20271 -0.023723 -0.0083068 0.0052114 0.00336 -0.0023956 0.00069298
0.0027524 0.0011372 0.00042541 -0.001713
-0.023695 -0.0083204 0.070926 0.36083 -0.014968 0.012843 0.0013614 0.0013933
0.00132 -0.00084638 0.0012359 0.00014172
0.0052307 0.0033306 -0.014918 0.012926 0.34641 0.064086 -3.3402e-05 -0.0016154
5.9866e-05 -0.00034622 0.00043101 0.00034115
-0.0023611 0.00070515 0.0013902 0.0013632 -2.5105e-05 -0.0016224 0.16858 0.21052
-0.014527 -0.0098873 -0.00086415 -5.7785e-05
0.0027553 0.0011094 0.0012966 -0.00084917 6.7738e-05 -0.00035969 -0.01454 -0.0098382
0.075195 0.22447 -0.010557 -0.0095753
0.00045512 -0.001726 0.0012505 0.00012604 0.00043598 0.00033736 -0.00088119 -5.0132e-05
-0.010554 -0.0095712 0.11044 0.3056
1460000000 0.26326 0.1599 -0.020801 0.0044158 0.0057611 -0.0017237 -0.0015837 0.0019319
0.0023008 -0.00035877 -0.00025889 -0.0011218
-0.020788 0.0043911 0.10568 0.33926 -0.0055755 0.015868 0.0017375 0.00021668
0.00089508 -0.0013637 0.0012083 -0.00056192
0.0057546 -0.0017689 -0.0054988 0.015925 0.35322 0.01007 -0.0012829 -0.0011613
0.00020136 -5.9522e-05 0.00068269 -0.00024492
-0.0016055 0.0019394 0.001732 0.00018113 -0.0012677 -0.0011679 0.19573 0.18165
-0.01568 -0.0029586 -0.0008067 0.0021163
0.0023149 -0.00034269 0.00089035 -0.0014002 0.00019909 -8.0962e-05 -0.0157 -0.0029332
0.10439 0.21237 -0.012521 -0.0030427
-0.00029147 -0.0011059 0.0011956 -0.00057559 0.00069619 -0.00026163 -0.00079589 0.0021318
-0.01252 -0.0030551 0.14357 0.28566
1520000000 0.27776 0.11926 -0.015136 0.010109 0.0034979 -0.0043332 0.00023415 0.0027657
0.0024279 -0.0019547 -0.0011836 -0.00017649
-0.015123 0.010092 0.14008 0.32577 0.0023725 0.013011 0.001709 -0.00072529
4.1073e-05 -0.00097759 0.00039194 -0.0010548
0.0034804 -0.0043666 0.00245 0.013023 0.34707 -0.045186 -0.00094818 -0.00022528
0.00084642 -0.00091095 0.00010607 -0.00016261
0.00026523 0.0027452 0.0017109 -0.00073263 -0.00095144 -0.00023174 0.22022 0.14373
-0.014964 0.0028403 0.0016583 0.0022569
0.0024133 -0.0019732 4.6412e-05 -0.00097867 0.00084895 -0.00091354 -0.014969 0.002875
0.13362 0.20115 -0.012476 0.0019079
-0.0011619 -0.00012202 0.00037281 -0.0010663 0.00010836 -0.00015878 0.0016627 0.0022678
-0.012463 0.0019197 0.1773 0.26731
1580000000 0.28887 0.073 -0.0083583 0.013499 -0.00095566 -0.0051291 0.0016135 0.0018359
-0.00026108 -0.002419 -0.00029891 0.00048189
-0.0083565 0.013494 0.16827 0.30084 0.005995 0.0076299 0.00054612 -0.001573
-0.0005009 -0.0010408 -0.00019317 -0.00077657
-0.00097459 -0.0051406 0.0060434 0.0076073 0.32827 -0.10332 -0.0015029 0.00044371
-0.00034525 -0.0013913 0.00035314 -0.00059626
0.0016267 0.001817 0.00054595 -0.0015864 -0.0015008 0.00043904 0.23497 0.10394
-0.011168 0.0079334 0.0024878 0.00077262
-0.00024879 -0.0024284 -0.00049658 -0.0010466 -0.00035153 -0.0013864 -0.011185 0.0079728
0.159 0.18509 -0.0096284 0.008056
-0.00033478 0.00045606 -0.00020323 -0.00079406 0.00034462 -0.0005952 0.0025112 0.00074789
-0.0096368 0.0080547 0.21019 0.24128
1640000000 0.29208 0.031935 -0.0014538 0.012273 -0.0030995 -0.0027718 0.0028435 0.00095021
-0.00078707 -0.0017746 -0.00031629 0.00058428
-0.0014632 0.012259 0.19768 0.27698 0.0060929 0.0024124 -0.00048918 -0.0018997
-0.00087331 -0.00051336 -0.00048857 -0.00074462
-0.0031142 -0.0027421 0.0061084 0.0023792 0.29967 -0.15187 -0.00060653 0.0012498
-0.0011397 -0.0011651 -0.00016167 -0.00041108
0.0028675 0.00095801 -0.00050891 -0.001886 -0.00064684 0.0012488 0.24785 0.055
-0.0068389 0.0089187 0.0026718 -0.00082543
-0.00080982 -0.0017587 -0.00087246 -0.00049406 -0.001153 -0.0011514 -0.0067941 0.0089397
0.18316 0.16306 -0.0046415 0.010134
-0.00024861 0.0005601 -0.00049763 -0.00073942 -0.00017766 -0.00042946 0.0026615 -0.00083875
-0.0046381 0.010133 0.23623 0.2118
1700000000 0.28675 -0.013393 0.0019775 0.0093915 -0.0039141 0.00013262 0.0031365 -0.0013171
-0.0022072 -0.00067215 0.00066294 0.00041945
0.0019773 0.0093886 0.217 0.24558 0.0034063 -0.00069447 -0.0015079 -0.0007539
-0.00081229 -0.00018672 -0.00087418 -0.0004735
-0.0039129 0.00014948 0.0034115 -0.00071878 0.25766 -0.19225 0.00018449 0.0014502
-0.0021339 -0.00014411 -0.00044977 -0.00084561
0.0031182 -0.0013137 -0.0015304 -0.00077249 0.00016427 0.0014663 0.24557 0.0044747
-0.0038937 0.0092438 0.0018094 -0.0023093
-0.002201 -0.00067853 -0.00080582 -0.00019285 -0.0021378 -0.00014688 -0.0038872 0.009278
0.20269 0.14405 0.00038417 0.010349
0.00065778 0.00042231 -0.0008853 -0.00047808 -0.00047063 -0.00084299 0.0018603 -0.0023267
0.00038152 0.010344 0.25433 0.17812
1760000000 0.27542 -0.062417 0.0042904 0.0060277 -0.0024759 0.0012691 0.0013605 -0.0036097
-0.0013209 0.00067532 0.00029544 -0.00056235
0.0042753 0.0060242 0.24296 0.20615 0.00055251 -0.0022629 -0.0013295 2.667e-05
-0.0011622 0.00079452 -0.00069365 0.00039014
-0.002466 0.0012978 0.00053596 -0.0022726 0.20945 -0.22552 0.00098447 0.0011631
-0.001229 0.0014784 -0.0013906 -0.00057355
0.0013083 -0.0035601 -0.0013432 2.1711e-05 0.00093856 0.0011578 0.23643 -0.047696
-0.00074003 0.0081565 -0.00013886 -0.0026894
-0.0013322 0.0006888 -0.0011678 0.00080325 -0.0012292 0.0014892 -0.00071311 0.0081811
0.21884 0.11049 0.0045449 0.007556
0.0003336 -0.00055179 -0.00067433 0.00038925 -0.0013865 -0.0005923 -0.00013952 -0.0026947
0.0045688 0.0075441 0.26785 0.14112
1820000000 0.25247 -0.099663 0.0043226 0.0024905 8.6081e-05 0.0027205 -0.0010482 -0.0031561
-0.0011856 0.00093821 -0.00022496 -0.0001967
0.0043016 0.0024853 0.25419 0.17687 -0.001901 -0.0004125 -0.0016003 0.00095471
-0.00022693 0.0012097 -0.00065949 0.00048103
0.00011541 0.0026722 -0.001912 -0.00042442 0.15912 -0.24097 0.0015818 0.00054809
-0.00012331 0.0024562 -0.0015969 0.0003893
-0.0010524 -0.0031654 -0.0015697 0.0009768 0.0016362 0.00053779 0.20686 -0.095213
0.00064633 0.0065911 -0.0017519 -0.0019461
-0.0011948 0.00096333 -0.00022108 0.0012111 -0.00012637 0.0024683 0.00065463 0.0065951
0.23815 0.082621 0.005667 0.0036343
-0.00023558 -0.00018919 -0.00066983 0.00047644 -0.0015914 0.00039173 -0.001773 -0.0018742
0.0056624 0.003643 0.27134 0.10547
1880000000 0.21816 -0.14111 0.0018817 0.00038739 -0.00048805 0.0025455 -0.0030594 -0.0023381
-0.00030894 0.0017325 0.00015663 -0.00063762
0.0018826 0.00039178 0.25883 0.13016 -0.0041019 0.002294 -0.00027189 0.0019125
0.00042877 0.0014785 8.0715e-05 0.0010451
-0.00047939 0.0025526 -0.0040865 0.0023262 0.10685 -0.25018 0.0020624 -0.00090638
0.0016485 0.0019118 -0.00088251 0.0015219
-0.0030825 -0.0022873 -0.00030278 0.0018905 0.0020149 -0.00090928 0.16607 -0.13608
0.0012769 0.0045515 -0.0026267 0.00013562
-0.00030168 0.0016935 0.00043422 0.0014591 0.0016581 0.0019216 0.0012686 0.0045326
0.24356 0.0515 0.006069 0.0011322
0.00018577 -0.00057669 8.3028e-05 0.0010696 -0.00088501 0.0015301 -0.0026196 0.00011174
0.0060733 0.00115 0.27284 0.071211
1940000000 0.17932 -0.16696 -0.00024927 -0.0010118 0.0017787 0.0023515 -0.0038639 0.00038614
0.0011725 0.00092367 -0.00064758 -0.00027991
-0.00025114 -0.0010162 0.26 0.099294 -0.0022132 0.0054831 0.0011856 0.0015238
0.0019925 0.00072406 0.00091386 0.00040316
0.0017583 0.0023319 -0.0021978 0.0054874 0.062366 -0.24236 0.0007316 -0.0023709
0.0024499 0.00045958 0.00033356 0.0015337
-0.0038067 0.00044858 0.0011961 0.0015372 0.00074298 -0.0023364 0.11338 -0.16642
0.00025894 0.0033768 -0.0018144 0.0013117
0.0012259 0.00096288 0.0020148 0.00070041 0.0024591 0.00044823 0.00023486 0.0033609
0.24794 0.014029 0.0044466 -0.0028241
-0.00064772 -0.00027091 0.00089644 0.00038397 0.00032762 0.0015337 -0.0018193 0.0014879
0.0044497 -0.0028185 0.26239 0.035654
2000000000 0.13416 -0.18254 -0.0038169 0.001109 0.0030587 0.0014811 -0.0024037 0.0038542
0.00095348 0.0005261 -0.00059051 0.00042135
-0.0038196 0.0011016 0.24696 0.064131 -0.0010085 0.0077822 0.0018227 0.00038064
0.0015026 -0.0011271 0.0004889 3.6924e-05
0.0030705 0.0014392 -0.00094523 0.0077821 0.020066 -0.22865 -0.0014272 -0.0016752
0.0019901 -0.0011411 0.0015108 0.0014659
-0.0024268 0.0039245 0.0017594 0.0003877 -0.0014848 -0.0017211 0.060068 -0.17645
-0.001547 0.0032939 -0.00045319 0.0023529
0.00096604 0.00054142 0.0014283 -0.0011452 0.0020093 -0.0011539 -0.0016005 0.0033084
0.24477 -0.019207 0.0009135 -0.0039614
