!Keysight Technologies,M9804A,MY58100912,A.14.10.03
!Date: Thursday, April 27, 2023 10:28:33
!Correction: S11(C  6-Port  ) 
!S12(C  6-Port  ) 
!S13(C  6-Port  ) 
!S14(C  6-Port  ) 
!S15(C  6-Port  ) 
!S16(C  6-Port  ) 
!S21(C  6-Port  ) 
!S22(C  6-Port  ) 
!S23(C  6-Port  ) 
!S24(C  6-Port  ) 
!S25(C  6-Port  ) 
!S26(C  6-Port  ) 
!S31(C  6-Port  ) 
!S32(C  6-Port  ) 
!S33(C  6-Port  ) 
!S34(C  6-Port  ) 
!S35(C  6-Port  ) 
!S36(C  6-Port  ) 
!S41(C  6-Port  ) 
!S42(C  6-Port  ) 
!S43(C  6-Port  ) 
!S44(C  6-Port  ) 
!S45(C  6-Port  ) 
!S46(C  6-Port  ) 
!S51(C  6-Port  ) 
!S52(C  6-Port  ) 
!S53(C  6-Port  ) 
!S54(C  6-Port  ) 
!S55(C  6-Port  ) 
!S56(C  6-Port  ) 
!S61(C  6-Port  ) 
!S62(C  6-Port  ) 
!S63(C  6-Port  ) 
!S64(C  6-Port  ) 
!S65(C  6-Port  ) 
!S66(C  6-Port  ) 
!S6P File: Measurement: :
# Hz S  RI   R 50
500000000 -0.3304 -0.06833 -0.010528 -0.0012921 -0.0092224 0.013221 -0.0038827 0.011122
0.013153 0.0045224 -0.0038443 0.0086271
-0.010056 -0.0017211 -0.41131 -0.076332 0.0079398 -0.010546 0.0010812 0.01161
0.0079784 0.0029923 0.001169 0.013621
-0.009166 0.012994 0.007999 -0.010582 -0.26526 0.19038 0.0066417 0.0032139
-0.0025818 0.0092885 0.00038038 0.011547
-0.0044596 0.011715 0.001267 0.011399 0.0065486 0.0031636 -0.33009 0.037998
-0.019312 -0.005009 0.016062 0.026831
0.012897 0.0054322 0.0087356 0.0026695 -0.0023743 0.0087973 -0.019582 -0.0050752
-0.23252 -0.21953 -0.028144 0.0047653
-0.0056485 0.0077137 0.0016183 0.012726 0.00032103 0.01128 0.016321 0.027232
-0.027242 0.0042249 -0.266 -0.14408
560000000 -0.32139 0.10163 -0.020837 -0.067037 -0.00055827 0.014153 0.0051131 0.012159
0.010557 0.0045027 0.01024 0.0088066
-0.022016 -0.066859 -0.37344 0.092359 -0.04158 -0.03976 0.013891 0.0042855
-0.012837 -0.0048476 0.0040224 -0.0012889
-0.00011273 0.01357 -0.041726 -0.039714 -0.18661 0.24355 7.89e-05 -0.0052516
0.018485 0.0071259 0.0070227 -0.0062802
0.0055031 0.012213 0.013387 0.0042777 0.00016356 -0.0051835 -0.30737 0.13059
0.0053572 -0.022815 0.0047634 -0.021309
0.009946 0.0054395 -0.013213 -0.0050338 0.018312 0.0076407 0.0052389 -0.023211
-0.31068 -0.0354 0.011678 -0.052341
0.011711 0.0092897 0.0037707 -0.00078213 0.0070115 -0.0066339 0.004658 -0.021911
0.01025 -0.051219 -0.33206 0.0091652
620000000 -0.27951 0.081811 -0.023344 0.0093995 0.0036862 0.0092661 0.0075944 -0.0039122
0.01255 -0.0012786 0.00035822 -0.0013143
-0.023285 0.009625 -0.40224 0.036916 -0.01825 0.00030396 -0.0019383 -0.0021609
0.013607 -0.0052132 0.00134 -0.0031639
0.0038828 0.0093001 -0.018191 0.00040422 -0.15803 0.25197 -0.001092 -0.00544
-0.0027439 -0.0026757 0.009184 -0.0035432
0.0074333 -0.0046983 -0.0020085 -0.0021094 -0.0011449 -0.0055086 -0.26534 0.14065
-0.039206 -0.019008 0.013235 0.02978
0.013328 -0.00088957 0.013602 -0.005457 -0.0020474 -0.0026839 -0.039314 -0.019169
-0.22306 -0.075729 -0.043236 0.012243
-0.00051068 -0.0021777 0.0010467 -0.0031344 0.0088142 -0.0037178 0.012767 0.028921
-0.043513 0.012356 -0.24834 -0.029926
680000000 -0.24445 0.17544 -0.026138 -0.014873 0.0048766 0.0056419 0.0015522 -0.0067224
-0.0015538 -0.01115 0.0063512 -0.007349
-0.026206 -0.015048 -0.39163 0.13921 -0.032339 -0.0028005 -0.0016516 -0.00012161
-0.0012652 -0.009522 -0.00056219 -0.0019135
0.0049973 0.0054974 -0.032432 -0.0026724 -0.1077 0.27453 -0.00075068 -0.00022631
-0.0013004 0.00036453 -0.0025093 -0.0091911
0.0018657 -0.0063139 -0.001713 -8.6669e-05 -0.00071695 -0.00028592 -0.22071 0.19321
-0.022967 -0.0077227 -0.0093732 -0.011728
-0.0016871 -0.011036 -0.0013051 -0.0095537 -0.0012843 0.00035759 -0.023505 -0.0075338
-0.28315 0.031698 -0.0057488 -0.0076416
0.0068581 -0.0066132 -0.00059994 -0.0020742 -0.0023832 -0.0093973 -0.0088749 -0.011378
-0.0056623 -0.0075456 -0.26261 0.078309
740000000 -0.19714 0.16847 -0.040669 0.027327 0.014156 -0.0043333 0.0003262 -0.004329
-0.0047314 -0.0027438 -0.0059158 0.0024508
-0.040577 0.027517 -0.33757 0.1582 -0.037777 0.0343 7.437e-05 -0.0062415
-0.012475 0.006756 -0.0011488 -0.005948
0.013951 -0.0042748 -0.037735 0.034545 -0.074049 0.2725 -0.0021451 0.0031471
-0.0018894 -0.0057032 -0.0019028 0.0008689
0.00032239 -0.0043899 3.6058e-05 -0.0063652 -0.0020866 0.0030499 -0.20464 0.20008
-0.041935 -0.008707 0.023013 0.016892
-0.0050498 -0.0027477 -0.012971 0.0065839 -0.001814 -0.0057036 -0.042469 -0.0098536
-0.18044 0.061905 -0.042733 -0.0012487
-0.0065251 0.0025336 -0.001548 -0.0064898 -0.0016246 0.00068449 0.023125 0.016829
-0.043337 -0.00021921 -0.2538 0.085074
800000000 -0.16641 0.21417 -0.022557 0.015705 0.0059463 -0.010528 -0.0046047 -0.0027694
-0.0049846 0.0016972 0.0044429 0.00027203
-0.022589 0.015657 -0.34495 0.22926 -0.0092997 0.034036 -0.0023475 0.002093
-0.00085619 0.0022758 0.00068941 0.0054171
0.0059034 -0.010443 -0.0091798 0.034134 -0.03599 0.29806 0.00077311 0.0014837
-9.4885e-05 0.0032474 -0.0016712 0.00060398
-0.0046259 -0.0024529 -0.0023115 0.0021309 0.00079207 0.0014964 -0.17539 0.22762
-0.028759 0.013123 0.014514 -0.010447
-0.004926 0.0013759 -0.00091376 0.0022244 -0.00011375 0.0032124 -0.028398 0.012834
-0.22814 0.088215 -0.016848 0.020552
0.0039618 0.0006054 0.00060095 0.0056208 -0.0016412 0.00082461 0.014317 -0.010304
-0.018148 0.021152 -0.24802 0.13544
860000000 -0.13236 0.23451 -0.018605 0.030197 -0.0030123 -0.010425 -0.0014802 2.7695e-05
0.0036791 0.0050058 -0.0037215 -0.0034727
-0.018525 0.030122 -0.29812 0.27359 0.0067602 0.034786 -0.00016047 0.0019507
0.0032019 0.00089109 0.0032577 0.00031317
-0.0030543 -0.010488 0.0069026 0.034764 0.011014 0.30768 -0.00055623 -0.00045476
0.0022911 -0.0015754 0.00154 0.0039682
-0.0014566 -9.3592e-05 -0.00012054 0.0018602 -0.00053671 -0.0004806 -0.1385 0.23854
-0.018021 0.017068 -0.0065793 -0.008991
0.0037394 0.0048347 0.0030906 0.00098509 0.0022031 -0.0014833 -0.018014 0.017369
-0.17184 0.14416 -0.026061 0.016494
-0.0041434 -0.0038734 0.0033033 0.00019269 0.0015235 0.0040038 -0.0063297 -0.0096536
-0.025841 0.015897 -0.19621 0.17983
920000000 -0.1095 0.25794 0.003978 0.038744 -0.0093702 -0.0053684 -0.0022752 0.0015775
0.00033962 0.0018436 0.0030185 -0.0012445
0.004012 0.038604 -0.27126 0.29561 0.027915 0.02343 0.0013597 0.00092144
0.0074142 6.4108e-05 0.0042805 -0.0030269
-0.0093852 -0.0053469 0.02804 0.023361 0.056597 0.31023 0.0019339 -5.4928e-05
0.00066671 -0.00021197 0.00086519 -0.0016606
-0.002241 0.0017089 0.0014711 0.00098883 0.0019533 2.2353e-05 -0.11494 0.25575
-0.01199 0.030815 0.0043176 -0.0069586
0.00057561 0.0019698 0.0074442 0.00019209 0.00064268 -4.7167e-05 -0.012015 0.030739
-0.16442 0.14901 -0.0016066 0.02809
0.0030438 -0.0014008 0.0043467 -0.0029073 0.00074169 -0.0015316 0.0042731 -0.0068484
-0.0018012 0.028189 -0.20581 0.19505
980000000 -0.06377 0.27945 0.015861 0.030634 -0.0098722 0.0042763 0.0014925 0.0036944
0.0041069 -0.0010775 -0.003459 -0.002777
0.015838 0.030545 -0.21952 0.33201 0.033275 0.0061471 0.0019483 6.2663e-05
0.0019526 -0.0058529 -0.00025276 -0.0027282
-0.0098672 0.0043002 0.033359 0.0060361 0.10274 0.3051 0.00068154 -0.0011222
0.00047239 -0.0016512 0.0012181 -0.00038982
0.0015619 0.0038098 0.0019513 5.1584e-05 0.000698 -0.0011389 -0.077553 0.26647
0.0068502 0.029355 -0.0098125 -0.0079422
0.0041093 -0.0012884 0.0020559 -0.0060616 0.00048064 -0.0016856 0.0069139 0.029346
-0.1313 0.18216 0.0053743 0.019808
-0.0034228 -0.0026862 -0.0004332 -0.0025604 0.0012159 -0.00033892 -0.0096259 -0.0078508
0.0054965 0.020345 -0.16499 0.241
1040000000 -0.023571 0.28911 0.032802 0.020288 -0.0016312 0.0073928 0.0024147 0.00098719
0.00036611 -0.0034367 -0.00020931 -0.0013254
0.032748 0.020246 -0.18507 0.34656 0.030405 -0.013972 0.0016518 -0.0015776
-0.0021942 -0.0024745 -0.001249 -0.0029061
-0.0015707 0.0074239 0.030418 -0.014119 0.14878 0.29337 -0.0004258 -0.0015929
-0.0016548 -0.00096559 -0.0006845 -0.00095289
0.0023082 0.00094112 0.0016591 -0.0016148 -0.00045004 -0.0015899 -0.050617 0.27688
0.018537 0.019197 -0.0021514 0.00090952
0.00048181 -0.0034247 -0.0021521 -0.0025165 -0.0016758 -0.001006 0.018811 0.019275
-0.099253 0.18988 0.014081 0.019382
5.3448e-05 -0.0015814 -0.0011826 -0.003102 -0.00074038 -0.0010388 -0.0020885 0.00080203
0.013816 0.019486 -0.14356 0.26315
1100000000 0.021101 0.29964 0.036804 -0.0025152 0.0030654 0.0043248 0.0024508 -0.00087427
-0.0021191 -0.0032286 -0.0043748 -0.00050649
0.036714 -0.0025206 -0.14159 0.36609 0.016336 -0.027864 1.2217e-05 -0.001896
-0.0037724 -0.0012046 -0.0037531 -0.00077938
0.0030399 0.0043231 0.016251 -0.027973 0.19557 0.27451 -0.0019232 0.00018451
-0.0018034 0.00061819 -0.0011205 -0.00035331
0.0025777 -0.00084095 -3.487e-05 -0.0019214 -0.0019296 0.00016785 -0.010876 0.28238
0.024837 0.0060554 -0.0028318 -0.0003066
-0.0021736 -0.0031043 -0.0037895 -0.0012317 -0.0018082 0.00064869 0.024856 0.0061977
-0.07899 0.20429 0.020181 0.0092295
-0.0042828 -0.00039796 -0.003715 -0.00078434 -0.0011676 -0.00030437 -0.002729 -0.00027913
0.020041 0.0093053 -0.09736 0.29386
1160000000 0.071582 0.29681 0.025384 -0.019971 0.003158 -0.00040883 -4.4477e-05 -0.0023661
-0.0041298 -0.0010758 -0.0011343 0.0043468
0.025351 -0.019936 -0.098664 0.37185 -0.0030238 -0.029555 -0.0016381 -0.0017843
-0.0027625 0.0026432 -0.0015753 0.0019566
0.0031666 -0.00043332 -0.0031233 -0.029614 0.23903 0.24493 -0.00079598 0.0018016
-0.00053273 0.0018785 -0.00093493 0.00030061
-0.00012191 -0.0023588 -0.0015961 -0.0018125 -0.00079344 0.0017547 0.027584 0.28037
0.021561 -0.010149 -0.0036237 0.0050712
-0.0042285 -0.00098843 -0.0026945 0.0026302 -0.0005114 0.001875 0.021522 -0.010203
-0.045758 0.21344 0.019307 0.00039317
-0.0010967 0.0045188 -0.0014314 0.0021306 -0.00090195 0.00028485 -0.0035931 0.0051836
0.019475 -3.3366e-05 -0.051393 0.29838
1220000000 0.11548 0.28896 0.012212 -0.030225 -0.0013124 -0.001168 0.00030253 -0.00095994
-0.0028671 0.0023027 0.0010321 0.0021672
0.012211 -0.03021 -0.054254 0.38671 -0.016867 -0.021964 -0.0026051 0.00043209
-6.0959e-05 0.0033366 -0.00085416 0.0020301
-0.0013404 -0.0011705 -0.016959 -0.021934 0.27886 0.20697 0.0007828 0.0017441
0.00071981 0.0012463 0.00030938 0.00062545
0.00025354 -0.00095911 -0.0025733 0.00046985 0.0008216 0.0017365 0.067492 0.27347
0.011022 -0.016861 0.0017856 0.0017137
-0.0029499 0.002301 -7.0595e-05 0.0033396 0.00073992 0.0012581 0.011 -0.016941
-0.023733 0.22427 0.014922 -0.013144
0.0010803 0.0021087 -0.00085547 0.0020564 0.00034782 0.00066077 0.0016566 0.0017141
0.014926 -0.013028 -0.020544 0.31596
1280000000 0.16618 0.26973 -0.0069168 -0.029478 -0.0019517 0.0022965 -0.00080802 -0.0022603
-0.00093546 0.0033824 0.0027323 0.0013919
-0.0068881 -0.029433 -0.007559 0.3792 -0.024343 -0.0087286 -0.0010044 0.0014958
0.0019084 0.0019528 0.0007161 0.002149
-0.0019452 0.0022696 -0.024412 -0.0086347 0.31005 0.16367 0.0016764 -1.3808e-05
0.0011756 0.00019035 0.00039324 0.00019901
-0.0008577 -0.0022583 -0.0010254 0.0015213 0.0016613 -6.0384e-05 0.1044 0.25802
0.0012736 -0.01944 -0.0002206 0.00033076
-0.00092434 0.0033755 0.0019349 0.0019065 0.001126 0.00023594 0.0012953 -0.019413
0.012376 0.22884 0.0038113 -0.015974
0.0026982 0.0014856 0.00077165 0.0021525 0.00049475 0.00021889 -0.00019548 0.00031563
0.0038282 -0.01587 0.027301 0.31865
1340000000 0.20387 0.23872 -0.01717 -0.019956 0.00061773 0.0045251 -0.0020426 -0.00097899
0.0015483 0.0028282 0.0020221 -0.0015932
-0.017157 -0.019965 0.032095 0.37267 -0.021848 0.0043588 -0.00015121 0.0021192
0.0020768 0.00077381 0.0012117 0.00078559
0.00060418 0.0045333 -0.021873 0.0044727 0.3325 0.11696 0.00097284 -0.0010124
0.00058956 -0.00047736 -7.9268e-06 0.00012422
-0.0020633 -0.00099468 -0.0001355 0.0021291 0.00095462 -0.0009874 0.13827 0.2388
-0.0084125 -0.016652 0.0010129 0.00078135
0.0015123 0.0028563 0.0020728 0.00078352 0.00056612 -0.00050713 -0.0084292 -0.016569
0.041699 0.22653 -0.0035172 -0.014585
0.0020086 -0.0016103 0.0012113 0.00075305 -5.6705e-06 0.00017099 0.001058 0.00074914
-0.0034991 -0.014733 0.06537 0.31529
1400000000 0.23928 0.20265 -0.023711 -0.0083341 0.0052025 0.0033596 -0.0023513 0.00070325
0.0027018 0.0011439 0.0005326 -0.0016203
-0.023687 -0.0083449 0.071087 0.36085 -0.014924 0.012828 0.0013883 0.0013978
0.0013083 -0.00087382 0.0012087 0.00016573
0.0052258 0.0033371 -0.014893 0.012914 0.34653 0.06393 -3.9259e-05 -0.0016285
8.8335e-05 -0.00038692 0.00041946 0.00029246
-0.0023319 0.00070633 0.0013951 0.0013817 -3.0774e-05 -0.0016435 0.16878 0.21045
-0.014697 -0.0098661 -0.00084801 -5.6858e-05
0.0026834 0.0010911 0.0013352 -0.0008539 3.0308e-05 -0.00041153 -0.014719 -0.0098242
0.075196 0.22432 -0.010623 -0.0095606
0.0005151 -0.0016399 0.001244 0.00017337 0.00044466 0.00032116 -0.00087886 -3.9045e-05
-0.010488 -0.0096378 0.1104 0.30563
1460000000 0.26349 0.1596 -0.020866 0.0044341 0.0057144 -0.0017316 -0.0016152 0.0018796
0.0023219 -0.00032311 -0.00028892 -0.0010691
-0.020848 0.0044091 0.10593 0.33923 -0.0055971 0.015813 0.0017296 0.00022392
0.00092994 -0.0013736 0.0012352 -0.0005772
0.0057503 -0.0017623 -0.0055443 0.015877 0.35338 0.0099165 -0.0012766 -0.001163
0.00016953 -0.00011549 0.00068445 -0.00031038
-0.0016615 0.0018662 0.0017404 0.00021813 -0.0012962 -0.0011632 0.1959 0.18145
-0.015725 -0.0028083 -0.00090748 0.0021372
0.0023453 -0.00037213 0.00094145 -0.0013632 0.00023521 -5.1851e-05 -0.015754 -0.0028491
0.10448 0.21218 -0.012643 -0.0032502
-0.0003783 -0.0010295 0.0012011 -0.00058952 0.00072268 -0.00024575 -0.00085867 0.0021803
-0.012589 -0.0032654 0.14357 0.28586
1520000000 0.27792 0.11897 -0.015168 0.010087 0.0034492 -0.0043543 0.00024904 0.0027964
0.0024078 -0.001968 -0.0012543 -0.00017311
-0.015147 0.010065 0.14025 0.32572 0.002347 0.013019 0.0017118 -0.00072746
4.6439e-05 -0.0010198 0.00038609 -0.0010634
0.0035067 -0.0043583 0.0024432 0.013014 0.34714 -0.045493 -0.0009171 -0.0002159
0.00079511 -0.00088287 0.00012407 -0.00014152
0.0002467 0.0027732 0.0017065 -0.00073545 -0.00093812 -0.00024004 0.2203 0.14352
-0.01497 0.0029371 0.0017149 0.0022707
0.0023859 -0.0019976 1.8205e-05 -0.0010082 0.00078643 -0.00091979 -0.014973 0.0030066
0.13353 0.20106 -0.012502 0.0018021
-0.0012388 -0.00014032 0.0003879 -0.0010074 8.9385e-05 -0.00014407 0.0016999 0.0022525
-0.012599 0.001785 0.17709 0.26714
1580000000 0.28893 0.072738 -0.0083657 0.01353 -0.0009582 -0.0050988 0.0016319 0.0018526
-0.00026278 -0.0023996 -0.00024915 0.00045361
-0.0083817 0.01354 0.16845 0.30081 0.0060054 0.0076337 0.00055444 -0.0015975
-0.00050543 -0.0010529 -0.00020639 -0.00077791
-0.0010055 -0.0050981 0.0060436 0.0076024 0.3282 -0.10334 -0.0014769 0.00041656
-0.00034012 -0.001447 0.00030578 -0.00068748
0.0016544 0.0018318 0.00056264 -0.0015981 -0.0014886 0.00035966 0.23494 0.10373
-0.011192 0.008016 0.0024132 0.00078188
-0.00025311 -0.0023954 -0.00050208 -0.0010656 -0.00028653 -0.0014298 -0.011165 0.0080371
0.15887 0.18488 -0.0098129 0.0079799
-0.00032083 0.00057314 -0.00019039 -0.00081947 0.00033425 -0.00062023 0.0024453 0.00080115
-0.0097351 0.0080107 0.21012 0.24127
1640000000 0.29216 0.031726 -0.0014739 0.012262 -0.0030802 -0.0027599 0.0028768 0.00094393
-0.00074222 -0.0017829 -0.00038099 0.00057861
-0.0014767 0.012269 0.19792 0.27691 0.0061058 0.0024132 -0.00051754 -0.0018842
-0.00086851 -0.00048832 -0.00048733 -0.00074026
-0.0030876 -0.0027012 0.0061276 0.0023916 0.2998 -0.15221 -0.00065408 0.0012954
-0.0011581 -0.0010722 -0.00022131 -0.00046097
0.0028916 0.00097746 -0.00052206 -0.0018643 -0.00065 0.0013401 0.24789 0.054861
-0.00668 0.0090616 0.0027568 -0.00086712
-0.00075493 -0.0017441 -0.00089781 -0.00047936 -0.001112 -0.0011144 -0.0066758 0.0090678
0.18302 0.16298 -0.0047868 0.010147
-0.00031538 0.00053739 -0.00050217 -0.00072595 -0.00031941 -0.00046052 0.0026768 -0.00089634
-0.0048284 0.010086 0.23621 0.21166
1700000000 0.28666 -0.013671 0.0020031 0.009429 -0.0038754 0.00019117 0.0031807 -0.0013192
-0.0021686 -0.00069016 0.00067232 0.00044379
0.0020021 0.0094366 0.21718 0.24549 0.0034186 -0.00070411 -0.0015025 -0.00075874
-0.0007796 -0.0001771 -0.00091837 -0.00049366
-0.0038556 0.00022993 0.0033966 -0.00073448 0.25758 -0.19239 0.00017374 0.001507
-0.0021252 -0.00015721 -0.00050326 -0.00086293
0.0031857 -0.0013552 -0.0015153 -0.00075611 0.00021382 0.0014766 0.24557 0.0044851
-0.0037758 0.0092133 0.0017601 -0.0022919
-0.0021844 -0.00064904 -0.0008011 -0.00017096 -0.0021849 -0.00017062 -0.0037655 0.0093314
0.20254 0.14403 0.00023443 0.010253
0.00062428 0.00045265 -0.00091462 -0.00050363 -0.00048637 -0.00087527 0.0018479 -0.0022899
0.00030317 0.010285 0.25408 0.17829
1760000000 0.27537 -0.062502 0.0042738 0.0060612 -0.0024891 0.0012676 0.0013469 -0.0035976
-0.001317 0.00066824 0.00030152 -0.00057824
0.004247 0.0060653 0.2432 0.20607 0.00054772 -0.0022418 -0.0013214 3.2603e-05
-0.0011324 0.00082146 -0.00064426 0.00036915
-0.0025296 0.0013248 0.000539 -0.0022641 0.20931 -0.22567 0.00098698 0.001204
-0.0012374 0.0015376 -0.0012833 -0.00062192
0.0012908 -0.0036641 -0.0013223 2.4763e-05 0.0010216 0.0012215 0.23644 -0.047667
-0.00059209 0.0081815 -8.3207e-05 -0.0027819
-0.0013176 0.00063904 -0.0011449 0.00079586 -0.0012031 0.0014798 -0.00062778 0.0081102
0.21865 0.11055 0.0045257 0.0076735
0.00030811 -0.00057713 -0.00064594 0.00040773 -0.0014076 -0.00058475 -0.00016937 -0.0027034
0.0044678 0.0077113 0.26797 0.14099
1820000000 0.25237 -0.099964 0.0043433 0.0024757 9.5028e-05 0.0026753 -0.0010661 -0.0031778
-0.001204 0.00096309 -0.00021881 -0.00014385
0.0043429 0.0024754 0.25437 0.1767 -0.0019385 -0.0004258 -0.0015958 0.00095142
-0.00023617 0.0012122 -0.00068805 0.00045607
0.00013627 0.0026335 -0.0019297 -0.00038791 0.15889 -0.24121 0.0015938 0.00063363
-0.00019368 0.0025169 -0.0016984 0.0003941
-0.0010593 -0.0031557 -0.0015578 0.00099967 0.001619 0.00063787 0.20694 -0.095166
0.00074753 0.0066014 -0.0017496 -0.0018458
-0.0012091 0.00096186 -0.00021871 0.001223 -0.00016343 0.0025201 0.00077331 0.0066391
0.23796 0.082774 0.0056096 0.0037944
-0.00027512 -0.00021618 -0.00068564 0.00047914 -0.001671 0.00033886 -0.001699 -0.001885
0.005579 0.0037489 0.27146 0.10568
1880000000 0.21805 -0.14128 0.0019142 0.00039964 -0.00050822 0.002546 -0.0030113 -0.0022312
-0.00026727 0.0016996 8.5039e-05 -0.00064305
0.0019115 0.00036258 0.25894 0.13005 -0.0040611 0.0023073 -0.00031671 0.0019654
0.00043673 0.0014741 0.00011034 0.0010528
-0.00046206 0.0024897 -0.0040918 0.0023404 0.10664 -0.2503 0.0020743 -0.00083707
0.0017757 0.0019518 -0.00090523 0.0016719
-0.0030581 -0.0022739 -0.00030098 0.0019763 0.0021347 -0.00088684 0.16605 -0.13617
0.0011777 0.0044091 -0.0024967 6.6062e-05
-0.00021933 0.0016759 0.0004263 0.0014842 0.0017076 0.0019008 0.0012463 0.0044534
0.24349 0.05158 0.0059565 0.0012511
0.0001324 -0.00065318 7.2879e-05 0.001074 -0.00096332 0.0015259 -0.0027228 0.00011624
0.0059432 0.0013042 0.27252 0.071285
1940000000 0.17932 -0.16707 -0.00023054 -0.0010253 0.0017086 0.0022821 -0.0038909 0.00042617
0.0011396 0.00095811 -0.00076354 -0.00033018
-0.00018073 -0.001035 0.26014 0.0991 -0.002228 0.0054794 0.0011911 0.0015018
0.0019668 0.00065955 0.00089067 0.00032122
0.0018051 0.0022725 -0.0021998 0.0054708 0.062241 -0.24244 0.00072729 -0.0023629
0.0023712 0.00039169 0.00032946 0.0014999
-0.0038799 0.00046903 0.001188 0.0015176 0.00067112 -0.0022954 0.11362 -0.16655
0.00027168 0.0032367 -0.0018545 0.0013404
0.001225 0.00099871 0.0020004 0.00066774 0.0023654 0.00040073 0.00022774 0.0031988
0.24794 0.014226 0.004584 -0.0027559
-0.00067311 -0.00030279 0.00092685 0.00037174 0.0003733 0.0015667 -0.0018594 0.0014049
0.0045891 -0.0027737 0.26255 0.035626
2000000000 0.13406 -0.18266 -0.0038236 0.0011425 0.0030116 0.001435 -0.0024127 0.0038618
0.0010967 0.00053239 -0.00050705 0.00038652
-0.0037329 0.0010947 0.24703 0.063932 -0.00095372 0.0077703 0.0018002 0.00037681
0.0014798 -0.001078 0.00052492 7.3807e-05
0.0031269 0.0014461 -0.00090926 0.0077326 0.01994 -0.22872 -0.0014498 -0.0017125
0.002051 -0.0010794 0.0016099 0.0013746
-0.0024297 0.0038549 0.0018807 0.00036812 -0.0014293 -0.0018061 0.060059 -0.1767
-0.0015455 0.0033537 -0.00028955 0.0024332
0.0010463 0.00050613 0.0014461 -0.0011122 0.0020171 -0.0011525 -0.0015125 0.0031785
0.24473 -0.019031 0.00096633 -0.0037445
