!Keysight Technologies,M9804A,MY58100912,A.14.10.03
!Date: Thursday, April 27, 2023 10:28:33
!Correction: S11(C  6-Port  ) 
!S12(C  6-Port  ) 
!S13(C  6-Port  ) 
!S14(C  6-Port  ) 
!S15(C  6-Port  ) 
!S16(C  6-Port  ) 
!S21(C  6-Port  ) 
!S22(C  6-Port  ) 
!S23(C  6-Port  ) 
!S24(C  6-Port  ) 
!S25(C  6-Port  ) 
!S26(C  6-Port  ) 
!S31(C  6-Port  ) 
!S32(C  6-Port  ) 
!S33(C  6-Port  ) 
!S34(C  6-Port  ) 
!S35(C  6-Port  ) 
!S36(C  6-Port  ) 
!S41(C  6-Port  ) 
!S42(C  6-Port  ) 
!S43(C  6-Port  ) 
!S44(C  6-Port  ) 
!S45(C  6-Port  ) 
!S46(C  6-Port  ) 
!S51(C  6-Port  ) 
!S52(C  6-Port  ) 
!S53(C  6-Port  ) 
!S54(C  6-Port  ) 
!S55(C  6-Port  ) 
!S56(C  6-Port  ) 
!S61(C  6-Port  ) 
!S62(C  6-Port  ) 
!S63(C  6-Port  ) 
!S64(C  6-Port  ) 
!S65(C  6-Port  ) 
!S66(C  6-Port  ) 
!S6P File: Measurement: :
# Hz S  RI   R 50
500000000 -0.33105 -0.06711 -0.010345 -0.00083414 -0.0089083 0.013331 -0.004053 0.011903
0.012765 0.0054506 -0.0043418 0.0075398
-0.010388 -0.00081696 -0.41171 -0.07593 0.0082655 -0.010215 0.00091235 0.012412
0.0081681 0.0027421 0.0010645 0.013586
-0.0089393 0.013545 0.0083055 -0.010238 -0.26517 0.19011 0.0067474 0.0034279
-0.0024108 0.0093196 0.00010374 0.011716
-0.0038684 0.01196 0.00088492 0.012411 0.0067563 0.0034162 -0.33031 0.037508
-0.020214 -0.0044535 0.016603 0.027132
0.012742 0.0054837 0.0081852 0.0027584 -0.0024119 0.0091989 -0.020238 -0.004495
-0.23155 -0.21903 -0.027416 0.0044658
-0.003916 0.007979 0.0011438 0.013829 0.00016112 0.011613 0.016234 0.02719
-0.027388 0.0050748 -0.26484 -0.14311
560000000 -0.32113 0.10175 -0.021203 -0.067211 -0.00018541 0.014178 0.0048773 0.012241
0.010708 0.0049969 0.01035 0.0098627
-0.021099 -0.067083 -0.37335 0.091498 -0.041448 -0.039328 0.014079 0.0039704
-0.013114 -0.0043488 0.004051 -0.0013765
-9.3214e-05 0.014021 -0.041559 -0.0394 -0.18684 0.24316 -0.00031401 -0.0053527
0.018706 0.0073564 0.007763 -0.0060091
0.0049143 0.012227 0.014031 0.0040266 -0.00021604 -0.0052694 -0.30723 0.1303
0.005586 -0.023181 0.0053782 -0.021785
0.010845 0.0049228 -0.013041 -0.0044311 0.018661 0.0071861 0.0055425 -0.023206
-0.3094 -0.034412 0.010314 -0.051856
0.0099842 0.0095374 0.0035876 -0.0011444 0.0077321 -0.0060574 0.0050993 -0.02173
0.010333 -0.052009 -0.33226 0.0083777
620000000 -0.27877 0.081158 -0.023324 0.009453 0.0038759 0.0093475 0.008226 -0.0038553
0.012168 -0.0021062 -0.00032207 -0.0016795
-0.023305 0.0094713 -0.40236 0.036951 -0.01819 0.00044558 -0.0015936 -0.0020252
0.013134 -0.0055929 0.00094192 -0.0031621
0.0040865 0.0092905 -0.018155 0.00045872 -0.1579 0.25231 -0.00066627 -0.0050221
-0.0028084 -0.0028323 0.0095458 -0.0031736
0.0083037 -0.0036117 -0.0015378 -0.0020314 -0.00066584 -0.0051305 -0.26443 0.14054
-0.039573 -0.019606 0.013836 0.029068
0.012537 -0.0021367 0.013126 -0.0056272 -0.0028893 -0.0027745 -0.039541 -0.019518
-0.22416 -0.075755 -0.043708 0.012992
-0.00010181 -0.0020503 0.0011016 -0.0032933 0.0094948 -0.0032204 0.013971 0.029199
-0.043505 0.012909 -0.24718 -0.028494
680000000 -0.24449 0.17539 -0.026127 -0.014821 0.0049973 0.0056547 0.0017824 -0.0073162
-0.0013272 -0.011244 0.0063362 -0.0072983
-0.026058 -0.014764 -0.39154 0.13919 -0.03216 -0.0028182 -0.0014429 -0.0001943
-0.0014396 -0.0095607 -0.00089375 -0.0020808
0.0050292 0.0055549 -0.032256 -0.0026777 -0.10769 0.27443 -0.00079714 -0.00027444
-0.0014087 0.00029695 -0.0025646 -0.0092104
0.001825 -0.0073856 -0.0014843 -0.00017302 -0.00077404 -0.00027565 -0.22113 0.19215
-0.023499 -0.0073985 -0.0095347 -0.011723
-0.0014932 -0.01131 -0.0014636 -0.0096055 -0.0013715 0.00026601 -0.023528 -0.0074389
-0.28247 0.031599 -0.0059422 -0.007543
0.0066495 -0.007529 -0.00068572 -0.0020747 -0.0025423 -0.0092051 -0.010013 -0.011628
-0.0057299 -0.0075822 -0.26366 0.07672
740000000 -0.19683 0.16897 -0.040683 0.027036 0.0142 -0.0042899 0.00032387 -0.0041738
-0.0049365 -0.0026825 -0.0064907 0.0026018
-0.040658 0.027079 -0.33651 0.15777 -0.037697 0.034804 0.00049572 -0.0063192
-0.013444 0.0070178 -0.0010411 -0.0060747
0.014105 -0.0045037 -0.037613 0.034986 -0.074441 0.27242 -0.0022147 0.0034488
-0.0017393 -0.006137 -0.0017924 0.0010126
0.00036567 -0.0042625 0.0005287 -0.0063788 -0.0022354 0.0034847 -0.20433 0.20001
-0.042784 -0.0097247 0.023215 0.017085
-0.0049278 -0.0026837 -0.013404 0.0071065 -0.0016865 -0.0059736 -0.042776 -0.0096013
-0.18046 0.063148 -0.042312 -7.6351e-05
-0.0064254 0.0024558 -0.00080914 -0.0062414 -0.0018383 0.0010074 0.023521 0.016692
-0.043046 -0.00038535 -0.25323 0.085016
800000000 -0.16625 0.21458 -0.022296 0.015866 0.0060619 -0.010491 -0.0045004 -0.0026438
-0.0044944 0.0014705 0.0043862 0.0002171
-0.022351 0.015821 -0.34485 0.22942 -0.0092328 0.03407 -0.0021795 0.0018539
-0.0010357 0.0023083 0.00094426 0.0052838
0.0060447 -0.010537 -0.009144 0.034187 -0.036 0.29793 0.0008255 0.0013394
2.489e-05 0.0032949 -0.0017095 0.00071788
-0.0046204 -0.002727 -0.0022134 0.00189 0.00080278 0.0013252 -0.17534 0.2277
-0.028469 0.012666 0.014716 -0.010528
-0.0047283 0.0015986 -0.0010152 0.0023565 -6.506e-05 0.0033624 -0.028521 0.012661
-0.22863 0.088724 -0.017692 0.02026
0.0041199 0.00043918 0.00091054 0.0055965 -0.0017088 0.0007414 0.014549 -0.010267
-0.017298 0.020252 -0.24751 0.13521
860000000 -0.13206 0.23436 -0.018445 0.030044 -0.0028345 -0.010463 -0.0018618 0.00017124
0.0035958 0.005017 -0.0035443 -0.0030403
-0.018475 0.03001 -0.29802 0.27359 0.006728 0.034744 1.6584e-05 0.0021176
0.0030449 0.0007974 0.0032948 0.00061545
-0.0029133 -0.010462 0.0068394 0.034765 0.010947 0.30754 -0.00056208 -0.00023281
0.0022726 -0.0015544 0.0015498 0.0040637
-0.0017903 0.00016395 1.7045e-05 0.0021263 -0.00054042 -0.00025623 -0.13895 0.23849
-0.018079 0.017336 -0.0064614 -0.0088593
0.0037496 0.0049771 0.0030667 0.00080261 0.0023178 -0.0016125 -0.018112 0.017443
-0.17225 0.14355 -0.025624 0.016528
-0.0039273 -0.0032376 0.0031292 0.00060383 0.0015417 0.0040517 -0.0064719 -0.0090435
-0.025522 0.016347 -0.19658 0.18165
920000000 -0.1096 0.25806 0.0041693 0.038748 -0.0093984 -0.0053187 -0.0022387 0.0015994
0.00068497 0.0019335 0.002996 -0.0012181
0.0041246 0.038771 -0.27128 0.29549 0.027903 0.023424 0.0012443 0.001131
0.0076396 0.00010102 0.0041336 -0.0030536
-0.0093874 -0.0053189 0.027979 0.023366 0.056532 0.31019 0.0018237 -5.4774e-05
0.00073214 -0.00011302 0.00085078 -0.0017647
-0.0022091 0.0016622 0.0012319 0.0011243 0.0018578 -6.3404e-05 -0.1149 0.25577
-0.011968 0.030512 0.004262 -0.0069368
0.00069044 0.0020545 0.0076514 6.9684e-05 0.0007335 -0.00010491 -0.012011 0.030495
-0.16398 0.14926 -0.0020963 0.027788
0.0031465 -0.001164 0.0040933 -0.0031171 0.00086127 -0.0017557 0.0042705 -0.0069668
-0.001906 0.027846 -0.20588 0.19498
980000000 -0.063865 0.27938 0.015778 0.030641 -0.0098501 0.0043082 0.0013893 0.003888
0.003956 -0.0011866 -0.0034022 -0.0025481
0.015701 0.030597 -0.21956 0.33197 0.033292 0.0061436 0.0020105 1.0151e-05
0.0018331 -0.0059201 -0.00024526 -0.0028168
-0.0098688 0.0043148 0.033365 0.006007 0.10264 0.30503 0.00069853 -0.0011048
0.00049858 -0.001712 0.0012578 -0.00037066
0.0014317 0.0038344 0.0019866 -1.6272e-06 0.00067783 -0.0011029 -0.077595 0.26646
0.0067839 0.029588 -0.009805 -0.0078273
0.0039058 -0.0012427 0.0018074 -0.0059208 0.00051912 -0.0017194 0.0068737 0.029604
-0.13114 0.18199 0.0053882 0.020048
-0.0032958 -0.0026324 -0.00013775 -0.0027161 0.0012719 -0.00036034 -0.009749 -0.0077544
0.0054857 0.019838 -0.16445 0.24154
1040000000 -0.023706 0.2894 0.032846 0.020226 -0.0017103 0.0073416 0.002457 0.00094698
0.00048341 -0.0033962 -0.00013766 -0.0015531
0.032787 0.020223 -0.18505 0.34656 0.030433 -0.013965 0.0016724 -0.0016487
-0.002211 -0.0024315 -0.0012305 -0.0030303
-0.0016841 0.0073359 0.030416 -0.014111 0.14863 0.29336 -0.00042893 -0.0015962
-0.0015318 -0.00086371 -0.00061152 -0.0010419
0.0024522 0.0009972 0.0016703 -0.0016376 -0.00043122 -0.0016131 -0.050832 0.27687
0.018694 0.019215 -0.0022418 0.00099364
0.00048869 -0.0034613 -0.0022117 -0.0024706 -0.0015244 -0.00085482 0.018748 0.019162
-0.098349 0.19005 0.013906 0.019023
-0.00015789 -0.0014507 -0.0011756 -0.002957 -0.00062656 -0.0010308 -0.0022844 0.0010203
0.014071 0.019188 -0.1432 0.2633
1100000000 0.021096 0.29944 0.036769 -0.0025756 0.003009 0.0043277 0.0024458 -0.00084222
-0.0021056 -0.0031729 -0.0041926 -0.00028801
0.036745 -0.0025457 -0.14163 0.36589 0.016363 -0.027889 3.9685e-05 -0.0018662
-0.0037147 -0.0012022 -0.0037211 -0.0007161
0.0030176 0.0043503 0.016273 -0.028001 0.19548 0.27453 -0.0019267 0.00019977
-0.0018443 0.00062949 -0.0011559 -0.00034692
0.0024554 -0.00085343 3.0392e-05 -0.0018605 -0.0019171 0.00018893 -0.010934 0.28226
0.0247 0.0061218 -0.0027822 -0.00030377
-0.0021554 -0.0031716 -0.0037299 -0.0011764 -0.0018344 0.00061986 0.024746 0.006126
-0.079498 0.20433 0.020016 0.0092081
-0.0042468 -0.00024532 -0.0037556 -0.00066995 -0.0011462 -0.0003624 -0.0027355 -0.00042203
0.020007 0.0092104 -0.097763 0.2936
1160000000 0.071575 0.29684 0.025384 -0.020027 0.0031544 -0.00042469 -9.3397e-05 -0.0023816
-0.0041709 -0.0009535 -0.0012129 0.0042553
0.025376 -0.019978 -0.098801 0.37166 -0.0030267 -0.029562 -0.0015941 -0.0017795
-0.0028382 0.0026362 -0.0017072 0.001921
0.0031386 -0.00044687 -0.0031685 -0.029616 0.23888 0.24492 -0.0007849 0.0018064
-0.00048209 0.0019031 -0.0010554 0.00043714
-9.5785e-05 -0.0023379 -0.0015949 -0.0017699 -0.00076596 0.0017912 0.027484 0.28023
0.02144 -0.010145 -0.003813 0.0052062
-0.0041677 -0.00099705 -0.0027969 0.002619 -0.00047655 0.0018858 0.021398 -0.010193
-0.045697 0.21367 0.01935 2.6133e-05
-0.0012243 0.0043355 -0.0017047 0.0019223 -0.0010665 0.0004051 -0.0037101 0.0052225
0.019115 0.00013474 -0.050997 0.29801
1220000000 0.11533 0.28899 0.012127 -0.030227 -0.001325 -0.001132 0.00027906 -0.00096633
-0.0028885 0.002319 0.0011728 0.0022798
0.01213 -0.030178 -0.054423 0.3867 -0.016846 -0.021957 -0.0026322 0.00045274
1.4048e-05 0.003277 -0.00083155 0.0020117
-0.0013124 -0.0011191 -0.016954 -0.021933 0.27874 0.20706 0.00088002 0.0017692
0.00073708 0.0012124 0.00027494 0.00057172
0.00027216 -0.0010136 -0.0026407 0.00046469 0.00085978 0.0017774 0.067276 0.2735
0.010984 -0.016828 0.0018917 0.0017592
-0.0029135 0.0023389 1.7103e-05 0.0032845 0.00073277 0.001204 0.010964 -0.01687
-0.02385 0.2243 0.014903 -0.012872
0.0011879 0.0022141 -0.00077751 0.0020174 0.00027757 0.00057918 0.0017758 0.0017571
0.014922 -0.012972 -0.020442 0.31566
1280000000 0.16606 0.26968 -0.0069321 -0.029453 -0.0019467 0.0022719 -0.00086815 -0.0023094
-0.00084882 0.0033121 0.002676 0.0014574
-0.0068871 -0.029414 -0.0076989 0.37917 -0.024343 -0.0087692 -0.0010245 0.0014898
0.0018441 0.0019018 0.00075436 0.0021838
-0.0019446 0.0023059 -0.024438 -0.0086619 0.30994 0.1637 0.0016661 -6.9181e-05
0.0011735 0.00019902 0.00048388 0.00030001
-0.00088656 -0.0023022 -0.0010087 0.0014922 0.0016486 -7.0396e-05 0.10429 0.25805
0.0013962 -0.019353 -0.00037759 0.00046751
-0.00082022 0.0033664 0.0018767 0.0019015 0.0011842 0.00019306 0.0014029 -0.019374
0.012378 0.229 0.0036498 -0.015961
0.0027349 0.0013988 0.0007465 0.0021223 0.00048259 0.00030211 -0.00038443 0.00039336
0.0036926 -0.015987 0.027462 0.31888
1340000000 0.2037 0.23878 -0.017178 -0.019899 0.00063656 0.0045463 -0.0020014 -0.00099201
0.0015032 0.002817 0.0019783 -0.0015087
-0.017139 -0.019899 0.03192 0.37272 -0.021831 0.0044198 -0.00014801 0.0020992
0.0020823 0.00075838 0.0012545 0.00081323
0.00064348 0.0045539 -0.021839 0.0045217 0.33238 0.11707 0.0010372 -0.0010027
0.00058765 -0.00053439 1.8913e-05 0.00018309
-0.0020049 -0.0010052 -0.00013652 0.0021137 0.0010139 -0.0010124 0.13799 0.23886
-0.0082633 -0.016591 0.0010357 0.00065305
0.001506 0.0028551 0.0021007 0.00074268 0.00058152 -0.0005389 -0.0083065 -0.016584
0.04165 0.22656 -0.0035375 -0.01453
0.0019288 -0.0015745 0.0012396 0.00080039 1.7799e-05 0.0001661 0.0010619 0.00069126
-0.0035549 -0.014475 0.065134 0.31524
1400000000 0.23913 0.20273 -0.023723 -0.008301 0.0052227 0.0033633 -0.0023626 0.00070197
0.0027384 0.001122 0.00043895 -0.0017019
-0.023682 -0.0083072 0.070985 0.36078 -0.014957 0.012836 0.001373 0.0013635
0.0013034 -0.00084338 0.0012422 0.00014866
0.0052239 0.0033389 -0.0149 0.01292 0.34642 0.064032 -4.2836e-05 -0.0016448
8.7331e-05 -0.00035924 0.0004343 0.0003517
-0.002373 0.00073046 0.0013827 0.001357 -2.2257e-05 -0.0016224 0.1686 0.21054
-0.014552 -0.009899 -0.00088528 -4.8431e-05
0.0027269 0.0011218 0.0012952 -0.0008435 6.741e-05 -0.00036015 -0.014573 -0.0098645
0.075271 0.22447 -0.010562 -0.0095446
0.00047587 -0.0016783 0.001234 0.00015038 0.00043319 0.00034439 -0.00085116 -3.2718e-06
-0.010518 -0.009628 0.11045 0.30565
1460000000 0.26328 0.15982 -0.020804 0.0044134 0.0057555 -0.0017331 -0.0016206 0.0019031
0.0023203 -0.00031465 -0.00025763 -0.0011476
-0.020802 0.004388 0.10574 0.33925 -0.0055842 0.015858 0.0017374 0.00020769
0.00090446 -0.0013822 0.0012053 -0.0005686
0.0057503 -0.0017664 -0.0055001 0.015921 0.35324 0.010023 -0.0012628 -0.001162
0.00018343 -9.146e-05 0.00067327 -0.00024261
-0.0016068 0.0019158 0.0017424 0.00019192 -0.0012779 -0.0011593 0.19578 0.18161
-0.015687 -0.0029421 -0.00080005 0.0021155
0.0023249 -0.00030651 0.00089422 -0.0013911 0.00019545 -7.2139e-05 -0.015681 -0.002902
0.10449 0.21231 -0.012526 -0.0030614
-0.00031839 -0.0011292 0.0012177 -0.00059028 0.00068986 -0.00026768 -0.00087474 0.0020638
-0.012534 -0.0030698 0.14356 0.2857
1520000000 0.27779 0.1192 -0.015125 0.010108 0.0034979 -0.0043399 0.00024384 0.0027542
0.0024272 -0.0019624 -0.0011717 -0.00017782
-0.015116 0.010083 0.14012 0.32574 0.0023727 0.013007 0.0017047 -0.00071299
5.3567e-05 -0.00097583 0.00037721 -0.0010498
0.0034711 -0.0043802 0.0024391 0.013019 0.34707 -0.045256 -0.00094358 -0.00023775
0.00084898 -0.0009282 0.00010268 -0.00015811
0.00025508 0.0027485 0.0017057 -0.00072121 -0.00095086 -0.00023637 0.22019 0.14371
-0.014978 0.002822 0.0016589 0.0022625
0.0024058 -0.0019929 4.7249e-05 -0.00097907 0.00084999 -0.00091478 -0.014993 0.0028508
0.13351 0.20113 -0.012446 0.0019135
-0.0011528 -0.00012989 0.00037357 -0.0010581 0.00010215 -0.0001494 0.0017098 0.0023122
-0.012458 0.0019067 0.17726 0.26727
1580000000 0.28886 0.072957 -0.0083575 0.013502 -0.0009455 -0.0051243 0.001622 0.0018389
-0.00024497 -0.0024198 -0.00032036 0.00049086
-0.0083551 0.01348 0.16827 0.30079 0.0059894 0.007617 0.00055122 -0.0015831
-0.00048901 -0.0010575 -0.00018888 -0.00078472
-0.00096302 -0.0051459 0.0060373 0.0076069 0.32829 -0.10338 -0.0015022 0.00045863
-0.00036352 -0.0013918 0.00037101 -0.0005933
0.0016255 0.0018556 0.00055137 -0.0015891 -0.0014998 0.0004301 0.235 0.10393
-0.01118 0.007925 0.0024934 0.00074992
-0.00026315 -0.0024064 -0.00049951 -0.0010536 -0.00035288 -0.0013922 -0.011149 0.0079647
0.15914 0.18502 -0.0096499 0.0080557
-0.00031525 0.00047092 -0.00019707 -0.00080425 0.00034677 -0.00059506 0.0024711 0.00074168
-0.0096786 0.0080805 0.21019 0.24136
1640000000 0.29206 0.031874 -0.0014458 0.01226 -0.0031093 -0.0027704 0.0028721 0.00096178
-0.00079342 -0.0017547 -0.00031839 0.00055347
-0.0014528 0.012253 0.19774 0.27692 0.0060906 0.0023995 -0.00051165 -0.0018912
-0.00085973 -0.00050028 -0.00050045 -0.00074574
-0.0031209 -0.0027418 0.0061157 0.0023801 0.29966 -0.15193 -0.00064229 0.00129
-0.0011135 -0.0011233 -0.00017218 -0.00039292
0.0028583 0.00091844 -0.00050915 -0.0018863 -0.00064665 0.0012461 0.24786 0.054968
-0.0068592 0.0089392 0.0026701 -0.00082288
-0.00080661 -0.0017734 -0.00086243 -0.00049237 -0.0011529 -0.0011529 -0.0068169 0.0089543
0.18318 0.16303 -0.0046375 0.010153
-0.00030037 0.00055535 -0.00049306 -0.00073264 -0.00017495 -0.0004158 0.002637 -0.00082306
-0.0046345 0.01017 0.2361 0.21183
1700000000 0.28677 -0.013442 0.0019819 0.009399 -0.0039168 0.00014098 0.0031271 -0.0013011
-0.0021904 -0.00069339 0.00067117 0.00042027
0.0019739 0.0093988 0.21699 0.24554 0.003403 -0.00068742 -0.0015227 -0.00077866
-0.00080423 -0.00019687 -0.00087575 -0.00048409
-0.0039314 0.00016076 0.0034112 -0.00071833 0.25765 -0.19228 0.00016182 0.0014999
-0.0021449 -0.00015096 -0.00044258 -0.00086387
0.0031386 -0.0012992 -0.0015324 -0.00076679 0.00017026 0.0014589 0.24552 0.0045254
-0.003915 0.0092557 0.0018059 -0.0023196
-0.0021891 -0.00065428 -0.00080819 -0.00019471 -0.0021341 -0.00014716 -0.0039051 0.0093061
0.20275 0.14402 0.00037027 0.010317
0.00069994 0.00034814 -0.00088981 -0.00046267 -0.00046374 -0.00084913 0.0018403 -0.0023214
0.00035323 0.010341 0.25431 0.17819
1760000000 0.2754 -0.06242 0.0042848 0.0060273 -0.0024609 0.0012702 0.0013084 -0.0035534
-0.0013276 0.0006714 0.00029006 -0.00056099
0.0042682 0.0060351 0.24298 0.20611 0.00055558 -0.0022536 -0.0013369 2.1454e-05
-0.0011857 0.00078567 -0.00067985 0.00038884
-0.0024919 0.0012797 0.00053499 -0.0022669 0.20942 -0.22555 0.00093891 0.0011541
-0.001249 0.0014898 -0.0013727 -0.00060469
0.0012843 -0.0036061 -0.0013411 1.9555e-05 0.00092907 0.0011697 0.23648 -0.047711
-0.00070049 0.00814 -0.00011999 -0.0026943
-0.0013462 0.00064961 -0.0011698 0.00079781 -0.0012339 0.0014902 -0.00065862 0.0081545
0.21888 0.11043 0.0045891 0.0075642
0.00031802 -0.00052441 -0.00068261 0.00038565 -0.0013645 -0.00059389 -0.00020323 -0.0027348
0.0045846 0.0075927 0.26781 0.14108
1820000000 0.25244 -0.099696 0.0043221 0.0024865 0.00010177 0.002716 -0.0010479 -0.0031866
-0.0011961 0.00093093 -0.00021244 -0.00017641
0.004308 0.0024796 0.25422 0.17681 -0.0018981 -0.00040722 -0.001579 0.00095608
-0.00023048 0.0012102 -0.00067082 0.00048258
0.00011827 0.002667 -0.0018993 -0.00042206 0.15909 -0.24098 0.0015549 0.00058955
-0.00017234 0.0024835 -0.0016173 0.00039644
-0.0010861 -0.0031537 -0.0015711 0.00096583 0.0016402 0.00051113 0.20682 -0.095172
0.00063233 0.0066418 -0.0017707 -0.0019325
-0.0011854 0.00098028 -0.00022771 0.001207 -0.00012141 0.0024385 0.00061858 0.0066741
0.23813 0.082639 0.0056544 0.0036214
-0.00022458 -0.00019922 -0.00068008 0.00048786 -0.0016182 0.00040871 -0.0017062 -0.0018855
0.0056636 0.0036309 0.27142 0.10554
1880000000 0.21807 -0.14118 0.0018917 0.00039179 -0.00048888 0.0025381 -0.0030572 -0.0022866
-0.00030232 0.0017044 0.00012482 -0.00065949
0.0018752 0.00038571 0.25882 0.13015 -0.0040902 0.0022909 -0.00030421 0.001885
0.00041571 0.0014518 0.00011665 0.0010252
-0.00044886 0.0025659 -0.0040806 0.0023336 0.1068 -0.25022 0.0020289 -0.00089563
0.001667 0.0019364 -0.00086728 0.0014974
-0.0030338 -0.0023076 -0.0003129 0.0018897 0.0020134 -0.00089573 0.16605 -0.13601
0.0012602 0.0045981 -0.0025912 0.00015512
-0.0002843 0.00168 0.00043234 0.0014638 0.0016478 0.0019342 0.0012514 0.0045293
0.24353 0.051405 0.0060907 0.0011889
0.0001191 -0.00056092 0.00011501 0.0010701 -0.00086989 0.0015014 -0.0026785 7.0902e-05
0.0060547 0.0011132 0.27289 0.071093
1940000000 0.17925 -0.16698 -0.00024763 -0.001011 0.0017723 0.0023495 -0.0038063 0.00037738
0.0012166 0.00097845 -0.00064483 -0.00031652
-0.00026274 -0.0010187 0.26004 0.099246 -0.0022151 0.0054789 0.0011917 0.0015188
0.0020192 0.00072802 0.00090404 0.00039389
0.0017681 0.0023372 -0.0021951 0.0054898 0.062322 -0.24239 0.00075622 -0.0023169
0.0024366 0.00046955 0.00035457 0.0015199
-0.0038013 0.00045533 0.0012024 0.0015293 0.00075748 -0.0023387 0.11346 -0.16638
0.00018609 0.0033211 -0.0018421 0.0013401
0.001237 0.00097118 0.0020376 0.00070918 0.0024506 0.00043728 0.00020722 0.0033595
0.24789 0.01401 0.0044361 -0.002834
-0.0006793 -0.0002973 0.0008809 0.00040144 0.00033808 0.001539 -0.0017736 0.0014939
0.0044567 -0.0027752 0.26242 0.03573
2000000000 0.13412 -0.1826 -0.0038132 0.0011053 0.0030514 0.0014683 -0.0023905 0.0039215
0.00097515 0.00055121 -0.00064341 0.00043067
-0.0038182 0.0011331 0.24697 0.064075 -0.00099954 0.0077624 0.0017509 0.000404
0.0014229 -0.0011377 0.00052047 4.1386e-05
0.0030779 0.0014794 -0.00093536 0.0077775 0.020019 -0.22866 -0.0014513 -0.0016699
0.0019968 -0.0011417 0.0015214 0.0014567
-0.0023864 0.0039143 0.0017544 0.00038184 -0.0014998 -0.0017007 0.060045 -0.17635
-0.0015041 0.0034103 -0.0004424 0.0023612
0.00098093 0.00052556 0.0014079 -0.0011414 0.0020034 -0.0011291 -0.0015176 0.0033814
0.24472 -0.019256 0.00089985 -0.0039306
