!Keysight Technologies,M9804A,MY58100912,A.14.10.03
!Date: Thursday, April 27, 2023 10:28:33
!Correction: S11(C  6-Port  ) 
!S12(C  6-Port  ) 
!S13(C  6-Port  ) 
!S14(C  6-Port  ) 
!S15(C  6-Port  ) 
!S16(C  6-Port  ) 
!S21(C  6-Port  ) 
!S22(C  6-Port  ) 
!S23(C  6-Port  ) 
!S24(C  6-Port  ) 
!S25(C  6-Port  ) 
!S26(C  6-Port  ) 
!S31(C  6-Port  ) 
!S32(C  6-Port  ) 
!S33(C  6-Port  ) 
!S34(C  6-Port  ) 
!S35(C  6-Port  ) 
!S36(C  6-Port  ) 
!S41(C  6-Port  ) 
!S42(C  6-Port  ) 
!S43(C  6-Port  ) 
!S44(C  6-Port  ) 
!S45(C  6-Port  ) 
!S46(C  6-Port  ) 
!S51(C  6-Port  ) 
!S52(C  6-Port  ) 
!S53(C  6-Port  ) 
!S54(C  6-Port  ) 
!S55(C  6-Port  ) 
!S56(C  6-Port  ) 
!S61(C  6-Port  ) 
!S62(C  6-Port  ) 
!S63(C  6-Port  ) 
!S64(C  6-Port  ) 
!S65(C  6-Port  ) 
!S66(C  6-Port  ) 
!S6P File: Measurement: :
# Hz S  RI   R 50
500000000 -0.33068 -0.066454 -0.010177 -0.00073896 -0.0089573 0.013465 -0.003998 0.012014
0.013227 0.0056707 -0.0033403 0.0083633
-0.010158 -0.00084536 -0.41175 -0.075528 0.0082033 -0.010178 0.00092664 0.012894
0.0086669 0.0029964 0.0013448 0.013842
-0.0089891 0.013444 0.0081487 -0.010238 -0.26506 0.19012 0.0066377 0.0037327
-0.0021594 0.0088635 0.00025691 0.011569
-0.0040286 0.011981 0.00094774 0.012916 0.0066494 0.0036957 -0.32903 0.037814
-0.020201 -0.0042599 0.016791 0.02698
0.013308 0.0052554 0.0085126 0.0028898 -0.0023148 0.00894 -0.020426 -0.0043848
-0.23201 -0.21849 -0.028536 0.0057926
-0.00395 0.0079353 0.0013762 0.014732 0.00037353 0.011962 0.018448 0.028019
-0.028358 0.005097 -0.26424 -0.14325
560000000 -0.32121 0.10067 -0.021065 -0.066565 -0.0002952 0.014181 0.00429 0.012537
0.010948 0.0049619 0.010553 0.0091299
-0.021121 -0.066352 -0.37312 0.091536 -0.041313 -0.039321 0.014214 0.0044645
-0.012829 -0.0045845 0.0037083 -0.00075075
-0.00029663 0.014319 -0.041467 -0.039388 -0.18677 0.24311 -0.00036326 -0.0053488
0.018252 0.0078158 0.0072938 -0.0062492
0.0045489 0.012338 0.014253 0.0044384 -0.00032362 -0.0053069 -0.30716 0.1312
0.0055975 -0.023767 0.00468 -0.021553
0.011179 0.004545 -0.01259 -0.0045475 0.018307 0.0074039 0.0059403 -0.023457
-0.31054 -0.035624 0.011762 -0.05176
0.010895 0.0092524 0.0038312 -0.00013576 0.007351 -0.0062881 0.0044688 -0.021043
0.011554 -0.051312 -0.33343 0.0091334
620000000 -0.27868 0.080346 -0.023326 0.0095164 0.0039512 0.0091392 0.0079138 -0.0039697
0.01274 -0.0014792 0.0004103 -0.0019479
-0.023319 0.0094207 -0.40231 0.037102 -0.018153 0.00045813 -0.0016303 -0.0020567
0.013195 -0.0053125 0.0014389 -0.0033613
0.0040151 0.0090472 -0.018189 0.00049811 -0.15799 0.25243 -0.00080986 -0.0049215
-0.0021162 -0.0025783 0.009168 -0.0034102
0.0077342 -0.0041553 -0.001644 -0.0019999 -0.00081142 -0.0049349 -0.2641 0.14121
-0.039487 -0.020012 0.013379 0.028853
0.012953 -0.0012467 0.013424 -0.0055406 -0.0022468 -0.0030879 -0.039963 -0.020378
-0.2243 -0.074803 -0.042196 0.012563
-0.00068666 -0.0022612 0.001067 -0.0030806 0.0090476 -0.0031271 0.013575 0.029432
-0.042305 0.013167 -0.24697 -0.030773
680000000 -0.2447 0.17593 -0.025995 -0.014676 0.0051879 0.0057073 0.0019522 -0.0070924
-0.0016701 -0.011896 0.0063657 -0.0069108
-0.025919 -0.014671 -0.39145 0.13941 -0.032224 -0.0027126 -0.0015203 -0.00051764
-0.0013338 -0.0097879 -0.00049899 -0.0022138
0.0051928 0.0056959 -0.032262 -0.0026404 -0.10765 0.27442 -0.00072774 -0.00045017
-0.001241 0.00027704 -0.0025209 -0.0095912
0.0019129 -0.0072081 -0.0015005 -0.000518 -0.00073227 -0.000432 -0.22116 0.19309
-0.023696 -0.0070183 -0.0092716 -0.01132
-0.0013173 -0.011912 -0.001261 -0.0098246 -0.0012432 0.00021684 -0.023634 -0.0073568
-0.28258 0.031922 -0.0063519 -0.0079104
0.0066929 -0.0072521 -0.00050218 -0.0021134 -0.0024549 -0.0094883 -0.0096891 -0.011495
-0.006779 -0.0075963 -0.26274 0.0789
740000000 -0.19704 0.16882 -0.04069 0.027236 0.014027 -0.0044951 9.3097e-05 -0.004222
-0.0047392 -0.0030423 -0.0059815 0.002308
-0.04072 0.027259 -0.33694 0.15822 -0.037829 0.034555 0.00024691 -0.0061667
-0.012947 0.0069363 -0.0016103 -0.0059697
0.01399 -0.0045249 -0.037768 0.034728 -0.07418 0.27238 -0.0023908 0.0032097
-0.0016326 -0.0056652 -0.0015953 0.00081874
-1.5919e-05 -0.0042799 0.0001996 -0.0061577 -0.0023982 0.0032183 -0.20475 0.19986
-0.042378 -0.0099891 0.022881 0.016176
-0.0045864 -0.0030162 -0.012986 0.0069856 -0.0015524 -0.0058234 -0.042544 -0.010206
-0.18194 0.0643 -0.042454 -0.0011415
-0.0063639 0.0025198 -0.0012326 -0.0059101 -0.0017854 0.00080879 0.02294 0.016543
-0.042664 -0.0011743 -0.25393 0.084933
800000000 -0.16619 0.21453 -0.02245 0.015884 0.006033 -0.010658 -0.0043311 -0.0027108
-0.0047858 0.0015164 0.004036 0.00041865
-0.022479 0.015868 -0.34485 0.22946 -0.0092931 0.03403 -0.0022653 0.0019951
-0.0011086 0.0023119 0.00050827 0.0053487
0.0059604 -0.01069 -0.0091853 0.034094 -0.036027 0.29789 0.00091432 0.001314
-0.00010738 0.0032058 -0.001613 0.00064142
-0.0042563 -0.0026144 -0.0022679 0.0019904 0.00091044 0.0013253 -0.17536 0.22765
-0.028323 0.012899 0.014661 -0.010127
-0.0047104 0.0015997 -0.0010289 0.0023326 -8.2487e-05 0.0032075 -0.02815 0.012964
-0.22933 0.088461 -0.017371 0.020815
0.003998 0.0004967 0.00051143 0.0053246 -0.0016623 0.00068253 0.014641 -0.0105
-0.017441 0.020872 -0.24808 0.13601
860000000 -0.13238 0.23436 -0.018464 0.030034 -0.0028702 -0.010423 -0.0019436 0.00023916
0.0034908 0.0049857 -0.0035602 -0.0035365
-0.018556 0.029883 -0.2981 0.27356 0.0067068 0.034709 9.0316e-05 0.0020982
0.0030421 0.00094417 0.0036297 -0.0001108
-0.0029127 -0.010439 0.0068278 0.034732 0.010988 0.30759 -0.00060618 -0.00025167
0.0022289 -0.0015066 0.0016211 0.0040439
-0.0019814 0.00023199 8.9627e-05 0.0021264 -0.00060713 -0.0002441 -0.13896 0.23837
-0.018068 0.017465 -0.0068729 -0.0092142
0.0035137 0.0050155 0.0029958 0.00094153 0.0022344 -0.0014583 -0.01803 0.017697
-0.17236 0.14347 -0.026112 0.016431
-0.0035589 -0.0032683 0.0035469 0.00015485 0.0015352 0.0040526 -0.0068084 -0.0090132
-0.025849 0.016496 -0.1952 0.18001
920000000 -0.10947 0.25814 0.0041066 0.038787 -0.0093661 -0.0052811 -0.002158 0.0015344
0.00082325 0.0018541 0.0031056 -0.0012083
0.0040585 0.038748 -0.27138 0.29546 0.027905 0.023412 0.0013516 0.00096884
0.007593 0.00044113 0.0044324 -0.0028536
-0.0093658 -0.0052622 0.028023 0.023341 0.05662 0.31021 0.0019348 -6.4718e-05
0.00069166 -4.2375e-05 0.00086579 -0.0015516
-0.0021416 0.0015374 0.0013841 0.00096467 0.0019375 -7.7611e-05 -0.11484 0.25587
-0.011992 0.030306 0.0044289 -0.0068475
0.00067864 0.0018938 0.0077017 0.00025594 0.0006689 -4.5699e-05 -0.012021 0.030546
-0.16366 0.14876 -0.0020012 0.027967
0.0031693 -0.001244 0.0042034 -0.0030049 0.00087836 -0.0015884 0.0044272 -0.0068535
-0.0022934 0.027893 -0.20571 0.1954
980000000 -0.063798 0.27924 0.015796 0.030649 -0.009833 0.0042637 0.0015586 0.0038134
0.0040129 -0.0011195 -0.0031547 -0.0025434
0.015725 0.030618 -0.21946 0.33205 0.0333 0.006143 0.0020288 -8.0978e-06
0.0019087 -0.0059099 -0.00014448 -0.0026684
-0.00983 0.0043 0.033393 0.0060033 0.10272 0.30509 0.00068275 -0.0011277
0.00044296 -0.0017572 0.0012867 -0.00034888
0.0016381 0.0037949 0.0020377 -2.8118e-07 0.00068292 -0.0011269 -0.077649 0.26644
0.0068656 0.029684 -0.009638 -0.0078222
0.0040156 -0.0011889 0.0018441 -0.0059448 0.0004494 -0.0016976 0.0069406 0.02959
-0.13123 0.18256 0.0058053 0.019877
-0.0030796 -0.0024018 -4.5779e-05 -0.0026868 0.0013185 -0.00036361 -0.0097121 -0.007824
0.0057235 0.019931 -0.16443 0.24047
1040000000 -0.023536 0.28915 0.032943 0.020257 -0.0016678 0.0073754 0.0025537 0.0010383
0.00056301 -0.0034071 -0.00028598 -0.0014746
0.032895 0.020282 -0.18502 0.34661 0.030412 -0.013939 0.0016297 -0.001565
-0.00217 -0.0026801 -0.0012658 -0.0028779
-0.0016541 0.0073839 0.030402 -0.014101 0.14871 0.29339 -0.00042859 -0.0015534
-0.0015915 -0.0010067 -0.0007179 -0.00095093
0.002549 0.0010329 0.0016454 -0.001564 -0.00043669 -0.0015596 -0.050837 0.2769
0.018767 0.019264 -0.0023112 0.0010113
0.0005113 -0.0035163 -0.0023046 -0.0025557 -0.0016333 -0.00096592 0.018928 0.019356
-0.098959 0.19009 0.014036 0.019227
-0.00029704 -0.0015372 -0.0013366 -0.0028391 -0.00068095 -0.000982 -0.0022048 0.00084525
0.014203 0.019066 -0.14354 0.26311
1100000000 0.021 0.29957 0.03675 -0.002509 0.0030566 0.0043708 0.0024276 -0.00087009
-0.0021652 -0.003237 -0.0041952 -0.00026583
0.036717 -0.0025118 -0.14158 0.36605 0.016366 -0.027848 1.3276e-05 -0.0019224
-0.0037478 -0.0012851 -0.0037122 -0.000713
0.0030828 0.004364 0.016281 -0.027971 0.19554 0.27454 -0.0018973 0.00017216
-0.0018076 0.00066499 -0.0011473 -0.00038649
0.0024225 -0.00088664 1.127e-05 -0.0019141 -0.0018967 0.00016666 -0.010975 0.28235
0.024776 0.006102 -0.0027219 -0.00030328
-0.0021451 -0.0032755 -0.003778 -0.0012574 -0.0017796 0.00067488 0.02481 0.0060531
-0.079477 0.20416 0.020174 0.0093467
-0.004285 -0.00027169 -0.0037075 -0.00072905 -0.0011952 -0.00038575 -0.0028077 -0.00032183
0.020028 0.0094855 -0.097442 0.2935
1160000000 0.071672 0.2968 0.02539 -0.019994 0.0031297 -0.00045973 -4.0388e-05 -0.0023338
-0.0041407 -0.0010151 -0.0012811 0.0043501
0.025377 -0.019953 -0.098716 0.37185 -0.0030151 -0.02957 -0.0015814 -0.0019096
-0.0029151 0.002636 -0.0016394 0.0019301
0.0031225 -0.00046812 -0.0031412 -0.029626 0.23897 0.24493 -0.00085544 0.0017113
-0.0005078 0.001881 -0.00098379 0.00034986
-6.1717e-06 -0.0023391 -0.0016038 -0.0018694 -0.00085105 0.0017119 0.027554 0.28044
0.021506 -0.010126 -0.0036836 0.0050507
-0.0041574 -0.00099826 -0.0028365 0.0026616 -0.00050351 0.0018715 0.02143 -0.010197
-0.045644 0.21362 0.019172 0.00032298
-0.0012226 0.0043278 -0.0016207 0.0019432 -0.00098125 0.00036008 -0.0036679 0.0051023
0.019065 0.00023403 -0.050917 0.29831
1220000000 0.11542 0.28892 0.012169 -0.030251 -0.001317 -0.0011368 0.00021985 -0.00099385
-0.0029372 0.0023016 0.0011498 0.0022145
0.012173 -0.0302 -0.054295 0.38673 -0.016833 -0.02196 -0.0026508 0.00043951
-7.3719e-06 0.003272 -0.00080627 0.0020098
-0.0013314 -0.0011215 -0.016949 -0.021921 0.27884 0.20699 0.00084067 0.0017703
0.00070702 0.0012758 0.00034051 0.00055811
0.00022677 -0.0009907 -0.0026457 0.00044068 0.00085129 0.0017755 0.067341 0.27342
0.011053 -0.016949 0.0018067 0.0017545
-0.0029672 0.0023197 -1.5499e-05 0.0033058 0.00070583 0.0012971 0.011029 -0.017004
-0.023721 0.22418 0.014822 -0.013135
0.0011896 0.0022402 -0.00079646 0.0020337 0.00032377 0.00059119 0.0018256 0.001739
0.014783 -0.013102 -0.020721 0.31591
1280000000 0.16619 0.26965 -0.006946 -0.029444 -0.0019308 0.0023116 -0.00080927 -0.0022707
-0.00090303 0.0033665 0.0026795 0.0013846
-0.0069322 -0.029417 -0.0075353 0.37918 -0.024327 -0.0087309 -0.00099992 0.0014908
0.0018315 0.0019367 0.00070505 0.0022015
-0.0019345 0.0023228 -0.024412 -0.008643 0.31001 0.16372 0.0016406 -0.00010491
0.0011854 0.00020721 0.00040313 0.0002362
-0.00081176 -0.0022694 -0.00099516 0.0015125 0.0016406 -9.6527e-05 0.10443 0.25808
0.0012398 -0.019318 -0.00025274 0.00025734
-0.00085745 0.0034032 0.0018519 0.0019373 0.001207 0.00020955 0.0012705 -0.019353
0.012268 0.22898 0.0038084 -0.016103
0.0027343 0.0014501 0.00074597 0.0021748 0.00041177 0.00025115 -0.00025844 0.00028142
0.0039373 -0.016064 0.027329 0.31887
1340000000 0.20382 0.23877 -0.017167 -0.019959 0.00061168 0.0045191 -0.0020083 -0.0010096
0.001496 0.0028334 0.001951 -0.0015702
-0.017139 -0.019949 0.032082 0.3727 -0.021842 0.0043686 -0.00017594 0.0021369
0.0021183 0.00077942 0.0012324 0.00082975
0.00063789 0.0045185 -0.021845 0.0044854 0.33244 0.11693 0.00099851 -0.00094577
0.00053093 -0.0005161 6.8977e-06 0.00011667
-0.0020335 -0.0010128 -0.00016416 0.0021424 0.0010073 -0.00095237 0.13817 0.23889
-0.0084101 -0.016641 0.0010361 0.00077474
0.0015066 0.0027741 0.0021476 0.00076116 0.00054408 -0.00051374 -0.0084128 -0.016613
0.041748 0.22637 -0.0036418 -0.014591
0.0019398 -0.0015409 0.0012069 0.00080916 6.0666e-05 9.3933e-05 0.00098032 0.00073013
-0.0036841 -0.014561 0.065355 0.31528
1400000000 0.23918 0.20267 -0.02372 -0.0083169 0.0052415 0.0033611 -0.0023618 0.00067456
0.0027202 0.0011532 0.00048918 -0.0016909
-0.023681 -0.0083276 0.071086 0.36079 -0.014906 0.01283 0.0013534 0.0013679
0.0013015 -0.00085585 0.0011952 0.00014163
0.0052519 0.0033558 -0.014875 0.012933 0.34656 0.063963 -3.6881e-05 -0.0016525
0.00010436 -0.0003539 0.0003838 0.00029991
-0.0023615 0.00066611 0.0013573 0.0013638 -4.7144e-05 -0.0016477 0.16868 0.21048
-0.014715 -0.0098778 -0.00086457 6.0839e-06
0.0027371 0.0011551 0.0013136 -0.00087574 0.00010782 -0.00032228 -0.014734 -0.009815
0.075149 0.22428 -0.010566 -0.0096344
0.00047215 -0.0017 0.0011739 0.00012345 0.00041801 0.00032032 -0.00079407 -3.8512e-05
-0.010543 -0.009641 0.11042 0.30582
1460000000 0.26337 0.15974 -0.020826 0.0044196 0.0057026 -0.001755 -0.0015986 0.0019007
0.002336 -0.00035344 -0.00024036 -0.0010653
-0.020809 0.0043908 0.10587 0.33919 -0.0055986 0.015831 0.0017154 0.00020974
0.00092405 -0.0013817 0.0011892 -0.00057331
0.0057039 -0.0017873 -0.0055345 0.015882 0.35328 0.0099646 -0.0012547 -0.0011778
0.00024352 -5.9837e-05 0.00069819 -0.00024908
-0.0015901 0.0019255 0.0017235 0.00021374 -0.0012566 -0.0011642 0.19585 0.18149
-0.01566 -0.0028325 -0.00085334 0.0020824
0.0023087 -0.00035711 0.00091308 -0.0013993 0.000212 -7.3824e-05 -0.015683 -0.0028165
0.10454 0.21224 -0.012641 -0.003201
-0.00027984 -0.0010321 0.0011932 -0.0005964 0.00068487 -0.00021912 -0.00085039 0.0020589
-0.012628 -0.0032481 0.14363 0.2857
1520000000 0.27784 0.11904 -0.01514 0.010102 0.0034588 -0.0043159 0.00023221 0.0027697
0.0024145 -0.0019664 -0.0012298 -9.7584e-05
-0.015134 0.010083 0.14024 0.3257 0.0023624 0.013014 0.001703 -0.00071807
1.2669e-05 -0.0010152 0.00039919 -0.0010769
0.0034452 -0.0043393 0.0024356 0.013014 0.3471 -0.045344 -0.00092741 -0.00026441
0.00081696 -0.00096379 0.00014884 -0.00012711
0.00024867 0.002762 0.0016935 -0.00073047 -0.00092517 -0.00024448 0.22024 0.14356
-0.015033 0.0029554 0.0016991 0.0023003
0.0023902 -0.0019902 -6.5503e-06 -0.00099333 0.00080277 -0.00092986 -0.015027 0.0030036
0.13347 0.20095 -0.012564 0.0018097
-0.0012563 -9.3277e-05 0.00041623 -0.0010452 0.00011443 -9.9891e-05 0.001708 0.002323
-0.012526 0.0017743 0.17712 0.26711
1580000000 0.28891 0.07284 -0.0083312 0.013497 -0.00095987 -0.005091 0.0016577 0.0018594
-0.0002185 -0.0024183 -0.00027917 0.00046688
-0.0083342 0.013475 0.1684 0.30074 0.0060087 0.0076342 0.00057568 -0.0015958
-0.00050039 -0.0010473 -0.00021006 -0.00081443
-0.0009933 -0.0050898 0.0060605 0.007617 0.32826 -0.10339 -0.0014398 0.00045328
-0.00034095 -0.0014045 0.00030311 -0.00060194
0.0016364 0.0018425 0.00055095 -0.001598 -0.0014584 0.00041256 0.23487 0.10388
-0.011156 0.0080574 0.0024762 0.00079606
-0.00023471 -0.002441 -0.00050312 -0.001069 -0.0002896 -0.00147 -0.011142 0.0080773
0.15892 0.18496 -0.0098538 0.0079591
-0.00026657 0.00042942 -0.00022392 -0.0008116 0.00029713 -0.00062991 0.0024643 0.00076476
-0.009842 0.0079406 0.21013 0.2413
1640000000 0.29203 0.031773 -0.0014653 0.012268 -0.0031011 -0.0027305 0.0028682 0.00093893
-0.00079118 -0.0018073 -0.00033728 0.00060396
-0.0014783 0.012254 0.19788 0.27687 0.0060758 0.0024152 -0.00050148 -0.0018606
-0.00087167 -0.00045803 -0.00048362 -0.00077636
-0.0031039 -0.0027454 0.0060999 0.0023707 0.29977 -0.15205 -0.00062927 0.0013298
-0.0010852 -0.0010281 -0.00019842 -0.00050713
0.0028869 0.00092257 -0.00052839 -0.0018667 -0.00064405 0.0013334 0.24786 0.054919
-0.0067278 0.0089919 0.0026352 -0.00085831
-0.00079198 -0.0017942 -0.00089509 -0.00045179 -0.001126 -0.001098 -0.0067281 0.0090119
0.18302 0.16289 -0.0047537 0.010141
-0.00031251 0.00062279 -0.00048229 -0.00074789 -0.00022834 -0.00049503 0.002637 -0.00087547
-0.0048071 0.010125 0.23615 0.21171
1700000000 0.28675 -0.013591 0.0020088 0.0094091 -0.0038785 0.00016252 0.0031852 -0.001307
-0.0021575 -0.00063917 0.00068503 0.00041115
0.0020042 0.0094059 0.21714 0.24547 0.0034007 -0.00068081 -0.0014933 -0.00076066
-0.00080026 -0.00017874 -0.00088264 -0.0004973
-0.0038834 0.00021963 0.0034081 -0.00069897 0.25761 -0.19229 0.00019985 0.0014946
-0.002247 -0.00019404 -0.00048433 -0.00084381
0.0031714 -0.0013154 -0.0014945 -0.00075374 0.0002099 0.0015063 0.24543 0.0045343
-0.0038034 0.0093328 0.0018262 -0.0022319
-0.0021762 -0.00060495 -0.00079579 -0.00015254 -0.0021763 -0.00015575 -0.0037913 0.0093442
0.20251 0.14416 0.00020882 0.010368
0.00069754 0.00037812 -0.00090285 -0.00048568 -0.00048031 -0.0008376 0.001832 -0.0022394
0.00026358 0.010361 0.25417 0.17819
1760000000 0.27547 -0.062443 0.0042903 0.0060579 -0.002506 0.0012573 0.0012413 -0.0035692
-0.0013881 0.00062942 0.00029002 -0.00054843
0.0042808 0.0060599 0.2431 0.20603 0.00053947 -0.0022318 -0.0013281 -1.1212e-05
-0.0011639 0.00077906 -0.00066969 0.00037263
-0.0025018 0.0012622 0.00052169 -0.0022356 0.20935 -0.22567 0.0010196 0.0011421
-0.0012412 0.0015085 -0.0012786 -0.00062917
0.0012329 -0.0036081 -0.0013422 7.2646e-06 0.0010197 0.0011462 0.23647 -0.047643
-0.00058454 0.0081544 -0.00013819 -0.0028019
-0.0013917 0.00064846 -0.0011768 0.00078672 -0.0012341 0.0015026 -0.00057746 0.0081435
0.21866 0.11055 0.0045077 0.0076421
0.00033755 -0.00052908 -0.00069961 0.00039107 -0.0013469 -0.00060989 -0.00013688 -0.0027872
0.0044469 0.0076816 0.2679 0.141
1820000000 0.25243 -0.099805 0.0043284 0.0024759 8.7744e-05 0.0026173 -0.0010678 -0.0031657
-0.001186 0.0010081 -0.00015254 -0.00016701
0.004317 0.0024858 0.25428 0.17668 -0.0019276 -0.00043183 -0.0015628 0.00098868
-0.00023139 0.001217 -0.00069749 0.00048614
9.101e-05 0.0026376 -0.0019492 -0.00041378 0.15898 -0.24108 0.001531 0.00061255
-0.00015986 0.0024454 -0.0016682 0.00041984
-0.0010992 -0.0031373 -0.0015705 0.0010041 0.0015434 0.0006098 0.20698 -0.095103
0.00067716 0.0065929 -0.001676 -0.0019085
-0.001146 0.0010133 -0.00019265 0.0012363 -0.00023362 0.0024664 0.0006859 0.006649
0.23792 0.082824 0.0056224 0.0038054
-0.00015591 -0.00023704 -0.0006443 0.00045563 -0.0015807 0.00040508 -0.001715 -0.0019204
0.0056048 0.0037624 0.27157 0.10569
1880000000 0.21815 -0.14127 0.0019369 0.0003897 -0.0004274 0.0025479 -0.0030195 -0.0022552
-0.0002865 0.0016962 5.3758e-05 -0.00053875
0.0019168 0.00039541 0.25887 0.13003 -0.0041102 0.0023205 -0.00033042 0.001949
0.0003789 0.0014383 0.00010611 0.0010654
-0.00043333 0.0025878 -0.0040955 0.0023315 0.10669 -0.25029 0.0020781 -0.00087993
0.0016124 0.0019796 -0.00088416 0.0016767
-0.0030286 -0.00222 -0.00031956 0.0019511 0.0020689 -0.00089956 0.16597 -0.13612
0.0012449 0.0044361 -0.0026203 5.0251e-05
-0.00028249 0.0017185 0.00039665 0.0014802 0.0016796 0.0020198 0.0012241 0.0044557
0.24353 0.051595 0.0058993 0.0013107
0.00011005 -0.00049385 0.00010754 0.0010913 -0.0009065 0.0016706 -0.0025848 5.3335e-05
0.0059523 0.0012395 0.2725 0.071437
1940000000 0.17934 -0.16693 -0.00024917 -0.00099024 0.001696 0.0023074 -0.0038204 0.00045702
0.0012178 0.0010338 -0.00075907 -0.00033488
-0.00025049 -0.00098554 0.26007 0.099106 -0.002252 0.0054518 0.0011806 0.0015415
0.0019685 0.00070667 0.00083469 0.00031527
0.001683 0.002312 -0.0022214 0.0054644 0.062179 -0.2423 0.00069551 -0.0023148
0.0024003 0.00038796 0.00026568 0.0015435
-0.0038275 0.0004388 0.0011926 0.001523 0.00070635 -0.002321 0.11356 -0.16656
0.00020331 0.0032225 -0.0018963 0.0013236
0.0011854 0.000959 0.0019928 0.00063543 0.0024719 0.0003388 0.00017351 0.0031792
0.24793 0.01418 0.0044935 -0.0027868
-0.00083887 -0.00036658 0.00086972 0.00026324 0.00026888 0.0015741 -0.0018315 0.0013263
0.0045125 -0.0026689 0.26244 0.035592
2000000000 0.13407 -0.18247 -0.0038805 0.0011831 0.0030069 0.0015049 -0.0023752 0.0037255
0.0010493 0.0005004 -0.00049025 0.00041454
-0.0038859 0.001168 0.24692 0.063963 -0.0010314 0.0077922 0.001852 0.00035874
0.0014536 -0.0011281 0.00061254 1.8431e-05
0.0030125 0.0014677 -0.000965 0.0078032 0.019906 -0.22878 -0.0015098 -0.0016426
0.00199 -0.0011271 0.001655 0.0012946
-0.0023179 0.0037424 0.0018651 0.00034087 -0.00151 -0.0016486 0.059945 -0.17657
-0.0015382 0.0033517 -0.00036853 0.0024063
0.001163 0.00049403 0.0014924 -0.001092 0.0019921 -0.0011271 -0.0015379 0.0033484
0.24478 -0.019126 0.00087689 -0.0037509
