!Keysight Technologies,M9804A,MY58100912,A.14.10.03
!Date: Thursday, April 27, 2023 10:28:33
!Correction: S11(C  6-Port  ) 
!S12(C  6-Port  ) 
!S13(C  6-Port  ) 
!S14(C  6-Port  ) 
!S15(C  6-Port  ) 
!S16(C  6-Port  ) 
!S21(C  6-Port  ) 
!S22(C  6-Port  ) 
!S23(C  6-Port  ) 
!S24(C  6-Port  ) 
!S25(C  6-Port  ) 
!S26(C  6-Port  ) 
!S31(C  6-Port  ) 
!S32(C  6-Port  ) 
!S33(C  6-Port  ) 
!S34(C  6-Port  ) 
!S35(C  6-Port  ) 
!S36(C  6-Port  ) 
!S41(C  6-Port  ) 
!S42(C  6-Port  ) 
!S43(C  6-Port  ) 
!S44(C  6-Port  ) 
!S45(C  6-Port  ) 
!S46(C  6-Port  ) 
!S51(C  6-Port  ) 
!S52(C  6-Port  ) 
!S53(C  6-Port  ) 
!S54(C  6-Port  ) 
!S55(C  6-Port  ) 
!S56(C  6-Port  ) 
!S61(C  6-Port  ) 
!S62(C  6-Port  ) 
!S63(C  6-Port  ) 
!S64(C  6-Port  ) 
!S65(C  6-Port  ) 
!S66(C  6-Port  ) 
!S6P File: Measurement: :
# Hz S  RI   R 50
500000000 -0.33075 -0.066697 -0.010204 -0.00083044 -0.0089172 0.013294 -0.004022 0.011884
0.012772 0.0054842 -0.0041434 0.0076175
-0.010185 -0.00080206 -0.41163 -0.076188 0.0082742 -0.010211 0.0010079 0.012298
0.008212 0.0027423 0.0011499 0.013646
-0.0088994 0.013347 0.0082617 -0.01024 -0.26521 0.19007 0.006729 0.0034027
-0.0023563 0.0093296 0.00021029 0.011648
-0.0040329 0.011942 0.00099759 0.012377 0.0067245 0.0034868 -0.33006 0.037465
-0.020217 -0.0045524 0.016379 0.027257
0.012794 0.0054675 0.0082285 0.0025893 -0.0024133 0.0091742 -0.020222 -0.0047418
-0.23161 -0.21912 -0.027365 0.0046318
-0.0041694 0.0076119 0.0011259 0.013651 0.0001012 0.011735 0.016532 0.027164
-0.027326 0.0048948 -0.26488 -0.14289
560000000 -0.32129 0.10163 -0.021243 -0.067242 -0.00020282 0.01418 0.0048191 0.012203
0.010601 0.00503 0.010222 0.009913
-0.021146 -0.067113 -0.37308 0.091362 -0.041468 -0.039345 0.01401 0.0039224
-0.013031 -0.004316 0.003799 -0.0013609
-0.00010307 0.01419 -0.041627 -0.039297 -0.18688 0.24308 -0.0002661 -0.0053256
0.018686 0.0073277 0.0077922 -0.006092
0.0048981 0.012192 0.014081 0.0038954 -0.00021912 -0.0052606 -0.30714 0.13019
0.0057133 -0.023197 0.0053419 -0.021912
0.010626 0.0048918 -0.013158 -0.0041337 0.018656 0.0071273 0.0056402 -0.023132
-0.30913 -0.034646 0.010215 -0.052012
0.010222 0.0098125 0.0038346 -0.0014167 0.0077362 -0.0060182 0.0052986 -0.021842
0.010288 -0.051905 -0.33275 0.0083207
620000000 -0.2788 0.080566 -0.023425 0.0093876 0.0038666 0.0093719 0.008323 -0.0038919
0.012161 -0.0021594 -0.00029995 -0.0019641
-0.023387 0.009383 -0.40237 0.03674 -0.018192 0.00046173 -0.0016245 -0.0019888
0.01311 -0.0056503 0.00093427 -0.0032108
0.0039286 0.0093146 -0.0182 0.00049828 -0.15793 0.25229 -0.0006189 -0.0050995
-0.0028623 -0.0027989 0.0095512 -0.0032409
0.0083074 -0.0039357 -0.0016339 -0.0020028 -0.00063086 -0.0051564 -0.26463 0.14037
-0.039502 -0.019491 0.014021 0.0292
0.012001 -0.0019917 0.013125 -0.0056775 -0.0029316 -0.0027489 -0.0395 -0.019362
-0.22429 -0.075841 -0.043575 0.01315
-0.00027908 -0.0018715 0.00093661 -0.0032183 0.0095687 -0.0032235 0.013961 0.029072
-0.043605 0.013279 -0.24689 -0.028219
680000000 -0.24474 0.17546 -0.026058 -0.014837 0.005003 0.0056604 0.0016629 -0.0072766
-0.0013754 -0.011264 0.006444 -0.0072953
-0.026042 -0.014851 -0.39157 0.13903 -0.032181 -0.0028077 -0.0014563 -0.00016491
-0.0014301 -0.0095642 -0.0007623 -0.0020139
0.0050324 0.0056472 -0.032227 -0.0027231 -0.10773 0.27443 -0.00079438 -0.00026767
-0.0013996 0.00028311 -0.0025135 -0.0090973
0.0016582 -0.0072952 -0.0014639 -0.00017494 -0.00077507 -0.00030127 -0.22101 0.19206
-0.02351 -0.0074316 -0.0097575 -0.01176
-0.0014056 -0.01127 -0.0014969 -0.0095281 -0.0013605 0.00026854 -0.023541 -0.0075373
-0.28253 0.03168 -0.0059756 -0.0076525
0.0064217 -0.0073358 -0.00078624 -0.002034 -0.0025393 -0.0091808 -0.009825 -0.011746
-0.0057982 -0.0075765 -0.26387 0.076655
740000000 -0.19685 0.16903 -0.040543 0.026966 0.014222 -0.0043126 0.00033425 -0.0041965
-0.0050001 -0.0027141 -0.0064739 0.0025947
-0.040564 0.026898 -0.33658 0.15787 -0.03768 0.034843 0.00052854 -0.0062137
-0.013471 0.0068962 -0.0009439 -0.0061125
0.014206 -0.0043614 -0.037629 0.034975 -0.074469 0.27236 -0.002225 0.0034852
-0.0017099 -0.0061179 -0.0018301 0.0010202
0.00032726 -0.0042115 0.00049396 -0.0061836 -0.0022167 0.0034956 -0.20444 0.20016
-0.042769 -0.0096939 0.02343 0.017004
-0.0048345 -0.0026211 -0.013242 0.0067842 -0.0017127 -0.0060138 -0.042613 -0.0096798
-0.18077 0.063106 -0.042671 -0.00023022
-0.0065004 0.0025475 -0.00098835 -0.0061014 -0.001842 0.0010104 0.023487 0.016958
-0.043013 -0.00032748 -0.2526 0.085069
800000000 -0.16608 0.21455 -0.022278 0.015782 0.0060849 -0.010488 -0.0045003 -0.0025639
-0.0044449 0.0014923 0.0043699 0.00050792
-0.022261 0.015739 -0.34493 0.22923 -0.0092415 0.034057 -0.0021709 0.0018769
-0.0010147 0.0023192 0.0009569 0.0054187
0.006093 -0.010494 -0.0091467 0.034145 -0.036039 0.29789 0.00080166 0.001375
2.1271e-05 0.0033146 -0.0016637 0.0008223
-0.0044996 -0.002565 -0.0021423 0.0018686 0.00080273 0.0013284 -0.17539 0.22765
-0.028498 0.012672 0.014594 -0.010307
-0.0045087 0.0015119 -0.0010887 0.0023224 -5.2037e-05 0.0033567 -0.028543 0.012684
-0.22859 0.088766 -0.017502 0.020196
0.0043821 0.00047748 0.00098906 0.005381 -0.0016996 0.00073972 0.014555 -0.010298
-0.017312 0.020198 -0.24778 0.1357
860000000 -0.13204 0.23447 -0.018393 0.030049 -0.0028015 -0.010454 -0.0018562 0.00011564
0.003566 0.0050461 -0.0036295 -0.0030927
-0.018377 0.030035 -0.29808 0.27349 0.0067166 0.034734 -3.2155e-05 0.0021039
0.0030387 0.00081402 0.003185 0.00067078
-0.0028488 -0.010464 0.0068326 0.034758 0.010908 0.30751 -0.00053913 -0.00024442
0.0022791 -0.0015839 0.0015097 0.0040517
-0.0018463 0.00013888 -9.2152e-07 0.0021311 -0.00053524 -0.00024953 -0.13903 0.23847
-0.018101 0.017361 -0.0064901 -0.0089525
0.0036256 0.0051093 0.0030619 0.00075318 0.0022947 -0.0016043 -0.018116 0.017359
-0.1722 0.14357 -0.025555 0.016503
-0.0036075 -0.0030535 0.0032521 0.00065495 0.00154 0.0040814 -0.006443 -0.0089535
-0.025481 0.016359 -0.19656 0.18172
920000000 -0.10967 0.25811 0.0041489 0.038742 -0.009396 -0.0053051 -0.0021748 0.0016636
0.0006909 0.0018981 0.0030398 -0.0011921
0.0041416 0.038702 -0.27133 0.29535 0.027889 0.023433 0.0012542 0.001145
0.0076488 0.00010202 0.0041736 -0.0030771
-0.0094033 -0.0053065 0.028011 0.023375 0.056487 0.31014 0.0018574 -4.4568e-05
0.00075242 -0.00012541 0.00088372 -0.0017318
-0.0021843 0.0016814 0.0012558 0.0011396 0.0018584 -4.8856e-05 -0.11504 0.25566
-0.011954 0.030508 0.004259 -0.0069269
0.00063817 0.0019016 0.0076584 -6.0571e-05 0.00074101 -0.00010082 -0.011912 0.030496
-0.16405 0.14924 -0.0019829 0.027817
0.0030452 -0.0012127 0.0041469 -0.0030674 0.00085643 -0.0017672 0.0042359 -0.0069321
-0.0019043 0.027862 -0.20586 0.19499
980000000 -0.063911 0.2794 0.015791 0.030682 -0.0098495 0.0043212 0.0013748 0.0038695
0.003941 -0.0011862 -0.0033931 -0.0025237
0.015763 0.030681 -0.21956 0.33191 0.033286 0.0061124 0.0019786 -1.6034e-05
0.0018284 -0.0058886 -0.00019132 -0.0027755
-0.0098469 0.0043464 0.033365 0.0060274 0.10259 0.30501 0.0006934 -0.0011005
0.00049582 -0.0017087 0.0012758 -0.00038063
0.0013852 0.0038572 0.0019847 -2.2492e-05 0.00068441 -0.0011127 -0.077633 0.26639
0.0067727 0.029602 -0.0098362 -0.007817
0.0039721 -0.0012281 0.001855 -0.0059266 0.00054205 -0.0017072 0.0067963 0.029626
-0.1311 0.18203 0.0054809 0.020068
-0.0034243 -0.0025311 -0.0002303 -0.002781 0.0012599 -0.00037236 -0.0098291 -0.0078037
0.0054718 0.019901 -0.16438 0.24159
1040000000 -0.023662 0.28943 0.032818 0.020255 -0.0016977 0.0073642 0.0024474 0.00096495
0.00050455 -0.0034418 -0.00011142 -0.0015631
0.032799 0.02026 -0.1852 0.34645 0.030406 -0.013987 0.0016373 -0.0016449
-0.0022048 -0.0024388 -0.001191 -0.0030093
-0.0016853 0.0073508 0.030406 -0.014108 0.14858 0.29335 -0.00042498 -0.0016016
-0.0015277 -0.00087124 -0.00062072 -0.0010099
0.0024498 0.00096268 0.0016682 -0.0016524 -0.00043587 -0.0016135 -0.050851 0.27686
0.018709 0.019209 -0.0022446 0.00097702
0.00040708 -0.0034018 -0.0022419 -0.0024234 -0.0015045 -0.00085548 0.01873 0.019157
-0.098331 0.18994 0.013975 0.019129
-0.00012407 -0.0015403 -0.0012008 -0.0030041 -0.00061686 -0.0010382 -0.0022506 0.00098885
0.014108 0.019169 -0.14332 0.26317
1100000000 0.020955 0.29944 0.036754 -0.0025546 0.0030007 0.0043482 0.0024652 -0.00084266
-0.0021229 -0.0031508 -0.0041867 -0.0002949
0.036716 -0.0025369 -0.14173 0.36586 0.016363 -0.027899 2.4952e-05 -0.0018696
-0.0037101 -0.0011903 -0.0037259 -0.00071065
0.0030294 0.0043423 0.016287 -0.028 0.1954 0.27452 -0.0019238 0.00019166
-0.001835 0.00063483 -0.0011601 -0.00034757
0.0024631 -0.00085689 3.0633e-05 -0.0018695 -0.001917 0.00019177 -0.011002 0.28227
0.024701 0.0061037 -0.0027565 -0.00034051
-0.0021396 -0.0031372 -0.0037274 -0.0011698 -0.0018227 0.00061917 0.024689 0.0060593
-0.079568 0.20428 0.019946 0.0092425
-0.0042032 -0.00027638 -0.0037443 -0.00070107 -0.0011519 -0.00034798 -0.0027458 -0.00034176
0.020011 0.0091827 -0.097625 0.2936
1160000000 0.071535 0.2968 0.025368 -0.020003 0.0031345 -0.0004097 -5.0941e-05 -0.0023378
-0.0041748 -0.0009518 -0.0012608 0.0042322
0.025373 -0.019967 -0.09895 0.37161 -0.0030495 -0.029582 -0.001579 -0.0017713
-0.0028472 0.0026281 -0.0016865 0.0019038
0.0031404 -0.00043322 -0.0031734 -0.029601 0.23881 0.24494 -0.00076708 0.0017902
-0.00046036 0.0018995 -0.0010657 0.00041689
-4.823e-05 -0.0023514 -0.0015909 -0.001754 -0.00077466 0.0017826 0.027418 0.28021
0.021434 -0.010117 -0.0037937 0.005226
-0.0042119 -0.00092655 -0.0028797 0.0026793 -0.00047676 0.0018963 0.021468 -0.01012
-0.045748 0.21367 0.019216 5.1489e-06
-0.0012159 0.0042364 -0.0016734 0.0019185 -0.0010599 0.00041591 -0.0037779 0.005232
0.019117 0.00013695 -0.050901 0.29798
1220000000 0.11523 0.28902 0.012144 -0.03022 -0.0013344 -0.0011189 0.00028216 -0.00094306
-0.0028938 0.0023267 0.0011659 0.0022945
0.012155 -0.030182 -0.054492 0.3867 -0.016842 -0.021983 -0.0026408 0.00045639
-2.6374e-08 0.0032849 -0.00080729 0.0020223
-0.0013366 -0.0011335 -0.016963 -0.021945 0.27867 0.20707 0.00085543 0.0017748
0.00073142 0.0012135 0.00028993 0.00058744
0.00028584 -0.00095014 -0.0026375 0.00046056 0.00085573 0.0017775 0.06726 0.27356
0.010966 -0.016826 0.0018408 0.001748
-0.0028654 0.0023224 6.1527e-05 0.0032829 0.00073796 0.0012022 0.010927 -0.016832
-0.023915 0.2243 0.014902 -0.012937
0.001181 0.0022903 -0.00080868 0.0020272 0.00028401 0.00058028 0.0018307 0.0017429
0.01492 -0.012959 -0.020558 0.31564
1280000000 0.166 0.26968 -0.0069493 -0.029462 -0.0019444 0.0022817 -0.00087835 -0.0023055
-0.00086945 0.0032916 0.0026842 0.0014297
-0.0069277 -0.02943 -0.0077587 0.37918 -0.024352 -0.0087806 -0.001029 0.0014913
0.0018564 0.0019071 0.00076861 0.0021683
-0.0019445 0.0022949 -0.024439 -0.0086803 0.30987 0.16373 0.0016642 -6.5997e-05
0.0011831 0.00019175 0.00049472 0.00028545
-0.00088821 -0.0023057 -0.0010367 0.0015025 0.0016475 -6.4969e-05 0.10424 0.25808
0.0013987 -0.01936 -0.00035507 0.00044509
-0.00084229 0.0033032 0.0018679 0.0018802 0.0011836 0.00020055 0.0013504 -0.019376
0.01234 0.229 0.0037014 -0.015961
0.0026931 0.0014174 0.00075976 0.0021756 0.00047844 0.00029891 -0.00036488 0.00043117
0.0037025 -0.015978 0.027377 0.31872
1340000000 0.20365 0.23882 -0.017182 -0.019905 0.00064193 0.0045681 -0.0020036 -0.00098134
0.0015088 0.0028262 0.0019763 -0.0015071
-0.017153 -0.019894 0.031847 0.37275 -0.021831 0.0044047 -0.00013714 0.0020783
0.0020808 0.00075873 0.0012312 0.00080187
0.00065484 0.0045629 -0.021846 0.0045187 0.33232 0.1171 0.0010148 -0.0010102
0.00059191 -0.00053662 3.118e-05 0.00014584
-0.0020117 -0.00096593 -0.00012713 0.0020921 0.0010089 -0.0010114 0.1379 0.23891
-0.0082768 -0.016592 0.0010582 0.0006839
0.0015216 0.0027914 0.0020786 0.000734 0.00059078 -0.00054266 -0.0082911 -0.016586
0.04161 0.2266 -0.0035623 -0.014514
0.0019581 -0.0015184 0.0012443 0.00079807 2.4612e-05 0.00017068 0.0010658 0.00069088
-0.0035458 -0.01446 0.065215 0.31524
1400000000 0.23905 0.20273 -0.023705 -0.0083213 0.0052233 0.0033584 -0.0023567 0.00069082
0.0027356 0.0011214 0.00043734 -0.0017071
-0.023673 -0.0083249 0.070896 0.36082 -0.014962 0.012842 0.0013774 0.0013614
0.0012967 -0.0008383 0.0012517 0.00013741
0.005245 0.0033461 -0.014925 0.012929 0.34634 0.064092 -3.1086e-05 -0.001622
8.4387e-05 -0.00035625 0.00044294 0.00035149
-0.0023657 0.00069548 0.0013876 0.0013635 -3.6597e-05 -0.0016084 0.16857 0.21055
-0.014534 -0.0099006 -0.00085975 -8.2947e-05
0.0027653 0.0010984 0.0013044 -0.00085853 7.0086e-05 -0.00035665 -0.014564 -0.0098648
0.075209 0.22447 -0.010527 -0.0096024
0.00041824 -0.0017084 0.0012525 0.00013556 0.00044699 0.00035041 -0.00087618 -7.0362e-05
-0.010521 -0.0096574 0.1103 0.30562
1460000000 0.26323 0.15993 -0.020811 0.0044133 0.0057624 -0.0017405 -0.001617 0.0019256
0.0023 -0.00031234 -0.00028803 -0.001113
-0.020791 0.00439 0.10565 0.33926 -0.0055881 0.015867 0.001726 0.00018853
0.00089636 -0.0013858 0.0011913 -0.00056094
0.0057532 -0.0017542 -0.0055088 0.015925 0.35318 0.010089 -0.0012691 -0.0011706
0.00018093 -8.4231e-05 0.00069943 -0.00026391
-0.0016079 0.0019214 0.001734 0.00018604 -0.0012763 -0.0011657 0.19569 0.18166
-0.015676 -0.0029441 -0.00081379 0.002115
0.0023106 -0.00034152 0.00088927 -0.0013888 0.00019924 -5.9636e-05 -0.015695 -0.0029185
0.10449 0.21239 -0.012542 -0.0030706
-0.00028819 -0.001125 0.0011996 -0.00057941 0.00067818 -0.00025469 -0.00080744 0.0021172
-0.012534 -0.0030718 0.14362 0.28569
1520000000 0.27775 0.11928 -0.015141 0.010111 0.0035135 -0.0043327 0.00024542 0.0027473
0.0024281 -0.0019548 -0.0011616 -0.0001571
-0.015129 0.010093 0.14007 0.32578 0.0023742 0.013016 0.0017049 -0.00072542
5.5884e-05 -0.00097624 0.00038732 -0.0010587
0.0034882 -0.0043647 0.0024468 0.013027 0.34703 -0.045164 -0.0009465 -0.00022958
0.00085266 -0.00093236 0.00010285 -0.00016319
0.00025989 0.0027537 0.0017165 -0.00073456 -0.00095257 -0.00023535 0.22018 0.14375
-0.014984 0.0028259 0.0016848 0.0022724
0.00242 -0.0019654 4.4261e-05 -0.00097225 0.00084562 -0.00091393 -0.014987 0.0028601
0.13345 0.2012 -0.012493 0.0019007
-0.001164 -0.00013547 0.00037856 -0.0010619 0.00010257 -0.00015887 0.0016919 0.0022727
-0.012459 0.0019062 0.17731 0.26725
1580000000 0.28884 0.073039 -0.0083694 0.013496 -0.00094861 -0.0051214 0.0016118 0.0018328
-0.00024078 -0.0024155 -0.00032079 0.00045169
-0.0083761 0.013477 0.16822 0.30084 0.005992 0.0076313 0.00055166 -0.0015772
-0.00049208 -0.00105 -0.00020119 -0.00078248
-0.00097739 -0.0051322 0.0060459 0.007611 0.32827 -0.10328 -0.0014987 0.00044863
-0.00035771 -0.0013897 0.00034056 -0.00060161
0.0016214 0.0018281 0.00053745 -0.0015823 -0.0015001 0.00044245 0.23496 0.10394
-0.011163 0.0079139 0.0024624 0.00076804
-0.00026541 -0.0024122 -0.00051058 -0.0010448 -0.00035983 -0.0013866 -0.01115 0.0079541
0.15911 0.18507 -0.0096286 0.0080516
-0.00032174 0.00043838 -0.00020922 -0.00078115 0.00034421 -0.00061153 0.0024666 0.0007685
-0.009692 0.0080589 0.21012 0.24134
1640000000 0.29206 0.03198 -0.0014397 0.012267 -0.0031058 -0.0027615 0.0028609 0.00096653
-0.0007976 -0.0017621 -0.00028264 0.00058153
-0.0014511 0.012263 0.19767 0.27698 0.0060941 0.0024058 -0.00049915 -0.001879
-0.0008603 -0.00049331 -0.00047139 -0.00074448
-0.0031165 -0.0027434 0.0061095 0.0023727 0.29968 -0.15185 -0.00065622 0.0012626
-0.0011208 -0.0011322 -0.00018666 -0.00042731
0.0028779 0.00095854 -0.00052006 -0.0018767 -0.00065315 0.0012469 0.24784 0.055008
-0.0068535 0.0089538 0.0026571 -0.00081286
-0.00080584 -0.0017583 -0.00087982 -0.00048685 -0.0011622 -0.0011635 -0.006845 0.008964
0.18314 0.16308 -0.0046425 0.010157
-0.00025406 0.00058491 -0.00047764 -0.00074112 -0.00016392 -0.00039762 0.0026454 -0.00082503
-0.0046068 0.010164 0.23624 0.21171
1700000000 0.28674 -0.013354 0.0019855 0.0093864 -0.0039101 0.0001447 0.0031206 -0.0012994
-0.0021834 -0.00069155 0.00067654 0.00041825
0.0019743 0.0093783 0.21697 0.2456 0.0034101 -0.00068714 -0.001534 -0.00077244
-0.00080535 -0.00020118 -0.00088348 -0.00046796
-0.0039228 0.0001565 0.0034082 -0.0007096 0.25766 -0.19219 0.00016079 0.0014723
-0.0021401 -0.00015887 -0.00046302 -0.00083075
0.0031152 -0.0013168 -0.0015354 -0.00078012 0.00017381 0.0014694 0.24554 0.0045158
-0.0039058 0.0092681 0.0018069 -0.0023012
-0.0022073 -0.00066817 -0.0008172 -0.00019454 -0.0021282 -0.00014621 -0.0038883 0.0092679
0.20268 0.1441 0.00038034 0.010353
0.00067471 0.0004197 -0.00088601 -0.00046165 -0.00045335 -0.00085248 0.001788 -0.0023012
0.00033877 0.01032 0.25429 0.17815
1760000000 0.27541 -0.062351 0.0042792 0.0060272 -0.0024719 0.0012743 0.0013431 -0.0035596
-0.001325 0.00068142 0.00030995 -0.00054245
0.0042755 0.0060344 0.24293 0.20618 0.00055592 -0.0022583 -0.0013364 1.4686e-05
-0.0011683 0.00079353 -0.00069995 0.00037626
-0.0024628 0.0012859 0.00054056 -0.0022708 0.20946 -0.22551 0.00092467 0.0011383
-0.0012304 0.0014773 -0.0013855 -0.00058511
0.0013199 -0.0035702 -0.0013299 2.6611e-05 0.00093091 0.0011709 0.2364 -0.047694
-0.00071665 0.0081269 -0.00016842 -0.0026842
-0.0013235 0.00068168 -0.0011635 0.00081148 -0.0012317 0.0014732 -0.00071645 0.0081318
0.21887 0.11046 0.0045265 0.0076042
0.00031835 -0.0005508 -0.00068231 0.00038615 -0.0013893 -0.00057167 -0.00017546 -0.002678
0.004591 0.0076146 0.26789 0.14118
1820000000 0.25249 -0.099639 0.0043146 0.0025088 8.8827e-05 0.0027134 -0.0010347 -0.0031755
-0.0012014 0.00095181 -0.00022151 -0.0002015
0.0043053 0.0024945 0.25418 0.17689 -0.0018998 -0.00043141 -0.0015786 0.00096059
-0.00024142 0.0012017 -0.00065887 0.00047639
0.00011351 0.00269 -0.0018933 -0.0004236 0.15913 -0.24096 0.0016258 0.00056456
-0.00016203 0.0024977 -0.0015833 0.00037328
-0.0010479 -0.0031871 -0.0015739 0.00096635 0.0016313 0.00053333 0.20691 -0.095169
0.00065662 0.0066571 -0.0017532 -0.0019383
-0.0011885 0.00094111 -0.0002253 0.0012032 -0.00012336 0.0024573 0.00067525 0.0066437
0.23815 0.082735 0.0056682 0.0036137
-0.00023086 -0.00019621 -0.00066427 0.00049131 -0.0015919 0.00039422 -0.0017366 -0.0019275
0.0056471 0.0036027 0.27132 0.10552
1880000000 0.2182 -0.141 0.0018841 0.00039019 -0.00049337 0.0025221 -0.0030853 -0.0022922
-0.00031297 0.0016954 0.00015784 -0.00059943
0.0018849 0.00040028 0.25882 0.1302 -0.0040995 0.002292 -0.00031546 0.0018883
0.00041768 0.0014493 8.9976e-05 0.0010542
-0.00048755 0.0025275 -0.004092 0.0023093 0.10683 -0.25018 0.0020288 -0.00092493
0.0016647 0.0019342 -0.0008661 0.0015509
-0.0030921 -0.0022818 -0.00030093 0.0019062 0.0020146 -0.00090044 0.16604 -0.13598
0.0012597 0.0045675 -0.0026223 0.0001242
-0.00028936 0.0017078 0.00042926 0.0014748 0.001654 0.0019119 0.0012771 0.004567
0.24353 0.05143 0.0060802 0.0011177
0.0001587 -0.00060321 0.00011374 0.0010522 -0.00086956 0.0015117 -0.0026424 0.0001091
0.0060573 0.0011377 0.27289 0.071267
1940000000 0.17926 -0.16689 -0.00027258 -0.0010224 0.0017702 0.002349 -0.0038275 0.00041116
0.0012227 0.00097436 -0.00064071 -0.00028472
-0.00026362 -0.0010145 0.26001 0.09933 -0.0022067 0.0054721 0.0011857 0.0015424
0.0020126 0.00071457 0.00091757 0.00039926
0.0017974 0.0023382 -0.0021868 0.0054978 0.062362 -0.24237 0.0007527 -0.00229
0.0024396 0.00047956 0.00033859 0.0015244
-0.0038515 0.00044387 0.0011795 0.00152 0.00076105 -0.0023446 0.1135 -0.1663
0.00017216 0.0033788 -0.0017676 0.0013565
0.0012194 0.0009527 0.0020151 0.00070011 0.002457 0.00045763 0.00019485 0.003373
0.24792 0.014083 0.0044785 -0.0028125
-0.00064201 -0.00027009 0.00092421 0.00040179 0.00035032 0.0015157 -0.0017399 0.001433
0.0044801 -0.0028207 0.26239 0.035592
2000000000 0.13415 -0.18253 -0.0038122 0.0011182 0.0030457 0.0014887 -0.0024417 0.0039243
0.0009533 0.00056288 -0.00061963 0.00040671
-0.0038067 0.0011108 0.24697 0.064135 -0.001027 0.0077731 0.0017519 0.00039374
0.0014298 -0.0011223 0.00051182 2.0483e-05
0.0030712 0.0014494 -0.00096738 0.0077901 0.020055 -0.22864 -0.0014932 -0.0017337
0.0020192 -0.0011586 0.0015123 0.0014927
-0.0024011 0.003918 0.0018161 0.00038699 -0.0014793 -0.0017109 0.06009 -0.1764
-0.0014777 0.003379 -0.00050697 0.0023294
0.00096763 0.00056781 0.0014629 -0.0011318 0.0020052 -0.0011443 -0.0014705 0.0033865
0.24477 -0.019217 0.00086136 -0.0039797
