!Keysight Technologies,M9804A,MY58100912,A.14.10.03
!Date: Thursday, April 27, 2023 10:28:33
!Correction: S11(C  6-Port  ) 
!S12(C  6-Port  ) 
!S13(C  6-Port  ) 
!S14(C  6-Port  ) 
!S15(C  6-Port  ) 
!S16(C  6-Port  ) 
!S21(C  6-Port  ) 
!S22(C  6-Port  ) 
!S23(C  6-Port  ) 
!S24(C  6-Port  ) 
!S25(C  6-Port  ) 
!S26(C  6-Port  ) 
!S31(C  6-Port  ) 
!S32(C  6-Port  ) 
!S33(C  6-Port  ) 
!S34(C  6-Port  ) 
!S35(C  6-Port  ) 
!S36(C  6-Port  ) 
!S41(C  6-Port  ) 
!S42(C  6-Port  ) 
!S43(C  6-Port  ) 
!S44(C  6-Port  ) 
!S45(C  6-Port  ) 
!S46(C  6-Port  ) 
!S51(C  6-Port  ) 
!S52(C  6-Port  ) 
!S53(C  6-Port  ) 
!S54(C  6-Port  ) 
!S55(C  6-Port  ) 
!S56(C  6-Port  ) 
!S61(C  6-Port  ) 
!S62(C  6-Port  ) 
!S63(C  6-Port  ) 
!S64(C  6-Port  ) 
!S65(C  6-Port  ) 
!S66(C  6-Port  ) 
!S6P File: Measurement: :
# Hz S  RI   R 50
500000000 -0.33041 -0.066938 -0.010211 -0.0005614 -0.0089357 0.01337 -0.0042624 0.01197
0.01282 0.0056225 -0.0044424 0.0076974
-0.010235 -0.00062859 -0.41182 -0.076032 0.0081597 -0.010185 0.001133 0.012106
0.0083353 0.0027301 0.0011806 0.013384
-0.008917 0.013331 0.0081537 -0.010199 -0.26537 0.19011 0.0066474 0.0034767
-0.002274 0.0091927 -5.9684e-05 0.011726
-0.004264 0.011927 0.0011835 0.012106 0.0066363 0.0034361 -0.32951 0.036826
-0.020362 -0.0048382 0.01775 0.026331
0.012894 0.005688 0.0082826 0.0028078 -0.0022738 0.009302 -0.020511 -0.0045983
-0.23092 -0.21988 -0.027785 0.0050314
-0.0046512 0.0075775 0.0011794 0.013389 4.7568e-06 0.011719 0.017635 0.026369
-0.027652 0.0044511 -0.26208 -0.14374
560000000 -0.32144 0.1023 -0.021704 -0.067063 -0.00016627 0.013912 0.0052861 0.012193
0.010105 0.0048247 0.010472 0.0099757
-0.021663 -0.067039 -0.37274 0.091304 -0.041352 -0.039333 0.014083 0.0043467
-0.013098 -0.0041752 0.0037851 -0.0010431
-0.0002616 0.013968 -0.041535 -0.039218 -0.18682 0.24301 -0.0004299 -0.005315
0.018845 0.0067369 0.0078525 -0.006143
0.0053607 0.012188 0.014069 0.0043786 -0.0004508 -0.0053839 -0.30712 0.1302
0.0054042 -0.022993 0.005193 -0.021436
0.010148 0.0048746 -0.013037 -0.0040401 0.018729 0.0071133 0.0056242 -0.023455
-0.30623 -0.033457 0.010327 -0.051855
0.0107 0.0099639 0.0039365 -0.001166 0.0079152 -0.0061012 0.0052529 -0.02143
0.010459 -0.051429 -0.33376 0.0081795
620000000 -0.279 0.080422 -0.023555 0.0093185 0.0039098 0.009453 0.0084123 -0.0039199
0.012202 -0.0015821 -0.00029776 -0.0022075
-0.023536 0.0092736 -0.40237 0.036597 -0.018153 0.00045143 -0.0015285 -0.0018565
0.012883 -0.0056622 0.00089315 -0.003086
0.0038741 0.009527 -0.018224 0.00052906 -0.15778 0.25233 -0.00060131 -0.0052116
-0.0032025 -0.0027454 0.0097237 -0.0031637
0.0084439 -0.0039752 -0.0015187 -0.0018194 -0.00054958 -0.0051289 -0.26501 0.13996
-0.039143 -0.019072 0.014036 0.028415
0.011912 -0.0017721 0.012867 -0.005763 -0.0031977 -0.0027383 -0.039165 -0.019244
-0.22451 -0.075215 -0.043634 0.013433
-0.00029427 -0.0021345 0.00079302 -0.0030598 0.0097316 -0.0031803 0.013797 0.028475
-0.043577 0.013356 -0.24675 -0.028115
680000000 -0.24468 0.17572 -0.026061 -0.014703 0.0049981 0.0057948 0.0017197 -0.0073014
-0.0014804 -0.0115 0.0064674 -0.0069617
-0.026036 -0.014686 -0.39161 0.13919 -0.032198 -0.0026875 -0.0015134 -0.00010463
-0.0014714 -0.0095281 -0.00092543 -0.0020391
0.0049994 0.0057722 -0.032243 -0.0026331 -0.10767 0.27451 -0.00089617 -0.00027075
-0.0014182 0.00037728 -0.0024512 -0.0090923
0.0016867 -0.0073175 -0.0014986 -0.00010616 -0.00096404 -0.00024205 -0.22086 0.192
-0.023378 -0.0075281 -0.009576 -0.011581
-0.0014897 -0.011581 -0.0014719 -0.0095766 -0.0013524 0.00037892 -0.023392 -0.0075849
-0.28293 0.031825 -0.006261 -0.0072286
0.0063951 -0.0069907 -0.00094451 -0.0020777 -0.0024614 -0.0090916 -0.0094175 -0.011573
-0.0062464 -0.0071113 -0.26399 0.076443
740000000 -0.19704 0.16878 -0.040378 0.027158 0.014046 -0.004523 0.00029176 -0.0043723
-0.0043193 -0.0027003 -0.0064995 0.0022435
-0.040335 0.027111 -0.33694 0.15796 -0.037714 0.034816 0.00028322 -0.0059967
-0.013096 0.0066973 -0.0011525 -0.0061154
0.014047 -0.0044816 -0.037663 0.034973 -0.074553 0.27231 -0.0022485 0.0032891
-0.0015857 -0.0057176 -0.001632 0.00068967
0.00030243 -0.0043628 0.00024287 -0.0059911 -0.0022386 0.0032838 -0.20472 0.20018
-0.042402 -0.0098953 0.023186 0.016941
-0.0043715 -0.0025765 -0.013286 0.006845 -0.0015873 -0.0057967 -0.042618 -0.0098972
-0.18157 0.063311 -0.043016 -0.00042016
-0.006482 0.0023983 -0.0013327 -0.0060983 -0.0016106 0.00072567 0.02303 0.016989
-0.042392 -0.00014892 -0.25316 0.084921
800000000 -0.16612 0.21433 -0.022277 0.015705 0.0061104 -0.010509 -0.0043391 -0.0026975
-0.0046426 0.0016791 0.0045434 0.00029493
-0.022268 0.015675 -0.34499 0.22925 -0.0092507 0.034041 -0.0021577 0.0018088
-0.0010868 0.0023683 0.0010069 0.0053116
0.0060112 -0.010587 -0.0091792 0.0341 -0.036062 0.29782 0.00082853 0.001346
-0.0002009 0.0034167 -0.00162 0.00084203
-0.0043315 -0.0027302 -0.0021782 0.0017982 0.00081831 0.0014021 -0.17522 0.22761
-0.0288 0.012509 0.014732 -0.010267
-0.0046461 0.0015595 -0.0011296 0.0024091 -8.2257e-05 0.0032943 -0.028737 0.012487
-0.22839 0.089133 -0.017604 0.019994
0.0045078 -4.4807e-05 0.0010157 0.0051911 -0.0016366 0.00085015 0.014875 -0.010431
-0.01793 0.020226 -0.24737 0.13549
860000000 -0.13219 0.23453 -0.018451 0.030045 -0.0028503 -0.010442 -0.0018767 0.00033591
0.003576 0.0051835 -0.0038208 -0.0030557
-0.018443 0.03001 -0.29829 0.27341 0.0067334 0.03468 1.3153e-05 0.0021471
0.002991 0.00078185 0.0032213 0.00063669
-0.0028457 -0.010437 0.0068719 0.034727 0.010913 0.30749 -0.00055624 -0.00018748
0.0022927 -0.0016349 0.0014898 0.004046
-0.0018409 0.00034158 3.4896e-05 0.0021546 -0.00055361 -0.00017902 -0.13932 0.23861
-0.018044 0.017288 -0.006564 -0.0089914
0.0036007 0.0050844 0.0029927 0.00071989 0.0022353 -0.0015837 -0.018015 0.017346
-0.17235 0.14379 -0.025598 0.016831
-0.0037853 -0.0029528 0.0033109 0.00064497 0.001527 0.0040081 -0.0066106 -0.0089168
-0.025484 0.016619 -0.19692 0.18144
920000000 -0.10966 0.2581 0.0041418 0.038752 -0.009356 -0.0053516 -0.0022534 0.0015225
0.00068547 0.0019368 0.0031232 -0.0011741
0.0041084 0.038723 -0.2714 0.29531 0.027879 0.023422 0.0011754 0.0010583
0.0076359 0.00010236 0.0041281 -0.0030716
-0.0093836 -0.0052893 0.028025 0.023373 0.056458 0.31013 0.0018528 -5.6459e-05
0.00072016 4.5721e-06 0.00088109 -0.0017609
-0.0022659 0.0015262 0.0011714 0.0010607 0.0018534 -3.3841e-05 -0.11505 0.25543
-0.011998 0.030525 0.0043565 -0.0069268
0.0006209 0.001892 0.0076567 2.1744e-05 0.00073183 -7.9708e-05 -0.011903 0.03049
-0.16441 0.1495 -0.0020792 0.027739
0.0030387 -0.0011823 0.0041064 -0.0030363 0.00088243 -0.0017385 0.0043566 -0.0069276
-0.0021367 0.027867 -0.20598 0.19479
980000000 -0.063998 0.27928 0.015787 0.030652 -0.009824 0.0043147 0.0013633 0.0038733
0.0038895 -0.0010868 -0.0033447 -0.0025665
0.01577 0.030604 -0.21956 0.33188 0.0333 0.0061286 0.0019433 -4.7733e-05
0.0018644 -0.0059282 -0.00030087 -0.0028103
-0.0098222 0.0043343 0.033374 0.0060438 0.10254 0.30499 0.0006648 -0.0011235
0.00057611 -0.0016955 0.0012289 -0.00036633
0.0013736 0.0038862 0.0019472 -3.7704e-05 0.00068361 -0.0011188 -0.077569 0.26645
0.0066775 0.029624 -0.0097853 -0.0076876
0.0039562 -0.0011833 0.0018695 -0.0059723 0.00052897 -0.001727 0.0067111 0.029647
-0.13046 0.18232 0.0055741 0.01973
-0.0033505 -0.0025875 -0.00030764 -0.0028562 0.0012436 -0.00038984 -0.0097753 -0.0076974
0.0053796 0.019651 -0.16454 0.24134
1040000000 -0.023672 0.28924 0.032866 0.020233 -0.0016957 0.0073541 0.0024699 0.00094165
0.00048541 -0.003524 2.2419e-05 -0.0015738
0.032834 0.020194 -0.18529 0.34645 0.030408 -0.013993 0.0016799 -0.0016699
-0.0022048 -0.0026008 -0.001231 -0.002862
-0.0016734 0.0073663 0.030412 -0.014114 0.14854 0.29332 -0.00042382 -0.001582
-0.0015987 -0.00086874 -0.00058451 -0.00098227
0.0024577 0.00093858 0.0016831 -0.0016666 -0.00042513 -0.0015751 -0.050954 0.27677
0.018674 0.01904 -0.0022247 0.0010427
0.00045836 -0.0035067 -0.0022486 -0.0025223 -0.0015601 -0.00087059 0.018761 0.019028
-0.098284 0.19045 0.014373 0.019196
2.1708e-05 -0.0016173 -0.0012251 -0.002866 -0.000605 -0.00097529 -0.0022415 0.001086
0.0142 0.019049 -0.14333 0.26316
1100000000 0.020869 0.29948 0.036746 -0.0025582 0.0030313 0.0043548 0.0024509 -0.00084492
-0.0020803 -0.0032078 -0.0041967 -0.00021732
0.036706 -0.0025352 -0.14184 0.36585 0.016392 -0.027869 6.459e-05 -0.0018726
-0.0037217 -0.0012347 -0.0037412 -0.00058915
0.0030462 0.004331 0.016313 -0.027978 0.19538 0.27455 -0.0019055 0.00016223
-0.0017782 0.0005953 -0.0011706 -0.00039923
0.0024471 -0.00084565 7.0661e-05 -0.0018818 -0.0019091 0.00015658 -0.011091 0.28225
0.02472 0.0060922 -0.0027032 -0.00035437
-0.0021236 -0.0031797 -0.0037421 -0.0012271 -0.0018071 0.00062306 0.024687 0.0060927
-0.079243 0.20438 0.01986 0.0094136
-0.0041648 -0.00023472 -0.0037245 -0.00058061 -0.0011748 -0.00040006 -0.0027429 -0.00037352
0.019917 0.0093797 -0.097324 0.29365
1160000000 0.071525 0.29678 0.025356 -0.019964 0.0030984 -0.00041519 -1.5542e-05 -0.0024246
-0.0041289 -0.001026 -0.0012958 0.0042967
0.025352 -0.019949 -0.099159 0.37154 -0.0030695 -0.029568 -0.0015895 -0.0017282
-0.0029642 0.002613 -0.001858 0.0018613
0.0031057 -0.00041856 -0.0031808 -0.029593 0.23878 0.24497 -0.00080928 0.0018048
-0.00053741 0.0018625 -0.0010443 0.00044913
-1.5298e-05 -0.0024389 -0.0015646 -0.001712 -0.0008235 0.0017802 0.027393 0.28013
0.021486 -0.010018 -0.0038635 0.0052661
-0.0041489 -0.00093685 -0.0029528 0.0027111 -0.0004656 0.0019162 0.021532 -0.010034
-0.046145 0.21367 0.019079 -7.6465e-05
-0.0012311 0.004376 -0.001819 0.0019015 -0.0010535 0.00045296 -0.0038532 0.0052813
0.019177 1.437e-05 -0.050932 0.2982
1220000000 0.11521 0.28903 0.012167 -0.030206 -0.0013135 -0.001102 0.00029208 -0.00094083
-0.0028413 0.0022893 0.001222 0.0023021
0.012166 -0.030175 -0.054522 0.38668 -0.016831 -0.021995 -0.0026426 0.00042379
3.9898e-05 0.0032716 -0.00077538 0.0020152
-0.0013265 -0.0011086 -0.016953 -0.021951 0.27862 0.20706 0.00087506 0.0017582
0.00075597 0.0011941 0.00030113 0.00054155
0.00028761 -0.00095158 -0.0026373 0.00044881 0.00088526 0.0017619 0.06719 0.27358
0.010926 -0.016741 0.0017917 0.0017986
-0.002844 0.002286 5.8869e-05 0.0032675 0.00072894 0.0012262 0.010904 -0.016764
-0.023788 0.22423 0.014865 -0.012942
0.0012164 0.002257 -0.00078032 0.0020149 0.00030729 0.00054122 0.0018407 0.0018098
0.014894 -0.012951 -0.02053 0.31573
1280000000 0.16583 0.26972 -0.0069753 -0.029446 -0.0019537 0.0022623 -0.00083401 -0.0023074
-0.00089812 0.0032988 0.0026679 0.001449
-0.0069544 -0.029419 -0.0078168 0.37913 -0.024359 -0.0087769 -0.0010016 0.0015088
0.0018345 0.0018919 0.00071105 0.0021714
-0.0019217 0.0022691 -0.024437 -0.0086758 0.30984 0.16374 0.0016349 -5.4839e-05
0.0011139 0.00023555 0.00045122 0.00031331
-0.00083833 -0.002308 -0.00099449 0.0015137 0.001633 -5.6116e-05 0.10416 0.25805
0.0014003 -0.019401 -0.00033783 0.00036854
-0.00086205 0.0033296 0.0018645 0.0018851 0.001147 0.00020442 0.0013836 -0.019385
0.0124 0.2288 0.0037891 -0.015986
0.0026764 0.0014451 0.00073537 0.0021811 0.00045467 0.00029334 -0.00035088 0.00042712
0.0037312 -0.015926 0.027375 0.31883
1340000000 0.20361 0.23886 -0.017165 -0.01995 0.00063976 0.0045739 -0.0020385 -0.00096806
0.0015273 0.0027789 0.002009 -0.0014746
-0.017142 -0.019941 0.031775 0.37275 -0.021849 0.0043838 -0.00014865 0.0020963
0.0020753 0.00073201 0.0012245 0.00083501
0.00067869 0.0045647 -0.02186 0.0044958 0.33227 0.11705 0.001001 -0.0010361
0.00057467 -0.0005424 -1.6355e-05 0.00015481
-0.002042 -0.00094793 -0.00013669 0.0020956 0.00099699 -0.0010233 0.13788 0.2389
-0.0082524 -0.016558 0.0010872 0.00068664
0.0015079 0.0027754 0.0020781 0.00074385 0.0005435 -0.00054244 -0.0082828 -0.01655
0.0416 0.22683 -0.0035736 -0.014442
0.002002 -0.001519 0.0012554 0.00084496 -1.0427e-05 0.00015103 0.0010805 0.00066915
-0.003545 -0.014493 0.065411 0.31531
1400000000 0.23897 0.20279 -0.023714 -0.0083289 0.0052158 0.0033421 -0.0023584 0.00065981
0.0027502 0.001107 0.00042157 -0.0016976
-0.023674 -0.0083262 0.070845 0.36083 -0.01497 0.012835 0.00134 0.0013826
0.0012928 -0.00087025 0.0011962 0.00014377
0.0052313 0.003327 -0.014944 0.01293 0.34635 0.064094 -6.9904e-05 -0.0016052
6.984e-05 -0.00032627 0.00042605 0.00032624
-0.0023655 0.00066645 0.0013568 0.0013787 -7.1462e-05 -0.001611 0.16852 0.21055
-0.014518 -0.009885 -0.00088224 -7.3489e-05
0.002788 0.0010846 0.0012798 -0.00087391 7.678e-05 -0.00035231 -0.014541 -0.0098558
0.075286 0.22451 -0.010556 -0.0096006
0.00042822 -0.0016883 0.0011976 0.0001467 0.00041155 0.00033437 -0.0008939 -5.0144e-05
-0.010619 -0.0095721 0.11027 0.30562
1460000000 0.26319 0.15998 -0.020795 0.0044098 0.0057613 -0.0017392 -0.001583 0.0019326
0.0023125 -0.0003652 -0.00023745 -0.0010752
-0.020791 0.004406 0.10561 0.33927 -0.0055825 0.015874 0.0017376 0.00020512
0.00091452 -0.001354 0.0012033 -0.00053551
0.0057529 -0.0017613 -0.0055113 0.015929 0.3532 0.010182 -0.0012735 -0.0011816
0.00019443 -5.8534e-05 0.00070176 -0.00025626
-0.0015755 0.0019462 0.0017318 0.00019116 -0.0012645 -0.0011812 0.19568 0.18169
-0.015638 -0.0029769 -0.00082184 0.0020656
0.0023115 -0.00034676 0.0008933 -0.0013759 0.0001825 -8.5522e-05 -0.015642 -0.0029394
0.10448 0.21241 -0.012566 -0.0030755
-0.00020607 -0.0011156 0.0012089 -0.00054854 0.0007071 -0.00026095 -0.00082327 0.0020868
-0.012568 -0.0030514 0.14357 0.28561
1520000000 0.27765 0.11935 -0.015144 0.0101 0.0035087 -0.004352 0.00026431 0.0027743
0.002429 -0.0019589 -0.0012183 -0.0001431
-0.015129 0.010079 0.14005 0.32581 0.0023737 0.013036 0.0017125 -0.00072394
2.4401e-05 -0.0009784 0.00041087 -0.0010765
0.0034935 -0.0043761 0.0024488 0.013049 0.34703 -0.045084 -0.00095257 -0.00024041
0.00080986 -0.00089961 0.00013334 -0.00013087
0.00027129 0.0027645 0.0017096 -0.00073271 -0.00096862 -0.00023724 0.22016 0.14375
-0.014969 0.0028475 0.0016905 0.0022722
0.0024269 -0.0019686 1.9776e-05 -0.00098213 0.00081782 -0.00091276 -0.014961 0.0028774
0.13364 0.2011 -0.012495 0.0019379
-0.0012297 -0.00015473 0.00039424 -0.0010742 0.00014076 -0.00013386 0.001688 0.0022507
-0.012467 0.001945 0.17726 0.26735
1580000000 0.28881 0.073093 -0.0083348 0.013502 -0.00096639 -0.0051182 0.0015889 0.0018271
-0.00025253 -0.0023972 -0.00031441 0.0004782
-0.0083352 0.013494 0.1682 0.30083 0.0059929 0.0076537 0.00055988 -0.0015647
-0.00050662 -0.001028 -0.00019948 -0.00077489
-0.00099662 -0.0051074 0.0060444 0.0076211 0.32821 -0.10322 -0.0015028 0.00044041
-0.00032722 -0.0013944 0.00031975 -0.00060072
0.0016021 0.0018165 0.00055223 -0.0015748 -0.0014897 0.00043277 0.23495 0.104
-0.011185 0.0079117 0.0024528 0.00078229
-0.00029006 -0.0024128 -0.00050727 -0.0010312 -0.00033069 -0.0014036 -0.011166 0.0079545
0.15908 0.18503 -0.0096801 0.0079592
-0.00030781 0.00051452 -0.00020045 -0.00077858 0.0003317 -0.00060041 0.0024658 0.00078478
-0.0097083 0.0079697 0.2101 0.24128
1640000000 0.292 0.03213 -0.001447 0.012257 -0.0031014 -0.0027806 0.0028907 0.00098891
-0.00079141 -0.0017524 -0.00029899 0.00058181
-0.0014498 0.012245 0.19762 0.27701 0.0060852 0.0024074 -0.00048723 -0.0018829
-0.00086221 -0.00048415 -0.00047632 -0.00076377
-0.0031182 -0.0027719 0.006108 0.002367 0.29969 -0.1519 -0.00066756 0.0012754
-0.0011288 -0.0011058 -0.00019153 -0.00046332
0.0028964 0.00097642 -0.00050389 -0.0018799 -0.00069042 0.0012899 0.24784 0.055017
-0.0068081 0.0089169 0.0026781 -0.00079669
-0.00080117 -0.0017468 -0.00085844 -0.00048047 -0.0011569 -0.0011077 -0.0068122 0.0089314
0.18318 0.16305 -0.0046307 0.010188
-0.00034651 0.00056911 -0.00049294 -0.00075423 -0.0001861 -0.00047064 0.0026849 -0.00081937
-0.0046333 0.010182 0.23619 0.21172
1700000000 0.2867 -0.013367 0.0020029 0.0093776 -0.0039271 0.00015395 0.0031468 -0.0012887
-0.0021758 -0.00066368 0.00065102 0.00047994
0.0019938 0.0093756 0.21693 0.24561 0.0034097 -0.00069077 -0.0015145 -0.00076891
-0.00080263 -0.00019979 -0.00090511 -0.00045965
-0.0039071 0.0001889 0.0034154 -0.00070342 0.25768 -0.19212 0.00015793 0.0014641
-0.002181 -0.00017094 -0.00038363 -0.00086091
0.0031431 -0.001306 -0.0015229 -0.00076036 0.00016468 0.0014714 0.24551 0.0045611
-0.0038774 0.0092827 0.0018218 -0.0023481
-0.0021913 -0.00064488 -0.00081475 -0.00019838 -0.0021528 -0.00017731 -0.0038616 0.0092834
0.20273 0.14409 0.000373 0.01028
0.00067204 0.00045326 -0.00091499 -0.00046004 -0.00038909 -0.00086261 0.0018223 -0.0023626
0.00039607 0.010229 0.25429 0.17822
1760000000 0.27542 -0.062199 0.0042714 0.0060487 -0.0024543 0.0012921 0.0013326 -0.0035955
-0.0013234 0.00065157 0.00029995 -0.00059565
0.0042593 0.006033 0.24288 0.20618 0.00055063 -0.0022329 -0.0013362 2.3981e-05
-0.0011872 0.00080746 -0.00067432 0.00038662
-0.0024583 0.0012922 0.00054985 -0.0022412 0.20939 -0.22551 0.00094266 0.0011754
-0.0012601 0.0014656 -0.0013958 -0.00051677
0.0013247 -0.0036034 -0.001347 3.0948e-05 0.00093928 0.0011507 0.23641 -0.04768
-0.00069683 0.0081363 -0.00021667 -0.0026833
-0.0013295 0.00065688 -0.001173 0.00080824 -0.0012687 0.0014731 -0.00065871 0.008139
0.21886 0.11043 0.0044843 0.0076147
0.00026953 -0.00057419 -0.000669 0.00039617 -0.0014002 -0.00051737 -0.00018868 -0.0027049
0.0045502 0.007591 0.26789 0.141
1820000000 0.25249 -0.099569 0.0043233 0.0025091 8.6177e-05 0.0027281 -0.0010409 -0.0031483
-0.0012033 0.00096347 -0.00024081 -0.00014812
0.0043181 0.0025021 0.25412 0.17697 -0.00195 -0.00041361 -0.0015946 0.000913
-0.00023124 0.0011691 -0.00070982 0.00049688
9.9024e-05 0.002757 -0.0019556 -0.00038579 0.15911 -0.24092 0.0016241 0.00051736
-0.00012883 0.0024522 -0.0015535 0.00039176
-0.0010644 -0.0031493 -0.0015801 0.00092953 0.0016357 0.00054982 0.2069 -0.095186
0.0006288 0.0066634 -0.0016779 -0.0019554
-0.0012032 0.00096294 -0.00023739 0.0011753 -0.00017313 0.0024484 0.00063151 0.0066691
0.23813 0.082685 0.0057443 0.0036419
-0.00024048 -0.00013645 -0.00070427 0.00051848 -0.0015415 0.00038118 -0.0017042 -0.0019565
0.005707 0.0036494 0.27134 0.10561
1880000000 0.21821 -0.14101 0.0018675 0.00040778 -0.0005569 0.0025587 -0.0030434 -0.0022984
-0.00028094 0.0017359 0.00013407 -0.00057609
0.0018652 0.00039573 0.25875 0.13021 -0.0041397 0.0023077 -0.00028881 0.0019242
0.00041537 0.0015196 0.00011614 0.0010516
-0.00054436 0.0025682 -0.0041272 0.0023375 0.10685 -0.25013 0.0020221 -0.00086565
0.0016047 0.0019853 -0.00089497 0.0015333
-0.0030398 -0.0022901 -0.00028103 0.0019359 0.0020256 -0.00087369 0.16594 -0.13599
0.001238 0.0045506 -0.0027536 0.00011038
-0.00027655 0.001742 0.00042215 0.0015088 0.0016045 0.0019635 0.001271 0.0045545
0.24356 0.051469 0.0059472 0.0011327
9.5091e-05 -0.00064581 0.00010702 0.0010158 -0.00090019 0.0015439 -0.0027121 0.00014363
0.0059771 0.0012201 0.27293 0.071272
1940000000 0.17933 -0.16691 -0.0002481 -0.0010511 0.0017866 0.002315 -0.0038629 0.00042127
0.0011745 0.00095334 -0.00066367 -0.00033339
-0.00025319 -0.0010492 0.25997 0.099383 -0.0022395 0.0054816 0.0011366 0.0015278
0.0019812 0.00067787 0.00091367 0.00041165
0.0017688 0.0023115 -0.0022001 0.0055013 0.062287 -0.24223 0.00073716 -0.0023253
0.0023908 0.00042005 0.00026151 0.0015044
-0.003902 0.00045213 0.0011463 0.0015349 0.00077118 -0.0023119 0.11344 -0.16633
0.00017785 0.0033388 -0.00178 0.0013312
0.0011627 0.0009537 0.0019929 0.00066707 0.0024251 0.00042417 0.00017036 0.0033369
0.24782 0.014049 0.0045306 -0.002874
-0.00068178 -0.00035948 0.00093413 0.00039473 0.00025681 0.0015037 -0.0018117 0.0013754
0.0044744 -0.0028779 0.26226 0.035572
2000000000 0.13424 -0.18239 -0.0038526 0.0011636 0.0030775 0.0015032 -0.0024035 0.0038275
0.00097858 0.00055163 -0.0006372 0.00044004
-0.0038507 0.001148 0.24692 0.064159 -0.0010221 0.0077859 0.0018228 0.00043585
0.0014967 -0.0010988 0.00051909 -9.31e-06
0.0030677 0.0015141 -0.00097731 0.0078017 0.019995 -0.22872 -0.0014677 -0.0017068
0.0020573 -0.0011698 0.0015141 0.0013456
-0.0023841 0.0038189 0.0017982 0.00041127 -0.0015074 -0.0017088 0.059992 -0.17645
-0.0014928 0.003283 -0.00046721 0.0022482
0.0010154 0.00055758 0.0014832 -0.001117 0.0020501 -0.0011665 -0.0014556 0.0033058
0.24483 -0.019244 0.00088775 -0.0039182
