!Keysight Technologies,M9804A,MY58100912,A.14.10.03
!Date: Thursday, April 27, 2023 10:28:33
!Correction: S11(C  6-Port  ) 
!S12(C  6-Port  ) 
!S13(C  6-Port  ) 
!S14(C  6-Port  ) 
!S15(C  6-Port  ) 
!S16(C  6-Port  ) 
!S21(C  6-Port  ) 
!S22(C  6-Port  ) 
!S23(C  6-Port  ) 
!S24(C  6-Port  ) 
!S25(C  6-Port  ) 
!S26(C  6-Port  ) 
!S31(C  6-Port  ) 
!S32(C  6-Port  ) 
!S33(C  6-Port  ) 
!S34(C  6-Port  ) 
!S35(C  6-Port  ) 
!S36(C  6-Port  ) 
!S41(C  6-Port  ) 
!S42(C  6-Port  ) 
!S43(C  6-Port  ) 
!S44(C  6-Port  ) 
!S45(C  6-Port  ) 
!S46(C  6-Port  ) 
!S51(C  6-Port  ) 
!S52(C  6-Port  ) 
!S53(C  6-Port  ) 
!S54(C  6-Port  ) 
!S55(C  6-Port  ) 
!S56(C  6-Port  ) 
!S61(C  6-Port  ) 
!S62(C  6-Port  ) 
!S63(C  6-Port  ) 
!S64(C  6-Port  ) 
!S65(C  6-Port  ) 
!S66(C  6-Port  ) 
!S6P File: Measurement: :
# Hz S  RI   R 50
500000000 -0.33096 -0.066954 -0.010237 -0.00080095 -0.0090954 0.013305 -0.0041265 0.012169
0.013227 0.0058485 -0.0041631 0.0085716
-0.010349 -0.0011134 -0.41175 -0.075359 0.0082127 -0.010243 0.00094481 0.012673
0.0085776 0.0030491 0.0013822 0.014826
-0.0090677 0.013402 0.0081446 -0.010194 -0.26507 0.19019 0.0066682 0.0036031
-0.0019996 0.0090932 0.00039725 0.012116
-0.0037767 0.012238 0.00089007 0.012668 0.0066879 0.0035939 -0.32977 0.037626
-0.020415 -0.0045137 0.017282 0.027125
0.012686 0.004686 0.0085772 0.0027603 -0.002102 0.0091076 -0.020416 -0.0044525
-0.23268 -0.2193 -0.028396 0.0044122
-0.0041959 0.0082801 0.0013449 0.014587 0.00044362 0.012066 0.017298 0.027232
-0.028604 0.0040696 -0.26222 -0.14304
560000000 -0.32187 0.10046 -0.021248 -0.066864 -0.00026241 0.014263 0.0046759 0.012303
0.010646 0.0053682 0.010701 0.0090277
-0.021444 -0.066381 -0.37332 0.091327 -0.040918 -0.03932 0.01387 0.0044782
-0.012538 -0.004511 0.0032483 -0.00067934
-0.00016555 0.014088 -0.041276 -0.039324 -0.18689 0.2432 -0.00016647 -0.0053769
0.018002 0.0071814 0.0078615 -0.0064341
0.0042149 0.012352 0.013909 0.0044182 -0.00016055 -0.0053476 -0.30782 0.13045
0.0059211 -0.023034 0.0042703 -0.021489
0.010832 0.0044016 -0.012393 -0.0043696 0.018054 0.0073462 0.0058983 -0.022988
-0.30839 -0.036952 0.011009 -0.049958
0.010743 0.0087861 0.0034671 -0.00062025 0.0077767 -0.0064374 0.0042122 -0.02156
0.011219 -0.049938 -0.33416 0.0074654
620000000 -0.27906 0.081509 -0.023446 0.0095624 0.0039827 0.0091316 0.0082321 -0.0037105
0.012256 -0.0019369 -0.00026457 -0.0012504
-0.02331 0.0096871 -0.40223 0.037124 -0.018164 0.00050974 -0.0013945 -0.0018284
0.01299 -0.0057306 0.0010791 -0.0028819
0.0038753 0.0093728 -0.018133 0.0005545 -0.15795 0.25249 -0.00078624 -0.0052471
-0.0022256 -0.0026317 0.0094931 -0.0032557
0.0077081 -0.0039712 -0.0015668 -0.0020503 -0.00079555 -0.0052438 -0.26481 0.14041
-0.038783 -0.01935 0.013948 0.0277
0.012648 -0.001231 0.013297 -0.0054609 -0.0023221 -0.002598 -0.038828 -0.019326
-0.22626 -0.075884 -0.042609 0.013888
0.00041454 -0.0013319 0.0013936 -0.0031402 0.009454 -0.0032602 0.013943 0.027634
-0.042671 0.014098 -0.24495 -0.030823
680000000 -0.24477 0.17532 -0.026263 -0.014914 0.0052189 0.0057123 0.0019526 -0.0068106
-0.0014202 -0.011977 0.0061942 -0.0073883
-0.026171 -0.014911 -0.39146 0.13928 -0.032176 -0.0027403 -0.001688 -0.00030339
-0.001373 -0.0098209 -0.00081358 -0.0024903
0.0049553 0.0056881 -0.032258 -0.0026412 -0.10761 0.27444 -0.00072853 -0.00044027
-0.0013626 0.00027693 -0.0023631 -0.0094396
0.0016654 -0.0070001 -0.0016972 -0.00030636 -0.00072702 -0.00041416 -0.22066 0.19292
-0.02364 -0.0069909 -0.0094606 -0.010544
-0.0019623 -0.011501 -0.001347 -0.009876 -0.0013541 0.00027441 -0.023788 -0.007029
-0.28247 0.031389 -0.0065352 -0.0082581
0.0058405 -0.0068228 -0.00077813 -0.0024462 -0.002312 -0.0093956 -0.0097637 -0.010578
-0.0064092 -0.0082942 -0.26489 0.077907
740000000 -0.19678 0.1688 -0.040624 0.027083 0.013939 -0.0044112 0.00035041 -0.0045284
-0.0045161 -0.0027066 -0.0059408 0.0026414
-0.040732 0.027013 -0.33722 0.15815 -0.037864 0.034727 0.00010143 -0.00612
-0.013311 0.0067374 -0.0013366 -0.0064786
0.014329 -0.0044506 -0.037654 0.034849 -0.074267 0.27236 -0.002306 0.0032723
-0.0017191 -0.0055972 -0.0018225 0.00092849
0.00018134 -0.0043411 0.00011064 -0.0062439 -0.0023369 0.0033141 -0.2045 0.19975
-0.042488 -0.010068 0.022996 0.016548
-0.0050962 -0.0032586 -0.013466 0.0067821 -0.0018536 -0.0057449 -0.042587 -0.010013
-0.18076 0.064412 -0.043017 -0.0014899
-0.0059695 0.0025285 -0.0013114 -0.0063991 -0.0019473 0.0009034 0.023216 0.016405
-0.043276 -0.0014672 -0.25359 0.084438
800000000 -0.16602 0.21436 -0.022318 0.015836 0.0061057 -0.010624 -0.004279 -0.0026453
-0.0047418 0.001478 0.0041824 0.0002437
-0.022458 0.015785 -0.34489 0.22953 -0.009279 0.034077 -0.0021665 0.0018296
-0.0011364 0.0023065 0.00086167 0.0053918
0.0059733 -0.010503 -0.0091501 0.034135 -0.036015 0.29791 0.00091895 0.0013044
-7.4565e-05 0.0032535 -0.0016018 0.00056834
-0.0045395 -0.0025175 -0.0022707 0.0019222 0.00094225 0.001318 -0.17523 0.22785
-0.028307 0.012763 0.014502 -0.01019
-0.0045393 0.001704 -0.0011365 0.0024171 -8.7517e-05 0.0032212 -0.028292 0.012817
-0.22923 0.08896 -0.017007 0.020358
0.0041405 0.00071959 0.00087476 0.0053032 -0.0014905 0.00068642 0.014459 -0.010025
-0.017038 0.020417 -0.24828 0.13528
860000000 -0.13228 0.23459 -0.018538 0.030084 -0.0028771 -0.010451 -0.0018551 0.00014487
0.0035942 0.0049131 -0.0035591 -0.0030847
-0.018601 0.030116 -0.29823 0.27361 0.0066981 0.034658 0.00024469 0.0021244
0.0029459 0.00076236 0.0035231 0.00041785
-0.00294 -0.010438 0.0067882 0.034755 0.011005 0.30763 -0.00058896 -0.00025541
0.0022146 -0.0015824 0.0015415 0.0040408
-0.0016487 0.00015205 0.00018459 0.0020515 -0.00059762 -0.00023994 -0.13899 0.23832
-0.018115 0.017494 -0.0062453 -0.0090509
0.0034258 0.0050599 0.0028867 0.0009546 0.0022582 -0.0015811 -0.018128 0.017572
-0.17212 0.14335 -0.025789 0.016368
-0.0037539 -0.0034732 0.0037008 0.00026423 0.0014902 0.0039946 -0.0063069 -0.0090314
-0.025822 0.016105 -0.1969 0.18149
920000000 -0.10968 0.258 0.0040663 0.03878 -0.0093341 -0.0053005 -0.0021129 0.0015617
0.00075142 0.0019648 0.0032069 -0.0013708
0.0038952 0.038776 -0.27134 0.29545 0.027909 0.023352 0.0013554 0.00098772
0.0076174 0.00026985 0.0042632 -0.0030642
-0.0094659 -0.0052584 0.028016 0.023311 0.056625 0.3102 0.0019606 -5.5534e-05
0.00069618 -2.6319e-05 0.00084445 -0.0016375
-0.0021765 0.0015902 0.0013663 0.001027 0.0019457 -4.9798e-05 -0.11491 0.25588
-0.012048 0.030421 0.0043995 -0.0068837
0.00051988 0.0020762 0.0077005 0.00017818 0.00071475 -3.4766e-05 -0.011984 0.030458
-0.16348 0.14881 -0.0018722 0.027646
0.002848 -0.0013114 0.004125 -0.0029772 0.0008466 -0.001627 0.004351 -0.0068882
-0.0019127 0.027659 -0.20613 0.19483
980000000 -0.0637 0.27941 0.0158 0.030621 -0.009839 0.0042954 0.001558 0.0038604
0.0039645 -0.0011831 -0.0031937 -0.0025645
0.015801 0.030696 -0.21942 0.3321 0.033295 0.0060908 0.0020111 3.0721e-05
0.0019078 -0.005947 -0.00018102 -0.0026757
-0.0098251 0.0042884 0.033404 0.0060013 0.10273 0.3051 0.00069314 -0.0010981
0.00045093 -0.0017129 0.0012798 -0.00036927
0.0016126 0.0037534 0.0019861 -2.3178e-05 0.00068055 -0.0011038 -0.077664 0.26637
0.0068517 0.029557 -0.0096596 -0.0078411
0.0039436 -0.0010769 0.0019181 -0.0059432 0.00044972 -0.0016991 0.0069116 0.029563
-0.13089 0.18249 0.005849 0.019642
-0.0032006 -0.0027521 -0.00011732 -0.0027671 0.0012541 -0.00037161 -0.0096145 -0.0078783
0.0058432 0.019637 -0.16458 0.24043
1040000000 -0.023732 0.28925 0.032958 0.020249 -0.0016479 0.0073785 0.0024915 0.0010355
0.00054322 -0.0033843 -0.00019986 -0.0015467
0.032793 0.020275 -0.18504 0.34661 0.030406 -0.013976 0.0016162 -0.0015828
-0.0023112 -0.00254 -0.0012396 -0.0028805
-0.0015943 0.0074327 0.030405 -0.014115 0.14875 0.2934 -0.00043171 -0.0015851
-0.0016311 -0.00096614 -0.00067524 -0.00099131
0.002448 0.00094386 0.0016752 -0.0016003 -0.00043335 -0.0015857 -0.050836 0.27684
0.018774 0.019415 -0.0021868 0.0010385
0.00048997 -0.0033959 -0.0023416 -0.0025511 -0.0016379 -0.00095901 0.018841 0.019378
-0.099157 0.19062 0.014298 0.019266
-0.00045001 -0.0015503 -0.0012521 -0.0028481 -0.00067191 -0.0009907 -0.0021616 0.00098689
0.014311 0.019228 -0.1436 0.26301
1100000000 0.021191 0.29956 0.03679 -0.0025607 0.0030576 0.0043841 0.0024555 -0.00088275
-0.0021431 -0.003249 -0.0042809 -0.00029714
0.036793 -0.0025065 -0.14157 0.36608 0.016334 -0.02787 3.1146e-05 -0.0019247
-0.0037243 -0.0012599 -0.0036315 -0.00072847
0.0030467 0.0043601 0.016272 -0.027961 0.19558 0.27452 -0.0019146 0.00015648
-0.0018095 0.00067595 -0.0011737 -0.00040184
0.0024931 -0.00089306 1.2498e-05 -0.0019172 -0.0019093 0.00016733 -0.010939 0.28237
0.024764 0.0061041 -0.0027998 -0.00037948
-0.0021018 -0.0032266 -0.0037934 -0.001248 -0.0017913 0.00068462 0.024793 0.0060733
-0.079415 0.20411 0.020097 0.0093352
-0.0042059 -0.00047344 -0.003714 -0.00067406 -0.0012002 -0.00039775 -0.0028068 -0.00036892
0.020125 0.0093675 -0.097463 0.29358
1160000000 0.071655 0.29683 0.025398 -0.020024 0.003148 -0.00044562 -3.2025e-05 -0.0023227
-0.0041309 -0.0010282 -0.00122 0.0042984
0.02536 -0.019885 -0.098665 0.37183 -0.0030384 -0.029604 -0.0015756 -0.0018414
-0.0027903 0.002641 -0.0016735 0.0019111
0.0031503 -0.00045001 -0.0031437 -0.029613 0.239 0.24493 -0.00085165 0.0017158
-0.00050609 0.0018637 -0.00094602 0.00035732
-6.5512e-05 -0.0023935 -0.0016044 -0.001859 -0.00085184 0.0017247 0.027572 0.28043
0.021438 -0.010174 -0.0037307 0.005201
-0.0041719 -0.00098837 -0.0028283 0.0026605 -0.00051049 0.0018777 0.021459 -0.010176
-0.045773 0.21354 0.019285 0.00033136
-0.001246 0.0044566 -0.001633 0.0019661 -0.0009536 0.00031238 -0.0036601 0.0052525
0.0192 0.00031244 -0.051352 0.29795
1220000000 0.11545 0.28893 0.012168 -0.030227 -0.0013127 -0.0011119 0.00025595 -0.0010288
-0.0029417 0.0022536 0.0012386 0.002196
0.01217 -0.030205 -0.054293 0.38671 -0.016819 -0.02193 -0.0026357 0.00042299
-3.5442e-05 0.0032889 -0.00080691 0.0019802
-0.0013277 -0.0011344 -0.016947 -0.021897 0.27888 0.20696 0.00084464 0.0017543
0.00068752 0.0012643 0.00029664 0.00057991
0.00023533 -0.00097688 -0.0026275 0.00043949 0.00083419 0.0017447 0.067383 0.27349
0.011094 -0.016956 0.0018368 0.0017689
-0.0029371 0.0023315 -2.544e-05 0.0033072 0.00068476 0.0012715 0.011072 -0.016976
-0.02364 0.22428 0.014844 -0.013065
0.00117 0.002206 -0.00077989 0.0019628 0.00033271 0.00059778 0.0018316 0.0017315
0.014882 -0.013106 -0.02086 0.31579
1280000000 0.16615 0.26966 -0.0069376 -0.029449 -0.0019639 0.0022569 -0.00082266 -0.0022384
-0.00088161 0.0034493 0.0027089 0.0014775
-0.0069202 -0.029424 -0.0075028 0.37921 -0.024332 -0.0087445 -0.0010114 0.0015275
0.0018369 0.0019512 0.00074357 0.0021753
-0.0019135 0.0023316 -0.024415 -0.0086244 0.31 0.1637 0.0016687 -8.571e-05
0.0011682 0.00022422 0.00041128 0.00027701
-0.00081254 -0.0022692 -0.0010022 0.001517 0.0016748 -8.6325e-05 0.10442 0.25805
0.0012993 -0.019353 -0.00033678 0.00033006
-0.00091725 0.0033328 0.0018719 0.0019159 0.0011857 0.00023232 0.0012654 -0.019343
0.01224 0.22899 0.0039803 -0.016028
0.0027392 0.001441 0.00072227 0.002159 0.00035177 0.00028798 -0.00027968 0.00036253
0.0040277 -0.016051 0.027129 0.31868
1340000000 0.20387 0.23872 -0.017176 -0.019967 0.00060159 0.004528 -0.0020037 -0.0010465
0.0015266 0.0028066 0.0019576 -0.0015406
-0.017148 -0.019949 0.032131 0.3727 -0.021824 0.0043945 -0.00015261 0.0021166
0.0021309 0.00080632 0.0012083 0.00081737
0.0006187 0.0045309 -0.021839 0.0044955 0.33249 0.11691 0.0009915 -0.00098272
0.00053956 -0.00049884 -2.0597e-05 0.00010456
-0.0020174 -0.00098776 -0.00015829 0.0021143 0.00098786 -0.00098317 0.13818 0.2389
-0.0083884 -0.016622 0.0010307 0.00075945
0.0015566 0.0027686 0.002149 0.0007833 0.00053333 -0.00050315 -0.0084181 -0.016622
0.041674 0.22643 -0.0036595 -0.014496
0.0019556 -0.0015494 0.0011968 0.00084526 -1.2388e-05 0.0001009 0.0010538 0.00077438
-0.0036469 -0.014505 0.065411 0.3154
1400000000 0.23925 0.20266 -0.023719 -0.0083117 0.005207 0.0033436 -0.0023871 0.00067662
0.0027422 0.0011715 0.00050788 -0.0017191
-0.023682 -0.0083064 0.071084 0.36079 -0.014919 0.012824 0.0013601 0.001376
0.001314 -0.00086173 0.0012139 0.00014879
0.0052582 0.003349 -0.014886 0.012929 0.34652 0.063966 -2.9402e-05 -0.0016416
0.0001195 -0.00032299 0.00039985 0.00030138
-0.0023877 0.00066639 0.001369 0.0013735 -3.1617e-05 -0.0016346 0.16876 0.21046
-0.014733 -0.0098553 -0.00085233 -4.8098e-06
0.0027417 0.0011084 0.0012906 -0.00087508 0.00010772 -0.00032071 -0.014761 -0.0098208
0.075249 0.22433 -0.010524 -0.0096759
0.00045451 -0.0016844 0.0012025 0.0001122 0.00037844 0.00027664 -0.00088802 3.7207e-05
-0.010516 -0.0096976 0.1102 0.30586
1460000000 0.26341 0.1597 -0.020806 0.0044177 0.005729 -0.0017766 -0.0016155 0.0019263
0.0023454 -0.00031805 -0.00023944 -0.0010479
-0.020821 0.0043733 0.10589 0.33921 -0.0055943 0.015841 0.0017164 0.00021261
0.00093183 -0.0013648 0.0011655 -0.00057007
0.0057261 -0.0017933 -0.0055111 0.015887 0.35336 0.0099801 -0.00128 -0.0011841
0.00022208 -9.3182e-05 0.00068546 -0.00021598
-0.0016161 0.0019101 0.0017123 0.00021879 -0.0012717 -0.0011837 0.19588 0.18149
-0.015695 -0.0028703 -0.00087536 0.0020713
0.0024036 -0.00037328 0.00093362 -0.001386 0.00024407 -7.8339e-05 -0.0157 -0.0028339
0.10455 0.21221 -0.01259 -0.0032667
-0.00023626 -0.0010614 0.0011699 -0.00061366 0.00067658 -0.00023485 -0.00090767 0.0020563
-0.012618 -0.0032696 0.14359 0.28568
1520000000 0.27789 0.11903 -0.015152 0.010113 0.003448 -0.004324 0.00021387 0.0027857
0.0024143 -0.0019915 -0.0012607 -8.8731e-05
-0.015134 0.010084 0.14025 0.32569 0.0023471 0.013002 0.0017173 -0.00072811
1.8632e-05 -0.00098042 0.00040233 -0.0010668
0.0034351 -0.0043293 0.0024309 0.013016 0.34712 -0.045413 -0.00094212 -0.00024505
0.00079817 -0.0008971 0.00016056 -6.7671e-05
0.00025301 0.0027919 0.0017039 -0.00073243 -0.00093103 -0.00024674 0.22029 0.14358
-0.015006 0.0029648 0.0017332 0.0022552
0.0023608 -0.0019692 3.7259e-06 -0.00099076 0.00079982 -0.00090014 -0.01502 0.003004
0.13348 0.20098 -0.012468 0.0018375
-0.0011998 -0.00011667 0.00041259 -0.0010748 0.00017124 -7.3397e-05 0.0017517 0.0022911
-0.012477 0.0018204 0.1771 0.26716
1580000000 0.28898 0.072783 -0.0083457 0.013512 -0.00095433 -0.0050697 0.0016274 0.0018377
-0.00023888 -0.0024495 -0.00030431 0.00045427
-0.0083692 0.013484 0.16842 0.30076 0.0060102 0.007631 0.00056954 -0.0015947
-0.00050147 -0.0010855 -0.00022501 -0.00079391
-0.0010059 -0.0050891 0.0060541 0.0076163 0.32826 -0.10335 -0.0014461 0.00042357
-0.00027631 -0.0014676 0.00030674 -0.00059688
0.0016252 0.0018442 0.00054531 -0.0015965 -0.001449 0.00042213 0.23491 0.10383
-0.011153 0.0080605 0.0024446 0.00079946
-0.00022904 -0.0024339 -0.00052725 -0.0010551 -0.00028124 -0.0014598 -0.011144 0.0080949
0.15899 0.1849 -0.0098674 0.0079415
-0.00029012 0.0005115 -0.0002309 -0.00079458 0.00030084 -0.00060345 0.0024443 0.00074539
-0.009844 0.0079332 0.21008 0.24144
1640000000 0.29206 0.031753 -0.0014905 0.012267 -0.0031022 -0.002755 0.0028814 0.00096245
-0.00081083 -0.0017648 -0.00030927 0.00056614
-0.0014805 0.012274 0.1979 0.27686 0.0060906 0.0024074 -0.00049365 -0.0018624
-0.00089009 -0.00045205 -0.0004707 -0.00076524
-0.0031186 -0.0027036 0.0061109 0.0023819 0.29979 -0.15211 -0.00065823 0.0013196
-0.001155 -0.0010645 -0.00021385 -0.00050424
0.0028652 0.00093997 -0.0005147 -0.0018755 -0.00065038 0.0013095 0.24786 0.054896
-0.006754 0.0089693 0.0026597 -0.00080145
-0.00079653 -0.0017798 -0.00088357 -0.00045335 -0.0011598 -0.0010669 -0.0067358 0.0089873
0.18303 0.16284 -0.0047653 0.010163
-0.00035257 0.00057216 -0.00049563 -0.00074864 -0.00019822 -0.00047808 0.0026662 -0.00080903
-0.0047643 0.010139 0.236 0.21184
1700000000 0.28674 -0.013608 0.0020106 0.0094241 -0.0038883 0.00018693 0.0031638 -0.0012875
-0.0021857 -0.00062517 0.00064343 0.0004607
0.0020007 0.0094124 0.21714 0.24547 0.0033892 -0.00068978 -0.0015068 -0.00075564
-0.00079928 -0.0001665 -0.00092547 -0.00048216
-0.0038838 0.00019994 0.0033832 -0.0006936 0.25757 -0.19232 0.00021655 0.0015199
-0.0021639 -0.00013484 -0.00043364 -0.00084029
0.0031517 -0.001357 -0.001508 -0.00075617 0.00021403 0.001523 0.24545 0.0044909
-0.0038051 0.009346 0.0018336 -0.0023036
-0.0021801 -0.00061976 -0.00080966 -0.00016312 -0.0021749 -0.00014926 -0.003795 0.0093557
0.20253 0.14416 0.00028839 0.010347
0.00066102 0.00044243 -0.00091311 -0.00048037 -0.00047481 -0.00084482 0.0018209 -0.0022933
0.00028863 0.010326 0.25417 0.17824
1760000000 0.27547 -0.062557 0.0042904 0.0060684 -0.0024865 0.0012771 0.0012557 -0.0035863
-0.0013941 0.00067484 0.00037386 -0.00052751
0.0042883 0.0060493 0.24314 0.20604 0.0005205 -0.0022426 -0.0013376 -4.2572e-06
-0.0011574 0.00080263 -0.00066201 0.00038217
-0.0024937 0.0012823 0.00050904 -0.0022383 0.20931 -0.22575 0.0010041 0.0011488
-0.0012256 0.0014788 -0.0013485 -0.0005447
0.0012569 -0.0035726 -0.0013295 -7.049e-07 0.0010025 0.0011556 0.23639 -0.047674
-0.00060786 0.0081284 -0.00018794 -0.0027432
-0.001385 0.00066781 -0.0011728 0.00077981 -0.0012561 0.0014762 -0.00059128 0.0081199
0.21866 0.11052 0.0044208 0.0076494
0.0003223 -0.0005738 -0.00069646 0.00037917 -0.0013392 -0.00056268 -0.00016354 -0.0027594
0.0044562 0.0076444 0.26795 0.141
1820000000 0.25243 -0.099819 0.0043185 0.0024907 7.1577e-05 0.0026448 -0.0010902 -0.0031639
-0.0011702 0.0010218 -0.00018719 -0.00021855
0.004339 0.0024956 0.25432 0.17669 -0.0019273 -0.00042583 -0.0015526 0.00097358
-0.00023091 0.0012274 -0.00067287 0.00047795
0.00014372 0.0026213 -0.0019322 -0.00040699 0.15898 -0.24112 0.0015328 0.00060828
-0.00027589 0.0024899 -0.0015573 0.00037996
-0.0010676 -0.003154 -0.0015579 0.00098998 0.0015219 0.00060552 0.20696 -0.095099
0.00066049 0.00665 -0.001657 -0.0019249
-0.0011511 0.00097028 -0.00019267 0.00124 -0.00022153 0.0024693 0.00067023 0.0066701
0.23785 0.082854 0.0056313 0.0037953
-0.00015048 -0.00021059 -0.00067304 0.00044895 -0.0015804 0.00039004 -0.0016819 -0.001937
0.0056085 0.0037808 0.27149 0.10581
1880000000 0.21818 -0.14123 0.0019217 0.0003844 -0.00046713 0.002534 -0.0030172 -0.0022495
-0.00024044 0.0016905 0.0001082 -0.00052623
0.0019288 0.00040878 0.25891 0.13003 -0.0040997 0.0022952 -0.00032532 0.0019312
0.00039956 0.0014779 0.00010281 0.0010952
-0.00044311 0.0025835 -0.0041039 0.0023407 0.10669 -0.25038 0.0020109 -0.00091339
0.001654 0.0019935 -0.0009196 0.0017079
-0.0030627 -0.0022097 -0.00031422 0.0019438 0.002015 -0.0009166 0.16596 -0.13614
0.0012112 0.0044726 -0.0026651 1.45e-05
-0.00025614 0.0017328 0.00039048 0.0014835 0.0016304 0.0019839 0.0012119 0.0044713
0.24346 0.051612 0.0058838 0.0012471
0.0001417 -0.00054362 0.00013473 0.0010815 -0.0009637 0.0016863 -0.0026432 2.0504e-05
0.0059085 0.0012205 0.27262 0.071556
1940000000 0.17935 -0.16695 -0.00022142 -0.0010208 0.0017023 0.0023088 -0.0038054 0.00045155
0.0011491 0.00096295 -0.00082593 -0.00045978
-0.00021611 -0.00098187 0.26014 0.099097 -0.0022398 0.0054462 0.0011895 0.0015579
0.0019801 0.00065743 0.00088302 0.00029543
0.0017266 0.0022888 -0.0021863 0.0054872 0.062238 -0.24231 0.00067304 -0.0023073
0.0024489 0.00033709 0.00031368 0.0015497
-0.0038342 0.00040198 0.0012076 0.0015172 0.00065596 -0.0023311 0.11353 -0.16647
0.00018402 0.0032032 -0.0018038 0.0014278
0.0011469 0.00092761 0.0019673 0.00063564 0.0024533 0.0003408 0.0001971 0.0032005
0.24789 0.014187 0.0044923 -0.0027013
-0.00079399 -0.00032177 0.0008894 0.00027555 0.00033142 0.0015744 -0.0017595 0.0013817
0.004495 -0.0027241 0.26234 0.03554
2000000000 0.13412 -0.1825 -0.0038431 0.0011822 0.0030077 0.0014584 -0.0023623 0.00375
0.0011395 0.00048186 -0.0004826 0.00051662
-0.003849 0.0011846 0.24693 0.063953 -0.0010293 0.0077842 0.0018653 0.00036083
0.0014982 -0.0010752 0.00056317 1.2287e-05
0.0029772 0.0014211 -0.00098883 0.007824 0.019836 -0.2288 -0.0015531 -0.0016411
0.0019729 -0.0010943 0.0016436 0.0012044
-0.0023395 0.0037679 0.0018871 0.00034066 -0.0015498 -0.0016487 0.059924 -0.1766
-0.0015896 0.0033334 -0.00034251 0.0023513
0.0011757 0.00052024 0.0015047 -0.001112 0.0019707 -0.0011493 -0.0015893 0.0033534
0.24483 -0.019043 0.00095848 -0.0037429
