!Keysight Technologies,M9804A,MY58100912,A.14.10.03
!Date: Thursday, April 27, 2023 10:28:33
!Correction: S11(C  6-Port  ) 
!S12(C  6-Port  ) 
!S13(C  6-Port  ) 
!S14(C  6-Port  ) 
!S15(C  6-Port  ) 
!S16(C  6-Port  ) 
!S21(C  6-Port  ) 
!S22(C  6-Port  ) 
!S23(C  6-Port  ) 
!S24(C  6-Port  ) 
!S25(C  6-Port  ) 
!S26(C  6-Port  ) 
!S31(C  6-Port  ) 
!S32(C  6-Port  ) 
!S33(C  6-Port  ) 
!S34(C  6-Port  ) 
!S35(C  6-Port  ) 
!S36(C  6-Port  ) 
!S41(C  6-Port  ) 
!S42(C  6-Port  ) 
!S43(C  6-Port  ) 
!S44(C  6-Port  ) 
!S45(C  6-Port  ) 
!S46(C  6-Port  ) 
!S51(C  6-Port  ) 
!S52(C  6-Port  ) 
!S53(C  6-Port  ) 
!S54(C  6-Port  ) 
!S55(C  6-Port  ) 
!S56(C  6-Port  ) 
!S61(C  6-Port  ) 
!S62(C  6-Port  ) 
!S63(C  6-Port  ) 
!S64(C  6-Port  ) 
!S65(C  6-Port  ) 
!S66(C  6-Port  ) 
!S6P File: Measurement: :
# Hz S  RI   R 50
500000000 -0.32612 -0.055154 -0.011017 -0.0014507 -0.0082225 0.012537 -0.0037117 0.011556
0.01214 0.0052539 -0.0051808 0.0087641
-0.01025 -0.0010493 -0.4098 -0.070385 0.0073939 -0.010705 0.00087314 0.011896
0.008057 0.0024819 0.00068778 0.013463
-0.0083257 0.012679 0.0072373 -0.010825 -0.25472 0.19473 0.0063146 0.0032692
-0.0015718 0.0078436 0.00075822 0.011863
-0.0039307 0.011667 0.00066008 0.012221 0.0062638 0.0031241 -0.32829 0.045073
-0.019387 -0.0056995 0.016345 0.027539
0.012843 0.0045224 0.0085274 0.0024346 -0.0011081 0.0082076 -0.019461 -0.0065405
-0.25688 -0.16085 -0.027561 0.0043009
-0.0048253 0.0078616 0.00087078 0.014199 0.00045821 0.011507 0.016661 0.028925
-0.027072 0.0051817 -0.25499 -0.14814
560000000 -0.31294 0.10823 -0.02149 -0.066577 0.00092674 0.012951 0.0048263 0.011223
0.011169 0.0039387 0.011566 0.0099227
-0.02094 -0.064764 -0.37059 0.092789 -0.041103 -0.038723 0.013344 0.0035153
-0.012413 -0.0043355 0.003702 -0.001869
0.00054008 0.013211 -0.041075 -0.038692 -0.17853 0.24318 3.4182e-05 -0.0046391
0.017388 0.0041699 0.0081832 -0.0058846
0.0046497 0.011421 0.012818 0.003506 -0.0001059 -0.0047126 -0.30508 0.13528
0.0030395 -0.022559 0.0057093 -0.021742
0.011114 0.0043114 -0.011759 -0.0042719 0.017468 0.0052454 0.0029755 -0.02311
-0.30591 0.016478 0.0078661 -0.047388
0.011176 0.0092561 0.0038317 -0.00042271 0.0081104 -0.0062671 0.005898 -0.021269
0.0072894 -0.047794 -0.3254 0.00068231
620000000 -0.27218 0.086646 -0.023835 0.0091926 0.0033815 0.0089568 0.0084842 -0.0045107
0.011521 -0.0011963 0.00082104 -0.002188
-0.023813 0.0091494 -0.39943 0.039658 -0.019372 0.0010169 -0.0015503 -0.0020035
0.011693 -0.005916 0.00071981 -0.0029329
0.0030689 0.0089897 -0.019468 0.0011026 -0.15255 0.25148 -0.00095082 -0.0050482
-0.0035003 -0.0029264 0.0086985 -0.002715
0.0076121 -0.0045704 -0.0013477 -0.0018837 -0.00096328 -0.0048397 -0.26422 0.14562
-0.040293 -0.019754 0.012379 0.030372
0.011675 -0.0011288 0.011389 -0.0064216 -0.0035604 -0.0030707 -0.038987 -0.019525
-0.22982 -0.015685 -0.040487 0.012037
-0.00037245 -0.0014686 0.0009508 -0.0031064 0.0089812 -0.0029718 0.011207 0.029902
-0.040585 0.011946 -0.24277 -0.032102
680000000 -0.23746 0.17813 -0.026292 -0.013988 0.0048438 0.005158 0.0016469 -0.0068933
-0.0025297 -0.011207 0.0052461 -0.0062176
-0.026242 -0.014347 -0.38926 0.14258 -0.032244 -0.0011082 -0.0013795 -0.00043636
-0.0021876 -0.0092007 -0.00086627 -0.0016994
0.0047545 0.0052117 -0.032353 -0.001028 -0.106 0.27457 -0.00075122 -0.00027486
-0.0017275 0.00017894 -0.0027798 -0.0090905
0.0014069 -0.0065494 -0.0015587 -0.00052823 -0.0008523 -0.00030209 -0.21977 0.19903
-0.02517 -0.006549 -0.0080656 -0.012106
-0.0023444 -0.011626 -0.0019497 -0.0090984 -0.0016705 9.373e-05 -0.025041 -0.0062643
-0.26933 0.081297 -0.0067741 -0.0052302
0.0065569 -0.0071142 -0.00076476 -0.0016756 -0.0028346 -0.0087681 -0.0080177 -0.012597
-0.0058878 -0.0056384 -0.26164 0.070117
740000000 -0.19154 0.17088 -0.040363 0.027214 0.013148 -0.0040446 0.00032 -0.0041422
-0.0044429 -0.0016963 -0.0066013 0.0025074
-0.040476 0.027034 -0.33436 0.16136 -0.036137 0.034364 -6.9297e-05 -0.0059456
-0.011674 0.0070082 -0.0010827 -0.0054104
0.013146 -0.0038616 -0.03632 0.034501 -0.072087 0.27455 -0.0022327 0.0028668
-0.0018345 -0.004388 -0.0016594 0.00070185
-0.00022914 -0.0043858 -0.00011819 -0.0062997 -0.0020992 0.0030162 -0.20242 0.20518
-0.040733 -0.0053567 0.021612 0.017336
-0.0044875 -0.0013192 -0.01195 0.0071374 -0.0019189 -0.0045163 -0.040536 -0.0046457
-0.17746 0.10191 -0.039355 0.00078918
-0.0062694 0.0024672 -0.0016957 -0.006053 -0.001724 0.00059355 0.022151 0.016954
-0.039492 0.0017371 -0.2516 0.075376
800000000 -0.1633 0.21598 -0.022321 0.016604 0.0053899 -0.0099854 -0.0042932 -0.002689
-0.004386 0.0020651 0.0043455 0.00088793
-0.02199 0.016339 -0.34274 0.23277 -0.0080987 0.034262 -0.0023633 0.00191
-0.00081084 0.0024186 0.00055121 0.0055875
0.0053285 -0.010066 -0.0079737 0.034366 -0.034398 0.3009 0.00062162 0.0013902
0.00030331 0.003542 -0.0017311 0.00083862
-0.0040667 -0.0028127 -0.0024834 0.0021249 0.00061138 0.0013627 -0.17256 0.23408
-0.027114 0.015548 0.014602 -0.010792
-0.0044317 0.001999 -0.00062768 0.0023842 0.00020991 0.0035274 -0.027478 0.015382
-0.21124 0.13104 -0.016721 0.021218
0.0043564 0.00021197 0.00059008 0.0057804 -0.0017827 0.00068881 0.014941 -0.010495
-0.016553 0.021232 -0.25023 0.1269
860000000 -0.12791 0.23737 -0.017474 0.030639 -0.0033111 -0.0096871 -0.001709 0.00041629
0.0037608 0.0051653 -0.0038666 -0.0033611
-0.017362 0.030418 -0.29388 0.27707 0.0080171 0.033932 0.00043878 0.0020012
0.0038107 0.00069679 0.0030572 0.00039669
-0.0032264 -0.0096499 0.0081243 0.033929 0.014988 0.3108 -0.00037742 -0.00022755
0.0026747 -0.00123 0.0013307 0.0043127
-0.001866 0.00053095 0.00034185 0.0020109 -0.00035237 -0.00020899 -0.13397 0.24494
-0.015797 0.020034 -0.0072068 -0.0096798
0.0038822 0.0050433 0.0038228 0.00071725 0.0026234 -0.0011698 -0.015864 0.019753
-0.15492 0.177 -0.022274 0.016666
-0.0034532 -0.0029421 0.0032649 8.8259e-05 0.0013547 0.0041957 -0.0076181 -0.009542
-0.022273 0.016541 -0.19836 0.17703
920000000 -0.10507 0.26011 0.0049456 0.038954 -0.0089065 -0.0042324 -0.0020272 0.0016293
0.0010227 0.0017053 0.0032944 -0.0010933
0.0049496 0.038911 -0.26728 0.29779 0.028087 0.022404 0.0013929 0.0012767
0.0069177 -0.00053398 0.0039418 -0.0027688
-0.0088977 -0.0041813 0.028211 0.022358 0.060951 0.31205 0.0018291 7.1045e-05
0.00092035 -0.00020324 0.00090141 -0.0014608
-0.0019218 0.0016293 0.0014783 0.0012687 0.0018942 0.00011827 -0.11011 0.26092
-0.0080195 0.030738 0.0042902 -0.0062548
0.0006245 0.0016137 0.0069075 -0.00014271 0.00082361 -0.0003435 -0.0081239 0.030729
-0.14119 0.18297 -0.00099851 0.026934
0.0032685 -0.0011919 0.0042068 -0.0027062 0.0011351 -0.0013388 0.0041937 -0.0062676
-0.00078305 0.026996 -0.21011 0.18828
980000000 -0.05868 0.28252 0.017334 0.029791 -0.0088382 0.004643 0.0016929 0.0035633
0.0035375 -0.0016134 -0.0033526 -0.0026741
0.017285 0.029782 -0.2152 0.33517 0.032918 0.0047795 0.0018947 -1.1699e-05
0.0015306 -0.0056945 -0.00032317 -0.0024393
-0.0088832 0.0046061 0.032986 0.0046819 0.10759 0.30759 0.00056442 -0.0011564
0.00043403 -0.001752 0.0014532 -0.00038823
0.0018376 0.0036516 0.0019386 -6.2758e-05 0.00058938 -0.0010998 -0.070615 0.27257
0.010326 0.028321 -0.0095103 -0.0076573
0.0038355 -0.001566 0.0015209 -0.0058713 0.00042452 -0.00175 0.01042 0.028372
-0.10786 0.21007 0.0074808 0.018976
-0.0030222 -0.002771 -0.00016332 -0.0025164 0.0015421 -0.00029295 -0.009273 -0.007722
0.0074416 0.018985 -0.16789 0.23788
1040000000 -0.016709 0.2902 0.033042 0.01879 -0.00090725 0.0071619 0.0022984 0.00056117
0.00040147 -0.0035336 -0.00024871 -0.0012384
0.033055 0.01869 -0.17944 0.34782 0.029301 -0.014625 0.0014691 -0.0017995
-0.0022065 -0.0025253 -0.0012871 -0.0030776
-0.00087652 0.0071389 0.029307 -0.014695 0.15459 0.29359 -0.00052672 -0.0014968
-0.0015309 -0.0011505 -0.00062997 -0.0010352
0.0022647 0.00067445 0.0015283 -0.0017815 -0.00050282 -0.0014976 -0.042313 0.28072
0.02081 0.016369 -0.0015029 0.0010832
0.00038268 -0.003408 -0.0022649 -0.0023567 -0.0015274 -0.0010563 0.02086 0.01641
-0.074971 0.21473 0.014621 0.017661
-0.0002137 -0.0012729 -0.0010943 -0.0029596 -0.00059073 -0.0011751 -0.0015336 0.001154
0.014501 0.017637 -0.14583 0.25797
1100000000 0.027129 0.30057 0.036173 -0.0037344 0.0034438 0.0037539 0.0021885 -0.00092214
-0.0022598 -0.0028456 -0.0042314 -3.31e-05
0.036218 -0.0036943 -0.13732 0.36762 0.015179 -0.027565 -0.00016504 -0.0018002
-0.0035609 -0.00081769 -0.003676 -0.0006116
0.0033415 0.0037575 0.015036 -0.027605 0.20013 0.27439 -0.0018504 0.00016232
-0.0016437 0.00053509 -0.001011 -0.00048276
0.0022634 -0.00091698 -0.00011249 -0.0017643 -0.0018004 0.00015253 -0.0022877 0.28558
0.02487 0.0028361 -0.0021212 -0.00070146
-0.0021929 -0.0026548 -0.0033745 -0.00082491 -0.0016321 0.00060239 0.024894 0.0027899
-0.054662 0.22681 0.019454 0.007563
-0.0041955 -5.6783e-05 -0.003754 -0.00058731 -0.0010904 -0.00046498 -0.0022219 -0.00060453
0.019494 0.0075476 -0.10266 0.29147
1160000000 0.079434 0.29711 0.024179 -0.02051 0.0031206 -0.00080768 -0.00012461 -0.0021937
-0.003775 -0.00058492 -0.0010206 0.004111
0.024298 -0.020449 -0.092115 0.37198 -0.0036392 -0.028492 -0.0015165 -0.0016732
-0.0024885 0.0024292 -0.0016117 0.0016901
0.0031189 -0.00086209 -0.0037596 -0.028521 0.24458 0.2443 -0.00081448 0.0015717
-0.00051943 0.0016519 -0.0010079 0.00032075
-0.00018132 -0.0021651 -0.0015291 -0.0017348 -0.00082912 0.0015953 0.03851 0.28191
0.020472 -0.011989 -0.0039761 0.0044502
-0.0039229 -0.00067039 -0.0026084 0.0023581 -0.00050915 0.0016648 0.020411 -0.012046
-0.018726 0.23373 0.018129 -0.0014185
-0.00095991 0.0041513 -0.0014643 0.0019135 -0.0008523 0.00033885 -0.0040321 0.0044566
0.018312 -0.0013694 -0.053324 0.29557
1220000000 0.12268 0.2865 0.011178 -0.029938 -0.0013847 -0.0013515 0.00013675 -0.00086065
-0.0025347 0.0021599 0.0011287 0.0021035
0.011202 -0.029931 -0.049299 0.38531 -0.016558 -0.020955 -0.0025581 0.00039318
-0.00012768 0.0030065 -0.00083815 0.0020378
-0.0013931 -0.0013318 -0.016677 -0.020895 0.28362 0.20543 0.00071854 0.0016621
0.00052949 0.0010976 0.00020316 0.00065186
9.3305e-05 -0.00093098 -0.0025676 0.00042357 0.00073147 0.0016611 0.07761 0.27178
0.0096677 -0.01835 0.0016072 0.0011806
-0.0024446 0.0021278 -6.1606e-05 0.0030117 0.00051257 0.0011436 0.0096361 -0.01838
0.0062074 0.23927 0.012657 -0.013138
0.0011104 0.0019917 -0.00090103 0.0019443 0.00016896 0.00063712 0.00155 0.0012438
0.012581 -0.013065 -0.024795 0.31387
1280000000 0.17312 0.26753 -0.0075471 -0.02867 -0.002006 0.0018942 -0.00083207 -0.0019616
-0.00081445 0.0031254 0.0024344 0.0012828
-0.0074465 -0.028609 -0.0030987 0.37802 -0.023523 -0.0082596 -0.0010238 0.0013959
0.0016487 0.0018148 0.00066226 0.0021273
-0.0020514 0.0018801 -0.02361 -0.0082024 0.31518 0.16297 0.001566 8.5496e-05
0.0010856 0.0003203 0.00016437 0.00035339
-0.00083365 -0.001942 -0.0010729 0.0013666 0.0014887 8.4506e-05 0.1143 0.25473
-0.00021582 -0.020164 -0.001021 0.00034454
-0.00076203 0.0031012 0.0016536 0.0018169 0.0010095 0.00021507 -0.00017304 -0.020136
0.042417 0.24186 0.0023666 -0.014931
0.0025278 0.0012868 0.00061235 0.0020035 0.00025267 0.00036681 -0.00096027 0.00023239
0.0023849 -0.014966 0.023541 0.31838
1340000000 0.21082 0.23376 -0.017033 -0.019306 0.00028578 0.0043058 -0.0016398 -0.00078523
0.00148 0.0025799 0.0019169 -0.001346
-0.017041 -0.019272 0.036338 0.3705 -0.020923 0.0042562 -0.00037318 0.0021008
0.001844 0.0009239 0.0012828 0.00082699
0.00030096 0.004263 -0.020924 0.0043641 0.33892 0.11404 0.001117 -0.00082104
0.00058981 -0.00053311 0.00019562 0.00013137
-0.0017112 -0.00077247 -0.00036697 0.0021326 0.0011331 -0.00080204 0.14661 0.23245
-0.0094169 -0.016965 0.00064262 0.0010355
0.0014046 0.0025225 0.0019212 0.00094607 0.00062388 -0.00050748 -0.0094911 -0.01693
0.072942 0.23415 -0.0041892 -0.013258
0.0018876 -0.0013916 0.001137 0.00079675 0.00010279 0.00016317 0.00055833 0.0010906
-0.0043816 -0.01327 0.06213 0.31446
1400000000 0.24401 0.19702 -0.023377 -0.0080884 0.0047164 0.0031477 -0.0022081 0.00048485
0.0023205 0.00091543 0.00038007 -0.0013005
-0.023356 -0.0080987 0.073287 0.35914 -0.014467 0.012123 0.0013503 0.0015992
0.0014501 -0.00061838 0.0011908 0.00021682
0.0047266 0.0031158 -0.014417 0.012212 0.35208 0.059727 0.00017207 -0.0015606
0.00018743 -0.00030402 0.00036541 0.00025929
-0.0021633 0.00053937 0.0013645 0.001568 0.00017247 -0.0015396 0.17398 0.20307
-0.01541 -0.010039 -0.00098518 0.00025873
0.0023512 0.00098799 0.0014399 -0.00064901 0.00013154 -0.00030481 -0.015477 -0.010017
0.10486 0.2282 -0.010108 -0.0084111
0.00039594 -0.0013796 0.0012314 0.00017202 0.00044667 0.00020426 -0.001014 0.0002681
-0.0099728 -0.0083828 0.10667 0.30642
1460000000 0.26838 0.15399 -0.020466 0.0043568 0.0051595 -0.0014555 -0.0016476 0.0016833
0.0021245 -0.00044634 -6.8683e-05 -0.0010203
-0.020451 0.0043256 0.10888 0.33832 -0.005738 0.014982 0.001914 0.00034465
0.0010478 -0.0014206 0.0012744 -0.00055059
0.0051908 -0.0014436 -0.0056509 0.015008 0.35906 0.0040471 -0.0010351 -0.0014785
0.00017804 -0.0002441 0.00056301 -0.00031002
-0.0017127 0.0016789 0.0019199 0.00027033 -0.0010671 -0.0014357 0.19977 0.174
-0.01686 -0.0031699 -0.00043709 0.0025428
0.0020543 -0.00034517 0.0010192 -0.0014068 0.00014693 -0.00026446 -0.016869 -0.003138
0.13489 0.21253 -0.0118 -0.0024602
-0.00011365 -0.00091431 0.0013203 -0.00045899 0.00069483 -0.00030189 -0.00050646 0.0024835
-0.01183 -0.0024648 0.14115 0.28677
1520000000 0.28069 0.11186 -0.015115 0.0098687 0.003242 -0.0037843 1.4289e-05 0.0027615
0.0021406 -0.0016469 -0.0010542 -0.00025377
-0.015114 0.0098327 0.14281 0.32402 0.0017248 0.012533 0.001894 -0.00086063
9.5526e-05 -0.0012273 0.00042648 -0.00094915
0.0032221 -0.0037778 0.0018033 0.01254 0.35086 -0.054369 -0.0011527 -0.00047375
0.00055041 -0.00085358 0.00014318 -9.6487e-05
5.8267e-05 0.0027079 0.0019344 -0.00084227 -0.0011666 -0.00048704 0.221 0.13574
-0.016233 0.0028964 0.0018023 0.0021163
0.0021298 -0.0016708 0.00010268 -0.0011941 0.00052208 -0.00088483 -0.016184 0.0029596
0.16189 0.1973 -0.011464 0.0015623
-0.0010613 -0.00025585 0.0003432 -0.00097012 0.00019186 -0.00011747 0.0018462 0.0020858
-0.011453 0.0015351 0.17463 0.26786
1580000000 0.29097 0.067171 -0.0086391 0.013437 -0.00093929 -0.0044098 0.0015187 0.002054
-7.2968e-06 -0.0021888 -0.00042791 0.00039161
-0.0086601 0.013425 0.17068 0.30071 0.0050962 0.0077239 0.00058039 -0.0018123
-0.00070106 -0.0012087 -0.00019429 -0.00077047
-0.00092279 -0.0044307 0.0051426 0.0076818 0.32888 -0.11088 -0.001832 0.00054463
-0.00042371 -0.0011452 0.00021459 -0.00061432
0.0015317 0.0020942 0.00054483 -0.0018156 -0.0018049 0.00050994 0.23378 0.09833
-0.012837 0.0083374 0.0025565 0.00058731
-5.7276e-05 -0.0021196 -0.00069164 -0.0012337 -0.00040054 -0.0011626 -0.01285 0.0084109
0.18541 0.17958 -0.0089496 0.0071944
-0.00032305 0.00032552 -0.00018318 -0.00083239 0.00028413 -0.00063138 0.0025862 0.00064928
-0.0090069 0.0071953 0.20854 0.24366
1640000000 0.29439 0.025092 -0.0017765 0.012511 -0.0025946 -0.0022058 0.0029656 0.0010784
-0.00050707 -0.0017669 -0.00039779 0.00046436
-0.0017927 0.012504 0.20199 0.27552 0.0055713 0.0029568 -0.00075193 -0.0019591
-0.0011777 -0.0003448 -0.0003952 -0.00074209
-0.0026068 -0.0021697 0.0055996 0.0029218 0.29964 -0.16125 -0.00075663 0.0016067
-0.001063 -0.00090192 -0.00018217 -0.00038835
0.0029606 0.0010674 -0.00072939 -0.0019473 -0.0008002 0.0016346 0.24597 0.05013
-0.0084573 0.010297 0.0026116 -0.00098708
-0.0005411 -0.0017403 -0.0011558 -0.0003273 -0.0010882 -0.00091724 -0.0084269 0.010364
0.2079 0.15331 -0.0045941 0.0091426
-0.00038002 0.00059946 -0.00048364 -0.00074244 -0.00016112 -0.00046476 0.0026064 -0.00094323
-0.0045195 0.0091783 0.23563 0.21235
1700000000 0.28644 -0.019727 0.0018625 0.0098715 -0.0030637 0.00016764 0.0031842 -0.0014281
-0.002184 -0.00087749 0.00055584 0.00051214
0.0018501 0.0098681 0.21974 0.24457 0.0033354 0.00021843 -0.0016604 -0.0006106
-0.00088408 0.00018924 -0.00087824 -0.00051982
-0.0030617 0.0001859 0.0033079 0.00018169 0.25344 -0.19958 0.00052028 0.0017991
-0.0019401 -0.00011843 -0.00031978 -0.00083042
0.0032217 -0.0014558 -0.0016635 -0.00061843 0.00047928 0.0018121 0.24222 0.002382
-0.0047614 0.011385 0.0014895 -0.0021853
-0.0020589 -0.00088845 -0.00085555 0.00019207 -0.0019889 -3.6656e-05 -0.00468 0.011347
0.22508 0.13258 7.9047e-06 0.0092199
0.00055851 0.00044492 -0.0008319 -0.0004545 -0.00031862 -0.00070791 0.0014668 -0.0022045
4.2623e-05 0.009167 0.25277 0.1793
1760000000 0.27605 -0.068225 0.0045262 0.0065968 -0.0019457 0.00084865 0.0012226 -0.0036785
-0.0016036 0.00051713 0.00024964 -0.00057553
0.0045022 0.0066425 0.2477 0.2052 0.00090966 -0.0013439 -0.0013614 0.00028252
-0.00093258 0.0011075 -0.00053801 0.00026867
-0.0019641 0.00091721 0.00089889 -0.0013698 0.20456 -0.23043 0.0014866 0.0011176
-0.0010687 0.0015374 -0.0010765 -0.00064021
0.0011331 -0.0036572 -0.0013489 0.000278 0.0014448 0.0011335 0.23552 -0.046992
-0.00069549 0.010654 -6.017e-05 -0.0025078
-0.0016717 0.00050642 -0.00091002 0.0011086 -0.0011638 0.0014867 -0.00067632 0.010636
0.23988 0.098575 0.0037221 0.0067417
0.00031493 -0.00046433 -0.00059591 0.00032066 -0.0012398 -0.00063269 -0.00012784 -0.0025279
0.0037513 0.0067835 0.26702 0.14243
1820000000 0.25113 -0.10658 0.0048464 0.0028391 -2.095e-05 0.0020358 -0.0011513 -0.0031413
-0.0013499 0.0012556 -3.0063e-05 -0.00011436
0.0048814 0.0028519 0.25783 0.17423 -0.0012307 -3.9427e-05 -0.0012683 0.0010623
0.00019082 0.0012464 -0.0006678 0.00044734
2.6554e-05 0.0019811 -0.0011799 -5.3302e-05 0.15329 -0.24482 0.0017705 0.00018181
1.4581e-05 0.0023224 -0.0015384 0.00019801
-0.0011139 -0.0031726 -0.0012459 0.0010964 0.0017913 0.00014248 0.20674 -0.094404
0.0018013 0.0089672 -0.0016833 -0.0016433
-0.0012892 0.0012489 0.00018658 0.0012664 2.3136e-05 0.0023136 0.0018275 0.0089359
0.25594 0.068527 0.0045866 0.0035005
-0.00017617 -0.00010314 -0.00063777 0.00044175 -0.0015632 0.00018839 -0.0016095 -0.0015952
0.004586 0.0034322 0.27038 0.10645
1880000000 0.21569 -0.14598 0.00266 0.00026415 -0.00055978 0.0020117 -0.0029331 -0.0022811
-9.5455e-05 0.0019987 0.00035616 -0.00060172
0.0026414 0.00028834 0.26269 0.12856 -0.0031419 0.0023347 -0.00015948 0.0017408
0.0007602 0.0010727 8.3963e-05 0.00090382
-0.00054782 0.0020131 -0.0031004 0.002366 0.1019 -0.25065 0.0013847 -0.0012596
0.0016878 0.0017489 -0.001106 0.0013619
-0.0030112 -0.0021249 -0.00014326 0.0016842 0.0014098 -0.0012111 0.16842 -0.13428
0.0033016 0.0060634 -0.0021934 0.00028292
-7.3712e-05 0.0020289 0.00081865 0.001046 0.0016036 0.0017538 0.0033034 0.0060793
0.25945 0.037597 0.0048073 0.0013979
0.00030847 -0.00072007 7.943e-05 0.00092543 -0.0011665 0.0014004 -0.0021966 0.00039357
0.0048436 0.0014743 0.27166 0.073567
1940000000 0.17695 -0.17259 0.00020234 -0.0015688 0.0013517 0.0019354 -0.0037315 0.00056323
0.0016467 0.0012448 -0.00064472 -0.00071153
0.00022053 -0.0015403 0.26481 0.095901 -0.0013555 0.0048848 0.0010947 0.0012152
0.0017204 0.00021327 0.00091356 0.00029809
0.0013181 0.0019306 -0.0013791 0.004937 0.05971 -0.24266 0.00018714 -0.0020621
0.0022208 0.00028871 0.00014305 0.0017304
-0.0036693 0.00046281 0.0010835 0.0012749 0.0001628 -0.0020786 0.11806 -0.16766
0.0028555 0.0041691 -0.0013643 0.0011569
0.0016693 0.0011667 0.0016769 0.00026204 0.0022815 0.00026121 0.0028911 0.0040423
0.26311 -0.0015068 0.0034737 -0.0018699
-0.00063622 -0.00059613 0.00080281 0.00020221 0.00018656 0.0016822 -0.0013149 0.001124
0.0034034 -0.0019408 0.26263 0.037106
2000000000 0.12987 -0.18627 -0.0036187 0.00054703 0.0026554 0.0017262 -0.0022787 0.0035502
0.0013111 1.0699e-05 -0.00090955 0.00063447
-0.0036556 0.0005737 0.25011 0.060222 -0.00061996 0.0068175 0.0014457 0.00032086
0.0010372 -0.0012882 0.00036784 0.00016503
0.0027122 0.0016785 -0.00062808 0.0068043 0.017614 -0.22797 -0.0013828 -0.0011067
0.0019536 -0.0014592 0.0017513 0.0016789
-0.0022826 0.0036146 0.0014393 0.00024965 -0.0013301 -0.001043 0.063706 -0.17958
0.0011236 0.0026702 -1.0195e-05 0.001886
0.0013705 6.3013e-05 0.0010534 -0.0013461 0.0019111 -0.0014349 0.0011364 0.0026368
0.25726 -0.035349 0.00057049 -0.0026533
