!Keysight Technologies,M9804A,MY58100912,A.14.10.03
!Date: Thursday, April 27, 2023 10:28:33
!Correction: S11(C  6-Port  ) 
!S12(C  6-Port  ) 
!S13(C  6-Port  ) 
!S14(C  6-Port  ) 
!S15(C  6-Port  ) 
!S16(C  6-Port  ) 
!S21(C  6-Port  ) 
!S22(C  6-Port  ) 
!S23(C  6-Port  ) 
!S24(C  6-Port  ) 
!S25(C  6-Port  ) 
!S26(C  6-Port  ) 
!S31(C  6-Port  ) 
!S32(C  6-Port  ) 
!S33(C  6-Port  ) 
!S34(C  6-Port  ) 
!S35(C  6-Port  ) 
!S36(C  6-Port  ) 
!S41(C  6-Port  ) 
!S42(C  6-Port  ) 
!S43(C  6-Port  ) 
!S44(C  6-Port  ) 
!S45(C  6-Port  ) 
!S46(C  6-Port  ) 
!S51(C  6-Port  ) 
!S52(C  6-Port  ) 
!S53(C  6-Port  ) 
!S54(C  6-Port  ) 
!S55(C  6-Port  ) 
!S56(C  6-Port  ) 
!S61(C  6-Port  ) 
!S62(C  6-Port  ) 
!S63(C  6-Port  ) 
!S64(C  6-Port  ) 
!S65(C  6-Port  ) 
!S66(C  6-Port  ) 
!S6P File: Measurement: :
# Hz S  RI   R 50
500000000 -0.32613 -0.05626 -0.010623 -0.0015796 -0.0082465 0.012335 -0.0038519 0.011504
0.012799 0.0054434 -0.0049459 0.0073821
-0.010576 -0.0015176 -0.40986 -0.070951 0.0074476 -0.011073 0.00082904 0.012139
0.0085257 0.00229 0.00087757 0.013438
-0.0083123 0.012483 0.0073678 -0.011095 -0.25475 0.19448 0.0064622 0.0031239
-0.0012266 0.0079245 0.00086392 0.011497
-0.0039087 0.011406 0.00085354 0.012123 0.0065721 0.0031554 -0.32842 0.045091
-0.019543 -0.0065862 0.016286 0.028522
0.012679 0.0052752 0.0083839 0.0021711 -0.0012388 0.0077833 -0.019483 -0.006648
-0.25587 -0.15957 -0.02706 0.0043243
-0.005267 0.0075728 0.0007862 0.013554 0.001058 0.011484 0.016299 0.028577
-0.027179 0.0042597 -0.25529 -0.14672
560000000 -0.31147 0.10892 -0.02244 -0.065613 0.00081253 0.012904 0.0046784 0.010833
0.010895 0.0038969 0.011962 0.0093522
-0.022425 -0.065498 -0.37051 0.091757 -0.041163 -0.038111 0.013322 0.0027895
-0.011729 -0.0040115 0.004509 -0.0010047
0.00071083 0.012776 -0.041335 -0.038073 -0.1784 0.24276 0.00030508 -0.0042839
0.017653 0.0040825 0.0080229 -0.0056893
0.0047993 0.010902 0.013495 0.0024703 0.00040221 -0.0043025 -0.30488 0.13535
0.0036654 -0.022227 0.0058509 -0.021414
0.01074 0.0037301 -0.01195 -0.0044717 0.017691 0.00376 0.0036943 -0.022274
-0.30479 0.015023 0.0079315 -0.047325
0.012158 0.0090571 0.0045239 -0.0010581 0.0082363 -0.0056223 0.0058235 -0.021435
0.0077605 -0.047379 -0.32515 0.0020341
620000000 -0.27214 0.086416 -0.023874 0.0094334 0.0034061 0.0090806 0.007838 -0.0044668
0.011951 -0.0015415 -0.00037062 -0.0018569
-0.02383 0.0094412 -0.3995 0.039541 -0.01951 0.0010672 -0.0015823 -0.0017938
0.011742 -0.0060852 0.00046174 -0.0026649
0.0034037 0.0090582 -0.019533 0.001116 -0.15264 0.25128 -0.0010839 -0.0048911
-0.0036732 -0.0032626 0.0085059 -0.0028888
0.0077265 -0.0044643 -0.001631 -0.0018142 -0.0010547 -0.0048512 -0.26416 0.14518
-0.039743 -0.019147 0.012394 0.029837
0.012178 -0.0017596 0.011829 -0.0060556 -0.0036713 -0.0033296 -0.039688 -0.019102
-0.23077 -0.016303 -0.041515 0.011908
-0.00024752 -0.0015195 0.00048345 -0.0028152 0.0086361 -0.0027149 0.012259 0.030094
-0.041269 0.011788 -0.2414 -0.033381
680000000 -0.23745 0.17833 -0.026226 -0.014052 0.0047466 0.0051046 0.0016893 -0.0070028
-0.0025233 -0.011343 0.0063562 -0.0063882
-0.026178 -0.014057 -0.38912 0.14252 -0.032336 -0.0010874 -0.001379 -0.00070891
-0.0021554 -0.009096 -0.00080387 -0.0015886
0.004751 0.0050707 -0.03239 -0.0010099 -0.10609 0.27467 -0.0005755 -0.00039203
-0.0018353 0.00026201 -0.0027618 -0.0090056
0.0017184 -0.0070267 -0.001447 -0.00071347 -0.00062699 -0.0004338 -0.21966 0.1997
-0.025023 -0.0066218 -0.0078345 -0.012051
-0.0025369 -0.011307 -0.0022094 -0.0091308 -0.0018677 0.00029017 -0.025065 -0.0066497
-0.26935 0.081753 -0.0062269 -0.0052428
0.0062471 -0.0063193 -0.00086976 -0.0016755 -0.0028417 -0.0090321 -0.0079607 -0.012147
-0.0062945 -0.0053405 -0.26012 0.07004
740000000 -0.19135 0.17094 -0.040358 0.026819 0.013444 -0.0038541 0.00059728 -0.0041259
-0.0042492 -0.0016894 -0.0058261 0.0027616
-0.040353 0.026773 -0.33447 0.16175 -0.036463 0.034315 -0.00010293 -0.0060476
-0.012037 0.0064908 -0.0015409 -0.0052673
0.013408 -0.003899 -0.036429 0.034458 -0.072145 0.27487 -0.0020913 0.0030349
-0.0016786 -0.0043654 -0.0020772 0.00061368
0.0006641 -0.0040653 -0.00020612 -0.0060337 -0.0021324 0.003038 -0.20241 0.20553
-0.040881 -0.005067 0.021944 0.017575
-0.0043909 -0.0018818 -0.012076 0.0065242 -0.0017667 -0.0045432 -0.040937 -0.0052207
-0.17809 0.10338 -0.039739 0.0014348
-0.0058424 0.0027489 -0.0014949 -0.0054616 -0.001971 0.00063808 0.022074 0.01743
-0.039704 0.0014289 -0.25179 0.075401
800000000 -0.16363 0.21584 -0.022271 0.016376 0.0052903 -0.0098732 -0.0041142 -0.0026653
-0.0044299 0.0017155 0.00424 0.00084203
-0.022239 0.016352 -0.34257 0.23262 -0.0080536 0.034324 -0.0023632 0.0019867
-0.00085391 0.00219 0.00062721 0.0056602
0.0052687 -0.0099123 -0.0079513 0.034375 -0.034434 0.30091 0.00058722 0.0013936
0.00028008 0.0034222 -0.0019916 0.00063997
-0.0041087 -0.0026658 -0.002403 0.0020158 0.00058817 0.0014206 -0.17265 0.23407
-0.027267 0.015397 0.014879 -0.010717
-0.0043483 0.0018143 -0.00082845 0.0022599 0.00028742 0.0035118 -0.027253 0.015508
-0.21124 0.13105 -0.016934 0.021141
0.0041094 0.0010843 0.00056274 0.0056943 -0.0020608 0.00073018 0.014721 -0.010919
-0.017072 0.021211 -0.24971 0.12713
860000000 -0.12773 0.23754 -0.017594 0.030645 -0.0032635 -0.0096363 -0.0016754 0.00062029
0.0038891 0.0048776 -0.003799 -0.0031756
-0.017573 0.030614 -0.29391 0.27725 0.0080263 0.033958 0.0004363 0.0020527
0.0036411 0.00093383 0.0034385 0.00012703
-0.0032817 -0.0096139 0.0081461 0.033959 0.015013 0.3108 -0.00037913 -0.00013779
0.0025745 -0.0012414 0.0014094 0.0042025
-0.0016822 0.00058398 0.00043287 0.0020554 -0.00037033 -0.00016241 -0.13414 0.24509
-0.015837 0.020159 -0.007158 -0.0096747
0.0039482 0.0049052 0.0036643 0.0010162 0.0025648 -0.0011794 -0.015826 0.020181
-0.15496 0.17745 -0.02237 0.016833
-0.0039488 -0.003324 0.0032003 2.6141e-05 0.0013598 0.0041116 -0.0070642 -0.0095461
-0.022424 0.016664 -0.19872 0.17691
920000000 -0.10524 0.25993 0.0050579 0.038986 -0.0089089 -0.0041614 -0.0019395 0.0016702
0.00074241 0.0016235 0.0031888 -0.0008257
0.0050356 0.038973 -0.26714 0.29775 0.028129 0.022436 0.0014761 0.0012063
0.0068553 -0.00045138 0.0041184 -0.0026865
-0.0089132 -0.0041427 0.02823 0.02237 0.060966 0.31206 0.0018802 0.00017253
0.00091239 -0.00030773 0.00092351 -0.0012781
-0.0019052 0.0016997 0.0014805 0.0011754 0.0018676 0.00016504 -0.11005 0.26089
-0.0082832 0.030712 0.0043216 -0.0060593
0.0007353 0.0016088 0.00685 -0.00049916 0.00090038 -0.00030486 -0.0082003 0.030739
-0.14116 0.18344 -0.0011614 0.026974
0.0033538 -0.00085556 0.0041546 -0.002767 0.0009241 -0.0012763 0.0042641 -0.0061625
-0.0011574 0.027026 -0.2094 0.18841
980000000 -0.058478 0.28225 0.017323 0.029699 -0.0088367 0.0045416 0.001862 0.0035754
0.0034576 -0.0016405 -0.0034325 -0.0027364
0.017297 0.029705 -0.21513 0.33521 0.032899 0.0047856 0.0020272 -5.2537e-05
0.0014914 -0.0058016 -0.00039731 -0.0024947
-0.0088255 0.0045628 0.032963 0.0046835 0.10759 0.30761 0.00058405 -0.0011433
0.00043236 -0.0017789 0.0015006 -0.00029424
0.0018658 0.0035321 0.0020576 -7.9877e-05 0.00058882 -0.0011603 -0.070485 0.27276
0.010371 0.028283 -0.0094681 -0.0074597
0.0034821 -0.0017054 0.0014712 -0.0058906 0.00039613 -0.0018012 0.010446 0.028295
-0.1081 0.21003 0.0074194 0.019109
-0.0035565 -0.0027181 -0.00033353 -0.0025086 0.0014893 -0.00032102 -0.009367 -0.0074069
0.0073752 0.019076 -0.1684 0.23851
1040000000 -0.016717 0.29021 0.033044 0.018698 -0.00086728 0.0071056 0.0022274 0.00068044
0.0004825 -0.0034202 -6.6065e-05 -0.001462
0.033015 0.01873 -0.17937 0.34777 0.029316 -0.014576 0.0015208 -0.0018244
-0.0021208 -0.0023904 -0.0011799 -0.0031034
-0.00085443 0.0071095 0.029311 -0.014712 0.15464 0.29356 -0.00050655 -0.0015129
-0.001511 -0.0010537 -0.00062096 -0.0011649
0.0022751 0.00068779 0.0015471 -0.0018112 -0.00051918 -0.0015018 -0.042356 0.28075
0.020765 0.016376 -0.0014562 0.0010381
0.00046046 -0.0034168 -0.0021136 -0.0023712 -0.0015203 -0.0010789 0.020804 0.016354
-0.074923 0.21488 0.014751 0.017526
-7.7936e-05 -0.001516 -0.0011289 -0.0030192 -0.0006061 -0.001135 -0.0015633 0.0010054
0.014761 0.017495 -0.14628 0.25792
1100000000 0.027001 0.30045 0.036145 -0.003734 0.0034025 0.0038101 0.0021845 -0.00098191
-0.0022485 -0.0028569 -0.0042784 0.00012755
0.03612 -0.0037184 -0.1372 0.36764 0.015167 -0.027528 -0.0001536 -0.0017921
-0.0035007 -0.00090273 -0.0039401 -0.0006154
0.0034002 0.0037985 0.015084 -0.027617 0.20015 0.2744 -0.0018383 0.00018793
-0.0016146 0.00050848 -0.0011438 -0.00042818
0.0021614 -0.00096599 -0.00015345 -0.0017785 -0.0018368 0.00018669 -0.0022725 0.28555
0.024908 0.0028303 -0.0022633 -0.00049994
-0.0023208 -0.0028951 -0.0035288 -0.00088102 -0.0016138 0.00051938 0.0249 0.0027732
-0.054337 0.22693 0.01931 0.007398
-0.0042362 0.00017635 -0.0039082 -0.00053477 -0.0011827 -0.00040664 -0.0022211 -0.00049589
0.019321 0.0074278 -0.10219 0.2919
1160000000 0.079609 0.29707 0.024238 -0.020499 0.0031351 -0.00084276 -0.00012767 -0.0021337
-0.0037702 -0.00057395 -0.00098657 0.0040238
0.024261 -0.020462 -0.092132 0.37187 -0.0036957 -0.028473 -0.0014705 -0.0016411
-0.0024978 0.0024407 -0.0016433 0.0017921
0.0031263 -0.00085824 -0.0037947 -0.028491 0.24459 0.24432 -0.00082606 0.0015574
-0.00049736 0.0016203 -0.00094394 0.00031131
-0.00011217 -0.0021673 -0.0014968 -0.0016601 -0.00084018 0.0015825 0.038577 0.28181
0.020362 -0.01197 -0.0038169 0.0044385
-0.0037624 -0.00053831 -0.002536 0.0024831 -0.00048728 0.0016348 0.020355 -0.011976
-0.01875 0.23365 0.017946 -0.001454
-0.0010973 0.0040403 -0.0016719 0.0018414 -0.00098943 0.00035952 -0.0038329 0.0044195
0.018004 -0.0014748 -0.053373 0.29581
1220000000 0.1226 0.2866 0.011209 -0.029918 -0.0013859 -0.001373 7.9545e-05 -0.00086985
-0.002486 0.0021555 0.0010277 0.0021008
0.011214 -0.029867 -0.049222 0.38525 -0.016615 -0.020954 -0.002577 0.00041486
-0.00016361 0.0029766 -0.00086368 0.002009
-0.001397 -0.0013721 -0.016708 -0.020903 0.28357 0.20542 0.00073302 0.0016824
0.00052021 0.0011509 0.00020496 0.00062254
5.9238e-05 -0.00084488 -0.0025431 0.00041576 0.00073464 0.001655 0.077617 0.27175
0.0096278 -0.018373 0.001558 0.001238
-0.0025031 0.0022296 -0.00012777 0.0030026 0.00051796 0.0011406 0.0096043 -0.018384
0.0061828 0.23927 0.01263 -0.013086
0.0010787 0.0020819 -0.00084732 0.0020321 0.00023135 0.0006103 0.0016313 0.0012598
0.012629 -0.013096 -0.024808 0.31388
1280000000 0.173 0.2675 -0.0075385 -0.028631 -0.0020121 0.0019025 -0.00074747 -0.0019771
-0.00079685 0.0030923 0.0024194 0.0012119
-0.0075118 -0.028603 -0.0030893 0.37805 -0.023525 -0.0082614 -0.0010461 0.0013473
0.0016409 0.0018026 0.00063283 0.0019998
-0.0020047 0.0019159 -0.023575 -0.008158 0.31519 0.16293 0.0015055 0.00010779
0.0010278 0.0002913 0.00020306 0.00036359
-0.00074851 -0.0020009 -0.001061 0.0013778 0.0015009 0.00011555 0.11433 0.25473
-9.5453e-05 -0.020116 -0.00089751 0.00021318
-0.00081754 0.0030703 0.0016038 0.0018145 0.0010228 0.00029512 -0.00012758 -0.020129
0.042645 0.24191 0.002385 -0.015118
0.0024205 0.0012085 0.00064491 0.0020737 0.00021088 0.00038408 -0.0009188 0.00022054
0.0023535 -0.015117 0.023502 0.31869
1340000000 0.21085 0.23376 -0.017047 -0.019313 0.000312 0.0042786 -0.0016657 -0.00075691
0.001441 0.0025576 0.0018884 -0.0013534
-0.01701 -0.019302 0.036332 0.37053 -0.020933 0.0042675 -0.00033494 0.0020962
0.0019044 0.00088849 0.0012388 0.00083049
0.00033485 0.0042756 -0.020934 0.0043801 0.33893 0.11398 0.0011666 -0.00083585
0.00062818 -0.00060852 0.00020609 0.00021989
-0.0016449 -0.00071385 -0.00033956 0.0020626 0.0011477 -0.00083555 0.14654 0.23246
-0.0094612 -0.016925 0.00051475 0.001013
0.0014953 0.0025343 0.0018851 0.00087481 0.00059468 -0.00058956 -0.0094789 -0.016899
0.072817 0.23422 -0.0042786 -0.0133
0.0018849 -0.0013049 0.001216 0.00075431 0.0001749 0.00021478 0.00052244 0.0010592
-0.0042667 -0.013393 0.061883 0.31442
1400000000 0.24398 0.19711 -0.023327 -0.0080663 0.0046877 0.0031467 -0.00214 0.00051104
0.0022924 0.00096012 0.00040073 -0.0013583
-0.023306 -0.0080719 0.073277 0.35918 -0.014446 0.012174 0.0013502 0.001601
0.001391 -0.00057351 0.0011553 0.00021549
0.0046983 0.0031298 -0.014405 0.012256 0.35213 0.059774 0.00020758 -0.0015468
0.00017396 -0.000316 0.00031006 0.00026629
-0.0021678 0.00049742 0.0013821 0.00162 0.00020129 -0.0015573 0.17408 0.20308
-0.015433 -0.010103 -0.00095615 0.00026632
0.0022868 0.00095761 0.0013827 -0.00059485 0.00012472 -0.00031958 -0.015463 -0.010063
0.10484 0.22816 -0.010061 -0.0083017
0.0003644 -0.0013671 0.0012437 0.00019872 0.00033895 0.00021285 -0.00095266 0.00023168
-0.010075 -0.0083034 0.10693 0.30635
1460000000 0.26844 0.15406 -0.020442 0.0043411 0.0051521 -0.0014557 -0.0016784 0.001669
0.0021279 -0.00038489 -2.3125e-05 -0.00093766
-0.020412 0.004312 0.10891 0.33829 -0.005732 0.014951 0.0018899 0.00031049
0.0010432 -0.0014003 0.00128 -0.00054741
0.0051242 -0.0014792 -0.0056445 0.014993 0.35898 0.0040407 -0.0010392 -0.0014476
0.00017758 -0.0002395 0.00061205 -0.00034576
-0.0016352 0.0016893 0.0018687 0.00030141 -0.0010356 -0.0014384 0.19976 0.17403
-0.016797 -0.0031966 -0.00051399 0.0025084
0.0021006 -0.00038834 0.001054 -0.0014131 0.00019224 -0.00024593 -0.01683 -0.0031731
0.13492 0.21262 -0.011791 -0.0024867
-5.5908e-06 -0.00092557 0.0012513 -0.00051601 0.00059625 -0.00035403 -0.00055319 0.0025484
-0.011789 -0.0025192 0.14125 0.28679
1520000000 0.28077 0.11196 -0.015111 0.0098399 0.0032249 -0.0037758 7.3647e-06 0.0026824
0.0021176 -0.0016534 -0.001087 -0.00029195
-0.015104 0.0098048 0.14282 0.32404 0.0016987 0.012539 0.0019056 -0.00083966
0.00010232 -0.0012121 0.00041724 -0.0010041
0.0032118 -0.0037923 0.0017673 0.012548 0.35089 -0.054323 -0.0011612 -0.00044904
0.0005157 -0.0008475 0.00012093 -7.0429e-05
-5.9195e-06 0.0027113 0.001901 -0.0008679 -0.0011544 -0.00045037 0.22107 0.13584
-0.016231 0.0029341 0.0017517 0.0021437
0.0021078 -0.0016721 9.3159e-05 -0.0012056 0.00051869 -0.00085142 -0.016221 0.0029768
0.16189 0.19729 -0.01147 0.0015273
-0.0010831 -0.00028401 0.00039518 -0.00102 0.00016254 -0.00010971 0.0017991 0.0020798
-0.011441 0.0015568 0.17468 0.26782
1580000000 0.29106 0.06712 -0.008652 0.013427 -0.00092514 -0.0044476 0.0015587 0.0020546
-2.0602e-05 -0.0021209 -0.0004237 0.00044812
-0.0086538 0.013411 0.17069 0.30073 0.0050767 0.0077032 0.0005712 -0.0018028
-0.00070361 -0.0012245 -0.00013288 -0.0007722
-0.0009544 -0.004452 0.0051313 0.0076793 0.3289 -0.11092 -0.0017957 0.0005305
-0.00044767 -0.0011511 0.00028311 -0.00055921
0.0015708 0.0020226 0.00056538 -0.0018005 -0.0017989 0.00052593 0.2338 0.09826
-0.012811 0.0083131 0.0024942 0.00056033
-3.0877e-05 -0.0021234 -0.00070757 -0.001219 -0.00044412 -0.0011602 -0.012795 0.0083273
0.18543 0.1795 -0.0089324 0.0073132
-0.00040698 0.00040674 -0.00012805 -0.00076932 0.00027134 -0.00055766 0.002514 0.00063624
-0.0089724 0.0073074 0.2086 0.24351
1640000000 0.29441 0.025047 -0.0017979 0.012459 -0.0025682 -0.002194 0.0029841 0.0010914
-0.0005042 -0.0017551 -0.00033929 0.00051504
-0.0018089 0.012459 0.20202 0.27548 0.0055514 0.0029209 -0.00074055 -0.0019636
-0.0011804 -0.00035313 -0.00040063 -0.00075381
-0.0025809 -0.0021882 0.0055727 0.0028916 0.29964 -0.1612 -0.00077339 0.0016008
-0.0010803 -0.00096101 -0.00014193 -0.0004482
0.0029954 0.0010618 -0.00075964 -0.0019767 -0.00077248 0.0016023 0.246 0.050145
-0.0084892 0.010347 0.0026725 -0.00098127
-0.00051434 -0.0017519 -0.0011865 -0.00035463 -0.0010758 -0.00096747 -0.0084569 0.010383
0.20801 0.15333 -0.0046265 0.0091656
-0.00034186 0.00052548 -0.00045127 -0.00073338 -0.00014843 -0.00043269 0.0026932 -0.0010537
-0.004607 0.0091413 0.23578 0.21204
1700000000 0.28659 -0.01981 0.001833 0.0098708 -0.0030687 0.00020139 0.0032073 -0.0014552
-0.0021144 -0.00088746 0.00055013 0.00051899
0.0018386 0.0098646 0.21977 0.24455 0.003292 0.00019885 -0.0016442 -0.00060305
-0.00085611 0.00020318 -0.00085614 -0.00048539
-0.0030554 0.00021884 0.0032888 0.00018834 0.25334 -0.19951 0.00050197 0.0017523
-0.0019368 -7.3873e-05 -0.00031668 -0.00079757
0.0031912 -0.0014693 -0.0016487 -0.00059605 0.00050207 0.0017809 0.24227 0.0023035
-0.0047295 0.011302 0.0014694 -0.0022078
-0.0021514 -0.00089449 -0.00085952 0.00021252 -0.0019463 -6.6312e-05 -0.0047147 0.011302
0.22508 0.13252 1.2252e-05 0.0091731
0.00056226 0.00053012 -0.00085071 -0.00051459 -0.00032781 -0.00079295 0.001429 -0.0021533
-2.7349e-05 0.0092095 0.25268 0.17926
1760000000 0.27603 -0.068348 0.004494 0.0066126 -0.0019092 0.00092513 0.001259 -0.0036882
-0.0016126 0.00050644 0.00029777 -0.00054167
0.0044916 0.0066078 0.24775 0.20517 0.00091741 -0.0013339 -0.0013194 0.00023859
-0.00092096 0.0011042 -0.00058025 0.00026553
-0.0019105 0.00091537 0.00091907 -0.0013342 0.20444 -0.23053 0.0014435 0.0011409
-0.0010742 0.0015153 -0.0011977 -0.00063747
0.0012254 -0.0037025 -0.0013186 0.00025189 0.0014634 0.0011538 0.23566 -0.047048
-0.00073066 0.01071 -8.8734e-05 -0.0025125
-0.0016298 0.0005243 -0.00092167 0.0010958 -0.0010586 0.0015199 -0.00069331 0.010721
0.2399 0.098564 0.0037101 0.0066922
0.00027482 -0.00053321 -0.00058987 0.00030569 -0.0011815 -0.00061969 -5.0714e-05 -0.0025987
0.0037636 0.0066879 0.267 0.1424
1820000000 0.25109 -0.10667 0.0048533 0.0028468 8.8227e-06 0.002001 -0.0011386 -0.003162
-0.0013019 0.001269 1.1396e-05 -0.00010478
0.0048433 0.0028484 0.25787 0.17421 -0.0011674 -2.1278e-05 -0.0012689 0.0010384
0.00018999 0.001263 -0.00066512 0.00045379
2.4052e-05 0.0019995 -0.0011763 -4.7151e-06 0.15347 -0.24482 0.0017504 7.3138e-05
4.9831e-05 0.0023393 -0.0015138 0.00020409
-0.0011311 -0.0031706 -0.0012468 0.0010604 0.0017441 9.4237e-05 0.20677 -0.094497
0.0017878 0.0088835 -0.0016353 -0.0016239
-0.0012842 0.0012657 0.00020599 0.0012642 5.8651e-05 0.00234 0.0018203 0.0088604
0.25593 0.068401 0.0046553 0.0034484
3.9225e-05 -6.4991e-05 -0.00065308 0.00045527 -0.0015446 0.00018569 -0.0016838 -0.0015336
0.0045946 0.0034626 0.27039 0.10634
1880000000 0.21567 -0.14597 0.0026434 0.00032309 -0.00054029 0.0020127 -0.0030061 -0.0022341
-0.00012049 0.0020067 0.00032055 -0.00063041
0.0026472 0.00031939 0.26272 0.12855 -0.0031307 0.0023466 -0.00015803 0.0017011
0.0007522 0.0010663 8.1918e-05 0.00091041
-0.00053542 0.0020278 -0.0031238 0.0023692 0.10199 -0.25066 0.0014084 -0.0013085
0.0016209 0.0017286 -0.0011279 0.0013866
-0.0030312 -0.0022577 -0.00015571 0.0017052 0.0014233 -0.0012981 0.16836 -0.13433
0.0033066 0.006158 -0.0021442 0.00027606
-8.9059e-05 0.001985 0.00075858 0.0010533 0.0016415 0.0017371 0.0032999 0.0061668
0.25949 0.037601 0.0047993 0.0014379
0.00027407 -0.00063048 7.1197e-05 0.00089323 -0.0011473 0.0013801 -0.0021586 0.00018714
0.0048194 0.0013944 0.27163 0.073361
1940000000 0.17691 -0.17268 0.00026798 -0.0015549 0.0013023 0.0019804 -0.0038041 0.00061362
0.0015932 0.0012125 -0.00062374 -0.00066043
0.00026459 -0.0015535 0.26486 0.095871 -0.0014119 0.0049009 0.0010317 0.0012165
0.0017418 0.00018816 0.00088713 0.00024101
0.0013297 0.0019844 -0.0013652 0.0049174 0.059618 -0.24269 0.00020315 -0.0019901
0.0022633 0.00027735 0.00016544 0.0016127
-0.0037921 0.0006346 0.0010582 0.0012087 0.00021904 -0.0020239 0.11802 -0.16762
0.0027832 0.0040828 -0.0012978 0.0011582
0.0016124 0.0012148 0.0017484 0.00018816 0.0023095 0.00026595 0.0028504 0.004083
0.26306 -0.0016266 0.0035342 -0.0018808
-0.00067445 -0.00075137 0.00089787 0.00024804 0.00015524 0.0016317 -0.0013444 0.0011997
0.0035041 -0.0018953 0.26285 0.036984
2000000000 0.12989 -0.18621 -0.0035848 0.00065066 0.0027288 0.0016859 -0.0023239 0.0035812
0.0012671 3.0321e-05 -0.00091704 0.00064669
-0.0035843 0.00064421 0.25013 0.060212 -0.00064273 0.0067448 0.0014307 0.00030711
0.00099878 -0.0012834 0.00036607 0.00014824
0.0027554 0.0016526 -0.00059533 0.0067659 0.017622 -0.22818 -0.0013796 -0.0010394
0.0019372 -0.0013842 0.001755 0.0016745
-0.0023329 0.0035903 0.0014214 0.00032033 -0.0013213 -0.0010355 0.063565 -0.17941
0.0010948 0.0027191 -0.0001234 0.0019127
0.0012777 1.4074e-05 0.00098799 -0.0012888 0.0019578 -0.0013819 0.0010656 0.0027431
0.2572 -0.035297 0.00048856 -0.0026756
