!Keysight Technologies,M9804A,MY58100912,A.14.10.03
!Date: Thursday, April 27, 2023 10:28:33
!Correction: S11(C  6-Port  ) 
!S12(C  6-Port  ) 
!S13(C  6-Port  ) 
!S14(C  6-Port  ) 
!S15(C  6-Port  ) 
!S16(C  6-Port  ) 
!S21(C  6-Port  ) 
!S22(C  6-Port  ) 
!S23(C  6-Port  ) 
!S24(C  6-Port  ) 
!S25(C  6-Port  ) 
!S26(C  6-Port  ) 
!S31(C  6-Port  ) 
!S32(C  6-Port  ) 
!S33(C  6-Port  ) 
!S34(C  6-Port  ) 
!S35(C  6-Port  ) 
!S36(C  6-Port  ) 
!S41(C  6-Port  ) 
!S42(C  6-Port  ) 
!S43(C  6-Port  ) 
!S44(C  6-Port  ) 
!S45(C  6-Port  ) 
!S46(C  6-Port  ) 
!S51(C  6-Port  ) 
!S52(C  6-Port  ) 
!S53(C  6-Port  ) 
!S54(C  6-Port  ) 
!S55(C  6-Port  ) 
!S56(C  6-Port  ) 
!S61(C  6-Port  ) 
!S62(C  6-Port  ) 
!S63(C  6-Port  ) 
!S64(C  6-Port  ) 
!S65(C  6-Port  ) 
!S66(C  6-Port  ) 
!S6P File: Measurement: :
# Hz S  RI   R 50
500000000 -0.32613 -0.056338 -0.010995 -0.00079622 -0.0078609 0.012451 -0.0037215 0.011416
0.012666 0.0054237 -0.0045107 0.0080431
-0.010463 -0.0016375 -0.40998 -0.070286 0.007446 -0.010785 0.0009245 0.012059
0.0085515 0.0022607 0.0011303 0.013903
-0.0084074 0.012348 0.0071472 -0.010829 -0.25481 0.19473 0.0065829 0.0030523
-0.0011998 0.0078139 0.00082313 0.011646
-0.0037516 0.011329 0.00072132 0.012016 0.0064366 0.0031764 -0.32856 0.04478
-0.019205 -0.006381 0.016817 0.028421
0.012819 0.0052319 0.0086925 0.0024893 -0.0007785 0.0079355 -0.01927 -0.0065706
-0.25623 -0.15963 -0.027033 0.0047918
-0.0049468 0.0072267 0.0010299 0.013513 0.00084934 0.011415 0.016184 0.028271
-0.026877 0.0045726 -0.2543 -0.14664
560000000 -0.31127 0.10908 -0.022701 -0.065884 0.00061177 0.012876 0.0050096 0.010617
0.011096 0.0036645 0.011484 0.0093864
-0.022317 -0.065564 -0.37054 0.092199 -0.041222 -0.038067 0.013433 0.0025647
-0.011922 -0.0043051 0.0038853 -0.00086662
0.00082654 0.012924 -0.041532 -0.038324 -0.17858 0.24285 0.00018889 -0.0043166
0.017493 0.0041099 0.0081872 -0.0058365
0.0046812 0.010946 0.013169 0.002613 0.00021579 -0.004435 -0.30471 0.13535
0.0035964 -0.02226 0.0053006 -0.021525
0.010861 0.0036532 -0.012454 -0.0033184 0.017471 0.0040757 0.0031699 -0.022339
-0.30572 0.014989 0.0081413 -0.047214
0.012301 0.0093162 0.0030634 -0.00070305 0.0081418 -0.0057172 0.0062828 -0.021186
0.0082164 -0.047563 -0.32605 0.0020619
620000000 -0.27202 0.086421 -0.023926 0.009275 0.0031374 0.0092275 0.0081442 -0.004494
0.011925 -0.0016588 -0.0002239 -0.0014795
-0.023868 0.0094644 -0.3995 0.039483 -0.019468 0.00090196 -0.001508 -0.0019022
0.011682 -0.0060521 0.0006026 -0.0026011
0.0033255 0.0090415 -0.01966 0.00099227 -0.15304 0.25114 -0.0010718 -0.0049956
-0.0037192 -0.0029952 0.0085809 -0.0028104
0.007776 -0.0044953 -0.0016713 -0.0020223 -0.0011857 -0.0049907 -0.26451 0.14572
-0.039802 -0.019401 0.012348 0.030268
0.011904 -0.0017976 0.011857 -0.005994 -0.0039173 -0.0031936 -0.039257 -0.019537
-0.23008 -0.016247 -0.041313 0.011816
-0.00021803 -0.0016054 0.00030191 -0.0030734 0.0076861 -0.0028437 0.011981 0.030406
-0.041031 0.011862 -0.24204 -0.033111
680000000 -0.23748 0.17836 -0.02617 -0.013895 0.0048795 0.0051225 0.0015235 -0.0070445
-0.0024236 -0.011183 0.0065058 -0.0063466
-0.026175 -0.013981 -0.38916 0.14261 -0.032326 -0.00099766 -0.0015188 -0.00063404
-0.0021683 -0.0091434 -0.00083295 -0.0013954
0.004726 0.0051506 -0.032439 -0.00084634 -0.10594 0.27469 -0.00073042 -0.00035548
-0.0017767 0.00032359 -0.0027974 -0.00887
0.0017225 -0.0069543 -0.0015351 -0.00052728 -0.00060096 -0.0002588 -0.21941 0.19945
-0.025156 -0.0064549 -0.0080674 -0.012114
-0.0024233 -0.011214 -0.002178 -0.0093038 -0.0017439 0.00029061 -0.025152 -0.0064399
-0.26919 0.081602 -0.0066622 -0.0054894
0.0063968 -0.0061606 -0.00085715 -0.0014431 -0.0024696 -0.0088598 -0.0080279 -0.012177
-0.0064275 -0.0053914 -0.25969 0.070118
740000000 -0.19141 0.17105 -0.040313 0.026955 0.013396 -0.004084 0.00058564 -0.0039212
-0.0042562 -0.0018988 -0.0057421 0.002615
-0.040466 0.026721 -0.33454 0.16176 -0.036415 0.034367 -0.00020188 -0.0061518
-0.011974 0.0064861 -0.0016319 -0.0054706
0.01336 -0.0039727 -0.036377 0.034388 -0.072356 0.2747 -0.0020906 0.002946
-0.0017513 -0.0044385 -0.0018545 0.00060442
0.0005361 -0.0041196 -5.5589e-05 -0.0061078 -0.0021219 0.0028669 -0.20223 0.20541
-0.041201 -0.0052522 0.022406 0.017591
-0.0044126 -0.0017585 -0.011705 0.0061247 -0.0017539 -0.0044296 -0.041095 -0.0048922
-0.17854 0.10279 -0.040528 0.0010765
-0.0058597 0.0025789 -0.0015273 -0.0057813 -0.0018982 0.00019899 0.022165 0.017148
-0.039636 0.0012758 -0.25121 0.075914
800000000 -0.16355 0.21581 -0.022119 0.016531 0.005395 -0.010059 -0.0039997 -0.0026503
-0.0043928 0.001826 0.0048846 0.00085666
-0.022243 0.016293 -0.34251 0.23268 -0.0080225 0.034248 -0.0023416 0.0020326
-0.00083187 0.0022837 0.00075223 0.0055441
0.0052947 -0.0099845 -0.0079113 0.034325 -0.034322 0.30087 0.00066672 0.001385
0.00028391 0.0034012 -0.0017617 0.00073841
-0.0039723 -0.0026824 -0.0024275 0.002075 0.00078783 0.0014506 -0.17256 0.2341
-0.027221 0.015378 0.014919 -0.010242
-0.0044982 0.0017363 -0.00068043 0.0024407 0.00023607 0.0033085 -0.027295 0.015474
-0.21096 0.13103 -0.016864 0.020573
0.0042418 0.00095967 0.00080919 0.0057634 -0.0016657 0.00072841 0.014948 -0.010567
-0.017176 0.021079 -0.24954 0.12801
860000000 -0.12774 0.23749 -0.017403 0.030706 -0.0032131 -0.0095542 -0.0016788 0.00054405
0.0040464 0.0049026 -0.00386 -0.0027825
-0.017517 0.030603 -0.29386 0.2773 0.0080318 0.03394 0.00044602 0.0020904
0.0039092 0.00096102 0.0033404 0.0002311
-0.0032177 -0.0096118 0.0081512 0.033957 0.015012 0.31081 -0.00035124 -0.00018319
0.0026501 -0.0011869 0.0011991 0.0042118
-0.0016678 0.0006442 0.00034725 0.0020729 -0.00040611 -0.00018274 -0.13386 0.24528
-0.01583 0.020318 -0.0071784 -0.010017
0.004005 0.004897 0.003781 0.00086906 0.0027231 -0.0010867 -0.016045 0.020296
-0.15481 0.17744 -0.022573 0.017323
-0.0037451 -0.0030801 0.0033172 0.00010177 0.0012916 0.0041159 -0.0070159 -0.00999
-0.022719 0.016935 -0.1985 0.17636
920000000 -0.10523 0.26001 0.0052422 0.039005 -0.0088943 -0.0041172 -0.0019013 0.0016348
0.00082491 0.0016681 0.0030756 -0.00097858
0.0049969 0.038956 -0.26713 0.29768 0.028098 0.022409 0.001431 0.0012653
0.0069286 -0.00040716 0.0039928 -0.0026476
-0.0089091 -0.0041016 0.028224 0.022353 0.060948 0.31207 0.0018769 0.00019257
0.00094466 -0.00029886 0.00095061 -0.0012385
-0.0019855 0.0016376 0.0015373 0.001242 0.0019133 0.00017729 -0.11006 0.26102
-0.0083584 0.030706 0.0041788 -0.0060499
0.0007629 0.0016193 0.0068378 -0.00054628 0.00078525 -0.00026977 -0.0082316 0.030593
-0.14093 0.18348 -0.0012325 0.026809
0.0031878 -0.00081649 0.0039907 -0.0026897 0.00096224 -0.0012432 0.0043777 -0.0059583
-0.00123 0.026939 -0.2095 0.18854
980000000 -0.058543 0.2824 0.017401 0.02973 -0.0087919 0.0045508 0.0018126 0.0034408
0.0035058 -0.001817 -0.0034766 -0.0025648
0.017303 0.029726 -0.21516 0.3352 0.032928 0.0047723 0.0019213 -9.391e-05
0.0015269 -0.0058989 -0.00020341 -0.0025405
-0.0088179 0.0045585 0.032946 0.0046958 0.10763 0.30758 0.00058395 -0.001178
0.00042826 -0.0017826 0.001456 -0.00028281
0.0018504 0.003531 0.002092 -0.00011418 0.00060324 -0.0010864 -0.070387 0.27263
0.01044 0.028292 -0.0093688 -0.007465
0.0034833 -0.0016965 0.0014504 -0.0057653 0.00043506 -0.0018269 0.010447 0.028352
-0.10821 0.20986 0.0073127 0.019333
-0.0035049 -0.0027088 -0.00023926 -0.0024835 0.0016134 -0.00022937 -0.0092833 -0.007672
0.0073104 0.01905 -0.16811 0.23844
1040000000 -0.016728 0.2901 0.033067 0.018787 -0.00085989 0.0071047 0.0023678 0.00068628
0.00054744 -0.0034456 -0.00030183 -0.0014827
0.033001 0.01873 -0.1794 0.34782 0.029307 -0.014571 0.0015097 -0.0018443
-0.0021429 -0.0023851 -0.00098629 -0.0030194
-0.00082935 0.007122 0.029318 -0.014725 0.15461 0.29361 -0.00049273 -0.0015286
-0.0014803 -0.0010865 -0.00064083 -0.0011673
0.0022114 0.00069249 0.0015394 -0.0017952 -0.00048788 -0.0015511 -0.0424 0.28084
0.020737 0.016442 -0.001442 0.0011183
0.00046937 -0.0034215 -0.0022018 -0.0024571 -0.0014207 -0.0010611 0.020715 0.016336
-0.074756 0.21476 0.014637 0.017074
-9.8082e-05 -0.0014903 -0.0011134 -0.0028758 -0.00071856 -0.0011554 -0.001452 0.001223
0.014788 0.017469 -0.14661 0.25833
1100000000 0.02707 0.30053 0.036212 -0.0037644 0.0033569 0.0038196 0.0021486 -0.0009849
-0.0022824 -0.0028782 -0.0040529 0.00014286
0.036121 -0.0037359 -0.13719 0.36754 0.015125 -0.02753 -0.00016394 -0.001833
-0.0035158 -0.00090643 -0.003801 -0.00059734
0.0033999 0.0038134 0.015047 -0.027625 0.20017 0.27443 -0.0018155 0.00017857
-0.0016275 0.00050208 -0.0011003 -0.00041009
0.0021781 -0.0010001 -0.00012588 -0.0017459 -0.0018218 0.00017459 -0.0022959 0.28559
0.02489 0.0028116 -0.0022162 -0.00065067
-0.0022997 -0.0029086 -0.0034986 -0.00085727 -0.0016139 0.00053586 0.024828 0.0027805
-0.054342 0.22687 0.019472 0.0074074
-0.0042951 0.00012062 -0.003854 -0.00059205 -0.0011741 -0.00046565 -0.0021427 -0.00054297
0.01936 0.0074296 -0.10224 0.29191
1160000000 0.079644 0.29721 0.024242 -0.020393 0.0030992 -0.00085185 -8.222e-05 -0.002117
-0.0038053 -0.00057995 -0.0012603 0.0040616
0.024275 -0.020435 -0.09209 0.37193 -0.0037271 -0.028488 -0.001468 -0.0016695
-0.0025517 0.0024683 -0.0016508 0.0018862
0.0030972 -0.00085636 -0.0038033 -0.028528 0.24458 0.24431 -0.00083031 0.0015787
-0.00050804 0.0016176 -0.00087768 0.00033187
-0.00014977 -0.0021413 -0.001491 -0.0015622 -0.00081428 0.0015576 0.0385 0.2818
0.020353 -0.011942 -0.0037575 0.0044635
-0.0038049 -0.00052859 -0.0025576 0.0024929 -0.00048784 0.0016325 0.020417 -0.01202
-0.018793 0.23371 0.01802 -0.00139
-0.0010328 0.0039554 -0.0014942 0.0017892 -0.00096465 0.00028081 -0.0039209 0.0045892
0.018029 -0.0012919 -0.053412 0.29547
1220000000 0.1226 0.28651 0.011179 -0.029994 -0.0013877 -0.0013905 1.1692e-05 -0.00080383
-0.002514 0.0022088 0.0012576 0.0020106
0.011131 -0.029866 -0.049294 0.38526 -0.016603 -0.020946 -0.00257 0.00045101
-0.00017385 0.0029748 -0.00078783 0.0019142
-0.0014121 -0.0013818 -0.016715 -0.020874 0.28361 0.20544 0.00072522 0.0016483
0.00050312 0.0011554 0.00015758 0.00061096
4.3722e-05 -0.00087381 -0.0025613 0.00042235 0.0007184 0.0016547 0.077642 0.27168
0.0096085 -0.018362 0.0015926 0.00117
-0.0025203 0.0022047 -0.00012699 0.0029438 0.0005515 0.0011717 0.0096077 -0.018399
0.0062174 0.23929 0.01259 -0.013092
0.0010806 0.0020633 -0.00086256 0.0019631 0.00018093 0.00061965 0.0016907 0.0010978
0.012685 -0.013106 -0.024747 0.31385
1280000000 0.17311 0.26754 -0.007502 -0.028616 -0.0020139 0.0019018 -0.00076697 -0.0020269
-0.00083261 0.0030757 0.0025008 0.0013122
-0.0074676 -0.028588 -0.0030736 0.37802 -0.023541 -0.0082682 -0.0010529 0.0013625
0.0015945 0.0018442 0.00059622 0.0020659
-0.0019991 0.0018829 -0.023582 -0.0081662 0.31521 0.16291 0.0015031 0.00013074
0.0010076 0.00028565 0.00032965 0.00036458
-0.00077827 -0.0019809 -0.0010528 0.0013901 0.0015066 0.00012298 0.11433 0.25468
-9.9985e-05 -0.020121 -0.00087303 0.00034345
-0.00078387 0.0031048 0.0016527 0.0018489 0.0010582 0.00028766 -0.00011314 -0.020044
0.04269 0.24188 0.0022318 -0.014965
0.0024363 0.0012287 0.00061708 0.0020203 0.00026937 0.00036996 -0.00095521 0.00024173
0.0023765 -0.015064 0.02361 0.31865
1340000000 0.21081 0.23368 -0.017018 -0.019254 0.00032062 0.004274 -0.0017136 -0.00076264
0.0014939 0.0025565 0.0019153 -0.0013696
-0.016971 -0.019271 0.036373 0.3705 -0.020928 0.0042584 -0.00035261 0.0020796
0.0019121 0.00088987 0.00114 0.00075237
0.00033344 0.0042782 -0.020916 0.0043735 0.33891 0.11398 0.0011278 -0.00082528
0.00059592 -0.00059422 0.00013275 0.00024026
-0.001682 -0.00075295 -0.00036685 0.0021011 0.0011498 -0.00083307 0.1466 0.23242
-0.0094371 -0.016924 0.00051471 0.00097888
0.0014707 0.0025566 0.0018635 0.00091915 0.00063297 -0.00060619 -0.0095254 -0.016939
0.072817 0.2342 -0.004263 -0.013496
0.0018924 -0.0013225 0.0011919 0.00080996 0.00015401 0.00022776 0.00058023 0.00092902
-0.0042688 -0.013432 0.061899 0.31495
1400000000 0.24393 0.19701 -0.023334 -0.0081235 0.0046708 0.0031649 -0.0021496 0.00053195
0.0022994 0.00096596 0.00041086 -0.0013603
-0.023313 -0.0080851 0.073313 0.35915 -0.014434 0.012186 0.0013732 0.0015692
0.0014137 -0.00056949 0.0011822 0.00021217
0.00469 0.0031169 -0.014401 0.012268 0.35214 0.059758 0.00018219 -0.0015534
0.00016289 -0.00032534 0.00035744 0.00018157
-0.002132 0.00053345 0.0014167 0.001591 0.00019414 -0.0015408 0.17407 0.20305
-0.015436 -0.010094 -0.00098287 0.00021785
0.0023145 0.0009188 0.0014132 -0.00063716 0.00011 -0.00034357 -0.015443 -0.010073
0.10479 0.22809 -0.010061 -0.0081778
0.00038236 -0.0013714 0.001191 0.00021721 0.00035213 0.00025848 -0.00097521 0.00029384
-0.010046 -0.0081577 0.10675 0.30613
1460000000 0.26836 0.15403 -0.020412 0.0043385 0.0051624 -0.0014871 -0.0016736 0.001691
0.0021755 -0.00041839 -4.8061e-05 -0.00092492
-0.020396 0.0043074 0.10891 0.33829 -0.0057221 0.014996 0.0019005 0.00032601
0.0010679 -0.0014316 0.0013013 -0.00052728
0.0051534 -0.0014828 -0.0056279 0.014989 0.35897 0.0040355 -0.0010525 -0.0014636
0.00017067 -0.00026958 0.00065359 -0.00029408
-0.0016633 0.0016846 0.0018859 0.00031959 -0.0010412 -0.0014506 0.19978 0.17409
-0.01684 -0.0031711 -0.0004652 0.002552
0.0021032 -0.00040986 0.0010268 -0.0014434 0.00020667 -0.00021755 -0.016862 -0.0031514
0.13494 0.21268 -0.011682 -0.0025097
-3.3503e-05 -0.00093245 0.0013012 -0.00048967 0.00059624 -0.00036751 -0.0005164 0.00252
-0.011833 -0.0025574 0.14126 0.28679
1520000000 0.28066 0.11195 -0.015129 0.0098354 0.0032314 -0.0037952 1.3915e-05 0.0026641
0.0020981 -0.0016328 -0.0011056 -0.00025012
-0.015103 0.0098064 0.14282 0.32404 0.0016978 0.012536 0.0019122 -0.00085468
0.00010279 -0.0012226 0.00040846 -0.00096619
0.0032127 -0.0037797 0.0017826 0.01255 0.3509 -0.054293 -0.0011461 -0.00048341
0.00051885 -0.00085437 0.00014154 -3.983e-05
4.0158e-05 0.0026845 0.0019206 -0.00084031 -0.001102 -0.00044546 0.22103 0.13583
-0.016258 0.0029456 0.001726 0.0021258
0.0021021 -0.0016804 0.00010089 -0.0012401 0.00053615 -0.0008638 -0.016272 0.0030101
0.16184 0.19726 -0.01149 0.0015012
-0.0010921 -0.00027678 0.00036605 -0.00098807 0.0001496 -0.00010175 0.0017887 0.0020758
-0.011466 0.0015257 0.17462 0.2678
1580000000 0.29101 0.067156 -0.0086569 0.013423 -0.00090397 -0.0044385 0.00155 0.0020594
-7.2141e-06 -0.002126 -0.00028785 0.00039897
-0.0086783 0.013412 0.17071 0.30072 0.0050695 0.0077071 0.00055441 -0.001799
-0.0006789 -0.0012334 -0.00013198 -0.00074169
-0.00096414 -0.0044515 0.005127 0.0076674 0.32891 -0.11095 -0.001829 0.00055273
-0.00045138 -0.0011359 0.00023433 -0.00051949
0.0015424 0.0020586 0.00055959 -0.0018225 -0.001804 0.00054385 0.23389 0.098291
-0.012831 0.0083251 0.0025035 0.00062437
-3.9353e-05 -0.0021018 -0.00071406 -0.001181 -0.00048411 -0.0011486 -0.01278 0.0083331
0.18539 0.17955 -0.0089771 0.0072063
-0.00041046 0.00043738 -0.00016319 -0.00079186 0.00031269 -0.00061118 0.0024665 0.00064345
-0.0090032 0.0072552 0.20863 0.24356
1640000000 0.2944 0.025118 -0.0018267 0.012491 -0.0025596 -0.0022178 0.0029825 0.0010828
-0.00051225 -0.0017751 -0.00044386 0.00057289
-0.0018154 0.012468 0.20202 0.27548 0.0055617 0.0029214 -0.00073967 -0.0019551
-0.0011976 -0.00036513 -0.00044323 -0.000758
-0.0025786 -0.0021838 0.0055994 0.002882 0.29969 -0.16121 -0.00075441 0.0016151
-0.0010813 -0.00096222 -0.0002135 -0.00050133
0.0029863 0.0010703 -0.00072715 -0.0019413 -0.00075827 0.0016189 0.24601 0.050108
-0.0084473 0.010331 0.002611 -0.0010291
-0.00049906 -0.0017595 -0.001168 -0.00033961 -0.0010335 -0.00093882 -0.0084901 0.010381
0.20799 0.15331 -0.0045176 0.0091095
-0.00034683 0.00052178 -0.00041827 -0.00078354 -0.00014864 -0.00045016 0.0026919 -0.0010296
-0.0045703 0.0091387 0.23571 0.21221
1700000000 0.28662 -0.019752 0.0018447 0.0098909 -0.003086 0.00018561 0.0031973 -0.001465
-0.0020943 -0.00090525 0.00059753 0.00041287
0.0018287 0.0098772 0.21977 0.2445 0.0033064 0.00020236 -0.0016551 -0.00062104
-0.00085671 0.00020336 -0.00085742 -0.0004826
-0.003052 0.00021978 0.0033014 0.00016839 0.25335 -0.19945 0.0005116 0.0018386
-0.0019495 -4.9537e-05 -0.00031938 -0.00075487
0.00321 -0.0014713 -0.0016719 -0.00062772 0.00050188 0.0017863 0.24224 0.0023605
-0.0048031 0.011345 0.0014523 -0.0021415
-0.0021171 -0.00088615 -0.00087904 0.00019684 -0.0019483 -6.9193e-05 -0.0047299 0.011316
0.22502 0.13259 1.2144e-05 0.0092158
0.00055226 0.00055087 -0.00085267 -0.00041991 -0.00034111 -0.0008045 0.001424 -0.0021513
1.7167e-06 0.0091589 0.25257 0.17914
1760000000 0.27612 -0.068343 0.004509 0.0066002 -0.0019537 0.00090824 0.0012326 -0.0036804
-0.0016299 0.00049273 0.00029782 -0.00050166
0.0044985 0.0066016 0.24773 0.20514 0.00093379 -0.0013338 -0.0013284 0.00026904
-0.00094109 0.0010978 -0.00064927 0.00030653
-0.0019254 0.00091778 0.0009134 -0.0013347 0.2045 -0.23056 0.0014212 0.001202
-0.0010814 0.0015408 -0.0012424 -0.00066256
0.0012332 -0.0036516 -0.0013099 0.00027156 0.0014649 0.0012077 0.23564 -0.047122
-0.00067062 0.010651 -0.00017024 -0.0026288
-0.0016309 0.00054068 -0.00093077 0.0010856 -0.0010429 0.001539 -0.00066849 0.01064
0.23999 0.098489 0.0037428 0.0066576
0.00029903 -0.00056043 -0.00062584 0.0002657 -0.0011972 -0.00068027 -7.8864e-05 -0.0025154
0.0037382 0.006751 0.26701 0.14227
1820000000 0.25114 -0.10671 0.0048884 0.0028601 3.5226e-05 0.0019974 -0.001145 -0.0031079
-0.0013028 0.0012526 -4.5099e-06 -0.00012974
0.0048591 0.002858 0.25786 0.17423 -0.0011818 -1.5869e-05 -0.0012821 0.0010489
0.00018574 0.0012487 -0.00064456 0.00040151
3.5636e-05 0.002015 -0.0011741 -2.5139e-05 0.15337 -0.24481 0.0017893 0.00011415
2.0045e-05 0.0022907 -0.0015088 0.00019416
-0.0011542 -0.0031446 -0.0012538 0.0010559 0.0017082 7.7007e-05 0.20672 -0.094419
0.0017044 0.0088973 -0.0016331 -0.001551
-0.0013112 0.0012801 0.00023146 0.0012676 5.0403e-05 0.0023311 0.0018078 0.0089543
0.25587 0.068477 0.0045791 0.0034856
6.3649e-07 -9.1381e-05 -0.00064329 0.00046322 -0.0015089 0.00025784 -0.0017164 -0.0016321
0.00459 0.0034031 0.27044 0.10631
1880000000 0.21566 -0.14603 0.0026585 0.00032455 -0.000563 0.0020403 -0.0030751 -0.0022249
-5.8083e-05 0.0020073 0.00035585 -0.00060373
0.0026228 0.00031119 0.26272 0.12856 -0.003114 0.002346 -0.00017273 0.0017276
0.00075968 0.001079 8.149e-05 0.00096708
-0.00054468 0.0020294 -0.0030978 0.0023668 0.10205 -0.25069 0.0014503 -0.0012309
0.0016469 0.0017536 -0.0010821 0.0013458
-0.0029778 -0.0022128 -0.00010975 0.0017137 0.0014351 -0.0013733 0.16839 -0.13446
0.0033683 0.0061217 -0.0021218 0.0001711
-7.8966e-05 0.0020092 0.00076026 0.0010719 0.0016418 0.0017543 0.0032724 0.0060861
0.25961 0.037479 0.004809 0.0014447
0.00029095 -0.00064054 6.4056e-05 0.00093323 -0.0011081 0.0013749 -0.0021622 0.00021729
0.0047678 0.001499 0.27183 0.073544
1940000000 0.17686 -0.17274 0.00026587 -0.0015455 0.0013206 0.0019618 -0.0035995 0.00051028
0.0016177 0.0012383 -0.00074369 -0.00070354
0.00026208 -0.0015501 0.26481 0.095875 -0.0014042 0.0048945 0.0010865 0.0012297
0.0017438 0.00022717 0.00085183 0.00022954
0.0013223 0.0019542 -0.0013858 0.0049456 0.059578 -0.24264 0.00014587 -0.0019928
0.0022595 0.00025411 0.00020251 0.0016478
-0.003796 0.00062129 0.0010475 0.0012772 0.00014337 -0.0019951 0.11809 -0.16759
0.0027273 0.0040608 -0.0012771 0.001281
0.0015962 0.0012437 0.0017378 0.00023208 0.0022854 0.00026226 0.0029606 0.0040546
0.26297 -0.0015518 0.0035199 -0.0018086
-0.00062595 -0.00072304 0.000841 0.00022573 0.00019724 0.0016828 -0.0012468 0.00118
0.0035672 -0.0019131 0.26304 0.037068
2000000000 0.12982 -0.18624 -0.0035854 0.00060401 0.002675 0.001679 -0.0023582 0.0036136
0.0012898 3.6461e-05 -0.00085081 0.00058145
-0.0035896 0.00066039 0.25013 0.0602 -0.00061397 0.0067609 0.0014099 0.00032876
0.00098149 -0.0012964 0.00044751 0.00013622
0.0027571 0.0016577 -0.0006287 0.0067504 0.017656 -0.22807 -0.0012982 -0.0010211
0.0020247 -0.001367 0.0017082 0.0015282
-0.0023158 0.0036309 0.0014646 0.00033649 -0.0013766 -0.00098929 0.06352 -0.17955
0.0011736 0.0027022 -8.1623e-05 0.0019391
0.0013029 5.9592e-05 0.0010137 -0.0012948 0.0018692 -0.0013045 0.0010409 0.0026586
0.25735 -0.035415 0.00044481 -0.0027293
