!Keysight Technologies,M9804A,MY58100912,A.14.10.03
!Date: Thursday, April 27, 2023 10:28:33
!Correction: S11(C  6-Port  ) 
!S12(C  6-Port  ) 
!S13(C  6-Port  ) 
!S14(C  6-Port  ) 
!S15(C  6-Port  ) 
!S16(C  6-Port  ) 
!S21(C  6-Port  ) 
!S22(C  6-Port  ) 
!S23(C  6-Port  ) 
!S24(C  6-Port  ) 
!S25(C  6-Port  ) 
!S26(C  6-Port  ) 
!S31(C  6-Port  ) 
!S32(C  6-Port  ) 
!S33(C  6-Port  ) 
!S34(C  6-Port  ) 
!S35(C  6-Port  ) 
!S36(C  6-Port  ) 
!S41(C  6-Port  ) 
!S42(C  6-Port  ) 
!S43(C  6-Port  ) 
!S44(C  6-Port  ) 
!S45(C  6-Port  ) 
!S46(C  6-Port  ) 
!S51(C  6-Port  ) 
!S52(C  6-Port  ) 
!S53(C  6-Port  ) 
!S54(C  6-Port  ) 
!S55(C  6-Port  ) 
!S56(C  6-Port  ) 
!S61(C  6-Port  ) 
!S62(C  6-Port  ) 
!S63(C  6-Port  ) 
!S64(C  6-Port  ) 
!S65(C  6-Port  ) 
!S66(C  6-Port  ) 
!S6P File: Measurement: :
# Hz S  RI   R 50
500000000 -0.32615 -0.056889 -0.010976 -0.0015363 -0.0084389 0.012639 -0.0039192 0.01144
0.012416 0.0053331 -0.005238 0.0080432
-0.010901 -0.0015142 -0.40992 -0.070183 0.0074308 -0.010673 0.00075089 0.012072
0.0083252 0.0025249 0.00054108 0.013908
-0.0084304 0.012726 0.0074911 -0.01062 -0.25456 0.19474 0.0065426 0.0030801
-0.0012843 0.0080206 0.00096786 0.011581
-0.0040524 0.011744 0.0007479 0.012396 0.0065589 0.0030979 -0.32885 0.044863
-0.019218 -0.0065379 0.015691 0.028289
0.012812 0.0052674 0.008526 0.0025554 -0.0011939 0.0079084 -0.019173 -0.0065105
-0.25625 -0.15887 -0.02702 0.0048959
-0.0053146 0.0083326 0.00072413 0.014395 0.0010217 0.011615 0.015798 0.02828
-0.026954 0.0045481 -0.2559 -0.14656
560000000 -0.31112 0.10907 -0.022592 -0.065861 0.00085802 0.012941 0.0050436 0.010666
0.010101 0.0029803 0.012126 0.0087471
-0.022499 -0.065732 -0.37043 0.091533 -0.041256 -0.038012 0.013719 0.0027222
-0.011864 -0.0045608 0.0045264 -0.0011474
0.00082918 0.012823 -0.041428 -0.038024 -0.17836 0.2428 0.00019959 -0.0044481
0.017593 0.0043458 0.0078667 -0.0057472
0.0050529 0.010649 0.013575 0.0029252 0.00017913 -0.0043522 -0.30452 0.13563
0.0028126 -0.022435 0.0065467 -0.021144
0.010559 0.0033474 -0.011757 -0.0045643 0.017676 0.0043219 0.003073 -0.022426
-0.30519 0.01663 0.0074149 -0.048609
0.012004 0.0091381 0.0044198 -0.00085478 0.0080364 -0.005739 0.0065325 -0.021262
0.0072544 -0.048696 -0.32462 0.001678
620000000 -0.27202 0.08651 -0.023876 0.0093983 0.0033883 0.0091234 0.0079315 -0.0040306
0.012339 -0.0026114 -0.00022286 -0.001593
-0.023867 0.0093837 -0.39938 0.039576 -0.019505 0.0010832 -0.0015047 -0.0016399
0.011753 -0.0063285 0.00063834 -0.0028025
0.0033661 0.0089762 -0.01949 0.0011024 -0.15255 0.25131 -0.00099273 -0.0048517
-0.0038481 -0.0035215 0.0087965 -0.0029704
0.0077156 -0.0042632 -0.0015441 -0.0017734 -0.00099142 -0.004927 -0.26397 0.14573
-0.040287 -0.019621 0.013086 0.030442
0.012683 -0.0024201 0.011958 -0.0062901 -0.003645 -0.0033409 -0.039882 -0.019258
-0.23024 -0.016227 -0.041978 0.011923
-0.00048948 -0.0015201 0.00062595 -0.0029774 0.008785 -0.002967 0.01279 0.030711
-0.042184 0.011571 -0.24094 -0.032851
680000000 -0.23728 0.17842 -0.026169 -0.013971 0.0048072 0.0051773 0.0014248 -0.0069477
-0.0024334 -0.011217 0.0060632 -0.0058824
-0.026151 -0.013978 -0.38911 0.14258 -0.03236 -0.0010368 -0.0014983 -0.00059465
-0.0021673 -0.0091026 -0.00089075 -0.001629
0.0048755 0.0052585 -0.032405 -0.00093245 -0.10607 0.27471 -0.00071145 -0.00034149
-0.0017353 0.00037652 -0.0028762 -0.0087297
0.0014046 -0.007173 -0.0014794 -0.00061216 -0.00072663 -0.00032548 -0.21937 0.19948
-0.025229 -0.0066227 -0.008666 -0.012171
-0.0025079 -0.011535 -0.0021531 -0.0093394 -0.0016622 0.00036437 -0.025111 -0.0066231
-0.26967 0.08171 -0.0062914 -0.0054789
0.0063467 -0.0060768 -0.00083301 -0.0015823 -0.0028619 -0.0087568 -0.0083594 -0.012221
-0.006476 -0.0053339 -0.26114 0.070728
740000000 -0.19126 0.17066 -0.040116 0.027153 0.013294 -0.003904 0.00067388 -0.0041863
-0.0046816 -0.0020206 -0.0060406 0.0027499
-0.040082 0.027155 -0.33453 0.16148 -0.036384 0.03444 7.4269e-05 -0.0059208
-0.012308 0.0063245 -0.0017496 -0.005441
0.013262 -0.0039215 -0.036328 0.034604 -0.072319 0.27494 -0.0022134 0.0029918
-0.0016706 -0.0042854 -0.0019773 0.00036798
0.00036007 -0.0039883 -0.00010622 -0.0060479 -0.0022126 0.0029817 -0.20214 0.20566
-0.041086 -0.0051282 0.022258 0.017337
-0.0044842 -0.0021074 -0.011744 0.0063714 -0.0017335 -0.0041755 -0.041117 -0.0049966
-0.17834 0.10284 -0.039939 0.0014237
-0.0062325 0.0030111 -0.0021951 -0.0056435 -0.0019687 0.00033311 0.022143 0.017454
-0.039791 0.0014374 -0.25141 0.075069
800000000 -0.16337 0.21592 -0.022061 0.016417 0.0053263 -0.0099203 -0.0040302 -0.0025379
-0.0042088 0.0018616 0.0041115 0.0011732
-0.022072 0.016399 -0.34252 0.23268 -0.0080126 0.034286 -0.0023378 0.0020768
-0.00064606 0.0022263 0.00054923 0.005716
0.0053225 -0.009955 -0.0078803 0.034308 -0.034348 0.30096 0.00062443 0.0014501
0.00035821 0.0034119 -0.0019501 0.00087814
-0.0040639 -0.0025348 -0.0023678 0.0020387 0.00060936 0.0014303 -0.17268 0.23422
-0.027325 0.015383 0.014645 -0.010251
-0.004236 0.0018839 -0.00059441 0.0023169 0.00034402 0.0034326 -0.027294 0.015431
-0.21093 0.13124 -0.016869 0.020762
0.004234 0.0010456 0.00063987 0.0056664 -0.0019737 0.00082615 0.014718 -0.010346
-0.016999 0.020873 -0.24995 0.12851
860000000 -0.12772 0.2375 -0.017605 0.030687 -0.0032526 -0.0096561 -0.001669 0.00058942
0.0040395 0.0049697 -0.0041435 -0.0032275
-0.017617 0.030638 -0.29393 0.27725 0.0080749 0.033901 0.00040404 0.0020865
0.0038076 0.00090878 0.0032726 0.00010138
-0.0033202 -0.0096094 0.0081149 0.033966 0.015042 0.3108 -0.00035296 -0.00015158
0.0026507 -0.0012049 0.0012574 0.0041852
-0.0017955 0.00049999 0.00041524 0.0019918 -0.00037215 -0.00014573 -0.13392 0.24519
-0.015946 0.020047 -0.0072437 -0.009843
0.0040822 0.0050082 0.0036775 0.00080693 0.0026232 -0.0012293 -0.015842 0.020115
-0.15482 0.17769 -0.022671 0.016992
-0.0042029 -0.0031692 0.0032638 0.0001886 0.0013018 0.0041781 -0.007283 -0.0097357
-0.022562 0.017126 -0.19864 0.17612
920000000 -0.10505 0.26003 0.0049551 0.038988 -0.0088955 -0.0041552 -0.0018874 0.0017596
0.00072428 0.0015296 0.0033963 -0.00083937
0.0049199 0.038921 -0.2672 0.29766 0.028139 0.022408 0.001482 0.0012052
0.0067946 -0.00040716 0.0042049 -0.0027702
-0.0089759 -0.0041889 0.028171 0.022378 0.061002 0.31207 0.001901 0.00018071
0.00088417 -0.00024555 0.00098919 -0.0012837
-0.0017602 0.0017476 0.0014885 0.0012045 0.0018939 0.00018085 -0.11005 0.26112
-0.0081678 0.030539 0.0041921 -0.0058746
0.00071788 0.001471 0.0069626 -0.00057247 0.00085453 -0.0002766 -0.008155 0.030635
-0.14117 0.18351 -0.0012104 0.026726
0.0032437 -0.0010261 0.0039927 -0.0027595 0.00096943 -0.0012989 0.0042734 -0.0058847
-0.0012458 0.026706 -0.20918 0.18881
980000000 -0.058525 0.28244 0.017385 0.02974 -0.0088234 0.0045963 0.0017974 0.0034907
0.0037116 -0.0017036 -0.0035468 -0.0026182
0.017349 0.029701 -0.21513 0.33513 0.032909 0.0047808 0.001996 -0.00012532
0.001651 -0.0059538 -0.00042705 -0.002515
-0.0087851 0.0046008 0.032965 0.0046733 0.10763 0.30761 0.00057874 -0.0011496
0.00040136 -0.0017486 0.0014398 -0.00030013
0.0018125 0.0036007 0.0020222 -6.5578e-05 0.00058387 -0.0011543 -0.070427 0.27267
0.010507 0.02834 -0.0093596 -0.0076571
0.0036596 -0.0016922 0.0015647 -0.0059291 0.00041549 -0.0017612 0.010498 0.028324
-0.10791 0.20976 0.0073472 0.019222
-0.0034424 -0.0026559 -0.00033587 -0.0025352 0.0014252 -0.00031404 -0.0094161 -0.0075858
0.0073081 0.019189 -0.16834 0.23833
1040000000 -0.016622 0.2903 0.033097 0.018816 -0.00088355 0.0071255 0.0024382 0.00067856
0.00041329 -0.0033517 -4.9798e-05 -0.001556
0.033047 0.018776 -0.1794 0.34773 0.029299 -0.014636 0.0015439 -0.0018219
-0.0020497 -0.0023805 -0.0010553 -0.0030445
-0.00088008 0.007135 0.029285 -0.014712 0.15467 0.29357 -0.00048698 -0.001515
-0.0015276 -0.0010351 -0.00061078 -0.0012434
0.0023926 0.00059341 0.0015503 -0.0017832 -0.00048193 -0.0015287 -0.042337 0.2808
0.020752 0.016305 -0.0014741 0.0012417
0.000388 -0.0033908 -0.0021086 -0.0023743 -0.0015031 -0.0010318 0.02084 0.016302
-0.074829 0.21481 0.014485 0.017389
-6.4424e-05 -0.0015332 -0.0010703 -0.0030199 -0.00058296 -0.0012584 -0.001476 0.0011935
0.014549 0.01751 -0.14607 0.25869
1100000000 0.027162 0.30045 0.036172 -0.003738 0.0034009 0.00379 0.0021478 -0.00090167
-0.0023096 -0.00287 -0.0041223 0.00012862
0.036132 -0.0037501 -0.13724 0.36762 0.015156 -0.027553 -0.00015596 -0.0017547
-0.0034656 -0.00089823 -0.0038751 -0.00058817
0.0034295 0.0037732 0.015083 -0.027637 0.20019 0.27442 -0.0018374 0.00017233
-0.0016002 0.00053961 -0.0011389 -0.00046281
0.0022412 -0.00090867 -0.00015431 -0.0017305 -0.0018304 0.00018632 -0.0022641 0.28554
0.024844 0.0027863 -0.0022102 -0.00065335
-0.0023775 -0.0028608 -0.0035094 -0.00089459 -0.0015856 0.00054162 0.024853 0.0027453
-0.054236 0.22676 0.019404 0.0074067
-0.0040529 8.54e-05 -0.00384 -0.0006666 -0.0011653 -0.00044182 -0.0022088 -0.00062029
0.019394 0.0074469 -0.1023 0.29166
1160000000 0.079605 0.29717 0.024225 -0.020509 0.0031226 -0.00081143 -6.0148e-05 -0.0021757
-0.003794 -0.00049198 -0.0010801 0.0039228
0.024214 -0.020503 -0.092094 0.37194 -0.0036806 -0.028479 -0.0014908 -0.0016696
-0.0024938 0.0025089 -0.0015887 0.0018481
0.0031327 -0.00081367 -0.0037744 -0.028445 0.24464 0.2443 -0.00081242 0.001614
-0.000524 0.001631 -0.00093106 0.00037062
-8.6006e-05 -0.0021685 -0.0014979 -0.0016636 -0.00083068 0.0015991 0.038555 0.28173
0.020457 -0.012036 -0.0039904 0.0046394
-0.0037358 -0.00047058 -0.0024638 0.0024266 -0.00052702 0.0016467 0.020454 -0.012024
-0.018549 0.2337 0.017533 -0.0017435
-0.0011597 0.004064 -0.0016126 0.0019792 -0.0009094 0.00033725 -0.0039051 0.0046096
0.017591 -0.0015859 -0.052765 0.29624
1220000000 0.12264 0.28655 0.01117 -0.029897 -0.0014225 -0.0013693 3.6876e-05 -0.00075069
-0.0025327 0.0021364 0.0011613 0.0021101
0.011161 -0.029871 -0.04927 0.38522 -0.016607 -0.020947 -0.002555 0.00043783
-0.00015923 0.0029697 -0.00083828 0.0020123
-0.0013789 -0.0013823 -0.016703 -0.020904 0.28365 0.20542 0.00072756 0.0016458
0.00050491 0.0011577 0.00021234 0.0005846
9.8227e-05 -0.00077061 -0.0025391 0.0004381 0.00073445 0.0016456 0.077607 0.27169
0.0096538 -0.018349 0.0016622 0.0010308
-0.0025476 0.0022332 -0.0001076 0.0029517 0.00050377 0.001159 0.0095955 -0.018373
0.0063181 0.23926 0.012776 -0.013022
0.001181 0.0019534 -0.00086108 0.0020058 0.00023421 0.00060742 0.0016609 0.0011138
0.012703 -0.013036 -0.024888 0.31363
1280000000 0.17314 0.26748 -0.0075142 -0.028645 -0.0020202 0.001903 -0.00080018 -0.0020325
-0.00080001 0.0030586 0.0023212 0.0013822
-0.0075053 -0.028618 -0.0030702 0.378 -0.023519 -0.0082615 -0.0010661 0.0013885
0.0016478 0.0017956 0.00053613 0.0021085
-0.0020071 0.0019479 -0.023557 -0.0081575 0.31519 0.16292 0.0014959 0.00014377
0.001022 0.00026196 0.00025615 0.00040176
-0.00086021 -0.0020163 -0.0010507 0.0013781 0.001493 0.00015616 0.1143 0.25467
-7.4174e-05 -0.020066 -0.00087576 0.00025631
-0.0007632 0.0030203 0.0016662 0.0017673 0.0010068 0.00028691 -9.1758e-05 -0.020134
0.04275 0.242 0.0022463 -0.015049
0.0024248 0.001291 0.00057379 0.0020519 0.00027342 0.00036168 -0.00094273 0.00027937
0.0022947 -0.015004 0.023801 0.31845
1340000000 0.21086 0.23369 -0.016986 -0.019292 0.00032499 0.0042485 -0.0016272 -0.00077402
0.0014483 0.0025268 0.0018616 -0.0014265
-0.016956 -0.019289 0.036351 0.37045 -0.020912 0.0042649 -0.00037525 0.0020607
0.0018523 0.00094246 0.0011476 0.00073587
0.00034143 0.0042593 -0.020917 0.0043523 0.33894 0.11396 0.0011254 -0.00082187
0.00065527 -0.00056969 0.00016947 0.00025184
-0.0016705 -0.00082387 -0.00035458 0.002075 0.0011306 -0.000836 0.14661 0.23244
-0.0095006 -0.016939 0.00055863 0.00098888
0.001502 0.0025256 0.0018783 0.00091177 0.00063292 -0.00058078 -0.0094994 -0.016875
0.072865 0.23403 -0.0041806 -0.01338
0.0018405 -0.0014746 0.0011869 0.00078383 0.00019832 0.0002574 0.00054054 0.00095972
-0.0042038 -0.013433 0.062075 0.31453
1400000000 0.24397 0.197 -0.023328 -0.0080865 0.004663 0.0031681 -0.0021766 0.00053704
0.002287 0.00093456 0.00041461 -0.0012802
-0.023285 -0.0080984 0.073295 0.35914 -0.014424 0.012185 0.0013723 0.0016107
0.0013947 -0.00060941 0.0011905 0.00022378
0.0047301 0.0031321 -0.01438 0.012235 0.35215 0.05973 0.00022004 -0.0015538
0.00012042 -0.00030271 0.00035196 0.00017988
-0.0021609 0.00054837 0.0013694 0.0016034 0.00022052 -0.0015518 0.17406 0.20301
-0.015439 -0.010078 -0.00095029 0.00028302
0.0023373 0.00092283 0.0013766 -0.0005804 0.00010865 -0.00031357 -0.015479 -0.010049
0.10493 0.2282 -0.010093 -0.0083648
0.00039633 -0.0013277 0.0012133 0.00021547 0.00036079 0.00018486 -0.00091875 0.00027368
-0.010086 -0.0083234 0.10678 0.30648
1460000000 0.26836 0.154 -0.020448 0.0043454 0.0051549 -0.0014692 -0.0016346 0.0016737
0.0020833 -0.00033413 -8.3962e-05 -0.00099029
-0.020434 0.0043293 0.10891 0.33834 -0.0057029 0.01496 0.0018693 0.00031858
0.0010847 -0.0013635 0.0012895 -0.00051021
0.0051596 -0.0014875 -0.005654 0.015004 0.35903 0.00401 -0.00105 -0.0014382
0.00022814 -0.00023839 0.00064272 -0.0003809
-0.001641 0.0016481 0.0018834 0.00028582 -0.0010527 -0.0014487 0.19979 0.17409
-0.016821 -0.0031795 -0.00047733 0.0025326
0.0020928 -0.00034617 0.0010178 -0.0014266 0.00021101 -0.00023281 -0.01686 -0.0031293
0.13495 0.21255 -0.011811 -0.0025233
-0.00015599 -0.00097462 0.0013177 -0.00045792 0.00062609 -0.0003845 -0.00043971 0.0025179
-0.011748 -0.0025409 0.14136 0.2867
1520000000 0.28063 0.11199 -0.015108 0.0098167 0.0032366 -0.0037525 1.2802e-05 0.0026873
0.0021139 -0.0017015 -0.0010732 -0.00028673
-0.015094 0.0097953 0.14282 0.32405 0.0017006 0.012551 0.0018967 -0.00085027
8.9943e-05 -0.0012106 0.00040548 -0.00099612
0.0032046 -0.0037949 0.0017791 0.012551 0.35088 -0.054351 -0.0011403 -0.00046274
0.0004967 -0.00084506 0.00018403 -9.2049e-05
4.787e-05 0.0026647 0.0019145 -0.00085518 -0.0011414 -0.00046759 0.22105 0.13579
-0.016227 0.0029385 0.0018264 0.0020889
0.0020863 -0.0017038 9.9289e-05 -0.0012128 0.00049881 -0.0008504 -0.016216 0.0029712
0.16187 0.1973 -0.011394 0.0015856
-0.0010718 -0.00029394 0.00040079 -0.00098034 0.00020419 -7.5728e-05 0.0018253 0.0021151
-0.011404 0.0015945 0.17466 0.26774
1580000000 0.29101 0.067223 -0.0086461 0.01342 -0.00094287 -0.0044518 0.0015185 0.0020774
-7.5594e-06 -0.0020853 -0.00038408 0.00040313
-0.0086441 0.013417 0.17073 0.30074 0.0050842 0.0076917 0.0005993 -0.0017847
-0.00066562 -0.0011847 -0.00017638 -0.0007651
-0.00093674 -0.0044676 0.0051399 0.0076896 0.32891 -0.11092 -0.0018064 0.00054784
-0.00041289 -0.0011551 0.00025395 -0.00053352
0.0015639 0.0020592 0.00057772 -0.0018055 -0.0018047 0.00053122 0.23387 0.098259
-0.012834 0.0082687 0.0025424 0.00066649
-2.4114e-05 -0.0021193 -0.00070072 -0.0012055 -0.00042309 -0.0011804 -0.012803 0.0083312
0.18548 0.17944 -0.0090581 0.0072758
-0.00038838 0.00039439 -0.00016476 -0.00076333 0.00023411 -0.00053771 0.0025365 0.00064907
-0.0090039 0.0073052 0.20878 0.24342
1640000000 0.29441 0.025171 -0.0018182 0.012478 -0.0025874 -0.0022271 0.0029792 0.0010841
-0.00051382 -0.0017484 -0.00034898 0.00054498
-0.0018268 0.012483 0.20204 0.2755 0.0055656 0.0029126 -0.00073111 -0.0019444
-0.001189 -0.00033187 -0.00041686 -0.00074613
-0.0025959 -0.0022103 0.0055977 0.0028829 0.29966 -0.16124 -0.00075185 0.00165
-0.0010346 -0.00092644 -0.00014922 -0.00046231
0.003003 0.0010669 -0.00072557 -0.0019615 -0.00074799 0.0016402 0.24602 0.050156
-0.0085088 0.010376 0.0026354 -0.0010426
-0.00049958 -0.0017321 -0.0011592 -0.00036678 -0.0010026 -0.00093803 -0.0084701 0.010402
0.20802 0.15337 -0.0045081 0.0091312
-0.00036236 0.0005268 -0.00044938 -0.00074803 -0.00016651 -0.00045071 0.0026448 -0.0010381
-0.0045111 0.0091229 0.23583 0.21211
1700000000 0.28659 -0.019746 0.0018273 0.0098719 -0.0030435 0.00020865 0.0031879 -0.0014291
-0.0021355 -0.00086466 0.00059345 0.00049409
0.0018238 0.0098649 0.21977 0.24454 0.003296 0.00020087 -0.0016628 -0.00061461
-0.00089354 0.00021436 -0.0008056 -0.00048034
-0.0031003 0.00021908 0.0032943 0.00020461 0.25336 -0.19956 0.00046725 0.0018158
-0.0019864 1.3763e-06 -0.00024789 -0.00075513
0.003197 -0.0014331 -0.0016707 -0.00060615 0.00047024 0.0018072 0.24223 0.0023187
-0.0047594 0.011315 0.001464 -0.0021446
-0.0021369 -0.00086948 -0.00088332 0.0002085 -0.0019677 5.0781e-07 -0.0047619 0.011306
0.22507 0.13248 1.66e-05 0.0091908
0.00058618 0.00048892 -0.00081145 -0.00050854 -0.00023567 -0.00076936 0.0014577 -0.0021406
2.6371e-05 0.0092051 0.25272 0.17914
1760000000 0.27612 -0.068385 0.0044868 0.006606 -0.0019302 0.00094881 0.0012196 -0.0036971
-0.0016369 0.00049011 0.0002829 -0.00052069
0.0044801 0.0066052 0.24774 0.20515 0.00092101 -0.0013187 -0.0013071 0.00025477
-0.00093067 0.0010863 -0.0006376 0.00031104
-0.001936 0.00090226 0.00091032 -0.0013207 0.20452 -0.23055 0.0014338 0.0011678
-0.0011191 0.0015215 -0.0012073 -0.00061354
0.0012109 -0.0036651 -0.0013015 0.00025617 0.001426 0.0011661 0.23565 -0.047111
-0.00070569 0.010667 -6.6843e-05 -0.0025415
-0.0016362 0.00051249 -0.00091806 0.0010826 -0.0011061 0.0015146 -0.00068192 0.010717
0.23992 0.098612 0.0037749 0.0067031
0.00024262 -0.00053556 -0.00063259 0.0002932 -0.0012074 -0.00060674 -8.7179e-05 -0.0025714
0.0037492 0.0066943 0.26705 0.14227
1820000000 0.25119 -0.1067 0.0048533 0.0028595 -1.6508e-05 0.0019989 -0.0011087 -0.0031507
-0.0013179 0.0012772 -2.4375e-06 -0.00012673
0.0048548 0.0028623 0.25785 0.17421 -0.0011845 -1.7621e-05 -0.0012546 0.0010405
0.00018704 0.0012545 -0.00067782 0.00040333
-3.9209e-06 0.0020196 -0.0011998 -1.3889e-05 0.1534 -0.24482 0.0017793 7.6343e-05
4.1304e-05 0.0023861 -0.0015172 0.00017933
-0.0011502 -0.0031308 -0.0012513 0.0010606 0.0017831 5.888e-05 0.20668 -0.094548
0.0018335 0.0089375 -0.0017406 -0.0016459
-0.0013042 0.0012662 0.00021163 0.0012645 3.0719e-05 0.002374 0.0018202 0.0088885
0.25596 0.068424 0.0044992 0.0034494
1.8647e-05 -3.6552e-05 -0.00068466 0.00042846 -0.0015044 0.00017857 -0.0017052 -0.0016047
0.0045097 0.0034735 0.27044 0.10627
1880000000 0.21572 -0.14608 0.0026652 0.00030028 -0.00059432 0.0020148 -0.0030907 -0.0022177
-0.00015601 0.0020321 0.00030902 -0.00069246
0.0026622 0.00030041 0.26273 0.12855 -0.0031375 0.0023402 -0.00015118 0.001729
0.00073513 0.001085 0.00011126 0.00093324
-0.00058455 0.0020441 -0.0031149 0.0023703 0.10199 -0.25071 0.0015007 -0.0013142
0.0016571 0.0017744 -0.0011176 0.0014027
-0.003042 -0.0021371 -0.00014528 0.001717 0.0015278 -0.0012998 0.16842 -0.13435
0.0032593 0.0062193 -0.0020743 0.00017428
-0.00011169 0.002049 0.00074183 0.0010581 0.0016863 0.0017488 0.0033336 0.0062113
0.2595 0.037622 0.0047415 0.0013646
0.00029073 -0.00070279 7.6747e-05 0.00091513 -0.0011493 0.0014107 -0.0021259 0.00022592
0.0047333 0.001446 0.27165 0.073539
1940000000 0.17691 -0.17276 0.00026328 -0.00155 0.0013271 0.0020392 -0.0036321 0.00046021
0.0017012 0.0011323 -0.00074471 -0.00070751
0.00026237 -0.0015465 0.26482 0.095887 -0.0013771 0.0049251 0.0010847 0.0012043
0.0017311 0.00024173 0.00085939 0.00026397
0.0013413 0.0019657 -0.0013589 0.0049265 0.059636 -0.24271 0.00019483 -0.0019658
0.0022623 0.00033248 0.00017063 0.001708
-0.0037456 0.00055437 0.0010732 0.0012368 0.00020003 -0.0019723 0.11801 -0.16776
0.0028847 0.0039846 -0.0012774 0.0011685
0.0016706 0.0011397 0.0017531 0.00020213 0.002276 0.00032693 0.0028764 0.0039792
0.26303 -0.00172 0.0034822 -0.001883
-0.00066379 -0.00075654 0.00086914 0.00021791 0.00021612 0.0016997 -0.0012897 0.0011657
0.0034553 -0.0018596 0.2627 0.036928
2000000000 0.12978 -0.1863 -0.0036165 0.00060719 0.0026299 0.0016709 -0.0023997 0.0036741
0.0013331 9.7424e-05 -0.0008949 0.00050954
-0.0036061 0.00060914 0.25015 0.060212 -0.00061531 0.0068026 0.0014486 0.00032695
0.0010306 -0.0013054 0.00040246 0.00014073
0.0026573 0.001651 -0.00056332 0.0068179 0.017663 -0.22805 -0.0013179 -0.0010086
0.0018906 -0.0013878 0.001661 0.0016656
-0.0023741 0.0036568 0.0014521 0.00031465 -0.0013069 -0.00099769 0.063614 -0.1794
0.0011143 0.002742 -8.5329e-05 0.0019277
0.0012814 6.9734e-05 0.00097663 -0.0013123 0.0019032 -0.001411 0.00111 0.0027338
0.2573 -0.035389 0.00048083 -0.0027243
