!Keysight Technologies,M9804A,MY58100912,A.14.10.03
!Date: Thursday, April 27, 2023 10:28:33
!Correction: S11(C  6-Port  ) 
!S12(C  6-Port  ) 
!S13(C  6-Port  ) 
!S14(C  6-Port  ) 
!S15(C  6-Port  ) 
!S16(C  6-Port  ) 
!S21(C  6-Port  ) 
!S22(C  6-Port  ) 
!S23(C  6-Port  ) 
!S24(C  6-Port  ) 
!S25(C  6-Port  ) 
!S26(C  6-Port  ) 
!S31(C  6-Port  ) 
!S32(C  6-Port  ) 
!S33(C  6-Port  ) 
!S34(C  6-Port  ) 
!S35(C  6-Port  ) 
!S36(C  6-Port  ) 
!S41(C  6-Port  ) 
!S42(C  6-Port  ) 
!S43(C  6-Port  ) 
!S44(C  6-Port  ) 
!S45(C  6-Port  ) 
!S46(C  6-Port  ) 
!S51(C  6-Port  ) 
!S52(C  6-Port  ) 
!S53(C  6-Port  ) 
!S54(C  6-Port  ) 
!S55(C  6-Port  ) 
!S56(C  6-Port  ) 
!S61(C  6-Port  ) 
!S62(C  6-Port  ) 
!S63(C  6-Port  ) 
!S64(C  6-Port  ) 
!S65(C  6-Port  ) 
!S66(C  6-Port  ) 
!S6P File: Measurement: :
# Hz S  RI   R 50
500000000 -0.32666 -0.055702 -0.010513 -0.0012245 -0.0081815 0.012502 -0.0036717 0.011579
0.012465 0.0051168 -0.0050869 0.0077268
-0.010676 -0.0011422 -0.40978 -0.070819 0.0073718 -0.011034 0.00097145 0.012077
0.0081841 0.0021329 0.00072697 0.013365
-0.0082983 0.012505 0.0073062 -0.011088 -0.25495 0.19446 0.0065388 0.0031492
-0.0013181 0.0078953 0.0006683 0.011511
-0.0034582 0.011654 0.00096395 0.012246 0.0065001 0.0032647 -0.32887 0.045539
-0.019336 -0.0071588 0.016152 0.028728
0.012346 0.0051974 0.0083786 0.0021992 -0.0011209 0.0077934 -0.019285 -0.0068083
-0.25629 -0.15914 -0.027353 0.0039267
-0.0046073 0.008045 0.00096599 0.013574 0.00082311 0.0115 0.015995 0.028938
-0.027251 0.0036956 -0.25518 -0.14665
560000000 -0.31163 0.10856 -0.02252 -0.065483 0.00069807 0.012584 0.0044863 0.011194
0.010682 0.0033344 0.012288 0.009034
-0.02256 -0.065405 -0.37054 0.092012 -0.041401 -0.038038 0.013261 0.0025785
-0.012068 -0.0039524 0.004294 -0.0011107
0.00067518 0.012633 -0.041493 -0.037982 -0.17844 0.2428 0.00018706 -0.0043929
0.017306 0.0037601 0.0082178 -0.0058422
0.0044981 0.011407 0.01325 0.0025835 0.00021406 -0.0045052 -0.3048 0.13509
0.0025796 -0.022102 0.0058036 -0.021708
0.010686 0.0033803 -0.012117 -0.004156 0.017322 0.0037656 0.0029221 -0.022233
-0.30503 0.015783 0.0074228 -0.047147
0.011832 0.0092959 0.0040953 -0.00094454 0.0081567 -0.005708 0.0056457 -0.021888
0.0072874 -0.047181 -0.325 0.0017807
620000000 -0.272 0.086401 -0.023849 0.0094813 0.0034802 0.0089331 0.007578 -0.004414
0.012591 -0.0016884 -0.00027328 -0.0011834
-0.023838 0.009455 -0.39951 0.039607 -0.019509 0.0010692 -0.0016786 -0.0018595
0.011848 -0.006022 0.00050795 -0.0024875
0.0034862 0.0089344 -0.019545 0.0011343 -0.15259 0.25124 -0.00095485 -0.0049212
-0.0037024 -0.0033955 0.0085045 -0.0025236
0.0076427 -0.0045765 -0.0016927 -0.001844 -0.00095899 -0.0048044 -0.26373 0.14517
-0.039855 -0.019241 0.012471 0.03035
0.012236 -0.001487 0.011738 -0.00594 -0.0036955 -0.0032019 -0.039559 -0.019143
-0.23111 -0.016873 -0.041551 0.011599
-0.00036101 -0.0014506 0.00041497 -0.0027473 0.0084095 -0.0027102 0.012632 0.030101
-0.041769 0.011433 -0.24154 -0.032625
680000000 -0.23704 0.17823 -0.026145 -0.014047 0.0046999 0.0051921 0.0017031 -0.0070751
-0.0024433 -0.011288 0.0060292 -0.0063829
-0.026086 -0.014003 -0.38914 0.14255 -0.03235 -0.0010285 -0.0015187 -0.00062195
-0.0020429 -0.0091009 -0.00085525 -0.0016623
0.0047285 0.0051611 -0.032396 -0.000958 -0.10602 0.27472 -0.00073657 -0.00035024
-0.0018182 0.00042684 -0.0030439 -0.0089627
0.0017526 -0.0069524 -0.0016428 -0.00062575 -0.00077622 -0.00034237 -0.21951 0.1997
-0.024855 -0.0066337 -0.0080979 -0.012169
-0.0024959 -0.011241 -0.0020335 -0.0090656 -0.0018067 0.0003417 -0.02504 -0.0067718
-0.26941 0.081936 -0.0060999 -0.0053107
0.0065381 -0.006134 -0.00074949 -0.0014992 -0.0027709 -0.0089063 -0.0084119 -0.012145
-0.006079 -0.0052382 -0.26078 0.069707
740000000 -0.19103 0.17093 -0.04036 0.026868 0.013432 -0.003914 0.0006608 -0.0041794
-0.0041044 -0.0019601 -0.0059202 0.0025023
-0.04041 0.02673 -0.33463 0.16167 -0.036497 0.03448 -8.9312e-05 -0.0060178
-0.012039 0.0066615 -0.0015306 -0.0053295
0.013425 -0.0039706 -0.03647 0.034456 -0.072298 0.27483 -0.0022473 0.0029586
-0.0020087 -0.0044079 -0.0019594 0.00051564
0.00067923 -0.0041865 -0.0001838 -0.0060913 -0.0022664 0.0030493 -0.20213 0.20558
-0.041343 -0.0052117 0.022116 0.017552
-0.0041614 -0.0017703 -0.012336 0.0069425 -0.0017856 -0.0046285 -0.041208 -0.0051591
-0.17817 0.10301 -0.040219 0.0009324
-0.0059136 0.0026638 -0.0017337 -0.0057429 -0.0019353 0.00054771 0.022207 0.017301
-0.040431 0.00087175 -0.25105 0.075973
800000000 -0.16367 0.21569 -0.022206 0.016381 0.0052905 -0.010017 -0.003936 -0.0026358
-0.0043464 0.0017158 0.0045278 0.00098391
-0.022197 0.016338 -0.34258 0.23259 -0.0080385 0.034252 -0.0023603 0.0019729
-0.00071587 0.0022865 0.00063506 0.0056236
0.0053024 -0.010077 -0.0079483 0.034311 -0.034387 0.30086 0.00071572 0.0014081
0.00028125 0.0034152 -0.0017525 0.00066188
-0.0038555 -0.0026831 -0.0023313 0.0019694 0.00067976 0.0013798 -0.17259 0.23419
-0.027219 0.015399 0.014971 -0.010702
-0.0046403 0.0015968 -0.00080203 0.0022836 0.00027789 0.0033639 -0.027144 0.015387
-0.21125 0.13128 -0.016816 0.021057
0.0047286 0.00082317 0.00070872 0.0054195 -0.0018152 0.00053585 0.015054 -0.010481
-0.016873 0.020855 -0.24944 0.12755
860000000 -0.12783 0.23744 -0.017578 0.030705 -0.0032245 -0.0095604 -0.0017199 0.00055486
0.0038935 0.0049332 -0.0038902 -0.0031203
-0.017563 0.030617 -0.2939 0.2772 0.0080649 0.033916 0.00033403 0.0021028
0.0037255 0.00098928 0.0033665 0.00017888
-0.0032575 -0.009567 0.0081687 0.033933 0.015032 0.31084 -0.00040454 -0.0002213
0.0026403 -0.0012352 0.0013453 0.0042381
-0.0017291 0.00054206 0.00037584 0.0020643 -0.00044824 -0.00019952 -0.13403 0.2451
-0.015745 0.020041 -0.0072447 -0.0097288
0.0040193 0.0049182 0.0037646 0.00098203 0.0026552 -0.0012269 -0.015711 0.020076
-0.15468 0.17758 -0.022695 0.016828
-0.0037372 -0.0029678 0.0033993 0.00012143 0.0013028 0.0042254 -0.0075038 -0.0099518
-0.022562 0.01684 -0.19778 0.17692
920000000 -0.1052 0.2601 0.0051175 0.039035 -0.0089127 -0.0041136 -0.001891 0.0016625
0.00087581 0.001595 0.0030997 -0.0008309
0.005079 0.038995 -0.26707 0.29772 0.028148 0.022423 0.0014731 0.0012854
0.0068481 -0.00051682 0.0040597 -0.0025468
-0.008932 -0.00412 0.028245 0.022381 0.060982 0.31208 0.0019226 0.00010337
0.00088786 -0.00030195 0.00091241 -0.0012897
-0.0019295 0.001622 0.0014626 0.0012565 0.0018986 0.00012223 -0.11002 0.26119
-0.0081943 0.030735 0.0041847 -0.0060593
0.0007665 0.0017029 0.0068569 -0.0005099 0.00086246 -0.00026028 -0.008113 0.030637
-0.14099 0.18343 -0.0011154 0.026968
0.0030881 -0.00090711 0.0040968 -0.002636 0.00090611 -0.0013385 0.0043175 -0.0060188
-0.0011666 0.027019 -0.20949 0.1883
980000000 -0.058581 0.28236 0.017349 0.029749 -0.0087901 0.0045415 0.0017615 0.0036021
0.003485 -0.0015897 -0.003448 -0.0026947
0.0173 0.029716 -0.21507 0.33514 0.032914 0.0047607 0.0020778 -5.6278e-05
0.001484 -0.0056991 -0.00023628 -0.0025451
-0.0087736 0.0045712 0.032969 0.0046886 0.10761 0.30761 0.00060619 -0.0011308
0.00037994 -0.001779 0.0014997 -0.00029127
0.0017336 0.0035182 0.0020362 -4.9589e-05 0.0006081 -0.0011261 -0.070498 0.27257
0.010312 0.028384 -0.0094836 -0.0075231
0.0034315 -0.0017276 0.0014318 -0.0057496 0.00038246 -0.0017886 0.010398 0.02838
-0.10791 0.20995 0.0071755 0.019117
-0.0034299 -0.0026037 -0.00023866 -0.0024751 0.0015063 -0.00029962 -0.0096391 -0.0075497
0.0071792 0.019147 -0.16818 0.23881
1040000000 -0.016708 0.29009 0.033026 0.018711 -0.00083194 0.0071312 0.0022887 0.00057814
0.0005009 -0.00361 -0.00024909 -0.0014649
0.032993 0.018701 -0.17939 0.34774 0.029304 -0.014614 0.0015889 -0.0018295
-0.0021651 -0.0023842 -0.0011715 -0.0029918
-0.00083713 0.0071185 0.029291 -0.014719 0.15465 0.29359 -0.00051619 -0.0015326
-0.0014909 -0.0010602 -0.00063603 -0.0011689
0.0023299 0.00053981 0.0015702 -0.0018363 -0.0005103 -0.001528 -0.042216 0.28095
0.020722 0.016352 -0.0014829 0.0010514
0.00053169 -0.0035244 -0.0022456 -0.0023691 -0.0014753 -0.0010635 0.020699 0.016278
-0.074788 0.21479 0.014762 0.017266
-0.00025177 -0.0014514 -0.0011294 -0.0029484 -0.00065136 -0.0011545 -0.0013232 0.0011228
0.014679 0.01728 -0.14668 0.25817
1100000000 0.027131 0.30053 0.036185 -0.0037213 0.0033927 0.0037789 0.002198 -0.00090384
-0.0023456 -0.0029382 -0.0040731 7.4356e-05
0.036152 -0.0037047 -0.13719 0.36761 0.015144 -0.027557 -0.00014757 -0.0017632
-0.0034948 -0.00090686 -0.0038437 -0.00061326
0.0033623 0.0037731 0.015049 -0.027633 0.20017 0.27443 -0.0018304 0.00018767
-0.001636 0.00051797 -0.0011512 -0.00040761
0.0021834 -0.00090066 -0.00014499 -0.0017699 -0.0018509 0.00017339 -0.002227 0.28554
0.024832 0.0028262 -0.0021363 -0.00054858
-0.0023724 -0.0029469 -0.0035165 -0.00087088 -0.0016216 0.00051241 0.024874 0.0027954
-0.054337 0.22684 0.019408 0.0075468
-0.0040995 0.00015993 -0.0038621 -0.00064625 -0.0011706 -0.00042102 -0.0022112 -0.00054009
0.019386 0.0075147 -0.10188 0.29181
1160000000 0.079577 0.29721 0.024228 -0.02043 0.0030967 -0.00081971 -0.00012883 -0.0022034
-0.0037936 -0.00064423 -0.0012123 0.0041298
0.024248 -0.02042 -0.09207 0.37186 -0.0036838 -0.028501 -0.0015101 -0.0016605
-0.0026075 0.0023997 -0.0016136 0.0019153
0.0031063 -0.00083645 -0.0037996 -0.028494 0.24459 0.24426 -0.00083517 0.001639
-0.00051272 0.0016371 -0.0009503 0.00035509
-0.00014535 -0.0021926 -0.001484 -0.0016523 -0.00084842 0.0016254 0.038489 0.2818
0.020362 -0.011957 -0.0038263 0.004393
-0.0038522 -0.00058667 -0.0025843 0.0024219 -0.0005186 0.0016471 0.020366 -0.011986
-0.01869 0.2337 0.018007 -0.0015436
-0.0012213 0.0040906 -0.0016444 0.0018877 -0.00091807 0.00034899 -0.0037662 0.0044031
0.017954 -0.0015626 -0.05338 0.29588
1220000000 0.12261 0.28654 0.011139 -0.029876 -0.0014054 -0.0013625 7.5541e-05 -0.00077692
-0.0025047 0.0021897 0.0010914 0.0019686
0.011134 -0.02983 -0.049234 0.38533 -0.016603 -0.020952 -0.0025154 0.00042771
-0.00013927 0.0030063 -0.0008891 0.0019817
-0.0014089 -0.0013658 -0.016705 -0.020898 0.2836 0.20541 0.00072985 0.0016248
0.00049976 0.0011709 0.00022977 0.00066068
7.1466e-05 -0.00078767 -0.0025266 0.0004352 0.00073713 0.0016341 0.077616 0.27168
0.0096095 -0.018341 0.0016876 0.0012351
-0.0025377 0.0022146 -0.00013409 0.0029951 0.00052015 0.0011645 0.0095928 -0.018362
0.006231 0.23932 0.012644 -0.013071
0.0012372 0.0019083 -0.00082929 0.0019573 0.00022783 0.00065545 0.00165 0.0011786
0.012669 -0.013065 -0.024583 0.31378
1280000000 0.17315 0.26746 -0.0074982 -0.028647 -0.0020267 0.0019228 -0.00077163 -0.0020021
-0.00081212 0.003084 0.0024831 0.0012632
-0.0074956 -0.028628 -0.0031292 0.378 -0.023509 -0.0082249 -0.0010527 0.001374
0.0016302 0.0017951 0.00061548 0.0020495
-0.002002 0.0019295 -0.023585 -0.0081265 0.31522 0.1629 0.0015207 0.00014847
0.0010337 0.00025989 0.00024704 0.00038925
-0.00074636 -0.0020011 -0.0010343 0.0013685 0.0015031 0.00014803 0.1143 0.25468
-0.00012214 -0.020133 -0.00093714 0.00031365
-0.00077507 0.0031158 0.001636 0.0018019 0.0010173 0.00026823 -0.00017593 -0.020151
0.042687 0.24184 0.002287 -0.015092
0.0024786 0.0012874 0.00065295 0.0020674 0.00028597 0.00033876 -0.00089276 0.00035317
0.0022386 -0.015089 0.023434 0.31873
1340000000 0.21082 0.23377 -0.01699 -0.019256 0.00032369 0.0042805 -0.0016821 -0.0007358
0.0014517 0.0025255 0.0018208 -0.0013201
-0.016947 -0.019247 0.036332 0.37048 -0.020929 0.0042694 -0.00032788 0.0020845
0.0018638 0.00091357 0.0011736 0.00080217
0.00034599 0.0042808 -0.020934 0.0043702 0.33892 0.11396 0.0011331 -0.00086571
0.00060839 -0.00058654 0.0001548 0.00019224
-0.0017007 -0.00075311 -0.00032484 0.0020898 0.0011367 -0.00086104 0.14656 0.23239
-0.0094281 -0.01695 0.00055411 0.00095573
0.001427 0.00256 0.0018701 0.0009291 0.00062388 -0.00059831 -0.0094919 -0.016922
0.07289 0.23412 -0.0042648 -0.01341
0.0018542 -0.0014135 0.0011715 0.000747 0.00016718 0.00022237 0.00052189 0.00098224
-0.004248 -0.013431 0.062041 0.31449
1400000000 0.24396 0.19703 -0.023335 -0.008092 0.0046811 0.0031614 -0.0021556 0.00049446
0.0022673 0.00096351 0.00040265 -0.0013634
-0.023296 -0.0080761 0.073293 0.3592 -0.014423 0.012183 0.0013642 0.001605
0.0014169 -0.00060405 0.0011872 0.00022738
0.004715 0.0031462 -0.014388 0.012269 0.3521 0.059757 0.00022335 -0.0015291
0.00014382 -0.00032779 0.00032746 0.00018193
-0.0021455 0.00050405 0.0013804 0.0015972 0.00021932 -0.0015299 0.17408 0.20299
-0.015412 -0.010065 -0.00094683 0.00027133
0.0023079 0.00095219 0.0014057 -0.00061699 0.00011355 -0.00030678 -0.015423 -0.010049
0.10483 0.22817 -0.010036 -0.0082908
0.00041811 -0.0013461 0.0011996 0.0001952 0.00039756 0.00016376 -0.00096326 0.0002473
-0.01002 -0.0082633 0.10683 0.30626
1460000000 0.26837 0.15399 -0.020411 0.0043149 0.005113 -0.0014771 -0.0016776 0.0017497
0.0020909 -0.00038168 -4.3668e-05 -0.00091615
-0.020407 0.0042986 0.10885 0.33832 -0.0057048 0.014981 0.00188 0.00029602
0.0010628 -0.0013978 0.0013234 -0.00053944
0.0051019 -0.0014894 -0.0056482 0.014995 0.35902 0.0040152 -0.0010704 -0.0014612
0.00012311 -0.00021557 0.00066311 -0.00034761
-0.0016795 0.0017423 0.0019026 0.00027378 -0.0010585 -0.0014727 0.19979 0.17407
-0.016851 -0.0031908 -0.00053872 0.0025156
0.0021042 -0.00036774 0.0010479 -0.0014091 0.00016544 -0.00023126 -0.016872 -0.0031341
0.13485 0.21257 -0.011696 -0.0023816
-8.4841e-05 -0.00086511 0.0013002 -0.00050943 0.00065987 -0.00033488 -0.0005267 0.002474
-0.011694 -0.002418 0.14121 0.28655
1520000000 0.28065 0.11201 -0.0151 0.0098081 0.0032189 -0.0037672 -9.6084e-06 0.0026657
0.0020801 -0.0016481 -0.0010803 -0.00026599
-0.015094 0.0097807 0.14282 0.32405 0.0017063 0.012539 0.0019176 -0.00085042
9.3209e-05 -0.0012389 0.0004136 -0.0010087
0.0032047 -0.0037785 0.0017719 0.012541 0.35088 -0.05435 -0.0011758 -0.0004686
0.00051873 -0.00088354 0.00016473 -6.6505e-05
1.7868e-05 0.0026559 0.0019212 -0.00084798 -0.0011555 -0.00047141 0.22106 0.13569
-0.016231 0.0028836 0.0018044 0.002161
0.0020768 -0.0016715 7.6524e-05 -0.001229 0.00050902 -0.00086717 -0.016223 0.0029197
0.16187 0.19729 -0.011475 0.0015542
-0.0011001 -0.00024861 0.00041198 -0.00098296 0.00017651 -5.9177e-05 0.0017659 0.0021114
-0.011455 0.0015503 0.17463 0.26783
1580000000 0.29103 0.067185 -0.0086944 0.013414 -0.00097223 -0.004469 0.0015858 0.0020546
-5.3583e-05 -0.002112 -0.00031466 0.00041747
-0.0086912 0.013406 0.1707 0.30074 0.0051023 0.0076881 0.00055966 -0.0018069
-0.00070136 -0.0012002 -9.6799e-05 -0.00077582
-0.00097785 -0.0044561 0.0051342 0.0076656 0.32891 -0.11092 -0.0018043 0.00049424
-0.00043612 -0.0011684 0.00029163 -0.00056333
0.0015941 0.0020725 0.00053763 -0.0018205 -0.001791 0.00049246 0.2338 0.098302
-0.012833 0.0082909 0.002474 0.00060091
-7.9201e-05 -0.002119 -0.00070594 -0.0011924 -0.00043792 -0.0011804 -0.012795 0.0083223
0.18549 0.17948 -0.0090166 0.0072636
-0.00029062 0.00043491 -0.00012412 -0.00074621 0.00025269 -0.00054235 0.0025016 0.00062177
-0.0090418 0.0073018 0.20873 0.24357
1640000000 0.29441 0.025125 -0.0018225 0.012457 -0.0025768 -0.0022117 0.0029609 0.0010878
-0.00052176 -0.0017442 -0.00035943 0.00055329
-0.0018373 0.012459 0.20203 0.27549 0.0055768 0.0029004 -0.00071996 -0.0019377
-0.0011748 -0.0003571 -0.00041958 -0.00073057
-0.0025965 -0.0022107 0.0055933 0.0028813 0.29966 -0.16126 -0.00076729 0.0016469
-0.0010198 -0.00093772 -0.00018741 -0.00046489
0.0029582 0.0010685 -0.00072815 -0.001942 -0.00079594 0.0016272 0.2461 0.050136
-0.0084758 0.010311 0.00266 -0.00097042
-0.00051576 -0.001748 -0.0011772 -0.00034274 -0.0010232 -0.00091627 -0.0084402 0.010396
0.20796 0.15334 -0.0045031 0.009095
-0.00039652 0.00056945 -0.0004457 -0.00074109 -0.00019378 -0.00045003 0.0025738 -0.0010106
-0.0045118 0.0090759 0.23588 0.21209
1700000000 0.28662 -0.019778 0.0018631 0.0098876 -0.0030485 0.00021378 0.0032039 -0.0014201
-0.0021296 -0.00086354 0.0005246 0.00046272
0.0018483 0.0098749 0.21979 0.24453 0.0032917 0.00019248 -0.0016751 -0.00061651
-0.0008653 0.00020832 -0.00085428 -0.00052335
-0.0030369 0.00022758 0.0032936 0.00016348 0.25338 -0.19952 0.00047375 0.0017625
-0.0019887 -5.8133e-05 -0.00027737 -0.00078154
0.0032101 -0.0014325 -0.0016769 -0.00060535 0.00046517 0.0017758 0.24221 0.0022927
-0.0047771 0.011317 0.0014796 -0.002195
-0.0021463 -0.00083545 -0.00086869 0.00020236 -0.0020002 -2.6881e-05 -0.0047468 0.011299
0.22509 0.13246 -3.9859e-05 0.0092165
0.00055409 0.00044435 -0.00085326 -0.00048309 -0.00031683 -0.00077214 0.001496 -0.0021384
-4.0475e-05 0.009226 0.25271 0.17927
1760000000 0.27616 -0.068313 0.0044805 0.0066146 -0.0019458 0.00090928 0.0012361 -0.0037189
-0.001637 0.00047689 0.00031204 -0.00051929
0.0044726 0.0066165 0.24774 0.20516 0.00091199 -0.001329 -0.0012845 0.0002379
-0.00092244 0.0010786 -0.00061228 0.00032854
-0.0019561 0.0009229 0.00090086 -0.0013408 0.20446 -0.23058 0.0014867 0.0011891
-0.001038 0.0015331 -0.0011945 -0.00061263
0.0012045 -0.0037184 -0.0012912 0.00025281 0.0014835 0.0011949 0.23565 -0.046911
-0.00065765 0.010718 -0.00015155 -0.0025536
-0.0016141 0.00047522 -0.0009114 0.0010859 -0.0010598 0.0015289 -0.00065666 0.010795
0.23998 0.098574 0.0037567 0.0066612
0.00029416 -0.00048752 -0.00063421 0.00032175 -0.001233 -0.0006439 -9.7306e-05 -0.0025905
0.0037671 0.0066371 0.267 0.14226
1820000000 0.2511 -0.10669 0.0048518 0.0028336 1.1604e-05 0.0019897 -0.0010468 -0.0031327
-0.0012797 0.0012463 2.1783e-05 -6.2801e-05
0.0048438 0.0028343 0.25788 0.17421 -0.0011776 -3.3401e-05 -0.0012447 0.0010995
0.00019676 0.0012758 -0.00064866 0.0004236
3.0541e-05 0.0019868 -0.0011941 -2.2925e-05 0.15341 -0.24483 0.0017567 3.3544e-05
3.532e-05 0.00237 -0.0014667 0.000212
-0.0010607 -0.0031329 -0.001245 0.0010938 0.001804 3.11e-05 0.20666 -0.094615
0.0017393 0.0089289 -0.0016331 -0.0016331
-0.0012659 0.0012819 0.00021937 0.0012786 5.8293e-05 0.0023497 0.0018094 0.0088353
0.25597 0.068452 0.0045613 0.0034466
7.9044e-06 -0.00010936 -0.00064525 0.00042912 -0.0014823 0.00022916 -0.0016539 -0.0015843
0.0045675 0.0034424 0.27042 0.10644
1880000000 0.21564 -0.14612 0.0026469 0.00030259 -0.0006196 0.0020314 -0.003047 -0.0021221
-7.4412e-05 0.0020315 0.0002687 -0.00065852
0.0026403 0.00030262 0.26274 0.12854 -0.0031041 0.0023452 -0.00015293 0.0017555
0.00077442 0.0010799 9.6606e-05 0.0009558
-0.00059872 0.0020533 -0.0030968 0.0023706 0.1021 -0.25069 0.0015298 -0.0012603
0.0016839 0.0017572 -0.0011163 0.0013836
-0.0030425 -0.002145 -0.00015034 0.0017427 0.001476 -0.0012494 0.16842 -0.13422
0.003331 0.0061346 -0.0021213 0.00032207
-7.8395e-05 0.0020248 0.00077384 0.0010735 0.0016324 0.0017939 0.0033261 0.0062162
0.25951 0.037549 0.0047997 0.001497
0.00032063 -0.00068118 8.0506e-05 0.00095689 -0.0010659 0.0013667 -0.0020231 0.00024148
0.0047919 0.0015044 0.27169 0.073352
1940000000 0.17693 -0.17272 0.00027371 -0.0015414 0.0012772 0.0020191 -0.0037396 0.00052526
0.0016375 0.001199 -0.00069034 -0.0006817
0.00027795 -0.0015469 0.26485 0.095886 -0.0013973 0.0049121 0.0010463 0.001229
0.001752 0.00023567 0.00085329 0.00026401
0.0013138 0.0020105 -0.0013633 0.0049138 0.059592 -0.24271 0.00017174 -0.0019856
0.0022356 0.00023684 0.00021164 0.0016388
-0.0037482 0.00052051 0.0010582 0.0012293 0.00016093 -0.0020092 0.11792 -0.16763
0.0027588 0.0040658 -0.0013286 0.001205
0.0016596 0.0012006 0.001733 0.00022662 0.0022764 0.00024186 0.0028542 0.0040142
0.26299 -0.0016714 0.0034222 -0.0018949
-0.00071148 -0.00070491 0.00087722 0.000241 0.00022912 0.0016473 -0.0013553 0.0013037
0.0034742 -0.0018702 0.26294 0.036957
2000000000 0.12987 -0.1862 -0.0035817 0.00065216 0.0026858 0.0016202 -0.0023433 0.0036242
0.0013481 0.00011033 -0.00083092 0.00057842
-0.0035838 0.00064721 0.25018 0.060185 -0.0006328 0.006764 0.0014234 0.00032133
0.0010018 -0.0012833 0.00040227 0.00011948
0.0027073 0.0016043 -0.00058457 0.0067725 0.017581 -0.22803 -0.0013452 -0.00094703
0.0019489 -0.0013969 0.0016379 0.0016039
-0.0022298 0.0036165 0.0014388 0.00029738 -0.0013488 -0.00096992 0.063587 -0.17937
0.0011785 0.0027093 -0.00010286 0.0019203
0.0013357 0.00012323 0.00099061 -0.001306 0.0018965 -0.0014022 0.0010642 0.00275
0.25727 -0.035382 0.00047864 -0.0026795
