!Keysight Technologies,M9804A,MY58100912,A.14.10.03
!Date: Thursday, April 27, 2023 10:28:33
!Correction: S11(C  6-Port  ) 
!S12(C  6-Port  ) 
!S13(C  6-Port  ) 
!S14(C  6-Port  ) 
!S15(C  6-Port  ) 
!S16(C  6-Port  ) 
!S21(C  6-Port  ) 
!S22(C  6-Port  ) 
!S23(C  6-Port  ) 
!S24(C  6-Port  ) 
!S25(C  6-Port  ) 
!S26(C  6-Port  ) 
!S31(C  6-Port  ) 
!S32(C  6-Port  ) 
!S33(C  6-Port  ) 
!S34(C  6-Port  ) 
!S35(C  6-Port  ) 
!S36(C  6-Port  ) 
!S41(C  6-Port  ) 
!S42(C  6-Port  ) 
!S43(C  6-Port  ) 
!S44(C  6-Port  ) 
!S45(C  6-Port  ) 
!S46(C  6-Port  ) 
!S51(C  6-Port  ) 
!S52(C  6-Port  ) 
!S53(C  6-Port  ) 
!S54(C  6-Port  ) 
!S55(C  6-Port  ) 
!S56(C  6-Port  ) 
!S61(C  6-Port  ) 
!S62(C  6-Port  ) 
!S63(C  6-Port  ) 
!S64(C  6-Port  ) 
!S65(C  6-Port  ) 
!S66(C  6-Port  ) 
!S6P File: Measurement: :
# Hz S  RI   R 50
500000000 -0.32597 -0.05957 -0.010304 -0.0013382 -0.0083748 0.012396 -0.0041169 0.012605
0.013137 0.0063828 -0.0048576 0.0085403
-0.010493 -0.0012748 -0.4087 -0.071845 0.0076652 -0.010889 0.0010895 0.012095
0.0088446 0.003189 0.00082605 0.014297
-0.0086054 0.012212 0.0077271 -0.010715 -0.25515 0.19473 0.0067086 0.0030727
-0.0026827 0.0077977 0.0013602 0.012553
-0.0038254 0.012736 0.00079763 0.01197 0.0065744 0.0032367 -0.3268 0.044791
-0.020703 -0.0054872 0.014594 0.026532
0.01353 0.0069114 0.0090873 0.003279 -0.0020096 0.0081861 -0.020671 -0.0047828
-0.20932 -0.24772 -0.028974 0.0040927
-0.0042947 0.0095954 0.0012055 0.014245 0.0011968 0.012266 0.015404 0.028015
-0.029366 0.0039288 -0.2601 -0.14525
560000000 -0.31404 0.10722 -0.022407 -0.06581 0.00097575 0.013202 0.0051169 0.01119
0.010892 0.0053162 0.010867 0.010548
-0.022404 -0.065407 -0.36873 0.091738 -0.04159 -0.037976 0.013858 0.0034739
-0.013327 -0.0057352 0.0045232 -0.0003825
0.0008852 0.013457 -0.04149 -0.037619 -0.1791 0.24439 -0.00055212 -0.0048396
0.017728 0.0072232 0.0079142 -0.0055278
0.0051476 0.010958 0.013541 0.0037088 -0.0004414 -0.0047959 -0.30341 0.13344
0.0065478 -0.021535 0.0057763 -0.02241
0.010965 0.0055763 -0.013062 -0.0059763 0.018644 0.0070912 0.0060408 -0.021294
-0.29844 -0.06364 0.010415 -0.052483
0.010547 0.010164 0.0046185 -0.00017824 0.007557 -0.0056768 0.0052919 -0.021863
0.011122 -0.051821 -0.32778 0.0031023
620000000 -0.27422 0.083469 -0.023577 0.0093961 0.0033221 0.0090562 0.0083539 -0.0045705
0.012925 1.281e-05 0.00082314 -0.0020804
-0.023885 0.0095092 -0.3989 0.037899 -0.019225 0.00088308 -0.0017765 -0.0020076
0.013116 -0.0046089 0.00020076 -0.0028801
0.0035651 0.0091236 -0.019279 0.0010057 -0.15262 0.25271 -0.0015013 -0.0050851
-0.0036679 -0.0018528 0.0083251 -0.00265
0.0085621 -0.0046474 -0.0018773 -0.0018964 -0.0010043 -0.0053397 -0.2614 0.14267
-0.039908 -0.020357 0.013225 0.028752
0.012176 2.3242e-05 0.013167 -0.0048634 -0.003538 -0.0018913 -0.039105 -0.02027
-0.21059 -0.10338 -0.044426 0.0124
0.00087427 -0.0019903 0.00060672 -0.0025221 0.0083443 -0.002654 0.012426 0.028024
-0.045131 0.012609 -0.24235 -0.031449
680000000 -0.23975 0.17618 -0.026064 -0.014462 0.0050798 0.0051028 0.0015757 -0.0073926
-0.0010379 -0.011482 0.0067624 -0.0069257
-0.026267 -0.014373 -0.38902 0.14028 -0.032007 -0.0012909 -0.0015015 -0.00057592
-0.0011136 -0.0097313 -0.00073906 -0.0020991
0.0049712 0.0049833 -0.03199 -0.0012449 -0.10531 0.27572 -0.00082731 -0.0002277
-0.0012391 0.00051206 -0.0030148 -0.0088353
0.0012239 -0.0072864 -0.0014126 -0.0006126 -0.00082107 -0.00016484 -0.2179 0.19573
-0.023653 -0.0070397 -0.0090453 -0.011132
-0.0010344 -0.01134 -0.0012269 -0.0096842 -0.0014586 0.00055867 -0.023815 -0.007113
-0.2845 -0.00090673 -0.0056903 -0.0069364
0.005928 -0.0067612 -0.00032334 -0.0022637 -0.0026087 -0.0092456 -0.0090362 -0.01189
-0.0055853 -0.0064916 -0.26055 0.071167
740000000 -0.19269 0.1695 -0.040324 0.02665 0.013437 -0.00402 0.00011046 -0.0039406
-0.0040366 -0.0018647 -0.006575 0.003229
-0.0404 0.026807 -0.33472 0.15918 -0.036466 0.034007 0.00012501 -0.0059989
-0.012676 0.0062769 -0.0013998 -0.0050346
0.013436 -0.0040398 -0.036093 0.034258 -0.071276 0.27535 -0.0018828 0.0032494
-0.00086991 -0.0052474 -0.0021751 0.00025706
9.7203e-05 -0.0038276 -6.4174e-05 -0.0060337 -0.0020126 0.0031188 -0.20059 0.20249
-0.042182 -0.010177 0.022204 0.017051
-0.0042757 -0.0021894 -0.012545 0.0065801 -0.0010958 -0.00523 -0.041949 -0.01027
-0.18012 0.039137 -0.044184 -0.0018204
-0.0061524 0.0030145 -0.0007682 -0.0052474 -0.0017655 0.00091 0.02246 0.017189
-0.044675 -0.0022295 -0.25155 0.075425
800000000 -0.16488 0.21549 -0.022281 0.016208 0.0052546 -0.010231 -0.0044906 -0.0025917
-0.0042559 0.0012893 0.0041072 0.00044826
-0.022211 0.016326 -0.34339 0.23026 -0.0082264 0.03403 -0.0022351 0.0020812
-0.00022783 0.0020157 0.00040151 0.0054202
0.0054115 -0.01016 -0.0081211 0.034051 -0.033768 0.30133 0.00086708 0.0012761
-0.00034145 0.0031306 -0.0012681 0.00062503
-0.0044605 -0.0025079 -0.0022203 0.0021684 0.0009622 0.0013456 -0.17237 0.22971
-0.028964 0.013177 0.014928 -0.01045
-0.0042143 0.0016001 -0.00039959 0.001975 -0.00029654 0.0030639 -0.029067 0.013299
-0.23754 0.059774 -0.019246 0.021614
0.004151 0.00059867 0.00040184 0.0052954 -0.0018037 0.00067969 0.014641 -0.010709
-0.018519 0.021583 -0.24829 0.12856
860000000 -0.12959 0.23625 -0.017695 0.030478 -0.0032593 -0.0098395 -0.0018612 0.00043654
0.0037579 0.0052436 -0.003491 -0.003099
-0.017915 0.030558 -0.29536 0.27517 0.0078563 0.033861 0.00043024 0.0022593
0.0038585 0.00047562 0.0033249 5.2363e-05
-0.0033802 -0.0098301 0.0079629 0.033799 0.01554 0.31114 -0.0004799 -0.00025653
0.00257 -0.0015604 0.0015754 0.003976
-0.0019828 0.00045932 0.00014793 0.0022675 -0.0004451 -0.00027098 -0.13496 0.24113
-0.018726 0.017377 -0.0062216 -0.0092924
0.0039157 0.0050854 0.0040338 0.00031481 0.002532 -0.0016677 -0.018356 0.017487
-0.18221 0.12454 -0.02613 0.016855
-0.0037924 -0.0033323 0.0036774 0.00010931 0.0016906 0.0041315 -0.0062817 -0.0093306
-0.026427 0.016767 -0.19761 0.17666
920000000 -0.10706 0.25889 0.0049063 0.03903 -0.0091625 -0.0042934 -0.0020804 0.0017138
0.0001724 0.0016272 0.0033355 -0.0014536
0.0048749 0.039109 -0.26925 0.29625 0.027948 0.022267 0.0013661 0.0010013
0.0074105 6.7924e-05 0.0041678 -0.0028702
-0.009119 -0.004271 0.028084 0.022224 0.061421 0.31248 0.0017605 -4.7783e-05
0.00064296 -0.00030626 0.00070074 -0.0013112
-0.0019652 0.0017462 0.0014213 0.00098812 0.0017582 -9.7123e-06 -0.11168 0.25738
-0.012477 0.030834 0.0043155 -0.0065302
0.00038261 0.0012514 0.0074332 0.00020998 0.00065842 -0.00031946 -0.012509 0.030873
-0.17568 0.12659 -0.0031681 0.029261
0.0031217 -0.0012705 0.004041 -0.0028855 0.00082231 -0.0014377 0.0041653 -0.0069553
-0.003075 0.02944 -0.20716 0.18913
980000000 -0.060867 0.28129 0.016889 0.030089 -0.0091406 0.0046496 0.0017735 0.0035575
0.0039702 -0.0012876 -0.0033269 -0.0029233
0.016889 0.030107 -0.21737 0.33432 0.032803 0.0047927 0.0018916 -0.00023067
0.0021252 -0.005892 -0.00044856 -0.002892
-0.0091391 0.0047096 0.032858 0.0046375 0.1081 0.30792 0.00040339 -0.0011933
0.0003083 -0.0017035 0.0013414 -0.00042371
0.0017301 0.0035301 0.001955 -0.00027159 0.00042571 -0.0012164 -0.073105 0.26963
0.0071223 0.030503 -0.0093552 -0.0079157
0.003794 -0.0013012 0.0019422 -0.0060514 0.00033974 -0.001805 0.0071164 0.030555
-0.14626 0.16623 0.0054795 0.0206
-0.0035071 -0.0030596 -0.0005929 -0.0027695 0.0013765 -0.00038373 -0.0094059 -0.0078136
0.0051388 0.020685 -0.16731 0.23919
1040000000 -0.01892 0.28971 0.033133 0.019117 -0.0010691 0.0072651 0.0022331 0.00073704
0.00037273 -0.0032826 -0.00017757 -0.0012598
0.033128 0.019296 -0.18181 0.34775 0.029164 -0.014598 0.0014161 -0.0017872
-0.0025023 -0.0023468 -0.0011271 -0.0029728
-0.00099951 0.0072722 0.029071 -0.014785 0.15522 0.29395 -0.00057063 -0.0014042
-0.0016694 -0.000969 -0.00066749 -0.0011069
0.0023155 0.00073187 0.001414 -0.0018531 -0.00058319 -0.0013745 -0.045563 0.2784
0.018789 0.019638 -0.0021302 0.0010167
0.00021094 -0.0035277 -0.002487 -0.0024667 -0.0016745 -0.0010544 0.018887 0.019567
-0.11335 0.17374 0.013664 0.020372
-0.00021131 -0.0014631 -0.0012174 -0.0029288 -0.00061644 -0.0010536 -0.0022606 0.0010209
0.01364 0.020192 -0.1454 0.25892
1100000000 0.024812 0.30054 0.036452 -0.003468 0.0033623 0.0040042 0.0023855 -0.00088232
-0.0022173 -0.0030823 -0.0042492 -0.0001348
0.036461 -0.0033873 -0.13938 0.36802 0.01487 -0.027501 -0.00012588 -0.0018362
-0.0035055 -0.0010842 -0.0039088 -0.00051211
0.0033421 0.0039777 0.014762 -0.027604 0.20108 0.2745 -0.0017806 0.00035285
-0.0017077 0.00079632 -0.0012194 -0.00036647
0.0023587 -0.00083513 -0.00015152 -0.0018766 -0.001789 0.00031343 -0.0060292 0.2838
0.025176 0.0069151 -0.0026614 -0.00030774
-0.0021911 -0.0029645 -0.0034993 -0.0011204 -0.0016937 0.00072959 0.02514 0.0068048
-0.097509 0.19243 0.019983 0.010236
-0.0044228 -6.2588e-05 -0.003859 -0.00056543 -0.0011982 -0.00041804 -0.0027068 -0.00027565
0.020092 0.010139 -0.10135 0.29245
1160000000 0.077044 0.29731 0.024632 -0.020294 0.003147 -0.00059647 3.7634e-05 -0.0023128
-0.0040872 -0.00095136 -0.0014492 0.0042873
0.024618 -0.02032 -0.093979 0.37327 -0.0040408 -0.028291 -0.0015291 -0.0014623
-0.0027294 0.0025555 -0.0015881 0.0018358
0.003152 -0.00058914 -0.00417 -0.028351 0.24558 0.24403 -0.00061861 0.0016454
-0.00048958 0.0018854 -0.00081462 0.00040111
4.6504e-05 -0.0023164 -0.0015547 -0.0014403 -0.00064087 0.001662 0.034193 0.28098
0.022366 -0.0095196 -0.0036418 0.0048709
-0.0040225 -0.00085667 -0.0027656 0.0027076 -0.00038449 0.0018508 0.022437 -0.0095736
-0.060999 0.20366 0.019668 0.0013465
-0.001302 0.0043535 -0.0016443 0.0019406 -0.00083659 0.00043674 -0.0037498 0.0049155
0.019851 0.0012365 -0.053177 0.29572
1220000000 0.12032 0.28726 0.011466 -0.029965 -0.0012564 -0.0011942 0.00013755 -0.0010416
-0.0027484 0.0022794 0.00113 0.0020252
0.011453 -0.029959 -0.050547 0.38711 -0.01684 -0.02056 -0.0025206 0.00052649
-0.00011054 0.003146 -0.00073781 0.0019502
-0.001256 -0.001192 -0.016944 -0.020484 0.28441 0.20469 0.00088617 0.0015625
0.00053604 0.0011842 0.00024039 0.0005859
0.00012691 -0.0010938 -0.0025199 0.00052502 0.00092968 0.0015046 0.073086 0.27212
0.011735 -0.016833 0.0020064 0.001606
-0.0026609 0.0022681 -4.3027e-05 0.0031208 0.00060159 0.0011309 0.01169 -0.016841
-0.040229 0.21511 0.015642 -0.012728
0.0011188 0.0020058 -0.00071423 0.0019921 0.00028663 0.00054669 0.0019543 0.0015846
0.015521 -0.012792 -0.023798 0.31428
1280000000 0.17102 0.26867 -0.0073285 -0.028905 -0.001761 0.001877 -0.00091846 -0.0021567
-0.0010614 0.0033049 0.002599 0.0014498
-0.0073142 -0.028901 -0.0034274 0.37998 -0.023622 -0.0076923 -0.00081953 0.0014489
0.0016965 0.0019146 0.00075467 0.0020495
-0.001714 0.001871 -0.023717 -0.0075697 0.31541 0.16188 0.0014217 -0.00014514
0.0010571 0.00037509 0.00027715 0.0003657
-0.00093267 -0.0021371 -0.00079916 0.0014796 0.0014652 -0.00011652 0.10975 0.25678
0.0022783 -0.019722 -0.00039497 0.00023266
-0.001062 0.0033934 0.0017353 0.0019482 0.0010603 0.00041138 0.0022589 -0.019727
-0.0033431 0.223 0.0038661 -0.015618
0.0026204 0.0013316 0.00067372 0.0020359 0.00030686 0.0003667 -0.00030222 0.00020812
0.0039253 -0.015588 0.024885 0.31878
1340000000 0.20897 0.23521 -0.017013 -0.019426 0.00061822 0.0041704 -0.0019166 -0.00079266
0.001503 0.002859 0.0018305 -0.0014304
-0.016984 -0.01944 0.036624 0.37218 -0.020599 0.0049331 -0.00019998 0.0020067
0.0018833 0.00092534 0.0012505 0.00081638
0.00064131 0.0042121 -0.020594 0.0049905 0.33855 0.11296 0.00092312 -0.00094903
0.00058834 -0.00052459 0.00011762 0.00014178
-0.0019429 -0.00080391 -0.00019792 0.0020081 0.00091678 -0.00096351 0.14307 0.23595
-0.0076676 -0.017291 0.00092946 0.00061342
0.0014984 0.0028257 0.0019293 0.00092993 0.00069003 -0.00055622 -0.0077814 -0.017301
0.025282 0.22091 -0.002977 -0.014491
0.0018188 -0.0013971 0.0012424 0.00085501 0.0001492 0.00021003 0.00096431 0.00057023
-0.0028759 -0.014481 0.063278 0.31466
1400000000 0.24276 0.19879 -0.023382 -0.0081654 0.0049011 0.002917 -0.0022233 0.00081346
0.0026227 0.00098573 0.00042132 -0.0013108
-0.023327 -0.0081564 0.074192 0.3606 -0.013734 0.012528 0.0013257 0.0013183
0.0012754 -0.00066944 0.0011509 0.00017357
0.0048853 0.0029338 -0.01368 0.012616 0.35128 0.059221 -4.3582e-05 -0.001368
0.0002299 -0.00010397 0.00043027 0.00018429
-0.0022064 0.00083534 0.0013423 0.001315 -5.7828e-05 -0.001398 0.17211 0.20767
-0.014257 -0.010653 -0.0008859 -0.00024259
0.0026048 0.0010861 0.0012767 -0.00069253 0.00022042 -0.00013033 -0.014246 -0.010622
0.058356 0.22096 -0.0098417 -0.0094453
0.00042253 -0.0013993 0.0011225 0.00018344 0.00040968 0.00027669 -0.00086258 -0.00014866
-0.0099567 -0.0093933 0.10782 0.30587
1460000000 0.26752 0.15572 -0.02044 0.0042978 0.0051466 -0.0017426 -0.0015208 0.0017516
0.0022524 -0.0003083 -0.00028707 -0.0009865
-0.020445 0.0043216 0.11008 0.33901 -0.0048013 0.014902 0.0016483 0.00021502
0.0011116 -0.0013217 0.0012595 -0.00062044
0.0051509 -0.0017516 -0.0046855 0.014951 0.35821 0.004269 -0.0010866 -0.0011073
0.00028443 -0.00027555 0.00074287 -0.00031815
-0.0015105 0.0017551 0.0016509 0.00021966 -0.001092 -0.0011164 0.19986 0.17895
-0.015614 -0.0040746 -0.00095395 0.002066
0.0022419 -0.00031368 0.0010737 -0.0013588 0.00030099 -0.00023033 -0.015604 -0.0039954
0.088772 0.21025 -0.012204 -0.0031396
-0.00017029 -0.00093648 0.0012694 -0.00060503 0.00066453 -0.0002596 -0.00095035 0.0020537
-0.012214 -0.003164 0.14255 0.28621
1520000000 0.28016 0.11338 -0.015032 0.0098512 0.0031023 -0.0040275 0.0002145 0.0027044
0.0024873 -0.0019161 -0.0010089 -0.00013802
-0.01504 0.0098183 0.14404 0.32443 0.0024802 0.012007 0.001665 -0.00076067
0.0001996 -0.0010909 0.00040681 -0.00099588
0.0030801 -0.0040869 0.0025631 0.012012 0.35022 -0.053833 -0.00084028 -0.00038651
0.00074789 -0.0010506 0.00010859 -9.186e-05
0.00018516 0.002699 0.0016672 -0.00077002 -0.00083189 -0.00035832 0.22306 0.14007
-0.01561 0.0018767 0.0014936 0.0021828
0.002522 -0.0019648 0.00019161 -0.0010763 0.00074755 -0.0010706 -0.015637 0.0019377
0.11615 0.20025 -0.012132 0.0014562
-0.0010837 -0.00013646 0.0004062 -0.00099599 0.00010207 -0.00010762 0.0015488 0.0021968
-0.012048 0.0013947 0.17573 0.2669
1580000000 0.29044 0.068414 -0.0085478 0.013335 -0.0013157 -0.004679 0.0015656 0.0018505
-0.00011577 -0.0023981 -0.0002488 0.00038027
-0.0085395 0.013306 0.17192 0.30045 0.0055119 0.0067509 0.00054255 -0.0015545
-0.00048352 -0.0011765 -0.00019084 -0.00074802
-0.0012793 -0.0046738 0.0055178 0.0067237 0.32874 -0.11036 -0.0014644 0.00036914
-0.00040753 -0.0013896 0.00019904 -0.00044739
0.0016037 0.0018163 0.00052885 -0.0015633 -0.0014906 0.00032784 0.2375 0.10121
-0.012303 0.0073741 0.0023087 0.00073344
-0.00018149 -0.0023717 -0.00047544 -0.0011716 -0.00046232 -0.0013761 -0.012245 0.0073966
0.14208 0.18691 -0.0094267 0.0079076
-0.00019464 0.00037762 -0.00021348 -0.00070893 0.00019536 -0.0004962 0.0022949 0.00074689
-0.0094649 0.0078257 0.20928 0.24256
1640000000 0.29374 0.026522 -0.0017142 0.012259 -0.0028787 -0.0021209 0.0027787 0.0010356
-0.00059049 -0.0018846 -0.00035912 0.00037616
-0.0017358 0.012251 0.20284 0.27506 0.0054823 0.0020311 -0.00052108 -0.0018148
-0.0009841 -0.00059423 -0.00047909 -0.00068964
-0.0029249 -0.0021194 0.0055149 0.0019982 0.29931 -0.1602 -0.00074892 0.0012967
-0.001236 -0.0011291 -0.00017104 -0.00035286
0.0028166 0.0010317 -0.00053865 -0.0018229 -0.00075117 0.0012654 0.25076 0.050976
-0.0081122 0.0088506 0.0026744 -0.00064448
-0.00051371 -0.001914 -0.00096477 -0.00057743 -0.0012505 -0.00111 -0.008078 0.0088967
0.1667 0.16619 -0.0044392 0.009995
-0.00034609 0.00038716 -0.00048776 -0.00072835 -0.00019195 -0.00027674 0.0027113 -0.0006023
-0.0045065 0.0101 0.23586 0.21163
1700000000 0.28613 -0.018217 0.0017811 0.0095565 -0.003344 0.00033372 0.0031121 -0.0013116
-0.0022573 -0.00073415 0.00055089 0.00049892
0.0017765 0.0095562 0.22055 0.24378 0.0027667 -0.00055801 -0.0014712 -0.00067228
-0.00090305 -0.00014855 -0.00085964 -0.00047035
-0.0033163 0.0003403 0.002778 -0.00059898 0.25395 -0.19822 0.00021535 0.0017592
-0.002269 -0.00016315 -0.00035397 -0.00079693
0.0031006 -0.0013476 -0.0014758 -0.00068968 0.00022847 0.0017282 0.2468 0.00069235
-0.0051985 0.010027 0.0019002 -0.0021776
-0.0022575 -0.00068341 -0.0009084 -0.00014982 -0.0022871 -0.00013671 -0.0051639 0.01006
0.18569 0.15011 0.00062375 0.010207
0.00054201 0.00039629 -0.00082616 -0.00045823 -0.00028991 -0.00088816 0.0018287 -0.0022737
0.00055988 0.010099 0.25299 0.1784
1760000000 0.27584 -0.066516 0.0041748 0.006377 -0.0020619 0.001278 0.0012292 -0.0034991
-0.0013974 0.0006238 0.00019667 -0.00054151
0.0041769 0.0063971 0.24792 0.20417 5.3014e-05 -0.001894 -0.0012577 5.9007e-05
-0.00122 0.0010088 -0.00052364 0.00033038
-0.002126 0.0013088 7.2274e-05 -0.0018921 0.20582 -0.23002 0.0012251 0.0013508
-0.001145 0.0016258 -0.0012798 -0.00063926
0.0012174 -0.0034829 -0.0012782 7.7779e-05 0.0012168 0.0013795 0.2385 -0.051196
-0.0013165 0.0094733 -0.00014479 -0.0025366
-0.0013591 0.00056242 -0.0011733 0.0010195 -0.0011555 0.0016517 -0.0013359 0.0094597
0.20383 0.11927 0.0045937 0.0074531
0.00020615 -0.00053888 -0.00051044 0.00032001 -0.0012404 -0.00069776 -4.9244e-05 -0.0025334
0.0045895 0.0075032 0.2676 0.1416
1820000000 0.25147 -0.10487 0.0044443 0.0027911 0.00017205 0.0024785 -0.0010045 -0.0030796
-0.0012835 0.00094265 -9.6595e-05 -9.57e-05
0.0044672 0.0028306 0.25781 0.1734 -0.0022454 -2.4103e-05 -0.0014537 0.00094415
-5.3329e-05 0.0012475 -0.00073603 0.00046461
0.00023776 0.0023786 -0.0021965 -5.5434e-06 0.15473 -0.24475 0.0017888 0.0005431
-0.00013466 0.0023597 -0.0016838 0.00019462
-0.00099295 -0.0031092 -0.0014323 0.00094728 0.0017792 0.00053123 0.20714 -0.099607
0.00055239 0.0081569 -0.0015554 -0.0019041
-0.0013044 0.00098477 -4.7158e-05 0.0012387 -0.00012683 0.0023301 0.00061923 0.0081617
0.22414 0.092799 0.0057978 0.003435
-8.9353e-05 -6.755e-05 -0.00074445 0.00044663 -0.0017155 0.00018609 -0.001606 -0.0019594
0.0058751 0.0034638 0.27101 0.10591
1880000000 0.21633 -0.1444 0.0022173 0.00057212 -0.00020231 0.0022976 -0.0029298 -0.0022694
-0.00017488 0.0017383 0.00041256 -0.00053758
0.0021944 0.00054946 0.26215 0.12766 -0.0041086 0.0028672 -0.00024833 0.0018747
0.00061616 0.0014195 0.00011827 0.0010065
-0.00023513 0.0023171 -0.0041345 0.0029117 0.10294 -0.25152 0.0020067 -0.0011851
0.0018037 0.0020565 -0.001018 0.0014921
-0.0029089 -0.0023167 -0.00021371 0.0018903 0.0020033 -0.0011712 0.16595 -0.13886
0.0020324 0.0058608 -0.0025341 1.9594e-05
-0.0001472 0.0016711 0.00064489 0.0013635 0.0018223 0.0019863 0.0020514 0.0059125
0.23161 0.065231 0.0061381 0.0010734
0.00037483 -0.00050847 0.00010021 0.0010118 -0.0009968 0.0014862 -0.0024628 0.00018654
0.0061544 0.0012532 0.27245 0.073029
1940000000 0.17791 -0.17123 2.5759e-05 -0.0010876 0.0019296 0.0019379 -0.0039362 0.00029999
0.001195 0.00093409 -0.00065704 -0.00063776
2.8146e-05 -0.0010727 0.26389 0.095501 -0.0020571 0.0059624 0.0011534 0.0013939
0.002084 0.00040225 0.00097373 0.00035514
0.0019684 0.001932 -0.0019804 0.006001 0.059635 -0.24355 0.00064132 -0.0024098
0.0023782 0.00024074 0.00041318 0.0017933
-0.0039627 0.00029539 0.0011882 0.0013929 0.00063579 -0.0024329 0.11326 -0.1701
0.0015555 0.0040203 -0.0013587 0.001445
0.0012168 0.00086986 0.0020705 0.00038899 0.0023623 0.00022602 0.0015852 0.0040545
0.23983 0.028567 0.0048595 -0.0029417
-0.00073519 -0.00059423 0.00093718 0.00035895 0.00030213 0.0018846 -0.0015348 0.0013284
0.0048543 -0.002961 0.26339 0.036033
2000000000 0.13093 -0.18556 -0.0036755 0.0010191 0.0029869 0.0012252 -0.0024552 0.0037932
0.00077837 0.00037686 -0.00090571 0.00041317
-0.0036688 0.0010307 0.24932 0.060271 -0.00039712 0.0080862 0.0016986 0.00025875
0.0011892 -0.0014236 0.00054526 -8.1425e-06
0.0030375 0.0011583 -0.00034303 0.0081321 0.018083 -0.22864 -0.0015824 -0.0015823
0.0019969 -0.0011718 0.0016441 0.0013163
-0.0023951 0.0038293 0.00168 0.00024805 -0.0015623 -0.001587 0.059023 -0.17937
-7.5564e-05 0.0032749 -0.00032589 0.002084
0.00080944 0.00044757 0.0011841 -0.0014247 0.0019495 -0.0011661 -6.3522e-05 0.0031738
0.23862 -0.0037671 0.0010773 -0.0041675
