!Keysight Technologies,M9804A,MY58100912,A.14.10.03
!Date: Thursday, April 27, 2023 10:28:33
!Correction: S11(C  6-Port  ) 
!S12(C  6-Port  ) 
!S13(C  6-Port  ) 
!S14(C  6-Port  ) 
!S15(C  6-Port  ) 
!S16(C  6-Port  ) 
!S21(C  6-Port  ) 
!S22(C  6-Port  ) 
!S23(C  6-Port  ) 
!S24(C  6-Port  ) 
!S25(C  6-Port  ) 
!S26(C  6-Port  ) 
!S31(C  6-Port  ) 
!S32(C  6-Port  ) 
!S33(C  6-Port  ) 
!S34(C  6-Port  ) 
!S35(C  6-Port  ) 
!S36(C  6-Port  ) 
!S41(C  6-Port  ) 
!S42(C  6-Port  ) 
!S43(C  6-Port  ) 
!S44(C  6-Port  ) 
!S45(C  6-Port  ) 
!S46(C  6-Port  ) 
!S51(C  6-Port  ) 
!S52(C  6-Port  ) 
!S53(C  6-Port  ) 
!S54(C  6-Port  ) 
!S55(C  6-Port  ) 
!S56(C  6-Port  ) 
!S61(C  6-Port  ) 
!S62(C  6-Port  ) 
!S63(C  6-Port  ) 
!S64(C  6-Port  ) 
!S65(C  6-Port  ) 
!S66(C  6-Port  ) 
!S6P File: Measurement: :
# Hz S  RI   R 50
500000000 -0.32704 -0.059856 -0.010738 -0.0011582 -0.0083102 0.012668 -0.0038674 0.012033
0.013153 0.0060781 -0.0047031 0.0088161
-0.010669 -0.0010874 -0.40872 -0.071219 0.0079799 -0.01071 0.00093977 0.011959
0.0088686 0.0038746 0.001117 0.014407
-0.0083231 0.012691 0.0079496 -0.010693 -0.25492 0.19481 0.0066388 0.0031847
-0.0020081 0.0083367 0.0014423 0.012233
-0.00373 0.012124 0.00098728 0.011907 0.0066676 0.0031851 -0.32784 0.044496
-0.020119 -0.0046644 0.014131 0.027475
0.013417 0.0062216 0.0089941 0.0038991 -0.0019976 0.0083171 -0.020127 -0.0046597
-0.20938 -0.24795 -0.028588 0.0047237
-0.0043681 0.0091119 0.0012255 0.01422 0.0014049 0.012189 0.01413 0.027458
-0.028566 0.0047377 -0.26099 -0.14357
560000000 -0.31354 0.1068 -0.022896 -0.065901 0.00063974 0.012984 0.0051271 0.011499
0.010985 0.0054629 0.011147 0.0099393
-0.022771 -0.065891 -0.36843 0.09261 -0.041215 -0.037755 0.014497 0.0037102
-0.013967 -0.0061739 0.0052534 -0.00028569
0.00064119 0.012811 -0.041441 -0.037643 -0.17927 0.24411 -0.00064847 -0.0047793
0.018853 0.0070814 0.007463 -0.0058405
0.0048561 0.011416 0.014471 0.0036911 -0.00064894 -0.0048064 -0.30273 0.13365
0.005974 -0.021962 0.0056495 -0.021494
0.011046 0.0057953 -0.013876 -0.0060501 0.018788 0.007077 0.0060096 -0.021995
-0.29751 -0.062547 0.0098571 -0.051052
0.010941 0.010165 0.0051719 -3.142e-05 0.0074551 -0.0058193 0.0056317 -0.021469
0.0098914 -0.051044 -0.32815 0.0040421
620000000 -0.27372 0.082988 -0.023601 0.0092594 0.003281 0.0084664 0.0086816 -0.0050623
0.011827 0.00015237 0.00097982 -0.0022742
-0.023626 0.0093072 -0.39894 0.038111 -0.019117 0.00091448 -0.0018396 -0.0023407
0.013042 -0.0045244 0.00062263 -0.0028953
0.0034405 0.0085047 -0.019128 0.00094287 -0.15287 0.25311 -0.0010849 -0.0054551
-0.0036228 -0.0023227 0.0085217 -0.0030632
0.0089143 -0.0051449 -0.001848 -0.0023686 -0.0010969 -0.0054407 -0.26104 0.14298
-0.039473 -0.020774 0.01257 0.027867
0.011439 0.00014158 0.012906 -0.0045066 -0.0036274 -0.0022191 -0.03951 -0.020691
-0.21208 -0.10302 -0.044355 0.012894
0.00081493 -0.0021153 0.00058063 -0.0029662 0.0085414 -0.0030944 0.012626 0.027817
-0.04446 0.012794 -0.24193 -0.034239
680000000 -0.23928 0.17682 -0.026078 -0.014025 0.0052403 0.005187 0.0016448 -0.0071306
-0.0010522 -0.011468 0.0065503 -0.007308
-0.026085 -0.01402 -0.38906 0.14051 -0.031891 -0.0012099 -0.0015141 -0.00051963
-0.0011642 -0.0096884 -0.00041245 -0.0019835
0.005128 0.0052401 -0.031936 -0.0011172 -0.10518 0.27582 -0.00086411 -2.5182e-05
-0.0013493 0.00056228 -0.0026161 -0.0088801
0.0015529 -0.0070067 -0.0014996 -0.00049261 -0.00085314 -2.3134e-05 -0.21772 0.19598
-0.023855 -0.0066671 -0.0085705 -0.011059
-0.0012451 -0.011438 -0.0012357 -0.0097005 -0.0013736 0.00056169 -0.023886 -0.0066576
-0.28448 -0.00047779 -0.0055465 -0.0068425
0.0066121 -0.0071017 -0.00038198 -0.0018698 -0.0025967 -0.0088432 -0.0086522 -0.011087
-0.0055654 -0.0067491 -0.26062 0.071943
740000000 -0.19265 0.16943 -0.040425 0.027251 0.013183 -0.0041318 -0.00027249 -0.0040217
-0.0035571 -0.0018872 -0.0066802 0.0027233
-0.04036 0.027185 -0.33461 0.15926 -0.035989 0.034223 -1.1767e-05 -0.0060204
-0.012303 0.0066882 -0.00086054 -0.0058668
0.013145 -0.004156 -0.035877 0.034357 -0.071514 0.27567 -0.002056 0.0032259
-0.0008153 -0.005061 -0.0018248 0.00086827
-0.00033195 -0.0041257 -3.0858e-05 -0.0061531 -0.0020461 0.0032712 -0.20089 0.20197
-0.041967 -0.0095712 0.02209 0.016666
-0.0039543 -0.0014682 -0.012491 0.0066924 -0.00072702 -0.005139 -0.042058 -0.0095723
-0.18005 0.037531 -0.044065 -0.00076654
-0.0067344 0.0027136 -0.00077835 -0.0058521 -0.0018821 0.00090588 0.022167 0.01665
-0.044092 -0.00084419 -0.25186 0.076724
800000000 -0.16504 0.21494 -0.022324 0.016103 0.0052122 -0.010431 -0.0044004 -0.0028132
-0.0046013 0.0017589 0.0042198 0.00028358
-0.022297 0.016079 -0.34339 0.23037 -0.0083049 0.033982 -0.0023104 0.0019518
-0.00040107 0.002176 0.00035826 0.005207
0.0052797 -0.010442 -0.0081844 0.033992 -0.033705 0.30123 0.0010203 0.0012617
-0.0004118 0.0031303 -0.0014823 0.00075115
-0.0043195 -0.0027064 -0.002241 0.0019369 0.0010189 0.0012691 -0.17219 0.22993
-0.029115 0.012906 0.015098 -0.010446
-0.0044347 0.0017138 -0.00035991 0.002161 -0.00040771 0.0031193 -0.029099 0.012967
-0.23742 0.060001 -0.018819 0.02144
0.004454 0.00025099 0.00050585 0.0051339 -0.0014783 0.00075074 0.015042 -0.010433
-0.018793 0.021441 -0.24797 0.12904
860000000 -0.12953 0.23601 -0.017727 0.030446 -0.0033202 -0.0097463 -0.0020231 0.00045952
0.0041943 0.0052312 -0.0039175 -0.0031686
-0.017733 0.030422 -0.29544 0.27511 0.0078736 0.033793 0.00019845 0.0021488
0.0041385 0.00060043 0.0035077 0.00013447
-0.0033723 -0.0097503 0.0079977 0.033785 0.015519 0.31116 -0.0005113 -0.00033923
0.0025882 -0.0017094 0.0015439 0.0041533
-0.002069 0.00047678 0.00015039 0.002165 -0.0005061 -0.000353 -0.13509 0.24137
-0.018394 0.017599 -0.0061327 -0.0096609
0.0041988 0.0051952 0.0041299 0.00061167 0.0025897 -0.0017197 -0.01833 0.017609
-0.18136 0.12372 -0.026562 0.016591
-0.0039689 -0.003039 0.0036237 0.00017087 0.001541 0.0041807 -0.0062249 -0.0097292
-0.026542 0.01651 -0.19775 0.17648
920000000 -0.107 0.25882 0.0049106 0.038973 -0.0092345 -0.0043754 -0.0019529 0.001662
0.00014651 0.0015375 0.0031783 -0.001407
0.0048871 0.03895 -0.26938 0.29636 0.027927 0.0223 0.0013851 0.0010314
0.0073342 -3.9387e-05 0.0039133 -0.0029857
-0.0092116 -0.0043503 0.028026 0.022225 0.061432 0.31248 0.0017811 -4.4317e-05
0.00064962 -0.0003385 0.00092435 -0.0015403
-0.0019511 0.0016202 0.0013646 0.001 0.0017943 -5.5007e-05 -0.11174 0.25764
-0.01232 0.030636 0.0043997 -0.0067696
0.00019033 0.001492 0.00741 -3.2216e-05 0.0006647 -0.0003349 -0.012216 0.030618
-0.17572 0.12695 -0.0037521 0.028461
0.0030924 -0.0015018 0.0038027 -0.0029587 0.00088911 -0.0015489 0.0043704 -0.0068125
-0.0037564 0.028496 -0.20756 0.18938
980000000 -0.060903 0.28119 0.016921 0.030068 -0.0090881 0.0046049 0.0017985 0.0036157
0.0038951 -0.0015486 -0.0032793 -0.0028244
0.016863 0.030043 -0.21739 0.33439 0.032794 0.0047204 0.001875 -0.00023885
0.0021534 -0.0060362 -0.00051678 -0.0028094
-0.0090636 0.0046468 0.032852 0.0046213 0.10812 0.30791 0.00040422 -0.0012079
0.00022343 -0.0017348 0.0014406 -0.000289
0.0017319 0.0036283 0.001912 -0.00024101 0.00040353 -0.0011975 -0.073003 0.26959
0.007042 0.030521 -0.0092991 -0.00787
0.0038307 -0.0016301 0.0020829 -0.0060495 0.00023883 -0.0017377 0.0070949 0.030506
-0.14605 0.16552 0.0051345 0.020699
-0.003359 -0.0027454 -0.00053724 -0.0027907 0.0014293 -0.00028945 -0.009328 -0.0078726
0.0051391 0.020687 -0.16695 0.23912
1040000000 -0.018841 0.28967 0.033141 0.019124 -0.0010959 0.0072938 0.0023367 0.00064447
0.00019474 -0.0033393 -0.00013343 -0.0014039
0.033047 0.019127 -0.18185 0.34781 0.029071 -0.01468 0.0014737 -0.0018174
-0.0024522 -0.0024798 -0.0011986 -0.0028927
-0.0011236 0.0072719 0.029047 -0.014785 0.15524 0.29393 -0.00057787 -0.0013738
-0.0016909 -0.0009641 -0.00063165 -0.0010365
0.0023527 0.00062399 0.0014884 -0.0018474 -0.00058691 -0.001363 -0.045571 0.27845
0.018717 0.019507 -0.0021598 0.0011836
0.00020712 -0.003378 -0.0024722 -0.0025041 -0.0017047 -0.00095287 0.018791 0.019467
-0.11358 0.17393 0.013257 0.019939
-0.00020581 -0.0014878 -0.0012278 -0.0029244 -0.00062986 -0.0010269 -0.0021161 0.0011831
0.013209 0.019955 -0.14529 0.25928
1100000000 0.02483 0.30065 0.036398 -0.0034926 0.0033395 0.0039896 0.0023883 -0.00085055
-0.0021876 -0.0029973 -0.0041734 3.3535e-05
0.036357 -0.0034417 -0.13932 0.36804 0.014795 -0.02752 -0.000167 -0.0018445
-0.0033319 -0.0010205 -0.0037854 -0.00053833
0.0033265 0.0039711 0.014699 -0.027608 0.20107 0.27447 -0.0017709 0.00035327
-0.0017306 0.00071566 -0.001136 -0.0004277
0.0023618 -0.00082558 -0.00015431 -0.0018366 -0.0017824 0.00033982 -0.0059242 0.2838
0.024793 0.0068489 -0.0026135 -0.00021957
-0.0022397 -0.0029663 -0.0033542 -0.00099492 -0.0017309 0.00071833 0.02482 0.0068142
-0.097287 0.19187 0.019924 0.010457
-0.004118 0.00014774 -0.003746 -0.00048638 -0.0011565 -0.00040755 -0.0026303 -0.00021606
0.019901 0.010446 -0.10155 0.29209
1160000000 0.077091 0.29721 0.024558 -0.020306 0.0031369 -0.00056894 4.1392e-05 -0.0023297
-0.0041362 -0.00097599 -0.0013285 0.0042981
0.024523 -0.020268 -0.093844 0.37337 -0.0040766 -0.028343 -0.0015762 -0.0014121
-0.0027902 0.0024957 -0.0017251 0.0018257
0.0031237 -0.00059663 -0.0041922 -0.028354 0.2456 0.24405 -0.00062009 0.0016613
-0.00042331 0.0018176 -0.00090231 0.0004374
4.7558e-05 -0.0024168 -0.0016069 -0.0014275 -0.00062705 0.0016572 0.034194 0.28094
0.022374 -0.0094819 -0.0036703 0.0049944
-0.0040585 -0.00095891 -0.0027747 0.0025301 -0.00041377 0.0018207 0.022376 -0.009515
-0.06117 0.20432 0.019613 0.0012772
-0.0013563 0.0042964 -0.0017031 0.0018333 -0.00089259 0.00043058 -0.0036772 0.0049954
0.019587 0.0012393 -0.052723 0.29597
1220000000 0.12051 0.28738 0.011442 -0.02997 -0.0012488 -0.0011915 0.00012581 -0.0011184
-0.0026677 0.0022125 0.0012105 0.0020889
0.011435 -0.029921 -0.050516 0.38712 -0.016864 -0.020562 -0.0025303 0.00047739
1.8771e-05 0.003147 -0.00079339 0.0019207
-0.0012486 -0.0011716 -0.016965 -0.020504 0.28443 0.20465 0.00091157 0.0015507
0.00060929 0.001173 0.00025927 0.00053142
0.00012734 -0.0011099 -0.0025146 0.00049923 0.00090933 0.0015423 0.07302 0.2721
0.011678 -0.016713 0.0019599 0.0016529
-0.0026584 0.0022779 4.8297e-05 0.0031634 0.00062276 0.0011738 0.011657 -0.016732
-0.040321 0.21536 0.015279 -0.012514
0.0012589 0.002108 -0.00078994 0.0019349 0.00025806 0.00052662 0.0019457 0.0016383
0.015303 -0.01253 -0.023524 0.31427
1280000000 0.17113 0.2686 -0.0073934 -0.02883 -0.0017268 0.001904 -0.00092284 -0.002146
-0.0010065 0.0033532 0.0025603 0.0013743
-0.0073596 -0.028825 -0.0033867 0.37999 -0.023607 -0.0076367 -0.00082741 0.0014361
0.0017281 0.0019417 0.00060518 0.0020537
-0.0016958 0.0019237 -0.023691 -0.0075354 0.31542 0.1618 0.0014252 -0.00016022
0.0010777 0.00042276 0.00033541 0.00040302
-0.00094431 -0.002175 -0.00085366 0.001449 0.0014186 -0.00015052 0.10973 0.25679
0.0022898 -0.019663 -0.00019719 0.00027649
-0.0010159 0.0033576 0.0017546 0.001929 0.0010803 0.0004193 0.0022585 -0.019672
-0.0034008 0.22333 0.0036977 -0.015615
0.0025375 0.001359 0.00064603 0.0020849 0.00034028 0.00039454 -0.00020522 0.00029156
0.0037194 -0.015627 0.02516 0.31871
1340000000 0.20907 0.23517 -0.017015 -0.019416 0.00061157 0.004184 -0.0019694 -0.00080094
0.0015185 0.0028767 0.0018545 -0.0014551
-0.016969 -0.019408 0.036691 0.3722 -0.020599 0.0049221 -0.00018525 0.0020302
0.0018993 0.00094638 0.0012266 0.00080356
0.00062404 0.0041964 -0.020593 0.0050292 0.33857 0.11296 0.00091432 -0.00095137
0.00065413 -0.00051159 0.00015532 0.00018793
-0.0019607 -0.00078097 -0.00017478 0.0020162 0.00091113 -0.00094486 0.14311 0.23598
-0.0076336 -0.017202 0.00090944 0.00055941
0.0015092 0.0028554 0.0018849 0.00095923 0.00065667 -0.00052842 -0.0076793 -0.0172
0.02565 0.22118 -0.002946 -0.014259
0.001863 -0.0014836 0.0012216 0.00080231 0.00015907 0.00019661 0.00092417 0.0005359
-0.0029324 -0.014276 0.063334 0.31469
1400000000 0.24277 0.19872 -0.023344 -0.0081174 0.0048995 0.0029363 -0.0022096 0.00084303
0.0026268 0.0010488 0.00038508 -0.0012866
-0.02331 -0.0081201 0.074218 0.3606 -0.013744 0.012545 0.0013297 0.0013222
0.0012479 -0.00067281 0.0011344 0.00026645
0.004907 0.0029205 -0.013696 0.012634 0.35134 0.059143 -3.0274e-05 -0.0013749
0.00023163 -0.00010519 0.00041529 0.00020026
-0.0022027 0.00083723 0.0013387 0.0013179 -5.5522e-05 -0.0013639 0.17216 0.20772
-0.014094 -0.010635 -0.00081058 -0.00020972
0.0026373 0.0010454 0.001252 -0.00068566 0.00022934 -0.00011924 -0.014129 -0.010614
0.058431 0.22119 -0.0098075 -0.0092401
0.00036678 -0.0013068 0.0011412 0.00023017 0.00042713 0.00021118 -0.00084439 -0.00019315
-0.0097785 -0.0092745 0.10809 0.30584
1460000000 0.26751 0.1556 -0.020418 0.0043168 0.0051277 -0.0017885 -0.0015335 0.0017551
0.0022189 -0.00035355 -0.00020456 -0.0009197
-0.020396 0.0042964 0.11013 0.33901 -0.0047571 0.0149 0.0016732 0.00018446
0.0011139 -0.0013355 0.0012003 -0.00058967
0.0051318 -0.0018228 -0.0046785 0.014945 0.35814 0.0042917 -0.0010925 -0.0010874
0.00032491 -0.00022711 0.00070731 -0.00026251
-0.0015319 0.0017764 0.0016676 0.00018019 -0.0010782 -0.0011012 0.19991 0.17888
-0.015483 -0.0040184 -0.0010057 0.002094
0.0022114 -0.00038332 0.0011168 -0.0013404 0.00033598 -0.00023374 -0.015513 -0.0039944
0.088884 0.21049 -0.011941 -0.0029684
-0.00022143 -0.00092128 0.0012173 -0.00057735 0.00070358 -0.00027464 -0.00098106 0.0020639
-0.011924 -0.0029586 0.14257 0.2862
1520000000 0.28015 0.11341 -0.01503 0.0098585 0.0030828 -0.0040336 0.0002168 0.00267
0.0025245 -0.0019561 -0.0010616 -0.00015753
-0.015027 0.0098307 0.14409 0.3244 0.0024795 0.012006 0.001679 -0.00074422
0.00022177 -0.001056 0.00038702 -0.0010021
0.0030784 -0.0040669 0.0025459 0.011997 0.35028 -0.053843 -0.00082667 -0.00036097
0.00077865 -0.0010488 0.00012075 -0.00011969
0.00022661 0.0026557 0.0016874 -0.00075842 -0.00082354 -0.00037028 0.22314 0.14005
-0.015487 0.0018152 0.0014646 0.0021554
0.0025529 -0.0019725 0.00021898 -0.0010636 0.00078456 -0.0010464 -0.015493 0.0018511
0.11649 0.20055 -0.011848 0.0013736
-0.0010835 -0.00013654 0.00037891 -0.0010132 0.00010959 -0.00013308 0.0014417 0.0021514
-0.01185 0.0013579 0.17577 0.26695
1580000000 0.29048 0.068424 -0.0085305 0.013306 -0.0013 -0.0046845 0.0015976 0.0018336
-0.00015542 -0.0023608 -0.00020009 0.0003241
-0.0085282 0.013284 0.17195 0.30045 0.0055121 0.0067552 0.00054772 -0.0015722
-0.00044277 -0.0011806 -0.00019503 -0.00073226
-0.0013075 -0.0046867 0.0055589 0.006744 0.32873 -0.11036 -0.0014524 0.00031136
-0.00047176 -0.0014029 0.00015718 -0.00046633
0.0015966 0.0018143 0.00053262 -0.0015787 -0.0014624 0.00031896 0.23753 0.10115
-0.012225 0.0072744 0.0022653 0.00065726
-0.00019145 -0.0023415 -0.00045118 -0.0011925 -0.00048607 -0.0013851 -0.012226 0.0073154
0.14246 0.18705 -0.009155 0.0078087
-0.0002043 0.00032476 -0.00020106 -0.00072312 0.0001531 -0.0004796 0.0023103 0.00065255
-0.0091857 0.0078199 0.20931 0.24253
1640000000 0.29376 0.026524 -0.0016983 0.012248 -0.0028359 -0.00213 0.0027453 0.00099158
-0.0005845 -0.0018188 -0.00031595 0.000387
-0.0017138 0.012232 0.20288 0.27504 0.0054685 0.0020227 -0.00053831 -0.0018167
-0.00096344 -0.00059475 -0.00047888 -0.00070729
-0.0028488 -0.0020851 0.0054858 0.0019897 0.29928 -0.16015 -0.00077621 0.0013168
-0.0012294 -0.0011256 -0.0001434 -0.00031082
0.0027599 0.00097353 -0.00053297 -0.0018122 -0.00077099 0.0013065 0.25081 0.050932
-0.0080887 0.0088038 0.0026191 -0.0006176
-0.00060254 -0.0018122 -0.00095798 -0.00058253 -0.0012214 -0.0011264 -0.0080735 0.0088378
0.16714 0.16646 -0.0043833 0.0097946
-0.0003106 0.00036647 -0.0004941 -0.00070925 -0.00015248 -0.00029294 0.0026175 -0.00063843
-0.0043706 0.0097471 0.23625 0.21165
1700000000 0.28625 -0.018195 0.00177 0.0095334 -0.0033638 0.00030981 0.0031059 -0.0013404
-0.0022715 -0.00072169 0.00052656 0.00045774
0.001771 0.0095237 0.22059 0.24373 0.0027615 -0.00058066 -0.0014689 -0.00069394
-0.00089431 -0.00018012 -0.00086083 -0.00046377
-0.0033591 0.00032746 0.0027462 -0.00060287 0.25408 -0.19818 0.0001908 0.001717
-0.0022271 -0.00020887 -0.00037265 -0.00083642
0.0030938 -0.0013498 -0.0014861 -0.00068083 0.00018757 0.0017188 0.24676 0.00053398
-0.0052291 0.0099024 0.0018094 -0.0021996
-0.0022868 -0.00070132 -0.00091288 -0.00017285 -0.002225 -0.00019815 -0.0052175 0.0099217
0.1861 0.15004 0.00064684 0.0099649
0.00054337 0.00043065 -0.00085307 -0.00046398 -0.00039862 -0.00083547 0.0018106 -0.0021851
0.00064524 0.010007 0.25313 0.17821
1760000000 0.27593 -0.066609 0.0041551 0.0063883 -0.0021013 0.0012904 0.001227 -0.0034661
-0.0014066 0.00056372 0.00020797 -0.00054481
0.0041391 0.0063825 0.24794 0.20412 5.4577e-05 -0.0018892 -0.0012559 5.8024e-05
-0.0012274 0.00098037 -0.00056233 0.0002951
-0.00208 0.0013041 4.2126e-05 -0.0018898 0.20588 -0.23004 0.0011855 0.0013684
-0.0011986 0.0016387 -0.0012964 -0.00064425
0.0012259 -0.0034638 -0.0012544 6.1605e-05 0.0012086 0.0013599 0.23853 -0.051195
-0.0013248 0.0094384 -5.1785e-05 -0.0025558
-0.0013933 0.00056974 -0.0012119 0.00099363 -0.0011841 0.001635 -0.0013037 0.0094606
0.20428 0.11919 0.0045545 0.0071413
0.00017508 -0.00056424 -0.00056091 0.00030581 -0.001313 -0.00065734 -3.7084e-05 -0.0025985
0.0045693 0.0071133 0.26788 0.14147
1820000000 0.25152 -0.1049 0.0044596 0.0028089 0.00022828 0.0024108 -0.00097457 -0.0030888
-0.0012678 0.00092295 -3.1792e-05 -8.7734e-05
0.0044486 0.0028121 0.25783 0.17339 -0.0022165 -3.0749e-05 -0.0014567 0.00096542
-7.2375e-05 0.0012751 -0.00071826 0.00046989
0.00022257 0.0024117 -0.0022295 -1.4405e-05 0.15481 -0.24491 0.0017676 0.00048335
-0.0001076 0.002251 -0.0017114 0.00015896
-0.00096835 -0.0030929 -0.0014562 0.00096825 0.0017526 0.00050081 0.20712 -0.099613
0.00057965 0.0080473 -0.0016184 -0.0018743
-0.0012696 0.00095604 -6.1462e-05 0.0012704 -0.00012678 0.0022709 0.00059452 0.0080568
0.22463 0.092465 0.0055796 0.0032904
-4.6139e-05 -9.2453e-05 -0.00070361 0.00046444 -0.0017216 0.0001437 -0.0016698 -0.0018731
0.0055522 0.0033049 0.27105 0.10571
1880000000 0.21626 -0.14466 0.0021776 0.00057083 -0.00021022 0.0023034 -0.0029213 -0.0023438
-0.00023209 0.001719 0.00031201 -0.00052638
0.0021682 0.00058389 0.26216 0.12759 -0.0041609 0.0028227 -0.00026492 0.0018356
0.0005828 0.0014441 0.00011096 0.0010283
-0.0002153 0.0022743 -0.0041325 0.0028563 0.10289 -0.25162 0.0019635 -0.0011437
0.0017351 0.0020104 -0.00096223 0.0015077
-0.0029335 -0.0023363 -0.00024421 0.0018405 0.0019765 -0.0011609 0.1659 -0.13878
0.0019727 0.0060073 -0.0024588 0.0001124
-0.00021281 0.0017322 0.00060225 0.0014389 0.0017563 0.0019811 0.001974 0.0059878
0.23205 0.064864 0.0059156 0.0010494
0.00030877 -0.00054518 0.00010184 0.001044 -0.00095971 0.0015043 -0.0024219 0.00013659
0.0059486 0.0010571 0.27239 0.07269
1940000000 0.17777 -0.17138 3.0739e-05 -0.0010911 0.0019544 0.001934 -0.0039094 0.00037772
0.001186 0.00094251 -0.00061225 -0.00071383
2.9868e-05 -0.0010821 0.26388 0.095455 -0.0020491 0.0060057 0.001162 0.0014331
0.0020991 0.00042679 0.00094155 0.00036618
0.0019857 0.0019117 -0.0020289 0.0060147 0.059582 -0.24348 0.00057981 -0.0024659
0.0023806 0.00022737 0.00034429 0.0019303
-0.0039208 0.0004071 0.001157 0.0014255 0.00055523 -0.0024752 0.1135 -0.17023
0.001539 0.0039743 -0.0015757 0.0014364
0.0011572 0.0009131 0.0021122 0.00040386 0.002369 0.00019854 0.0015686 0.0039944
0.23992 0.027953 0.0044438 -0.002951
-0.00058966 -0.00069611 0.0009628 0.00034592 0.00033338 0.0019485 -0.0016292 0.0014096
0.0044048 -0.0030001 0.2635 0.035852
2000000000 0.13078 -0.18565 -0.0036672 0.0010722 0.0029413 0.0012851 -0.0025262 0.0037631
0.00076613 0.00039616 -0.00084686 0.0004201
-0.0036823 0.0010597 0.24935 0.060249 -0.00041542 0.0080895 0.0016482 0.00017852
0.0012191 -0.0014575 0.00050769 8.1771e-05
0.0028949 0.0012302 -0.00036915 0.008104 0.017993 -0.22859 -0.0016593 -0.0015976
0.0019052 -0.0011356 0.0017216 0.0013236
-0.0024755 0.00377 0.0016403 0.00015164 -0.0016208 -0.0015862 0.058663 -0.17923
-0.00029453 0.0034361 -4.8679e-05 0.0020814
0.00079546 0.00040014 0.0012178 -0.0014694 0.0019355 -0.0011354 -0.00031684 0.003405
0.23836 -0.0041937 0.00095034 -0.0040008
