!Keysight Technologies,M9804A,MY58100912,A.14.10.03
!Date: Thursday, April 27, 2023 10:28:33
!Correction: S11(C  6-Port  ) 
!S12(C  6-Port  ) 
!S13(C  6-Port  ) 
!S14(C  6-Port  ) 
!S15(C  6-Port  ) 
!S16(C  6-Port  ) 
!S21(C  6-Port  ) 
!S22(C  6-Port  ) 
!S23(C  6-Port  ) 
!S24(C  6-Port  ) 
!S25(C  6-Port  ) 
!S26(C  6-Port  ) 
!S31(C  6-Port  ) 
!S32(C  6-Port  ) 
!S33(C  6-Port  ) 
!S34(C  6-Port  ) 
!S35(C  6-Port  ) 
!S36(C  6-Port  ) 
!S41(C  6-Port  ) 
!S42(C  6-Port  ) 
!S43(C  6-Port  ) 
!S44(C  6-Port  ) 
!S45(C  6-Port  ) 
!S46(C  6-Port  ) 
!S51(C  6-Port  ) 
!S52(C  6-Port  ) 
!S53(C  6-Port  ) 
!S54(C  6-Port  ) 
!S55(C  6-Port  ) 
!S56(C  6-Port  ) 
!S61(C  6-Port  ) 
!S62(C  6-Port  ) 
!S63(C  6-Port  ) 
!S64(C  6-Port  ) 
!S65(C  6-Port  ) 
!S66(C  6-Port  ) 
!S6P File: Measurement: :
# Hz S  RI   R 50
500000000 -0.32668 -0.059567 -0.011249 -0.0014085 -0.0086477 0.01252 -0.004256 0.011547
0.013207 0.0066668 -0.0050745 0.0084473
-0.011245 -0.0014249 -0.40859 -0.071076 0.0078994 -0.010539 0.0010616 0.011916
0.008659 0.0035879 0.0010147 0.014118
-0.0086225 0.012542 0.007891 -0.010545 -0.25487 0.19479 0.0068184 0.0033825
-0.0024828 0.0080528 0.0015842 0.01249
-0.0042076 0.011597 0.0010765 0.011972 0.0067969 0.0034422 -0.32772 0.044365
-0.020159 -0.0053535 0.014472 0.026866
0.013021 0.0066935 0.0085735 0.0036115 -0.0024952 0.0081223 -0.020139 -0.0053315
-0.20953 -0.24786 -0.029095 0.0040018
-0.0049364 0.0084665 0.0011382 0.014226 0.0015637 0.012542 0.014506 0.02694
-0.02909 0.0039336 -0.26026 -0.14489
560000000 -0.31353 0.10662 -0.022438 -0.065907 0.00036963 0.013352 0.0058351 0.011596
0.011025 0.0060155 0.011072 0.010336
-0.022536 -0.065984 -0.36918 0.092265 -0.041005 -0.038326 0.013844 0.003811
-0.013677 -0.0062311 0.0052031 -0.0005779
0.00042949 0.013373 -0.041143 -0.038392 -0.17908 0.24487 -0.00017761 -0.0050811
0.018954 0.0076578 0.0075078 -0.005736
0.0058726 0.01142 0.013882 0.0037978 -0.00016779 -0.0050764 -0.30289 0.134
0.0060886 -0.022254 0.0057218 -0.021724
0.010807 0.006001 -0.013694 -0.0063214 0.018816 0.0077531 0.0060938 -0.022212
-0.29838 -0.062626 0.009871 -0.051763
0.010859 0.010002 0.0049935 -0.00048205 0.0075766 -0.0057866 0.0058004 -0.021816
0.0099307 -0.05164 -0.32732 0.003998
620000000 -0.27405 0.082683 -0.023623 0.0093552 0.0038346 0.0085986 0.0084677 -0.0050658
0.01195 8.6716e-05 0.00057698 -0.002611
-0.023701 0.0092832 -0.39896 0.037719 -0.019273 0.00073803 -0.0018048 -0.0023473
0.012954 -0.0044743 0.00025893 -0.0031697
0.0037936 0.008576 -0.0193 0.0007728 -0.15297 0.25274 -0.0012062 -0.0056141
-0.0036227 -0.001704 0.0083744 -0.0028813
0.0085361 -0.0049696 -0.001799 -0.0023619 -0.0012212 -0.0056252 -0.26081 0.14267
-0.039911 -0.020792 0.013109 0.028279
0.012103 -0.00022324 0.012931 -0.0045409 -0.003722 -0.0017781 -0.039987 -0.020827
-0.21107 -0.10194 -0.04475 0.012425
0.00071187 -0.0027381 0.0001704 -0.0032425 0.0083671 -0.00298 0.013217 0.028149
-0.044535 0.01277 -0.24233 -0.032264
680000000 -0.23972 0.17668 -0.026035 -0.014109 0.0051703 0.0052313 0.0016663 -0.007223
-0.0010226 -0.01175 0.0067678 -0.0072982
-0.026031 -0.014103 -0.38907 0.14047 -0.031923 -0.0011962 -0.0014203 -0.00049566
-0.0011371 -0.0097437 -0.00055356 -0.001951
0.0051754 0.0052253 -0.031958 -0.0011325 -0.10519 0.27578 -0.00085456 -0.0001308
-0.0012958 0.00056882 -0.0027958 -0.008767
0.0016352 -0.0072148 -0.0014138 -0.00049183 -0.00085354 -0.00013217 -0.21787 0.19624
-0.023846 -0.0068767 -0.0088734 -0.010794
-0.0010137 -0.01174 -0.001138 -0.0097445 -0.0012448 0.00056859 -0.023802 -0.0068401
-0.28435 -0.00068013 -0.0054025 -0.0068846
0.0066121 -0.0070635 -0.00069589 -0.0019502 -0.0028969 -0.0087598 -0.0087483 -0.010829
-0.0055337 -0.0070312 -0.26051 0.071755
740000000 -0.19257 0.16938 -0.040248 0.027123 0.013178 -0.0039722 -0.00032889 -0.0040368
-0.0040236 -0.0014673 -0.0067294 0.0028476
-0.040288 0.027119 -0.33449 0.15908 -0.036049 0.03431 -3.2079e-05 -0.0060525
-0.012374 0.0068094 -0.0013343 -0.005397
0.013195 -0.0040509 -0.036014 0.034365 -0.071567 0.27534 -0.002132 0.0031747
-0.00067658 -0.0052806 -0.0020957 0.00045574
-0.00033918 -0.0040902 -4.2698e-05 -0.0060572 -0.0021685 0.0031592 -0.20077 0.20184
-0.042435 -0.0096258 0.02191 0.01692
-0.0040039 -0.0014988 -0.012338 0.0068641 -0.00070492 -0.0052781 -0.042439 -0.0095381
-0.17964 0.037815 -0.043885 -0.0012525
-0.0067904 0.0027919 -0.001274 -0.0054675 -0.0021058 0.0004351 0.021928 0.016856
-0.043629 -0.0014637 -0.25228 0.075469
800000000 -0.16505 0.21473 -0.022282 0.016148 0.0053134 -0.010387 -0.0043241 -0.0027727
-0.004348 0.0016992 0.0042336 7.1148e-05
-0.0223 0.016098 -0.3434 0.23038 -0.0082152 0.03404 -0.0023582 0.0019803
-0.00039587 0.0023067 0.00034808 0.0052646
0.0053037 -0.010404 -0.008135 0.034081 -0.033671 0.3013 0.0010117 0.0013067
-0.00034936 0.0032363 -0.0013611 0.00061569
-0.0043714 -0.0026782 -0.0023413 0.001993 0.0010037 0.0013073 -0.17205 0.22993
-0.029246 0.012907 0.015209 -0.010364
-0.0042514 0.0016944 -0.00042711 0.0023092 -0.00033232 0.0032468 -0.029236 0.013027
-0.23752 0.060395 -0.019148 0.021455
0.0043431 0.00025548 0.00044621 0.0052551 -0.0013523 0.00064356 0.015195 -0.010383
-0.019098 0.021427 -0.24808 0.1291
860000000 -0.1296 0.23613 -0.01799 0.030476 -0.0033944 -0.0097782 -0.0021097 0.00048945
0.0041686 0.0054239 -0.0037016 -0.0030506
-0.017933 0.030452 -0.29556 0.27492 0.0078738 0.033826 6.8908e-05 0.0019784
0.0036734 0.00068235 0.0035907 0.00035112
-0.0034177 -0.0097804 0.0079806 0.033802 0.015509 0.31115 -0.0005272 -0.00039406
0.002534 -0.0016921 0.0016095 0.0041264
-0.0021278 0.00043137 0.00010261 0.0019858 -0.00055587 -0.00039955 -0.13521 0.2411
-0.018534 0.017731 -0.0061854 -0.0093471
0.0040728 0.0054052 0.0036899 0.00057658 0.0025517 -0.0016953 -0.018571 0.017652
-0.1824 0.12381 -0.026178 0.016798
-0.0038719 -0.0028624 0.0034708 0.0003918 0.0015764 0.0041497 -0.006182 -0.0093332
-0.026127 0.016647 -0.19793 0.17651
920000000 -0.1069 0.25874 0.0048682 0.039013 -0.0092405 -0.0043011 -0.0020207 0.001665
0.00018718 0.0016348 0.0031637 -0.0014709
0.0048963 0.038985 -0.26942 0.29634 0.027897 0.022306 0.0013854 0.001065
0.0073557 9.3549e-05 0.003892 -0.0029522
-0.0092403 -0.004292 0.027984 0.022244 0.061416 0.31243 0.0018026 -4.9441e-05
0.00057947 -0.0003015 0.00090161 -0.0013194
-0.0019772 0.0016098 0.0014169 0.0010591 0.0018091 -5.9538e-05 -0.11165 0.2576
-0.012397 0.030645 0.0044119 -0.0065187
0.00025656 0.001685 0.0073893 0.00010759 0.00059875 -0.00029306 -0.012277 0.03071
-0.1759 0.12657 -0.0035518 0.028846
0.0031517 -0.0015387 0.0039063 -0.0029666 0.00088282 -0.001346 0.0044464 -0.0065377
-0.00368 0.028892 -0.20709 0.18906
980000000 -0.060869 0.28115 0.016955 0.03002 -0.0091079 0.0045798 0.0017185 0.003573
0.0038806 -0.0015075 -0.0033903 -0.0028382
0.016909 0.030016 -0.21739 0.33427 0.032803 0.0046692 0.0019849 -0.00020721
0.0021464 -0.0061021 -0.00060167 -0.0028556
-0.0090725 0.0046094 0.032858 0.0045541 0.1081 0.3079 0.00040815 -0.0011852
0.00030693 -0.0017799 0.0012465 -0.00036895
0.0017581 0.0036486 0.0019583 -0.00020994 0.00040899 -0.0011901 -0.073006 0.26966
0.0071121 0.030545 -0.0093461 -0.007959
0.0038784 -0.0014939 0.0021287 -0.00611 0.00027527 -0.0017647 0.0071618 0.030539
-0.14618 0.16553 0.0050099 0.020787
-0.0033664 -0.0028779 -0.00055493 -0.0027969 0.0012669 -0.00037357 -0.009318 -0.0078973
0.0049511 0.020789 -0.16728 0.23959
1040000000 -0.018916 0.28958 0.033153 0.01915 -0.0011169 0.0072898 0.0023489 0.00067836
0.00036637 -0.0032795 -0.00014278 -0.0014214
0.033101 0.019194 -0.18178 0.34779 0.029098 -0.014619 0.0015262 -0.0018255
-0.0024254 -0.0024524 -0.0010667 -0.002963
-0.0010864 0.0073162 0.029064 -0.014761 0.15525 0.29392 -0.00055967 -0.0013799
-0.0016009 -0.00099367 -0.00066778 -0.0010167
0.0023409 0.00066385 0.001509 -0.0018268 -0.00054074 -0.0013828 -0.045493 0.27846
0.01886 0.019563 -0.002149 0.0010893
0.00027855 -0.0032443 -0.0024417 -0.0024282 -0.0016096 -0.00098226 0.018941 0.019555
-0.11356 0.17395 0.013454 0.01993
-0.00019918 -0.0014254 -0.0011112 -0.0029465 -0.00065601 -0.0010376 -0.0021231 0.001106
0.013391 0.019911 -0.14536 0.2592
1100000000 0.024774 0.30056 0.036397 -0.0034685 0.0033449 0.0039553 0.0023728 -0.0007863
-0.0022648 -0.0030455 -0.0041862 -5.1228e-05
0.036368 -0.0034477 -0.13932 0.36798 0.014817 -0.027522 -0.00012098 -0.0018417
-0.0033955 -0.0010313 -0.0039032 -0.00051411
0.0033478 0.0039529 0.014729 -0.027609 0.20105 0.2745 -0.0017891 0.00033219
-0.0017832 0.00064341 -0.0011222 -0.00036344
0.0023887 -0.00078772 -0.00012439 -0.0018464 -0.00178 0.00033003 -0.0059201 0.28385
0.024869 0.00682 -0.002658 -0.00032605
-0.0023208 -0.0030248 -0.003406 -0.0010181 -0.0017791 0.00064337 0.024872 0.0067699
-0.097127 0.19183 0.019935 0.010439
-0.0041222 1.0003e-05 -0.0038762 -0.00050671 -0.0011349 -0.00037498 -0.0026114 -0.00029266
0.019893 0.01049 -0.1014 0.29194
1160000000 0.076993 0.29731 0.024539 -0.020407 0.0031293 -0.00057864 5.9255e-05 -0.002321
-0.0041821 -0.0010282 -0.0013956 0.0042823
0.024539 -0.020375 -0.093768 0.37327 -0.0040498 -0.028352 -0.0015801 -0.0014392
-0.0028198 0.0024306 -0.0017994 0.0018713
0.0031317 -0.00058962 -0.0041793 -0.028381 0.24559 0.24404 -0.00065946 0.0016527
-0.00038692 0.0018054 -0.00090264 0.00042237
6.3007e-05 -0.0023176 -0.0015921 -0.0014189 -0.00065132 0.0016593 0.034192 0.28099
0.022388 -0.0095478 -0.0036814 0.0049501
-0.0041366 -0.0010326 -0.0027751 0.0024623 -0.00037195 0.0018073 0.022396 -0.009569
-0.060978 0.2042 0.019769 0.0013625
-0.001445 0.004294 -0.0017577 0.0018435 -0.00091641 0.00043257 -0.0037121 0.0049463
0.019797 0.0013844 -0.05281 0.29596
1220000000 0.12046 0.28727 0.011463 -0.030004 -0.0012252 -0.001223 0.00010633 -0.001068
-0.0026737 0.0021777 0.0011781 0.0020612
0.011474 -0.029957 -0.050506 0.38709 -0.016851 -0.020531 -0.0025309 0.00051796
9.9689e-06 0.0031363 -0.00075717 0.0018708
-0.0012409 -0.0012151 -0.016949 -0.020487 0.28439 0.20468 0.00091376 0.0015217
0.00066608 0.001139 0.00024039 0.00056397
0.00011159 -0.0010688 -0.0025481 0.00052037 0.00091889 0.0015186 0.073031 0.27211
0.011673 -0.016734 0.0019957 0.0016235
-0.0026884 0.0021776 2.3519e-05 0.0031524 0.00067841 0.0011465 0.011652 -0.016741
-0.040159 0.21513 0.015476 -0.012759
0.0012243 0.0020548 -0.00074806 0.0018843 0.00023894 0.00056826 0.0020047 0.0016379
0.015437 -0.012691 -0.023705 0.31427
1280000000 0.17114 0.26856 -0.007358 -0.02888 -0.0017238 0.0018656 -0.00092189 -0.0021407
-0.0010108 0.0034157 0.0025087 0.0014068
-0.0073349 -0.028862 -0.0034132 0.37996 -0.02361 -0.0076569 -0.00086756 0.0014416
0.0017608 0.0018819 0.00065963 0.0020991
-0.0017319 0.0018647 -0.023682 -0.0075548 0.31542 0.16183 0.0014203 -0.00010424
0.0010955 0.00047745 0.0002703 0.0003984
-0.00092748 -0.002139 -0.00085135 0.0014261 0.0014109 -0.00011737 0.10977 0.2568
0.002309 -0.01967 -0.00027861 0.00030754
-0.00097871 0.0034085 0.0017753 0.0018924 0.0010751 0.00046928 0.0022708 -0.019704
-0.0033423 0.22331 0.0037731 -0.015801
0.0024743 0.0014007 0.00065383 0.0021302 0.00027133 0.00038588 -0.00026435 0.00025616
0.0038268 -0.015777 0.025348 0.31868
1340000000 0.20912 0.23518 -0.017025 -0.019436 0.00064175 0.0041795 -0.0019824 -0.00080112
0.0014592 0.0028614 0.0018928 -0.0014569
-0.016982 -0.019436 0.036676 0.37216 -0.020566 0.0049091 -0.00016499 0.0020315
0.0019001 0.00099634 0.0012085 0.0007861
0.00065071 0.0041642 -0.020565 0.0050068 0.33859 0.11297 0.00087835 -0.00093574
0.00061449 -0.00048399 0.00010334 0.00013059
-0.0019754 -0.00080694 -0.00014413 0.0020298 0.00088412 -0.000943 0.14309 0.23596
-0.0075789 -0.017226 0.00087312 0.00054632
0.001471 0.0028639 0.0018973 0.00098206 0.0006041 -0.00048715 -0.007607 -0.017222
0.025607 0.22108 -0.0029707 -0.014534
0.0018785 -0.0014743 0.0012129 0.00075921 9.5464e-05 0.00013863 0.00090441 0.0005666
-0.0029805 -0.014519 0.06342 0.31481
1400000000 0.24279 0.19875 -0.023346 -0.0081139 0.0048737 0.0029456 -0.0022067 0.00082961
0.0026404 0.0010582 0.00040557 -0.0013098
-0.023312 -0.0081324 0.074239 0.36062 -0.013752 0.012575 0.0013189 0.0013374
0.0012679 -0.00069261 0.0011372 0.00024078
0.0048919 0.0029305 -0.013702 0.012665 0.35139 0.05915 -6.3294e-05 -0.0013837
0.0002256 -8.6823e-05 0.0004322 0.00017139
-0.0021948 0.00083014 0.0013338 0.0013307 -5.5869e-05 -0.0013785 0.17219 0.2077
-0.014145 -0.010633 -0.00078119 -0.00022295
0.0026154 0.0010513 0.0012757 -0.00071402 0.00020255 -0.00010797 -0.014197 -0.010589
0.0584 0.22114 -0.0098968 -0.0094496
0.00041789 -0.0013167 0.00116 0.00022853 0.00045075 0.00018197 -0.00079475 -0.00022875
-0.009903 -0.0094665 0.10812 0.30573
1460000000 0.26749 0.15558 -0.02044 0.0042949 0.0051406 -0.0017734 -0.001549 0.0017658
0.002241 -0.00036098 -0.0002571 -0.00097958
-0.02042 0.0042925 0.11012 0.33899 -0.0047444 0.014898 0.0016483 0.00019782
0.001134 -0.0013096 0.001218 -0.00059052
0.0051426 -0.0017871 -0.0046885 0.014946 0.35822 0.0042739 -0.00106 -0.0010779
0.00033852 -0.00030532 0.00074054 -0.00025562
-0.0015316 0.0017557 0.0016502 0.00018815 -0.0010732 -0.0010801 0.19986 0.1789
-0.015524 -0.0040656 -0.00095184 0.0021061
0.0022636 -0.00037789 0.0011231 -0.0013216 0.00035332 -0.00026832 -0.015531 -0.0040252
0.088795 0.21041 -0.012155 -0.0031226
-0.00030148 -0.00093402 0.0012203 -0.00057701 0.0007265 -0.0002611 -0.00098141 0.0021061
-0.012146 -0.0031516 0.14257 0.28614
1520000000 0.28013 0.11338 -0.015037 0.0098684 0.0031089 -0.0040278 0.00020426 0.0026625
0.0024922 -0.0019559 -0.0010545 -0.00017539
-0.015031 0.0098421 0.14407 0.3244 0.0025101 0.012011 0.0016894 -0.0007548
0.00020257 -0.0010817 0.00039152 -0.00099128
0.0030883 -0.0040357 0.0025698 0.012009 0.35023 -0.05387 -0.00082148 -0.00036051
0.00073178 -0.0010636 0.00011921 -0.00012593
0.0002097 0.0026773 0.0016999 -0.00075901 -0.00083763 -0.00036663 0.22315 0.14009
-0.015562 0.0018225 0.0014793 0.0021651
0.0024814 -0.0019603 0.00018829 -0.0010859 0.00071839 -0.0010841 -0.015579 0.0018522
0.11645 0.2004 -0.012139 0.0014148
-0.0010414 -0.00017833 0.00038953 -0.00099458 0.00012815 -0.00012111 0.0015143 0.0021408
-0.012097 0.0014331 0.1758 0.26689
1580000000 0.29052 0.068403 -0.0085249 0.013322 -0.0012869 -0.0046689 0.0015911 0.0018079
-0.00013388 -0.0023499 -0.00021897 0.00036905
-0.008542 0.013306 0.17193 0.30043 0.0055027 0.006731 0.00053516 -0.0015707
-0.00045609 -0.001185 -0.00020251 -0.00073578
-0.0013075 -0.0046487 0.0055339 0.0067072 0.3288 -0.11038 -0.0014772 0.00033688
-0.00043796 -0.0013703 0.00020359 -0.00042359
0.0015999 0.0018125 0.00052658 -0.001577 -0.0014679 0.0003264 0.23748 0.10114
-0.012279 0.0073156 0.0023386 0.00073169
-0.00016572 -0.0023509 -0.00047046 -0.0011797 -0.00043649 -0.0013705 -0.012256 0.007356
0.14226 0.18691 -0.0093307 0.007856
-0.00020786 0.00037288 -0.00020231 -0.00072546 0.00019718 -0.00042261 0.0023084 0.00073794
-0.0093483 0.0078266 0.20923 0.24242
1640000000 0.29369 0.026552 -0.001718 0.012257 -0.0028236 -0.0021116 0.0027533 0.0010105
-0.00057718 -0.0018157 -0.0003579 0.00040216
-0.0017331 0.012234 0.20288 0.27503 0.0054737 0.0020097 -0.0005444 -0.0018072
-0.0009805 -0.00058012 -0.00048388 -0.0007091
-0.0028422 -0.0021157 0.0054884 0.0019798 0.29929 -0.16026 -0.00079393 0.0013091
-0.0012012 -0.0011384 -0.00016933 -0.0003155
0.002764 0.0010044 -0.00054586 -0.0018168 -0.000781 0.0013003 0.25082 0.050961
-0.0081242 0.0088485 0.0026516 -0.00065046
-0.00057706 -0.0017809 -0.00099105 -0.00057367 -0.0012028 -0.0011333 -0.0081106 0.0088777
0.16693 0.1663 -0.0044885 0.010051
-0.00038938 0.00038452 -0.00048042 -0.00070866 -0.00015801 -0.00030507 0.0026742 -0.00066885
-0.0044609 0.01007 0.23608 0.2116
1700000000 0.28623 -0.018163 0.0017701 0.0095342 -0.0033073 0.00031879 0.0031157 -0.0013597
-0.0022467 -0.00074516 0.00056605 0.00049112
0.0017657 0.0095407 0.22056 0.24372 0.0027603 -0.00056353 -0.0014803 -0.00070062
-0.00089813 -0.00017346 -0.00087675 -0.00046273
-0.0033201 0.00034501 0.0027543 -0.00058195 0.25405 -0.19818 0.00020864 0.0017173
-0.0021828 -0.00015363 -0.00034612 -0.00082514
0.0031189 -0.001363 -0.0014754 -0.00068575 0.00019876 0.0017207 0.24676 0.00055357
-0.0052429 0.0099893 0.0018386 -0.0022132
-0.0022294 -0.00072787 -0.00089188 -0.00016001 -0.0022046 -0.00016424 -0.005208 0.010004
0.18583 0.15004 0.00061296 0.010177
0.00057614 0.00050424 -0.0008817 -0.00045485 -0.00035857 -0.00081003 0.0018343 -0.0022414
0.00061919 0.01013 0.25303 0.17825
1760000000 0.2759 -0.06661 0.0041806 0.0063685 -0.0021636 0.0012399 0.0012222 -0.0034616
-0.0014039 0.00057327 0.00014843 -0.00054875
0.0041712 0.0063636 0.24795 0.20415 3.9348e-05 -0.0019169 -0.0012563 6.492e-05
-0.0011895 0.00099583 -0.00055993 0.00029984
-0.0021482 0.0012601 3.4335e-05 -0.0019181 0.20588 -0.23001 0.0012097 0.0013925
-0.0011613 0.0017072 -0.0013158 -0.00072791
0.0012062 -0.0034764 -0.0012492 6.9587e-05 0.0012205 0.0013801 0.23849 -0.051183
-0.0013195 0.0094456 -3.3618e-06 -0.002599
-0.0013874 0.00057042 -0.0011789 0.0010088 -0.0011859 0.0017032 -0.0013248 0.0094696
0.20406 0.11919 0.0046121 0.0074002
0.0001395 -0.00055082 -0.00057207 0.00030105 -0.0013323 -0.00073482 4.7035e-06 -0.0025667
0.0046083 0.0074398 0.26764 0.14153
1820000000 0.25148 -0.10488 0.0044674 0.0027851 0.00019409 0.0023786 -0.00097266 -0.0030712
-0.0012737 0.00091695 -3.2e-05 -0.00012534
0.0044565 0.0027935 0.25782 0.17337 -0.0022319 -5.9551e-05 -0.0014533 0.00097344
-3.773e-05 0.0012581 -0.00069294 0.00045518
0.0002117 0.0023862 -0.002228 -4.027e-05 0.15484 -0.24504 0.0016894 0.00052697
-0.00015646 0.00238 -0.0017248 0.00021382
-0.00098529 -0.0030387 -0.0014488 0.00099089 0.0016881 0.00053539 0.20713 -0.099599
0.00057505 0.008161 -0.0016814 -0.0018888
-0.00129 0.00093086 -3.1854e-05 0.0012627 -0.0001285 0.002384 0.00061236 0.008162
0.22434 0.092636 0.0056584 0.0034221
-1.4006e-05 -0.0001299 -0.00068163 0.00046211 -0.001727 0.00018837 -0.0016934 -0.0019001
0.0056696 0.0033998 0.27106 0.10581
1880000000 0.21625 -0.14458 0.0021572 0.00056877 -0.0001948 0.0022918 -0.0029261 -0.0023491
-0.00024284 0.0017176 0.00033263 -0.00050032
0.0021575 0.00056603 0.26217 0.12761 -0.004114 0.0028489 -0.00026953 0.0018123
0.00058908 0.0013857 0.00011317 0.0010452
-0.00017576 0.0022906 -0.0041008 0.002863 0.10293 -0.25147 0.0020359 -0.0011916
0.0018135 0.0019664 -0.00099195 0.0015919
-0.0029422 -0.0023307 -0.00025851 0.0018162 0.0020289 -0.0011831 0.16593 -0.13877
0.0020168 0.0060258 -0.0024241 5.2187e-05
-0.0002006 0.0017011 0.00061584 0.0013872 0.0018023 0.0019761 0.0020072 0.0059929
0.23186 0.065094 0.0061728 0.0011515
0.0003295 -0.00046833 8.1145e-05 0.0010498 -0.0010058 0.0016414 -0.0024204 3.4811e-05
0.0061443 0.0011603 0.27238 0.072772
1940000000 0.17788 -0.17142 6.0297e-05 -0.0010572 0.0019269 0.001919 -0.0038998 0.00036155
0.0012158 0.00090486 -0.00062411 -0.00070517
4.554e-05 -0.0010693 0.26389 0.095479 -0.002067 0.0059936 0.0011771 0.0014397
0.0020781 0.00041466 0.00092255 0.00034286
0.0019333 0.0018995 -0.0020258 0.0060071 0.059606 -0.24347 0.00051488 -0.0024088
0.0023099 0.00020663 0.00026832 0.0018177
-0.003868 0.00038829 0.0011697 0.0014468 0.000523 -0.0024059 0.1134 -0.17021
0.0015804 0.0040075 -0.0016901 0.0013364
0.0012122 0.00088382 0.002072 0.00040059 0.0023218 0.00018965 0.0016263 0.0040454
0.23985 0.028349 0.0046936 -0.0030361
-0.00065572 -0.00068855 0.00093478 0.0003278 0.00027942 0.0018052 -0.0015918 0.001294
0.0047011 -0.0030217 0.2636 0.036
2000000000 0.13089 -0.18551 -0.0037155 0.0010265 0.0029349 0.0011655 -0.0025241 0.0038016
0.00071453 0.00037398 -0.00088597 0.00050573
-0.0037036 0.0010211 0.24934 0.060209 -0.00038904 0.0080612 0.0016257 0.00020953
0.0011877 -0.0014518 0.00050983 7.7727e-05
0.0029529 0.001167 -0.00033028 0.0080677 0.017894 -0.22859 -0.0016392 -0.0016262
0.0020064 -0.0011786 0.0017495 0.0013875
-0.0024992 0.0038113 0.0016213 0.00020278 -0.0016455 -0.00164 0.058755 -0.17933
-0.00019093 0.0033579 -1.9445e-05 0.0021611
0.00073184 0.00037439 0.0011836 -0.0014737 0.0020003 -0.0011816 -0.00017583 0.0033263
0.23851 -0.0039676 0.0011863 -0.0040819
