!Keysight Technologies,M9804A,MY58100912,A.14.10.03
!Date: Thursday, April 27, 2023 10:28:33
!Correction: S11(C  6-Port  ) 
!S12(C  6-Port  ) 
!S13(C  6-Port  ) 
!S14(C  6-Port  ) 
!S15(C  6-Port  ) 
!S16(C  6-Port  ) 
!S21(C  6-Port  ) 
!S22(C  6-Port  ) 
!S23(C  6-Port  ) 
!S24(C  6-Port  ) 
!S25(C  6-Port  ) 
!S26(C  6-Port  ) 
!S31(C  6-Port  ) 
!S32(C  6-Port  ) 
!S33(C  6-Port  ) 
!S34(C  6-Port  ) 
!S35(C  6-Port  ) 
!S36(C  6-Port  ) 
!S41(C  6-Port  ) 
!S42(C  6-Port  ) 
!S43(C  6-Port  ) 
!S44(C  6-Port  ) 
!S45(C  6-Port  ) 
!S46(C  6-Port  ) 
!S51(C  6-Port  ) 
!S52(C  6-Port  ) 
!S53(C  6-Port  ) 
!S54(C  6-Port  ) 
!S55(C  6-Port  ) 
!S56(C  6-Port  ) 
!S61(C  6-Port  ) 
!S62(C  6-Port  ) 
!S63(C  6-Port  ) 
!S64(C  6-Port  ) 
!S65(C  6-Port  ) 
!S66(C  6-Port  ) 
!S6P File: Measurement: :
# Hz S  RI   R 50
500000000 -0.32635 -0.059133 -0.010423 -0.0008746 -0.0082727 0.012259 -0.0035137 0.012608
0.012982 0.0060389 -0.0046335 0.0091724
-0.010421 -0.00074782 -0.40912 -0.071451 0.0076239 -0.010827 0.0013996 0.012208
0.0086331 0.0037517 0.0014772 0.014223
-0.0083057 0.012275 0.0075158 -0.010793 -0.25532 0.1951 0.006893 0.0035859
-0.0023046 0.0081692 0.001176 0.012637
-0.0036671 0.012233 0.0011045 0.012051 0.0067405 0.0036476 -0.32617 0.043839
-0.02051 -0.0050635 0.016198 0.025627
0.013174 0.0065797 0.0092282 0.0035335 -0.0021011 0.0081129 -0.020717 -0.0047196
-0.20937 -0.24817 -0.02931 0.0046681
-0.0042259 0.0091927 0.0010463 0.014448 0.0010626 0.012716 0.015761 0.025693
-0.02922 0.0046853 -0.25796 -0.146
560000000 -0.31503 0.10584 -0.022532 -0.065297 0.00084261 0.01261 0.0045837 0.010973
0.012471 0.0054852 0.010743 0.010468
-0.022436 -0.065262 -0.36905 0.091949 -0.04137 -0.03754 0.013922 0.0042163
-0.013705 -0.0055527 0.0044894 -9.4283e-05
0.00031673 0.012347 -0.041219 -0.037749 -0.17949 0.24407 -0.00027481 -0.0051196
0.017066 0.0069236 0.0077141 -0.0061565
0.0052606 0.012102 0.013509 0.0033313 5.9595e-05 -0.0052404 -0.30349 0.13462
0.0068118 -0.022824 0.0054556 -0.021295
0.012709 0.0053182 -0.013809 -0.005229 0.017686 0.0068284 0.0075061 -0.022815
-0.3001 -0.063673 0.012357 -0.051403
0.0097645 0.010643 0.0046105 -0.00062912 0.0080474 -0.005701 0.0052005 -0.021097
0.012317 -0.051865 -0.32733 0.0056783
620000000 -0.27374 0.083738 -0.023496 0.0092063 0.0037751 0.0088453 0.008247 -0.0047987
0.012341 -0.0005109 0.00049966 -0.0018482
-0.023442 0.0091714 -0.39882 0.038022 -0.019052 0.00097717 -0.0012824 -0.0023894
0.012321 -0.0047787 0.0011288 -0.0030224
0.0039444 0.0087673 -0.019009 0.00096713 -0.15264 0.25264 -0.0011024 -0.0055855
-0.0042484 -0.0022352 0.009364 -0.0032615
0.0084009 -0.0043327 -0.0014203 -0.0021936 -0.00090782 -0.0054013 -0.26182 0.14297
-0.039768 -0.01923 0.012195 0.026859
0.012294 -0.00062319 0.012328 -0.0046535 -0.0039082 -0.0022088 -0.038666 -0.020499
-0.21055 -0.10444 -0.044629 0.015688
0.00079291 -0.002533 0.0010804 -0.0030768 0.0091129 -0.0026626 0.0108 0.027126
-0.045113 0.014325 -0.24276 -0.035495
680000000 -0.23951 0.17623 -0.026229 -0.014255 0.0050111 0.0050324 0.0014761 -0.0070108
-0.0013636 -0.011552 0.0062932 -0.0071869
-0.02626 -0.0142 -0.38899 0.14053 -0.031879 -0.0013128 -0.0014956 -0.00036071
-0.0011499 -0.0099535 -0.0010502 -0.0016614
0.004962 0.0051652 -0.031873 -0.0011755 -0.10518 0.27575 -0.00076719 9.8675e-06
-0.0012307 0.00029478 -0.002705 -0.0088338
0.0015398 -0.006897 -0.0015415 -0.00031222 -0.00081998 -0.00011821 -0.21834 0.19626
-0.023634 -0.0075062 -0.0085483 -0.010928
-0.0011963 -0.011304 -0.0013618 -0.0096667 -0.0012135 0.00043807 -0.023683 -0.0074391
-0.2839 0.00087845 -0.0056241 -0.0076844
0.0062508 -0.0074033 -0.00094767 -0.0019151 -0.0028419 -0.0090057 -0.0083015 -0.010473
-0.0052129 -0.0073914 -0.26214 0.074099
740000000 -0.19262 0.1693 -0.040362 0.027183 0.013368 -0.0039939 -0.00032448 -0.0036394
-0.0032466 -0.0020819 -0.0064649 0.0032341
-0.040297 0.027079 -0.33476 0.15918 -0.036227 0.03426 7.9477e-05 -0.0061125
-0.012999 0.0069226 -0.0014216 -0.0056824
0.013404 -0.0041035 -0.036223 0.034507 -0.071557 0.27534 -0.0020589 0.0031185
-0.00073786 -0.0054796 -0.0017635 0.0008539
-0.00026567 -0.003815 -6.4081e-05 -0.0061809 -0.0020345 0.0033874 -0.20066 0.20231
-0.042035 -0.0098255 0.022571 0.016654
-0.003236 -0.0020452 -0.013164 0.0074149 -0.0010175 -0.0061374 -0.042033 -0.01004
-0.18099 0.039428 -0.043763 -0.00089783
-0.0067484 0.002859 -0.0012339 -0.0060559 -0.0018072 0.0013166 0.022328 0.016939
-0.043772 -0.0013774 -0.25097 0.075399
800000000 -0.16513 0.21504 -0.022185 0.016145 0.0054432 -0.010204 -0.0041671 -0.0026052
-0.0046904 0.0014961 0.0047185 0.00037328
-0.022143 0.01614 -0.34337 0.23053 -0.0082333 0.034185 -0.0023244 0.0021004
-0.00070449 0.001875 0.00087441 0.0054527
0.0054062 -0.010321 -0.0081013 0.034184 -0.033721 0.30136 0.0010208 0.0013284
-0.00034269 0.0032317 -0.0014053 0.0005418
-0.0042626 -0.0026845 -0.0022938 0.0021387 0.00096771 0.0012973 -0.17208 0.23009
-0.028901 0.012611 0.014951 -0.0098438
-0.0046704 0.0016865 -0.00042686 0.0021079 -0.00028044 0.0032643 -0.02887 0.012736
-0.23818 0.060353 -0.017679 0.0211
0.004657 0.00034994 0.00062186 0.0053236 -0.0015884 0.00056858 0.014707 -0.01016
-0.017824 0.020875 -0.24852 0.12918
860000000 -0.12958 0.23597 -0.017821 0.030297 -0.0033229 -0.0098138 -0.0020721 0.00068915
0.0040647 0.0050096 -0.0039105 -0.0031409
-0.017792 0.030285 -0.29537 0.27502 0.0078641 0.033785 0.00013785 0.0021596
0.0038745 0.00016919 0.003745 0.00028818
-0.0033408 -0.0098688 0.0080149 0.033811 0.015488 0.31113 -0.00039602 -0.00030154
0.0024576 -0.0018485 0.0014454 0.0042345
-0.0019702 0.00068141 -1.4238e-06 0.0022931 -0.00040588 -0.00029458 -0.13491 0.2413
-0.018238 0.017566 -0.0065237 -0.010309
0.0042158 0.005318 0.0037225 0.00041966 0.0024081 -0.001757 -0.018277 0.017611
-0.18085 0.12314 -0.026125 0.017014
-0.0038106 -0.0032887 0.0037964 2.2484e-05 0.0016654 0.0041012 -0.0062016 -0.010102
-0.026153 0.016728 -0.19764 0.17736
920000000 -0.10696 0.25885 0.0049241 0.03908 -0.0092077 -0.0043266 -0.0020696 0.0016238
0.00047905 0.0016885 0.0030605 -0.0017015
0.0048776 0.039055 -0.26917 0.2964 0.027979 0.022342 0.0012864 0.0010709
0.0075391 0.00045534 0.0039888 -0.0029238
-0.0092219 -0.0042732 0.0281 0.022286 0.06141 0.3125 0.0017299 -9.2001e-05
0.00070607 -0.00024377 0.0008966 -0.0017043
-0.0020403 0.001545 0.0012305 0.00098806 0.0017174 -0.00010333 -0.11161 0.25741
-0.012589 0.030712 0.004353 -0.0063888
0.00029608 0.0016156 0.0075188 0.00032949 0.00064964 -0.00029711 -0.012369 0.030889
-0.17484 0.12664 -0.0031574 0.029406
0.0030944 -0.0014247 0.0039685 -0.0028834 0.00081932 -0.0015169 0.0042817 -0.0065886
-0.003172 0.029059 -0.20811 0.18917
980000000 -0.06079 0.28139 0.016871 0.030171 -0.0091558 0.0046463 0.0018252 0.0034466
0.0035898 -0.0014521 -0.0032032 -0.0028298
0.016819 0.030155 -0.21735 0.33436 0.032755 0.0047942 0.0019691 -0.00019818
0.0019347 -0.0062092 -0.00046578 -0.0027513
-0.0091645 0.0046732 0.032788 0.0046759 0.10807 0.30793 0.00043603 -0.0011668
0.00033341 -0.0017004 0.001409 -0.00038924
0.0018619 0.0035543 0.00191 -0.00023901 0.00044411 -0.001226 -0.07295 0.26951
0.0067873 0.030507 -0.0093643 -0.0082267
0.0037743 -0.0013687 0.001979 -0.0062184 0.0003053 -0.001698 0.0069233 0.030552
-0.14648 0.16555 0.0051476 0.020642
-0.0033521 -0.0030336 -0.00055452 -0.0028147 0.0014277 -0.00039822 -0.0092704 -0.0081216
0.0052104 0.020553 -0.16623 0.23908
1040000000 -0.018952 0.28959 0.033153 0.019124 -0.00098565 0.0072841 0.002357 0.0006909
0.00047466 -0.0033863 -0.00012493 -0.00144
0.033115 0.019148 -0.1817 0.34774 0.029142 -0.014607 0.0014601 -0.0017698
-0.0024772 -0.002422 -0.0011907 -0.0028968
-0.00096592 0.0072795 0.029104 -0.014779 0.15524 0.29395 -0.00065934 -0.0013643
-0.0016308 -0.0010157 -0.00069467 -0.0010425
0.0022312 0.00069179 0.0014139 -0.0018165 -0.00062491 -0.0013818 -0.04531 0.27849
0.018739 0.019528 -0.0022957 0.0012689
0.00037447 -0.0034341 -0.0025213 -0.0025461 -0.001574 -0.0010699 0.018711 0.019465
-0.11346 0.17428 0.01308 0.019904
-0.00038416 -0.0015189 -0.0012169 -0.0029025 -0.0006038 -0.00098296 -0.0023801 0.0012777
0.013129 0.020024 -0.14465 0.25934
1100000000 0.024887 0.3007 0.036352 -0.0034434 0.0033113 0.0039756 0.0023852 -0.00086113
-0.0024361 -0.0030941 -0.0040211 -4.0179e-05
0.036334 -0.0034076 -0.13936 0.36806 0.014792 -0.027518 -8.8779e-05 -0.0018283
-0.0034955 -0.0010918 -0.0037293 -0.00059242
0.0032803 0.003976 0.014713 -0.027592 0.20105 0.27453 -0.0017484 0.0003423
-0.0017384 0.00073318 -0.0011524 -0.00038641
0.0024636 -0.00081555 -8.0663e-05 -0.0018475 -0.001734 0.00032245 -0.0059956 0.28371
0.02489 0.0068041 -0.0026343 -0.00013956
-0.0024021 -0.0029497 -0.0035497 -0.00098837 -0.0017969 0.00072813 0.024951 0.0067973
-0.097815 0.19207 0.019843 0.010656
-0.0042666 -0.00016509 -0.0038845 -0.00056166 -0.0011214 -0.00043738 -0.0026045 -0.0001012
0.019918 0.010552 -0.10154 0.29206
1160000000 0.077073 0.29732 0.02458 -0.020322 0.0031329 -0.00060118 -5.1455e-05 -0.0022757
-0.0042376 -0.0010379 -0.0013261 0.0043512
0.024583 -0.020275 -0.093971 0.3733 -0.0040328 -0.0283 -0.0015733 -0.0015678
-0.0027006 0.0024197 -0.0017509 0.002022
0.003148 -0.00063213 -0.0041629 -0.028328 0.24556 0.24408 -0.00062463 0.001618
-0.00038396 0.0018452 -0.0008853 0.00042406
-6.6058e-05 -0.0022793 -0.0015039 -0.0014732 -0.00063639 0.0016501 0.034129 0.28106
0.02217 -0.0096063 -0.0038279 0.005003
-0.0042373 -0.0010045 -0.0027182 0.0025268 -0.00036658 0.0018695 0.022116 -0.0095894
-0.060569 0.20396 0.019422 0.0010055
-0.0012346 0.0043344 -0.0018154 0.002026 -0.00090224 0.00033512 -0.0038772 0.0048591
0.019475 0.0010476 -0.052411 0.2963
1220000000 0.12037 0.28728 0.01134 -0.029976 -0.0012318 -0.0011963 0.00014121 -0.0011231
-0.002728 0.0023103 0.0013482 0.0020062
0.011364 -0.029917 -0.050543 0.38707 -0.016878 -0.020549 -0.0024925 0.00055138
-1.2737e-05 0.0031993 -0.00072021 0.0019085
-0.0012378 -0.0011445 -0.01697 -0.020501 0.28435 0.20474 0.00091597 0.001539
0.00054168 0.001128 0.00029287 0.00054979
0.00016331 -0.0011373 -0.0024965 0.00051109 0.00091233 0.0015374 0.073081 0.27203
0.011589 -0.016702 0.0020071 0.0017745
-0.0026882 0.0022654 2.058e-05 0.0031736 0.0005771 0.0011425 0.011553 -0.016756
-0.040371 0.21539 0.015376 -0.012583
0.0012382 0.0020192 -0.00071129 0.0019658 0.00030482 0.00058212 0.002011 0.0017991
0.015365 -0.012517 -0.023406 0.31416
1280000000 0.17118 0.26862 -0.0073835 -0.028802 -0.0016811 0.0018969 -0.00094431 -0.0021673
-0.0010674 0.003277 0.0025664 0.0013931
-0.0073474 -0.028766 -0.0034542 0.37999 -0.023644 -0.0076598 -0.00086171 0.0014079
0.0017645 0.0018351 0.00063886 0.0020041
-0.0016922 0.0019122 -0.023739 -0.0075487 0.31539 0.16189 0.0013759 -0.00012108
0.0010198 0.00033152 0.00036226 0.0003275
-0.00096383 -0.0021181 -0.00083048 0.0014436 0.0014124 -7.8596e-05 0.10981 0.25692
0.002222 -0.01936 -0.00021617 0.00013946
-0.0010478 0.0033612 0.0018254 0.0019112 0.0010228 0.00034019 0.0021951 -0.019374
-0.0033426 0.22392 0.0040156 -0.015563
0.0026252 0.0013686 0.00059446 0.00196 0.00036087 0.00031252 -0.00011799 8.7841e-05
0.0040833 -0.015667 0.025035 0.31842
1340000000 0.20898 0.23522 -0.017013 -0.01937 0.00060524 0.0042278 -0.0019383 -0.00080456
0.0015117 0.0028997 0.0017625 -0.0014937
-0.016991 -0.01937 0.036639 0.37216 -0.020589 0.0049003 -0.00019741 0.0020403
0.0019456 0.00084958 0.0011689 0.000766
0.00064916 0.0042193 -0.020596 0.0049893 0.33848 0.11302 0.00089669 -0.00094724
0.00060809 -0.00060296 8.7435e-05 0.00019351
-0.0019401 -0.00085497 -0.00019065 0.0020309 0.00088761 -0.00092131 0.1431 0.23604
-0.0076429 -0.017175 0.00092128 0.00070332
0.0015861 0.0027789 0.0019241 0.00085309 0.0005939 -0.00058469 -0.0076841 -0.017137
0.025581 0.22109 -0.0030706 -0.014082
0.00179 -0.0014475 0.0012741 0.00078265 0.0001162 0.0001861 0.00085436 0.00076243
-0.0030311 -0.014049 0.06365 0.31429
1400000000 0.24272 0.19878 -0.023328 -0.0081179 0.0049045 0.0029115 -0.0021848 0.00081611
0.002652 0.0010889 0.00042038 -0.0014183
-0.023287 -0.0081181 0.07425 0.3606 -0.01376 0.012586 0.0013314 0.0013352
0.001244 -0.00067115 0.0011442 0.00022585
0.004899 0.0029056 -0.013731 0.012663 0.35127 0.059249 -0.00011281 -0.0013909
0.00022509 -0.00015939 0.00044981 0.0002785
-0.0022016 0.00084791 0.0013239 0.001351 -7.0254e-05 -0.0013678 0.17219 0.20767
-0.014084 -0.010537 -0.00085539 -0.00022211
0.0026852 0.0011007 0.0012042 -0.00069757 0.00021773 -0.00013026 -0.014094 -0.01049
0.058618 0.22164 -0.0096749 -0.0094024
0.00039842 -0.0014182 0.0011295 0.00018717 0.00049624 0.00028623 -0.00076377 -0.00023971
-0.0096867 -0.0093723 0.10791 0.30604
1460000000 0.2675 0.15563 -0.02043 0.0043345 0.0052114 -0.0017477 -0.0015207 0.0017609
0.0022032 -0.00034742 -0.00018911 -0.00086715
-0.020417 0.004315 0.11012 0.33899 -0.0048115 0.014918 0.001697 0.00021674
0.0011199 -0.0013364 0.0012708 -0.00054175
0.0051609 -0.0017942 -0.0047103 0.014984 0.35812 0.0043495 -0.0010544 -0.0011102
0.00024836 -0.00022382 0.000769 -0.00039555
-0.0015214 0.0017484 0.0016851 0.00022158 -0.0010741 -0.0011024 0.20005 0.17896
-0.015305 -0.0039225 -0.00099423 0.0019831
0.0021756 -0.00033493 0.0011001 -0.0013673 0.00021877 -0.00024412 -0.015312 -0.0038833
0.089075 0.21065 -0.011942 -0.0028482
-0.00028525 -0.00090708 0.0012985 -0.00058555 0.00066716 -0.00035691 -0.0010645 0.0020288
-0.011961 -0.0028687 0.14241 0.28575
1520000000 0.28016 0.11352 -0.014997 0.0098179 0.0030891 -0.0040612 0.00018348 0.0026623
0.002432 -0.0019455 -0.001069 -8.0944e-05
-0.01499 0.009799 0.14406 0.32444 0.0025228 0.012026 0.0016715 -0.00073373
0.00021882 -0.0010376 0.00034884 -0.0010315
0.0030773 -0.0040597 0.0025739 0.01203 0.35024 -0.053698 -0.00085514 -0.00036542
0.00066901 -0.0010307 0.0001211 -0.00017382
0.00016766 0.0026687 0.0016711 -0.00073482 -0.0008516 -0.00036069 0.22319 0.14003
-0.015421 0.0018014 0.0015283 0.0020473
0.0024286 -0.0019945 0.00019841 -0.0010595 0.00064881 -0.0011131 -0.015442 0.0018197
0.11666 0.20073 -0.011848 0.0014381
-0.0010506 -0.00013363 0.00037962 -0.00096791 5.94e-05 -0.00016113 0.0015514 0.0020563
-0.011819 0.0014056 0.17591 0.26704
1580000000 0.29048 0.068487 -0.0085175 0.013286 -0.0012983 -0.0046731 0.0015606 0.0018278
-0.00015301 -0.0024051 -0.00018622 0.00034792
-0.008524 0.013265 0.17196 0.30043 0.0054828 0.0067519 0.00055649 -0.0015623
-0.00045341 -0.0011947 -0.00015886 -0.00074737
-0.0012907 -0.0046732 0.0055409 0.0067362 0.32866 -0.11021 -0.0014226 0.00037724
-0.00044457 -0.0013708 0.00022486 -0.00054314
0.0015887 0.0018249 0.00054628 -0.0015696 -0.0014091 0.00040986 0.2376 0.10108
-0.012101 0.0072522 0.0021958 0.00071013
-0.00013059 -0.0024026 -0.00044442 -0.0011935 -0.00038757 -0.0013426 -0.012064 0.0072945
0.14279 0.18693 -0.0093211 0.0078206
-0.0001688 0.00037654 -0.00019406 -0.00072693 0.00021259 -0.0005621 0.002191 0.00064585
-0.0093557 0.007831 0.20947 0.24258
1640000000 0.29383 0.026662 -0.0016813 0.012265 -0.0028591 -0.002121 0.0027871 0.001007
-0.00054917 -0.0018216 -0.00032423 0.00040661
-0.0016901 0.012266 0.20285 0.27504 0.0054689 0.0020113 -0.00052199 -0.0018086
-0.00095808 -0.00059001 -0.0004327 -0.00070708
-0.0028134 -0.0021038 0.0055114 0.0019979 0.29942 -0.16015 -0.00071064 0.0012876
-0.0012955 -0.0010323 -0.00016144 -0.00038765
0.0028132 0.00098169 -0.00052255 -0.0018267 -0.00076021 0.0012399 0.25077 0.050812
-0.0079865 0.008625 0.0026395 -0.00062988
-0.00053933 -0.0018473 -0.00096475 -0.00060473 -0.0012862 -0.0010911 -0.0079946 0.0086626
0.16736 0.16647 -0.0043004 0.0097402
-0.0003094 0.00039578 -0.00041918 -0.00071487 -0.00015749 -0.00029521 0.0026813 -0.00060641
-0.0042897 0.0097486 0.23623 0.21176
1700000000 0.28626 -0.018146 0.0017899 0.0095405 -0.0033322 0.00029727 0.0031125 -0.0013736
-0.0022295 -0.00072833 0.00053857 0.00039652
0.0017744 0.0095261 0.22056 0.24377 0.0027705 -0.00059164 -0.0014904 -0.00070903
-0.00085667 -0.00020397 -0.00082417 -0.00047775
-0.0033162 0.00034019 0.0027648 -0.00057835 0.25415 -0.19823 0.00016148 0.0017167
-0.0022384 -0.00014968 -0.00026927 -0.00091255
0.0030924 -0.0013669 -0.0014731 -0.00067232 0.0001464 0.0017748 0.24687 0.00062148
-0.005164 0.0098926 0.0017779 -0.0022998
-0.0022068 -0.00073201 -0.00086251 -0.00015724 -0.0022246 -0.00011047 -0.0050895 0.0099481
0.18645 0.15006 0.00067058 0.0098898
0.00052251 0.00035521 -0.00084243 -0.00048764 -0.00027386 -0.00092662 0.0017025 -0.0023172
0.00067036 0.0098936 0.25329 0.17838
1760000000 0.27595 -0.066633 0.0041801 0.0063632 -0.0021254 0.0012953 0.0012665 -0.003451
-0.0013146 0.00054779 0.00021695 -0.00056762
0.0041792 0.0063612 0.24789 0.20414 3.1105e-05 -0.0019181 -0.0012519 8.3485e-05
-0.0012162 0.001014 -0.00056811 0.00031981
-0.0020758 0.001303 6.7046e-05 -0.0019407 0.20595 -0.22995 0.0011633 0.0013989
-0.0011931 0.0016433 -0.001266 -0.00065218
0.001222 -0.003459 -0.0012757 7.9139e-05 0.0012292 0.0013858 0.23842 -0.051397
-0.0013627 0.0092129 -0.00013624 -0.0024228
-0.0013376 0.00056957 -0.0012121 0.0010149 -0.001199 0.0016279 -0.0013344 0.0091711
0.20449 0.11898 0.0046099 0.0072504
0.00018893 -0.00054559 -0.0005522 0.00032425 -0.0012716 -0.0006323 -8.6396e-05 -0.0023671
0.004639 0.0072509 0.2679 0.14134
1820000000 0.25156 -0.10483 0.0044396 0.0028119 0.00019461 0.002441 -0.0009831 -0.0030022
-0.0012523 0.00095671 -9.2952e-05 -5.3541e-05
0.0044281 0.0027966 0.25779 0.17337 -0.0022607 -4.4564e-05 -0.0014928 0.00099148
-6.6311e-05 0.0012518 -0.00067628 0.0004443
0.00020544 0.0024029 -0.0022278 -3.3367e-05 0.15489 -0.24473 0.001783 0.00053235
-0.0002348 0.0023878 -0.0016374 0.00015223
-0.001025 -0.0030813 -0.0014725 0.00099625 0.0017192 0.00056696 0.20718 -0.099379
0.00054215 0.008053 -0.0015446 -0.0019595
-0.0012261 0.00095325 -7.5885e-05 0.0012995 -0.00022447 0.0024289 0.00061263 0.0081142
0.2249 0.09229 0.0056788 0.003263
-9.1258e-05 -2.8774e-05 -0.00069133 0.00046259 -0.0017295 0.00012093 -0.0016527 -0.0019976
0.0056617 0.0032221 0.27104 0.10587
1880000000 0.21634 -0.14455 0.0021656 0.00058939 -0.00022536 0.0023329 -0.0029121 -0.0023394
-0.00022122 0.0017481 0.00039893 -0.00052664
0.0021485 0.00059016 0.26211 0.12765 -0.0041684 0.0028106 -0.00026361 0.0018303
0.00060338 0.0014412 5.4109e-05 0.0010762
-0.00019762 0.0023613 -0.0041921 0.0028879 0.10296 -0.25141 0.0019697 -0.0011477
0.0018118 0.0019412 -0.0010496 0.0014715
-0.0029154 -0.0023138 -0.00023061 0.0018437 0.0020177 -0.0012085 0.16558 -0.13905
0.0018513 0.0056642 -0.0024827 0.00046016
-0.00017346 0.0017395 0.00061315 0.0014646 0.0018611 0.0019349 0.0017739 0.0055954
0.2321 0.064385 0.0058484 0.0012619
0.00041108 -0.00052872 5.6236e-05 0.0010719 -0.0010792 0.0014815 -0.002384 0.00047421
0.0058827 0.001264 0.27246 0.072479
1940000000 0.17783 -0.1714 4.2439e-05 -0.0010806 0.0019718 0.0019093 -0.003943 0.00021667
0.001185 0.00086253 -0.00061296 -0.00065943
3.3059e-05 -0.0010899 0.26385 0.095518 -0.002025 0.0059943 0.0011094 0.0013467
0.0021051 0.00041133 0.00093345 0.00038627
0.0019329 0.0019613 -0.0020225 0.0059951 0.059813 -0.24347 0.00059223 -0.0024275
0.0023477 0.00024393 0.00031722 0.0017689
-0.0038691 0.00027417 0.0011478 0.00138 0.00059177 -0.002401 0.11332 -0.16999
0.0013324 0.0040825 -0.0014996 0.0013287
0.0012061 0.00087988 0.0021138 0.00038542 0.0023409 0.00022051 0.0013748 0.0041397
0.2399 0.027772 0.0044381 -0.0030748
-0.00065239 -0.00066657 0.0009084 0.00034998 0.00037939 0.0018122 -0.0015624 0.0012871
0.0044176 -0.0030627 0.2636 0.036068
2000000000 0.131 -0.18554 -0.0036594 0.0010663 0.0029492 0.0012936 -0.0024861 0.0038861
0.00076204 0.0005076 -0.00084625 0.00045025
-0.0036564 0.0010745 0.2493 0.060327 -0.00045692 0.0080924 0.0016521 0.0002379
0.001274 -0.0014125 0.00051218 2.4757e-05
0.0029484 0.0012725 -0.00039359 0.0080804 0.017982 -0.22861 -0.0015453 -0.0016261
0.0020973 -0.0011335 0.0016415 0.0013774
-0.0024329 0.0039283 0.0016714 0.00023209 -0.0014871 -0.0016364 0.058759 -0.17934
-0.00025198 0.003209 -0.00027838 0.0022302
0.00078404 0.00051335 0.0012581 -0.0014242 0.0020484 -0.001137 -0.00021962 0.0031627
0.23842 -0.0046884 0.00089269 -0.0038613
