!Keysight Technologies,M9804A,MY58100912,A.14.10.03
!Date: Thursday, April 27, 2023 10:28:33
!Correction: S11(C  6-Port  ) 
!S12(C  6-Port  ) 
!S13(C  6-Port  ) 
!S14(C  6-Port  ) 
!S15(C  6-Port  ) 
!S16(C  6-Port  ) 
!S21(C  6-Port  ) 
!S22(C  6-Port  ) 
!S23(C  6-Port  ) 
!S24(C  6-Port  ) 
!S25(C  6-Port  ) 
!S26(C  6-Port  ) 
!S31(C  6-Port  ) 
!S32(C  6-Port  ) 
!S33(C  6-Port  ) 
!S34(C  6-Port  ) 
!S35(C  6-Port  ) 
!S36(C  6-Port  ) 
!S41(C  6-Port  ) 
!S42(C  6-Port  ) 
!S43(C  6-Port  ) 
!S44(C  6-Port  ) 
!S45(C  6-Port  ) 
!S46(C  6-Port  ) 
!S51(C  6-Port  ) 
!S52(C  6-Port  ) 
!S53(C  6-Port  ) 
!S54(C  6-Port  ) 
!S55(C  6-Port  ) 
!S56(C  6-Port  ) 
!S61(C  6-Port  ) 
!S62(C  6-Port  ) 
!S63(C  6-Port  ) 
!S64(C  6-Port  ) 
!S65(C  6-Port  ) 
!S66(C  6-Port  ) 
!S6P File: Measurement: :
# Hz S  RI   R 50
500000000 -0.32745 -0.054642 -0.010969 -0.0007271 -0.0079671 0.012085 -0.0044222 0.013022
0.011555 0.0048315 -0.0049877 0.0095801
-0.011009 -0.00083183 -0.4095 -0.06942 0.0075189 -0.011193 0.00083844 0.012168
0.0077994 0.0029436 0.00069792 0.013735
-0.0079511 0.012102 0.0074028 -0.011167 -0.25494 0.19447 0.0066908 0.0032671
-0.00054291 0.0087247 0.0021136 0.011661
-0.0045466 0.012918 0.00089384 0.012241 0.0066718 0.0033416 -0.32884 0.045007
-0.020356 -0.0055696 0.014255 0.029013
0.011481 0.0048748 0.0077778 0.0030064 -0.00057134 0.0086262 -0.020451 -0.005532
-0.25553 -0.15981 -0.028185 0.0052321
-0.0050833 0.00975 0.00095471 0.01394 0.0020167 0.011571 0.014643 0.028975
-0.028114 0.0053132 -0.26037 -0.1393
560000000 -0.31229 0.10817 -0.021744 -0.066873 0.0012628 0.013095 0.0051376 0.011133
0.010332 0.0034848 0.010363 0.0076306
-0.021708 -0.066635 -0.37068 0.094294 -0.041365 -0.038348 0.013205 0.0025649
-0.013011 -0.0039568 0.004891 -0.0011582
0.0011784 0.013137 -0.041618 -0.038322 -0.17898 0.24341 0.00049563 -0.0048964
0.017051 0.0038668 0.0084354 -0.0059751
0.0050622 0.01095 0.013567 0.0027151 0.00029065 -0.0049931 -0.30564 0.13583
0.0032764 -0.021686 0.0055714 -0.021464
0.010396 0.0032492 -0.01277 -0.0042239 0.016953 0.0041518 0.0032381 -0.021599
-0.30458 0.018095 0.0056245 -0.047732
0.010485 0.0073257 0.0050143 -0.00078517 0.0083046 -0.0060435 0.0055817 -0.021479
0.0056352 -0.047733 -0.3258 0.0015665
620000000 -0.27101 0.087204 -0.023386 0.0093589 0.0037083 0.0088858 0.007886 -0.0034616
0.013058 -0.0027198 0.00021412 -0.0021852
-0.023406 0.0093237 -0.39924 0.040271 -0.019393 0.0010336 -0.0013093 -0.0016505
0.011627 -0.0063865 0.0011547 -0.0031125
0.0035946 0.0087875 -0.019368 0.0010818 -0.15271 0.25177 -0.00088118 -0.0043205
-0.0037795 -0.0033449 0.0081858 -0.0024705
0.0076164 -0.0034403 -0.0014129 -0.0016806 -0.00083994 -0.0044057 -0.26337 0.14472
-0.039762 -0.017624 0.013107 0.029395
0.013119 -0.0024077 0.011658 -0.0064285 -0.003877 -0.0033308 -0.039785 -0.017483
-0.2306 -0.01854 -0.040824 0.01351
0.00019585 -0.0020513 0.0012798 -0.0031615 0.0086008 -0.0025868 0.013425 0.029276
-0.040876 0.013498 -0.24165 -0.034052
680000000 -0.23732 0.17828 -0.026469 -0.014402 0.0044613 0.0050612 0.0014034 -0.0070674
-0.0028276 -0.010722 0.00546 -0.0069875
-0.026405 -0.014413 -0.38882 0.14253 -0.032219 -0.0011501 -0.0015886 -0.00031285
-0.0024796 -0.0094197 -0.00076742 -0.0017907
0.0045002 0.0050491 -0.032287 -0.0011206 -0.10588 0.2749 -0.00079494 -0.00049585
-0.0018458 0.00021605 -0.0028761 -0.0087936
0.0013953 -0.0071957 -0.0016342 -0.00041616 -0.00089556 -0.00058908 -0.21933 0.19882
-0.025274 -0.0058873 -0.0076505 -0.012342
-0.0030079 -0.010742 -0.0024139 -0.0093834 -0.0016829 0.00010831 -0.02532 -0.0059087
-0.26833 0.081679 -0.0070297 -0.0054794
0.0053784 -0.0070793 -0.00085964 -0.0016552 -0.0030365 -0.0088139 -0.0077593 -0.012326
-0.0071273 -0.0054656 -0.25846 0.07038
740000000 -0.19081 0.17058 -0.040472 0.026626 0.013292 -0.0044433 0.00053408 -0.0040738
-0.0052524 -0.00202 -0.0055654 0.002253
-0.040483 0.026573 -0.33463 0.16145 -0.035822 0.034071 0.0002048 -0.0062966
-0.011737 0.006897 -0.00091319 -0.0058741
0.013265 -0.0045219 -0.035798 0.034155 -0.072165 0.27527 -0.002229 0.0033026
-0.0022216 -0.0047935 -0.0019753 0.0011355
0.00043825 -0.0040494 0.00010899 -0.0062337 -0.0022758 0.003249 -0.20153 0.20476
-0.040437 -0.00446 0.022485 0.016465
-0.0052051 -0.0020189 -0.011434 0.0069287 -0.0021609 -0.0046993 -0.040451 -0.0044244
-0.17786 0.10101 -0.039087 0.0035044
-0.0054832 0.0022936 -0.0010732 -0.005938 -0.0019726 0.0011187 0.022451 0.016422
-0.039157 0.0035445 -0.25018 0.076049
800000000 -0.1633 0.21631 -0.022337 0.016407 0.0053319 -0.0097809 -0.0042245 -0.0021487
-0.0043419 0.0018786 0.0039783 0.0014576
-0.022302 0.016471 -0.34258 0.23281 -0.0080837 0.034327 -0.0022187 0.0022258
-0.00087917 0.0023954 0.0010191 0.0058665
0.0052704 -0.009724 -0.0080345 0.03437 -0.034184 0.30132 0.00070215 0.001287
0.00019111 0.0038214 -0.0015444 0.00071669
-0.0041443 -0.0022058 -0.0022033 0.0022989 0.00072567 0.0013171 -0.17222 0.23413
-0.027734 0.015804 0.015589 -0.01023
-0.0044264 0.0019737 -0.00095822 0.0023085 0.00025941 0.0037544 -0.027687 0.015889
-0.20984 0.13125 -0.018303 0.021181
0.0041749 0.0014815 0.00091407 0.006014 -0.0017036 0.00070844 0.015576 -0.010248
-0.018238 0.021202 -0.24781 0.13092
860000000 -0.12776 0.23748 -0.0175 0.030637 -0.00339 -0.0096876 -0.0017713 0.00036074
0.0038111 0.0048137 -0.0033857 -0.0030769
-0.017544 0.030605 -0.29364 0.27718 0.0080334 0.033855 0.0003791 0.0020068
0.003728 0.00099075 0.0036501 -7.9302e-05
-0.0034104 -0.0097144 0.0081173 0.033852 0.015358 0.31113 -0.00033353 -0.00017313
0.0025475 -0.0013066 0.0014954 0.0040531
-0.0017394 0.0002771 0.00038909 0.0020447 -0.00033742 -0.00014813 -0.1337 0.2452
-0.016277 0.019791 -0.0073086 -0.0093932
0.0039608 0.0047849 0.0037544 0.00089825 0.0025336 -0.0013231 -0.016258 0.019828
-0.15491 0.17699 -0.021397 0.016725
-0.0035601 -0.0030936 0.0034327 -0.000239 0.0015104 0.0040903 -0.0073263 -0.0093374
-0.021458 0.016728 -0.19833 0.1757
920000000 -0.10478 0.26021 0.0050632 0.039109 -0.0088761 -0.0041295 -0.0018026 0.0017145
0.00083125 0.0014813 0.0030369 -0.00098672
0.0049751 0.039056 -0.26696 0.29806 0.02822 0.022418 0.0015379 0.0011711
0.0066389 -0.0001197 0.0043806 -0.0028432
-0.008888 -0.0040727 0.028329 0.022349 0.061444 0.31236 0.0018763 -1.6414e-06
0.00097803 -0.00018257 0.0012144 -0.0014011
-0.0017731 0.0016709 0.0015659 0.001184 0.0018692 3.2976e-06 -0.10992 0.26098
-0.0083195 0.030731 0.0041932 -0.0060362
0.00076558 0.0014359 0.0066938 -0.00013542 0.00096113 -0.00020354 -0.0082867 0.030775
-0.14058 0.18385 -0.0013486 0.026631
0.0030254 -0.0010446 0.004527 -0.0027045 0.001154 -0.001318 0.0042514 -0.0060208
-0.0013046 0.02661 -0.20759 0.1895
980000000 -0.058356 0.28275 0.017433 0.0299 -0.0088412 0.0045936 0.0017842 0.003548
0.0037394 -0.0016072 -0.003338 -0.002957
0.017411 0.029927 -0.21491 0.33546 0.032921 0.0047997 0.0019884 -4.1424e-05
0.0017076 -0.0058756 -0.00059763 -0.0026218
-0.0088058 0.0046087 0.032969 0.0046817 0.1081 0.3078 0.00056124 -0.001143
0.00045111 -0.0018127 0.0015568 -0.00031745
0.0017533 0.0035399 0.001978 -3.946e-05 0.00054768 -0.0011367 -0.070623 0.27265
0.01049 0.02852 -0.0091891 -0.0080758
0.0038271 -0.0016024 0.0016661 -0.0059237 0.00045436 -0.0018323 0.01054 0.0285
-0.10681 0.20977 0.007387 0.019268
-0.0034477 -0.0029651 -0.00066372 -0.0026598 0.0015363 -0.00032137 -0.009224 -0.008037
0.0073466 0.01923 -0.16651 0.23887
1040000000 -0.016572 0.29035 0.033198 0.0188 -0.00082481 0.0070878 0.0022236 0.00061377
0.00037604 -0.0037032 -0.00037411 -0.0012177
0.033175 0.018803 -0.17903 0.34808 0.029329 -0.01463 0.0015882 -0.0018217
-0.0019765 -0.0026817 -0.0013144 -0.0028537
-0.00075901 0.0071126 0.029294 -0.014767 0.1551 0.29361 -0.00052911 -0.0015215
-0.0015205 -0.0011414 -0.00070989 -0.0011504
0.0022138 0.00059572 0.0015507 -0.0017894 -0.00052227 -0.0015278 -0.042187 0.28102
0.020984 0.016486 -0.0014715 0.0011704
0.00034546 -0.0037714 -0.0019775 -0.0026839 -0.0015147 -0.0011432 0.021024 0.016468
-0.073997 0.21509 0.014081 0.017562
-0.00036463 -0.0012808 -0.0012548 -0.0029716 -0.00067796 -0.0011809 -0.0014649 0.0011625
0.014118 0.017587 -0.14489 0.25943
1100000000 0.02761 0.30058 0.036298 -0.0039612 0.0033586 0.0037224 0.0023142 -0.00098492
-0.0022321 -0.0026523 -0.0039856 -0.00031466
0.036267 -0.0039283 -0.13683 0.36766 0.01511 -0.027561 -6.1121e-05 -0.0018437
-0.0033331 -0.00077793 -0.0037111 -0.00088264
0.0033584 0.0037149 0.015012 -0.027645 0.20061 0.27434 -0.0017747 0.00017542
-0.0016454 0.0005614 -0.0011434 -0.00049464
0.0022865 -0.001026 -0.00010173 -0.0018964 -0.0017925 0.00017071 -0.0020984 0.28571
0.024858 0.0026925 -0.0021585 -0.00056046
-0.0021858 -0.002734 -0.0032987 -0.00077927 -0.0016492 0.00056459 0.024857 0.0026525
-0.053542 0.22646 0.019311 0.0069722
-0.0040797 -0.00032518 -0.0036975 -0.00088287 -0.0011296 -0.00051096 -0.0021483 -0.00052298
0.019257 0.0069625 -0.10082 0.29299
1160000000 0.079865 0.29729 0.024327 -0.020496 0.0030883 -0.00084813 -0.00023064 -0.0021864
-0.003965 -0.00074231 -0.0010441 0.0043925
0.02432 -0.020481 -0.09158 0.37229 -0.0037148 -0.028574 -0.0015738 -0.0015854
-0.0027172 0.0023693 -0.0014565 0.0020494
0.0030829 -0.00084905 -0.0038274 -0.028595 0.24504 0.24418 -0.00072476 0.0015937
-0.00047824 0.0017332 -0.00086717 0.00021697
-0.00022264 -0.0022097 -0.0015616 -0.0016136 -0.00072786 0.0015954 0.038739 0.28202
0.020361 -0.012184 -0.003758 0.00444
-0.0039754 -0.00070302 -0.0026736 0.0024274 -0.00047661 0.0017428 0.020349 -0.012203
-0.018004 0.23421 0.018063 -0.0017803
-0.0010332 0.0043572 -0.0015021 0.0020749 -0.00088581 0.00022572 -0.0037488 0.0044027
0.018057 -0.001773 -0.051988 0.29581
1220000000 0.12309 0.28663 0.010993 -0.029976 -0.0014416 -0.0013492 0.00015009 -0.00091942
-0.0024292 0.0022278 0.001204 0.0017706
0.011002 -0.029945 -0.048976 0.38534 -0.016621 -0.020895 -0.0025753 0.00040639
-0.00011704 0.002929 -0.00098245 0.0019944
-0.0014523 -0.0013433 -0.01673 -0.020848 0.284 0.20513 0.00071469 0.0016504
0.00050264 0.0011508 0.00017401 0.00070268
0.0001302 -0.00091055 -0.0025531 0.00042595 0.00071517 0.0016591 0.077815 0.27172
0.0095495 -0.018321 0.0016441 0.001091
-0.002409 0.0022272 -0.00012328 0.0029201 0.00051163 0.0011515 0.0095256 -0.018337
0.0067027 0.23956 0.012722 -0.013083
0.0011871 0.0017941 -0.00093854 0.0020077 0.00018655 0.00068092 0.001609 0.001093
0.012722 -0.013107 -0.022955 0.31362
1280000000 0.17355 0.26742 -0.0075953 -0.028605 -0.0020051 0.0019551 -0.00094015 -0.001943
-0.00071535 0.0030714 0.0024982 0.0014488
-0.0075805 -0.028577 -0.0027098 0.37796 -0.023572 -0.0081906 -0.0011003 0.0014418
0.001583 0.001786 0.00063741 0.0020953
-0.0019914 0.0019595 -0.023631 -0.0080922 0.31537 0.16258 0.0014582 6.3861e-05
0.00099085 0.0003067 0.00034913 0.00038904
-0.00093556 -0.0019479 -0.0010845 0.0014522 0.0014857 6.0233e-05 0.11442 0.25488
-0.0004174 -0.020123 -0.00089083 0.00043037
-0.00071906 0.0030756 0.0016077 0.0018118 0.0009909 0.00032908 -0.00044909 -0.020128
0.043178 0.24201 0.0022095 -0.014965
0.0025322 0.001425 0.00060719 0.0020422 0.00030847 0.000406 -0.00086839 0.00040927
0.0021831 -0.014961 0.025319 0.3184
1340000000 0.21127 0.23351 -0.017148 -0.019177 0.00027977 0.0043096 -0.0017024 -0.00080036
0.0014957 0.0025897 0.0017658 -0.0014593
-0.017107 -0.019157 0.036641 0.37035 -0.02088 0.0042604 -0.00033401 0.0021558
0.0019006 0.00097284 0.0011792 0.00079165
0.00031842 0.0043223 -0.020878 0.0043629 0.33895 0.11369 0.0010717 -0.00079643
0.00062283 -0.00052907 9.3988e-05 0.00027235
-0.0017045 -0.00080954 -0.00034443 0.0021508 0.0010598 -0.00075543 0.14689 0.23234
-0.0095602 -0.01691 0.0005383 0.00098873
0.0015171 0.0025517 0.0019204 0.00095381 0.00061705 -0.0005037 -0.0095888 -0.016891
0.073509 0.23411 -0.0043835 -0.013312
0.0017649 -0.0014833 0.0012559 0.00079648 0.00011343 0.00026093 0.00052054 0.00096487
-0.0043588 -0.013312 0.063571 0.31426
1400000000 0.2443 0.19675 -0.02333 -0.0079582 0.0047735 0.0032007 -0.0021044 0.00047621
0.0023531 0.00090717 0.00046222 -0.0013603
-0.023293 -0.0079719 0.073571 0.35908 -0.014412 0.012185 0.0014095 0.0016052
0.0013907 -0.00061425 0.0011739 0.00024193
0.0047739 0.003185 -0.014375 0.012268 0.35207 0.059421 0.00023133 -0.0014774
0.00016418 -0.00029485 0.00043053 0.00026414
-0.0020822 0.0004933 0.0014131 0.0015984 0.00022432 -0.0014908 0.17428 0.2031
-0.015452 -0.0099652 -0.0010589 0.00024243
0.0023688 0.0009067 0.0014046 -0.00060777 0.00017174 -0.00029447 -0.015475 -0.0099234
0.10542 0.22823 -0.0099881 -0.0082804
0.00048275 -0.0013767 0.0011664 0.00021902 0.00041025 0.00026128 -0.001094 0.0002633
-0.010003 -0.0083086 0.10816 0.30599
1460000000 0.26864 0.15376 -0.020422 0.0044561 0.005208 -0.0014648 -0.0016428 0.0016118
0.002067 -0.00043225 -0.00021254 -0.00087915
-0.020411 0.0044354 0.10901 0.3382 -0.0057396 0.01497 0.0019675 0.00029772
0.0011186 -0.0014297 0.0012995 -0.00053497
0.0051945 -0.0015276 -0.0056607 0.015002 0.35896 0.0040998 -0.0010402 -0.0014637
0.00022743 -0.00029854 0.00062708 -0.00027817
-0.0016688 0.00161 0.0019682 0.00028734 -0.0010511 -0.0014814 0.1999 0.17396
-0.016892 -0.0031384 -0.00053107 0.0025529
0.0020669 -0.00044283 0.0011053 -0.0014645 0.00023583 -0.00030981 -0.016919 -0.0031049
0.13542 0.21237 -0.011942 -0.0023253
-0.00022869 -0.00087442 0.0012785 -0.00051918 0.00064697 -0.00032182 -0.00052511 0.0025346
-0.011922 -0.0022762 0.14298 0.28606
1520000000 0.28088 0.11155 -0.015039 0.0098671 0.0032463 -0.0037789 6.1303e-05 0.0026088
0.0021037 -0.0017021 -0.0010601 -0.00019675
-0.015036 0.0098413 0.14297 0.32396 0.0017575 0.012561 0.001893 -0.00090896
8.6797e-05 -0.0012254 0.00036486 -0.001012
0.0032354 -0.0037854 0.001821 0.012561 0.35079 -0.054354 -0.0011228 -0.0005654
0.00053299 -0.00082597 0.00011914 -0.00011379
6.9721e-05 0.0026116 0.0018872 -0.00091967 -0.0011032 -0.0005357 0.22135 0.13574
-0.016117 0.0030173 0.0017778 0.0020982
0.0020732 -0.0016969 7.488e-05 -0.0012291 0.00053215 -0.00082954 -0.01612 0.0030546
0.16247 0.19702 -0.011301 0.0017499
-0.0010846 -0.00018576 0.00037514 -0.001016 0.0001355 -0.00010401 0.001773 0.0020842
-0.011302 0.0017269 0.17571 0.26712
1580000000 0.29109 0.066857 -0.0085149 0.013419 -0.00091223 -0.0045366 0.001455 0.0020301
-0.00014182 -0.0021375 -0.00040108 0.00039518
-0.008533 0.013409 0.17088 0.30062 0.0051384 0.0077054 0.00058546 -0.0018458
-0.00066102 -0.0011896 -0.00020414 -0.00078308
-0.00094247 -0.004533 0.0051849 0.0076867 0.32918 -0.11095 -0.0017029 0.00045985
-0.00030697 -0.0011418 0.00022037 -0.00058918
0.0014611 0.0020357 0.0005791 -0.0018492 -0.0017445 0.00044692 0.23406 0.098076
-0.012602 0.0083588 0.0026319 0.00078407
-0.00015481 -0.0021541 -0.00066425 -0.0011854 -0.00034511 -0.0011392 -0.012589 0.0083939
0.18603 0.17925 -0.0089907 0.0072347
-0.0004017 0.00037683 -0.0002267 -0.00079117 0.00017136 -0.00055009 0.0026444 0.00077972
-0.0089958 0.0072209 0.20978 0.24298
1640000000 0.29429 0.024829 -0.0017573 0.012422 -0.0025874 -0.0022472 0.0029609 0.001067
-0.0004692 -0.0016969 -0.00028204 0.00054909
-0.0017602 0.012425 0.20213 0.27543 0.0055683 0.0029401 -0.00077513 -0.0019737
-0.0011614 -0.00041696 -0.00043925 -0.00074441
-0.0026009 -0.002213 0.0055809 0.0029049 0.29963 -0.16134 -0.00088476 0.0016075
-0.0010497 -0.00091469 -0.00010909 -0.00047052
0.0029737 0.0010567 -0.00079226 -0.0019687 -0.0008763 0.0015869 0.24619 0.050077
-0.0083781 0.010313 0.0027897 -0.0010805
-0.00048057 -0.0016876 -0.0011729 -0.00042658 -0.0010639 -0.00093783 -0.008354 0.01035
0.20855 0.153 -0.0041864 0.0091667
-0.00026802 0.00053221 -0.00045506 -0.00073032 -0.00015538 -0.00049559 0.0027835 -0.0010952
-0.0041826 0.0091675 0.23651 0.21135
1700000000 0.28637 -0.020066 0.0018782 0.0098189 -0.0031305 0.00025439 0.0031215 -0.0013201
-0.0021909 -0.00083903 0.00057884 0.00047934
0.0018668 0.009834 0.21991 0.24442 0.0033102 0.00018142 -0.0017257 -0.00055679
-0.00096298 0.00017357 -0.00081864 -0.00047654
-0.0031291 0.00030555 0.0033082 0.0001527 0.25365 -0.19947 0.00040703 0.0018949
-0.0020358 -4.7568e-05 -0.00022886 -0.0007999
0.0031392 -0.001342 -0.0017182 -0.00056081 0.00045401 0.0018661 0.2425 0.0020963
-0.0047103 0.011359 0.0014265 -0.0023007
-0.0021717 -0.00084325 -0.00094934 0.00019318 -0.0020215 -6.6228e-05 -0.0046823 0.011373
0.22541 0.13202 0.00011911 0.0090308
0.00059071 0.00048159 -0.00082294 -0.00047146 -0.00026983 -0.00083628 0.0014254 -0.002309
0.00012348 0.0090248 0.25334 0.1785
1760000000 0.27606 -0.068447 0.0044581 0.0065644 -0.0019688 0.0008014 0.0012396 -0.0035631
-0.0015901 0.00059602 0.00033231 -0.00053313
0.0044609 0.0065465 0.24779 0.20499 0.00089101 -0.0014153 -0.0013264 0.0003609
-0.00098583 0.0011647 -0.00058522 0.00032553
-0.0019728 0.00083173 0.00089855 -0.0014281 0.20464 -0.23056 0.0014539 0.0012479
-0.0011204 0.0016464 -0.0012358 -0.00067935
0.0012384 -0.0035683 -0.0013116 0.00039421 0.0014296 0.0012935 0.23558 -0.047529
-0.00079928 0.010421 -0.00013008 -0.0023568
-0.0015689 0.00062203 -0.00096744 0.001173 -0.0011618 0.0016193 -0.000774 0.010435
0.24015 0.097979 0.0037553 0.0067051
0.00032849 -0.00054959 -0.00056837 0.0003048 -0.0012613 -0.00071352 -0.00015283 -0.0023711
0.0037472 0.006712 0.2679 0.14104
1820000000 0.25118 -0.10669 0.0048549 0.002822 -1.9028e-06 0.0020493 -0.0011348 -0.0032583
-0.0013452 0.0011731 -0.00011112 -2.7033e-05
0.0048452 0.0028421 0.25795 0.17411 -0.0011309 -0.00010583 -0.0012586 0.001078
0.000151 0.0012848 -0.00066545 0.00047515
3.0537e-05 0.0020255 -0.0011376 -7.7898e-05 0.15402 -0.24505 0.0017578 0.00023403
-8.2286e-05 0.0025214 -0.0017049 0.00011147
-0.0011553 -0.0032318 -0.0012379 0.0011252 0.0017574 0.0002195 0.20656 -0.094583
0.0016643 0.0089941 -0.0018621 -0.0018279
-0.0013511 0.0011887 0.00015127 0.0013213 -4.8087e-05 0.0025255 0.0016869 0.0089763
0.25611 0.067927 0.0044508 0.003029
-0.00012332 2.733e-06 -0.0006648 0.00045754 -0.0016774 0.00010475 -0.0018398 -0.0017779
0.0044459 0.003061 0.27086 0.10511
1880000000 0.21567 -0.14614 0.0025684 0.00035318 -0.00062125 0.0021348 -0.002955 -0.0022359
-1.7932e-05 0.0019915 0.00041265 -0.00065517
0.002579 0.00036268 0.26273 0.12837 -0.0031849 0.0022762 -5.4496e-05 0.0016592
0.00089026 0.0011072 0.00012952 0.00099679
-0.00057596 0.0021203 -0.003168 0.0022898 0.10222 -0.25113 0.0015688 -0.0013161
0.0018006 0.0017607 -0.0011129 0.0015767
-0.0029878 -0.0022295 -5.0102e-05 0.0016699 0.0016128 -0.0013557 0.16834 -0.13452
0.003273 0.006121 -0.0021493 0.00051797
-3.0721e-05 0.0019826 0.00088582 0.0010963 0.0017961 0.0017178 0.0032614 0.0061119
0.25957 0.037084 0.0045914 0.0015627
0.00039123 -0.00065438 0.00012464 0.00097353 -0.0011431 0.001586 -0.0021537 0.0004795
0.0046102 0.0015119 0.27166 0.072328
1940000000 0.17701 -0.1728 0.00031903 -0.0015169 0.0014328 0.0020223 -0.0037558 0.00040591
0.0016263 0.0011038 -0.00060752 -0.00064304
0.00029689 -0.001504 0.26477 0.095743 -0.0015821 0.0048909 0.0010554 0.0011507
0.0018117 0.00021243 0.00092193 0.0002393
0.0014243 0.0020227 -0.001515 0.0049074 0.059224 -0.24327 9.6651e-06 -0.0021697
0.0023546 8.7275e-05 0.00031572 0.0016125
-0.0037397 0.00041411 0.0010655 0.0011332 4.9005e-06 -0.0021101 0.11787 -0.16775
0.0026268 0.0041809 -0.0012507 0.0013219
0.001648 0.0010868 0.0018603 0.00015962 0.0023527 7.4166e-05 0.0026633 0.0041759
0.2628 -0.0021197 0.0033351 -0.0019091
-0.00060193 -0.00062394 0.00094477 0.00018823 0.00035375 0.0016312 -0.0012784 0.0013422
0.0032875 -0.0018477 0.26279 0.036047
2000000000 0.12981 -0.18647 -0.0035578 0.00060103 0.0028927 0.0015835 -0.0024517 0.003535
0.0012908 -6.5303e-06 -0.00070717 0.00039391
-0.0035679 0.00059889 0.25019 0.0602 -0.00057941 0.0070217 0.0014094 0.00015016
0.0010885 -0.0014175 0.00041012 -5.5438e-06
0.0028545 0.0015879 -0.00051206 0.0070321 0.017397 -0.22807 -0.0013867 -0.00097755
0.0018824 -0.001428 0.001533 0.001481
-0.0024551 0.0034931 0.0013698 0.00013937 -0.0014546 -0.00101 0.063955 -0.17961
0.0014359 0.0028458 -8.1481e-05 0.0021216
0.0012933 -0.00010687 0.0010664 -0.0014386 0.0018443 -0.0014673 0.0014473 0.0028093
0.25744 -0.035652 0.00036692 -0.0025227
