!Keysight Technologies,M9804A,MY58100912,A.14.10.03
!Date: Thursday, April 27, 2023 10:28:33
!Correction: S11(C  6-Port  ) 
!S12(C  6-Port  ) 
!S13(C  6-Port  ) 
!S14(C  6-Port  ) 
!S15(C  6-Port  ) 
!S16(C  6-Port  ) 
!S21(C  6-Port  ) 
!S22(C  6-Port  ) 
!S23(C  6-Port  ) 
!S24(C  6-Port  ) 
!S25(C  6-Port  ) 
!S26(C  6-Port  ) 
!S31(C  6-Port  ) 
!S32(C  6-Port  ) 
!S33(C  6-Port  ) 
!S34(C  6-Port  ) 
!S35(C  6-Port  ) 
!S36(C  6-Port  ) 
!S41(C  6-Port  ) 
!S42(C  6-Port  ) 
!S43(C  6-Port  ) 
!S44(C  6-Port  ) 
!S45(C  6-Port  ) 
!S46(C  6-Port  ) 
!S51(C  6-Port  ) 
!S52(C  6-Port  ) 
!S53(C  6-Port  ) 
!S54(C  6-Port  ) 
!S55(C  6-Port  ) 
!S56(C  6-Port  ) 
!S61(C  6-Port  ) 
!S62(C  6-Port  ) 
!S63(C  6-Port  ) 
!S64(C  6-Port  ) 
!S65(C  6-Port  ) 
!S66(C  6-Port  ) 
!S6P File: Measurement: :
# Hz S  RI   R 50
500000000 -0.32748 -0.054033 -0.011162 -0.00090897 -0.0079941 0.01202 -0.0040456 0.012824
0.011756 0.0050203 -0.0037267 0.0099262
-0.011145 -0.00076096 -0.40903 -0.069148 0.0075732 -0.011255 0.0012516 0.012053
0.0079196 0.003066 0.0021551 0.013725
-0.0078694 0.012083 0.0075503 -0.011293 -0.25485 0.19448 0.0065164 0.0033305
-0.00050883 0.0085738 0.0020928 0.011115
-0.0037838 0.01307 0.0015169 0.012201 0.0067129 0.0032756 -0.3298 0.043258
-0.019335 -0.004915 0.014323 0.027395
0.011563 0.0051841 0.0078871 0.0031111 -0.00047442 0.0085651 -0.019073 -0.0046752
-0.25714 -0.15847 -0.028047 0.0060559
-0.0034709 0.010371 0.0024178 0.014009 0.0022926 0.01132 0.013721 0.026643
-0.027899 0.0065196 -0.25997 -0.14254
560000000 -0.31249 0.10777 -0.022265 -0.065885 0.00091087 0.012909 0.0049059 0.010457
0.009541 0.0043774 0.010939 0.0079899
-0.02223 -0.065893 -0.37112 0.093986 -0.041467 -0.038737 0.014191 0.0037476
-0.012297 -0.0037772 0.0038537 4.4445e-05
0.00078502 0.01297 -0.041568 -0.038635 -0.17877 0.24359 -0.00036994 -0.0051613
0.016092 0.0043033 0.0082294 -0.0063548
0.0046254 0.010518 0.013824 0.0033262 -0.00016558 -0.00489 -0.30503 0.13717
0.0044027 -0.022778 0.0053296 -0.021098
0.010114 0.0042509 -0.012351 -0.003859 0.016288 0.0043653 0.0036954 -0.023081
-0.30537 0.013337 0.0076449 -0.047013
0.010444 0.007941 0.0038467 -0.00013686 0.0081918 -0.0065177 0.0060181 -0.02049
0.0079144 -0.047486 -0.32635 0.0036116
620000000 -0.2714 0.087112 -0.023581 0.0093837 0.0035666 0.008861 0.0075238 -0.0040092
0.012655 -0.0015341 0.00045362 -0.0023533
-0.023575 0.0094442 -0.39918 0.04048 -0.019408 0.0010332 -0.0011886 -0.0019668
0.011275 -0.0060002 0.0012906 -0.0030943
0.003624 0.0089027 -0.019408 0.0010997 -0.15261 0.25174 -0.00063868 -0.0048982
-0.0038261 -0.002802 0.0092451 -0.0031291
0.0080884 -0.0042169 -0.0011416 -0.0020967 -0.00063052 -0.0048446 -0.26409 0.14477
-0.039118 -0.017347 0.013227 0.027518
0.012659 -0.0015959 0.011218 -0.00595 -0.0038267 -0.0028734 -0.03858 -0.017941
-0.23173 -0.018025 -0.040366 0.015526
0.0010133 -0.002198 0.0015385 -0.0032494 0.0093645 -0.0032132 0.012989 0.026878
-0.040424 0.015717 -0.23772 -0.036986
680000000 -0.2365 0.17801 -0.026321 -0.014208 0.0045882 0.0052094 0.001306 -0.0071428
-0.0028101 -0.011205 0.0056061 -0.0065024
-0.026299 -0.01423 -0.38894 0.1429 -0.032274 -0.0009774 -0.0017052 -0.00059796
-0.002247 -0.0092831 -0.0012657 -0.0012103
0.0046543 0.0051734 -0.032298 -0.00092205 -0.10581 0.27502 -0.00084161 -0.00057934
-0.001425 0.00033996 -0.0028913 -0.0086343
0.0011276 -0.0070276 -0.0017594 -0.00062082 -0.00089246 -0.00052223 -0.21912 0.20021
-0.025549 -0.0066259 -0.0067746 -0.010794
-0.0029266 -0.011376 -0.0022662 -0.0092587 -0.0014415 0.00035394 -0.025619 -0.0063471
-0.26834 0.082514 -0.0080782 -0.0062452
0.0052947 -0.0062993 -0.0013385 -0.0011177 -0.0029763 -0.0086795 -0.0066589 -0.010604
-0.007943 -0.0061318 -0.26027 0.074635
740000000 -0.19081 0.17056 -0.040412 0.026976 0.012916 -0.0046122 0.00024241 -0.0040155
-0.0045322 -0.0015645 -0.0060969 0.0023976
-0.040396 0.026961 -0.33495 0.16129 -0.035588 0.034147 -0.00013972 -0.0065856
-0.011716 0.0078954 -0.0014474 -0.0065179
0.012968 -0.0046449 -0.035516 0.03438 -0.072065 0.27549 -0.0019132 0.0029782
-0.0025208 -0.0046258 -0.0012226 0.00077287
0.00039474 -0.0040348 -0.00021958 -0.0065946 -0.0019558 0.0029149 -0.202 0.20501
-0.040282 -0.0047676 0.021739 0.016485
-0.0047359 -0.0016419 -0.011715 0.0076672 -0.0024543 -0.0045031 -0.040416 -0.0045708
-0.17892 0.10175 -0.038448 0.0021663
-0.0060249 0.002347 -0.0013801 -0.0064548 -0.0012916 0.00084043 0.021604 0.016388
-0.03809 0.0020301 -0.25187 0.076708
800000000 -0.16344 0.2163 -0.022277 0.016433 0.0053985 -0.0098953 -0.0039437 -0.0023358
-0.004252 0.0019037 0.0046179 0.00099914
-0.022316 0.016406 -0.34256 0.233 -0.008037 0.034276 -0.002367 0.0021172
-0.00082314 0.0025485 0.00093671 0.0055161
0.0052999 -0.0098465 -0.0079446 0.034348 -0.0341 0.30136 0.00064753 0.0013922
0.00023196 0.0035545 -0.001755 0.00094984
-0.0040794 -0.0022991 -0.0023475 0.0021392 0.00068385 0.0014993 -0.17257 0.23419
-0.027269 0.015058 0.014737 -0.010344
-0.0042501 0.0019363 -0.00084821 0.0025334 0.00028971 0.0035956 -0.027181 0.015265
-0.20992 0.13206 -0.016716 0.020652
0.0044643 0.00099374 0.0010572 0.0054141 -0.0016641 0.00094576 0.014688 -0.010513
-0.016945 0.020685 -0.24876 0.12886
860000000 -0.12778 0.23753 -0.017504 0.030499 -0.0034304 -0.0096815 -0.0019106 0.00050191
0.0040534 0.0049005 -0.0039359 -0.003192
-0.017571 0.030565 -0.29364 0.27729 0.0080008 0.033906 0.00030766 0.002126
0.0038948 0.0010493 0.003656 -0.00014007
-0.0033979 -0.0096926 0.0081501 0.033909 0.01539 0.31118 -0.00031338 -0.00012369
0.0025366 -0.0011783 0.0015374 0.0040387
-0.0018069 0.00036887 0.00039493 0.0021324 -0.0002841 -0.00017211 -0.13385 0.2453
-0.016301 0.020142 -0.0064637 -0.009859
0.0040667 0.0049532 0.0039155 0.0010291 0.0024945 -0.0011531 -0.016253 0.019989
-0.15476 0.17638 -0.022375 0.018353
-0.0036136 -0.0032428 0.0037465 3.8904e-05 0.0014002 0.0040252 -0.006583 -0.0097825
-0.021945 0.018409 -0.19622 0.17741
920000000 -0.10459 0.26027 0.0050865 0.039095 -0.0088373 -0.0041976 -0.0019281 0.0016771
0.00060869 0.0013595 0.0031852 -0.0010856
0.0050134 0.039115 -0.26701 0.29812 0.028159 0.022366 0.0015062 0.001231
0.0066355 -0.00015926 0.0041915 -0.0028124
-0.0088268 -0.0041626 0.028248 0.022307 0.061477 0.31234 0.0018762 2.7034e-05
0.00093974 -0.00027646 0.00096557 -0.0014415
-0.0019699 0.0017798 0.0014981 0.0012032 0.0018812 6.4086e-05 -0.10989 0.26085
-0.008388 0.030598 0.0044502 -0.0060807
0.0006428 0.0013255 0.0066262 -0.00017042 0.00087318 -0.00029266 -0.0082765 0.030761
-0.14091 0.18337 -0.0014148 0.026595
0.0030781 -0.0010542 0.0040765 -0.0027686 0.0010231 -0.001445 0.0045699 -0.005997
-0.0015763 0.026464 -0.20772 0.18961
980000000 -0.058265 0.28275 0.01743 0.029889 -0.0088182 0.0046245 0.0017675 0.0035822
0.0038469 -0.001437 -0.0034998 -0.0029931
0.017418 0.029846 -0.21497 0.33559 0.032882 0.0047944 0.0019539 -0.00011181
0.0018473 -0.0057513 -0.00045005 -0.0026908
-0.0088115 0.0046528 0.032956 0.0046737 0.10812 0.30781 0.00055706 -0.0011483
0.00052697 -0.0017792 0.0014837 -0.00029106
0.0017642 0.0035245 0.0019435 -0.00010451 0.0005852 -0.0011407 -0.070497 0.27288
0.010291 0.028497 -0.0091717 -0.0076379
0.0038674 -0.0014247 0.0018091 -0.0057455 0.0005321 -0.0017931 0.010329 0.028398
-0.10659 0.20993 0.007098 0.018706
-0.003502 -0.0030203 -0.00042483 -0.0027548 0.0015183 -0.00030501 -0.0092932 -0.0075807
0.007383 0.018626 -0.16651 0.23854
1040000000 -0.016498 0.29029 0.033189 0.018704 -0.00080127 0.0071142 0.0023 0.00055196
0.00036074 -0.0037437 0.00011814 -0.0011855
0.033128 0.018762 -0.17908 0.34812 0.029297 -0.014612 0.0016157 -0.0018283
-0.0020593 -0.0026069 -0.0010458 -0.002755
-0.00079243 0.0071196 0.029297 -0.014728 0.15513 0.2936 -0.00049897 -0.0014749
-0.0015579 -0.0011091 -0.00066159 -0.0011711
0.0023122 0.00063281 0.0016119 -0.0018352 -0.00052789 -0.001485 -0.042201 0.28101
0.021005 0.016286 -0.0016187 0.0011843
0.00039527 -0.0037131 -0.002046 -0.0026074 -0.0015791 -0.0011387 0.021026 0.016355
-0.073604 0.21511 0.01448 0.017381
6.3721e-05 -0.0012527 -0.0010918 -0.0027375 -0.00067163 -0.0011441 -0.0015762 0.0012197
0.014251 0.017384 -0.14511 0.25946
1100000000 0.027683 0.3007 0.036223 -0.0038865 0.0033699 0.003725 0.0023353 -0.00098843
-0.002107 -0.0026776 -0.0041679 -0.00016103
0.036183 -0.003868 -0.13685 0.36766 0.015065 -0.027514 -2.5573e-05 -0.0017939
-0.0032267 -0.00067175 -0.0037915 -0.00082336
0.0033804 0.003714 0.014996 -0.027615 0.20068 0.27437 -0.0017856 0.00014678
-0.0016066 0.00056533 -0.0010779 -0.00047352
0.0023225 -0.00101 -3.6486e-05 -0.001793 -0.0017914 0.00014642 -0.0021061 0.28573
0.024897 0.0026804 -0.0021222 -0.00050719
-0.0022171 -0.0026367 -0.0033391 -0.0007061 -0.0016358 0.00055872 0.024975 0.0026141
-0.053665 0.22693 0.019372 0.0071373
-0.0040601 -0.00017259 -0.0036944 -0.00070966 -0.0011102 -0.00046021 -0.0021823 -0.00050494
0.019482 0.0072655 -0.10067 0.2927
1160000000 0.079867 0.29728 0.024254 -0.020583 0.0030863 -0.00084804 -0.00024654 -0.0021997
-0.0040474 -0.00070628 -0.0011947 0.0043198
0.024256 -0.020533 -0.091463 0.3722 -0.0037316 -0.028587 -0.0016904 -0.0015515
-0.0027506 0.0022957 -0.0014593 0.0019036
0.0030558 -0.00086055 -0.0038485 -0.02859 0.24507 0.24417 -0.00076221 0.0016057
-0.0005057 0.001714 -0.00090047 0.00023923
-0.00021281 -0.0021617 -0.0016733 -0.0015389 -0.00073501 0.0015941 0.038837 0.28194
0.020465 -0.012159 -0.0038439 0.0044115
-0.0039773 -0.00075688 -0.0027158 0.0023035 -0.00048366 0.0016921 0.020338 -0.01218
-0.017943 0.23406 0.017799 -0.0015901
-0.0010759 0.0042707 -0.0014675 0.0019513 -0.00092756 0.00021564 -0.003807 0.004416
0.017723 -0.0018432 -0.051642 0.29607
1220000000 0.12316 0.28659 0.010993 -0.029999 -0.0014267 -0.0013523 0.00016612 -0.000916
-0.0023591 0.0022125 0.0012805 0.001725
0.01097 -0.029966 -0.048941 0.38534 -0.016639 -0.020892 -0.0025485 0.00039375
-8.3595e-05 0.0029151 -0.00093603 0.0019373
-0.0014487 -0.0013592 -0.016753 -0.020846 0.28403 0.20511 0.00070833 0.0016229
0.00048048 0.0011279 0.00020044 0.00066615
0.0001315 -0.00092774 -0.0025798 0.00042411 0.00070122 0.0016465 0.077899 0.27177
0.0095297 -0.018274 0.0016507 0.001142
-0.0023493 0.0022298 -7.0101e-05 0.0029361 0.00049512 0.001117 0.0095621 -0.01833
0.0067751 0.23928 0.012644 -0.013064
0.0012047 0.0017984 -0.00091439 0.002015 0.00020928 0.00074866 0.0016657 0.0011712
0.012686 -0.01296 -0.023024 0.31395
1280000000 0.17355 0.26749 -0.0075932 -0.028597 -0.0019602 0.0019793 -0.00096264 -0.001963
-0.00079215 0.0030962 0.0026365 0.0013366
-0.0075729 -0.028554 -0.0026568 0.37797 -0.023561 -0.0082069 -0.0011545 0.001391
0.001555 0.0018149 0.00072029 0.0021211
-0.00196 0.0019943 -0.023623 -0.0081157 0.31543 0.16256 0.0015017 8.7824e-05
0.0010409 0.00034162 0.00025195 0.00036196
-0.00098497 -0.0019521 -0.0011064 0.0014014 0.0015053 7.3421e-05 0.11449 0.25495
-0.00038087 -0.020146 -0.00094221 0.00028896
-0.00079173 0.0030909 0.0015992 0.0018345 0.0010354 0.00033385 -0.00042161 -0.020142
0.043404 0.24208 0.0020571 -0.015197
0.0027042 0.0013504 0.00064116 0.0020813 0.00022131 0.00034403 -0.00089714 0.00033461
0.0020556 -0.0152 0.025359 0.31854
1340000000 0.21125 0.23348 -0.01716 -0.019181 0.00029018 0.004325 -0.0016592 -0.0008085
0.0015247 0.002549 0.001814 -0.0014006
-0.017112 -0.019163 0.03665 0.37039 -0.020893 0.0042746 -0.00033084 0.0021272
0.0018724 0.00092567 0.0011696 0.0008038
0.00030371 0.0043069 -0.020894 0.0043732 0.33894 0.11367 0.0010582 -0.00075123
0.00056232 -0.00052299 0.00015118 0.00020556
-0.0016856 -0.00078657 -0.0003229 0.0021308 0.0010397 -0.00075226 0.14684 0.23239
-0.009526 -0.016851 0.00048426 0.0010429
0.0015272 0.0025465 0.0018704 0.00090923 0.0005427 -0.00050406 -0.0095292 -0.016851
0.07345 0.23411 -0.004292 -0.013218
0.0017985 -0.0013835 0.0011587 0.00081019 0.00012972 0.00020263 0.00047577 0.0010433
-0.0042864 -0.0132 0.063789 0.31403
1400000000 0.24437 0.19677 -0.023334 -0.0079688 0.0047753 0.0031873 -0.0020762 0.00049132
0.002332 0.00092299 0.0005243 -0.0013351
-0.023294 -0.0079659 0.07357 0.35904 -0.014413 0.012161 0.0013916 0.001585
0.0013882 -0.00060297 0.00121 0.00027324
0.0047852 0.0031852 -0.014371 0.012249 0.35207 0.059398 0.00016022 -0.0015159
0.00019764 -0.00028011 0.00040193 0.00026365
-0.0020825 0.00049288 0.0014109 0.0015776 0.00019979 -0.001511 0.17428 0.20314
-0.01547 -0.0099757 -0.00093859 0.0002393
0.0023424 0.00089751 0.0013792 -0.00059509 0.00017745 -0.00027289 -0.01552 -0.009931
0.10552 0.22824 -0.010104 -0.0082943
0.00048214 -0.0013204 0.0011896 0.0002355 0.00043627 0.00025714 -0.00097541 0.00028071
-0.010083 -0.0083571 0.10825 0.30601
1460000000 0.26865 0.15363 -0.020442 0.0044607 0.0051944 -0.0014705 -0.0016574 0.0016381
0.0021041 -0.00040327 -0.00025425 -0.00091119
-0.020428 0.004449 0.10903 0.33817 -0.0057157 0.014974 0.0019497 0.00027749
0.0010711 -0.0014707 0.0012331 -0.0005142
0.0051996 -0.0014892 -0.0056567 0.015009 0.35899 0.0040744 -0.0010271 -0.0014406
0.00019807 -0.00030475 0.00061138 -0.00029563
-0.001623 0.0016654 0.0019605 0.00026426 -0.0010164 -0.0014596 0.19999 0.17399
-0.016878 -0.0030431 -0.0005275 0.002449
0.002081 -0.00040081 0.0010891 -0.0014811 0.00021491 -0.00033138 -0.016888 -0.0030238
0.13533 0.21232 -0.01185 -0.0023231
-0.00023575 -0.0008784 0.0012679 -0.00052081 0.00059096 -0.00025805 -0.0004673 0.002471
-0.011795 -0.0022459 0.14301 0.28603
1520000000 0.2809 0.11155 -0.01504 0.0098764 0.0032381 -0.00378 9.3421e-06 0.0025897
0.0020691 -0.0017073 -0.00098432 -0.00024455
-0.015032 0.0098559 0.143 0.32396 0.0017656 0.012564 0.0018812 -0.00088122
8.7822e-05 -0.0012119 0.00037226 -0.00098266
0.0032121 -0.0037973 0.0018254 0.012573 0.35082 -0.054406 -0.0011179 -0.00052097
0.00048691 -0.0008198 0.00015132 -0.00011972
3.2928e-05 0.0025989 0.0018787 -0.00089533 -0.0011133 -0.00052008 0.22129 0.13569
-0.016114 0.0029862 0.0017365 0.0021771
0.0020767 -0.0017049 6.4709e-05 -0.001221 0.00049036 -0.00080785 -0.01612 0.0030436
0.16255 0.19701 -0.0114 0.001707
-0.0010106 -0.00022052 0.00039131 -0.0010032 0.00011413 -0.00013738 0.0017561 0.0021702
-0.011343 0.0017033 0.17593 0.26682
1580000000 0.29105 0.066818 -0.0085252 0.013419 -0.00093238 -0.004481 0.0014891 0.0020535
-9.4478e-05 -0.0021318 -0.00036214 0.00042272
-0.0085331 0.013414 0.17089 0.3006 0.0051405 0.0076829 0.00056788 -0.0018534
-0.00064837 -0.0012136 -0.0002 -0.00080374
-0.00093688 -0.0044756 0.005188 0.0076481 0.3292 -0.11096 -0.0017795 0.00048016
-0.00037034 -0.0011846 0.00023875 -0.00057607
0.0015081 0.0020402 0.00056676 -0.0018697 -0.0017554 0.00044979 0.23416 0.098163
-0.012678 0.0083813 0.0026877 0.00071098
-0.00012022 -0.0021358 -0.00066447 -0.0012166 -0.00036971 -0.0011618 -0.012638 0.0084256
0.18604 0.17917 -0.0089688 0.007428
-0.00035971 0.00040282 -0.00021304 -0.00078228 0.00023176 -0.00056667 0.0026934 0.0007228
-0.0090005 0.0073758 0.2097 0.24283
1640000000 0.29434 0.024844 -0.0017617 0.012429 -0.002601 -0.0022298 0.0029267 0.0010594
-0.0005324 -0.0017267 -0.00023355 0.00059058
-0.0017746 0.012411 0.20217 0.27537 0.0055673 0.0029237 -0.00078209 -0.0019477
-0.0011515 -0.00044915 -0.00045844 -0.00073329
-0.0026096 -0.0022234 0.005591 0.0028867 0.29962 -0.1613 -0.00084907 0.0016027
-0.00099932 -0.00093605 -8.8743e-05 -0.00051527
0.002916 0.0010584 -0.00078838 -0.0019594 -0.00086999 0.0016025 0.24627 0.050022
-0.0082963 0.010324 0.0026974 -0.0010825
-0.00052927 -0.0016969 -0.0011643 -0.00042819 -0.0010264 -0.00092081 -0.0082783 0.010368
0.20857 0.15309 -0.0042326 0.0091109
-0.00021512 0.00058038 -0.00044316 -0.00073223 -0.00010698 -0.0005361 0.0026997 -0.0011228
-0.0042203 0.0090638 0.23672 0.21138
1700000000 0.2864 -0.020062 0.0018718 0.0098126 -0.0031252 0.00029606 0.0031993 -0.0013016
-0.00215 -0.00082745 0.00055201 0.00041498
0.0018684 0.0098146 0.21995 0.24441 0.0033178 0.00020001 -0.0017007 -0.00058097
-0.0009438 0.00019193 -0.0008196 -0.00050141
-0.0030998 0.00030808 0.0033229 0.00017884 0.25356 -0.19948 0.00043891 0.0018582
-0.0020413 -4.4598e-05 -0.00016161 -0.00072717
0.0031974 -0.0013319 -0.0017106 -0.00055659 0.00046478 0.0018725 0.24242 0.0020466
-0.0047766 0.011327 0.0015889 -0.0021685
-0.00217 -0.00081319 -0.00094977 0.00021138 -0.0020544 -3.3919e-05 -0.0047301 0.011307
0.22542 0.13199 0.00014468 0.009166
0.0005818 0.00044236 -0.00084785 -0.0004962 -0.0001891 -0.00074621 0.0015824 -0.002147
0.00025082 0.0091721 0.2534 0.17806
1760000000 0.27607 -0.068443 0.0044599 0.0065929 -0.001955 0.0008722 0.0011932 -0.0036228
-0.0015898 0.00054796 0.00035227 -0.00050869
0.004447 0.0065877 0.24781 0.20497 0.00089956 -0.001437 -0.0013298 0.00037128
-0.0010025 0.0011197 -0.00058942 0.00037974
-0.001965 0.00089181 0.00088345 -0.0014523 0.20475 -0.23066 0.0014192 0.0012473
-0.0011614 0.0015831 -0.0012901 -0.00069826
0.0011824 -0.0035909 -0.0013478 0.00037242 0.0013887 0.0012721 0.23563 -0.04741
-0.00076183 0.010519 -0.00023683 -0.0025462
-0.001575 0.00055515 -0.00099705 0.001132 -0.0011705 0.0015846 -0.00079926 0.010547
0.2402 0.098042 0.0038503 0.0065758
0.0003667 -0.0005346 -0.00055322 0.00036896 -0.0012681 -0.00070255 -0.00029381 -0.0025823
0.0037516 0.0066104 0.26802 0.14101
1820000000 0.25114 -0.10671 0.0048406 0.0028381 -1.0768e-05 0.0020515 -0.0011036 -0.0031919
-0.0013216 0.0012185 -0.00017086 -4.2564e-05
0.0048296 0.0028456 0.25796 0.17406 -0.0011151 -0.00011369 -0.0012361 0.0010984
0.00017466 0.0013227 -0.00069395 0.00044133
-1.2658e-05 0.0020401 -0.0011017 -0.00010734 0.15409 -0.24495 0.0018375 0.00020143
5.3301e-05 0.0025223 -0.0016854 0.0001748
-0.0010873 -0.0031906 -0.0012227 0.0011054 0.0018448 0.00022039 0.20662 -0.094683
0.0017143 0.0088594 -0.0017703 -0.001692
-0.0013113 0.0012407 0.00019494 0.0013113 5.5423e-05 0.0025574 0.0018011 0.0088949
0.25611 0.067878 0.004401 0.0032604
-0.00018809 -7.3247e-05 -0.00070124 0.00046115 -0.0017084 0.0001552 -0.0017945 -0.0016634
0.004445 0.0032719 0.27089 0.10489
1880000000 0.21566 -0.14616 0.0025518 0.00037965 -0.00055713 0.0021193 -0.0028558 -0.0023042
-4.7262e-05 0.0019734 0.00032831 -0.00066889
0.0025492 0.0003622 0.26273 0.12834 -0.0031948 0.0022998 -1.0382e-05 0.0016395
0.00088531 0.0010882 0.0001593 0.0010372
-0.00054302 0.0021249 -0.0031858 0.0023318 0.10209 -0.25111 0.0015586 -0.0013538
0.0018099 0.001752 -0.00098459 0.001607
-0.0029521 -0.0022855 -1.38e-05 0.0016477 0.0015988 -0.001311 0.16827 -0.13441
0.0032572 0.006274 -0.0020982 0.00024403
-4.1361e-05 0.0019734 0.0008891 0.0010825 0.0018285 0.0017512 0.0032198 0.0062081
0.25966 0.037214 0.0046456 0.0013763
0.00039837 -0.00061948 0.00016492 0.0010333 -0.00099277 0.0015672 -0.0020916 0.00027849
0.004644 0.0013088 0.27158 0.072539
1940000000 0.17699 -0.17276 0.00027656 -0.0014873 0.0014019 0.0020318 -0.0038012 0.00047097
0.0016425 0.0010881 -0.0004594 -0.00069314
0.00027541 -0.0014999 0.26477 0.095746 -0.0015645 0.0048528 0.0010774 0.0012127
0.0018568 0.00022105 0.00093302 0.00020373
0.0014094 0.0020322 -0.0015237 0.0048669 0.059297 -0.24339 7.4614e-05 -0.0020921
0.0023376 0.00013436 0.00022595 0.0016102
-0.0037611 0.00049309 0.0010709 0.0011763 -7.0072e-06 -0.0020598 0.11802 -0.16766
0.0027176 0.0040858 -0.0012127 0.0014608
0.001637 0.001078 0.0018562 0.00017825 0.0022993 0.00012657 0.0027642 0.0041983
0.26284 -0.0022718 0.003401 -0.00184
-0.00053482 -0.0006801 0.00091883 0.0001983 0.00027866 0.0016327 -0.0012835 0.0014111
0.0033059 -0.001755 0.26284 0.035715
2000000000 0.1299 -0.18651 -0.0035441 0.00059731 0.0028515 0.0015988 -0.0024515 0.0034139
0.0013397 -8.8457e-05 -0.00081479 0.00047073
-0.0035136 0.00058539 0.25018 0.060176 -0.00057699 0.0070105 0.0013894 0.00013451
0.0010828 -0.0014279 0.00033986 5.6192e-05
0.0028489 0.0015752 -0.00053729 0.0070214 0.017441 -0.22805 -0.0014235 -0.0011224
0.0018032 -0.0015338 0.0015764 0.0015032
-0.0024433 0.0034591 0.0014163 0.00014576 -0.0014363 -0.0011792 0.063609 -0.17983
0.0012958 0.0027985 -7.5894e-06 0.0020538
0.0013339 -0.00010326 0.0010713 -0.0014285 0.0018567 -0.0015331 0.0013073 0.0027181
0.25732 -0.035657 0.00045184 -0.0025848
