!Keysight Technologies,M9804A,MY58100912,A.14.10.03
!Date: Thursday, April 27, 2023 10:28:33
!Correction: S11(C  6-Port  ) 
!S12(C  6-Port  ) 
!S13(C  6-Port  ) 
!S14(C  6-Port  ) 
!S15(C  6-Port  ) 
!S16(C  6-Port  ) 
!S21(C  6-Port  ) 
!S22(C  6-Port  ) 
!S23(C  6-Port  ) 
!S24(C  6-Port  ) 
!S25(C  6-Port  ) 
!S26(C  6-Port  ) 
!S31(C  6-Port  ) 
!S32(C  6-Port  ) 
!S33(C  6-Port  ) 
!S34(C  6-Port  ) 
!S35(C  6-Port  ) 
!S36(C  6-Port  ) 
!S41(C  6-Port  ) 
!S42(C  6-Port  ) 
!S43(C  6-Port  ) 
!S44(C  6-Port  ) 
!S45(C  6-Port  ) 
!S46(C  6-Port  ) 
!S51(C  6-Port  ) 
!S52(C  6-Port  ) 
!S53(C  6-Port  ) 
!S54(C  6-Port  ) 
!S55(C  6-Port  ) 
!S56(C  6-Port  ) 
!S61(C  6-Port  ) 
!S62(C  6-Port  ) 
!S63(C  6-Port  ) 
!S64(C  6-Port  ) 
!S65(C  6-Port  ) 
!S66(C  6-Port  ) 
!S6P File: Measurement: :
# Hz S  RI   R 50
500000000 -0.32756 -0.054969 -0.011018 -0.0011393 -0.0081276 0.011933 -0.0047381 0.01283
0.012226 0.004919 -0.0044245 0.0098254
-0.011063 -0.00099925 -0.40994 -0.069147 0.0077202 -0.01109 0.00057977 0.012368
0.008318 0.0026979 0.0010313 0.014148
-0.0080643 0.011929 0.0077312 -0.01112 -0.25478 0.19432 0.0065981 0.0032351
-0.0003409 0.0086921 0.0019131 0.011582
-0.0048107 0.012908 0.00045382 0.012431 0.0065499 0.0032026 -0.32915 0.045299
-0.02019 -0.0058993 0.014406 0.028876
0.011987 0.0053727 0.008028 0.0028791 -0.00038013 0.0087193 -0.02017 -0.0059555
-0.25539 -0.15909 -0.028018 0.0054465
-0.005246 0.0097796 0.0008354 0.01435 0.0022707 0.011426 0.014258 0.029059
-0.027975 0.0049109 -0.25962 -0.14063
560000000 -0.31084 0.10898 -0.022365 -0.066019 0.0009944 0.013117 0.0050564 0.010207
0.0096573 0.0035322 0.010873 0.0087827
-0.022303 -0.065946 -0.37033 0.093637 -0.041494 -0.038078 0.013324 0.0028335
-0.01265 -0.0025164 0.0042184 -0.0011509
0.00099374 0.013123 -0.041575 -0.037977 -0.1793 0.24293 0.00037767 -0.0045849
0.01657 0.0032837 0.008127 -0.0057918
0.0051172 0.010348 0.013284 0.0027506 0.0004436 -0.0046137 -0.30572 0.1353
0.0041959 -0.021322 0.0054331 -0.021722
0.0099015 0.0034784 -0.013103 -0.0031579 0.017004 0.0032539 0.0038774 -0.021331
-0.3033 0.014638 0.0064192 -0.046554
0.010643 0.0079992 0.0043838 -0.00097841 0.0082747 -0.0060675 0.0052816 -0.021394
0.0066302 -0.045809 -0.32709 0.0026464
620000000 -0.2714 0.087167 -0.023544 0.0095351 0.0036627 0.0089801 0.0081439 -0.0042523
0.012182 -0.0018593 0.00039236 -0.0022891
-0.023487 0.0095247 -0.39932 0.040316 -0.019422 0.0010118 -0.0013146 -0.0016883
0.011684 -0.0064652 0.0011162 -0.0028297
0.0036303 0.0090847 -0.019471 0.0010958 -0.15285 0.25158 -0.00096896 -0.004406
-0.0037798 -0.0032578 0.0085295 -0.0025074
0.0080884 -0.0039759 -0.0013118 -0.0017289 -0.00091737 -0.0043644 -0.26331 0.1453
-0.040063 -0.018392 0.013358 0.029242
0.012312 -0.001564 0.011737 -0.0063478 -0.0037555 -0.0033266 -0.03998 -0.018372
-0.23085 -0.01737 -0.041355 0.013359
0.00062203 -0.002076 0.00088446 -0.0029062 0.0084288 -0.0023978 0.013226 0.029571
-0.041581 0.012909 -0.24031 -0.033717
680000000 -0.23701 0.17829 -0.02639 -0.014355 0.0046484 0.0050463 0.0012863 -0.0070965
-0.0025257 -0.011344 0.0054284 -0.0063764
-0.026343 -0.014356 -0.38902 0.14266 -0.032324 -0.0010775 -0.0013866 -0.00059977
-0.0022626 -0.0093202 -0.00088082 -0.0014824
0.0046829 0.0050073 -0.032343 -0.0010383 -0.10593 0.27503 -0.00069125 -0.00043329
-0.0016705 0.00024729 -0.0026821 -0.0090671
0.0013068 -0.0072079 -0.0014132 -0.00069309 -0.00067334 -0.00049509 -0.21971 0.19944
-0.024794 -0.006213 -0.0081807 -0.011982
-0.0027223 -0.01117 -0.0025272 -0.0093117 -0.0017616 0.00039139 -0.024794 -0.0061796
-0.26894 0.08187 -0.0070367 -0.005864
0.005239 -0.0064668 -0.00091874 -0.0016378 -0.0028057 -0.0090724 -0.0080882 -0.011876
-0.0072654 -0.005549 -0.25906 0.072043
740000000 -0.19038 0.17027 -0.040516 0.026626 0.013373 -0.0042444 0.00068054 -0.0041084
-0.0052131 -0.0015715 -0.0056314 0.0028012
-0.040376 0.026567 -0.33432 0.16111 -0.035763 0.034342 0.00039416 -0.0064196
-0.012004 0.0069829 -0.0013771 -0.0060678
0.013368 -0.0042039 -0.035736 0.034453 -0.072386 0.27533 -0.0022209 0.0031223
-0.0025518 -0.004424 -0.0017144 0.00081867
0.00076171 -0.0040494 0.0004431 -0.006516 -0.0021685 0.0030906 -0.20159 0.20514
-0.041079 -0.004484 0.022147 0.016516
-0.0051806 -0.0017922 -0.011938 0.0071734 -0.0025668 -0.0044983 -0.041035 -0.0047286
-0.17815 0.10081 -0.03963 0.0029385
-0.0056428 0.0026099 -0.00081608 -0.0060315 -0.001518 0.00070184 0.022035 0.016669
-0.039268 0.0028371 -0.25159 0.076079
800000000 -0.16352 0.21659 -0.022275 0.016506 0.005185 -0.0097677 -0.004333 -0.0022082
-0.0037614 0.0021108 0.0037812 0.0010717
-0.022256 0.0165 -0.34246 0.23282 -0.008051 0.034341 -0.0024157 0.0023543
-0.0004318 0.002504 0.00049498 0.0054855
0.0051422 -0.0097807 -0.0079919 0.03437 -0.034186 0.30128 0.00072645 0.0014536
0.00021921 0.0037122 -0.0015795 0.00088044
-0.0043731 -0.002226 -0.002441 0.0023187 0.00071572 0.0014595 -0.17264 0.23393
-0.027578 0.015988 0.01532 -0.010553
-0.0038388 0.0021141 -0.00043757 0.0024597 0.0002905 0.0036662 -0.027512 0.01606
-0.20977 0.13135 -0.018122 0.02132
0.003549 0.0011969 0.00043284 0.0056174 -0.0018275 0.00098533 0.015219 -0.010785
-0.017888 0.021242 -0.24795 0.12943
860000000 -0.12781 0.23741 -0.017701 0.030615 -0.0033569 -0.0096882 -0.0016956 0.00027137
0.0037186 0.0047935 -0.0037486 -0.0030912
-0.01772 0.030604 -0.29379 0.27742 0.0080088 0.03395 0.00040669 0.0020419
0.0036703 0.0011483 0.0035795 0.00011239
-0.0033858 -0.0097113 0.0081257 0.033949 0.015307 0.31112 -0.00036095 -0.00023759
0.0026252 -0.0012011 0.0012452 0.0041629
-0.0017291 0.00028002 0.00041484 0.0020385 -0.00038348 -0.00023433 -0.1338 0.24517
-0.016224 0.019606 -0.0070519 -0.009671
0.0038495 0.00479 0.0038114 0.00112 0.0026316 -0.0012901 -0.016111 0.019868
-0.15475 0.17703 -0.022146 0.01715
-0.0036065 -0.0031241 0.0035764 0.00011197 0.0012509 0.0040842 -0.0069656 -0.0097352
-0.022128 0.017316 -0.19709 0.17725
920000000 -0.10463 0.26015 0.0049676 0.03898 -0.0088885 -0.0041478 -0.0018469 0.0017056
0.00096726 0.0014571 0.003177 -0.0013382
0.0049262 0.038929 -0.26723 0.29782 0.028202 0.02239 0.0014727 0.0011563
0.0067176 -0.00031087 0.0039108 -0.0029091
-0.0088856 -0.0041505 0.02828 0.022334 0.061414 0.31231 0.0019271 1.527e-05
0.00091958 -0.00019574 0.0010353 -0.0014602
-0.0018095 0.0017446 0.001493 0.001183 0.0019015 2.7716e-05 -0.10999 0.26091
-0.0082912 0.030831 0.0043756 -0.006029
0.00093699 0.0013798 0.0067227 -0.0003668 0.0009332 -0.00022201 -0.008229 0.030898
-0.14061 0.18372 -0.0017397 0.026806
0.0029553 -0.0013792 0.0038563 -0.003005 0.0010559 -0.0014669 0.0042617 -0.0061266
-0.001785 0.026634 -0.20793 0.18982
980000000 -0.058357 0.28273 0.017494 0.029894 -0.0088315 0.0045978 0.0018593 0.0036035
0.003727 -0.0015319 -0.0033125 -0.0029694
0.017403 0.029887 -0.2149 0.33545 0.032978 0.0047923 0.0020208 -0.00013139
0.0017798 -0.0057928 -0.00032407 -0.0026524
-0.0088002 0.004613 0.033009 0.0046726 0.10803 0.3078 0.00054329 -0.0011603
0.0004725 -0.001891 0.0015852 -0.00030897
0.0018596 0.0036436 0.0019892 -4.892e-05 0.00050773 -0.0011348 -0.070409 0.27272
0.010524 0.02839 -0.0092238 -0.0077269
0.0037122 -0.0016439 0.0017519 -0.0058733 0.00044381 -0.0018657 0.010546 0.028407
-0.10685 0.20992 0.0071469 0.019007
-0.0032128 -0.002951 -0.0003574 -0.0026717 0.0015696 -0.00033858 -0.0093335 -0.0077134
0.0071421 0.018974 -0.1666 0.23943
1040000000 -0.016499 0.29014 0.033225 0.018751 -0.00079816 0.0071054 0.0022724 0.00064981
0.00033235 -0.0035692 -0.0002304 -0.0012653
0.033149 0.018767 -0.17906 0.34811 0.029356 -0.014612 0.0016307 -0.0018391
-0.0020706 -0.0025629 -0.0011624 -0.0028713
-0.00077393 0.0070895 0.029328 -0.014724 0.1551 0.2936 -0.0004697 -0.0015153
-0.0015535 -0.0010412 -0.00059999 -0.0011314
0.0022134 0.00060675 0.0016422 -0.0018326 -0.0004608 -0.0015271 -0.042253 0.28101
0.020883 0.016435 -0.0015113 0.0011485
0.00029323 -0.003563 -0.0020411 -0.0025145 -0.0015523 -0.0010198 0.020943 0.01637
-0.07403 0.21516 0.014538 0.017691
-0.0002402 -0.0012215 -0.0011796 -0.002881 -0.00064581 -0.001151 -0.0015251 0.0012106
0.01447 0.017587 -0.14484 0.25947
1100000000 0.027587 0.30052 0.03633 -0.0039659 0.0033576 0.0037529 0.0023441 -0.00094633
-0.0023239 -0.0026606 -0.0040777 -0.00017927
0.036291 -0.0039332 -0.13688 0.36759 0.015132 -0.027545 -5.2963e-05 -0.0018443
-0.0034154 -0.00077752 -0.0036342 -0.00071454
0.0033696 0.0037461 0.015035 -0.027629 0.20056 0.27438 -0.0017959 0.00017568
-0.0016476 0.00054242 -0.0011078 -0.00055859
0.0023746 -0.00094364 -5.1111e-05 -0.0018287 -0.0018093 0.00017923 -0.0022016 0.28572
0.024885 0.0026065 -0.0023086 -0.00053121
-0.0022831 -0.0026671 -0.0033937 -0.00074471 -0.0016488 0.00056124 0.024932 0.002542
-0.053329 0.22639 0.019167 0.0070456
-0.0040064 -0.00023493 -0.0037273 -0.00080177 -0.0011294 -0.00052437 -0.0022367 -0.00056812
0.019216 0.0070319 -0.10072 0.2928
1160000000 0.07968 0.29728 0.024342 -0.020477 0.0030727 -0.00087267 -0.00016273 -0.0022185
-0.0038906 -0.0007933 -0.00096467 0.0043362
0.02431 -0.020435 -0.091654 0.37227 -0.0037012 -0.028596 -0.0015525 -0.0015458
-0.0026961 0.002349 -0.0016015 0.0019421
0.0030829 -0.00087811 -0.0038341 -0.028603 0.24504 0.2442 -0.00072472 0.0015899
-0.00052607 0.0016937 -0.0009565 0.00027179
-0.00021138 -0.002201 -0.0015955 -0.0014879 -0.0007303 0.0015953 0.038738 0.28199
0.020414 -0.012149 -0.0036744 0.0045474
-0.0038992 -0.00080247 -0.0027527 0.0023911 -0.00053808 0.0017109 0.020434 -0.012192
-0.018167 0.23426 0.018088 -0.0016289
-0.0010735 0.0044061 -0.0016372 0.0019637 -0.00093087 0.00032074 -0.0037032 0.004559
0.018105 -0.0016381 -0.052116 0.29574
1220000000 0.12295 0.28665 0.01102 -0.030007 -0.0014516 -0.0013634 0.0001356 -0.00088593
-0.0024078 0.0022185 0.0010879 0.0019007
0.011023 -0.029971 -0.04901 0.38531 -0.016627 -0.020903 -0.0026057 0.00041278
-8.1562e-05 0.0029422 -0.00096084 0.0020547
-0.0014605 -0.0013493 -0.016739 -0.020855 0.28393 0.20513 0.0007057 0.0016356
0.00053344 0.0011652 0.00019817 0.00068946
0.00015353 -0.00088858 -0.0026168 0.0004277 0.00070195 0.0016344 0.077819 0.27175
0.0095463 -0.018267 0.0016752 0.0010934
-0.0023628 0.0022514 -8.3457e-05 0.0029246 0.00051896 0.001159 0.0095419 -0.018259
0.0067954 0.23959 0.012668 -0.013092
0.001124 0.0018593 -0.0010113 0.0020053 0.00018632 0.00066321 0.0016779 0.0010933
0.012691 -0.013092 -0.022948 0.31375
1280000000 0.1734 0.26757 -0.0076237 -0.028627 -0.0020127 0.0019441 -0.0009356 -0.001998
-0.00066429 0.0030196 0.0025135 0.0015154
-0.0075896 -0.02859 -0.0027525 0.37797 -0.023587 -0.0082265 -0.0011026 0.0014462
0.0015647 0.0017751 0.00057469 0.0020405
-0.0020163 0.0019451 -0.023646 -0.008137 0.31537 0.1626 0.0014597 8.7296e-05
0.00099831 0.00027142 0.00027916 0.00044921
-0.00094069 -0.0019896 -0.0011154 0.0014652 0.0014405 9.9529e-05 0.11443 0.25491
-0.00039403 -0.020157 -0.00087432 0.00049082
-0.00068838 0.0030174 0.0015634 0.0017565 0.00097659 0.00028146 -0.00042174 -0.020159
0.043071 0.2418 0.0021103 -0.014877
0.0024623 0.0014997 0.00063859 0.0020854 0.00030778 0.00043138 -0.00092541 0.00050509
0.0020799 -0.014862 0.025206 0.31826
1340000000 0.21122 0.23363 -0.017146 -0.019213 0.00031127 0.0043105 -0.0016971 -0.00078749
0.0014743 0.0025642 0.00185 -0.0013389
-0.017114 -0.019204 0.036608 0.37037 -0.020893 0.0042756 -0.00033547 0.0021578
0.0019128 0.00099221 0.0012713 0.00082869
0.00032553 0.0043195 -0.02089 0.0043823 0.33894 0.11368 0.001095 -0.0008374
0.00065905 -0.00054263 0.00013023 0.00028954
-0.0016981 -0.00079408 -0.00032164 0.0021626 0.001086 -0.00082172 0.14682 0.23238
-0.0095873 -0.016924 0.00056521 0.0008989
0.0015277 0.0025411 0.0019102 0.00096974 0.00065527 -0.00052194 -0.0095958 -0.016869
0.073533 0.23423 -0.0043605 -0.013386
0.0018058 -0.0014276 0.0012363 0.00085007 0.0001228 0.00026705 0.00058302 0.00091062
-0.0043409 -0.013367 0.06345 0.31451
1400000000 0.24436 0.19693 -0.023365 -0.0079526 0.004789 0.0032228 -0.0020925 0.00049435
0.0023472 0.00088455 0.00040536 -0.0012613
-0.023336 -0.0079576 0.07348 0.35905 -0.014446 0.012186 0.0013978 0.0016001
0.0013886 -0.00060903 0.0011293 0.00027292
0.0047992 0.0031975 -0.014405 0.012277 0.35202 0.059427 0.00022474 -0.0014907
0.00015684 -0.00024413 0.0003957 0.00021289
-0.002088 0.00049777 0.0014191 0.0015898 0.00020821 -0.0014973 0.17429 0.20308
-0.015418 -0.0098876 -0.0010771 0.00028815
0.002354 0.00087427 0.0013775 -0.00061827 0.00016167 -0.00027123 -0.015474 -0.0098497
0.10536 0.22819 -0.010043 -0.0083077
0.0004137 -0.0013038 0.0011699 0.0002546 0.00042035 0.00026764 -0.0010397 0.00027703
-0.0099965 -0.0082712 0.10796 0.30605
1460000000 0.26875 0.15377 -0.020447 0.0044565 0.0051752 -0.00153 -0.0016561 0.0016541
0.0020891 -0.00040258 -0.00026303 -0.00093627
-0.020435 0.0044357 0.10899 0.33815 -0.005729 0.014948 0.001927 0.00027981
0.0010872 -0.0014772 0.0013043 -0.00056017
0.0051753 -0.001558 -0.0056706 0.014999 0.35895 0.0041303 -0.0010163 -0.0014786
0.00020019 -0.00033558 0.00066065 -0.00019038
-0.0016738 0.0016556 0.0019336 0.00024002 -0.0010319 -0.0014816 0.1999 0.17395
-0.016915 -0.0031864 -0.00049565 0.0026125
0.0020753 -0.00042172 0.0010961 -0.0014941 0.00018198 -0.00035083 -0.01691 -0.0031395
0.13545 0.21242 -0.012002 -0.0023601
-0.00024157 -0.00093034 0.0012892 -0.0005518 0.00064107 -0.00026381 -0.0005412 0.0025736
-0.012032 -0.0023986 0.14281 0.28629
1520000000 0.281 0.11156 -0.015047 0.0099017 0.0032504 -0.0037723 6.1434e-05 0.0026121
0.0021073 -0.0017286 -0.0010585 -0.00020696
-0.015045 0.0098752 0.14291 0.32395 0.0017556 0.012575 0.0019147 -0.00090501
7.8928e-05 -0.0012389 0.00039912 -0.00096317
0.0032411 -0.0037904 0.0018064 0.012583 0.3508 -0.054328 -0.0011641 -0.00060181
0.00054811 -0.00086769 5.3277e-05 -9.3093e-05
3.8445e-05 0.002644 0.0019143 -0.00090936 -0.0011423 -0.00060199 0.22132 0.13573
-0.016179 0.0030815 0.0017859 0.0021082
0.0020843 -0.0017212 7.4774e-05 -0.0012503 0.00056795 -0.00088831 -0.016163 0.0030972
0.16242 0.19699 -0.011348 0.0016783
-0.0010574 -0.00019796 0.00039256 -0.0010205 4.756e-05 -9.8531e-05 0.0018092 0.0021155
-0.011337 0.0016441 0.17567 0.26714
1580000000 0.29112 0.066741 -0.0085244 0.013444 -0.00089836 -0.0045443 0.0015025 0.0020531
-7.6715e-05 -0.0021083 -0.00034354 0.00039025
-0.0085232 0.013424 0.17081 0.30061 0.0051285 0.0076724 0.00057528 -0.0018235
-0.00065717 -0.0012011 -0.00020259 -0.00077991
-0.00092542 -0.004541 0.0051812 0.0076603 0.32911 -0.11089 -0.0017335 0.0004997
-0.00032982 -0.0011241 0.00015158 -0.000568
0.001518 0.0020352 0.00055704 -0.0018236 -0.0017327 0.00050324 0.23406 0.098119
-0.012587 0.0083649 0.0026728 0.00082864
-8.6356e-05 -0.0021229 -0.0006756 -0.0011787 -0.00033724 -0.0011234 -0.012572 0.0083982
0.18603 0.1793 -0.0089708 0.0072431
-0.00039304 0.00035338 -0.00022081 -0.00079829 0.00020059 -0.00058322 0.0026461 0.00079696
-0.0089812 0.0072167 0.20966 0.24289
1640000000 0.29424 0.024793 -0.0017775 0.012416 -0.0025903 -0.0022562 0.0029335 0.0010679
-0.00049905 -0.0017217 -0.000307 0.0005451
-0.0017854 0.012408 0.20208 0.27542 0.0055614 0.0029228 -0.00073309 -0.0019705
-0.0011706 -0.00040512 -0.00044604 -0.00074712
-0.0026188 -0.0022433 0.005583 0.0028996 0.29959 -0.16134 -0.00084627 0.0016378
-0.0010654 -0.00092181 -8.3491e-05 -0.00050055
0.0029377 0.0010393 -0.00075727 -0.0019753 -0.00084705 0.0016356 0.24613 0.049973
-0.0083686 0.010272 0.0027586 -0.0011173
-0.00052394 -0.0017235 -0.0011871 -0.00039823 -0.0010813 -0.00092131 -0.0083576 0.010286
0.20845 0.15292 -0.0042064 0.0092308
-0.00028331 0.00056946 -0.00045033 -0.00074018 -9.1104e-05 -0.00047922 0.0027743 -0.001089
-0.0042278 0.0092345 0.23649 0.2114
1700000000 0.28627 -0.020099 0.001855 0.0098052 -0.0031215 0.00025039 0.0031807 -0.0013279
-0.0021984 -0.00080438 0.00054517 0.00047296
0.0018479 0.0097993 0.21985 0.24446 0.0033246 0.00018314 -0.001732 -0.00055929
-0.00096959 0.0001948 -0.000847 -0.00048053
-0.0031091 0.00027011 0.0033263 0.00017448 0.25361 -0.19938 0.00041843 0.0018318
-0.0020761 -5.7029e-05 -0.00024262 -0.00074204
0.0031683 -0.0013356 -0.0017236 -0.0005376 0.00039947 0.001817 0.24244 0.0021992
-0.0047386 0.011368 0.0013836 -0.0022498
-0.0022004 -0.00078048 -0.00096568 0.00020826 -0.0020793 -7.2834e-05 -0.0047134 0.0114
0.22528 0.132 8.2159e-05 0.0090713
0.00056253 0.00047051 -0.00082538 -0.00046704 -0.0002169 -0.00076499 0.0014147 -0.0022889
0.00010811 0.0090884 0.25358 0.17831
1760000000 0.27593 -0.06838 0.0044758 0.0065811 -0.0019389 0.00085255 0.0011998 -0.0036059
-0.0016259 0.00057375 0.00034292 -0.00050007
0.0044685 0.0065692 0.24777 0.20504 0.00092273 -0.0014194 -0.0013177 0.00033793
-0.00099517 0.0011313 -0.00060327 0.0003475
-0.0019433 0.00086658 0.00091515 -0.0014221 0.20478 -0.23062 0.0014275 0.0012954
-0.0011676 0.0015864 -0.0012334 -0.00071532
0.0011812 -0.0036171 -0.0013231 0.0003204 0.0014372 0.0012876 0.23552 -0.047454
-0.00082724 0.010512 -1.3811e-05 -0.002519
-0.0016362 0.00059385 -0.00098844 0.0011357 -0.0011754 0.0015939 -0.00078336 0.010516
0.24003 0.098058 0.0037732 0.0067179
0.00030688 -0.00048212 -0.00060095 0.00038159 -0.0012647 -0.00066839 -6.6007e-05 -0.0024509
0.0037839 0.0067139 0.26773 0.14113
1820000000 0.25107 -0.10659 0.0048693 0.0028343 -9.5472e-07 0.0019979 -0.0011158 -0.0032372
-0.0012483 0.0011941 -6.999e-05 -8.0682e-05
0.0048541 0.0028431 0.25794 0.17413 -0.0011218 -0.0001246 -0.0012541 0.0010493
0.00017053 0.0012998 -0.00064708 0.00049091
2.0939e-05 0.0019976 -0.0011099 -0.00012217 0.15404 -0.24509 0.0017044 0.00013598
-9.0194e-05 0.0024939 -0.0017623 0.00025107
-0.0011422 -0.0032588 -0.0012179 0.0010665 0.0017527 0.00014232 0.2066 -0.094565
0.0017096 0.0089188 -0.0019036 -0.0017599
-0.0012546 0.0011899 0.00019614 0.0012984 -5.3339e-05 0.0025211 0.0017087 0.0089381
0.25597 0.067895 0.004391 0.003198
-4.8168e-05 -6.6114e-05 -0.00066225 0.00049073 -0.0017444 0.0001856 -0.001816 -0.0017885
0.0044079 0.0031955 0.27077 0.10507
1880000000 0.21563 -0.14599 0.0025606 0.00033561 -0.00058996 0.0021285 -0.0030331 -0.0022359
-5.435e-05 0.0019766 0.00035785 -0.00064292
0.0025701 0.00035027 0.2627 0.12843 -0.003186 0.0022759 -6.4297e-05 0.0016653
0.00086964 0.0011169 0.00012486 0.00098743
-0.00057474 0.0021395 -0.0031657 0.0023155 0.10218 -0.25106 0.0017038 -0.0013145
0.0018453 0.0017784 -0.0010782 0.0015712
-0.003017 -0.0022276 -5.2593e-05 0.0016642 0.0016635 -0.0013239 0.16838 -0.13427
0.0031748 0.0062673 -0.0021367 0.00042296
-4.3074e-05 0.0019589 0.00088418 0.0011083 0.0018427 0.0017655 0.0032134 0.0062593
0.25937 0.037265 0.0046549 0.0015307
0.00035534 -0.00063193 0.00013517 0.0010034 -0.0010619 0.0015536 -0.0021958 0.0004425
0.0046525 0.0015393 0.27157 0.072547
1940000000 0.17705 -0.17263 0.00029912 -0.0015124 0.0014191 0.0019936 -0.0037275 0.00046947
0.0016359 0.0010827 -0.00058942 -0.00074768
0.00028695 -0.0015099 0.26477 0.095798 -0.0016125 0.0048649 0.0010634 0.0011577
0.0017931 0.0001744 0.00096131 0.00020111
0.0014472 0.0019779 -0.0015701 0.004883 0.059246 -0.24324 3.3183e-05 -0.0021199
0.0023429 0.0001128 0.00029477 0.0015728
-0.0037918 0.00048318 0.0010672 0.001142 5.7187e-05 -0.0021111 0.11796 -0.16769
0.0026739 0.0042767 -0.0014324 0.0012471
0.0016262 0.0010716 0.0018046 0.00014398 0.0023723 0.00010917 0.002685 0.0041903
0.26275 -0.0019083 0.0033376 -0.0019006
-0.00058056 -0.0006754 0.00096205 0.0002143 0.0003591 0.0015776 -0.0014 0.001275
0.0032866 -0.0019057 0.26297 0.036014
2000000000 0.13001 -0.18632 -0.0035393 0.0006141 0.0028614 0.0015967 -0.0025068 0.0035805
0.0012304 5.9802e-06 -0.00077946 0.00039219
-0.003529 0.00060596 0.25019 0.060262 -0.00062145 0.007037 0.0013906 0.0001044
0.0010735 -0.0014469 0.00037137 -2.6057e-06
0.0028763 0.0015741 -0.00056018 0.0070415 0.017343 -0.22797 -0.0014511 -0.0010961
0.0017924 -0.0015274 0.0016279 0.0015719
-0.0024511 0.0036061 0.001409 0.0001315 -0.0014813 -0.0011074 0.063919 -0.17958
0.0014888 0.0027101 -1.9236e-05 0.0020071
0.0012889 1.1388e-05 0.0010948 -0.001419 0.0018296 -0.0015544 0.0015024 0.0028059
0.25744 -0.035522 0.00059073 -0.0026024
