!Keysight Technologies,M9804A,MY58100912,A.14.10.03
!Date: Thursday, April 27, 2023 10:28:33
!Correction: S11(C  6-Port  ) 
!S12(C  6-Port  ) 
!S13(C  6-Port  ) 
!S14(C  6-Port  ) 
!S15(C  6-Port  ) 
!S16(C  6-Port  ) 
!S21(C  6-Port  ) 
!S22(C  6-Port  ) 
!S23(C  6-Port  ) 
!S24(C  6-Port  ) 
!S25(C  6-Port  ) 
!S26(C  6-Port  ) 
!S31(C  6-Port  ) 
!S32(C  6-Port  ) 
!S33(C  6-Port  ) 
!S34(C  6-Port  ) 
!S35(C  6-Port  ) 
!S36(C  6-Port  ) 
!S41(C  6-Port  ) 
!S42(C  6-Port  ) 
!S43(C  6-Port  ) 
!S44(C  6-Port  ) 
!S45(C  6-Port  ) 
!S46(C  6-Port  ) 
!S51(C  6-Port  ) 
!S52(C  6-Port  ) 
!S53(C  6-Port  ) 
!S54(C  6-Port  ) 
!S55(C  6-Port  ) 
!S56(C  6-Port  ) 
!S61(C  6-Port  ) 
!S62(C  6-Port  ) 
!S63(C  6-Port  ) 
!S64(C  6-Port  ) 
!S65(C  6-Port  ) 
!S66(C  6-Port  ) 
!S6P File: Measurement: :
# Hz S  RI   R 50
500000000 -0.32732 -0.054447 -0.01088 -0.00078782 -0.0079792 0.012025 -0.0045149 0.01295
0.011642 0.0048826 -0.0041717 0.0096646
-0.010937 -0.00073601 -0.40955 -0.069304 0.007479 -0.011189 0.00086406 0.012239
0.0077761 0.0029694 0.0012148 0.013704
-0.0079748 0.012087 0.007442 -0.01117 -0.25494 0.19447 0.0067298 0.0033361
-0.00056043 0.0087931 0.0022332 0.011472
-0.0044207 0.013054 0.00091196 0.01229 0.0066806 0.0033316 -0.32901 0.045065
-0.020029 -0.0056264 0.015611 0.028398
0.011493 0.004857 0.0079221 0.003044 -0.00046351 0.0086818 -0.020254 -0.0057131
-0.25554 -0.15962 -0.028414 0.0054708
-0.0049056 0.0098712 0.00090973 0.014081 0.0020657 0.011738 0.014545 0.029032
-0.027691 0.0054462 -0.25877 -0.13954
560000000 -0.31248 0.10791 -0.022039 -0.066551 0.0013578 0.012918 0.0049482 0.011146
0.010323 0.0035126 0.0099301 0.0076596
-0.021913 -0.066563 -0.37065 0.093752 -0.041307 -0.038246 0.01325 0.0026901
-0.012726 -0.0040373 0.004566 -0.00094663
0.001267 0.012969 -0.041428 -0.0382 -0.17909 0.24336 0.00047292 -0.0049552
0.016882 0.0040263 0.0083927 -0.0058628
0.0049714 0.011091 0.013294 0.0026264 0.00043388 -0.0050086 -0.30543 0.13599
0.0035854 -0.021504 0.0048239 -0.021379
0.010322 0.0033947 -0.012861 -0.0037854 0.016997 0.0037914 0.0034435 -0.021829
-0.30544 0.018288 0.0059796 -0.047735
0.010319 0.0075023 0.0046786 -0.0010233 0.008545 -0.0060504 0.0054236 -0.021113
0.0059413 -0.048052 -0.32615 0.0024936
620000000 -0.27097 0.087161 -0.023379 0.0093945 0.0037057 0.0089166 0.0078884 -0.0035842
0.013019 -0.0026132 0.00034942 -0.0028469
-0.023355 0.0093555 -0.39928 0.040332 -0.019407 0.0010528 -0.001328 -0.0017451
0.01158 -0.0063405 0.0012644 -0.0035977
0.003666 0.0088805 -0.019462 0.0011291 -0.15269 0.2518 -0.00086209 -0.0043824
-0.0039108 -0.0034256 0.0082485 -0.0026853
0.0077159 -0.0036078 -0.0013552 -0.0016944 -0.00086643 -0.004361 -0.26339 0.14494
-0.039981 -0.017926 0.013786 0.029773
0.013078 -0.0025519 0.011646 -0.006474 -0.0038237 -0.0033142 -0.039745 -0.017686
-0.23041 -0.018092 -0.040736 0.012591
0.00032907 -0.0021868 0.0011658 -0.0030492 0.0086027 -0.0023668 0.013185 0.029157
-0.041074 0.013096 -0.24125 -0.033778
680000000 -0.23727 0.17841 -0.026545 -0.014471 0.0044977 0.0050493 0.0013666 -0.0067559
-0.0027348 -0.01091 0.0056378 -0.0065875
-0.026451 -0.014449 -0.38879 0.14253 -0.032263 -0.0011396 -0.0017071 -0.00021534
-0.0023893 -0.0095256 -0.00064731 -0.0015122
0.0045344 0.0049905 -0.032258 -0.0010579 -0.10584 0.27491 -0.00077945 -0.00045385
-0.0017812 0.00019617 -0.0027917 -0.0086993
0.0014362 -0.0070353 -0.0016558 -0.00021158 -0.00078721 -0.00050955 -0.21904 0.19909
-0.025376 -0.0057499 -0.0076778 -0.012171
-0.0028472 -0.010743 -0.0024739 -0.0094204 -0.0018516 0.00022142 -0.025176 -0.0058507
-0.26812 0.081635 -0.0068733 -0.0052453
0.0054149 -0.0069105 -0.00098556 -0.0017787 -0.0029709 -0.0087737 -0.0076778 -0.011909
-0.006918 -0.0054998 -0.2575 0.071322
740000000 -0.19069 0.1705 -0.040377 0.026539 0.013316 -0.0045153 0.00046674 -0.0040897
-0.0053524 -0.0017533 -0.0061245 0.0019697
-0.040464 0.026529 -0.33462 0.16153 -0.03596 0.034165 0.00012521 -0.0063767
-0.011805 0.0069313 -0.0009349 -0.0062688
0.013339 -0.0044521 -0.035909 0.034345 -0.072205 0.27525 -0.0021945 0.003248
-0.0023162 -0.0048178 -0.0017778 0.0011714
0.00043999 -0.0040784 0.00014045 -0.0063174 -0.0022119 0.0033439 -0.20167 0.20474
-0.040548 -0.0046072 0.022408 0.016553
-0.0053775 -0.0019712 -0.011716 0.0068238 -0.0022069 -0.004788 -0.040563 -0.0045254
-0.17728 0.10136 -0.039293 0.0030106
-0.005489 0.002332 -0.00095929 -0.0059268 -0.0018307 0.0012916 0.022491 0.016269
-0.039197 0.0032435 -0.24992 0.076939
800000000 -0.16336 0.2164 -0.022301 0.01647 0.0053211 -0.0097738 -0.0042054 -0.0021603
-0.0044493 0.001892 0.0045235 0.0010163
-0.022291 0.016461 -0.34254 0.23287 -0.0081025 0.034337 -0.0021973 0.0022106
-0.00083378 0.002434 0.0010591 0.0056482
0.0052413 -0.0097775 -0.0080162 0.034367 -0.034173 0.30134 0.00075983 0.0012977
0.0001751 0.0037494 -0.0017127 0.00061397
-0.0042511 -0.0021563 -0.0022218 0.0022364 0.0007013 0.0012723 -0.17224 0.23422
-0.027661 0.015733 0.015526 -0.010394
-0.0042858 0.001925 -0.00079373 0.0024567 0.00019838 0.0038445 -0.02767 0.0159
-0.20986 0.1313 -0.017626 0.020748
0.0039447 0.0014203 0.0010806 0.0057695 -0.0015754 0.00069483 0.015492 -0.010227
-0.018132 0.02082 -0.24835 0.12976
860000000 -0.12778 0.23744 -0.01755 0.030627 -0.0033583 -0.0096768 -0.0018069 0.0003277
0.0038755 0.0049078 -0.0035277 -0.0028428
-0.017538 0.0306 -0.29366 0.27726 0.0080302 0.033856 0.00037555 0.0020583
0.0037581 0.0010157 0.0037474 -5.6406e-05
-0.003386 -0.0096635 0.0081538 0.033833 0.015378 0.31115 -0.00034309 -0.00017273
0.0025228 -0.0012934 0.0016739 0.0041633
-0.0017623 0.00031869 0.00037122 0.0020283 -0.00031858 -0.00017262 -0.13368 0.24524
-0.016371 0.019815 -0.0074592 -0.0095107
0.0038807 0.0047799 0.0037131 0.00096533 0.0025372 -0.0013098 -0.016255 0.01981
-0.15492 0.17693 -0.021563 0.017322
-0.0034574 -0.0031038 0.0036369 -0.00012923 0.0014741 0.004101 -0.0073166 -0.0095687
-0.021503 0.016941 -0.19725 0.17587
920000000 -0.10474 0.26017 0.0050006 0.039064 -0.0088456 -0.004091 -0.0018522 0.0016965
0.00077006 0.0013891 0.0029355 -0.0010475
0.0049768 0.039009 -0.26699 0.29806 0.028209 0.022387 0.0015076 0.0011874
0.0065752 -0.00010798 0.0044993 -0.0026534
-0.0088785 -0.004085 0.028311 0.022325 0.061474 0.31235 0.0018776 1.2194e-06
0.00094939 -0.00021048 0.0010791 -0.0013578
-0.0017941 0.0017306 0.0015519 0.0012141 0.0018858 -1.1601e-06 -0.10994 0.26108
-0.008176 0.030571 0.0042504 -0.0059085
0.00083243 0.0014872 0.0065751 -7.6174e-05 0.00095948 -0.00017639 -0.0082738 0.030751
-0.14091 0.18389 -0.00091791 0.026629
0.0030007 -0.001039 0.0043476 -0.0028456 0.0012116 -0.0014194 0.0041869 -0.006041
-0.0011799 0.026388 -0.20777 0.1896
980000000 -0.05833 0.28284 0.017458 0.02993 -0.0088378 0.0045928 0.001794 0.0035496
0.0037067 -0.0016334 -0.0033702 -0.0028941
0.017411 0.029909 -0.21481 0.33547 0.032936 0.0047562 0.001944 -4.6811e-05
0.00169 -0.0058472 -0.00049594 -0.0027874
-0.0088164 0.0046107 0.032982 0.0046654 0.10811 0.3078 0.00053839 -0.0011452
0.00045468 -0.0018113 0.0014778 -0.00035563
0.0018093 0.0035286 0.0019159 -4.0493e-05 0.00053995 -0.0011386 -0.070574 0.27267
0.010399 0.02851 -0.0091092 -0.0081654
0.0037459 -0.0016128 0.0017159 -0.0058539 0.00045385 -0.0017974 0.010494 0.028485
-0.10676 0.20978 0.0069954 0.01921
-0.0033677 -0.0029297 -0.00060207 -0.0026854 0.0015433 -0.00032492 -0.0091906 -0.0080054
0.0071459 0.019464 -0.16632 0.23877
1040000000 -0.016509 0.29042 0.033204 0.01879 -0.00082526 0.0071334 0.0022438 0.0006239
0.0004263 -0.0036715 -0.00040854 -0.0014289
0.03317 0.018803 -0.17898 0.34812 0.029302 -0.014652 0.0015799 -0.0018346
-0.0019888 -0.0026934 -0.0012636 -0.0029066
-0.00080846 0.0071209 0.029303 -0.014744 0.15513 0.29362 -0.00053527 -0.0015283
-0.0015254 -0.00113 -0.00067955 -0.0011504
0.002278 0.00059904 0.0015465 -0.0018126 -0.00052897 -0.0015306 -0.042184 0.28107
0.021031 0.016528 -0.0015909 0.0012336
0.00040129 -0.0037018 -0.0020604 -0.0026406 -0.0015115 -0.0011486 0.020981 0.016443
-0.074092 0.21507 0.014052 0.017492
-0.00036481 -0.0012722 -0.0012284 -0.0028224 -0.00069559 -0.001155 -0.0015275 0.0011445
0.014349 0.017548 -0.14488 0.25958
1100000000 0.027657 0.30057 0.036287 -0.0039841 0.0033608 0.0037318 0.0023387 -0.00098471
-0.002264 -0.0026527 -0.0039546 -0.00027459
0.036272 -0.0039648 -0.13681 0.36763 0.015095 -0.027563 -6.132e-05 -0.0018372
-0.0033386 -0.00074211 -0.0035951 -0.00083219
0.0033743 0.0037021 0.015005 -0.027641 0.20065 0.27436 -0.0017943 0.0001718
-0.0016361 0.00055803 -0.0011328 -0.00051456
0.0023264 -0.0009916 -6.7125e-05 -0.0018368 -0.0017816 0.00017832 -0.0020453 0.28572
0.024813 0.0026355 -0.002151 -0.00049677
-0.0022566 -0.002642 -0.0033531 -0.0007293 -0.0016379 0.00057565 0.024876 0.0026628
-0.053384 0.22652 0.019262 0.0070775
-0.0040137 -0.00027127 -0.0037406 -0.00082606 -0.0011378 -0.00051698 -0.0021409 -0.00051775
0.019047 0.0069693 -0.10062 0.29294
1160000000 0.079857 0.29732 0.0243 -0.020528 0.0030643 -0.00082737 -0.00021964 -0.0021954
-0.0040107 -0.00077905 -0.0011491 0.0042485
0.024316 -0.020497 -0.091538 0.37227 -0.0037467 -0.028601 -0.0015911 -0.0015792
-0.0026664 0.0023838 -0.0015239 0.0019025
0.0030711 -0.00084819 -0.0038486 -0.028597 0.24506 0.24416 -0.00072814 0.0016019
-0.00049961 0.0017186 -0.00091602 0.00025096
-0.0002386 -0.0022114 -0.0016206 -0.0015918 -0.00073396 0.0015944 0.038725 0.282
0.020306 -0.012121 -0.0038021 0.0042928
-0.0039691 -0.00073169 -0.0027161 0.0023805 -0.00047458 0.0017339 0.020359 -0.012188
-0.018185 0.23414 0.018023 -0.0018123
-0.00095945 0.0043883 -0.0014486 0.0019636 -0.00088808 0.00022381 -0.0037013 0.0044336
0.018309 -0.0015003 -0.051859 0.29601
1220000000 0.12309 0.28662 0.010984 -0.029994 -0.0014341 -0.0013532 0.00014914 -0.00093684
-0.0024064 0.0022451 0.0013165 0.0018936
0.010989 -0.029942 -0.04896 0.38534 -0.016623 -0.0209 -0.002582 0.00041188
-8.9226e-05 0.0029385 -0.00087884 0.0020315
-0.0014462 -0.0013447 -0.016731 -0.020849 0.28399 0.20511 0.00071177 0.0016574
0.00052451 0.0011666 0.00015072 0.0006125
0.00014769 -0.00094223 -0.0025835 0.00043504 0.00071069 0.0016593 0.077866 0.27175
0.0095945 -0.018348 0.0016137 0.0010869
-0.0024168 0.0022251 -9.161e-05 0.002953 0.00049657 0.0011541 0.0095144 -0.018336
0.00683 0.23965 0.0127 -0.013089
0.0011665 0.0018032 -0.00096632 0.001984 0.00018775 0.00069792 0.00162 0.0010804
0.01263 -0.013244 -0.022965 0.31377
1280000000 0.17358 0.26743 -0.0075945 -0.028618 -0.0020318 0.0019515 -0.00094791 -0.0019378
-0.0007736 0.00308 0.0025031 0.0013995
-0.0075505 -0.028579 -0.0027117 0.37793 -0.023565 -0.0081885 -0.00111 0.0014433
0.0015604 0.0018423 0.0006119 0.0020665
-0.0020053 0.0019554 -0.023643 -0.0080993 0.31539 0.16257 0.0014584 6.4167e-05
0.00095889 0.00033856 0.00031246 0.00043962
-0.00096341 -0.0019331 -0.0010971 0.001444 0.0014545 5.5072e-05 0.11445 0.25488
-0.00047526 -0.020171 -0.00089166 0.00033831
-0.00070684 0.0030888 0.0016113 0.0017639 0.00098812 0.00030741 -0.00046168 -0.020123
0.043247 0.24193 0.002165 -0.01502
0.0025259 0.0014432 0.00067131 0.0020941 0.00032116 0.00039316 -0.0009021 0.00042887
0.0020653 -0.014844 0.025428 0.31843
1340000000 0.21126 0.23354 -0.017133 -0.019151 0.0002795 0.0043136 -0.0017004 -0.00080215
0.0015067 0.0025931 0.0017413 -0.0014457
-0.017112 -0.019151 0.036643 0.37037 -0.020886 0.004265 -0.00034767 0.002148
0.0019065 0.00095574 0.0011954 0.00080478
0.00028938 0.0043161 -0.020887 0.0043639 0.33897 0.11369 0.0010625 -0.00078888
0.00059691 -0.00049556 0.00015956 0.00019838
-0.0016905 -0.00079116 -0.00032517 0.0021589 0.0010685 -0.00077291 0.14689 0.23238
-0.0094757 -0.016904 0.00044886 0.00096167
0.0014905 0.0025788 0.0019119 0.00097313 0.00061328 -0.00051375 -0.0095845 -0.016909
0.07345 0.2342 -0.0041769 -0.013255
0.0017785 -0.0014691 0.0011856 0.00078688 0.00010268 0.00027966 0.00053086 0.00095923
-0.0042879 -0.013405 0.063515 0.31419
1400000000 0.24435 0.19674 -0.023313 -0.0079575 0.0047754 0.0031904 -0.0020939 0.00047363
0.0023541 0.00088607 0.00052538 -0.0013897
-0.023291 -0.0079719 0.073573 0.35906 -0.01442 0.012174 0.0014088 0.0016099
0.0013905 -0.0006017 0.0011628 0.00022955
0.0047883 0.003181 -0.014382 0.012259 0.35206 0.059406 0.00022073 -0.0014834
0.00017111 -0.00030057 0.00034434 0.00033899
-0.0020771 0.00048179 0.0014107 0.0016009 0.00022528 -0.0014933 0.1743 0.2031
-0.015502 -0.0099472 -0.00096003 0.00030259
0.0023779 0.00086948 0.001375 -0.00063252 0.00017826 -0.00029373 -0.015491 -0.0099024
0.10555 0.22813 -0.010193 -0.0083138
0.00045604 -0.0013524 0.0011619 0.00023045 0.00041145 0.00023425 -0.001061 0.00023345
-0.010104 -0.0081291 0.10835 0.30608
1460000000 0.26865 0.15373 -0.020414 0.0044517 0.0052061 -0.0014869 -0.0016419 0.001617
0.0020639 -0.00037988 -0.00021608 -0.00086202
-0.020395 0.0044342 0.10901 0.33817 -0.005737 0.01497 0.0019609 0.0003032
0.0011046 -0.0014599 0.0012832 -0.00049152
0.0052016 -0.0015074 -0.0056656 0.015014 0.35896 0.0040604 -0.0010442 -0.001467
0.00019925 -0.00030724 0.00074894 -0.00031392
-0.0016414 0.0016164 0.0019718 0.00029951 -0.0010457 -0.0014722 0.19993 0.17393
-0.016877 -0.0030712 -0.00051331 0.0023989
0.0020775 -0.00044517 0.0011089 -0.0014553 0.0002247 -0.00030667 -0.016903 -0.0031178
0.13538 0.21237 -0.011742 -0.0021833
-0.00021676 -0.00090287 0.0012908 -0.00053439 0.0006148 -0.00027926 -0.00053378 0.002566
-0.011789 -0.0023223 0.1427 0.28593
1520000000 0.28088 0.11154 -0.01503 0.009868 0.0032547 -0.0037736 6.4641e-05 0.0026183
0.0020781 -0.0017196 -0.0010747 -0.00020082
-0.01503 0.0098526 0.14298 0.32396 0.0017458 0.012558 0.0018932 -0.00090736
8.6878e-05 -0.0012264 0.00040549 -0.00099802
0.003242 -0.0037851 0.0018278 0.012573 0.35081 -0.054351 -0.0011203 -0.00057215
0.00053519 -0.00082157 0.00013278 -0.00012894
7.9032e-05 0.0026173 0.0018888 -0.00092022 -0.0011161 -0.00054697 0.22135 0.13575
-0.016151 0.0029771 0.0017492 0.0021543
0.0020956 -0.0017247 7.7174e-05 -0.0012198 0.00053944 -0.0008243 -0.016121 0.0030573
0.1625 0.19698 -0.011379 0.0017516
-0.0010609 -0.00019123 0.00035883 -0.0010012 0.0001358 -0.00011882 0.0017799 0.0020854
-0.011335 0.0017857 0.17577 0.26707
1580000000 0.29108 0.066866 -0.0085303 0.013422 -0.00093966 -0.0045221 0.0014517 0.0020508
-0.00012829 -0.0020832 -0.00032781 0.00030856
-0.0085311 0.013402 0.17089 0.3006 0.0051574 0.007688 0.00058861 -0.0018422
-0.00065789 -0.0011856 -0.00021777 -0.00080387
-0.00095398 -0.0045247 0.0051999 0.0076734 0.3292 -0.11094 -0.0016908 0.00045991
-0.00031941 -0.0011876 0.00023217 -0.00049915
0.0014576 0.0020369 0.00059011 -0.0018407 -0.0017071 0.00044285 0.23409 0.098066
-0.012636 0.0083809 0.0027224 0.00077912
-0.00014836 -0.0021397 -0.00065589 -0.0011821 -0.0003124 -0.0011542 -0.012589 0.0083971
0.18598 0.17923 -0.0089752 0.0074204
-0.00038326 0.00038379 -0.0002192 -0.00077814 0.00016407 -0.00056153 0.0026222 0.00076496
-0.0088991 0.0073377 0.20966 0.24285
1640000000 0.29428 0.024868 -0.0017601 0.012405 -0.0026059 -0.0022368 0.0029498 0.0010779
-0.0004952 -0.0016979 -0.00025078 0.00061326
-0.0017663 0.012397 0.20215 0.2754 0.005553 0.0029502 -0.00077965 -0.0019675
-0.0011502 -0.00042473 -0.00042784 -0.00072409
-0.0026154 -0.0022406 0.0055761 0.002916 0.29959 -0.16139 -0.00088048 0.0016022
-0.0010546 -0.00093804 -8.7337e-05 -0.00051115
0.0029518 0.0010586 -0.00079291 -0.0019742 -0.00088441 0.0015804 0.2462 0.050062
-0.0083371 0.010345 0.0027397 -0.001106
-0.00047369 -0.0016895 -0.0011723 -0.00040945 -0.001052 -0.00092933 -0.0083608 0.01033
0.2086 0.15307 -0.0041654 0.0090976
-0.00025067 0.00055203 -0.00045513 -0.00072704 -0.00012952 -0.00048151 0.0027703 -0.0010649
-0.0042384 0.0091122 0.23668 0.21136
1700000000 0.28639 -0.020068 0.001874 0.0098291 -0.0031327 0.00026286 0.0031507 -0.0013071
-0.0021669 -0.00084667 0.00059523 0.00043913
0.0018622 0.0098276 0.21991 0.24442 0.0033083 0.00018192 -0.001732 -0.0005651
-0.00096482 0.00017804 -0.00081448 -0.0004777
-0.0031156 0.0002854 0.0033148 0.00016493 0.25365 -0.1995 0.0004337 0.0019075
-0.0020517 -8.801e-05 -0.00027341 -0.00069097
0.0031367 -0.0013462 -0.0017297 -0.00055179 0.0004292 0.0018982 0.24252 0.0021033
-0.0047273 0.0113 0.0014804 -0.0021751
-0.0021793 -0.00082181 -0.00095485 0.00018503 -0.0020239 -4.8058e-05 -0.0046673 0.01138
0.22542 0.13194 0.0001682 0.009171
0.00058122 0.00048878 -0.00081384 -0.00046203 -0.00026157 -0.00082219 0.0014136 -0.0023233
0.00019834 0.009097 0.25331 0.17818
1760000000 0.27609 -0.068437 0.004463 0.0065581 -0.0019849 0.00082637 0.0012315 -0.0035578
-0.0016019 0.00055582 0.0003279 -0.00045854
0.0044593 0.0065591 0.2478 0.20496 0.00091085 -0.0014104 -0.0013271 0.00036737
-0.00098677 0.0011407 -0.00060156 0.0003575
-0.0019578 0.00082784 0.00090946 -0.0014158 0.20473 -0.23058 0.0014642 0.001259
-0.0011554 0.001662 -0.0012216 -0.00071315
0.0012213 -0.0035481 -0.0013147 0.00037704 0.0014714 0.0012411 0.23558 -0.047545
-0.00077425 0.010495 -0.0001984 -0.0025553
-0.0015973 0.0006241 -0.00098807 0.0011685 -0.0011315 0.0016182 -0.00077188 0.010437
0.24014 0.098099 0.003848 0.0066406
0.0003423 -0.00053769 -0.00059366 0.00031933 -0.0012505 -0.00068315 -0.00014116 -0.0023794
0.0038024 0.0066547 0.26802 0.14114
1820000000 0.25117 -0.10669 0.0048507 0.0028511 3.7371e-05 0.0020575 -0.0011177 -0.0032476
-0.0013364 0.0011797 -0.0001746 -4.0521e-05
0.004834 0.0028362 0.25796 0.17405 -0.001117 -8.0622e-05 -0.0012709 0.001085
0.00017179 0.0013138 -0.00070287 0.00042326
3.7027e-05 0.0020502 -0.0011407 -7.0853e-05 0.15397 -0.24499 0.0017411 0.00024782
-1.8189e-05 0.0025653 -0.0017216 0.00020388
-0.0011313 -0.0032448 -0.0012621 0.0011083 0.0017484 0.00026985 0.20656 -0.094563
0.0017025 0.0089318 -0.0017644 -0.0016735
-0.00132 0.0011812 0.00014987 0.0013029 -5.7285e-05 0.0025592 0.0016741 0.0090038
0.25614 0.067894 0.0044562 0.003162
-0.00013487 -3.8039e-05 -0.00064497 0.00046191 -0.0016602 8.0546e-05 -0.0018337 -0.0017951
0.0044142 0.0031886 0.27087 0.10493
1880000000 0.21571 -0.14616 0.0025675 0.00033027 -0.00062389 0.0021246 -0.0029356 -0.0022577
-4.6702e-05 0.0019231 0.00035136 -0.00057952
0.0025777 0.00033993 0.26272 0.12833 -0.0031949 0.0022883 -4.1955e-05 0.0016668
0.00084655 0.0010841 6.054e-05 0.0010143
-0.00061809 0.002122 -0.0031965 0.0023036 0.10221 -0.2512 0.0016055 -0.0013242
0.0017768 0.0017219 -0.0011156 0.0016077
-0.0029641 -0.0022237 -4.1237e-05 0.0016763 0.0015973 -0.0013198 0.16835 -0.13455
0.0031887 0.0061751 -0.0021609 0.00032261
5.2014e-06 0.0019869 0.00089544 0.0011078 0.0017876 0.0017451 0.0032758 0.0061077
0.25957 0.037118 0.0045772 0.0014413
0.00043643 -0.0005985 0.00014491 0.00099788 -0.0011126 0.0015829 -0.002123 0.00045431
0.0045807 0.0014017 0.27156 0.072646
1940000000 0.17697 -0.1728 0.00027487 -0.0015275 0.0014231 0.0019907 -0.0037577 0.00041615
0.0016462 0.0011151 -0.00056566 -0.00067635
0.00026923 -0.0015157 0.26475 0.095717 -0.001563 0.0048601 0.001052 0.0011484
0.0018481 0.00019289 0.00091531 0.00019489
0.0014443 0.0019942 -0.0015383 0.0048798 0.059282 -0.24322 3.5516e-05 -0.0021366
0.0023731 0.00014578 0.00026838 0.0015568
-0.0037416 0.0004235 0.0010656 0.0011638 -3.4556e-06 -0.0021447 0.11783 -0.16775
0.0027455 0.0041403 -0.0012784 0.0015027
0.0016246 0.001092 0.001813 0.00019046 0.0023164 8.767e-05 0.0026645 0.0041931
0.26293 -0.0021858 0.0033874 -0.0018407
-0.00064489 -0.00066363 0.00092975 0.00022027 0.00035007 0.0016274 -0.0012575 0.0013903
0.0033666 -0.0018102 0.26284 0.035831
2000000000 0.12983 -0.1865 -0.0035593 0.00061685 0.0028341 0.0016059 -0.0024954 0.0035427
0.0012702 -8.8679e-05 -0.00077256 0.00043844
-0.0035555 0.0005963 0.25016 0.060168 -0.00059256 0.0070163 0.0013845 0.00015186
0.0010943 -0.0014409 0.00042212 5.4822e-05
0.0028322 0.0015761 -0.00054482 0.0070201 0.017351 -0.22801 -0.0013894 -0.00098362
0.0018385 -0.0014875 0.0016855 0.0015046
-0.0024958 0.0035621 0.0013816 0.00014118 -0.001352 -0.00099788 0.064004 -0.1796
0.0013192 0.0028123 7.3179e-05 0.0019513
0.0012693 -4.2113e-05 0.0010818 -0.0014354 0.0018929 -0.0014626 0.0014595 0.0028456
0.25735 -0.035638 0.00046875 -0.0025855
