!Keysight Technologies,M9804A,MY58100912,A.14.10.03
!Date: Thursday, April 27, 2023 10:28:33
!Correction: S11(C  6-Port  ) 
!S12(C  6-Port  ) 
!S13(C  6-Port  ) 
!S14(C  6-Port  ) 
!S15(C  6-Port  ) 
!S16(C  6-Port  ) 
!S21(C  6-Port  ) 
!S22(C  6-Port  ) 
!S23(C  6-Port  ) 
!S24(C  6-Port  ) 
!S25(C  6-Port  ) 
!S26(C  6-Port  ) 
!S31(C  6-Port  ) 
!S32(C  6-Port  ) 
!S33(C  6-Port  ) 
!S34(C  6-Port  ) 
!S35(C  6-Port  ) 
!S36(C  6-Port  ) 
!S41(C  6-Port  ) 
!S42(C  6-Port  ) 
!S43(C  6-Port  ) 
!S44(C  6-Port  ) 
!S45(C  6-Port  ) 
!S46(C  6-Port  ) 
!S51(C  6-Port  ) 
!S52(C  6-Port  ) 
!S53(C  6-Port  ) 
!S54(C  6-Port  ) 
!S55(C  6-Port  ) 
!S56(C  6-Port  ) 
!S61(C  6-Port  ) 
!S62(C  6-Port  ) 
!S63(C  6-Port  ) 
!S64(C  6-Port  ) 
!S65(C  6-Port  ) 
!S66(C  6-Port  ) 
!S6P File: Measurement: :
# Hz S  RI   R 50
500000000 -0.3272 -0.053947 -0.010988 -0.00053734 -0.0079273 0.012191 -0.0036924 0.013168
0.011245 0.0053562 -0.002993 0.0097925
-0.011029 -0.00058225 -0.40923 -0.069474 0.0075041 -0.011208 0.0011987 0.012523
0.0078826 0.0027743 0.0020991 0.013517
-0.0077749 0.012144 0.00754 -0.011298 -0.25488 0.19439 0.0067451 0.0032561
-0.00061116 0.0090485 0.002215 0.010941
-0.0039456 0.013226 0.0010007 0.012284 0.0068298 0.0033939 -0.32882 0.044715
-0.019827 -0.005433 0.01479 0.027592
0.011275 0.0051084 0.0078865 0.0032469 -0.00061655 0.0085786 -0.020031 -0.0049784
-0.25641 -0.15991 -0.02818 0.0067371
-0.0039564 0.010458 0.0013168 0.014016 0.0022563 0.011797 0.015232 0.028822
-0.027637 0.0060445 -0.25931 -0.14312
560000000 -0.31321 0.10837 -0.022274 -0.066187 0.00093453 0.012822 0.0048913 0.011242
0.010162 0.0039658 0.010866 0.0082838
-0.022314 -0.066158 -0.37029 0.0941 -0.041529 -0.03837 0.013034 0.0030759
-0.013666 -0.0034737 0.0043205 0.00071371
0.00096775 0.012991 -0.041823 -0.038267 -0.17896 0.2434 0.0003973 -0.0050062
0.017646 0.0032634 0.0071778 -0.0065725
0.0048074 0.011072 0.01373 0.0032353 2.6749e-05 -0.0050979 -0.30548 0.13618
0.0024197 -0.021235 0.0061781 -0.020639
0.010387 0.003468 -0.012641 -0.0042904 0.017108 0.0040315 0.0033372 -0.021618
-0.30064 0.017308 0.0076278 -0.049357
0.0096859 0.0076569 0.0046913 -0.00012777 0.0081488 -0.0062849 0.0053628 -0.021382
0.0057335 -0.046834 -0.32505 0.0048609
620000000 -0.27101 0.086931 -0.023456 0.009384 0.0036192 0.0087072 0.0086177 -0.0036411
0.011296 -0.0023271 0.00076797 -0.0027251
-0.023431 0.0092699 -0.3992 0.040361 -0.019399 0.00095576 -0.0012101 -0.0017981
0.011018 -0.00629 0.0016352 -0.0034526
0.0035382 0.0087474 -0.019418 0.0009875 -0.15264 0.25174 -0.00080687 -0.0043891
-0.0036023 -0.0028909 0.0088565 -0.0036892
0.0077949 -0.0036569 -0.0013836 -0.0019014 -0.00074329 -0.0045253 -0.26292 0.14477
-0.040301 -0.017674 0.011948 0.029376
0.01342 -0.0024936 0.011597 -0.0061446 -0.00399 -0.0030333 -0.040169 -0.017086
-0.22987 -0.018253 -0.038873 0.013578
8.3268e-05 -0.0025129 0.0011851 -0.0036196 0.0085098 -0.0026804 0.014109 0.029133
-0.042328 0.014506 -0.24163 -0.03619
680000000 -0.23683 0.17821 -0.026346 -0.014349 0.0046616 0.0051886 0.0013004 -0.0067399
-0.0020837 -0.011421 0.0054929 -0.0061404
-0.02631 -0.014391 -0.38879 0.14275 -0.032267 -0.0010555 -0.0017165 -0.00016912
-0.0023231 -0.0094077 -0.0010212 -0.0012391
0.0046569 0.0051233 -0.03233 -0.00098054 -0.10589 0.27502 -0.0009072 -0.00029997
-0.0017966 0.00029828 -0.0028844 -0.0088297
0.0013046 -0.0069416 -0.0018262 -0.00038496 -0.00099048 -0.00035132 -0.21965 0.19862
-0.024818 -0.0055289 -0.008008 -0.012086
-0.002973 -0.010791 -0.0023167 -0.0094434 -0.0017339 0.00023967 -0.02541 -0.0057531
-0.26897 0.081524 -0.0067539 -0.0049245
0.005534 -0.006618 -0.00070755 -0.0013587 -0.0029738 -0.00879 -0.0087977 -0.011882
-0.0065865 -0.0058211 -0.26057 0.075052
740000000 -0.1906 0.17058 -0.04038 0.026952 0.013095 -0.0045901 0.00027376 -0.0041825
-0.0047061 -0.0015447 -0.0057809 0.002538
-0.040395 0.026829 -0.33513 0.16144 -0.035929 0.034002 4.5942e-05 -0.0067471
-0.013111 0.0071046 -0.00071783 -0.0066773
0.013078 -0.0044796 -0.035747 0.033948 -0.072068 0.27522 -0.0019107 0.0032764
-0.002216 -0.0047997 -0.0013577 0.0011777
0.00030303 -0.0040551 -6.6954e-06 -0.0065878 -0.0019657 0.0032318 -0.20129 0.20489
-0.041437 -0.0053631 0.022971 0.016957
-0.0051685 -0.0020436 -0.011295 0.0074836 -0.002606 -0.0050096 -0.040749 -0.0047666
-0.17715 0.10214 -0.04088 0.0012246
-0.0058797 0.0021608 -0.0010893 -0.0064785 -0.0016417 0.0013557 0.022824 0.016618
-0.040594 0.0020756 -0.25012 0.077184
800000000 -0.16335 0.21625 -0.022354 0.016453 0.0053325 -0.0098445 -0.0040677 -0.0022307
-0.004604 0.0024702 0.004411 0.00114
-0.022325 0.016449 -0.34251 0.23294 -0.008171 0.034288 -0.0021576 0.0020408
-0.00099991 0.0028546 0.00079576 0.0055626
0.0052448 -0.00982 -0.0080162 0.03435 -0.034164 0.30132 0.00067538 0.0014115
0.00018919 0.0035632 -0.0017558 0.0010702
-0.0040753 -0.0023832 -0.0022169 0.0022522 0.0006679 0.0013139 -0.17249 0.23403
-0.027425 0.015525 0.014399 -0.0097546
-0.004548 0.0019318 -0.00082274 0.0024375 0.00015168 0.0036853 -0.027373 0.015733
-0.2098 0.1327 -0.016132 0.019823
0.0044247 0.0011843 0.0010299 0.0057642 -0.0017849 0.00079374 0.015086 -0.010392
-0.016845 0.020863 -0.25069 0.13014
860000000 -0.12758 0.23749 -0.01753 0.030674 -0.0033703 -0.0097047 -0.0017436 0.00040784
0.0037207 0.0049688 -0.00381 -0.0035357
-0.017528 0.030645 -0.2937 0.27726 0.0080595 0.033827 0.0004076 0.0020358
0.0035772 0.00066027 0.0035915 2.7068e-05
-0.0034056 -0.0097172 0.0081435 0.03388 0.015367 0.31114 -0.00027852 -0.00017908
0.0025543 -0.0011416 0.0014068 0.0040936
-0.001644 0.00034649 0.00030767 0.0020472 -0.00030589 -0.00012557 -0.13373 0.24523
-0.016046 0.020253 -0.0069164 -0.009942
0.0040823 0.0047673 0.0039078 0.0009914 0.0024791 -0.0013062 -0.016116 0.019896
-0.15512 0.17778 -0.021502 0.017003
-0.0036373 -0.0030843 0.0036202 -0.00010013 0.0016352 0.0039819 -0.0067757 -0.0091388
-0.021994 0.016634 -0.19629 0.17722
920000000 -0.10473 0.26021 0.0050262 0.039099 -0.0088689 -0.0041577 -0.001804 0.0018448
0.0010555 0.0015388 0.0030424 -0.00096908
0.0050027 0.039066 -0.26699 0.29813 0.028185 0.022402 0.0015837 0.0011174
0.0072193 3.1074e-05 0.004063 -0.0029236
-0.0088648 -0.0041381 0.028268 0.022334 0.061466 0.31236 0.0018716 3.2981e-05
0.00080731 -0.00016988 0.0011187 -0.0014449
-0.0018665 0.0017423 0.001574 0.0011636 0.0018828 -8.2657e-06 -0.10993 0.26095
-0.008418 0.030693 0.004474 -0.0062238
0.00082341 0.0013847 0.0065345 -4.9143e-05 0.0010436 -0.00024326 -0.0081896 0.030928
-0.14092 0.18347 -0.00091529 0.027284
0.0029675 -0.0010193 0.0044477 -0.0027296 0.0011716 -0.0013964 0.0042338 -0.0060588
-0.0012162 0.02707 -0.20831 0.18859
980000000 -0.058383 0.28274 0.017413 0.02989 -0.0088132 0.0045839 0.0018192 0.0035098
0.003558 -0.001395 -0.0034765 -0.0030232
0.017392 0.029927 -0.21489 0.33554 0.032927 0.004761 0.0019539 -6.3371e-05
0.0016014 -0.0057052 -0.0003761 -0.0028426
-0.0088184 0.0046245 0.032955 0.0046891 0.10811 0.3078 0.00059773 -0.0011565
0.00048865 -0.0018412 0.0015687 -0.0003849
0.0017977 0.0034723 0.0019217 -5.2029e-05 0.00057008 -0.0011468 -0.070553 0.27285
0.010455 0.02838 -0.0091675 -0.007518
0.0037954 -0.0015424 0.0017233 -0.0058583 0.00047018 -0.0018261 0.010516 0.028425
-0.10694 0.21048 0.0070615 0.018084
-0.0035751 -0.0030241 -0.00073365 -0.0026781 0.001563 -0.00033181 -0.0090805 -0.0078319
0.0071095 0.018325 -0.16639 0.23972
1040000000 -0.016486 0.29035 0.033187 0.018742 -0.00084579 0.0071317 0.0022869 0.00069199
0.00022525 -0.0037033 -5.0182e-05 -0.0015997
0.033161 0.018788 -0.17898 0.34807 0.029257 -0.014645 0.0015967 -0.0018595
-0.0019626 -0.0025914 -0.0010059 -0.0029283
-0.00079182 0.0070899 0.029277 -0.01476 0.15511 0.29363 -0.00051294 -0.0015053
-0.0015424 -0.0010842 -0.00065056 -0.0012362
0.0022295 0.00064801 0.0015253 -0.0018337 -0.00052964 -0.0015043 -0.042202 0.28106
0.020886 0.016267 -0.0014404 0.0012866
0.00032804 -0.0037237 -0.0019734 -0.0026404 -0.0015364 -0.0011488 0.020973 0.016559
-0.073857 0.21508 0.014286 0.017528
-0.00021912 -0.0014459 -0.001197 -0.0030351 -0.00068935 -0.0011524 -0.0014679 0.0010949
0.014282 0.017419 -0.14487 0.25898
1100000000 0.027641 0.30073 0.036231 -0.0039164 0.0033386 0.0037251 0.0023232 -0.00096547
-0.0022008 -0.002821 -0.0039899 -0.00016169
0.036223 -0.0038703 -0.13683 0.36769 0.015077 -0.027574 -2.9854e-05 -0.0018064
-0.0034302 -0.0008577 -0.0036957 -0.00064862
0.0033912 0.0037114 0.014997 -0.027636 0.20067 0.27436 -0.0017983 0.00018393
-0.0017611 0.00063817 -0.0010815 -0.00050089
0.0023081 -0.0010296 -4.7172e-05 -0.0018747 -0.001801 0.00016904 -0.0021478 0.28578
0.024959 0.0027944 -0.0020383 -0.00064735
-0.0022546 -0.0026644 -0.0032943 -0.00075275 -0.0016594 0.00055871 0.024838 0.0025874
-0.053796 0.22719 0.019831 0.0074176
-0.0040224 -0.00035767 -0.00368 -0.0007988 -0.0011492 -0.00047727 -0.0022714 -0.00047713
0.019685 0.0073044 -0.10091 0.29253
1160000000 0.07985 0.29727 0.024307 -0.020484 0.0030517 -0.00082489 -0.00020902 -0.0021491
-0.0039466 -0.00080211 -0.0011195 0.0040869
0.02431 -0.020462 -0.091585 0.37228 -0.0037528 -0.028593 -0.0015986 -0.0014969
-0.002565 0.002366 -0.0016657 0.0018283
0.0030684 -0.00086568 -0.0038562 -0.028598 0.24506 0.24419 -0.00072284 0.0015991
-0.00046403 0.0016294 -0.00093667 0.00035454
-0.00027361 -0.0021787 -0.0015445 -0.0015529 -0.00071474 0.0016175 0.038772 0.28196
0.020417 -0.012212 -0.0038704 0.0046485
-0.0040282 -0.00074922 -0.0027083 0.002393 -0.00048947 0.00174 0.020357 -0.012107
-0.017667 0.23396 0.017368 -0.0016716
-0.00092217 0.004435 -0.0014759 0.0020013 -0.00084516 0.0001745 -0.0038207 0.004431
0.017325 -0.0017125 -0.051381 0.29622
1220000000 0.12316 0.28664 0.010978 -0.029986 -0.001434 -0.0013475 0.00012777 -0.00095091
-0.0025028 0.0021012 0.0011763 0.0018965
0.010995 -0.029954 -0.04895 0.38529 -0.016635 -0.020915 -0.0026411 0.00038617
-0.00015681 0.0028578 -0.00087841 0.0019958
-0.0014578 -0.0013537 -0.016732 -0.020835 0.28401 0.2051 0.00071684 0.0016604
0.00050911 0.0011251 0.00018706 0.00060666
0.00015781 -0.00095949 -0.0026048 0.00039112 0.00072052 0.001636 0.07789 0.27183
0.0095425 -0.018306 0.001735 0.0011316
-0.0024132 0.00223 -8.3311e-05 0.0029137 0.00051574 0.0011657 0.0095261 -0.01832
0.006722 0.23954 0.012726 -0.012985
0.0011519 0.0018252 -0.00098559 0.002018 0.0001762 0.0007077 0.0017021 0.0010442
0.012751 -0.013079 -0.022973 0.31413
1280000000 0.17355 0.26746 -0.0076068 -0.028575 -0.0020121 0.0019825 -0.00092461 -0.0019411
-0.00069352 0.0030728 0.0025897 0.0012427
-0.0075922 -0.028547 -0.0026916 0.37795 -0.02354 -0.0081664 -0.0010901 0.0014176
0.0016725 0.0018918 0.00062877 0.0020282
-0.0020008 0.0019995 -0.023624 -0.008089 0.31543 0.16258 0.0014365 9.4496e-05
0.0010196 0.00029687 0.00023756 0.00037928
-0.00095862 -0.0019096 -0.0010781 0.0014603 0.0014796 6.4582e-05 0.11441 0.25494
-0.00025725 -0.020163 -0.00093021 0.0003139
-0.00077458 0.0030385 0.001623 0.0018312 0.0009837 0.00032062 -0.00048512 -0.020151
0.043389 0.24202 0.0019153 -0.015311
0.0026013 0.0014362 0.00063828 0.0020374 0.00038705 0.0003679 -0.00083986 0.0003367
0.0018785 -0.015193 0.025151 0.31872
1340000000 0.21129 0.23351 -0.017149 -0.019177 0.00027105 0.0043336 -0.0016783 -0.00078631
0.0014613 0.0025294 0.0018537 -0.001322
-0.017122 -0.019172 0.036675 0.37035 -0.02088 0.0042728 -0.00029539 0.0021492
0.0018558 0.00093321 0.0011846 0.00087148
0.00028846 0.0043398 -0.020871 0.0043936 0.33897 0.1137 0.0010877 -0.00081809
0.00056801 -0.00044541 0.00020072 0.0001831
-0.001679 -0.00081144 -0.00033095 0.0021374 0.0010641 -0.00079937 0.14686 0.23236
-0.0095775 -0.016869 0.00050594 0.0010454
0.0015182 0.0025501 0.0019192 0.0009406 0.00060744 -0.00050428 -0.0095817 -0.01686
0.073383 0.234 -0.0043578 -0.013138
0.00177 -0.001494 0.0012747 0.00082085 0.00012623 0.00023506 0.00048614 0.00097245
-0.0042327 -0.013117 0.063335 0.31434
1400000000 0.24433 0.19676 -0.023304 -0.0079682 0.0047838 0.003202 -0.0020945 0.00054417
0.002369 0.00091919 0.00042148 -0.0013435
-0.023276 -0.0079713 0.073615 0.35907 -0.014419 0.012174 0.0013791 0.0016508
0.0014465 -0.00060118 0.0011701 0.00024088
0.0047759 0.0031885 -0.014385 0.012261 0.35204 0.059414 0.00022829 -0.0014691
0.00019673 -0.00025372 0.00037933 0.00020523
-0.0020695 0.00047228 0.0014069 0.001604 0.00025115 -0.001482 0.17426 0.20305
-0.015487 -0.0099772 -0.0010221 0.00028001
0.0023369 0.00087744 0.0013696 -0.00062664 0.0001621 -0.00028358 -0.015546 -0.009945
0.10551 0.22816 -0.010171 -0.0083639
0.00050544 -0.0013532 0.0011322 0.00022155 0.00044406 0.00028451 -0.00095469 0.00029663
-0.010167 -0.008412 0.10817 0.30617
1460000000 0.26867 0.1537 -0.020415 0.0044708 0.0052052 -0.0014861 -0.0016166 0.0016062
0.0020715 -0.00040366 -0.00010698 -0.00096129
-0.020402 0.0044456 0.10901 0.33821 -0.0057205 0.014993 0.0019775 0.00027763
0.0010657 -0.0014307 0.0013142 -0.0005076
0.0051848 -0.0015162 -0.0056583 0.015028 0.359 0.0040642 -0.0010377 -0.0014974
0.00018848 -0.0002594 0.00065766 -0.00033447
-0.0016547 0.0016333 0.0019488 0.00027746 -0.0010486 -0.0014729 0.19997 0.174
-0.016837 -0.0031678 -0.00062612 0.0024513
0.0020612 -0.00042744 0.0010984 -0.001487 0.00021933 -0.00029709 -0.016906 -0.0030402
0.13545 0.21239 -0.011765 -0.0023106
-0.00022721 -0.00099134 0.0013121 -0.00046559 0.00061682 -0.00030384 -0.00059797 0.0025446
-0.011791 -0.0022908 0.14237 0.28616
1520000000 0.28089 0.11158 -0.01502 0.0098784 0.0032605 -0.0037919 3.6716e-05 0.002597
0.0020469 -0.0017415 -0.0010644 -0.0002288
-0.015014 0.009851 0.143 0.32396 0.0017532 0.012545 0.00187 -0.00088101
0.00011815 -0.0012213 0.00037237 -0.0010367
0.0032285 -0.003808 0.0018341 0.012567 0.35082 -0.054359 -0.0011205 -0.00054533
0.00051307 -0.00081667 0.00011177 -8.5436e-05
6.6488e-05 0.0026067 0.0018942 -0.00094088 -0.0010867 -0.0005413 0.2214 0.13572
-0.016088 0.0030175 0.0017625 0.0021856
0.0020802 -0.001699 9.7998e-05 -0.0012403 0.0005217 -0.00078858 -0.016104 0.0030481
0.16241 0.19707 -0.011404 0.0016406
-0.0010924 -0.00023429 0.00033602 -0.001015 0.00014013 -0.00013526 0.0018242 0.0020878
-0.011356 0.0016595 0.17593 0.26713
1580000000 0.29108 0.06682 -0.0085325 0.013413 -0.00093433 -0.0045062 0.0014996 0.0020615
-7.7604e-05 -0.0021431 -0.00032855 0.00034101
-0.0085397 0.013405 0.17091 0.3006 0.0051597 0.007695 0.00058864 -0.0018216
-0.00070529 -0.0012064 -0.00016287 -0.00076997
-0.0009457 -0.0045169 0.0051848 0.0076676 0.3292 -0.11093 -0.0017415 0.00047465
-0.00035732 -0.0011222 0.00023826 -0.00063746
0.0014865 0.0020404 0.00057407 -0.0018465 -0.0017335 0.00046684 0.23402 0.098126
-0.012692 0.0084006 0.0026704 0.00077446
-0.00011122 -0.0021208 -0.00066881 -0.0011986 -0.00033318 -0.0011878 -0.012669 0.0084129
0.18605 0.17921 -0.008936 0.0073651
-0.00041009 0.00039603 -0.00018445 -0.00077285 0.00021031 -0.00053286 0.0027153 0.00077812
-0.0089004 0.0073275 0.20941 0.2428
1640000000 0.29432 0.024847 -0.0017684 0.012418 -0.0026002 -0.0022258 0.0029118 0.0010552
-0.00049368 -0.0016934 -0.00020946 0.00059958
-0.001769 0.012406 0.20217 0.27539 0.0055477 0.0029345 -0.00080341 -0.0019742
-0.0011515 -0.00043032 -0.00047625 -0.00070804
-0.0025949 -0.0022256 0.0055791 0.0028977 0.29958 -0.16139 -0.00089788 0.0016684
-0.0010215 -0.00092617 -0.00010879 -0.00045727
0.0029253 0.001037 -0.00080984 -0.0019852 -0.0009211 0.001626 0.24627 0.050042
-0.0083253 0.010279 0.0026744 -0.0010969
-0.00051069 -0.0016964 -0.0011587 -0.0004271 -0.0010624 -0.00093475 -0.0082772 0.010348
0.20855 0.15291 -0.00423 0.0090938
-0.00027618 0.00053521 -0.00048038 -0.00071492 -0.00010648 -0.00046291 0.0027157 -0.0010668
-0.0042323 0.0091354 0.23657 0.21161
1700000000 0.28642 -0.020071 0.0018714 0.0098241 -0.0031172 0.00027515 0.0031425 -0.0012752
-0.0021504 -0.00083066 0.00052901 0.00045559
0.0018517 0.0098198 0.21994 0.24442 0.0033083 0.00020271 -0.0017228 -0.00058688
-0.00094744 0.00018997 -0.00088044 -0.00050156
-0.0031414 0.00027451 0.0033353 0.00015593 0.25363 -0.19952 0.00040566 0.0018333
-0.0020479 -9.0155e-05 -0.00022065 -0.00072509
0.0031661 -0.0013176 -0.0017041 -0.00057074 0.00044256 0.0018513 0.24253 0.00203
-0.0047884 0.011285 0.0015241 -0.0021279
-0.0021693 -0.00078387 -0.00098136 0.00019641 -0.0020631 -9.1133e-05 -0.0047213 0.011304
0.2254 0.13201 5.3774e-05 0.0091323
0.0005912 0.00044194 -0.00082725 -0.0004413 -0.0002937 -0.00079528 0.0014673 -0.0022375
6.9605e-05 0.0091987 0.25344 0.17843
1760000000 0.27611 -0.068438 0.0044592 0.0065864 -0.0019487 0.00083656 0.0012072 -0.0036223
-0.0016305 0.0006047 0.0003018 -0.00055887
0.0044569 0.0065737 0.24782 0.20497 0.00090417 -0.0014281 -0.0013311 0.00035839
-0.0010117 0.001152 -0.00056204 0.00037453
-0.0019574 0.00085274 0.00087037 -0.0014296 0.20474 -0.23062 0.0014187 0.0013132
-0.0012069 0.0016106 -0.0011838 -0.0006386
0.0012185 -0.0036028 -0.0013317 0.00039205 0.0014321 0.0012727 0.23546 -0.047454
-0.00072453 0.010545 -0.00029523 -0.0025641
-0.001583 0.00055964 -0.00097771 0.0011385 -0.001158 0.0016279 -0.00081378 0.010584
0.24027 0.098035 0.0038224 0.0065824
0.00033846 -0.00052699 -0.00058556 0.00032846 -0.0011889 -0.00065139 -0.0001647 -0.0024561
0.0037671 0.006553 0.26765 0.14094
1820000000 0.25117 -0.10672 0.0048299 0.0028584 -1.469e-05 0.0020553 -0.0010285 -0.0032114
-0.0012785 0.0011913 -0.00012291 -9.6988e-06
0.0048253 0.002849 0.25795 0.17406 -0.0011114 -8.5889e-05 -0.0012255 0.0011076
0.00017065 0.0013316 -0.0007054 0.00045879
-1.6252e-06 0.0020717 -0.0011642 -0.00012605 0.15399 -0.24492 0.0018219 0.00024956
-6.7994e-05 0.0024868 -0.0017041 0.00030065
-0.0011263 -0.0031738 -0.0012394 0.0011087 0.0018212 0.00022554 0.20671 -0.094749
0.0016683 0.0088591 -0.0017479 -0.0016711
-0.0013287 0.0012122 0.00016876 0.0013047 -1.2123e-05 0.0025541 0.001808 0.0088562
0.25608 0.067892 0.0044384 0.0032067
-0.00018287 -7.3535e-05 -0.00065041 0.00046086 -0.0017132 0.00016791 -0.0018633 -0.0017211
0.0043938 0.0032603 0.27089 0.10516
1880000000 0.21573 -0.14615 0.0025428 0.00031003 -0.0005998 0.0021025 -0.0029693 -0.0023032
3.7808e-06 0.002014 0.00030587 -0.00064326
0.0025512 0.00034159 0.26273 0.12833 -0.0032112 0.0023026 -2.5739e-06 0.0016415
0.00089368 0.0011271 0.00015453 0.0010083
-0.00057525 0.0021279 -0.0031668 0.0022909 0.10221 -0.25123 0.0016638 -0.0013931
0.0018478 0.0017462 -0.0011217 0.0015807
-0.0029795 -0.0023185 -1.797e-05 0.0016443 0.0016194 -0.0013182 0.16814 -0.13446
0.0032048 0.006236 -0.0023152 0.00048061
-1.8723e-05 0.0019467 0.00088428 0.0010877 0.0018144 0.0017573 0.0031217 0.0062257
0.25959 0.037115 0.0044477 0.0016613
0.00038028 -0.00059618 8.9867e-05 0.00098572 -0.0011339 0.0015987 -0.002212 0.00053235
0.0044678 0.0016018 0.27179 0.072575
1940000000 0.17703 -0.17281 0.00030269 -0.0014919 0.0014093 0.0020309 -0.0036487 0.0004609
0.0017185 0.001197 -0.00057237 -0.00073506
0.00030325 -0.00151 0.26475 0.095725 -0.0015681 0.004885 0.0011075 0.0012034
0.0018373 0.00026129 0.00089966 0.00021906
0.0014298 0.0020326 -0.0015522 0.0049052 0.059322 -0.24324 3.2532e-05 -0.0020982
0.0023444 0.00012306 0.00032565 0.0016987
-0.0037863 0.00049151 0.0010972 0.0011469 3.137e-05 -0.0021543 0.11804 -0.16776
0.0029059 0.0040944 -0.0014568 0.0013234
0.0016182 0.0011111 0.0018537 0.00018081 0.0023661 8.8183e-05 0.0028154 0.0041223
0.26299 -0.0021939 0.0033365 -0.001913
-0.00055084 -0.00066483 0.00094217 0.00021557 0.00029497 0.0016382 -0.0013451 0.0013642
0.003309 -0.0018909 0.26255 0.036189
2000000000 0.12991 -0.18644 -0.0035522 0.00060494 0.0028623 0.0015544 -0.0024183 0.0034755
0.0012927 -6.3535e-05 -0.00085058 0.00064542
-0.0035344 0.00062261 0.25018 0.060156 -0.00057589 0.0069949 0.0013585 0.00015051
0.0010553 -0.0014038 0.00043411 0.00011726
0.00287 0.0015504 -0.00053342 0.0070275 0.017431 -0.22795 -0.001507 -0.0011804
0.0018424 -0.001477 0.0015793 0.0014665
-0.0024082 0.0034057 0.0014112 0.00010906 -0.0013835 -0.0010005 0.06381 -0.1796
0.0013742 0.0029832 8.7627e-05 0.0020006
0.0013045 -0.00014355 0.0010734 -0.0014283 0.0018767 -0.0014593 0.0014175 0.0027973
0.25744 -0.035526 0.00038926 -0.0026678
