!Keysight Technologies,M9804A,MY58100912,A.14.10.03
!Date: Thursday, April 27, 2023 10:28:33
!Correction: S11(C  6-Port  ) 
!S12(C  6-Port  ) 
!S13(C  6-Port  ) 
!S14(C  6-Port  ) 
!S15(C  6-Port  ) 
!S16(C  6-Port  ) 
!S21(C  6-Port  ) 
!S22(C  6-Port  ) 
!S23(C  6-Port  ) 
!S24(C  6-Port  ) 
!S25(C  6-Port  ) 
!S26(C  6-Port  ) 
!S31(C  6-Port  ) 
!S32(C  6-Port  ) 
!S33(C  6-Port  ) 
!S34(C  6-Port  ) 
!S35(C  6-Port  ) 
!S36(C  6-Port  ) 
!S41(C  6-Port  ) 
!S42(C  6-Port  ) 
!S43(C  6-Port  ) 
!S44(C  6-Port  ) 
!S45(C  6-Port  ) 
!S46(C  6-Port  ) 
!S51(C  6-Port  ) 
!S52(C  6-Port  ) 
!S53(C  6-Port  ) 
!S54(C  6-Port  ) 
!S55(C  6-Port  ) 
!S56(C  6-Port  ) 
!S61(C  6-Port  ) 
!S62(C  6-Port  ) 
!S63(C  6-Port  ) 
!S64(C  6-Port  ) 
!S65(C  6-Port  ) 
!S66(C  6-Port  ) 
!S6P File: Measurement: :
# Hz S  RI   R 50
500000000 -0.32719 -0.054515 -0.01077 -0.0009662 -0.0081194 0.011999 -0.0045213 0.0131
0.011696 0.0048588 -0.0037319 0.0095725
-0.010817 -0.00085383 -0.40945 -0.069509 0.0073206 -0.011234 0.00072864 0.012194
0.0077117 0.0029242 0.0013648 0.013434
-0.0080878 0.011999 0.0073184 -0.011184 -0.25504 0.19445 0.0066323 0.0034052
-0.00057006 0.0086428 0.00235 0.011373
-0.0042711 0.013127 0.00090127 0.012371 0.0066322 0.0034362 -0.32901 0.045045
-0.020532 -0.0052855 0.015259 0.0283
0.011759 0.0051047 0.0079539 0.003351 -0.00055276 0.0086008 -0.020391 -0.0052837
-0.25609 -0.15997 -0.02897 0.0056999
-0.0046396 0.010066 0.00088689 0.014295 0.0019197 0.011976 0.014305 0.028957
-0.028561 0.0054474 -0.25937 -0.14048
560000000 -0.31167 0.10745 -0.022255 -0.066128 0.0011644 0.012964 0.004906 0.010461
0.010462 0.002862 0.010719 0.0076656
-0.021768 -0.066215 -0.37074 0.093539 -0.041233 -0.038481 0.013572 0.0028847
-0.01292 -0.0038149 0.0048961 -0.00068714
0.0012061 0.013052 -0.041312 -0.038369 -0.17892 0.24355 0.00025644 -0.0050422
0.016919 0.0042942 0.008395 -0.0057485
0.0048044 0.010576 0.013718 0.0031762 0.00023328 -0.0051664 -0.30549 0.13646
0.0031531 -0.022058 0.0055602 -0.021458
0.010547 0.0029557 -0.012884 -0.0031926 0.016559 0.0042615 0.0031203 -0.022336
-0.3057 0.017954 0.0062725 -0.048053
0.010989 0.0073712 0.0041192 -0.00080772 0.008435 -0.0064451 0.0057969 -0.021516
0.0060361 -0.048139 -0.32536 0.0023175
620000000 -0.27111 0.087547 -0.023488 0.0094033 0.003625 0.0089213 0.0076744 -0.0033388
0.01317 -0.0026807 0.00018347 -0.0028511
-0.02344 0.0093713 -0.39931 0.040207 -0.019377 0.0010289 -0.0013356 -0.0017327
0.011681 -0.0062443 0.0010589 -0.0035117
0.0036941 0.0088407 -0.019459 0.0010896 -0.15271 0.25169 -0.00094382 -0.00457
-0.0036583 -0.0032722 0.0085447 -0.0026447
0.0077201 -0.003414 -0.0013923 -0.0017567 -0.00096618 -0.0045277 -0.26426 0.14463
-0.038995 -0.017766 0.012966 0.029068
0.013016 -0.002641 0.011574 -0.0062896 -0.0035627 -0.0032035 -0.038691 -0.017685
-0.23141 -0.017593 -0.039696 0.013719
0.00036315 -0.0018709 0.0010279 -0.0030176 0.0085161 -0.0027198 0.012496 0.028751
-0.039696 0.013729 -0.24147 -0.034968
680000000 -0.23727 0.17801 -0.026432 -0.01427 0.0044797 0.0051917 0.0013354 -0.0071885
-0.0031662 -0.010881 0.0059924 -0.0066339
-0.026346 -0.01432 -0.38887 0.14267 -0.032273 -0.0011534 -0.0014952 -0.00050405
-0.0024802 -0.0093293 -0.00071835 -0.0014121
0.0044877 0.0051935 -0.032294 -0.0010478 -0.10589 0.27484 -0.00081743 -0.00058162
-0.0017329 0.00025941 -0.0029098 -0.0087458
0.0013209 -0.0072391 -0.0016 -0.00049607 -0.00079625 -0.00059505 -0.21975 0.19912
-0.025183 -0.0061692 -0.0069766 -0.012659
-0.0032388 -0.010826 -0.0023643 -0.0092793 -0.0016418 0.0003526 -0.025098 -0.0060574
-0.26865 0.082318 -0.007035 -0.0060385
0.0055237 -0.0070847 -0.001117 -0.0016352 -0.0030129 -0.0088714 -0.0070322 -0.012744
-0.0071587 -0.0054223 -0.25823 0.07043
740000000 -0.19102 0.17054 -0.040335 0.026811 0.013152 -0.0044788 0.00045286 -0.0039758
-0.0050638 -0.0022932 -0.0061602 0.0020441
-0.040434 0.026577 -0.33454 0.16136 -0.035938 0.034078 0.00013996 -0.0062221
-0.011514 0.0071388 -0.0014392 -0.0063042
0.013114 -0.0045051 -0.035815 0.034291 -0.072162 0.27525 -0.0022287 0.0033133
-0.0022904 -0.0047451 -0.0015856 0.0012218
0.00053657 -0.0040941 0.00011701 -0.0063188 -0.0022036 0.0033311 -0.20179 0.20464
-0.040231 -0.0043579 0.022762 0.016622
-0.0049217 -0.0021442 -0.011645 0.0069685 -0.0023271 -0.0045894 -0.040246 -0.0042944
-0.17824 0.10152 -0.039591 0.0034
-0.0055146 0.0023249 -0.00071942 -0.0060264 -0.0019073 0.001147 0.022357 0.016476
-0.039091 0.0036457 -0.25009 0.076867
800000000 -0.16321 0.21626 -0.022299 0.016494 0.0053175 -0.0097915 -0.0041255 -0.0022077
-0.0043734 0.002045 0.0045929 0.00090218
-0.022374 0.01637 -0.34256 0.2328 -0.0081198 0.034353 -0.0022952 0.0022203
-0.00079942 0.0024342 0.00084459 0.0055071
0.0052943 -0.009798 -0.0079863 0.034403 -0.034231 0.30128 0.00069649 0.0012661
0.00026712 0.0038424 -0.0018151 0.00072497
-0.0041634 -0.0021979 -0.0022547 0.0022756 0.00066643 0.0012517 -0.17223 0.23406
-0.027876 0.015896 0.015128 -0.010525
-0.0042621 0.0020534 -0.00085902 0.0025116 0.00024932 0.0038944 -0.027968 0.015826
-0.20961 0.13127 -0.017683 0.020519
0.0042083 0.0013465 0.0010866 0.0059167 -0.0016698 0.00066887 0.015455 -0.010358
-0.018278 0.021154 -0.24904 0.12941
860000000 -0.12768 0.23751 -0.017579 0.030576 -0.0033668 -0.0097624 -0.0016203 0.00038176
0.0040707 0.0048158 -0.003574 -0.0028808
-0.017516 0.030607 -0.29368 0.27712 0.0080011 0.033842 0.00033706 0.0020305
0.0037766 0.00091508 0.0036564 -0.00030016
-0.0033995 -0.009713 0.0081218 0.03385 0.015324 0.31112 -0.0003148 -0.00014212
0.0025103 -0.0013115 0.0016749 0.0039863
-0.0015881 0.00034702 0.00028979 0.0020466 -0.00030445 -0.00016753 -0.1336 0.24541
-0.016344 0.019784 -0.0069983 -0.0092057
0.0039863 0.0047582 0.0036528 0.00089954 0.0025149 -0.0012908 -0.016398 0.019828
-0.15506 0.17654 -0.021598 0.016968
-0.0035879 -0.0031669 0.0034143 -0.00026906 0.0015328 0.0041 -0.0074542 -0.0093578
-0.021285 0.016689 -0.19751 0.17565
920000000 -0.10496 0.26018 0.0050505 0.039158 -0.008857 -0.0041075 -0.0018121 0.0017963
0.00081467 0.0015703 0.0029405 -0.0010174
0.0050173 0.039063 -0.26705 0.29796 0.028245 0.022418 0.0015132 0.0011961
0.0066612 -0.00015236 0.0043158 -0.0026943
-0.0089068 -0.0040968 0.028351 0.022369 0.061403 0.31232 0.0018937 8.3552e-06
0.00098313 -0.00020867 0.0010325 -0.0013832
-0.0017858 0.0017914 0.001523 0.0012075 0.0018988 1.1696e-05 -0.10994 0.26105
-0.0083854 0.030804 0.0042365 -0.0061531
0.00082707 0.0015675 0.0066731 -0.00017477 0.0010088 -0.00020562 -0.0083497 0.030736
-0.14042 0.18392 -0.0011081 0.026737
0.0030147 -0.0010236 0.0044442 -0.0026791 0.0011475 -0.00137 0.0043036 -0.0060743
-0.0013797 0.026817 -0.20775 0.18968
980000000 -0.058239 0.28271 0.017473 0.02992 -0.0088193 0.0045752 0.00178 0.0035682
0.0038396 -0.0016079 -0.0035631 -0.003125
0.017417 0.029881 -0.21494 0.33546 0.032934 0.0047843 0.0019358 -2.7838e-05
0.0018049 -0.0058894 -0.0006598 -0.0029084
-0.0087874 0.0045968 0.032986 0.0046902 0.10804 0.30779 0.00055261 -0.0011605
0.00048909 -0.0018132 0.0014928 -0.00036384
0.0018017 0.0035443 0.0019485 -4.3751e-05 0.00054048 -0.0011652 -0.070654 0.2727
0.010629 0.028512 -0.0091107 -0.0080338
0.0038409 -0.0016618 0.001752 -0.0059119 0.0004815 -0.0017945 0.010666 0.028475
-0.10671 0.20975 0.0070252 0.019158
-0.0034787 -0.0031707 -0.00061145 -0.0026814 0.0015256 -0.00039096 -0.0091733 -0.0080392
0.0072456 0.019162 -0.16725 0.23876
1040000000 -0.016511 0.2905 0.033232 0.018813 -0.00079613 0.007142 0.0022516 0.00066429
0.00031148 -0.0037561 -0.00026094 -0.0013139
0.033212 0.018841 -0.17907 0.34809 0.029308 -0.014649 0.0015714 -0.0017554
-0.0019765 -0.0026794 -0.0011722 -0.0029477
-0.00079043 0.0071425 0.029318 -0.014745 0.15509 0.29361 -0.00051854 -0.0015074
-0.0015337 -0.0011269 -0.00074636 -0.0011158
0.0022086 0.00065499 0.0015769 -0.0017988 -0.00050772 -0.0015106 -0.042221 0.28099
0.020834 0.016453 -0.0014715 0.0011563
0.00035123 -0.0037347 -0.0019989 -0.0026578 -0.001511 -0.0011498 0.020902 0.016406
-0.073958 0.21484 0.013914 0.017424
-0.00028633 -0.0012916 -0.0011601 -0.0028679 -0.00067554 -0.0011088 -0.0014364 0.0012642
0.013987 0.017466 -0.14523 0.2598
1100000000 0.027602 0.30053 0.036308 -0.0039275 0.0033365 0.0037327 0.0022662 -0.00099923
-0.0022019 -0.0027213 -0.0041172 -0.00033081
0.036291 -0.003922 -0.1369 0.36766 0.015086 -0.027577 -6.8159e-05 -0.0018603
-0.0033343 -0.00084908 -0.0036542 -0.00089809
0.0033605 0.0037157 0.014994 -0.027632 0.20057 0.27434 -0.0017912 0.00016119
-0.0016614 0.00055975 -0.0011241 -0.00051044
0.0022621 -0.0009946 -5.9833e-05 -0.0018848 -0.001801 0.00017729 -0.0021335 0.28571
0.024964 0.0027396 -0.002212 -0.00058941
-0.002213 -0.0026849 -0.0033478 -0.0007435 -0.0016623 0.00055638 0.024913 0.0026871
-0.053772 0.2267 0.019493 0.0070399
-0.0040025 -0.00032166 -0.0036813 -0.0008622 -0.0011322 -0.0005127 -0.0021508 -0.00062154
0.019597 0.0070361 -0.10097 0.2929
1160000000 0.079787 0.29731 0.024341 -0.020496 0.0030957 -0.00081786 -0.00016389 -0.0022331
-0.0039642 -0.00068419 -0.0010449 0.0044854
0.024365 -0.020511 -0.091678 0.37223 -0.0037294 -0.028581 -0.0015766 -0.0015796
-0.002679 0.0024344 -0.0015455 0.0020556
0.0030732 -0.00084871 -0.0038412 -0.02859 0.24502 0.2442 -0.000726 0.0015894
-0.00046035 0.0017345 -0.00088649 0.00017019
-0.00019186 -0.0022368 -0.0015644 -0.001561 -0.00072449 0.0015941 0.038792 0.28201
0.020358 -0.012295 -0.0035975 0.0043768
-0.0039668 -0.00068073 -0.0026468 0.002417 -0.00043836 0.0017346 0.020399 -0.012246
-0.017874 0.23401 0.017858 -0.001739
-0.0010104 0.0044406 -0.0015224 0.0019976 -0.0008572 0.00016768 -0.0036869 0.0044095
0.017817 -0.0017434 -0.052043 0.29654
1220000000 0.12293 0.28661 0.010992 -0.029976 -0.0014378 -0.0013214 0.00014349 -0.00091456
-0.0024539 0.0021702 0.0011811 0.0017773
0.010997 -0.029946 -0.049018 0.38533 -0.016613 -0.020911 -0.0025775 0.00040295
-0.00014065 0.0028967 -0.00093836 0.0019239
-0.0014326 -0.0013264 -0.016718 -0.020856 0.28398 0.2051 0.00073953 0.0016467
0.00048986 0.001156 0.00021827 0.00071077
0.00015431 -0.0009376 -0.0025744 0.0004334 0.00072562 0.0016447 0.077802 0.27174
0.0095092 -0.01831 0.0015791 0.0010644
-0.0024308 0.0021831 -9.9616e-05 0.0029216 0.00048979 0.001159 0.0094678 -0.018328
0.0065273 0.2395 0.012759 -0.013088
0.0011797 0.0017596 -0.00093089 0.0019439 0.00018669 0.00070174 0.0015631 0.0011632
0.01269 -0.012994 -0.023348 0.31375
1280000000 0.17351 0.2675 -0.0075968 -0.02864 -0.001996 0.0019656 -0.00090813 -0.0019493
-0.0007215 0.0030663 0.0025143 0.0014596
-0.0075548 -0.028605 -0.0027453 0.37794 -0.023577 -0.0081872 -0.001092 0.00142
0.0016148 0.0017984 0.00057766 0.0020965
-0.0019887 0.0019708 -0.023642 -0.0080854 0.31535 0.16263 0.0014923 5.5591e-05
0.0010493 0.00034042 0.00032535 0.00034624
-0.00091423 -0.0019407 -0.0010995 0.0014306 0.0015043 5.2316e-05 0.11448 0.25492
-0.00035777 -0.020151 -0.0010066 0.0004655
-0.0007083 0.0030775 0.0016204 0.0017952 0.0010446 0.00033742 -0.00040294 -0.020155
0.043258 0.24201 0.0021026 -0.015125
0.0025238 0.0014502 0.00061577 0.0020593 0.00028953 0.00034691 -0.00089408 0.00042244
0.0021814 -0.015133 0.025033 0.31828
1340000000 0.21121 0.23364 -0.017125 -0.019196 0.00029275 0.0043242 -0.001685 -0.00081601
0.0015356 0.0025421 0.0017729 -0.0014898
-0.017089 -0.019185 0.036617 0.37037 -0.020885 0.0042745 -0.00032838 0.0021424
0.0019396 0.00094965 0.0012457 0.0007896
0.0003215 0.0043237 -0.020889 0.0043693 0.33899 0.11367 0.0010802 -0.00077612
0.00060142 -0.00052077 0.00014411 0.00026535
-0.001717 -0.00082199 -0.00032853 0.0021492 0.0010651 -0.00077872 0.14687 0.23238
-0.0096085 -0.016858 0.00049293 0.00088951
0.0015432 0.0025579 0.0019248 0.00095463 0.00058909 -0.00053184 -0.0096214 -0.016851
0.073382 0.23418 -0.0041172 -0.013168
0.0018107 -0.0014721 0.0012368 0.0008368 0.00011927 0.00030618 0.00055948 0.00095441
-0.0041973 -0.013218 0.063251 0.3142
1400000000 0.24438 0.19683 -0.023352 -0.0079797 0.004764 0.0032025 -0.0021044 0.0004899
0.0023635 0.00091919 0.00047272 -0.0014054
-0.023313 -0.0079864 0.073527 0.35907 -0.014443 0.012196 0.0014022 0.0015895
0.0013946 -0.00059483 0.0011211 0.00024881
0.0047804 0.0031904 -0.014396 0.012276 0.35198 0.059431 0.00024148 -0.0015011
0.00014136 -0.00027655 0.0004036 0.00028167
-0.002099 0.00049573 0.0014318 0.0015993 0.00023352 -0.0014978 0.17422 0.20309
-0.015472 -0.0099647 -0.001053 0.00032544
0.0023394 0.00090298 0.0013835 -0.00062557 0.00018385 -0.00027634 -0.015496 -0.0099713
0.10544 0.22827 -0.010184 -0.008446
0.0004497 -0.0013467 0.0011473 0.00024288 0.0004571 0.0002348 -0.0011103 0.00030318
-0.010004 -0.0083856 0.10822 0.30619
1460000000 0.26867 0.15372 -0.020431 0.0044486 0.0052086 -0.0014962 -0.0016821 0.0016224
0.0020572 -0.00041607 -0.00015784 -0.00094222
-0.020407 0.004433 0.10897 0.33818 -0.0057236 0.014968 0.0019787 0.00029193
0.0011146 -0.001458 0.0012498 -0.0004938
0.0052163 -0.0015252 -0.0056565 0.015013 0.35895 0.004091 -0.0010389 -0.0014925
0.00024156 -0.00029191 0.00072825 -0.00033442
-0.0016517 0.0016462 0.001955 0.00028856 -0.0010557 -0.0014961 0.19994 0.17396
-0.016872 -0.0031298 -0.00049214 0.0024887
0.0020637 -0.00043285 0.0011016 -0.0014722 0.00023058 -0.00027218 -0.016894 -0.0030378
0.13542 0.2123 -0.011754 -0.0023468
-0.00021109 -0.00094393 0.0012855 -0.0005251 0.00066385 -0.00028203 -0.00047133 0.0025784
-0.011906 -0.0023104 0.14259 0.28628
1520000000 0.28088 0.11159 -0.01504 0.0098845 0.0032557 -0.0037702 6.6547e-05 0.002597
0.0020726 -0.0016896 -0.0010556 -0.00017103
-0.015031 0.0098557 0.14293 0.32394 0.0017481 0.01256 0.0018667 -0.00089799
7.4038e-05 -0.0012293 0.00038196 -0.0010321
0.0032397 -0.0037922 0.0018256 0.012549 0.35074 -0.054351 -0.0011003 -0.00053811
0.00052988 -0.00080535 0.00020168 -0.00013909
8.0069e-05 0.0026092 0.001872 -0.00091563 -0.0010926 -0.00052005 0.22134 0.1357
-0.016129 0.0030184 0.0017403 0.0021167
0.0020659 -0.0017084 8.0184e-05 -0.0012176 0.00053545 -0.00078246 -0.016113 0.0030365
0.16249 0.19704 -0.01142 0.0017171
-0.0010769 -0.00022171 0.00037316 -0.0010079 0.00019714 -0.00016292 0.0017574 0.0020406
-0.011316 0.0016962 0.1759 0.26699
1580000000 0.29113 0.066822 -0.008522 0.013425 -0.00091326 -0.0045276 0.0014578 0.0020794
-0.00010487 -0.0021407 -0.00043999 0.00038902
-0.0085366 0.013403 0.17084 0.30062 0.0051667 0.0076941 0.00058179 -0.0018499
-0.00067063 -0.0011819 -0.00019501 -0.00079155
-0.00093573 -0.004524 0.0052075 0.0076698 0.32917 -0.11091 -0.0017296 0.00044532
-0.00032211 -0.0011561 0.00023363 -0.00049856
0.0014675 0.0020813 0.00058264 -0.0018445 -0.0017333 0.00044187 0.23402 0.09807
-0.012575 0.0083387 0.0026215 0.00074411
-0.000129 -0.0021361 -0.00067104 -0.0011856 -0.00031445 -0.0011638 -0.012567 0.0083454
0.18605 0.1792 -0.0090366 0.0073981
-0.00037101 0.00043645 -0.00023062 -0.0007836 0.00019191 -0.00056384 0.0026089 0.00081362
-0.0090533 0.007306 0.20954 0.24291
1640000000 0.29425 0.024866 -0.0017529 0.012431 -0.0025827 -0.0022182 0.0029618 0.0010666
-0.00046702 -0.0016695 -0.00026576 0.00059535
-0.0017633 0.012416 0.20208 0.27543 0.0055661 0.0029393 -0.00078516 -0.0019564
-0.0011697 -0.00041943 -0.0004721 -0.00075696
-0.0026099 -0.0022031 0.005577 0.0028942 0.2996 -0.16132 -0.00088831 0.0016303
-0.0010416 -0.00092374 -0.00017229 -0.0004861
0.0029769 0.0010294 -0.00078614 -0.0019688 -0.00087406 0.0016203 0.24623 0.050055
-0.0083651 0.010305 0.002766 -0.0010416
-0.00045915 -0.0016749 -0.0011872 -0.00042399 -0.0010298 -0.0009301 -0.0083436 0.01034
0.20847 0.153 -0.0042293 0.0091229
-0.00032845 0.00052335 -0.00047655 -0.00073521 -0.00016541 -0.00048168 0.0028654 -0.0010812
-0.0042039 0.0091566 0.23672 0.21148
1700000000 0.28636 -0.020025 0.0019026 0.0098225 -0.0031425 0.00025668 0.0031389 -0.001332
-0.0021609 -0.00085404 0.00056816 0.00045851
0.0018716 0.0098151 0.21987 0.24446 0.0033111 0.00019044 -0.0017021 -0.00056531
-0.00096269 0.00018807 -0.00086308 -0.00048078
-0.0031573 0.00027772 0.0033448 0.00016192 0.25361 -0.19943 0.0004644 0.001828
-0.0020649 -7.9818e-05 -0.00034126 -0.00080333
0.0031321 -0.0013486 -0.0017015 -0.00055523 0.00047906 0.0018546 0.24236 0.0021133
-0.0047638 0.011326 0.0015136 -0.0022713
-0.0021808 -0.00083482 -0.00094539 0.00019111 -0.0020221 -3.6157e-05 -0.0047139 0.011366
0.22542 0.13198 0.00015406 0.0091148
0.00063073 0.00049687 -0.00082458 -0.00048283 -0.00029358 -0.00087554 0.0013667 -0.0022737
8.045e-05 0.0090483 0.2533 0.17829
1760000000 0.27597 -0.068416 0.0044536 0.0065749 -0.001958 0.00085718 0.0012699 -0.0035791
-0.0015566 0.00057423 0.00032188 -0.00056633
0.0044611 0.006565 0.24776 0.20504 0.00093805 -0.0014271 -0.0013139 0.00035696
-0.00096935 0.001151 -0.00055495 0.00031939
-0.0019532 0.00085193 0.00091361 -0.0014393 0.2048 -0.23056 0.0014669 0.0012567
-0.0011473 0.0015903 -0.0012141 -0.00065434
0.0012532 -0.0035928 -0.0013007 0.00036943 0.0014574 0.0012748 0.23556 -0.047441
-0.00080119 0.010454 -0.00017395 -0.0024443
-0.0015474 0.00061054 -0.00096418 0.0011621 -0.0011283 0.0015994 -0.00079017 0.010445
0.2401 0.098011 0.0038153 0.0067308
0.00027739 -0.00060025 -0.000579 0.00031557 -0.0012313 -0.00064233 -9.9852e-05 -0.0023724
0.0038115 0.0067107 0.26807 0.14109
1820000000 0.25112 -0.1066 0.0048497 0.002843 2.4425e-05 0.0020189 -0.0011404 -0.0032186
-0.0013249 0.0011856 -0.000192 -7.2169e-05
0.0048466 0.0028426 0.25793 0.17411 -0.0010864 -0.00011378 -0.0012758 0.0010885
0.00015877 0.0012992 -0.00069499 0.00046624
4.3012e-05 0.0020124 -0.0011323 -0.00013898 0.15401 -0.24496 0.0017785 0.00023248
-4.7877e-05 0.0025349 -0.0016601 0.00014702
-0.0011421 -0.0032216 -0.0012714 0.0011114 0.0017796 0.00023332 0.20665 -0.094608
0.0016848 0.0089687 -0.0018271 -0.0017551
-0.0013143 0.0012069 0.00016917 0.001289 -6.8189e-05 0.002549 0.0016969 0.0089949
0.256 0.06799 0.0044045 0.0032002
-0.00014906 -1.7687e-05 -0.00066164 0.00049997 -0.0016148 0.00015292 -0.0018293 -0.0017716
0.0043921 0.0031066 0.27077 0.10503
1880000000 0.21574 -0.14611 0.0025737 0.00035094 -0.00057499 0.0021074 -0.0029431 -0.0021933
1.9744e-05 0.0019693 0.0004098 -0.00064255
0.0025767 0.0003395 0.26269 0.12844 -0.0032259 0.0022629 -4.7328e-05 0.0016754
0.00087872 0.0010922 0.00015926 0.0010313
-0.00057829 0.002121 -0.003201 0.0022876 0.10209 -0.25117 0.0015768 -0.0012755
0.0018002 0.0017553 -0.0010911 0.0016297
-0.0029293 -0.0021572 -4.2246e-05 0.0016911 0.0015873 -0.0012671 0.16834 -0.13449
0.0032008 0.0061324 -0.0021851 0.00046972
-7.9715e-06 0.0019782 0.00087913 0.0010909 0.0018202 0.001789 0.0033055 0.0061391
0.25949 0.037097 0.0046363 0.0014764
0.00038942 -0.00074033 0.00013405 0.00095816 -0.0011292 0.0015101 -0.0022373 0.00052184
0.0045616 0.0015805 0.27163 0.072632
1940000000 0.17705 -0.1727 0.00027494 -0.0015203 0.0014269 0.0020338 -0.0037602 0.00047613
0.001579 0.001114 -0.00055477 -0.0006399
0.0002975 -0.0015082 0.26473 0.09576 -0.0015909 0.0048417 0.0010651 0.0011978
0.0018274 0.00017746 0.00088263 0.00020561
0.0014323 0.0020263 -0.0015781 0.0048756 0.059273 -0.24326 3.3109e-05 -0.0021165
0.0023462 0.00012598 0.00024323 0.0016366
-0.0037361 0.00050086 0.0010704 0.0011703 3.0305e-05 -0.0021269 0.11799 -0.16766
0.0027486 0.0042714 -0.0011463 0.0013605
0.0016127 0.0010946 0.0018598 0.00017231 0.0023382 9.8555e-05 0.0026911 0.0042055
0.26279 -0.0018979 0.0033789 -0.0018398
-0.00058718 -0.0006324 0.0009161 0.00019137 0.00034536 0.0016631 -0.001145 0.0013752
0.0034107 -0.0019026 0.2626 0.035937
2000000000 0.12991 -0.18643 -0.0035929 0.00061918 0.0028575 0.0017198 -0.0024549 0.0035156
0.0012861 -6.8465e-05 -0.00081916 0.00040595
-0.0035676 0.0006086 0.25014 0.060268 -0.00060302 0.0070431 0.0013874 0.0001922
0.0010778 -0.0013822 0.00048237 4.635e-05
0.0028424 0.0016501 -0.00054686 0.0070506 0.017402 -0.22792 -0.001328 -0.0010298
0.0019346 -0.0014726 0.00162 0.0014817
-0.0024901 0.0035468 0.0013928 0.0001575 -0.0013243 -0.0010612 0.06395 -0.17966
0.0014704 0.0027724 4.835e-05 0.0020273
0.0012605 -8.2084e-05 0.00106 -0.0014085 0.0019797 -0.001432 0.0014739 0.0028538
0.2574 -0.035501 0.0004853 -0.0025147
