!Keysight Technologies,M9804A,MY58100912,A.14.10.03
!Date: Thursday, April 27, 2023 10:28:33
!Correction: S11(C  6-Port  ) 
!S12(C  6-Port  ) 
!S13(C  6-Port  ) 
!S14(C  6-Port  ) 
!S15(C  6-Port  ) 
!S16(C  6-Port  ) 
!S21(C  6-Port  ) 
!S22(C  6-Port  ) 
!S23(C  6-Port  ) 
!S24(C  6-Port  ) 
!S25(C  6-Port  ) 
!S26(C  6-Port  ) 
!S31(C  6-Port  ) 
!S32(C  6-Port  ) 
!S33(C  6-Port  ) 
!S34(C  6-Port  ) 
!S35(C  6-Port  ) 
!S36(C  6-Port  ) 
!S41(C  6-Port  ) 
!S42(C  6-Port  ) 
!S43(C  6-Port  ) 
!S44(C  6-Port  ) 
!S45(C  6-Port  ) 
!S46(C  6-Port  ) 
!S51(C  6-Port  ) 
!S52(C  6-Port  ) 
!S53(C  6-Port  ) 
!S54(C  6-Port  ) 
!S55(C  6-Port  ) 
!S56(C  6-Port  ) 
!S61(C  6-Port  ) 
!S62(C  6-Port  ) 
!S63(C  6-Port  ) 
!S64(C  6-Port  ) 
!S65(C  6-Port  ) 
!S66(C  6-Port  ) 
!S6P File: Measurement: :
# Hz S  RI   R 50
500000000 -0.34079 -0.018373 -0.012105 -0.0034839 -0.0079619 0.013528 -0.0037327 0.012152
0.011254 0.0037284 -0.0034172 0.0081171
-0.012065 -0.0035263 -0.42084 -0.035922 0.0054557 -0.011161 0.0015599 0.013018
0.0064113 0.0022757 0.0015138 0.014172
-0.0079437 0.013467 0.0054358 -0.011162 -0.26505 0.22405 0.0070469 0.0043616
-0.0014601 0.0085862 0.0018762 0.012735
-0.0036765 0.012131 0.0015568 0.013028 0.0070439 0.0043766 -0.33161 0.063132
-0.020033 -0.0068864 0.014306 0.023777
0.011214 0.0037507 0.0064073 0.0022664 -0.0014566 0.008591 -0.020035 -0.0068628
-0.23845 -0.16358 -0.025324 0.0032484
-0.0033441 0.00808 0.0015077 0.014187 0.0018838 0.012744 0.014299 0.02378
-0.025327 0.0032393 -0.28691 -0.078783
560000000 -0.31303 0.13801 -0.028093 -0.060332 0.00088552 0.012348 0.0054732 0.0099661
0.0085692 0.0046896 0.010494 0.0073428
-0.028005 -0.060231 -0.37617 0.12045 -0.043458 -0.033947 0.013584 0.0038424
-0.012611 -0.0034137 0.0031137 -0.00087022
0.00090937 0.012336 -0.043514 -0.033889 -0.1807 0.26935 -0.00019765 -0.0040389
0.019073 0.0040235 0.0065708 -0.0062269
0.0055228 0.010003 0.013591 0.0038064 -0.00019479 -0.0040302 -0.30445 0.14955
-0.0006087 -0.024003 0.0026792 -0.018127
0.0085348 0.0046698 -0.012674 -0.0033935 0.019078 0.0040033 -0.00061474 -0.02399
-0.28931 0.0099906 0.0017634 -0.046089
0.010466 0.0073785 0.0031438 -0.00087744 0.0065633 -0.0062081 0.0026804 -0.018139
0.0017632 -0.046088 -0.33123 0.060327
620000000 -0.27147 0.12382 -0.023915 0.0081455 0.0046179 0.0086964 0.0075913 -0.0054315
0.011529 -0.00096526 0.00074264 -0.002597
-0.023881 0.008138 -0.40236 0.074802 -0.019583 0.0011862 -0.00075926 -0.0022382
0.010738 -0.0063455 0.0018026 -0.0026583
0.0046089 0.0086695 -0.019591 0.001215 -0.149 0.27905 -0.00071483 -0.0048646
-0.0030445 -0.0030295 0.008398 -0.0034947
0.007595 -0.0054559 -0.00076975 -0.0022413 -0.00071538 -0.0048876 -0.26314 0.16114
-0.039668 -0.01685 0.011977 0.023469
0.011542 -0.0008831 0.010736 -0.0063755 -0.0030381 -0.0030179 -0.039682 -0.016828
-0.21317 -0.028045 -0.039661 0.015038
0.00075058 -0.0025562 0.0017727 -0.0026709 0.0084017 -0.0035246 0.01196 0.023465
-0.039671 0.015025 -0.25722 0.033109
680000000 -0.22832 0.20682 -0.02814 -0.010524 0.0057888 0.0046754 0.0012143 -0.0070703
-0.0026611 -0.011329 0.0043039 -0.0070998
-0.028114 -0.010521 -0.38453 0.16979 -0.032042 0.0010045 -0.0011643 -0.00076023
-0.0023144 -0.0092211 -0.0013794 -0.002203
0.0057935 0.0046511 -0.032049 0.0010649 -0.097112 0.29633 -0.00075485 -0.00079585
-0.0015433 -0.0002674 -0.0035428 -0.0085999
0.0011876 -0.0070581 -0.0011698 -0.00076118 -0.00076054 -0.00079812 -0.21658 0.20795
-0.025971 -0.0042611 -0.0089593 -0.0075272
-0.0026618 -0.011338 -0.0023435 -0.0092265 -0.0015495 -0.00026337 -0.025988 -0.0042492
-0.25184 0.071231 -0.007875 -0.0060164
0.0043064 -0.0070897 -0.0013851 -0.0021984 -0.0035491 -0.0086144 -0.0089603 -0.0075333
-0.0078804 -0.0060157 -0.25422 0.12861
740000000 -0.18353 0.20195 -0.035633 0.027524 0.012596 -0.0059001 -0.00083538 -0.0041534
-0.0050343 -0.0027468 -0.0060427 0.0027347
-0.035602 0.02747 -0.33192 0.18835 -0.032298 0.035807 -0.0010263 -0.0063777
-0.011741 0.0076736 -0.0023503 -0.0048171
0.012556 -0.0059084 -0.032232 0.035876 -0.063394 0.29424 -0.0018898 0.0029175
-0.0034465 -0.004662 -0.0020705 0.0008564
-0.0008508 -0.0041606 -0.0010352 -0.0063678 -0.0018948 0.002907 -0.19849 0.21672
-0.04198 -0.002687 0.022199 0.012541
-0.0050508 -0.0027389 -0.011714 0.007731 -0.0034733 -0.0046452 -0.04202 -0.0026468
-0.15748 0.091027 -0.038927 0.0045888
-0.0060608 0.0027621 -0.0023458 -0.004842 -0.0020551 0.00085951 0.022214 0.01254
-0.038924 0.0045764 -0.24121 0.13922
800000000 -0.14877 0.2383 -0.020146 0.018161 0.0049588 -0.010693 -0.0044393 -0.0015919
-0.0040046 0.0024051 0.0033061 0.0007628
-0.020155 0.018137 -0.3316 0.25674 -0.006023 0.033784 -0.0023208 0.0022661
-0.0009364 0.0033329 0.00095726 0.0054069
0.0049368 -0.010693 -0.0059636 0.033809 -0.021016 0.31578 0.00068852 0.0017663
0.00020939 0.0034615 -0.0017061 0.001322
-0.004438 -0.0016043 -0.0023307 0.0022723 0.00068203 0.0017653 -0.16834 0.24293
-0.026473 0.016892 0.01269 -0.0099875
-0.0040102 0.0024173 -0.00092361 0.0033524 0.00021013 0.0034659 -0.026472 0.016942
-0.19416 0.1189 -0.01495 0.019744
0.003292 0.00074892 0.00097131 0.0054058 -0.0016999 0.0013171 0.012687 -0.010005
-0.014963 0.01975 -0.22775 0.18453
860000000 -0.1135 0.25719 -0.014591 0.030745 -0.0034781 -0.01001 -0.0019593 0.0011233
0.0044001 0.0047449 -0.002635 -0.0022428
-0.014613 0.030721 -0.28374 0.29683 0.0098952 0.033287 6.1075e-05 0.0020924
0.0044609 0.00066042 0.0032751 0.00034425
-0.0034847 -0.010005 0.0099629 0.033277 0.026849 0.32262 -0.00030505 -6.2066e-06
0.0024972 -0.0014156 0.0021145 0.0037154
-0.0019547 0.0011268 6.288e-05 0.0020897 -0.00030587 -8.0548e-06 -0.13162 0.25341
-0.014789 0.021436 -0.0048866 -0.0090396
0.0044 0.0047304 0.0044828 0.00065349 0.002505 -0.0014191 -0.014772 0.021476
-0.14027 0.16326 -0.020071 0.017243
-0.0026268 -0.0022603 0.0032823 0.00034854 0.0021212 0.0037041 -0.004888 -0.0090328
-0.020059 0.017229 -0.1778 0.22306
920000000 -0.086931 0.27786 0.0073103 0.035968 -0.0094276 -0.0045488 -0.001333 0.0015557
0.0017165 0.0016599 0.0029336 -0.0017561
0.0072825 0.035958 -0.25383 0.31654 0.02889 0.019816 0.001899 0.0010824
0.0072737 -0.00077617 0.0038576 -0.0031272
-0.0094373 -0.0045351 0.028932 0.019767 0.073935 0.32287 0.0019974 -0.0001126
0.00163 -0.00062135 0.0007933 -0.0014632
-0.0013276 0.0015608 0.0018791 0.0010682 0.0020035 -0.00011093 -0.10531 0.26923
-0.0066781 0.031354 0.0028278 -0.0067833
0.001706 0.0016659 0.0072766 -0.00079621 0.0016261 -0.0006242 -0.0066348 0.031384
-0.12759 0.16931 0.0004761 0.025785
0.0029356 -0.0017537 0.0038504 -0.00312 0.00079514 -0.0014668 0.0028169 -0.0067757
0.00047477 0.025772 -0.17663 0.23819
980000000 -0.040351 0.29531 0.019163 0.027638 -0.0088078 0.0043858 0.0018572 0.002839
0.0038015 -0.0020458 -0.0030792 -0.0020904
0.019112 0.02763 -0.20246 0.3485 0.033206 0.0026172 0.0020996 -0.00023602
0.0017032 -0.0064198 -0.00054258 -0.0025295
-0.0087919 0.0043929 0.033203 0.0025434 0.12094 0.31541 0.0005152 -0.0013236
9.9097e-06 -0.0023621 0.001092 -0.00040257
0.0018636 0.0028549 0.0021034 -0.00025735 0.00052114 -0.0013208 -0.066424 0.27832
0.011914 0.028333 -0.008412 -0.0063701
0.003789 -0.0020575 0.0016646 -0.0064214 1.5709e-05 -0.0023546 0.011974 0.02832
-0.094206 0.19253 0.0071618 0.018326
-0.0030761 -0.0020723 -0.00056336 -0.0025178 0.0011017 -0.00040909 -0.0084175 -0.0063545
0.007165 0.018317 -0.13239 0.27535
1040000000 0.0025118 0.30197 0.033321 0.014739 -0.0015952 0.0065426 0.002222 0.00050926
-3.3337e-05 -0.0031599 -0.00089869 -0.0015624
0.033277 0.014769 -0.16694 0.36164 0.028033 -0.016667 0.0014394 -0.0018212
-0.0024925 -0.0028834 -0.0017025 -0.0027903
-0.0015704 0.00653 0.027986 -0.016727 0.16819 0.30074 -0.00069171 -0.0015421
-0.0016921 -0.00087446 -0.00068602 -0.00093539
0.0022322 0.00051376 0.001415 -0.0018428 -0.00068816 -0.0015435 -0.037464 0.28726
0.02231 0.015314 -0.0027883 0.00084821
-3.9333e-05 -0.0031516 -0.0025098 -0.0028628 -0.0016971 -0.0008532 0.02234 0.015281
-0.062439 0.19785 0.014862 0.015436
-0.00088238 -0.0015602 -0.0017161 -0.0027656 -0.00069067 -0.00093719 -0.0027788 0.00085237
0.014849 0.01542 -0.10644 0.29455
1100000000 0.047352 0.30783 0.034464 -0.0070662 0.0023322 0.0036605 0.0020399 -0.00090972
-0.0020848 -0.0028047 -0.003714 0.00056669
0.034429 -0.0070255 -0.12411 0.37791 0.013244 -0.028872 -0.00012074 -0.0018171
-0.0038457 -0.00065239 -0.0035658 -0.00014609
0.0023581 0.0036531 0.013157 -0.028911 0.21581 0.27819 -0.0019479 0.0002566
-0.0020241 0.0007665 -0.0010479 4.8354e-05
0.0020476 -0.00090137 -0.00012745 -0.0018213 -0.0019497 0.00025257 0.0037498 0.29002
0.025931 0.0012889 -0.0027567 -0.00012999
-0.0020793 -0.0028034 -0.0038481 -0.00062957 -0.0020259 0.00077123 0.025949 0.0012465
-0.043108 0.20892 0.019458 0.0055283
-0.0036971 0.00058002 -0.0035743 -0.00012764 -0.0010455 5.7311e-05 -0.0027641 -0.00012968
0.019456 0.0055209 -0.059721 0.31722
1160000000 0.097929 0.30185 0.021493 -0.02284 0.0018923 -0.00025942 -7.1464e-05 -0.0018109
-0.0040905 -0.00037197 -0.0007322 0.0039643
0.021491 -0.022803 -0.07962 0.38278 -0.0061056 -0.028899 -0.0017368 -0.0014925
-0.0028796 0.0029226 -0.0014135 0.0020153
0.0018914 -0.00027201 -0.0061999 -0.028885 0.25893 0.24455 -0.00072718 0.0018786
-0.00032811 0.0021696 -0.00066146 0.00039333
-8.0114e-05 -0.0017917 -0.0017468 -0.0015036 -0.00073166 0.0018843 0.043627 0.28518
0.020519 -0.01448 -0.0032236 0.0040267
-0.004085 -0.00036782 -0.0028757 0.0029402 -0.00032564 0.0021782 0.020513 -0.014521
-0.010172 0.21533 0.017923 -0.0033809
-0.0007225 0.0039678 -0.0014163 0.0020229 -0.00065069 0.00039871 -0.0032242 0.0040277
0.017919 -0.0034011 -0.013073 0.31763
1220000000 0.1423 0.28902 0.0069534 -0.030493 -0.0019754 -3.4249e-05 0.00028039 -0.00088513
-0.0024818 0.0023565 0.0014442 0.00212
0.0069723 -0.030453 -0.034871 0.39367 -0.01851 -0.019871 -0.0025298 0.00051554
0.00027288 0.0033203 -0.00041846 0.002098
-0.0019646 -2.585e-05 -0.018589 -0.019816 0.29704 0.20251 0.0009241 0.0019727
0.00082039 0.0013283 0.00051572 0.00050919
0.00028909 -0.00087872 -0.0025226 0.00051772 0.00092369 0.0019693 0.084048 0.27407
0.0085502 -0.020565 0.00090669 0.001397
-0.0024706 0.0023557 0.00027998 0.0033268 0.00081369 0.0013252 0.0085326 -0.020586
0.013639 0.22179 0.011836 -0.015191
0.0014429 0.0021222 -0.00041866 0.0021003 0.00051875 0.00051108 0.00090414 0.0013922
0.011826 -0.015196 0.021042 0.32854
1280000000 0.19122 0.26588 -0.011095 -0.02725 -0.0016693 0.0034109 -0.00082726 -0.0021037
-0.00065648 0.0030378 0.0025631 0.00090269
-0.011066 -0.02722 0.011831 0.38436 -0.024566 -0.0067346 -0.0010018 0.0015456
0.0021297 0.001849 0.0010113 0.0017993
-0.0016616 0.0034086 -0.0246 -0.0066542 0.32497 0.15672 0.0018217 -7.0902e-05
0.0013124 9.1801e-05 0.00031507 0.00013036
-0.00082368 -0.0021047 -0.0010017 0.0015503 0.0018153 -7.0462e-05 0.12024 0.25487
-0.0025707 -0.021441 -0.00097544 0.00070319
-0.00064853 0.0030449 0.0021417 0.0018393 0.0013127 9.2648e-05 -0.0026043 -0.021444
0.049394 0.2233 0.00069912 -0.016751
0.0025657 0.00089848 0.0010223 0.0017962 0.0003141 0.00012674 -0.0009785 0.00070588
0.00068837 -0.016757 0.066869 0.326
1340000000 0.22794 0.2307 -0.019898 -0.016041 0.001611 0.0048608 -0.0017748 -0.0010415
0.0015078 0.0026059 0.001637 -0.0016043
-0.01986 -0.01605 0.052396 0.37406 -0.021305 0.0061536 -2.1893e-05 0.0021362
0.0022472 0.00038571 0.0014386 0.0005772
0.0016244 0.0048556 -0.021293 0.006232 0.34447 0.10826 0.0013605 -0.0011964
0.00069886 -0.00062375 3.1611e-05 0.00020901
-0.0017755 -0.0010442 -1.3506e-05 0.0021318 0.0013564 -0.0011919 0.15177 0.23203
-0.012485 -0.016729 0.00017398 0.0016161
0.0015228 0.0026008 0.0022553 0.00036839 0.00068924 -0.00062432 -0.012518 -0.016716
0.079418 0.21685 -0.0068691 -0.014217
0.0016324 -0.001612 0.0014361 0.00056685 3.2112e-05 0.00021073 0.00017578 0.0016268
-0.0068772 -0.014227 0.10608 0.31671
1400000000 0.25995 0.19124 -0.023654 -0.0038832 0.0059002 0.0031167 -0.0022366 0.00061919
0.0024834 0.00088596 7.7289e-05 -0.0015498
-0.023627 -0.0039125 0.089283 0.35942 -0.013724 0.013763 0.0015121 0.0012592
0.0011641 -0.0012811 0.001097 -9.3544e-05
0.0059037 0.003097 -0.013679 0.013825 0.35573 0.055368 4.1995e-05 -0.0021302
4.7117e-05 -0.00049837 0.00037175 0.0001914
-0.0022303 0.00062411 0.0015249 0.0012549 4.6141e-05 -0.0021281 0.17948 0.2009
-0.018198 -0.0083275 -0.0003693 0.0010999
0.0024848 0.00087438 0.0011634 -0.0012896 4.3687e-05 -0.0004994 -0.018218 -0.0082939
0.11121 0.21005 -0.012994 -0.0080075
6.7812e-05 -0.0015547 0.001096 -9.8782e-05 0.0003704 0.00019269 -0.00036131 0.0011124
-0.013 -0.0080115 0.14802 0.30119
1460000000 0.28173 0.1463 -0.019037 0.0078199 0.006093 -0.0022636 -0.001619 0.0017936
0.002181 -0.00072773 -0.00058426 -0.00086785
-0.019021 0.0077953 0.12311 0.33575 -0.0045715 0.015843 0.0018348 -2.326e-05
0.00046423 -0.0015369 0.00096316 -0.00065257
0.0060793 -0.0022772 -0.004513 0.015867 0.36038 0.0022626 -0.0017733 -0.0013592
5.383e-05 -0.0002328 0.0007008 -0.00032981
-0.0016183 0.0017936 0.001834 -2.6617e-05 -0.0017674 -0.0013707 0.20338 0.17015
-0.018286 8.3031e-05 0.00016043 0.0026301
0.0021787 -0.0007493 0.00045738 -0.0015446 6.2403e-05 -0.00023839 -0.018301 0.00013371
0.13972 0.19388 -0.014004 -0.00099547
-0.00057319 -0.00087043 0.00096831 -0.00064893 0.00069549 -0.00033776 0.00016861 0.0026407
-0.01401 -0.0009674 0.17974 0.27785
1520000000 0.29278 0.10311 -0.012015 0.012231 0.0034994 -0.004614 0.00016922 0.002735
0.0019663 -0.0019316 -0.0011683 1.4856e-05
-0.012007 0.012216 0.15534 0.31941 0.0028635 0.012829 0.0016313 -0.0010361
-0.00032414 -0.00094339 0.00021586 -0.00096605
0.0034762 -0.0046203 0.0029196 0.012832 0.35351 -0.053367 -0.0015277 -8.8956e-05
0.00048547 -0.00091181 2.6663e-06 -0.00024273
0.00017225 0.0027436 0.0016304 -0.0010442 -0.0015274 -9.0992e-05 0.22364 0.13126
-0.015539 0.0066068 0.0025098 0.0020773
0.0019651 -0.0019435 -0.00032947 -0.0009412 0.00048368 -0.00091558 -0.015525 0.006645
0.16718 0.17773 -0.01291 0.0042953
-0.001174 1.1832e-05 0.00021036 -0.00096611 -8.3989e-08 -0.0002442 0.0025185 0.0020723
-0.01291 0.0043046 0.2105 0.25381
1580000000 0.30034 0.05629 -0.0049148 0.013723 -0.0008629 -0.0053036 0.0016959 0.0019056
-0.00030991 -0.0022909 -0.00020161 0.0004837
-0.0049207 0.013711 0.18104 0.29376 0.006084 0.0075102 0.00025843 -0.0017759
-0.00064543 -0.00067172 -0.00028078 -0.00078113
-0.00087714 -0.0052866 0.006108 0.0074856 0.33347 -0.11043 -0.0016003 0.0011794
-0.00045561 -0.0011053 0.00016181 -0.00063823
0.0016955 0.0019066 0.00024929 -0.0017877 -0.0016013 0.0011764 0.23441 0.092099
-0.010176 0.011075 0.0030285 0.00011306
-0.00032627 -0.0022829 -0.00065017 -0.00066574 -0.00046605 -0.001105 -0.010157 0.011103
0.19034 0.15768 -0.0092801 0.0096762
-0.00019757 0.00048543 -0.00027869 -0.0007828 0.00016018 -0.00064282 0.0030269 0.00010164
-0.0092757 0.0096799 0.23917 0.22546
1640000000 0.30055 0.014342 0.0013082 0.011027 -0.0029561 -0.0030422 0.0028582 0.00073619
-0.0010585 -0.0015699 -0.00014536 0.00053054
0.0013037 0.01102 0.20906 0.26823 0.0062088 0.0026858 -0.0010253 -0.0016418
-0.00084317 -0.00011629 -0.00057943 -0.00052956
-0.0029701 -0.0030249 0.0062266 0.0026548 0.30491 -0.15929 -0.00034559 0.0017114
-0.0013666 -0.00070637 -0.00026624 -0.00028159
0.0028552 0.00073756 -0.0010333 -0.001636 -0.00034767 0.0017161 0.24385 0.044756
-0.0045707 0.011222 0.0027909 -0.0015037
-0.0010703 -0.0015549 -0.00084535 -0.00011028 -0.001365 -0.00070343 -0.0045453 0.011239
0.2118 0.13131 -0.0036117 0.011433
-0.00013782 0.00053587 -0.00057553 -0.00053137 -0.00026832 -0.00028375 0.002791 -0.0015164
-0.0035982 0.01144 0.26268 0.19278
1700000000 0.29095 -0.03076 0.0037102 0.0072096 -0.0037459 -0.00019843 0.0029513 -0.0015492
-0.002139 -0.00050136 0.00073372 0.00020429
0.0037014 0.0072009 0.2256 0.23716 0.0040015 -0.00014167 -0.0015505 -0.00029986
-0.00047853 7.604e-05 -0.00090557 -0.00037621
-0.0037399 -0.00017875 0.0040029 -0.00016452 0.26176 -0.19913 0.00091358 0.0013596
-0.0018418 4.2189e-05 -0.00074478 -0.00085316
0.0029465 -0.0015477 -0.0015515 -0.00029667 0.00091185 0.0013592 0.23886 -0.0026248
-0.0012129 0.010065 0.0015531 -0.0026853
-0.0021442 -0.00049678 -0.00047645 7.8701e-05 -0.0018365 4.6766e-05 -0.0011938 0.01007
0.22718 0.10904 0.00168 0.011058
0.00074217 0.00020712 -0.00090312 -0.00036652 -0.0007485 -0.00085498 0.0015419 -0.0026956
0.0016945 0.011052 0.27661 0.15753
1760000000 0.27736 -0.078212 0.0044953 0.0035657 -0.0027508 0.00077133 0.00086697 -0.0035943
-0.0014158 0.0010062 0.00032743 -0.00054078
0.0044907 0.003561 0.25065 0.19774 0.0014726 -0.0019859 -0.0011246 0.00043029
-0.00087987 0.00062288 -0.00056978 0.00048168
-0.002751 0.00078191 0.0014676 -0.0019919 0.21346 -0.2331 0.0013277 0.00064592
-0.0010497 0.0017053 -0.0013948 -0.00022427
0.0008612 -0.003605 -0.0011148 0.00043213 0.0013222 0.00064639 0.22944 -0.050884
0.0015148 0.0079346 -0.00042628 -0.0029393
-0.0014157 0.0010197 -0.00087551 0.00062581 -0.0010496 0.0017121 0.001532 0.0079301
0.23984 0.072593 0.0057185 0.0076107
0.00031995 -0.00053791 -0.00056663 0.00048418 -0.0014028 -0.00022227 -0.00042924 -0.0029398
0.0057374 0.0075903 0.2875 0.11922
1820000000 0.25163 -0.1145 0.0034715 0.00054721 -0.00044541 0.0024951 -0.0014365 -0.0028798
-0.00082074 0.0012133 -0.00020905 -8.2368e-05
0.0034717 0.00053494 0.25994 0.16837 -0.00065305 -0.000623 -0.0010028 0.0010201
-0.00013475 0.0010408 -0.00048805 0.00053976
-0.00042866 0.0024856 -0.00065802 -0.00062655 0.16266 -0.24923 0.001201 -2.5281e-05
0.00017593 0.0021755 -0.0013555 0.000621
-0.0014621 -0.0028605 -0.0010035 0.0010295 0.0012058 -2.1347e-05 0.20062 -0.095516
0.0022058 0.0056167 -0.0017614 -0.0019432
-0.00081953 0.0012125 -0.00011711 0.0010424 0.00018008 0.0021701 0.0022171 0.0056115
0.25435 0.042169 0.0067914 0.003248
-0.0002025 -7.9957e-05 -0.00048589 0.00054474 -0.0013537 0.0006312 -0.0017612 -0.0019428
0.006791 0.0032262 0.28774 0.081471
1880000000 0.21577 -0.15342 0.00053488 -0.00080972 -0.00084175 0.0023066 -0.0030746 -0.0017364
8.8313e-05 0.0015844 0.0001259 -0.00026783
0.00052309 -0.00080693 0.26438 0.1225 -0.002948 0.0013098 3.0114e-05 0.0015583
0.0003251 0.0010835 0.00017089 0.00090296
-0.0008244 0.0023039 -0.0029347 0.0013238 0.1093 -0.2591 0.0012915 -0.00095194
0.001687 0.0015082 -0.00067021 0.0015875
-0.0030855 -0.0017119 4.0284e-05 0.0015623 0.0012907 -0.0009593 0.16219 -0.13468
0.0019723 0.0033516 -0.0026976 2.3639e-05
0.00010936 0.001579 0.00032801 0.0010802 0.001686 0.0015088 0.0019885 0.0033462
0.2545 0.0086578 0.0061574 0.00039751
0.00012973 -0.00025785 0.00017765 0.00090303 -0.00066258 0.0015951 -0.0026969 3.0099e-05
0.0061507 0.00037832 0.28543 0.046962
1940000000 0.17651 -0.17863 -0.001713 -0.0014035 0.0014124 0.0024329 -0.0035233 0.00091608
0.0015587 0.00089184 -0.00047453 -0.000351
-0.0017147 -0.0014049 0.26497 0.09092 -0.0016713 0.0039586 0.0010097 0.0010844
0.0015048 0.00071249 0.000801 0.00046372
0.0014286 0.0024122 -0.0016583 0.0039615 0.062897 -0.25228 0.00021259 -0.001602
0.0022373 0.00014793 0.00064378 0.0016983
-0.0035088 0.00093843 0.0010103 0.0010745 0.00021001 -0.0016005 0.11181 -0.16538
0.00054652 0.0022571 -0.0020359 0.0014139
0.0015605 0.00088784 0.001512 0.00070208 0.0022366 0.00014357 0.00054584 0.0022519
0.25375 -0.03075 0.0044003 -0.0031085
-0.00048099 -0.00035883 0.00080222 0.00046128 0.00064992 0.0017016 -0.0020377 0.0014256
0.0043801 -0.003119 0.27267 0.0098452
2000000000 0.13004 -0.19299 -0.0052034 0.0012881 0.0025463 0.0018967 -0.0020646 0.0034769
0.0010552 -0.00016125 -0.00037858 0.00038193
-0.0051952 0.0012789 0.25104 0.055343 -0.0013688 0.0059732 0.0015127 0.00019773
0.0014181 -0.00087161 0.00049655 0.00010811
0.0025519 0.0018828 -0.0013443 0.005975 0.018573 -0.23743 -0.00092696 -0.00092389
0.0017165 -0.001081 0.0018925 0.00086978
-0.0020523 0.0034866 0.001513 0.00019195 -0.00093183 -0.00092685 0.059463 -0.17692
-0.0013892 0.0021928 -0.00047334 0.0023791
0.0010404 -0.00017079 0.001409 -0.00087916 0.0017158 -0.0010856 -0.0013909 0.0022034
0.245 -0.064433 0.00062044 -0.0042406
