!Keysight Technologies,M9804A,MY58100912,A.14.10.03
!Date: Thursday, April 27, 2023 10:28:33
!Correction: S11(C  6-Port  ) 
!S12(C  6-Port  ) 
!S13(C  6-Port  ) 
!S14(C  6-Port  ) 
!S15(C  6-Port  ) 
!S16(C  6-Port  ) 
!S21(C  6-Port  ) 
!S22(C  6-Port  ) 
!S23(C  6-Port  ) 
!S24(C  6-Port  ) 
!S25(C  6-Port  ) 
!S26(C  6-Port  ) 
!S31(C  6-Port  ) 
!S32(C  6-Port  ) 
!S33(C  6-Port  ) 
!S34(C  6-Port  ) 
!S35(C  6-Port  ) 
!S36(C  6-Port  ) 
!S41(C  6-Port  ) 
!S42(C  6-Port  ) 
!S43(C  6-Port  ) 
!S44(C  6-Port  ) 
!S45(C  6-Port  ) 
!S46(C  6-Port  ) 
!S51(C  6-Port  ) 
!S52(C  6-Port  ) 
!S53(C  6-Port  ) 
!S54(C  6-Port  ) 
!S55(C  6-Port  ) 
!S56(C  6-Port  ) 
!S61(C  6-Port  ) 
!S62(C  6-Port  ) 
!S63(C  6-Port  ) 
!S64(C  6-Port  ) 
!S65(C  6-Port  ) 
!S66(C  6-Port  ) 
!S6P File: Measurement: :
# Hz S  RI   R 50
500000000 -0.34005 -0.017781 -0.011296 -0.0031754 -0.0076901 0.012642 -0.0022603 0.012382
0.012202 0.0057716 -0.0016854 0.0085286
-0.011495 -0.0032129 -0.41988 -0.036173 0.0061521 -0.011853 0.0024559 0.011986
0.0061726 0.002837 0.0023008 0.013289
-0.0078004 0.012752 0.0061172 -0.011865 -0.26265 0.22251 0.0071234 0.0035705
-0.0012794 0.008444 0.0018962 0.011771
-0.0020987 0.011962 0.0025842 0.011958 0.0071294 0.0036348 -0.33156 0.062778
-0.018844 -0.0067919 0.014327 0.02292
0.01215 0.0059748 0.0063474 0.0029068 -0.001131 0.0085687 -0.019067 -0.0067649
-0.23765 -0.16203 -0.024249 0.0047902
-0.0017964 0.0081645 0.0022497 0.013221 0.0018915 0.012018 0.014152 0.022961
-0.02434 0.0049079 -0.28488 -0.080439
560000000 -0.31262 0.13636 -0.027714 -0.061644 0.0016244 0.011701 0.0063647 0.0099595
0.0081279 0.0018627 0.010863 0.0053491
-0.027325 -0.061734 -0.37592 0.11835 -0.042649 -0.034851 0.013763 0.0040901
-0.014548 -0.004221 0.0046808 -0.001674
0.0014765 0.01153 -0.042761 -0.034815 -0.18009 0.26776 -0.00037436 -0.0039802
0.018872 0.0031332 0.0072771 -0.0061672
0.006561 0.010039 0.01373 0.0038887 -0.00038617 -0.0040391 -0.30427 0.14976
0.00059892 -0.025379 0.0039798 -0.017798
0.0083288 0.0020472 -0.014421 -0.003562 0.01864 0.0029657 0.00059041 -0.025195
-0.28654 0.0063473 0.0013577 -0.047151
0.011315 0.005017 0.0046736 -0.0015239 0.0072245 -0.0062038 0.0040246 -0.017613
0.0014578 -0.047244 -0.32908 0.058992
620000000 -0.26982 0.12386 -0.023484 0.007245 0.0044849 0.0085863 0.0080266 -0.0048242
0.011609 -0.0022048 0.0010188 -0.0022336
-0.02342 0.007338 -0.40149 0.07443 -0.019574 0.00072942 -0.00092886 -0.00262
0.010127 -0.0061893 0.0015819 -0.0029279
0.0044866 0.0084467 -0.019583 0.00073065 -0.1489 0.2774 -0.00089074 -0.005479
-0.0034201 -0.002552 0.0085714 -0.0042036
0.00797 -0.0046994 -0.00089004 -0.0027668 -0.00073067 -0.005493 -0.26274 0.15923
-0.039055 -0.016387 0.011268 0.022232
0.01128 -0.0022528 0.0099626 -0.0061108 -0.0036078 -0.0027574 -0.039247 -0.0164
-0.20933 -0.027319 -0.037555 0.015117
0.00093715 -0.0020838 0.0014432 -0.0029566 0.0085927 -0.0041955 0.011206 0.022032
-0.037674 0.015113 -0.25673 0.030899
680000000 -0.22786 0.20526 -0.028012 -0.01172 0.0054709 0.0043763 0.0010512 -0.0071162
-0.0036347 -0.0113 0.0039203 -0.0064659
-0.028006 -0.01176 -0.38433 0.16863 -0.032103 0.00095675 -0.0017279 -0.00026108
-0.0024215 -0.0086405 -0.0013027 -0.0018265
0.0054268 0.0044076 -0.032114 0.00099407 -0.097772 0.2951 -0.00091051 -0.00023545
-0.0017333 0.0002541 -0.0033445 -0.0083543
0.00091684 -0.0072003 -0.0018547 -0.00029837 -0.00099668 -0.00032126 -0.21702 0.20723
-0.024983 -0.0051078 -0.0088015 -0.0083508
-0.0036758 -0.011168 -0.0024341 -0.0085856 -0.0017867 0.00032984 -0.024946 -0.0049415
-0.25173 0.068236 -0.0078522 -0.0061233
0.0038297 -0.0065376 -0.0013156 -0.0017282 -0.0033757 -0.0083011 -0.0089226 -0.0081364
-0.007811 -0.0059558 -0.25324 0.12723
740000000 -0.18326 0.19969 -0.036477 0.0262 0.012637 -0.0055821 -0.0007234 -0.0038726
-0.0049625 -0.002381 -0.0063706 0.003047
-0.036425 0.026229 -0.33249 0.18796 -0.032608 0.034921 -0.00052873 -0.0060858
-0.012515 0.0074407 -0.0017739 -0.0049187
0.012634 -0.0056276 -0.032597 0.034975 -0.064002 0.29419 -0.001587 0.0034098
-0.0032246 -0.0048167 -0.0019655 0.0015717
-0.00064464 -0.003841 -0.00057124 -0.0060868 -0.0016375 0.0034254 -0.19845 0.21632
-0.043162 -0.0031301 0.022497 0.012059
-0.0049111 -0.0029511 -0.01256 0.0073663 -0.0032511 -0.0048336 -0.043226 -0.003057
-0.15805 0.091144 -0.038923 0.003983
-0.0062785 0.0031273 -0.0017891 -0.0049421 -0.0019767 0.0016202 0.022623 0.012085
-0.038937 0.0038412 -0.24135 0.13692
800000000 -0.14946 0.23749 -0.02111 0.017687 0.0046968 -0.010268 -0.0050147 -0.001395
-0.0038811 0.0030615 0.003168 0.0012796
-0.021112 0.017635 -0.33236 0.2562 -0.0064201 0.033637 -0.0024826 0.0024495
-0.00051757 0.0034098 0.00093063 0.0057773
0.0046813 -0.010319 -0.0063638 0.033652 -0.021489 0.31585 0.0005453 0.001637
0.00062441 0.003756 -0.0019765 0.0015646
-0.0050063 -0.001287 -0.002462 0.0024395 0.00063448 0.0016083 -0.16848 0.24224
-0.026437 0.017018 0.012031 -0.010431
-0.0037202 0.0032641 -0.00048042 0.0035181 0.00062005 0.003809 -0.026511 0.017112
-0.1936 0.11666 -0.015176 0.020165
0.0031661 0.0013182 0.00087587 0.005809 -0.0020264 0.0013886 0.012 -0.010494
-0.01509 0.020199 -0.22867 0.18242
860000000 -0.11533 0.25628 -0.015296 0.030852 -0.0036949 -0.0095958 -0.0018007 0.0016631
0.0045987 0.0048709 -0.0020917 -0.0027063
-0.015322 0.03086 -0.28458 0.29697 0.0095752 0.032958 0.00040255 0.0022911
0.0045989 0.00031223 0.0033297 5.1545e-06
-0.0037396 -0.0095629 0.0096322 0.032937 0.026844 0.32269 -0.00032665 2.4985e-05
0.0025689 -0.001633 0.0019902 0.0037592
-0.0016946 0.0016125 0.00037329 0.0022966 -0.00041182 2.6212e-05 -0.13196 0.25317
-0.014795 0.020411 -0.0052892 -0.0087068
0.0048264 0.0047101 0.0046284 0.00020894 0.0025454 -0.0016674 -0.014754 0.020404
-0.14073 0.16112 -0.02054 0.016276
-0.0020482 -0.0027371 0.0033899 9.3926e-05 0.0020408 0.0039066 -0.0053296 -0.008599
-0.020553 0.016238 -0.17867 0.2214
920000000 -0.088184 0.27792 0.006424 0.036392 -0.0093381 -0.0038441 -0.0013431 0.0016218
0.0015828 0.0012102 0.0023603 -0.0017633
0.0064281 0.036399 -0.25453 0.3169 0.028266 0.019894 0.0016895 0.00091898
0.0069157 -0.00079075 0.0034311 -0.0030921
-0.0093634 -0.0038359 0.028322 0.019841 0.074152 0.32275 0.0018905 -0.00030778
0.0013792 -0.00062721 0.00076931 -0.0013782
-0.0013944 0.0016023 0.0016797 0.00091963 0.0019092 -0.0003078 -0.10503 0.26901
-0.0069914 0.030254 0.0021983 -0.0064194
0.0014487 0.0014035 0.0068955 -0.00078383 0.0013778 -0.00060008 -0.0069765 0.030306
-0.1282 0.16829 -0.00031094 0.025047
0.0023386 -0.0017427 0.0034279 -0.0031135 0.0007373 -0.001401 0.0022041 -0.0064598
-0.00033124 0.025099 -0.17745 0.23747
980000000 -0.0413 0.29539 0.018855 0.028118 -0.0084623 0.0047159 0.0018354 0.003165
0.0037262 -0.0019994 -0.0027868 -0.0019101
0.018813 0.028086 -0.20239 0.34918 0.032472 0.0029104 0.0020025 -0.00031758
0.0015234 -0.0062714 -0.00068596 -0.0024598
-0.0084507 0.004734 0.032512 0.0028549 0.12102 0.31462 0.00039142 -0.0013239
0.00010975 -0.0022599 0.001259 -0.00019294
0.0018881 0.0031459 0.0020147 -0.00036077 0.00040161 -0.0013236 -0.066333 0.27821
0.010893 0.028502 -0.0084277 -0.0062909
0.0039038 -0.0019994 0.0015369 -0.0063171 0.00012278 -0.0022385 0.010967 0.028462
-0.095857 0.19148 0.0068387 0.018493
-0.0028046 -0.0018976 -0.00074539 -0.0024084 0.0012372 -0.00017413 -0.0084717 -0.0062847
0.006864 0.01852 -0.13401 0.27397
1040000000 0.0018986 0.30272 0.032915 0.015396 -0.001109 0.0066138 0.0027376 0.00060906
-0.00016561 -0.0033961 -0.00090344 -0.001631
0.032923 0.015433 -0.16653 0.36225 0.027517 -0.015904 0.0014536 -0.0016882
-0.0023518 -0.0025326 -0.0014837 -0.0025297
-0.0011122 0.0066101 0.027511 -0.015979 0.16772 0.29988 -0.00066089 -0.0015123
-0.0017001 -0.00086175 -0.00063711 -0.00092107
0.0026404 0.00054677 0.0014658 -0.0016983 -0.00065219 -0.0015115 -0.037309 0.28734
0.021162 0.015029 -0.0027369 0.0012004
-0.00027939 -0.0033537 -0.0023648 -0.0025965 -0.0016928 -0.00085733 0.021176 0.015012
-0.063874 0.19694 0.014115 0.015614
-0.00091923 -0.0015806 -0.0014726 -0.0025705 -0.00063337 -0.00094606 -0.0027244 0.0012073
0.01409 0.015624 -0.10797 0.29393
1100000000 0.04724 0.30864 0.034331 -0.0063436 0.0026365 0.003567 0.0021584 -0.0011232
-0.0019175 -0.0029743 -0.0035531 0.0006585
0.034281 -0.0063255 -0.12307 0.37816 0.013138 -0.027798 -0.00014394 -0.0018286
-0.0034344 -0.0006064 -0.0034409 -0.00021995
0.0026421 0.0035502 0.013084 -0.027828 0.21479 0.27728 -0.0018607 0.00027403
-0.001803 0.00077715 -0.00083432 -3.334e-05
0.0021871 -0.0010795 -0.00012527 -0.0018084 -0.0018804 0.00028052 0.0041546 0.28982
0.024853 0.0018074 -0.0025287 4.3628e-05
-0.0019412 -0.0028927 -0.0034992 -0.0005372 -0.0018013 0.00077431 0.024874 0.0017863
-0.044266 0.20863 0.0185 0.0056741
-0.0035098 0.00064707 -0.0034688 -0.00021603 -0.00081777 -1.8758e-05 -0.0025421 4.6215e-05
0.018521 0.005651 -0.060768 0.31674
1160000000 0.098101 0.30231 0.021649 -0.021795 0.0022072 -0.00041795 -8.2499e-05 -0.0019253
-0.003952 -0.00042925 -0.0004476 0.0036192
0.021685 -0.02177 -0.0788 0.38208 -0.0054054 -0.027995 -0.0017269 -0.0014131
-0.0025736 0.0025342 -0.001311 0.0018356
0.0021854 -0.00044183 -0.0054858 -0.027973 0.25703 0.24447 -0.00067318 0.0017329
-0.00027716 0.0019381 -0.00078112 0.00014854
-5.4192e-05 -0.0019784 -0.001746 -0.0014311 -0.00064602 0.0017522 0.043405 0.2847
0.019637 -0.013243 -0.0031366 0.0044081
-0.0039439 -0.00046169 -0.0025445 0.0024918 -0.00026181 0.0019485 0.019637 -0.01327
-0.011577 0.21534 0.017054 -0.0023338
-0.00045916 0.0036244 -0.0012221 0.0018973 -0.00080026 0.00014235 -0.0030661 0.0044026
0.017043 -0.0023089 -0.013942 0.31708
1220000000 0.14279 0.28936 0.0078006 -0.029596 -0.0016638 -0.00027104 0.0001722 -0.00095621
-0.0023593 0.0024001 0.0013072 0.0019354
0.0078179 -0.029565 -0.034249 0.39253 -0.017465 -0.019505 -0.0023741 0.00048736
0.00023332 0.0029703 -0.00050674 0.0019543
-0.0016654 -0.00026983 -0.01752 -0.019459 0.29549 0.20375 0.00083296 0.0017362
0.00077118 0.0012073 0.00037421 0.00051124
0.00016621 -0.00097141 -0.0023819 0.00051899 0.0008259 0.0017137 0.083995 0.27369
0.0083059 -0.018827 0.0012768 0.0014659
-0.0023703 0.0024404 0.00021823 0.0029555 0.00078269 0.0012037 0.0082714 -0.018841
0.012951 0.22165 0.011458 -0.013859
0.0013275 0.0019405 -0.00049312 0.0019161 0.00037688 0.00052843 0.0012455 0.0014704
0.011437 -0.013872 0.019881 0.32803
1280000000 0.19167 0.26572 -0.0097532 -0.026828 -0.001537 0.0029869 -0.0010184 -0.0019932
-0.00052017 0.0028186 0.0024087 0.00092151
-0.0097124 -0.026784 0.01149 0.38263 -0.023352 -0.0070348 -0.0010027 0.0014105
0.0017962 0.0016103 0.00079086 0.0017662
-0.0015312 0.0030008 -0.023375 -0.0069682 0.32443 0.1584 0.0016449 -3.21e-05
0.0011342 0.00016815 0.00026856 0.00015114
-0.00099837 -0.001962 -0.00097346 0.0013988 0.0016256 -2.9416e-05 0.11965 0.25437
-0.0014496 -0.019832 -0.00067023 0.00061488
-0.00048403 0.0027712 0.0018449 0.0016509 0.0011109 0.00014918 -0.00148 -0.019823
0.048832 0.22306 0.00090621 -0.015536
0.0024467 0.00091017 0.00079762 0.0017715 0.00028654 0.00014662 -0.00068092 0.00063675
0.00090306 -0.015557 0.065442 0.32554
1340000000 0.22802 0.23063 -0.018435 -0.016629 0.0014802 0.0043605 -0.0017483 -0.000815
0.0013822 0.0025488 0.0014883 -0.001529
-0.018407 -0.016632 0.051059 0.37308 -0.020606 0.0051985 -1.7619e-05 0.0019978
0.0019575 0.00058124 0.0012504 0.00060754
0.001492 0.004345 -0.020602 0.0052641 0.34486 0.11029 0.0012433 -0.0010809
0.00059536 -0.00047263 7.1365e-05 0.00020168
-0.0017526 -0.00080878 -1.5458e-05 0.0020023 0.001255 -0.0010661 0.15084 0.2322
-0.010804 -0.016025 0.00042907 0.001345
0.0013954 0.0025738 0.0019329 0.0005562 0.0005947 -0.00045605 -0.010857 -0.016042
0.078374 0.21649 -0.0058154 -0.012894
0.0014828 -0.0015193 0.0012807 0.00058333 7.7641e-05 0.00020312 0.00043848 0.0013259
-0.0058133 -0.012879 0.10435 0.31681
1400000000 0.25995 0.19082 -0.022691 -0.0052352 0.0054217 0.0026402 -0.0021523 0.00070091
0.0024365 0.00083002 4.9036e-05 -0.0014164
-0.022665 -0.0052451 0.087731 0.35904 -0.013657 0.012581 0.0013477 0.0013214
0.0011115 -0.0009658 0.0010793 7.5626e-05
0.005413 0.0026271 -0.013628 0.012645 0.35719 0.056402 2.0096e-05 -0.0018834
-1.2981e-05 -0.00045111 0.00033067 0.00019036
-0.0021389 0.00070853 0.0013793 0.0013103 1.2187e-05 -0.0019104 0.17905 0.20138
-0.016165 -0.0085482 -0.0002372 0.00060747
0.0024516 0.00077762 0.0010947 -0.00091805 3.0078e-05 -0.00045155 -0.016201 -0.0085112
0.11038 0.20992 -0.011385 -0.0073422
4.49e-05 -0.0014358 0.0010716 2.9677e-05 0.00031268 0.00019744 -0.00023673 0.00061651
-0.0114 -0.0073576 0.14655 0.30164
1460000000 0.28121 0.14608 -0.018953 0.0061294 0.0055002 -0.0022873 -0.0015694 0.00173
0.0019541 -0.00069613 -0.00037488 -0.00081864
-0.018942 0.0061147 0.12137 0.33643 -0.0052269 0.01487 0.0017301 0.00010118
0.00063251 -0.0012706 0.0010054 -0.00063902
0.0055025 -0.0022849 -0.0051813 0.014879 0.36178 0.0022439 -0.0015159 -0.0012519
0.00013416 -0.0001711 0.00064535 -0.00038277
-0.0015785 0.0017422 0.0017335 0.00011848 -0.001524 -0.0012392 0.20286 0.17086
-0.016551 -0.0013068 -2.3752e-05 0.0021513
0.001959 -0.0006844 0.00062921 -0.001345 9.7965e-05 -0.00019421 -0.016547 -0.001269
0.13868 0.19378 -0.012311 -0.0015384
-0.0004126 -0.00081817 0.0010078 -0.00062788 0.00066891 -0.00037596 -3.343e-05 0.0021356
-0.012304 -0.0015773 0.17827 0.27869
1520000000 0.29233 0.10329 -0.012831 0.010763 0.0029764 -0.0043379 0.00019792 0.002632
0.0018854 -0.0016672 -0.001191 -6.7572e-05
-0.012824 0.010736 0.15431 0.32087 0.0019232 0.012475 0.0016041 -0.00089906
-0.00010558 -0.00097685 0.00023003 -0.00083887
0.0029435 -0.0043515 0.001961 0.012463 0.35464 -0.053864 -0.0013749 -0.00017844
0.00046075 -0.00088933 4.4822e-05 -0.00018288
0.00020631 0.0026206 0.0016119 -0.00090193 -0.0013627 -0.00018405 0.22384 0.13238
-0.014905 0.0043799 0.0021199 0.0017741
0.0018503 -0.0017078 -0.00010218 -0.00096237 0.00049092 -0.00085296 -0.014913 0.0044031
0.16601 0.17785 -0.011644 0.0031953
-0.0011539 -4.5807e-05 0.00021631 -0.00086546 1.2507e-05 -0.00020458 0.0020968 0.0017985
-0.01165 0.0031761 0.20979 0.25496
1580000000 0.29998 0.05664 -0.0063825 0.012924 -0.0010895 -0.0047099 0.0016156 0.0018787
-0.00012667 -0.0021196 -0.00031909 0.00046305
-0.0063854 0.012906 0.18083 0.29545 0.0052216 0.0077226 0.00040926 -0.0017112
-0.00056844 -0.00089543 -0.00017025 -0.00079069
-0.0011231 -0.0046992 0.0052561 0.0077119 0.33407 -0.11157 -0.001575 0.00096304
-0.00036617 -0.0010383 0.00016707 -0.00065139
0.0016293 0.0018849 0.00040201 -0.0017311 -0.0015845 0.00097207 0.23502 0.092808
-0.01104 0.0088792 0.0025468 0.00016308
-0.00014039 -0.002111 -0.00054646 -0.00087513 -0.00035507 -0.0010438 -0.011037 0.0089046
0.18904 0.158 -0.0087071 0.0081513
-0.00028699 0.00042396 -0.00019832 -0.00079336 0.00016176 -0.00063097 0.0025686 0.00016999
-0.0087073 0.0081618 0.23891 0.22638
1640000000 0.30047 0.015055 -0.00031618 0.011191 -0.0027881 -0.0024273 0.0028145 0.00086505
-0.00080283 -0.0013668 -0.00019021 0.00056528
-0.00031221 0.011186 0.20967 0.26998 0.0056779 0.0032597 -0.00089006 -0.001631
-0.00088213 -0.00021307 -0.00048577 -0.00052863
-0.0027885 -0.0024294 0.005693 0.003243 0.30479 -0.16022 -0.00044036 0.0016242
-0.0011764 -0.00076573 -0.00023048 -0.00021847
0.002815 0.00083241 -0.00089934 -0.0015978 -0.00043291 0.0016164 0.2449 0.045272
-0.0063506 0.0098934 0.002486 -0.0012729
-0.0007704 -0.001395 -0.00089142 -0.00022562 -0.0012206 -0.00079711 -0.0063265 0.0099229
0.21064 0.13219 -0.003769 0.0098221
-0.00022765 0.00056666 -0.00048141 -0.00053947 -0.00022852 -0.00020877 0.0025085 -0.0012851
-0.0037422 0.0098516 0.26233 0.19356
1700000000 0.29155 -0.030383 0.002433 0.0081241 -0.0034039 7.9411e-05 0.0028421 -0.0015488
-0.0019598 -0.00065069 0.00059363 0.00043179
0.0024258 0.0081333 0.22714 0.23822 0.0037893 0.00046547 -0.0015248 -0.00043871
-0.00062679 8.812e-05 -0.00086115 -0.0003693
-0.0034249 9.0927e-05 0.0038028 0.00044486 0.26153 -0.20014 0.00061788 0.0014113
-0.0017848 -7.7056e-05 -0.00060466 -0.00080901
0.0027994 -0.0015122 -0.001506 -0.00043853 0.00061672 0.0014132 0.24026 -0.0028406
-0.0032627 0.010045 0.0013574 -0.0024863
-0.0019804 -0.0006382 -0.00063475 0.00010496 -0.0017638 -4.046e-05 -0.0032365 0.010044
0.22656 0.11008 0.00074492 0.0098656
0.00065835 0.00044905 -0.00087239 -0.00037968 -0.00064569 -0.00082813 0.0013074 -0.0025077
0.00074824 0.0098059 0.27657 0.15799
1760000000 0.27787 -0.078398 0.0039961 0.0049366 -0.0023459 0.00083753 0.00091496 -0.0034215
-0.0013551 0.00078223 0.00052973 -0.00054239
0.0039806 0.0049371 0.25229 0.19783 0.0015869 -0.0013731 -0.001184 0.00033402
-0.00093414 0.00079049 -0.00055891 0.00045704
-0.0023458 0.00085225 0.0015838 -0.0013813 0.21244 -0.23389 0.0013621 0.0007511
-0.0010295 0.001541 -0.0013153 -0.00028458
0.00096733 -0.0034589 -0.0011948 0.00033493 0.0013392 0.00076862 0.23043 -0.051961
-3.4477e-05 0.0088724 -0.0006226 -0.0025293
-0.0013161 0.00077614 -0.00091412 0.00078178 -0.0010327 0.0015331 -3.3981e-05 0.0088764
0.23914 0.07363 0.0044822 0.0069129
0.00047968 -0.00056344 -0.00054975 0.00044465 -0.0013203 -0.00029245 -0.00061926 -0.0025211
0.0044179 0.0069432 0.28716 0.11945
1820000000 0.25211 -0.11489 0.0037971 0.0018426 -0.00021104 0.0025237 -0.0012615 -0.0027622
-0.0010014 0.0010089 -0.00012495 -0.00016427
0.0037804 0.0018379 0.26154 0.16782 -0.00039495 -0.00015554 -0.0011609 0.0010886
-7.884e-05 0.0011326 -0.0005216 0.00048604
-0.00021221 0.0025078 -0.00038668 -0.00014696 0.16157 -0.24905 0.0011682 0.000107
-0.00013808 0.0021002 -0.0013995 0.00054578
-0.0013303 -0.0027681 -0.0011778 0.0010917 0.0011505 9.0986e-05 0.2009 -0.096894
0.001413 0.0071041 -0.0018808 -0.0014606
-0.0010055 0.0010234 -8.1684e-05 0.0011388 -0.00015236 0.0021175 0.0014388 0.0071348
0.25425 0.043568 0.0052432 0.0032018
-0.00012471 -0.00017533 -0.0005248 0.00051196 -0.001366 0.00056724 -0.0018568 -0.0014364
0.0052901 0.0032299 0.28758 0.082061
1880000000 0.21583 -0.15439 0.0013798 7.6749e-05 -0.00043474 0.0021739 -0.002988 -0.0017914
-0.0001892 0.0017991 2.6521e-05 -0.00032655
0.0013971 8.5264e-05 0.26541 0.121 -0.0024558 0.0015669 -4.9425e-05 0.0016241
0.00048204 0.0011151 0.00015147 0.00097481
-0.00040652 0.0021784 -0.0024494 0.0015791 0.10863 -0.25882 0.0013895 -0.00092379
0.0015997 0.0016734 -0.00069075 0.0014052
-0.002946 -0.0017284 -3.6968e-06 0.0016114 0.0013472 -0.00094589 0.16148 -0.13611
0.0021514 0.0047972 -0.0024761 0.00052289
-0.00016925 0.0017857 0.0004706 0.0011001 0.0015832 0.0016783 0.0021721 0.0047768
0.25488 0.0095211 0.0047729 0.0011939
7.5971e-05 -0.0003026 0.00019024 0.00096464 -0.00069925 0.0013763 -0.0024126 0.00047122
0.0048347 0.0011218 0.28525 0.047294
1940000000 0.17592 -0.17911 -0.00077074 -0.0011676 0.0015097 0.0019712 -0.0034186 0.00086064
0.0015359 0.0011537 -0.00046845 -0.00044545
-0.00076815 -0.0011563 0.26495 0.089356 -0.0012744 0.0039321 0.0010514 0.0010665
0.0016256 0.00051553 0.00090574 0.00045877
0.0014919 0.0019584 -0.0012666 0.0039497 0.062077 -0.25185 9.1298e-05 -0.0016828
0.002192 0.00026853 0.00057701 0.001646
-0.003363 0.00084769 0.0010363 0.0011015 0.00016753 -0.001648 0.11063 -0.16596
0.0013967 0.0033645 -0.001249 0.0014771
0.0015102 0.0011303 0.0016503 0.00049915 0.0022073 0.00024283 0.0013963 0.0033676
0.25404 -0.029739 0.0036387 -0.0021943
-0.00048209 -0.00049304 0.00090787 0.00046581 0.00060547 0.0016571 -0.001368 0.0014496
0.0035517 -0.0022003 0.27195 0.010635
2000000000 0.12928 -0.19342 -0.004363 0.0011496 0.0026395 0.0014724 -0.0020197 0.0033138
0.001108 -1.4601e-05 -0.00044979 0.00043987
-0.0043487 0.0011555 0.25051 0.053927 -0.00095903 0.0059089 0.0014747 0.00015737
0.0012695 -0.0010894 0.00046769 0.00011681
0.0026185 0.001484 -0.00092856 0.0059153 0.018312 -0.23658 -0.00088566 -0.0010439
0.0019404 -0.0010257 0.0016233 0.0011272
-0.0020966 0.0033321 0.001459 0.000169 -0.00093799 -0.0010516 0.05822 -0.17705
-0.00038285 0.0028231 -0.00017461 0.002221
0.0011333 1.258e-05 0.001262 -0.0010981 0.0019183 -0.0010143 -0.00039145 0.0028406
0.24586 -0.063707 0.00020159 -0.0030196
