!Keysight Technologies,M9804A,MY58100912,A.14.10.03
!Date: Thursday, April 27, 2023 10:28:33
!Correction: S11(C  6-Port  ) 
!S12(C  6-Port  ) 
!S13(C  6-Port  ) 
!S14(C  6-Port  ) 
!S15(C  6-Port  ) 
!S16(C  6-Port  ) 
!S21(C  6-Port  ) 
!S22(C  6-Port  ) 
!S23(C  6-Port  ) 
!S24(C  6-Port  ) 
!S25(C  6-Port  ) 
!S26(C  6-Port  ) 
!S31(C  6-Port  ) 
!S32(C  6-Port  ) 
!S33(C  6-Port  ) 
!S34(C  6-Port  ) 
!S35(C  6-Port  ) 
!S36(C  6-Port  ) 
!S41(C  6-Port  ) 
!S42(C  6-Port  ) 
!S43(C  6-Port  ) 
!S44(C  6-Port  ) 
!S45(C  6-Port  ) 
!S46(C  6-Port  ) 
!S51(C  6-Port  ) 
!S52(C  6-Port  ) 
!S53(C  6-Port  ) 
!S54(C  6-Port  ) 
!S55(C  6-Port  ) 
!S56(C  6-Port  ) 
!S61(C  6-Port  ) 
!S62(C  6-Port  ) 
!S63(C  6-Port  ) 
!S64(C  6-Port  ) 
!S65(C  6-Port  ) 
!S66(C  6-Port  ) 
!S6P File: Measurement: :
# Hz S  RI   R 50
500000000 -0.33969 -0.017658 -0.011207 -0.0031575 -0.0074552 0.01293 -0.0032471 0.012352
0.011191 0.0038055 -0.0028325 0.0086734
-0.011199 -0.0031462 -0.41981 -0.035796 0.0062304 -0.011515 0.0020088 0.012636
0.0062766 0.0024146 0.0020595 0.013794
-0.0074326 0.012922 0.0062164 -0.011518 -0.26299 0.22319 0.0073326 0.0038025
-0.0011718 0.0087182 0.0020956 0.012322
-0.0032387 0.012303 0.0020149 0.012658 0.0073552 0.0038097 -0.33057 0.063191
-0.019604 -0.0067558 0.014951 0.023612
0.011171 0.0037829 0.0062982 0.0024129 -0.001158 0.0087037 -0.01962 -0.0067238
-0.23665 -0.16369 -0.025292 0.0036917
-0.0028307 0.0086368 0.0021008 0.013811 0.002141 0.012331 0.014979 0.023615
-0.025299 0.0036563 -0.28546 -0.079334
560000000 -0.31215 0.13774 -0.027273 -0.060359 0.00089955 0.011522 0.0054205 0.0096492
0.008649 0.0042242 0.010961 0.0065952
-0.027236 -0.060283 -0.37545 0.1182 -0.042374 -0.03369 0.013906 0.0036444
-0.012422 -0.0034743 0.0028067 -0.00079577
0.00091695 0.011513 -0.042425 -0.033618 -0.18105 0.26765 -0.00039558 -0.0045077
0.018372 0.0034101 0.0066939 -0.0063649
0.0054283 0.0096392 0.013869 0.0036476 -0.00040279 -0.0045239 -0.30412 0.1491
0.00044247 -0.024238 0.002866 -0.018136
0.008646 0.0042221 -0.012413 -0.0034077 0.018345 0.0033994 0.00047653 -0.024239
-0.28752 0.0097792 0.0028627 -0.046944
0.010965 0.0065729 0.0028204 -0.0007817 0.0066452 -0.0063677 0.0028789 -0.018137
0.002873 -0.046963 -0.331 0.059767
620000000 -0.2698 0.12392 -0.023527 0.0073703 0.0040585 0.0078911 0.0078943 -0.0056046
0.0106 -0.0010339 0.0005355 -0.0021999
-0.023509 0.0073688 -0.40145 0.074395 -0.019472 0.00061597 -0.00091447 -0.0023006
0.010078 -0.0063886 0.0014348 -0.0031033
0.0040666 0.0078766 -0.019492 0.00066291 -0.14891 0.2778 -0.0013279 -0.004843
-0.0030192 -0.0029847 0.0084607 -0.0039905
0.0079002 -0.005613 -0.00092553 -0.0022982 -0.0013343 -0.0048232 -0.26239 0.16068
-0.039336 -0.017285 0.012188 0.023318
0.010574 -0.0010522 0.010103 -0.0064263 -0.0029909 -0.0029994 -0.039414 -0.017238
-0.21102 -0.027707 -0.038971 0.014773
0.00057471 -0.0022105 0.0014267 -0.0031251 0.0083851 -0.0039961 0.01222 0.02327
-0.038993 0.014839 -0.25621 0.032455
680000000 -0.22737 0.2053 -0.027862 -0.011547 0.0055607 0.004445 0.0012527 -0.0069602
-0.0028575 -0.011109 0.0038408 -0.006826
-0.027835 -0.011554 -0.38419 0.16841 -0.032058 0.00064467 -0.001447 -0.00057099
-0.0024399 -0.0087877 -0.001438 -0.0021369
0.0055653 0.0044506 -0.032057 0.00068236 -0.097822 0.29503 -0.00092919 -0.00048358
-0.0018925 7.38e-05 -0.0036603 -0.00839
0.0012272 -0.0069787 -0.0014542 -0.00055637 -0.00091855 -0.00049132 -0.2167 0.20752
-0.025796 -0.0051676 -0.0087784 -0.0079966
-0.0028674 -0.011104 -0.0024627 -0.0088016 -0.001884 7.1525e-05 -0.025827 -0.0051454
-0.25018 0.069049 -0.0071167 -0.0063634
0.0038292 -0.0068491 -0.0014361 -0.002124 -0.0036556 -0.0083945 -0.0087825 -0.008012
-0.0071217 -0.0063588 -0.25318 0.12728
740000000 -0.18382 0.20031 -0.036437 0.026347 0.012085 -0.0061261 -0.00079438 -0.0040423
-0.005115 -0.0028781 -0.0056745 0.0033956
-0.036422 0.026308 -0.33255 0.18832 -0.032554 0.035313 -0.00093819 -0.0061172
-0.01137 0.0083331 -0.001735 -0.0049576
0.012075 -0.0061218 -0.032498 0.035376 -0.064444 0.29423 -0.0017247 0.0030504
-0.0036082 -0.0044525 -0.0017705 0.001529
-0.00081863 -0.0040497 -0.00093509 -0.0061256 -0.0017306 0.0030406 -0.19871 0.21658
-0.041795 -0.0032442 0.021927 0.012098
-0.0051259 -0.0028551 -0.01136 0.0083596 -0.0035923 -0.0044347 -0.041838 -0.0031857
-0.15734 0.090471 -0.037959 0.00341
-0.005688 0.0034018 -0.0017443 -0.0049604 -0.0017564 0.001502 0.021952 0.012053
-0.037916 0.003347 -0.24191 0.13768
800000000 -0.1496 0.23725 -0.021105 0.017816 0.0045903 -0.01045 -0.004234 -0.0015876
-0.0038004 0.0029844 0.0037271 0.00085154
-0.02109 0.017798 -0.33228 0.2562 -0.0063933 0.033566 -0.0022245 0.0023579
-0.00059894 0.0035298 0.0012028 0.005434
0.0045758 -0.010445 -0.0063261 0.033591 -0.021357 0.31587 0.00090895 0.0016418
0.0003999 0.0036054 -0.001735 0.0012918
-0.0042415 -0.0015884 -0.0022312 0.0023683 0.00090634 0.001636 -0.16825 0.24278
-0.02652 0.0163 0.012553 -0.010017
-0.0037927 0.0030042 -0.00059425 0.0035366 0.00042533 0.0036083 -0.026525 0.016373
-0.19403 0.11652 -0.015362 0.018813
0.0037381 0.00083158 0.0012095 0.0054287 -0.0017373 0.0012974 0.012541 -0.010018
-0.015372 0.018776 -0.22799 0.18237
860000000 -0.11461 0.25656 -0.015414 0.030824 -0.0038274 -0.0095779 -0.0020295 0.0012258
0.0046823 0.0045152 -0.0025564 -0.0023953
-0.015422 0.0308 -0.2848 0.29685 0.0094571 0.032923 0.00013522 0.0021792
0.0046357 0.00039431 0.0032914 0.00045075
-0.0038393 -0.0095704 0.009521 0.03291 0.026789 0.32264 -0.00037832 -9.4503e-05
0.0025658 -0.00148 0.0019089 0.0039817
-0.0020224 0.0012305 0.00012441 0.0021781 -0.00037549 -9.3226e-05 -0.13182 0.25327
-0.014866 0.020637 -0.0054847 -0.0091187
0.0046777 0.0044956 0.0046363 0.00036855 0.0025658 -0.0014936 -0.014867 0.020679
-0.1414 0.16041 -0.021067 0.016482
-0.0025658 -0.0023986 0.0032738 0.00044584 0.0019122 0.0039861 -0.0055044 -0.0091099
-0.021105 0.01649 -0.17872 0.22188
920000000 -0.088173 0.27801 0.0065796 0.036331 -0.0093529 -0.003949 -0.001463 0.0016875
0.0015652 0.0013841 0.0026131 -0.0018438
0.006568 0.036308 -0.25423 0.3171 0.028345 0.019876 0.0017808 0.0008539
0.0068823 -0.00090702 0.0033752 -0.0031044
-0.0093537 -0.0039369 0.028401 0.01984 0.074264 0.32274 0.001878 -0.00015175
0.0014449 -0.00066492 0.00079329 -0.0012945
-0.0014477 0.0016907 0.0017832 0.00085013 0.0018785 -0.00014242 -0.10551 0.26909
-0.0070562 0.030511 0.0021551 -0.0064324
0.0015623 0.0013813 0.0068837 -0.00091489 0.0014644 -0.00066968 -0.0069893 0.030569
-0.12838 0.16763 -0.00028551 0.025332
0.002623 -0.0018371 0.0033396 -0.0031301 0.00078761 -0.0013223 0.0021503 -0.0064415
-0.00028821 0.025309 -0.17759 0.23731
980000000 -0.041196 0.29565 0.018677 0.0281 -0.0084147 0.0047655 0.0019598 0.0030136
0.0036808 -0.0019494 -0.0031965 -0.0019464
0.018652 0.028095 -0.20244 0.34917 0.032467 0.0028983 0.0020621 -0.00028805
0.0013768 -0.0062185 -0.00067319 -0.0023222
-0.0084025 0.0047697 0.032476 0.0028475 0.12105 0.31459 0.00047209 -0.0012844
-1.7023e-05 -0.0022278 0.0012098 -0.00021421
0.0019741 0.0030118 0.0020476 -0.00031101 0.0004808 -0.0012847 -0.066472 0.27845
0.010786 0.028165 -0.0084037 -0.0058972
0.0036739 -0.0019685 0.0013794 -0.0062185 -2.1874e-05 -0.0022333 0.010852 0.028167
-0.096091 0.19123 0.0065674 0.018397
-0.003195 -0.001929 -0.00068034 -0.0023219 0.0012253 -0.0002093 -0.0084081 -0.0058897
0.0065585 0.018368 -0.1331 0.27424
1040000000 0.0019976 0.30274 0.032952 0.01539 -0.0011708 0.0065892 0.0023823 0.00055832
-4.6477e-05 -0.0030763 -0.00079556 -0.0013556
0.03293 0.0154 -0.16653 0.36235 0.027515 -0.015943 0.0014095 -0.0017259
-0.0025336 -0.0024571 -0.0015942 -0.0026113
-0.0011646 0.0065688 0.027505 -0.015992 0.16777 0.29988 -0.00066732 -0.0014306
-0.0015967 -0.00079092 -0.00047933 -0.00094417
0.0023992 0.0005533 0.0013846 -0.0017335 -0.00066855 -0.001435 -0.037426 0.28739
0.021183 0.015275 -0.0026675 0.0012781
-7.4917e-05 -0.0030869 -0.0025136 -0.0024377 -0.0016041 -0.00079005 0.02122 0.015257
-0.063889 0.19734 0.013935 0.015538
-0.00079477 -0.001348 -0.0016203 -0.0026218 -0.0004862 -0.00095335 -0.0026482 0.0012808
0.013921 0.015539 -0.10752 0.29382
1100000000 0.047393 0.30847 0.034229 -0.0062655 0.0026287 0.0035774 0.0021743 -0.0010753
-0.002107 -0.0028 -0.0036367 0.00049423
0.034211 -0.0062389 -0.123 0.37824 0.013176 -0.027803 -8.4131e-05 -0.0018141
-0.0034047 -0.00051275 -0.0034005 -0.00020803
0.0026344 0.0035662 0.01312 -0.02784 0.21485 0.27725 -0.0018114 0.00024533
-0.0017928 0.00073033 -0.00091201 -0.00017723
0.0021898 -0.0010911 -9.5357e-05 -0.0018164 -0.0018037 0.00024002 0.0041357 0.28979
0.02471 0.0018611 -0.0024934 4.0461e-05
-0.0021182 -0.0027982 -0.0034104 -0.00049516 -0.0017851 0.00073391 0.024714 0.001822
-0.044288 0.20864 0.018527 0.0057698
-0.0036232 0.00049806 -0.0034104 -0.00021205 -0.00091775 -0.00015786 -0.0024996 4.9699e-05
0.018513 0.0057734 -0.060473 0.31668
1160000000 0.098077 0.30224 0.02164 -0.021793 0.0021885 -0.00032636 -5.1472e-05 -0.0020833
-0.0038761 -0.00044906 -0.00051892 0.0038088
0.021654 -0.021754 -0.078589 0.38201 -0.0053572 -0.028028 -0.0016505 -0.0015264
-0.0025621 0.0025709 -0.0012569 0.001821
0.0021929 -0.00034327 -0.0054242 -0.028004 0.25708 0.24433 -0.00067647 0.0017804
-0.00030693 0.0018896 -0.00076368 0.00026492
-4.586e-05 -0.0020821 -0.0016798 -0.0015259 -0.0006841 0.0017704 0.043498 0.28463
0.019704 -0.013026 -0.0031071 0.0044589
-0.0038779 -0.0004444 -0.0025537 0.0026065 -0.00030004 0.0019008 0.019692 -0.013069
-0.01145 0.21564 0.016674 -0.002327
-0.00050624 0.0038199 -0.0012607 0.0018276 -0.00075097 0.00026402 -0.0030983 0.0044574
0.016662 -0.0023231 -0.014043 0.31706
1220000000 0.14286 0.28921 0.0078041 -0.029543 -0.0015995 -0.00022829 0.00012215 -0.00097869
-0.0023695 0.0023151 0.0014258 0.0018098
0.0078191 -0.029506 -0.034182 0.39255 -0.017439 -0.019503 -0.0024398 0.0004719
0.00022924 0.0029157 -0.00045841 0.0018765
-0.001591 -0.00022913 -0.017506 -0.019458 0.29547 0.20365 0.00088268 0.0017536
0.00070819 0.0011448 0.00040842 0.00049209
0.00012729 -0.00097593 -0.0024396 0.00046921 0.00086365 0.001757 0.083837 0.27372
0.0084891 -0.018773 0.0013642 0.001501
-0.0023632 0.0023198 0.00022631 0.0029216 0.00070774 0.0011524 0.0084759 -0.018795
0.012873 0.22225 0.011451 -0.01369
0.0014164 0.001812 -0.00045416 0.0018824 0.00040931 0.00048554 0.0013629 0.0014983
0.011448 -0.013683 0.020019 0.32813
1280000000 0.19147 0.26556 -0.0096748 -0.026788 -0.0015256 0.002913 -0.00094501 -0.0020057
-0.00058249 0.0029131 0.0023357 0.00080141
-0.0096435 -0.026762 0.011609 0.38254 -0.0234 -0.0070855 -0.00089112 0.0014193
0.0018004 0.0016061 0.00077964 0.0017179
-0.001515 0.0029176 -0.023431 -0.0070162 0.3244 0.15828 0.0016638 -6.2051e-05
0.0011406 0.00013082 0.00020989 0.00014477
-0.00094887 -0.0019976 -0.00089726 0.0014123 0.0016669 -5.4803e-05 0.1196 0.25449
-0.0014564 -0.019722 -0.00050757 0.00048728
-0.00057512 0.0029105 0.0018024 0.0016007 0.001142 0.00013523 -0.0014999 -0.019726
0.049048 0.22329 0.00097351 -0.01517
0.0023298 0.00079061 0.00079484 0.0017118 0.00021441 0.00015114 -0.00050701 0.00048725
0.00098763 -0.015171 0.065713 0.32542
1340000000 0.22798 0.23047 -0.018358 -0.016617 0.0014846 0.0043415 -0.0017478 -0.00089451
0.0014567 0.0024813 0.0014584 -0.0014687
-0.018327 -0.016621 0.051031 0.37304 -0.020617 0.0052312 -8.0813e-05 0.0020084
0.001927 0.00052611 0.0013084 0.00060832
0.0014946 0.0043349 -0.0206 0.0052987 0.34483 0.11016 0.0012178 -0.0010484
0.0005633 -0.00049713 6.4669e-05 0.00023662
-0.0017536 -0.00089128 -7.7516e-05 0.002015 0.0012074 -0.0010425 0.15092 0.23224
-0.010651 -0.015815 0.00057345 0.0011805
0.0014663 0.002483 0.0019246 0.00051409 0.00056872 -0.00049157 -0.010689 -0.015799
0.078688 0.21695 -0.0056712 -0.01281
0.0014549 -0.0014662 0.0013057 0.00060349 6.7196e-05 0.00023462 0.00057287 0.0011772
-0.005662 -0.012811 0.10446 0.31681
1400000000 0.25989 0.19086 -0.022637 -0.0052545 0.0054308 0.0026713 -0.0021528 0.00065544
0.0023273 0.00076712 0.00012261 -0.0013578
-0.022614 -0.0052694 0.087693 0.35901 -0.013654 0.012635 0.0013613 0.0013039
0.0010943 -0.00093022 0.0010591 7.6549e-05
0.0054404 0.0026558 -0.01361 0.012687 0.35717 0.056454 5.7553e-05 -0.0018577
3.2522e-05 -0.00037816 0.00035707 0.00018964
-0.0021395 0.00065946 0.001361 0.0012981 5.1954e-05 -0.0018696 0.17902 0.20128
-0.015909 -0.0085625 -0.00027516 0.00050596
0.0023251 0.00075717 0.0010884 -0.00094155 3.289e-05 -0.00038552 -0.015939 -0.0085366
0.11085 0.21008 -0.011204 -0.0073269
0.00011741 -0.0013537 0.0010624 6.4813e-05 0.00035827 0.00018609 -0.00028223 0.00050627
-0.011207 -0.0073448 0.14687 0.30174
1460000000 0.28125 0.14615 -0.018927 0.0060611 0.0055058 -0.0023148 -0.0015252 0.001752
0.0019785 -0.00067367 -0.00042403 -0.00085426
-0.018917 0.0060375 0.12133 0.3364 -0.005216 0.014885 0.0017529 0.00011651
0.00065741 -0.0012986 0.0010043 -0.00058536
0.0054998 -0.0023372 -0.0051557 0.014912 0.36175 0.0022578 -0.0015217 -0.0013118
0.00011517 -0.00017906 0.00061378 -0.00028297
-0.0015261 0.0017583 0.0017478 0.0001169 -0.0015222 -0.0012996 0.20288 0.17078
-0.016406 -0.0014681 -9.5173e-05 0.0021197
0.0019795 -0.00067174 0.000659 -0.001306 0.00011127 -0.00017885 -0.016436 -0.0014352
0.13899 0.19367 -0.012089 -0.0013248
-0.00042785 -0.00084991 0.0010112 -0.00060597 0.00062039 -0.00027776 -0.00010611 0.0021133
-0.012086 -0.0013311 0.17854 0.27866
1520000000 0.29243 0.10333 -0.012823 0.010717 0.0029439 -0.0043277 0.00015169 0.0026396
0.0018672 -0.001721 -0.001064 -2.3585e-05
-0.012827 0.010697 0.15431 0.32092 0.0019407 0.012483 0.001643 -0.0008908
-8.5564e-05 -0.0009765 0.00025525 -0.00090406
0.0029318 -0.0043335 0.0019857 0.012472 0.35477 -0.053915 -0.001334 -0.00023678
0.00050288 -0.00082742 -1.869e-05 -0.00015473
0.00015136 0.0026392 0.0016361 -0.00089608 -0.001346 -0.00021821 0.22374 0.1323
-0.014876 0.0042998 0.0020045 0.0017727
0.0018522 -0.0017344 -8.8456e-05 -0.0009792 0.00050508 -0.00082876 -0.014882 0.0043373
0.16643 0.17793 -0.011405 0.0030493
-0.0010614 -1.2179e-05 0.0002535 -0.00090649 -1.7391e-05 -0.00016112 0.002013 0.0017604
-0.011407 0.0030369 0.21006 0.25509
1580000000 0.30012 0.056652 -0.0064425 0.012875 -0.0011485 -0.0047194 0.0016302 0.0018809
-0.00022579 -0.002044 -0.00024736 0.0003768
-0.0064547 0.012867 0.18084 0.29546 0.0052315 0.0077111 0.00040758 -0.001685
-0.00051965 -0.00087702 -0.00022096 -0.00076377
-0.0011534 -0.0047198 0.0052549 0.0076881 0.33409 -0.1116 -0.0016004 0.00098954
-0.00030722 -0.0010839 0.00021101 -0.0005596
0.0016228 0.0018783 0.00040902 -0.001684 -0.0015986 0.00098127 0.235 0.092777
-0.010904 0.0087299 0.0025175 0.00019167
-0.00023931 -0.002042 -0.00053402 -0.0008706 -0.00031128 -0.0010905 -0.010906 0.00876
0.18954 0.15781 -0.0085671 0.0079683
-0.00024776 0.00037571 -0.00022218 -0.00076192 0.00020115 -0.0005576 0.0025117 0.00018785
-0.0085728 0.0079763 0.23916 0.22622
1640000000 0.30067 0.01499 -0.00035657 0.011162 -0.0028226 -0.0024565 0.0028213 0.00078422
-0.00078057 -0.0014445 -0.0002049 0.00052148
-0.00036523 0.011149 0.20972 0.26996 0.0057161 0.0032463 -0.00085829 -0.0016711
-0.00092606 -0.0002899 -0.00051073 -0.00058058
-0.0028299 -0.0024457 0.0057282 0.0032234 0.30471 -0.16027 -0.00047655 0.0015412
-0.0011745 -0.00074884 -0.00019745 -0.00025115
0.0028194 0.00077982 -0.00086449 -0.0016635 -0.00046787 0.0015705 0.24482 0.045262
-0.0063976 0.0097407 0.0024343 -0.0012912
-0.00078732 -0.0014381 -0.00093504 -0.00027555 -0.0011866 -0.00075182 -0.0063875 0.0097756
0.21085 0.13191 -0.0037926 0.0095749
-0.00020034 0.00052131 -0.00051915 -0.0005758 -0.00019556 -0.00025062 0.0024188 -0.0013011
-0.0037995 0.0095802 0.26272 0.19347
1700000000 0.29171 -0.030545 0.0024109 0.0081288 -0.0033993 0.00011247 0.0028885 -0.0014858
-0.0019544 -0.00063571 0.0006652 0.00034768
0.002396 0.0081238 0.22723 0.2382 0.0037846 0.00043265 -0.0014891 -0.00044389
-0.00066636 0.0001064 -0.00087597 -0.0003843
-0.0033935 0.00012164 0.003786 0.00042033 0.26163 -0.20027 0.0007041 0.0013463
-0.001765 -0.00011701 -0.00063151 -0.00079493
0.0028771 -0.0014741 -0.0014948 -0.00042817 0.0007036 0.0013588 0.24024 -0.002883
-0.0034109 0.0099285 0.0012696 -0.0024001
-0.0019597 -0.00062867 -0.00067049 0.000109 -0.0017576 -0.00010364 -0.0033988 0.0099469
0.22669 0.10987 0.00073484 0.0096047
0.00066644 0.00034003 -0.00087804 -0.00039071 -0.00064204 -0.00079554 0.0012575 -0.0023977
0.0007457 0.0096064 0.27702 0.15778
1760000000 0.278 -0.078604 0.003944 0.0049937 -0.0023377 0.00087744 0.00088519 -0.0035066
-0.0013471 0.00073136 0.00040185 -0.00049731
0.0039349 0.004997 0.25237 0.19774 0.0015958 -0.0013914 -0.001174 0.00030989
-0.00094868 0.00078567 -0.00058779 0.00044045
-0.0023221 0.00087822 0.0015877 -0.0014067 0.21238 -0.23388 0.0012399 0.00074755
-0.0010997 0.0015061 -0.0013095 -0.00022299
0.00087326 -0.0035155 -0.0011924 0.00030923 0.0012323 0.00073477 0.23024 -0.051931
-0.0002338 0.0088689 -0.00059338 -0.0025668
-0.0013441 0.00072546 -0.00095028 0.00079365 -0.0011128 0.0015049 -0.00021768 0.0088793
0.23942 0.073323 0.0042827 0.0067202
0.00039676 -0.00049687 -0.00058678 0.00044828 -0.0013088 -0.0002121 -0.00059982 -0.0025517
0.0042851 0.0067116 0.28733 0.11914
1820000000 0.25212 -0.11516 0.0037617 0.001892 -0.00012279 0.0024881 -0.0013661 -0.002789
-0.0010429 0.0010371 -8.81e-05 -0.00015377
0.0037533 0.0018948 0.26158 0.16774 -0.000383 -0.00020752 -0.0011341 0.0010271
-6.033e-05 0.0011869 -0.00051098 0.00053309
-0.00010867 0.0024874 -0.00038073 -0.00020337 0.16161 -0.24911 0.0011998 0.00010445
-8.6458e-05 0.0020988 -0.0013625 0.00056018
-0.0013859 -0.0027701 -0.0011332 0.0010255 0.0012125 0.00014654 0.20088 -0.096728
0.0012745 0.0071728 -0.0017855 -0.0014407
-0.0010436 0.0010402 -4.8121e-05 0.0011931 -9.6576e-05 0.0020978 0.0012914 0.0071742
0.25428 0.043201 0.005113 0.0031325
-8.9861e-05 -0.00015534 -0.0005096 0.00053731 -0.001358 0.0005595 -0.0017912 -0.0014331
0.0051099 0.0031276 0.28754 0.081733
1880000000 0.21579 -0.1546 0.0013797 5.6526e-05 -0.00043461 0.0021151 -0.0029181 -0.0017923
-0.00017776 0.0017477 6.8115e-05 -0.00030416
0.0013674 6.3225e-05 0.2654 0.12083 -0.0025002 0.0015721 5.1114e-06 0.0015961
0.00049936 0.0010789 0.00014734 0.00096246
-0.000426 0.0021183 -0.0024976 0.0015907 0.10861 -0.25905 0.0014173 -0.00095441
0.0014651 0.0016532 -0.00075262 0.001477
-0.0029312 -0.0017619 5.7209e-06 0.0016116 0.0014224 -0.00097347 0.1617 -0.13614
0.0019915 0.0049259 -0.0023777 0.00043305
-0.0001601 0.0017617 0.00049996 0.0010736 0.0014869 0.0016624 0.0020024 0.0049449
0.25475 0.0093274 0.0046654 0.00096753
6.6378e-05 -0.00030186 0.00015343 0.00096349 -0.00074546 0.0014639 -0.0023686 0.00043889
0.0046677 0.00097965 0.28499 0.047016
1940000000 0.17566 -0.1794 -0.00076548 -0.0010896 0.0015681 0.0020353 -0.0035107 0.00080775
0.0014596 0.0011222 -0.0004752 -0.00043404
-0.00076483 -0.0010889 0.26488 0.089324 -0.001279 0.0039745 0.0010098 0.0011226
0.0016392 0.00051981 0.00087998 0.00043937
0.0015822 0.0020419 -0.0012595 0.0039752 0.06207 -0.25184 0.0001999 -0.0016415
0.0022568 0.0003743 0.00045808 0.0016491
-0.0035246 0.00081335 0.001008 0.0011158 0.00017438 -0.0016652 0.11047 -0.16609
0.0011864 0.0034427 -0.0014821 0.0015568
0.0014644 0.0011109 0.0016455 0.00050572 0.0022588 0.00036556 0.0012071 0.0034522
0.25399 -0.030065 0.0033328 -0.0019033
-0.00048124 -0.00043117 0.00087861 0.00043349 0.0004584 0.0016828 -0.0014972 0.0015688
0.0033296 -0.0018892 0.27203 0.01031
2000000000 0.12909 -0.19339 -0.0043489 0.0011942 0.002536 0.0014789 -0.0020361 0.0033241
0.0012813 4.1555e-05 -0.0005034 0.00042434
-0.0043422 0.0011881 0.25043 0.053865 -0.0010031 0.0059017 0.0015509 0.00019422
0.0013064 -0.0011234 0.00043705 5.0292e-06
0.0025427 0.0014716 -0.00097834 0.0059151 0.01827 -0.2367 -0.00090111 -0.00099131
0.0018941 -0.0010633 0.0017289 0.0010258
-0.0020182 0.0033292 0.0015613 0.00019274 -0.00091042 -0.00097119 0.058141 -0.17692
-0.00047016 0.0028451 7.8928e-07 0.00218
0.0012772 3.0994e-05 0.0012988 -0.0011418 0.0018855 -0.0010651 -0.00045955 0.0028551
0.24569 -0.064152 0.00024448 -0.0028005
