!Keysight Technologies,M9804A,MY58100912,A.14.10.03
!Date: Thursday, April 27, 2023 10:28:33
!Correction: S11(C  6-Port  ) 
!S12(C  6-Port  ) 
!S13(C  6-Port  ) 
!S14(C  6-Port  ) 
!S15(C  6-Port  ) 
!S16(C  6-Port  ) 
!S21(C  6-Port  ) 
!S22(C  6-Port  ) 
!S23(C  6-Port  ) 
!S24(C  6-Port  ) 
!S25(C  6-Port  ) 
!S26(C  6-Port  ) 
!S31(C  6-Port  ) 
!S32(C  6-Port  ) 
!S33(C  6-Port  ) 
!S34(C  6-Port  ) 
!S35(C  6-Port  ) 
!S36(C  6-Port  ) 
!S41(C  6-Port  ) 
!S42(C  6-Port  ) 
!S43(C  6-Port  ) 
!S44(C  6-Port  ) 
!S45(C  6-Port  ) 
!S46(C  6-Port  ) 
!S51(C  6-Port  ) 
!S52(C  6-Port  ) 
!S53(C  6-Port  ) 
!S54(C  6-Port  ) 
!S55(C  6-Port  ) 
!S56(C  6-Port  ) 
!S61(C  6-Port  ) 
!S62(C  6-Port  ) 
!S63(C  6-Port  ) 
!S64(C  6-Port  ) 
!S65(C  6-Port  ) 
!S66(C  6-Port  ) 
!S6P File: Measurement: :
# Hz S  RI   R 50
500000000 -0.33974 -0.017621 -0.011187 -0.0031172 -0.0074273 0.01293 -0.0032125 0.012335
0.01117 0.0038137 -0.0027643 0.0084829
-0.011179 -0.0031308 -0.41983 -0.035762 0.0061978 -0.011474 0.0019845 0.01266
0.0063123 0.0024099 0.0020768 0.013934
-0.0074201 0.012916 0.0061898 -0.011495 -0.26296 0.22323 0.0073358 0.0038345
-0.0011794 0.0086862 0.002166 0.012407
-0.0032164 0.012327 0.0019916 0.012672 0.0073344 0.0038264 -0.3306 0.063243
-0.019568 -0.0067558 0.014899 0.023667
0.011158 0.0037873 0.0063144 0.002399 -0.0011699 0.0086772 -0.019575 -0.0067457
-0.23665 -0.16353 -0.025154 0.0036912
-0.0028182 0.0087014 0.0020716 0.013791 0.0020906 0.012295 0.014928 0.023583
-0.02531 0.0037066 -0.28562 -0.079088
560000000 -0.31218 0.13778 -0.027297 -0.06033 0.00091957 0.01149 0.0054339 0.0096185
0.0086431 0.0041932 0.010968 0.0066131
-0.027215 -0.06026 -0.37537 0.11818 -0.042419 -0.033572 0.013821 0.0037169
-0.012346 -0.0034062 0.002818 -0.00095401
0.00090856 0.011487 -0.042467 -0.033549 -0.18105 0.26754 -0.0003422 -0.0045852
0.018276 0.0034163 0.0067296 -0.0062329
0.0054638 0.0096164 0.013823 0.0037072 -0.00034925 -0.0045768 -0.30414 0.14913
0.00050272 -0.024253 0.0029292 -0.018244
0.0086249 0.0041839 -0.012369 -0.0033869 0.018281 0.0034018 0.00049685 -0.024262
-0.28749 0.0099242 0.002993 -0.046906
0.01097 0.0066345 0.0027882 -0.0008653 0.0067377 -0.0063459 0.002856 -0.018169
0.0029094 -0.046929 -0.33107 0.059886
620000000 -0.26981 0.12403 -0.023533 0.0073866 0.0041223 0.0078764 0.0079223 -0.0055573
0.010551 -0.0010887 0.00041713 -0.0023101
-0.023494 0.0073737 -0.40141 0.074402 -0.019474 0.00060242 -0.0009036 -0.0022987
0.010082 -0.0064169 0.0014064 -0.0029828
0.0041335 0.0078522 -0.019482 0.00063108 -0.14901 0.27776 -0.001297 -0.0049017
-0.0030172 -0.0029264 0.0083023 -0.0037663
0.007911 -0.005556 -0.00091565 -0.0022946 -0.001291 -0.0048954 -0.26233 0.16075
-0.039389 -0.017266 0.012179 0.023171
0.010539 -0.0010917 0.010079 -0.0064294 -0.0030362 -0.0028956 -0.039407 -0.017249
-0.21094 -0.027663 -0.03879 0.014815
0.00050305 -0.0021872 0.0014183 -0.0031141 0.008492 -0.0039927 0.012208 0.023324
-0.039008 0.014771 -0.25556 0.032993
680000000 -0.22732 0.20533 -0.027853 -0.011546 0.0055678 0.0044735 0.0012276 -0.0069853
-0.0028873 -0.011116 0.0039325 -0.0066892
-0.027826 -0.011563 -0.38413 0.16845 -0.032039 0.00063823 -0.0014699 -0.00056244
-0.002442 -0.0087903 -0.0014897 -0.0021502
0.00557 0.0044497 -0.032039 0.00068109 -0.097801 0.29506 -0.0009055 -0.00048897
-0.0018915 5.1563e-05 -0.0036997 -0.0084162
0.0012189 -0.0069829 -0.0014538 -0.00056231 -0.00090989 -0.00049307 -0.21666 0.20747
-0.025752 -0.0051929 -0.0088126 -0.0079938
-0.0028919 -0.011106 -0.0024718 -0.0087896 -0.0018983 5.8063e-05 -0.02578 -0.0051687
-0.25008 0.069081 -0.0071025 -0.0063719
0.003829 -0.0068076 -0.0014452 -0.0021365 -0.003667 -0.0083917 -0.008787 -0.0080047
-0.0071173 -0.006354 -0.25309 0.12746
740000000 -0.1838 0.20032 -0.036409 0.026326 0.012112 -0.0060794 -0.00081045 -0.0040732
-0.0050865 -0.002856 -0.005672 0.0033046
-0.036392 0.026284 -0.33254 0.18835 -0.032554 0.035266 -0.00093372 -0.0061158
-0.011419 0.0083297 -0.0017856 -0.0048745
0.012104 -0.00609 -0.032515 0.035328 -0.064401 0.29422 -0.0017079 0.0030383
-0.0036394 -0.0044777 -0.0018399 0.0015359
-0.00082261 -0.0040537 -0.00094174 -0.006116 -0.0017202 0.0030362 -0.19869 0.21657
-0.041728 -0.00326 0.021956 0.012102
-0.0050636 -0.0028125 -0.011392 0.0083476 -0.0036249 -0.0044807 -0.041762 -0.0032024
-0.15732 0.090546 -0.038033 0.0034713
-0.0056746 0.0033903 -0.0017384 -0.004938 -0.00181 0.0015407 0.02195 0.012082
-0.037979 0.0034084 -0.2417 0.13765
800000000 -0.14956 0.23727 -0.021072 0.017794 0.0045868 -0.010456 -0.004224 -0.0015776
-0.0038155 0.0029639 0.0037742 0.0008241
-0.021073 0.01777 -0.33227 0.25616 -0.0063745 0.033555 -0.0022233 0.0023633
-0.00059528 0.0035532 0.0012505 0.0054714
0.0045764 -0.010445 -0.0063184 0.033564 -0.021315 0.3159 0.00091584 0.0016389
0.00039447 0.00361 -0.0017844 0.0012678
-0.0042331 -0.0015737 -0.002223 0.0023756 0.00091826 0.0016411 -0.16826 0.2428
-0.026482 0.01627 0.012525 -0.010014
-0.0037923 0.0029764 -0.0005825 0.003553 0.0004043 0.0036022 -0.026484 0.016335
-0.19401 0.11647 -0.015426 0.018783
0.0037373 0.00082993 0.0012229 0.0054393 -0.0017385 0.0012842 0.012555 -0.010031
-0.015347 0.018746 -0.22794 0.18224
860000000 -0.1146 0.25662 -0.015431 0.030805 -0.0038363 -0.0096009 -0.00205 0.0012472
0.0046458 0.0045224 -0.0025526 -0.0024339
-0.015436 0.030777 -0.28482 0.29679 0.0094622 0.032925 8.0179e-05 0.0021481
0.0045829 0.00041337 0.0033551 0.00044494
-0.0038479 -0.0095787 0.0095156 0.032899 0.02682 0.32266 -0.00037164 -9.7236e-05
0.0025798 -0.0014665 0.0019241 0.0040044
-0.0020468 0.0012397 8.3849e-05 0.0021534 -0.00037002 -9.9078e-05 -0.13186 0.25325
-0.014925 0.020641 -0.005539 -0.0091167
0.0046651 0.0044993 0.0046013 0.00039131 0.0025709 -0.0014792 -0.014898 0.02069
-0.14148 0.16041 -0.021135 0.016401
-0.0025386 -0.0023967 0.0033199 0.00044556 0.0019114 0.0039722 -0.0054933 -0.0091238
-0.021046 0.016426 -0.17876 0.22184
920000000 -0.088122 0.27804 0.0065927 0.036312 -0.0093553 -0.0039575 -0.0014351 0.0017063
0.0015808 0.001376 0.0025743 -0.0018878
0.0065683 0.036285 -0.25428 0.31708 0.02833 0.019898 0.0017679 0.00084477
0.0068552 -0.0008851 0.0033986 -0.0030921
-0.0093541 -0.0039362 0.028388 0.019842 0.074284 0.32272 0.0018753 -0.00015831
0.001432 -0.00066976 0.00077447 -0.0012587
-0.0014382 0.0016956 0.0017765 0.00085165 0.0018674 -0.00016082 -0.10551 0.26909
-0.0070778 0.030497 0.0021833 -0.0063904
0.0015606 0.0013793 0.0068688 -0.00093013 0.0014382 -0.00068419 -0.0070179 0.030544
-0.1284 0.16762 -0.00028839 0.025326
0.0025991 -0.0018656 0.0033394 -0.0031341 0.00080088 -0.0012825 0.0021403 -0.0064213
-0.00030687 0.025309 -0.17769 0.23719
980000000 -0.041199 0.29563 0.018695 0.028073 -0.0084212 0.0047721 0.001957 0.0030253
0.0036918 -0.0019683 -0.0031804 -0.0019915
0.018669 0.02807 -0.20249 0.34919 0.032439 0.0029233 0.0020587 -0.00032423
0.0013746 -0.0062241 -0.00067954 -0.0023222
-0.0084091 0.0047856 0.032463 0.0028343 0.12107 0.3146 0.00047749 -0.0012724
-2.1349e-05 -0.0022357 0.0011837 -0.00021558
0.0019672 0.0030129 0.0020441 -0.00031714 0.00047299 -0.0012769 -0.066474 0.27845
0.010761 0.028136 -0.0083864 -0.0058804
0.0036691 -0.0019695 0.0013762 -0.0062299 -3.0919e-05 -0.0022395 0.010827 0.028134
-0.096117 0.19123 0.0065752 0.01841
-0.0031849 -0.0019336 -0.00068679 -0.0023286 0.0011985 -0.00021359 -0.0084163 -0.005886
0.0065316 0.018392 -0.13304 0.27427
1040000000 0.0019854 0.30276 0.03295 0.015368 -0.0011733 0.0065622 0.002392 0.00055462
-3.9996e-05 -0.0030978 -0.00080375 -0.0013475
0.032914 0.015369 -0.16656 0.36236 0.027522 -0.015899 0.0013833 -0.0017529
-0.0025273 -0.0024327 -0.0016376 -0.002593
-0.0011635 0.0065705 0.027484 -0.015987 0.1678 0.29987 -0.00066999 -0.0014388
-0.0015923 -0.00079463 -0.00048051 -0.00093498
0.0023958 0.00054742 0.0013825 -0.0017283 -0.00067448 -0.0014337 -0.03746 0.28739
0.021162 0.015278 -0.0026513 0.0013363
-5.5852e-05 -0.0030815 -0.0025175 -0.0024398 -0.0015974 -0.0007971 0.021209 0.015252
-0.063936 0.19735 0.013923 0.01554
-0.00079729 -0.001338 -0.001622 -0.00261 -0.0004846 -0.0009358 -0.0026743 0.0013127
0.013905 0.015527 -0.10739 0.29393
1100000000 0.047421 0.3085 0.034217 -0.006274 0.0026407 0.0035605 0.0021939 -0.0010865
-0.0021118 -0.0027983 -0.0036452 0.00052604
0.034194 -0.0062562 -0.12306 0.37829 0.013176 -0.027789 -9.1315e-05 -0.001824
-0.0034168 -0.00050339 -0.0034207 -0.00017678
0.0026437 0.0035587 0.01311 -0.027827 0.21488 0.27725 -0.0018018 0.00025506
-0.0017898 0.00072923 -0.00091105 -0.00016587
0.0021861 -0.0010917 -9.266e-05 -0.0018146 -0.0018037 0.00025158 0.0041559 0.28984
0.024679 0.0018768 -0.0024498 3.1717e-05
-0.00212 -0.0027883 -0.0034085 -0.00048792 -0.0017888 0.00072993 0.024685 0.0018407
-0.044321 0.20864 0.018566 0.0057786
-0.0036393 0.00052108 -0.0034044 -0.00019733 -0.00090888 -0.00018898 -0.0024714 5.5918e-05
0.018514 0.0057832 -0.060338 0.31674
1160000000 0.098104 0.30227 0.021643 -0.021783 0.0022084 -0.00033858 -4.1598e-05 -0.0020722
-0.0038741 -0.00043979 -0.00050997 0.0038188
0.021638 -0.021767 -0.078599 0.38208 -0.0053467 -0.027977 -0.0016633 -0.0015459
-0.0025638 0.0025785 -0.0012853 0.0018179
0.0021879 -0.00033986 -0.0054182 -0.02798 0.25714 0.24432 -0.00068391 0.0017574
-0.00030585 0.0018956 -0.00074939 0.00028385
-4.1959e-05 -0.0020839 -0.0016671 -0.0015298 -0.00067353 0.0017676 0.043479 0.28464
0.01966 -0.012988 -0.0031069 0.0044625
-0.0038801 -0.0004365 -0.0025354 0.002585 -0.0002995 0.0018889 0.019661 -0.013008
-0.011524 0.21567 0.016649 -0.0023191
-0.00049818 0.0038112 -0.0012633 0.0018148 -0.00076538 0.00026441 -0.0030918 0.0044755
0.016662 -0.0023011 -0.013961 0.31709
1220000000 0.14291 0.28926 0.0077961 -0.02952 -0.0015969 -0.00022456 0.00013182 -0.00097998
-0.0023742 0.0023279 0.001418 0.0018251
0.0078121 -0.029492 -0.034197 0.39261 -0.017442 -0.019486 -0.0024273 0.00045588
0.00023072 0.0029053 -0.00046019 0.0018956
-0.0015986 -0.00021941 -0.017495 -0.019441 0.2955 0.20359 0.00086928 0.0017517
0.00070527 0.0011298 0.00042508 0.00050324
0.00013863 -0.00098349 -0.00243 0.00046401 0.00087402 0.0017545 0.083844 0.27375
0.0084777 -0.01872 0.001382 0.0014751
-0.0023659 0.0023244 0.00025003 0.002909 0.00070452 0.0011278 0.0084604 -0.01874
0.012826 0.22234 0.011452 -0.013675
0.001439 0.0018058 -0.00043686 0.0018765 0.00041211 0.00049581 0.0013804 0.0014932
0.011422 -0.013645 0.020129 0.32812
1280000000 0.19152 0.26555 -0.0096701 -0.026765 -0.0015014 0.0029255 -0.00093938 -0.0020058
-0.00057528 0.0029118 0.002343 0.00078556
-0.0096383 -0.026738 0.011632 0.38257 -0.023388 -0.007082 -0.00089961 0.0014123
0.001796 0.0015935 0.0007956 0.0017129
-0.0014901 0.0029217 -0.023422 -0.0070141 0.32444 0.15828 0.0016566 -5.7452e-05
0.0011359 0.00011624 0.00021551 0.00014694
-0.00095379 -0.0019973 -0.00089296 0.0014091 0.0016505 -5.3296e-05 0.11966 0.25451
-0.0014339 -0.019661 -0.00048737 0.00046295
-0.00057701 0.0029055 0.0018051 0.0015921 0.0011312 0.00012172 -0.0014752 -0.019665
0.04905 0.22344 0.00098103 -0.015159
0.0023359 0.00078906 0.00078369 0.0017116 0.00021463 0.00014365 -0.00049238 0.00047706
0.00099412 -0.015149 0.065753 0.32538
1340000000 0.22802 0.23043 -0.018341 -0.016592 0.0015079 0.0043488 -0.0017417 -0.00088801
0.0014655 0.0024869 0.0014547 -0.0014523
-0.018316 -0.016596 0.05106 0.37305 -0.020607 0.0052349 -9.2365e-05 0.002011
0.0019117 0.00051358 0.0013033 0.00061394
0.0015129 0.0043369 -0.020588 0.0053084 0.34485 0.11012 0.0012105 -0.0010307
0.00057031 -0.00050315 6.348e-05 0.00025935
-0.0017476 -0.00088951 -8.3169e-05 0.0020116 0.0011992 -0.0010227 0.15095 0.23225
-0.010597 -0.015766 0.00057461 0.0011519
0.0014652 0.0024752 0.0019172 0.0005078 0.00056735 -0.00050669 -0.010631 -0.015754
0.078748 0.2171 -0.0056516 -0.012813
0.0014563 -0.0014657 0.0013127 0.00060589 6.0995e-05 0.00024051 0.00058108 0.0011633
-0.0056459 -0.012794 0.10447 0.3168
1400000000 0.25994 0.19081 -0.02261 -0.0052515 0.0054493 0.0026671 -0.0021441 0.00065264
0.0023234 0.0007663 0.00010028 -0.0013713
-0.022587 -0.0052527 0.087733 0.35901 -0.013638 0.012624 0.0013494 0.0012891
0.0010812 -0.00093493 0.0010458 7.4407e-05
0.0054362 0.0026498 -0.013598 0.012671 0.35715 0.056416 5.171e-05 -0.0018665
3.21e-05 -0.00036592 0.00036937 0.00019701
-0.0021464 0.00065224 0.0013544 0.0012946 5.864e-05 -0.001862 0.17908 0.20129
-0.015846 -0.0085563 -0.00028754 0.00049375
0.002332 0.00075063 0.0010783 -0.00094289 3.1902e-05 -0.00036144 -0.015871 -0.0085217
0.11096 0.21019 -0.011178 -0.0073348
0.00010298 -0.0013584 0.0010598 6.2745e-05 0.0003648 0.00019208 -0.00027949 0.00049522
-0.011177 -0.0073233 0.14683 0.30175
1460000000 0.28127 0.1461 -0.018908 0.006048 0.0055087 -0.0023381 -0.0015358 0.0017551
0.0019758 -0.0006764 -0.00043809 -0.00082902
-0.018899 0.0060376 0.12136 0.33639 -0.0052 0.014869 0.0017539 0.00011449
0.00065867 -0.0012866 0.0010129 -0.00058888
0.0054984 -0.0023507 -0.005154 0.014889 0.36174 0.00223 -0.0015242 -0.0013028
0.00011924 -0.00017478 0.00060605 -0.00027963
-0.001529 0.0017648 0.0017538 0.0001129 -0.0015277 -0.0013027 0.20291 0.17076
-0.016337 -0.0014999 -0.0001118 0.0021016
0.0019715 -0.00067589 0.00065175 -0.0012939 0.00011963 -0.00017596 -0.016361 -0.0014666
0.13922 0.19372 -0.012065 -0.001338
-0.00042201 -0.00086822 0.0010037 -0.00058767 0.00061535 -0.00029532 -0.00011258 0.0021119
-0.012063 -0.0013462 0.17852 0.27867
1520000000 0.29243 0.10332 -0.012807 0.010692 0.0029359 -0.0043311 0.0001512 0.0026393
0.0018605 -0.001718 -0.0010506 -8.5261e-06
-0.012814 0.010678 0.15432 0.32089 0.0019432 0.012471 0.0016387 -0.00089367
-7.952e-05 -0.00096824 0.00025303 -0.00090661
0.0029179 -0.0043384 0.0019902 0.012471 0.35474 -0.053938 -0.0013337 -0.00021391
0.000501 -0.00083497 -3.4638e-05 -0.00014161
0.00016203 0.0026413 0.0016421 -0.00089883 -0.0013328 -0.00021804 0.22375 0.1323
-0.014845 0.0042347 0.0020032 0.0017715
0.0018553 -0.001725 -8.0369e-05 -0.00097066 0.00049793 -0.00083754 -0.014849 0.0042748
0.16664 0.17787 -0.011384 0.0030294
-0.0010533 -2.0058e-05 0.00025306 -0.00090745 -1.9736e-05 -0.00015018 0.002002 0.0017643
-0.01139 0.0030257 0.21011 0.25513
1580000000 0.30014 0.056622 -0.0064362 0.012854 -0.0011607 -0.0047311 0.0016155 0.0018743
-0.00024233 -0.002038 -0.00024624 0.00037079
-0.0064372 0.012843 0.18084 0.29544 0.0052224 0.0076958 0.00041093 -0.0016818
-0.00051427 -0.00088814 -0.00021975 -0.00076297
-0.0011711 -0.0047178 0.005251 0.0076738 0.33409 -0.1116 -0.001603 0.00099209
-0.00028514 -0.0010732 0.00019739 -0.00054174
0.0016239 0.0018638 0.00040257 -0.001684 -0.0016067 0.00099129 0.23502 0.092754
-0.010907 0.0086571 0.0025058 0.00019723
-0.00023899 -0.0020459 -0.00051682 -0.00088061 -0.00028347 -0.0010762 -0.010904 0.0086889
0.18974 0.15766 -0.0085717 0.007967
-0.00024316 0.00037871 -0.00022214 -0.00076017 0.00020955 -0.00055713 0.0025088 0.0001922
-0.0085607 0.0079463 0.23924 0.22625
1640000000 0.30067 0.014979 -0.00035587 0.011131 -0.0028266 -0.0024574 0.0028225 0.00078018
-0.00077477 -0.0014315 -0.00021636 0.0005075
-0.00036912 0.011127 0.20972 0.26995 0.0057012 0.0032353 -0.0008686 -0.0016544
-0.0009348 -0.00029991 -0.00050706 -0.00057638
-0.0028344 -0.0024462 0.0057145 0.0032122 0.30471 -0.16034 -0.00047821 0.0015605
-0.0011813 -0.00075045 -0.00019675 -0.00023534
0.0028254 0.00077604 -0.00086952 -0.00166 -0.00047164 0.0015608 0.2448 0.045236
-0.0064415 0.009683 0.0024194 -0.0012996
-0.00078743 -0.00143 -0.0009396 -0.00028573 -0.001179 -0.00074831 -0.006415 0.0097118
0.21094 0.13171 -0.0037984 0.0095579
-0.00020208 0.00051893 -0.00051638 -0.00057781 -0.00020284 -0.00025325 0.0024223 -0.0012946
-0.0037916 0.0095628 0.26282 0.19346
1700000000 0.29173 -0.030578 0.0023899 0.0081125 -0.003414 0.00013095 0.0028808 -0.0014747
-0.0019496 -0.00064995 0.00065553 0.00035931
0.0023925 0.0081126 0.22722 0.23818 0.0037557 0.00043127 -0.0014935 -0.00044295
-0.00067336 9.8697e-05 -0.00088123 -0.00039653
-0.0034092 0.00014109 0.0037687 0.00041754 0.26155 -0.20024 0.00069891 0.0013552
-0.0017719 -0.0001291 -0.00062318 -0.00078102
0.0028662 -0.0014851 -0.001496 -0.00043056 0.00069091 0.0013565 0.24028 -0.0028836
-0.0034775 0.0099044 0.0012633 -0.0024019
-0.0019524 -0.00064244 -0.00067448 0.0001027 -0.0017821 -0.00012386 -0.0034661 0.0099152
0.22665 0.10967 0.00074353 0.0095886
0.00066993 0.00034453 -0.00087833 -0.00039019 -0.00063992 -0.00079022 0.0012509 -0.0024129
0.00074254 0.009595 0.2771 0.15772
1760000000 0.27798 -0.07863 0.003921 0.0049939 -0.0023224 0.00090564 0.00088462 -0.0035035
-0.0013563 0.00072324 0.0004109 -0.00050705
0.0039172 0.0049851 0.25236 0.19774 0.0015685 -0.0013869 -0.0011837 0.00030226
-0.00095717 0.00078231 -0.00058252 0.00044951
-0.0023137 0.00090594 0.001569 -0.0013966 0.21245 -0.23392 0.0012453 0.00075162
-0.0011052 0.0015215 -0.0013115 -0.00020786
0.00086701 -0.0035064 -0.0011833 0.00031352 0.001243 0.00075529 0.23023 -0.051953
-0.00029057 0.0088714 -0.00060283 -0.0025603
-0.0013591 0.00074205 -0.00095675 0.00079992 -0.0011 0.0015121 -0.00027218 0.0088797
0.23931 0.073184 0.0042775 0.0066886
0.00040178 -0.00050285 -0.00058705 0.0004496 -0.0012992 -0.00021815 -0.0006083 -0.0025583
0.0042696 0.0066973 0.28743 0.11907
1820000000 0.25211 -0.11518 0.0037396 0.001904 -0.00012884 0.0025133 -0.0013883 -0.0027851
-0.0010371 0.0010287 -9.8433e-05 -0.00014483
0.0037311 0.0019016 0.26158 0.16772 -0.00040013 -0.0001753 -0.0011365 0.001022
-5.551e-05 0.0012007 -0.00050904 0.00053569
-0.00012445 0.0025089 -0.00039715 -0.00017973 0.16151 -0.24916 0.0012185 0.00012308
-6.9156e-05 0.0021196 -0.0013858 0.00055783
-0.001388 -0.0027832 -0.0011357 0.001028 0.0012126 0.00012657 0.20088 -0.096694
0.0012195 0.007188 -0.0017833 -0.001411
-0.0010319 0.0010339 -4.3023e-05 0.0012017 -7.4216e-05 0.0021151 0.0012411 0.007187
0.25414 0.043141 0.0050973 0.003111
-9.3567e-05 -0.00014311 -0.00051155 0.00053678 -0.0013714 0.00056243 -0.0017887 -0.0014187
0.0051006 0.0031106 0.28761 0.081651
1880000000 0.21578 -0.1546 0.001363 8.872e-05 -0.00040652 0.0021171 -0.0029205 -0.001769
-0.00018106 0.0017399 5.8236e-05 -0.00029877
0.001365 7.3379e-05 0.26538 0.12083 -0.0024956 0.0015884 3.4807e-06 0.0016072
0.00052088 0.0010848 0.00013958 0.00096425
-0.00040009 0.0021103 -0.0024928 0.0015961 0.10862 -0.259 0.0014384 -0.00095309
0.0014714 0.0016446 -0.00079762 0.0014574
-0.0029195 -0.001754 7.14e-06 0.0016042 0.001436 -0.00094842 0.16171 -0.13619
0.0019381 0.0049781 -0.0023728 0.00045408
-0.00017799 0.0017423 0.00052029 0.0010842 0.0014796 0.0016453 0.0019563 0.0049815
0.25459 0.0093336 0.0046497 0.00097343
7.1316e-05 -0.00030613 0.00014999 0.00095401 -0.0007683 0.0014645 -0.0023635 0.00045062
0.0046557 0.00096622 0.28501 0.046966
1940000000 0.17564 -0.17942 -0.00076031 -0.0010689 0.001598 0.0020354 -0.003515 0.00080915
0.0014636 0.0011221 -0.00045198 -0.00044862
-0.00076533 -0.0010792 0.26489 0.089302 -0.0012526 0.0039884 0.00099283 0.0011126
0.0016605 0.00050666 0.00089391 0.00044431
0.0016065 0.0020172 -0.0012411 0.0039941 0.06211 -0.25186 0.00019665 -0.0016707
0.0022522 0.00035258 0.00049394 0.0016574
-0.0035054 0.0008169 0.0010018 0.0011118 0.00019392 -0.0016757 0.11045 -0.16608
0.0011678 0.0035136 -0.0014745 0.0015764
0.0014747 0.0011203 0.0016661 0.00049624 0.0022529 0.0003578 0.0011729 0.0035094
0.25389 -0.02997 0.0033013 -0.0019131
-0.00047265 -0.00042783 0.00089048 0.00043772 0.00048019 0.0016389 -0.0014549 0.0015682
0.0032983 -0.001889 0.27209 0.010291
2000000000 0.12906 -0.19342 -0.0043406 0.0012034 0.0025307 0.0014272 -0.0020429 0.0033238
0.0012785 4.3249e-05 -0.00052644 0.00041446
-0.0043407 0.0012013 0.25042 0.053844 -0.00098094 0.0059026 0.0015579 0.00020697
0.0013104 -0.0011472 0.00045168 3.2742e-06
0.0025282 0.0014298 -0.00095567 0.005912 0.018215 -0.23673 -0.00093508 -0.00097717
0.0018925 -0.0010662 0.0017229 0.00099157
-0.0020298 0.0033199 0.0015643 0.0002033 -0.00092347 -0.00098767 0.05814 -0.1769
-0.00044676 0.0029094 1.878e-05 0.0021849
0.00128 4.1319e-05 0.0013012 -0.0011495 0.0018885 -0.0010639 -0.00044655 0.0029139
0.24568 -0.064015 0.00021869 -0.0027669
