!Keysight Technologies,M9804A,MY58100912,A.14.10.03
!Date: Thursday, April 27, 2023 10:28:33
!Correction: S11(C  6-Port  ) 
!S12(C  6-Port  ) 
!S13(C  6-Port  ) 
!S14(C  6-Port  ) 
!S15(C  6-Port  ) 
!S16(C  6-Port  ) 
!S21(C  6-Port  ) 
!S22(C  6-Port  ) 
!S23(C  6-Port  ) 
!S24(C  6-Port  ) 
!S25(C  6-Port  ) 
!S26(C  6-Port  ) 
!S31(C  6-Port  ) 
!S32(C  6-Port  ) 
!S33(C  6-Port  ) 
!S34(C  6-Port  ) 
!S35(C  6-Port  ) 
!S36(C  6-Port  ) 
!S41(C  6-Port  ) 
!S42(C  6-Port  ) 
!S43(C  6-Port  ) 
!S44(C  6-Port  ) 
!S45(C  6-Port  ) 
!S46(C  6-Port  ) 
!S51(C  6-Port  ) 
!S52(C  6-Port  ) 
!S53(C  6-Port  ) 
!S54(C  6-Port  ) 
!S55(C  6-Port  ) 
!S56(C  6-Port  ) 
!S61(C  6-Port  ) 
!S62(C  6-Port  ) 
!S63(C  6-Port  ) 
!S64(C  6-Port  ) 
!S65(C  6-Port  ) 
!S66(C  6-Port  ) 
!S6P File: Measurement: :
# Hz S  RI   R 50
500000000 -0.33949 -0.016978 -0.010987 -0.003155 -0.0070804 0.01277 -0.0031754 0.012348
0.01059 0.0038118 -0.002776 0.0093653
-0.010991 -0.0031561 -0.41995 -0.036079 0.0059371 -0.011669 0.001688 0.012518
0.0063574 0.0022423 0.002378 0.013887
-0.0070729 0.012772 0.00591 -0.011693 -0.26341 0.22373 0.0071331 0.0041955
-0.0012659 0.0085627 0.0028341 0.012767
-0.0031653 0.012345 0.0017106 0.012523 0.0071296 0.0042035 -0.3312 0.062995
-0.01948 -0.0069377 0.014578 0.023653
0.010592 0.0037924 0.0063642 0.0022258 -0.0012544 0.008551 -0.019489 -0.0069246
-0.23785 -0.16345 -0.025656 0.0031689
-0.0027599 0.0093631 0.0023895 0.013893 0.0028351 0.012769 0.014565 0.023646
-0.025639 0.0031705 -0.28623 -0.077627
560000000 -0.3121 0.13804 -0.027107 -0.060041 0.00092786 0.01198 0.0055456 0.0097082
0.0086186 0.0044257 0.010912 0.007184
-0.027094 -0.059966 -0.37642 0.1191 -0.043159 -0.033771 0.013504 0.003136
-0.01174 -0.003481 0.0019267 -0.00081407
0.00096464 0.01196 -0.043242 -0.033716 -0.18113 0.26913 0.00029795 -0.0042453
0.019036 0.0030963 0.0050967 -0.0059369
0.005531 0.0097046 0.01352 0.0031097 0.0003083 -0.0042316 -0.30418 0.14919
-0.00038748 -0.02379 0.0036452 -0.018003
0.0086339 0.0044125 -0.011792 -0.0034629 0.019043 0.0030826 -0.0003992 -0.023782
-0.28867 0.0098892 0.0035602 -0.045864
0.010925 0.0071685 0.0019054 -0.0008425 0.005098 -0.005943 0.003637 -0.018006
0.0035897 -0.045873 -0.33265 0.058501
620000000 -0.26987 0.12447 -0.023256 0.0076702 0.0044364 0.0083057 0.0074676 -0.0055849
0.01142 -0.0015841 0.00070396 -0.003056
-0.023246 0.007669 -0.40146 0.074342 -0.019447 0.00069137 -0.00073662 -0.0021568
0.010115 -0.0065957 0.0017551 -0.0028801
0.0044578 0.0083081 -0.019461 0.00073391 -0.14881 0.27794 -0.00095556 -0.0047146
-0.0035097 -0.0030599 0.0080161 -0.0036239
0.0074347 -0.0055742 -0.00074246 -0.0021568 -0.00095829 -0.0047045 -0.26287 0.16101
-0.039252 -0.017773 0.011466 0.023054
0.011429 -0.0015779 0.01011 -0.0066338 -0.0035169 -0.0030735 -0.039267 -0.017747
-0.2114 -0.02688 -0.038504 0.014871
0.00070106 -0.0030535 0.0017517 -0.0028967 0.0080291 -0.0036205 0.011465 0.023066
-0.038495 0.014844 -0.25768 0.032646
680000000 -0.22729 0.2063 -0.027898 -0.011379 0.0056534 0.004455 0.0013304 -0.0072075
-0.0027218 -0.011207 0.003936 -0.0070986
-0.027847 -0.011367 -0.38408 0.16882 -0.032078 0.00084893 -0.0014056 -0.00068091
-0.0023359 -0.0090131 -0.0014689 -0.0023331
0.0056573 0.0044504 -0.032087 0.00091429 -0.09769 0.29575 -0.00090678 -0.00053943
-0.0016632 -0.00015941 -0.0037292 -0.0086679
0.0013261 -0.0072002 -0.0014034 -0.00067348 -0.00090377 -0.00053456 -0.21623 0.20766
-0.025795 -0.0052665 -0.0089323 -0.0080421
-0.0027451 -0.011203 -0.0023602 -0.0090246 -0.0016659 -0.0001586 -0.025811 -0.0052406
-0.25014 0.069065 -0.0078164 -0.006351
0.0039213 -0.0071009 -0.0014749 -0.0023297 -0.0037351 -0.0086609 -0.0089528 -0.0080423
-0.0077999 -0.0063774 -0.25389 0.12739
740000000 -0.18329 0.20079 -0.036009 0.026527 0.012052 -0.0059314 -0.00088918 -0.0041079
-0.0055364 -0.0029716 -0.006011 0.0031113
-0.035977 0.02648 -0.3322 0.18797 -0.032466 0.035066 -0.0011631 -0.0059851
-0.011793 0.0080414 -0.0019903 -0.0046359
0.012037 -0.0059369 -0.032418 0.03516 -0.063795 0.29441 -0.0019626 0.0030681
-0.0036591 -0.0047466 -0.0021586 0.0014236
-0.00089256 -0.0040898 -0.0011752 -0.0059851 -0.0019623 0.0030737 -0.19837 0.21676
-0.042283 -0.0028773 0.022062 0.012257
-0.0055587 -0.0029473 -0.011779 0.0080962 -0.0036647 -0.0047499 -0.042319 -0.002825
-0.15697 0.090556 -0.038334 0.0039354
-0.006007 0.0031319 -0.0020044 -0.0046358 -0.0021532 0.0014329 0.022093 0.012251
-0.038329 0.0039153 -0.24147 0.13696
800000000 -0.1495 0.23784 -0.021151 0.017789 0.0045264 -0.010397 -0.0043316 -0.0014637
-0.0039739 0.0029858 0.0036996 0.00077739
-0.021125 0.017776 -0.33245 0.25601 -0.0064726 0.033636 -0.0023237 0.0023739
-0.0010072 0.0035376 0.00096783 0.0053307
0.0045095 -0.010405 -0.006402 0.033663 -0.021441 0.31618 0.00084661 0.0016926
0.00042227 0.0036409 -0.0017693 0.0012595
-0.0043412 -0.0014547 -0.0023191 0.0023822 0.00084756 0.001688 -0.16847 0.2429
-0.026645 0.016633 0.012641 -0.0099426
-0.0039735 0.0030126 -0.00098734 0.0035554 0.00042214 0.0036423 -0.026645 0.01668
-0.19386 0.11745 -0.015192 0.019384
0.0037177 0.00076982 0.00098295 0.0053286 -0.0017704 0.0012638 0.012641 -0.0099615
-0.015213 0.019356 -0.22806 0.18241
860000000 -0.11424 0.25722 -0.01529 0.030833 -0.003804 -0.0095957 -0.0020267 0.0013698
0.0046718 0.004933 -0.0025759 -0.0021729
-0.015292 0.030809 -0.28459 0.29666 0.0096364 0.033043 0.0003104 0.002238
0.0048924 0.0006633 0.0035368 0.0006295
-0.0038302 -0.0095898 0.0097257 0.033041 0.027072 0.32304 -0.00029526 2.1532e-05
0.002671 -0.0012016 0.0019566 0.0040148
-0.0020321 0.00137 0.00031859 0.0022356 -0.00029331 1.8727e-05 -0.1317 0.25333
-0.01467 0.020839 -0.005159 -0.0091834
0.0046894 0.0049235 0.0049083 0.0006486 0.0026803 -0.0011971 -0.014654 0.020885
-0.14069 0.16203 -0.020616 0.016848
-0.0025804 -0.0021737 0.0035237 0.00061923 0.0019615 0.0040156 -0.0051749 -0.0091815
-0.020617 0.016835 -0.17928 0.22159
920000000 -0.087442 0.27815 0.0068591 0.036399 -0.009255 -0.0040078 -0.001234 0.0016551
0.0019791 0.0011848 0.0027721 -0.0019459
0.0068454 0.03638 -0.25448 0.31688 0.02849 0.019887 0.0018624 0.00090788
0.0073826 -0.00087249 0.003636 -0.0031672
-0.0092747 -0.0039973 0.028562 0.019833 0.074357 0.3229 0.0019914 -0.00020067
0.0016486 -0.00092367 0.00075963 -0.0012941
-0.001237 0.0016466 0.0018755 0.00091963 0.0019876 -0.00020159 -0.10554 0.26905
-0.0068847 0.030506 0.0024414 -0.0064684
0.001985 0.0011713 0.0073758 -0.00089446 0.0016402 -0.0009272 -0.0068408 0.030535
-0.12769 0.16655 -0.00038999 0.025371
0.0027653 -0.0019611 0.0036148 -0.0031619 0.00074887 -0.0012965 0.0024345 -0.0064736
-0.0004076 0.025348 -0.17811 0.23701
980000000 -0.040595 0.29559 0.018928 0.027933 -0.0085453 0.0046472 0.001942 0.002746
0.0037137 -0.0021296 -0.0032238 -0.0019364
0.018885 0.027946 -0.2026 0.34926 0.032673 0.0028211 0.0020488 -0.0004068
0.0014601 -0.006378 -0.00065718 -0.0023642
-0.0085382 0.0046517 0.032702 0.0027559 0.12124 0.31523 0.0003997 -0.001378
6.3363e-06 -0.0023483 0.0012583 -0.00026522
0.0019397 0.0027313 0.0020557 -0.00039274 0.00039695 -0.001379 -0.066711 0.27858
0.010967 0.028276 -0.0083698 -0.0059544
0.0037127 -0.0021568 0.0014222 -0.0063926 7.7609e-06 -0.0023464 0.011025 0.028274
-0.096076 0.19188 0.0068393 0.018447
-0.0032148 -0.0019325 -0.00067617 -0.0023569 0.0012624 -0.00027964 -0.0083694 -0.005946
0.0068186 0.018433 -0.13348 0.27414
1040000000 0.0024909 0.30259 0.032994 0.015264 -0.0012281 0.0066345 0.0022744 0.00053374
-0.00016165 -0.003158 -0.00092448 -0.0014535
0.032964 0.015303 -0.16671 0.36228 0.027674 -0.016093 0.0012388 -0.0017683
-0.0025026 -0.0027129 -0.001677 -0.00285
-0.0012197 0.0066242 0.027662 -0.016168 0.1683 0.30021 -0.00070452 -0.0014284
-0.0017208 -0.00082347 -0.00065058 -0.0010234
0.0022623 0.00051672 0.0012514 -0.0017549 -0.00071406 -0.0014291 -0.037334 0.28758
0.021451 0.015503 -0.0028493 0.0011372
-0.00017718 -0.0031722 -0.0025304 -0.0026897 -0.0017146 -0.0008144 0.021485 0.015475
-0.063665 0.19755 0.014116 0.015507
-0.0009249 -0.0014604 -0.0016882 -0.0028286 -0.00064754 -0.0010273 -0.0028558 0.0011471
0.01409 0.015511 -0.10767 0.29343
1100000000 0.047504 0.30848 0.034287 -0.0063819 0.0026324 0.0035845 0.0021986 -0.0010112
-0.0021494 -0.0027223 -0.0036461 0.00056663
0.034265 -0.006338 -0.12347 0.37846 0.013266 -0.028113 -7.5118e-05 -0.0017972
-0.003571 -0.00045356 -0.0033109 -0.00017431
0.0026369 0.0035892 0.013202 -0.028172 0.2153 0.27769 -0.0018359 0.00028044
-0.0018325 0.00072627 -0.00097633 -9.6591e-05
0.0021902 -0.0010232 -8.1457e-05 -0.0017949 -0.0018343 0.00028673 0.0039302 0.29017
0.025041 0.0018004 -0.0025222 5.1798e-05
-0.0021591 -0.0027252 -0.0035824 -0.00043303 -0.0018293 0.00073824 0.025056 0.0017668
-0.044433 0.20893 0.018871 0.0057027
-0.0036315 0.00057064 -0.0033182 -0.00015407 -0.00097504 -9.7337e-05 -0.0025238 5.5539e-05
0.018859 0.0057116 -0.061104 0.31655
1160000000 0.098306 0.3023 0.021703 -0.022079 0.0021387 -0.00027674 -8.1727e-05 -0.0019691
-0.0039874 -0.00047759 -0.00069222 0.0038413
0.021719 -0.022031 -0.078648 0.38245 -0.0055882 -0.02827 -0.0017077 -0.0014925
-0.002654 0.0025989 -0.0014566 0.0019027
0.0021396 -0.00030332 -0.0056827 -0.028261 0.25816 0.24449 -0.00069426 0.0017926
-0.00039126 0.0020655 -0.00077707 0.00032751
-8.3297e-05 -0.0019735 -0.0017029 -0.0014843 -0.00070066 0.0018038 0.043825 0.28506
0.020077 -0.013471 -0.0030742 0.0042824
-0.0039872 -0.00046951 -0.0026638 0.002625 -0.00037234 0.0020757 0.020076 -0.013495
-0.010915 0.21556 0.017184 -0.0025458
-0.00066965 0.0038459 -0.0014568 0.0019141 -0.00076974 0.00032065 -0.0030721 0.0042828
0.017172 -0.002545 -0.013924 0.31742
1220000000 0.1429 0.28924 0.0076049 -0.029757 -0.0016826 -0.00014528 0.00016772 -0.00096378
-0.0023763 0.0022754 0.0014159 0.0018855
0.007635 -0.029718 -0.034296 0.39297 -0.017762 -0.019614 -0.0024532 0.00048548
0.00023391 0.0029951 -0.00048518 0.0019851
-0.0016803 -0.00014073 -0.017847 -0.019561 0.29624 0.20308 0.00089104 0.0018693
0.00069902 0.001201 0.00039818 0.00048303
0.00016927 -0.00095926 -0.0024436 0.00048835 0.00088941 0.0018605 0.084157 0.27377
0.008535 -0.019297 0.0013159 0.0014737
-0.0023614 0.0022726 0.0002398 0.0029885 0.00069902 0.0012058 0.0085182 -0.019303
0.012829 0.22219 0.011582 -0.014081
0.0014298 0.0018876 -0.00048011 0.0019822 0.00040017 0.00048384 0.001317 0.0014849
0.011579 -0.014066 0.019645 0.32815
1280000000 0.19172 0.26582 -0.010019 -0.026905 -0.0014846 0.0030848 -0.0009278 -0.0019892
-0.00062744 0.0029721 0.0024551 0.00079975
-0.010003 -0.026885 0.011822 0.38324 -0.023708 -0.0069465 -0.00089135 0.0015088
0.0019021 0.001699 0.00085329 0.0017253
-0.0014713 0.0030958 -0.02376 -0.0068555 0.32465 0.15781 0.0016626 8.4258e-06
0.0011705 0.00021549 0.0002809 0.00018239
-0.00091913 -0.0019888 -0.00089212 0.0015058 0.0016609 1.4374e-05 0.12001 0.25471
-0.0017529 -0.020274 -0.00064678 0.00053607
-0.0006191 0.0029773 0.001924 0.0016885 0.0011633 0.00021327 -0.0017868 -0.020276
0.049077 0.22365 0.00089298 -0.015686
0.0024646 0.00078628 0.0008625 0.0017197 0.00028284 0.0001849 -0.00064921 0.00054409
0.00089953 -0.015668 0.065385 0.32576
1340000000 0.22835 0.23053 -0.018744 -0.016495 0.0015292 0.0044844 -0.0017346 -0.00092326
0.0015399 0.0025106 0.0014741 -0.0014905
-0.018713 -0.016518 0.05163 0.3733 -0.020803 0.0054944 -5.1233e-05 0.002053
0.0020474 0.00049889 0.0013633 0.00060711
0.0015427 0.0044825 -0.020802 0.0055783 0.34492 0.10944 0.0012997 -0.0011343
0.00067745 -0.00066883 7.4705e-05 0.00022784
-0.0017301 -0.00092875 -4.4224e-05 0.0020458 0.0013064 -0.0011404 0.15138 0.232
-0.011258 -0.016093 0.00044232 0.0012748
0.0015394 0.002504 0.0020505 0.00048626 0.00067445 -0.00067103 -0.011289 -0.01609
0.078814 0.21701 -0.0060095 -0.01315
0.0014712 -0.0014953 0.0013704 0.00060154 7.46e-05 0.00022892 0.00043925 0.0012727
-0.0059907 -0.013144 0.10438 0.31679
1400000000 0.26025 0.19101 -0.022922 -0.0049255 0.0055586 0.0026924 -0.0021445 0.00058661
0.0023991 0.00076741 3.0209e-05 -0.0014033
-0.022893 -0.0049539 0.088164 0.35911 -0.013664 0.012945 0.0013814 0.0013042
0.0010894 -0.0009917 0.0010662 -2.3778e-06
0.0055635 0.0026784 -0.013617 0.01302 0.35661 0.056141 3.6404e-06 -0.0019141
3.3131e-06 -0.000419 0.00037202 0.00014932
-0.0021503 0.00057707 0.0013917 0.0013007 9.1302e-06 -0.0019148 0.17913 0.2012
-0.016574 -0.0084222 -0.00031992 0.00067445
0.0023957 0.0007619 0.0010799 -0.0010083 7.0771e-06 -0.00041981 -0.016607 -0.0083902
0.1109 0.21024 -0.011738 -0.0074602
2.4341e-05 -0.0014097 0.0010676 -1.7027e-06 0.00037441 0.0001464 -0.00031002 0.00067558
-0.011715 -0.007455 0.14651 0.30191
1460000000 0.28183 0.14603 -0.018937 0.0064373 0.0056046 -0.0023036 -0.0015579 0.0017091
0.0020692 -0.00071925 -0.00047814 -0.00081337
-0.018924 0.0064171 0.12193 0.33618 -0.0050448 0.01514 0.0017594 7.3388e-05
0.00064012 -0.0013376 0.0010259 -0.00058792
0.0056011 -0.0023184 -0.0049834 0.015175 0.36172 0.0024384 -0.0014432 -0.0012943
0.00020106 -0.00017829 0.0006428 -0.00030254
-0.0015623 0.0017115 0.0017642 6.4008e-05 -0.0014506 -0.0012935 0.20319 0.1705
-0.016863 -0.00102 -1.952e-05 0.0022533
0.0020715 -0.00071576 0.00063415 -0.0013376 0.0002052 -0.00017368 -0.016885 -0.00097973
0.13959 0.19392 -0.012629 -0.0011825
-0.00048092 -0.00081476 0.0010239 -0.00058353 0.00066185 -0.00031338 9.4587e-06 0.0022508
-0.012612 -0.0011955 0.17844 0.27885
1520000000 0.29274 0.10289 -0.012641 0.011108 0.0030428 -0.0044632 9.3885e-05 0.0026407
0.0018313 -0.0018251 -0.0010953 -1.2365e-05
-0.012642 0.011083 0.15458 0.32038 0.002217 0.012544 0.0016526 -0.0009544
-9.7356e-05 -0.00098418 0.00024323 -0.00090888
0.0030303 -0.0044748 0.0022761 0.012542 0.35461 -0.053843 -0.0014204 -0.00017255
0.00050336 -0.00087757 -1.6889e-05 -0.00016697
8.2792e-05 0.0026353 0.0016514 -0.00096555 -0.0014208 -0.00017408 0.22364 0.1318
-0.015009 0.0048991 0.0021891 0.0018122
0.0018276 -0.001837 -9.6753e-05 -0.00098864 0.00050354 -0.00087837 -0.015006 0.0049412
0.16682 0.17772 -0.011777 0.0034209
-0.0010915 -1.177e-06 0.00024204 -0.00091667 -1.7639e-05 -0.00016627 0.0021899 0.0018061
-0.011768 0.003404 0.2097 0.25498
1580000000 0.30031 0.056274 -0.0060759 0.013083 -0.0011414 -0.0049378 0.0015783 0.0019059
-0.00027682 -0.0021171 -0.00019377 0.00033549
-0.0060889 0.013071 0.18083 0.29506 0.0054466 0.0075794 0.00033853 -0.0017214
-0.00057125 -0.00087884 -0.00024529 -0.00078474
-0.001161 -0.0049326 0.005489 0.007563 0.33402 -0.11124 -0.0016369 0.00099585
-0.00043676 -0.0011312 0.00012538 -0.00061252
0.001586 0.0019089 0.00032394 -0.0017297 -0.0016382 0.00099957 0.23471 0.092708
-0.010715 0.0093278 0.0025863 0.00011311
-0.00028552 -0.0021202 -0.00057387 -0.00089043 -0.00043961 -0.0011336 -0.010707 0.0093559
0.18986 0.15772 -0.0086973 0.0085024
-0.00019131 0.00033877 -0.00025566 -0.00078737 0.00012263 -0.0006174 0.0025929 0.00010741
-0.0086909 0.0084853 0.23888 0.22654
1640000000 0.30058 0.014496 2.151e-05 0.011131 -0.0029788 -0.0025937 0.0027764 0.00082649
-0.0009494 -0.0014287 -0.00023955 0.00054034
3.9958e-07 0.011122 0.20953 0.2695 0.0058267 0.0030356 -0.00093821 -0.0016456
-0.00098308 -0.00025537 -0.00055569 -0.00054083
-0.0029839 -0.0025891 0.0058403 0.0030076 0.30515 -0.16026 -0.00048641 0.0016554
-0.0012721 -0.00069921 -0.00022327 -0.00022749
0.0027825 0.00082008 -0.00095565 -0.0016356 -0.00049115 0.0016583 0.24452 0.045127
-0.0058709 0.010147 0.0025093 -0.0013562
-0.00095287 -0.00142 -0.00097726 -0.00025172 -0.0012689 -0.00069614 -0.0058624 0.010168
0.21129 0.13154 -0.0036467 0.010057
-0.00023558 0.00054243 -0.00055797 -0.00053632 -0.00022637 -0.0002271 0.0025066 -0.0013708
-0.0036489 0.010043 0.26258 0.19363
1700000000 0.29137 -0.030755 0.0027758 0.0079121 -0.0035218 0.00020677 0.0029531 -0.0014647
-0.001982 -0.00050335 0.00061803 0.00033974
0.0027501 0.0079062 0.22667 0.23801 0.003758 0.00026296 -0.0015382 -0.00037096
-0.00066379 0.0001286 -0.00088764 -0.00037094
-0.0035232 0.00021689 0.0037624 0.00024012 0.26151 -0.20024 0.00075772 0.0014971
-0.0018754 1.219e-05 -0.00062018 -0.0008322
0.0029576 -0.0014748 -0.0015378 -0.00036278 0.00076031 0.0014881 0.23975 -0.002646
-0.0028448 0.0098866 0.0013357 -0.0025018
-0.001995 -0.00048399 -0.0006605 0.00013268 -0.0018801 7.8726e-06 -0.0028318 0.0099009
0.22659 0.10943 0.0010358 0.0099084
0.00062127 0.00033255 -0.00089016 -0.00036588 -0.00062913 -0.00083022 0.0013225 -0.002513
0.0010219 0.0099016 0.27646 0.15811
1760000000 0.27778 -0.0786 0.0041237 0.0046038 -0.0023563 0.00092578 0.00094145 -0.0035253
-0.0013079 0.00088239 0.00036137 -0.00041774
0.0041159 0.0046142 0.25197 0.19794 0.001487 -0.0014652 -0.0011358 0.00040494
-0.00093677 0.00083037 -0.00061708 0.00049578
-0.0023602 0.00093609 0.0014847 -0.0014714 0.21251 -0.23351 0.0013323 0.0008569
-0.0010895 0.0016724 -0.0013651 -0.00033267
0.00092657 -0.0035344 -0.0011289 0.00041439 0.0013342 0.00085644 0.23019 -0.051431
0.00020265 0.0086139 -0.00052111 -0.0026289
-0.0012974 0.00089081 -0.00093466 0.0008363 -0.0010873 0.0016689 0.00021483 0.0086191
0.23944 0.073092 0.0047133 0.0068964
0.00035453 -0.00042335 -0.00061383 0.00049958 -0.0013747 -0.00032921 -0.00053449 -0.0026328
0.0047088 0.0068854 0.2873 0.11966
1820000000 0.25171 -0.11505 0.0036428 0.0014858 -5.2084e-05 0.0025153 -0.0013107 -0.0028559
-0.00083424 0.0010598 -3.5035e-05 -4.4666e-05
0.0036375 0.0015085 0.26119 0.16793 -0.00039931 -0.00022802 -0.0010615 0.0010346
-5.2473e-05 0.0012099 -0.00048642 0.00059498
-4.1178e-05 0.0025157 -0.00039917 -0.00022511 0.162 -0.24915 0.0012921 3.5977e-05
-2.6855e-06 0.0022416 -0.0013285 0.00056574
-0.0013266 -0.0028571 -0.0010541 0.0010469 0.0012981 3.7001e-05 0.20087 -0.096363
0.0014672 0.0066984 -0.0017908 -0.0015255
-0.00082689 0.0010661 -4.0518e-05 0.0012093 -3.4455e-07 0.0022425 0.0014792 0.0067152
0.25401 0.042806 0.0054634 0.0031762
-4.1644e-05 -4.5735e-05 -0.00048156 0.00059984 -0.0013261 0.00057341 -0.0017945 -0.0015254
0.0054543 0.003175 0.28745 0.082209
1880000000 0.21557 -0.15406 0.0010866 -0.00016316 -0.0004652 0.0020794 -0.0030182 -0.0018206
-3.256e-05 0.0015465 0.00030638 -0.00047142
0.0010911 -0.00014579 0.26518 0.12148 -0.0025309 0.0015041 4.198e-05 0.0016067
0.00059081 0.0011158 0.00025403 0.00091439
-0.00044896 0.0020729 -0.0025304 0.0015173 0.10898 -0.25887 0.0014075 -0.0010004
0.0016784 0.0016096 -0.00071163 0.0014618
-0.0030452 -0.0018001 4.7943e-05 0.001601 0.0014118 -0.0009954 0.16198 -0.13553
0.001939 0.0045757 -0.0023451 0.0003657
-1.8163e-05 0.0015497 0.00060038 0.0011099 0.0016822 0.0016083 0.0019529 0.0045804
0.25446 0.0094058 0.0051394 0.00079661
0.00029889 -0.00047018 0.00026267 0.00091082 -0.00071354 0.0014632 -0.0023468 0.00037217
0.0051227 0.00079201 0.28509 0.047788
1940000000 0.17607 -0.17921 -0.0010875 -0.0011163 0.0015143 0.0020549 -0.003493 0.0007548
0.0014536 0.00089203 -0.00056359 -0.00055975
-0.0010732 -0.0011272 0.26509 0.089746 -0.0013575 0.0039187 0.0010244 0.0010115
0.0016855 0.00047443 0.00089448 0.00040031
0.0015236 0.0020501 -0.0013314 0.0039252 0.062465 -0.25226 9.7449e-05 -0.0018213
0.0023231 0.00015011 0.00057546 0.0017308
-0.0034863 0.0007675 0.0010291 0.00099526 0.00010077 -0.0018216 0.11125 -0.16612
0.0009857 0.003098 -0.0016062 0.0015071
0.0014613 0.00087681 0.0016946 0.00047693 0.0023207 0.00014838 0.00099813 0.0031004
0.2538 -0.030146 0.0036128 -0.0021874
-0.00056418 -0.00055108 0.00089536 0.00039643 0.00057921 0.0017332 -0.0015983 0.0015161
0.0035974 -0.0021741 0.27254 0.011029
2000000000 0.12946 -0.19321 -0.0045189 0.0013179 0.0025978 0.0016159 -0.0021453 0.0035635
0.00097673 -4.5676e-05 -0.00060989 0.00029795
-0.0044987 0.001301 0.2506 0.05427 -0.0011576 0.005819 0.0014272 0.00018868
0.0013345 -0.0012337 0.00055241 -0.00015648
0.0026182 0.0016123 -0.0011253 0.0058243 0.018151 -0.2373 -0.0011855 -0.0010022
0.0017457 -0.0012605 0.0017599 0.00088908
-0.002127 0.0035715 0.0014351 0.00018545 -0.0011871 -0.0010133 0.058623 -0.17699
-0.00072581 0.0028091 -6.434e-05 0.0021008
0.00097673 -5.5094e-05 0.0013232 -0.0012455 0.001749 -0.0012724 -0.00071539 0.0028163
0.24525 -0.06385 0.00037317 -0.0033107
