!Keysight Technologies,M9804A,MY58100912,A.14.10.03
!Date: Thursday, April 27, 2023 10:28:33
!Correction: S11(C  6-Port  ) 
!S12(C  6-Port  ) 
!S13(C  6-Port  ) 
!S14(C  6-Port  ) 
!S15(C  6-Port  ) 
!S16(C  6-Port  ) 
!S21(C  6-Port  ) 
!S22(C  6-Port  ) 
!S23(C  6-Port  ) 
!S24(C  6-Port  ) 
!S25(C  6-Port  ) 
!S26(C  6-Port  ) 
!S31(C  6-Port  ) 
!S32(C  6-Port  ) 
!S33(C  6-Port  ) 
!S34(C  6-Port  ) 
!S35(C  6-Port  ) 
!S36(C  6-Port  ) 
!S41(C  6-Port  ) 
!S42(C  6-Port  ) 
!S43(C  6-Port  ) 
!S44(C  6-Port  ) 
!S45(C  6-Port  ) 
!S46(C  6-Port  ) 
!S51(C  6-Port  ) 
!S52(C  6-Port  ) 
!S53(C  6-Port  ) 
!S54(C  6-Port  ) 
!S55(C  6-Port  ) 
!S56(C  6-Port  ) 
!S61(C  6-Port  ) 
!S62(C  6-Port  ) 
!S63(C  6-Port  ) 
!S64(C  6-Port  ) 
!S65(C  6-Port  ) 
!S66(C  6-Port  ) 
!S6P File: Measurement: :
# Hz S  RI   R 50
500000000 -0.34081 -0.01841 -0.012103 -0.0035106 -0.0079599 0.013484 -0.0036913 0.01215
0.011206 0.003761 -0.0034037 0.0081002
-0.012095 -0.0035002 -0.42085 -0.035951 0.0054437 -0.011165 0.0014949 0.01299
0.0064198 0.0023102 0.0014567 0.014124
-0.0079355 0.013466 0.0054289 -0.011179 -0.26505 0.22401 0.0070149 0.0043554
-0.0014509 0.0086059 0.0018649 0.012721
-0.0036922 0.012154 0.001517 0.013001 0.0070219 0.004359 -0.33164 0.063039
-0.020006 -0.0068633 0.014286 0.023746
0.011226 0.0037214 0.0064249 0.0023005 -0.0014318 0.0086109 -0.020019 -0.0068502
-0.23848 -0.16369 -0.025336 0.0032355
-0.003395 0.0081071 0.0014672 0.014118 0.0018736 0.012719 0.014276 0.023715
-0.025326 0.0032522 -0.28678 -0.079017
560000000 -0.31305 0.13801 -0.028051 -0.060326 0.00087437 0.012334 0.0055351 0.010024
0.0084976 0.0046647 0.010499 0.0073535
-0.027987 -0.060248 -0.37624 0.12036 -0.043405 -0.033949 0.0135 0.0038153
-0.012542 -0.0033772 0.0031015 -0.00089834
0.00088453 0.012323 -0.043467 -0.033905 -0.18077 0.26936 -0.00016298 -0.0040619
0.019033 0.0040266 0.0065798 -0.0062108
0.0055335 0.010014 0.013527 0.0038045 -0.0001658 -0.0040408 -0.30442 0.14952
-0.00057346 -0.023984 0.0026737 -0.018144
0.0085416 0.0046359 -0.012575 -0.0033341 0.019055 0.0040107 -0.00059313 -0.023983
-0.28944 0.0099864 0.0017542 -0.046083
0.010493 0.0073349 0.0030902 -0.00091068 0.0065953 -0.0062251 0.0026968 -0.018141
0.0017536 -0.046086 -0.33118 0.060249
620000000 -0.27148 0.12382 -0.023888 0.008133 0.0046273 0.008693 0.0075882 -0.00546
0.011536 -0.00087773 0.00076623 -0.0025581
-0.023869 0.0081317 -0.40239 0.074783 -0.019581 0.0011658 -0.00074307 -0.0022471
0.01072 -0.0063204 0.0018156 -0.0026578
0.0046422 0.0086763 -0.019598 0.0011911 -0.14902 0.27903 -0.00072291 -0.0048824
-0.003038 -0.0030223 0.0084503 -0.0035053
0.0075744 -0.0054729 -0.00074653 -0.0022408 -0.00071245 -0.0048729 -0.26312 0.16109
-0.039706 -0.01684 0.011972 0.023497
0.01155 -0.00089621 0.010712 -0.0063507 -0.0030336 -0.0030112 -0.03971 -0.016818
-0.21319 -0.028081 -0.039714 0.014973
0.00075436 -0.0025677 0.0017978 -0.0026658 0.0084365 -0.0034958 0.011977 0.02347
-0.039714 0.014994 -0.25726 0.032892
680000000 -0.22833 0.20679 -0.028138 -0.010525 0.0058001 0.0046788 0.0011957 -0.0070649
-0.0026376 -0.011341 0.0043145 -0.0070852
-0.028111 -0.010546 -0.38452 0.16975 -0.032049 0.0010146 -0.0011555 -0.00079809
-0.0023402 -0.0092097 -0.0013859 -0.0022037
0.0057954 0.004661 -0.032056 0.0010702 -0.09715 0.29633 -0.00076571 -0.00078621
-0.0015539 -0.0002474 -0.0035334 -0.0086056
0.0011726 -0.0070677 -0.0011593 -0.00078852 -0.00077653 -0.00079555 -0.21653 0.20791
-0.025988 -0.0042608 -0.0089737 -0.0075041
-0.002663 -0.011344 -0.0023667 -0.0092263 -0.0015582 -0.00025473 -0.026003 -0.0042505
-0.25187 0.071196 -0.0078744 -0.0060783
0.0043045 -0.0071076 -0.0014015 -0.0022005 -0.0035279 -0.0086237 -0.0089774 -0.0075067
-0.0078634 -0.0060809 -0.25426 0.12852
740000000 -0.18349 0.20192 -0.035642 0.027517 0.012601 -0.005914 -0.0008311 -0.0041656
-0.0050294 -0.0027686 -0.006084 0.0027517
-0.035626 0.027458 -0.33196 0.18837 -0.032331 0.035811 -0.0010247 -0.0063765
-0.011699 0.007747 -0.0023524 -0.0048414
0.012569 -0.0059204 -0.032249 0.035895 -0.063418 0.29424 -0.0018984 0.0029276
-0.0034578 -0.0046255 -0.002095 0.00084679
-0.00085174 -0.004179 -0.0010419 -0.006352 -0.0018952 0.002918 -0.19853 0.21671
-0.041976 -0.0026814 0.0222 0.01257
-0.0050343 -0.0027569 -0.011694 0.0077825 -0.0034426 -0.0046204 -0.042019 -0.0026425
-0.15749 0.091056 -0.039013 0.0045671
-0.0060723 0.0027799 -0.0023541 -0.0048588 -0.0021169 0.00086195 0.022228 0.012575
-0.039023 0.0045107 -0.24127 0.13914
800000000 -0.14879 0.23824 -0.02017 0.018169 0.0049564 -0.010695 -0.0044362 -0.0016112
-0.0040103 0.0024075 0.0032909 0.00075715
-0.020168 0.018143 -0.33162 0.25672 -0.0060373 0.033773 -0.0023162 0.0022581
-0.00095241 0.0033305 0.00095748 0.005403
0.0049355 -0.010698 -0.0059726 0.033804 -0.021032 0.31579 0.00068392 0.0017658
0.00020273 0.0034303 -0.0017084 0.0013081
-0.0044338 -0.0016026 -0.0023223 0.0022618 0.0006869 0.0017607 -0.16834 0.24292
-0.026455 0.016885 0.012697 -0.0099799
-0.0040142 0.0024231 -0.00093943 0.0033392 0.00020828 0.0034436 -0.026451 0.016939
-0.1943 0.11889 -0.014986 0.019768
0.0032986 0.00076773 0.00097287 0.0054081 -0.0016991 0.0013097 0.012693 -0.0099991
-0.014993 0.019746 -0.22782 0.18442
860000000 -0.1135 0.25718 -0.014624 0.030761 -0.0034759 -0.010007 -0.0019624 0.0011277
0.0043887 0.004737 -0.0026334 -0.0022538
-0.014635 0.030734 -0.2838 0.29683 0.0098917 0.033312 4.9549e-05 0.002092
0.0044541 0.00064892 0.0032598 0.00032785
-0.0034909 -0.0099945 0.009961 0.033301 0.026837 0.32262 -0.00030645 -2.1668e-06
0.0024803 -0.0014235 0.0021144 0.0037274
-0.0019534 0.0011269 5.4636e-05 0.0020806 -0.00031027 -3.9027e-06 -0.13164 0.25339
-0.014782 0.021429 -0.0048876 -0.0090508
0.0044081 0.0047228 0.0044672 0.0006493 0.0024909 -0.0014319 -0.014753 0.021468
-0.14026 0.16326 -0.020154 0.01721
-0.0026295 -0.0022468 0.0032871 0.00032199 0.00212 0.0037151 -0.004884 -0.009034
-0.020143 0.017203 -0.17783 0.22304
920000000 -0.086963 0.27786 0.0072832 0.035985 -0.0094448 -0.0045476 -0.0013448 0.0015525
0.0017166 0.0016623 0.002958 -0.0017623
0.007264 0.035961 -0.25384 0.31657 0.028873 0.019824 0.0018933 0.0010815
0.0072439 -0.00074508 0.0038555 -0.003103
-0.0094413 -0.0045349 0.028927 0.019783 0.073914 0.32287 0.0019912 -0.0001052
0.001621 -0.00062955 0.00079477 -0.0014765
-0.0013416 0.0015594 0.0018914 0.0010707 0.001994 -0.00010787 -0.10529 0.26922
-0.006665 0.031358 0.0028165 -0.006799
0.0017074 0.0016534 0.0072612 -0.00077083 0.0016246 -0.00063343 -0.0066203 0.031383
-0.12763 0.16934 0.00047135 0.025799
0.0029437 -0.0017586 0.0038525 -0.0031187 0.00079626 -0.0014658 0.0028129 -0.006793
0.00045913 0.025789 -0.17669 0.23814
980000000 -0.040383 0.29529 0.019138 0.027645 -0.0088109 0.0043791 0.0018563 0.0028475
0.0038104 -0.0020419 -0.0030781 -0.0020928
0.019109 0.027647 -0.20243 0.3485 0.033208 0.0026203 0.0021036 -0.00023571
0.0016824 -0.0063996 -0.00057794 -0.0025042
-0.0087941 0.0043986 0.033203 0.0025508 0.12093 0.31541 0.00051485 -0.0013232
1.3124e-05 -0.0023593 0.0010973 -0.00040528
0.0018658 0.0028578 0.0020943 -0.00025662 0.00052305 -0.0013166 -0.066444 0.27828
0.011941 0.028338 -0.0083942 -0.006381
0.0037935 -0.0020516 0.0016589 -0.0063936 9.788e-06 -0.0023556 0.011995 0.028332
-0.094175 0.19255 0.0071888 0.018309
-0.0030876 -0.0020668 -0.00057353 -0.0025048 0.0011031 -0.00039611 -0.0084009 -0.0063677
0.0071775 0.018313 -0.13252 0.27518
1040000000 0.0024845 0.30197 0.033304 0.014774 -0.0015888 0.0065372 0.0022277 0.00050182
1.989e-06 -0.0031413 -0.00087961 -0.001579
0.033279 0.014797 -0.16695 0.36163 0.028041 -0.016663 0.0014457 -0.0018304
-0.0025141 -0.0028668 -0.0017051 -0.0027689
-0.0015615 0.006533 0.027986 -0.016725 0.16818 0.30073 -0.00069755 -0.0015444
-0.001698 -0.00087002 -0.00069122 -0.00095483
0.0022375 0.00051435 0.0014183 -0.0018467 -0.0006863 -0.0015445 -0.037495 0.28725
0.022302 0.015302 -0.0027763 0.00083631
-2.7864e-05 -0.0031512 -0.0025092 -0.0028442 -0.001701 -0.00085337 0.022341 0.015271
-0.062431 0.19789 0.014879 0.015446
-0.00088886 -0.0015659 -0.0017147 -0.0027739 -0.00068574 -0.00094295 -0.0027774 0.00084166
0.014862 0.015446 -0.1066 0.29447
1100000000 0.047315 0.30782 0.034464 -0.0070503 0.0023474 0.0036621 0.0020532 -0.00090942
-0.0020575 -0.0028074 -0.0037026 0.00055065
0.034441 -0.0070196 -0.1241 0.37791 0.013246 -0.028858 -0.00010938 -0.0018163
-0.0038365 -0.00065667 -0.003562 -0.0001411
0.0023534 0.0036551 0.013166 -0.028904 0.2158 0.27818 -0.0019486 0.00025304
-0.0020304 0.00076551 -0.0010531 5.4528e-05
0.0020474 -0.00091391 -0.00011266 -0.0018201 -0.0019463 0.00025434 0.0037316 0.29002
0.025933 0.0012742 -0.0027581 -0.00012845
-0.0020755 -0.0027994 -0.0038421 -0.00063394 -0.0020343 0.00077021 0.025943 0.0012321
-0.043073 0.20894 0.01947 0.0055299
-0.0036967 0.00058057 -0.0035554 -0.00013194 -0.0010509 5.2659e-05 -0.0027659 -0.00012683
0.019456 0.0055347 -0.059848 0.31716
1160000000 0.097899 0.30187 0.021489 -0.022832 0.0018932 -0.00025988 -7.7408e-05 -0.0018049
-0.0040762 -0.00036909 -0.00070891 0.003967
0.021506 -0.022791 -0.079632 0.38276 -0.0061007 -0.028901 -0.0017354 -0.0015001
-0.0029031 0.0029108 -0.0014296 0.0020344
0.0018975 -0.00026982 -0.0061913 -0.028891 0.2589 0.24455 -0.00072483 0.0018758
-0.00032826 0.0021764 -0.000666 0.00039045
-8.1253e-05 -0.0017937 -0.0017544 -0.0015036 -0.00073503 0.0018779 0.043567 0.28517
0.020516 -0.014505 -0.0032231 0.0040171
-0.0040756 -0.00036333 -0.0028819 0.0029415 -0.0003299 0.0021794 0.020506 -0.014542
-0.010126 0.21531 0.017965 -0.003398
-0.00071281 0.0039648 -0.0014031 0.0020296 -0.00066483 0.0003894 -0.0032142 0.004027
0.017954 -0.0033928 -0.013145 0.31762
1220000000 0.1423 0.28904 0.006973 -0.030493 -0.0019653 -4.2215e-05 0.00027586 -0.00088468
-0.0024835 0.0023467 0.0014385 0.0021189
0.006988 -0.030454 -0.034871 0.39367 -0.018501 -0.019867 -0.0025245 0.00051544
0.00026429 0.0033218 -0.00042953 0.0021078
-0.0019608 -3.4226e-05 -0.018578 -0.019818 0.29704 0.20254 0.0009253 0.0019796
0.00081842 0.0013257 0.00051663 0.00051913
0.0002741 -0.00087995 -0.0025194 0.00052002 0.00092295 0.0019704 0.08405 0.2741
0.0085374 -0.020581 0.00090366 0.0013887
-0.0024745 0.0023484 0.00027206 0.0033213 0.00081301 0.0013272 0.0085119 -0.020598
0.013675 0.2218 0.011854 -0.015206
0.0014483 0.0021151 -0.00041585 0.0021 0.00051982 0.00051985 0.00090811 0.0013932
0.011848 -0.015199 0.020984 0.32851
1280000000 0.19121 0.26591 -0.011083 -0.02726 -0.0016719 0.0033974 -0.00081006 -0.0021103
-0.00067022 0.0030433 0.0025625 0.0009044
-0.011052 -0.02723 0.011819 0.38434 -0.024563 -0.0067458 -0.0010016 0.0015501
0.0021298 0.0018547 0.0010035 0.0018046
-0.0016576 0.0033942 -0.024598 -0.0066582 0.32496 0.15673 0.0018216 -7.3443e-05
0.0013093 0.00010089 0.00031691 0.00013467
-0.00082139 -0.0021039 -0.00099868 0.0015542 0.0018261 -7.1493e-05 0.12022 0.25488
-0.0025855 -0.021448 -0.00098123 0.00070475
-0.00065552 0.0030394 0.0021356 0.001848 0.0013159 0.00010312 -0.0026272 -0.021452
0.049426 0.22324 0.00070438 -0.016769
0.0025655 0.00089543 0.0010173 0.0018013 0.0003136 0.00013425 -0.00097953 0.00070422
0.00070285 -0.016768 0.066769 0.32602
1340000000 0.22795 0.23072 -0.019888 -0.016057 0.0016068 0.0048586 -0.0017706 -0.0010503
0.0015142 0.0026158 0.0016388 -0.0015989
-0.019855 -0.016059 0.052379 0.37405 -0.02131 0.0061364 -3.0328e-05 0.0021349
0.0022639 0.00038885 0.0014447 0.00057877
0.0016204 0.0048505 -0.021293 0.0062199 0.34445 0.10828 0.0013582 -0.0011951
0.00069589 -0.00061145 4.3608e-05 0.00021913
-0.0017763 -0.0010443 -1.6368e-05 0.002131 0.0013568 -0.0011898 0.15175 0.23207
-0.012498 -0.016727 0.00017474 0.0016161
0.0015184 0.0026091 0.0022624 0.0003711 0.00069027 -0.0006122 -0.012541 -0.016716
0.079393 0.21681 -0.006876 -0.014237
0.0016242 -0.0016105 0.0014469 0.00057327 4.2323e-05 0.00021971 0.00016531 0.0016115
-0.006867 -0.014238 0.10599 0.31673
1400000000 0.25999 0.19125 -0.02366 -0.0039123 0.0059064 0.003112 -0.0022366 0.00061351
0.0024795 0.0008848 7.5432e-05 -0.0015501
-0.02363 -0.0039292 0.08925 0.3594 -0.013729 0.013766 0.0015216 0.0012522
0.0011734 -0.0012754 0.0010961 -9.1288e-05
0.005904 0.0030919 -0.013688 0.01383 0.35575 0.055389 4.4938e-05 -0.002132
4.5488e-05 -0.0004992 0.00037602 0.0001989
-0.002232 0.00061639 0.001525 0.0012507 4.6243e-05 -0.0021337 0.1795 0.2009
-0.018201 -0.0083197 -0.00037969 0.0011062
0.0024824 0.00087656 0.00117 -0.0012908 3.8777e-05 -0.00050126 -0.018227 -0.0082767
0.11119 0.20999 -0.013013 -0.0080259
6.3857e-05 -0.0015486 0.0010971 -9.624e-05 0.00037623 0.00020018 -0.00037615 0.0011059
-0.013001 -0.0080326 0.14794 0.30124
1460000000 0.28176 0.14629 -0.019041 0.0078097 0.0060888 -0.0022568 -0.0016257 0.0017899
0.0021861 -0.0007377 -0.0005708 -0.00087324
-0.019035 0.007788 0.12309 0.33577 -0.0045852 0.015838 0.0018327 -1.7415e-05
0.00046412 -0.0015298 0.00096885 -0.00065432
0.0060799 -0.0022837 -0.0045308 0.015856 0.36041 0.0022805 -0.0017774 -0.0013605
5.8812e-05 -0.00023547 0.00069453 -0.00033243
-0.0016187 0.0017919 0.0018304 -1.3643e-05 -0.0017712 -0.0013619 0.20337 0.17015
-0.018285 9.9325e-05 0.00015601 0.0026375
0.00218 -0.00074032 0.00045498 -0.0015342 5.9499e-05 -0.00024316 -0.018291 0.0001524
0.13968 0.19382 -0.014006 -0.00098792
-0.00057411 -0.00088582 0.00095922 -0.00066157 0.00070469 -0.00033855 0.00016138 0.0026372
-0.014002 -0.0010022 0.17963 0.27788
1520000000 0.29277 0.10305 -0.012021 0.012226 0.0034876 -0.0046086 0.0001631 0.0027439
0.0019808 -0.0019291 -0.0011714 8.3001e-06
-0.012033 0.012208 0.15532 0.31941 0.0028611 0.012832 0.0016266 -0.001042
-0.00031437 -0.00094299 0.00021353 -0.00096393
0.0034704 -0.0046122 0.002913 0.01283 0.35353 -0.053323 -0.0015291 -9.3963e-05
0.00048043 -0.00092173 1.7749e-06 -0.0002444
0.00016879 0.0027367 0.0016305 -0.0010512 -0.0015367 -9.6083e-05 0.22364 0.13128
-0.015533 0.0066161 0.0025107 0.0020858
0.0019599 -0.0019331 -0.00033393 -0.0009505 0.00047538 -0.00092824 -0.015525 0.0066607
0.16714 0.1777 -0.012925 0.0042921
-0.0011754 1.3994e-05 0.00020664 -0.00096033 9.0834e-07 -0.00024609 0.0025056 0.002077
-0.012922 0.0042793 0.21041 0.25383
1580000000 0.30033 0.056236 -0.0049184 0.013735 -0.00086587 -0.0052811 0.0016908 0.0019126
-0.00031503 -0.0022919 -0.0001977 0.00048351
-0.0049343 0.013721 0.18102 0.29377 0.0060763 0.0075095 0.00025928 -0.0017882
-0.00064223 -0.00067927 -0.00028769 -0.00077979
-0.0008981 -0.0052769 0.0061107 0.0074885 0.33351 -0.11044 -0.0015969 0.0011747
-0.00045813 -0.0011197 0.00015581 -0.00064919
0.0016901 0.0019061 0.00025676 -0.0017894 -0.0015996 0.0011787 0.23441 0.092086
-0.010172 0.011081 0.0030308 0.0001268
-0.00032367 -0.0022917 -0.0006518 -0.00066808 -0.00045309 -0.0011153 -0.010157 0.011114
0.19031 0.15765 -0.0092851 0.0096654
-0.00019419 0.00048723 -0.00028894 -0.00078191 0.00015346 -0.00065277 0.0030236 0.00011471
-0.0092906 0.0096561 0.23906 0.22555
1640000000 0.30049 0.014304 0.0013084 0.011038 -0.0029573 -0.0030354 0.0028602 0.00073658
-0.0010678 -0.0015695 -0.00013619 0.0005297
0.0013001 0.011034 0.20902 0.26827 0.0062089 0.0026832 -0.0010304 -0.0016272
-0.00083875 -0.00011447 -0.00057641 -0.00053132
-0.0029615 -0.00302 0.0062207 0.0026594 0.30491 -0.15927 -0.00035663 0.0017173
-0.001369 -0.00070407 -0.00027172 -0.00028418
0.0028661 0.00074011 -0.0010357 -0.0016342 -0.00036461 0.0017152 0.24384 0.044765
-0.0045576 0.011222 0.0027957 -0.0014938
-0.0010704 -0.0015569 -0.00084082 -0.00011589 -0.0013684 -0.00069928 -0.0045345 0.011248
0.21176 0.1313 -0.0036174 0.011417
-0.00013745 0.00053474 -0.00057384 -0.00052609 -0.0002689 -0.0002875 0.0027944 -0.0015076
-0.0036138 0.011421 0.26259 0.19289
1700000000 0.29086 -0.030778 0.0037184 0.0072101 -0.0037436 -0.00020526 0.0029497 -0.0015473
-0.0021466 -0.00050643 0.00073583 0.00021578
0.0037011 0.0072058 0.2256 0.23716 0.0040028 -0.00014621 -0.001552 -0.00030648
-0.00047211 8.0539e-05 -0.00090904 -0.00037327
-0.0037435 -0.00018844 0.0040006 -0.00016498 0.2618 -0.19914 0.00093179 0.0013527
-0.0018403 5.5584e-05 -0.00074752 -0.00085582
0.0029411 -0.0015521 -0.001551 -0.00029642 0.00092867 0.0013522 0.23887 -0.0026227
-0.0012042 0.010069 0.0015539 -0.0026904
-0.0021496 -0.00049429 -0.0004775 8.131e-05 -0.0018316 6.1683e-05 -0.0011829 0.01008
0.22715 0.10905 0.0016707 0.011048
0.00074133 0.00020674 -0.00090614 -0.00036378 -0.00074934 -0.00085859 0.0015533 -0.0027003
0.0016715 0.011056 0.27656 0.15765
1760000000 0.27728 -0.078176 0.0044958 0.0035649 -0.0027553 0.00077023 0.00087381 -0.003602
-0.0014144 0.0010095 0.00032508 -0.00053879
0.0044845 0.0035608 0.25062 0.19775 0.0014823 -0.0019775 -0.0011243 0.0004289
-0.00087193 0.00062701 -0.0005704 0.00047845
-0.0027489 0.00078427 0.001476 -0.0019853 0.21349 -0.23308 0.0013112 0.00065394
-0.0010537 0.0017192 -0.0013904 -0.00023523
0.00086472 -0.0036091 -0.0011164 0.00043081 0.0013187 0.00065478 0.22944 -0.050873
0.0015296 0.0079273 -0.00041213 -0.0029519
-0.0014068 0.0010182 -0.00087183 0.00063436 -0.0010533 0.001727 0.0015417 0.0079334
0.23977 0.072607 0.0057153 0.0076102
0.00032123 -0.00053662 -0.00056522 0.00048321 -0.001393 -0.00023961 -0.00041667 -0.0029446
0.0057162 0.0076088 0.2875 0.11929
1820000000 0.25158 -0.11439 0.0034709 0.0005363 -0.00043607 0.0024898 -0.0014578 -0.002871
-0.00081595 0.0012116 -0.00019551 -8.3419e-05
0.0034623 0.00054635 0.25995 0.16842 -0.0006615 -0.00063185 -0.0010097 0.001031
-0.00011777 0.0010379 -0.00048513 0.00054004
-0.00043022 0.002489 -0.00066153 -0.00063017 0.16264 -0.24921 0.0011886 -3.5992e-05
0.00016627 0.0021685 -0.0013493 0.00064075
-0.0014612 -0.002869 -0.001017 0.0010299 0.0011854 -3.2108e-05 0.20062 -0.095486
0.0022149 0.0056166 -0.0017624 -0.0019399
-0.0008085 0.0012182 -0.00011559 0.00104 0.00017974 0.0021755 0.0022303 0.005611
0.25431 0.042214 0.0067747 0.0032334
-0.00019988 -7.6697e-05 -0.00048106 0.00054572 -0.0013431 0.0006428 -0.0017629 -0.0019394
0.0067773 0.0032336 0.28774 0.081527
1880000000 0.21576 -0.15331 0.00052068 -0.00079731 -0.00084094 0.0023005 -0.0030775 -0.0017229
0.00010257 0.0015792 0.00013332 -0.00025524
0.00052276 -0.00079443 0.26439 0.12252 -0.0029435 0.0013038 2.943e-05 0.0015637
0.00032461 0.001087 0.00016261 0.00090696
-0.00081934 0.002307 -0.002936 0.0013187 0.1093 -0.25913 0.0013065 -0.00094283
0.00169 0.0015118 -0.00066257 0.0015996
-0.003083 -0.0017105 3.9703e-05 0.0015603 0.0013001 -0.00094673 0.16219 -0.13468
0.0019826 0.0033514 -0.0026962 3.1665e-06
0.00011683 0.0015785 0.00032969 0.0010818 0.0016905 0.0015188 0.0019936 0.0033447
0.25444 0.0086966 0.0061427 0.00040948
0.0001311 -0.0002558 0.0001705 0.00090978 -0.00065775 0.0015828 -0.0026971 2.2054e-05
0.0061374 0.00040364 0.28543 0.047024
1940000000 0.17656 -0.1785 -0.0017154 -0.0014015 0.0014065 0.0024252 -0.0035122 0.00092698
0.0015563 0.00088788 -0.00047686 -0.00035957
-0.0017083 -0.0013952 0.26498 0.090949 -0.0016812 0.0039465 0.0010091 0.0010826
0.0015009 0.00071487 0.00079892 0.00045905
0.0014284 0.002414 -0.0016661 0.0039539 0.062891 -0.25229 0.0002198 -0.0016083
0.0022332 0.00013644 0.00064604 0.0016955
-0.0035136 0.00094189 0.0010195 0.001079 0.00021447 -0.0016073 0.11182 -0.16536
0.00054749 0.0022432 -0.0020454 0.0014003
0.0015595 0.00087948 0.0015046 0.00069268 0.0022385 0.00014378 0.00055402 0.00224
0.25372 -0.030679 0.0043856 -0.0030801
-0.00047682 -0.00036115 0.0008028 0.00045389 0.00064801 0.0016947 -0.0020437 0.0014099
0.0043814 -0.0030837 0.27266 0.0098919
2000000000 0.13015 -0.19289 -0.0051845 0.0012986 0.0025517 0.0018869 -0.0020682 0.0034786
0.0010458 -0.00017688 -0.000377 0.00037612
-0.0051829 0.0012895 0.25107 0.055358 -0.0013752 0.0059667 0.0015162 0.00018753
0.0014188 -0.00087209 0.00049406 0.00011334
0.0025563 0.0018678 -0.0013417 0.0059707 0.018572 -0.23741 -0.00094958 -0.00095473
0.0016948 -0.0010896 0.0018788 0.00085819
-0.0020539 0.0034903 0.0015099 0.00017785 -0.0009528 -0.00094752 0.059495 -0.17693
-0.001385 0.0021768 -0.00049456 0.0023871
0.0010429 -0.0001781 0.0014073 -0.00088436 0.0016992 -0.0010941 -0.0013867 0.0021902
0.24499 -0.064335 0.00060839 -0.004221
