!Keysight Technologies,M9804A,MY58100912,A.14.10.03
!Date: Thursday, April 27, 2023 10:28:33
!Correction: S11(C  6-Port  ) 
!S12(C  6-Port  ) 
!S13(C  6-Port  ) 
!S14(C  6-Port  ) 
!S15(C  6-Port  ) 
!S16(C  6-Port  ) 
!S21(C  6-Port  ) 
!S22(C  6-Port  ) 
!S23(C  6-Port  ) 
!S24(C  6-Port  ) 
!S25(C  6-Port  ) 
!S26(C  6-Port  ) 
!S31(C  6-Port  ) 
!S32(C  6-Port  ) 
!S33(C  6-Port  ) 
!S34(C  6-Port  ) 
!S35(C  6-Port  ) 
!S36(C  6-Port  ) 
!S41(C  6-Port  ) 
!S42(C  6-Port  ) 
!S43(C  6-Port  ) 
!S44(C  6-Port  ) 
!S45(C  6-Port  ) 
!S46(C  6-Port  ) 
!S51(C  6-Port  ) 
!S52(C  6-Port  ) 
!S53(C  6-Port  ) 
!S54(C  6-Port  ) 
!S55(C  6-Port  ) 
!S56(C  6-Port  ) 
!S61(C  6-Port  ) 
!S62(C  6-Port  ) 
!S63(C  6-Port  ) 
!S64(C  6-Port  ) 
!S65(C  6-Port  ) 
!S66(C  6-Port  ) 
!S6P File: Measurement: :
# Hz S  RI   R 50
500000000 -0.33944 -0.017 -0.011134 -0.0033578 -0.0074475 0.012576 -0.0035648 0.011864
0.011376 0.0038245 -0.0033893 0.0077645
-0.011047 -0.0031916 -0.42024 -0.035398 0.0057994 -0.011956 0.0018372 0.012263
0.0064202 0.0018823 0.0025144 0.013193
-0.0074553 0.012696 0.005724 -0.01189 -0.26356 0.22378 0.0070092 0.0038877
-0.0010584 0.0082962 0.0024575 0.01166
-0.003365 0.011891 0.0016176 0.012416 0.0069677 0.0037761 -0.33103 0.063092
-0.019498 -0.0070889 0.014713 0.023515
0.01156 0.0038788 0.0066804 0.0018841 -0.0010506 0.0082446 -0.019435 -0.0070767
-0.23767 -0.16214 -0.024869 0.0035206
-0.002905 0.0080882 0.0020294 0.013023 0.0023081 0.011589 0.014904 0.023052
-0.024968 0.0037985 -0.28607 -0.077905
560000000 -0.31129 0.13843 -0.027429 -0.060152 0.0010027 0.011766 0.0060419 0.0097101
0.008917 0.0040354 0.010637 0.0070739
-0.027404 -0.060027 -0.37515 0.11949 -0.042163 -0.034154 0.013269 0.0029247
-0.012098 -0.0036247 0.0030072 -0.0005058
0.0010732 0.011735 -0.042234 -0.034247 -0.18035 0.26823 0.0001445 -0.0041345
0.018031 0.0035746 0.0070262 -0.006565
0.0058814 0.0097505 0.01346 0.0034415 -2.8078e-05 -0.0039742 -0.30441 0.14843
-9.4496e-05 -0.023877 0.0027655 -0.018258
0.0091728 0.004308 -0.012081 -0.004117 0.018212 0.0039806 -0.0004091 -0.024112
-0.28868 0.010418 0.002564 -0.046132
0.010515 0.0074416 0.003187 -0.00042699 0.0069098 -0.0064665 0.0031977 -0.018337
0.0027391 -0.04643 -0.33013 0.061498
620000000 -0.27044 0.12435 -0.023328 0.0075482 0.0045347 0.0082222 0.0072061 -0.0053096
0.011523 -0.0015755 0.00018768 -0.002425
-0.023314 0.0074261 -0.40118 0.075182 -0.019423 0.00052774 -0.00083891 -0.0020664
0.010566 -0.0068677 0.0016268 -0.0029692
0.0045351 0.0082193 -0.019449 0.00055793 -0.14894 0.27767 -0.0010932 -0.0048163
-0.0032059 -0.0032206 0.0081587 -0.0034929
0.0073787 -0.0054458 -0.00071152 -0.0020842 -0.0010793 -0.0048472 -0.26292 0.16056
-0.038986 -0.01695 0.011993 0.022995
0.011108 -0.0015317 0.010404 -0.0070022 -0.0032893 -0.0031484 -0.03903 -0.016571
-0.2136 -0.027489 -0.038194 0.014421
0.00047048 -0.0023665 0.0017885 -0.0027202 0.0081834 -0.0037033 0.012059 0.022637
-0.038024 0.014696 -0.25667 0.033945
680000000 -0.22699 0.20648 -0.027916 -0.011435 0.0054999 0.0045676 0.00093176 -0.0070366
-0.0028671 -0.010976 0.0044962 -0.0062975
-0.027823 -0.011351 -0.38372 0.1693 -0.032288 0.00081518 -0.0015767 -0.0006491
-0.002594 -0.0090404 -0.0015759 -0.0020118
0.0055399 0.0046095 -0.03233 0.00091282 -0.097686 0.29548 -0.00082069 -0.00037593
-0.0017458 -8.3701e-05 -0.0037649 -0.0083887
0.0009839 -0.0069823 -0.0014509 -0.00054788 -0.0008092 -0.00033711 -0.21663 0.20849
-0.025676 -0.0049883 -0.0092026 -0.0075528
-0.0028333 -0.011052 -0.0025957 -0.0089872 -0.0016277 8.6536e-05 -0.025688 -0.0050477
-0.25067 0.071035 -0.007542 -0.0063387
0.0042119 -0.0063629 -0.0018914 -0.002082 -0.0038926 -0.0085508 -0.0094053 -0.0077382
-0.0074883 -0.006175 -0.25232 0.128
740000000 -0.18341 0.20098 -0.036131 0.026595 0.012059 -0.0059619 -0.00089709 -0.0042023
-0.0054167 -0.002766 -0.0057396 0.0033121
-0.036171 0.026459 -0.33243 0.18855 -0.032645 0.035173 -0.0014511 -0.0057588
-0.011406 0.0078554 -0.0022422 -0.0046495
0.012023 -0.0060269 -0.032652 0.035217 -0.064221 0.29441 -0.001825 0.002756
-0.003375 -0.0042658 -0.002044 0.0010183
-0.00097491 -0.0040543 -0.0013144 -0.0058122 -0.0018013 0.0029259 -0.19887 0.21672
-0.042219 -0.003151 0.02175 0.012254
-0.0055998 -0.0029018 -0.011303 0.0078367 -0.0035198 -0.0042495 -0.042104 -0.0028614
-0.15763 0.090857 -0.03866 0.0036073
-0.0059261 0.0033614 -0.0023805 -0.0046176 -0.002027 0.0010565 0.021317 0.011935
-0.038251 0.0037959 -0.24108 0.13841
800000000 -0.14931 0.23783 -0.020861 0.01788 0.0046913 -0.010489 -0.0043305 -0.0016206
-0.0039122 0.002838 0.0034855 0.0008289
-0.020909 0.017901 -0.33213 0.2567 -0.006355 0.03375 -0.0022702 0.0023997
-0.00073212 0.0035894 0.001059 0.0053123
0.0046301 -0.010512 -0.0063058 0.033752 -0.021526 0.31623 0.0008499 0.0016631
0.00038679 0.0035552 -0.0018169 0.001488
-0.0045158 -0.0016468 -0.002226 0.0023277 0.00091347 0.0015837 -0.16865 0.24295
-0.02663 0.016555 0.012517 -0.0098042
-0.0038804 0.0026077 -0.00070163 0.0035789 0.00038927 0.0035238 -0.026605 0.016512
-0.19417 0.11856 -0.015585 0.018945
0.0034548 0.00065274 0.0012612 0.0054203 -0.0015716 0.0014498 0.012376 -0.0097488
-0.015494 0.019007 -0.2276 0.1843
860000000 -0.11426 0.25717 -0.015416 0.031005 -0.0038672 -0.0097312 -0.0018711 0.0013513
0.0043922 0.0044488 -0.0027526 -0.0022487
-0.015434 0.030975 -0.28448 0.29736 0.0095933 0.033212 0.00010596 0.0021621
0.0046077 0.00049891 0.0032179 0.00041614
-0.0038905 -0.009676 0.0096756 0.033228 0.026915 0.32328 -0.00026722 -5.2663e-05
0.0024783 -0.0012866 0.0018211 0.0039289
-0.001891 0.0012702 0.00027426 0.0021534 -0.00021522 -8.6627e-05 -0.13177 0.25386
-0.014863 0.021183 -0.0053571 -0.0088321
0.0044475 0.00467 0.0045969 0.00048832 0.0024323 -0.0012804 -0.014952 0.021449
-0.14087 0.16309 -0.020615 0.016806
-0.0025761 -0.0024616 0.0031947 0.00064125 0.0018336 0.0039621 -0.005403 -0.0087947
-0.020261 0.01637 -0.1786 0.22196
920000000 -0.087533 0.27847 0.0065896 0.036387 -0.009404 -0.0039822 -0.0013245 0.0018309
0.0016189 0.0014333 0.0026291 -0.0018399
0.0065823 0.036382 -0.25436 0.31733 0.028469 0.019965 0.0019113 0.00092458
0.0070491 -0.0008256 0.0037418 -0.0032911
-0.0094068 -0.0039881 0.028554 0.019913 0.074282 0.32316 0.0019597 -0.00015958
0.0015296 -0.00068496 0.00095712 -0.0011988
-0.0013779 0.0017861 0.0019403 0.00093928 0.0019592 -0.00013817 -0.10532 0.26947
-0.0068553 0.031293 0.0027185 -0.0066838
0.0015734 0.0014056 0.0069763 -0.00097243 0.0014947 -0.00067642 -0.0068825 0.031202
-0.12765 0.16908 -6.8621e-05 0.025559
0.002621 -0.0017153 0.0037235 -0.0032021 0.00091646 -0.0012139 0.0026934 -0.006496
-6.9579e-07 0.02576 -0.17654 0.23805
980000000 -0.040509 0.29608 0.018896 0.028172 -0.0085879 0.0047794 0.0020207 0.00308
0.0037854 -0.0018446 -0.0030274 -0.0018763
0.018872 0.028175 -0.20253 0.34971 0.032706 0.0028469 0.0020237 -0.00030455
0.001419 -0.006224 -0.00056751 -0.0023614
-0.0085893 0.0047797 0.032735 0.0027719 0.12123 0.31544 0.00047966 -0.0013267
7.0432e-05 -0.0022532 0.0013058 -0.00032456
0.0019956 0.0031305 0.0019834 -0.00027583 0.00046571 -0.0013195 -0.066607 0.27888
0.011558 0.028209 -0.0085744 -0.0062999
0.0037592 -0.0019047 0.0014102 -0.0063057 4.891e-05 -0.0022833 0.01163 0.028198
-0.094549 0.19263 0.0064252 0.018055
-0.0030144 -0.0020396 -0.00050894 -0.0024501 0.0014039 -0.00031732 -0.0085167 -0.0062159
0.0067102 0.018079 -0.13303 0.27537
1040000000 0.0025822 0.30285 0.033125 0.01536 -0.0011664 0.0066852 0.002393 0.00042928
-4.9705e-05 -0.003154 -0.00070082 -0.0013446
0.033113 0.01538 -0.16645 0.3628 0.027707 -0.01618 0.0013559 -0.001851
-0.0025194 -0.0025119 -0.0016823 -0.0027037
-0.0011683 0.0066915 0.027694 -0.016253 0.16843 0.30044 -0.00072957 -0.0015143
-0.0017008 -0.00088892 -0.00058454 -0.0010402
0.0023349 0.00038433 0.0013396 -0.001832 -0.00069927 -0.0015204 -0.03723 0.28783
0.021913 0.015521 -0.0027704 0.0012109
6.6359e-05 -0.003137 -0.0025498 -0.0025327 -0.001683 -0.00088815 0.021959 0.01551
-0.062718 0.1984 0.014418 0.015612
-0.00078951 -0.00151 -0.0017115 -0.0026931 -0.00054188 -0.0010178 -0.002764 0.001182
0.014559 0.015749 -0.10639 0.29451
1100000000 0.047725 0.30875 0.03443 -0.0063892 0.0027283 0.0036999 0.0021922 -0.0010896
-0.0020588 -0.0028799 -0.0036013 0.00051365
0.034422 -0.0063603 -0.12311 0.37899 0.013194 -0.028147 -0.0001184 -0.0018222
-0.0035156 -0.00053927 -0.003387 -0.00029403
0.0027316 0.0036866 0.013123 -0.028198 0.2155 0.27785 -0.0018685 0.00031214
-0.0019214 0.00073491 -0.0010195 -0.00015572
0.0021779 -0.0011231 -0.00016478 -0.0018115 -0.001876 0.00030871 0.0042521 0.29052
0.025643 0.0015862 -0.0025456 0.00015336
-0.0020593 -0.0028814 -0.0035657 -0.00051419 -0.0018953 0.00076249 0.025628 0.0015395
-0.043101 0.20962 0.019251 0.0056144
-0.0035866 0.0004552 -0.0033958 -0.00031637 -0.00098443 -0.00011953 -0.0025468 0.00016429
0.019211 0.0055623 -0.059874 0.31736
1160000000 0.098711 0.30255 0.021789 -0.022075 0.0022581 -0.00031985 -0.00010179 -0.0020007
-0.0040463 -0.00042557 -0.00073983 0.0038199
0.021798 -0.022032 -0.078119 0.38314 -0.0056274 -0.028257 -0.0017347 -0.0014251
-0.0025605 0.00263 -0.0013629 0.0018046
0.0022621 -0.0003391 -0.0057063 -0.02825 0.25835 0.2446 -0.0006655 0.0018472
-0.00036726 0.001955 -0.00086022 0.00022388
-0.00012732 -0.0019907 -0.0017541 -0.0014391 -0.00063822 0.0018679 0.044211 0.28516
0.020254 -0.013985 -0.0030888 0.0041897
-0.0040206 -0.00043403 -0.0025781 0.002665 -0.00034653 0.0020131 0.02024 -0.014024
-0.010255 0.21597 0.017273 -0.0028059
-0.00064702 0.0038231 -0.0013642 0.0018277 -0.00080097 0.00022879 -0.0030575 0.0041946
0.017313 -0.0028753 -0.013029 0.31767
1220000000 0.14333 0.2893 0.0076932 -0.029877 -0.0016491 -0.00027388 0.0001259 -0.00093186
-0.0024418 0.0022797 0.0014279 0.0019073
0.0077197 -0.029846 -0.033491 0.39338 -0.017829 -0.019533 -0.0024402 0.00055393
0.00031696 0.0029962 -0.00046944 0.0020118
-0.001657 -0.00025847 -0.017911 -0.019471 0.29647 0.20306 0.00093698 0.0018549
0.00078799 0.0012569 0.00039063 0.00049892
0.00013563 -0.0009654 -0.0024541 0.00055782 0.00094814 0.0018544 0.084545 0.2739
0.0085872 -0.019829 0.0012921 0.0013975
-0.002464 0.0022765 0.00029986 0.0030191 0.00076234 0.001226 0.0085632 -0.019832
0.013874 0.22257 0.011514 -0.014374
0.0014504 0.0018645 -0.00047397 0.0020105 0.0003811 0.00048143 0.001293 0.0014234
0.011562 -0.014346 0.020883 0.32846
1280000000 0.19217 0.26575 -0.0099724 -0.027105 -0.0014412 0.0030311 -0.00093402 -0.0019938
-0.00060787 0.0029949 0.0024297 0.00079971
-0.00994 -0.027062 0.012772 0.38339 -0.023675 -0.0068378 -0.0009089 0.0014926
0.0018795 0.0016899 0.00086788 0.0017016
-0.001432 0.0030201 -0.023728 -0.0067704 0.325 0.15771 0.001687 -0.00010732
0.0011825 0.00013339 0.00027059 0.00016996
-0.00094131 -0.0019988 -0.0008709 0.0015152 0.0016779 -0.00012144 0.12041 0.25459
-0.002167 -0.020795 -0.00070482 0.00052955
-0.00054919 0.0030052 0.0019067 0.0017125 0.0011724 0.00015119 -0.0022132 -0.020775
0.049927 0.22392 0.00068487 -0.015834
0.0024868 0.00075694 0.00088945 0.0017095 0.00021321 0.00019504 -0.00066858 0.00054215
0.00066835 -0.015822 0.066677 0.32633
1340000000 0.22885 0.2303 -0.018815 -0.016605 0.0015284 0.0043647 -0.001772 -0.00089917
0.0014802 0.0025987 0.0014781 -0.0015051
-0.018777 -0.016617 0.052552 0.37314 -0.020701 0.0055983 -2.778e-06 0.001977
0.0020278 0.00051062 0.0013901 0.00057811
0.0015446 0.0043584 -0.020708 0.0056894 0.34516 0.10925 0.0012039 -0.0010997
0.00057746 -0.00054385 0.00010983 0.00022703
-0.0017731 -0.00087354 -1.1297e-05 0.0019798 0.001198 -0.0011102 0.15176 0.23164
-0.011744 -0.01638 0.00039598 0.0013184
0.0014803 0.0026123 0.0020282 0.00048599 0.00059441 -0.00057679 -0.011777 -0.016368
0.079937 0.21726 -0.0062157 -0.01334
0.001415 -0.0015223 0.0013814 0.00057345 7.6208e-05 0.00022161 0.00041635 0.0012864
-0.0062226 -0.01342 0.10566 0.31698
1400000000 0.2605 0.1906 -0.02303 -0.005003 0.0054214 0.0026372 -0.0021353 0.00065084
0.0024141 0.00079635 1.791e-05 -0.0014102
-0.023003 -0.0050329 0.088958 0.35868 -0.01349 0.012965 0.0013622 0.0012536
0.0011082 -0.00098687 0.0010679 -5.073e-05
0.005446 0.0026131 -0.013447 0.013042 0.35679 0.055828 5.1431e-05 -0.0019068
5.9796e-05 -0.00040463 0.0003535 0.00021502
-0.0021327 0.00066967 0.0013701 0.0012552 5.9953e-05 -0.0019178 0.17934 0.20068
-0.017262 -0.008436 -0.00031918 0.0008117
0.0024062 0.00080786 0.0011057 -0.0010382 3.5373e-05 -0.00041838 -0.017276 -0.0084149
0.11183 0.21022 -0.011984 -0.0075544
1.8376e-05 -0.001414 0.0010775 -3.5764e-05 0.00036511 0.00022806 -0.00033426 0.00083102
-0.012 -0.0075263 0.14782 0.30179
1460000000 0.28195 0.14563 -0.019124 0.0064766 0.0055199 -0.0023125 -0.0015466 0.0017302
0.0020855 -0.0007013 -0.00046413 -0.00077519
-0.019104 0.0064643 0.12246 0.33557 -0.0048985 0.015029 0.0017247 5.4549e-05
0.00058271 -0.0013299 0.0010255 -0.00059965
0.0055153 -0.0023464 -0.0048496 0.015067 0.36165 0.0020363 -0.001578 -0.0012918
0.00014831 -0.0002529 0.00069542 -0.00039019
-0.0015341 0.0017171 0.0017157 4.2647e-05 -0.0016033 -0.0013044 0.20303 0.17013
-0.017511 -0.00055229 -3.7146e-05 0.0023045
0.0020818 -0.00073475 0.00058808 -0.0013744 0.00014414 -0.00024884 -0.017529 -0.00052011
0.14041 0.19387 -0.012926 -0.0011249
-0.00044153 -0.00079101 0.001006 -0.0006128 0.00071805 -0.00035648 -6.306e-05 0.0023147
-0.012917 -0.0011275 0.17963 0.27847
1520000000 0.29274 0.1025 -0.012739 0.011203 0.0029375 -0.004355 0.00014212 0.0026247
0.0018533 -0.0018557 -0.001108 1.5801e-05
-0.012745 0.011186 0.15485 0.31969 0.0022351 0.012436 0.0016186 -0.00089412
-0.00013844 -0.00095756 0.00022155 -0.00093425
0.0029011 -0.0043887 0.0022892 0.012431 0.35433 -0.054101 -0.0014109 -0.00013764
0.00044705 -0.00089536 2.533e-05 -0.00019591
0.00015618 0.0026152 0.0016163 -0.0009115 -0.001399 -0.00014584 0.22339 0.13149
-0.01526 0.0055926 0.002261 0.0019535
0.0018608 -0.0018409 -0.00014893 -0.00096115 0.00043927 -0.00090748 -0.015239 0.0056335
0.16779 0.17759 -0.012021 0.0037334
-0.0011092 2.6391e-05 0.00020143 -0.00092598 2.3698e-06 -0.0001747 0.0022622 0.0019261
-0.011945 0.0036368 0.21075 0.25454
1580000000 0.30003 0.056001 -0.0060686 0.013169 -0.001121 -0.0048413 0.0016071 0.0018542
-0.00030995 -0.0021278 -0.00017206 0.00039247
-0.0060743 0.01315 0.18089 0.29444 0.005431 0.0075037 0.00035293 -0.0017043
-0.00057237 -0.00084696 -0.0002439 -0.00078093
-0.0011555 -0.0047909 0.0054485 0.0074674 0.33373 -0.11113 -0.0015549 0.0010316
-0.00036962 -0.0010883 0.00017619 -0.00064569
0.0016065 0.001853 0.00035404 -0.0016919 -0.00158 0.0010427 0.23444 0.092547
-0.01046 0.010055 0.0026571 0.00019988
-0.00034161 -0.0021475 -0.00058873 -0.00083453 -0.00037386 -0.0010898 -0.010442 0.010069
0.19074 0.15742 -0.0088038 0.0087832
-0.00018861 0.00037768 -0.0002653 -0.00074641 0.0001538 -0.00066419 0.0026501 0.00017328
-0.0087954 0.0087542 0.23957 0.22612
1640000000 0.30044 0.014364 9.5605e-05 0.011209 -0.0029167 -0.0025644 0.0027258 0.00080194
-0.00095762 -0.0014271 -0.00015104 0.00058456
9.3547e-05 0.011198 0.20946 0.26895 0.005726 0.003006 -0.00091028 -0.0016147
-0.00094398 -0.00019493 -0.00053309 -0.00049863
-0.0029088 -0.0025653 0.0057385 0.002979 0.30481 -0.15986 -0.00046475 0.0016595
-0.0012787 -0.0006464 -0.00022697 -0.00019419
0.0026954 0.00078077 -0.00092884 -0.0016318 -0.00047389 0.0016162 0.24419 0.045147
-0.0053497 0.010599 0.0025931 -0.0014035
-0.00098299 -0.001423 -0.00094559 -0.0001943 -0.0012791 -0.00064334 -0.005328 0.010637
0.21212 0.13112 -0.0035499 0.010305
-0.0001407 0.00054204 -0.00052522 -0.00050423 -0.00019238 -0.00020103 0.0025786 -0.0013926
-0.0036017 0.010343 0.26351 0.19312
1700000000 0.29113 -0.030784 0.0028012 0.0079422 -0.0035466 0.00025142 0.002934 -0.0014449
-0.0020213 -0.00053651 0.00068463 0.00028013
0.0027726 0.0079411 0.2264 0.23759 0.0036601 0.0002223 -0.0014999 -0.00041843
-0.00060677 0.00012065 -0.00085794 -0.00033576
-0.0035424 0.00026963 0.00368 0.00020075 0.26179 -0.1999 0.00074012 0.0013927
-0.001788 -8.6488e-06 -0.00065163 -0.00076426
0.0029209 -0.0014145 -0.0014961 -0.00039512 0.00074207 0.0013886 0.23937 -0.002515
-0.0021992 0.0099354 0.0013766 -0.0025221
-0.0020111 -0.00052966 -0.00061379 0.00013005 -0.0018101 -1.9655e-05 -0.002204 0.0099585
0.22743 0.10882 0.0011917 0.01011
0.00066384 0.00025895 -0.0008456 -0.00034481 -0.00069864 -0.00077742 0.0013582 -0.0025267
0.0012124 0.0101 0.27733 0.15745
1760000000 0.27772 -0.078507 0.0041518 0.0046199 -0.0024283 0.0010725 0.00093003 -0.0035094
-0.0013352 0.00087716 0.00036063 -0.00045637
0.0041379 0.0046187 0.25168 0.19768 0.0013304 -0.0015322 -0.0011682 0.00034343
-0.00087406 0.00075493 -0.00053147 0.00047393
-0.0024285 0.0010584 0.0013134 -0.0015312 0.21306 -0.23396 0.0013301 0.00076276
-0.00098164 0.0017183 -0.00126 -0.00030846
0.00091047 -0.0034899 -0.0011553 0.00035749 0.0013443 0.00073939 0.22996 -0.051062
0.00070021 0.0083323 -0.00050049 -0.0027595
-0.0013436 0.00086795 -0.0008652 0.00076471 -0.00099487 0.0017133 0.00073675 0.0083681
0.24009 0.07238 0.0049673 0.0069549
0.00035275 -0.00045638 -0.00054534 0.00048582 -0.0013045 -0.00029861 -0.00050354 -0.0027373
0.0049467 0.0069299 0.28827 0.11884
1820000000 0.25176 -0.11487 0.0036238 0.0015301 -3.4801e-06 0.0026146 -0.0013134 -0.0028854
-0.00083328 0.0011076 -8.1265e-05 -7.2202e-05
0.0036238 0.001531 0.26085 0.16785 -0.00058645 -0.000113 -0.0010769 0.0010122
-6.7775e-05 0.0011232 -0.00043674 0.00054486
3.4201e-06 0.0025941 -0.00057266 -0.00012051 0.16193 -0.24939 0.0012989 5.0679e-05
-1.1626e-05 0.0021682 -0.001306 0.00067121
-0.0013293 -0.0028444 -0.0010919 0.001018 0.0012242 2.0497e-05 0.20085 -0.095988
0.0017483 0.0062145 -0.0018057 -0.0016316
-0.00085904 0.0010988 -4.1047e-05 0.0011451 1.5128e-05 0.0021633 0.0017337 0.0062436
0.25459 0.041946 0.0057074 0.0030673
-9.5297e-05 -3.2399e-05 -0.00044833 0.00055706 -0.001304 0.00064089 -0.0017733 -0.0016433
0.0057504 0.003057 0.28799 0.08088
1880000000 0.21568 -0.15394 0.0011044 -9.1999e-05 -0.00032079 0.0021335 -0.0029841 -0.0017731
-5.2115e-05 0.0016365 0.00026419 -0.00033841
0.0010999 -9.0619e-05 0.26497 0.12156 -0.0026101 0.0017281 6.0164e-06 0.0016351
0.00048603 0.0010411 0.00021451 0.00086622
-0.00031632 0.0021378 -0.0026158 0.0017372 0.10864 -0.25903 0.0013911 -0.00096796
0.0016236 0.0014959 -0.00071111 0.0013957
-0.0030369 -0.0017645 8.0367e-06 0.0016264 0.0014061 -0.00098139 0.16225 -0.13514
0.0019791 0.0041744 -0.0024209 0.00019404
-3.9834e-05 0.0016181 0.00048301 0.0010312 0.0016133 0.0014997 0.0019567 0.0041551
0.25474 0.0085471 0.0051961 0.00062536
0.00024433 -0.00032812 0.00019439 0.0008576 -0.00065837 0.0014036 -0.0024445 0.00025495
0.0051796 0.0006535 0.28558 0.046592
1940000000 0.17618 -0.1792 -0.0010048 -0.0010645 0.0015886 0.0019186 -0.0034559 0.00084018
0.0014587 0.00094835 -0.00064723 -0.00053693
-0.0010054 -0.0010695 0.26499 0.089949 -0.0012209 0.0041455 0.00095802 0.0010881
0.0015318 0.00051712 0.00079742 0.00032358
0.0016286 0.0019145 -0.0012249 0.004169 0.06263 -0.25186 9.8954e-05 -0.00175
0.0022465 0.00016104 0.0006032 0.0016494
-0.0034226 0.0008137 0.0009815 0.0010798 0.0001411 -0.0017362 0.1116 -0.16592
0.00080589 0.0027816 -0.0017524 0.001484
0.0014886 0.00093398 0.001551 0.00051304 0.0022306 0.00016441 0.0007675 0.0027677
0.25391 -0.031045 0.0035825 -0.0024021
-0.00059601 -0.00046595 0.00081931 0.00034918 0.00059793 0.0016448 -0.0018122 0.0015248
0.0036057 -0.0024438 0.27269 0.0096182
2000000000 0.12958 -0.1933 -0.0044051 0.0013051 0.0025914 0.0014152 -0.0021537 0.0035303
0.0010484 -5.282e-05 -0.0004816 0.0003741
-0.0043691 0.0012921 0.25072 0.054375 -0.00086275 0.0058219 0.0015256 0.00020142
0.001352 -0.0010463 0.00048566 4.0283e-06
0.0025902 0.0013912 -0.00086302 0.0058242 0.018463 -0.23716 -0.0010963 -0.00099129
0.0017226 -0.0011491 0.0017231 0.00097547
-0.0021319 0.0035229 0.0015016 0.0001982 -0.0010792 -0.00095041 0.059192 -0.1771
-0.00083424 0.0027108 -0.00016221 0.0023927
0.0010482 -3.193e-05 0.0013396 -0.0010621 0.0017466 -0.001164 -0.00085222 0.0027222
0.24517 -0.064581 0.00012658 -0.0034206
