!Keysight Technologies,M9804A,MY58100912,A.14.10.03
!Date: Thursday, April 27, 2023 10:28:33
!Correction: S11(C  6-Port  ) 
!S12(C  6-Port  ) 
!S13(C  6-Port  ) 
!S14(C  6-Port  ) 
!S15(C  6-Port  ) 
!S16(C  6-Port  ) 
!S21(C  6-Port  ) 
!S22(C  6-Port  ) 
!S23(C  6-Port  ) 
!S24(C  6-Port  ) 
!S25(C  6-Port  ) 
!S26(C  6-Port  ) 
!S31(C  6-Port  ) 
!S32(C  6-Port  ) 
!S33(C  6-Port  ) 
!S34(C  6-Port  ) 
!S35(C  6-Port  ) 
!S36(C  6-Port  ) 
!S41(C  6-Port  ) 
!S42(C  6-Port  ) 
!S43(C  6-Port  ) 
!S44(C  6-Port  ) 
!S45(C  6-Port  ) 
!S46(C  6-Port  ) 
!S51(C  6-Port  ) 
!S52(C  6-Port  ) 
!S53(C  6-Port  ) 
!S54(C  6-Port  ) 
!S55(C  6-Port  ) 
!S56(C  6-Port  ) 
!S61(C  6-Port  ) 
!S62(C  6-Port  ) 
!S63(C  6-Port  ) 
!S64(C  6-Port  ) 
!S65(C  6-Port  ) 
!S66(C  6-Port  ) 
!S6P File: Measurement: :
# Hz S  RI   R 50
500000000 -0.33938 -0.018716 -0.012011 -0.0031088 -0.0077727 0.013575 -0.0038484 0.012018
0.0102 0.0043879 -0.0039819 0.0080136
-0.011461 -0.0037284 -0.42094 -0.036349 0.005222 -0.011502 0.0016871 0.012801
0.0068068 0.0026826 0.0019676 0.014428
-0.0077838 0.013311 0.0055724 -0.011006 -0.26529 0.22394 0.0071211 0.0043142
-0.0014481 0.0088567 0.0019711 0.012814
-0.0028034 0.011141 0.0013084 0.013021 0.0069078 0.0040445 -0.33098 0.062693
-0.020018 -0.0067088 0.015657 0.023712
0.012074 0.0036476 0.0068099 0.0020364 -0.0011208 0.0088816 -0.019994 -0.0066774
-0.23745 -0.16523 -0.025767 0.0030474
-0.0037884 0.0066607 0.001823 0.014348 0.0017186 0.012207 0.015653 0.023757
-0.02556 0.0036073 -0.28426 -0.079164
560000000 -0.31436 0.13767 -0.028469 -0.060649 0.0013985 0.012058 0.0055487 0.010275
0.0095912 0.004682 0.010326 0.0077739
-0.02899 -0.059889 -0.37618 0.1192 -0.042918 -0.033646 0.013092 0.0031751
-0.012147 -0.0034534 0.0039586 -0.0012766
0.0010123 0.01168 -0.04312 -0.033758 -0.18125 0.26971 0.0003649 -0.0040521
0.019163 0.0049174 0.0065021 -0.0054041
0.0053587 0.010492 0.0138 0.0031715 0.00058555 -0.0042076 -0.3046 0.14936
-0.00073588 -0.024054 0.0031681 -0.018053
0.0092169 0.0049538 -0.013612 -0.0034934 0.018945 0.0048785 -0.00070194 -0.024147
-0.29049 0.011867 0.00093232 -0.047218
0.010991 0.0078034 0.0032798 -0.0012996 0.0068042 -0.0057497 0.0030653 -0.017992
0.001739 -0.047597 -0.33134 0.060652
620000000 -0.27024 0.12356 -0.023774 0.0083562 0.0048879 0.0085902 0.0077167 -0.0050636
0.011115 -0.00081856 0.0011749 -0.0024175
-0.02352 0.0083342 -0.40243 0.074505 -0.019577 0.0012565 -0.0005935 -0.0026162
0.010752 -0.0056843 0.0019001 -0.0031176
0.0049738 0.0081632 -0.019559 0.0013732 -0.14914 0.27893 -0.00068928 -0.0050814
-0.00277 -0.0026807 0.0081766 -0.0032635
0.0077653 -0.0053767 -0.0010924 -0.0020495 -0.00071734 -0.0048899 -0.26316 0.1623
-0.040152 -0.018781 0.011473 0.024852
0.010719 -0.0016608 0.011213 -0.0062981 -0.0028552 -0.0029851 -0.040015 -0.018802
-0.2119 -0.025556 -0.039027 0.013296
7.833e-05 -0.0029297 0.00099138 -0.0028413 0.0084517 -0.0033825 0.010921 0.02434
-0.038004 0.013772 -0.26008 0.033996
680000000 -0.2282 0.20677 -0.028056 -0.010337 0.0057852 0.0046553 0.0011754 -0.0072893
-0.002688 -0.011621 0.0042304 -0.0074223
-0.027988 -0.010392 -0.38441 0.16984 -0.032078 0.0011535 -0.0013103 -0.0007819
-0.0024205 -0.0091392 -0.0012316 -0.0023223
0.0058667 0.0049931 -0.031943 0.0012645 -0.097025 0.29634 -0.00091514 -0.00079667
-0.0011441 -0.00011062 -0.0035186 -0.0086975
0.00045069 -0.006929 -0.00097979 -0.0010016 -0.0009448 -0.00071169 -0.21636 0.20771
-0.025962 -0.0045191 -0.0090229 -0.0078411
-0.0030504 -0.010858 -0.0022227 -0.0091699 -0.0012641 -0.00027534 -0.025983 -0.00442
-0.25148 0.070996 -0.0074517 -0.0056822
0.0043589 -0.0063937 -0.00087877 -0.0021205 -0.0037843 -0.0087278 -0.0088527 -0.007315
-0.0078584 -0.0059239 -0.254 0.12834
740000000 -0.18389 0.20165 -0.036067 0.027532 0.012474 -0.0059215 -0.00072626 -0.0041986
-0.0055946 -0.0026611 -0.0055224 0.0027764
-0.0355 0.027197 -0.33262 0.18886 -0.032512 0.035842 -0.0010625 -0.006138
-0.01159 0.007667 -0.0026981 -0.0046501
0.012783 -0.0058431 -0.032437 0.035732 -0.063441 0.29441 -0.0019971 0.0029075
-0.003577 -0.0042691 -0.002012 0.0010864
-0.00020164 -0.0042838 -0.0017245 -0.0063405 -0.0019198 0.0028963 -0.19832 0.21641
-0.042228 -0.0026483 0.022392 0.012425
-0.0046756 -0.0037169 -0.011111 0.0073196 -0.0033706 -0.0045427 -0.042338 -0.0024832
-0.15795 0.091236 -0.039335 0.004527
-0.0061404 0.0025556 -0.0036676 -0.0049569 -0.0019512 0.00086077 0.0223 0.012182
-0.039047 0.0043522 -0.24142 0.13844
800000000 -0.14794 0.23786 -0.020044 0.018348 0.0049351 -0.010645 -0.0043162 -0.0016
-0.0039272 0.0026013 0.0035857 0.00056315
-0.020269 0.017944 -0.33171 0.25679 -0.0061109 0.033828 -0.0023359 0.0022053
-0.0012013 0.0035365 0.00095399 0.0054805
0.0050878 -0.010771 -0.0059875 0.033912 -0.021167 0.31577 0.00067242 0.0017009
0.00025826 0.0036195 -0.0015917 0.0012874
-0.0048721 -0.0014404 -0.0021618 0.0023752 0.00068347 0.0016859 -0.16826 0.24282
-0.026549 0.016642 0.012652 -0.009905
-0.0043274 0.0029423 -0.0011207 0.00346 0.0002347 0.0035803 -0.026553 0.016764
-0.1942 0.11783 -0.01511 0.019475
0.0028785 0.0010216 0.00135 0.0059353 -0.0015191 0.0012774 0.012695 -0.010082
-0.015049 0.019623 -0.22845 0.18293
860000000 -0.11365 0.25745 -0.014567 0.030668 -0.0034183 -0.010021 -0.0019393 0.0012532
0.004498 0.0048786 -0.0026369 -0.0024087
-0.014525 0.030705 -0.28391 0.29678 0.0099138 0.033294 0.0001605 0.0022784
0.0043032 0.00058431 0.0031742 0.00052411
-0.0034003 -0.0099609 0.0098596 0.033289 0.026856 0.32258 -0.00030967 9.787e-05
0.0024518 -0.0014378 0.0020414 0.0036598
-0.0016942 0.0013331 -8.3676e-05 0.0022046 -0.00029971 6.4812e-05 -0.13189 0.2534
-0.014778 0.021301 -0.0049724 -0.009251
0.0047986 0.0050519 0.0042416 0.00059812 0.0024815 -0.0013966 -0.014752 0.021379
-0.14054 0.16249 -0.019973 0.017317
-0.0022555 -0.0023036 0.0031885 -7.3407e-05 0.0020578 0.0034817 -0.0047516 -0.0090331
-0.019985 0.016961 -0.17805 0.22312
920000000 -0.087037 0.27761 0.0071943 0.035983 -0.0094002 -0.004533 -0.0013156 0.0015974
0.0018115 0.0015912 0.0028575 -0.001798
0.0071486 0.035987 -0.2539 0.31643 0.028851 0.01982 0.0019862 0.0010554
0.0070508 -0.0005756 0.0038185 -0.0030421
-0.009476 -0.0045414 0.028996 0.019771 0.073945 0.32284 0.0019971 -0.00014652
0.0016026 -0.00062444 0.00089846 -0.0015409
-0.0013864 0.0013591 0.0019579 0.001181 0.0019665 -0.00015458 -0.10528 0.26917
-0.0067272 0.031318 0.0027491 -0.0066434
0.00163 0.0017167 0.0073822 -0.0009425 0.0016184 -0.00065622 -0.0066241 0.031338
-0.12739 0.16849 0.00054712 0.025664
0.0026202 -0.0017216 0.003987 -0.0028472 0.0010064 -0.0014447 0.0026759 -0.0065887
0.00055376 0.025572 -0.17718 0.23727
980000000 -0.040557 0.29531 0.019021 0.027605 -0.008903 0.0044522 0.0018474 0.0028614
0.0037694 -0.0018893 -0.0029383 -0.0021745
0.01904 0.027647 -0.20268 0.34845 0.033101 0.0026889 0.002145 -0.00025645
0.001684 -0.0064034 -0.00042257 -0.0026321
-0.0088303 0.0044152 0.033047 0.0025861 0.12085 0.31541 0.0004822 -0.0012875
3.3923e-05 -0.0023332 0.0011121 -0.00029962
0.0018485 0.0030375 0.0019946 -0.00031231 0.00046959 -0.0012845 -0.066532 0.27829
0.011824 0.028405 -0.0085434 -0.0064242
0.0038026 -0.0020078 0.0015322 -0.006616 7.0289e-05 -0.0023694 0.011932 0.028388
-0.094393 0.19204 0.0070841 0.018147
-0.0029417 -0.0021225 -0.00065173 -0.0026966 0.0010985 -0.00028494 -0.0084733 -0.0065813
0.0070494 0.018238 -0.13272 0.27469
1040000000 0.0021954 0.30185 0.033208 0.014907 -0.0015719 0.0065406 0.0022312 0.00047773
1.1068e-05 -0.0031637 -0.00091541 -0.0016897
0.033265 0.014808 -0.16711 0.36166 0.028008 -0.01665 0.0014805 -0.0018519
-0.00253 -0.0028778 -0.001824 -0.0027969
-0.0015309 0.0065583 0.02797 -0.016683 0.16819 0.30075 -0.00069236 -0.0015812
-0.0016669 -0.00096127 -0.00074573 -0.00092873
0.0022836 0.00038427 0.0014204 -0.0018443 -0.00069663 -0.0015794 -0.037555 0.2873
0.022251 0.015435 -0.0026937 0.00076426
-3.2119e-05 -0.0033559 -0.0024498 -0.0028749 -0.0017037 -0.00091849 0.022283 0.01536
-0.062741 0.19734 0.015026 0.015809
-0.0010165 -0.001605 -0.0016967 -0.0028911 -0.00078713 -0.00093677 -0.0026504 0.0007837
0.014803 0.015619 -0.10673 0.29446
1100000000 0.047096 0.30786 0.034526 -0.0069618 0.0023807 0.0036411 0.0020175 -0.00090555
-0.0020573 -0.0028136 -0.0036834 0.00045402
0.034445 -0.0069879 -0.1242 0.37803 0.013257 -0.02883 -0.00011958 -0.0019032
-0.0038694 -0.00069155 -0.0034831 -0.0002027
0.0023785 0.003631 0.013181 -0.028875 0.21576 0.27816 -0.0019733 0.00025307
-0.0020239 0.00080109 -0.0010706 4.3124e-05
0.0020163 -0.00078459 -0.00017775 -0.0018578 -0.0019363 0.00023292 0.0037189 0.29015
0.025895 0.0013919 -0.0027138 -3.1769e-05
-0.0019797 -0.0029207 -0.003792 -0.00060318 -0.0020222 0.00082351 0.02592 0.0013229
-0.043525 0.20849 0.019415 0.0055633
-0.0037404 0.00069788 -0.0035083 -0.00021248 -0.0010501 3.3854e-05 -0.0028016 -7.5919e-05
0.019481 0.0055838 -0.060313 0.3169
1160000000 0.097796 0.30191 0.021548 -0.022831 0.0019306 -0.00022043 -4.4986e-05 -0.0018215
-0.0040424 -0.00035506 -0.00074985 0.0039555
0.021578 -0.022804 -0.079699 0.38277 -0.0060565 -0.028881 -0.0017068 -0.0015153
-0.0029027 0.0029338 -0.0014069 0.0020161
0.0019068 -0.00025823 -0.0061516 -0.028888 0.25886 0.24455 -0.00073408 0.0018873
-0.00034403 0.0021527 -0.00059825 0.00030891
5.3608e-06 -0.001804 -0.0017423 -0.0014549 -0.00076882 0.0018974 0.04353 0.28513
0.020598 -0.014515 -0.0033928 0.0039575
-0.0040527 -0.00035248 -0.0029751 0.0028312 -0.00037302 0.0021377 0.020591 -0.014503
-0.010528 0.21502 0.017958 -0.0032922
-0.00082995 0.003967 -0.0014136 0.0020931 -0.00055255 0.0004012 -0.0032775 0.0040394
0.017924 -0.0032138 -0.01346 0.3172
1220000000 0.14221 0.28921 0.0070223 -0.030494 -0.0019719 -3.102e-05 0.00028048 -0.00081792
-0.0025324 0.0023368 0.0014603 0.0021255
0.0070778 -0.030416 -0.034921 0.3937 -0.018483 -0.019891 -0.0025255 0.00055144
0.00028032 0.0033109 -0.00041572 0.0021189
-0.0019837 -3.5273e-05 -0.018586 -0.019814 0.297 0.20249 0.0009008 0.0019725
0.00079088 0.0012626 0.0005371 0.00051292
0.00019685 -0.00087434 -0.002481 0.00053465 0.00090245 0.0019705 0.084004 0.27407
0.0085621 -0.020505 0.00088475 0.0013591
-0.0024762 0.0023131 0.00027941 0.0033013 0.00083407 0.0012444 0.0085453 -0.020528
0.013154 0.22171 0.011888 -0.015245
0.001373 0.0021424 -0.00039808 0.0021577 0.00058563 0.00052716 0.00088046 0.0013421
0.011895 -0.015291 0.020376 0.3285
1280000000 0.19126 0.26609 -0.011006 -0.027296 -0.0016376 0.0033719 -0.00082531 -0.0020874
-0.00065453 0.0030685 0.00258 0.000986
-0.010972 -0.02727 0.01181 0.38434 -0.024515 -0.0067422 -0.00099846 0.0015159
0.0021461 0.0017934 0.0009985 0.0017815
-0.0016452 0.0033919 -0.02458 -0.0067162 0.32494 0.15681 0.0018455 -5.5034e-05
0.0013022 0.00012245 0.00026545 0.00014024
-0.00083774 -0.0019923 -0.0010205 0.0015682 0.0018015 -8.9517e-05 0.12025 0.25486
-0.0025595 -0.021407 -0.0010343 0.00067482
-0.00062192 0.0030928 0.002134 0.001853 0.0013071 0.00011482 -0.0025844 -0.021419
0.048852 0.22328 0.00065744 -0.016781
0.0026749 0.00088614 0.0010196 0.0017534 0.00024855 9.393e-05 -0.0010376 0.00065775
0.00064666 -0.016749 0.066176 0.3259
1340000000 0.22804 0.23085 -0.019854 -0.0161 0.0015632 0.0048612 -0.001745 -0.0010599
0.001513 0.0026131 0.0016098 -0.0015353
-0.019814 -0.016117 0.052335 0.37405 -0.021307 0.0061038 -2.191e-05 0.0021274
0.0022289 0.00037939 0.0014436 0.00055723
0.0015941 0.0048333 -0.021276 0.0062216 0.34443 0.10833 0.0013411 -0.0011748
0.00063684 -0.0005712 0.00010948 0.0001525
-0.0017495 -0.0010109 -3.4844e-05 0.0020933 0.0013572 -0.001119 0.15174 0.23207
-0.012432 -0.016746 0.00018583 0.0016004
0.0014937 0.002619 0.0021974 0.0003895 0.00059668 -0.00052378 -0.012484 -0.016723
0.078881 0.21682 -0.0068062 -0.014176
0.0016672 -0.001604 0.0013689 0.00047607 4.4948e-05 0.0001978 0.00019221 0.0015954
-0.006843 -0.014203 0.10528 0.31679
1400000000 0.2601 0.19122 -0.02366 -0.0039786 0.0058527 0.0030911 -0.0022453 0.0006238
0.002517 0.00089973 0.00013264 -0.0015437
-0.023644 -0.0040084 0.089228 0.35939 -0.013725 0.013747 0.0014915 0.001263
0.0011863 -0.0012726 0.0011215 -5.0654e-05
0.0058604 0.0030544 -0.013681 0.013806 0.35577 0.055419 1.9071e-05 -0.0020973
-4.829e-06 -0.00055119 0.00037297 0.00021533
-0.0022831 0.00069278 0.0015364 0.0012392 9.8118e-06 -0.0021 0.17942 0.20086
-0.018118 -0.008337 -0.00038939 0.0011316
0.0025211 0.00092196 0.001199 -0.0012687 -1.0211e-05 -0.00053304 -0.018148 -0.008302
0.11062 0.2101 -0.012904 -0.0079859
9.5571e-05 -0.0015518 0.0011531 -0.00011337 0.00034565 0.00020149 -0.00040786 0.0011222
-0.012876 -0.0079963 0.14721 0.30135
1460000000 0.28185 0.14638 -0.019064 0.0077992 0.0060772 -0.0022343 -0.001612 0.0017915
0.002231 -0.00077661 -0.00060573 -0.00090857
-0.019035 0.0077728 0.12308 0.33575 -0.0045932 0.015815 0.0018298 -1.1428e-05
0.00046866 -0.0015284 0.00095903 -0.00068003
0.0061034 -0.0023042 -0.0045148 0.015824 0.36039 0.0022764 -0.0017443 -0.0013433
0.00011559 -0.00021115 0.00065916 -0.00034775
-0.0016337 0.001739 0.0017963 -4.4733e-05 -0.0017396 -0.0013745 0.20332 0.17011
-0.018232 5.8559e-05 0.00013275 0.0027276
0.0021466 -0.00073275 0.00049396 -0.0015184 0.00010769 -0.00022325 -0.018228 0.00010808
0.13928 0.1939 -0.013915 -0.0010487
-0.00056133 -0.00087357 0.00101 -0.00069571 0.00063044 -0.00034977 0.00013408 0.0026931
-0.013925 -0.0010244 0.17905 0.27787
1520000000 0.29279 0.10304 -0.012075 0.012211 0.0034831 -0.0046076 0.0001898 0.0027211
0.0019899 -0.0019176 -0.0011722 -6.0426e-06
-0.012079 0.012202 0.15528 0.31942 0.0028578 0.012819 0.0016401 -0.0010329
-0.0003292 -0.00093574 0.00021275 -0.00097343
0.0034828 -0.0046303 0.0029029 0.012805 0.35345 -0.053382 -0.001516 -8.7235e-05
0.00048745 -0.00092388 3.7584e-05 -0.00024219
0.00018789 0.0027109 0.0016219 -0.0010385 -0.0015125 -7.1126e-05 0.22358 0.13125
-0.015514 0.0065241 0.002492 0.0021135
0.0019424 -0.001901 -0.00032919 -0.00094086 0.00050283 -0.00091662 -0.015502 0.0065537
0.16693 0.17787 -0.012878 0.0042786
-0.0011836 -2.1387e-05 0.00016541 -0.00097611 5.9252e-05 -0.00022938 0.0024775 0.0020905
-0.012839 0.0042167 0.21003 0.25418
1580000000 0.30033 0.056054 -0.0049476 0.013739 -0.00085773 -0.0052311 0.0017172 0.0019208
-0.00033335 -0.0023241 -0.00016973 0.00049861
-0.0049748 0.013737 0.18097 0.29382 0.0060787 0.0075085 0.00026655 -0.0017767
-0.00066053 -0.00069054 -0.0002675 -0.00077671
-0.00084815 -0.0052078 0.0060833 0.0074981 0.33357 -0.11034 -0.0016113 0.0011585
-0.00048545 -0.0011779 0.00020228 -0.00062461
0.0017199 0.001872 0.00023668 -0.0018157 -0.0016085 0.0011341 0.23436 0.092105
-0.010197 0.011005 0.0030309 0.00013436
-0.00030818 -0.0023085 -0.00065383 -0.00070931 -0.00045818 -0.0011495 -0.010163 0.011059
0.19006 0.15779 -0.0092242 0.0096225
-0.00018465 0.00045451 -0.00024319 -0.00079237 0.00013153 -0.00061502 0.0030095 0.00010701
-0.009272 0.0096469 0.2389 0.2259
1640000000 0.3004 0.014187 0.0012366 0.011044 -0.0029537 -0.0029783 0.0028482 0.00074293
-0.0010666 -0.0015517 -0.00011459 0.0005602
0.0012615 0.011036 0.20899 0.26831 0.0061905 0.0027275 -0.0010176 -0.001651
-0.00083704 -0.00013162 -0.0005714 -0.00054054
-0.0029694 -0.0029865 0.0061654 0.0026707 0.3049 -0.15929 -0.00035245 0.0016979
-0.001283 -0.00075837 -0.00029435 -0.00030622
0.0027943 0.0007819 -0.0010202 -0.0016008 -0.0003869 0.0017706 0.24378 0.044805
-0.0045812 0.011141 0.0027905 -0.0015179
-0.001076 -0.0015399 -0.00085059 -8.572e-05 -0.0013675 -0.00077132 -0.0045505 0.011171
0.21153 0.13139 -0.0035969 0.011397
-0.0001163 0.00068041 -0.00060353 -0.00051808 -0.0003765 -0.00038656 0.0028317 -0.0015176
-0.0035922 0.011399 0.26242 0.19332
1700000000 0.29069 -0.030806 0.0036621 0.007205 -0.003778 -0.00020124 0.0029361 -0.001525
-0.0021629 -0.0004961 0.00074521 0.00022522
0.0036596 0.0072327 0.22557 0.23719 0.0039941 -0.00014564 -0.0015638 -0.00031525
-0.00049869 6.8767e-05 -0.00088589 -0.00035334
-0.003741 -0.00020732 0.0040056 -0.00017508 0.26174 -0.19906 0.0008729 0.0013535
-0.0018711 3.7289e-05 -0.00070474 -0.000805
0.0029384 -0.0015749 -0.0015246 -0.00032283 0.0008921 0.0013883 0.23891 -0.0025437
-0.0012524 0.01008 0.001505 -0.0026637
-0.0021695 -0.00048678 -0.00045449 2.5104e-05 -0.001821 1.5454e-05 -0.0012364 0.010078
0.2268 0.10916 0.0015964 0.01094
0.00062141 0.00022932 -0.00088595 -0.00035831 -0.00071773 -0.00084063 0.0014789 -0.0026903
0.0016369 0.010877 0.27635 0.15791
1760000000 0.27722 -0.078176 0.0044967 0.00362 -0.002758 0.00069921 0.00085475 -0.0035984
-0.001435 0.0010125 0.0002873 -0.00053627
0.0044881 0.0036155 0.25062 0.19784 0.001483 -0.0019239 -0.0011354 0.00042929
-0.00088286 0.00062503 -0.00056722 0.00045883
-0.0027595 0.00077883 0.001474 -0.001931 0.21327 -0.23308 0.0013009 0.00058496
-0.0010393 0.0017741 -0.0013118 -0.00025953
0.0008513 -0.0035333 -0.0010839 0.00041958 0.0013441 0.00059828 0.22943 -0.050813
0.0014932 0.0079596 -0.00040679 -0.0029209
-0.0013988 0.0010147 -0.00085505 0.00064778 -0.00097653 0.0018122 0.0015041 0.0079673
0.23951 0.072787 0.0056596 0.0075508
0.0003303 -0.00056387 -0.00055667 0.00049835 -0.0014301 -0.00023792 -0.00039188 -0.0029126
0.0056232 0.007539 0.28733 0.11953
1820000000 0.25146 -0.11424 0.0034473 0.0005842 -0.00035493 0.0025425 -0.0014068 -0.002853
-0.000823 0.0011899 -0.00026901 -3.7445e-05
0.0034782 0.00059746 0.25998 0.16848 -0.00069366 -0.00060509 -0.0010054 0.0010264
-0.00010031 0.0010468 -0.00047983 0.00056993
-0.00042179 0.0025286 -0.00065325 -0.00060263 0.16257 -0.24936 0.0011748 -9.8739e-05
0.00018369 0.0021439 -0.0013034 0.00074684
-0.0014595 -0.0028373 -0.0010545 0.0010107 0.0011814 -6.1487e-06 0.20066 -0.095445
0.0021731 0.0056133 -0.0017411 -0.0019073
-0.00078464 0.0011951 -0.00012407 0.0010428 0.00012916 0.0021345 0.0022005 0.0056348
0.25415 0.042425 0.006727 0.0033029
-0.00017038 -4.084e-05 -0.00043529 0.00053673 -0.001283 0.00057337 -0.0017727 -0.0018665
0.0067663 0.0032669 0.28763 0.082
1880000000 0.21573 -0.15311 0.00057979 -0.00077457 -0.00083261 0.0023677 -0.0030288 -0.001681
8.7372e-05 0.0016309 6.9431e-05 -0.00024218
0.00057693 -0.00071408 0.26439 0.12254 -0.0029107 0.0013167 3.7265e-05 0.0015892
0.00029332 0.0010986 0.00012566 0.00089369
-0.00076924 0.0022318 -0.0029315 0.0013445 0.10921 -0.25913 0.001334 -0.0009161
0.0016577 0.0015388 -0.00072881 0.0015837
-0.0030341 -0.001589 4.1949e-05 0.0016096 0.0012882 -0.00095724 0.16219 -0.13468
0.0019595 0.0033722 -0.002629 7.646e-05
8.634e-05 0.001735 0.00032433 0.0011169 0.0017017 0.0015586 0.0019705 0.0033735
0.25425 0.0090152 0.0061769 0.00042122
0.00012493 -0.00038558 0.00011614 0.00089749 -0.00069476 0.0016538 -0.0026535 7.5328e-05
0.0061493 0.00041007 0.2853 0.047431
1940000000 0.17665 -0.17836 -0.0016335 -0.0012652 0.0015077 0.002446 -0.0034175 0.00093964
0.0016132 0.00093024 -0.00051318 -0.00026968
-0.0016638 -0.0014213 0.26502 0.090994 -0.0016811 0.0039476 0.0010055 0.0011377
0.0014755 0.00072697 0.00076547 0.00039443
0.0014366 0.0023687 -0.0016403 0.0039764 0.062822 -0.2523 0.0002126 -0.0016033
0.0022587 0.00011113 0.00067635 0.0016717
-0.003673 0.00081648 0.0010188 0.0010268 0.00024619 -0.0016787 0.11186 -0.16539
0.00060371 0.0022806 -0.0020588 0.0014179
0.0015371 0.00083804 0.0015559 0.00066868 0.0022721 0.00010095 0.00059895 0.0022901
0.25354 -0.030285 0.0042688 -0.0030946
-0.00034728 -0.00024894 0.00076591 0.00041392 0.00064459 0.0017055 -0.0019846 0.0013748
0.0042925 -0.0030641 0.27244 0.010202
2000000000 0.13029 -0.19269 -0.0052026 0.0012679 0.0025308 0.0018566 -0.0020929 0.0035342
0.00097416 -0.0001354 -0.0004357 0.0003632
-0.0051087 0.0013166 0.25105 0.055337 -0.0013589 0.0058895 0.0015025 0.00015573
0.0014202 -0.00087932 0.00051228 0.00011585
0.0025765 0.0018561 -0.0013377 0.0059238 0.018616 -0.23751 -0.00090326 -0.00096321
0.0016639 -0.0010971 0.0018576 0.00089218
-0.0019857 0.0035395 0.0014881 0.0001857 -0.00094004 -0.00089987 0.05944 -0.17691
-0.0014061 0.0021939 -0.00047852 0.0023734
0.00098341 -0.00018682 0.001399 -0.00093068 0.0015819 -0.0011723 -0.0013685 0.0022262
0.24482 -0.063745 0.00061375 -0.0041798
