!Keysight Technologies,M9804A,MY58100912,A.14.10.03
!Date: Thursday, April 27, 2023 10:28:33
!Correction: S11(C  6-Port  ) 
!S12(C  6-Port  ) 
!S13(C  6-Port  ) 
!S14(C  6-Port  ) 
!S15(C  6-Port  ) 
!S16(C  6-Port  ) 
!S21(C  6-Port  ) 
!S22(C  6-Port  ) 
!S23(C  6-Port  ) 
!S24(C  6-Port  ) 
!S25(C  6-Port  ) 
!S26(C  6-Port  ) 
!S31(C  6-Port  ) 
!S32(C  6-Port  ) 
!S33(C  6-Port  ) 
!S34(C  6-Port  ) 
!S35(C  6-Port  ) 
!S36(C  6-Port  ) 
!S41(C  6-Port  ) 
!S42(C  6-Port  ) 
!S43(C  6-Port  ) 
!S44(C  6-Port  ) 
!S45(C  6-Port  ) 
!S46(C  6-Port  ) 
!S51(C  6-Port  ) 
!S52(C  6-Port  ) 
!S53(C  6-Port  ) 
!S54(C  6-Port  ) 
!S55(C  6-Port  ) 
!S56(C  6-Port  ) 
!S61(C  6-Port  ) 
!S62(C  6-Port  ) 
!S63(C  6-Port  ) 
!S64(C  6-Port  ) 
!S65(C  6-Port  ) 
!S66(C  6-Port  ) 
!S6P File: Measurement: :
# Hz S  RI   R 50
500000000 -0.33968 -0.017338 -0.011182 -0.0031294 -0.0074313 0.012914 -0.0032244 0.012346
0.011176 0.0038074 -0.0028301 0.0087145
-0.011202 -0.003332 -0.41986 -0.035749 0.0062141 -0.011478 0.0019745 0.012657
0.0063078 0.0024233 0.0020421 0.013797
-0.0075985 0.012808 0.0061984 -0.011484 -0.26297 0.22323 0.0073332 0.0038286
-0.0011798 0.0086923 0.0020867 0.012314
-0.0032564 0.012173 0.0019891 0.012669 0.007333 0.0038286 -0.33059 0.063226
-0.01958 -0.0067604 0.014927 0.023593
0.011039 0.0040154 0.0063257 0.0024083 -0.0011661 0.0086911 -0.019583 -0.006756
-0.23665 -0.16357 -0.025294 0.0037054
-0.0027843 0.0084959 0.0020593 0.013789 0.0020902 0.012319 0.014937 0.023582
-0.025299 0.0037011 -0.28551 -0.079316
560000000 -0.31226 0.13782 -0.027278 -0.060345 0.00091519 0.011493 0.0054091 0.0096525
0.0086523 0.004184 0.010972 0.0066079
-0.02717 -0.060171 -0.3754 0.11818 -0.042386 -0.033592 0.013866 0.0036834
-0.012391 -0.0034053 0.0027902 -0.00080993
0.00078663 0.011508 -0.042444 -0.033566 -0.18108 0.26757 -0.00036976 -0.004543
0.018304 0.0034105 0.0067093 -0.0063813
0.0056397 0.0095714 0.013833 0.003679 -0.00035224 -0.0045611 -0.30412 0.14907
0.0004992 -0.02425 0.0028731 -0.018136
0.0085676 0.0042413 -0.01238 -0.0033686 0.018294 0.0034095 0.00048449 -0.024262
-0.28751 0.0098765 0.0028602 -0.046923
0.010983 0.006611 0.0028028 -0.00083183 0.0067085 -0.0063713 0.0028658 -0.018144
0.002873 -0.046933 -0.33097 0.05989
620000000 -0.26981 0.12399 -0.023513 0.0073885 0.0041094 0.0078685 0.0079087 -0.005576
0.010563 -0.0010701 0.00054146 -0.0021941
-0.023443 0.0073657 -0.40143 0.074425 -0.019463 0.00060834 -0.00091362 -0.0022922
0.010072 -0.0064065 0.0014009 -0.0031206
0.0041646 0.0078552 -0.019485 0.00064285 -0.14895 0.27779 -0.0013053 -0.0048622
-0.0030363 -0.0029571 0.0084371 -0.0040077
0.0078881 -0.0055315 -0.0009121 -0.0023004 -0.0013072 -0.0048659 -0.26234 0.16072
-0.039383 -0.01729 0.012216 0.02329
0.01057 -0.0011179 0.010083 -0.0064285 -0.0030093 -0.0029438 -0.039412 -0.017266
-0.21099 -0.027679 -0.038987 0.014797
0.0004509 -0.0022819 0.001427 -0.0031161 0.0084609 -0.0039952 0.012224 0.023316
-0.038999 0.014779 -0.25625 0.032606
680000000 -0.22734 0.20543 -0.02786 -0.011546 0.0055647 0.0044525 0.0012341 -0.0069829
-0.0028723 -0.011119 0.0038234 -0.0068356
-0.02786 -0.01156 -0.38415 0.16843 -0.032041 0.00063898 -0.0014479 -0.00055707
-0.002446 -0.0087836 -0.0014503 -0.0021335
0.0055704 0.0043927 -0.032051 0.000679 -0.097811 0.29503 -0.00090568 -0.00048714
-0.0018888 6.496e-05 -0.0036645 -0.0083836
0.0011243 -0.0069305 -0.0014556 -0.00056039 -0.00091514 -0.00049132 -0.21666 0.20748
-0.025791 -0.0051813 -0.0087893 -0.0079937
-0.0029492 -0.011017 -0.0024696 -0.0087923 -0.0018854 5.9805e-05 -0.025814 -0.0051629
-0.25014 0.069098 -0.0071151 -0.0063666
0.0039229 -0.0067471 -0.0014419 -0.0021335 -0.0036697 -0.0083898 -0.0087867 -0.0080061
-0.0071179 -0.006366 -0.25314 0.12737
740000000 -0.18383 0.20016 -0.036421 0.026355 0.012089 -0.0060861 -0.00081236 -0.004054
-0.0050921 -0.0028513 -0.0056805 0.0034043
-0.036309 0.026329 -0.33256 0.18834 -0.032548 0.035282 -0.00093892 -0.0061173
-0.011371 0.0083353 -0.001749 -0.0049374
0.012124 -0.006072 -0.032518 0.035342 -0.06444 0.29424 -0.0017286 0.0030382
-0.0036108 -0.0044581 -0.001786 0.0015133
-0.00077079 -0.0040479 -0.00093221 -0.0061182 -0.0017238 0.0030411 -0.19867 0.21657
-0.041758 -0.0032562 0.02192 0.012098
-0.0049723 -0.0025968 -0.011385 0.0083465 -0.0036177 -0.0044643 -0.041809 -0.0032057
-0.15735 0.090591 -0.037964 0.0033695
-0.0056899 0.0033465 -0.0017376 -0.0049437 -0.0017866 0.0015264 0.021928 0.012087
-0.037962 0.003371 -0.24184 0.13768
800000000 -0.1496 0.23726 -0.021075 0.017804 0.0045853 -0.010445 -0.0042366 -0.0015859
-0.0037946 0.0029736 0.0037423 0.00084914
-0.021091 0.017761 -0.33227 0.25617 -0.0063733 0.033568 -0.0022214 0.0023641
-0.00060192 0.0035516 0.0012011 0.0054329
0.004582 -0.010488 -0.006329 0.033581 -0.021302 0.3159 0.00091099 0.0016361
0.00039962 0.0035999 -0.0017289 0.0012905
-0.0042381 -0.0015466 -0.0022315 0.0023649 0.00091086 0.001636 -0.16826 0.24277
-0.026505 0.016312 0.012545 -0.010008
-0.0037954 0.0029089 -0.00058152 0.0035531 0.00042055 0.0036068 -0.026518 0.016365
-0.19402 0.11655 -0.015344 0.018802
0.0037554 0.00083066 0.0012026 0.0054309 -0.0017296 0.0012848 0.012543 -0.010024
-0.015354 0.018779 -0.22792 0.18242
860000000 -0.11457 0.25661 -0.015431 0.030811 -0.0038388 -0.0095878 -0.0020499 0.001247
0.0046518 0.0045129 -0.0025254 -0.0024007
-0.015443 0.030779 -0.28483 0.29681 0.0094552 0.032928 9.3248e-05 0.0021631
0.0045936 0.00040553 0.0033009 0.00045824
-0.0038497 -0.0095949 0.0095181 0.032915 0.02681 0.32266 -0.00037338 -9.4093e-05
0.0025719 -0.0014721 0.0019117 0.0039755
-0.0020326 0.0012453 8.2915e-05 0.0021702 -0.00037367 -9.558e-05 -0.13186 0.25325
-0.014907 0.020664 -0.0054796 -0.0091031
0.0047208 0.0045054 0.0046073 0.00038648 0.0025753 -0.0014812 -0.014904 0.020699
-0.14143 0.16049 -0.021038 0.016461
-0.0025603 -0.0024207 0.0033108 0.00045266 0.0019151 0.0039735 -0.0054831 -0.0091109
-0.02105 0.016434 -0.17869 0.22194
920000000 -0.08809 0.27806 0.0065811 0.036313 -0.0093572 -0.003958 -0.0014406 0.0017031
0.0015806 0.0013848 0.0026183 -0.0018535
0.0065212 0.036282 -0.25427 0.31712 0.028353 0.019901 0.0017804 0.00084374
0.0068603 -0.0008909 0.003362 -0.0031212
-0.0093578 -0.0039529 0.028387 0.019849 0.074275 0.32274 0.001873 -0.00016041
0.0014348 -0.00067499 0.00080741 -0.001297
-0.0014295 0.0016636 0.001771 0.00084964 0.0018715 -0.00015432 -0.10552 0.26907
-0.0070713 0.030526 0.0021397 -0.0064176
0.0015575 0.001325 0.0068696 -0.0009265 0.0014407 -0.00068115 -0.0070201 0.030562
-0.12837 0.16761 -0.0002774 0.025312
0.0025892 -0.0018586 0.003346 -0.0031312 0.00080571 -0.0013006 0.0021415 -0.0064264
-0.00029811 0.025299 -0.17755 0.23731
980000000 -0.041148 0.29565 0.018679 0.02807 -0.0084133 0.0047592 0.0019527 0.0030187
0.003691 -0.0019641 -0.0031794 -0.00194
0.018655 0.02806 -0.20248 0.3492 0.032444 0.0029218 0.0020568 -0.00031213
0.0013766 -0.0062217 -0.00068344 -0.0023575
-0.0083969 0.0047643 0.032467 0.0028473 0.12106 0.31459 0.00047922 -0.0012742
-2.5111e-05 -0.0022364 0.0012109 -0.00021429
0.001962 0.0030223 0.0020462 -0.00030849 0.00047333 -0.001277 -0.066485 0.27846
0.010773 0.028158 -0.0084086 -0.0058971
0.0036431 -0.0019939 0.001374 -0.0062227 -4.0356e-05 -0.0022427 0.010833 0.02816
-0.096073 0.19122 0.0065631 0.01839
-0.0032101 -0.0019537 -0.00068846 -0.002335 0.001206 -0.00021335 -0.0084164 -0.0058886
0.0065458 0.018369 -0.13307 0.27426
1040000000 0.0020156 0.30274 0.032934 0.015372 -0.0011802 0.0065648 0.0023788 0.00055525
-3.8909e-05 -0.0030932 -0.00078914 -0.0013367
0.032886 0.015408 -0.16655 0.36237 0.027525 -0.015894 0.0013969 -0.0017437
-0.0025217 -0.0024356 -0.0016194 -0.0026332
-0.0011664 0.0065724 0.027489 -0.01599 0.16779 0.29987 -0.00067675 -0.0014296
-0.0015912 -0.00079564 -0.00048228 -0.0009421
0.0023941 0.00054795 0.0013846 -0.0017271 -0.00067698 -0.001434 -0.037418 0.2874
0.021187 0.015289 -0.0026773 0.0012923
-6.7673e-05 -0.0030959 -0.0025304 -0.0024441 -0.0015985 -0.00079499 0.021222 0.015264
-0.063867 0.19732 0.013923 0.015526
-0.00080428 -0.0013401 -0.0016222 -0.0026123 -0.00047704 -0.00094359 -0.0026758 0.0013093
0.013898 0.015518 -0.10747 0.29381
1100000000 0.047491 0.30849 0.03421 -0.0062645 0.0026326 0.003558 0.0021864 -0.0010935
-0.0021036 -0.0027999 -0.0036356 0.00051248
0.0342 -0.0062414 -0.12303 0.37827 0.013179 -0.027788 -8.3353e-05 -0.0018235
-0.0034089 -0.00050383 -0.0034128 -0.00021846
0.0026604 0.0035656 0.013114 -0.027829 0.21487 0.27725 -0.0017979 0.00024696
-0.0017896 0.00072343 -0.00090469 -0.00018028
0.0021585 -0.0010643 -0.00010035 -0.001812 -0.0018011 0.00025015 0.0041456 0.28982
0.024702 0.0018781 -0.0024816 5.3425e-05
-0.0021362 -0.0027816 -0.0034111 -0.00049277 -0.0017878 0.00072592 0.024716 0.001842
-0.044284 0.20861 0.018507 0.0057702
-0.0036359 0.00051964 -0.0034057 -0.00019919 -0.00091715 -0.00018148 -0.0024774 5.5737e-05
0.018498 0.005774 -0.060406 0.3167
1160000000 0.098123 0.30226 0.021638 -0.021792 0.0022078 -0.00033495 -5.2643e-05 -0.0020903
-0.003867 -0.00044725 -0.00052343 0.0038249
0.021621 -0.021752 -0.078587 0.38205 -0.0053409 -0.027984 -0.001664 -0.0015468
-0.0025672 0.0025829 -0.0012711 0.0018017
0.0021866 -0.00034843 -0.0054143 -0.027992 0.25711 0.24431 -0.00067943 0.0017671
-0.00030862 0.0019032 -0.00076342 0.00026522
-4.4606e-05 -0.0020702 -0.0016777 -0.0015326 -0.00068052 0.0017684 0.043523 0.28464
0.019698 -0.013004 -0.0030994 0.0044579
-0.0038705 -0.00043719 -0.0025541 0.0025883 -0.00030587 0.0018952 0.019688 -0.013032
-0.011464 0.21561 0.016658 -0.0023043
-0.00051126 0.0038215 -0.0012598 0.0018254 -0.00076594 0.00026593 -0.0030866 0.0044698
0.016644 -0.0023175 -0.013932 0.31709
1220000000 0.14292 0.28925 0.0077968 -0.029521 -0.0015916 -0.00022778 0.00013155 -0.00098347
-0.002373 0.0023234 0.0014226 0.0018155
0.0078193 -0.029495 -0.034193 0.39261 -0.017441 -0.019483 -0.0024248 0.00046303
0.00022535 0.0029103 -0.00044907 0.0018663
-0.0016006 -0.00023259 -0.017491 -0.01944 0.2955 0.2036 0.00087241 0.0017525
0.00070768 0.0011432 0.00041043 0.00049167
0.00012562 -0.00097412 -0.0024306 0.0004691 0.0008673 0.0017541 0.083848 0.2737
0.0084947 -0.01876 0.001377 0.0014975
-0.002355 0.0023314 0.00024555 0.0029166 0.00070759 0.001141 0.0084807 -0.018776
0.012854 0.22225 0.011413 -0.013654
0.0014333 0.0018149 -0.00044566 0.0018779 0.00041136 0.00049113 0.0013758 0.0014968
0.011414 -0.013648 0.02009 0.32812
1280000000 0.19153 0.26553 -0.0096656 -0.026758 -0.0015088 0.0029233 -0.0009476 -0.0019978
-0.0005826 0.0029139 0.002332 0.00079404
-0.0096324 -0.026745 0.011626 0.38257 -0.023393 -0.0070852 -0.00090408 0.001407
0.0017873 0.0015968 0.0007906 0.0017145
-0.0014927 0.0029174 -0.023417 -0.0070126 0.32443 0.15826 0.0016654 -5.7172e-05
0.0011345 0.00013029 0.00021256 0.00014374
-0.00094249 -0.0019948 -0.00089705 0.0014139 0.0016566 -4.588e-05 0.11964 0.25449
-0.0014399 -0.019708 -0.00049724 0.00047621
-0.0005858 0.0029093 0.0017955 0.0015927 0.0011372 0.00012192 -0.0014705 -0.019722
0.049028 0.22335 0.00097399 -0.015147
0.0023391 0.00078806 0.0007933 0.0017152 0.00021281 0.00014375 -0.00049507 0.00047763
0.00097702 -0.015141 0.065729 0.3254
1340000000 0.228 0.23043 -0.018343 -0.016603 0.0015005 0.0043406 -0.0017489 -0.00088952
0.0014528 0.0024854 0.0014595 -0.0014649
-0.018314 -0.016591 0.051052 0.37305 -0.020597 0.0052361 -9.1014e-05 0.002012
0.0019208 0.00051884 0.0013004 0.00061169
0.0015122 0.0043356 -0.020589 0.0053083 0.34483 0.11012 0.001205 -0.0010343
0.00056281 -0.00050157 5.9448e-05 0.0002377
-0.0017432 -0.00089197 -9.0774e-05 0.0020165 0.0011987 -0.0010354 0.15093 0.23223
-0.010623 -0.015815 0.00057917 0.0011615
0.0014742 0.0024876 0.0019136 0.00051597 0.00056317 -0.00049787 -0.010664 -0.015802
0.078689 0.21702 -0.0056535 -0.012783
0.0014608 -0.0014614 0.001314 0.00060005 6.0812e-05 0.00023959 0.0005823 0.0011659
-0.0056553 -0.012783 0.10449 0.3168
1400000000 0.25992 0.19081 -0.022621 -0.0052498 0.0054391 0.0026581 -0.0021461 0.00065222
0.0023252 0.00076609 0.0001204 -0.001358
-0.022591 -0.0052594 0.087745 0.35901 -0.013635 0.012616 0.0013558 0.0012923
0.0010897 -0.00093513 0.0010553 7.439e-05
0.0054426 0.0026423 -0.013595 0.012674 0.35716 0.05641 5.3396e-05 -0.0018657
3.0863e-05 -0.00037356 0.00035838 0.00019185
-0.0021416 0.00066094 0.0013526 0.0012932 5.1026e-05 -0.0018647 0.17904 0.20127
-0.015899 -0.0085854 -0.00028292 0.00049411
0.0023366 0.00076042 0.0010814 -0.00093583 3.1322e-05 -0.000373 -0.015919 -0.0085502
0.11086 0.21015 -0.011178 -0.0073183
0.00010981 -0.001366 0.00106 7.1683e-05 0.00036123 0.00019162 -0.00028214 0.00049616
-0.011177 -0.007323 0.14686 0.30172
1460000000 0.28125 0.14612 -0.018915 0.0060446 0.0054974 -0.0023298 -0.0015445 0.0017577
0.0019749 -0.00067846 -0.00042208 -0.00085405
-0.018911 0.0060309 0.12136 0.33637 -0.0052082 0.014875 0.0017543 0.00011073
0.00065913 -0.0012903 0.0010085 -0.00059068
0.0054994 -0.0023553 -0.0051572 0.014885 0.36175 0.0022221 -0.0015282 -0.0013053
0.00011751 -0.00018322 0.00061378 -0.00028494
-0.0015184 0.0017648 0.001756 0.00010464 -0.0015222 -0.0013009 0.20289 0.17077
-0.016403 -0.0014982 -0.00011397 0.0021102
0.0019851 -0.00067798 0.00065012 -0.0013007 0.00011904 -0.00017774 -0.016435 -0.0014574
0.13907 0.19372 -0.01206 -0.0013284
-0.00042865 -0.00085178 0.00099393 -0.00059365 0.00061953 -0.00030129 -0.00010957 0.0021347
-0.012062 -0.0013326 0.17856 0.27867
1520000000 0.29243 0.10333 -0.012819 0.010699 0.0029294 -0.0043327 0.00015498 0.0026448
0.001865 -0.0017176 -0.0010532 -1.581e-05
-0.012815 0.010679 0.15433 0.32089 0.0019381 0.012472 0.001636 -0.00088373
-7.6588e-05 -0.00097404 0.00025462 -0.00090948
0.0029104 -0.0043375 0.0019866 0.012462 0.35473 -0.053923 -0.0013287 -0.00022279
0.00050082 -0.00083056 -1.7651e-05 -0.00015123
0.0001533 0.0026365 0.0016341 -0.0008982 -0.0013312 -0.00022112 0.2237 0.13231
-0.014897 0.0042686 0.0020012 0.0017794
0.0018658 -0.0017297 -8.5248e-05 -0.00097207 0.00049885 -0.00083277 -0.014895 0.0043079
0.16652 0.17794 -0.011384 0.0030341
-0.0010555 -1.4065e-05 0.0002483 -0.00090894 -1.7346e-05 -0.0001507 0.0020086 0.0017745
-0.011384 0.0030297 0.21007 0.25507
1580000000 0.30013 0.056646 -0.0064352 0.012862 -0.0011613 -0.0047149 0.0016157 0.0018789
-0.00024012 -0.0020392 -0.00024609 0.00037719
-0.0064451 0.012846 0.18084 0.29543 0.0052155 0.0076965 0.00040488 -0.0016851
-0.00051736 -0.00088808 -0.00021707 -0.00075967
-0.0011654 -0.004707 0.0052522 0.0076771 0.33409 -0.11161 -0.0016062 0.00099331
-0.00029235 -0.0010773 0.00020747 -0.00056009
0.0016251 0.0018743 0.00040184 -0.0016748 -0.0016038 0.00098384 0.23499 0.092812
-0.010938 0.0087102 0.0025132 0.00019918
-0.00023396 -0.002048 -0.00051693 -0.00088324 -0.00029543 -0.0010839 -0.010924 0.0087375
0.18964 0.15777 -0.0085563 0.0079514
-0.00024768 0.00037921 -0.00021432 -0.00076104 0.00020653 -0.00056271 0.0025107 0.00018756
-0.0085617 0.0079497 0.23916 0.22625
1640000000 0.30067 0.014985 -0.00036165 0.011132 -0.0028286 -0.0024631 0.0028215 0.00078379
-0.00078629 -0.0014433 -0.00020563 0.00051655
-0.00037287 0.011135 0.2097 0.26996 0.0056989 0.0032488 -0.0008623 -0.0016566
-0.00093099 -0.00029201 -0.00051337 -0.00057817
-0.0028281 -0.0024485 0.0057108 0.0032213 0.30469 -0.16029 -0.00048246 0.0015729
-0.0011744 -0.00074911 -0.00019623 -0.0002506
0.0028249 0.0007736 -0.00087276 -0.0016507 -0.0004836 0.0015691 0.24482 0.04528
-0.0064357 0.0097467 0.0024285 -0.0012869
-0.0007906 -0.001425 -0.00093237 -0.00027678 -0.0011785 -0.00074761 -0.0064221 0.0097726
0.21091 0.13183 -0.0037871 0.0095506
-0.00020069 0.00052309 -0.00051787 -0.00057934 -0.00019854 -0.00025033 0.0024314 -0.0012979
-0.0037923 0.0095531 0.26282 0.19345
1700000000 0.29171 -0.030558 0.0023955 0.0081196 -0.0033963 0.00012792 0.002886 -0.0014764
-0.0019518 -0.00064712 0.0006641 0.00034154
0.0023967 0.0081098 0.22722 0.23819 0.00377 0.00044527 -0.0014966 -0.00043671
-0.0006707 0.00010123 -0.00087643 -0.0003953
-0.0033982 0.00013397 0.0037735 0.00042745 0.2616 -0.20024 0.00070063 0.0013526
-0.0017731 -0.00011821 -0.00063532 -0.00079267
0.0028742 -0.0014954 -0.0014905 -0.00042476 0.00070428 0.0013589 0.24028 -0.0028614
-0.003443 0.0099583 0.0012631 -0.0023953
-0.0019569 -0.00063633 -0.00066868 0.00010622 -0.0017713 -0.00011886 -0.0034258 0.0099732
0.22672 0.10979 0.00074158 0.0095853
0.00067267 0.00034972 -0.00087881 -0.00039162 -0.00064068 -0.00079596 0.0012639 -0.0024016
0.00074028 0.0095968 0.27708 0.15774
1760000000 0.27799 -0.078616 0.0039312 0.0049882 -0.0023183 0.00089254 0.00088452 -0.003509
-0.0013562 0.00072507 0.00039953 -0.00049495
0.0039288 0.0049844 0.25234 0.19773 0.0015908 -0.0013824 -0.0011892 0.00030642
-0.00095202 0.00078699 -0.00059259 0.00044611
-0.0023063 0.00090936 0.0015757 -0.0013918 0.21242 -0.23391 0.0012356 0.00074443
-0.0011102 0.0015123 -0.001294 -0.00021886
0.00086385 -0.0035074 -0.0011858 0.00031582 0.0012365 0.0007424 0.23027 -0.051935
-0.00023901 0.0089011 -0.00059444 -0.002562
-0.0013648 0.00073656 -0.00094625 0.00078513 -0.0010976 0.0015114 -0.00021552 0.0089071
0.23942 0.07324 0.0042759 0.006706
0.00040362 -0.00050489 -0.0005883 0.00044684 -0.001305 -0.00021331 -0.00059576 -0.0025713
0.0042712 0.0067028 0.2874 0.11912
1820000000 0.25212 -0.11517 0.0037398 0.0018925 -0.00012588 0.002509 -0.0013753 -0.0027761
-0.001048 0.0010286 -8.6162e-05 -0.00015129
0.0037308 0.0018972 0.26156 0.16773 -0.00039142 -0.0001872 -0.0011416 0.0010137
-5.3491e-05 0.0011935 -0.00051177 0.00053561
-0.00011439 0.0025058 -0.00038896 -0.00018852 0.16156 -0.24914 0.0012156 0.00012571
-8.4392e-05 0.0021112 -0.0013811 0.00056636
-0.00139 -0.0027849 -0.0011348 0.0010253 0.0012188 0.00013923 0.20091 -0.096738
0.0012976 0.0071945 -0.0017848 -0.0014336
-0.001035 0.001038 -3.803e-05 0.0012028 -7.4307e-05 0.0021033 0.0013139 0.0071941
0.25425 0.043146 0.0050925 0.003114
-9.8834e-05 -0.00014395 -0.00051231 0.00053838 -0.001371 0.00055776 -0.0017837 -0.0014283
0.0051016 0.0031131 0.2876 0.081659
1880000000 0.21578 -0.15459 0.0013577 6.3728e-05 -0.00042268 0.0021171 -0.0029207 -0.0017696
-0.00018154 0.0017521 6.7619e-05 -0.00030483
0.001362 7.0922e-05 0.26537 0.12083 -0.0024937 0.0015816 -2.4717e-06 0.0016006
0.00050846 0.0010811 0.00014185 0.00095954
-0.00040447 0.0021187 -0.0024871 0.0015966 0.10861 -0.25904 0.0014317 -0.00095899
0.0014613 0.001655 -0.00074727 0.0014647
-0.0029256 -0.0017621 -4.7758e-06 0.0016125 0.0014335 -0.0009617 0.16171 -0.13619
0.0020156 0.0049478 -0.0023726 0.00044051
-0.0001727 0.0017443 0.00051119 0.0010783 0.0014767 0.0016541 0.0020201 0.0049468
0.25469 0.0092969 0.0046535 0.00096638
6.9469e-05 -0.00030128 0.00014782 0.00095587 -0.00075301 0.0014751 -0.0023692 0.00044311
0.0046516 0.00097126 0.28502 0.04695
1940000000 0.17566 -0.17941 -0.00077196 -0.0010813 0.0015951 0.0020386 -0.0035196 0.00080769
0.0014701 0.001124 -0.00046599 -0.00043607
-0.00077359 -0.0010728 0.26485 0.089321 -0.0012521 0.0039789 0.00099719 0.0011196
0.001647 0.00051228 0.00088511 0.00043977
0.0015898 0.002033 -0.0012433 0.0039864 0.062085 -0.25184 0.00018147 -0.0016657
0.0022529 0.00036534 0.00045963 0.0016537
-0.0035141 0.00081236 0.00099764 0.001114 0.0001934 -0.0016633 0.11046 -0.1661
0.0012013 0.0034512 -0.0014776 0.0015491
0.0014603 0.0011148 0.0016501 0.00050177 0.0022496 0.00036346 0.0012126 0.0034449
0.25395 -0.030075 0.0033101 -0.0018955
-0.00047466 -0.00042625 0.00088657 0.00043449 0.00046545 0.0016508 -0.0014685 0.001553
0.0033128 -0.0018931 0.27207 0.010227
2000000000 0.12904 -0.19341 -0.0043517 0.0012103 0.0025308 0.001451 -0.002031 0.003321
0.0012825 4.1647e-05 -0.00050896 0.00042322
-0.0043483 0.0012017 0.25042 0.053844 -0.00099104 0.0059121 0.0015668 0.00020415
0.0013027 -0.0011297 0.00043991 2.8973e-06
0.0025349 0.0014338 -0.00096451 0.0059164 0.018234 -0.23673 -0.0009189 -0.00097162
0.0018902 -0.0010623 0.0017188 0.0010154
-0.0020227 0.0033226 0.0015637 0.00020078 -0.00092373 -0.00097325 0.058135 -0.17692
-0.00045278 0.0028391 2.1577e-07 0.0021743
0.001283 4.0331e-05 0.0012985 -0.0011429 0.0018899 -0.0010678 -0.00044857 0.0028339
