!Keysight Technologies,M9804A,MY58100912,A.14.10.03
!Date: Thursday, April 27, 2023 10:28:33
!Correction: S11(C  6-Port  ) 
!S12(C  6-Port  ) 
!S13(C  6-Port  ) 
!S14(C  6-Port  ) 
!S15(C  6-Port  ) 
!S16(C  6-Port  ) 
!S21(C  6-Port  ) 
!S22(C  6-Port  ) 
!S23(C  6-Port  ) 
!S24(C  6-Port  ) 
!S25(C  6-Port  ) 
!S26(C  6-Port  ) 
!S31(C  6-Port  ) 
!S32(C  6-Port  ) 
!S33(C  6-Port  ) 
!S34(C  6-Port  ) 
!S35(C  6-Port  ) 
!S36(C  6-Port  ) 
!S41(C  6-Port  ) 
!S42(C  6-Port  ) 
!S43(C  6-Port  ) 
!S44(C  6-Port  ) 
!S45(C  6-Port  ) 
!S46(C  6-Port  ) 
!S51(C  6-Port  ) 
!S52(C  6-Port  ) 
!S53(C  6-Port  ) 
!S54(C  6-Port  ) 
!S55(C  6-Port  ) 
!S56(C  6-Port  ) 
!S61(C  6-Port  ) 
!S62(C  6-Port  ) 
!S63(C  6-Port  ) 
!S64(C  6-Port  ) 
!S65(C  6-Port  ) 
!S66(C  6-Port  ) 
!S6P File: Measurement: :
# Hz S  RI   R 50
500000000 -0.33866 -0.016938 -0.010415 -0.0033427 -0.0071334 0.012218 -0.0033929 0.012174
0.011734 0.0042476 -0.0030044 0.0074425
-0.010398 -0.0033336 -0.41989 -0.035219 0.0060799 -0.011923 0.0015098 0.012158
0.0073479 0.0020848 0.0023639 0.013355
-0.0071891 0.012225 0.0060997 -0.011998 -0.26244 0.22332 0.0071569 0.0036533
-0.00082752 0.0082059 0.0023567 0.012136
-0.0033045 0.011931 0.0017302 0.012334 0.0072008 0.0036702 -0.33051 0.062712
-0.019196 -0.0066 0.015306 0.022898
0.01131 0.0043513 0.0072223 0.0022721 -0.00067484 0.0083309 -0.018881 -0.0066591
-0.23711 -0.16141 -0.023948 0.0031741
-0.0030824 0.0082142 0.0022979 0.013509 0.0024861 0.012011 0.015539 0.022194
-0.025477 0.0042048 -0.28514 -0.077937
560000000 -0.31231 0.13858 -0.026652 -0.06052 0.00079778 0.011521 0.0063224 0.0097862
0.0089386 0.0038756 0.010108 0.0077313
-0.026606 -0.060379 -0.3745 0.11931 -0.042104 -0.034481 0.013034 0.0030138
-0.012133 -0.0031812 0.0030293 -0.0019047
0.0008317 0.011487 -0.042316 -0.034363 -0.1799 0.26753 -0.00028987 -0.0043772
0.018247 0.0035897 0.0070635 -0.0063888
0.0065775 0.010142 0.012904 0.0027918 -0.0002674 -0.0043521 -0.30407 0.14872
0.00089832 -0.024417 0.003204 -0.01878
0.0088892 0.0038744 -0.012502 -0.0042973 0.019088 0.0036319 0.00024805 -0.024047
-0.28563 0.010561 0.0026782 -0.045787
0.0093313 0.0071189 0.0037497 -0.001921 0.0069098 -0.0064959 0.003437 -0.018198
0.0034531 -0.045007 -0.33023 0.061742
620000000 -0.26964 0.12424 -0.023028 0.0070662 0.004013 0.0078198 0.0074096 -0.0052792
0.010264 -0.0015537 0.0010754 -0.0024958
-0.023012 0.007078 -0.40107 0.074819 -0.019588 0.00027545 -0.0010605 -0.0023816
0.0099137 -0.0064538 0.001341 -0.0031925
0.0040367 0.0077697 -0.019602 0.00031881 -0.14898 0.27681 -0.0012543 -0.0047538
-0.0034518 -0.0027208 0.0076847 -0.0034299
0.0072541 -0.0054353 -0.0011059 -0.0023867 -0.0012563 -0.004796 -0.26217 0.16118
-0.039046 -0.017479 0.012239 0.022962
0.010991 -0.0013249 0.010186 -0.0065759 -0.0033539 -0.0026014 -0.039502 -0.017678
-0.21166 -0.026147 -0.037944 0.014732
0.00085735 -0.0026953 0.0011427 -0.003022 0.0079597 -0.0032596 0.01267 0.022821
-0.037774 0.015947 -0.25577 0.035282
680000000 -0.22691 0.20511 -0.027817 -0.012071 0.0054329 0.0045084 0.0011178 -0.0070489
-0.0029652 -0.01099 0.0037811 -0.006299
-0.027791 -0.012067 -0.38385 0.16881 -0.03227 0.0007535 -0.0015981 -0.00057215
-0.002757 -0.0088651 -0.0017375 -0.0019827
0.0054558 0.0045706 -0.03227 0.00082359 -0.098384 0.29511 -0.00092555 -0.00023589
-0.0017448 0.0003318 -0.0038157 -0.0085878
0.0010433 -0.0070155 -0.0015746 -0.00054413 -0.00094971 -0.00022941 -0.2165 0.20847
-0.025615 -0.0053517 -0.0090496 -0.0077933
-0.0033133 -0.010793 -0.0028506 -0.0087826 -0.0017846 -5.0167e-05 -0.025976 -0.0058029
-0.24921 0.069971 -0.0073431 -0.0069606
0.003525 -0.0068203 -0.0018331 -0.0021792 -0.0036314 -0.0086437 -0.0093581 -0.0077297
-0.0074197 -0.0069274 -0.25286 0.12874
740000000 -0.18373 0.19995 -0.036523 0.02598 0.011734 -0.0057116 -0.0008249 -0.0041267
-0.005515 -0.0024209 -0.0056551 0.00357
-0.036515 0.02595 -0.33244 0.18854 -0.032882 0.035051 -0.00091326 -0.0059572
-0.011046 0.0078988 -0.0021355 -0.0047661
0.011752 -0.0056949 -0.03281 0.035077 -0.064433 0.29442 -0.0017126 0.0031646
-0.0033793 -0.0040804 -0.0020614 0.0010738
-0.00080455 -0.0041624 -0.00094722 -0.0058658 -0.00176 0.0031087 -0.19865 0.21632
-0.042162 -0.0032782 0.021494 0.012028
-0.0052186 -0.0025761 -0.011042 0.0084465 -0.0033703 -0.0043827 -0.041896 -0.0031505
-0.15802 0.090374 -0.03916 0.0033158
-0.0055345 0.0033373 -0.0019296 -0.0044534 -0.001952 0.0013642 0.021484 0.011886
-0.037956 0.0032287 -0.24069 0.1383
800000000 -0.15003 0.23718 -0.021495 0.017718 0.0044208 -0.01021 -0.0044096 -0.0017352
-0.0035579 0.0030897 0.0035712 0.00054482
-0.021495 0.01768 -0.33242 0.25667 -0.0065354 0.033563 -0.0022838 0.0023122
-0.00051871 0.0038605 0.0012453 0.0053501
0.0043755 -0.010209 -0.0064653 0.033583 -0.021734 0.31644 0.00085398 0.0015051
0.00049696 0.0036356 -0.0018206 0.001306
-0.0043577 -0.0017169 -0.0022786 0.0023246 0.00087143 0.0015206 -0.16852 0.24275
-0.026672 0.015966 0.012107 -0.0098306
-0.003667 0.0029251 -0.00039382 0.0038237 0.00053705 0.0035354 -0.02669 0.016321
-0.19334 0.11759 -0.01563 0.018493
0.0037416 0.00073264 0.001116 0.0053497 -0.0018631 0.0013543 0.012251 -0.010045
-0.015514 0.018634 -0.22825 0.18336
860000000 -0.11495 0.25701 -0.015816 0.030942 -0.0038729 -0.0093816 -0.0020672 0.0012335
0.0046729 0.0045298 -0.0025501 -0.0025398
-0.015789 0.030882 -0.28472 0.29727 0.0094369 0.032876 0.00029312 0.0021112
0.0048012 0.00039893 0.0031563 0.00048929
-0.0039048 -0.0093983 0.0095225 0.032858 0.027196 0.3232 -0.00026716 -4.4451e-05
0.002503 -0.0013759 0.0016884 0.0040488
-0.0020154 0.0013253 0.00027274 0.0021026 -0.00026561 -3.807e-05 -0.13146 0.25381
-0.015321 0.020762 -0.0059397 -0.0090818
0.004781 0.0046237 0.0047256 0.00041855 0.0024821 -0.0011795 -0.015402 0.02095
-0.14132 0.16244 -0.020699 0.016313
-0.0026619 -0.002556 0.003377 0.00023404 0.0018142 0.0039798 -0.0055405 -0.0088067
-0.020996 0.016193 -0.17839 0.22283
920000000 -0.088179 0.27871 0.0063657 0.036705 -0.0091204 -0.0036762 -0.0014072 0.0019129
0.001611 0.0014334 0.0024401 -0.001737
0.0063244 0.036667 -0.25426 0.31763 0.028134 0.020001 0.0019641 0.00096919
0.0067328 -0.00076664 0.0036082 -0.0031436
-0.0091306 -0.0036659 0.028213 0.019958 0.074476 0.32276 0.0019304 -0.00011302
0.0014344 -0.00067607 0.00091568 -0.0010511
-0.0013964 0.0019381 0.0019372 0.00094591 0.0019446 -0.0001255 -0.10533 0.26939
-0.0071956 0.03065 0.0022701 -0.0063026
0.0015852 0.0014126 0.0068365 -0.00084214 0.0014692 -0.00064389 -0.0071856 0.030788
-0.12774 0.16828 -0.00038695 0.025554
0.0023577 -0.0018011 0.0036527 -0.0029166 0.00094482 -0.0011079 0.0022825 -0.0059828
-0.00033731 0.025208 -0.17661 0.23771
980000000 -0.041031 0.29643 0.018696 0.028419 -0.0082489 0.004857 0.0020548 0.003152
0.003834 -0.001808 -0.0030959 -0.0020751
0.018685 0.0284 -0.20223 0.34993 0.032231 0.0030109 0.0020312 -0.00023388
0.0013314 -0.0061141 -0.00056574 -0.0022725
-0.0082453 0.004871 0.032257 0.0029552 0.12123 0.31481 0.00045229 -0.0012966
5.2717e-05 -0.0021725 0.0013743 -0.00034851
0.002049 0.0031805 0.0020114 -0.00027203 0.00045005 -0.001299 -0.066302 0.27884
0.010859 0.027987 -0.0083566 -0.0062297
0.0038547 -0.0018952 0.001453 -0.0061574 0.00010209 -0.0021881 0.011026 0.027971
-0.095457 0.19252 0.006247 0.018121
-0.0030201 -0.0020567 -0.00053222 -0.0023197 0.0014938 -0.0002552 -0.0085033 -0.0060952
0.0063302 0.018033 -0.13328 0.27573
1040000000 0.0024398 0.30333 0.032901 0.015651 -0.00094211 0.006649 0.002477 0.00040938
1.5615e-05 -0.0031578 -0.00068724 -0.001351
0.03287 0.015628 -0.16595 0.36256 0.027421 -0.015749 0.0014024 -0.0017427
-0.0024697 -0.0023653 -0.0015765 -0.0026234
-0.00093562 0.0066149 0.027417 -0.01582 0.168 0.2996 -0.00058251 -0.0014535
-0.0015683 -0.00092666 -0.00035401 -0.0011286
0.0025144 0.00041417 0.0013571 -0.0017821 -0.00059128 -0.0014522 -0.037241 0.28732
0.02083 0.015324 -0.0026942 0.0013405
4.2994e-06 -0.0031976 -0.0025024 -0.0023689 -0.0016036 -0.00088669 0.020836 0.015181
-0.063587 0.19811 0.013821 0.015767
-0.00063844 -0.0013555 -0.0016622 -0.002634 -0.00044643 -0.0011326 -0.0026067 0.0012966
0.013725 0.015896 -0.10656 0.29456
1100000000 0.047831 0.30918 0.034302 -0.0059857 0.0027847 0.0035694 0.0022211 -0.0010838
-0.0020355 -0.0026106 -0.0034383 0.00054777
0.034293 -0.0059526 -0.12256 0.37855 0.013278 -0.027451 -9.1959e-05 -0.0017305
-0.0033119 -0.00036129 -0.0032629 -0.00019534
0.0027744 0.0035602 0.013202 -0.027489 0.21448 0.2773 -0.001812 0.0002322
-0.0018253 0.00064857 -0.00092788 -0.00021512
0.0022138 -0.0010888 -0.00010292 -0.0017159 -0.0018163 0.00022572 0.0040589 0.28995
0.024288 0.0021281 -0.0024268 0.00030461
-0.0020925 -0.0026608 -0.0033769 -0.00040996 -0.0017499 0.00066592 0.0243 0.0020981
-0.04389 0.20937 0.018501 0.0060349
-0.0034776 0.00048498 -0.0032061 -0.00018728 -0.00094733 -0.00023138 -0.0024687 0.00025907
0.018611 0.0059573 -0.059658 0.31739
1160000000 0.098951 0.30272 0.021894 -0.021455 0.0023184 -0.00041799 -9.0995e-05 -0.0021053
-0.003903 -0.00033588 -0.00057204 0.0036877
0.021923 -0.021436 -0.07783 0.38221 -0.0050796 -0.027781 -0.0016774 -0.0014196
-0.0024984 0.0024864 -0.0012631 0.001764
0.0023133 -0.00044492 -0.0051572 -0.027768 0.25701 0.24471 -0.0007205 0.0017851
-0.00041226 0.0018616 -0.00078434 0.00016359
-0.00013138 -0.00211 -0.0017053 -0.0014465 -0.00072474 0.0017877 0.043879 0.28467
0.019669 -0.012612 -0.0027382 0.0044099
-0.0039441 -0.00035825 -0.0025513 0.0025181 -0.00039798 0.00187 0.019676 -0.012681
-0.010362 0.21635 0.016799 -0.0023528
-0.00067341 0.0037124 -0.0012972 0.001734 -0.00090348 0.0001529 -0.0027919 0.0044382
0.016803 -0.0022645 -0.012924 0.31745
1220000000 0.1436 0.28922 0.0081967 -0.029329 -0.0015468 -0.00044448 6.4446e-05 -0.00094342
-0.0024114 0.002306 0.0013484 0.0017673
0.0082242 -0.0293 -0.03377 0.3923 -0.01711 -0.019476 -0.0023846 0.00050811
0.00019182 0.0027923 -0.0005028 0.0018231
-0.0015571 -0.00042287 -0.017191 -0.019414 0.29536 0.20405 0.00084896 0.0017769
0.00064491 0.001175 0.00040287 0.00045373
7.023e-05 -0.00092504 -0.0023873 0.00051062 0.00084822 0.0017819 0.083881 0.27355
0.0087248 -0.018238 0.0015185 0.0013791
-0.0023474 0.0023476 0.00022728 0.0028042 0.00065931 0.0011857 0.0086928 -0.018298
0.013633 0.22269 0.011504 -0.013556
0.0013329 0.0017621 -0.0004453 0.0018446 0.000395 0.00046454 0.0015927 0.0013995
0.011287 -0.01353 0.020746 0.32832
1280000000 0.19222 0.26549 -0.0091089 -0.026776 -0.0014568 0.0027207 -0.00098274 -0.0019534
-0.00048915 0.0028506 0.0023218 0.00080636
-0.00908 -0.026758 0.011796 0.38246 -0.023046 -0.0072295 -0.00093486 0.0013975
0.0017334 0.0015689 0.00074984 0.0017371
-0.0014429 0.0027233 -0.023077 -0.0071545 0.32463 0.15918 0.0015862 -4.7431e-05
0.0011008 0.00017506 0.00019982 0.00025209
-0.0009832 -0.0019378 -0.00093419 0.0014036 0.0015728 -4.5695e-05 0.11969 0.2546
-0.0011013 -0.019404 -0.00050968 0.00044169
-0.00055513 0.0028912 0.0017032 0.0015464 0.0010735 0.00017213 -0.0010661 -0.019422
0.049891 0.22378 0.0010975 -0.014911
0.0023037 0.00077922 0.00072775 0.0017365 0.00017421 0.00024502 -0.00048947 0.00041895
0.0010694 -0.014877 0.066519 0.3259
1340000000 0.22874 0.22999 -0.017864 -0.017009 0.0013527 0.0041503 -0.0017586 -0.00085865
0.0014526 0.0024712 0.0013769 -0.0013876
-0.017827 -0.01699 0.05116 0.37286 -0.020461 0.004915 -0.00011611 0.0019872
0.0018545 0.000645 0.0012766 0.00064016
0.0013578 0.004142 -0.020469 0.0050016 0.34556 0.11053 0.0011346 -0.00097437
0.0005812 -0.00046975 5.5547e-05 0.00026944
-0.0017544 -0.00083665 -0.00012793 0.0019714 0.0011308 -0.00097163 0.15107 0.23212
-0.0099924 -0.015861 0.00061923 0.0009945
0.0014076 0.002429 0.0018756 0.00061085 0.00056693 -0.00048855 -0.010011 -0.015796
0.079889 0.21691 -0.0053653 -0.012596
0.001349 -0.0014244 0.0013059 0.00061348 7.9564e-05 0.00021243 0.00064543 0.0010407
-0.0052873 -0.012594 0.10536 0.31689
1400000000 0.26002 0.1904 -0.022407 -0.0058385 0.0051799 0.002607 -0.0020608 0.00061823
0.0022271 0.00071237 8.7234e-05 -0.0013629
-0.022379 -0.0058474 0.087499 0.35905 -0.013693 0.012296 0.0012961 0.001289
0.001079 -0.0008447 0.001043 7.8168e-05
0.0051612 0.0025758 -0.013656 0.012361 0.35782 0.05662 0.00015984 -0.0018379
5.5084e-05 -0.00040601 0.00032821 0.00017986
-0.0020699 0.00064731 0.0013034 0.0012974 0.00015454 -0.0018256 0.17876 0.20143
-0.015393 -0.0088686 -0.00033095 0.00044398
0.0022986 0.00069177 0.0011183 -0.00086625 7.3997e-05 -0.00037095 -0.015423 -0.008877
0.1115 0.2101 -0.010884 -0.0073315
6.722e-05 -0.0013717 0.0010576 4.2186e-05 0.00036465 0.00017079 -0.0003301 0.00043628
-0.010844 -0.0074032 0.14745 0.30195
1460000000 0.28145 0.14583 -0.019097 0.0053863 0.0053501 -0.0022354 -0.0015155 0.0016974
0.0018774 -0.00062014 -0.00039857 -0.00087794
-0.019084 0.0053712 0.12142 0.33666 -0.0054639 0.014618 0.0017216 0.00016618
0.00076396 -0.0012561 0.0010135 -0.00054365
0.005357 -0.0022582 -0.0054158 0.014637 0.36267 0.0021829 -0.0014623 -0.0012658
0.00017441 -0.00019151 0.00060122 -0.00026922
-0.0015164 0.0016906 0.0017361 0.00015379 -0.0014802 -0.001292 0.20302 0.17106
-0.016143 -0.0020793 -0.00021972 0.0020411
0.0018953 -0.00061595 0.00072804 -0.0012392 0.00014793 -0.00016002 -0.016126 -0.0020118
0.14005 0.19355 -0.011812 -0.0015417
-0.00036081 -0.00085271 0.0010231 -0.00058917 0.0006011 -0.00034488 -0.00024104 0.0020909
-0.011818 -0.0016046 0.17949 0.27882
1520000000 0.2923 0.10303 -0.013302 0.010303 0.0027991 -0.004132 9.2042e-05 0.0025675
0.0018165 -0.0016277 -0.0010545 -4.8115e-05
-0.013307 0.010285 0.15442 0.32104 0.001633 0.012426 0.0016475 -0.00086321
-1.4407e-05 -0.00098698 0.0002586 -0.00086687
0.0027644 -0.0041286 0.0016861 0.012425 0.35512 -0.054496 -0.001278 -0.00025884
0.0004898 -0.00084743 8.3106e-07 -7.6381e-05
9.7755e-05 0.0025739 0.00165 -0.00086846 -0.0012875 -0.00024667 0.22376 0.13242
-0.014978 0.0035155 0.0019167 0.0018017
0.0018119 -0.0016523 -4.3375e-05 -0.0010145 0.00047611 -0.0008802 -0.014996 0.0035854
0.16722 0.17738 -0.011326 0.0027311
-0.0010834 -1.9089e-05 0.00024175 -0.00089533 -1.3625e-05 -0.00011371 0.0019203 0.0018079
-0.0113 0.0027518 0.21102 0.25482
1580000000 0.30005 0.056827 -0.0070436 0.012714 -0.0011273 -0.0045238 0.0015186 0.0018537
-0.00026648 -0.0019855 -0.00025798 0.00039864
-0.0070572 0.012702 0.18111 0.29585 0.0049635 0.0077769 0.00041286 -0.0016637
-0.00058333 -0.00095573 -0.00022023 -0.00076713
-0.0011438 -0.0045175 0.0050102 0.0077559 0.33422 -0.1119 -0.0016185 0.00091923
-0.00031166 -0.0010734 0.00014398 -0.00058004
0.0015224 0.0018397 0.00040305 -0.0016782 -0.0016016 0.0009164 0.23524 0.093262
-0.011458 0.0082258 0.0023919 0.00020557
-0.00024717 -0.0019793 -0.00057968 -0.00095439 -0.00027732 -0.0010714 -0.011438 0.0082522
0.19005 0.15748 -0.0086168 0.0076158
-0.00023483 0.0004004 -0.00021575 -0.0007527 0.00016361 -0.00050343 0.0024234 0.0002208
-0.0086428 0.0076619 0.24006 0.22621
1640000000 0.30087 0.01494 -0.00094428 0.01137 -0.0026997 -0.0023031 0.0026601 0.00088085
-0.00079382 -0.0014273 -0.00019048 0.00055528
-0.00094084 0.011362 0.21028 0.27005 0.0055313 0.0034126 -0.00085021 -0.0016294
-0.0010325 -0.00030388 -0.0004992 -0.0005271
-0.0027153 -0.0023084 0.0055645 0.0033794 0.3047 -0.16079 -0.0005778 0.0016228
-0.0011762 -0.00069844 -0.00013524 -0.00016632
0.0026711 0.00087432 -0.00086794 -0.0016231 -0.00061033 0.0016284 0.24544 0.045354
-0.0071235 0.0097163 0.0023677 -0.0012236
-0.00077338 -0.0014445 -0.0010305 -0.00029153 -0.0011398 -0.00073774 -0.0071067 0.0097299
0.21137 0.13143 -0.0039914 0.0093468
-0.00017176 0.00057927 -0.00049643 -0.00052799 -0.00013172 -0.00019773 0.0023259 -0.0012438
-0.0039723 0.0093141 0.2638 0.19295
1700000000 0.29185 -0.030509 0.0020473 0.0086535 -0.0032575 0.00030805 0.0029027 -0.0013151
-0.0019245 -0.00067234 0.0007067 0.00029997
0.0020401 0.0086433 0.22761 0.23816 0.0037263 0.00068472 -0.0014856 -0.00045392
-0.00072506 0.00016724 -0.00083322 -0.00037989
-0.0032686 0.00033409 0.0037233 0.00066402 0.2613 -0.20046 0.00069997 0.0014248
-0.0017261 -0.00019957 -0.00062037 -0.00072564
0.0029058 -0.0013385 -0.0014876 -0.00045816 0.00071284 0.0014057 0.24069 -0.0029848
-0.0040096 0.010208 0.0012105 -0.0022585
-0.0019451 -0.00064075 -0.00074516 0.00016273 -0.0017329 -0.00018665 -0.0039934 0.01025
0.22682 0.10952 0.00042482 0.0094386
0.00068784 0.00037027 -0.00085709 -0.00035006 -0.00061344 -0.00074113 0.0011838 -0.0023064
0.00043902 0.0095157 0.27756 0.15715
1760000000 0.27849 -0.078706 0.0039758 0.0055532 -0.002133 0.00089479 0.00098052 -0.0034526
-0.0013935 0.00068018 0.00040114 -0.00048048
0.0039521 0.005557 0.25295 0.19763 0.0016058 -0.0011749 -0.0011371 0.00030261
-0.00088439 0.00087779 -0.00056322 0.00045051
-0.0021413 0.00091775 0.0015733 -0.0011831 0.21239 -0.23398 0.0013478 0.00084156
-0.0010101 0.001659 -0.0011956 -0.00033433
0.00095915 -0.0034557 -0.0011509 0.00030375 0.0013471 0.00079837 0.23086 -0.052225
-0.00052904 0.0094773 -0.00055199 -0.002377
-0.0014149 0.00069924 -0.000904 0.00087763 -0.0010289 0.0016545 -0.00050307 0.0094879
0.23974 0.073231 0.0039455 0.0067726
0.00047814 -0.00049523 -0.00055546 0.00046516 -0.0011629 -0.00037026 -0.00051798 -0.0023996
0.0039791 0.0067282 0.28809 0.11847
1820000000 0.25219 -0.11561 0.003985 0.0022801 9.8005e-05 0.0024088 -0.0012117 -0.00284
-0.0010201 0.0010884 -2.9872e-05 -0.0001336
0.0039946 0.0022852 0.26192 0.16722 -0.0002274 5.1769e-05 -0.0011445 0.00097923
2.7723e-05 0.0012484 -0.00046038 0.00055284
0.00010454 0.0023991 -0.00024087 6.4536e-05 0.16121 -0.24911 0.0013216 3.1746e-06
-7.4213e-05 0.0021142 -0.0013194 0.00058309
-0.0012281 -0.0028416 -0.0011105 0.00097601 0.0013108 -6.6381e-06 0.20101 -0.097512
0.0014027 0.0076159 -0.0016338 -0.0013532
-0.0010162 0.0010534 4.3542e-05 0.001256 -7.6822e-05 0.0021791 0.0014318 0.0076027
0.25458 0.042876 0.004849 0.0033041
-7.6575e-05 -6.3564e-05 -0.00050702 0.00057399 -0.0012339 0.0006185 -0.0015717 -0.0013203
0.0048869 0.0033829 0.28774 0.080754
1880000000 0.21564 -0.15489 0.0017261 0.0002741 -0.00029649 0.0018702 -0.0029401 -0.0018595
-0.00023524 0.0017373 0.00019898 -0.00041306
0.0017278 0.00027891 0.26555 0.12049 -0.0022703 0.0016352 -3.2699e-05 0.0016272
0.0006262 0.001028 0.0001779 0.00085781
-0.00029605 0.0019074 -0.0022643 0.0016664 0.10842 -0.25867 0.0013166 -0.00099484
0.0015533 0.0015441 -0.00082466 0.0012803
-0.0029253 -0.0017945 -3.4853e-05 0.0016296 0.0013542 -0.0010063 0.16147 -0.13657
0.0022537 0.0052416 -0.0022005 0.00037378
-0.00021969 0.0017193 0.0006236 0.0010064 0.0015261 0.0015406 0.0022495 0.005193
0.25507 0.009371 0.0045563 0.0012043
0.00023625 -0.00039674 0.00021063 0.0009043 -0.00071796 0.0013018 -0.0021466 0.00038787
0.0044962 0.0012603 0.28506 0.046552
1940000000 0.17572 -0.17982 -0.0003978 -0.0010521 0.001554 0.0018713 -0.0034338 0.0007695
0.0014879 0.0010815 -0.00061927 -0.00050337
-0.00041126 -0.0010476 0.26504 0.088712 -0.0010517 0.003982 0.00096875 0.0011374
0.0016054 0.00035658 0.0008313 0.00036744
0.0014984 0.0018398 -0.0010379 0.0039843 0.062126 -0.2515 0.00012621 -0.0016312
0.0022624 0.00025218 0.00047751 0.0014667
-0.0033845 0.00079561 0.00095835 0.0011668 7.72e-05 -0.0016051 0.11015 -0.16675
0.0014359 0.0034067 -0.0015111 0.0015191
0.0014995 0.0011321 0.0015754 0.00037372 0.0022367 0.00027665 0.0015054 0.0034386
0.25462 -0.030475 0.0032175 -0.0015876
-0.00071969 -0.00047262 0.00079218 0.00030904 0.00045571 0.0015608 -0.0014783 0.0014973
0.0032362 -0.0015741 0.27226 0.0098657
2000000000 0.1287 -0.19351 -0.0040162 0.0010794 0.0023624 0.0014713 -0.0021088 0.0034155
0.0012471 -1.6175e-05 -0.00055301 0.00042344
-0.0040072 0.00105 0.25011 0.053268 -0.00087692 0.0056043 0.00149 0.00027079
0.0012506 -0.0011588 0.00048869 1.4274e-05
0.0023464 0.0013973 -0.00084043 0.0056243 0.018276 -0.23654 -0.0010511 -0.00087968
0.001771 -0.0010678 0.0016639 0.0010715
-0.0021378 0.0034633 0.0014964 0.00023298 -0.0010537 -0.00092881 0.057548 -0.17693
-0.00027651 0.0029841 1.1356e-05 0.002137
0.0012194 1.1506e-05 0.001238 -0.0011856 0.0017943 -0.0011161 -0.00021989 0.0029962
0.24598 -0.064452 0.00022813 -0.0025702
