!Keysight Technologies,M9804A,MY58100912,A.14.10.03
!Date: Thursday, April 27, 2023 10:28:33
!Correction: S11(C  6-Port  ) 
!S12(C  6-Port  ) 
!S13(C  6-Port  ) 
!S14(C  6-Port  ) 
!S15(C  6-Port  ) 
!S16(C  6-Port  ) 
!S21(C  6-Port  ) 
!S22(C  6-Port  ) 
!S23(C  6-Port  ) 
!S24(C  6-Port  ) 
!S25(C  6-Port  ) 
!S26(C  6-Port  ) 
!S31(C  6-Port  ) 
!S32(C  6-Port  ) 
!S33(C  6-Port  ) 
!S34(C  6-Port  ) 
!S35(C  6-Port  ) 
!S36(C  6-Port  ) 
!S41(C  6-Port  ) 
!S42(C  6-Port  ) 
!S43(C  6-Port  ) 
!S44(C  6-Port  ) 
!S45(C  6-Port  ) 
!S46(C  6-Port  ) 
!S51(C  6-Port  ) 
!S52(C  6-Port  ) 
!S53(C  6-Port  ) 
!S54(C  6-Port  ) 
!S55(C  6-Port  ) 
!S56(C  6-Port  ) 
!S61(C  6-Port  ) 
!S62(C  6-Port  ) 
!S63(C  6-Port  ) 
!S64(C  6-Port  ) 
!S65(C  6-Port  ) 
!S66(C  6-Port  ) 
!S6P File: Measurement: :
# Hz S  RI   R 50
500000000 -0.33953 -0.016942 -0.010983 -0.0031733 -0.0070823 0.012775 -0.0031849 0.012358
0.010593 0.0038299 -0.002784 0.0093669
-0.010987 -0.0031663 -0.41993 -0.036023 0.0059309 -0.011669 0.0016975 0.01251
0.0063633 0.0022367 0.0023725 0.0139
-0.0070655 0.01278 0.0059196 -0.011682 -0.26342 0.22375 0.0071228 0.0041868
-0.0012819 0.0085712 0.0028232 0.012772
-0.0031742 0.012361 0.00171 0.012519 0.0071189 0.0041912 -0.33118 0.063017
-0.019482 -0.0069275 0.014583 0.023638
0.010618 0.0037992 0.0063573 0.0022349 -0.0012826 0.0085878 -0.019488 -0.0069095
-0.23788 -0.16337 -0.02564 0.0031972
-0.0027711 0.0093684 0.0023902 0.013883 0.0028303 0.012752 0.014566 0.023648
-0.025647 0.0032036 -0.28628 -0.077473
560000000 -0.31209 0.13811 -0.027109 -0.06002 0.00093244 0.011971 0.0055079 0.0097205
0.0086158 0.0044372 0.010916 0.0071579
-0.027079 -0.059978 -0.3764 0.11916 -0.043161 -0.033755 0.013522 0.0031536
-0.011726 -0.0034913 0.0019191 -0.00079464
0.00095123 0.011953 -0.043258 -0.033706 -0.18112 0.26917 0.00029195 -0.0042515
0.019048 0.0030996 0.0050967 -0.0059445
0.0055422 0.009722 0.013568 0.0030847 0.00029628 -0.0042394 -0.30413 0.14916
-0.00040574 -0.023826 0.0036471 -0.017978
0.0086351 0.0044006 -0.0118 -0.003475 0.019057 0.003062 -0.00042383 -0.023808
-0.28867 0.0099834 0.0035687 -0.045856
0.010929 0.0071655 0.0019282 -0.00082078 0.0050972 -0.0059256 0.0036347 -0.017988
0.0035816 -0.045865 -0.33268 0.058625
620000000 -0.26984 0.12454 -0.023241 0.0076708 0.0044389 0.0083001 0.0074702 -0.0055946
0.011437 -0.001557 0.00073444 -0.0030677
-0.023232 0.0076546 -0.40142 0.074407 -0.019427 0.00070668 -0.00073781 -0.0021667
0.010113 -0.0066009 0.0017477 -0.002891
0.0044688 0.0082855 -0.019452 0.00074243 -0.14878 0.27801 -0.00097308 -0.0047063
-0.003509 -0.0030918 0.008008 -0.0036528
0.0074515 -0.0055721 -0.00074742 -0.0021832 -0.00096342 -0.0047125 -0.26288 0.16102
-0.039238 -0.017794 0.011467 0.023053
0.011403 -0.001617 0.010126 -0.0066152 -0.0034951 -0.0030802 -0.039262 -0.01776
-0.2114 -0.026797 -0.038478 0.014901
0.00071324 -0.0030884 0.0017637 -0.0028859 0.0080189 -0.0036157 0.011488 0.023052
-0.038501 0.014879 -0.25769 0.032823
680000000 -0.22722 0.20633 -0.027881 -0.011348 0.0056635 0.0044693 0.0013318 -0.0071954
-0.0027328 -0.011198 0.0039382 -0.0071047
-0.027858 -0.011369 -0.38402 0.16885 -0.032066 0.00084159 -0.0013952 -0.00067002
-0.0023431 -0.0090318 -0.0014564 -0.0023437
0.0056571 0.0044424 -0.032074 0.00089843 -0.097664 0.29577 -0.00090997 -0.00053221
-0.0016681 -0.00016919 -0.0037245 -0.0086565
0.001325 -0.0072019 -0.001396 -0.0006564 -0.00090761 -0.00053677 -0.21625 0.2077
-0.025801 -0.0052658 -0.0089136 -0.0080432
-0.0027241 -0.011204 -0.0023566 -0.0090262 -0.0016699 -0.00017146 -0.025823 -0.0052475
-0.25011 0.069146 -0.007792 -0.0063308
0.0039231 -0.0071369 -0.0014713 -0.0023356 -0.0037393 -0.0086707 -0.0089041 -0.0080514
-0.0077795 -0.006326 -0.25385 0.12748
740000000 -0.18325 0.20077 -0.035974 0.026538 0.012069 -0.0059193 -0.00087154 -0.0040916
-0.0055502 -0.0029636 -0.0060099 0.0031305
-0.035976 0.026491 -0.33214 0.18795 -0.032459 0.035056 -0.0011539 -0.0059843
-0.011768 0.0080384 -0.0019974 -0.0046432
0.012038 -0.0059468 -0.032395 0.035151 -0.06378 0.29444 -0.0019677 0.0030676
-0.0036681 -0.0047149 -0.0021724 0.0014198
-0.00087294 -0.0040815 -0.0011672 -0.0059864 -0.0019634 0.0030746 -0.19837 0.21679
-0.04227 -0.0028682 0.022055 0.012252
-0.0055423 -0.0029277 -0.011758 0.0080624 -0.0036597 -0.004744 -0.042312 -0.0028196
-0.1569 0.090554 -0.038305 0.0039592
-0.0060181 0.0031499 -0.0019962 -0.00461 -0.0021656 0.0014198 0.022075 0.012237
-0.0383 0.0039225 -0.24149 0.13709
800000000 -0.14948 0.23784 -0.021135 0.017783 0.0045227 -0.010402 -0.0043427 -0.0014544
-0.0039931 0.0030004 0.0036977 0.00077898
-0.021131 0.017766 -0.33239 0.25599 -0.0064657 0.033627 -0.0023066 0.0023681
-0.0010129 0.0035517 0.00097608 0.0053244
0.0045013 -0.010412 -0.0064016 0.033649 -0.021405 0.3162 0.00084573 0.0016874
0.0004166 0.0036467 -0.0017742 0.0012632
-0.0043341 -0.0014574 -0.0023161 0.0023848 0.00085157 0.0016902 -0.16847 0.24292
-0.02664 0.016624 0.012633 -0.0099419
-0.0039834 0.0030102 -0.00099729 0.0035494 0.00041195 0.0036451 -0.026645 0.016684
-0.19383 0.11748 -0.015183 0.019357
0.0037269 0.00077077 0.00098613 0.0053388 -0.0017727 0.0012579 0.012645 -0.0099613
-0.015192 0.019338 -0.228 0.18255
860000000 -0.11424 0.25728 -0.01528 0.030834 -0.0038116 -0.0095878 -0.0020263 0.001367
0.0046623 0.0049526 -0.0025584 -0.0021643
-0.015292 0.030804 -0.28455 0.29664 0.0096443 0.033038 0.00033193 0.0022432
0.0049077 0.00067428 0.0035256 0.00065582
-0.0038237 -0.0095834 0.009723 0.033027 0.027067 0.32304 -0.00029501 2.034e-05
0.0026713 -0.0012053 0.0019667 0.0040197
-0.0020288 0.0013801 0.00031797 0.0022467 -0.00029283 1.7774e-05 -0.13167 0.25335
-0.014667 0.020847 -0.0051598 -0.0091794
0.0047119 0.0049419 0.0049154 0.00066923 0.0026977 -0.0011884 -0.014654 0.020891
-0.14065 0.16204 -0.020581 0.016834
-0.0025625 -0.0021751 0.0035388 0.00063944 0.0019553 0.0040062 -0.0051663 -0.0091838
-0.020584 0.016813 -0.17918 0.22176
920000000 -0.087432 0.27818 0.0068761 0.036379 -0.0092645 -0.0040107 -0.0012448 0.0016494
0.0019763 0.001164 0.0027633 -0.0019576
0.0068548 0.036348 -0.25446 0.31687 0.028497 0.019875 0.0018883 0.0009263
0.0073919 -0.00086839 0.0036435 -0.0031472
-0.0092643 -0.0039951 0.028555 0.019828 0.074378 0.3229 0.0019856 -0.00019106
0.0016488 -0.00092308 0.00075145 -0.001294
-0.0012352 0.0016508 0.0018758 0.00091756 0.001986 -0.00019198 -0.10552 0.26909
-0.0068918 0.030518 0.0024319 -0.0064644
0.0019882 0.001163 0.0073822 -0.00089303 0.0016466 -0.00091234 -0.0068493 0.030552
-0.12766 0.16656 -0.00038481 0.025331
0.0027604 -0.0019722 0.003612 -0.0031814 0.00074475 -0.0012946 0.0024308 -0.0064616
-0.00040784 0.025324 -0.17795 0.23717
980000000 -0.040588 0.29565 0.018928 0.027927 -0.0085561 0.0046354 0.0019377 0.0027346
0.0037139 -0.0021548 -0.0032189 -0.0019472
0.018888 0.027896 -0.20262 0.34924 0.032683 0.0028351 0.0020585 -0.00037378
0.0014369 -0.006363 -0.00067175 -0.0023483
-0.0085275 0.0046537 0.032688 0.0027499 0.12125 0.31522 0.00038966 -0.0013744
2.7706e-06 -0.0023449 0.0012581 -0.00027118
0.0019412 0.0027377 0.0020552 -0.00040196 0.00040041 -0.0013797 -0.06667 0.27858
0.010972 0.02828 -0.0083709 -0.0059526
0.0037109 -0.0021516 0.0014076 -0.0063793 5.9078e-06 -0.0023521 0.011031 0.028272
-0.096075 0.1919 0.0068299 0.018422
-0.0032162 -0.0019465 -0.00068527 -0.0023695 0.0012627 -0.00027925 -0.0083697 -0.0059463
0.0068128 0.018413 -0.13337 0.27421
1040000000 0.0025223 0.30267 0.03298 0.015256 -0.0012502 0.0066325 0.0022609 0.00051074
-0.00017428 -0.0031739 -0.00093334 -0.0014661
0.032922 0.015261 -0.1667 0.36228 0.027703 -0.016107 0.001274 -0.0017453
-0.002488 -0.002679 -0.0016638 -0.002818
-0.0012191 0.0066308 0.027652 -0.016171 0.16831 0.30023 -0.00071006 -0.0014325
-0.0017225 -0.0008158 -0.0006479 -0.0010181
0.0022699 0.00051024 0.0012583 -0.0017521 -0.00070012 -0.0014352 -0.037331 0.2876
0.021449 0.015504 -0.0028518 0.0011473
-0.00017111 -0.0031655 -0.0025276 -0.0026839 -0.0017208 -0.00080475 0.021481 0.015469
-0.063678 0.19757 0.014087 0.015483
-0.0009207 -0.001453 -0.0016939 -0.0028158 -0.00064803 -0.0010202 -0.0028572 0.001143
0.014084 0.015491 -0.10758 0.29347
1100000000 0.047565 0.30854 0.034276 -0.0063816 0.0026252 0.0035835 0.0021977 -0.0010148
-0.002149 -0.0027276 -0.0036367 0.00057427
0.034247 -0.006357 -0.12346 0.37846 0.013262 -0.028112 -7.6942e-05 -0.0017816
-0.0035765 -0.00043067 -0.003313 -0.00016255
0.0026427 0.0035797 0.013178 -0.028159 0.21533 0.27769 -0.0018271 0.00028396
-0.0018312 0.00073201 -0.00098213 -9.4924e-05
0.0021925 -0.0010157 -8.793e-05 -0.0017856 -0.0018328 0.0002875 0.0039656 0.29017
0.025046 0.001796 -0.0025186 6.404e-05
-0.0021643 -0.0027101 -0.0035943 -0.00041891 -0.0018421 0.00072929 0.025061 0.0017584
-0.044431 0.20896 0.018845 0.0056829
-0.0036399 0.00058539 -0.0033174 -0.00014899 -0.00097809 -9.521e-05 -0.0025259 6.8978e-05
0.018835 0.005685 -0.061003 0.31657
1160000000 0.098396 0.30234 0.021696 -0.022059 0.0021361 -0.00028751 -7.2334e-05 -0.0019834
-0.0039684 -0.00048596 -0.00067572 0.0038316
0.021687 -0.022019 -0.078609 0.38247 -0.0055833 -0.028261 -0.0016839 -0.0014765
-0.002649 0.0026148 -0.00145 0.0019218
0.0021409 -0.00028968 -0.0056868 -0.028249 0.25818 0.24448 -0.00069298 0.0017988
-0.00038512 0.0020705 -0.00076647 0.00032339
-8.1467e-05 -0.0019814 -0.0016976 -0.0014843 -0.00070039 0.0017983 0.043827 0.28505
0.020071 -0.013468 -0.0030728 0.004289
-0.0039696 -0.00045891 -0.0026626 0.0026185 -0.00039206 0.0020774 0.020065 -0.013517
-0.010916 0.21558 0.017139 -0.0025611
-0.00065827 0.0038265 -0.0014608 0.0019127 -0.00076853 0.00033301 -0.0030713 0.0043046
0.017133 -0.0025406 -0.013835 0.3174
1220000000 0.143 0.28925 0.0076056 -0.029742 -0.0016777 -0.00014184 0.00016906 -0.00096887
-0.0023747 0.002262 0.00142 0.0018748
0.0076184 -0.029714 -0.034259 0.39296 -0.017765 -0.019593 -0.002451 0.00049431
0.00023246 0.0029908 -0.00048702 0.0019879
-0.0016796 -0.0001378 -0.017843 -0.019544 0.29625 0.20305 0.00090491 0.0018659
0.00070141 0.0012016 0.00040103 0.00048342
0.00017059 -0.00096223 -0.0024507 0.00049211 0.00089806 0.0018677 0.084167 0.27378
0.008545 -0.019308 0.0013209 0.0014944
-0.0023619 0.0022854 0.00024503 0.0029863 0.00069774 0.0012016 0.0085266 -0.019327
0.012824 0.22225 0.011545 -0.014076
0.0014314 0.0018734 -0.00047518 0.0019859 0.00039947 0.00048446 0.001323 0.0014925
0.011541 -0.014065 0.019707 0.32814
1280000000 0.19177 0.26577 -0.010016 -0.026898 -0.0014747 0.0030912 -0.00092815 -0.0020007
-0.00062733 0.0029733 0.0024549 0.00079966
-0.0099988 -0.026877 0.011868 0.38325 -0.02371 -0.0069268 -0.00089564 0.0015104
0.00191 0.0016814 0.00085217 0.0017228
-0.0014634 0.003089 -0.023748 -0.0068512 0.32468 0.1578 0.0016739 1.0052e-05
0.0011684 0.00020406 0.0002758 0.00018458
-0.00092369 -0.001989 -0.00088613 0.0015108 0.0016647 8.0992e-06 0.12001 0.25471
-0.001751 -0.020277 -0.00063173 0.00053733
-0.00061769 0.0029765 0.0019188 0.0016793 0.0011675 0.00020435 -0.0017932 -0.020279
0.049088 0.22371 0.00085978 -0.015651
0.0024536 0.00078571 0.00086054 0.0017198 0.00027877 0.00018427 -0.00064087 0.00054458
0.0008703 -0.015647 0.065437 0.32574
1340000000 0.22839 0.23046 -0.018737 -0.016488 0.0015317 0.0044931 -0.0017379 -0.00093397
0.0015306 0.002505 0.0014641 -0.0015026
-0.018708 -0.0165 0.051695 0.37327 -0.020793 0.0055058 -5.5358e-05 0.00204
0.0020452 0.00049237 0.0013662 0.00060518
0.0015482 0.0044845 -0.020774 0.0055947 0.34492 0.10942 0.0012973 -0.0011371
0.00067157 -0.00067013 7.4018e-05 0.00022843
-0.0017371 -0.0009235 -4.8144e-05 0.0020473 0.0012997 -0.0011412 0.15139 0.23202
-0.011257 -0.016108 0.00044713 0.0012634
0.0015446 0.0024998 0.0020486 0.00048869 0.00067049 -0.00067389 -0.011291 -0.016097
0.078847 0.21709 -0.0060207 -0.01311
0.0014647 -0.0015042 0.0013719 0.00059556 7.5247e-05 0.00023038 0.0004508 0.0012733
-0.0060101 -0.013114 0.10444 0.31679
1400000000 0.26023 0.19094 -0.022912 -0.0049297 0.0055653 0.002682 -0.0021464 0.00058427
0.0023918 0.00076015 2.5842e-05 -0.0014087
-0.02288 -0.0049494 0.088197 0.35908 -0.013634 0.012951 0.001381 0.0013004
0.0010879 -0.00099305 0.0010612 8.0709e-06
0.0055672 0.002666 -0.013602 0.013016 0.35663 0.056107 -4.1289e-06 -0.0019158
2.6418e-06 -0.00041602 0.00037333 0.00014618
-0.0021479 0.00059409 0.0013831 0.0012939 8.2768e-06 -0.0019184 0.17915 0.20122
-0.016572 -0.0084297 -0.00031324 0.00066958
0.0023939 0.00075803 0.001078 -0.0010009 -1.7013e-06 -0.00042235 -0.016609 -0.0083911
0.11094 0.21029 -0.01173 -0.00743
1.4125e-05 -0.0014094 0.0010609 2.7314e-06 0.00037306 0.00014729 -0.0003105 0.0006682
-0.011718 -0.0074341 0.14663 0.30188
1460000000 0.28179 0.14601 -0.018935 0.006436 0.0056004 -0.0023124 -0.0015484 0.0017097
0.0020739 -0.00072179 -0.00046997 -0.0008058
-0.018924 0.0064155 0.12198 0.33614 -0.0050196 0.01513 0.0017637 6.9097e-05
0.00064063 -0.0013228 0.0010269 -0.00057862
0.0055914 -0.0023231 -0.0049586 0.015164 0.36172 0.0024029 -0.0014538 -0.0012925
0.00019966 -0.00017315 0.00064433 -0.0003028
-0.0015491 0.0017224 0.0017643 6.3041e-05 -0.0014496 -0.0012937 0.2032 0.17051
-0.016877 -0.0010217 -1.2929e-05 0.0022432
0.0020666 -0.00071871 0.00062847 -0.0013422 0.00020203 -0.00017309 -0.016888 -0.00099051
0.13967 0.19397 -0.012603 -0.0011566
-0.00048067 -0.00080084 0.0010275 -0.00059104 0.00064849 -0.00030025 -2.4369e-05 0.0022385
-0.012609 -0.0011603 0.17855 0.27879
1520000000 0.29271 0.1029 -0.012634 0.011107 0.003038 -0.0044697 9.6993e-05 0.0026357
0.0018301 -0.0018209 -0.001087 -8.1787e-06
-0.012637 0.011084 0.15458 0.32031 0.00223 0.012527 0.0016451 -0.00095901
-9.3467e-05 -0.0009824 0.00024498 -0.00090963
0.0030217 -0.004481 0.002288 0.012521 0.35462 -0.053883 -0.001422 -0.00017004
0.00050212 -0.00087043 -1.7146e-05 -0.00016356
9.2597e-05 0.0026372 0.0016446 -0.00096203 -0.0014186 -0.00017446 0.22364 0.13179
-0.015015 0.0049033 0.0021857 0.0018134
0.0018209 -0.0018346 -0.00010573 -0.00098253 0.00050045 -0.00087764 -0.015018 0.0049406
0.16694 0.17774 -0.011743 0.0034324
-0.001091 -3.9319e-06 0.00023884 -0.00091441 -2.0179e-05 -0.00016838 0.0021855 0.0018043
-0.011739 0.0034216 0.20978 0.25497
1580000000 0.30031 0.056334 -0.0060715 0.013076 -0.0011497 -0.0049379 0.0015739 0.0019014
-0.00027486 -0.0021137 -0.00019321 0.00033766
-0.0060795 0.013068 0.18083 0.29501 0.0054428 0.0075673 0.00033678 -0.001724
-0.00057004 -0.00088882 -0.00024458 -0.00078398
-0.0011644 -0.0049255 0.0054823 0.0075459 0.334 -0.11128 -0.0016354 0.0010006
-0.0004357 -0.0011338 0.00012013 -0.00061219
0.0015832 0.0018968 0.00032528 -0.001724 -0.0016414 0.0010041 0.23473 0.092712
-0.010733 0.0093323 0.0025915 0.00010716
-0.00028772 -0.0021123 -0.00056812 -0.00088355 -0.00043685 -0.001126 -0.010722 0.0093605
0.18999 0.1577 -0.0086639 0.0085002
-0.00018791 0.00034026 -0.00025433 -0.00078945 0.0001201 -0.00061639 0.0025891 0.00010003
-0.0086623 0.0084996 0.23896 0.2265
1640000000 0.30064 0.014524 2.0856e-05 0.011123 -0.0029853 -0.0025914 0.0027774 0.00082746
-0.00094045 -0.0014194 -0.00024127 0.000541
1.0942e-05 0.011116 0.20955 0.26944 0.0058172 0.0030168 -0.00093505 -0.0016418
-0.00097959 -0.00027025 -0.00055268 -0.00054039
-0.0029993 -0.0025785 0.0058294 0.0029915 0.30514 -0.16027 -0.00049043 0.0016633
-0.001276 -0.00070569 -0.00022238 -0.00022923
0.0027791 0.00081322 -0.00095123 -0.0016304 -0.00048724 0.0016567 0.24455 0.045108
-0.0058754 0.010154 0.0025146 -0.0013634
-0.00095861 -0.0014151 -0.00098088 -0.00025781 -0.0012745 -0.00069676 -0.0058595 0.010173
0.21139 0.13145 -0.0036189 0.010044
-0.00023836 0.00054521 -0.00055873 -0.00053683 -0.00022235 -0.00022615 0.0025092 -0.001372
-0.0036213 0.010044 0.26267 0.19361
1700000000 0.29147 -0.030753 0.0027639 0.0079043 -0.003521 0.0002088 0.0029499 -0.0014665
-0.00199 -0.00049892 0.00061535 0.00033743
0.0027542 0.0079002 0.22664 0.23796 0.0037409 0.0002441 -0.001546 -0.00037137
-0.00066137 0.00012637 -0.00088477 -0.0003686
-0.0035183 0.00022014 0.003742 0.00022956 0.2615 -0.20028 0.00075906 0.0014887
-0.0018755 7.0119e-06 -0.0006214 -0.00082886
0.0029402 -0.0014779 -0.0015509 -0.00036583 0.00075422 0.0014837 0.23977 -0.0026834
-0.0028345 0.0098952 0.0013328 -0.002501
-0.0019808 -0.00049047 -0.00065848 0.00012846 -0.0018816 1.3729e-05 -0.0028226 0.0099091
0.22666 0.10933 0.0010511 0.0098896
0.00062279 0.00033287 -0.00088861 -0.00036166 -0.00062795 -0.00082507 0.0013251 -0.0025011
0.0010538 0.0098925 0.27654 0.15807
1760000000 0.27787 -0.078652 0.004121 0.0045868 -0.0023585 0.00093864 0.00094389 -0.0035246
-0.0013012 0.00087659 0.00035765 -0.0004155
0.0041139 0.0045889 0.25196 0.1979 0.0014656 -0.0014719 -0.0011353 0.00041153
-0.0009304 0.00082283 -0.00061568 0.0004945
-0.0023532 0.00093779 0.001464 -0.0014692 0.2125 -0.23352 0.001336 0.00086101
-0.0010811 0.0016692 -0.0013459 -0.00033547
0.0009244 -0.0035243 -0.0011265 0.0004119 0.0013444 0.00086297 0.2302 -0.051452
0.00021389 0.0086227 -0.00052177 -0.002628
-0.0012979 0.00088578 -0.00093222 0.00083808 -0.001084 0.0016809 0.00023932 0.0086319
0.23946 0.072972 0.0047214 0.0068579
0.00035245 -0.00042068 -0.00061348 0.00049551 -0.0013511 -0.00033071 -0.00052872 -0.0026236
0.0047179 0.0068568 0.28737 0.1196
1820000000 0.25175 -0.11516 0.0036336 0.0014869 -5.3904e-05 0.0025246 -0.0013161 -0.0028611
-0.00083726 0.0010615 -4.0088e-05 -3.9757e-05
0.0036275 0.0014879 0.26115 0.1679 -0.00041023 -0.0002227 -0.0010589 0.0010409
-4.8272e-05 0.0012117 -0.00048912 0.00059597
-4.5406e-05 0.0025236 -0.00040903 -0.00022163 0.16202 -0.24912 0.0013009 3.8216e-05
-5.0409e-06 0.00224 -0.0013333 0.00057293
-0.0013285 -0.0028561 -0.0010536 0.0010465 0.0012985 3.9899e-05 0.20085 -0.096393
0.0014784 0.0067126 -0.0017927 -0.0015278
-0.00083236 0.0010643 -4.7953e-05 0.0012112 -9.2561e-06 0.0022494 0.0014895 0.0067013
0.254 0.042686 0.0054621 0.0031408
-3.9026e-05 -4.236e-05 -0.0004849 0.00060203 -0.0013281 0.00057443 -0.0018009 -0.0015254
0.0054654 0.0031317 0.2875 0.082121
1880000000 0.21556 -0.15419 0.0010826 -0.0001586 -0.00044432 0.0020753 -0.0030173 -0.0018177
-3.3118e-05 0.0015534 0.00030351 -0.00046246
0.0010746 -0.00014921 0.26517 0.12147 -0.0025504 0.0015214 4.2403e-05 0.0015996
0.00059479 0.0011221 0.00025536 0.00091931
-0.00044468 0.0020711 -0.0025364 0.0015344 0.109 -0.25891 0.0014242 -0.0010063
0.0016835 0.0016095 -0.00070661 0.0014565
-0.0030325 -0.0018017 4.0675e-05 0.0015915 0.0014199 -0.0010027 0.16196 -0.13555
0.0019409 0.004576 -0.0023491 0.00037471
-1.3709e-05 0.0015518 0.00060303 0.0011137 0.0016795 0.0016142 0.0019591 0.0045669
0.25438 0.0093129 0.0051169 0.00074974
0.00029868 -0.00046812 0.00026325 0.00091677 -0.00069687 0.0014697 -0.0023474 0.00038354
0.0051119 0.00075877 0.28513 0.047676
1940000000 0.17599 -0.17932 -0.0010872 -0.0011137 0.0015202 0.0020696 -0.0034903 0.00075347
0.0014574 0.00089304 -0.00055719 -0.00055967
-0.0010894 -0.0011126 0.26509 0.089753 -0.001357 0.0039333 0.0010227 0.0010053
0.0016945 0.00048074 0.00090033 0.00040766
0.0015362 0.0020608 -0.0013295 0.0039389 0.062439 -0.25223 9.2375e-05 -0.0018156
0.0023164 0.00014388 0.00058016 0.0017237
-0.0034951 0.0007673 0.001025 0.00099793 9.8079e-05 -0.0018164 0.11124 -0.16612
0.00099714 0.0030917 -0.0015959 0.0015235
0.001459 0.00087454 0.001705 0.00047209 0.0023187 0.00013889 0.00099617 0.0030935
0.2537 -0.030175 0.0035679 -0.0022169
-0.00056434 -0.00055688 0.00090292 0.00039843 0.00058183 0.0017291 -0.001591 0.0015201
0.0035638 -0.0022022 0.27254 0.010889
2000000000 0.12935 -0.19325 -0.0045144 0.0013207 0.0026123 0.0015949 -0.0021474 0.0035566
0.00098436 -5.3796e-05 -0.00060774 0.00028913
-0.0045057 0.0013233 0.2506 0.054251 -0.0011585 0.0058224 0.0014345 0.00019286
0.0013407 -0.0012385 0.00055793 -0.00015794
0.0026074 0.0015791 -0.0011193 0.0058317 0.018152 -0.2373 -0.0011862 -0.0010136
0.0017414 -0.0012643 0.0017648 0.00089098
-0.0021353 0.0035748 0.0014308 0.00018625 -0.0011896 -0.0010132 0.058606 -0.17699
-0.00072664 0.0028065 -6.0947e-05 0.0021111
0.00098638 -5.7853e-05 0.0013295 -0.0012508 0.001741 -0.0012808 -0.00072429 0.0028102
