!Keysight Technologies,M9804A,MY58100912,A.14.10.03
!Date: Thursday, April 27, 2023 10:28:33
!Correction: S11(C  6-Port  ) 
!S12(C  6-Port  ) 
!S13(C  6-Port  ) 
!S14(C  6-Port  ) 
!S15(C  6-Port  ) 
!S16(C  6-Port  ) 
!S21(C  6-Port  ) 
!S22(C  6-Port  ) 
!S23(C  6-Port  ) 
!S24(C  6-Port  ) 
!S25(C  6-Port  ) 
!S26(C  6-Port  ) 
!S31(C  6-Port  ) 
!S32(C  6-Port  ) 
!S33(C  6-Port  ) 
!S34(C  6-Port  ) 
!S35(C  6-Port  ) 
!S36(C  6-Port  ) 
!S41(C  6-Port  ) 
!S42(C  6-Port  ) 
!S43(C  6-Port  ) 
!S44(C  6-Port  ) 
!S45(C  6-Port  ) 
!S46(C  6-Port  ) 
!S51(C  6-Port  ) 
!S52(C  6-Port  ) 
!S53(C  6-Port  ) 
!S54(C  6-Port  ) 
!S55(C  6-Port  ) 
!S56(C  6-Port  ) 
!S61(C  6-Port  ) 
!S62(C  6-Port  ) 
!S63(C  6-Port  ) 
!S64(C  6-Port  ) 
!S65(C  6-Port  ) 
!S66(C  6-Port  ) 
!S6P File: Measurement: :
# Hz S  RI   R 50
500000000 -0.3393 -0.016462 -0.010803 -0.0034102 -0.0071043 0.012288 -0.0030972 0.011781
0.011238 0.0035664 -0.00258 0.0076656
-0.010782 -0.0034395 -0.4197 -0.034715 0.0063547 -0.011836 0.001898 0.012395
0.0068741 0.0023083 0.002124 0.013492
-0.0071049 0.012303 0.0063603 -0.01183 -0.26251 0.2235 0.0072119 0.0036559
-0.00041443 0.0083791 0.0025023 0.012089
-0.0030989 0.011757 0.0019139 0.012418 0.0072077 0.0036528 -0.33062 0.063642
-0.018898 -0.0066545 0.014986 0.023351
0.011279 0.0036504 0.0068424 0.0023115 -0.00039282 0.0083863 -0.018891 -0.0066312
-0.23759 -0.16168 -0.024329 0.0039725
-0.0024851 0.0076172 0.0021231 0.013495 0.0024955 0.012102 0.014972 0.023344
-0.024318 0.0039711 -0.28598 -0.076841
560000000 -0.31092 0.13831 -0.026781 -0.060205 0.0007827 0.011478 0.005567 0.0097093
0.0090746 0.003967 0.010282 0.0062631
-0.026675 -0.060145 -0.37531 0.11924 -0.041999 -0.034677 0.013524 0.0029259
-0.012223 -0.003694 0.0033988 -0.0011599
0.00083558 0.011472 -0.04206 -0.034721 -0.17976 0.26778 -0.0004269 -0.0043426
0.018558 0.0033076 0.007019 -0.0065923
0.0055485 0.0096995 0.01351 0.002948 -0.00041452 -0.0043485 -0.30398 0.14887
0.00026671 -0.024326 0.0030316 -0.018128
0.0090418 0.003967 -0.012242 -0.0037683 0.01851 0.0032873 0.00024896 -0.024325
-0.28692 0.011142 0.0025578 -0.046284
0.010267 0.0062446 0.0034209 -0.0011588 0.0070273 -0.0065601 0.0030299 -0.01814
0.0025799 -0.046281 -0.32975 0.061786
620000000 -0.26969 0.12377 -0.023226 0.0069039 0.0036939 0.0079735 0.0071192 -0.0056821
0.011129 -0.0015847 0.00071418 -0.0027699
-0.023235 0.0069258 -0.40099 0.07485 -0.019422 0.00022268 -0.0010888 -0.0021862
0.010064 -0.0067503 0.001451 -0.0030298
0.003587 0.0079954 -0.019425 0.00025179 -0.14869 0.277 -0.0013793 -0.0045656
-0.0034126 -0.0032829 0.0079942 -0.0037871
0.007134 -0.0057596 -0.0011178 -0.0021749 -0.0013843 -0.0045769 -0.26247 0.16086
-0.038796 -0.017148 0.011979 0.022615
0.011128 -0.0014841 0.010077 -0.0068127 -0.0033568 -0.0032415 -0.038826 -0.017111
-0.21183 -0.0268 -0.037806 0.014471
0.00076027 -0.0026334 0.0014765 -0.0030385 0.0080325 -0.0037387 0.011985 0.02259
-0.037809 0.014456 -0.25675 0.034241
680000000 -0.22662 0.20524 -0.02784 -0.012073 0.0052999 0.0045084 0.00091121 -0.0072881
-0.0033186 -0.011034 0.0037458 -0.0066054
-0.027801 -0.012078 -0.3839 0.16865 -0.032297 0.00055084 -0.0015054 -0.00051853
-0.0027744 -0.0088284 -0.0016914 -0.0019445
0.0052851 0.0045179 -0.032309 0.00059646 -0.098187 0.29516 -0.0007688 -0.00028353
-0.0018566 0.00022355 -0.003654 -0.0083787
0.00091502 -0.007275 -0.001497 -0.00053097 -0.00077352 -0.00028625 -0.21684 0.20819
-0.025504 -0.0054397 -0.0088019 -0.0081245
-0.0033589 -0.01108 -0.0027915 -0.0088298 -0.001858 0.00022162 -0.025522 -0.0054345
-0.24901 0.069986 -0.0068134 -0.0066294
0.0036963 -0.006599 -0.0016971 -0.0019046 -0.0036633 -0.0083642 -0.0087989 -0.0081193
-0.0068189 -0.0066302 -0.25276 0.12878
740000000 -0.1835 0.19992 -0.036726 0.026331 0.01155 -0.0058968 -0.0008609 -0.0040051
-0.005205 -0.0024683 -0.005792 0.0032395
-0.036709 0.026309 -0.3324 0.18793 -0.03242 0.035054 -0.0010851 -0.0060778
-0.010824 0.0079968 -0.0021072 -0.0045385
0.011533 -0.0059186 -0.032365 0.035216 -0.064445 0.29459 -0.0016176 0.0029474
-0.0033408 -0.003906 -0.0018746 0.000743
-0.00083396 -0.0039839 -0.001078 -0.0060847 -0.0016116 0.0029584 -0.19841 0.21669
-0.041822 -0.0036364 0.021413 0.011966
-0.005229 -0.0023747 -0.010819 0.0080914 -0.0033541 -0.0039126 -0.041869 -0.0036124
-0.15725 0.089805 -0.038237 0.0031106
-0.0058069 0.0032503 -0.0021395 -0.0045617 -0.0018666 0.00078468 0.021476 0.01195
-0.038227 0.0031064 -0.2406 0.13842
800000000 -0.15003 0.23714 -0.021475 0.017765 0.0043816 -0.010306 -0.0043839 -0.0017364
-0.003593 0.0028779 0.003662 0.00084663
-0.021473 0.017762 -0.33238 0.25668 -0.0064749 0.033561 -0.0022178 0.0023576
-0.00039273 0.003481 0.0011579 0.0053531
0.004367 -0.010286 -0.0063992 0.033598 -0.02158 0.3164 0.00086019 0.001571
0.00051119 0.0034653 -0.0018215 0.0013357
-0.0043811 -0.001744 -0.0022005 0.0023717 0.00086047 0.0015764 -0.16864 0.24285
-0.026699 0.016063 0.012025 -0.0099917
-0.0035888 0.0028943 -0.00039302 0.0034915 0.00050107 0.0034738 -0.026702 0.016133
-0.19359 0.11707 -0.015688 0.018331
0.003662 0.00085759 0.0011565 0.0053683 -0.001836 0.0013432 0.012027 -0.010009
-0.015696 0.018314 -0.22798 0.1839
860000000 -0.11506 0.25704 -0.015739 0.030916 -0.0039359 -0.0093307 -0.0021757 0.0012081
0.0045794 0.0045585 -0.0024187 -0.0024872
-0.015748 0.030888 -0.28475 0.2972 0.0093794 0.032833 0.00027004 0.0018976
0.0047226 -3.0382e-05 0.0032916 0.00048574
-0.0039373 -0.009328 0.0094637 0.03282 0.027239 0.32314 -0.00025446 -0.0001274
0.0025317 -0.001318 0.00172 0.0040518
-0.0021723 0.0012124 0.00029125 0.0019033 -0.00025152 -0.00012149 -0.13165 0.25376
-0.015227 0.020849 -0.0055632 -0.0090288
0.0046462 0.0045225 0.0047536 -2.7711e-05 0.0025362 -0.0013315 -0.015206 0.020883
-0.1418 0.16188 -0.020836 0.016367
-0.0024667 -0.0024694 0.0032875 0.00048902 0.0017089 0.0040718 -0.0055739 -0.0090358
-0.02086 0.016361 -0.17846 0.22305
920000000 -0.088238 0.27862 0.0063523 0.036672 -0.0092319 -0.0036503 -0.0014167 0.0019284
0.0016182 0.0014947 0.002722 -0.0018331
0.0063307 0.036659 -0.25431 0.31758 0.02813 0.019962 0.0018538 0.00092711
0.0067388 -0.00081054 0.0035494 -0.0030859
-0.0092323 -0.0036166 0.02818 0.019901 0.074542 0.32276 0.0019578 -0.00011099
0.0014855 -0.00062925 0.00086173 -0.0010894
-0.0013989 0.0019391 0.0018615 0.00094019 0.0019544 -0.00010865 -0.10535 0.26934
-0.0072462 0.030578 0.0022785 -0.0061997
0.001635 0.0014929 0.0067249 -0.00081976 0.0015041 -0.00064572 -0.0071784 0.030614
-0.12819 0.16826 -0.00047496 0.025396
0.0027071 -0.0018378 0.0035681 -0.0031228 0.00084571 -0.0011107 0.0022632 -0.006211
-0.00050125 0.025392 -0.17673 0.23782
980000000 -0.040965 0.29656 0.018712 0.028376 -0.0082657 0.0048396 0.0020537 0.0031456
0.0037907 -0.0019204 -0.0031488 -0.0019953
0.018671 0.028389 -0.20219 0.34997 0.032237 0.0030369 0.0019613 -0.00029534
0.0013086 -0.0061318 -0.00065223 -0.0023316
-0.0082551 0.0048477 0.032268 0.0029351 0.12127 0.31477 0.00042962 -0.001284
7.6579e-05 -0.0022515 0.001385 -0.00029247
0.0020683 0.0031471 0.001965 -0.00027856 0.00042649 -0.001287 -0.066244 0.27878
0.010817 0.027928 -0.008547 -0.0060239
0.0037874 -0.001925 0.0012625 -0.0061399 9.0106e-05 -0.0022466 0.010893 0.027933
-0.095829 0.19233 0.0062722 0.018101
-0.003147 -0.0019715 -0.00064026 -0.0023033 0.0014051 -0.00029239 -0.0085454 -0.0060162
0.0062455 0.018105 -0.13262 0.27592
1040000000 0.0025742 0.30336 0.03294 0.015624 -0.00093967 0.0065778 0.0024732 0.00043022
-5.7352e-05 -0.0031944 -0.00071226 -0.0013048
0.032919 0.015635 -0.16593 0.36274 0.027397 -0.015646 0.0013587 -0.0018435
-0.0023809 -0.0023545 -0.0016231 -0.002602
-0.00092829 0.0065897 0.027371 -0.015757 0.16801 0.29961 -0.00063576 -0.0014553
-0.0015836 -0.00083485 -0.00043488 -0.0010853
0.0024817 0.00041722 0.0013798 -0.0018392 -0.00063964 -0.0014613 -0.037128 0.28737
0.02075 0.015345 -0.0027672 0.0014033
-4.6421e-05 -0.003183 -0.0024028 -0.0023351 -0.0015956 -0.00083565 0.020794 0.015333
-0.063764 0.19829 0.013771 0.015651
-0.00072919 -0.001315 -0.001606 -0.0026135 -0.00045249 -0.0010828 -0.0027751 0.0014118
0.013748 0.015651 -0.10612 0.29484
1100000000 0.048028 0.3092 0.03426 -0.0059646 0.0027833 0.0035628 0.0022308 -0.0010999
-0.0021211 -0.0027045 -0.0034321 0.00050841
0.034252 -0.0059328 -0.12254 0.37868 0.013198 -0.027368 -0.00010605 -0.0017494
-0.0032828 -0.00041633 -0.0032132 -0.00019852
0.0027862 0.0035648 0.013125 -0.027426 0.2145 0.27727 -0.0018005 0.00023598
-0.0017373 0.00062043 -0.00091154 -0.00021997
0.0022211 -0.0010985 -0.00011384 -0.0017464 -0.0018006 0.0002355 0.0041326 0.29003
0.024189 0.0022194 -0.0023796 0.00036196
-0.0021458 -0.0026885 -0.0033082 -0.00040963 -0.0017364 0.00060979 0.024208 0.0021848
-0.044251 0.21003 0.018331 0.0061203
-0.0034264 0.00049657 -0.0032076 -0.00020307 -0.00089852 -0.0002116 -0.0023637 0.00037809
0.018316 0.0061226 -0.059497 0.31752
1160000000 0.099137 0.30274 0.021856 -0.021406 0.0023891 -0.00039345 -9.7527e-05 -0.0021396
-0.0038898 -0.00045609 -0.00059048 0.0036967
0.021877 -0.021368 -0.077753 0.38215 -0.0050462 -0.027712 -0.0016956 -0.0014754
-0.0024552 0.0024266 -0.0013192 0.001688
0.0023769 -0.00040445 -0.0051361 -0.027721 0.25703 0.24463 -0.0006797 0.0017586
-0.00040298 0.0018595 -0.00087113 0.00015636
-0.00010132 -0.0021458 -0.0017039 -0.0014673 -0.00068424 0.0017628 0.043909 0.28478
0.019609 -0.012482 -0.0027801 0.0044445
-0.0038946 -0.00044352 -0.0024667 0.0024457 -0.00039771 0.0018526 0.019597 -0.012506
-0.010538 0.21685 0.016628 -0.0021111
-0.00055884 0.0037029 -0.0012965 0.0017027 -0.00087557 0.00013418 -0.0027783 0.0044612
0.016617 -0.0021094 -0.012501 0.31756
1220000000 0.14372 0.28916 0.0081431 -0.029268 -0.0015017 -0.00043295 4.4078e-05 -0.00097644
-0.0023495 0.0023304 0.0013356 0.0017903
0.0081571 -0.029217 -0.033761 0.39234 -0.017048 -0.019373 -0.002377 0.00047563
0.00023445 0.0027929 -0.00047938 0.0018198
-0.0015122 -0.00042503 -0.017121 -0.019336 0.29539 0.20403 0.00083765 0.0017718
0.00063798 0.0011999 0.00035299 0.00050861
4.1238e-05 -0.00099318 -0.0023768 0.00049213 0.00083554 0.0017701 0.084009 0.27362
0.0087231 -0.018128 0.0016326 0.001399
-0.0023339 0.002341 0.00024719 0.0027725 0.0006458 0.001197 0.0086969 -0.018154
0.013976 0.22314 0.011337 -0.013251
0.0013414 0.0017735 -0.00045992 0.001827 0.00035632 0.00050966 0.0016503 0.0013997
0.011325 -0.013248 0.021017 0.32829
1280000000 0.19228 0.26543 -0.0091031 -0.026729 -0.0014409 0.0027175 -0.001013 -0.001969
-0.00052637 0.0028245 0.0023014 0.00076346
-0.0090831 -0.026696 0.011849 0.38243 -0.022966 -0.0071813 -0.00094934 0.0013797
0.0016342 0.0015544 0.00071604 0.0016898
-0.0014306 0.0027314 -0.023003 -0.0071102 0.32475 0.15907 0.0015792 -7.3031e-05
0.0010519 0.00016223 0.00019453 0.00017735
-0.0010193 -0.0019553 -0.00094661 0.0013821 0.001583 -7.4604e-05 0.11979 0.25463
-0.00096486 -0.019297 -0.00037662 0.00042554
-0.00052003 0.0028144 0.0016462 0.0015495 0.001044 0.00015566 -0.001008 -0.019303
0.050222 0.22422 0.0010933 -0.014646
0.0023145 0.00075086 0.0007213 0.0016828 0.00019306 0.00017444 -0.00037611 0.00043321
0.0010996 -0.01464 0.066624 0.32584
1340000000 0.22869 0.22987 -0.017831 -0.016975 0.0013521 0.004108 -0.0017308 -0.00081201
0.0014027 0.0024204 0.0013715 -0.0014237
-0.017805 -0.016971 0.05122 0.37288 -0.020367 0.0049065 -0.00013716 0.0019821
0.0018157 0.00061621 0.0012891 0.00060962
0.0013592 0.0041074 -0.020355 0.0049795 0.34563 0.11049 0.0011396 -0.00095222
0.00055552 -0.00045951 0.00010422 0.0002458
-0.0017319 -0.00080377 -0.00012432 0.0019769 0.0011424 -0.00096032 0.15117 0.23213
-0.0098835 -0.015749 0.00067977 0.00096044
0.0014136 0.0024244 0.0018222 0.00061509 0.00056249 -0.00045778 -0.0099158 -0.015751
0.080239 0.21719 -0.0051797 -0.012453
0.0013782 -0.0014231 0.0012801 0.00061088 0.0001119 0.00024121 0.000686 0.00095531
-0.0051801 -0.012456 0.1055 0.31686
1400000000 0.26004 0.19037 -0.022388 -0.0058671 0.0051589 0.0025387 -0.0020421 0.00063302
0.0022754 0.00067033 8.6857e-05 -0.0013301
-0.022353 -0.0058793 0.087581 0.35907 -0.013603 0.012201 0.0012839 0.001304
0.0010985 -0.00082433 0.0010566 8.8645e-05
0.0051739 0.0025347 -0.013563 0.012264 0.35794 0.056507 0.0001435 -0.00181
9.5767e-05 -0.0003598 0.00034034 0.00016778
-0.0020497 0.00063616 0.0012984 0.0012952 0.00014695 -0.0018089 0.17892 0.20136
-0.015258 -0.0089256 -0.00030966 0.00033732
0.002274 0.00066944 0.0010917 -0.00083913 9.2538e-05 -0.00036031 -0.015282 -0.0088965
0.11206 0.21009 -0.010648 -0.007326
8.7061e-05 -0.0013294 0.0010511 8.0676e-05 0.00034346 0.00016084 -0.0003111 0.00033678
-0.010642 -0.0073341 0.14769 0.30197
1460000000 0.28145 0.14577 -0.019069 0.0053592 0.005261 -0.0022641 -0.0014912 0.0016744
0.0018779 -0.00063022 -0.00041209 -0.00080018
-0.019048 0.005334 0.12147 0.33666 -0.0054175 0.014509 0.0017254 0.00014334
0.00075551 -0.001211 0.0010149 -0.00055506
0.0052546 -0.0022739 -0.0053601 0.014545 0.36272 0.0019713 -0.0014597 -0.0012592
0.00012453 -0.0001655 0.00059088 -0.00031326
-0.0014924 0.0016749 0.0017309 0.00014602 -0.0014715 -0.0012619 0.20305 0.17094
-0.016001 -0.0022024 -0.0002276 0.0019317
0.0018805 -0.00063954 0.00074647 -0.0012218 0.00012115 -0.00017111 -0.016013 -0.0021672
0.14059 0.19347 -0.011567 -0.0016245
-0.00041641 -0.00078567 0.0010176 -0.00057058 0.00058936 -0.00031897 -0.00020314 0.0019346
-0.011573 -0.0016375 0.17968 0.27879
1520000000 0.29235 0.10305 -0.013297 0.010249 0.0027066 -0.004137 0.00011765 0.002549
0.0018361 -0.0016322 -0.0010628 -6.0797e-06
-0.013293 0.010228 0.1545 0.32106 0.0015955 0.012328 0.0016446 -0.00084938
1.2033e-05 -0.0010016 0.00025921 -0.00088764
0.0026944 -0.0041628 0.0016441 0.012331 0.35512 -0.054684 -0.0013045 -0.00021203
0.0004759 -0.00083273 5.4734e-06 -0.00013116
0.0001228 0.0025422 0.0016465 -0.00085319 -0.0013028 -0.00020416 0.22377 0.13233
-0.014945 0.0033875 0.0018405 0.0017281
0.0018237 -0.0016359 -6.2673e-07 -0.00099386 0.00048435 -0.00083099 -0.014946 0.0034349
0.16761 0.17713 -0.011126 0.0025428
-0.0010682 6.2076e-06 0.0002459 -0.00088506 4.0962e-06 -0.00013184 0.0018465 0.0017244
-0.011133 0.0025268 0.21126 0.25476
1580000000 0.3001 0.056732 -0.0070769 0.012676 -0.0011779 -0.004485 0.0015062 0.0018466
-0.00019386 -0.0019378 -0.00023079 0.00038376
-0.0070871 0.012661 0.18119 0.29581 0.004877 0.0077241 0.00040668 -0.001686
-0.00052642 -0.00098536 -0.00021304 -0.00077182
-0.0012018 -0.0044805 0.0049099 0.0077157 0.33411 -0.1121 -0.0015962 0.00092587
-0.00027065 -0.0010725 0.00014518 -0.00052119
0.0015132 0.0018482 0.00040042 -0.0016795 -0.001595 0.00091828 0.23525 0.09318
-0.011479 0.0080941 0.0023157 0.00019536
-0.00020437 -0.0019263 -0.00053235 -0.00097971 -0.00027602 -0.0010604 -0.011464 0.0081215
0.19033 0.15717 -0.0085683 0.0074002
-0.00023865 0.00038972 -0.00021519 -0.00077178 0.00014414 -0.00053178 0.0023207 0.00018826
-0.0085756 0.0074029 0.2403 0.22607
1640000000 0.301 0.014939 -0.00096696 0.011376 -0.0027258 -0.0022676 0.0026538 0.00085775
-0.00074787 -0.0014283 -0.00016031 0.00056207
-0.0009773 0.011372 0.21034 0.27 0.0054409 0.0033925 -0.00086514 -0.0016492
-0.001035 -0.0003401 -0.000501 -0.00053772
-0.0027275 -0.0022547 0.0054705 0.0033695 0.30471 -0.16084 -0.0005971 0.0015999
-0.0011541 -0.00071368 -0.00014801 -0.00017967
0.0026515 0.00085079 -0.00087159 -0.0016493 -0.00059261 0.001598 0.24536 0.045285
-0.0072523 0.0095969 0.0022746 -0.0012093
-0.00075252 -0.0014186 -0.0010437 -0.00032489 -0.0011551 -0.00070895 -0.0072359 0.0096283
0.21149 0.13101 -0.0040491 0.0091004
-0.00016243 0.00055924 -0.00050981 -0.00052992 -0.00015059 -0.00017281 0.0022643 -0.0012132
-0.0040457 0.0091014 0.26404 0.19285
1700000000 0.29202 -0.030583 0.0020118 0.0086596 -0.0032868 0.00030167 0.0029318 -0.001334
-0.0018991 -0.00064556 0.00065994 0.00032558
0.0020018 0.0086529 0.22766 0.23809 0.0036521 0.00068298 -0.0014713 -0.00043378
-0.00076183 0.00017177 -0.00085501 -0.00038607
-0.0032882 0.00031222 0.0036496 0.00066854 0.26119 -0.20055 0.00069255 0.001457
-0.001743 -0.00018036 -0.000569 -0.00081616
0.0029208 -0.001344 -0.0014801 -0.00044031 0.00068748 0.001457 0.24065 -0.0030326
-0.0041548 0.010194 0.001174 -0.0021853
-0.0019043 -0.00064062 -0.00076118 0.00017318 -0.0017487 -0.00017343 -0.0041446 0.010211
0.2268 0.10914 0.00026735 0.0092573
0.0006568 0.00031272 -0.00085965 -0.00037947 -0.00057392 -0.00081653 0.0011741 -0.0021835
0.00027569 0.0092645 0.27776 0.15686
1760000000 0.27853 -0.078857 0.0039327 0.0055848 -0.0021007 0.00094566 0.00099975 -0.0034512
-0.0013668 0.00067516 0.00044956 -0.00044898
0.0039125 0.0055776 0.25298 0.1975 0.0015842 -0.0011285 -0.0011431 0.00030206
-0.00090253 0.00089471 -0.00056833 0.0004869
-0.0020984 0.00095042 0.0015799 -0.0011379 0.2123 -0.23416 0.0013555 0.00081304
-0.0010859 0.0015698 -0.0012187 -0.00031654
0.00098431 -0.0034572 -0.0011458 0.00031913 0.0013603 0.00081073 0.23081 -0.052259
-0.00062057 0.0094843 -0.00053475 -0.0023158
-0.0013618 0.00068897 -0.00090473 0.00090785 -0.0010728 0.001568 -0.00059587 0.0094975
0.23965 0.072908 0.0037751 0.0066774
0.0004466 -0.00045754 -0.00056288 0.00049263 -0.0012184 -0.00030885 -0.00054427 -0.0023178
0.0037781 0.0066785 0.28827 0.11833
1820000000 0.25228 -0.11573 0.003965 0.0023169 8.3986e-05 0.0023902 -0.0012395 -0.0028474
-0.0010425 0.0010434 -8.1039e-05 -0.00010156
0.0039593 0.0023195 0.26187 0.1671 -0.00023338 7.4406e-05 -0.0011224 0.00097958
5.6391e-05 0.0012684 -0.00046966 0.00054722
8.2148e-05 0.0023965 -0.00024157 7.8703e-05 0.16123 -0.24914 0.001353 4.297e-05
-9.2609e-05 0.0021833 -0.0013018 0.0005534
-0.0012298 -0.0028447 -0.0011203 0.00098199 0.0013587 2.9035e-05 0.20097 -0.097497
0.0012834 0.0076867 -0.0015526 -0.0012625
-0.0010297 0.0010372 5.5925e-05 0.0012735 -8.455e-05 0.0021858 0.0012977 0.0076847
0.25442 0.042665 0.0046495 0.0033247
-7.1553e-05 -9.7239e-05 -0.00046657 0.00055035 -0.0013019 0.00056236 -0.0015574 -0.0012588
0.0046416 0.0033278 0.28786 0.080555
1880000000 0.21568 -0.15505 0.0017272 0.00030769 -0.00031161 0.0018889 -0.0029764 -0.0018487
-0.00021419 0.0017376 0.00022838 -0.00038391
0.0017187 0.00030751 0.26547 0.12041 -0.0022565 0.0017081 -4.3213e-05 0.0016017
0.0006566 0.0010124 0.00020006 0.00090663
-0.00032659 0.0018868 -0.0022534 0.001714 0.10824 -0.25874 0.0013403 -0.0010355
0.0015194 0.0015439 -0.00074929 0.0013192
-0.0029852 -0.0018335 -3.9704e-05 0.0015992 0.0013475 -0.00103 0.16148 -0.13656
0.0021733 0.005369 -0.0021343 0.00045655
-0.00020672 0.0017456 0.00065595 0.0010114 0.0015405 0.0015501 0.0021934 0.0053678
0.25494 0.0092787 0.0043714 0.0013065
0.00021325 -0.00039147 0.00020379 0.00089963 -0.00074768 0.0013223 -0.0021291 0.00046621
0.0043789 0.0013022 0.28517 0.046303
1940000000 0.17555 -0.18009 -0.00037166 -0.001059 0.001463 0.0018352 -0.0034435 0.0007507
0.0015036 0.0011527 -0.00067152 -0.00052812
-0.00037068 -0.0010659 0.26496 0.0887 -0.00097349 0.0039673 0.00097061 0.0011502
0.0016276 0.00035166 0.00078895 0.00034704
0.0014646 0.0018461 -0.00095342 0.0039849 0.062192 -0.25159 8.6296e-05 -0.0016481
0.0022596 0.00026844 0.00046114 0.0015302
-0.003443 0.00076054 0.00096848 0.0011407 8.8101e-05 -0.0016323 0.11016 -0.16666
0.0013936 0.0035818 -0.0014155 0.0014229
0.0015069 0.0011224 0.0016399 0.00033677 0.0022629 0.0002674 0.0014051 0.0035831
0.25444 -0.030424 0.0031164 -0.0013959
-0.00066707 -0.00053239 0.00079445 0.00034157 0.00045495 0.0015459 -0.0014166 0.0014238
0.0031096 -0.0013982 0.27226 0.0095477
2000000000 0.12844 -0.19366 -0.0039784 0.0010783 0.0023932 0.001419 -0.0021533 0.0034654
0.0012246 4.9107e-05 -0.00054656 0.00038718
-0.0039823 0.0010665 0.25004 0.053298 -0.00082584 0.0056582 0.0015189 0.0002592
0.0011966 -0.0011954 0.00042755 2.3171e-05
0.0023843 0.0014104 -0.00079585 0.0056584 0.018232 -0.23656 -0.0010421 -0.00096342
0.0018244 -0.0010851 0.001641 0.0010093
-0.0021426 0.0034637 0.001515 0.00025309 -0.001038 -0.00096382 0.05759 -0.17698
-0.00018079 0.0031111 5.5249e-05 0.0020964
0.0012465 5.2904e-05 0.0011894 -0.0012066 0.0018225 -0.0010914 -0.00017486 0.0031167
