!Keysight Technologies,M9804A,MY58100912,A.14.10.03
!Date: Thursday, April 27, 2023 10:28:33
!Correction: S11(C  6-Port  ) 
!S12(C  6-Port  ) 
!S13(C  6-Port  ) 
!S14(C  6-Port  ) 
!S15(C  6-Port  ) 
!S16(C  6-Port  ) 
!S21(C  6-Port  ) 
!S22(C  6-Port  ) 
!S23(C  6-Port  ) 
!S24(C  6-Port  ) 
!S25(C  6-Port  ) 
!S26(C  6-Port  ) 
!S31(C  6-Port  ) 
!S32(C  6-Port  ) 
!S33(C  6-Port  ) 
!S34(C  6-Port  ) 
!S35(C  6-Port  ) 
!S36(C  6-Port  ) 
!S41(C  6-Port  ) 
!S42(C  6-Port  ) 
!S43(C  6-Port  ) 
!S44(C  6-Port  ) 
!S45(C  6-Port  ) 
!S46(C  6-Port  ) 
!S51(C  6-Port  ) 
!S52(C  6-Port  ) 
!S53(C  6-Port  ) 
!S54(C  6-Port  ) 
!S55(C  6-Port  ) 
!S56(C  6-Port  ) 
!S61(C  6-Port  ) 
!S62(C  6-Port  ) 
!S63(C  6-Port  ) 
!S64(C  6-Port  ) 
!S65(C  6-Port  ) 
!S66(C  6-Port  ) 
!S6P File: Measurement: :
# Hz S  RI   R 50
500000000 -0.3408 -0.018409 -0.01209 -0.0034943 -0.0079472 0.01348 -0.0036886 0.01215
0.01123 0.0037498 -0.0033961 0.0080985
-0.012074 -0.0034987 -0.42084 -0.035992 0.0054568 -0.011165 0.0014967 0.012997
0.0064303 0.0022987 0.0014489 0.014131
-0.0079285 0.01347 0.0054445 -0.011164 -0.26502 0.224 0.0070139 0.0043631
-0.001439 0.0086072 0.0018499 0.012714
-0.0036799 0.012142 0.0015045 0.013003 0.0070106 0.0043669 -0.33163 0.063024
-0.020006 -0.0068627 0.014269 0.023731
0.011218 0.0037317 0.0064375 0.0022911 -0.0014214 0.0086065 -0.020013 -0.0068531
-0.23846 -0.16373 -0.025326 0.0032588
-0.0033774 0.0081015 0.001458 0.014127 0.0018557 0.012718 0.014285 0.023728
-0.025332 0.0032503 -0.28685 -0.078994
560000000 -0.31309 0.13798 -0.028046 -0.060331 0.00087886 0.012342 0.0055227 0.010013
0.0085125 0.0046597 0.010493 0.0073434
-0.027993 -0.060265 -0.37623 0.12033 -0.043387 -0.033966 0.01351 0.0038392
-0.012563 -0.0033664 0.0030916 -0.00088066
0.00089818 0.012333 -0.043465 -0.03391 -0.18075 0.26933 -0.00015438 -0.0040756
0.01904 0.0040216 0.0065814 -0.0062119
0.0055535 0.0099991 0.013514 0.0038203 -0.0001557 -0.0040504 -0.30444 0.14949
-0.00056508 -0.023969 0.0027011 -0.01814
0.0085261 0.0046261 -0.012587 -0.0033343 0.019053 0.0040069 -0.0005664 -0.023968
-0.28937 0.0099525 0.001747 -0.046095
0.010484 0.0073495 0.0030831 -0.00090614 0.0065889 -0.0062082 0.0026978 -0.018142
0.0017595 -0.046097 -0.33121 0.060247
620000000 -0.27146 0.12384 -0.023888 0.0081358 0.0046318 0.0086752 0.0075876 -0.0054641
0.011541 -0.00087645 0.00076143 -0.0025691
-0.023868 0.0081215 -0.40238 0.074732 -0.01959 0.0011535 -0.00073689 -0.0022508
0.010722 -0.0063228 0.0018101 -0.0026583
0.0046371 0.008662 -0.019593 0.0011842 -0.14904 0.27903 -0.00072007 -0.0048843
-0.003034 -0.0030088 0.008438 -0.0034908
0.0075765 -0.0054719 -0.00074683 -0.0022481 -0.00071204 -0.0048851 -0.26312 0.16106
-0.039669 -0.016851 0.011961 0.023475
0.011532 -0.00088421 0.010711 -0.0063584 -0.0030361 -0.0030055 -0.039689 -0.016817
-0.21318 -0.028135 -0.03969 0.015021
0.00076287 -0.0025651 0.0017995 -0.002671 0.0084456 -0.0034855 0.011983 0.023462
-0.039705 0.015015 -0.25724 0.032859
680000000 -0.22834 0.20674 -0.028136 -0.010554 0.0057993 0.0046764 0.0011909 -0.0070653
-0.0026441 -0.011354 0.0043132 -0.0071044
-0.028108 -0.010548 -0.38454 0.1697 -0.032055 0.0010082 -0.0011624 -0.00079986
-0.0023476 -0.0092114 -0.0013888 -0.0021993
0.0057962 0.0046623 -0.032062 0.0010728 -0.097155 0.29631 -0.00076979 -0.00079433
-0.0015691 -0.00025063 -0.0035272 -0.0086143
0.0011775 -0.0070651 -0.0011627 -0.00078673 -0.00077684 -0.00079173 -0.21653 0.20787
-0.025984 -0.0042746 -0.0089582 -0.0075137
-0.0026657 -0.011348 -0.0023721 -0.0092211 -0.0015655 -0.00025369 -0.026006 -0.004243
-0.25187 0.071126 -0.0078838 -0.0060796
0.0042906 -0.0071177 -0.0014008 -0.0022067 -0.0035293 -0.0086273 -0.0089843 -0.0075153
-0.0078814 -0.006089 -0.25431 0.12839
740000000 -0.18354 0.2019 -0.035645 0.027484 0.012593 -0.0059139 -0.00082681 -0.0041757
-0.0050127 -0.0027793 -0.0060805 0.0027784
-0.035623 0.027456 -0.33198 0.18835 -0.032344 0.035813 -0.0010485 -0.0063596
-0.011681 0.0077536 -0.0023438 -0.004864
0.012563 -0.0059269 -0.032263 0.035884 -0.063444 0.29424 -0.0018826 0.0029191
-0.003443 -0.0046412 -0.0021118 0.00087327
-0.00084268 -0.0041762 -0.0010385 -0.0063595 -0.0019011 0.0029142 -0.19854 0.21667
-0.041966 -0.0027145 0.022217 0.012568
-0.0050264 -0.0027758 -0.011682 0.0077901 -0.0034441 -0.0046304 -0.042004 -0.0026771
-0.1575 0.090965 -0.039012 0.0045518
-0.0060776 0.0027893 -0.0023565 -0.0048505 -0.0021027 0.00085889 0.022219 0.012559
-0.039015 0.0045239 -0.24128 0.13907
800000000 -0.14879 0.23822 -0.020186 0.018141 0.0049525 -0.010688 -0.004421 -0.0016083
-0.004012 0.0024001 0.0032962 0.00077436
-0.02018 0.01813 -0.33166 0.25668 -0.0060403 0.033774 -0.0023159 0.0022535
-0.00095438 0.0033353 0.00095728 0.0054114
0.0049339 -0.010694 -0.0059719 0.0338 -0.021043 0.31579 0.00068778 0.0017605
0.00020426 0.0034421 -0.0017009 0.0013124
-0.0044397 -0.001607 -0.0023216 0.0022697 0.00068376 0.0017598 -0.16834 0.24289
-0.026457 0.016867 0.012696 -0.0099757
-0.0040092 0.0024251 -0.00094005 0.0033427 0.00021183 0.0034469 -0.026452 0.016925
-0.19429 0.11884 -0.014984 0.019763
0.0032835 0.00077529 0.00097098 0.0054167 -0.0017098 0.0013201 0.01269 -0.010007
-0.014999 0.019735 -0.22784 0.18436
860000000 -0.11356 0.25714 -0.014631 0.030753 -0.0034808 -0.010001 -0.0019604 0.0011316
0.0043884 0.004737 -0.0026175 -0.0022605
-0.014644 0.030732 -0.28384 0.2968 0.0098859 0.033312 5.2648e-05 0.0020862
0.0044466 0.00066671 0.003284 0.00034791
-0.0034907 -0.010005 0.0099484 0.033303 0.02681 0.32261 -0.00030566 -1.1709e-06
0.0024865 -0.0014217 0.0021209 0.0037113
-0.0019576 0.0011256 5.5453e-05 0.0020873 -0.00030627 1.337e-06 -0.13167 0.25337
-0.014791 0.021417 -0.0048819 -0.0090269
0.0044072 0.0047294 0.0044672 0.00064861 0.0024917 -0.0014249 -0.014777 0.021458
-0.14029 0.16322 -0.020121 0.01723
-0.0026168 -0.002244 0.0032931 0.00033297 0.0021245 0.0037139 -0.0048879 -0.0090354
-0.020128 0.017207 -0.17786 0.22296
920000000 -0.086993 0.27783 0.0072822 0.035979 -0.0094469 -0.0045376 -0.0013421 0.0015676
0.0017198 0.0016593 0.002941 -0.0017626
0.0072442 0.035963 -0.2539 0.31657 0.028872 0.019827 0.001894 0.0010678
0.0072391 -0.00074064 0.0038564 -0.0030959
-0.009442 -0.0045384 0.028921 0.01979 0.073918 0.32287 0.0019965 -0.00010693
0.0016191 -0.00062396 0.00079167 -0.0014706
-0.0013297 0.0015566 0.00189 0.0010699 0.0019956 -0.00010984 -0.10533 0.26921
-0.0066831 0.03135 0.0028266 -0.0067886
0.0017093 0.0016481 0.0072655 -0.0007723 0.0016169 -0.00062041 -0.0066336 0.031397
-0.12766 0.16929 0.00047942 0.025789
0.0029441 -0.0017575 0.0038532 -0.003125 0.00079325 -0.0014536 0.0028193 -0.0067912
0.00045702 0.025785 -0.17677 0.23811
980000000 -0.040444 0.29527 0.019151 0.027654 -0.008807 0.0043879 0.0018494 0.0028635
0.0038181 -0.0020371 -0.0030798 -0.0020847
0.019087 0.027655 -0.20249 0.34849 0.03321 0.0026348 0.0021187 -0.0002555
0.0016734 -0.0063973 -0.0005775 -0.0025028
-0.00879 0.0044006 0.033209 0.0025559 0.12091 0.3154 0.00051539 -0.0013201
1.8132e-05 -0.0023566 0.0011036 -0.00039886
0.0018648 0.002862 0.0021008 -0.00025348 0.00052535 -0.0013129 -0.066461 0.27828
0.011921 0.028338 -0.0083897 -0.0063738
0.0037933 -0.0020532 0.0016597 -0.0064021 1.0964e-05 -0.0023554 0.011991 0.028342
-0.094217 0.19252 0.0071881 0.018304
-0.0030901 -0.002072 -0.00057115 -0.002514 0.0011029 -0.00039919 -0.0083984 -0.0063729
0.0071692 0.018313 -0.13254 0.27517
1040000000 0.0024416 0.30197 0.033319 0.014786 -0.0015892 0.0065435 0.0022277 0.00052354
-4.5881e-06 -0.0031392 -0.0008735 -0.0015764
0.033281 0.014809 -0.16702 0.36165 0.028038 -0.016652 0.0014361 -0.0018617
-0.0025151 -0.0028612 -0.0017109 -0.0027613
-0.0015642 0.0065351 0.027989 -0.016717 0.16817 0.30074 -0.00068773 -0.0015389
-0.0016947 -0.00087155 -0.00068596 -0.00094786
0.002245 0.00051707 0.0014214 -0.0018475 -0.00068428 -0.0015429 -0.037525 0.28725
0.022296 0.015315 -0.0027799 0.00083822
-3.5565e-05 -0.003148 -0.0025092 -0.0028593 -0.0016923 -0.00086171 0.022334 0.015296
-0.062484 0.19785 0.014855 0.015427
-0.00089595 -0.0015652 -0.0017164 -0.0027831 -0.00068539 -0.0009438 -0.0027815 0.00084181
0.014856 0.015442 -0.10657 0.29449
1100000000 0.047259 0.30783 0.034475 -0.0070462 0.0023505 0.0036582 0.0020522 -0.00090676
-0.0020524 -0.0028046 -0.003689 0.00056091
0.034443 -0.0070036 -0.12413 0.37793 0.013249 -0.028861 -0.00010797 -0.0018261
-0.0038385 -0.00065565 -0.0035657 -0.00014315
0.0023636 0.0036592 0.013177 -0.028901 0.21578 0.27817 -0.0019461 0.000256
-0.0020253 0.00075997 -0.0010501 5.3617e-05
0.0020534 -0.00090872 -0.00012612 -0.001826 -0.0019491 0.00025125 0.0037132 0.29002
0.025924 0.0012946 -0.0027577 -0.00012938
-0.0020703 -0.0028035 -0.0038395 -0.00064314 -0.0020256 0.00076661 0.025935 0.0012529
-0.043132 0.20891 0.019467 0.0055271
-0.0037011 0.00057369 -0.0035606 -0.00013388 -0.0010516 5.3682e-05 -0.0027605 -0.00012576
0.019446 0.0055287 -0.059824 0.31723
1160000000 0.097844 0.3019 0.021517 -0.022822 0.0018968 -0.00026745 -8.8746e-05 -0.0018113
-0.0040777 -0.00036774 -0.00071368 0.0039648
0.021516 -0.022779 -0.07968 0.38276 -0.0060823 -0.028903 -0.0017334 -0.0015191
-0.0029002 0.0029111 -0.0014241 0.0020302
0.0019064 -0.00026682 -0.006183 -0.028882 0.25889 0.24456 -0.00073788 0.0018766
-0.00032637 0.0021715 -0.00066372 0.00038891
-8.2833e-05 -0.0018023 -0.0017468 -0.0015129 -0.00073459 0.0018774 0.043561 0.28517
0.020527 -0.014482 -0.0032271 0.0040113
-0.0040796 -0.00036502 -0.0028809 0.0029291 -0.00032638 0.0021726 0.020509 -0.014512
-0.010182 0.21529 0.017953 -0.0033931
-0.00071237 0.0039718 -0.0014101 0.0020311 -0.00066609 0.00038866 -0.0032175 0.0040266
0.017936 -0.0033926 -0.013172 0.31764
1220000000 0.14225 0.28909 0.0069937 -0.030492 -0.0019542 -4.4898e-05 0.00027048 -0.00088483
-0.0024765 0.0023418 0.0014473 0.0021227
0.0070064 -0.030447 -0.034903 0.39369 -0.018497 -0.019873 -0.0025151 0.00050874
0.00025979 0.0033179 -0.00042876 0.0021022
-0.0019521 -3.9648e-05 -0.018572 -0.019819 0.29702 0.20254 0.00092121 0.0019696
0.00081655 0.0013322 0.00051614 0.00051883
0.00027707 -0.00088412 -0.0025286 0.00051913 0.00091997 0.0019673 0.084029 0.27411
0.0085318 -0.020564 0.00090647 0.001394
-0.0024845 0.0023381 0.00028486 0.003324 0.00081329 0.0013219 0.0085141 -0.020585
0.013624 0.22178 0.011844 -0.015194
0.001446 0.0021108 -0.00042399 0.0021028 0.00051872 0.00051998 0.00090331 0.0013942
0.01184 -0.015194 0.020904 0.32853
1280000000 0.1912 0.26597 -0.011068 -0.027265 -0.0016765 0.0033856 -0.00081597 -0.0021073
-0.00067173 0.003044 0.0025628 0.00090438
-0.011043 -0.027238 0.011798 0.38432 -0.024558 -0.0067475 -0.00099992 0.0015467
0.0021305 0.0018526 0.0010051 0.001801
-0.0016656 0.0033872 -0.024592 -0.0066647 0.32496 0.15675 0.0018234 -7.3338e-05
0.0013036 0.00010387 0.00031316 0.00013551
-0.00082248 -0.0021062 -0.00099595 0.0015536 0.0018215 -7.0511e-05 0.12021 0.25488
-0.0025778 -0.021438 -0.00098151 0.00069946
-0.00065925 0.003046 0.0021315 0.0018462 0.0013104 0.00010113 -0.0026147 -0.021449
0.049378 0.22325 0.00069184 -0.016749
0.0025609 0.00089679 0.0010135 0.001794 0.00031188 0.00013586 -0.00097589 0.00070397
0.00070037 -0.016744 0.066737 0.32601
1340000000 0.22795 0.23079 -0.019882 -0.016073 0.0016031 0.0048551 -0.0017843 -0.0010477
0.0015057 0.0026189 0.0016373 -0.0016061
-0.019848 -0.016074 0.052331 0.37405 -0.021294 0.0061311 -2.9418e-05 0.0021258
0.0022625 0.00039081 0.0014368 0.00058399
0.0016172 0.0048427 -0.021286 0.0062126 0.34446 0.1083 0.0013521 -0.001192
0.00070056 -0.00060971 4.2253e-05 0.00021783
-0.0017776 -0.0010375 -1.1732e-05 0.0021299 0.0013581 -0.0011893 0.15174 0.23207
-0.01248 -0.016719 0.00016381 0.0016247
0.0015135 0.0026147 0.0022647 0.0003793 0.00069072 -0.00061211 -0.012526 -0.01671
0.079378 0.2168 -0.0068737 -0.014222
0.0016299 -0.0016094 0.0014455 0.00056833 4.4343e-05 0.000218 0.00017408 0.00162
-0.0068629 -0.014228 0.10594 0.31672
1400000000 0.26004 0.1913 -0.023659 -0.0039274 0.0058885 0.0031113 -0.0022405 0.00061541
0.0024817 0.00088685 7.5155e-05 -0.0015553
-0.023626 -0.0039387 0.089217 0.35941 -0.013731 0.01375 0.0015201 0.0012574
0.0011661 -0.0012773 0.0011032 -9.1435e-05
0.0058933 0.0030927 -0.013686 0.013822 0.35572 0.055412 4.7142e-05 -0.0021305
4.4683e-05 -0.00049839 0.00037603 0.00019913
-0.0022317 0.0006183 0.0015252 0.0012506 5.2332e-05 -0.0021317 0.17948 0.2009
-0.018188 -0.008323 -0.00036818 0.001102
0.0024936 0.00088024 0.0011711 -0.001284 3.9085e-05 -0.00049995 -0.018212 -0.0082811
0.11115 0.20998 -0.012995 -0.0080168
7.0931e-05 -0.0015539 0.0011012 -9.5049e-05 0.00037468 0.00020058 -0.0003689 0.0011081
-0.012993 -0.008023 0.14791 0.30123
1460000000 0.28182 0.14629 -0.019049 0.0077969 0.0060878 -0.0022558 -0.0016201 0.0017926
0.0021894 -0.0007433 -0.00057144 -0.00087084
-0.019033 0.0077715 0.12304 0.33577 -0.0045935 0.015828 0.0018366 -1.4732e-05
0.0004568 -0.0015168 0.00096881 -0.0006491
0.0060754 -0.0022909 -0.0045373 0.015851 0.36042 0.0023059 -0.001765 -0.0013635
5.243e-05 -0.00024928 0.00069823 -0.00033598
-0.0016186 0.0017979 0.0018311 -1.3774e-05 -0.001784 -0.0013669 0.20334 0.17014
-0.018266 9.6784e-05 0.00015697 0.0026359
0.0021851 -0.00074299 0.00046071 -0.0015323 6.3611e-05 -0.00024694 -0.018275 0.00014068
0.13965 0.19385 -0.013993 -0.00099605
-0.00058064 -0.00087038 0.00096459 -0.00066038 0.00069958 -0.00033474 0.00015542 0.0026288
-0.013989 -0.00098696 0.17958 0.27788
1520000000 0.29283 0.10304 -0.012037 0.01222 0.003488 -0.0046057 0.00016581 0.0027458
0.001977 -0.00193 -0.0011712 8.8347e-06
-0.012037 0.012201 0.15528 0.31945 0.002851 0.012831 0.0016377 -0.001037
-0.00032071 -0.00094786 0.00021287 -0.00095791
0.0034714 -0.0046114 0.0029064 0.01283 0.35353 -0.053324 -0.0015316 -9.5879e-05
0.00047598 -0.00091669 3.8866e-06 -0.00024612
0.00016876 0.0027447 0.0016299 -0.0010457 -0.0015323 -0.0001052 0.22362 0.1313
-0.015528 0.0065942 0.0025017 0.0020826
0.0019709 -0.0019395 -0.00032671 -0.00094867 0.00047112 -0.00092557 -0.015523 0.0066351
0.16712 0.17772 -0.012905 0.0042789
-0.0011744 1.9727e-05 0.00021392 -0.00096074 -5.5042e-07 -0.00024817 0.0025029 0.0020779
-0.012901 0.0042743 0.21035 0.25387
1580000000 0.30035 0.056174 -0.0049407 0.013732 -0.00087563 -0.0052754 0.0016888 0.0019064
-0.00031996 -0.002291 -0.00019568 0.00048716
-0.0049456 0.013706 0.18098 0.29379 0.0060754 0.0075104 0.00025361 -0.0017845
-0.00064637 -0.00068147 -0.00028032 -0.00078042
-0.00089091 -0.0052792 0.0061002 0.0074848 0.33351 -0.11042 -0.0016012 0.0011794
-0.00045865 -0.0011149 0.00015703 -0.00064899
0.0016954 0.0018959 0.00025472 -0.0017855 -0.0015964 0.0011827 0.2344 0.092103
-0.010181 0.011061 0.0030228 0.00012311
-0.00032155 -0.0022975 -0.0006485 -0.00067663 -0.0004599 -0.0011156 -0.01016 0.011097
0.19028 0.15767 -0.0092761 0.0096488
-0.00019409 0.00048992 -0.00028616 -0.00077947 0.00015368 -0.0006536 0.0030248 0.00011438
-0.0092792 0.0096482 0.23908 0.22554
1640000000 0.30046 0.014236 0.0013012 0.011034 -0.0029567 -0.0030344 0.0028607 0.00073334
-0.0010598 -0.0015603 -0.00013693 0.00053458
0.0012827 0.011028 0.20899 0.2683 0.0062016 0.0026934 -0.0010322 -0.001636
-0.0008424 -0.00012016 -0.00057587 -0.00052866
-0.0029659 -0.0030139 0.0062214 0.0026646 0.30491 -0.15926 -0.0003622 0.0017157
-0.0013596 -0.00069965 -0.00026547 -0.00028653
0.002855 0.00072781 -0.0010301 -0.0016331 -0.00036283 0.0017179 0.24382 0.044786
-0.0045751 0.011211 0.0027862 -0.0014981
-0.0010739 -0.001555 -0.00084766 -0.0001133 -0.0013607 -0.00069664 -0.004544 0.011242
0.21172 0.13132 -0.0036173 0.011406
-0.00013534 0.00053634 -0.00057468 -0.00052681 -0.00026708 -0.00028471 0.0027895 -0.0015026
-0.0036168 0.011407 0.26263 0.19287
1700000000 0.29081 -0.030818 0.0037007 0.0072104 -0.0037441 -0.00020312 0.0029506 -0.0015395
-0.0021474 -0.00050639 0.00074134 0.00021177
0.0036854 0.0072133 0.22556 0.23719 0.0040055 -0.00013563 -0.0015501 -0.00031118
-0.00047361 8.0825e-05 -0.00091023 -0.0003689
-0.0037356 -0.00018961 0.003998 -0.00016021 0.26182 -0.19915 0.00092776 0.0013597
-0.0018269 5.0358e-05 -0.00075363 -0.00085366
0.0029468 -0.0015496 -0.0015463 -0.0002946 0.00093061 0.001359 0.23887 -0.0025812
-0.0012234 0.010066 0.001552 -0.0026935
-0.0021485 -0.00049728 -0.00047793 8.2892e-05 -0.0018293 5.3645e-05 -0.0012067 0.010077
0.22711 0.10906 0.0016656 0.011041
0.00074247 0.0002071 -0.00090627 -0.00036424 -0.00075397 -0.0008576 0.0015437 -0.0026999
0.0016713 0.01104 0.27657 0.15765
1760000000 0.27716 -0.07818 0.0044861 0.003574 -0.0027433 0.0007743 0.00087272 -0.0036064
-0.0014203 0.0010153 0.00032376 -0.00053661
0.0044714 0.0035813 0.2506 0.19779 0.0014897 -0.0019773 -0.0011266 0.00042133
-0.00087292 0.00063029 -0.00057137 0.00047792
-0.0027345 0.00077934 0.0014772 -0.001983 0.21349 -0.23307 0.0013216 0.00065914
-0.0010567 0.0017171 -0.0013961 -0.0002351
0.00085876 -0.0036152 -0.0011193 0.00042601 0.0013173 0.00066355 0.22943 -0.050854
0.0015154 0.007932 -0.00041134 -0.0029412
-0.0014097 0.0010167 -0.00087119 0.0006351 -0.0010621 0.0017235 0.0015357 0.0079326
0.23974 0.072621 0.0057138 0.0076069
0.00031928 -0.00053953 -0.00056583 0.00048341 -0.0013925 -0.00023402 -0.00042025 -0.0029458
0.0057107 0.0076086 0.28748 0.11933
1820000000 0.25148 -0.11433 0.0034654 0.00055731 -0.00043447 0.0024888 -0.0014433 -0.0028702
-0.00081669 0.0012095 -0.00020037 -8.1056e-05
0.0034521 0.00056074 0.25993 0.16845 -0.00065856 -0.00062256 -0.0010119 0.0010281
-0.00011897 0.0010399 -0.00048653 0.00054124
-0.00042524 0.0024831 -0.00065079 -0.00062176 0.16264 -0.24923 0.0011842 -4.1451e-05
0.00016575 0.0021659 -0.0013403 0.0006444
-0.001469 -0.0028679 -0.0010151 0.0010326 0.0011812 -3.867e-05 0.20062 -0.095453
0.0022049 0.0056298 -0.0017656 -0.001943
-0.00081028 0.0012114 -0.00011284 0.0010418 0.00017231 0.0021706 0.0022153 0.0056324
0.25427 0.042231 0.0067722 0.0032362
-0.00019951 -7.8624e-05 -0.00048263 0.00054513 -0.0013462 0.00064584 -0.0017686 -0.0019394
0.0067712 0.0032324 0.28774 0.081574
1880000000 0.21571 -0.15323 0.00052846 -0.00076951 -0.00083191 0.0022981 -0.0030812 -0.0017257
0.00010367 0.0015806 0.00013135 -0.00025426
0.00053205 -0.00075621 0.26436 0.12255 -0.0029339 0.0013082 3.2503e-05 0.0015629
0.00032978 0.0010838 0.00016317 0.00090847
-0.0008191 0.0023108 -0.0029302 0.0013242 0.1093 -0.25911 0.0013039 -0.00094955
0.0016872 0.0015183 -0.00066064 0.0015816
-0.0030895 -0.0017128 3.6975e-05 0.0015566 0.0013039 -0.00094639 0.16222 -0.13468
0.0019735 0.0033621 -0.0026976 1.1962e-05
0.00011851 0.0015755 0.00033142 0.001084 0.0016781 0.0015167 0.0019788 0.0033701
0.25443 0.0087156 0.0061394 0.00040639
0.00012764 -0.00025603 0.00017122 0.00090892 -0.00065387 0.0015784 -0.0026926 2.6544e-05
0.0061337 0.00040363 0.28544 0.047056
1940000000 0.17656 -0.17837 -0.0016932 -0.0013782 0.0014155 0.0024152 -0.0035097 0.00092519
0.0015537 0.00088331 -0.00047305 -0.00036275
-0.0016952 -0.0013822 0.26496 0.090979 -0.0016741 0.0039426 0.0010118 0.0010834
0.0015017 0.00071724 0.0008013 0.0004591
0.001428 0.002419 -0.0016562 0.0039548 0.0629 -0.25229 0.00020897 -0.0016136
0.0022346 0.00014266 0.0006479 0.0016973
-0.0035125 0.00094269 0.0010193 0.0010756 0.00021695 -0.001611 0.11183 -0.16535
0.00054786 0.0022555 -0.0020375 0.0014015
0.0015628 0.00087361 0.0015096 0.00069918 0.0022379 0.00013924 0.00055063 0.0022554
0.2537 -0.03064 0.0043861 -0.0030854
-0.00047649 -0.00035813 0.00080386 0.00045527 0.00064715 0.0016866 -0.0020374 0.0014069
0.0043764 -0.0030796 0.27267 0.0099132
2000000000 0.13022 -0.1928 -0.0051606 0.0012969 0.002545 0.0018781 -0.0020694 0.0034838
0.0010393 -0.00017749 -0.00037899 0.00037393
-0.0051532 0.0012798 0.25105 0.055381 -0.0013715 0.0059542 0.0015125 0.00019143
0.0014202 -0.00087131 0.00049239 0.00011149
0.0025535 0.0018695 -0.0013419 0.0059718 0.018557 -0.2374 -0.00095191 -0.00094993
0.0017026 -0.0010872 0.0018823 0.000859
-0.0020525 0.0034877 0.001515 0.00017854 -0.00095483 -0.00095293 0.059504 -0.17692
-0.0013842 0.0021949 -0.00048902 0.0023837
0.0010404 -0.00017645 0.0014074 -0.00088396 0.0016957 -0.001093 -0.0013815 0.0021993
