!Keysight Technologies,M9804A,MY58100912,A.14.10.03
!Date: Thursday, April 27, 2023 10:28:33
!Correction: S11(C  6-Port  ) 
!S12(C  6-Port  ) 
!S13(C  6-Port  ) 
!S14(C  6-Port  ) 
!S15(C  6-Port  ) 
!S16(C  6-Port  ) 
!S21(C  6-Port  ) 
!S22(C  6-Port  ) 
!S23(C  6-Port  ) 
!S24(C  6-Port  ) 
!S25(C  6-Port  ) 
!S26(C  6-Port  ) 
!S31(C  6-Port  ) 
!S32(C  6-Port  ) 
!S33(C  6-Port  ) 
!S34(C  6-Port  ) 
!S35(C  6-Port  ) 
!S36(C  6-Port  ) 
!S41(C  6-Port  ) 
!S42(C  6-Port  ) 
!S43(C  6-Port  ) 
!S44(C  6-Port  ) 
!S45(C  6-Port  ) 
!S46(C  6-Port  ) 
!S51(C  6-Port  ) 
!S52(C  6-Port  ) 
!S53(C  6-Port  ) 
!S54(C  6-Port  ) 
!S55(C  6-Port  ) 
!S56(C  6-Port  ) 
!S61(C  6-Port  ) 
!S62(C  6-Port  ) 
!S63(C  6-Port  ) 
!S64(C  6-Port  ) 
!S65(C  6-Port  ) 
!S66(C  6-Port  ) 
!S6P File: Measurement: :
# Hz S  RI   R 50
500000000 -0.33997 -0.017393 -0.010955 -0.0035937 -0.007207 0.012466 -0.0034598 0.011935
0.011371 0.0036041 -0.0030539 0.0078175
-0.010954 -0.0035977 -0.42024 -0.035247 0.0058959 -0.011682 0.0015469 0.012287
0.0068426 0.0018174 0.001873 0.013064
-0.0072551 0.012449 0.0059479 -0.011668 -0.26352 0.22373 0.0069414 0.0039997
-0.00073473 0.0083022 0.0020846 0.012141
-0.0034401 0.011913 0.0015476 0.012445 0.0069934 0.0039976 -0.33175 0.063549
-0.019392 -0.0074114 0.013967 0.023361
0.011409 0.0036326 0.0068505 0.0017154 -0.00078961 0.0082884 -0.019394 -0.0074004
-0.23744 -0.16126 -0.024619 0.0028874
-0.0030264 0.0077912 0.0019969 0.013153 0.0021775 0.012187 0.014016 0.023333
-0.024619 0.0028531 -0.28666 -0.077666
560000000 -0.31234 0.1386 -0.026908 -0.060296 0.00090881 0.01182 0.0057831 0.0092595
0.0091702 0.004208 0.010347 0.0071796
-0.026892 -0.060199 -0.37644 0.11945 -0.042029 -0.034302 0.013173 0.0034488
-0.01148 -0.0041126 0.0032064 -0.00019041
0.001006 0.011847 -0.042076 -0.034313 -0.18068 0.26855 0.00025067 -0.0043431
0.018209 0.0041665 0.0065855 -0.006567
0.0059055 0.0093469 0.013088 0.0032533 0.00019932 -0.0042562 -0.30441 0.14923
-9.0829e-05 -0.024677 0.00337 -0.017722
0.0090867 0.0036897 -0.01173 -0.003705 0.018311 0.0041801 -9.0493e-05 -0.02467
-0.28819 0.010765 0.0036198 -0.046131
0.010548 0.0073881 0.003048 -0.00049593 0.006551 -0.0065709 0.0033548 -0.017732
0.0036123 -0.046195 -0.33173 0.062905
620000000 -0.27011 0.12394 -0.023401 0.0074721 0.004502 0.0081526 0.0071871 -0.0051719
0.011374 -0.0019116 0.00022515 -0.0024484
-0.023399 0.00745 -0.4011 0.075219 -0.019499 0.0004432 -0.00074092 -0.0022185
0.010224 -0.006769 0.0018081 -0.0029388
0.0046095 0.0080944 -0.019439 0.00050848 -0.1489 0.27771 -0.0010744 -0.004607
-0.0032453 -0.0034507 0.0081418 -0.0033973
0.007367 -0.0051768 -0.00076454 -0.0021591 -0.0010881 -0.004621 -0.26306 0.16074
-0.038589 -0.01688 0.011798 0.022907
0.011166 -0.0020129 0.010249 -0.0068171 -0.0032597 -0.0034451 -0.038611 -0.016823
-0.21332 -0.027984 -0.038042 0.014747
0.00019559 -0.002396 0.0016777 -0.0029434 0.0081392 -0.0034485 0.01182 0.022883
-0.038101 0.01474 -0.25673 0.034118
680000000 -0.22719 0.20637 -0.027745 -0.011521 0.005651 0.0044028 0.0010218 -0.0071726
-0.0031175 -0.01099 0.0041571 -0.0065304
-0.027768 -0.011526 -0.38361 0.16934 -0.032236 0.00086253 -0.0015583 -0.00079668
-0.0025021 -0.0089266 -0.0014062 -0.0022613
0.0055838 0.0044106 -0.032239 0.00089701 -0.097646 0.29565 -0.00081122 -0.00038205
-0.0017482 -3.5152e-05 -0.0037901 -0.0085603
0.00093257 -0.0070331 -0.0016193 -0.00079365 -0.00080887 -0.00043137 -0.21665 0.20824
-0.025783 -0.0052759 -0.0095586 -0.0079056
-0.0032483 -0.011041 -0.0025646 -0.0089863 -0.0017698 -6.8069e-05 -0.025799 -0.0052516
-0.25027 0.07089 -0.0075891 -0.0059752
0.0042124 -0.0066736 -0.001477 -0.0023059 -0.0037397 -0.0085557 -0.0095328 -0.0079477
-0.0076002 -0.0059649 -0.25273 0.1282
740000000 -0.18356 0.20078 -0.036226 0.026495 0.012153 -0.0059746 -0.00089543 -0.004157
-0.0055391 -0.0026474 -0.0059302 0.0034886
-0.036228 0.026417 -0.33258 0.18793 -0.032431 0.035238 -0.0012666 -0.0060164
-0.011215 0.0081443 -0.0022857 -0.0049487
0.012148 -0.0059542 -0.032449 0.035197 -0.064089 0.29441 -0.0018425 0.0028801
-0.0036775 -0.0042625 -0.0019896 0.0010299
-0.00089388 -0.0042499 -0.0013514 -0.0060292 -0.0018051 0.0029093 -0.19871 0.21661
-0.042363 -0.0027711 0.021744 0.011849
-0.0054972 -0.0027609 -0.01176 0.0081851 -0.0035674 -0.0042865 -0.042402 -0.0027369
-0.15748 0.090865 -0.038608 0.0039662
-0.0058147 0.0034175 -0.0022722 -0.0052036 -0.0020047 0.0010904 0.021757 0.011824
-0.038608 0.0039061 -0.24115 0.13868
800000000 -0.14921 0.23785 -0.020864 0.017909 0.0046054 -0.010517 -0.004363 -0.0016108
-0.0037142 0.0025442 0.0036446 0.00094574
-0.020871 0.017894 -0.33219 0.25664 -0.0064039 0.03373 -0.0023058 0.0023954
-0.00054308 0.0036149 0.0010505 0.0053636
0.0046344 -0.010526 -0.0063047 0.033739 -0.021589 0.31627 0.00093888 0.0015794
0.00036344 0.0035924 -0.0015928 0.0013334
-0.0043992 -0.0016305 -0.0023164 0.0024199 0.0009404 0.0016036 -0.16875 0.24289
-0.026594 0.016227 0.012333 -0.0097198
-0.0037291 0.0025451 -0.00054541 0.0035814 0.00032925 0.0035906 -0.026578 0.016293
-0.19372 0.11831 -0.015266 0.018411
0.0036184 0.00085219 0.0010242 0.0053375 -0.0016089 0.0013709 0.012337 -0.0097517
-0.015282 0.018395 -0.22819 0.1845
860000000 -0.11409 0.25723 -0.015375 0.030979 -0.0038632 -0.0096532 -0.0017841 0.0013959
0.0046608 0.0045031 -0.0027424 -0.0023651
-0.01539 0.030949 -0.28444 0.2973 0.0096018 0.033199 0.00015724 0.0022588
0.0048047 0.0005204 0.0030361 0.00034779
-0.0038969 -0.0096449 0.0096742 0.0332 0.026951 0.32328 -0.00021704 -1.7136e-05
0.0024957 -0.0011756 0.0018177 0.0038402
-0.0018305 0.0014058 0.00012949 0.0022238 -0.00022039 -2.6128e-05 -0.13181 0.25378
-0.014835 0.021483 -0.0054172 -0.0091194
0.0046554 0.0044595 0.0047195 0.00051751 0.002499 -0.0011808 -0.014808 0.02153
-0.14063 0.1629 -0.020288 0.016466
-0.0028139 -0.0024328 0.0031211 0.00021477 0.0017846 0.0038436 -0.005438 -0.009118
-0.020308 0.016456 -0.17885 0.22205
920000000 -0.087289 0.27833 0.0066695 0.036302 -0.009393 -0.0040344 -0.0013263 0.0017318
0.0016063 0.0013484 0.0027266 -0.0018196
0.0066193 0.036272 -0.25426 0.31726 0.028499 0.01993 0.0019225 0.00093588
0.0068841 -0.00086355 0.0037919 -0.0031777
-0.009408 -0.0040035 0.028575 0.019891 0.074302 0.32315 0.0019691 -0.00012832
0.0014779 -0.00070572 0.00093182 -0.0011784
-0.0012942 0.0017296 0.0019631 0.0009012 0.0019871 -0.00014132 -0.10531 0.26944
-0.0068939 0.031095 0.0026947 -0.0065497
0.0016947 0.0013761 0.0069228 -0.00089573 0.0014994 -0.00070607 -0.0068376 0.031135
-0.12783 0.16894 2.0634e-05 0.025437
0.0027847 -0.0017587 0.003902 -0.0031992 0.00091309 -0.0011681 0.0026861 -0.0065581
2.0102e-05 0.025428 -0.17626 0.23838
980000000 -0.04044 0.29603 0.01888 0.028175 -0.0085893 0.0047642 0.0020098 0.0031234
0.003767 -0.0018123 -0.0031036 -0.0018952
0.018839 0.028163 -0.20255 0.34973 0.032701 0.002807 0.0020093 -0.00028875
0.0013301 -0.0062099 -0.00058723 -0.0023883
-0.0085576 0.0047833 0.032736 0.002762 0.12125 0.31543 0.00045997 -0.0012923
3.6221e-05 -0.0022781 0.0012813 -0.00034822
0.0020288 0.0030761 0.0020142 -0.00027482 0.0004551 -0.0012997 -0.066725 0.27883
0.01146 0.028286 -0.0086577 -0.0062334
0.0037856 -0.001869 0.0013052 -0.0062627 4.3173e-05 -0.002278 0.011522 0.028271
-0.095045 0.1927 0.0064018 0.017965
-0.0030431 -0.0018572 -0.00060061 -0.0023971 0.0012995 -0.00036141 -0.0086649 -0.0062288
0.0063913 0.01797 -0.13321 0.27562
1040000000 0.0025893 0.30282 0.033071 0.015324 -0.0011612 0.0066664 0.002367 0.00040755
-6.2683e-05 -0.0031977 -0.00084447 -0.0014745
0.033027 0.015333 -0.1664 0.36277 0.027712 -0.016219 0.0013318 -0.0018452
-0.0025021 -0.002457 -0.0016496 -0.0026499
-0.0011568 0.0066508 0.027691 -0.016292 0.16846 0.30043 -0.00069543 -0.0015177
-0.00169 -0.00087637 -0.00057404 -0.0010563
0.0023792 0.00037899 0.0013433 -0.0018162 -0.00069125 -0.0015252 -0.037255 0.28776
0.021823 0.015607 -0.0027368 0.00126
-5.0254e-05 -0.0031797 -0.0025428 -0.0024476 -0.0016866 -0.00086007 0.021874 0.015578
-0.063079 0.19875 0.01421 0.015801
-0.00075124 -0.0014128 -0.0016657 -0.0027103 -0.00055274 -0.0010315 -0.0027357 0.0012498
0.014211 0.0158 -0.10621 0.29498
1100000000 0.047816 0.30875 0.034391 -0.0063934 0.0027197 0.0037055 0.0022005 -0.0011022
-0.0021107 -0.0028432 -0.0035864 0.00060952
0.034366 -0.0063646 -0.1231 0.37898 0.0132 -0.02814 -0.00010783 -0.0018287
-0.0035105 -0.00052262 -0.0033631 -0.00015769
0.0027184 0.0036894 0.013132 -0.028209 0.21552 0.27786 -0.0018765 0.00028733
-0.001925 0.0007309 -0.00099566 -0.00013779
0.0022063 -0.0011023 -0.00012971 -0.0018164 -0.0018868 0.00029119 0.0042322 0.29046
0.025544 0.0016467 -0.0024585 0.00018754
-0.0021193 -0.0028331 -0.0035369 -0.00050508 -0.0019205 0.00073452 0.025572 0.0016025
-0.043326 0.20966 0.019108 0.0056235
-0.0035669 0.00064687 -0.0033711 -0.00017357 -0.00098082 -0.00011713 -0.0024562 0.00020323
0.019101 0.005636 -0.059911 0.31739
1160000000 0.098755 0.3025 0.021777 -0.022127 0.0022463 -0.00032888 -9.711e-05 -0.0019549
-0.0039746 -0.00040954 -0.00065955 0.0038498
0.02178 -0.022083 -0.078063 0.38312 -0.0056288 -0.028269 -0.0017423 -0.0014198
-0.0025592 0.002696 -0.0012562 0.0018386
0.0022529 -0.00035626 -0.0057094 -0.028264 0.25837 0.24461 -0.00064362 0.0018901
-0.00030746 0.001991 -0.00084135 0.00016992
-0.00011214 -0.0019924 -0.00174 -0.0014242 -0.00064408 0.00188 0.044203 0.28519
0.020208 -0.013783 -0.003049 0.0041691
-0.0039943 -0.00039842 -0.0025789 0.0026729 -0.00030983 0.0019957 0.020199 -0.013806
-0.010432 0.2163 0.016982 -0.0028318
-0.00063981 0.0038283 -0.0012601 0.0018444 -0.00082691 0.00015289 -0.0030446 0.0041746
0.016962 -0.0028201 -0.012758 0.31777
1220000000 0.1434 0.28932 0.0076798 -0.029881 -0.0016577 -0.00023752 0.0001297 -0.00090949
-0.0024556 0.0022845 0.001404 0.0019017
0.0076936 -0.029849 -0.033488 0.39334 -0.017856 -0.01953 -0.0024506 0.0005467
0.00028513 0.0029604 -0.00045942 0.0019996
-0.0016522 -0.00024368 -0.017925 -0.019484 0.29649 0.20306 0.00092767 0.0018609
0.00075283 0.0012258 0.00038257 0.00046594
0.00010654 -0.00091445 -0.0024631 0.00055267 0.00092358 0.0018507 0.08452 0.27387
0.008577 -0.019697 0.0013782 0.0014064
-0.0024375 0.0023084 0.00028274 0.002965 0.00075895 0.001237 0.0085597 -0.019717
0.013779 0.22287 0.011427 -0.014203
0.0014059 0.0018848 -0.00044895 0.0019661 0.00039742 0.00047836 0.0013886 0.0014103
0.011416 -0.014196 0.021035 0.32861
1280000000 0.19214 0.26575 -0.010015 -0.027058 -0.0014473 0.0030353 -0.00093174 -0.0019907
-0.00059571 0.002929 0.0024389 0.00081906
-0.0099883 -0.027038 0.012772 0.38342 -0.023701 -0.0068405 -0.00091749 0.0015044
0.0018591 0.0016698 0.00088842 0.0017142
-0.0014427 0.0030284 -0.023749 -0.0067719 0.32501 0.15768 0.0016787 -0.00011171
0.0011719 0.00012288 0.00025227 0.00019714
-0.00094216 -0.0019963 -0.00092384 0.0015066 0.0016881 -0.00010921 0.12044 0.25459
-0.0021181 -0.020661 -0.00058093 0.00054492
-0.00058825 0.002923 0.0018751 0.0016681 0.0011814 0.00012618 -0.0021641 -0.020666
0.04997 0.2243 0.00076653 -0.015681
0.0024414 0.00081485 0.00087387 0.0017044 0.00024097 0.00020976 -0.00057678 0.00055397
0.00076487 -0.015673 0.066711 0.32643
1340000000 0.22883 0.23026 -0.018812 -0.016602 0.0015347 0.0043502 -0.0017571 -0.0008863
0.0014634 0.0025931 0.0014105 -0.0014524
-0.018782 -0.016598 0.052594 0.37312 -0.020699 0.005613 -2.8786e-05 0.0019776
0.0019626 0.0004987 0.0013584 0.0005654
0.0015431 0.0043424 -0.020687 0.0056888 0.34514 0.10927 0.0012135 -0.0011186
0.00055329 -0.0005541 0.00014951 0.00022771
-0.0017584 -0.00087909 -2.4504e-05 0.0019849 0.0012132 -0.0011247 0.15175 0.23167
-0.011625 -0.016396 0.00041959 0.0012219
0.0014749 0.0025653 0.0019714 0.00048652 0.00057354 -0.00056148 -0.011662 -0.01638
0.080258 0.21745 -0.0061378 -0.013428
0.0014196 -0.0014628 0.0013575 0.00057629 0.00015316 0.00023338 0.00043125 0.0012273
-0.0061283 -0.013431 0.10551 0.31694
1400000000 0.26051 0.19056 -0.023026 -0.0049887 0.0054508 0.0026189 -0.0021069 0.0006513
0.0024014 0.00079733 2.3198e-05 -0.0014166
-0.022994 -0.0049887 0.088967 0.35866 -0.01348 0.012981 0.0013646 0.001258
0.0010588 -0.00101 0.0010928 2.533e-06
0.0054529 0.0026051 -0.013429 0.013048 0.35677 0.055801 5.2167e-05 -0.0019073
1.1579e-05 -0.00038139 0.00036741 0.00020438
-0.0021013 0.00067084 0.0013827 0.0012448 4.6307e-05 -0.001906 0.17938 0.20063
-0.017146 -0.0085339 -0.00028066 0.00081691
0.0024108 0.00078251 0.0010531 -0.0010117 9.9684e-06 -0.00038535 -0.017168 -0.0084998
0.11224 0.21043 -0.011785 -0.0075041
8.7703e-06 -0.0014072 0.0011034 -2.4289e-05 0.00036967 0.00020262 -0.00028037 0.0008142
-0.011778 -0.0075137 0.14769 0.30172
1460000000 0.28198 0.14565 -0.019083 0.0064976 0.0055453 -0.002335 -0.0015391 0.0017173
0.0020484 -0.0006699 -0.00041554 -0.00083122
-0.019088 0.0064859 0.12249 0.33556 -0.004888 0.015039 0.001719 4.2374e-05
0.00057895 -0.0013088 0.00099533 -0.0005778
0.0055289 -0.002349 -0.0048363 0.015075 0.36162 0.0020374 -0.0016146 -0.001305
0.00016786 -0.00025494 0.0006783 -0.00037723
-0.00153 0.001736 0.0017234 3.6515e-05 -0.0016214 -0.0013038 0.20311 0.17013
-0.017399 -0.00066644 -6.9077e-05 0.0022889
0.002061 -0.00068096 0.00057047 -0.0013395 0.00016404 -0.00025082 -0.017413 -0.00063475
0.14079 0.19395 -0.012686 -0.0012352
-0.00041394 -0.00082082 0.0009858 -0.00057865 0.00067123 -0.00037413 -6.2377e-05 0.0022769
-0.012691 -0.0012464 0.17974 0.27846
1520000000 0.29274 0.10254 -0.012715 0.011211 0.0029304 -0.0043625 0.00016028 0.0026453
0.0018759 -0.0018376 -0.00114 3.2253e-05
-0.012712 0.011191 0.15486 0.31966 0.0022407 0.012443 0.0016103 -0.00089668
-0.00013156 -0.00093228 0.00016467 -0.00092478
0.0029124 -0.0043848 0.0022984 0.012441 0.35433 -0.054083 -0.0014325 -0.00012641
0.0004278 -0.00087512 -4.201e-05 -0.00020505
0.00016541 0.0026308 0.0016191 -0.00090524 -0.0014254 -0.00011559 0.22338 0.13146
-0.015243 0.0054812 0.0021772 0.0018828
0.001858 -0.0018545 -0.00014099 -0.00093978 0.00042491 -0.00087248 -0.015234 0.0055168
0.16813 0.17741 -0.011897 0.0035107
-0.0011304 6.7308e-05 0.00017555 -0.00093115 -3.7032e-05 -0.00021126 0.0021887 0.001879
-0.011899 0.0035101 0.21082 0.25448
1580000000 0.30009 0.055991 -0.0060464 0.013175 -0.001176 -0.0048236 0.0016222 0.0018341
-0.00033563 -0.0021136 -0.00015473 0.00041188
-0.0060527 0.013156 0.18089 0.29444 0.0054355 0.0074698 0.00037481 -0.0017042
-0.00054982 -0.00085828 -0.00025308 -0.00074717
-0.0011905 -0.0048131 0.0054538 0.007456 0.33376 -0.11118 -0.0015407 0.001043
-0.0003409 -0.0010746 0.0001269 -0.00068544
0.0016303 0.001839 0.00035929 -0.001725 -0.0015364 0.0010508 0.23442 0.092515
-0.010503 0.0099206 0.0025844 0.00017181
-0.00034663 -0.0021239 -0.00056687 -0.00086011 -0.00033932 -0.001066 -0.010488 0.0099466
0.19102 0.15715 -0.0086806 0.0086302
-0.00016212 0.00040794 -0.00024223 -0.00075604 0.00012885 -0.00068694 0.0025798 0.00016685
-0.0086846 0.0086142 0.23965 0.22596
1640000000 0.30038 0.014407 8.6945e-05 0.011189 -0.0029499 -0.0025615 0.0027729 0.00081424
-0.00094234 -0.0013734 -0.00017626 0.00058131
7.1785e-05 0.011187 0.20946 0.26894 0.0057135 0.0029775 -0.00090889 -0.0016142
-0.0009455 -0.00021123 -0.00053857 -0.00049231
-0.0029482 -0.0025457 0.0057292 0.0029574 0.3048 -0.15987 -0.00045862 0.0016089
-0.0012737 -0.00065814 -0.00018172 -0.00019153
0.0027745 0.00078413 -0.00091045 -0.0016181 -0.00045919 0.0016154 0.24414 0.045119
-0.005479 0.01052 0.0025003 -0.0013922
-0.00094969 -0.0013763 -0.00094891 -0.00020587 -0.0012812 -0.00064485 -0.0054657 0.010545
0.21225 0.13077 -0.0036372 0.01016
-0.00012835 0.00057424 -0.00051608 -0.00048496 -0.00018827 -0.00019252 0.0024986 -0.0014084
-0.0036371 0.010169 0.26355 0.19294
1700000000 0.29115 -0.030769 0.0027867 0.0079256 -0.0035514 0.00023175 0.0029454 -0.0014372
-0.0020036 -0.00054084 0.00072742 0.00029868
0.0027791 0.0079242 0.2264 0.23759 0.0036883 0.00020573 -0.001488 -0.00039976
-0.00060888 0.00011359 -0.00082569 -0.00032539
-0.0035569 0.00025652 0.0036737 0.0001835 0.26183 -0.19993 0.00073637 0.0013761
-0.0017971 -4.0774e-05 -0.00068533 -0.00083287
0.002953 -0.0014465 -0.0014838 -0.00039099 0.00074125 0.0013771 0.23939 -0.0025408
-0.0023264 0.0099537 0.001331 -0.0024373
-0.0020162 -0.00051816 -0.0006174 0.00011942 -0.0018 -3.6836e-05 -0.0023089 0.0099614
0.22739 0.10848 0.0010885 0.010006
0.00074273 0.00028508 -0.00082519 -0.00031147 -0.00069382 -0.00081863 0.0013215 -0.0024398
0.0010801 0.010008 0.27747 0.15734
1760000000 0.27773 -0.078532 0.0041397 0.0045872 -0.0024446 0.0010473 0.00093227 -0.0035229
-0.001346 0.00081851 0.00032416 -0.00049609
0.0041342 0.0045896 0.2517 0.19767 0.001305 -0.0015229 -0.0011467 0.00036757
-0.00088778 0.00076188 -0.00056585 0.00047931
-0.0024337 0.0010665 0.0013007 -0.0015475 0.21301 -0.23391 0.0013196 0.00075463
-0.0010163 0.0016939 -0.0013047 -0.00027588
0.00091967 -0.0035262 -0.0011395 0.00037153 0.00132 0.0007519 0.22995 -0.051028
0.00058065 0.0083913 -0.00055763 -0.0026625
-0.0013375 0.0008269 -0.00088806 0.00076771 -0.0010205 0.0017004 0.00060284 0.0083961
0.23993 0.072091 0.0048519 0.0068316
0.00032505 -0.00050329 -0.00055665 0.00048029 -0.0013151 -0.00026183 -0.00056099 -0.0026872
0.0048575 0.0068187 0.28835 0.11867
1820000000 0.25175 -0.11487 0.0035996 0.0015101 -4.0072e-05 0.0025897 -0.0013507 -0.002892
-0.00085682 0.0011238 -7.9125e-05 -1.4818e-05
0.0035913 0.0015236 0.26086 0.16783 -0.00058298 -0.0001313 -0.0011002 0.0010141
-5.7631e-05 0.001151 -0.00045528 0.00054537
-3.0755e-05 0.0026095 -0.0005722 -0.00012773 0.1619 -0.24934 0.0012503 0.00010088
-2.8759e-05 0.0021816 -0.0013373 0.00067371
-0.0013254 -0.0028826 -0.0010902 0.0010166 0.0012496 9.7612e-05 0.2009 -0.095942
0.0016559 0.0063416 -0.0017546 -0.0014921
-0.0008416 0.001132 -4.8321e-05 0.0011591 -1.4128e-05 0.0021964 0.0016761 0.0063442
0.25431 0.041737 0.005583 0.0030865
-7.1548e-05 7.514e-06 -0.0004619 0.0005354 -0.0013221 0.00068284 -0.001749 -0.0014816
0.0055916 0.0030884 0.28797 0.080873
1880000000 0.21563 -0.15398 0.001069 -0.00011414 -0.00031463 0.002135 -0.003036 -0.0017658
-7.8666e-05 0.0016343 0.0002039 -0.00034956
0.0010649 -0.00010962 0.26496 0.12154 -0.0026263 0.0017261 -4.3345e-05 0.0016343
0.00048817 0.0010568 0.00018819 0.00082064
-0.00031553 0.0021532 -0.0026284 0.0017471 0.10858 -0.25904 0.0013699 -0.00093556
0.0015933 0.0014977 -0.00068838 0.0013928
-0.0030253 -0.0017292 -1.36e-05 0.0016409 0.0013917 -0.00093659 0.16225 -0.1351
0.0019004 0.0042357 -0.0024468 0.00026507
-6.4949e-05 0.0016463 0.00049534 0.001064 0.0015991 0.0014983 0.0019184 0.0042283
0.25441 0.0084959 0.0050461 0.00060325
0.00018122 -0.00031588 0.00018346 0.00083902 -0.0006917 0.001402 -0.0024399 0.00026338
0.0050409 0.00060694 0.28555 0.046354
1940000000 0.17617 -0.17924 -0.0010013 -0.001058 0.0016183 0.0019301 -0.0033943 0.00083821
0.0014836 0.00094798 -0.00057954 -0.00052056
-0.00099758 -0.0010553 0.265 0.089936 -0.0012475 0.0041652 0.00094634 0.001102
0.0015605 0.00050259 0.00079975 0.00033321
0.0016329 0.001923 -0.0012404 0.0041616 0.062598 -0.25187 8.4258e-05 -0.0017474
0.0022414 0.00012471 0.00051404 0.0016734
-0.0034035 0.00081938 0.00095371 0.0010694 0.00011026 -0.0017308 0.11158 -0.16604
0.00080927 0.0028107 -0.0016864 0.001488
0.0014822 0.00094576 0.0015639 0.00048105 0.0022532 0.00013781 0.00082018 0.0028122
0.25368 -0.030961 0.0035068 -0.0023298
-0.00059891 -0.00047067 0.00079387 0.00034101 0.00049542 0.0016905 -0.0016565 0.0015041
0.0035107 -0.002313 0.27271 0.0095517
2000000000 0.12949 -0.19333 -0.0044215 0.0013314 0.0025921 0.0014329 -0.0021406 0.0035186
0.0010508 -4.6518e-05 -0.00047673 0.00037678
-0.0044323 0.0013078 0.25075 0.054367 -0.00087861 0.0057902 0.001487 0.00023186
0.0013439 -0.0010789 0.00043703 3.355e-05
0.0025946 0.0014353 -0.00084581 0.0058064 0.018488 -0.2372 -0.0011038 -0.00094339
0.0017442 -0.0011712 0.0017327 0.00094764
-0.0020954 0.0035384 0.0014895 0.00023092 -0.0010961 -0.00094897 0.059169 -0.17709
-0.00082591 0.0027648 -0.00017178 0.0022832
0.0010629 -2.1099e-05 0.0013496 -0.0010885 0.0017405 -0.001168 -0.00080791 0.0027665
0.24502 -0.064422 0.00019764 -0.0033756
