!Keysight Technologies,M9804A,MY58100912,A.14.10.03
!Date: Thursday, April 27, 2023 10:28:33
!Correction: S11(C  6-Port  ) 
!S12(C  6-Port  ) 
!S13(C  6-Port  ) 
!S14(C  6-Port  ) 
!S15(C  6-Port  ) 
!S16(C  6-Port  ) 
!S21(C  6-Port  ) 
!S22(C  6-Port  ) 
!S23(C  6-Port  ) 
!S24(C  6-Port  ) 
!S25(C  6-Port  ) 
!S26(C  6-Port  ) 
!S31(C  6-Port  ) 
!S32(C  6-Port  ) 
!S33(C  6-Port  ) 
!S34(C  6-Port  ) 
!S35(C  6-Port  ) 
!S36(C  6-Port  ) 
!S41(C  6-Port  ) 
!S42(C  6-Port  ) 
!S43(C  6-Port  ) 
!S44(C  6-Port  ) 
!S45(C  6-Port  ) 
!S46(C  6-Port  ) 
!S51(C  6-Port  ) 
!S52(C  6-Port  ) 
!S53(C  6-Port  ) 
!S54(C  6-Port  ) 
!S55(C  6-Port  ) 
!S56(C  6-Port  ) 
!S61(C  6-Port  ) 
!S62(C  6-Port  ) 
!S63(C  6-Port  ) 
!S64(C  6-Port  ) 
!S65(C  6-Port  ) 
!S66(C  6-Port  ) 
!S6P File: Measurement: :
# Hz S  RI   R 50
500000000 -0.34081 -0.018392 -0.012094 -0.0034995 -0.0079464 0.013482 -0.0037065 0.012163
0.011243 0.0037382 -0.003401 0.0081055
-0.012073 -0.0034991 -0.42083 -0.035968 0.0054529 -0.011162 0.0015117 0.012991
0.0064331 0.002313 0.0014475 0.014114
-0.0079337 0.013477 0.0054375 -0.011167 -0.26504 0.224 0.0070102 0.0043527
-0.0014291 0.0086001 0.0018525 0.012707
-0.0036814 0.012138 0.0015086 0.013009 0.0070153 0.0043572 -0.33162 0.063047
-0.019994 -0.0068666 0.01428 0.023732
0.011222 0.0037208 0.0064356 0.002282 -0.0014303 0.0086083 -0.020012 -0.0068542
-0.23848 -0.16374 -0.025332 0.0032522
-0.003395 0.0080986 0.0014696 0.01413 0.0018609 0.012709 0.014295 0.023717
-0.025312 0.0032429 -0.28689 -0.078885
560000000 -0.31308 0.13801 -0.02804 -0.06034 0.00087535 0.012349 0.0055311 0.010007
0.0085252 0.0046445 0.010488 0.0073426
-0.027974 -0.060268 -0.37621 0.12036 -0.04339 -0.033958 0.013526 0.0038339
-0.012571 -0.0033679 0.0031026 -0.00090473
0.00089447 0.012339 -0.043478 -0.03391 -0.18075 0.26936 -0.00016787 -0.0040548
0.019058 0.0040131 0.0065814 -0.0062079
0.0055398 0.010003 0.013523 0.0038194 -0.00015306 -0.0040615 -0.30441 0.1495
-0.00056207 -0.023971 0.0026896 -0.018143
0.0085158 0.004641 -0.012577 -0.0033446 0.019047 0.0040135 -0.00058217 -0.023969
-0.28939 0.0099495 0.0017521 -0.046074
0.010498 0.0073402 0.0030861 -0.00091437 0.0065859 -0.006218 0.0026837 -0.018148
0.0017743 -0.046084 -0.33119 0.06032
620000000 -0.27148 0.12383 -0.023878 0.0081245 0.0046312 0.0086896 0.0075656 -0.0054573
0.011555 -0.00089638 0.00074031 -0.002563
-0.023858 0.0081257 -0.40237 0.074747 -0.019585 0.0011539 -0.00074063 -0.0022463
0.010717 -0.0063171 0.0018065 -0.0026657
0.0046446 0.0086619 -0.019596 0.0011896 -0.14904 0.27903 -0.00071202 -0.0048763
-0.0030438 -0.0030078 0.0084324 -0.003496
0.0075681 -0.0054629 -0.00074624 -0.0022485 -0.00071655 -0.0048727 -0.26311 0.16109
-0.039687 -0.016871 0.011954 0.023501
0.011563 -0.00089104 0.010715 -0.0063519 -0.0030363 -0.0030087 -0.039708 -0.016843
-0.2132 -0.028098 -0.039681 0.014994
0.00076487 -0.0025624 0.0018087 -0.0026762 0.0084364 -0.0034969 0.011975 0.023474
-0.039695 0.014977 -0.25727 0.03294
680000000 -0.22831 0.20675 -0.028139 -0.010536 0.0057856 0.0046695 0.0011884 -0.0070643
-0.0026369 -0.011348 0.0043159 -0.0071101
-0.028109 -0.010546 -0.38452 0.16972 -0.03206 0.0010164 -0.0011625 -0.00079701
-0.0023499 -0.0092169 -0.0014008 -0.0022101
0.00579 0.004661 -0.032057 0.00107 -0.097162 0.29632 -0.00077471 -0.00079813
-0.0015628 -0.00025329 -0.0035243 -0.0086241
0.0011764 -0.007068 -0.0011578 -0.00079227 -0.0007764 -0.00079416 -0.21652 0.20791
-0.025994 -0.0042704 -0.0089497 -0.0075081
-0.0026695 -0.011345 -0.0023691 -0.0092231 -0.001565 -0.00025377 -0.02601 -0.0042447
-0.25188 0.071157 -0.0078955 -0.00609
0.0042998 -0.0071129 -0.0014032 -0.0021944 -0.0035361 -0.0086191 -0.0089747 -0.0075117
-0.0078862 -0.0060913 -0.25425 0.12849
740000000 -0.18351 0.20191 -0.035632 0.027493 0.012587 -0.005913 -0.00083239 -0.0041795
-0.0050067 -0.0027782 -0.0060803 0.0027462
-0.035637 0.027461 -0.33198 0.18835 -0.032327 0.03584 -0.0010319 -0.0063611
-0.011692 0.0077457 -0.0023511 -0.0048548
0.01258 -0.0059268 -0.032257 0.035895 -0.063442 0.29424 -0.0018936 0.0029165
-0.0034423 -0.0046329 -0.0021028 0.00085658
-0.00084283 -0.0041728 -0.0010483 -0.0063593 -0.0018896 0.0029204 -0.19853 0.21668
-0.041991 -0.0027016 0.022205 0.012571
-0.0050309 -0.0027756 -0.011672 0.0077969 -0.0034502 -0.0046345 -0.042014 -0.0026452
-0.15751 0.091003 -0.039027 0.0045404
-0.0060801 0.0027881 -0.002358 -0.0048548 -0.0021189 0.00087916 0.022234 0.012556
-0.039011 0.0045034 -0.24122 0.13912
800000000 -0.14879 0.23824 -0.020176 0.018159 0.0049565 -0.010691 -0.0044408 -0.0016128
-0.0040079 0.0024165 0.0033023 0.00078385
-0.020178 0.018122 -0.33164 0.2567 -0.0060447 0.033779 -0.0023196 0.0022592
-0.00095002 0.0033357 0.00096614 0.0054096
0.004937 -0.010701 -0.0059756 0.033803 -0.021039 0.31581 0.00068914 0.0017591
0.00020724 0.0034467 -0.0017028 0.0013005
-0.0044315 -0.0016058 -0.0023197 0.0022612 0.00068366 0.0017592 -0.16834 0.24291
-0.026455 0.016877 0.012697 -0.0099833
-0.004006 0.0024183 -0.00093258 0.0033393 0.00020463 0.0034525 -0.02645 0.016934
-0.1943 0.11887 -0.014995 0.019754
0.0032901 0.00077005 0.0009822 0.0054131 -0.0017075 0.001308 0.01269 -0.0099953
-0.014999 0.019726 -0.2278 0.18433
860000000 -0.11353 0.25718 -0.014631 0.030768 -0.0034715 -0.010011 -0.001959 0.0011304
0.0043951 0.004744 -0.0026229 -0.0022441
-0.014646 0.030721 -0.2838 0.29682 0.0098802 0.033313 5.3902e-05 0.0020814
0.004466 0.0006657 0.0032775 0.00032982
-0.0034852 -0.0099966 0.009955 0.033301 0.026835 0.32263 -0.00030799 -1.6318e-06
0.0024923 -0.0014233 0.0021183 0.0037153
-0.0019591 0.0011292 4.6757e-05 0.0020888 -0.00030914 -2.5792e-07 -0.13164 0.25338
-0.014792 0.021421 -0.0048868 -0.0090284
0.0044065 0.0047309 0.004468 0.00065005 0.0024962 -0.0014243 -0.014771 0.021462
-0.14027 0.16324 -0.020141 0.017213
-0.0026241 -0.0022424 0.0032892 0.00033146 0.0021276 0.0037111 -0.0048907 -0.0090294
-0.020147 0.017198 -0.17783 0.22295
920000000 -0.086973 0.27786 0.0072761 0.035985 -0.0094289 -0.0045508 -0.0013427 0.0015623
0.0017104 0.0016683 0.002948 -0.0017424
0.0072405 0.035937 -0.25386 0.31656 0.028855 0.019832 0.001895 0.0010664
0.007262 -0.00075125 0.0038549 -0.0031288
-0.0094346 -0.0045366 0.028919 0.019786 0.073915 0.32287 0.0019959 -0.00010735
0.0016231 -0.00062712 0.00079076 -0.0014617
-0.0013383 0.0015631 0.0018922 0.0010745 0.0019935 -0.00010506 -0.10532 0.26922
-0.0066745 0.031361 0.0028096 -0.0067956
0.0017186 0.0016622 0.0072615 -0.00076385 0.001627 -0.0006262 -0.0066244 0.031393
-0.12765 0.16934 0.00046824 0.0258
0.0029359 -0.0017611 0.003848 -0.0031299 0.00079529 -0.0014637 0.002806 -0.0067816
0.00045055 0.025783 -0.17675 0.23809
980000000 -0.040414 0.29531 0.019135 0.027655 -0.0087982 0.0043892 0.0018479 0.0028646
0.0037992 -0.0020318 -0.0030969 -0.0020718
0.0191 0.027613 -0.20245 0.34849 0.033182 0.0026079 0.0021171 -0.00025306
0.0016929 -0.0063965 -0.00055521 -0.0025188
-0.0087816 0.0043987 0.033209 0.0025565 0.12092 0.31542 0.00052433 -0.0013166
2.5641e-05 -0.0023542 0.0011045 -0.00040079
0.0018634 0.0028505 0.0020966 -0.00025139 0.00052798 -0.0013227 -0.066452 0.27829
0.011936 0.028338 -0.0083884 -0.0063621
0.0038017 -0.0020486 0.0016607 -0.0063928 1.9106e-05 -0.0023564 0.011991 0.028338
-0.094196 0.19257 0.0071797 0.018341
-0.0030845 -0.0020705 -0.00056723 -0.0025092 0.0011027 -0.00040515 -0.0083967 -0.0063628
0.0071631 0.018334 -0.13249 0.2752
1040000000 0.0024714 0.30199 0.033301 0.014782 -0.0015728 0.0065475 0.0022267 0.00052258
-2.5464e-05 -0.0031334 -0.00088891 -0.001561
0.033248 0.014776 -0.16695 0.3616 0.02801 -0.016653 0.0014337 -0.0018597
-0.0024939 -0.0028816 -0.0016986 -0.0027962
-0.001561 0.006538 0.027982 -0.016718 0.16817 0.30074 -0.00069066 -0.0015488
-0.0016943 -0.00087123 -0.00069112 -0.00094972
0.0022469 0.00051378 0.001428 -0.0018494 -0.00068711 -0.001546 -0.037499 0.28724
0.022304 0.015314 -0.0027752 0.00083945
-1.4563e-05 -0.0031509 -0.0025161 -0.0028509 -0.0016903 -0.00086313 0.022339 0.015284
-0.062483 0.19788 0.014869 0.015461
-0.00088767 -0.0015696 -0.0017113 -0.002773 -0.00068513 -0.00094745 -0.0027727 0.00084857
0.014855 0.015456 -0.10653 0.29454
1100000000 0.0473 0.30785 0.034466 -0.0070402 0.0023603 0.0036703 0.0020457 -0.00090802
-0.0020631 -0.0028058 -0.0037054 0.00057623
0.034437 -0.0070192 -0.12411 0.3779 0.013241 -0.028855 -0.00011418 -0.0018272
-0.0038321 -0.00065607 -0.0035486 -0.00014902
0.0023645 0.0036621 0.013167 -0.028905 0.21578 0.27817 -0.0019434 0.00025396
-0.00202 0.00075998 -0.0010438 5.4187e-05
0.0020542 -0.00090955 -0.00012152 -0.0018246 -0.0019503 0.00025157 0.0037157 0.29002
0.025931 0.0012786 -0.002755 -0.00012911
-0.0020707 -0.0028051 -0.0038352 -0.00062875 -0.0020289 0.00076799 0.025945 0.0012384
-0.043104 0.20892 0.019465 0.0055421
-0.0037036 0.00057293 -0.0035591 -0.0001295 -0.0010439 5.2912e-05 -0.0027542 -0.00012243
0.019461 0.0055455 -0.059788 0.31722
1160000000 0.097868 0.30192 0.021496 -0.02283 0.0019029 -0.00025451 -8.4203e-05 -0.0018004
-0.0040867 -0.00037727 -0.00073519 0.0039622
0.021488 -0.022801 -0.079647 0.38273 -0.0061083 -0.028907 -0.0017326 -0.0015275
-0.0028849 0.0029046 -0.0014102 0.0020106
0.0019005 -0.00026095 -0.0061993 -0.028881 0.2589 0.24456 -0.0007366 0.0018771
-0.00033007 0.0021764 -0.00067333 0.00037962
-7.7403e-05 -0.0017991 -0.0017486 -0.0015119 -0.00073206 0.0018831 0.043579 0.28519
0.020512 -0.014494 -0.0032172 0.0040154
-0.0040702 -0.00035512 -0.0028813 0.002933 -0.00032266 0.0021824 0.020504 -0.014525
-0.010181 0.2153 0.017963 -0.0033789
-0.00070864 0.0039667 -0.0014035 0.002035 -0.00066609 0.00038407 -0.0032169 0.0040312
0.01796 -0.0033811 -0.013119 0.31766
1220000000 0.14228 0.2891 0.0069786 -0.030495 -0.0019597 -3.841e-05 0.00027242 -0.00088285
-0.0024873 0.0023423 0.0014387 0.0021153
0.0069971 -0.030472 -0.034882 0.39366 -0.018503 -0.019877 -0.0025213 0.00050666
0.00027409 0.0033224 -0.0004184 0.0020975
-0.0019579 -3.7262e-05 -0.018577 -0.019827 0.29702 0.20253 0.00092896 0.0019742
0.00081551 0.0013293 0.00051775 0.00051711
0.00027442 -0.00087949 -0.0025251 0.00051547 0.00092476 0.0019739 0.084031 0.2741
0.0085343 -0.020576 0.0009055 0.0013866
-0.0024705 0.0023532 0.00027539 0.0033239 0.00081771 0.0013355 0.0085056 -0.020592
0.013637 0.22179 0.011848 -0.015199
0.0014463 0.0021131 -0.00041815 0.0021109 0.00052073 0.00051723 0.00090695 0.0013854
0.011851 -0.015192 0.020962 0.32854
1280000000 0.1912 0.26595 -0.011073 -0.027255 -0.0016724 0.0033832 -0.00081062 -0.0021059
-0.00066981 0.0030355 0.0025616 0.00090597
-0.011048 -0.027232 0.011801 0.38433 -0.024555 -0.0067406 -0.00099933 0.0015482
0.002128 0.0018569 0.0010024 0.0017911
-0.0016655 0.0033927 -0.024592 -0.006667 0.32493 0.15673 0.0018241 -7.2789e-05
0.001309 0.00010289 0.00031324 0.00013436
-0.00082197 -0.0021049 -0.00099502 0.0015452 0.0018315 -7.5031e-05 0.12021 0.25489
-0.0025821 -0.021445 -0.00098061 0.00069548
-0.00065412 0.003043 0.002141 0.0018459 0.001307 9.9583e-05 -0.0026251 -0.02145
0.049406 0.22323 0.00070504 -0.016762
0.002557 0.00089418 0.0010133 0.0017916 0.00031278 0.00013427 -0.00098142 0.00069861
0.00070903 -0.016761 0.066776 0.32601
1340000000 0.22797 0.23076 -0.019897 -0.016063 0.0016106 0.0048447 -0.0017798 -0.001041
0.0015164 0.0026118 0.001633 -0.0015968
-0.019856 -0.016069 0.052367 0.37403 -0.021307 0.0061471 -2.3036e-05 0.0021248
0.0022537 0.00038791 0.0014345 0.000572
0.0016226 0.0048544 -0.021293 0.0062232 0.34446 0.10828 0.0013534 -0.0011907
0.00069135 -0.00061095 4.0357e-05 0.0002176
-0.0017847 -0.0010345 -1.3752e-05 0.0021318 0.0013612 -0.0011949 0.15176 0.23205
-0.0125 -0.016722 0.00016409 0.0016126
0.0015173 0.0026127 0.0022617 0.00037814 0.00069887 -0.00061396 -0.012535 -0.016706
0.079383 0.21683 -0.0068714 -0.014242
0.001628 -0.001609 0.0014496 0.00057036 4.3119e-05 0.00021579 0.0001677 0.0016177
-0.0068602 -0.014244 0.10594 0.31672
1400000000 0.26003 0.19127 -0.023665 -0.0039142 0.0059001 0.0031111 -0.0022329 0.00061215
0.0024847 0.00088983 8.065e-05 -0.0015492
-0.02363 -0.0039359 0.089212 0.3594 -0.013735 0.013761 0.0015189 0.0012499
0.0011771 -0.0012817 0.0010945 -8.8045e-05
0.0059035 0.0030948 -0.013689 0.013829 0.35572 0.055392 4.59e-05 -0.0021298
4.2349e-05 -0.00050102 0.00037459 0.00019919
-0.0022383 0.00061903 0.0015259 0.0012503 5.1723e-05 -0.0021299 0.17948 0.2009
-0.018198 -0.0083224 -0.00038115 0.0011052
0.0024813 0.00087868 0.0011712 -0.0012905 4.7109e-05 -0.0005002 -0.018227 -0.0082811
0.11117 0.21 -0.013004 -0.0080264
6.8729e-05 -0.0015515 0.0010985 -0.0001038 0.00037749 0.00019614 -0.00037945 0.0011105
-0.012986 -0.0080367 0.14792 0.30122
1460000000 0.28182 0.14628 -0.019045 0.0078055 0.0060876 -0.0022618 -0.0016279 0.0017796
0.0021855 -0.00073834 -0.00057383 -0.00087571
-0.019037 0.0077764 0.12306 0.33576 -0.0045944 0.015833 0.001841 -1.1313e-05
0.00047254 -0.0015299 0.00096426 -0.00065156
0.0060803 -0.0022798 -0.0045357 0.015857 0.36041 0.0022973 -0.0017797 -0.0013702
4.999e-05 -0.00024681 0.00069917 -0.00033244
-0.001626 0.0017903 0.0018298 -2.3491e-05 -0.0017734 -0.0013582 0.20336 0.17014
-0.018275 0.00010186 0.00015553 0.0026345
0.0021857 -0.0007564 0.00045989 -0.0015307 5.9113e-05 -0.00024676 -0.018293 0.0001457
0.13966 0.19384 -0.013998 -0.0010041
-0.00058051 -0.00087252 0.00096082 -0.00064764 0.00069713 -0.00033485 0.00014108 0.0026375
-0.013997 -0.00099514 0.1796 0.27786
1520000000 0.29282 0.10304 -0.012021 0.012228 0.0034853 -0.0046088 0.00016251 0.0027375
0.0019739 -0.0019286 -0.0011724 1.4788e-05
-0.012022 0.012209 0.15529 0.31942 0.0028538 0.012825 0.0016363 -0.0010446
-0.00031723 -0.00094937 0.00021536 -0.00096034
0.0034701 -0.0046197 0.0029119 0.012822 0.35351 -0.053345 -0.0015305 -9.7884e-05
0.000478 -0.00092248 6.7005e-07 -0.00024524
0.00017189 0.0027409 0.0016308 -0.0010443 -0.0015358 -9.558e-05 0.22363 0.13127
-0.015532 0.0066053 0.0025018 0.0020896
0.0019605 -0.0019417 -0.00032059 -0.00095568 0.00047744 -0.00092498 -0.015529 0.0066485
0.16714 0.17772 -0.012919 0.0042791
-0.0011756 1.3601e-05 0.00020677 -0.00096654 2.7265e-06 -0.00024512 0.0025 0.0020827
-0.012913 0.0042717 0.21042 0.25383
1580000000 0.30035 0.056177 -0.0049242 0.013735 -0.00087288 -0.0052808 0.0016934 0.0019044
-0.00031445 -0.0022885 -0.00019699 0.00048445
-0.0049291 0.013724 0.18099 0.29378 0.0060849 0.0075132 0.00025549 -0.0017877
-0.00064882 -0.00067869 -0.00028116 -0.00077987
-0.00088619 -0.0052761 0.0061111 0.007486 0.33349 -0.11041 -0.0016006 0.0011847
-0.0004585 -0.0011148 0.00015732 -0.00064867
0.0016923 0.0019035 0.00025169 -0.0017923 -0.0016007 0.0011688 0.2344 0.092091
-0.01018 0.011074 0.0030235 0.00012585
-0.0003244 -0.002288 -0.00065485 -0.00067529 -0.00046345 -0.0011174 -0.010169 0.011104
0.1903 0.15766 -0.0092874 0.009649
-0.00019399 0.00048896 -0.00028641 -0.00078052 0.00015423 -0.00065132 0.0030315 0.00011931
-0.0092946 0.0096486 0.23912 0.22551
1640000000 0.30047 0.014243 0.0013058 0.011034 -0.0029552 -0.0030345 0.0028615 0.00073929
-0.0010664 -0.0015654 -0.00013973 0.00053309
0.0012948 0.011023 0.20901 0.26827 0.0062114 0.0026946 -0.0010287 -0.0016375
-0.00085466 -0.00010776 -0.00057255 -0.00052686
-0.0029695 -0.0030166 0.0062222 0.0026683 0.30491 -0.15927 -0.00035473 0.0017145
-0.0013746 -0.00069741 -0.00026838 -0.00028614
0.0028611 0.00072938 -0.0010312 -0.0016348 -0.00036051 0.0017106 0.24384 0.044771
-0.0045639 0.011228 0.0027932 -0.0014976
-0.0010699 -0.001554 -0.0008466 -0.00011373 -0.001366 -0.00070387 -0.0045488 0.011253
0.21174 0.13132 -0.0036156 0.011419
-0.00013452 0.00053621 -0.00057506 -0.00052625 -0.00026839 -0.00028401 0.002799 -0.0015083
-0.0036298 0.011411 0.26264 0.19285
1700000000 0.29083 -0.030815 0.0037074 0.0072016 -0.0037446 -0.00020151 0.0029561 -0.0015417
-0.0021488 -0.00050276 0.00073611 0.00021247
0.0036923 0.0072031 0.22558 0.23718 0.0040087 -0.00013788 -0.0015425 -0.0003079
-0.00047922 7.9651e-05 -0.00090467 -0.00037557
-0.0037411 -0.0001833 0.004005 -0.00016011 0.26178 -0.19914 0.00092537 0.0013607
-0.0018318 5.4777e-05 -0.00075189 -0.00085531
0.0029484 -0.0015469 -0.0015525 -0.00030127 0.00092593 0.0013614 0.23888 -0.0026122
-0.001212 0.01007 0.0015581 -0.0026915
-0.002146 -0.00049609 -0.00047734 8.2636e-05 -0.0018279 4.5741e-05 -0.0011955 0.010073
0.22711 0.10907 0.0016674 0.011048
0.0007419 0.00020711 -0.0009062 -0.00036401 -0.00075787 -0.00086166 0.0015481 -0.0026945
0.0016636 0.011048 0.27663 0.15762
1760000000 0.2772 -0.078197 0.0044862 0.0035699 -0.0027503 0.00077551 0.00086992 -0.0036032
-0.0014208 0.0010038 0.00032344 -0.00053454
0.0044724 0.0035719 0.25061 0.19777 0.001493 -0.0019737 -0.0011214 0.0004256
-0.00087543 0.00063063 -0.00057223 0.00047305
-0.002745 0.00077907 0.0014777 -0.0019831 0.2135 -0.23306 0.001321 0.00065733
-0.0010603 0.0017235 -0.0013893 -0.0002397
0.00086185 -0.003604 -0.0011197 0.00042859 0.0013158 0.00065728 0.22944 -0.05087
0.001518 0.0079343 -0.00041212 -0.0029489
-0.0014145 0.0010209 -0.00087275 0.00063434 -0.0010589 0.0017292 0.0015346 0.0079343
0.23974 0.072621 0.0057147 0.0076176
0.00031858 -0.00053919 -0.00056487 0.00048407 -0.0013936 -0.00024171 -0.0004173 -0.0029467
0.0057138 0.00761 0.2875 0.1193
1820000000 0.2515 -0.11437 0.0034598 0.00054786 -0.00043974 0.0024957 -0.0014546 -0.0028738
-0.000819 0.0012071 -0.00019861 -7.9761e-05
0.003455 0.00055171 0.25993 0.16842 -0.00065433 -0.00062231 -0.0010169 0.0010273
-0.00011821 0.0010378 -0.00048507 0.00054135
-0.00042708 0.0024884 -0.0006594 -0.00062795 0.16264 -0.24923 0.0011896 -1.988e-05
0.00016816 0.0021694 -0.0013476 0.00064631
-0.0014621 -0.002874 -0.0010171 0.0010309 0.0011829 -3.856e-05 0.20062 -0.095475
0.002214 0.0056221 -0.0017626 -0.0019453
-0.00081257 0.0012167 -0.00011604 0.0010423 0.00016722 0.0021648 0.0022222 0.0056205
0.25428 0.042231 0.0067697 0.0032355
-0.00020224 -7.7748e-05 -0.00048016 0.00054639 -0.0013426 0.00064317 -0.0017667 -0.0019441
0.006772 0.0032378 0.28776 0.081564
1880000000 0.21572 -0.15327 0.00052121 -0.00077222 -0.00083926 0.0022984 -0.0030782 -0.0017262
9.8957e-05 0.0015761 0.0001342 -0.0002529
0.00052124 -0.00077451 0.26437 0.12253 -0.0029369 0.0013147 3.0011e-05 0.0015595
0.00032619 0.0010823 0.00016389 0.00090783
-0.00082232 0.0022976 -0.0029337 0.0013212 0.10928 -0.25911 0.0013011 -0.00094214
0.0016805 0.0015138 -0.00065768 0.0015853
-0.0030867 -0.0017093 3.7854e-05 0.0015658 0.0012992 -0.00094316 0.1622 -0.13468
0.0019778 0.0033491 -0.0026969 1.5346e-05
0.00011231 0.0015698 0.0003334 0.0010837 0.0016931 0.0015141 0.0019826 0.0033493
0.25444 0.0087111 0.006137 0.00040247
0.00012909 -0.00025667 0.0001704 0.00090968 -0.00066058 0.0015842 -0.0026851 2.1699e-05
0.0061388 0.00040789 0.28546 0.04702
1940000000 0.17653 -0.17841 -0.0017032 -0.0013865 0.0014165 0.0024209 -0.0035197 0.00092948
0.001548 0.00088286 -0.00047493 -0.00036431
-0.0016984 -0.0013757 0.26496 0.090955 -0.0016802 0.0039433 0.0010161 0.0010777
0.0014954 0.00071373 0.00079939 0.00045769
0.0014275 0.0024161 -0.0016588 0.0039574 0.062906 -0.25229 0.00020706 -0.0016114
0.0022357 0.00014578 0.00064223 0.0017006
-0.0035082 0.00093625 0.0010207 0.0010761 0.00021926 -0.0016064 0.11182 -0.16536
0.00055078 0.0022453 -0.0020514 0.0014043
0.0015634 0.00088097 0.0015102 0.00069876 0.0022372 0.00013517 0.00054524 0.0022497
0.2537 -0.030653 0.0043866 -0.003078
-0.00047493 -0.0003564 0.00080433 0.00045366 0.00064926 0.0016891 -0.0020423 0.0014017
0.0043776 -0.0030819 0.27266 0.0098924
2000000000 0.13019 -0.19282 -0.0051731 0.0012985 0.0025503 0.0018825 -0.0020716 0.0034912
0.00105 -0.0001795 -0.00037727 0.00037735
-0.0051647 0.0012968 0.25105 0.055381 -0.0013731 0.0059591 0.0015053 0.00018359
0.0014198 -0.00087449 0.00049287 0.00011215
0.002555 0.0018713 -0.0013451 0.0059702 0.018557 -0.23741 -0.00095463 -0.00094321
0.0017041 -0.0010882 0.0018835 0.00085339
-0.0020578 0.0034943 0.0015181 0.00017666 -0.00095463 -0.00095513 0.059498 -0.17693
-0.0013822 0.0021893 -0.00049043 0.0023827
0.0010453 -0.00017958 0.0014174 -0.0008835 0.0016971 -0.0010954 -0.0013859 0.0021928
0.245 -0.064328 0.00061099 -0.0042142
