!Keysight Technologies,M9804A,MY58100912,A.14.10.03
!Date: Thursday, April 27, 2023 10:28:33
!Correction: S11(C  6-Port  ) 
!S12(C  6-Port  ) 
!S13(C  6-Port  ) 
!S14(C  6-Port  ) 
!S15(C  6-Port  ) 
!S16(C  6-Port  ) 
!S21(C  6-Port  ) 
!S22(C  6-Port  ) 
!S23(C  6-Port  ) 
!S24(C  6-Port  ) 
!S25(C  6-Port  ) 
!S26(C  6-Port  ) 
!S31(C  6-Port  ) 
!S32(C  6-Port  ) 
!S33(C  6-Port  ) 
!S34(C  6-Port  ) 
!S35(C  6-Port  ) 
!S36(C  6-Port  ) 
!S41(C  6-Port  ) 
!S42(C  6-Port  ) 
!S43(C  6-Port  ) 
!S44(C  6-Port  ) 
!S45(C  6-Port  ) 
!S46(C  6-Port  ) 
!S51(C  6-Port  ) 
!S52(C  6-Port  ) 
!S53(C  6-Port  ) 
!S54(C  6-Port  ) 
!S55(C  6-Port  ) 
!S56(C  6-Port  ) 
!S61(C  6-Port  ) 
!S62(C  6-Port  ) 
!S63(C  6-Port  ) 
!S64(C  6-Port  ) 
!S65(C  6-Port  ) 
!S66(C  6-Port  ) 
!S6P File: Measurement: :
# Hz S  RI   R 50
500000000 -0.33951 -0.016929 -0.010996 -0.0031763 -0.0070938 0.012778 -0.0031941 0.012352
0.010602 0.0038067 -0.0027897 0.0093796
-0.010979 -0.0031533 -0.41993 -0.036047 0.0059428 -0.011664 0.0016992 0.012509
0.0063551 0.0022417 0.0023817 0.013882
-0.0070735 0.012772 0.0059308 -0.011687 -0.26342 0.22373 0.0071296 0.0041912
-0.0012775 0.0085636 0.0028381 0.01276
-0.0031589 0.012358 0.0017159 0.012525 0.0071407 0.0041994 -0.33119 0.063005
-0.019497 -0.0069218 0.014579 0.023639
0.010582 0.0037958 0.0063632 0.002233 -0.001275 0.0085605 -0.019493 -0.0069128
-0.2379 -0.1634 -0.02567 0.0031884
-0.0027521 0.0093693 0.0024055 0.013893 0.0028413 0.012765 0.014586 0.023625
-0.025666 0.0031725 -0.2862 -0.077634
560000000 -0.31208 0.13805 -0.027107 -0.060029 0.00091359 0.011975 0.0055114 0.0097252
0.0086136 0.0044189 0.010914 0.0071793
-0.027051 -0.059971 -0.3764 0.11914 -0.043154 -0.033772 0.01356 0.0031157
-0.011779 -0.0034982 0.0019196 -0.00082281
0.00095237 0.011986 -0.043259 -0.033724 -0.18111 0.26916 0.00029739 -0.004225
0.019046 0.003069 0.0051015 -0.0059386
0.0055423 0.0097012 0.013553 0.0031121 0.00029904 -0.0042433 -0.30416 0.14913
-0.00042529 -0.023755 0.0036559 -0.018006
0.0086197 0.0044145 -0.011777 -0.0034725 0.019065 0.0030614 -0.00042915 -0.023759
-0.28862 0.0099265 0.0035478 -0.045877
0.01094 0.0071636 0.0019085 -0.00082046 0.005094 -0.0059335 0.0036463 -0.018007
0.0035551 -0.045889 -0.33265 0.058585
620000000 -0.26984 0.12449 -0.023246 0.0076753 0.0044551 0.0083068 0.007456 -0.0055542
0.011414 -0.0016108 0.00072267 -0.0030914
-0.02324 0.0076747 -0.40144 0.074401 -0.019433 0.00070079 -0.00073169 -0.0021772
0.010133 -0.0065766 0.0017757 -0.002874
0.0044566 0.0082978 -0.019447 0.00073494 -0.14879 0.27797 -0.00095607 -0.0047209
-0.0035255 -0.0030569 0.0080251 -0.0035912
0.0074512 -0.0055754 -0.00074694 -0.0021744 -0.00095664 -0.0047191 -0.26285 0.16099
-0.039292 -0.017796 0.011431 0.023051
0.011409 -0.0015756 0.010124 -0.0066182 -0.0034978 -0.0030631 -0.039299 -0.017752
-0.21134 -0.026853 -0.038402 0.014875
0.00070304 -0.0030509 0.0017493 -0.0028917 0.0080394 -0.0036061 0.01146 0.023061
-0.038424 0.014851 -0.25762 0.032718
680000000 -0.22724 0.20629 -0.027887 -0.011354 0.0056608 0.0044577 0.0013414 -0.0072012
-0.0026999 -0.011195 0.0039371 -0.0071389
-0.027866 -0.01137 -0.38404 0.16882 -0.032069 0.00084261 -0.0014012 -0.00066032
-0.0023391 -0.009031 -0.0014766 -0.0023433
0.0056548 0.0044572 -0.032084 0.00089207 -0.097677 0.29576 -0.00090429 -0.00053551
-0.0016566 -0.00017638 -0.0037391 -0.0086852
0.0013248 -0.0072042 -0.0014025 -0.0006661 -0.00090659 -0.00053231 -0.21624 0.2077
-0.02579 -0.005253 -0.0089166 -0.0080588
-0.0027448 -0.0112 -0.0023543 -0.0090317 -0.0016575 -0.00016748 -0.025807 -0.0052287
-0.25017 0.069114 -0.0077766 -0.0063159
0.0039192 -0.0071006 -0.001468 -0.0023355 -0.0037395 -0.0086785 -0.008925 -0.0080612
-0.0077895 -0.0063192 -0.25384 0.12746
740000000 -0.18327 0.20076 -0.035986 0.026539 0.012068 -0.0059156 -0.00087942 -0.0041154
-0.0055289 -0.0029298 -0.0060369 0.0031232
-0.035976 0.026492 -0.3322 0.18798 -0.032468 0.035065 -0.0011603 -0.0059776
-0.011773 0.0080113 -0.0019996 -0.0045909
0.01204 -0.0059357 -0.032422 0.035148 -0.063791 0.29442 -0.0019686 0.0030731
-0.0036502 -0.0047288 -0.0021639 0.0014323
-0.00088551 -0.0041013 -0.0011638 -0.0059814 -0.0019653 0.0030719 -0.19836 0.21677
-0.042269 -0.0028741 0.022049 0.012258
-0.0055562 -0.0029469 -0.011773 0.0080658 -0.0036612 -0.0047377 -0.04229 -0.0028271
-0.15699 0.090558 -0.038293 0.0039662
-0.0060029 0.0031414 -0.0020071 -0.004605 -0.0021732 0.0014341 0.022081 0.01225
-0.038306 0.003934 -0.24151 0.13703
800000000 -0.1495 0.23782 -0.021136 0.017789 0.0045221 -0.010398 -0.0043338 -0.0014636
-0.0039944 0.0029954 0.0037191 0.00077909
-0.021119 0.017771 -0.33242 0.256 -0.0064659 0.033624 -0.00232 0.0023731
-0.00099997 0.003559 0.00096883 0.0053272
0.0045113 -0.010406 -0.0064093 0.033657 -0.021425 0.31619 0.00085297 0.0016901
0.00040493 0.0036485 -0.0017732 0.0012531
-0.0043441 -0.0014539 -0.0023119 0.0023884 0.00084257 0.0016906 -0.16849 0.24291
-0.026628 0.016639 0.012649 -0.0099265
-0.0039736 0.0030136 -0.00099227 0.0035603 0.00042408 0.0036479 -0.026624 0.016694
-0.19384 0.11745 -0.015172 0.019338
0.0037016 0.00076858 0.00099137 0.0053265 -0.0017806 0.0012507 0.012645 -0.0099473
-0.015189 0.019321 -0.22798 0.18251
860000000 -0.11426 0.25724 -0.015285 0.03084 -0.0038093 -0.0095914 -0.0020283 0.0013703
0.0046808 0.0049567 -0.0025572 -0.0021754
-0.015285 0.030796 -0.28458 0.29664 0.0096421 0.033037 0.00031492 0.0022398
0.0049059 0.00071122 0.0035503 0.00063766
-0.0038267 -0.0095795 0.0097145 0.033026 0.02707 0.32304 -0.00029115 1.8497e-05
0.0026882 -0.0012179 0.0019595 0.0040076
-0.0020346 0.00137 0.00031775 0.0022487 -0.000294 1.7948e-05 -0.13168 0.25335
-0.014631 0.020854 -0.0051529 -0.0091979
0.0046834 0.0049247 0.0049002 0.00067128 0.0026836 -0.0012031 -0.014631 0.020895
-0.1406 0.16205 -0.020568 0.016801
-0.0025784 -0.0021732 0.0035466 0.00063521 0.0019664 0.0040125 -0.005168 -0.0091951
-0.020585 0.016791 -0.17921 0.22172
920000000 -0.08746 0.27817 0.006869 0.036384 -0.0092643 -0.0040111 -0.0012334 0.001655
0.001974 0.0011752 0.002766 -0.0019669
0.0068377 0.036358 -0.25449 0.31689 0.028502 0.019879 0.0018631 0.00091154
0.0073858 -0.00086047 0.0036316 -0.0031619
-0.0092682 -0.0039955 0.02855 0.019834 0.074365 0.3229 0.0019916 -0.00020051
0.0016518 -0.00092287 0.00075169 -0.0013008
-0.0012407 0.0016558 0.0018721 0.00090902 0.0019928 -0.00020098 -0.10555 0.26906
-0.0068854 0.030514 0.0024393 -0.0064773
0.0019892 0.0011776 0.0073785 -0.00089665 0.0016458 -0.00091831 -0.0068299 0.030551
-0.12765 0.16657 -0.00039004 0.025335
0.0027636 -0.0019633 0.0036151 -0.003172 0.00075097 -0.001297 0.0024452 -0.0064786
-0.00040948 0.025338 -0.17797 0.23716
980000000 -0.040607 0.29566 0.018923 0.027929 -0.0085538 0.0046481 0.0019446 0.0027512
0.0037149 -0.002151 -0.0032207 -0.0019409
0.018887 0.027905 -0.20263 0.34923 0.032684 0.0028344 0.002049 -0.00041581
0.0014358 -0.006351 -0.0006673 -0.0023769
-0.008528 0.0046599 0.03269 0.0027549 0.12124 0.31523 0.00040071 -0.001376
1.6255e-05 -0.0023456 0.0012613 -0.00027159
0.0019434 0.0027366 0.0020542 -0.00040407 0.00039776 -0.0013785 -0.066705 0.27859
0.010977 0.028283 -0.00837 -0.0059537
0.0037222 -0.0021467 0.0014104 -0.0063848 1.0548e-05 -0.0023444 0.011039 0.028277
-0.096048 0.19194 0.0068361 0.018431
-0.0032224 -0.0019325 -0.00068508 -0.0023584 0.0012607 -0.00027339 -0.0083723 -0.0059421
0.0068228 0.018447 -0.13345 0.27414
1040000000 0.0025049 0.30268 0.032988 0.015256 -0.001251 0.0066364 0.00227 0.0005252
-0.00017701 -0.0031921 -0.00092788 -0.0014517
0.032931 0.015272 -0.16672 0.3623 0.0277 -0.016102 0.001238 -0.00177
-0.0024917 -0.0026877 -0.0016706 -0.0028468
-0.0012184 0.006623 0.027644 -0.016174 0.1683 0.30023 -0.00070376 -0.0014341
-0.0017194 -0.00082164 -0.00065317 -0.0010178
0.0022696 0.00051876 0.0012521 -0.0017597 -0.00070659 -0.0014359 -0.037322 0.28759
0.021447 0.015506 -0.0028529 0.0011339
-0.00016134 -0.0031677 -0.002527 -0.0026837 -0.0017226 -0.00081255 0.021495 0.015473
-0.063649 0.19757 0.014095 0.01549
-0.00091725 -0.00146 -0.0016878 -0.0028207 -0.0006471 -0.0010254 -0.0028526 0.0011408
0.014093 0.015494 -0.10765 0.2934
1100000000 0.047553 0.30855 0.034283 -0.0063739 0.0026213 0.0035886 0.0021978 -0.0010074
-0.0021582 -0.0027245 -0.0036452 0.00058047
0.034254 -0.0063539 -0.12346 0.37847 0.01327 -0.028121 -8.4301e-05 -0.0017917
-0.0035762 -0.00042851 -0.0033133 -0.0001591
0.0026324 0.0035743 0.013189 -0.028164 0.21531 0.27769 -0.0018368 0.00027979
-0.0018402 0.00072819 -0.00097762 -9.4752e-05
0.0021995 -0.0010227 -8.0856e-05 -0.0017912 -0.0018326 0.00027944 0.0039326 0.29017
0.025045 0.0017907 -0.0025219 6.2777e-05
-0.0021592 -0.0027174 -0.0035863 -0.00042355 -0.0018364 0.00073496 0.025066 0.0017585
-0.044401 0.20894 0.018844 0.0056921
-0.0036293 0.00058271 -0.0033114 -0.00015328 -0.00097581 -8.9709e-05 -0.0025157 6.2062e-05
0.018854 0.0057034 -0.06109 0.31653
1160000000 0.098377 0.30234 0.021705 -0.022063 0.0021348 -0.00029069 -7.8193e-05 -0.0019667
-0.0039777 -0.00048974 -0.00068961 0.0038302
0.02169 -0.022038 -0.078635 0.38247 -0.0055787 -0.028257 -0.0016998 -0.0014976
-0.0026572 0.0026176 -0.0014599 0.0018931
0.0021484 -0.00029374 -0.0056851 -0.028244 0.25817 0.24448 -0.00069867 0.0018016
-0.00039081 0.0020729 -0.00076369 0.0003222
-8.191e-05 -0.0019782 -0.0016986 -0.0014901 -0.00070056 0.0018016 0.043839 0.28506
0.02007 -0.013475 -0.0030865 0.0042998
-0.0039772 -0.00045864 -0.0026681 0.0026187 -0.00039262 0.002073 0.020063 -0.013506
-0.010877 0.21553 0.01714 -0.0025407
-0.00065903 0.0038328 -0.0014592 0.0019143 -0.00076379 0.00032669 -0.0030715 0.0042851
0.017165 -0.0025348 -0.013856 0.31737
1220000000 0.14298 0.28925 0.0076043 -0.029752 -0.0016812 -0.00014257 0.00017081 -0.00096321
-0.0023704 0.0022673 0.0014216 0.0018829
0.0076222 -0.029719 -0.034261 0.39298 -0.017761 -0.019591 -0.0024534 0.00047725
0.00022633 0.0030013 -0.00047856 0.001981
-0.0016781 -0.00012895 -0.017835 -0.019539 0.29624 0.20306 0.00089978 0.001865
0.00069579 0.0012033 0.00039837 0.00048219
0.00016906 -0.00096512 -0.0024463 0.00048604 0.00089884 0.0018709 0.084154 0.27375
0.0085369 -0.019302 0.0013193 0.0014888
-0.002364 0.0022855 0.00024088 0.0029845 0.00069301 0.0011954 0.0085172 -0.019313
0.012837 0.22217 0.011553 -0.014062
0.0014314 0.0018798 -0.00047504 0.0019836 0.00039992 0.00048495 0.0013144 0.0014825
0.011572 -0.014072 0.019697 0.32813
1280000000 0.19178 0.26578 -0.010009 -0.026898 -0.0014701 0.0030924 -0.00092096 -0.0019999
-0.00063991 0.0029808 0.0024551 0.00079006
-0.0099963 -0.026882 0.011843 0.38324 -0.023704 -0.0069354 -0.00088436 0.0015068
0.0019135 0.001693 0.00085043 0.0017286
-0.001468 0.003091 -0.02375 -0.0068469 0.32467 0.15782 0.0016713 5.7871e-06
0.0011666 0.00021522 0.00027986 0.00018239
-0.00092494 -0.0019878 -0.00088941 0.0015063 0.0016659 7.1231e-06 0.12 0.25472
-0.0017567 -0.020264 -0.00064608 0.0005378
-0.00062358 0.0029862 0.0019284 0.0016877 0.0011727 0.00021059 -0.0017961 -0.020271
0.049078 0.22364 0.00086867 -0.015646
0.0024622 0.00079098 0.00086002 0.0017196 0.00027831 0.00018278 -0.00065797 0.00053505
0.00090433 -0.015668 0.065422 0.32575
1340000000 0.22838 0.23045 -0.018741 -0.016493 0.0015328 0.0044862 -0.0017214 -0.00093645
0.0015309 0.0025091 0.0014764 -0.0014932
-0.018715 -0.0165 0.051668 0.37328 -0.020787 0.0055039 -5.479e-05 0.0020519
0.0020478 0.00049709 0.0013618 0.00060492
0.0015491 0.0044774 -0.020785 0.0055951 0.34492 0.10943 0.0012961 -0.0011362
0.00067805 -0.00067033 7.5541e-05 0.0002275
-0.0017369 -0.00092231 -4.9062e-05 0.0020402 0.0012976 -0.0011428 0.1514 0.23201
-0.011258 -0.016091 0.00044318 0.0012722
0.0015425 0.0025028 0.002052 0.00048737 0.0006684 -0.00066732 -0.011298 -0.016082
0.078806 0.21702 -0.0060079 -0.013108
0.0014682 -0.0015014 0.0013735 0.00060054 7.4283e-05 0.00022879 0.00042779 0.00127
-0.0059971 -0.013149 0.10445 0.31677
1400000000 0.26021 0.19095 -0.022916 -0.0049327 0.0055595 0.0026887 -0.002153 0.000589
0.0023925 0.00076232 3.1129e-05 -0.001411
-0.022884 -0.0049485 0.08818 0.35908 -0.013636 0.012949 0.0013808 0.001299
0.0010864 -0.0009996 0.0010564 5.3415e-07
0.0055636 0.0026715 -0.013605 0.01301 0.35663 0.056124 1.3638e-07 -0.0019127
7.2466e-06 -0.00041888 0.00037126 0.00014974
-0.0021538 0.00058905 0.0013877 0.0012941 4.8241e-06 -0.0019167 0.17913 0.20121
-0.016573 -0.0084129 -0.00031532 0.00066762
0.0023987 0.00075021 0.0010851 -0.0010039 2.522e-06 -0.00042278 -0.016597 -0.0083849
0.11088 0.21024 -0.011723 -0.0074173
2.4253e-05 -0.0014037 0.0010642 -2.2531e-06 0.00037166 0.00014895 -0.00032237 0.00067689
-0.011718 -0.0074737 0.14663 0.30185
1460000000 0.28179 0.14601 -0.018937 0.0064382 0.0056098 -0.0023152 -0.0015536 0.0017181
0.0020812 -0.00070956 -0.00047525 -0.00081102
-0.018922 0.0064152 0.12196 0.33615 -0.005024 0.01513 0.0017567 6.9403e-05
0.0006421 -0.0013347 0.0010307 -0.00058215
0.0056021 -0.0023326 -0.0049691 0.015163 0.36173 0.0024079 -0.001451 -0.0012917
0.0002059 -0.00017207 0.0006448 -0.00030284
-0.0015422 0.0017253 0.0017589 6.3036e-05 -0.0014536 -0.0012854 0.2032 0.17051
-0.016866 -0.0010176 -2.0688e-05 0.0022417
0.0020712 -0.00071998 0.00062734 -0.0013376 0.00020416 -0.00017497 -0.016879 -0.0009798
0.13959 0.19394 -0.012598 -0.0011603
-0.00047327 -0.00082809 0.0010327 -0.00059636 0.00065184 -0.00030534 -1.4823e-05 0.0022502
-0.012621 -0.0012119 0.17854 0.2788
1520000000 0.2927 0.10289 -0.012639 0.011102 0.0030342 -0.0044676 9.3234e-05 0.0026417
0.0018336 -0.0018255 -0.0010929 -6.892e-06
-0.012639 0.01108 0.15457 0.32032 0.0022234 0.012526 0.001644 -0.0009542
-0.00010062 -0.00098544 0.00024463 -0.00090685
0.0030222 -0.0044753 0.0022835 0.012519 0.35462 -0.053861 -0.0014106 -0.00017418
0.00050104 -0.00087726 -2.2101e-05 -0.00016728
9.3513e-05 0.0026298 0.0016456 -0.00096033 -0.0014141 -0.00017427 0.22363 0.13178
-0.015002 0.0049007 0.0021859 0.0018074
0.0018157 -0.0018303 -0.00010038 -0.00098364 0.00049936 -0.00088302 -0.015004 0.0049478
0.16686 0.17775 -0.011737 0.0034309
-0.0010927 -5.3181e-06 0.00024104 -0.00091077 -2.2226e-05 -0.00016908 0.0021907 0.0018139
-0.011774 0.0034037 0.20974 0.25499
1580000000 0.30029 0.056327 -0.0060748 0.013077 -0.001151 -0.0049381 0.0015718 0.0019021
-0.00028204 -0.0021127 -0.00018891 0.00033739
-0.0060855 0.013062 0.18082 0.29503 0.005447 0.0075652 0.0003333 -0.0017247
-0.00055927 -0.00088284 -0.00025307 -0.00078385
-0.0011599 -0.0049295 0.0054831 0.0075416 0.33401 -0.11128 -0.0016386 0.00099889
-0.00043326 -0.0011321 0.00012219 -0.00061238
0.0015774 0.0018999 0.00032707 -0.0017329 -0.0016419 0.0010049 0.23471 0.092721
-0.010716 0.0093291 0.0025886 0.00010493
-0.00028722 -0.0021107 -0.00056893 -0.00088479 -0.00043622 -0.0011317 -0.010707 0.0093605
0.18992 0.15772 -0.0086523 0.0084893
-0.00019111 0.00033842 -0.00025564 -0.00078534 0.00012153 -0.00061669 0.0026019 0.00010181
-0.0086997 0.0084718 0.23889 0.22655
1640000000 0.30061 0.014531 2.6275e-05 0.011127 -0.002986 -0.0025874 0.0027725 0.0008234
-0.00094745 -0.0014238 -0.00024091 0.00054192
8.9477e-06 0.011123 0.20953 0.26946 0.0058144 0.0030185 -0.00094336 -0.0016378
-0.00097695 -0.00025817 -0.00055263 -0.00053865
-0.0029897 -0.0025838 0.0058347 0.0029912 0.30513 -0.16026 -0.00048618 0.0016583
-0.0012682 -0.00070118 -0.00022322 -0.00022807
0.0027751 0.00081539 -0.00094881 -0.0016357 -0.00049155 0.0016617 0.24455 0.045119
-0.0058724 0.010144 0.0025105 -0.0013598
-0.00095263 -0.001418 -0.00097615 -0.00025836 -0.0012705 -0.00070025 -0.0058482 0.010168
0.21135 0.13151 -0.0036183 0.010039
-0.00023845 0.0005446 -0.00055998 -0.000537 -0.00022316 -0.00023059 0.002515 -0.0013647
-0.0036663 0.01005 0.2626 0.19364
1700000000 0.29144 -0.030735 0.0027615 0.0079042 -0.0035291 0.00021049 0.0029496 -0.0014663
-0.0019791 -0.00050153 0.00062022 0.00033784
0.0027552 0.0079049 0.22665 0.23798 0.0037443 0.00024916 -0.0015461 -0.00037417
-0.00065941 0.00012853 -0.0008855 -0.00036711
-0.0035244 0.0002254 0.0037397 0.00023198 0.2615 -0.20026 0.00075657 0.0014868
-0.0018819 1.1122e-05 -0.00062138 -0.00082868
0.0029552 -0.0014679 -0.0015444 -0.00036837 0.0007498 0.0014833 0.23973 -0.0026616
-0.0028372 0.0098871 0.0013251 -0.0024999
-0.0019934 -0.00048237 -0.00065913 0.0001326 -0.0018863 1.8619e-05 -0.0028206 0.0098968
0.22665 0.10939 0.0010461 0.0098845
0.00062043 0.00033562 -0.00089062 -0.00036174 -0.00062706 -0.00082865 0.0013328 -0.0025081
0.0010152 0.0099097 0.27654 0.15809
1760000000 0.27785 -0.078633 0.0041303 0.0045891 -0.0023561 0.00093995 0.00093544 -0.0035297
-0.0013101 0.00087636 0.00035611 -0.00041663
0.0041235 0.0045994 0.25197 0.19792 0.0014679 -0.0014658 -0.0011366 0.00039832
-0.00092589 0.00083041 -0.00061467 0.00049897
-0.00235 0.00093873 0.0014668 -0.0014712 0.21249 -0.2335 0.0013445 0.00086132
-0.00109 0.0016722 -0.0013532 -0.00033248
0.00093173 -0.0035279 -0.0011314 0.00041587 0.0013471 0.00085461 0.23019 -0.051425
0.00021067 0.0086165 -0.00052737 -0.0026282
-0.0012945 0.00088874 -0.00093103 0.00084258 -0.0010814 0.0016779 0.00022429 0.0086206
0.23945 0.073037 0.0047152 0.006861
0.00035754 -0.00042213 -0.00061359 0.00049738 -0.0013537 -0.00033893 -0.00053189 -0.0026345
0.0046961 0.0069069 0.28736 0.11961
1820000000 0.25174 -0.11515 0.0036352 0.001486 -5.2653e-05 0.0025238 -0.0013132 -0.002859
-0.00083598 0.0010645 -3.686e-05 -4.1942e-05
0.0036263 0.0014936 0.26118 0.16793 -0.00040982 -0.00022106 -0.0010632 0.0010483
-5.4019e-05 0.0012136 -0.00049154 0.00060301
-3.8583e-05 0.0025219 -0.0004103 -0.00021805 0.16201 -0.24911 0.0013015 3.5292e-05
-2.1878e-06 0.0022512 -0.001329 0.00057762
-0.0013196 -0.0028538 -0.001059 0.0010492 0.0013054 4.1819e-05 0.20086 -0.096372
0.0014645 0.006708 -0.0017864 -0.0015176
-0.00082661 0.0010674 -4.4667e-05 0.0012102 -3.2505e-06 0.0022441 0.0014846 0.0067024
0.25401 0.04277 0.0054622 0.0031432
-3.5502e-05 -4.5104e-05 -0.00048378 0.00059978 -0.0013338 0.0005799 -0.0017913 -0.0015239
0.0054624 0.0031769 0.28749 0.082148
1880000000 0.21556 -0.15418 0.0010782 -0.00016272 -0.00045007 0.0020827 -0.003027 -0.0018155
-2.9654e-05 0.0015468 0.00030644 -0.00046493
0.0010848 -0.0001557 0.2652 0.12148 -0.0025471 0.0015116 4.5374e-05 0.0016011
0.00059299 0.0011227 0.00025067 0.00091989
-0.00045256 0.0020832 -0.0025389 0.0015343 0.10901 -0.25888 0.0014264 -0.0010042
0.0016836 0.0016208 -0.00070328 0.0014583
-0.0030343 -0.0018169 4.4979e-05 0.0016029 0.0014215 -0.00099778 0.16197 -0.13552
0.0019417 0.0045687 -0.002344 0.00037086
-1.6539e-05 0.001541 0.0006007 0.0011125 0.0016785 0.0016157 0.0019511 0.0045699
0.25441 0.0093638 0.005109 0.00076382
0.00029999 -0.00047256 0.00026255 0.00091364 -0.000698 0.0014709 -0.002353 0.00037485
0.0051328 0.00079894 0.28514 0.047688
1940000000 0.17599 -0.17929 -0.001095 -0.0011203 0.0015241 0.0020681 -0.003492 0.00075516
0.0014498 0.0008865 -0.00055884 -0.00056406
-0.0010944 -0.0011206 0.26509 0.089759 -0.0013579 0.003929 0.0010235 0.0010026
0.0016898 0.00048663 0.0009001 0.00039989
0.001528 0.0020548 -0.0013382 0.0039482 0.062447 -0.25223 0.00010492 -0.0018186
0.002306 0.00013322 0.00057339 0.0017242
-0.0034924 0.00076886 0.001034 0.0010021 9.788e-05 -0.0018194 0.11127 -0.16611
0.00098969 0.003102 -0.0015983 0.0015241
0.0014531 0.00087737 0.0016928 0.00047786 0.0023086 0.00013914 0.0009921 0.0030964
0.25376 -0.030146 0.003565 -0.0021961
-0.00056958 -0.00055388 0.00089912 0.00039688 0.00058498 0.001725 -0.0015956 0.0015202
0.0035999 -0.0021694 0.27254 0.010897
2000000000 0.12935 -0.19323 -0.0045182 0.0013259 0.0026021 0.001599 -0.0021557 0.0035591
0.00098307 -5.2801e-05 -0.0006091 0.00029843
-0.0045064 0.0013138 0.25061 0.054276 -0.0011476 0.0058343 0.0014297 0.00018433
0.0013392 -0.0012387 0.00055871 -0.00015696
0.0026194 0.0016026 -0.00112 0.0058443 0.018159 -0.23731 -0.0011858 -0.0010149
0.0017431 -0.0012744 0.0017699 0.00088639
-0.0021222 0.0035758 0.001435 0.00018625 -0.0011853 -0.0010165 0.058611 -0.17699
-0.0007304 0.0027999 -6.5605e-05 0.0021208
0.00097717 -5.4001e-05 0.0013312 -0.0012481 0.0017403 -0.0012822 -0.0007227 0.0028093
0.24523 -0.063819 0.00032194 -0.003305
