!Keysight Technologies,M9804A,MY58100912,A.14.10.03
!Date: Thursday, April 27, 2023 10:28:33
!Correction: S11(C  6-Port  ) 
!S12(C  6-Port  ) 
!S13(C  6-Port  ) 
!S14(C  6-Port  ) 
!S15(C  6-Port  ) 
!S16(C  6-Port  ) 
!S21(C  6-Port  ) 
!S22(C  6-Port  ) 
!S23(C  6-Port  ) 
!S24(C  6-Port  ) 
!S25(C  6-Port  ) 
!S26(C  6-Port  ) 
!S31(C  6-Port  ) 
!S32(C  6-Port  ) 
!S33(C  6-Port  ) 
!S34(C  6-Port  ) 
!S35(C  6-Port  ) 
!S36(C  6-Port  ) 
!S41(C  6-Port  ) 
!S42(C  6-Port  ) 
!S43(C  6-Port  ) 
!S44(C  6-Port  ) 
!S45(C  6-Port  ) 
!S46(C  6-Port  ) 
!S51(C  6-Port  ) 
!S52(C  6-Port  ) 
!S53(C  6-Port  ) 
!S54(C  6-Port  ) 
!S55(C  6-Port  ) 
!S56(C  6-Port  ) 
!S61(C  6-Port  ) 
!S62(C  6-Port  ) 
!S63(C  6-Port  ) 
!S64(C  6-Port  ) 
!S65(C  6-Port  ) 
!S66(C  6-Port  ) 
!S6P File: Measurement: :
# Hz S  RI   R 50
500000000 -0.33921 -0.017696 -0.011092 -0.0033052 -0.0074657 0.012659 -0.003355 0.011986
0.011594 0.0038232 -0.0031208 0.0081284
-0.010627 -0.0032448 -0.42019 -0.034975 0.0057594 -0.011727 0.001668 0.012526
0.006757 0.0020368 0.0021238 0.013203
-0.0071734 0.012618 0.0058738 -0.011727 -0.26349 0.2239 0.0068603 0.0040738
-0.0010206 0.0080786 0.0022658 0.011822
-0.0034678 0.011969 0.0018132 0.0127 0.0069572 0.0040117 -0.33118 0.063441
-0.01937 -0.0073186 0.014329 0.02321
0.011593 0.0038698 0.0066773 0.0019077 -0.0010418 0.0081531 -0.019352 -0.0072676
-0.23787 -0.16132 -0.025063 0.0032708
-0.0030526 0.0078942 0.0024005 0.013567 0.0022653 0.011868 0.014491 0.023317
-0.024914 0.0032755 -0.28628 -0.078234
560000000 -0.3117 0.13807 -0.027217 -0.059856 0.00099621 0.011618 0.0062652 0.0097834
0.0091751 0.003918 0.010735 0.007517
-0.027396 -0.059937 -0.37509 0.11972 -0.04224 -0.034081 0.013524 0.0032578
-0.01246 -0.0037945 0.0033174 -0.00070181
0.001153 0.011691 -0.042266 -0.034084 -0.18024 0.26842 -7.3433e-05 -0.0041227
0.018097 0.0035702 0.0071722 -0.0063054
0.0060626 0.0095962 0.013471 0.0032006 5.9002e-05 -0.0041821 -0.30401 0.14898
6.4089e-05 -0.023978 0.003092 -0.017988
0.009502 0.0037037 -0.01237 -0.003699 0.018422 0.0035961 1.447e-05 -0.023956
-0.28869 0.010594 0.0031093 -0.046509
0.011009 0.0067567 0.0034351 -0.00097982 0.007117 -0.0062757 0.0030102 -0.017957
0.0030458 -0.046333 -0.33025 0.061812
620000000 -0.27048 0.12433 -0.02334 0.0074918 0.0045709 0.0082392 0.0073641 -0.0053492
0.011384 -0.0014829 0.00064174 -0.0022786
-0.02321 0.0075596 -0.40116 0.075152 -0.019484 0.00053466 -0.00086187 -0.0020472
0.010334 -0.0069088 0.0014688 -0.0028259
0.0044797 0.0082016 -0.019491 0.00051715 -0.14898 0.27757 -0.001141 -0.0048232
-0.0032703 -0.003137 0.0081197 -0.0037134
0.0073934 -0.0052441 -0.0008328 -0.0020501 -0.0011558 -0.0048311 -0.26296 0.16064
-0.039074 -0.016756 0.012022 0.022438
0.011197 -0.0016233 0.010262 -0.0069556 -0.0033374 -0.0031068 -0.039069 -0.016707
-0.21349 -0.027719 -0.038787 0.015051
0.00028155 -0.0023446 0.0017521 -0.0027786 0.0080461 -0.0036812 0.011905 0.022569
-0.038841 0.015009 -0.25683 0.032837
680000000 -0.22697 0.20621 -0.027728 -0.011264 0.0054592 0.0045896 0.0010938 -0.0071534
-0.0030029 -0.011299 0.0041618 -0.0064062
-0.027787 -0.011473 -0.38374 0.16947 -0.032317 0.00081179 -0.0015193 -0.00056971
-0.0024943 -0.0090929 -0.001785 -0.0020295
0.0054912 0.004503 -0.032385 0.00094239 -0.097755 0.29549 -0.00084099 -0.00035157
-0.0017419 2.9711e-05 -0.0038383 -0.0085687
0.00093947 -0.0071749 -0.0014732 -0.00073247 -0.00084751 -0.00038573 -0.21658 0.20846
-0.025732 -0.0049906 -0.0089663 -0.0075157
-0.0030209 -0.010995 -0.0025447 -0.0091063 -0.0016749 0.00010318 -0.025803 -0.0050005
-0.25073 0.070819 -0.007709 -0.0061113
0.0042957 -0.0068639 -0.0013748 -0.0020478 -0.003842 -0.0084723 -0.0092568 -0.0077869
-0.0079032 -0.006314 -0.25303 0.12925
740000000 -0.18316 0.20074 -0.036287 0.026414 0.012039 -0.0059817 -0.0010059 -0.0040982
-0.0054365 -0.0029321 -0.0059337 0.0034007
-0.036229 0.026333 -0.33231 0.18855 -0.03284 0.035216 -0.0011899 -0.0058076
-0.011193 0.0076911 -0.0024053 -0.0045445
0.012169 -0.0060214 -0.032731 0.035277 -0.064213 0.29433 -0.0018066 0.0029659
-0.0034831 -0.0041947 -0.0021103 0.0011063
-0.00077765 -0.0040944 -0.0012169 -0.0058394 -0.0018326 0.0029313 -0.19868 0.21669
-0.042076 -0.0032161 0.021573 0.01191
-0.005406 -0.0029191 -0.01118 0.0078629 -0.0034518 -0.004221 -0.042074 -0.0032335
-0.15711 0.09131 -0.038619 0.0039158
-0.0058355 0.0032956 -0.0024124 -0.0047076 -0.0020635 0.0011763 0.02172 0.012131
-0.038728 0.0036372 -0.24127 0.13838
800000000 -0.14924 0.23762 -0.020936 0.017943 0.0046462 -0.010473 -0.0043076 -0.0016338
-0.0037229 0.0027112 0.0035977 0.00075105
-0.020944 0.017886 -0.33211 0.25665 -0.006364 0.033753 -0.0022511 0.0023522
-0.00070682 0.0035791 0.001218 0.0053511
0.0046626 -0.010518 -0.0063142 0.033777 -0.021576 0.31625 0.00088121 0.0016382
0.0004011 0.0035435 -0.0016795 0.0013842
-0.004331 -0.0017332 -0.0023221 0.0023632 0.00083368 0.0016145 -0.16875 0.24289
-0.026644 0.016475 0.012286 -0.0097396
-0.003751 0.0026714 -0.00067576 0.0036271 0.00038256 0.0035618 -0.026661 0.016582
-0.19381 0.11829 -0.015411 0.018804
0.0036222 0.00064537 0.0011207 0.0052627 -0.0017033 0.0013733 0.012382 -0.0098854
-0.015436 0.018746 -0.2281 0.18403
860000000 -0.11438 0.25718 -0.015428 0.030993 -0.0038859 -0.0096963 -0.00179 0.0012696
0.0045417 0.0044316 -0.0026596 -0.002462
-0.015437 0.030927 -0.28445 0.29726 0.0095892 0.033223 0.0002139 0.0020339
0.0046682 0.00041882 0.0033795 0.00049046
-0.0039126 -0.009712 0.0096996 0.033206 0.026917 0.3233 -0.00023403 -8.11e-05
0.0024558 -0.001274 0.001848 0.0039508
-0.0018863 0.0012986 0.0001765 0.0021255 -0.00021301 -7.3468e-05 -0.13187 0.25385
-0.01493 0.021324 -0.0052242 -0.0089368
0.0045062 0.0044863 0.0046694 0.0004418 0.0024743 -0.0012792 -0.014906 0.021338
-0.14076 0.16331 -0.020317 0.016297
-0.0025974 -0.002336 0.0032155 0.00034097 0.001866 0.0039732 -0.0052499 -0.0091193
-0.020488 0.01618 -0.17878 0.22233
920000000 -0.087553 0.27848 0.0066335 0.036411 -0.0093979 -0.0039972 -0.0013076 0.0018043
0.0015776 0.0014137 0.0026384 -0.0017161
0.0065851 0.036343 -0.25436 0.3173 0.028496 0.019977 0.0019521 0.0009655
0.0069767 -0.00094041 0.0037999 -0.0031568
-0.0093898 -0.0039751 0.028565 0.019891 0.074288 0.32316 0.0019673 -0.0001766
0.0015524 -0.00070144 0.00085506 -0.0012262
-0.0013557 0.0017866 0.0019774 0.0009996 0.0019727 -0.00014186 -0.10533 0.26942
-0.0068646 0.031218 0.0025734 -0.0065782
0.0015266 0.0013774 0.0069325 -0.00095265 0.0015338 -0.00071637 -0.0068517 0.031275
-0.12773 0.16902 -0.00022488 0.025784
0.002687 -0.0017012 0.0037211 -0.0029913 0.00083922 -0.0012125 0.0027024 -0.0064551
-4.2672e-05 0.025736 -0.17677 0.23802
980000000 -0.040618 0.2961 0.018893 0.028188 -0.0085918 0.004754 0.0019658 0.0031397
0.0037272 -0.0018521 -0.0029864 -0.0020445
0.018812 0.028146 -0.20252 0.34968 0.032702 0.0028552 0.0020299 -0.0003106
0.0013814 -0.0062976 -0.00048925 -0.0024369
-0.0085689 0.0047833 0.032742 0.0027737 0.12123 0.31544 0.00046707 -0.0013121
8.3737e-05 -0.0022767 0.0013455 -0.00035215
0.0019699 0.0030966 0.0020266 -0.00032143 0.00044854 -0.0013172 -0.066706 0.27886
0.011475 0.028167 -0.0086542 -0.0062457
0.0036938 -0.0019504 0.001383 -0.0062912 5.8082e-05 -0.0022843 0.011554 0.028186
-0.094727 0.19264 0.0066953 0.01803
-0.0029674 -0.0019923 -0.00038519 -0.002412 0.0013809 -0.00034485 -0.0086846 -0.0062325
0.0065856 0.018121 -0.13309 0.2754
1040000000 0.0025927 0.30282 0.033109 0.015313 -0.0011815 0.0066708 0.0023771 0.00042019
-0.00011087 -0.0031461 -0.00080097 -0.0014731
0.033057 0.015295 -0.16645 0.36277 0.027724 -0.01614 0.0012956 -0.001825
-0.0025357 -0.0025418 -0.0016617 -0.0026794
-0.001163 0.0066701 0.027685 -0.016253 0.16842 0.30042 -0.00071858 -0.0015048
-0.0016936 -0.00085646 -0.00055561 -0.0010619
0.0023991 0.00043255 0.0013357 -0.001838 -0.00070066 -0.0015106 -0.037223 0.28779
0.021858 0.015553 -0.0027834 0.0012762
-0.00012663 -0.0031423 -0.0025207 -0.0024792 -0.0016969 -0.00086848 0.021909 0.015526
-0.062777 0.19841 0.014453 0.015698
-0.00072712 -0.0014502 -0.0016363 -0.0027104 -0.00055624 -0.001051 -0.0027361 0.0012448
0.01443 0.015834 -0.10652 0.29464
1100000000 0.047738 0.30876 0.034434 -0.006411 0.0027245 0.0036929 0.0021849 -0.0011029
-0.0020718 -0.002863 -0.0035585 0.00044852
0.034396 -0.0063601 -0.12312 0.37896 0.013204 -0.028138 -0.00011955 -0.0018084
-0.0035483 -0.00055073 -0.003375 -0.00029652
0.002733 0.003697 0.013119 -0.028206 0.21548 0.27784 -0.0018855 0.0003087
-0.0018918 0.00072654 -0.00098219 -0.00012183
0.0022153 -0.0010772 -0.00013182 -0.0018047 -0.0018653 0.00030733 0.004194 0.29051
0.025617 0.0015899 -0.0024703 0.00014416
-0.0021026 -0.0028754 -0.0035725 -0.00052368 -0.0018951 0.00074453 0.025625 0.0015551
-0.043123 0.20961 0.019202 0.0055276
-0.0036012 0.00055529 -0.0033466 -0.00023078 -0.00097444 -0.00011486 -0.0025154 0.0001004
0.019283 0.0055756 -0.059852 0.31734
1160000000 0.09872 0.30255 0.021767 -0.022052 0.0022728 -0.00034176 -0.00012972 -0.0020003
-0.0040295 -0.00043215 -0.00063876 0.0037826
0.021774 -0.02205 -0.078127 0.38314 -0.0056096 -0.02824 -0.0017715 -0.0014366
-0.0025675 0.0026515 -0.0013272 0.0018431
0.0022679 -0.00034579 -0.0057286 -0.028253 0.25835 0.2446 -0.00065264 0.0018828
-0.00034733 0.0019912 -0.00080696 0.00017644
-8.8275e-05 -0.0020092 -0.0017576 -0.0014119 -0.00066282 0.0018739 0.044187 0.28521
0.020264 -0.013993 -0.003049 0.0041332
-0.0040062 -0.000401 -0.0025733 0.0026738 -0.00036554 0.0019946 0.020267 -0.014013
-0.010216 0.21599 0.017313 -0.0028562
-0.00057926 0.0038418 -0.0013303 0.0018205 -0.00080445 0.0001792 -0.0030657 0.0041812
0.017257 -0.0028631 -0.012813 0.3178
1220000000 0.14336 0.28931 0.0077133 -0.029872 -0.0016492 -0.00028013 0.00011166 -0.00093298
-0.0024594 0.0022948 0.001456 0.0018707
0.0077112 -0.029863 -0.033499 0.3934 -0.017836 -0.019527 -0.0024565 0.00054234
0.00028383 0.0029891 -0.00044708 0.0019822
-0.0016452 -0.00025111 -0.017909 -0.019468 0.29646 0.20304 0.0009498 0.0018588
0.00075128 0.0012349 0.0003979 0.00047294
0.000114 -0.00093768 -0.0024698 0.00055662 0.00094513 0.0018444 0.084557 0.27388
0.0085938 -0.019831 0.0012883 0.0014638
-0.0024518 0.0023322 0.00029247 0.0030022 0.00077694 0.0012107 0.0085519 -0.019848
0.013831 0.22262 0.011568 -0.014354
0.0014755 0.0018329 -0.00047731 0.0019884 0.0003853 0.00048066 0.0013045 0.0014422
0.011623 -0.014352 0.020788 0.32847
1280000000 0.19218 0.2658 -0.0099921 -0.027081 -0.0014356 0.0030301 -0.00093736 -0.0020043
-0.00058461 0.0029934 0.0024538 0.00081886
-0.009955 -0.027063 0.012754 0.38343 -0.023687 -0.0068441 -0.0008959 0.0015004
0.001887 0.0016959 0.00087486 0.0017328
-0.0014199 0.0030266 -0.023718 -0.0067685 0.32497 0.15773 0.0016924 -0.00011494
0.001175 0.00012598 0.00019357 0.00020806
-0.0009384 -0.001999 -0.00088178 0.001488 0.0016862 -0.00011547 0.12042 0.25461
-0.0021581 -0.020794 -0.0006812 0.00058064
-0.00058283 0.0030019 0.0018943 0.0017053 0.001194 0.00014139 -0.0022158 -0.020804
0.050014 0.22386 0.00066212 -0.015839
0.0024708 0.00080804 0.00089918 0.0017071 0.0001876 0.00019643 -0.00071893 0.00057398
0.00071173 -0.015847 0.066577 0.32628
1340000000 0.22886 0.23028 -0.018808 -0.016636 0.0015346 0.004377 -0.0017661 -0.00090301
0.0014781 0.0026101 0.0014238 -0.0015165
-0.018765 -0.016628 0.052553 0.37315 -0.020708 0.005597 -1.2268e-05 0.0019882
0.0020311 0.00051501 0.0013655 0.00058192
0.001528 0.0043688 -0.020698 0.0056836 0.34516 0.10923 0.0012041 -0.0011303
0.00058566 -0.00055472 7.2065e-05 0.00023842
-0.001762 -0.0008843 -2.019e-05 0.0019756 0.0012081 -0.0011183 0.15176 0.23166
-0.01173 -0.016386 0.00043713 0.0012862
0.0014451 0.0026064 0.0020226 0.00051353 0.00058452 -0.00057738 -0.011759 -0.016381
0.079947 0.21726 -0.0062338 -0.013401
0.0014474 -0.0014545 0.0014103 0.0005618 8.2994e-05 0.0002449 0.00043463 0.0012944
-0.0061888 -0.013406 0.10556 0.31681
1400000000 0.26052 0.19059 -0.023048 -0.0050241 0.0054526 0.0026327 -0.0021282 0.00066266
0.0024137 0.00081387 2.1253e-05 -0.0014315
-0.023017 -0.0050348 0.088949 0.35868 -0.01349 0.012962 0.0013781 0.0012517
0.0011138 -0.0010112 0.0010781 -1.2621e-05
0.0054315 0.0026188 -0.013454 0.013042 0.35677 0.05584 5.1833e-05 -0.0019052
4.8381e-05 -0.00041496 0.0003615 0.00021602
-0.0021259 0.00065711 0.0013836 0.0012358 4.4853e-05 -0.0019155 0.17934 0.20068
-0.01725 -0.0084339 -0.0003227 0.00082926
0.0024177 0.00078498 0.0011164 -0.0010273 3.1771e-05 -0.00039537 -0.017282 -0.0083937
0.11186 0.21022 -0.011975 -0.0075376
2.521e-05 -0.001447 0.0010895 -4.1205e-05 0.00036734 0.00020569 -0.0003104 0.00087538
-0.012038 -0.0075578 0.14775 0.30176
1460000000 0.28198 0.14562 -0.019132 0.0064839 0.0055329 -0.0023344 -0.0015356 0.0017088
0.0020744 -0.00070171 -0.00041545 -0.00080635
-0.019103 0.0064493 0.12247 0.33557 -0.0048878 0.015033 0.0016997 4.1136e-05
0.00057088 -0.0013604 0.0010139 -0.00059338
0.0055183 -0.0023661 -0.0048436 0.015068 0.36164 0.0020422 -0.0016125 -0.0012894
0.00014841 -0.00027062 0.00069034 -0.00035672
-0.0015411 0.001733 0.0017008 4.7464e-05 -0.0016179 -0.0012968 0.20306 0.17014
-0.017512 -0.00055331 -8.3326e-05 0.0023264
0.0020503 -0.00069794 0.00057883 -0.0013508 0.00014904 -0.00026557 -0.017517 -0.00051233
0.14044 0.19381 -0.012956 -0.0011601
-0.00042823 -0.00080928 0.00099768 -0.00061415 0.00066392 -0.0003795 -8.5464e-05 0.0023329
-0.012974 -0.0011314 0.17957 0.27841
1520000000 0.29273 0.1025 -0.012765 0.011222 0.0029149 -0.0043643 0.00015306 0.0026204
0.0018727 -0.0018313 -0.0011184 4.688e-06
-0.012748 0.011195 0.15485 0.31971 0.0022369 0.012437 0.001617 -0.00089426
-0.00014234 -0.00096001 0.00019299 -0.00092942
0.0028926 -0.0043769 0.0022813 0.012436 0.35434 -0.054102 -0.0014015 -0.00012184
0.0004503 -0.00090997 -4.0638e-06 -0.0001878
0.00016125 0.0026168 0.001625 -0.00090221 -0.0014093 -0.00013609 0.22341 0.13147
-0.015253 0.0055853 0.0022849 0.0019419
0.0018416 -0.0018348 -0.00015121 -0.000966 0.00045143 -0.00090844 -0.015257 0.0056207
0.1678 0.17746 -0.01202 0.0036418
-0.0011067 3.7164e-05 0.0001742 -0.00092422 9.6863e-06 -0.00019185 0.0022638 0.0019394
-0.012041 0.0036596 0.21075 0.25452
1580000000 0.29998 0.055997 -0.0060794 0.013169 -0.0011256 -0.0048105 0.0016043 0.0018663
-0.00031487 -0.0021373 -0.00016991 0.00039166
-0.0060916 0.013162 0.1809 0.29444 0.0054267 0.0074848 0.00035926 -0.0017069
-0.00058321 -0.00084611 -0.00026467 -0.00076037
-0.0011559 -0.0048169 0.0054512 0.0074655 0.3337 -0.11115 -0.0015596 0.0010396
-0.00037566 -0.0011063 0.00011971 -0.00063267
0.0016284 0.001844 0.00035347 -0.0017027 -0.0015731 0.0010444 0.23442 0.09253
-0.010487 0.010049 0.0027224 0.00017639
-0.0003288 -0.0021431 -0.00058791 -0.00084996 -0.000385 -0.0010916 -0.010485 0.010076
0.19071 0.1574 -0.0088032 0.008739
-0.00016338 0.00040769 -0.00025372 -0.00075854 0.00013136 -0.00064375 0.0026832 0.00018707
-0.0087781 0.0087196 0.23966 0.22608
1640000000 0.30042 0.014368 9.7185e-05 0.011203 -0.0029073 -0.0025637 0.0027144 0.00079211
-0.00095971 -0.0014179 -0.00014826 0.00053545
8.5184e-05 0.011203 0.20946 0.26899 0.005726 0.003007 -0.00090792 -0.0016232
-0.00095056 -0.00019601 -0.00050484 -0.00050807
-0.0029215 -0.0025478 0.0057362 0.0029711 0.3048 -0.15989 -0.0004822 0.0016244
-0.0012735 -0.0006707 -0.00018863 -0.0002022
0.0027186 0.00078628 -0.0009167 -0.0016254 -0.00049538 0.0016307 0.24417 0.045124
-0.0053665 0.01061 0.002609 -0.0013878
-0.0009597 -0.0014178 -0.00095337 -0.00018986 -0.001276 -0.00064703 -0.0053397 0.010635
0.2121 0.13112 -0.003591 0.010352
-0.00014963 0.00054642 -0.00052148 -0.00049504 -0.0001851 -0.00020031 0.0025941 -0.0013925
-0.0036068 0.010358 0.26354 0.1932
1700000000 0.29111 -0.030767 0.0027735 0.0079448 -0.0035338 0.00025717 0.002928 -0.0014326
-0.0020348 -0.00055618 0.00067569 0.00026352
0.0027784 0.0079505 0.22641 0.2376 0.0036659 0.00021957 -0.0014918 -0.00039132
-0.00061387 0.00012217 -0.00085906 -0.00034459
-0.0035518 0.00028897 0.0036821 0.00020192 0.2618 -0.19987 0.00075684 0.0014041
-0.0017891 -1.6292e-05 -0.00068884 -0.00078363
0.0029046 -0.0014276 -0.0014929 -0.00038857 0.00074788 0.0013833 0.23938 -0.002541
-0.0022043 0.0099491 0.0013954 -0.0025294
-0.0020364 -0.0005422 -0.00062346 0.00013889 -0.0018032 -3.5774e-05 -0.0021872 0.0099669
0.22739 0.10884 0.0012273 0.010112
0.00069948 0.00026393 -0.0008703 -0.00032384 -0.00068257 -0.00079179 0.0013905 -0.0025196
0.001204 0.010123 0.27744 0.15745
1760000000 0.2777 -0.078485 0.0041603 0.004614 -0.0024201 0.0010484 0.00092468 -0.0034942
-0.0013671 0.00084509 0.00035774 -0.00048996
0.0041388 0.0046225 0.25168 0.1977 0.0013157 -0.0015301 -0.0011644 0.00035685
-0.00088021 0.00075557 -0.00053215 0.00047018
-0.0024103 0.0010929 0.0013072 -0.0015212 0.21302 -0.23396 0.0013298 0.0007406
-0.00099984 0.0017153 -0.0012929 -0.00028848
0.00089631 -0.0035142 -0.0011685 0.00036368 0.0013435 0.0007703 0.22996 -0.051088
0.00070857 0.0083576 -0.00047422 -0.0027344
-0.0013417 0.00085544 -0.00088437 0.00075404 -0.00099053 0.0017154 0.00072716 0.0083586
0.24007 0.07243 0.004959 0.0069756
0.00036461 -0.00053043 -0.00055006 0.00048435 -0.0013077 -0.00028732 -0.00044695 -0.0027268
0.0049571 0.0069807 0.28828 0.11891
1820000000 0.25174 -0.11489 0.0036325 0.0015467 -1.2523e-05 0.0026073 -0.0013375 -0.0028643
-0.00083062 0.0011063 -8.228e-05 -4.4887e-05
0.0036308 0.0015472 0.26086 0.16789 -0.00058293 -0.0001284 -0.0010981 0.0010283
-5.7595e-05 0.0011376 -0.00045606 0.0005533
8.986e-06 0.0026198 -0.00058212 -0.00010811 0.1619 -0.2494 0.0012472 4.0586e-05
-3.5569e-06 0.0021797 -0.0013301 0.00063457
-0.0013434 -0.0028693 -0.0010848 0.0010081 0.0012206 3.6083e-05 0.20083 -0.095998
0.0017616 0.0062305 -0.0017706 -0.0016506
-0.00082856 0.0010787 -4.4024e-05 0.0011327 -3.1571e-06 0.0021592 0.0017829 0.0062406
0.25455 0.041972 0.0057533 0.0030707
-8.3091e-05 -6.7887e-05 -0.00044178 0.00054692 -0.0013363 0.00065497 -0.0017536 -0.0016222
0.005731 0.0030748 0.28804 0.081049
1880000000 0.21568 -0.15396 0.0011081 -0.00010297 -0.00030421 0.0021181 -0.0030242 -0.001767
-4.6384e-05 0.0016235 0.00024272 -0.0003266
0.0011019 -0.00011048 0.26499 0.12155 -0.0026138 0.0017423 4.7119e-06 0.0016217
0.00048729 0.0010439 0.00021961 0.00087045
-0.00029835 0.00213 -0.0026114 0.0017305 0.10863 -0.25895 0.001367 -0.0009517
0.0016023 0.0014975 -0.00069264 0.0014108
-0.0030178 -0.0017671 -1.0622e-05 0.0016234 0.0013778 -0.00095692 0.16224 -0.1351
0.0019371 0.0041199 -0.0024639 0.00031568
-2.8961e-05 0.0016155 0.00049844 0.0010274 0.0016246 0.0014916 0.0019521 0.0041276
0.25471 0.0085693 0.0051787 0.00064622
0.00024061 -0.0003387 0.00022861 0.00087318 -0.0006662 0.0014054 -0.0024915 0.00026765
0.0051852 0.00063631 0.28544 0.046547
1940000000 0.17621 -0.17921 -0.00096242 -0.0010637 0.001603 0.0019383 -0.0034198 0.00081185
0.0014713 0.00095181 -0.00061656 -0.00048329
-0.00097928 -0.0010689 0.26502 0.089963 -0.0012367 0.0041495 0.00098572 0.0010875
0.0015513 0.00052091 0.00079455 0.00036805
0.0016051 0.0019146 -0.0012026 0.0041546 0.062622 -0.2519 0.00014643 -0.0017671
0.0022421 0.00015186 0.00059331 0.0016443
-0.0034262 0.00083602 0.00098284 0.0010877 0.00013569 -0.0017464 0.11158 -0.16589
0.0007725 0.0027868 -0.0018377 0.0015084
0.0014806 0.00094556 0.0015822 0.00050685 0.0022317 0.0001521 0.00079582 0.0027841
0.25387 -0.031027 0.003562 -0.0024265
-0.00059451 -0.00046359 0.00082241 0.00034932 0.00059967 0.0016242 -0.0017915 0.0015012
0.0036065 -0.0024191 0.27268 0.0096107
2000000000 0.12951 -0.19332 -0.0043697 0.0012839 0.0025966 0.0013908 -0.0021578 0.0035525
0.0010325 -4.2878e-05 -0.00051763 0.00037535
-0.00437 0.0012826 0.25075 0.05438 -0.00087031 0.0058273 0.0015086 0.00021867
0.0013542 -0.0010465 0.00046055 4.1713e-05
0.0025991 0.00141 -0.00082877 0.0058317 0.018439 -0.23721 -0.0010907 -0.00096465
0.0017236 -0.0011567 0.0017269 0.00096395
-0.0021003 0.0035591 0.0015259 0.00021525 -0.0010879 -0.00097595 0.059183 -0.17712
-0.00082781 0.0027141 -0.00023343 0.0022906
0.0010627 -6.9924e-06 0.0013469 -0.0010587 0.001747 -0.0011611 -0.00081892 0.002717
0.24519 -0.064538 0.00020462 -0.0034634
