!Keysight Technologies,M9804A,MY58100912,A.14.10.03
!Date: Thursday, April 27, 2023 10:28:33
!Correction: S11(C  6-Port  ) 
!S12(C  6-Port  ) 
!S13(C  6-Port  ) 
!S14(C  6-Port  ) 
!S15(C  6-Port  ) 
!S16(C  6-Port  ) 
!S21(C  6-Port  ) 
!S22(C  6-Port  ) 
!S23(C  6-Port  ) 
!S24(C  6-Port  ) 
!S25(C  6-Port  ) 
!S26(C  6-Port  ) 
!S31(C  6-Port  ) 
!S32(C  6-Port  ) 
!S33(C  6-Port  ) 
!S34(C  6-Port  ) 
!S35(C  6-Port  ) 
!S36(C  6-Port  ) 
!S41(C  6-Port  ) 
!S42(C  6-Port  ) 
!S43(C  6-Port  ) 
!S44(C  6-Port  ) 
!S45(C  6-Port  ) 
!S46(C  6-Port  ) 
!S51(C  6-Port  ) 
!S52(C  6-Port  ) 
!S53(C  6-Port  ) 
!S54(C  6-Port  ) 
!S55(C  6-Port  ) 
!S56(C  6-Port  ) 
!S61(C  6-Port  ) 
!S62(C  6-Port  ) 
!S63(C  6-Port  ) 
!S64(C  6-Port  ) 
!S65(C  6-Port  ) 
!S66(C  6-Port  ) 
!S6P File: Measurement: :
# Hz S  RI   R 50
500000000 -0.33927 -0.017507 -0.0113 -0.0030616 -0.007158 0.012609 -0.0033253 0.012376
0.010732 0.0037961 -0.0027941 0.0093879
-0.010829 -0.003332 -0.41963 -0.036407 0.0058587 -0.01151 0.0017598 0.012514
0.00634 0.0023436 0.0023591 0.013937
-0.0071206 0.012597 0.0058873 -0.011758 -0.26327 0.22369 0.0071871 0.0041019
-0.0012361 0.0085767 0.0028724 0.012733
-0.0034008 0.012499 0.001958 0.012504 0.0070427 0.0041705 -0.33107 0.062857
-0.019489 -0.0068163 0.01457 0.023572
0.011084 0.0041003 0.0063775 0.0026369 -0.0012572 0.0084112 -0.019571 -0.0066628
-0.23742 -0.16358 -0.025672 0.0033049
-0.0029145 0.0097045 0.0028376 0.013609 0.0029323 0.012525 0.014722 0.023551
-0.02568 0.0033408 -0.28617 -0.078267
560000000 -0.3123 0.13834 -0.027052 -0.059892 0.00096209 0.011948 0.005471 0.0098391
0.0086534 0.0044935 0.01099 0.007213
-0.027282 -0.060259 -0.37668 0.11859 -0.043356 -0.032981 0.013518 0.0030754
-0.011499 -0.0036337 0.0020104 -0.00096054
0.00086149 0.011793 -0.042823 -0.033595 -0.18135 0.26876 0.00015616 -0.0041408
0.019001 0.0032867 0.0050998 -0.0058394
0.0059676 0.0098526 0.013532 0.0035359 0.00047424 -0.0042776 -0.30412 0.14904
-0.00024728 -0.023915 0.0036404 -0.018038
0.0091398 0.004038 -0.011272 -0.0031629 0.018979 0.0036183 -0.00025944 -0.023773
-0.28886 0.0097167 0.0037014 -0.045816
0.010408 0.0076955 0.0017447 -0.0010349 0.005245 -0.0063264 0.0035592 -0.017922
0.0037486 -0.045771 -0.33268 0.058033
620000000 -0.2701 0.12375 -0.023411 0.0076959 0.0044806 0.0082702 0.0077267 -0.0055071
0.01136 -0.0014046 0.00072336 -0.0030198
-0.023295 0.0075248 -0.40149 0.074187 -0.019436 0.00066114 -0.00073357 -0.0021264
0.010088 -0.0066485 0.0017564 -0.0029787
0.0045955 0.0080745 -0.019443 0.00067637 -0.14871 0.27781 -0.00089787 -0.0048193
-0.0034506 -0.0030167 0.008068 -0.0036594
0.0078001 -0.0052801 -0.00073911 -0.0022676 -0.0010352 -0.0048658 -0.26301 0.16063
-0.039043 -0.017605 0.011565 0.023177
0.011043 -0.0016022 0.010086 -0.0067843 -0.0033932 -0.0031372 -0.039059 -0.017636
-0.21153 -0.027263 -0.038574 0.014694
0.00092933 -0.0028899 0.0017338 -0.0028615 0.0081224 -0.0038731 0.011643 0.023219
-0.038643 0.014561 -0.25773 0.032315
680000000 -0.22757 0.20627 -0.027648 -0.011311 0.0056441 0.0044311 0.0013769 -0.0072303
-0.0027769 -0.01123 0.0039803 -0.0070202
-0.027825 -0.011264 -0.38402 0.16874 -0.032003 0.00079395 -0.0013314 -0.00058013
-0.0022856 -0.0090275 -0.001449 -0.0023045
0.0056628 0.0043271 -0.032087 0.00095656 -0.097626 0.29566 -0.00091266 -0.00052592
-0.0017065 -0.00018489 -0.0036993 -0.0085928
0.0013057 -0.0073342 -0.0014077 -0.00065753 -0.00080043 -0.0005616 -0.21619 0.20767
-0.025712 -0.005276 -0.0089818 -0.008054
-0.0026096 -0.011368 -0.0023767 -0.0088257 -0.001706 -0.00019305 -0.025737 -0.0052658
-0.25018 0.068811 -0.0077685 -0.0063918
0.0038758 -0.0070728 -0.0014941 -0.0023349 -0.0037762 -0.0086359 -0.0090127 -0.008019
-0.0078025 -0.0064178 -0.25392 0.127
740000000 -0.18367 0.20056 -0.035988 0.02671 0.012091 -0.0056779 -0.00079965 -0.0041874
-0.0054999 -0.0028919 -0.0059691 0.003117
-0.03593 0.026646 -0.3322 0.18756 -0.032466 0.034974 -0.001138 -0.0059294
-0.011672 0.00807 -0.0020342 -0.0047168
0.012068 -0.0058179 -0.032434 0.035226 -0.063717 0.29432 -0.0019879 0.0030528
-0.0035882 -0.0046091 -0.0021663 0.001361
-0.00082063 -0.0043017 -0.0011567 -0.0058864 -0.0019196 0.0029788 -0.19845 0.21669
-0.042321 -0.0028334 0.022037 0.01225
-0.0054458 -0.002676 -0.01173 0.0079734 -0.0035209 -0.0046185 -0.042344 -0.0028682
-0.15646 0.090456 -0.038455 0.003633
-0.0058793 0.0032725 -0.0020095 -0.0050002 -0.0020088 0.0013335 0.022042 0.012269
-0.038444 0.0034988 -0.24163 0.13667
800000000 -0.1497 0.23767 -0.021109 0.017719 0.0045451 -0.010444 -0.0043593 -0.0014934
-0.0040383 0.0030079 0.0037062 0.00080274
-0.021036 0.017751 -0.33239 0.25601 -0.0064943 0.03367 -0.0022908 0.0023683
-0.0009656 0.0035084 0.00096783 0.0053265
0.0045604 -0.010409 -0.0063713 0.033671 -0.02148 0.31621 0.00085885 0.0016808
0.00041719 0.0036351 -0.0017687 0.0012747
-0.0044157 -0.0013666 -0.0023656 0.002439 0.00087178 0.0017198 -0.16852 0.24283
-0.026618 0.01661 0.012643 -0.0099483
-0.0039534 0.0029249 -0.0008134 0.0036274 0.00036144 0.0035932 -0.026609 0.01665
-0.19402 0.11706 -0.015338 0.01938
0.0035144 0.00068218 0.0011374 0.0054891 -0.0017707 0.0012839 0.012714 -0.0099691
-0.015379 0.019348 -0.22826 0.1822
860000000 -0.11419 0.25723 -0.015239 0.030924 -0.0038055 -0.0095916 -0.0019883 0.0013173
0.0046468 0.0048897 -0.002534 -0.0021433
-0.015134 0.030876 -0.28456 0.29661 0.0096547 0.03307 0.00032541 0.0021685
0.0049769 0.00066214 0.0035677 0.00067113
-0.0037207 -0.0095606 0.0096296 0.033082 0.027024 0.32308 -0.00031508 -3.0215e-05
0.0026109 -0.0011434 0.0020034 0.0040392
-0.0019412 0.001398 0.00035179 0.002265 -0.00027495 -2.9043e-05 -0.13168 0.25317
-0.014622 0.020697 -0.0052234 -0.0091615
0.004521 0.0049231 0.0053135 0.00082047 0.0027446 -0.0012251 -0.014571 0.020772
-0.14097 0.16165 -0.020673 0.01686
-0.0024051 -0.0022035 0.0033901 0.00059804 0.0019544 0.0039469 -0.0053344 -0.00916
-0.020704 0.016886 -0.17942 0.22161
920000000 -0.087512 0.27825 0.0068779 0.036387 -0.0092536 -0.0039815 -0.0012597 0.0016807
0.001992 0.001153 0.0027243 -0.0019685
0.0069198 0.036425 -0.25451 0.31691 0.028513 0.019942 0.0018316 0.00088292
0.0074049 -0.00085622 0.003614 -0.003213
-0.0092165 -0.0039591 0.02854 0.019831 0.07433 0.32293 0.0019876 -0.0001896
0.0016306 -0.00094243 0.00073589 -0.0012926
-0.0012196 0.0016889 0.001898 0.00090185 0.001988 -0.00019289 -0.1056 0.26904
-0.0069339 0.030511 0.0024109 -0.0064386
0.0019607 0.0012516 0.0072937 -0.00096866 0.0016487 -0.00093028 -0.0068827 0.030539
-0.12786 0.16638 -0.0003608 0.025342
0.0027666 -0.0019519 0.0036659 -0.0030861 0.00079033 -0.0013003 0.0023169 -0.0064733
-0.00038845 0.025349 -0.17825 0.23683
980000000 -0.040654 0.29561 0.018987 0.028 -0.0085153 0.0046462 0.001947 0.0027791
0.0037173 -0.002149 -0.0032173 -0.0019423
0.018919 0.028025 -0.20271 0.34918 0.03269 0.0028391 0.0020502 -0.00039724
0.0014624 -0.0063428 -0.00067763 -0.0023299
-0.0085557 0.0046891 0.032701 0.0027365 0.12121 0.31519 0.00040735 -0.0013868
1.4422e-05 -0.0023695 0.0012563 -0.0002769
0.0018779 0.0027814 0.0020657 -0.00035185 0.00038863 -0.0013883 -0.06678 0.27857
0.010963 0.028316 -0.0083584 -0.0059386
0.003784 -0.0021191 0.0013925 -0.006387 -2.1629e-05 -0.0023619 0.011018 0.028285
-0.096166 0.19183 0.0068463 0.018444
-0.0030944 -0.0019729 -0.00057387 -0.0021794 0.0012349 -0.00024848 -0.0083765 -0.0059566
0.0068678 0.018447 -0.13364 0.27398
1040000000 0.0023876 0.30259 0.033044 0.015262 -0.0012424 0.0066162 0.0022961 0.00050779
-0.00017023 -0.0031502 -0.00090731 -0.0014711
0.032987 0.015269 -0.1667 0.3621 0.027694 -0.016097 0.0012544 -0.001781
-0.0024293 -0.0027042 -0.0016704 -0.0028103
-0.001219 0.0066059 0.027672 -0.016208 0.16824 0.3002 -0.00069429 -0.0014556
-0.001713 -0.00081819 -0.00063897 -0.0010312
0.0022974 0.00049702 0.0012941 -0.0017891 -0.00067365 -0.0014522 -0.037424 0.28751
0.021421 0.015531 -0.0028552 0.0011562
-8.7378e-05 -0.0031463 -0.0025353 -0.0025896 -0.0017039 -0.00081991 0.021506 0.015476
-0.063892 0.19746 0.014084 0.015539
-0.0009141 -0.0015118 -0.0017339 -0.0028705 -0.00065161 -0.00103 -0.0028628 0.0011429
0.014102 0.015564 -0.10793 0.29331
1100000000 0.047426 0.30849 0.034416 -0.0064 0.0026573 0.003595 0.0021728 -0.0010032
-0.0021879 -0.0027207 -0.0036377 0.00058105
0.034303 -0.0063783 -0.12348 0.37843 0.013282 -0.028113 -8.4799e-05 -0.0017897
-0.0035854 -0.00045623 -0.0033139 -0.00016669
0.0026775 0.0035653 0.013239 -0.028176 0.21527 0.27771 -0.0018451 0.00028479
-0.0018213 0.00072633 -0.00097717 -0.00010772
0.0021624 -0.0010202 -0.00011551 -0.0017993 -0.0018519 0.00027546 0.0038561 0.29014
0.025028 0.0018459 -0.0025088 7.135e-05
-0.0021877 -0.002717 -0.003622 -0.0004653 -0.001892 0.0007294 0.025069 0.0017785
-0.044585 0.20891 0.01887 0.0057744
-0.0036284 0.00057637 -0.0033387 -0.00021644 -0.00098717 -7.321e-05 -0.0025428 6.6706e-05
0.018865 0.0057773 -0.061379 0.31644
1160000000 0.09819 0.30235 0.021717 -0.022143 0.0021414 -0.00027805 -9.1513e-05 -0.0019673
-0.0039784 -0.00050902 -0.00069548 0.0038214
0.021682 -0.022097 -0.078721 0.38249 -0.0055778 -0.028256 -0.0017286 -0.0014873
-0.0026667 0.0025947 -0.0014926 0.0019163
0.0021378 -0.00031143 -0.0056561 -0.028228 0.25811 0.24455 -0.00070357 0.0018104
-0.00036834 0.0020644 -0.0007698 0.00032362
-8.9248e-05 -0.0019612 -0.0017525 -0.001503 -0.00073033 0.0018106 0.043784 0.28507
0.020093 -0.013424 -0.0030571 0.0042962
-0.0039215 -0.00046505 -0.0026935 0.0025928 -0.00037741 0.0020596 0.020078 -0.013476
-0.011099 0.21558 0.017202 -0.0024747
-0.00076728 0.0039079 -0.0014602 0.0018369 -0.00074623 0.00033849 -0.0030803 0.0043446
0.017152 -0.0024331 -0.014198 0.31726
1220000000 0.14284 0.28922 0.0076368 -0.029845 -0.0017129 -0.00016708 0.00018554 -0.00095206
-0.0023522 0.0022695 0.0014224 0.0018923
0.0076408 -0.029824 -0.034291 0.39294 -0.017724 -0.019604 -0.0024478 0.00049871
0.00025215 0.0029899 -0.0004872 0.0019726
-0.0017093 -0.00020177 -0.017809 -0.019594 0.2962 0.20307 0.00089689 0.0018707
0.00069187 0.0011763 0.00038607 0.00048314
0.00016865 -0.00093745 -0.0024527 0.00049857 0.00089596 0.0018673 0.084126 0.27377
0.0085434 -0.019272 0.0013223 0.0014928
-0.0023605 0.0022874 0.0002476 0.0029712 0.00074094 0.0012207 0.0085434 -0.019281
0.012665 0.22221 0.011617 -0.014037
0.0014636 0.0018643 -0.00046874 0.0019687 0.00041082 0.00052756 0.0013269 0.0014772
0.011573 -0.014038 0.01931 0.32807
1280000000 0.19167 0.26586 -0.010033 -0.026962 -0.001492 0.0030378 -0.00092149 -0.0020065
-0.00061475 0.0029861 0.0024592 0.00079015
-0.010002 -0.02695 0.011741 0.38325 -0.023712 -0.0069787 -0.00089133 0.0014998
0.0019113 0.0017115 0.00084711 0.0017289
-0.0014698 0.0030462 -0.023755 -0.0068608 0.32464 0.15788 0.0016692 -1.4257e-05
0.0011622 0.00023143 0.00027754 0.0001773
-0.00091954 -0.0019732 -0.00090731 0.0014704 0.0016617 -4.0906e-06 0.11998 0.25474
-0.0017231 -0.020241 -0.0006267 0.00053377
-0.00062603 0.0030196 0.0019014 0.0016527 0.0011733 0.00019694 -0.0017512 -0.020249
0.048961 0.22368 0.00095946 -0.01566
0.0024596 0.00083224 0.00082355 0.0017416 0.00031976 0.0001778 -0.00063988 0.00055494
0.00094587 -0.01566 0.065113 0.32576
1340000000 0.22834 0.23057 -0.018767 -0.016517 0.0014917 0.0045234 -0.0017074 -0.0009418
0.0015259 0.0025341 0.0014833 -0.0014954
-0.018765 -0.016535 0.051601 0.37325 -0.020816 0.0054889 -6.9193e-05 0.0020452
0.0020489 0.00051593 0.0013546 0.0006011
0.0015532 0.0044791 -0.020773 0.0055482 0.34492 0.1095 0.0013036 -0.0011565
0.00066719 -0.00063317 6.7264e-05 0.00022876
-0.0017605 -0.00093303 -5.8803e-05 0.0020545 0.0013269 -0.0011588 0.15135 0.23199
-0.011197 -0.016115 0.0004383 0.0012585
0.0015072 0.0025089 0.0020526 0.0005165 0.00065272 -0.00063176 -0.011234 -0.016085
0.078764 0.21704 -0.0059431 -0.013157
0.0014949 -0.0015148 0.0013573 0.00060334 9.3681e-05 0.00026017 0.00045438 0.0012482
-0.0059326 -0.013149 0.10416 0.31682
1400000000 0.26021 0.19102 -0.022957 -0.0049056 0.0055426 0.0027105 -0.0021437 0.00057776
0.0023766 0.00074491 2.854e-05 -0.0014152
-0.022919 -0.0049324 0.088087 0.35908 -0.013662 0.012905 0.0013798 0.0013131
0.0010995 -0.00099263 0.0010607 2.6882e-06
0.0055507 0.0026933 -0.013615 0.012984 0.35667 0.056172 -1.0803e-05 -0.0019168
1.2098e-05 -0.0004208 0.0003766 0.00014984
-0.0021516 0.00059148 0.0013832 0.0012946 7.2569e-06 -0.0019397 0.17906 0.20119
-0.016529 -0.0084412 -0.0003211 0.00064862
0.0023894 0.00077879 0.0010779 -0.00099208 -4.1751e-05 -0.00038535 -0.016542 -0.0084097
0.11079 0.21022 -0.011684 -0.0074886
5.1136e-07 -0.0014134 0.0010499 2.3146e-05 0.00037395 0.0001682 -0.00030729 0.00065801
-0.011697 -0.0074967 0.14638 0.30194
1460000000 0.28181 0.14608 -0.018971 0.0064573 0.0056416 -0.0022981 -0.0015392 0.0017316
0.0021099 -0.00072606 -0.00049238 -0.00080814
-0.018965 0.0064617 0.12191 0.33619 -0.0050207 0.015107 0.0017861 7.1553e-05
0.00065624 -0.00133 0.0010338 -0.00057533
0.0056754 -0.002325 -0.0049923 0.015109 0.36169 0.002395 -0.0014445 -0.0012966
0.00018787 -0.00018093 0.00065538 -0.00030145
-0.0015719 0.0017094 0.0017813 7.2225e-05 -0.0014338 -0.0013288 0.20314 0.17048
-0.016827 -0.0010645 -2.8495e-05 0.0022288
0.0020964 -0.00073141 0.00063589 -0.0012957 0.00018703 -0.00018835 -0.016851 -0.0010367
0.13948 0.19388 -0.0126 -0.0012472
-0.00047191 -0.0008595 0.00098961 -0.00060567 0.00063605 -0.00028113 -2.8624e-05 0.0022547
-0.012589 -0.0012593 0.17834 0.27888
1520000000 0.29271 0.1029 -0.012639 0.011135 0.0030738 -0.00442 9.005e-05 0.0026544
0.0018248 -0.0018254 -0.0010963 -4.2586e-06
-0.012644 0.011117 0.15451 0.32037 0.0021858 0.012542 0.0016609 -0.00095887
-9.9196e-05 -0.00098556 0.0002442 -0.00091018
0.003046 -0.0044199 0.002252 0.012529 0.35466 -0.053883 -0.0014207 -0.00018803
0.00050753 -0.00087498 -1.1099e-05 -0.00015725
0.0001053 0.0026467 0.0016215 -0.00098843 -0.0013916 -0.00020033 0.22354 0.13182
-0.015012 0.0048579 0.0021687 0.0018022
0.0018205 -0.0018445 -0.00011905 -0.0010143 0.00052411 -0.00087269 -0.015018 0.0048911
0.16669 0.17769 -0.011773 0.0033572
-0.001064 5.7079e-06 0.00026575 -0.00089697 -4.8502e-08 -0.0001803 0.0021605 0.00181
-0.011787 0.0033526 0.20952 0.25504
1580000000 0.30027 0.056309 -0.0060321 0.013119 -0.0011205 -0.0049425 0.0015751 0.0018973
-0.00031375 -0.0021402 -0.00020114 0.00034708
-0.0060254 0.013106 0.18078 0.29509 0.0054254 0.007585 0.00032207 -0.0017448
-0.00056726 -0.00090188 -0.00024743 -0.00079146
-0.0011305 -0.0049088 0.0054687 0.0075787 0.33407 -0.11128 -0.0016518 0.0010189
-0.00041922 -0.0011075 0.00012824 -0.00060511
0.0015747 0.001906 0.00031653 -0.0017383 -0.0016487 0.00099221 0.23461 0.092778
-0.010753 0.0092914 0.002576 0.00012381
-0.00030137 -0.0021066 -0.00056132 -0.00088194 -0.00044343 -0.0011089 -0.010737 0.0093131
0.18971 0.15772 -0.0087187 0.0084374
-0.00017821 0.00031994 -0.00025349 -0.00080202 7.3079e-05 -0.00062489 0.0025937 0.00012269
-0.0087312 0.0084288 0.23867 0.22667
1640000000 0.30054 0.014505 5.0324e-05 0.011136 -0.0029652 -0.0025625 0.0027742 0.00082927
-0.00096229 -0.0014467 -0.00024078 0.00053832
4.578e-05 0.011136 0.20949 0.26951 0.0058115 0.0030508 -0.00093743 -0.0016439
-0.00097585 -0.00027922 -0.00055859 -0.00053865
-0.002959 -0.0025482 0.0058547 0.0030313 0.30523 -0.16016 -0.00048952 0.0016576
-0.0012761 -0.00071385 -0.00021958 -0.00022392
0.0027684 0.00084721 -0.00095407 -0.0016321 -0.00049932 0.0016919 0.24448 0.045202
-0.0059356 0.010123 0.0025056 -0.001345
-0.00096909 -0.0014334 -0.00098389 -0.00023989 -0.0012518 -0.00071434 -0.005912 0.01014
0.21111 0.13152 -0.0037082 0.010014
-0.0002018 0.0005237 -0.00057142 -0.00054689 -0.00022343 -0.00025968 0.0025018 -0.0013492
-0.0037108 0.010014 0.26241 0.19379
1700000000 0.29128 -0.030666 0.0027915 0.0079031 -0.0034928 0.00015129 0.0029444 -0.0014777
-0.0019985 -0.00049186 0.00061991 0.00032449
0.0027818 0.0079225 0.22658 0.23802 0.0037658 0.0002847 -0.0015435 -0.00037257
-0.00066963 0.00012908 -0.00088556 -0.00036672
-0.0034976 0.00023108 0.0037836 0.00022429 0.26137 -0.20023 0.00076412 0.0014889
-0.0018871 -4.9429e-06 -0.00064708 -0.00082489
0.0029354 -0.0014778 -0.0015584 -0.00036119 0.00076047 0.001491 0.23972 -0.0025495
-0.0028978 0.0098865 0.001321 -0.0024778
-0.0019967 -0.00048654 -0.00067737 0.00014122 -0.0018611 -2.7099e-05 -0.0028867 0.0099089
0.22636 0.10947 0.00096986 0.0099033
0.00066326 0.00036237 -0.00088651 -0.00032703 -0.00063687 -0.00079176 0.0013175 -0.002499
0.00096978 0.0099126 0.27629 0.15832
1760000000 0.27773 -0.078438 0.0041321 0.0045776 -0.0023079 0.00099389 0.0009336 -0.0035331
-0.0012985 0.00088075 0.00036081 -0.00042237
0.0041293 0.0045797 0.25195 0.19799 0.0014905 -0.0014339 -0.0011347 0.00041989
-0.00093067 0.00083724 -0.00061698 0.00048335
-0.0024085 0.00095462 0.0015012 -0.0014512 0.21241 -0.23363 0.0013287 0.00088117
-0.0011006 0.0016731 -0.0013608 -0.00033603
0.00090933 -0.0035159 -0.0011321 0.00042482 0.0013424 0.0008599 0.23023 -0.051307
0.00015196 0.0086423 -0.0005214 -0.0026307
-0.001321 0.00087058 -0.00092551 0.00085264 -0.0010464 0.0017002 0.00018477 0.0086476
0.23923 0.073187 0.0046431 0.0069045
0.00033385 -0.00041217 -0.00058642 0.00051025 -0.0013988 -0.00034493 -0.00053649 -0.0026365
0.0046524 0.0068877 0.28717 0.1199
1820000000 0.25174 -0.11488 0.0036712 0.0015 -0.00010915 0.0025138 -0.0013052 -0.0028549
-0.00081875 0.0010636 -3.3903e-05 -4.4818e-05
0.0036385 0.0015089 0.26114 0.16798 -0.00039978 -0.00028013 -0.0010567 0.001034
-4.1468e-05 0.0012185 -0.00048526 0.0005971
-4.7869e-05 0.0024914 -0.00038672 -0.00021196 0.16207 -0.24917 0.0012673 4.6211e-05
-1.5536e-05 0.002239 -0.0013363 0.00058842
-0.0012958 -0.0028489 -0.0010202 0.0010454 0.0012828 4.8398e-05 0.20092 -0.096315
0.0014447 0.006749 -0.0017696 -0.001517
-0.00082215 0.0010743 -9.323e-06 0.001232 -2.9429e-05 0.0022666 0.0014631 0.0067383
0.25385 0.042948 0.0054318 0.0032208
-6.1883e-05 -4.2879e-06 -0.00048925 0.00060317 -0.0013482 0.00057405 -0.0017682 -0.0015025
0.0054429 0.0032335 0.28735 0.082443
1880000000 0.2156 -0.1539 0.0010873 -0.00017412 -0.00043335 0.0020628 -0.0030234 -0.0018053
-2.6071e-05 0.0015392 0.00030528 -0.00047089
0.0010804 -0.00016606 0.26516 0.12156 -0.0025208 0.0014735 2.6528e-05 0.0016003
0.00059785 0.0011151 0.00025418 0.0009101
-0.00049145 0.0020686 -0.0025396 0.0014995 0.10893 -0.25889 0.0014159 -0.0010165
0.0016897 0.0016146 -0.00070191 0.0014504
-0.0030379 -0.0018022 5.2812e-05 0.0016102 0.0014476 -0.0010341 0.16209 -0.13551
0.0019589 0.0046237 -0.0023301 0.00036913
-3.9401e-05 0.0015478 0.00058702 0.0011083 0.0016746 0.001588 0.0019726 0.0046337
0.25432 0.0096345 0.0051206 0.00083537
0.00027851 -0.00047134 0.00025149 0.00089112 -0.00066918 0.0014589 -0.0023445 0.00038617
0.0051263 0.00085565 0.28505 0.048024
1940000000 0.17616 -0.17911 -0.0010778 -0.0011306 0.0015607 0.0021459 -0.0034758 0.00074075
0.0014588 0.00085421 -0.00055752 -0.0005759
-0.0010897 -0.0011485 0.26511 0.089784 -0.0013762 0.0039575 0.0010174 0.0010072
0.0016966 0.00048088 0.00089045 0.0003982
0.0015992 0.0020734 -0.001311 0.0039409 0.062402 -0.25221 8.5541e-05 -0.0018111
0.0023271 0.00012152 0.00057037 0.0017134
-0.0034845 0.00076286 0.0010108 0.0010066 0.00015287 -0.0018268 0.11133 -0.16617
0.00099912 0.003133 -0.0015816 0.0014911
0.0014923 0.00088326 0.001697 0.00046052 0.0023481 0.00014856 0.0010052 0.0031189
0.25374 -0.029929 0.0036351 -0.0021535
-0.00044928 -0.00058734 0.00092292 0.00034832 0.00055992 0.0017376 -0.0015694 0.0014812
0.0036335 -0.0021774 0.27258 0.011171
2000000000 0.1295 -0.19316 -0.0045413 0.001269 0.002547 0.0015744 -0.0021455 0.0035193
0.0009944 -3.8045e-05 -0.00061306 0.00032095
-0.0045157 0.0012846 0.2506 0.054357 -0.0011703 0.0057822 0.0014591 0.00018787
0.0013426 -0.0012303 0.00053243 -0.00015133
0.0026455 0.0016096 -0.0011594 0.0058686 0.018208 -0.23724 -0.001172 -0.00097782
0.001746 -0.0012709 0.0017878 0.00086384
-0.0021525 0.0035652 0.0014047 0.00017905 -0.001188 -0.0009955 0.058622 -0.17702
-0.00070308 0.0027854 -5.7165e-05 0.0020926
0.00099498 -9.2688e-05 0.001324 -0.0012677 0.0017071 -0.0012873 -0.00070721 0.0027991
