!Keysight Technologies,M9804A,MY58100912,A.14.10.03
!Date: Thursday, April 27, 2023 10:28:33
!Correction: S11(C  6-Port  ) 
!S12(C  6-Port  ) 
!S13(C  6-Port  ) 
!S14(C  6-Port  ) 
!S15(C  6-Port  ) 
!S16(C  6-Port  ) 
!S21(C  6-Port  ) 
!S22(C  6-Port  ) 
!S23(C  6-Port  ) 
!S24(C  6-Port  ) 
!S25(C  6-Port  ) 
!S26(C  6-Port  ) 
!S31(C  6-Port  ) 
!S32(C  6-Port  ) 
!S33(C  6-Port  ) 
!S34(C  6-Port  ) 
!S35(C  6-Port  ) 
!S36(C  6-Port  ) 
!S41(C  6-Port  ) 
!S42(C  6-Port  ) 
!S43(C  6-Port  ) 
!S44(C  6-Port  ) 
!S45(C  6-Port  ) 
!S46(C  6-Port  ) 
!S51(C  6-Port  ) 
!S52(C  6-Port  ) 
!S53(C  6-Port  ) 
!S54(C  6-Port  ) 
!S55(C  6-Port  ) 
!S56(C  6-Port  ) 
!S61(C  6-Port  ) 
!S62(C  6-Port  ) 
!S63(C  6-Port  ) 
!S64(C  6-Port  ) 
!S65(C  6-Port  ) 
!S66(C  6-Port  ) 
!S6P File: Measurement: :
# Hz S  RI   R 50
500000000 -0.3401 -0.017282 -0.011081 -0.0035718 -0.0073565 0.012451 -0.0035777 0.012048
0.011394 0.0038365 -0.0034879 0.0074749
-0.011072 -0.0035663 -0.42016 -0.035586 0.0059014 -0.011872 0.0014678 0.012195
0.0066716 0.0018475 0.0018458 0.012812
-0.0073497 0.012435 0.0058879 -0.011888 -0.26346 0.22353 0.0068644 0.0039338
-0.0010655 0.0082036 0.0021453 0.011898
-0.00358 0.012038 0.0015059 0.012225 0.0068689 0.0039389 -0.33184 0.063261
-0.019531 -0.0070768 0.013962 0.022977
0.011363 0.0038102 0.0067013 0.0018225 -0.0010624 0.0082087 -0.019553 -0.0070576
-0.23736 -0.16099 -0.024956 0.0032972
-0.0033041 0.0079829 0.0018601 0.012964 0.0020434 0.011896 0.013776 0.023032
-0.025074 0.003376 -0.28692 -0.078018
560000000 -0.3122 0.13887 -0.026924 -0.060411 0.00093817 0.011847 0.0058686 0.0092054
0.0090987 0.0040868 0.010342 0.006945
-0.02692 -0.060275 -0.37631 0.11943 -0.041994 -0.034435 0.013187 0.0035583
-0.01185 -0.0041039 0.0032121 -0.0001033
0.00095407 0.01185 -0.04208 -0.03439 -0.18046 0.26846 9.0368e-05 -0.0043038
0.018235 0.0040018 0.006659 -0.0068316
0.0058964 0.0092584 0.0132 0.0035071 9.7864e-05 -0.0042989 -0.30428 0.14902
-0.00027984 -0.024264 0.0031533 -0.017824
0.0091176 0.0041937 -0.011887 -0.0040888 0.018271 0.0039875 -0.00031434 -0.024246
-0.28701 0.010517 0.0028671 -0.045906
0.010323 0.007233 0.0031646 -0.00035531 0.0067194 -0.0065879 0.0033037 -0.018048
0.0029315 -0.045932 -0.33126 0.062265
620000000 -0.27031 0.1238 -0.023456 0.0073685 0.0045132 0.0080522 0.0071243 -0.0052924
0.01142 -0.0016033 -7.1041e-05 -0.0026036
-0.023439 0.0073428 -0.40109 0.07523 -0.01946 0.00045226 -0.00071124 -0.0021558
0.01018 -0.0067874 0.0016445 -0.0029324
0.0045215 0.0080417 -0.019473 0.00048852 -0.14886 0.27766 -0.001134 -0.0046578
-0.0032799 -0.0032812 0.0080743 -0.003508
0.0071348 -0.0053084 -0.00072475 -0.0021665 -0.0011308 -0.0046629 -0.26323 0.16058
-0.038413 -0.016692 0.011786 0.022749
0.011393 -0.0016254 0.01019 -0.0067794 -0.0032851 -0.0032827 -0.038443 -0.016706
-0.2133 -0.028054 -0.038044 0.014831
-0.00013086 -0.0026702 0.0016862 -0.0028714 0.0081625 -0.0035432 0.0119 0.02272
-0.038175 0.015106 -0.25668 0.034073
680000000 -0.22745 0.20629 -0.027804 -0.011511 0.0056028 0.0043738 0.0010175 -0.0071724
-0.0031917 -0.010865 0.0042368 -0.0066516
-0.027759 -0.011521 -0.38366 0.16933 -0.032264 0.00084448 -0.0015005 -0.00082748
-0.00258 -0.0089478 -0.0013114 -0.0022098
0.0056145 0.0043635 -0.032281 0.00091255 -0.097645 0.29562 -0.00087078 -0.00048145
-0.0017803 -7.6263e-05 -0.0036311 -0.0086191
0.0010093 -0.0071891 -0.00151 -0.0008273 -0.00087576 -0.00047385 -0.21659 0.20823
-0.025728 -0.0052878 -0.0094005 -0.0079306
-0.0032213 -0.010864 -0.0025861 -0.0089531 -0.0017769 -7.3299e-05 -0.025764 -0.005217
-0.25045 0.071144 -0.00772 -0.0056934
0.004335 -0.0067636 -0.0013514 -0.0023076 -0.0037004 -0.0086388 -0.0094739 -0.0079328
-0.0075289 -0.0059511 -0.25276 0.1284
740000000 -0.18355 0.20069 -0.036352 0.026423 0.012147 -0.0060484 -0.0009293 -0.0041477
-0.0056728 -0.0026414 -0.0057948 0.0033407
-0.036321 0.02633 -0.33257 0.188 -0.032444 0.035146 -0.0013424 -0.0061309
-0.011208 0.0080835 -0.0023544 -0.0050847
0.012145 -0.0060556 -0.032376 0.035244 -0.064061 0.29443 -0.0017586 0.0028496
-0.0035737 -0.0041477 -0.0019948 0.0010171
-0.00093507 -0.004164 -0.0013468 -0.0061181 -0.0017598 0.0028431 -0.19879 0.21656
-0.0422 -0.0029418 0.021761 0.011847
-0.0056683 -0.0026161 -0.011185 0.0080847 -0.0036086 -0.0041575 -0.042223 -0.0028607
-0.15757 0.090974 -0.038703 0.0038137
-0.005781 0.0032873 -0.0023072 -0.0051628 -0.0019364 0.0010634 0.021804 0.011914
-0.038913 0.003644 -0.24117 0.13851
800000000 -0.14932 0.23786 -0.020932 0.017944 0.0046229 -0.010485 -0.0044157 -0.0016214
-0.0037607 0.0025832 0.0035821 0.00097916
-0.020904 0.01791 -0.33216 0.25666 -0.0063836 0.033698 -0.0023061 0.0023757
-0.0005793 0.0035642 0.000985 0.0054156
0.0046017 -0.010505 -0.0063282 0.033731 -0.021593 0.31625 0.00092432 0.001592
0.00033732 0.0035516 -0.0016317 0.0013832
-0.0044053 -0.0016032 -0.0023051 0.0023828 0.00091954 0.001586 -0.16872 0.24289
-0.026664 0.016236 0.012379 -0.0097126
-0.0037916 0.0025758 -0.00058059 0.0035598 0.00033683 0.0035514 -0.026651 0.016341
-0.19385 0.11816 -0.015356 0.018411
0.0035563 0.00082039 0.0010947 0.005311 -0.0016191 0.0013204 0.012293 -0.0097618
-0.01535 0.018308 -0.22777 0.18455
860000000 -0.11411 0.25733 -0.015344 0.031064 -0.0038819 -0.0096205 -0.001762 0.0013497
0.0046831 0.0045408 -0.0027915 -0.0023669
-0.015341 0.031042 -0.28441 0.29729 0.0096147 0.033201 0.00013412 0.0022361
0.0047848 0.00044187 0.0030867 0.00030049
-0.0039115 -0.0096091 0.0096935 0.033205 0.026939 0.3233 -0.00022394 -1.4752e-05
0.0024904 -0.0012076 0.0017687 0.0038138
-0.0017546 0.001357 0.00012999 0.0022215 -0.00022316 -1.5864e-05 -0.13185 0.25381
-0.014826 0.021444 -0.0054927 -0.0091328
0.0047024 0.004533 0.0048045 0.00042511 0.0024853 -0.0012133 -0.01477 0.021489
-0.14056 0.16287 -0.020477 0.01648
-0.0028903 -0.0023836 0.0029685 0.00031382 0.0017371 0.0038535 -0.0054943 -0.0090815
-0.020442 0.016468 -0.17888 0.22189
920000000 -0.087351 0.27834 0.006648 0.036322 -0.0093932 -0.004016 -0.0013077 0.0017377
0.0016156 0.0012747 0.0027332 -0.0018476
0.0066238 0.036283 -0.25428 0.31733 0.028521 0.019924 0.0019398 0.0009034
0.0068097 -0.00088429 0.0038882 -0.0031835
-0.0093855 -0.0040042 0.028581 0.019875 0.074302 0.32312 0.0019506 -0.00015035
0.0014599 -0.00070964 0.00089901 -0.0011774
-0.0012892 0.0017294 0.0019402 0.00088526 0.0019647 -0.00015914 -0.10531 0.26948
-0.0068909 0.031124 0.0027249 -0.0065553
0.0016475 0.001297 0.0068136 -0.00088697 0.0014506 -0.00070541 -0.0068212 0.031163
-0.12768 0.16906 1.42e-05 0.02553
0.0027791 -0.0017659 0.0038464 -0.0032001 0.00094658 -0.0011952 0.0026896 -0.0065479
-1.2531e-05 0.02561 -0.17638 0.23837
980000000 -0.040513 0.2961 0.018892 0.02815 -0.0085842 0.0047691 0.0020093 0.0030804
0.0037673 -0.0018841 -0.0031016 -0.0018899
0.018876 0.028142 -0.20259 0.34973 0.032717 0.0028412 0.0020351 -0.00027267
0.0013676 -0.006244 -0.00061465 -0.0023563
-0.0085708 0.0047843 0.032723 0.0027622 0.12124 0.31544 0.00046241 -0.0013001
2.838e-05 -0.0022532 0.0012978 -0.00034147
0.0020235 0.0030843 0.0020332 -0.00029401 0.00047087 -0.0012941 -0.066687 0.27884
0.011476 0.028198 -0.0085802 -0.006287
0.003794 -0.0018944 0.0013465 -0.0062522 2.9322e-05 -0.00226 0.011565 0.028187
-0.094994 0.1927 0.0065312 0.017934
-0.0030641 -0.0019078 -0.00058844 -0.0023474 0.0013164 -0.00034296 -0.0086299 -0.0062357
0.0064907 0.017972 -0.13302 0.27583
1040000000 0.0025979 0.30285 0.033132 0.015315 -0.0011769 0.0066434 0.0023513 0.00037299
-4.5441e-05 -0.0031295 -0.00078397 -0.0014528
0.033114 0.015318 -0.16643 0.36287 0.027738 -0.016201 0.0013658 -0.0018083
-0.0025363 -0.0024707 -0.0017054 -0.0026467
-0.0011458 0.0066324 0.027694 -0.016269 0.16846 0.30041 -0.000683 -0.0015207
-0.0016776 -0.00086273 -0.00055324 -0.0010415
0.0023602 0.00036788 0.0013398 -0.0018185 -0.0006875 -0.0015188 -0.037243 0.28777
0.021861 0.015616 -0.0027099 0.0012222
-2.6092e-05 -0.0031301 -0.0025415 -0.0024466 -0.0016812 -0.00085865 0.021917 0.015563
-0.063022 0.19872 0.014178 0.015852
-0.00073183 -0.001491 -0.0016894 -0.0026359 -0.00054145 -0.0010534 -0.0027238 0.0011624
0.014231 0.015774 -0.10619 0.29493
1100000000 0.047761 0.30878 0.034407 -0.0063805 0.0027082 0.0037015 0.0022 -0.0011169
-0.0020883 -0.0028256 -0.003605 0.00063735
0.034388 -0.0063556 -0.12306 0.37904 0.013215 -0.028152 -9.58e-05 -0.0018093
-0.0035091 -0.00053155 -0.0034054 -0.00012617
0.0027244 0.0036921 0.013132 -0.0282 0.2155 0.27785 -0.0018753 0.0003032
-0.0019357 0.00072926 -0.00098747 -8.4796e-05
0.0021955 -0.0011065 -0.00010236 -0.0018144 -0.0018807 0.00029905 0.004226 0.29046
0.025569 0.0016791 -0.0024539 0.00018762
-0.0021015 -0.002826 -0.003534 -0.00051553 -0.0019465 0.00073186 0.025586 0.0016053
-0.043281 0.2097 0.019114 0.0056028
-0.0035638 0.0005773 -0.0033776 -0.00014026 -0.00097816 -0.00012872 -0.0024698 0.00012392
0.019078 0.0056156 -0.059981 0.31736
1160000000 0.098763 0.30252 0.021784 -0.022123 0.0022422 -0.00036792 -0.00012145 -0.0019829
-0.0040082 -0.00041075 -0.00059256 0.0038915
0.021779 -0.022095 -0.078103 0.38314 -0.0055966 -0.028279 -0.0017448 -0.0014144
-0.0025966 0.0026613 -0.001287 0.0018215
0.002248 -0.00036955 -0.0057001 -0.028264 0.25836 0.2446 -0.00064528 0.0018768
-0.00034756 0.0019773 -0.00080246 0.00018025
-0.0001212 -0.0019759 -0.0017597 -0.0014105 -0.00064808 0.0018784 0.044168 0.28517
0.020185 -0.013829 -0.002933 0.0041918
-0.0040301 -0.00038584 -0.0026185 0.0026974 -0.0003405 0.0019878 0.020169 -0.013893
-0.010464 0.21618 0.017065 -0.0028223
-0.00059455 0.0038712 -0.0012835 0.0018278 -0.00081726 0.00016791 -0.0030613 0.004118
0.017052 -0.0028632 -0.012963 0.3179
1220000000 0.14339 0.28933 0.0076929 -0.029894 -0.0016642 -0.00024945 0.00011371 -0.00091871
-0.0024749 0.0022952 0.001432 0.0018887
0.0077028 -0.02986 -0.0335 0.39341 -0.017832 -0.019518 -0.0024576 0.00056817
0.00026912 0.0029648 -0.00046879 0.0019657
-0.0016644 -0.00023592 -0.017918 -0.019472 0.29648 0.20303 0.00093132 0.0018486
0.00075067 0.0012324 0.00037858 0.00047452
0.00011044 -0.00090589 -0.002452 0.00056532 0.00093117 0.0018481 0.08456 0.2739
0.0085911 -0.019717 0.0013767 0.0014678
-0.0024656 0.0023194 0.00028563 0.0029741 0.00074697 0.001237 0.0085378 -0.019743
0.013728 0.22286 0.011397 -0.014203
0.0014028 0.0018828 -0.00047721 0.0019804 0.00041018 0.00048791 0.0013462 0.0014396
0.011403 -0.014221 0.020914 0.32866
1280000000 0.19218 0.26578 -0.010004 -0.027037 -0.0014505 0.0030447 -0.0009342 -0.0019957
-0.00060543 0.002948 0.0023915 0.00082693
-0.0099774 -0.027018 0.012781 0.3834 -0.023703 -0.0068455 -0.00092494 0.0014802
0.0018415 0.0016621 0.00089732 0.001686
-0.0014486 0.0030372 -0.023749 -0.006758 0.325 0.15768 0.0016847 -0.00012539
0.0011768 0.00012501 0.00023418 0.00021982
-0.00093843 -0.0019871 -0.00092118 0.0014794 0.0016857 -0.00011932 0.12043 0.25459
-0.0021291 -0.020682 -0.00060396 0.00056403
-0.00059812 0.0029616 0.0018701 0.0016553 0.0011762 0.00011775 -0.002199 -0.02069
0.049978 0.22426 0.00075583 -0.015733
0.0023962 0.00080422 0.00090414 0.0016805 0.00025766 0.00021958 -0.00064643 0.00053695
0.00074387 -0.015773 0.06664 0.32627
1340000000 0.22884 0.23027 -0.018815 -0.016599 0.0015304 0.0043484 -0.0017671 -0.00089117
0.0014285 0.0025669 0.0014232 -0.0014866
-0.018783 -0.0166 0.052567 0.37313 -0.020699 0.0056048 -2.9283e-05 0.0019804
0.0019728 0.00047748 0.0013682 0.00056405
0.001546 0.0043406 -0.020691 0.0056893 0.34514 0.10925 0.001213 -0.0011195
0.00056272 -0.00056952 0.00013426 0.00021427
-0.0017689 -0.00089153 -2.0705e-05 0.0019726 0.0012113 -0.0011192 0.15175 0.23166
-0.011614 -0.016401 0.0004601 0.0012544
0.0014566 0.0025591 0.001988 0.00048107 0.0005604 -0.00056888 -0.01168 -0.016374
0.080249 0.21747 -0.0060836 -0.013393
0.0014225 -0.0014771 0.0013784 0.0005506 0.00016734 0.00021451 0.00041577 0.0012608
-0.0060998 -0.013367 0.10538 0.31697
1400000000 0.26052 0.19058 -0.023034 -0.0049986 0.0054311 0.0026337 -0.0021115 0.00064738
0.0023992 0.00082808 5.702e-05 -0.0014313
-0.023014 -0.0050124 0.088976 0.35865 -0.013479 0.01298 0.0013769 0.0012544
0.0010777 -0.0010139 0.0010861 -1.1899e-05
0.0054417 0.0026076 -0.013444 0.013039 0.3568 0.055806 4.5619e-05 -0.0019059
1.2577e-05 -0.00036501 0.00036448 0.00021204
-0.0021166 0.00065401 0.0013842 0.0012453 4.7048e-05 -0.001906 0.17941 0.20065
-0.017164 -0.0085271 -0.00028928 0.00081305
0.0024126 0.00079821 0.0010754 -0.0010173 1.0819e-05 -0.00036764 -0.017205 -0.0084743
0.11221 0.21044 -0.011816 -0.0075332
3.4224e-05 -0.0014575 0.0010988 -1.164e-05 0.00034747 0.00020398 -0.00027824 0.000833
-0.011821 -0.0075479 0.14774 0.30179
1460000000 0.28201 0.14564 -0.01909 0.0064971 0.0055437 -0.0023407 -0.0015226 0.0017136
0.002058 -0.00066394 -0.00044223 -0.00086266
-0.019079 0.0064634 0.12246 0.33555 -0.0048956 0.015041 0.0017049 3.9494e-05
0.00059199 -0.0013469 0.00097855 -0.00060462
0.0055363 -0.0023568 -0.0048412 0.015068 0.36164 0.0020394 -0.0016242 -0.0012929
0.00015006 -0.00025099 0.00066503 -0.00036417
-0.0015181 0.0017168 0.0017057 4.092e-05 -0.0016263 -0.0012901 0.20307 0.17014
-0.017436 -0.00065876 -5.0886e-05 0.0022436
0.0020526 -0.00069351 0.00057711 -0.0013607 0.00014974 -0.00026163 -0.017438 -0.00059515
0.14078 0.19398 -0.012663 -0.0011981
-0.00043453 -0.00084445 0.00097372 -0.00061316 0.00067535 -0.00036518 -8.3207e-05 0.0022624
-0.012719 -0.0011658 0.17981 0.27859
1520000000 0.29276 0.1025 -0.012727 0.011215 0.0029269 -0.0043699 0.00016611 0.002635
0.0018874 -0.0018342 -0.0011355 1.8487e-05
-0.012731 0.011195 0.15488 0.31971 0.0022383 0.012441 0.0016063 -0.00089742
-0.00014084 -0.00093022 0.00018753 -0.00094058
0.0029051 -0.0043705 0.0022931 0.012438 0.35436 -0.054107 -0.0014349 -0.0001322
0.00042367 -0.00088061 -2.7549e-05 -0.00021787
0.0001686 0.0026355 0.0016023 -0.00090224 -0.0014373 -0.00013571 0.2234 0.13148
-0.015257 0.0055172 0.0021782 0.0018893
0.001875 -0.0018493 -0.00015432 -0.00093256 0.00042128 -0.00088975 -0.015229 0.0055654
0.1681 0.1775 -0.011915 0.0035548
-0.0011428 8.1058e-06 0.00018015 -0.00095131 -2.8289e-05 -0.00020069 0.0022222 0.0019106
-0.011934 0.0035655 0.21087 0.2545
1580000000 0.30005 0.055955 -0.0060655 0.013167 -0.0011831 -0.0048275 0.0016228 0.0018381
-0.00031038 -0.0021277 -0.00015909 0.00042473
-0.0060718 0.013157 0.18091 0.29442 0.0054143 0.0074742 0.00036521 -0.001704
-0.00057037 -0.00084758 -0.00024533 -0.00075427
-0.0012055 -0.0048226 0.0054431 0.0074541 0.33371 -0.11119 -0.0015314 0.0010536
-0.00033314 -0.0010965 0.00012536 -0.00065905
0.0016194 0.001824 0.00035886 -0.0017039 -0.0015327 0.0010561 0.23442 0.092496
-0.010502 0.0099421 0.002617 0.00015959
-0.00032913 -0.0021366 -0.00057817 -0.00083906 -0.00033957 -0.001096 -0.010469 0.0099635
0.19098 0.15715 -0.0086698 0.0086239
-0.0001673 0.00041491 -0.00023271 -0.00075352 0.00012803 -0.00064138 0.0026181 0.0001577
-0.0087241 0.0086378 0.23968 0.226
1640000000 0.30037 0.014367 6.6367e-05 0.011198 -0.0029551 -0.0025674 0.0027377 0.0008218
-0.00093809 -0.001378 -0.00019092 0.00055848
6.5603e-05 0.011187 0.20944 0.26897 0.0057081 0.0029714 -0.00091142 -0.0016128
-0.00094598 -0.00019063 -0.00053179 -0.00048977
-0.0029679 -0.002559 0.0057334 0.0029566 0.30479 -0.15987 -0.00045388 0.0016155
-0.0012658 -0.0006407 -0.00019448 -0.00022272
0.0027428 0.00081013 -0.0009246 -0.0016125 -0.00044897 0.0016115 0.24418 0.04508
-0.0054438 0.010532 0.0025812 -0.0013805
-0.0009513 -0.0013679 -0.0009478 -0.00019049 -0.0012673 -0.00064013 -0.0054151 0.010527
0.21225 0.13078 -0.003609 0.010184
-0.00016167 0.00058312 -0.00053057 -0.00048305 -0.0001714 -0.00019872 0.0025822 -0.0013695
-0.0036074 0.010211 0.2636 0.19303
1700000000 0.29114 -0.030774 0.002777 0.007919 -0.0035414 0.00023469 0.0029388 -0.0014712
-0.0019923 -0.00053098 0.00074322 0.00029943
0.0027762 0.0079226 0.22643 0.2376 0.003669 0.00019802 -0.0014879 -0.00041092
-0.00061274 0.00012228 -0.00083507 -0.00032925
-0.0035434 0.00024484 0.0036785 0.0001853 0.26179 -0.19991 0.00075508 0.0013778
-0.0017998 -2.4946e-05 -0.00069684 -0.00079888
0.002934 -0.0014793 -0.0014906 -0.0003986 0.00074919 0.001372 0.23937 -0.0024957
-0.0023316 0.0099804 0.0013193 -0.002425
-0.0019922 -0.00051653 -0.00060429 0.00013022 -0.0017967 -2.4633e-05 -0.0023066 0.0099696
0.22736 0.10853 0.0011116 0.010006
0.00076841 0.0002624 -0.00083585 -0.00033729 -0.0006939 -0.00082538 0.0013172 -0.0024359
0.0011023 0.010029 0.27755 0.15733
1760000000 0.27771 -0.078531 0.0041462 0.0045922 -0.0024419 0.0010575 0.0009205 -0.0035207
-0.0013606 0.00082475 0.00031307 -0.00050727
0.0041361 0.0045891 0.25169 0.19767 0.0013208 -0.0015186 -0.0011507 0.00037487
-0.00089965 0.00075245 -0.0005934 0.00046444
-0.0024386 0.0010613 0.0013144 -0.0015256 0.21303 -0.23389 0.0013283 0.00075481
-0.0010161 0.0016988 -0.0013408 -0.00028602
0.00091094 -0.0035195 -0.0011495 0.00037858 0.0013173 0.00075165 0.22995 -0.051043
0.00064083 0.008379 -0.00052587 -0.0026709
-0.0013611 0.00083825 -0.00088492 0.00075856 -0.001005 0.0017079 0.00063156 0.0083738
0.23997 0.072173 0.0048923 0.0068572
0.00032497 -0.00051336 -0.00058518 0.00046649 -0.001307 -0.00026904 -0.00055206 -0.002687
0.0048898 0.0068816 0.28835 0.11875
1820000000 0.25176 -0.1149 0.0036072 0.0015184 -4.4922e-05 0.0025827 -0.001315 -0.0028526
-0.00083825 0.0011357 -6.5638e-05 -3.5073e-05
0.0036071 0.0015245 0.26088 0.16789 -0.00057581 -0.0001231 -0.0011046 0.0010002
-4.9977e-05 0.0011639 -0.00044022 0.00053651
-4.0629e-05 0.0025766 -0.00057178 -0.00011842 0.1619 -0.24934 0.0012503 0.00010012
-1.7234e-06 0.0022114 -0.0013215 0.00062901
-0.0013272 -0.0028542 -0.0011017 0.0010157 0.001249 0.00010362 0.2009 -0.095923
0.0016591 0.0063481 -0.0017943 -0.0015097
-0.00083617 0.0011445 -4.4757e-05 0.0011473 9.2525e-06 0.0022152 0.0016617 0.006345
0.25433 0.041779 0.0055604 0.0030687
-5.0847e-05 -2.6487e-06 -0.00044576 0.000531 -0.0013264 0.00066362 -0.001768 -0.0015394
0.0056371 0.0030483 0.28795 0.080897
1880000000 0.21567 -0.15395 0.0010835 -9.1299e-05 -0.00031701 0.0021304 -0.0030186 -0.0017694
-5.9143e-05 0.0016293 0.00022238 -0.00034552
0.001078 -8.9779e-05 0.265 0.12153 -0.0026237 0.0017204 -1.4809e-05 0.0016117
0.00049652 0.0010586 0.00020762 0.00083268
-0.00031107 0.002129 -0.0026163 0.0017359 0.10857 -0.259 0.0013962 -0.00094095
0.0015833 0.0015057 -0.00070441 0.0013825
-0.0030259 -0.0017578 -1.2545e-06 0.0016172 0.0013891 -0.00093671 0.16223 -0.13517
0.0019361 0.0041853 -0.0024156 0.00024901
-5.8259e-05 0.0016223 0.00049954 0.001043 0.0015826 0.0015019 0.0019401 0.0041919
0.2545 0.0085199 0.0050795 0.00061118
0.00023156 -0.00032689 0.00021898 0.00085086 -0.00069744 0.0013922 -0.0024155 0.00022423
0.0051287 0.00060768 0.28556 0.046446
1940000000 0.17614 -0.17927 -0.0010166 -0.0010666 0.0015896 0.0019072 -0.003401 0.00082998
0.0014489 0.00095853 -0.00062658 -0.00048425
-0.0010021 -0.001078 0.26499 0.089939 -0.0012525 0.0041651 0.00097143 0.0010736
0.0015615 0.00050688 0.00079899 0.00036183
0.001608 0.0018959 -0.0012349 0.0041777 0.062591 -0.25186 9.773e-05 -0.0017239
0.0022392 0.00015918 0.00050519 0.0016904
-0.0033904 0.00084676 0.00097358 0.0010738 9.7587e-05 -0.0017227 0.11155 -0.166
0.00080502 0.0027849 -0.0017312 0.0015271
0.0014485 0.00093644 0.0015619 0.00049262 0.0022495 0.00015139 0.00080222 0.0027952
0.25371 -0.030974 0.0034645 -0.0023329
-0.00066077 -0.00049171 0.00078648 0.00035452 0.00050695 0.0016656 -0.0017437 0.0014597
0.0035044 -0.0023755 0.27264 0.0095695
2000000000 0.12957 -0.19332 -0.0043895 0.0013325 0.00262 0.0014329 -0.0021526 0.0035297
0.0010278 -1.6971e-05 -0.0004972 0.00039791
-0.0043905 0.0013347 0.25077 0.054372 -0.00086074 0.005794 0.0015106 0.00023429
0.0013589 -0.0010626 0.00044941 5.3958e-05
0.0026196 0.0014179 -0.00082653 0.0058051 0.018432 -0.2372 -0.0011095 -0.00092408
0.0017557 -0.0011825 0.0017399 0.00096559
-0.0021532 0.0035443 0.0015125 0.00022031 -0.0010985 -0.00092798 0.059178 -0.17706
-0.0008709 0.0027374 -0.00025949 0.0023122
0.0010225 -2.0117e-05 0.001342 -0.0010662 0.0017492 -0.0011888 -0.00086452 0.0027503
0.24505 -0.064465 0.00013182 -0.0034589
