!Keysight Technologies,M9804A,MY58100912,A.14.10.03
!Date: Thursday, April 27, 2023 10:28:33
!Correction: S11(C  6-Port  ) 
!S12(C  6-Port  ) 
!S13(C  6-Port  ) 
!S14(C  6-Port  ) 
!S15(C  6-Port  ) 
!S16(C  6-Port  ) 
!S21(C  6-Port  ) 
!S22(C  6-Port  ) 
!S23(C  6-Port  ) 
!S24(C  6-Port  ) 
!S25(C  6-Port  ) 
!S26(C  6-Port  ) 
!S31(C  6-Port  ) 
!S32(C  6-Port  ) 
!S33(C  6-Port  ) 
!S34(C  6-Port  ) 
!S35(C  6-Port  ) 
!S36(C  6-Port  ) 
!S41(C  6-Port  ) 
!S42(C  6-Port  ) 
!S43(C  6-Port  ) 
!S44(C  6-Port  ) 
!S45(C  6-Port  ) 
!S46(C  6-Port  ) 
!S51(C  6-Port  ) 
!S52(C  6-Port  ) 
!S53(C  6-Port  ) 
!S54(C  6-Port  ) 
!S55(C  6-Port  ) 
!S56(C  6-Port  ) 
!S61(C  6-Port  ) 
!S62(C  6-Port  ) 
!S63(C  6-Port  ) 
!S64(C  6-Port  ) 
!S65(C  6-Port  ) 
!S66(C  6-Port  ) 
!S6P File: Measurement: :
# Hz S  RI   R 50
500000000 -0.34085 -0.01854 -0.012143 -0.0035278 -0.0079089 0.013542 -0.0035103 0.01229
0.01077 0.0039317 -0.0029923 0.0086444
-0.011732 -0.0037726 -0.42076 -0.036576 0.0053607 -0.011418 0.0017074 0.012827
0.0066365 0.0026525 0.0018406 0.014
-0.0078807 0.013388 0.0052737 -0.011466 -0.26509 0.22392 0.0070947 0.0040187
-0.0011254 0.0089214 0.002177 0.012275
-0.0033899 0.012183 0.0017428 0.012719 0.0071376 0.0040262 -0.33166 0.062933
-0.019961 -0.0066688 0.014333 0.023917
0.010826 0.0040079 0.006617 0.002614 -0.0011898 0.0088573 -0.020051 -0.0066787
-0.23835 -0.1641 -0.025854 0.0035247
-0.0026543 0.008615 0.0022205 0.013778 0.0022373 0.012203 0.014234 0.02371
-0.025764 0.0035444 -0.28705 -0.078766
560000000 -0.31334 0.13762 -0.028232 -0.06011 0.00073615 0.012078 0.0051454 0.010177
0.0086024 0.0045763 0.010579 0.0072863
-0.028405 -0.05998 -0.37584 0.11939 -0.043168 -0.033721 0.013934 0.0033596
-0.012254 -0.0033793 0.0033667 -0.00065982
0.00091526 0.011968 -0.043396 -0.033558 -0.18091 0.26922 -9.6309e-05 -0.0039699
0.018923 0.0043317 0.0066429 -0.006346
0.0053696 0.010296 0.013624 0.003333 -0.00014002 -0.0040485 -0.30458 0.14951
-0.00021506 -0.024045 0.0027558 -0.01802
0.0086606 0.0044096 -0.012259 -0.0031304 0.019014 0.004197 -0.00013321 -0.024039
-0.28942 0.010061 0.0016807 -0.046963
0.01073 0.0076011 0.0036317 -0.0010517 0.0067512 -0.0062308 0.0025632 -0.018047
0.0016956 -0.046973 -0.33106 0.0606
620000000 -0.27095 0.12413 -0.023972 0.0082197 0.0044116 0.0083719 0.0076955 -0.0054108
0.011505 -0.00090733 0.0014886 -0.0024283
-0.023899 0.0081561 -0.40236 0.074709 -0.019517 0.0012124 -0.00076144 -0.0023021
0.010838 -0.0061432 0.0018666 -0.0028368
0.0046974 0.0081952 -0.019504 0.0011981 -0.14895 0.27882 -0.00083895 -0.0049087
-0.0027236 -0.0029915 0.0086693 -0.0037877
0.0079285 -0.0052975 -0.0007732 -0.0021913 -0.00072787 -0.0049079 -0.26314 0.16126
-0.039825 -0.017222 0.012123 0.023636
0.011261 -0.00072096 0.010713 -0.0062777 -0.0029212 -0.0027951 -0.039871 -0.017355
-0.21304 -0.027854 -0.03947 0.014969
0.0010936 -0.0018541 0.0017532 -0.0026417 0.0086582 -0.0035041 0.012142 0.023676
-0.039548 0.014977 -0.25782 0.032777
680000000 -0.22849 0.20658 -0.028162 -0.010585 0.0057967 0.0046324 0.0013889 -0.0071567
-0.0025957 -0.011331 0.0043744 -0.0071268
-0.028134 -0.010634 -0.38462 0.16962 -0.032083 0.00097183 -0.0011605 -0.0008818
-0.0021817 -0.0091265 -0.0012674 -0.0021224
0.0059098 0.0046162 -0.032076 0.0010734 -0.097169 0.29621 -0.00078087 -0.00071112
-0.0015399 -0.00024779 -0.0035936 -0.008569
0.0013035 -0.0072925 -0.0011845 -0.00081794 -0.00076171 -0.00070627 -0.21638 0.20824
-0.026176 -0.0044003 -0.0089573 -0.0074214
-0.0027734 -0.011286 -0.0023034 -0.0092162 -0.0014098 -0.00035565 -0.026252 -0.0043405
-0.25204 0.070853 -0.0078886 -0.0060208
0.0043959 -0.0069543 -0.001396 -0.0021501 -0.0036405 -0.0086481 -0.009021 -0.007443
-0.0078807 -0.0059973 -0.25395 0.12846
740000000 -0.18365 0.20188 -0.03573 0.027598 0.012408 -0.0059731 -0.00081571 -0.0042043
-0.0052569 -0.0026894 -0.0060256 0.0026725
-0.035637 0.027504 -0.33207 0.18821 -0.032272 0.03584 -0.0010909 -0.0063084
-0.011783 0.007721 -0.0020014 -0.0050609
0.012516 -0.0058618 -0.032186 0.035811 -0.063544 0.29425 -0.0019249 0.0029678
-0.0035053 -0.0045774 -0.001945 0.00080786
-0.00086846 -0.0041958 -0.0010803 -0.0063673 -0.0018743 0.0029568 -0.1984 0.21672
-0.042194 -0.0026766 0.022462 0.01258
-0.0051708 -0.0027164 -0.011724 0.0076483 -0.003529 -0.004677 -0.042217 -0.0025308
-0.1566 0.090892 -0.038699 0.0043562
-0.0058917 0.0027116 -0.0020993 -0.0050526 -0.0020366 0.00098769 0.022478 0.012616
-0.038698 0.0043358 -0.24152 0.13904
800000000 -0.14879 0.23826 -0.020172 0.018112 0.004918 -0.010698 -0.0044449 -0.0016619
-0.0038701 0.0024736 0.0033368 0.00076622
-0.020189 0.018157 -0.33164 0.25662 -0.0060688 0.033771 -0.0023368 0.0022664
-0.0010481 0.003326 0.00093407 0.0054185
0.0049049 -0.010716 -0.0059965 0.033799 -0.021142 0.31575 0.0006989 0.0017102
0.00022192 0.0035069 -0.0016459 0.001342
-0.0044224 -0.0015768 -0.0023392 0.002281 0.00071946 0.0017455 -0.16831 0.24281
-0.026494 0.016898 0.012641 -0.0099821
-0.0039829 0.0025341 -0.0010196 0.0033743 0.00017157 0.0034686 -0.026489 0.016929
-0.19438 0.11862 -0.015073 0.019717
0.0033889 0.00070746 0.00098354 0.0054743 -0.0016415 0.0013135 0.012629 -0.010045
-0.015072 0.019679 -0.228 0.18416
860000000 -0.1135 0.25723 -0.014724 0.030704 -0.0034878 -0.010013 -0.0018396 0.0011571
0.0045224 0.0048332 -0.0024678 -0.0022128
-0.014542 0.030808 -0.28394 0.29664 0.0098698 0.033216 0.00025972 0.0021684
0.0046583 0.00056517 0.0030883 0.00041116
-0.0034704 -0.0099795 0.0099624 0.033232 0.026844 0.32257 -0.00031272 5.2961e-05
0.0025442 -0.0014373 0.0021423 0.0036975
-0.0018923 0.0012195 3.4099e-05 0.0020123 -0.00033373 -2.888e-05 -0.13157 0.25341
-0.014656 0.021338 -0.0049974 -0.0089217
0.0044473 0.0049254 0.0043652 0.00060223 0.002488 -0.0014254 -0.014629 0.021352
-0.14025 0.16301 -0.019953 0.017576
-0.0024894 -0.0021996 0.0032124 0.00038883 0.002129 0.0037088 -0.0049924 -0.0089485
-0.020016 0.017516 -0.17793 0.22212
920000000 -0.087033 0.27783 0.0072716 0.036033 -0.0094419 -0.0045233 -0.0013473 0.0015764
0.001697 0.0016915 0.0029445 -0.0018677
0.0072347 0.035948 -0.25392 0.31653 0.028835 0.01982 0.0019255 0.0010321
0.0072593 -0.00080776 0.0037153 -0.0031531
-0.0094056 -0.0045524 0.028907 0.019804 0.073899 0.32283 0.0020279 -0.00011659
0.0016242 -0.00062903 0.00070453 -0.0015142
-0.0013799 0.0015943 0.0018961 0.0010038 0.0020429 -0.00014418 -0.10537 0.26913
-0.0065976 0.031292 0.0026433 -0.0067915
0.0016949 0.0016671 0.0072805 -0.00072387 0.0016307 -0.00062971 -0.0065852 0.031332
-0.12751 0.16912 0.00047019 0.025583
0.0027468 -0.0017996 0.0038258 -0.0031075 0.00075206 -0.0014915 0.002663 -0.006793
0.00044929 0.025548 -0.17684 0.23802
980000000 -0.04048 0.29531 0.019102 0.027694 -0.0088314 0.0043938 0.0018609 0.0029113
0.0038132 -0.0019922 -0.0030378 -0.0021494
0.019048 0.027703 -0.2025 0.3485 0.033151 0.0026299 0.002062 -0.00024142
0.0017119 -0.006461 -0.00053003 -0.0025882
-0.0087915 0.0044277 0.033174 0.0025875 0.12086 0.31541 0.00050575 -0.0013425
0.00010729 -0.0023267 0.0011435 -0.00039579
0.001856 0.0028953 0.0020652 -0.00025945 0.0005008 -0.0013313 -0.066493 0.2783
0.011863 0.028376 -0.0084417 -0.0063601
0.0037617 -0.0021149 0.0016282 -0.0064531 8.1648e-05 -0.0023318 0.011916 0.028381
-0.09434 0.19234 0.0070329 0.018237
-0.003044 -0.0021719 -0.00058995 -0.0025822 0.0011119 -0.00035159 -0.0084403 -0.0063217
0.0070234 0.018213 -0.13274 0.27501
1040000000 0.0024117 0.30184 0.033328 0.014845 -0.0015395 0.0065328 0.0022373 0.00051212
-1.7199e-05 -0.0031512 -0.00091064 -0.0015181
0.033309 0.01483 -0.16694 0.36166 0.028042 -0.016647 0.0014694 -0.0018372
-0.0025376 -0.0028451 -0.0018096 -0.0027852
-0.001515 0.0065503 0.027992 -0.016695 0.16822 0.30071 -0.00068172 -0.0015359
-0.0017341 -0.00087608 -0.00076058 -0.00097253
0.0022307 0.00053089 0.0014097 -0.0018785 -0.00068402 -0.0015416 -0.0375 0.28722
0.022234 0.015391 -0.0028383 0.00080663
-8.2183e-05 -0.0031805 -0.0025085 -0.0028883 -0.0017065 -0.00087145 0.022282 0.015361
-0.062471 0.19773 0.014907 0.015504
-0.00092065 -0.0015715 -0.0018002 -0.0028322 -0.00074824 -0.00097696 -0.0028377 0.00082232
0.01488 0.015524 -0.10658 0.29468
1100000000 0.047237 0.30781 0.034514 -0.0070385 0.0023881 0.0036919 0.0020759 -0.00089113
-0.002045 -0.0028098 -0.0037742 0.00053478
0.034476 -0.0069672 -0.12415 0.37793 0.013249 -0.028834 -0.00012278 -0.0018434
-0.0038229 -0.00066278 -0.0035547 -0.00015337
0.0024161 0.003687 0.013181 -0.028886 0.21572 0.27816 -0.001968 0.00025951
-0.0020219 0.00077088 -0.00102 8.3516e-05
0.0020501 -0.00089216 -0.00010842 -0.001814 -0.0019695 0.00025237 0.0036894 0.29004
0.025926 0.0013477 -0.0026949 -9.8669e-05
-0.002087 -0.002785 -0.0038373 -0.00062662 -0.0020329 0.0007735 0.025943 0.0013088
-0.043237 0.20893 0.019452 0.0056502
-0.003689 0.0005523 -0.0035537 -0.00012591 -0.00099293 8.5449e-05 -0.0027215 -8.4258e-05
0.019437 0.0056535 -0.059883 0.31707
1160000000 0.097767 0.30188 0.021498 -0.022831 0.0019332 -0.00022587 -3.5484e-05 -0.001832
-0.0040267 -0.00041096 -0.0007295 0.0039834
0.021528 -0.022813 -0.079673 0.38277 -0.0060892 -0.02889 -0.0017314 -0.0015109
-0.0029068 0.0029134 -0.0014238 0.0019634
0.0019045 -0.00023007 -0.006169 -0.02889 0.25887 0.24454 -0.00071631 0.0019251
-0.00037705 0.0021785 -0.0006801 0.00034255
-3.8737e-05 -0.0018095 -0.0017378 -0.001525 -0.00071833 0.0019099 0.043582 0.28518
0.020477 -0.014504 -0.0032997 0.0040357
-0.0040793 -0.00039528 -0.0028865 0.0029542 -0.00033523 0.0021819 0.020478 -0.014539
-0.010339 0.21524 0.017941 -0.003324
-0.0007154 0.0040103 -0.0014228 0.0019681 -0.00066986 0.00035486 -0.003282 0.0040257
0.017916 -0.0033271 -0.013342 0.31774
1220000000 0.14228 0.28912 0.0069931 -0.030491 -0.0019763 -1.0028e-05 0.00027567 -0.00088446
-0.0025605 0.0023491 0.0014652 0.0021138
0.0070317 -0.030438 -0.034907 0.39369 -0.018505 -0.01989 -0.002514 0.0005433
0.00026178 0.0033292 -0.00037683 0.0020936
-0.0019455 -1.2977e-05 -0.018566 -0.019823 0.29695 0.20249 0.00093008 0.0019767
0.00087094 0.0013089 0.00053071 0.00055391
0.00025815 -0.00085669 -0.0025056 0.00052439 0.00093903 0.0019824 0.084043 0.27413
0.008535 -0.020543 0.00092411 0.0013559
-0.0025038 0.0023472 0.00029302 0.0033387 0.00086665 0.0013285 0.0085303 -0.020564
0.01354 0.22174 0.011844 -0.015189
0.0014875 0.0021323 -0.00038208 0.0021013 0.00053013 0.00055557 0.00092316 0.0013834
0.011846 -0.01519 0.020758 0.32855
1280000000 0.19117 0.266 -0.011039 -0.027284 -0.0016853 0.0034019 -0.00083588 -0.0020984
-0.00068547 0.0030445 0.002537 0.00089474
-0.010998 -0.027261 0.011799 0.38436 -0.024546 -0.0067532 -0.00098423 0.0015188
0.0021349 0.0018106 0.0010285 0.0017846
-0.0016771 0.0034097 -0.024602 -0.006677 0.32493 0.15676 0.0018193 -7.6146e-05
0.0013041 0.00010438 0.00028057 9.0369e-05
-0.00083497 -0.0020896 -0.00098592 0.0015237 0.0018173 -6.0496e-05 0.12022 0.25489
-0.0025717 -0.021411 -0.00097969 0.00072345
-0.000653 0.0030546 0.0021356 0.0018181 0.0013186 9.4686e-05 -0.0026063 -0.021421
0.049252 0.22326 0.00069381 -0.016755
0.0025632 0.00086193 0.0010288 0.0018129 0.00027987 0.00010013 -0.00098189 0.00071693
0.00070312 -0.016748 0.066574 0.32604
1340000000 0.22801 0.23081 -0.019885 -0.016102 0.0016015 0.0048534 -0.0017504 -0.0010322
0.0015012 0.0025981 0.0016435 -0.0015905
-0.019845 -0.0161 0.052359 0.37408 -0.021285 0.0061471 -4.413e-05 0.0021182
0.0022404 0.00036714 0.0014618 0.0005707
0.0016267 0.0048439 -0.02126 0.0062257 0.34443 0.10835 0.0013523 -0.0011573
0.00069165 -0.00056206 5.7792e-05 0.0001917
-0.0017719 -0.0010339 3.911e-06 0.0021235 0.0013601 -0.0011638 0.15173 0.23207
-0.012482 -0.016703 0.00018189 0.0015935
0.0015185 0.002626 0.0022469 0.00036157 0.00067383 -0.00059994 -0.012526 -0.0167
0.079278 0.21688 -0.0068432 -0.014211
0.0016338 -0.0015781 0.0014659 0.00055513 3.7277e-05 0.00018805 0.00017379 0.0016053
-0.0068298 -0.014211 0.10585 0.31673
1400000000 0.26001 0.19124 -0.02368 -0.0039569 0.0058716 0.0030853 -0.0022153 0.00061963
0.0025106 0.00088141 0.00011154 -0.0015671
-0.023644 -0.0039738 0.089232 0.35943 -0.013732 0.013739 0.0015196 0.0012862
0.0011749 -0.0012726 0.0011183 -6.845e-05
0.0058728 0.003083 -0.013694 0.01379 0.3557 0.055415 3.4118e-05 -0.0021182
2.2286e-05 -0.00049688 0.00036373 0.00022507
-0.0022159 0.00064204 0.0015107 0.001273 2.8558e-05 -0.0021203 0.17943 0.20089
-0.01817 -0.0083295 -0.00040832 0.0011094
0.0025021 0.00087177 0.0011694 -0.00128 2.307e-05 -0.00051106 -0.018199 -0.0083077
0.11109 0.20999 -0.013006 -0.0080228
0.00010792 -0.0015964 0.0010969 -8.3912e-05 0.0003482 0.00021778 -0.00040242 0.0011019
-0.013001 -0.0080255 0.14779 0.30126
1460000000 0.28184 0.14626 -0.019042 0.0077922 0.0060778 -0.002276 -0.0016504 0.0017874
0.0022029 -0.00074109 -0.00056703 -0.00087652
-0.019063 0.0077461 0.12305 0.33575 -0.0046005 0.015818 0.0018305 -2.5768e-05
0.00047392 -0.0015225 0.0009461 -0.00064483
0.0060901 -0.0022343 -0.0045253 0.015839 0.36038 0.0022749 -0.0017493 -0.0013707
6.5345e-05 -0.00024533 0.00069565 -0.00029075
-0.001646 0.0017828 0.0018298 -1.5438e-05 -0.0017383 -0.0013773 0.20332 0.17015
-0.018245 8.6296e-05 0.00017022 0.0026201
0.0022007 -0.0007536 0.00045997 -0.0015207 4.8545e-05 -0.00023226 -0.018265 0.00012889
0.13961 0.19388 -0.013971 -0.0010405
-0.00055296 -0.00085854 0.0009613 -0.00064751 0.00069733 -0.00027166 0.00017438 0.0026234
-0.013969 -0.0010648 0.17948 0.27799
1520000000 0.29286 0.10302 -0.012064 0.012213 0.0034765 -0.0045944 0.00016872 0.0027314
0.0019982 -0.001927 -0.0011778 3.7032e-05
-0.012059 0.012202 0.15529 0.31943 0.0028623 0.012832 0.0016401 -0.0010205
-0.00032745 -0.0009489 0.00020213 -0.00096099
0.0034406 -0.0046231 0.0028967 0.012814 0.3535 -0.053351 -0.0015249 -8.7948e-05
0.00047896 -0.00091859 -7.7489e-06 -0.00025875
0.00018496 0.0027262 0.0016274 -0.0010375 -0.0015118 -8.2325e-05 0.22359 0.13128
-0.015518 0.0065745 0.0025037 0.002072
0.0019757 -0.0019423 -0.0003235 -0.00094779 0.0004645 -0.00093005 -0.015518 0.0066074
0.16709 0.17774 -0.01285 0.0042871
-0.0011773 3.3711e-05 0.00019249 -0.00096254 8.3791e-06 -0.000278 0.0025076 0.0020793
-0.012842 0.0042836 0.2103 0.25394
1580000000 0.30035 0.056163 -0.0049672 0.013723 -0.00087734 -0.0052706 0.0016739 0.0019108
-0.00034153 -0.0022976 -0.00018575 0.00047715
-0.004969 0.013736 0.18098 0.29379 0.0060685 0.0075222 0.00026746 -0.0017734
-0.00061968 -0.00068951 -0.0002661 -0.00077319
-0.00087086 -0.0052566 0.0061078 0.0075067 0.33347 -0.11038 -0.0016011 0.0012125
-0.00045953 -0.0010802 0.00019103 -0.00061374
0.0016819 0.0018922 0.00025901 -0.0017661 -0.0016038 0.0012006 0.23435 0.092148
-0.010206 0.011043 0.0029999 0.00011449
-0.00033501 -0.0023147 -0.00063758 -0.00068333 -0.00045442 -0.0011284 -0.010191 0.011073
0.19023 0.15772 -0.0092844 0.0096153
-0.00017697 0.00047507 -0.00027106 -0.0007773 0.00018266 -0.00061936 0.0029955 9.411e-05
-0.0092843 0.0096127 0.23905 0.22558
1640000000 0.30044 0.014246 0.0012795 0.011047 -0.0029417 -0.0029867 0.002851 0.00076196
-0.0010704 -0.0015479 -0.00011937 0.00051242
0.0012632 0.01104 0.20901 0.26831 0.0061947 0.0027134 -0.0010296 -0.0016305
-0.00084906 -0.00012527 -0.00056786 -0.00054838
-0.0029408 -0.0030072 0.0062158 0.002686 0.30486 -0.15931 -0.00034901 0.0016747
-0.0013302 -0.00071885 -0.00032283 -0.0002608
0.0028589 0.00074644 -0.0010357 -0.0016342 -0.00034722 0.0016823 0.24385 0.044793
-0.0045791 0.011215 0.0027659 -0.0015101
-0.0010567 -0.0015551 -0.0008451 -0.0001211 -0.0013512 -0.00072905 -0.0045458 0.011233
0.21169 0.13133 -0.0035814 0.011385
-0.00011533 0.00052531 -0.00056938 -0.00053032 -0.00032101 -0.00027192 0.0027668 -0.0015085
-0.0035827 0.011389 0.26252 0.193
1700000000 0.29077 -0.030821 0.0036728 0.0072258 -0.0037701 -0.00018847 0.0029279 -0.0015459
-0.0021654 -0.0005177 0.00073323 0.00024248
0.0036799 0.0072326 0.22559 0.2372 0.0040095 -0.00012944 -0.0015437 -0.000307
-0.000487 7.8886e-05 -0.00091646 -0.00035953
-0.0037141 -0.0001697 0.0040032 -0.00014789 0.26185 -0.19901 0.00095376 0.0013666
-0.0018657 2.5894e-05 -0.00076087 -0.00083391
0.0029197 -0.0015538 -0.0015505 -0.00030229 0.00094025 0.0013618 0.23886 -0.0025605
-0.0012511 0.010068 0.0015317 -0.0026919
-0.0021596 -0.00050892 -0.00049801 8.1259e-05 -0.0018538 2.9023e-05 -0.0012272 0.010072
0.22702 0.10908 0.0016541 0.011021
0.00074838 0.00021208 -0.00091931 -0.00035409 -0.00076505 -0.00083458 0.0015414 -0.0027027
0.0016569 0.011022 0.27654 0.15775
1760000000 0.2771 -0.078096 0.0044735 0.0036074 -0.0027738 0.00079598 0.00084933 -0.0035987
-0.0014066 0.0010294 0.00030987 -0.00054693
0.0044556 0.0036041 0.25061 0.19779 0.0014627 -0.001972 -0.0011305 0.00042136
-0.00087672 0.00064299 -0.00055539 0.0004858
-0.0027526 0.00083882 0.0014498 -0.0019697 0.21346 -0.23319 0.0013282 0.0006538
-0.0010824 0.0017221 -0.0014029 -0.00021966
0.0008754 -0.0035843 -0.0011271 0.00042971 0.0013347 0.00067176 0.22945 -0.050827
0.0015279 0.007952 -0.00043187 -0.002931
-0.0014089 0.001077 -0.0008626 0.00064767 -0.0010774 0.0017713 0.0015384 0.0079648
0.2397 0.07267 0.0056492 0.0075759
0.00027592 -0.00053446 -0.00056302 0.00049051 -0.0014263 -0.00020008 -0.00043732 -0.002911
0.0056406 0.0075641 0.28745 0.11939
1820000000 0.25145 -0.11432 0.0034816 0.00058027 -0.0004094 0.0025136 -0.0014172 -0.0028742
-0.00079505 0.0012165 -0.00018537 -8.3764e-05
0.0034695 0.00057791 0.25996 0.16843 -0.00062491 -0.0006261 -0.0010134 0.0010509
-0.00012759 0.0010387 -0.0004892 0.00054035
-0.0004385 0.0025004 -0.00064697 -0.00063755 0.16262 -0.24927 0.0011837 -3.7731e-05
0.00016698 0.0021574 -0.0014108 0.00063233
-0.0014487 -0.0028459 -0.0010072 0.0010504 0.0011896 -3.4774e-05 0.20062 -0.095461
0.0021936 0.0056347 -0.0017937 -0.001931
-0.00079967 0.001223 -0.00011729 0.0010396 0.00016579 0.0021611 0.0022176 0.0056292
0.25423 0.042259 0.0067546 0.0032372
-0.00018696 -7.4029e-05 -0.00047973 0.00053811 -0.0013869 0.00063844 -0.0017792 -0.0019246
0.0067556 0.0032341 0.28771 0.081742
1880000000 0.21574 -0.15316 0.00056282 -0.00076041 -0.00080775 0.002364 -0.0030942 -0.0016983
7.8467e-05 0.001604 0.0001027 -0.00022803
0.00057773 -0.00075476 0.26439 0.12254 -0.0029317 0.0013315 4.36e-05 0.0015705
0.00032861 0.001085 0.00015114 0.00089239
-0.00078852 0.0023217 -0.0029207 0.0013496 0.10928 -0.25915 0.0013439 -0.00091285
0.0017064 0.0015157 -0.00069192 0.0016076
-0.0030986 -0.001685 4.3924e-05 0.0015551 0.0013465 -0.00094384 0.1622 -0.13464
0.0019575 0.0033805 -0.0027192 -8.509e-06
5.9681e-05 0.001625 0.00032016 0.0011016 0.0017135 0.0015148 0.0019629 0.0033759
0.25435 0.0087973 0.0061056 0.00037527
0.00010621 -0.00024908 0.00017485 0.00091695 -0.00068375 0.0016118 -0.0027121 -1.0836e-05
0.0061091 0.00038649 0.28539 0.047182
1940000000 0.17659 -0.17834 -0.0016754 -0.0013949 0.0014229 0.0024079 -0.0034884 0.00095148
0.0015453 0.0009038 -0.00045708 -0.00038026
-0.0016848 -0.001369 0.265 0.090994 -0.0016828 0.0039336 0.00099274 0.0011004
0.0014964 0.00070666 0.00082155 0.0004559
0.0014371 0.0024103 -0.001652 0.0039406 0.062866 -0.25234 0.00022366 -0.0016127
0.0022552 0.0001561 0.00067413 0.0016885
-0.0035035 0.00095159 0.0010092 0.0010933 0.00021199 -0.0016183 0.11184 -0.16539
0.00058068 0.0022401 -0.0020079 0.0014236
0.0015644 0.00087748 0.001496 0.00069673 0.0022565 0.00016222 0.00058873 0.0022477
0.25365 -0.030555 0.0043446 -0.0030616
-0.00043081 -0.00037057 0.00080184 0.00045303 0.00065787 0.0017202 -0.0020068 0.0014484
0.0043344 -0.0030662 0.27258 0.0099798
2000000000 0.13019 -0.19275 -0.0051535 0.0012981 0.0026255 0.0018576 -0.0020748 0.0034637
0.001042 -0.00019555 -0.0003514 0.00040141
-0.0051472 0.0012615 0.25109 0.055379 -0.0013302 0.0059634 0.0015177 0.00016324
0.0014222 -0.00088332 0.00047311 0.00012197
0.0026231 0.0018427 -0.0013363 0.0059844 0.018575 -0.2373 -0.00092175 -0.00097594
0.0016969 -0.0011204 0.0018957 0.0008914
-0.0020578 0.0035045 0.0015253 0.000175 -0.00091167 -0.0009501 0.059477 -0.1769
-0.0013984 0.0022229 -0.00049737 0.0023818
0.00098961 -0.0001753 0.0014169 -0.00089474 0.001714 -0.0011092 -0.001363 0.0022322
0.24499 -0.064253 0.00063659 -0.0042147
