!Keysight Technologies,M9804A,MY58100912,A.14.10.03
!Date: Thursday, April 27, 2023 10:28:33
!Correction: S11(C  6-Port  ) 
!S12(C  6-Port  ) 
!S13(C  6-Port  ) 
!S14(C  6-Port  ) 
!S15(C  6-Port  ) 
!S16(C  6-Port  ) 
!S21(C  6-Port  ) 
!S22(C  6-Port  ) 
!S23(C  6-Port  ) 
!S24(C  6-Port  ) 
!S25(C  6-Port  ) 
!S26(C  6-Port  ) 
!S31(C  6-Port  ) 
!S32(C  6-Port  ) 
!S33(C  6-Port  ) 
!S34(C  6-Port  ) 
!S35(C  6-Port  ) 
!S36(C  6-Port  ) 
!S41(C  6-Port  ) 
!S42(C  6-Port  ) 
!S43(C  6-Port  ) 
!S44(C  6-Port  ) 
!S45(C  6-Port  ) 
!S46(C  6-Port  ) 
!S51(C  6-Port  ) 
!S52(C  6-Port  ) 
!S53(C  6-Port  ) 
!S54(C  6-Port  ) 
!S55(C  6-Port  ) 
!S56(C  6-Port  ) 
!S61(C  6-Port  ) 
!S62(C  6-Port  ) 
!S63(C  6-Port  ) 
!S64(C  6-Port  ) 
!S65(C  6-Port  ) 
!S66(C  6-Port  ) 
!S6P File: Measurement: :
# Hz S  RI   R 50
500000000 -0.33977 -0.017667 -0.011295 -0.0031434 -0.0074813 0.012922 -0.0032639 0.012292
0.01102 0.0039698 -0.0028217 0.008577
-0.011247 -0.0031268 -0.41982 -0.035848 0.0062314 -0.011537 0.0020018 0.012606
0.0063662 0.0023227 0.0021161 0.0138
-0.0074719 0.01294 0.0062176 -0.011535 -0.26298 0.22317 0.007345 0.0038034
-0.0012047 0.008533 0.0021495 0.01234
-0.0032558 0.012289 0.0020387 0.012595 0.0073633 0.0037895 -0.33055 0.063154
-0.019534 -0.00685 0.015031 0.023685
0.011191 0.0038011 0.0062822 0.0024206 -0.0011295 0.008691 -0.019602 -0.0067644
-0.23685 -0.16379 -0.025332 0.0036083
-0.0028521 0.0085531 0.0021303 0.013769 0.0021767 0.012313 0.015038 0.023661
-0.025177 0.0035815 -0.28531 -0.079518
560000000 -0.31207 0.13769 -0.027328 -0.060366 0.00086423 0.01151 0.0054013 0.0096811
0.0085578 0.0043249 0.010968 0.0065708
-0.027228 -0.060299 -0.37553 0.11829 -0.042363 -0.033698 0.013915 0.0036137
-0.012432 -0.0034464 0.0028882 -0.0007953
0.00089954 0.011511 -0.042452 -0.033672 -0.18104 0.26767 -0.00041126 -0.0045244
0.018306 0.0034151 0.0066168 -0.0063049
0.0054058 0.0096546 0.013886 0.0035999 -0.00041606 -0.0045386 -0.30408 0.14909
0.00049819 -0.02429 0.0028805 -0.01812
0.0086104 0.0042601 -0.012464 -0.0033556 0.018321 0.0033563 0.00047643 -0.024258
-0.28767 0.009796 0.002854 -0.046942
0.010984 0.0065297 0.0028267 -0.00078192 0.0066268 -0.0062959 0.0028955 -0.018119
0.0029185 -0.046932 -0.33101 0.059606
620000000 -0.26974 0.12388 -0.023528 0.0073763 0.004038 0.0078868 0.0079427 -0.005616
0.010547 -0.0010456 0.00068174 -0.0022426
-0.023526 0.0073697 -0.40147 0.074381 -0.019474 0.00066187 -0.00093267 -0.0022854
0.010176 -0.0063091 0.0014508 -0.0031094
0.0040365 0.0078951 -0.019484 0.00066998 -0.14887 0.27784 -0.0013566 -0.0048011
-0.0030047 -0.0027308 0.0084053 -0.0039438
0.0079072 -0.0056232 -0.00094295 -0.0022755 -0.0013395 -0.0047913 -0.2624 0.16066
-0.039427 -0.017271 0.012179 0.023254
0.010562 -0.0010572 0.010139 -0.0064411 -0.002936 -0.0030225 -0.039406 -0.017216
-0.21077 -0.027971 -0.038925 0.014782
0.00066163 -0.0022868 0.0014268 -0.0031446 0.0084027 -0.0039577 0.012208 0.023256
-0.038749 0.014771 -0.25611 0.032066
680000000 -0.22738 0.20528 -0.027862 -0.011555 0.005573 0.0044526 0.0012479 -0.0069694
-0.0029321 -0.011009 0.0038606 -0.0068036
-0.027843 -0.011567 -0.38421 0.16839 -0.032047 0.00063948 -0.0014429 -0.00056776
-0.0024731 -0.0088529 -0.0014159 -0.0020989
0.0055542 0.0044442 -0.032055 0.00068606 -0.097841 0.29502 -0.00089584 -0.00049721
-0.0018453 5.1102e-08 -0.0036469 -0.0084061
0.0012328 -0.0069738 -0.0014628 -0.00055762 -0.00090591 -0.00048011 -0.21672 0.20751
-0.025856 -0.0051534 -0.0087135 -0.0080295
-0.0028609 -0.011095 -0.0024614 -0.0087856 -0.001883 6.5553e-05 -0.025841 -0.0050852
-0.25019 0.069062 -0.0070995 -0.0063532
0.0038361 -0.0068562 -0.0013974 -0.002121 -0.0036618 -0.0084202 -0.0087868 -0.0080142
-0.0070782 -0.0063827 -0.2533 0.12689
740000000 -0.18388 0.20024 -0.036442 0.026347 0.012078 -0.0061203 -0.00082036 -0.0040444
-0.0049912 -0.0026541 -0.0056818 0.0034068
-0.036443 0.0263 -0.33254 0.18829 -0.032533 0.03532 -0.00093341 -0.006115
-0.011449 0.0083085 -0.0017309 -0.0049762
0.012064 -0.0061278 -0.032455 0.035395 -0.06447 0.29426 -0.0017372 0.0030379
-0.0035434 -0.0044652 -0.0017259 0.001501
-0.00082462 -0.0040436 -0.00094214 -0.0061243 -0.0017412 0.0030438 -0.19871 0.21658
-0.04185 -0.0031843 0.021937 0.012101
-0.005122 -0.0028907 -0.011322 0.0083876 -0.0035537 -0.0044453 -0.041858 -0.0032025
-0.15747 0.090203 -0.037967 0.0033401
-0.0057095 0.0034309 -0.0017437 -0.0049731 -0.0017419 0.001499 0.021937 0.012053
-0.037991 0.0033531 -0.24208 0.13698
800000000 -0.14967 0.23723 -0.021108 0.017817 0.0045852 -0.010448 -0.0042358 -0.0016041
-0.0037874 0.0028811 0.0037498 0.00086205
-0.021115 0.017799 -0.33227 0.25621 -0.0063767 0.033575 -0.0022359 0.0023472
-0.00057017 0.0035162 0.0011937 0.0054273
0.0045696 -0.010446 -0.0063333 0.03359 -0.021361 0.31589 0.00090227 0.0016217
0.00038793 0.0036017 -0.0017308 0.0012959
-0.0042533 -0.0016008 -0.0022373 0.0023634 0.00089729 0.0016199 -0.16827 0.24276
-0.026512 0.01631 0.012571 -0.01001
-0.003781 0.003014 -0.00058632 0.0035196 0.00042695 0.0036219 -0.026551 0.016381
-0.19409 0.11657 -0.015388 0.018853
0.0037387 0.00084145 0.0012008 0.0054359 -0.0017329 0.0012854 0.012554 -0.010036
-0.015444 0.01882 -0.22826 0.18184
860000000 -0.11467 0.25652 -0.015418 0.030833 -0.0038289 -0.0095804 -0.00201 0.0012098
0.0047205 0.0045043 -0.0025892 -0.0023999
-0.015413 0.030796 -0.28477 0.29684 0.0094625 0.032919 0.00013949 0.0021686
0.0046054 0.00045553 0.0032413 0.00043882
-0.0038447 -0.0095707 0.0095129 0.032917 0.026775 0.32264 -0.00037602 -8.7194e-05
0.0025238 -0.0014981 0.0019126 0.0039893
-0.002008 0.0012117 0.00015563 0.0021832 -0.00037578 -8.9979e-05 -0.13182 0.25325
-0.014815 0.020621 -0.0055014 -0.0091155
0.0046823 0.0044998 0.0046524 0.00034578 0.0025664 -0.0014936 -0.014856 0.020688
-0.14129 0.16031 -0.02115 0.016515
-0.0025768 -0.0023949 0.0032395 0.00044499 0.001927 0.0039801 -0.0055031 -0.0091051
-0.021211 0.016477 -0.17892 0.22151
920000000 -0.088243 0.27802 0.0065801 0.036349 -0.0093574 -0.0039544 -0.0014446 0.0016992
0.0015522 0.0013257 0.0026315 -0.0018345
0.0065724 0.036305 -0.25423 0.31708 0.028373 0.019867 0.0017656 0.00085447
0.0069201 -0.00091265 0.0033644 -0.0031282
-0.0093567 -0.0039417 0.028405 0.019824 0.074251 0.32275 0.0018878 -0.00013526
0.0014769 -0.00067306 0.00078497 -0.0013236
-0.0014502 0.0016967 0.0017733 0.00085441 0.0018908 -0.00014464 -0.10551 0.26908
-0.0070189 0.030572 0.0021562 -0.0064433
0.0015791 0.0013734 0.0069294 -0.00091941 0.0014638 -0.00067736 -0.0069716 0.030567
-0.12839 0.16765 -0.00026571 0.025313
0.0026292 -0.0018189 0.0033496 -0.0031383 0.00077706 -0.001326 0.0021471 -0.0064443
-0.00030349 0.025281 -0.17781 0.23706
980000000 -0.041236 0.29568 0.018696 0.028112 -0.0084088 0.0047527 0.0019748 0.0030143
0.0036671 -0.0019536 -0.0031943 -0.0019239
0.018683 0.028082 -0.20243 0.34913 0.032488 0.0029045 0.0020387 -0.00033581
0.0013988 -0.0062049 -0.00065593 -0.0023449
-0.008394 0.0047574 0.032489 0.0028411 0.12102 0.31458 0.00047852 -0.0012982
-4.5938e-05 -0.0022077 0.0012324 -0.00020287
0.0019762 0.0030054 0.002039 -0.00031146 0.00047746 -0.0012973 -0.066485 0.27844
0.010831 0.028179 -0.0084048 -0.005883
0.0036827 -0.0019633 0.0013876 -0.0062085 -1.7897e-05 -0.0022294 0.010863 0.028186
-0.096102 0.1912 0.0065648 0.01838
-0.0032001 -0.0019237 -0.0006732 -0.0023368 0.0012294 -0.00020034 -0.0083985 -0.0058789
0.0065537 0.018373 -0.13338 0.27409
1040000000 0.0019406 0.30277 0.032967 0.015389 -0.0011818 0.006574 0.0024048 0.00056842
-2.9337e-05 -0.0030789 -0.00080101 -0.0013588
0.032942 0.015368 -0.16656 0.36231 0.027558 -0.015952 0.0013746 -0.0017422
-0.0025418 -0.0024462 -0.0016068 -0.002656
-0.0011572 0.0065665 0.02751 -0.016001 0.16775 0.29988 -0.00066944 -0.0014222
-0.0016162 -0.0007859 -0.00048766 -0.0009572
0.0024085 0.00054958 0.0013877 -0.0017333 -0.0006673 -0.0014272 -0.037431 0.28737
0.021187 0.015272 -0.0026572 0.0012603
-5.9104e-05 -0.003087 -0.0025132 -0.0024312 -0.0016186 -0.00079321 0.021233 0.015259
-0.063882 0.19737 0.013946 0.015577
-0.00079948 -0.0013497 -0.0016194 -0.0026239 -0.00048202 -0.00096548 -0.0026624 0.0012722
0.01394 0.015574 -0.10783 0.29376
1100000000 0.047382 0.3085 0.034237 -0.0062722 0.0026266 0.0035748 0.0021961 -0.0010753
-0.0021369 -0.0027819 -0.0036325 0.00048718
0.03422 -0.0062534 -0.12302 0.3782 0.013179 -0.027813 -9.4414e-05 -0.0018244
-0.0034284 -0.00050644 -0.0034235 -0.00022723
0.0026398 0.0035644 0.013115 -0.027854 0.21483 0.27726 -0.0018083 0.00023709
-0.0017909 0.00074213 -0.00092081 -0.00015242
0.0021872 -0.0010826 -9.5596e-05 -0.0018214 -0.0018088 0.00023536 0.0041309 0.28979
0.02474 0.0018312 -0.0025014 4.1895e-05
-0.002118 -0.002797 -0.0034116 -0.00050176 -0.0017932 0.00073124 0.02473 0.0018365
-0.04428 0.20863 0.01853 0.0057894
-0.0036214 0.00049041 -0.0034222 -0.000212 -0.0009204 -0.00016185 -0.0025034 6.5339e-05
0.018553 0.0057743 -0.060728 0.31664
1160000000 0.098035 0.30228 0.021639 -0.021806 0.0021815 -0.00033651 -5.0893e-05 -0.0020747
-0.0038909 -0.00045069 -0.00052973 0.003815
0.021656 -0.021785 -0.07867 0.38199 -0.0053453 -0.028027 -0.0016938 -0.0015399
-0.0025888 0.0025857 -0.001264 0.0018106
0.0021922 -0.00034593 -0.0054389 -0.028008 0.25704 0.24436 -0.00067884 0.0017827
-0.00029911 0.0019116 -0.00075256 0.00026664
-5.4842e-05 -0.0020861 -0.0016842 -0.0015236 -0.0006765 0.0017802 0.043469 0.28463
0.019706 -0.013049 -0.0031074 0.0044403
-0.0038794 -0.00043829 -0.0025547 0.0025998 -0.00031828 0.0018939 0.019713 -0.013066
-0.011462 0.2156 0.016685 -0.002303
-0.0005059 0.0038241 -0.0012613 0.0018286 -0.00075314 0.00027366 -0.0030875 0.0044534
0.016672 -0.0022998 -0.014295 0.31702
1220000000 0.14284 0.28926 0.0077924 -0.029552 -0.0016095 -0.0002425 0.00012365 -0.00097088
-0.0023733 0.0023242 0.0014074 0.0018152
0.0078208 -0.029527 -0.034245 0.39257 -0.017446 -0.019497 -0.0024468 0.00046367
0.00023935 0.0029281 -0.00045682 0.0018838
-0.0016017 -0.00024285 -0.017516 -0.019451 0.29547 0.2037 0.00086823 0.0017501
0.00072803 0.0011448 0.00040212 0.00048635
0.00012598 -0.00097371 -0.0024395 0.00047385 0.00086476 0.0017537 0.083812 0.27372
0.0085008 -0.018791 0.0013652 0.0015108
-0.0023672 0.0023263 0.00023442 0.0029309 0.00071048 0.0011449 0.00848 -0.018807
0.012847 0.22219 0.011482 -0.013684
0.0014134 0.0018235 -0.00045485 0.001894 0.00040577 0.00049095 0.0013612 0.0015087
0.011492 -0.013707 0.019735 0.32813
1280000000 0.19145 0.26559 -0.0096902 -0.026791 -0.0015354 0.0029203 -0.00094996 -0.0020004
-0.00059786 0.0029176 0.0023284 0.00079888
-0.0096491 -0.026765 0.01155 0.38256 -0.023413 -0.0070826 -0.00089548 0.001415
0.0017885 0.0016106 0.00078748 0.0017148
-0.0015225 0.0029235 -0.02344 -0.007006 0.3244 0.1583 0.0016684 -5.1426e-05
0.0011541 0.00011678 0.00021385 0.00015297
-0.00095262 -0.0019945 -0.00090152 0.0014162 0.0016655 -5.2389e-05 0.11961 0.2545
-0.001471 -0.019742 -0.00051028 0.00048535
-0.00057336 0.0029162 0.0018101 0.0016063 0.0011512 0.00013758 -0.0014996 -0.01975
0.049037 0.22325 0.0010136 -0.015167
0.0023289 0.00079554 0.00080184 0.0017091 0.00021346 0.0001538 -0.00051149 0.00048999
0.0010113 -0.015191 0.065305 0.32538
1340000000 0.22794 0.23051 -0.018374 -0.016607 0.0014761 0.0043602 -0.0017534 -0.00088954
0.0014559 0.0024972 0.0014728 -0.0014654
-0.018339 -0.016606 0.051008 0.37308 -0.020608 0.0052402 -8.5695e-05 0.0020086
0.0019319 0.00052736 0.0013039 0.00061573
0.0014871 0.0043423 -0.020596 0.0053101 0.34483 0.1102 0.0012036 -0.0010487
0.00057735 -0.00046906 7.6757e-05 0.00023174
-0.0017498 -0.00088918 -7.3093e-05 0.0020062 0.0012004 -0.0010441 0.15089 0.23226
-0.01067 -0.015807 0.00056601 0.0011768
0.001474 0.0024804 0.0019266 0.00051932 0.00056676 -0.00049158 -0.010704 -0.015806
0.078635 0.21687 -0.005637 -0.012826
0.001464 -0.0014739 0.0013088 0.00061152 7.2627e-05 0.00022928 0.00057217 0.0011757
-0.0056455 -0.012845 0.10393 0.31686
1400000000 0.25986 0.1909 -0.022652 -0.0052442 0.0054336 0.0026847 -0.0021363 0.00066078
0.0023172 0.00077315 0.00012106 -0.001359
-0.022621 -0.0052441 0.087693 0.35906 -0.013632 0.012633 0.0013492 0.0013
0.0010882 -0.000932 0.0010644 7.6715e-05
0.0054458 0.0026658 -0.01359 0.012689 0.35719 0.056467 5.8453e-05 -0.0018709
2.2689e-05 -0.0003842 0.00035347 0.00018922
-0.0021378 0.00066325 0.0013583 0.0012932 5.4136e-05 -0.0018713 0.17902 0.2013
-0.015918 -0.0085661 -0.00028802 0.00050236
0.0023299 0.00075608 0.0010869 -0.00094482 2.1871e-05 -0.00038889 -0.015949 -0.0085454
0.11078 0.21 -0.011187 -0.0073677
0.00011834 -0.0013713 0.0010678 6.5375e-05 0.00035273 0.00018929 -0.00028492 0.00050073
-0.011199 -0.0073775 0.14634 0.30186
1460000000 0.28124 0.1462 -0.018913 0.0060684 0.0055236 -0.0023158 -0.0015341 0.0017459
0.0019876 -0.00065554 -0.00043253 -0.00085506
-0.018906 0.0060598 0.12135 0.33642 -0.0051948 0.014881 0.0017407 0.00011266
0.00065385 -0.0013064 0.00099827 -0.00058429
0.0055185 -0.0023279 -0.0051439 0.01491 0.36175 0.00227 -0.001523 -0.0013048
0.00010728 -0.00016809 0.00062645 -0.00027898
-0.0015247 0.0017496 0.001755 0.00010064 -0.0015275 -0.0013012 0.20288 0.17079
-0.01642 -0.0014696 -0.0001031 0.0021268
0.0019859 -0.00067391 0.00065338 -0.0013058 0.00010818 -0.00018045 -0.016442 -0.0014219
0.13892 0.19363 -0.012081 -0.001356
-0.00043318 -0.00084611 0.0010028 -0.00059521 0.0006213 -0.00027083 -0.00010611 0.0021075
-0.012078 -0.0013764 0.1782 0.27877
1520000000 0.29243 0.10338 -0.012803 0.010719 0.0029619 -0.0043331 0.00014449 0.0026439
0.0018835 -0.001708 -0.0010617 -1.677e-05
-0.012814 0.010699 0.15433 0.32095 0.001949 0.01247 0.0016351 -0.00089608
-8.2111e-05 -0.00097077 0.00025049 -0.00090097
0.0029382 -0.0043297 0.0019959 0.012462 0.3548 -0.053897 -0.0013411 -0.00021709
0.00052106 -0.00082195 -2.1036e-05 -0.00016387
0.00015441 0.0026421 0.0016387 -0.00089812 -0.001341 -0.00022062 0.22376 0.13233
-0.01489 0.004312 0.0020055 0.0017851
0.0018543 -0.0017243 -8.4315e-05 -0.0009801 0.00050915 -0.00083207 -0.014898 0.0043563
0.16634 0.1779 -0.011426 0.003014
-0.0010635 -1.4066e-05 0.00024443 -0.00090463 -2.2754e-05 -0.00016121 0.0020111 0.0017808
-0.011415 0.0030148 0.20986 0.25523
1580000000 0.30014 0.056687 -0.0064255 0.012868 -0.0011368 -0.0047322 0.0016189 0.0018759
-0.00022312 -0.0020468 -0.0002525 0.0003726
-0.0064315 0.012849 0.18087 0.29544 0.005234 0.0076889 0.00041085 -0.0016768
-0.00052462 -0.0008861 -0.00021626 -0.00076183
-0.0011503 -0.0047244 0.0052637 0.0076728 0.3341 -0.1116 -0.0016073 0.00099503
-0.00030482 -0.0010693 0.00021008 -0.00055115
0.0016172 0.0018676 0.00040126 -0.0016775 -0.0016077 0.0009858 0.23502 0.092785
-0.010921 0.0087427 0.0025176 0.00020627
-0.00022964 -0.0020443 -0.00053426 -0.00087923 -0.00031623 -0.0010858 -0.010898 0.0087645
0.18947 0.1578 -0.008592 0.0079599
-0.00025047 0.00037452 -0.00022249 -0.00076398 0.00020396 -0.00055526 0.0025181 0.00019722
-0.0086012 0.0079696 0.23901 0.2264
1640000000 0.30067 0.015033 -0.00034365 0.011145 -0.002829 -0.0024573 0.0028188 0.00078946
-0.00078239 -0.0014425 -0.00020552 0.00051917
-0.00035083 0.011131 0.2097 0.26996 0.0056979 0.0032257 -0.00086103 -0.0016625
-0.00092682 -0.00028627 -0.00051504 -0.00057428
-0.0028374 -0.0024524 0.0057156 0.0032067 0.30473 -0.16023 -0.00047257 0.001575
-0.0011573 -0.00075352 -0.00019095 -0.00025794
0.00282 0.00077878 -0.00086565 -0.0016605 -0.00048156 0.0015739 0.24482 0.045274
-0.006409 0.00976 0.0024406 -0.001286
-0.000795 -0.0014456 -0.00093531 -0.00028214 -0.0011859 -0.0007576 -0.0063824 0.0097831
0.21074 0.13194 -0.0038276 0.0095632
-0.00019925 0.00052147 -0.00052039 -0.00057326 -0.00019197 -0.00025519 0.0024394 -0.001299
-0.0038323 0.009569 0.26259 0.1937
1700000000 0.29172 -0.030513 0.0024077 0.0081116 -0.0034008 0.00011149 0.0028855 -0.0014751
-0.0019492 -0.00064095 0.0006568 0.000342
0.002401 0.0081054 0.22722 0.23819 0.0037804 0.00043235 -0.0014951 -0.00043482
-0.00066346 0.00010955 -0.00087741 -0.00039718
-0.0033997 0.00011985 0.0037756 0.00041717 0.26164 -0.20026 0.00070649 0.0013542
-0.0017648 -0.00013444 -0.00063543 -0.00079587
0.0028813 -0.0014779 -0.0014918 -0.00042974 0.00070612 0.0013615 0.24026 -0.0028899
-0.0034029 0.0099484 0.0012733 -0.0023873
-0.0019616 -0.00062302 -0.00067157 0.00010979 -0.0017613 -9.9909e-05 -0.0033898 0.0099576
0.22658 0.10992 0.0007001 0.009615
0.00065639 0.00034412 -0.00087835 -0.00039109 -0.00064256 -0.00080019 0.0012697 -0.0023857
0.00070797 0.0096186 0.27691 0.15802
1760000000 0.278 -0.078578 0.0039372 0.0049868 -0.0023508 0.00086104 0.00089287 -0.0035158
-0.0013644 0.00072256 0.0004042 -0.00048628
0.0039326 0.004977 0.25232 0.19774 0.0015884 -0.0013958 -0.001185 0.00031533
-0.00092385 0.00078011 -0.00059197 0.00044157
-0.0023411 0.00086948 0.0015806 -0.0014057 0.21237 -0.23383 0.0012357 0.00072401
-0.0011113 0.0015042 -0.0013054 -0.00022069
0.00087926 -0.0035113 -0.0011835 0.00031359 0.0012372 0.00072917 0.23024 -0.051927
-0.00022114 0.0088907 -0.0005869 -0.0025661
-0.0013521 0.00072566 -0.00093706 0.00078867 -0.0011143 0.0015176 -0.00020805 0.0088839
0.23929 0.073393 0.0042666 0.0067362
0.00039695 -0.00048963 -0.00058694 0.00044634 -0.0013006 -0.00020727 -0.00058105 -0.002564
0.0042614 0.0067193 0.28723 0.11935
1820000000 0.25214 -0.11513 0.0037459 0.0018781 -0.0001177 0.0024943 -0.0013676 -0.0027656
-0.0010382 0.0010601 -8.4907e-05 -0.00015854
0.0037378 0.0018773 0.26154 0.16775 -0.00038687 -0.00020482 -0.0011357 0.0010198
-6.0274e-05 0.0011854 -0.00049995 0.00053044
-0.00010872 0.0024882 -0.000382 -0.00020086 0.16169 -0.24911 0.0012249 0.0001356
-9.9535e-05 0.0020986 -0.0013409 0.00055416
-0.0013798 -0.0027615 -0.0011307 0.0010249 0.001225 0.00014183 0.2009 -0.096727
0.0012966 0.0071646 -0.0017806 -0.0014479
-0.0010442 0.0010536 -5.1542e-05 0.0011873 -9.5686e-05 0.002109 0.0013121 0.0071756
0.25422 0.043312 0.0051033 0.0031539
-9.2229e-05 -0.00016283 -0.00050607 0.00053546 -0.0013425 0.00055214 -0.0017785 -0.0014381
0.005104 0.0031601 0.28748 0.082001
1880000000 0.21578 -0.15456 0.0013502 4.6895e-05 -0.00043792 0.0021223 -0.0029293 -0.0017823
-0.00016309 0.0017417 7.5222e-05 -0.00029735
0.0013532 4.8585e-05 0.26538 0.12085 -0.0025015 0.0015799 4.8038e-06 0.0016018
0.00050604 0.0010834 0.00015027 0.00096832
-0.00043418 0.0021182 -0.0024932 0.0015968 0.1086 -0.25904 0.0014113 -0.0009768
0.001461 0.0016438 -0.00074016 0.0014647
-0.0029312 -0.0017735 8.5954e-06 0.0016019 0.0014111 -0.00097948 0.1617 -0.13616
0.0020048 0.0049298 -0.0023654 0.00041417
-0.00015145 0.0017586 0.00050261 0.0010815 0.0014889 0.0016598 0.0020243 0.0049119
0.25471 0.009436 0.0046647 0.0010026
6.9083e-05 -0.00029521 0.00015776 0.00096417 -0.00073297 0.0014629 -0.0023659 0.00042142
0.004667 0.0010055 0.28495 0.047387
1940000000 0.17567 -0.17936 -0.00078053 -0.0010867 0.0015676 0.0020408 -0.0035314 0.00080744
0.0014727 0.0011347 -0.00048324 -0.00043587
-0.00077363 -0.0010882 0.26486 0.089358 -0.0012724 0.0039811 0.0010063 0.001119
0.0016384 0.00052513 0.00086558 0.00044545
0.0015698 0.0020382 -0.0012438 0.003983 0.062106 -0.25179 0.00017753 -0.0016611
0.0022383 0.00038745 0.00045834 0.0016893
-0.0035338 0.00082193 0.0010093 0.001118 0.00017412 -0.0016448 0.11049 -0.16607
0.0012117 0.0034415 -0.0014932 0.0015434
0.0014637 0.0011159 0.0016398 0.00050859 0.0022521 0.00037184 0.0011975 0.0034249
0.25398 -0.029931 0.003358 -0.0018708
-0.00048578 -0.0004295 0.00087375 0.00043744 0.0004712 0.0016968 -0.0014844 0.0015395
0.0033306 -0.0018927 0.272 0.010797
2000000000 0.12912 -0.19336 -0.0043486 0.0012057 0.002556 0.0014909 -0.0020242 0.0033215
0.0012683 3.2327e-05 -0.00048858 0.00042163
-0.0043507 0.0012036 0.25044 0.053898 -0.001003 0.0059082 0.0015612 0.00020504
0.0013027 -0.0011292 0.00044316 1.2393e-05
0.0025542 0.0014777 -0.00097698 0.0059057 0.01831 -0.23671 -0.00091423 -0.00096828
0.0019047 -0.0010462 0.0017376 0.0010326
-0.0020042 0.0033282 0.0015716 0.00018771 -0.00090953 -0.00096493 0.058124 -0.17692
-0.00046934 0.0028277 -2.2559e-05 0.0021729
0.0012901 3.0311e-05 0.0012987 -0.0011471 0.001887 -0.0010818 -0.00046298 0.0028302
