!Keysight Technologies,M9804A,MY58100912,A.14.10.03
!Date: Thursday, April 27, 2023 10:28:33
!Correction: S11(C  6-Port  ) 
!S12(C  6-Port  ) 
!S13(C  6-Port  ) 
!S14(C  6-Port  ) 
!S15(C  6-Port  ) 
!S16(C  6-Port  ) 
!S21(C  6-Port  ) 
!S22(C  6-Port  ) 
!S23(C  6-Port  ) 
!S24(C  6-Port  ) 
!S25(C  6-Port  ) 
!S26(C  6-Port  ) 
!S31(C  6-Port  ) 
!S32(C  6-Port  ) 
!S33(C  6-Port  ) 
!S34(C  6-Port  ) 
!S35(C  6-Port  ) 
!S36(C  6-Port  ) 
!S41(C  6-Port  ) 
!S42(C  6-Port  ) 
!S43(C  6-Port  ) 
!S44(C  6-Port  ) 
!S45(C  6-Port  ) 
!S46(C  6-Port  ) 
!S51(C  6-Port  ) 
!S52(C  6-Port  ) 
!S53(C  6-Port  ) 
!S54(C  6-Port  ) 
!S55(C  6-Port  ) 
!S56(C  6-Port  ) 
!S61(C  6-Port  ) 
!S62(C  6-Port  ) 
!S63(C  6-Port  ) 
!S64(C  6-Port  ) 
!S65(C  6-Port  ) 
!S66(C  6-Port  ) 
!S6P File: Measurement: :
# Hz S  RI   R 50
500000000 -0.33928 -0.016485 -0.010734 -0.003291 -0.007093 0.012316 -0.0031307 0.011869
0.011283 0.003643 -0.0025456 0.0077513
-0.010729 -0.0032955 -0.41973 -0.034838 0.0063087 -0.011865 0.0018389 0.012316
0.006853 0.0023816 0.0020434 0.013388
-0.0070824 0.01231 0.0062873 -0.011881 -0.2625 0.22351 0.0071911 0.0036297
-0.0004028 0.0083749 0.0024739 0.01211
-0.0031377 0.011862 0.0018538 0.012314 0.0071879 0.0036308 -0.33064 0.063454
-0.018976 -0.0066681 0.015007 0.023188
0.011268 0.0036147 0.0068493 0.0023792 -0.00040083 0.0083594 -0.018976 -0.0066581
-0.23762 -0.16185 -0.024398 0.0039098
-0.0026364 0.007752 0.0020883 0.013336 0.0025113 0.012044 0.015057 0.023133
-0.024476 0.0038859 -0.28584 -0.077312
560000000 -0.31092 0.13832 -0.02677 -0.060093 0.00085173 0.011346 0.0054861 0.0096379
0.0089414 0.0039163 0.010277 0.0061909
-0.026737 -0.060011 -0.37501 0.11912 -0.042188 -0.034687 0.013548 0.003058
-0.012315 -0.0036301 0.0032189 -0.0010428
0.00084582 0.011358 -0.042229 -0.034638 -0.17966 0.26772 -0.00039532 -0.0043157
0.018477 0.0032479 0.0070497 -0.0066936
0.0055007 0.0096199 0.013533 0.0030732 -0.00037987 -0.0043089 -0.30406 0.14875
0.00032966 -0.024265 0.0030905 -0.018189
0.0089318 0.0039016 -0.01236 -0.0035788 0.018486 0.003206 0.00032259 -0.024262
-0.28713 0.010979 0.0025655 -0.04629
0.010303 0.0061847 0.0032033 -0.0010852 0.0070541 -0.0066689 0.0030868 -0.018234
0.0025802 -0.046306 -0.32975 0.061682
620000000 -0.26972 0.12375 -0.023217 0.0069697 0.0037111 0.0080238 0.0071497 -0.0057298
0.011041 -0.001405 0.00068418 -0.0025544
-0.023201 0.0069543 -0.40106 0.074779 -0.019444 0.0001867 -0.0010303 -0.0021146
0.0099997 -0.0068235 0.0013643 -0.0030442
0.0036996 0.008009 -0.019448 0.00022962 -0.14866 0.27692 -0.0012579 -0.0044974
-0.0034887 -0.0033668 0.0079403 -0.0037256
0.0071329 -0.005718 -0.0010304 -0.0021148 -0.0012261 -0.0044969 -0.26259 0.16087
-0.03867 -0.017154 0.012036 0.022663
0.011056 -0.0014389 0.00999 -0.0068351 -0.0035409 -0.0033398 -0.038691 -0.01714
-0.21213 -0.026925 -0.037928 0.014453
0.00060278 -0.0025971 0.0013795 -0.0030356 0.0080582 -0.0036499 0.011993 0.022725
-0.037933 0.014358 -0.2569 0.033942
680000000 -0.22661 0.20519 -0.027816 -0.012091 0.0052998 0.0045292 0.00090865 -0.0073329
-0.0033036 -0.011051 0.00365 -0.0066021
-0.027786 -0.012093 -0.38397 0.16866 -0.032323 0.000541 -0.0014668 -0.00053512
-0.0027002 -0.0088279 -0.0016453 -0.0019649
0.0053076 0.0045263 -0.032336 0.00059407 -0.098209 0.29512 -0.00073996 -0.00028161
-0.0018026 0.00028135 -0.0036133 -0.0083803
0.00089575 -0.0073306 -0.0014649 -0.00053004 -0.00073661 -0.00028054 -0.21684 0.2082
-0.025456 -0.0053797 -0.0087883 -0.008119
-0.003323 -0.011067 -0.002707 -0.0088256 -0.0017946 0.00028258 -0.025471 -0.0053597
-0.24917 0.069959 -0.0069319 -0.0066283
0.0036578 -0.0065851 -0.0016512 -0.0019698 -0.0036256 -0.0083845 -0.0088153 -0.0081571
-0.0069365 -0.0066454 -0.25282 0.1287
740000000 -0.18354 0.19995 -0.036682 0.026306 0.011567 -0.00583 -0.00082329 -0.0040215
-0.0051468 -0.0023538 -0.0058046 0.0032239
-0.036629 0.026257 -0.33245 0.18793 -0.032422 0.035137 -0.0010803 -0.0060653
-0.010852 0.0080302 -0.002113 -0.0045157
0.011562 -0.0058568 -0.032375 0.035229 -0.064419 0.29459 -0.0016112 0.0029563
-0.0033359 -0.0039179 -0.0018542 0.00072855
-0.00081855 -0.0040155 -0.0011064 -0.0060755 -0.0016133 0.0029626 -0.19844 0.21669
-0.041833 -0.0036085 0.02145 0.011967
-0.0051953 -0.0023373 -0.010853 0.0080641 -0.0033128 -0.0039397 -0.041862 -0.0035764
-0.15739 0.089879 -0.038297 0.0031127
-0.0058127 0.0032098 -0.0021102 -0.0044935 -0.0019185 0.00070157 0.021449 0.012008
-0.038358 0.0030287 -0.24049 0.13845
800000000 -0.15006 0.23705 -0.02143 0.017797 0.0043938 -0.010296 -0.0043827 -0.0017612
-0.0035574 0.0028485 0.0036697 0.00085426
-0.021441 0.017763 -0.33241 0.25669 -0.006438 0.033593 -0.0022158 0.0023785
-0.00042651 0.0035166 0.0011412 0.0054378
0.0043724 -0.010296 -0.0063654 0.033604 -0.02156 0.31642 0.00086837 0.0015865
0.00048594 0.0034669 -0.0018538 0.0013909
-0.0043702 -0.0017567 -0.0022218 0.0023992 0.00087996 0.0015912 -0.16864 0.24288
-0.02668 0.016099 0.012042 -0.0099801
-0.0035658 0.0028461 -0.00043492 0.00352 0.00049156 0.0034623 -0.026673 0.016151
-0.19365 0.11714 -0.01571 0.018396
0.0036792 0.00084113 0.0011304 0.0054277 -0.0018542 0.0013944 0.012037 -0.0099937
-0.015725 0.018389 -0.22802 0.1838
860000000 -0.11511 0.2571 -0.015776 0.030938 -0.0039266 -0.0093446 -0.0021816 0.0012531
0.0045941 0.0045349 -0.0024603 -0.0024842
-0.015777 0.030907 -0.28474 0.29726 0.0094099 0.032875 0.00026802 0.0019848
0.0047315 6.4055e-05 0.0032946 0.0004615
-0.0039419 -0.0093281 0.0094855 0.032856 0.027208 0.32313 -0.00024164 -0.00011244
0.002558 -0.0013215 0.0017268 0.0040516
-0.00219 0.0012604 0.00026845 0.0020004 -0.00023908 -0.00011433 -0.13162 0.2538
-0.015207 0.02088 -0.0055781 -0.0090582
0.0045987 0.004525 0.0047269 5.2191e-05 0.0025584 -0.0013173 -0.015187 0.020914
-0.14168 0.16205 -0.020878 0.016309
-0.0024581 -0.0024826 0.0033314 0.00043024 0.0017195 0.0040387 -0.0055758 -0.0090731
-0.020839 0.016257 -0.1784 0.22295
920000000 -0.088301 0.27862 0.0063774 0.036647 -0.0091988 -0.0036542 -0.0013962 0.0019362
0.0016168 0.0014581 0.0027079 -0.0017761
0.0063521 0.036641 -0.25431 0.31766 0.028136 0.019992 0.0018497 0.0009169
0.0067297 -0.00080623 0.0036134 -0.0030127
-0.0091981 -0.0036311 0.028204 0.019935 0.074523 0.32279 0.0019651 -0.00012126
0.001475 -0.00063851 0.00085604 -0.0010665
-0.0014007 0.0019441 0.0018678 0.00093817 0.0019587 -0.00011019 -0.10533 0.26929
-0.0072518 0.030583 0.0022563 -0.0061531
0.0016343 0.0014698 0.00672 -0.00082746 0.001472 -0.00064157 -0.007205 0.030619
-0.12812 0.16832 -0.00047408 0.025414
0.0026981 -0.0018038 0.0036116 -0.003049 0.00089934 -0.0010762 0.0022982 -0.0061525
-0.00047429 0.025408 -0.17674 0.23784
980000000 -0.041 0.29656 0.018721 0.028392 -0.0082557 0.0048486 0.0020531 0.0031706
0.0037992 -0.0019341 -0.003112 -0.0019737
0.018686 0.028396 -0.20219 0.35001 0.03225 0.0030403 0.001949 -0.00029233
0.0013428 -0.0061259 -0.00058831 -0.002283
-0.0082561 0.0048695 0.03227 0.0029438 0.12128 0.31477 0.00045675 -0.0012752
9.8639e-05 -0.0022599 0.0014188 -0.00028404
0.0020623 0.0031616 0.0019501 -0.00028209 0.00045543 -0.0012817 -0.066253 0.27877
0.010863 0.027993 -0.0084853 -0.0060192
0.0038012 -0.0019558 0.0013176 -0.0061572 8.1664e-05 -0.0022584 0.01092 0.02799
-0.095706 0.19241 0.0062539 0.018118
-0.0031013 -0.0019734 -0.00059654 -0.0022848 0.0014098 -0.00028364 -0.0084856 -0.0059977
0.0062609 0.018132 -0.13269 0.27585
1040000000 0.002523 0.30336 0.032943 0.015617 -0.00094187 0.0065745 0.0024719 0.00042524
-2.5307e-05 -0.0032218 -0.00073426 -0.0013411
0.032927 0.015638 -0.16593 0.36278 0.02743 -0.01566 0.0013621 -0.0018395
-0.0023523 -0.0023679 -0.0015624 -0.0026337
-0.00093289 0.0065786 0.027389 -0.015754 0.16798 0.29961 -0.00065465 -0.001454
-0.0015858 -0.00085885 -0.00043678 -0.0010864
0.0024697 0.00042354 0.001378 -0.0018376 -0.00064995 -0.0014513 -0.037149 0.28732
0.020795 0.015343 -0.0027549 0.0014002
-4.0903e-05 -0.0032196 -0.0023938 -0.0023847 -0.0015915 -0.00086517 0.020844 0.015318
-0.063599 0.19822 0.013747 0.015674
-0.00071806 -0.0013328 -0.0015885 -0.0026297 -0.00041718 -0.0010811 -0.0027399 0.0014293
0.013736 0.015696 -0.10629 0.29479
1100000000 0.047979 0.3092 0.034268 -0.0059642 0.0027665 0.0035547 0.0022164 -0.0010894
-0.0021361 -0.0026958 -0.0034432 0.00049
0.034247 -0.0059377 -0.12253 0.37865 0.013217 -0.027384 -0.00011832 -0.0017603
-0.0032989 -0.00041748 -0.0032043 -0.00022466
0.0027778 0.0035514 0.013147 -0.027442 0.2145 0.27729 -0.0017906 0.0002255
-0.0017444 0.00062842 -0.00088868 -0.00022017
0.0022139 -0.0010992 -0.00012069 -0.0017542 -0.0017857 0.00022326 0.0041312 0.28997
0.024256 0.0022085 -0.0023837 0.00034365
-0.0021497 -0.0026781 -0.0033188 -0.00041434 -0.0017457 0.00062715 0.02427 0.0021836
-0.044171 0.2099 0.018332 0.0060979
-0.003414 0.00050905 -0.0032057 -0.00021788 -0.00090662 -0.00023687 -0.002396 0.00033376
0.018317 0.0061128 -0.05961 0.31746
1160000000 0.099088 0.30275 0.021879 -0.02141 0.0023953 -0.00041883 -9.6455e-05 -0.0021353
-0.0038888 -0.0004523 -0.00056644 0.0036529
0.021878 -0.021364 -0.077752 0.38212 -0.0050171 -0.027748 -0.0017162 -0.0014787
-0.002463 0.0024207 -0.0012816 0.0017084
0.0023819 -0.00041956 -0.0051027 -0.027761 0.25698 0.24462 -0.00068838 0.0017624
-0.00038953 0.0018419 -0.00085738 0.00013409
-9.9248e-05 -0.0021464 -0.0017123 -0.0014631 -0.00069108 0.0017607 0.043883 0.28476
0.019667 -0.012537 -0.0028001 0.0044301
-0.0038991 -0.00043356 -0.0024676 0.0024277 -0.00039087 0.001836 0.019661 -0.012548
-0.010514 0.21663 0.016621 -0.0021246
-0.00056463 0.0036534 -0.0012926 0.0017036 -0.00087276 0.00014615 -0.0027921 0.0044421
0.016618 -0.0021072 -0.012661 0.31758
1220000000 0.14369 0.28918 0.008153 -0.029279 -0.0014852 -0.00042765 4.896e-05 -0.00099154
-0.0023378 0.0023298 0.0013486 0.0017984
0.008159 -0.029239 -0.033792 0.39229 -0.017042 -0.019416 -0.0023834 0.00046506
0.00024265 0.0028034 -0.00048221 0.0018526
-0.0014919 -0.00041923 -0.017108 -0.019374 0.29536 0.20405 0.00083692 0.0017659
0.00063753 0.0012258 0.0003415 0.00051013
5.0462e-05 -0.00099332 -0.0023753 0.00048867 0.00083311 0.0017663 0.083961 0.27359
0.0087614 -0.018196 0.0016341 0.0014017
-0.002323 0.0023473 0.00025369 0.0028096 0.00064873 0.0012268 0.008749 -0.018201
0.013887 0.22291 0.011326 -0.013307
0.0013485 0.0017899 -0.00047901 0.0018469 0.00034138 0.00050041 0.001637 0.0013942
0.011332 -0.013296 0.020894 0.32827
1280000000 0.19224 0.26546 -0.0090985 -0.026719 -0.0014483 0.0027158 -0.001009 -0.0019606
-0.00053813 0.0028215 0.0023226 0.00077144
-0.0090823 -0.026699 0.01179 0.3824 -0.022996 -0.0072025 -0.00094697 0.0013872
0.0016533 0.0015647 0.00072448 0.0016967
-0.0014419 0.0027169 -0.023035 -0.0071257 0.32477 0.15909 0.0015924 -7.2927e-05
0.0010757 0.00015451 0.00020239 0.00015959
-0.0010106 -0.0019548 -0.00094324 0.0013851 0.0015946 -6.3665e-05 0.11974 0.25459
-0.00098225 -0.019373 -0.00039417 0.00041978
-0.00050751 0.0028251 0.0016567 0.0015632 0.0010808 0.00015164 -0.00099965 -0.019384
0.050059 0.22406 0.0010615 -0.014694
0.0023212 0.00075054 0.00075239 0.0017048 0.00021097 0.00015446 -0.00040292 0.0004198
0.0010671 -0.014676 0.06654 0.32588
1340000000 0.22867 0.2299 -0.017838 -0.016958 0.0013429 0.0041331 -0.001726 -0.00082143
0.0013963 0.00242 0.0013807 -0.0014148
-0.017804 -0.016972 0.051161 0.37286 -0.020406 0.0048927 -0.00012897 0.0019841
0.0018248 0.00061866 0.0012989 0.00060532
0.001346 0.0041282 -0.020397 0.0049791 0.34555 0.11051 0.0011351 -0.00096685
0.00054679 -0.00045832 9.5055e-05 0.00023611
-0.0017269 -0.00081015 -0.00011648 0.0019749 0.0011347 -0.00096391 0.15111 0.23211
-0.0099477 -0.015813 0.00067272 0.00097758
0.0014061 0.0024051 0.001833 0.00061136 0.00054736 -0.00045313 -0.0099741 -0.015807
0.080017 0.21705 -0.0052115 -0.012452
0.0013766 -0.0014206 0.0012908 0.00058997 0.00010264 0.00024529 0.00066533 0.00098193
-0.0051928 -0.012452 0.10544 0.31687
1400000000 0.26005 0.19041 -0.022395 -0.0058435 0.005151 0.0025732 -0.002051 0.00062131
0.0022848 0.00067408 9.5201e-05 -0.001337
-0.022361 -0.0058638 0.087513 0.35907 -0.013637 0.012207 0.0013023 0.0012951
0.0011176 -0.00083568 0.001063 9.2927e-05
0.0051567 0.0025547 -0.013598 0.012268 0.35795 0.056569 0.00015394 -0.0018018
8.5418e-05 -0.00037387 0.00034963 0.00016176
-0.0020402 0.00063966 0.0013093 0.0012887 0.00014786 -0.0018047 0.17886 0.20135
-0.015329 -0.0089415 -0.00033391 0.00036304
0.0022861 0.00066415 0.0011087 -0.00084651 8.7257e-05 -0.00037243 -0.015356 -0.0089353
0.11176 0.21005 -0.010688 -0.007319
0.00011033 -0.0013414 0.0010681 8.9621e-05 0.00034359 0.00015892 -0.00033332 0.00036664
-0.01068 -0.0073276 0.14765 0.30195
1460000000 0.28143 0.14581 -0.019061 0.0053619 0.0052808 -0.0022299 -0.0014937 0.0016837
0.0018873 -0.00062543 -0.00040071 -0.00079292
-0.01905 0.0053366 0.12144 0.33668 -0.005439 0.014546 0.0017345 0.00013213
0.00073987 -0.0012258 0.0010173 -0.00055508
0.0052639 -0.0022526 -0.0053943 0.014586 0.36267 0.0020215 -0.0014647 -0.0012978
0.0001047 -0.0001775 0.00059576 -0.00031859
-0.0014934 0.0016776 0.0017262 0.00013595 -0.0014613 -0.0012865 0.20298 0.17098
-0.016096 -0.0021853 -0.00023461 0.0019748
0.0018703 -0.00062453 0.00073758 -0.0012383 0.00010644 -0.00018699 -0.016125 -0.0021635
0.14027 0.19356 -0.011585 -0.0016072
-0.00040306 -0.00079621 0.0010083 -0.00058098 0.00059872 -0.00031217 -0.00023477 0.00196
-0.01157 -0.0016152 0.17963 0.2788
1520000000 0.29233 0.10306 -0.013291 0.01025 0.0027299 -0.0041207 0.00011372 0.0025486
0.0018272 -0.0016173 -0.0010766 3.8673e-07
-0.013281 0.010235 0.15446 0.32107 0.0015875 0.012375 0.0016407 -0.0008556
-1.6959e-06 -0.00099597 0.00025249 -0.00088278
0.0027183 -0.0041412 0.0016359 0.012366 0.35518 -0.0546 -0.0013245 -0.00021352
0.00047775 -0.00082362 -1.2216e-05 -0.00012754
0.00011515 0.0025487 0.0016394 -0.00086687 -0.0013258 -0.00021141 0.22372 0.13238
-0.01501 0.0034599 0.0018559 0.0017483
0.0018228 -0.0016234 -1.5983e-05 -0.0010021 0.00047996 -0.00083563 -0.015019 0.0035038
0.1674 0.17731 -0.011139 0.0025794
-0.0010753 -2.2497e-06 0.00024604 -0.00088579 -6.0925e-06 -0.00013729 0.001859 0.0017412
-0.011138 0.0025623 0.21117 0.2548
1580000000 0.30007 0.05678 -0.0070831 0.012684 -0.0011615 -0.0044902 0.001517 0.001856
-0.00019761 -0.0019477 -0.00023959 0.00038757
-0.0070891 0.012668 0.18117 0.29584 0.004883 0.0077903 0.00039861 -0.0016758
-0.00052852 -0.00097649 -0.000223 -0.00076677
-0.0011828 -0.0044805 0.0049209 0.0077659 0.33411 -0.11205 -0.001597 0.00091205
-0.00028792 -0.0010682 0.00013847 -0.00053552
0.0015101 0.0018527 0.00038931 -0.0016767 -0.0016032 0.00090165 0.23523 0.093246
-0.011489 0.0081978 0.0023332 0.0002106
-0.0002066 -0.0019543 -0.00054297 -0.00096969 -0.00028861 -0.0010571 -0.011488 0.0082356
0.19022 0.15747 -0.0085746 0.0074348
-0.00023582 0.00038814 -0.00022455 -0.00076646 0.00012711 -0.00051742 0.0023188 0.00019921
-0.0085751 0.0074262 0.24022 0.22612
1640000000 0.30099 0.014978 -0.00097499 0.011378 -0.0026849 -0.0022789 0.0026521 0.00085053
-0.00074325 -0.0014308 -0.00016877 0.00056674
-0.00097653 0.011372 0.21034 0.27002 0.0054851 0.003436 -0.00086421 -0.0016375
-0.0010329 -0.000324 -0.00050369 -0.00054271
-0.0026874 -0.0022776 0.0055038 0.0034089 0.30478 -0.16078 -0.00059668 0.001615
-0.0011638 -0.00071139 -0.00013278 -0.00019301
0.0026564 0.00085029 -0.00087628 -0.0016431 -0.00060894 0.0016198 0.24536 0.045346
-0.0072156 0.0096784 0.0023109 -0.0012088
-0.00075547 -0.0014267 -0.0010416 -0.00031879 -0.0011733 -0.00070051 -0.0072092 0.0097018
0.21152 0.1313 -0.0040336 0.0091088
-0.00017097 0.00057409 -0.00051283 -0.00053617 -0.00013519 -0.00020563 0.0023038 -0.0012147
-0.0040359 0.0091191 0.26394 0.19289
1700000000 0.29201 -0.030523 0.0020076 0.0086621 -0.0033002 0.00028807 0.0029215 -0.0013401
-0.0018977 -0.00065264 0.00065267 0.00032912
0.0020056 0.0086579 0.22765 0.2381 0.0036798 0.00069574 -0.0014658 -0.00044251
-0.00075229 0.00017517 -0.00085228 -0.00038733
-0.0033023 0.00030109 0.0036855 0.00067731 0.26122 -0.20055 0.00069247 0.0014503
-0.0017692 -0.00018584 -0.0005641 -0.00082625
0.0029168 -0.0013421 -0.0014593 -0.0004291 0.00068656 0.0014528 0.24068 -0.0029863
-0.0040839 0.010248 0.0012042 -0.0022057
-0.0019046 -0.00064532 -0.0007475 0.00018205 -0.0017713 -0.00017706 -0.0040697 0.010261
0.22691 0.10935 0.00028309 0.0092732
0.0006725 0.00032933 -0.0008539 -0.00038622 -0.0005899 -0.00083336 0.0011944 -0.0022089
0.00028926 0.0092792 0.27768 0.15692
1760000000 0.27853 -0.078821 0.0039317 0.0055916 -0.0021219 0.00090784 0.0010067 -0.0034611
-0.0013713 0.00068801 0.00045836 -0.00045819
0.003924 0.0055869 0.25299 0.19751 0.0016034 -0.0011467 -0.0011494 0.00029775
-0.00091049 0.00089106 -0.00056539 0.00048715
-0.0021202 0.00091764 0.0015983 -0.0011541 0.21231 -0.23411 0.001355 0.00080424
-0.0010865 0.0015648 -0.0012487 -0.00029769
0.00098851 -0.0034611 -0.0011457 0.00030741 0.0013486 0.00080541 0.23086 -0.052229
-0.00052812 0.0095184 -0.00052798 -0.0023418
-0.001375 0.00069087 -0.00089605 0.00089584 -0.0010788 0.0015798 -0.00051282 0.0095308
0.23986 0.073032 0.0037972 0.0066872
0.00045394 -0.0004668 -0.00056739 0.00048579 -0.0012296 -0.0002924 -0.00054149 -0.0023324
0.0037922 0.0066751 0.28822 0.11844
1820000000 0.25228 -0.11569 0.0039813 0.0023072 6.9566e-05 0.0023525 -0.0012382 -0.0028449
-0.0010317 0.0010473 -7.4649e-05 -0.0001029
0.0039713 0.0023115 0.26187 0.16709 -0.00021063 2.7749e-05 -0.0011142 0.00097356
5.1213e-05 0.0012583 -0.00047028 0.00055439
8.4054e-05 0.0023483 -0.00020442 2.482e-05 0.16131 -0.24916 0.0013558 2.3382e-05
-0.00013244 0.0021644 -0.0012667 0.0005548
-0.0012369 -0.0028449 -0.001118 0.00097615 0.0013631 1.8259e-05 0.20103 -0.097482
0.0013705 0.0076653 -0.0015562 -0.0012876
-0.0010223 0.0010575 5.6401e-05 0.0012575 -0.00011932 0.0021814 0.0013824 0.0076776
0.25462 0.042677 0.0046249 0.0033363
-7.9585e-05 -0.00011382 -0.00047107 0.0005507 -0.0013069 0.00052895 -0.0015612 -0.0012741
0.0046396 0.0033411 0.28782 0.080619
1880000000 0.21569 -0.15503 0.001729 0.00030218 -0.00037062 0.0018735 -0.0029814 -0.001849
-0.00021048 0.0017456 0.00022539 -0.00039623
0.0017223 0.00029699 0.2655 0.12041 -0.0022573 0.0016533 -6.3738e-05 0.0015869
0.00064364 0.0010126 0.00020009 0.00090873
-0.00036654 0.001875 -0.0022476 0.0016685 0.10823 -0.25881 0.0013608 -0.001037
0.001523 0.0015415 -0.00071903 0.0013249
-0.0029823 -0.0018338 -5.0358e-05 0.0015884 0.001354 -0.001032 0.16155 -0.13656
0.0022432 0.0053126 -0.0021604 0.00044371
-0.0001853 0.0017535 0.00063972 0.0010029 0.0015347 0.0015336 0.0022646 0.0053161
0.25512 0.0091544 0.004379 0.0013141
0.00021524 -0.00040266 0.00021472 0.00089863 -0.00073196 0.001344 -0.0021642 0.00042421
0.0043761 0.0013163 0.28515 0.046429
1940000000 0.17558 -0.18004 -0.0003705 -0.0010633 0.0014761 0.001836 -0.0034227 0.00075253
0.0014978 0.0011404 -0.0006802 -0.00054834
-0.00036711 -0.0010705 0.26499 0.088696 -0.00098395 0.003925 0.00096535 0.0011503
0.0016303 0.00035935 0.0008072 0.00034196
0.0014773 0.0018297 -0.00095839 0.0039304 0.062247 -0.25151 9.1875e-05 -0.001633
0.0022459 0.0002669 0.00042233 0.0015697
-0.0034166 0.00076061 0.0009728 0.0011343 0.00010308 -0.0016335 0.11019 -0.16668
0.0014583 0.0034892 -0.0014296 0.0014355
0.0015203 0.0011358 0.00163 0.00034828 0.0022302 0.00026435 0.0014685 0.0034946
0.25454 -0.030591 0.0031247 -0.0013932
-0.00071032 -0.00053509 0.00080722 0.00034272 0.0004307 0.0015409 -0.0014146 0.0014341
0.0031377 -0.001383 0.27226 0.0095901
2000000000 0.1285 -0.19365 -0.0039818 0.0010634 0.0024115 0.0014143 -0.0021645 0.0034333
0.0012299 4.4095e-05 -0.00056875 0.00039627
-0.0039822 0.0010471 0.25007 0.053293 -0.00085996 0.0056226 0.0015193 0.00025701
0.0011991 -0.0011858 0.00042889 2.2169e-05
0.0024112 0.0014092 -0.0008373 0.0056156 0.01818 -0.23659 -0.0010289 -0.0010068
0.0018811 -0.0010774 0.0016581 0.00099816
-0.0021538 0.0034451 0.0015172 0.00025255 -0.0010381 -0.00099013 0.05758 -0.17702
-0.00020526 0.0030077 4.5811e-05 0.0020854
0.0012241 2.8723e-05 0.0011958 -0.0011929 0.0018838 -0.0010728 -0.00018778 0.0030095
