!Keysight Technologies,M9804A,MY58100912,A.14.10.03
!Date: Thursday, April 27, 2023 10:28:33
!Correction: S11(C  6-Port  ) 
!S12(C  6-Port  ) 
!S13(C  6-Port  ) 
!S14(C  6-Port  ) 
!S15(C  6-Port  ) 
!S16(C  6-Port  ) 
!S21(C  6-Port  ) 
!S22(C  6-Port  ) 
!S23(C  6-Port  ) 
!S24(C  6-Port  ) 
!S25(C  6-Port  ) 
!S26(C  6-Port  ) 
!S31(C  6-Port  ) 
!S32(C  6-Port  ) 
!S33(C  6-Port  ) 
!S34(C  6-Port  ) 
!S35(C  6-Port  ) 
!S36(C  6-Port  ) 
!S41(C  6-Port  ) 
!S42(C  6-Port  ) 
!S43(C  6-Port  ) 
!S44(C  6-Port  ) 
!S45(C  6-Port  ) 
!S46(C  6-Port  ) 
!S51(C  6-Port  ) 
!S52(C  6-Port  ) 
!S53(C  6-Port  ) 
!S54(C  6-Port  ) 
!S55(C  6-Port  ) 
!S56(C  6-Port  ) 
!S61(C  6-Port  ) 
!S62(C  6-Port  ) 
!S63(C  6-Port  ) 
!S64(C  6-Port  ) 
!S65(C  6-Port  ) 
!S66(C  6-Port  ) 
!S6P File: Measurement: :
# Hz S  RI   R 50
500000000 -0.33939 -0.016533 -0.010781 -0.0033935 -0.0070721 0.012356 -0.003159 0.011822
0.011322 0.0036252 -0.0025949 0.0076581
-0.010792 -0.0033561 -0.41972 -0.034745 0.0063254 -0.011858 0.0019256 0.012309
0.0068028 0.002352 0.0021431 0.01339
-0.0070765 0.012332 0.0063487 -0.011823 -0.26252 0.22352 0.0071993 0.0036287
-0.0003829 0.0084143 0.0025216 0.012069
-0.0030969 0.011831 0.0018936 0.01239 0.0072059 0.0036306 -0.33056 0.06358
-0.018912 -0.0066949 0.015084 0.023279
0.011268 0.0035077 0.0068461 0.0023258 -0.00041153 0.0083805 -0.018942 -0.0066707
-0.23766 -0.16165 -0.024357 0.0039213
-0.0025666 0.0077507 0.002095 0.013458 0.0025171 0.012051 0.015084 0.023276
-0.024302 0.0039182 -0.28573 -0.077002
560000000 -0.31091 0.13829 -0.026747 -0.060173 0.00079062 0.011452 0.0055192 0.0095989
0.0089782 0.0038994 0.01029 0.0062085
-0.026743 -0.060132 -0.3752 0.11904 -0.042058 -0.034648 0.01356 0.0031677
-0.012159 -0.0036619 0.0031461 -0.0010894
0.00086313 0.011409 -0.042038 -0.034676 -0.17968 0.26776 -0.00055568 -0.0043724
0.018512 0.0033233 0.0070784 -0.0067315
0.0055486 0.0096548 0.013576 0.0031214 -0.00049701 -0.0043744 -0.304 0.14884
0.00024229 -0.024288 0.0031035 -0.018137
0.0090386 0.0039261 -0.012218 -0.0036823 0.018524 0.0033101 0.00026119 -0.024275
-0.28697 0.010972 0.0025501 -0.0464
0.010299 0.0062459 0.0032253 -0.0011127 0.0070734 -0.0066808 0.0030769 -0.018154
0.002544 -0.046408 -0.32975 0.061822
620000000 -0.26981 0.12372 -0.02324 0.0069536 0.0036611 0.0080439 0.0071198 -0.005766
0.011126 -0.0014719 0.00066466 -0.0025525
-0.023187 0.0069237 -0.40102 0.074798 -0.019363 0.00021475 -0.001086 -0.0021298
0.010028 -0.0068262 0.0014446 -0.003063
0.0037055 0.0080164 -0.019415 0.00024095 -0.14862 0.27708 -0.0013953 -0.0044589
-0.0032983 -0.0032932 0.0079803 -0.0037497
0.0070975 -0.0056694 -0.0010732 -0.0021172 -0.0013635 -0.0044743 -0.26262 0.16076
-0.038658 -0.017058 0.012116 0.022605
0.011119 -0.0015956 0.010003 -0.0068475 -0.0033397 -0.0033282 -0.03863 -0.017079
-0.21205 -0.026987 -0.037988 0.01448
0.0006844 -0.0027406 0.0013563 -0.0030712 0.0079883 -0.0037778 0.012096 0.022598
-0.038031 0.014484 -0.25668 0.033955
680000000 -0.22661 0.2052 -0.027829 -0.012081 0.0052578 0.0045119 0.00096015 -0.0072489
-0.0032873 -0.011044 0.0037451 -0.0066213
-0.027808 -0.012073 -0.38392 0.16865 -0.03229 0.00053138 -0.0014802 -0.00052541
-0.0027861 -0.0088225 -0.0016825 -0.0019087
0.0052894 0.0045293 -0.032314 0.0005804 -0.098186 0.29514 -0.00076374 -0.00027122
-0.0018731 0.0002544 -0.0036703 -0.0083458
0.0009046 -0.0073062 -0.0014798 -0.00052598 -0.00075319 -0.00026742 -0.21687 0.20818
-0.025528 -0.0054194 -0.0087619 -0.0081189
-0.0033568 -0.011049 -0.0027488 -0.0088182 -0.0018422 0.00025364 -0.025543 -0.0054029
-0.24892 0.06999 -0.0068815 -0.0066612
0.0037242 -0.0066248 -0.0016782 -0.0019279 -0.0036681 -0.0083411 -0.008787 -0.0081213
-0.0068758 -0.0066735 -0.25278 0.12871
740000000 -0.18351 0.19995 -0.03672 0.026328 0.011591 -0.0058909 -0.00081132 -0.0039952
-0.0050067 -0.0023958 -0.005813 0.0032815
-0.036682 0.026304 -0.33244 0.1879 -0.03247 0.03515 -0.0010355 -0.0060319
-0.010814 0.0081124 -0.0021151 -0.0045285
0.011544 -0.0058913 -0.032383 0.035224 -0.064439 0.29458 -0.0015723 0.0029979
-0.0033126 -0.0039167 -0.0018681 0.00075816
-0.00083926 -0.0039998 -0.0010793 -0.00606 -0.001584 0.0029843 -0.19847 0.21667
-0.04184 -0.0036022 0.021449 0.011938
-0.0052476 -0.0024118 -0.010824 0.0080578 -0.0033453 -0.0039336 -0.041876 -0.0034878
-0.15751 0.089816 -0.038341 0.0030452
-0.0058395 0.0032286 -0.0021145 -0.0045218 -0.0018741 0.00076357 0.021459 0.011912
-0.038276 0.0030093 -0.24058 0.13842
800000000 -0.15004 0.23708 -0.021464 0.017774 0.0043825 -0.010321 -0.0043749 -0.0017554
-0.0035965 0.0029103 0.0036792 0.00085183
-0.021453 0.017741 -0.33239 0.25666 -0.0064473 0.033573 -0.0022401 0.0023808
-0.00039837 0.0034957 0.0011774 0.0054119
0.0043819 -0.010305 -0.0063755 0.033599 -0.02157 0.3164 0.00087299 0.0015741
0.00052042 0.0035091 -0.0018339 0.0014006
-0.0043953 -0.0017337 -0.0022203 0.0023792 0.00086508 0.0015866 -0.16863 0.24285
-0.026696 0.016111 0.01204 -0.0099561
-0.0035716 0.0028682 -0.00039702 0.0035104 0.00052421 0.0035001 -0.026698 0.016155
-0.19357 0.11706 -0.015745 0.018386
0.0036812 0.00083267 0.0011472 0.005409 -0.001841 0.0013926 0.012038 -0.009985
-0.015765 0.018359 -0.22803 0.18383
860000000 -0.11507 0.25707 -0.015741 0.030919 -0.0039303 -0.0093337 -0.0021698 0.0012226
0.0046597 0.0045478 -0.0024777 -0.0024873
-0.015764 0.030888 -0.28472 0.2972 0.0093828 0.032821 0.00029815 0.0019722
0.0047674 6.8944e-06 0.0033036 0.00050622
-0.0039428 -0.0093263 0.0094687 0.032832 0.02725 0.32315 -0.00027144 -0.00010301
0.0025025 -0.0013556 0.0017521 0.0040816
-0.0021773 0.0012338 0.00028971 0.0019328 -0.00027166 -0.00011091 -0.13165 0.25376
-0.015155 0.020765 -0.0056256 -0.0090293
0.0046282 0.004525 0.0047393 -7.4523e-06 0.0025263 -0.0013288 -0.015169 0.020814
-0.14158 0.16177 -0.020958 0.016366
-0.0024399 -0.0024867 0.0032781 0.00049671 0.0017375 0.0040713 -0.005613 -0.0090285
-0.021034 0.016385 -0.17834 0.22298
920000000 -0.088235 0.2786 0.0063526 0.036679 -0.0092283 -0.0036469 -0.0014408 0.0019512
0.0016212 0.0015322 0.0027412 -0.0018206
0.0063191 0.036643 -0.25432 0.31757 0.028119 0.019937 0.0018521 0.00091941
0.0067169 -0.00083502 0.0036231 -0.0030169
-0.0092182 -0.0036219 0.028191 0.019901 0.074542 0.32276 0.0019594 -0.00012304
0.001497 -0.00065393 0.00085437 -0.0010565
-0.0013987 0.0019384 0.001858 0.00092748 0.0019578 -0.00011465 -0.10533 0.26932
-0.0072239 0.030534 0.0022203 -0.0061752
0.0016374 0.001488 0.0066901 -0.00082799 0.0014877 -0.00064385 -0.0071825 0.03056
-0.12826 0.16816 -0.00054342 0.025456
0.0027196 -0.0017994 0.0035599 -0.0030663 0.00085875 -0.0010568 0.0022279 -0.0062026
-0.00058214 0.025428 -0.17671 0.23792
980000000 -0.040963 0.29655 0.018703 0.028392 -0.0082615 0.0048474 0.0020461 0.0031575
0.0037857 -0.0018767 -0.0031319 -0.0019875
0.018665 0.028359 -0.20219 0.34998 0.032231 0.0030077 0.0019734 -0.00024532
0.0013098 -0.0061345 -0.00061082 -0.002315
-0.008255 0.0048604 0.03226 0.0029587 0.12126 0.31476 0.00044067 -0.0012798
0.00013367 -0.0022579 0.0014105 -0.00028852
0.0020517 0.003148 0.0019608 -0.0002776 0.00044021 -0.0012782 -0.066273 0.2788
0.010833 0.027951 -0.0085053 -0.0060289
0.0037953 -0.0019376 0.0012971 -0.0061579 0.00012282 -0.0022485 0.010876 0.027949
-0.09592 0.19239 0.0062164 0.018114
-0.003149 -0.0019739 -0.00062332 -0.0023103 0.0014185 -0.00029164 -0.0085414 -0.00602
0.0061925 0.018108 -0.13268 0.27595
1040000000 0.0026006 0.30335 0.032941 0.015634 -0.00094041 0.0066105 0.0024684 0.0004125
-5.1714e-05 -0.0032003 -0.00072983 -0.0013339
0.032905 0.015653 -0.16593 0.36272 0.027387 -0.015678 0.0013825 -0.0018027
-0.0023851 -0.0023607 -0.0015726 -0.0026186
-0.00092654 0.0065917 0.027367 -0.015748 0.16801 0.29961 -0.00063954 -0.0014452
-0.0016001 -0.00082546 -0.00044152 -0.001101
0.0024766 0.00041704 0.0013807 -0.0018308 -0.00064356 -0.0014482 -0.037126 0.28736
0.020756 0.015338 -0.0027657 0.0013975
-3.718e-05 -0.0031974 -0.0024092 -0.0023379 -0.0015763 -0.00084298 0.020793 0.015316
-0.063775 0.19832 0.013742 0.015667
-0.0007329 -0.0013261 -0.0015968 -0.0026166 -0.00043974 -0.0010919 -0.0027615 0.0014034
0.013741 0.015684 -0.10622 0.29486
1100000000 0.04801 0.30921 0.034274 -0.0059656 0.002784 0.0035732 0.0022251 -0.0010884
-0.0021309 -0.0026864 -0.0034408 0.00047234
0.034226 -0.005926 -0.12256 0.37864 0.0132 -0.027392 -0.0001064 -0.0017278
-0.0033041 -0.00040358 -0.0032033 -0.00022498
0.002781 0.0035602 0.013133 -0.027421 0.2145 0.27727 -0.0017968 0.0002242
-0.0017263 0.00062697 -0.00088186 -0.00021943
0.0022176 -0.0010972 -0.00011522 -0.0017426 -0.0017987 0.00022741 0.0041064 0.29002
0.024182 0.0022102 -0.0023771 0.00035572
-0.0021284 -0.0026937 -0.0033015 -0.0004029 -0.0017351 0.00062836 0.024198 0.0021798
-0.044296 0.21001 0.018317 0.0061062
-0.0034223 0.0005132 -0.0032166 -0.0002082 -0.00089267 -0.00022773 -0.0023744 0.00036876
0.018319 0.0061142 -0.059532 0.31749
1160000000 0.099116 0.30275 0.021864 -0.021404 0.0023789 -0.00038835 -9.9639e-05 -0.0021449
-0.0038599 -0.00044878 -0.00056351 0.003683
0.021853 -0.021364 -0.077742 0.38214 -0.0050362 -0.027729 -0.0016742 -0.0014566
-0.0024429 0.0024329 -0.0012996 0.0017145
0.0023802 -0.00040823 -0.0051219 -0.027722 0.25701 0.24463 -0.00067902 0.0017622
-0.00041434 0.0018453 -0.00086478 0.00014759
-9.5657e-05 -0.0021451 -0.0017007 -0.0014603 -0.00068097 0.0017654 0.043919 0.28478
0.019599 -0.012487 -0.0027964 0.0044531
-0.003885 -0.00044363 -0.0024729 0.0024253 -0.00040731 0.0018651 0.019607 -0.012522
-0.010532 0.21688 0.016619 -0.0020786
-0.00055545 0.0036882 -0.0012918 0.001707 -0.00087521 0.00013086 -0.002792 0.0044625
0.016619 -0.0020815 -0.012543 0.31758
1220000000 0.14372 0.28915 0.0081473 -0.029262 -0.0015026 -0.00042842 4.637e-05 -0.00099426
-0.0023371 0.0023188 0.0013506 0.0017882
0.00816 -0.029229 -0.033756 0.39232 -0.017039 -0.019386 -0.002375 0.00047724
0.00024046 0.002765 -0.00045994 0.0018354
-0.001501 -0.00042557 -0.017115 -0.01933 0.29537 0.20406 0.00084485 0.0017567
0.00063804 0.0012013 0.00033683 0.00050867
4.3931e-05 -0.00098976 -0.0023745 0.00048795 0.00083601 0.0017656 0.083997 0.27363
0.0087069 -0.018139 0.0016448 0.0013883
-0.0023363 0.0023396 0.00024749 0.0027815 0.00063035 0.0012171 0.0086964 -0.018146
0.01394 0.22315 0.011335 -0.013282
0.0013376 0.0017783 -0.0004584 0.0018365 0.00034489 0.00049851 0.001642 0.0013912
0.011308 -0.01328 0.020973 0.32832
1280000000 0.19228 0.26544 -0.0091072 -0.026726 -0.0014375 0.0027214 -0.0010138 -0.0019799
-0.00052431 0.0028135 0.0023129 0.00076141
-0.0090674 -0.026697 0.011842 0.38242 -0.022971 -0.0071755 -0.00094743 0.0013804
0.0016508 0.0015577 0.00071774 0.0016783
-0.0014298 0.0027208 -0.023004 -0.007103 0.32477 0.15909 0.0015819 -6.8869e-05
0.001054 0.00015201 0.00019751 0.00017604
-0.0010197 -0.0019679 -0.00094774 0.001387 0.001587 -6.6415e-05 0.11977 0.25463
-0.00096733 -0.019285 -0.00037109 0.00041383
-0.00052293 0.0028198 0.0016493 0.00156 0.0010618 0.00014917 -0.00099758 -0.019283
0.050218 0.22424 0.0010856 -0.01467
0.0023189 0.00074721 0.00072298 0.001683 0.00019861 0.00016991 -0.00038152 0.0004194
0.001098 -0.014674 0.066594 0.32586
1340000000 0.22869 0.22987 -0.017836 -0.016983 0.0013491 0.0041209 -0.0017317 -0.00081588
0.0014103 0.0024348 0.0013811 -0.0014065
-0.017797 -0.016968 0.051205 0.37287 -0.020372 0.0049097 -0.00013245 0.0019727
0.0018264 0.00062043 0.0012867 0.00061655
0.0013598 0.0041033 -0.020358 0.0049811 0.3456 0.11048 0.0011142 -0.0009664
0.00057012 -0.00045287 0.00010288 0.00023931
-0.0017372 -0.00080507 -0.00012568 0.0019763 0.0011352 -0.00095093 0.15117 0.23212
-0.0098754 -0.015751 0.00067854 0.00096549
0.0014109 0.0024166 0.0018242 0.00061994 0.00056754 -0.00046469 -0.0099045 -0.015746
0.080244 0.2172 -0.005175 -0.012455
0.0013687 -0.0014222 0.0012913 0.00060681 0.0001007 0.00024502 0.00068342 0.00096258
-0.0051726 -0.012452 0.10547 0.31686
1400000000 0.26004 0.19037 -0.022385 -0.0058655 0.0051537 0.0025347 -0.0020368 0.00064252
0.0022876 0.00067896 8.6556e-05 -0.0013482
-0.022355 -0.0058706 0.08756 0.35907 -0.013599 0.012201 0.0012984 0.0012995
0.0011034 -0.00081827 0.0010567 9.6429e-05
0.0051603 0.0025291 -0.01356 0.012264 0.35798 0.05654 0.00014926 -0.0018004
7.0951e-05 -0.00035261 0.00035095 0.00016526
-0.0020492 0.00064198 0.0013088 0.0012887 0.00015115 -0.0018028 0.17892 0.20135
-0.015239 -0.0089351 -0.00032062 0.00034384
0.0022912 0.00066491 0.0011006 -0.00083784 8.9196e-05 -0.00035285 -0.015257 -0.0089183
0.11206 0.21008 -0.010655 -0.0073241
8.6132e-05 -0.0013346 0.0010578 8.3258e-05 0.00035098 0.00015758 -0.00031977 0.00034164
-0.010664 -0.0073165 0.14768 0.30197
1460000000 0.28144 0.14578 -0.019067 0.0053531 0.0052591 -0.0022525 -0.0014957 0.0016674
0.0018876 -0.00063251 -0.00039741 -0.00079156
-0.019061 0.0053366 0.12147 0.33666 -0.0054279 0.01453 0.0017343 0.00014038
0.00075802 -0.0012162 0.0010152 -0.0005587
0.0052468 -0.0022731 -0.0053663 0.014542 0.36271 0.0019893 -0.0014765 -0.0012714
0.0001137 -0.00017368 0.00059372 -0.00032814
-0.0014908 0.0016776 0.0017309 0.00014073 -0.0014701 -0.0012704 0.20306 0.17094
-0.016001 -0.0022129 -0.00023367 0.0019427
0.0018769 -0.00063018 0.00074159 -0.0012365 0.00011192 -0.00017196 -0.016017 -0.0021926
0.14056 0.19345 -0.011576 -0.0016273
-0.00041368 -0.00078518 0.001009 -0.00056979 0.00059608 -0.0003208 -0.00022851 0.0019371
-0.011579 -0.0016387 0.17968 0.2788
1520000000 0.29234 0.10308 -0.013298 0.010247 0.0027149 -0.0041485 0.00012844 0.0025412
0.0018554 -0.001613 -0.0010718 9.6462e-07
-0.0133 0.01023 0.15448 0.32103 0.001593 0.012334 0.0016501 -0.00086132
1.0449e-05 -0.00099213 0.00024991 -0.00087704
0.0026917 -0.0041568 0.0016392 0.012328 0.35515 -0.054667 -0.0013287 -0.00020573
0.00047813 -0.00084069 -5.1624e-06 -0.0001163
0.00012296 0.0025432 0.0016388 -0.00086156 -0.001317 -0.00021196 0.22377 0.13231
-0.014961 0.0033858 0.0018319 0.0017289
0.0018306 -0.0016345 -4.0045e-06 -0.0010016 0.00047843 -0.00083877 -0.014961 0.0034065
0.16758 0.17709 -0.011124 0.0025488
-0.0010689 9.0991e-07 0.00024334 -0.00088972 3.5598e-06 -0.00013031 0.0018342 0.0017255
-0.011124 0.0025463 0.21124 0.2548
1580000000 0.3001 0.05675 -0.007087 0.012674 -0.0011882 -0.0044796 0.0015115 0.0018435
-0.00021365 -0.0019467 -0.0002452 0.00038958
-0.007082 0.012665 0.18117 0.29581 0.0048782 0.0077437 0.00040681 -0.0016859
-0.00052594 -0.00098557 -0.00021801 -0.00076516
-0.0011974 -0.0044725 0.0049036 0.0077215 0.33409 -0.11208 -0.0016009 0.0009093
-0.00027392 -0.0010731 0.00013514 -0.00050869
0.0015114 0.0018405 0.00038628 -0.001675 -0.0016033 0.00090423 0.23524 0.093192
-0.011475 0.0080845 0.0023011 0.0001986
-0.00020518 -0.0019508 -0.00053877 -0.00097421 -0.00029061 -0.0010625 -0.011477 0.0081175
0.1903 0.15719 -0.0085799 0.0074096
-0.0002327 0.00037904 -0.00022483 -0.00076386 0.00012904 -0.00050458 0.0023067 0.00019439
-0.0085827 0.0074091 0.24028 0.2261
1640000000 0.301 0.014965 -0.00096721 0.01138 -0.0027027 -0.0022627 0.0026479 0.00086037
-0.00073991 -0.0014265 -0.00016343 0.00056499
-0.00098203 0.011369 0.21033 0.27001 0.0054515 0.0034129 -0.00086714 -0.0016518
-0.0010328 -0.0003459 -0.00050217 -0.00053648
-0.0027147 -0.0022672 0.0054757 0.0033772 0.30479 -0.1608 -0.00060238 0.0016121
-0.0011601 -0.00072562 -0.00012741 -0.00018339
0.0026516 0.00084381 -0.0008752 -0.0016418 -0.00061048 0.0016093 0.24535 0.045285
-0.0072592 0.0095908 0.0022746 -0.0012112
-0.0007558 -0.0014372 -0.0010476 -0.00032214 -0.0011696 -0.00071508 -0.0072587 0.0096231
0.21148 0.13102 -0.0040431 0.0091008
-0.00016153 0.00056691 -0.00050792 -0.00053194 -0.00013353 -0.00019326 0.0022724 -0.001206
-0.0040428 0.0091073 0.264 0.19287
1700000000 0.292 -0.030554 0.0020123 0.0086641 -0.0032883 0.00028396 0.002932 -0.0013372
-0.0019045 -0.00064699 0.00064719 0.00031527
0.0020018 0.0086667 0.22765 0.2381 0.0036578 0.00068031 -0.0014695 -0.00043219
-0.00076199 0.0001704 -0.00085042 -0.00038719
-0.0032984 0.00031444 0.0036542 0.00066789 0.26118 -0.20057 0.00066648 0.0014525
-0.0017579 -0.00019466 -0.00056258 -0.00082955
0.0029146 -0.0013488 -0.0014777 -0.00043368 0.00066981 0.0014518 0.24064 -0.0030534
-0.0041522 0.010194 0.0011804 -0.0021833
-0.0019125 -0.00064862 -0.0007545 0.00017808 -0.0017613 -0.00018145 -0.0041468 0.010215
0.22678 0.10916 0.00027185 0.0092643
0.00065693 0.0003188 -0.00085673 -0.00037908 -0.00057657 -0.00081645 0.0011737 -0.0021876
0.00027692 0.009279 0.27775 0.15688
1760000000 0.27853 -0.078852 0.0039283 0.0055851 -0.0021168 0.00090977 0.0010005 -0.0034544
-0.0013552 0.00067896 0.0004473 -0.00045494
0.0039242 0.0055798 0.25299 0.19751 0.001568 -0.001119 -0.0011545 0.00029772
-0.00091389 0.0008982 -0.00056383 0.00048626
-0.0021038 0.00094674 0.0015616 -0.0011365 0.21231 -0.23405 0.0013568 0.00082376
-0.0010811 0.0015519 -0.0012269 -0.00029532
0.00098973 -0.0034636 -0.0011418 0.00030494 0.0013627 0.00082139 0.2308 -0.052246
-0.00062283 0.0094874 -0.00053348 -0.0023144
-0.001373 0.00068333 -0.00089843 0.00090362 -0.0010751 0.0015764 -0.00060089 0.0095106
0.23963 0.072937 0.0037772 0.0066865
0.00045264 -0.00045075 -0.000562 0.00048959 -0.0012173 -0.00029934 -0.00053057 -0.0023248
0.0037868 0.0066975 0.28826 0.11837
1820000000 0.25228 -0.11571 0.0039691 0.0023299 0.00012527 0.002393 -0.0012196 -0.0028452
-0.0010397 0.0010266 -7.0522e-05 -0.00011485
0.003962 0.0023281 0.26187 0.1671 -0.00021815 7.893e-05 -0.0011338 0.00097859
5.2431e-05 0.0012691 -0.00046326 0.00054999
8.5369e-05 0.0023939 -0.00023708 7.5142e-05 0.16136 -0.24916 0.0013538 4.1793e-05
-0.00011896 0.0021618 -0.0012981 0.00053258
-0.0012309 -0.0028416 -0.0011234 0.00097099 0.0013618 2.4656e-05 0.20097 -0.097474
0.0012838 0.0076874 -0.0015481 -0.0012556
-0.001033 0.0010456 6.3261e-05 0.001264 -0.00012176 0.0021734 0.0013 0.0077002
0.25443 0.042726 0.0046344 0.0033369
-7.0237e-05 -9.9384e-05 -0.00046313 0.00055537 -0.0012945 0.00053207 -0.0015498 -0.0012454
0.0046374 0.0033296 0.28785 0.08058
1880000000 0.21567 -0.15504 0.0017308 0.0003006 -0.0003698 0.0018841 -0.0029857 -0.0018455
-0.00020457 0.0017305 0.0002105 -0.00039023
0.0017315 0.00029913 0.26547 0.12042 -0.0022673 0.0016932 -4.8874e-05 0.0016002
0.00065849 0.0010199 0.00019465 0.00089966
-0.00033589 0.0018745 -0.0022555 0.0016994 0.10823 -0.25884 0.0013405 -0.0010465
0.0015468 0.0015401 -0.00073026 0.0013119
-0.002979 -0.0018308 -4.7715e-05 0.0015914 0.0013436 -0.001035 0.16149 -0.13654
0.0021867 0.0053845 -0.0021128 0.00044481
-0.00021084 0.0017372 0.00064862 0.0010027 0.0015374 0.0015318 0.0021967 0.0053797
0.25494 0.0092792 0.0043716 0.0013089
0.00021861 -0.00039388 0.00020184 0.00090034 -0.00073994 0.0012933 -0.0021297 0.00045686
0.0043773 0.0013152 0.28513 0.046382
1940000000 0.17555 -0.18006 -0.00036351 -0.0010637 0.0014722 0.0018406 -0.0034497 0.00075219
0.0014992 0.0011391 -0.00065415 -0.00055545
-0.0003629 -0.0010637 0.26497 0.088682 -0.0009625 0.0039751 0.00096493 0.0011436
0.0016388 0.00034453 0.00080822 0.00033609
0.0014765 0.0018433 -0.00095554 0.0039855 0.062244 -0.25148 8.0321e-05 -0.0016341
0.0022369 0.00027452 0.00046436 0.0015944
-0.0034376 0.00076046 0.00096294 0.0011461 7.6584e-05 -0.0016198 0.11018 -0.16663
0.0014003 0.0035911 -0.0014149 0.0014271
0.0015096 0.0011271 0.0016347 0.00033622 0.0022407 0.00027244 0.0014161 0.0036041
0.25444 -0.030413 0.0031116 -0.001417
-0.00067885 -0.00053295 0.00079962 0.0003391 0.00050166 0.0015643 -0.001402 0.0014319
0.0031208 -0.0014226 0.27226 0.0095449
2000000000 0.12848 -0.19367 -0.0039765 0.0010744 0.0023973 0.0014 -0.0021438 0.0034426
0.001255 4.8237e-05 -0.00056404 0.0003903
-0.0039727 0.0010577 0.25006 0.053298 -0.00082091 0.0056063 0.0015186 0.00024968
0.0012096 -0.0011943 0.00043538 2.0258e-05
0.0023904 0.0013983 -0.00080214 0.0056363 0.018265 -0.23667 -0.0010186 -0.0010009
0.0018728 -0.0010974 0.0016676 0.00097251
-0.0021439 0.0034639 0.0015178 0.00025312 -0.001034 -0.00098438 0.057603 -0.17699
-0.00016941 0.0031009 5.6043e-05 0.0020825
0.0012391 3.3022e-05 0.0011865 -0.0011926 0.001879 -0.0010704 -0.0001659 0.0030912
