!Keysight Technologies,M9804A,MY58100912,A.14.10.03
!Date: Thursday, April 27, 2023 10:28:33
!Correction: S11(C  6-Port  ) 
!S12(C  6-Port  ) 
!S13(C  6-Port  ) 
!S14(C  6-Port  ) 
!S15(C  6-Port  ) 
!S16(C  6-Port  ) 
!S21(C  6-Port  ) 
!S22(C  6-Port  ) 
!S23(C  6-Port  ) 
!S24(C  6-Port  ) 
!S25(C  6-Port  ) 
!S26(C  6-Port  ) 
!S31(C  6-Port  ) 
!S32(C  6-Port  ) 
!S33(C  6-Port  ) 
!S34(C  6-Port  ) 
!S35(C  6-Port  ) 
!S36(C  6-Port  ) 
!S41(C  6-Port  ) 
!S42(C  6-Port  ) 
!S43(C  6-Port  ) 
!S44(C  6-Port  ) 
!S45(C  6-Port  ) 
!S46(C  6-Port  ) 
!S51(C  6-Port  ) 
!S52(C  6-Port  ) 
!S53(C  6-Port  ) 
!S54(C  6-Port  ) 
!S55(C  6-Port  ) 
!S56(C  6-Port  ) 
!S61(C  6-Port  ) 
!S62(C  6-Port  ) 
!S63(C  6-Port  ) 
!S64(C  6-Port  ) 
!S65(C  6-Port  ) 
!S66(C  6-Port  ) 
!S6P File: Measurement: :
# Hz S  RI   R 50
500000000 -0.33963 -0.018602 -0.010842 -0.003348 -0.0073514 0.012596 -0.0034512 0.01227
0.011161 0.0048351 -0.0034208 0.0082979
-0.011066 -0.0037504 -0.41984 -0.036249 0.0058877 -0.011443 0.0018186 0.012363
0.0070744 0.0026155 0.0022585 0.013769
-0.0073045 0.012384 0.0059742 -0.011479 -0.26304 0.2234 0.0070927 0.0037644
-0.00096284 0.0083051 0.002015 0.012235
-0.0036571 0.011714 0.0019375 0.012213 0.0071071 0.0037713 -0.32951 0.062308
-0.019559 -0.0061415 0.016814 0.023239
0.011428 0.0043832 0.0067617 0.0027002 -0.00094841 0.0083243 -0.019555 -0.0061068
-0.23692 -0.16423 -0.025605 0.0044963
-0.0033882 0.0078577 0.0025658 0.013309 0.0020023 0.012197 0.016782 0.023247
-0.025707 0.0044913 -0.28237 -0.078723
560000000 -0.31156 0.13802 -0.026853 -0.06042 0.000864 0.01138 0.0058405 0.010086
0.0092546 0.0037262 0.0105 0.007018
-0.026469 -0.06064 -0.3755 0.11843 -0.042135 -0.03398 0.013227 0.0029516
-0.011933 -0.0038236 0.0032756 -0.0010965
0.00056291 0.011756 -0.041992 -0.033835 -0.18055 0.26801 -0.00024678 -0.0043376
0.018857 0.0037764 0.0066723 -0.0061621
0.0067917 0.009214 0.013623 0.0028332 -0.0002603 -0.0043494 -0.30404 0.14869
-0.00052043 -0.024415 0.0036736 -0.018107
0.0093091 0.0031311 -0.011522 -0.0032477 0.01886 0.0037719 -0.00051462 -0.024482
-0.28717 0.011202 0.0023652 -0.047217
0.011457 0.0081546 0.0031069 -0.00054935 0.0066549 -0.0061969 0.0036075 -0.018079
0.0022747 -0.04721 -0.33004 0.060368
620000000 -0.27048 0.12407 -0.023534 0.0073177 0.004153 0.0080303 0.0078264 -0.0051274
0.010443 -0.0012649 0.0010189 -0.0028747
-0.023141 0.007328 -0.40164 0.074413 -0.019594 0.0007109 -0.00089752 -0.0026813
0.010277 -0.0059135 0.0016115 -0.0030686
0.0042333 0.0081867 -0.019581 0.00066957 -0.14903 0.27749 -0.0010841 -0.005095
-0.0034758 -0.0026061 0.0081983 -0.0034897
0.0077444 -0.0051002 -0.00071302 -0.0024071 -0.0010808 -0.0050853 -0.26244 0.16161
-0.039863 -0.01858 0.011179 0.023527
0.010154 -0.0013018 0.0097944 -0.0061432 -0.0034977 -0.0025889 -0.039746 -0.018589
-0.21011 -0.026012 -0.037664 0.013799
0.00056307 -0.0017092 0.0015208 -0.0023643 0.0082527 -0.0034999 0.011095 0.023486
-0.037846 0.013735 -0.25774 0.032175
680000000 -0.22758 0.20524 -0.027958 -0.011438 0.0055553 0.004583 0.0011404 -0.0072869
-0.0032131 -0.011219 0.0037173 -0.0068478
-0.028089 -0.011564 -0.38429 0.16855 -0.03213 0.00086324 -0.0015029 -0.0004907
-0.0026198 -0.0090162 -0.0015794 -0.0023
0.005408 0.0045986 -0.032209 0.00090092 -0.097969 0.29501 -0.00077221 -0.00043004
-0.001666 -4.5194e-05 -0.0036999 -0.0084916
0.0015114 -0.0074824 -0.0016436 -0.00040746 -0.00077919 -0.00041327 -0.21683 0.20711
-0.02559 -0.0049772 -0.0089741 -0.0083711
-0.0024743 -0.011116 -0.0024767 -0.0090768 -0.0016257 -6.5692e-05 -0.025604 -0.0049384
-0.24984 0.068624 -0.0076545 -0.006259
0.0036766 -0.0072531 -0.0015542 -0.0025884 -0.0037297 -0.0084273 -0.0089483 -0.0082855
-0.0076638 -0.0061763 -0.25325 0.12833
740000000 -0.18372 0.20041 -0.036261 0.026493 0.011937 -0.0057695 -0.0007637 -0.0041833
-0.0054235 -0.0024427 -0.0055937 0.0031724
-0.036284 0.026447 -0.33234 0.18818 -0.032867 0.03517 -0.00091655 -0.0058249
-0.011624 0.0078929 -0.0022808 -0.0042952
0.011908 -0.0057981 -0.032599 0.035399 -0.064103 0.29413 -0.0019473 0.0031137
-0.0033649 -0.0046248 -0.0022103 0.0013928
-0.00062334 -0.003754 -0.0010593 -0.0061489 -0.0019776 0.0031152 -0.19843 0.21619
-0.042279 -0.0027133 0.022184 0.012047
-0.0052669 -0.0026059 -0.011115 0.0080358 -0.0034318 -0.0046761 -0.042255 -0.0026695
-0.15776 0.091223 -0.038391 0.0031281
-0.0056906 0.003366 -0.0022822 -0.0048082 -0.002229 0.0014283 0.022169 0.01206
-0.038471 0.0030404 -0.24211 0.13751
800000000 -0.14963 0.23685 -0.021018 0.017916 0.0046119 -0.010324 -0.0041908 -0.0015934
-0.0037879 0.0029424 0.0040768 0.00062139
-0.021073 0.017777 -0.33231 0.25633 -0.0064087 0.033645 -0.0022968 0.0023737
-0.00071519 0.003785 0.0013076 0.0052937
0.0046946 -0.010561 -0.0063514 0.033642 -0.021437 0.31598 0.00087684 0.0016665
0.00045722 0.0036629 -0.0016333 0.0011611
-0.0043187 -0.0017866 -0.002204 0.0024635 0.00087837 0.0016667 -0.16821 0.24268
-0.026773 0.016438 0.012572 -0.0098914
-0.0038053 0.0027046 -0.00060039 0.0036053 0.00048054 0.0036679 -0.026753 0.01646
-0.19409 0.11698 -0.015045 0.019013
0.004063 0.00039652 0.001358 0.0055053 -0.0016655 0.0011682 0.012552 -0.0099258
-0.015106 0.018968 -0.22813 0.18177
860000000 -0.11494 0.25663 -0.01531 0.030794 -0.0037403 -0.0096213 -0.0019358 0.0012833
0.0045193 0.0046306 -0.0026224 -0.0023532
-0.015365 0.030818 -0.2847 0.29705 0.0094592 0.033022 2.4156e-05 0.0022394
0.0041456 0.00018882 0.0034034 0.00055229
-0.0038095 -0.0095176 0.009554 0.033001 0.026758 0.3227 -0.00037349 -7.2636e-05
0.0024184 -0.0015327 0.0018931 0.0038612
-0.0018617 0.0011672 6.997e-06 0.0022195 -0.00036959 -7.0784e-05 -0.13182 0.25328
-0.014771 0.020494 -0.0055543 -0.0093308
0.0045059 0.0048651 0.0043104 0.00011584 0.0023932 -0.0015101 -0.014767 0.020603
-0.14155 0.16012 -0.020931 0.0169
-0.0027274 -0.002096 0.0033498 0.00046486 0.0019206 0.0038894 -0.0055641 -0.0092829
-0.020835 0.016911 -0.17888 0.22221
920000000 -0.088378 0.27798 0.006659 0.036355 -0.0093075 -0.0038774 -0.0013978 0.0017432
0.0017284 0.0013733 0.0026675 -0.0018701
0.0064442 0.036248 -0.25432 0.31694 0.028286 0.019899 0.0017697 0.00082239
0.0068805 -0.00074501 0.0034184 -0.0030411
-0.0093778 -0.0039005 0.028344 0.019806 0.074244 0.32273 0.0019246 -0.00019526
0.0014589 -0.00063251 0.00084698 -0.0013698
-0.0014093 0.001772 0.0017674 0.00083672 0.0019227 -0.00019238 -0.10545 0.26912
-0.0071114 0.03053 0.0021837 -0.0062012
0.0015669 0.00089136 0.0069494 -0.00078014 0.0014444 -0.00063358 -0.0070579 0.030534
-0.12794 0.1675 -0.00054403 0.025095
0.0025572 -0.0017103 0.0033485 -0.0031033 0.00082948 -0.001385 0.0021424 -0.0061705
-0.00062676 0.025175 -0.1777 0.23698
980000000 -0.041316 0.29575 0.018808 0.028225 -0.0084555 0.0047699 0.0018933 0.0029759
0.0036994 -0.0020033 -0.0030864 -0.0019649
0.018808 0.02814 -0.20244 0.34922 0.032467 0.0029516 0.0020234 -0.00027107
0.00147 -0.0061882 -0.0005645 -0.0024617
-0.0084407 0.0047806 0.032496 0.0028723 0.12101 0.3146 0.00048346 -0.0012748
1.5599e-05 -0.0022295 0.0012125 -0.00026558
0.0018068 0.0030104 0.0020752 -0.00028948 0.00047738 -0.0012802 -0.066679 0.27849
0.0109 0.028195 -0.0082626 -0.0060103
0.003653 -0.0020465 0.0014826 -0.006326 1.2901e-05 -0.0022326 0.010959 0.028183
-0.096141 0.19146 0.0064756 0.018075
-0.0030289 -0.0018201 -0.00071162 -0.0023959 0.0012064 -0.0002397 -0.0082718 -0.0060528
0.0064068 0.018152 -0.13353 0.27409
1040000000 0.0018036 0.30263 0.033048 0.015416 -0.0011739 0.0065949 0.0025003 0.00056456
8.0604e-05 -0.0031014 -0.00086375 -0.0014305
0.032943 0.015433 -0.16658 0.36224 0.027542 -0.015912 0.0014006 -0.0017322
-0.0024481 -0.0024888 -0.0016719 -0.002677
-0.0011707 0.0065695 0.027489 -0.016013 0.16776 0.29984 -0.00068523 -0.001416
-0.0016085 -0.00084702 -0.00051738 -0.00097338
0.0023519 0.00053107 0.0014031 -0.0016881 -0.00067641 -0.0014047 -0.037381 0.28739
0.021218 0.015375 -0.0027188 0.0012778
-0.00019984 -0.0031943 -0.0024332 -0.0024741 -0.0016274 -0.00086299 0.021232 0.015342
-0.063776 0.19747 0.014269 0.015627
-0.0008659 -0.0015419 -0.0017066 -0.0027951 -0.0005217 -0.00096886 -0.0027102 0.0012592
0.014243 0.015647 -0.10768 0.29367
1100000000 0.047301 0.3087 0.034353 -0.0062428 0.0026564 0.003559 0.0022224 -0.0011127
-0.0020897 -0.0028211 -0.0035847 0.00040232
0.034273 -0.0061844 -0.1231 0.37824 0.013192 -0.027789 -9.8423e-05 -0.0018843
-0.0034779 -0.00059811 -0.003384 -0.00027662
0.0026345 0.0036113 0.013117 -0.027856 0.21478 0.27727 -0.0018203 0.00024193
-0.0018113 0.00074624 -0.00093268 -9.2995e-05
0.0022048 -0.0011084 -7.6622e-05 -0.0018385 -0.001814 0.00023898 0.004187 0.28978
0.024741 0.0018611 -0.0024898 4.9439e-05
-0.0019273 -0.0027378 -0.003415 -0.00063347 -0.0018144 0.00075633 0.02475 0.001839
-0.044149 0.20858 0.018695 0.0057308
-0.0036323 0.00051971 -0.0033289 -0.00021616 -0.00093989 -9.452e-05 -0.0024922 5.9248e-05
0.018695 0.005764 -0.060555 0.31668
1160000000 0.098078 0.30229 0.021718 -0.021811 0.0022327 -0.00033907 -9.648e-05 -0.0020546
-0.0039818 -0.00044378 -0.00055393 0.0038836
0.021725 -0.021829 -0.078751 0.382 -0.0053744 -0.027948 -0.0016613 -0.001559
-0.0025845 0.0025876 -0.0012795 0.0019348
0.002228 -0.00034267 -0.0054446 -0.027958 0.25702 0.24445 -0.0006815 0.0017675
-0.00034847 0.0019331 -0.000814 0.00014686
1.1907e-05 -0.0020846 -0.0016417 -0.0014918 -0.00068002 0.0017604 0.043409 0.28469
0.019599 -0.013132 -0.0031998 0.0042661
-0.0040284 -0.00037821 -0.0026002 0.0025733 -0.00035149 0.0019275 0.019603 -0.013163
-0.011392 0.21535 0.016897 -0.0026391
-0.00041993 0.0039687 -0.0013272 0.0019335 -0.00082675 0.00016874 -0.0031843 0.004255
0.016842 -0.0026163 -0.014264 0.31676
1220000000 0.14275 0.28929 0.0078086 -0.029656 -0.0016164 -0.00026066 0.00014893 -0.00093402
-0.0023793 0.0022794 0.0013717 0.0018465
0.0077912 -0.029575 -0.034245 0.39257 -0.017442 -0.019523 -0.0024352 0.00050047
0.00019424 0.0029274 -0.00043682 0.0019069
-0.0016549 -0.00030037 -0.017499 -0.019482 0.29547 0.20372 0.00087485 0.0017947
0.00074122 0.0011902 0.00045341 0.00054678
0.00012694 -0.00096716 -0.0024118 0.00048944 0.000882 0.0018051 0.083783 0.27366
0.0084592 -0.018827 0.0013455 0.0014519
-0.0024205 0.002231 0.000246 0.0029018 0.00073019 0.0011971 0.0084412 -0.01882
0.012842 0.22208 0.01154 -0.013897
0.0014371 0.0018216 -0.00043158 0.001926 0.0004502 0.00054181 0.0013466 0.001448
0.011537 -0.013923 0.019998 0.32802
1280000000 0.19155 0.26569 -0.0097182 -0.02682 -0.0014969 0.0029259 -0.00097543 -0.0020027
-0.00058459 0.0029377 0.0024016 0.00085085
-0.0096842 -0.026781 0.011531 0.38259 -0.023353 -0.0070656 -0.00090919 0.0013994
0.0018398 0.0015622 0.00080914 0.0017017
-0.0014739 0.0029863 -0.023404 -0.0070058 0.32439 0.15838 0.0016336 -5.6841e-05
0.0011454 0.00016494 0.0002068 0.00017613
-0.00095847 -0.001953 -0.000925 0.0014087 0.0016281 -6.307e-05 0.11964 0.25444
-0.0015283 -0.019744 -0.00052372 0.00054609
-0.00060872 0.0029501 0.0018101 0.0015922 0.0011566 0.00015249 -0.0015625 -0.019745
0.048931 0.22322 0.00093811 -0.015353
0.0023166 0.00086177 0.00081863 0.0016523 0.00019475 0.00017776 -0.00055364 0.00054795
0.00095139 -0.015382 0.06562 0.32541
1340000000 0.22803 0.23051 -0.018434 -0.016615 0.0014937 0.0043119 -0.0017485 -0.00087755
0.001455 0.0025216 0.0014566 -0.0014554
-0.018382 -0.016577 0.051045 0.37309 -0.020615 0.0052067 -0.00010593 0.0019986
0.0019456 0.00052598 0.0013299 0.00065693
0.0014284 0.0043642 -0.020601 0.00529 0.34486 0.11022 0.001199 -0.0010499
0.00057298 -0.0004811 7.5844e-05 0.00022944
-0.0017995 -0.00085809 -8.6702e-05 0.0020238 0.0011906 -0.0010508 0.15092 0.23229
-0.010665 -0.015811 0.00056145 0.0012711
0.0014343 0.0025814 0.001937 0.000539 0.00056938 -0.00048228 -0.010694 -0.015816
0.078666 0.21672 -0.0057852 -0.013037
0.0014518 -0.0014854 0.0013115 0.00060381 8.4908e-05 0.00022259 0.00055959 0.0012828
-0.0057875 -0.013072 0.1044 0.31669
1400000000 0.25994 0.19077 -0.022685 -0.0052184 0.0054224 0.0026812 -0.0021539 0.00063799
0.0023413 0.00079804 0.00013196 -0.0013734
-0.022627 -0.0052375 0.087721 0.35905 -0.013643 0.012588 0.0013448 0.0013265
0.0011222 -0.00089961 0.0010653 3.8986e-05
0.0054172 0.0026652 -0.013609 0.012656 0.35723 0.056446 2.6421e-05 -0.0018296
-5.2423e-06 -0.00035284 0.00035567 0.00013777
-0.0021042 0.00062938 0.0013362 0.0013057 3.2674e-05 -0.0018229 0.17898 0.20134
-0.015954 -0.0085885 -0.00032707 0.00058104
0.002351 0.00077082 0.0011159 -0.00095002 -1.0211e-05 -0.00035197 -0.015978 -0.0085578
0.1107 0.21005 -0.011323 -0.0074635
9.2495e-05 -0.0013788 0.0010939 4.9425e-05 0.00034886 0.00013922 -0.00033285 0.0005699
-0.01132 -0.0075025 0.14665 0.3016
1460000000 0.28123 0.14602 -0.01895 0.0061218 0.0055359 -0.0022942 -0.0015137 0.0017469
0.0019492 -0.00064021 -0.00040829 -0.00082071
-0.018967 0.0060582 0.12133 0.33639 -0.0052272 0.014867 0.0017319 0.00011468
0.00061352 -0.001311 0.0010014 -0.00056457
0.0055121 -0.0022903 -0.0052016 0.0149 0.36176 0.0023014 -0.0014901 -0.0012525
0.00014306 -0.00013431 0.00064159 -0.00028417
-0.0014662 0.0017624 0.0017493 0.00011503 -0.0014895 -0.001258 0.20289 0.17079
-0.016418 -0.0014357 -5.9735e-05 0.002224
0.0019909 -0.00069395 0.00060071 -0.0013029 0.00012559 -0.00012426 -0.016429 -0.0013967
0.13877 0.19362 -0.012346 -0.0013466
-0.00043273 -0.00086676 0.00097821 -0.0006025 0.00063479 -0.0002844 -6.9383e-05 0.0022317
-0.012348 -0.0013616 0.17831 0.2785
1520000000 0.29237 0.10325 -0.01282 0.01075 0.0029525 -0.0043188 0.00015433 0.002635
0.0018721 -0.0016964 -0.0010559 -2.955e-05
-0.012805 0.010776 0.15434 0.32088 0.0019665 0.012483 0.0016399 -0.00088737
-0.00012038 -0.0009774 0.00026374 -0.00092606
0.0029415 -0.0042735 0.0020051 0.012466 0.35477 -0.053813 -0.0013186 -0.00024205
0.00050516 -0.00091217 -2.72e-05 -0.00015366
0.00014494 0.0026049 0.0016414 -0.00089464 -0.0013222 -0.00023768 0.22375 0.13235
-0.014892 0.0043285 0.0020835 0.0017793
0.0018159 -0.0017554 -9.8786e-05 -0.00097886 0.00051568 -0.00093418 -0.014873 0.0043775
0.16635 0.17788 -0.011614 0.0031354
-0.0010537 -6.4841e-06 0.00023945 -0.0009097 -1.9065e-05 -0.00015915 0.0020865 0.0017874
-0.011649 0.0031366 0.20985 0.25505
1580000000 0.29999 0.056573 -0.0064088 0.012905 -0.0011154 -0.0047304 0.0015538 0.0018805
-0.00021698 -0.0021214 -0.00022636 0.00039275
-0.0064075 0.012878 0.18083 0.29541 0.0052078 0.0076958 0.00040137 -0.0017051
-0.00053433 -0.00086747 -0.00022247 -0.00076814
-0.0011597 -0.0047408 0.0052474 0.0076704 0.33403 -0.11159 -0.001624 0.00098066
-0.00036171 -0.0010306 0.00021373 -0.00056742
0.0015831 0.0018869 0.00040452 -0.0016901 -0.0016236 0.00099119 0.23498 0.092796
-0.010953 0.0087244 0.0025888 0.00014493
-0.00018324 -0.0021112 -0.00055688 -0.00087903 -0.00037403 -0.0010325 -0.010935 0.0087516
0.18939 0.1577 -0.0086657 0.0081718
-0.00024359 0.00039452 -0.00023111 -0.0007598 0.0002113 -0.00057023 0.0025941 0.00013295
-0.0086977 0.0081857 0.23889 0.22635
1640000000 0.30043 0.014959 -0.00030468 0.011162 -0.0027908 -0.0024871 0.0028156 0.00079264
-0.00077221 -0.0014207 -0.00019888 0.00058564
-0.0003292 0.011161 0.20966 0.26995 0.0056941 0.0032648 -0.00084513 -0.0016707
-0.00094107 -0.0002671 -0.00055745 -0.000572
-0.0028469 -0.0024382 0.0057174 0.0032266 0.30478 -0.16026 -0.0004191 0.0015514
-0.0011884 -0.00077605 -0.00032671 -0.00017238
0.0028063 0.00079017 -0.00086117 -0.0016754 -0.00041448 0.001541 0.24485 0.045293
-0.006429 0.0098081 0.0024097 -0.0013098
-0.00080491 -0.0014244 -0.00093883 -0.00025927 -0.0011855 -0.00076746 -0.0063969 0.0098016
0.21061 0.13187 -0.0038208 0.0097612
-0.00028568 0.00057673 -0.00054155 -0.00053821 -0.0003311 -0.00016397 0.0024228 -0.0013317
-0.0038525 0.0097639 0.26253 0.19353
1700000000 0.29151 -0.030416 0.0024613 0.0081214 -0.0033592 7.3872e-05 0.0028866 -0.0014616
-0.0019586 -0.00063958 0.00066561 0.00029374
0.0024271 0.0081144 0.22716 0.23821 0.0037694 0.00043626 -0.0015051 -0.00045654
-0.00064741 0.0001073 -0.00083671 -0.00041205
-0.0033807 6.3005e-05 0.0037599 0.00041449 0.26154 -0.20011 0.00066761 0.0013311
-0.0017687 -0.00022917 -0.00062551 -0.00076463
0.0028888 -0.0014507 -0.0015127 -0.00045605 0.00066139 0.0013295 0.24023 -0.0028483
-0.0034171 0.0099235 0.0013094 -0.002496
-0.0019279 -0.00061049 -0.00064258 0.00011136 -0.0017521 -0.00023308 -0.0034092 0.0099282
0.22647 0.10985 0.00082424 0.0098034
0.0007372 0.00029794 -0.00085034 -0.00038507 -0.0006266 -0.00075958 0.0013236 -0.0025084
0.00082669 0.0098024 0.27657 0.15799
1760000000 0.27789 -0.07835 0.0039792 0.0049404 -0.0023644 0.00086918 0.00089604 -0.0035412
-0.0013912 0.00068073 0.00046429 -0.00052035
0.0039725 0.0049941 0.25228 0.1978 0.001534 -0.0013776 -0.0011652 0.00030645
-0.00090409 0.00075321 -0.00060181 0.00045181
-0.0023323 0.00091175 0.0015706 -0.0013898 0.21218 -0.23388 0.0012655 0.00073459
-0.0010514 0.001533 -0.0012673 -0.00021923
0.00087784 -0.0035414 -0.0011769 0.00032221 0.0012728 0.00073537 0.23031 -0.051924
-0.00020141 0.0089001 -0.00056859 -0.0026216
-0.0014293 0.00074689 -0.00092373 0.00077132 -0.0010392 0.0015431 -0.00018339 0.0088996
0.23912 0.073462 0.0044198 0.0068805
0.00042871 -0.00041322 -0.0005733 0.00045407 -0.001257 -0.00022204 -0.00057453 -0.0026279
0.0044229 0.0068757 0.2873 0.11933
1820000000 0.25209 -0.11495 0.003781 0.001845 -0.00018417 0.0024418 -0.0013306 -0.0027886
-0.0010262 0.00107 -6.0406e-05 -0.00011684
0.0037744 0.0018443 0.26156 0.16785 -0.00037222 -0.00016837 -0.0011102 0.0010313
-5.3134e-05 0.0011816 -0.00053892 0.00054984
-0.00020798 0.0025218 -0.00040321 -0.00017613 0.16163 -0.24891 0.0012479 8.8761e-05
-5.7036e-05 0.0021285 -0.0013904 0.00057019
-0.001301 -0.0028206 -0.0011192 0.0010441 0.001244 9.8404e-05 0.2009 -0.096763
0.0013727 0.0071517 -0.0017514 -0.0014368
-0.00097151 0.0010241 -5.9581e-05 0.0011807 -5.8052e-05 0.0021376 0.0013826 0.0071368
0.25411 0.043423 0.0052914 0.003317
-6.7706e-05 -0.00017312 -0.00051313 0.00053118 -0.0013594 0.00057758 -0.0017521 -0.0014497
0.0053017 0.0033463 0.28742 0.082015
1880000000 0.21581 -0.15438 0.0013534 3.9942e-05 -0.00045205 0.0021588 -0.0028824 -0.0017585
-0.00013379 0.0017175 4.1495e-05 -0.00028872
0.0013788 4.0647e-05 0.2654 0.12093 -0.0025463 0.0015619 1.8659e-05 0.0016205
0.00050807 0.0010968 0.00016386 0.0009742
-0.00045288 0.0021176 -0.0025359 0.0016069 0.10862 -0.25887 0.0014001 -0.00095454
0.0014816 0.0016599 -0.00071926 0.0014354
-0.0029176 -0.0017701 2.5046e-05 0.0016184 0.0014018 -0.00095235 0.16163 -0.13612
0.0019904 0.0049017 -0.0023219 0.0004528
-0.00012063 0.0017189 0.00048506 0.0010934 0.0014863 0.0016532 0.0019864 0.0048716
0.25463 0.009611 0.0049339 0.0010893
0.00011316 -0.00033224 0.00015086 0.00097276 -0.0007253 0.0014425 -0.0023273 0.00044762
0.0049226 0.0010877 0.28498 0.047312
1940000000 0.17573 -0.17934 -0.00079085 -0.0011359 0.0015834 0.0020224 -0.003437 0.00082947
0.0015167 0.0011806 -0.0004285 -0.00046015
-0.00081122 -0.0012094 0.26497 0.089374 -0.0012834 0.0039661 0.00099875 0.0011468
0.0015882 0.0005615 0.00090688 0.00040257
0.0015832 0.0020462 -0.0012341 0.0039471 0.062011 -0.25184 0.00020402 -0.001576
0.0021842 0.00036206 0.00052077 0.0015125
-0.0034912 0.00085158 0.0010045 0.0010909 0.00020514 -0.0015821 0.11048 -0.1661
0.0012428 0.0034229 -0.0015592 0.0015074
0.0014146 0.0011679 0.0016388 0.00050627 0.0021947 0.00034392 0.0012392 0.003421
0.25395 -0.029705 0.0035998 -0.0020841
-0.00055561 -0.00042159 0.00091272 0.00043958 0.00052924 0.0015261 -0.0016086 0.0015377
0.0035563 -0.0020832 0.2721 0.01057
2000000000 0.12938 -0.1933 -0.0043633 0.0011515 0.0025436 0.0015041 -0.0020469 0.0034389
0.0011652 4.4388e-05 -0.00033489 0.00029958
-0.0043088 0.0011897 0.25051 0.05391 -0.00099094 0.0059088 0.0014821 0.00019324
0.001297 -0.001111 0.00049665 0.00013236
0.0024885 0.0014936 -0.00097224 0.005923 0.018286 -0.23668 -0.001001 -0.001012
0.0018221 -0.0010682 0.0017226 0.0012286
-0.0019888 0.0033817 0.0015197 0.00019632 -0.001009 -0.0010036 0.058208 -0.17695
-0.00042237 0.0028276 -4.1171e-05 0.0022486
0.0012418 0.00010251 0.0012742 -0.001127 0.0017996 -0.0010753 -0.00044059 0.002826
