!Keysight Technologies,M9804A,MY58100912,A.14.10.03
!Date: Thursday, April 27, 2023 10:28:33
!Correction: S11(C  6-Port  ) 
!S12(C  6-Port  ) 
!S13(C  6-Port  ) 
!S14(C  6-Port  ) 
!S15(C  6-Port  ) 
!S16(C  6-Port  ) 
!S21(C  6-Port  ) 
!S22(C  6-Port  ) 
!S23(C  6-Port  ) 
!S24(C  6-Port  ) 
!S25(C  6-Port  ) 
!S26(C  6-Port  ) 
!S31(C  6-Port  ) 
!S32(C  6-Port  ) 
!S33(C  6-Port  ) 
!S34(C  6-Port  ) 
!S35(C  6-Port  ) 
!S36(C  6-Port  ) 
!S41(C  6-Port  ) 
!S42(C  6-Port  ) 
!S43(C  6-Port  ) 
!S44(C  6-Port  ) 
!S45(C  6-Port  ) 
!S46(C  6-Port  ) 
!S51(C  6-Port  ) 
!S52(C  6-Port  ) 
!S53(C  6-Port  ) 
!S54(C  6-Port  ) 
!S55(C  6-Port  ) 
!S56(C  6-Port  ) 
!S61(C  6-Port  ) 
!S62(C  6-Port  ) 
!S63(C  6-Port  ) 
!S64(C  6-Port  ) 
!S65(C  6-Port  ) 
!S66(C  6-Port  ) 
!S6P File: Measurement: :
# Hz S  RI   R 50
500000000 -0.33935 -0.016555 -0.010821 -0.0033577 -0.0071448 0.012323 -0.0031373 0.011863
0.011265 0.0035867 -0.0026824 0.0078241
-0.010814 -0.003328 -0.41974 -0.034927 0.0062982 -0.011902 0.0018481 0.012331
0.0068394 0.0023444 0.0020841 0.013383
-0.0071317 0.012329 0.0062791 -0.011924 -0.26245 0.22338 0.0071744 0.0036205
-0.00046698 0.008373 0.0024797 0.012012
-0.0031296 0.011875 0.0018688 0.012337 0.0071731 0.0036189 -0.33067 0.06348
-0.019016 -0.0066633 0.015018 0.023181
0.011265 0.0035833 0.0068408 0.0023222 -0.00047225 0.008366 -0.019029 -0.0066484
-0.23765 -0.16208 -0.024551 0.0039126
-0.0027024 0.007797 0.0021183 0.013392 0.0024934 0.012013 0.015037 0.023191
-0.024525 0.0038894 -0.28573 -0.07749
560000000 -0.31088 0.1383 -0.026782 -0.060211 0.00083218 0.011396 0.0055227 0.0096627
0.0090006 0.0039747 0.01026 0.0062389
-0.026735 -0.060148 -0.37531 0.11922 -0.04217 -0.034777 0.013467 0.0029374
-0.012247 -0.0037093 0.0033402 -0.0011225
0.00083439 0.011401 -0.042237 -0.034704 -0.17962 0.26764 -0.00035605 -0.0043135
0.018475 0.0032949 0.0070217 -0.006609
0.005531 0.0096556 0.013462 0.0029404 -0.00034548 -0.0043279 -0.30394 0.14879
0.00023981 -0.024259 0.0030247 -0.01818
0.009022 0.0039534 -0.012279 -0.0036786 0.018506 0.0032975 0.00022138 -0.024263
-0.28737 0.010854 0.0024812 -0.046357
0.010259 0.0062249 0.003346 -0.0011306 0.0070165 -0.0066124 0.0030439 -0.018191
0.0025133 -0.046382 -0.32977 0.061453
620000000 -0.26978 0.12366 -0.023177 0.0069649 0.0037391 0.0080136 0.0071346 -0.0056445
0.01109 -0.0014431 0.00062788 -0.002671
-0.023153 0.0069541 -0.40108 0.074769 -0.019454 0.00021972 -0.0010502 -0.0021467
0.010053 -0.0067644 0.0014554 -0.0030087
0.0037811 0.0080293 -0.019469 0.00025065 -0.14863 0.27681 -0.0012724 -0.0045274
-0.0034875 -0.0033056 0.0080582 -0.0036543
0.0071243 -0.0056329 -0.0010592 -0.0021452 -0.0012842 -0.0045265 -0.26257 0.16088
-0.038787 -0.01713 0.011876 0.022697
0.011104 -0.0014734 0.01005 -0.0067876 -0.003477 -0.0033081 -0.038798 -0.017116
-0.21221 -0.027007 -0.037921 0.014424
0.00060378 -0.0026828 0.0014566 -0.0029879 0.0080743 -0.0036406 0.011887 0.022688
-0.03797 0.014401 -0.2568 0.033802
680000000 -0.22663 0.20519 -0.027813 -0.012092 0.0052881 0.0045291 0.00089416 -0.0073313
-0.0032806 -0.011014 0.0037257 -0.0065744
-0.027791 -0.012094 -0.38401 0.16867 -0.032341 0.00058782 -0.0014736 -0.00052854
-0.0026973 -0.0088384 -0.001666 -0.0019787
0.0053033 0.004528 -0.032351 0.00064251 -0.098294 0.29507 -0.00074051 -0.00028485
-0.0018263 0.00023383 -0.0036365 -0.0083819
0.00086974 -0.0073339 -0.0014703 -0.0005321 -0.00074498 -0.00028289 -0.2168 0.20818
-0.025504 -0.0053295 -0.0088475 -0.0080744
-0.0033015 -0.011 -0.0027217 -0.0088337 -0.0018248 0.0002314 -0.025528 -0.0053005
-0.24942 0.070015 -0.0069536 -0.0066143
0.0037399 -0.0065621 -0.0016879 -0.0019672 -0.0036487 -0.008397 -0.008874 -0.0080922
-0.0069516 -0.0066139 -0.25281 0.12862
740000000 -0.18354 0.19983 -0.036637 0.026263 0.011593 -0.0058678 -0.0008262 -0.0040411
-0.005064 -0.0024566 -0.0057581 0.0032626
-0.036613 0.026234 -0.33252 0.1879 -0.032442 0.035112 -0.0010803 -0.0060577
-0.010902 0.0080167 -0.0021554 -0.0045499
0.011593 -0.0058602 -0.032377 0.035172 -0.064483 0.29455 -0.0016052 0.0029285
-0.0033419 -0.0039812 -0.0019036 0.00069228
-0.00082137 -0.0040513 -0.0010836 -0.0060753 -0.0016069 0.0029351 -0.19843 0.21669
-0.04182 -0.0035579 0.021411 0.012058
-0.0050338 -0.0024298 -0.010896 0.0080546 -0.0033548 -0.0039825 -0.041839 -0.0035161
-0.15754 0.089989 -0.038386 0.003259
-0.0057581 0.0032761 -0.0021733 -0.0045063 -0.0019332 0.00070114 0.021421 0.012071
-0.038419 0.0032328 -0.24062 0.13825
800000000 -0.15009 0.23703 -0.021428 0.017749 0.0044219 -0.010295 -0.004375 -0.0017448
-0.0036178 0.0028198 0.0036616 0.0008399
-0.021421 0.017726 -0.33241 0.2567 -0.0064507 0.033616 -0.0022108 0.0023846
-0.00042296 0.0034508 0.0011408 0.0053839
0.0044086 -0.0103 -0.0063755 0.033639 -0.021678 0.3164 0.00087646 0.001589
0.00049627 0.0034439 -0.0018345 0.0013578
-0.0043769 -0.0017315 -0.0022078 0.0023909 0.00087572 0.001589 -0.16866 0.24285
-0.02667 0.016149 0.012059 -0.0099708
-0.003614 0.0028202 -0.00042347 0.0034542 0.00049667 0.0034451 -0.026662 0.016207
-0.19372 0.11742 -0.015747 0.018531
0.0036691 0.00082959 0.0011711 0.0053872 -0.0018284 0.001349 0.012054 -0.0099868
-0.015735 0.01852 -0.22808 0.18375
860000000 -0.11513 0.2571 -0.015759 0.030932 -0.0039027 -0.0093464 -0.0022003 0.0012547
0.0045333 0.0045516 -0.0024486 -0.002516
-0.015771 0.030917 -0.28476 0.29723 0.0094203 0.032866 0.00024862 0.0019617
0.0047155 3.522e-05 0.0033364 0.00043837
-0.0039268 -0.0093398 0.0095019 0.032868 0.027178 0.32318 -0.00025097 -0.00011797
0.0025467 -0.0012796 0.0017221 0.0040531
-0.0021993 0.0012682 0.0002545 0.0019669 -0.00025324 -0.00011632 -0.13165 0.2538
-0.015183 0.020933 -0.0055067 -0.0090662
0.0045533 0.004534 0.0047091 3.0741e-05 0.0025524 -0.0012863 -0.015164 0.020972
-0.14166 0.16234 -0.020796 0.016394
-0.002466 -0.0025058 0.0033405 0.00042949 0.0017261 0.0040589 -0.0055314 -0.0090559
-0.020788 0.016376 -0.17857 0.22296
920000000 -0.088283 0.27861 0.0063678 0.036687 -0.0091942 -0.0036423 -0.0014037 0.0019235
0.0016165 0.0014808 0.002715 -0.0017773
0.00634 0.036664 -0.25431 0.31762 0.028144 0.019996 0.0018533 0.00094517
0.0067817 -0.00079718 0.003627 -0.0030678
-0.0092 -0.0036232 0.028208 0.019946 0.074484 0.32281 0.0019521 -0.00011267
0.0014961 -0.00063754 0.00091118 -0.001078
-0.0014023 0.0019361 0.0018738 0.00094335 0.0019516 -0.00011058 -0.10536 0.26931
-0.0071772 0.030591 0.0023767 -0.0062093
0.001619 0.0014697 0.0067808 -0.00082242 0.0015078 -0.00063312 -0.0071256 0.030636
-0.12797 0.16841 -0.00037779 0.025445
0.0026868 -0.0018106 0.003648 -0.0031137 0.00091583 -0.0010913 0.0023772 -0.0062114
-0.00038788 0.025478 -0.17698 0.23768
980000000 -0.041017 0.29652 0.018738 0.028379 -0.008242 0.0048446 0.0020484 0.0031703
0.0038195 -0.0019453 -0.0031095 -0.0019877
0.018699 0.02837 -0.20217 0.34993 0.032306 0.0030011 0.0019569 -0.00030709
0.0013343 -0.0061416 -0.00063186 -0.0022931
-0.0082271 0.0048606 0.032338 0.0029428 0.12127 0.3148 0.00045274 -0.0012842
8.4459e-05 -0.0022573 0.0014125 -0.000291
0.0020529 0.0031662 0.0019649 -0.00029594 0.0004505 -0.0012832 -0.066267 0.27876
0.010916 0.027955 -0.0084651 -0.0060379
0.0038149 -0.0019461 0.0013099 -0.0061754 8.9319e-05 -0.0022489 0.010986 0.027956
-0.095444 0.19243 0.0064012 0.018174
-0.0031297 -0.00199 -0.00062742 -0.0023002 0.0014172 -0.00028418 -0.0084567 -0.0060294
0.0063836 0.018178 -0.13279 0.27573
1040000000 0.0025287 0.30332 0.032964 0.015623 -0.00093927 0.0065973 0.0024648 0.0004293
-5.2274e-05 -0.0032221 -0.00070247 -0.001358
0.032935 0.015628 -0.16593 0.36271 0.02743 -0.015699 0.0013574 -0.0018541
-0.0023755 -0.0024003 -0.0015978 -0.0026133
-0.0009291 0.0065817 0.027418 -0.015774 0.16798 0.29965 -0.0006493 -0.0014526
-0.0015914 -0.00084389 -0.00041745 -0.0010975
0.0024638 0.00042474 0.0013767 -0.0018504 -0.00065143 -0.0014604 -0.037151 0.28733
0.020824 0.01528 -0.0027321 0.0013625
-6.4565e-05 -0.003207 -0.0024025 -0.0024126 -0.001585 -0.00084255 0.020875 0.015245
-0.063394 0.19813 0.013912 0.015681
-0.00070951 -0.0013454 -0.001602 -0.0026308 -0.00042222 -0.0011 -0.0027262 0.0013697
0.013899 0.015686 -0.10643 0.29467
1100000000 0.047923 0.30918 0.034255 -0.0059517 0.0027671 0.0035519 0.0022058 -0.0010862
-0.0021314 -0.0027228 -0.0034077 0.00048785
0.034236 -0.0059299 -0.12257 0.3786 0.013226 -0.02743 -0.00012903 -0.0017478
-0.0033202 -0.00043698 -0.0032191 -0.0002049
0.0027795 0.0035398 0.013155 -0.027481 0.2145 0.27729 -0.0017946 0.00021825
-0.001759 0.00061655 -0.00091952 -0.0002254
0.0022007 -0.0010898 -0.0001303 -0.0017441 -0.001792 0.00022455 0.0040907 0.28995
0.024261 0.0021245 -0.0024096 0.00028384
-0.0021471 -0.0027082 -0.003328 -0.00042183 -0.0017538 0.00062551 0.024285 0.0020935
-0.043994 0.20972 0.018485 0.0060435
-0.0034082 0.00049285 -0.0032218 -0.00020173 -0.00091689 -0.00022532 -0.0024075 0.00028879
0.018483 0.0060521 -0.05973 0.31745
1160000000 0.099046 0.30278 0.021862 -0.021372 0.0023656 -0.00041909 -0.00010816 -0.0021307
-0.0039025 -0.0004348 -0.00058607 0.0036644
0.021871 -0.021349 -0.077794 0.38209 -0.0050411 -0.027818 -0.0017067 -0.0014674
-0.0024714 0.0024377 -0.0013218 0.0017079
0.0023573 -0.00044433 -0.0051212 -0.027801 0.25698 0.24464 -0.0006905 0.0017624
-0.0003954 0.0018591 -0.00086024 0.00015186
-0.00011216 -0.0021402 -0.0017063 -0.0014528 -0.00069354 0.001765 0.043846 0.28474
0.019607 -0.01263 -0.0028285 0.0043775
-0.0039073 -0.00041225 -0.0024688 0.0024432 -0.00038658 0.0018696 0.019609 -0.012655
-0.010475 0.21638 0.016762 -0.0022543
-0.00058468 0.0036814 -0.0013115 0.0016852 -0.0008682 0.00014524 -0.0028381 0.0043929
0.016756 -0.0022394 -0.012751 0.31762
1220000000 0.14367 0.28918 0.0081457 -0.029264 -0.0015278 -0.00042157 5.2194e-05 -0.00097034
-0.0023366 0.0023405 0.0013425 0.0018057
0.0081565 -0.029226 -0.033843 0.39224 -0.017063 -0.019457 -0.002378 0.00048364
0.00023671 0.0028299 -0.00048943 0.0018538
-0.0015223 -0.00042347 -0.017139 -0.019405 0.29534 0.20404 0.00083631 0.0017611
0.00064856 0.0012302 0.00034343 0.00051343
5.3251e-05 -0.00096879 -0.002388 0.00050292 0.00083432 0.0017638 0.083912 0.27357
0.0086914 -0.018244 0.0015608 0.0013858
-0.0023209 0.0023491 0.00024803 0.0028266 0.00064534 0.0012394 0.0086716 -0.018258
0.013811 0.22266 0.011398 -0.013493
0.0013477 0.0017898 -0.00046449 0.0018538 0.00034962 0.00051381 0.0015678 0.00139
0.01139 -0.01349 0.020855 0.32829
1280000000 0.19225 0.26549 -0.0090917 -0.026719 -0.001478 0.0027351 -0.00099568 -0.0019695
-0.00052145 0.0028441 0.0023163 0.00076751
-0.0090735 -0.0267 0.011754 0.38242 -0.023038 -0.0072297 -0.00093817 0.0013836
0.0016629 0.0015772 0.00074299 0.0017099
-0.0014675 0.0027341 -0.023086 -0.0071455 0.32471 0.15909 0.0015854 -7.78e-05
0.0010892 0.00016144 0.00020859 0.00016588
-0.00099958 -0.0019643 -0.0009383 0.0013829 0.0015864 -6.9582e-05 0.11969 0.25462
-0.001069 -0.019374 -0.00047951 0.00043535
-0.00050094 0.002836 0.0016786 0.0015694 0.001086 0.00015449 -0.0011081 -0.019381
0.049881 0.22389 0.0010189 -0.014882
0.002304 0.00077021 0.00074875 0.0017006 0.00020296 0.00016981 -0.00047717 0.00043618
0.0010269 -0.014875 0.066483 0.3259
1340000000 0.22869 0.22991 -0.017818 -0.01697 0.0013345 0.0041556 -0.0017254 -0.00082648
0.0014037 0.0024148 0.0013988 -0.0014164
-0.017792 -0.016976 0.051158 0.37286 -0.020448 0.0049111 -0.00011881 0.0019766
0.0018349 0.00062685 0.0012849 0.00060036
0.0013455 0.0041545 -0.020447 0.0049827 0.34553 0.11055 0.0011449 -0.00097087
0.00055077 -0.00044646 9.0881e-05 0.0002427
-0.0017255 -0.00081828 -0.00011011 0.00197 0.0011548 -0.00095678 0.15109 0.23212
-0.010025 -0.015764 0.000612 0.0010338
0.0014161 0.0024089 0.0018356 0.00061525 0.00055583 -0.00045067 -0.01006 -0.01576
0.079814 0.21698 -0.0053751 -0.012621
0.0013889 -0.0014263 0.0012927 0.00059936 9.7846e-05 0.00024886 0.00061506 0.0010324
-0.0053594 -0.012619 0.10544 0.31687
1400000000 0.26002 0.1904 -0.02238 -0.0058626 0.0051643 0.0025867 -0.0020454 0.00063
0.0022874 0.00068626 0.00011234 -0.0013385
-0.022358 -0.0058776 0.087509 0.35909 -0.013687 0.012258 0.0012936 0.0012926
0.0011257 -0.0008489 0.0010679 7.8645e-05
0.0051625 0.0025722 -0.013649 0.012312 0.3579 0.056612 0.00014972 -0.001808
9.513e-05 -0.00037773 0.00032923 0.00016363
-0.0020489 0.00063343 0.0012989 0.0012878 0.00014845 -0.0018074 0.17881 0.2014
-0.015386 -0.0088808 -0.00034358 0.00043847
0.0022808 0.00067696 0.0011193 -0.0008615 9.5848e-05 -0.00037661 -0.015411 -0.0088574
0.11158 0.21006 -0.010911 -0.0073752
9.8153e-05 -0.0013366 0.0010662 8.0573e-05 0.00033223 0.00016102 -0.00033972 0.00043718
-0.010905 -0.0073847 0.14761 0.30196
1460000000 0.28142 0.14583 -0.019067 0.0053416 0.0053016 -0.0022256 -0.0015046 0.0016722
0.0018863 -0.00062874 -0.00040489 -0.00081228
-0.019053 0.0053194 0.12144 0.33669 -0.0054559 0.014603 0.001718 0.00014302
0.00074032 -0.0012486 0.0010132 -0.0005725
0.0052881 -0.0022375 -0.0054022 0.014627 0.36271 0.0021148 -0.0014788 -0.0012882
0.00011486 -0.0001933 0.00059925 -0.0003092
-0.0015041 0.0016808 0.0017189 0.00013496 -0.0014732 -0.0012872 0.20299 0.17103
-0.016122 -0.0020872 -0.00019431 0.0020325
0.0018907 -0.00063147 0.00073355 -0.0012586 0.00011482 -0.00019069 -0.016138 -0.0020662
0.1401 0.19362 -0.011833 -0.0015483
-0.00040009 -0.00081415 0.0010053 -0.0005789 0.00061129 -0.00031865 -0.00019844 0.0020416
-0.011828 -0.0015756 0.17959 0.27882
1520000000 0.2923 0.10306 -0.013306 0.010246 0.0027537 -0.0041378 0.00010982 0.0025368
0.0018306 -0.0016269 -0.0010751 -1.8927e-05
-0.013293 0.010225 0.15445 0.32107 0.0016095 0.012404 0.0016488 -0.00084517
-1.7418e-05 -0.0009944 0.000245 -0.00088417
0.0027437 -0.0041453 0.0016576 0.012415 0.35522 -0.054576 -0.0013259 -0.00020737
0.00048165 -0.00083503 3.4651e-06 -0.00013843
0.00011408 0.0025507 0.0016364 -0.00085591 -0.0013247 -0.00020839 0.22374 0.13241
-0.014982 0.003565 0.0019118 0.0017935
0.0018263 -0.0016387 -3.5265e-05 -0.00099564 0.00048496 -0.00083677 -0.014986 0.0035994
0.16729 0.17741 -0.011297 0.0027478
-0.0010785 -1.6922e-05 0.00023948 -0.00088671 7.3981e-06 -0.00013625 0.0019194 0.00179
-0.011301 0.0027339 0.21108 0.25478
1580000000 0.30002 0.056813 -0.0070997 0.012682 -0.0011594 -0.0045027 0.0015117 0.0018615
-0.00019725 -0.0019543 -0.00023816 0.0003801
-0.0071027 0.012672 0.18114 0.29584 0.0049316 0.0077867 0.00041029 -0.0016702
-0.00053776 -0.00097121 -0.00021017 -0.00075098
-0.001164 -0.0045082 0.0049788 0.0077924 0.33417 -0.11205 -0.0015995 0.00091147
-0.00028759 -0.0010495 0.00014206 -0.00052151
0.0015193 0.0018556 0.00039503 -0.0016771 -0.0015985 0.00091573 0.23527 0.093269
-0.011413 0.0082529 0.0023947 0.00020691
-0.00021285 -0.0019505 -0.00054688 -0.00096089 -0.00029214 -0.0010576 -0.011402 0.008282
0.19016 0.15756 -0.0086227 0.0076471
-0.00024042 0.00038038 -0.00021622 -0.00076216 0.00014165 -0.0005248 0.0024014 0.00019913
-0.0086246 0.0076523 0.24009 0.22616
1640000000 0.30098 0.014999 -0.00098426 0.011392 -0.0027056 -0.0023019 0.0026479 0.00085675
-0.00076355 -0.001438 -0.00017831 0.00057528
-0.00098991 0.011385 0.2103 0.27003 0.0055123 0.0034172 -0.00085736 -0.0016535
-0.0010242 -0.00031624 -0.00050111 -0.00053868
-0.002711 -0.0022975 0.0055436 0.0034061 0.30484 -0.16083 -0.00058689 0.001621
-0.0011806 -0.00070137 -0.00014576 -0.0001976
0.0026434 0.00085259 -0.00086313 -0.0016464 -0.0005749 0.0016221 0.24541 0.045344
-0.0071263 0.0096974 0.0023676 -0.0012427
-0.00077332 -0.0014373 -0.0010304 -0.00030893 -0.0011839 -0.00070312 -0.0071085 0.009719
0.21148 0.13139 -0.0039688 0.0093467
-0.00017513 0.00058274 -0.00050643 -0.00053383 -0.00014351 -0.00018852 0.0023627 -0.0012607
-0.0039764 0.0093422 0.26381 0.19298
1700000000 0.29195 -0.030501 0.0020144 0.008673 -0.0033015 0.00029226 0.0029207 -0.0013341
-0.0019236 -0.00064678 0.00066683 0.00035111
0.0020014 0.0086676 0.22761 0.23813 0.0036941 0.00067472 -0.001473 -0.0004489
-0.00073306 0.00017409 -0.00085212 -0.00039114
-0.0033077 0.00029822 0.0037231 0.00065455 0.26126 -0.20059 0.00069404 0.001457
-0.0017681 -0.00016261 -0.00057028 -0.00082169
0.0029209 -0.0013414 -0.0014696 -0.00043581 0.00068693 0.0014598 0.24067 -0.0030069
-0.0040059 0.010217 0.0012311 -0.0022626
-0.0019179 -0.00063948 -0.00073288 0.00017412 -0.0017644 -0.00015997 -0.0039894 0.010224
0.22687 0.10944 0.00043081 0.009437
0.00067506 0.00034117 -0.00085313 -0.00038775 -0.00057303 -0.00082929 0.001219 -0.0022626
0.00042951 0.0094348 0.27758 0.15702
1760000000 0.27853 -0.07877 0.0039423 0.0055906 -0.0021187 0.00090615 0.0010023 -0.0034618
-0.0013686 0.00069027 0.00046868 -0.00045882
0.0039302 0.0055932 0.25297 0.19758 0.0016132 -0.0011572 -0.0011571 0.00030105
-0.00090131 0.00087928 -0.00057177 0.00047563
-0.0021264 0.00091761 0.0016293 -0.0011854 0.21228 -0.23414 0.0013583 0.00078292
-0.0010705 0.0015683 -0.001225 -0.00030411
0.00099142 -0.0034686 -0.0011484 0.00030589 0.001353 0.00078957 0.23085 -0.052232
-0.00048584 0.0094508 -0.00053825 -0.0024143
-0.0013707 0.00069677 -0.00089121 0.00088156 -0.0010673 0.0015713 -0.00046732 0.0094493
0.23983 0.073132 0.0039914 0.0067414
0.00046724 -0.00045923 -0.00056849 0.00048013 -0.0012261 -0.00030164 -0.00054105 -0.0024059
0.0039909 0.00674 0.28815 0.11851
1820000000 0.25227 -0.11567 0.0039826 0.002319 6.67e-05 0.0023703 -0.0012313 -0.0028515
-0.001027 0.0010537 -7.1806e-05 -0.00012648
0.0039745 0.0023114 0.26187 0.16714 -0.00021831 1.7777e-05 -0.0011299 0.00099042
4.1422e-05 0.001251 -0.0004835 0.00054366
6.9704e-05 0.0023532 -0.00022102 -6.4493e-06 0.1613 -0.24918 0.0013623 2.7627e-05
-9.0034e-05 0.0021911 -0.0013045 0.00052801
-0.001232 -0.0028426 -0.001123 0.00098528 0.0013604 2.4549e-05 0.201 -0.097505
0.0013948 0.0075999 -0.0015933 -0.0013419
-0.0010176 0.001064 4.696e-05 0.0012539 -9.8766e-05 0.0022034 0.001405 0.0075953
0.25463 0.04278 0.0048534 0.0033007
-7.4218e-05 -0.000122 -0.00048066 0.00054903 -0.0013086 0.00054913 -0.0015995 -0.0013401
0.004854 0.0032878 0.28775 0.080702
1880000000 0.21568 -0.15496 0.0017407 0.00028738 -0.00037611 0.0018917 -0.0029856 -0.0018476
-0.00020702 0.0017441 0.00021494 -0.00040288
0.0017337 0.00028808 0.26549 0.12048 -0.0022779 0.0016588 -6.1194e-05 0.001601
0.00063264 0.001014 0.00020055 0.00090966
-0.00035962 0.001902 -0.0022796 0.0016468 0.10818 -0.25878 0.001341 -0.0010356
0.0015203 0.0015388 -0.00075792 0.0013375
-0.0029928 -0.0018399 -5.1771e-05 0.0016044 0.001336 -0.0010335 0.16152 -0.13654
0.0022251 0.0052422 -0.0022449 0.00039646
-0.0001822 0.001739 0.00063126 0.0010186 0.0015313 0.001532 0.0022489 0.0052428
0.25516 0.009248 0.0045457 0.001177
0.00021245 -0.00040943 0.00021129 0.00090162 -0.00075342 0.0013415 -0.0022416 0.00041168
0.0045334 0.0011711 0.28512 0.046481
1940000000 0.17563 -0.18002 -0.00035955 -0.0010724 0.0014778 0.0018307 -0.0034281 0.00075299
0.001493 0.0011278 -0.00070729 -0.00054411
-0.00035932 -0.0010625 0.26503 0.088705 -0.00099681 0.0039381 0.0009867 0.0011487
0.0016266 0.00038214 0.00080348 0.00035464
0.0014856 0.0018185 -0.00098852 0.0039379 0.062232 -0.25148 9.748e-05 -0.0016351
0.0022435 0.00026018 0.00044977 0.001546
-0.0034061 0.00076448 0.00098654 0.0011438 0.00010201 -0.0016235 0.1102 -0.16667
0.0013998 0.0034426 -0.0014859 0.0014448
0.0015055 0.0011181 0.0016286 0.00037156 0.0022434 0.00025931 0.0014108 0.0034413
0.25462 -0.030518 0.0032105 -0.0015696
-0.00071504 -0.00051733 0.0007993 0.00035589 0.00042874 0.0015383 -0.0014881 0.0014444
0.0032186 -0.0015674 0.27225 0.0096949
2000000000 0.12852 -0.19364 -0.0039864 0.0010505 0.0024153 0.0014337 -0.0021505 0.0034564
0.0012194 4.2233e-05 -0.00055902 0.00039827
-0.0039778 0.0010444 0.25008 0.053307 -0.00084918 0.0056496 0.0015057 0.00025305
0.0012175 -0.0011742 0.00044002 1.3948e-05
0.0024263 0.0014203 -0.00083466 0.0056524 0.018209 -0.23653 -0.0010389 -0.00097648
0.001872 -0.0010941 0.0016529 0.00097862
-0.002131 0.0034722 0.0015058 0.00024872 -0.0010367 -0.00097711 0.05755 -0.17698
-0.00025896 0.002988 -3.2045e-06 0.0021495
0.0012182 3.3283e-05 0.0012111 -0.0011767 0.0018694 -0.0010958 -0.00024606 0.0029963
0.24592 -0.064502 0.00023262 -0.0025423
