!Keysight Technologies,M9804A,MY58100912,A.14.10.03
!Date: Thursday, April 27, 2023 10:28:33
!Correction: S11(C  6-Port  ) 
!S12(C  6-Port  ) 
!S13(C  6-Port  ) 
!S14(C  6-Port  ) 
!S15(C  6-Port  ) 
!S16(C  6-Port  ) 
!S21(C  6-Port  ) 
!S22(C  6-Port  ) 
!S23(C  6-Port  ) 
!S24(C  6-Port  ) 
!S25(C  6-Port  ) 
!S26(C  6-Port  ) 
!S31(C  6-Port  ) 
!S32(C  6-Port  ) 
!S33(C  6-Port  ) 
!S34(C  6-Port  ) 
!S35(C  6-Port  ) 
!S36(C  6-Port  ) 
!S41(C  6-Port  ) 
!S42(C  6-Port  ) 
!S43(C  6-Port  ) 
!S44(C  6-Port  ) 
!S45(C  6-Port  ) 
!S46(C  6-Port  ) 
!S51(C  6-Port  ) 
!S52(C  6-Port  ) 
!S53(C  6-Port  ) 
!S54(C  6-Port  ) 
!S55(C  6-Port  ) 
!S56(C  6-Port  ) 
!S61(C  6-Port  ) 
!S62(C  6-Port  ) 
!S63(C  6-Port  ) 
!S64(C  6-Port  ) 
!S65(C  6-Port  ) 
!S66(C  6-Port  ) 
!S6P File: Measurement: :
# Hz S  RI   R 50
500000000 -0.34083 -0.018305 -0.011991 -0.0034189 -0.0079105 0.01344 -0.0036882 0.012123
0.011176 0.0036494 -0.0036309 0.0084025
-0.011921 -0.0034092 -0.42118 -0.03622 0.0055278 -0.011246 0.0015713 0.012873
0.0063121 0.0023648 0.0016405 0.013811
-0.0077341 0.013429 0.0052543 -0.011065 -0.26498 0.22395 0.0070553 0.0043105
-0.0015287 0.008731 0.0019724 0.012669
-0.0037231 0.012145 0.0015122 0.012655 0.0070828 0.0043235 -0.33166 0.063013
-0.020095 -0.0067852 0.014759 0.023665
0.010953 0.0038956 0.00677 0.0023351 -0.0013642 0.0086486 -0.020007 -0.0067893
-0.23832 -0.16408 -0.025677 0.003197
-0.0034325 0.0083509 0.0016482 0.013776 0.0019872 0.012808 0.01439 0.02376
-0.02558 0.0032268 -0.2862 -0.079075
560000000 -0.31308 0.13769 -0.028256 -0.060268 0.00098783 0.012365 0.0055979 0.0099765
0.0083072 0.004548 0.010574 0.0074585
-0.02829 -0.060134 -0.37621 0.11911 -0.043117 -0.033975 0.013538 0.0036987
-0.012817 -0.0031883 0.0033784 -0.00028214
0.00095495 0.012113 -0.043108 -0.033584 -0.18082 0.26958 -4.9279e-05 -0.0040153
0.019033 0.0037763 0.0062063 -0.0062474
0.0053006 0.010143 0.013271 0.0035039 -7.7199e-05 -0.0040411 -0.30445 0.14961
-0.00044582 -0.023848 0.0026232 -0.017911
0.0086047 0.0042841 -0.012369 -0.0031038 0.019294 0.0038212 -0.00054854 -0.023756
-0.28971 0.0095761 0.0014344 -0.046166
0.010698 0.0072548 0.0032919 -0.0010053 0.0065091 -0.0060603 0.0026006 -0.018143
0.0015204 -0.046234 -0.33152 0.060129
620000000 -0.27142 0.12416 -0.023985 0.0082648 0.0045837 0.0084799 0.0076788 -0.005377
0.011442 -0.00085999 0.0009469 -0.0023903
-0.023945 0.0082477 -0.4024 0.074686 -0.01955 0.0012091 -0.0007921 -0.0022325
0.010688 -0.0063416 0.0018869 -0.0027309
0.0047349 0.0085738 -0.019499 0.0011691 -0.14921 0.27902 -0.00088835 -0.0049518
-0.0029938 -0.0028014 0.0085175 -0.0036938
0.0077748 -0.0052955 -0.0006621 -0.0021867 -0.00079483 -0.0050342 -0.26299 0.16104
-0.039668 -0.016882 0.011907 0.023558
0.011194 -0.0010653 0.010647 -0.0063785 -0.0028421 -0.0027802 -0.039824 -0.016692
-0.21298 -0.028224 -0.039536 0.015024
0.00086608 -0.0024576 0.0017685 -0.0026842 0.008575 -0.0035075 0.011958 0.023473
-0.039614 0.015168 -0.25757 0.032657
680000000 -0.22863 0.20667 -0.028174 -0.010578 0.0058188 0.0047308 0.001236 -0.0071155
-0.002605 -0.011377 0.0043141 -0.0070962
-0.028123 -0.010601 -0.38455 0.16964 -0.032084 0.0010166 -0.0011421 -0.00079043
-0.0022596 -0.0093174 -0.0014114 -0.0022443
0.0058655 0.0045965 -0.032078 0.0010678 -0.097215 0.29628 -0.00078744 -0.00081961
-0.0015712 -0.00034076 -0.0035296 -0.0086487
0.00128 -0.0072034 -0.0011145 -0.00083086 -0.00079176 -0.00079494 -0.21655 0.2081
-0.025948 -0.0043413 -0.0090767 -0.0076678
-0.0027424 -0.011199 -0.002259 -0.0091426 -0.0015295 -0.00027954 -0.025911 -0.0042397
-0.25175 0.070998 -0.0077715 -0.0060104
0.0043351 -0.0070649 -0.0014135 -0.0021122 -0.0035122 -0.0086367 -0.0090932 -0.0077133
-0.0078259 -0.0059715 -0.25435 0.12807
740000000 -0.18352 0.20181 -0.035663 0.027593 0.012504 -0.0058886 -0.00078473 -0.0042312
-0.0049776 -0.002872 -0.0059192 0.0029912
-0.035599 0.027572 -0.33178 0.18826 -0.032304 0.035839 -0.0010185 -0.0062674
-0.011637 0.0075551 -0.0023346 -0.0048183
0.012482 -0.0058151 -0.032111 0.035885 -0.063406 0.29432 -0.0018784 0.0029213
-0.0035131 -0.0047323 -0.0021105 0.00095709
-0.00067299 -0.0041396 -0.0011588 -0.0063175 -0.0018674 0.0029322 -0.19855 0.21662
-0.041791 -0.002742 0.022348 0.012388
-0.0052427 -0.0028858 -0.011358 0.0078724 -0.0034918 -0.0045607 -0.041864 -0.002613
-0.15781 0.090583 -0.039032 0.0050172
-0.0059472 0.0028132 -0.002388 -0.0049324 -0.0019746 0.00098138 0.022323 0.012478
-0.039026 0.0049954 -0.24138 0.13871
800000000 -0.14872 0.23829 -0.020166 0.018158 0.0049458 -0.010648 -0.0044351 -0.0015913
-0.0040868 0.0024368 0.0033073 0.00074197
-0.02021 0.018147 -0.33165 0.25663 -0.0060681 0.033747 -0.0023306 0.0022872
-0.0010078 0.0033136 0.00097884 0.0054345
0.004922 -0.010688 -0.0060165 0.03379 -0.021089 0.31577 0.00070012 0.0017513
0.00021642 0.0034688 -0.0016325 0.0012857
-0.004393 -0.0016659 -0.0022885 0.0022568 0.00068047 0.0017604 -0.16833 0.24286
-0.026404 0.016856 0.012756 -0.0099774
-0.0040277 0.0025188 -0.0011298 0.0033248 0.00019507 0.0034556 -0.026462 0.016928
-0.1943 0.11885 -0.015006 0.019831
0.0034852 0.00075753 0.00095109 0.0054943 -0.0017093 0.0013409 0.012698 -0.010027
-0.014996 0.019782 -0.2277 0.18441
860000000 -0.11355 0.25712 -0.014646 0.030746 -0.0034868 -0.0099789 -0.0019745 0.0011312
0.0044449 0.0046698 -0.0025906 -0.0022004
-0.014596 0.030719 -0.28385 0.29683 0.0098634 0.033309 4.8902e-05 0.002084
0.0045319 0.00065145 0.0031457 0.00032763
-0.003496 -0.010019 0.009927 0.03331 0.026821 0.32259 -0.00033667 4.3732e-06
0.0024977 -0.0014487 0.0021348 0.0036624
-0.0019161 0.0011777 4.4481e-05 0.0020861 -0.00034293 8.2424e-06 -0.13164 0.25334
-0.014715 0.021282 -0.0049376 -0.008913
0.0045163 0.0048577 0.004361 0.00076048 0.0024867 -0.0013908 -0.014765 0.021354
-0.14024 0.16311 -0.020103 0.017487
-0.0025042 -0.0023309 0.0031919 0.00041816 0.0021116 0.0036915 -0.0049278 -0.0089929
-0.020141 0.017329 -0.17783 0.22263
920000000 -0.087072 0.27794 0.0072797 0.036013 -0.0094097 -0.0045052 -0.0013501 0.0015601
0.0017497 0.0016264 0.0028741 -0.0018346
0.0072377 0.03597 -0.25402 0.31666 0.028876 0.019867 0.0018706 0.0010093
0.0073389 -0.00073009 0.003673 -0.0031284
-0.0094086 -0.0044897 0.028871 0.019846 0.073914 0.32284 0.0019952 -0.00013665
0.0016552 -0.00063628 0.00065067 -0.0015292
-0.0013544 0.001591 0.0018298 0.0010262 0.0020142 -0.00014529 -0.10536 0.26914
-0.0066801 0.03136 0.0026888 -0.0067513
0.0016432 0.0015772 0.0072273 -0.00084281 0.0016005 -0.00061675 -0.0065739 0.031334
-0.12764 0.16937 0.00046448 0.025652
0.0028534 -0.0018167 0.0037818 -0.0031282 0.00074294 -0.0014357 0.0027189 -0.0068007
0.00040153 0.025676 -0.1768 0.23806
980000000 -0.040409 0.2952 0.019147 0.027683 -0.0088096 0.0044111 0.0018709 0.0028877
0.0037705 -0.0020436 -0.0031114 -0.0020311
0.019124 0.027657 -0.20254 0.34847 0.033184 0.0026489 0.0020804 -0.00026408
0.0016693 -0.0063952 -0.0005734 -0.0024626
-0.0087781 0.0043955 0.033175 0.0025741 0.12089 0.31542 0.00051871 -0.0013113
-1.2929e-06 -0.0023889 0.0010595 -0.00035449
0.0018782 0.0028826 0.002074 -0.00025877 0.00050678 -0.0013038 -0.066462 0.27826
0.011902 0.02835 -0.0084223 -0.006389
0.003803 -0.0020567 0.0016367 -0.0064066 4.3294e-06 -0.0023307 0.011961 0.02832
-0.094208 0.19251 0.0072018 0.018287
-0.0031281 -0.002132 -0.00056708 -0.0024753 0.0010821 -0.00037305 -0.0084359 -0.0063767
0.0071587 0.018295 -0.13259 0.27498
1040000000 0.0024139 0.3019 0.033324 0.014774 -0.0015832 0.006548 0.0022492 0.00052664
-2.7153e-05 -0.0031642 -0.00092656 -0.0015605
0.033285 0.014819 -0.16698 0.36162 0.028039 -0.016646 0.0014006 -0.0018496
-0.0024675 -0.0028775 -0.0017177 -0.0027691
-0.0015286 0.006538 0.02801 -0.016702 0.16817 0.30071 -0.0006816 -0.001563
-0.0016892 -0.00088077 -0.00070318 -0.00094762
0.0022752 0.00050523 0.0013969 -0.0018753 -0.0006982 -0.0015741 -0.037541 0.28724
0.022262 0.01532 -0.0028095 0.00083773
2.3221e-05 -0.0031749 -0.0025031 -0.0028839 -0.0016561 -0.00087096 0.022318 0.015254
-0.062558 0.19781 0.014895 0.015458
-0.00089355 -0.0016018 -0.0017293 -0.0028148 -0.00068019 -0.00095881 -0.0027891 0.00083327
0.014842 0.015404 -0.10663 0.29446
1100000000 0.047271 0.30781 0.034528 -0.007029 0.002372 0.0036834 0.0020611 -0.00089219
-0.0020906 -0.0028213 -0.0037238 0.00058935
0.034492 -0.0069865 -0.12414 0.37794 0.013255 -0.02884 -0.00013961 -0.0018261
-0.0038389 -0.00065898 -0.0035279 -0.00012739
0.0024057 0.0036829 0.013186 -0.028894 0.21576 0.27816 -0.0019356 0.00025351
-0.002032 0.00077419 -0.0010312 6.3278e-05
0.0020624 -0.00089933 -0.00011522 -0.0018327 -0.001928 0.00027238 0.0036915 0.29002
0.025904 0.0012894 -0.0027349 -0.00017937
-0.0020473 -0.0027878 -0.0038589 -0.00062543 -0.0020268 0.00078482 0.025924 0.0012767
-0.043136 0.20886 0.019433 0.0055451
-0.0037048 0.00051982 -0.0035296 -0.00016236 -0.0010228 7.8573e-05 -0.0027581 -0.00010184
0.0194 0.0055393 -0.059938 0.31714
1160000000 0.097788 0.30192 0.021513 -0.022835 0.0019106 -0.000238 -6.3038e-05 -0.0017952
-0.0040629 -0.00038727 -0.00071529 0.003962
0.021501 -0.022787 -0.07969 0.38276 -0.0060841 -0.028916 -0.0017451 -0.0015184
-0.0028857 0.0029265 -0.0014279 0.0020357
0.0019205 -0.00022581 -0.0061818 -0.028871 0.25885 0.24456 -0.00074464 0.0018958
-0.00030482 0.0021846 -0.00067191 0.00039235
-5.5081e-05 -0.0017862 -0.0017547 -0.0014814 -0.0007339 0.0019049 0.04352 0.28518
0.020511 -0.014455 -0.0032267 0.0040211
-0.0040614 -0.00036711 -0.0028772 0.002932 -0.00032158 0.0021762 0.020513 -0.014486
-0.010262 0.21526 0.017876 -0.0033785
-0.00066908 0.0039859 -0.0014331 0.0019751 -0.00066412 0.00038484 -0.0032159 0.0039925
0.017924 -0.0033493 -0.013266 0.3177
1220000000 0.14224 0.28908 0.0069983 -0.030485 -0.0019506 -4.7809e-05 0.00027032 -0.00085507
-0.0025087 0.0023366 0.0014444 0.0021465
0.0070345 -0.030445 -0.034938 0.39368 -0.018501 -0.019877 -0.0025199 0.00052016
0.00025252 0.0033245 -0.00042968 0.0021052
-0.0019477 -3.2705e-05 -0.018584 -0.019839 0.29698 0.20253 0.00090025 0.0019794
0.00079971 0.0013136 0.00051119 0.00052653
0.00027623 -0.00087583 -0.0025148 0.00054343 0.00091142 0.0019604 0.084039 0.2741
0.0085378 -0.020557 0.00088464 0.0013929
-0.0024826 0.0023529 0.00028117 0.0033358 0.0008149 0.0013314 0.0085331 -0.020581
0.013582 0.22177 0.011864 -0.015168
0.001439 0.0020999 -0.0004097 0.0021177 0.00052306 0.00053023 0.00090762 0.0013744
0.011861 -0.015196 0.020798 0.32851
1280000000 0.19118 0.26598 -0.011053 -0.027299 -0.0016728 0.003384 -0.00082429 -0.0020988
-0.00068309 0.0030542 0.0025489 0.00091343
-0.011018 -0.027267 0.011805 0.38431 -0.024545 -0.006747 -0.0010082 0.0015707
0.002132 0.0018384 0.0010286 0.0018124
-0.00166 0.0034123 -0.024587 -0.0066788 0.3249 0.15677 0.0018243 -6.7115e-05
0.0012978 0.00012717 0.0002863 0.00010319
-0.00082301 -0.0021032 -0.0009922 0.0015559 0.001813 -5.0812e-05 0.12021 0.25486
-0.0025741 -0.021428 -0.00095298 0.00069405
-0.00065421 0.0030407 0.0021226 0.0018391 0.0013064 0.0001354 -0.0025922 -0.021443
0.049333 0.22328 0.00069883 -0.016728
0.0025501 0.00089557 0.0010269 0.0017986 0.00030576 0.00013799 -0.00093663 0.0007097
0.00069484 -0.016751 0.066702 0.32604
1340000000 0.22799 0.23079 -0.019879 -0.016093 0.0016025 0.0048526 -0.0017687 -0.0010443
0.0015125 0.0026131 0.0016578 -0.0016061
-0.019855 -0.016091 0.052331 0.37404 -0.02129 0.0061246 -1.9479e-05 0.0021386
0.0022637 0.00037205 0.0014719 0.00057983
0.0016233 0.0048478 -0.021277 0.0062179 0.34442 0.10832 0.0013673 -0.0011691
0.00070569 -0.00061874 6.4977e-05 0.00022716
-0.0017728 -0.0010144 -7.9991e-06 0.0021336 0.0013392 -0.0011671 0.15174 0.23208
-0.012476 -0.016717 0.00019837 0.0016036
0.0015128 0.0026189 0.0022346 0.00039026 0.000655 -0.00060377 -0.012507 -0.016701
0.079315 0.21682 -0.0068648 -0.014238
0.0016167 -0.0015975 0.0014503 0.00056836 5.5143e-05 0.00021109 0.00019613 0.0015949
-0.006874 -0.014228 0.10589 0.31674
1400000000 0.26001 0.19128 -0.023672 -0.0039592 0.005882 0.003084 -0.0022185 0.00062122
0.0025117 0.00089235 9.883e-05 -0.001572
-0.023641 -0.0039672 0.089229 0.3594 -0.013721 0.013734 0.001516 0.0012611
0.0011852 -0.0012752 0.0011112 -8.6819e-05
0.0058869 0.0030875 -0.013661 0.013816 0.3557 0.05544 4.1731e-05 -0.0021185
3.2214e-05 -0.00049468 0.00036758 0.00019882
-0.0022252 0.00065158 0.0015271 0.0012561 3.8887e-05 -0.00213 0.17944 0.20091
-0.018179 -0.0083437 -0.00038736 0.0011009
0.002515 0.00090473 0.0011662 -0.0012611 9.8819e-06 -0.0004926 -0.018204 -0.008289
0.11112 0.20999 -0.013007 -0.0080243
9.3485e-05 -0.0015628 0.0011128 -9.0914e-05 0.00034109 0.00019776 -0.00038182 0.0011098
-0.012986 -0.0080408 0.1478 0.30125
1460000000 0.2818 0.14629 -0.019053 0.0077732 0.0060934 -0.0022769 -0.0016109 0.001801
0.0022141 -0.00075667 -0.00056846 -0.0008945
-0.01904 0.0077653 0.12303 0.33574 -0.0046038 0.015807 0.0018252 -1.6944e-05
0.00046288 -0.0015356 0.00096571 -0.00067818
0.0060876 -0.0022927 -0.0045373 0.015835 0.36041 0.0023162 -0.0017492 -0.0013616
7.201e-05 -0.00021968 0.00068623 -0.00031373
-0.001623 0.0017822 0.0018191 -2.176e-05 -0.001764 -0.001348 0.2033 0.17017
-0.018272 9.1103e-05 0.00013779 0.0026293
0.002188 -0.00076838 0.00046784 -0.0015359 7.602e-05 -0.00023112 -0.018279 0.00012401
0.13963 0.19385 -0.01398 -0.0010053
-0.00056375 -0.00088451 0.00095756 -0.00066212 0.00069031 -0.00031097 0.00015238 0.0026259
-0.013972 -0.0009997 0.17951 0.27792
1520000000 0.29285 0.10304 -0.012047 0.012212 0.0034702 -0.0046133 0.0001654 0.0027278
0.0019932 -0.0019163 -0.0011759 1.4126e-05
-0.012036 0.012203 0.15529 0.31942 0.0028513 0.012838 0.0016477 -0.0010323
-0.00031282 -0.00094182 0.00020521 -0.00095275
0.003458 -0.0046122 0.0028911 0.012822 0.3535 -0.053298 -0.0015347 -9.7565e-05
0.00047758 -0.0009134 -5.2069e-06 -0.00024207
0.00017356 0.002726 0.0016378 -0.0010397 -0.0015411 -8.8018e-05 0.2236 0.13129
-0.015528 0.0065827 0.0024957 0.0020738
0.0019846 -0.001921 -0.00031581 -0.00094698 0.00047329 -0.00094404 -0.015527 0.0066213
0.16709 0.17777 -0.012883 0.0042952
-0.0011562 3.3306e-05 0.00020159 -0.0009587 -6.7199e-06 -0.00026189 0.0025086 0.0020791
-0.012882 0.0042792 0.21034 0.2539
1580000000 0.30035 0.056161 -0.0049558 0.013719 -0.00088881 -0.0052644 0.0016994 0.0019028
-0.00032161 -0.0023113 -0.0001712 0.00046425
-0.0049606 0.013729 0.18098 0.29378 0.0060644 0.007507 0.00026837 -0.0017768
-0.00063481 -0.00069436 -0.00026238 -0.00077393
-0.00088325 -0.0052683 0.0061056 0.007491 0.3335 -0.11039 -0.0016037 0.0011927
-0.00044889 -0.0010965 0.00017563 -0.00061855
0.0016826 0.0018963 0.0002462 -0.001776 -0.0015944 0.001187 0.23437 0.092126
-0.010196 0.011068 0.002991 0.00012227
-0.00034851 -0.0023298 -0.00064243 -0.0006921 -0.00043455 -0.0010868 -0.010179 0.011095
0.19025 0.15769 -0.0092758 0.0096249
-0.00016967 0.00047878 -0.00028535 -0.00078803 0.00014708 -0.00064029 0.0030134 0.00010503
-0.0092706 0.0096334 0.23907 0.22558
1640000000 0.30042 0.014265 0.0012846 0.01104 -0.0029375 -0.0030123 0.0028637 0.00074281
-0.0010652 -0.0015466 -0.00013771 0.00053873
0.0012804 0.011033 0.209 0.26831 0.0062032 0.0027146 -0.001017 -0.0016337
-0.00084282 -0.00012039 -0.00056112 -0.00054707
-0.0029526 -0.0029847 0.0062145 0.0026886 0.30488 -0.15924 -0.00034615 0.0017048
-0.0013236 -0.0007321 -0.00026399 -0.00026863
0.0028517 0.00073852 -0.0010276 -0.0016362 -0.00038012 0.0017047 0.24383 0.044803
-0.0045806 0.011193 0.0027774 -0.0015091
-0.0010713 -0.0015589 -0.00085039 -0.00011095 -0.0013405 -0.00071872 -0.0045538 0.011221
0.21172 0.13135 -0.0036034 0.011397
-0.0001322 0.00052041 -0.00056982 -0.0005385 -0.00026214 -0.00025986 0.0027868 -0.0015044
-0.0036123 0.011386 0.26256 0.19292
1700000000 0.29079 -0.030828 0.0036804 0.007229 -0.0037629 -0.00017917 0.0029593 -0.0015376
-0.0021671 -0.00049814 0.00072112 0.00020486
0.0036773 0.0072273 0.22559 0.23719 0.0039847 -0.00012867 -0.0015463 -0.000306
-0.0004883 8.7348e-05 -0.00090499 -0.00036462
-0.0037521 -0.00016523 0.0039992 -0.0001538 0.26177 -0.19902 0.00094337 0.0013715
-0.0018592 4.8985e-05 -0.00076504 -0.00081842
0.002925 -0.0015472 -0.0015508 -0.0003072 0.00092728 0.0013637 0.23888 -0.0025744
-0.0012349 0.010059 0.0015378 -0.0026628
-0.002169 -0.00050505 -0.00048614 8.123e-05 -0.0018486 4.6658e-05 -0.0012145 0.010075
0.22708 0.10907 0.0016545 0.011021
0.00074521 0.00020641 -0.0009181 -0.00035899 -0.00078603 -0.00080448 0.0015404 -0.0026927
0.0016524 0.011034 0.27652 0.15768
1760000000 0.27715 -0.078159 0.0044774 0.0035995 -0.002761 0.00075437 0.00086346 -0.0036129
-0.0014107 0.00099921 0.00032214 -0.00053766
0.0044775 0.0035926 0.2506 0.19779 0.0014785 -0.0019732 -0.0011141 0.00042998
-0.00086907 0.00063268 -0.00055936 0.00048109
-0.0027347 0.00080718 0.0014786 -0.0019788 0.21342 -0.23308 0.001325 0.00067903
-0.0010847 0.0017335 -0.0014077 -0.00023326
0.00085195 -0.0035985 -0.0011169 0.0004192 0.0013086 0.00067275 0.22944 -0.050832
0.0015142 0.0079364 -0.00041706 -0.0029159
-0.0014033 0.0010324 -0.00086016 0.00063754 -0.001076 0.0017335 0.0015326 0.0079447
0.23968 0.072624 0.0056878 0.0075913
0.00028276 -0.00055768 -0.00055643 0.00049477 -0.0014108 -0.00021984 -0.00043231 -0.0029354
0.0056755 0.0075673 0.28742 0.11935
1820000000 0.25149 -0.11431 0.0034918 0.00058199 -0.00040545 0.0025469 -0.0014444 -0.0028484
-0.00081951 0.0012183 -0.00019379 -8.9843e-05
0.0034801 0.00057994 0.25998 0.16847 -0.00065657 -0.00063126 -0.0010293 0.001038
-0.00012178 0.0010353 -0.00047606 0.00053596
-0.00042221 0.0025306 -0.00066545 -0.00061638 0.1627 -0.24928 0.0011683 -3.6167e-05
0.00014717 0.0021827 -0.0013569 0.00063527
-0.0014476 -0.0028509 -0.0010163 0.0010588 0.0011872 -3.7015e-05 0.20066 -0.095437
0.0022073 0.005631 -0.0017705 -0.0019317
-0.00081204 0.0012213 -0.00011782 0.0010451 0.00017177 0.0021563 0.0022431 0.0056359
0.25424 0.042272 0.006728 0.0032192
-0.00019678 -8.222e-05 -0.00047678 0.0005387 -0.001376 0.00063384 -0.0017736 -0.0019108
0.0067365 0.0032342 0.28773 0.08165
1880000000 0.2157 -0.15319 0.00055726 -0.00075549 -0.0008307 0.0023058 -0.0030919 -0.0017301
8.4179e-05 0.0015788 0.00012603 -0.000261
0.00055213 -0.000766 0.26438 0.12255 -0.0029193 0.0013054 3.7693e-05 0.0015557
0.00033098 0.0010812 0.00016625 0.00089928
-0.00080881 0.0023276 -0.0029356 0.0013285 0.10929 -0.25908 0.0013205 -0.00097289
0.0016859 0.0014927 -0.00068262 0.0015939
-0.0030841 -0.0016873 3.3368e-05 0.0015685 0.0013278 -0.0009274 0.16222 -0.13467
0.0019553 0.0033764 -0.0027045 1.3836e-05
7.8763e-05 0.001629 0.00032119 0.0010801 0.0016569 0.0015046 0.0019509 0.0033738
0.25437 0.0087835 0.0061272 0.00039156
0.00011163 -0.00026409 0.00018203 0.0009188 -0.0006969 0.0015336 -0.0027007 1.8273e-05
0.0061222 0.0003769 0.28539 0.047085
1940000000 0.17653 -0.17838 -0.0016807 -0.0013871 0.0014246 0.0024539 -0.0034879 0.00090863
0.0015646 0.00088035 -0.00042281 -0.00036753
-0.0016784 -0.0013905 0.26499 0.090994 -0.0016949 0.0039456 0.0010215 0.0010863
0.0015117 0.00070548 0.00081181 0.00045702
0.0014327 0.0024002 -0.0016391 0.0039533 0.062978 -0.2523 0.0002311 -0.001603
0.0022757 0.00015325 0.00072039 0.0017252
-0.0035035 0.00095497 0.0010169 0.0010837 0.00021194 -0.0015897 0.11179 -0.16536
0.00055765 0.0022358 -0.0020421 0.0014258
0.0015446 0.00087501 0.0015042 0.00069112 0.0022596 0.00015629 0.00056654 0.0022203
0.25368 -0.030587 0.0043449 -0.0030997
-0.0004613 -0.00033934 0.00081361 0.00045374 0.00071838 0.0017041 -0.0020137 0.001438
0.0043533 -0.0030597 0.27267 0.010005
2000000000 0.13022 -0.19279 -0.0051378 0.0013171 0.0025515 0.0018565 -0.0020513 0.0034506
0.001037 -0.00016739 -0.00037173 0.00038555
-0.0051486 0.0012796 0.25106 0.055404 -0.0013753 0.0059545 0.0015225 0.00017613
0.0014227 -0.00088712 0.00050944 9.5192e-05
0.0026137 0.0018505 -0.0013379 0.0059911 0.018547 -0.23739 -0.00097882 -0.0009898
0.0017113 -0.001145 0.0018924 0.00086657
-0.0020292 0.0034676 0.0015073 0.00016914 -0.00093958 -0.00098768 0.059488 -0.17696
-0.0013739 0.0021933 -0.00047366 0.0024005
0.0010621 -0.00016174 0.0014119 -0.00091025 0.0017027 -0.0011012 -0.0013518 0.0022077
0.24497 -0.064276 0.00060547 -0.0042112
