!Keysight Technologies,M9804A,MY58100912,A.14.10.03
!Date: Thursday, April 27, 2023 10:28:33
!Correction: S11(C  6-Port  ) 
!S12(C  6-Port  ) 
!S13(C  6-Port  ) 
!S14(C  6-Port  ) 
!S15(C  6-Port  ) 
!S16(C  6-Port  ) 
!S21(C  6-Port  ) 
!S22(C  6-Port  ) 
!S23(C  6-Port  ) 
!S24(C  6-Port  ) 
!S25(C  6-Port  ) 
!S26(C  6-Port  ) 
!S31(C  6-Port  ) 
!S32(C  6-Port  ) 
!S33(C  6-Port  ) 
!S34(C  6-Port  ) 
!S35(C  6-Port  ) 
!S36(C  6-Port  ) 
!S41(C  6-Port  ) 
!S42(C  6-Port  ) 
!S43(C  6-Port  ) 
!S44(C  6-Port  ) 
!S45(C  6-Port  ) 
!S46(C  6-Port  ) 
!S51(C  6-Port  ) 
!S52(C  6-Port  ) 
!S53(C  6-Port  ) 
!S54(C  6-Port  ) 
!S55(C  6-Port  ) 
!S56(C  6-Port  ) 
!S61(C  6-Port  ) 
!S62(C  6-Port  ) 
!S63(C  6-Port  ) 
!S64(C  6-Port  ) 
!S65(C  6-Port  ) 
!S66(C  6-Port  ) 
!S6P File: Measurement: :
# Hz S  RI   R 50
500000000 -0.33939 -0.016549 -0.010798 -0.0034017 -0.0070844 0.012287 -0.003125 0.01182
0.011201 0.0035507 -0.0025922 0.0077525
-0.010802 -0.0034566 -0.41972 -0.034781 0.0063407 -0.011875 0.0018865 0.012356
0.0068341 0.002316 0.0021021 0.013431
-0.0071055 0.012291 0.0063456 -0.011874 -0.26252 0.22351 0.0071973 0.0036351
-0.00040433 0.0083739 0.0024806 0.012076
-0.0030947 0.011774 0.0018957 0.012399 0.0071926 0.0036338 -0.33061 0.063579
-0.018928 -0.0066489 0.015019 0.023286
0.011269 0.0035589 0.0068432 0.002315 -0.0003965 0.0083851 -0.018932 -0.0066354
-0.23764 -0.16179 -0.024364 0.0039859
-0.0024849 0.0077005 0.0020753 0.013477 0.0024795 0.012096 0.014998 0.023309
-0.024361 0.0039597 -0.28587 -0.077027
560000000 -0.31089 0.13829 -0.026731 -0.060225 0.00079027 0.011474 0.0055264 0.0096839
0.009035 0.0039718 0.010276 0.0062732
-0.026614 -0.060189 -0.37528 0.11921 -0.042091 -0.034697 0.013544 0.0029317
-0.01222 -0.0036579 0.0034061 -0.0011746
0.00078244 0.011508 -0.042106 -0.034732 -0.17968 0.26772 -0.00041886 -0.0043132
0.018521 0.0032551 0.0070402 -0.0065842
0.0055508 0.0097513 0.013602 0.002933 -0.00039688 -0.0043161 -0.30391 0.14885
0.00027637 -0.024317 0.0030131 -0.018152
0.009063 0.003983 -0.012253 -0.003661 0.018501 0.0032032 0.00027107 -0.024321
-0.28706 0.011051 0.0025476 -0.046289
0.010273 0.0062896 0.0034069 -0.0011566 0.0070346 -0.0065725 0.0030004 -0.018156
0.0025725 -0.046314 -0.32975 0.061662
620000000 -0.2698 0.12364 -0.023168 0.0069362 0.0037268 0.007984 0.007116 -0.0056821
0.011131 -0.0015597 0.00065505 -0.0027314
-0.023154 0.0069191 -0.40103 0.074821 -0.019426 0.00020119 -0.0010836 -0.0021778
0.010051 -0.0067629 0.0014464 -0.0030265
0.0036903 0.0079333 -0.019446 0.00025932 -0.14871 0.27693 -0.0013488 -0.0045505
-0.0034383 -0.0032551 0.0080153 -0.003713
0.007152 -0.0057068 -0.0010962 -0.0021812 -0.0013683 -0.0045737 -0.26251 0.16081
-0.038803 -0.017151 0.011948 0.022655
0.011165 -0.0015476 0.010062 -0.0067556 -0.003386 -0.0032484 -0.038811 -0.017126
-0.21191 -0.026887 -0.03782 0.01441
0.00082474 -0.0027364 0.0014362 -0.0030141 0.0080631 -0.0036945 0.011966 0.022629
-0.037826 0.014406 -0.2568 0.034036
680000000 -0.22665 0.20523 -0.027837 -0.012093 0.0052886 0.0045194 0.0009062 -0.007275
-0.0033343 -0.011027 0.0037352 -0.0065903
-0.027813 -0.012108 -0.3839 0.16865 -0.032305 0.00055081 -0.0014751 -0.00051673
-0.0027455 -0.0088266 -0.0016797 -0.0019546
0.0052874 0.0044999 -0.032316 0.00060033 -0.098201 0.29514 -0.00075586 -0.00028217
-0.0018528 0.00022944 -0.0036514 -0.0083646
0.00090602 -0.0072334 -0.0014821 -0.00052699 -0.00075807 -0.00028527 -0.21683 0.20821
-0.025517 -0.0054282 -0.0088081 -0.0081255
-0.0033415 -0.011012 -0.0027549 -0.0088417 -0.0018549 0.00022379 -0.025537 -0.005411
-0.24914 0.069988 -0.0068531 -0.006622
0.0038028 -0.0066093 -0.0016948 -0.0019348 -0.0036561 -0.0083625 -0.0088287 -0.0081173
-0.0068324 -0.0066297 -0.25277 0.12872
740000000 -0.1835 0.19988 -0.036686 0.026295 0.011584 -0.0058929 -0.00084711 -0.0040147
-0.0052294 -0.0024422 -0.0057785 0.0032602
-0.036702 0.026228 -0.33243 0.18787 -0.032399 0.035075 -0.0010678 -0.0060941
-0.010787 0.0079812 -0.0021073 -0.004499
0.01155 -0.0059661 -0.032347 0.035167 -0.06441 0.29459 -0.0016085 0.002959
-0.0033166 -0.0038947 -0.0018797 0.00074515
-0.00088473 -0.0039828 -0.0010643 -0.0060772 -0.0016082 0.002951 -0.1984 0.21665
-0.04182 -0.0036357 0.021436 0.012002
-0.0052276 -0.0025282 -0.010785 0.0080662 -0.0033197 -0.0039038 -0.041862 -0.0035718
-0.15722 0.089782 -0.038272 0.0031464
-0.0057651 0.0032578 -0.0021288 -0.0045319 -0.0018729 0.00078299 0.021465 0.011991
-0.038239 0.0031362 -0.24064 0.13834
800000000 -0.15004 0.23713 -0.02147 0.017739 0.004402 -0.010312 -0.004389 -0.0017384
-0.0035861 0.0028433 0.0036772 0.00085044
-0.021471 0.017726 -0.33243 0.25667 -0.0064668 0.033567 -0.0022162 0.0023764
-0.0004159 0.003496 0.0011358 0.005389
0.0043736 -0.010313 -0.0063996 0.033597 -0.021597 0.31641 0.00086702 0.0015802
0.00049379 0.0034761 -0.0018427 0.0013491
-0.0043973 -0.0017502 -0.0022196 0.0023627 0.00086602 0.0015744 -0.16864 0.24282
-0.02671 0.016089 0.012025 -0.0099825
-0.0035983 0.0028806 -0.00039625 0.0035044 0.00051126 0.0034695 -0.026713 0.016158
-0.19367 0.11713 -0.015702 0.018376
0.003654 0.00082644 0.0011663 0.005365 -0.0018544 0.0013471 0.012037 -0.0099902
-0.015734 0.018342 -0.228 0.18383
860000000 -0.11506 0.25703 -0.015754 0.030911 -0.0039287 -0.0093426 -0.002191 0.0012239
0.0045839 0.00455 -0.002425 -0.0024673
-0.015738 0.030897 -0.28474 0.29717 0.0093977 0.032839 0.00028637 0.0019309
0.0047164 -1.4645e-05 0.0032876 0.00047195
-0.0039451 -0.0093016 0.0094707 0.032829 0.027222 0.32314 -0.00024955 -0.00011978
0.0025454 -0.0013199 0.0016992 0.004059
-0.0021593 0.0012222 0.00030008 0.0019027 -0.00024852 -0.00010644 -0.13163 0.25377
-0.015232 0.020885 -0.0055492 -0.0090498
0.0046004 0.0045597 0.004754 -5.5739e-05 0.0025463 -0.0013232 -0.015212 0.020923
-0.14177 0.16202 -0.020852 0.016336
-0.0024352 -0.0024787 0.0032659 0.00048677 0.0016969 0.0040694 -0.0055523 -0.0090321
-0.020853 0.016341 -0.1785 0.22303
920000000 -0.08823 0.27861 0.0063307 0.036656 -0.0092141 -0.0036541 -0.0014293 0.001929
0.0016215 0.0014824 0.0027179 -0.0017969
0.0063063 0.036642 -0.25431 0.31758 0.028122 0.019986 0.001872 0.00093787
0.006737 -0.00078173 0.0035564 -0.003089
-0.0092226 -0.0036292 0.028198 0.019905 0.074524 0.3228 0.0019575 -0.00011496
0.0014851 -0.00063381 0.0008655 -0.0011028
-0.0014205 0.0019323 0.0018769 0.00093352 0.0019578 -0.00010846 -0.10535 0.26931
-0.0072355 0.030611 0.0022948 -0.0062003
0.0016118 0.001485 0.0067581 -0.00083194 0.001503 -0.00062848 -0.007179 0.030638
-0.12811 0.16831 -0.00047925 0.025365
0.0027106 -0.0018248 0.0035294 -0.0030995 0.00086644 -0.0011082 0.0022855 -0.0062071
-0.00048347 0.025382 -0.17678 0.23784
980000000 -0.040965 0.29655 0.018717 0.028369 -0.008259 0.0048322 0.0020447 0.0031466
0.0038073 -0.0019307 -0.0031309 -0.0019769
0.01869 0.028348 -0.20221 0.34999 0.032231 0.0030224 0.001967 -0.00026864
0.0013112 -0.0061321 -0.00063373 -0.0023271
-0.0082348 0.0048543 0.032268 0.0029497 0.12127 0.31477 0.00043137 -0.0012796
9.046e-05 -0.0022416 0.0014202 -0.00028117
0.0020655 0.0031353 0.0019625 -0.00028681 0.00043881 -0.0012858 -0.066273 0.27878
0.01085 0.027959 -0.0085165 -0.0060211
0.003792 -0.0019051 0.0012834 -0.0061541 9.4086e-05 -0.0022443 0.010895 0.027951
-0.095723 0.19235 0.0062527 0.018112
-0.003152 -0.0019848 -0.00062408 -0.0023077 0.0014181 -0.00028809 -0.0085258 -0.0060104
0.0062509 0.018113 -0.13271 0.27588
1040000000 0.0025634 0.30333 0.03295 0.015611 -0.00094061 0.006594 0.0024574 0.00041294
-2.3599e-05 -0.0032037 -0.00071562 -0.001315
0.032888 0.015599 -0.16594 0.36276 0.027378 -0.015654 0.0013896 -0.0018266
-0.0023899 -0.0023457 -0.0016178 -0.0026152
-0.00093465 0.0065886 0.027368 -0.015757 0.168 0.29961 -0.00064574 -0.001461
-0.0015776 -0.00084031 -0.00043329 -0.0010804
0.002473 0.00043071 0.0013768 -0.0018504 -0.00064043 -0.0014599 -0.03713 0.28737
0.020774 0.015361 -0.0027643 0.0014125
-5.4022e-05 -0.0031632 -0.0024069 -0.0023563 -0.0015788 -0.0008421 0.020812 0.015337
-0.063642 0.19823 0.013792 0.015676
-0.00073269 -0.0013128 -0.0016211 -0.0025973 -0.0004331 -0.0010876 -0.002763 0.0014181
0.013766 0.015675 -0.10621 0.2948
1100000000 0.04798 0.30921 0.034269 -0.0059773 0.0027874 0.0035701 0.0022268 -0.0011089
-0.0021197 -0.0026994 -0.0034288 0.00050644
0.034241 -0.0059458 -0.12257 0.37866 0.013192 -0.027363 -9.6837e-05 -0.0017377
-0.0032994 -0.00042791 -0.0032067 -0.00021767
0.0027817 0.0035635 0.013128 -0.027422 0.21448 0.27728 -0.0017958 0.00024521
-0.001747 0.00062306 -0.00090046 -0.00021995
0.002222 -0.001107 -0.00011165 -0.0017523 -0.0017977 0.00023802 0.0041141 0.29002
0.024238 0.0022156 -0.0023734 0.00035059
-0.0021191 -0.0026899 -0.0033049 -0.00042044 -0.0017383 0.00061438 0.024249 0.0021784
-0.044154 0.20994 0.018337 0.0061095
-0.003432 0.00050981 -0.0032052 -0.00020282 -0.00089637 -0.0002141 -0.0023708 0.000357
0.018336 0.006121 -0.059568 0.31749
1160000000 0.099106 0.30277 0.021882 -0.021407 0.0023935 -0.00039147 -9.2867e-05 -0.0021569
-0.0038756 -0.00044159 -0.00056804 0.003678
0.021858 -0.02138 -0.077752 0.38217 -0.0050468 -0.027729 -0.0016746 -0.0014559
-0.002479 0.0024234 -0.0013025 0.0016837
0.0023801 -0.0004016 -0.0051218 -0.027729 0.257 0.24463 -0.00068769 0.0017535
-0.00039348 0.0018603 -0.00087622 0.00012927
-0.00010874 -0.0021464 -0.0016964 -0.001463 -0.00068426 0.0017619 0.043914 0.28478
0.019657 -0.012508 -0.0027929 0.0044407
-0.0038875 -0.00042548 -0.0024663 0.0024237 -0.00038321 0.0018488 0.019649 -0.012549
-0.010502 0.2167 0.01663 -0.002109
-0.00056511 0.0036768 -0.0012948 0.0017117 -0.00086398 0.00012163 -0.0027916 0.0044513
0.01662 -0.0021271 -0.012602 0.31758
1220000000 0.14369 0.28916 0.0081547 -0.02928 -0.0014929 -0.00042577 4.7222e-05 -0.00098962
-0.0023465 0.0023335 0.0013432 0.0017852
0.0081624 -0.029251 -0.033771 0.39233 -0.017046 -0.019387 -0.0023783 0.00048482
0.0002259 0.0027933 -0.00047506 0.0018236
-0.0015062 -0.00043352 -0.017119 -0.019343 0.29537 0.20406 0.00082969 0.0017712
0.00064418 0.0012133 0.00035106 0.00050948
2.7901e-05 -0.0009879 -0.0023839 0.00049378 0.00082405 0.0017734 0.084006 0.27359
0.0087475 -0.018175 0.001633 0.0013992
-0.0023425 0.002347 0.00025233 0.0027801 0.00064878 0.0012194 0.0087281 -0.018198
0.013951 0.22296 0.011347 -0.013282
0.0013324 0.0017683 -0.00045939 0.0018282 0.00035088 0.00050849 0.0016335 0.0013875
0.01134 -0.013268 0.020952 0.32828
1280000000 0.19228 0.26546 -0.0091016 -0.026726 -0.0014383 0.0027201 -0.0010076 -0.001973
-0.00053332 0.0028219 0.0023147 0.00076743
-0.0090735 -0.026711 0.011821 0.38244 -0.022972 -0.0071899 -0.00095006 0.0013817
0.0016375 0.0015614 0.00072151 0.0016879
-0.0014319 0.0027256 -0.023003 -0.0071195 0.32476 0.15908 0.0015872 -6.9987e-05
0.0010704 0.00015963 0.00019459 0.00017371
-0.0010145 -0.0019635 -0.00095117 0.001388 0.0015857 -6.4328e-05 0.11977 0.25462
-0.00096339 -0.019352 -0.00040051 0.00042148
-0.00051228 0.0028152 0.0016549 0.0015577 0.0010666 0.00016441 -0.00099873 -0.019369
0.050132 0.22407 0.0010779 -0.014671
0.002314 0.00076217 0.0007312 0.0016895 0.00019885 0.00017099 -0.00039642 0.00042809
0.001091 -0.014671 0.066552 0.32584
1340000000 0.22869 0.22989 -0.017832 -0.016973 0.0013435 0.0041232 -0.0017329 -0.00081547
0.0014069 0.0024247 0.0013779 -0.0014194
-0.017796 -0.016972 0.051203 0.37287 -0.020372 0.004898 -0.00013429 0.0019793
0.0018217 0.00061914 0.0012859 0.00061591
0.0013497 0.0041039 -0.020368 0.0049773 0.34559 0.11052 0.00115 -0.00094995
0.00055935 -0.0004548 0.00010586 0.00024913
-0.0017351 -0.00081146 -0.0001253 0.0019805 0.0011447 -0.00095835 0.15117 0.23209
-0.0099157 -0.01581 0.00067517 0.0009586
0.0014181 0.0024248 0.0018292 0.00061818 0.00055728 -0.00045064 -0.0099497 -0.0158
0.080091 0.21707 -0.005203 -0.012464
0.0013671 -0.001418 0.0012917 0.00061248 0.00011214 0.00024532 0.00066814 0.00096186
-0.0051952 -0.012464 0.10545 0.31685
1400000000 0.26001 0.19039 -0.022392 -0.0058643 0.0051529 0.0025407 -0.0020439 0.00062918
0.0022891 0.00067264 8.9124e-05 -0.0013406
-0.022359 -0.0058888 0.087558 0.35907 -0.013596 0.012193 0.001288 0.0013025
0.0011024 -0.00083443 0.0010571 9.7342e-05
0.0051633 0.0025272 -0.013571 0.012264 0.35796 0.056532 0.00014974 -0.0018074
9.1937e-05 -0.0003574 0.00033583 0.00016279
-0.0020484 0.00064106 0.001303 0.0012973 0.00014601 -0.0018031 0.17887 0.20133
-0.015327 -0.0089602 -0.00032811 0.00034756
0.00228 0.0006752 0.0010965 -0.00083881 8.781e-05 -0.00036358 -0.015343 -0.0089322
0.11184 0.21004 -0.010671 -0.0073418
8.4171e-05 -0.0013495 0.0010635 8.3589e-05 0.00033617 0.00016588 -0.00032294 0.00034595
-0.010658 -0.007345 0.14766 0.30197
1460000000 0.28145 0.14579 -0.019074 0.0053648 0.0052619 -0.0022596 -0.0014887 0.0016859
0.0018824 -0.00062319 -0.00041135 -0.00080692
-0.019065 0.0053342 0.12146 0.33668 -0.0054225 0.014509 0.0017252 0.00014003
0.00075644 -0.0012273 0.0010148 -0.00056036
0.0052592 -0.0022762 -0.0053702 0.014558 0.36271 0.0019879 -0.0014535 -0.0012732
0.00011681 -0.00017624 0.000589 -0.00030634
-0.0015016 0.0016826 0.0017341 0.00013718 -0.0014692 -0.0012671 0.20301 0.17094
-0.016081 -0.0022031 -0.0002283 0.001958
0.0018757 -0.00063182 0.00074415 -0.0012319 0.00011689 -0.00017587 -0.016089 -0.0021757
0.14034 0.19351 -0.011586 -0.0016405
-0.00041129 -0.00080917 0.0010233 -0.00056609 0.00059723 -0.00029914 -0.00022193 0.001946
-0.011592 -0.0016412 0.17964 0.27881
1520000000 0.29231 0.10305 -0.013302 0.010249 0.0027025 -0.0041423 0.00011813 0.0025547
0.0018385 -0.0016155 -0.0010685 -1.117e-05
-0.013295 0.01023 0.15447 0.32105 0.0015907 0.012331 0.0016401 -0.00085405
-4.3889e-06 -0.0010043 0.00024789 -0.00088442
0.0027085 -0.0041373 0.0016378 0.01234 0.35516 -0.054659 -0.0013149 -0.00020663
0.00047595 -0.00083026 5.1243e-06 -0.00013374
0.00012734 0.0025459 0.0016422 -0.00085854 -0.0013091 -0.00020645 0.22372 0.13233
-0.015024 0.0034339 0.0018443 0.0017462
0.0018251 -0.001635 -1.0415e-05 -0.0010045 0.00047887 -0.00082877 -0.015017 0.0034755
0.16743 0.17725 -0.01115 0.0025473
-0.0010727 -1.8425e-06 0.00024244 -0.00089445 3.5753e-06 -0.00013814 0.0018456 0.0017398
-0.011154 0.0025472 0.2112 0.25476
1580000000 0.30008 0.056764 -0.0070835 0.012672 -0.0011729 -0.0044799 0.00151 0.001845
-0.0001862 -0.0019428 -0.00023639 0.00037964
-0.0070859 0.012672 0.18117 0.29581 0.0048747 0.0077327 0.00040209 -0.0016779
-0.00053332 -0.00097881 -0.00020677 -0.00077079
-0.0011849 -0.004465 0.0049225 0.0077287 0.33411 -0.11209 -0.0015929 0.00091567
-0.00027848 -0.0010583 0.00014001 -0.00052855
0.0015075 0.0018406 0.00039336 -0.0016772 -0.0016007 0.00091491 0.23521 0.093229
-0.011515 0.0081678 0.0023225 0.00020654
-0.00020792 -0.0019451 -0.00053977 -0.00097601 -0.00028846 -0.0010512 -0.011499 0.0082035
0.19024 0.1574 -0.0085865 0.007422
-0.0002317 0.00038381 -0.00021967 -0.00076407 0.00014135 -0.00053008 0.0023283 0.00019935
-0.0085894 0.0074196 0.24024 0.2261
1640000000 0.301 0.014958 -0.00097475 0.011373 -0.0027186 -0.0022782 0.0026546 0.00084717
-0.00074483 -0.0014417 -0.00016315 0.00056858
-0.00097976 0.011371 0.21032 0.26999 0.0054524 0.0034007 -0.0008612 -0.0016448
-0.0010408 -0.00032539 -0.00049986 -0.00053649
-0.0027087 -0.0022718 0.0054844 0.0033773 0.30473 -0.16078 -0.00060299 0.001605
-0.0011589 -0.00070825 -0.0001451 -0.00018386
0.0026518 0.00084441 -0.00087432 -0.0016408 -0.00059857 0.0016043 0.24533 0.045336
-0.0072562 0.0096809 0.0022917 -0.0012039
-0.00075572 -0.0014345 -0.0010409 -0.00031791 -0.0011579 -0.0007174 -0.0072385 0.0097033
0.21152 0.13122 -0.0040572 0.0091248
-0.00016026 0.00057047 -0.00051217 -0.00052984 -0.00015114 -0.00018183 0.0022839 -0.0012071
-0.004056 0.0091212 0.26398 0.19289
1700000000 0.292 -0.030531 0.0020113 0.0086671 -0.0032895 0.00031322 0.0029229 -0.0013356
-0.0019043 -0.00065481 0.00065685 0.00033399
0.0020011 0.0086606 0.22763 0.23809 0.0036452 0.00069383 -0.0014707 -0.00043254
-0.00075874 0.00016973 -0.00085035 -0.00038226
-0.003287 0.00032633 0.0036639 0.00066594 0.2612 -0.20056 0.00068892 0.0014567
-0.001757 -0.00018547 -0.00056923 -0.00082221
0.0029124 -0.0013447 -0.0014671 -0.00043291 0.00069331 0.0014603 0.24065 -0.0029823
-0.0041165 0.01027 0.0011952 -0.0021927
-0.0019097 -0.00064877 -0.00075374 0.00017321 -0.0017538 -0.00018073 -0.0041017 0.010282
0.22688 0.10931 0.00025982 0.0092834
0.00067256 0.00032146 -0.00086228 -0.00037758 -0.00057932 -0.00081614 0.0011925 -0.002199
0.00026859 0.0092866 0.27773 0.15692
1760000000 0.27853 -0.078817 0.0039343 0.0055854 -0.0021099 0.00092836 0.00099545 -0.0034546
-0.001374 0.00067956 0.00045649 -0.00044861
0.0039198 0.0055803 0.25297 0.19752 0.001581 -0.0011291 -0.0011394 0.00030165
-0.00090867 0.000896 -0.00056298 0.00048881
-0.0020897 0.00093443 0.0015885 -0.0011424 0.21231 -0.23412 0.0013523 0.0008034
-0.0010812 0.0015764 -0.0012091 -0.00030957
0.00098188 -0.0034587 -0.0011521 0.00029831 0.0013593 0.00080967 0.23085 -0.052208
-0.00054345 0.0095373 -0.00052205 -0.002331
-0.0013577 0.00069309 -0.00090051 0.00090072 -0.0010697 0.0015755 -0.00052408 0.0095588
0.23982 0.073029 0.0037832 0.006694
0.00045895 -0.00044715 -0.00056605 0.00048763 -0.0012075 -0.00030495 -0.00052963 -0.002329
0.0037842 0.0066999 0.28823 0.11839
1820000000 0.25227 -0.11571 0.0039743 0.0023173 9.6511e-05 0.0023781 -0.0012308 -0.0028371
-0.0010446 0.0010336 -7.0325e-05 -0.0001025
0.0039724 0.0023272 0.26186 0.1671 -0.00022292 7.0321e-05 -0.0011215 0.00097259
5.093e-05 0.0012682 -0.00046994 0.00054595
7.9945e-05 0.0023926 -0.0002254 7.0345e-05 0.16126 -0.24914 0.0013692 2.356e-05
-0.00011202 0.0021986 -0.0013082 0.00053977
-0.0012318 -0.0028392 -0.0011259 0.00097842 0.0013684 2.5935e-05 0.20102 -0.097462
0.0013764 0.0076925 -0.0015538 -0.00128
-0.0010282 0.0010506 6.6948e-05 0.001266 -9.8126e-05 0.0021946 0.0013941 0.0076995
0.25459 0.042682 0.0046557 0.0033575
-7.2618e-05 -8.7352e-05 -0.0004659 0.00055499 -0.0013131 0.00055062 -0.0015641 -0.0012768
0.0046544 0.003351 0.28782 0.080627
1880000000 0.21567 -0.15501 0.0017402 0.00029663 -0.00032956 0.0018875 -0.0029763 -0.0018451
-0.00022515 0.0017432 0.00022298 -0.0003898
0.0017281 0.00029885 0.26545 0.12044 -0.0022567 0.0017072 -5.8306e-05 0.0015969
0.00064043 0.001006 0.0002061 0.00090145
-0.00032263 0.0018933 -0.0022516 0.0017079 0.10824 -0.25876 0.0013351 -0.001024
0.0015218 0.0015357 -0.00075218 0.001327
-0.0029852 -0.0018354 -4.9965e-05 0.0015987 0.0013476 -0.0010299 0.16154 -0.13651
0.0022608 0.0053302 -0.0021512 0.00043836
-0.00021145 0.0017298 0.00065042 0.00099453 0.0015303 0.0015425 0.0022784 0.0053283
0.25507 0.0091962 0.0043962 0.0013195
0.00021709 -0.00039762 0.00020009 0.00089731 -0.00074004 0.0013166 -0.0021578 0.00043959
0.0044017 0.0013254 0.28515 0.046382
1940000000 0.17558 -0.18007 -0.00036727 -0.0010603 0.0014716 0.001813 -0.0034372 0.00075388
0.0015018 0.0011408 -0.00067592 -0.00054128
-0.00036276 -0.0010616 0.26495 0.088706 -0.00097251 0.0039648 0.00096269 0.0011477
0.0016238 0.00034974 0.00079174 0.00035533
0.001461 0.0018193 -0.00095617 0.0039684 0.062216 -0.25159 8.9282e-05 -0.00164
0.0022546 0.00027015 0.00044032 0.0015412
-0.0034378 0.00077026 0.00096706 0.0011469 8.8151e-05 -0.0016417 0.11023 -0.16668
0.0014626 0.0035055 -0.0014273 0.0014218
0.0015005 0.0011367 0.0016261 0.00034113 0.002252 0.00026829 0.0014703 0.0035004
0.25452 -0.030535 0.0031495 -0.0013868
-0.00067423 -0.00052164 0.0007932 0.00034081 0.00044688 0.0015432 -0.0014218 0.0014184
0.0031448 -0.0013916 0.27224 0.0096178
2000000000 0.12846 -0.19366 -0.0039786 0.0010641 0.0024051 0.0014205 -0.0021627 0.0034608
0.0012332 3.6489e-05 -0.00055223 0.00038394
-0.0039822 0.0010615 0.25007 0.05332 -0.00081737 0.0056399 0.0015198 0.00026556
0.0012009 -0.0011817 0.00043273 2.1552e-05
0.0024282 0.0014231 -0.00079282 0.0056481 0.018251 -0.23657 -0.0010364 -0.00097173
0.0018503 -0.0010886 0.0016479 0.00098624
-0.0021316 0.0034648 0.0015311 0.00025165 -0.001024 -0.00098145 0.057614 -0.17701
-0.00016504 0.0030034 3.7167e-05 0.0020998
0.0012353 3.4435e-05 0.0011827 -0.0011939 0.0018456 -0.0010811 -0.00016238 0.0030111
