!Keysight Technologies,M9804A,MY58100912,A.14.10.03
!Date: Thursday, April 27, 2023 10:28:33
!Correction: S11(C  6-Port  ) 
!S12(C  6-Port  ) 
!S13(C  6-Port  ) 
!S14(C  6-Port  ) 
!S15(C  6-Port  ) 
!S16(C  6-Port  ) 
!S21(C  6-Port  ) 
!S22(C  6-Port  ) 
!S23(C  6-Port  ) 
!S24(C  6-Port  ) 
!S25(C  6-Port  ) 
!S26(C  6-Port  ) 
!S31(C  6-Port  ) 
!S32(C  6-Port  ) 
!S33(C  6-Port  ) 
!S34(C  6-Port  ) 
!S35(C  6-Port  ) 
!S36(C  6-Port  ) 
!S41(C  6-Port  ) 
!S42(C  6-Port  ) 
!S43(C  6-Port  ) 
!S44(C  6-Port  ) 
!S45(C  6-Port  ) 
!S46(C  6-Port  ) 
!S51(C  6-Port  ) 
!S52(C  6-Port  ) 
!S53(C  6-Port  ) 
!S54(C  6-Port  ) 
!S55(C  6-Port  ) 
!S56(C  6-Port  ) 
!S61(C  6-Port  ) 
!S62(C  6-Port  ) 
!S63(C  6-Port  ) 
!S64(C  6-Port  ) 
!S65(C  6-Port  ) 
!S66(C  6-Port  ) 
!S6P File: Measurement: :
# Hz S  RI   R 50
500000000 -0.33944 -0.016554 -0.010736 -0.0028164 -0.0070491 0.01256 -0.00331 0.012019
0.011146 0.0035627 -0.0032545 0.0071265
-0.010746 -0.003082 -0.42009 -0.034857 0.0057805 -0.011627 0.0016661 0.012296
0.0069178 0.0027038 0.0024434 0.012645
-0.0073506 0.012798 0.0058977 -0.011186 -0.26353 0.22386 0.006883 0.003875
-0.0010775 0.0084936 0.0020434 0.011408
-0.0020194 0.011228 0.0015303 0.011934 0.0067644 0.0036563 -0.33116 0.062579
-0.019524 -0.0066915 0.014075 0.022625
0.01253 0.0043325 0.0072932 0.0021175 -0.00051367 0.0084103 -0.018987 -0.0065745
-0.23653 -0.16202 -0.023058 0.004388
-0.0019645 0.0062856 0.0019175 0.012979 0.0021948 0.011499 0.014929 0.022414
-0.024945 0.0044162 -0.28632 -0.078327
560000000 -0.31395 0.13806 -0.028581 -0.0596 0.00073839 0.011966 0.0066437 0.0098484
0.0095959 0.00409 0.010391 0.0069169
-0.028405 -0.060095 -0.37522 0.12011 -0.041781 -0.034391 0.013394 0.0031951
-0.012191 -0.0045093 0.0040572 -0.00060909
0.00071991 0.011699 -0.043148 -0.03412 -0.18038 0.26812 -1.8973e-05 -0.0040768
0.018897 0.0040622 0.0065743 -0.0060521
0.0062753 0.010061 0.013184 0.0032916 8.9272e-05 -0.0042113 -0.30408 0.14868
-0.001052 -0.024328 0.0038147 -0.017925
0.0086267 0.0042493 -0.011839 -0.0022327 0.01786 0.0031819 -0.00061413 -0.02405
-0.28846 0.013737 0.0020975 -0.045966
0.010096 0.0063129 0.0030913 -0.00053459 0.0072013 -0.006629 0.0037187 -0.018197
0.0019259 -0.047501 -0.33011 0.060765
620000000 -0.27001 0.12337 -0.023001 0.0076381 0.0043876 0.0083137 0.0072687 -0.0050133
0.011216 -0.0021525 0.00012737 -0.0026465
-0.023234 0.0074544 -0.40088 0.075244 -0.019476 0.00054993 -0.00086524 -0.002044
0.010245 -0.0069558 0.0011654 -0.002816
0.0046056 0.0081719 -0.01939 0.00067563 -0.14891 0.27763 -0.0012787 -0.0046944
-0.0033537 -0.0032117 0.0083368 -0.0039444
0.0079788 -0.0048722 -0.00087092 -0.0020363 -0.00079884 -0.0048855 -0.26256 0.16065
-0.038839 -0.016729 0.012443 0.022222
0.011151 -0.002225 0.010346 -0.0069259 -0.0037149 -0.0031073 -0.039712 -0.016841
-0.21355 -0.027934 -0.038803 0.015204
0.00097231 -0.0017912 0.0014571 -0.0029841 0.0085852 -0.0035931 0.012485 0.022673
-0.038017 0.013785 -0.25533 0.03156
680000000 -0.22725 0.20636 -0.027535 -0.011797 0.0053569 0.0045703 0.0011129 -0.007367
-0.0030944 -0.011152 0.0044174 -0.007212
-0.027986 -0.011444 -0.3836 0.16922 -0.032232 0.00093535 -0.0014723 -0.00052728
-0.0028344 -0.0091121 -0.0014403 -0.0024264
0.0054273 0.0048207 -0.032251 0.00096569 -0.0977 0.29551 -0.00092847 -0.00028774
-0.0018475 -0.00025272 -0.0036773 -0.0083254
0.00094226 -0.0075518 -0.0013417 -0.00044848 -0.00098599 -0.00036628 -0.2163 0.20818
-0.025762 -0.0051967 -0.0092622 -0.0070042
-0.0038387 -0.01129 -0.0027748 -0.0091327 -0.0019854 -0.00022853 -0.0264 -0.0051863
-0.25 0.070258 -0.007898 -0.00576
0.0033698 -0.0057605 -0.0015485 -0.0022116 -0.0037458 -0.0082555 -0.0090922 -0.006878
-0.0071773 -0.0062379 -0.25313 0.12791
740000000 -0.18373 0.20079 -0.036082 0.026476 0.011981 -0.0060765 -0.00082974 -0.0041798
-0.0055415 -0.0024602 -0.005734 0.0030451
-0.036297 0.026302 -0.33198 0.18843 -0.032978 0.034963 -0.0010167 -0.0059229
-0.011262 0.0084615 -0.0027463 -0.0044747
0.012556 -0.0058358 -0.032552 0.035394 -0.064061 0.2943 -0.00179 0.0032197
-0.0036976 -0.004579 -0.002061 0.00090458
-0.0006675 -0.0037886 -0.0012288 -0.0057397 -0.0016375 0.0027849 -0.1986 0.21628
-0.041898 -0.0026561 0.021938 0.011794
-0.0046142 -0.003164 -0.011419 0.0073277 -0.0036866 -0.0047525 -0.042182 -0.0027283
-0.15709 0.090579 -0.038391 0.003483
-0.006011 0.0032546 -0.0024126 -0.0043086 -0.002066 0.00098045 0.021991 0.011758
-0.038856 0.0042999 -0.24071 0.13852
800000000 -0.14861 0.23799 -0.021147 0.017873 0.0046809 -0.010509 -0.0044384 -0.001573
-0.0039194 0.0029482 0.0039249 0.001051
-0.021038 0.017731 -0.33231 0.25662 -0.0064427 0.033743 -0.0023065 0.0023271
-0.00077649 0.0036981 0.0013022 0.0055775
0.0047327 -0.010446 -0.0063814 0.033785 -0.021603 0.31623 0.00082013 0.0016126
0.00034869 0.0036176 -0.0016607 0.0015439
-0.0046276 -0.0014808 -0.0023575 0.0025417 0.00087305 0.0015866 -0.16866 0.24268
-0.026706 0.016616 0.012345 -0.0096181
-0.004151 0.0027443 -0.00081164 0.0035374 0.00046071 0.0034469 -0.026659 0.016556
-0.19387 0.11864 -0.01555 0.019094
0.0029742 0.00079325 0.00098678 0.00581 -0.0016663 0.0013123 0.012343 -0.010032
-0.015649 0.018693 -0.22745 0.18391
860000000 -0.11466 0.25682 -0.015497 0.030756 -0.003898 -0.0096163 -0.0021364 0.0012148
0.0044537 0.0046321 -0.0025264 -0.0025997
-0.015401 0.030996 -0.28435 0.29717 0.0095657 0.03324 0.00012439 0.0020498
0.0043606 0.0004495 0.0032236 0.00012787
-0.0038672 -0.0096003 0.0097105 0.033198 0.026857 0.32329 -0.00017183 -8.6695e-05
0.0023971 -0.001269 0.0018597 0.0037847
-0.0018667 0.0014261 9.2794e-05 0.002012 -0.00025782 2.7015e-05 -0.13179 0.2536
-0.015257 0.021199 -0.0055258 -0.0086873
0.0045948 0.0048618 0.0044835 0.0005408 0.002402 -0.0011865 -0.014932 0.021452
-0.14074 0.16261 -0.021264 0.016201
-0.0024374 -0.0024132 0.0033456 0.00055984 0.0016816 0.0039269 -0.0050813 -0.008885
-0.02059 0.016011 -0.17868 0.22176
920000000 -0.087511 0.27832 0.006527 0.036479 -0.0093944 -0.0039813 -0.0013485 0.0018206
0.0016246 0.0015927 0.0028497 -0.0014215
0.0064616 0.036416 -0.25444 0.31738 0.028543 0.019973 0.0020214 0.0009307
0.0070311 -0.00088616 0.0037442 -0.0028678
-0.009442 -0.0040137 0.028588 0.019914 0.074274 0.32317 0.0019562 -0.00017769
0.0015935 -0.00063641 0.00094284 -0.0010822
-0.0010917 0.0019229 0.0020015 0.00094811 0.0019636 -0.00013034 -0.10533 0.26954
-0.0070727 0.031265 0.0025359 -0.0062747
0.0017792 0.001324 0.0069862 -0.00093174 0.0014695 -0.00071191 -0.0070621 0.031307
-0.12685 0.16868 9.3932e-05 0.025734
0.0027855 -0.0018198 0.0040636 -0.0032614 0.00087848 -0.0011647 0.0026121 -0.0063032
-0.00024309 0.0255 -0.17751 0.23867
980000000 -0.040378 0.29609 0.018912 0.028113 -0.0085894 0.0047606 0.0019438 0.0031496
0.0037439 -0.0018378 -0.0031774 -0.0018628
0.01896 0.028251 -0.20272 0.34964 0.032721 0.0028969 0.002034 -0.00031692
0.001388 -0.0062372 -0.00060746 -0.0024214
-0.0086066 0.0048126 0.032734 0.0028059 0.12123 0.31545 0.00049132 -0.0013184
7.3217e-05 -0.0022971 0.0013162 -0.0002816
0.0020593 0.0030094 0.0019221 -0.00047747 0.00050337 -0.0013579 -0.066759 0.27907
0.011454 0.028211 -0.0085651 -0.0061783
0.0039198 -0.0018584 0.001234 -0.006172 7.4313e-05 -0.0023346 0.011581 0.028188
-0.094671 0.19285 0.0064365 0.01793
-0.003143 -0.002016 -0.00071982 -0.0025122 0.001438 -0.00026282 -0.008641 -0.006211
0.0066659 0.01812 -0.1327 0.27536
1040000000 0.0023082 0.30282 0.033152 0.015311 -0.0012201 0.0067014 0.0023359 0.00038811
1.2463e-05 -0.0032471 -0.00085625 -0.0016685
0.033137 0.01545 -0.16647 0.36286 0.027767 -0.016151 0.0013035 -0.0018356
-0.0025347 -0.0026636 -0.0016413 -0.0027873
-0.0011989 0.0066492 0.02765 -0.016272 0.16841 0.3004 -0.00072802 -0.0015232
-0.0017029 -0.0008692 -0.00058986 -0.0010615
0.0024367 0.00048011 0.0014454 -0.0019325 -0.00074505 -0.0015135 -0.037308 0.28781
0.021993 0.015671 -0.0028696 0.0011915
-0.00011644 -0.0033969 -0.0025919 -0.0027191 -0.0017261 -0.00093645 0.021964 0.015512
-0.063048 0.19837 0.014271 0.015164
-0.00079546 -0.0013178 -0.0016713 -0.0027962 -0.00062119 -0.0010844 -0.0026965 0.0011334
0.014432 0.015862 -0.10641 0.29418
1100000000 0.04784 0.30876 0.034479 -0.006324 0.0027417 0.0036778 0.0021696 -0.0010969
-0.0020232 -0.0029174 -0.0035708 0.00048785
0.034515 -0.0063628 -0.1232 0.37906 0.01322 -0.028121 -0.00013795 -0.0017938
-0.0036195 -0.0006251 -0.0034851 -0.00024762
0.0027168 0.0036896 0.013113 -0.028161 0.21545 0.27784 -0.0018887 0.00030446
-0.0019485 0.00074914 -0.0010497 -0.0001469
0.0022741 -0.0010376 -0.00017588 -0.0018014 -0.0018844 0.00028503 0.0041873 0.2905
0.025656 0.0017331 -0.0025197 0.00022341
-0.0019892 -0.0029341 -0.0035552 -0.00056678 -0.0019095 0.00078403 0.025618 0.0016109
-0.043288 0.20954 0.01922 0.0056339
-0.0035268 0.00032507 -0.0033838 -0.0003446 -0.0010338 -9.763e-05 -0.0024815 4.1224e-05
0.019194 0.0056362 -0.060558 0.31724
1160000000 0.098605 0.30241 0.021839 -0.022103 0.0022723 -0.00035214 -0.00016473 -0.0019773
-0.0040429 -0.000374 -0.00067713 0.0039558
0.021835 -0.021998 -0.078221 0.38318 -0.0055867 -0.028252 -0.0017938 -0.001433
-0.002586 0.0026606 -0.0012087 0.0017544
0.0022638 -0.00039543 -0.0057113 -0.028215 0.25834 0.24461 -0.00065473 0.0019042
-0.00035533 0.0020222 -0.00082663 0.00013982
-0.00012448 -0.002012 -0.0017282 -0.0014751 -0.00066253 0.0018749 0.044147 0.28527
0.020257 -0.013972 -0.0031847 0.0041147
-0.0039203 -0.00040096 -0.0025216 0.0027082 -0.00038219 0.0019953 0.02024 -0.013956
-0.010211 0.21601 0.017413 -0.0028645
-0.00068219 0.0037464 -0.0014439 0.0018246 -0.00075482 0.00013694 -0.0031897 0.0041635
0.017214 -0.002923 -0.012562 0.31727
1220000000 0.14333 0.28938 0.0077461 -0.029856 -0.0016372 -0.0002695 0.00011688 -0.00093241
-0.0025055 0.0022965 0.001426 0.0018027
0.0077452 -0.02982 -0.03352 0.39336 -0.017838 -0.019521 -0.0024025 0.00054779
0.0003213 0.0030093 -0.00043618 0.0020307
-0.0016267 -0.00022638 -0.01792 -0.019491 0.29645 0.20303 0.00095917 0.0018438
0.00074229 0.001254 0.00035668 0.00050558
8.2476e-05 -0.00089768 -0.0024657 0.00058202 0.00093974 0.0018688 0.084467 0.27386
0.0085222 -0.01985 0.0013482 0.0014544
-0.0024941 0.0023334 0.00036331 0.0029503 0.00076275 0.0012308 0.0085655 -0.019876
0.013737 0.22263 0.011484 -0.014222
0.0014186 0.0019233 -0.00043221 0.0019989 0.00029828 0.00047327 0.0013241 0.0013222
0.01149 -0.014401 0.020722 0.32852
1280000000 0.19223 0.26579 -0.0099954 -0.027068 -0.0014399 0.0030072 -0.00093277 -0.0019709
-0.00059988 0.0030101 0.0024931 0.00074549
-0.0099432 -0.02709 0.012777 0.38348 -0.023694 -0.0068434 -0.00090557 0.0015042
0.0018952 0.0016778 0.00087378 0.0017546
-0.0014667 0.0030314 -0.023735 -0.0067753 0.325 0.15774 0.0016799 -7.553e-05
0.0011954 0.00012141 0.00020361 0.00017252
-0.00090219 -0.0019291 -0.00093057 0.0014891 0.0017009 -7.4442e-05 0.12045 0.25453
-0.0021567 -0.02078 -0.00065591 0.00061369
-0.00058828 0.0029671 0.0018979 0.0017703 0.0011766 0.0001374 -0.0021295 -0.020753
0.049882 0.22391 0.00075007 -0.015897
0.0025644 0.00072257 0.00075554 0.0016775 0.00018023 0.00025713 -0.00074214 0.00052366
0.00075443 -0.015872 0.066221 0.32625
1340000000 0.22889 0.23033 -0.018819 -0.016692 0.0014911 0.0043349 -0.0017646 -0.00092822
0.0014856 0.0025999 0.0015237 -0.0015588
-0.018786 -0.016647 0.052556 0.37314 -0.020708 0.0055798 -4.2603e-05 0.0019869
0.0020042 0.00052865 0.0013543 0.00051516
0.0015653 0.0043588 -0.02069 0.0056803 0.34515 0.10927 0.0011936 -0.0011044
0.0005924 -0.00051649 6.7341e-05 0.00018787
-0.001753 -0.00087366 5.165e-06 0.0019656 0.0012237 -0.001107 0.15178 0.23166
-0.011601 -0.016367 0.00046622 0.0013337
0.0014705 0.0026127 0.0020301 0.00052164 0.00060258 -0.00057747 -0.011757 -0.016337
0.080108 0.21728 -0.0060855 -0.013381
0.0014441 -0.001544 0.001363 0.00059431 8.4404e-05 0.00018881 0.0004343 0.0013119
-0.0062642 -0.013299 0.10544 0.31689
1400000000 0.26055 0.19061 -0.02304 -0.0050444 0.0054488 0.002647 -0.0021275 0.00067602
0.0024363 0.0007862 9.2502e-05 -0.0014541
-0.023057 -0.005059 0.088971 0.35865 -0.013517 0.012958 0.0013479 0.0012602
0.001093 -0.0010417 0.0011249 -1.1924e-05
0.0054421 0.0025652 -0.013443 0.013014 0.35674 0.055831 5.7554e-05 -0.0019025
3.0835e-05 -0.00038993 0.00031464 0.00018621
-0.0021735 0.00073117 0.0013941 0.0012932 4.466e-05 -0.0018918 0.17931 0.20068
-0.017231 -0.0084693 -0.00026928 0.00077923
0.0025313 0.0008009 0.001143 -0.0010315 6.7817e-05 -0.00042515 -0.017243 -0.0084594
0.11184 0.21031 -0.011951 -0.0075863
-5.6449e-05 -0.0014622 0.001049 6.3551e-06 0.0003705 0.00020892 -0.00037818 0.00085663
-0.011943 -0.0076016 0.14774 0.30184
1460000000 0.28194 0.14562 -0.019148 0.0065115 0.0055638 -0.0023173 -0.0014966 0.0017466
0.0020811 -0.00068223 -0.00047645 -0.00080175
-0.01911 0.006506 0.12247 0.33563 -0.0048953 0.015008 0.0017194 7.6627e-05
0.00060104 -0.0013511 0.00097757 -0.00056422
0.0055754 -0.0023429 -0.0048379 0.01508 0.36169 0.0019858 -0.0015934 -0.0013138
0.0001127 -0.00027473 0.00073541 -0.00036785
-0.0015311 0.0016896 0.0017423 1.3611e-05 -0.0015956 -0.0013093 0.20309 0.17009
-0.017484 -0.00058544 -0.00013473 0.0023445
0.001991 -0.00072866 0.00057668 -0.0013465 0.00017545 -0.00026479 -0.017472 -0.00056781
0.14038 0.19387 -0.012849 -0.0011421
-0.0004505 -0.00077015 0.000992 -0.00062363 0.00059511 -0.00039154 -9.7728e-05 0.0023362
-0.01295 -0.0011691 0.1797 0.27843
1520000000 0.29268 0.10257 -0.012756 0.01121 0.0029174 -0.0043589 0.0001475 0.0026172
0.0018879 -0.0018547 -0.0010828 2.5173e-05
-0.012783 0.011196 0.15481 0.3197 0.0022263 0.012465 0.0016267 -0.00090606
-0.00013347 -0.00097691 0.00022907 -0.00094753
0.002916 -0.0043883 0.0022575 0.012435 0.35433 -0.054075 -0.0013896 -0.00014661
0.00042788 -0.00090509 6.3507e-06 -0.00016024
0.00016825 0.0026207 0.0015984 -0.00088342 -0.0014046 -0.00010576 0.22336 0.13149
-0.015272 0.0055126 0.0023521 0.0019319
0.001923 -0.001806 -0.00012544 -0.00093074 0.00042582 -0.0008657 -0.015269 0.0055882
0.16776 0.1774 -0.011938 0.003629
-0.0011346 2.9503e-05 0.00017455 -0.00092104 -2.4577e-05 -0.00019201 0.0022308 0.0019704
-0.012025 0.0036373 0.21062 0.25463
1580000000 0.30006 0.056026 -0.0060752 0.013222 -0.0011551 -0.0048062 0.0016035 0.0018089
-0.00034752 -0.0021592 -0.00020083 0.0004251
-0.0060728 0.013188 0.18087 0.29444 0.0054076 0.0074949 0.00037546 -0.0017011
-0.00059171 -0.00085667 -0.00026959 -0.00075316
-0.0011351 -0.0047908 0.0054367 0.0075012 0.33369 -0.11116 -0.0015785 0.0010162
-0.00037348 -0.0011183 0.00014167 -0.00060315
0.0016359 0.0018211 0.0003908 -0.001724 -0.0015578 0.0010296 0.23439 0.092507
-0.010482 0.010029 0.0025853 0.00018432
-0.00029986 -0.0021704 -0.00056138 -0.00089497 -0.00037779 -0.0011285 -0.010491 0.010036
0.19073 0.15737 -0.0087454 0.0087146
-0.00023326 0.00041848 -0.00022161 -0.00072037 0.0001665 -0.00061436 0.0027258 0.00018588
-0.0088071 0.0087386 0.23954 0.22601
1640000000 0.3004 0.014454 7.7993e-05 0.011234 -0.002949 -0.0025837 0.002701 0.00079976
-0.00097179 -0.0014535 -0.00018465 0.00062241
8.4211e-05 0.011247 0.20947 0.26899 0.0057034 0.0029904 -0.00093559 -0.0016337
-0.00093917 -0.00022013 -0.00053586 -0.00047416
-0.0028895 -0.0025594 0.0057396 0.0030007 0.30476 -0.15992 -0.00050052 0.0016528
-0.001269 -0.00069631 -0.00018442 -0.00018635
0.0026419 0.00079908 -0.00091749 -0.00166 -0.00051386 0.0016064 0.24415 0.045129
-0.0054062 0.010613 0.0025647 -0.0014069
-0.00097012 -0.0014159 -0.00095479 -0.00020502 -0.0012826 -0.00070824 -0.0053822 0.010588
0.21208 0.13109 -0.0036625 0.010384
-0.0001354 0.00064356 -0.00057334 -0.00054324 -0.00022009 -0.00023309 0.0025181 -0.0013897
-0.0035929 0.010358 0.26361 0.19319
1700000000 0.29108 -0.030717 0.0027964 0.0079461 -0.0035254 0.00022629 0.0029064 -0.0013979
-0.0020242 -0.00050392 0.00073165 0.0002231
0.0027787 0.0079573 0.22641 0.23758 0.0036718 0.00021724 -0.0015091 -0.00040043
-0.00062921 0.00011766 -0.00083061 -0.00031244
-0.0035355 0.00031707 0.0036561 0.00016964 0.26172 -0.19985 0.0007445 0.0013844
-0.0017884 -1.6469e-05 -0.0007285 -0.00071261
0.0028828 -0.0014568 -0.0015082 -0.00041409 0.00076963 0.0014148 0.23936 -0.0024987
-0.0022627 0.0099499 0.0013892 -0.0024596
-0.0020574 -0.00045748 -0.00062851 8.209e-05 -0.0018411 2.9362e-06 -0.0022154 0.009956
0.22725 0.10883 0.001169 0.010118
0.00069342 0.00036372 -0.00091922 -0.00027729 -0.00064766 -0.00077887 0.0013732 -0.0025278
0.0012451 0.010087 0.27724 0.15748
1760000000 0.27771 -0.078556 0.0041721 0.0046168 -0.0024473 0.0010243 0.0009336 -0.0034962
-0.0013498 0.00088743 0.00036931 -0.00046624
0.0041677 0.0046203 0.25168 0.1977 0.0012947 -0.0015576 -0.0011339 0.00037442
-0.0008783 0.00079922 -0.00057648 0.00047533
-0.0024098 0.0010333 0.0013334 -0.0015205 0.21298 -0.23394 0.0013465 0.00078823
-0.00098497 0.0017235 -0.0012604 -0.00036191
0.0009614 -0.0034761 -0.0011432 0.00037153 0.0012928 0.00071442 0.22999 -0.051048
0.00074567 0.0083701 -0.00057447 -0.0027794
-0.0013216 0.00086143 -0.00088303 0.00075835 -0.00098349 0.0017117 0.00070532 0.0084053
0.23997 0.072491 0.0049446 0.0069559
0.00045178 -0.0005482 -0.00048727 0.00047214 -0.0012348 -0.00022858 -0.00049763 -0.0027507
0.0048708 0.0070111 0.28847 0.11885
1820000000 0.25178 -0.11478 0.0036314 0.0015576 1.0924e-05 0.0025941 -0.0012958 -0.0028293
-0.00084929 0.0011274 -4.1352e-06 -5.8679e-05
0.0036378 0.0015396 0.26085 0.16786 -0.00056958 -0.00013242 -0.001091 0.0010295
-6.6581e-05 0.0011391 -0.00040847 0.00054641
-1.0209e-05 0.0025667 -0.0005787 -0.00012651 0.16196 -0.24945 0.0012198 -1.0298e-05
2.0563e-05 0.0021644 -0.0012544 0.00065822
-0.0013398 -0.0028841 -0.0011472 0.0010409 0.0012796 2.0722e-05 0.20086 -0.096
0.0017433 0.0062452 -0.0017149 -0.0015074
-0.00083896 0.0010654 -8.6971e-05 0.0011646 2.0008e-05 0.0021881 0.0017776 0.0062457
0.25452 0.041947 0.0056747 0.0031578
-7.6087e-05 -3.3005e-05 -0.00043853 0.00060718 -0.0012834 0.00068855 -0.0017626 -0.0015959
0.0056527 0.0031132 0.28791 0.081072
1880000000 0.21565 -0.15396 0.0011181 -7.5167e-05 -0.00030505 0.0021145 -0.0030048 -0.001777
-1.3535e-05 0.001605 0.00018266 -0.00038229
0.0011192 -8.1095e-05 0.26498 0.1216 -0.0026019 0.0017384 1.2548e-05 0.0016225
0.00050962 0.0010948 0.00020339 0.00083785
-0.00029002 0.0021227 -0.0026162 0.001745 0.10866 -0.25891 0.0014276 -0.00097033
0.0016307 0.0015639 -0.00074205 0.0014417
-0.0031343 -0.001731 1.2391e-05 0.0015762 0.0014984 -0.00099495 0.16224 -0.13508
0.001917 0.0041718 -0.0025244 0.00023112
-0.00010632 0.0017009 0.00050253 0.0010293 0.0016712 0.0015307 0.001896 0.0041747
0.25462 0.0087012 0.0050959 0.00061693
0.00030903 -0.00038779 0.00024853 0.00083415 -0.00071732 0.0014317 -0.0025192 0.00028913
0.0051037 0.00065151 0.28542 0.046531
1940000000 0.17625 -0.17909 -0.00096304 -0.0010533 0.0016037 0.0019055 -0.0034112 0.00081723
0.0014634 0.00098418 -0.00060351 -0.00055951
-0.0009643 -0.0010459 0.26499 0.089976 -0.0012584 0.0041507 0.00099193 0.0010869
0.00155 0.00051145 0.00079237 0.00030865
0.0016043 0.0018813 -0.0012118 0.0042019 0.062571 -0.25194 0.00013472 -0.0017514
0.0021831 0.00010297 0.00056118 0.0016248
-0.0033669 0.00076997 0.00098927 0.0010331 6.436e-05 -0.001767 0.11164 -0.16594
0.00080436 0.0028053 -0.0018535 0.0014576
0.0014783 0.00091086 0.0016234 0.00046692 0.0021755 0.00014043 0.00080458 0.0027847
0.25381 -0.030982 0.0036398 -0.0024547
-0.00065877 -0.00052819 0.0007234 0.00025795 0.00053086 0.0016751 -0.0017479 0.0015637
0.0035395 -0.002359 0.27274 0.0096629
2000000000 0.1296 -0.19331 -0.0043644 0.0013128 0.0025905 0.0014414 -0.0021457 0.0035172
0.0010548 -9.2157e-05 -0.00035938 0.00042598
-0.0043315 0.0012935 0.25079 0.054419 -0.00086159 0.0057634 0.0015188 0.00020685
0.0013434 -0.001074 0.00049263 7.7615e-05
0.0025271 0.0014596 -0.00078849 0.0058208 0.018504 -0.23724 -0.0011025 -0.00095991
0.0017316 -0.0011518 0.0016926 0.00096709
-0.0022123 0.0035265 0.0015626 0.00018746 -0.0010601 -0.00097897 0.059181 -0.177
-0.00090145 0.0028246 -0.00015793 0.0024175
0.00095032 -8.382e-05 0.0013734 -0.0011019 0.0017563 -0.0010929 -0.00087397 0.0027396
0.24509 -0.064563 0.00018567 -0.0033913
