!Keysight Technologies,M9804A,MY58100912,A.14.10.03
!Date: Thursday, April 27, 2023 10:28:33
!Correction: S11(C  6-Port  ) 
!S12(C  6-Port  ) 
!S13(C  6-Port  ) 
!S14(C  6-Port  ) 
!S15(C  6-Port  ) 
!S16(C  6-Port  ) 
!S21(C  6-Port  ) 
!S22(C  6-Port  ) 
!S23(C  6-Port  ) 
!S24(C  6-Port  ) 
!S25(C  6-Port  ) 
!S26(C  6-Port  ) 
!S31(C  6-Port  ) 
!S32(C  6-Port  ) 
!S33(C  6-Port  ) 
!S34(C  6-Port  ) 
!S35(C  6-Port  ) 
!S36(C  6-Port  ) 
!S41(C  6-Port  ) 
!S42(C  6-Port  ) 
!S43(C  6-Port  ) 
!S44(C  6-Port  ) 
!S45(C  6-Port  ) 
!S46(C  6-Port  ) 
!S51(C  6-Port  ) 
!S52(C  6-Port  ) 
!S53(C  6-Port  ) 
!S54(C  6-Port  ) 
!S55(C  6-Port  ) 
!S56(C  6-Port  ) 
!S61(C  6-Port  ) 
!S62(C  6-Port  ) 
!S63(C  6-Port  ) 
!S64(C  6-Port  ) 
!S65(C  6-Port  ) 
!S66(C  6-Port  ) 
!S6P File: Measurement: :
# Hz S  RI   R 50
500000000 -0.33968 -0.017698 -0.01124 -0.0031542 -0.0074746 0.012932 -0.0032525 0.012319
0.011049 0.0039608 -0.0028509 0.0086026
-0.011239 -0.0031565 -0.41981 -0.035831 0.0062357 -0.011534 0.0020032 0.01263
0.0064 0.0023403 0.0021123 0.013831
-0.0074439 0.012925 0.0062098 -0.011517 -0.263 0.22316 0.0073542 0.0038066
-0.0011672 0.0085454 0.0021629 0.012346
-0.0032467 0.012278 0.0020264 0.012648 0.007363 0.0038072 -0.33057 0.063184
-0.019514 -0.0068189 0.015007 0.023656
0.011152 0.0037928 0.0062991 0.0024232 -0.0011505 0.0087065 -0.019605 -0.0067441
-0.23681 -0.16371 -0.025282 0.0036335
-0.0028125 0.0085959 0.0021132 0.013824 0.0021703 0.012346 0.015021 0.023636
-0.025142 0.0036078 -0.28536 -0.079307
560000000 -0.31207 0.13764 -0.027283 -0.060365 0.00089864 0.011527 0.0054171 0.0096472
0.0086329 0.0042694 0.010961 0.0065904
-0.027262 -0.060313 -0.37548 0.1182 -0.042393 -0.033681 0.013887 0.0036021
-0.012396 -0.0034909 0.0028096 -0.00078821
0.000914 0.011528 -0.042427 -0.033627 -0.18103 0.26767 -0.00039523 -0.0044965
0.018361 0.0034948 0.0066626 -0.0063434
0.0054457 0.0096111 0.013878 0.003617 -0.00042549 -0.0045089 -0.30413 0.14911
0.00051139 -0.024318 0.0028904 -0.018142
0.0086036 0.0042487 -0.012429 -0.0033955 0.01837 0.0033769 0.00045353 -0.024242
-0.28749 0.00979 0.0028888 -0.046939
0.010961 0.0065131 0.0028338 -0.000792 0.0066404 -0.0063457 0.0028792 -0.018145
0.0029679 -0.046964 -0.33101 0.059722
620000000 -0.26979 0.12379 -0.023535 0.0073698 0.0040395 0.0078931 0.0078935 -0.0056036
0.010639 -0.0010864 0.00063748 -0.0022265
-0.023515 0.0073802 -0.40147 0.074382 -0.019478 0.00063083 -0.0009238 -0.0023038
0.01013 -0.0063257 0.0014268 -0.0031029
0.0040683 0.0078856 -0.019501 0.00067963 -0.14886 0.27782 -0.001337 -0.0048107
-0.0030478 -0.0027682 0.008403 -0.0039536
0.0079044 -0.0056209 -0.00094528 -0.0022919 -0.0013439 -0.0047932 -0.26241 0.16068
-0.039421 -0.017309 0.012195 0.023239
0.010588 -0.0010331 0.010131 -0.0064249 -0.002982 -0.0030281 -0.039418 -0.017222
-0.21077 -0.027774 -0.038923 0.014814
0.00063475 -0.0022559 0.0014331 -0.0031219 0.008351 -0.0039843 0.012212 0.02327
-0.038742 0.014794 -0.25611 0.032325
680000000 -0.22737 0.20528 -0.027871 -0.011555 0.0055542 0.0044644 0.001242 -0.0069716
-0.0029167 -0.011019 0.003862 -0.0068435
-0.027854 -0.011561 -0.38422 0.16843 -0.032049 0.00063861 -0.0014404 -0.00055565
-0.0024733 -0.0088217 -0.0014285 -0.0021237
0.0055547 0.0044481 -0.032062 0.00068837 -0.097829 0.29501 -0.00091454 -0.0004833
-0.0018512 1.9095e-05 -0.0036618 -0.0084041
0.0012486 -0.0069634 -0.0014471 -0.00055517 -0.00091474 -0.00048797 -0.21671 0.20751
-0.025854 -0.0051858 -0.0087722 -0.0079938
-0.0028559 -0.011113 -0.0024634 -0.0087931 -0.0018837 6.081e-05 -0.025835 -0.005133
-0.25011 0.069098 -0.0071079 -0.006361
0.0038357 -0.0068532 -0.0014202 -0.0021225 -0.0036565 -0.0084021 -0.0087704 -0.0080214
-0.0070766 -0.0063692 -0.25315 0.12717
740000000 -0.18378 0.20029 -0.036436 0.026339 0.012075 -0.0061175 -0.00081533 -0.0040369
-0.0050133 -0.002719 -0.0056737 0.0033917
-0.036447 0.0263 -0.33255 0.18834 -0.03254 0.035307 -0.0009124 -0.0061186
-0.011389 0.0082875 -0.0017407 -0.0049715
0.012068 -0.0061307 -0.032483 0.035381 -0.064454 0.29425 -0.0017408 0.0030418
-0.0035579 -0.0044489 -0.0017343 0.0014964
-0.00081265 -0.0040239 -0.00093016 -0.0061264 -0.0017431 0.0030485 -0.19871 0.21658
-0.041855 -0.0032119 0.021923 0.012065
-0.0051283 -0.0028537 -0.011338 0.0083606 -0.0035794 -0.0044544 -0.041856 -0.0032033
-0.15745 0.090315 -0.037923 0.003361
-0.005683 0.0034361 -0.0017536 -0.0049822 -0.001727 0.0014791 0.021934 0.012068
-0.037916 0.0033376 -0.24194 0.13764
800000000 -0.14963 0.23724 -0.021089 0.017817 0.0045781 -0.010454 -0.0042424 -0.0015906
-0.0038008 0.0028877 0.003739 0.00085121
-0.021096 0.017803 -0.33228 0.25621 -0.0063939 0.033573 -0.0022327 0.0023622
-0.00057245 0.0035169 0.0011929 0.0054137
0.0045714 -0.010458 -0.0063281 0.033589 -0.021359 0.31588 0.00090332 0.0016308
0.00039246 0.0036023 -0.0017224 0.0012894
-0.0042444 -0.001589 -0.002231 0.0023641 0.0009095 0.0016305 -0.16825 0.24275
-0.026517 0.016286 0.012546 -0.010004
-0.0037712 0.003008 -0.00058861 0.0035292 0.00042897 0.0036134 -0.026546 0.016395
-0.19406 0.11653 -0.015384 0.018819
0.0037434 0.00082036 0.001207 0.0054365 -0.0017329 0.001302 0.012556 -0.010018
-0.015445 0.018788 -0.22805 0.18234
860000000 -0.11463 0.25654 -0.015401 0.030831 -0.0038354 -0.0095776 -0.00202 0.0012171
0.0047365 0.0044852 -0.0025661 -0.002389
-0.015411 0.030781 -0.28478 0.29684 0.0094681 0.032923 0.00013278 0.0021904
0.0046429 0.00046399 0.0032555 0.00045447
-0.0038398 -0.0095787 0.0095289 0.032913 0.026773 0.32265 -0.00037865 -9.3743e-05
0.0025333 -0.0014964 0.0019074 0.0039888
-0.0020174 0.0012186 0.00013401 0.0021783 -0.00037507 -9.497e-05 -0.13181 0.25327
-0.014811 0.020611 -0.0055026 -0.0091152
0.0046747 0.0044985 0.004657 0.0003664 0.0025638 -0.001502 -0.014853 0.020694
-0.14124 0.16029 -0.021116 0.016522
-0.0025805 -0.0023975 0.0032538 0.0004561 0.0019221 0.0039887 -0.0054958 -0.0091087
-0.021222 0.016508 -0.17872 0.22181
920000000 -0.088187 0.27804 0.0066063 0.036333 -0.0093637 -0.003954 -0.0014569 0.0016868
0.0015449 0.001342 0.0026339 -0.0018375
0.0065543 0.036299 -0.25423 0.31707 0.028365 0.019878 0.0017713 0.00086758
0.0069054 -0.00089973 0.003359 -0.0031347
-0.0093528 -0.0039413 0.02841 0.019832 0.074255 0.32273 0.0018781 -0.00014746
0.0014701 -0.00066242 0.00078513 -0.0013259
-0.0014534 0.0017059 0.0017732 0.00085995 0.0018734 -0.00014107 -0.10551 0.2691
-0.0070178 0.03057 0.0021451 -0.0064348
0.0015722 0.0013871 0.0069126 -0.00092348 0.0014589 -0.00067077 -0.0069871 0.030568
-0.12835 0.16764 -0.00028262 0.025318
0.0026304 -0.0018323 0.0033387 -0.0031388 0.00078192 -0.0013312 0.0021479 -0.0064424
-0.0003058 0.025268 -0.17762 0.23724
980000000 -0.041216 0.29569 0.018692 0.028109 -0.0084083 0.0047418 0.0019766 0.0030094
0.0036705 -0.0019522 -0.0032057 -0.001936
0.018671 0.028061 -0.20244 0.34911 0.032476 0.0029208 0.002029 -0.00029077
0.0013823 -0.006194 -0.00066056 -0.0023452
-0.0083949 0.004759 0.032484 0.0028379 0.12102 0.31458 0.00046903 -0.0012921
-4.409e-05 -0.0022017 0.0012182 -0.00020339
0.0019753 0.0030133 0.0020383 -0.00030884 0.00047333 -0.0012928 -0.06648 0.27843
0.010811 0.028177 -0.0084028 -0.0058951
0.0036867 -0.0019624 0.0013906 -0.0062152 -2.3938e-05 -0.0022349 0.010854 0.028169
-0.096095 0.19117 0.0065565 0.01838
-0.003184 -0.001924 -0.00068339 -0.0023241 0.0012281 -0.00020958 -0.008406 -0.0058822
0.0065576 0.018343 -0.13318 0.27422
1040000000 0.0019879 0.30276 0.032977 0.015385 -0.0011799 0.0065649 0.0024039 0.00054457
-3.7939e-05 -0.0030789 -0.00080078 -0.001346
0.032906 0.015367 -0.16657 0.36231 0.027554 -0.015921 0.0013945 -0.0017044
-0.0025455 -0.0024281 -0.0016113 -0.0026573
-0.0011616 0.0065745 0.027501 -0.016004 0.16777 0.29986 -0.00066462 -0.0014258
-0.0016087 -0.00078732 -0.00047776 -0.00095014
0.0024011 0.00055004 0.0013895 -0.0017313 -0.00066543 -0.0014307 -0.037435 0.28738
0.021168 0.015277 -0.0026611 0.0012673
-5.8375e-05 -0.0030839 -0.0025071 -0.0024441 -0.0016186 -0.00079295 0.021231 0.015246
-0.063897 0.19732 0.013949 0.015556
-0.00079161 -0.0013575 -0.0016188 -0.0026291 -0.0004848 -0.00096092 -0.002661 0.0012755
0.013934 0.015555 -0.10754 0.29382
1100000000 0.04738 0.30846 0.034242 -0.0062794 0.0026263 0.0035654 0.0021963 -0.0010816
-0.0021454 -0.0027752 -0.0036339 0.00049938
0.03421 -0.0062627 -0.12304 0.3782 0.013177 -0.027801 -9.192e-05 -0.001815
-0.0034211 -0.00049003 -0.0034156 -0.00023297
0.002639 0.003562 0.013109 -0.027851 0.21481 0.27724 -0.0018077 0.00024241
-0.0017958 0.00073931 -0.00092153 -0.00015784
0.0021851 -0.0010859 -9.8145e-05 -0.0018254 -0.0018029 0.00024248 0.0041406 0.28979
0.024725 0.00185 -0.0025027 4.9592e-05
-0.0021181 -0.0027953 -0.0034069 -0.00050545 -0.0017942 0.0007301 0.024731 0.0018277
-0.044321 0.20859 0.01852 0.0057717
-0.003624 0.00049995 -0.0034176 -0.00020732 -0.00092199 -0.0001585 -0.0025031 5.4723e-05
0.01853 0.0057658 -0.060502 0.31665
1160000000 0.098052 0.30226 0.021644 -0.021806 0.0021893 -0.00034377 -3.9955e-05 -0.0020882
-0.0038676 -0.00045547 -0.00052668 0.0038199
0.021626 -0.021791 -0.078666 0.38199 -0.0053456 -0.028005 -0.0016768 -0.0015174
-0.0025741 0.0026026 -0.0012606 0.001812
0.0021859 -0.00033875 -0.0054416 -0.027999 0.25706 0.24435 -0.00067625 0.0017754
-0.00029758 0.0019167 -0.00075259 0.00026973
-5.2382e-05 -0.0020831 -0.0016791 -0.0015232 -0.00067586 0.0017793 0.04348 0.28463
0.019706 -0.013034 -0.0031045 0.004443
-0.0038623 -0.00043784 -0.0025481 0.002602 -0.00031677 0.0018859 0.019708 -0.013086
-0.011486 0.21563 0.016677 -0.0023088
-0.00050989 0.0038128 -0.0012688 0.0018254 -0.00076392 0.00026431 -0.0031015 0.0044552
0.016638 -0.0023046 -0.014093 0.31705
1220000000 0.14286 0.28923 0.0077979 -0.029547 -0.0016054 -0.00023677 0.0001243 -0.00097176
-0.0023664 0.0023114 0.0014042 0.0018135
0.007804 -0.029523 -0.034251 0.39256 -0.017456 -0.019486 -0.0024453 0.0004661
0.00023856 0.0029206 -0.00045426 0.001883
-0.0015959 -0.00023613 -0.017518 -0.019441 0.29547 0.20368 0.00086339 0.0017529
0.0007284 0.0011493 0.00040486 0.00048478
0.00012108 -0.0009779 -0.0024399 0.00046637 0.00086387 0.0017508 0.083826 0.27371
0.0085077 -0.018779 0.0013665 0.001503
-0.0023676 0.0023279 0.00023502 0.0029348 0.00071634 0.0011409 0.0084854 -0.018809
0.012808 0.22224 0.011466 -0.013689
0.0014241 0.0018088 -0.00045224 0.0018837 0.00040394 0.00048529 0.0013635 0.0015044
0.011461 -0.013706 0.019976 0.32812
1280000000 0.19145 0.26558 -0.009693 -0.026779 -0.0015277 0.0029173 -0.00094419 -0.0020005
-0.00059765 0.0029175 0.002325 0.00079828
-0.0096653 -0.026753 0.011564 0.38258 -0.023401 -0.0070715 -0.0009028 0.0014197
0.0017883 0.0016035 0.00079352 0.0017166
-0.0015221 0.0029265 -0.023436 -0.0070012 0.32439 0.15831 0.0016608 -5.6044e-05
0.0011493 0.00012472 0.00021338 0.00015038
-0.00095 -0.0019939 -0.00090035 0.0014191 0.0016653 -5.4599e-05 0.11961 0.25448
-0.0014437 -0.01973 -0.00050585 0.00049063
-0.00057133 0.0029093 0.0018031 0.0016042 0.0011416 0.00012883 -0.001501 -0.019748
0.049016 0.22331 0.00099772 -0.015172
0.0023306 0.00080042 0.0008063 0.0017119 0.00021678 0.00015278 -0.00050965 0.00048818
0.00099327 -0.015162 0.065667 0.32541
1340000000 0.22796 0.23048 -0.018373 -0.016599 0.0014792 0.0043428 -0.0017377 -0.00089348
0.0014513 0.0024891 0.0014628 -0.0014601
-0.018342 -0.0166 0.051013 0.37311 -0.020607 0.0052443 -8.6947e-05 0.0020031
0.001918 0.00051661 0.0012988 0.00060962
0.0014897 0.0043451 -0.020599 0.005308 0.34485 0.11018 0.0012056 -0.0010487
0.00058302 -0.00046501 7.4022e-05 0.00023019
-0.0017477 -0.00087712 -7.3265e-05 0.0020059 0.0011998 -0.0010441 0.1509 0.23226
-0.010643 -0.015809 0.00057435 0.0011837
0.0014705 0.002477 0.0019222 0.00051868 0.00056351 -0.00050039 -0.010709 -0.015808
0.078627 0.21694 -0.0056585 -0.012815
0.0014602 -0.0014703 0.0013089 0.00060959 7.169e-05 0.00023084 0.0005781 0.0011769
-0.0056574 -0.012816 0.10444 0.31681
1400000000 0.25985 0.19086 -0.022647 -0.0052226 0.005444 0.0026821 -0.0021441 0.0006606
0.0023135 0.0007735 0.0001234 -0.0013615
-0.022617 -0.005247 0.087694 0.35906 -0.013631 0.01264 0.0013575 0.0012936
0.0010842 -0.00093587 0.0010581 7.3725e-05
0.0054495 0.0026648 -0.01359 0.012692 0.3572 0.056451 5.2166e-05 -0.0018651
1.7712e-05 -0.00038423 0.00035191 0.00018959
-0.0021424 0.00066138 0.0013544 0.0012986 5.5409e-05 -0.0018702 0.17903 0.2013
-0.015912 -0.0085757 -0.00028019 0.00050336
0.0023283 0.00076474 0.001078 -0.00093956 3.0207e-05 -0.0003878 -0.015953 -0.0085323
0.11081 0.21006 -0.011208 -0.0073364
0.00011421 -0.001359 0.0010659 7.4971e-05 0.00035587 0.00018669 -0.00028076 0.00050765
-0.011199 -0.0073378 0.14681 0.30174
1460000000 0.28124 0.14619 -0.018913 0.0060778 0.005525 -0.0023117 -0.0015232 0.0017473
0.001991 -0.00066245 -0.00043392 -0.00085127
-0.018904 0.0060478 0.12137 0.33643 -0.0051896 0.014889 0.0017553 9.7873e-05
0.00066129 -0.0012946 0.0010015 -0.00058891
0.0055232 -0.0023232 -0.0051426 0.014907 0.36177 0.0022638 -0.0015277 -0.0013114
0.00010758 -0.00017435 0.00061925 -0.00027979
-0.0015316 0.0017515 0.00174 9.9087e-05 -0.0015259 -0.0013044 0.20286 0.1708
-0.016417 -0.0014755 -0.00010313 0.0021159
0.0019801 -0.00067403 0.00065311 -0.0013017 0.00011331 -0.00018087 -0.016447 -0.0014281
0.13898 0.19368 -0.012086 -0.001334
-0.0004204 -0.00085377 0.0010007 -0.00059017 0.00061951 -0.00027911 -9.838e-05 0.0021221
-0.012055 -0.0013455 0.17849 0.27867
1520000000 0.2924 0.10334 -0.0128 0.010725 0.0029562 -0.0043405 0.0001474 0.0026387
0.0018728 -0.001716 -0.0010614 -1.2742e-05
-0.012802 0.010702 0.15434 0.32094 0.0019441 0.012467 0.0016424 -0.00089642
-8.1883e-05 -0.00097249 0.00025063 -0.00090582
0.0029399 -0.0043423 0.0020025 0.012462 0.35477 -0.05393 -0.0013436 -0.00022343
0.00052027 -0.00081931 -2.1129e-05 -0.00016335
0.00015251 0.0026418 0.001632 -0.00089821 -0.0013422 -0.00021584 0.22374 0.13233
-0.014875 0.0042928 0.0020084 0.0017844
0.0018529 -0.0017302 -9.3821e-05 -0.00097135 0.00051055 -0.00082787 -0.014894 0.0043538
0.16643 0.17793 -0.011415 0.0030323
-0.0010652 -1.2973e-05 0.00024477 -0.00090022 -2.0065e-05 -0.00016262 0.0020035 0.0017728
-0.011384 0.0030298 0.21003 0.25508
1580000000 0.30011 0.056673 -0.0064251 0.012864 -0.0011401 -0.0047418 0.0016222 0.0018774
-0.00021007 -0.0020492 -0.00025152 0.00037107
-0.0064312 0.012855 0.18088 0.29545 0.0052341 0.0076943 0.00040109 -0.0016674
-0.00052339 -0.00088164 -0.00021604 -0.00075838
-0.0011528 -0.0047236 0.0052626 0.007674 0.33409 -0.11161 -0.001601 0.00098234
-0.00030654 -0.0010728 0.00020805 -0.00055146
0.0016184 0.0018669 0.00040537 -0.00168 -0.0016057 0.00098769 0.23501 0.092783
-0.010914 0.0087256 0.0025153 0.00019499
-0.00023536 -0.0020463 -0.00052486 -0.00087561 -0.00031794 -0.0010921 -0.0109 0.0087797
0.18957 0.15782 -0.0085808 0.007974
-0.00024783 0.00037475 -0.00022227 -0.00076291 0.00020161 -0.00055409 0.0025114 0.00019632
-0.008566 0.0079735 0.23913 0.22624
1640000000 0.30067 0.015002 -0.000342 0.011137 -0.0028312 -0.0024646 0.0028157 0.00078532
-0.00078467 -0.0014411 -0.00020271 0.00051848
-0.00035484 0.011132 0.20972 0.26996 0.0057061 0.0032292 -0.00086374 -0.0016566
-0.00092883 -0.00029288 -0.00051629 -0.0005773
-0.002842 -0.0024483 0.005719 0.003207 0.30472 -0.16026 -0.00049044 0.0015636
-0.001149 -0.00076304 -0.000194 -0.00025608
0.0028124 0.00078598 -0.000864 -0.0016571 -0.00047007 0.0015762 0.24482 0.045262
-0.0064143 0.00975 0.0024355 -0.0012909
-0.00079275 -0.0014457 -0.00093717 -0.00027916 -0.0011869 -0.00075348 -0.0063781 0.009781
0.21081 0.13194 -0.0038106 0.0095701
-0.00020137 0.00052021 -0.00052131 -0.00057551 -0.00019559 -0.00025351 0.0024323 -0.0012889
-0.0038042 0.0095571 0.26268 0.19351
1700000000 0.29171 -0.030527 0.0024087 0.0080991 -0.0034058 0.00010681 0.0028884 -0.0014706
-0.0019424 -0.00064216 0.00066294 0.00034464
0.0023932 0.0081041 0.22722 0.23818 0.0037801 0.00042999 -0.0014934 -0.00043627
-0.00066659 0.00010438 -0.0008771 -0.00039817
-0.0033983 0.0001281 0.0037827 0.00041361 0.26162 -0.20027 0.00070223 0.0013555
-0.0017535 -0.00013228 -0.00063646 -0.00079684
0.0028842 -0.0014791 -0.0014886 -0.00042877 0.0007114 0.0013552 0.24027 -0.0028851
-0.0034138 0.0099365 0.0012685 -0.002393
-0.0019665 -0.00062832 -0.0006683 0.00010922 -0.0017616 -9.9073e-05 -0.0033844 0.0099604
0.22667 0.10988 0.00073388 0.0096131
0.00066412 0.00033923 -0.0008774 -0.0003927 -0.00064331 -0.00079936 0.0012672 -0.0023994
0.00073717 0.0095917 0.27694 0.15782
1760000000 0.27799 -0.078588 0.0039389 0.0049767 -0.0023483 0.00087127 0.00088804 -0.0035169
-0.00136 0.00071353 0.00040077 -0.0004913
0.0039324 0.0049828 0.25233 0.19773 0.0015873 -0.0013954 -0.0011874 0.00030621
-0.00093906 0.00077712 -0.00059492 0.00044125
-0.0023381 0.00087702 0.0015773 -0.0014075 0.21238 -0.23384 0.0012466 0.00074153
-0.001101 0.0015055 -0.0013082 -0.00021785
0.00088205 -0.0035138 -0.0011815 0.00031123 0.0012372 0.0007319 0.23024 -0.051938
-0.00024141 0.008881 -0.00058766 -0.0025615
-0.0013509 0.00072839 -0.00093991 0.00078673 -0.0011149 0.0015156 -0.00019805 0.0088867
0.2394 0.073321 0.0042748 0.0067128
0.00039753 -0.00049244 -0.00058877 0.00044528 -0.0013074 -0.00020692 -0.00059648 -0.0025626
0.0042792 0.0066986 0.28731 0.11918
1820000000 0.25211 -0.11517 0.0037472 0.001876 -0.00013082 0.0024883 -0.0013722 -0.002787
-0.0010348 0.0010469 -8.8585e-05 -0.00015456
0.0037399 0.0018768 0.26155 0.16774 -0.00039063 -0.00020302 -0.0011372 0.001024
-5.495e-05 0.0011939 -0.00051489 0.00053108
-0.00012562 0.0024845 -0.00038499 -0.00020621 0.16165 -0.24911 0.0012032 0.00013671
-0.00010804 0.0021074 -0.0013533 0.0005569
-0.0013766 -0.0027705 -0.0011343 0.0010241 0.001227 0.00012986 0.20089 -0.096707
0.0012789 0.0071748 -0.0017808 -0.0014394
-0.0010462 0.0010488 -4.6109e-05 0.0011858 -9.8546e-05 0.0021024 0.0013189 0.0071718
0.25428 0.043199 0.0051097 0.0031426
-8.9357e-05 -0.00015868 -0.0005062 0.00053665 -0.0013533 0.00056208 -0.001778 -0.0014384
0.0051028 0.0031295 0.28752 0.081762
1880000000 0.21575 -0.15454 0.0013568 4.9508e-05 -0.00043971 0.0021221 -0.0029253 -0.0017888
-0.00016503 0.0017457 7.4198e-05 -0.00029937
0.0013488 5.9641e-05 0.26537 0.12086 -0.0025081 0.0015853 -2.1696e-06 0.0015984
0.00050047 0.0010902 0.00015246 0.00096531
-0.0004315 0.0021243 -0.0024921 0.0015923 0.1086 -0.25901 0.0014142 -0.00097544
0.0014664 0.001651 -0.00074011 0.0014694
-0.0029331 -0.001772 2.9018e-06 0.0016021 0.0014137 -0.00097266 0.16171 -0.13616
0.0019899 0.004952 -0.0023713 0.0004322
-0.00014769 0.0017617 0.00050892 0.0010804 0.0014852 0.0016559 0.0020267 0.0049302
0.25474 0.0093449 0.0046668 0.00098787
6.9082e-05 -0.00030064 0.00015527 0.00096172 -0.00073869 0.0014709 -0.0023667 0.0004222
0.0046689 0.00098268 0.285 0.047073
1940000000 0.17567 -0.17937 -0.00078566 -0.001085 0.0015751 0.0020517 -0.0035174 0.00079368
0.0014772 0.0011341 -0.00047937 -0.00043122
-0.00077856 -0.0010842 0.26486 0.089346 -0.0012768 0.0039775 0.0010003 0.0011181
0.0016467 0.00053433 0.00087021 0.00044261
0.0015817 0.0020381 -0.0012607 0.0039863 0.062096 -0.25183 0.00018229 -0.0016511
0.0022438 0.00038567 0.00045528 0.0016763
-0.003526 0.00081316 0.0010065 0.0011094 0.00018525 -0.0016613 0.11045 -0.16607
0.0011943 0.0034526 -0.0014827 0.0015612
0.0014732 0.0011123 0.0016396 0.00051791 0.002262 0.00036248 0.0012043 0.0034245
0.25397 -0.030034 0.0033406 -0.0018779
-0.00048292 -0.00043432 0.00087538 0.00043548 0.00045831 0.0016851 -0.0014937 0.0015603
0.0033084 -0.0018982 0.27202 0.010366
2000000000 0.12907 -0.19337 -0.0043594 0.0012034 0.0025521 0.0014911 -0.0020393 0.003332
0.0012621 3.0088e-05 -0.00049189 0.00042126
-0.0043553 0.0012013 0.25043 0.053887 -0.0010026 0.005912 0.0015493 0.00020433
0.0013035 -0.0011428 0.0004409 7.6982e-06
0.0025517 0.001484 -0.00096564 0.0059206 0.018282 -0.23671 -0.00091125 -0.00097981
0.0019066 -0.0010519 0.0017245 0.0010278
-0.0020161 0.0033338 0.0015611 0.00019492 -0.00091108 -0.00097192 0.058157 -0.17692
-0.00045722 0.0028488 -9.3882e-06 0.0021786
0.001281 2.9265e-05 0.0012866 -0.0011404 0.0018791 -0.0010713 -0.00045765 0.0028265
