!Keysight Technologies,M9804A,MY58100912,A.14.10.03
!Date: Thursday, April 27, 2023 10:28:33
!Correction: S11(C  6-Port  ) 
!S12(C  6-Port  ) 
!S13(C  6-Port  ) 
!S14(C  6-Port  ) 
!S15(C  6-Port  ) 
!S16(C  6-Port  ) 
!S21(C  6-Port  ) 
!S22(C  6-Port  ) 
!S23(C  6-Port  ) 
!S24(C  6-Port  ) 
!S25(C  6-Port  ) 
!S26(C  6-Port  ) 
!S31(C  6-Port  ) 
!S32(C  6-Port  ) 
!S33(C  6-Port  ) 
!S34(C  6-Port  ) 
!S35(C  6-Port  ) 
!S36(C  6-Port  ) 
!S41(C  6-Port  ) 
!S42(C  6-Port  ) 
!S43(C  6-Port  ) 
!S44(C  6-Port  ) 
!S45(C  6-Port  ) 
!S46(C  6-Port  ) 
!S51(C  6-Port  ) 
!S52(C  6-Port  ) 
!S53(C  6-Port  ) 
!S54(C  6-Port  ) 
!S55(C  6-Port  ) 
!S56(C  6-Port  ) 
!S61(C  6-Port  ) 
!S62(C  6-Port  ) 
!S63(C  6-Port  ) 
!S64(C  6-Port  ) 
!S65(C  6-Port  ) 
!S66(C  6-Port  ) 
!S6P File: Measurement: :
# Hz S  RI   R 50
500000000 -0.34008 -0.017388 -0.01101 -0.0037111 -0.0073034 0.012398 -0.0034684 0.011927
0.011394 0.003614 -0.0030366 0.0078227
-0.010988 -0.0037204 -0.42029 -0.035448 0.0058814 -0.011748 0.0015393 0.012283
0.0068592 0.0018295 0.0018895 0.013078
-0.0072819 0.012399 0.0058631 -0.011744 -0.26353 0.22367 0.0069506 0.0040081
-0.00072329 0.0083009 0.0020872 0.012152
-0.0034513 0.011935 0.0015537 0.012299 0.0069386 0.0040078 -0.33174 0.063546
-0.019402 -0.0074298 0.014006 0.023363
0.011389 0.0036041 0.006843 0.0018218 -0.0007219 0.0083096 -0.019411 -0.0074188
-0.23746 -0.16125 -0.02461 0.0028383
-0.0030427 0.0078161 0.001897 0.013072 0.0020994 0.012158 0.01404 0.023314
-0.024608 0.002831 -0.28664 -0.077623
560000000 -0.31226 0.13867 -0.02705 -0.060389 0.0010047 0.011651 0.0057515 0.0092984
0.0091322 0.0041895 0.010381 0.0072083
-0.027021 -0.060345 -0.37625 0.1197 -0.042093 -0.034327 0.013172 0.0034126
-0.011474 -0.0040809 0.0032019 -0.00019016
0.001078 0.011656 -0.042192 -0.034284 -0.18061 0.26854 0.00024212 -0.0043537
0.018205 0.0041525 0.0066031 -0.0065877
0.0057863 0.0092481 0.013218 0.0034098 0.00021602 -0.0043473 -0.30438 0.14926
-7.7462e-05 -0.024656 0.0033731 -0.017713
0.0091364 0.0042 -0.01149 -0.0040992 0.018247 0.0041261 -0.00013389 -0.024649
-0.28824 0.010752 0.0036072 -0.046173
0.010399 0.0071701 0.0031893 -0.00020929 0.0066035 -0.0065545 0.0033517 -0.017757
0.0035823 -0.046186 -0.33171 0.062857
620000000 -0.27018 0.12403 -0.0234 0.0074731 0.0044711 0.0081954 0.0071878 -0.005172
0.011398 -0.0018885 0.00023887 -0.0024601
-0.023393 0.0074538 -0.40115 0.075318 -0.019496 0.00047922 -0.00076845 -0.0022296
0.010221 -0.0067817 0.0018263 -0.0029303
0.0044835 0.0081752 -0.019499 0.00051586 -0.1489 0.27773 -0.001073 -0.0045955
-0.0032369 -0.00345 0.0081141 -0.003386
0.007178 -0.0051772 -0.00077075 -0.0022304 -0.0010646 -0.0045932 -0.26298 0.16079
-0.038599 -0.016846 0.011819 0.022902
0.011411 -0.0019064 0.010233 -0.0067862 -0.0032647 -0.003456 -0.038655 -0.016866
-0.21328 -0.028017 -0.038058 0.014751
0.0002181 -0.0024836 0.0018092 -0.0029596 0.0081365 -0.0033698 0.011826 0.022941
-0.03807 0.014764 -0.25665 0.03412
680000000 -0.2273 0.20646 -0.027824 -0.011445 0.0056009 0.0044547 0.0010265 -0.0071595
-0.0030996 -0.01098 0.0041452 -0.0065369
-0.027795 -0.011449 -0.38362 0.16938 -0.03226 0.00084658 -0.0015621 -0.00079765
-0.0025043 -0.0089287 -0.0014094 -0.0022438
0.0056223 0.0044505 -0.032263 0.0009058 -0.097678 0.29563 -0.00081366 -0.00038028
-0.0017475 -3.2316e-05 -0.0037978 -0.0085596
0.0010104 -0.0071613 -0.0015761 -0.00080001 -0.0008233 -0.00039092 -0.21663 0.20821
-0.02578 -0.005283 -0.009522 -0.0079365
-0.0031232 -0.010987 -0.0025184 -0.0089194 -0.0017589 -3.4147e-06 -0.025798 -0.0052951
-0.25023 0.07091 -0.0076252 -0.0059685
0.004114 -0.0065677 -0.0014229 -0.0022606 -0.0038027 -0.0085678 -0.0095455 -0.0079331
-0.0076292 -0.0059715 -0.25272 0.12824
740000000 -0.18344 0.2009 -0.036235 0.026458 0.012112 -0.0059534 -0.00087709 -0.0041133
-0.0055289 -0.002596 -0.0059564 0.0034813
-0.036224 0.026424 -0.33219 0.18804 -0.032479 0.035254 -0.0012642 -0.0060314
-0.011232 0.0081535 -0.0022849 -0.0049136
0.012107 -0.0059905 -0.032417 0.035353 -0.064101 0.29439 -0.0018504 0.0028842
-0.0036859 -0.0042817 -0.0019902 0.0010089
-0.00089147 -0.0041485 -0.0012847 -0.006028 -0.0018557 0.0028964 -0.1987 0.2166
-0.042373 -0.0027627 0.021732 0.011829
-0.0055653 -0.0026008 -0.011194 0.0082225 -0.0037329 -0.0042266 -0.042387 -0.0026782
-0.15743 0.090829 -0.038632 0.0039757
-0.0059563 0.003471 -0.0022938 -0.0049413 -0.001973 0.0010042 0.021737 0.011813
-0.038652 0.0039497 -0.24117 0.13865
800000000 -0.14927 0.23788 -0.020868 0.017931 0.0046416 -0.010512 -0.0043935 -0.0015994
-0.0037074 0.0025402 0.0036477 0.00094953
-0.020868 0.017906 -0.33217 0.25671 -0.0063718 0.033727 -0.0022984 0.0024066
-0.00054235 0.0036153 0.001048 0.0053643
0.0046157 -0.010522 -0.0063047 0.033756 -0.021569 0.31627 0.00093532 0.0015793
0.00037155 0.0036013 -0.0015874 0.0013345
-0.0043788 -0.001589 -0.0022983 0.0024055 0.00093833 0.0015844 -0.16875 0.24284
-0.026582 0.01625 0.01234 -0.009741
-0.0036863 0.0025536 -0.00052633 0.0036155 0.00037577 0.0035848 -0.026584 0.016298
-0.19371 0.11834 -0.015257 0.018438
0.0036534 0.00093075 0.0010594 0.0053639 -0.0016018 0.0013406 0.012351 -0.0097646
-0.015258 0.018433 -0.22815 0.18451
860000000 -0.114 0.25732 -0.015322 0.030994 -0.0038669 -0.0096476 -0.0017911 0.0013982
0.0046728 0.0045026 -0.0027321 -0.0023603
-0.015351 0.030972 -0.28443 0.29733 0.0096142 0.0332 0.00017098 0.0022744
0.0047993 0.00054453 0.0030361 0.00032502
-0.0038873 -0.0096468 0.0096926 0.033191 0.026973 0.32329 -0.00021529 -1.7838e-05
0.0025036 -0.0011672 0.0018139 0.0038335
-0.0017872 0.0014039 0.00018322 0.0022649 -0.00021075 -2.4613e-05 -0.13185 0.25377
-0.014835 0.021503 -0.0054111 -0.0091282
0.0047025 0.0044957 0.0048252 0.00050974 0.0025065 -0.0011759 -0.014804 0.02154
-0.1406 0.16295 -0.020285 0.016502
-0.0027615 -0.0023675 0.0030391 0.00034457 0.001819 0.0038334 -0.0054257 -0.0091371
-0.020295 0.01648 -0.17881 0.22207
920000000 -0.087302 0.27833 0.0066317 0.036304 -0.009407 -0.0040224 -0.0013431 0.0017425
0.0016017 0.0013567 0.0027189 -0.0018223
0.0065964 0.036277 -0.25431 0.31735 0.028516 0.019937 0.0019442 0.00096165
0.0068967 -0.00086518 0.0037692 -0.0031847
-0.0094079 -0.0040087 0.02858 0.019883 0.074286 0.32314 0.0019651 -0.00012351
0.0014814 -0.00070224 0.00092962 -0.0011825
-0.0013395 0.0017325 0.0019393 0.00094392 0.0019681 -0.00013333 -0.10533 0.26948
-0.0068824 0.031108 0.0026892 -0.0065682
0.0016158 0.0013369 0.0068914 -0.00087904 0.0014789 -0.00069561 -0.0068459 0.031151
-0.12781 0.16895 3.16e-05 0.025449
0.0027382 -0.0018331 0.0037567 -0.0031878 0.00092985 -0.0011821 0.0026774 -0.0065703
2.3027e-05 0.025443 -0.17622 0.23841
980000000 -0.040446 0.29605 0.018881 0.02815 -0.0085946 0.0047703 0.0020089 0.0031077
0.0037678 -0.001811 -0.0031088 -0.0018734
0.018822 0.028135 -0.20257 0.34972 0.032717 0.0028278 0.0020062 -0.00023835
0.0013166 -0.0062122 -0.00058835 -0.0024111
-0.0085808 0.0047829 0.032736 0.0027462 0.12125 0.31544 0.00045578 -0.0012944
3.7391e-05 -0.0022726 0.0012832 -0.00034234
0.0020109 0.0031202 0.0020032 -0.00026862 0.00046337 -0.0012987 -0.066745 0.27882
0.01146 0.028276 -0.0086473 -0.0062383
0.0037674 -0.0018158 0.0012973 -0.0062394 3.5634e-05 -0.0022793 0.011523 0.028272
-0.095022 0.19271 0.0064042 0.01798
-0.0031226 -0.0018822 -0.00061805 -0.0024059 0.0012742 -0.00034682 -0.008654 -0.0062272
0.0063944 0.017973 -0.13318 0.27567
1040000000 0.0026266 0.30279 0.033082 0.015305 -0.0011929 0.0066595 0.0023517 0.00038798
-6.3607e-05 -0.003204 -0.00085009 -0.0014676
0.033018 0.015325 -0.16646 0.36285 0.027737 -0.01622 0.0013565 -0.0018179
-0.0025159 -0.0024586 -0.0016617 -0.0026761
-0.0011631 0.006642 0.02769 -0.016297 0.16845 0.30043 -0.00069758 -0.0015203
-0.0016807 -0.00087696 -0.00057574 -0.001052
0.0023481 0.00039337 0.0013399 -0.0018402 -0.00069455 -0.0015258 -0.037286 0.2878
0.021833 0.015598 -0.0027303 0.0012575
-6.9389e-05 -0.0031973 -0.0025453 -0.0024693 -0.0016955 -0.00087077 0.02187 0.015564
-0.063096 0.19874 0.014218 0.015801
-0.00083273 -0.0014838 -0.0016848 -0.0026533 -0.00057433 -0.0010546 -0.0027398 0.0012542
0.014198 0.015806 -0.10622 0.29497
1100000000 0.0478 0.30874 0.034401 -0.0064002 0.002711 0.0037115 0.0022067 -0.0011136
-0.002123 -0.0028424 -0.0035941 0.00062202
0.034366 -0.0063542 -0.12307 0.37901 0.01321 -0.02815 -9.9965e-05 -0.0018139
-0.0035179 -0.00051599 -0.0033755 -0.00016649
0.0027226 0.0036963 0.013124 -0.0282 0.21551 0.27786 -0.0018763 0.00029248
-0.0019249 0.00072917 -0.00099569 -0.00013175
0.0022085 -0.0011077 -0.00011646 -0.0018285 -0.0018848 0.00028776 0.0042409 0.29049
0.02555 0.001628 -0.0024582 0.00019729
-0.0021226 -0.0028313 -0.0035268 -0.0005141 -0.0019309 0.00073181 0.025563 0.001585
-0.043311 0.20966 0.019113 0.0056074
-0.0035853 0.0006339 -0.0033704 -0.00015533 -0.00099246 -0.00012878 -0.0024471 0.00020753
0.019105 0.0056205 -0.059922 0.3174
1160000000 0.098798 0.3025 0.0218 -0.022107 0.0022406 -0.00033841 -8.4817e-05 -0.001981
-0.0039729 -0.00040418 -0.00068208 0.0038659
0.021775 -0.022061 -0.078104 0.38317 -0.0056132 -0.028277 -0.0017082 -0.0013982
-0.0025518 0.0026978 -0.001255 0.0018212
0.0022528 -0.00034098 -0.0057231 -0.028262 0.25837 0.24461 -0.00063281 0.0018827
-0.00031049 0.0019947 -0.00084323 0.00017097
-9.347e-05 -0.0019649 -0.0017232 -0.0014088 -0.00063445 0.0018816 0.044217 0.28521
0.020195 -0.0138 -0.0030334 0.0041807
-0.0039721 -0.000384 -0.0025418 0.0026967 -0.00030274 0.0019997 0.020193 -0.013834
-0.010421 0.2163 0.016977 -0.0028139
-0.00066633 0.0038663 -0.0012579 0.001844 -0.00084423 0.00018043 -0.0030317 0.0041931
0.01697 -0.0028245 -0.012751 0.31779
1220000000 0.14339 0.28928 0.0076902 -0.029884 -0.0016615 -0.00024115 0.00012592 -0.00091375
-0.0024554 0.0022889 0.0013953 0.0019139
0.0076909 -0.029851 -0.033491 0.39337 -0.017854 -0.019538 -0.0024543 0.00055411
0.00028509 0.0029634 -0.00045663 0.0019937
-0.0016569 -0.00023296 -0.01794 -0.019479 0.29649 0.20306 0.0009304 0.0018632
0.00075211 0.0012199 0.00037819 0.00046422
0.00012335 -0.0009136 -0.0024461 0.00055777 0.00092562 0.0018632 0.084547 0.27392
0.0085622 -0.019703 0.0013666 0.0014086
-0.002446 0.0023072 0.00030828 0.0029621 0.00075132 0.001228 0.0085388 -0.01972
0.013767 0.22287 0.011415 -0.014221
0.0014009 0.0018924 -0.00044773 0.0019945 0.00037548 0.00046437 0.0013752 0.001407
0.011412 -0.01422 0.021031 0.32861
1280000000 0.19214 0.26574 -0.01002 -0.027055 -0.0014529 0.0030358 -0.00093857 -0.002001
-0.00058799 0.0029311 0.0024377 0.00081008
-0.009983 -0.027031 0.012794 0.38343 -0.023707 -0.0068479 -0.00091202 0.0015031
0.0018615 0.0016716 0.00088207 0.0017216
-0.0014474 0.003028 -0.023747 -0.0067652 0.32502 0.15768 0.0016797 -0.00011416
0.0011732 0.00011741 0.00024814 0.0001989
-0.00094562 -0.0019897 -0.00091394 0.0015121 0.0016793 -0.00010413 0.12047 0.25459
-0.0021276 -0.020658 -0.00057954 0.00054974
-0.00057523 0.0029329 0.0018679 0.0016677 0.0011736 0.00012033 -0.0021633 -0.020661
0.049975 0.22429 0.0007604 -0.015677
0.0024246 0.00080232 0.00089497 0.0017119 0.00025773 0.00019281 -0.00057779 0.00055753
0.00076282 -0.015673 0.066685 0.32642
1340000000 0.22881 0.23027 -0.018816 -0.016595 0.0015368 0.004353 -0.001749 -0.00088739
0.0014648 0.0025933 0.0014134 -0.0014427
-0.018787 -0.016573 0.052583 0.37315 -0.0207 0.0056183 -3.1424e-05 0.0019822
0.0019582 0.00049418 0.0013466 0.00055911
0.0015475 0.0043484 -0.020692 0.0057094 0.34513 0.10926 0.0012163 -0.0011138
0.00055606 -0.00055328 0.0001427 0.00023034
-0.0017562 -0.00086618 -1.8556e-05 0.0019771 0.0012113 -0.0011194 0.15177 0.23168
-0.011631 -0.016377 0.00042108 0.0012251
0.0014778 0.002592 0.0019595 0.00049511 0.00055814 -0.00055239 -0.011654 -0.016358
0.080245 0.21748 -0.006145 -0.013432
0.0013873 -0.0014564 0.0013578 0.0005631 0.00014894 0.00022867 0.00041214 0.0012317
-0.0061321 -0.013442 0.1055 0.31694
1400000000 0.2605 0.19058 -0.023014 -0.0049855 0.0054529 0.0026235 -0.002104 0.00065407
0.0024043 0.00079988 3.52e-05 -0.001417
-0.022991 -0.0049932 0.088978 0.35867 -0.013482 0.012972 0.0013665 0.001264
0.0010671 -0.0010133 0.0010923 -7.0646e-07
0.0054609 0.0026032 -0.013443 0.013039 0.35677 0.055801 5.6932e-05 -0.0019069
9.3393e-06 -0.00038141 0.00036401 0.0002085
-0.0021008 0.0006604 0.0013808 0.0012614 5.0349e-05 -0.0019068 0.17941 0.20062
-0.017132 -0.0085242 -0.0002802 0.00080769
0.0024117 0.00078384 0.0010555 -0.00102 8.7445e-06 -0.00037807 -0.017163 -0.0084926
0.11224 0.21044 -0.011782 -0.0074917
2.3302e-05 -0.0014223 0.001094 -7.9358e-06 0.00036424 0.00020501 -0.00027691 0.00081078
-0.011774 -0.0075068 0.14772 0.30171
1460000000 0.28199 0.14566 -0.019082 0.0065009 0.0055366 -0.0023428 -0.0015384 0.0017197
0.0020521 -0.0006714 -0.00042383 -0.00081481
-0.019068 0.0064814 0.1225 0.33556 -0.004898 0.01505 0.0017241 4.4971e-05
0.00058117 -0.001322 0.0010046 -0.00058153
0.005523 -0.0023585 -0.0048469 0.01507 0.36163 0.0020331 -0.0016245 -0.0012996
0.00017487 -0.00025003 0.0006713 -0.00037781
-0.0015225 0.0017198 0.0017298 3.3472e-05 -0.001609 -0.0013008 0.20311 0.17011
-0.017381 -0.00065086 -7.6848e-05 0.0022868
0.0020518 -0.00068006 0.00057721 -0.0013231 0.00016034 -0.00025874 -0.017404 -0.0006182
0.14079 0.19397 -0.012692 -0.0012175
-0.00045595 -0.00081461 0.00099137 -0.00058708 0.00065987 -0.00038407 -6.4488e-05 0.0023008
-0.012671 -0.0012272 0.17979 0.27847
1520000000 0.29274 0.10254 -0.012704 0.011215 0.0029253 -0.0043666 0.00016132 0.002643
0.0018668 -0.0018362 -0.0011368 2.4594e-05
-0.012706 0.011196 0.15488 0.3197 0.0022473 0.012457 0.0016003 -0.00089464
-0.00013652 -0.0009316 0.00016488 -0.00093535
0.0029049 -0.0043739 0.0023014 0.012442 0.35435 -0.054077 -0.0014221 -0.00013886
0.00042497 -0.00087686 -3.2618e-05 -0.0002081
0.00016358 0.002637 0.0016152 -0.00090072 -0.0014212 -0.00012758 0.22338 0.13146
-0.015241 0.0054699 0.0021932 0.0018846
0.0018626 -0.0018444 -0.00013426 -0.00093035 0.00042287 -0.0008879 -0.015241 0.0055162
0.16814 0.17743 -0.011896 0.0035185
-0.0011452 3.0383e-05 0.00016252 -0.0009284 -4.0416e-05 -0.00020116 0.0021901 0.0018711
-0.011894 0.0035116 0.21086 0.25446
1580000000 0.30008 0.056024 -0.0060435 0.013171 -0.0011664 -0.004824 0.0016159 0.0018363
-0.00034067 -0.0021155 -0.00015397 0.00040602
-0.0060425 0.013151 0.18092 0.29442 0.0054354 0.0074759 0.0003718 -0.0017041
-0.00055215 -0.00085707 -0.00024969 -0.00074564
-0.0011911 -0.0048259 0.0054697 0.0074505 0.33377 -0.1112 -0.0015505 0.0010482
-0.00034264 -0.0010772 0.00013242 -0.00067716
0.0016269 0.001824 0.00036653 -0.001707 -0.0015426 0.0010408 0.23443 0.092479
-0.010491 0.0098995 0.0025888 0.00017949
-0.00035278 -0.0021124 -0.0005711 -0.00084527 -0.00033972 -0.001083 -0.010487 0.0099361
0.19104 0.15715 -0.0086721 0.0086382
-0.00014591 0.00041405 -0.00024765 -0.00074473 0.0001211 -0.00067952 0.0025861 0.00017357
-0.0086791 0.0086395 0.23967 0.22594
1640000000 0.30039 0.014357 9.5731e-05 0.011179 -0.0029594 -0.0025597 0.0027664 0.00080359
-0.00094582 -0.0013781 -0.00017346 0.00059183
8.4163e-05 0.011172 0.20946 0.26896 0.0057131 0.0029733 -0.00090412 -0.001616
-0.00094463 -0.00021383 -0.00054506 -0.00048509
-0.0029655 -0.0025523 0.005732 0.0029514 0.3048 -0.15986 -0.00046314 0.0016094
-0.0012776 -0.00064624 -0.0001856 -0.00017956
0.0027721 0.0008082 -0.00091709 -0.0016171 -0.00046174 0.0016007 0.24413 0.045128
-0.00549 0.010514 0.0024948 -0.0013965
-0.00095345 -0.0013719 -0.00095057 -0.00020885 -0.001272 -0.00064423 -0.0054709 0.010537
0.21227 0.13075 -0.003627 0.010155
-0.00017879 0.00059737 -0.00054261 -0.00048344 -0.00017478 -0.00018819 0.0024866 -0.0013978
-0.0036319 0.010158 0.26356 0.19293
1700000000 0.2912 -0.030793 0.0027986 0.0079239 -0.0035458 0.00023456 0.0029529 -0.0014286
-0.0020026 -0.00054192 0.00072973 0.00029233
0.0027816 0.0079135 0.22643 0.23758 0.0036805 0.00019522 -0.0014807 -0.00039863
-0.00060938 0.0001121 -0.00083175 -0.00032941
-0.0035358 0.00024269 0.0036847 0.00017728 0.26183 -0.19993 0.00074185 0.00138
-0.0017965 -4.4054e-05 -0.00068705 -0.00082273
0.0029445 -0.0014403 -0.0014804 -0.0003984 0.00073 0.0013792 0.23939 -0.0025345
-0.0023377 0.0099579 0.0013268 -0.0024368
-0.0020053 -0.00052317 -0.00061054 0.00011334 -0.0017988 -3.9533e-05 -0.0023193 0.0099588
0.22739 0.10847 0.0010923 0.010007
0.00072741 0.0002812 -0.00082879 -0.00032069 -0.00069414 -0.0008316 0.0013257 -0.0024479
0.001089 0.010008 0.27748 0.15735
1760000000 0.27775 -0.078539 0.0041342 0.0045909 -0.0024424 0.001054 0.0009308 -0.0035171
-0.0013393 0.00082054 0.00033335 -0.00050096
0.0041253 0.004587 0.25167 0.19767 0.0013073 -0.001522 -0.0011454 0.00036703
-0.00089495 0.00076001 -0.00056626 0.0004777
-0.0024332 0.0010689 0.0012892 -0.0015318 0.21299 -0.23388 0.0013225 0.00076281
-0.0010144 0.0016935 -0.0013051 -0.00027639
0.00091947 -0.0035181 -0.0011398 0.00036733 0.0013157 0.0007521 0.22995 -0.051022
0.00058415 0.008401 -0.00056164 -0.0026698
-0.0013408 0.00081609 -0.00089093 0.00076291 -0.0010068 0.00171 0.00060221 0.0084101
0.23994 0.072084 0.0048602 0.0068201
0.00033005 -0.00050864 -0.00056063 0.00048327 -0.0013052 -0.00027871 -0.00056411 -0.0026728
0.0048627 0.0068257 0.28836 0.11866
1820000000 0.25176 -0.11489 0.003598 0.0015139 -4.0603e-05 0.0025947 -0.001346 -0.0028872
-0.00086207 0.0011166 -8.3163e-05 -1.9767e-05
0.0035962 0.001519 0.26085 0.16784 -0.00058194 -0.00012964 -0.001102 0.0010068
-6.1338e-05 0.0011462 -0.0004569 0.0005384
-1.2459e-05 0.0025845 -0.00058019 -0.00012586 0.16194 -0.24933 0.0012599 9.9227e-05
-3.0631e-05 0.0021862 -0.0013519 0.00066955
-0.0013604 -0.0028802 -0.0010925 0.0010125 0.0012709 9.3332e-05 0.20091 -0.095937
0.0016543 0.0063423 -0.001751 -0.0014957
-0.00085727 0.0011235 -4.9577e-05 0.0011525 -1.0023e-05 0.0022024 0.0016682 0.0063451
0.25434 0.041718 0.0055968 0.0030744
-8.4978e-05 -2.5744e-05 -0.00045356 0.00054872 -0.001337 0.00067258 -0.001754 -0.0014909
0.0055937 0.0030785 0.28799 0.080883
1880000000 0.21566 -0.15399 0.0010719 -0.00011549 -0.0003059 0.0021371 -0.0030418 -0.0017675
-7.5781e-05 0.0016172 0.00020795 -0.0003517
0.0010809 -0.00011516 0.26496 0.12154 -0.0026163 0.0017265 -4.6743e-05 0.0016419
0.00048892 0.0010527 0.00018864 0.00082436
-0.00030751 0.0021509 -0.0026192 0.0017431 0.1086 -0.25901 0.0013728 -0.0009284
0.0015856 0.0014999 -0.00069305 0.001398
-0.0030396 -0.0017574 -3.9924e-05 0.0016466 0.001386 -0.00092189 0.16227 -0.13512
0.0018992 0.0042384 -0.0024509 0.00027816
-6.1629e-05 0.0016167 0.0004937 0.0010652 0.0015924 0.0015108 0.0019251 0.0042412
0.25441 0.0084808 0.0050437 0.00060737
0.0002152 -0.00035349 0.00018774 0.00082389 -0.00069912 0.001401 -0.0024414 0.00028185
0.0050468 0.00059509 0.28555 0.04635
1940000000 0.17614 -0.17929 -0.0010181 -0.0010742 0.0016167 0.0019302 -0.0033935 0.00083439
0.0014992 0.00095479 -0.00058555 -0.00053522
-0.0010036 -0.0010671 0.26498 0.089923 -0.0012596 0.0041609 0.00094405 0.0011032
0.001568 0.00050033 0.00079335 0.00032314
0.001637 0.0019118 -0.001236 0.0041675 0.062593 -0.25189 8.3198e-05 -0.0017449
0.0022391 0.00011203 0.00050792 0.001656
-0.003389 0.00084697 0.0009568 0.0011062 0.00010326 -0.0017406 0.11156 -0.16603
0.00081887 0.0028243 -0.0016795 0.0014773
0.0014955 0.00093745 0.0015673 0.00049132 0.0022423 0.00012422 0.00081118 0.0028181
0.25368 -0.030981 0.0035064 -0.0023299
-0.00058451 -0.00052803 0.0007915 0.00032258 0.00051742 0.0016637 -0.001672 0.0014882
0.0035176 -0.0023289 0.2727 0.0095617
2000000000 0.12949 -0.19334 -0.0044347 0.0013293 0.0026035 0.0014432 -0.0021346 0.0035107
0.0010572 -3.7833e-05 -0.00048116 0.00037228
-0.0044253 0.0013154 0.25072 0.054351 -0.00088264 0.0057916 0.0014882 0.000246
0.001337 -0.0010826 0.00043756 2.7089e-05
0.0026007 0.0014433 -0.00084433 0.0058065 0.018497 -0.23721 -0.0010942 -0.00094569
0.0017423 -0.0011652 0.0017267 0.00095587
-0.0021204 0.0035288 0.0014999 0.00023837 -0.0010956 -0.00094771 0.05918 -0.17714
-0.00081841 0.0027603 -0.00015734 0.0022963
0.001057 -4.2165e-05 0.0013373 -0.0010878 0.0017457 -0.0011779 -0.0008153 0.0027569
0.245 -0.064436 0.00018223 -0.0033723
