!Keysight Technologies,M9804A,MY58100912,A.14.10.03
!Date: Thursday, April 27, 2023 10:28:33
!Correction: S11(C  6-Port  ) 
!S12(C  6-Port  ) 
!S13(C  6-Port  ) 
!S14(C  6-Port  ) 
!S15(C  6-Port  ) 
!S16(C  6-Port  ) 
!S21(C  6-Port  ) 
!S22(C  6-Port  ) 
!S23(C  6-Port  ) 
!S24(C  6-Port  ) 
!S25(C  6-Port  ) 
!S26(C  6-Port  ) 
!S31(C  6-Port  ) 
!S32(C  6-Port  ) 
!S33(C  6-Port  ) 
!S34(C  6-Port  ) 
!S35(C  6-Port  ) 
!S36(C  6-Port  ) 
!S41(C  6-Port  ) 
!S42(C  6-Port  ) 
!S43(C  6-Port  ) 
!S44(C  6-Port  ) 
!S45(C  6-Port  ) 
!S46(C  6-Port  ) 
!S51(C  6-Port  ) 
!S52(C  6-Port  ) 
!S53(C  6-Port  ) 
!S54(C  6-Port  ) 
!S55(C  6-Port  ) 
!S56(C  6-Port  ) 
!S61(C  6-Port  ) 
!S62(C  6-Port  ) 
!S63(C  6-Port  ) 
!S64(C  6-Port  ) 
!S65(C  6-Port  ) 
!S66(C  6-Port  ) 
!S6P File: Measurement: :
# Hz S  RI   R 50
500000000 -0.33811 -0.01764 -0.010693 -0.003303 -0.0071132 0.012595 -0.0033412 0.012315
0.011104 0.0042375 -0.0027638 0.0095646
-0.010583 -0.0033672 -0.41993 -0.036651 0.0059047 -0.011674 0.001685 0.012531
0.0065604 0.0024064 0.0023531 0.014103
-0.0068693 0.012802 0.0060486 -0.011888 -0.26332 0.22372 0.0070056 0.0042005
-0.0013475 0.0084613 0.0026131 0.012525
-0.0024177 0.011037 0.0015436 0.01228 0.0069389 0.0038848 -0.33103 0.062697
-0.020216 -0.006983 0.01505 0.023333
0.011486 0.0031058 0.0064173 0.0023452 -0.0011709 0.0085227 -0.020034 -0.0071379
-0.23639 -0.16324 -0.026652 0.0032279
-0.0032645 0.0065364 0.0025278 0.013661 0.0027247 0.01225 0.014743 0.02344
-0.026761 0.0032031 -0.28544 -0.079212
560000000 -0.3143 0.13841 -0.026959 -0.059977 0.0008077 0.012007 0.0062444 0.010078
0.0089911 0.004258 0.010424 0.0076099
-0.027839 -0.059302 -0.37569 0.11826 -0.042957 -0.033941 0.013276 0.0031972
-0.011319 -0.0039185 0.0019264 -0.00080418
0.00075147 0.011833 -0.043238 -0.033946 -0.18093 0.26901 5.2168e-05 -0.004253
0.019727 0.0036211 0.0049564 -0.0057443
0.0057809 0.010144 0.013876 0.0029206 0.00013595 -0.0042087 -0.30441 0.14888
-0.00011641 -0.0243 0.0036497 -0.01791
0.0087231 0.004572 -0.012755 -0.0036641 0.019622 0.0031007 -0.00017051 -0.024197
-0.28786 0.010116 0.0038738 -0.04618
0.010689 0.0079947 0.0023765 -0.0013731 0.0051755 -0.0054335 0.0035885 -0.017975
0.0040085 -0.045731 -0.33345 0.058078
620000000 -0.26972 0.12283 -0.023182 0.0074689 0.0044648 0.0079174 0.0075912 -0.0050518
0.011207 -0.0015069 0.0010998 -0.0025659
-0.02303 0.0077229 -0.40141 0.073982 -0.019539 0.00068921 -0.00082795 -0.0023224
0.01015 -0.0067045 0.0015565 -0.0031159
0.0044424 0.0080336 -0.019509 0.00073595 -0.14897 0.27767 -0.001009 -0.0048992
-0.0033352 -0.0027474 0.0079768 -0.0033497
0.0082074 -0.0053292 -0.0010491 -0.0021167 -0.00094796 -0.0047351 -0.26257 0.16058
-0.03898 -0.017654 0.011825 0.023251
0.010558 -0.0018473 0.010332 -0.0065395 -0.0034321 -0.0031784 -0.039462 -0.017792
-0.21243 -0.026847 -0.038659 0.014366
0.00030633 -0.0027157 0.0010145 -0.0033498 0.0084247 -0.0032161 0.011643 0.022445
-0.038581 0.01492 -0.25833 0.032865
680000000 -0.22719 0.20631 -0.027837 -0.011123 0.0054945 0.00449 0.0012782 -0.0072244
-0.0025864 -0.011364 0.003848 -0.0072319
-0.027495 -0.011174 -0.38406 0.16881 -0.032121 0.0008703 -0.0014308 -0.00059244
-0.0023595 -0.0089447 -0.0016461 -0.0021761
0.0056827 0.0046313 -0.032058 0.001017 -0.097701 0.29554 -0.0010712 -0.00057501
-0.0017194 -0.00022279 -0.0039997 -0.0086468
0.00075487 -0.0072725 -0.0011169 -0.00062262 -0.00078033 -0.00045495 -0.21655 0.20746
-0.02586 -0.005054 -0.0095756 -0.0082852
-0.0029837 -0.011176 -0.0025743 -0.0089265 -0.0016817 -0.00019708 -0.02604 -0.0049925
-0.25007 0.068328 -0.0075325 -0.0067134
0.0039342 -0.0067683 -0.0012419 -0.0023247 -0.0039285 -0.0082995 -0.0093933 -0.0079568
-0.0077596 -0.006706 -0.25411 0.1264
740000000 -0.18397 0.20069 -0.036232 0.026215 0.012104 -0.0059688 -0.00068298 -0.0042341
-0.0055215 -0.0027634 -0.0057229 0.0031083
-0.035624 0.026433 -0.33311 0.18827 -0.032593 0.035181 -0.0010705 -0.0059796
-0.011725 0.0077241 -0.0020383 -0.0046479
0.012263 -0.0057609 -0.032706 0.034784 -0.063894 0.29442 -0.0020625 0.003125
-0.0033957 -0.0042934 -0.0021487 0.0015664
-0.0004611 -0.0040282 -0.0015845 -0.0060856 -0.00198 0.0029711 -0.19828 0.21651
-0.042444 -0.0028905 0.022193 0.012349
-0.0049293 -0.0031372 -0.011941 0.0076519 -0.0034563 -0.0047061 -0.042336 -0.002971
-0.15744 0.089949 -0.038165 0.0034085
-0.0058459 0.0033303 -0.0028119 -0.0048173 -0.0021023 0.0011525 0.022408 0.012283
-0.038158 0.0031943 -0.24245 0.13631
800000000 -0.14917 0.23729 -0.021012 0.017698 0.0045414 -0.010305 -0.0044413 -0.0014671
-0.0040206 0.0029412 0.0035744 0.00075374
-0.021389 0.017539 -0.33249 0.2558 -0.0065312 0.033731 -0.0022433 0.0023893
-0.0010211 0.0035695 0.0010753 0.0054966
0.0045792 -0.01047 -0.0063944 0.033701 -0.021566 0.31626 0.00085912 0.0016894
0.00034363 0.0036781 -0.0015926 0.0012696
-0.0048336 -0.0015171 -0.0023369 0.0023512 0.00089305 0.0016774 -0.16843 0.24301
-0.026631 0.016693 0.012783 -0.0098781
-0.0045111 0.0032786 -0.00078657 0.0034635 0.00044217 0.0036599 -0.026597 0.016533
-0.19399 0.11654 -0.015345 0.019399
0.0029221 0.00089175 0.0011813 0.0053039 -0.0016793 0.0014065 0.01239 -0.0098836
-0.015469 0.019328 -0.22787 0.18232
860000000 -0.11463 0.2572 -0.015155 0.030933 -0.0037561 -0.0096251 -0.0019137 0.0013225
0.0046458 0.0049195 -0.0023579 -0.0021336
-0.015292 0.030837 -0.28456 0.29675 0.0095946 0.033103 0.00037732 0.0023737
0.0051466 0.00077345 0.0035215 0.00066377
-0.0038437 -0.0095108 0.0096507 0.03318 0.027002 0.32306 -0.00032115 4.3238e-05
0.0026683 -0.0011497 0.0020004 0.0039534
-0.0017524 0.001312 0.00024631 0.002303 -0.00026856 3.4698e-06 -0.1319 0.2533
-0.014697 0.020589 -0.0052373 -0.0091722
0.0048053 0.0053215 0.0050631 0.00097295 0.0026185 -0.0012035 -0.014493 0.020524
-0.14038 0.16137 -0.020805 0.016704
-0.0026086 -0.002386 0.0032799 0.00041358 0.0019185 0.0039086 -0.0052484 -0.0092509
-0.020652 0.01689 -0.17956 0.22108
920000000 -0.087792 0.2779 0.0068137 0.036357 -0.0092239 -0.0040772 -0.0012701 0.001644
0.0019256 0.001225 0.0027545 -0.0018821
0.0068085 0.036298 -0.25455 0.31663 0.02851 0.019899 0.0019364 0.00086802
0.0073009 -0.00090847 0.0036843 -0.0030833
-0.0093016 -0.0040196 0.028557 0.019865 0.07431 0.32288 0.0019771 -0.00024511
0.0016232 -0.00094984 0.00077932 -0.0012689
-0.0011629 0.0014717 0.0018176 0.00081592 0.0019587 -0.00024686 -0.10561 0.269
-0.0070221 0.030547 0.0023683 -0.0064535
0.0019169 0.0014462 0.0073104 -0.00076727 0.0016344 -0.00091318 -0.0069509 0.030563
-0.12788 0.16608 -0.00054269 0.025219
0.0026325 -0.0019834 0.0037974 -0.0033832 0.00084944 -0.0013956 0.002418 -0.0063294
-0.00058464 0.025268 -0.17829 0.23668
980000000 -0.040758 0.29553 0.018922 0.027999 -0.008554 0.0047061 0.0019007 0.002787
0.0038032 -0.0021589 -0.0031369 -0.0018852
0.018943 0.027989 -0.20273 0.34909 0.03268 0.0029166 0.0020886 -0.00032004
0.0015332 -0.0064218 -0.00058878 -0.0023047
-0.0085413 0.0046298 0.032681 0.0027967 0.12116 0.31522 0.00041157 -0.0013787
6.199e-05 -0.0023673 0.0011717 -0.00033591
0.0018794 0.0028336 0.0019857 -0.00033685 0.00042898 -0.0013516 -0.066824 0.2786
0.010969 0.028273 -0.00846 -0.0060178
0.0035 -0.0023445 0.0014323 -0.0065044 1.0885e-05 -0.0023735 0.011038 0.028365
-0.096389 0.19199 0.0065958 0.018438
-0.0032631 -0.0020105 -0.0006433 -0.0022848 0.0012801 -0.00032225 -0.0084632 -0.0060093
0.0066679 0.018521 -0.13388 0.27417
1040000000 0.0021804 0.30248 0.033016 0.015291 -0.0012075 0.0066228 0.0022714 0.00049916
-7.9411e-05 -0.0031933 -0.00096427 -0.0014938
0.033118 0.015314 -0.16693 0.36202 0.027715 -0.016061 0.0013337 -0.0017865
-0.0024923 -0.0026264 -0.0016856 -0.0028737
-0.0011928 0.0066018 0.027677 -0.016166 0.16824 0.30022 -0.00065582 -0.0014631
-0.0016605 -0.00085931 -0.00065696 -0.0010775
0.0024054 0.00052909 0.0012809 -0.0017864 -0.0006754 -0.0014565 -0.037368 0.28753
0.021388 0.015539 -0.0027814 0.0011539
5.6279e-05 -0.0032359 -0.0026033 -0.0026685 -0.001696 -0.00076891 0.021429 0.01552
-0.063896 0.19747 0.014223 0.01578
-0.00097052 -0.0015089 -0.001678 -0.0027324 -0.00063855 -0.001041 -0.002765 0.0010773
0.014269 0.015692 -0.10801 0.29332
1100000000 0.04734 0.30857 0.034441 -0.0063885 0.0026575 0.0035966 0.0021429 -0.0010182
-0.0021758 -0.0027418 -0.0036832 0.00059487
0.034361 -0.0063732 -0.12366 0.37839 0.013324 -0.028123 -8.4777e-05 -0.0017955
-0.0035973 -0.00049136 -0.0034102 -0.00011499
0.0026569 0.0035385 0.013245 -0.028153 0.21523 0.2777 -0.0018797 0.00024271
-0.0018365 0.00071911 -0.00096222 -0.00010171
0.0021403 -0.00096053 -5.9349e-05 -0.0018296 -0.0018445 0.00026294 0.0038391 0.29012
0.025046 0.0019551 -0.0025428 8.4139e-05
-0.0020118 -0.0028836 -0.0035368 -0.00051962 -0.0018737 0.00074975 0.02507 0.0018854
-0.044797 0.20884 0.018923 0.0059134
-0.0037839 0.00070499 -0.003325 -0.0002282 -0.00097539 -5.6667e-05 -0.0025811 9.2957e-05
0.01891 0.0059119 -0.061377 0.3164
1160000000 0.098149 0.30233 0.02172 -0.022101 0.0021208 -0.00031053 -7.632e-05 -0.0019851
-0.0039497 -0.00049848 -0.00075532 0.0038323
0.021803 -0.02211 -0.078932 0.38244 -0.0055598 -0.028255 -0.0017356 -0.0015036
-0.0026743 0.002591 -0.0014408 0.0018469
0.0021202 -0.00039901 -0.0056852 -0.028265 0.25809 0.24457 -0.0007261 0.001808
-0.00041098 0.0020205 -0.00081577 0.00028675
-2.0935e-05 -0.0019286 -0.0017669 -0.0014815 -0.00070273 0.0017997 0.043748 0.28498
0.020117 -0.013423 -0.0031397 0.0043537
-0.0039328 -0.00042061 -0.0026836 0.0025718 -0.00039685 0.0020574 0.020139 -0.013456
-0.011239 0.21552 0.017047 -0.0025013
-0.00069029 0.0037838 -0.0013263 0.0018078 -0.00075859 0.0003173 -0.0031146 0.0043028
0.016998 -0.0024025 -0.014502 0.31712
1220000000 0.14278 0.28936 0.0076074 -0.029837 -0.0016851 -0.00022139 0.00018636 -0.00091767
-0.0023971 0.0022725 0.0014753 0.0018781
0.0076587 -0.029784 -0.034476 0.393 -0.017708 -0.019665 -0.0024678 0.00052928
0.00024098 0.003002 -0.00047341 0.0020311
-0.001717 -0.00021382 -0.017835 -0.019607 0.29625 0.20306 0.00091644 0.0018938
0.00072345 0.001205 0.00041345 0.00053234
0.00012755 -0.00098028 -0.0024273 0.00050091 0.00090698 0.001882 0.084072 0.27371
0.0086044 -0.019225 0.0013552 0.0014922
-0.0023298 0.0022731 0.00025585 0.003047 0.00073579 0.0011811 0.0086181 -0.019226
0.012564 0.22211 0.011618 -0.014086
0.0014087 0.0019283 -0.00047485 0.0020364 0.00043967 0.00050348 0.0013913 0.0015142
0.011552 -0.014102 0.019208 0.32797
1280000000 0.19157 0.26595 -0.01008 -0.026969 -0.0014732 0.0030674 -0.00090583 -0.0019689
-0.00061009 0.003042 0.0024555 0.00084667
-0.010037 -0.026983 0.011703 0.38334 -0.023699 -0.0070067 -0.00089112 0.0014989
0.0018766 0.0016754 0.00083186 0.0017375
-0.0015072 0.0030249 -0.023754 -0.0069139 0.32466 0.15789 0.001664 5.5421e-06
0.0011856 0.00024133 0.00029265 0.00021197
-0.00092028 -0.0019349 -0.00093698 0.0014806 0.0016564 5.1024e-05 0.11986 0.25472
-0.0016809 -0.020255 -0.00063597 0.00053535
-0.00055213 0.0030243 0.00187 0.0017241 0.0011309 0.000221 -0.0017562 -0.020237
0.048833 0.22357 0.00098215 -0.015579
0.0025286 0.00084762 0.00084251 0.0017458 0.00024837 0.00017715 -0.00059403 0.00049713
0.00098999 -0.015598 0.065051 0.32581
1340000000 0.22828 0.23055 -0.018823 -0.016527 0.0015039 0.0045054 -0.0017342 -0.00092967
0.0014826 0.0025327 0.0014731 -0.0015091
-0.018817 -0.016576 0.051551 0.37334 -0.020814 0.0054359 -7.3465e-05 0.0020678
0.0020339 0.00051701 0.0013522 0.00060621
0.001491 0.0044948 -0.020818 0.0055238 0.34489 0.1095 0.0012866 -0.0011181
0.0006193 -0.00061147 7.8747e-05 0.00017922
-0.0017148 -0.00088811 -6.0989e-05 0.0020472 0.0013165 -0.0010998 0.15133 0.23192
-0.011142 -0.016131 0.0005005 0.0012365
0.0015047 0.0025734 0.0020416 0.0004954 0.00060772 -0.00063027 -0.011192 -0.016126
0.078721 0.21701 -0.005905 -0.013127
0.0015056 -0.0014628 0.0012991 0.00053878 2.5287e-05 0.00018548 0.00047095 0.0012669
-0.0058811 -0.013116 0.10404 0.31694
1400000000 0.26011 0.19103 -0.022983 -0.0048934 0.005559 0.0027337 -0.0021648 0.00060098
0.0023811 0.00079095 -7.8176e-06 -0.0014509
-0.02298 -0.0049151 0.088112 0.35915 -0.013703 0.012916 0.0013804 0.0013105
0.0011042 -0.0010118 0.0010438 1.3222e-05
0.0055362 0.0027028 -0.013655 0.012989 0.35655 0.056176 1.8888e-05 -0.0019375
-3.9826e-05 -0.00040214 0.00040076 0.00014516
-0.0021682 0.00060782 0.0013861 0.0012946 3.0064e-06 -0.0019479 0.179 0.20123
-0.016515 -0.0084602 -0.00030165 0.00065316
0.0024136 0.00076502 0.0011116 -0.00099575 -2.9989e-05 -0.00041662 -0.016541 -0.0084235
0.11076 0.21027 -0.011652 -0.0074812
-1.104e-06 -0.0014198 0.0011292 -3.3769e-05 0.0003747 0.00015521 -0.00030464 0.00066616
-0.011676 -0.0074959 0.14629 0.30202
1460000000 0.28174 0.14623 -0.018995 0.0065657 0.005694 -0.002254 -0.0015647 0.0017089
0.0020872 -0.00071316 -0.00045969 -0.00081148
-0.018986 0.0065438 0.12192 0.33618 -0.0050905 0.01515 0.0018042 6.8415e-05
0.00062231 -0.0013287 0.001001 -0.00060097
0.0056884 -0.0023072 -0.0050362 0.015163 0.3616 0.0024539 -0.001414 -0.0013284
0.00022375 -0.00017117 0.0006127 -0.00026647
-0.0015763 0.0016713 0.001787 7.9367e-05 -0.001445 -0.0012726 0.20307 0.17058
-0.016815 -0.0010751 -5.0124e-05 0.0022655
0.0020312 -0.00072037 0.00065206 -0.0013508 0.00019674 -0.00013815 -0.016855 -0.0010218
0.13943 0.19394 -0.012579 -0.0012453
-0.00050249 -0.00079277 0.0010015 -0.00064486 0.00058831 -0.00033094 -4.5272e-05 0.0022296
-0.01256 -0.0012619 0.1782 0.2789
1520000000 0.29257 0.10293 -0.012634 0.011186 0.0030734 -0.0044363 8.296e-05 0.0026597
0.0018211 -0.0018344 -0.001062 1.884e-05
-0.012661 0.011161 0.15452 0.32035 0.0021737 0.01257 0.001655 -0.00096594
-9.9539e-05 -0.0010174 0.00026512 -0.0009233
0.0030552 -0.0044441 0.0022407 0.012594 0.35456 -0.053848 -0.0013846 -0.00019725
0.00047714 -0.00087949 -3.9645e-05 -0.00017639
9.1191e-05 0.0026254 0.0016516 -0.00096608 -0.0014149 -0.00017875 0.2235 0.1319
-0.01503 0.0048636 0.0021545 0.0018088
0.0017828 -0.0017877 -0.00010663 -0.00099688 0.00051428 -0.00088875 -0.015033 0.0048724
0.16662 0.17779 -0.011769 0.0033475
-0.0010709 -3.5988e-05 0.00025032 -0.00096057 -1.2634e-05 -0.00020663 0.002168 0.0017929
-0.011773 0.0033039 0.20945 0.25514
1580000000 0.30024 0.056364 -0.0060027 0.013132 -0.0010938 -0.0049201 0.0015828 0.0019012
-0.00029025 -0.0021097 -0.00019095 0.00035066
-0.0059911 0.013142 0.18074 0.29505 0.0054352 0.0076248 0.00033011 -0.001737
-0.00059479 -0.00089451 -0.00025109 -0.00079351
-0.0011302 -0.0048737 0.0054626 0.0075971 0.33396 -0.11112 -0.0016591 0.00098393
-0.00040844 -0.0011384 0.00011643 -0.00058828
0.0016259 0.0018917 0.00032712 -0.0017779 -0.0016615 0.0010185 0.23458 0.092844
-0.010751 0.0092617 0.0025632 0.00012157
-0.00024632 -0.0021429 -0.00055708 -0.00091384 -0.00038514 -0.0011316 -0.010745 0.0093019
0.18961 0.15772 -0.0087487 0.0084287
-0.00023015 0.00027819 -0.00016915 -0.00077317 0.00012958 -0.00065848 0.0026181 0.00014524
-0.0087316 0.0084234 0.23856 0.2268
1640000000 0.30049 0.014604 8.0806e-05 0.011132 -0.0029403 -0.0026475 0.002763 0.00083474
-0.0009876 -0.0014416 -0.00020109 0.00052824
9.1356e-05 0.011155 0.20939 0.26952 0.0058325 0.0030888 -0.00095615 -0.0016481
-0.00097094 -0.00026082 -0.00055971 -0.00054255
-0.0029164 -0.0025787 0.0058246 0.0030746 0.30524 -0.16026 -0.00050351 0.0016521
-0.001249 -0.00076634 -0.00019046 -0.0001948
0.0027405 0.00083715 -0.00096201 -0.0016426 -0.0005281 0.0016089 0.2445 0.045296
-0.0059289 0.010117 0.0024745 -0.0013212
-0.0010403 -0.0014217 -0.00097707 -0.00025305 -0.0012411 -0.00073435 -0.0059397 0.010134
0.21103 0.13153 -0.0037215 0.0099945
-0.00024557 0.00063496 -0.0006269 -0.00057657 -0.00021979 -0.00019616 0.0024883 -0.0013216
-0.0037063 0.01 0.26234 0.19386
1700000000 0.2913 -0.030585 0.0028076 0.0078877 -0.0034875 0.00018653 0.0029376 -0.0014614
-0.0020071 -0.00047495 0.0006701 0.00035886
0.0028133 0.0078969 0.2265 0.23807 0.0037659 0.00029112 -0.0015465 -0.00034966
-0.00067064 0.00013454 -0.00088513 -0.00035088
-0.0035095 0.00026504 0.0037916 0.00024744 0.26139 -0.20021 0.00073495 0.0014641
-0.0018467 -4.6619e-05 -0.00064246 -0.00080167
0.0028877 -0.0014669 -0.0015321 -0.00036309 0.00071201 0.0014868 0.23974 -0.0025082
-0.0028804 0.0098836 0.0013239 -0.0024724
-0.002017 -0.00044355 -0.00065999 0.00014422 -0.0018476 -4.8374e-05 -0.0028532 0.0098912
0.22635 0.10951 0.00096542 0.0098742
0.00064675 0.00034375 -0.00090518 -0.00033988 -0.00066545 -0.00081459 0.0013004 -0.002474
0.00096205 0.0098903 0.27624 0.15841
1760000000 0.27778 -0.078392 0.0041707 0.004557 -0.0024284 0.0009509 0.00092289 -0.003517
-0.0013351 0.00084895 0.00032644 -0.00041139
0.0041812 0.0045812 0.25188 0.19811 0.0015153 -0.0014791 -0.0011288 0.00043215
-0.00092838 0.00084015 -0.00060912 0.00050724
-0.0023812 0.00097025 0.0015253 -0.0014828 0.21255 -0.23359 0.0013596 0.00086149
-0.0010333 0.0017308 -0.001437 -0.00036576
0.00094588 -0.0034786 -0.0011517 0.00039542 0.0013695 0.00079735 0.23028 -0.051254
0.00015632 0.0086511 -0.00051367 -0.0026409
-0.0012888 0.00085906 -0.00093837 0.00079979 -0.0010721 0.0016916 0.00015881 0.0086712
0.23916 0.073211 0.004617 0.0068883
0.0003538 -0.00043701 -0.00063831 0.00050886 -0.0014313 -0.00030494 -0.00051787 -0.0026565
0.0046397 0.0068595 0.28707 0.11997
1820000000 0.25177 -0.1148 0.0036557 0.0014577 -6.3704e-05 0.0025076 -0.0012673 -0.002863
-0.00081713 0.0010831 -1.7649e-05 -2.7518e-05
0.003673 0.0014744 0.26115 0.16813 -0.00034625 -0.00023017 -0.0010361 0.00103
-4.4848e-05 0.001221 -0.00048319 0.00059499
-6.9353e-05 0.0025005 -0.00036414 -0.00024178 0.16214 -0.24908 0.001286 1.9182e-05
-5.4617e-07 0.0022385 -0.0012585 0.00060162
-0.0013146 -0.0029344 -0.0010717 0.0010317 0.0012867 3.6793e-05 0.20096 -0.096298
0.0014288 0.0067173 -0.0017598 -0.0014843
-0.00082401 0.0010333 -3.8658e-05 0.0012093 -5.0411e-05 0.0022617 0.0014688 0.0067313
0.25378 0.042972 0.0054136 0.0032333
-7.8199e-05 8.4553e-05 -0.00046089 0.00058914 -0.0012277 0.00056051 -0.0017398 -0.0014971
0.0054256 0.0032415 0.28726 0.082553
1880000000 0.2156 -0.1538 0.0010707 -0.00022906 -0.00046012 0.0020892 -0.0030068 -0.0017574
-4.5861e-05 0.0015598 0.00032437 -0.00045355
0.001081 -0.00017455 0.26525 0.12168 -0.0025106 0.0014557 4.9894e-05 0.0015966
0.00056851 0.0011038 0.00026036 0.00091267
-0.00029756 0.0020503 -0.0024924 0.0014905 0.10909 -0.2589 0.001409 -0.0010284
0.0016673 0.0015943 -0.00069562 0.0015174
-0.0029914 -0.001637 4.4036e-05 0.0015636 0.0014491 -0.00095899 0.16215 -0.13551
0.0019726 0.0045848 -0.0023097 0.00038795
-2.1271e-05 0.0016974 0.00062786 0.0011004 0.0016484 0.0015969 0.0019724 0.0046263
0.25422 0.0097181 0.0050609 0.0008634
0.00031263 -0.00058089 0.0002664 0.00088471 -0.00069616 0.0014466 -0.0022882 0.00037375
0.0050817 0.00085576 0.28496 0.048233
1940000000 0.17633 -0.17907 -0.001114 -0.0011275 0.0015495 0.0020909 -0.0034754 0.00071906
0.0014982 0.00089643 -0.00053133 -0.00056527
-0.0011227 -0.00118 0.2652 0.089886 -0.0013568 0.0039157 0.00099253 0.0010078
0.0016872 0.00047905 0.00090588 0.00037016
0.0015243 0.0021332 -0.0013826 0.0039028 0.062425 -0.25219 0.00014273 -0.0018306
0.0023173 0.00014154 0.00059763 0.0016976
-0.0034552 0.00066057 0.00098631 0.00096233 0.00011379 -0.0018044 0.11128 -0.16625
0.00099534 0.003093 -0.0015834 0.0014969
0.0014637 0.00083529 0.0016869 0.00043859 0.0022853 0.00013421 0.0010514 0.0030684
0.2537 -0.029823 0.0036026 -0.002128
-0.00057509 -0.00051763 0.00087003 0.00035313 0.00059441 0.0016265 -0.0015515 0.0015185
0.0035781 -0.0021087 0.27251 0.011361
2000000000 0.12959 -0.19302 -0.0046118 0.0012517 0.002547 0.0016616 -0.0021575 0.0035289
0.00097345 -5.9468e-05 -0.0005765 0.00028556
-0.0045772 0.0013554 0.25073 0.054296 -0.0012548 0.0057666 0.0014094 0.00021834
0.0013383 -0.0012205 0.00050407 -0.0001517
0.0025905 0.0016143 -0.0011816 0.005755 0.018116 -0.23733 -0.0012184 -0.00096151
0.0017102 -0.0012381 0.0016805 0.00085413
-0.0021263 0.0036657 0.0013953 0.00019483 -0.0012384 -0.00094713 0.058672 -0.17701
-0.00072793 0.0028455 -6.6099e-05 0.0021319
0.00097695 -7.297e-06 0.0013514 -0.0012508 0.0017487 -0.0013417 -0.00066124 0.0028365
