!Keysight Technologies,M9804A,MY58100912,A.14.10.03
!Date: Thursday, April 27, 2023 10:28:33
!Correction: S11(C  6-Port  ) 
!S12(C  6-Port  ) 
!S13(C  6-Port  ) 
!S14(C  6-Port  ) 
!S15(C  6-Port  ) 
!S16(C  6-Port  ) 
!S21(C  6-Port  ) 
!S22(C  6-Port  ) 
!S23(C  6-Port  ) 
!S24(C  6-Port  ) 
!S25(C  6-Port  ) 
!S26(C  6-Port  ) 
!S31(C  6-Port  ) 
!S32(C  6-Port  ) 
!S33(C  6-Port  ) 
!S34(C  6-Port  ) 
!S35(C  6-Port  ) 
!S36(C  6-Port  ) 
!S41(C  6-Port  ) 
!S42(C  6-Port  ) 
!S43(C  6-Port  ) 
!S44(C  6-Port  ) 
!S45(C  6-Port  ) 
!S46(C  6-Port  ) 
!S51(C  6-Port  ) 
!S52(C  6-Port  ) 
!S53(C  6-Port  ) 
!S54(C  6-Port  ) 
!S55(C  6-Port  ) 
!S56(C  6-Port  ) 
!S61(C  6-Port  ) 
!S62(C  6-Port  ) 
!S63(C  6-Port  ) 
!S64(C  6-Port  ) 
!S65(C  6-Port  ) 
!S66(C  6-Port  ) 
!S6P File: Measurement: :
# Hz S  RI   R 50
500000000 -0.33974 -0.017671 -0.011195 -0.0031383 -0.007429 0.012922 -0.003215 0.012335
0.011157 0.003805 -0.0028245 0.0087104
-0.011141 -0.0031329 -0.41982 -0.035761 0.0062062 -0.01147 0.0019693 0.012662
0.006308 0.0024259 0.0020445 0.013791
-0.0074098 0.012909 0.0062225 -0.011507 -0.26295 0.22323 0.0073296 0.0038276
-0.001182 0.0086859 0.0020868 0.012315
-0.0032073 0.012333 0.0020029 0.012667 0.0073332 0.0038271 -0.33061 0.063201
-0.019586 -0.0067597 0.01493 0.023599
0.011167 0.0037938 0.0062981 0.0024095 -0.0011701 0.0086831 -0.019598 -0.0067527
-0.23663 -0.16361 -0.025293 0.0037014
-0.0028086 0.0087041 0.0020904 0.013806 0.002097 0.012321 0.014938 0.023597
-0.025295 0.0036813 -0.28554 -0.079244
560000000 -0.31215 0.13773 -0.027293 -0.060344 0.00089675 0.011511 0.0054439 0.0096556
0.0086382 0.0042133 0.010948 0.0066138
-0.027264 -0.060282 -0.37543 0.11824 -0.042371 -0.033604 0.013843 0.0036715
-0.012382 -0.0033871 0.0028258 -0.00080275
0.00094154 0.011483 -0.042426 -0.033613 -0.1811 0.26756 -0.0003499 -0.0045369
0.018279 0.0034151 0.0066821 -0.0063678
0.0054266 0.0096453 0.013846 0.0036595 -0.00034576 -0.0045531 -0.30416 0.14909
0.0005086 -0.024257 0.0028578 -0.018132
0.008648 0.0042006 -0.012409 -0.0034035 0.018286 0.0034112 0.00049792 -0.024237
-0.28754 0.0098449 0.0028409 -0.046918
0.010968 0.0065852 0.0028053 -0.00082086 0.006689 -0.0063641 0.0028695 -0.018128
0.0028694 -0.046929 -0.33102 0.059882
620000000 -0.26983 0.124 -0.023506 0.0073776 0.0041014 0.0078765 0.0079206 -0.0055606
0.010559 -0.0010779 0.00051744 -0.002188
-0.023503 0.0073755 -0.40141 0.074412 -0.019463 0.00060464 -0.00092061 -0.002294
0.010098 -0.0064126 0.0014282 -0.0031143
0.0041231 0.007881 -0.019494 0.00064931 -0.14896 0.27782 -0.0012939 -0.004859
-0.0030061 -0.0029462 0.0084521 -0.0039974
0.0079103 -0.0055699 -0.00091985 -0.0023017 -0.0012932 -0.0048673 -0.26235 0.16074
-0.039405 -0.01728 0.012207 0.023321
0.010547 -0.0010808 0.010103 -0.0064229 -0.0030115 -0.0029531 -0.039429 -0.017259
-0.21097 -0.027728 -0.038986 0.014767
0.00050583 -0.002187 0.001433 -0.0031093 0.0084677 -0.0040047 0.012215 0.023314
-0.038992 0.014753 -0.25624 0.032511
680000000 -0.22736 0.20533 -0.027867 -0.011551 0.0055685 0.0044488 0.0012207 -0.0069909
-0.0028615 -0.011125 0.0038395 -0.0068293
-0.027821 -0.011556 -0.38415 0.1684 -0.032056 0.00063792 -0.0014555 -0.00055203
-0.0024433 -0.0087904 -0.0014446 -0.0021339
0.0055681 0.0044345 -0.032055 0.00068136 -0.097814 0.29503 -0.00091201 -0.00048746
-0.0018907 6.4772e-05 -0.0036618 -0.0083921
0.0012191 -0.0069829 -0.0014599 -0.00055694 -0.00090807 -0.00048844 -0.21665 0.20748
-0.025786 -0.0051669 -0.0087806 -0.0079896
-0.0028768 -0.011114 -0.0024664 -0.0088037 -0.0018838 6.3649e-05 -0.025804 -0.0051507
-0.25018 0.069093 -0.0071243 -0.0063683
0.0038199 -0.00683 -0.0014427 -0.0021247 -0.0036673 -0.0083962 -0.0088048 -0.0079966
-0.0071245 -0.0063757 -0.25315 0.12734
740000000 -0.18381 0.20032 -0.036424 0.026331 0.012099 -0.0061157 -0.0008077 -0.0040423
-0.0050932 -0.0028368 -0.0056663 0.0033946
-0.036404 0.026289 -0.33253 0.18832 -0.032569 0.035303 -0.00093517 -0.0061037
-0.011385 0.0083496 -0.0017456 -0.0049514
0.012085 -0.0061169 -0.032509 0.035366 -0.064446 0.29422 -0.0017235 0.0030379
-0.0036028 -0.0044706 -0.0017731 0.0015199
-0.00081144 -0.0040422 -0.00093597 -0.0061258 -0.0017275 0.0030378 -0.19868 0.21659
-0.04177 -0.0032384 0.021914 0.012101
-0.005072 -0.0028366 -0.011378 0.0083841 -0.0036035 -0.0044806 -0.041806 -0.0032011
-0.15733 0.090511 -0.037982 0.0033782
-0.0056815 0.0034207 -0.0017476 -0.0049538 -0.0017792 0.0015247 0.021934 0.012096
-0.037962 0.0033604 -0.24186 0.1377
800000000 -0.14959 0.23728 -0.021093 0.017796 0.0045986 -0.010448 -0.004228 -0.001589
-0.0037951 0.0029808 0.0037359 0.00084928
-0.021083 0.017787 -0.33227 0.25616 -0.0063878 0.033557 -0.0022272 0.0023615
-0.00060195 0.0035416 0.0012093 0.0054264
0.0045721 -0.010447 -0.0063349 0.03358 -0.021309 0.31589 0.00091433 0.0016423
0.00041244 0.0035989 -0.001733 0.0012877
-0.0042332 -0.0015818 -0.0022266 0.002364 0.00090161 0.0016437 -0.16826 0.24276
-0.026516 0.016303 0.01254 -0.010013
-0.0037985 0.0029928 -0.00058209 0.0035435 0.00041345 0.0036128 -0.026529 0.016372
-0.19402 0.11656 -0.015359 0.018823
0.0037415 0.00084099 0.001216 0.0054302 -0.0017381 0.0013015 0.012539 -0.010028
-0.015369 0.018795 -0.22795 0.18239
860000000 -0.1146 0.2566 -0.015426 0.030811 -0.0038268 -0.0095834 -0.0020444 0.0012379
0.0046534 0.0045271 -0.0025436 -0.0023996
-0.015436 0.030789 -0.28482 0.29682 0.0094525 0.032918 9.5359e-05 0.0021639
0.0045968 0.00039168 0.0033056 0.00046025
-0.0038424 -0.0095749 0.0095244 0.032898 0.026808 0.32265 -0.00037258 -9.4878e-05
0.0025702 -0.0014892 0.0019124 0.003977
-0.0020531 0.0012341 0.00011471 0.0021783 -0.00037368 -9.297e-05 -0.13185 0.25325
-0.014892 0.020654 -0.005477 -0.0091027
0.0046589 0.0045149 0.0046235 0.00037939 0.0025695 -0.0014835 -0.014895 0.020691
-0.14145 0.1605 -0.021037 0.016478
-0.0025473 -0.0023958 0.0032849 0.00045333 0.0019181 0.0039747 -0.0054819 -0.0091087
-0.021051 0.016457 -0.1787 0.22192
920000000 -0.088153 0.27803 0.0065778 0.036321 -0.0093506 -0.003946 -0.0014305 0.0017023
0.0015819 0.0013842 0.0026208 -0.0018451
0.0065562 0.036305 -0.25427 0.31709 0.028336 0.019884 0.0017699 0.00083773
0.0068678 -0.00089696 0.0033733 -0.0031182
-0.0093622 -0.0039301 0.02839 0.019838 0.074277 0.32275 0.0018771 -0.00016389
0.001437 -0.00067024 0.00080933 -0.0013
-0.0014453 0.0016937 0.0017763 0.00084796 0.0018709 -0.00015509 -0.10551 0.26908
-0.0070639 0.030512 0.0021533 -0.0064305
0.0015747 0.0013784 0.0068908 -0.00093008 0.0014441 -0.00067293 -0.0070154 0.030551
-0.12837 0.16763 -0.00027852 0.025327
0.0026192 -0.0018561 0.0033626 -0.0031218 0.00079499 -0.0013022 0.0021421 -0.0064329
-0.00029654 0.025312 -0.17757 0.23731
980000000 -0.041198 0.29565 0.01868 0.028077 -0.0084106 0.00477 0.0019632 0.0030258
0.0036975 -0.0019573 -0.003184 -0.0019458
0.018644 0.028087 -0.20247 0.34919 0.032453 0.002893 0.0020379 -0.00033145
0.0013858 -0.0062305 -0.00066693 -0.0023384
-0.0084132 0.004779 0.03247 0.0028496 0.12106 0.3146 0.00047216 -0.0012797
-1.7188e-05 -0.0022411 0.0012093 -0.00022072
0.0019575 0.0030186 0.0020414 -0.00030835 0.00047681 -0.0012806 -0.066492 0.27844
0.010765 0.028153 -0.0084083 -0.0059062
0.003682 -0.0019779 0.0013645 -0.0062282 -2.3303e-05 -0.00224 0.010845 0.028164
-0.096058 0.19124 0.0065785 0.018399
-0.0031819 -0.0019287 -0.00069238 -0.0023381 0.0012124 -0.00021683 -0.0084146 -0.0058873
0.0065535 0.018395 -0.13304 0.27429
1040000000 0.0019798 0.30276 0.032936 0.015368 -0.0011704 0.0065869 0.002404 0.00056416
-4.2884e-05 -0.003087 -0.00080096 -0.0013306
0.032923 0.015401 -0.16656 0.36238 0.027508 -0.015935 0.0013682 -0.001746
-0.0025269 -0.0024618 -0.0016036 -0.0026408
-0.0011615 0.0065727 0.027497 -0.015996 0.16778 0.29988 -0.00066576 -0.0014365
-0.0015929 -0.00080077 -0.00047991 -0.00094201
0.0023972 0.00055107 0.0013823 -0.0017315 -0.00067143 -0.0014388 -0.037435 0.28738
0.021173 0.015284 -0.0026781 0.0012844
-6.5935e-05 -0.0030983 -0.0025192 -0.002446 -0.0015948 -0.00079 0.021232 0.015261
-0.063854 0.19733 0.013936 0.015535
-0.00080234 -0.0013404 -0.0016211 -0.002611 -0.0004803 -0.00094098 -0.0026718 0.0012897
0.013918 0.015528 -0.10741 0.2939
1100000000 0.04741 0.30851 0.034215 -0.0062705 0.0026348 0.003572 0.0021959 -0.0010933
-0.0021046 -0.0027987 -0.0036404 0.00050461
0.034189 -0.0062305 -0.12302 0.37828 0.013171 -0.027799 -9.5128e-05 -0.0018212
-0.0034055 -0.00051304 -0.0034027 -0.00021706
0.0026377 0.0035567 0.013114 -0.027831 0.21486 0.27725 -0.0018031 0.00025331
-0.0017929 0.00072398 -0.00091025 -0.000173
0.0021885 -0.0011022 -9.0639e-05 -0.001819 -0.0018027 0.00024869 0.0041508 0.28983
0.024695 0.0018784 -0.0024912 4.639e-05
-0.0021186 -0.0027999 -0.0034092 -0.00049211 -0.001786 0.00073415 0.02472 0.0018459
-0.044283 0.20859 0.018522 0.0057704
-0.003638 0.00050988 -0.0034131 -0.00020473 -0.00091179 -0.00017864 -0.0024859 5.3303e-05
0.018516 0.0057725 -0.060409 0.3167
1160000000 0.098096 0.30226 0.021642 -0.02179 0.0021948 -0.00033102 -3.6029e-05 -0.0020714
-0.0038746 -0.00044291 -0.00052606 0.0038147
0.021648 -0.021743 -0.078603 0.38205 -0.0053539 -0.028013 -0.0016809 -0.0015423
-0.0025696 0.002581 -0.0012671 0.0018121
0.0021997 -0.00034603 -0.0054245 -0.027992 0.2571 0.24431 -0.00067627 0.001766
-0.00031232 0.0019019 -0.0007612 0.00026779
-4.1731e-05 -0.0020812 -0.001677 -0.0015326 -0.00067734 0.0017599 0.043491 0.28464
0.019697 -0.013007 -0.0031046 0.0044482
-0.0038812 -0.00044059 -0.0025515 0.0025937 -0.00030699 0.0019105 0.019704 -0.01303
-0.011445 0.21561 0.016671 -0.0023228
-0.00051361 0.0038178 -0.0012681 0.0018337 -0.0007574 0.00026591 -0.0030977 0.0044597
0.016673 -0.0023296 -0.013979 0.31707
1220000000 0.1429 0.28927 0.007801 -0.02952 -0.0015971 -0.00022102 0.00013094 -0.00097738
-0.0023746 0.0023154 0.0014287 0.0018176
0.0078179 -0.029484 -0.034185 0.39261 -0.017438 -0.019493 -0.0024353 0.00045393
0.00022544 0.0029117 -0.00044683 0.0018745
-0.0015893 -0.00022767 -0.017497 -0.019447 0.29549 0.20363 0.00086315 0.0017495
0.0007065 0.0011374 0.00041013 0.00049273
0.00013041 -0.00097521 -0.002436 0.00046843 0.00086924 0.0017494 0.08385 0.27372
0.0084998 -0.018754 0.0013671 0.0014963
-0.0023665 0.0023214 0.00023621 0.0029117 0.00069941 0.0011429 0.0084808 -0.018774
0.012865 0.22223 0.011427 -0.013676
0.0014333 0.0018092 -0.00045411 0.001883 0.00041208 0.0004932 0.0013734 0.0014983
0.011431 -0.013676 0.020086 0.32812
1280000000 0.19152 0.26556 -0.0096577 -0.026765 -0.0015116 0.0029144 -0.00094826 -0.002005
-0.0005878 0.0029058 0.0023355 0.00080278
-0.0096421 -0.02674 0.011637 0.38256 -0.023383 -0.0070862 -0.00089682 0.0014186
0.0018034 0.0015945 0.00078478 0.0017239
-0.0015028 0.0029286 -0.023422 -0.0070184 0.32443 0.15827 0.0016569 -4.911e-05
0.0011344 0.00012613 0.00021067 0.00014376
-0.00095137 -0.0019974 -0.00089317 0.0014194 0.0016522 -4.7477e-05 0.11964 0.25449
-0.0014329 -0.019713 -0.00050247 0.0004839
-0.0005652 0.0029148 0.0017988 0.0015941 0.001134 0.00012998 -0.0014733 -0.019721
0.049034 0.22334 0.00097631 -0.015175
0.0023375 0.00078976 0.0007899 0.0017107 0.00021251 0.00014506 -0.00050223 0.00048454
0.00098207 -0.015165 0.065744 0.32542
1340000000 0.228 0.23047 -0.018339 -0.016598 0.0014952 0.0043444 -0.0017492 -0.00089877
0.0014491 0.0024813 0.0014666 -0.0014672
-0.01832 -0.016602 0.051049 0.37305 -0.020603 0.005238 -8.6295e-05 0.0020234
0.001921 0.0005207 0.0013021 0.00061048
0.0015058 0.0043419 -0.020583 0.005295 0.34482 0.11014 0.0012033 -0.0010433
0.0005598 -0.00049667 5.8948e-05 0.00023824
-0.0017496 -0.00088646 -8.3641e-05 0.0020163 0.001208 -0.0010368 0.15092 0.23225
-0.010629 -0.015819 0.00057724 0.0011779
0.0014717 0.0024759 0.0019209 0.00052185 0.00056454 -0.00050103 -0.010659 -0.015806
0.078705 0.217 -0.0056664 -0.012807
0.001455 -0.0014637 0.0013121 0.00060083 5.9638e-05 0.00023872 0.00058075 0.0011712
-0.0056619 -0.012804 0.10449 0.31681
1400000000 0.25992 0.19084 -0.022624 -0.0052567 0.0054386 0.0026554 -0.0021469 0.00064895
0.0023243 0.00075711 0.00011323 -0.0013611
-0.022598 -0.0052666 0.087736 0.35901 -0.013635 0.012626 0.0013502 0.0013014
0.0010871 -0.00092977 0.0010599 7.605e-05
0.0054386 0.0026493 -0.013598 0.012674 0.35718 0.056443 5.1608e-05 -0.0018659
3.3142e-05 -0.00037743 0.00035668 0.00019102
-0.0021489 0.00065725 0.0013546 0.0012959 5.6167e-05 -0.0018661 0.17905 0.20129
-0.015893 -0.0085785 -0.00028011 0.00050201
0.0023231 0.00075739 0.0010838 -0.00093156 3.7359e-05 -0.00037691 -0.015917 -0.0085524
0.11085 0.21009 -0.011203 -0.0073285
0.00010665 -0.0013536 0.0010624 7.4901e-05 0.00035987 0.00018861 -0.00027756 0.00050136
-0.011199 -0.0073437 0.1469 0.30171
1460000000 0.28124 0.14612 -0.018924 0.0060524 0.0055043 -0.0023348 -0.0015323 0.0017561
0.0019825 -0.00067333 -0.00043003 -0.00085626
-0.0189 0.0060331 0.12135 0.33637 -0.0052089 0.014873 0.0017469 0.00010542
0.00065476 -0.0012874 0.0010039 -0.00058818
0.0054927 -0.0023452 -0.0051632 0.014898 0.36175 0.0022211 -0.0015283 -0.0012968
0.00011507 -0.00017748 0.000612 -0.00028495
-0.0015381 0.0017514 0.0017452 0.00010227 -0.0015237 -0.0012952 0.20287 0.17078
-0.016413 -0.0014921 -0.00010688 0.0021184
0.001984 -0.00067276 0.00065157 -0.0012958 0.00011493 -0.0001805 -0.01642 -0.0014544
0.13907 0.19369 -0.012082 -0.0013233
-0.00042187 -0.00084321 0.00099905 -0.00059432 0.00061054 -0.0002885 -0.00010336 0.0021127
-0.012083 -0.0013344 0.17856 0.27865
1520000000 0.29242 0.10334 -0.012829 0.010705 0.0029347 -0.0043297 0.00014977 0.0026481
0.001864 -0.0017198 -0.0010502 -1.7229e-05
-0.01282 0.010678 0.15433 0.32091 0.0019374 0.012462 0.001638 -0.00089251
-8.1852e-05 -0.00097326 0.00025545 -0.00090439
0.0029158 -0.0043388 0.0019805 0.01246 0.35475 -0.053907 -0.0013275 -0.00022376
0.00050164 -0.00082779 -1.6541e-05 -0.00015328
0.00015991 0.0026404 0.0016356 -0.00090255 -0.0013329 -0.00021961 0.22372 0.13232
-0.014892 0.0042781 0.0020128 0.0017761
0.0018592 -0.0017284 -8.285e-05 -0.00097624 0.00050198 -0.00083231 -0.014894 0.0043141
0.16648 0.17792 -0.011417 0.0030454
-0.0010656 -7.4973e-06 0.00024792 -0.00090505 -1.6659e-05 -0.00015213 0.0020185 0.0017696
-0.011417 0.0030397 0.21012 0.25504
1580000000 0.30014 0.056624 -0.0064449 0.012865 -0.0011596 -0.0047175 0.0016175 0.0018805
-0.00023138 -0.0020395 -0.00024725 0.00037784
-0.0064486 0.012851 0.18086 0.29544 0.0052243 0.0076934 0.00040579 -0.0016789
-0.00051974 -0.000883 -0.00021638 -0.00076322
-0.001165 -0.0047182 0.0052471 0.0076862 0.33409 -0.11161 -0.0016029 0.00099237
-0.00029494 -0.0010825 0.00020873 -0.00056017
0.0016277 0.001872 0.00040148 -0.0016826 -0.0016017 0.00098814 0.23501 0.092788
-0.010933 0.0087128 0.0025157 0.0002005
-0.00024154 -0.0020431 -0.0005217 -0.0008836 -0.00029969 -0.0010875 -0.010916 0.0087455
0.18959 0.15776 -0.0085741 0.0079791
-0.00024622 0.00038126 -0.00022113 -0.00076158 0.00020634 -0.00056359 0.0025187 0.00019262
-0.0085757 0.0079751 0.23921 0.22618
1640000000 0.30066 0.015001 -0.00036244 0.011146 -0.002832 -0.0024556 0.0028178 0.000785
-0.00078562 -0.0014362 -0.00020417 0.00051899
-0.00036739 0.011142 0.20971 0.26999 0.0057025 0.0032386 -0.00085692 -0.0016531
-0.00093323 -0.00028967 -0.0005187 -0.00057949
-0.0028321 -0.0024439 0.0057131 0.0032254 0.30468 -0.16028 -0.00048048 0.0015534
-0.0011804 -0.00074952 -0.00019696 -0.00024874
0.0028152 0.00078625 -0.0008683 -0.0016446 -0.00047768 0.0015607 0.24483 0.045275
-0.0064285 0.0097469 0.0024388 -0.0012887
-0.00078624 -0.0014411 -0.00093653 -0.00028426 -0.0011823 -0.00075123 -0.0064114 0.0097677
0.21086 0.13185 -0.0037937 0.009581
-0.00020161 0.0005202 -0.00051776 -0.00057837 -0.00019948 -0.00024706 0.0024322 -0.001294
-0.0038001 0.009574 0.26276 0.19344
1700000000 0.29173 -0.030559 0.0024017 0.0081184 -0.0033958 0.00012879 0.0028907 -0.0014768
-0.0019588 -0.00064058 0.00066681 0.00034319
0.0023842 0.0081212 0.22724 0.23819 0.0037688 0.00044194 -0.0014943 -0.0004354
-0.00067061 0.00010662 -0.00088039 -0.00039586
-0.0033958 0.00013979 0.0037739 0.00042139 0.26161 -0.20025 0.00070435 0.001363
-0.0017731 -0.00011632 -0.00063516 -0.00079287
0.0028789 -0.0014734 -0.0014934 -0.00042615 0.00070442 0.001357 0.2403 -0.0028795
-0.0034367 0.0099478 0.0012659 -0.0023943
-0.0019604 -0.0006376 -0.00066905 0.00010778 -0.0017706 -0.00011514 -0.0034192 0.0099637
0.22666 0.10982 0.00073844 0.0096158
0.00066935 0.00034026 -0.00087961 -0.00039186 -0.00063829 -0.00079297 0.0012607 -0.0023966
0.00073484 0.0096136 0.27704 0.15772
1760000000 0.27799 -0.078616 0.0039338 0.0049885 -0.0023205 0.00089223 0.00087741 -0.0035051
-0.0013506 0.0007308 0.00040343 -0.00049499
0.0039255 0.0049903 0.25236 0.19774 0.0015868 -0.0013809 -0.0011847 0.00031019
-0.00095031 0.00078795 -0.00059469 0.00044195
-0.0023205 0.00089517 0.0015817 -0.0013909 0.2124 -0.23391 0.0012425 0.00073804
-0.001108 0.0015103 -0.0013035 -0.0002143
0.00087458 -0.0035127 -0.0011872 0.00030884 0.0012373 0.00074186 0.23026 -0.051955
-0.00023933 0.0088908 -0.00059274 -0.0025762
-0.0013471 0.00073606 -0.00094608 0.00079131 -0.0011056 0.0015077 -0.00022161 0.0088903
0.2394 0.0733 0.0042902 0.0067313
0.00039932 -0.00050067 -0.00058752 0.00044682 -0.0013173 -0.00021146 -0.0006052 -0.0025718
0.0042863 0.0067191 0.28736 0.1191
1820000000 0.25212 -0.11517 0.0037502 0.0018932 -0.00012247 0.0025057 -0.0013849 -0.0027778
-0.0010504 0.0010384 -8.7579e-05 -0.00015857
0.0037424 0.0018935 0.26158 0.16775 -0.00038728 -0.00018771 -0.0011382 0.0010238
-5.2174e-05 0.0011967 -0.00051498 0.0005358
-0.00012361 0.0024979 -0.00038505 -0.00018829 0.16157 -0.24911 0.0012226 0.00012994
-5.627e-05 0.0021064 -0.001366 0.0005647
-0.0013846 -0.0027721 -0.0011336 0.0010232 0.0012115 0.00013083 0.20091 -0.096727
0.0012899 0.00719 -0.0017867 -0.0014344
-0.0010428 0.0010378 -4.4055e-05 0.0011887 -7.0801e-05 0.0021046 0.0013005 0.0071958
0.25426 0.043198 0.0051159 0.0031216
-8.9647e-05 -0.00015786 -0.00050995 0.0005359 -0.0013707 0.00056671 -0.0017925 -0.0014319
0.0051157 0.0031222 0.28755 0.08171
1880000000 0.21578 -0.15459 0.0013539 6.5773e-05 -0.00043087 0.0021087 -0.0029288 -0.0017675
-0.00017539 0.0017559 6.558e-05 -0.00030565
0.0013629 6.7925e-05 0.2654 0.12084 -0.0024976 0.0015807 -5.4275e-06 0.0016064
0.00050975 0.0010769 0.00013815 0.00095253
-0.0004179 0.0021109 -0.0024965 0.0015903 0.10862 -0.25905 0.0014358 -0.00096815
0.0014719 0.0016487 -0.00075663 0.0014733
-0.0029262 -0.0017596 -3.4681e-06 0.0016024 0.0014359 -0.00097485 0.16171 -0.1362
0.0020074 0.0049406 -0.0023738 0.00043295
-0.00016195 0.0017534 0.00050928 0.0010761 0.0014711 0.0016445 0.0020233 0.0049399
0.25474 0.009339 0.0046664 0.00097527
6.0823e-05 -0.00030699 0.00015097 0.00095824 -0.0007471 0.0014688 -0.0023799 0.00043679
0.0046716 0.00097119 0.285 0.046997
1940000000 0.17566 -0.1794 -0.00076929 -0.0010834 0.0015915 0.0020349 -0.0035189 0.00080752
0.0014682 0.0011187 -0.00047131 -0.00043701
-0.00076868 -0.001079 0.26487 0.089325 -0.0012573 0.0039774 0.0010019 0.0011234
0.0016446 0.00051678 0.00087775 0.00043512
0.0015934 0.0020257 -0.0012385 0.0039868 0.062079 -0.25182 0.00018403 -0.0016757
0.0022487 0.00036061 0.00045719 0.0016651
-0.003513 0.00082009 0.001006 0.0011126 0.00017849 -0.0016634 0.11044 -0.16608
0.0011948 0.0034438 -0.001489 0.0015535
0.0014729 0.0011191 0.0016476 0.00050909 0.0022515 0.00035227 0.0012022 0.0034438
0.254 -0.030046 0.00334 -0.0019012
-0.00047612 -0.00043156 0.00088283 0.00043277 0.00046351 0.0016609 -0.0014801 0.0015593
0.0033359 -0.0018928 0.27204 0.010281
2000000000 0.1291 -0.1934 -0.0043585 0.0012049 0.0025314 0.0014592 -0.0020311 0.0033271
0.0012807 4.6009e-05 -0.00050854 0.00042878
-0.0043454 0.0011984 0.25044 0.053861 -0.00099921 0.0059063 0.0015571 0.00019469
0.0013118 -0.001137 0.00043637 7.6588e-06
0.0025401 0.0014503 -0.00096812 0.0059105 0.018246 -0.23672 -0.00093046 -0.00096113
0.0018868 -0.0010653 0.0017249 0.0010209
-0.00202 0.0033303 0.0015687 0.00019786 -0.00092078 -0.00096849 0.058138 -0.17692
-0.00045932 0.0028352 -6.4655e-06 0.0021775
0.0012828 4.0477e-05 0.0012951 -0.0011444 0.0018796 -0.0010635 -0.00045227 0.0028468
