!Keysight Technologies,M9804A,MY58100912,A.14.10.03
!Date: Thursday, April 27, 2023 10:28:33
!Correction: S11(C  6-Port  ) 
!S12(C  6-Port  ) 
!S13(C  6-Port  ) 
!S14(C  6-Port  ) 
!S15(C  6-Port  ) 
!S16(C  6-Port  ) 
!S21(C  6-Port  ) 
!S22(C  6-Port  ) 
!S23(C  6-Port  ) 
!S24(C  6-Port  ) 
!S25(C  6-Port  ) 
!S26(C  6-Port  ) 
!S31(C  6-Port  ) 
!S32(C  6-Port  ) 
!S33(C  6-Port  ) 
!S34(C  6-Port  ) 
!S35(C  6-Port  ) 
!S36(C  6-Port  ) 
!S41(C  6-Port  ) 
!S42(C  6-Port  ) 
!S43(C  6-Port  ) 
!S44(C  6-Port  ) 
!S45(C  6-Port  ) 
!S46(C  6-Port  ) 
!S51(C  6-Port  ) 
!S52(C  6-Port  ) 
!S53(C  6-Port  ) 
!S54(C  6-Port  ) 
!S55(C  6-Port  ) 
!S56(C  6-Port  ) 
!S61(C  6-Port  ) 
!S62(C  6-Port  ) 
!S63(C  6-Port  ) 
!S64(C  6-Port  ) 
!S65(C  6-Port  ) 
!S66(C  6-Port  ) 
!S6P File: Measurement: :
# Hz S  RI   R 50
500000000 -0.33623 -0.038961 -0.010203 -0.0020194 -0.0079123 0.013148 -0.004319 0.012178
0.012378 0.0038999 -0.0048655 0.0090938
-0.010207 -0.0020164 -0.41875 -0.052536 0.0071898 -0.010821 0.0015969 0.012416
0.007748 0.0024651 0.0012582 0.013493
-0.0079852 0.013175 0.0071899 -0.010892 -0.26613 0.20973 0.0078172 0.0037979
-0.0017491 0.0083125 0.0013455 0.011872
-0.0045356 0.012028 0.0015412 0.012191 0.0075301 0.0034673 -0.33013 0.044305
-0.018764 -0.0057943 0.0158 0.026115
0.012256 0.0046536 0.0074994 0.0024871 -0.0018175 0.0080098 -0.018898 -0.0058842
-0.22341 -0.19467 -0.026084 0.0051447
-0.005229 0.008457 0.0013703 0.013522 0.0016408 0.011798 0.016676 0.025794
-0.026066 0.0049843 -0.26837 -0.13031
560000000 -0.31702 0.12405 -0.024624 -0.063913 0.00062947 0.012426 0.0063234 0.010886
0.0097703 0.0031293 0.011601 0.0084635
-0.02453 -0.063845 -0.37673 0.10771 -0.041122 -0.037015 0.013588 0.003929
-0.012777 -0.0039969 0.0019919 0.00038697
0.00064726 0.012554 -0.041289 -0.036987 -0.18364 0.25788 -0.00044751 -0.0047159
0.018916 0.0047544 0.007692 -0.0069019
0.0064581 0.01052 0.013793 0.0039408 -0.0003602 -0.0041443 -0.30603 0.13389
0.0047603 -0.023451 0.0039008 -0.020978
0.01042 0.0042851 -0.012938 -0.0043193 0.018962 0.005353 0.0043732 -0.023718
-0.29158 -0.017383 0.0091206 -0.050654
0.0107 0.0082303 0.0035059 -0.0001303 0.0072785 -0.0063146 0.0047149 -0.020977
0.0091559 -0.051122 -0.33009 0.020384
620000000 -0.27519 0.10761 -0.023412 0.0080675 0.0038454 0.0086545 0.0074992 -0.0044529
0.010838 -0.00088656 0.001769 -0.0022138
-0.023381 0.0080526 -0.40271 0.059701 -0.01865 0.00018013 -0.0013082 -0.0018935
0.011511 -0.0067943 0.0019175 -0.0028812
0.0039042 0.0086682 -0.018686 0.00021995 -0.15316 0.26706 -0.0012122 -0.0050365
-0.0035561 -0.0039067 0.0085678 -0.0022447
0.0078359 -0.0044523 -0.001377 -0.0020197 -0.0017763 -0.0048797 -0.26559 0.14435
-0.037031 -0.018618 0.010473 0.025217
0.011368 -0.0015254 0.011894 -0.0068428 -0.0024996 -0.0029957 -0.036855 -0.020029
-0.20843 -0.057877 -0.03932 0.01477
0.0011239 -0.0015682 0.0020876 -0.0029489 0.0086649 -0.0026655 0.012143 0.026841
-0.039788 0.013599 -0.25102 -0.018811
680000000 -0.23451 0.1936 -0.027246 -0.013831 0.0051862 0.0049709 0.0013956 -0.0074364
-0.0022868 -0.011295 0.0041101 -0.0070566
-0.02721 -0.013836 -0.3878 0.1577 -0.032546 -0.0012429 -0.0017082 -0.00038044
-0.0016746 -0.0089604 -0.0015206 -0.0023793
0.0051953 0.0049209 -0.032566 -0.0011661 -0.10181 0.28669 -0.00072787 -0.0001086
-0.0016148 0.00080851 -0.0025721 -0.0098337
0.0011568 -0.007466 -0.001663 -0.00044569 -0.00077528 -0.00017059 -0.22033 0.19454
-0.023947 -0.0069834 -0.0087361 -0.010759
-0.0026691 -0.011385 -0.0018539 -0.0087554 -0.0013303 0.00080864 -0.023629 -0.0076289
-0.26011 0.041305 -0.0060162 -0.0073995
0.0045821 -0.0069158 -0.0017357 -0.0022366 -0.0028971 -0.0095284 -0.01005 -0.011486
-0.0059889 -0.0072247 -0.26185 0.089857
740000000 -0.19003 0.18736 -0.037824 0.026681 0.012969 -0.0050262 -0.00029877 -0.0042233
-0.004633 -0.0030988 -0.0058432 0.0035107
-0.037787 0.02664 -0.33545 0.17738 -0.035452 0.034776 -0.00090367 -0.0062536
-0.011382 0.008267 -0.0025499 -0.006348
0.012935 -0.0050217 -0.035428 0.034909 -0.068315 0.28446 -0.0018668 0.0030463
-0.00339 -0.0040708 -0.0012677 0.0005666
-0.0001417 -0.0041635 -0.0010907 -0.0062542 -0.0017418 0.0031321 -0.20301 0.2015
-0.0435 -0.0069992 0.023139 0.014786
-0.0044412 -0.0028132 -0.011601 0.0076376 -0.0027669 -0.0045844 -0.043427 -0.006551
-0.16092 0.068433 -0.042688 0.00050882
-0.0061075 0.0032068 -0.0020234 -0.0060697 -0.0016684 0.00050141 0.023571 0.014381
-0.042659 9.6059e-05 -0.24913 0.092297
800000000 -0.15705 0.22789 -0.02223 0.016651 0.0053479 -0.010621 -0.0045309 -0.0017233
-0.0043945 0.0023042 0.0048235 0.00076721
-0.022218 0.016659 -0.33755 0.24649 -0.0077464 0.033904 -0.0024877 0.0023595
-0.0006907 0.0031288 0.0010618 0.005413
0.0053245 -0.010601 -0.0076662 0.033966 -0.027445 0.30781 0.0010296 0.0015573
0.00048737 0.003603 -0.0017852 0.00090055
-0.0047013 -0.0018116 -0.0025302 0.0022239 0.00096565 0.001623 -0.17475 0.22993
-0.028206 0.013468 0.013753 -0.0099666
-0.0044127 0.0026033 -0.00068475 0.0032136 0.00036578 0.0037762 -0.028506 0.013583
-0.20646 0.091929 -0.017769 0.018989
0.0045461 0.00047284 0.00098701 0.0051742 -0.0018357 0.00065035 0.013625 -0.0099606
-0.017404 0.019223 -0.24349 0.14382
860000000 -0.1225 0.24828 -0.017171 0.030632 -0.0034098 -0.0099668 -0.0024549 0.0011132
0.0044372 0.0054152 -0.0033 -0.0028626
-0.017174 0.030603 -0.29011 0.28831 0.0078633 0.033982 0.00013336 0.0020224
0.0042935 0.00033574 0.0034971 0.00071491
-0.0034182 -0.0099925 0.007976 0.03398 0.02026 0.31555 -0.00044491 -0.00014285
0.0025892 -0.0014741 0.0017073 0.0043232
-0.0025145 0.00098008 0.00011024 0.0022533 -0.00052656 -0.00018999 -0.13896 0.24069
-0.017433 0.018172 -0.0063 -0.0088905
0.0043957 0.0050763 0.0046364 4.2176e-05 0.0028209 -0.0016421 -0.017553 0.018362
-0.15607 0.14197 -0.025762 0.01616
-0.0033257 -0.0027368 0.0030223 0.00042238 0.0015139 0.0042674 -0.0056263 -0.009105
-0.025497 0.016246 -0.19092 0.18851
920000000 -0.097237 0.27072 0.0055516 0.03769 -0.0092848 -0.0046081 -0.0019728 0.0019537
0.0013232 0.0019556 0.0027677 -0.0019572
0.0055088 0.037675 -0.26146 0.30943 0.028106 0.021742 0.0014421 0.0010513
0.0073412 -0.00044855 0.0039951 -0.0028621
-0.0092944 -0.0045913 0.0282 0.021678 0.066398 0.31613 0.0018378 -0.00011484
0.0013203 -0.00054685 0.00073909 -0.0012634
-0.0018104 0.0019424 0.0014359 0.0011002 0.0018696 -0.00020458 -0.11509 0.2578
-0.010646 0.0301 0.0035692 -0.0067663
0.0013655 0.0020512 0.0073579 -0.0004219 0.0013974 -0.00042669 -0.010712 0.030119
-0.14503 0.14723 -0.0029759 0.027085
0.0026918 -0.0020361 0.0041144 -0.0029128 0.00087078 -0.0012012 0.0034012 -0.0065994
-0.002886 0.027091 -0.2 0.20368
980000000 -0.050342 0.28992 0.017674 0.029844 -0.0089526 0.0045429 0.0018996 0.0034114
0.0040966 -0.0016094 -0.0032644 -0.0024178
0.017618 0.029844 -0.20863 0.34317 0.032978 0.0047396 0.0019929 -0.00014158
0.0015403 -0.006073 -0.00043275 -0.002008
-0.0089524 0.0045748 0.033014 0.0046217 0.11272 0.30962 0.00048901 -0.0012476
0.00026079 -0.0020872 0.0013709 -0.00021543
0.0019174 0.0034204 0.0020574 -0.00015059 0.00050186 -0.001218 -0.076917 0.2688
0.0075864 0.02987 -0.0088752 -0.0072329
0.0040423 -0.0015268 0.0013821 -0.0061934 0.00019673 -0.002176 0.0077685 0.029987
-0.11527 0.17758 0.0052678 0.019861
-0.0031848 -0.0022861 -0.00054431 -0.0021044 0.0013706 -0.00020179 -0.0089002 -0.0073201
0.0054165 0.019802 -0.15703 0.24792
1040000000 -0.0084988 0.29843 0.033147 0.01777 -0.001318 0.0068973 0.0025525 0.00072843
-1.3734e-05 -0.0036159 -0.00041039 -0.0014917
0.033097 0.017787 -0.17309 0.35625 0.02922 -0.014875 0.001444 -0.0016509
-0.0026166 -0.0024726 -0.0016209 -0.0028341
-0.0012886 0.006912 0.029167 -0.014982 0.15871 0.29594 -0.00052643 -0.0014637
-0.0016272 -0.00090005 -0.00050545 -0.0010939
0.0025947 0.00073597 0.0014292 -0.0016517 -0.00047194 -0.0014651 -0.049459 0.27929
0.018978 0.017754 -0.0025347 0.0015169
0.00010104 -0.003707 -0.0026916 -0.0025041 -0.0015873 -0.00092359 0.018958 0.017796
-0.082835 0.18526 0.013518 0.01808
-0.00041743 -0.001456 -0.0014804 -0.0028339 -0.00055993 -0.0011447 -0.0023189 0.0015027
0.013451 0.018062 -0.13654 0.26908
1100000000 0.036999 0.30605 0.035599 -0.0044862 0.0028218 0.0038844 0.0023679 -0.0012703
-0.001943 -0.0031177 -0.0038052 4.1227e-05
0.035556 -0.0044609 -0.12994 0.3734 0.015034 -0.02776 2.7246e-05 -0.0018363
-0.0033732 -0.00067818 -0.0033292 -0.00031855
0.0028531 0.0038654 0.014927 -0.027841 0.20498 0.27554 -0.0018704 0.00022157
-0.0017771 0.00055747 -0.00097401 -0.00028816
0.0023876 -0.0012154 4.075e-05 -0.0018263 -0.0018367 0.00024539 -0.0091442 0.28441
0.024118 0.0050641 -0.0025947 0.00019997
-0.0021097 -0.0030806 -0.0034492 -0.00071183 -0.0017596 0.00064229 0.024151 0.0051062
-0.065225 0.19943 0.019047 0.0087359
-0.0039607 2.2336e-05 -0.0034569 -0.0003215 -0.0010349 -0.00027921 -0.0026145 0.00025762
0.018995 0.0088481 -0.090279 0.29841
1160000000 0.088187 0.30098 0.023569 -0.020853 0.0025237 -0.00043479 -0.00020363 -0.0024013
-0.0042775 -0.00050108 -0.00092202 0.0041877
0.023554 -0.020815 -0.086431 0.3777 -0.0038844 -0.028995 -0.0016823 -0.0017119
-0.0028552 0.0025287 -0.0013951 0.0018656
0.0025364 -0.00045839 -0.0040205 -0.029021 0.24796 0.24457 -0.00070425 0.0017735
-0.00059635 0.0020264 -0.00085132 0.00010713
-0.00022823 -0.0024125 -0.0017088 -0.0017113 -0.0007481 0.0017723 0.029945 0.28173
0.020618 -0.010348 -0.0028167 0.0052587
-0.0042749 -0.00057896 -0.0027573 0.0025961 -0.00058059 0.0019238 0.020541 -0.01037
-0.031185 0.20836 0.017686 0.0004436
-0.00086684 0.0042668 -0.0013824 0.0019982 -0.00092194 0.00020501 -0.0028972 0.005246
0.017702 0.00073903 -0.044171 0.30134
1220000000 0.13268 0.28965 0.010073 -0.030013 -0.0015523 -0.00071152 3.1583e-06 -0.00091721
-0.002736 0.0025072 0.0013261 0.0020023
0.010078 -0.02997 -0.042016 0.38982 -0.016869 -0.021031 -0.0025106 0.00044454
0.00010443 0.0029933 -0.00066132 0.0018806
-0.0015576 -0.00069753 -0.016988 -0.020962 0.28704 0.20555 0.00082411 0.0016683
0.00061375 0.0012988 0.00034674 0.00063844
-3.3542e-05 -0.00093251 -0.0025294 0.00046129 0.00082854 0.0016806 0.069906 0.27345
0.010066 -0.016607 0.0022771 0.001522
-0.00273 0.0025424 0.00010844 0.0029758 0.0005978 0.0012308 0.010131 -0.016659
-0.0087355 0.21806 0.014211 -0.012556
0.0012852 0.0021089 -0.00067125 0.0018474 0.00040731 0.00064585 0.0023115 0.0014715
0.014319 -0.01265 -0.012354 0.31824
1280000000 0.18225 0.26749 -0.0082401 -0.028232 -0.0018003 0.0026178 -0.00095459 -0.0020084
-0.00072262 0.0031587 0.0025748 0.0011957
-0.0082199 -0.028201 0.0039646 0.38083 -0.023718 -0.0083841 -0.0010659 0.001466
0.0017115 0.0017716 0.00055177 0.0020503
-0.0017806 0.0026226 -0.02379 -0.0082894 0.31755 0.16147 0.0015053 -8.8154e-05
0.0010705 0.00020197 0.00029407 0.00029936
-0.00096484 -0.0019947 -0.0010384 0.0014737 0.0015853 -7.5821e-05 0.10669 0.25755
0.00089614 -0.018472 0.00011274 4.1431e-05
-0.00074552 0.0031724 0.0017164 0.0017492 0.0010552 0.00024332 0.00081559 -0.018478
0.027785 0.22247 0.0032977 -0.014798
0.0026617 0.0011239 0.0005889 0.0021013 0.00037155 0.00018799 9.7424e-05 0.00012548
0.0032352 -0.014893 0.035291 0.32062
1340000000 0.21926 0.23355 -0.017782 -0.018484 0.0010375 0.004518 -0.0017705 -0.00090073
0.0015214 0.0026059 0.0016374 -0.0013783
-0.017749 -0.018475 0.043332 0.37253 -0.021509 0.0042555 -3.6816e-05 0.0020413
0.0018938 0.00071044 0.0013599 0.00073814
0.0010596 0.0045248 -0.021499 0.0043713 0.33932 0.11372 0.0011605 -0.00086557
0.00072788 -0.00035908 0.00017619 0.00034383
-0.0017682 -0.00092136 -3.199e-05 0.0020684 0.0011373 -0.00084458 0.13966 0.23729
-0.0081302 -0.015705 0.0010886 0.00039143
0.0015102 0.002603 0.0019029 0.00067949 0.0006641 -0.00039033 -0.0081527 -0.01573
0.057614 0.21817 -0.0032249 -0.013315
0.001712 -0.0013499 0.0012247 0.00080524 0.00012526 0.00027669 0.0011098 0.00045448
-0.0033586 -0.013392 0.07373 0.31604
1400000000 0.25207 0.19507 -0.023281 -0.0070422 0.0052648 0.0030444 -0.0021352 0.00066438
0.0024442 0.00084977 0.00026774 -0.0014448
-0.023245 -0.0070522 0.080635 0.35955 -0.014761 0.012375 0.0013453 0.0012846
0.0011578 -0.00086459 0.001189 0.00020688
0.0052862 0.0030039 -0.014723 0.012475 0.35248 0.060427 3.1279e-05 -0.0016234
-1.7357e-05 -0.00042894 0.0005297 0.00031832
-0.0021216 0.00065445 0.001369 0.0012994 4.5919e-05 -0.0016158 0.16949 0.2087
-0.013791 -0.0092806 -0.00078666 -0.00052409
0.0024543 0.0008278 0.0011572 -0.00087874 2.381e-05 -0.00039704 -0.01383 -0.0092807
0.090765 0.21433 -0.009868 -0.0088038
0.00026277 -0.0014821 0.0011999 0.00021707 0.00046658 0.00028405 -0.00073329 -0.00056605
-0.0099513 -0.0087457 0.11894 0.30551
1460000000 0.27452 0.15094 -0.020115 0.0049967 0.0056462 -0.0019381 -0.001546 0.0017663
0.0020636 -0.0006599 -0.0003581 -0.00098707
-0.020099 0.0049788 0.11484 0.33766 -0.006149 0.015286 0.001759 0.00017961
0.00080796 -0.0012332 0.0012063 -0.00072102
0.005636 -0.001933 -0.0060733 0.015325 0.35845 0.0061604 -0.0011928 -0.0012075
0.00027834 -0.00020718 0.00067949 -0.00049164
-0.001578 0.0017849 0.0017515 0.00017966 -0.0012141 -0.0012216 0.19612 0.17954
-0.014815 -0.0029083 -0.00089657 0.0019088
0.0020994 -0.00063637 0.00080012 -0.0012456 0.00030151 -0.00025713 -0.014816 -0.0028789
0.12017 0.20004 -0.011766 -0.0028989
-0.00035661 -0.0010317 0.0012082 -0.00069593 0.00066336 -0.00041988 -0.00091604 0.0018688
-0.011743 -0.0028788 0.1523 0.28444
1520000000 0.28628 0.10905 -0.014405 0.010375 0.0031389 -0.0042059 0.00011879 0.0026173
0.0020145 -0.0017279 -0.0011028 -0.00012107
-0.014401 0.010352 0.14836 0.32283 0.0014839 0.013057 0.0016284 -0.00082112
-1.9224e-05 -0.0010228 0.00030296 -0.00099676
0.003107 -0.0042433 0.00157 0.01306 0.35163 -0.050339 -0.0011117 -0.0003523
0.00067654 -0.00084438 -0.00017167 -0.00023892
0.00014846 0.0026446 0.0016068 -0.00081937 -0.0011237 -0.00036231 0.21969 0.1416
-0.014235 0.0025081 0.0013797 0.0019877
0.0019881 -0.0017582 -2.0727e-05 -0.0010199 0.00061265 -0.00090025 -0.014197 0.0025209
0.14829 0.1865 -0.011551 0.0016149
-0.0012207 -1.0052e-06 0.00028635 -0.0010547 -0.00012014 -0.00014877 0.0013542 0.0020296
-0.011533 0.0016489 0.18586 0.26451
1580000000 0.29519 0.062932 -0.0076986 0.01329 -0.00089746 -0.0048784 0.0014675 0.0018706
-0.00028243 -0.0021493 -0.00037932 0.00038708
-0.0077089 0.013276 0.1757 0.29804 0.0051748 0.0083826 0.00044543 -0.0015848
-0.00047093 -0.0010288 -0.00024425 -0.00096693
-0.00090679 -0.0048818 0.0052159 0.0083536 0.3313 -0.10767 -0.0016156 0.00059823
-0.0002099 -0.0011843 0.00011603 -0.00056806
0.0014707 0.0018685 0.00044466 -0.0016095 -0.0015697 0.00062058 0.2339 0.10207
-0.010964 0.0071028 0.0020929 0.00079327
-0.00033303 -0.0020948 -0.00049138 -0.001007 -0.00019249 -0.0010918 -0.010956 0.0071274
0.17297 0.16867 -0.0092442 0.0072629
-0.00027882 0.00038515 -0.00022318 -0.00092992 0.00017039 -0.00054699 0.0021373 0.00075856
-0.0092086 0.0072076 0.21815 0.2374
1640000000 0.29694 0.0218 -0.0011546 0.01209 -0.0027039 -0.002721 0.0027234 0.00098833
-0.00078414 -0.0014078 -0.0002968 0.0005415
-0.0011617 0.012084 0.2051 0.27297 0.0059382 0.003591 -0.00072079 -0.0017082
-0.0010348 -0.00038804 -0.00049568 -0.0006149
-0.0026911 -0.0026767 0.0059638 0.003575 0.30298 -0.15656 -0.00070372 0.001483
-0.0011083 -0.00095927 -0.00013085 -0.00017872
0.0027351 0.00098271 -0.000726 -0.0016946 -0.00072625 0.0014386 0.24629 0.053005
-0.0068855 0.0083296 0.0024523 -0.00077857
-0.00079233 -0.0014368 -0.0010459 -0.00035971 -0.0011131 -0.00093889 -0.006896 0.0083456
0.19592 0.14447 -0.0045311 0.0092125
-0.00032469 0.00057735 -0.0005305 -0.00065532 -0.00013779 -0.00021751 0.002459 -0.00072889
-0.0045534 0.0091684 0.24367 0.20638
1700000000 0.28963 -0.023458 0.0021864 0.009231 -0.0035877 5.0752e-05 0.0029779 -0.0012595
-0.0019446 -0.00057505 0.00069131 0.00050675
0.0021613 0.0092169 0.22326 0.24131 0.0040126 0.00054721 -0.0014814 -0.0005487
-0.00078245 5.1544e-05 -0.00094568 -0.00043247
-0.0035877 2.1584e-05 0.0040313 0.00054001 0.26001 -0.19652 0.00043941 0.001632
-0.001845 -0.00024091 -0.00050281 -0.00078165
0.0029902 -0.0012453 -0.0015017 -0.00055563 0.00039393 0.0016402 0.24317 0.0030968
-0.0043434 0.0088608 0.0015356 -0.0022415
-0.001937 -0.0005826 -0.00076159 4.8363e-05 -0.0018448 -0.00017454 -0.0043356 0.0088502
0.21341 0.12429 0.00011306 0.0095059
0.0006594 0.00045467 -0.000935 -0.00041903 -0.00048108 -0.00083786 0.0015172 -0.0022466
7.217e-05 0.0094775 0.26013 0.17193
1760000000 0.27712 -0.071908 0.0043603 0.0059212 -0.0023591 0.00094943 0.0012479 -0.0034632
-0.0012434 0.0006688 0.00046669 -0.00055502
0.0043506 0.0059227 0.24909 0.20131 0.0017135 -0.0013217 -0.0011623 0.00023717
-0.001029 0.00092864 -0.00056463 0.00047276
-0.0023677 0.00096991 0.0017051 -0.0013288 0.21125 -0.2304 0.0011934 0.0010406
-0.0011119 0.001551 -0.0012238 -0.00040483
0.0012346 -0.0034991 -0.0011704 0.00022581 0.0011949 0.0011045 0.23381 -0.048529
-0.0011865 0.0081319 -0.0002496 -0.0024315
-0.0012501 0.00066907 -0.0010361 0.00092031 -0.0011647 0.0016231 -0.0012 0.0081847
0.22835 0.08923 0.0039731 0.007027
0.00048556 -0.00060695 -0.00056586 0.000483 -0.0012808 -0.00033133 -0.00025239 -0.0024791
0.0039738 0.0070467 0.27269 0.13413
1820000000 0.25233 -0.10894 0.004445 0.0024523 -0.00012003 0.0025025 -0.0010501 -0.0030622
-0.0010716 0.0008515 -6.5503e-05 -0.00015062
0.0044409 0.0024563 0.25899 0.17116 -0.00025556 -9.5724e-05 -0.0012496 0.00091105
-2.9189e-05 0.0013123 -0.00055893 0.00056431
-8.8654e-05 0.0025392 -0.00026398 -7.1257e-05 0.16069 -0.24539 0.0014741 0.00038511
-0.00024145 0.0023024 -0.0013195 0.00052299
-0.0010595 -0.0030069 -0.0012693 0.00092655 0.0014963 0.00035095 0.20365 -0.095677
0.00015457 0.0065656 -0.0015902 -0.0015115
-0.0010229 0.00089647 -4.3951e-05 0.001333 -0.00017221 0.0022821 0.00025773 0.0065725
0.24556 0.059924 0.0049844 0.0034666
-4.7938e-05 -9.7447e-05 -0.00054342 0.0005866 -0.0014377 0.00052077 -0.0016433 -0.0014949
0.0049868 0.00345 0.27523 0.098159
1880000000 0.21707 -0.14914 0.0022732 0.00024192 -0.00040879 0.0021871 -0.0029827 -0.0021969
-0.00024166 0.0015131 0.00020034 -0.00063118
0.0022637 0.00023794 0.26322 0.1245 -0.0024297 0.0015712 -0.00013503 0.0016442
0.00059528 0.0012576 0.0001303 0.00092725
-0.00034913 0.0021478 -0.0024157 0.0016079 0.10806 -0.2552 0.0017273 -0.0010538
0.0014893 0.0019625 -0.001076 0.0013339
-0.002997 -0.0021742 -0.00010241 0.0016367 0.0017307 -0.0010456 0.16296 -0.13554
0.00078998 0.0046805 -0.0024768 0.00034702
-0.00020399 0.0014638 0.00063062 0.0012671 0.0014954 0.0019846 0.00074033 0.0046767
0.2484 0.027152 0.0050028 0.0012301
0.00017137 -0.00054936 0.00013012 0.00095246 -0.00093432 0.0013318 -0.0024394 0.00028856
0.0049555 0.0012193 0.27512 0.063968
1940000000 0.17759 -0.17461 1.9419e-05 -0.0014537 0.0015385 0.0019871 -0.0039032 0.00062054
0.0012787 0.001049 -0.00073939 -0.00048854
2.7691e-05 -0.0014477 0.26355 0.092616 -0.0012182 0.0038993 0.00098798 0.0012769
0.0018851 0.00049537 0.00081238 0.00033261
0.0015385 0.0019731 -0.0011955 0.0038878 0.062351 -0.24842 0.00043214 -0.002095
0.002492 0.00033465 0.00037367 0.0015384
-0.0038351 0.00068776 0.00099767 0.0012758 0.00042602 -0.0021988 0.11064 -0.16535
-0.00018378 0.0036249 -0.0015315 0.0014293
0.0012301 0.0010716 0.0019191 0.00048468 0.0025487 0.00036526 -0.00030271 0.0036422
0.24994 -0.011959 0.0037928 -0.0022355
-0.00063475 -0.00056845 0.00088981 0.0003248 0.00035036 0.0016887 -0.0015762 0.0014397
0.0037514 -0.0022173 0.26393 0.028094
2000000000 0.13124 -0.18912 -0.0039912 0.00065908 0.0025679 0.0015542 -0.0022741 0.0035604
0.0009536 0.00025343 -0.0006557 0.00032371
-0.0039753 0.00065055 0.24914 0.057081 -0.00091347 0.0057899 0.0015541 0.00034196
0.001335 -0.0013933 0.00053622 0.00010403
0.0025773 0.0015866 -0.00088165 0.0058163 0.018527 -0.23374 -0.0014398 -0.0012467
0.0018472 -0.0011733 0.0016962 0.0013
-0.0022736 0.0036274 0.0015671 0.00033406 -0.0013827 -0.0012401 0.057454 -0.17518
-0.0019543 0.0036317 -0.00030327 0.0023632
0.0010109 0.00029712 0.0013025 -0.0014021 0.001913 -0.0011621 -0.001774 0.0038119
0.24367 -0.04596 0.00028497 -0.0029808
