!Keysight Technologies,M9804A,MY58100912,A.14.10.03
!Date: Thursday, April 27, 2023 10:28:33
!Correction: S11(C  6-Port  ) 
!S12(C  6-Port  ) 
!S13(C  6-Port  ) 
!S14(C  6-Port  ) 
!S15(C  6-Port  ) 
!S16(C  6-Port  ) 
!S21(C  6-Port  ) 
!S22(C  6-Port  ) 
!S23(C  6-Port  ) 
!S24(C  6-Port  ) 
!S25(C  6-Port  ) 
!S26(C  6-Port  ) 
!S31(C  6-Port  ) 
!S32(C  6-Port  ) 
!S33(C  6-Port  ) 
!S34(C  6-Port  ) 
!S35(C  6-Port  ) 
!S36(C  6-Port  ) 
!S41(C  6-Port  ) 
!S42(C  6-Port  ) 
!S43(C  6-Port  ) 
!S44(C  6-Port  ) 
!S45(C  6-Port  ) 
!S46(C  6-Port  ) 
!S51(C  6-Port  ) 
!S52(C  6-Port  ) 
!S53(C  6-Port  ) 
!S54(C  6-Port  ) 
!S55(C  6-Port  ) 
!S56(C  6-Port  ) 
!S61(C  6-Port  ) 
!S62(C  6-Port  ) 
!S63(C  6-Port  ) 
!S64(C  6-Port  ) 
!S65(C  6-Port  ) 
!S66(C  6-Port  ) 
!S6P File: Measurement: :
# Hz S  RI   R 50
500000000 -0.33669 -0.039631 -0.0099471 -0.0036084 -0.0079263 0.012841 -0.0045654 0.01149
0.012949 0.0034523 -0.0050158 0.0083315
-0.0097396 -0.0032175 -0.41853 -0.051955 0.0075144 -0.010999 0.0012091 0.011713
0.0082278 0.0024743 0.0016163 0.013038
-0.0077258 0.013019 0.00762 -0.011042 -0.26623 0.20973 0.0073625 0.0040028
-0.0012662 0.008078 0.0015569 0.012452
-0.0044067 0.011561 0.0015652 0.012084 0.0073546 0.0039964 -0.33048 0.043702
-0.018881 -0.005516 0.016078 0.025653
0.012951 0.0037666 0.0079763 0.0023493 -0.0012557 0.0080674 -0.018895 -0.0055293
-0.22452 -0.19451 -0.026576 0.0051131
-0.0048602 0.0084873 0.0017619 0.013361 0.0014099 0.012625 0.016023 0.02516
-0.026283 0.0052349 -0.26796 -0.12985
560000000 -0.31736 0.12453 -0.023769 -0.063681 0.00024571 0.012335 0.0059719 0.010491
0.010754 0.0036555 0.01066 0.0082138
-0.023448 -0.063931 -0.37588 0.10735 -0.041643 -0.036767 0.014251 0.0035899
-0.013746 -0.0049405 0.0035668 -0.00012802
0.00026051 0.012911 -0.042005 -0.036465 -0.18341 0.25746 -0.0001852 -0.0040717
0.020182 0.0053015 0.0070171 -0.0060987
0.0062154 0.009989 0.014416 0.0036969 -0.00016815 -0.0041054 -0.30588 0.13348
0.0038317 -0.023614 0.0042186 -0.022048
0.0095013 0.0041641 -0.013307 -0.0046253 0.020275 0.0052033 0.00379 -0.02363
-0.28804 -0.019375 0.0087134 -0.04952
0.010988 0.0075874 0.0037373 0.00045218 0.0065824 -0.0060121 0.0043355 -0.021953
0.0085479 -0.048334 -0.33012 0.018637
620000000 -0.27511 0.1077 -0.023395 0.0081826 0.0036453 0.0087366 0.0080889 -0.0052409
0.011213 -0.00050501 0.00070491 -0.0029784
-0.023352 0.0082615 -0.40254 0.059806 -0.018626 0.00022026 -0.0017729 -0.0018709
0.011761 -0.0066626 0.0014572 -0.003093
0.0035357 0.0087913 -0.018636 0.0002447 -0.15344 0.26706 -0.0014805 -0.0048981
-0.0029054 -0.0030649 0.0087746 -0.002914
0.0085639 -0.0052892 -0.0017618 -0.0020315 -0.0014512 -0.0048755 -0.26521 0.14365
-0.037274 -0.018784 0.012035 0.025299
0.01087 -8.4781e-05 0.011677 -0.0065585 -0.0029024 -0.0031052 -0.037314 -0.018749
-0.20804 -0.057935 -0.041502 0.014048
0.0017418 -0.0026039 0.0015754 -0.0031814 0.0086983 -0.0027737 0.0119 0.025444
-0.041023 0.014184 -0.25171 -0.018788
680000000 -0.23404 0.19295 -0.026973 -0.013899 0.0050897 0.0051154 0.0014956 -0.0068973
-0.0029705 -0.011659 0.0042091 -0.0073682
-0.027051 -0.013774 -0.38759 0.1578 -0.032388 -0.0012679 -0.0017233 -0.00030495
-0.0019559 -0.0090422 -0.0017832 -0.0022864
0.0051186 0.0050547 -0.032452 -0.0011937 -0.10179 0.2868 -0.00094335 -6.1198e-05
-0.001828 0.0003259 -0.0031289 -0.0095262
0.0015394 -0.0066597 -0.0016559 -0.00022527 -0.00094269 -5.679e-05 -0.22066 0.19481
-0.023579 -0.0072871 -0.0093074 -0.010815
-0.0030829 -0.011514 -0.0019579 -0.009118 -0.0018164 0.00033373 -0.023606 -0.0072589
-0.25871 0.040469 -0.0061306 -0.0081812
0.0047256 -0.0069777 -0.0017613 -0.002353 -0.0030916 -0.0094809 -0.0093864 -0.010721
-0.0060089 -0.0081294 -0.26021 0.088729
740000000 -0.19019 0.18779 -0.037995 0.026499 0.012786 -0.0050804 -0.00040821 -0.0040587
-0.0041645 -0.0031242 -0.0064382 0.0024765
-0.038085 0.02675 -0.3354 0.17742 -0.035163 0.034608 -0.00087153 -0.0063892
-0.01141 0.008132 -0.0022536 -0.006418
0.012701 -0.0050225 -0.035241 0.034581 -0.0681 0.28486 -0.0018308 0.003413
-0.0028343 -0.0047516 -0.0014095 0.0007418
-0.00051172 -0.0040695 -0.0010058 -0.006298 -0.0018271 0.003409 -0.20308 0.20222
-0.043505 -0.0070558 0.023209 0.014815
-0.0041555 -0.0032697 -0.011421 0.0082643 -0.0028418 -0.0047694 -0.043553 -0.0069807
-0.15903 0.06836 -0.043292 0.00077849
-0.0064708 0.0029096 -0.0023205 -0.0069057 -0.0013981 0.00072729 0.023119 0.014755
-0.043659 0.0011777 -0.24929 0.093618
800000000 -0.15695 0.22806 -0.022335 0.016582 0.0051893 -0.0106 -0.0044914 -0.001982
-0.0043602 0.0025809 0.0048006 0.0007767
-0.022208 0.016645 -0.33794 0.24635 -0.0078974 0.033829 -0.0024254 0.0022761
-0.00083819 0.0033778 0.00097675 0.0054008
0.0051877 -0.010526 -0.0077816 0.033864 -0.027588 0.30785 0.0010744 0.0015222
0.00031557 0.0036854 -0.0017908 0.00091328
-0.004638 -0.0018 -0.0023878 0.0023467 0.0010727 0.0015316 -0.17488 0.22982
-0.028307 0.013674 0.013612 -0.010225
-0.0040152 0.0022865 -0.00098888 0.0032388 0.00033388 0.0036787 -0.028303 0.013748
-0.20586 0.091956 -0.017374 0.018753
0.0045911 0.00099624 0.0010189 0.005434 -0.0018038 0.00091558 0.013619 -0.010321
-0.0174 0.018928 -0.24293 0.14421
860000000 -0.12229 0.24819 -0.017051 0.030803 -0.0033223 -0.0099112 -0.0023728 0.0010054
0.0041957 0.004963 -0.0033342 -0.0027292
-0.017092 0.030744 -0.29006 0.28837 0.0079437 0.03396 8.182e-06 0.002017
0.0045339 5.8261e-05 0.003462 0.00067642
-0.0033307 -0.0098863 0.0080475 0.033954 0.020385 0.31555 -0.00048349 -0.00022659
0.0028675 -0.0015507 0.0015061 0.0043477
-0.0025322 0.0010956 4.273e-06 0.0020095 -0.00048699 -0.00022492 -0.13858 0.24073
-0.017441 0.018496 -0.0060102 -0.0094084
0.0044579 0.004941 0.0046289 0.00015302 0.0028636 -0.001554 -0.017414 0.018561
-0.15545 0.1428 -0.024988 0.015119
-0.0034861 -0.0027898 0.0035296 0.00059199 0.0015428 0.004358 -0.0059132 -0.0093458
-0.024998 0.015114 -0.1915 0.18916
920000000 -0.097362 0.27071 0.0053599 0.037555 -0.0092705 -0.0045514 -0.0018578 0.0019018
0.00094562 0.001606 0.002665 -0.0017636
0.0053576 0.037478 -0.26131 0.3095 0.028113 0.021809 0.0014513 0.00096236
0.0073702 -0.00057547 0.0038838 -0.0027335
-0.0093225 -0.0045149 0.028226 0.02173 0.066469 0.31624 0.001906 -0.00015554
0.0012516 -0.00052022 0.00081416 -0.0012101
-0.0018149 0.0019164 0.0015291 0.0009697 0.0019111 -0.00016157 -0.11506 0.25786
-0.010801 0.029939 0.003181 -0.0065145
0.0010132 0.0016828 0.0073274 -0.00052688 0.0012464 -0.00052213 -0.010709 0.030005
-0.14484 0.14749 -0.0025912 0.027116
0.0026329 -0.0017776 0.0039556 -0.0028658 0.00078944 -0.0012392 0.0031941 -0.0064955
-0.0026597 0.027031 -0.20075 0.20359
980000000 -0.050468 0.29005 0.017583 0.029699 -0.0090093 0.0045246 0.0019618 0.0035199
0.0039779 -0.0017862 -0.0033487 -0.0022432
0.017465 0.029724 -0.20856 0.34328 0.032912 0.0047228 0.0019367 -8.8221e-05
0.0015923 -0.0062614 -0.00052062 -0.0022026
-0.0089976 0.0045586 0.032996 0.0046174 0.11268 0.30959 0.00043311 -0.0012221
0.0002635 -0.0021942 0.0014374 -0.00017222
0.0019703 0.0034542 0.0019149 -0.00012856 0.00043167 -0.0012241 -0.076937 0.26896
0.0076734 0.029789 -0.008924 -0.0070448
0.003937 -0.0018432 0.0015909 -0.0062629 0.00026175 -0.0022104 0.0077658 0.029807
-0.115 0.17779 0.0053243 0.019829
-0.0034119 -0.0023474 -0.0006361 -0.002255 0.0014126 -0.00016908 -0.0089454 -0.0070825
0.0053272 0.019777 -0.15696 0.24744
1040000000 -0.0084709 0.29826 0.033127 0.017826 -0.0013059 0.0068331 0.0025765 0.00081308
2.4834e-05 -0.0035208 -0.00033405 -0.0015673
0.033033 0.017754 -0.1731 0.35627 0.029185 -0.014888 0.001441 -0.0016952
-0.0025309 -0.002382 -0.0014117 -0.0027843
-0.0013068 0.0068125 0.029166 -0.015007 0.15878 0.29592 -0.00053615 -0.0014472
-0.0016342 -0.00078772 -0.00056848 -0.0011716
0.0025584 0.00079107 0.0013962 -0.0016701 -0.00053064 -0.0014513 -0.049414 0.27931
0.018892 0.017835 -0.0024006 0.0016445
5.498e-05 -0.0036582 -0.0025338 -0.0023556 -0.0016329 -0.00080439 0.018973 0.017821
-0.082682 0.18509 0.013315 0.018652
-0.00047337 -0.0015612 -0.001521 -0.0027618 -0.00056742 -0.0011801 -0.0023995 0.0016529
0.013395 0.018684 -0.13605 0.26918
1100000000 0.036884 0.306 0.035573 -0.0044394 0.0028391 0.0038884 0.0024211 -0.001234
-0.0020461 -0.0031559 -0.0038933 0.00023458
0.035525 -0.0044417 -0.12982 0.37355 0.015022 -0.027767 -3.8496e-06 -0.0017835
-0.003444 -0.00066328 -0.0034808 -0.00042909
0.0028527 0.0038835 0.014931 -0.027849 0.20508 0.27555 -0.001839 0.0002619
-0.0017449 0.00057071 -0.0010836 -0.00029496
0.0023706 -0.001298 -4.8817e-05 -0.0018133 -0.0018381 0.0002573 -0.0091893 0.28424
0.024054 0.0050412 -0.0024862 0.0003072
-0.002013 -0.0031824 -0.0034362 -0.00064295 -0.0017428 0.00056329 0.024102 0.0049861
-0.065253 0.19931 0.018898 0.0088224
-0.0040576 0.000181 -0.0036025 -0.00049538 -0.001071 -0.00030518 -0.0024433 0.000265
0.018933 0.0088892 -0.090319 0.29878
1160000000 0.088201 0.30097 0.023543 -0.02081 0.0026067 -0.00042557 -0.00017647 -0.0024393
-0.0042443 -0.00065512 -0.00081775 0.0041552
0.023546 -0.020774 -0.086261 0.37769 -0.003885 -0.028979 -0.0016838 -0.0017511
-0.0026626 0.0024859 -0.0013074 0.0019008
0.002595 -0.00043467 -0.0040044 -0.028993 0.248 0.24461 -0.0006929 0.0017663
-0.00057203 0.0019706 -0.00095689 0.00015391
-0.00017111 -0.00243 -0.0016912 -0.0017448 -0.00069965 0.0017626 0.03002 0.2817
0.020508 -0.01032 -0.0028719 0.0052091
-0.0042159 -0.00054632 -0.0026307 0.0025275 -0.00057339 0.001961 0.020515 -0.010381
-0.031502 0.2083 0.017863 0.00067084
-0.00075636 0.0039775 -0.0012284 0.0018733 -0.00095176 0.00017628 -0.0028006 0.0051747
0.017936 0.00073549 -0.043192 0.30161
1220000000 0.1326 0.28968 0.010016 -0.0299 -0.0015663 -0.00071624 -2.5034e-05 -0.00096327
-0.0026482 0.0025131 0.0012424 0.0021638
0.010053 -0.029863 -0.041982 0.38974 -0.016922 -0.021038 -0.0024985 0.00048629
9.6381e-05 0.0030089 -0.00077585 0.0018947
-0.0015697 -0.00069911 -0.017031 -0.02098 0.28706 0.20546 0.00083124 0.0016591
0.00060298 0.001236 0.00035555 0.00062085
-8.2914e-06 -0.00096493 -0.002513 0.0004871 0.0008283 0.0016607 0.069872 0.27345
0.010005 -0.016604 0.0022469 0.0014045
-0.0026664 0.002535 0.00011583 0.0030308 0.00060807 0.0012383 0.0099789 -0.016667
-0.0087737 0.21814 0.014037 -0.012652
0.001271 0.0021347 -0.00077945 0.0018757 0.00033771 0.00061638 0.0022205 0.001379
0.014087 -0.012616 -0.012194 0.31836
1280000000 0.18219 0.26762 -0.0081781 -0.028163 -0.0017923 0.0026473 -0.00094728 -0.0020164
-0.00065875 0.0030968 0.0025112 0.0010901
-0.0081433 -0.028137 0.0040017 0.38078 -0.023713 -0.0084023 -0.0010187 0.0014355
0.0017218 0.0017515 0.00049942 0.0020546
-0.0017914 0.0026763 -0.02378 -0.0082934 0.31751 0.16154 0.0014743 -0.00013177
0.0010835 0.00023847 0.00031961 0.00023944
-0.00096339 -0.0020386 -0.00099356 0.0014466 0.0014615 -0.0001375 0.10673 0.2575
0.00077842 -0.018436 7.4246e-05 8.9531e-05
-0.00064212 0.0031499 0.0017272 0.0017749 0.0010863 0.000241 0.00072711 -0.018483
0.027729 0.22251 0.0029989 -0.014779
0.0025626 0.0010769 0.00055815 0.0020433 0.00032318 0.00025054 5.7168e-05 0.00011288
0.0030709 -0.014799 0.035702 0.32069
1340000000 0.21922 0.23355 -0.017641 -0.018494 0.0010039 0.0045202 -0.0017749 -0.00085258
0.0015945 0.0026009 0.0016826 -0.0014193
-0.017613 -0.018465 0.04334 0.37257 -0.021532 0.0043033 -7.8252e-05 0.0019733
0.0019341 0.00075076 0.0013317 0.00082602
0.001014 0.0045086 -0.021536 0.0044197 0.33934 0.11379 0.0011296 -0.00095585
0.00078247 -0.00040967 0.00019615 0.00030157
-0.0017883 -0.00086483 -6.1148e-05 0.0019809 0.0011283 -0.00095339 0.13973 0.23738
-0.008216 -0.015686 0.0010842 0.00038371
0.0016192 0.002643 0.0019438 0.00075515 0.00078156 -0.0004079 -0.0082993 -0.015691
0.057757 0.2183 -0.0034352 -0.013322
0.0017398 -0.0014768 0.0013606 0.00083357 0.0001968 0.00030105 0.0010629 0.00045838
-0.0034302 -0.013344 0.074065 0.31605
1400000000 0.25208 0.19519 -0.023171 -0.0070827 0.005251 0.0030449 -0.0021231 0.00068796
0.0024589 0.00080062 0.00018287 -0.0014506
-0.023149 -0.0070951 0.080615 0.35953 -0.014759 0.012406 0.001342 0.0012933
0.0011583 -0.00084061 0.0012334 0.00015831
0.0052538 0.0030217 -0.014725 0.012498 0.3525 0.060336 3.3584e-05 -0.0016211
8.726e-05 -0.00039433 0.00047982 0.00022816
-0.0021219 0.0006798 0.001357 0.0012856 2.9464e-05 -0.0016178 0.16951 0.20863
-0.013792 -0.0092345 -0.00073126 -0.00048742
0.0024933 0.00080113 0.0011373 -0.00085602 8.4896e-05 -0.00039448 -0.013864 -0.0091867
0.090921 0.21442 -0.0099015 -0.008789
0.00021416 -0.0014809 0.0012287 0.00018369 0.0004616 0.00023066 -0.00074068 -0.00046999
-0.0099145 -0.0087867 0.11881 0.30563
1460000000 0.27462 0.151 -0.020053 0.0049325 0.0055593 -0.0019308 -0.0015861 0.0017605
0.0020869 -0.00062379 -0.00037641 -0.00093515
-0.020053 0.00491 0.11482 0.33768 -0.0061519 0.01531 0.0017271 0.00016544
0.00082441 -0.0012471 0.0011619 -0.00064729
0.0055565 -0.0019436 -0.0060831 0.015366 0.35844 0.0060959 -0.0012152 -0.0012156
0.00025423 -0.00022416 0.00056386 -0.00034956
-0.0015705 0.0017704 0.0017287 0.0001674 -0.0012116 -0.0012202 0.1962 0.17956
-0.014748 -0.002959 -0.00094611 0.0018901
0.0020977 -0.00062009 0.00083626 -0.0012653 0.00025734 -0.00022037 -0.0148 -0.0028937
0.12031 0.20032 -0.011581 -0.0029292
-0.00040153 -0.00093902 0.001174 -0.00065684 0.00056703 -0.00033413 -0.0009657 0.0019109
-0.011612 -0.0029795 0.15229 0.2845
1520000000 0.28646 0.109 -0.014385 0.010268 0.0031858 -0.0042402 0.00010337 0.0026293
0.0019817 -0.0017177 -0.0010797 -6.9384e-05
-0.014372 0.010245 0.14841 0.3229 0.001526 0.013093 0.0015826 -0.00080705
1.3922e-05 -0.0010134 0.00029202 -0.0010585
0.0031483 -0.0042625 0.001592 0.013088 0.35162 -0.05022 -0.001141 -0.00037221
0.00062653 -0.00088135 1.4185e-05 -0.00012413
0.00010839 0.0026116 0.0015838 -0.00081755 -0.0011357 -0.0003821 0.21972 0.14158
-0.014163 0.0024913 0.0013284 0.0020196
0.0019739 -0.0017619 -7.9334e-06 -0.0010187 0.00062453 -0.00089192 -0.014178 0.0025584
0.1485 0.1865 -0.011551 0.0015278
-0.0011369 -9.1639e-05 0.00030902 -0.0010422 -9.4284e-08 -0.00010263 0.0013328 0.0020077
-0.01158 0.0015509 0.18591 0.26444
1580000000 0.29535 0.062879 -0.007799 0.013182 -0.00086617 -0.0048276 0.0014432 0.001911
-0.00031278 -0.0021126 -0.00032644 0.00043076
-0.0078115 0.013173 0.17572 0.29805 0.0051881 0.0083424 0.00044868 -0.001569
-0.00049154 -0.0010622 -0.00021673 -0.00088599
-0.00091323 -0.0048135 0.0052351 0.0083202 0.33143 -0.10772 -0.0015811 0.00062086
-0.00017961 -0.0011881 0.00020513 -0.00052399
0.0014516 0.0018984 0.0004442 -0.0015737 -0.001587 0.00062873 0.23393 0.10203
-0.010897 0.0071003 0.0020796 0.0007044
-0.00030207 -0.0020942 -0.00051629 -0.0010405 -0.00018697 -0.0011913 -0.010882 0.0071624
0.17315 0.16872 -0.009178 0.0071209
-0.0002737 0.00042642 -0.00021837 -0.0008653 0.00017703 -0.00053856 0.0021033 0.00070321
-0.0092277 0.007163 0.21824 0.2373
1640000000 0.29697 0.02165 -0.0012794 0.012053 -0.0027823 -0.0026396 0.002718 0.0010102
-0.00079096 -0.0013714 -0.00030199 0.00056619
-0.001286 0.012042 0.20518 0.27298 0.0058873 0.0035811 -0.00072781 -0.0016894
-0.0010088 -0.0004193 -0.00054991 -0.00064881
-0.0027752 -0.0026533 0.0059111 0.0035581 0.30295 -0.15663 -0.00073428 0.0014572
-0.0011673 -0.00096412 -0.00019932 -0.00024147
0.0027261 0.00099162 -0.00073414 -0.0016915 -0.00074583 0.0014538 0.24628 0.052989
-0.0069282 0.0083126 0.0024714 -0.00071522
-0.00077679 -0.0014006 -0.0010266 -0.00040131 -0.001169 -0.00096271 -0.0068957 0.0083701
0.19619 0.14446 -0.004565 0.0091436
-0.00031097 0.00059978 -0.00055115 -0.00064646 -0.00020013 -0.00025528 0.0024653 -0.00070983
-0.0045891 0.0091993 0.2439 0.20639
1700000000 0.28968 -0.023522 0.0020803 0.0092649 -0.003541 4.8004e-05 0.0030391 -0.0012531
-0.0019296 -0.00057574 0.00065656 0.00038513
0.0020631 0.0092729 0.22332 0.24126 0.0039857 0.00054594 -0.0014912 -0.00057343
-0.00078407 2.9696e-05 -0.00092695 -0.0004647
-0.0035432 6.486e-05 0.0039984 0.00052117 0.25995 -0.19662 0.00039768 0.0015909
-0.0019389 -0.0001561 -0.0004926 -0.00085218
0.003039 -0.0012591 -0.0014834 -0.00055809 0.00040477 0.0015822 0.24328 0.0030097
-0.0042522 0.0088476 0.0015517 -0.0022305
-0.0019128 -0.00055859 -0.00076738 3.1738e-05 -0.0019384 -0.00013361 -0.0042094 0.0088915
0.21376 0.12421 3.9319e-05 0.0093968
0.00063639 0.00045019 -0.0009369 -0.00044216 -0.00047027 -0.0008227 0.0015733 -0.0022444
6.9887e-05 0.0094471 0.26043 0.17186
1760000000 0.27717 -0.07201 0.0042974 0.006027 -0.0023319 0.00096624 0.0012476 -0.003489
-0.0012738 0.00066736 0.00042008 -0.00053738
0.0042704 0.0060211 0.24913 0.20124 0.0017223 -0.0013229 -0.0011294 0.00018632
-0.0010369 0.00088501 -0.00055562 0.00048121
-0.0022879 0.00097814 0.0017155 -0.0013304 0.21143 -0.23027 0.0012542 0.0010906
-0.0011392 0.001505 -0.0012283 -0.00029485
0.0012412 -0.0034511 -0.0011325 0.00018966 0.0012534 0.0010919 0.2338 -0.04856
-0.0012219 0.0081584 -0.00024122 -0.002469
-0.0012315 0.00073839 -0.0010088 0.0008931 -0.0011294 0.0015256 -0.0011743 0.008183
0.22853 0.088988 0.0039996 0.0070001
0.00040792 -0.00052491 -0.00057023 0.00049012 -0.0012457 -0.00025556 -0.00026593 -0.0024879
0.0039763 0.007003 0.27295 0.13389
1820000000 0.25227 -0.10911 0.0044295 0.0025505 -0.00014722 0.0025041 -0.0010415 -0.0030416
-0.00098306 0.00084687 -1.1943e-06 -0.00019871
0.0044284 0.0025462 0.25895 0.17106 -0.00032797 -9.9765e-05 -0.0012656 0.00092746
-3.2189e-05 0.0013293 -0.00048877 0.00056456
-0.00011381 0.0025195 -0.00032428 -0.00010536 0.16058 -0.24558 0.0015027 0.00035884
-0.0001777 0.0022777 -0.0013994 0.00044879
-0.0010352 -0.0030764 -0.0012546 0.00094208 0.0014997 0.00035625 0.20373 -0.095649
0.00020829 0.0065913 -0.001648 -0.0015509
-0.00095067 0.00088211 -2.6378e-05 0.0013269 -0.00016352 0.0022867 0.00025533 0.0065996
0.24567 0.059672 0.0049476 0.003477
-1.6653e-05 -0.00023238 -0.00046584 0.00056943 -0.0013977 0.00043508 -0.0016045 -0.0016096
0.0050009 0.0034917 0.27534 0.097954
1880000000 0.21691 -0.1492 0.002246 0.00029671 -0.00044346 0.0022215 -0.0029962 -0.0022629
-0.00020325 0.0014977 0.00016892 -0.00066831
0.0022472 0.00027665 0.26315 0.12439 -0.0024145 0.0015959 -0.00015172 0.0016407
0.00058602 0.0012625 0.00011557 0.00094283
-0.00036658 0.0022057 -0.0024123 0.0016317 0.10802 -0.25529 0.001787 -0.0010205
0.0014531 0.0020097 -0.0009655 0.0013157
-0.0029714 -0.002163 -0.00015467 0.0016319 0.00179 -0.0010181 0.16295 -0.13564
0.00072985 0.0046652 -0.0024236 0.00035896
-0.00018366 0.0015597 0.00059261 0.0012289 0.001458 0.0020033 0.00076961 0.0046475
0.24836 0.026792 0.0048539 0.0013506
0.00022068 -0.00058719 9.7058e-05 0.00093067 -0.00095248 0.0013152 -0.0024364 0.00035425
0.0048537 0.0013787 0.27501 0.063664
1940000000 0.1775 -0.17459 1.8119e-05 -0.0013732 0.0015184 0.0019814 -0.0038888 0.00056203
0.00122 0.0010135 -0.00068528 -0.00060707
2.9561e-05 -0.0013451 0.26345 0.092594 -0.0011661 0.003924 0.00094894 0.0012516
0.0019141 0.00043664 0.0008723 0.00026822
0.0014567 0.0019855 -0.0011371 0.0039331 0.062374 -0.24851 0.00034284 -0.0021336
0.0024691 0.00033854 0.00042031 0.0016216
-0.0038987 0.00068864 0.00099507 0.0012525 0.00034043 -0.0021238 0.11055 -0.16552
-0.00034747 0.0035305 -0.0015723 0.0013734
0.0011466 0.0010447 0.0019165 0.00043762 0.0024586 0.00033257 -0.00030841 0.0035126
0.24995 -0.012356 0.0036877 -0.0022849
-0.00065911 -0.00043976 0.00089241 0.00030184 0.00039524 0.0016668 -0.0016083 0.0013588
0.0037107 -0.002293 0.26406 0.027883
2000000000 0.13107 -0.18921 -0.0039192 0.00069825 0.0025522 0.0015221 -0.0022786 0.0036954
0.00099229 0.00030321 -0.00065168 0.00048879
-0.003871 0.00065432 0.249 0.057172 -0.00089135 0.0058597 0.001574 0.00040804
0.001302 -0.0013565 0.00035798 0.00014675
0.0025329 0.0014766 -0.00087836 0.005884 0.01865 -0.23377 -0.0013981 -0.0012735
0.0018675 -0.0011769 0.0015853 0.0013544
-0.0022584 0.0037206 0.0015961 0.00041784 -0.0014005 -0.0012836 0.057473 -0.17514
-0.0018772 0.0038303 -0.00021145 0.0024716
0.0010541 0.00037352 0.0012706 -0.0013569 0.0018722 -0.001177 -0.0018608 0.0037991
0.24345 -0.046059 0.00023469 -0.002925
