!Keysight Technologies,M9804A,MY58100912,A.14.10.03
!Date: Thursday, April 27, 2023 10:28:33
!Correction: S11(C  6-Port  ) 
!S12(C  6-Port  ) 
!S13(C  6-Port  ) 
!S14(C  6-Port  ) 
!S15(C  6-Port  ) 
!S16(C  6-Port  ) 
!S21(C  6-Port  ) 
!S22(C  6-Port  ) 
!S23(C  6-Port  ) 
!S24(C  6-Port  ) 
!S25(C  6-Port  ) 
!S26(C  6-Port  ) 
!S31(C  6-Port  ) 
!S32(C  6-Port  ) 
!S33(C  6-Port  ) 
!S34(C  6-Port  ) 
!S35(C  6-Port  ) 
!S36(C  6-Port  ) 
!S41(C  6-Port  ) 
!S42(C  6-Port  ) 
!S43(C  6-Port  ) 
!S44(C  6-Port  ) 
!S45(C  6-Port  ) 
!S46(C  6-Port  ) 
!S51(C  6-Port  ) 
!S52(C  6-Port  ) 
!S53(C  6-Port  ) 
!S54(C  6-Port  ) 
!S55(C  6-Port  ) 
!S56(C  6-Port  ) 
!S61(C  6-Port  ) 
!S62(C  6-Port  ) 
!S63(C  6-Port  ) 
!S64(C  6-Port  ) 
!S65(C  6-Port  ) 
!S66(C  6-Port  ) 
!S6P File: Measurement: :
# Hz S  RI   R 50
500000000 -0.33696 -0.038107 -0.010132 -0.0026204 -0.0079011 0.012896 -0.0034801 0.012039
0.012058 0.0049497 -0.0044404 0.0091299
-0.0099095 -0.0025843 -0.41886 -0.051754 0.007625 -0.010813 0.001873 0.01207
0.0079597 0.0022983 0.001762 0.013695
-0.0077328 0.013016 0.007663 -0.010596 -0.26588 0.20985 0.0078016 0.0034767
-0.0018236 0.0081632 0.0017201 0.012411
-0.0037547 0.01255 0.001691 0.012372 0.0077152 0.0034158 -0.33075 0.044619
-0.018215 -0.0060034 0.016204 0.025523
0.012243 0.004131 0.0075467 0.0023344 -0.0016921 0.0082818 -0.018232 -0.0060672
-0.22554 -0.19494 -0.026007 0.0051703
-0.0041524 0.0097153 0.001767 0.014058 0.0018547 0.012058 0.015985 0.025741
-0.025725 0.0050272 -0.26733 -0.13024
560000000 -0.31667 0.1238 -0.023827 -0.06363 0.00050627 0.012627 0.0056122 0.0099448
0.0088484 0.0042124 0.010586 0.0077375
-0.023578 -0.063559 -0.377 0.10735 -0.041544 -0.037373 0.014065 0.0044563
-0.013923 -0.0041416 0.0037608 0.00049738
0.00042583 0.012816 -0.041728 -0.036945 -0.18298 0.25762 -0.0011106 -0.0045046
0.019251 0.004495 0.0067159 -0.0058638
0.0058695 0.010442 0.014289 0.0040551 -0.00083484 -0.0043776 -0.30583 0.13478
0.0042284 -0.023136 0.0043554 -0.021785
0.0096177 0.0043056 -0.014091 -0.0045913 0.019364 0.0045431 0.004458 -0.02309
-0.29005 -0.019405 0.0083663 -0.050048
0.011847 0.0076284 0.0035604 -0.00051073 0.0068761 -0.0058029 0.0045205 -0.021611
0.0088504 -0.04979 -0.32946 0.018915
620000000 -0.27459 0.10794 -0.023365 0.0080962 0.0037916 0.0085545 0.00904 -0.0047219
0.011085 -0.0011837 0.0016717 -0.0019446
-0.023327 0.0081593 -0.40268 0.059873 -0.018552 0.00014501 -0.0011333 -0.0019886
0.011272 -0.007131 0.0022329 -0.0030682
0.0036673 0.0088325 -0.018549 0.00026148 -0.1533 0.26668 -0.0010264 -0.0052232
-0.0036937 -0.0031658 0.0091479 -0.0027978
0.0087884 -0.0052217 -0.0012324 -0.0019433 -0.0011041 -0.0052786 -0.26524 0.14461
-0.037514 -0.0203 0.011915 0.02658
0.010669 -0.00067937 0.011404 -0.0069506 -0.0035161 -0.0029015 -0.0375 -0.020159
-0.2086 -0.055566 -0.040589 0.012999
0.0013213 -0.0024237 0.0020758 -0.0029757 0.0089886 -0.00329 0.011771 0.026016
-0.041225 0.013279 -0.2523 -0.018337
680000000 -0.23445 0.19356 -0.027197 -0.013871 0.0051515 0.0053236 0.0014711 -0.0069452
-0.0030547 -0.011273 0.0044812 -0.0071639
-0.027224 -0.013856 -0.38757 0.15781 -0.032391 -0.0011328 -0.0017336 -0.00042467
-0.0018496 -0.0087868 -0.0018095 -0.0021879
0.0051674 0.0051357 -0.032421 -0.0010779 -0.10174 0.28703 -0.00098699 -2.5888e-05
-0.0016629 0.00054232 -0.0031123 -0.0093862
0.0015073 -0.0070834 -0.0019313 -0.00015504 -0.00097425 8.6556e-06 -0.22041 0.19431
-0.023714 -0.0076923 -0.0096897 -0.010901
-0.0028116 -0.011381 -0.0017716 -0.0088711 -0.0017483 0.00055875 -0.023942 -0.0076164
-0.25887 0.040773 -0.0059392 -0.0081021
0.004611 -0.0068595 -0.0018195 -0.0020275 -0.0030588 -0.0093488 -0.0097985 -0.011267
-0.0060387 -0.0079166 -0.26021 0.088792
740000000 -0.18997 0.18777 -0.037917 0.026633 0.012934 -0.0048521 -0.00024767 -0.0039728
-0.0043098 -0.0028356 -0.0060685 0.0024702
-0.037973 0.026655 -0.33525 0.17653 -0.035267 0.034693 -0.00084815 -0.0063956
-0.012058 0.0080195 -0.0020069 -0.0064737
0.012933 -0.0050227 -0.035178 0.034816 -0.068112 0.28479 -0.0019553 0.0034191
-0.0027661 -0.0046562 -0.0015422 0.00075969
6.7914e-06 -0.0037247 -0.00085057 -0.0064673 -0.0019922 0.0033866 -0.20359 0.20203
-0.043162 -0.0066504 0.022923 0.014498
-0.0043842 -0.0036361 -0.011918 0.0085341 -0.0027508 -0.004563 -0.04319 -0.0065289
-0.1609 0.068296 -0.042894 0.0014762
-0.005551 0.0027794 -0.0020601 -0.0066993 -0.0017038 0.00053063 0.022853 0.014424
-0.043006 0.0010365 -0.24911 0.093277
800000000 -0.15699 0.22788 -0.022352 0.016701 0.0052561 -0.010467 -0.0049494 -0.0018017
-0.0043021 0.0025816 0.0041795 0.0011153
-0.022389 0.016661 -0.33785 0.24645 -0.0078808 0.033809 -0.002503 0.0022951
-0.00084984 0.0030845 0.00097484 0.0054145
0.0050726 -0.010606 -0.0078014 0.033844 -0.027571 0.30784 0.00082416 0.0015275
0.00040552 0.0038745 -0.0019883 0.00090102
-0.0046568 -0.0019494 -0.002433 0.0022163 0.00093788 0.0016124 -0.17512 0.22968
-0.028248 0.013808 0.013078 -0.010238
-0.004519 0.0025628 -0.0009313 0.0031566 0.00042874 0.0037812 -0.028269 0.013829
-0.20658 0.091479 -0.017382 0.019098
0.0042913 0.00071836 0.00090172 0.0050841 -0.0019833 0.00095833 0.012942 -0.010462
-0.017489 0.01947 -0.24376 0.14405
860000000 -0.12232 0.24825 -0.017138 0.030636 -0.0033306 -0.0098182 -0.0025678 0.0010408
0.0041581 0.0050424 -0.0033975 -0.0026883
-0.017204 0.0306 -0.29031 0.28844 0.0078885 0.03401 0.00010466 0.0019908
0.0044844 0.00026964 0.0034214 0.0006131
-0.0033751 -0.0098995 0.0080083 0.034005 0.020358 0.31558 -0.00046894 -0.00017129
0.0028334 -0.0014708 0.0015651 0.0044281
-0.0025471 0.0010671 -7.2392e-06 0.0020855 -0.00049948 -0.0001866 -0.13895 0.24049
-0.017944 0.018471 -0.0060966 -0.0091256
0.0043337 0.0050331 0.0045075 8.463e-05 0.0028003 -0.0014616 -0.017875 0.018684
-0.15566 0.14225 -0.025124 0.015632
-0.0035033 -0.0031169 0.0032805 0.00071132 0.001522 0.0043706 -0.0060661 -0.009219
-0.025369 0.015771 -0.19158 0.18945
920000000 -0.097348 0.27089 0.0053052 0.037644 -0.0093012 -0.0044589 -0.0019102 0.0019734
0.0011642 0.0017296 0.0028085 -0.001655
0.0053288 0.037565 -0.26145 0.30953 0.028141 0.021802 0.0014676 0.001138
0.0072145 -0.00047865 0.0041356 -0.0028119
-0.0093343 -0.0045345 0.028212 0.021733 0.06646 0.31629 0.0018229 -0.00011702
0.001332 -0.00048146 0.00076669 -0.0012014
-0.0018344 0.0019387 0.0014414 0.0011081 0.0018422 -0.00013921 -0.11511 0.25776
-0.01067 0.030285 0.0033975 -0.0067362
0.0010458 0.0016671 0.0072775 -0.00059374 0.0013123 -0.00045369 -0.010532 0.03026
-0.14465 0.14712 -0.0027857 0.026969
0.0026232 -0.001915 0.0040159 -0.0026987 0.00070196 -0.0011946 0.003271 -0.006683
-0.002844 0.027319 -0.20028 0.20361
980000000 -0.050432 0.29 0.017474 0.02974 -0.0090308 0.0045675 0.0020828 0.0034613
0.0039614 -0.0016696 -0.0033368 -0.0022152
0.017425 0.029733 -0.20865 0.34327 0.032941 0.0047804 0.0019644 -0.00011258
0.0016479 -0.0061622 -0.00059919 -0.0022549
-0.0089502 0.0045786 0.033 0.0046641 0.11265 0.30962 0.00045539 -0.0012179
0.000283 -0.002194 0.0014308 -0.00018487
0.0020344 0.0035154 0.001934 -8.2e-05 0.0004451 -0.0012186 -0.076913 0.26886
0.0077396 0.029908 -0.0088349 -0.0070449
0.0040428 -0.0017271 0.0015668 -0.0061456 0.00022797 -0.0021463 0.0078547 0.029902
-0.11512 0.17811 0.0053948 0.019606
-0.0031326 -0.0023551 -0.00040815 -0.0023264 0.0013796 -0.00013907 -0.0089314 -0.0070672
0.0055883 0.019763 -0.15678 0.24764
1040000000 -0.0083985 0.29819 0.033121 0.017792 -0.0012817 0.0067729 0.0024862 0.00083932
6.1023e-05 -0.0035896 -0.0003139 -0.0014106
0.033055 0.017862 -0.17312 0.35623 0.029252 -0.014936 0.0014081 -0.001698
-0.0026933 -0.0023867 -0.0015561 -0.002702
-0.0012238 0.0068253 0.029201 -0.01503 0.15876 0.29592 -0.00055083 -0.0014528
-0.0016704 -0.00080944 -0.00058736 -0.00111
0.0025613 0.00080111 0.0014006 -0.0016636 -0.00052703 -0.0014475 -0.049418 0.27926
0.018955 0.017859 -0.0025333 0.0015271
3.5989e-05 -0.0036029 -0.0026473 -0.0024232 -0.0016912 -0.00081975 0.019028 0.017846
-0.082732 0.18502 0.013505 0.018464
-0.00028765 -0.0015042 -0.0014416 -0.0027004 -0.00048785 -0.0010821 -0.0025101 0.0015118
0.013631 0.018527 -0.13641 0.26895
1100000000 0.03693 0.30604 0.035591 -0.0043837 0.0027988 0.0038298 0.0024733 -0.0012726
-0.0020616 -0.0031318 -0.0041152 9.1012e-05
0.035579 -0.0043927 -0.12985 0.37354 0.015012 -0.027763 2.757e-05 -0.0018508
-0.0034626 -0.00068009 -0.0036095 -0.00046341
0.0028501 0.0038633 0.014943 -0.02783 0.20509 0.27553 -0.0019168 0.00023361
-0.001767 0.00050988 -0.0010615 -0.00025256
0.0024745 -0.0013541 1.6788e-05 -0.0018388 -0.0019123 0.00025966 -0.009206 0.28428
0.02426 0.0050495 -0.0024928 0.00023632
-0.0020278 -0.0030838 -0.0034477 -0.00062664 -0.0018001 0.00053101 0.024273 0.0050251
-0.065317 0.19955 0.019092 0.0087124
-0.0039816 1.1513e-05 -0.0035286 -0.00048143 -0.0010822 -0.00022539 -0.0025018 0.00021332
0.019203 0.0087258 -0.090036 0.29865
1160000000 0.088199 0.30092 0.023575 -0.020731 0.0025987 -0.00044295 -0.0002119 -0.0023726
-0.0041717 -0.00063962 -0.0008465 0.0041212
0.02354 -0.020747 -0.086281 0.3777 -0.0038619 -0.028994 -0.0017174 -0.0016666
-0.00266 0.0025418 -0.0013275 0.0018152
0.0026126 -0.0004514 -0.0040117 -0.028996 0.24796 0.24464 -0.00071178 0.0018019
-0.00056718 0.0020174 -0.00092013 0.00021337
-0.00025959 -0.0023836 -0.0017024 -0.001687 -0.0007314 0.0017897 0.030014 0.2817
0.020483 -0.01043 -0.0028768 0.0051662
-0.0042517 -0.00065037 -0.0026819 0.0025839 -0.00055439 0.0020205 0.020499 -0.010399
-0.03115 0.20855 0.018045 0.00062479
-0.00078644 0.0041422 -0.0013724 0.0019269 -0.0008886 0.00022705 -0.0028792 0.005099
0.018022 0.00072127 -0.043899 0.30167
1220000000 0.13258 0.28971 0.010009 -0.029899 -0.0015879 -0.00070451 1.5583e-05 -0.00095331
-0.0027526 0.002564 0.0012751 0.0021474
0.010038 -0.029885 -0.04199 0.38978 -0.016925 -0.021017 -0.0025028 0.00041784
7.3557e-05 0.0030717 -0.00067015 0.0019048
-0.0015729 -0.00071197 -0.017033 -0.020975 0.28704 0.20546 0.00079743 0.0016296
0.00061617 0.0012271 0.00035694 0.00069214
-5.087e-05 -0.00099061 -0.0025091 0.00044838 0.00080771 0.001644 0.069841 0.27351
0.01003 -0.016668 0.0022179 0.0014798
-0.0026766 0.0025602 6.389e-05 0.0030102 0.00061644 0.0012313 0.010011 -0.016669
-0.0086182 0.21807 0.01415 -0.012787
0.0012906 0.0021839 -0.00074401 0.001944 0.00033432 0.00071705 0.0023163 0.0015468
0.014204 -0.01271 -0.01214 0.31854
1280000000 0.18224 0.26762 -0.0081535 -0.028174 -0.0018275 0.0026672 -0.00093722 -0.0020007
-0.00072028 0.0030585 0.0026228 0.0011629
-0.008131 -0.028166 0.0039866 0.38079 -0.023696 -0.0083956 -0.0010134 0.0014467
0.0017133 0.0017912 0.00056989 0.0020354
-0.0018033 0.0026704 -0.023779 -0.0082885 0.3175 0.16152 0.0014923 -8.0411e-05
0.0010501 0.00023607 0.00036999 0.00027619
-0.00091263 -0.0020061 -0.0009949 0.0014337 0.0015025 -7.9323e-05 0.10678 0.25751
0.00085013 -0.018546 5.6881e-05 9.3576e-05
-0.0006139 0.0031166 0.0017248 0.0017543 0.0010478 0.00021478 0.0008138 -0.018559
0.027763 0.22231 0.0032517 -0.014729
0.0025504 0.0011415 0.00062249 0.0020547 0.0003936 0.00026941 2.8972e-05 0.00015414
0.0031811 -0.014676 0.035431 0.32035
1340000000 0.21917 0.23356 -0.017665 -0.018528 0.00097477 0.0045103 -0.00172 -0.00089188
0.0015425 0.0026431 0.0016758 -0.0014148
-0.017648 -0.018492 0.043268 0.3726 -0.02153 0.0043292 -6.2877e-05 0.0019556
0.0019052 0.00076089 0.0013279 0.00087548
0.0010421 0.0045253 -0.021536 0.0044283 0.33935 0.1138 0.0011486 -0.00093446
0.00075786 -0.0004523 0.00018543 0.00034994
-0.0017566 -0.00087983 -5.02e-05 0.0019481 0.0011409 -0.00095094 0.1397 0.23741
-0.0081484 -0.015712 0.0010027 0.00036359
0.0015977 0.0025768 0.0019024 0.0007547 0.00074998 -0.00045201 -0.0081886 -0.015723
0.057615 0.21825 -0.0032646 -0.013256
0.0016481 -0.0014262 0.0013151 0.0008279 0.00020721 0.00035947 0.0010324 0.00036267
-0.0032995 -0.01342 0.073817 0.31604
1400000000 0.2521 0.19516 -0.023204 -0.0070914 0.0052623 0.002998 -0.0021028 0.00069346
0.0024552 0.00083258 0.00024562 -0.0014396
-0.02319 -0.0071094 0.080612 0.35957 -0.014783 0.012376 0.0013216 0.0012999
0.0011453 -0.00085508 0.0012093 0.00015814
0.005277 0.0030006 -0.014753 0.012476 0.35245 0.060344 3.7708e-05 -0.0015805
4.8662e-05 -0.00043715 0.00046135 0.00022088
-0.0020976 0.00068477 0.0013515 0.0012967 6.5371e-05 -0.0015778 0.16949 0.20866
-0.013801 -0.0093329 -0.00077832 -0.0004666
0.0024762 0.00077408 0.0011424 -0.00085581 2.5636e-05 -0.00041359 -0.013839 -0.0092962
0.090833 0.21429 -0.0098844 -0.0088257
0.00017716 -0.0014653 0.0012154 0.00021104 0.00048841 0.00026054 -0.00075925 -0.00052223
-0.0099828 -0.0086737 0.11883 0.30557
1460000000 0.2746 0.15104 -0.020088 0.0049018 0.005567 -0.001932 -0.001574 0.0017697
0.0020907 -0.00056027 -0.00041475 -0.0010275
-0.020075 0.0049139 0.11481 0.33771 -0.0061632 0.015322 0.0017608 0.0001606
0.00087051 -0.0012171 0.001191 -0.00062672
0.005592 -0.0019717 -0.0060936 0.015362 0.35851 0.0060365 -0.0012229 -0.0012318
0.00028105 -0.00017172 0.0005746 -0.00042702
-0.0015962 0.0017568 0.0017277 0.00016514 -0.0012367 -0.0012269 0.19615 0.17949
-0.014838 -0.002847 -0.00095583 0.0018594
0.0020925 -0.00057884 0.00083831 -0.0012673 0.00028343 -0.00018726 -0.014833 -0.0027981
0.12014 0.20018 -0.011734 -0.0029918
-0.0003428 -0.00095802 0.0011988 -0.00064828 0.0005775 -0.00037077 -0.00096139 0.0018297
-0.011632 -0.0029307 0.1523 0.28482
1520000000 0.28644 0.10904 -0.014406 0.010261 0.0031938 -0.0042663 0.0001237 0.0026314
0.0020358 -0.0017758 -0.0011549 -4.9147e-05
-0.014413 0.010264 0.14839 0.32296 0.0015332 0.01307 0.0016098 -0.00082981
-1.6069e-06 -0.0010257 0.00030404 -0.0010219
0.0031528 -0.0042403 0.0016151 0.013083 0.35164 -0.050213 -0.0011251 -0.00033679
0.00059671 -0.00087927 3.5739e-05 -8.134e-05
0.00010789 0.0026709 0.0015895 -0.00083823 -0.0011463 -0.00033688 0.21971 0.1416
-0.014201 0.0025359 0.0014173 0.0019846
0.0020697 -0.001745 2.4736e-06 -0.0010218 0.00061697 -0.0009027 -0.014189 0.0025748
0.14834 0.18644 -0.011499 0.0015601
-0.0011894 3.4411e-06 0.00028403 -0.0010279 1.6324e-05 -0.00010909 0.0014063 0.0020036
-0.011575 0.0016386 0.18577 0.26455
1580000000 0.29533 0.062883 -0.0077864 0.013206 -0.00089231 -0.0047896 0.0014764 0.0019258
-0.00035484 -0.0020687 -0.00028452 0.00036669
-0.0077923 0.013209 0.17574 0.29805 0.0051969 0.0083319 0.00045826 -0.0016053
-0.00047403 -0.0010688 -0.00023787 -0.00092449
-0.00094287 -0.0047693 0.0052394 0.0083109 0.3314 -0.10773 -0.0015396 0.00059915
-0.00017767 -0.0011756 0.00019178 -0.00062033
0.0014854 0.0018908 0.00040535 -0.0016209 -0.0015408 0.00058559 0.23394 0.10202
-0.010929 0.0071598 0.0021096 0.00075885
-0.00032526 -0.0020413 -0.00051865 -0.0010748 -0.00021595 -0.0011636 -0.010914 0.0071938
0.17305 0.16865 -0.009257 0.0071728
-0.00031397 0.0003374 -0.00023891 -0.00088574 0.00013853 -0.00060491 0.0020881 0.00078169
-0.0092744 0.0072281 0.21828 0.23754
1640000000 0.29699 0.021668 -0.0012687 0.012035 -0.0027731 -0.0026877 0.002714 0.00096809
-0.00075465 -0.001412 -0.00034049 0.00052958
-0.0012584 0.012043 0.20513 0.27299 0.005886 0.0035795 -0.00070655 -0.0016789
-0.0010246 -0.00039285 -0.00054587 -0.00066135
-0.0027935 -0.0026823 0.0059165 0.0035277 0.30294 -0.15662 -0.0007283 0.0014582
-0.00119 -0.0009532 -0.00017221 -0.00020512
0.0026993 0.00099238 -0.0007181 -0.0016848 -0.0007441 0.0014428 0.24625 0.052941
-0.0069016 0.0083163 0.0024811 -0.00074397
-0.00076971 -0.0014133 -0.001052 -0.00039169 -0.0012289 -0.00096001 -0.006886 0.0083293
0.19607 0.14442 -0.0046104 0.0092673
-0.00034664 0.00056135 -0.00054816 -0.00062735 -0.00018472 -0.00022536 0.0024548 -0.00077797
-0.0046401 0.0092289 0.24387 0.20638
1700000000 0.28964 -0.023528 0.0020833 0.0092634 -0.0035604 6.3968e-05 0.0029775 -0.001287
-0.0019672 -0.0006205 0.00063193 0.0004763
0.0020797 0.0092473 0.22331 0.2413 0.0039841 0.00053079 -0.0014799 -0.00057879
-0.00078386 6.3955e-06 -0.00092964 -0.00046389
-0.0035239 4.7342e-05 0.0039901 0.00051095 0.26002 -0.1966 0.00041268 0.0015802
-0.0019375 -0.00022086 -0.00048672 -0.00091187
0.0029946 -0.001294 -0.0014734 -0.000555 0.00041881 0.0015781 0.24323 0.0030411
-0.0042555 0.008823 0.0014256 -0.0022635
-0.0019602 -0.00059516 -0.00075732 2.6142e-05 -0.0019531 -0.00018871 -0.0042451 0.0088417
0.21357 0.12422 -2.6884e-06 0.0095688
0.00066021 0.00047693 -0.00092914 -0.00044655 -0.00053347 -0.00085604 0.0014752 -0.0023068
5.9408e-05 0.0095419 0.26051 0.17184
1760000000 0.2771 -0.072046 0.0042824 0.0060004 -0.0023177 0.0009694 0.0012575 -0.0034172
-0.0012792 0.00069166 0.00044838 -0.00056173
0.0042789 0.0059925 0.24911 0.20125 0.0017087 -0.0013192 -0.0011731 0.00023832
-0.0010469 0.00090499 -0.00060943 0.00050987
-0.0023167 0.00098675 0.0017209 -0.0013216 0.21147 -0.23028 0.0013103 0.0010482
-0.0010284 0.0015667 -0.0012646 -0.00030024
0.0012844 -0.0034498 -0.0011599 0.00021522 0.0012782 0.0010436 0.23378 -0.048668
-0.0012667 0.0080426 -0.00021532 -0.0024361
-0.0012421 0.00071759 -0.0010195 0.00091873 -0.0010374 0.0015771 -0.0012501 0.0080578
0.22839 0.088995 0.0040029 0.0070531
0.00043502 -0.00057182 -0.00057848 0.00050556 -0.0012842 -0.00032633 -0.00021415 -0.0024199
0.0040796 0.0070784 0.27297 0.13409
1820000000 0.25227 -0.10908 0.0044193 0.0025252 -0.00015933 0.0025202 -0.0010937 -0.0030683
-0.0010355 0.00085737 -6.9135e-06 -0.00016545
0.0044259 0.0025163 0.25896 0.1711 -0.00029953 -8.9491e-05 -0.0013161 0.00090942
-5.7252e-05 0.0013045 -0.00050745 0.00057808
-0.00011136 0.0025057 -0.00029823 -8.6722e-05 0.16067 -0.24548 0.001392 0.00040111
-0.00029305 0.0022872 -0.0014308 0.00043328
-0.0010809 -0.0030335 -0.0012676 0.00096279 0.0014264 0.0004527 0.20359 -0.095527
0.00021296 0.0065598 -0.001655 -0.0016181
-0.0010325 0.0008567 -3.2045e-05 0.0013144 -0.00029152 0.0023357 0.00021844 0.0065901
0.24567 0.059779 0.0049634 0.0034425
4.0429e-05 -0.00023323 -0.00051316 0.00053772 -0.0014621 0.00043532 -0.0016715 -0.001653
0.0050422 0.0033549 0.27553 0.098021
1880000000 0.21697 -0.14917 0.0022719 0.00029674 -0.00037316 0.0021965 -0.0030271 -0.002213
-0.00020601 0.0014989 0.00025017 -0.00061543
0.002282 0.00029657 0.26319 0.12441 -0.0024171 0.0016011 -0.00018746 0.0016552
0.00060244 0.0012644 0.00010925 0.00093778
-0.00037646 0.0021864 -0.0024243 0.0016192 0.10803 -0.25527 0.001832 -0.00099564
0.0015232 0.0019403 -0.0010171 0.0013089
-0.0030187 -0.0022092 -0.00013038 0.0016683 0.001819 -0.00099478 0.16284 -0.13553
0.00071583 0.0046981 -0.0024025 0.000369
-0.00023882 0.0014802 0.00061448 0.0012653 0.0015195 0.0019278 0.00074032 0.0046716
0.24828 0.026936 0.0050302 0.0012756
0.00020137 -0.00056129 0.00012702 0.00093619 -0.00093711 0.0013353 -0.0024337 0.00036096
0.0050103 0.0013027 0.27496 0.06367
1940000000 0.17745 -0.17463 5.6766e-05 -0.0013556 0.0015105 0.0019338 -0.0037887 0.00062368
0.0012582 0.0010407 -0.0006874 -0.00055838
5.0187e-05 -0.0013878 0.26347 0.092616 -0.0011911 0.003921 0.0010294 0.0012612
0.0019601 0.00043235 0.00086394 0.00028557
0.0015409 0.0019102 -0.0011537 0.0039213 0.062413 -0.24843 0.00038179 -0.0021364
0.0024917 0.0003082 0.00043733 0.0016094
-0.0038346 0.00063522 0.00098297 0.0012629 0.00044296 -0.0021317 0.11062 -0.1654
-0.00028576 0.00368 -0.001552 0.0015128
0.0012313 0.00099506 0.001903 0.00044211 0.0024963 0.00033227 -0.00029783 0.0036497
0.24991 -0.012076 0.0037946 -0.0021981
-0.00067877 -0.00057495 0.00087851 0.00027944 0.00045377 0.0015656 -0.0014207 0.0013811
0.003926 -0.0022951 0.26404 0.02778
2000000000 0.13111 -0.18914 -0.0038542 0.00068679 0.0025897 0.001565 -0.0022987 0.0036045
0.001046 0.00032519 -0.0005926 0.00049463
-0.003869 0.00069575 0.24909 0.05717 -0.00092396 0.0058661 0.001632 0.00035586
0.0013324 -0.0013462 0.00045416 7.1933e-05
0.002556 0.0014998 -0.00085849 0.005862 0.018547 -0.23367 -0.0013307 -0.0012756
0.0019444 -0.0011152 0.0015468 0.0011744
-0.0022223 0.0036 0.0016085 0.00031737 -0.0013412 -0.0012856 0.057469 -0.17515
-0.0018664 0.0038417 -0.00023113 0.0022602
0.0011159 0.00027158 0.0013045 -0.0013932 0.0019158 -0.0011493 -0.0017748 0.0038503
0.24343 -0.045913 0.0002885 -0.0030659
