!Keysight Technologies,M9804A,MY58100912,A.14.10.03
!Date: Thursday, April 27, 2023 10:28:33
!Correction: S11(C  6-Port  ) 
!S12(C  6-Port  ) 
!S13(C  6-Port  ) 
!S14(C  6-Port  ) 
!S15(C  6-Port  ) 
!S16(C  6-Port  ) 
!S21(C  6-Port  ) 
!S22(C  6-Port  ) 
!S23(C  6-Port  ) 
!S24(C  6-Port  ) 
!S25(C  6-Port  ) 
!S26(C  6-Port  ) 
!S31(C  6-Port  ) 
!S32(C  6-Port  ) 
!S33(C  6-Port  ) 
!S34(C  6-Port  ) 
!S35(C  6-Port  ) 
!S36(C  6-Port  ) 
!S41(C  6-Port  ) 
!S42(C  6-Port  ) 
!S43(C  6-Port  ) 
!S44(C  6-Port  ) 
!S45(C  6-Port  ) 
!S46(C  6-Port  ) 
!S51(C  6-Port  ) 
!S52(C  6-Port  ) 
!S53(C  6-Port  ) 
!S54(C  6-Port  ) 
!S55(C  6-Port  ) 
!S56(C  6-Port  ) 
!S61(C  6-Port  ) 
!S62(C  6-Port  ) 
!S63(C  6-Port  ) 
!S64(C  6-Port  ) 
!S65(C  6-Port  ) 
!S66(C  6-Port  ) 
!S6P File: Measurement: :
# Hz S  RI   R 50
500000000 -0.33694 -0.0388 -0.009618 -0.0028604 -0.0073522 0.012581 -0.0043528 0.012071
0.012462 0.0043968 -0.0050458 0.0089705
-0.0097615 -0.0029291 -0.4185 -0.051278 0.0075348 -0.010368 0.0011085 0.012276
0.0077047 0.0021753 0.0014319 0.013395
-0.0074648 0.012523 0.0075485 -0.01037 -0.26601 0.21011 0.0073604 0.0036981
-0.0016172 0.0081536 0.0016245 0.011781
-0.0044274 0.012097 0.0011154 0.012284 0.0073682 0.0036749 -0.33041 0.044648
-0.018764 -0.0055785 0.015602 0.026131
0.012498 0.0043468 0.0077159 0.0021821 -0.0016008 0.0081623 -0.018768 -0.0055687
-0.2244 -0.19453 -0.026546 0.0050975
-0.0051858 0.0089555 0.0014408 0.013381 0.0016773 0.011729 0.015616 0.026106
-0.026524 0.0050613 -0.26862 -0.13052
560000000 -0.31735 0.12409 -0.024442 -0.063356 0.00071356 0.011729 0.0061752 0.010284
0.010988 0.0031386 0.011066 0.0089634
-0.024334 -0.06305 -0.37822 0.10534 -0.040279 -0.036505 0.0131 0.0049124
-0.013748 -0.0031622 0.0017509 -0.0005612
0.00051227 0.011719 -0.040404 -0.036478 -0.18392 0.25793 -0.00012279 -0.004801
0.018984 0.0045225 0.0080724 -0.0066595
0.0062446 0.010413 0.013045 0.0048481 -0.00010676 -0.004797 -0.30434 0.13429
0.0046788 -0.022662 0.0035579 -0.020959
0.010904 0.0030158 -0.013862 -0.0031412 0.018988 0.0045196 0.0046109 -0.022575
-0.29132 -0.018107 0.0097964 -0.050046
0.01128 0.0089581 0.0017777 -0.00074054 0.0080929 -0.0066205 0.0035005 -0.021043
0.0098536 -0.050085 -0.33138 0.020562
620000000 -0.27506 0.10724 -0.023601 0.0080987 0.003599 0.0086626 0.0079112 -0.0047952
0.011059 -0.0010155 0.0021104 -0.0011947
-0.023559 0.0081852 -0.40262 0.059753 -0.018576 0.00014167 -0.0013089 -0.0016709
0.011594 -0.0068872 0.0020165 -0.0028688
0.0036515 0.0087618 -0.018611 0.00018925 -0.15326 0.26651 -0.0015169 -0.0045471
-0.0027059 -0.0038726 0.0081866 -0.002397
0.0078021 -0.0048604 -0.0013322 -0.0016809 -0.0015772 -0.0045553 -0.26595 0.1434
-0.037414 -0.01863 0.01157 0.024326
0.011165 -0.00091463 0.011579 -0.0069085 -0.0025985 -0.0038405 -0.037402 -0.018572
-0.20754 -0.056762 -0.040376 0.016405
0.0020674 -0.0013967 0.002 -0.0028669 0.008197 -0.0024218 0.011585 0.024361
-0.040444 0.016397 -0.25084 -0.017371
680000000 -0.23418 0.19324 -0.027009 -0.013884 0.0051715 0.0053235 0.0010513 -0.0068349
-0.0028126 -0.010951 0.0043585 -0.0073208
-0.027032 -0.013941 -0.38779 0.15784 -0.032657 -0.0010841 -0.0019092 -0.00054681
-0.0017429 -0.0088499 -0.001476 -0.0022918
0.0053096 0.0052776 -0.032699 -0.00098511 -0.10194 0.2866 -0.0010676 -0.00045969
-0.0015334 0.00067054 -0.0024234 -0.0093933
0.0011745 -0.0067784 -0.0019165 -0.00054123 -0.0010104 -0.00049573 -0.2202 0.19385
-0.024107 -0.0075884 -0.0090464 -0.010235
-0.002743 -0.010949 -0.0017901 -0.0088435 -0.0015341 0.00067535 -0.024134 -0.0075599
-0.25913 0.039289 -0.0058728 -0.0076635
0.0043179 -0.0073402 -0.0014723 -0.0022825 -0.0024185 -0.0092947 -0.0090446 -0.010203
-0.0058822 -0.0076377 -0.26272 0.088715
740000000 -0.19008 0.18741 -0.03784 0.026505 0.012725 -0.0051559 -0.0002018 -0.0041905
-0.0045252 -0.0030057 -0.006089 0.0036467
-0.037813 0.026518 -0.33543 0.17698 -0.034909 0.034827 -0.00084268 -0.0061894
-0.011918 0.0083167 -0.0024901 -0.0065686
0.012667 -0.0051037 -0.034835 0.034959 -0.068179 0.28528 -0.0019539 0.0030724
-0.0033762 -0.0048927 -0.0011589 0.0007074
-0.00020887 -0.0042317 -0.00087253 -0.006192 -0.0019411 0.0030647 -0.20288 0.20171
-0.043224 -0.0068404 0.022849 0.014426
-0.0045712 -0.0030354 -0.011914 0.0083484 -0.0033143 -0.0049694 -0.043264 -0.006809
-0.15952 0.068399 -0.042981 0.00043254
-0.0060647 0.003621 -0.0024573 -0.0065504 -0.0011823 0.00068946 0.022871 0.014387
-0.042988 0.00039562 -0.24781 0.092878
800000000 -0.15712 0.22778 -0.022232 0.016522 0.0052292 -0.010832 -0.0045546 -0.0019148
-0.0041579 0.0028371 0.0045908 0.00085783
-0.022276 0.016547 -0.33755 0.24644 -0.0076319 0.033776 -0.0024567 0.0023214
-0.00081295 0.0034611 0.0010789 0.0053615
0.0051283 -0.010797 -0.0075426 0.033816 -0.027448 0.30762 0.0010213 0.00165
0.00045735 0.0039904 -0.0018909 0.0007859
-0.0045702 -0.0019288 -0.0024619 0.0023276 0.0010021 0.0016508 -0.17495 0.22989
-0.02827 0.013525 0.013653 -0.0097298
-0.0042103 0.0028257 -0.0008506 0.0034914 0.00042552 0.0040311 -0.028269 0.013588
-0.20743 0.091536 -0.017858 0.018513
0.0046379 0.00087047 0.0010864 0.0053666 -0.0019053 0.00074818 0.013644 -0.0097482
-0.017857 0.018479 -0.24371 0.14331
860000000 -0.1224 0.24827 -0.017092 0.030809 -0.0033689 -0.0098844 -0.0024535 0.0010311
0.0041361 0.0051506 -0.0032963 -0.0028415
-0.017023 0.030746 -0.29057 0.2885 0.0077355 0.033914 8.9325e-06 0.0020111
0.0044153 -0.00016637 0.003165 0.0007989
-0.0033381 -0.009866 0.0078503 0.033937 0.020264 0.31549 -0.00043208 -0.00029856
0.002755 -0.0017506 0.0015055 0.0044069
-0.0024361 0.0010583 4.3492e-05 0.0020132 -0.00040787 -0.00028959 -0.13842 0.24075
-0.017314 0.018713 -0.0064676 -0.0095777
0.0041855 0.0052205 0.0044586 -0.00019713 0.0027934 -0.0017408 -0.017297 0.018744
-0.15496 0.14194 -0.026474 0.015631
-0.0033692 -0.0029432 0.0031131 0.00078718 0.0014495 0.0044002 -0.0064778 -0.0095954
-0.026466 0.015521 -0.19037 0.18944
920000000 -0.097344 0.27064 0.0055137 0.037598 -0.0092815 -0.004634 -0.0018301 0.001884
0.0012585 0.0020377 0.002759 -0.0019305
0.0054933 0.037507 -0.26138 0.30949 0.028126 0.021788 0.0015147 0.001106
0.0073419 -0.00057358 0.003993 -0.0028278
-0.0093084 -0.0045956 0.028226 0.021711 0.066478 0.31617 0.0018517 -0.00012764
0.0013618 -0.0004076 0.0008007 -0.0013479
-0.0018386 0.0018608 0.0015086 0.0011011 0.0018472 -0.00011947 -0.11488 0.25773
-0.01088 0.030115 0.0037292 -0.006594
0.0013333 0.0020376 0.0073604 -0.00058584 0.0013554 -0.00040343 -0.010835 0.030165
-0.14516 0.14737 -0.0030668 0.026692
0.0027689 -0.0019281 0.0039856 -0.0028162 0.00082781 -0.0013754 0.0037269 -0.006583
-0.0030734 0.026656 -0.20077 0.20364
980000000 -0.050305 0.28994 0.017479 0.02981 -0.0089601 0.0045807 0.0019528 0.0034317
0.0038949 -0.0018341 -0.0032244 -0.0024164
0.017504 0.029755 -0.20867 0.34311 0.032901 0.0047626 0.0020728 -9.9353e-05
0.0016563 -0.0062631 -0.00061564 -0.0020124
-0.008914 0.0046024 0.032954 0.0046381 0.11266 0.30959 0.00051115 -0.0012402
0.0002005 -0.0021991 0.0013471 -9.6726e-05
0.0019663 0.0034194 0.002086 -0.00011941 0.00052193 -0.0012365 -0.076891 0.26901
0.0076733 0.029893 -0.008854 -0.0072468
0.0038882 -0.0018202 0.0016354 -0.0062571 0.00020736 -0.0022087 0.0077408 0.029891
-0.11471 0.17791 0.0052777 0.019788
-0.0032425 -0.002419 -0.0006727 -0.0020316 0.0013261 -0.00010004 -0.0088565 -0.0072417
0.0052563 0.019784 -0.1572 0.24812
1040000000 -0.0084796 0.29828 0.033257 0.017788 -0.0013569 0.0068484 0.0026436 0.00077954
5.6663e-05 -0.0036227 -0.00060378 -0.0015706
0.033177 0.017719 -0.17303 0.35618 0.029264 -0.014885 0.0014501 -0.0016213
-0.0026392 -0.0024218 -0.0016259 -0.0029836
-0.0013292 0.0068859 0.029223 -0.015031 0.1587 0.29597 -0.00053146 -0.0014697
-0.0015734 -0.00092052 -0.00055666 -0.0011059
0.002662 0.00077219 0.0014271 -0.001643 -0.00052979 -0.0014618 -0.049425 0.27934
0.018912 0.017749 -0.0024795 0.0014523
6.3073e-05 -0.0036538 -0.0026633 -0.0023836 -0.0015836 -0.00091495 0.018941 0.017723
-0.082909 0.18525 0.013654 0.018068
-0.00056469 -0.0015165 -0.0015976 -0.0030151 -0.00056373 -0.0011246 -0.0024794 0.0014555
0.01366 0.018084 -0.13699 0.2695
1100000000 0.036901 0.30609 0.035541 -0.0044406 0.0028506 0.0038895 0.0023378 -0.0012813
-0.0020112 -0.002963 -0.0037833 0.00015934
0.035512 -0.0044198 -0.12997 0.37343 0.015018 -0.027729 -5.5758e-06 -0.0018173
-0.0035289 -0.00059619 -0.0034054 -0.00025067
0.0028604 0.0038674 0.014922 -0.027831 0.20501 0.27555 -0.0018699 0.00022102
-0.0018319 0.00054644 -0.0010397 -0.00023807
0.0023425 -0.0012753 -1.8235e-05 -0.0018257 -0.0018678 0.00021672 -0.0091961 0.28436
0.024219 0.0051434 -0.0025798 0.00013315
-0.0019747 -0.0029563 -0.003557 -0.00058475 -0.0018294 0.00054789 0.024242 0.0051058
-0.064988 0.19949 0.019284 0.0086936
-0.0037759 0.00013927 -0.003463 -0.00024349 -0.0010682 -0.00022326 -0.002589 0.00013853
0.019289 0.0087162 -0.090302 0.29865
1160000000 0.088234 0.30107 0.023555 -0.020881 0.0025818 -0.00041407 -0.00014604 -0.0023921
-0.0042268 -0.00071923 -0.0010121 0.0042496
0.023517 -0.020855 -0.086233 0.37765 -0.003852 -0.028986 -0.0017439 -0.0016149
-0.0026704 0.0026261 -0.0012744 0.0018154
0.0025951 -0.00041508 -0.0040003 -0.029011 0.24794 0.24459 -0.00075713 0.0017831
-0.00062125 0.0019366 -0.00083987 0.00017881
-0.00015346 -0.0024088 -0.0017719 -0.0016321 -0.00076102 0.001786 0.030039 0.28171
0.020505 -0.010373 -0.0029166 0.0053908
-0.0042551 -0.00067592 -0.0026654 0.0026659 -0.00060548 0.0019276 0.020497 -0.010415
-0.031365 0.20843 0.018109 0.00028047
-0.00095411 0.0042489 -0.0012614 0.0017989 -0.00085359 0.00020727 -0.0029248 0.0054045
0.01815 0.00032435 -0.043941 0.30112
1220000000 0.13265 0.28967 0.010091 -0.029947 -0.0015371 -0.0007372 -1.8632e-05 -0.00096028
-0.0027375 0.0024919 0.0014037 0.0019576
0.010077 -0.02995 -0.042005 0.38977 -0.016913 -0.021045 -0.0024636 0.00046471
5.8929e-05 0.0029789 -0.00065286 0.0019142
-0.001564 -0.00072989 -0.017039 -0.020997 0.28703 0.20549 0.00083543 0.0016869
0.00052907 0.0012466 0.00040536 0.00060757
-3.388e-05 -0.00093979 -0.0024677 0.00048118 0.00083143 0.0016814 0.069902 0.27343
0.010206 -0.016629 0.0022647 0.0015001
-0.0027344 0.0025283 8.2164e-05 0.0029959 0.0005349 0.0012274 0.010184 -0.016658
-0.0088498 0.21831 0.014047 -0.01267
0.0013697 0.0019767 -0.00065922 0.0019313 0.0004339 0.00061734 0.0022655 0.0014909
0.014046 -0.012685 -0.012076 0.3183
1280000000 0.18225 0.26753 -0.0081804 -0.028196 -0.0018103 0.0026237 -0.00096442 -0.0020482
-0.00069556 0.0031159 0.0025775 0.0011583
-0.0081942 -0.02818 0.0039474 0.38082 -0.023712 -0.0083888 -0.0010137 0.001419
0.001647 0.001715 0.00060889 0.0020525
-0.0017947 0.0026484 -0.023787 -0.0082874 0.31744 0.16151 0.0015752 -8.0518e-05
0.001065 0.00026505 0.00027306 0.00020097
-0.00097318 -0.002035 -0.0010121 0.001429 0.0015643 -6.3252e-05 0.10661 0.25757
0.00079772 -0.018497 0.00014841 0.0001943
-0.00069726 0.0031204 0.001668 0.0017049 0.0010573 0.00026717 0.00076953 -0.018508
0.027585 0.22256 0.0032387 -0.014688
0.0025904 0.0011316 0.00064301 0.0020599 0.00029994 0.0001805 0.00013982 0.00020165
0.0032347 -0.014705 0.035304 0.32004
1340000000 0.21923 0.23354 -0.017668 -0.018538 0.0010288 0.0044872 -0.0017872 -0.00086848
0.0015053 0.0026777 0.001605 -0.0014836
-0.017711 -0.018538 0.043313 0.37264 -0.02156 0.0043041 -8.6236e-05 0.0019703
0.0018549 0.00080949 0.0014076 0.00087384
0.0010424 0.0044843 -0.021556 0.0044087 0.3393 0.11373 0.0011496 -0.00089995
0.00068185 -0.00026835 0.00010354 0.00033222
-0.0017845 -0.00084848 -6.3504e-05 0.0019577 0.0011649 -0.00089802 0.13971 0.23738
-0.0081309 -0.015785 0.0010259 0.00027868
0.0015196 0.0026907 0.0018545 0.00079852 0.00065976 -0.00027782 -0.0081681 -0.015784
0.057966 0.21829 -0.0034079 -0.013106
0.0016089 -0.0014755 0.0013887 0.00089737 9.9159e-05 0.00031023 0.001031 0.00028637
-0.0034377 -0.013131 0.073765 0.31596
1400000000 0.25212 0.19517 -0.023259 -0.0070982 0.0052672 0.0030778 -0.0020723 0.00065423
0.002466 0.00082491 0.00023514 -0.0014105
-0.023239 -0.0070688 0.080601 0.35952 -0.014785 0.012406 0.0013215 0.0013495
0.0011431 -0.000917 0.0012044 0.00016874
0.0053249 0.0030525 -0.014743 0.012501 0.35252 0.060417 1.0753e-05 -0.0016396
0.00010277 -0.00042802 0.00043719 0.00035831
-0.0020836 0.00065719 0.0013242 0.0013399 1.7305e-05 -0.0016457 0.16948 0.20867
-0.013808 -0.0092145 -0.00076507 -0.00051251
0.0024484 0.00079104 0.0011539 -0.00092362 0.00010783 -0.00041397 -0.01383 -0.0091838
0.090706 0.21431 -0.0097685 -0.0087266
0.00023309 -0.0014012 0.0012401 0.00014746 0.00039074 0.00035 -0.0007631 -0.00050892
-0.0097571 -0.008714 0.11865 0.30553
1460000000 0.27453 0.15097 -0.020133 0.0049365 0.005573 -0.0019277 -0.0015224 0.001734
0.002154 -0.00052248 -0.00038934 -0.0010147
-0.020103 0.0049582 0.11479 0.33768 -0.0061783 0.015315 0.0017408 0.00017432
0.00077234 -0.0012072 0.0012543 -0.00066049
0.0055471 -0.0019613 -0.0061036 0.015363 0.35852 0.006108 -0.0011901 -0.0011753
0.00031013 -0.00019272 0.00074428 -0.00034402
-0.0015387 0.0017265 0.0017318 0.00016798 -0.0012008 -0.0011875 0.19613 0.17954
-0.014784 -0.0029058 -0.0010577 0.0018883
0.0021764 -0.00058396 0.00075511 -0.0012133 0.000306 -0.0001973 -0.014786 -0.0028798
0.12026 0.20017 -0.011727 -0.0030133
-0.00039658 -0.0010233 0.00124 -0.00064717 0.00072501 -0.0003006 -0.0010501 0.0018788
-0.011701 -0.0029837 0.15251 0.28481
1520000000 0.28636 0.10901 -0.014409 0.01033 0.0031575 -0.0042396 0.00010915 0.0026226
0.0020103 -0.0018225 -0.0010783 3.6817e-05
-0.014382 0.010334 0.14828 0.32286 0.0014989 0.013061 0.0016551 -0.00080495
1.6114e-05 -0.0010284 0.0002385 -0.0010248
0.0031282 -0.0042611 0.001579 0.013078 0.35158 -0.050321 -0.0011309 -0.00032355
0.0005703 -0.0009359 -4.7973e-05 -0.00023158
0.00012531 0.0026257 0.0016519 -0.00080213 -0.0011434 -0.00030813 0.21966 0.14158
-0.014216 0.002456 0.0014655 0.0020324
0.0019679 -0.0018449 1.35e-05 -0.001024 0.00058628 -0.00095032 -0.014213 0.0024934
0.14817 0.18638 -0.011486 0.0015532
-0.0010659 3.644e-05 0.00024611 -0.0010472 -9.7344e-06 -0.0001985 0.0014669 0.0020232
-0.01147 0.001553 0.1858 0.26466
1580000000 0.29519 0.062971 -0.0077901 0.01326 -0.000955 -0.0048462 0.0014499 0.0018585
-0.00032476 -0.0021069 -0.00023904 0.00029396
-0.0077569 0.013272 0.17568 0.29808 0.0051805 0.0083619 0.00043466 -0.0016099
-0.00046946 -0.0010516 -0.00018854 -0.00093735
-0.00096178 -0.0048018 0.0052353 0.0083447 0.33126 -0.10769 -0.0015771 0.0005645
-0.00021316 -0.001087 0.00021481 -0.00069441
0.0014572 0.0018561 0.00043763 -0.0016182 -0.001564 0.00057383 0.23386 0.10212
-0.011001 0.0071184 0.0021074 0.00073619
-0.00032046 -0.0021033 -0.00047447 -0.0010483 -0.00024075 -0.0011087 -0.010985 0.0071509
0.17304 0.1687 -0.0093279 0.0071288
-0.00025953 0.00029688 -0.00020681 -0.00092446 0.00026311 -0.00070986 0.0021211 0.00072621
-0.0093243 0.0071098 0.21851 0.23748
1640000000 0.29688 0.021782 -0.0012225 0.012085 -0.0027631 -0.0026518 0.0027176 0.0010118
-0.0008546 -0.0014537 -0.00030959 0.00060146
-0.001201 0.012083 0.20511 0.27301 0.0058951 0.0036019 -0.00070349 -0.0016772
-0.0010321 -0.00040501 -0.00053052 -0.00062245
-0.002764 -0.002662 0.0059212 0.0035661 0.30292 -0.15645 -0.00073864 0.0014772
-0.0011651 -0.00089448 -0.000173 -0.00023735
0.0027395 0.0010043 -0.00072138 -0.001678 -0.00073936 0.0014758 0.24633 0.052994
-0.0068986 0.0083589 0.0024935 -0.00074457
-0.00086301 -0.0014094 -0.0010274 -0.00038977 -0.0011779 -0.00090167 -0.0068755 0.0083801
0.19585 0.14441 -0.004594 0.0092484
-0.00027547 0.0006094 -0.00053839 -0.00062654 -0.00017882 -0.00028346 0.0024837 -0.00074838
-0.0045999 0.0092368 0.2438 0.20627
1700000000 0.28967 -0.023485 0.0021266 0.0092211 -0.0035329 1.1704e-05 0.0029908 -0.0012124
-0.0019556 -0.00054718 0.00059482 0.00045162
0.002119 0.0091986 0.22328 0.24129 0.0040396 0.00055252 -0.001498 -0.00056722
-0.00078321 4.2398e-05 -0.00092927 -0.00044516
-0.0035329 6.7103e-06 0.004049 0.00052426 0.26019 -0.19647 0.00041688 0.0015715
-0.001811 -0.00022929 -0.0005983 -0.00076219
0.0029775 -0.0012335 -0.0014982 -0.00056439 0.00042058 0.0015778 0.24316 0.0030915
-0.0043008 0.0088606 0.0015137 -0.0022179
-0.001948 -0.00054932 -0.00077393 3.8445e-05 -0.0018168 -0.00021165 -0.0042795 0.0088743
0.21345 0.12429 6.3059e-05 0.0095339
0.00063633 0.00044488 -0.00091705 -0.00043352 -0.00063482 -0.00078558 0.0015068 -0.0022238
5.6906e-05 0.0095392 0.26028 0.1718
1760000000 0.27715 -0.071872 0.0043197 0.0059911 -0.0022949 0.00097394 0.0012843 -0.0034697
-0.001245 0.00065876 0.0005112 -0.00048334
0.0043439 0.0059624 0.2491 0.20132 0.0016909 -0.0012926 -0.0011578 0.00023532
-0.0010216 0.00092213 -0.00059016 0.00051305
-0.0022823 0.00094891 0.0016894 -0.0013022 0.21121 -0.23037 0.0012457 0.0011215
-0.0010133 0.0015689 -0.0011903 -0.00026375
0.0012714 -0.0034692 -0.0011651 0.00024592 0.001237 0.0011266 0.23382 -0.048592
-0.0011585 0.0081392 -0.00017309 -0.0024696
-0.0012459 0.0006908 -0.0010104 0.00093697 -0.0010054 0.0015873 -0.0011418 0.0081397
0.22841 0.089225 0.0040066 0.0070759
0.00050337 -0.00051086 -0.00060248 0.00050717 -0.0012334 -0.00022504 -0.00017811 -0.0024586
0.0039944 0.0070629 0.27267 0.1338
1820000000 0.25236 -0.10906 0.0044006 0.00254 -0.00015375 0.0024732 -0.0010199 -0.0030547
-0.00099166 0.00085285 -4.9964e-05 -0.00017261
0.0044302 0.0025064 0.25893 0.17112 -0.00025829 -0.00013221 -0.0012625 0.00095196
-5.6106e-05 0.0013381 -0.00052245 0.00054566
-0.00016717 0.0024989 -0.00025773 -0.00013802 0.16094 -0.24551 0.0014615 0.00035577
-0.00028959 0.0022138 -0.0013051 0.00054131
-0.0010292 -0.0030622 -0.0012653 0.0009609 0.0014686 0.00034995 0.20363 -0.095647
0.00022526 0.0065086 -0.0017021 -0.0015152
-0.00097851 0.00085239 -3.8753e-05 0.00133 -0.00027431 0.0022013 0.00023007 0.0065122
0.24567 0.059926 0.0049669 0.0034502
-7.3897e-05 -0.00012488 -0.00051254 0.00056057 -0.0013265 0.00055711 -0.0017004 -0.0015087
0.0049712 0.0034679 0.27521 0.098003
1880000000 0.21696 -0.14905 0.0022597 0.00024572 -0.0003539 0.0022048 -0.0030206 -0.0021337
-0.00026616 0.0014877 0.00016718 -0.00062659
0.0022409 0.00023842 0.26318 0.12446 -0.0024602 0.0016017 -0.00012324 0.0016686
0.00059643 0.0012608 0.00011503 0.00092689
-0.00031706 0.0022057 -0.002449 0.0016102 0.10787 -0.25514 0.0018545 -0.0010609
0.0014279 0.0019752 -0.00099587 0.0011916
-0.0030268 -0.0021142 -0.00010467 0.0016709 0.0018365 -0.0010469 0.16298 -0.1356
0.00078213 0.0047122 -0.0024242 0.00032659
-0.00027355 0.0014851 0.00060133 0.0012581 0.0014233 0.0019498 0.00079861 0.0047135
0.24834 0.027156 0.0050617 0.0012549
0.00015838 -0.0006313 0.00012256 0.00092297 -0.00093976 0.0011943 -0.0024148 0.00033218
0.0050725 0.0012822 0.27483 0.063954
1940000000 0.17757 -0.17459 6.4441e-05 -0.0013824 0.0015933 0.0019719 -0.0038192 0.00057442
0.0012593 0.0010365 -0.000726 -0.00053512
4.401e-05 -0.0014208 0.2635 0.092629 -0.0012058 0.0039136 0.0010218 0.0012584
0.0019251 0.0004893 0.00083891 0.0002894
0.0015863 0.001913 -0.0011776 0.003929 0.062381 -0.24856 0.00048147 -0.0020639
0.0024439 0.00039736 0.00036433 0.0015831
-0.0038111 0.00061209 0.001043 0.0012617 0.00046645 -0.0020576 0.11067 -0.1655
-0.00023348 0.0036117 -0.0014695 0.0015254
0.0012626 0.0010296 0.0019195 0.00048396 0.0024321 0.00038101 -0.00022655 0.0036174
0.25003 -0.011955 0.0037321 -0.0021988
-0.00073926 -0.00052468 0.00083409 0.00026707 0.00038284 0.0015584 -0.0014736 0.0015005
0.003742 -0.002208 0.264 0.027915
2000000000 0.1313 -0.18927 -0.0038754 0.00072999 0.002532 0.0014495 -0.0021646 0.00366
0.00106 0.00021996 -0.00051575 0.0003558
-0.0038426 0.00070421 0.24905 0.057174 -0.00087611 0.0058168 0.0015471 0.00037274
0.0013366 -0.001371 0.00044451 0.00011724
0.0025783 0.0014803 -0.00082893 0.0058435 0.018706 -0.23384 -0.0014877 -0.0013962
0.002079 -0.0011521 0.0016276 0.0013891
-0.0021562 0.0036019 0.0015542 0.00035217 -0.0014725 -0.0014126 0.057478 -0.17506
-0.001935 0.0037856 -0.00032412 0.0022692
0.0010521 0.00021884 0.0013326 -0.001381 0.0020672 -0.0011404 -0.00191 0.0037997
0.2435 -0.045919 0.0002886 -0.0030653
