!Keysight Technologies,M9804A,MY58100912,A.14.10.03
!Date: Thursday, April 27, 2023 10:28:33
!Correction: S11(C  6-Port  ) 
!S12(C  6-Port  ) 
!S13(C  6-Port  ) 
!S14(C  6-Port  ) 
!S15(C  6-Port  ) 
!S16(C  6-Port  ) 
!S21(C  6-Port  ) 
!S22(C  6-Port  ) 
!S23(C  6-Port  ) 
!S24(C  6-Port  ) 
!S25(C  6-Port  ) 
!S26(C  6-Port  ) 
!S31(C  6-Port  ) 
!S32(C  6-Port  ) 
!S33(C  6-Port  ) 
!S34(C  6-Port  ) 
!S35(C  6-Port  ) 
!S36(C  6-Port  ) 
!S41(C  6-Port  ) 
!S42(C  6-Port  ) 
!S43(C  6-Port  ) 
!S44(C  6-Port  ) 
!S45(C  6-Port  ) 
!S46(C  6-Port  ) 
!S51(C  6-Port  ) 
!S52(C  6-Port  ) 
!S53(C  6-Port  ) 
!S54(C  6-Port  ) 
!S55(C  6-Port  ) 
!S56(C  6-Port  ) 
!S61(C  6-Port  ) 
!S62(C  6-Port  ) 
!S63(C  6-Port  ) 
!S64(C  6-Port  ) 
!S65(C  6-Port  ) 
!S66(C  6-Port  ) 
!S6P File: Measurement: :
# Hz S  RI   R 50
500000000 -0.3378 -0.038912 -0.010123 -0.002937 -0.0079155 0.012803 -0.004212 0.012164
0.0126 0.0044288 -0.0043263 0.0092575
-0.010365 -0.0026861 -0.41915 -0.05171 0.0076943 -0.010653 0.001544 0.012009
0.0077973 0.002491 0.0018111 0.014073
-0.0079047 0.012744 0.0077453 -0.010494 -0.26586 0.20972 0.0075779 0.0037031
-0.0015604 0.0082578 0.0019936 0.012397
-0.0037777 0.012372 0.0015011 0.012238 0.0075859 0.0037053 -0.33069 0.044774
-0.018819 -0.0062539 0.015306 0.025451
0.012031 0.0042991 0.0078754 0.0023184 -0.0015844 0.0082146 -0.018834 -0.0062025
-0.22479 -0.19496 -0.026336 0.0047619
-0.0045957 0.0095197 0.0018211 0.01361 0.0017962 0.012328 0.015253 0.026127
-0.025897 0.0042969 -0.26875 -0.13145
560000000 -0.31676 0.12383 -0.024028 -0.063424 0.00022293 0.012319 0.0055016 0.010879
0.009883 0.003701 0.011741 0.0078935
-0.024037 -0.063383 -0.37809 0.10743 -0.041054 -0.037409 0.014043 0.0040005
-0.013662 -0.0038562 0.0031439 0.00031949
0.00030092 0.012426 -0.041275 -0.037382 -0.18318 0.25783 -0.00053435 -0.003954
0.019998 0.00411 0.0070286 -0.0059766
0.0056464 0.010669 0.013525 0.0038717 -0.00056156 -0.0039696 -0.30561 0.13354
0.0037576 -0.023056 0.0040601 -0.021976
0.0093988 0.0041428 -0.013771 -0.0045265 0.019945 0.004096 0.0036919 -0.023048
-0.2886 -0.019669 0.0083435 -0.049323
0.011194 0.0082744 0.0032075 4.1265e-05 0.0065969 -0.0061579 0.0043188 -0.021796
0.0082617 -0.049312 -0.3298 0.018178
620000000 -0.27545 0.10762 -0.023397 0.008287 0.0033539 0.0087624 0.0083349 -0.0051631
0.01095 0.00012831 0.0015976 -0.0021548
-0.023461 0.0080387 -0.40291 0.059892 -0.018671 0.00024314 -0.0012006 -0.0022162
0.011414 -0.0064948 0.0022893 -0.0030477
0.0033753 0.0091063 -0.018739 0.00041149 -0.15359 0.26682 -0.0013876 -0.0051345
-0.0032033 -0.0026891 0.0090961 -0.0030386
0.0082197 -0.0048136 -0.0011677 -0.0021775 -0.0014281 -0.0051543 -0.26527 0.14373
-0.037533 -0.018893 0.011185 0.025922
0.011506 -0.00080982 0.01126 -0.0066057 -0.0031466 -0.0027105 -0.037535 -0.018888
-0.20792 -0.057525 -0.040575 0.014178
0.0017399 -0.0020715 0.001936 -0.0031049 0.008996 -0.0028907 0.011907 0.025659
-0.041655 0.013732 -0.25152 -0.018761
680000000 -0.23419 0.19337 -0.027353 -0.013887 0.0052302 0.0049609 0.001527 -0.0072135
-0.0029763 -0.011328 0.0045008 -0.0069023
-0.027258 -0.013909 -0.38775 0.15768 -0.032451 -0.0012292 -0.0018272 -0.00034802
-0.0018971 -0.0089698 -0.0016773 -0.0021801
0.0051281 0.0050264 -0.032402 -0.0011677 -0.10178 0.28678 -0.00085123 -8.8121e-05
-0.001516 0.00053795 -0.002852 -0.0094648
0.0012808 -0.0071801 -0.0017499 -0.00048064 -0.00086764 -7.7813e-05 -0.22038 0.19427
-0.023461 -0.0073203 -0.0092916 -0.011142
-0.0029605 -0.011067 -0.0017604 -0.0088161 -0.0014974 0.00053194 -0.023514 -0.0073695
-0.25816 0.040553 -0.0059303 -0.007696
0.004563 -0.006619 -0.0018635 -0.0019861 -0.0032663 -0.0097011 -0.00961 -0.011469
-0.0062094 -0.0075446 -0.26158 0.088836
740000000 -0.19006 0.18762 -0.037808 0.026818 0.012832 -0.0049086 -8.4047e-05 -0.0041119
-0.0048217 -0.0030778 -0.005697 0.0027586
-0.037835 0.026742 -0.33537 0.17687 -0.035164 0.034501 -0.00096959 -0.0062815
-0.011618 0.0082565 -0.0022516 -0.0066179
0.012726 -0.0049882 -0.035261 0.034716 -0.067952 0.28481 -0.0019253 0.0031014
-0.0026582 -0.0042936 -0.0013915 0.00053767
-0.00032431 -0.004088 -0.00087447 -0.0063803 -0.001954 0.0030967 -0.20313 0.20179
-0.043412 -0.0066615 0.023247 0.014432
-0.0044791 -0.0032899 -0.011871 0.0080492 -0.0026058 -0.0043036 -0.043461 -0.0066382
-0.16041 0.068002 -0.043074 0.00093972
-0.0059804 0.0028949 -0.0019751 -0.0067096 -0.001503 0.00042641 0.023438 0.014674
-0.043868 0.00069949 -0.24898 0.092758
800000000 -0.15711 0.22798 -0.022345 0.016648 0.0051998 -0.010619 -0.004531 -0.0018498
-0.0044679 0.002648 0.0045522 0.00065996
-0.022415 0.016651 -0.33782 0.24645 -0.0078531 0.033811 -0.0024767 0.0023659
-0.00096626 0.0031949 0.0010889 0.0053154
0.0051708 -0.010633 -0.007745 0.033855 -0.02763 0.30779 0.0010514 0.0015577
0.00028133 0.0037681 -0.001727 0.00077716
-0.0046733 -0.0018808 -0.002472 0.0023541 0.0010585 0.001557 -0.17497 0.22987
-0.028377 0.0135 0.013353 -0.010165
-0.0045921 0.0024672 -0.00079375 0.0032599 0.00029597 0.0037649 -0.028381 0.013562
-0.20691 0.091089 -0.017483 0.018962
0.0046027 0.00069453 0.0010427 0.0054233 -0.0017955 0.00080619 0.01355 -0.0099842
-0.017842 0.018727 -0.2432 0.14332
860000000 -0.12237 0.24817 -0.01698 0.030732 -0.0032927 -0.0099339 -0.0024264 0.001005
0.004375 0.0051338 -0.0035596 -0.0028579
-0.017035 0.030647 -0.29041 0.28839 0.0079355 0.033916 0.00017164 0.002096
0.0042935 3.5418e-05 0.0031606 0.00054805
-0.0033401 -0.0099084 0.007994 0.033952 0.020358 0.31553 -0.00039938 -0.00018637
0.0027247 -0.0015623 0.0014676 0.0043419
-0.0025275 0.0011062 -2.6437e-05 0.0021946 -0.00040327 -0.00017429 -0.13874 0.24066
-0.017671 0.018534 -0.0059173 -0.0091846
0.0043034 0.005027 0.0044105 0.00030987 0.0027112 -0.0015333 -0.01766 0.018555
-0.15586 0.14214 -0.025235 0.015113
-0.003385 -0.0028619 0.0031519 0.00059818 0.0014603 0.0043893 -0.0059914 -0.0092091
-0.025173 0.015288 -0.19145 0.18917
920000000 -0.097447 0.27063 0.0053599 0.037638 -0.0093179 -0.0045964 -0.00191 0.0019402
0.0011922 0.0017758 0.002757 -0.0018363
0.0053413 0.03762 -0.26132 0.30937 0.02815 0.021779 0.0014497 0.0010637
0.0074073 -0.00056766 0.0041741 -0.0026972
-0.0093907 -0.0045469 0.028185 0.021697 0.066381 0.31618 0.0018825 -0.00017324
0.0013069 -0.00048681 0.00091889 -0.0012895
-0.0018767 0.0019376 0.0014254 0.001046 0.0018873 -0.00016991 -0.115 0.25775
-0.010804 0.030097 0.0035903 -0.0064736
0.0011054 0.0018157 0.0073434 -0.00062573 0.0013008 -0.00049783 -0.010737 0.030123
-0.14537 0.1472 -0.0028391 0.027167
0.0027005 -0.0017575 0.0040016 -0.0028622 0.00083142 -0.0012356 0.0034757 -0.0067046
-0.0028874 0.027186 -0.20039 0.20313
980000000 -0.050465 0.28988 0.017547 0.029763 -0.008996 0.0044865 0.0018989 0.0034817
0.0041284 -0.0016765 -0.0033713 -0.0023129
0.017503 0.029753 -0.20857 0.34314 0.032971 0.0047712 0.0019374 -0.00011546
0.0015922 -0.0061996 -0.00058248 -0.0021168
-0.0089509 0.0045518 0.03302 0.0046258 0.11267 0.30959 0.00045847 -0.0012418
0.00027918 -0.0021323 0.0013842 -0.00016407
0.0019827 0.003491 0.0019504 -9.3692e-05 0.00046907 -0.0012478 -0.076975 0.26895
0.0077641 0.029896 -0.0089633 -0.0071884
0.0040684 -0.0016324 0.0015538 -0.006149 0.00027695 -0.0021298 0.007816 0.029898
-0.11562 0.17765 0.0054265 0.019692
-0.0032828 -0.0022068 -0.00054681 -0.0021975 0.0014109 -0.00023208 -0.0088732 -0.007152
0.0053411 0.019759 -0.15763 0.24742
1040000000 -0.0084728 0.29833 0.033203 0.017783 -0.0013254 0.0068399 0.0025194 0.00074654
-7.1736e-05 -0.0036132 -0.00035197 -0.0014812
0.033115 0.017801 -0.17304 0.35615 0.029263 -0.014909 0.0014308 -0.001699
-0.0026408 -0.002502 -0.0014613 -0.002736
-0.0013033 0.0068571 0.029209 -0.015013 0.15871 0.29592 -0.00052403 -0.0014852
-0.0016481 -0.00087638 -0.00052975 -0.0010824
0.0025677 0.00076763 0.0014293 -0.001687 -0.00052137 -0.0014846 -0.049535 0.27927
0.018914 0.017814 -0.0025196 0.001496
-1.8319e-05 -0.0036832 -0.0027317 -0.002486 -0.0016503 -0.00086826 0.01897 0.017797
-0.082956 0.18476 0.013367 0.01839
-0.0003719 -0.0015385 -0.0015353 -0.0027479 -0.00055116 -0.0011461 -0.0024833 0.0014612
0.013319 0.018345 -0.13661 0.26883
1100000000 0.036944 0.30605 0.03566 -0.0044897 0.0028445 0.0039013 0.0023674 -0.001274
-0.0020325 -0.0030882 -0.003911 4.7593e-05
0.035619 -0.0044659 -0.1299 0.37338 0.015067 -0.027749 2.4821e-06 -0.0018516
-0.0033897 -0.00071177 -0.0034549 -0.00047086
0.002839 0.0038915 0.014922 -0.027847 0.20502 0.27554 -0.0018744 0.00023591
-0.0017792 0.00051341 -0.0010171 -0.00035397
0.0023786 -0.0012981 -1.5868e-05 -0.0018279 -0.0018717 0.00023785 -0.0092058 0.28432
0.024134 0.0052204 -0.0025071 0.00016612
-0.0020803 -0.0031616 -0.0034453 -0.00070176 -0.0017845 0.00051731 0.02414 0.0051823
-0.065388 0.19949 0.01897 0.0089066
-0.0040255 8.319e-05 -0.0035548 -0.00041347 -0.0010777 -0.00034068 -0.0025036 0.00017836
0.018983 0.0089411 -0.090583 0.29833
1160000000 0.088186 0.301 0.023623 -0.020916 0.0025878 -0.00038034 -0.00020535 -0.0024157
-0.0042069 -0.00054655 -0.00090071 0.0040862
0.023624 -0.020863 -0.08632 0.37767 -0.003855 -0.02896 -0.0017148 -0.0017397
-0.0027569 0.0025848 -0.0012474 0.0019902
0.0026168 -0.0004319 -0.0039957 -0.029012 0.24785 0.24463 -0.00070531 0.0017689
-0.00057994 0.0019688 -0.00094892 0.000221
-0.00021996 -0.0024349 -0.0017747 -0.0016893 -0.00071171 0.0017644 0.030015 0.28179
0.02059 -0.010315 -0.0028815 0.0051979
-0.0042531 -0.00059063 -0.0027317 0.0026386 -0.00059336 0.0019732 0.020564 -0.010345
-0.031334 0.20831 0.017985 0.0006188
-0.00091913 0.0041782 -0.0011749 0.0018942 -0.00087655 0.00030278 -0.0029335 0.0052267
0.018033 0.00063612 -0.044129 0.30144
1220000000 0.13261 0.28971 0.010026 -0.030004 -0.0015895 -0.00074482 -8.0991e-06 -0.00094649
-0.0027453 0.0025092 0.0012952 0.0021927
0.01004 -0.029979 -0.042075 0.38972 -0.016896 -0.021041 -0.002499 0.00046836
3.6767e-05 0.0029703 -0.00074138 0.001894
-0.0015991 -0.00073715 -0.017007 -0.020998 0.28699 0.20552 0.00083528 0.0016631
0.00061761 0.0012351 0.0003829 0.00071341
-3.4634e-06 -0.00095506 -0.0025149 0.00045749 0.00084262 0.0016622 0.069841 0.27347
0.010125 -0.01663 0.0022878 0.0015118
-0.0026859 0.002591 7.2591e-05 0.0029924 0.00060506 0.001236 0.010112 -0.016656
-0.0089437 0.21822 0.014215 -0.012695
0.0013046 0.0021721 -0.00070358 0.0019269 0.00042615 0.00070358 0.0022809 0.0015147
0.01419 -0.012687 -0.012543 0.31853
1280000000 0.18222 0.26756 -0.0082557 -0.02825 -0.001796 0.0026414 -0.00092377 -0.0020099
-0.00072183 0.0031182 0.002593 0.001168
-0.0082322 -0.028273 0.0039057 0.38084 -0.023697 -0.0084195 -0.0010498 0.0014598
0.0017326 0.0017825 0.00061548 0.0020978
-0.0018223 0.0026439 -0.023777 -0.0083061 0.31746 0.16153 0.0015458 -6.541e-05
0.0010502 0.00026139 0.00042248 0.00026607
-0.00093544 -0.0020279 -0.0010231 0.0014512 0.0015377 -5.9169e-05 0.10669 0.25756
0.00090485 -0.018479 9.5122e-06 0.00013669
-0.00070027 0.0031188 0.0017195 0.0017779 0.0010565 0.00026654 0.00084583 -0.018495
0.027589 0.22247 0.0031992 -0.014768
0.0026215 0.0011456 0.00060853 0.0020998 0.00033949 0.0002527 5.8126e-05 0.00014692
0.0032366 -0.014676 0.035412 0.32046
1340000000 0.21919 0.2335 -0.017794 -0.018524 0.00099603 0.0045283 -0.0017782 -0.00089841
0.0015389 0.0026184 0.0017321 -0.0014509
-0.017736 -0.018544 0.043333 0.37256 -0.021527 0.0043083 -8.0299e-05 0.0020071
0.0019077 0.00077968 0.0013244 0.00084567
0.0010202 0.0045054 -0.02153 0.004384 0.33931 0.11381 0.0011565 -0.00093807
0.00077944 -0.00041334 0.00019537 0.00031277
-0.0017816 -0.00085868 -3.6594e-05 0.0020313 0.0011605 -0.00093631 0.13969 0.23734
-0.0081102 -0.015734 0.0010511 0.00035684
0.0015498 0.0026251 0.0019017 0.00075558 0.00078762 -0.00043231 -0.0081551 -0.01572
0.057683 0.21831 -0.0033452 -0.013327
0.0017197 -0.0014561 0.0013477 0.00082947 0.00020603 0.00031081 0.0010393 0.00036182
-0.0032812 -0.013306 0.07378 0.31597
1400000000 0.25201 0.19511 -0.023314 -0.0070283 0.0052306 0.0030418 -0.0021281 0.00066143
0.0024534 0.00086036 0.0002402 -0.001495
-0.023297 -0.0070563 0.08055 0.35955 -0.014783 0.01238 0.0013601 0.0012946
0.0011546 -0.00085828 0.0012321 0.00020031
0.0052761 0.0029911 -0.014767 0.012464 0.35257 0.060403 9.0727e-05 -0.0015968
5.3031e-06 -0.0004137 0.00051123 0.00027135
-0.002101 0.00069046 0.0013598 0.0013106 8.9094e-05 -0.001601 0.16942 0.20869
-0.01376 -0.0092911 -0.00073469 -0.00054745
0.0024726 0.0008394 0.0011807 -0.00086574 2.0713e-06 -0.00040816 -0.013801 -0.0092856
0.09065 0.21431 -0.009903 -0.0086918
0.00021565 -0.0015365 0.0012169 0.00018211 0.00050883 0.00028065 -0.00072637 -0.00055188
-0.0098898 -0.0086938 0.11876 0.30535
1460000000 0.27446 0.15097 -0.020144 0.0050306 0.0056158 -0.0018889 -0.0015924 0.001767
0.0020656 -0.00060286 -0.00041745 -0.00098523
-0.020135 0.0050057 0.1148 0.33772 -0.0061561 0.015283 0.0017347 0.00018198
0.00084567 -0.0012073 0.0011912 -0.00060735
0.0056062 -0.0019242 -0.0060839 0.015347 0.35847 0.0060198 -0.0012117 -0.0011908
0.00027607 -0.00021084 0.00060752 -0.00034434
-0.0015757 0.0017441 0.0017269 0.00015284 -0.0012172 -0.0011858 0.19613 0.17954
-0.014805 -0.0029346 -0.00095243 0.0018352
0.0020663 -0.00062944 0.00081859 -0.0012612 0.0002772 -0.0002299 -0.014818 -0.0028943
0.12016 0.20008 -0.011659 -0.0028619
-0.00038537 -0.0010102 0.0011893 -0.00061227 0.00054703 -0.00039542 -0.00091369 0.0018517
-0.011671 -0.0028857 0.15218 0.28465
1520000000 0.28633 0.10907 -0.014397 0.010414 0.0031996 -0.0042009 9.649e-05 0.0026491
0.0020183 -0.0017684 -0.0011477 -2.7441e-05
-0.014389 0.010391 0.14834 0.32285 0.0015112 0.013097 0.0016232 -0.00082881
-9.0749e-07 -0.0010293 0.00030963 -0.0010534
0.0032209 -0.0042539 0.0015676 0.013092 0.35162 -0.050143 -0.0011104 -0.00037862
0.00064816 -0.00086337 -2.86e-05 -0.00010777
0.00011173 0.0026502 0.0016087 -0.0008389 -0.0011235 -0.00038415 0.21966 0.14157
-0.0142 0.0024418 0.0014009 0.0020291
0.0020087 -0.0017929 4.0825e-06 -0.0010377 0.00065517 -0.00087237 -0.014219 0.002468
0.14818 0.18643 -0.011511 0.0016241
-0.0011558 -2.9209e-05 0.00031394 -0.0010604 -5.4943e-05 -0.00010667 0.0013906 0.00204
-0.01152 0.0015726 0.18567 0.26447
1580000000 0.2952 0.062984 -0.0077312 0.013321 -0.00089332 -0.0048367 0.0014836 0.0018644
-0.00031546 -0.0020977 -0.00029633 0.00037379
-0.0077332 0.013313 0.17567 0.29807 0.0051652 0.0083455 0.00044903 -0.0016038
-0.00051308 -0.0010462 -0.0002387 -0.00091763
-0.00087843 -0.0048289 0.0052335 0.0083305 0.33138 -0.10783 -0.0015714 0.00061515
-0.00019821 -0.0011494 0.0001922 -0.0005854
0.001473 0.0018847 0.00044535 -0.001609 -0.0015593 0.00061289 0.23388 0.10207
-0.01099 0.0070793 0.0021188 0.00075593
-0.00032785 -0.0021309 -0.00051366 -0.0010609 -0.00020936 -0.001149 -0.01098 0.0071042
0.17286 0.16864 -0.0092451 0.007196
-0.00029779 0.00039989 -0.00024236 -0.00092318 0.00019202 -0.00056272 0.0021331 0.00074595
-0.0092355 0.007185 0.21802 0.23753
1640000000 0.29687 0.021821 -0.001154 0.0121 -0.0027581 -0.0026634 0.0027435 0.0010115
-0.00077124 -0.0014541 -0.00034658 0.00056919
-0.0011575 0.012098 0.20513 0.27297 0.0059117 0.0036198 -0.00073294 -0.0016832
-0.0010101 -0.00038566 -0.00054418 -0.00064425
-0.0027781 -0.0026864 0.0059377 0.0035718 0.30293 -0.15661 -0.00074248 0.0014844
-0.00116 -0.00094763 -0.00014808 -0.0002576
0.0027327 0.00098775 -0.00074362 -0.0016897 -0.00074929 0.0014759 0.2463 0.053011
-0.0069602 0.0083148 0.0024559 -0.00070532
-0.00079326 -0.0014427 -0.0010608 -0.00040146 -0.0011702 -0.00095088 -0.0069282 0.0083464
0.19581 0.14446 -0.0045814 0.0091753
-0.00033903 0.00058325 -0.00054046 -0.00064917 -0.00017415 -0.00025682 0.0024334 -0.0007248
-0.0045684 0.0092048 0.24363 0.20647
1700000000 0.28966 -0.023418 0.0021875 0.0092407 -0.0035434 -8.9297e-06 0.0029936 -0.0012526
-0.0019394 -0.00059225 0.00067202 0.00045336
0.0021773 0.0092188 0.22324 0.24131 0.004011 0.00055544 -0.0014861 -0.00056297
-0.00077145 4.9926e-05 -0.00091817 -0.00043296
-0.003566 8.8948e-06 0.0040507 0.00052934 0.25995 -0.19663 0.0004467 0.0015959
-0.00193 -0.00020082 -0.00050057 -0.00080943
0.0029855 -0.0012553 -0.0014826 -0.00054962 0.00045078 0.0015993 0.2432 0.0031148
-0.0043316 0.0088791 0.0015311 -0.0022356
-0.0019614 -0.00059166 -0.0007653 7.2656e-05 -0.0019078 -0.00020534 -0.0043209 0.0089007
0.21333 0.12445 9.8184e-05 0.0094756
0.00067276 0.00042026 -0.00093893 -0.00041161 -0.00052122 -0.00082439 0.0014836 -0.0022408
8.1469e-05 0.0094297 0.26012 0.17194
1760000000 0.27713 -0.071868 0.0043798 0.0059376 -0.0023131 0.000964 0.0012548 -0.0034679
-0.0012848 0.00068978 0.00042251 -0.00058083
0.0043633 0.0059326 0.24912 0.20133 0.0017443 -0.0013104 -0.0011605 0.00023419
-0.0010234 0.00090791 -0.00056918 0.00048655
-0.0023384 0.00097833 0.001728 -0.0013464 0.21126 -0.23037 0.0012669 0.0011029
-0.0011017 0.0016203 -0.001233 -0.00033121
0.001233 -0.0034503 -0.0011523 0.000258 0.0012632 0.0010936 0.23377 -0.048535
-0.0012652 0.0081663 -0.00025418 -0.002495
-0.0012769 0.00071013 -0.0010241 0.00092429 -0.0010967 0.001633 -0.0012286 0.0081624
0.22826 0.089257 0.0039697 0.0070164
0.0004618 -0.00055833 -0.00056345 0.00049929 -0.0012541 -0.00031886 -0.00020167 -0.0025234
0.0040224 0.0069764 0.27273 0.13417
1820000000 0.25234 -0.10892 0.0044547 0.0024439 -0.000187 0.0025492 -0.0010029 -0.0030204
-0.001012 0.00084671 7.7321e-06 -0.00019471
0.0044538 0.0024608 0.25897 0.17116 -0.00028461 -0.00013078 -0.0012587 0.00094769
-3.1234e-05 0.0013281 -0.00051941 0.00058768
-0.00015374 0.0025476 -0.00026878 -0.0001088 0.16068 -0.24553 0.0014326 0.00044044
-0.00022986 0.0022609 -0.0014188 0.00048173
-0.0010683 -0.0030185 -0.001266 0.00093962 0.0014326 0.00044167 0.20368 -0.095609
0.00020181 0.0065919 -0.0015552 -0.0015576
-0.0010298 0.0008903 -1.4134e-05 0.0013183 -0.00023679 0.002261 0.00022983 0.0066198
0.24556 0.060073 0.0050084 0.0034515
1.932e-05 -0.00018367 -0.00050972 0.00056589 -0.0014418 0.00044644 -0.0015956 -0.0015259
0.0050263 0.0034603 0.27522 0.098243
1880000000 0.21702 -0.14907 0.0022517 0.00021175 -0.00043943 0.0021836 -0.0030043 -0.0021421
-0.00028598 0.001523 0.00018676 -0.00059208
0.0022552 0.00021695 0.26322 0.12449 -0.0024217 0.0015493 -0.00014906 0.00167
0.0005652 0.0012617 0.00016217 0.00093394
-0.00037372 0.0022111 -0.0024245 0.0015585 0.10796 -0.25529 0.0017707 -0.0010483
0.0015156 0.0019754 -0.00093919 0.0013005
-0.003024 -0.0021566 -0.00011839 0.0016391 0.0017648 -0.0010427 0.16296 -0.13558
0.00074182 0.0047698 -0.0023853 0.0003929
-0.00022198 0.0015141 0.00060325 0.0012496 0.0015034 0.0019551 0.00078205 0.0047708
0.24828 0.027303 0.0049238 0.0012543
0.00018566 -0.00063226 0.00015445 0.00092862 -0.00093375 0.0013392 -0.0024389 0.0003583
0.0049805 0.0012625 0.27496 0.063905
1940000000 0.17758 -0.1746 2.412e-05 -0.0014569 0.0015369 0.0019717 -0.0038267 0.00061711
0.0012212 0.0010261 -0.00063528 -0.00054069
6.0966e-06 -0.0014641 0.26356 0.092628 -0.0012028 0.0039066 0.0009858 0.0012809
0.0018967 0.00043966 0.00087558 0.00031308
0.0015103 0.0019528 -0.0011769 0.0038851 0.062371 -0.24838 0.00042677 -0.0022163
0.0024637 0.00032997 0.00040012 0.0015878
-0.0038196 0.00061922 0.0010008 0.001291 0.00042891 -0.0022146 0.11057 -0.16546
-0.00026787 0.0036131 -0.0015288 0.0013876
0.0012564 0.0010172 0.0019016 0.00043268 0.0024953 0.00035542 -0.00027156 0.0035975
0.24995 -0.011882 0.0037964 -0.0022566
-0.00069666 -0.00050771 0.00085726 0.00028454 0.00036195 0.0015487 -0.001467 0.0014224
0.0037911 -0.0022256 0.26403 0.02815
2000000000 0.13127 -0.18921 -0.0039485 0.00063239 0.0025271 0.0015865 -0.0022665 0.0035781
0.0010794 0.00024034 -0.00058144 0.00043243
-0.0039037 0.00065082 0.24914 0.057157 -0.00093515 0.0058232 0.0015959 0.00036079
0.0013654 -0.0013284 0.00045603 0.00010757
0.0026464 0.0015266 -0.00087527 0.0058552 0.018626 -0.23374 -0.0013976 -0.0012085
0.0018931 -0.0011403 0.0016217 0.0011983
-0.0022233 0.0035669 0.001594 0.00036923 -0.0013893 -0.0012007 0.057331 -0.17514
-0.0018325 0.0037133 -0.00021547 0.0024191
0.0010924 0.00027775 0.0013117 -0.0013401 0.0018842 -0.0011235 -0.0018323 0.0037084
0.24361 -0.045693 0.00019636 -0.0029494
