!Keysight Technologies,M9804A,MY58100912,A.14.10.03
!Date: Thursday, April 27, 2023 10:28:33
!Correction: S11(C  6-Port  ) 
!S12(C  6-Port  ) 
!S13(C  6-Port  ) 
!S14(C  6-Port  ) 
!S15(C  6-Port  ) 
!S16(C  6-Port  ) 
!S21(C  6-Port  ) 
!S22(C  6-Port  ) 
!S23(C  6-Port  ) 
!S24(C  6-Port  ) 
!S25(C  6-Port  ) 
!S26(C  6-Port  ) 
!S31(C  6-Port  ) 
!S32(C  6-Port  ) 
!S33(C  6-Port  ) 
!S34(C  6-Port  ) 
!S35(C  6-Port  ) 
!S36(C  6-Port  ) 
!S41(C  6-Port  ) 
!S42(C  6-Port  ) 
!S43(C  6-Port  ) 
!S44(C  6-Port  ) 
!S45(C  6-Port  ) 
!S46(C  6-Port  ) 
!S51(C  6-Port  ) 
!S52(C  6-Port  ) 
!S53(C  6-Port  ) 
!S54(C  6-Port  ) 
!S55(C  6-Port  ) 
!S56(C  6-Port  ) 
!S61(C  6-Port  ) 
!S62(C  6-Port  ) 
!S63(C  6-Port  ) 
!S64(C  6-Port  ) 
!S65(C  6-Port  ) 
!S66(C  6-Port  ) 
!S6P File: Measurement: :
# Hz S  RI   R 50
500000000 -0.3365 -0.034851 -0.0098894 -0.0032995 -0.0078548 0.01199 -0.0029597 0.011521
0.011453 0.0046076 -0.0027469 0.007716
-0.0098518 -0.0034565 -0.41875 -0.049732 0.0076091 -0.011607 0.0020087 0.011673
0.00743 0.0026022 0.0022134 0.012448
-0.0077282 0.011914 0.0076106 -0.011581 -0.26444 0.21084 0.0071261 0.0028625
-0.00037931 0.0087492 0.0011035 0.011312
-0.0031576 0.011176 0.002035 0.011592 0.0071822 0.0028852 -0.32655 0.046942
-0.019344 -0.0039782 0.0178 0.025226
0.011881 0.0045056 0.0077014 0.0023071 -0.00018186 0.0083849 -0.019498 -0.004674
-0.2255 -0.18598 -0.026491 0.0047022
-0.0033205 0.0075182 0.001565 0.012855 0.0010976 0.012012 0.018124 0.024849
-0.027361 0.0057011 -0.27203 -0.11367
560000000 -0.31465 0.12437 -0.022977 -0.06275 -5.3502e-05 0.012626 0.0071488 0.0091067
0.011278 0.0034909 0.0096334 0.0074474
-0.022982 -0.062903 -0.37599 0.10803 -0.041846 -0.036983 0.013228 0.0032822
-0.01317 -0.0052132 0.0037588 -0.00084418
-6.9566e-05 0.012569 -0.041812 -0.036813 -0.18214 0.25847 -0.00059866 -0.0048414
0.01887 0.0040861 0.0073691 -0.0058207
0.0072426 0.0088815 0.013196 0.0031355 -0.00065125 -0.0048503 -0.30232 0.13586
0.0042401 -0.025472 0.004836 -0.020454
0.010503 0.0042191 -0.01332 -0.0045777 0.018857 0.0041524 0.0040266 -0.025159
-0.28518 -0.010117 0.008662 -0.049336
0.010333 0.0063549 0.0043036 -0.00099963 0.0067019 -0.0057198 0.0052656 -0.019874
0.0088737 -0.050355 -0.33087 0.03252
620000000 -0.27397 0.10887 -0.022956 0.0069421 0.003409 0.00861 0.0066745 -0.0052599
0.01205 -0.00055491 0.00041873 -0.002481
-0.022977 0.0068818 -0.40238 0.061998 -0.018773 -0.00041509 -0.0012103 -0.0020305
0.010405 -0.0071506 0.00083742 -0.0028017
0.003405 0.0085267 -0.018765 -0.00037614 -0.15257 0.26708 -0.0013751 -0.0052027
-0.0038022 -0.0035729 0.0086434 -0.0037401
0.0068566 -0.0051376 -0.0011328 -0.0020265 -0.0013261 -0.005272 -0.26151 0.14525
-0.037784 -0.018968 0.014462 0.023072
0.011177 -0.0011983 0.010258 -0.0072503 -0.0043646 -0.0031674 -0.03851 -0.018863
-0.20393 -0.051207 -0.039836 0.014466
-0.00038471 -0.0018227 0.00075146 -0.0026961 0.0085455 -0.0036108 0.014327 0.023749
-0.039326 0.013658 -0.24903 -0.0050964
680000000 -0.23297 0.19271 -0.028194 -0.013981 0.004453 0.00484 0.00087661 -0.0077506
-0.0031088 -0.011147 0.0035364 -0.0058924
-0.028146 -0.014024 -0.38741 0.15927 -0.032973 -0.0011921 -0.0018132 -0.00030755
-0.0026919 -0.0087884 -0.00088191 -0.0016484
0.0045016 0.0048762 -0.033018 -0.0010838 -0.10243 0.28715 -0.00088216 0.00014257
-0.0023328 0.0007757 -0.00281 -0.0091634
0.00078964 -0.0076149 -0.0018621 -0.00017711 -0.00090716 0.00014795 -0.21937 0.19508
-0.023178 -0.0084418 -0.0087917 -0.010094
-0.0032789 -0.011091 -0.0027967 -0.0090023 -0.0024474 0.00075836 -0.022927 -0.0082525
-0.2513 0.046779 -0.0057599 -0.0095596
0.0036249 -0.0062945 -0.0014673 -0.0016891 -0.0032945 -0.0091703 -0.0088 -0.010678
-0.0054955 -0.0098374 -0.25791 0.098464
740000000 -0.18962 0.18735 -0.038763 0.026193 0.012653 -0.0051084 -0.00073284 -0.0038498
-0.0045531 -0.0024984 -0.0062463 0.0029846
-0.038817 0.026109 -0.33473 0.17783 -0.035006 0.034876 -0.00053244 -0.0064519
-0.012298 0.00746 -0.0022427 -0.0057963
0.012673 -0.0051979 -0.034978 0.035092 -0.068489 0.28605 -0.0013701 0.003506
-0.0023425 -0.0039799 -0.0017995 0.00043644
-0.0008534 -0.0040105 -0.00054615 -0.0064735 -0.0013505 0.0034495 -0.20225 0.20239
-0.042773 -0.008702 0.021413 0.013203
-0.0048259 -0.0029212 -0.01213 0.0075048 -0.0023753 -0.0038812 -0.043303 -0.0083671
-0.15816 0.071929 -0.041125 -0.00028948
-0.0062314 0.0031108 -0.0025257 -0.0059535 -0.0012661 0.00017308 0.021959 0.013127
-0.041264 -0.0004596 -0.2471 0.10357
800000000 -0.15768 0.22825 -0.022662 0.017126 0.0049649 -0.010248 -0.0051698 -0.0020006
-0.0037894 0.0028341 0.0042838 0.0011957
-0.02262 0.017077 -0.3377 0.24823 -0.0080004 0.034038 -0.0022268 0.0022442
-0.00048555 0.0032377 0.0011869 0.0053279
0.0050164 -0.010397 -0.0078584 0.034105 -0.027548 0.3093 0.00094721 0.0014465
0.00080047 0.0036443 -0.0019127 0.0010002
-0.005257 -0.0020909 -0.0022458 0.0022649 0.00093917 0.0014753 -0.17458 0.2301
-0.02838 0.012316 0.012295 -0.0098618
-0.0037985 0.0030374 -0.00053825 0.0033709 0.00076158 0.0036306 -0.028386 0.012508
-0.20165 0.09437 -0.017357 0.017328
0.0038916 0.0013133 0.00088075 0.0056506 -0.0021674 0.0011715 0.01234 -0.010149
-0.017337 0.017272 -0.23897 0.15496
860000000 -0.12292 0.24915 -0.017338 0.031196 -0.003481 -0.0096119 -0.0025355 0.0013402
0.0039842 0.0049175 -0.0031996 -0.0025587
-0.0173 0.031285 -0.2897 0.29038 0.0080358 0.034009 0.00015825 0.0021996
0.0042813 0.00033137 0.0034141 0.00049391
-0.0035202 -0.0096209 0.0081741 0.034018 0.02125 0.31704 -0.00046601 -0.00027219
0.0027859 -0.0015668 0.0015785 0.0046288
-0.0024328 0.0014363 0.00016255 0.0022055 -0.0004556 -0.0002679 -0.13882 0.24199
-0.018218 0.018492 -0.0067551 -0.0089953
0.0040991 0.0050859 0.0043978 0.00020121 0.0029102 -0.0015233 -0.018034 0.018724
-0.15225 0.14303 -0.024654 0.015173
-0.0030512 -0.0025168 0.0033346 0.00043734 0.0015672 0.0044521 -0.0066624 -0.0088295
-0.024888 0.015194 -0.18895 0.19788
920000000 -0.097528 0.27282 0.0051717 0.037821 -0.0092211 -0.0040215 -0.0016715 0.0024847
0.0014526 0.0013455 0.0024571 -0.0014751
0.0051646 0.037755 -0.26035 0.31118 0.027905 0.021628 0.0014996 0.00096346
0.0067058 -0.00051493 0.003683 -0.0030606
-0.0092144 -0.0039805 0.028 0.021562 0.067576 0.31713 0.0017422 -0.00016631
0.0012429 -0.00033536 0.00082054 -0.0011113
-0.001711 0.0024333 0.0015569 0.00088401 0.0017367 -0.00017132 -0.11419 0.25871
-0.010707 0.030039 0.0025713 -0.0061504
0.0012738 0.0013138 0.0066234 -0.00047281 0.0012187 -0.00039461 -0.010508 0.029974
-0.14175 0.1491 -0.0026673 0.02734
0.0025025 -0.0011616 0.0037785 -0.0032013 0.00080191 -0.001066 0.0027018 -0.0063095
-0.0028222 0.02712 -0.1935 0.21141
980000000 -0.049595 0.29209 0.017964 0.029943 -0.008579 0.0047322 0.0024346 0.0037528
0.0038847 -0.0016848 -0.0029742 -0.0019277
0.018006 0.029958 -0.20729 0.34486 0.032676 0.0046288 0.0020353 6.9545e-06
0.0011615 -0.0061443 -0.00062065 -0.0020174
-0.0085624 0.0047555 0.032744 0.0045165 0.1138 0.31014 0.00043693 -0.0012008
0.0001228 -0.0020291 0.0014451 4.3732e-05
0.0024795 0.0037942 0.0019862 -1.5981e-06 0.00043459 -0.0012129 -0.076176 0.2703
0.0069402 0.028824 -0.0093514 -0.0066311
0.003864 -0.0018937 0.001114 -0.0062456 7.9214e-05 -0.0020041 0.006973 0.02889
-0.11104 0.17737 0.0043677 0.018743
-0.0031939 -0.0020081 -0.00082994 -0.0019166 0.0014591 -4.2973e-05 -0.0094799 -0.0065481
0.0042074 0.01875 -0.15063 0.25643
1040000000 -0.0067284 0.30034 0.033368 0.017783 -0.00084134 0.006751 0.0028315 0.00078944
-8.5951e-05 -0.003876 -0.00045048 -0.001572
0.033357 0.017792 -0.17163 0.3576 0.028936 -0.014628 0.0015093 -0.0016207
-0.0024255 -0.0022303 -0.0013184 -0.0026765
-0.00081215 0.0067897 0.028925 -0.01476 0.15971 0.2961 -0.00048146 -0.0013587
-0.001579 -0.00077575 -0.0004314 -0.0011197
0.0028273 0.00073624 0.0014806 -0.0016975 -0.00045523 -0.0013557 -0.048352 0.2804
0.018086 0.017287 -0.002758 0.0021821
5.4127e-06 -0.0038315 -0.0024541 -0.0021871 -0.0015142 -0.00077829 0.018088 0.017384
-0.080359 0.18636 0.013107 0.018168
-0.00048834 -0.0014995 -0.0014183 -0.0025213 -0.00038236 -0.0011251 -0.0027495 0.002273
0.013151 0.018075 -0.12844 0.27483
1100000000 0.038978 0.30731 0.035587 -0.0044477 0.0030518 0.0035706 0.0025951 -0.0014597
-0.0022124 -0.0029639 -0.0037983 9.9449e-05
0.035537 -0.0044619 -0.12814 0.37434 0.014839 -0.027329 6.4776e-05 -0.0017947
-0.0030528 -0.00045543 -0.0033241 -0.00054932
0.0030309 0.0035722 0.014753 -0.027422 0.20562 0.27567 -0.0017215 0.00020891
-0.0015591 0.00062494 -0.00085176 -0.00030183
0.0025998 -0.0015007 6.5274e-05 -0.001794 -0.0017283 0.00020816 -0.0077371 0.28525
0.022391 0.005269 -0.0021443 0.001042
-0.0023642 -0.0030062 -0.003125 -0.00047359 -0.001603 0.0006082 0.022448 0.0053255
-0.06173 0.19994 0.018207 0.0088835
-0.0037866 -6.7218e-05 -0.0033645 -0.00060919 -0.00085195 -0.00035649 -0.0021456 0.00095651
0.018019 0.0087615 -0.08172 0.30296
1160000000 0.09041 0.30174 0.023677 -0.020681 0.0026825 -0.00068071 -0.00022041 -0.0025315
-0.0039414 -0.00040464 -0.0010189 0.0035968
0.023665 -0.020624 -0.084433 0.37806 -0.0036888 -0.028557 -0.0017005 -0.0016411
-0.0023802 0.0024848 -0.0013494 0.0014286
0.0026886 -0.00070527 -0.0038105 -0.028587 0.24842 0.245 -0.00068882 0.0016093
-0.00033453 0.001755 -0.00092125 0.00010808
-0.00026204 -0.0025656 -0.0017212 -0.0016511 -0.00068523 0.0016146 0.031573 0.28207
0.019208 -0.0092991 -0.0024056 0.0056632
-0.0039438 -0.00029602 -0.0023378 0.002581 -0.00035358 0.0018001 0.019192 -0.00945
-0.027936 0.2101 0.017013 0.0011154
-0.00083234 0.0038188 -0.0012446 0.0015117 -0.00093094 4.4722e-05 -0.0025234 0.0058449
0.016841 0.00087287 -0.034785 0.30509
1220000000 0.13481 0.28971 0.01022 -0.029769 -0.0015792 -0.00095158 -0.00019285 -0.0011158
-0.0026244 0.0025625 0.0012596 0.0017886
0.010225 -0.02974 -0.040567 0.38955 -0.016471 -0.020779 -0.0024702 0.00040558
0.00015247 0.0027551 -0.00068929 0.0016744
-0.0015886 -0.00097185 -0.016573 -0.020725 0.28751 0.20623 0.00080123 0.0015372
0.0005228 0.0010828 0.00021825 0.00068692
-0.00019447 -0.001121 -0.0024663 0.00039195 0.00081156 0.0015251 0.071191 0.27364
0.0094619 -0.014929 0.002858 0.0016159
-0.0025932 0.0025542 0.00020205 0.0027689 0.00052803 0.0010898 0.009418 -0.014887
-0.0042466 0.21922 0.013454 -0.011441
0.0012197 0.0018987 -0.00074414 0.0016598 0.00015698 0.00060552 0.0029375 0.001592
0.01345 -0.011419 -0.0029403 0.32061
1280000000 0.18411 0.26712 -0.0077442 -0.028111 -0.0019502 0.0023742 -0.0010992 -0.0019267
-0.00048752 0.0029249 0.0025111 0.000927
-0.0077248 -0.028085 0.0049806 0.38038 -0.023115 -0.0085104 -0.00097809 0.0014116
0.0014971 0.0015672 0.00049651 0.0018735
-0.0019335 0.0023883 -0.023174 -0.0084025 0.31836 0.16254 0.0013047 -0.00019488
0.00093419 7.0419e-05 0.00029021 0.00039183
-0.0011608 -0.0019303 -0.00097261 0.0014149 0.0012783 -0.00018975 0.10752 0.2575
0.0010842 -0.016673 0.00054681 -9.4933e-05
-0.00050186 0.0029478 0.0015235 0.0015722 0.00099341 6.6748e-05 0.00109 -0.016742
0.03297 0.22278 0.0032164 -0.013542
0.0024157 0.001042 0.00051823 0.0018916 0.00022893 0.00043639 0.00050938 -2.8548e-05
0.0031915 -0.013502 0.044103 0.32072
1340000000 0.2207 0.23281 -0.01742 -0.018901 0.00072279 0.0043255 -0.0018121 -0.00076719
0.0013872 0.0025337 0.0016146 -0.0014454
-0.017409 -0.018894 0.044084 0.37216 -0.021198 0.0038414 -0.00012058 0.001916
0.0016262 0.00069947 0.0012424 0.00086511
0.00073722 0.0043264 -0.021203 0.0039707 0.34089 0.11438 0.00091733 -0.00080628
0.00060662 -0.0003581 0.0001532 0.00028269
-0.0018146 -0.00074756 -0.0001288 0.001931 0.0009384 -0.00080556 0.14048 0.23754
-0.006909 -0.014247 0.0013317 -0.00012476
0.0014504 0.002542 0.0016445 0.00066198 0.00060655 -0.00034045 -0.0069752 -0.01417
0.063461 0.21798 -0.0026666 -0.012492
0.001571 -0.0015398 0.0012048 0.00088515 0.00016274 0.00028637 0.0013694 -0.0001942
-0.002643 -0.012433 0.082455 0.31556
1400000000 0.25317 0.1944 -0.023091 -0.0076093 0.0049059 0.0030593 -0.0020086 0.00069859
0.002447 0.00065893 0.0001418 -0.0013269
-0.023059 -0.0075767 0.081009 0.35923 -0.014768 0.011824 0.001318 0.0013474
0.0010334 -0.00067626 0.0011449 0.00028246
0.004926 0.0030553 -0.014726 0.011919 0.35422 0.060285 6.6278e-05 -0.0013641
3.8011e-05 -0.00035491 0.00031916 0.00014991
-0.0020025 0.00070316 0.0013347 0.0013558 6.429e-05 -0.0013643 0.17021 0.20909
-0.011886 -0.0085986 -0.000682 -0.0010487
0.0024326 0.00066725 0.0009903 -0.00067964 3.4857e-05 -0.00035209 -0.0119 -0.0085584
0.096558 0.21332 -0.0087366 -0.0082334
0.0001477 -0.0013132 0.0011841 0.00029027 0.00027257 0.00015925 -0.00076299 -0.0010375
-0.0087026 -0.0082715 0.12627 0.30412
1460000000 0.27561 0.15044 -0.020352 0.0043349 0.0053994 -0.0015948 -0.0015733 0.0018101
0.0018356 -0.0005931 -0.00032097 -0.00084176
-0.020303 0.004334 0.11525 0.33767 -0.0064686 0.014855 0.0017007 0.00019377
0.00090977 -0.0010401 0.0011762 -0.00060878
0.005401 -0.0016404 -0.0063931 0.014921 0.36007 0.0051638 -0.0010309 -0.0011541
0.00022061 -6.4083e-05 0.00064072 -0.00041707
-0.0015421 0.0018463 0.0017111 0.00016919 -0.0010238 -0.0011665 0.19723 0.18019
-0.012805 -0.0033922 -0.001207 0.0013298
0.0018271 -0.00061939 0.00091358 -0.0010793 0.00023831 -8.0617e-05 -0.012858 -0.0033625
0.12639 0.19836 -0.010544 -0.003159
-0.00026636 -0.00089591 0.0011993 -0.00061087 0.00064411 -0.00042217 -0.0011641 0.001329
-0.010573 -0.0032671 0.15971 0.28235
1520000000 0.28748 0.1087 -0.014874 0.01002 0.0031546 -0.0039455 0.00015844 0.0025291
0.0017649 -0.0016078 -0.0011621 -0.00015265
-0.014841 0.010016 0.14887 0.32295 0.0010744 0.013043 0.0016039 -0.00078932
0.00013676 -0.00090056 0.00033098 -0.0010074
0.0031741 -0.0039735 0.0011377 0.013041 0.35272 -0.051261 -0.00091634 -0.00037647
0.00058624 -0.0007624 2.2023e-05 -3.7691e-05
0.00015298 0.0025389 0.0016226 -0.00080803 -0.00092365 -0.00037569 0.22113 0.14204
-0.012798 0.0011928 0.00078065 0.001658
0.0017266 -0.0016179 0.00014168 -0.00088676 0.0005828 -0.00074701 -0.012797 0.0012154
0.15409 0.18395 -0.010787 0.00074333
-0.0011829 -0.00015376 0.00032965 -0.0010068 5.984e-05 -2.5951e-05 0.00077905 0.0016935
-0.010761 0.00074101 0.19253 0.26114
1580000000 0.29669 0.06222 -0.0083939 0.013213 -0.00081152 -0.0045968 0.0013727 0.0018794
-0.00044509 -0.0019657 -0.00035617 0.00033475
-0.0083852 0.013196 0.17636 0.2981 0.0048708 0.0084695 0.00046375 -0.0016066
-0.00036566 -0.0011293 -0.00024468 -0.00089027
-0.00088537 -0.0046092 0.0049133 0.008456 0.33203 -0.10886 -0.0015039 0.00038896
-0.00018078 -0.001127 0.00012282 -0.0006226
0.0013597 0.0018516 0.00046932 -0.0016082 -0.0015043 0.00037854 0.23602 0.10227
-0.010366 0.0054433 0.0016057 0.00072376
-0.0004371 -0.0019294 -0.00038218 -0.0011245 -0.00014297 -0.0010983 -0.010329 0.005468
0.17866 0.16571 -0.0088591 0.0061585
-0.00036263 0.00043491 -0.00023258 -0.00089807 0.00014952 -0.00057738 0.0016367 0.00087168
-0.0088862 0.006132 0.22408 0.23371
1640000000 0.29838 0.020442 -0.0017942 0.012388 -0.0026358 -0.0024798 0.0025653 0.0010032
-0.0007253 -0.0011518 -0.00037164 0.00070043
-0.0017847 0.012371 0.20595 0.27279 0.0056685 0.0037865 -0.00072007 -0.0016316
-0.00099851 -0.00053054 -0.0005557 -0.00067444
-0.0026119 -0.0024501 0.0057046 0.0037668 0.30345 -0.1582 -0.00087658 0.0012762
-0.00093538 -0.00095189 -0.00012122 -0.00026489
0.0025927 0.001011 -0.00072405 -0.001633 -0.00086865 0.0012742 0.24883 0.052302
-0.0071019 0.0066839 0.0020971 -0.00052345
-0.00070752 -0.0011309 -0.0010001 -0.00051049 -0.00095956 -0.00092443 -0.0071288 0.0067072
0.20195 0.14062 -0.0048031 0.0083813
-0.00027938 0.00062345 -0.00054483 -0.00065883 -0.0001103 -0.00031174 0.0020873 -0.00056785
-0.0048607 0.008327 0.24918 0.20164
1700000000 0.29053 -0.025193 0.001782 0.0098116 -0.0032973 7.6033e-05 0.0028784 -0.0010881
-0.0018161 -0.0004688 0.00060624 0.0005846
0.0017565 0.009796 0.2241 0.24089 0.0039021 0.00091916 -0.0013712 -0.00058142
-0.00083009 -3.6686e-05 -0.00096194 -0.00040025
-0.003285 6.2496e-05 0.0039053 0.00089469 0.25915 -0.19775 0.00031507 0.0015985
-0.0017057 -0.00033311 -0.00053008 -0.0009348
0.0028804 -0.0011107 -0.0013588 -0.00055502 0.00030966 0.0016029 0.2454 0.0011632
-0.0051218 0.0075985 0.0012118 -0.0019241
-0.0018372 -0.00045296 -0.00083619 -2.4757e-05 -0.0016816 -0.00029997 -0.005036 0.0076328
0.21974 0.11942 -0.00057575 0.0088307
0.00058928 0.00049375 -0.00096623 -0.00038609 -0.00055477 -0.0009923 0.0011494 -0.0019155
-0.00055518 0.0088332 0.26477 0.16692
1760000000 0.27749 -0.073923 0.0043478 0.0066222 -0.0022233 0.00073153 0.0013636 -0.0032535
-0.0010645 0.0006014 0.00046642 -0.00049082
0.0043119 0.0066116 0.24988 0.20059 0.0018735 -0.0009215 -0.0010906 0.00020932
-0.0011711 0.0009214 -0.00057033 0.00057383
-0.002215 0.00075417 0.0018767 -0.00092491 0.21009 -0.23027 0.0011838 0.0013488
-0.001161 0.0013389 -0.001353 -0.00033691
0.0013214 -0.0032807 -0.0010846 0.00022634 0.0011917 0.0013654 0.2352 -0.051226
-0.0024093 0.0073201 -0.0003667 -0.0019808
-0.0010121 0.00059224 -0.0011785 0.00091558 -0.0011587 0.001349 -0.0024018 0.0073607
0.23466 0.082781 0.0031182 0.0066734
0.00048677 -0.00050448 -0.00055135 0.00061843 -0.0013634 -0.00039596 -0.00028966 -0.0020572
0.0031554 0.0066989 0.27652 0.12899
1820000000 0.25177 -0.11101 0.0047721 0.0029873 -0.00014713 0.0023455 -0.00090362 -0.0030684
-0.00086874 0.00063254 5.0093e-05 -0.00017065
0.0047481 0.002984 0.25938 0.17016 -0.000157 -1.2429e-05 -0.0013681 0.00086458
-0.00015453 0.0014044 -0.00048667 0.00057234
-0.00010374 0.0023588 -0.00015547 -1.6502e-05 0.16008 -0.24564 0.0015785 0.00038913
-0.00054246 0.0021628 -0.0013692 0.00053466
-0.00087165 -0.0030103 -0.0013646 0.00087221 0.0015667 0.00037802 0.20394 -0.098772
-0.0010148 0.0062514 -0.0015486 -0.001198
-0.00082669 0.00066149 -0.00013696 0.0013988 -0.00048655 0.0021704 -0.00097717 0.0062838
0.25134 0.051696 0.0041651 0.0034654
2.3027e-05 -0.0001887 -0.00046809 0.00054818 -0.0014625 0.00062201 -0.0016635 -0.0012394
0.0040579 0.0034807 0.278 0.092678
1880000000 0.21593 -0.15075 0.0027877 0.00051988 -0.00038097 0.0021422 -0.0027985 -0.0022841
-0.00025396 0.0014687 0.00040365 -0.00054536
0.0027833 0.00050493 0.26333 0.12351 -0.002103 0.0016493 -0.00017099 0.0017074
0.00072029 0.001405 0.00026442 0.00097755
-0.00040767 0.0021624 -0.00209 0.0016514 0.10819 -0.25463 0.0020306 -0.00096087
0.0013982 0.0021022 -0.00082832 0.0014296
-0.0028499 -0.0022849 -0.00013532 0.0017118 0.0020439 -0.00096794 0.16169 -0.13805
-0.00044776 0.0050864 -0.0021132 0.00073649
-0.00020967 0.0014952 0.00073857 0.0014033 0.0014032 0.0021512 -0.00042382 0.0050657
0.25298 0.017108 0.0039939 0.0016257
0.00031402 -0.00059051 0.0002438 0.00095274 -0.00079587 0.0013855 -0.0019669 0.00088521
0.0040453 0.0015628 0.27679 0.058553
1940000000 0.17597 -0.17552 0.00053212 -0.0014498 0.0013607 0.0019675 -0.0037722 0.00046762
0.0011119 0.001131 -0.00063877 -0.00069761
0.00051924 -0.0014244 0.26335 0.091633 -0.0010532 0.0038231 0.00097894 0.0012986
0.0020622 0.00053024 0.00087788 0.00024287
0.0013743 0.0019414 -0.0010492 0.0038493 0.062366 -0.24842 0.00040126 -0.0023502
0.0025114 0.00061174 0.00044023 0.0015691
-0.0037705 0.00043667 0.00097416 0.0013112 0.00041332 -0.0023987 0.10878 -0.16712
-0.0013069 0.0042093 -0.00082056 0.0018257
0.0010828 0.0010479 0.0020348 0.00050249 0.0024722 0.00059632 -0.0013292 0.0042505
0.25253 -0.023667 0.0032052 -0.0012774
-0.00071713 -0.00076962 0.00087942 0.00021058 0.00047278 0.0015762 -0.00097429 0.0016218
0.0030048 -0.0012592 0.26512 0.022356
2000000000 0.1296 -0.1892 -0.0034873 0.00036567 0.0024518 0.0015042 -0.0023271 0.0037067
0.0010142 0.00035844 -0.00072924 0.00032727
-0.0034911 0.0003753 0.24863 0.056354 -0.00080286 0.0056546 0.0016687 0.00035752
0.0014762 -0.0015293 0.00047016 0.00015968
0.0024931 0.00152 -0.0007582 0.0056496 0.019085 -0.23358 -0.0015472 -0.0014212
0.0020288 -0.0011336 0.0015546 0.0012564
-0.0022585 0.003674 0.0016824 0.00032562 -0.0015481 -0.0013968 0.055481 -0.17569
-0.0025371 0.0048647 0.00033227 0.0020297
0.0010624 0.00039197 0.0014766 -0.0015595 0.0020675 -0.0012234 -0.0024404 0.0046869
