!Keysight Technologies,M9804A,MY58100912,A.14.10.03
!Date: Thursday, April 27, 2023 10:28:33
!Correction: S11(C  6-Port  ) 
!S12(C  6-Port  ) 
!S13(C  6-Port  ) 
!S14(C  6-Port  ) 
!S15(C  6-Port  ) 
!S16(C  6-Port  ) 
!S21(C  6-Port  ) 
!S22(C  6-Port  ) 
!S23(C  6-Port  ) 
!S24(C  6-Port  ) 
!S25(C  6-Port  ) 
!S26(C  6-Port  ) 
!S31(C  6-Port  ) 
!S32(C  6-Port  ) 
!S33(C  6-Port  ) 
!S34(C  6-Port  ) 
!S35(C  6-Port  ) 
!S36(C  6-Port  ) 
!S41(C  6-Port  ) 
!S42(C  6-Port  ) 
!S43(C  6-Port  ) 
!S44(C  6-Port  ) 
!S45(C  6-Port  ) 
!S46(C  6-Port  ) 
!S51(C  6-Port  ) 
!S52(C  6-Port  ) 
!S53(C  6-Port  ) 
!S54(C  6-Port  ) 
!S55(C  6-Port  ) 
!S56(C  6-Port  ) 
!S61(C  6-Port  ) 
!S62(C  6-Port  ) 
!S63(C  6-Port  ) 
!S64(C  6-Port  ) 
!S65(C  6-Port  ) 
!S66(C  6-Port  ) 
!S6P File: Measurement: :
# Hz S  RI   R 50
500000000 -0.33664 -0.035223 -0.0095112 -0.0034639 -0.0077355 0.011565 -0.0033153 0.011538
0.012181 0.0044588 -0.0032912 0.0082087
-0.0094944 -0.0034064 -0.41877 -0.049925 0.0077162 -0.011643 0.0016113 0.011786
0.0074029 0.0024823 0.0011805 0.013145
-0.0076269 0.011624 0.0077021 -0.011679 -0.26422 0.21074 0.0069619 0.0028372
-0.00012442 0.0086838 0.00081765 0.01171
-0.0032742 0.011574 0.0016433 0.011802 0.0069612 0.0028417 -0.32666 0.046875
-0.019438 -0.0041767 0.017862 0.024914
0.012309 0.0044585 0.0073938 0.002457 -0.00011284 0.0086922 -0.019438 -0.0041658
-0.22441 -0.18553 -0.027031 0.0052766
-0.0032901 0.0083297 0.0012248 0.013159 0.00081702 0.0117 0.017861 0.0249
-0.02702 0.0052725 -0.27242 -0.11385
560000000 -0.31528 0.12446 -0.023646 -0.062946 0.00014057 0.011871 0.0064725 0.0097091
0.010661 0.0040403 0.0098779 0.0070209
-0.023626 -0.063064 -0.37626 0.10827 -0.041987 -0.036813 0.013571 0.003739
-0.013573 -0.0049106 0.0039907 -0.00052084
0.00016277 0.011896 -0.042144 -0.036751 -0.18243 0.25845 -0.00081019 -0.0049865
0.019075 0.004263 0.0071022 -0.0059954
0.0065969 0.0096538 0.013581 0.0037352 -0.0008166 -0.0049947 -0.30236 0.13566
0.0041474 -0.024853 0.0044101 -0.019662
0.010778 0.004085 -0.01362 -0.0049085 0.019077 0.0042557 0.0041338 -0.024853
-0.28425 -0.0099662 0.0081625 -0.049648
0.0097331 0.0070513 0.0039718 -0.00057749 0.0071023 -0.0059872 0.0043995 -0.019657
0.0081877 -0.049663 -0.33063 0.031945
620000000 -0.2729 0.10899 -0.023079 0.007133 0.0032932 0.0083768 0.006662 -0.0054848
0.011357 -0.00078544 0.00046474 -0.0023033
-0.02307 0.007139 -0.40246 0.062079 -0.018913 -0.00019437 -0.0012373 -0.0019259
0.010144 -0.0071835 0.0011199 -0.00272
0.0032492 0.0084406 -0.018926 -0.00014317 -0.15289 0.26719 -0.0015683 -0.0051159
-0.0039751 -0.0032327 0.0081707 -0.0035616
0.0066778 -0.0055368 -0.0012368 -0.001914 -0.0015655 -0.0051145 -0.26149 0.14558
-0.038391 -0.018646 0.014293 0.02362
0.01132 -0.00098737 0.010118 -0.0072171 -0.0039758 -0.0032317 -0.038407 -0.018617
-0.20375 -0.050979 -0.039704 0.014213
0.00067188 -0.0023045 0.0010965 -0.0027246 0.0081739 -0.0035552 0.014314 0.023624
-0.039713 0.014182 -0.24922 -0.0041822
680000000 -0.23274 0.19292 -0.027982 -0.014134 0.0046094 0.0049414 0.00076157 -0.0075883
-0.0033146 -0.010896 0.004199 -0.0064171
-0.027943 -0.014104 -0.38719 0.15888 -0.032777 -0.0013464 -0.0017423 -0.00028612
-0.0028462 -0.0088227 -0.0011623 -0.0018888
0.0046151 0.0049415 -0.032811 -0.0012612 -0.10227 0.28703 -0.00078076 0.00021143
-0.0022744 0.0007848 -0.0029657 -0.0093604
0.00075462 -0.0076601 -0.0017508 -0.00026566 -0.00077974 0.00021541 -0.21931 0.19485
-0.023452 -0.0085613 -0.008728 -0.010657
-0.0034074 -0.01089 -0.0028859 -0.0088215 -0.0022771 0.00079061 -0.023472 -0.008541
-0.25169 0.046578 -0.0055389 -0.0094339
0.0041788 -0.0064194 -0.0011612 -0.0018942 -0.0029604 -0.0093495 -0.0087159 -0.010634
-0.0055354 -0.0094326 -0.25882 0.098362
740000000 -0.19012 0.18754 -0.038742 0.026348 0.012328 -0.0051912 -0.00069698 -0.0039336
-0.0045087 -0.0025046 -0.0060982 0.0034237
-0.038695 0.026206 -0.3349 0.17757 -0.034911 0.035046 -0.0007335 -0.0064684
-0.011855 0.0077428 -0.0023943 -0.0059996
0.012354 -0.0052027 -0.034825 0.035174 -0.06869 0.28609 -0.0014099 0.0033987
-0.0024423 -0.0039518 -0.0012433 0.00032958
-0.00069728 -0.0039827 -0.00073627 -0.006472 -0.001414 0.0034008 -0.20229 0.20245
-0.042994 -0.0083944 0.021877 0.013051
-0.0045674 -0.0025878 -0.011861 0.0078308 -0.0024678 -0.0039842 -0.043042 -0.0083277
-0.15684 0.072151 -0.041847 -0.000212
-0.0060533 0.003558 -0.0024155 -0.0060298 -0.0012305 0.00034213 0.02188 0.013
-0.041856 -0.00026437 -0.24621 0.10386
800000000 -0.15799 0.22799 -0.022699 0.01709 0.0051406 -0.010404 -0.0048086 -0.0020511
-0.0038814 0.0026293 0.0044847 0.001059
-0.022682 0.017141 -0.33774 0.24802 -0.0078833 0.034016 -0.0021388 0.0022157
-0.00048364 0.0034007 0.0011584 0.0052687
0.0051072 -0.01037 -0.0077906 0.034067 -0.027425 0.30916 0.0011466 0.0014982
0.00076847 0.0035703 -0.0018507 0.0010158
-0.0048449 -0.0020118 -0.0021312 0.0022272 0.0011488 0.0014985 -0.17448 0.23034
-0.028468 0.012284 0.012738 -0.0096679
-0.0038676 0.0027049 -0.00046805 0.0033924 0.00077584 0.0035707 -0.028454 0.012346
-0.20154 0.094821 -0.017539 0.016986
0.0044708 0.00098152 0.0011818 0.0052845 -0.001853 0.00104 0.012736 -0.0096814
-0.017554 0.016945 -0.23814 0.15543
860000000 -0.12323 0.24915 -0.017367 0.031149 -0.0034769 -0.0096277 -0.0025007 0.001296
0.0041138 0.0049665 -0.002954 -0.0027121
-0.017334 0.031094 -0.28981 0.29015 0.0080303 0.034023 0.00021254 0.0020987
0.0042392 0.000285 0.0033945 0.00036802
-0.0035093 -0.009606 0.0081447 0.034029 0.021069 0.31692 -0.00042585 -0.00030803
0.0028434 -0.001551 0.0015332 0.0044449
-0.0025274 0.0012335 0.00020779 0.0021008 -0.0004243 -0.0003085 -0.13867 0.24223
-0.018113 0.018649 -0.0062812 -0.0087537
0.0041273 0.0049189 0.004241 0.00024365 0.0028474 -0.0015527 -0.018099 0.018682
-0.15221 0.14352 -0.02465 0.01479
-0.0029377 -0.0027376 0.0034166 0.00037679 0.0015338 0.0044597 -0.0062821 -0.0087539
-0.024639 0.01477 -0.18837 0.19746
920000000 -0.097784 0.2726 0.005173 0.037829 -0.0092222 -0.0040676 -0.0018082 0.0023462
0.001368 0.0015256 0.0024246 -0.0014006
0.0051468 0.037815 -0.26061 0.31104 0.027879 0.021651 0.001603 0.0010805
0.0067555 -0.00067937 0.0038341 -0.003111
-0.0092674 -0.0040378 0.027985 0.021591 0.06746 0.31711 0.0017372 -0.00015028
0.0011961 -0.00043874 0.00088789 -0.0010393
-0.001809 0.0023509 0.0015994 0.0010691 0.0017348 -0.00015017 -0.11452 0.25867
-0.010617 0.03003 0.0025508 -0.0062581
0.0014386 0.0015283 0.0067458 -0.0007204 0.0011975 -0.0004425 -0.010571 0.030074
-0.14197 0.14951 -0.0026981 0.027079
0.0024211 -0.0014704 0.0038077 -0.0031141 0.00088656 -0.0010473 0.0025395 -0.0062659
-0.0027158 0.027061 -0.19367 0.21169
980000000 -0.049912 0.29224 0.017893 0.029977 -0.0085936 0.0047327 0.002522 0.0037958
0.0039112 -0.0017704 -0.0030139 -0.002042
0.017876 0.029982 -0.20751 0.34476 0.032667 0.0046228 0.0019869 9.6909e-06
0.0010531 -0.00613 -0.00064435 -0.0020912
-0.0085787 0.004748 0.03272 0.0045339 0.11369 0.31011 0.00042799 -0.0011612
8.9879e-05 -0.0020872 0.0015266 5.8584e-06
0.0025668 0.0037849 0.001991 -1.5912e-05 0.00043116 -0.0011712 -0.076216 0.27041
0.0070511 0.028776 -0.0091135 -0.0064807
0.0039448 -0.0018018 0.0010072 -0.0061671 8.6914e-05 -0.0020868 0.0071068 0.028773
-0.11078 0.17746 0.0044837 0.018796
-0.0030397 -0.0020279 -0.0006656 -0.0020782 0.0015267 2.4217e-08 -0.009117 -0.0064705
0.0044728 0.018781 -0.1505 0.25642
1040000000 -0.0070064 0.30031 0.033171 0.017848 -0.00090775 0.0067884 0.0028381 0.00064209
-8.7612e-05 -0.0037662 -0.00056955 -0.0014808
0.033139 0.017854 -0.17193 0.35762 0.028898 -0.014656 0.0015057 -0.0016659
-0.0025081 -0.0023242 -0.0013626 -0.002704
-0.00089065 0.0067894 0.028883 -0.014764 0.15953 0.29616 -0.00049027 -0.0013786
-0.0015317 -0.00080105 -0.00035577 -0.001174
0.0028369 0.00063535 0.001488 -0.0016862 -0.00048143 -0.0013837 -0.048551 0.28025
0.018041 0.017319 -0.0029053 0.0022122
-0.0001011 -0.0037182 -0.0025545 -0.0023242 -0.0015255 -0.00080072 0.018068 0.017287
-0.079867 0.18661 0.01311 0.017886
-0.0005822 -0.0015006 -0.0013923 -0.0026647 -0.00034818 -0.0011787 -0.0028983 0.0022189
0.013093 0.017887 -0.12854 0.2753
1100000000 0.03868 0.30731 0.035543 -0.0044525 0.0030288 0.0036077 0.0025655 -0.0015133
-0.0021988 -0.0029915 -0.0038048 9.4614e-05
0.035508 -0.0044139 -0.12828 0.3743 0.014887 -0.027351 1.947e-05 -0.001793
-0.0030592 -0.00041304 -0.0032669 -0.00054376
0.0030278 0.0035944 0.014795 -0.027432 0.20553 0.27569 -0.0016888 0.00021056
-0.0016592 0.00064611 -0.00089135 -0.00039529
0.0025628 -0.0014757 7.9438e-06 -0.0017977 -0.0016926 0.00020981 -0.0078988 0.28519
0.022431 0.0053039 -0.002158 0.0010085
-0.0022253 -0.0029468 -0.0030828 -0.00040506 -0.0016542 0.0006526 0.022444 0.0052728
-0.061371 0.20018 0.018229 0.0087518
-0.0038023 0.00010983 -0.0032723 -0.00051384 -0.00088146 -0.00039627 -0.0021671 0.0010123
0.018223 0.0087495 -0.081619 0.30311
1160000000 0.090236 0.30174 0.023678 -0.020607 0.0026939 -0.00063005 -0.00022048 -0.0025922
-0.0039121 -0.00040898 -0.00092242 0.0037571
0.023668 -0.020571 -0.084594 0.37797 -0.0036354 -0.028567 -0.0016994 -0.0016202
-0.0023443 0.0025269 -0.0012048 0.001485
0.0027008 -0.00064278 -0.0037472 -0.028566 0.24825 0.24502 -0.00060407 0.0016396
-0.00036435 0.0017313 -0.00097136 2.5703e-05
-0.00022291 -0.0025792 -0.0017145 -0.0016186 -0.00060918 0.0016399 0.031454 0.28208
0.019237 -0.0092031 -0.0024736 0.0056592
-0.0039239 -0.00037989 -0.0023547 0.0025311 -0.00036522 0.0017388 0.019228 -0.0092375
-0.02784 0.20975 0.016835 0.00094147
-0.00091448 0.0037608 -0.0012102 0.0015089 -0.00096632 1.9596e-05 -0.0024666 0.0056688
0.016835 0.00092808 -0.034583 0.30528
1220000000 0.1346 0.28991 0.010268 -0.029611 -0.0015679 -0.00094451 -0.00019259 -0.0011011
-0.0024649 0.0025315 0.001279 0.0017404
0.010281 -0.029585 -0.040698 0.38953 -0.016456 -0.020791 -0.0024428 0.00043544
0.00020256 0.002733 -0.0006942 0.0016546
-0.0015642 -0.00094456 -0.016567 -0.020735 0.28743 0.20634 0.00082392 0.0015031
0.00053641 0.001072 0.00017059 0.00071882
-0.00020129 -0.0011039 -0.0024403 0.00044433 0.00081718 0.0015094 0.071025 0.27358
0.0095273 -0.014908 0.0028618 0.001616
-0.0024275 0.0025614 0.00022182 0.0027291 0.0005353 0.0010672 0.0095083 -0.014923
-0.0043114 0.21914 0.013367 -0.011554
0.0013026 0.0017573 -0.00069159 0.0016685 0.00018532 0.0007122 0.0028655 0.0016133
0.013365 -0.011547 -0.0027744 0.32081
1280000000 0.18385 0.26716 -0.0076407 -0.028013 -0.0019162 0.0023937 -0.0010999 -0.0019407
-0.0005353 0.0029229 0.0024129 0.00096564
-0.007603 -0.027981 0.0048056 0.38029 -0.023089 -0.0084777 -0.0009755 0.0014336
0.0015175 0.0015273 0.00045026 0.0019108
-0.0018916 0.0024095 -0.023167 -0.0083839 0.31825 0.16264 0.0013108 -0.00014213
0.00097846 6.7636e-05 0.0002955 0.00038399
-0.0010854 -0.0019371 -0.00098045 0.0014421 0.0013064 -0.00013596 0.1074 0.25749
0.001132 -0.016727 0.00057019 -6.4652e-05
-0.00052706 0.0029104 0.0015252 0.0015354 0.00098356 6.0295e-05 0.001105 -0.01673
0.032822 0.22284 0.0030802 -0.013613
0.0024466 0.00094487 0.00046539 0.0019004 0.00029856 0.00038319 0.00057271 -6.51e-05
0.0030863 -0.013609 0.044444 0.32093
1340000000 0.22044 0.23306 -0.017207 -0.018886 0.00072852 0.0043067 -0.0018518 -0.00073333
0.00144 0.0024943 0.0016063 -0.0014279
-0.01717 -0.01887 0.043866 0.37209 -0.021191 0.0038546 -8.6718e-05 0.0019483
0.0016457 0.00068493 0.0012721 0.00092613
0.00073186 0.0043097 -0.021193 0.003963 0.34078 0.11453 0.00093271 -0.00078398
0.00061348 -0.00034512 0.00015558 0.0002828
-0.0018565 -0.00071868 -7.381e-05 0.0019477 0.00092745 -0.00077404 0.14027 0.23756
-0.0068671 -0.01428 0.0013067 -0.00012092
0.0014646 0.0024975 0.0016489 0.00068053 0.00061251 -0.00034557 -0.0068954 -0.014274
0.063288 0.21815 -0.0027325 -0.012534
0.0015857 -0.0014328 0.0012834 0.00092999 0.00015468 0.00028234 0.0013073 -0.00012782
-0.002736 -0.012541 0.08274 0.3155
1400000000 0.25293 0.1946 -0.022928 -0.0077384 0.0048905 0.0030557 -0.0019501 0.00068107
0.0024239 0.0006554 0.00019538 -0.001286
-0.02289 -0.007738 0.080818 0.35917 -0.014742 0.011828 0.0013052 0.0013077
0.0010061 -0.00068563 0.001167 0.00025864
0.004889 0.0030315 -0.014699 0.011919 0.35421 0.060463 0.00010148 -0.0013528
5.4309e-06 -0.00036005 0.00031511 0.00014455
-0.0019549 0.00069352 0.0013162 0.0012977 9.6435e-05 -0.0013569 0.1701 0.20923
-0.011903 -0.0086644 -0.00065603 -0.00099146
0.0024223 0.00064523 0.00099518 -0.00069291 3.3126e-06 -0.00036 -0.011921 -0.0086328
0.096295 0.21342 -0.0088797 -0.0082644
0.00018618 -0.0012885 0.0011656 0.00024906 0.0003166 0.00014191 -0.00065497 -0.00099539
-0.0088812 -0.0082681 0.12679 0.30399
1460000000 0.27535 0.1506 -0.020253 0.004163 0.005374 -0.0015979 -0.0015096 0.0017547
0.0018406 -0.00063292 -0.00030951 -0.00083262
-0.020227 0.0041437 0.11499 0.33762 -0.0064467 0.014831 0.0017054 0.0002163
0.00092344 -0.0010561 0.0011944 -0.00063349
0.0053838 -0.0016135 -0.0063709 0.014879 0.35996 0.0053206 -0.0010087 -0.001167
0.00020978 -5.8708e-05 0.00067092 -0.00039096
-0.0015084 0.0017559 0.0016949 0.0002111 -0.0010048 -0.001172 0.19713 0.18032
-0.012855 -0.0034369 -0.001235 0.0013642
0.0018337 -0.00063999 0.00091026 -0.001069 0.00020689 -6.164e-05 -0.012875 -0.0034078
0.12616 0.19853 -0.010603 -0.00315
-0.0003359 -0.00086948 0.0011877 -0.00063321 0.00067322 -0.00039473 -0.0012279 0.0013637
-0.010595 -0.0031467 0.16007 0.28225
1520000000 0.28737 0.10905 -0.014907 0.0098242 0.0030863 -0.0039831 0.00011621 0.0025502
0.0017259 -0.0015713 -0.0011092 -0.00015089
-0.014893 0.0098129 0.14864 0.32299 0.0010639 0.013001 0.0016132 -0.00076664
0.00016074 -0.0008995 0.00033252 -0.0010187
0.0030539 -0.0039875 0.0011413 0.013013 0.35273 -0.050967 -0.00090007 -0.00041714
0.00054868 -0.00075832 -7.749e-06 -3.8713e-05
0.00012595 0.0025526 0.0016115 -0.00077977 -0.00090006 -0.00041615 0.22116 0.14222
-0.012816 0.0011755 0.0007977 0.0017426
0.0017199 -0.0015905 0.00015412 -0.00090718 0.00055143 -0.00076213 -0.012816 0.0012127
0.1541 0.18407 -0.010848 0.0008198
-0.001107 -0.00013587 0.00032431 -0.0010099 -7.4092e-06 -3.6773e-05 0.00078979 0.0017268
-0.010842 0.00081291 0.19279 0.261
1580000000 0.29656 0.06257 -0.0085113 0.013068 -0.00085076 -0.0046026 0.0013404 0.0018234
-0.00042197 -0.0019889 -0.00039042 0.00034987
-0.0085157 0.013063 0.17615 0.29814 0.0048468 0.0084487 0.00047426 -0.0015542
-0.00038394 -0.0010771 -0.00024509 -0.000871
-0.00087104 -0.0046115 0.0048952 0.0084346 0.332 -0.10872 -0.0015094 0.00036744
-0.00019003 -0.0010829 0.00016699 -0.00053824
0.001342 0.0018201 0.00046492 -0.0015607 -0.0015108 0.00036351 0.2361 0.10232
-0.010432 0.0054236 0.0016963 0.00077242
-0.00044695 -0.0019873 -0.00039618 -0.0010762 -0.00019897 -0.0010922 -0.010425 0.005459
0.17867 0.16588 -0.0088384 0.0062002
-0.00039671 0.00034474 -0.00025491 -0.00086964 0.00016048 -0.00053598 0.0016989 0.00076517
-0.0088375 0.0062057 0.22415 0.23336
1640000000 0.29836 0.020777 -0.0019579 0.01233 -0.002626 -0.0024376 0.0025282 0.0010062
-0.00072655 -0.0011477 -0.00031382 0.00065825
-0.0019657 0.012311 0.20567 0.27288 0.0056641 0.0037488 -0.00068111 -0.00164
-0.00097517 -0.00051394 -0.00054321 -0.0006538
-0.0026387 -0.0024296 0.0056843 0.0037264 0.3035 -0.15791 -0.00088269 0.0012767
-0.00098606 -0.00091961 -8.3649e-05 -0.00030901
0.0025426 0.00099703 -0.00070133 -0.0016477 -0.0008807 0.0012745 0.24887 0.052288
-0.0071466 0.0067316 0.0021052 -0.00053619
-0.00073199 -0.0011432 -0.00098294 -0.00051098 -0.00098529 -0.00092433 -0.007134 0.006765
0.20196 0.14078 -0.0047673 0.0083731
-0.00031545 0.00067197 -0.00054592 -0.00064717 -8.2734e-05 -0.00030738 0.0020985 -0.00054047
-0.0047747 0.0083744 0.2493 0.20151
1700000000 0.29059 -0.024926 0.0016347 0.009858 -0.00326 5.0837e-05 0.002903 -0.0010726
-0.0018179 -0.00051746 0.00060887 0.00048657
0.001626 0.0098506 0.2239 0.24103 0.0038744 0.00094514 -0.0013601 -0.00058711
-0.00082658 -1.8896e-05 -0.00092294 -0.00040536
-0.0032715 7.0872e-05 0.0038816 0.00092846 0.25927 -0.19751 0.00032081 0.0016203
-0.0016978 -0.00030914 -0.00056658 -0.0009545
0.0028974 -0.0010829 -0.0013765 -0.00058426 0.00032295 0.0016212 0.24547 0.001151
-0.0050889 0.0076654 0.0012455 -0.0019395
-0.0018304 -0.00051355 -0.00083259 -6.2579e-06 -0.0017009 -0.00030527 -0.005068 0.0076818
0.21977 0.11954 -0.00049024 0.0088254
0.00062434 0.00049012 -0.00092968 -0.00040095 -0.0005733 -0.00095422 0.0012432 -0.0019349
-0.00049147 0.0088228 0.26477 0.16676
1760000000 0.27748 -0.07371 0.0042441 0.0067309 -0.0021688 0.00071065 0.0013638 -0.0032568
-0.0010557 0.00057979 0.000466 -0.00045648
0.0042386 0.0067227 0.24963 0.2007 0.0018516 -0.00089917 -0.0011229 0.00017064
-0.0011609 0.00091519 -0.00058071 0.00054312
-0.0021566 0.00073696 0.0018436 -0.00091627 0.2102 -0.23022 0.0011256 0.001307
-0.0012108 0.0012901 -0.0013157 -0.00037052
0.0013642 -0.0032733 -0.001127 0.00017335 0.0011192 0.0013017 0.23516 -0.051336
-0.0023526 0.007431 -0.00037687 -0.0020601
-0.0010531 0.00060473 -0.0011571 0.00093321 -0.0011989 0.0012915 -0.0023401 0.007441
0.23469 0.082902 0.0032041 0.0066068
0.00045748 -0.00047328 -0.0005734 0.00054808 -0.001323 -0.00037145 -0.00037226 -0.0020552
0.0031992 0.0066117 0.27652 0.12866
1820000000 0.25185 -0.11083 0.0047268 0.0031167 -0.00013187 0.0023625 -0.00086784 -0.0031055
-0.00086189 0.00062062 7.8036e-05 -0.00018546
0.004723 0.0031174 0.25919 0.17037 -0.00015784 2.5693e-05 -0.0013824 0.00086088
-0.00011656 0.0014015 -0.00048546 0.00054167
-0.00013464 0.0023694 -0.00015546 3.6034e-05 0.16028 -0.24553 0.0015379 0.00046696
-0.00051175 0.0020954 -0.0014229 0.00049812
-0.00087682 -0.0031059 -0.0013875 0.00087817 0.0015354 0.00045959 0.20373 -0.098709
-0.00098338 0.0062214 -0.0015239 -0.0012417
-0.00085444 0.00062519 -0.00010554 0.0014039 -0.00050312 0.002091 -0.0009716 0.0062266
0.2513 0.051752 0.0041182 0.0034822
9.2528e-05 -0.00018437 -0.00047875 0.00054544 -0.0014161 0.00050802 -0.0015273 -0.0012349
0.0041196 0.003488 0.27782 0.09245
1880000000 0.21597 -0.15046 0.0027835 0.000659 -0.00039624 0.0021211 -0.0028262 -0.0022734
-0.0002627 0.0014779 0.00036457 -0.00058888
0.0027874 0.00065617 0.26317 0.12368 -0.0020743 0.0016662 -0.00019383 0.001705
0.00069087 0.0013848 0.00024669 0.00097414
-0.00037515 0.0021377 -0.0020659 0.0016826 0.1084 -0.25462 0.0020067 -0.0009953
0.0013635 0.0021189 -0.00084249 0.0013657
-0.0028527 -0.0022755 -0.00018559 0.0017102 0.0020005 -0.00099935 0.1618 -0.1381
-0.00041983 0.004998 -0.0021634 0.00072362
-0.00024812 0.0014659 0.00070862 0.0013754 0.0013632 0.0021116 -0.00040922 0.0049999
0.25298 0.017263 0.0039801 0.0016267
0.00035078 -0.000597 0.00025589 0.00097453 -0.00084098 0.0013659 -0.0021558 0.00073048
0.003977 0.0016228 0.27675 0.05826
1940000000 0.1759 -0.17532 0.00056842 -0.0013715 0.0013273 0.001937 -0.0037467 0.00052853
0.001103 0.0010989 -0.00061858 -0.00071596
0.0005795 -0.0013732 0.26315 0.091869 -0.001076 0.0038483 0.00095331 0.0013822
0.0020252 0.00054898 0.00089807 0.00024181
0.0013365 0.0019235 -0.0010381 0.0038606 0.062387 -0.24832 0.00041929 -0.0023192
0.0024327 0.00066642 0.00035706 0.0015632
-0.0037288 0.00053088 0.00096615 0.0013751 0.00042316 -0.0023362 0.10854 -0.1672
-0.0013006 0.0041733 -0.0010639 0.0016837
0.0011058 0.0010774 0.0020318 0.00052582 0.0024448 0.00065548 -0.0012936 0.004183
0.2526 -0.02351 0.0030604 -0.0013414
-0.000632 -0.0007194 0.00090519 0.000233 0.00034832 0.0015709 -0.0010597 0.0016938
0.0030632 -0.0013366 0.26491 0.022344
2000000000 0.12979 -0.18879 -0.0034122 0.00043975 0.0024359 0.0015088 -0.0022946 0.0035773
0.0010394 0.00037952 -0.0007307 0.00032609
-0.0034074 0.00045365 0.2485 0.056599 -0.00077929 0.0056535 0.0016824 0.00033818
0.0014783 -0.0014822 0.00053312 0.00015312
0.0024253 0.0014933 -0.00072942 0.0056642 0.019337 -0.23367 -0.001491 -0.0014482
0.0020928 -0.0011416 0.0015782 0.0013066
-0.0022787 0.0035854 0.0016843 0.0003235 -0.0014875 -0.0014427 0.055384 -0.17547
-0.0025535 0.004634 0.00035251 0.002114
0.0010491 0.00035733 0.0014672 -0.0014962 0.0020868 -0.0011521 -0.0025364 0.0046444
0.24385 -0.058545 0.00010468 -0.0019771
