!Keysight Technologies,M9804A,MY58100912,A.14.10.03
!Date: Thursday, April 27, 2023 10:28:33
!Correction: S11(C  6-Port  ) 
!S12(C  6-Port  ) 
!S13(C  6-Port  ) 
!S14(C  6-Port  ) 
!S15(C  6-Port  ) 
!S16(C  6-Port  ) 
!S21(C  6-Port  ) 
!S22(C  6-Port  ) 
!S23(C  6-Port  ) 
!S24(C  6-Port  ) 
!S25(C  6-Port  ) 
!S26(C  6-Port  ) 
!S31(C  6-Port  ) 
!S32(C  6-Port  ) 
!S33(C  6-Port  ) 
!S34(C  6-Port  ) 
!S35(C  6-Port  ) 
!S36(C  6-Port  ) 
!S41(C  6-Port  ) 
!S42(C  6-Port  ) 
!S43(C  6-Port  ) 
!S44(C  6-Port  ) 
!S45(C  6-Port  ) 
!S46(C  6-Port  ) 
!S51(C  6-Port  ) 
!S52(C  6-Port  ) 
!S53(C  6-Port  ) 
!S54(C  6-Port  ) 
!S55(C  6-Port  ) 
!S56(C  6-Port  ) 
!S61(C  6-Port  ) 
!S62(C  6-Port  ) 
!S63(C  6-Port  ) 
!S64(C  6-Port  ) 
!S65(C  6-Port  ) 
!S66(C  6-Port  ) 
!S6P File: Measurement: :
# Hz S  RI   R 50
500000000 -0.3372 -0.03526 -0.0099313 -0.0031564 -0.0076377 0.012238 -0.0033828 0.011691
0.012051 0.0050132 -0.0031704 0.0082871
-0.0099797 -0.0031062 -0.41871 -0.050184 0.0076617 -0.011316 0.0023356 0.011334
0.0072189 0.0025327 0.001323 0.013054
-0.0077659 0.012042 0.0075494 -0.011835 -0.26437 0.21084 0.0071465 0.0023277
-7.6873e-05 0.0085408 0.00093082 0.011549
-0.0022533 0.011662 0.0027512 0.011031 0.0070727 0.0029521 -0.32629 0.045685
-0.019576 -0.0044377 0.017762 0.024965
0.011572 0.0052776 0.0077811 0.0025403 -0.00033772 0.0087994 -0.018268 -0.0042171
-0.22449 -0.18578 -0.027493 0.0054588
-0.0020132 0.0088134 0.002569 0.012398 0.0011083 0.011928 0.019497 0.024326
-0.027122 0.0049546 -0.27246 -0.11376
560000000 -0.31463 0.12496 -0.023195 -0.063135 -0.00018951 0.011742 0.0061224 0.0089808
0.010558 0.0038681 0.009798 0.0072368
-0.023119 -0.063183 -0.37485 0.10843 -0.041905 -0.036779 0.012862 0.0040006
-0.013648 -0.0045737 0.0039641 -0.00062286
0.00035141 0.012101 -0.042072 -0.036513 -0.18251 0.25809 -0.0015157 -0.0054288
0.019341 0.004421 0.0070856 -0.0059585
0.0075372 0.0092351 0.014004 0.003453 -0.00047574 -0.0043955 -0.30171 0.1378
0.0042954 -0.024457 0.0045435 -0.019655
0.010159 0.0025658 -0.01418 -0.0048132 0.018476 0.0037318 0.0044594 -0.025788
-0.28392 -0.010325 0.008233 -0.049765
0.0097781 0.0062377 0.0042351 -0.0014556 0.0075089 -0.0067949 0.0037272 -0.019288
0.0075021 -0.0502 -0.33077 0.032033
620000000 -0.27338 0.10948 -0.022903 0.0072908 0.0037919 0.0084926 0.0074893 -0.0049576
0.011284 -0.00097591 0.00040309 -0.0021997
-0.02282 0.0074078 -0.40235 0.062179 -0.018686 -0.00033466 -0.00070561 -0.0018
0.010155 -0.0070804 0.0011406 -0.0026665
0.0034902 0.0088074 -0.01865 -0.0002066 -0.15247 0.26714 -0.0014956 -0.0051535
-0.0036775 -0.0029854 0.0083276 -0.0037228
0.0068653 -0.0044859 -0.0011715 -0.0020983 -0.00098946 -0.0049555 -0.26362 0.14366
-0.038158 -0.018183 0.014362 0.023628
0.012658 -0.00091594 0.010224 -0.0070396 -0.0043649 -0.0035956 -0.03613 -0.017436
-0.20411 -0.051607 -0.03965 0.014344
0.00079133 -0.002132 0.0010532 -0.0028665 0.008957 -0.0034253 0.013956 0.020658
-0.040349 0.013955 -0.24921 -0.0036261
680000000 -0.23214 0.19372 -0.027904 -0.013968 0.004747 0.004979 0.0016632 -0.0071299
-0.0034006 -0.011038 0.0042325 -0.0064637
-0.027913 -0.01398 -0.38736 0.15916 -0.032951 -0.0012142 -0.0017174 -1.1003e-05
-0.0026719 -0.0087466 -0.001103 -0.0019085
0.0047675 0.0048707 -0.032899 -0.0011712 -0.10249 0.28713 -0.0008445 0.00015832
-0.0023109 0.00076604 -0.0029623 -0.009357
0.00031847 -0.0087633 -0.0020392 -0.00054916 -0.00094965 2.6207e-05 -0.21852 0.19433
-0.02332 -0.008614 -0.008716 -0.010711
-0.0038784 -0.010837 -0.0027742 -0.0087907 -0.0024228 0.00089406 -0.024084 -0.0088529
-0.25139 0.047006 -0.0056149 -0.0094645
0.0030104 -0.0058191 -0.0011951 -0.0014727 -0.0031785 -0.0097163 -0.0090127 -0.008304
-0.0055978 -0.0093932 -0.259 0.098292
740000000 -0.18942 0.18773 -0.038707 0.026166 0.012568 -0.0054094 -0.0005992 -0.0040747
-0.004704 -0.0025783 -0.0059328 0.0034452
-0.038731 0.026201 -0.33537 0.17761 -0.034785 0.034854 -0.00043069 -0.0062435
-0.011571 0.0080668 -0.0024092 -0.0060597
0.012769 -0.0052207 -0.034754 0.035146 -0.068426 0.28625 -0.0016356 0.0035764
-0.0025236 -0.0039925 -0.0011859 0.00031928
-0.00051678 -0.0039454 -0.00054943 -0.0062574 -0.001309 0.0036283 -0.20128 0.20215
-0.042862 -0.0084788 0.021913 0.013132
-0.0048943 -0.0026472 -0.012192 0.007129 -0.00275 -0.0045089 -0.043363 -0.00763
-0.15671 0.071553 -0.04188 -0.00065179
-0.0059611 0.0033227 -0.0023988 -0.0056539 -0.0010605 0.0010897 0.023467 0.013074
-0.041763 -0.00058726 -0.24641 0.10365
800000000 -0.1581 0.22837 -0.022768 0.016985 0.0052803 -0.010047 -0.0048534 -0.0021696
-0.004068 0.0025538 0.0045123 0.0011261
-0.02291 0.016989 -0.33781 0.24802 -0.0079021 0.034097 -0.002313 0.0024115
-0.00037242 0.0033693 0.0012022 0.0053148
0.0048961 -0.010152 -0.00788 0.034097 -0.027428 0.30934 0.0011203 0.0015471
0.00076498 0.0034983 -0.0018049 0.0010522
-0.0053 -0.0020825 -0.0022817 0.0023325 0.00098867 0.0015398 -0.1747 0.23017
-0.028501 0.012324 0.012712 -0.0097341
-0.0042217 0.0028226 -0.00049153 0.0033705 0.0010847 0.0036481 -0.028841 0.01241
-0.20099 0.094582 -0.017483 0.016974
0.0036731 0.0013439 0.0010082 0.0055192 -0.0021965 0.00098724 0.012546 -0.0093908
-0.017476 0.017028 -0.23811 0.15523
860000000 -0.12293 0.24936 -0.017363 0.03123 -0.0034846 -0.0096898 -0.002494 0.0016447
0.0041611 0.0049427 -0.0030336 -0.0027163
-0.01737 0.031157 -0.2898 0.29042 0.0080673 0.033979 0.00018437 0.0021555
0.0043274 0.00032086 0.0034522 0.00036692
-0.003578 -0.009651 0.0081053 0.034085 0.021206 0.31701 -0.00025932 -0.00029739
0.0029118 -0.0015864 0.001521 0.0044209
-0.0024811 0.0012837 0.00020505 0.0019678 -0.00048343 -0.00020818 -0.1387 0.24298
-0.018186 0.018732 -0.0063234 -0.0088983
0.0043067 0.0050312 0.0044037 0.00015136 0.0027662 -0.0016362 -0.017395 0.018235
-0.15204 0.14369 -0.024729 0.014709
-0.0030798 -0.0029835 0.0031257 0.00040298 0.0017686 0.0046483 -0.006454 -0.0094748
-0.024377 0.014704 -0.18847 0.19743
920000000 -0.097356 0.27268 0.0051253 0.037935 -0.009189 -0.0040031 -0.0017974 0.0023321
0.001277 0.0015838 0.002494 -0.0014603
0.0050949 0.037858 -0.26055 0.31113 0.027916 0.021702 0.0015848 0.0010851
0.0066984 -0.00068493 0.0038024 -0.0030274
-0.0091784 -0.0039982 0.027964 0.021615 0.067492 0.31714 0.0016881 -9.7419e-05
0.0011714 -0.00045003 0.0008467 -0.00103
-0.0018386 0.0024272 0.0015472 0.00092858 0.0017213 -0.00014816 -0.11416 0.25842
-0.010597 0.030019 0.0025214 -0.0062524
0.0012414 0.0013929 0.0066527 -0.00054273 0.0012166 -0.00017946 -0.010759 0.02997
-0.14192 0.1495 -0.0026592 0.027153
0.0024499 -0.0011893 0.0036423 -0.0031258 0.00080343 -0.0010982 0.0029265 -0.0055744
-0.002578 0.027146 -0.19364 0.21158
980000000 -0.04992 0.29219 0.017847 0.030052 -0.0085893 0.0047168 0.0025182 0.0038294
0.0039213 -0.001694 -0.0030199 -0.0020755
0.017825 0.030066 -0.20745 0.34489 0.032655 0.0045852 0.0020402 -0.00015934
0.00098927 -0.0061232 -0.00065254 -0.0020717
-0.0085999 0.0047722 0.032765 0.0045454 0.1138 0.31011 0.00045872 -0.0011712
2.5736e-05 -0.002029 0.0015156 -1.0733e-05
0.0025638 0.0037561 0.0019955 7.6847e-05 0.00049745 -0.0011356 -0.076331 0.2707
0.0070746 0.028779 -0.0091441 -0.0064708
0.0038218 -0.0018733 0.0010799 -0.0062032 5.1191e-05 -0.0021767 0.0069807 0.02871
-0.11119 0.17739 0.0044105 0.018812
-0.0029216 -0.0020794 -0.00062465 -0.0020187 0.0016457 -4.4674e-05 -0.0093312 -0.0065951
0.0043537 0.018811 -0.15066 0.25628
1040000000 -0.0071314 0.30014 0.033196 0.01779 -0.00092862 0.0067941 0.0028601 0.00066795
-2.4198e-05 -0.0037758 -0.0006332 -0.0015131
0.03318 0.017856 -0.17188 0.35762 0.028901 -0.014674 0.0015195 -0.0016562
-0.0026002 -0.0023502 -0.0013888 -0.0026619
-0.00081632 0.0067621 0.02894 -0.01478 0.15961 0.29614 -0.00051173 -0.0014214
-0.0015664 -0.00082893 -0.00040999 -0.0011702
0.0027126 0.00074421 0.0014307 -0.0016155 -0.00049206 -0.0014513 -0.048397 0.28028
0.018106 0.01728 -0.0028882 0.0022424
-4.0431e-05 -0.0037561 -0.0024943 -0.0021655 -0.0015263 -0.00084357 0.018126 0.017411
-0.08018 0.18669 0.013135 0.017937
-0.00046205 -0.0013274 -0.0013379 -0.0025687 -0.00048412 -0.0012128 -0.0025977 0.0019873
0.013185 0.017976 -0.1286 0.27515
1100000000 0.038909 0.30737 0.035613 -0.004401 0.0030316 0.0036632 0.0025638 -0.0014261
-0.00218 -0.0029976 -0.0038133 0.00011998
0.03557 -0.0043898 -0.12817 0.37431 0.014853 -0.027304 2.9258e-05 -0.0018348
-0.0031011 -0.00049098 -0.0032721 -0.00049379
0.0030579 0.0035316 0.014768 -0.027437 0.20564 0.27571 -0.0017353 0.00021976
-0.0016285 0.00066395 -0.00089427 -0.00040468
0.0026313 -0.0014706 7.216e-05 -0.0018583 -0.0017899 0.0002025 -0.007851 0.28528
0.022346 0.005304 -0.0021703 0.0010142
-0.0022749 -0.0029867 -0.0031242 -0.00047227 -0.0016244 0.00055799 0.022537 0.0052206
-0.061505 0.20018 0.018221 0.0087363
-0.0038447 -2.762e-05 -0.0033589 -0.00059454 -0.00091327 -0.0003733 -0.0024598 0.00090695
0.018222 0.0087681 -0.081754 0.30301
1160000000 0.09025 0.30168 0.02362 -0.020581 0.0026769 -0.000697 -0.00019792 -0.0025241
-0.0040011 -0.0004032 -0.0009279 0.0037599
0.023621 -0.02057 -0.084515 0.37809 -0.0036333 -0.028598 -0.0016853 -0.0015883
-0.0023672 0.0025229 -0.0011837 0.0015204
0.0026916 -0.00068137 -0.0037829 -0.028604 0.24833 0.24498 -0.00059711 0.0016435
-0.00038998 0.0017433 -0.0009454 9.9804e-06
-0.00025923 -0.0025822 -0.001709 -0.001555 -0.00058352 0.00168 0.031481 0.28198
0.019243 -0.0091942 -0.0024943 0.0056437
-0.0039375 -0.00042304 -0.0022545 0.0025976 -0.00038236 0.0017326 0.019203 -0.0092052
-0.027811 0.20996 0.016853 0.00097025
-0.00089429 0.0038149 -0.0012854 0.0014103 -0.00091109 4.0641e-05 -0.0024734 0.0057518
0.016902 0.00093722 -0.034649 0.3052
1220000000 0.13477 0.28994 0.010313 -0.029712 -0.0015573 -0.00095912 -0.00013815 -0.0010483
-0.0024447 0.0025763 0.0013112 0.0017714
0.010326 -0.029652 -0.04056 0.38953 -0.016446 -0.020777 -0.002441 0.00038668
0.00020546 0.0027506 -0.00068906 0.0017037
-0.0015737 -0.00097415 -0.016559 -0.020723 0.28745 0.20627 0.00083838 0.0015014
0.00053859 0.0010739 0.00020574 0.00070298
-0.00011842 -0.0010634 -0.0024666 0.00039032 0.00080021 0.00151 0.070984 0.27363
0.0094678 -0.014929 0.0028551 0.0015693
-0.0025687 0.0025863 0.0002067 0.0028039 0.00051515 0.0010293 0.0094293 -0.014934
-0.0042236 0.21924 0.013439 -0.011557
0.0012565 0.0017517 -0.00069268 0.0017083 0.00014392 0.000673 0.0028663 0.0015824
0.01342 -0.011529 -0.0029248 0.32074
1280000000 0.184 0.26719 -0.0076455 -0.028061 -0.0019119 0.0023859 -0.0010339 -0.002014
-0.00053839 0.0029626 0.0024072 0.00098564
-0.0076532 -0.028033 0.005031 0.38036 -0.023072 -0.0085242 -0.00097678 0.0014383
0.001506 0.001576 0.00046075 0.0018946
-0.0019299 0.0023865 -0.023163 -0.0084219 0.31836 0.16255 0.0012718 -0.00013788
0.00097 5.824e-05 0.00029511 0.0004151
-0.0011151 -0.0019381 -0.00098875 0.0014398 0.0012409 -0.00012026 0.1075 0.25742
0.0010789 -0.016722 0.00055491 -7.305e-05
-0.00051388 0.0029091 0.0015117 0.0015591 0.0009323 0.00015439 0.0010951 -0.016714
0.03296 0.22299 0.003085 -0.013619
0.0024616 0.0010444 0.00049088 0.0018545 0.00029979 0.00052246 0.0006703 4.6402e-05
0.0031619 -0.013611 0.04426 0.32096
1340000000 0.22074 0.23283 -0.017311 -0.018935 0.00074478 0.0042892 -0.0018528 -0.00074522
0.0014181 0.00251 0.0015744 -0.0014295
-0.017308 -0.018942 0.044053 0.37212 -0.021186 0.0038538 -0.00012222 0.0019321
0.0016377 0.000698 0.0012679 0.00091796
0.00076638 0.0043448 -0.021179 0.003955 0.34085 0.11444 0.00094863 -0.00078071
0.00060545 -0.00034369 0.0001819 0.00027262
-0.0018229 -0.00075141 -0.00011431 0.0019353 0.00098471 -0.00075187 0.14032 0.23752
-0.006899 -0.014213 0.0013313 -0.00011225
0.0014752 0.0025259 0.0016239 0.00067266 0.00065272 -0.00025456 -0.0068996 -0.014283
0.063447 0.21813 -0.0027109 -0.012549
0.0015553 -0.0014629 0.0012535 0.00092391 0.00019757 0.00021008 0.0012587 -5.6857e-05
-0.002733 -0.012549 0.082614 0.31557
1400000000 0.25316 0.1945 -0.023005 -0.0076556 0.0048717 0.0030243 -0.0019818 0.00065232
0.0024343 0.00066252 0.00019311 -0.0013026
-0.022952 -0.0076795 0.08097 0.35917 -0.014786 0.01183 0.0013252 0.0013219
0.0010014 -0.00069907 0.0011655 0.0002669
0.0049119 0.0030149 -0.014729 0.011907 0.35419 0.060434 5.5323e-05 -0.0013855
1.089e-05 -0.00032421 0.00032488 0.00014929
-0.0019971 0.0006982 0.0013332 0.0013364 0.00013757 -0.0013642 0.17009 0.20922
-0.011899 -0.0086008 -0.00066732 -0.00098095
0.0024564 0.00064594 0.001009 -0.00070184 1.5428e-05 -0.00039075 -0.011968 -0.0085908
0.096434 0.21338 -0.0088733 -0.0082564
0.00012927 -0.0012405 0.0011463 0.00025006 0.00037527 0.00013179 -0.00065227 -0.00098075
-0.0088903 -0.0082392 0.12671 0.30409
1460000000 0.27564 0.15042 -0.020305 0.0042081 0.0053668 -0.0015909 -0.0015006 0.0017842
0.001837 -0.00065433 -0.0003192 -0.0008462
-0.020307 0.0042318 0.11514 0.33762 -0.0064664 0.014842 0.0017211 0.00022471
0.00090367 -0.0010654 0.0011983 -0.00061416
0.0053695 -0.0016454 -0.0064069 0.014874 0.36006 0.0052302 -0.00096588 -0.0011013
0.00024085 -8.814e-05 0.00063961 -0.00040838
-0.0015331 0.0018275 0.001686 0.00019181 -0.0010215 -0.0012209 0.19716 0.18021
-0.012822 -0.003369 -0.0012269 0.0013726
0.0018427 -0.00062219 0.00091569 -0.0010718 0.00016534 -0.00011264 -0.0128 -0.0033517
0.12626 0.19843 -0.01059 -0.0031318
-0.00032394 -0.0009302 0.0011628 -0.00058157 0.00064045 -0.00041482 -0.0011991 0.0014089
-0.010569 -0.0031353 0.16001 0.28228
1520000000 0.28742 0.10876 -0.014902 0.0099446 0.0031286 -0.0039409 0.00010679 0.002562
0.0017425 -0.0016021 -0.001104 -0.00013803
-0.014908 0.0098928 0.14878 0.32289 0.0010497 0.013036 0.0015923 -0.00078216
0.00015397 -0.000931 0.0003334 -0.001006
0.0031206 -0.003985 0.0011475 0.013053 0.35267 -0.05113 -0.00092301 -0.00042532
0.00058698 -0.0007659 -1.7134e-05 -2.1669e-05
0.00016652 0.0025388 0.0016361 -0.00081119 -0.0009237 -0.00034848 0.22107 0.14216
-0.012768 0.0011843 0.00081044 0.0017155
0.0017944 -0.0015822 0.00017031 -0.00093823 0.00055675 -0.00070526 -0.012727 0.0012135
0.15418 0.18394 -0.010818 0.00078938
-0.0011917 -0.00013179 0.00031031 -0.0010101 0.00011009 1.1446e-05 0.00081002 0.0017878
-0.010813 0.00078801 0.19274 0.26104
1580000000 0.2966 0.062218 -0.0084952 0.013136 -0.00082026 -0.00457 0.0013561 0.0017854
-0.0004558 -0.0020251 -0.00039314 0.00035449
-0.008492 0.013129 0.17625 0.29811 0.0048445 0.0084753 0.00048233 -0.001564
-0.00037816 -0.00108 -0.0002569 -0.00088245
-0.00086476 -0.0045618 0.0049011 0.0084399 0.33205 -0.1088 -0.001518 0.0003063
-0.00021984 -0.0010517 0.0001282 -0.00054548
0.0014155 0.0018905 0.00046946 -0.0016081 -0.001516 0.00038794 0.23599 0.10231
-0.010383 0.0054014 0.001705 0.0007584
-0.00045432 -0.001969 -0.00035483 -0.0011095 -0.00018128 -0.0010796 -0.010401 0.0053966
0.17862 0.16578 -0.008801 0.0061882
-0.00037835 0.00034523 -0.00021896 -0.00087418 0.00014654 -0.00057062 0.0017062 0.00075932
-0.0088079 0.0062015 0.22417 0.23342
1640000000 0.2983 0.020497 -0.0018829 0.012361 -0.0025944 -0.0024561 0.0025416 0.0010467
-0.00076001 -0.0011264 -0.00029015 0.00065495
-0.0019026 0.012338 0.20582 0.27282 0.0056715 0.0037875 -0.00071662 -0.0016423
-0.00099128 -0.0005207 -0.00053937 -0.00064434
-0.0026036 -0.0024542 0.005711 0.0037649 0.30346 -0.15805 -0.00088146 0.0013049
-0.00096626 -0.00090907 -0.000103 -0.00033206
0.0025527 0.00095662 -0.00071361 -0.0016239 -0.00084736 0.0012501 0.24881 0.052368
-0.0071025 0.0066832 0.0020864 -0.00054227
-0.00072635 -0.001161 -0.0010054 -0.00052176 -0.00094455 -0.00094008 -0.0071376 0.0067349
0.20191 0.14066 -0.0047647 0.008331
-0.00037928 0.00070125 -0.00054259 -0.00065965 -8.139e-05 -0.00036378 0.0021102 -0.00054735
-0.0047527 0.0083462 0.24931 0.20147
1700000000 0.29046 -0.025144 0.0017071 0.0098342 -0.0032805 5.834e-05 0.0029081 -0.0011053
-0.001837 -0.00049467 0.00062078 0.00048869
0.001706 0.0098226 0.22402 0.24094 0.0039018 0.00091146 -0.0013776 -0.0005737
-0.00083814 -1.0135e-05 -0.00091628 -0.00040137
-0.0032842 9.2392e-05 0.0039084 0.00090525 0.25928 -0.19764 0.00033747 0.0016732
-0.0016723 -0.00033488 -0.00052075 -0.00095405
0.0028818 -0.0010903 -0.0013594 -0.00056264 0.00020019 0.0016226 0.24543 0.0011831
-0.0051018 0.0076161 0.0012465 -0.0019457
-0.001819 -0.00046809 -0.00083591 -1.5961e-05 -0.0017494 -0.00031311 -0.0051364 0.0075798
0.21976 0.11948 -0.00050109 0.0087941
0.0006317 0.00052046 -0.00094897 -0.00038378 -0.00056454 -0.00091883 0.0011899 -0.0019333
-0.00052091 0.0087686 0.26471 0.16673
1760000000 0.27735 -0.07385 0.0043098 0.0067017 -0.002219 0.00075833 0.0013618 -0.0032851
-0.0010608 0.0006064 0.00046968 -0.00048018
0.0042672 0.0067024 0.24978 0.20065 0.0018484 -0.00089459 -0.0011105 0.00020884
-0.0011545 0.00092897 -0.00057876 0.00055797
-0.0021668 0.00079165 0.0018816 -0.0009091 0.2101 -0.2303 0.0011103 0.0013248
-0.0012008 0.0013176 -0.0013129 -0.00036634
0.0013502 -0.0032776 -0.0011042 0.00020543 0.0011348 0.0013197 0.23523 -0.05124
-0.0023805 0.0073843 -0.00036444 -0.0020512
-0.0010544 0.00062594 -0.0011741 0.00091193 -0.0011877 0.0013295 -0.0023216 0.0074852
0.23468 0.08283 0.0031623 0.0065862
0.00043939 -0.0004753 -0.00057203 0.00058663 -0.0012733 -0.00038127 -0.00031731 -0.0020458
0.003173 0.0065938 0.27636 0.12869
1820000000 0.25177 -0.11088 0.004738 0.0030775 -0.00013417 0.0024298 -0.00086355 -0.0030337
-0.0008522 0.00061289 8.3406e-05 -0.000185
0.0047248 0.0030427 0.2593 0.17026 -0.00016428 2.0824e-05 -0.0013565 0.00088599
-0.00011679 0.0014112 -0.00046986 0.00055181
-0.00013935 0.0023867 -0.00019942 1.3029e-05 0.16018 -0.24558 0.0015098 0.00043885
-0.00050524 0.0021084 -0.0014245 0.00052319
-0.00086993 -0.0030341 -0.0013447 0.00090537 0.0015761 0.00055081 0.20384 -0.098779
-0.0010272 0.006204 -0.0015096 -0.0012339
-0.00083764 0.0006181 -0.00012774 0.0014211 -0.00045822 0.0021707 -0.0010431 0.006197
0.25133 0.051695 0.0040839 0.0034789
7.1377e-05 -0.00020918 -0.00047271 0.0005293 -0.0012831 0.00048794 -0.0015734 -0.0011138
0.0040643 0.0034789 0.27771 0.092582
1880000000 0.21585 -0.15058 0.0027749 0.00058766 -0.00040208 0.002047 -0.0027779 -0.0022929
-0.00022676 0.0014419 0.00034646 -0.00056702
0.0027619 0.00061558 0.26327 0.12358 -0.0021035 0.0016421 -0.00012188 0.0017368
0.00072911 0.0013828 0.00026335 0.00095996
-0.00035683 0.0021225 -0.0020649 0.0016773 0.10821 -0.25462 0.0020812 -0.00098993
0.0013922 0.0021135 -0.00082271 0.00139
-0.0028405 -0.0022683 -0.00017745 0.0017511 0.0020574 -0.00095268 0.16192 -0.13819
-0.0004514 0.0049919 -0.0021733 0.0007486
-0.00024776 0.0014535 0.00074128 0.0014139 0.0013943 0.0021261 -0.00039096 0.0050036
0.25302 0.017165 0.0039492 0.0016212
0.00032991 -0.00057564 0.00027752 0.00094362 -0.00084302 0.001326 -0.0022345 0.00078502
0.0039339 0.0016424 0.27669 0.058453
1940000000 0.17598 -0.17544 0.0005492 -0.001377 0.0014106 0.0019894 -0.0037693 0.00049386
0.0011014 0.0010784 -0.00062455 -0.00069688
0.00053372 -0.0014193 0.26328 0.091722 -0.0010274 0.0039015 0.00092577 0.0013425
0.0020461 0.00054926 0.00088992 0.00023158
0.0013515 0.0018876 -0.0010117 0.0038348 0.062428 -0.24832 0.00034958 -0.0024287
0.002463 0.0005827 0.00035105 0.0015612
-0.0036997 0.00051778 0.00097664 0.001289 0.00040616 -0.0022345 0.10852 -0.16724
-0.0013633 0.0041939 -0.0010751 0.001732
0.0011761 0.0011019 0.0020389 0.0004823 0.0024657 0.00069901 -0.0013975 0.0042417
0.25256 -0.023565 0.0030426 -0.0013263
-0.00060828 -0.00074624 0.00086042 0.00025569 0.00051819 0.0016219 -0.0011263 0.0017552
0.0030459 -0.0012722 0.26495 0.022495
2000000000 0.12969 -0.18906 -0.0034262 0.00041323 0.0024597 0.0015141 -0.0022973 0.0035432
0.0010238 0.00035564 -0.00070035 0.0003314
-0.0033977 0.00042794 0.24859 0.056461 -0.00076461 0.0057118 0.0016844 0.00029977
0.001492 -0.0015191 0.00051951 0.00014919
0.0025361 0.0014918 -0.00069709 0.0057046 0.019168 -0.23358 -0.0014331 -0.0013679
0.0021203 -0.0011803 0.0016079 0.0013184
-0.0022784 0.0035982 0.0017229 0.00033199 -0.0013443 -0.0014624 0.055501 -0.17562
-0.0025861 0.0047061 0.00038005 0.0021038
0.0010076 0.0003188 0.0014888 -0.0015659 0.002178 -0.0011545 -0.0025083 0.0047232
0.24372 -0.058606 0.00013208 -0.0019216
