!Keysight Technologies,M9804A,MY58100912,A.14.10.03
!Date: Thursday, April 27, 2023 10:28:33
!Correction: S11(C  6-Port  ) 
!S12(C  6-Port  ) 
!S13(C  6-Port  ) 
!S14(C  6-Port  ) 
!S15(C  6-Port  ) 
!S16(C  6-Port  ) 
!S21(C  6-Port  ) 
!S22(C  6-Port  ) 
!S23(C  6-Port  ) 
!S24(C  6-Port  ) 
!S25(C  6-Port  ) 
!S26(C  6-Port  ) 
!S31(C  6-Port  ) 
!S32(C  6-Port  ) 
!S33(C  6-Port  ) 
!S34(C  6-Port  ) 
!S35(C  6-Port  ) 
!S36(C  6-Port  ) 
!S41(C  6-Port  ) 
!S42(C  6-Port  ) 
!S43(C  6-Port  ) 
!S44(C  6-Port  ) 
!S45(C  6-Port  ) 
!S46(C  6-Port  ) 
!S51(C  6-Port  ) 
!S52(C  6-Port  ) 
!S53(C  6-Port  ) 
!S54(C  6-Port  ) 
!S55(C  6-Port  ) 
!S56(C  6-Port  ) 
!S61(C  6-Port  ) 
!S62(C  6-Port  ) 
!S63(C  6-Port  ) 
!S64(C  6-Port  ) 
!S65(C  6-Port  ) 
!S66(C  6-Port  ) 
!S6P File: Measurement: :
# Hz S  RI   R 50
500000000 -0.33664 -0.035293 -0.0095436 -0.0034173 -0.0076423 0.011631 -0.0033004 0.011592
0.012262 0.0045817 -0.0033864 0.0083355
-0.0095315 -0.0034106 -0.41873 -0.05 0.0076762 -0.011718 0.0016324 0.011762
0.0074396 0.002462 0.0012646 0.013141
-0.0076066 0.011637 0.0076452 -0.01175 -0.26433 0.21074 0.0069311 0.0028179
-0.00014484 0.0086445 0.00080426 0.011648
-0.003287 0.011597 0.0016636 0.01179 0.0069341 0.0028252 -0.32659 0.046867
-0.019474 -0.0042069 0.017957 0.024933
0.012286 0.0045493 0.0074522 0.0024395 -0.00012112 0.0086463 -0.019478 -0.0041848
-0.2246 -0.18554 -0.026988 0.0052469
-0.0033816 0.0083382 0.0012894 0.013165 0.00080889 0.011654 0.017958 0.024917
-0.026977 0.0052392 -0.27216 -0.11379
560000000 -0.31533 0.1245 -0.023688 -0.063095 0.00010556 0.011869 0.0066062 0.0097377
0.010775 0.0041613 0.0097004 0.007017
-0.023654 -0.06301 -0.37633 0.1082 -0.041846 -0.036913 0.013383 0.003596
-0.013593 -0.0050057 0.0038147 -0.00052061
0.00015259 0.011868 -0.04198 -0.036858 -0.18239 0.25853 -0.00069504 -0.0049941
0.019127 0.0043517 0.0071558 -0.0059736
0.0066045 0.0097093 0.013399 0.0035864 -0.00068866 -0.0050072 -0.30249 0.13562
0.0041747 -0.025065 0.0045246 -0.019605
0.010777 0.0041514 -0.013604 -0.0049933 0.019106 0.0043379 0.004166 -0.025064
-0.28429 -0.010127 0.0082015 -0.04968
0.0097209 0.0069977 0.0037944 -0.00055011 0.0071427 -0.0059677 0.0045347 -0.019617
0.0082129 -0.049676 -0.33063 0.032076
620000000 -0.27293 0.10899 -0.023084 0.0071638 0.0032226 0.008406 0.0066837 -0.0055173
0.011311 -0.00095075 0.00062614 -0.0022488
-0.023076 0.0071552 -0.40247 0.062174 -0.018886 -0.00015568 -0.0012861 -0.0019355
0.010189 -0.0072524 0.0011352 -0.0027773
0.0032509 0.0084098 -0.018915 -0.00010841 -0.15283 0.26726 -0.0015829 -0.0051383
-0.0039745 -0.0031818 0.0080601 -0.0036853
0.0066756 -0.0055357 -0.0012949 -0.001948 -0.0015914 -0.0051428 -0.26149 0.14557
-0.038536 -0.018571 0.014498 0.023438
0.011315 -0.00097595 0.010179 -0.0073003 -0.0039738 -0.0031876 -0.038557 -0.018554
-0.20347 -0.051338 -0.039745 0.01437
0.00063228 -0.0022576 0.0011301 -0.0027961 0.0080436 -0.0036987 0.014506 0.023439
-0.039762 0.01432 -0.24894 -0.0039072
680000000 -0.23276 0.1929 -0.027979 -0.014071 0.0046121 0.0049425 0.00076205 -0.0076614
-0.0033698 -0.010921 0.004203 -0.0064266
-0.027928 -0.014086 -0.38717 0.15888 -0.032781 -0.0013397 -0.0016975 -0.00024613
-0.002783 -0.0088333 -0.0011479 -0.0019068
0.0046217 0.0049341 -0.032814 -0.0012613 -0.10226 0.28702 -0.00077847 0.00024074
-0.0022513 0.00075647 -0.0029951 -0.0093762
0.00075469 -0.0076668 -0.0017054 -0.00024647 -0.00078352 0.00024105 -0.21934 0.19487
-0.023384 -0.008578 -0.0087787 -0.010625
-0.0034002 -0.010941 -0.0028166 -0.0088435 -0.002253 0.00075982 -0.023397 -0.0085516
-0.25178 0.04646 -0.005668 -0.0095095
0.0041906 -0.0064556 -0.0011364 -0.0019097 -0.0029944 -0.0093633 -0.008757 -0.010626
-0.005648 -0.0094921 -0.25879 0.098178
740000000 -0.19006 0.18757 -0.038713 0.026345 0.01237 -0.0051808 -0.0007166 -0.0039941
-0.0045423 -0.0026752 -0.0061117 0.0035122
-0.038687 0.026283 -0.33512 0.17761 -0.034911 0.034999 -0.00069975 -0.0064416
-0.011778 0.0078082 -0.0025104 -0.0059321
0.012329 -0.0052216 -0.034836 0.035126 -0.068694 0.28613 -0.0013976 0.0033969
-0.0025142 -0.0039675 -0.0013104 0.00034747
-0.0007161 -0.0039924 -0.00073258 -0.0064638 -0.001386 0.0033959 -0.20234 0.20247
-0.042865 -0.0083772 0.021907 0.013104
-0.0045531 -0.0026543 -0.011788 0.0079072 -0.0025192 -0.0039551 -0.042903 -0.0083386
-0.15692 0.072427 -0.042023 -0.00034472
-0.0060841 0.0035355 -0.0025365 -0.0059748 -0.001305 0.00034338 0.021896 0.013074
-0.041963 -0.0003459 -0.24602 0.10358
800000000 -0.15801 0.22799 -0.022706 0.01716 0.0051014 -0.010359 -0.0048637 -0.0020219
-0.0038954 0.0027057 0.0044336 0.00098782
-0.022692 0.01715 -0.33771 0.24813 -0.0078989 0.034045 -0.002162 0.0022199
-0.00050252 0.0034491 0.0011432 0.0052625
0.0050808 -0.010386 -0.0078106 0.034101 -0.027434 0.30918 0.0011233 0.0014889
0.00076075 0.0035689 -0.001842 0.0009891
-0.0048647 -0.0020123 -0.002155 0.0022319 0.0011315 0.0014893 -0.1745 0.23034
-0.02848 0.01229 0.012776 -0.0096764
-0.0038765 0.0027211 -0.00049713 0.0034598 0.00077016 0.0035715 -0.028487 0.012354
-0.20157 0.094873 -0.017454 0.016961
0.0044424 0.00098468 0.0011694 0.0052806 -0.001831 0.0009928 0.012777 -0.0097101
-0.017458 0.016958 -0.23802 0.15542
860000000 -0.12321 0.24911 -0.017312 0.031137 -0.0034817 -0.00962 -0.0025412 0.0012238
0.0040742 0.0049303 -0.0029512 -0.0027234
-0.017321 0.031109 -0.28982 0.29022 0.0080163 0.034019 0.00019234 0.0021064
0.0041781 0.00026275 0.0034409 0.000364
-0.0035101 -0.009606 0.0081319 0.034029 0.021071 0.31692 -0.00041833 -0.0003183
0.002808 -0.0015491 0.0015151 0.0044516
-0.0025393 0.0012422 0.00021265 0.0020996 -0.0004191 -0.00031902 -0.13872 0.24218
-0.018087 0.018636 -0.0062472 -0.008773
0.004102 0.0049236 0.0041803 0.00023629 0.0028116 -0.0015657 -0.01807 0.018676
-0.15223 0.14339 -0.024645 0.014858
-0.0029626 -0.0027218 0.0034473 0.00035111 0.0015183 0.0044577 -0.0062615 -0.0087718
-0.024645 0.014828 -0.18843 0.19737
920000000 -0.097756 0.27259 0.0051711 0.037857 -0.0092463 -0.0040567 -0.0017933 0.0023408
0.0014063 0.0015047 0.0024248 -0.0014425
0.0051524 0.037836 -0.26059 0.3111 0.027888 0.021662 0.0015805 0.0010876
0.0067076 -0.00071857 0.0037891 -0.0030952
-0.0092634 -0.0040432 0.027976 0.021602 0.067462 0.31713 0.0017277 -0.00012775
0.0011938 -0.00046782 0.00087324 -0.0010377
-0.0017944 0.0023489 0.0015926 0.0010764 0.001731 -0.00013117 -0.1145 0.25869
-0.010636 0.029994 0.0025106 -0.0062416
0.0014106 0.001507 0.0067066 -0.00075673 0.0011932 -0.0004701 -0.01058 0.030024
-0.14203 0.14947 -0.0026482 0.027144
0.0024223 -0.0014619 0.0037862 -0.0031034 0.00087982 -0.0010375 0.0024952 -0.0062481
-0.0026517 0.027124 -0.1936 0.21171
980000000 -0.049876 0.29221 0.017904 0.029973 -0.0085947 0.0047134 0.0025589 0.003788
0.0039487 -0.0017597 -0.003019 -0.0020483
0.01787 0.029978 -0.20755 0.34479 0.03269 0.0046373 0.0019538 1.709e-05
0.0010899 -0.0061034 -0.00061231 -0.002077
-0.0085731 0.0047403 0.032728 0.0045378 0.1137 0.31013 0.00042298 -0.0011642
7.7722e-05 -0.0020639 0.0015311 1.1683e-05
0.0025587 0.0037803 0.0019741 5.2366e-06 0.00042835 -0.0011591 -0.076215 0.27039
0.0070678 0.028725 -0.0091209 -0.0065003
0.0039451 -0.0017856 0.0010449 -0.0061317 6.9133e-05 -0.0020652 0.0071292 0.028719
-0.11079 0.17739 0.0044591 0.018811
-0.0030174 -0.002044 -0.00063544 -0.0020661 0.0015325 6.2956e-06 -0.0091278 -0.0064732
0.0044464 0.018805 -0.1506 0.25635
1040000000 -0.0070153 0.30028 0.033197 0.017811 -0.00093683 0.0067759 0.002855 0.0006356
-0.00011585 -0.0037332 -0.00057659 -0.0014818
0.033165 0.01783 -0.17198 0.35763 0.02894 -0.014689 0.0014956 -0.0016738
-0.0025032 -0.0022471 -0.0013732 -0.0026528
-0.0009028 0.0067792 0.028899 -0.014792 0.15956 0.29614 -0.00047905 -0.0013893
-0.0015545 -0.00076944 -0.0003798 -0.0011462
0.0028383 0.00063658 0.0015086 -0.0016988 -0.0004769 -0.0013892 -0.048577 0.28027
0.018 0.017299 -0.0028946 0.0021986
-0.00012721 -0.003726 -0.0025554 -0.0022496 -0.0015469 -0.00075791 0.018047 0.01727
-0.079886 0.18657 0.013178 0.017891
-0.00057251 -0.0014875 -0.0013915 -0.0026297 -0.00037492 -0.0011492 -0.0028909 0.0022081
0.013155 0.017894 -0.12862 0.2752
1100000000 0.038707 0.30734 0.035539 -0.0044583 0.0030107 0.0036004 0.0025695 -0.001478
-0.0022062 -0.0029957 -0.0037959 8.6475e-05
0.035501 -0.0044256 -0.12828 0.37433 0.014901 -0.02734 1.5472e-05 -0.0017859
-0.0030558 -0.00045315 -0.0032877 -0.00051334
0.003027 0.0035944 0.014802 -0.027431 0.20557 0.27573 -0.0016879 0.00021666
-0.0016314 0.00064233 -0.00091392 -0.00041234
0.0025635 -0.0014838 1.214e-05 -0.0017958 -0.0016885 0.00021215 -0.0078976 0.28519
0.02241 0.0052723 -0.0021736 0.0010301
-0.0022238 -0.0029791 -0.0030742 -0.00043656 -0.0016295 0.00064589 0.022434 0.0052353
-0.061325 0.2001 0.018251 0.0087481
-0.0037934 0.00010931 -0.0033024 -0.00048776 -0.00090937 -0.0004167 -0.0021713 0.0010392
0.018239 0.0087495 -0.081622 0.3031
1160000000 0.090265 0.30178 0.023663 -0.020623 0.0026805 -0.00063982 -0.00020719 -0.0025819
-0.0039149 -0.00040437 -0.00094143 0.0037386
0.023664 -0.020584 -0.084593 0.37802 -0.0036254 -0.028569 -0.001727 -0.0016235
-0.002355 0.0025413 -0.0012046 0.0014846
0.0026897 -0.00064417 -0.0037577 -0.028575 0.24828 0.24504 -0.000614 0.0016316
-0.00037454 0.0017265 -0.00095952 1.6716e-05
-0.00023069 -0.0025856 -0.0017298 -0.0016234 -0.00061416 0.0016345 0.031457 0.28206
0.01923 -0.0092184 -0.0024891 0.0056683
-0.0039292 -0.00039259 -0.0023665 0.0025465 -0.00037672 0.0017322 0.019232 -0.0092528
-0.027848 0.20977 0.016835 0.00097086
-0.00091308 0.0037581 -0.0012047 0.0015129 -0.00094899 2.2244e-05 -0.0024911 0.0056714
0.016836 0.0009712 -0.03467 0.30525
1220000000 0.13463 0.28993 0.01023 -0.029653 -0.0015744 -0.00094675 -0.00018986 -0.0010993
-0.0024446 0.0025456 0.0012937 0.0017585
0.010248 -0.029605 -0.040647 0.38958 -0.016448 -0.020776 -0.0024472 0.00042763
0.00021223 0.0027537 -0.00066412 0.0016907
-0.0015722 -0.0009396 -0.016562 -0.020723 0.28742 0.20633 0.00080268 0.001523
0.00052527 0.0010623 0.00020822 0.00070454
-0.00019747 -0.0010977 -0.0024441 0.00043559 0.00079499 0.0015264 0.071028 0.27356
0.0094928 -0.014902 0.0028686 0.0016038
-0.0024398 0.0025561 0.00022533 0.0027505 0.00052231 0.0010585 0.0094818 -0.014914
-0.0043257 0.21914 0.013379 -0.011561
0.0013045 0.0017552 -0.00066445 0.0016949 0.00020802 0.00070597 0.0028613 0.0015968
0.013373 -0.011555 -0.0028384 0.32075
1280000000 0.18393 0.26717 -0.0076626 -0.028021 -0.0019094 0.0024139 -0.0010752 -0.0019393
-0.00055547 0.0029067 0.0024398 0.00097643
-0.0076503 -0.027994 0.0048663 0.38032 -0.023113 -0.0084918 -0.0010129 0.0014266
0.0015012 0.00152 0.00047321 0.0019096
-0.001898 0.002425 -0.023175 -0.0083842 0.31828 0.16262 0.0013004 -0.00013955
0.0010057 7.7084e-05 0.00027168 0.00041141
-0.001078 -0.0019332 -0.00099818 0.0014301 0.0012988 -0.00014152 0.10743 0.25749
0.0011171 -0.016701 0.00055805 -7.0797e-05
-0.00053551 0.002913 0.0015132 0.0015158 0.0010162 7.1376e-05 0.001089 -0.016715
0.032839 0.22287 0.0030776 -0.013619
0.0024421 0.00096303 0.00048811 0.0019044 0.00027262 0.00041046 0.00055819 -7.3252e-05
0.0030767 -0.01361 0.044396 0.3209
1340000000 0.22053 0.23306 -0.017247 -0.018878 0.00071153 0.0043077 -0.0018623 -0.00072922
0.0014439 0.0025104 0.0015978 -0.0014134
-0.017218 -0.01888 0.043921 0.37213 -0.021195 0.0038458 -9.2034e-05 0.0019351
0.0016438 0.00070181 0.0012661 0.00092959
0.00073333 0.004309 -0.021208 0.0039629 0.34082 0.11451 0.00092066 -0.0007885
0.0005926 -0.00034652 0.00016951 0.00028378
-0.0018564 -0.00072019 -7.7568e-05 0.0019403 0.00092474 -0.00078693 0.14026 0.23756
-0.0068954 -0.014263 0.0013073 -0.00012615
0.0014645 0.0025051 0.0016553 0.00069187 0.00058903 -0.00034133 -0.006928 -0.01425
0.063276 0.21817 -0.0027346 -0.012568
0.0015875 -0.0014233 0.0012828 0.00091865 0.00017236 0.00028387 0.0013137 -0.00012272
-0.0027271 -0.012568 0.082735 0.31552
1400000000 0.253 0.19454 -0.022963 -0.0076828 0.0048752 0.0030574 -0.0019554 0.00069214
0.0024153 0.00065943 0.00019098 -0.001293
-0.022934 -0.0076996 0.080871 0.35919 -0.014742 0.011819 0.0013154 0.0013102
0.0010027 -0.00069405 0.0011612 0.00025199
0.0049014 0.0030295 -0.014706 0.011902 0.35418 0.060438 8.7992e-05 -0.0013622
-9.1944e-06 -0.00034987 0.0003246 0.00016166
-0.0019547 0.00068555 0.0013258 0.0013099 8.7178e-05 -0.0013656 0.17011 0.20921
-0.011903 -0.0086608 -0.0006606 -0.00098825
0.0024238 0.00065653 0.0010011 -0.00069961 -1.2529e-05 -0.00035323 -0.011936 -0.0086382
0.096352 0.2134 -0.0088688 -0.0082404
0.00018429 -0.0012927 0.0011628 0.00025341 0.00032895 0.00016334 -0.00066355 -0.00098263
-0.0088643 -0.0082449 0.12675 0.30398
1460000000 0.2754 0.1505 -0.020246 0.0042217 0.0053853 -0.0015931 -0.0015331 0.0017598
0.0018335 -0.0006291 -0.00031162 -0.00084679
-0.02022 0.0041994 0.11503 0.3376 -0.006437 0.01484 0.001702 0.00020381
0.00090127 -0.0010603 0.0011896 -0.00062467
0.0053899 -0.001613 -0.0063734 0.014891 0.35994 0.005322 -0.0010073 -0.0011833
0.00022489 -6.0937e-05 0.00067594 -0.00039113
-0.0015203 0.0017614 0.0016954 0.00019594 -0.0010067 -0.0011799 0.19713 0.18029
-0.012846 -0.0034116 -0.0012429 0.0013673
0.0018354 -0.00064175 0.00089209 -0.0010773 0.00022078 -6.0438e-05 -0.012875 -0.003391
0.12615 0.19852 -0.010599 -0.0031306
-0.00033188 -0.00085342 0.0011891 -0.00060956 0.00066928 -0.00039804 -0.0012394 0.0013712
-0.010583 -0.0031453 0.15999 0.28222
1520000000 0.28733 0.10895 -0.014869 0.0098824 0.0030847 -0.0039658 0.00012412 0.0025458
0.0017299 -0.0015957 -0.0010928 -0.00014606
-0.014861 0.0098545 0.14867 0.323 0.0010554 0.013017 0.0016165 -0.00077637
0.00015447 -0.00091064 0.00033047 -0.0010045
0.0030678 -0.0039786 0.0011193 0.013022 0.35271 -0.051021 -0.00089824 -0.00042569
0.00055771 -0.00074662 -1.5113e-05 -2.9641e-05
0.00013358 0.0025433 0.0016141 -0.00078334 -0.00090313 -0.00043052 0.22115 0.14221
-0.012803 0.0011805 0.00079926 0.0017233
0.0017167 -0.0016033 0.00014388 -0.00091393 0.00055592 -0.00075333 -0.012815 0.0012099
0.15411 0.18411 -0.010843 0.00080326
-0.0010927 -0.00014051 0.00032505 -0.0010019 -1.517e-05 -3.1032e-05 0.00080691 0.0017293
-0.010843 0.00078804 0.19269 0.26107
1580000000 0.29653 0.062479 -0.0084799 0.013099 -0.00085596 -0.0046086 0.0013426 0.0018287
-0.0004341 -0.0019933 -0.00039742 0.00033364
-0.0084813 0.013083 0.17615 0.29813 0.004845 0.0084456 0.00046421 -0.0015595
-0.00039408 -0.0010806 -0.00024701 -0.00087096
-0.00087724 -0.0046001 0.0048996 0.0084312 0.33203 -0.1087 -0.0015085 0.00037897
-0.00021197 -0.0010584 0.00014678 -0.00055387
0.0013506 0.0018258 0.00045994 -0.0015566 -0.0015043 0.0003731 0.23607 0.10231
-0.010425 0.0054224 0.0016992 0.00077931
-0.0004442 -0.0019901 -0.00040362 -0.0010705 -0.00021331 -0.0010602 -0.01041 0.0054686
0.17867 0.16586 -0.0088369 0.006219
-0.00039476 0.0003395 -0.00025858 -0.0008755 0.00014385 -0.00055723 0.0016924 0.0007689
-0.0088441 0.0062191 0.2241 0.23342
1640000000 0.2983 0.020736 -0.0019137 0.012331 -0.0026336 -0.0024531 0.0025422 0.0010201
-0.00073179 -0.0011528 -0.00033117 0.00064894
-0.0019204 0.012315 0.20567 0.2729 0.0056487 0.0037432 -0.00069023 -0.0016483
-0.0009777 -0.0005135 -0.0005434 -0.00065648
-0.00264 -0.0024396 0.0056868 0.0037175 0.3035 -0.15799 -0.0008842 0.0012866
-0.00098608 -0.00090659 -9.6662e-05 -0.00031965
0.0025474 0.0010088 -0.00069979 -0.0016384 -0.00088164 0.0012866 0.24885 0.052307
-0.0071279 0.0067373 0.0021131 -0.00053623
-0.0007457 -0.0011546 -0.00098035 -0.00050764 -0.00098646 -0.00090286 -0.0071137 0.0067702
0.20197 0.14077 -0.0047649 0.0083691
-0.00032514 0.000655 -0.00054671 -0.00065321 -9.8e-05 -0.00031806 0.0021097 -0.00054356
-0.0047662 0.0083689 0.24927 0.20154
1700000000 0.29054 -0.02492 0.0016728 0.0098338 -0.0032786 5.466e-05 0.0029034 -0.0010781
-0.0018315 -0.00051864 0.00060671 0.00049386
0.0016561 0.0098271 0.22394 0.24105 0.0038805 0.00091719 -0.0013621 -0.00058665
-0.00082893 -1.051e-05 -0.00092071 -0.00041575
-0.0032886 6.9646e-05 0.0038876 0.00090352 0.25933 -0.19754 0.00031018 0.0016164
-0.0017034 -0.00031775 -0.00054321 -0.0009668
0.0028927 -0.001095 -0.0013651 -0.00058716 0.00031181 0.0016198 0.24547 0.0011617
-0.0050824 0.0076512 0.0012617 -0.0019391
-0.0018371 -0.00051478 -0.00083203 -5.8794e-06 -0.0017037 -0.00030455 -0.0050625 0.0076691
0.21979 0.11954 -0.00049449 0.008811
0.00061374 0.00048903 -0.00092807 -0.00040565 -0.00054507 -0.00096314 0.0012569 -0.0019458
-0.00048951 0.0088118 0.26477 0.16678
1760000000 0.27743 -0.073673 0.0042525 0.0066941 -0.0021657 0.00071287 0.0013784 -0.0032867
-0.0010714 0.0005878 0.00046353 -0.00046264
0.0042507 0.0066933 0.24966 0.2007 0.0018335 -0.00091018 -0.0011115 0.00017024
-0.0011556 0.00091358 -0.00058025 0.00054345
-0.0021702 0.00072022 0.0018355 -0.00092445 0.21017 -0.23018 0.0011019 0.0013064
-0.0012144 0.0013017 -0.0013077 -0.0003936
0.0013678 -0.0032808 -0.0011164 0.00017355 0.0011066 0.001302 0.23515 -0.051337
-0.0023454 0.0074174 -0.0003461 -0.0020606
-0.0010666 0.00059811 -0.0011514 0.00091989 -0.0012095 0.0013022 -0.0023293 0.0074295
0.23471 0.082887 0.0032022 0.0066098
0.000458 -0.0004691 -0.0005782 0.00054939 -0.0013041 -0.00039183 -0.00033864 -0.0020528
0.0031983 0.0066096 0.27648 0.12867
1820000000 0.25187 -0.11077 0.0047389 0.0030818 -0.00012271 0.0023553 -0.0008656 -0.0030971
-0.00086579 0.00062005 8.599e-05 -0.00018712
0.0047194 0.0030811 0.25925 0.17037 -0.00015035 1.1722e-05 -0.0013634 0.00086991
-0.00012288 0.0013991 -0.00047814 0.00055612
-0.00011935 0.002348 -0.00014854 1.449e-05 0.16023 -0.24549 0.0015581 0.00049623
-0.00048992 0.0020969 -0.0014251 0.00053176
-0.00088127 -0.0031013 -0.0013681 0.00088112 0.0015588 0.0004928 0.20375 -0.098679
-0.00099454 0.0062177 -0.0015152 -0.0012452
-0.0008632 0.00062452 -0.00010218 0.0013978 -0.00048285 0.0021033 -0.00097812 0.00623
0.25136 0.051731 0.0041278 0.0034761
8.2671e-05 -0.00018588 -0.00047145 0.0005631 -0.0014222 0.00052973 -0.0015151 -0.0012473
0.0041322 0.0034666 0.27784 0.092518
1880000000 0.21597 -0.1504 0.0027679 0.0006159 -0.000377 0.0021211 -0.002851 -0.0022883
-0.00025499 0.0014638 0.00034903 -0.00057425
0.0027584 0.00062218 0.26323 0.12363 -0.0020993 0.0016583 -0.0001998 0.0016984
0.00068991 0.0013835 0.00024241 0.00097359
-0.00035445 0.0021275 -0.0020836 0.0016765 0.10832 -0.25469 0.0019952 -0.0009878
0.0013784 0.0021295 -0.00084724 0.0013902
-0.0028583 -0.0022741 -0.00018841 0.0017033 0.0019965 -0.00098927 0.16182 -0.1381
-0.00041385 0.0049865 -0.0021584 0.00073191
-0.0002277 0.0014726 0.00070342 0.0013794 0.0013817 0.002136 -0.00040911 0.0049955
0.25301 0.017227 0.0039828 0.0016122
0.00034133 -0.00057786 0.00025382 0.00097192 -0.00085077 0.0013923 -0.0021545 0.00073752
0.0039759 0.001606 0.27676 0.058263
1940000000 0.17597 -0.17529 0.00053695 -0.0013973 0.0013253 0.0019228 -0.0037485 0.00050449
0.0011014 0.0010962 -0.00062461 -0.00070644
0.0005389 -0.0013977 0.26317 0.091837 -0.0010345 0.0038428 0.00096127 0.0013763
0.0020238 0.00053816 0.00089781 0.00024047
0.0013436 0.0019193 -0.0010143 0.0038499 0.062476 -0.24834 0.00042006 -0.0023494
0.0024585 0.00065351 0.00035183 0.001563
-0.0037458 0.00052916 0.00096999 0.0013688 0.00042111 -0.0023389 0.10857 -0.16719
-0.0013225 0.0041845 -0.0010799 0.0016954
0.0011132 0.0010781 0.0020252 0.00052878 0.0024627 0.00065018 -0.0013109 0.0041906
0.25259 -0.023518 0.0030708 -0.0013524
-0.00063099 -0.00070103 0.00089996 0.00023383 0.00034753 0.0015659 -0.0010694 0.0016998
0.0030656 -0.0013606 0.2649 0.0224
2000000000 0.12981 -0.18879 -0.0034413 0.00045318 0.0024187 0.0014988 -0.0022817 0.0035638
0.0010491 0.000367 -0.00072127 0.00034151
-0.0034396 0.00044405 0.24855 0.056564 -0.00078012 0.005638 0.0016917 0.00035052
0.0014887 -0.0014848 0.00054047 0.00015609
0.0024267 0.0014843 -0.00074465 0.0056436 0.019302 -0.23368 -0.0014655 -0.0014698
0.002114 -0.0011671 0.0015949 0.0012889
-0.0022605 0.0035844 0.0016941 0.00033546 -0.001456 -0.0014675 0.055412 -0.17548
-0.0025297 0.0046395 0.00035669 0.0021311
0.0010595 0.00035393 0.0014814 -0.0015048 0.0021149 -0.0011781 -0.0025105 0.0046559
