!Keysight Technologies,M9804A,MY58100912,A.14.10.03
!Date: Thursday, April 27, 2023 10:28:33
!Correction: S11(C  6-Port  ) 
!S12(C  6-Port  ) 
!S13(C  6-Port  ) 
!S14(C  6-Port  ) 
!S15(C  6-Port  ) 
!S16(C  6-Port  ) 
!S21(C  6-Port  ) 
!S22(C  6-Port  ) 
!S23(C  6-Port  ) 
!S24(C  6-Port  ) 
!S25(C  6-Port  ) 
!S26(C  6-Port  ) 
!S31(C  6-Port  ) 
!S32(C  6-Port  ) 
!S33(C  6-Port  ) 
!S34(C  6-Port  ) 
!S35(C  6-Port  ) 
!S36(C  6-Port  ) 
!S41(C  6-Port  ) 
!S42(C  6-Port  ) 
!S43(C  6-Port  ) 
!S44(C  6-Port  ) 
!S45(C  6-Port  ) 
!S46(C  6-Port  ) 
!S51(C  6-Port  ) 
!S52(C  6-Port  ) 
!S53(C  6-Port  ) 
!S54(C  6-Port  ) 
!S55(C  6-Port  ) 
!S56(C  6-Port  ) 
!S61(C  6-Port  ) 
!S62(C  6-Port  ) 
!S63(C  6-Port  ) 
!S64(C  6-Port  ) 
!S65(C  6-Port  ) 
!S66(C  6-Port  ) 
!S6P File: Measurement: :
# Hz S  RI   R 50
500000000 -0.33662 -0.035287 -0.0095483 -0.0034236 -0.0076296 0.011639 -0.0033071 0.011585
0.012267 0.0045831 -0.0033944 0.0083296
-0.0095482 -0.0034129 -0.41872 -0.049971 0.0076778 -0.011726 0.0016281 0.011768
0.0074452 0.0024646 0.0012651 0.013139
-0.0076154 0.011658 0.0076525 -0.011741 -0.26431 0.21075 0.0069367 0.002822
-0.00012694 0.0086453 0.00079593 0.011655
-0.0033023 0.011586 0.0016578 0.011786 0.0069466 0.0028233 -0.3266 0.046847
-0.01949 -0.0041988 0.017946 0.024941
0.012282 0.0045616 0.007443 0.0024374 -0.00011317 0.0086441 -0.019487 -0.0041825
-0.22462 -0.18552 -0.026989 0.005248
-0.0033826 0.0083184 0.0012825 0.013146 0.00081162 0.011648 0.017957 0.024922
-0.026995 0.0052376 -0.27214 -0.11377
560000000 -0.31534 0.12449 -0.023702 -0.063082 0.00013179 0.011874 0.0066139 0.0097349
0.010763 0.0041657 0.0096818 0.007002
-0.023669 -0.063003 -0.37628 0.10825 -0.041841 -0.036942 0.013374 0.0036047
-0.013572 -0.0050027 0.0038121 -0.00050996
0.00015357 0.011866 -0.041981 -0.036871 -0.1824 0.25853 -0.00068734 -0.0050088
0.019116 0.0043419 0.0071643 -0.0059735
0.0066064 0.0097214 0.013405 0.0035997 -0.00068575 -0.0050152 -0.30249 0.13564
0.0041659 -0.025055 0.004545 -0.0196
0.010778 0.0041629 -0.013599 -0.0049825 0.019119 0.0043574 0.0041509 -0.025045
-0.28426 -0.010139 0.0082039 -0.049659
0.0096933 0.0070049 0.0038115 -0.00054539 0.007171 -0.0059758 0.0045445 -0.019604
0.0082146 -0.049663 -0.33062 0.032047
620000000 -0.27292 0.10905 -0.02308 0.0071527 0.0032296 0.0083996 0.0066952 -0.0055126
0.011315 -0.00094306 0.00062237 -0.0022609
-0.023064 0.0071521 -0.40245 0.062173 -0.018897 -0.00016 -0.0012914 -0.0019405
0.010194 -0.0072599 0.0011462 -0.0027984
0.0032554 0.0083906 -0.018915 -0.00010879 -0.15282 0.26726 -0.0015976 -0.0051428
-0.0039663 -0.0031793 0.008071 -0.0036874
0.0066774 -0.0055389 -0.001296 -0.0019462 -0.0016066 -0.0051427 -0.26149 0.14557
-0.038541 -0.018572 0.014501 0.023446
0.011335 -0.00095204 0.010186 -0.0072997 -0.0039497 -0.0031918 -0.038559 -0.018542
-0.20345 -0.051376 -0.03973 0.014345
0.00061764 -0.0022199 0.0011499 -0.002803 0.008072 -0.0037004 0.014522 0.023433
-0.039747 0.014334 -0.24894 -0.0040104
680000000 -0.23273 0.19292 -0.027974 -0.014075 0.0046081 0.0049402 0.00080057 -0.0076601
-0.0033674 -0.010929 0.0042214 -0.0064332
-0.027932 -0.014084 -0.38715 0.1589 -0.032777 -0.0013298 -0.0017117 -0.00023618
-0.0027808 -0.0088298 -0.001127 -0.0019182
0.0046251 0.0049368 -0.03282 -0.0012494 -0.10225 0.28702 -0.00078348 0.00024232
-0.0022496 0.00075626 -0.0029942 -0.0093707
0.00077581 -0.0076755 -0.0017098 -0.00023721 -0.00077555 0.00024293 -0.21934 0.19486
-0.023381 -0.0085709 -0.0087624 -0.010607
-0.0034018 -0.010942 -0.0028127 -0.0088314 -0.0022591 0.00075488 -0.023401 -0.0085555
-0.25179 0.046506 -0.0056616 -0.0094877
0.004198 -0.0064457 -0.0011377 -0.0019153 -0.0029996 -0.0093753 -0.0087691 -0.01063
-0.0056531 -0.0094928 -0.2588 0.098209
740000000 -0.19003 0.18757 -0.038691 0.026328 0.012356 -0.005196 -0.00068422 -0.0040054
-0.0045638 -0.0026845 -0.0061066 0.0035138
-0.038677 0.026263 -0.33505 0.17764 -0.034915 0.035014 -0.00070586 -0.006465
-0.011776 0.0078041 -0.0025066 -0.0059852
0.01235 -0.0052154 -0.034841 0.035139 -0.06868 0.28611 -0.0013846 0.003399
-0.0025219 -0.0039779 -0.0013063 0.00035408
-0.00070872 -0.0040161 -0.00071558 -0.0064609 -0.0013923 0.0033969 -0.20232 0.20247
-0.042882 -0.0083776 0.021923 0.013081
-0.0045957 -0.0026788 -0.011776 0.0078748 -0.0025259 -0.0039746 -0.04291 -0.008316
-0.15696 0.072411 -0.041987 -0.00036373
-0.006083 0.0035086 -0.0025726 -0.0059424 -0.0013232 0.00034209 0.021911 0.013084
-0.041934 -0.00035428 -0.24603 0.10377
800000000 -0.158 0.22801 -0.022703 0.017162 0.0051064 -0.010369 -0.0048702 -0.00202
-0.0039015 0.0027094 0.0044189 0.00099271
-0.022695 0.017131 -0.3377 0.24814 -0.0079055 0.034036 -0.0021617 0.0022227
-0.00049877 0.0034607 0.0011422 0.0052633
0.0050774 -0.010395 -0.007806 0.034094 -0.027432 0.30917 0.001121 0.0014865
0.00075572 0.003566 -0.0018482 0.00099056
-0.0048712 -0.0020088 -0.0021626 0.0022293 0.0011224 0.0014809 -0.1745 0.23032
-0.028489 0.012299 0.012774 -0.009689
-0.0038824 0.0027132 -0.00049602 0.0034626 0.00076853 0.0035788 -0.028489 0.012361
-0.20157 0.09494 -0.017457 0.016965
0.0044364 0.00097859 0.0011623 0.0052669 -0.0018313 0.00098853 0.012781 -0.0097126
-0.017467 0.01695 -0.23799 0.15548
860000000 -0.12317 0.24916 -0.017318 0.031142 -0.0034773 -0.0096173 -0.0025406 0.0012318
0.0040692 0.004932 -0.0029571 -0.0027255
-0.017312 0.031112 -0.2898 0.29024 0.0080122 0.034016 0.00020855 0.0021055
0.0041758 0.00025572 0.0034475 0.0003769
-0.0035087 -0.0096137 0.0081386 0.034039 0.021091 0.31692 -0.00041462 -0.00031661
0.0028147 -0.0015485 0.0015096 0.0044624
-0.0025348 0.0012384 0.00020512 0.002099 -0.00041764 -0.00031555 -0.13873 0.24216
-0.018088 0.018643 -0.0062447 -0.0087809
0.0041107 0.0049079 0.0041811 0.00022912 0.0028153 -0.0015555 -0.018078 0.018696
-0.15219 0.14345 -0.024642 0.014843
-0.0029739 -0.0027175 0.0034411 0.00035848 0.0015106 0.0044558 -0.0062497 -0.0087705
-0.024638 0.014823 -0.1884 0.19745
920000000 -0.097721 0.27264 0.0051788 0.037862 -0.0092392 -0.0040554 -0.0018006 0.0023441
0.0014047 0.0015074 0.0024189 -0.0014463
0.0051662 0.037829 -0.26057 0.31108 0.027867 0.021669 0.0015961 0.0010753
0.0067061 -0.00071754 0.0038012 -0.0030806
-0.0092505 -0.0040289 0.027974 0.021594 0.067474 0.31712 0.001731 -0.00012933
0.0011939 -0.00046544 0.00087601 -0.0010397
-0.0017907 0.0023535 0.001594 0.0010782 0.0017317 -0.00012899 -0.1145 0.2587
-0.010629 0.029999 0.0025074 -0.0062455
0.0014062 0.0015101 0.0066965 -0.00076083 0.0012004 -0.00047038 -0.01058 0.030041
-0.14202 0.14946 -0.0026444 0.027135
0.002417 -0.001459 0.0037912 -0.0031079 0.00087728 -0.001034 0.0025017 -0.0062444
-0.0026618 0.027129 -0.19352 0.21177
980000000 -0.049866 0.29224 0.017908 0.029975 -0.0085788 0.0047207 0.0025427 0.0037862
0.0039507 -0.001756 -0.0030155 -0.0020615
0.017886 0.029962 -0.20753 0.34481 0.032666 0.0046307 0.0019825 2.3513e-05
0.001091 -0.0061046 -0.0006138 -0.0020507
-0.0085667 0.0047459 0.032723 0.0045387 0.11372 0.31012 0.00042015 -0.001161
7.646e-05 -0.0020654 0.0015337 2.228e-06
0.0025617 0.0037833 0.0019696 2.243e-07 0.00041695 -0.0011643 -0.076228 0.27041
0.0070749 0.028719 -0.0091252 -0.0064908
0.0039442 -0.001766 0.0010471 -0.0061402 8.5932e-05 -0.00206 0.0071433 0.028732
-0.11076 0.17742 0.0044528 0.018811
-0.0030244 -0.0020372 -0.00064198 -0.0020639 0.0015409 9.1668e-07 -0.0091266 -0.00648
0.0044406 0.018806 -0.15055 0.2564
1040000000 -0.0069883 0.30032 0.033194 0.017808 -0.00091615 0.0067892 0.0028274 0.0006396
-0.00010331 -0.0037351 -0.0005823 -0.0014972
0.03317 0.0178 -0.17194 0.35762 0.028916 -0.014679 0.0015258 -0.0016937
-0.0025063 -0.0022469 -0.0013538 -0.002618
-0.00090092 0.0067836 0.028897 -0.014791 0.15956 0.29615 -0.00048447 -0.0013898
-0.0015463 -0.00076766 -0.00038191 -0.0011443
0.0028442 0.00063414 0.0015076 -0.0016967 -0.00048527 -0.0013896 -0.04857 0.28027
0.018015 0.017296 -0.0029008 0.002206
-0.00012093 -0.0037235 -0.0025522 -0.0022439 -0.0015415 -0.00076643 0.018055 0.017276
-0.079848 0.18655 0.013163 0.01789
-0.0005761 -0.0014939 -0.0013915 -0.00263 -0.00037893 -0.0011504 -0.0029022 0.0022077
0.013152 0.017885 -0.12859 0.27517
1100000000 0.038745 0.30737 0.035533 -0.0044592 0.0030133 0.0036077 0.0025604 -0.0014787
-0.0021964 -0.0029907 -0.0037997 8.4072e-05
0.035505 -0.0044367 -0.12827 0.37433 0.014885 -0.027348 2.4345e-05 -0.0017923
-0.0030515 -0.00044566 -0.0032823 -0.00049884
0.0030262 0.0035892 0.014796 -0.02743 0.20559 0.27572 -0.0016814 0.0002124
-0.0016374 0.00063926 -0.00091243 -0.00041453
0.0025623 -0.0014943 1.2746e-05 -0.0017949 -0.0016836 0.0002135 -0.0078923 0.28522
0.022419 0.0052603 -0.0021758 0.0010334
-0.0022152 -0.0029755 -0.0030709 -0.00043978 -0.0016366 0.00064506 0.022434 0.0052198
-0.06133 0.20006 0.018247 0.0087402
-0.0037926 0.00010687 -0.0032998 -0.0004878 -0.00091609 -0.0004104 -0.0021705 0.0010401
0.018235 0.0087455 -0.081675 0.30304
1160000000 0.090292 0.30178 0.023672 -0.020632 0.0026925 -0.00061772 -0.00021751 -0.0025955
-0.0039108 -0.00040967 -0.00092805 0.0037363
0.023672 -0.020603 -0.084563 0.37804 -0.0036396 -0.028564 -0.0017014 -0.0016259
-0.0023568 0.0025414 -0.0012003 0.0015093
0.0026956 -0.0006472 -0.0037558 -0.028572 0.24828 0.24503 -0.00061587 0.0016301
-0.00037188 0.001726 -0.00095413 1.649e-05
-0.0002258 -0.0025833 -0.0017262 -0.0016241 -0.00061447 0.0016375 0.03147 0.28208
0.019225 -0.0092345 -0.0024872 0.0056657
-0.0039251 -0.00037217 -0.0023625 0.0025516 -0.00036824 0.0017286 0.019217 -0.0092739
-0.027815 0.20975 0.016847 0.00096378
-0.00090481 0.0037423 -0.0012026 0.0015163 -0.00095861 1.884e-05 -0.0024772 0.0056801
0.016836 0.00096866 -0.034692 0.30522
1220000000 0.1347 0.28994 0.010238 -0.029657 -0.0015689 -0.00094174 -0.00019551 -0.001113
-0.0024506 0.0025414 0.0012943 0.0017528
0.01025 -0.029621 -0.040628 0.38957 -0.01646 -0.020781 -0.0024346 0.00043033
0.00020448 0.0027564 -0.0006735 0.001697
-0.0015715 -0.00094271 -0.016562 -0.020716 0.28742 0.2063 0.0008017 0.0015221
0.00052124 0.0010591 0.00020879 0.00071261
-0.00019709 -0.0011006 -0.0024396 0.0004382 0.0008026 0.001524 0.071055 0.27357
0.0094851 -0.014914 0.0028716 0.0015964
-0.0024386 0.002562 0.00021694 0.0027485 0.00051925 0.0010622 0.0094632 -0.014934
-0.0043514 0.21907 0.013381 -0.011568
0.0013025 0.001763 -0.00066701 0.0017061 0.00020971 0.00070988 0.0028736 0.0015986
0.013371 -0.011561 -0.0028526 0.3207
1280000000 0.18397 0.26716 -0.0076657 -0.028023 -0.0019118 0.0024064 -0.0010814 -0.0019401
-0.00055354 0.0029122 0.0024389 0.0009764
-0.0076497 -0.027996 0.0048722 0.38034 -0.023107 -0.0084834 -0.0010021 0.0014177
0.0014926 0.0015216 0.00047961 0.001897
-0.001903 0.0024193 -0.023176 -0.0083818 0.31828 0.1626 0.0013043 -0.00014552
0.0010122 8.0569e-05 0.00027007 0.00040962
-0.0010816 -0.0019362 -0.00099388 0.0014338 0.0013034 -0.00014514 0.10745 0.25749
0.0011045 -0.016709 0.00055819 -7.3863e-05
-0.00053725 0.0029126 0.0015127 0.0015173 0.0010097 7.7556e-05 0.0010748 -0.01672
0.03282 0.22286 0.003074 -0.013616
0.0024375 0.00097187 0.00048474 0.0019052 0.0002711 0.00040867 0.00055752 -7.5829e-05
0.0030719 -0.013615 0.044377 0.3209
1340000000 0.22056 0.23302 -0.017247 -0.018877 0.00072211 0.0043034 -0.0018551 -0.0007288
0.0014431 0.0025052 0.0015898 -0.0014079
-0.017216 -0.018873 0.043966 0.37211 -0.021199 0.0038542 -9.0131e-05 0.001938
0.0016433 0.00070445 0.0012728 0.00092732
0.0007333 0.0043111 -0.021196 0.0039587 0.34083 0.11449 0.00092436 -0.00078923
0.00058936 -0.00034272 0.00017084 0.00028084
-0.0018611 -0.00072391 -8.2951e-05 0.001942 0.00092757 -0.00079147 0.14029 0.23755
-0.0069084 -0.014268 0.0013095 -0.00012248
0.0014624 0.0025018 0.0016431 0.00068931 0.00059041 -0.0003475 -0.0069566 -0.01426
0.063299 0.21817 -0.0027456 -0.012568
0.0015865 -0.0014207 0.0012828 0.0009177 0.00017277 0.00028014 0.0013064 -0.00012244
-0.0027401 -0.012574 0.082753 0.31551
1400000000 0.25304 0.19448 -0.022968 -0.007692 0.0048842 0.0030515 -0.0019526 0.00067748
0.0024127 0.00065897 0.00019448 -0.0013001
-0.022943 -0.0076967 0.080878 0.35919 -0.014751 0.011823 0.0013189 0.001319
0.0010023 -0.00069157 0.0011668 0.00025695
0.0048972 0.0030296 -0.014703 0.011917 0.35417 0.060426 9.1764e-05 -0.0013645
-9.7454e-06 -0.00035195 0.00032549 0.00016093
-0.0019537 0.00069134 0.0013235 0.0013076 9.0575e-05 -0.0013661 0.17012 0.20921
-0.011915 -0.0086607 -0.0006631 -0.0009898
0.0024294 0.00064955 0.00099548 -0.00070053 -7.5222e-06 -0.00035537 -0.01195 -0.0086279
0.096299 0.21338 -0.0088734 -0.0082429
0.00018574 -0.0012977 0.0011707 0.00024762 0.00032687 0.00015962 -0.00066473 -0.00098779
-0.0088734 -0.0082383 0.12678 0.30399
1460000000 0.27541 0.15045 -0.020242 0.0042282 0.0053926 -0.0015953 -0.0015273 0.0017543
0.0018338 -0.00062571 -0.00031029 -0.00085172
-0.020227 0.0042083 0.11507 0.3376 -0.0064306 0.014847 0.0016933 0.00021093
0.00090752 -0.0010671 0.0011945 -0.00061596
0.0053847 -0.0016063 -0.0063647 0.014897 0.35994 0.0053081 -0.0010038 -0.0011895
0.00022143 -5.2412e-05 0.00066866 -0.00039136
-0.001519 0.0017641 0.001695 0.00019035 -0.0010111 -0.0011902 0.19714 0.1803
-0.012857 -0.003426 -0.0012282 0.0013677
0.0018221 -0.00063836 0.00090039 -0.0010717 0.00022125 -6.4241e-05 -0.012872 -0.0033835
0.12615 0.19855 -0.010602 -0.0031221
-0.00031816 -0.00084643 0.0011889 -0.00061603 0.00066766 -0.00038344 -0.0012478 0.0013736
-0.010609 -0.0031312 0.16009 0.28223
1520000000 0.28735 0.10891 -0.014871 0.009878 0.0030887 -0.0039709 0.00011676 0.0025504
0.0017281 -0.0015907 -0.0010896 -0.00015475
-0.014864 0.0098638 0.1487 0.32296 0.0010481 0.013014 0.00161 -0.00077067
0.00015662 -0.00091055 0.00033609 -0.0010023
0.0030606 -0.0039837 0.0011315 0.013018 0.35269 -0.051049 -0.00089458 -0.00042655
0.00055698 -0.00074678 -1.3917e-05 -2.7487e-05
0.00012962 0.0025489 0.001611 -0.00078248 -0.0008989 -0.0004345 0.22116 0.14221
-0.012809 0.0011926 0.00080083 0.0017305
0.0017282 -0.0015984 0.00014718 -0.0009198 0.00055828 -0.00075348 -0.012812 0.0012282
0.1541 0.18411 -0.010844 0.00080542
-0.00109 -0.00014126 0.00032346 -0.0010018 -1.1667e-05 -2.8777e-05 0.00080673 0.0017263
-0.010841 0.00081207 0.19278 0.261
1580000000 0.29654 0.062423 -0.0084798 0.013099 -0.00086308 -0.0046057 0.0013432 0.0018302
-0.00043682 -0.0019927 -0.0003962 0.0003374
-0.0084793 0.013083 0.17619 0.29813 0.0048524 0.0084451 0.00047058 -0.0015579
-0.00039101 -0.0010787 -0.00024449 -0.00087702
-0.00087882 -0.0046089 0.0049019 0.0084264 0.33204 -0.10873 -0.0015029 0.00038021
-0.00021086 -0.0010578 0.00014615 -0.00055469
0.001353 0.00182 0.000461 -0.0015515 -0.0015067 0.0003732 0.23608 0.1023
-0.010413 0.00544 0.0016959 0.0007783
-0.0004462 -0.0019994 -0.00039817 -0.0010828 -0.00021348 -0.0010634 -0.010406 0.0054717
0.17865 0.1659 -0.0088368 0.0062215
-0.00039518 0.00034285 -0.00025858 -0.00087683 0.00014578 -0.00055407 0.0016939 0.0007694
-0.0088294 0.0062211 0.22411 0.23342
1640000000 0.2983 0.020715 -0.0019069 0.012334 -0.0026274 -0.0024497 0.0025376 0.0010204
-0.00074092 -0.0011535 -0.00032957 0.00065302
-0.0019138 0.012318 0.20572 0.27288 0.0056508 0.0037505 -0.00068725 -0.0016568
-0.00097367 -0.00051295 -0.00053563 -0.00065409
-0.0026448 -0.0024367 0.0056792 0.0037181 0.30348 -0.158 -0.00088331 0.0012844
-0.00098963 -0.00091472 -9.7074e-05 -0.00031936
0.0025398 0.0010074 -0.00069784 -0.0016463 -0.00087977 0.0012782 0.24887 0.052284
-0.007127 0.0067457 0.0021109 -0.00053978
-0.00074965 -0.0011536 -0.00097932 -0.00051148 -0.00099074 -0.00091093 -0.0071017 0.0067742
0.20201 0.14078 -0.004767 0.0083658
-0.00032166 0.00065767 -0.00054894 -0.00065193 -9.899e-05 -0.00031783 0.0021083 -0.00054234
-0.0047673 0.0083703 0.24928 0.20153
1700000000 0.29056 -0.024958 0.0016753 0.0098258 -0.0032854 5.8007e-05 0.0029004 -0.0010805
-0.0018298 -0.00053132 0.00060829 0.00049484
0.0016658 0.0098307 0.22397 0.24101 0.0038836 0.00092668 -0.0013589 -0.00058654
-0.00082477 -1.3673e-05 -0.00092338 -0.00041045
-0.0032907 7.5921e-05 0.0038873 0.00090005 0.25932 -0.19754 0.0003163 0.0016183
-0.0017011 -0.00030586 -0.00054163 -0.00096707
0.0028922 -0.0010976 -0.0013662 -0.00057821 0.00031679 0.0016168 0.24547 0.0011427
-0.0050696 0.0076456 0.0012596 -0.0019457
-0.0018378 -0.00051744 -0.00083053 -1.0439e-05 -0.0017034 -0.00030572 -0.00505 0.0076597
0.21981 0.11953 -0.00049532 0.0088037
0.00061799 0.00048989 -0.00092821 -0.00040401 -0.0005452 -0.00096901 0.0012574 -0.0019458
-0.00048431 0.0088079 0.26476 0.16677
1760000000 0.27744 -0.073704 0.0042535 0.0066976 -0.0021708 0.00071856 0.0013816 -0.003282
-0.001068 0.000585 0.00046244 -0.00046294
0.0042528 0.0066851 0.24968 0.20068 0.0018355 -0.00091401 -0.0011094 0.00016885
-0.0011615 0.00091302 -0.0005862 0.000539
-0.0021684 0.00072665 0.0018308 -0.0009205 0.21015 -0.23018 0.0011172 0.0012987
-0.0012145 0.0013036 -0.0013054 -0.00039382
0.0013587 -0.0032815 -0.0011168 0.00017726 0.0011014 0.0013064 0.23515 -0.05135
-0.0023331 0.007414 -0.00034211 -0.002056
-0.0010685 0.00059528 -0.0011476 0.00092268 -0.0012061 0.001307 -0.0023161 0.0074251
0.23474 0.082885 0.0031972 0.0066103
0.00046114 -0.00047014 -0.00057833 0.00055132 -0.0013044 -0.00038559 -0.00034897 -0.0020537
0.0032016 0.0066031 0.27648 0.12867
1820000000 0.25189 -0.11081 0.0047395 0.0030839 -0.00011933 0.0023553 -0.00086947 -0.0031048
-0.00086384 0.00061667 8.4159e-05 -0.00018396
0.0047383 0.0030803 0.25925 0.17033 -0.0001523 1.5658e-05 -0.001365 0.00086986
-0.00012804 0.0013935 -0.00047262 0.00055151
-0.00010709 0.0023495 -0.00015311 1.0278e-05 0.16019 -0.24552 0.0015545 0.00049305
-0.00049629 0.0020948 -0.0014315 0.00053071
-0.00088383 -0.0030964 -0.001366 0.00087894 0.0015601 0.00049264 0.20376 -0.0987
-0.00098138 0.0062124 -0.001512 -0.0012456
-0.00086271 0.00062472 -0.00010742 0.0014016 -0.0004891 0.002094 -0.00096235 0.0062166
0.25137 0.051685 0.0041186 0.0034639
8.3273e-05 -0.00019027 -0.00046923 0.00056125 -0.0014271 0.00052953 -0.0015149 -0.0012388
0.0041278 0.0034607 0.2778 0.092462
1880000000 0.21596 -0.15046 0.0027705 0.00061233 -0.00037227 0.0021171 -0.0028467 -0.00229
-0.00024824 0.0014619 0.00034662 -0.00057208
0.0027721 0.00060604 0.26323 0.12363 -0.0020942 0.0016632 -0.00020039 0.0017086
0.00069246 0.001377 0.00025208 0.00098208
-0.00036391 0.002121 -0.0020852 0.0016715 0.10829 -0.2547 0.0019933 -0.00098951
0.0013743 0.0021366 -0.00084856 0.0013863
-0.0028582 -0.0022794 -0.00018998 0.0017044 0.002005 -0.0009892 0.16181 -0.13812
-0.00040477 0.0049843 -0.0021644 0.00072833
-0.00023332 0.0014704 0.00070862 0.0013754 0.0013815 0.0021293 -0.00039755 0.0049833
0.253 0.017204 0.0039683 0.0016076
0.00034223 -0.00057496 0.00025609 0.00097221 -0.00085279 0.0013926 -0.0021555 0.00073987
0.0039736 0.0016033 0.27671 0.058277
1940000000 0.17595 -0.17534 0.00054492 -0.0014038 0.0013407 0.0019211 -0.0037507 0.00050734
0.0010969 0.001082 -0.00062325 -0.00070392
0.00054638 -0.0013945 0.2632 0.09181 -0.0010431 0.0038442 0.00095924 0.0013781
0.0020165 0.00054451 0.00089847 0.0002395
0.0013502 0.0019171 -0.0010235 0.003861 0.062467 -0.24834 0.00042984 -0.002348
0.0024588 0.00065095 0.00034889 0.0015645
-0.0037535 0.00052643 0.00096916 0.0013707 0.00043072 -0.0023456 0.10856 -0.1672
-0.0013121 0.0041773 -0.001083 0.0016986
0.0011022 0.0010757 0.0020289 0.00052531 0.0024661 0.00064389 -0.0013102 0.0041781
0.2526 -0.023582 0.0030631 -0.001353
-0.00063316 -0.00069678 0.00089853 0.00023383 0.00035842 0.0015698 -0.0010778 0.0017041
0.0030644 -0.0013552 0.2649 0.022331
2000000000 0.12979 -0.18883 -0.0034418 0.00043887 0.002417 0.0014924 -0.0022861 0.0035738
0.001057 0.00036129 -0.00071979 0.00034314
-0.0034346 0.00044063 0.24857 0.056536 -0.00078178 0.005639 0.0016864 0.00034756
0.0014909 -0.0014836 0.0005384 0.00015399
0.0024241 0.0014833 -0.00073698 0.0056557 0.019273 -0.23369 -0.0014598 -0.0014705
0.0021218 -0.0011771 0.0016003 0.0012944
-0.0022655 0.003595 0.0016914 0.00034371 -0.0014645 -0.0014629 0.055394 -0.17549
-0.0025279 0.0046402 0.00035541 0.0021267
0.0010604 0.0003485 0.0014744 -0.0014996 0.002117 -0.0011703 -0.0025083 0.0046482
