!Keysight Technologies,M9804A,MY58100912,A.14.10.03
!Date: Thursday, April 27, 2023 10:28:33
!Correction: S11(C  6-Port  ) 
!S12(C  6-Port  ) 
!S13(C  6-Port  ) 
!S14(C  6-Port  ) 
!S15(C  6-Port  ) 
!S16(C  6-Port  ) 
!S21(C  6-Port  ) 
!S22(C  6-Port  ) 
!S23(C  6-Port  ) 
!S24(C  6-Port  ) 
!S25(C  6-Port  ) 
!S26(C  6-Port  ) 
!S31(C  6-Port  ) 
!S32(C  6-Port  ) 
!S33(C  6-Port  ) 
!S34(C  6-Port  ) 
!S35(C  6-Port  ) 
!S36(C  6-Port  ) 
!S41(C  6-Port  ) 
!S42(C  6-Port  ) 
!S43(C  6-Port  ) 
!S44(C  6-Port  ) 
!S45(C  6-Port  ) 
!S46(C  6-Port  ) 
!S51(C  6-Port  ) 
!S52(C  6-Port  ) 
!S53(C  6-Port  ) 
!S54(C  6-Port  ) 
!S55(C  6-Port  ) 
!S56(C  6-Port  ) 
!S61(C  6-Port  ) 
!S62(C  6-Port  ) 
!S63(C  6-Port  ) 
!S64(C  6-Port  ) 
!S65(C  6-Port  ) 
!S66(C  6-Port  ) 
!S6P File: Measurement: :
# Hz S  RI   R 50
500000000 -0.33659 -0.035281 -0.0095569 -0.0034009 -0.007627 0.011633 -0.0033117 0.011571
0.012276 0.0045928 -0.003376 0.0083149
-0.0095456 -0.003393 -0.41869 -0.049904 0.0077048 -0.011721 0.0016374 0.011773
0.0074227 0.0024482 0.0012689 0.013161
-0.0076021 0.011655 0.0076822 -0.011747 -0.26425 0.21077 0.0069395 0.0028257
-0.00013033 0.0086495 0.00080734 0.011674
-0.0032968 0.011585 0.001662 0.011794 0.0069432 0.0028202 -0.32664 0.046854
-0.019472 -0.0041839 0.017941 0.024962
0.01228 0.0045687 0.0074266 0.0024325 -0.00012029 0.0086441 -0.019478 -0.0041864
-0.2246 -0.18551 -0.026976 0.0052571
-0.0033899 0.0083063 0.0012733 0.01317 0.00080892 0.011673 0.01794 0.024949
-0.026977 0.0052478 -0.2721 -0.11383
560000000 -0.31535 0.12451 -0.023729 -0.063063 0.00014253 0.011848 0.0066077 0.0097185
0.010764 0.0041913 0.0096792 0.0070136
-0.023674 -0.063016 -0.37622 0.10828 -0.041812 -0.036912 0.013406 0.0035745
-0.013557 -0.0050325 0.0038383 -0.00049784
0.00017403 0.011878 -0.041957 -0.036873 -0.18241 0.25853 -0.00067821 -0.0050376
0.01912 0.0043507 0.0071789 -0.005982
0.0066407 0.0097228 0.013408 0.0035263 -0.00067257 -0.0050297 -0.30259 0.13569
0.0041526 -0.025005 0.0045676 -0.019604
0.01081 0.0041669 -0.013613 -0.0049756 0.019133 0.0043399 0.0041122 -0.025005
-0.28423 -0.010152 0.0082031 -0.049683
0.0097076 0.0070148 0.0038341 -0.00054559 0.0071768 -0.0059694 0.0045596 -0.019617
0.0082117 -0.049676 -0.33063 0.031983
620000000 -0.2729 0.10914 -0.023051 0.007162 0.0032365 0.0083781 0.0066777 -0.0055307
0.011346 -0.00093719 0.00064173 -0.0022295
-0.023037 0.0071543 -0.40242 0.062191 -0.01891 -0.00015145 -0.0012783 -0.0019445
0.010227 -0.0072683 0.0011558 -0.0028041
0.0032637 0.0083604 -0.018938 -9.9191e-05 -0.1528 0.26729 -0.0016046 -0.00516
-0.0039465 -0.0031893 0.0080429 -0.0036936
0.0066875 -0.0055467 -0.001291 -0.0019568 -0.0016027 -0.0051637 -0.2615 0.14556
-0.038496 -0.018518 0.014488 0.023474
0.011354 -0.0009398 0.010217 -0.0073103 -0.0039438 -0.0031835 -0.038535 -0.018491
-0.20342 -0.051378 -0.03971 0.014348
0.00063946 -0.0021689 0.0011657 -0.002821 0.0080527 -0.0037076 0.014517 0.023484
-0.039725 0.01433 -0.24891 -0.0041183
680000000 -0.23277 0.19297 -0.027959 -0.014081 0.0046054 0.0049484 0.00078353 -0.0076676
-0.0033626 -0.010968 0.0041971 -0.0064284
-0.02793 -0.014083 -0.38714 0.15893 -0.032787 -0.0013291 -0.0017132 -0.00024429
-0.0027941 -0.0088429 -0.0011304 -0.0019383
0.0046142 0.0049267 -0.032817 -0.0012424 -0.10226 0.28704 -0.00078366 0.00024124
-0.0022578 0.00075326 -0.0029938 -0.0093797
0.00080056 -0.0076916 -0.0017195 -0.00023485 -0.00078785 0.00023913 -0.2193 0.19491
-0.023357 -0.0085788 -0.0087448 -0.010638
-0.0033975 -0.010978 -0.0028165 -0.0088483 -0.0022566 0.00074137 -0.023381 -0.0085458
-0.25168 0.046386 -0.0056156 -0.0095254
0.0041857 -0.006463 -0.0011314 -0.0019323 -0.00299 -0.0093756 -0.0087565 -0.010629
-0.0056089 -0.0095258 -0.25876 0.098168
740000000 -0.19002 0.18768 -0.038682 0.02635 0.012365 -0.0051734 -0.0007036 -0.0039911
-0.0045923 -0.0027094 -0.0060799 0.0035178
-0.038658 0.026287 -0.33508 0.17764 -0.034885 0.034995 -0.0007234 -0.0064561
-0.011807 0.0078125 -0.0025182 -0.0059786
0.012345 -0.0052146 -0.034823 0.035144 -0.068659 0.28614 -0.0014123 0.003403
-0.0025247 -0.0039709 -0.0013171 0.00033981
-0.00072014 -0.0040104 -0.0007579 -0.0064648 -0.0014026 0.0034005 -0.20232 0.20245
-0.042857 -0.0084342 0.021922 0.013061
-0.0045927 -0.0026707 -0.011828 0.0079105 -0.0025484 -0.0039721 -0.042889 -0.0083736
-0.15686 0.072292 -0.041949 -0.00038462
-0.0061287 0.0034706 -0.0025352 -0.0059681 -0.0013132 0.0003463 0.021942 0.013047
-0.041942 -0.00041967 -0.24609 0.1037
800000000 -0.15792 0.22809 -0.022695 0.017178 0.0051069 -0.010365 -0.0048707 -0.0020022
-0.003899 0.0027081 0.0044017 0.0010047
-0.022687 0.017141 -0.3377 0.24818 -0.0078862 0.03404 -0.0021627 0.0022307
-0.0005311 0.0034596 0.0011388 0.0052726
0.0050847 -0.010383 -0.007797 0.034098 -0.027409 0.30919 0.0011234 0.0014976
0.00075592 0.0035785 -0.0018448 0.00099752
-0.0048585 -0.0019959 -0.0021641 0.0022409 0.0011192 0.0014935 -0.17453 0.23035
-0.028515 0.012247 0.012752 -0.0097127
-0.0038928 0.0027293 -0.0005274 0.0034666 0.00076135 0.0035765 -0.028498 0.012318
-0.20152 0.094781 -0.017474 0.016927
0.0044248 0.00099129 0.0011527 0.0052734 -0.0018391 0.00099133 0.012748 -0.0097361
-0.017494 0.016913 -0.23804 0.15541
860000000 -0.12307 0.24922 -0.017314 0.031131 -0.0034877 -0.0096273 -0.0025328 0.0012181
0.0040846 0.0049415 -0.0029461 -0.0027125
-0.017322 0.0311 -0.28976 0.29026 0.0080234 0.034026 0.00020575 0.002098
0.0041702 0.00027189 0.0034511 0.00039138
-0.0035031 -0.0096157 0.0081441 0.034034 0.021119 0.31694 -0.00040704 -0.00031456
0.0028197 -0.0015453 0.0015144 0.0044615
-0.0025145 0.0012222 0.00021206 0.0020939 -0.00040922 -0.00031404 -0.13873 0.2422
-0.018149 0.018628 -0.0062675 -0.0087694
0.0041053 0.0049152 0.004174 0.0002382 0.0028197 -0.0015568 -0.018101 0.01867
-0.15226 0.14327 -0.024696 0.014824
-0.0029543 -0.002703 0.0034517 0.00037568 0.0015202 0.0044587 -0.0062739 -0.0087672
-0.024704 0.014807 -0.18844 0.19742
920000000 -0.097613 0.27262 0.0051813 0.037857 -0.0092529 -0.0040594 -0.0017971 0.0023341
0.0014182 0.001526 0.002425 -0.0014457
0.0051549 0.037825 -0.26054 0.31111 0.027878 0.021678 0.0015987 0.0010886
0.0067093 -0.00071622 0.003818 -0.0030729
-0.0092627 -0.0040305 0.027975 0.021601 0.06751 0.31714 0.0017294 -0.00013306
0.0011954 -0.00046857 0.00087559 -0.0010349
-0.0017797 0.0023373 0.0015836 0.0010766 0.001736 -0.00012833 -0.11448 0.25872
-0.010675 0.030008 0.002491 -0.0062229
0.0014239 0.001518 0.0067129 -0.00073163 0.0011909 -0.00047675 -0.010615 0.030038
-0.14208 0.1494 -0.0026773 0.027147
0.0024367 -0.0014734 0.0038079 -0.0030847 0.00087413 -0.0010406 0.0024889 -0.0062299
-0.0026881 0.027136 -0.1936 0.21171
980000000 -0.049766 0.29221 0.017873 0.029989 -0.0085894 0.0047047 0.0025502 0.0037734
0.0039603 -0.0017445 -0.0030086 -0.0020658
0.017846 0.029986 -0.20746 0.34486 0.032673 0.0046587 0.001975 2.2283e-05
0.0011109 -0.0061302 -0.00061571 -0.0020535
-0.0085759 0.0047528 0.032721 0.0045386 0.11375 0.31013 0.00042256 -0.0011748
8.6979e-05 -0.002068 0.0015276 2.8797e-06
0.0025516 0.0037713 0.0019722 -5.1011e-06 0.00041731 -0.0011721 -0.076188 0.27043
0.0070528 0.028776 -0.0091118 -0.0064729
0.0039467 -0.0017614 0.0010649 -0.0061361 8.0151e-05 -0.0020651 0.0071237 0.028759
-0.1109 0.17741 0.0044197 0.01885
-0.003024 -0.0020505 -0.00064705 -0.0020727 0.0015255 4.1975e-06 -0.0091238 -0.0064706
0.0044097 0.018845 -0.15059 0.25637
1040000000 -0.0068831 0.30025 0.033171 0.01785 -0.00092492 0.0067744 0.0028257 0.00062525
-0.00010964 -0.0037261 -0.00058455 -0.0015168
0.033158 0.017863 -0.17188 0.35763 0.028952 -0.014645 0.0015204 -0.0016781
-0.0025287 -0.0022877 -0.0013537 -0.0026285
-0.00089548 0.0067923 0.028906 -0.014781 0.15961 0.29613 -0.00048992 -0.0013917
-0.0015498 -0.00078648 -0.00038611 -0.0011561
0.0028307 0.00062709 0.0015057 -0.0016965 -0.00049259 -0.0013908 -0.048547 0.28027
0.018024 0.017336 -0.0028781 0.0022254
-0.00011788 -0.0037382 -0.0025626 -0.0022474 -0.001556 -0.00078245 0.018064 0.017288
-0.079956 0.18659 0.013159 0.017948
-0.00058545 -0.0015027 -0.001389 -0.002637 -0.00038821 -0.0011545 -0.0028717 0.0022225
0.013153 0.017949 -0.12866 0.2751
1100000000 0.038783 0.30731 0.035544 -0.0044292 0.0030226 0.0036057 0.0025519 -0.0014775
-0.0021962 -0.0030011 -0.0038114 7.8437e-05
0.035519 -0.0044025 -0.1282 0.37436 0.014898 -0.027343 2.2968e-05 -0.0017797
-0.0030623 -0.00046277 -0.0032953 -0.00050526
0.0030347 0.0036 0.014807 -0.02743 0.2056 0.2757 -0.0016893 0.00021921
-0.0016419 0.00063938 -0.00091302 -0.00041901
0.0025511 -0.001475 1.1255e-05 -0.001789 -0.0016883 0.00022121 -0.0078927 0.28521
0.022443 0.0052731 -0.002162 0.0010303
-0.0022066 -0.0029941 -0.0030654 -0.00044004 -0.0016398 0.00063756 0.022457 0.0052192
-0.061389 0.20018 0.018262 0.0087673
-0.0038096 0.00011374 -0.0033043 -0.00049484 -0.00091728 -0.00041827 -0.0021728 0.0010316
0.018252 0.008767 -0.081764 0.303
1160000000 0.090353 0.30171 0.023684 -0.020612 0.0027069 -0.00063369 -0.00021443 -0.002581
-0.0039418 -0.00040372 -0.00093332 0.0037567
0.023696 -0.020569 -0.084498 0.37801 -0.0036152 -0.028548 -0.0017025 -0.0016138
-0.0023674 0.0025165 -0.0012028 0.00151
0.0027032 -0.00064124 -0.0037596 -0.028576 0.24833 0.245 -0.00061466 0.0016328
-0.0003731 0.0017235 -0.00095727 1.6637e-05
-0.00022164 -0.0025598 -0.0017264 -0.0016211 -0.00061733 0.0016321 0.031488 0.2821
0.019245 -0.0092337 -0.0024752 0.0056694
-0.0039398 -0.0003897 -0.0023692 0.0025616 -0.00038457 0.0017119 0.019229 -0.0092762
-0.027907 0.20989 0.016859 0.00097239
-0.00091261 0.0037684 -0.0012087 0.0015105 -0.00096251 2.6224e-05 -0.0024773 0.0056811
0.016863 0.00098692 -0.034719 0.30518
1220000000 0.13469 0.28988 0.010261 -0.029657 -0.0015681 -0.00096504 -0.00017656 -0.0011049
-0.0024622 0.0025524 0.0013022 0.0017653
0.010279 -0.029621 -0.040551 0.38955 -0.016454 -0.020767 -0.0024477 0.00043388
0.00020933 0.0027445 -0.00066942 0.0016994
-0.0015699 -0.00095418 -0.016572 -0.020727 0.28745 0.20626 0.00080911 0.0015276
0.00052465 0.00107 0.00022085 0.00070926
-0.00018246 -0.0010988 -0.0024501 0.00043293 0.0008045 0.0015236 0.071071 0.27359
0.0094963 -0.014908 0.0028741 0.0015783
-0.0024481 0.0025588 0.00020975 0.0027531 0.00052992 0.0010613 0.0094676 -0.014937
-0.0043613 0.21925 0.013406 -0.011569
0.0013121 0.0017738 -0.00066431 0.001708 0.00021863 0.00071151 0.0028704 0.0015837
0.013405 -0.011566 -0.0028787 0.32073
1280000000 0.18398 0.26716 -0.0076642 -0.028042 -0.0019269 0.002398 -0.0010726 -0.0019572
-0.00055894 0.0029223 0.0024416 0.00097686
-0.007639 -0.028012 0.0049424 0.38035 -0.023106 -0.0084908 -0.0010002 0.001429
0.0014937 0.0015238 0.00048419 0.0019115
-0.0019122 0.0024001 -0.02318 -0.0084038 0.31832 0.16257 0.0013029 -0.00013914
0.0010066 8.0922e-05 0.0002674 0.00040897
-0.0010755 -0.0019446 -0.0010029 0.0014328 0.0013049 -0.00013157 0.10749 0.25751
0.0011168 -0.016701 0.00055657 -8.6482e-05
-0.00054212 0.0029223 0.0014996 0.0015202 0.0010029 8.0668e-05 0.0010655 -0.016713
0.032909 0.223 0.003087 -0.013604
0.0024488 0.00096252 0.00048717 0.001914 0.00027041 0.00040807 0.00055203 -7.6007e-05
0.0030949 -0.013605 0.044343 0.32093
1340000000 0.22061 0.23302 -0.017262 -0.018908 0.00071452 0.0042966 -0.0018566 -0.00074749
0.0014522 0.0025205 0.001592 -0.0014148
-0.01723 -0.018907 0.044037 0.37212 -0.021198 0.0038515 -9.355e-05 0.0019472
0.0016243 0.00070325 0.0012775 0.00092112
0.00072874 0.0042903 -0.021201 0.0039608 0.34084 0.11445 0.00093503 -0.00078819
0.00059344 -0.00034021 0.00017549 0.00027882
-0.0018569 -0.00073986 -8.5129e-05 0.0019513 0.00093728 -0.00078839 0.14035 0.23752
-0.0068907 -0.014265 0.0012935 -0.00013614
0.0014604 0.0025231 0.0016445 0.00069416 0.0005968 -0.00034334 -0.0069533 -0.014242
0.0634 0.21823 -0.0027265 -0.012583
0.0015883 -0.0014259 0.0012764 0.0009108 0.00017726 0.0002774 0.0012943 -0.00012535
-0.0027156 -0.012578 0.08271 0.31555
1400000000 0.2531 0.1945 -0.022993 -0.0077102 0.0048766 0.0030548 -0.0019603 0.00067112
0.0024384 0.00067349 0.00018971 -0.001306
-0.022947 -0.0077199 0.080938 0.35919 -0.014756 0.011817 0.001322 0.001322
0.0010035 -0.00068072 0.0011665 0.00025786
0.0048872 0.0030293 -0.014716 0.011916 0.35419 0.06037 9.6236e-05 -0.0013692
-1.7003e-06 -0.00035557 0.00032823 0.00016094
-0.0019636 0.00068873 0.0013351 0.0013184 0.00010204 -0.001371 0.17015 0.20915
-0.011894 -0.0086577 -0.00066917 -0.00099281
0.0024352 0.00065741 0.0010044 -0.00069539 2.7569e-06 -0.0003575 -0.011926 -0.0086134
0.096476 0.21339 -0.0088647 -0.0082561
0.00018196 -0.0013022 0.0011743 0.00024261 0.00032887 0.00015869 -0.00066497 -0.00098414
-0.0088482 -0.0082582 0.12679 0.30402
1460000000 0.27553 0.15045 -0.020278 0.0042326 0.0053956 -0.0015901 -0.0015334 0.0017632
0.0018325 -0.00063847 -0.00031405 -0.00085604
-0.020248 0.0042085 0.11513 0.3376 -0.0064534 0.014847 0.0017063 0.00019975
0.00091791 -0.001065 0.0012018 -0.00062034
0.0053794 -0.0016077 -0.0063825 0.014903 0.35996 0.0052436 -0.0010108 -0.0011852
0.00022631 -6.2704e-05 0.00067147 -0.00038683
-0.0015269 0.0017662 0.0017139 0.00019902 -0.0010089 -0.0011847 0.19715 0.18021
-0.012834 -0.003428 -0.0012459 0.0013789
0.0018402 -0.000648 0.00090598 -0.0010788 0.00023029 -5.6615e-05 -0.012847 -0.0033724
0.12629 0.19845 -0.01059 -0.0031478
-0.00032085 -0.00084843 0.0012009 -0.0006164 0.00067185 -0.00039647 -0.0012318 0.0013928
-0.010581 -0.0031592 0.16008 0.28227
1520000000 0.28747 0.10883 -0.014882 0.0098945 0.0030857 -0.0039636 0.00012166 0.0025581
0.001734 -0.0016011 -0.0010975 -0.00013753
-0.014881 0.0098724 0.14877 0.32295 0.0010454 0.013024 0.0016191 -0.00078107
0.00016401 -0.00091764 0.00032613 -0.0010037
0.0030632 -0.0039812 0.0011207 0.013031 0.35272 -0.051125 -0.00089676 -0.0004302
0.00056019 -0.00075037 -1.7245e-05 -2.6923e-05
0.00013504 0.0025576 0.0016196 -0.00078809 -0.00089891 -0.00043007 0.22109 0.14214
-0.012799 0.0011506 0.00080688 0.0017358
0.0017271 -0.0016259 0.00015976 -0.00092518 0.0005624 -0.00075329 -0.012774 0.0012185
0.15419 0.18397 -0.010853 0.00078422
-0.001102 -0.00013818 0.00032044 -0.0010095 -1.5617e-05 -2.8403e-05 0.00081399 0.0017157
-0.010854 0.00078419 0.19275 0.26104
1580000000 0.29664 0.062303 -0.0084681 0.013119 -0.00085467 -0.0045977 0.0013442 0.0018242
-0.00044386 -0.0019962 -0.00039852 0.00034302
-0.0084791 0.013105 0.17626 0.29811 0.0048511 0.00846 0.00046562 -0.0015633
-0.00038953 -0.0010945 -0.00025422 -0.0008831
-0.00087809 -0.0045954 0.0049022 0.0084387 0.33203 -0.1088 -0.0014993 0.00036879
-0.0002093 -0.0010645 0.00015056 -0.00055764
0.0013514 0.0018188 0.00045968 -0.0015666 -0.0015038 0.0003641 0.236 0.1023
-0.010437 0.0054024 0.0016997 0.0007775
-0.00046843 -0.0020047 -0.000401 -0.0010803 -0.00021537 -0.0010701 -0.010384 0.0054426
0.17871 0.16575 -0.0088552 0.0062166
-0.00039913 0.00034938 -0.00026502 -0.00087708 0.00015 -0.00055734 0.0016933 0.000756
-0.0088481 0.006211 0.22409 0.23345
1640000000 0.29836 0.02053 -0.0018942 0.012338 -0.0026196 -0.0024412 0.0025365 0.0010126
-0.00073927 -0.0011524 -0.000323 0.00065253
-0.0019037 0.012332 0.2058 0.27283 0.0056649 0.0037537 -0.00069725 -0.001649
-0.00099247 -0.00051946 -0.00054185 -0.00065716
-0.0026282 -0.0024268 0.0056908 0.0037246 0.30346 -0.15807 -0.00088544 0.0012896
-0.00098314 -0.00091038 -9.331e-05 -0.0003179
0.0025375 0.0010085 -0.00071361 -0.0016564 -0.00088908 0.0012833 0.24881 0.052325
-0.0071488 0.0067319 0.0021088 -0.00053948
-0.00075018 -0.001144 -0.00098949 -0.00051283 -0.00099471 -0.00091433 -0.0071009 0.0067362
0.20196 0.14066 -0.0047822 0.0083723
-0.00031562 0.00065576 -0.00055169 -0.00064678 -9.4678e-05 -0.00031648 0.0021045 -0.00054064
-0.0047861 0.0083684 0.24926 0.20156
1700000000 0.29055 -0.025125 0.0016924 0.0098277 -0.0032848 5.4119e-05 0.0029035 -0.0010827
-0.0018345 -0.00051599 0.00061586 0.00049296
0.001675 0.0098281 0.22402 0.24096 0.0038891 0.00092617 -0.0013711 -0.00058451
-0.00084761 -1.2373e-05 -0.00092022 -0.00039916
-0.0032863 8.1021e-05 0.0039005 0.00090032 0.25932 -0.19761 0.00031171 0.0016148
-0.0017125 -0.00030624 -0.00054087 -0.00095898
0.0028927 -0.0010975 -0.0013813 -0.00057754 0.00031337 0.0016124 0.24545 0.0012152
-0.0050997 0.0076476 0.0012637 -0.0019429
-0.0018479 -0.00050128 -0.0008485 -9.7263e-06 -0.0017102 -0.00030615 -0.0050709 0.0076302
0.21974 0.11945 -0.00048837 0.0088213
0.00062524 0.00048773 -0.00092895 -0.00039308 -0.00054736 -0.00095893 0.0012536 -0.0019433
-0.00047743 0.0088175 0.26477 0.16677
1760000000 0.27738 -0.073831 0.0042543 0.006678 -0.0021769 0.00071556 0.0013717 -0.003267
-0.0010704 0.00059403 0.0004659 -0.00046163
0.0042459 0.0066791 0.24975 0.20062 0.0018471 -0.00091508 -0.0011072 0.00018321
-0.0011745 0.00092598 -0.00057545 0.00055711
-0.0021616 0.00073534 0.0018351 -0.00092907 0.21011 -0.23025 0.0011097 0.0013172
-0.0012178 0.0013108 -0.0012954 -0.00038947
0.0013535 -0.0032695 -0.0011158 0.00019214 0.001108 0.0013171 0.23521 -0.051291
-0.0023641 0.0074258 -0.00034426 -0.0020574
-0.0010594 0.00060619 -0.0011639 0.00093893 -0.0012075 0.0013177 -0.0023486 0.007397
0.23468 0.082841 0.0031932 0.0066156
0.00045786 -0.00047135 -0.00057165 0.00056054 -0.0012997 -0.00038019 -0.00034747 -0.0020558
0.0032056 0.0066102 0.27648 0.12868
1820000000 0.25182 -0.1109 0.0047199 0.0030712 -0.00011751 0.0023632 -0.00086549 -0.0030889
-0.00085819 0.00063254 8.8058e-05 -0.00018762
0.0047222 0.0030737 0.25928 0.17027 -0.00014453 3.7893e-06 -0.0013557 0.00087954
-0.00011992 0.0014172 -0.00047381 0.00055157
-0.00010763 0.0023608 -0.00014387 6.9943e-06 0.16016 -0.24556 0.0015814 0.00050013
-0.00047817 0.0021076 -0.00143 0.0005243
-0.00088224 -0.0030884 -0.0013601 0.00088894 0.0015764 0.00049893 0.20379 -0.098711
-0.00099814 0.006224 -0.001527 -0.0012461
-0.00085281 0.00063122 -0.00010278 0.0014259 -0.0004771 0.0021147 -0.0010002 0.0062125
0.25129 0.051698 0.0041215 0.0034653
8.4932e-05 -0.00018485 -0.00046228 0.00055807 -0.0014325 0.00052799 -0.001525 -0.0012464
0.0041221 0.0034622 0.27777 0.092513
1880000000 0.2159 -0.1505 0.0027642 0.00061694 -0.00036458 0.0021149 -0.0028239 -0.0022892
-0.000225 0.0014733 0.0003377 -0.00057784
0.0027586 0.00061908 0.26328 0.12357 -0.0020955 0.0016667 -0.00018095 0.0016992
0.00071844 0.0013936 0.00025255 0.00096694
-0.00034422 0.002119 -0.0020874 0.0016742 0.10825 -0.25474 0.0020193 -0.0010154
0.0014004 0.0021399 -0.00085704 0.0013808
-0.0028342 -0.0022767 -0.00016699 0.0016971 0.0020108 -0.0010114 0.16185 -0.13815
-0.00043737 0.0049958 -0.0021692 0.00073731
-0.00022064 0.0014755 0.00071395 0.0013893 0.0014056 0.002131 -0.00044045 0.0049906
0.25297 0.017197 0.0039657 0.0015993
0.0003415 -0.00058013 0.00026189 0.00096792 -0.00084713 0.0013818 -0.0021675 0.00073851
0.0039644 0.0016056 0.27669 0.058318
1940000000 0.17591 -0.17541 0.00055173 -0.0013875 0.0013468 0.0019254 -0.0037478 0.0005099
0.0011169 0.0010873 -0.00062994 -0.00071097
0.00055174 -0.0013913 0.26324 0.091746 -0.0010391 0.0038392 0.00096846 0.0013611
0.0020425 0.00053093 0.0008918 0.00023245
0.0013642 0.001916 -0.0010169 0.0038517 0.062399 -0.24836 0.00041689 -0.0023708
0.0024782 0.00062934 0.00033467 0.001571
-0.0037366 0.00052587 0.00098639 0.0013623 0.00041513 -0.0023694 0.10857 -0.16724
-0.0013497 0.0042013 -0.0010801 0.001706
0.0011302 0.0010761 0.0020529 0.00051289 0.0024782 0.00062263 -0.0013481 0.0042066
0.25253 -0.023576 0.0030541 -0.0013402
-0.0006352 -0.00070532 0.00089202 0.00021979 0.00034754 0.0015646 -0.001072 0.001716
0.00305 -0.0013402 0.26493 0.022363
2000000000 0.12975 -0.18891 -0.0034262 0.0004442 0.002413 0.0014826 -0.0022993 0.0035529
0.0010538 0.00032862 -0.0007289 0.00033969
-0.0034225 0.0004411 0.2486 0.05647 -0.00077748 0.0056337 0.0016795 0.00032326
0.0015058 -0.0015192 0.00052566 0.00015419
0.0024264 0.0014614 -0.0007356 0.0056466 0.01922 -0.23371 -0.0014904 -0.0014801
0.0021065 -0.0011957 0.0015938 0.0013013
-0.0022718 0.0035731 0.0016852 0.00031432 -0.0014893 -0.0014733 0.055358 -0.17548
-0.0025571 0.0047113 0.00037625 0.002138
0.0010563 0.00032166 0.0014963 -0.0015362 0.0021017 -0.0011981 -0.0025483 0.0047278
