!Keysight Technologies,M9804A,MY58100912,A.14.10.03
!Date: Thursday, April 27, 2023 10:28:33
!Correction: S11(C  6-Port  ) 
!S12(C  6-Port  ) 
!S13(C  6-Port  ) 
!S14(C  6-Port  ) 
!S15(C  6-Port  ) 
!S16(C  6-Port  ) 
!S21(C  6-Port  ) 
!S22(C  6-Port  ) 
!S23(C  6-Port  ) 
!S24(C  6-Port  ) 
!S25(C  6-Port  ) 
!S26(C  6-Port  ) 
!S31(C  6-Port  ) 
!S32(C  6-Port  ) 
!S33(C  6-Port  ) 
!S34(C  6-Port  ) 
!S35(C  6-Port  ) 
!S36(C  6-Port  ) 
!S41(C  6-Port  ) 
!S42(C  6-Port  ) 
!S43(C  6-Port  ) 
!S44(C  6-Port  ) 
!S45(C  6-Port  ) 
!S46(C  6-Port  ) 
!S51(C  6-Port  ) 
!S52(C  6-Port  ) 
!S53(C  6-Port  ) 
!S54(C  6-Port  ) 
!S55(C  6-Port  ) 
!S56(C  6-Port  ) 
!S61(C  6-Port  ) 
!S62(C  6-Port  ) 
!S63(C  6-Port  ) 
!S64(C  6-Port  ) 
!S65(C  6-Port  ) 
!S66(C  6-Port  ) 
!S6P File: Measurement: :
# Hz S  RI   R 50
500000000 -0.33675 -0.035197 -0.010012 -0.0033491 -0.0077602 0.011648 -0.0031997 0.01247
0.011352 0.0054057 -0.0021289 0.0089563
-0.010081 -0.0033507 -0.41907 -0.050016 0.0074261 -0.011893 0.0024084 0.01204
0.007635 0.002826 0.0026389 0.012987
-0.0078747 0.011875 0.0073788 -0.011813 -0.26445 0.2107 0.0073648 0.0028058
-9.8962e-05 0.0083789 0.0013766 0.01144
-0.0029984 0.011816 0.0024105 0.011935 0.0073146 0.0028433 -0.32654 0.0459
-0.019082 -0.0039103 0.018317 0.024615
0.011313 0.0049434 0.0072896 0.0026242 -0.00037824 0.0085301 -0.019092 -0.0037564
-0.22509 -0.18551 -0.026408 0.005573
-0.0034475 0.008899 0.0020721 0.013591 0.001497 0.011834 0.018029 0.024
-0.026859 0.0056904 -0.27151 -0.11439
560000000 -0.31489 0.12544 -0.02335 -0.063133 0.0005152 0.012634 0.0078081 0.0093712
0.010541 0.0024383 0.0098183 0.0061791
-0.02306 -0.063348 -0.37567 0.10846 -0.041661 -0.036965 0.013489 0.0037227
-0.013957 -0.0044957 0.0033877 -0.0010103
0.00049394 0.012576 -0.041884 -0.03691 -0.18223 0.25817 -0.000645 -0.0051215
0.01878 0.0036021 0.0068919 -0.0059246
0.0074011 0.0094006 0.013505 0.0037685 -0.00057463 -0.0050988 -0.30279 0.13623
0.0036494 -0.024745 0.005129 -0.019589
0.010985 0.0031725 -0.013446 -0.0047432 0.018881 0.0037881 0.0035445 -0.024829
-0.28369 -0.010219 0.0089741 -0.050232
0.0099756 0.0063135 0.0036626 -0.0013403 0.0069197 -0.0057685 0.0049816 -0.019523
0.0090523 -0.050372 -0.32978 0.030792
620000000 -0.27376 0.10884 -0.023012 0.0071702 0.0032494 0.0088388 0.0063294 -0.0045516
0.012833 -7.6456e-05 0.00082119 -0.0021833
-0.022861 0.0072108 -0.40235 0.062217 -0.018733 -0.00017028 -0.0012869 -0.0019391
0.010423 -0.0069722 0.00092304 -0.0030131
0.0034013 0.0089902 -0.018664 -0.00017413 -0.15244 0.26747 -0.0012641 -0.0050483
-0.0042466 -0.0034059 0.0089412 -0.0039046
0.0066554 -0.0045196 -0.0011965 -0.0019925 -0.00138 -0.005002 -0.2614 0.14555
-0.038641 -0.019006 0.014639 0.023497
0.012131 -0.00027533 0.010351 -0.0071274 -0.0039519 -0.0032486 -0.038168 -0.019092
-0.20453 -0.050076 -0.039775 0.013998
0.00076281 -0.0017548 0.0010608 -0.0029354 0.0087802 -0.0033056 0.014731 0.024338
-0.039676 0.014127 -0.24854 -0.004612
680000000 -0.23224 0.19341 -0.027805 -0.013972 0.0048953 0.0050886 0.0013852 -0.0083844
-0.0041536 -0.011102 0.0029651 -0.0058151
-0.027984 -0.014148 -0.38734 0.15903 -0.03289 -0.0013516 -0.0017994 -0.00063047
-0.002802 -0.0086458 -0.0012002 -0.00147
0.0046731 0.0047947 -0.032952 -0.0012482 -0.10234 0.28689 -0.00098107 -3.0049e-05
-0.0023312 0.0010027 -0.0031872 -0.0090918
0.0010172 -0.008047 -0.0018495 -0.000567 -0.00089902 -3.5368e-05 -0.2195 0.19529
-0.023034 -0.0087155 -0.0091027 -0.010827
-0.0034863 -0.011086 -0.002777 -0.0087133 -0.0024135 0.00093861 -0.023234 -0.0085157
-0.25144 0.046303 -0.005927 -0.0098322
0.0034368 -0.0070927 -0.0014598 -0.0018611 -0.0032053 -0.0095448 -0.0091335 -0.010649
-0.0059618 -0.0099069 -0.259 0.09807
740000000 -0.18978 0.18767 -0.03886 0.02613 0.012763 -0.0050548 -0.00052345 -0.0035854
-0.0043589 -0.0026134 -0.0058644 0.003326
-0.038683 0.025916 -0.33517 0.17756 -0.034815 0.034956 -0.00051584 -0.0063751
-0.011987 0.0074244 -0.0023612 -0.0060081
0.012805 -0.0051865 -0.034764 0.035013 -0.068495 0.28624 -0.001359 0.0037244
-0.0023756 -0.0041718 -0.0011555 0.00049843
-0.00083381 -0.0038851 -0.00058653 -0.0064865 -0.0014497 0.0037761 -0.2025 0.20259
-0.042756 -0.0081091 0.021931 0.013517
-0.0046693 -0.0024862 -0.012017 0.007983 -0.0022233 -0.0043185 -0.042883 -0.0084547
-0.15726 0.071708 -0.041858 -0.00044738
-0.0056892 0.003105 -0.0021252 -0.0062683 -0.0013684 0.00079991 0.021731 0.013356
-0.041707 -0.00044716 -0.24584 0.10401
800000000 -0.15761 0.22845 -0.022539 0.016991 0.0050153 -0.010367 -0.0049813 -0.0024326
-0.0042928 0.0027267 0.0035614 0.0013071
-0.022704 0.017026 -0.33775 0.24807 -0.0080046 0.033965 -0.0022077 0.0021169
-0.00057865 0.0033601 0.00081215 0.0054808
0.0049459 -0.010195 -0.0078921 0.03402 -0.027641 0.30921 0.00091638 0.0013543
0.00055441 0.0036873 -0.0023403 0.0013111
-0.0050985 -0.0021896 -0.0021243 0.0021239 0.00098074 0.0013035 -0.17454 0.23005
-0.028676 0.012278 0.01201 -0.010241
-0.0039934 0.002806 -0.00058268 0.0033612 0.00061829 0.0037111 -0.02859 0.012395
-0.20128 0.094713 -0.017828 0.017494
0.003833 0.0010668 0.0010059 0.0052337 -0.0023909 0.00078097 0.012285 -0.010316
-0.017747 0.017451 -0.23989 0.15489
860000000 -0.12304 0.24946 -0.017267 0.031178 -0.0034826 -0.0096483 -0.0026119 0.0016044
0.0041286 0.0051015 -0.0030475 -0.003022
-0.017457 0.031223 -0.2899 0.29028 0.0080089 0.033949 0.00029065 0.0020056
0.0042638 0.00023424 0.0030023 0.00015656
-0.0035215 -0.009697 0.0081505 0.033957 0.021263 0.31698 -0.00039406 -0.00018114
0.0028222 -0.0014926 0.0015905 0.0043092
-0.0025972 0.0013024 0.00030916 0.0021154 -0.00043555 -0.00015407 -0.13896 0.24221
-0.018158 0.01865 -0.0061542 -0.0086677
0.0039954 0.0051665 0.0042706 0.00024065 0.0028572 -0.0015161 -0.018122 0.018649
-0.15218 0.14317 -0.024652 0.015396
-0.0030452 -0.0027024 0.003513 1.4315e-05 0.0018223 0.004531 -0.0064373 -0.0084465
-0.024932 0.015337 -0.18851 0.1965
920000000 -0.097237 0.27281 0.0052156 0.037813 -0.0092199 -0.0039976 -0.0019286 0.0023247
0.0012142 0.0013644 0.0023978 -0.0012119
0.0051432 0.037816 -0.26052 0.31116 0.027876 0.02163 0.0016191 0.00097987
0.0066848 -0.00066279 0.0036659 -0.0031801
-0.0091969 -0.0039346 0.027985 0.021566 0.067574 0.31713 0.0017297 -8.2252e-05
0.0012429 -0.00042622 0.00086787 -0.001028
-0.0017791 0.0024678 0.0016053 0.0010014 0.0017302 -9.4889e-05 -0.11426 0.25863
-0.010699 0.029977 0.0025382 -0.0062843
0.0013539 0.0012935 0.0067758 -0.000518 0.0012822 -0.00037834 -0.010622 0.030046
-0.14206 0.14887 -0.0028785 0.027127
0.0024564 -0.0011984 0.0038597 -0.0031607 0.00084236 -0.0010123 0.0025836 -0.0062985
-0.0026559 0.027091 -0.19356 0.21146
980000000 -0.04985 0.29217 0.01789 0.029987 -0.0086187 0.0047171 0.0025405 0.0039557
0.003943 -0.0017914 -0.0028593 -0.0021055
0.017835 0.030011 -0.20743 0.34486 0.03263 0.0046657 0.002003 9.4559e-07
0.0010861 -0.0061403 -0.00068245 -0.0019546
-0.0086167 0.0047269 0.032703 0.0045447 0.11377 0.31018 0.00043792 -0.0011887
0.00012958 -0.0020208 0.0014465 2.6224e-05
0.0025083 0.0036975 0.0019918 -2.8487e-05 0.00043507 -0.0011846 -0.076127 0.27057
0.0069351 0.028874 -0.0091458 -0.0065497
0.0038462 -0.0017186 0.0011238 -0.0061188 0.00013496 -0.0020056 0.0070388 0.028885
-0.111 0.17752 0.004522 0.01893
-0.0031122 -0.0020197 -0.0007818 -0.0020349 0.0014595 -1.5271e-05 -0.0091872 -0.0063929
0.004289 0.01897 -0.15062 0.25635
1040000000 -0.0067445 0.30007 0.033287 0.017829 -0.00083899 0.0067426 0.0026888 0.00058882
-0.00012416 -0.0036932 -0.00039968 -0.0012782
0.03321 0.017874 -0.17174 0.35769 0.028947 -0.014662 0.0014995 -0.0016433
-0.0024862 -0.0022628 -0.001273 -0.0025353
-0.00079691 0.0067625 0.028932 -0.014782 0.15967 0.2961 -0.00049453 -0.0014128
-0.00163 -0.00079252 -0.0004428 -0.0011516
0.0027608 0.00066939 0.0014681 -0.001637 -0.00048164 -0.0014035 -0.048373 0.28012
0.017979 0.017232 -0.0028425 0.0021999
1.6012e-05 -0.0037538 -0.0024432 -0.0021663 -0.0016158 -0.00081081 0.018014 0.017113
-0.080667 0.18646 0.013081 0.018275
-0.00058442 -0.0013451 -0.0013382 -0.0025472 -0.000431 -0.0011463 -0.0028919 0.0021853
0.013116 0.018252 -0.12888 0.27488
1100000000 0.038967 0.30742 0.035593 -0.0044108 0.0030553 0.0035352 0.0026176 -0.0013783
-0.002236 -0.0029553 -0.0038635 -4.1471e-05
0.035583 -0.0043739 -0.12816 0.37435 0.014854 -0.027339 8.5982e-05 -0.0017869
-0.0031291 -0.00046122 -0.0033688 -0.00058133
0.0030574 0.0035392 0.014758 -0.027419 0.20565 0.27568 -0.0017339 0.00019476
-0.0016132 0.00064008 -0.00087894 -0.0003544
0.0026188 -0.0014958 6.5096e-05 -0.0017752 -0.0017341 0.00019033 -0.0078883 0.28533
0.022446 0.0053892 -0.0021557 0.001086
-0.0023123 -0.0029567 -0.003128 -0.00045194 -0.0016018 0.00061598 0.022506 0.0053443
-0.061765 0.20018 0.018206 0.0091329
-0.00385 -7.9877e-05 -0.0032495 -0.00059792 -0.00087047 -0.000371 -0.0021879 0.0011223
0.018118 0.0089592 -0.081856 0.30298
1160000000 0.090437 0.30159 0.023635 -0.020674 0.00267 -0.00066245 -0.00023259 -0.0026102
-0.0039517 -0.00042144 -0.00091089 0.003771
0.023594 -0.020671 -0.084438 0.37805 -0.0036842 -0.028565 -0.0017782 -0.0015937
-0.0022733 0.002541 -0.0011772 0.0014704
0.0026973 -0.00068341 -0.0037761 -0.028567 0.24839 0.24501 -0.0006288 0.0016173
-0.00033524 0.0017173 -0.00094982 1.6828e-06
-0.00023021 -0.0025366 -0.0017958 -0.0016126 -0.00063123 0.0016239 0.031547 0.28209
0.019191 -0.0092175 -0.0024984 0.0057262
-0.0038721 -0.00042021 -0.002303 0.0026136 -0.0003215 0.0017082 0.019165 -0.0092748
-0.028007 0.21006 0.016911 0.00091747
-0.000882 0.003765 -0.0012144 0.0015498 -0.00092099 3.4484e-05 -0.0024896 0.005653
0.017064 0.00097713 -0.034796 0.30558
1220000000 0.13477 0.28988 0.010275 -0.029678 -0.0015419 -0.00099663 -0.00016433 -0.00099588
-0.0025243 0.0025824 0.0012512 0.001769
0.010279 -0.029684 -0.040465 0.38957 -0.016489 -0.020792 -0.0023971 0.00042479
0.0001609 0.0027742 -0.00072642 0.0017014
-0.0015543 -0.00097497 -0.016583 -0.020751 0.28751 0.20628 0.00079612 0.001505
0.00054233 0.0011264 0.00022902 0.00071531
-0.00020923 -0.0010561 -0.0024549 0.00046044 0.00079731 0.0015021 0.071082 0.27367
0.0094539 -0.014936 0.0029119 0.0016508
-0.0026061 0.0025904 0.00014795 0.0027467 0.00054197 0.0011014 0.0094284 -0.01493
-0.0041359 0.21927 0.013468 -0.011463
0.0012232 0.0018212 -0.00070811 0.0017038 0.00018548 0.00069096 0.0028839 0.001659
0.013481 -0.01148 -0.002973 0.32073
1280000000 0.18414 0.26708 -0.0077357 -0.028111 -0.001965 0.0024065 -0.0010167 -0.0019854
-0.00056182 0.0029043 0.0024477 0.001023
-0.0077153 -0.028083 0.005017 0.38037 -0.023076 -0.008514 -0.001063 0.001415
0.0015057 0.0016059 0.00054316 0.0018798
-0.0019484 0.0023704 -0.023134 -0.0084181 0.31835 0.1625 0.0012878 -0.00013627
0.00090836 4.2122e-05 0.00025503 0.00039924
-0.0010598 -0.0019173 -0.0010219 0.0013969 0.0012742 -0.00013288 0.10762 0.25747
0.0011745 -0.016648 0.00043251 -2.3872e-05
-0.0004772 0.002883 0.0014958 0.0015756 0.00092141 3.3903e-05 0.0011363 -0.016684
0.032946 0.22286 0.0032014 -0.013651
0.0025131 0.00097633 0.00049403 0.0018737 0.00025272 0.00037129 0.00050655 -0.00015205
0.0031946 -0.013592 0.044254 0.321
1340000000 0.22075 0.23281 -0.017373 -0.018941 0.00073482 0.0043196 -0.0018676 -0.00069855
0.0015058 0.0025317 0.0016001 -0.0014418
-0.017362 -0.018958 0.044076 0.37213 -0.021193 0.0038254 -5.1858e-05 0.0019093
0.0016242 0.00065764 0.0012187 0.00092069
0.00074106 0.0043371 -0.021201 0.003939 0.34088 0.11441 0.00094551 -0.0007909
0.00063751 -0.00038599 0.00013123 0.00029448
-0.0018873 -0.00077008 -4.4605e-05 0.0019427 0.00095783 -0.00078865 0.14033 0.23755
-0.0069074 -0.014223 0.0013903 -0.00017149
0.0014339 0.0025822 0.001603 0.00065027 0.00063724 -0.00036218 -0.0069435 -0.014167
0.063443 0.21812 -0.0027 -0.012446
0.0015634 -0.00147 0.0012122 0.00084226 0.00014648 0.0002929 0.0013594 -0.00014373
-0.002673 -0.012465 0.082483 0.31554
1400000000 0.25313 0.1944 -0.023053 -0.0076144 0.0049089 0.0030797 -0.0019852 0.00064858
0.0024392 0.0006901 0.00013386 -0.0012485
-0.023013 -0.0076134 0.081052 0.3592 -0.014757 0.011801 0.0012729 0.0013535
0.0010359 -0.00067862 0.0011862 0.00026133
0.0049046 0.0030525 -0.01471 0.011899 0.35425 0.060324 5.6673e-05 -0.0013402
4.7286e-05 -0.00035218 0.00032146 0.00015312
-0.0019601 0.00072142 0.0012853 0.0013104 3.8706e-05 -0.0013379 0.17023 0.20911
-0.011902 -0.008633 -0.00077519 -0.00097963
0.002464 0.00063492 0.0010088 -0.00068248 3.1398e-05 -0.00036827 -0.011976 -0.0086378
0.096544 0.21331 -0.008784 -0.0082514
0.00015926 -0.0012883 0.0011191 0.00030734 0.00028967 0.00017337 -0.00071915 -0.00099252
-0.0088204 -0.0082332 0.12664 0.30424
1460000000 0.27561 0.15037 -0.020288 0.0042749 0.0053835 -0.0016741 -0.0015931 0.0018222
0.00185 -0.00061737 -0.00030888 -0.00091649
-0.020318 0.0042992 0.11518 0.33761 -0.0064801 0.014872 0.0017317 0.00019189
0.00092378 -0.0010531 0.0012029 -0.00061335
0.0054114 -0.0016613 -0.0064207 0.014926 0.36005 0.0051652 -0.0010157 -0.0011822
0.00023722 -5.2104e-05 0.00062983 -0.00037249
-0.0015802 0.0017634 0.0017551 0.0001913 -0.0010009 -0.0011755 0.19716 0.18021
-0.012843 -0.0033821 -0.0011739 0.0013471
0.0018623 -0.00058415 0.00088344 -0.0010429 0.00022027 -5.2218e-05 -0.012839 -0.0033423
0.12637 0.19835 -0.010544 -0.0031153
-0.00035196 -0.00087076 0.0011794 -0.00063583 0.00061145 -0.00040642 -0.0011975 0.0013595
-0.010561 -0.0031561 0.15983 0.28239
1520000000 0.28744 0.10868 -0.014874 0.0099719 0.0031481 -0.0039336 0.00019358 0.0025622
0.0017962 -0.0015756 -0.0011684 -0.00013789
-0.014883 0.0099817 0.14882 0.32292 0.00107 0.013028 0.0016206 -0.0008141
0.00016169 -0.00091547 0.00030597 -0.0010141
0.0031241 -0.0039547 0.0011318 0.013041 0.3527 -0.051237 -0.00088482 -0.00037056
0.00058159 -0.00077297 4.6849e-05 -7.2063e-05
0.00020539 0.0025795 0.001623 -0.0008077 -0.00090443 -0.00034242 0.22116 0.14212
-0.012816 0.0011875 0.00079901 0.0016062
0.0017841 -0.0015815 0.00013872 -0.00092356 0.00058368 -0.00075997 -0.012823 0.0011937
0.15414 0.18399 -0.010787 0.00081309
-0.001158 -0.00018252 0.00031992 -0.0010114 8.2503e-05 -4.8161e-05 0.00082363 0.0016186
-0.010774 0.00081868 0.1926 0.26106
1580000000 0.29663 0.062192 -0.0084393 0.01319 -0.0008461 -0.0045748 0.001381 0.001867
-0.00046266 -0.0019639 -0.00038809 0.0003334
-0.0084336 0.013194 0.17631 0.29812 0.0048713 0.0084709 0.00045709 -0.0015789
-0.00035461 -0.0011189 -0.0002199 -0.00085886
-0.00085389 -0.004585 0.0049238 0.0084516 0.33201 -0.10885 -0.0014894 0.00042764
-0.00019336 -0.0011258 0.00018316 -0.00059342
0.0013901 0.0018392 0.0004444 -0.0015907 -0.0015069 0.00038744 0.23607 0.10227
-0.010379 0.0054174 0.0016762 0.0007422
-0.00048143 -0.0019695 -0.00035916 -0.0011045 -0.00017158 -0.0011173 -0.010358 0.0054798
0.17857 0.16564 -0.0087735 0.0061852
-0.00035581 0.000338 -0.00024311 -0.00087485 0.00013055 -0.00055359 0.001599 0.00075838
-0.0087894 0.0061847 0.22402 0.23359
1640000000 0.29832 0.020484 -0.0018368 0.012354 -0.00255 -0.002489 0.0026003 0.00099243
-0.00072168 -0.0011695 -0.00037085 0.00068301
-0.0018243 0.012355 0.20586 0.27283 0.0056735 0.003809 -0.00070263 -0.0016388
-0.0010024 -0.00051601 -0.00058086 -0.00066657
-0.0025691 -0.0024746 0.0057186 0.0037764 0.30347 -0.15816 -0.00085323 0.001227
-0.00099604 -0.00099692 -5.9356e-05 -0.00029304
0.0025757 0.00099464 -0.00071045 -0.0016407 -0.0008342 0.0012234 0.24884 0.052315
-0.0071259 0.0066986 0.0021047 -0.00054912
-0.00073356 -0.0011151 -0.001014 -0.00052405 -0.00097476 -0.00099195 -0.0070968 0.0067208
0.20191 0.14069 -0.004771 0.0083543
-0.00032531 0.00067385 -0.00055237 -0.00067826 -0.00012797 -0.00031688 0.0020871 -0.00060428
-0.0047645 0.0083659 0.24903 0.20156
1700000000 0.29046 -0.025203 0.001733 0.0098168 -0.0032772 5.8054e-05 0.0028732 -0.0011111
-0.0018067 -0.00047128 0.00058028 0.00056809
0.0017466 0.00982 0.22407 0.24096 0.003889 0.00092083 -0.0013628 -0.00058007
-0.00086492 -4.0058e-05 -0.0009157 -0.00038968
-0.003282 7.6282e-05 0.0039117 0.00091604 0.25916 -0.19771 0.00029608 0.001637
-0.0017141 -0.00033651 -0.0004482 -0.0010066
0.0028962 -0.0011124 -0.0013455 -0.00056037 0.00030689 0.0016245 0.24545 0.0011589
-0.0050456 0.0075726 0.0011896 -0.0019192
-0.0018385 -0.00045516 -0.00082386 -2.3667e-05 -0.0017012 -0.0003413 -0.0050496 0.007558
0.21976 0.11945 -0.00059634 0.0088523
0.0006011 0.00049683 -0.00094408 -0.00038721 -0.0004863 -0.00095399 0.0011747 -0.0018776
-0.0005831 0.0087452 0.26465 0.1668
1760000000 0.27737 -0.073914 0.004314 0.0066578 -0.0022144 0.00076803 0.0013631 -0.0032245
-0.001053 0.00061704 0.00048998 -0.00048651
0.004324 0.0066368 0.24983 0.20064 0.0018768 -0.00091914 -0.0011269 0.0002094
-0.0011788 0.00093642 -0.0005876 0.0006033
-0.0022121 0.00075311 0.0018727 -0.0009281 0.21013 -0.23028 0.0011338 0.0013078
-0.0011542 0.0013321 -0.0012823 -0.00035699
0.0013202 -0.0032232 -0.0011228 0.00020703 0.0011417 0.0013146 0.2352 -0.051352
-0.0023706 0.0073406 -0.00038274 -0.0020114
-0.0010581 0.00062728 -0.0011784 0.00094499 -0.0011531 0.0013562 -0.0023615 0.007368
0.23466 0.082879 0.0031356 0.0065863
0.00046241 -0.00051834 -0.00055945 0.00059293 -0.0013373 -0.00038535 -0.00037983 -0.0020422
0.0031487 0.0066496 0.27644 0.12896
1820000000 0.25183 -0.11097 0.0047593 0.0030236 -0.00015927 0.0023554 -0.00091529 -0.0030564
-0.00088032 0.00058199 2.4358e-05 -0.00020987
0.0047646 0.0030163 0.25935 0.17023 -0.00017131 1.6337e-05 -0.0013624 0.0008662
-0.00012087 0.0013852 -0.00045863 0.00052366
-0.00015038 0.0023728 -0.00018184 2.0228e-05 0.16007 -0.24558 0.0015244 0.00048993
-0.00050373 0.0021595 -0.0014511 0.00049386
-0.000925 -0.0030693 -0.001368 0.00090795 0.0015753 0.0004642 0.20376 -0.098748
-0.001018 0.0062794 -0.0015522 -0.0012028
-0.00085068 0.00060656 -0.00012386 0.0013892 -0.00052405 0.0021598 -0.00096956 0.0062415
0.25132 0.051674 0.0040796 0.0034971
4.4305e-05 -0.00017543 -0.00048425 0.00057026 -0.0013977 0.0005957 -0.0015727 -0.0012096
0.0041063 0.0034077 0.27778 0.092559
1880000000 0.21592 -0.15069 0.0027815 0.00056763 -0.00037033 0.0020847 -0.0028102 -0.0023156
-0.0001985 0.0014074 0.00039474 -0.00056036
0.0027978 0.00054967 0.26334 0.12357 -0.0020928 0.0016449 -0.00019038 0.0017061
0.00073261 0.0013952 0.00024834 0.00098154
-0.00035615 0.0021105 -0.0020939 0.0016473 0.10821 -0.25464 0.0020778 -0.00096383
0.0014373 0.0021515 -0.00083286 0.0014556
-0.0028042 -0.0022534 -0.0001453 0.0017087 0.0020738 -0.00091507 0.1618 -0.13804
-0.00051551 0.005026 -0.0022508 0.00080221
-0.00022398 0.0014526 0.00072703 0.0013786 0.0014509 0.0021601 -0.00058033 0.0050898
0.25295 0.017167 0.003922 0.0016091
0.00037533 -0.00064855 0.00025344 0.00090894 -0.00087479 0.0013591 -0.0020671 0.00077793
0.0040174 0.0016863 0.2766 0.058665
1940000000 0.176 -0.17552 0.00055511 -0.0014338 0.0013467 0.0019089 -0.0037098 0.00056833
0.0011359 0.0011417 -0.00059232 -0.00075394
0.00054757 -0.0014553 0.26333 0.091685 -0.0010454 0.0038427 0.0010325 0.0013796
0.0021035 0.00053898 0.0009191 0.0002303
0.0013456 0.0019141 -0.0010219 0.003853 0.062344 -0.24838 0.00038701 -0.002368
0.0024553 0.00057337 0.000434 0.0015578
-0.003753 0.00045809 0.00099509 0.001373 0.00040197 -0.0023371 0.10859 -0.16745
-0.0012509 0.0041204 -0.00087747 0.0017523
0.0011146 0.0010821 0.0020607 0.00052826 0.0024522 0.00062195 -0.0012448 0.0041234
0.25262 -0.023627 0.0031705 -0.0012751
-0.00061409 -0.00067197 0.00088775 0.00022224 0.00047251 0.0016065 -0.00091306 0.0019245
0.0030823 -0.0012567 0.26497 0.022356
2000000000 0.12964 -0.18913 -0.0034689 0.00037049 0.0024914 0.001547 -0.002294 0.003633
0.0010654 0.00037736 -0.00063573 0.00033015
-0.0034638 0.00039748 0.24866 0.056392 -0.00074652 0.0056813 0.0017122 0.00033819
0.0015039 -0.0015311 0.0005133 0.00015629
0.0024942 0.0015213 -0.00070454 0.0056837 0.019106 -0.23369 -0.0014673 -0.0014201
0.0020842 -0.0012192 0.0015722 0.0012619
-0.0023023 0.0037266 0.0016951 0.00033699 -0.001516 -0.0014007 0.055353 -0.17527
-0.0025717 0.00475 0.00037978 0.0020664
0.0010441 0.00040797 0.0014542 -0.0015461 0.0020962 -0.0012078 -0.0025354 0.0047619
0.24368 -0.05858 8.5001e-05 -0.0019612
