!Keysight Technologies,M9804A,MY58100912,A.14.10.03
!Date: Thursday, April 27, 2023 10:28:33
!Correction: S11(C  6-Port  ) 
!S12(C  6-Port  ) 
!S13(C  6-Port  ) 
!S14(C  6-Port  ) 
!S15(C  6-Port  ) 
!S16(C  6-Port  ) 
!S21(C  6-Port  ) 
!S22(C  6-Port  ) 
!S23(C  6-Port  ) 
!S24(C  6-Port  ) 
!S25(C  6-Port  ) 
!S26(C  6-Port  ) 
!S31(C  6-Port  ) 
!S32(C  6-Port  ) 
!S33(C  6-Port  ) 
!S34(C  6-Port  ) 
!S35(C  6-Port  ) 
!S36(C  6-Port  ) 
!S41(C  6-Port  ) 
!S42(C  6-Port  ) 
!S43(C  6-Port  ) 
!S44(C  6-Port  ) 
!S45(C  6-Port  ) 
!S46(C  6-Port  ) 
!S51(C  6-Port  ) 
!S52(C  6-Port  ) 
!S53(C  6-Port  ) 
!S54(C  6-Port  ) 
!S55(C  6-Port  ) 
!S56(C  6-Port  ) 
!S61(C  6-Port  ) 
!S62(C  6-Port  ) 
!S63(C  6-Port  ) 
!S64(C  6-Port  ) 
!S65(C  6-Port  ) 
!S66(C  6-Port  ) 
!S6P File: Measurement: :
# Hz S  RI   R 50
500000000 -0.33654 -0.035158 -0.010042 -0.0034325 -0.0080442 0.011837 -0.0035669 0.010947
0.012107 0.0047839 -0.0036581 0.006368
-0.0098258 -0.0033272 -0.41893 -0.049908 0.0076508 -0.011757 0.0017654 0.011231
0.0079863 0.002386 0.0016593 0.012312
-0.0075299 0.012214 0.0074672 -0.011715 -0.26431 0.21068 0.0069862 0.0026955
-0.00052741 0.0082212 0.00059488 0.011637
-0.0030247 0.011623 0.0017811 0.01167 0.0071893 0.0027641 -0.32582 0.046607
-0.019228 -0.0046464 0.019041 0.02399
0.011058 0.0042034 0.0076537 0.0024147 -0.00061666 0.0084124 -0.019746 -0.0045989
-0.22456 -0.186 -0.027177 0.0049304
-0.003415 0.008196 0.0011703 0.012958 0.00086938 0.011836 0.019078 0.024318
-0.027089 0.0043032 -0.27107 -0.1153
560000000 -0.31613 0.12459 -0.02336 -0.063124 8.7746e-06 0.01256 0.0069476 0.0087453
0.010976 0.0042561 0.010655 0.0071446
-0.023769 -0.06173 -0.37618 0.10804 -0.041866 -0.037007 0.012956 0.0031377
-0.013273 -0.0041788 0.0041754 -0.00095835
-6.0504e-05 0.012365 -0.041875 -0.036798 -0.18206 0.2587 -0.00030274 -0.0047484
0.01878 0.0038004 0.0070832 -0.0063118
0.0069977 0.0094387 0.01318 0.003135 -0.00036299 -0.0048286 -0.30227 0.13589
0.0040064 -0.025484 0.0053987 -0.019363
0.011692 0.0032931 -0.013009 -0.0042078 0.018872 0.0037119 0.0037112 -0.025283
-0.28616 -0.0099893 0.0079391 -0.049958
0.0089452 0.0063832 0.004017 -0.0012427 0.0071495 -0.0057065 0.0052559 -0.020115
0.0084261 -0.049139 -0.32775 0.033573
620000000 -0.27346 0.10858 -0.022976 0.0069922 0.0033568 0.0086178 0.0066815 -0.0054742
0.010694 -0.00069916 -0.0010189 -0.0028501
-0.023133 0.0073722 -0.40239 0.062023 -0.018716 -0.00039592 -0.0013481 -0.0021462
0.010285 -0.0068323 0.00075698 -0.0029568
0.0030136 0.0086903 -0.018789 -0.00033936 -0.15257 0.26708 -0.0013457 -0.0053324
-0.0044774 -0.0031568 0.0084038 -0.0033157
0.0062838 -0.0049279 -0.0012263 -0.0020969 -0.0012149 -0.0051739 -0.26112 0.1452
-0.038252 -0.018803 0.014997 0.023609
0.012232 -0.00031212 0.010228 -0.0071862 -0.0042839 -0.0034165 -0.038461 -0.018702
-0.20345 -0.050848 -0.039672 0.014263
8.3071e-05 -0.002107 0.00057734 -0.0028352 0.0087728 -0.0035386 0.014725 0.023413
-0.040167 0.013684 -0.24887 -0.0034649
680000000 -0.23246 0.19381 -0.028144 -0.014067 0.0045517 0.004901 0.00089675 -0.007406
-0.0030502 -0.01099 0.0042436 -0.0064988
-0.027726 -0.013937 -0.38735 0.15941 -0.032989 -0.0011987 -0.0017662 -0.0002521
-0.0028871 -0.0089629 -0.0011582 -0.0016698
0.004904 0.0049549 -0.032949 -0.0010266 -0.10237 0.28716 -0.00083359 0.00025644
-0.0024846 0.00063511 -0.0029737 -0.0089743
0.0011904 -0.0075514 -0.0018857 -0.0002008 -0.00086668 0.00017107 -0.21958 0.1952
-0.023115 -0.0086766 -0.0090932 -0.010576
-0.0033656 -0.011441 -0.0029255 -0.0089135 -0.0023909 0.00058845 -0.023234 -0.0085956
-0.25144 0.046277 -0.0061263 -0.0094608
0.0043569 -0.0064603 -0.0012711 -0.0016071 -0.0032616 -0.0090159 -0.0090298 -0.010575
-0.0061565 -0.0096498 -0.25851 0.098988
740000000 -0.18968 0.18784 -0.038584 0.026244 0.012603 -0.0050708 -0.00081302 -0.0040402
-0.0047732 -0.0022522 -0.0061968 0.002843
-0.038877 0.026115 -0.33474 0.17793 -0.035081 0.034892 -0.00070122 -0.0062387
-0.012157 0.0072415 -0.0030153 -0.0058774
0.012703 -0.0051459 -0.034979 0.035024 -0.068521 0.28597 -0.0013077 0.0033726
-0.0023051 -0.0038953 -0.001495 9.1409e-05
-0.00085534 -0.0037317 -0.00057232 -0.0064222 -0.0013075 0.0034309 -0.20229 0.2023
-0.043442 -0.0082519 0.02172 0.013149
-0.0043307 -0.0027198 -0.012018 0.0077371 -0.0023129 -0.0038808 -0.043409 -0.0085277
-0.15721 0.072185 -0.041554 -0.00055086
-0.0061227 0.0034951 -0.0026163 -0.0059149 -0.0012657 3.6684e-05 0.022177 0.013189
-0.041721 -0.00051233 -0.24696 0.10354
800000000 -0.1575 0.22846 -0.022699 0.017086 0.0049653 -0.010406 -0.0050945 -0.001971
-0.0038102 0.0030234 0.0040369 0.001438
-0.022633 0.017057 -0.33768 0.24823 -0.0079971 0.033979 -0.0022774 0.002352
-0.00038334 0.0033784 0.0009742 0.0055333
0.0050483 -0.010469 -0.007891 0.034088 -0.027487 0.30932 0.0010216 0.0015234
0.00084211 0.0037142 -0.0017894 0.001224
-0.0049429 -0.0019624 -0.0023301 0.0023271 0.00091976 0.0014857 -0.17441 0.23002
-0.028351 0.012339 0.012713 -0.0099439
-0.0040531 0.0027401 -0.00046092 0.0034252 0.00075423 0.0035691 -0.028484 0.012308
-0.20118 0.094574 -0.017523 0.017327
0.0040065 0.00092425 0.00094861 0.0056086 -0.0021729 0.0013218 0.012609 -0.0099231
-0.017335 0.017232 -0.23805 0.15539
860000000 -0.12314 0.24929 -0.017227 0.031159 -0.0034596 -0.0096345 -0.0023015 0.0013853
0.0040467 0.0051537 -0.0031237 -0.0024769
-0.017374 0.031168 -0.28961 0.29041 0.0080473 0.034044 0.00014463 0.0021782
0.0043494 0.00028725 0.0032312 0.00041784
-0.0034758 -0.0095027 0.0081608 0.033997 0.021255 0.31702 -0.00040628 -0.00027777
0.0028532 -0.0013734 0.0014024 0.0042389
-0.0028593 0.0012435 0.00015859 0.0021168 -0.0003751 -0.00025231 -0.1388 0.24228
-0.018162 0.01893 -0.0064408 -0.0095001
0.0038876 0.0051013 0.004156 0.00014178 0.002817 -0.0014076 -0.018211 0.018993
-0.15199 0.14358 -0.025116 0.015272
-0.0029706 -0.0021441 0.0034048 0.00023226 0.001611 0.0042964 -0.0063669 -0.0093889
-0.024735 0.015105 -0.1883 0.19622
920000000 -0.09769 0.27289 0.0051712 0.037828 -0.0092216 -0.0040353 -0.0017712 0.0025056
0.0013058 0.0013231 0.0027213 -0.00098379
0.0051579 0.037718 -0.26038 0.31111 0.027899 0.021638 0.0015623 0.000911
0.006616 -0.00040022 0.003849 -0.0030952
-0.0093389 -0.0039496 0.027992 0.021531 0.06758 0.31714 0.0018044 -0.0001523
0.0011884 -0.00041071 0.00092515 -0.0010882
-0.0015781 0.002272 0.0015584 0.00088558 0.0017652 -0.0001465 -0.11454 0.25866
-0.010562 0.030049 0.0028231 -0.0061706
0.0013745 0.001299 0.0065361 -0.00051857 0.0012486 -0.00044308 -0.010563 0.030102
-0.14175 0.1494 -0.002658 0.026682
0.0023672 -0.0015662 0.0038325 -0.0032261 0.00076945 -0.0010533 0.0025179 -0.0062142
-0.0026173 0.026807 -0.19269 0.21172
980000000 -0.049562 0.29225 0.017946 0.029975 -0.0085898 0.0047059 0.0024985 0.0037854
0.0037842 -0.0018454 -0.0031499 -0.0019382
0.017892 0.029971 -0.20734 0.3448 0.032667 0.0045997 0.0019347 6.9519e-05
0.0011329 -0.0062121 -0.00063471 -0.001803
-0.008609 0.004794 0.032721 0.0044981 0.1138 0.31012 0.00041211 -0.0012494
6.6487e-05 -0.0020084 0.0014372 -1.7414e-05
0.0024732 0.0037866 0.0020043 4.987e-05 0.0004319 -0.0012256 -0.075992 0.27048
0.006688 0.028849 -0.0093023 -0.0067663
0.0039258 -0.0016163 0.0010836 -0.0062391 5.5307e-05 -0.0020324 0.0068136 0.028898
-0.1109 0.17768 0.0042721 0.019026
-0.0032009 -0.0019108 -0.00077165 -0.0019388 0.0014446 -3.885e-05 -0.0090497 -0.0065616
0.0039239 0.019212 -0.15079 0.25643
1040000000 -0.0067511 0.30049 0.0334 0.01778 -0.00081447 0.0067798 0.0028046 0.00075215
-0.00010353 -0.0038197 -0.00054797 -0.0015297
0.033355 0.017801 -0.17166 0.35764 0.028936 -0.014619 0.001451 -0.0016568
-0.0024391 -0.0022035 -0.0013931 -0.0025671
-0.0008562 0.0067261 0.02894 -0.014768 0.15972 0.29612 -0.00041427 -0.0013572
-0.0015307 -0.00081602 -0.00046614 -0.0010833
0.0029331 0.00065837 0.0015261 -0.0016552 -0.00042617 -0.0013451 -0.048291 0.28029
0.018219 0.017396 -0.0027776 0.0022233
-6.9498e-05 -0.0039388 -0.0023738 -0.0021954 -0.0014822 -0.00081794 0.01832 0.017253
-0.080274 0.1863 0.013116 0.01794
-0.0005701 -0.0015709 -0.0014289 -0.0024816 -0.00041089 -0.001151 -0.0028457 0.0021775
0.013199 0.018097 -0.12896 0.27528
1100000000 0.039008 0.30729 0.035559 -0.0044341 0.0030108 0.0035656 0.002658 -0.0014502
-0.0023369 -0.0030129 -0.00392 7.3977e-05
0.03555 -0.0044284 -0.1282 0.37434 0.014797 -0.027351 0.00010366 -0.0018212
-0.0031123 -0.00045164 -0.0033504 -0.00071709
0.003068 0.003567 0.014731 -0.027437 0.20564 0.27567 -0.0017406 0.00017766
-0.0016264 0.00061708 -0.00085782 -0.00044716
0.0025305 -0.0014292 9.0069e-05 -0.0018191 -0.0017207 0.00016766 -0.007793 0.28529
0.022393 0.0052917 -0.0021585 0.0012168
-0.0022236 -0.0029352 -0.0030796 -0.00047242 -0.0015986 0.00066434 0.022371 0.0052449
-0.061634 0.20017 0.017918 0.009057
-0.0037245 0.00012282 -0.003296 -0.00072704 -0.00086844 -0.0003703 -0.0021699 0.0011679
0.017862 0.0091284 -0.081428 0.30283
1160000000 0.090532 0.30181 0.023677 -0.020695 0.0027147 -0.00068578 -0.0002212 -0.0025331
-0.0039512 -0.0003329 -0.00084571 0.003754
0.023692 -0.020659 -0.084464 0.37808 -0.0036708 -0.02854 -0.0017125 -0.001655
-0.0023299 0.0025303 -0.0012234 0.0014941
0.0026573 -0.00073055 -0.0037974 -0.028571 0.24842 0.24499 -0.00063097 0.0016488
-0.00038851 0.0017833 -0.00095059 4.5676e-06
-0.00014402 -0.0024994 -0.0017335 -0.0016537 -0.00065868 0.0016522 0.031688 0.28214
0.019121 -0.0092103 -0.0023805 0.0055831
-0.0039065 -0.00039612 -0.0023266 0.0026144 -0.00033645 0.0017883 0.019256 -0.0092269
-0.027879 0.21008 0.016903 0.00066284
-0.00084994 0.0035785 -0.0012326 0.0016011 -0.00091397 -1.5499e-05 -0.0023764 0.0055937
0.016974 0.00084128 -0.034473 0.30589
1220000000 0.13478 0.28968 0.010206 -0.029763 -0.0015768 -0.00099348 -0.00018674 -0.0010919
-0.0026336 0.0025382 0.0011579 0.0018542
0.010191 -0.029728 -0.040524 0.38961 -0.016472 -0.020786 -0.0024504 0.00042548
0.00020794 0.0027529 -0.00076071 0.0016926
-0.0015487 -0.00095802 -0.016596 -0.020726 0.28754 0.20625 0.0007677 0.0014859
0.0005212 0.0010446 0.00012173 0.00070278
-0.00022627 -0.0011585 -0.0024671 0.00040681 0.00078688 0.0014832 0.071206 0.27367
0.0094816 -0.014957 0.0028039 0.001675
-0.0026171 0.0025363 0.0001943 0.0027499 0.00053514 0.0010687 0.0094386 -0.014931
-0.0042334 0.21919 0.013398 -0.011295
0.0012092 0.0019 -0.00065916 0.0016438 0.00011328 0.00063728 0.0027121 0.0016268
0.013563 -0.011386 -0.0030538 0.32036
1280000000 0.18413 0.26713 -0.0077432 -0.028134 -0.0019561 0.0023809 -0.0011027 -0.0019435
-0.00054189 0.0028972 0.0024726 0.00099682
-0.0077345 -0.028105 0.0049836 0.38042 -0.02311 -0.0085043 -0.00097249 0.0013778
0.0014702 0.0015739 0.00047194 0.0018615
-0.0019465 0.0024005 -0.023182 -0.0084082 0.31839 0.1625 0.0012543 -0.00014852
0.00097185 6.7377e-05 0.0002158 0.0003577
-0.0011056 -0.0018696 -0.00099011 0.0013762 0.001228 -0.00017384 0.10762 0.25753
0.0011208 -0.016689 0.00056805 -0.00016476
-0.00046625 0.0029173 0.0015266 0.0015138 0.00095642 5.5777e-05 0.0011217 -0.016697
0.032984 0.22284 0.0031987 -0.013467
0.0025704 0.00093438 0.00050534 0.0019222 0.00030719 0.00037366 0.00050029 -0.00016311
0.0030509 -0.013467 0.044097 0.32069
1340000000 0.22068 0.23279 -0.01746 -0.018892 0.00072527 0.0043475 -0.0018182 -0.00075997
0.0013807 0.0024856 0.001469 -0.0014547
-0.017411 -0.01887 0.044136 0.37221 -0.021191 0.0038621 -0.00012189 0.0019357
0.0016352 0.00066465 0.001186 0.00083436
0.00074898 0.0043714 -0.021197 0.0039679 0.34094 0.11435 0.0009453 -0.00078471
0.00061913 -0.00035592 0.00015133 0.0002736
-0.0018489 -0.00077888 -0.00010316 0.0019423 0.00094187 -0.00077836 0.14045 0.23749
-0.0068233 -0.01417 0.0013729 -0.00021249
0.0013999 0.0024969 0.0016482 0.00066316 0.00064704 -0.00032509 -0.0069055 -0.01418
0.063436 0.21806 -0.0026739 -0.012547
0.0016074 -0.0015331 0.001189 0.00086842 0.00011212 0.0002862 0.0012232 -0.00029427
-0.0026074 -0.012589 0.082404 0.31565
1400000000 0.25315 0.19437 -0.023099 -0.007597 0.0048945 0.0030657 -0.001993 0.00070849
0.0024467 0.00067016 0.00012319 -0.0012633
-0.023098 -0.0076019 0.081057 0.35923 -0.014764 0.011826 0.001304 0.0013318
0.0010014 -0.00071021 0.0011137 0.00022662
0.0049009 0.0030661 -0.014733 0.011919 0.35426 0.060295 2.7874e-05 -0.001381
5.2733e-05 -0.00040479 0.00026436 4.3067e-05
-0.0020028 0.00071117 0.0013343 0.0013466 4.8098e-05 -0.0013656 0.17023 0.20906
-0.011895 -0.0085724 -0.00072185 -0.0010822
0.0024876 0.0006462 0.0010245 -0.0006971 3.7893e-05 -0.00034594 -0.011914 -0.0085492
0.096575 0.21336 -0.0087485 -0.0082396
0.00016135 -0.0012745 0.0011883 0.00027461 0.00032634 0.00019917 -0.00070437 -0.001066
-0.0087932 -0.0082117 0.12626 0.30415
1460000000 0.27561 0.15038 -0.020347 0.0043582 0.0054091 -0.0016202 -0.001527 0.0017862
0.0018345 -0.00062065 -0.00024777 -0.00097723
-0.020291 0.0043389 0.11529 0.33767 -0.0064356 0.014867 0.0017146 0.00017073
0.00092909 -0.0010714 0.0011765 -0.00059645
0.0054387 -0.001643 -0.0063826 0.014908 0.36007 0.0051094 -0.0010111 -0.0011519
0.00026867 -8.6563e-05 0.00060148 -0.00040707
-0.0015051 0.0017661 0.0017226 0.00017811 -0.0010187 -0.0011566 0.1973 0.18016
-0.012815 -0.0033535 -0.0011238 0.0014712
0.0018008 -0.00062187 0.00092979 -0.001065 0.00023484 -6.8298e-05 -0.01284 -0.0033784
0.12635 0.19834 -0.010618 -0.0032798
-0.0003473 -0.00096091 0.0011782 -0.00059343 0.00062492 -0.00044357 -0.0011784 0.0014157
-0.010489 -0.0032085 0.15969 0.28274
1520000000 0.28748 0.1087 -0.014848 0.010039 0.0031711 -0.0039794 0.0001548 0.0025396
0.0017073 -0.0016081 -0.0010874 -9.3195e-05
-0.014853 0.010029 0.14893 0.32293 0.0010669 0.013042 0.0016053 -0.00080112
0.0001414 -0.00089537 0.00033457 -0.00098773
0.0031443 -0.0039687 0.0011471 0.01305 0.35274 -0.051294 -0.00087835 -0.00038741
0.00060029 -0.00077697 1.332e-05 2.63e-05
0.00015063 0.0025676 0.0016145 -0.000802 -0.00087177 -0.00037999 0.22113 0.142
-0.012833 0.0011701 0.0007458 0.0015934
0.0017202 -0.001575 0.0001545 -0.00088825 0.00057836 -0.00074339 -0.012849 0.001187
0.15424 0.18393 -0.010775 0.00071252
-0.0011068 -0.00014468 0.00030619 -0.00099915 5.016e-05 -2.7013e-05 0.00083587 0.0015977
-0.010898 0.00075318 0.19243 0.261
1580000000 0.29668 0.062245 -0.0083816 0.013219 -0.00084779 -0.0046026 0.0013776 0.0018716
-0.00041637 -0.0019226 -0.00044801 0.00038241
-0.0083572 0.013204 0.17637 0.29809 0.0048616 0.0084746 0.00048945 -0.0015829
-0.00037498 -0.0011373 -0.00022192 -0.00087343
-0.0008183 -0.0046011 0.0048975 0.0084542 0.33199 -0.1089 -0.0015337 0.0003988
-0.00016538 -0.0010991 9.442e-05 -0.00061534
0.0014202 0.0018181 0.00047745 -0.0016124 -0.0015327 0.00040294 0.23595 0.10227
-0.010422 0.0055291 0.0016004 0.00079086
-0.00046996 -0.0020071 -0.00036976 -0.0011031 -0.00018325 -0.0011151 -0.010367 0.005559
0.17861 0.16577 -0.0088309 0.0060792
-0.0004097 0.00029934 -0.00020144 -0.00089134 0.00019817 -0.00062811 0.0015838 0.00075437
-0.0088852 0.0060453 0.22414 0.23383
1640000000 0.29833 0.020428 -0.0017624 0.012385 -0.0026034 -0.0024729 0.0026072 0.0009842
-0.00069315 -0.0011391 -0.00031035 0.00059609
-0.0017786 0.012383 0.20596 0.27279 0.0056634 0.0037929 -0.0007141 -0.0016129
-0.00098173 -0.0005219 -0.00050731 -0.00067943
-0.0026104 -0.0024944 0.0056869 0.0037744 0.30341 -0.15821 -0.00080266 0.0013103
-0.00092905 -0.00089202 -9.8688e-05 -0.00037367
0.0025747 0.00096613 -0.0007359 -0.0016217 -0.00081494 0.0013093 0.24886 0.05226
-0.0070737 0.0066479 0.0020883 -0.00052362
-0.00074945 -0.001091 -0.00099951 -0.0005243 -0.00093854 -0.00092192 -0.007109 0.0066527
0.20198 0.14066 -0.0049302 0.0084051
-0.00032732 0.00068516 -0.00053778 -0.00065089 -0.00010863 -0.00028453 0.0021089 -0.00053146
-0.0048799 0.0083319 0.24916 0.20156
1700000000 0.29053 -0.025232 0.0017786 0.0097975 -0.0032979 5.7513e-05 0.002872 -0.0010847
-0.0018174 -0.00047791 0.00061065 0.0005899
0.001776 0.0097837 0.22414 0.24088 0.0038938 0.00091449 -0.001358 -0.00056144
-0.00083283 -3.9409e-05 -0.00097888 -0.0003896
-0.0033411 3.8564e-05 0.0038925 0.00091322 0.25912 -0.19775 0.00025894 0.0016347
-0.0017013 -0.00036388 -0.00052556 -0.00098871
0.0028541 -0.0011027 -0.0013553 -0.00057026 0.00028398 0.0016065 0.24538 0.0011498
-0.0051459 0.0075946 0.0011463 -0.0020368
-0.0018427 -0.00045942 -0.000841 -2.5172e-05 -0.0017225 -0.00033349 -0.0051472 0.0077022
0.21974 0.11937 -0.00048553 0.0087743
0.00064307 0.0005153 -0.00097359 -0.00036068 -0.00050195 -0.00094787 0.0012437 -0.0019547
-0.00054341 0.0088764 0.26471 0.16705
1760000000 0.27744 -0.073989 0.0043297 0.0066204 -0.0022054 0.00075045 0.0012769 -0.0032572
-0.0010139 0.00058801 0.00044964 -0.00060312
0.0043516 0.0066164 0.24987 0.20058 0.0018756 -0.00090722 -0.0011129 0.0001746
-0.0011371 0.0009039 -0.00054226 0.00058045
-0.0022209 0.00075213 0.001878 -0.00094062 0.21008 -0.23032 0.001166 0.0013404
-0.0011641 0.0013948 -0.0013084 -0.00042027
0.0012972 -0.0032501 -0.0010872 0.00020205 0.0011842 0.0013161 0.23532 -0.051172
-0.0023164 0.0074291 -0.0003458 -0.0018724
-0.0010676 0.00059826 -0.0011496 0.00091089 -0.0011302 0.0013533 -0.0023019 0.0074058
0.2347 0.082881 0.0030233 0.0067614
0.00046354 -0.00045634 -0.00056217 0.0006209 -0.0013066 -0.00039708 -0.0003523 -0.0019272
0.0031461 0.0066532 0.27651 0.12889
1820000000 0.25179 -0.11105 0.0047551 0.002976 -0.00011733 0.0023771 -0.00085855 -0.0030552
-0.0008668 0.00066945 3.4325e-05 -0.00021268
0.0047569 0.0029699 0.2594 0.17015 -0.0001447 -1.5383e-05 -0.0013502 0.00086764
-0.00014606 0.0014247 -0.0005136 0.00055205
-0.00019425 0.0023927 -0.00015203 -3.4827e-06 0.16001 -0.24571 0.0015902 0.00039423
-0.00049709 0.0021204 -0.0014005 0.00055369
-0.00089394 -0.0030735 -0.0013521 0.00088566 0.0015714 0.00041268 0.20376 -0.098743
-0.00096644 0.0061873 -0.0016374 -0.0014035
-0.00082159 0.00059699 -0.00013203 0.0014368 -0.0004806 0.0021316 -0.0010541 0.0061549
0.25134 0.051617 0.0041202 0.0035032
3.2461e-05 -0.0001808 -0.00048707 0.00058457 -0.0014139 0.00063897 -0.0016278 -0.0011904
0.0040808 0.0035544 0.27783 0.092523
1880000000 0.21585 -0.15071 0.0027775 0.00049963 -0.00038887 0.0021624 -0.0028886 -0.0023319
-0.00019826 0.0013957 0.00037944 -0.00059475
0.0027443 0.00049735 0.26336 0.12348 -0.0021132 0.0016348 -0.00017861 0.0016727
0.00074091 0.0013724 0.00026987 0.00093934
-0.00041402 0.0021111 -0.0020764 0.0016335 0.10814 -0.2547 0.002041 -0.00097618
0.0014086 0.0021346 -0.00078288 0.0013964
-0.0028401 -0.0023168 -0.00013859 0.0016976 0.0020614 -0.00092901 0.16176 -0.13786
-0.00051253 0.0052523 -0.0020172 0.0010165
-0.00028658 0.0014534 0.00076113 0.0014124 0.0014084 0.0021827 -0.00040621 0.0052212
0.25294 0.017142 0.0039374 0.0016756
0.00024328 -0.00057285 0.0002763 0.00091685 -0.00077296 0.0014053 -0.0020629 0.00094954
0.0039735 0.0017097 0.27704 0.058604
1940000000 0.17588 -0.17559 0.00051227 -0.0014354 0.0013736 0.0019556 -0.0038218 0.00041165
0.0010905 0.0010398 -0.00057801 -0.00068282
0.00049109 -0.0014542 0.26337 0.091621 -0.0010766 0.0038072 0.00097878 0.0012958
0.0020627 0.00054701 0.00091024 0.00022611
0.0013747 0.0019702 -0.0010551 0.0038078 0.062269 -0.24837 0.00044693 -0.0024072
0.0024744 0.00068765 0.00053934 0.0016945
-0.0037031 0.00054266 0.00097221 0.0013144 0.00040029 -0.0023915 0.10863 -0.16727
-0.001307 0.0041167 -0.00097386 0.0015987
0.0011238 0.0011214 0.0020252 0.00050975 0.002444 0.00057389 -0.0013516 0.0041284
0.25261 -0.023777 0.0031579 -0.0013675
-0.000581 -0.00072064 0.00084793 0.00024893 0.00039147 0.0016142 -0.0010561 0.00177
0.0030549 -0.0013428 0.26523 0.022105
2000000000 0.12956 -0.18922 -0.0035008 0.0003927 0.0024165 0.0015295 -0.0021782 0.0036191
0.0010224 0.00039621 -0.00050934 0.00053644
-0.0035202 0.00038323 0.24864 0.056328 -0.00078611 0.0056493 0.0017122 0.00033918
0.0014414 -0.0015155 0.00046532 0.00029967
0.0024342 0.0015435 -0.00074494 0.005652 0.019067 -0.2336 -0.0016019 -0.0013905
0.0019547 -0.0012031 0.001533 0.0014133
-0.0023209 0.0036359 0.0016809 0.00038869 -0.0016181 -0.0014333 0.055478 -0.17569
-0.0024141 0.0047755 0.00062229 0.002067
0.00098038 0.00032263 0.0014758 -0.0015572 0.0020092 -0.0012546 -0.0024412 0.0047609
