!Keysight Technologies,M9804A,MY58100912,A.14.10.03
!Date: Thursday, April 27, 2023 10:28:33
!Correction: S11(C  6-Port  ) 
!S12(C  6-Port  ) 
!S13(C  6-Port  ) 
!S14(C  6-Port  ) 
!S15(C  6-Port  ) 
!S16(C  6-Port  ) 
!S21(C  6-Port  ) 
!S22(C  6-Port  ) 
!S23(C  6-Port  ) 
!S24(C  6-Port  ) 
!S25(C  6-Port  ) 
!S26(C  6-Port  ) 
!S31(C  6-Port  ) 
!S32(C  6-Port  ) 
!S33(C  6-Port  ) 
!S34(C  6-Port  ) 
!S35(C  6-Port  ) 
!S36(C  6-Port  ) 
!S41(C  6-Port  ) 
!S42(C  6-Port  ) 
!S43(C  6-Port  ) 
!S44(C  6-Port  ) 
!S45(C  6-Port  ) 
!S46(C  6-Port  ) 
!S51(C  6-Port  ) 
!S52(C  6-Port  ) 
!S53(C  6-Port  ) 
!S54(C  6-Port  ) 
!S55(C  6-Port  ) 
!S56(C  6-Port  ) 
!S61(C  6-Port  ) 
!S62(C  6-Port  ) 
!S63(C  6-Port  ) 
!S64(C  6-Port  ) 
!S65(C  6-Port  ) 
!S66(C  6-Port  ) 
!S6P File: Measurement: :
# Hz S  RI   R 50
500000000 -0.34017 -0.02021 -0.011119 -0.0032759 -0.0078708 0.013015 -0.0033463 0.012456
0.011001 0.0041031 -0.0031029 0.0089264
-0.011118 -0.0032732 -0.41987 -0.038699 0.0057938 -0.011239 0.0017808 0.012415
0.0068686 0.0023755 0.0022949 0.013532
-0.0078526 0.013011 0.0057821 -0.011247 -0.26413 0.22194 0.0071974 0.003925
-0.0011589 0.0081734 0.0024372 0.011898
-0.0033434 0.012455 0.0017896 0.012419 0.0072042 0.0039247 -0.33189 0.058851
-0.020663 -0.0062801 0.015168 0.023991
0.011004 0.0040778 0.0068855 0.0023752 -0.001127 0.0081831 -0.020672 -0.0062676
-0.23657 -0.16881 -0.027088 0.0046698
-0.0030506 0.0089315 0.0023034 0.013564 0.0024657 0.011937 0.015192 0.024006
-0.027086 0.0046443 -0.2835 -0.086334
560000000 -0.3139 0.13497 -0.02735 -0.059829 0.00076751 0.011757 0.0052103 0.010166
0.008779 0.0049647 0.010495 0.0070922
-0.027321 -0.059759 -0.37571 0.11813 -0.043036 -0.034657 0.01343 0.0038413
-0.012266 -0.0036755 0.0027133 -0.0004229
0.00077866 0.01172 -0.043096 -0.034598 -0.18103 0.26671 0.0001341 -0.0046018
0.019395 0.0043332 0.0066767 -0.0063306
0.0052381 0.010177 0.01343 0.0038205 0.00013523 -0.0046093 -0.30597 0.14679
-3.5273e-05 -0.023372 0.0030317 -0.018696
0.0087819 0.0049505 -0.012329 -0.0036348 0.019412 0.0043101 -4.2702e-05 -0.023379
-0.28971 0.0056072 0.0028595 -0.04739
0.010531 0.0071062 0.0027182 -0.00051829 0.0066821 -0.0063026 0.00302 -0.01871
0.0028099 -0.047391 -0.33031 0.053683
620000000 -0.2719 0.12187 -0.023529 0.0078702 0.00436 0.0081829 0.0074053 -0.0048763
0.010957 -0.0015774 0.00072271 -0.0027578
-0.023523 0.0078615 -0.40189 0.072363 -0.019663 0.00087305 -0.00070525 -0.0023219
0.010258 -0.006292 0.0018489 -0.0023913
0.0043793 0.0081568 -0.019659 0.00091182 -0.14991 0.27713 -0.00095023 -0.0050467
-0.003359 -0.0026348 0.0080417 -0.003414
0.0074149 -0.0048734 -0.00072091 -0.0023286 -0.00094664 -0.0050493 -0.26359 0.1589
-0.040608 -0.016921 0.011863 0.024036
0.011004 -0.0015823 0.01026 -0.0063057 -0.003346 -0.0026465 -0.040604 -0.016932
-0.21131 -0.032633 -0.039627 0.016328
0.00072351 -0.0027217 0.0018345 -0.0023997 0.008012 -0.0034222 0.011895 0.024005
-0.039681 0.016357 -0.25718 0.026186
680000000 -0.229 0.20447 -0.02781 -0.011695 0.0056005 0.0047306 0.0011632 -0.0072263
-0.0027128 -0.010887 0.0044394 -0.0068119
-0.027782 -0.011702 -0.38467 0.16691 -0.032369 0.00052639 -0.0014128 -0.00071079
-0.0022683 -0.0092685 -0.0015147 -0.0023267
0.0056123 0.0047218 -0.03237 0.00057267 -0.098371 0.29406 -0.0010926 -0.00056605
-0.0013729 -0.00014407 -0.0033477 -0.0089836
0.0011534 -0.0072404 -0.0014223 -0.00070325 -0.0011033 -0.00057179 -0.21714 0.2062
-0.026165 -0.004287 -0.0092579 -0.0083506
-0.0027236 -0.010892 -0.0022684 -0.0092712 -0.0013668 -0.00012731 -0.026186 -0.0042467
-0.25292 0.066557 -0.0070627 -0.0060775
0.0044477 -0.0068307 -0.0015284 -0.002306 -0.0033516 -0.0089733 -0.0093117 -0.0083476
-0.0071057 -0.0060452 -0.25498 0.12134
740000000 -0.18414 0.19956 -0.036313 0.026804 0.012325 -0.0058509 -0.00065234 -0.0041138
-0.0047279 -0.0034086 -0.0059126 0.002514
-0.036303 0.026769 -0.33268 0.18617 -0.032878 0.035462 -0.001259 -0.0065025
-0.011661 0.0077613 -0.0022484 -0.0055795
0.012334 -0.0058617 -0.032824 0.035538 -0.064978 0.29316 -0.0018806 0.0031433
-0.0033545 -0.0046296 -0.0018375 0.0011108
-0.00067495 -0.0041076 -0.0012706 -0.0064985 -0.0018857 0.0031493 -0.19952 0.21529
-0.042732 -0.0027635 0.022467 0.012725
-0.0047089 -0.0033756 -0.011629 0.0078183 -0.0033414 -0.004645 -0.042766 -0.0027216
-0.1577 0.087072 -0.039187 0.0054827
-0.0059133 0.002505 -0.0022791 -0.0055585 -0.0018379 0.0010974 0.02247 0.012696
-0.039199 0.0054362 -0.24324 0.1318
800000000 -0.14989 0.23651 -0.020754 0.017683 0.0048988 -0.010582 -0.0044969 -0.0016448
-0.0038363 0.0025363 0.0035538 0.00072164
-0.020757 0.017666 -0.33291 0.25449 -0.0065164 0.033835 -0.0024009 0.0022382
-0.00096753 0.0034582 0.000983 0.0052285
0.0048848 -0.010578 -0.0064547 0.033854 -0.022339 0.31486 0.00070361 0.0018384
0.00044169 0.0035943 -0.0018134 0.0012809
-0.0044981 -0.0016408 -0.0024105 0.0022537 0.00070144 0.0018349 -0.16916 0.24149
-0.02696 0.017012 0.012983 -0.010194
-0.0038388 0.0025397 -0.0009548 0.0034678 0.0004538 0.0035873 -0.026963 0.017074
-0.19619 0.11505 -0.015605 0.01977
0.003558 0.00072385 0.00099779 0.005222 -0.0018213 0.0012799 0.012988 -0.010216
-0.015621 0.019791 -0.23025 0.17726
860000000 -0.11506 0.25607 -0.015423 0.030849 -0.0036354 -0.0098264 -0.0020041 0.0012102
0.0042181 0.0046784 -0.0028032 -0.0021899
-0.015432 0.030838 -0.28593 0.29514 0.0094307 0.033428 0.0002014 0.0023192
0.0043925 0.00045207 0.0029213 0.00059927
-0.0036455 -0.0098149 0.0095088 0.033409 0.02559 0.32195 -0.0003943 7.7165e-05
0.002506 -0.0012038 0.001842 0.0039402
-0.0020018 0.0012089 0.00019589 0.0023099 -0.00039247 7.8649e-05 -0.13255 0.25203
-0.015072 0.02116 -0.0050696 -0.0088603
0.0042301 0.0046655 0.0044088 0.00043505 0.0025124 -0.0012196 -0.015076 0.021213
-0.14293 0.16059 -0.021009 0.017551
-0.0028134 -0.0021727 0.0029304 0.00060204 0.0018422 0.0039482 -0.0050829 -0.0088464
-0.020996 0.017529 -0.18173 0.21706
920000000 -0.088472 0.27739 0.0066381 0.036398 -0.0094255 -0.0042472 -0.0013253 0.0016284
0.0015578 0.0016563 0.0029291 -0.001853
0.0066126 0.036384 -0.25556 0.3158 0.028645 0.020302 0.0018007 0.00098813
0.0074267 -0.00057525 0.0038744 -0.0028915
-0.0094279 -0.0042285 0.028696 0.020238 0.07307 0.32227 0.0019653 -0.00017806
0.0016718 -0.00050176 0.00096698 -0.0012662
-0.0013053 0.0016296 0.0017865 0.00098948 0.0019545 -0.00018124 -0.10635 0.26801
-0.0069825 0.031713 0.0029114 -0.0067552
0.0015497 0.0016573 0.007427 -0.00057603 0.001672 -0.00050145 -0.0069297 0.031762
-0.12887 0.16643 0.00087525 0.026041
0.0029172 -0.0018465 0.0038795 -0.0028864 0.00095305 -0.0012528 0.0029048 -0.0067491
0.00084441 0.026062 -0.18054 0.23269
980000000 -0.041715 0.29447 0.018726 0.028149 -0.0087423 0.0046156 0.0020736 0.002869
0.0042616 -0.0019179 -0.0029734 -0.0022147
0.018698 0.02816 -0.20385 0.34777 0.033018 0.0030305 0.0021867 -0.00036189
0.0017983 -0.006438 -0.00057172 -0.0026055
-0.00874 0.0046285 0.033055 0.0029517 0.11977 0.3144 0.00050005 -0.0013541
6.7637e-05 -0.0024825 0.0012552 -0.00035348
0.0020807 0.0028701 0.0021692 -0.00037146 0.00050858 -0.0013567 -0.067231 0.27732
0.011874 0.029155 -0.0083082 -0.0066237
0.0042702 -0.0019389 0.0017806 -0.0064469 6.5962e-05 -0.0024866 0.011928 0.029156
-0.096813 0.18994 0.0067165 0.018384
-0.0029895 -0.0022101 -0.00056105 -0.0026113 0.0012603 -0.00034693 -0.0083136 -0.0066075
0.0067112 0.018401 -0.13707 0.27067
1040000000 0.00072193 0.30181 0.03314 0.015503 -0.0013521 0.0066832 0.0021902 0.00046969
7.5345e-05 -0.003314 -0.00088161 -0.0015656
0.03312 0.015537 -0.1683 0.36132 0.028151 -0.016163 0.0013785 -0.0019144
-0.002442 -0.002842 -0.0016075 -0.0030186
-0.0013432 0.0066895 0.028131 -0.016259 0.16669 0.30019 -0.00068418 -0.0015217
-0.0016997 -0.00099002 -0.00054643 -0.0010873
0.002214 0.00047144 0.0013456 -0.0019189 -0.00068655 -0.0015324 -0.03882 0.28644
0.022388 0.015684 -0.0026095 0.00059621
6.0828e-05 -0.0033219 -0.0024493 -0.0028156 -0.0016956 -0.001001 0.02242 0.015661
-0.064263 0.196 0.014664 0.015543
-0.00090036 -0.0015605 -0.0015956 -0.0030292 -0.00055374 -0.0010874 -0.002606 0.00060369
0.014643 0.015546 -0.1118 0.29017
1100000000 0.046039 0.30807 0.034601 -0.0061895 0.0026883 0.0036668 0.001925 -0.0010068
-0.002152 -0.0028423 -0.0038621 0.00070495
0.034577 -0.0061503 -0.12472 0.37782 0.013597 -0.028411 -0.00026395 -0.0018231
-0.0037729 -0.00059792 -0.003597 -5.4102e-05
0.0026906 0.0036646 0.013535 -0.028461 0.21429 0.27771 -0.0019096 0.00026797
-0.0019773 0.00068755 -0.00096875 -0.00012162
0.0019334 -0.0010142 -0.00027787 -0.001821 -0.0018986 0.00026219 0.0026932 0.28908
0.026158 0.00158 -0.0028414 -0.00014889
-0.0021614 -0.0028543 -0.0037894 -0.00058485 -0.0019755 0.00069151 0.02618 0.0015445
-0.045563 0.20686 0.01879 0.0057237
-0.003869 0.00071953 -0.0035949 -3.8889e-05 -0.00097368 -0.00011688 -0.0028373 -0.00014144
0.018777 0.0057297 -0.065324 0.31452
1160000000 0.096668 0.30202 0.022015 -0.022115 0.0021915 -0.0002615 -0.00017913 -0.0017912
-0.0040272 -0.00041295 -0.00081118 0.0040114
0.022025 -0.022065 -0.080394 0.38212 -0.0055371 -0.028616 -0.0016759 -0.0014489
-0.0027036 0.0025986 -0.0014616 0.0018505
0.0021865 -0.00027043 -0.0056054 -0.028625 0.25698 0.24448 -0.00077974 0.0018241
-0.00053758 0.0020559 -0.00096348 0.00022703
-0.00018131 -0.0017791 -0.0016853 -0.001451 -0.00077871 0.0018235 0.041873 0.28435
0.020794 -0.014074 -0.0034047 0.0041885
-0.004032 -0.00040218 -0.0026904 0.0026196 -0.0005244 0.0020567 0.020793 -0.014125
-0.01264 0.21371 0.01783 -0.0024957
-0.00080001 0.0039997 -0.0014412 0.0018601 -0.00096727 0.00023417 -0.0033938 0.0041929
0.017823 -0.0024895 -0.018568 0.31563
1220000000 0.14149 0.2895 0.0078677 -0.030039 -0.0017157 -0.0001703 0.00024156 -0.00074214
-0.0024631 0.0023693 0.0014591 0.0020258
0.0078868 -0.029992 -0.035485 0.39321 -0.017945 -0.01991 -0.0024545 0.00059716
0.00011664 0.0031695 -0.00049284 0.0020934
-0.0017229 -0.00016685 -0.018002 -0.019868 0.29536 0.20328 0.00077971 0.0019249
0.00064511 0.001306 0.00034244 0.00067291
0.0002419 -0.00073834 -0.0024539 0.00060143 0.00078231 0.0019331 0.082585 0.27378
0.0089989 -0.020415 0.0010488 0.0014298
-0.0024546 0.0023764 0.00012334 0.003168 0.00065058 0.0013188 0.0089738 -0.020442
0.011002 0.22056 0.011919 -0.014689
0.0014647 0.0020123 -0.00047763 0.0021022 0.00035389 0.00067917 0.0010438 0.0014325
0.011911 -0.014682 0.015316 0.32729
1280000000 0.19039 0.26595 -0.010033 -0.027294 -0.0015053 0.0031243 -0.00086698 -0.0019843
-0.00068216 0.0030047 0.0025221 0.00090955
-0.010004 -0.027282 0.010943 0.3832 -0.024049 -0.0071068 -0.00092858 0.0015004
0.0019524 0.001807 0.00091633 0.0018558
-0.0014949 0.0031167 -0.024087 -0.007028 0.32379 0.15757 0.0017388 0.00010528
0.0012598 0.0003155 0.00033346 0.00027082
-0.00087168 -0.0019869 -0.00092967 0.0015061 0.0017347 0.00011779 0.11859 0.25431
-0.0019038 -0.021539 -0.0008974 0.00069775
-0.00065901 0.0030097 0.001962 0.0018001 0.0012652 0.00031428 -0.0019441 -0.021549
0.046996 0.2219 0.00097446 -0.016364
0.0025185 0.00089605 0.00093116 0.0018551 0.00033223 0.00026562 -0.00089967 0.00068954
0.00097454 -0.016363 0.061342 0.32498
1340000000 0.22698 0.23117 -0.01896 -0.016708 0.0015531 0.0044951 -0.0017126 -0.00097753
0.0014988 0.0025892 0.0015791 -0.0015748
-0.01892 -0.01672 0.050694 0.37343 -0.021072 0.0056045 -4.3122e-05 0.0020587
0.0021546 0.00057761 0.0014901 0.00061337
0.001565 0.0044836 -0.021067 0.0056828 0.34379 0.10953 0.0013585 -0.0011412
0.00073821 -0.00058062 0.00018859 0.00018467
-0.0017111 -0.00097095 -3.7149e-05 0.0020544 0.0013633 -0.0011341 0.14984 0.23215
-0.01201 -0.017222 0.00016656 0.0015449
0.0014986 0.0025942 0.0021669 0.00056695 0.00073313 -0.00058796 -0.012061 -0.017215
0.076641 0.21581 -0.0063966 -0.013953
0.0015725 -0.0015842 0.0014959 0.00060623 0.00019216 0.00018201 0.00016377 0.0015458
-0.0063904 -0.013958 0.10012 0.31686
1400000000 0.25935 0.19154 -0.023232 -0.0049646 0.0056258 0.0027921 -0.0021907 0.00057448
0.0024217 0.00087237 4.0123e-05 -0.0015609
-0.023195 -0.0049913 0.087745 0.35888 -0.013772 0.013156 0.0014592 0.0012778
0.0012539 -0.0010494 0.0011344 -5.7028e-05
0.005636 0.0027789 -0.013733 0.013216 0.35574 0.056192 9.8108e-05 -0.0020847
9.4517e-05 -0.00051429 0.00032173 0.00019432
-0.0021894 0.0005727 0.0014571 0.001265 9.6333e-05 -0.002087 0.17787 0.2012
-0.017919 -0.0090192 -0.0004504 0.0010411
0.0024204 0.00086637 0.0012508 -0.0010613 8.7632e-05 -0.00051767 -0.017946 -0.0089927
0.10873 0.20909 -0.012595 -0.007923
4.4327e-05 -0.0015548 0.001137 -6.7095e-05 0.00032015 0.0001988 -0.00045684 0.0010493
-0.012575 -0.007928 0.14321 0.30226
1460000000 0.28075 0.14656 -0.019207 0.0066329 0.0057016 -0.0022998 -0.0016342 0.0016977
0.0021028 -0.00065643 -0.0004727 -0.00094871
-0.019197 0.0066137 0.12099 0.33571 -0.0049968 0.015382 0.0018023 5.5003e-05
0.00064751 -0.0014499 0.0010283 -0.00066404
0.0056951 -0.0023202 -0.004945 0.015402 0.36014 0.0024637 -0.0016584 -0.0014388
0.00018795 -0.00028871 0.00063493 -0.00033419
-0.001622 0.0016953 0.0018065 5.3961e-05 -0.0016541 -0.0014427 0.2013 0.17087
-0.018416 -0.00075768 8.3944e-05 0.0026782
0.0021048 -0.0006674 0.0006432 -0.0014639 0.00018665 -0.00029388 -0.018434 -0.00072528
0.13659 0.1932 -0.013385 -0.0012336
-0.00046598 -0.00094737 0.0010279 -0.00067163 0.00063169 -0.00032675 8.7147e-05 0.0026804
-0.01338 -0.0012339 0.17453 0.27926
1520000000 0.29195 0.10378 -0.012743 0.011365 0.0031429 -0.0044889 0.00016766 0.0026884
0.0020172 -0.0018167 -0.0011891 -9.4484e-05
-0.012741 0.011346 0.15361 0.32016 0.0023088 0.012649 0.0016988 -0.00098054
-0.00018338 -0.0010946 0.00019712 -0.00098917
0.0031334 -0.0045072 0.0023593 0.012644 0.35325 -0.053003 -0.0015589 -0.0001938
0.00050048 -0.00098977 6.3328e-06 -0.00021695
0.00018026 0.0026897 0.001695 -0.00098749 -0.0015494 -0.00020001 0.22208 0.13281
-0.016041 0.0058992 0.0024563 0.0020947
0.0020088 -0.001825 -0.00019198 -0.0011032 0.00049339 -0.00099478 -0.016038 0.00594
0.16407 0.17765 -0.012439 0.0039027
-0.00118 -8.7658e-05 0.00018411 -0.0009845 4.8645e-06 -0.00022232 0.0024621 0.0020922
-0.012439 0.0038947 0.20613 0.25622
1580000000 0.29946 0.056899 -0.0059762 0.013351 -0.001123 -0.004992 0.0015598 0.0018934
-0.0003063 -0.0022513 -0.00026364 0.0003992
-0.0059877 0.013341 0.17964 0.29458 0.0056016 0.0076626 0.00032338 -0.0018042
-0.00067763 -0.00089936 -0.00031262 -0.00077555
-0.0011364 -0.0049915 0.0056298 0.0076478 0.33306 -0.11046 -0.001646 0.001121
-0.00049454 -0.0011855 0.00016525 -0.00063577
0.0015581 0.0018862 0.00031605 -0.0017974 -0.001654 0.0011342 0.23328 0.093761
-0.011029 0.010761 0.0029826 0.00023694
-0.00031727 -0.0022439 -0.00068966 -0.00090089 -0.00049902 -0.0011862 -0.011018 0.0108
0.18709 0.15774 -0.0091696 0.0092605
-0.00026338 0.00040443 -0.00031367 -0.00077204 0.00016275 -0.00064045 0.0029893 0.00022739
-0.009179 0.0092562 0.23548 0.22794
1640000000 0.29979 0.015446 0.00031467 0.01125 -0.0029843 -0.002687 0.0027332 0.00081682
-0.00098 -0.0015916 -0.00019267 0.00066034
0.00030325 0.011253 0.2079 0.26965 0.0059157 0.0030446 -0.0010031 -0.0016769
-0.00099855 -0.00019913 -0.00059794 -0.00051619
-0.002994 -0.0026766 0.0059406 0.0030308 0.30417 -0.15877 -0.0005173 0.0017435
-0.0013908 -0.0007532 -0.0002599 -0.00034741
0.0027323 0.00081188 -0.0010079 -0.0016655 -0.0005158 0.0017552 0.24315 0.047011
-0.0055619 0.011253 0.0027864 -0.001455
-0.00099473 -0.0015949 -0.001003 -0.00019172 -0.0013938 -0.00074828 -0.0055418 0.011289
0.20821 0.13226 -0.0036245 0.010961
-0.00019336 0.00066247 -0.00059651 -0.00050637 -0.00026377 -0.00034992 0.0028004 -0.0014638
-0.0036408 0.01097 0.25927 0.19585
1700000000 0.29081 -0.02986 0.0029798 0.0078569 -0.0035966 0.00020473 0.0029067 -0.001482
-0.0021511 -0.00058631 0.00073844 0.00030161
0.0029626 0.0078533 0.22538 0.23836 0.0038919 0.00025828 -0.0015881 -0.00036676
-0.00063279 0.00020303 -0.00088538 -0.00033483
-0.0036012 0.00021268 0.0038894 0.00023969 0.26159 -0.19886 0.00083822 0.001503
-0.0019641 0.00014271 -0.00069475 -0.00082297
0.0029033 -0.001491 -0.0015912 -0.00035641 0.00083541 0.0014967 0.23931 -0.00040474
-0.0020201 0.010583 0.0014889 -0.0026259
-0.0021535 -0.00057746 -0.00062697 0.00020419 -0.0019661 0.00014318 -0.002 0.010599
0.22415 0.11041 0.0013805 0.010615
0.00074395 0.0002943 -0.0008862 -0.00032441 -0.00070032 -0.00082162 0.0015 -0.0026234
0.0013811 0.010615 0.2741 0.16061
1760000000 0.2771 -0.077601 0.0042593 0.0044112 -0.0023995 0.00096357 0.00093323 -0.0034791
-0.0014957 0.00091304 0.0004148 -0.00050945
0.004243 0.0044144 0.25039 0.19854 0.0015709 -0.0016455 -0.0011675 0.00045465
-0.00087624 0.00084477 -0.000525 0.00050195
-0.0023992 0.00096428 0.0015612 -0.0016479 0.21289 -0.23268 0.0014496 0.00073884
-0.00098935 0.0018778 -0.0014335 -0.0002132
0.00092557 -0.0034852 -0.0011744 0.00046263 0.0014644 0.00074499 0.23023 -0.049139
0.0010595 0.0089016 -0.00038858 -0.0028608
-0.0014934 0.00091808 -0.00086752 0.00084864 -0.00098318 0.0018877 0.0010718 0.0089095
0.23651 0.07459 0.0053998 0.0074425
0.00041572 -0.00051309 -0.00051887 0.00050761 -0.0014394 -0.00020587 -0.00040266 -0.0028609
0.0053995 0.0074413 0.28492 0.12228
1820000000 0.25153 -0.11372 0.0036146 0.0012717 -8.4685e-05 0.0024657 -0.0012779 -0.0029093
-0.00087658 0.0011647 -3.6138e-05 -0.00010218
0.0036115 0.0012755 0.2601 0.16916 -0.00049301 -0.00042914 -0.0010118 0.0010909
5.3102e-05 0.001143 -0.00040656 0.00053879
-6.8735e-05 0.0024533 -0.00048812 -0.00042356 0.16215 -0.24869 0.0012958 5.7405e-05
0.00032122 0.0022971 -0.0012757 0.00066096
-0.001292 -0.0029022 -0.0010093 0.0010999 0.0012967 5.8177e-05 0.20224 -0.093972
0.0022184 0.0066036 -0.0017092 -0.0018574
-0.00086637 0.0011585 5.9956e-05 0.0011466 0.00033064 0.0022927 0.0022301 0.0065972
0.2518 0.045055 0.0064293 0.0032909
-4.5861e-05 -0.00010641 -0.0004111 0.00054334 -0.0012788 0.00065497 -0.0017085 -0.0018603
0.0064406 0.0032846 0.28609 0.085082
1880000000 0.21578 -0.15307 0.00099891 -0.00025012 -0.00043329 0.0022404 -0.0029275 -0.0018484
9.0976e-05 0.0016822 0.00016415 -0.0005041
0.00099515 -0.00023841 0.26442 0.12252 -0.0026941 0.0015062 8.4988e-05 0.0016024
0.00051872 0.0010375 0.00022689 0.00084871
-0.00043983 0.002242 -0.0026809 0.0015183 0.10865 -0.25865 0.0013652 -0.0010763
0.0018608 0.0015133 -0.00059182 0.0014096
-0.002932 -0.0018387 9.2379e-05 0.0016161 0.0013716 -0.0010803 0.16411 -0.13452
0.0026369 0.0041966 -0.0025236 7.7382e-05
9.7791e-05 0.0016703 0.00052537 0.0010342 0.0018696 0.001507 0.0026506 0.0041893
0.25276 0.011607 0.0059325 0.00057543
0.00015532 -0.0005099 0.00022776 0.00084485 -0.00058149 0.0014078 -0.002523 8.4676e-05
0.0059369 0.00056374 0.28431 0.050255
1940000000 0.17614 -0.17814 -0.0011491 -0.0011347 0.0015054 0.002202 -0.0035356 0.00076427
0.0015734 0.0008249 -0.00057319 -0.00058083
-0.0011433 -0.0011313 0.26447 0.091136 -0.0014688 0.0040204 0.00098273 0.00099829
0.0015652 0.0004456 0.00083769 0.00023114
0.0015099 0.0022022 -0.0014444 0.0040359 0.062241 -0.25112 5.8766e-05 -0.0017801
0.0021429 -3.9232e-05 0.00059757 0.0014795
-0.0035258 0.00077644 0.00099078 0.00099489 4.9264e-05 -0.0017715 0.11323 -0.16555
0.0015094 0.0026592 -0.0018228 0.0011562
0.0015826 0.00080702 0.0015668 0.00044016 0.0021356 -4.4103e-05 0.0015146 0.0026453
0.25251 -0.02722 0.004366 -0.0029157
-0.0005792 -0.00057639 0.00083569 0.00022503 0.00060853 0.0014904 -0.001819 0.0011595
0.0043692 -0.0029272 0.27167 0.013575
2000000000 0.13014 -0.19245 -0.0045523 0.0013097 0.0026574 0.0015952 -0.0022461 0.0034417
0.0010851 -0.00016993 -0.00048589 0.00039471
-0.0045447 0.0013072 0.25065 0.055433 -0.0011346 0.0058553 0.0013495 0.00017509
0.0012383 -0.0011606 0.00043038 2.5372e-06
0.0026629 0.0015803 -0.0010966 0.0058603 0.018615 -0.2367 -0.00117 -0.00091488
0.0014791 -0.0012134 0.0016438 0.00089867
-0.0022259 0.0034539 0.001356 0.00017203 -0.0011687 -0.00091513 0.060577 -0.17764
-0.00054488 0.0021328 -0.00055409 0.0020976
0.001091 -0.00016688 0.0012248 -0.0011611 0.0014799 -0.0012131 -0.0005338 0.0021302
0.24511 -0.061266 0.00057999 -0.0042134
