!Keysight Technologies,M9804A,MY58100912,A.14.10.03
!Date: Thursday, April 27, 2023 10:28:33
!Correction: S11(C  6-Port  ) 
!S12(C  6-Port  ) 
!S13(C  6-Port  ) 
!S14(C  6-Port  ) 
!S15(C  6-Port  ) 
!S16(C  6-Port  ) 
!S21(C  6-Port  ) 
!S22(C  6-Port  ) 
!S23(C  6-Port  ) 
!S24(C  6-Port  ) 
!S25(C  6-Port  ) 
!S26(C  6-Port  ) 
!S31(C  6-Port  ) 
!S32(C  6-Port  ) 
!S33(C  6-Port  ) 
!S34(C  6-Port  ) 
!S35(C  6-Port  ) 
!S36(C  6-Port  ) 
!S41(C  6-Port  ) 
!S42(C  6-Port  ) 
!S43(C  6-Port  ) 
!S44(C  6-Port  ) 
!S45(C  6-Port  ) 
!S46(C  6-Port  ) 
!S51(C  6-Port  ) 
!S52(C  6-Port  ) 
!S53(C  6-Port  ) 
!S54(C  6-Port  ) 
!S55(C  6-Port  ) 
!S56(C  6-Port  ) 
!S61(C  6-Port  ) 
!S62(C  6-Port  ) 
!S63(C  6-Port  ) 
!S64(C  6-Port  ) 
!S65(C  6-Port  ) 
!S66(C  6-Port  ) 
!S6P File: Measurement: :
# Hz S  RI   R 50
500000000 -0.34014 -0.020213 -0.011125 -0.0032761 -0.0078883 0.013015 -0.003358 0.012472
0.011004 0.0040882 -0.0030747 0.0089484
-0.011104 -0.0032733 -0.41985 -0.038727 0.0058135 -0.011238 0.0018042 0.012417
0.0068627 0.0023664 0.0022879 0.013558
-0.0078803 0.013014 0.0057887 -0.011239 -0.26411 0.22189 0.0072127 0.0039106
-0.0011761 0.0081832 0.0024527 0.011923
-0.0033596 0.012468 0.0018169 0.012431 0.0072138 0.0039126 -0.33193 0.058812
-0.020701 -0.0062734 0.015187 0.023993
0.011007 0.0040648 0.0068599 0.0023525 -0.0011732 0.008186 -0.020725 -0.0062568
-0.23657 -0.16899 -0.027126 0.004658
-0.003062 0.0089661 0.0023312 0.013572 0.0024725 0.011908 0.01521 0.023988
-0.027127 0.0046403 -0.28356 -0.086389
560000000 -0.31386 0.13494 -0.027447 -0.059833 0.00076014 0.011728 0.005244 0.01022
0.0088036 0.0049617 0.010493 0.0071118
-0.027358 -0.059768 -0.37559 0.11815 -0.042991 -0.034705 0.013471 0.0038031
-0.0123 -0.0037125 0.0027165 -0.00048628
0.00078728 0.011726 -0.043057 -0.034671 -0.18106 0.26673 9.6676e-05 -0.0045933
0.019375 0.0043834 0.0066906 -0.0062965
0.0052699 0.01019 0.013474 0.0038048 9.9654e-05 -0.0045962 -0.30607 0.14681
-5.1868e-05 -0.023353 0.0030187 -0.018651
0.008814 0.004941 -0.012302 -0.0037064 0.019367 0.0043942 -7.3021e-05 -0.023362
-0.28982 0.0055046 0.0027706 -0.047405
0.010518 0.0070919 0.0026917 -0.00049185 0.0067049 -0.006312 0.0030213 -0.018652
0.0027792 -0.047408 -0.33036 0.053717
620000000 -0.272 0.12194 -0.023527 0.0078635 0.0043627 0.0081821 0.0074394 -0.0048072
0.010943 -0.0015521 0.00064338 -0.0027281
-0.023496 0.0078459 -0.40186 0.072326 -0.019657 0.00086702 -0.00069963 -0.0023348
0.010252 -0.0062827 0.0018539 -0.0023816
0.0043758 0.0081773 -0.019668 0.0008982 -0.14989 0.27711 -0.00093454 -0.0050492
-0.0033628 -0.002639 0.0080027 -0.003446
0.0074584 -0.004809 -0.00070832 -0.0023273 -0.00093597 -0.0050449 -0.26354 0.15889
-0.040657 -0.016919 0.01188 0.024029
0.01093 -0.0015734 0.010248 -0.0063008 -0.0033617 -0.0026369 -0.040696 -0.016897
-0.21143 -0.03277 -0.039709 0.016332
0.00063294 -0.0027064 0.0018339 -0.0024025 0.0080091 -0.003437 0.011882 0.024088
-0.039743 0.0163 -0.25721 0.026237
680000000 -0.22898 0.20443 -0.027818 -0.011726 0.0055994 0.0047319 0.0011697 -0.007244
-0.0027122 -0.01087 0.0044684 -0.0068321
-0.027799 -0.011726 -0.38468 0.1669 -0.032383 0.00051852 -0.001426 -0.00071222
-0.0022507 -0.0092681 -0.0015276 -0.002297
0.0056076 0.004725 -0.032396 0.0005832 -0.098402 0.29405 -0.0011176 -0.00058315
-0.0013758 -0.00013287 -0.0033454 -0.0089581
0.0011682 -0.0072397 -0.0014253 -0.00070618 -0.0011158 -0.00057889 -0.21715 0.20622
-0.02617 -0.0042509 -0.009307 -0.0083522
-0.0027147 -0.010874 -0.0022763 -0.0092682 -0.0013804 -0.00013239 -0.026198 -0.0042276
-0.25315 0.066502 -0.0071571 -0.0060311
0.0044615 -0.0068229 -0.0015215 -0.00229 -0.0033575 -0.0089655 -0.0092837 -0.0083661
-0.0071531 -0.0060485 -0.25497 0.12134
740000000 -0.18416 0.19947 -0.036323 0.026796 0.012337 -0.0058463 -0.00066036 -0.0041232
-0.0047048 -0.0034122 -0.0058931 0.0024826
-0.036324 0.026766 -0.33269 0.18618 -0.032903 0.035447 -0.0012507 -0.0064754
-0.011637 0.0077549 -0.0022774 -0.0055773
0.01234 -0.0058663 -0.032839 0.035531 -0.064979 0.29315 -0.0018797 0.0031408
-0.0033323 -0.0046524 -0.0018484 0.0010912
-0.00066971 -0.0041126 -0.0012613 -0.0064795 -0.0018728 0.0031436 -0.19949 0.21528
-0.04272 -0.0027448 0.022435 0.012745
-0.004717 -0.0033795 -0.011666 0.0077949 -0.003341 -0.0046705 -0.042755 -0.0026949
-0.15785 0.087086 -0.039222 0.0054842
-0.0059138 0.0025112 -0.0022901 -0.0055899 -0.001842 0.001091 0.022471 0.012741
-0.039203 0.0054712 -0.24326 0.13183
800000000 -0.1499 0.23648 -0.020758 0.017663 0.0048982 -0.010566 -0.0044977 -0.0016445
-0.0038338 0.0025088 0.003545 0.00073837
-0.02077 0.01766 -0.33292 0.25446 -0.0065101 0.033838 -0.0024165 0.0022366
-0.00097858 0.0034548 0.00096942 0.0052226
0.0048834 -0.010575 -0.0064595 0.033859 -0.022376 0.31486 0.00069871 0.001844
0.00043025 0.0035801 -0.0018316 0.0012847
-0.0045032 -0.0016359 -0.0024063 0.0022529 0.00069813 0.0018468 -0.16914 0.24151
-0.026947 0.017051 0.01299 -0.010179
-0.0038369 0.002509 -0.00095726 0.0034616 0.00044025 0.0035845 -0.026966 0.017106
-0.19634 0.11515 -0.015613 0.019839
0.0035524 0.00071913 0.00098663 0.0052279 -0.00183 0.0012818 0.012989 -0.010196
-0.015619 0.019831 -0.23026 0.17723
860000000 -0.1151 0.25604 -0.015408 0.030859 -0.003634 -0.0098126 -0.0019981 0.0012238
0.0041964 0.0046767 -0.0028071 -0.0021762
-0.015426 0.03083 -0.28596 0.29511 0.0094525 0.033426 0.00021461 0.0023119
0.0043759 0.00045803 0.0029143 0.00060181
-0.0036482 -0.0098167 0.0095086 0.033412 0.025582 0.32195 -0.00038527 7.7074e-05
0.0025094 -0.0012214 0.0018337 0.0039353
-0.0020064 0.0012228 0.00022791 0.0023201 -0.0003824 7.6494e-05 -0.13253 0.25201
-0.015071 0.021185 -0.0050639 -0.0088484
0.0042192 0.0046698 0.0043964 0.00044373 0.002505 -0.0012187 -0.015033 0.021235
-0.14295 0.16079 -0.021037 0.017585
-0.0028158 -0.0021786 0.0029126 0.00058885 0.0018375 0.0039494 -0.0050693 -0.0088526
-0.021027 0.01756 -0.18177 0.21706
920000000 -0.088505 0.27739 0.0066336 0.036415 -0.0094341 -0.004228 -0.0013013 0.0016319
0.0015415 0.0016499 0.0029185 -0.0018283
0.0065902 0.036377 -0.25557 0.31578 0.028667 0.020294 0.0017812 0.00099262
0.0074329 -0.00052751 0.0038937 -0.002892
-0.0094299 -0.0042181 0.028712 0.020244 0.073049 0.32228 0.0019637 -0.00017656
0.0016721 -0.00048355 0.00095998 -0.0012487
-0.0013093 0.0016285 0.0017903 0.00099553 0.0019634 -0.0001778 -0.10635 0.26798
-0.0069493 0.031749 0.0029212 -0.0067507
0.0015459 0.0016681 0.0074398 -0.00057374 0.00167 -0.00048763 -0.0069006 0.031783
-0.12891 0.16651 0.00090238 0.026098
0.0029161 -0.0018431 0.0038859 -0.0028856 0.00096043 -0.0012525 0.0029153 -0.0067561
0.00088773 0.026092 -0.1805 0.23253
980000000 -0.041742 0.29451 0.018744 0.028167 -0.0087606 0.0046169 0.0020893 0.0028866
0.0042813 -0.0019335 -0.0030116 -0.0022195
0.018708 0.028136 -0.20388 0.34774 0.03305 0.0030388 0.0021741 -0.00038331
0.0017938 -0.0064011 -0.00051281 -0.0026133
-0.0087381 0.0046309 0.033056 0.0029583 0.11976 0.31441 0.00051328 -0.0013608
7.2859e-05 -0.0024867 0.0012568 -0.00034708
0.0020861 0.0028675 0.002177 -0.00035992 0.0005073 -0.0013567 -0.067243 0.27728
0.011906 0.02917 -0.008301 -0.0066146
0.0042721 -0.0019421 0.0017852 -0.0064352 6.3336e-05 -0.0024815 0.011978 0.029172
-0.096769 0.19009 0.0067784 0.018456
-0.0030045 -0.0022096 -0.00054228 -0.0025987 0.0012634 -0.00035124 -0.0083214 -0.0065959
0.0067679 0.018452 -0.1371 0.27062
1040000000 0.00070095 0.30184 0.033155 0.01552 -0.0013653 0.0066902 0.0022138 0.00046784
9.5436e-05 -0.0033326 -0.00089985 -0.0015624
0.033088 0.015518 -0.16834 0.3613 0.028184 -0.016181 0.001333 -0.001933
-0.002424 -0.0028042 -0.0015749 -0.0030546
-0.0013414 0.0066978 0.028135 -0.016261 0.16666 0.30019 -0.00067929 -0.0015229
-0.0017022 -0.00098188 -0.00055463 -0.0010796
0.0022085 0.00045782 0.0013485 -0.0019222 -0.00068862 -0.0015307 -0.038835 0.28639
0.02243 0.015669 -0.0025917 0.00058812
7.7361e-05 -0.0033289 -0.0024334 -0.0028291 -0.0017108 -0.00098226 0.0225 0.015649
-0.064182 0.19604 0.014709 0.015566
-0.00088739 -0.001568 -0.0015956 -0.0030301 -0.00054464 -0.0010854 -0.0025884 0.00058895
0.014692 0.015554 -0.11182 0.29013
1100000000 0.046028 0.3081 0.034598 -0.006175 0.0026799 0.0036718 0.0019263 -0.0010004
-0.0021367 -0.0028618 -0.0038691 0.00070527
0.034566 -0.0061475 -0.12475 0.37779 0.013615 -0.028406 -0.00028439 -0.0018285
-0.0037778 -0.00060072 -0.0035905 -6.8164e-05
0.0026949 0.0036611 0.013533 -0.028454 0.21427 0.27771 -0.0019068 0.00026049
-0.0019739 0.0006911 -0.00097269 -0.00012862
0.0019258 -0.0010085 -0.00028101 -0.0018286 -0.0019057 0.00026618 0.0026426 0.28905
0.026208 0.0015442 -0.0028309 -0.00015997
-0.0021532 -0.0028549 -0.0037816 -0.00060081 -0.0019843 0.00068846 0.026237 0.0015008
-0.045442 0.20689 0.018845 0.005734
-0.003863 0.00071247 -0.0035964 -4.2156e-05 -0.00097989 -0.00012366 -0.0028338 -0.00015298
0.01883 0.0057344 -0.065312 0.31452
1160000000 0.096638 0.30207 0.022035 -0.022103 0.002182 -0.0002796 -0.00017496 -0.0017624
-0.0040167 -0.00042493 -0.00082226 0.0039964
0.022019 -0.02208 -0.080394 0.3821 -0.0055111 -0.028617 -0.0017023 -0.001469
-0.0027235 0.002613 -0.0014409 0.001843
0.0021842 -0.00027977 -0.0056134 -0.02861 0.25697 0.24449 -0.00078453 0.001825
-0.00053792 0.0020664 -0.00096709 0.00023021
-0.00018379 -0.0017787 -0.0016869 -0.001453 -0.00078446 0.0018253 0.041825 0.28435
0.020813 -0.014132 -0.003403 0.0041668
-0.0040243 -0.00040536 -0.0026929 0.0026089 -0.00055158 0.0020661 0.02082 -0.014171
-0.01249 0.21366 0.017868 -0.0025027
-0.00079479 0.0039898 -0.001443 0.0018546 -0.0009742 0.00023545 -0.0033967 0.0041692
0.017859 -0.0025112 -0.018513 0.31566
1220000000 0.1415 0.28953 0.0078828 -0.030032 -0.0017129 -0.00017546 0.00023928 -0.00073155
-0.0024648 0.0023658 0.0014415 0.0020156
0.0078935 -0.030012 -0.035489 0.39315 -0.017928 -0.019914 -0.0024523 0.00058758
9.6729e-05 0.0031762 -0.00048268 0.0020989
-0.0017124 -0.00016857 -0.018 -0.019872 0.29535 0.20329 0.00078522 0.0019302
0.0006457 0.001318 0.00035229 0.00067466
0.00024067 -0.0007364 -0.0024538 0.00059869 0.00078739 0.0019294 0.082528 0.27383
0.0089865 -0.020471 0.0010333 0.0014215
-0.002463 0.002378 0.00011856 0.0031778 0.00064749 0.0013182 0.0089578 -0.020499
0.011093 0.22048 0.011946 -0.01474
0.0014496 0.0020117 -0.00047994 0.0021028 0.00035296 0.00067714 0.0010312 0.0014199
0.01195 -0.014733 0.015311 0.32726
1280000000 0.1904 0.26597 -0.010027 -0.027302 -0.0015137 0.0031247 -0.00086697 -0.0019875
-0.00068092 0.0030064 0.002515 0.00091407
-0.0099957 -0.027285 0.010931 0.38319 -0.024043 -0.0071124 -0.00092761 0.0014986
0.0019542 0.0018175 0.00092323 0.0018632
-0.0014994 0.0031245 -0.024082 -0.0070363 0.32378 0.1576 0.0017339 0.00011185
0.0012509 0.00031951 0.00033338 0.00026542
-0.00086937 -0.001981 -0.00092177 0.001504 0.001734 0.00011107 0.11856 0.25435
-0.0019465 -0.021589 -0.00091173 0.00069004
-0.00066911 0.0030138 0.0019615 0.0018087 0.0012618 0.00031677 -0.0019958 -0.021603
0.047052 0.2218 0.00098053 -0.01642
0.0025199 0.00091154 0.00093624 0.0018554 0.00033971 0.00026233 -0.00091 0.00068666
0.00098846 -0.016416 0.061282 0.32498
1340000000 0.22698 0.23119 -0.018953 -0.016728 0.0015454 0.0044918 -0.0016986 -0.00097468
0.0014962 0.0026005 0.001574 -0.0015736
-0.018921 -0.016736 0.05069 0.37342 -0.021069 0.005607 -4.8241e-05 0.0020594
0.0021628 0.00057005 0.0014926 0.00061335
0.001558 0.0044884 -0.021066 0.005682 0.34379 0.10955 0.0013563 -0.0011391
0.00074499 -0.00059556 0.00018328 0.00017682
-0.0016985 -0.00096841 -4.4335e-05 0.0020515 0.0013603 -0.0011363 0.14984 0.23217
-0.012066 -0.017243 0.00013881 0.0015499
0.001506 0.0026001 0.0021695 0.00056664 0.00073934 -0.00059391 -0.012115 -0.017233
0.076667 0.21565 -0.0064046 -0.014017
0.0015665 -0.0015782 0.0015042 0.00060693 0.00018422 0.00017967 0.00013891 0.0015539
-0.0063963 -0.01402 0.10009 0.31684
1400000000 0.25939 0.19156 -0.023226 -0.0049893 0.0056253 0.0027849 -0.0021879 0.00056613
0.0024099 0.00087605 4.8069e-05 -0.0015531
-0.023204 -0.0049996 0.08772 0.35888 -0.013776 0.013149 0.0014512 0.0012766
0.0012574 -0.0010612 0.0011352 -6.7381e-05
0.0056319 0.0027749 -0.013734 0.013211 0.35574 0.056229 0.00010179 -0.0020832
9.553e-05 -0.00051479 0.00031482 0.00019532
-0.0021875 0.00057436 0.0014581 0.001275 0.0001059 -0.0020807 0.17787 0.20122
-0.017977 -0.0090135 -0.00046733 0.0010586
0.0024171 0.00086566 0.0012554 -0.0010633 9.523e-05 -0.00051878 -0.018 -0.0089648
0.10864 0.20897 -0.012626 -0.007963
4.1697e-05 -0.0015509 0.0011301 -7.2191e-05 0.00031856 0.00019417 -0.00046636 0.0010598
-0.012617 -0.007981 0.14314 0.30226
1460000000 0.28077 0.14655 -0.019216 0.0066263 0.0056971 -0.0022951 -0.0016325 0.0016894
0.0021087 -0.00064734 -0.00045256 -0.00093712
-0.019206 0.0066045 0.12096 0.33571 -0.0050004 0.015381 0.0017978 5.9786e-05
0.00065152 -0.0014648 0.0010404 -0.00067025
0.0056963 -0.002309 -0.0049439 0.015406 0.36016 0.0024929 -0.0016598 -0.001443
0.00019577 -0.00029021 0.00063505 -0.0003336
-0.0016328 0.0016905 0.001803 5.7302e-05 -0.0016544 -0.0014446 0.20133 0.17086
-0.018451 -0.00072726 7.0006e-05 0.0026938
0.0021151 -0.000661 0.00065151 -0.001463 0.00019431 -0.00029501 -0.018472 -0.00068959
0.1365 0.19313 -0.013444 -0.0012551
-0.00045261 -0.00095373 0.0010413 -0.00068215 0.00064115 -0.0003403 7.0999e-05 0.0026932
-0.013433 -0.0012722 0.17447 0.27928
1520000000 0.29194 0.10378 -0.012756 0.011359 0.0031525 -0.0044906 0.00016869 0.0026855
0.0020212 -0.0018252 -0.0011853 -9.895e-05
-0.012749 0.011342 0.15358 0.32014 0.0022978 0.012644 0.0016992 -0.00098043
-0.00019259 -0.0011061 0.00019206 -0.00098433
0.0031361 -0.0044987 0.0023535 0.012641 0.35325 -0.05299 -0.0015591 -0.0001934
0.00050012 -0.00099457 5.6246e-06 -0.00021997
0.00016901 0.0026832 0.0016949 -0.00099095 -0.0015574 -0.00019925 0.2221 0.13278
-0.016064 0.0059478 0.002457 0.00213
0.002012 -0.0018289 -0.00019913 -0.0011047 0.00050105 -0.00099693 -0.016054 0.005988
0.16393 0.17755 -0.012512 0.0039027
-0.0011813 -9.1742e-05 0.00019264 -0.00099053 6.5533e-06 -0.00022399 0.0024713 0.0021261
-0.012503 0.0038979 0.20603 0.2562
1580000000 0.29943 0.056893 -0.0059861 0.01336 -0.0011197 -0.004989 0.0015592 0.0018992
-0.00030761 -0.0022567 -0.00027092 0.00039556
-0.0059944 0.013349 0.17962 0.29457 0.0055969 0.0076696 0.00033195 -0.001804
-0.00069815 -0.00090869 -0.00031248 -0.00077153
-0.0011297 -0.0049855 0.0056324 0.0076482 0.33307 -0.11044 -0.001646 0.0011298
-0.00049866 -0.0011912 0.0001696 -0.0006444
0.0015597 0.0018961 0.00031748 -0.0018013 -0.0016498 0.0011306 0.23326 0.093741
-0.011029 0.01081 0.0030109 0.0002544
-0.00031948 -0.0022518 -0.00069453 -0.00090642 -0.00050251 -0.001188 -0.011014 0.010837
0.18695 0.15772 -0.0092196 0.0092826
-0.00027161 0.00040029 -0.00031435 -0.00077373 0.00016573 -0.00064853 0.0030055 0.0002484
-0.0092284 0.0092757 0.23539 0.22801
1640000000 0.29975 0.015456 0.00029811 0.011264 -0.0029823 -0.0026817 0.0027402 0.00082688
-0.00098359 -0.0016081 -0.00020001 0.00066272
0.00028916 0.011259 0.2079 0.26966 0.0059189 0.0030547 -0.00099446 -0.0016733
-0.0010105 -0.000195 -0.0005941 -0.00050826
-0.0029883 -0.0026681 0.0059269 0.0030306 0.30418 -0.15874 -0.0005068 0.0017454
-0.0013988 -0.00075627 -0.0002607 -0.00035004
0.0027353 0.00081609 -0.0010095 -0.0016716 -0.00051113 0.0017459 0.24312 0.046996
-0.0055399 0.011295 0.0028228 -0.001445
-0.00098741 -0.0016015 -0.0010116 -0.00019258 -0.0014008 -0.00076454 -0.0055172 0.011313
0.20811 0.13225 -0.0036676 0.010998
-0.00019945 0.00066726 -0.00059332 -0.00050563 -0.00026166 -0.00035204 0.0028183 -0.001457
-0.0036709 0.011001 0.25928 0.19589
1700000000 0.29077 -0.02983 0.0029706 0.0078698 -0.0036082 0.00020468 0.0029138 -0.0014834
-0.0021517 -0.00059117 0.00073928 0.00030492
0.0029654 0.0078592 0.22535 0.23836 0.0038862 0.00026245 -0.0015906 -0.00037667
-0.00063285 0.00020428 -0.0008849 -0.00033311
-0.003605 0.00021718 0.0038859 0.00025056 0.26161 -0.19886 0.0008428 0.0015
-0.0019677 0.00014532 -0.00069204 -0.00081383
0.0029049 -0.0014914 -0.0016024 -0.00036607 0.00084693 0.0014947 0.23927 -0.00037624
-0.001982 0.010613 0.0015297 -0.0026272
-0.0021566 -0.00058059 -0.00063177 0.00020945 -0.0019737 0.00014439 -0.0019772 0.010612
0.22398 0.11045 0.001367 0.010668
0.00074242 0.00030467 -0.00088581 -0.00032457 -0.00069751 -0.00081409 0.0015185 -0.0026275
0.0013609 0.010672 0.27409 0.16064
1760000000 0.27708 -0.077562 0.0042584 0.0044167 -0.0023912 0.00095581 0.00093294 -0.0034858
-0.0015035 0.00092119 0.0004201 -0.00050992
0.0042471 0.0044227 0.25038 0.19856 0.0015718 -0.0016328 -0.0011762 0.00045317
-0.00086417 0.00084534 -0.00052381 0.0005017
-0.0023852 0.00096031 0.0015679 -0.0016444 0.2129 -0.23264 0.0014678 0.00073881
-0.00097836 0.0018808 -0.0014443 -0.00020939
0.00092576 -0.003482 -0.0011762 0.00046326 0.0014677 0.00074113 0.23023 -0.04907
0.0010907 0.0089138 -0.00036855 -0.0028808
-0.0014924 0.00092788 -0.0008654 0.00084675 -0.0009799 0.001883 0.0011157 0.0089145
0.23642 0.074663 0.0054096 0.0074978
0.00041981 -0.00051238 -0.00051811 0.00050712 -0.0014463 -0.00020453 -0.00037102 -0.0028786
0.0054096 0.0074969 0.28494 0.1223
1820000000 0.25153 -0.11366 0.0036228 0.0012781 -7.3733e-05 0.0024609 -0.0012914 -0.0029102
-0.00087104 0.0011743 -4.1842e-05 -0.00011121
0.0036165 0.001288 0.2601 0.16916 -0.00048297 -0.00041922 -0.0010117 0.0010966
5.8713e-05 0.0011416 -0.00041559 0.00053699
-6.6425e-05 0.0024567 -0.00048684 -0.00041979 0.16219 -0.24868 0.0013008 5.9036e-05
0.00032869 0.0023063 -0.0012825 0.00065065
-0.0012966 -0.0029105 -0.0010121 0.0011027 0.0012981 6.2423e-05 0.20226 -0.09394
0.0022572 0.0065965 -0.0017058 -0.0018923
-0.00087164 0.0011776 6.5773e-05 0.0011415 0.00032103 0.0023008 0.0022727 0.0065933
0.25169 0.045096 0.0064659 0.0033225
-4.3057e-05 -0.00011171 -0.00041141 0.00054036 -0.0012843 0.00065675 -0.0017077 -0.0018901
0.006465 0.0033227 0.28611 0.085042
1880000000 0.21579 -0.15303 0.0010108 -0.00024313 -0.00044403 0.002236 -0.0029388 -0.0018515
9.5701e-05 0.0016687 0.00016028 -0.0004996
0.0010096 -0.00024436 0.26442 0.12253 -0.0026868 0.0015073 8.4997e-05 0.0016132
0.00051432 0.0010281 0.00021605 0.00084785
-0.00043313 0.0022376 -0.002682 0.0015185 0.10868 -0.25866 0.0013681 -0.0010702
0.0018726 0.0015137 -0.00059108 0.0014109
-0.0029424 -0.0018369 8.9525e-05 0.0016119 0.0013663 -0.0010715 0.16414 -0.13447
0.0026677 0.0041686 -0.002544 4.0007e-05
0.00010574 0.001673 0.00052381 0.0010267 0.0018691 0.0015056 0.0026765 0.0041716
0.25265 0.011742 0.0059742 0.00060296
0.00015639 -0.00050487 0.00022394 0.00084777 -0.00058876 0.0014129 -0.0025364 5.039e-05
0.0059757 0.00060096 0.28429 0.050239
1940000000 0.17617 -0.17809 -0.0011441 -0.0011387 0.0015212 0.0022051 -0.0035345 0.0007706
0.0015769 0.00081986 -0.00057488 -0.00058213
-0.0011357 -0.0011358 0.26448 0.091145 -0.0014594 0.0040283 0.00099451 0.0010019
0.0015645 0.00044451 0.00083681 0.00023453
0.0015191 0.0021985 -0.0014454 0.0040371 0.06226 -0.25111 6.5127e-05 -0.0017742
0.0021412 -3.6984e-05 0.00060515 0.0014893
-0.00353 0.00079131 0.00099835 0.00099635 6.0881e-05 -0.0017669 0.1133 -0.16557
0.0015274 0.0026232 -0.0018371 0.0011313
0.0015879 0.00081246 0.0015627 0.00043774 0.0021405 -4.0625e-05 0.0015285 0.0026181
0.25246 -0.027111 0.004423 -0.0029172
-0.00058193 -0.00057766 0.00083788 0.00023029 0.00060279 0.0014893 -0.0018344 0.0011328
0.004423 -0.0029165 0.2717 0.013562
2000000000 0.1302 -0.19244 -0.004548 0.0013029 0.0026629 0.0015793 -0.0022518 0.0034564
0.0010815 -0.00016716 -0.00050297 0.00039186
-0.004541 0.0012987 0.25064 0.055423 -0.0011218 0.005849 0.001353 0.00017606
0.0012292 -0.0011462 0.00043901 -3.391e-06
0.0026708 0.0015753 -0.0010988 0.0058594 0.018646 -0.2367 -0.0011559 -0.00092379
0.0014799 -0.0012195 0.0016531 0.00089433
-0.0022332 0.0034632 0.0013514 0.00017128 -0.0011659 -0.00092511 0.060579 -0.17769
-0.00054287 0.0021039 -0.00059345 0.0020853
0.0010864 -0.00018281 0.001213 -0.0011632 0.0014805 -0.0012226 -0.00054861 0.0021111
0.24505 -0.061103 0.00062882 -0.0042317
