!Keysight Technologies,M9804A,MY58100912,A.14.10.03
!Date: Thursday, April 27, 2023 10:28:33
!Correction: S11(C  6-Port  ) 
!S12(C  6-Port  ) 
!S13(C  6-Port  ) 
!S14(C  6-Port  ) 
!S15(C  6-Port  ) 
!S16(C  6-Port  ) 
!S21(C  6-Port  ) 
!S22(C  6-Port  ) 
!S23(C  6-Port  ) 
!S24(C  6-Port  ) 
!S25(C  6-Port  ) 
!S26(C  6-Port  ) 
!S31(C  6-Port  ) 
!S32(C  6-Port  ) 
!S33(C  6-Port  ) 
!S34(C  6-Port  ) 
!S35(C  6-Port  ) 
!S36(C  6-Port  ) 
!S41(C  6-Port  ) 
!S42(C  6-Port  ) 
!S43(C  6-Port  ) 
!S44(C  6-Port  ) 
!S45(C  6-Port  ) 
!S46(C  6-Port  ) 
!S51(C  6-Port  ) 
!S52(C  6-Port  ) 
!S53(C  6-Port  ) 
!S54(C  6-Port  ) 
!S55(C  6-Port  ) 
!S56(C  6-Port  ) 
!S61(C  6-Port  ) 
!S62(C  6-Port  ) 
!S63(C  6-Port  ) 
!S64(C  6-Port  ) 
!S65(C  6-Port  ) 
!S66(C  6-Port  ) 
!S6P File: Measurement: :
# Hz S  RI   R 50
500000000 -0.33989 -0.020466 -0.011606 -0.0033565 -0.0080607 0.013023 -0.0035409 0.012163
0.011218 0.0041861 -0.0031837 0.0087011
-0.011586 -0.0034032 -0.41934 -0.039842 0.0060633 -0.011062 0.0018061 0.012416
0.0070486 0.0020037 0.0024154 0.013586
-0.008049 0.012998 0.0060327 -0.011085 -0.26391 0.22183 0.0070626 0.0038655
-0.0014167 0.0079857 0.0020826 0.011905
-0.0035266 0.012161 0.0018214 0.012412 0.0070528 0.0038526 -0.33169 0.058809
-0.020408 -0.0063824 0.015382 0.02423
0.011182 0.0041666 0.0070335 0.0019952 -0.0014213 0.0079998 -0.020401 -0.0063598
-0.23533 -0.16873 -0.026595 0.0043759
-0.0031902 0.0087348 0.0024711 0.013597 0.002088 0.011889 0.015403 0.024198
-0.026601 0.0043505 -0.2829 -0.087561
560000000 -0.31413 0.13496 -0.026776 -0.059971 0.00059997 0.011862 0.0049971 0.0098408
0.0087686 0.0046149 0.010395 0.0073974
-0.026678 -0.059949 -0.37577 0.11762 -0.042588 -0.034775 0.013247 0.0039544
-0.012521 -0.0044799 0.0030052 -0.00026285
0.00063776 0.011879 -0.042727 -0.03473 -0.18119 0.2677 0.00026015 -0.0046962
0.019522 0.0050069 0.0062387 -0.0065205
0.0049778 0.0097831 0.01321 0.0039463 0.00027131 -0.0046953 -0.30675 0.1472
0.00072552 -0.024224 0.002832 -0.018771
0.0087717 0.004604 -0.012628 -0.0044148 0.019535 0.0050108 0.00070866 -0.024189
-0.28897 0.004993 0.0034145 -0.047231
0.010413 0.0073691 0.0029832 -0.0002439 0.0062258 -0.0065329 0.0028687 -0.018784
0.0034588 -0.047217 -0.33011 0.052152
620000000 -0.27156 0.12128 -0.023665 0.0079402 0.0040896 0.0081739 0.0073084 -0.0047479
0.011425 -0.0015301 0.00070111 -0.0022811
-0.023651 0.0079201 -0.40185 0.071208 -0.019446 0.00090774 -0.00084204 -0.0020943
0.010234 -0.0064595 0.0016465 -0.0026414
0.0041302 0.0081708 -0.019439 0.000943 -0.14984 0.27738 -0.001071 -0.0048817
-0.0030646 -0.0028521 0.0080101 -0.0035247
0.007328 -0.0047479 -0.00085797 -0.002091 -0.0010749 -0.0048791 -0.26348 0.15858
-0.040378 -0.016513 0.012122 0.023962
0.011429 -0.001571 0.010258 -0.0064664 -0.0030654 -0.0028703 -0.040408 -0.016494
-0.21133 -0.03402 -0.039688 0.016198
0.00070804 -0.0022825 0.0016677 -0.0026119 0.0079957 -0.0035156 0.012114 0.023941
-0.039694 0.016187 -0.25605 0.024079
680000000 -0.22888 0.20411 -0.027692 -0.011841 0.0055453 0.0045216 0.0010632 -0.0071485
-0.0026618 -0.010769 0.0042304 -0.0066156
-0.027664 -0.011867 -0.38496 0.1661 -0.031957 0.000418 -0.0013275 -0.00072657
-0.0022288 -0.0089754 -0.001206 -0.0021893
0.005557 0.0045072 -0.03197 0.00047508 -0.098045 0.29434 -0.00094148 -0.00059527
-0.0013918 -9.515e-05 -0.003208 -0.0085296
0.0010528 -0.0071534 -0.001325 -0.00072439 -0.00093768 -0.00060109 -0.21732 0.20654
-0.026281 -0.0042586 -0.0090219 -0.0085909
-0.0026569 -0.010755 -0.0022345 -0.0089938 -0.0013796 -8.1701e-05 -0.026305 -0.0042264
-0.25278 0.065254 -0.0067181 -0.0063094
0.0042281 -0.0066182 -0.0011998 -0.0021952 -0.003209 -0.0085421 -0.0090221 -0.0086114
-0.0067185 -0.0063072 -0.25545 0.12066
740000000 -0.18415 0.19856 -0.03629 0.026653 0.012315 -0.0059225 -0.00049972 -0.0042444
-0.0043719 -0.0027908 -0.0058487 0.0028815
-0.03629 0.02664 -0.3326 0.18569 -0.032696 0.035302 -0.0010678 -0.0065289
-0.011433 0.0078177 -0.0018552 -0.0053204
0.012295 -0.005936 -0.032641 0.035369 -0.064546 0.2932 -0.0017356 0.0030907
-0.003277 -0.004713 -0.0018627 0.0010559
-0.00050657 -0.0042425 -0.0010969 -0.006544 -0.0017359 0.0031014 -0.19945 0.21535
-0.042212 -0.0026739 0.022385 0.012819
-0.0043567 -0.0027777 -0.011436 0.0078589 -0.0032658 -0.0047173 -0.042276 -0.0026232
-0.15702 0.086114 -0.039827 0.0046535
-0.0058564 0.0029058 -0.0018586 -0.0053289 -0.0018645 0.0010289 0.02241 0.01281
-0.039819 0.0046022 -0.24325 0.13018
800000000 -0.15036 0.23582 -0.02071 0.017444 0.0047274 -0.010625 -0.004348 -0.0018071
-0.0036202 0.0022247 0.0034509 0.00072671
-0.020698 0.017418 -0.33295 0.25396 -0.0063631 0.033454 -0.002362 0.0022156
-0.00057559 0.0032318 0.0010696 0.0052499
0.00472 -0.010627 -0.0063151 0.03348 -0.021844 0.31468 0.00074273 0.0018315
0.00042664 0.0034991 -0.0018265 0.0011491
-0.0043556 -0.0017937 -0.0023664 0.0022254 0.00074981 0.0018342 -0.16884 0.24163
-0.026551 0.016753 0.012743 -0.010143
-0.0036169 0.0022395 -0.00057308 0.0032283 0.0004247 0.0035053 -0.026549 0.016811
-0.19586 0.11426 -0.015492 0.019035
0.0034399 0.00071484 0.0010901 0.0052449 -0.0018347 0.0011631 0.012736 -0.010169
-0.015497 0.019008 -0.23108 0.17594
860000000 -0.11512 0.25568 -0.015294 0.0307 -0.0036416 -0.0095895 -0.002061 0.0011287
0.0043787 0.0045634 -0.0027584 -0.0024796
-0.015318 0.030664 -0.28621 0.29466 0.0092365 0.033043 4.9035e-05 0.0021785
0.0043744 0.00020134 0.0030328 0.00032714
-0.0036538 -0.0095886 0.0093017 0.033022 0.026087 0.32162 -0.00035945 2.7489e-05
0.0025692 -0.0013135 0.0016692 0.0039251
-0.002066 0.001156 5.3167e-05 0.0021906 -0.00035806 2.8565e-05 -0.13209 0.2521
-0.014895 0.020931 -0.0053662 -0.0092061
0.0043698 0.0045634 0.0043694 0.00020492 0.0025621 -0.0013259 -0.014883 0.020983
-0.14255 0.15994 -0.021066 0.01688
-0.0027673 -0.0024875 0.0030281 0.00031442 0.0016725 0.0039302 -0.0053702 -0.0092074
-0.021072 0.016859 -0.18143 0.21616
920000000 -0.088808 0.27687 0.0065452 0.036223 -0.0092805 -0.0041252 -0.0014665 0.0016885
0.0013333 0.0017119 0.0027552 -0.0018122
0.0065094 0.036177 -0.25565 0.31505 0.028292 0.020164 0.0017407 0.001019
0.0070057 -0.0005945 0.003765 -0.0028702
-0.0092791 -0.0041144 0.028329 0.020109 0.073299 0.32176 0.0019763 -0.00014894
0.0015284 -0.00046003 0.00082158 -0.0010998
-0.001459 0.0016863 0.0017464 0.0010106 0.0019899 -0.00015338 -0.10587 0.26761
-0.0071164 0.031057 0.0028701 -0.0065619
0.0013306 0.0017245 0.0070266 -0.0006056 0.0015206 -0.00045509 -0.0070643 0.031084
-0.12946 0.16537 0.00019821 0.025907
0.0027611 -0.001823 0.0037641 -0.0028626 0.00081683 -0.0011044 0.0028654 -0.0065691
0.00017777 0.025901 -0.18146 0.23106
980000000 -0.042162 0.29438 0.018485 0.027996 -0.0085044 0.0045965 0.0019035 0.0030298
0.0040576 -0.0017007 -0.0032001 -0.0022239
0.018455 0.027975 -0.20396 0.34733 0.03256 0.0031121 0.0020606 -0.00023042
0.0016884 -0.0061849 -0.00054217 -0.0024738
-0.0084833 0.0046147 0.032565 0.0030313 0.11986 0.31378 0.00050372 -0.0013016
4.6064e-05 -0.0023227 0.0011871 -0.00024876
0.001904 0.0030297 0.0020858 -0.0002381 0.00050185 -0.0012942 -0.067005 0.27658
0.011347 0.028357 -0.0083269 -0.0066664
0.0040624 -0.0017102 0.0016936 -0.0061883 4.427e-05 -0.0023162 0.011394 0.028357
-0.096786 0.18929 0.0065214 0.018038
-0.0032151 -0.002209 -0.00054369 -0.0024583 0.0011885 -0.00025571 -0.0083428 -0.0066519
0.0065005 0.018033 -0.13792 0.26989
1040000000 0.00047591 0.3016 0.032806 0.015537 -0.0012447 0.0065239 0.0022778 0.00056949
0.00017074 -0.0032492 -0.00078852 -0.0012714
0.032744 0.015544 -0.16841 0.36062 0.02784 -0.015788 0.0013878 -0.0018193
-0.0023668 -0.0026547 -0.0016191 -0.0027654
-0.0012168 0.0065091 0.027779 -0.015875 0.16646 0.29938 -0.00060012 -0.001523
-0.0016502 -0.00095368 -0.00056307 -0.00097726
0.0022688 0.00056616 0.0014009 -0.0018475 -0.00059767 -0.0015292 -0.0388 0.28565
0.021363 0.015456 -0.0026861 0.00085101
0.0001721 -0.0032609 -0.0023561 -0.0026525 -0.0016682 -0.00094816 0.021409 0.015422
-0.064646 0.19529 0.01393 0.015535
-0.00080023 -0.0012855 -0.0016213 -0.0027423 -0.0005571 -0.00098503 -0.0026845 0.00086001
0.01391 0.015532 -0.11283 0.28967
1100000000 0.04585 0.30776 0.034224 -0.006002 0.0026005 0.0035835 0.0021328 -0.00086572
-0.0018725 -0.0027022 -0.0036238 0.00063386
0.034205 -0.005979 -0.12491 0.37692 0.013534 -0.027763 -0.00013798 -0.0017367
-0.0034613 -0.00061811 -0.0033447 -0.00022398
0.0026192 0.0035817 0.013465 -0.027803 0.21355 0.27707 -0.0018877 0.00021471
-0.0019514 0.00064058 -0.00097635 -0.00010324
0.0021263 -0.00086666 -0.00014366 -0.0017445 -0.0018893 0.00020787 0.0023475 0.28839
0.024994 0.0020927 -0.002707 -2.1645e-05
-0.0018858 -0.0027092 -0.00347 -0.00061458 -0.0019631 0.00065068 0.025013 0.0020499
-0.04589 0.20662 0.018538 0.0061665
-0.0036177 0.00064527 -0.0033502 -0.00020706 -0.00099029 -0.00010277 -0.0026979 -8.3643e-06
0.018525 0.0061642 -0.065939 0.31403
1160000000 0.09628 0.30174 0.021751 -0.021572 0.0021502 -0.0002878 1.199e-05 -0.0019279
-0.0039045 -0.00054524 -0.00077625 0.003932
0.021743 -0.02155 -0.080979 0.38103 -0.0050797 -0.028238 -0.0016592 -0.0015115
-0.002701 0.0025772 -0.0014842 0.0018052
0.0021496 -0.00027685 -0.0051754 -0.028226 0.25598 0.24433 -0.00081236 0.0018242
-0.00046443 0.002077 -0.00078977 0.00032149
-1.5916e-05 -0.001929 -0.0016474 -0.0015151 -0.00081925 0.0018264 0.041392 0.28364
0.020348 -0.013129 -0.0032037 0.0042734
-0.0039187 -0.00054542 -0.0027038 0.0025947 -0.00047426 0.0020812 0.020358 -0.013161
-0.012789 0.21289 0.017271 -0.0022044
-0.00074894 0.0039211 -0.0014883 0.001825 -0.0007933 0.00033143 -0.0032013 0.0042882
0.017263 -0.0022129 -0.01933 0.31458
1220000000 0.14096 0.2892 0.0079694 -0.029454 -0.0017109 -0.00015063 0.0002792 -0.0009167
-0.0024116 0.0022876 0.0013206 0.0018729
0.0080044 -0.029421 -0.036484 0.39212 -0.017433 -0.019767 -0.0024369 0.00047256
6.8797e-05 0.0030677 -0.00051641 0.001961
-0.0017096 -0.00014312 -0.017494 -0.019735 0.29448 0.20384 0.00078603 0.0019144
0.00073947 0.0012876 0.0004359 0.00052704
0.00026865 -0.00090522 -0.0024286 0.00048267 0.00078603 0.0019196 0.081636 0.27341
0.0090691 -0.019156 0.0011994 0.0013962
-0.0024115 0.0022985 7.2049e-05 0.0030798 0.00074798 0.0012894 0.0090578 -0.019171
0.010757 0.21958 0.011817 -0.01401
0.0013243 0.0018719 -0.00051134 0.0019733 0.00044154 0.00053096 0.0012025 0.0013942
0.011817 -0.014007 0.013989 0.32663
1280000000 0.18968 0.26579 -0.0094776 -0.026826 -0.0015072 0.0031383 -0.00093339 -0.0020778
-0.00067996 0.0029071 0.0024467 0.00091727
-0.0094426 -0.026805 0.0093949 0.38247 -0.023508 -0.0073453 -0.0010629 0.0014427
0.0018042 0.0017758 0.00083105 0.001798
-0.0014938 0.0031322 -0.023551 -0.0072696 0.32355 0.15862 0.0017139 3.5974e-05
0.0012592 0.00012017 0.00042336 7.8987e-05
-0.00094411 -0.0020761 -0.0010538 0.0014472 0.0017049 3.0791e-05 0.11746 0.25448
-0.0011683 -0.020497 -0.00082027 0.0006145
-0.00067379 0.0029118 0.0018205 0.0017771 0.0012568 0.0001283 -0.0011964 -0.020506
0.0463 0.22103 0.001084 -0.015547
0.0024522 0.00092706 0.00084208 0.0018009 0.00042879 7.7004e-05 -0.00082319 0.00061661
0.001084 -0.015535 0.059935 0.32458
1340000000 0.22627 0.23126 -0.018223 -0.016687 0.0015481 0.0045015 -0.0017695 -0.00095198
0.0013886 0.002511 0.0015654 -0.0014689
-0.018203 -0.016705 0.048896 0.37343 -0.020888 0.0051354 -0.00013239 0.0020655
0.0020604 0.00064506 0.001353 0.00064354
0.0015569 0.0044994 -0.020888 0.0052032 0.34406 0.11051 0.0013663 -0.0010316
0.00060997 -0.00056087 2.0264e-05 0.00023409
-0.0017631 -0.00095991 -0.00012536 0.0020629 0.0013636 -0.0010328 0.14901 0.23275
-0.010698 -0.016807 0.00036832 0.0013515
0.0014147 0.0025168 0.0020707 0.00063415 0.00061298 -0.00056656 -0.01074 -0.016791
0.075541 0.21499 -0.0056324 -0.013271
0.0015644 -0.0014629 0.0013673 0.00063588 2.2066e-05 0.00023434 0.00036864 0.0013522
-0.005622 -0.013267 0.098648 0.31688
1400000000 0.25861 0.19192 -0.02259 -0.0053624 0.0056119 0.0028071 -0.002231 0.00062641
0.0023047 0.00086777 0.0001663 -0.0014924
-0.022562 -0.0053827 0.085984 0.35964 -0.013876 0.012715 0.0013946 0.0013191
0.0012412 -0.0010117 0.0010881 5.0234e-05
0.0056203 0.0027959 -0.013842 0.012773 0.35636 0.056809 0.00013459 -0.0020755
4.618e-05 -0.00046182 0.00025137 0.00018559
-0.0022312 0.00062971 0.0013865 0.001311 0.00013616 -0.0020834 0.17731 0.20216
-0.01654 -0.0093694 -0.00047164 0.00075935
0.0023118 0.00086696 0.0012499 -0.0010211 4.4719e-05 -0.00046649 -0.016567 -0.0093354
0.10734 0.20866 -0.011647 -0.0077001
0.00015942 -0.0014799 0.0010987 4.5658e-05 0.00025262 0.00018218 -0.00047863 0.00076187
-0.011642 -0.0077174 0.14158 0.30264
1460000000 0.28027 0.14728 -0.018892 0.0059277 0.0056764 -0.0023165 -0.0015762 0.0017726
0.0020227 -0.000507 -0.00039586 -0.00094923
-0.018882 0.0059176 0.11986 0.33711 -0.0052675 0.015095 0.0018167 0.00014397
0.00070757 -0.0013902 0.0010624 -0.00058871
0.0056725 -0.0023312 -0.0052093 0.015115 0.36101 0.0027515 -0.0016108 -0.0014711
0.00012714 -0.00015307 0.00058903 -0.00032336
-0.0015551 0.0017712 0.0018048 0.00014053 -0.0016123 -0.0014542 0.20129 0.17199
-0.01738 -0.0018669 -7.7756e-05 0.0024834
0.0020348 -0.00051959 0.0006962 -0.0014183 0.00013406 -0.00015404 -0.017402 -0.0018276
0.13519 0.19316 -0.012431 -0.0015052
-0.00040234 -0.0009575 0.0010645 -0.00059666 0.0005931 -0.00033599 -7.4377e-05 0.0024771
-0.012426 -0.0015136 0.1732 0.27987
1520000000 0.29185 0.10459 -0.012836 0.010598 0.0030883 -0.0044355 0.00023931 0.0026954
0.0020936 -0.0016184 -0.001101 -0.00013947
-0.012846 0.01057 0.15315 0.32177 0.0019775 0.012679 0.0016997 -0.00092161
-0.00015767 -0.0011016 0.00027329 -0.00091132
0.0030736 -0.0044518 0.0020277 0.01267 0.35402 -0.053255 -0.0015187 -0.00019357
0.00055093 -0.00088174 2.2808e-06 -0.0001281
0.00024166 0.0026862 0.0016918 -0.00093308 -0.0015223 -0.00019871 0.22259 0.1338
-0.015861 0.0043939 0.002208 0.0020924
0.0020906 -0.0016356 -0.00017329 -0.0011069 0.0005582 -0.00089185 -0.015869 0.004418
0.16265 0.17796 -0.01178 0.0031658
-0.0011056 -0.00012498 0.00026705 -0.00091998 1.7151e-06 -0.00013113 0.0022113 0.0020944
-0.011781 0.0031626 0.20521 0.25705
1580000000 0.2997 0.057585 -0.0065093 0.01275 -0.0011433 -0.0049378 0.001598 0.0018552
-0.00014334 -0.002215 -0.00025827 0.00039747
-0.0065254 0.012743 0.17991 0.29617 0.0053542 0.0077944 0.00037856 -0.0017403
-0.00063039 -0.00092374 -0.00016023 -0.0007695
-0.0011619 -0.0049376 0.0053871 0.0077788 0.33365 -0.11105 -0.0016245 0.0011489
-0.00032891 -0.0011313 0.00016863 -0.00055403
0.0015979 0.0018601 0.00037745 -0.0017422 -0.0016267 0.0011466 0.23421 0.094468
-0.011759 0.0094163 0.0028059 0.00035349
-0.00014669 -0.0022231 -0.00065307 -0.00091755 -0.00032437 -0.001138 -0.011749 0.0094524
0.18583 0.15845 -0.0089902 0.0083546
-0.00026144 0.00039523 -0.00017797 -0.00076973 0.0001619 -0.00056097 0.0028033 0.00034797
-0.0089921 0.0083593 0.23492 0.22879
1640000000 0.30035 0.015902 -0.00042347 0.011117 -0.0029339 -0.0025935 0.0027424 0.00082492
-0.00078414 -0.0016377 -0.00020728 0.00063818
-0.00043747 0.011117 0.20878 0.27085 0.0058236 0.003225 -0.00090254 -0.0016902
-0.00097782 -0.00023159 -0.00049933 -0.00059777
-0.0029434 -0.0025789 0.0058348 0.0032137 0.30434 -0.15967 -0.00042549 0.0016949
-0.0012189 -0.00080519 -0.00015758 -0.00025527
0.0027244 0.00082511 -0.00089725 -0.0016821 -0.00042382 0.0016976 0.24444 0.047185
-0.0068723 0.010636 0.0027034 -0.0013271
-0.0008035 -0.0016456 -0.00097974 -0.000211 -0.0012359 -0.00079258 -0.0068427 0.010666
0.20727 0.13324 -0.0039095 0.0101
-0.00020863 0.00063958 -0.00050709 -0.00059847 -0.00016087 -0.00025589 0.002704 -0.001334
-0.003907 0.0101 0.25889 0.19658
1700000000 0.29157 -0.029783 0.0023155 0.0081767 -0.0036783 0.00018886 0.0028831 -0.0014999
-0.0020577 -0.00076168 0.00068012 0.00027805
0.0023057 0.0081719 0.22653 0.23899 0.0038833 0.00037743 -0.0015438 -0.000468
-0.00065282 0.00019573 -0.00089934 -0.00047694
-0.0036916 0.00020485 0.0038804 0.00035364 0.2614 -0.19961 0.00078542 0.0014206
-0.0019559 -8.2428e-05 -0.0006341 -0.00081707
0.0028829 -0.0015072 -0.0015473 -0.00046727 0.00078902 0.0014203 0.24052 -0.0010201
-0.0033593 0.010858 0.0014595 -0.0025224
-0.0020666 -0.00074803 -0.00065141 0.00020397 -0.0019692 -7.8931e-05 -0.0033425 0.010868
0.22343 0.11165 0.00080353 0.010055
0.00068415 0.00027642 -0.00090178 -0.00047492 -0.00064078 -0.00082026 0.0014578 -0.0025225
0.00079942 0.010057 0.27372 0.16119
1760000000 0.27771 -0.077929 0.0039751 0.0050032 -0.0022871 0.00099735 0.00093895 -0.0035377
-0.001568 0.00073512 0.00036772 -0.00048996
0.0039705 0.0050031 0.25164 0.19857 0.0016211 -0.0014951 -0.0011896 0.00032134
-0.00087644 0.00081352 -0.00063217 0.00041538
-0.0022844 0.0010133 0.001621 -0.001499 0.21234 -0.2334 0.0013699 0.00068643
-0.001086 0.0016742 -0.0013766 -0.00029488
0.00093082 -0.003536 -0.0011918 0.00032561 0.0013697 0.0006867 0.23108 -0.05028
0.00025682 0.0097502 -0.00039475 -0.0027045
-0.0015643 0.00074593 -0.00087046 0.00081729 -0.0010774 0.00169 0.00027236 0.0097616
0.23635 0.075803 0.004646 0.007211
0.00037041 -0.00048748 -0.00062726 0.00041446 -0.0013825 -0.00029746 -0.0003974 -0.0027099
0.0046469 0.0072077 0.28454 0.12287
1820000000 0.25187 -0.11441 0.003715 0.0018221 -7.7971e-05 0.0025351 -0.0012994 -0.0028768
-0.0011358 0.0011169 -8.3066e-05 -5.1709e-05
0.0037126 0.0018219 0.2611 0.16861 -0.00041308 -0.00027044 -0.0011281 0.0010087
3.6066e-05 0.0011308 -0.00057859 0.0005797
-7.2327e-05 0.0025344 -0.00040698 -0.00026124 0.1613 -0.24856 0.0012643 1.3326e-05
3.9497e-05 0.0022415 -0.0013539 0.00060967
-0.0013063 -0.002871 -0.0011273 0.001024 0.001265 1.5687e-05 0.20236 -0.095585
0.0020957 0.0076031 -0.001587 -0.0016665
-0.0011209 0.001122 3.688e-05 0.0011279 4.5475e-05 0.0022366 0.0021143 0.0076063
0.25193 0.046236 0.0056982 0.0034254
-7.6832e-05 -5.7651e-05 -0.00057449 0.00058028 -0.0013583 0.00062294 -0.0015937 -0.0016535
0.0056981 0.0034193 0.28563 0.085662
1880000000 0.21554 -0.15391 0.0012871 1.179e-05 -0.00050268 0.0021886 -0.0029974 -0.0018041
-0.00014147 0.0017822 0.00020216 -0.00044666
0.0012823 1.5328e-05 0.26494 0.12159 -0.0025517 0.0015068 -8.0951e-05 0.001637
0.00047202 0.0010067 0.00014607 0.00099301
-0.00049857 0.0022004 -0.0025546 0.0015131 0.1084 -0.2585 0.0012489 -0.00094124
0.0016332 0.0016198 -0.00074847 0.0013903
-0.0029962 -0.0017943 -7.9938e-05 0.0016389 0.0012497 -0.00094259 0.16327 -0.13593
0.0029692 0.0049214 -0.0023866 9.5301e-05
-0.00012956 0.0017764 0.00048297 0.0009969 0.0016327 0.0016227 0.0029819 0.0049254
0.25322 0.01256 0.0053846 0.00096591
0.0002007 -0.00045737 0.00015074 0.00098768 -0.0007503 0.001401 -0.0023917 0.00010155
0.0053746 0.00097043 0.28377 0.050998
1940000000 0.17561 -0.17866 -0.00088523 -0.0011294 0.0014834 0.0021587 -0.0035136 0.00090565
0.0015324 0.0011088 -0.00055552 -0.00056359
-0.00089257 -0.0011362 0.26453 0.090172 -0.0013598 0.0040553 0.00092255 0.0011676
0.0015472 0.00044066 0.00090466 0.00038635
0.0014841 0.002146 -0.001343 0.0040611 0.062142 -0.25094 0.00014832 -0.0015851
0.0022466 0.00021664 0.00058907 0.0016219
-0.0035192 0.00090851 0.00092419 0.0011656 0.00015313 -0.0015849 0.11164 -0.16628
0.0019264 0.0030847 -0.0017328 0.001072
0.0015351 0.0010922 0.0015359 0.00043653 0.0022482 0.00020361 0.0019366 0.003085
0.25317 -0.026566 0.0040851 -0.0023168
-0.00056434 -0.00056617 0.00090632 0.00038428 0.00058961 0.0016269 -0.0017297 0.001078
0.0040824 -0.0023176 0.2712 0.0147
2000000000 0.12925 -0.19273 -0.0044356 0.001284 0.0026841 0.0016138 -0.0020006 0.0034565
0.0012988 0.00012263 -0.00055194 0.00036739
-0.0044287 0.0012756 0.25019 0.05458 -0.0010479 0.0058298 0.0014782 0.00035531
0.0011617 -0.0010962 0.00060163 3.3295e-05
0.0027212 0.0015953 -0.0010116 0.005837 0.018519 -0.23637 -0.00086722 -0.00099136
0.0016633 -0.0011157 0.0018722 0.00092686
-0.0019839 0.0034766 0.0014846 0.00033328 -0.00086076 -0.00099216 0.058992 -0.17742
-0.00012337 0.0023917 -0.0006042 0.0020414
0.0012883 0.00012297 0.0011566 -0.0010945 0.001663 -0.0011256 -0.00011282 0.0023931
0.24579 -0.060986 0.00053931 -0.0035931
