!Keysight Technologies,M9804A,MY58100912,A.14.10.03
!Date: Thursday, April 27, 2023 10:28:33
!Correction: S11(C  6-Port  ) 
!S12(C  6-Port  ) 
!S13(C  6-Port  ) 
!S14(C  6-Port  ) 
!S15(C  6-Port  ) 
!S16(C  6-Port  ) 
!S21(C  6-Port  ) 
!S22(C  6-Port  ) 
!S23(C  6-Port  ) 
!S24(C  6-Port  ) 
!S25(C  6-Port  ) 
!S26(C  6-Port  ) 
!S31(C  6-Port  ) 
!S32(C  6-Port  ) 
!S33(C  6-Port  ) 
!S34(C  6-Port  ) 
!S35(C  6-Port  ) 
!S36(C  6-Port  ) 
!S41(C  6-Port  ) 
!S42(C  6-Port  ) 
!S43(C  6-Port  ) 
!S44(C  6-Port  ) 
!S45(C  6-Port  ) 
!S46(C  6-Port  ) 
!S51(C  6-Port  ) 
!S52(C  6-Port  ) 
!S53(C  6-Port  ) 
!S54(C  6-Port  ) 
!S55(C  6-Port  ) 
!S56(C  6-Port  ) 
!S61(C  6-Port  ) 
!S62(C  6-Port  ) 
!S63(C  6-Port  ) 
!S64(C  6-Port  ) 
!S65(C  6-Port  ) 
!S66(C  6-Port  ) 
!S6P File: Measurement: :
# Hz S  RI   R 50
500000000 -0.34 -0.020513 -0.011614 -0.0033928 -0.0079715 0.013068 -0.0035117 0.012127
0.011155 0.0041773 -0.0032001 0.0087297
-0.011591 -0.003404 -0.41934 -0.039821 0.005986 -0.011049 0.0018399 0.012331
0.0071446 0.0020922 0.0025485 0.013592
-0.007945 0.013042 0.0059774 -0.011071 -0.26399 0.222 0.0070359 0.0038564
-0.0013231 0.007956 0.0020964 0.011867
-0.003494 0.012118 0.0018531 0.012321 0.0070434 0.0038536 -0.3317 0.058906
-0.020265 -0.0063336 0.015419 0.024213
0.011151 0.0041526 0.0071471 0.0020585 -0.0013277 0.0079803 -0.020282 -0.0063328
-0.2355 -0.16827 -0.026581 0.0044801
-0.0031668 0.0087169 0.0025765 0.01359 0.0021219 0.011865 0.01542 0.024204
-0.026581 0.0044733 -0.28291 -0.087391
560000000 -0.3142 0.13506 -0.026745 -0.059944 0.00062209 0.011929 0.0050516 0.0097471
0.0087407 0.0046457 0.010464 0.0073514
-0.026698 -0.059904 -0.37563 0.1176 -0.042607 -0.034681 0.013177 0.003969
-0.01247 -0.0044224 0.0028791 -0.00025696
0.0006214 0.011917 -0.042707 -0.034638 -0.18127 0.26777 0.0002873 -0.0046442
0.019487 0.0049637 0.006271 -0.0065552
0.005059 0.009767 0.013184 0.0039076 0.00028103 -0.0046351 -0.30662 0.14735
0.00080987 -0.024126 0.002795 -0.018739
0.0087719 0.0046731 -0.012489 -0.0044533 0.019505 0.0050174 0.00080394 -0.024126
-0.28875 0.0053103 0.0034419 -0.047186
0.010458 0.0073319 0.0028971 -0.00027328 0.0062688 -0.0065576 0.0028078 -0.018738
0.0034621 -0.047182 -0.33015 0.052335
620000000 -0.27146 0.12126 -0.023699 0.0079791 0.0041527 0.0082411 0.0072783 -0.0047648
0.011449 -0.0016287 0.0006541 -0.0023165
-0.023695 0.0079679 -0.40187 0.071311 -0.019452 0.00090148 -0.00080126 -0.0021272
0.010201 -0.0064492 0.0016609 -0.0026487
0.0041605 0.0082361 -0.019461 0.00093407 -0.14991 0.27744 -0.00104 -0.0049777
-0.0030652 -0.0028085 0.0079543 -0.0034828
0.0072364 -0.0047494 -0.00080448 -0.0021307 -0.0010365 -0.0049781 -0.26341 0.15866
-0.040336 -0.016475 0.012043 0.02393
0.011463 -0.0016719 0.0102 -0.006484 -0.0030442 -0.0028036 -0.040371 -0.016445
-0.2113 -0.033771 -0.039509 0.016141
0.00068384 -0.0023082 0.0016783 -0.0026453 0.0079506 -0.0034993 0.012064 0.023936
-0.039497 0.016126 -0.25602 0.024123
680000000 -0.22891 0.20419 -0.027667 -0.011791 0.0055732 0.0045225 0.0010683 -0.0071013
-0.0026655 -0.0108 0.0041996 -0.0066175
-0.027636 -0.011792 -0.38495 0.16619 -0.031929 0.00044457 -0.0013258 -0.00070966
-0.0022073 -0.0089997 -0.0012516 -0.0022004
0.0055953 0.0045213 -0.031938 0.00049148 -0.097958 0.29435 -0.00097324 -0.00059918
-0.0013921 -0.00010247 -0.003215 -0.0085303
0.0010522 -0.0071088 -0.0013312 -0.00070201 -0.00096734 -0.00059587 -0.21726 0.20657
-0.026209 -0.0042765 -0.0090407 -0.0085965
-0.0026852 -0.0108 -0.002234 -0.0090161 -0.0014 -0.00010207 -0.026227 -0.0042674
-0.25256 0.065457 -0.0066203 -0.0063079
0.0041758 -0.0066176 -0.0012742 -0.0022079 -0.0032267 -0.0085356 -0.0090521 -0.008614
-0.0066186 -0.0063095 -0.25535 0.12076
740000000 -0.1842 0.19876 -0.03627 0.02657 0.012336 -0.005952 -0.00053074 -0.0042259
-0.0043998 -0.0028475 -0.0058288 0.0028883
-0.036221 0.026564 -0.33253 0.18577 -0.032655 0.03529 -0.0010771 -0.0065674
-0.011439 0.0078603 -0.0018462 -0.0052823
0.012336 -0.0059485 -0.032583 0.035337 -0.064467 0.29322 -0.001706 0.003094
-0.0032279 -0.0046767 -0.0018675 0.0010916
-0.00053833 -0.0042303 -0.0010996 -0.0065701 -0.0017064 0.0030988 -0.19943 0.21535
-0.042141 -0.0027677 0.022413 0.012765
-0.0043985 -0.0028425 -0.011409 0.0079115 -0.0032268 -0.0046842 -0.042181 -0.0027141
-0.15683 0.086145 -0.039707 0.0046683
-0.0058197 0.0028791 -0.0018622 -0.005307 -0.0018777 0.0010718 0.022436 0.012774
-0.039689 0.0046436 -0.24324 0.1305
800000000 -0.15034 0.23586 -0.020694 0.017421 0.0047258 -0.010642 -0.0043224 -0.0017956
-0.0036394 0.002214 0.0034597 0.00073113
-0.020688 0.017415 -0.3329 0.254 -0.0063571 0.033412 -0.0023539 0.00221
-0.00055107 0.0032146 0.0011128 0.0052364
0.0047049 -0.01065 -0.0063008 0.033436 -0.021768 0.31468 0.00077102 0.0018162
0.00043593 0.0034838 -0.0018116 0.0011409
-0.0043292 -0.0017956 -0.0023516 0.0022124 0.00077082 0.0018229 -0.1688 0.24164
-0.026523 0.016687 0.012713 -0.010146
-0.0036376 0.0022274 -0.00054524 0.0032206 0.00043204 0.0035047 -0.026524 0.016756
-0.19562 0.11419 -0.01545 0.018977
0.0034545 0.00073702 0.0011289 0.0052362 -0.0018022 0.0011515 0.012708 -0.010167
-0.015446 0.018955 -0.23096 0.17617
860000000 -0.11507 0.25572 -0.015251 0.030681 -0.0036291 -0.0096049 -0.002096 0.0011282
0.0043568 0.0045292 -0.0027563 -0.0024468
-0.01527 0.030676 -0.28616 0.29472 0.0092299 0.033014 5.3168e-05 0.0021867
0.0044248 0.00021317 0.0030246 0.00030933
-0.003652 -0.0095962 0.0093063 0.033009 0.026126 0.32162 -0.00035722 5.5591e-06
0.0025716 -0.0013145 0.0016793 0.0039175
-0.002073 0.0011268 7.2387e-05 0.0021819 -0.00035815 6.6408e-06 -0.13206 0.25206
-0.01488 0.020878 -0.00542 -0.0092436
0.0043845 0.0044995 0.0044295 0.00018627 0.0025717 -0.0013197 -0.01487 0.020923
-0.14245 0.1599 -0.021051 0.016755
-0.0027803 -0.0024395 0.0030302 0.00031391 0.001676 0.003915 -0.0054391 -0.009246
-0.021052 0.01674 -0.1813 0.21638
920000000 -0.08872 0.2769 0.0065624 0.036228 -0.0092896 -0.0041223 -0.0014732 0.0016716
0.001347 0.0017105 0.0027773 -0.0018198
0.006533 0.036214 -0.25565 0.31515 0.028257 0.020141 0.0017534 0.00099307
0.0070126 -0.00061699 0.0037616 -0.002871
-0.0092986 -0.0041149 0.028315 0.020098 0.073347 0.32176 0.001988 -0.00016744
0.001535 -0.00045787 0.00083506 -0.0010964
-0.0014616 0.0016827 0.001758 0.00097334 0.0019817 -0.00015617 -0.10587 0.26761
-0.007097 0.030985 0.0028264 -0.0065724
0.001343 0.0017053 0.0070126 -0.00065293 0.0015403 -0.0004592 -0.007053 0.031013
-0.12939 0.16527 0.00018126 0.025808
0.0027613 -0.0018206 0.0037685 -0.0028898 0.00083701 -0.0010995 0.0028265 -0.0065721
0.00015928 0.02581 -0.18132 0.23121
980000000 -0.042057 0.2944 0.018525 0.027958 -0.0085103 0.0046111 0.0018943 0.0030252
0.0040328 -0.0017193 -0.0032041 -0.0022272
0.018477 0.027948 -0.20393 0.34733 0.032515 0.0030602 0.0020638 -0.0002294
0.0016827 -0.006168 -0.00057476 -0.0024741
-0.008496 0.0046196 0.03254 0.0030071 0.11989 0.31376 0.00048807 -0.0012925
5.0565e-05 -0.0023245 0.0011728 -0.00024511
0.0018999 0.0030219 0.0020772 -0.00024365 0.00049191 -0.0012957 -0.067014 0.27657
0.011266 0.028289 -0.0083662 -0.006673
0.0040137 -0.0017263 0.0016537 -0.0061912 4.6245e-05 -0.002327 0.011337 0.028284
-0.0968 0.18922 0.0064646 0.017963
-0.0032176 -0.0022139 -0.00055992 -0.002464 0.001176 -0.00023717 -0.0083731 -0.0066612
0.0064442 0.017967 -0.13776 0.26995
1040000000 0.00054471 0.30159 0.032821 0.015505 -0.0012325 0.0065436 0.0022673 0.00054853
0.00014901 -0.0032814 -0.00078527 -0.0012859
0.032785 0.015524 -0.16842 0.36067 0.027774 -0.015815 0.0014187 -0.0018236
-0.0023345 -0.0026103 -0.0016601 -0.0027111
-0.0012258 0.006527 0.027753 -0.015881 0.16649 0.29939 -0.00059592 -0.0015183
-0.0016595 -0.00093783 -0.0005631 -0.00096428
0.0022662 0.00055267 0.0014108 -0.0018487 -0.00060241 -0.001515 -0.03882 0.28567
0.021255 0.015407 -0.0026984 0.00090384
0.00014172 -0.0032689 -0.0023604 -0.0026185 -0.0016486 -0.00094219 0.0213 0.015375
-0.064679 0.19523 0.013854 0.015532
-0.00080186 -0.0012775 -0.0016505 -0.0027088 -0.00055736 -0.00096464 -0.0027 0.00090724
0.013833 0.015534 -0.1127 0.2897
1100000000 0.045913 0.30777 0.034211 -0.0060181 0.0025897 0.0035967 0.0021362 -0.00086628
-0.0018873 -0.0027176 -0.0036031 0.00064134
0.034187 -0.0059872 -0.12487 0.37697 0.013501 -0.027751 -0.00012686 -0.0017273
-0.0034496 -0.00059489 -0.0033254 -0.00020263
0.0026065 0.0035881 0.013436 -0.027797 0.2136 0.27707 -0.001886 0.00021509
-0.0019401 0.00064681 -0.00098185 -9.9388e-05
0.0021264 -0.00087219 -0.00013202 -0.0017411 -0.0018868 0.00021778 0.0023397 0.28841
0.024877 0.0021179 -0.0026854 1.688e-05
-0.0019058 -0.0027022 -0.003456 -0.00058135 -0.0019427 0.00065237 0.024901 0.0020815
-0.04596 0.2066 0.018464 0.0061582
-0.0036055 0.00064493 -0.0033239 -0.00019265 -0.00098157 -9.5847e-05 -0.0027004 1.8832e-05
0.018445 0.0061663 -0.065807 0.31401
1160000000 0.09636 0.3017 0.02174 -0.021578 0.002141 -0.00026689 1.7398e-05 -0.0019426
-0.003895 -0.00055899 -0.00075944 0.003939
0.021731 -0.021545 -0.080958 0.38104 -0.0051129 -0.02822 -0.0016415 -0.0015151
-0.0026567 0.0026202 -0.0014928 0.0018202
0.0021392 -0.00027933 -0.0051933 -0.028196 0.25602 0.24431 -0.00081582 0.0018133
-0.0004597 0.0020684 -0.00077558 0.00033895
2.4427e-06 -0.0019369 -0.0016396 -0.0015167 -0.00081666 0.0018134 0.041395 0.28368
0.020225 -0.01302 -0.0032016 0.0043372
-0.003907 -0.00054521 -0.0026611 0.0026175 -0.00045134 0.0020787 0.020229 -0.013061
-0.012902 0.21291 0.017173 -0.0021787
-0.00075791 0.0039392 -0.0014759 0.0018237 -0.00077083 0.0003289 -0.003191 0.0043388
0.017155 -0.0021739 -0.019315 0.31447
1220000000 0.14102 0.28917 0.0079504 -0.029443 -0.0017059 -0.0001361 0.00029043 -0.00093428
-0.0024085 0.0022843 0.0013234 0.0018829
0.0079614 -0.029417 -0.036461 0.39217 -0.017419 -0.019763 -0.002428 0.00046149
9.4657e-05 0.0030734 -0.00052269 0.0019603
-0.0017012 -0.00014796 -0.017486 -0.019711 0.29454 0.20382 0.00077917 0.0019073
0.00074524 0.0012704 0.00042974 0.00051833
0.0002866 -0.00091815 -0.0024256 0.00046576 0.00078354 0.0018988 0.08168 0.27345
0.009033 -0.019012 0.0012424 0.0014285
-0.0023901 0.0022907 0.00011641 0.0030662 0.00074807 0.00128 0.0090155 -0.019034
0.010685 0.21969 0.011757 -0.013888
0.0013259 0.0018756 -0.00050362 0.001972 0.00043656 0.00051487 0.0012406 0.001428
0.011742 -0.013896 0.014016 0.32662
1280000000 0.18978 0.26573 -0.0095077 -0.026815 -0.0014922 0.0031254 -0.00093445 -0.0020917
-0.00067782 0.0029038 0.0024452 0.00090696
-0.0094732 -0.026794 0.0094597 0.38248 -0.023487 -0.0073328 -0.0010636 0.0014463
0.0018226 0.0017505 0.00081415 0.0017851
-0.0014842 0.0031246 -0.023524 -0.0072641 0.32359 0.15857 0.0017101 3.8735e-05
0.0012498 0.00012462 0.00042202 7.5935e-05
-0.0009407 -0.0020802 -0.001055 0.0014495 0.0017123 2.9612e-05 0.11754 0.25447
-0.0011193 -0.020341 -0.00077644 0.00060371
-0.00065986 0.002905 0.0018215 0.0017487 0.0012445 0.00011664 -0.0011541 -0.020351
0.046229 0.22118 0.0010639 -0.015436
0.0024451 0.00089807 0.00082039 0.0017839 0.00042453 7.5801e-05 -0.00077573 0.00061387
0.0010788 -0.015438 0.060006 0.32454
1340000000 0.22629 0.23119 -0.018245 -0.016667 0.0015762 0.0044888 -0.0017741 -0.00095215
0.0013937 0.0025021 0.0015529 -0.0014736
-0.01822 -0.016665 0.048929 0.37346 -0.020874 0.0051461 -0.00014239 0.0020686
0.0020504 0.0006262 0.0013497 0.0006402
0.0015841 0.0044928 -0.020862 0.0052208 0.34407 0.11048 0.0013546 -0.0010402
0.00059812 -0.00055661 2.2332e-05 0.00024013
-0.0017779 -0.00094191 -0.00012857 0.0020699 0.0013529 -0.0010307 0.14907 0.23274
-0.010552 -0.01669 0.00041202 0.0013224
0.0014086 0.002506 0.0020474 0.00061639 0.00060402 -0.00056529 -0.010583 -0.016681
0.075601 0.21519 -0.0055762 -0.013146
0.0015499 -0.0014809 0.0013551 0.0006327 2.2801e-05 0.00024125 0.00040988 0.0013252
-0.0055673 -0.013155 0.098709 0.31688
1400000000 0.25864 0.19187 -0.022592 -0.0053309 0.0056308 0.002787 -0.0022462 0.00063251
0.0023137 0.00086785 0.00014111 -0.0014865
-0.022562 -0.0053461 0.086062 0.35969 -0.01385 0.012714 0.0013799 0.0013245
0.0012203 -0.0010063 0.0010847 4.9668e-05
0.0056373 0.002778 -0.013813 0.012763 0.3564 0.056789 0.00013051 -0.002079
4.834e-05 -0.00045328 0.00023553 0.00018608
-0.0022374 0.00063215 0.0013923 0.001325 0.00014188 -0.0020694 0.17738 0.20213
-0.016354 -0.0093446 -0.00045667 0.00072223
0.0023176 0.00085576 0.0012155 -0.0010165 5.1379e-05 -0.00045521 -0.016387 -0.009314
0.1075 0.20881 -0.011546 -0.0076224
0.0001396 -0.0014825 0.0010851 4.9999e-05 0.0002381 0.00018269 -0.0004576 0.00072713
-0.011539 -0.007641 0.14172 0.30268
1460000000 0.28024 0.14721 -0.018879 0.0059654 0.0056786 -0.0023137 -0.0015725 0.0017832
0.002011 -0.00053328 -0.00040499 -0.0009472
-0.01887 0.0059413 0.11991 0.33713 -0.0052499 0.015073 0.0018224 0.0001426
0.00069759 -0.0013819 0.0010733 -0.00059386
0.0056656 -0.0023254 -0.0051959 0.015105 0.361 0.0027063 -0.0016227 -0.0014455
0.00012273 -0.00014579 0.00056738 -0.00032824
-0.0015663 0.0017814 0.0018186 0.00013896 -0.0016141 -0.0014468 0.20133 0.17194
-0.017208 -0.001933 -8.5958e-05 0.0024278
0.0020177 -0.00052497 0.00069555 -0.0013893 0.0001287 -0.00014837 -0.017237 -0.0018939
0.13542 0.1933 -0.012322 -0.0014885
-0.00039871 -0.00094353 0.0010842 -0.00059755 0.00057137 -0.00033319 -8.1066e-05 0.002439
-0.012316 -0.001502 0.17327 0.27993
1520000000 0.29185 0.10456 -0.012817 0.010609 0.0030847 -0.0044485 0.00024109 0.0027079
0.0020728 -0.0016237 -0.0010953 -0.00012798
-0.012817 0.010586 0.15321 0.32178 0.0019911 0.012664 0.0017007 -0.00093591
-0.00014606 -0.0010818 0.00027588 -0.00092003
0.0030695 -0.0044514 0.0020358 0.012654 0.35404 -0.053299 -0.0015158 -0.00018949
0.00055228 -0.00087861 3.2376e-06 -0.00012517
0.00025005 0.0027029 0.0016991 -0.00093665 -0.0015112 -0.00019095 0.22259 0.13376
-0.01576 0.0042406 0.0021895 0.0020575
0.002064 -0.0016304 -0.00014728 -0.0010859 0.00055264 -0.00088339 -0.015759 0.0042682
0.16291 0.17798 -0.011679 0.003124
-0.0010946 -0.00012545 0.00026721 -0.00092472 4.2509e-06 -0.00012686 0.0021872 0.0020603
-0.011679 0.0031134 0.20532 0.25713
1580000000 0.29968 0.057549 -0.0064763 0.012758 -0.0011647 -0.0049412 0.0016008 0.0018575
-0.00016841 -0.0022032 -0.00024391 0.00039649
-0.0064927 0.012746 0.17999 0.29616 0.0053522 0.0077852 0.00037576 -0.0017449
-0.0006186 -0.00092182 -0.00017341 -0.00077639
-0.0011721 -0.0049364 0.0053773 0.0077696 0.33365 -0.11106 -0.0016155 0.0011406
-0.00032361 -0.001123 0.00016542 -0.00054342
0.0015993 0.001858 0.00036631 -0.0017434 -0.001619 0.0011345 0.23423 0.094431
-0.011753 0.009235 0.0027686 0.00033625
-0.00016961 -0.0021994 -0.00062741 -0.00092086 -0.00032588 -0.0011153 -0.011743 0.0092708
0.18607 0.15837 -0.0089154 0.0082782
-0.000244 0.00039682 -0.00016757 -0.00077293 0.00016416 -0.00054621 0.0027752 0.00033449
-0.008922 0.0082718 0.23509 0.2288
1640000000 0.30034 0.015896 -0.0004063 0.011106 -0.0029439 -0.0026027 0.0027415 0.00081707
-0.00078707 -0.0016277 -0.00019273 0.0006313
-0.00041751 0.011094 0.20886 0.27081 0.0058152 0.0032226 -0.00089736 -0.0016824
-0.0009713 -0.00024176 -0.00050891 -0.00060557
-0.0029504 -0.0025843 0.0058188 0.0031999 0.30434 -0.15967 -0.00042415 0.0016901
-0.0012231 -0.00079755 -0.00015808 -0.00026268
0.0027502 0.0008105 -0.00090644 -0.0016848 -0.00042153 0.0016819 0.24444 0.04712
-0.0069502 0.010485 0.0026783 -0.0013174
-0.00078597 -0.0016233 -0.00097727 -0.00023003 -0.0012279 -0.00079686 -0.0069348 0.010517
0.20748 0.13309 -0.0038825 0.010001
-0.00019524 0.00063424 -0.00051084 -0.00059879 -0.00015739 -0.0002572 0.0026692 -0.0013362
-0.0038899 0.010006 0.25903 0.19662
1700000000 0.2916 -0.029779 0.0023256 0.0081484 -0.0037048 0.000185 0.0028898 -0.0015035
-0.0020497 -0.00075049 0.00067073 0.00026363
0.0023174 0.0081524 0.22661 0.23896 0.0038589 0.00035653 -0.0015473 -0.00045204
-0.00066851 0.00018784 -0.00090405 -0.00048018
-0.0037033 0.00021391 0.0038624 0.00033851 0.26144 -0.19961 0.00078458 0.0014311
-0.0019482 -8.9231e-05 -0.00065026 -0.00081028
0.0028796 -0.00151 -0.0015392 -0.00045295 0.00077991 0.0014303 0.24051 -0.0010541
-0.0034838 0.010783 0.0014244 -0.0024964
-0.0020551 -0.00074151 -0.00066927 0.00018875 -0.00196 -7.946e-05 -0.0034643 0.010797
0.2236 0.11148 0.00078547 0.00996
0.00067695 0.00026032 -0.00090945 -0.00047334 -0.00065656 -0.00081353 0.0014211 -0.0025049
0.00078974 0.0099623 0.27394 0.16121
1760000000 0.27773 -0.077959 0.0039733 0.0049841 -0.0022778 0.00099632 0.00092292 -0.0035354
-0.0015572 0.00072369 0.00035821 -0.00049162
0.0039608 0.004978 0.25172 0.1985 0.0016127 -0.0014911 -0.001191 0.00032925
-0.00090505 0.00081411 -0.00063703 0.00041518
-0.0022686 0.0010107 0.001602 -0.0014986 0.21231 -0.23346 0.0013587 0.00069928
-0.0010703 0.0016705 -0.0013744 -0.00029802
0.00090541 -0.0035316 -0.0011877 0.00033824 0.0013635 0.00069341 0.23107 -0.050347
0.00012495 0.0097415 -0.00039871 -0.0026759
-0.0015608 0.00072467 -0.00089208 0.0008224 -0.0010718 0.001666 0.00014503 0.0097562
0.23641 0.075621 0.0045818 0.0071307
0.00035303 -0.00049637 -0.0006335 0.0004208 -0.0013819 -0.00030086 -0.00041271 -0.0026808
0.0045851 0.0071306 0.2847 0.1228
1820000000 0.25191 -0.11443 0.003719 0.0018079 -5.6018e-05 0.0025294 -0.0013059 -0.0028702
-0.0011289 0.0010996 -8.8435e-05 -4.285e-05
0.0037035 0.0018064 0.26117 0.16853 -0.00044455 -0.00026134 -0.0011271 0.0010073
2.0465e-05 0.0011508 -0.00057392 0.00058147
-5.3382e-05 0.0025366 -0.0004497 -0.00026473 0.16128 -0.24862 0.0012816 2.4009e-05
3.607e-05 0.0022207 -0.0013409 0.00061188
-0.0013148 -0.0028666 -0.0011136 0.001012 0.0012876 2.0279e-05 0.20229 -0.09563
0.0019816 0.0076355 -0.0015908 -0.0016263
-0.0011179 0.0011032 3.3373e-05 0.0011588 4.0028e-05 0.0022285 0.0019979 0.0076408
0.25195 0.046064 0.0056132 0.0033748
-9.1035e-05 -4.2993e-05 -0.00057077 0.00058962 -0.0013324 0.00062106 -0.0015949 -0.0016204
0.0056113 0.0033716 0.28581 0.085565
1880000000 0.21558 -0.15392 0.0012623 -1.3266e-06 -0.00048773 0.002188 -0.0029944 -0.001793
-0.0001606 0.0017726 0.00020254 -0.00042633
0.0012604 1.8889e-06 0.26496 0.12151 -0.0025593 0.0015276 -8.415e-05 0.0016394
0.0004888 0.0010164 0.00015446 0.00098532
-0.00047108 0.0021909 -0.0025426 0.00154 0.1084 -0.25857 0.0012577 -0.00093466
0.001627 0.0016279 -0.00075369 0.0014016
-0.0030037 -0.0017865 -7.4867e-05 0.0016257 0.0012624 -0.00093515 0.16323 -0.13594
0.0028874 0.0049892 -0.0023724 0.00012828
-0.00014997 0.001771 0.00048921 0.0010175 0.0016386 0.0016273 0.0028948 0.0049909
0.2532 0.012434 0.0052804 0.0009427
0.00020213 -0.00043551 0.00016373 0.00098917 -0.00074712 0.0014015 -0.0023702 0.00013021
0.0052727 0.00095267 0.28391 0.050745
1940000000 0.17565 -0.17874 -0.00091116 -0.0011342 0.0015123 0.0021481 -0.0034976 0.00091623
0.0015012 0.0011267 -0.00053616 -0.00056407
-0.00090785 -0.0011379 0.26455 0.090086 -0.0013501 0.0040814 0.00090399 0.0011563
0.0015662 0.00044886 0.00091894 0.00038992
0.00152 0.0021366 -0.0013345 0.0040908 0.062084 -0.251 0.00013272 -0.0016058
0.0022532 0.00020668 0.00060731 0.0016155
-0.0034979 0.00092426 0.00092179 0.0011564 0.00013404 -0.001609 0.11158 -0.16627
0.0018801 0.0031751 -0.0016988 0.0010817
0.00151 0.0011107 0.001558 0.00042956 0.0022554 0.00019594 0.0018881 0.0031803
0.25315 -0.026644 0.0039898 -0.002292
-0.000543 -0.00055882 0.00091518 0.00038779 0.00061677 0.0016107 -0.001696 0.001085
0.0039834 -0.0022864 0.27126 0.01445
2000000000 0.1292 -0.19279 -0.0044621 0.0012796 0.0026954 0.0015949 -0.0020055 0.0034417
0.0012929 0.0001369 -0.00053693 0.00036319
-0.0044527 0.0012713 0.2502 0.054504 -0.0010175 0.0058423 0.0014761 0.00034974
0.0011722 -0.001122 0.00059901 3.1846e-05
0.0027177 0.0015814 -0.00099753 0.0058551 0.018464 -0.23637 -0.00087302 -0.00099484
0.0016595 -0.0011216 0.001862 0.00090618
-0.0019862 0.0034464 0.0014795 0.00033958 -0.00087259 -0.00099587 0.058974 -0.17737
-0.00011271 0.0024875 -0.00057012 0.0020291
0.0012967 0.00013082 0.0011706 -0.0011296 0.0016609 -0.0011241 -0.00011375 0.0024889
0.24579 -0.061034 0.0004632 -0.0035366
