!Keysight Technologies,M9804A,MY58100912,A.14.10.03
!Date: Thursday, April 27, 2023 10:28:33
!Correction: S11(C  6-Port  ) 
!S12(C  6-Port  ) 
!S13(C  6-Port  ) 
!S14(C  6-Port  ) 
!S15(C  6-Port  ) 
!S16(C  6-Port  ) 
!S21(C  6-Port  ) 
!S22(C  6-Port  ) 
!S23(C  6-Port  ) 
!S24(C  6-Port  ) 
!S25(C  6-Port  ) 
!S26(C  6-Port  ) 
!S31(C  6-Port  ) 
!S32(C  6-Port  ) 
!S33(C  6-Port  ) 
!S34(C  6-Port  ) 
!S35(C  6-Port  ) 
!S36(C  6-Port  ) 
!S41(C  6-Port  ) 
!S42(C  6-Port  ) 
!S43(C  6-Port  ) 
!S44(C  6-Port  ) 
!S45(C  6-Port  ) 
!S46(C  6-Port  ) 
!S51(C  6-Port  ) 
!S52(C  6-Port  ) 
!S53(C  6-Port  ) 
!S54(C  6-Port  ) 
!S55(C  6-Port  ) 
!S56(C  6-Port  ) 
!S61(C  6-Port  ) 
!S62(C  6-Port  ) 
!S63(C  6-Port  ) 
!S64(C  6-Port  ) 
!S65(C  6-Port  ) 
!S66(C  6-Port  ) 
!S6P File: Measurement: :
# Hz S  RI   R 50
500000000 -0.3395 -0.021298 -0.011201 -0.003456 -0.0083053 0.012948 -0.0035775 0.012469
0.011669 0.0038303 -0.0034838 0.0087682
-0.011193 -0.0034478 -0.41945 -0.039578 0.006132 -0.011368 0.0018923 0.012502
0.007352 0.002325 0.0021304 0.013967
-0.008291 0.012949 0.0061165 -0.011381 -0.26379 0.22085 0.0070487 0.00381
-0.0011116 0.0080255 0.0018527 0.012079
-0.0035645 0.012462 0.0019153 0.012522 0.007055 0.0038138 -0.3312 0.058695
-0.020734 -0.0061849 0.015613 0.024393
0.011696 0.0038255 0.0073606 0.00232 -0.0011027 0.0080349 -0.020731 -0.0061779
-0.23506 -0.17066 -0.026307 0.0042031
-0.0034645 0.0087909 0.0021555 0.014006 0.0018714 0.012098 0.015615 0.024361
-0.026317 0.0041926 -0.28186 -0.089557
560000000 -0.31383 0.13506 -0.026633 -0.060487 0.00065067 0.01164 0.0053443 0.0099548
0.0094095 0.00438 0.010585 0.0074713
-0.02658 -0.060396 -0.37582 0.11659 -0.04224 -0.034955 0.013533 0.0038761
-0.012249 -0.0033326 0.0030489 -0.0012637
0.00068976 0.011618 -0.042333 -0.034884 -0.18163 0.26672 -0.00010815 -0.0041036
0.018555 0.0038596 0.0065416 -0.0060553
0.0053539 0.0099387 0.013534 0.003891 -0.00010505 -0.0041285 -0.30601 0.14661
0.00032062 -0.023227 0.0034967 -0.018762
0.0094195 0.0043925 -0.012267 -0.0033187 0.01858 0.0038664 0.00031821 -0.02324
-0.28972 0.0017557 0.0039536 -0.046815
0.010607 0.007441 0.0030245 -0.001272 0.0065315 -0.0060573 0.0035011 -0.018777
0.0039572 -0.04682 -0.33031 0.05174
620000000 -0.27161 0.1208 -0.02341 0.0078084 0.0039829 0.0082634 0.0072688 -0.0053804
0.011181 -0.0010121 0.00064596 -0.0026039
-0.023411 0.0077977 -0.40163 0.071503 -0.019339 0.00079822 -0.0010623 -0.0022875
0.010485 -0.006222 0.0015185 -0.0023766
0.0039972 0.0082542 -0.019352 0.00083199 -0.14991 0.27604 -0.00096185 -0.0047655
-0.0034991 -0.0028941 0.0083787 -0.0031493
0.0072636 -0.0053795 -0.0010716 -0.0022812 -0.00095729 -0.0047757 -0.26343 0.15845
-0.040797 -0.017304 0.012219 0.02442
0.011181 -0.0010191 0.010505 -0.0062566 -0.0034931 -0.0028885 -0.040845 -0.017274
-0.21061 -0.033944 -0.039832 0.015339
0.00067358 -0.0025818 0.0015037 -0.0023772 0.0083709 -0.0031234 0.012231 0.024442
-0.039806 0.015368 -0.25585 0.022459
680000000 -0.22876 0.20353 -0.027718 -0.011935 0.0056268 0.004669 0.0012195 -0.0072551
-0.0027027 -0.010847 0.004524 -0.0069776
-0.027682 -0.011953 -0.38478 0.16604 -0.032157 0.00054405 -0.0012124 -0.0004348
-0.0024072 -0.0089218 -0.0013218 -0.0020189
0.0056244 0.0046659 -0.032165 0.00058393 -0.098555 0.29373 -0.0008992 -0.00036152
-0.0015683 0.00015255 -0.0034711 -0.0087392
0.0012138 -0.007246 -0.0012061 -0.00044179 -0.00089655 -0.00035243 -0.21776 0.20635
-0.026064 -0.0047817 -0.0092281 -0.008137
-0.0027229 -0.010847 -0.0024273 -0.0089231 -0.0015734 0.00015452 -0.026096 -0.0047515
-0.25315 0.064355 -0.007235 -0.0064053
0.0045142 -0.0069835 -0.0013137 -0.0020212 -0.0034659 -0.0087592 -0.0092461 -0.0081377
-0.0072238 -0.0064215 -0.25479 0.11874
740000000 -0.18439 0.19862 -0.036439 0.026749 0.01247 -0.0057683 -0.00057283 -0.0040308
-0.0045261 -0.0032501 -0.0057945 0.0030776
-0.036405 0.026712 -0.33284 0.18546 -0.033076 0.035242 -0.0011038 -0.0063408
-0.011919 0.0079141 -0.0021847 -0.0054381
0.01247 -0.0057702 -0.033019 0.035324 -0.065146 0.29249 -0.0017119 0.0031601
-0.0032874 -0.0046495 -0.0019622 0.0011024
-0.00056819 -0.0040208 -0.0011181 -0.006347 -0.0017011 0.0031666 -0.19948 0.21493
-0.042576 -0.0027273 0.022692 0.01288
-0.0045295 -0.0032464 -0.011907 0.0079802 -0.0032847 -0.0046667 -0.042619 -0.0026679
-0.15798 0.085887 -0.039898 0.0044198
-0.005787 0.0031139 -0.0021682 -0.0054462 -0.0019489 0.0011102 0.022709 0.012869
-0.039872 0.0043691 -0.24372 0.12858
800000000 -0.15011 0.2359 -0.020905 0.017651 0.0048222 -0.010547 -0.0044958 -0.0017745
-0.0035304 0.0025622 0.0034367 0.00042848
-0.020891 0.017636 -0.33338 0.25392 -0.0065701 0.033687 -0.0022859 0.0023016
-0.00056826 0.0033521 0.0010978 0.0052591
0.0048029 -0.010548 -0.0065049 0.033714 -0.022548 0.31449 0.00080612 0.0017062
0.00033369 0.0035306 -0.0017801 0.0011052
-0.0044939 -0.0017569 -0.0022897 0.0023119 0.00080461 0.0017102 -0.16923 0.24122
-0.026949 0.017041 0.013111 -0.010081
-0.0035173 0.0025635 -0.00055772 0.0033583 0.00034293 0.0035278 -0.026937 0.017104
-0.19635 0.11299 -0.01604 0.019551
0.0034432 0.0004289 0.0011048 0.0052789 -0.0017757 0.0011136 0.013116 -0.010098
-0.016037 0.019525 -0.2312 0.17523
860000000 -0.11553 0.25557 -0.015508 0.03078 -0.0036347 -0.0097269 -0.002088 0.0011191
0.0042014 0.0045377 -0.0027959 -0.0024253
-0.015509 0.03076 -0.28619 0.29483 0.0092653 0.033302 2.0204e-05 0.0022788
0.0042577 0.00026124 0.0030011 0.00041003
-0.0036562 -0.0097255 0.0093423 0.033295 0.025433 0.32162 -0.00047757 -4.3282e-05
0.002498 -0.0014494 0.0017889 0.0040958
-0.0020803 0.0011235 2.8022e-05 0.0022832 -0.00047818 -4.1133e-05 -0.13243 0.25188
-0.015222 0.021158 -0.0053127 -0.0089269
0.0042133 0.0045354 0.0042632 0.00023997 0.0024983 -0.0014556 -0.015201 0.021206
-0.14333 0.15942 -0.021571 0.016842
-0.0028131 -0.0024257 0.0030018 0.00040809 0.0017948 0.0041017 -0.0053324 -0.0089271
-0.021578 0.016802 -0.18207 0.2157
920000000 -0.089138 0.27706 0.0064963 0.036475 -0.0093945 -0.0041374 -0.0013645 0.0017052
0.0013057 0.0015438 0.0025798 -0.001776
0.0064729 0.036459 -0.25594 0.31527 0.028405 0.020248 0.0017256 0.0010071
0.007124 -0.00080108 0.0036876 -0.002998
-0.009401 -0.0041182 0.028469 0.020212 0.072827 0.32185 0.0019122 -0.00019588
0.0015483 -0.00048827 0.00088474 -0.0011765
-0.0013632 0.0016929 0.0017327 0.0010161 0.0019092 -0.0001894 -0.10652 0.2677
-0.0069394 0.031528 0.0029024 -0.0065356
0.0013017 0.0015439 0.0071065 -0.00083036 0.0015544 -0.0004843 -0.0068818 0.031573
-0.13011 0.16503 0.00044002 0.026208
0.0025669 -0.0017874 0.0036876 -0.0029866 0.00088169 -0.0011893 0.0029011 -0.0065316
0.00041939 0.026192 -0.18235 0.23025
980000000 -0.042377 0.29449 0.018585 0.028303 -0.0086327 0.0047027 0.0020014 0.0030207
0.0040053 -0.0017792 -0.0031028 -0.0021149
0.018549 0.028309 -0.20411 0.34761 0.032772 0.0031805 0.0021081 -0.00034074
0.0016964 -0.0062815 -0.00052195 -0.0024082
-0.0086214 0.0047118 0.032809 0.003127 0.1195 0.31399 0.00049485 -0.0012827
7.2683e-05 -0.0023469 0.0012262 -0.00030242
0.0019974 0.0030023 0.0021149 -0.00033023 0.00049487 -0.0012803 -0.067278 0.27693
0.011594 0.028855 -0.0084503 -0.0066601
0.0039909 -0.0017865 0.0016646 -0.0063129 7.775e-05 -0.0023564 0.011669 0.028854
-0.09735 0.18902 0.0066569 0.018354
-0.0031058 -0.0021 -0.00054255 -0.0023951 0.0012298 -0.00029322 -0.0084603 -0.00664
0.0066508 0.018345 -0.13872 0.26896
1040000000 0.00026149 0.3018 0.033023 0.015655 -0.0012322 0.0066884 0.0022745 0.00054798
8.3503e-05 -0.0032003 -0.00087191 -0.0013875
0.032996 0.015689 -0.16848 0.36097 0.027992 -0.01596 0.0013674 -0.0018676
-0.0024245 -0.0025697 -0.0015924 -0.0027764
-0.0012295 0.006677 0.027973 -0.016034 0.1663 0.29965 -0.0006381 -0.0015294
-0.0016452 -0.00093594 -0.00050226 -0.0010621
0.002273 0.00053354 0.0013805 -0.0018592 -0.00063557 -0.0015277 -0.039068 0.2859
0.021859 0.015637 -0.0027165 0.00072762
8.2536e-05 -0.0031893 -0.0024601 -0.0025791 -0.0016292 -0.00094291 0.021914 0.01562
-0.065046 0.19487 0.014335 0.015741
-0.00087034 -0.0013883 -0.0016096 -0.0027441 -0.00050742 -0.0010658 -0.0027149 0.00073719
0.014321 0.015724 -0.11406 0.28885
1100000000 0.045742 0.30812 0.034599 -0.0059311 0.0026727 0.0036623 0.0020377 -0.00094215
-0.0019431 -0.0027117 -0.0036435 0.00062118
0.034573 -0.0058926 -0.12484 0.37752 0.013565 -0.028046 -0.00017888 -0.0017674
-0.0035127 -0.00052855 -0.0034085 -0.00013459
0.0026795 0.0036417 0.013501 -0.028086 0.21356 0.27731 -0.0019094 0.00023898
-0.0019303 0.00061237 -0.0010399 -0.00019179
0.0020404 -0.00094857 -0.00018179 -0.0017677 -0.0019081 0.00023504 0.0022929 0.28879
0.025707 0.0019224 -0.0028394 -3.131e-05
-0.0019506 -0.0027112 -0.0035346 -0.00051969 -0.0019303 0.00061049 0.025745 0.0018876
-0.046641 0.20634 0.018768 0.0062312
-0.0036404 0.00062957 -0.0034194 -0.00011459 -0.0010413 -0.00018168 -0.0028313 -1.9118e-05
0.018767 0.0062431 -0.06718 0.3136
1160000000 0.096353 0.30202 0.022045 -0.021801 0.0022584 -0.00032168 -9.5624e-05 -0.0018983
-0.0038738 -0.00047598 -0.0006765 0.0038461
0.022053 -0.021755 -0.080678 0.38159 -0.0051964 -0.028386 -0.0016602 -0.0015163
-0.0026485 0.0026933 -0.0013767 0.0017389
0.0022626 -0.00033672 -0.0052858 -0.028378 0.2561 0.24447 -0.00077381 0.0018374
-0.00040544 0.0020437 -0.00085436 0.00021097
-0.00010022 -0.0019018 -0.0016618 -0.0015047 -0.00077711 0.0018353 0.041521 0.28408
0.02062 -0.013616 -0.0031544 0.0043115
-0.0038869 -0.00047131 -0.002668 0.0026935 -0.00040354 0.0020576 0.020627 -0.013652
-0.013599 0.21266 0.017526 -0.0021027
-0.00065038 0.0038538 -0.0013791 0.0017595 -0.00085158 0.00020812 -0.0031394 0.0043222
0.01752 -0.002111 -0.020296 0.31425
1220000000 0.14115 0.28946 0.0081726 -0.029796 -0.0016093 -0.00023828 0.0002206 -0.00087791
-0.0023718 0.0022886 0.0013488 0.0018613
0.0081957 -0.029751 -0.035894 0.39263 -0.017607 -0.019857 -0.0024359 0.00052169
0.00010617 0.0030976 -0.00051144 0.002041
-0.0016109 -0.00023384 -0.017688 -0.019803 0.29457 0.20368 0.00081682 0.0019028
0.00069511 0.0012899 0.00043517 0.0005989
0.00022079 -0.00087505 -0.0024302 0.00052895 0.0008182 0.0018942 0.081983 0.27358
0.0090801 -0.019836 0.0012523 0.001395
-0.0023714 0.002304 0.0001199 0.003088 0.00069761 0.0012925 0.0090578 -0.019863
0.010115 0.21964 0.011976 -0.014199
0.0013614 0.0018454 -0.00051146 0.0020387 0.00044127 0.00059963 0.0012542 0.0014002
0.01198 -0.014192 0.013075 0.32657
1280000000 0.19003 0.26604 -0.009548 -0.027179 -0.0015326 0.0029814 -0.00091609 -0.002025
-0.00069091 0.0029612 0.0023765 0.00085993
-0.0095287 -0.027158 0.010267 0.38273 -0.023707 -0.0072395 -0.00096945 0.0014259
0.0018865 0.0017432 0.00080783 0.0018286
-0.001525 0.0029887 -0.023758 -0.0071701 0.32348 0.15822 0.0017696 6.1178e-05
0.0012364 0.00021797 0.00029859 0.00016812
-0.00091129 -0.002024 -0.00096375 0.0014215 0.0017749 6.281e-05 0.11794 0.25441
-0.0015471 -0.021116 -0.00081364 0.00061791
-0.00067779 0.0029587 0.0019086 0.0017363 0.001233 0.00022628 -0.0015931 -0.021138
0.045881 0.22116 0.0010729 -0.015825
0.0023737 0.00085539 0.00082576 0.0018241 0.000302 0.00016924 -0.00081268 0.00061447
0.0010874 -0.015823 0.058952 0.32477
1340000000 0.22661 0.23123 -0.018529 -0.016894 0.0015266 0.0043932 -0.0017164 -0.00098115
0.0014425 0.0025528 0.0015453 -0.0015057
-0.0185 -0.016903 0.049846 0.3733 -0.020878 0.0052618 -8.2845e-05 0.0020233
0.0020808 0.00061534 0.0013761 0.00063614
0.0015374 0.0043904 -0.020866 0.0053339 0.34386 0.11023 0.0013209 -0.0010683
0.00067667 -0.00057135 1.509e-05 0.00027256
-0.0017085 -0.00097581 -7.1664e-05 0.0020169 0.0013226 -0.0010647 0.14934 0.2324
-0.011384 -0.017099 0.00032566 0.001381
0.0014557 0.0025599 0.0020799 0.00061337 0.00068128 -0.0005738 -0.011431 -0.017092
0.075339 0.21509 -0.0057388 -0.013579
0.0015296 -0.0015093 0.0013865 0.00063126 1.6602e-05 0.00027203 0.00032761 0.0013758
-0.005738 -0.01358 0.097932 0.31718
1400000000 0.25897 0.19167 -0.022953 -0.0053668 0.0054803 0.0027602 -0.0021722 0.00056024
0.0023865 0.00085732 0.00012242 -0.0014107
-0.022924 -0.0053897 0.086856 0.35913 -0.013813 0.012813 0.0013904 0.0012767
0.0012279 -0.0010052 0.0011229 -1.5014e-06
0.0054771 0.0027399 -0.013767 0.012871 0.35608 0.056545 7.9557e-05 -0.0020626
2.1888e-06 -0.00045997 0.00031488 0.00019423
-0.0021679 0.000566 0.0013979 0.0012609 8.071e-05 -0.0020607 0.1774 0.20165
-0.017313 -0.0091916 -0.00051847 0.00083171
0.0023868 0.00085992 0.0012204 -0.0010119 2.6834e-06 -0.0004585 -0.017352 -0.0091578
0.10718 0.20883 -0.011955 -0.0079012
0.00011813 -0.0014014 0.0011239 9.2846e-07 0.00031684 0.0001936 -0.00052549 0.00082664
-0.011938 -0.0079217 0.14097 0.30292
1460000000 0.28042 0.14687 -0.019224 0.0061468 0.0055848 -0.0022878 -0.0016184 0.0017222
0.0020471 -0.000565 -0.00038673 -0.00085009
-0.019207 0.0061174 0.12032 0.33631 -0.0051821 0.015106 0.0017707 8.8778e-05
0.00069341 -0.0014363 0.0010401 -0.00059957
0.0055697 -0.0023106 -0.0051241 0.01514 0.36058 0.00254 -0.0016422 -0.0014096
0.00013233 -0.00021695 0.00063373 -0.00033613
-0.0016134 0.0017247 0.0017735 8.2415e-05 -0.0016429 -0.0014126 0.20118 0.1714
-0.017928 -0.0012855 -7.5552e-05 0.0025775
0.0020359 -0.00057707 0.00068985 -0.0014447 0.00012919 -0.00022033 -0.017941 -0.0012501
0.13511 0.19308 -0.012791 -0.0014729
-0.00038597 -0.00085448 0.0010466 -0.00061319 0.00063366 -0.00033475 -8.2812e-05 0.0025786
-0.012784 -0.0014803 0.17268 0.28021
1520000000 0.29165 0.10414 -0.013009 0.01093 0.003027 -0.0043535 0.00015965 0.0026856
0.0020558 -0.0017232 -0.0011218 -8.3896e-05
-0.013011 0.01091 0.15326 0.32089 0.0020577 0.012581 0.0016631 -0.00090866
-0.00017244 -0.0010985 0.00022581 -0.00092058
0.0030091 -0.0043688 0.0021099 0.012582 0.35364 -0.053265 -0.0015229 -0.00019917
0.00047902 -0.000972 1.6153e-05 -0.00016055
0.0001678 0.00269 0.0016532 -0.00091769 -0.0015227 -0.00020332 0.22212 0.13331
-0.015973 0.0052103 0.002265 0.0021269
0.002039 -0.0017314 -0.00018521 -0.0011061 0.0004794 -0.0009767 -0.015972 0.005254
0.16248 0.17779 -0.01206 0.0033541
-0.0011279 -7.4054e-05 0.00021737 -0.0009144 1.8019e-05 -0.00015802 0.00227 0.002127
-0.012066 0.0033405 0.20463 0.25738
1580000000 0.29942 0.057281 -0.0064442 0.01314 -0.0011193 -0.0048445 0.0016073 0.0019001
-0.0001616 -0.0022013 -0.00027726 0.0003644
-0.0064561 0.01313 0.17965 0.29537 0.00538 0.007683 0.00038114 -0.0017226
-0.00064892 -0.00089549 -0.00024953 -0.00077248
-0.0011392 -0.0048423 0.0054061 0.0076667 0.3332 -0.11087 -0.00162 0.0011061
-0.00040008 -0.0011048 0.00016052 -0.00064136
0.0016082 0.0018936 0.00037118 -0.0017213 -0.0016226 0.0011075 0.23353 0.094236
-0.011341 0.010136 0.0028426 0.00032919
-0.00016763 -0.002206 -0.00065478 -0.0008879 -0.00040748 -0.0011115 -0.01132 0.010174
0.18559 0.15829 -0.0091105 0.0086658
-0.00027556 0.00036599 -0.0002464 -0.00078505 0.00015669 -0.00064503 0.0028453 0.00032438
-0.0091167 0.0086636 0.23436 0.22917
1640000000 0.2999 0.015751 -0.0002086 0.01131 -0.0029373 -0.0025442 0.0027881 0.00082308
-0.00083656 -0.0016539 -0.00020342 0.00062419
-0.00022298 0.011304 0.20828 0.27026 0.0057562 0.0031633 -0.00089831 -0.0016371
-0.00097423 -0.0001809 -0.00051895 -0.00053285
-0.0029412 -0.0025292 0.0057612 0.0031377 0.30399 -0.15943 -0.00044843 0.0016916
-0.0012786 -0.00078868 -0.00023493 -0.00022051
0.0027838 0.00081875 -0.00090261 -0.0016381 -0.00044877 0.0016863 0.24364 0.047158
-0.0061756 0.010959 0.0027619 -0.0013165
-0.00084474 -0.0016564 -0.0009741 -0.00016765 -0.0012831 -0.00079305 -0.0061436 0.01098
0.20694 0.13298 -0.0038321 0.010394
-0.0002047 0.00062743 -0.0005204 -0.00053355 -0.0002358 -0.00022318 0.0027659 -0.0013246
-0.0038373 0.0104 0.25858 0.19701
1700000000 0.29099 -0.029644 0.0026026 0.0081652 -0.0035282 0.00024435 0.0029202 -0.0014779
-0.0021085 -0.00070034 0.00070735 0.00030879
0.0025872 0.0081619 0.22588 0.23871 0.0038089 0.00042616 -0.0014948 -0.00045874
-0.00059341 0.00020292 -0.00087555 -0.00041146
-0.0035292 0.00027065 0.0038122 0.00040268 0.2612 -0.19908 0.00084721 0.0014163
-0.0018696 3.4045e-05 -0.00068091 -0.00076872
0.0029213 -0.0014906 -0.0014996 -0.00045457 0.00083593 0.0014178 0.23977 -0.00047677
-0.0026559 0.010697 0.0015322 -0.0025087
-0.0021097 -0.00069408 -0.00059233 0.00020594 -0.0018722 3.2834e-05 -0.0026433 0.010705
0.22292 0.11146 0.0010597 0.010251
0.00071037 0.00030595 -0.0008766 -0.00040538 -0.00068834 -0.00077098 0.0015313 -0.0025101
0.0010593 0.010258 0.27348 0.16171
1760000000 0.27726 -0.077574 0.0041068 0.0048227 -0.0022918 0.00093712 0.00091815 -0.0035531
-0.0015264 0.00076815 0.00038421 -0.00051156
0.0040978 0.0048284 0.25101 0.19859 0.001554 -0.0014456 -0.0011796 0.00032531
-0.00084549 0.00079768 -0.00056659 0.00045865
-0.0022954 0.00094522 0.0015436 -0.0014525 0.21225 -0.23297 0.0013782 0.00065036
-0.001047 0.0016696 -0.0013853 -0.00018261
0.0009126 -0.0035529 -0.0011798 0.00032666 0.0013785 0.00065012 0.23061 -0.049422
0.00064373 0.0092504 -0.00031518 -0.0027449
-0.0015265 0.00078227 -0.00083799 0.00080061 -0.0010481 0.001673 0.00065812 0.0092478
0.23571 0.075671 0.004994 0.0072733
0.00038015 -0.00051474 -0.00056157 0.00045971 -0.00138 -0.00018283 -0.00032234 -0.0027488
0.0049909 0.007276 0.2844 0.12332
1820000000 0.25182 -0.11377 0.0037322 0.0017403 -3.873e-05 0.0024898 -0.0012874 -0.0028649
-0.0010405 0.0011562 -8.5376e-05 -6.7852e-05
0.0037364 0.0017402 0.26059 0.16892 -0.00037778 -0.00025327 -0.0011456 0.0010271
4.9499e-05 0.0010978 -0.00051434 0.00054084
-3.7992e-05 0.0024945 -0.00037808 -0.0002531 0.16184 -0.24852 0.001202 -1.9203e-05
0.00016669 0.0022246 -0.0013198 0.00055066
-0.0012912 -0.0028498 -0.0011418 0.0010376 0.0012017 -2.44e-05 0.20237 -0.094509
0.0021341 0.0070696 -0.0015851 -0.0017676
-0.0010263 0.0011631 6.4118e-05 0.0010972 0.0001654 0.0022242 0.0021429 0.0070694
0.25123 0.046075 0.0059324 0.0033301
-8.1065e-05 -6.7748e-05 -0.0005078 0.00054132 -0.0013231 0.00054685 -0.0015806 -0.0017615
0.0059236 0.0033242 0.28561 0.085955
1880000000 0.21574 -0.15339 0.0012828 1.9313e-05 -0.00042547 0.0020979 -0.003037 -0.0018023
-0.00010194 0.0017797 0.00020961 -0.00044484
0.0012795 2.5492e-05 0.26468 0.12214 -0.0025098 0.00156 -8.3814e-05 0.0016051
0.00043306 0.00095299 0.00016064 0.00092895
-0.00041367 0.0020936 -0.0025022 0.0015704 0.10843 -0.25852 0.0013216 -0.0010118
0.0016995 0.0015755 -0.00074367 0.0014155
-0.003043 -0.0017946 -7.7597e-05 0.0016008 0.0013267 -0.0010104 0.16375 -0.13501
0.002787 0.0045226 -0.0023974 -1.8409e-05
-7.8432e-05 0.0017814 0.00044121 0.00094955 0.0017041 0.0015749 0.0027932 0.004511
0.25244 0.012851 0.0055462 0.0007385
0.0002066 -0.00044917 0.00016907 0.00092736 -0.00074373 0.0014174 -0.0023947 -1.8708e-05
0.0055552 0.00074852 0.28381 0.051303
1940000000 0.1759 -0.17834 -0.00077817 -0.0010899 0.0015605 0.0020899 -0.0035195 0.00085351
0.0015394 0.0010264 -0.0005327 -0.00055302
-0.00077605 -0.001091 0.26456 0.090773 -0.0013356 0.003976 0.00091176 0.0011816
0.0014347 0.00045563 0.00083584 0.00032451
0.0015757 0.0020905 -0.0013093 0.0039863 0.061959 -0.2513 0.00013022 -0.0016502
0.0021837 0.00016168 0.00049929 0.0016509
-0.003504 0.00087183 0.00091607 0.0011733 0.00013136 -0.0016493 0.1126 -0.1659
0.0016774 0.0028321 -0.001825 0.00099723
0.0015485 0.0010179 0.0014328 0.00045024 0.0021811 0.00015437 0.0016769 0.0028237
0.25245 -0.026208 0.0040606 -0.0026872
-0.00054349 -0.00055063 0.00083731 0.00031784 0.0005091 0.001645 -0.0018166 0.0010014
0.0040526 -0.0026903 0.2711 0.014623
2000000000 0.12959 -0.19251 -0.0043344 0.0010976 0.0026258 0.0015542 -0.0021582 0.0034192
0.0012391 -5.3236e-05 -0.00039343 0.00040852
-0.0043209 0.0010876 0.25056 0.055182 -0.0010783 0.0058654 0.0015198 0.00033403
0.0011346 -0.0009467 0.00047511 4.4676e-05
0.0026377 0.001545 -0.0010497 0.0058685 0.018004 -0.23632 -0.0009215 -0.00088658
0.0016446 -0.00098337 0.0016726 0.00099243
-0.0021473 0.0034233 0.0015228 0.00033172 -0.00092546 -0.00088624 0.059767 -0.17744
-0.00036879 0.002159 -0.00060818 0.0020948
0.0012316 -5.475e-05 0.0011272 -0.00094729 0.0016442 -0.00099032 -0.00036803 0.0021663
0.24512 -0.060357 0.00042727 -0.0037529
