!Keysight Technologies,M9804A,MY58100912,A.14.10.03
!Date: Thursday, April 27, 2023 10:28:33
!Correction: S11(C  6-Port  ) 
!S12(C  6-Port  ) 
!S13(C  6-Port  ) 
!S14(C  6-Port  ) 
!S15(C  6-Port  ) 
!S16(C  6-Port  ) 
!S21(C  6-Port  ) 
!S22(C  6-Port  ) 
!S23(C  6-Port  ) 
!S24(C  6-Port  ) 
!S25(C  6-Port  ) 
!S26(C  6-Port  ) 
!S31(C  6-Port  ) 
!S32(C  6-Port  ) 
!S33(C  6-Port  ) 
!S34(C  6-Port  ) 
!S35(C  6-Port  ) 
!S36(C  6-Port  ) 
!S41(C  6-Port  ) 
!S42(C  6-Port  ) 
!S43(C  6-Port  ) 
!S44(C  6-Port  ) 
!S45(C  6-Port  ) 
!S46(C  6-Port  ) 
!S51(C  6-Port  ) 
!S52(C  6-Port  ) 
!S53(C  6-Port  ) 
!S54(C  6-Port  ) 
!S55(C  6-Port  ) 
!S56(C  6-Port  ) 
!S61(C  6-Port  ) 
!S62(C  6-Port  ) 
!S63(C  6-Port  ) 
!S64(C  6-Port  ) 
!S65(C  6-Port  ) 
!S66(C  6-Port  ) 
!S6P File: Measurement: :
# Hz S  RI   R 50
500000000 -0.33782 -0.020775 -0.010529 -0.0027271 -0.0078964 0.012851 -0.0032532 0.012368
0.011205 0.0043439 -0.0038546 0.0082843
-0.010623 -0.0035684 -0.41894 -0.03929 0.0066288 -0.011657 0.0016691 0.012754
0.0074243 0.0028337 0.0023407 0.014563
-0.0074482 0.012863 0.0067843 -0.011167 -0.26319 0.22037 0.0071308 0.0039366
-0.00084441 0.0083333 0.0020383 0.012261
-0.002853 0.010911 0.0015206 0.012683 0.0070074 0.003805 -0.33097 0.058621
-0.019864 -0.0065322 0.014975 0.024096
0.011352 0.0036606 0.0071391 0.0025829 -0.0007951 0.0088991 -0.020024 -0.0056858
-0.23308 -0.17094 -0.025847 0.0039144
-0.0037666 0.0068969 0.0021701 0.014169 0.0018994 0.011901 0.015936 0.024264
-0.025265 0.0043518 -0.28107 -0.09046
560000000 -0.31473 0.13713 -0.026991 -0.060303 0.0014419 0.011426 0.0059848 0.010919
0.0094901 0.0045509 0.010425 0.0081631
-0.025933 -0.059783 -0.37512 0.11594 -0.04242 -0.034875 0.013096 0.003429
-0.012125 -0.0044212 0.0031341 -0.0028749
0.00082702 0.011823 -0.042604 -0.035012 -0.18079 0.26565 -2.5758e-05 -0.0044222
0.019473 0.004658 0.0075293 -0.0054454
0.0062996 0.010358 0.013675 0.0035306 -7.4783e-05 -0.0043946 -0.30581 0.14622
0.0011425 -0.022998 0.0035805 -0.018559
0.010171 0.0041813 -0.013434 -0.0031155 0.019391 0.0035987 0.00013362 -0.023256
-0.28719 0.0028485 0.0036099 -0.046018
0.011012 0.0075356 0.0030472 -0.0011433 0.0072273 -0.0058753 0.0041864 -0.018315
0.0037162 -0.046749 -0.33049 0.0515
620000000 -0.27074 0.11952 -0.023005 0.0074362 0.0039116 0.0077621 0.0077119 -0.005174
0.01189 -0.0013056 0.0015204 -0.0022902
-0.022728 0.0073214 -0.40117 0.07086 -0.019395 0.00024512 -0.00098454 -0.0025265
0.010564 -0.0068969 0.0015909 -0.0029367
0.0034689 0.0078145 -0.019293 0.00051451 -0.15007 0.27526 -0.0010147 -0.0050357
-0.0038357 -0.0028006 0.0080142 -0.0027053
0.0071772 -0.0056266 -0.0012938 -0.0025104 -0.00096472 -0.0047841 -0.26276 0.1584
-0.040506 -0.017538 0.012876 0.024661
0.010701 -0.0013772 0.011007 -0.0063128 -0.0035971 -0.0035699 -0.040828 -0.018122
-0.20955 -0.034954 -0.040158 0.014949
3.2395e-05 -0.0030342 0.0011962 -0.0031995 0.0079106 -0.0034428 0.01293 0.02423
-0.039898 0.015172 -0.25556 0.024278
680000000 -0.22806 0.20301 -0.027723 -0.012416 0.0052118 0.0045792 0.0012298 -0.007573
-0.0029539 -0.011544 0.0039075 -0.0070249
-0.027484 -0.012356 -0.38471 0.16531 -0.032412 0.00016094 -0.001467 -0.00075095
-0.0023281 -0.0091692 -0.0015183 -0.0022619
0.0053466 0.0046086 -0.03235 0.00017285 -0.099043 0.29305 -0.0010461 -0.00046689
-0.0017426 -8.2648e-05 -0.003602 -0.0087644
0.00047538 -0.0067421 -0.0014028 -0.00079619 -0.00098456 -0.00041949 -0.2175 0.20593
-0.026112 -0.0052237 -0.0090032 -0.0084742
-0.003085 -0.010915 -0.0026435 -0.0093721 -0.0018851 -0.00034196 -0.026011 -0.0058582
-0.25231 0.062879 -0.0070818 -0.0073719
0.0048347 -0.006622 -0.0010944 -0.0022192 -0.0037295 -0.0083173 -0.0092084 -0.0084519
-0.0076486 -0.0072675 -0.25515 0.11822
740000000 -0.18487 0.198 -0.037226 0.02648 0.011912 -0.0058123 -0.00089949 -0.0040851
-0.0049225 -0.0033328 -0.006065 0.0029867
-0.036709 0.026203 -0.33363 0.18534 -0.033807 0.035235 -0.001127 -0.0062279
-0.011913 0.0077332 -0.0024062 -0.0050569
0.011965 -0.0054624 -0.033424 0.035377 -0.065749 0.29253 -0.0019394 0.0031615
-0.0032281 -0.0042322 -0.0021773 0.00094026
-0.00073885 -0.0045263 -0.0015993 -0.0062039 -0.0018489 0.0032187 -0.19967 0.2144
-0.042896 -0.003105 0.022267 0.012874
-0.0045254 -0.0033977 -0.011178 0.0076492 -0.0033912 -0.0042733 -0.042579 -0.0031821
-0.1576 0.085489 -0.03967 0.0032613
-0.0063747 0.0026103 -0.0033746 -0.0050499 -0.0024293 0.001037 0.022053 0.01257
-0.04001 0.0030835 -0.24418 0.12727
800000000 -0.15093 0.23539 -0.021371 0.017924 0.0047806 -0.010239 -0.0046462 -0.001645
-0.0035874 0.0026829 0.0034412 0.00069945
-0.021747 0.017804 -0.33393 0.25408 -0.0068731 0.033991 -0.0024876 0.0023358
-0.00079299 0.0034879 0.00091529 0.0055673
0.0047199 -0.010304 -0.0067726 0.034063 -0.022844 0.31494 0.00078966 0.0018918
0.00024305 0.0037371 -0.0018196 0.0014817
-0.0050979 -0.0013901 -0.0024233 0.0025627 0.00079809 0.0018001 -0.16962 0.24084
-0.027254 0.016937 0.013032 -0.0098761
-0.0040971 0.0032753 -0.00066507 0.0034013 0.00024556 0.0037515 -0.027285 0.016742
-0.19703 0.11211 -0.016796 0.01961
0.003212 0.0012037 0.0012601 0.0059982 -0.0017724 0.0013475 0.01282 -0.010118
-0.01642 0.01934 -0.23169 0.17509
860000000 -0.11581 0.25595 -0.015716 0.031041 -0.0034603 -0.0094179 -0.0021864 0.0015462
0.0045113 0.0051877 -0.0028802 -0.0023981
-0.01586 0.031293 -0.28623 0.2952 0.0093859 0.033608 2.9742e-05 0.0024125
0.0043051 0.00065107 0.0031107 0.00048976
-0.0034905 -0.0092991 0.009436 0.033601 0.02564 0.32193 -0.00039368 0.00010055
0.0026496 -0.0011643 0.0019178 0.0041427
-0.0019566 0.0013602 9.4853e-05 0.0024805 -0.0003134 4.5575e-05 -0.13316 0.25196
-0.015292 0.021158 -0.005554 -0.0089416
0.0046986 0.0050693 0.0042891 0.00053067 0.0027399 -0.0010053 -0.01568 0.021102
-0.14403 0.15872 -0.021489 0.016966
-0.0028421 -0.0023711 0.0031365 0.00036731 0.0018804 0.0042239 -0.0055435 -0.0089041
-0.02191 0.0171 -0.18211 0.21521
920000000 -0.089408 0.27727 0.0065853 0.036789 -0.0091846 -0.0040526 -0.0011529 0.0019491
0.001612 0.0018359 0.0028787 -0.0016991
0.0065859 0.036802 -0.25574 0.31547 0.02864 0.020312 0.0020639 0.0010805
0.0073694 -0.00040244 0.0040214 -0.0027975
-0.009183 -0.0039739 0.028708 0.02022 0.073084 0.32179 0.0021133 -0.00014615
0.0018034 -0.00049817 0.0010953 -0.0012793
-0.0012196 0.0018978 0.0020201 0.0011541 0.0020198 -0.00016004 -0.10687 0.26787
-0.0070852 0.031651 0.0029707 -0.0064256
0.0017231 0.0019676 0.0073146 -0.00064155 0.0017486 -0.00051301 -0.0073529 0.031651
-0.13033 0.16478 0.00074085 0.026137
0.0028826 -0.0015726 0.0041523 -0.0027221 0.0012409 -0.0011939 0.0027124 -0.0060422
0.00016302 0.026233 -0.18289 0.22954
980000000 -0.042286 0.29442 0.018776 0.028348 -0.0084172 0.0045588 0.0023917 0.002846
0.0043663 -0.0017719 -0.0029041 -0.0023171
0.0188 0.028303 -0.20406 0.34783 0.032869 0.0031768 0.0023355 -0.00042209
0.00175 -0.0061709 -0.00036657 -0.002364
-0.0083995 0.0045569 0.03286 0.0031028 0.1196 0.31383 0.00064949 -0.0013269
0.0002287 -0.0023245 0.0014175 -0.00031063
0.0023674 0.0030501 0.0022371 -0.00043053 0.00064483 -0.0013133 -0.067546 0.27733
0.011402 0.02897 -0.0084443 -0.0066418
0.0042872 -0.0019257 0.0018739 -0.0063328 0.00029124 -0.0024497 0.011364 0.029044
-0.098025 0.18851 0.0066979 0.018208
-0.0030489 -0.0023691 -0.0006283 -0.0026548 0.0014357 -0.0003952 -0.0085168 -0.0065506
0.0065183 0.018483 -0.13894 0.26862
1040000000 -0.00021622 0.30194 0.033075 0.015682 -0.0012226 0.006538 0.0024018 0.00027597
0.00025913 -0.0035818 -0.00092063 -0.0016592
0.032997 0.015678 -0.16848 0.3611 0.027951 -0.015934 0.0014478 -0.0019211
-0.0023634 -0.002698 -0.0015085 -0.0030941
-0.001162 0.0065139 0.02792 -0.016047 0.16626 0.29939 -0.00062295 -0.0016055
-0.0015699 -0.0012334 -0.0004827 -0.0010995
0.0023271 0.00035687 0.0014291 -0.0018665 -0.00058077 -0.0015622 -0.039083 0.28626
0.021733 0.015748 -0.0026144 0.00075942
-8.7392e-05 -0.0036446 -0.0023949 -0.0027365 -0.0015716 -0.0011371 0.021866 0.015811
-0.065399 0.19455 0.014252 0.015589
-0.00095402 -0.0015367 -0.0016136 -0.0028648 -0.00049915 -0.0012177 -0.0025312 0.00090249
0.014158 0.01592 -0.1145 0.28867
1100000000 0.045457 0.30842 0.034604 -0.0058588 0.0026333 0.0036132 0.0019696 -0.0011809
-0.0020784 -0.0029614 -0.0037818 0.00044125
0.034569 -0.0058403 -0.12484 0.37762 0.013522 -0.027933 -0.00023135 -0.0018603
-0.0033951 -0.00063193 -0.0034483 -0.00018181
0.0025981 0.0035537 0.013413 -0.028014 0.21325 0.27713 -0.0019493 0.00016068
-0.0019593 0.00046456 -0.0011031 -0.00034173
0.002094 -0.0011307 -0.00020566 -0.0019469 -0.0019001 0.00014437 0.0023729 0.28897
0.025518 0.0020563 -0.0028163 -9.8208e-05
-0.0020753 -0.0030398 -0.0033787 -0.00065872 -0.0019134 0.00045965 0.025561 0.0020891
-0.047216 0.20605 0.018635 0.0062601
-0.0037826 0.0004632 -0.0033624 -0.00035924 -0.0010936 -0.00034306 -0.0026054 -3.9299e-05
0.018696 0.006273 -0.067719 0.31308
1160000000 0.096244 0.30242 0.022119 -0.021665 0.0022122 -0.00031278 -0.00031526 -0.0020894
-0.0040412 -0.00048672 -0.00085344 0.0039331
0.02208 -0.02165 -0.080533 0.38139 -0.005093 -0.028279 -0.0016237 -0.0015559
-0.002606 0.0026135 -0.001346 0.0018158
0.0021984 -0.00035983 -0.0051916 -0.028286 0.25573 0.24447 -0.00084959 0.0017326
-0.00046891 0.0019554 -0.0009868 0.00021377
-0.00028535 -0.0020847 -0.0016742 -0.001518 -0.00086121 0.0017286 0.041742 0.28419
0.020609 -0.013323 -0.003248 0.0043502
-0.0041367 -0.00052981 -0.002573 0.0025772 -0.00055734 0.0018688 0.020618 -0.013326
-0.01427 0.21252 0.017238 -0.0019722
-0.00075914 0.0039394 -0.0014011 0.0017942 -0.00086676 8.3932e-05 -0.0029777 0.0043416
0.017562 -0.0019936 -0.02073 0.3142
1220000000 0.14143 0.28981 0.0082992 -0.029691 -0.0015677 -0.00025445 -3.0455e-05 -0.00077661
-0.0025218 0.002444 0.0012662 0.0019342
0.0083563 -0.029662 -0.03583 0.3924 -0.017477 -0.019801 -0.0024937 0.00051366
2.703e-06 0.0029519 -0.00059772 0.0019405
-0.0016031 -0.00026011 -0.017558 -0.019746 0.29431 0.204 0.00072301 0.0018789
0.00056121 0.0013087 0.00042196 0.00066727
-1.9195e-05 -0.00078733 -0.002516 0.00051149 0.00071624 0.0018401 0.08223 0.27352
0.0090631 -0.019492 0.0013212 0.0014179
-0.002593 0.0024035 2.0808e-05 0.0029 0.00057594 0.0012782 0.0091623 -0.019456
0.009423 0.21973 0.011851 -0.014007
0.0013035 0.0019667 -0.00063273 0.0019336 0.00028826 0.00070213 0.001399 0.0013843
0.012131 -0.014034 0.012564 0.32683
1280000000 0.19049 0.26613 -0.0093407 -0.027122 -0.0014496 0.0029285 -0.00097181 -0.001759
-0.00073337 0.0031493 0.002416 0.0010115
-0.0093242 -0.027105 0.010274 0.38251 -0.023512 -0.0072649 -0.0010902 0.0014363
0.0017001 0.00173 0.00078669 0.0018785
-0.0015271 0.0029096 -0.023609 -0.007185 0.32341 0.15867 0.0016931 9.8292e-05
0.0011634 0.00035161 0.00031932 0.00014899
-0.00096338 -0.0017307 -0.0011013 0.0014689 0.0016443 0.00010579 0.11816 0.25422
-0.0013284 -0.020646 -0.00076982 0.000671
-0.00056743 0.003114 0.0016257 0.0017483 0.0011167 0.00030413 -0.0013076 -0.020732
0.045093 0.2217 0.0011027 -0.015389
0.0023969 0.0009461 0.00062442 0.0019106 0.00018884 0.00028411 -0.000761 0.00048868
0.0013963 -0.015571 0.0586 0.3248
1340000000 0.22699 0.23099 -0.01822 -0.017055 0.0014331 0.0042762 -0.0015772 -0.00076986
0.0015806 0.0026146 0.0017109 -0.0015234
-0.018214 -0.017108 0.049654 0.3732 -0.020798 0.0051063 -0.0001651 0.0020885
0.0019382 0.00072999 0.0014081 0.00073059
0.0015123 0.0042462 -0.020768 0.0052364 0.34413 0.1106 0.0012718 -0.00098243
0.0007298 -0.00046294 0.00013452 0.00027967
-0.0015946 -0.0007596 -0.00017015 0.0020534 0.0012927 -0.00097093 0.14938 0.23214
-0.010934 -0.016734 0.00046024 0.0013867
0.00157 0.0027138 0.0018902 0.00075428 0.00063715 -0.00044713 -0.010886 -0.016791
0.074676 0.2156 -0.0055441 -0.013274
0.0016107 -0.0014766 0.0013269 0.00064522 0.000113 0.00026253 0.0005158 0.0013031
-0.0054128 -0.013457 0.097721 0.31733
1400000000 0.259 0.19121 -0.022778 -0.0057305 0.0053947 0.0026177 -0.0019631 0.00058121
0.0025375 0.00079217 0.00021898 -0.0015121
-0.02278 -0.0057533 0.086573 0.35909 -0.013767 0.012601 0.0013676 0.0014094
0.0012067 -0.0007743 0.0011754 5.187e-05
0.0053817 0.0026041 -0.013749 0.012694 0.35657 0.056648 0.00017075 -0.0019494
9.376e-05 -0.00040371 0.00036476 0.00018109
-0.0019588 0.00062706 0.0013996 0.0013863 0.00014101 -0.0019185 0.17726 0.2015
-0.016644 -0.009116 -0.00038958 0.00075266
0.0024897 0.00083183 0.0012056 -0.00080011 6.3955e-05 -0.0004136 -0.016667 -0.0092317
0.1069 0.20933 -0.011538 -0.0077702
0.00012524 -0.0014158 0.0011842 -1.4616e-05 0.00030899 0.00020316 -0.00049108 0.00062573
-0.011539 -0.0080425 0.14076 0.30308
1460000000 0.2803 0.14659 -0.019262 0.0057304 0.0054683 -0.0022759 -0.0014234 0.0015414
0.0020888 -0.00068499 -0.00033264 -0.001003
-0.019257 0.0057399 0.12016 0.33642 -0.0052674 0.014952 0.0019265 0.00023349
0.00080018 -0.0012774 0.001116 -0.00061964
0.005452 -0.0023364 -0.0051989 0.014964 0.36109 0.0023712 -0.0013976 -0.0013871
0.00017525 -0.00026426 0.00063774 -0.00031046
-0.0014992 0.0015509 0.0018636 0.00024121 -0.0014467 -0.0013685 0.20095 0.17134
-0.017289 -0.001663 -3.096e-05 0.0023839
0.0020496 -0.00065759 0.00085889 -0.0012355 0.00018371 -0.00019627 -0.017358 -0.0017133
0.1352 0.1935 -0.012402 -0.001594
-0.00032345 -0.00096781 0.0011312 -0.00060885 0.00070576 -0.0004017 -0.0001119 0.0024094
-0.012515 -0.0018146 0.17248 0.28034
1520000000 0.29133 0.10394 -0.013304 0.010631 0.0028502 -0.0042593 9.1639e-05 0.0024338
0.0020123 -0.0018015 -0.0011603 -0.00012017
-0.013309 0.010629 0.15318 0.32101 0.0019338 0.012488 0.001851 -0.00095348
1.6477e-05 -0.0011057 0.00025326 -0.0009643
0.0028843 -0.0042602 0.0019353 0.012499 0.35386 -0.053669 -0.0014122 -0.00035045
0.00053949 -0.00103 7.3857e-06 -0.00022817
6.16e-05 0.0024577 0.0018165 -0.00095173 -0.0013916 -0.00033368 0.22191 0.13331
-0.01561 0.0044907 0.0021453 0.0019336
0.0019029 -0.0017895 5.8722e-05 -0.0010779 0.00056373 -0.00098964 -0.015647 0.0044493
0.16273 0.17773 -0.011794 0.0030799
-0.001245 -0.00013901 0.00024498 -0.0010176 4.1287e-05 -0.0002036 0.0021593 0.0019358
-0.011909 0.0029911 0.20447 0.25755
1580000000 0.29914 0.057317 -0.0068526 0.01309 -0.0012578 -0.0047022 0.0014019 0.0017681
-0.00024199 -0.0022626 -0.00033592 0.00042048
-0.0068738 0.013049 0.1796 0.29547 0.0051818 0.0076505 0.00047394 -0.0019469
-0.00052578 -0.0010497 -0.00025587 -0.00086327
-0.0012413 -0.0047015 0.00522 0.0076318 0.3331 -0.11129 -0.0017099 0.00088017
-0.00035736 -0.0012209 0.00012311 -0.0006414
0.0014111 0.001748 0.00046249 -0.0019246 -0.0016664 0.00094167 0.23339 0.094321
-0.011521 0.0093062 0.0026026 0.00021575
-0.0002316 -0.0023094 -0.00048712 -0.0011437 -0.0003846 -0.0011583 -0.011587 0.009292
0.18584 0.15789 -0.0090641 0.0082631
-0.00037324 0.0003447 -0.00023626 -0.00085889 0.00013623 -0.00063172 0.0025501 0.00021371
-0.0092428 0.0082926 0.23423 0.22945
1640000000 0.29963 0.015872 -0.00062403 0.011516 -0.0029337 -0.0023958 0.0025672 0.0008985
-0.0009286 -0.0016027 -0.00025252 0.00073579
-0.00063866 0.01146 0.2083 0.2703 0.0055748 0.0031962 -0.0010553 -0.0018592
-0.00099546 -0.00037102 -0.00059877 -0.00056355
-0.0029238 -0.0023794 0.005604 0.0031879 0.30378 -0.15978 -0.00074692 0.0015724
-0.0013568 -0.00088398 -0.00023626 -0.00023517
0.0026418 0.00090387 -0.00101 -0.0018249 -0.0006846 0.0015667 0.24354 0.047316
-0.0067527 0.010406 0.0025445 -0.0012758
-0.00096176 -0.0014956 -0.0010603 -0.0003977 -0.001316 -0.00091564 -0.0067822 0.01037
0.20682 0.13242 -0.0039813 0.010106
-0.00027824 0.0007256 -0.00064967 -0.00061689 -0.00036097 -0.00023034 0.0024451 -0.0013402
-0.0041364 0.010161 0.25843 0.1973
1700000000 0.29091 -0.029421 0.0023409 0.0085432 -0.0034101 0.00040773 0.0028025 -0.0012352
-0.0021853 -0.00062732 0.0006936 0.00038795
0.0023609 0.0085425 0.22582 0.23872 0.0036468 0.0005641 -0.0017681 -0.00046341
-0.00076321 6.3803e-05 -0.00094637 -0.00035949
-0.0034146 0.00045419 0.0036569 0.00052271 0.2608 -0.19921 0.00062216 0.0016455
-0.0019734 -6.1435e-05 -0.0007253 -0.00070002
0.0027693 -0.0012574 -0.0017327 -0.00047988 0.00062727 0.0015526 0.2398 -0.00020012
-0.0034497 0.010594 0.0013523 -0.0023239
-0.0022135 -0.00064728 -0.00083485 2.3907e-05 -0.0019972 -2.4126e-05 -0.0035117 0.010615
0.22245 0.11094 0.00077585 0.010032
0.00067708 0.00042439 -0.00095374 -0.00032754 -0.00070788 -0.00071994 0.0012166 -0.0022915
0.00075538 0.01019 0.27341 0.16191
1760000000 0.2775 -0.077283 0.004054 0.0053052 -0.0021276 0.0010175 0.0010118 -0.0033016
-0.0014939 0.00095597 0.00045801 -0.00038739
0.0040789 0.0053087 0.25092 0.19868 0.0014482 -0.0012015 -0.0013746 0.00053167
-0.0010781 0.00085739 -0.00060956 0.00055813
-0.002137 0.0010208 0.0014635 -0.0011987 0.2121 -0.23287 0.0014944 0.0010283
-0.0012182 0.0017767 -0.0014357 -5.7725e-05
0.00096705 -0.0032837 -0.0013318 0.00049358 0.0013909 0.00094393 0.23076 -0.049252
7.7403e-06 0.0095925 -0.0002839 -0.0024627
-0.0015169 0.00093092 -0.0010994 0.0009146 -0.0011807 0.001829 -0.00011561 0.0096015
0.23499 0.07548 0.0046323 0.0073453
0.00042185 -0.00028059 -0.00064373 0.0005572 -0.001316 7.8939e-05 -0.00043964 -0.0023712
0.0046356 0.0074788 0.28429 0.12358
1820000000 0.25202 -0.11365 0.0040012 0.0021068 0.0001778 0.0024587 -0.0010417 -0.002738
-0.0010247 0.0012506 4.6842e-05 -0.00013457
0.0039781 0.0021356 0.2605 0.16902 -0.00034727 7.9959e-05 -0.0010813 0.0013261
-9.9905e-05 0.0012905 -0.00043735 0.00064269
0.00020788 0.002508 -0.00034311 7.0825e-05 0.1616 -0.24832 0.0015928 0.00016722
5.404e-05 0.0024665 -0.001187 0.00062332
-0.0010195 -0.0028131 -0.0011877 0.0012744 0.0014584 0.00022062 0.20257 -0.094497
0.0018299 0.0076682 -0.0014677 -0.0015345
-0.00093136 0.0012757 -0.00010032 0.0013642 0.00011904 0.0024966 0.0017553 0.0077152
0.25048 0.04633 0.0057217 0.0035344
3.3878e-05 -9.6843e-05 -0.00041238 0.00063161 -0.0011238 0.00055219 -0.0015587 -0.0013675
0.005794 0.0035516 0.28566 0.086248
1880000000 0.21606 -0.15344 0.0017278 0.00018211 -0.0002698 0.0019303 -0.0027118 -0.0018588
2.2908e-05 0.0018944 0.00026255 -0.00041672
0.0017377 0.00016864 0.26466 0.12237 -0.0022585 0.0017376 0.00025531 0.001773
0.00044963 0.0011877 0.00025806 0.00093531
-0.00018944 0.0018772 -0.0022863 0.0017857 0.10848 -0.25833 0.0017247 -0.0011599
0.0018475 0.001845 -0.00064427 0.00138
-0.0028458 -0.0018157 0.00014833 0.0016711 0.0016628 -0.00108 0.1639 -0.13509
0.0028593 0.0051778 -0.0022778 7.7406e-05
0.00020442 0.0019606 0.00063164 0.0012352 0.001968 0.0018031 0.0027163 0.0052171
0.25188 0.01346 0.0054718 0.00095518
0.00025278 -0.00038814 0.00031597 0.00080567 -0.00055678 0.001317 -0.0021424 0.00028811
0.0055787 0.0010056 0.28377 0.051663
1940000000 0.17603 -0.17854 -0.00042044 -0.0012448 0.001592 0.0018448 -0.0033228 0.00053123
0.0017174 0.0009849 -0.00052242 -0.0006281
-0.00035424 -0.0011529 0.26472 0.090868 -0.00091817 0.0039836 0.001259 0.0010364
0.0016764 0.00063786 0.00091298 0.00023594
0.0016784 0.0018413 -0.00090912 0.0039462 0.061975 -0.2513 0.0002255 -0.0020115
0.0025069 0.00017124 0.00055938 0.0015042
-0.0033322 0.00064533 0.0011785 0.0011475 0.00024708 -0.0018423 0.11264 -0.16598
0.0020514 0.0031517 -0.0015681 0.00099231
0.0017845 0.00099623 0.0016749 0.00056952 0.0024716 0.0001319 0.0019676 0.0033687
0.2523 -0.025528 0.0040579 -0.0023741
-0.00032333 -0.00080126 0.00087249 0.00026954 0.00056804 0.001327 -0.0013591 0.0012305
0.0041572 -0.0024067 0.27109 0.01485
2000000000 0.12955 -0.19261 -0.003995 0.00077003 0.0024197 0.0013795 -0.0022196 0.0030029
0.0013985 -0.00027322 -0.00043725 0.00036005
-0.0039977 0.0008263 0.25085 0.055047 -0.00076746 0.0054839 0.00164 -6.4631e-06
0.0014178 -0.0010008 0.00044475 -1.779e-05
0.0024905 0.001388 -0.00072748 0.0054644 0.017865 -0.23644 -0.0012106 -0.0011729
0.001915 -0.0012799 0.0016625 0.00085144
-0.0021704 0.0031079 0.0016392 0.00015383 -0.001056 -0.0012212 0.059878 -0.17756
0.00012836 0.0023144 -0.00037076 0.002075
0.001414 -0.00032898 0.0014167 -0.0010882 0.0018607 -0.0013831 0.00017948 0.0026588
0.24529 -0.059733 0.00054997 -0.003523
-0.00055212 0.00040862 0.00044898 -5.08e-05 0.0015254 0.00081281 -0.00012385 0.0021168
