!Keysight Technologies,M9804A,MY58100912,A.14.10.03
!Date: Thursday, April 27, 2023 10:28:33
!Correction: S11(C  6-Port  ) 
!S12(C  6-Port  ) 
!S13(C  6-Port  ) 
!S14(C  6-Port  ) 
!S15(C  6-Port  ) 
!S16(C  6-Port  ) 
!S21(C  6-Port  ) 
!S22(C  6-Port  ) 
!S23(C  6-Port  ) 
!S24(C  6-Port  ) 
!S25(C  6-Port  ) 
!S26(C  6-Port  ) 
!S31(C  6-Port  ) 
!S32(C  6-Port  ) 
!S33(C  6-Port  ) 
!S34(C  6-Port  ) 
!S35(C  6-Port  ) 
!S36(C  6-Port  ) 
!S41(C  6-Port  ) 
!S42(C  6-Port  ) 
!S43(C  6-Port  ) 
!S44(C  6-Port  ) 
!S45(C  6-Port  ) 
!S46(C  6-Port  ) 
!S51(C  6-Port  ) 
!S52(C  6-Port  ) 
!S53(C  6-Port  ) 
!S54(C  6-Port  ) 
!S55(C  6-Port  ) 
!S56(C  6-Port  ) 
!S61(C  6-Port  ) 
!S62(C  6-Port  ) 
!S63(C  6-Port  ) 
!S64(C  6-Port  ) 
!S65(C  6-Port  ) 
!S66(C  6-Port  ) 
!S6P File: Measurement: :
# Hz S  RI   R 50
500000000 -0.34157 -0.019781 -0.011954 -0.0032821 -0.0083156 0.013378 -0.0021005 0.011682
0.012015 0.0054502 -0.002564 0.0075685
-0.011892 -0.0033013 -0.41984 -0.03905 0.0058348 -0.011607 0.0023852 0.012398
0.0073359 0.0029544 0.0020836 0.013439
-0.0083105 0.013284 0.0058693 -0.011631 -0.26416 0.22128 0.0073764 0.0036746
-0.0007012 0.0089012 0.00187 0.011441
-0.0026706 0.011665 0.0022374 0.011978 0.0069897 0.0035772 -0.33158 0.060015
-0.019726 -0.0059165 0.015339 0.022915
0.011546 0.0046471 0.0070848 0.002434 -0.0014285 0.0084198 -0.020894 -0.0060856
-0.23732 -0.17054 -0.026527 0.0055024
-0.0024278 0.0077427 0.0025394 0.013065 0.001767 0.011596 0.015971 0.025131
-0.026124 0.0052041 -0.28279 -0.08734
560000000 -0.3133 0.13586 -0.026123 -0.061296 0.00097734 0.011736 0.0052162 0.010299
0.0090628 0.0046273 0.010073 0.0076539
-0.026129 -0.06121 -0.37636 0.11665 -0.043145 -0.035026 0.012901 0.0038085
-0.013001 -0.0028912 0.0034111 -0.00079132
0.00094457 0.011976 -0.043007 -0.03487 -0.181 0.26697 0.00044528 -0.0045433
0.018711 0.0042886 0.007122 -0.0065444
0.0069424 0.010199 0.013711 0.0033923 0.00046032 -0.0046984 -0.30557 0.14739
0.0013659 -0.023583 0.0035008 -0.017833
0.0087499 0.0040335 -0.013321 -0.0029493 0.018704 0.0045099 0.0013958 -0.024986
-0.28865 0.002274 0.0026011 -0.047539
0.011838 0.0055148 0.0041131 -0.0019139 0.0066234 -0.0066513 0.0034871 -0.019025
0.0020339 -0.046406 -0.33039 0.054895
620000000 -0.27191 0.12263 -0.023268 0.0078209 0.0045508 0.0089443 0.0081094 -0.0052292
0.010886 -0.0012069 0.00042179 -0.0016756
-0.023285 0.0078206 -0.40168 0.072316 -0.019469 0.00077519 -0.00082265 -0.0026154
0.010477 -0.0060877 0.0015104 -0.0022869
0.0043701 0.0090112 -0.019478 0.00081039 -0.1497 0.27662 -0.00076447 -0.0054543
-0.0035645 -0.0037072 0.007823 -0.0028883
0.0076206 -0.0042263 -0.0010408 -0.0025161 -0.00068996 -0.0054184 -0.2636 0.15841
-0.039823 -0.017999 0.011716 0.024325
0.011026 -0.0020666 0.010066 -0.0060073 -0.0040321 -0.0030568 -0.041107 -0.016567
-0.21066 -0.031826 -0.03878 0.015195
0.0010131 -0.0013587 0.0013418 -0.0026465 0.0085601 -0.0035983 0.011302 0.024291
-0.04021 0.014415 -0.25607 0.024494
680000000 -0.2293 0.20389 -0.028068 -0.011909 0.0053954 0.0047741 0.00058069 -0.0071159
-0.0028363 -0.011115 0.0051591 -0.0078628
-0.02805 -0.011954 -0.38475 0.16706 -0.032459 0.00068855 -0.001448 -0.00056159
-0.0025502 -0.0091612 -0.00076435 -0.0021683
0.0055547 0.0046434 -0.032439 0.00071613 -0.09836 0.29413 -0.0012693 -0.00050463
-0.0017055 0.00012457 -0.0032134 -0.0088315
0.0015876 -0.0073492 -0.0012065 -0.00071724 -0.001061 -0.00073121 -0.21705 0.20627
-0.026095 -0.0044488 -0.0094151 -0.0089668
-0.0030806 -0.010936 -0.0024509 -0.0091587 -0.001613 -8.6223e-06 -0.025546 -0.0046188
-0.25341 0.0665 -0.0080705 -0.0053231
0.004277 -0.0070904 -0.0014197 -0.0022205 -0.0032291 -0.008748 -0.0098473 -0.0082071
-0.0072614 -0.0068632 -0.25385 0.1212
740000000 -0.18373 0.19949 -0.036447 0.026711 0.01279 -0.0055632 -0.00023065 -0.0042861
-0.0041391 -0.00276 -0.0052917 0.0023825
-0.036448 0.026654 -0.33259 0.1862 -0.033162 0.035759 -0.00085536 -0.0065795
-0.01194 0.0074102 -0.0035876 -0.0049499
0.012656 -0.0055035 -0.033127 0.035787 -0.065131 0.29304 -0.0018577 0.0031672
-0.0028273 -0.0051279 -0.0022908 0.00034323
-0.00099335 -0.0042146 -0.0014496 -0.0064073 -0.0020529 0.0030167 -0.1996 0.2151
-0.042482 -0.0018633 0.023043 0.012872
-0.0051269 -0.0030354 -0.012448 0.0077376 -0.0031204 -0.0044904 -0.043363 -0.0020487
-0.15908 0.087043 -0.040111 0.0052969
-0.0063019 0.0028349 -0.0028292 -0.0054413 -0.0024365 0.00094279 0.0229 0.012508
-0.03873 0.0054765 -0.2437 0.13173
800000000 -0.15011 0.23609 -0.021031 0.017402 0.0047195 -0.010627 -0.0050925 -0.0012615
-0.0038185 0.0033252 0.0039953 0.0005116
-0.021035 0.017396 -0.33312 0.25436 -0.0066398 0.033798 -0.0025666 0.0023827
-0.00078474 0.0037287 0.0013704 0.0050469
0.0047928 -0.010706 -0.0065596 0.03376 -0.022467 0.31481 0.00063764 0.0019175
0.00041425 0.0036605 -0.0014928 0.0012416
-0.0044943 -0.0013853 -0.002342 0.0021806 0.00086963 0.0017829 -0.16928 0.24135
-0.027044 0.017225 0.012808 -0.0098001
-0.0037261 0.0022923 -0.00085556 0.0032893 0.00026016 0.0035767 -0.027075 0.016936
-0.19529 0.11524 -0.014647 0.019426
0.0032951 0.00036542 0.00088853 0.0049432 -0.0017294 0.0012228 0.012537 -0.0099964
-0.014984 0.02036 -0.23049 0.17679
860000000 -0.11497 0.25587 -0.015363 0.030857 -0.003495 -0.009745 -0.0017963 0.0011625
0.004158 0.0045904 -0.0032367 -0.0019216
-0.015375 0.03082 -0.28567 0.29529 0.0095714 0.033516 0.00029726 0.0022096
0.003844 0.0002987 0.002719 0.00065368
-0.0035764 -0.0097062 0.0096225 0.033532 0.025571 0.322 -0.00024943 1.2981e-06
0.0023157 -0.0011644 0.0016608 0.0039866
-0.00208 0.00093551 0.00019173 0.0024016 -0.00041884 -9.2248e-06 -0.13256 0.25206
-0.015272 0.020722 -0.0056524 -0.0089866
0.0041051 0.004984 0.0039289 0.00046644 0.0024242 -0.0012301 -0.015175 0.02132
-0.14279 0.16098 -0.022217 0.017248
-0.0032485 -0.0021332 0.0031827 0.00084694 0.0018195 0.0040449 -0.0049543 -0.0090017
-0.022525 0.016371 -0.18185 0.21612
920000000 -0.089009 0.27733 0.0065805 0.036323 -0.0094423 -0.0042368 -0.0011352 0.0018388
0.0017339 0.0020022 0.0030538 -0.0014081
0.0065417 0.036314 -0.25556 0.31564 0.028694 0.020252 0.0016613 0.0010619
0.0076299 -0.00019551 0.0038765 -0.0029822
-0.0093988 -0.0042538 0.028723 0.020196 0.07303 0.32227 0.0020255 -0.00020055
0.0017487 -0.00033647 0.0011389 -0.0012083
-0.0010766 0.0019651 0.0018254 0.00094184 0.002029 -0.00018324 -0.10635 0.26805
-0.0069441 0.031865 0.0031805 -0.0065001
0.0019523 0.001816 0.0074641 -0.00042747 0.0017279 -0.00051568 -0.0066037 0.031617
-0.12873 0.16714 0.0010312 0.026054
0.0029392 -0.0018296 0.0038563 -0.0030729 0.00094901 -0.0013175 0.0027879 -0.0065148
0.0010203 0.026298 -0.17982 0.23315
980000000 -0.041518 0.2943 0.018889 0.028137 -0.0087452 0.0045981 0.0021536 0.002916
0.0042743 -0.0019699 -0.0030553 -0.0022165
0.018852 0.028144 -0.2038 0.34777 0.03306 0.0030723 0.0021772 -0.00035867
0.0017742 -0.0064163 -0.00062629 -0.002617
-0.0087551 0.0046102 0.033062 0.0029586 0.11971 0.31446 0.00044823 -0.0014034
-3.2433e-05 -0.0024711 0.0012804 -0.00036344
0.0021919 0.0027019 0.0020917 -0.00027664 0.00043772 -0.0014529 -0.067073 0.27718
0.012016 0.029103 -0.0082298 -0.0065359
0.0039684 -0.0020752 0.0016846 -0.0063493 5.3137e-05 -0.0024609 0.011947 0.029303
-0.096753 0.19027 0.0063184 0.017647
-0.0031946 -0.0024322 -0.00055708 -0.0024435 0.0011145 -0.00031264 -0.0085492 -0.0069068
0.0069987 0.01798 -0.13737 0.27072
1040000000 0.00042141 0.30179 0.033081 0.01551 -0.0013404 0.0066994 0.0021997 0.00034585
-2.2736e-05 -0.0033082 -0.00067378 -0.0018139
0.033052 0.015549 -0.16836 0.36126 0.028142 -0.016155 0.0012854 -0.0018609
-0.0023024 -0.0028385 -0.0015303 -0.0029658
-0.001295 0.0066671 0.028112 -0.016231 0.16667 0.30017 -0.00068571 -0.001569
-0.0016226 -0.00096286 -0.0004953 -0.001059
0.0021846 0.00055372 0.0012733 -0.0019695 -0.00067057 -0.00155 -0.038812 0.28632
0.022307 0.015668 -0.0025865 0.00060333
-2.7763e-05 -0.0033565 -0.0024821 -0.0028655 -0.0017003 -0.00097248 0.022517 0.015557
-0.064011 0.19587 0.014876 0.014974
-0.00078714 -0.0014234 -0.0016513 -0.0029574 -0.00063417 -0.0011214 -0.0026323 0.00038647
0.014514 0.015742 -0.11219 0.29008
1100000000 0.046037 0.30818 0.034647 -0.0061273 0.002624 0.0036364 0.0019968 -0.00086188
-0.0021167 -0.0028367 -0.0039086 0.00074063
0.034626 -0.0060814 -0.12478 0.3778 0.013554 -0.028397 -0.00023963 -0.0017677
-0.0038154 -0.00056264 -0.0036167 -1.8449e-05
0.0026439 0.0036438 0.013485 -0.028445 0.21428 0.27772 -0.0019392 0.00024482
-0.0019483 0.00064016 -0.00098087 -0.00015903
0.0020682 -0.0009884 -0.00023194 -0.0017956 -0.0019371 0.00022005 0.0025685 0.2891
0.026095 0.0014229 -0.0029093 -0.00021509
-0.00224 -0.0030015 -0.0038349 -0.00066574 -0.0019626 0.00069737 0.026067 0.0015124
-0.045866 0.20688 0.019033 0.0059112
-0.0038331 0.00052077 -0.0036658 -0.00014399 -0.00095114 -0.00013548 -0.0028765 -0.00016342
0.019045 0.0059321 -0.065799 0.31466
1160000000 0.096508 0.30191 0.021981 -0.022096 0.0021812 -0.0002915 -7.418e-05 -0.0018349
-0.0040346 -0.00041587 -0.00085852 0.003937
0.021997 -0.022054 -0.080481 0.38216 -0.005517 -0.028608 -0.0017022 -0.0014248
-0.0027 0.002631 -0.0013568 0.0017795
0.0021576 -0.00027669 -0.0056246 -0.028602 0.25696 0.24452 -0.00084707 0.001852
-0.00054574 0.0019731 -0.00098268 0.00025204
-0.00012995 -0.0018419 -0.0016794 -0.0014164 -0.00079875 0.0018674 0.04193 0.28443
0.020965 -0.014214 -0.003482 0.0041767
-0.0039952 -0.00041391 -0.0026317 0.0026726 -0.00049715 0.0020258 0.0209 -0.01415
-0.012373 0.21371 0.017724 -0.0024237
-0.000845 0.0039564 -0.0014103 0.0017258 -0.00090554 0.00018022 -0.003465 0.0040195
0.01791 -0.002877 -0.018277 0.31539
1220000000 0.14141 0.28967 0.00793 -0.030011 -0.001718 -0.00019138 0.00015952 -0.00070239
-0.0025365 0.0023947 0.001473 0.0019371
0.0079354 -0.029968 -0.035467 0.39316 -0.017966 -0.019936 -0.0024393 0.00062536
5.4191e-05 0.0031998 -0.00045766 0.0021071
-0.001727 -0.00018811 -0.018038 -0.019896 0.29533 0.20323 0.00076868 0.0018659
0.00068602 0.0013228 0.00037607 0.00068942
0.00021175 -0.00069585 -0.002437 0.00059842 0.0007572 0.001872 0.08243 0.27379
0.0089342 -0.020539 0.00098536 0.0015307
-0.0025023 0.002457 7.0265e-05 0.0032199 0.00069895 0.0013018 0.0088584 -0.020452
0.011181 0.2204 0.011853 -0.014716
0.0014064 0.0020432 -0.00048664 0.0021061 0.0003361 0.00071676 0.00096416 0.0015208
0.01185 -0.014786 0.014921 0.32727
1280000000 0.19042 0.26607 -0.010013 -0.027342 -0.0015026 0.0031073 -0.00080928 -0.0019605
-0.00066475 0.0029759 0.0025987 0.00086987
-0.0099994 -0.027326 0.010848 0.38323 -0.024028 -0.0071225 -0.00093112 0.0014419
0.0019129 0.0018643 0.00095482 0.0019745
-0.001506 0.0031262 -0.024065 -0.0070311 0.32378 0.1576 0.0017659 9.2364e-05
0.0012723 0.00030012 0.00034746 0.00017172
-0.00085355 -0.0019965 -0.00095331 0.0014569 0.0017223 5.6638e-05 0.11872 0.25447
-0.0020309 -0.021508 -0.00086667 0.00068396
-0.00069147 0.0030225 0.002012 0.0018177 0.0011754 0.00029141 -0.0019203 -0.021591
0.046932 0.22181 0.0010225 -0.0164
0.0025766 0.00087023 0.00092186 0.0018554 0.00030915 0.00024286 -0.00090043 0.00069376
0.00094279 -0.016313 0.060806 0.3254
1340000000 0.22697 0.23122 -0.018951 -0.01674 0.001534 0.0044862 -0.0017018 -0.00096425
0.0015111 0.0026309 0.0015695 -0.0015506
-0.018926 -0.016751 0.050665 0.37339 -0.021059 0.0055961 -1.4366e-05 0.0020791
0.0022447 0.00058201 0.0014292 0.00053154
0.0015431 0.0044787 -0.021063 0.005693 0.34381 0.10955 0.0013361 -0.0011054
0.00073255 -0.00057366 0.00015833 0.00014523
-0.0016567 -0.00091467 -9.4804e-06 0.0020197 0.0013889 -0.0011184 0.14986 0.2322
-0.012008 -0.017274 0.00011633 0.0014554
0.0015186 0.0026002 0.0021452 0.00059706 0.00079067 -0.0006238 -0.012199 -0.017157
0.076638 0.21556 -0.0064765 -0.014034
0.0016049 -0.001621 0.0014201 0.00060519 0.00017468 0.00021185 9.6777e-05 0.0015671
-0.0064327 -0.014001 0.099912 0.31687
1400000000 0.25938 0.19156 -0.023235 -0.0050255 0.0056128 0.0027729 -0.0021457 0.00062252
0.0024498 0.00090242 0.00011057 -0.0015352
-0.023203 -0.0050314 0.087725 0.35889 -0.013747 0.013144 0.0014564 0.0012286
0.0013055 -0.0010872 0.0011635 -7.2786e-05
0.0056181 0.0027725 -0.013726 0.013209 0.35569 0.056252 5.0014e-05 -0.002101
-3.8018e-06 -0.00048251 0.00023163 0.00014895
-0.0021445 0.00054337 0.0014583 0.0012753 9.7234e-05 -0.0021068 0.17782 0.20113
-0.017914 -0.0090007 -0.00045988 0.0010028
0.0024787 0.00085981 0.0012715 -0.0010427 7.1097e-05 -0.00055584 -0.017965 -0.0090478
0.10847 0.20911 -0.012728 -0.0080539
-3.1866e-05 -0.0015011 0.0010944 -5.616e-05 0.00026822 0.00022543 -0.0005708 0.0011314
-0.012408 -0.0081124 0.14265 0.30245
1460000000 0.2807 0.14663 -0.019203 0.0066661 0.0057265 -0.002302 -0.0016529 0.0016317
0.0021129 -0.00068667 -0.00045219 -0.00096368
-0.01918 0.0066532 0.12098 0.33572 -0.0050532 0.015376 0.0018353 0.00012516
0.00067345 -0.0014163 0.0010415 -0.00062577
0.0056982 -0.0023251 -0.0049874 0.015388 0.36019 0.0024904 -0.0015774 -0.0014541
0.00020443 -0.00027594 0.0006502 -0.00030989
-0.0016447 0.0016832 0.0018347 7.2049e-05 -0.0016541 -0.0014516 0.20128 0.17085
-0.018434 -0.00084637 9.774e-05 0.0026813
0.002123 -0.00065265 0.00065457 -0.0014945 0.00019891 -0.00028505 -0.018532 -0.00064659
0.13645 0.19289 -0.013439 -0.0012139
-0.00036711 -0.0009068 0.0010489 -0.0007039 0.00056701 -0.00032455 8.1088e-05 0.00272
-0.013796 -0.001213 0.17405 0.27941
1520000000 0.29197 0.10374 -0.012786 0.011342 0.0031705 -0.004457 0.0001679 0.0026566
0.0020353 -0.0018047 -0.0011603 -6.299e-05
-0.012781 0.011314 0.15357 0.32017 0.0023353 0.012641 0.0016685 -0.0010437
-0.00017359 -0.0011055 0.00020807 -0.0010072
0.0031329 -0.0044748 0.0023664 0.012639 0.35332 -0.052995 -0.00164 -0.00016477
0.00041375 -0.0010138 8.1616e-06 -0.00022891
0.00017329 0.0026221 0.0016637 -0.0010023 -0.0015786 -0.00017068 0.22222 0.13296
-0.016166 0.0060194 0.0025356 0.0021367
0.0020434 -0.0017601 -0.00017843 -0.0010722 0.00043263 -0.0010307 -0.015992 0.006024
0.16397 0.17769 -0.012547 0.0038934
-0.0012823 -6.7573e-05 0.00016353 -0.00096381 9.3468e-05 -0.00020798 0.0025306 0.0020299
-0.01257 0.0040437 0.20586 0.25654
1580000000 0.29946 0.056921 -0.0060378 0.013354 -0.0011006 -0.0049263 0.0015439 0.0018774
-0.00025377 -0.0023191 -0.00030811 0.00038647
-0.0060501 0.013344 0.1796 0.29462 0.0055711 0.0076958 0.00030722 -0.0018157
-0.00070404 -0.00094922 -0.0002952 -0.00079967
-0.0011327 -0.0049259 0.0056048 0.007694 0.33301 -0.11035 -0.0016234 0.0011174
-0.00048867 -0.001209 7.1168e-05 -0.00060515
0.0015875 0.0019204 0.00032086 -0.0018093 -0.0016196 0.0011107 0.23326 0.093662
-0.011029 0.010815 0.0029048 0.00027296
-0.00023882 -0.0022978 -0.00067764 -0.00094553 -0.00049325 -0.0012162 -0.011037 0.010753
0.18671 0.1578 -0.0092131 0.0092432
-0.00031297 0.00042434 -0.0002756 -0.00080449 0.00010599 -0.00071541 0.0029325 0.0002203
-0.0090182 0.0091631 0.23543 0.22817
1640000000 0.2997 0.015364 0.00026217 0.011282 -0.0029831 -0.0026455 0.0027627 0.00085264
-0.0009755 -0.0016021 -0.00023034 0.00070658
0.0002466 0.011282 0.20785 0.2697 0.0059073 0.0030771 -0.00097292 -0.0016761
-0.00097925 -0.00017528 -0.00060816 -0.00049268
-0.0030081 -0.0026506 0.0059256 0.0030499 0.30427 -0.15879 -0.00047543 0.0017902
-0.0013652 -0.00079201 -0.0003188 -0.00030516
0.0027565 0.00084225 -0.00099021 -0.0016669 -0.00050334 0.001715 0.24297 0.047088
-0.0054572 0.011313 0.0028543 -0.0014177
-0.0010007 -0.0016071 -0.0010177 -0.00018466 -0.0014447 -0.00081038 -0.005606 0.011391
0.20805 0.13232 -0.0036823 0.011073
-0.00020921 0.00065258 -0.00056029 -0.00050736 -0.0002719 -0.00031693 0.0028666 -0.0013278
-0.0037484 0.010898 0.25919 0.19604
1700000000 0.29074 -0.029845 0.0029629 0.0078967 -0.0036179 0.00021945 0.0029089 -0.0014767
-0.0021736 -0.00059143 0.00082237 0.00030635
0.0029462 0.0078982 0.22531 0.23838 0.0038587 0.00029932 -0.0016078 -0.00038164
-0.00064048 0.00018927 -0.00086544 -0.00030405
-0.0036066 0.00025431 0.0038661 0.00025709 0.26154 -0.19867 0.0007994 0.0015652
-0.0020231 0.00011883 -0.00068597 -0.00078024
0.0029329 -0.0014675 -0.0015631 -0.00036442 0.00086163 0.0015603 0.23925 -0.0003351
-0.0020545 0.01066 0.0014437 -0.0025062
-0.0021582 -0.00055502 -0.00061886 0.00020842 -0.0019825 0.00017803 -0.00191 0.01069
0.22388 0.11053 0.0012608 0.010647
0.00075464 0.00033671 -0.00091923 -0.00032095 -0.00071799 -0.00076966 0.0015263 -0.0027658
0.0011992 0.010726 0.27396 0.16075
1760000000 0.27699 -0.077523 0.0042802 0.0044534 -0.0023616 0.00097195 0.00096471 -0.0033968
-0.0015309 0.00093771 0.00034848 -0.00049597
0.0042563 0.0044492 0.25034 0.19859 0.0015682 -0.001598 -0.0011704 0.00047955
-0.0008533 0.00084392 -0.00054455 0.00050642
-0.0023886 0.00097035 0.0015714 -0.0016152 0.21287 -0.23264 0.0014873 0.00070037
-0.0009984 0.0018916 -0.0014453 -0.00025426
0.00095943 -0.0035166 -0.0011729 0.00044152 0.0014023 0.00077332 0.23037 -0.049136
0.0011307 0.0089383 -0.00038325 -0.0029043
-0.0014809 0.00091372 -0.00085936 0.00084081 -0.0009931 0.0019014 0.0011904 0.0087817
0.23628 0.07479 0.0053268 0.0075458
0.00043769 -0.00053811 -0.0004691 0.000569 -0.0014305 -0.00024774 -0.00037934 -0.0027462
0.0055054 0.0076189 0.28473 0.12234
1820000000 0.25152 -0.11342 0.0036404 0.0013184 -9.2028e-05 0.0024949 -0.0012537 -0.0029745
-0.00082675 0.0012584 3.9798e-06 -0.00014619
0.0036382 0.0013307 0.26005 0.16921 -0.000503 -0.00036536 -0.0010467 0.0011198
2.3968e-05 0.0011558 -0.00037301 0.00048473
-5.9669e-05 0.0025058 -0.00049602 -0.00035756 0.16225 -0.24869 0.0013006 2.5006e-05
0.00018338 0.0022865 -0.0012266 0.00066727
-0.0012048 -0.0029345 -0.00099 0.0011063 0.0013091 -4.5606e-05 0.2021 -0.093898
0.0023575 0.0066541 -0.0016278 -0.0018301
-0.00081444 0.0011721 8.7528e-05 0.0011211 0.00031459 0.0022737 0.0021803 0.0066507
0.25168 0.045375 0.0065391 0.0033867
-0.0001156 -0.00013552 -0.00045858 0.00049247 -0.0013671 0.00071916 -0.0016585 -0.0018052
0.0064884 0.0033202 0.28601 0.085116
1880000000 0.21579 -0.15293 0.0010745 -0.00024491 -0.0003882 0.0021704 -0.0029618 -0.0018146
8.1138e-05 0.0015894 0.00022171 -0.00047795
0.0010788 -0.00024022 0.26442 0.12258 -0.0026269 0.0015292 7.8995e-05 0.0015979
0.00051301 0.00098939 0.00026678 0.00086287
-0.00041157 0.0022039 -0.002621 0.0015414 0.10871 -0.25859 0.0013942 -0.0010063
0.0018509 0.00145 -0.00062748 0.0014721
-0.0029876 -0.0018744 9.6962e-05 0.0015985 0.0013761 -0.0010395 0.16445 -0.13451
0.002722 0.0041751 -0.0025774 1.0459e-05
3.1971e-05 0.0017299 0.00055239 0.0010082 0.0019105 0.0014954 0.0029512 0.0042403
0.25277 0.011756 0.006068 0.00059508
0.0002081 -0.00054474 0.00024522 0.00090741 -0.00042648 0.001433 -0.0026555 9.2775e-06
0.0059472 0.00046996 0.28443 0.050664
1940000000 0.17639 -0.17797 -0.001097 -0.0011564 0.0014812 0.0021316 -0.0034192 0.00076798
0.0016088 0.00092361 -0.00068971 -0.00053888
-0.001101 -0.0011526 0.26453 0.091223 -0.001406 0.003999 0.0010478 0.0010404
0.0015542 0.00046392 0.00073179 0.00025571
0.0014972 0.0021351 -0.0013941 0.0039988 0.062294 -0.25116 0.00016631 -0.001826
0.0021719 1.0356e-06 0.0005177 0.0014581
-0.0034552 0.00076682 0.00099259 0.00098741 0.00011708 -0.0017165 0.11328 -0.16556
0.0015387 0.0026701 -0.0018774 0.0011794
0.0016091 0.00082825 0.0015484 0.00042193 0.0022167 -7.1067e-05 0.0015423 0.0024718
0.25235 -0.027128 0.0043301 -0.0030524
-0.00061682 -0.00058228 0.00081936 0.00027364 0.00058585 0.0015301 -0.001727 0.0014399
0.0042905 -0.002946 0.27152 0.013687
2000000000 0.13039 -0.19244 -0.0044387 0.0012696 0.0026654 0.0016006 -0.0022858 0.0035095
0.00092117 -0.00012769 -0.00041043 0.00028662
-0.0044348 0.0012616 0.25079 0.055478 -0.0010807 0.0057705 0.0013852 0.0002053
0.0011761 -0.0010933 0.00047865 -4.4105e-05
0.0026734 0.0016172 -0.0010422 0.0058211 0.018633 -0.23682 -0.0011628 -0.00099184
0.0016403 -0.0012136 0.0016248 0.00081376
-0.002261 0.003431 0.0013613 0.00017851 -0.0010877 -0.00094821 0.060349 -0.17769
-0.00039 0.0021505 -0.00053908 0.0020703
0.0010542 -0.00020085 0.0012243 -0.0011485 0.0015309 -0.0012905 -0.00088957 0.0021109
0.24497 -0.060864 0.00077369 -0.0041558
