!Keysight Technologies,M9804A,MY58100912,A.14.10.03
!Date: Thursday, April 27, 2023 10:28:33
!Correction: S11(C  6-Port  ) 
!S12(C  6-Port  ) 
!S13(C  6-Port  ) 
!S14(C  6-Port  ) 
!S15(C  6-Port  ) 
!S16(C  6-Port  ) 
!S21(C  6-Port  ) 
!S22(C  6-Port  ) 
!S23(C  6-Port  ) 
!S24(C  6-Port  ) 
!S25(C  6-Port  ) 
!S26(C  6-Port  ) 
!S31(C  6-Port  ) 
!S32(C  6-Port  ) 
!S33(C  6-Port  ) 
!S34(C  6-Port  ) 
!S35(C  6-Port  ) 
!S36(C  6-Port  ) 
!S41(C  6-Port  ) 
!S42(C  6-Port  ) 
!S43(C  6-Port  ) 
!S44(C  6-Port  ) 
!S45(C  6-Port  ) 
!S46(C  6-Port  ) 
!S51(C  6-Port  ) 
!S52(C  6-Port  ) 
!S53(C  6-Port  ) 
!S54(C  6-Port  ) 
!S55(C  6-Port  ) 
!S56(C  6-Port  ) 
!S61(C  6-Port  ) 
!S62(C  6-Port  ) 
!S63(C  6-Port  ) 
!S64(C  6-Port  ) 
!S65(C  6-Port  ) 
!S66(C  6-Port  ) 
!S6P File: Measurement: :
# Hz S  RI   R 50
500000000 -0.34027 -0.020171 -0.011787 -0.0037061 -0.0082552 0.013044 -0.0034279 0.012304
0.010928 0.0044919 -0.0029639 0.0088942
-0.01178 -0.0036713 -0.41994 -0.038814 0.005689 -0.011211 0.0018878 0.012514
0.0071828 0.0020748 0.0025168 0.01349
-0.0082694 0.013043 0.0056672 -0.011234 -0.26448 0.22188 0.0070765 0.0040059
-0.0011439 0.0079885 0.0021157 0.011766
-0.0034087 0.012334 0.0019063 0.012517 0.0070866 0.0040075 -0.33165 0.05954
-0.020625 -0.0063491 0.015513 0.02392
0.01097 0.0044946 0.0072085 0.0020799 -0.001168 0.007954 -0.020603 -0.0063509
-0.23661 -0.16878 -0.027142 0.0044622
-0.0029796 0.0088093 0.0025544 0.013591 0.002158 0.011758 0.015375 0.023986
-0.027022 0.0043827 -0.28273 -0.086557
560000000 -0.31422 0.13529 -0.02691 -0.059888 0.00062981 0.012048 0.0051623 0.0098563
0.0088999 0.0051838 0.010486 0.0074212
-0.02687 -0.059834 -0.37583 0.11765 -0.042752 -0.034283 0.013135 0.0040913
-0.012568 -0.0042739 0.0026304 -0.00028476
0.0006466 0.012039 -0.042804 -0.034232 -0.18162 0.26719 -2.4149e-05 -0.0047424
0.019459 0.0047454 0.0065292 -0.0064637
0.0051291 0.0098631 0.013146 0.0041066 -1.9492e-05 -0.0047646 -0.30587 0.14807
0.00023706 -0.02388 0.0026549 -0.018626
0.0088089 0.0051597 -0.012482 -0.0041004 0.019365 0.0047042 0.00024005 -0.02398
-0.28907 0.0058161 0.0027867 -0.047493
0.010344 0.0072829 0.0027761 -0.00044052 0.0065875 -0.0063591 0.0027509 -0.018665
0.0028779 -0.047516 -0.33023 0.053605
620000000 -0.27186 0.12176 -0.023938 0.0078705 0.0041894 0.0082939 0.0075468 -0.0046322
0.011061 -0.0018185 0.0008802 -0.0019437
-0.023914 0.0078661 -0.40185 0.072006 -0.01946 0.00083846 -0.00073125 -0.0022656
0.010026 -0.0062885 0.0016819 -0.0026494
0.0042039 0.0082796 -0.019491 0.00082613 -0.15001 0.27738 -0.0010565 -0.0050508
-0.0030945 -0.0027249 0.0081843 -0.0036609
0.0075803 -0.0047159 -0.00072753 -0.0022852 -0.0010118 -0.0050963 -0.26293 0.15923
-0.04081 -0.016621 0.011959 0.02399
0.011224 -0.0016096 0.010025 -0.0063194 -0.0031556 -0.0025995 -0.040891 -0.016653
-0.21209 -0.03347 -0.03995 0.016349
0.00080335 -0.0020366 0.001727 -0.0026805 0.008396 -0.0036633 0.011958 0.024055
-0.039935 0.016126 -0.2569 0.025615
680000000 -0.22899 0.20474 -0.027828 -0.011516 0.0057914 0.004665 0.0010512 -0.0071997
-0.0024537 -0.010941 0.0044895 -0.0068565
-0.027806 -0.011525 -0.38471 0.16676 -0.032209 0.00053871 -0.0013582 -0.00080312
-0.0020335 -0.0091466 -0.0012184 -0.0023874
0.0058116 0.0046479 -0.032197 0.00060099 -0.098085 0.29441 -0.00098748 -0.00060465
-0.0012524 -0.0001848 -0.00344 -0.0088638
0.0010471 -0.0072294 -0.0013443 -0.00081475 -0.0009848 -0.00062704 -0.21688 0.20651
-0.026502 -0.0041795 -0.0090733 -0.0082238
-0.0025259 -0.010906 -0.0020576 -0.0090597 -0.0011925 -0.0001734 -0.026489 -0.0042335
-0.25255 0.066051 -0.0073348 -0.00676
0.0044415 -0.0068958 -0.0012192 -0.0022879 -0.0033477 -0.0088605 -0.0090396 -0.0080893
-0.0073036 -0.0067977 -0.25545 0.1215
740000000 -0.18432 0.19964 -0.036111 0.026922 0.012413 -0.0058344 -0.00074802 -0.0042125
-0.0045542 -0.0031029 -0.0057894 0.0029573
-0.03611 0.026897 -0.3327 0.18591 -0.032713 0.035538 -0.0011507 -0.0065798
-0.011823 0.0076922 -0.0019699 -0.0053643
0.012374 -0.005832 -0.032648 0.035613 -0.064676 0.29319 -0.0018175 0.0031092
-0.0030826 -0.005016 -0.0021234 0.0012513
-0.00069055 -0.0042212 -0.0011637 -0.0065814 -0.001818 0.0031121 -0.1993 0.21535
-0.04263 -0.0024319 0.022674 0.012856
-0.0045304 -0.0029782 -0.011806 0.0078332 -0.0030874 -0.0049984 -0.042655 -0.0023795
-0.15694 0.086 -0.039928 0.0057484
-0.0058616 0.0030214 -0.0021259 -0.0051235 -0.0022121 0.001092 0.022612 0.012908
-0.039934 0.005619 -0.24366 0.13155
800000000 -0.15003 0.23651 -0.020671 0.017644 0.0049409 -0.010669 -0.0044159 -0.0016798
-0.0038658 0.0022664 0.0034213 0.00060302
-0.020654 0.01763 -0.33295 0.25433 -0.0064247 0.03378 -0.00233 0.0021922
-0.00088531 0.0033147 0.0011695 0.005228
0.0049318 -0.01067 -0.0063694 0.033816 -0.022235 0.3149 0.00077927 0.001796
0.00051169 0.0035422 -0.0018785 0.0011849
-0.0044279 -0.0016519 -0.0023133 0.0022238 0.00076681 0.0018171 -0.1689 0.24171
-0.026932 0.017126 0.012996 -0.010027
-0.0037421 0.0022959 -0.00082475 0.0033264 0.00056002 0.0035721 -0.026946 0.017216
-0.1962 0.11466 -0.015608 0.019764
0.0034075 0.00062799 0.0011427 0.0052409 -0.0018602 0.0011865 0.012965 -0.010052
-0.015577 0.019749 -0.2302 0.17703
860000000 -0.11475 0.25609 -0.015158 0.030746 -0.0035171 -0.009873 -0.0019938 0.0011786
0.0041957 0.0045012 -0.0028809 -0.0022857
-0.015174 0.030724 -0.28593 0.29496 0.0094982 0.033458 0.00019541 0.0023065
0.0043489 0.00047942 0.0031103 0.00039723
-0.0035293 -0.0098613 0.0095561 0.033455 0.025676 0.32203 -0.00034937 3.7449e-05
0.0025194 -0.0013688 0.0019079 0.0039878
-0.0020186 0.0012342 0.00018821 0.0023001 -0.00034676 5.5825e-05 -0.13252 0.25215
-0.014885 0.021383 -0.0050652 -0.0092453
0.0042904 0.0045184 0.0043131 0.00048345 0.0025049 -0.0013238 -0.014896 0.021427
-0.14298 0.16089 -0.020959 0.017721
-0.002827 -0.0023008 0.0031247 0.00046055 0.0018874 0.0039327 -0.0049208 -0.0091852
-0.020948 0.01775 -0.18113 0.21716
920000000 -0.088376 0.27717 0.0067716 0.036363 -0.0094282 -0.0043515 -0.0013134 0.0016213
0.0016214 0.0019677 0.0029475 -0.0018319
0.0067422 0.036345 -0.25561 0.31562 0.028737 0.0203 0.0018008 0.00090842
0.0074384 -0.00027151 0.0041176 -0.0028683
-0.0094268 -0.0043341 0.028788 0.020253 0.073149 0.3224 0.0019837 -0.00022204
0.0017375 -0.00038397 0.00093641 -0.0012447
-0.0013147 0.0016293 0.0018212 0.00093278 0.0019776 -0.00021243 -0.10629 0.26818
-0.0068682 0.031756 0.0028429 -0.0068015
0.0016331 0.0019475 0.0074894 -0.00031077 0.0017306 -0.00037695 -0.0068243 0.031808
-0.12823 0.16673 0.0010669 0.025945
0.0030108 -0.001915 0.0040235 -0.0028254 0.00082265 -0.0012014 0.0028418 -0.0068147
0.0010482 0.025913 -0.18051 0.23224
980000000 -0.041575 0.29458 0.018944 0.028119 -0.0087797 0.004542 0.0021737 0.002898
0.0042412 -0.0020898 -0.003253 -0.0023565
0.018908 0.028118 -0.20389 0.34769 0.033167 0.0029302 0.0022203 -0.00036865
0.0018411 -0.0065436 -0.0006348 -0.0025799
-0.0087665 0.004556 0.033182 0.002872 0.11987 0.31464 0.00046762 -0.0013693
8.3347e-05 -0.0025904 0.0011552 -0.00033989
0.0021601 0.0029096 0.0022295 -0.00035721 0.0004703 -0.0013628 -0.067115 0.27759
0.012006 0.028862 -0.0084164 -0.0068148
0.0042153 -0.0021227 0.0017773 -0.0065105 9.1281e-05 -0.0025757 0.012059 0.028875
-0.09659 0.18992 0.0069477 0.018541
-0.0031909 -0.0022751 -0.00056968 -0.002624 0.0011513 -0.00041415 -0.0083478 -0.0068087
0.0069153 0.018496 -0.13696 0.27086
1040000000 0.00083102 0.30164 0.033201 0.01532 -0.0014121 0.0065978 0.0021744 0.00045424
9.2605e-05 -0.0032059 -0.00082721 -0.0015332
0.033168 0.015333 -0.1685 0.36102 0.028222 -0.016341 0.0013292 -0.0019137
-0.0023246 -0.002808 -0.0015654 -0.0029616
-0.0013858 0.0065814 0.028179 -0.016388 0.16693 0.30029 -0.00068979 -0.0015074
-0.0017409 -0.00087914 -0.00059529 -0.00099329
0.0021661 0.00045056 0.0013323 -0.0019111 -0.00069621 -0.0015162 -0.03869 0.28665
0.022454 0.015611 -0.002635 0.00057924
7.4278e-05 -0.0031808 -0.0024423 -0.0027725 -0.0017533 -0.0009008 0.02251 0.015553
-0.06426 0.19581 0.014753 0.015502
-0.00088274 -0.0014819 -0.0015948 -0.0029732 -0.00064347 -0.00098108 -0.002683 0.00052815
0.014738 0.015507 -0.11176 0.29008
1100000000 0.046025 0.30791 0.034593 -0.0063184 0.0026386 0.0037171 0.0019798 -0.00096711
-0.002146 -0.0028651 -0.0038483 0.00068187
0.034574 -0.0062983 -0.12516 0.37772 0.013591 -0.028507 -0.00022839 -0.001764
-0.0038438 -0.000599 -0.0035553 -6.7126e-05
0.0026562 0.0037115 0.013505 -0.02855 0.21457 0.27782 -0.0019336 0.00029341
-0.001931 0.00073899 -0.00099701 -0.00011769
0.0019781 -0.00096992 -0.00023631 -0.0017446 -0.0019394 0.00030174 0.0028583 0.28945
0.026272 0.0014286 -0.0028733 -0.00020253
-0.0021484 -0.0028475 -0.0038616 -0.00056151 -0.0019443 0.00075067 0.026289 0.0013897
-0.045625 0.20658 0.01887 0.0056283
-0.0038926 0.00066563 -0.0035985 -8.8202e-05 -0.00097275 -0.00010872 -0.0028491 -0.00017214
0.018888 0.0056358 -0.0655 0.31457
1160000000 0.096621 0.302 0.021968 -0.022277 0.0021189 -0.00026354 -0.00015179 -0.0018329
-0.003974 -0.00045143 -0.00074056 0.0039783
0.021979 -0.022246 -0.080663 0.38224 -0.005704 -0.028773 -0.0016749 -0.0014196
-0.0026935 0.0026888 -0.0015297 0.0019415
0.0021353 -0.00026617 -0.0058005 -0.028754 0.25749 0.24458 -0.00072919 0.0018232
-0.00054924 0.002105 -0.00078871 0.00029225
-0.00015333 -0.0018221 -0.0016665 -0.0014307 -0.00072241 0.0018103 0.042307 0.28469
0.020875 -0.014286 -0.0034051 0.0042571
-0.0039569 -0.00045299 -0.0026659 0.0027004 -0.00052566 0.0020914 0.020903 -0.014336
-0.01267 0.21352 0.017898 -0.0025599
-0.00077108 0.0040085 -0.0015243 0.0018438 -0.00081971 0.00030094 -0.0034205 0.0041612
0.017774 -0.0025439 -0.018663 0.3156
1220000000 0.14142 0.28947 0.0077608 -0.030172 -0.0017405 -0.00014756 0.00028593 -0.00076889
-0.0024582 0.0023639 0.0014255 0.0020585
0.0077778 -0.030143 -0.035677 0.39345 -0.018074 -0.019961 -0.0024424 0.000555
0.00015741 0.0032331 -0.00054182 0.002181
-0.0017364 -0.0001281 -0.018145 -0.019899 0.29589 0.203 0.00083362 0.0018611
0.00077941 0.0012705 0.0003127 0.00060323
0.0002888 -0.00076103 -0.00244 0.00058691 0.00084088 0.0018747 0.083137 0.27394
0.0089287 -0.020695 0.00089814 0.0014703
-0.0024446 0.0023762 0.00015008 0.0032349 0.0007841 0.001304 0.0089136 -0.020699
0.010987 0.22033 0.011995 -0.014918
0.0014266 0.0020101 -0.0004801 0.0021257 0.00034227 0.00057341 0.00090544 0.0014439
0.011989 -0.014866 0.015254 0.32744
1280000000 0.19035 0.26607 -0.010221 -0.027361 -0.0015379 0.0031284 -0.00083861 -0.0019791
-0.00073594 0.0030626 0.0024592 0.00087981
-0.010204 -0.027341 0.010915 0.38363 -0.024212 -0.0069914 -0.00091974 0.0014929
0.0019721 0.001802 0.00091793 0.001867
-0.001517 0.0031283 -0.02425 -0.0069099 0.32407 0.15718 0.0017354 4.4796e-05
0.0012261 0.00024289 0.00029143 0.00027928
-0.00085269 -0.0019843 -0.00092208 0.0015021 0.0017352 4.7623e-05 0.11914 0.2544
-0.0020809 -0.021757 -0.00092463 0.00065604
-0.00071527 0.0030595 0.0019637 0.001786 0.0012373 0.00024376 -0.0021229 -0.021771
0.046943 0.222 0.0010676 -0.016429
0.0024826 0.00085082 0.00095801 0.0018819 0.00025867 0.00029325 -0.00093954 0.00068413
0.0010541 -0.016431 0.061292 0.32527
1340000000 0.22704 0.23118 -0.019171 -0.016683 0.001575 0.0046006 -0.0016923 -0.00097489
0.0015329 0.0025914 0.0015972 -0.0015763
-0.019143 -0.016689 0.050958 0.37366 -0.021105 0.0057278 -3.2478e-05 0.0020487
0.002173 0.00052877 0.0014903 0.00061395
0.0015858 0.0045946 -0.021095 0.0058133 0.34389 0.1091 0.0013477 -0.0011192
0.00072254 -0.00062287 0.00013084 0.00022444
-0.0016889 -0.00097085 -3.2955e-05 0.0020454 0.0013425 -0.0011295 0.15041 0.23194
-0.012319 -0.017309 0.0001216 0.0015663
0.0015305 0.0025781 0.0021799 0.00051415 0.00071567 -0.00062023 -0.012363 -0.017306
0.076652 0.21586 -0.0064795 -0.014185
0.0015905 -0.0015789 0.0015075 0.00059422 0.00013857 0.00017812 0.00012556 0.0015558
-0.0064794 -0.01417 0.10012 0.31699
1400000000 0.2595 0.19156 -0.023382 -0.0047949 0.0057366 0.0028775 -0.0021781 0.0005566
0.0024436 0.00089278 8.591e-05 -0.001502
-0.02336 -0.0048098 0.088039 0.35905 -0.01375 0.013336 0.0014755 0.00126
0.0012432 -0.0011149 0.0011513 -2.8351e-05
0.0057397 0.0028545 -0.013721 0.013401 0.35558 0.055925 6.0594e-05 -0.0020945
6.134e-05 -0.00047625 0.0003047 0.00026461
-0.002168 0.00056826 0.0014731 0.001255 5.6623e-05 -0.0021046 0.1783 0.2009
-0.018175 -0.0089421 -0.00046345 0.0010945
0.0024365 0.00088996 0.0012484 -0.001127 6.0112e-05 -0.00047143 -0.018205 -0.0089148
0.10885 0.20905 -0.012741 -0.0080589
7.2536e-05 -0.0015096 0.0011335 -5.3241e-05 0.00030258 0.0002624 -0.00046499 0.0010885
-0.012696 -0.0080856 0.14315 0.30235
1460000000 0.28091 0.14655 -0.019239 0.0068957 0.0058168 -0.0022807 -0.0016128 0.0017011
0.0021884 -0.00068519 -0.00042156 -0.00090653
-0.019216 0.0068859 0.12139 0.33562 -0.0048031 0.015461 0.0018 4.9026e-05
0.00063656 -0.0014852 0.0010081 -0.00065606
0.0058059 -0.0023004 -0.0047545 0.015483 0.36002 0.0024677 -0.0016643 -0.0014308
0.00016408 -0.00026426 0.00066983 -0.00027997
-0.001615 0.001706 0.0018011 3.6426e-05 -0.0016699 -0.0014459 0.20172 0.17045
-0.018573 -0.00054864 5.8524e-05 0.0026892
0.0021857 -0.00069178 0.00061836 -0.0014861 0.00017302 -0.00027017 -0.018598 -0.00051797
0.13681 0.19317 -0.013593 -0.0013098
-0.00042819 -0.00095234 0.0010396 -0.00067332 0.00069739 -0.00031638 8.0093e-05 0.0027039
-0.013593 -0.0012768 0.17455 0.27936
1520000000 0.29205 0.10362 -0.012664 0.011567 0.0031805 -0.004539 0.00021461 0.0027073
0.0020481 -0.0018124 -0.0011379 -9.5239e-05
-0.012659 0.011543 0.15388 0.31987 0.0024729 0.012629 0.0016658 -0.00098583
-0.00023199 -0.0010972 0.0002082 -0.00098275
0.003175 -0.0045545 0.0025141 0.01263 0.3533 -0.053078 -0.0015605 -0.00015174
0.00055142 -0.00097636 4.4386e-05 -0.00023444
0.00021749 0.00271 0.0016548 -0.00098735 -0.0015446 -0.00015414 0.22226 0.13224
-0.016077 0.0061951 0.0024638 0.0021675
0.0020503 -0.0018225 -0.00024017 -0.0010877 0.00052405 -0.00096616 -0.016062 0.0062341
0.16422 0.17748 -0.012661 0.0039793
-0.0011412 -0.0001039 0.00020431 -0.00098453 3.247e-05 -0.0002306 0.0024592 0.0021862
-0.012665 0.0039933 0.20611 0.25623
1580000000 0.29958 0.056683 -0.0057886 0.013513 -0.0011608 -0.0051269 0.0015724 0.0019173
-0.00027353 -0.0022781 -0.00020588 0.00034097
-0.0058022 0.013502 0.17974 0.29425 0.0056945 0.0075364 0.00030816 -0.0017661
-0.00069854 -0.00084311 -0.00031227 -0.0007654
-0.0011657 -0.0051182 0.0057343 0.0075238 0.33318 -0.11042 -0.001616 0.0011584
-0.00047176 -0.0012424 0.00011194 -0.00063647
0.0015709 0.0019092 0.00029775 -0.0017591 -0.0016151 0.00115 0.2332 0.093314
-0.010918 0.011004 0.0030146 0.00025054
-0.00029956 -0.0022913 -0.00069062 -0.00084451 -0.00046639 -0.0012559 -0.010899 0.011036
0.18719 0.15745 -0.0093014 0.0094249
-0.00020287 0.00035782 -0.00030553 -0.00077966 0.0001272 -0.00065238 0.003011 0.00023823
-0.0092987 0.0094224 0.23552 0.22805
1640000000 0.29979 0.015199 0.0005428 0.011283 -0.0030563 -0.0027116 0.00276 0.00082672
-0.001017 -0.0016274 -0.00023798 0.0006226
0.00053314 0.011284 0.20784 0.26925 0.0059148 0.0028988 -0.00098027 -0.0016577
-0.00095711 -0.0001483 -0.00057443 -0.00052484
-0.0030744 -0.0026793 0.0059266 0.002881 0.3044 -0.159 -0.00041229 0.0017353
-0.001356 -0.00073368 -0.00020337 -0.00038061
0.002765 0.00081401 -0.00098434 -0.0016476 -0.00041167 0.0017482 0.24299 0.046625
-0.0053021 0.011385 0.0028388 -0.0014071
-0.0010262 -0.0016359 -0.00094891 -0.00015142 -0.0013374 -0.00071874 -0.0052716 0.011416
0.20822 0.13189 -0.0036625 0.011181
-0.00023421 0.00062265 -0.00059815 -0.00053448 -0.00020965 -0.0003594 0.002848 -0.0014281
-0.0036724 0.011171 0.25923 0.1959
1700000000 0.29067 -0.030003 0.0032195 0.0077823 -0.0037275 0.00028973 0.0029626 -0.0015122
-0.0022002 -0.00054194 0.00069294 0.00025642
0.0032043 0.0077709 0.22502 0.23812 0.003736 0.00017687 -0.0015469 -0.00035449
-0.00059593 0.00021386 -0.00088151 -0.00035142
-0.003721 0.00031686 0.003758 0.00017064 0.26155 -0.19914 0.00085428 0.0014586
-0.0020123 0.0001475 -0.0007343 -0.00080298
0.0029453 -0.0015129 -0.0015574 -0.00035191 0.00085155 0.0014523 0.23901 -0.00057664
-0.001749 0.010585 0.0015794 -0.0026138
-0.0021943 -0.00053573 -0.00058544 0.00021335 -0.0020405 0.00014843 -0.0017414 0.010603
0.22384 0.11013 0.0014729 0.010838
0.00068383 0.0002458 -0.00087157 -0.00035094 -0.00071926 -0.00078299 0.0015828 -0.0026245
0.0014574 0.010847 0.27412 0.16076
1760000000 0.27689 -0.077553 0.0043801 0.0042023 -0.0022575 0.00097765 0.00093815 -0.0035656
-0.001456 0.00094859 0.00034416 -0.00042427
0.0043754 0.0042017 0.25006 0.19854 0.0014396 -0.001548 -0.0011448 0.00042842
-0.0008379 0.00080034 -0.00055506 0.00048347
-0.0022526 0.00099346 0.0014295 -0.0015502 0.2123 -0.2329 0.0012744 0.00073255
-0.00099824 0.0018006 -0.0014065 -0.00030495
0.00093134 -0.0035773 -0.0011395 0.0004365 0.001281 0.00073301 0.23006 -0.049111
0.0012677 0.0087088 -0.00031146 -0.0029497
-0.0014421 0.00095118 -0.00082291 0.00080235 -0.00099434 0.0018065 0.0012845 0.0087098
0.23626 0.074391 0.0055878 0.0075461
0.00030843 -0.00046243 -0.00055105 0.00048208 -0.0014384 -0.0002726 -0.00033235 -0.0029487
0.0055877 0.0075454 0.28499 0.12242
1820000000 0.25137 -0.11362 0.0036368 0.0010599 4.4892e-05 0.0024693 -0.0013384 -0.0028853
-0.00084885 0.0012076 -0.00010445 2.2604e-05
0.0036269 0.001059 0.25977 0.16928 -0.00046017 -0.0002275 -0.0010087 0.001041
1.3544e-05 0.001104 -0.00050499 0.00053663
4.9784e-05 0.0024686 -0.00045363 -0.00022618 0.16202 -0.24825 0.0013226 9.9669e-05
0.00016422 0.0022745 -0.0014002 0.00064374
-0.0013443 -0.0028822 -0.001 0.0010497 0.0013297 0.00010189 0.20211 -0.093963
0.0023088 0.0063245 -0.0017233 -0.0019295
-0.00086175 0.0012056 2.7293e-05 0.0010966 0.00015554 0.00225 0.0023279 0.0063305
0.25143 0.044957 0.0066313 0.0032863
-9.3731e-05 -2.559e-05 -0.00048576 0.00054223 -0.0013157 0.00066393 -0.0017378 -0.0019239
0.0066156 0.0032805 0.28622 0.085271
1880000000 0.21582 -0.15284 0.00090085 -0.00044055 -0.00047696 0.0021292 -0.0030123 -0.001823
9.1327e-05 0.0016128 0.00025493 -0.00054909
0.00090338 -0.00044516 0.26424 0.12284 -0.0025199 0.0014867 4.6548e-05 0.0015605
0.00044933 0.0010032 0.000218 0.00086177
-0.00047579 0.0021399 -0.0025093 0.0014903 0.10924 -0.25865 0.0013951 -0.00096406
0.0018364 0.0015968 -0.0005567 0.0015207
-0.003016 -0.0018017 4.0871e-05 0.0015707 0.0013939 -0.00096239 0.16408 -0.1343
0.0025611 0.0040165 -0.0026325 2.8457e-05
8.6659e-05 0.0016204 0.00045647 0.00099583 0.0018266 0.001594 0.0025696 0.0040199
0.25239 0.01179 0.0061413 0.00045613
0.00026714 -0.00052354 0.00023598 0.00085906 -0.00055376 0.0014928 -0.0026085 7.1445e-06
0.006109 0.00044179 0.2845 0.050321
1940000000 0.17655 -0.17794 -0.0013515 -0.001199 0.0012659 0.0021482 -0.0035126 0.00085397
0.0015374 0.00078849 -0.00045521 -0.00063066
-0.0013459 -0.0011979 0.2645 0.091429 -0.0013384 0.0037948 0.00096686 0.0010342
0.0015428 0.00049872 0.00089233 0.00033862
0.0012775 0.0021522 -0.0013326 0.0038161 0.062638 -0.25162 0.00010612 -0.0017336
0.0021431 5.7871e-05 0.00060032 0.001539
-0.0035229 0.00088405 0.00096498 0.0010162 0.00010877 -0.0017217 0.11344 -0.16543
0.0013395 0.002598 -0.0019315 0.0011503
0.0015387 0.00076801 0.0015413 0.00047616 0.0021583 4.4363e-05 0.0013426 0.0025795
0.25226 -0.026991 0.0044553 -0.0030207
-0.00043627 -0.00065784 0.00092006 0.00032723 0.00066104 0.0015723 -0.0019006 0.0011723
0.0044504 -0.0030239 0.27172 0.013602
2000000000 0.13039 -0.1925 -0.0046332 0.0013775 0.0025727 0.0018412 -0.0020661 0.0034801
0.0010403 -7.1482e-05 -0.00062162 0.00031764
-0.0046306 0.001375 0.25075 0.055724 -0.0012412 0.0056612 0.0013707 0.0002498
0.0012106 -0.001117 0.00057631 -4.7549e-05
0.0025737 0.001829 -0.0012076 0.0056736 0.018416 -0.23717 -0.0010331 -0.0010129
0.0015991 -0.0012363 0.0018554 0.00089366
-0.0020524 0.0035263 0.0013774 0.0002509 -0.0010315 -0.0010236 0.060972 -0.17771
-0.00062402 0.0021504 -0.00058243 0.002124
0.0010473 -6.6449e-05 0.0012116 -0.0011167 0.0016317 -0.0012527 -0.00061257 0.0021685
0.24497 -0.060949 0.00058961 -0.0043311
