!Keysight Technologies,M9804A,MY58100912,A.14.10.03
!Date: Thursday, April 27, 2023 10:28:33
!Correction: S11(C  6-Port  ) 
!S12(C  6-Port  ) 
!S13(C  6-Port  ) 
!S14(C  6-Port  ) 
!S15(C  6-Port  ) 
!S16(C  6-Port  ) 
!S21(C  6-Port  ) 
!S22(C  6-Port  ) 
!S23(C  6-Port  ) 
!S24(C  6-Port  ) 
!S25(C  6-Port  ) 
!S26(C  6-Port  ) 
!S31(C  6-Port  ) 
!S32(C  6-Port  ) 
!S33(C  6-Port  ) 
!S34(C  6-Port  ) 
!S35(C  6-Port  ) 
!S36(C  6-Port  ) 
!S41(C  6-Port  ) 
!S42(C  6-Port  ) 
!S43(C  6-Port  ) 
!S44(C  6-Port  ) 
!S45(C  6-Port  ) 
!S46(C  6-Port  ) 
!S51(C  6-Port  ) 
!S52(C  6-Port  ) 
!S53(C  6-Port  ) 
!S54(C  6-Port  ) 
!S55(C  6-Port  ) 
!S56(C  6-Port  ) 
!S61(C  6-Port  ) 
!S62(C  6-Port  ) 
!S63(C  6-Port  ) 
!S64(C  6-Port  ) 
!S65(C  6-Port  ) 
!S66(C  6-Port  ) 
!S6P File: Measurement: :
# Hz S  RI   R 50
500000000 -0.34015 -0.020112 -0.011871 -0.0037338 -0.0083603 0.013038 -0.003431 0.012294
0.010974 0.0044627 -0.0029279 0.0087455
-0.011862 -0.0037319 -0.41994 -0.038793 0.0057859 -0.011147 0.0018669 0.012491
0.0072074 0.0020643 0.0025058 0.013575
-0.0083369 0.013058 0.0057626 -0.011176 -0.26438 0.22181 0.0070866 0.0040181
-0.0011757 0.007958 0.0021275 0.011739
-0.0034543 0.012306 0.0018949 0.012535 0.0071205 0.003998 -0.3316 0.059495
-0.020619 -0.0063643 0.015332 0.024023
0.011032 0.0045501 0.0071447 0.0019607 -0.0013157 0.0079533 -0.020645 -0.006376
-0.23651 -0.16876 -0.026983 0.0044709
-0.0029911 0.0086599 0.0025219 0.013613 0.0021905 0.011783 0.015369 0.02401
-0.026978 0.0044136 -0.28282 -0.086591
560000000 -0.3142 0.13536 -0.026892 -0.059973 0.00063242 0.012052 0.005117 0.0098853
0.0088703 0.0052152 0.010329 0.0073117
-0.026819 -0.059922 -0.37585 0.11766 -0.042615 -0.03441 0.013138 0.00406
-0.012434 -0.0041728 0.0027796 -0.00040651
0.00067941 0.012076 -0.042695 -0.034348 -0.18156 0.2674 1.2271e-05 -0.0047432
0.019362 0.0047576 0.0065929 -0.0063994
0.0051126 0.0099172 0.013127 0.0041153 -3.2324e-06 -0.0048677 -0.30589 0.14805
0.00029472 -0.024049 0.0028101 -0.018651
0.0088131 0.005218 -0.012401 -0.0041083 0.019413 0.0047164 0.00026997 -0.024039
-0.289 0.0056048 0.0029147 -0.047472
0.010369 0.0073001 0.0027346 -0.00036759 0.0065147 -0.0064162 0.0027606 -0.018649
0.0029712 -0.047449 -0.33027 0.053631
620000000 -0.27188 0.12171 -0.023984 0.0078525 0.0041568 0.0082623 0.0075624 -0.004666
0.011185 -0.0017559 0.00096654 -0.0019417
-0.023962 0.0078415 -0.40186 0.071961 -0.019464 0.00080249 -0.00070724 -0.0022881
0.010068 -0.0062967 0.0017463 -0.0026955
0.0041625 0.008249 -0.019486 0.00082997 -0.15 0.27734 -0.0010477 -0.0050636
-0.0031127 -0.0026207 0.0083808 -0.0036711
0.0076508 -0.0046753 -0.00072019 -0.0022758 -0.001083 -0.0050721 -0.26297 0.1592
-0.040869 -0.016799 0.011972 0.024123
0.011145 -0.0016207 0.010061 -0.006382 -0.0031477 -0.0027084 -0.040873 -0.016723
-0.21181 -0.033417 -0.040088 0.016212
0.00079893 -0.0019209 0.0017903 -0.0027267 0.0084073 -0.0037037 0.011924 0.024105
-0.040035 0.016132 -0.25753 0.025351
680000000 -0.22901 0.20472 -0.027843 -0.0115 0.005739 0.0047021 0.0010385 -0.007226
-0.0024897 -0.010867 0.0044693 -0.0068638
-0.027815 -0.011496 -0.38472 0.16672 -0.032201 0.00051063 -0.0013541 -0.00082259
-0.0020365 -0.0090694 -0.0011972 -0.0023125
0.0057399 0.0046957 -0.032206 0.0005713 -0.098089 0.29439 -0.00098912 -0.00063712
-0.0012176 -0.00016759 -0.0033319 -0.0088836
0.00105 -0.0072047 -0.001384 -0.00085898 -0.00099981 -0.0006776 -0.21684 0.20645
-0.026458 -0.0043005 -0.0090378 -0.0080116
-0.0025886 -0.010891 -0.0020657 -0.0090714 -0.0012538 -0.00013807 -0.02649 -0.0042844
-0.25253 0.065797 -0.0072584 -0.0066967
0.0044851 -0.006862 -0.0012011 -0.0023 -0.0033454 -0.0088221 -0.0090518 -0.008028
-0.0072396 -0.0067218 -0.25573 0.12137
740000000 -0.18434 0.19974 -0.036274 0.026876 0.012416 -0.0057995 -0.00073589 -0.004228
-0.0045389 -0.0030193 -0.0058892 0.0030006
-0.036255 0.026841 -0.33265 0.1859 -0.032739 0.035546 -0.0011801 -0.0065712
-0.011797 0.0077733 -0.0020801 -0.0051451
0.012394 -0.005833 -0.032696 0.035633 -0.064684 0.29312 -0.0018514 0.0031148
-0.0030723 -0.0049963 -0.0021865 0.0010936
-0.0006921 -0.0042304 -0.0012087 -0.0065258 -0.0018539 0.0031312 -0.19929 0.21533
-0.042648 -0.0023964 0.022575 0.012943
-0.0046226 -0.0029069 -0.011841 0.0076933 -0.0030602 -0.0050115 -0.04271 -0.002371
-0.15685 0.086052 -0.039984 0.0054609
-0.0058672 0.0029469 -0.0020325 -0.0051809 -0.0022352 0.0010563 0.022632 0.012918
-0.039924 0.0054487 -0.24371 0.13117
800000000 -0.15004 0.23651 -0.020676 0.017654 0.0049479 -0.010675 -0.004421 -0.0016799
-0.0037948 0.0022608 0.0034116 0.00064722
-0.020693 0.017633 -0.33296 0.25432 -0.006424 0.033783 -0.0023159 0.0022127
-0.00084083 0.0032992 0.0011198 0.0052531
0.0049192 -0.010686 -0.0063707 0.033811 -0.022261 0.31485 0.00078423 0.0018076
0.00054319 0.0035696 -0.0018598 0.0011909
-0.0044121 -0.0016582 -0.0023069 0.0022247 0.00078525 0.0018202 -0.16892 0.24169
-0.026937 0.017155 0.012952 -0.010048
-0.0037748 0.0022808 -0.00081533 0.003345 0.00055747 0.0035731 -0.026949 0.017218
-0.19616 0.11464 -0.015586 0.019727
0.0034143 0.0006132 0.0011156 0.0052526 -0.0018654 0.0011777 0.012955 -0.010053
-0.015597 0.019712 -0.23029 0.1769
860000000 -0.11476 0.256 -0.015146 0.030755 -0.0035054 -0.0098671 -0.0019929 0.0012217
0.0042705 0.0045449 -0.0028025 -0.0023242
-0.015147 0.030735 -0.28597 0.29495 0.0094713 0.033471 0.00018735 0.0023294
0.0043312 0.00052902 0.003102 0.00044669
-0.0035165 -0.0098609 0.0095475 0.033467 0.025662 0.322 -0.00034705 4.899e-05
0.0025061 -0.0013279 0.0018875 0.0039378
-0.0019899 0.0012509 0.00019652 0.0023252 -0.00034164 5.1103e-05 -0.13254 0.25216
-0.014922 0.021406 -0.0048591 -0.009211
0.0042763 0.0045708 0.0043469 0.00049382 0.0025245 -0.0013214 -0.014894 0.021455
-0.14296 0.16077 -0.020872 0.017848
-0.0028193 -0.0023507 0.0030852 0.00044751 0.0018716 0.003947 -0.0048839 -0.0092211
-0.020889 0.017824 -0.18149 0.21693
920000000 -0.088402 0.27716 0.0067664 0.036352 -0.0094293 -0.0043597 -0.0013153 0.0016308
0.0016181 0.0019591 0.0030248 -0.0018728
0.0067339 0.03634 -0.25557 0.31558 0.028736 0.020304 0.0017969 0.0009146
0.0074825 -0.00027554 0.0040179 -0.002829
-0.0094247 -0.004342 0.028784 0.02026 0.073111 0.32236 0.0019767 -0.00022436
0.0017194 -0.00037018 0.00081944 -0.0012222
-0.0013107 0.0016408 0.0017983 0.00091581 0.0019723 -0.00021668 -0.1063 0.26816
-0.0069044 0.031771 0.0028782 -0.0068022
0.001655 0.0019551 0.0074779 -0.00029213 0.0017124 -0.00036772 -0.0068422 0.031805
-0.12825 0.16669 0.0011776 0.025873
0.0030079 -0.0018976 0.0040013 -0.0028346 0.00082647 -0.0012135 0.0028528 -0.0067978
0.0011412 0.025859 -0.18049 0.23218
980000000 -0.041595 0.29458 0.018938 0.02812 -0.0087738 0.0045479 0.0021798 0.0029267
0.0042411 -0.0021013 -0.0031781 -0.0022946
0.018896 0.028127 -0.20392 0.34766 0.033169 0.0029602 0.0022215 -0.000353
0.0018022 -0.0064769 -0.00054402 -0.0026181
-0.0087563 0.0045668 0.033182 0.0028821 0.11983 0.31464 0.00048347 -0.0013687
8.548e-05 -0.0025776 0.0011525 -0.00041974
0.0021495 0.0029319 0.0022211 -0.00032608 0.00047051 -0.0013665 -0.06715 0.27758
0.011977 0.028886 -0.0083142 -0.0067813
0.0042329 -0.0021272 0.0017763 -0.0065075 6.2408e-05 -0.0025838 0.012056 0.028881
-0.096659 0.18982 0.0069608 0.018456
-0.0031627 -0.0023169 -0.00055185 -0.0026243 0.0011658 -0.000423 -0.0083314 -0.0067919
0.0069568 0.018462 -0.13703 0.2707
1040000000 0.00079218 0.30164 0.033192 0.01532 -0.0014137 0.0065965 0.0021764 0.00046001
8.5252e-05 -0.0031985 -0.00088383 -0.0014748
0.033163 0.015345 -0.1685 0.36104 0.028236 -0.016309 0.0013318 -0.0019075
-0.0024143 -0.0027581 -0.0015774 -0.002997
-0.0013886 0.0065943 0.028178 -0.016393 0.16691 0.30028 -0.00069307 -0.0015186
-0.0017412 -0.00091605 -0.0006487 -0.0009928
0.0021505 0.00044948 0.0013277 -0.0019195 -0.00068396 -0.0015223 -0.038728 0.28665
0.022497 0.015585 -0.0027008 0.00051684
7.122e-05 -0.0032023 -0.0024555 -0.0027989 -0.0017579 -0.00091388 0.022551 0.01556
-0.06422 0.19585 0.014725 0.015461
-0.0008345 -0.0014728 -0.0015973 -0.0029489 -0.00064637 -0.00099234 -0.0026904 0.00053593
0.014715 0.015469 -0.11177 0.29009
1100000000 0.046001 0.30794 0.034612 -0.0063259 0.0026436 0.0037026 0.0019822 -0.00097323
-0.002139 -0.0028618 -0.0038863 0.00066049
0.034584 -0.0062958 -0.1252 0.37769 0.013616 -0.028505 -0.00023085 -0.0017481
-0.0038461 -0.00057973 -0.0035997 -0.00011108
0.0026571 0.0037004 0.013536 -0.028556 0.21454 0.2778 -0.0019439 0.00030097
-0.0019388 0.00074059 -0.00097741 -0.00010345
0.001993 -0.00097814 -0.00023047 -0.0017512 -0.0019334 0.00029608 0.0028336 0.28948
0.026256 0.001443 -0.0028327 -0.00019574
-0.0021532 -0.0028399 -0.0038735 -0.00056066 -0.0019544 0.00074645 0.026279 0.0014138
-0.045655 0.20657 0.018934 0.0056236
-0.0038888 0.00068251 -0.0036161 -9.1639e-05 -0.00097647 -9.5604e-05 -0.0028398 -0.00018846
0.018924 0.0056213 -0.065549 0.31449
1160000000 0.096575 0.30202 0.021982 -0.022272 0.0021364 -0.00027424 -0.00014768 -0.001831
-0.0039549 -0.00047683 -0.00079814 0.003995
0.021987 -0.022231 -0.080685 0.38226 -0.0056923 -0.028766 -0.0016763 -0.0014327
-0.0026881 0.002691 -0.0015279 0.0018358
0.0021413 -0.00027282 -0.0058056 -0.028756 0.25749 0.24458 -0.00072603 0.0018095
-0.00051702 0.0020868 -0.00082273 0.00030126
-0.00015201 -0.0018223 -0.0016625 -0.0014315 -0.0007216 0.0018045 0.042278 0.2847
0.020908 -0.01428 -0.0034176 0.0041511
-0.0039587 -0.00045678 -0.0026737 0.0026792 -0.00052268 0.0020958 0.020918 -0.01432
-0.012673 0.21354 0.017793 -0.0026164
-0.00078725 0.0039978 -0.0015588 0.0018654 -0.00081618 0.00031229 -0.0034194 0.0041589
0.01779 -0.002596 -0.018774 0.31567
1220000000 0.14142 0.28948 0.0077721 -0.030178 -0.00175 -0.00013533 0.00029142 -0.00075879
-0.0024426 0.0023625 0.0014203 0.0020239
0.0077784 -0.030143 -0.035691 0.3934 -0.018076 -0.019953 -0.002445 0.00056873
0.00012978 0.0032348 -0.00049373 0.0021223
-0.0017488 -0.0001253 -0.018151 -0.019912 0.29587 0.20299 0.00083628 0.0018857
0.00078086 0.0012986 0.00034447 0.00056919
0.00029494 -0.00076349 -0.0024516 0.00058066 0.00083645 0.0018895 0.083125 0.27397
0.0089214 -0.02066 0.00091466 0.0014236
-0.002443 0.0023785 0.00014863 0.0032371 0.00077633 0.0012952 0.0089134 -0.02068
0.010957 0.22034 0.012014 -0.014891
0.0014284 0.0020063 -0.00048796 0.0021147 0.0003453 0.00055978 0.00091541 0.001438
0.012009 -0.01488 0.015173 0.32738
1280000000 0.19034 0.26607 -0.010207 -0.027383 -0.0015391 0.0031236 -0.00084646 -0.0019807
-0.00073197 0.0030532 0.0024825 0.00085574
-0.010187 -0.02736 0.010914 0.38364 -0.024215 -0.0070111 -0.00092935 0.0015015
0.0019581 0.0018062 0.00095255 0.001867
-0.0015321 0.003121 -0.024253 -0.0069224 0.32404 0.15722 0.0017368 3.7685e-05
0.0012394 0.0002347 0.00025169 0.00028998
-0.0008615 -0.001978 -0.00092939 0.0015053 0.0017395 3.6984e-05 0.11912 0.25441
-0.0020759 -0.021764 -0.00095957 0.00068189
-0.00071407 0.0030702 0.0019626 0.0017924 0.0012387 0.0002425 -0.0021142 -0.02178
0.046925 0.22198 0.0010426 -0.016448
0.0024727 0.00084784 0.00097114 0.0018567 0.00026569 0.00029296 -0.00095034 0.0006915
0.0010558 -0.016447 0.061246 0.32527
1340000000 0.22702 0.23118 -0.019177 -0.016691 0.0015679 0.004603 -0.0016886 -0.0009693
0.0015169 0.0025796 0.0015921 -0.0015613
-0.01914 -0.016694 0.050961 0.37366 -0.021105 0.0057229 -3.5459e-05 0.002048
0.0021707 0.00053774 0.0014901 0.00059276
0.0015709 0.0045894 -0.021094 0.0057954 0.34388 0.10911 0.0013378 -0.0011318
0.00072082 -0.00061253 0.0001354 0.00017969
-0.0016957 -0.0009712 -2.7023e-05 0.0020381 0.0013324 -0.0011344 0.15039 0.23194
-0.012309 -0.017331 0.00011405 0.0015652
0.0015249 0.0025753 0.0021873 0.0005093 0.00073352 -0.0006083 -0.01235 -0.017317
0.076613 0.21583 -0.0065012 -0.014137
0.0015993 -0.0015665 0.0014915 0.00058963 0.00013095 0.00019329 0.0001167 0.001565
-0.006489 -0.014136 0.10012 0.31696
1400000000 0.25946 0.19155 -0.023397 -0.0048059 0.0057308 0.0028628 -0.0021819 0.00056217
0.0024429 0.00089668 8.0674e-05 -0.001511
-0.023362 -0.0048233 0.08798 0.35905 -0.013756 0.013333 0.0014732 0.001266
0.0012581 -0.0011276 0.001126 -4.5514e-05
0.0057388 0.0028466 -0.013715 0.013394 0.35557 0.055952 5.2623e-05 -0.0021029
6.9763e-05 -0.00047839 0.00030252 0.00026618
-0.0021791 0.00057227 0.0014854 0.0012537 5.5047e-05 -0.0020997 0.17831 0.20093
-0.018171 -0.0089587 -0.00047428 0.0010838
0.0024422 0.00088808 0.0012607 -0.0011434 7.3059e-05 -0.00049136 -0.018205 -0.0089253
0.10884 0.20905 -0.012718 -0.0080672
7.8182e-05 -0.00151 0.0011372 -4.7808e-05 0.00031691 0.00026413 -0.00047528 0.0010853
-0.012713 -0.0080859 0.14306 0.3024
1460000000 0.2809 0.14654 -0.019247 0.0068835 0.0057958 -0.0022997 -0.0016148 0.0017071
0.0021891 -0.00068308 -0.00043791 -0.00094513
-0.019238 0.0068705 0.12139 0.33563 -0.0048058 0.015454 0.0017965 5.0348e-05
0.00062699 -0.001485 0.0010492 -0.00066693
0.0057963 -0.0023069 -0.00475 0.01548 0.36 0.002481 -0.0016636 -0.0014463
0.00016985 -0.00025684 0.00069539 -0.00030262
-0.0016046 0.0017159 0.0018014 4.4792e-05 -0.0016529 -0.0014522 0.20169 0.1705
-0.018581 -0.00055857 0.0001023 0.002705
0.0021818 -0.0006846 0.00061008 -0.0014847 0.00016702 -0.00024889 -0.0186 -0.00052408
0.13674 0.19315 -0.013641 -0.0012531
-0.00043309 -0.00094251 0.0010353 -0.0006631 0.0006917 -0.00029773 9.9547e-05 0.0027067
-0.013631 -0.0012678 0.17447 0.27931
1520000000 0.29201 0.10362 -0.012674 0.011561 0.0031854 -0.0045549 0.00021583 0.0027129
0.0020669 -0.0018128 -0.0011476 -0.00010871
-0.012673 0.01155 0.15386 0.31985 0.0024697 0.012638 0.0016666 -0.00098377
-0.00022973 -0.001091 0.00020562 -0.00098109
0.003165 -0.0045687 0.0025274 0.012633 0.35324 -0.053084 -0.0015564 -0.00014288
0.00050754 -0.00096873 3.6043e-05 -0.00022377
0.00021649 0.0027139 0.0016661 -0.00099807 -0.0015474 -0.00014908 0.22226 0.13229
-0.016072 0.0061959 0.0024378 0.0021758
0.0020587 -0.0018282 -0.00022971 -0.0010896 0.00051525 -0.00096543 -0.016075 0.0062342
0.16412 0.17744 -0.012654 0.0040033
-0.0011474 -9.3594e-05 0.00019972 -0.00099168 4.3858e-05 -0.00021033 0.0024507 0.0021786
-0.012653 0.0039949 0.20604 0.25622
1580000000 0.29954 0.056693 -0.0057994 0.013524 -0.0011674 -0.0051143 0.0015695 0.0019181
-0.00029442 -0.0022841 -0.00020407 0.00036378
-0.0057974 0.013516 0.17972 0.29427 0.0056916 0.0075298 0.00030765 -0.0017601
-0.00068976 -0.00085328 -0.00030287 -0.00077531
-0.001176 -0.0051139 0.0057268 0.0075214 0.33317 -0.11041 -0.001622 0.0011542
-0.00047124 -0.0012548 0.00013656 -0.00065081
0.0015726 0.0019137 0.00029654 -0.0017612 -0.0016154 0.0011544 0.2332 0.093321
-0.010889 0.010997 0.0030165 0.00025537
-0.00030106 -0.0022915 -0.00069579 -0.00085412 -0.00045964 -0.0012386 -0.010888 0.011033
0.18711 0.1575 -0.0092992 0.0094218
-0.00019473 0.00036304 -0.00029846 -0.00077438 0.00013202 -0.00063383 0.0030127 0.00024403
-0.0092983 0.0094235 0.2355 0.22805
1640000000 0.29978 0.015208 0.00054006 0.011295 -0.0030536 -0.0026952 0.0027631 0.00082245
-0.0010246 -0.0016435 -0.0002408 0.00061633
0.00052909 0.011294 0.20784 0.26925 0.0059183 0.0029048 -0.00097243 -0.0016586
-0.0009487 -0.00015391 -0.00060152 -0.0005431
-0.0030698 -0.0026782 0.0059277 0.0028827 0.30443 -0.15902 -0.00041655 0.0017436
-0.0013355 -0.00071352 -0.00021797 -0.00035209
0.0027503 0.00081217 -0.00098371 -0.0016543 -0.00043624 0.0017484 0.24299 0.046674
-0.0052957 0.011375 0.0028456 -0.001415
-0.0010217 -0.001635 -0.00095383 -0.00014634 -0.0013334 -0.00071141 -0.0052824 0.011406
0.20813 0.13195 -0.0036481 0.011168
-0.00024214 0.00062762 -0.00060068 -0.00053427 -0.00021742 -0.00035227 0.0028382 -0.0014243
-0.0036632 0.011169 0.25919 0.19591
1700000000 0.29063 -0.029954 0.00322 0.0077853 -0.003723 0.00028895 0.0029534 -0.0014995
-0.0021975 -0.00054371 0.00068545 0.00025405
0.0032086 0.0077744 0.22499 0.23812 0.0037545 0.00018837 -0.0015493 -0.00035601
-0.00058879 0.00021378 -0.00086897 -0.00035478
-0.0037153 0.00030363 0.0037622 0.00017146 0.26157 -0.19915 0.00084647 0.0014432
-0.0020382 0.00013959 -0.00070937 -0.00078277
0.0029487 -0.0015039 -0.0015625 -0.0003549 0.00085586 0.0014525 0.23902 -0.00054691
-0.0017613 0.010591 0.0015809 -0.0026219
-0.0021904 -0.00053282 -0.00058906 0.00021693 -0.0020447 0.00012453 -0.001745 0.010603
0.22381 0.11021 0.0014672 0.010828
0.00068864 0.00025852 -0.00087438 -0.00035075 -0.00069953 -0.00079753 0.0015726 -0.0026219
0.001466 0.010833 0.274 0.16082
1760000000 0.27689 -0.077505 0.0043818 0.0042103 -0.0022669 0.00099999 0.00093929 -0.0035711
-0.001456 0.00095188 0.00031536 -0.00046376
0.0043766 0.0042099 0.25006 0.19856 0.0014366 -0.001545 -0.0011462 0.00042905
-0.00083063 0.00079936 -0.00055349 0.00048024
-0.0022615 0.0010071 0.0014323 -0.0015525 0.21235 -0.23291 0.001283 0.00073466
-0.00099208 0.0018041 -0.001433 -0.00026316
0.00092531 -0.0035683 -0.0011463 0.00043673 0.0012853 0.00074258 0.23006 -0.049069
0.0012633 0.0087043 -0.00031888 -0.0029488
-0.0014402 0.00095846 -0.00082772 0.0007994 -0.00099539 0.0018023 0.0012811 0.0087072
0.23626 0.074483 0.0056016 0.0075549
0.00031144 -0.00046512 -0.00054361 0.0004855 -0.0014304 -0.00026978 -0.00032344 -0.0029444
0.0055895 0.0075477 0.28495 0.12247
1820000000 0.25136 -0.11363 0.0036238 0.0010621 4.8587e-05 0.0024574 -0.0013319 -0.0028775
-0.00086201 0.0012067 -8.8451e-05 -2.3674e-05
0.0036222 0.001052 0.25976 0.16929 -0.00044524 -0.00021789 -0.0010061 0.0010466
1.6507e-05 0.001096 -0.00049415 0.00053998
3.9508e-05 0.0024634 -0.00046129 -0.00021625 0.16203 -0.24827 0.0013246 9.1474e-05
0.00014353 0.002235 -0.0013117 0.00067792
-0.0013272 -0.0028723 -0.0010074 0.0010512 0.0013363 7.8259e-05 0.20212 -0.093943
0.0022974 0.0063495 -0.0017389 -0.0019177
-0.00086387 0.0012108 1.6976e-05 0.0011017 0.00015596 0.0022263 0.0023178 0.0063535
0.25147 0.045054 0.0066142 0.0032827
-9.2756e-05 -3.3029e-05 -0.00048961 0.00053736 -0.0013127 0.00065744 -0.0017446 -0.0019258
0.0066116 0.0032847 0.28619 0.085252
1880000000 0.2158 -0.15278 0.00090281 -0.0004375 -0.00048225 0.002123 -0.0030097 -0.001818
7.5109e-05 0.001617 0.00026399 -0.00051873
0.00090163 -0.00043924 0.26423 0.12286 -0.0025215 0.0014773 4.6884e-05 0.0015738
0.00044789 0.0010016 0.00022342 0.00086264
-0.00047616 0.0021188 -0.0025186 0.0014813 0.10928 -0.25869 0.0013918 -0.0009604
0.0018217 0.0015964 -0.00056872 0.0014923
-0.0030152 -0.0018106 5.1163e-05 0.0015703 0.001402 -0.00096055 0.16413 -0.13426
0.0025536 0.0040252 -0.0026066 9.9917e-06
8.6441e-05 0.0016239 0.00045379 0.00099441 0.0018298 0.0016031 0.0025682 0.0040186
0.25244 0.011822 0.0061171 0.0004229
0.00026239 -0.00051621 0.00022727 0.00086869 -0.0005727 0.0014784 -0.0026153 2.44e-05
0.0061083 0.00041738 0.28443 0.050383
1940000000 0.17657 -0.17794 -0.0013303 -0.0012052 0.001265 0.0021463 -0.00351 0.00085637
0.0015351 0.00078927 -0.00043612 -0.00065686
-0.0013274 -0.0012091 0.26451 0.091442 -0.0013387 0.0037964 0.00096461 0.0010325
0.0015293 0.00049518 0.00091306 0.00032998
0.0012685 0.0021512 -0.0013321 0.0038052 0.062692 -0.25163 9.2035e-05 -0.0017416
0.0021629 5.4552e-05 0.00065488 0.0015805
-0.0035137 0.00085589 0.00096582 0.0010333 9.9521e-05 -0.0017163 0.11346 -0.16542
0.0013322 0.0025845 -0.001907 0.0011602
0.001542 0.00077253 0.0015374 0.00047956 0.0021506 7.0288e-05 0.0013344 0.0025842
0.25228 -0.026997 0.0044314 -0.0030592
-0.00045063 -0.00065938 0.00092171 0.00031853 0.00063705 0.0016007 -0.0019113 0.0011719
0.0044283 -0.003054 0.27167 0.013592
2000000000 0.13037 -0.19251 -0.0046326 0.0013766 0.0025911 0.001833 -0.0020642 0.003509
0.0010408 -6.6018e-05 -0.00064784 0.00030786
-0.0046277 0.001369 0.25073 0.055755 -0.0012399 0.0056596 0.0013712 0.00024984
0.0012252 -0.0011043 0.0005755 -4.5013e-05
0.0025846 0.0018054 -0.0012093 0.00567 0.01841 -0.23719 -0.0010152 -0.0010365
0.001647 -0.0012388 0.0018465 0.00096024
-0.0020412 0.0035209 0.0013783 0.0002505 -0.0010295 -0.001038 0.061 -0.1777
-0.00058493 0.0021709 -0.0005595 0.0021687
0.0010414 -6.8756e-05 0.00121 -0.0011232 0.0016229 -0.0012408 -0.00058902 0.0021715
0.24497 -0.060908 0.00059024 -0.0043098
