!Keysight Technologies,M9804A,MY58100912,A.14.10.03
!Date: Thursday, April 27, 2023 10:28:33
!Correction: S11(C  6-Port  ) 
!S12(C  6-Port  ) 
!S13(C  6-Port  ) 
!S14(C  6-Port  ) 
!S15(C  6-Port  ) 
!S16(C  6-Port  ) 
!S21(C  6-Port  ) 
!S22(C  6-Port  ) 
!S23(C  6-Port  ) 
!S24(C  6-Port  ) 
!S25(C  6-Port  ) 
!S26(C  6-Port  ) 
!S31(C  6-Port  ) 
!S32(C  6-Port  ) 
!S33(C  6-Port  ) 
!S34(C  6-Port  ) 
!S35(C  6-Port  ) 
!S36(C  6-Port  ) 
!S41(C  6-Port  ) 
!S42(C  6-Port  ) 
!S43(C  6-Port  ) 
!S44(C  6-Port  ) 
!S45(C  6-Port  ) 
!S46(C  6-Port  ) 
!S51(C  6-Port  ) 
!S52(C  6-Port  ) 
!S53(C  6-Port  ) 
!S54(C  6-Port  ) 
!S55(C  6-Port  ) 
!S56(C  6-Port  ) 
!S61(C  6-Port  ) 
!S62(C  6-Port  ) 
!S63(C  6-Port  ) 
!S64(C  6-Port  ) 
!S65(C  6-Port  ) 
!S66(C  6-Port  ) 
!S6P File: Measurement: :
# Hz S  RI   R 50
500000000 -0.34033 -0.021744 -0.011525 -0.0038672 -0.0079983 0.0127 -0.0035898 0.01214
0.011293 0.0039483 -0.0035187 0.008035
-0.011489 -0.0039285 -0.41998 -0.03943 0.0059984 -0.011221 0.0012219 0.012698
0.007626 0.0017027 0.001787 0.014024
-0.0081114 0.012784 0.0060167 -0.0112 -0.26391 0.22104 0.0066079 0.0039653
-0.00071975 0.007717 0.0017472 0.011948
-0.0036087 0.012133 0.001257 0.012521 0.0066484 0.0039029 -0.33182 0.059002
-0.020434 -0.0066947 0.015161 0.024627
0.011484 0.003891 0.007719 0.0019177 -0.00069453 0.0077484 -0.02045 -0.0066474
-0.23464 -0.16998 -0.02618 0.0041049
-0.0031548 0.008073 0.0017941 0.013631 0.0016898 0.011998 0.014969 0.024445
-0.026167 0.0040606 -0.28229 -0.089215
560000000 -0.31434 0.13464 -0.026655 -0.060315 0.00069149 0.011727 0.0052546 0.0099187
0.0087478 0.0047616 0.010626 0.0074788
-0.026406 -0.060244 -0.37595 0.11649 -0.042564 -0.034687 0.0126 0.0041507
-0.01155 -0.0039334 0.0028233 -0.00080438
0.00053548 0.011827 -0.042216 -0.03476 -0.18177 0.26658 -6.9342e-05 -0.0047252
0.018785 0.0044996 0.006687 -0.0064916
0.0053074 0.0098946 0.012555 0.0042251 2.3339e-05 -0.0046241 -0.30612 0.14663
0.00089189 -0.023739 0.0035737 -0.018509
0.0090495 0.0048156 -0.011892 -0.004205 0.019143 0.0043992 0.0010065 -0.023707
-0.28731 0.0026322 0.0043206 -0.046865
0.010673 0.0072121 0.0025658 -0.00081475 0.0066684 -0.0063456 0.0034502 -0.018632
0.0042333 -0.046955 -0.32991 0.052754
620000000 -0.27145 0.12087 -0.023547 0.0077902 0.0039355 0.0080797 0.0071914 -0.0055697
0.011446 -0.0011756 0.00026714 -0.0025973
-0.02356 0.0078044 -0.40154 0.071303 -0.019354 0.00074884 -0.0011122 -0.0021992
0.010504 -0.0063952 0.0013138 -0.0027316
0.0039079 0.0080992 -0.01937 0.00075863 -0.14983 0.27618 -0.00086657 -0.0045643
-0.0036271 -0.003271 0.007986 -0.0028669
0.0070422 -0.0055145 -0.0010884 -0.0021818 -0.00083184 -0.0045887 -0.2637 0.15827
-0.040378 -0.017284 0.012401 0.024198
0.01168 -0.001062 0.010557 -0.0064173 -0.0036688 -0.0033602 -0.040305 -0.017305
-0.21084 -0.034058 -0.039928 0.015181
0.00045563 -0.0033923 0.0013635 -0.0027442 0.0080291 -0.0029373 0.012374 0.024055
-0.039899 0.015443 -0.25558 0.022815
680000000 -0.22863 0.20399 -0.027724 -0.011767 0.0055712 0.0047415 0.0014119 -0.0072449
-0.0025173 -0.010814 0.0048252 -0.0068242
-0.027755 -0.011806 -0.3847 0.16607 -0.032204 0.00052661 -0.0011995 -0.0005122
-0.0024704 -0.0090256 -0.0014157 -0.0018188
0.0055283 0.0047125 -0.032209 0.00056755 -0.098599 0.29373 -0.00086286 -0.0003728
-0.0017017 0.00020947 -0.0035226 -0.0085412
0.0012908 -0.0071922 -0.0012019 -0.00049441 -0.00090715 -0.00040348 -0.21764 0.20648
-0.025746 -0.0047667 -0.0094869 -0.0081909
-0.0024836 -0.010627 -0.0024846 -0.0089137 -0.001706 0.00024572 -0.025789 -0.0047969
-0.25263 0.064726 -0.0073202 -0.0065855
0.0048891 -0.0069593 -0.0013036 -0.0019734 -0.0035604 -0.0085756 -0.0094761 -0.0085027
-0.0073133 -0.0066272 -0.25406 0.11842
740000000 -0.18461 0.19884 -0.03646 0.026964 0.012255 -0.0058261 -0.00070289 -0.0041274
-0.0046028 -0.0032347 -0.0059258 0.0030265
-0.036466 0.026828 -0.33311 0.18567 -0.033113 0.035328 -0.0014138 -0.0061421
-0.011586 0.0080364 -0.0027396 -0.0053587
0.012319 -0.0059668 -0.033067 0.035299 -0.064981 0.29252 -0.0017737 0.0029077
-0.0030991 -0.0045929 -0.0018481 0.00098226
-0.00071299 -0.0040603 -0.0013845 -0.0061137 -0.001794 0.0029402 -0.19957 0.21492
-0.042631 -0.002648 0.022648 0.012544
-0.0044549 -0.0028906 -0.011363 0.0080793 -0.0030453 -0.0045018 -0.04274 -0.0026836
-0.15718 0.085992 -0.040002 0.0042508
-0.0058801 0.002983 -0.0027197 -0.0051965 -0.0019957 0.00099733 0.022687 0.012645
-0.040023 0.0042393 -0.24318 0.12868
800000000 -0.15008 0.23617 -0.020797 0.0177 0.0048539 -0.010548 -0.0045564 -0.0018121
-0.003501 0.0022358 0.0035921 0.00060835
-0.020825 0.017714 -0.33341 0.25403 -0.0065854 0.033681 -0.0023346 0.0022061
-0.00055446 0.0033463 0.0010206 0.0052043
0.0048172 -0.010551 -0.006519 0.033707 -0.022487 0.31447 0.00079498 0.0017097
0.00035855 0.0035162 -0.0016804 0.001204
-0.0045035 -0.0017004 -0.0023721 0.0022035 0.00077568 0.0016917 -0.16904 0.24135
-0.026959 0.016682 0.013238 -0.0097936
-0.0032871 0.0023859 -0.00036126 0.0034659 0.00039443 0.0035288 -0.026958 0.016722
-0.19622 0.11284 -0.016038 0.01926
0.0034196 0.00051885 0.0010441 0.0052791 -0.0017316 0.0011925 0.013245 -0.0098069
-0.015998 0.019229 -0.23139 0.17544
860000000 -0.11551 0.25565 -0.015505 0.030753 -0.0036801 -0.0097592 -0.0020905 0.0013028
0.0044695 0.0046502 -0.0030931 -0.0025236
-0.015564 0.030732 -0.28617 0.29474 0.0092686 0.033229 -0.00015359 0.0021768
0.0045098 0.00030021 0.0030961 9.9659e-05
-0.0036882 -0.0097195 0.0093837 0.033252 0.025482 0.3216 -0.00048273 4.4344e-06
0.0025036 -0.0013006 0.0018363 0.0038939
-0.0021465 0.0012651 -0.00012615 0.0022759 -0.00049439 1.4535e-05 -0.13284 0.25203
-0.015369 0.02109 -0.0054525 -0.0091038
0.0044309 0.0046289 0.0043784 0.000371 0.0024999 -0.0012888 -0.015354 0.021141
-0.14334 0.15915 -0.021534 0.016663
-0.003053 -0.0025124 0.0032893 0.00027752 0.0018653 0.0038755 -0.0055455 -0.00919
-0.021539 0.01684 -0.1819 0.21559
920000000 -0.089034 0.27706 0.0065768 0.03637 -0.0094036 -0.0041577 -0.0013038 0.0017937
0.0012294 0.0015401 0.0026298 -0.0016316
0.006588 0.036375 -0.25575 0.31513 0.028397 0.020214 0.0017031 0.0010071
0.0071364 -0.00076531 0.0036207 -0.003043
-0.0093876 -0.0041372 0.028472 0.020166 0.072858 0.32177 0.0019174 -0.00018983
0.001472 -0.0005003 0.00088288 -0.0011652
-0.0013497 0.0018106 0.0017226 0.001042 0.0018992 -0.00019731 -0.10642 0.26788
-0.0071577 0.031331 0.0028204 -0.0064208
0.0012021 0.0014248 0.0071311 -0.0007635 0.0014553 -0.00052422 -0.007094 0.031315
-0.13 0.16486 0.00054309 0.02561
0.0025233 -0.0015616 0.003664 -0.0030041 0.00092501 -0.0011709 0.0027664 -0.0064323
0.00060785 0.025587 -0.18234 0.23041
980000000 -0.042309 0.29446 0.018568 0.028246 -0.008619 0.0046461 0.0020154 0.0029471
0.0038627 -0.0017993 -0.0030813 -0.0019495
0.01851 0.028236 -0.20413 0.34755 0.032734 0.0031621 0.0021374 -0.00033589
0.001601 -0.0064383 -0.00058573 -0.0023177
-0.0086266 0.0046772 0.032771 0.0031036 0.11951 0.31397 0.00047141 -0.0013096
5.7901e-05 -0.0023952 0.0012704 -0.00026668
0.0019963 0.002928 0.0021492 -0.00034348 0.00047852 -0.0013175 -0.067332 0.27699
0.011593 0.028931 -0.0085215 -0.0065365
0.0039563 -0.0019759 0.0016213 -0.0064846 8.8619e-05 -0.0023919 0.011659 0.028947
-0.097799 0.18863 0.0065331 0.018231
-0.0031487 -0.0020659 -0.00063768 -0.0023387 0.0012599 -0.00024258 -0.008567 -0.0065772
0.0064864 0.018266 -0.13898 0.26924
1040000000 0.00031431 0.30169 0.03303 0.015561 -0.001204 0.0066636 0.0022973 0.00053684
-6.2292e-06 -0.0032042 -0.00078707 -0.0013979
0.03299 0.015599 -0.16857 0.36087 0.027956 -0.015961 0.0013644 -0.0018545
-0.0024688 -0.0026112 -0.0016688 -0.0028097
-0.0012016 0.0066374 0.027947 -0.01606 0.16637 0.29967 -0.00062282 -0.0014815
-0.0016074 -0.00092064 -0.00046274 -0.0010324
0.002271 0.00052574 0.0013862 -0.00182 -0.00063094 -0.0014824 -0.038995 0.286
0.021707 0.015593 -0.0025914 0.00083445
-1.399e-05 -0.0031982 -0.002493 -0.0025487 -0.0016105 -0.00091787 0.021819 0.01559
-0.065615 0.19494 0.014165 0.015631
-0.0007672 -0.001393 -0.0016518 -0.0028558 -0.00047786 -0.0010534 -0.0026231 0.00083275
0.014177 0.015616 -0.11387 0.28918
1100000000 0.045826 0.30812 0.034568 -0.0059256 0.0026451 0.0036722 0.0020245 -0.00090914
-0.0019894 -0.002744 -0.0036346 0.00071423
0.03454 -0.0059031 -0.12489 0.37754 0.013504 -0.028048 -0.00017939 -0.0017718
-0.0034876 -0.00053034 -0.0034014 -0.00016335
0.0026722 0.00366 0.013479 -0.028113 0.21362 0.2773 -0.0018975 0.00024108
-0.0018784 0.00058292 -0.0010253 -0.00022056
0.0020425 -0.00090705 -0.00017454 -0.0017674 -0.0019128 0.0002343 0.0024138 0.28891
0.02558 0.0020167 -0.0027802 0.0001778
-0.0019995 -0.0027133 -0.0035278 -0.00050907 -0.0019018 0.00059472 0.025629 0.0019856
-0.046964 0.20655 0.018624 0.0061685
-0.0036492 0.00068938 -0.0033977 -0.00018126 -0.00099764 -0.00022496 -0.0028284 0.00014307
0.018658 0.006159 -0.067089 0.31383
1160000000 0.096419 0.30203 0.022054 -0.021819 0.0022214 -0.00027439 -7.4663e-05 -0.0018821
-0.0039088 -0.0004591 -0.00061588 0.0038485
0.022067 -0.021786 -0.080657 0.38161 -0.0052426 -0.028368 -0.0016749 -0.0014904
-0.0026201 0.0027412 -0.0012931 0.0017042
0.0022371 -0.00033618 -0.0052731 -0.028358 0.25616 0.24449 -0.00080832 0.0017938
-0.0003718 0.0019947 -0.00080424 0.00026143
-9.2872e-05 -0.001886 -0.0016514 -0.0015021 -0.00080072 0.0017886 0.041634 0.28414
0.020514 -0.01343 -0.0030947 0.0043655
-0.0038814 -0.00042358 -0.0026026 0.0027283 -0.00039488 0.0020185 0.02055 -0.013486
-0.013856 0.21296 0.017273 -0.0021029
-0.00062228 0.0038041 -0.0012699 0.0017475 -0.00079476 0.0002246 -0.0030776 0.0043333
0.017274 -0.0021109 -0.020207 0.31453
1220000000 0.14111 0.28945 0.0081467 -0.029818 -0.0016128 -0.0002271 0.00022045 -0.0008937
-0.0023686 0.0022492 0.0013478 0.0018939
0.0081462 -0.029779 -0.035915 0.39266 -0.017615 -0.019866 -0.0024113 0.00052908
0.00012643 0.0030698 -0.00051487 0.0020393
-0.0016284 -0.00022082 -0.017686 -0.019792 0.29465 0.20365 0.0007702 0.0019141
0.00068735 0.0013003 0.00039536 0.00060101
0.00023224 -0.00089938 -0.0024147 0.00054956 0.00077145 0.0019217 0.082135 0.27367
0.0090784 -0.01959 0.0013149 0.0014511
-0.0023521 0.0022823 0.00015939 0.0030772 0.00069898 0.0013066 0.009083 -0.019642
0.009826 0.22004 0.011844 -0.013919
0.0013941 0.0018489 -0.00052076 0.0020615 0.0003812 0.00059478 0.0013391 0.0015043
0.011831 -0.01395 0.013211 0.32648
1280000000 0.19004 0.26596 -0.0095931 -0.02716 -0.001513 0.0029981 -0.00091321 -0.002002
-0.00070374 0.0029285 0.0023778 0.00094022
-0.0095455 -0.027127 0.010282 0.38279 -0.023703 -0.0072165 -0.00097661 0.001438
0.001833 0.0017107 0.0008275 0.0018203
-0.0015211 0.0030235 -0.023741 -0.0071487 0.32352 0.1581 0.0017623 2.5546e-05
0.0012374 0.00019418 0.00032665 0.00012934
-0.0009131 -0.0019891 -0.00097693 0.0014415 0.0017662 3.9595e-05 0.11806 0.25442
-0.0014766 -0.020917 -0.00075414 0.00058776
-0.00070578 0.0029214 0.0018559 0.0016867 0.0012133 0.00021482 -0.0015181 -0.020954
0.045758 0.22162 0.0010783 -0.015617
0.0023654 0.00089944 0.00082344 0.0018331 0.00031084 0.00012414 -0.00077102 0.00058908
0.0010408 -0.015645 0.059091 0.3249
1340000000 0.22661 0.23126 -0.018555 -0.016854 0.0014737 0.0043967 -0.0017513 -0.00097079
0.0014371 0.0025879 0.0015345 -0.0014347
-0.018544 -0.016858 0.049809 0.37334 -0.020884 0.0052682 -8.8839e-05 0.0019996
0.0020464 0.00054905 0.0013243 0.0006363
0.0014912 0.0043739 -0.020889 0.0053381 0.34387 0.11016 0.0013668 -0.0010802
0.00066496 -0.00060203 5.3689e-05 0.0002524
-0.00174 -0.00097675 -6.9811e-05 0.0020088 0.0013653 -0.0010778 0.14943 0.23231
-0.011221 -0.017023 0.00035814 0.0013834
0.0014322 0.0026056 0.0020638 0.00056085 0.00065612 -0.00059135 -0.011281 -0.01704
0.075409 0.21548 -0.0057513 -0.013456
0.0015095 -0.0014679 0.0013543 0.00058996 7.2299e-05 0.00021146 0.00035842 0.0013749
-0.0058137 -0.013467 0.097913 0.31709
1400000000 0.25901 0.19169 -0.022956 -0.0053541 0.0054776 0.0027244 -0.0021849 0.00058088
0.0023672 0.00087352 9.7189e-05 -0.0014705
-0.022918 -0.0053524 0.086854 0.35913 -0.013811 0.012813 0.0013865 0.0012683
0.0011853 -0.00099321 0.0011079 -1.3882e-05
0.0054807 0.0027357 -0.013755 0.012878 0.35614 0.056486 7.4396e-05 -0.0020346
-1.9934e-05 -0.00045805 0.00033549 0.00019465
-0.0022035 0.00057932 0.0014009 0.0012687 7.429e-05 -0.0020364 0.17755 0.20155
-0.017087 -0.0092591 -0.00046106 0.0007941
0.002385 0.00086094 0.0012048 -0.00099212 1.5912e-05 -0.00049442 -0.017139 -0.0092375
0.1074 0.20912 -0.011738 -0.0077191
6.3588e-05 -0.0014985 0.0010903 -1.6747e-06 0.00032373 0.00018213 -0.00047133 0.00081821
-0.011744 -0.0077256 0.14109 0.30292
1460000000 0.28046 0.14684 -0.01919 0.0061571 0.0055798 -0.0023112 -0.0015766 0.0017029
0.0019983 -0.00058697 -0.00035025 -0.00089054
-0.019186 0.0061488 0.12033 0.33631 -0.0051471 0.015146 0.001778 8.7097e-05
0.00066482 -0.0013931 0.0010537 -0.00056779
0.0055685 -0.0023218 -0.005101 0.015168 0.36058 0.0025107 -0.0016233 -0.0014128
0.00015367 -0.00021417 0.00063769 -0.00031059
-0.0016176 0.0017118 0.0017773 9.9907e-05 -0.0016131 -0.0014172 0.20117 0.17135
-0.017739 -0.0013693 -9.3725e-05 0.0024744
0.0019901 -0.00056494 0.00066011 -0.0013994 0.00012712 -0.00021062 -0.017797 -0.0013207
0.13539 0.19333 -0.012542 -0.0014608
-0.0003923 -0.00091076 0.0010632 -0.00060966 0.00065029 -0.00028806 -0.0001161 0.0024866
-0.012559 -0.0014386 0.17279 0.2801
1520000000 0.29171 0.10415 -0.012986 0.010959 0.0029995 -0.0043725 0.00015241 0.0026489
0.0020123 -0.0017165 -0.0010941 -5.1303e-05
-0.012995 0.010935 0.15326 0.32088 0.0020668 0.012581 0.0016543 -0.00091324
-0.00015716 -0.0010645 0.00022842 -0.00093416
0.002994 -0.0043871 0.0021164 0.012581 0.35361 -0.053333 -0.0015032 -0.00018394
0.00046436 -0.00092163 -5.2314e-05 -0.00015218
0.0001784 0.0026571 0.0016467 -0.00091525 -0.0014785 -0.0001809 0.22205 0.13327
-0.0159 0.005 0.0022604 0.0019864
0.0020276 -0.0017076 -0.00016939 -0.0010852 0.00046464 -0.00094189 -0.015925 0.0050518
0.1628 0.17776 -0.011834 0.0033208
-0.0010497 -3.4084e-05 0.00023084 -0.00094034 1.8268e-06 -0.00013018 0.0022655 0.0019702
-0.01185 0.0033331 0.20473 0.25726
1580000000 0.29945 0.057254 -0.0064071 0.013149 -0.0011918 -0.0048539 0.0016301 0.0018993
-0.00018167 -0.0021726 -0.00023358 0.00037149
-0.0064093 0.013133 0.17963 0.29537 0.0053564 0.0076678 0.00037938 -0.0017208
-0.00062486 -0.00087537 -0.00019409 -0.00078736
-0.0011867 -0.0048521 0.0053941 0.0076489 0.33323 -0.11088 -0.0016198 0.0011102
-0.00045337 -0.0011094 0.00022606 -0.00063569
0.0016476 0.0019007 0.00037183 -0.0017294 -0.0016287 0.0011148 0.23352 0.094172
-0.011355 0.009928 0.0027703 0.0002539
-0.0001736 -0.0021873 -0.00064557 -0.00088471 -0.00045726 -0.0011336 -0.011348 0.0099724
0.18586 0.1581 -0.0089389 0.0085905
-0.00023732 0.00041206 -0.000218 -0.000779 0.00021857 -0.00062486 0.0027841 0.00026143
-0.0089222 0.008608 0.23453 0.229
1640000000 0.29989 0.015713 -0.00019275 0.011292 -0.0029362 -0.0025666 0.0028103 0.00082469
-0.00082164 -0.0015846 -0.00018136 0.00065868
-0.00018787 0.01128 0.20826 0.27023 0.0057714 0.0031251 -0.00089992 -0.0016349
-0.00097321 -0.00019493 -0.00053109 -0.00054886
-0.0029776 -0.0025454 0.0057811 0.0031021 0.30396 -0.15943 -0.00045836 0.0016493
-0.001239 -0.00081713 -0.0002236 -0.00025619
0.0028184 0.00082478 -0.00090802 -0.0016301 -0.00044196 0.0016298 0.24366 0.047135
-0.006277 0.010819 0.0026719 -0.0013457
-0.00083855 -0.0015785 -0.00098107 -0.00019353 -0.0012355 -0.00080997 -0.0062559 0.010888
0.20715 0.13272 -0.0038203 0.010197
-0.00020936 0.00065517 -0.00053108 -0.00053179 -0.00022951 -0.00023856 0.002686 -0.0013227
-0.0038252 0.010197 0.25876 0.19685
1700000000 0.291 -0.029702 0.0026195 0.0081329 -0.0035265 0.00020353 0.0029505 -0.0014773
-0.0020661 -0.00067088 0.00075173 0.00030254
0.0026066 0.0081175 0.22586 0.2387 0.0038225 0.00040673 -0.0014785 -0.00046312
-0.00059127 0.00018756 -0.00085654 -0.00040714
-0.0035265 0.00023219 0.0038196 0.00038373 0.26114 -0.19912 0.00090012 0.0014053
-0.001867 -2.9615e-06 -0.00070635 -0.00077971
0.0029236 -0.001505 -0.0014728 -0.00046858 0.00088379 0.0013923 0.23984 -0.00051266
-0.0028486 0.010654 0.0014656 -0.0024805
-0.00209 -0.00065856 -0.00057614 0.00018166 -0.0018606 2.2442e-05 -0.0028029 0.010649
0.22308 0.11128 0.0010252 0.010106
0.00074754 0.00031445 -0.00085875 -0.00038905 -0.00073801 -0.00081159 0.0014951 -0.0024968
0.0010381 0.010099 0.27352 0.16164
1760000000 0.2773 -0.077648 0.0041143 0.0047974 -0.0023222 0.00096297 0.00089919 -0.0035648
-0.0014495 0.00073794 0.00036599 -0.00048931
0.0040974 0.0047852 0.25097 0.1986 0.0015343 -0.0014337 -0.001173 0.00030798
-0.0008489 0.00079861 -0.0005828 0.00044694
-0.0022969 0.00098142 0.0015344 -0.0014377 0.21219 -0.23293 0.0013275 0.00064478
-0.0010423 0.0016473 -0.0014274 -0.00022819
0.00089815 -0.0035533 -0.0011686 0.00030935 0.001347 0.00063985 0.23063 -0.049401
0.0004452 0.0092826 -0.00035404 -0.0026451
-0.0014935 0.00075387 -0.00084804 0.00081721 -0.0010457 0.0016461 0.00050052 0.0092865
0.23584 0.075459 0.0048603 0.0071465
0.00032078 -0.00046204 -0.00057089 0.00048479 -0.0014413 -0.00021029 -0.00035917 -0.0026466
0.0048906 0.007124 0.28437 0.12324
1820000000 0.25177 -0.11391 0.0037444 0.0017005 -5.6969e-05 0.0024847 -0.0013149 -0.0028344
-0.0010333 0.0011402 -4.3887e-05 -5.1124e-05
0.0037345 0.0016917 0.26052 0.16891 -0.00039965 -0.00027051 -0.0011172 0.0010079
5.7719e-05 0.0010988 -0.00048253 0.0005382
-3.0711e-05 0.0024933 -0.00040782 -0.00026085 0.16173 -0.2485 0.0012811 1.4633e-05
0.00016521 0.0022197 -0.0012682 0.0005347
-0.0013477 -0.0028323 -0.0011062 0.0010102 0.0012736 1.4954e-05 0.20232 -0.094453
0.0020124 0.0071451 -0.0016132 -0.0015691
-0.0010644 0.0011465 6.8245e-05 0.0011078 0.00017923 0.0022245 0.0020515 0.0071486
0.25132 0.045862 0.0057189 0.0032781
-5.4466e-05 -8.7023e-05 -0.00046419 0.00055219 -0.0012646 0.00056202 -0.0016463 -0.0016216
0.0057341 0.0032677 0.28558 0.085871
1880000000 0.21573 -0.15345 0.0012774 -8.2796e-06 -0.00042276 0.0021258 -0.0030397 -0.0018021
-0.00014338 0.0017614 0.00016308 -0.00041472
0.0012662 -1.0121e-05 0.26462 0.12214 -0.0025423 0.0015469 -8.843e-05 0.0015865
0.00042346 0.00096402 0.00016467 0.00091774
-0.00043456 0.0021575 -0.0025412 0.0015463 0.10834 -0.25856 0.0013009 -0.0010116
0.0016417 0.0015147 -0.00073653 0.0013708
-0.0030155 -0.0017891 -6.8859e-05 0.0015579 0.0012616 -0.0010161 0.16375 -0.13511
0.0026676 0.0046251 -0.0024121 6.2385e-06
-0.0001008 0.0017919 0.00045737 0.00095819 0.0016518 0.0014808 0.0027531 0.0045981
0.25247 0.012628 0.0054208 0.00064459
0.00013877 -0.00043779 0.00018341 0.00092447 -0.00066237 0.001371 -0.0023338 -1.5925e-05
0.0054267 0.00061689 0.28381 0.051158
1940000000 0.17581 -0.17843 -0.00080617 -0.0011 0.001544 0.002111 -0.0035409 0.00085384
0.0015417 0.0010847 -0.00057238 -0.00052713
-0.00080029 -0.0011343 0.26447 0.090767 -0.0013605 0.003976 0.00088187 0.0011735
0.0014371 0.00047271 0.00081982 0.00034635
0.0015874 0.0021332 -0.0013574 0.0040023 0.061824 -0.25124 0.00013975 -0.0016657
0.0021796 0.0001531 0.00046001 0.0016404
-0.0035605 0.00084874 0.00091674 0.0011726 0.00015064 -0.001654 0.11254 -0.16586
0.0016298 0.002921 -0.0016768 0.00099705
0.0015113 0.001029 0.0014413 0.00044795 0.0021896 0.00012612 0.0016407 0.0029509
0.25245 -0.026373 0.0040242 -0.0026148
-0.00059565 -0.00057699 0.00079913 0.00036461 0.00044953 0.0016223 -0.0016499 0.0010758
0.0040301 -0.0025911 0.27114 0.014524
2000000000 0.12954 -0.19245 -0.0043774 0.0011291 0.0026329 0.0015702 -0.0021717 0.0034431
0.0012097 5.2829e-05 -0.00036819 0.00048033
-0.0043839 0.0011204 0.25047 0.05518 -0.0010273 0.0058277 0.0014468 0.00038014
0.0011015 -0.00097108 0.00042515 7.9905e-05
0.0025985 0.0015715 -0.0010249 0.0058426 0.018125 -0.23635 -0.0010255 -0.00078241
0.0016184 -0.00098186 0.0016846 0.00099779
-0.0021535 0.00348 0.0014518 0.00038787 -0.00099858 -0.00076145 0.059759 -0.17752
-0.00031211 0.0022945 -0.00037928 0.0020096
0.0011445 -3.5657e-05 0.0011081 -0.0010061 0.0015891 -0.0010037 -0.00028954 0.0022738
0.24508 -0.060535 0.00047334 -0.0036011
