!Keysight Technologies,M9804A,MY58100912,A.14.10.03
!Date: Thursday, April 27, 2023 10:28:33
!Correction: S11(C  6-Port  ) 
!S12(C  6-Port  ) 
!S13(C  6-Port  ) 
!S14(C  6-Port  ) 
!S15(C  6-Port  ) 
!S16(C  6-Port  ) 
!S21(C  6-Port  ) 
!S22(C  6-Port  ) 
!S23(C  6-Port  ) 
!S24(C  6-Port  ) 
!S25(C  6-Port  ) 
!S26(C  6-Port  ) 
!S31(C  6-Port  ) 
!S32(C  6-Port  ) 
!S33(C  6-Port  ) 
!S34(C  6-Port  ) 
!S35(C  6-Port  ) 
!S36(C  6-Port  ) 
!S41(C  6-Port  ) 
!S42(C  6-Port  ) 
!S43(C  6-Port  ) 
!S44(C  6-Port  ) 
!S45(C  6-Port  ) 
!S46(C  6-Port  ) 
!S51(C  6-Port  ) 
!S52(C  6-Port  ) 
!S53(C  6-Port  ) 
!S54(C  6-Port  ) 
!S55(C  6-Port  ) 
!S56(C  6-Port  ) 
!S61(C  6-Port  ) 
!S62(C  6-Port  ) 
!S63(C  6-Port  ) 
!S64(C  6-Port  ) 
!S65(C  6-Port  ) 
!S66(C  6-Port  ) 
!S6P File: Measurement: :
# Hz S  RI   R 50
500000000 -0.33953 -0.021325 -0.011186 -0.0034468 -0.0083048 0.012943 -0.0035707 0.012468
0.011698 0.0038421 -0.0034709 0.0087953
-0.011182 -0.0034616 -0.41942 -0.03961 0.0061302 -0.011377 0.0019008 0.012517
0.0073415 0.0023295 0.0021429 0.013992
-0.0082929 0.012946 0.0061189 -0.011398 -0.26379 0.22083 0.0070501 0.0038007
-0.0011068 0.0080322 0.0018729 0.012096
-0.0035584 0.012465 0.0019033 0.012518 0.0070546 0.0038016 -0.33123 0.058676
-0.020747 -0.0062011 0.015595 0.024379
0.011725 0.0038319 0.0073507 0.002331 -0.0010998 0.0080364 -0.020764 -0.0061938
-0.23505 -0.17074 -0.026325 0.0041869
-0.0034675 0.00882 0.0021344 0.013991 0.0018641 0.012091 0.015603 0.024377
-0.026324 0.0041765 -0.28184 -0.089711
560000000 -0.31381 0.13504 -0.026623 -0.060487 0.00065099 0.011626 0.0053272 0.0099269
0.0094084 0.0044248 0.01061 0.0074579
-0.02656 -0.060392 -0.37584 0.11658 -0.042246 -0.034938 0.013512 0.0039035
-0.012274 -0.0033638 0.0030299 -0.0012797
0.00067218 0.011634 -0.042338 -0.034923 -0.18163 0.26671 -0.00010611 -0.0041237
0.018566 0.0038661 0.0065408 -0.0060491
0.0053247 0.0099277 0.01352 0.0038845 -0.00010178 -0.0041215 -0.30604 0.1466
0.00030924 -0.023221 0.0034933 -0.018781
0.0094223 0.0044149 -0.012315 -0.0033112 0.018553 0.0038621 0.00028745 -0.023234
-0.28978 0.0017048 0.0039195 -0.046825
0.010593 0.0074445 0.0030441 -0.0012563 0.006549 -0.0060459 0.0035005 -0.018782
0.0039437 -0.046837 -0.3303 0.051657
620000000 -0.2716 0.12079 -0.02341 0.0078045 0.0039742 0.0082628 0.0072646 -0.0053894
0.011183 -0.00098746 0.00067799 -0.0025799
-0.023394 0.0078062 -0.40162 0.071468 -0.01934 0.00079606 -0.0010621 -0.0022703
0.010492 -0.0062278 0.0015001 -0.0023795
0.0039971 0.0082574 -0.019357 0.00083106 -0.14992 0.27602 -0.00095762 -0.0047741
-0.0034941 -0.0028889 0.0083667 -0.0031323
0.0072308 -0.0054032 -0.001058 -0.0022775 -0.00095408 -0.0047673 -0.26347 0.15847
-0.040838 -0.01728 0.012234 0.024436
0.01124 -0.0009898 0.010485 -0.0062565 -0.0034924 -0.0028899 -0.040866 -0.017258
-0.21066 -0.034039 -0.039859 0.01539
0.0006918 -0.0026269 0.0014981 -0.0023773 0.0083566 -0.0031252 0.012229 0.024441
-0.039852 0.015361 -0.25589 0.022489
680000000 -0.22874 0.20354 -0.027702 -0.011943 0.0056246 0.0046742 0.0012169 -0.0072396
-0.0027072 -0.010836 0.0045322 -0.006975
-0.027678 -0.011953 -0.38479 0.16602 -0.032159 0.00054004 -0.0012088 -0.0004412
-0.0023975 -0.0089104 -0.0013022 -0.0020294
0.0056164 0.0046735 -0.032164 0.00059279 -0.098571 0.29373 -0.00088135 -0.00036725
-0.0015678 0.00015825 -0.0034666 -0.0087525
0.001223 -0.0072481 -0.0012161 -0.00043578 -0.00088413 -0.00036824 -0.21779 0.20636
-0.026063 -0.0047526 -0.0092703 -0.0081168
-0.0026984 -0.010825 -0.0024412 -0.008917 -0.0015754 0.00014897 -0.026086 -0.0047367
-0.25324 0.06432 -0.0072483 -0.0064354
0.0045514 -0.0069934 -0.0013137 -0.0020234 -0.0034711 -0.0087552 -0.0092607 -0.0081262
-0.0072404 -0.0064314 -0.25478 0.11866
740000000 -0.18442 0.19862 -0.036433 0.026733 0.012481 -0.0057646 -0.00056662 -0.0040105
-0.0045307 -0.0032534 -0.0057873 0.0030962
-0.036412 0.026673 -0.33287 0.18546 -0.033098 0.035226 -0.0010941 -0.0063601
-0.011922 0.0079217 -0.0021627 -0.0054595
0.012465 -0.005772 -0.033019 0.035316 -0.065151 0.29247 -0.001709 0.0031788
-0.0032952 -0.00466 -0.0019499 0.0011074
-0.00057882 -0.004016 -0.0011174 -0.006361 -0.0017065 0.003169 -0.19951 0.21497
-0.042584 -0.0027187 0.022697 0.012896
-0.0045527 -0.0032351 -0.011905 0.0079772 -0.0032864 -0.0046598 -0.042615 -0.0026508
-0.15809 0.085883 -0.039913 0.0044032
-0.0057751 0.0031024 -0.0021665 -0.0054682 -0.0019561 0.0011002 0.022713 0.012889
-0.039899 0.0043499 -0.24373 0.12857
800000000 -0.15009 0.23592 -0.020909 0.017644 0.0048135 -0.010535 -0.004499 -0.0017669
-0.0035281 0.0025404 0.0034407 0.00044179
-0.020899 0.017623 -0.33339 0.25391 -0.0065656 0.033676 -0.0022904 0.0023054
-0.00056868 0.0033479 0.0010931 0.0052735
0.0048026 -0.010546 -0.0065039 0.033714 -0.022569 0.31448 0.00080152 0.0017109
0.00033744 0.0035288 -0.0017707 0.0011166
-0.0044947 -0.001749 -0.0022882 0.0023108 0.00080265 0.0017076 -0.16923 0.24126
-0.026929 0.017056 0.013124 -0.010074
-0.0035085 0.002556 -0.00055629 0.0033475 0.00034099 0.0035308 -0.026927 0.01712
-0.19641 0.11299 -0.01603 0.019548
0.0034338 0.00043425 0.0011089 0.0052742 -0.0017798 0.0011127 0.013135 -0.010098
-0.016052 0.019539 -0.23121 0.17524
860000000 -0.11551 0.25555 -0.015514 0.030779 -0.0036349 -0.009732 -0.0020863 0.0011155
0.004205 0.0045385 -0.0028157 -0.0024348
-0.015512 0.030754 -0.28622 0.29484 0.0092702 0.033303 3.3759e-05 0.0022897
0.0042366 0.00026859 0.0029957 0.00041357
-0.0036559 -0.00972 0.0093416 0.033289 0.025424 0.32162 -0.00047604 -4.2003e-05
0.0024975 -0.0014504 0.0017876 0.004101
-0.0020685 0.0011249 3.3856e-05 0.0022836 -0.00047782 -4.2153e-05 -0.13241 0.2519
-0.015184 0.021161 -0.0053153 -0.0089236
0.0042095 0.0045416 0.0042426 0.00024542 0.0024967 -0.0014582 -0.015175 0.021203
-0.14333 0.15947 -0.021587 0.016856
-0.0028092 -0.0024303 0.0029928 0.00040276 0.0018005 0.0041011 -0.0053242 -0.0089326
-0.02158 0.016835 -0.18208 0.2157
920000000 -0.089124 0.27705 0.0064886 0.036482 -0.0094033 -0.0041285 -0.0013689 0.001692
0.0012994 0.0015393 0.0025612 -0.0017806
0.0064763 0.036447 -0.25595 0.31527 0.028414 0.020253 0.0017476 0.0010125
0.0071079 -0.00077844 0.0036974 -0.002976
-0.0094037 -0.0041167 0.028468 0.020214 0.072811 0.32183 0.0019093 -0.00018679
0.0015477 -0.00049548 0.00088279 -0.0011689
-0.0013662 0.0016838 0.0017424 0.0010163 0.0019057 -0.00018633 -0.1065 0.26775
-0.0069296 0.031516 0.002922 -0.0065275
0.0012957 0.001556 0.0071112 -0.00083513 0.0015539 -0.00047825 -0.0068779 0.031571
-0.13015 0.16511 0.00043315 0.026215
0.0025717 -0.001792 0.0036801 -0.0029978 0.00088535 -0.0011835 0.0029125 -0.0065301
0.00043117 0.026202 -0.1824 0.23019
980000000 -0.042391 0.29448 0.018578 0.028312 -0.0086476 0.004707 0.0020022 0.0029931
0.0040119 -0.00178 -0.0031042 -0.0021118
0.018553 0.028303 -0.20411 0.34761 0.032796 0.0032005 0.0021181 -0.00031406
0.0016813 -0.0062829 -0.00052961 -0.0023786
-0.0086244 0.0047223 0.032804 0.0031228 0.11949 0.314 0.00049169 -0.0012721
7.2104e-05 -0.0023574 0.0012318 -0.0002917
0.0020105 0.0029994 0.0021216 -0.00033017 0.00049845 -0.0012803 -0.067237 0.27695
0.011605 0.028842 -0.0084482 -0.0066555
0.003992 -0.0017785 0.0016621 -0.0063105 7.6074e-05 -0.0023464 0.011671 0.02885
-0.097324 0.1891 0.0066639 0.018379
-0.0031012 -0.0020906 -0.00054509 -0.0023953 0.0012332 -0.00029951 -0.0084585 -0.006648
0.0066429 0.018371 -0.13876 0.26893
1040000000 0.00023393 0.30182 0.033017 0.015665 -0.0012515 0.0066893 0.0022618 0.00052741
0.00011117 -0.0032039 -0.00086709 -0.0014046
0.032995 0.015671 -0.16847 0.36096 0.028019 -0.015969 0.0014021 -0.0018434
-0.0024385 -0.0025578 -0.0015738 -0.0027481
-0.0012259 0.0066843 0.027974 -0.016039 0.1663 0.29964 -0.00063761 -0.0015278
-0.001638 -0.00094425 -0.00050675 -0.0010668
0.0022703 0.00053757 0.0013865 -0.0018582 -0.0006323 -0.0015284 -0.039052 0.2859
0.021858 0.015637 -0.0027187 0.00072369
8.7706e-05 -0.0031764 -0.0024567 -0.0025731 -0.0016404 -0.0009338 0.021902 0.015604
-0.065001 0.19492 0.014347 0.015755
-0.00086443 -0.0013842 -0.0016063 -0.0027456 -0.0005076 -0.0010605 -0.0027147 0.00072876
0.014334 0.015753 -0.11416 0.28876
1100000000 0.045716 0.3081 0.034607 -0.0059183 0.002668 0.0036645 0.0020368 -0.00094965
-0.0019323 -0.0027184 -0.0036421 0.00061506
0.034575 -0.0058949 -0.12485 0.37751 0.013573 -0.028051 -0.00016967 -0.0017592
-0.0035245 -0.00052711 -0.0034192 -0.00012629
0.0026854 0.0036587 0.013494 -0.028096 0.21354 0.27731 -0.0019082 0.00024471
-0.0019329 0.00060734 -0.0010428 -0.00018043
0.0020307 -0.0009477 -0.00017675 -0.0017682 -0.001908 0.00023465 0.0023145 0.28877
0.025723 0.0019087 -0.0028397 -4.54e-05
-0.0019455 -0.0027106 -0.0035257 -0.00052362 -0.0019373 0.00061334 0.025739 0.0018667
-0.046551 0.20638 0.018808 0.006259
-0.0036325 0.00062457 -0.0034184 -0.00011719 -0.0010421 -0.00018 -0.0028351 -3.0256e-05
0.01879 0.0062579 -0.067278 0.31357
1160000000 0.096308 0.30203 0.022061 -0.021793 0.0022645 -0.00033102 -9.2252e-05 -0.0019192
-0.0038745 -0.00047893 -0.00066599 0.0038381
0.022057 -0.021757 -0.080667 0.38158 -0.0051891 -0.028385 -0.0016481 -0.0014943
-0.0026783 0.0026939 -0.0013776 0.0017508
0.0022668 -0.00033543 -0.0052818 -0.028376 0.25609 0.24447 -0.00077573 0.0018405
-0.00041006 0.0020468 -0.00084838 0.00020992
-0.0001067 -0.0019113 -0.0016656 -0.0015044 -0.00076884 0.0018371 0.041513 0.28405
0.020616 -0.013638 -0.0031485 0.0043159
-0.003891 -0.00046545 -0.0026719 0.0026933 -0.00041823 0.0020508 0.020609 -0.013686
-0.013509 0.21264 0.01757 -0.0021038
-0.0006526 0.0038421 -0.0013789 0.0017542 -0.00085195 0.00021398 -0.0031481 0.0043186
0.017561 -0.0020973 -0.020343 0.31427
1220000000 0.14111 0.28951 0.0081879 -0.029798 -0.0016165 -0.00024636 0.00022182 -0.00088419
-0.0023789 0.0022975 0.001354 0.0018503
0.0082103 -0.02976 -0.035898 0.39259 -0.017601 -0.019858 -0.0024306 0.00052623
9.3969e-05 0.003085 -0.00051924 0.002042
-0.0016137 -0.00024569 -0.01768 -0.019803 0.29455 0.20367 0.00081108 0.0019045
0.00069548 0.0012889 0.00043661 0.00059969
0.00022001 -0.00087947 -0.0024286 0.00053534 0.0008138 0.0018981 0.081964 0.27358
0.0090669 -0.019848 0.0012434 0.001401
-0.0023855 0.0023039 0.00011421 0.0030842 0.00069 0.0012854 0.0090494 -0.019878
0.010175 0.2196 0.012023 -0.014215
0.0013555 0.0018418 -0.00051405 0.00204 0.00043677 0.00059914 0.0012425 0.0013938
0.012019 -0.014206 0.01303 0.32653
1280000000 0.19 0.26605 -0.009541 -0.027177 -0.0015352 0.0029844 -0.00091305 -0.0020174
-0.00069286 0.002959 0.0023671 0.00086307
-0.0095065 -0.027158 0.010241 0.38272 -0.023707 -0.0072527 -0.00097199 0.0014189
0.0018892 0.0017536 0.00081558 0.0018299
-0.0015313 0.0029797 -0.023749 -0.0071745 0.32347 0.15823 0.0017839 6.3853e-05
0.0012343 0.00022561 0.00030025 0.00017117
-0.00091311 -0.0020138 -0.00097293 0.0014278 0.0017753 6.6298e-05 0.11792 0.25438
-0.0015623 -0.021123 -0.00081697 0.00061821
-0.00068868 0.0029619 0.0019058 0.0017439 0.0012418 0.00022242 -0.0016032 -0.021138
0.045902 0.22105 0.0010978 -0.015851
0.0023718 0.00085234 0.0008148 0.0018213 0.00030003 0.00017062 -0.00082029 0.00061847
0.00111 -0.015845 0.058925 0.3248
1340000000 0.22662 0.23126 -0.018524 -0.016906 0.0015114 0.0043939 -0.0017087 -0.00098282
0.0014459 0.0025638 0.0015296 -0.0015027
-0.01849 -0.016904 0.049841 0.37328 -0.020876 0.005247 -8.4675e-05 0.002015
0.0020731 0.00061736 0.001387 0.00064299
0.0015342 0.0043868 -0.02087 0.0053315 0.34385 0.11023 0.0013228 -0.0010646
0.00067282 -0.00056994 1.5853e-05 0.00027132
-0.0017128 -0.00097576 -7.6318e-05 0.002017 0.0013163 -0.0010646 0.1493 0.23241
-0.011404 -0.017099 0.0003092 0.001382
0.0014635 0.0025491 0.0020884 0.00061164 0.00067406 -0.00057366 -0.011448 -0.017094
0.075289 0.215 -0.0057337 -0.013625
0.0015357 -0.0015032 0.0013886 0.00063865 1.5057e-05 0.00027301 0.00031008 0.0013799
-0.0057166 -0.013617 0.097907 0.31721
1400000000 0.25898 0.19169 -0.022948 -0.0053802 0.0054675 0.0027606 -0.0021618 0.00055347
0.0023923 0.00086714 0.00011845 -0.001411
-0.022916 -0.0054003 0.086813 0.35912 -0.013809 0.012818 0.0013941 0.0012679
0.0012357 -0.0010058 0.0011212 1.1736e-05
0.0054736 0.002739 -0.013777 0.012873 0.35608 0.056554 8.4129e-05 -0.0020688
7.425e-07 -0.0004597 0.00031622 0.00019381
-0.0021651 0.00056386 0.0014032 0.0012614 7.8642e-05 -0.0020644 0.17737 0.20167
-0.017336 -0.009183 -0.00053508 0.000834
0.0024 0.00085696 0.0012296 -0.0010059 -3.4487e-06 -0.00045996 -0.017367 -0.0091461
0.10709 0.20875 -0.011951 -0.0079527
0.00012092 -0.0014109 0.0011238 -1.9278e-06 0.00031665 0.00019778 -0.0005345 0.00083217
-0.011944 -0.0079552 0.14096 0.30294
1460000000 0.28045 0.14688 -0.019229 0.006134 0.0055745 -0.0022905 -0.0016113 0.0017192
0.0020512 -0.00056963 -0.00038371 -0.00086609
-0.019215 0.0061116 0.12032 0.33633 -0.0051787 0.015117 0.0017662 8.8671e-05
0.00069595 -0.001446 0.0010397 -0.0006053
0.0055651 -0.0023117 -0.005123 0.015139 0.3606 0.0025427 -0.001648 -0.0013972
0.00013108 -0.00022487 0.0006336 -0.0003383
-0.001613 0.0017232 0.0017672 8.1427e-05 -0.001636 -0.0014087 0.20115 0.17143
-0.017938 -0.0012683 -8.2024e-05 0.0025859
0.0020498 -0.00057688 0.00068399 -0.0014527 0.0001306 -0.00022292 -0.017948 -0.0012362
0.13499 0.19305 -0.012815 -0.0015125
-0.00040466 -0.00086639 0.0010386 -0.00061522 0.00063034 -0.00033732 -7.1885e-05 0.002595
-0.012806 -0.0015129 0.17269 0.2802
1520000000 0.29169 0.10412 -0.013023 0.010925 0.0030202 -0.0043539 0.00016438 0.0026795
0.0020489 -0.0017194 -0.0011211 -9.0389e-05
-0.013021 0.010907 0.15324 0.32089 0.0020605 0.012583 0.0016603 -0.00090325
-0.00016965 -0.0011059 0.00021983 -0.00091565
0.0030102 -0.0043607 0.0021111 0.012581 0.35363 -0.053248 -0.0015244 -0.0001995
0.00047388 -0.00097728 1.7233e-05 -0.00015754
0.00015862 0.0026862 0.0016581 -0.00091342 -0.0015222 -0.00020557 0.22211 0.13336
-0.015976 0.0052245 0.0022689 0.0021384
0.0020391 -0.0017439 -0.00017996 -0.0011036 0.0004758 -0.00097981 -0.015971 0.0052707
0.16237 0.1778 -0.012097 0.0033282
-0.0011279 -8.4332e-05 0.00021864 -0.00091673 1.6388e-05 -0.0001589 0.0022722 0.0021387
-0.012095 0.0033264 0.20462 0.2574
1580000000 0.29943 0.057263 -0.0064639 0.01314 -0.0011132 -0.0048378 0.0016014 0.0019033
-0.00016299 -0.0021979 -0.00027856 0.00036473
-0.0064657 0.013125 0.17963 0.2954 0.0053731 0.0076787 0.00038627 -0.0017172
-0.00065853 -0.00088936 -0.00024397 -0.0007821
-0.0011342 -0.0048352 0.0054106 0.0076667 0.33319 -0.11085 -0.0016319 0.0011086
-0.00040305 -0.0011054 0.00015712 -0.00064506
0.0016049 0.0018934 0.00037166 -0.0017188 -0.0016254 0.0011126 0.23354 0.094249
-0.011335 0.010156 0.0028522 0.00033741
-0.00017363 -0.0022131 -0.00066058 -0.00089125 -0.00040204 -0.0011129 -0.011316 0.010191
0.1855 0.15835 -0.0091494 0.0086501
-0.00027707 0.00036011 -0.00024515 -0.00077644 0.00015619 -0.00064642 0.0028534 0.00033482
-0.0091523 0.0086554 0.23428 0.22923
1640000000 0.29987 0.01571 -0.00022195 0.011315 -0.0029197 -0.0025388 0.0027815 0.00083235
-0.00084034 -0.0016615 -0.00020785 0.00062639
-0.00023218 0.011309 0.20831 0.27026 0.0057427 0.0031596 -0.00089185 -0.0016434
-0.00098038 -0.00016946 -0.00051473 -0.00053672
-0.0029329 -0.0025271 0.0057683 0.0031348 0.30399 -0.15942 -0.00044948 0.0016892
-0.0012882 -0.00078662 -0.00023459 -0.0002235
0.0027792 0.00081814 -0.00089616 -0.0016373 -0.00044923 0.0016841 0.24365 0.047198
-0.0061576 0.010971 0.0027741 -0.0013162
-0.00085498 -0.001647 -0.00098051 -0.00016578 -0.0012826 -0.00079287 -0.0061417 0.010994
0.20688 0.13306 -0.0038755 0.010404
-0.00020565 0.00062416 -0.0005196 -0.0005327 -0.00023243 -0.00022582 0.0027695 -0.0013197
-0.0038761 0.010398 0.25852 0.19706
1700000000 0.29093 -0.029666 0.0025926 0.008182 -0.0035232 0.00025353 0.0029253 -0.001483
-0.0021183 -0.00069794 0.00070583 0.00030962
0.0025762 0.008182 0.22589 0.23872 0.003809 0.00041029 -0.0014875 -0.00046397
-0.00059566 0.00020281 -0.00087096 -0.00041003
-0.0035223 0.00026408 0.0038057 0.00040616 0.26119 -0.19907 0.00084066 0.0014162
-0.0018785 3.8826e-05 -0.00068141 -0.00077039
0.0029117 -0.0014924 -0.0014924 -0.00045541 0.00084203 0.0014171 0.23981 -0.0004463
-0.0026494 0.010698 0.0015501 -0.0025068
-0.002113 -0.00069421 -0.00059031 0.0002077 -0.0018768 4.1626e-05 -0.0026276 0.010713
0.2229 0.11154 0.0010298 0.010275
0.00071357 0.00030835 -0.00087599 -0.00040696 -0.00068534 -0.00076619 0.0015398 -0.0025203
0.0010352 0.010276 0.27345 0.16175
1760000000 0.27722 -0.077538 0.0041057 0.0048416 -0.0022928 0.0009339 0.00092183 -0.0035563
-0.0015172 0.00076975 0.00038413 -0.00050973
0.0040969 0.0048354 0.25103 0.19859 0.0015508 -0.0014517 -0.0011856 0.00030884
-0.00084291 0.00079355 -0.00056262 0.00045667
-0.002287 0.00094175 0.0015457 -0.0014601 0.21226 -0.23293 0.001383 0.00064214
-0.001042 0.0016758 -0.0013849 -0.00017907
0.00091766 -0.00355 -0.0011853 0.00032168 0.0013872 0.0006467 0.23063 -0.049419
0.00065172 0.0092544 -0.0003023 -0.0027608
-0.00151 0.00078364 -0.00083597 0.00080598 -0.0010444 0.0016752 0.00067649 0.0092516
0.23572 0.07574 0.0049704 0.0073089
0.0003796 -0.00051054 -0.0005627 0.00045987 -0.0013831 -0.0001771 -0.00030644 -0.0027604
0.004968 0.0073062 0.28437 0.12334
1820000000 0.2518 -0.11371 0.0037432 0.0017514 -4.8592e-05 0.0024866 -0.0012925 -0.0028558
-0.0010313 0.0011496 -8.1013e-05 -6.7675e-05
0.0037484 0.0017571 0.26058 0.1689 -0.00037915 -0.00025286 -0.0011427 0.001026
5.2574e-05 0.001095 -0.00051311 0.00053834
-2.9388e-05 0.0024891 -0.00037274 -0.00025074 0.16185 -0.2485 0.0012027 -4.0054e-05
0.0001625 0.0022237 -0.0013286 0.00055048
-0.0013057 -0.0028466 -0.0011439 0.0010287 0.0012024 -2.2972e-05 0.20239 -0.094496
0.0021429 0.0070673 -0.0015758 -0.0017751
-0.0010295 0.0011687 6.9746e-05 0.0010936 0.00017031 0.0022241 0.0021594 0.007067
0.25125 0.046147 0.0059349 0.0033739
-8.1077e-05 -7.0094e-05 -0.00050984 0.00054411 -0.00132 0.00054923 -0.0015825 -0.0017718
0.005928 0.0033704 0.28559 0.085996
1880000000 0.21574 -0.15332 0.0012901 2.0363e-05 -0.00042675 0.0020905 -0.003036 -0.0018056
-0.00010151 0.0017793 0.00020892 -0.00044531
0.0012912 2.5763e-05 0.26466 0.12216 -0.0025156 0.0015501 -8.0553e-05 0.0016057
0.0004283 0.00095064 0.00016467 0.00093205
-0.00041996 0.0020909 -0.0025034 0.0015661 0.10843 -0.2585 0.0013244 -0.0010021
0.001697 0.001579 -0.00074308 0.0014074
-0.0030439 -0.0017897 -7.7482e-05 0.0016012 0.0013283 -0.0010041 0.16379 -0.13503
0.0028073 0.0045055 -0.0023994 -3.7345e-05
-8.774e-05 0.0017822 0.00044359 0.00095211 0.0017038 0.0015728 0.0028163 0.004496
0.25249 0.012873 0.0055765 0.0007726
0.00020685 -0.00044563 0.00016737 0.00092604 -0.00074148 0.0014142 -0.0023962 -3.2082e-05
0.0055874 0.00077827 0.28379 0.051363
1940000000 0.17595 -0.17828 -0.00076883 -0.0010961 0.00156 0.0020934 -0.0035112 0.0008515
0.0015369 0.0010232 -0.00053839 -0.0005554
-0.00076777 -0.001099 0.26455 0.090756 -0.001333 0.0039693 0.00091024 0.0011745
0.001428 0.0004693 0.00083488 0.00032478
0.0015695 0.0020831 -0.0013129 0.0039882 0.061963 -0.25129 0.00013379 -0.0016477
0.0021859 0.00016247 0.00050499 0.0016378
-0.003512 0.0008739 0.00091214 0.0011696 0.00013507 -0.0016427 0.11262 -0.16591
0.0016846 0.0028076 -0.001828 0.00099697
0.0015417 0.0010176 0.0014262 0.00045628 0.0021846 0.00016452 0.0017046 0.0028025
0.25247 -0.026173 0.0040908 -0.0026628
-0.00054672 -0.0005537 0.00083597 0.00031588 0.00051291 0.0016416 -0.0018225 0.00099885
0.0040955 -0.0026582 0.2711 0.014656
2000000000 0.12967 -0.19249 -0.0043196 0.0010876 0.0026369 0.001548 -0.0021558 0.0034191
0.001233 -5.2833e-05 -0.00039577 0.0004123
-0.0043193 0.001077 0.25053 0.055195 -0.0010796 0.0058585 0.0015164 0.00032753
0.0011259 -0.00093316 0.00047522 4.4758e-05
0.0026218 0.0015334 -0.0010485 0.0058716 0.018017 -0.2363 -0.00092556 -0.00087968
0.0016437 -0.0009816 0.0016647 0.00099433
-0.0021511 0.0034252 0.0015218 0.00032769 -0.00093298 -0.0008799 0.059782 -0.17745
-0.00037293 0.0021361 -0.00061589 0.0020917
0.0012308 -6.6556e-05 0.0011275 -0.00094224 0.0016427 -0.00099032 -0.00037193 0.0021362
0.24513 -0.060333 0.00046976 -0.0037471
