!Keysight Technologies,M9804A,MY58100912,A.14.10.03
!Date: Thursday, April 27, 2023 10:28:33
!Correction: S11(C  6-Port  ) 
!S12(C  6-Port  ) 
!S13(C  6-Port  ) 
!S14(C  6-Port  ) 
!S15(C  6-Port  ) 
!S16(C  6-Port  ) 
!S21(C  6-Port  ) 
!S22(C  6-Port  ) 
!S23(C  6-Port  ) 
!S24(C  6-Port  ) 
!S25(C  6-Port  ) 
!S26(C  6-Port  ) 
!S31(C  6-Port  ) 
!S32(C  6-Port  ) 
!S33(C  6-Port  ) 
!S34(C  6-Port  ) 
!S35(C  6-Port  ) 
!S36(C  6-Port  ) 
!S41(C  6-Port  ) 
!S42(C  6-Port  ) 
!S43(C  6-Port  ) 
!S44(C  6-Port  ) 
!S45(C  6-Port  ) 
!S46(C  6-Port  ) 
!S51(C  6-Port  ) 
!S52(C  6-Port  ) 
!S53(C  6-Port  ) 
!S54(C  6-Port  ) 
!S55(C  6-Port  ) 
!S56(C  6-Port  ) 
!S61(C  6-Port  ) 
!S62(C  6-Port  ) 
!S63(C  6-Port  ) 
!S64(C  6-Port  ) 
!S65(C  6-Port  ) 
!S66(C  6-Port  ) 
!S6P File: Measurement: :
# Hz S  RI   R 50
500000000 -0.33947 -0.021642 -0.011562 -0.0036322 -0.0078765 0.012752 -0.0033247 0.012178
0.011621 0.004409 -0.0033604 0.0079943
-0.011427 -0.0036327 -0.4195 -0.039413 0.0062333 -0.011094 0.0016641 0.012639
0.0072442 0.0022325 0.0023348 0.013904
-0.0080491 0.012884 0.0060307 -0.011307 -0.26379 0.22104 0.0066985 0.0040142
-0.00095633 0.0080475 0.0019866 0.011763
-0.0033639 0.012466 0.0015091 0.012644 0.006675 0.003807 -0.33165 0.059092
-0.02053 -0.0063597 0.01529 0.024502
0.011312 0.0039808 0.0072149 0.0019791 -0.00082963 0.0078494 -0.020612 -0.006269
-0.23496 -0.17021 -0.026887 0.0041494
-0.0031025 0.0089125 0.0017833 0.013517 0.0014653 0.011619 0.015077 0.024728
-0.027018 0.004669 -0.28218 -0.089546
560000000 -0.31364 0.1354 -0.025674 -0.060728 0.0010553 0.011997 0.0053588 0.010177
0.0090186 0.0046639 0.01063 0.0075239
-0.026365 -0.060351 -0.37605 0.11647 -0.042368 -0.035254 0.012888 0.0040379
-0.011847 -0.0038145 0.002799 -0.0011456
0.0007553 0.012086 -0.042421 -0.034803 -0.18167 0.26681 -0.0004053 -0.0045966
0.018913 0.0053888 0.0068687 -0.0061823
0.0051679 0.010026 0.013094 0.0040669 0.00014089 -0.0043128 -0.30578 0.14661
0.00048552 -0.024076 0.0038061 -0.018575
0.0090556 0.0051675 -0.01148 -0.0038135 0.018781 0.0048766 0.00063904 -0.023726
-0.28686 0.0043536 0.004413 -0.047845
0.010377 0.0073261 0.0035537 -0.00093539 0.0068389 -0.0062801 0.0037026 -0.018919
0.003038 -0.047407 -0.32917 0.053009
620000000 -0.27119 0.12083 -0.023589 0.0078734 0.0038823 0.0081693 0.0072714 -0.0054994
0.011039 -0.0010831 0.00039709 -0.0032411
-0.023546 0.007832 -0.4017 0.071449 -0.019393 0.00089283 -0.001144 -0.0021488
0.010303 -0.0065084 0.0011788 -0.0027364
0.0041278 0.008225 -0.01937 0.00079137 -0.15009 0.27623 -0.00073625 -0.0048861
-0.0037553 -0.0029793 0.0082082 -0.0032457
0.0073011 -0.0053135 -0.0011386 -0.0021166 -0.00079793 -0.0048216 -0.2635 0.15845
-0.040324 -0.016775 0.012261 0.024517
0.011498 -0.00097892 0.010607 -0.0065362 -0.0033783 -0.0028872 -0.040441 -0.017441
-0.21132 -0.034957 -0.040109 0.014796
0.00078699 -0.0019396 0.0014431 -0.0026773 0.0083302 -0.0027986 0.012258 0.024131
-0.039919 0.015824 -0.25545 0.023081
680000000 -0.22886 0.20379 -0.027684 -0.01192 0.0055696 0.004711 0.0013122 -0.0071836
-0.0027968 -0.010538 0.0048347 -0.0072628
-0.027754 -0.011959 -0.38484 0.1661 -0.032163 0.00050777 -0.0012835 -0.00049431
-0.0024964 -0.0091076 -0.0014705 -0.0019543
0.0055361 0.0046902 -0.032169 0.00055117 -0.098486 0.2937 -0.00078662 -0.00041937
-0.001714 6.9856e-05 -0.003458 -0.0087226
0.0013178 -0.00709 -0.001274 -0.00047395 -0.0009229 -0.00035635 -0.21745 0.20665
-0.026245 -0.005051 -0.0093483 -0.0082831
-0.0026205 -0.010767 -0.0024799 -0.0090552 -0.0016128 0.00011077 -0.025829 -0.0047588
-0.25269 0.064894 -0.0073778 -0.0067005
0.0042493 -0.0069568 -0.0015153 -0.0019398 -0.0034639 -0.0087868 -0.009338 -0.0078716
-0.0073784 -0.0065331 -0.2545 0.11852
740000000 -0.18444 0.19855 -0.03646 0.026907 0.012456 -0.0057231 -0.00052395 -0.0042099
-0.0048456 -0.0028854 -0.0057075 0.0029846
-0.036549 0.026749 -0.33272 0.18518 -0.033055 0.035184 -0.0012874 -0.0061938
-0.011728 0.0080547 -0.002738 -0.0053332
0.012409 -0.0057799 -0.032895 0.03549 -0.065083 0.29266 -0.0017348 0.0029608
-0.0031399 -0.0046059 -0.0018812 0.0010063
-0.00056121 -0.004093 -0.0009921 -0.0063743 -0.0018432 0.0030997 -0.19941 0.2151
-0.042961 -0.0026045 0.022642 0.01255
-0.0045953 -0.0032709 -0.011965 0.0079398 -0.0031799 -0.0046118 -0.0427 -0.0028409
-0.15766 0.085868 -0.040248 0.0042158
-0.0057969 0.0030358 -0.0019864 -0.0052144 -0.0020262 0.0010948 0.022567 0.013154
-0.040584 0.0045268 -0.24323 0.12823
800000000 -0.15014 0.23616 -0.020906 0.017642 0.0048477 -0.010572 -0.004535 -0.0017951
-0.003449 0.002488 0.0035676 0.00056803
-0.020876 0.017657 -0.33339 0.25394 -0.0065953 0.033646 -0.0023191 0.0021929
-0.0005094 0.003476 0.0011566 0.0052998
0.0047941 -0.01053 -0.0065518 0.033716 -0.022506 0.31444 0.00081136 0.0016892
0.00036153 0.0036092 -0.0016587 0.0013219
-0.004604 -0.0018166 -0.0022964 0.0022058 0.00081995 0.0016342 -0.16905 0.24132
-0.027141 0.016795 0.013185 -0.00984
-0.0034846 0.0025463 -0.00050548 0.0033369 0.0003355 0.0035165 -0.026906 0.016822
-0.19625 0.11308 -0.015994 0.019467
0.0033453 0.00034442 0.0011057 0.0051806 -0.0016756 0.0010656 0.013264 -0.0097936
-0.016129 0.019368 -0.23131 0.17542
860000000 -0.11554 0.25561 -0.015517 0.030634 -0.0036419 -0.0097152 -0.0020674 0.0012735
0.0044606 0.0046438 -0.0031915 -0.0024373
-0.015615 0.030648 -0.28614 0.29461 0.0092444 0.033271 -9.0266e-05 0.0022845
0.0044583 0.00040977 0.0032647 0.00027129
-0.0036622 -0.0097524 0.0093822 0.033248 0.025462 0.3216 -0.00053134 -1.4885e-05
0.0025286 -0.0012477 0.0017826 0.0039978
-0.0021534 0.0010971 4.9291e-05 0.0022604 -0.00049789 4.5735e-05 -0.13277 0.2519
-0.015248 0.021124 -0.0056014 -0.008926
0.0041924 0.0044898 0.0042656 0.00045393 0.0026062 -0.0013037 -0.015232 0.021071
-0.14305 0.15948 -0.022003 0.016754
-0.0027861 -0.0025346 0.003184 0.00013477 0.0018159 0.0039181 -0.0055652 -0.0090874
-0.02175 0.016864 -0.18207 0.21528
920000000 -0.089083 0.27705 0.006491 0.036497 -0.0094172 -0.0041486 -0.0013709 0.0018302
0.0012527 0.0015374 0.002524 -0.0016422
0.0064752 0.03645 -0.25587 0.31519 0.028417 0.020252 0.0017646 0.0010358
0.0071368 -0.00057382 0.0035906 -0.0029521
-0.0094273 -0.0040986 0.02846 0.020228 0.072865 0.32181 0.0019576 -0.00016263
0.0015074 -0.00043283 0.00079289 -0.0011157
-0.001365 0.0017202 0.0017725 0.0010373 0.0018985 -0.00020326 -0.10651 0.26783
-0.0070833 0.031415 0.0029687 -0.006507
0.0012854 0.0014664 0.0070201 -0.00075939 0.0015466 -0.0005081 -0.0071532 0.0315
-0.13023 0.16469 0.00058835 0.025858
0.0026316 -0.0017864 0.0037237 -0.0030289 0.0008561 -0.001213 0.0028625 -0.0065056
0.0006026 0.026052 -0.18225 0.23042
980000000 -0.042415 0.29446 0.018544 0.028327 -0.0086708 0.0047104 0.0020087 0.0029867
0.0038786 -0.0017458 -0.003114 -0.0020202
0.018485 0.028285 -0.20417 0.34771 0.032726 0.0031936 0.002165 -0.0003273
0.0016338 -0.0062933 -0.00058771 -0.0023223
-0.008649 0.0046979 0.032762 0.003145 0.11949 0.31402 0.00046647 -0.0012786
2.8193e-05 -0.0023841 0.0012254 -0.00026333
0.0019534 0.002955 0.0021289 -0.00030413 0.00045825 -0.0012753 -0.067255 0.27703
0.011509 0.028858 -0.0085397 -0.0066331
0.0039516 -0.0017357 0.001548 -0.0062898 7.984e-05 -0.0023686 0.011681 0.028856
-0.097636 0.18901 0.0066616 0.018211
-0.0031461 -0.0019982 -0.00059515 -0.0024102 0.0012491 -0.00029129 -0.0083907 -0.0066158
0.0066794 0.018176 -0.13871 0.26923
1040000000 0.00029384 0.30178 0.033024 0.015662 -0.001207 0.0066779 0.002346 0.00053538
6.2849e-05 -0.0031714 -0.00093749 -0.0013373
0.033059 0.015674 -0.16851 0.36097 0.027976 -0.015921 0.0014681 -0.0018417
-0.0023945 -0.0025101 -0.0016006 -0.0027911
-0.0012123 0.0066746 0.027969 -0.016034 0.16636 0.29963 -0.00062971 -0.0015033
-0.0015823 -0.00089695 -0.00047258 -0.0010437
0.0022879 0.00054291 0.0014373 -0.0018691 -0.00060543 -0.0015194 -0.039037 0.28599
0.021748 0.015603 -0.0027007 0.00073705
9.3736e-06 -0.0032278 -0.002454 -0.002641 -0.0015866 -0.00092819 0.021838 0.015583
-0.065065 0.19488 0.014304 0.015683
-0.00084412 -0.0015057 -0.0015865 -0.0027379 -0.0004601 -0.0010808 -0.0026969 0.00081903
0.014134 0.015534 -0.11394 0.28894
1100000000 0.045729 0.30809 0.034526 -0.0059452 0.0026748 0.0037097 0.0020461 -0.00090159
-0.0019303 -0.0027134 -0.003678 0.00067546
0.034534 -0.0058872 -0.12493 0.37753 0.013557 -0.028009 -0.00015875 -0.0017755
-0.0035001 -0.00054048 -0.0034566 -0.0001614
0.0026811 0.0036895 0.013466 -0.028064 0.21359 0.27729 -0.0018891 0.00024904
-0.0019086 0.00062108 -0.0010035 -0.0002321
0.0020367 -0.00096044 -0.0002119 -0.0017736 -0.0018954 0.00025319 0.0023581 0.28889
0.025675 0.002014 -0.0027984 2.1672e-05
-0.0019781 -0.002703 -0.0035055 -0.00054129 -0.0019187 0.00060378 0.025644 0.00192
-0.046875 0.20647 0.018707 0.0062834
-0.0036118 0.00063346 -0.0034201 -0.00016051 -0.0010341 -0.00022267 -0.0029083 0.00011097
0.018593 0.0062623 -0.067197 0.31362
1160000000 0.096434 0.30199 0.022009 -0.021806 0.0022546 -0.00030667 -6.6361e-05 -0.0019331
-0.0039102 -0.00045151 -0.00063091 0.0038405
0.022058 -0.021765 -0.080687 0.38154 -0.005233 -0.028391 -0.0016585 -0.0014889
-0.0026566 0.0027232 -0.0013513 0.0017579
0.0022429 -0.00033547 -0.0053111 -0.028359 0.25614 0.24449 -0.00077989 0.0018263
-0.00040413 0.0020288 -0.00080641 0.00021726
-9.91e-05 -0.0019285 -0.0016542 -0.0015062 -0.00080036 0.0018069 0.041578 0.28415
0.020598 -0.01353 -0.0031251 0.0043193
-0.0038715 -0.00045969 -0.0026527 0.0026886 -0.00040333 0.0019626 0.020586 -0.013584
-0.013724 0.21281 0.017307 -0.0021618
-0.00061564 0.0037828 -0.0014036 0.0018049 -0.00082204 0.00020065 -0.0030765 0.0042817
0.017268 -0.0021445 -0.020271 0.31432
1220000000 0.14119 0.28944 0.008146 -0.029793 -0.0016055 -0.00023546 0.00021236 -0.00089829
-0.002367 0.0022522 0.0013232 0.0018255
0.0081656 -0.029762 -0.035923 0.3927 -0.017607 -0.019859 -0.0024177 0.00053891
9.1128e-05 0.0030851 -0.00053278 0.002012
-0.0016166 -0.00022543 -0.017695 -0.019791 0.29464 0.20363 0.00080114 0.0019339
0.000705 0.0012876 0.0004102 0.000625
0.00021897 -0.0009003 -0.0024245 0.00052821 0.00081204 0.0018931 0.082127 0.27366
0.0090907 -0.01973 0.0012759 0.0014399
-0.0023654 0.002303 0.00012586 0.0030743 0.00072596 0.0012981 0.0090679 -0.019767
0.009915 0.21988 0.011853 -0.01399
0.0013665 0.0018576 -0.00051773 0.0020111 0.00044315 0.00056219 0.0013013 0.001452
0.011865 -0.014014 0.012878 0.3265
1280000000 0.19005 0.266 -0.0095665 -0.027137 -0.0015264 0.0030175 -0.00092914 -0.0020005
-0.00070506 0.0029649 0.0024186 0.00092366
-0.0095675 -0.027119 0.01025 0.38279 -0.023715 -0.0072431 -0.00097052 0.0014481
0.0018437 0.0017334 0.00086628 0.0018275
-0.0015195 0.0030149 -0.023778 -0.0071547 0.3235 0.1582 0.0017641 3.6162e-05
0.0012678 0.00022801 0.00036751 0.00015693
-0.00093281 -0.0020054 -0.00098891 0.0014276 0.0017656 2.539e-05 0.11806 0.25433
-0.0014769 -0.021078 -0.00074625 0.00058123
-0.00069376 0.0029621 0.0018796 0.0017048 0.001236 0.00018993 -0.0015057 -0.02108
0.04585 0.2214 0.0010705 -0.015683
0.0023731 0.00086533 0.00083063 0.0018317 0.00036162 0.00015219 -0.00071199 0.00063377
0.0010657 -0.015663 0.058939 0.32494
1340000000 0.2266 0.23119 -0.018534 -0.016846 0.001523 0.0044051 -0.001732 -0.00096288
0.001424 0.0025913 0.0015528 -0.001457
-0.018493 -0.016871 0.049826 0.37336 -0.020872 0.0052666 -8.847e-05 0.0020096
0.0020609 0.0006091 0.0013544 0.00061128
0.0015358 0.0043779 -0.020876 0.0053534 0.34386 0.11017 0.0013266 -0.0010971
0.00064614 -0.00061224 8.3619e-05 0.00022325
-0.001704 -0.00096605 -5.717e-05 0.0020047 0.0013156 -0.0011121 0.14945 0.23228
-0.011297 -0.017122 0.00037732 0.0013872
0.0014475 0.002569 0.0020592 0.00058501 0.00071006 -0.00058098 -0.011319 -0.017084
0.075447 0.21525 -0.0057544 -0.013485
0.0015326 -0.0014939 0.0013969 0.00060853 7.136e-05 0.00022644 0.00038334 0.0013708
-0.0057367 -0.01351 0.097771 0.3173
1400000000 0.25893 0.19167 -0.022944 -0.0053438 0.0054816 0.0027546 -0.0021747 0.00058047
0.0023642 0.00091612 0.00010234 -0.0014637
-0.022914 -0.0053813 0.086878 0.35913 -0.013776 0.012806 0.0013966 0.0012818
0.0012157 -0.00097017 0.0011065 -2.0749e-05
0.005492 0.0027253 -0.013773 0.012887 0.3561 0.056506 8.8962e-05 -0.0020547
-1.7639e-05 -0.00047362 0.00034029 0.00015121
-0.0021645 0.00059058 0.0013941 0.0012698 0.00010527 -0.0020478 0.17743 0.20149
-0.017235 -0.0092928 -0.00049245 0.0008507
0.0023496 0.00086804 0.0012085 -0.0010221 1.3046e-05 -0.00046989 -0.017274 -0.0092647
0.10729 0.20903 -0.011796 -0.0077244
0.00012707 -0.0014404 0.0011111 -2.0611e-05 0.00032369 0.00015991 -0.00049264 0.00079594
-0.011829 -0.0077857 0.14101 0.30293
1460000000 0.2804 0.14686 -0.019197 0.0061547 0.0055733 -0.0022982 -0.001627 0.001725
0.002006 -0.00054489 -0.00034838 -0.00094658
-0.019197 0.0061699 0.12032 0.33632 -0.0051421 0.015129 0.0017581 0.00010162
0.00065277 -0.0013995 0.0010658 -0.00059699
0.0055876 -0.0023064 -0.0051056 0.01515 0.36065 0.002531 -0.0016286 -0.0013983
0.00013861 -0.0002289 0.0005903 -0.00028411
-0.0015953 0.0017418 0.0017628 9.7625e-05 -0.0016076 -0.0013837 0.20117 0.17131
-0.017907 -0.001343 -8.9871e-05 0.0025556
0.0020173 -0.00057811 0.00066954 -0.001437 0.00015231 -0.0001787 -0.017888 -0.0013378
0.13526 0.19327 -0.012667 -0.0013728
-0.00041753 -0.00089752 0.001028 -0.00060204 0.00063317 -0.00027777 -6.9616e-05 0.0025518
-0.012638 -0.0014001 0.17283 0.2802
1520000000 0.29169 0.10417 -0.012997 0.010936 0.0029986 -0.0043275 0.00017648 0.0026597
0.0020496 -0.0016991 -0.0010424 -5.2828e-05
-0.012987 0.010924 0.15327 0.32088 0.0020634 0.012593 0.0016505 -0.00090577
-0.00015707 -0.0010634 0.00022397 -0.00092213
0.0030041 -0.0043628 0.0021186 0.012574 0.35359 -0.053309 -0.001507 -0.00019518
0.0004512 -0.00094135 -5.8734e-05 -0.00014409
0.0001951 0.0026604 0.0016532 -0.00090925 -0.0015124 -0.00021108 0.22207 0.13326
-0.015997 0.0051052 0.0022322 0.0020727
0.0020336 -0.0017008 -0.00016939 -0.0010864 0.00047491 -0.0009582 -0.015984 0.0051616
0.16265 0.17779 -0.011931 0.0033595
-0.0011035 -5.156e-05 0.00019133 -0.0008915 3.9811e-06 -0.00013094 0.002315 0.0020427
-0.011925 0.0034031 0.20471 0.2573
1580000000 0.29946 0.057284 -0.0064205 0.013148 -0.0011329 -0.0048283 0.0016221 0.0018951
-0.00017212 -0.0021733 -0.00022564 0.00041449
-0.0064169 0.013138 0.17962 0.29538 0.0053636 0.0076805 0.00037214 -0.0017157
-0.00063269 -0.00087332 -0.00021748 -0.00076169
-0.0011488 -0.0048225 0.0053937 0.0076749 0.33321 -0.11093 -0.0016046 0.0010781
-0.00040321 -0.001119 0.00016319 -0.00061969
0.0016212 0.0018922 0.00038588 -0.0017109 -0.0016414 0.0011084 0.23352 0.094203
-0.011364 0.010055 0.0027781 0.00026551
-0.00016044 -0.0021925 -0.00066406 -0.00087145 -0.00041259 -0.0011599 -0.011386 0.01008
0.18575 0.15823 -0.0089177 0.0086055
-0.00025911 0.00037524 -0.00020876 -0.00076032 0.00018877 -0.00068304 0.0028277 0.00029906
-0.0089359 0.0086103 0.23453 0.22902
1640000000 0.2999 0.015755 -0.0001786 0.011293 -0.0029122 -0.0025464 0.0027837 0.00083405
-0.00082768 -0.0015941 -0.00020223 0.00064447
-0.00020611 0.011297 0.20828 0.27024 0.0057568 0.0031465 -0.00090001 -0.0016335
-0.00097044 -0.00019222 -0.00053151 -0.00053519
-0.0029244 -0.002555 0.0057747 0.0031356 0.30395 -0.15948 -0.00046936 0.0016752
-0.0012202 -0.00081127 -0.00024906 -0.00021678
0.0027736 0.00080157 -0.00090374 -0.0016608 -0.00044779 0.0016411 0.24364 0.047149
-0.0062365 0.010923 0.0027039 -0.0013419
-0.00083826 -0.0016365 -0.00096736 -0.00019584 -0.0012582 -0.00084107 -0.0061962 0.010957
0.20708 0.13284 -0.0037453 0.010291
-0.00019988 0.00057615 -0.00051617 -0.0005474 -0.0002293 -0.0002214 0.0027047 -0.0013438
-0.0038006 0.01028 0.25875 0.19688
1700000000 0.291 -0.029686 0.0026161 0.0081422 -0.0035551 0.00023832 0.002926 -0.0015142
-0.002061 -0.00067082 0.00076047 0.00033781
0.0026073 0.0081324 0.22588 0.23871 0.0038083 0.00039658 -0.0014867 -0.00046376
-0.00059589 0.00020256 -0.00084463 -0.00041452
-0.0035099 0.00022871 0.0038164 0.00039222 0.26116 -0.1991 0.00084755 0.0013972
-0.0018697 6.1627e-05 -0.00065446 -0.00075444
0.0029101 -0.0014782 -0.0014932 -0.00046483 0.0009012 0.0014212 0.23981 -0.00048206
-0.0027391 0.010691 0.0014907 -0.0025147
-0.0021024 -0.00067279 -0.00060933 0.00019218 -0.0019117 5.8703e-05 -0.0027098 0.010696
0.22309 0.11142 0.0010539 0.010118
0.00071639 0.00028672 -0.00088585 -0.00042081 -0.00069361 -0.00075983 0.001521 -0.002523
0.0010625 0.010084 0.27354 0.16165
1760000000 0.27731 -0.077577 0.0041123 0.0048215 -0.0023176 0.00095088 0.00089173 -0.0035854
-0.0014879 0.00074681 0.00036495 -0.00045193
0.0041146 0.0048294 0.25098 0.1986 0.0015494 -0.0014279 -0.0011854 0.00029634
-0.00085757 0.00080103 -0.00059171 0.00045964
-0.0022883 0.00094903 0.0015578 -0.001447 0.21228 -0.23296 0.0013282 0.00064931
-0.0010934 0.0016575 -0.0014101 -0.00023716
0.00092515 -0.0035694 -0.0011743 0.00032102 0.0013812 0.00064599 0.23058 -0.04945
0.0005532 0.0093125 -0.00028022 -0.0027225
-0.0014453 0.00077132 -0.00084481 0.00080781 -0.0010578 0.0016453 0.00058621 0.0092778
0.23577 0.075576 0.0049932 0.0071793
0.00036052 -0.00047574 -0.00058142 0.00048366 -0.0014025 -0.00018478 -0.00035274 -0.0027294
0.0049548 0.0071317 0.28441 0.1233
1820000000 0.25181 -0.11382 0.0037383 0.0016958 -2.4663e-05 0.0024874 -0.0013205 -0.002852
-0.0010288 0.0011191 -3.4224e-05 -9.9839e-05
0.0037336 0.0017086 0.26057 0.16891 -0.00037681 -0.00021415 -0.0011501 0.0010027
7.4713e-05 0.0011028 -0.00050633 0.00054609
-4.9407e-05 0.0024986 -0.00037868 -0.00023571 0.16174 -0.24849 0.0012428 -2.4883e-05
0.00019211 0.0022377 -0.0013554 0.00056067
-0.0013331 -0.0028454 -0.0011381 0.0010322 0.0012702 -3.4012e-05 0.20233 -0.094522
0.0020732 0.0071305 -0.0016398 -0.0016075
-0.0010268 0.0011346 6.2431e-05 0.001094 0.00018373 0.0022117 0.0020525 0.0070984
0.25134 0.045941 0.0057789 0.0033165
-5.0677e-05 -8.8662e-05 -0.00049997 0.00055845 -0.0013761 0.00052787 -0.0016968 -0.0016683
0.0058373 0.0032772 0.28553 0.085909
1880000000 0.21573 -0.15345 0.0012712 -1.4234e-05 -0.0004014 0.0021091 -0.0029878 -0.001814
-8.6591e-05 0.0017879 0.00018778 -0.00047765
0.0012509 7.3877e-07 0.26463 0.12215 -0.0025255 0.001575 -6.8823e-05 0.001604
0.00043276 0.00096492 0.00015745 0.00093025
-0.00037773 0.002089 -0.0025177 0.0015847 0.10841 -0.25839 0.001321 -0.0010327
0.0016559 0.0015117 -0.00071141 0.0014519
-0.003004 -0.0017881 -6.1055e-05 0.0015885 0.0012597 -0.001013 0.16379 -0.13507
0.0028112 0.0045872 -0.0024371 -3.339e-05
-8.4595e-05 0.0017925 0.00044507 0.00096981 0.0016581 0.0015277 0.0027803 0.0045709
0.25253 0.012636 0.0054244 0.00057118
0.00019642 -0.00043601 0.00017671 0.00090532 -0.00070728 0.0013982 -0.0024249 4.2396e-05
0.0054655 0.00064427 0.28374 0.051146
1940000000 0.17582 -0.17838 -0.00079564 -0.0011085 0.0015807 0.0021358 -0.0035469 0.00082611
0.0015684 0.0010456 -0.00058295 -0.0005264
-0.00081486 -0.001093 0.26449 0.090775 -0.0013278 0.0040253 0.00089973 0.0011639
0.0014649 0.00044631 0.00081658 0.00034602
0.0015621 0.0021124 -0.0013281 0.0040054 0.061923 -0.2512 0.00012284 -0.001642
0.00217 0.00013852 0.00048483 0.001696
-0.0035139 0.00084541 0.00089356 0.0011616 0.00014723 -0.0016851 0.11256 -0.16596
0.0016859 0.0028673 -0.0017344 0.0010638
0.0015746 0.0010342 0.0014683 0.00045418 0.0021594 0.00016864 0.0016974 0.0029054
0.25247 -0.026472 0.0039822 -0.0026743
-0.00054044 -0.00056145 0.00084708 0.00034177 0.00046297 0.0016466 -0.0017267 0.0010773
0.0039604 -0.002693 0.27112 0.014535
2000000000 0.1296 -0.19252 -0.0043372 0.0011491 0.0026334 0.0015392 -0.002045 0.0034471
0.0012769 1.5452e-05 -0.00042173 0.00049374
-0.0043286 0.001111 0.25048 0.055206 -0.0010521 0.0058442 0.0014933 0.00038343
0.0011292 -0.00094273 0.00044309 5.8794e-05
0.0026732 0.0015555 -0.0010411 0.0058787 0.018058 -0.23638 -0.00093714 -0.00084621
0.0016283 -0.00098085 0.0016439 0.00093248
-0.0021284 0.0034137 0.0015038 0.00037994 -0.00093085 -0.00089035 0.059838 -0.1774
-0.0003253 0.0022158 -0.00049571 0.0020783
0.0012133 -7.8385e-06 0.0011141 -0.00096667 0.0016229 -0.00099166 -0.00030956 0.0023055
0.24508 -0.06056 0.0004223 -0.0037087
