!Keysight Technologies,M9804A,MY58100912,A.14.10.03
!Date: Thursday, April 27, 2023 10:28:33
!Correction: S11(C  6-Port  ) 
!S12(C  6-Port  ) 
!S13(C  6-Port  ) 
!S14(C  6-Port  ) 
!S15(C  6-Port  ) 
!S16(C  6-Port  ) 
!S21(C  6-Port  ) 
!S22(C  6-Port  ) 
!S23(C  6-Port  ) 
!S24(C  6-Port  ) 
!S25(C  6-Port  ) 
!S26(C  6-Port  ) 
!S31(C  6-Port  ) 
!S32(C  6-Port  ) 
!S33(C  6-Port  ) 
!S34(C  6-Port  ) 
!S35(C  6-Port  ) 
!S36(C  6-Port  ) 
!S41(C  6-Port  ) 
!S42(C  6-Port  ) 
!S43(C  6-Port  ) 
!S44(C  6-Port  ) 
!S45(C  6-Port  ) 
!S46(C  6-Port  ) 
!S51(C  6-Port  ) 
!S52(C  6-Port  ) 
!S53(C  6-Port  ) 
!S54(C  6-Port  ) 
!S55(C  6-Port  ) 
!S56(C  6-Port  ) 
!S61(C  6-Port  ) 
!S62(C  6-Port  ) 
!S63(C  6-Port  ) 
!S64(C  6-Port  ) 
!S65(C  6-Port  ) 
!S66(C  6-Port  ) 
!S6P File: Measurement: :
# Hz S  RI   R 50
500000000 -0.3399 -0.02045 -0.011624 -0.0034052 -0.0080549 0.013004 -0.0035377 0.012157
0.011174 0.0041565 -0.0031366 0.0086571
-0.011607 -0.0034061 -0.41935 -0.039782 0.00607 -0.01106 0.001818 0.012421
0.007038 0.0019948 0.0025692 0.013603
-0.0080502 0.013001 0.006048 -0.011049 -0.2639 0.22186 0.0070635 0.0038634
-0.0014003 0.0079605 0.0021064 0.011917
-0.0035207 0.012145 0.0018271 0.012416 0.0070625 0.0038565 -0.33171 0.058851
-0.020378 -0.0063802 0.015434 0.024233
0.0112 0.0041597 0.0070463 0.0019846 -0.0014078 0.0079817 -0.020398 -0.0063557
-0.23545 -0.16867 -0.026594 0.0044483
-0.0031618 0.0086858 0.0024299 0.013588 0.0020908 0.011894 0.015365 0.024233
-0.026598 0.0043245 -0.28284 -0.087611
560000000 -0.31415 0.13496 -0.026715 -0.05994 0.00061897 0.011891 0.0049734 0.0097946
0.0087617 0.0045912 0.010396 0.007397
-0.026656 -0.059929 -0.37588 0.11749 -0.042563 -0.034821 0.013218 0.0040324
-0.012493 -0.0045296 0.0029979 -0.00025793
0.00061969 0.011879 -0.042634 -0.03474 -0.18121 0.26776 0.00025075 -0.0047061
0.019543 0.005023 0.0062553 -0.0065699
0.0049765 0.0097913 0.013206 0.0039897 0.00026491 -0.0047163 -0.30667 0.14721
0.00071442 -0.024211 0.0028094 -0.018771
0.0087562 0.0045725 -0.012546 -0.0044593 0.019521 0.0049977 0.00071506 -0.024191
-0.28889 0.0050979 0.0033965 -0.047307
0.010407 0.0073865 0.0030016 -0.00025793 0.006231 -0.0065191 0.0028288 -0.018805
0.0034199 -0.047283 -0.33006 0.05213
620000000 -0.27153 0.12127 -0.023651 0.0079603 0.0041043 0.0082066 0.0072915 -0.004766
0.011498 -0.0015806 0.00076404 -0.0023373
-0.02365 0.0079433 -0.40183 0.0712 -0.019423 0.00089489 -0.00084736 -0.0020917
0.010235 -0.0064478 0.001639 -0.0026615
0.0041192 0.0081765 -0.019425 0.00094261 -0.14989 0.27741 -0.0010825 -0.0048901
-0.003115 -0.0028127 0.0079236 -0.0034981
0.0072966 -0.0047663 -0.00083736 -0.0020898 -0.0010851 -0.0048969 -0.26343 0.15857
-0.04037 -0.016552 0.012033 0.023919
0.011466 -0.0015407 0.010208 -0.0064804 -0.0030821 -0.0028445 -0.040398 -0.016518
-0.21124 -0.03398 -0.039587 0.016212
0.00068187 -0.002287 0.0016411 -0.0026406 0.0080297 -0.0035272 0.012161 0.023942
-0.039671 0.016249 -0.25607 0.023624
680000000 -0.22888 0.20414 -0.027673 -0.011837 0.005545 0.0045113 0.001057 -0.0071387
-0.0026806 -0.010742 0.0042392 -0.0065972
-0.02766 -0.011852 -0.38497 0.16612 -0.031946 0.00041454 -0.0013204 -0.00071513
-0.0022239 -0.0089874 -0.0012312 -0.0022048
0.0055477 0.0045007 -0.031955 0.00047392 -0.09803 0.29435 -0.00093951 -0.00058728
-0.0013778 -9.7212e-05 -0.0032212 -0.0085433
0.001041 -0.0071515 -0.0013339 -0.00071825 -0.00094503 -0.00059809 -0.21731 0.20648
-0.026287 -0.0042682 -0.0090352 -0.0086187
-0.0026679 -0.010768 -0.0022434 -0.0089904 -0.0013759 -8.5767e-05 -0.0263 -0.0042643
-0.25277 0.065307 -0.0066788 -0.0063654
0.0042231 -0.0066122 -0.0012083 -0.0021929 -0.0032119 -0.0085304 -0.009026 -0.008599
-0.0067077 -0.0063114 -0.25548 0.12031
740000000 -0.18413 0.1986 -0.036272 0.026665 0.0123 -0.0059154 -0.0005102 -0.0042423
-0.0042966 -0.002804 -0.0057827 0.0028507
-0.036281 0.026646 -0.33261 0.18568 -0.032689 0.035302 -0.0010776 -0.006535
-0.011461 0.0078007 -0.0018741 -0.0053003
0.012297 -0.0059459 -0.032632 0.03537 -0.064539 0.29317 -0.0017286 0.0031109
-0.0032548 -0.0047366 -0.0018834 0.0010698
-0.00050443 -0.0042477 -0.0010804 -0.0065214 -0.0017316 0.0030987 -0.19944 0.21533
-0.042237 -0.0026856 0.022427 0.012807
-0.0043987 -0.0027568 -0.011418 0.0078451 -0.0032598 -0.0047232 -0.042271 -0.0026309
-0.15702 0.086188 -0.039851 0.0047639
-0.0058498 0.0029005 -0.0018673 -0.0053088 -0.0018815 0.0010471 0.022412 0.012795
-0.03984 0.0046086 -0.24337 0.12998
800000000 -0.15036 0.23585 -0.020686 0.017448 0.0047315 -0.01062 -0.0043418 -0.0018012
-0.0036275 0.0022223 0.0034463 0.00072004
-0.020695 0.017423 -0.33296 0.25398 -0.0063789 0.033459 -0.0023603 0.0022177
-0.00056989 0.0032478 0.0011055 0.0052377
0.0047124 -0.010635 -0.0063139 0.033479 -0.021843 0.31468 0.00074584 0.0018297
0.00042913 0.0035209 -0.0017966 0.0011464
-0.0043455 -0.0017919 -0.0023577 0.0022293 0.00074785 0.0018309 -0.16883 0.2416
-0.026564 0.016739 0.012733 -0.010141
-0.0036017 0.0022569 -0.00056687 0.0032413 0.00044898 0.003515 -0.026557 0.01681
-0.19589 0.11425 -0.01548 0.019078
0.0034514 0.00071512 0.0011029 0.0052707 -0.0018028 0.0011424 0.012729 -0.01017
-0.015511 0.019021 -0.23117 0.17583
860000000 -0.11509 0.25569 -0.015274 0.030706 -0.0036288 -0.0095986 -0.0020675 0.0011501
0.0043732 0.0045436 -0.0028059 -0.0024543
-0.015295 0.030668 -0.28618 0.29464 0.009228 0.033046 5.7284e-05 0.0021853
0.0043821 0.00020699 0.0030295 0.00031253
-0.0036514 -0.0095857 0.0093095 0.033029 0.026097 0.32162 -0.00036873 2.5456e-05
0.0025515 -0.0013201 0.0016771 0.0039376
-0.0020545 0.0011464 5.1461e-05 0.0021796 -0.00036429 2.9599e-05 -0.1321 0.25208
-0.014918 0.020929 -0.0054485 -0.0092129
0.0043869 0.0045684 0.0043678 0.00019318 0.0025634 -0.0013219 -0.014911 0.020968
-0.14253 0.15998 -0.021109 0.01687
-0.0027617 -0.0024842 0.0030426 0.00033756 0.0016757 0.0039216 -0.0053623 -0.0092014
-0.021046 0.016868 -0.18147 0.21616
920000000 -0.08879 0.27688 0.0065583 0.036223 -0.0092763 -0.0041353 -0.0014703 0.001697
0.0013258 0.0017093 0.0027764 -0.0018027
0.0065217 0.036175 -0.25566 0.31507 0.028256 0.020162 0.0017474 0.0010132
0.0070191 -0.00057403 0.0037886 -0.0028753
-0.0092822 -0.0041094 0.028336 0.020098 0.073306 0.32174 0.0019849 -0.0001554
0.0015185 -0.00045824 0.00082919 -0.0010832
-0.0014594 0.0016983 0.001748 0.0010039 0.0019839 -0.00015579 -0.10587 0.26761
-0.0070966 0.031068 0.0028671 -0.0065686
0.0013457 0.0017106 0.0070205 -0.00062411 0.0015229 -0.00046396 -0.0070725 0.031089
-0.12947 0.16532 0.00018441 0.025907
0.0027508 -0.0018225 0.0037591 -0.0028686 0.00079914 -0.0010866 0.0028561 -0.0065579
0.00015682 0.025884 -0.18156 0.23106
980000000 -0.042127 0.2944 0.018488 0.028005 -0.0084946 0.0046015 0.0018894 0.0030221
0.0040474 -0.0017169 -0.0032119 -0.0022429
0.018458 0.027967 -0.20394 0.34731 0.032535 0.0031096 0.0020708 -0.00021243
0.0016881 -0.0061553 -0.0005106 -0.0024632
-0.0084883 0.0046237 0.032586 0.0030347 0.11987 0.31378 0.00049472 -0.0012939
5.12e-05 -0.0023242 0.0011951 -0.00024292
0.0019001 0.003021 0.0020697 -0.00024164 0.00049805 -0.0013027 -0.067025 0.27657
0.011337 0.028372 -0.0083013 -0.0066695
0.0040522 -0.0017272 0.0016747 -0.0061926 4.3535e-05 -0.0023313 0.011399 0.028365
-0.096785 0.1893 0.0065248 0.018022
-0.0032082 -0.0022195 -0.00054557 -0.0024566 0.0011862 -0.00026229 -0.0083265 -0.0066482
0.0065101 0.018015 -0.13803 0.26984
1040000000 0.00047566 0.30161 0.032814 0.01555 -0.0012187 0.0065181 0.0022689 0.00056468
0.00015483 -0.0032615 -0.0007761 -0.0013038
0.032752 0.015532 -0.16843 0.36063 0.027793 -0.015769 0.0014214 -0.0018287
-0.002329 -0.002609 -0.001633 -0.0027213
-0.0012167 0.0065255 0.02778 -0.015869 0.16647 0.29936 -0.00059891 -0.0015234
-0.0016549 -0.00094787 -0.00056606 -0.00097946
0.0022703 0.00057578 0.0013965 -0.0018437 -0.00060118 -0.0015176 -0.038805 0.28565
0.021353 0.015455 -0.0026727 0.00085762
0.00016126 -0.0032664 -0.0023509 -0.0026384 -0.0016433 -0.0009536 0.021393 0.015436
-0.064614 0.19526 0.013963 0.015603
-0.00079665 -0.0012868 -0.0016139 -0.0027461 -0.0005746 -0.00097905 -0.0026872 0.00086718
0.013934 0.015557 -0.11294 0.28967
1100000000 0.045868 0.30778 0.034226 -0.0060019 0.0026126 0.0035887 0.0021343 -0.00087185
-0.0018705 -0.0027149 -0.0036028 0.00062789
0.0342 -0.0059861 -0.12489 0.37692 0.013526 -0.027744 -0.00013322 -0.0017368
-0.0034583 -0.00059766 -0.0033411 -0.0002088
0.002613 0.0035827 0.013461 -0.027803 0.21355 0.27707 -0.0018837 0.0002092
-0.001948 0.0006429 -0.00099948 -8.9258e-05
0.0021293 -0.00086125 -0.00013705 -0.0017379 -0.0018838 0.00020868 0.0023349 0.28837
0.024995 0.0020989 -0.0027024 -1.1414e-05
-0.0018819 -0.002699 -0.0034599 -0.0005993 -0.001947 0.00063876 0.025006 0.0020623
-0.04585 0.20658 0.018539 0.0061432
-0.0036162 0.00064112 -0.0033421 -0.00020587 -0.00097967 -9.4334e-05 -0.0026909 -1.1521e-06
0.018538 0.0061459 -0.065932 0.31403
1160000000 0.096307 0.30173 0.021753 -0.021565 0.0021641 -0.00026481 4.622e-06 -0.001948
-0.0039064 -0.00056669 -0.00079967 0.003931
0.021739 -0.021554 -0.080972 0.38101 -0.0051045 -0.02822 -0.0016289 -0.0015113
-0.0026819 0.0025978 -0.0014762 0.0017972
0.0021529 -0.00027443 -0.0051838 -0.028226 0.25599 0.24434 -0.0008054 0.0018232
-0.00046337 0.0020669 -0.00077178 0.0003298
-6.6022e-06 -0.0019241 -0.0016404 -0.0015241 -0.00081368 0.0018259 0.041406 0.28365
0.020366 -0.013114 -0.0032236 0.0042889
-0.0038973 -0.00053081 -0.0026748 0.0026036 -0.00046718 0.0020719 0.020354 -0.013156
-0.012782 0.21286 0.01721 -0.0022159
-0.00074858 0.0039249 -0.0014743 0.0018148 -0.00079085 0.00031932 -0.0031941 0.0042923
0.017248 -0.0022152 -0.019454 0.31453
1220000000 0.14098 0.28916 0.0079751 -0.029448 -0.0016988 -0.00014829 0.00027201 -0.00092091
-0.0023989 0.0022823 0.0013043 0.0018855
0.0079845 -0.029429 -0.036469 0.3921 -0.017427 -0.019777 -0.0024261 0.00047711
7.7236e-05 0.003083 -0.00051703 0.0019776
-0.0017041 -0.00013822 -0.017498 -0.019733 0.29452 0.20385 0.00078162 0.0019097
0.00074632 0.0012886 0.00041856 0.00051421
0.00027091 -0.00092038 -0.002431 0.00048309 0.00078098 0.0019185 0.081644 0.27342
0.0090834 -0.019144 0.0012034 0.0013953
-0.0024051 0.0022975 8.5333e-05 0.0030805 0.00075592 0.0012897 0.0090643 -0.019171
0.010751 0.21956 0.011813 -0.014
0.0013334 0.0018689 -0.00050358 0.0019643 0.00044398 0.0005237 0.0012033 0.0013941
0.01183 -0.014003 0.013789 0.32663
1280000000 0.18969 0.26577 -0.009482 -0.026818 -0.0014961 0.0031204 -0.00094106 -0.0020807
-0.00068678 0.0029088 0.0024349 0.00091838
-0.0094516 -0.026806 0.0094118 0.38246 -0.023506 -0.007341 -0.0010571 0.0014446
0.0018005 0.0017663 0.00080238 0.0017875
-0.001483 0.0031251 -0.023552 -0.0072712 0.32354 0.1586 0.001714 2.9428e-05
0.0012605 0.00012942 0.00042253 9.0441e-05
-0.00094574 -0.0020753 -0.0010565 0.0014463 0.0017115 3.9596e-05 0.11748 0.25448
-0.0011398 -0.020504 -0.00081039 0.00061287
-0.00066728 0.0029009 0.0018185 0.0017671 0.0012575 0.00012451 -0.0011888 -0.020517
0.046276 0.22103 0.0010856 -0.015549
0.0024542 0.00091448 0.00083171 0.0017965 0.00042149 8.3803e-05 -0.00081964 0.0006083
0.001096 -0.01554 0.059756 0.32458
1340000000 0.22627 0.23124 -0.018242 -0.016682 0.0015569 0.0045076 -0.0017667 -0.00095995
0.0013955 0.0025065 0.0015597 -0.0014639
-0.01821 -0.016688 0.048904 0.37342 -0.020883 0.0051254 -0.00012874 0.0020648
0.0020619 0.00064202 0.0013461 0.00063351
0.0015668 0.0045008 -0.020884 0.0052045 0.34406 0.11049 0.001363 -0.0010387
0.00061654 -0.00055771 2.3934e-05 0.00023708
-0.0017721 -0.00094678 -0.00012251 0.0020688 0.0013596 -0.0010331 0.14901 0.23273
-0.01068 -0.016805 0.00037512 0.0013487
0.0014087 0.0025035 0.0020652 0.00062909 0.00060718 -0.00055791 -0.010716 -0.016805
0.075573 0.21501 -0.0055995 -0.013259
0.001558 -0.0014715 0.001357 0.00063471 1.9448e-05 0.00023066 0.00036839 0.0013441
-0.0056183 -0.01327 0.098502 0.31692
1400000000 0.25861 0.19191 -0.022591 -0.0053454 0.0056091 0.0028057 -0.0022298 0.0006251
0.0023174 0.00087341 0.00016005 -0.0014795
-0.022565 -0.0053693 0.086 0.35965 -0.013868 0.012709 0.0013842 0.0013192
0.0012359 -0.0010072 0.0010992 5.5793e-05
0.0056145 0.002791 -0.013839 0.012769 0.35639 0.056789 0.00013219 -0.0020761
4.3257e-05 -0.00045284 0.00023565 0.00019002
-0.0022302 0.00063295 0.0013977 0.0013148 0.00013637 -0.0020787 0.17732 0.20216
-0.016521 -0.0093798 -0.00048511 0.00076294
0.0023097 0.00086408 0.0012379 -0.0010192 3.8369e-05 -0.00045991 -0.016543 -0.0093483
0.10741 0.20868 -0.011648 -0.0076871
0.00015404 -0.0014905 0.0010939 4.4128e-05 0.0002526 0.00018462 -0.00047879 0.00074478
-0.01164 -0.0077123 0.14159 0.30269
1460000000 0.28024 0.14727 -0.018894 0.0059476 0.0056723 -0.0023205 -0.0015664 0.001788
0.0020252 -0.00050517 -0.00040552 -0.00094476
-0.018878 0.0059246 0.11986 0.33712 -0.0052512 0.015093 0.001822 0.00014625
0.00071052 -0.0013927 0.001074 -0.00059074
0.0056659 -0.0023295 -0.0052192 0.015114 0.36101 0.0027407 -0.0016111 -0.0014553
0.00012231 -0.00015694 0.00057469 -0.00031521
-0.0015673 0.0017746 0.0018184 0.00013393 -0.0016048 -0.0014573 0.2013 0.17197
-0.01737 -0.0018829 -8.6031e-05 0.0024741
0.0020135 -0.00051587 0.00069778 -0.001402 0.00012424 -0.00015598 -0.017394 -0.0018455
0.13523 0.19319 -0.012429 -0.0015059
-0.00039932 -0.00094308 0.0010665 -0.00059019 0.00059593 -0.000329 -7.8603e-05 0.0024817
-0.012436 -0.0015252 0.17318 0.2799
1520000000 0.29183 0.10457 -0.012834 0.010603 0.0030765 -0.0044482 0.0002427 0.0026933
0.0020924 -0.0016198 -0.0011075 -0.00013012
-0.01283 0.010579 0.15314 0.32177 0.0019859 0.012667 0.0016934 -0.00092477
-0.00015395 -0.0010983 0.00026469 -0.00091772
0.0030736 -0.0044438 0.0020283 0.012675 0.35402 -0.053267 -0.0015188 -0.00019437
0.00055993 -0.00087195 1.3657e-05 -0.0001375
0.00024596 0.0026902 0.0016938 -0.00093566 -0.0015164 -0.00019632 0.22258 0.13379
-0.015869 0.0043627 0.0022053 0.0020989
0.0020799 -0.0016258 -0.00016441 -0.0011015 0.00054714 -0.00088789 -0.015868 0.0044013
0.1627 0.17797 -0.011792 0.0031666
-0.0011087 -0.00012279 0.00026528 -0.00092277 -1.3384e-06 -0.00012689 0.0022059 0.0020909
-0.011791 0.0031577 0.20518 0.2571
1580000000 0.29969 0.057589 -0.0064991 0.012758 -0.0011511 -0.0049315 0.0015939 0.0018483
-0.00014743 -0.0022109 -0.00024665 0.00039863
-0.0065111 0.012748 0.17992 0.29618 0.0053511 0.0077911 0.0003857 -0.0017425
-0.00063325 -0.00091963 -0.00016395 -0.000785
-0.00116 -0.0049294 0.0053794 0.0077822 0.33365 -0.11106 -0.0016171 0.0011403
-0.00032124 -0.0011274 0.00017681 -0.00054486
0.0015939 0.0018508 0.00037502 -0.0017421 -0.0016154 0.0011384 0.23421 0.094463
-0.01178 0.0093884 0.0028083 0.0003614
-0.00015157 -0.0022132 -0.00063282 -0.0009282 -0.00032126 -0.0011244 -0.011769 0.0094307
0.1859 0.15841 -0.0089994 0.0083717
-0.00025588 0.0003988 -0.00017475 -0.00077196 0.00016749 -0.00055621 0.0028036 0.00034658
-0.008999 0.0083615 0.23493 0.22882
1640000000 0.30035 0.015912 -0.00041363 0.011117 -0.0029391 -0.0025903 0.0027328 0.00082061
-0.00078486 -0.0016444 -0.00020339 0.00063724
-0.00042697 0.011117 0.20879 0.27085 0.0058109 0.0032234 -0.00088742 -0.0016829
-0.00097984 -0.00022296 -0.00051144 -0.00059844
-0.0029364 -0.0025746 0.0058321 0.0032065 0.30437 -0.15966 -0.00042455 0.0016973
-0.0012169 -0.00082272 -0.00014838 -0.00025683
0.0027427 0.00081624 -0.00090181 -0.0016859 -0.00043117 0.0016949 0.24444 0.047164
-0.0068975 0.010622 0.0027084 -0.0013262
-0.00079372 -0.0016415 -0.000986 -0.00021821 -0.0012171 -0.00079641 -0.0068812 0.010654
0.2073 0.13322 -0.0039217 0.010112
-0.00020316 0.00063959 -0.00051239 -0.00059955 -0.00015989 -0.00025859 0.0026983 -0.0013282
-0.0039213 0.010103 0.25885 0.19663
1700000000 0.29159 -0.029773 0.0023272 0.0081707 -0.0036807 0.00019074 0.0028841 -0.0015049
-0.0020642 -0.00076398 0.00068225 0.00028515
0.0023096 0.0081663 0.22654 0.23899 0.0038725 0.00036864 -0.0015448 -0.00046288
-0.00065993 0.00020203 -0.00091025 -0.0004808
-0.0036873 0.00020037 0.0038838 0.00035776 0.26145 -0.19963 0.00079039 0.0014214
-0.0019561 -8.0639e-05 -0.00065138 -0.00082087
0.002882 -0.0015112 -0.0015505 -0.00045595 0.00079122 0.0014279 0.24052 -0.0010267
-0.0033872 0.010868 0.0014548 -0.0025108
-0.0020709 -0.00075492 -0.00065673 0.0002016 -0.0019529 -7.9937e-05 -0.0033692 0.01088
0.22349 0.1116 0.00080976 0.010068
0.0006859 0.00027142 -0.00090058 -0.00047951 -0.00063397 -0.00082603 0.0014664 -0.0025234
0.0008031 0.010062 0.2737 0.16126
1760000000 0.27773 -0.077929 0.0039827 0.004994 -0.002287 0.0010081 0.00093354 -0.0035284
-0.0015655 0.00072511 0.0003571 -0.00049207
0.0039733 0.0049936 0.25167 0.19857 0.0016017 -0.0014855 -0.0011872 0.00032264
-0.0008834 0.00081539 -0.00063461 0.00041182
-0.0022897 0.0010171 0.0016109 -0.0015001 0.21234 -0.2334 0.0013646 0.00069083
-0.0010564 0.0016813 -0.0013729 -0.00030023
0.00092131 -0.0035337 -0.0011912 0.00032158 0.0013684 0.00069114 0.23107 -0.050309
0.00024235 0.0097743 -0.0003844 -0.002706
-0.0015681 0.00073106 -0.00087654 0.00081899 -0.0010772 0.001686 0.00026113 0.0097795
0.23632 0.075762 0.0046405 0.0072189
0.00036732 -0.00049654 -0.00062953 0.00041793 -0.0013861 -0.00029638 -0.00039703 -0.0027046
0.0046435 0.0072159 0.28448 0.12295
1820000000 0.25187 -0.11441 0.0037278 0.0018114 -6.3416e-05 0.0025452 -0.0013036 -0.0028714
-0.0011211 0.0011125 -8.2816e-05 -4.5607e-05
0.0037243 0.001825 0.26113 0.16861 -0.00042374 -0.00025625 -0.0011307 0.0010127
2.9606e-05 0.0011388 -0.00057688 0.00058126
-5.8426e-05 0.002537 -0.00041194 -0.00025865 0.16135 -0.24855 0.0012819 3.0165e-05
3.5497e-05 0.002232 -0.0013358 0.0006104
-0.0013088 -0.002864 -0.0011276 0.001024 0.0012828 2.1783e-05 0.20232 -0.095603
0.0020962 0.0076291 -0.0015898 -0.001661
-0.001119 0.0011141 3.8707e-05 0.0011268 4.7738e-05 0.0022352 0.0021124 0.0076297
0.25194 0.046221 0.0057043 0.0034333
-8.4329e-05 -5.0592e-05 -0.00057349 0.00058456 -0.0013564 0.00061414 -0.0015882 -0.0016618
0.0057098 0.0034239 0.28559 0.085831
1880000000 0.21554 -0.15392 0.0012824 3.3683e-06 -0.00049842 0.0021924 -0.0029933 -0.0017984
-0.00013917 0.0017851 0.00020559 -0.00044518
0.0012873 1.3163e-05 0.26494 0.12159 -0.0025634 0.0015149 -8.3904e-05 0.0016415
0.00046919 0.0010059 0.00015521 0.00099304
-0.00049842 0.0021865 -0.0025492 0.0015168 0.10839 -0.25857 0.0012443 -0.00096439
0.0016381 0.0016107 -0.00073326 0.0014036
-0.0030005 -0.0017914 -7.5698e-05 0.0016272 0.0012476 -0.00095732 0.16324 -0.13592
0.0029871 0.0049358 -0.0023858 9.0395e-05
-0.00013768 0.0017825 0.00047538 0.00101 0.0016427 0.0016175 0.0029942 0.0049355
0.25322 0.012535 0.0053904 0.00097374
0.00019823 -0.00045102 0.00015371 0.00098745 -0.00074411 0.0013829 -0.0023873 9.9239e-05
0.0053857 0.00098144 0.28377 0.051152
1940000000 0.17562 -0.17868 -0.00089162 -0.001147 0.0014817 0.0021508 -0.0035056 0.00090572
0.0015304 0.0011088 -0.00054774 -0.00055983
-0.0008863 -0.0011408 0.26456 0.090142 -0.001357 0.0040635 0.00092177 0.0011693
0.0015358 0.00044889 0.00090777 0.00039312
0.0014858 0.0021486 -0.0013362 0.0040505 0.062139 -0.25092 0.00014572 -0.0015895
0.0022474 0.00022505 0.00059538 0.0016252
-0.0035085 0.00091131 0.00092021 0.0011527 0.00014167 -0.0015871 0.11161 -0.16627
0.0019399 0.0030925 -0.0017417 0.0010691
0.001537 0.0010973 0.0015543 0.00043343 0.0022287 0.00021829 0.0019533 0.0030905
0.25317 -0.026547 0.0040886 -0.0023121
-0.00056109 -0.0005621 0.00090979 0.00037897 0.00058429 0.001631 -0.0017278 0.0010746
0.0040908 -0.0023116 0.27119 0.014872
2000000000 0.12924 -0.19273 -0.004442 0.0012762 0.0027065 0.0016072 -0.0019949 0.0034605
0.0012912 0.00012117 -0.00053928 0.00038169
-0.00444 0.0012739 0.25019 0.054557 -0.0010293 0.0058233 0.0014685 0.00035546
0.0011623 -0.0010939 0.00060838 3.0554e-05
0.0027018 0.0015974 -0.001009 0.0058272 0.018534 -0.23637 -0.00087205 -0.00098233
0.0016635 -0.0011104 0.0018824 0.00091179
-0.0019833 0.0034703 0.0014732 0.00034593 -0.00086824 -0.00098109 0.058987 -0.17742
-0.00010326 0.0023783 -0.00059682 0.0020356
0.0012993 0.00011335 0.0011595 -0.0011046 0.0016639 -0.0011329 -0.0001073 0.0023871
0.2458 -0.060965 0.00055744 -0.0036012
