!Keysight Technologies,M9804A,MY58100912,A.14.10.03
!Date: Thursday, April 27, 2023 10:28:33
!Correction: S11(C  6-Port  ) 
!S12(C  6-Port  ) 
!S13(C  6-Port  ) 
!S14(C  6-Port  ) 
!S15(C  6-Port  ) 
!S16(C  6-Port  ) 
!S21(C  6-Port  ) 
!S22(C  6-Port  ) 
!S23(C  6-Port  ) 
!S24(C  6-Port  ) 
!S25(C  6-Port  ) 
!S26(C  6-Port  ) 
!S31(C  6-Port  ) 
!S32(C  6-Port  ) 
!S33(C  6-Port  ) 
!S34(C  6-Port  ) 
!S35(C  6-Port  ) 
!S36(C  6-Port  ) 
!S41(C  6-Port  ) 
!S42(C  6-Port  ) 
!S43(C  6-Port  ) 
!S44(C  6-Port  ) 
!S45(C  6-Port  ) 
!S46(C  6-Port  ) 
!S51(C  6-Port  ) 
!S52(C  6-Port  ) 
!S53(C  6-Port  ) 
!S54(C  6-Port  ) 
!S55(C  6-Port  ) 
!S56(C  6-Port  ) 
!S61(C  6-Port  ) 
!S62(C  6-Port  ) 
!S63(C  6-Port  ) 
!S64(C  6-Port  ) 
!S65(C  6-Port  ) 
!S66(C  6-Port  ) 
!S6P File: Measurement: :
# Hz S  RI   R 50
500000000 -0.34017 -0.020175 -0.01114 -0.0032729 -0.0078844 0.013021 -0.0033578 0.012463
0.011 0.0040879 -0.0030668 0.0089559
-0.011116 -0.0032666 -0.41986 -0.038724 0.0057856 -0.011282 0.0017849 0.012361
0.0068824 0.0023882 0.0022863 0.013522
-0.0078687 0.013017 0.0057778 -0.011295 -0.26414 0.2219 0.007176 0.0038833
-0.0011565 0.0081858 0.0024212 0.011921
-0.003345 0.012461 0.0017874 0.012371 0.0071727 0.0038863 -0.33194 0.058817
-0.020702 -0.0062915 0.015142 0.023983
0.011024 0.0040898 0.0068694 0.0023947 -0.0011775 0.0082113 -0.020755 -0.0062369
-0.23659 -0.16897 -0.027119 0.0046488
-0.0030646 0.0089761 0.0023325 0.013507 0.002441 0.011858 0.015134 0.023919
-0.027112 0.0046325 -0.28358 -0.086437
560000000 -0.31387 0.13487 -0.027403 -0.059773 0.00070412 0.011739 0.005236 0.010211
0.0087698 0.0049322 0.010543 0.0070926
-0.027366 -0.059743 -0.3756 0.11822 -0.04295 -0.034682 0.013478 0.0037663
-0.012297 -0.0036372 0.0027185 -0.00046846
0.00073577 0.011747 -0.043035 -0.034644 -0.1811 0.26674 0.00012 -0.0045974
0.019401 0.0043353 0.0066773 -0.006284
0.0052135 0.010219 0.013502 0.0037471 0.00012834 -0.0046014 -0.30605 0.14675
-3.4165e-05 -0.023361 0.0030038 -0.018697
0.0087951 0.0049396 -0.012272 -0.0036921 0.019381 0.0043532 -4.5282e-05 -0.023364
-0.28982 0.0054849 0.0027982 -0.047423
0.010509 0.0070195 0.0026866 -0.00038656 0.0066848 -0.0063543 0.0030378 -0.018713
0.0028018 -0.047424 -0.33035 0.053707
620000000 -0.27198 0.12196 -0.023512 0.0078443 0.0043479 0.0081484 0.0074563 -0.0048158
0.01096 -0.0015945 0.00063745 -0.0027632
-0.023498 0.0078455 -0.40188 0.072365 -0.019663 0.00089703 -0.00073531 -0.0023384
0.010277 -0.0062834 0.0018329 -0.0023836
0.0043597 0.0081623 -0.019672 0.00093591 -0.14991 0.27715 -0.0009647 -0.0050667
-0.003327 -0.0026507 0.0080593 -0.0034636
0.007458 -0.0048398 -0.00073221 -0.002341 -0.00095863 -0.0050561 -0.26355 0.15891
-0.040639 -0.016936 0.011873 0.024057
0.010923 -0.0016203 0.010275 -0.0062988 -0.0033253 -0.0026259 -0.040716 -0.016901
-0.21143 -0.032733 -0.039702 0.016317
0.00067893 -0.0027905 0.0018612 -0.0024219 0.0080513 -0.0034381 0.011821 0.024052
-0.039669 0.016351 -0.25724 0.026269
680000000 -0.22898 0.20447 -0.02781 -0.011696 0.0056125 0.004725 0.0011511 -0.0072377
-0.0026782 -0.010878 0.0044478 -0.0068224
-0.027778 -0.01171 -0.38466 0.16689 -0.032385 0.00052539 -0.0014109 -0.00070775
-0.0022464 -0.0092708 -0.0015224 -0.0023041
0.0056043 0.0047158 -0.032388 0.00057773 -0.098384 0.29406 -0.0011102 -0.00057387
-0.0013559 -0.000133 -0.0033548 -0.0089583
0.001163 -0.007241 -0.0014155 -0.00071178 -0.0011162 -0.00057677 -0.21712 0.20623
-0.02618 -0.0042337 -0.0093063 -0.0083372
-0.002721 -0.010871 -0.00227 -0.009258 -0.0013636 -0.00013284 -0.026202 -0.0041816
-0.2531 0.066554 -0.0071547 -0.006052
0.0044452 -0.0068328 -0.0015407 -0.002315 -0.0033703 -0.0089732 -0.0093098 -0.0083745
-0.0071506 -0.0060542 -0.25496 0.12137
740000000 -0.18419 0.19954 -0.03629 0.026855 0.012329 -0.0058638 -0.00068492 -0.0040881
-0.0046798 -0.003432 -0.0058941 0.0025192
-0.036305 0.026798 -0.3327 0.18619 -0.032901 0.035451 -0.0012655 -0.0064727
-0.011655 0.0077423 -0.0022697 -0.00559
0.012315 -0.0058747 -0.032839 0.035541 -0.064977 0.29313 -0.0018969 0.0031416
-0.0033151 -0.0046549 -0.0018337 0.0010979
-0.00069353 -0.004105 -0.0012782 -0.0064829 -0.0019026 0.0031331 -0.19951 0.21528
-0.042746 -0.0027416 0.022449 0.012728
-0.0047537 -0.0033909 -0.011648 0.0078251 -0.0033275 -0.0046706 -0.042805 -0.0026746
-0.15777 0.087058 -0.039264 0.0055207
-0.005904 0.0024904 -0.0022924 -0.0055665 -0.0018266 0.0010958 0.022473 0.012747
-0.039254 0.0055096 -0.2433 0.13183
800000000 -0.1499 0.23653 -0.020759 0.017672 0.0048945 -0.010572 -0.0044927 -0.0016522
-0.0038334 0.002521 0.0035506 0.00074008
-0.020759 0.017659 -0.33292 0.25449 -0.0065152 0.03384 -0.002405 0.0022451
-0.00097314 0.003446 0.00098442 0.0052252
0.0048862 -0.01058 -0.00646 0.033859 -0.022347 0.31485 0.00070791 0.0018386
0.00044065 0.0035851 -0.0018249 0.0012898
-0.0044935 -0.001649 -0.0024058 0.0022538 0.00070666 0.001842 -0.16916 0.24152
-0.026973 0.017054 0.012986 -0.010181
-0.0038508 0.0025447 -0.00094965 0.003478 0.00044977 0.0035982 -0.026968 0.017095
-0.1963 0.11519 -0.015593 0.019842
0.003566 0.00072509 0.00099843 0.0052312 -0.0018203 0.0013063 0.012985 -0.010204
-0.015631 0.019825 -0.23027 0.17729
860000000 -0.11507 0.25605 -0.015416 0.03086 -0.0036367 -0.0098178 -0.002012 0.0012001
0.0042021 0.0046722 -0.0027996 -0.0021852
-0.015412 0.030825 -0.28595 0.29512 0.0094458 0.033423 0.00020946 0.0023213
0.0043846 0.00045095 0.002921 0.00061564
-0.0036508 -0.0098146 0.0095126 0.033412 0.025573 0.32195 -0.00038633 7.5136e-05
0.0025008 -0.0012209 0.0018357 0.0039434
-0.0020007 0.0012115 0.00021929 0.0023214 -0.00038713 7.6608e-05 -0.13256 0.25201
-0.015062 0.021183 -0.0050604 -0.0088475
0.004205 0.0046636 0.0043992 0.000421 0.0024993 -0.0012277 -0.015022 0.021221
-0.14294 0.16075 -0.021048 0.017622
-0.0028181 -0.0021826 0.0029377 0.00059678 0.0018545 0.0039495 -0.0050603 -0.0088475
-0.021039 0.017598 -0.18174 0.21706
920000000 -0.0885 0.27742 0.0066289 0.036398 -0.009424 -0.0042328 -0.0013098 0.0016235
0.0015478 0.0016608 0.0029212 -0.0018494
0.006614 0.036383 -0.25556 0.31577 0.028657 0.020284 0.0018052 0.0010102
0.0074452 -0.00053581 0.0039084 -0.0028566
-0.0094289 -0.0042209 0.028708 0.020237 0.073066 0.32228 0.0019604 -0.0001721
0.0016635 -0.00049098 0.00095177 -0.0012441
-0.0013026 0.0016328 0.0018003 0.00099355 0.0019676 -0.00017312 -0.10634 0.26801
-0.0069469 0.031741 0.0029065 -0.0067495
0.0015341 0.0016548 0.0074477 -0.00055994 0.0016689 -0.00048414 -0.0069062 0.031777
-0.1289 0.16655 0.00087347 0.026092
0.0029212 -0.0018478 0.0038798 -0.0028956 0.00095568 -0.0012533 0.0029234 -0.0067486
0.00086953 0.026093 -0.18047 0.23261
980000000 -0.04172 0.2945 0.01873 0.028148 -0.0087631 0.004623 0.0020971 0.0028669
0.0042777 -0.0019361 -0.0029913 -0.0022419
0.018715 0.028143 -0.20386 0.34777 0.033055 0.0030284 0.0021662 -0.00036032
0.0018143 -0.0064089 -0.00053817 -0.0025753
-0.0087377 0.0046447 0.033054 0.0029536 0.11975 0.3144 0.00050901 -0.001356
6.9075e-05 -0.0024784 0.0012561 -0.00035711
0.0020862 0.0028686 0.0021823 -0.00037162 0.0005071 -0.0013583 -0.067226 0.27732
0.011915 0.029158 -0.0083017 -0.0066193
0.0042741 -0.0019473 0.0017784 -0.0064324 5.7435e-05 -0.0024757 0.011959 0.029163
-0.09677 0.19008 0.0067574 0.018447
-0.0029965 -0.0022123 -0.00055334 -0.0025991 0.0012467 -0.00035814 -0.0083098 -0.0066139
0.0067338 0.018428 -0.13707 0.27064
1040000000 0.00072534 0.30185 0.033129 0.015507 -0.0013663 0.0067063 0.0022211 0.00046349
7.2297e-05 -0.0033248 -0.00089141 -0.0015802
0.033108 0.015506 -0.16831 0.36132 0.028177 -0.016198 0.0013522 -0.0018958
-0.0024041 -0.0028185 -0.0015742 -0.0030082
-0.001346 0.0066979 0.028129 -0.016259 0.16668 0.30018 -0.00069151 -0.0015348
-0.0016879 -0.00098748 -0.00055177 -0.0010825
0.002219 0.0004598 0.0013466 -0.0019236 -0.00069011 -0.0015327 -0.038811 0.28642
0.022435 0.015672 -0.0025894 0.00059414
6.3543e-05 -0.0033156 -0.0024485 -0.0028294 -0.0017055 -0.00098543 0.022475 0.015637
-0.064178 0.19608 0.014702 0.015559
-0.0008868 -0.0015604 -0.0015968 -0.0030315 -0.00055046 -0.0010937 -0.0025948 0.00058672
0.014683 0.015564 -0.11185 0.29015
1100000000 0.046048 0.30809 0.034592 -0.0061763 0.0026705 0.0036775 0.0019404 -0.0010013
-0.0021515 -0.0028643 -0.0038692 0.00069992
0.034573 -0.0061501 -0.12473 0.37783 0.013603 -0.028411 -0.00027899 -0.0018143
-0.0037719 -0.00060046 -0.0035953 -5.6624e-05
0.0026869 0.0036705 0.013535 -0.028453 0.21426 0.2777 -0.0019106 0.00026684
-0.0019775 0.00068359 -0.00098269 -0.0001223
0.001933 -0.0010082 -0.00027901 -0.0018242 -0.0019086 0.00026544 0.0026814 0.28908
0.026199 0.001554 -0.0028343 -0.00016536
-0.0021561 -0.0028608 -0.0037908 -0.00060071 -0.0019826 0.00068428 0.026221 0.0015079
-0.04545 0.20692 0.018838 0.0057153
-0.0038582 0.00071852 -0.0035976 -3.8945e-05 -0.00097062 -0.00012473 -0.0028362 -0.00015404
0.018824 0.0057338 -0.065294 0.31455
1160000000 0.09664 0.30204 0.022022 -0.022109 0.0021826 -0.00026572 -0.00016157 -0.0017834
-0.0040219 -0.00042481 -0.00081191 0.0039909
0.022027 -0.022074 -0.080395 0.38211 -0.0055102 -0.028627 -0.0016872 -0.00143
-0.0026973 0.0026223 -0.0014528 0.0018613
0.0021831 -0.00027069 -0.0056065 -0.02862 0.25695 0.24447 -0.00077663 0.0018284
-0.00054625 0.0020617 -0.0009611 0.00023082
-0.0001813 -0.0017857 -0.0016935 -0.0014448 -0.00079001 0.001821 0.04185 0.28434
0.02081 -0.014135 -0.0034024 0.0041793
-0.0040371 -0.00039544 -0.0027052 0.0026161 -0.00054102 0.0020667 0.020808 -0.014174
-0.012501 0.21369 0.017872 -0.0025196
-0.00080106 0.0040057 -0.0014488 0.0018513 -0.00097049 0.00022828 -0.0033996 0.0041786
0.017865 -0.0025008 -0.018571 0.31561
1220000000 0.14151 0.28952 0.0078762 -0.030037 -0.0017198 -0.00017207 0.00024897 -0.00074027
-0.0024646 0.0023635 0.0014575 0.0020172
0.0078928 -0.03 -0.035486 0.39321 -0.017931 -0.01992 -0.0024608 0.0005972
0.00010181 0.0031781 -0.00048687 0.0021074
-0.0017124 -0.00016954 -0.018002 -0.019878 0.29534 0.20328 0.00078176 0.0019251
0.00064102 0.0013202 0.00035047 0.00067823
0.0002426 -0.00073895 -0.002453 0.00059466 0.00078342 0.0019233 0.082562 0.2738
0.0089791 -0.020469 0.0010281 0.0014271
-0.0024557 0.0023791 0.0001197 0.0031714 0.00064703 0.0013348 0.0089588 -0.020491
0.011105 0.22049 0.011962 -0.014743
0.0014553 0.0020129 -0.00048237 0.0021035 0.00034269 0.00067668 0.0010308 0.0014097
0.011955 -0.014734 0.015325 0.32729
1280000000 0.1904 0.26595 -0.010025 -0.0273 -0.0015075 0.0031283 -0.00086481 -0.0019835
-0.0006796 0.0030164 0.0025121 0.00090807
-0.010002 -0.027275 0.010945 0.3832 -0.02405 -0.0071071 -0.00093659 0.0014996
0.0019538 0.0018091 0.00092711 0.0018572
-0.0014997 0.0031214 -0.024089 -0.0070333 0.32377 0.15759 0.0017343 0.00011211
0.0012643 0.00031608 0.00032819 0.00026587
-0.00087043 -0.0019772 -0.00092346 0.0015041 0.0017333 0.000111 0.11857 0.25433
-0.0019445 -0.021585 -0.00092202 0.00068444
-0.00067083 0.0030185 0.0019637 0.0018115 0.0012647 0.00032226 -0.001979 -0.021603
0.047054 0.22181 0.00098288 -0.016421
0.0025195 0.00090456 0.00092346 0.0018562 0.00034177 0.00026493 -0.00091672 0.00068713
0.0009851 -0.016412 0.061355 0.325
1340000000 0.22697 0.23117 -0.018948 -0.016718 0.0015435 0.004495 -0.0016978 -0.00097133
0.0014911 0.0025985 0.0015803 -0.0015742
-0.018922 -0.01671 0.050681 0.37343 -0.021069 0.0056051 -4.7853e-05 0.0020452
0.0021694 0.00058363 0.0014902 0.00062054
0.0015555 0.0044809 -0.021064 0.0056841 0.34377 0.10955 0.0013559 -0.0011353
0.00074145 -0.00059546 0.00019097 0.000179
-0.0016981 -0.00096149 -3.4643e-05 0.0020515 0.0013639 -0.001138 0.14982 0.23217
-0.012062 -0.017244 0.00013872 0.0015568
0.0015133 0.0025965 0.0021715 0.00056214 0.00075172 -0.00059077 -0.012101 -0.017229
0.076675 0.21569 -0.0064035 -0.014015
0.001572 -0.0015804 0.0014962 0.00061422 0.0001907 0.00018085 0.0001508 0.0015611
-0.0064068 -0.014027 0.1001 0.31686
1400000000 0.25937 0.19156 -0.023227 -0.0049727 0.0056186 0.0027848 -0.002191 0.00057319
0.0024153 0.00087491 5.0925e-05 -0.0015536
-0.023203 -0.0049897 0.087732 0.35889 -0.013777 0.013158 0.0014509 0.001268
0.0012632 -0.0010551 0.0011304 -6.5311e-05
0.005636 0.0027757 -0.013735 0.013211 0.35573 0.056218 9.4505e-05 -0.0020869
9.5027e-05 -0.00051529 0.00031759 0.00019724
-0.0021922 0.00057504 0.0014551 0.0012664 0.00010045 -0.0020831 0.17786 0.20122
-0.017961 -0.0090119 -0.0004723 0.0010575
0.0024239 0.00087024 0.0012579 -0.0010638 9.8395e-05 -0.00051474 -0.018001 -0.0089754
0.10868 0.20898 -0.012627 -0.007964
3.392e-05 -0.0015584 0.0011366 -6.7743e-05 0.00032669 0.00019303 -0.00046781 0.0010645
-0.012619 -0.0079752 0.1432 0.30227
1460000000 0.28077 0.14655 -0.01921 0.0066341 0.0056873 -0.0023012 -0.0016276 0.0016911
0.0021052 -0.0006588 -0.00046029 -0.00095107
-0.019203 0.0066104 0.12097 0.33571 -0.0049975 0.015379 0.0017963 5.0302e-05
0.00065189 -0.0014533 0.0010263 -0.00066375
0.0056848 -0.002319 -0.00495 0.015407 0.36013 0.0024879 -0.0016484 -0.0014399
0.00018816 -0.00029552 0.00063459 -0.00033167
-0.0016157 0.0016962 0.0017949 4.4174e-05 -0.0016506 -0.0014476 0.2013 0.17091
-0.018456 -0.00073025 7.7313e-05 0.0026965
0.0021117 -0.00066001 0.00065292 -0.0014638 0.00019352 -0.00029716 -0.018472 -0.00068982
0.13653 0.19312 -0.013444 -0.0012581
-0.00046682 -0.00094779 0.0010423 -0.00066822 0.00063488 -0.00033319 8.0738e-05 0.002692
-0.013442 -0.0012575 0.1745 0.27924
1520000000 0.29196 0.1038 -0.012749 0.011363 0.0031452 -0.0044925 0.00017391 0.0026854
0.0020214 -0.0018196 -0.0011772 -9.254e-05
-0.012747 0.011345 0.15358 0.32014 0.0023054 0.012646 0.001693 -0.00098164
-0.00018446 -0.0011092 0.00019051 -0.00098725
0.0031244 -0.0044971 0.0023493 0.01264 0.35324 -0.052989 -0.0015535 -0.00019872
0.00049759 -0.00099295 2.3513e-06 -0.00021773
0.00017501 0.0026825 0.0016935 -0.00098579 -0.0015602 -0.00020388 0.2221 0.13283
-0.016061 0.0059384 0.0024659 0.0021232
0.0020185 -0.0018336 -0.0001989 -0.0011111 0.00049842 -0.0010011 -0.016056 0.005984
0.16399 0.17756 -0.012492 0.0039044
-0.0011859 -8.5839e-05 0.00018344 -0.00099241 2.9695e-06 -0.00022187 0.0024647 0.0021209
-0.012499 0.0038901 0.20607 0.25623
1580000000 0.29945 0.056877 -0.0059771 0.013351 -0.0011196 -0.0049958 0.001559 0.0018947
-0.00029853 -0.0022536 -0.0002646 0.00039932
-0.0059842 0.013341 0.17962 0.29458 0.0055991 0.0076604 0.00032075 -0.0017915
-0.00068543 -0.00090601 -0.00031379 -0.00076923
-0.0011369 -0.0049885 0.0056373 0.0076491 0.33305 -0.11046 -0.0016484 0.0011292
-0.00049902 -0.0011912 0.00016711 -0.00063574
0.0015528 0.0018924 0.00031126 -0.0017947 -0.0016445 0.0011295 0.2333 0.093775
-0.011032 0.010806 0.0030057 0.00024929
-0.00031978 -0.0022556 -0.00069425 -0.00090675 -0.00050124 -0.001185 -0.011006 0.010852
0.187 0.1577 -0.0092222 0.009281
-0.00026686 0.00039824 -0.00031611 -0.0007736 0.00016116 -0.00064651 0.003012 0.00024605
-0.0092417 0.0092757 0.23546 0.22796
1640000000 0.29978 0.015463 0.00030533 0.011249 -0.0029815 -0.0026907 0.0027327 0.00081758
-0.00098539 -0.001596 -0.0002022 0.0006589
0.0003039 0.011246 0.20788 0.26967 0.0059186 0.0030536 -0.00099989 -0.0016662
-0.0010058 -0.00019294 -0.00059334 -0.00051073
-0.0029947 -0.002681 0.0059348 0.0030278 0.30415 -0.15875 -0.00051113 0.0017534
-0.0013915 -0.00075257 -0.00025828 -0.00034807
0.0027303 0.0008107 -0.00099979 -0.0016682 -0.00050727 0.001744 0.24316 0.04702
-0.0055371 0.011296 0.0028128 -0.0014483
-0.00099594 -0.001596 -0.0010119 -0.00018237 -0.0013982 -0.00075197 -0.0055156 0.011314
0.20813 0.13224 -0.0036714 0.011008
-0.00019572 0.00066456 -0.00059961 -0.00050789 -0.00026311 -0.00035074 0.0028203 -0.0014557
-0.0036758 0.011002 0.25925 0.19589
1700000000 0.29081 -0.029842 0.0029792 0.0078595 -0.0036039 0.00020586 0.0029124 -0.0014879
-0.0021493 -0.00059164 0.00073851 0.00030157
0.0029685 0.0078615 0.22536 0.23836 0.0038854 0.00026037 -0.0015965 -0.00037411
-0.00062706 0.00020485 -0.00087923 -0.0003291
-0.0036086 0.000214 0.0038827 0.00025082 0.26157 -0.19885 0.00083473 0.0015023
-0.0019722 0.00013525 -0.00070014 -0.00081935
0.0029049 -0.0014882 -0.001596 -0.00036652 0.00083798 0.0014967 0.23932 -0.00040329
-0.0019881 0.010601 0.0015185 -0.0026248
-0.0021604 -0.00057669 -0.00062796 0.00020692 -0.001965 0.00014613 -0.0019769 0.010618
0.22402 0.11043 0.0013721 0.010666
0.00074245 0.00030307 -0.0008875 -0.00032414 -0.00070245 -0.0008157 0.0015179 -0.0026403
0.0013631 0.010671 0.27412 0.16066
1760000000 0.27709 -0.077596 0.0042567 0.0044195 -0.0023915 0.0009585 0.00093998 -0.0034846
-0.0015049 0.00092752 0.00041651 -0.00050982
0.0042492 0.0044124 0.25037 0.19854 0.001571 -0.0016401 -0.0011778 0.00045167
-0.00086551 0.00084091 -0.00052008 0.00050388
-0.0023935 0.00096637 0.0015645 -0.0016513 0.2129 -0.23266 0.0014695 0.00075445
-0.00097599 0.0018835 -0.0014376 -0.00021051
0.000928 -0.0034818 -0.0011747 0.00045601 0.0014662 0.00075111 0.23023 -0.049138
0.001099 0.0089129 -0.00037678 -0.0028733
-0.0014991 0.00093605 -0.00086247 0.0008502 -0.00097183 0.0018739 0.0011155 0.0089108
0.23644 0.074644 0.0054082 0.0074824
0.00041423 -0.00051058 -0.00051936 0.00050292 -0.001436 -0.00020986 -0.00037486 -0.0028833
0.0054069 0.0074955 0.28493 0.12225
1820000000 0.25155 -0.11369 0.0036171 0.0012748 -8.9654e-05 0.002462 -0.0012876 -0.0029076
-0.00087018 0.0011746 -4.5378e-05 -0.00010589
0.0036129 0.0012756 0.26009 0.16917 -0.00048892 -0.00042471 -0.0010168 0.001095
6.0964e-05 0.0011376 -0.00041646 0.00054157
-7.7448e-05 0.0024625 -0.00048588 -0.00042204 0.16217 -0.24867 0.0012993 6.7728e-05
0.00032031 0.0022947 -0.0012793 0.00065658
-0.0012895 -0.0029078 -0.001016 0.0011009 0.0012916 6.0849e-05 0.20224 -0.093975
0.0022544 0.0065936 -0.0017078 -0.0018855
-0.00086257 0.0011839 6.8845e-05 0.0011459 0.00033416 0.0022887 0.0022737 0.0065966
0.2517 0.045084 0.0064642 0.0033184
-4.081e-05 -0.00011183 -0.0004124 0.00053964 -0.001279 0.000647 -0.0017015 -0.0018909
0.0064697 0.0033316 0.28613 0.085043
1880000000 0.2158 -0.15307 0.0010059 -0.00024242 -0.00044383 0.0022398 -0.0029279 -0.0018554
8.829e-05 0.0016787 0.00015867 -0.00050822
0.001007 -0.00024393 0.26442 0.12252 -0.0026878 0.0015015 7.9183e-05 0.0016105
0.00051542 0.0010296 0.00021755 0.00084965
-0.00043809 0.0022403 -0.0026812 0.0015166 0.10867 -0.25862 0.001361 -0.0010707
0.0018678 0.0015068 -0.000597 0.0014036
-0.0029349 -0.0018356 8.5597e-05 0.0016087 0.0013595 -0.0010661 0.16408 -0.13452
0.0026648 0.0041818 -0.0025381 4.8986e-05
9.7681e-05 0.0016685 0.00052471 0.0010263 0.001866 0.0015075 0.0026822 0.0041737
0.25265 0.011722 0.0059694 0.00058889
0.00016509 -0.00050301 0.0002247 0.00085019 -0.00059046 0.0014009 -0.0025465 4.0661e-05
0.0059701 0.00059156 0.28432 0.050211
1940000000 0.17615 -0.17812 -0.001144 -0.0011302 0.0015197 0.0022055 -0.0035269 0.00076931
0.0015751 0.00082992 -0.00057201 -0.00058143
-0.0011428 -0.0011403 0.26446 0.091147 -0.0014657 0.0040194 0.00098875 0.00099986
0.001557 0.00044938 0.00083474 0.00023198
0.0015328 0.0021966 -0.0014435 0.004038 0.062275 -0.2511 6.3611e-05 -0.0017731
0.0021378 -3.6628e-05 0.00060558 0.0014945
-0.0035237 0.00078762 0.0010004 0.00099911 6.8975e-05 -0.0017776 0.11321 -0.16555
0.0015251 0.002625 -0.0018365 0.0011308
0.0015793 0.00080927 0.0015685 0.00043561 0.0021409 -3.6892e-05 0.0015368 0.0026317
0.25249 -0.027126 0.0044127 -0.0029252
-0.00058201 -0.00057975 0.00083207 0.00022621 0.00060649 0.0014929 -0.0018456 0.0011313
0.0044132 -0.002921 0.27171 0.013545
2000000000 0.13017 -0.19246 -0.0045416 0.0013084 0.0026647 0.0015898 -0.0022431 0.0034488
0.0010888 -0.00017239 -0.00049663 0.0003942
-0.0045372 0.0013066 0.25066 0.055438 -0.001123 0.0058656 0.0013557 0.00017629
0.0012299 -0.0011453 0.00043512 -1.5421e-06
0.0026668 0.0015759 -0.0010997 0.0058699 0.018632 -0.23666 -0.0011602 -0.00090824
0.0014711 -0.0012189 0.0016616 0.00089947
-0.0022359 0.0034542 0.0013626 0.0001761 -0.0011649 -0.000907 0.060563 -0.1776
-0.00053799 0.0021089 -0.00057515 0.0020935
0.0010951 -0.00017918 0.0012247 -0.0011548 0.0014741 -0.0012192 -0.00054077 0.0020994
0.24507 -0.061132 0.00061595 -0.0042275
