!Keysight Technologies,M9804A,MY58100912,A.14.10.03
!Date: Thursday, April 27, 2023 10:28:33
!Correction: S11(C  6-Port  ) 
!S12(C  6-Port  ) 
!S13(C  6-Port  ) 
!S14(C  6-Port  ) 
!S15(C  6-Port  ) 
!S16(C  6-Port  ) 
!S21(C  6-Port  ) 
!S22(C  6-Port  ) 
!S23(C  6-Port  ) 
!S24(C  6-Port  ) 
!S25(C  6-Port  ) 
!S26(C  6-Port  ) 
!S31(C  6-Port  ) 
!S32(C  6-Port  ) 
!S33(C  6-Port  ) 
!S34(C  6-Port  ) 
!S35(C  6-Port  ) 
!S36(C  6-Port  ) 
!S41(C  6-Port  ) 
!S42(C  6-Port  ) 
!S43(C  6-Port  ) 
!S44(C  6-Port  ) 
!S45(C  6-Port  ) 
!S46(C  6-Port  ) 
!S51(C  6-Port  ) 
!S52(C  6-Port  ) 
!S53(C  6-Port  ) 
!S54(C  6-Port  ) 
!S55(C  6-Port  ) 
!S56(C  6-Port  ) 
!S61(C  6-Port  ) 
!S62(C  6-Port  ) 
!S63(C  6-Port  ) 
!S64(C  6-Port  ) 
!S65(C  6-Port  ) 
!S66(C  6-Port  ) 
!S6P File: Measurement: :
# Hz S  RI   R 50
500000000 -0.33945 -0.020997 -0.010625 -0.003455 -0.0071421 0.011983 -0.0035617 0.012461
0.01189 0.0047258 -0.0024115 0.0090132
-0.010608 -0.003566 -0.41845 -0.039147 0.006559 -0.011787 0.0021679 0.012021
0.0069782 0.0022895 0.0034671 0.012862
-0.0072949 0.012054 0.0065906 -0.011874 -0.26294 0.22051 0.0073831 0.0033031
-0.00098606 0.008477 0.0029562 0.011334
-0.0034742 0.012493 0.002139 0.012079 0.0073304 0.0033743 -0.33109 0.059185
-0.020494 -0.0066278 0.015395 0.023752
0.011939 0.0043584 0.0069872 0.0024962 -0.00088097 0.0084221 -0.020513 -0.0065318
-0.23373 -0.16806 -0.026418 0.0046908
-0.0024005 0.0090919 0.0030742 0.012642 0.002909 0.011181 0.015201 0.024172
-0.026518 0.0046359 -0.28189 -0.087268
560000000 -0.31246 0.13637 -0.025976 -0.060597 0.00069311 0.011249 0.0052999 0.0095866
0.0096959 0.0041744 0.0099539 0.0074799
-0.025894 -0.060629 -0.37578 0.11697 -0.042226 -0.035137 0.013116 0.0040223
-0.012437 -0.0031367 0.0029355 -0.0010424
0.00065277 0.011447 -0.042194 -0.035238 -0.18041 0.26616 -0.00030766 -0.0050373
0.018548 0.0042491 0.0066639 -0.006355
0.0052414 0.0095693 0.013257 0.004253 -2.7023e-05 -0.005154 -0.30578 0.14648
0.0018127 -0.024269 0.0034521 -0.018276
0.0094517 0.0041278 -0.011956 -0.0030253 0.018608 0.0042478 0.0017523 -0.024538
-0.28684 0.0048277 0.0050155 -0.046663
0.010624 0.0073924 0.0026913 -0.00056144 0.0066797 -0.006618 0.0033952 -0.018411
0.0052044 -0.046716 -0.33076 0.052925
620000000 -0.27056 0.12079 -0.023366 0.0072897 0.0037006 0.0078616 0.0079263 -0.0050527
0.010332 -0.0016474 0.0011061 -0.002178
-0.023257 0.0073769 -0.40122 0.071582 -0.019667 0.00033007 -0.00096572 -0.0023284
0.010255 -0.0062557 0.0013472 -0.0028967
0.0036155 0.007995 -0.019702 0.00048147 -0.15022 0.27565 -0.0013882 -0.0050573
-0.0032045 -0.0029632 0.0075132 -0.0028141
0.0077683 -0.0052223 -0.00095137 -0.0023373 -0.0012479 -0.0053262 -0.26264 0.15769
-0.04035 -0.017238 0.011987 0.023352
0.010373 -0.0012272 0.010056 -0.006229 -0.0028554 -0.0028651 -0.040302 -0.017064
-0.21136 -0.031668 -0.038184 0.015204
0.0011611 -0.0023 0.0013246 -0.0029722 0.0083998 -0.0029365 0.011952 0.023244
-0.037988 0.015425 -0.2552 0.023397
680000000 -0.22798 0.20324 -0.027855 -0.012571 0.0055087 0.0045452 0.0012738 -0.0072904
-0.0024832 -0.010932 0.0038168 -0.0071255
-0.027805 -0.012578 -0.38474 0.16558 -0.032306 0.00033594 -0.0014353 -0.00074695
-0.0024584 -0.008792 -0.0013238 -0.0023476
0.0055623 0.0045325 -0.032344 0.00040986 -0.099058 0.29333 -0.00099394 -0.00038665
-0.0017896 0.00025996 -0.0033462 -0.0084486
0.0012923 -0.0073014 -0.0014461 -0.00064683 -0.00097915 -0.00033064 -0.21713 0.2063
-0.02643 -0.0047897 -0.0088957 -0.0094158
-0.002322 -0.010946 -0.0025358 -0.0087588 -0.0018925 0.00037953 -0.026431 -0.0046418
-0.25078 0.063624 -0.0076649 -0.0070092
0.0035822 -0.0066372 -0.0015913 -0.0024833 -0.0033449 -0.0085435 -0.0090934 -0.0090042
-0.0077032 -0.0071293 -0.2548 0.12071
740000000 -0.18479 0.1978 -0.036805 0.025982 0.011987 -0.0058126 -0.00068484 -0.0041035
-0.0046961 -0.0026957 -0.0055797 0.0027877
-0.036858 0.025871 -0.33332 0.18574 -0.033157 0.035099 -0.0010649 -0.0062696
-0.011093 0.0079321 -0.0021628 -0.0050008
0.011974 -0.005919 -0.033091 0.035163 -0.065208 0.29305 -0.0017899 0.0032096
-0.0032801 -0.0047513 -0.0021932 0.0014939
-0.00068035 -0.0040456 -0.0010011 -0.0063574 -0.0017374 0.0032722 -0.19952 0.21494
-0.042795 -0.0031402 0.022677 0.012487
-0.0048364 -0.0026704 -0.011006 0.0080193 -0.0032473 -0.0046526 -0.042833 -0.0030552
-0.1578 0.086783 -0.038632 0.0023879
-0.0058642 0.0029195 -0.0020499 -0.0047634 -0.0023013 0.0018689 0.022791 0.01246
-0.038999 0.0021888 -0.24358 0.13112
800000000 -0.15118 0.23548 -0.021811 0.017477 0.0045207 -0.010317 -0.0045211 -0.0018528
-0.0036571 0.0027564 0.003697 0.00060855
-0.02179 0.017416 -0.33375 0.25389 -0.0068047 0.033609 -0.0023389 0.0023159
-0.00051072 0.00343 0.0012993 0.0052618
0.0045081 -0.010351 -0.0067393 0.033621 -0.022711 0.31508 0.00092936 0.0017373
0.00051636 0.0035615 -0.0016852 0.0011206
-0.0045699 -0.0018699 -0.0023334 0.0023603 0.00089732 0.0017334 -0.16933 0.24122
-0.027007 0.016568 0.012564 -0.0097002
-0.0037594 0.0028285 -0.00056805 0.00333 0.00046378 0.0035193 -0.026991 0.016637
-0.19575 0.11306 -0.015459 0.018962
0.0037493 0.00070352 0.00099398 0.005208 -0.0017032 0.0011552 0.012757 -0.0097484
-0.015415 0.018635 -0.23069 0.1749
860000000 -0.11617 0.25569 -0.015971 0.030901 -0.003802 -0.0094794 -0.0021178 0.0013611
0.0047283 0.0047929 -0.0026689 -0.0025988
-0.015921 0.030878 -0.28638 0.29529 0.0091456 0.033262 0.00023532 0.0022936
0.0047448 0.00033132 0.0028998 0.00050736
-0.0038145 -0.0094443 0.009227 0.033225 0.025672 0.32204 -0.00032992 -0.00013709
0.0027166 -0.0011982 0.001595 0.0040799
-0.0020395 0.0012824 0.00020424 0.0022948 -0.00036151 -0.00014558 -0.13257 0.25179
-0.014835 0.020799 -0.0056704 -0.0095369
0.0048349 0.0046998 0.0047828 0.00028344 0.0026633 -0.0012597 -0.014821 0.020759
-0.14304 0.15946 -0.022296 0.017058
-0.0028645 -0.0026077 0.003135 0.00054855 0.0016266 0.0041664 -0.0058591 -0.0097195
-0.022079 0.017069 -0.18198 0.21623
920000000 -0.08946 0.27741 0.0062882 0.037018 -0.0092867 -0.003761 -0.0012725 0.0018598
0.0016386 0.0014903 0.0026436 -0.0019665
0.0063118 0.037025 -0.25582 0.31605 0.028291 0.020398 0.0019829 0.00098036
0.0070188 -0.00068455 0.0035416 -0.0029756
-0.0092658 -0.0037544 0.028338 0.020336 0.073406 0.322 0.0019991 -8.9558e-05
0.0016738 -0.00065212 0.0009126 -0.0012233
-0.0012734 0.0018399 0.0019826 0.00098657 0.0020064 -8.4025e-05 -0.10645 0.26777
-0.0073421 0.031002 0.0023729 -0.006462
0.0016284 0.0015222 0.0070043 -0.00064491 0.0016228 -0.00069684 -0.007279 0.031018
-0.1296 0.16368 -0.00097738 0.025644
0.0027151 -0.0020412 0.0035401 -0.0029888 0.00082787 -0.0011927 0.0025284 -0.0062812
-0.00078812 0.025583 -0.18164 0.23115
980000000 -0.042364 0.29503 0.018589 0.028649 -0.008398 0.0048172 0.0021464 0.0028944
0.0037626 -0.0018918 -0.0033226 -0.0020949
0.018578 0.028649 -0.20385 0.34828 0.032521 0.0032894 0.0021304 -0.00035295
0.0014653 -0.0061321 -0.00048698 -0.0021395
-0.0083633 0.0048429 0.032513 0.0031841 0.11982 0.31381 0.00042744 -0.0013722
7.7168e-05 -0.0022661 0.0014078 -0.00017656
0.0021469 0.0028676 0.0020968 -0.0003766 0.00042491 -0.0013523 -0.067789 0.27718
0.010712 0.028752 -0.0084244 -0.0061687
0.0037505 -0.0018903 0.0014894 -0.0061712 0.0001339 -0.0023009 0.010762 0.028746
-0.098188 0.18891 0.0061545 0.018313
-0.0032548 -0.0019838 -0.00055212 -0.0022264 0.0014403 -0.00026262 -0.0085992 -0.0061717
0.0063001 0.018368 -0.13748 0.27004
1040000000 0.00029547 0.30258 0.032986 0.015932 -0.0010278 0.0066525 0.0023285 0.00063902
0.00010022 -0.0032956 -0.0005836 -0.0014265
0.032936 0.015865 -0.16809 0.36138 0.027739 -0.015696 0.0013467 -0.0017959
-0.0025882 -0.0024786 -0.001633 -0.0027152
-0.0010098 0.0066662 0.027715 -0.015747 0.16642 0.29924 -0.00068603 -0.0014113
-0.0016435 -0.0010346 -0.00045514 -0.0010468
0.0023748 0.00063297 0.0013068 -0.0018325 -0.00066254 -0.0014135 -0.038974 0.28653
0.021355 0.015766 -0.0024684 0.0011559
4.7374e-05 -0.0032129 -0.0025207 -0.002471 -0.0016607 -0.00091416 0.021342 0.01571
-0.066039 0.19595 0.013875 0.015795
-0.00075838 -0.0012757 -0.0015908 -0.0026908 -0.00047659 -0.001058 -0.0025591 0.0010911
0.013639 0.015761 -0.11324 0.28961
1100000000 0.046207 0.30853 0.034619 -0.005713 0.0028814 0.0035909 0.0021501 -0.001075
-0.0018702 -0.0028582 -0.0035309 0.00038187
0.03458 -0.0057068 -0.12414 0.37769 0.013551 -0.027566 -0.00010765 -0.0017013
-0.0032051 -0.00046463 -0.0032304 -0.00021694
0.0028967 0.003541 0.013485 -0.027628 0.21325 0.27695 -0.0018244 0.00029531
-0.0018251 0.00063015 -0.0010103 -0.00027431
0.0021622 -0.0010721 -0.00016467 -0.0017019 -0.0018507 0.0002813 0.0026729 0.28915
0.025042 0.0024064 -0.0024526 0.00011113
-0.0019319 -0.0028787 -0.0032942 -0.00054652 -0.0018337 0.00062362 0.025081 0.0023928
-0.047213 0.20722 0.018474 0.0060477
-0.003565 0.00042668 -0.0031546 -0.0003389 -0.0010103 -0.0002812 -0.0024965 8.5226e-05
0.0185 0.0060646 -0.065946 0.31352
1160000000 0.097057 0.30232 0.022186 -0.021466 0.0023698 -0.00040426 -0.0001248 -0.0021229
-0.003899 -0.00044548 -0.00070019 0.0037805
0.022202 -0.021409 -0.079858 0.38132 -0.0048915 -0.027935 -0.0016636 -0.0014282
-0.0025536 0.0025123 -0.0013468 0.0016119
0.0023665 -0.00041694 -0.004996 -0.027933 0.25561 0.24448 -0.00077725 0.0017551
-0.0004102 0.0020382 -0.00071313 0.00019176
-0.00014221 -0.0021186 -0.0016314 -0.001438 -0.00076965 0.0017622 0.041983 0.28399
0.020357 -0.012891 -0.0031993 0.0043116
-0.0038484 -0.00052373 -0.0024486 0.0025703 -0.0004171 0.0019468 0.020411 -0.012938
-0.013656 0.21423 0.016646 -0.0017556
-0.00071982 0.0037703 -0.0015449 0.0016956 -0.00071954 0.00012772 -0.0031414 0.0044699
0.016664 -0.0016415 -0.019089 0.31439
1220000000 0.14191 0.28944 0.0085386 -0.029489 -0.0015454 -0.00046402 4.8548e-05 -0.00087325
-0.0023941 0.0023493 0.0012669 0.0018291
0.0085461 -0.029425 -0.035462 0.39218 -0.01712 -0.019683 -0.002373 0.00047761
8.9612e-05 0.0029018 -0.00051242 0.0018992
-0.0015251 -0.0004255 -0.017167 -0.019642 0.29418 0.20427 0.0008318 0.0017666
0.00058186 0.0011036 0.00031472 0.00060212
4.7072e-05 -0.00089122 -0.0023863 0.00046319 0.00082107 0.001764 0.082283 0.27327
0.0090834 -0.018932 0.0014509 0.0014884
-0.0023653 0.0023385 0.00014836 0.002884 0.00060614 0.0011359 0.0090717 -0.018956
0.010501 0.22122 0.01173 -0.013256
0.0013167 0.0017941 -0.00051132 0.0019479 0.0003201 0.00058842 0.0014839 0.001427
0.011779 -0.013249 0.013947 0.32712
1280000000 0.19059 0.26557 -0.0089907 -0.027058 -0.0015191 0.002712 -0.0009843 -0.0018784
-0.0005707 0.0028896 0.0022528 0.00082489
-0.0089686 -0.027049 0.010329 0.38206 -0.023082 -0.0074099 -0.00090182 0.0014156
0.0016721 0.0016056 0.00076705 0.0017691
-0.0015007 0.0027184 -0.023151 -0.0073168 0.32343 0.15915 0.0015913 4.0709e-05
0.0011736 0.00020546 0.0002721 0.0001066
-0.00097673 -0.0018574 -0.00091511 0.0014117 0.0015956 6.6203e-05 0.11793 0.25409
-0.00088349 -0.020246 -0.00051391 0.00046169
-0.00062482 0.002883 0.0016734 0.0016238 0.0011582 0.00022214 -0.00090788 -0.020246
0.046909 0.22257 0.0014515 -0.014712
0.0023037 0.00079098 0.00073647 0.0017453 0.00028319 5.8393e-05 -0.00051784 0.00045633
0.0014101 -0.014763 0.059898 0.32464
1340000000 0.22696 0.23069 -0.017903 -0.017193 0.0012849 0.0041837 -0.0016353 -0.00088617
0.0014529 0.0025216 0.0014974 -0.0015323
-0.017872 -0.017217 0.049399 0.37287 -0.020537 0.004804 -0.00017872 0.0019982
0.0018716 0.00067461 0.0013369 0.00067681
0.0012931 0.0041852 -0.02054 0.0049084 0.34436 0.11101 0.0011918 -0.0010592
0.00062302 -0.00042619 8.5749e-05 0.00021152
-0.0016276 -0.00088647 -0.00015478 0.0020023 0.0012146 -0.0010867 0.14918 0.2323
-0.01039 -0.016594 0.00053856 0.0010796
0.0015025 0.0025258 0.0018936 0.00066715 0.00066712 -0.00041793 -0.010466 -0.016566
0.076773 0.21606 -0.0050528 -0.012535
0.0014035 -0.0014733 0.0013171 0.00059989 5.0129e-05 0.00024253 0.00053361 0.0011548
-0.0050145 -0.012574 0.098838 0.31719
1400000000 0.25898 0.19116 -0.022596 -0.0060131 0.0051961 0.0026191 -0.0020758 0.00054112
0.0023018 0.00076998 9.843e-05 -0.0013641
-0.02257 -0.0060392 0.086258 0.35904 -0.013757 0.012284 0.00133 0.0013598
0.0011916 -0.00083392 0.0010757 -2.5756e-05
0.0052168 0.0025946 -0.013725 0.012319 0.35696 0.05712 0.00011949 -0.0018341
7.8379e-05 -0.00041274 0.00029729 0.0002027
-0.0020721 0.00055044 0.0013367 0.0013587 0.00011214 -0.0018409 0.17725 0.20171
-0.015952 -0.0093592 -0.00041326 0.00044972
0.0023273 0.00076265 0.001163 -0.00081156 2.0354e-05 -0.00045423 -0.015988 -0.009345
0.10878 0.20915 -0.010775 -0.007559
0.00014335 -0.0013379 0.0010422 4.3897e-05 0.00030383 0.00030724 -0.00044575 0.00040414
-0.010786 -0.0076313 0.14163 0.30296
1460000000 0.28015 0.14656 -0.019269 0.0053336 0.0053286 -0.002186 -0.0015616 0.0015913
0.0019739 -0.0005907 -0.00034953 -0.00085107
-0.019276 0.0053204 0.11978 0.33662 -0.005541 0.014598 0.0017656 0.00017271
0.00079587 -0.0012473 0.001096 -0.00064098
0.0053143 -0.0021988 -0.0055023 0.014637 0.3616 0.0024572 -0.0014092 -0.0013318
0.00019946 -0.00016856 0.00064275 -0.00026524
-0.0015564 0.0016107 0.0017347 0.00017164 -0.0013993 -0.0013366 0.20099 0.1715
-0.016806 -0.0022579 -0.00029967 0.0021939
0.0019807 -0.00064439 0.00081328 -0.0012843 0.00022412 -0.00022314 -0.016842 -0.0022294
0.13678 0.19275 -0.011651 -0.0017427
-0.00037583 -0.00090357 0.0010774 -0.00060009 0.00064508 -0.00035493 -0.00021911 0.0022498
-0.011581 -0.0017425 0.17369 0.28013
1520000000 0.29128 0.10399 -0.013476 0.010282 0.0027805 -0.004124 7.2531e-05 0.002581
0.0018842 -0.001615 -0.00096234 -9.7228e-05
-0.013484 0.010269 0.15299 0.32148 0.001602 0.012415 0.0016827 -0.00088236
-5.1767e-05 -0.001118 0.00025363 -0.00087915
0.0027417 -0.0041196 0.0016596 0.012406 0.35445 -0.053893 -0.0014025 -0.0002949
0.00046775 -0.0008747 4.2115e-07 -0.00016883
7.4539e-05 0.0025785 0.001682 -0.00088457 -0.0014239 -0.00026985 0.22202 0.13367
-0.015618 0.0037874 0.0019587 0.0019017
0.0018893 -0.0016096 -4.7765e-05 -0.0011103 0.00053698 -0.00086439 -0.015614 0.0038215
0.16377 0.17711 -0.011267 0.0025527
-0.0010265 -0.00011043 0.00024767 -0.00090792 -1.4671e-05 -0.00022794 0.001963 0.0018576
-0.011258 0.0025651 0.20565 0.25742
1580000000 0.29912 0.057633 -0.0072528 0.01286 -0.0011644 -0.004598 0.0014821 0.0019467
-0.00015721 -0.0020925 -0.00028786 0.00028799
-0.0072483 0.012854 0.17973 0.29605 0.0049359 0.007746 0.00042491 -0.0016821
-0.00057978 -0.0010695 -0.00022231 -0.00079347
-0.0011738 -0.0045828 0.0049653 0.0077318 0.33368 -0.11169 -0.0016742 0.001003
-0.00034719 -0.0011696 0.00021171 -0.00054489
0.0014778 0.0019444 0.00041942 -0.0016842 -0.0016647 0.0010179 0.23372 0.094542
-0.011809 0.0087252 0.0024467 0.000392
-0.00019438 -0.0020834 -0.00058662 -0.0010499 -0.0004056 -0.0011696 -0.011806 0.0087405
0.18647 0.15722 -0.0087344 0.007691
-0.00028269 0.00032964 -0.00021492 -0.00079758 0.00021879 -0.00045663 0.0024384 0.00034776
-0.008705 0.0076452 0.23553 0.22882
1640000000 0.29995 0.016161 -0.00097656 0.011504 -0.0027827 -0.0022932 0.0027647 0.00095607
-0.00071992 -0.0015372 -0.00027934 0.00058298
-0.00097496 0.011515 0.20875 0.2708 0.0055213 0.0034114 -0.00086437 -0.0016794
-0.0010656 -0.00031617 -0.00053353 -0.00054077
-0.0027906 -0.0022738 0.0055108 0.0034019 0.3041 -0.1602 -0.00054338 0.0016444
-0.001108 -0.00084977 -0.00017341 -0.00024803
0.002763 0.000938 -0.00087198 -0.0016782 -0.00053084 0.0016167 0.24405 0.047447
-0.0072309 0.010178 0.0024864 -0.0011444
-0.00073723 -0.0015286 -0.0010568 -0.00031603 -0.0011414 -0.00086922 -0.0072191 0.010199
0.20721 0.13195 -0.0040579 0.0092718
-0.00026556 0.00065212 -0.00056489 -0.00052109 -0.00017529 -0.00019114 0.0024679 -0.0011363
-0.0040363 0.0092855 0.25952 0.19647
1700000000 0.2916 -0.029289 0.0021056 0.0087299 -0.0032382 0.00030884 0.002931 -0.0014332
-0.001942 -0.00069448 0.00066568 0.00047355
0.0020942 0.0087242 0.22657 0.23898 0.003645 0.00073807 -0.0015223 -0.00046244
-0.00072756 0.00023878 -0.00085628 -0.00038606
-0.0032443 0.00028747 0.0036559 0.0007116 0.26047 -0.19991 0.0007598 0.0015501
-0.0018463 -3.6939e-05 -0.00053981 -0.00074384
0.0029289 -0.0014225 -0.0015106 -0.00045964 0.00075312 0.0015678 0.2404 -0.00044683
-0.0039101 0.010606 0.0013648 -0.0023191
-0.0019989 -0.00069491 -0.00073352 0.00023874 -0.0018713 -1.3411e-05 -0.0038789 0.010637
0.22301 0.11068 0.0004125 0.0093855
0.00061806 0.00043042 -0.00083917 -0.00037157 -0.0005143 -0.00080491 0.0013503 -0.0023015
0.00038845 0.0093227 0.27426 0.16089
1760000000 0.27792 -0.077714 0.0039796 0.0055556 -0.0020721 0.00079388 0.0010191 -0.0034536
-0.0014397 0.00067804 0.00043123 -0.00043033
0.0039785 0.0055482 0.25173 0.19846 0.0016883 -0.001078 -0.0011662 0.00032107
-0.00088082 0.00095212 -0.00057472 0.00048122
-0.0021001 0.00081698 0.0016699 -0.0011163 0.21177 -0.23282 0.0013966 0.00074992
-0.0010209 0.0015743 -0.0014166 -0.00029693
0.0010141 -0.0034736 -0.001166 0.00033275 0.0013747 0.0007409 0.23116 -0.049864
-0.00033152 0.0097941 -0.00037247 -0.0024944
-0.0014199 0.00066873 -0.00089747 0.00096036 -0.0010589 0.0015238 -0.00031177 0.009808
0.2355 0.075171 0.0039806 0.006682
0.00044538 -0.00038551 -0.00058008 0.0005169 -0.001474 -0.00024846 -0.00039628 -0.0024855
0.0039697 0.0067277 0.28467 0.12219
1820000000 0.25226 -0.11426 0.0040052 0.0023164 6.9267e-05 0.0024717 -0.0012207 -0.0028436
-0.0010684 0.0010379 0.00019366 -8.5352e-05
0.0040019 0.0023372 0.26112 0.16845 -0.00021859 1.2056e-05 -0.0010967 0.00099884
0.00016267 0.0012486 -0.00049185 0.0005695
0.00011354 0.0024194 -0.00016334 1.1833e-05 0.16148 -0.24836 0.0013843 1.1694e-05
0.00010616 0.0023053 -0.0013545 0.00049728
-0.0012193 -0.0028387 -0.0010987 0.0010094 0.0013995 2.4834e-05 0.20247 -0.095234
0.0015482 0.0078103 -0.0016491 -0.0013876
-0.0010462 0.0010487 0.00016618 0.0012531 7.8704e-05 0.0023043 0.0015737 0.0077847
0.25108 0.046001 0.0048101 0.0034044
0.00013978 -0.00010364 -0.00046337 0.00056218 -0.0013438 0.00050275 -0.0015654 -0.0014409
0.0048135 0.003388 0.28551 0.085009
1880000000 0.2159 -0.15398 0.001774 0.00036118 -0.00029972 0.0019403 -0.0028531 -0.0018849
-0.00012795 0.0017558 0.00016729 -0.00056225
0.0017579 0.00035868 0.26492 0.12147 -0.0022705 0.0015947 -4.6877e-06 0.001653
0.0006438 0.00098594 0.00020563 0.00089182
-0.00028351 0.0019243 -0.002283 0.0016275 0.10823 -0.25845 0.0012979 -0.0010031
0.0015495 0.0016498 -0.00073987 0.0012972
-0.0028683 -0.0018728 -1.1993e-05 0.0016439 0.0012553 -0.0010255 0.16357 -0.1355
0.0025861 0.0054218 -0.0021661 0.00032242
-8.0323e-05 0.0017457 0.00064873 0.00099251 0.0016233 0.0016516 0.0025719 0.0054499
0.25248 0.012869 0.0046915 0.0013647
0.00020276 -0.00061685 0.00020895 0.0008598 -0.00068316 0.0012394 -0.002188 0.00029811
0.0047158 0.0013378 0.28354 0.050691
1940000000 0.17571 -0.17908 -0.00026859 -0.0011314 0.0015856 0.0019813 -0.0034996 0.00073052
0.0016011 0.0010752 -0.00064827 -0.00071835
-0.00025065 -0.0011277 0.26453 0.090017 -0.0010667 0.0040155 0.00098762 0.0011181
0.0016395 0.00029893 0.00088818 0.00021876
0.001606 0.0019542 -0.0010594 0.0040035 0.061465 -0.25079 0.00013508 -0.0016876
0.0022431 0.00013583 0.0004878 0.0015763
-0.0034739 0.00074603 0.00099727 0.0011185 0.00012482 -0.0016753 0.11219 -0.1662
0.0019317 0.0036589 -0.0013468 0.0012363
0.0015831 0.0010731 0.0016683 0.00031049 0.0022658 0.00017405 0.0019786 0.0036702
0.25265 -0.026017 0.0034819 -0.0017243
-0.00058651 -0.0007902 0.00094239 0.00025087 0.00047613 0.0016116 -0.0013476 0.001266
0.0035064 -0.0017528 0.27112 0.01414
2000000000 0.1292 -0.19284 -0.0039005 0.000965 0.0024711 0.0013733 -0.0022488 0.0032145
0.0013275 -4.9894e-05 -0.0005484 0.00035073
-0.0039105 0.00097717 0.25019 0.054486 -0.00080026 0.0057448 0.0014823 0.0001896
0.0011318 -0.0012611 0.00040222 1.2757e-05
0.002467 0.0013725 -0.00074189 0.0056591 0.018385 -0.23583 -0.00094823 -0.00087408
0.0016635 -0.001062 0.0015915 0.0010106
-0.0022843 0.0032595 0.0014572 0.00016551 -0.00093442 -0.00084035 0.059356 -0.17756
0.00024241 0.0026963 -8.8288e-05 0.001919
0.0013249 -0.00010604 0.0011244 -0.0013017 0.0016416 -0.0011151 0.00023527 0.0026424
