!Keysight Technologies,M9804A,MY58100912,A.14.10.03
!Date: Thursday, April 27, 2023 10:28:33
!Correction: S11(C  6-Port  ) 
!S12(C  6-Port  ) 
!S13(C  6-Port  ) 
!S14(C  6-Port  ) 
!S15(C  6-Port  ) 
!S16(C  6-Port  ) 
!S21(C  6-Port  ) 
!S22(C  6-Port  ) 
!S23(C  6-Port  ) 
!S24(C  6-Port  ) 
!S25(C  6-Port  ) 
!S26(C  6-Port  ) 
!S31(C  6-Port  ) 
!S32(C  6-Port  ) 
!S33(C  6-Port  ) 
!S34(C  6-Port  ) 
!S35(C  6-Port  ) 
!S36(C  6-Port  ) 
!S41(C  6-Port  ) 
!S42(C  6-Port  ) 
!S43(C  6-Port  ) 
!S44(C  6-Port  ) 
!S45(C  6-Port  ) 
!S46(C  6-Port  ) 
!S51(C  6-Port  ) 
!S52(C  6-Port  ) 
!S53(C  6-Port  ) 
!S54(C  6-Port  ) 
!S55(C  6-Port  ) 
!S56(C  6-Port  ) 
!S61(C  6-Port  ) 
!S62(C  6-Port  ) 
!S63(C  6-Port  ) 
!S64(C  6-Port  ) 
!S65(C  6-Port  ) 
!S66(C  6-Port  ) 
!S6P File: Measurement: :
# Hz S  RI   R 50
500000000 -0.33831 -0.021281 -0.010609 -0.0043591 -0.0075452 0.011915 -0.0029481 0.01067
0.012585 0.0034192 -0.0037931 0.0057329
-0.010572 -0.0043884 -0.41936 -0.039195 0.0067325 -0.011916 0.0018087 0.012093
0.0071388 0.0021035 0.0022361 0.013043
-0.0076629 0.011979 0.0066682 -0.011878 -0.26271 0.22004 0.0070806 0.0034689
-0.0007493 0.0084113 0.002757 0.011513
-0.0029744 0.010654 0.002108 0.011895 0.0071165 0.0034582 -0.33141 0.060418
-0.020366 -0.0071 0.014729 0.025308
0.012405 0.0035822 0.00698 0.0021921 -0.00059982 0.0085448 -0.020421 -0.006934
-0.23457 -0.16841 -0.026024 0.0035492
-0.0035337 0.0055274 0.0023259 0.013012 0.0025302 0.011469 0.014897 0.025533
-0.026131 0.0036932 -0.28271 -0.086181
560000000 -0.31439 0.13614 -0.02628 -0.059501 0.00063838 0.011386 0.005782 0.010249
0.010541 0.004156 0.0118 0.0075307
-0.02613 -0.059512 -0.3743 0.11735 -0.042486 -0.034945 0.013147 0.0033201
-0.012933 -0.0034917 0.0045725 -0.001598
0.00063576 0.011253 -0.042612 -0.034903 -0.18074 0.26577 6.4719e-05 -0.0047865
0.018611 0.0047229 0.0065756 -0.0066479
0.0057243 0.010497 0.013217 0.0032104 0.00013146 -0.0046387 -0.30518 0.1468
0.0014113 -0.02476 0.0044483 -0.01946
0.010274 0.0037188 -0.012425 -0.0037834 0.018824 0.0043715 0.0016664 -0.024882
-0.28655 0.0015031 0.0035111 -0.045796
0.01162 0.0078816 0.0044897 -0.0013138 0.0063242 -0.006548 0.0044523 -0.01903
0.0036716 -0.045897 -0.3283 0.051718
620000000 -0.27053 0.11992 -0.022992 0.0073008 0.0034297 0.0080296 0.0071792 -0.0061583
0.010335 -0.0012368 0.00064341 -0.0028672
-0.022963 0.0073131 -0.40113 0.071636 -0.01946 0.00049822 -0.0011684 -0.0025554
0.010151 -0.0063853 0.001418 -0.0029197
0.0036005 0.0079882 -0.019441 0.00056019 -0.1503 0.27533 -0.00097009 -0.0053358
-0.0042057 -0.0029798 0.0081941 -0.0036367
0.0071214 -0.0059193 -0.0011355 -0.0023665 -0.0010434 -0.0054663 -0.26352 0.15769
-0.040615 -0.017823 0.011501 0.022975
0.010801 -0.0014907 0.010161 -0.0066165 -0.0040399 -0.0028214 -0.040664 -0.017666
-0.20949 -0.032286 -0.039549 0.015962
0.00028011 -0.002719 0.0014389 -0.0026989 0.007937 -0.0037495 0.010828 0.02309
-0.039221 0.015669 -0.25584 0.0225
680000000 -0.22778 0.20297 -0.027724 -0.012253 0.0053791 0.0051914 0.00022715 -0.0067471
-0.0030543 -0.0105 0.0046228 -0.0057847
-0.02767 -0.012213 -0.38476 0.16603 -0.032332 0.00061172 -0.0016895 -0.00027308
-0.0026333 -0.0085625 -0.0010268 -0.0016286
0.0053956 0.005201 -0.032312 0.00077853 -0.098773 0.29333 -0.0012408 -0.0002254
-0.0016082 0.00041487 -0.0030517 -0.0081887
0.00031836 -0.0066849 -0.0017382 1.9472e-05 -0.0012557 -2.1199e-05 -0.21855 0.20603
-0.025455 -0.004753 -0.0095119 -0.0076882
-0.0031112 -0.010752 -0.0026822 -0.0088784 -0.0015319 0.00036362 -0.025365 -0.0049092
-0.25159 0.063107 -0.0068961 -0.0079202
0.0047154 -0.0060315 -0.0013046 -0.0018689 -0.0030941 -0.008229 -0.0094895 -0.007591
-0.0068361 -0.0077228 -0.25377 0.12132
740000000 -0.18533 0.19773 -0.036988 0.025853 0.012296 -0.0053849 -0.00028727 -0.0046861
-0.0045503 -0.0038233 -0.0062358 0.0030858
-0.036953 0.025906 -0.33351 0.18543 -0.033229 0.035126 -0.0013591 -0.0062961
-0.011863 0.0075977 -0.0025956 -0.0049874
0.012341 -0.0054096 -0.033273 0.035122 -0.065468 0.29281 -0.0016234 0.0028356
-0.0037344 -0.0043592 -0.0017412 0.00077658
-0.00040164 -0.0046295 -0.0012198 -0.0061774 -0.001474 0.0027529 -0.19939 0.21469
-0.04384 -0.0030245 0.02307 0.01263
-0.004748 -0.0041052 -0.012231 0.0077495 -0.0037237 -0.0043111 -0.043561 -0.002758
-0.15835 0.086433 -0.04078 0.0039324
-0.0060596 0.0030419 -0.0028482 -0.0051521 -0.001525 0.00074631 0.022936 0.012542
-0.040547 0.0036557 -0.24174 0.12954
800000000 -0.1509 0.2351 -0.021967 0.017082 0.0046258 -0.010352 -0.005112 -0.0012175
-0.004156 0.0032502 0.0033006 0.00070471
-0.021962 0.017134 -0.33402 0.2537 -0.006946 0.033666 -0.0025432 0.002344
-0.00060671 0.0033404 0.00078816 0.005195
0.0045544 -0.010276 -0.0069298 0.033693 -0.022614 0.31515 0.00083635 0.0019418
0.00023549 0.0035945 -0.0018116 0.001904
-0.0052681 -0.0012495 -0.0025836 0.0023254 0.00084198 0.0018545 -0.16972 0.24121
-0.027072 0.016639 0.01187 -0.0099089
-0.0040826 0.0032643 -0.00054131 0.0033543 0.0003001 0.0036876 -0.02705 0.016789
-0.19663 0.11302 -0.015571 0.018905
0.003147 0.00086815 0.00068842 0.0051639 -0.0016757 0.0018462 0.01182 -0.0097262
-0.015349 0.018665 -0.2334 0.17672
860000000 -0.11646 0.25546 -0.016115 0.030948 -0.0039482 -0.0093696 -0.0017839 0.0013416
0.0050461 0.0046905 -0.0026733 -0.0028488
-0.016127 0.030948 -0.28635 0.29532 0.0091765 0.033301 0.00028166 0.0023768
0.0043075 0.00021516 0.0034789 0.00054899
-0.0039291 -0.0093822 0.0092415 0.033279 0.025598 0.32207 -0.00036098 -0.00011651
0.0025258 -0.0013763 0.0018602 0.0036757
-0.0016797 0.0010632 0.00039843 0.00232 -0.00023836 -0.00014327 -0.13283 0.2519
-0.015271 0.020504 -0.0049653 -0.0087754
0.005222 0.0046291 0.0044069 0.00013023 0.0026103 -0.0013428 -0.015322 0.020803
-0.1421 0.15941 -0.021983 0.016366
-0.0028331 -0.0027787 0.0033326 0.00038307 0.0017963 0.0037476 -0.0051817 -0.0089673
-0.022013 0.016024 -0.18011 0.21444
920000000 -0.089644 0.27709 0.0061447 0.036934 -0.0092867 -0.0038066 -0.0011633 0.0018933
0.0013453 0.0020663 0.0027629 -0.001793
0.006139 0.036907 -0.25616 0.31583 0.028218 0.020305 0.0017287 0.00087159
0.0068921 -0.00085133 0.0032705 -0.0032163
-0.0093133 -0.0037836 0.028268 0.020256 0.073251 0.32197 0.0019383 -0.00022535
0.0015019 -0.00070983 0.00088823 -0.0011902
-0.001275 0.0018853 0.0017695 0.00076968 0.0019616 -0.0002279 -0.10663 0.2674
-0.0074092 0.031 0.0021985 -0.006441
0.0014445 0.0020118 0.0068731 -0.00085405 0.001486 -0.00069115 -0.0074526 0.030949
-0.12972 0.16501 -0.00079741 0.025152
0.0028924 -0.0018761 0.0033748 -0.0032162 0.00089936 -0.0011274 0.0021195 -0.0065931
-0.00071161 0.025296 -0.18274 0.23126
980000000 -0.042512 0.29506 0.018664 0.028636 -0.0083792 0.0048749 0.0023256 0.0029959
0.003842 -0.0019919 -0.0032944 -0.0021053
0.018596 0.028601 -0.20395 0.3483 0.03248 0.0032877 0.0020697 -0.00033838
0.0013299 -0.0063077 -0.00064249 -0.0019222
-0.0083841 0.0048683 0.032474 0.0032465 0.11982 0.31382 0.0004356 -0.0013766
0.00013509 -0.0024131 0.0013284 -8.6817e-05
0.0023171 0.0029952 0.0020495 -0.00038366 0.00044671 -0.0013604 -0.067604 0.27719
0.010979 0.028804 -0.0087695 -0.0062455
0.0038249 -0.0020107 0.0013444 -0.0063285 0.0001389 -0.0023919 0.011136 0.028838
-0.097842 0.18871 0.0067625 0.018275
-0.0032743 -0.0021312 -0.00057308 -0.0019973 0.0012896 -0.00011585 -0.0088286 -0.006232
0.006606 0.018212 -0.1389 0.26986
1040000000 8.117e-05 0.30227 0.032986 0.016008 -0.00097892 0.0066548 0.0022965 0.0005639
-0.00021955 -0.0031471 -0.00092904 -0.0014044
0.032941 0.01604 -0.16804 0.36136 0.0277 -0.015647 0.0013778 -0.0018235
-0.002264 -0.0026983 -0.0016638 -0.0027966
-0.00095484 0.0066463 0.027669 -0.01571 0.16635 0.29923 -0.00065 -0.0014762
-0.0016586 -0.0009369 -0.00055567 -0.0011929
0.0022674 0.00053515 0.0013187 -0.0018709 -0.00067475 -0.0014819 -0.038841 0.28636
0.021121 0.01564 -0.0024241 0.0010282
-0.00027036 -0.0032446 -0.0023016 -0.0026717 -0.0017219 -0.00093876 0.021101 0.015636
-0.066503 0.1955 0.013613 0.016224
-0.00093282 -0.0013607 -0.0016816 -0.002763 -0.00054637 -0.0011302 -0.0023911 0.00099372
0.01383 0.016206 -0.11319 0.28907
1100000000 0.046165 0.30871 0.034638 -0.0056329 0.0028557 0.0035214 0.0022515 -0.00095408
-0.0019092 -0.0028611 -0.0035341 0.00047322
0.034598 -0.0055979 -0.1242 0.3777 0.013537 -0.027565 -0.00010969 -0.0016966
-0.0032509 -0.0004436 -0.003341 -0.00030043
0.0028867 0.0035064 0.013471 -0.027598 0.21322 0.277 -0.0018439 0.00019185
-0.0017207 0.00053451 -0.00096103 -0.00028051
0.0022436 -0.00094289 -0.00012559 -0.0016846 -0.0018338 0.00021342 0.0027634 0.28912
0.025221 0.0022975 -0.0023872 6.9062e-05
-0.0019338 -0.0028351 -0.0032242 -0.00038422 -0.0017217 0.00057582 0.025318 0.0022644
-0.046491 0.20723 0.018657 0.0061289
-0.0035224 0.00048706 -0.0032765 -0.0003003 -0.0010124 -0.00025769 -0.0023567 0.00013947
0.018738 0.0060962 -0.066397 0.31382
1160000000 0.096836 0.30221 0.022203 -0.021391 0.0023436 -0.00053223 -4.8603e-05 -0.0021685
-0.003849 -0.00051596 -0.00075987 0.0036227
0.022181 -0.02133 -0.079871 0.38133 -0.0049284 -0.027936 -0.001634 -0.0013921
-0.0024328 0.0024866 -0.00145 0.0016726
0.0023602 -0.0005334 -0.0050134 -0.027926 0.25546 0.24453 -0.00074189 0.001776
-0.00043479 0.0018683 -0.00073236 0.00017417
-9.1536e-05 -0.0021329 -0.0016457 -0.001429 -0.00076934 0.0017749 0.042062 0.284
0.020414 -0.013058 -0.0032398 0.0043391
-0.0038685 -0.00054752 -0.0023968 0.0025088 -0.00043781 0.0019298 0.020424 -0.013068
-0.013775 0.21382 0.017063 -0.0016813
-0.0008466 0.0036549 -0.0014156 0.0015629 -0.00075874 0.00017189 -0.0031097 0.0044193
0.017007 -0.0015854 -0.01938 0.31441
1220000000 0.1417 0.28956 0.0086607 -0.029461 -0.0015015 -0.00053544 2.3497e-05 -0.00075827
-0.002379 0.0023788 0.001301 0.0019153
0.0086704 -0.029427 -0.035419 0.39209 -0.017102 -0.019681 -0.0023552 0.00050484
1.4871e-05 0.0028937 -0.00061897 0.0018797
-0.0014869 -0.00052851 -0.017188 -0.019632 0.29406 0.20439 0.00078397 0.0017333
0.00065736 0.0012699 0.00025468 0.00055647
2.7087e-05 -0.00075403 -0.0023234 0.0004907 0.00083287 0.0017311 0.082201 0.27323
0.0090198 -0.019089 0.0013354 0.0015471
-0.0023963 0.0023748 3.6318e-05 0.0029162 0.00067851 0.0012758 0.0090275 -0.019091
0.010602 0.221 0.011594 -0.013444
0.0012907 0.0018783 -0.00060766 0.0019036 0.0002543 0.00054673 0.0013302 0.0015318
0.01154 -0.013389 0.013859 0.32698
1280000000 0.19051 0.26568 -0.0089536 -0.027075 -0.0015138 0.0027204 -0.00093045 -0.0019234
-0.00064386 0.002878 0.0023179 0.00087539
-0.0089201 -0.027062 0.010256 0.38204 -0.023082 -0.0073955 -0.00096585 0.0013595
0.0017365 0.0016927 0.00066495 0.0018401
-0.0014978 0.0027552 -0.023127 -0.0073151 0.32343 0.15916 0.0015233 2.6266e-05
0.0010432 0.00022791 0.00015949 0.00017831
-0.00095684 -0.0019166 -0.00094443 0.0013724 0.0015029 4.8883e-05 0.11819 0.25426
-0.00086567 -0.020331 -0.00052679 0.00033545
-0.00065548 0.0028706 0.0017364 0.0016941 0.0010591 0.000222 -0.00084987 -0.020317
0.046885 0.22221 0.0012502 -0.015023
0.0023012 0.00081158 0.00074851 0.0018148 0.0002131 0.00014077 -0.00053613 0.00036787
0.0012034 -0.015025 0.059473 0.32452
1340000000 0.22684 0.23091 -0.017888 -0.017273 0.0013135 0.0041683 -0.0016927 -0.00087037
0.001469 0.0024859 0.0014303 -0.0014618
-0.017857 -0.017271 0.049397 0.37283 -0.020532 0.0047471 -0.00011516 0.0019544
0.0018986 0.0006775 0.0012838 0.0005882
0.0013101 0.0041633 -0.020519 0.0048401 0.34435 0.1111 0.001284 -0.0010076
0.00065385 -0.00053936 0.00011722 0.00022535
-0.0016755 -0.00086871 -0.000111 0.0019569 0.001286 -0.0010047 0.14909 0.23215
-0.010525 -0.016696 0.00038533 0.0012586
0.001449 0.0024891 0.0018757 0.00063887 0.00063433 -0.00052345 -0.010576 -0.016693
0.076278 0.2158 -0.0051166 -0.012739
0.0014308 -0.0014736 0.0013033 0.00054523 0.00016018 0.00017191 0.00044591 0.0012672
-0.0051797 -0.012749 0.098372 0.31727
1400000000 0.25895 0.19122 -0.022657 -0.0060795 0.0051208 0.0026178 -0.0019975 0.00056651
0.0023041 0.00083274 8.0795e-05 -0.0013065
-0.022636 -0.006089 0.086214 0.35903 -0.013766 0.012242 0.001338 0.0013185
0.0012422 -0.00072629 0.0010402 4.6128e-05
0.0051324 0.0026227 -0.013725 0.012308 0.35702 0.057141 6.4853e-05 -0.0018668
9.6136e-05 -0.00043774 0.00021981 0.00018339
-0.0020119 0.00058043 0.001347 0.0013163 5.6635e-05 -0.0018687 0.17721 0.20171
-0.016205 -0.0094302 -0.00047702 0.00060271
0.002323 0.00083068 0.0012271 -0.00073075 7.1958e-05 -0.00045274 -0.016233 -0.0094092
0.10847 0.20892 -0.011016 -0.007567
8.5164e-05 -0.0013743 0.0010706 6.3122e-05 0.00019749 0.00019592 -0.00042925 0.00064513
-0.010983 -0.0076068 0.14162 0.30301
1460000000 0.28015 0.14667 -0.019276 0.005329 0.0053143 -0.0021695 -0.0016539 0.0015485
0.0018898 -0.00057207 -0.0002899 -0.00084807
-0.01927 0.0053013 0.11974 0.33665 -0.0055612 0.014646 0.0017678 0.00017092
0.00082348 -0.0012868 0.0010824 -0.00058432
0.005304 -0.0021749 -0.0055163 0.014676 0.36169 0.0024258 -0.0014449 -0.0013939
0.00014617 -0.00016858 0.00056277 -0.00031793
-0.0016234 0.0015633 0.0017925 0.00017187 -0.0014313 -0.0014171 0.20103 0.17154
-0.016966 -0.0021084 -0.00017749 0.0021667
0.0018911 -0.00060875 0.0008282 -0.0013173 0.00015759 -0.00019221 -0.016979 -0.0020918
0.13659 0.19279 -0.011848 -0.0017071
-0.00025043 -0.00081873 0.0011313 -0.00062865 0.00056523 -0.00035482 -0.00021307 0.0021863
-0.011909 -0.0017644 0.17323 0.28014
1520000000 0.29125 0.10404 -0.013522 0.010285 0.0027841 -0.0041182 6.1859e-05 0.0025458
0.0018997 -0.0016122 -0.0011203 -9.579e-05
-0.013529 0.010265 0.15294 0.3215 0.0016095 0.012431 0.001666 -0.00090541
-3.4611e-05 -0.0011099 0.00020729 -0.00089986
0.0027658 -0.0040993 0.001662 0.012423 0.3544 -0.053804 -0.0014553 -0.00024789
0.00044422 -0.00091806 3.0126e-05 -0.00014703
4.9016e-05 0.0025632 0.0016624 -0.00092439 -0.0014631 -0.00026994 0.22208 0.1337
-0.015751 0.0038865 0.0019487 0.00182
0.001875 -0.0015932 -2.4121e-05 -0.0011202 0.00044684 -0.00093566 -0.015756 0.0039246
0.16345 0.17721 -0.011399 0.0025551
-0.0010835 -9.7433e-05 0.00021399 -0.0009336 8.8046e-05 -0.00017127 0.0019538 0.0017796
-0.011417 0.0025565 0.20514 0.25749
1580000000 0.29922 0.057656 -0.0072179 0.012881 -0.0011887 -0.004505 0.0015315 0.0019344
-3.0727e-05 -0.0021051 -0.00031437 0.00034336
-0.0072275 0.012859 0.17967 0.29612 0.0048846 0.0077969 0.00041931 -0.0017058
-0.00057647 -0.0010244 -0.00016095 -0.00075088
-0.0011897 -0.0045055 0.0049176 0.0077833 0.33359 -0.11162 -0.0016468 0.00095866
-0.00039426 -0.0011215 0.00020442 -0.00060332
0.0015377 0.0019257 0.00039694 -0.0017171 -0.0016156 0.00093728 0.23372 0.094637
-0.01196 0.0088678 0.0024683 0.00032176
-3.8019e-05 -0.002128 -0.00059666 -0.0010302 -0.00039045 -0.0011356 -0.011968 0.0089451
0.18603 0.15736 -0.0088821 0.0077928
-0.0003401 0.00029976 -0.0001537 -0.00077355 0.0001939 -0.00054725 0.0024553 0.00033888
-0.0088575 0.0078112 0.23524 0.22898
1640000000 0.29991 0.016024 -0.0010068 0.01154 -0.0027858 -0.002301 0.0027905 0.00097941
-0.00074215 -0.0014469 -0.00027937 0.00060109
-0.0010116 0.011529 0.20875 0.27088 0.0055012 0.0034893 -0.0008463 -0.0016386
-0.0010639 -0.00027603 -0.00049999 -0.00054874
-0.0027771 -0.0023041 0.005521 0.003473 0.30417 -0.1601 -0.00057514 0.001718
-0.001226 -0.00081107 -0.00010647 -0.00024016
0.0027677 0.00097774 -0.00085037 -0.0016507 -0.00056059 0.0016964 0.24413 0.047584
-0.0071179 0.010351 0.0025522 -0.0012141
-0.00075181 -0.0014745 -0.0010936 -0.00026035 -0.0012201 -0.00082679 -0.0070739 0.010385
0.20707 0.13218 -0.0039348 0.0094493
-0.00031028 0.00060806 -0.00052776 -0.00053098 -0.00015033 -0.00027509 0.0025659 -0.0012273
-0.0039972 0.0094161 0.25902 0.19654
1700000000 0.29141 -0.029284 0.0020721 0.0087534 -0.0032697 0.0002967 0.0028801 -0.0014221
-0.0020038 -0.00066878 0.00067211 0.00052323
0.0020604 0.0087479 0.22656 0.23901 0.0036601 0.00077911 -0.0014869 -0.00048077
-0.00071895 0.00026108 -0.00083523 -0.00037959
-0.0032243 0.00031345 0.0036486 0.00077523 0.26064 -0.19972 0.0007768 0.0014939
-0.001861 3.0375e-05 -0.00056456 -0.00065367
0.0028722 -0.001439 -0.0014863 -0.00047898 0.00078018 0.001492 0.24046 -0.00052739
-0.0038028 0.010663 0.0012561 -0.0023507
-0.0020061 -0.00071474 -0.00071531 0.0002561 -0.0018358 2.9792e-05 -0.0037963 0.010666
0.22287 0.111 0.00031885 0.0094489
0.00065827 0.00049715 -0.00083383 -0.00039494 -0.00060365 -0.00063956 0.00125 -0.0022921
0.00029156 0.0094815 0.27396 0.16125
1760000000 0.27786 -0.077657 0.0040094 0.0056004 -0.002028 0.0008511 0.00096021 -0.0034951
-0.0014844 0.00070841 0.0005878 -0.00042592
0.0039982 0.005598 0.25174 0.19854 0.0016495 -0.0010411 -0.0012139 0.00029863
-0.0008744 0.0009121 -0.0005756 0.00053873
-0.0020351 0.00084773 0.0016294 -0.0010549 0.21161 -0.23295 0.0014374 0.00075705
-0.0010598 0.0016427 -0.0015033 -0.00022295
0.00098058 -0.0034888 -0.0011935 0.00030221 0.0014088 0.0007462 0.2311 -0.049897
-0.00024931 0.0097876 -0.0003071 -0.0023361
-0.0015026 0.00069691 -0.00088974 0.00091301 -0.0010585 0.0016344 -0.00024104 0.0098268
0.23543 0.075381 0.004103 0.0070725
0.00057228 -0.00043886 -0.00058321 0.00054185 -0.0014985 -0.00021651 -0.00029975 -0.00239
0.0041293 0.0069936 0.28471 0.12234
1820000000 0.25209 -0.11405 0.003984 0.002316 7.5813e-06 0.0023648 -0.0012174 -0.0028863
-0.0009813 0.0010426 6.2067e-05 -0.00016323
0.003982 0.0023136 0.26114 0.16847 -0.00018099 -3.3267e-05 -0.0011523 0.0011026
0.00012352 0.0012668 -0.00043411 0.00050757
-6.7966e-06 0.0023683 -0.00016587 -5.5402e-05 0.16147 -0.24836 0.0014784 8.1012e-05
0.0001274 0.0023162 -0.0013551 0.00039959
-0.00122 -0.0029022 -0.0011785 0.0010887 0.0014163 7.8895e-05 0.20247 -0.095103
0.0017393 0.007821 -0.0016333 -0.0016179
-0.0009787 0.0010287 0.00013087 0.0012676 0.00012536 0.0023509 0.0017713 0.0078765
0.25098 0.046238 0.0051416 0.0033707
7.445e-05 -0.00015122 -0.00044327 0.00049482 -0.0013763 0.00032086 -0.0016721 -0.0015735
0.0050843 0.003331 0.28527 0.08543
1880000000 0.21591 -0.15375 0.0018887 0.00038164 -0.00028015 0.0019173 -0.0029361 -0.0019015
-8.9004e-05 0.0018552 0.00027896 -0.00060005
0.0018772 0.00037399 0.26496 0.12152 -0.0022462 0.0016223 -5.4063e-05 0.0016288
0.00063693 0.001018 0.00025968 0.00092675
-0.00026607 0.0018997 -0.0022595 0.0016249 0.10823 -0.25836 0.0012739 -0.0010523
0.0016703 0.0016146 -0.00072763 0.0014596
-0.0029278 -0.0018818 -3.6205e-05 0.0016676 0.0012526 -0.0010587 0.16367 -0.13541
0.0028785 0.0053907 -0.0025128 0.00023811
-0.00010718 0.0018651 0.00061009 0.0010012 0.0016675 0.0015733 0.002837 0.005422
0.25277 0.013128 0.004548 0.0011277
0.00029283 -0.00063677 0.00022977 0.00089544 -0.00068094 0.0014343 -0.0024889 0.00029332
0.0045463 0.0011239 0.28385 0.051306
1940000000 0.17594 -0.17872 -0.00020628 -0.0011 0.0014995 0.0018467 -0.0035764 0.00063351
0.0015828 0.0010613 -0.00058807 -0.00077558
-0.00020874 -0.0010788 0.26452 0.090077 -0.0010905 0.0039661 0.00095116 0.0011011
0.0015826 0.00035397 0.00089487 0.00033223
0.0015038 0.0018854 -0.0010732 0.0039695 0.061651 -0.25083 0.00027958 -0.0016239
0.0023154 0.00027327 0.00050079 0.0015024
-0.0035002 0.00062769 0.00098026 0.0011309 0.00027329 -0.0016085 0.11202 -0.16623
0.002018 0.0033452 -0.001183 0.0017818
0.0015981 0.0010664 0.0015852 0.00034339 0.0023158 0.00026264 0.0019721 0.0034364
0.25277 -0.025942 0.0036563 -0.0015976
-0.00062204 -0.00063708 0.00089451 0.00033426 0.00054056 0.0015464 -0.0011522 0.0017639
0.0036803 -0.0015552 0.27095 0.01421
2000000000 0.12939 -0.19283 -0.0038259 0.00098108 0.0025593 0.0013818 -0.0022008 0.0033529
0.0012011 -0.00013179 -0.00062105 0.00039097
-0.0038356 0.00095132 0.25013 0.054517 -0.00083616 0.0056582 0.00147 0.00025227
0.0010856 -0.0012998 0.00036531 -7.722e-06
0.0025431 0.0013958 -0.00079984 0.0056647 0.018292 -0.23592 -0.0011187 -0.00080772
0.0016463 -0.0012493 0.0016268 0.00099117
-0.0022077 0.0033675 0.0014588 0.00024653 -0.0010815 -0.00078606 0.059669 -0.1775
0.00038815 0.0026714 -5.5714e-05 0.0016814
0.0011882 -0.00010213 0.0010776 -0.0012822 0.0016783 -0.0012068 0.00049044 0.0027204
0.24584 -0.059959 0.00064781 -0.0031791
