!Keysight Technologies,M9804A,MY58100912,A.14.10.03
!Date: Thursday, April 27, 2023 10:28:33
!Correction: S11(C  6-Port  ) 
!S12(C  6-Port  ) 
!S13(C  6-Port  ) 
!S14(C  6-Port  ) 
!S15(C  6-Port  ) 
!S16(C  6-Port  ) 
!S21(C  6-Port  ) 
!S22(C  6-Port  ) 
!S23(C  6-Port  ) 
!S24(C  6-Port  ) 
!S25(C  6-Port  ) 
!S26(C  6-Port  ) 
!S31(C  6-Port  ) 
!S32(C  6-Port  ) 
!S33(C  6-Port  ) 
!S34(C  6-Port  ) 
!S35(C  6-Port  ) 
!S36(C  6-Port  ) 
!S41(C  6-Port  ) 
!S42(C  6-Port  ) 
!S43(C  6-Port  ) 
!S44(C  6-Port  ) 
!S45(C  6-Port  ) 
!S46(C  6-Port  ) 
!S51(C  6-Port  ) 
!S52(C  6-Port  ) 
!S53(C  6-Port  ) 
!S54(C  6-Port  ) 
!S55(C  6-Port  ) 
!S56(C  6-Port  ) 
!S61(C  6-Port  ) 
!S62(C  6-Port  ) 
!S63(C  6-Port  ) 
!S64(C  6-Port  ) 
!S65(C  6-Port  ) 
!S66(C  6-Port  ) 
!S6P File: Measurement: :
# Hz S  RI   R 50
500000000 -0.34021 -0.020155 -0.01182 -0.0037663 -0.0083406 0.013012 -0.0034242 0.012315
0.011012 0.0045525 -0.0029793 0.0086632
-0.01181 -0.0037583 -0.41998 -0.038805 0.0057657 -0.011118 0.0018845 0.012551
0.0071456 0.0019376 0.002523 0.01362
-0.0083063 0.013028 0.0057636 -0.011117 -0.26439 0.22182 0.0071161 0.0039826
-0.001339 0.0079661 0.0021929 0.011757
-0.0034252 0.012318 0.0019021 0.012568 0.00712 0.0039878 -0.33165 0.05951
-0.020658 -0.0063128 0.015331 0.024023
0.011003 0.0045523 0.0071467 0.0019173 -0.0013125 0.0079515 -0.020654 -0.006318
-0.23624 -0.16892 -0.027009 0.0043766
-0.002965 0.0086737 0.0025456 0.013645 0.0022052 0.011762 0.015344 0.024013
-0.027022 0.0044087 -0.28286 -0.086566
560000000 -0.31408 0.13531 -0.026916 -0.059988 0.00062108 0.012025 0.0050725 0.010025
0.0087342 0.0051473 0.010341 0.0073458
-0.026851 -0.059925 -0.37575 0.11765 -0.04268 -0.034269 0.013169 0.0040907
-0.012425 -0.0041225 0.0027974 -0.00040144
0.00067057 0.012008 -0.042754 -0.034241 -0.18157 0.26728 9.0664e-06 -0.004843
0.019373 0.0046803 0.0065603 -0.0063814
0.0051368 0.0099995 0.013172 0.0040773 2.5648e-05 -0.0048595 -0.30601 0.1479
0.00031932 -0.024106 0.0028151 -0.018689
0.0088044 0.0051855 -0.012373 -0.0040885 0.01935 0.0046432 0.00027271 -0.024112
-0.28906 0.005628 0.0029915 -0.047428
0.010372 0.0073087 0.0028122 -0.0004153 0.0065661 -0.0063554 0.0028112 -0.018684
0.0030035 -0.047466 -0.33023 0.053548
620000000 -0.27191 0.12163 -0.023957 0.0078069 0.0041555 0.0083019 0.0076202 -0.0046624
0.011159 -0.0015421 0.00077143 -0.0019489
-0.023945 0.0077999 -0.40188 0.071917 -0.019465 0.0007511 -0.00069165 -0.002292
0.010026 -0.0063374 0.0017889 -0.0027
0.00417 0.0082584 -0.019478 0.00076435 -0.15007 0.27713 -0.0010038 -0.0050826
-0.0032673 -0.0027123 0.0084111 -0.0037317
0.0076345 -0.0046689 -0.00070076 -0.0022992 -0.0010178 -0.0050929 -0.26302 0.15915
-0.040597 -0.016828 0.012026 0.024157
0.011204 -0.001614 0.010067 -0.0063763 -0.0032828 -0.0026627 -0.040664 -0.016851
-0.21201 -0.033192 -0.040156 0.016163
0.00079891 -0.0019547 0.00177 -0.0027153 0.0084326 -0.0037446 0.012035 0.02415
-0.040175 0.016132 -0.25741 0.025172
680000000 -0.22899 0.20466 -0.027871 -0.011489 0.0057372 0.0047039 0.0010592 -0.0072623
-0.0025553 -0.01089 0.0045037 -0.0068628
-0.027855 -0.011507 -0.38473 0.16672 -0.032196 0.00050996 -0.001344 -0.00085475
-0.0020583 -0.0090806 -0.001204 -0.0022915
0.0057237 0.0047161 -0.032221 0.0005681 -0.098119 0.29439 -0.00097228 -0.00064808
-0.0012416 -0.00015592 -0.0033537 -0.0088225
0.0010336 -0.0072609 -0.0013574 -0.00086937 -0.00097848 -0.00064831 -0.21683 0.20639
-0.02644 -0.0043013 -0.00899 -0.0079928
-0.0025587 -0.010934 -0.0020666 -0.0091235 -0.0012306 -0.00013929 -0.026469 -0.004317
-0.25257 0.065693 -0.0072531 -0.0066781
0.0044693 -0.0069085 -0.0011983 -0.0023017 -0.0033471 -0.0088388 -0.0090215 -0.0079938
-0.0072447 -0.0066847 -0.25568 0.12129
740000000 -0.18434 0.19967 -0.036252 0.026901 0.012389 -0.0058054 -0.00067008 -0.0042207
-0.0046833 -0.0029056 -0.0059394 0.0029268
-0.036304 0.026835 -0.33268 0.18585 -0.032744 0.035524 -0.0011839 -0.0065264
-0.011824 0.0076807 -0.0020447 -0.005129
0.012368 -0.0058238 -0.032662 0.0356 -0.064659 0.29311 -0.0018482 0.0031281
-0.0030275 -0.0050236 -0.0022352 0.0010584
-0.00071847 -0.0042203 -0.0012089 -0.0065352 -0.0018503 0.0031396 -0.19925 0.21526
-0.042745 -0.0023435 0.022547 0.012974
-0.0047275 -0.0029053 -0.011854 0.0076976 -0.0030006 -0.0050205 -0.042793 -0.0023282
-0.15686 0.085921 -0.039892 0.0052894
-0.0059302 0.0029523 -0.0021015 -0.0051381 -0.0022172 0.0010555 0.022574 0.012956
-0.0399 0.0052375 -0.24365 0.13112
800000000 -0.15003 0.23649 -0.020676 0.017675 0.0049449 -0.010664 -0.0044145 -0.0016687
-0.0037551 0.0022885 0.0034113 0.00060217
-0.020667 0.017672 -0.33296 0.25433 -0.006426 0.033801 -0.00231 0.002216
-0.00080666 0.0033618 0.0010923 0.0052522
0.0049438 -0.010668 -0.0063743 0.033807 -0.022265 0.31488 0.00076566 0.0018192
0.00054975 0.0035817 -0.0018671 0.0011702
-0.0044326 -0.0016438 -0.0022858 0.0022469 0.00076686 0.001812 -0.16892 0.24165
-0.026945 0.017138 0.012978 -0.010074
-0.0038152 0.0023494 -0.00083573 0.0034091 0.0005552 0.0035989 -0.026968 0.017192
-0.19617 0.11461 -0.015608 0.019666
0.0034061 0.00063482 0.0011232 0.0052593 -0.0018675 0.0011804 0.012964 -0.010091
-0.015615 0.019666 -0.2303 0.1768
860000000 -0.11475 0.25603 -0.015143 0.030781 -0.0034968 -0.0098522 -0.0020099 0.0012722
0.0042869 0.0045929 -0.0027765 -0.0023563
-0.01511 0.030747 -0.28592 0.29498 0.0094721 0.033491 0.00018993 0.00232
0.0043537 0.0005191 0.0030751 0.00046661
-0.0034961 -0.009853 0.0095274 0.033485 0.025673 0.32201 -0.00034141 7.0221e-05
0.0025092 -0.0012873 0.0018833 0.0039239
-0.0019814 0.0012988 0.00022488 0.002312 -0.00034715 7.1731e-05 -0.1326 0.25214
-0.014958 0.021375 -0.0048551 -0.009156
0.0042985 0.0046576 0.0043941 0.00051159 0.0025162 -0.001297 -0.014952 0.021411
-0.14301 0.16078 -0.020914 0.017881
-0.0027871 -0.0023486 0.0030688 0.00046094 0.0018855 0.003922 -0.0048547 -0.0091516
-0.02093 0.01785 -0.18149 0.21678
920000000 -0.088396 0.27712 0.0067649 0.036388 -0.0094251 -0.0043444 -0.0013095 0.0016432
0.0016577 0.0019786 0.0030241 -0.0018966
0.0067553 0.036318 -0.25555 0.31557 0.028746 0.020311 0.0017878 0.00092037
0.0074732 -0.00026224 0.0039954 -0.0028184
-0.0094266 -0.0043476 0.028786 0.020272 0.073125 0.32236 0.0019862 -0.0002149
0.0017042 -0.00037936 0.00080282 -0.0012298
-0.0012881 0.0016608 0.0018039 0.00089342 0.0019784 -0.00021384 -0.10632 0.26813
-0.0069574 0.03178 0.0028301 -0.0067832
0.0017005 0.0019989 0.0075249 -0.00030819 0.001688 -0.00038003 -0.0069153 0.031833
-0.12832 0.16669 0.0011812 0.025876
0.0030292 -0.0019067 0.0040063 -0.0028287 0.00078982 -0.0012375 0.0028521 -0.0067894
0.001156 0.025863 -0.18054 0.23216
980000000 -0.041667 0.29459 0.018929 0.028142 -0.0087919 0.0045447 0.0021379 0.0029229
0.0042676 -0.0021105 -0.0031424 -0.0022961
0.018894 0.028105 -0.20387 0.34763 0.033177 0.0029617 0.0022027 -0.0003449
0.0017675 -0.0064961 -0.00054121 -0.0026324
-0.0087882 0.0045622 0.033191 0.0028799 0.11982 0.31465 0.0004705 -0.0013789
8.3771e-05 -0.0025951 0.0011719 -0.00042896
0.0021717 0.0029151 0.0021683 -0.00033996 0.00047316 -0.0013808 -0.06718 0.27755
0.011981 0.028897 -0.0083144 -0.0067422
0.004299 -0.0021481 0.0017438 -0.0065513 7.5047e-05 -0.0025913 0.012043 0.028912
-0.09665 0.18984 0.006976 0.018439
-0.0031298 -0.0023353 -0.00053743 -0.0025946 0.0011701 -0.00043077 -0.0083233 -0.0067297
0.0069588 0.018441 -0.13704 0.27061
1040000000 0.0007721 0.3017 0.033205 0.015341 -0.0014106 0.0065991 0.0021656 0.00045949
8.9708e-05 -0.0032132 -0.00083389 -0.0014574
0.033169 0.015331 -0.16851 0.36099 0.028229 -0.016306 0.0013132 -0.001924
-0.0024502 -0.0028229 -0.0015996 -0.0029721
-0.0013897 0.0066152 0.02818 -0.016387 0.16692 0.30029 -0.00069104 -0.0015157
-0.0017285 -0.00093609 -0.00064679 -0.00099365
0.0021605 0.00042683 0.0013182 -0.0018972 -0.000686 -0.0015195 -0.038697 0.28663
0.02253 0.015628 -0.0027005 0.00052373
7.8421e-05 -0.0032583 -0.0024936 -0.0028232 -0.0017427 -0.00091888 0.022573 0.015601
-0.064235 0.19596 0.014732 0.015455
-0.00084544 -0.0014962 -0.0015869 -0.0029588 -0.0006464 -0.0010033 -0.0026927 0.0005225
0.014712 0.015465 -0.11182 0.29005
1100000000 0.04605 0.30799 0.03464 -0.006335 0.0026458 0.0037117 0.0019921 -0.00096422
-0.0021378 -0.0028584 -0.003891 0.0006594
0.034622 -0.0062885 -0.12521 0.37768 0.013601 -0.028497 -0.00022903 -0.001754
-0.0038889 -0.00058371 -0.0036215 -0.00012442
0.0026729 0.0037176 0.01353 -0.028551 0.21452 0.2778 -0.0019465 0.0003029
-0.0019605 0.00073427 -0.00097671 -0.00010444
0.0019635 -0.00098605 -0.00021547 -0.0017206 -0.0019494 0.0003044 0.0028111 0.28948
0.026231 0.0014507 -0.0028265 -0.00019381
-0.0021791 -0.0028837 -0.003905 -0.00052607 -0.0019644 0.00073638 0.026266 0.0014196
-0.04569 0.20658 0.018949 0.0056475
-0.0039132 0.00066298 -0.0036174 -0.00011049 -0.00098249 -9.8886e-05 -0.0028325 -0.0001844
0.018932 0.0056532 -0.0656 0.31451
1160000000 0.096637 0.30203 0.021978 -0.022297 0.0021385 -0.0002689 -0.00015684 -0.0018211
-0.0039443 -0.00047159 -0.00080292 0.0039909
0.022005 -0.022264 -0.080736 0.38224 -0.0056947 -0.028778 -0.0016659 -0.0014457
-0.0026875 0.0026789 -0.0015729 0.0018389
0.0021559 -0.00028033 -0.0057977 -0.028772 0.25749 0.24459 -0.00071932 0.0018029
-0.000506 0.002102 -0.00082454 0.0003162
-0.00016964 -0.0018203 -0.0016502 -0.0014303 -0.00071219 0.0017981 0.042314 0.28473
0.02094 -0.014248 -0.0034147 0.0041666
-0.004006 -0.00046962 -0.0026493 0.0027215 -0.00050905 0.0020907 0.020948 -0.014271
-0.012673 0.21357 0.017821 -0.0025793
-0.00079942 0.0040062 -0.0015391 0.001857 -0.00082669 0.00031999 -0.0034151 0.0041777
0.017806 -0.0025895 -0.018795 0.31563
1220000000 0.14146 0.28943 0.0077559 -0.030202 -0.0017466 -0.00013354 0.00027771 -0.00075789
-0.0024411 0.0023764 0.0014406 0.0020153
0.0077887 -0.030172 -0.035748 0.39346 -0.018077 -0.019933 -0.0024427 0.00056536
0.00013305 0.0032388 -0.00048091 0.0021148
-0.0017442 -0.00013113 -0.018158 -0.019892 0.29588 0.20299 0.0008297 0.0018888
0.00076354 0.0012944 0.00036149 0.00056294
0.000276 -0.00075384 -0.0024352 0.0005694 0.00082529 0.0018901 0.083117 0.27399
0.0089025 -0.020658 0.0009293 0.0014321
-0.0024618 0.002418 0.00017703 0.0032494 0.00075776 0.0012922 0.0088946 -0.020672
0.010954 0.22035 0.012039 -0.014852
0.001446 0.0020363 -0.00046335 0.0021185 0.00035943 0.00056969 0.000938 0.0014263
0.01203 -0.01485 0.015112 0.32739
1280000000 0.19031 0.26601 -0.010227 -0.027399 -0.0015368 0.0031099 -0.00086728 -0.0019925
-0.00072284 0.0030673 0.0024795 0.00087562
-0.010189 -0.027384 0.010869 0.38371 -0.024225 -0.0070048 -0.0009349 0.0014788
0.0019564 0.0017913 0.0009657 0.0018745
-0.0015359 0.0030976 -0.024264 -0.0069287 0.32407 0.15722 0.0017468 4.384e-05
0.001235 0.00024801 0.00024702 0.00028564
-0.00085685 -0.0019772 -0.00094149 0.0014714 0.001744 5.0988e-05 0.11913 0.25442
-0.0020623 -0.021754 -0.00096337 0.00067621
-0.00071108 0.0030896 0.0019877 0.0017658 0.0012282 0.00025625 -0.002099 -0.021764
0.046933 0.22201 0.0010534 -0.01645
0.0025122 0.00085446 0.00096863 0.0018688 0.00024892 0.00028685 -0.00096662 0.00068442
0.0010572 -0.016446 0.061243 0.32526
1340000000 0.227 0.23114 -0.01921 -0.016712 0.0015528 0.0045989 -0.0016898 -0.00097075
0.0015221 0.0025855 0.001605 -0.0015681
-0.019171 -0.016707 0.050945 0.37374 -0.021094 0.0057416 -3.0477e-05 0.0020509
0.00219 0.00051565 0.0014973 0.00060058
0.0015475 0.0045825 -0.02109 0.0058136 0.34392 0.10907 0.001334 -0.0011471
0.00073167 -0.00061346 0.00013561 0.00019067
-0.0016888 -0.00094856 -4.0408e-05 0.0020322 0.0013408 -0.0011374 0.15042 0.23193
-0.012302 -0.017333 0.00011436 0.0015587
0.0015591 0.0025869 0.0021904 0.00047596 0.0007276 -0.00062038 -0.01234 -0.017325
0.076611 0.21582 -0.0064938 -0.01415
0.0016182 -0.0016037 0.0014915 0.00058881 0.000141 0.00018609 0.00011992 0.0015611
-0.0064958 -0.014156 0.10004 0.317
1400000000 0.25943 0.19156 -0.023432 -0.0048036 0.0057301 0.0028787 -0.0021843 0.00058234
0.0024336 0.00089434 9.8457e-05 -0.0015237
-0.0234 -0.0048129 0.08802 0.35912 -0.013747 0.013338 0.0014707 0.0012598
0.0012751 -0.0011369 0.0011341 -4.4059e-05
0.0057314 0.0028598 -0.013704 0.013403 0.35555 0.055949 6.4834e-05 -0.0020993
6.1405e-05 -0.00049586 0.00032503 0.00026201
-0.0021647 0.00058847 0.0014573 0.0012616 6.1627e-05 -0.0021019 0.17829 0.2009
-0.018166 -0.0089572 -0.00046486 0.0010765
0.0024725 0.000869 0.0012496 -0.0011668 6.0134e-05 -0.00048961 -0.01819 -0.0089271
0.10879 0.20907 -0.012716 -0.0081036
7.3272e-05 -0.0015459 0.0011278 -4.8456e-05 0.00032072 0.00026516 -0.00046461 0.0010713
-0.012704 -0.0081057 0.143 0.3024
1460000000 0.28087 0.14656 -0.019283 0.0069237 0.0058153 -0.0022974 -0.0015993 0.0017173
0.0021898 -0.00067808 -0.00042809 -0.00095474
-0.019262 0.0068954 0.12144 0.33567 -0.0047914 0.015453 0.0018033 5.4411e-05
0.00062689 -0.001473 0.0010287 -0.00066926
0.0057943 -0.002298 -0.0047403 0.015483 0.36001 0.0024976 -0.0016575 -0.001459
0.00017166 -0.00024861 0.00070151 -0.00030153
-0.0015912 0.0017061 0.0017935 7.4084e-05 -0.0016573 -0.0014547 0.20169 0.1705
-0.01858 -0.00057587 9.5895e-05 0.0027029
0.002194 -0.00072539 0.00059969 -0.0014751 0.00016577 -0.00025259 -0.018593 -0.00055264
0.13673 0.19314 -0.013635 -0.0012623
-0.00046151 -0.00095835 0.0010407 -0.00068561 0.0007059 -0.00030005 9.4705e-05 0.0026948
-0.013641 -0.0012691 0.17447 0.27931
1520000000 0.292 0.10364 -0.01267 0.011605 0.0031946 -0.0045489 0.00021537 0.0027103
0.0020651 -0.0018182 -0.0011497 -0.00010063
-0.01267 0.011579 0.15392 0.31988 0.0024768 0.012643 0.0016673 -0.00099196
-0.0002238 -0.0010969 0.00021073 -0.00097546
0.0031747 -0.0045524 0.0025305 0.01264 0.35322 -0.05313 -0.00154 -0.00013876
0.00051068 -0.00096457 4.9915e-05 -0.00020416
0.00021259 0.0026963 0.001682 -0.0009687 -0.0015392 -0.00013893 0.22225 0.13226
-0.016083 0.0061875 0.0024379 0.0021779
0.0020503 -0.001841 -0.00024729 -0.0010582 0.00050501 -0.00097182 -0.016087 0.0062221
0.16411 0.1774 -0.012652 0.0039998
-0.0011631 -8.6675e-05 0.00021145 -0.00098654 4.7125e-05 -0.00021223 0.0024467 0.002171
-0.012652 0.0039911 0.20601 0.25625
1580000000 0.29954 0.056723 -0.0057703 0.013565 -0.0011495 -0.0051235 0.0015683 0.0019066
-0.00028438 -0.0022895 -0.00020107 0.00036201
-0.0057776 0.013541 0.17976 0.29424 0.0056925 0.007531 0.00030499 -0.0017546
-0.0006919 -0.00085873 -0.00029484 -0.00078097
-0.0011666 -0.0051032 0.0057243 0.0075085 0.33314 -0.1104 -0.0016221 0.00116
-0.0004564 -0.0012383 0.00013143 -0.00064391
0.001561 0.0019021 0.00031474 -0.0017635 -0.0016235 0.0011656 0.23318 0.093333
-0.010896 0.010988 0.003015 0.00026227
-0.00033376 -0.0022862 -0.00067297 -0.00082474 -0.00046435 -0.0012375 -0.010898 0.011018
0.18708 0.15752 -0.0093119 0.0094233
-0.00019656 0.00037981 -0.00029504 -0.00077694 0.00013349 -0.00064249 0.003005 0.00025197
-0.0093119 0.0094078 0.23548 0.22808
1640000000 0.29978 0.015246 0.00058838 0.011315 -0.0030661 -0.0026947 0.0027549 0.00082553
-0.0010105 -0.0016387 -0.00024023 0.00062769
0.00056123 0.011296 0.20785 0.26922 0.0059134 0.002897 -0.00097979 -0.0016529
-0.00095309 -0.00016129 -0.00059589 -0.0005457
-0.0030634 -0.0026865 0.0059203 0.0028691 0.30444 -0.15905 -0.00043734 0.0017405
-0.0013291 -0.00071415 -0.00022011 -0.00035262
0.0027472 0.0008216 -0.00097488 -0.0016663 -0.00042239 0.0017337 0.24298 0.046654
-0.0052963 0.011381 0.0028356 -0.0014135
-0.0010441 -0.0016162 -0.00092575 -0.00015097 -0.0013317 -0.00070037 -0.0052931 0.011403
0.2081 0.13195 -0.0036521 0.011165
-0.00022877 0.00064074 -0.00060057 -0.00054454 -0.00022434 -0.00034897 0.0028366 -0.0014198
-0.0036506 0.011154 0.25917 0.19596
1700000000 0.29066 -0.029944 0.0032584 0.0077724 -0.0037292 0.00029438 0.0029446 -0.0014956
-0.0021923 -0.00054038 0.00068233 0.00025856
0.0032348 0.0077744 0.22498 0.23808 0.0037361 0.0001925 -0.0015712 -0.00035434
-0.00058804 0.00020642 -0.00087145 -0.00035684
-0.003727 0.00029424 0.0037434 0.00017867 0.26149 -0.19915 0.00086612 0.0014563
-0.002032 0.00012262 -0.00070235 -0.00079429
0.0029313 -0.0014869 -0.0015798 -0.00037284 0.00086969 0.0014517 0.23899 -0.00056301
-0.00176 0.010583 0.0015917 -0.0026172
-0.0021999 -0.00051703 -0.00058877 0.00017814 -0.0020405 0.00011985 -0.0017575 0.0106
0.22376 0.11021 0.0014593 0.010824
0.00069992 0.00026131 -0.0008818 -0.00035029 -0.00070838 -0.00078539 0.0015738 -0.0026226
0.0014556 0.010828 0.27399 0.16083
1760000000 0.27693 -0.077478 0.0044148 0.0041842 -0.0022647 0.0010096 0.00094089 -0.0035533
-0.0014443 0.00093919 0.00031886 -0.00046403
0.0043896 0.0041946 0.25001 0.19853 0.0014432 -0.0015549 -0.0011446 0.00044138
-0.00082709 0.00079305 -0.00055003 0.00048257
-0.0022661 0.0010013 0.0014344 -0.001567 0.21237 -0.23291 0.0012971 0.00072811
-0.0010095 0.0017766 -0.001439 -0.00028224
0.00093537 -0.0035494 -0.0011539 0.00044218 0.0012864 0.00072527 0.23005 -0.049054
0.0012594 0.0087028 -0.00031632 -0.0029434
-0.0014415 0.00096895 -0.00085581 0.00079234 -0.0010024 0.0017815 0.0012752 0.0087274
0.23623 0.074504 0.0055897 0.0075515
0.00032402 -0.00047481 -0.00055046 0.00048888 -0.0014406 -0.00027611 -0.00032763 -0.0029449
0.0055953 0.0075499 0.28493 0.12247
1820000000 0.25141 -0.11362 0.0036317 0.001027 3.0388e-05 0.0024561 -0.0013392 -0.0028761
-0.00087124 0.0012016 -8.7483e-05 -3.6034e-05
0.003617 0.0010439 0.25972 0.16931 -0.00045896 -0.00021708 -0.0010114 0.0010393
1.0978e-05 0.0010939 -0.00049107 0.00053361
3.0944e-05 0.0024584 -0.0004563 -0.00021895 0.16187 -0.24833 0.0013228 7.6586e-05
0.00016733 0.0022302 -0.0013303 0.00067577
-0.0013164 -0.0028565 -0.0010105 0.0010583 0.0013254 6.8287e-05 0.20212 -0.093955
0.0022974 0.0063526 -0.0017444 -0.0019122
-0.0008668 0.001222 -7.01e-06 0.0011185 0.00017677 0.0022261 0.0023199 0.0063599
0.25143 0.04506 0.0066099 0.0032834
-8.7755e-05 -4.7245e-05 -0.00048588 0.00054346 -0.001323 0.0006759 -0.0017369 -0.0018991
0.0066053 0.003288 0.28617 0.085308
1880000000 0.21584 -0.15283 0.00089844 -0.00046907 -0.00050456 0.0021381 -0.0030068 -0.0018109
5.9021e-05 0.001616 0.00026077 -0.00050659
0.00090423 -0.00043746 0.26419 0.12289 -0.0024975 0.0014644 4.4041e-05 0.0015731
0.0004474 0.0010002 0.00022009 0.00086227
-0.0004833 0.0021554 -0.0025006 0.0014746 0.10927 -0.25859 0.0013842 -0.00096555
0.001821 0.0016126 -0.00057169 0.0014794
-0.0029846 -0.0018161 6.1938e-05 0.0015827 0.0013905 -0.00096564 0.16411 -0.13424
0.0025665 0.0040399 -0.0026151 2.2316e-05
9.3312e-05 0.0016365 0.0004717 0.0010358 0.0018117 0.0016014 0.0025824 0.0040413
0.25239 0.011874 0.0061068 0.00041817
0.00025599 -0.00052271 0.00023032 0.00086253 -0.00056391 0.0014878 -0.0026113 2.5453e-05
0.0061029 0.00042232 0.28442 0.050419
1940000000 0.17659 -0.17796 -0.0013581 -0.0012277 0.0012694 0.0021809 -0.0035158 0.00084761
0.0015393 0.00078901 -0.00044855 -0.00066162
-0.0013243 -0.0012055 0.2645 0.091493 -0.0013647 0.0038082 0.00095111 0.0010206
0.0015376 0.00049072 0.0009248 0.00033082
0.0013101 0.002157 -0.0013588 0.0038094 0.062669 -0.25172 9.9441e-05 -0.0017263
0.0021456 6.6034e-05 0.0006249 0.0015918
-0.0035077 0.00083184 0.00096614 0.0010107 0.00010617 -0.0017364 0.11346 -0.16543
0.0013355 0.0026005 -0.0019105 0.0011563
0.0015796 0.00076996 0.0015804 0.00048042 0.0021615 5.7469e-05 0.0013459 0.0025809
0.25228 -0.026977 0.0044444 -0.0030562
-0.00047167 -0.0006631 0.00093076 0.00031636 0.00062576 0.0015862 -0.0019012 0.0011615
0.0044353 -0.0030518 0.2717 0.013661
2000000000 0.1304 -0.19254 -0.0046789 0.0013762 0.0025468 0.0018046 -0.002067 0.0035179
0.0010421 -5.9614e-05 -0.00066023 0.00030143
-0.0046232 0.0013705 0.25075 0.055791 -0.001245 0.0056696 0.0013623 0.00026364
0.0012266 -0.00111 0.00057178 -4.9527e-05
0.0025755 0.0017759 -0.0012215 0.0056868 0.018295 -0.23717 -0.0010262 -0.0010437
0.0016445 -0.0012402 0.001826 0.00095308
-0.0020696 0.0034806 0.001369 0.00024136 -0.0010247 -0.0010424 0.060986 -0.17768
-0.00059773 0.0021957 -0.00057379 0.0021627
0.0010662 -0.00011052 0.001248 -0.0011635 0.001644 -0.001234 -0.0005795 0.0021858
0.24493 -0.06089 0.00058296 -0.0043229
