!Keysight Technologies,M9804A,MY58100912,A.14.10.03
!Date: Thursday, April 27, 2023 10:28:33
!Correction: S11(C  6-Port  ) 
!S12(C  6-Port  ) 
!S13(C  6-Port  ) 
!S14(C  6-Port  ) 
!S15(C  6-Port  ) 
!S16(C  6-Port  ) 
!S21(C  6-Port  ) 
!S22(C  6-Port  ) 
!S23(C  6-Port  ) 
!S24(C  6-Port  ) 
!S25(C  6-Port  ) 
!S26(C  6-Port  ) 
!S31(C  6-Port  ) 
!S32(C  6-Port  ) 
!S33(C  6-Port  ) 
!S34(C  6-Port  ) 
!S35(C  6-Port  ) 
!S36(C  6-Port  ) 
!S41(C  6-Port  ) 
!S42(C  6-Port  ) 
!S43(C  6-Port  ) 
!S44(C  6-Port  ) 
!S45(C  6-Port  ) 
!S46(C  6-Port  ) 
!S51(C  6-Port  ) 
!S52(C  6-Port  ) 
!S53(C  6-Port  ) 
!S54(C  6-Port  ) 
!S55(C  6-Port  ) 
!S56(C  6-Port  ) 
!S61(C  6-Port  ) 
!S62(C  6-Port  ) 
!S63(C  6-Port  ) 
!S64(C  6-Port  ) 
!S65(C  6-Port  ) 
!S66(C  6-Port  ) 
!S6P File: Measurement: :
# Hz S  RI   R 50
500000000 -0.33967 -0.021461 -0.011318 -0.0035257 -0.0081377 0.012869 -0.0033932 0.012187
0.011708 0.0041108 -0.002745 0.0086875
-0.011177 -0.0033534 -0.41964 -0.039497 0.0060929 -0.011307 0.0015924 0.012653
0.0072107 0.00216 0.0018403 0.013787
-0.0081969 0.012894 0.0059795 -0.011325 -0.264 0.22095 0.0067549 0.0039613
-0.00076744 0.0078708 0.0013547 0.012022
-0.0036067 0.012499 0.001691 0.012488 0.0067444 0.0039781 -0.33135 0.058676
-0.020676 -0.0062179 0.015402 0.024427
0.01182 0.0038054 0.007475 0.0023515 -0.00077673 0.0078194 -0.020702 -0.0062032
-0.23482 -0.17051 -0.026188 0.0047844
-0.0034088 0.0089152 0.0019717 0.013939 0.0013915 0.011971 0.01558 0.024059
-0.026226 0.0049143 -0.28195 -0.089098
560000000 -0.31401 0.13518 -0.026539 -0.060388 0.00082891 0.012045 0.0052916 0.010055
0.0088439 0.0050363 0.010721 0.0070959
-0.026566 -0.060429 -0.37524 0.11699 -0.042721 -0.035036 0.013152 0.0040016
-0.011621 -0.0035671 0.0030973 -0.0012486
0.00069214 0.011687 -0.042863 -0.034686 -0.18141 0.26639 -0.00024976 -0.0043819
0.018754 0.0042885 0.006745 -0.0061603
0.0053741 0.0098061 0.013337 0.0039455 -0.0002552 -0.0044147 -0.30619 0.14666
0.00056898 -0.023511 0.0033013 -0.019206
0.0094966 0.0047347 -0.01152 -0.0038125 0.018977 0.0041797 0.00053342 -0.023454
-0.28842 0.0023352 0.003632 -0.046424
0.01076 0.0074357 0.0028413 -0.0011443 0.0066844 -0.0060737 0.0032482 -0.019245
0.0038384 -0.046385 -0.32949 0.051349
620000000 -0.27133 0.12072 -0.023529 0.0079495 0.0039572 0.0081848 0.0073966 -0.0053677
0.01131 -0.0008486 0.00084134 -0.0022556
-0.023386 0.0078165 -0.40164 0.071438 -0.019388 0.00077157 -0.0010753 -0.0021131
0.010475 -0.0064333 0.0013897 -0.0025506
0.0040007 0.0082202 -0.019431 0.00076598 -0.15007 0.27608 -0.00075392 -0.0047259
-0.0036841 -0.002857 0.0082841 -0.0027753
0.0072423 -0.0054551 -0.0010589 -0.0021967 -0.00076716 -0.0047783 -0.2636 0.15826
-0.040777 -0.017303 0.012724 0.024348
0.011263 -0.00085397 0.010444 -0.0064417 -0.0036411 -0.0029057 -0.040661 -0.017225
-0.21026 -0.033559 -0.040264 0.015374
0.00068763 -0.0027302 0.0016343 -0.0025196 0.0082582 -0.0029421 0.012456 0.024304
-0.039982 0.015356 -0.25476 0.022992
680000000 -0.22881 0.20358 -0.027713 -0.011997 0.0055531 0.0047303 0.0012364 -0.0070837
-0.0028415 -0.010716 0.0043263 -0.0070051
-0.02766 -0.011881 -0.38476 0.1661 -0.032108 0.0004963 -0.0013373 -0.00050869
-0.0024723 -0.0089907 -0.0015205 -0.0019061
0.0055932 0.00469 -0.032141 0.00054903 -0.098499 0.29372 -0.00091034 -0.00038037
-0.0016173 0.00011689 -0.0035722 -0.008741
0.001309 -0.0072837 -0.0013098 -0.00050265 -0.00091285 -0.00037687 -0.2175 0.20627
-0.026067 -0.0047406 -0.0093792 -0.0080362
-0.0026316 -0.010817 -0.0024033 -0.0088708 -0.0016175 0.00015875 -0.026043 -0.0046929
-0.25276 0.06454 -0.0072706 -0.0063314
0.0043979 -0.0070229 -0.001417 -0.0019474 -0.0036058 -0.0087903 -0.0093148 -0.0081668
-0.0071591 -0.0063434 -0.25477 0.11863
740000000 -0.18442 0.19855 -0.036509 0.026941 0.012384 -0.0057693 -0.00048237 -0.0040667
-0.0046338 -0.003228 -0.0057684 0.0030904
-0.036444 0.026836 -0.33266 0.1855 -0.032993 0.035317 -0.0010604 -0.0063972
-0.011756 0.008 -0.0020383 -0.0052249
0.012469 -0.0057859 -0.032978 0.035488 -0.065097 0.2927 -0.0018251 0.0030987
-0.0030981 -0.004404 -0.0019165 0.001107
-0.00058806 -0.0040756 -0.0011443 -0.0063125 -0.0018562 0.003081 -0.19939 0.21496
-0.042645 -0.0028301 0.022617 0.012939
-0.0044539 -0.0031291 -0.011775 0.0079592 -0.0030125 -0.0043669 -0.042693 -0.0027964
-0.15761 0.086519 -0.039826 0.0043112
-0.0058372 0.003069 -0.0022215 -0.0053289 -0.0020678 0.0010394 0.022662 0.012833
-0.039776 0.0043638 -0.24367 0.12887
800000000 -0.15001 0.23597 -0.020898 0.017627 0.0048352 -0.010524 -0.0045507 -0.001897
-0.0035406 0.0024509 0.0034226 0.00034114
-0.020863 0.017599 -0.33332 0.25388 -0.006594 0.033663 -0.0022623 0.0021386
-0.00046381 0.003381 0.0011381 0.005214
0.0048117 -0.010561 -0.0064985 0.033671 -0.022527 0.31446 0.00081362 0.0016401
0.00037191 0.0035029 -0.0017795 0.001115
-0.0045155 -0.0018073 -0.0023201 0.002184 0.00080789 0.0016565 -0.16918 0.24133
-0.026932 0.016923 0.013178 -0.010037
-0.0035816 0.0025777 -0.00050208 0.0033596 0.00037118 0.0035122 -0.026936 0.017043
-0.19618 0.11268 -0.015915 0.019319
0.0034647 0.00030265 0.0012048 0.0052335 -0.001754 0.0010916 0.013171 -0.010025
-0.015939 0.019266 -0.23131 0.17516
860000000 -0.11551 0.25569 -0.015555 0.030714 -0.0036458 -0.0097577 -0.0021395 0.0011005
0.0042271 0.0045081 -0.0028203 -0.0026129
-0.015559 0.030734 -0.28608 0.29474 0.0092813 0.033328 6.2726e-05 0.0023122
0.0043325 0.00033797 0.0029367 0.00029153
-0.0036791 -0.009723 0.0093577 0.033287 0.025466 0.32165 -0.00047087 3.255e-05
0.0025459 -0.0013592 0.0018205 0.0039091
-0.0020851 0.0011474 -2.7015e-05 0.0023536 -0.00046004 3.2293e-05 -0.1325 0.25202
-0.015175 0.021001 -0.0053673 -0.0091146
0.0042339 0.0045474 0.0041968 0.00046696 0.002529 -0.00136 -0.015193 0.02109
-0.14318 0.15922 -0.021567 0.016994
-0.002872 -0.0024543 0.0031033 0.00031006 0.0018341 0.0038894 -0.0053353 -0.009058
-0.021646 0.016911 -0.18231 0.21554
920000000 -0.08906 0.27713 0.0064894 0.036467 -0.0094217 -0.0040817 -0.0013868 0.0017418
0.0012675 0.0015305 0.0026004 -0.0017942
0.0065104 0.036494 -0.25584 0.31524 0.028442 0.020296 0.0017451 0.0010406
0.007036 -0.00070996 0.0037303 -0.0029793
-0.0093935 -0.0040936 0.028459 0.020183 0.072845 0.32185 0.0019185 -0.00017729
0.0014687 -0.00047519 0.00088007 -0.001125
-0.0013711 0.0017372 0.0017369 0.00097882 0.0019177 -0.00017355 -0.10654 0.26776
-0.0070614 0.031501 0.0028576 -0.0066033
0.0013106 0.0014764 0.0071092 -0.00077906 0.0014586 -0.00047716 -0.0070413 0.031552
-0.13014 0.16487 0.00045462 0.025993
0.0025098 -0.0017411 0.0037349 -0.0030162 0.00085414 -0.0011956 0.0028574 -0.006599
0.00039185 0.025819 -0.18226 0.23015
980000000 -0.042308 0.29453 0.01856 0.028334 -0.008667 0.0046854 0.0019846 0.0029487
0.0039802 -0.0017789 -0.0031111 -0.0020382
0.018509 0.028296 -0.20413 0.3477 0.032769 0.0032353 0.0021124 -0.00029499
0.0016811 -0.0063174 -0.00065099 -0.0023662
-0.0086169 0.004709 0.032798 0.0031478 0.1195 0.31404 0.00047772 -0.0012919
0.00010766 -0.002369 0.0012216 -0.00032335
0.0019823 0.002968 0.0021475 -0.00034017 0.0004613 -0.0012858 -0.067302 0.27699
0.0116 0.028908 -0.0084961 -0.0066839
0.0040067 -0.0017747 0.0017544 -0.0063297 0.00011261 -0.0023927 0.011644 0.028933
-0.097473 0.1888 0.0065106 0.018394
-0.0031029 -0.0020896 -0.00055532 -0.0023933 0.0012535 -0.0002739 -0.0084243 -0.0066221
0.0065567 0.018274 -0.13872 0.26913
1040000000 0.00030046 0.30182 0.033013 0.01565 -0.0012392 0.0066724 0.0023012 0.00052263
8.2774e-05 -0.0032658 -0.00083036 -0.0014845
0.032967 0.015676 -0.16848 0.36095 0.028009 -0.015913 0.0014464 -0.0018522
-0.0024565 -0.0025848 -0.0015749 -0.002724
-0.0012425 0.0066663 0.027965 -0.016043 0.16635 0.29963 -0.00061077 -0.0015155
-0.0016634 -0.00093462 -0.00046171 -0.0010432
0.0022786 0.00051614 0.0014044 -0.0018586 -0.00061018 -0.0015119 -0.03906 0.28599
0.021794 0.015669 -0.0027114 0.00077778
5.879e-05 -0.0032125 -0.0025054 -0.0025667 -0.0016589 -0.00092449 0.021845 0.015634
-0.065163 0.19484 0.014194 0.015666
-0.00086266 -0.0014513 -0.0015693 -0.0027752 -0.00044621 -0.0010681 -0.0026747 0.00085293
0.014186 0.015691 -0.11399 0.28895
1100000000 0.045771 0.30816 0.034563 -0.005931 0.0026789 0.0036862 0.0020115 -0.00094645
-0.0019474 -0.0027113 -0.0036183 0.00062498
0.03455 -0.0058772 -0.12487 0.37752 0.013551 -0.027992 -0.00020215 -0.0017395
-0.0035126 -0.00054436 -0.0034158 -0.00011485
0.0026741 0.0036665 0.013509 -0.028075 0.21358 0.27731 -0.0018898 0.00024492
-0.0019241 0.00059824 -0.0010426 -0.00017924
0.0020342 -0.00096316 -0.00021112 -0.0017692 -0.001905 0.00023136 0.0023042 0.28886
0.025648 0.0019623 -0.0028303 5.6436e-05
-0.0019488 -0.0027353 -0.0035051 -0.00052674 -0.0019342 0.00058567 0.025688 0.0019282
-0.04688 0.20634 0.01866 0.006262
-0.0036166 0.00061528 -0.0034416 -0.00015393 -0.0010464 -0.00022073 -0.0028382 3.1778e-05
0.01868 0.0062878 -0.067183 0.31358
1160000000 0.096389 0.30201 0.022041 -0.021804 0.0022473 -0.00030946 -8.7309e-05 -0.0019295
-0.0038394 -0.0004627 -0.00062744 0.0037873
0.021998 -0.021749 -0.080675 0.38157 -0.0052155 -0.028383 -0.0016505 -0.0014932
-0.002615 0.0026865 -0.0013407 0.0017375
0.0022545 -0.00031949 -0.0052876 -0.028375 0.25613 0.24446 -0.0007812 0.0018252
-0.00042724 0.0020529 -0.000823 0.00022334
-9.9452e-05 -0.0019019 -0.001653 -0.0014917 -0.00077662 0.0018224 0.041558 0.28413
0.020629 -0.013502 -0.0032126 0.0043243
-0.0038594 -0.00042261 -0.002666 0.0027144 -0.00041309 0.0020338 0.020619 -0.013535
-0.013778 0.21292 0.017346 -0.0021077
-0.00064646 0.0038641 -0.0013929 0.0017332 -0.00083514 0.00023114 -0.0031879 0.0043912
0.017363 -0.0020687 -0.020228 0.3141
1220000000 0.14119 0.28945 0.0081534 -0.029777 -0.0016264 -0.0002377 0.00022982 -0.00088546
-0.0023638 0.0022966 0.0013466 0.0018902
0.0081546 -0.029754 -0.035911 0.39266 -0.017611 -0.019851 -0.0024227 0.00051813
0.0001284 0.003092 -0.00051891 0.0020536
-0.0016125 -0.00022249 -0.017668 -0.019815 0.29462 0.20365 0.00080157 0.0019082
0.00070932 0.0013032 0.00043666 0.00062193
0.00019628 -0.00087433 -0.002411 0.00053619 0.00080557 0.0019021 0.082061 0.27365
0.0090969 -0.019753 0.0012604 0.0014138
-0.0023412 0.0023045 0.00013589 0.0030967 0.00070635 0.0012996 0.009085 -0.019787
0.0099884 0.21982 0.011903 -0.014099
0.0013513 0.0018296 -0.00049599 0.0020382 0.00041917 0.00060302 0.0012686 0.0014283
0.011893 -0.014109 0.013019 0.32659
1280000000 0.19001 0.266 -0.0095966 -0.027147 -0.0015335 0.0029875 -0.0009291 -0.0020234
-0.00072357 0.0029566 0.0023645 0.00087165
-0.0095358 -0.027144 0.010258 0.38277 -0.02375 -0.0072258 -0.00097992 0.0014335
0.0018717 0.0017191 0.00084946 0.0018172
-0.0015212 0.0029942 -0.023748 -0.0071637 0.32348 0.1582 0.0017693 3.8005e-05
0.0012255 0.00022645 0.00031756 0.00018989
-0.00092111 -0.0020347 -0.00096824 0.0014359 0.001766 3.9973e-05 0.11801 0.25437
-0.00148 -0.021064 -0.00080973 0.00062184
-0.00066994 0.0029492 0.001871 0.0017352 0.0012367 0.00021534 -0.0015108 -0.021063
0.045831 0.22141 0.0010101 -0.015698
0.0023877 0.00086525 0.00085374 0.0018182 0.00026422 0.00016757 -0.00079744 0.00058512
0.0010177 -0.015689 0.059028 0.32484
1340000000 0.22661 0.23119 -0.018543 -0.016889 0.0015279 0.0043904 -0.0017065 -0.00097746
0.0014479 0.00255 0.0015277 -0.001487
-0.018498 -0.016875 0.049849 0.37331 -0.020869 0.0052603 -7.8533e-05 0.0020121
0.0020687 0.00058214 0.0013782 0.00061323
0.0015238 0.0043811 -0.020872 0.0053401 0.34386 0.11019 0.001325 -0.0010834
0.00068074 -0.00060661 4.0845e-05 0.0002623
-0.0017214 -0.00098184 -6.9041e-05 0.0020097 0.0013207 -0.001083 0.14937 0.23234
-0.011282 -0.017102 0.00034762 0.0014161
0.0014877 0.0025485 0.0020884 0.00059645 0.00068886 -0.00060077 -0.011317 -0.017107
0.075431 0.21542 -0.005753 -0.013388
0.0015277 -0.0015111 0.0013956 0.00062471 5.7421e-05 0.00027343 0.00034848 0.0013657
-0.0057335 -0.013413 0.09796 0.31717
1400000000 0.25897 0.19165 -0.022949 -0.0053476 0.0054687 0.0027537 -0.002167 0.00058801
0.0023598 0.00086782 0.00012848 -0.0014312
-0.022917 -0.0053641 0.086874 0.35913 -0.013815 0.012816 0.0013845 0.0012825
0.0012053 -0.0010182 0.0011144 1.2031e-05
0.0054896 0.002729 -0.013785 0.012883 0.35611 0.056503 8.6629e-05 -0.00206
1.584e-05 -0.00045344 0.00032261 0.00020871
-0.0021635 0.00056993 0.0013906 0.0012642 9.8201e-05 -0.0020531 0.17741 0.2016
-0.017252 -0.0092322 -0.00051019 0.00080328
0.0023716 0.00084913 0.0012183 -0.0010146 -6.0519e-06 -0.00045209 -0.017272 -0.0092135
0.10733 0.20901 -0.0119 -0.0077687
0.00012221 -0.0014283 0.0011207 -1.9048e-06 0.00036497 0.0001901 -0.0005001 0.00082417
-0.011896 -0.0077538 0.14106 0.30293
1460000000 0.28044 0.14683 -0.019203 0.0061691 0.0056065 -0.0022713 -0.0016267 0.0017485
0.002011 -0.00056842 -0.00040175 -0.0008995
-0.019215 0.006136 0.12035 0.33632 -0.0051571 0.015099 0.0017493 0.00010352
0.00067127 -0.0014032 0.001041 -0.00060915
0.0055703 -0.0022844 -0.005133 0.015141 0.36064 0.0025113 -0.0016307 -0.001395
0.00010251 -0.00019341 0.0006291 -0.00030237
-0.0016038 0.0017198 0.0017717 8.9711e-05 -0.0016303 -0.0013826 0.20115 0.17138
-0.017913 -0.0013849 -8.1151e-05 0.0025588
0.0020342 -0.00059271 0.00067179 -0.0014101 8.7357e-05 -0.00019781 -0.017928 -0.0013318
0.13534 0.19319 -0.012641 -0.0014152
-0.0003932 -0.00088334 0.0010474 -0.00060273 0.00061711 -0.00032351 -7.1735e-05 0.0025184
-0.012623 -0.0014044 0.17283 0.28022
1520000000 0.29166 0.10412 -0.012994 0.010945 0.0030131 -0.0043395 0.00018043 0.0026741
0.0020589 -0.0017138 -0.0010877 -5.3718e-05
-0.012995 0.010906 0.15328 0.32089 0.0020598 0.012571 0.0016606 -0.00089729
-0.00016217 -0.0010838 0.00022939 -0.0009179
0.0030076 -0.0043598 0.0021079 0.012569 0.35363 -0.053293 -0.0015342 -0.00017487
0.00047822 -0.0009457 -2.8609e-07 -0.0001467
0.0001797 0.002687 0.0016531 -0.00090917 -0.0015341 -0.00017556 0.22209 0.13335
-0.015977 0.0051232 0.002276 0.0020716
0.0020351 -0.0017247 -0.00019116 -0.0010857 0.00046293 -0.00095673 -0.015967 0.005156
0.16269 0.1778 -0.011885 0.0033734
-0.001089 -7.0723e-05 0.00022773 -0.0009234 2.3587e-05 -0.00014313 0.0022842 0.0020672
-0.011897 0.0033629 0.2048 0.25735
1580000000 0.29944 0.057284 -0.0064349 0.01315 -0.0011021 -0.0048382 0.0016268 0.0019003
-0.0001667 -0.0021941 -0.0002532 0.00036356
-0.0064434 0.013142 0.17963 0.29539 0.0053667 0.0076949 0.00037644 -0.0017101
-0.00063771 -0.00087394 -0.00023529 -0.00078976
-0.0011432 -0.0048517 0.0054008 0.0076583 0.33316 -0.11086 -0.0016271 0.0010759
-0.00039874 -0.0011437 0.00015801 -0.00064987
0.0015998 0.0018842 0.0003825 -0.0017173 -0.0016207 0.0010873 0.23352 0.094259
-0.011383 0.010089 0.0027893 0.00030503
-0.00017713 -0.0022136 -0.00064389 -0.000873 -0.0004104 -0.0011584 -0.011379 0.010129
0.18579 0.15826 -0.0089608 0.008601
-0.00022731 0.00038294 -0.00023642 -0.00077983 0.00016706 -0.00062881 0.0027779 0.00028512
-0.0089772 0.0085555 0.23447 0.22912
1640000000 0.29994 0.015739 -0.0001876 0.011303 -0.0029086 -0.0025354 0.0027585 0.00082954
-0.00082523 -0.0016491 -0.00019836 0.00059627
-0.00019527 0.011298 0.2083 0.27022 0.0057397 0.003169 -0.00090223 -0.001658
-0.00096948 -0.00019147 -0.000511 -0.00055472
-0.0029477 -0.0025514 0.0057558 0.0031266 0.30397 -0.15949 -0.00045483 0.0016841
-0.0012972 -0.00076531 -0.00021615 -0.00020901
0.0027712 0.00080798 -0.00089961 -0.0016415 -0.00044777 0.0016875 0.24366 0.047225
-0.0062319 0.010955 0.0026998 -0.0013224
-0.00087066 -0.0016333 -0.00098007 -0.00019106 -0.0012898 -0.00076614 -0.0062135 0.010972
0.2071 0.13291 -0.0037671 0.010267
-0.00017996 0.00061561 -0.0005245 -0.00054214 -0.00020576 -0.00025058 0.0027008 -0.0013446
-0.003789 0.010272 0.25868 0.19692
1700000000 0.291 -0.029659 0.0026247 0.0081568 -0.00349 0.00022828 0.002904 -0.0014898
-0.0021015 -0.0006847 0.00070191 0.00029707
0.0025877 0.0081576 0.22587 0.2387 0.0038209 0.00041116 -0.0014959 -0.00045812
-0.00060623 0.0002003 -0.00087588 -0.0004164
-0.0035269 0.000256 0.0037986 0.00041043 0.26122 -0.19912 0.00085384 0.0013673
-0.0018511 1.6056e-05 -0.00068701 -0.0007602
0.0029088 -0.0014766 -0.0014945 -0.00045522 0.00085036 0.001375 0.2398 -0.0004446
-0.002736 0.010686 0.0014879 -0.0024987
-0.0021104 -0.00067844 -0.00059945 0.00020107 -0.0018523 -9.6629e-06 -0.0027144 0.010687
0.22306 0.11138 0.00111 0.010115
0.00069767 0.00029556 -0.00088699 -0.00040743 -0.00068104 -0.00080843 0.0014725 -0.0024982
0.0011133 0.010122 0.27352 0.16163
1760000000 0.27729 -0.07759 0.0041206 0.0048264 -0.0022877 0.00094369 0.00092254 -0.0035243
-0.0014749 0.00078651 0.00037956 -0.00046495
0.0041003 0.0048227 0.25102 0.1986 0.001557 -0.0014361 -0.0011884 0.00031749
-0.00085097 0.0008106 -0.00058936 0.00049851
-0.0023182 0.00093723 0.0015418 -0.0014643 0.21225 -0.23296 0.0013935 0.00067408
-0.0010647 0.0016475 -0.001412 -0.00015578
0.00091625 -0.0035555 -0.0011715 0.00032815 0.0014025 0.00067198 0.23062 -0.049426
0.00059614 0.0092651 -0.00032571 -0.002715
-0.001491 0.00076877 -0.00083921 0.00082329 -0.001057 0.0016573 0.00058315 0.0092695
0.23587 0.075547 0.0049666 0.0071661
0.00037936 -0.00050206 -0.00056718 0.00047731 -0.0013549 -0.00024154 -0.00035335 -0.0026917
0.0049529 0.0071466 0.28446 0.12331
1820000000 0.2518 -0.11387 0.0037391 0.0017162 -6.9967e-05 0.0024918 -0.0013391 -0.0028545
-0.0010615 0.0011283 -8.6143e-05 -7.5612e-05
0.0037404 0.0017149 0.26058 0.1689 -0.00038894 -0.0002356 -0.0011262 0.0010109
5.1617e-05 0.0010989 -0.0005083 0.00055055
-4.6802e-05 0.0024725 -0.00038806 -0.00023561 0.16176 -0.24852 0.0012133 -5.5312e-05
0.00017122 0.0022212 -0.0013405 0.00053684
-0.0013253 -0.0028542 -0.0011294 0.0010234 0.0012361 -2.0701e-05 0.20235 -0.094557
0.0021125 0.007098 -0.0016149 -0.0017204
-0.0010345 0.0011244 6.0207e-05 0.0011025 0.00017843 0.0022253 0.0021052 0.0070872
0.25136 0.045928 0.0058376 0.0032279
-7.1862e-05 -8.3817e-05 -0.0005057 0.00055071 -0.0013196 0.00058268 -0.0016297 -0.0017222
0.0058662 0.0032272 0.2856 0.085849
1880000000 0.2157 -0.15343 0.0012789 -3.6614e-06 -0.00040226 0.0020795 -0.0029598 -0.0018023
-0.00011576 0.0018075 0.00021643 -0.00043639
0.0012775 -9.6257e-06 0.26466 0.12213 -0.0025392 0.0015632 -6.9747e-05 0.0015924
0.0004407 0.00096711 0.00017522 0.00091795
-0.0003609 0.0020906 -0.002503 0.0015846 0.10833 -0.25851 0.0012761 -0.0010294
0.00168 0.0015468 -0.00070499 0.0014239
-0.0030073 -0.0018152 -6.0081e-05 0.0015761 0.0012911 -0.00102 0.16385 -0.13512
0.0027996 0.0045868 -0.0023851 2.6246e-05
-0.00011373 0.0017682 0.00045794 0.00095174 0.0016842 0.00154 0.0028128 0.0045947
0.25253 0.012648 0.0054737 0.00064864
0.00016179 -0.00046982 0.00017345 0.00091886 -0.00064408 0.0014249 -0.0023904 3.5112e-05
0.0054841 0.00065883 0.28373 0.051338
1940000000 0.17588 -0.17838 -0.00079612 -0.0010951 0.0015811 0.0021341 -0.0035215 0.00085229
0.0015421 0.0010347 -0.00053541 -0.00056452
-0.00078074 -0.001097 0.26454 0.090754 -0.0013572 0.0040111 0.00089717 0.0011714
0.001434 0.00046794 0.00082421 0.00033816
0.0015766 0.0021234 -0.0013356 0.0040239 0.061902 -0.25122 0.00012878 -0.001645
0.0021645 0.00016576 0.00045999 0.0016546
-0.0034996 0.0008624 0.00091963 0.0011747 0.00014173 -0.0016223 0.11256 -0.16592
0.0017069 0.0028874 -0.0017498 0.0010516
0.0015709 0.0010189 0.0014392 0.0004781 0.0021544 0.0001773 0.0017032 0.0029028
0.25246 -0.026427 0.0039667 -0.0026493
-0.00053182 -0.00053819 0.00082267 0.00033023 0.00048156 0.0016624 -0.0017345 0.0011008
0.0039694 -0.0026313 0.27107 0.014564
2000000000 0.12959 -0.19251 -0.0043377 0.0011043 0.0026575 0.0016101 -0.0021655 0.0033976
0.0012182 -1.7174e-05 -0.00041814 0.00037296
-0.0043262 0.0011058 0.25052 0.055152 -0.0010558 0.0058935 0.0014846 0.00034464
0.001117 -0.00098354 0.00048122 7.0562e-05
0.0026798 0.0015388 -0.0010409 0.0058283 0.018046 -0.23633 -0.00091594 -0.0008843
0.0016166 -0.00098068 0.0017642 0.00096441
-0.0021109 0.0034335 0.0014916 0.00033945 -0.00091817 -0.00088301 0.05975 -0.17731
-0.0003734 0.0022471 -0.00051048 0.0022135
0.0012189 -2.3345e-05 0.0011237 -0.00095257 0.0016334 -0.0009982 -0.00037613 0.0022756
0.245 -0.060561 0.00034401 -0.003665
