!Keysight Technologies,M9804A,MY58100912,A.14.10.03
!Date: Thursday, April 27, 2023 10:28:33
!Correction: S11(C  6-Port  ) 
!S12(C  6-Port  ) 
!S13(C  6-Port  ) 
!S14(C  6-Port  ) 
!S15(C  6-Port  ) 
!S16(C  6-Port  ) 
!S21(C  6-Port  ) 
!S22(C  6-Port  ) 
!S23(C  6-Port  ) 
!S24(C  6-Port  ) 
!S25(C  6-Port  ) 
!S26(C  6-Port  ) 
!S31(C  6-Port  ) 
!S32(C  6-Port  ) 
!S33(C  6-Port  ) 
!S34(C  6-Port  ) 
!S35(C  6-Port  ) 
!S36(C  6-Port  ) 
!S41(C  6-Port  ) 
!S42(C  6-Port  ) 
!S43(C  6-Port  ) 
!S44(C  6-Port  ) 
!S45(C  6-Port  ) 
!S46(C  6-Port  ) 
!S51(C  6-Port  ) 
!S52(C  6-Port  ) 
!S53(C  6-Port  ) 
!S54(C  6-Port  ) 
!S55(C  6-Port  ) 
!S56(C  6-Port  ) 
!S61(C  6-Port  ) 
!S62(C  6-Port  ) 
!S63(C  6-Port  ) 
!S64(C  6-Port  ) 
!S65(C  6-Port  ) 
!S66(C  6-Port  ) 
!S6P File: Measurement: :
# Hz S  RI   R 50
500000000 -0.34045 -0.019992 -0.011725 -0.0038079 -0.0083005 0.013092 -0.0033805 0.012411
0.011075 0.004438 -0.0029959 0.0089858
-0.011687 -0.003764 -0.4201 -0.038666 0.0057396 -0.011024 0.0017966 0.012556
0.0070935 0.0019297 0.0023744 0.013485
-0.0083512 0.013007 0.0057337 -0.011061 -0.26441 0.22199 0.0070745 0.0040258
-0.00133 0.0079308 0.0020089 0.011666
-0.0034163 0.012397 0.001805 0.012539 0.0070984 0.0040195 -0.33164 0.059643
-0.020596 -0.0064547 0.015222 0.024119
0.011084 0.0044408 0.0070937 0.0019001 -0.0013492 0.0078821 -0.020606 -0.0064635
-0.23628 -0.1686 -0.026912 0.0043863
-0.0029517 0.0088858 0.0024035 0.013483 0.0020267 0.011717 0.01525 0.024149
-0.026905 0.0043673 -0.28336 -0.086237
560000000 -0.31422 0.13544 -0.02698 -0.06 0.00079025 0.01198 0.0050687 0.0099149
0.008775 0.0048985 0.010387 0.007446
-0.026956 -0.060015 -0.37606 0.11748 -0.042205 -0.034315 0.013174 0.004139
-0.012299 -0.0042783 0.0027941 -0.0001887
0.00083123 0.01195 -0.042321 -0.034262 -0.18191 0.26769 0.00018246 -0.0048715
0.019439 0.0050597 0.0064464 -0.0062671
0.0050519 0.0099915 0.013153 0.0040631 0.00015872 -0.0049404 -0.3062 0.14783
0.00039693 -0.024148 0.0029028 -0.018654
0.0088067 0.0048952 -0.01226 -0.0043235 0.01945 0.0051529 0.00038572 -0.024182
-0.28895 0.0056887 0.0029084 -0.047257
0.010381 0.0073958 0.0028342 -0.00014431 0.0064358 -0.0063052 0.0029218 -0.018651
0.0029151 -0.047264 -0.33037 0.053752
620000000 -0.27204 0.12212 -0.023938 0.0078902 0.0041164 0.0082112 0.0076392 -0.0047356
0.011153 -0.001485 0.000478 -0.0021893
-0.023919 0.0078607 -0.40191 0.071971 -0.019547 0.00069935 -0.00058849 -0.0023048
0.0099859 -0.0062825 0.0017358 -0.0026583
0.0041556 0.0082227 -0.019594 0.00078431 -0.15015 0.27736 -0.00091506 -0.0051703
-0.0032632 -0.0027131 0.008406 -0.0035641
0.0076579 -0.0047308 -0.00061466 -0.0023232 -0.00093914 -0.0051974 -0.26292 0.15924
-0.04068 -0.016791 0.012038 0.024125
0.011186 -0.0014722 0.010002 -0.0062915 -0.0031607 -0.0027888 -0.040697 -0.016749
-0.21208 -0.033202 -0.040097 0.016288
0.00051212 -0.0021577 0.0017249 -0.0026799 0.0083494 -0.0037357 0.012118 0.024098
-0.040065 0.016329 -0.25732 0.025562
680000000 -0.22909 0.20485 -0.027883 -0.011549 0.0057597 0.0045991 0.0010324 -0.0072501
-0.002485 -0.010944 0.004384 -0.0069383
-0.02786 -0.01156 -0.3847 0.16668 -0.032149 0.00047145 -0.0013751 -0.00090439
-0.0021129 -0.0090612 -0.001213 -0.002292
0.0057524 0.004588 -0.032157 0.00053841 -0.098004 0.2944 -0.0009532 -0.0006458
-0.0012701 -0.00016491 -0.0034171 -0.0087539
0.0010427 -0.0072492 -0.0013925 -0.0008981 -0.00098371 -0.0006682 -0.21687 0.20635
-0.026392 -0.0041567 -0.0090171 -0.0080271
-0.0025352 -0.010923 -0.002116 -0.0090709 -0.0012796 -0.00017192 -0.026425 -0.004118
-0.25273 0.065659 -0.0072895 -0.0064172
0.004377 -0.0069526 -0.0012218 -0.0023118 -0.0034299 -0.0087383 -0.0089771 -0.0080499
-0.0072991 -0.0064275 -0.2554 0.12167
740000000 -0.18412 0.19952 -0.036303 0.026924 0.012517 -0.0058618 -0.00065484 -0.0042435
-0.0047494 -0.0029113 -0.0058349 0.0028899
-0.036285 0.02692 -0.3328 0.18578 -0.032834 0.035448 -0.0011694 -0.0065742
-0.011871 0.0076088 -0.0021181 -0.0051035
0.012486 -0.0058503 -0.032741 0.035512 -0.064667 0.29304 -0.0018088 0.0031209
-0.0031531 -0.0049667 -0.0020686 0.0011019
-0.00062254 -0.004254 -0.0011742 -0.00656 -0.0018234 0.0031046 -0.1992 0.21535
-0.042668 -0.0022482 0.02262 0.012859
-0.0047682 -0.002844 -0.011866 0.0075724 -0.0032073 -0.0048941 -0.0427 -0.002189
-0.15708 0.085906 -0.040131 0.0054334
-0.0058992 0.0029113 -0.0020747 -0.0051058 -0.0020337 0.0011183 0.022648 0.012854
-0.040143 0.0053746 -0.24309 0.13171
800000000 -0.14994 0.23655 -0.020638 0.017607 0.0049485 -0.010654 -0.0044478 -0.0016198
-0.0036811 0.0023556 0.0034421 0.00059626
-0.020653 0.017605 -0.33291 0.25435 -0.006423 0.033845 -0.0023365 0.0022539
-0.00081731 0.0033196 0.0010915 0.0052793
0.0049285 -0.010645 -0.0063601 0.033855 -0.022222 0.31491 0.00077866 0.0018392
0.00054268 0.0035739 -0.001815 0.0011704
-0.0044604 -0.0016249 -0.0023337 0.0022489 0.00077584 0.0018283 -0.16892 0.24172
-0.026957 0.017089 0.012974 -0.0099924
-0.0036894 0.0023539 -0.00081279 0.0033173 0.00054091 0.0035808 -0.026958 0.017146
-0.19616 0.11475 -0.015484 0.019555
0.0034675 0.00058998 0.0011173 0.0052879 -0.001798 0.0011615 0.012988 -0.01002
-0.015535 0.019538 -0.23016 0.17714
860000000 -0.11469 0.2562 -0.015146 0.030732 -0.0034918 -0.0098743 -0.0020903 0.001299
0.0041839 0.0046862 -0.0027402 -0.0022915
-0.015151 0.030711 -0.28592 0.29498 0.0094715 0.033465 0.00016007 0.0022826
0.0043163 0.00046443 0.0029855 0.00048913
-0.0035054 -0.0098631 0.009546 0.033447 0.025684 0.32202 -0.00037127 3.4776e-05
0.0024853 -0.0012797 0.0019158 0.0039078
-0.0020559 0.0012973 0.00017663 0.0022863 -0.00037437 3.067e-05 -0.13259 0.25218
-0.014973 0.021382 -0.0048773 -0.0091592
0.0042257 0.0046796 0.0043489 0.00043862 0.0024883 -0.0013021 -0.014962 0.021439
-0.14281 0.16071 -0.02096 0.017731
-0.002716 -0.0023013 0.0030083 0.00046758 0.0019025 0.0039232 -0.004904 -0.0091772
-0.020946 0.017666 -0.18141 0.21699
920000000 -0.088332 0.27716 0.0067846 0.036332 -0.0094149 -0.0043759 -0.0012777 0.0016401
0.0016052 0.002044 0.0029987 -0.0017979
0.0067604 0.036285 -0.25555 0.31564 0.028774 0.020325 0.0018505 0.00092783
0.0074503 -0.00026764 0.0039797 -0.0028365
-0.0094076 -0.0043531 0.0288 0.02027 0.07315 0.32239 0.0019839 -0.00022978
0.0017165 -0.00037464 0.00086373 -0.0011569
-0.0012785 0.0016399 0.0018391 0.00092645 0.0019858 -0.00023185 -0.10621 0.26813
-0.0069127 0.031784 0.0028457 -0.0067433
0.001625 0.0019933 0.0074563 -0.00028737 0.0017124 -0.00036012 -0.0068637 0.031828
-0.12836 0.16673 0.0011455 0.02591
0.0029895 -0.001844 0.0039886 -0.0028334 0.00087041 -0.0011595 0.0028511 -0.0067496
0.0011049 0.025905 -0.18058 0.23227
980000000 -0.041571 0.29456 0.018988 0.028079 -0.0087686 0.0045611 0.0021399 0.0028912
0.0042096 -0.0020862 -0.0032434 -0.0022489
0.018934 0.02806 -0.20383 0.34767 0.03316 0.0029645 0.0022348 -0.00031538
0.0017948 -0.0065233 -0.00055122 -0.0026384
-0.0087662 0.0045693 0.033162 0.0028754 0.11987 0.31465 0.00046992 -0.0013437
8.3133e-05 -0.0025553 0.0011619 -0.00045852
0.0021364 0.0028908 0.0022229 -0.000326 0.00048258 -0.0013456 -0.067157 0.27755
0.011969 0.028893 -0.0083259 -0.0067416
0.0042375 -0.0020975 0.0017455 -0.0065131 7.343e-05 -0.0025602 0.012028 0.028905
-0.096665 0.18994 0.0069424 0.018472
-0.0031943 -0.0022734 -0.00055716 -0.0026059 0.0011602 -0.00046813 -0.0083393 -0.0067266
0.0069402 0.018471 -0.13687 0.27084
1040000000 0.00082826 0.30167 0.033169 0.015354 -0.001436 0.0066199 0.002147 0.00044021
8.3063e-05 -0.0032124 -0.00086607 -0.0014848
0.033081 0.01537 -0.1685 0.36107 0.02819 -0.016302 0.0013339 -0.001935
-0.0024153 -0.0028363 -0.0015052 -0.003035
-0.0013996 0.0066233 0.028134 -0.01638 0.16692 0.30029 -0.00068734 -0.0015286
-0.0017008 -0.00090682 -0.00063565 -0.0010127
0.0021643 0.00043415 0.0013188 -0.0019265 -0.00068449 -0.0015323 -0.038686 0.28665
0.022491 0.015638 -0.0027151 0.00051514
9.8274e-05 -0.0032025 -0.0024561 -0.002791 -0.0017002 -0.00090481 0.022533 0.015615
-0.064145 0.19591 0.014747 0.015359
-0.000851 -0.0014704 -0.0015365 -0.0030142 -0.00063595 -0.0010017 -0.0027005 0.00053758
0.014709 0.015363 -0.11165 0.29027
1100000000 0.046085 0.30796 0.034575 -0.0063408 0.0026385 0.0037303 0.001967 -0.00093948
-0.0021529 -0.0028605 -0.0038774 0.00067332
0.034564 -0.0063269 -0.1252 0.37773 0.01359 -0.028491 -0.00023736 -0.0017341
-0.0038664 -0.00060741 -0.0035526 -8.6476e-05
0.0026553 0.0037158 0.013519 -0.028541 0.21456 0.27782 -0.001952 0.00031471
-0.0019672 0.00073944 -0.00096794 -6.9763e-05
0.0019593 -0.00093156 -0.00024985 -0.0017501 -0.0019543 0.00031551 0.0028275 0.28945
0.026233 0.0014219 -0.0028008 -0.00018927
-0.0021573 -0.0028517 -0.0038718 -0.00059265 -0.0019719 0.00074666 0.026256 0.0013821
-0.045636 0.20663 0.018918 0.005679
-0.0038843 0.0006889 -0.0035706 -8.4668e-05 -0.00096719 -7.2732e-05 -0.0028013 -0.0002034
0.018918 0.0056809 -0.065366 0.3145
1160000000 0.096612 0.30202 0.021978 -0.022292 0.002132 -0.00023444 -0.00015757 -0.0018154
-0.003957 -0.00047862 -0.00079624 0.0039587
0.02196 -0.022258 -0.080657 0.38224 -0.005682 -0.028722 -0.0016437 -0.0014394
-0.0026885 0.0026584 -0.0015458 0.0018437
0.0021413 -0.00021856 -0.0057815 -0.028731 0.25755 0.24457 -0.00070049 0.0018221
-0.00054496 0.0021068 -0.00082827 0.000323
-0.0001542 -0.0017945 -0.0016628 -0.0014387 -0.00069841 0.0018226 0.042341 0.28466
0.020887 -0.01428 -0.0034195 0.004156
-0.0039532 -0.0004496 -0.0026917 0.0026837 -0.000547 0.0021054 0.020878 -0.014313
-0.012623 0.21359 0.017862 -0.0025674
-0.00077947 0.0039501 -0.0015318 0.0018709 -0.00083378 0.00031492 -0.0034158 0.0041661
0.017869 -0.0025802 -0.018583 0.31573
1220000000 0.14142 0.28945 0.0077606 -0.030174 -0.0017567 -0.00012523 0.000296 -0.00075305
-0.0024408 0.0023812 0.0014236 0.0020474
0.0077665 -0.030147 -0.035682 0.39345 -0.018098 -0.019912 -0.0024461 0.00059688
0.00013929 0.0031939 -0.000458 0.0021311
-0.0017506 -0.00010995 -0.018162 -0.019861 0.29583 0.20297 0.0008173 0.0019094
0.00076318 0.0012616 0.00033574 0.00059897
0.00029007 -0.00074499 -0.0024428 0.00059816 0.00080979 0.0019094 0.083115 0.27397
0.0088799 -0.020675 0.00092536 0.0014627
-0.0024269 0.0023995 0.00015243 0.0032093 0.00077059 0.0012584 0.0088559 -0.020695
0.011068 0.22037 0.011986 -0.014882
0.0014374 0.0020267 -0.0004507 0.0021303 0.00034635 0.0005933 0.00092951 0.001451
0.011987 -0.014862 0.015379 0.32738
1280000000 0.19035 0.26607 -0.010219 -0.027371 -0.0015449 0.003137 -0.00083844 -0.0019953
-0.00071469 0.0030555 0.0024666 0.00090782
-0.010211 -0.027349 0.010935 0.38361 -0.02421 -0.0070347 -0.00091175 0.0015153
0.0019741 0.0018044 0.00091492 0.0018749
-0.0015393 0.0031398 -0.024248 -0.0069466 0.32408 0.15724 0.0017399 2.2616e-05
0.0012396 0.0002156 0.00029134 0.00029721
-0.00084225 -0.0019887 -0.00090544 0.00153 0.0017354 3.381e-05 0.11913 0.25439
-0.0020719 -0.021763 -0.00096377 0.00066173
-0.00070599 0.0030656 0.0019819 0.0017992 0.0012431 0.0002195 -0.0021183 -0.021773
0.047041 0.22203 0.0010346 -0.016474
0.0024785 0.00089853 0.00091576 0.0018801 0.00028614 0.00029388 -0.00096498 0.00066499
0.0010444 -0.016471 0.061518 0.32532
1340000000 0.22703 0.23119 -0.019183 -0.016674 0.0015481 0.0046152 -0.001695 -0.0009845
0.0015308 0.0025597 0.0016295 -0.0015749
-0.019155 -0.016675 0.050942 0.37365 -0.021131 0.0057428 -3.1388e-05 0.0020471
0.0021756 0.00052689 0.0014896 0.00059548
0.0015651 0.004615 -0.021117 0.005817 0.34389 0.10906 0.0013528 -0.001147
0.00074543 -0.00064862 0.00010413 0.00018195
-0.0016902 -0.00097775 -3.0833e-05 0.0020482 0.0013599 -0.0011517 0.15042 0.23195
-0.012314 -0.017293 9.8925e-05 0.0015634
0.0015403 0.002556 0.0021809 0.00052185 0.00074724 -0.00064676 -0.012358 -0.017289
0.076669 0.21586 -0.0064913 -0.014152
0.001615 -0.0015693 0.0014906 0.0005922 9.8699e-05 0.00019016 0.00010318 0.0015698
-0.0064808 -0.01415 0.10023 0.31696
1400000000 0.25946 0.19159 -0.023379 -0.0047927 0.0057274 0.0028555 -0.0021865 0.00055804
0.0024216 0.00091281 0.0001008 -0.0015278
-0.023353 -0.0048071 0.088044 0.35904 -0.013731 0.013351 0.0014757 0.0012688
0.0012327 -0.001111 0.0011316 -6.2496e-05
0.0057313 0.0028387 -0.013693 0.013393 0.35556 0.055929 5.3041e-05 -0.0020768
4.7466e-05 -0.00048084 0.00032791 0.00026673
-0.0021789 0.00056747 0.0014794 0.0012565 5.4916e-05 -0.0020768 0.17831 0.20092
-0.018174 -0.0089271 -0.00046148 0.0010849
0.002426 0.00089007 0.0012338 -0.0011187 5.2578e-05 -0.00048834 -0.018205 -0.0088996
0.10884 0.20907 -0.012733 -0.0080578
9.2141e-05 -0.0015144 0.0011235 -6.3925e-05 0.00033943 0.00026301 -0.00045934 0.001082
-0.012713 -0.0080621 0.14322 0.30231
1460000000 0.28096 0.14652 -0.019231 0.0068794 0.0058109 -0.0023108 -0.0016273 0.0017107
0.0021671 -0.00066319 -0.0004065 -0.00090919
-0.019217 0.006868 0.12138 0.33561 -0.0047977 0.015448 0.00179 4.8263e-05
0.00063732 -0.0014701 0.0010343 -0.00068178
0.0058075 -0.0023283 -0.0047447 0.015476 0.36007 0.0024507 -0.0016295 -0.0014378
0.00013492 -0.00024197 0.00069919 -0.00032156
-0.0016269 0.001713 0.001795 4.0402e-05 -0.0016208 -0.0014359 0.20168 0.17046
-0.018575 -0.00055327 8.0013e-05 0.0027074
0.002163 -0.00067159 0.00062856 -0.0014776 0.00014251 -0.00023844 -0.018597 -0.0005258
0.13681 0.19315 -0.013617 -0.0012669
-0.00042896 -0.0009195 0.0010382 -0.00067728 0.00068822 -0.0003362 8.5142e-05 0.0027157
-0.013624 -0.0012702 0.17465 0.27922
1520000000 0.29206 0.10363 -0.012637 0.011564 0.0031842 -0.0045465 0.00019205 0.0026834
0.0020398 -0.0018145 -0.0011279 -8.137e-05
-0.01264 0.01155 0.15391 0.31986 0.0024732 0.012628 0.0016664 -0.00098066
-0.00024611 -0.0010962 0.00020902 -0.00098392
0.0031749 -0.0045843 0.0025341 0.012621 0.35316 -0.053156 -0.0015197 -0.00012786
0.00053818 -0.00097751 2.1431e-05 -0.00020159
0.00019736 0.0026782 0.0016604 -0.00099052 -0.0015298 -0.00013 0.22228 0.13225
-0.016089 0.0062108 0.0024663 0.0021686
0.0020254 -0.0018304 -0.00025287 -0.0011015 0.00054087 -0.00099624 -0.016086 0.0062507
0.16419 0.1774 -0.012639 0.0040029
-0.0011324 -8.3431e-05 0.00020801 -0.00098708 3.0328e-05 -0.00019359 0.0024662 0.002163
-0.012638 0.0039871 0.20614 0.25617
1580000000 0.29955 0.056699 -0.0057773 0.013512 -0.0011822 -0.0051161 0.0015625 0.0019202
-0.00028539 -0.0022896 -0.00021113 0.00037105
-0.0057802 0.013501 0.17974 0.29424 0.005675 0.007523 0.00029852 -0.0017612
-0.00068609 -0.00084565 -0.00030177 -0.00076763
-0.0011891 -0.005106 0.0057015 0.0075078 0.33308 -0.11042 -0.0016191 0.0011501
-0.00047049 -0.0012618 0.00011673 -0.0006421
0.0015688 0.0019092 0.00028241 -0.0017655 -0.0016168 0.0011524 0.23322 0.093295
-0.010888 0.011006 0.0030244 0.00027129
-0.00028743 -0.0022885 -0.00068795 -0.00084869 -0.00046136 -0.0012612 -0.010871 0.011045
0.18714 0.15747 -0.0092727 0.0094185
-0.0002099 0.00037096 -0.00030665 -0.00076736 0.00012091 -0.00064417 0.0030289 0.00026117
-0.0092797 0.0094128 0.23555 0.22799
1640000000 0.29979 0.01518 0.00055053 0.011288 -0.0030712 -0.0026584 0.0027568 0.00084075
-0.0010038 -0.0016376 -0.00021713 0.00060169
0.00054453 0.011289 0.20785 0.26925 0.0059025 0.0028946 -0.00098369 -0.0016521
-0.00096216 -0.00015295 -0.00059146 -0.00051669
-0.0030827 -0.0026549 0.0059185 0.0028677 0.3045 -0.15911 -0.00040928 0.0017271
-0.001372 -0.00071482 -0.00022105 -0.00038922
0.0027565 0.00082603 -0.00099119 -0.0016447 -0.00041407 0.0017138 0.24298 0.046631
-0.0052866 0.01139 0.002833 -0.001419
-0.0010095 -0.0016255 -0.00095457 -0.00015346 -0.0013671 -0.00070913 -0.0052724 0.011414
0.20819 0.13189 -0.0036428 0.011178
-0.00021215 0.00060321 -0.00059172 -0.00052138 -0.00022993 -0.00038579 0.0028361 -0.0014261
-0.0036488 0.011179 0.25926 0.19585
1700000000 0.29065 -0.030005 0.0031998 0.0077645 -0.0037216 0.00028568 0.0029524 -0.001513
-0.0021865 -0.00053272 0.00070389 0.00026541
0.0031985 0.0077665 0.22501 0.23809 0.0037569 0.00017928 -0.0015514 -0.00036419
-0.00060039 0.00021312 -0.00088109 -0.00034573
-0.003725 0.00029724 0.0037623 0.00016181 0.26151 -0.19921 0.00087305 0.001434
-0.0020277 0.00012596 -0.00073323 -0.00081536
0.0029405 -0.001516 -0.0015598 -0.00035325 0.00086607 0.001438 0.23901 -0.00060213
-0.0017462 0.010585 0.0015976 -0.0026317
-0.0021942 -0.00052792 -0.00059568 0.00021799 -0.0020315 0.00012767 -0.0017296 0.010607
0.22383 0.11013 0.0014783 0.010824
0.00069708 0.0002666 -0.00088613 -0.00034403 -0.00073222 -0.00080493 0.0015902 -0.0026349
0.001473 0.01083 0.27411 0.16075
1760000000 0.27688 -0.07755 0.0043721 0.0042206 -0.0022679 0.0010489 0.00092883 -0.0035556
-0.0014477 0.00094711 0.00034102 -0.00044106
0.0043606 0.0042124 0.25005 0.19852 0.0014296 -0.0015308 -0.001155 0.00043382
-0.00084092 0.00080557 -0.00055514 0.00048804
-0.0022734 0.0010483 0.0014296 -0.0015401 0.2124 -0.23289 0.0012546 0.00069799
-0.0010016 0.0017762 -0.0014219 -0.0003044
0.00091978 -0.0035567 -0.0011547 0.0004406 0.0012632 0.00069872 0.23006 -0.049099
0.001282 0.008705 -0.00033509 -0.0029589
-0.001442 0.00095405 -0.00083714 0.00080725 -0.0010181 0.0017747 0.0012984 0.0087056
0.23629 0.07442 0.0055963 0.0075519
0.00033719 -0.00045217 -0.00054566 0.00048948 -0.0014395 -0.00029943 -0.00033809 -0.0029552
0.0056024 0.0075479 0.28499 0.12237
1820000000 0.25135 -0.11361 0.0036127 0.0010581 3.1216e-06 0.0024555 -0.0013015 -0.0028718
-0.00086135 0.0012006 -8.2733e-05 -2.1173e-05
0.0036149 0.0010657 0.25974 0.16928 -0.00047541 -0.00023873 -0.0010091 0.0010307
2.2097e-05 0.0010856 -0.00047466 0.00055243
1.2088e-05 0.0024487 -0.00047842 -0.00024629 0.16203 -0.2484 0.0013358 3.8904e-05
0.0002091 0.0022456 -0.001343 0.00067202
-0.0013267 -0.0028677 -0.001007 0.0010379 0.0013363 5.772e-05 0.2021 -0.09398
0.0023163 0.0063435 -0.0017486 -0.0019015
-0.00085702 0.0012091 2.3996e-05 0.0010893 0.00021083 0.0022478 0.0023318 0.0063426
0.25143 0.044956 0.0066263 0.00328
-8.0494e-05 -2.3743e-05 -0.00047383 0.00054917 -0.0013478 0.00069024 -0.0017536 -0.0018943
0.0066308 0.0032731 0.28626 0.085157
1880000000 0.21583 -0.15281 0.00086718 -0.00042029 -0.00053055 0.0021296 -0.0030068 -0.0018017
9.482e-05 0.0015995 0.00027083 -0.00050238
0.00087069 -0.00042393 0.2642 0.12282 -0.0025055 0.00151 3.3101e-05 0.0015787
0.00044824 0.0010032 0.00021095 0.00086456
-0.00052307 0.0021412 -0.0025067 0.0015136 0.1093 -0.25865 0.0013444 -0.0010049
0.001827 0.0016111 -0.00055666 0.0014429
-0.0030188 -0.0017962 3.1591e-05 0.001579 0.0013505 -0.0009837 0.16412 -0.1343
0.0025625 0.0040103 -0.0026047 -1.2857e-05
8.8887e-05 0.0016016 0.00046085 0.00099166 0.0018339 0.0016143 0.0025747 0.0040134
0.25241 0.011738 0.0061453 0.00045337
0.0002612 -0.00049917 0.00021169 0.00085716 -0.00057734 0.0014263 -0.0026051 -3.8639e-06
0.0061444 0.00044764 0.28453 0.050279
1940000000 0.17651 -0.17793 -0.0013694 -0.0011924 0.0012177 0.0021813 -0.003533 0.00087104
0.0015324 0.00078633 -0.00041891 -0.00066964
-0.0013616 -0.0012018 0.26447 0.091434 -0.0013778 0.0037955 0.00095132 0.0010085
0.0015577 0.00048743 0.00092053 0.00033893
0.0012048 0.0021462 -0.001349 0.0038032 0.062606 -0.25162 0.00011325 -0.00177
0.0021685 2.8593e-05 0.00061726 0.0016071
-0.003523 0.00087995 0.00095667 0.0010028 0.00011322 -0.0017648 0.11343 -0.16546
0.0013438 0.0025942 -0.0019269 0.0011946
0.0015405 0.00078668 0.0015584 0.00046783 0.0021733 2.0357e-05 0.0013468 0.0025935
0.25227 -0.027014 0.0044139 -0.0030523
-0.00042791 -0.0006672 0.00092907 0.00031515 0.00062682 0.0016028 -0.0019263 0.0011981
0.0044261 -0.0030614 0.27173 0.013494
2000000000 0.13037 -0.19247 -0.0046522 0.0013669 0.0026239 0.0018411 -0.0020887 0.0035437
0.0010122 -3.6074e-05 -0.00066138 0.000313
-0.0046509 0.0013672 0.25071 0.055724 -0.0012178 0.0056351 0.0013486 0.00023503
0.0012124 -0.0010979 0.00058002 -4.8931e-05
0.0026 0.0018325 -0.0011729 0.0056467 0.018593 -0.2372 -0.00098266 -0.00097516
0.0016023 -0.0011897 0.0018283 0.00090749
-0.0020781 0.0035517 0.0013561 0.00022304 -0.00099861 -0.00096076 0.060935 -0.17765
-0.00065281 0.0022041 -0.00057411 0.0021754
0.001024 -4.4372e-05 0.0012174 -0.0011212 0.0015885 -0.0012063 -0.00064252 0.0022188
0.24492 -0.060974 0.00059183 -0.0043248
