!Keysight Technologies,M9804A,MY58100912,A.14.10.03
!Date: Thursday, April 27, 2023 10:28:33
!Correction: S11(C  6-Port  ) 
!S12(C  6-Port  ) 
!S13(C  6-Port  ) 
!S14(C  6-Port  ) 
!S15(C  6-Port  ) 
!S16(C  6-Port  ) 
!S21(C  6-Port  ) 
!S22(C  6-Port  ) 
!S23(C  6-Port  ) 
!S24(C  6-Port  ) 
!S25(C  6-Port  ) 
!S26(C  6-Port  ) 
!S31(C  6-Port  ) 
!S32(C  6-Port  ) 
!S33(C  6-Port  ) 
!S34(C  6-Port  ) 
!S35(C  6-Port  ) 
!S36(C  6-Port  ) 
!S41(C  6-Port  ) 
!S42(C  6-Port  ) 
!S43(C  6-Port  ) 
!S44(C  6-Port  ) 
!S45(C  6-Port  ) 
!S46(C  6-Port  ) 
!S51(C  6-Port  ) 
!S52(C  6-Port  ) 
!S53(C  6-Port  ) 
!S54(C  6-Port  ) 
!S55(C  6-Port  ) 
!S56(C  6-Port  ) 
!S61(C  6-Port  ) 
!S62(C  6-Port  ) 
!S63(C  6-Port  ) 
!S64(C  6-Port  ) 
!S65(C  6-Port  ) 
!S66(C  6-Port  ) 
!S6P File: Measurement: :
# Hz S  RI   R 50
500000000 -0.33892 -0.020877 -0.010658 -0.0038779 -0.0074013 0.012079 -0.003404 0.01279
0.0117 0.0038319 -0.0025822 0.0091474
-0.010195 -0.0038568 -0.4191 -0.038844 0.0064316 -0.012064 0.0017951 0.012386
0.0071912 0.0024147 0.0025943 0.013472
-0.0071032 0.011636 0.006442 -0.011688 -0.26316 0.22034 0.0074047 0.0033147
-0.00055011 0.008507 0.0030623 0.011181
-0.003023 0.012217 0.0018562 0.012556 0.0073577 0.003309 -0.33181 0.059468
-0.020612 -0.0066748 0.01453 0.024662
0.010901 0.0041998 0.0074951 0.0022256 -0.00045267 0.0084762 -0.020497 -0.0066355
-0.23431 -0.16911 -0.026334 0.0044595
-0.002102 0.0087475 0.0028206 0.013521 0.003167 0.011268 0.014539 0.024579
-0.026407 0.0044229 -0.28324 -0.086032
560000000 -0.31292 0.13483 -0.025669 -0.060603 0.0011058 0.011229 0.0048742 0.0099116
0.0097541 0.0038761 0.010801 0.0072075
-0.025268 -0.060869 -0.37525 0.11739 -0.042506 -0.035082 0.013031 0.0036482
-0.012319 -0.0041575 0.0030457 -0.00072107
0.00086127 0.011268 -0.042571 -0.035155 -0.18069 0.26591 -0.00023631 -0.0049387
0.018964 0.0046027 0.0065529 -0.0067344
0.0050207 0.0094459 0.013199 0.0030628 -0.00011988 -0.0050832 -0.30558 0.14623
0.0006674 -0.024475 0.0035722 -0.018811
0.0096697 0.0033448 -0.012652 -0.0038528 0.019247 0.0044937 0.00074315 -0.024318
-0.28751 0.0047094 0.0039796 -0.047328
0.011553 0.0070988 0.0038494 -0.0010859 0.0064376 -0.0067569 0.0035936 -0.018748
0.0040446 -0.047331 -0.32905 0.052092
620000000 -0.27049 0.12084 -0.023252 0.0073384 0.003521 0.0079938 0.0074647 -0.0053309
0.011167 -0.001279 0.0010095 -0.0026554
-0.023186 0.0073 -0.40124 0.071511 -0.019495 0.00052024 -0.0010263 -0.0022035
0.010289 -0.0063085 0.0012768 -0.0028014
0.0037161 0.0078349 -0.01972 0.00038571 -0.14988 0.27565 -0.0010052 -0.0048867
-0.0035688 -0.0029879 0.0079223 -0.0033567
0.0072819 -0.0054909 -0.001197 -0.0023214 -0.0010576 -0.0050363 -0.26317 0.15802
-0.040197 -0.017343 0.011878 0.023811
0.011248 -0.00077526 0.010379 -0.0062755 -0.0034717 -0.0027715 -0.040108 -0.017532
-0.21096 -0.032742 -0.038924 0.014783
0.0010424 -0.0020331 0.0013082 -0.002823 0.0081093 -0.00341 0.011809 0.023926
-0.038914 0.014712 -0.2565 0.022997
680000000 -0.22749 0.20287 -0.02761 -0.012593 0.0054563 0.0046354 0.0011591 -0.0072859
-0.0027698 -0.010957 0.0038704 -0.006891
-0.027579 -0.012278 -0.38469 0.16576 -0.03232 0.00028991 -0.0014831 -0.00045053
-0.0024114 -0.0087809 -0.0012316 -0.0024069
0.0053065 0.004663 -0.032249 0.00038658 -0.099026 0.29332 -0.0011069 -0.00024878
-0.0017856 0.00011078 -0.0033171 -0.0087982
0.0017715 -0.0077982 -0.0015171 -0.00058924 -0.0010473 -0.0002786 -0.21769 0.20599
-0.025864 -0.0045905 -0.0091227 -0.0093079
-0.0023139 -0.011221 -0.002529 -0.0088187 -0.001744 0.00019423 -0.025732 -0.0046845
-0.25174 0.063811 -0.0075015 -0.006991
0.0040142 -0.0068685 -0.0014397 -0.0022022 -0.0033853 -0.0087691 -0.0092919 -0.0092889
-0.0074862 -0.0070136 -0.25446 0.12001
740000000 -0.18472 0.19702 -0.036907 0.026096 0.012006 -0.0057574 -0.00073295 -0.0040088
-0.0043419 -0.0031715 -0.0059502 0.0033149
-0.037036 0.026223 -0.33335 0.18537 -0.033127 0.034904 -0.0011888 -0.0063919
-0.01163 0.0078234 -0.0021443 -0.0053408
0.012017 -0.0058601 -0.03317 0.035156 -0.065245 0.29293 -0.0015977 0.0030515
-0.00319 -0.0044366 -0.0018695 0.0012595
-0.00065458 -0.0038499 -0.0012072 -0.0063051 -0.0016208 0.003041 -0.1998 0.21492
-0.042595 -0.0029448 0.022251 0.012509
-0.0048155 -0.0034506 -0.011764 0.0079734 -0.0031068 -0.0044944 -0.042614 -0.0030063
-0.15809 0.08583 -0.039295 0.0035108
-0.0058022 0.0033566 -0.0018704 -0.0051251 -0.0019132 0.0012807 0.022218 0.012536
-0.03933 0.0034989 -0.24316 0.12995
800000000 -0.15104 0.23542 -0.021674 0.017485 0.004556 -0.010337 -0.0045691 -0.0017005
-0.0036903 0.0025565 0.0037453 0.00066267
-0.021808 0.017537 -0.33385 0.25393 -0.0068336 0.03371 -0.0023967 0.0022636
-0.00065994 0.0031736 0.00096681 0.0052878
0.0045697 -0.010309 -0.0067659 0.033837 -0.022761 0.31509 0.00083584 0.001645
0.00027082 0.003514 -0.0018167 0.0011347
-0.0045487 -0.0017505 -0.0024168 0.0022401 0.0008368 0.0016817 -0.16944 0.24125
-0.027069 0.016613 0.012717 -0.0099814
-0.0039418 0.0027831 -0.00065811 0.0033775 0.00037952 0.0035709 -0.027152 0.016727
-0.19622 0.11308 -0.016199 0.019006
0.0038308 0.00070311 0.0010135 0.0054723 -0.0018479 0.0011396 0.012717 -0.0099949
-0.016206 0.018957 -0.23075 0.17524
860000000 -0.11608 0.25569 -0.016128 0.031096 -0.0038197 -0.0094562 -0.0020526 0.0011957
0.0044484 0.0046378 -0.0025357 -0.0024906
-0.016001 0.030961 -0.28648 0.29495 0.009165 0.033227 0.00035937 0.0022097
0.0046819 -5.3614e-05 0.0032914 0.00048695
-0.0038727 -0.0094443 0.0092368 0.033211 0.02572 0.32212 -0.00041674 -0.00011443
0.002718 -0.0012993 0.001901 0.00417
-0.0018468 0.0012194 0.00026117 0.0023439 -0.00041609 -7.2004e-05 -0.13263 0.25165
-0.014945 0.020725 -0.0054034 -0.0090605
0.004821 0.0048815 0.0044138 -0.00011208 0.0026532 -0.0012661 -0.015036 0.020756
-0.14317 0.15915 -0.021668 0.01709
-0.0030468 -0.0023011 0.0033719 0.0004629 0.001914 0.0040634 -0.0053192 -0.00899
-0.021711 0.017036 -0.1816 0.21515
920000000 -0.08936 0.2774 0.0063131 0.036934 -0.009317 -0.0037006 -0.0012946 0.001857
0.0015503 0.0015123 0.0026059 -0.0019857
0.0063366 0.036951 -0.2559 0.31604 0.028221 0.020328 0.0018046 0.0009121
0.007228 -0.00072017 0.003544 -0.0031466
-0.009196 -0.0037202 0.028294 0.020289 0.073323 0.32203 0.0019964 -0.00020154
0.0016784 -0.00073391 0.00079137 -0.0011637
-0.001348 0.001831 0.0018821 0.00093371 0.0019718 -0.00015591 -0.10664 0.26773
-0.0072488 0.031009 0.002458 -0.0063658
0.001651 0.0013701 0.0071702 -0.00069476 0.0016745 -0.00071342 -0.0072062 0.030987
-0.12976 0.16398 -0.00064598 0.025571
0.0025504 -0.0017955 0.0035544 -0.002925 0.00081512 -0.0010922 0.0024449 -0.0063285
-0.00068173 0.025548 -0.18222 0.23123
980000000 -0.042417 0.29499 0.018584 0.02872 -0.0083418 0.004846 0.0021093 0.0028386
0.0039049 -0.0019005 -0.0033389 -0.002071
0.018619 0.028613 -0.20401 0.34823 0.032486 0.0032739 0.0020774 -0.00041297
0.0015501 -0.0061023 -0.00063686 -0.0021828
-0.0083051 0.0048943 0.032504 0.0031953 0.11988 0.31382 0.00042338 -0.0013467
8.9919e-05 -0.0023559 0.0014009 -0.00026652
0.0019883 0.0028829 0.0021225 -0.00040146 0.00042748 -0.0013268 -0.067781 0.27714
0.010834 0.028806 -0.0085235 -0.0062246
0.0036168 -0.0019914 0.0014589 -0.0061909 -3.8215e-06 -0.0022718 0.010924 0.028762
-0.098282 0.1891 0.0062955 0.018529
-0.0028576 -0.0018467 -0.00068608 -0.0021735 0.0013851 -0.00024115 -0.0085601 -0.0062
0.006302 0.018522 -0.13791 0.26954
1040000000 0.00024725 0.30234 0.032967 0.016026 -0.0010026 0.0066993 0.0022885 0.00058134
9.0216e-05 -0.0032142 -0.00086016 -0.001417
0.032901 0.01604 -0.16805 0.3614 0.027703 -0.015644 0.0012337 -0.0018499
-0.0023138 -0.0024708 -0.0014547 -0.0026663
-0.00099228 0.0067028 0.02772 -0.015703 0.16636 0.29924 -0.00065623 -0.0014213
-0.0016062 -0.00083958 -0.0004697 -0.0011289
0.0023813 0.0004954 0.0013112 -0.0017706 -0.00066781 -0.0014193 -0.038932 0.2865
0.02142 0.015794 -0.0026175 0.0011821
0.00013355 -0.0032817 -0.0023317 -0.0024885 -0.0016344 -0.00088818 0.021496 0.015791
-0.065569 0.19548 0.013949 0.015858
-0.00088266 -0.0012933 -0.0014851 -0.0027809 -0.00045386 -0.0010971 -0.0026159 0.0012005
0.013929 0.015879 -0.11332 0.28963
1100000000 0.046036 0.3085 0.034583 -0.0056508 0.0028934 0.0035774 0.0021693 -0.0011065
-0.0019169 -0.0028258 -0.0036251 0.00039188
0.034546 -0.005642 -0.12428 0.3778 0.013537 -0.027548 -0.00018277 -0.0017695
-0.003283 -0.0004742 -0.0033454 -0.00030838
0.0028908 0.003557 0.013513 -0.027602 0.21324 0.27695 -0.001823 0.00024629
-0.0017757 0.00061222 -0.00089 -0.00026521
0.0021686 -0.0011058 -0.00019545 -0.0017827 -0.0017964 0.00022692 0.0026528 0.28909
0.025148 0.0022898 -0.0024075 0.00014837
-0.0018557 -0.0028042 -0.0032594 -0.0004847 -0.0017743 0.00057888 0.025175 0.0022366
-0.046784 0.20717 0.018594 0.0060853
-0.0035967 0.00037662 -0.0032851 -0.00037872 -0.00092154 -0.00033593 -0.0023566 0.00012173
0.018578 0.0060802 -0.066237 0.31354
1160000000 0.096917 0.30226 0.022257 -0.021411 0.0023963 -0.00044897 -0.00013592 -0.0020737
-0.0039492 -0.00054031 -0.00073654 0.0037693
0.022265 -0.02135 -0.079914 0.38131 -0.0048959 -0.027961 -0.0016172 -0.0014727
-0.0024685 0.0024701 -0.0014019 0.0017372
0.0024355 -0.00045249 -0.0049703 -0.027929 0.25551 0.24448 -0.00072419 0.0017441
-0.00047045 0.0019053 -0.00078075 0.00015314
-0.00020169 -0.0021514 -0.0016654 -0.0014212 -0.00073908 0.0017759 0.041983 0.28405
0.020423 -0.013016 -0.0031679 0.004359
-0.0039945 -0.00054807 -0.0024993 0.0024947 -0.00043723 0.0019651 0.020413 -0.013031
-0.013449 0.21393 0.01679 -0.0018906
-0.00056812 0.0037755 -0.0013237 0.001764 -0.00083805 0.00019217 -0.0031647 0.0043731
0.016765 -0.0018954 -0.019714 0.31459
1220000000 0.1418 0.28945 0.0086089 -0.029503 -0.0014814 -0.00044841 5.4466e-05 -0.0008812
-0.0023292 0.0023231 0.0012427 0.0018779
0.0086066 -0.029439 -0.03545 0.39208 -0.017078 -0.019659 -0.0024017 0.00049383
0.00010569 0.0028982 -0.00055351 0.0019658
-0.0014688 -0.00044089 -0.017145 -0.019624 0.29408 0.20431 0.00079353 0.0017802
0.00065576 0.0012503 0.0002993 0.00062691
0.00010954 -0.00091043 -0.0023856 0.00050444 0.00077933 0.0017574 0.082234 0.27328
0.0091132 -0.019052 0.0013789 0.0014219
-0.0023096 0.0022104 7.2258e-05 0.0028834 0.00063522 0.0011989 0.0090673 -0.019076
0.01047 0.2208 0.011763 -0.013509
0.0012576 0.0018871 -0.00056055 0.0019598 0.0003013 0.00060514 0.0014036 0.0014261
0.01176 -0.013492 0.01383 0.32689
1280000000 0.19048 0.26573 -0.0089239 -0.027089 -0.0015231 0.0027136 -0.00098018 -0.0018872
-0.00065297 0.0029339 0.0023431 0.0008598
-0.0089016 -0.027088 0.010232 0.38204 -0.0231 -0.0073765 -0.00089996 0.0013988
0.0016653 0.0016698 0.00069668 0.0018081
-0.0015029 0.0027288 -0.023138 -0.0073109 0.32339 0.15917 0.0015735 4.1009e-05
0.0011833 0.00027156 0.00029978 0.00011399
-0.0010281 -0.0019032 -0.00091644 0.0013681 0.0015792 3.0281e-05 0.11794 0.25415
-0.00091034 -0.020333 -0.00062714 0.00048593
-0.00067491 0.0028968 0.001686 0.0016451 0.0011845 0.0002329 -0.0009477 -0.02036
0.046857 0.22223 0.0012685 -0.014933
0.0023884 0.00082828 0.00074543 0.0018218 0.00031158 0.00013028 -0.00063724 0.00050981
0.001289 -0.014929 0.059777 0.32466
1340000000 0.22684 0.23081 -0.017903 -0.017277 0.0012833 0.0041687 -0.0016263 -0.00087817
0.0014733 0.0024347 0.001416 -0.0014844
-0.017852 -0.017255 0.049378 0.37287 -0.020539 0.0048011 -0.00016239 0.0019669
0.0019 0.00069196 0.0013132 0.00060788
0.0012811 0.0041707 -0.020523 0.0048374 0.34434 0.11108 0.0012796 -0.0010252
0.00064995 -0.00047327 6.0263e-05 0.00022904
-0.0015641 -0.00088628 -0.00011438 0.0019655 0.0012729 -0.0010309 0.14907 0.23226
-0.010541 -0.016624 0.00051434 0.0011989
0.0014114 0.0025429 0.0019444 0.00070596 0.00063536 -0.00053243 -0.010558 -0.016637
0.076342 0.21583 -0.0051828 -0.012768
0.0014145 -0.0014676 0.001333 0.00064429 0.00010147 0.00023354 0.00051405 0.0012011
-0.0051787 -0.012768 0.098454 0.31705
1400000000 0.25901 0.1913 -0.02261 -0.0060478 0.0051678 0.0026322 -0.0020289 0.00052487
0.0022986 0.00080318 8.7327e-05 -0.0013563
-0.022584 -0.0060757 0.086182 0.35901 -0.013782 0.012228 0.0013517 0.0013652
0.0012098 -0.00078351 0.0010887 7.5126e-05
0.0051796 0.0025787 -0.01374 0.012313 0.35706 0.057137 0.00011563 -0.0018125
8.0001e-05 -0.00041873 0.00029436 0.00018765
-0.0020538 0.00048441 0.0013452 0.0013388 0.00011424 -0.0018196 0.1772 0.20173
-0.016117 -0.0094001 -0.00043296 0.00050496
0.002298 0.00081822 0.0011855 -0.00080622 7.3167e-05 -0.00038253 -0.016151 -0.0093737
0.10856 0.209 -0.011003 -0.0076238
9.5516e-05 -0.0012601 0.001097 8.4576e-05 0.00029829 0.00018391 -0.00043466 0.00049511
-0.010996 -0.0076406 0.14156 0.30298
1460000000 0.2802 0.14662 -0.019291 0.0052997 0.0053033 -0.0021958 -0.0015696 0.0016172
0.0019355 -0.00060183 -0.00035721 -0.00085577
-0.019307 0.0052614 0.11976 0.33664 -0.0055427 0.014612 0.0017478 0.00015509
0.00082368 -0.0013194 0.0010713 -0.00059323
0.0052699 -0.002199 -0.0054943 0.01464 0.36167 0.0024531 -0.0014327 -0.001406
0.00023076 -0.00021619 0.00056913 -0.00029151
-0.0015989 0.0015778 0.0017513 0.00014287 -0.0014285 -0.0013875 0.20092 0.1716
-0.016973 -0.00218 -0.00021888 0.0022362
0.0019162 -0.00068818 0.00082647 -0.0013183 0.00025228 -0.00020079 -0.017005 -0.002151
0.13644 0.19281 -0.011867 -0.0017119
-0.00035072 -0.00084404 0.0010658 -0.00060577 0.00057493 -0.00027452 -0.00020214 0.0022532
-0.011872 -0.0017236 0.17331 0.28021
1520000000 0.29132 0.10401 -0.013526 0.010282 0.0028096 -0.0041325 6.2532e-05 0.0025912
0.0019273 -0.0016219 -0.001035 -8.7665e-05
-0.013525 0.010247 0.15297 0.32147 0.0015656 0.012435 0.0016875 -0.00085905
-5.4168e-05 -0.0011438 0.00024582 -0.0009019
0.0027467 -0.0041384 0.0016327 0.012409 0.35443 -0.053806 -0.0014048 -0.00028835
0.00049334 -0.00093754 -4.0611e-05 -0.00011515
5.2092e-05 0.0026017 0.0016796 -0.00085484 -0.001428 -0.00029017 0.22203 0.13369
-0.015734 0.0039062 0.0020001 0.0019045
0.0018656 -0.0016276 -6.5352e-05 -0.0011266 0.00046819 -0.00092522 -0.015742 0.0039653
0.16347 0.17718 -0.011336 0.0026942
-0.0011447 -9.6822e-05 0.00026185 -0.00090551 -3.4902e-05 -0.00012232 0.0020024 0.001889
-0.011338 0.0026791 0.20533 0.25733
1580000000 0.29917 0.057653 -0.0072531 0.012893 -0.0011414 -0.0045419 0.0014755 0.0019451
-0.00016982 -0.0020635 -0.00024737 0.00034597
-0.0072363 0.012874 0.17969 0.29608 0.0049183 0.007773 0.00045314 -0.001695
-0.00060737 -0.0010352 -0.0001957 -0.00077345
-0.0011729 -0.004494 0.00493 0.0077474 0.33367 -0.11169 -0.0016496 0.0010221
-0.00037373 -0.0010948 0.00026934 -0.0005695
0.0015042 0.0019596 0.0004394 -0.0016803 -0.0016534 0.00099218 0.23369 0.094626
-0.011884 0.0089073 0.0024812 0.00035385
-0.00020129 -0.0020279 -0.00061975 -0.0010254 -0.00037714 -0.0011098 -0.011871 0.0089512
0.18618 0.15749 -0.0088535 0.0077713
-0.00024617 0.0003551 -0.00021482 -0.00078327 0.00022733 -0.00056176 0.0024864 0.00033472
-0.0088549 0.0077696 0.23515 0.2289
1640000000 0.29988 0.016061 -0.00098868 0.011537 -0.0027331 -0.0023009 0.0027955 0.00096983
-0.00076901 -0.001545 -0.00029512 0.00062832
-0.0010141 0.011511 0.20872 0.27082 0.005514 0.0034684 -0.00082392 -0.0016522
-0.0010723 -0.00028215 -0.00051403 -0.00057379
-0.0027825 -0.0022775 0.0055138 0.003432 0.30406 -0.16017 -0.0005581 0.0016801
-0.001209 -0.00081769 -9.4783e-05 -0.00029013
0.0028231 0.00093789 -0.00084861 -0.001662 -0.00054581 0.0016757 0.2441 0.047514
-0.0071877 0.010294 0.0025353 -0.0011216
-0.00072996 -0.0015104 -0.0010672 -0.0002776 -0.0012064 -0.00084635 -0.0071655 0.010321
0.20704 0.13215 -0.004034 0.0094671
-0.00028281 0.00071076 -0.00052376 -0.00053972 -0.00011779 -0.00026982 0.0025191 -0.0011255
-0.0040517 0.009476 0.2592 0.19651
1700000000 0.29147 -0.029316 0.0020817 0.0087372 -0.003186 0.0002975 0.002953 -0.0014044
-0.0019786 -0.00066791 0.00063372 0.00039184
0.0020665 0.0087233 0.22654 0.23899 0.0036592 0.00075704 -0.0014957 -0.00048383
-0.00071134 0.00029813 -0.00083345 -0.00038852
-0.0032323 0.00027524 0.0036735 0.00076918 0.26057 -0.19987 0.00077972 0.0015294
-0.0018527 5.117e-05 -0.0005052 -0.00073382
0.0029445 -0.0014724 -0.0014908 -0.00047451 0.00080334 0.0015122 0.24041 -0.00044504
-0.0037827 0.010742 0.0014162 -0.002347
-0.0019213 -0.00070002 -0.00072648 0.00029094 -0.0018435 3.5691e-05 -0.0037672 0.010759
0.22285 0.11097 0.00045756 0.0095402
0.00070022 0.00038422 -0.00084168 -0.00037295 -0.00052035 -0.00073548 0.0014149 -0.0023543
0.00046154 0.0095462 0.27385 0.16105
1760000000 0.27785 -0.077553 0.0040093 0.0056106 -0.0020229 0.00086757 0.00096613 -0.0034708
-0.0014731 0.00068703 0.00047124 -0.00039812
0.0039926 0.0056424 0.25171 0.19851 0.0016525 -0.001057 -0.0011879 0.0002939
-0.00085838 0.00093406 -0.00058911 0.00049776
-0.002026 0.00089463 0.0016406 -0.0010521 0.21168 -0.23297 0.0014848 0.00076353
-0.0010518 0.0016064 -0.0014435 -0.00031339
0.0009586 -0.0035055 -0.001174 0.00030991 0.0014987 0.00077957 0.23117 -0.049827
-0.00020609 0.0098496 -0.00035093 -0.0025631
-0.0015009 0.00067815 -0.00084535 0.00095155 -0.0010672 0.0016061 -0.00018851 0.0098484
0.23545 0.075512 0.0041712 0.0068794
0.00047589 -0.00032286 -0.00058963 0.00051699 -0.0014053 -0.0002216 -0.00034105 -0.002563
0.0041662 0.0068807 0.28444 0.12254
1820000000 0.25207 -0.11419 0.003985 0.0023518 8.2583e-05 0.0023563 -0.001199 -0.0028697
-0.0010002 0.0010801 9.4636e-05 -6.8391e-05
0.0040221 0.0023544 0.26107 0.16846 -0.00016233 -3.9311e-05 -0.0011216 0.0010361
0.00012413 0.0012477 -0.00048832 0.00053623
8.3473e-05 0.0023132 -0.00012825 -4.0047e-05 0.16151 -0.24836 0.0012956 8.8715e-06
9.5889e-05 0.0021976 -0.0013247 0.0004314
-0.0011858 -0.0028524 -0.0011355 0.0010535 0.0013379 -5.3165e-06 0.20253 -0.09521
0.0017316 0.0077895 -0.0016914 -0.0015558
-0.0010325 0.0011043 0.00013821 0.0012289 0.00010691 0.0022088 0.0017736 0.0077943
0.25107 0.046202 0.0050717 0.003398
6.0294e-05 -0.00021742 -0.000467 0.00057106 -0.0013421 0.00048292 -0.0017042 -0.0015406
0.0050681 0.0033963 0.28542 0.085497
1880000000 0.21588 -0.1538 0.0018439 0.00035449 -0.00031796 0.001906 -0.0029418 -0.001902
-7.1269e-05 0.0016867 0.00022972 -0.0006155
0.0018347 0.00033786 0.26493 0.1215 -0.0022586 0.0016544 -2.7598e-05 0.0016284
0.00065045 0.00096819 0.00020464 0.00091542
-0.0002615 0.0019329 -0.0022338 0.0016486 0.10826 -0.25833 0.0012986 -0.00099805
0.001649 0.0016827 -0.00071585 0.0014531
-0.0028544 -0.0019155 -2.6474e-05 0.0016373 0.0012748 -0.00095715 0.16359 -0.13555
0.0027445 0.0053905 -0.0022723 0.00023331
1.3393e-05 0.0017336 0.00062892 0.00094111 0.001639 0.0017145 0.0027641 0.0053855
0.25248 0.013085 0.0048701 0.0012382
0.00023769 -0.00058214 0.00020793 0.00091082 -0.00073745 0.0014171 -0.0022728 0.0002396
0.0048715 0.0012331 0.28366 0.050857
1940000000 0.17576 -0.17878 -0.00021733 -0.0010614 0.0015532 0.0019773 -0.003542 0.00064199
0.0016499 0.0010174 -0.00056452 -0.00070098
-0.00024382 -0.0010747 0.2645 0.090061 -0.0010877 0.0039666 0.0010084 0.001053
0.0016538 0.00034266 0.00088742 0.00030398
0.001613 0.0019329 -0.0010906 0.0039941 0.061596 -0.25094 0.00017346 -0.0017319
0.002231 0.00020724 0.00040986 0.0015862
-0.0034853 0.00071004 0.0010022 0.0010466 0.00012872 -0.001764 0.11215 -0.16621
0.0020442 0.0034227 -0.0014279 0.0012128
0.001624 0.001059 0.0016648 0.00031655 0.0021915 0.00018724 0.0020577 0.0034209
0.25291 -0.02585 0.0036723 -0.0018139
-0.00060712 -0.00066168 0.00089925 0.00027137 0.00044445 0.0015751 -0.0014144 0.0012136
0.0036698 -0.0018112 0.27106 0.014564
2000000000 0.12942 -0.1928 -0.0039195 0.00099773 0.0024306 0.0013954 -0.0021957 0.0033521
0.0013155 -4.3843e-05 -0.0005771 0.00032289
-0.0038633 0.0010039 0.25011 0.054521 -0.00086349 0.0057444 0.0014616 0.00027917
0.0010638 -0.00124 0.00039126 -6.0279e-05
0.0024153 0.0014448 -0.00079902 0.0056776 0.018222 -0.23574 -0.001056 -0.00084256
0.001594 -0.0011909 0.0016922 0.00094447
-0.0021143 0.0032852 0.0014656 0.0002464 -0.0010389 -0.0008505 0.059484 -0.17761
0.00026301 0.0026104 -0.00019049 0.0020143
0.0012823 -8.4609e-05 0.001046 -0.0012693 0.0015841 -0.0012103 0.00027531 0.0026146
0.2459 -0.060123 0.00049149 -0.0028987
