!Keysight Technologies,M9804A,MY58100912,A.14.10.03
!Date: Thursday, April 27, 2023 10:28:33
!Correction: S11(C  6-Port  ) 
!S12(C  6-Port  ) 
!S13(C  6-Port  ) 
!S14(C  6-Port  ) 
!S15(C  6-Port  ) 
!S16(C  6-Port  ) 
!S21(C  6-Port  ) 
!S22(C  6-Port  ) 
!S23(C  6-Port  ) 
!S24(C  6-Port  ) 
!S25(C  6-Port  ) 
!S26(C  6-Port  ) 
!S31(C  6-Port  ) 
!S32(C  6-Port  ) 
!S33(C  6-Port  ) 
!S34(C  6-Port  ) 
!S35(C  6-Port  ) 
!S36(C  6-Port  ) 
!S41(C  6-Port  ) 
!S42(C  6-Port  ) 
!S43(C  6-Port  ) 
!S44(C  6-Port  ) 
!S45(C  6-Port  ) 
!S46(C  6-Port  ) 
!S51(C  6-Port  ) 
!S52(C  6-Port  ) 
!S53(C  6-Port  ) 
!S54(C  6-Port  ) 
!S55(C  6-Port  ) 
!S56(C  6-Port  ) 
!S61(C  6-Port  ) 
!S62(C  6-Port  ) 
!S63(C  6-Port  ) 
!S64(C  6-Port  ) 
!S65(C  6-Port  ) 
!S66(C  6-Port  ) 
!S6P File: Measurement: :
# Hz S  RI   R 50
500000000 -0.33943 -0.021381 -0.01113 -0.0034303 -0.0082868 0.012963 -0.003565 0.012468
0.011655 0.0038001 -0.0034818 0.0087644
-0.011102 -0.0033696 -0.41934 -0.039599 0.0061735 -0.011381 0.0019195 0.012501
0.0073575 0.0023325 0.0021318 0.013989
-0.0082106 0.012915 0.0061273 -0.0114 -0.26383 0.22081 0.007047 0.0037811
-0.001119 0.0079994 0.0018499 0.012071
-0.0035015 0.012392 0.0019096 0.012512 0.0070296 0.0037824 -0.33122 0.058642
-0.020726 -0.0062164 0.015629 0.024401
0.011754 0.0036896 0.0073467 0.0022914 -0.0011054 0.0080188 -0.020735 -0.0061906
-0.23504 -0.17084 -0.026278 0.0041805
-0.0033098 0.0085982 0.0022444 0.013951 0.0018093 0.011976 0.015636 0.02441
-0.026288 0.0041569 -0.28171 -0.089897
560000000 -0.31383 0.13502 -0.026617 -0.060564 0.00066733 0.011688 0.0052963 0.0099589
0.0093899 0.0044252 0.010615 0.007479
-0.026367 -0.060656 -0.37599 0.1164 -0.042136 -0.035006 0.013498 0.0039122
-0.012246 -0.0032958 0.0029904 -0.0012447
0.0007578 0.011661 -0.04221 -0.034982 -0.18168 0.26667 -0.00011389 -0.0041241
0.018527 0.0038817 0.0065601 -0.0060473
0.0054478 0.0097475 0.013419 0.0039623 -3.1296e-05 -0.0042103 -0.30608 0.14659
0.00031406 -0.023234 0.0034791 -0.018807
0.0095399 0.0042977 -0.012313 -0.0036151 0.01876 0.0039548 0.000287 -0.023275
-0.28975 0.0016275 0.0039497 -0.046873
0.010582 0.0076519 0.0031646 -0.0011278 0.0064856 -0.0059746 0.0034773 -0.018813
0.0039649 -0.046865 -0.33032 0.05149
620000000 -0.27145 0.12075 -0.023367 0.0077567 0.0040051 0.008205 0.0072651 -0.0053604
0.011178 -0.0010156 0.00063568 -0.0026038
-0.02334 0.0077582 -0.40163 0.071276 -0.019392 0.00082848 -0.0010569 -0.0022771
0.010477 -0.0062157 0.0014904 -0.0023578
0.0039759 0.0082432 -0.019387 0.00082291 -0.14993 0.27603 -0.00093207 -0.0047756
-0.0035146 -0.0028759 0.0083966 -0.0031109
0.0072276 -0.0054211 -0.0010794 -0.0022742 -0.00090855 -0.0047541 -0.26349 0.15844
-0.040857 -0.017334 0.012203 0.024441
0.011109 -0.0011783 0.010462 -0.0062336 -0.0034917 -0.0028906 -0.04084 -0.017333
-0.21055 -0.034118 -0.039842 0.015343
0.0005124 -0.0027524 0.0015003 -0.0024441 0.0083286 -0.0029369 0.012238 0.024483
-0.039863 0.015287 -0.25581 0.022204
680000000 -0.22854 0.20325 -0.027712 -0.011967 0.0056228 0.0047054 0.0012234 -0.0072655
-0.0027 -0.010814 0.0045271 -0.0069724
-0.02774 -0.01198 -0.38489 0.16588 -0.032188 0.00052998 -0.0012095 -0.00041786
-0.0024151 -0.0089186 -0.0013017 -0.0020075
0.0055771 0.0047364 -0.03218 0.00057095 -0.098601 0.29375 -0.00089165 -0.00035737
-0.0015713 0.00016099 -0.0034597 -0.0087511
0.0013114 -0.0073679 -0.0012238 -0.00043814 -0.00089147 -0.00036406 -0.21781 0.20634
-0.026061 -0.0047348 -0.0092826 -0.0081293
-0.0028417 -0.010849 -0.0024512 -0.0089891 -0.0015933 0.0001457 -0.02609 -0.0047396
-0.25328 0.064256 -0.0072602 -0.0064373
0.0044396 -0.0070084 -0.0013263 -0.0020573 -0.0035141 -0.0088147 -0.009308 -0.0081233
-0.0072722 -0.0064437 -0.25486 0.11849
740000000 -0.18456 0.19828 -0.03651 0.026728 0.012426 -0.0057575 -0.00058496 -0.0040258
-0.0045154 -0.0032477 -0.0057935 0.0030544
-0.036576 0.026675 -0.33293 0.18541 -0.033084 0.035232 -0.0011086 -0.0063561
-0.011925 0.0079068 -0.0021419 -0.0054328
0.012394 -0.0057514 -0.032997 0.035284 -0.06514 0.29249 -0.0017054 0.003168
-0.0032823 -0.0046596 -0.0019539 0.00111
-0.00057611 -0.0040322 -0.0011288 -0.0063625 -0.0017342 0.0031581 -0.19952 0.21493
-0.042565 -0.0027466 0.0227 0.012934
-0.0044814 -0.0031154 -0.011779 0.0079189 -0.0031104 -0.0046018 -0.042612 -0.0026933
-0.1581 0.085863 -0.039926 0.0044143
-0.0058212 0.0031297 -0.0021348 -0.0054179 -0.0020346 0.0012288 0.022721 0.012938
-0.03993 0.0043707 -0.24384 0.12838
800000000 -0.15023 0.23586 -0.020945 0.017626 0.0048128 -0.010531 -0.0044913 -0.0017727
-0.0035331 0.0025322 0.0034353 0.00041108
-0.021014 0.017583 -0.33348 0.2538 -0.006578 0.033687 -0.0023081 0.0023046
-0.00056385 0.0033353 0.0010918 0.0052637
0.0047812 -0.010494 -0.0065018 0.033713 -0.022588 0.31445 0.00079154 0.0017046
0.00033482 0.0035249 -0.001784 0.0011044
-0.0045333 -0.0017332 -0.0023013 0.0023086 0.00079184 0.0017112 -0.16925 0.24124
-0.026935 0.017035 0.013141 -0.010073
-0.0035174 0.0025578 -0.00055595 0.0033125 0.00034183 0.0035298 -0.026949 0.017099
-0.19646 0.11295 -0.016056 0.019609
0.0034645 0.00031948 0.0010963 0.0051947 -0.0017762 0.0011464 0.013129 -0.010104
-0.016065 0.019592 -0.23134 0.17508
860000000 -0.11571 0.25559 -0.015599 0.0308 -0.0036516 -0.0097049 -0.0020686 0.0011242
0.0042085 0.0045512 -0.0028018 -0.0024356
-0.015706 0.030785 -0.28627 0.2948 0.0092686 0.033327 3.2237e-05 0.0022951
0.004239 0.00027392 0.0029785 0.00042708
-0.0036737 -0.0096924 0.0093444 0.033293 0.02543 0.32164 -0.00047454 -3.3706e-05
0.0024885 -0.0014412 0.0017834 0.0041161
-0.0021036 0.0011752 3.0525e-05 0.0023155 -0.00046623 -1.8782e-05 -0.13242 0.25189
-0.015194 0.021139 -0.0053071 -0.0089221
0.0043138 0.0044917 0.0042637 0.00022124 0.0025148 -0.0014304 -0.015185 0.021184
-0.14333 0.15942 -0.021601 0.016897
-0.0028414 -0.0024505 0.0029117 0.00032094 0.0017565 0.0040835 -0.00532 -0.0089178
-0.0216 0.016885 -0.1822 0.21557
920000000 -0.089249 0.27709 0.0064726 0.036556 -0.0093981 -0.0040989 -0.0013555 0.0016911
0.001304 0.0015556 0.0025908 -0.001785
0.0064123 0.036545 -0.25602 0.31524 0.02841 0.0203 0.0017283 0.0010136
0.0071316 -0.0007751 0.0036773 -0.0029651
-0.0093964 -0.0040446 0.028463 0.020244 0.072812 0.32181 0.0019192 -0.00019176
0.0015363 -0.00048171 0.00088482 -0.0011725
-0.0013387 0.0017027 0.0017484 0.0010175 0.0019275 -0.00018876 -0.10652 0.26771
-0.006938 0.031525 0.0029291 -0.006541
0.0013314 0.0015785 0.0071163 -0.00080388 0.0015652 -0.00049633 -0.0068903 0.031575
-0.1302 0.16501 0.00045198 0.026269
0.0026124 -0.0016605 0.0037068 -0.0029459 0.00086307 -0.0011885 0.0029277 -0.0065426
0.00043662 0.02626 -0.18252 0.23015
980000000 -0.042515 0.29455 0.018559 0.028361 -0.0086536 0.0047365 0.0019995 0.0030105
0.0040139 -0.0017931 -0.0030859 -0.0021074
0.018536 0.02836 -0.20415 0.34757 0.032807 0.0032339 0.002098 -0.00034131
0.0017097 -0.0062722 -0.0005469 -0.002397
-0.0086263 0.0047569 0.032816 0.0031412 0.1195 0.31402 0.00049618 -0.0012738
7.8965e-05 -0.0023472 0.0012351 -0.00030271
0.00194 0.0029407 0.002136 -0.00034867 0.00045867 -0.0012764 -0.06728 0.27694
0.011594 0.028837 -0.0084449 -0.0066682
0.0040813 -0.001794 0.0016917 -0.0063218 9.131e-05 -0.0023462 0.011662 0.028841
-0.097413 0.18901 0.00668 0.018416
-0.0029813 -0.0020872 -0.00056245 -0.0023995 0.0012805 -0.00031715 -0.0084541 -0.0066589
0.0066631 0.018408 -0.13887 0.26893
1040000000 0.0002311 0.30198 0.033053 0.015711 -0.0012396 0.0067037 0.0022867 0.00054149
7.9537e-05 -0.0032004 -0.00084299 -0.0014029
0.033012 0.015763 -0.16852 0.36092 0.028048 -0.01595 0.001358 -0.0018472
-0.0024096 -0.0025714 -0.0016027 -0.0027555
-0.0011907 0.00671 0.028009 -0.016026 0.1663 0.29962 -0.00062833 -0.0015283
-0.0016347 -0.00094285 -0.00050081 -0.0010652
0.0022537 0.00052269 0.0013719 -0.0018541 -0.00062709 -0.0015196 -0.03907 0.28589
0.021859 0.01563 -0.0027081 0.00070694
5.2787e-05 -0.003234 -0.0024421 -0.0025659 -0.0016087 -0.00092198 0.0219 0.015607
-0.065074 0.19485 0.014398 0.015768
-0.00083826 -0.0014692 -0.0015977 -0.002753 -0.00050006 -0.0010677 -0.0027143 0.00071446
0.01438 0.015769 -0.11423 0.28876
1100000000 0.045752 0.30824 0.034646 -0.0058674 0.0026995 0.0036706 0.002036 -0.00093546
-0.0019455 -0.0027145 -0.0036376 0.00060435
0.034612 -0.0058308 -0.12487 0.37751 0.013591 -0.028039 -0.00018599 -0.0017627
-0.0035056 -0.00053997 -0.0034233 -0.00013976
0.0027258 0.0036592 0.013529 -0.028096 0.21355 0.27728 -0.0019135 0.0002399
-0.0019305 0.00060903 -0.0010511 -0.00018402
0.0020172 -0.00094986 -0.00018885 -0.001766 -0.0019137 0.00023834 0.0022722 0.28877
0.025702 0.0019224 -0.0028373 -5.8546e-05
-0.0019608 -0.0027096 -0.0035132 -0.00054077 -0.0019385 0.00060773 0.02573 0.0018829
-0.04668 0.2063 0.018846 0.0062477
-0.0035928 0.00058038 -0.0034038 -0.00013421 -0.0010543 -0.00021902 -0.0028366 -5.3344e-05
0.018837 0.0062609 -0.067398 0.31355
1160000000 0.096388 0.30208 0.022086 -0.021774 0.0022699 -0.00032816 -9.0445e-05 -0.0018994
-0.0038868 -0.00047863 -0.00067393 0.0038547
0.02211 -0.021756 -0.080693 0.38153 -0.005173 -0.028399 -0.0016689 -0.0014951
-0.0026613 0.0026875 -0.001412 0.0017384
0.0022873 -0.00035932 -0.0052818 -0.028406 0.25608 0.24449 -0.00077151 0.0018376
-0.00041347 0.002038 -0.00085755 0.00020467
-9.1123e-05 -0.0019073 -0.0016684 -0.0015036 -0.00078758 0.0018403 0.041494 0.28407
0.020604 -0.013615 -0.0031709 0.0042911
-0.0038265 -0.00043945 -0.0026578 0.0026644 -0.00041494 0.0020288 0.020615 -0.013658
-0.013612 0.2126 0.017632 -0.0021333
-0.00066264 0.0038138 -0.0013842 0.0017192 -0.00083804 0.00021286 -0.0031647 0.0042944
0.017615 -0.0021269 -0.020523 0.31424
1220000000 0.1412 0.2895 0.0082187 -0.029796 -0.001621 -0.00026218 0.00022651 -0.0008718
-0.0023819 0.0022928 0.001347 0.0018677
0.0082522 -0.029763 -0.035923 0.39258 -0.017595 -0.019889 -0.0024337 0.00051285
9.491e-05 0.003101 -0.00052237 0.0020338
-0.001605 -0.00027679 -0.017677 -0.019831 0.29457 0.20366 0.00080656 0.0018987
0.00069249 0.0012865 0.00043403 0.00060442
0.00021507 -0.00084856 -0.0024267 0.00053021 0.00081015 0.0018925 0.081956 0.27357
0.0090665 -0.019832 0.0012246 0.001392
-0.0023195 0.0023161 0.00011474 0.0031082 0.00069376 0.0012948 0.009062 -0.019845
0.010051 0.21958 0.012049 -0.014269
0.0013626 0.0018629 -0.00051404 0.0020366 0.00043053 0.00060775 0.0012322 0.0013916
0.012046 -0.014267 0.012861 0.32654
1280000000 0.19008 0.26604 -0.0095055 -0.027201 -0.0015358 0.0029719 -0.00090051 -0.0020221
-0.00069198 0.0029619 0.0023811 0.00087045
-0.009468 -0.02718 0.010222 0.3827 -0.023724 -0.0072754 -0.00096804 0.0014228
0.0018909 0.0017535 0.00080816 0.0018269
-0.0015325 0.0029699 -0.02376 -0.0071792 0.32346 0.15824 0.0017698 5.8897e-05
0.0012318 0.0002269 0.00029471 0.00017193
-0.00090392 -0.0020177 -0.00096087 0.0014366 0.0017687 5.8151e-05 0.1179 0.25439
-0.0015425 -0.021105 -0.00084452 0.000613
-0.00065893 0.0029225 0.001893 0.0017374 0.0012637 0.00024388 -0.0015822 -0.021108
0.045804 0.22112 0.0010987 -0.015912
0.0023826 0.00086438 0.00082681 0.0018166 0.0003213 0.00016603 -0.0008354 0.00062628
0.0011152 -0.015914 0.058773 0.32482
1340000000 0.22664 0.23119 -0.018511 -0.016948 0.0014908 0.0043774 -0.0017138 -0.00098501
0.0014399 0.0025568 0.0015473 -0.001499
-0.018453 -0.016955 0.049782 0.37327 -0.020882 0.005242 -7.8847e-05 0.002011
0.0020894 0.00062339 0.0013861 0.00063537
0.0014789 0.0043609 -0.020883 0.0053212 0.34387 0.11022 0.0013263 -0.0010666
0.0006829 -0.00056946 1.2987e-05 0.00027266
-0.0016876 -0.00099116 -7.9148e-05 0.0020179 0.0013195 -0.0010569 0.14928 0.23239
-0.011376 -0.017092 0.00030844 0.0013973
0.0014562 0.0025672 0.0020877 0.00061866 0.00069816 -0.00056056 -0.011418 -0.017094
0.075285 0.21503 -0.0057868 -0.01368
0.0015101 -0.0015253 0.0013784 0.00063958 1.8577e-05 0.00027919 0.00030565 0.0013953
-0.0057727 -0.013685 0.097791 0.31721
1400000000 0.25897 0.19166 -0.022955 -0.0054175 0.0054466 0.0027453 -0.0021653 0.0005537
0.0023871 0.00086527 0.00013119 -0.0014172
-0.022909 -0.0054746 0.086772 0.35912 -0.013823 0.012805 0.0013906 0.0012725
0.0012414 -0.0010033 0.0011292 6.6458e-06
0.0054376 0.0027111 -0.013792 0.012869 0.35608 0.056528 8.5033e-05 -0.0020696
6.1036e-06 -0.00046051 0.00031775 0.00019417
-0.002143 0.00055918 0.0013955 0.0012717 8.4182e-05 -0.0020586 0.17734 0.20165
-0.017307 -0.0091969 -0.00052265 0.00085978
0.0024016 0.0008361 0.0012331 -0.0009849 -6.3301e-06 -0.0004618 -0.017342 -0.0091768
0.10708 0.20878 -0.012029 -0.0079799
0.00011344 -0.0014002 0.0011362 3.4664e-06 0.000334 0.00020285 -0.00052559 0.00085357
-0.012013 -0.0079888 0.14085 0.30295
1460000000 0.28039 0.14679 -0.019264 0.0061024 0.0055767 -0.002276 -0.0016131 0.0017112
0.0020499 -0.00056499 -0.00038972 -0.00087589
-0.019247 0.0060443 0.12025 0.33635 -0.0051723 0.01513 0.0017694 0.00010174
0.00069496 -0.0014489 0.0010406 -0.00061361
0.0055536 -0.002281 -0.0051453 0.015158 0.36062 0.0025314 -0.0016432 -0.0014192
0.00013476 -0.00022389 0.00063726 -0.00033749
-0.0016436 0.0016987 0.0017689 0.00010393 -0.001621 -0.0014146 0.20112 0.17143
-0.017924 -0.0012964 -6.5098e-05 0.0025999
0.0020079 -0.0006057 0.00068176 -0.0014493 0.00011524 -0.00022394 -0.017946 -0.001271
0.135 0.19304 -0.012895 -0.0014889
-0.00037171 -0.00086541 0.0010384 -0.0006339 0.00063946 -0.00031368 -7.5681e-05 0.0025975
-0.012885 -0.0015042 0.17261 0.28022
1520000000 0.29164 0.10406 -0.013072 0.010911 0.0030131 -0.0043353 0.00014708 0.0026792
0.0020536 -0.0017246 -0.0011278 -8.9578e-05
-0.013086 0.010846 0.15321 0.32095 0.002049 0.01261 0.0016674 -0.00089922
-0.00017545 -0.001108 0.00022608 -0.00091233
0.002988 -0.0043339 0.0021006 0.012598 0.35363 -0.05328 -0.0015335 -0.00019524
0.00047589 -0.00097509 1.9984e-05 -0.00016214
0.00014845 0.0026662 0.0016616 -0.00090815 -0.0015221 -0.00019155 0.22206 0.13338
-0.015989 0.0052054 0.0022853 0.0021374
0.0020273 -0.0017305 -0.00018192 -0.0011071 0.0004947 -0.0009697 -0.015996 0.0052375
0.16236 0.17776 -0.01216 0.0033843
-0.0010845 -7.7905e-05 0.00021851 -0.00091116 2.4355e-05 -0.00015291 0.0022857 0.0021342
-0.012158 0.0033829 0.20451 0.2574
1580000000 0.29939 0.05724 -0.0065019 0.013147 -0.0011234 -0.0048261 0.0015938 0.0019057
-0.00015333 -0.0022091 -0.00028309 0.00036186
-0.0065351 0.013131 0.17963 0.29545 0.0053758 0.0077043 0.0003881 -0.0017251
-0.00066128 -0.00089372 -0.00024886 -0.00078063
-0.0011388 -0.0047888 0.0054109 0.0076817 0.33318 -0.11089 -0.0016281 0.0011042
-0.0004019 -0.0011115 0.00016094 -0.00064131
0.0015895 0.0019058 0.00038197 -0.0017219 -0.0016224 0.0011139 0.23349 0.09429
-0.011354 0.01015 0.002864 0.00033454
-0.00017373 -0.0021799 -0.00067079 -0.00088827 -0.00041446 -0.0011168 -0.011349 0.010184
0.18544 0.15829 -0.009182 0.0087374
-0.00024911 0.00033712 -0.00025103 -0.00078106 0.00015779 -0.0006495 0.0028715 0.00032633
-0.0091852 0.0087289 0.23421 0.22924
1640000000 0.29983 0.015716 -0.00025501 0.011338 -0.0029114 -0.0025528 0.0027757 0.00082986
-0.00083875 -0.001661 -0.00020713 0.00062937
-0.00028866 0.011343 0.20829 0.27033 0.0057583 0.0031729 -0.00089165 -0.0016493
-0.00097555 -0.00017028 -0.00051779 -0.00053409
-0.0028992 -0.0025139 0.0057787 0.0031511 0.304 -0.15948 -0.00044245 0.0016865
-0.0012841 -0.00078801 -0.00023547 -0.00022636
0.0027778 0.00082838 -0.0008975 -0.0016438 -0.00044188 0.0016932 0.24362 0.047253
-0.0061777 0.010974 0.0027782 -0.0013274
-0.00083018 -0.0016404 -0.00098398 -0.00017341 -0.0012799 -0.00080618 -0.0061627 0.011003
0.20677 0.13301 -0.0038587 0.010492
-0.00020339 0.00060716 -0.00051949 -0.00053157 -0.00023854 -0.00020445 0.0027702 -0.0013343
-0.0038618 0.010493 0.25843 0.19712
1700000000 0.2909 -0.029611 0.0025705 0.0082217 -0.0034961 0.00025546 0.0029233 -0.0014804
-0.0021225 -0.00069574 0.00071166 0.00031572
0.0025462 0.0082467 0.22592 0.23877 0.0038354 0.0004352 -0.0014917 -0.000466
-0.00058965 0.00021203 -0.00086868 -0.00041624
-0.0034868 0.00026018 0.0038238 0.00040292 0.26116 -0.19903 0.00083915 0.0014144
-0.0018777 4.4645e-05 -0.00068502 -0.00077046
0.0029304 -0.0014857 -0.0015048 -0.00045759 0.0008371 0.0014158 0.23979 -0.00037986
-0.002652 0.010704 0.0015481 -0.0025166
-0.0020997 -0.00066307 -0.00059784 0.00021803 -0.0018744 3.0414e-05 -0.0026412 0.010726
0.22274 0.11152 0.0010797 0.010349
0.0006845 0.00032148 -0.00088721 -0.00040796 -0.00068005 -0.00077846 0.0015413 -0.0025283
0.0010865 0.010341 0.27334 0.16187
1760000000 0.27719 -0.077484 0.004114 0.0048789 -0.0022943 0.00091701 0.00093108 -0.0035569
-0.0015325 0.00077546 0.00039618 -0.00051505
0.0041014 0.0049201 0.25105 0.19864 0.0015829 -0.0014603 -0.0011887 0.00031383
-0.00083527 0.00079912 -0.00055652 0.00045687
-0.0022788 0.00092795 0.0015672 -0.0014673 0.21224 -0.23294 0.001386 0.00065102
-0.0010458 0.0016787 -0.0013895 -0.0001755
0.00092321 -0.0035487 -0.0011886 0.00032388 0.0013606 0.00065176 0.23064 -0.049349
0.00065604 0.0092505 -0.00030372 -0.0027627
-0.0014955 0.00077935 -0.00083382 0.00080472 -0.0010372 0.0016581 0.00067282 0.0092744
0.23556 0.075796 0.0050606 0.0073401
0.00038422 -0.00048294 -0.00055729 0.00046298 -0.0013522 -0.0001704 -0.00030651 -0.0027574
0.0050526 0.007338 0.28433 0.12347
1820000000 0.25177 -0.11369 0.0037809 0.0017748 -5.1997e-05 0.0024646 -0.0012899 -0.0028552
-0.0010282 0.0011615 -7.6069e-05 -7.1783e-05
0.0037876 0.0017991 0.26061 0.16896 -0.00037101 -0.00026466 -0.001149 0.0010341
5.6855e-05 0.001091 -0.00051558 0.0005403
-2.851e-05 0.0024824 -0.00038072 -0.00025362 0.16175 -0.24852 0.0011999 -3.2796e-05
0.00017042 0.0022159 -0.0013375 0.0005507
-0.0013216 -0.0028528 -0.0011339 0.0010377 0.0012179 -3.8146e-05 0.20243 -0.094446
0.0021453 0.0070616 -0.0015847 -0.0017783
-0.0010441 0.0011471 6.7178e-05 0.001088 0.00019131 0.0022079 0.0021637 0.0070753
0.2511 0.046226 0.0060136 0.00336
-4.4938e-05 -6.1715e-05 -0.00051069 0.00054642 -0.0013358 0.00056515 -0.0015892 -0.0017782
0.0060076 0.0033592 0.28557 0.086083
1880000000 0.21571 -0.15329 0.0013309 2.1838e-05 -0.00040307 0.0020815 -0.0030281 -0.0017991
-9.0556e-05 0.0017842 0.00020534 -0.00045023
0.0013494 5.8272e-05 0.26469 0.12216 -0.0025194 0.0015477 -7.8949e-05 0.0016012
0.0004299 0.00094691 0.00016009 0.00092774
-0.00036097 0.002078 -0.0025092 0.0015597 0.10845 -0.25847 0.0013313 -0.0010079
0.0017012 0.0015637 -0.00074952 0.0014252
-0.0030283 -0.0017754 -6.0559e-05 0.0015954 0.0013265 -0.00097706 0.16383 -0.13502
0.0028039 0.0045032 -0.0024083 -3.7694e-05
-8.8847e-05 0.0017782 0.00044809 0.00094794 0.0016888 0.0015797 0.0028165 0.0045054
0.25238 0.013046 0.0056442 0.00073521
0.00022194 -0.0004379 0.00016603 0.00092408 -0.00072405 0.0014505 -0.0023935 -2.8988e-05
0.0056491 0.00073842 0.28377 0.051453
1940000000 0.17597 -0.17826 -0.00074116 -0.0011114 0.0015317 0.0020852 -0.0035135 0.00085671
0.0015412 0.0010247 -0.00054939 -0.0005531
-0.0007274 -0.0011066 0.2646 0.090767 -0.0013362 0.0039575 0.00091264 0.0011748
0.0014246 0.00046236 0.00083345 0.00032565
0.0015688 0.0020729 -0.0013199 0.0039692 0.061983 -0.25126 0.00014116 -0.0016398
0.0021814 0.00015367 0.00049156 0.0016489
-0.0035037 0.00084566 0.00092694 0.0011718 0.00013141 -0.0016092 0.11264 -0.16592
0.0016887 0.0028014 -0.0018378 0.00099589
0.0015568 0.0010141 0.0014348 0.00045281 0.0021715 0.00016288 0.0016925 0.0027975
0.25245 -0.026015 0.0041236 -0.0027269
-0.0005551 -0.00056156 0.00082592 0.00031243 0.0004663 0.0016396 -0.0018328 0.00099996
0.0041326 -0.0027251 0.27109 0.014728
2000000000 0.12968 -0.19246 -0.0042971 0.0010704 0.0026301 0.0015316 -0.0021498 0.0034328
0.0012334 -5.0781e-05 -0.00038819 0.00041775
-0.0042803 0.001069 0.2506 0.055188 -0.0010742 0.0058397 0.0015194 0.00032941
0.0011275 -0.00093196 0.00047363 5.447e-05
0.0026655 0.0015094 -0.0010354 0.0058502 0.018015 -0.2363 -0.00092795 -0.00089813
0.0016526 -0.00097183 0.0016699 0.0010009
-0.0020817 0.0034415 0.0015083 0.00032895 -0.00089937 -0.00089911 0.059808 -0.17749
-0.00038524 0.0021352 -0.00062198 0.0020983
0.0012147 -1.4834e-05 0.0011109 -0.00095359 0.0016605 -0.00098311 -0.00036377 0.0021363
0.24514 -0.060173 0.00047206 -0.003822
