!Keysight Technologies,M9804A,MY58100912,A.14.10.03
!Date: Thursday, April 27, 2023 10:28:33
!Correction: S11(C  6-Port  ) 
!S12(C  6-Port  ) 
!S13(C  6-Port  ) 
!S14(C  6-Port  ) 
!S15(C  6-Port  ) 
!S16(C  6-Port  ) 
!S21(C  6-Port  ) 
!S22(C  6-Port  ) 
!S23(C  6-Port  ) 
!S24(C  6-Port  ) 
!S25(C  6-Port  ) 
!S26(C  6-Port  ) 
!S31(C  6-Port  ) 
!S32(C  6-Port  ) 
!S33(C  6-Port  ) 
!S34(C  6-Port  ) 
!S35(C  6-Port  ) 
!S36(C  6-Port  ) 
!S41(C  6-Port  ) 
!S42(C  6-Port  ) 
!S43(C  6-Port  ) 
!S44(C  6-Port  ) 
!S45(C  6-Port  ) 
!S46(C  6-Port  ) 
!S51(C  6-Port  ) 
!S52(C  6-Port  ) 
!S53(C  6-Port  ) 
!S54(C  6-Port  ) 
!S55(C  6-Port  ) 
!S56(C  6-Port  ) 
!S61(C  6-Port  ) 
!S62(C  6-Port  ) 
!S63(C  6-Port  ) 
!S64(C  6-Port  ) 
!S65(C  6-Port  ) 
!S66(C  6-Port  ) 
!S6P File: Measurement: :
# Hz S  RI   R 50
500000000 -0.33998 -0.02047 -0.011603 -0.0033814 -0.0079704 0.01308 -0.0035396 0.012221
0.011173 0.0043448 -0.0033429 0.0087486
-0.011566 -0.0033832 -0.41935 -0.03981 0.005984 -0.011067 0.0018246 0.012405
0.0070999 0.0018231 0.0024366 0.013508
-0.0079276 0.013037 0.0059671 -0.011071 -0.26399 0.22198 0.0070663 0.003863
-0.0015179 0.0079421 0.002158 0.011772
-0.0034936 0.012151 0.0018405 0.012303 0.0070395 0.0038433 -0.33166 0.058956
-0.020366 -0.0064623 0.015493 0.02418
0.01115 0.0041415 0.007166 0.002047 -0.0013332 0.0079854 -0.020407 -0.0063752
-0.23545 -0.16833 -0.026469 0.0042661
-0.0031735 0.0087522 0.0025653 0.013545 0.002123 0.011827 0.015438 0.024214
-0.026533 0.0042438 -0.28264 -0.0873
560000000 -0.31419 0.1351 -0.026745 -0.060002 0.00061987 0.011954 0.0049389 0.0096958
0.0088475 0.0045552 0.010451 0.0073746
-0.026664 -0.059929 -0.37559 0.11759 -0.042633 -0.034685 0.013171 0.004046
-0.012359 -0.0045442 0.0028582 -0.00024911
0.0006465 0.011953 -0.042688 -0.03462 -0.18125 0.26777 0.00028324 -0.0047012
0.01941 0.0050905 0.0063118 -0.0065857
0.0050368 0.0097407 0.013165 0.003946 0.00029114 -0.0046252 -0.30653 0.14723
0.00074563 -0.024073 0.0030711 -0.018721
0.0087888 0.0046418 -0.012474 -0.0044591 0.019521 0.0050126 0.0007593 -0.024175
-0.28855 0.0054418 0.0033548 -0.047146
0.010437 0.0073773 0.0028705 -0.00029927 0.0062752 -0.0065707 0.0028788 -0.018726
0.0034185 -0.047171 -0.33013 0.052535
620000000 -0.27147 0.12131 -0.023724 0.007986 0.0041436 0.0082356 0.0074368 -0.0048224
0.01131 -0.0014713 0.00065041 -0.0024465
-0.023703 0.0079785 -0.40185 0.071324 -0.019449 0.00090525 -0.00084263 -0.0020927
0.010194 -0.0064762 0.0016225 -0.0025805
0.004173 0.0082276 -0.019463 0.00094998 -0.14989 0.27746 -0.0010948 -0.0049027
-0.0031216 -0.0028133 0.0083336 -0.0034621
0.0072582 -0.0047579 -0.00081954 -0.0021264 -0.0010456 -0.0049701 -0.26347 0.15864
-0.040247 -0.016662 0.012194 0.024007
0.011409 -0.0016347 0.01019 -0.006471 -0.0030561 -0.0027945 -0.040307 -0.016541
-0.21119 -0.033537 -0.039964 0.016357
0.0006432 -0.0023267 0.0016592 -0.0026648 0.0079446 -0.0034986 0.012117 0.023886
-0.039929 0.016328 -0.25642 0.024568
680000000 -0.22885 0.2042 -0.027647 -0.011776 0.0055953 0.0045191 0.0011022 -0.0071474
-0.0027007 -0.010858 0.0041559 -0.0065761
-0.02763 -0.011789 -0.38494 0.1662 -0.031919 0.00043257 -0.0013027 -0.00071319
-0.0022136 -0.0089509 -0.0012872 -0.0021622
0.0056028 0.0045121 -0.031935 0.00048432 -0.097953 0.29436 -0.00092856 -0.00058305
-0.0013185 4.9339e-06 -0.0032916 -0.0085086
0.0010559 -0.0071235 -0.0013354 -0.00070028 -0.000955 -0.00059181 -0.21723 0.20657
-0.025987 -0.0043789 -0.0091425 -0.0085046
-0.0026989 -0.010801 -0.0022434 -0.0089913 -0.0013981 -9.7546e-05 -0.026178 -0.0042978
-0.2523 0.065208 -0.0068469 -0.0062339
0.0042033 -0.0066187 -0.0012495 -0.0021946 -0.0032204 -0.0085398 -0.0090296 -0.0085849
-0.0067907 -0.0062113 -0.2553 0.12086
740000000 -0.18422 0.19873 -0.03624 0.026622 0.012333 -0.0059708 -0.00048447 -0.004239
-0.0044293 -0.0027586 -0.0059639 0.0029219
-0.036243 0.026577 -0.33253 0.18576 -0.032641 0.035289 -0.0011226 -0.0065515
-0.011451 0.0079357 -0.0020246 -0.0052361
0.01234 -0.0059684 -0.032574 0.035342 -0.064455 0.29322 -0.0017071 0.0030783
-0.0032907 -0.0046268 -0.0019315 0.00099955
-0.00054219 -0.0042455 -0.0011036 -0.0065634 -0.001716 0.0030923 -0.19941 0.21534
-0.042174 -0.0027226 0.02231 0.01282
-0.004384 -0.0028972 -0.011411 0.0079001 -0.0032245 -0.0046755 -0.042192 -0.0026732
-0.15705 0.085975 -0.039698 0.0045637
-0.0058114 0.0028897 -0.001851 -0.0052977 -0.0018556 0.0010797 0.022404 0.012784
-0.039727 0.0046231 -0.24297 0.13043
800000000 -0.1503 0.23586 -0.020686 0.017438 0.0047294 -0.010646 -0.0043406 -0.0017828
-0.0035837 0.0023243 0.0034446 0.00079242
-0.020674 0.017414 -0.33287 0.25402 -0.0063602 0.033411 -0.002347 0.0022069
-0.00059122 0.003243 0.0010786 0.0052992
0.0047154 -0.010648 -0.0062926 0.033439 -0.021757 0.31467 0.0007566 0.0018254
0.00040736 0.0035888 -0.00181 0.0011808
-0.0043268 -0.0017898 -0.0023425 0.0022258 0.00077094 0.0018225 -0.16879 0.24163
-0.026578 0.016697 0.012702 -0.010175
-0.0036423 0.0022214 -0.00054251 0.0032145 0.00043355 0.0035026 -0.026529 0.01675
-0.19562 0.1142 -0.015362 0.018898
0.0034623 0.00071869 0.0011282 0.0052486 -0.0017982 0.0011381 0.01273 -0.010189
-0.015414 0.018893 -0.23084 0.1761
860000000 -0.11504 0.25576 -0.01525 0.030704 -0.003632 -0.0095983 -0.0021157 0.0011375
0.0043037 0.0045847 -0.0026798 -0.0023412
-0.015257 0.030667 -0.28613 0.29474 0.0092265 0.033014 4.1348e-05 0.0021711
0.0043647 0.00010261 0.0030545 0.00052404
-0.0036489 -0.0095945 0.009298 0.033007 0.026143 0.32161 -0.00037161 2.4731e-05
0.0025357 -0.001319 0.001702 0.0039423
-0.0020914 0.0011365 6.0254e-05 0.002184 -0.00036137 8.5199e-06 -0.1321 0.25208
-0.015025 0.020752 -0.005308 -0.009021
0.0043773 0.0045341 0.0044156 0.00020825 0.0025794 -0.0013194 -0.014925 0.020902
-0.14252 0.15974 -0.021013 0.017072
-0.0027798 -0.0024459 0.0030279 0.0003051 0.0016817 0.0039222 -0.0053733 -0.0091996
-0.020993 0.016965 -0.18124 0.21608
920000000 -0.088694 0.27691 0.0065648 0.036226 -0.0092878 -0.0041239 -0.001476 0.001691
0.0013418 0.0016725 0.0027903 -0.0018879
0.0065449 0.036193 -0.25562 0.31511 0.028252 0.020131 0.0017405 0.0010126
0.0070753 -0.00067839 0.0037038 -0.0028555
-0.0093004 -0.0041121 0.02831 0.020093 0.073351 0.32174 0.0019744 -0.00016146
0.0015265 -0.0004817 0.00070015 -0.0010883
-0.00146 0.0016739 0.0017542 0.00097863 0.0019778 -0.00016544 -0.10585 0.26759
-0.0071394 0.030974 0.0027971 -0.0066068
0.0013497 0.0017029 0.0070224 -0.00063914 0.0015513 -0.00046179 -0.0070726 0.031031
-0.12933 0.16534 0.00016396 0.025863
0.0027609 -0.0018264 0.0037787 -0.0028864 0.00083209 -0.0010881 0.0028252 -0.0065892
0.00017747 0.025838 -0.18099 0.2316
980000000 -0.042047 0.29442 0.01851 0.027946 -0.0085102 0.0046061 0.0018929 0.0030239
0.004047 -0.0017134 -0.0033046 -0.002186
0.018483 0.027912 -0.2039 0.34733 0.032518 0.0030657 0.0020851 -0.00025676
0.0016544 -0.0061763 -0.00050743 -0.0024571
-0.0084911 0.0046101 0.032533 0.0030141 0.1199 0.31376 0.00048938 -0.0013047
4.3975e-05 -0.0023443 0.0012431 -0.000297
0.0018987 0.0030273 0.0020788 -0.00024839 0.00048846 -0.0012939 -0.066994 0.27658
0.011312 0.028335 -0.0083444 -0.006598
0.0040401 -0.0017191 0.0016511 -0.0061884 4.1762e-05 -0.0023325 0.011352 0.028301
-0.096788 0.18917 0.0064787 0.017957
-0.0032118 -0.0022176 -0.00056771 -0.002464 0.0011806 -0.00024139 -0.0083674 -0.0066564
0.00648 0.017971 -0.13766 0.27007
1040000000 0.00056823 0.30162 0.0328 0.015507 -0.00124 0.0065458 0.0022758 0.00057441
0.00017844 -0.0031679 -0.00089856 -0.0013998
0.032745 0.015498 -0.16838 0.36064 0.027765 -0.015815 0.0013999 -0.0018518
-0.0023436 -0.0026013 -0.001637 -0.0026696
-0.0012221 0.0065301 0.027746 -0.015862 0.1665 0.29936 -0.00060421 -0.0015185
-0.0016482 -0.00089726 -0.00061463 -0.0010388
0.0022635 0.00055651 0.0014092 -0.001845 -0.00060415 -0.0015203 -0.038805 0.28565
0.021236 0.015419 -0.0027162 0.00082693
0.00015418 -0.0032648 -0.0023648 -0.0026147 -0.0016505 -0.00093476 0.021317 0.015385
-0.06481 0.1952 0.014007 0.015405
-0.00080356 -0.001283 -0.0016469 -0.0027169 -0.0005654 -0.00096949 -0.0027297 0.00090868
0.013947 0.015406 -0.11272 0.28996
1100000000 0.045906 0.30778 0.034194 -0.0060224 0.002588 0.003602 0.0021384 -0.00085538
-0.0019264 -0.0027127 -0.0036022 0.00060468
0.034171 -0.0060072 -0.12486 0.37696 0.013496 -0.02775 -0.00013423 -0.0017336
-0.0034616 -0.00056085 -0.003292 -0.00018007
0.0025982 0.0035859 0.013436 -0.027795 0.21358 0.27705 -0.0018934 0.00022145
-0.0019194 0.00064552 -0.00098849 -3.4743e-05
0.0021274 -0.00086666 -0.00013135 -0.0017394 -0.0018899 0.00022098 0.0023451 0.2884
0.024879 0.002086 -0.0026882 4.982e-05
-0.001899 -0.0027147 -0.0034613 -0.00057695 -0.0019318 0.00065206 0.024897 0.0020739
-0.045962 0.2066 0.018425 0.0061718
-0.0035994 0.00065241 -0.0033263 -0.00018897 -0.00098057 -9.8813e-05 -0.0026866 2.4293e-05
0.018414 0.006185 -0.065672 0.314
1160000000 0.096371 0.30174 0.021714 -0.021585 0.0021352 -0.00026458 -7.3767e-06 -0.0019301
-0.0039016 -0.00056165 -0.00070774 0.0039312
0.021711 -0.021561 -0.080935 0.38103 -0.005113 -0.028216 -0.0016171 -0.0015537
-0.002661 0.002595 -0.0014724 0.0018037
0.0021373 -0.00027543 -0.005192 -0.028202 0.25602 0.2443 -0.00079933 0.0018257
-0.0004734 0.0020179 -0.00074526 0.00034065
5.6057e-06 -0.0019401 -0.0016388 -0.0015221 -0.00081441 0.001816 0.041398 0.28369
0.020207 -0.013055 -0.0031621 0.0043025
-0.0038893 -0.00053147 -0.0026714 0.0026358 -0.00044942 0.0020814 0.020198 -0.013059
-0.012937 0.21288 0.017171 -0.0021301
-0.00075704 0.0039274 -0.0014707 0.0018241 -0.00076724 0.00032742 -0.0031781 0.0043271
0.017167 -0.0021145 -0.019115 0.31456
1220000000 0.14104 0.28916 0.007933 -0.029441 -0.0017011 -0.00013763 0.00028345 -0.00091517
-0.0024158 0.0022731 0.0013066 0.0019102
0.0079508 -0.029424 -0.036447 0.39218 -0.017424 -0.019762 -0.0024284 0.00047009
9.6038e-05 0.0030388 -0.00051787 0.0019902
-0.0017013 -0.00013455 -0.017483 -0.019711 0.29453 0.2038 0.00078963 0.0019108
0.00074875 0.0012757 0.00042769 0.00054436
0.00028586 -0.00092413 -0.0024257 0.00046919 0.0007834 0.0018978 0.081686 0.27345
0.0090394 -0.019017 0.0011857 0.0014279
-0.0023933 0.0023013 0.00010288 0.0030693 0.00074627 0.0012642 0.0089953 -0.019033
0.010707 0.21974 0.011749 -0.013949
0.0013291 0.0018718 -0.00049742 0.0019691 0.00043637 0.00051627 0.001227 0.0014297
0.011725 -0.013944 0.014277 0.32665
1280000000 0.18979 0.26575 -0.0095098 -0.026809 -0.0014944 0.0031249 -0.00093361 -0.0020997
-0.00069366 0.0029251 0.0024164 0.00091955
-0.0094853 -0.026785 0.0094815 0.38249 -0.023478 -0.0073306 -0.0010683 0.001436
0.0017866 0.0017444 0.00077689 0.001802
-0.0014855 0.0031319 -0.023523 -0.0072677 0.32358 0.15857 0.0017023 4.2106e-05
0.0012312 0.00013191 0.00036086 8.0938e-05
-0.00094035 -0.0020893 -0.0010573 0.0014511 0.0017018 3.1582e-05 0.11753 0.2545
-0.0011074 -0.020344 -0.00078359 0.00059926
-0.00066041 0.0029088 0.0018146 0.0017373 0.0012429 0.00012613 -0.0011475 -0.02036
0.046298 0.22118 0.0010834 -0.015428
0.0024443 0.00089469 0.00082611 0.0017909 0.00042304 7.8541e-05 -0.00078838 0.00061071
0.0010852 -0.015428 0.060064 0.32458
1340000000 0.22634 0.23116 -0.018254 -0.016655 0.0015778 0.004494 -0.0017662 -0.00095311
0.0013734 0.0025181 0.0015517 -0.0014651
-0.018222 -0.016651 0.048938 0.37348 -0.020869 0.005142 -0.0001394 0.0020669
0.0020548 0.00060955 0.0013637 0.00062933
0.0015929 0.00449 -0.020861 0.005215 0.34409 0.11047 0.0013489 -0.0010387
0.00060511 -0.00055151 3.9231e-05 0.00017891
-0.0017733 -0.00094907 -0.00013042 0.0020673 0.0013543 -0.0010331 0.14908 0.23274
-0.010537 -0.016657 0.00040459 0.0013143
0.0014078 0.0025075 0.0020502 0.00061449 0.00060767 -0.00056224 -0.01058 -0.016671
0.075581 0.21516 -0.0056327 -0.013193
0.0015496 -0.001484 0.0013536 0.00064176 2.1397e-05 0.00023836 0.00039645 0.0013308
-0.0056291 -0.013204 0.098729 0.31681
1400000000 0.25863 0.19184 -0.022586 -0.0053339 0.005637 0.0027867 -0.0022349 0.00063842
0.0023153 0.00086783 0.00015225 -0.0014919
-0.022561 -0.0053409 0.086093 0.35969 -0.013857 0.012709 0.0013812 0.0013284
0.0012036 -0.00098556 0.0011004 3.808e-05
0.0056344 0.0027671 -0.013816 0.012767 0.3564 0.056779 0.0001255 -0.002079
2.882e-05 -0.00046322 0.00026461 0.00019279
-0.0022445 0.00063704 0.0013849 0.0013219 0.00012772 -0.002077 0.17738 0.20215
-0.016347 -0.0093245 -0.00044654 0.00072812
0.002325 0.00086017 0.0012119 -0.0010251 4.9139e-05 -0.00045767 -0.016383 -0.0092957
0.10754 0.20883 -0.011553 -0.0076173
0.00013683 -0.0014869 0.0010862 4.3191e-05 0.00023784 0.00018544 -0.00044937 0.00072738
-0.011543 -0.0076192 0.14178 0.30259
1460000000 0.28026 0.14719 -0.018873 0.0059699 0.0056826 -0.0023177 -0.0015738 0.0017743
0.0020157 -0.00051171 -0.00040035 -0.00090933
-0.018864 0.0059524 0.11993 0.33712 -0.0052521 0.015081 0.0018215 0.00014614
0.000702 -0.0013869 0.0010738 -0.00059389
0.0056702 -0.0023358 -0.0051953 0.015103 0.36101 0.0026939 -0.0016109 -0.0014647
9.7001e-05 -0.00019554 0.00061934 -0.00029418
-0.0015653 0.0017801 0.0018268 0.00014628 -0.0016159 -0.0014477 0.20135 0.17195
-0.017194 -0.0019254 -8.7713e-05 0.0024291
0.0020055 -0.00053008 0.00069128 -0.0013901 0.00012737 -0.00015213 -0.017209 -0.0018811
0.13545 0.19329 -0.012339 -0.001526
-0.000395 -0.00093983 0.0010708 -0.00060471 0.00056735 -0.00033445 -7.2886e-05 0.0024403
-0.012329 -0.0015222 0.17336 0.2799
1520000000 0.29182 0.10451 -0.012809 0.010612 0.0030743 -0.004442 0.00024088 0.0027052
0.0020518 -0.0016139 -0.0010985 -0.00012367
-0.012811 0.010596 0.15324 0.32178 0.0019952 0.012655 0.001704 -0.00092818
-0.00015185 -0.001089 0.00028423 -0.00091455
0.0030689 -0.0044518 0.0020405 0.012653 0.35405 -0.053312 -0.0015218 -0.0001742
0.00058928 -0.00090551 -1.0826e-05 -0.00014509
0.00025003 0.0027011 0.0016952 -0.00094007 -0.0015114 -0.00018323 0.2226 0.13375
-0.015739 0.0042291 0.0022106 0.0020632
0.0020619 -0.0016309 -0.000149 -0.0010861 0.00054926 -0.00088006 -0.015756 0.004273
0.16297 0.17798 -0.011686 0.0031426
-0.0011007 -0.00012218 0.00026801 -0.00092522 4.4338e-06 -0.000126 0.0022016 0.0020612
-0.01168 0.0031356 0.20532 0.25711
1580000000 0.29967 0.057529 -0.0064855 0.012758 -0.0011565 -0.0049444 0.0015993 0.0018462
-0.00014103 -0.0021775 -0.00025717 0.00040208
-0.0064769 0.012755 0.18001 0.29614 0.0053463 0.0077814 0.00037812 -0.0017525
-0.00061356 -0.00090576 -0.00017564 -0.00077908
-0.0011783 -0.0049359 0.0053856 0.0077683 0.33368 -0.1111 -0.0016107 0.0011262
-0.00032002 -0.0011103 0.00016183 -0.00054245
0.0016 0.0018495 0.00036688 -0.0017434 -0.0016117 0.0011266 0.23425 0.094431
-0.011748 0.0092494 0.0027739 0.00031028
-0.00017194 -0.0021929 -0.00062554 -0.00091247 -0.00032657 -0.0011212 -0.011732 0.0092759
0.18608 0.15832 -0.0088996 0.0082668
-0.00024099 0.00039867 -0.0001666 -0.00077481 0.00016567 -0.00055364 0.0027671 0.00032167
-0.0089058 0.0082661 0.23508 0.22877
1640000000 0.30034 0.015883 -0.00040034 0.0111 -0.0029398 -0.0025895 0.0027422 0.00080919
-0.0008023 -0.0016228 -0.00019662 0.00062432
-0.00040451 0.011106 0.20886 0.27082 0.0058142 0.0032176 -0.00089922 -0.001676
-0.00096964 -0.00024479 -0.00050882 -0.00059639
-0.0029497 -0.0025842 0.0058159 0.0031897 0.30433 -0.15969 -0.00043591 0.0016881
-0.0012033 -0.00079205 -0.00015067 -0.00027262
0.0027464 0.00080963 -0.00090149 -0.0016856 -0.00042379 0.0016903 0.24445 0.047109
-0.006942 0.010479 0.0026679 -0.0013225
-0.00078504 -0.0016216 -0.00098018 -0.00023076 -0.0012215 -0.00079486 -0.0069149 0.010498
0.20746 0.13307 -0.00389 0.010019
-0.00018818 0.00063356 -0.00050989 -0.00059987 -0.00016002 -0.00025592 0.0026592 -0.0013288
-0.0038869 0.010014 0.25906 0.19652
1700000000 0.29157 -0.029803 0.0023367 0.0081516 -0.0037004 0.00019731 0.0028884 -0.0015083
-0.0020413 -0.00074367 0.00069665 0.00027435
0.0023242 0.0081454 0.22662 0.23895 0.0038611 0.00035488 -0.0015451 -0.0004591
-0.00066663 0.00018666 -0.00090235 -0.00046308
-0.0036988 0.00020619 0.0038578 0.00033728 0.26145 -0.19962 0.00080568 0.0014334
-0.0019393 -5.5575e-05 -0.00061885 -0.00079573
0.0028784 -0.0015042 -0.0015462 -0.00044777 0.00078216 0.0014326 0.24053 -0.0010902
-0.0034865 0.010757 0.0014593 -0.0024861
-0.0020554 -0.00074381 -0.0006699 0.00018555 -0.0019554 -8.1346e-05 -0.0034652 0.010779
0.22359 0.11143 0.00080546 0.0099928
0.00067412 0.00026269 -0.00090575 -0.00047549 -0.00065933 -0.00081309 0.0014378 -0.0025159
0.00081293 0.0099888 0.27396 0.1611
1760000000 0.27774 -0.077949 0.0039811 0.004978 -0.0022733 0.0010039 0.00091334 -0.0035342
-0.0015402 0.00071455 0.00036062 -0.00048949
0.0039733 0.0049653 0.25173 0.1985 0.0016059 -0.0014912 -0.0011879 0.00032178
-0.00089594 0.00082792 -0.00063627 0.00042216
-0.0022674 0.0010064 0.0016047 -0.0015091 0.21229 -0.23346 0.00137 0.00070439
-0.0010795 0.0016699 -0.0014127 -0.00023931
0.00089904 -0.0035347 -0.0011841 0.00032815 0.0013597 0.00069439 0.23107 -0.050371
0.00010685 0.0097419 -0.00040747 -0.0026882
-0.0015546 0.00072925 -0.00090026 0.000825 -0.0010677 0.0016688 0.00014147 0.0097344
0.23636 0.07559 0.0046082 0.0071206
0.00035032 -0.00049825 -0.00063575 0.00042001 -0.0013738 -0.00029233 -0.00041958 -0.0026832
0.0046037 0.0071121 0.28476 0.12276
1820000000 0.25192 -0.11445 0.0037182 0.0018015 -5.7706e-05 0.002543 -0.0013011 -0.002881
-0.0011109 0.0010795 -8.9923e-05 -6.5298e-05
0.0037132 0.0018 0.26119 0.16855 -0.00044346 -0.00025838 -0.0011241 0.0010099
2.4436e-05 0.0011523 -0.00057719 0.00059441
-4.3949e-05 0.0025342 -0.00044638 -0.00025627 0.16128 -0.24861 0.0012858 2.9105e-05
1.9276e-05 0.0022238 -0.0013309 0.00059153
-0.0013098 -0.0028654 -0.0011208 0.0010206 0.0012876 2.8512e-05 0.2023 -0.095634
0.0019796 0.0076083 -0.0015881 -0.0016089
-0.0011215 0.001105 3.1783e-05 0.0011542 4.2084e-05 0.0022304 0.0019906 0.0076306
0.25193 0.046053 0.0056404 0.0033692
-9.2886e-05 -4.0413e-05 -0.0005726 0.00058705 -0.001345 0.00061317 -0.0015788 -0.00163
0.0056276 0.0033607 0.28581 0.085403
1880000000 0.21556 -0.15395 0.0012572 -1.506e-05 -0.00049883 0.0021892 -0.0029907 -0.0017902
-0.00016867 0.0017582 0.00025503 -0.00043276
0.0012577 -1.475e-05 0.26499 0.12149 -0.0025604 0.0015245 -8.15e-05 0.001624
0.00048191 0.0010192 0.00016833 0.0010122
-0.00047813 0.0021975 -0.0025542 0.0015356 0.10838 -0.25858 0.0012518 -0.00095556
0.001693 0.0016339 -0.00063897 0.0014126
-0.002989 -0.0017836 -7.5188e-05 0.001634 0.0012611 -0.000939 0.1632 -0.13596
0.0028735 0.0050013 -0.0023507 0.00010871
-0.00014725 0.0017775 0.00048686 0.0010176 0.0016346 0.0016288 0.0028903 0.0049873
0.25322 0.012447 0.0053118 0.00096619
0.00019952 -0.00043092 0.0001592 0.00098897 -0.00075449 0.0014036 -0.0023767 0.00012959
0.0053035 0.00096428 0.28394 0.050795
1940000000 0.17564 -0.17878 -0.00091458 -0.0011446 0.0015072 0.0021439 -0.0035028 0.00090788
0.0015128 0.001119 -0.00052361 -0.00054797
-0.00091551 -0.0011439 0.26456 0.090078 -0.0013439 0.0040753 0.00090893 0.001152
0.0015679 0.00045153 0.00090217 0.00040682
0.001523 0.0021431 -0.0013294 0.004095 0.062097 -0.25097 0.00012237 -0.0016074
0.0021887 0.00019063 0.00054922 0.0016222
-0.0034959 0.00092794 0.00091908 0.0011505 0.0001384 -0.0015982 0.11159 -0.1663
0.0018658 0.0031821 -0.0017104 0.0010857
0.0015023 0.0011115 0.0015706 0.00043309 0.0022511 0.00019697 0.0018858 0.003189
0.25313 -0.026634 0.0039547 -0.0023238
-0.00054547 -0.00056005 0.00091834 0.0003858 0.00060854 0.0016076 -0.0016866 0.0010863
0.0039557 -0.0023112 0.27124 0.014446
2000000000 0.1292 -0.19281 -0.0044815 0.0012875 0.0026961 0.001605 -0.0020067 0.0034763
0.0012902 7.5693e-05 -0.00050661 0.00036574
-0.0044681 0.0012776 0.25019 0.054478 -0.0010228 0.0058531 0.0014585 0.00035553
0.0011714 -0.001132 0.00062498 3.5671e-05
0.0026944 0.0015853 -0.001007 0.0058515 0.018468 -0.23638 -0.00089108 -0.00098269
0.0016769 -0.0011424 0.001838 0.00095663
-0.001978 0.0034448 0.0014792 0.00033486 -0.00088342 -0.0009979 0.058935 -0.17742
-0.0001144 0.0024553 -0.00053709 0.00204
0.0012986 0.00013284 0.0011751 -0.0011272 0.0016619 -0.0011212 -0.00012552 0.0024989
0.24582 -0.061048 0.00046157 -0.003553
