!Keysight Technologies,M9804A,MY58100912,A.14.10.03
!Date: Thursday, April 27, 2023 10:28:33
!Correction: S11(C  6-Port  ) 
!S12(C  6-Port  ) 
!S13(C  6-Port  ) 
!S14(C  6-Port  ) 
!S15(C  6-Port  ) 
!S16(C  6-Port  ) 
!S21(C  6-Port  ) 
!S22(C  6-Port  ) 
!S23(C  6-Port  ) 
!S24(C  6-Port  ) 
!S25(C  6-Port  ) 
!S26(C  6-Port  ) 
!S31(C  6-Port  ) 
!S32(C  6-Port  ) 
!S33(C  6-Port  ) 
!S34(C  6-Port  ) 
!S35(C  6-Port  ) 
!S36(C  6-Port  ) 
!S41(C  6-Port  ) 
!S42(C  6-Port  ) 
!S43(C  6-Port  ) 
!S44(C  6-Port  ) 
!S45(C  6-Port  ) 
!S46(C  6-Port  ) 
!S51(C  6-Port  ) 
!S52(C  6-Port  ) 
!S53(C  6-Port  ) 
!S54(C  6-Port  ) 
!S55(C  6-Port  ) 
!S56(C  6-Port  ) 
!S61(C  6-Port  ) 
!S62(C  6-Port  ) 
!S63(C  6-Port  ) 
!S64(C  6-Port  ) 
!S65(C  6-Port  ) 
!S66(C  6-Port  ) 
!S6P File: Measurement: :
# Hz S  RI   R 50
500000000 -0.34023 -0.020146 -0.011875 -0.0037565 -0.0083608 0.013065 -0.0034738 0.012317
0.011013 0.0045572 -0.0030052 0.0086703
-0.011837 -0.0037797 -0.41995 -0.03881 0.0057791 -0.011164 0.0018921 0.012521
0.0071224 0.0019722 0.0025332 0.013605
-0.0083288 0.013025 0.0057681 -0.011163 -0.2644 0.22177 0.0071136 0.0039858
-0.0013121 0.0079662 0.0021878 0.011784
-0.003437 0.0123 0.0019007 0.012534 0.0071215 0.0039836 -0.33163 0.059468
-0.02069 -0.0063356 0.015357 0.024015
0.010989 0.0045244 0.0071468 0.0019697 -0.0012817 0.0079949 -0.020687 -0.0063238
-0.23631 -0.1689 -0.02706 0.0043657
-0.0029574 0.0086476 0.0025374 0.013623 0.0021855 0.011794 0.015367 0.023994
-0.027065 0.0043506 -0.28283 -0.086605
560000000 -0.31414 0.13537 -0.026896 -0.060018 0.00064889 0.012065 0.0050964 0.0099085
0.0088072 0.0052267 0.010337 0.0073292
-0.026838 -0.059917 -0.37587 0.11768 -0.042623 -0.034408 0.013137 0.0041675
-0.012458 -0.0041723 0.002767 -0.00037194
0.0006535 0.012059 -0.042714 -0.034353 -0.18156 0.26739 -3.9128e-05 -0.0048398
0.01941 0.0046865 0.0065323 -0.0064186
0.0051246 0.0099767 0.01315 0.0041182 -2.8327e-05 -0.0048287 -0.30591 0.14801
0.0002724 -0.024066 0.0027624 -0.018664
0.0087938 0.0052008 -0.012452 -0.0041363 0.019408 0.0046934 0.00027006 -0.024069
-0.28909 0.0055872 0.0029598 -0.047484
0.010343 0.007317 0.0027534 -0.00038528 0.0065381 -0.0064343 0.0027531 -0.018681
0.0029869 -0.047473 -0.33019 0.053539
620000000 -0.27186 0.12166 -0.02398 0.007851 0.0041559 0.0082651 0.0076574 -0.0046628
0.011175 -0.0015957 0.00080101 -0.0019164
-0.023971 0.0078427 -0.40186 0.071959 -0.019456 0.00083239 -0.00072598 -0.0022609
0.010057 -0.0063658 0.0017881 -0.002739
0.0041628 0.008271 -0.019467 0.00085354 -0.14998 0.27737 -0.0010964 -0.0050587
-0.0031542 -0.0027352 0.0083782 -0.0037224
0.0076216 -0.0046807 -0.00073319 -0.0022695 -0.0010852 -0.0050576 -0.263 0.15909
-0.040661 -0.016753 0.011963 0.02417
0.011227 -0.0015707 0.010056 -0.0063734 -0.0031465 -0.0026872 -0.040707 -0.016728
-0.21198 -0.033282 -0.040099 0.016155
0.00083348 -0.0019062 0.001774 -0.0027372 0.0083601 -0.0037093 0.01198 0.024165
-0.040117 0.016137 -0.25738 0.02515
680000000 -0.22903 0.2047 -0.027852 -0.011477 0.0057459 0.0047086 0.0010519 -0.0072016
-0.0025682 -0.010902 0.0044957 -0.0068807
-0.027838 -0.011497 -0.38474 0.16671 -0.032202 0.00051689 -0.0013721 -0.00085648
-0.0020359 -0.0090741 -0.0011968 -0.0023182
0.0057379 0.0047003 -0.032213 0.00057228 -0.098113 0.2944 -0.00099677 -0.00066756
-0.0012521 -0.0001429 -0.0033438 -0.0088296
0.0010455 -0.0072278 -0.0013702 -0.00085775 -0.00099757 -0.00065756 -0.21689 0.20643
-0.026471 -0.0042685 -0.0089863 -0.0080599
-0.0025892 -0.0109 -0.0020605 -0.0090933 -0.0012539 -0.00015255 -0.02649 -0.0042495
-0.25267 0.065816 -0.0072328 -0.0067097
0.0044784 -0.0068747 -0.0012035 -0.0023051 -0.0033443 -0.0088396 -0.0089711 -0.0080646
-0.0072322 -0.0067111 -0.25565 0.12137
740000000 -0.18436 0.19976 -0.036269 0.026887 0.012425 -0.0058221 -0.00068823 -0.0042169
-0.0046094 -0.0029367 -0.0058639 0.0029347
-0.036272 0.026845 -0.33265 0.18593 -0.032753 0.035546 -0.0011938 -0.0065427
-0.011852 0.0076805 -0.0020378 -0.00518
0.012401 -0.0058169 -0.032674 0.035641 -0.064681 0.29313 -0.0018564 0.0031247
-0.0030514 -0.0050142 -0.002215 0.0010614
-0.00068548 -0.0042158 -0.001209 -0.0065356 -0.0018577 0.0031286 -0.19928 0.21528
-0.042683 -0.002345 0.022588 0.012968
-0.0046345 -0.0029037 -0.011832 0.0077033 -0.0030407 -0.0050275 -0.04273 -0.002299
-0.15697 0.085905 -0.039918 0.0053851
-0.0058637 0.0029365 -0.0020442 -0.0051892 -0.0022037 0.0010706 0.022595 0.012959
-0.039915 0.005361 -0.24378 0.13122
800000000 -0.15004 0.23651 -0.020694 0.017671 0.0049349 -0.010675 -0.0044191 -0.0016727
-0.0037836 0.0022681 0.0034066 0.00063029
-0.020675 0.017659 -0.33295 0.25437 -0.0064383 0.033779 -0.0023145 0.0022172
-0.00082136 0.0033231 0.0011052 0.0052537
0.0049226 -0.010677 -0.0063772 0.033802 -0.022264 0.31487 0.00077944 0.00181
0.00054659 0.0035652 -0.0018628 0.0011774
-0.0044215 -0.0016649 -0.0023161 0.0022059 0.00077799 0.0018104 -0.16892 0.24167
-0.02694 0.017132 0.012969 -0.010047
-0.0037682 0.0023071 -0.00082691 0.0033451 0.00054532 0.0035747 -0.026938 0.017203
-0.19618 0.11464 -0.015604 0.01971
0.0034044 0.00061892 0.0011256 0.0052683 -0.0018694 0.0011814 0.012966 -0.010077
-0.015616 0.019685 -0.23029 0.17685
860000000 -0.11475 0.25602 -0.01512 0.030778 -0.0035017 -0.0098655 -0.0019841 0.0012421
0.0042574 0.0045744 -0.0028165 -0.0023464
-0.015105 0.030754 -0.28594 0.29498 0.0094836 0.033468 0.00020279 0.0023319
0.0043397 0.0005016 0.003078 0.00044781
-0.0035054 -0.0098565 0.0095495 0.033466 0.025669 0.32201 -0.00033674 4.4667e-05
0.0025281 -0.0013229 0.0018681 0.0039407
-0.0019822 0.0012496 0.00020516 0.0023254 -0.00033876 4.097e-05 -0.13258 0.25217
-0.014926 0.02141 -0.0048897 -0.009206
0.0042872 0.004577 0.0043525 0.00049484 0.0025246 -0.0013301 -0.014907 0.021463
-0.14299 0.16083 -0.020947 0.017805
-0.0027988 -0.0023498 0.003092 0.00045911 0.001865 0.0039584 -0.0048849 -0.0091975
-0.020941 0.01779 -0.18147 0.21686
920000000 -0.08839 0.27716 0.0067715 0.036366 -0.009422 -0.0043642 -0.0013217 0.0016267
0.0016604 0.0019692 0.0030135 -0.0018971
0.0067572 0.036339 -0.25553 0.31556 0.028738 0.020308 0.0017916 0.00093465
0.0074708 -0.00026851 0.0040265 -0.0028261
-0.0094249 -0.0043368 0.028783 0.020244 0.073118 0.32236 0.0019714 -0.00021329
0.0017162 -0.00036517 0.00083119 -0.0012167
-0.001305 0.0016323 0.0017988 0.00091331 0.0019681 -0.0002058 -0.1063 0.26814
-0.0069382 0.031786 0.0028608 -0.0067896
0.0016537 0.0019683 0.007473 -0.00029264 0.0017157 -0.00036834 -0.0068854 0.031825
-0.12829 0.1667 0.0011377 0.02588
0.0030143 -0.0019025 0.0040041 -0.0028257 0.00082292 -0.0012178 0.0028505 -0.0067932
0.0011324 0.025863 -0.18062 0.2321
980000000 -0.04162 0.29458 0.018949 0.02813 -0.0087705 0.0045376 0.0021581 0.0029244
0.0042487 -0.0021005 -0.003165 -0.0023318
0.018934 0.028116 -0.20385 0.34763 0.033175 0.0029537 0.002213 -0.00030829
0.0017999 -0.0065159 -0.00053977 -0.0026398
-0.00876 0.0045553 0.033177 0.0028696 0.11984 0.31465 0.00047317 -0.0013655
8.3594e-05 -0.0025873 0.0011659 -0.00040443
0.0021517 0.002923 0.0022296 -0.00032695 0.00047132 -0.0013654 -0.06718 0.27756
0.011979 0.02888 -0.0083123 -0.0067921
0.0042495 -0.0021284 0.0017822 -0.0065054 6.1869e-05 -0.0025867 0.012051 0.028871
-0.096637 0.18983 0.0069569 0.018478
-0.0031496 -0.0023235 -0.00055208 -0.0026217 0.0011658 -0.0004141 -0.0083163 -0.0067747
0.0069441 0.018451 -0.13717 0.27058
1040000000 0.00079918 0.30167 0.033196 0.015309 -0.0014121 0.0065884 0.0021526 0.00044342
8.6878e-05 -0.0031914 -0.00083312 -0.0014646
0.033187 0.015298 -0.16848 0.36099 0.028236 -0.016319 0.0013473 -0.0018917
-0.0024375 -0.0028116 -0.0015815 -0.0029745
-0.0013844 0.0065962 0.028178 -0.0164 0.16692 0.30027 -0.00069655 -0.0015249
-0.0017523 -0.00091934 -0.00064176 -0.00098425
0.0021594 0.00045358 0.001348 -0.0019222 -0.00069456 -0.0015159 -0.03872 0.28663
0.0225 0.015596 -0.0026964 0.00053256
6.7698e-05 -0.0031983 -0.0024362 -0.0027713 -0.0017545 -0.00091841 0.022545 0.015571
-0.064214 0.19586 0.014752 0.015496
-0.00084379 -0.0014709 -0.0016104 -0.0029474 -0.00064607 -0.00099119 -0.0026992 0.00054531
0.014731 0.01548 -0.11189 0.29001
1100000000 0.046055 0.30796 0.034621 -0.0063381 0.0026409 0.0037032 0.0019879 -0.00098092
-0.0021288 -0.0028409 -0.0038984 0.00067031
0.034602 -0.0063208 -0.1252 0.37765 0.013601 -0.028513 -0.00022597 -0.001744
-0.0038656 -0.00058688 -0.0036192 -0.0001035
0.0026571 0.0037037 0.013519 -0.028569 0.21453 0.27779 -0.001939 0.00030534
-0.0019529 0.00074251 -0.00097002 -9.9454e-05
0.0019792 -0.00096905 -0.00022307 -0.0017558 -0.0019343 0.00030235 0.0028178 0.28946
0.026243 0.0014503 -0.0028427 -0.00020148
-0.0021472 -0.0028368 -0.003866 -0.00056916 -0.0019457 0.00075102 0.026262 0.0014072
-0.045687 0.20655 0.018928 0.0056267
-0.0038821 0.00067288 -0.0036257 -8.6176e-05 -0.00097969 -0.00010101 -0.0028403 -0.00019537
0.01892 0.0056305 -0.065621 0.31449
1160000000 0.096596 0.302 0.021967 -0.022295 0.0021339 -0.00027772 -0.00013588 -0.0018334
-0.0039638 -0.00046176 -0.00081074 0.0039912
0.021985 -0.022285 -0.080734 0.38224 -0.005707 -0.028751 -0.0016607 -0.0014225
-0.0026964 0.0026589 -0.00156 0.0018453
0.0021377 -0.00027172 -0.0058142 -0.028757 0.25748 0.24459 -0.00071814 0.0018048
-0.00052686 0.0020986 -0.00081767 0.00030307
-0.00015841 -0.0018288 -0.0016658 -0.0014254 -0.000729 0.0018101 0.042301 0.2847
0.020928 -0.014258 -0.0034343 0.0041743
-0.0039629 -0.00045561 -0.0026913 0.0026998 -0.00053002 0.0020964 0.020923 -0.014313
-0.01267 0.21355 0.017803 -0.0025725
-0.00078507 0.0039908 -0.0015602 0.0018629 -0.00081335 0.00031763 -0.0034279 0.0041824
0.017793 -0.0025759 -0.018775 0.31566
1220000000 0.14143 0.28946 0.0077442 -0.030208 -0.0017561 -0.00014555 0.00029589 -0.00076663
-0.0024534 0.0023828 0.0014179 0.0020186
0.0077689 -0.030176 -0.03574 0.39345 -0.018075 -0.01995 -0.0024519 0.00057521
0.00013798 0.0032344 -0.00049445 0.0021164
-0.0017486 -0.00013319 -0.018154 -0.019909 0.29585 0.20296 0.00082748 0.0018919
0.00077803 0.001301 0.00034036 0.00056313
0.0002837 -0.00076339 -0.0024446 0.00057138 0.00083505 0.0018876 0.083114 0.27398
0.0089151 -0.020656 0.0009322 0.0014349
-0.0024405 0.0023889 0.00014904 0.0032442 0.00078104 0.0012944 0.00891 -0.020682
0.010938 0.22033 0.012051 -0.014876
0.0014258 0.0020125 -0.00049243 0.0021219 0.00034023 0.00056343 0.00092886 0.0014294
0.012046 -0.014872 0.015136 0.32745
1280000000 0.19033 0.26603 -0.010245 -0.02741 -0.0015491 0.0031239 -0.00085373 -0.0019863
-0.00074057 0.0030623 0.0024747 0.0008523
-0.010214 -0.027383 0.010876 0.38368 -0.024205 -0.0069926 -0.0009386 0.0015086
0.0019569 0.0018085 0.00095364 0.0018519
-0.0015274 0.0031251 -0.024253 -0.0069178 0.32404 0.15722 0.0017425 3.5434e-05
0.0012354 0.00024295 0.00026532 0.00029103
-0.00085743 -0.001977 -0.00093196 0.0015076 0.0017383 3.9686e-05 0.11911 0.25442
-0.0020652 -0.021761 -0.0009529 0.00068784
-0.0007248 0.0030668 0.0019548 0.0017959 0.0012388 0.00024447 -0.0021032 -0.02178
0.046925 0.22199 0.0010525 -0.016451
0.0024815 0.00084678 0.00096758 0.0018487 0.00026474 0.00029314 -0.00095206 0.00069716
0.0010593 -0.016439 0.061238 0.32526
1340000000 0.227 0.23116 -0.019218 -0.016687 0.0015564 0.0046037 -0.0016888 -0.00096226
0.0015265 0.002583 0.0016116 -0.0015684
-0.019182 -0.016687 0.050947 0.37372 -0.021088 0.0057324 -3.904e-05 0.0020401
0.0021807 0.00052866 0.0014839 0.00058995
0.0015752 0.0045981 -0.021089 0.0058108 0.34389 0.10909 0.0013341 -0.0011292
0.00073023 -0.00060813 0.00013074 0.00019111
-0.0016988 -0.00096037 -2.5324e-05 0.0020369 0.0013312 -0.0011309 0.15041 0.23193
-0.01231 -0.017327 0.00011208 0.0015672
0.0015415 0.0025772 0.0021918 0.00051073 0.00072368 -0.00061177 -0.012352 -0.017313
0.076627 0.21581 -0.0064762 -0.014142
0.0016065 -0.0015777 0.0014887 0.00058605 0.00013249 0.00019086 0.00012149 0.0015626
-0.0064691 -0.014152 0.10006 0.31699
1400000000 0.25944 0.19154 -0.023428 -0.0047851 0.005732 0.0028705 -0.0021839 0.00057293
0.0024437 0.00088933 7.6544e-05 -0.0015121
-0.0234 -0.004794 0.088009 0.35911 -0.013744 0.01334 0.0014799 0.0012574
0.0012577 -0.0011362 0.0011332 -3.7246e-05
0.0057435 0.0028577 -0.013704 0.013401 0.35558 0.055947 5.3025e-05 -0.0021013
6.9784e-05 -0.00049041 0.00031592 0.00026602
-0.0021805 0.00058497 0.0014828 0.0012583 5.3626e-05 -0.0021005 0.17827 0.20091
-0.01816 -0.0089546 -0.00046351 0.0010826
0.0024449 0.00088316 0.0012493 -0.0011459 6.7038e-05 -0.0004935 -0.018207 -0.0089203
0.10881 0.20906 -0.012721 -0.0080838
7.5728e-05 -0.0015204 0.0011352 -4.2761e-05 0.00031446 0.00026443 -0.00046531 0.0010835
-0.012713 -0.0080991 0.14301 0.30242
1460000000 0.28085 0.14654 -0.019258 0.0069275 0.0058116 -0.0022832 -0.001605 0.0017131
0.0021894 -0.00068214 -0.00044586 -0.00093457
-0.019263 0.0069163 0.12143 0.33567 -0.004788 0.01545 0.0018064 4.4817e-05
0.00062213 -0.0014802 0.0010448 -0.00066834
0.0058008 -0.0022972 -0.0047361 0.015483 0.36 0.0024763 -0.0016634 -0.0014579
0.00017136 -0.00025286 0.0006932 -0.00029861
-0.0015941 0.0017247 0.0018021 3.791e-05 -0.0016666 -0.0014494 0.20167 0.1705
-0.01858 -0.00056959 9.0018e-05 0.0026916
0.0021839 -0.00068698 0.00062495 -0.0014877 0.00017057 -0.00025359 -0.018598 -0.00053588
0.13675 0.19316 -0.013624 -0.0012486
-0.00044547 -0.00094234 0.0010413 -0.00068878 0.00068939 -0.00030763 9.7665e-05 0.002699
-0.013632 -0.0012685 0.17443 0.27934
1520000000 0.29198 0.10366 -0.012662 0.011599 0.0031888 -0.0045561 0.00021924 0.0027142
0.0020737 -0.0018233 -0.0011467 -9.8325e-05
-0.01266 0.011581 0.15391 0.31984 0.0024764 0.012624 0.0016664 -0.0009946
-0.00022825 -0.0010895 0.00020891 -0.00098544
0.0031699 -0.0045685 0.0025321 0.012614 0.35326 -0.053082 -0.0015452 -0.00015398
0.00051899 -0.00095551 4.3906e-05 -0.00021299
0.00021966 0.0027081 0.0016678 -0.00099425 -0.0015451 -0.00015 0.22224 0.13227
-0.016083 0.0061961 0.0024423 0.0021772
0.0020551 -0.001834 -0.00023962 -0.001085 0.00052192 -0.0009606 -0.016083 0.0062351
0.16411 0.17742 -0.012659 0.003989
-0.0011423 -9.4217e-05 0.00019969 -0.0009868 4.3871e-05 -0.00021581 0.0024503 0.00218
-0.012654 0.0039858 0.20595 0.2563
1580000000 0.29955 0.056736 -0.0057673 0.013548 -0.0011523 -0.0051202 0.0015729 0.0019072
-0.00029969 -0.0022949 -0.00019461 0.0003612
-0.0057723 0.013541 0.17976 0.29423 0.0056983 0.0075233 0.00029942 -0.0017562
-0.00068612 -0.00085325 -0.00029996 -0.0007795
-0.0011706 -0.0051219 0.0057195 0.0075173 0.33318 -0.11042 -0.0016219 0.0011663
-0.00046324 -0.0012434 0.00013765 -0.00063485
0.0015721 0.0018996 0.00029649 -0.0017604 -0.0016276 0.0011534 0.23318 0.093337
-0.010898 0.010988 0.0030142 0.00025654
-0.00030824 -0.0022902 -0.00069549 -0.00085313 -0.00046968 -0.0012459 -0.010878 0.011026
0.18708 0.15752 -0.0092988 0.0094274
-0.00019464 0.00036926 -0.00030055 -0.00077789 0.00013466 -0.00063927 0.0030216 0.00025159
-0.0093064 0.0094218 0.23543 0.22813
1640000000 0.2998 0.015248 0.00058029 0.011296 -0.0030629 -0.0027059 0.0027588 0.00081978
-0.0010168 -0.001636 -0.00024435 0.00062422
0.00057193 0.011281 0.20786 0.2692 0.0059141 0.0029062 -0.00097842 -0.0016587
-0.00094392 -0.00015656 -0.00059939 -0.00053733
-0.0030711 -0.0026988 0.0059201 0.0028791 0.30441 -0.15902 -0.00042093 0.0017526
-0.0013301 -0.0007206 -0.00021658 -0.00034337
0.0027577 0.00080976 -0.00098813 -0.0016552 -0.00041244 0.001751 0.24298 0.04667
-0.0053033 0.011383 0.0028428 -0.0014128
-0.0010297 -0.001639 -0.00094556 -0.0001431 -0.0013339 -0.00071252 -0.0052751 0.011402
0.20812 0.13195 -0.0036519 0.011161
-0.00023825 0.0006263 -0.00060094 -0.0005371 -0.00021849 -0.00034386 0.002845 -0.001435
-0.0036648 0.011163 0.25913 0.19598
1700000000 0.29067 -0.029959 0.0032524 0.0077714 -0.0037246 0.00027944 0.0029538 -0.001506
-0.0021891 -0.00054139 0.00068616 0.00026298
0.0032489 0.0077601 0.22497 0.23807 0.0037447 0.00019766 -0.0015673 -0.00035857
-0.00058954 0.0002123 -0.00087374 -0.00036119
-0.0037276 0.00029338 0.0037436 0.00017607 0.26154 -0.19915 0.00086663 0.001456
-0.0020405 0.00013235 -0.00070233 -0.00080181
0.0029407 -0.0015108 -0.0015612 -0.00034441 0.00086821 0.0014546 0.23901 -0.00055706
-0.0017615 0.010584 0.0015783 -0.0026138
-0.0021942 -0.00053532 -0.0005887 0.0002125 -0.0020411 0.00013329 -0.0017461 0.010598
0.22377 0.11022 0.0014613 0.01084
0.00068881 0.00025897 -0.00087823 -0.00035089 -0.00070819 -0.00080198 0.0015789 -0.0026218
0.0014667 0.010834 0.27401 0.16084
1760000000 0.27691 -0.077502 0.0044041 0.0041925 -0.0022697 0.00099567 0.00093433 -0.0035613
-0.0014598 0.00094999 0.00031168 -0.0004616
0.0043955 0.0041782 0.25002 0.19853 0.0014389 -0.00153 -0.0011416 0.00044318
-0.00083598 0.00078903 -0.00055041 0.00047871
-0.0022582 0.0010079 0.0014319 -0.001549 0.21232 -0.23286 0.001294 0.00073964
-0.00099341 0.0018064 -0.0014375 -0.00026294
0.00093145 -0.0035676 -0.0011412 0.0004474 0.0012855 0.0007269 0.23006 -0.049055
0.0012648 0.0087051 -0.00032155 -0.0029465
-0.0014454 0.00095873 -0.00082899 0.00080166 -0.0009998 0.0018046 0.0012863 0.0087103
0.23623 0.074512 0.005603 0.0075435
0.00031181 -0.00047072 -0.00054622 0.00048127 -0.0014407 -0.00026787 -0.00032929 -0.002953
0.0055959 0.0075506 0.28495 0.12245
1820000000 0.25141 -0.11363 0.0036305 0.0010306 3.2574e-05 0.0024679 -0.0013171 -0.0028759
-0.00087299 0.0012177 -9.4432e-05 -3.296e-05
0.0036217 0.0010304 0.25972 0.16929 -0.00045267 -0.00022144 -0.0010091 0.0010455
8.881e-06 0.0011017 -0.00049681 0.00053667
3.4211e-05 0.0024691 -0.0004551 -0.00022103 0.16203 -0.24829 0.0013288 8.5442e-05
0.00014659 0.002243 -0.0013239 0.00065309
-0.0013367 -0.002873 -0.00099451 0.0010468 0.0013314 8.2225e-05 0.20213 -0.093935
0.002293 0.0063462 -0.0017341 -0.0019142
-0.00086385 0.0012132 1.8617e-05 0.0011058 0.00014292 0.0022449 0.00232 0.0063487
0.25144 0.045067 0.0066093 0.0032926
-8.8034e-05 -3.1291e-05 -0.00049317 0.0005427 -0.0013157 0.00065883 -0.0017366 -0.0019034
0.0066015 0.0032902 0.28619 0.085287
1880000000 0.21584 -0.15285 0.0008993 -0.00046675 -0.00049136 0.0021184 -0.0030093 -0.0018288
7.341e-05 0.0016194 0.00026868 -0.00051392
0.00089903 -0.00046828 0.26418 0.12289 -0.002512 0.0014807 4.3751e-05 0.001566
0.00044777 0.0010107 0.00022118 0.00087026
-0.00048297 0.0021243 -0.0025107 0.0014965 0.10923 -0.25866 0.0013778 -0.00096636
0.0018366 0.0015965 -0.00056981 0.0014935
-0.0030057 -0.0018142 5.3497e-05 0.0015661 0.0013766 -0.00097381 0.16412 -0.13425
0.0025628 0.004028 -0.0026226 1.6566e-05
7.4861e-05 0.0016172 0.00045178 0.0010012 0.0018313 0.0015965 0.0025764 0.0040238
0.2524 0.011854 0.0061068 0.00042534
0.00025977 -0.00050676 0.00023014 0.00087008 -0.00057068 0.0014976 -0.0026108 2.7519e-05
0.0061077 0.0004231 0.28443 0.050377
1940000000 0.17657 -0.17799 -0.0013541 -0.0012272 0.0012624 0.0021641 -0.0035177 0.00083968
0.0015297 0.0007789 -0.00044268 -0.00065965
-0.0013519 -0.0012259 0.26451 0.091468 -0.0013474 0.0037958 0.00095416 0.0010326
0.0015394 0.00048849 0.0009167 0.00032508
0.001283 0.0021551 -0.0013263 0.0038112 0.06267 -0.25163 0.00010458 -0.0017072
0.0021545 7.6947e-05 0.00063339 0.0016206
-0.0035104 0.0008663 0.00096523 0.0010309 9.6369e-05 -0.0017101 0.11347 -0.16541
0.0013315 0.0025955 -0.001913 0.0011626
0.0015395 0.00078045 0.0015392 0.00048939 0.0021592 7.1068e-05 0.0013407 0.0025936
0.25227 -0.026972 0.0044264 -0.0030603
-0.00045233 -0.00065426 0.00091733 0.00032294 0.00064071 0.0016135 -0.0019079 0.001167
0.0044238 -0.0030562 0.27166 0.013644
2000000000 0.13039 -0.19254 -0.0046587 0.0013684 0.0025804 0.0018278 -0.0020571 0.003508
0.0010313 -5.8207e-05 -0.00066758 0.00032028
-0.0046662 0.0013628 0.25073 0.055771 -0.0012411 0.005651 0.0013669 0.0002552
0.0012231 -0.0011158 0.00057481 -5.4622e-05
0.0025523 0.0018054 -0.0012158 0.0056623 0.018404 -0.23716 -0.0010303 -0.0010418
0.0016305 -0.0012376 0.0018503 0.00095966
-0.0020546 0.0035096 0.0013716 0.00024026 -0.0010307 -0.0010396 0.060994 -0.17769
-0.00059586 0.0021737 -0.0005538 0.0021477
0.0010483 -6.911e-05 0.0012122 -0.0011352 0.0016269 -0.0012443 -0.000589 0.0021731
0.24495 -0.060903 0.00059162 -0.0043116
