!Keysight Technologies,M9804A,MY58100912,A.14.10.03
!Date: Thursday, April 27, 2023 10:28:33
!Correction: S11(C  6-Port  ) 
!S12(C  6-Port  ) 
!S13(C  6-Port  ) 
!S14(C  6-Port  ) 
!S15(C  6-Port  ) 
!S16(C  6-Port  ) 
!S21(C  6-Port  ) 
!S22(C  6-Port  ) 
!S23(C  6-Port  ) 
!S24(C  6-Port  ) 
!S25(C  6-Port  ) 
!S26(C  6-Port  ) 
!S31(C  6-Port  ) 
!S32(C  6-Port  ) 
!S33(C  6-Port  ) 
!S34(C  6-Port  ) 
!S35(C  6-Port  ) 
!S36(C  6-Port  ) 
!S41(C  6-Port  ) 
!S42(C  6-Port  ) 
!S43(C  6-Port  ) 
!S44(C  6-Port  ) 
!S45(C  6-Port  ) 
!S46(C  6-Port  ) 
!S51(C  6-Port  ) 
!S52(C  6-Port  ) 
!S53(C  6-Port  ) 
!S54(C  6-Port  ) 
!S55(C  6-Port  ) 
!S56(C  6-Port  ) 
!S61(C  6-Port  ) 
!S62(C  6-Port  ) 
!S63(C  6-Port  ) 
!S64(C  6-Port  ) 
!S65(C  6-Port  ) 
!S66(C  6-Port  ) 
!S6P File: Measurement: :
# Hz S  RI   R 50
500000000 -0.3394 -0.020749 -0.010083 -0.0038758 -0.0074669 0.011699 -0.0037877 0.012574
0.011656 0.0038756 -0.0027285 0.0091551
-0.010077 -0.0033857 -0.41915 -0.038024 0.0064188 -0.011383 0.0016049 0.012647
0.0070795 0.0024763 0.0027124 0.013508
-0.0072983 0.011811 0.0067635 -0.011673 -0.26269 0.22067 0.0070824 0.003526
-0.00046405 0.0086547 0.0032491 0.01113
-0.0035363 0.012813 0.0015252 0.012709 0.0072707 0.0035129 -0.33127 0.059537
-0.020434 -0.0066076 0.014324 0.024215
0.01148 0.0041237 0.0074787 0.0022389 -0.0008006 0.0081135 -0.020366 -0.0065249
-0.23449 -0.16917 -0.027419 0.0053846
-0.0030617 0.0094911 0.0023852 0.013732 0.0031818 0.010978 0.015228 0.024903
-0.026105 0.0045828 -0.284 -0.087434
560000000 -0.31269 0.13608 -0.026537 -0.060766 0.00089067 0.010806 0.0055525 0.0092178
0.009765 0.0038493 0.010733 0.0066642
-0.026492 -0.060772 -0.37506 0.11648 -0.042267 -0.034422 0.013166 0.0031114
-0.012322 -0.0043604 0.0031181 -0.0009083
0.0010406 0.010864 -0.042146 -0.034811 -0.18133 0.26539 -3.6133e-05 -0.0045934
0.019069 0.0041767 0.0064742 -0.006441
0.004968 0.0097342 0.013332 0.0036762 -0.00023385 -0.0044702 -0.30618 0.14697
0.0007429 -0.024729 0.0036295 -0.01914
0.0095781 0.0034721 -0.012224 -0.0040772 0.018396 0.0042218 0.00057874 -0.024353
-0.287 0.0047996 0.0043042 -0.04737
0.010927 0.0073665 0.0029389 -0.00073899 0.0064919 -0.0066914 0.0035556 -0.019046
0.0045128 -0.046549 -0.32809 0.053379
620000000 -0.27039 0.12103 -0.023141 0.0073884 0.0034396 0.0079283 0.0073295 -0.0052643
0.01093 -0.0021286 0.00055213 -0.0037149
-0.023399 0.0073927 -0.40129 0.071591 -0.019664 0.00034648 -0.0010584 -0.002327
0.010075 -0.0062638 0.0013289 -0.0030959
0.0035114 0.0078832 -0.019766 0.00037788 -0.15014 0.27562 -0.0010351 -0.0050547
-0.0037069 -0.0032158 0.0076712 -0.0033555
0.0074953 -0.0055538 -0.00097 -0.0023419 -0.00098756 -0.0048949 -0.26327 0.15875
-0.039204 -0.017638 0.01215 0.024623
0.010524 -0.0010046 0.010253 -0.0060807 -0.0035299 -0.0030023 -0.040529 -0.01917
-0.21176 -0.033243 -0.038588 0.013043
0.00044547 -0.0031112 0.0012724 -0.0026904 0.0078968 -0.0035095 0.01171 0.023697
-0.037199 0.01529 -0.25602 0.024009
680000000 -0.22798 0.20285 -0.027735 -0.012475 0.0055351 0.0045199 0.0011834 -0.00723
-0.0029487 -0.011368 0.0040464 -0.0076973
-0.027676 -0.012461 -0.38473 0.16552 -0.03225 0.00044142 -0.0017107 -0.00060361
-0.0025872 -0.00889 -0.0013071 -0.0026467
0.0054426 0.0045747 -0.032326 0.00030816 -0.099004 0.2934 -0.001177 -0.00026716
-0.001712 0.00016556 -0.0035756 -0.0087345
0.0011949 -0.0073734 -0.0014186 -0.00078681 -0.00096999 -0.00030239 -0.21665 0.20565
-0.026148 -0.0051727 -0.008929 -0.0087583
-0.0028158 -0.011224 -0.0024391 -0.0089218 -0.0015392 0.00021561 -0.025893 -0.0052828
-0.25194 0.063431 -0.0070255 -0.0075344
0.0038022 -0.0068949 -0.0012552 -0.0023421 -0.0036033 -0.008734 -0.0087479 -0.0085879
-0.0083108 -0.0077075 -0.25379 0.1198
740000000 -0.18494 0.1974 -0.036668 0.026157 0.011981 -0.0057022 -0.00066156 -0.004101
-0.0050493 -0.0031185 -0.0057411 0.0028933
-0.036828 0.026108 -0.33331 0.18531 -0.033064 0.034971 -0.0011216 -0.0060304
-0.011606 0.0079538 -0.0023256 -0.0048909
0.011836 -0.005674 -0.033013 0.03502 -0.065371 0.2929 -0.0019228 0.0031253
-0.0033741 -0.0042398 -0.0022104 0.0013036
-0.00075761 -0.0040525 -0.001149 -0.0065086 -0.0017596 0.0031506 -0.19962 0.21447
-0.04296 -0.0028026 0.022261 0.012551
-0.0049964 -0.0027073 -0.011234 0.0079144 -0.0029666 -0.0045809 -0.043192 -0.0030628
-0.15809 0.085645 -0.039239 0.0035664
-0.0059195 0.0031406 -0.0022435 -0.0047753 -0.0020948 0.0012179 0.022584 0.012284
-0.039074 0.0039315 -0.24323 0.12962
800000000 -0.15105 0.23555 -0.021773 0.01721 0.004533 -0.010442 -0.0045394 -0.0017169
-0.003877 0.0025866 0.0040169 0.000502
-0.021816 0.017375 -0.33392 0.25385 -0.0068151 0.033674 -0.0023238 0.0023035
-0.00068946 0.0032892 0.0012587 0.0053608
0.0045274 -0.010367 -0.0067557 0.033616 -0.022794 0.31498 0.00091426 0.0016553
0.00027218 0.0036055 -0.0017744 0.0011005
-0.0046478 -0.0017973 -0.0023539 0.002264 0.00086764 0.0016868 -0.16928 0.24134
-0.026959 0.016697 0.012493 -0.010015
-0.0037864 0.0028293 -0.00058239 0.0033132 0.00047833 0.0035448 -0.027083 0.016775
-0.19626 0.11318 -0.015951 0.019093
0.0036877 0.00068259 0.0010873 0.005369 -0.0018546 0.0011027 0.012945 -0.0098474
-0.015889 0.01923 -0.23108 0.17558
860000000 -0.11621 0.25567 -0.015968 0.031058 -0.0037867 -0.0093846 -0.0019387 0.0012534
0.0044993 0.00475 -0.0024984 -0.0023184
-0.015933 0.030909 -0.28669 0.29521 0.0091577 0.033249 0.00029175 0.0025176
0.0046062 -6.5338e-06 0.003732 0.00050096
-0.0038229 -0.0094237 0.0092574 0.033153 0.025668 0.32213 -0.00037931 3.3241e-07
0.0026179 -0.0012414 0.0018543 0.0042263
-0.0020534 0.0012552 0.00021157 0.0022972 -0.00041064 1.1496e-05 -0.13255 0.25159
-0.015211 0.020837 -0.0050513 -0.0090384
0.0045672 0.0046319 0.0046661 0.00024527 0.0026983 -0.0011419 -0.015049 0.020695
-0.14278 0.15887 -0.021943 0.016482
-0.0024942 -0.0024683 0.0033009 0.00015475 0.0017502 0.0041702 -0.0056762 -0.0091779
-0.021929 0.017095 -0.18218 0.21603
920000000 -0.089398 0.27753 0.0061659 0.036903 -0.0092667 -0.0037374 -0.0012932 0.0018404
0.0014711 0.0014452 0.0024895 -0.0019119
0.0062996 0.036936 -0.25587 0.31591 0.028226 0.020332 0.001873 0.00086752
0.0072278 -0.00077764 0.0034876 -0.002986
-0.0092228 -0.003734 0.028323 0.020307 0.073275 0.32199 0.0019901 -0.00020137
0.0015928 -0.00065191 0.00084503 -0.0010647
-0.0012385 0.0018637 0.001913 0.00087585 0.0020215 -0.00024426 -0.10661 0.26771
-0.0073822 0.030909 0.0024838 -0.0061319
0.0013951 0.0016816 0.0072189 -0.0006696 0.0016943 -0.00074937 -0.0072292 0.031251
-0.12944 0.16409 -0.00071336 0.025447
0.00266 -0.001802 0.0036566 -0.0031678 0.00084482 -0.0010545 0.0026663 -0.0063759
-0.00072194 0.025202 -0.18271 0.23167
980000000 -0.042535 0.29499 0.018579 0.02862 -0.0083591 0.0048412 0.0020862 0.0028337
0.0038412 -0.0019193 -0.0031777 -0.0020001
0.018575 0.028631 -0.20386 0.34822 0.032469 0.0032656 0.0020584 -0.00034812
0.0014324 -0.0061062 -0.00064992 -0.002125
-0.0084041 0.0048796 0.032516 0.0031837 0.11981 0.31382 0.00039907 -0.0012788
5.5617e-05 -0.0023182 0.0013826 -0.00021406
0.0021325 0.00283 0.0021366 -0.00039094 0.00047517 -0.0013498 -0.067659 0.27707
0.010908 0.028652 -0.0084557 -0.0062768
0.0038309 -0.0018296 0.0014268 -0.0061354 7.923e-05 -0.0022743 0.010966 0.028885
-0.097971 0.18939 0.0064142 0.018411
-0.0032378 -0.0019682 -0.00078829 -0.0021944 0.0014016 -0.00025097 -0.008314 -0.0061369
0.00648 0.018314 -0.13748 0.26893
1040000000 0.0003797 0.30249 0.033041 0.015988 -0.0010126 0.0067305 0.0023866 0.00058637
8.4547e-05 -0.0033883 -0.000857 -0.001349
0.032933 0.015977 -0.16798 0.36151 0.027708 -0.015616 0.0013426 -0.001793
-0.002396 -0.0024127 -0.0015715 -0.0027502
-0.00094548 0.0067055 0.027721 -0.015689 0.16635 0.29929 -0.00071401 -0.0014056
-0.0016562 -0.00088234 -0.00047106 -0.0011127
0.0023114 0.0005466 0.00128 -0.0017955 -0.00064947 -0.0013757 -0.038886 0.28659
0.021478 0.015767 -0.0026872 0.0012251
2.4007e-05 -0.0032438 -0.0024103 -0.0025502 -0.0016297 -0.00095718 0.021368 0.015827
-0.06541 0.19569 0.014003 0.01593
-0.00087824 -0.001426 -0.0015085 -0.0028028 -0.00042698 -0.00111 -0.0027305 0.0013138
0.013874 0.015731 -0.11284 0.28937
1100000000 0.046063 0.30856 0.034556 -0.0057183 0.0028959 0.0035776 0.0021207 -0.001102
-0.0019544 -0.0028461 -0.0036618 0.00034213
0.03452 -0.0056826 -0.12419 0.37771 0.013567 -0.02755 -0.00011293 -0.0017487
-0.0032986 -0.00056253 -0.003396 -0.00028078
0.002867 0.0035655 0.013473 -0.027583 0.21324 0.277 -0.0017992 0.00022359
-0.0018029 0.00055918 -0.00095914 -0.00032489
0.0021387 -0.0011101 -0.00016402 -0.0017342 -0.0018196 0.00022302 0.0026279 0.28905
0.02522 0.002323 -0.002328 -8.3421e-06
-0.0019622 -0.0028145 -0.0033002 -0.00051739 -0.0018187 0.00058829 0.025303 0.0022451
-0.046685 0.20729 0.018635 0.0061441
-0.0035337 0.00042351 -0.0033011 -0.00036413 -0.00096669 -0.00033516 -0.0024546 6.8702e-05
0.018831 0.0061107 -0.066026 0.31363
1160000000 0.096949 0.30237 0.022233 -0.021431 0.002391 -0.00040404 -9.8372e-05 -0.0020825
-0.0039907 -0.00046814 -0.00075653 0.0039235
0.022275 -0.021381 -0.079851 0.38128 -0.0049239 -0.027988 -0.0015652 -0.0014373
-0.0025613 0.0024152 -0.0013245 0.0018168
0.0023997 -0.00042059 -0.0049922 -0.027992 0.25543 0.2445 -0.00071128 0.0017496
-0.0004604 0.0019068 -0.00085333 0.00016228
-0.00015575 -0.0020429 -0.001661 -0.0014156 -0.00073739 0.0017661 0.041934 0.28397
0.020341 -0.012958 -0.0031087 0.0043474
-0.0039785 -0.00052793 -0.002468 0.0025476 -0.00042047 0.0018867 0.020403 -0.013112
-0.013588 0.21381 0.016882 -0.0018062
-0.00077517 0.0037368 -0.0013876 0.0017693 -0.00077974 0.00020635 -0.00309 0.0043848
0.016845 -0.0018484 -0.019521 0.31458
1220000000 0.14178 0.28947 0.0085812 -0.029463 -0.0014806 -0.00050374 6.2937e-05 -0.00086488
-0.002423 0.0023126 0.0012571 0.0017192
0.0085959 -0.029436 -0.035481 0.3921 -0.017096 -0.019687 -0.0023604 0.00051971
0.00010011 0.0029074 -0.00052327 0.001975
-0.0014935 -0.00047495 -0.017134 -0.019635 0.2941 0.20436 0.00082002 0.0017563
0.00065075 0.0012216 0.0003245 0.00056995
5.5598e-05 -0.00087682 -0.002378 0.00047855 0.00082256 0.0017978 0.082152 0.27325
0.0090833 -0.019105 0.0014506 0.0013692
-0.0023571 0.0023453 0.00011768 0.0029121 0.00059985 0.0012805 0.0090513 -0.019072
0.010499 0.22071 0.011664 -0.013412
0.0012681 0.0018612 -0.00056547 0.0019954 0.00028878 0.0006194 0.0014868 0.0014281
0.011662 -0.013368 0.013666 0.32681
1280000000 0.19049 0.26571 -0.0089283 -0.027085 -0.0015286 0.0027172 -0.00098358 -0.0018774
-0.00065357 0.0029138 0.0023225 0.00092945
-0.0089409 -0.02707 0.010273 0.38204 -0.023131 -0.0073757 -0.00091392 0.0013713
0.0016421 0.0016753 0.00073893 0.0018334
-0.0015092 0.0027063 -0.023154 -0.0072582 0.32341 0.15918 0.0015436 6.8564e-05
0.0011249 0.00026895 0.00025279 0.00014365
-0.0009554 -0.0018693 -0.00090665 0.0013845 0.0016001 5.9923e-05 0.11793 0.25419
-0.00096169 -0.020341 -0.00061369 0.00039449
-0.00065461 0.0028958 0.0016738 0.0016595 0.0011977 0.00024807 -0.00099856 -0.02033
0.046795 0.22219 0.0011917 -0.014798
0.002352 0.00087086 0.0007535 0.0018089 0.00020189 0.00019404 -0.00072539 0.00043831
0.0012608 -0.014964 0.059829 0.32469
1340000000 0.22683 0.23084 -0.017895 -0.017266 0.0012996 0.0041986 -0.0016688 -0.00087639
0.0014172 0.0024729 0.0014598 -0.001459
-0.017894 -0.017278 0.049399 0.3729 -0.02053 0.0047653 -0.00014098 0.0020104
0.001917 0.00069841 0.0013321 0.00061114
0.0012677 0.0041796 -0.020537 0.0048897 0.34435 0.11108 0.0012483 -0.0010201
0.00057083 -0.00052172 0.00014802 0.00022335
-0.0016173 -0.00087082 -0.00013945 0.0019703 0.0012691 -0.0010396 0.14909 0.23225
-0.010436 -0.016626 0.00049209 0.0011955
0.001481 0.0025146 0.0018906 0.00068371 0.00056771 -0.00050188 -0.010517 -0.016665
0.076397 0.21577 -0.0050072 -0.012659
0.0014399 -0.0014516 0.0013112 0.00059945 7.0217e-05 0.00025767 0.00047357 0.0011616
-0.005152 -0.012714 0.098526 0.31709
1400000000 0.25906 0.19127 -0.022612 -0.0060194 0.0051425 0.0026188 -0.0020623 0.00055711
0.0023263 0.00078184 0.00012572 -0.0013103
-0.022577 -0.0060478 0.086204 0.35903 -0.013785 0.012242 0.0013252 0.0013966
0.0012313 -0.00081922 0.0010872 6.5332e-05
0.0051799 0.0026111 -0.013744 0.01227 0.35706 0.05712 7.4217e-05 -0.0018181
8.2755e-05 -0.00044211 0.00030643 0.00017272
-0.0020451 0.00052016 0.001351 0.0013468 0.00012251 -0.0018259 0.17726 0.20172
-0.016098 -0.0093712 -0.00047106 0.00048774
0.0023209 0.00080232 0.0012086 -0.00081821 5.67e-05 -0.00043057 -0.016168 -0.0093297
0.10851 0.20908 -0.010864 -0.0076987
6.9201e-05 -0.0013481 0.0010978 6.4541e-05 0.00030402 0.00021227 -0.00048162 0.0005601
-0.010893 -0.0076226 0.14146 0.30307
1460000000 0.28024 0.14661 -0.01929 0.0053169 0.0052975 -0.0021824 -0.0015939 0.0016021
0.0019626 -0.0006512 -0.00030479 -0.00081784
-0.019263 0.0052942 0.11974 0.33665 -0.0055062 0.014629 0.0017566 0.00015019
0.00084089 -0.0013109 0.0010702 -0.0006013
0.0052799 -0.0022221 -0.0054584 0.014635 0.36173 0.0024024 -0.0014131 -0.0013742
0.00023878 -0.00020248 0.00057178 -0.00036424
-0.0015367 0.0016005 0.0017495 0.00017827 -0.0014174 -0.0013979 0.20095 0.17162
-0.016971 -0.0021404 -0.00030363 0.0022663
0.0019403 -0.00060133 0.00082836 -0.001309 0.00025185 -0.00018024 -0.017017 -0.0021214
0.13641 0.19287 -0.011737 -0.0018187
-0.00032069 -0.0008911 0.0010948 -0.00059555 0.00058805 -0.00033718 -0.00029266 0.0022595
-0.011891 -0.0017941 0.17343 0.28022
1520000000 0.29136 0.10407 -0.013498 0.010276 0.0028521 -0.0041181 7.6211e-05 0.0025875
0.0018948 -0.0015951 -0.00098329 -6.2631e-05
-0.0135 0.010264 0.15299 0.3215 0.001596 0.012412 0.0016726 -0.00085212
-5.6783e-05 -0.0011103 0.00024215 -0.00090915
0.0027979 -0.0041191 0.0016298 0.012421 0.35436 -0.053796 -0.0014189 -0.00025756
0.00046172 -0.00089456 -2.4218e-05 -0.00014791
7.0542e-05 0.0025937 0.0016834 -0.00086616 -0.0014186 -0.00030055 0.22198 0.13365
-0.015728 0.003898 0.001967 0.0018981
0.0019352 -0.001657 -4.0698e-05 -0.0011488 0.00048345 -0.00091245 -0.015755 0.0039679
0.16354 0.17724 -0.011307 0.0025241
-0.0010413 -9.4586e-05 0.00024758 -0.00090936 -1.8059e-05 -0.00013967 0.0020129 0.0018813
-0.011379 0.0025868 0.20544 0.25744
1580000000 0.29921 0.057581 -0.007225 0.012876 -0.0011412 -0.0045554 0.001451 0.0019613
-0.00016886 -0.0020234 -0.00027819 0.00027181
-0.0072181 0.012852 0.17973 0.29609 0.0049135 0.0077857 0.0004364 -0.0016948
-0.00061865 -0.0010345 -0.00020458 -0.00077583
-0.0012004 -0.0045713 0.0049406 0.0077805 0.33362 -0.11157 -0.0016714 0.0010042
-0.00034748 -0.0011071 0.00020459 -0.00060462
0.0014823 0.0019415 0.00043081 -0.0017033 -0.0016879 0.00098071 0.2337 0.094674
-0.011868 0.0089072 0.0024457 0.00038282
-0.00019074 -0.0020606 -0.00061181 -0.0010206 -0.00041067 -0.0011474 -0.011877 0.0089344
0.18628 0.15746 -0.0088267 0.007667
-0.00025579 0.00029221 -0.00020057 -0.00075185 0.00023454 -0.00056371 0.0024445 0.00033281
-0.0089113 0.0077588 0.23531 0.22898
1640000000 0.29992 0.016121 -0.0009822 0.011526 -0.0027585 -0.002199 0.0027833 0.00091943
-0.00070831 -0.001537 -0.00027778 0.00065355
-0.00099115 0.011507 0.20873 0.27085 0.0054771 0.0034406 -0.0008307 -0.0016802
-0.0010735 -0.00026125 -0.00051 -0.00056946
-0.0027458 -0.0022636 0.005538 0.0034362 0.30414 -0.16021 -0.0005553 0.0016424
-0.001257 -0.00083654 -0.00015112 -0.0002758
0.0027632 0.00094558 -0.00085126 -0.0016566 -0.00055069 0.0016712 0.24412 0.047506
-0.0071575 0.010343 0.0025143 -0.0010551
-0.00073964 -0.0015419 -0.0010791 -0.00027496 -0.0012178 -0.00084328 -0.0071302 0.010329
0.20708 0.13222 -0.0041232 0.0093282
-0.00026453 0.00061774 -0.00052634 -0.00056599 -0.00018594 -0.00021809 0.0026231 -0.0011086
-0.0040749 0.0095108 0.25948 0.19647
1700000000 0.29141 -0.029359 0.0020951 0.0087107 -0.0031995 0.00028404 0.0029277 -0.0014192
-0.0020086 -0.00070631 0.00058941 0.0004083
0.0020737 0.0087168 0.2266 0.239 0.0036495 0.00074284 -0.0015062 -0.00047765
-0.00071684 0.00025543 -0.00080449 -0.00041645
-0.0032195 0.00030489 0.0036637 0.00071913 0.26057 -0.19983 0.00076757 0.00151
-0.0018636 -1.5574e-05 -0.00043287 -0.00078779
0.0029413 -0.0014048 -0.0015098 -0.00046997 0.00076943 0.0015237 0.24043 -0.00039135
-0.0037726 0.010733 0.0014376 -0.0023769
-0.0019968 -0.00065724 -0.00074105 0.00027854 -0.001869 1.9139e-05 -0.0037792 0.010785
0.22289 0.1109 0.00040942 0.0094748
0.00061273 0.00045476 -0.00084577 -0.00038362 -0.00049592 -0.00076038 0.0013825 -0.0023952
0.0004511 0.0096037 0.27408 0.16094
1760000000 0.27778 -0.077574 0.003996 0.0056096 -0.0020128 0.0008701 0.00095971 -0.0035117
-0.0014707 0.00068602 0.00048788 -0.00035644
0.0039757 0.0055911 0.25171 0.19848 0.0016604 -0.0010408 -0.0011686 0.00029964
-0.00086502 0.00095988 -0.00057591 0.00050004
-0.0020095 0.00083483 0.0016595 -0.0010647 0.21165 -0.23284 0.0014637 0.0007605
-0.0010886 0.0016289 -0.0014278 -0.00030288
0.00097154 -0.0034772 -0.0011803 0.00029271 0.0014476 0.00073381 0.23121 -0.0498
-0.00020703 0.0098635 -0.00028984 -0.002555
-0.0014661 0.00067767 -0.00085068 0.0009515 -0.0010695 0.0016149 -0.00017726 0.009881
0.23543 0.075538 0.0040528 0.0068158
0.00041375 -0.00038098 -0.00058168 0.00049038 -0.0014283 -0.00028549 -0.00034346 -0.0025996
0.0041075 0.006883 0.28466 0.1223
1820000000 0.25216 -0.11412 0.0039942 0.0023621 4.4426e-05 0.0023497 -0.0011982 -0.0028601
-0.0010213 0.0010791 0.00010264 -0.00016586
0.003995 0.00235 0.26113 0.16851 -0.00016689 -3.5977e-05 -0.0011026 0.0010454
0.00013422 0.0012225 -0.00045768 0.00054366
1.6555e-05 0.0023246 -0.0001745 -7.8564e-05 0.16155 -0.24836 0.0013174 2.5765e-05
0.00010415 0.0022016 -0.0012669 0.00045842
-0.001195 -0.002836 -0.0011183 0.0010494 0.0013207 -2.3923e-05 0.20256 -0.095273
0.0017566 0.0077331 -0.0016825 -0.0015207
-0.0010236 0.0010832 0.00013311 0.0012517 0.00013802 0.0022181 0.0018056 0.0078082
0.25115 0.04622 0.0049276 0.0034345
0.0001058 -0.0001054 -0.00045862 0.00052854 -0.0012685 0.00045117 -0.001702 -0.001463
0.0050545 0.0034333 0.2854 0.085256
1880000000 0.21596 -0.15385 0.0018184 0.00035579 -0.00033535 0.0019184 -0.002905 -0.0018508
-6.5544e-05 0.0017304 0.00023328 -0.00061452
0.0018283 0.00036241 0.26495 0.12147 -0.0022377 0.0016367 -6.9994e-05 0.0016045
0.00060962 0.00098502 0.00022934 0.0009083
-0.00031335 0.0019365 -0.0022473 0.0016416 0.10824 -0.25837 0.0012366 -0.0010609
0.0016656 0.0016782 -0.00074599 0.0014783
-0.0029244 -0.0019011 -1.3295e-05 0.0016336 0.0012877 -0.00099281 0.16356 -0.13551
0.0027841 0.0053581 -0.0022735 0.00022894
-5.3493e-05 0.0017036 0.00064704 0.0009754 0.0016564 0.0016823 0.0027889 0.0053597
0.2525 0.01301 0.0047872 0.0013344
0.00019343 -0.0006462 0.00021531 0.00091114 -0.00078593 0.0013822 -0.0022248 0.00020803
0.0048246 0.0012362 0.28354 0.050729
1940000000 0.17586 -0.17879 -0.0002521 -0.0011022 0.0015608 0.0019213 -0.0034745 0.00064087
0.0015719 0.0010436 -0.00053432 -0.00073087
-0.00025573 -0.0010994 0.2645 0.090054 -0.0010698 0.0039691 0.0010356 0.0011273
0.0016294 0.00032508 0.0008828 0.00026028
0.0015589 0.0018628 -0.0010492 0.0039947 0.061698 -0.25088 0.00018 -0.0015779
0.0021784 0.00022533 0.00034654 0.0014999
-0.0034828 0.00072356 0.0010083 0.0010671 0.00010591 -0.0017499 0.11209 -0.16633
0.0021127 0.0033952 -0.0013887 0.001243
0.0016366 0.0010405 0.0016453 0.00033008 0.0022128 0.00017777 0.0021178 0.003393
0.25285 -0.025859 0.0036039 -0.0017386
-0.00058773 -0.00069345 0.00092359 0.00027356 0.00043724 0.0015993 -0.0013823 0.0012703
0.0036556 -0.0017378 0.27103 0.01445
2000000000 0.12935 -0.19275 -0.003924 0.0010351 0.0024377 0.0013807 -0.002163 0.0033667
0.0012973 -8.7563e-05 -0.00056817 0.00038154
-0.0039121 0.00098925 0.25011 0.054516 -0.00084898 0.0056942 0.0014447 0.00025394
0.0010288 -0.0011919 0.00041371 -4.4945e-05
0.0024555 0.0013604 -0.00084258 0.0057227 0.018318 -0.2359 -0.0012039 -0.0008665
0.0015421 -0.0011133 0.0015947 0.00091647
-0.0021958 0.0034191 0.0014508 0.00025178 -0.0010589 -0.00083238 0.05937 -0.17759
0.00023971 0.0026871 -0.00028358 0.0019626
0.0012644 -6.5571e-05 0.0010406 -0.001275 0.0015671 -0.0011829 0.0002407 0.0026371
0.24586 -0.060103 0.00049838 -0.0028229
