!Keysight Technologies,M9804A,MY58100912,A.14.10.03
!Date: Thursday, April 27, 2023 10:28:33
!Correction: S11(C  6-Port  ) 
!S12(C  6-Port  ) 
!S13(C  6-Port  ) 
!S14(C  6-Port  ) 
!S15(C  6-Port  ) 
!S16(C  6-Port  ) 
!S21(C  6-Port  ) 
!S22(C  6-Port  ) 
!S23(C  6-Port  ) 
!S24(C  6-Port  ) 
!S25(C  6-Port  ) 
!S26(C  6-Port  ) 
!S31(C  6-Port  ) 
!S32(C  6-Port  ) 
!S33(C  6-Port  ) 
!S34(C  6-Port  ) 
!S35(C  6-Port  ) 
!S36(C  6-Port  ) 
!S41(C  6-Port  ) 
!S42(C  6-Port  ) 
!S43(C  6-Port  ) 
!S44(C  6-Port  ) 
!S45(C  6-Port  ) 
!S46(C  6-Port  ) 
!S51(C  6-Port  ) 
!S52(C  6-Port  ) 
!S53(C  6-Port  ) 
!S54(C  6-Port  ) 
!S55(C  6-Port  ) 
!S56(C  6-Port  ) 
!S61(C  6-Port  ) 
!S62(C  6-Port  ) 
!S63(C  6-Port  ) 
!S64(C  6-Port  ) 
!S65(C  6-Port  ) 
!S66(C  6-Port  ) 
!S6P File: Measurement: :
# Hz S  RI   R 50
500000000 -0.33931 -0.021011 -0.010557 -0.0034957 -0.0072614 0.012061 -0.0035502 0.012423
0.011929 0.0045396 -0.0025166 0.0090522
-0.010536 -0.0035057 -0.41851 -0.039204 0.0066477 -0.011781 0.002164 0.012014
0.0069611 0.0023829 0.0033871 0.012837
-0.0072685 0.012088 0.0066526 -0.011806 -0.26303 0.22025 0.0073675 0.0033332
-0.00091426 0.0086376 0.0029591 0.011338
-0.0035689 0.012372 0.002112 0.011996 0.0073425 0.0033137 -0.33108 0.059376
-0.020524 -0.0065816 0.015103 0.024083
0.011911 0.0044071 0.0069863 0.0024335 -0.0008468 0.0086174 -0.020555 -0.0065106
-0.23349 -0.16843 -0.026364 0.004666
-0.0024532 0.0088558 0.0029262 0.012617 0.0028905 0.011215 0.015067 0.024429
-0.02631 0.0046127 -0.28275 -0.087104
560000000 -0.31278 0.13663 -0.025898 -0.06072 0.00060068 0.011462 0.0052649 0.0096122
0.0096186 0.0042871 0.010326 0.0075554
-0.025829 -0.060658 -0.37552 0.11701 -0.042208 -0.035364 0.013167 0.0040342
-0.012177 -0.0032807 0.0027062 -0.00097085
0.00057829 0.011402 -0.042239 -0.035322 -0.18041 0.2662 -0.00041549 -0.0050347
0.018658 0.0044131 0.0067446 -0.0065274
0.0052999 0.0096112 0.01319 0.0041627 -0.00046233 -0.0049845 -0.30593 0.14635
0.001729 -0.024567 0.0034093 -0.018379
0.0096327 0.0040806 -0.011956 -0.003243 0.018814 0.0046497 0.0016347 -0.024704
-0.28719 0.0048777 0.0051813 -0.046637
0.010446 0.0075207 0.0026562 -0.00083836 0.0065132 -0.0066122 0.0034982 -0.018405
0.0052432 -0.046705 -0.33072 0.052934
620000000 -0.27054 0.12086 -0.023243 0.0073744 0.0036057 0.00792 0.0079154 -0.0052448
0.010575 -0.0011464 0.0011552 -0.0020411
-0.023223 0.0073919 -0.40129 0.071569 -0.019796 0.00049216 -0.00097976 -0.0024453
0.010303 -0.0062006 0.0014345 -0.0029241
0.0035927 0.0079318 -0.019813 0.00052022 -0.14991 0.27601 -0.0013628 -0.0050554
-0.0031867 -0.0028911 0.0078711 -0.0030415
0.0078371 -0.0052152 -0.00098658 -0.0024617 -0.001406 -0.0050652 -0.26268 0.1577
-0.040362 -0.017134 0.012051 0.023258
0.010363 -0.001206 0.010217 -0.0061021 -0.0032005 -0.0029655 -0.040338 -0.01716
-0.21119 -0.031725 -0.038228 0.015471
0.0012489 -0.0021864 0.0014704 -0.0029459 0.0080001 -0.0033808 0.011869 0.023131
-0.038197 0.015477 -0.25515 0.023242
680000000 -0.22805 0.20322 -0.027796 -0.012573 0.0055473 0.0044973 0.0012343 -0.0072904
-0.0024155 -0.010917 0.003748 -0.0069317
-0.027772 -0.012583 -0.38478 0.16554 -0.032295 0.00033615 -0.0014404 -0.00072056
-0.0024755 -0.0087559 -0.0014406 -0.0024095
0.0055792 0.0045129 -0.032314 0.00038443 -0.099114 0.29338 -0.00098118 -0.00038701
-0.0018905 0.00029041 -0.0033514 -0.0084515
0.0012564 -0.0072888 -0.0014547 -0.0006854 -0.00099849 -0.0003672 -0.217 0.20618
-0.026419 -0.0046795 -0.0091467 -0.0090587
-0.002385 -0.010979 -0.0025149 -0.0088053 -0.0018631 0.00037043 -0.026425 -0.0046175
-0.25069 0.063394 -0.0077487 -0.0073056
0.0035985 -0.0067983 -0.0015544 -0.002476 -0.0033021 -0.0085916 -0.0090974 -0.0087666
-0.007803 -0.0073015 -0.25509 0.12035
740000000 -0.18475 0.19785 -0.036887 0.025951 0.01193 -0.0058869 -0.00059508 -0.0040875
-0.0047878 -0.0026844 -0.0058215 0.0028857
-0.036875 0.02591 -0.33337 0.18557 -0.033041 0.035154 -0.0011341 -0.0063239
-0.011152 0.0078548 -0.0018975 -0.00482
0.011928 -0.0059028 -0.032971 0.035192 -0.065262 0.293 -0.0017423 0.0032263
-0.0031658 -0.0048253 -0.0022837 0.001793
-0.00065218 -0.0040696 -0.0011568 -0.0063097 -0.0017436 0.0032391 -0.19948 0.21489
-0.042723 -0.0031036 0.022645 0.012571
-0.0049304 -0.0026847 -0.01097 0.0079085 -0.0032648 -0.00479 -0.042797 -0.0030754
-0.15709 0.087174 -0.039512 0.0021589
-0.00579 0.0028909 -0.0019238 -0.0048681 -0.0021194 0.0019381 0.022668 0.012478
-0.03969 0.002175 -0.24282 0.13082
800000000 -0.15116 0.23547 -0.021778 0.017429 0.00453 -0.01033 -0.0045293 -0.0018615
-0.0036911 0.0028094 0.0036836 0.00068175
-0.021779 0.017395 -0.33376 0.25388 -0.0068339 0.033604 -0.0023271 0.0023052
-0.00053509 0.0033838 0.0011284 0.0051827
0.004492 -0.010335 -0.0067574 0.033628 -0.022727 0.31507 0.00094325 0.001739
0.00044868 0.0034795 -0.0017624 0.0011102
-0.004539 -0.0018689 -0.0023135 0.0022956 0.00095043 0.0017159 -0.16938 0.24122
-0.026965 0.016589 0.012709 -0.0096933
-0.003713 0.0028405 -0.00058748 0.0033348 0.00041094 0.0034374 -0.026949 0.016654
-0.19591 0.11283 -0.015606 0.01856
0.0037321 0.00069339 0.0010471 0.0051921 -0.0018135 0.0011377 0.012806 -0.0097921
-0.015664 0.018477 -0.23139 0.17487
860000000 -0.11611 0.2557 -0.015956 0.030926 -0.0037907 -0.0094661 -0.002122 0.0013293
0.0047333 0.0047411 -0.0026832 -0.0026783
-0.015944 0.030874 -0.28637 0.29533 0.0091454 0.033254 0.00020491 0.0022731
0.004801 0.00033243 0.0030483 0.00052505
-0.0037896 -0.0094503 0.0092266 0.033242 0.025654 0.32204 -0.0003315 -0.00016739
0.0027208 -0.0012888 0.0015798 0.0041232
-0.0020892 0.0013316 0.00020525 0.0023059 -0.00034544 -0.00016336 -0.13253 0.25177
-0.014831 0.020698 -0.00577 -0.0096869
0.0048093 0.0047304 0.0048697 0.00031866 0.0027641 -0.0012546 -0.014826 0.020754
-0.14254 0.15922 -0.021968 0.01729
-0.0027769 -0.0026873 0.0031745 0.00053071 0.001608 0.004238 -0.0059599 -0.009646
-0.02187 0.017298 -0.18192 0.21655
920000000 -0.089434 0.27737 0.0062955 0.037044 -0.0092624 -0.0037716 -0.0012714 0.0018529
0.001664 0.001477 0.0026712 -0.0019542
0.0062478 0.037008 -0.25578 0.31599 0.028258 0.02039 0.0020003 0.00097669
0.0069697 -0.00060684 0.0035031 -0.0030026
-0.0092644 -0.0037642 0.028327 0.020335 0.073387 0.322 0.0020327 -0.00011105
0.001655 -0.000695 0.0008865 -0.0012335
-0.0012612 0.0018418 0.0019935 0.00095893 0.0020341 -0.00010699 -0.10648 0.26777
-0.007332 0.030992 0.0024431 -0.0063569
0.001659 0.0014781 0.0069824 -0.00060989 0.0016738 -0.00069047 -0.0073094 0.031016
-0.12972 0.16364 -0.00077546 0.025618
0.0026994 -0.002056 0.0035291 -0.0030179 0.00082618 -0.0012773 0.0025539 -0.006343
-0.00080587 0.025599 -0.18201 0.23104
980000000 -0.04235 0.29499 0.018597 0.028667 -0.0083853 0.0048342 0.0021364 0.002871
0.0037646 -0.0018681 -0.0033214 -0.0020705
0.018546 0.028647 -0.20383 0.34825 0.032459 0.0032256 0.0021179 -0.00034613
0.0015394 -0.0061138 -0.0005043 -0.0021739
-0.0083788 0.0048356 0.032487 0.0031664 0.11982 0.3138 0.00039994 -0.0013554
0.00014718 -0.0022358 0.0014475 -0.00016121
0.0021515 0.0028678 0.002103 -0.00036053 0.00040157 -0.0013568 -0.067806 0.27716
0.010716 0.028773 -0.0085532 -0.0061612
0.0037628 -0.0018934 0.0014994 -0.0061839 0.00016672 -0.0022503 0.010746 0.028758
-0.098213 0.1888 0.0063925 0.018204
-0.0032765 -0.0019533 -0.00065165 -0.0022041 0.0014118 -0.00022785 -0.0085788 -0.0061018
0.006347 0.018156 -0.1374 0.2693
1040000000 0.00026988 0.30248 0.032965 0.015872 -0.0010206 0.0066823 0.0023596 0.00062761
8.0109e-05 -0.0032537 -0.00068771 -0.0013294
0.032917 0.015893 -0.168 0.36134 0.027729 -0.015702 0.0013425 -0.001794
-0.0025168 -0.0023135 -0.0016831 -0.0027569
-0.0010201 0.0066665 0.027716 -0.015775 0.16641 0.29925 -0.0006854 -0.0014037
-0.0017116 -0.0009483 -0.00041207 -0.0009948
0.002363 0.00061805 0.0013202 -0.0017946 -0.00068551 -0.0014073 -0.038982 0.28655
0.021304 0.015739 -0.0025017 0.0010966
4.5138e-05 -0.0032523 -0.002502 -0.0023501 -0.0016867 -0.00095633 0.021299 0.015728
-0.065924 0.19585 0.013809 0.015951
-0.00080856 -0.0013031 -0.0016613 -0.0026877 -0.00040057 -0.0010259 -0.0025837 0.001106
0.013823 0.015964 -0.11285 0.28959
1100000000 0.046129 0.30847 0.034605 -0.005711 0.0029031 0.0035531 0.0021501 -0.0010645
-0.0018796 -0.0028831 -0.0036054 0.00040601
0.034572 -0.0056777 -0.12418 0.37767 0.013568 -0.02758 -0.00011396 -0.0016962
-0.0032066 -0.0005167 -0.0031683 -0.00026312
0.0029144 0.0035363 0.0135 -0.02763 0.21326 0.27694 -0.0018216 0.00028904
-0.0017832 0.00063593 -0.0010662 -0.00033179
0.0021511 -0.0010542 -0.00012912 -0.0017192 -0.001819 0.00029346 0.0026681 0.28917
0.025084 0.0024403 -0.0024632 5.6603e-05
-0.0019217 -0.0028892 -0.0032659 -0.00056228 -0.0017822 0.00063425 0.025118 0.0024095
-0.047285 0.20733 0.018548 0.0060475
-0.0035674 0.00042171 -0.0031679 -0.0002996 -0.0010684 -0.00030114 -0.0024766 9.8648e-05
0.018523 0.0060322 -0.06621 0.31373
1160000000 0.096972 0.30231 0.022207 -0.02142 0.0023668 -0.00041363 -0.00013947 -0.0021249
-0.0038217 -0.00051 -0.00076647 0.0037663
0.022207 -0.021393 -0.079921 0.38137 -0.0049261 -0.027942 -0.0016283 -0.0014329
-0.0025003 0.0025419 -0.0014006 0.0016015
0.0023663 -0.0004323 -0.0049991 -0.027934 0.25554 0.24447 -0.00077617 0.0017539
-0.00031084 0.0019351 -0.00072963 0.00020273
-0.00014123 -0.0021067 -0.0016385 -0.0014146 -0.00077348 0.0017452 0.041976 0.28398
0.020417 -0.012884 -0.0031671 0.004435
-0.0038603 -0.00052058 -0.0024713 0.0025899 -0.00033576 0.0019365 0.020409 -0.012933
-0.013764 0.21426 0.016694 -0.001688
-0.00071786 0.003789 -0.0015121 0.0016655 -0.00072914 0.00013566 -0.0031296 0.0044789
0.016695 -0.0016981 -0.019117 0.31434
1220000000 0.1418 0.28949 0.0085442 -0.029465 -0.0015128 -0.00040897 6.2209e-05 -0.00088451
-0.0023403 0.002354 0.0013189 0.0018028
0.0085522 -0.029434 -0.035477 0.39218 -0.0171 -0.019682 -0.0023808 0.0004642
0.00011613 0.0029447 -0.00055021 0.0019389
-0.0015092 -0.00041658 -0.017166 -0.019631 0.29411 0.20428 0.00084462 0.0017584
0.00054608 0.0011595 0.00029911 0.00054393
6.4723e-05 -0.00087528 -0.0023879 0.00046235 0.00083728 0.0017581 0.082239 0.27325
0.0091208 -0.01897 0.0014927 0.0014437
-0.0023545 0.0023541 0.00014536 0.0029123 0.00053745 0.0011601 0.0090809 -0.018979
0.010518 0.22126 0.011792 -0.013234
0.0013278 0.0018003 -0.00051452 0.0019501 0.00029329 0.00056824 0.0014806 0.0014282
0.011812 -0.013233 0.01393 0.32704
1280000000 0.19051 0.26564 -0.0089777 -0.027081 -0.0014998 0.0027217 -0.00097083 -0.0018734
-0.00062504 0.0028759 0.0022811 0.00079769
-0.0089435 -0.027054 0.010285 0.38207 -0.023086 -0.0073702 -0.00088507 0.0014115
0.0016864 0.0016342 0.00074258 0.0017406
-0.0014904 0.0027202 -0.023129 -0.0072915 0.32342 0.15914 0.0015869 3.0004e-05
0.0011563 0.00022249 0.00025235 0.00011118
-0.00096716 -0.0018799 -0.00087334 0.0014162 0.0015676 2.044e-05 0.11792 0.25412
-0.00085272 -0.02024 -0.00053025 0.00044718
-0.00063524 0.002884 0.0016704 0.001599 0.001131 0.00023459 -0.00087663 -0.020228
0.046957 0.2227 0.0014534 -0.014772
0.002304 0.0008234 0.00071512 0.0017271 0.00025486 0.00010901 -0.000524 0.00042938
0.0014582 -0.014772 0.059766 0.32472
1340000000 0.22693 0.2308 -0.017911 -0.017219 0.0012702 0.004189 -0.001624 -0.00089766
0.0014676 0.0025256 0.0014131 -0.0014918
-0.017885 -0.017205 0.049375 0.37284 -0.020541 0.0048019 -0.0001625 0.0020145
0.0018807 0.00067232 0.0013463 0.00060906
0.0012827 0.0041859 -0.020536 0.0048755 0.34434 0.11102 0.0012145 -0.0010347
0.00067499 -0.0004479 6.1625e-05 0.0002383
-0.00164 -0.00090567 -0.00015767 0.0020191 0.0012196 -0.0010237 0.14917 0.23225
-0.010412 -0.016574 0.00055112 0.0011546
0.0014786 0.0025271 0.0018789 0.00067268 0.00065372 -0.00044528 -0.010439 -0.016562
0.076638 0.216 -0.0049892 -0.012627
0.0014015 -0.0014875 0.0013108 0.00058549 4.3787e-05 0.0002598 0.00056574 0.0011978
-0.0049825 -0.012649 0.098675 0.31705
1400000000 0.259 0.19128 -0.022617 -0.0060187 0.0052053 0.0026167 -0.0020842 0.00054438
0.0023492 0.00077799 0.00011562 -0.0013782
-0.022593 -0.006017 0.086242 0.35908 -0.013762 0.012259 0.0013163 0.001346
0.0011557 -0.00084317 0.0010627 3.2708e-05
0.005215 0.0026137 -0.013723 0.012317 0.35701 0.057182 0.00012062 -0.0018358
2.6296e-05 -0.00042068 0.00030324 0.00023423
-0.0020694 0.00055962 0.0013296 0.0013449 0.00012825 -0.0018461 0.17724 0.20172
-0.015964 -0.0093772 -0.00045396 0.00041008
0.0023233 0.00077406 0.0011573 -0.00085422 4.6576e-05 -0.00044183 -0.016003 -0.0093774
0.10894 0.20914 -0.010824 -0.0075836
0.00010566 -0.001352 0.0010619 6.7355e-05 0.00032761 0.00023453 -0.0004661 0.00041638
-0.010822 -0.0075899 0.14169 0.30303
1460000000 0.28024 0.14665 -0.01927 0.0053402 0.005301 -0.0021871 -0.0015519 0.0015997
0.0020025 -0.00059386 -0.00033172 -0.00089729
-0.019271 0.0053241 0.11975 0.33664 -0.0055536 0.014648 0.0017711 0.00017684
0.00081092 -0.0012611 0.0010812 -0.00061498
0.0053079 -0.002189 -0.0055019 0.014664 0.36158 0.0024793 -0.0013881 -0.0013571
0.00022879 -0.00018462 0.00061441 -0.00028587
-0.0015513 0.0015985 0.0017682 0.00016784 -0.0013875 -0.0013607 0.201 0.17149
-0.016831 -0.0022676 -0.00024017 0.0022179
0.0020086 -0.00064325 0.0008213 -0.0012959 0.00023296 -0.00022144 -0.016838 -0.0022419
0.13674 0.19278 -0.011569 -0.0017478
-0.00034439 -0.00088847 0.0010758 -0.00061886 0.00059063 -0.00032941 -0.00020495 0.002216
-0.011561 -0.0017623 0.17343 0.28019
1520000000 0.29134 0.10399 -0.013478 0.010287 0.0027433 -0.0041172 7.1496e-05 0.0025834
0.0019081 -0.0015994 -0.0010132 -0.00011439
-0.013478 0.010274 0.15297 0.32151 0.001587 0.012395 0.0016798 -0.00087249
-3.8372e-05 -0.0011088 0.00026596 -0.00091476
0.0027374 -0.0041341 0.0016362 0.012387 0.35447 -0.053873 -0.0014091 -0.0002951
0.00055232 -0.00083981 -3.4712e-06 -0.00018466
6.2572e-05 0.0025917 0.001683 -0.00087491 -0.0014062 -0.0002898 0.22202 0.13362
-0.015618 0.0037716 0.0019778 0.0018752
0.0019192 -0.0016361 -2.4711e-05 -0.0011067 0.00054546 -0.00084409 -0.015628 0.0037986
0.16373 0.1771 -0.011249 0.0026078
-0.00099479 -0.00011692 0.00024622 -0.00093005 -3.1529e-05 -0.00020486 0.0019634 0.0018661
-0.011233 0.0026069 0.20562 0.25742
1580000000 0.29918 0.057611 -0.0072497 0.012882 -0.0011613 -0.0045724 0.0014806 0.0019515
-0.00017627 -0.0021166 -0.00029656 0.00032591
-0.0072517 0.012866 0.17974 0.29606 0.0049323 0.0077904 0.00043467 -0.0016909
-0.00059194 -0.0010511 -0.00019761 -0.00078537
-0.001179 -0.0045672 0.0049587 0.0077826 0.33358 -0.11159 -0.0016533 0.0010048
-0.00040499 -0.0011969 0.00023355 -0.00045495
0.0014933 0.0019407 0.00043137 -0.0016842 -0.0016357 0.00099697 0.2337 0.094576
-0.011824 0.0086778 0.0024394 0.00035954
-0.00019827 -0.0020876 -0.00061126 -0.0010463 -0.00038756 -0.0011504 -0.011828 0.0087164
0.18649 0.15725 -0.0086989 0.007642
-0.00029631 0.00031342 -0.00019759 -0.00079329 0.00024262 -0.00046223 0.0024235 0.00033512
-0.0087028 0.007634 0.23553 0.22885
1640000000 0.29991 0.016069 -0.00097425 0.011515 -0.0027993 -0.0022758 0.0027628 0.00095912
-0.0007521 -0.0015408 -0.00030494 0.00061169
-0.00098315 0.011508 0.20872 0.27082 0.0055166 0.0034026 -0.00086415 -0.0016802
-0.0010661 -0.00031823 -0.00054925 -0.00054079
-0.0027972 -0.0022657 0.0055371 0.0033854 0.30415 -0.16009 -0.00053348 0.0016134
-0.0011425 -0.00088685 -0.00019109 -0.00017642
0.0027612 0.00094666 -0.00088052 -0.0016704 -0.0005574 0.0016039 0.24405 0.04747
-0.0072405 0.01017 0.002473 -0.0011474
-0.00075675 -0.0015311 -0.0010895 -0.0003142 -0.0011673 -0.0009091 -0.0072247 0.010205
0.20716 0.13195 -0.0040257 0.0092796
-0.00028707 0.00064789 -0.00054414 -0.00052878 -0.00011877 -0.00015646 0.0024623 -0.0011365
-0.0040296 0.0092759 0.2596 0.19645
1700000000 0.29152 -0.029297 0.0020906 0.0087243 -0.0032872 0.00027835 0.00294 -0.0014176
-0.0019641 -0.00068922 0.00065974 0.00044468
0.0020901 0.0087112 0.22658 0.239 0.0036228 0.00073981 -0.0015139 -0.00046078
-0.00073903 0.00023973 -0.00086507 -0.00036799
-0.0032645 0.00028412 0.0036286 0.00072288 0.26055 -0.19978 0.00073746 0.0015403
-0.0018697 8.8334e-06 -0.00052273 -0.00077528
0.0029403 -0.0014359 -0.001505 -0.00046516 0.00072162 0.0015505 0.24038 -0.00046619
-0.0038928 0.01062 0.0013428 -0.0022884
-0.0019777 -0.00068447 -0.0007434 0.00025646 -0.0018909 1.0349e-05 -0.0038654 0.010654
0.22299 0.1107 0.00032478 0.0093671
0.00064341 0.00043869 -0.00085432 -0.00035344 -0.00053732 -0.00081162 0.0013475 -0.0022969
0.0003146 0.0093785 0.27413 0.16082
1760000000 0.27777 -0.077652 0.003966 0.0055616 -0.0020926 0.0008595 0.0010074 -0.003486
-0.0014377 0.00066719 0.0004294 -0.00039947
0.0039587 0.0055582 0.25172 0.19847 0.0016608 -0.001097 -0.0011685 0.00031822
-0.00089953 0.00095666 -0.00058606 0.0004839
-0.0020972 0.00088099 0.0016587 -0.0011026 0.21166 -0.23284 0.0013979 0.00077972
-0.0010708 0.0015467 -0.0014528 -0.00027038
0.00098081 -0.0034889 -0.0011698 0.00032406 0.0014068 0.00080036 0.23118 -0.049845
-0.00034408 0.0098025 -0.00040193 -0.002497
-0.0014458 0.00065582 -0.00089109 0.00094876 -0.0011277 0.0015447 -0.00032031 0.0097863
0.23543 0.075257 0.0039634 0.0067611
0.00041382 -0.00039726 -0.00057015 0.00051888 -0.0013976 -0.00013579 -0.00038862 -0.0024897
0.0039692 0.006763 0.28462 0.12224
1820000000 0.25222 -0.11418 0.0040024 0.0023547 0.0001018 0.0023608 -0.0012248 -0.0028364
-0.0010265 0.0010335 0.00017358 -0.0001074
0.0039918 0.0023517 0.26112 0.16848 -0.00015559 -2.8103e-05 -0.0011147 0.0010052
0.0001703 0.0012562 -0.00046809 0.00058501
0.00010407 0.0023482 -0.00015646 -2.9198e-05 0.16163 -0.24825 0.0013689 -1.3272e-05
6.7471e-05 0.0022278 -0.0012954 0.0005076
-0.0012299 -0.00281 -0.0011188 0.0010089 0.0013652 -2.6723e-05 0.20244 -0.095228
0.0015563 0.00778 -0.0015533 -0.0014297
-0.0010349 0.001076 0.00016446 0.001245 0.0001039 0.0022144 0.0015654 0.0077859
0.25102 0.045983 0.0048397 0.0034309
0.00013809 -0.00015112 -0.00045721 0.00054497 -0.0013304 0.00046655 -0.0015821 -0.0014882
0.004851 0.0034288 0.28542 0.085201
1880000000 0.21589 -0.15377 0.0017848 0.0003712 -0.00031215 0.0019355 -0.0028518 -0.0018887
-0.00012551 0.0017803 0.00021522 -0.00056727
0.0017818 0.00037136 0.26494 0.12148 -0.0022854 0.0016082 -3.7863e-06 0.0016563
0.00062538 0.0009918 0.00021506 0.00089652
-0.00030615 0.0019437 -0.0022715 0.0016075 0.1083 -0.25853 0.0012512 -0.001008
0.0016006 0.0017089 -0.00076685 0.0012562
-0.0028722 -0.0018933 1.0442e-05 0.0016537 0.0012388 -0.0009904 0.16358 -0.1355
0.0025823 0.0054393 -0.0021946 0.00029174
-6.2349e-05 0.001782 0.0006361 0.00099414 0.0015917 0.0016566 0.0025899 0.0054935
0.25251 0.012904 0.0047423 0.0013427
0.00020685 -0.00058618 0.00021997 0.0008814 -0.00074789 0.0012522 -0.0022363 0.00031657
0.0047342 0.0013377 0.28372 0.050696
1940000000 0.17576 -0.17891 -0.00026294 -0.0011336 0.0016505 0.0018692 -0.0034991 0.00072415
0.0015863 0.0010766 -0.00057274 -0.00075937
-0.00026602 -0.0011362 0.26453 0.090068 -0.0010271 0.004031 0.001008 0.001114
0.0016425 0.00030742 0.00091521 0.00022537
0.0016512 0.0018604 -0.0010161 0.0040346 0.061549 -0.25057 0.0001717 -0.0016622
0.002257 0.00015939 0.00050707 0.0015947
-0.0035072 0.00074063 0.0010284 0.0010881 0.00021684 -0.0016573 0.11219 -0.16622
0.0019721 0.0036502 -0.0013462 0.0012715
0.0015896 0.0010599 0.0016539 0.0003069 0.0022152 0.000183 0.002006 0.0036324
0.25264 -0.025929 0.0034951 -0.0017396
-0.00059168 -0.00080541 0.00093019 0.00020578 0.00050057 0.0015093 -0.0013127 0.0012938
0.0034929 -0.0017323 0.27106 0.014215
2000000000 0.1294 -0.19282 -0.0039221 0.0010176 0.0024409 0.0014354 -0.0022473 0.0032452
0.0013238 -0.00010342 -0.00061567 0.00039679
-0.003923 0.0010228 0.25015 0.054498 -0.00085967 0.0056939 0.0014675 0.00020055
0.0011191 -0.0012623 0.0003846 3.6806e-06
0.0024584 0.0014151 -0.00082935 0.005696 0.018242 -0.2359 -0.00097592 -0.00092032
0.0016326 -0.0011106 0.0015747 0.00094109
-0.0022114 0.0032534 0.0014472 0.00019559 -0.0010055 -0.00095176 0.059348 -0.17754
0.00020866 0.0026615 -7.7998e-05 0.0019602
0.0013005 -8.5038e-05 0.0010748 -0.0012926 0.0016249 -0.0011232 0.00018068 0.002664
0.24581 -0.060297 0.00045868 -0.0027128
