!Keysight Technologies,M9804A,MY58100912,A.14.10.03
!Date: Thursday, April 27, 2023 10:28:33
!Correction: S11(C  6-Port  ) 
!S12(C  6-Port  ) 
!S13(C  6-Port  ) 
!S14(C  6-Port  ) 
!S15(C  6-Port  ) 
!S16(C  6-Port  ) 
!S21(C  6-Port  ) 
!S22(C  6-Port  ) 
!S23(C  6-Port  ) 
!S24(C  6-Port  ) 
!S25(C  6-Port  ) 
!S26(C  6-Port  ) 
!S31(C  6-Port  ) 
!S32(C  6-Port  ) 
!S33(C  6-Port  ) 
!S34(C  6-Port  ) 
!S35(C  6-Port  ) 
!S36(C  6-Port  ) 
!S41(C  6-Port  ) 
!S42(C  6-Port  ) 
!S43(C  6-Port  ) 
!S44(C  6-Port  ) 
!S45(C  6-Port  ) 
!S46(C  6-Port  ) 
!S51(C  6-Port  ) 
!S52(C  6-Port  ) 
!S53(C  6-Port  ) 
!S54(C  6-Port  ) 
!S55(C  6-Port  ) 
!S56(C  6-Port  ) 
!S61(C  6-Port  ) 
!S62(C  6-Port  ) 
!S63(C  6-Port  ) 
!S64(C  6-Port  ) 
!S65(C  6-Port  ) 
!S66(C  6-Port  ) 
!S6P File: Measurement: :
# Hz S  RI   R 50
500000000 -0.33902 -0.020902 -0.010361 -0.0038335 -0.0076545 0.012037 -0.003554 0.012081
0.011811 0.0047502 -0.0022891 0.0089685
-0.010467 -0.0037406 -0.41925 -0.038941 0.0065775 -0.011846 0.0021074 0.012423
0.0069708 0.002117 0.0033369 0.012927
-0.0076952 0.012035 0.0064027 -0.012042 -0.26298 0.22041 0.0072332 0.0035558
-0.00099309 0.0084681 0.0029074 0.011344
-0.0034056 0.012074 0.002012 0.012118 0.007162 0.0035304 -0.3307 0.058861
-0.020461 -0.0065685 0.015205 0.023723
0.011721 0.0046739 0.006995 0.0026872 -0.00054126 0.0084897 -0.02036 -0.0064107
-0.23364 -0.16864 -0.026466 0.0048909
-0.002443 0.0083258 0.0029362 0.013199 0.0025234 0.011429 0.016108 0.024461
-0.02645 0.0049842 -0.2823 -0.087557
560000000 -0.31285 0.13589 -0.02576 -0.061082 0.0010141 0.011024 0.0047723 0.010791
0.0089082 0.0037995 0.0099371 0.0072732
-0.025936 -0.061201 -0.37471 0.11655 -0.042612 -0.034786 0.013329 0.0036252
-0.01233 -0.0037079 0.0027622 -0.0010992
0.0012426 0.011382 -0.042368 -0.03481 -0.18075 0.26568 -0.00038097 -0.0049883
0.019154 0.0042963 0.0067827 -0.0065049
0.0050779 0.0094856 0.013067 0.0033366 -0.00051417 -0.0048369 -0.30499 0.14638
0.0013637 -0.024121 0.00343 -0.01821
0.010205 0.004238 -0.012363 -0.003608 0.01958 0.0040949 0.00063341 -0.024965
-0.28805 0.0059605 0.0050359 -0.046766
0.010436 0.0071417 0.0036439 -0.0012508 0.0062522 -0.0062854 0.0038295 -0.017916
0.0050494 -0.047677 -0.33085 0.05283
620000000 -0.2703 0.12059 -0.023222 0.0072514 0.0033841 0.0079299 0.007277 -0.0052616
0.010388 -0.0012815 0.0012268 -0.0018984
-0.02326 0.0074395 -0.40117 0.071674 -0.019654 0.00051308 -0.00098778 -0.0024083
0.010073 -0.0059701 0.0015048 -0.0028452
0.0034774 0.0078571 -0.019786 0.00053347 -0.15013 0.27597 -0.0011593 -0.0049286
-0.0031301 -0.0028443 0.0075959 -0.0030176
0.0074401 -0.0056737 -0.0013774 -0.0022906 -0.0011734 -0.0048927 -0.26311 0.1582
-0.040088 -0.017124 0.01184 0.023378
0.011136 -0.00088028 0.010556 -0.006044 -0.0035293 -0.0026555 -0.039873 -0.01744
-0.21103 -0.032755 -0.037847 0.01519
0.0011333 -0.0032334 0.00067169 -0.0033179 0.0074548 -0.0033561 0.011025 0.023719
-0.036562 0.016677 -0.25518 0.022636
680000000 -0.22769 0.20317 -0.027805 -0.012184 0.0053465 0.0046364 0.0010416 -0.0070267
-0.0022207 -0.011195 0.003916 -0.0070496
-0.027559 -0.012464 -0.38473 0.16583 -0.032269 0.00021608 -0.0015975 -0.00043684
-0.0023341 -0.0089099 -0.0014276 -0.0023719
0.0054837 0.0047168 -0.032292 0.00029739 -0.098996 0.29321 -0.00093476 -0.00030467
-0.0018213 0.00024787 -0.0033806 -0.0084152
0.0011369 -0.007286 -0.0012864 -0.00086529 -0.00098108 -0.00018114 -0.21709 0.20571
-0.026381 -0.0045377 -0.0088698 -0.0094012
-0.0027552 -0.011027 -0.0025674 -0.0087162 -0.0016932 -0.00021604 -0.026275 -0.004591
-0.25178 0.06332 -0.0077816 -0.0070842
0.004404 -0.007371 -0.00097573 -0.0021915 -0.0033986 -0.0086362 -0.0080536 -0.0088615
-0.007776 -0.007421 -0.25486 0.12081
740000000 -0.18497 0.19766 -0.037285 0.025982 0.011968 -0.0058622 -0.00061362 -0.0042595
-0.0049957 -0.0026186 -0.005611 0.0029316
-0.036961 0.02588 -0.33395 0.18556 -0.032978 0.035028 -0.0011882 -0.0063039
-0.010734 0.0078007 -0.0021207 -0.0050458
0.012046 -0.0058567 -0.032916 0.034745 -0.065257 0.29296 -0.0017713 0.0031707
-0.003219 -0.0044394 -0.0021743 0.0015079
-0.00061594 -0.0043457 -0.0015799 -0.0064548 -0.0018429 0.0031967 -0.19965 0.21468
-0.042979 -0.0031455 0.022621 0.012539
-0.0048274 -0.0028362 -0.011486 0.0077245 -0.0029837 -0.0047464 -0.042772 -0.0031199
-0.15731 0.085847 -0.038748 0.0023663
-0.0055024 0.0030633 -0.0024352 -0.005202 -0.0021561 0.0012764 0.022588 0.01245
-0.039253 0.0037533 -0.24381 0.13083
800000000 -0.15123 0.23556 -0.021727 0.017381 0.0046096 -0.010411 -0.0045838 -0.0017846
-0.0038095 0.0028021 0.003701 0.00064507
-0.021784 0.017352 -0.33389 0.25392 -0.0068307 0.033614 -0.0023548 0.0021966
-0.00073501 0.0032942 0.0012696 0.0053126
0.0044802 -0.010408 -0.0067889 0.033651 -0.022708 0.315 0.00093002 0.001643
0.00033403 0.0035004 -0.0017208 0.0011696
-0.0045597 -0.0017125 -0.0022547 0.0024155 0.00089364 0.001612 -0.16927 0.24136
-0.026907 0.016613 0.012541 -0.0097457
-0.0035044 0.0026629 -0.00058454 0.0030264 0.00029023 0.003488 -0.026994 0.016439
-0.19622 0.1129 -0.015412 0.018994
0.0036938 0.00081884 0.0011277 0.0054616 -0.0016994 0.0010424 0.012636 -0.0097911
-0.016174 0.018953 -0.23074 0.17478
860000000 -0.11622 0.25576 -0.01588 0.031045 -0.0037302 -0.0094731 -0.0021467 0.0013504
0.004706 0.0047853 -0.0026001 -0.0025989
-0.016005 0.031025 -0.2866 0.29532 0.0092113 0.033241 0.00024694 0.002369
0.0050028 0.00012772 0.002956 0.00051068
-0.0038516 -0.0094151 0.0091827 0.033217 0.025703 0.32207 -0.0003692 -6.2794e-05
0.0028205 -0.0011816 0.0015443 0.0040893
-0.0020986 0.0014019 0.00021502 0.0024383 -0.00027129 -8.2533e-05 -0.13264 0.25156
-0.014833 0.020807 -0.0055444 -0.0095532
0.0044301 0.0045613 0.0048405 5.3597e-06 0.002736 -0.0012723 -0.014611 0.020728
-0.14256 0.15885 -0.022307 0.016866
-0.0028623 -0.0026221 0.0028039 0.00042519 0.0015842 0.0043189 -0.005452 -0.0092076
-0.021699 0.016975 -0.18227 0.21611
920000000 -0.089524 0.27735 0.0061537 0.036947 -0.009286 -0.0038104 -0.0012997 0.0018423
0.001679 0.001406 0.002646 -0.0019961
0.0061507 0.036929 -0.25584 0.31594 0.028239 0.020349 0.0018357 0.00082576
0.0070795 -0.00053835 0.0035347 -0.0029086
-0.0093162 -0.0037636 0.028279 0.020279 0.073301 0.32199 0.0020001 -0.00016665
0.0016519 -0.00063906 0.00092882 -0.0012127
-0.0013283 0.0019048 0.0019181 0.00084353 0.0020105 -0.00015623 -0.10657 0.26771
-0.0073194 0.030896 0.0023921 -0.0064659
0.001609 0.0015504 0.0069945 -0.00055802 0.0016042 -0.00070873 -0.0070997 0.031008
-0.12984 0.16377 -0.00095241 0.025672
0.0027077 -0.0019084 0.003584 -0.0031509 0.0008075 -0.0012247 0.0023946 -0.0065388
-0.00098248 0.025228 -0.18171 0.23106
980000000 -0.042393 0.29495 0.018667 0.028634 -0.0083781 0.0048365 0.0021376 0.002846
0.0039188 -0.0019134 -0.0032835 -0.0021522
0.018589 0.028573 -0.20375 0.34838 0.03244 0.0032716 0.002142 -0.00041892
0.0015126 -0.0060625 -0.00057044 -0.0021092
-0.0083614 0.0047967 0.032471 0.0031584 0.1198 0.31379 0.00041753 -0.0013527
0.00013132 -0.0022564 0.0014338 -0.00013582
0.0021773 0.0029186 0.0021174 -0.00033854 0.00043741 -0.0013494 -0.067873 0.27708
0.010639 0.028593 -0.008467 -0.0062067
0.003755 -0.0020347 0.0014887 -0.006104 9.8096e-05 -0.0023269 0.010847 0.028712
-0.098281 0.1892 0.0062272 0.018313
-0.0033779 -0.0019474 -0.00061916 -0.0022174 0.0013631 -0.000245 -0.0083949 -0.0062124
0.0065452 0.018128 -0.13749 0.26988
1040000000 0.00029961 0.30245 0.032952 0.015924 -0.00097018 0.0066593 0.0023474 0.00060713
6.2941e-05 -0.0031848 -0.00059093 -0.0013658
0.032948 0.015901 -0.16804 0.36145 0.02774 -0.015653 0.0013359 -0.0018044
-0.0024398 -0.0025188 -0.0016736 -0.0027568
-0.00097196 0.0066627 0.027718 -0.015743 0.16639 0.29925 -0.00068398 -0.0013959
-0.0016193 -0.00095355 -0.00046766 -0.0010061
0.0023449 0.000526 0.0012948 -0.0018095 -0.00067478 -0.0013864 -0.038925 0.28655
0.021328 0.01581 -0.0024597 0.001188
-2.1731e-05 -0.0031877 -0.0023579 -0.0023374 -0.0016909 -0.00086126 0.021378 0.015749
-0.066058 0.19573 0.013876 0.015924
-0.00069141 -0.0012581 -0.0015865 -0.0027662 -0.00041282 -0.0010661 -0.0024997 0.0011947
0.013775 0.015984 -0.11317 0.28954
1100000000 0.046085 0.30854 0.034584 -0.0057198 0.0029136 0.003536 0.002121 -0.0010784
-0.0019041 -0.0028129 -0.0035388 0.00039294
0.034516 -0.0056995 -0.1242 0.37773 0.01356 -0.027567 -8.8034e-05 -0.0017128
-0.0033367 -0.00050156 -0.0032376 -0.00020526
0.0029027 0.003543 0.01348 -0.027611 0.21326 0.27695 -0.0018026 0.00025271
-0.0018441 0.00067662 -0.0010218 -0.00033224
0.0022149 -0.0010578 -0.00013846 -0.0017103 -0.0018186 0.00024979 0.0026695 0.28915
0.025208 0.0023753 -0.0024335 5.8694e-05
-0.0019178 -0.0028217 -0.0032391 -0.00056343 -0.0018377 0.00064588 0.025219 0.0023608
-0.046784 0.20708 0.018567 0.0060646
-0.0035541 0.00061102 -0.0032585 -0.00035136 -0.00093668 -0.0002858 -0.0025316 0.00015239
0.01855 0.0062178 -0.065992 0.31363
1160000000 0.096942 0.30228 0.022197 -0.021443 0.0024085 -0.00043796 -0.0001608 -0.0021148
-0.0038718 -0.00052163 -0.00065117 0.0038122
0.022212 -0.021381 -0.07984 0.38138 -0.0049199 -0.02795 -0.0016276 -0.0014112
-0.0025375 0.0025514 -0.0013987 0.0016498
0.0023845 -0.00046063 -0.0049953 -0.027965 0.25549 0.24449 -0.00072423 0.0017598
-0.00039687 0.0018987 -0.00074409 0.00023468
-0.00010772 -0.0020843 -0.0016891 -0.0014476 -0.00073622 0.0017578 0.041918 0.28398
0.020459 -0.01292 -0.0032017 0.0042896
-0.0039086 -0.0005604 -0.0024442 0.0025378 -0.00040853 0.0019422 0.020432 -0.012957
-0.013795 0.21426 0.016675 -0.0017735
-0.00058157 0.0038311 -0.0013911 0.0016787 -0.00076971 0.00021454 -0.003064 0.004471
0.016415 -0.0016568 -0.018972 0.31446
1220000000 0.14175 0.2895 0.0085008 -0.029474 -0.0014649 -0.00042687 6.9056e-05 -0.00087118
-0.0023622 0.0023324 0.0012855 0.0017957
0.0085455 -0.029456 -0.0355 0.39211 -0.017082 -0.019652 -0.0024008 0.00046585
0.00016568 0.0029062 -0.00052369 0.0019017
-0.0014776 -0.0004381 -0.017156 -0.019618 0.29412 0.20433 0.00084422 0.0017359
0.00067348 0.0012236 0.00028812 0.00056814
3.6607e-05 -0.00089598 -0.0023619 0.00047752 0.00084793 0.0017256 0.082298 0.27324
0.0090322 -0.019019 0.0014389 0.0014496
-0.002386 0.0023652 0.00013535 0.0028817 0.00066439 0.0011422 0.0090349 -0.019033
0.01045 0.22082 0.011768 -0.013266
0.0013062 0.0018205 -0.00054085 0.0019525 0.00028614 0.0005956 0.0014406 0.0014766
0.011805 -0.013358 0.013868 0.32708
1280000000 0.19047 0.26569 -0.0089762 -0.02708 -0.0015001 0.002723 -0.00096507 -0.0018832
-0.00061446 0.0029473 0.0022553 0.00083024
-0.0089511 -0.027098 0.010282 0.38208 -0.023085 -0.0073675 -0.0008881 0.0014206
0.0016647 0.0016576 0.00074165 0.0017795
-0.0015046 0.0027251 -0.023135 -0.0072873 0.32338 0.15918 0.0015652 4.5407e-05
0.0011396 0.00024217 0.0003051 0.00012216
-0.00095205 -0.0018589 -0.00090907 0.0014002 0.0015586 5.515e-05 0.11791 0.25412
-0.00081512 -0.020314 -0.00054476 0.00049251
-0.00064476 0.0029027 0.0016679 0.0016615 0.0011504 0.00019549 -0.00092022 -0.020261
0.046984 0.22258 0.0014168 -0.0147
0.0023047 0.00088413 0.00064695 0.0017621 0.00028482 0.00012269 -0.00054151 0.00044121
0.0013646 -0.014716 0.05984 0.32459
1340000000 0.22687 0.23087 -0.017888 -0.017226 0.001283 0.0041788 -0.0016273 -0.00087771
0.001427 0.0025131 0.0014914 -0.0014634
-0.017868 -0.017232 0.049375 0.37288 -0.020581 0.0047991 -0.00012083 0.0020016
0.0018141 0.00069471 0.0013076 0.00067462
0.0012854 0.0041682 -0.020539 0.0048899 0.34433 0.11101 0.0012838 -0.0010083
0.00053409 -0.00046115 7.5687e-05 0.00025518
-0.0016699 -0.0008919 -0.00013113 0.0019661 0.0012756 -0.0010197 0.1491 0.23218
-0.010457 -0.016641 0.00057191 0.0010837
0.0014511 0.0024666 0.0018716 0.00069734 0.00059839 -0.00046984 -0.010448 -0.016658
0.076524 0.21604 -0.0050343 -0.012537
0.0014037 -0.0014497 0.0013057 0.00060381 8.9133e-05 0.00022276 0.00063852 0.0012054
-0.005101 -0.012671 0.098773 0.31721
1400000000 0.25899 0.19129 -0.022634 -0.0060255 0.0052265 0.0026098 -0.0021116 0.00054823
0.0022948 0.00083643 0.00010832 -0.0013976
-0.022612 -0.0060432 0.086216 0.35904 -0.01376 0.012216 0.0013125 0.0013661
0.001186 -0.00080614 0.001091 1.7348e-05
0.0052185 0.0026071 -0.01371 0.012283 0.35703 0.057175 7.4304e-05 -0.0018488
8.0752e-06 -0.00041629 0.00028171 0.00023092
-0.0020989 0.00055351 0.0013051 0.0013267 0.00010533 -0.0018295 0.17722 0.20173
-0.016028 -0.009358 -0.00041681 0.00042807
0.0022959 0.00081277 0.0011981 -0.00085812 2.1299e-05 -0.00041303 -0.016122 -0.0093426
0.1087 0.20916 -0.010804 -0.0076265
0.00011902 -0.0013891 0.0011147 4.4301e-05 0.00029193 0.00026407 -0.00043354 0.00044806
-0.010807 -0.0075838 0.1415 0.30304
1460000000 0.28028 0.14666 -0.019294 0.0053557 0.0053013 -0.0021704 -0.0015607 0.0015716
0.0019217 -0.00062166 -0.00036803 -0.00086323
-0.019243 0.0053258 0.11977 0.33665 -0.0055595 0.014649 0.0017626 0.00013503
0.00077446 -0.0012928 0.0011123 -0.00062417
0.0052623 -0.0022243 -0.0054707 0.014626 0.36164 0.0024747 -0.0014503 -0.0013535
0.00020246 -0.00021731 0.00060829 -0.00026833
-0.001591 0.0015624 0.0017362 0.0001297 -0.0014327 -0.0013549 0.20093 0.17155
-0.016896 -0.0021762 -0.00028741 0.0022018
0.0019202 -0.00061813 0.00077277 -0.0012912 0.00021256 -0.00016379 -0.016908 -0.0021617
0.13659 0.19289 -0.011629 -0.0017473
-0.00036286 -0.00090089 0.0010928 -0.00065462 0.00056763 -0.0003089 -0.00019022 0.0021565
-0.011569 -0.0017809 0.17353 0.28024
1520000000 0.29139 0.10405 -0.013484 0.010304 0.0027503 -0.0041118 8.8385e-05 0.0025889
0.0019353 -0.001646 -0.00098079 -6.8568e-05
-0.013473 0.010264 0.15301 0.3215 0.001617 0.012408 0.0016933 -0.00086515
-2.6328e-05 -0.0011183 0.00023581 -0.00091681
0.0027591 -0.0041441 0.001639 0.012426 0.35447 -0.053822 -0.0014113 -0.00030215
0.00060247 -0.00087242 2.3786e-05 -0.00019182
7.8704e-05 0.0025584 0.0016705 -0.00088313 -0.0014062 -0.00030004 0.22198 0.13367
-0.01571 0.0038676 0.0019771 0.0019041
0.0019264 -0.001629 -5.1911e-05 -0.0011059 0.00053784 -0.00084146 -0.015696 0.0038972
0.16362 0.17723 -0.011271 0.0025499
-0.0010188 -0.0001118 0.00023121 -0.00095449 -3.7545e-05 -0.0001604 0.0020107 0.0018861
-0.011269 0.0025778 0.20556 0.25745
1580000000 0.29919 0.057592 -0.0072323 0.012874 -0.0011859 -0.0045031 0.0014656 0.0019323
-0.00020016 -0.0021089 -0.0002866 0.00029371
-0.0072275 0.012875 0.17972 0.29607 0.0049199 0.0077968 0.00044226 -0.0016981
-0.00058874 -0.0010226 -0.00019568 -0.00078988
-0.0011861 -0.0045709 0.0049402 0.007763 0.33363 -0.11163 -0.0016379 0.00099456
-0.00043213 -0.0011484 0.00023515 -0.00048117
0.0014945 0.0019338 0.00043739 -0.0017192 -0.0016515 0.00099124 0.23365 0.094609
-0.011851 0.0088074 0.002419 0.00039786
-0.00016808 -0.0020807 -0.00057102 -0.0010309 -0.00039003 -0.001125 -0.011848 0.0088291
0.18643 0.15743 -0.0087339 0.0076758
-0.00030339 0.00037551 -0.00019476 -0.00076299 0.00025329 -0.00052713 0.002429 0.00036158
-0.0086564 0.0076048 0.23551 0.22887
1640000000 0.29989 0.016111 -0.00096989 0.011501 -0.0028153 -0.0023127 0.0027789 0.0009532
-0.00076347 -0.0015377 -0.00029143 0.00058614
-0.00099076 0.011505 0.20872 0.27083 0.0054979 0.0034004 -0.00085685 -0.0016742
-0.0010897 -0.00030733 -0.00052697 -0.00051943
-0.0027882 -0.0022585 0.0055073 0.0033897 0.30416 -0.16011 -0.00058027 0.0016628
-0.0011927 -0.00086602 -0.00017024 -0.00017574
0.0027795 0.00097462 -0.00089488 -0.0016526 -0.00056609 0.0016632 0.24409 0.04751
-0.0072036 0.010283 0.0025066 -0.0011263
-0.00075247 -0.0014807 -0.0011174 -0.0002658 -0.0012644 -0.0008672 -0.0071615 0.010307
0.20725 0.13215 -0.004083 0.0092669
-0.00031173 0.00061367 -0.00056741 -0.00059966 -0.00017909 -0.00027122 0.0024868 -0.0010987
-0.0040346 0.0092338 0.25954 0.19651
1700000000 0.29146 -0.029274 0.0020831 0.0087053 -0.003215 0.00030987 0.0029307 -0.0014566
-0.0019702 -0.00066108 0.00065896 0.00050048
0.0020708 0.0087162 0.22659 0.239 0.0036256 0.00071837 -0.0014983 -0.00047995
-0.00071399 0.00023426 -0.00086503 -0.00037295
-0.0032004 0.00034176 0.0036448 0.00072475 0.26046 -0.19993 0.00073751 0.0015777
-0.0018353 5.2343e-05 -0.00056376 -0.00071908
0.0029668 -0.0014428 -0.0014939 -0.00044798 0.00072954 0.0015332 0.2404 -0.00043076
-0.0038245 0.01066 0.0013583 -0.0023104
-0.0019736 -0.00064998 -0.00072248 0.0002882 -0.0018523 -3.3957e-05 -0.0037968 0.01067
0.22312 0.11078 0.00039889 0.0094047
0.0006486 0.00041664 -0.00081196 -0.0003626 -0.00045794 -0.00078454 0.0014205 -0.0023178
0.00039819 0.0093744 0.27422 0.16087
1760000000 0.2778 -0.077572 0.0039696 0.0055545 -0.0020185 0.00085006 0.0010052 -0.0034852
-0.0014741 0.00061935 0.00041095 -0.00044366
0.0039465 0.0055793 0.25174 0.19848 0.0016547 -0.0010522 -0.0011745 0.00032388
-0.00087733 0.00095492 -0.00058686 0.00047065
-0.0020222 0.00087725 0.0016692 -0.0010949 0.21176 -0.23276 0.0014115 0.00074977
-0.0010592 0.0016104 -0.0014042 -0.00031626
0.00098157 -0.0034835 -0.0011906 0.00028451 0.0014368 0.00076382 0.23115 -0.049843
-0.00028133 0.0098086 -0.00036301 -0.0025172
-0.0014716 0.00067392 -0.00088764 0.00089951 -0.0011321 0.0015794 -0.00026427 0.0097904
0.23565 0.075292 0.0039665 0.0067167
0.00040016 -0.00042992 -0.00058204 0.00048996 -0.0014011 -0.00015943 -0.00040103 -0.002558
0.0040241 0.006725 0.28468 0.1222
1820000000 0.25215 -0.11417 0.0039955 0.0023345 -1.8675e-05 0.0024171 -0.0011705 -0.0028167
-0.0010425 0.0010769 0.00019247 -0.00011577
0.0039886 0.002342 0.26111 0.1685 -0.00019194 -0.00010978 -0.0011276 0.0010439
0.00013495 0.0012758 -0.00047093 0.00057252
3.8735e-05 0.0023592 -0.00019873 -7.5152e-05 0.1616 -0.24843 0.0012925 7.3645e-06
4.5833e-05 0.0021547 -0.0013083 0.00049609
-0.0012188 -0.0028081 -0.0011313 0.0010281 0.0013481 -3.1264e-05 0.20254 -0.095279
0.001624 0.0077287 -0.0016323 -0.0014255
-0.0010503 0.0011202 0.00014675 0.0012469 0.00010158 0.0021871 0.0017064 0.00776
0.25114 0.045957 0.0048288 0.0033941
0.00011811 -0.00012781 -0.00042271 0.00053005 -0.001293 0.00043005 -0.0016575 -0.001426
0.0048443 0.0033745 0.2855 0.085143
1880000000 0.21594 -0.15375 0.0018151 0.00032559 -0.00025074 0.0018924 -0.0029 -0.0018839
-8.796e-05 0.0017861 0.00015628 -0.0005746
0.0018049 0.00037679 0.26495 0.12148 -0.0022627 0.0016322 -1.3233e-05 0.0016249
0.00061291 0.001022 0.00021218 0.00088254
-0.00026151 0.001968 -0.0022776 0.0016615 0.1082 -0.25845 0.0013129 -0.00097311
0.0015366 0.0017446 -0.00079508 0.0012818
-0.0029699 -0.0019312 -1.0647e-05 0.0016231 0.0012876 -0.00095651 0.1636 -0.13561
0.002723 0.0054246 -0.0021579 0.00028183
-4.9005e-05 0.0016585 0.000674 0.00097633 0.0015744 0.0016429 0.0027127 0.0054048
0.25259 0.012761 0.0047113 0.0013485
0.00022065 -0.00070706 0.00024071 0.00089912 -0.00079 0.0012739 -0.0022508 0.00032122
0.0046292 0.0013407 0.28364 0.050657
1940000000 0.17583 -0.17884 -0.00024925 -0.0011305 0.0015466 0.0019229 -0.003504 0.00073518
0.0015626 0.0010637 -0.00056541 -0.00074243
-0.00026182 -0.0011101 0.26451 0.090048 -0.0010717 0.0039868 0.00097758 0.0010798
0.0016491 0.00029805 0.00090714 0.00023676
0.001565 0.0018789 -0.0010314 0.0040036 0.06162 -0.25086 0.00014088 -0.0016859
0.0022887 0.00024015 0.00051283 0.0015402
-0.0035091 0.00073187 0.00095202 0.0010481 0.00017459 -0.0016851 0.11212 -0.16624
0.0019739 0.0034878 -0.0013055 0.0012726
0.0016294 0.0010444 0.0016278 0.00026086 0.0021852 0.00025697 0.0020231 0.0034837
0.25266 -0.026143 0.0035066 -0.0017048
-0.00060666 -0.00069633 0.00083108 0.00024298 0.00046685 0.0016224 -0.0013637 0.0012522
0.0035516 -0.0017029 0.27104 0.014166
2000000000 0.12932 -0.1928 -0.0038678 0.0010153 0.0025524 0.0014667 -0.0022026 0.0033387
0.0012971 -6.4424e-05 -0.00062557 0.00038091
-0.0038952 0.00096654 0.25018 0.054499 -0.00081343 0.0057472 0.0014533 0.00023819
0.0010398 -0.0012114 0.00041607 -2.1112e-05
0.0024762 0.0013773 -0.00077681 0.0056673 0.018407 -0.23573 -0.0010737 -0.00084221
0.001615 -0.0010844 0.0015966 0.00094158
-0.0021574 0.0033654 0.0014971 0.00028143 -0.0010744 -0.00089098 0.059382 -0.17756
0.00017901 0.0026776 -0.00012225 0.001919
0.0012407 -1.3994e-05 0.0010802 -0.0012325 0.0015256 -0.0011842 0.00017308 0.002668
0.24572 -0.060474 0.00049588 -0.0027606
