!Keysight Technologies,M9804A,MY58100912,A.14.10.03
!Date: Thursday, April 27, 2023 10:28:33
!Correction: S11(C  6-Port  ) 
!S12(C  6-Port  ) 
!S13(C  6-Port  ) 
!S14(C  6-Port  ) 
!S15(C  6-Port  ) 
!S16(C  6-Port  ) 
!S21(C  6-Port  ) 
!S22(C  6-Port  ) 
!S23(C  6-Port  ) 
!S24(C  6-Port  ) 
!S25(C  6-Port  ) 
!S26(C  6-Port  ) 
!S31(C  6-Port  ) 
!S32(C  6-Port  ) 
!S33(C  6-Port  ) 
!S34(C  6-Port  ) 
!S35(C  6-Port  ) 
!S36(C  6-Port  ) 
!S41(C  6-Port  ) 
!S42(C  6-Port  ) 
!S43(C  6-Port  ) 
!S44(C  6-Port  ) 
!S45(C  6-Port  ) 
!S46(C  6-Port  ) 
!S51(C  6-Port  ) 
!S52(C  6-Port  ) 
!S53(C  6-Port  ) 
!S54(C  6-Port  ) 
!S55(C  6-Port  ) 
!S56(C  6-Port  ) 
!S61(C  6-Port  ) 
!S62(C  6-Port  ) 
!S63(C  6-Port  ) 
!S64(C  6-Port  ) 
!S65(C  6-Port  ) 
!S66(C  6-Port  ) 
!S6P File: Measurement: :
# Hz S  RI   R 50
500000000 -0.3393 -0.020829 -0.010807 -0.0035697 -0.0075627 0.012172 -0.0034734 0.012792
0.01152 0.0036278 -0.0022948 0.0091282
-0.010801 -0.003577 -0.41914 -0.038781 0.0066132 -0.011988 0.0016754 0.012406
0.007412 0.0024592 0.002196 0.013477
-0.0075065 0.012141 0.0065869 -0.011973 -0.2631 0.22022 0.0073923 0.0033872
-0.00032059 0.0085149 0.0029854 0.011436
-0.0035222 0.012749 0.0018574 0.01243 0.0074771 0.0032779 -0.33184 0.05947
-0.020378 -0.0066569 0.014348 0.024348
0.01171 0.0037156 0.0071781 0.0024151 -0.00056185 0.008578 -0.020459 -0.0066876
-0.23436 -0.16927 -0.025936 0.0046016
-0.0026058 0.00911 0.0026083 0.013461 0.0030979 0.011172 0.014493 0.024584
-0.026044 0.0045365 -0.28352 -0.086287
560000000 -0.31243 0.13553 -0.026318 -0.061044 0.001137 0.011366 0.0049598 0.0098755
0.0097923 0.0037231 0.01071 0.0072956
-0.026277 -0.061064 -0.37482 0.11692 -0.042353 -0.035206 0.013216 0.0034833
-0.012558 -0.003984 0.0030847 -0.00053795
0.0012261 0.011383 -0.042398 -0.035137 -0.18088 0.26593 -0.0001898 -0.0047662
0.019052 0.0045658 0.0064034 -0.0068966
0.004904 0.009836 0.013155 0.0035321 -0.00029104 -0.0049036 -0.3057 0.1465
0.00092516 -0.024265 0.0036404 -0.018569
0.0098197 0.0038773 -0.01248 -0.0041558 0.019079 0.0045179 0.00086742 -0.024354
-0.28755 0.0047859 0.0039983 -0.047116
0.010843 0.0072343 0.0030029 -0.00072937 0.0065765 -0.0067398 0.0034475 -0.018749
0.0039491 -0.047235 -0.32924 0.052203
620000000 -0.2705 0.12053 -0.023206 0.0072344 0.0033795 0.0078978 0.0074279 -0.0052743
0.010903 -0.001227 0.001124 -0.0029329
-0.023201 0.0072366 -0.40135 0.071582 -0.019579 0.00063491 -0.0010075 -0.0022127
0.010193 -0.006201 0.001312 -0.0025989
0.0034186 0.0079162 -0.019594 0.00064862 -0.1496 0.27586 -0.0010644 -0.0047992
-0.0036376 -0.0029274 0.0079376 -0.003148
0.0074787 -0.0053035 -0.0010584 -0.0022104 -0.0011165 -0.0048387 -0.26313 0.15799
-0.040073 -0.0174 0.0118 0.023652
0.011106 -0.0014273 0.010283 -0.0063613 -0.0036114 -0.0029261 -0.040233 -0.017366
-0.21142 -0.032569 -0.039 0.01451
0.00096959 -0.0027351 0.0013451 -0.0027525 0.0078914 -0.0032304 0.011869 0.023716
-0.039102 0.01441 -0.25644 0.022837
680000000 -0.22784 0.20277 -0.027654 -0.012496 0.0054286 0.0046395 0.0011816 -0.0072798
-0.0028078 -0.011101 0.0038538 -0.0068533
-0.027626 -0.012519 -0.38469 0.16567 -0.032337 0.00027885 -0.0014307 -0.00047638
-0.0024065 -0.008848 -0.0012465 -0.0023972
0.0054389 0.0046468 -0.032364 0.00033428 -0.099084 0.29332 -0.0010447 -0.00019846
-0.001712 0.00016356 -0.003359 -0.0088217
0.0011422 -0.00727 -0.0015286 -0.00047678 -0.0011165 -0.00027796 -0.2177 0.20601
-0.025691 -0.0046383 -0.0091841 -0.0090793
-0.0028096 -0.011002 -0.0024384 -0.0088023 -0.0018053 0.00012763 -0.025836 -0.004464
-0.25142 0.063985 -0.0073048 -0.006944
0.0038502 -0.0068812 -0.0012623 -0.0024109 -0.0033344 -0.0087993 -0.0091784 -0.0093032
-0.0073487 -0.0069569 -0.25437 0.11998
740000000 -0.18504 0.19752 -0.036948 0.026167 0.011888 -0.0057224 -0.00078663 -0.0040692
-0.0044858 -0.0031038 -0.0058509 0.0031141
-0.036934 0.026128 -0.33348 0.18536 -0.032954 0.034847 -0.0011886 -0.0064645
-0.011379 0.0078162 -0.0023056 -0.0051696
0.011861 -0.0057314 -0.032901 0.034924 -0.06522 0.29309 -0.0015937 0.0031024
-0.0030609 -0.0044372 -0.0019968 0.0012817
-0.00077206 -0.0040394 -0.0012183 -0.0063921 -0.0015728 0.0030793 -0.1998 0.21488
-0.042565 -0.0031209 0.022176 0.012537
-0.0043651 -0.0031802 -0.011574 0.0078699 -0.0031916 -0.004434 -0.042676 -0.0029562
-0.15802 0.085721 -0.039458 0.0033501
-0.0059733 0.0033271 -0.0021604 -0.00538 -0.0018681 0.0012769 0.022287 0.012457
-0.039384 0.0035429 -0.24294 0.12987
800000000 -0.1512 0.23563 -0.021877 0.017393 0.0044958 -0.01031 -0.0045677 -0.0017355
-0.0036588 0.002583 0.0037521 0.00063014
-0.021864 0.017375 -0.33392 0.25386 -0.0068885 0.033653 -0.0023464 0.0022538
-0.00064782 0.0032941 0.0010061 0.0053327
0.0044812 -0.010305 -0.0068151 0.033681 -0.022824 0.31502 0.00087134 0.0016456
0.00028048 0.0035056 -0.0018182 0.0011666
-0.0045871 -0.0017262 -0.0023626 0.0022587 0.00085772 0.0016264 -0.16937 0.24127
-0.027101 0.016731 0.012598 -0.0099461
-0.0036822 0.0025997 -0.0006603 0.0032054 0.000248 0.0035486 -0.027073 0.016652
-0.19588 0.11306 -0.016055 0.018975
0.0037456 0.00064005 0.00099553 0.0052739 -0.0018278 0.0011584 0.012684 -0.0099949
-0.016098 0.01901 -0.23089 0.17509
860000000 -0.11618 0.25565 -0.015943 0.030937 -0.0038077 -0.0094662 -0.0020105 0.0011813
0.0044035 0.0046311 -0.0024767 -0.0023603
-0.015956 0.030915 -0.28634 0.29529 0.0091484 0.033208 0.00037748 0.0022484
0.0046231 -0.00012556 0.0034445 0.00056103
-0.0038126 -0.0094587 0.0092216 0.033214 0.025707 0.32212 -0.00039522 -0.00011852
0.0026538 -0.0013161 0.0019383 0.0042059
-0.0019613 0.001181 0.00040545 0.002255 -0.00040428 -0.00012967 -0.13262 0.25175
-0.015099 0.020675 -0.0052669 -0.0089295
0.0044785 0.0046269 0.0046992 -0.00012793 0.0026889 -0.0013532 -0.014947 0.020705
-0.14313 0.15911 -0.02164 0.017084
-0.0025157 -0.0024603 0.0032949 0.00051603 0.0019196 0.0042047 -0.0054229 -0.0090031
-0.021611 0.01704 -0.18177 0.21536
920000000 -0.08952 0.27737 0.0062079 0.036983 -0.0093353 -0.0037495 -0.0013122 0.0018073
0.0015298 0.0015777 0.0026687 -0.0018754
0.0061774 0.036968 -0.25596 0.31602 0.028245 0.020359 0.0018094 0.00091811
0.0071669 -0.0006804 0.0035998 -0.003169
-0.009322 -0.0037329 0.028282 0.020318 0.073316 0.32201 0.0019929 -0.00023439
0.0016432 -0.00072609 0.00091658 -0.0010931
-0.0012784 0.0018497 0.0018343 0.00087963 0.00201 -0.00018988 -0.10666 0.26779
-0.0072017 0.030941 0.002547 -0.0063797
0.0015535 0.0015274 0.0072147 -0.00075278 0.0016562 -0.00073609 -0.0071449 0.031015
-0.12985 0.16402 -0.00060799 0.02558
0.002636 -0.0019789 0.0035425 -0.0031793 0.00081127 -0.0011826 0.0025591 -0.0064002
-0.00065464 0.025616 -0.18228 0.23122
980000000 -0.04255 0.29499 0.018576 0.028605 -0.0084236 0.0048355 0.0021381 0.0028395
0.0038915 -0.0019636 -0.0032556 -0.0020195
0.018524 0.028625 -0.20392 0.34832 0.032466 0.0033053 0.002068 -0.00039727
0.0015129 -0.0061614 -0.00063266 -0.0022336
-0.0084134 0.0048564 0.032476 0.0032145 0.11981 0.31385 0.00043767 -0.0013543
3.4691e-05 -0.0023635 0.0013673 -0.00029472
0.0021515 0.0028228 0.0020902 -0.00039056 0.00043954 -0.0013571 -0.067749 0.27716
0.010849 0.02878 -0.0085507 -0.0061808
0.0039013 -0.0019238 0.0015301 -0.0061659 7.3645e-05 -0.002363 0.010899 0.028791
-0.098251 0.18914 0.0063122 0.018652
-0.0033269 -0.0020391 -0.00064762 -0.0021972 0.0014142 -0.0002632 -0.0085283 -0.0061815
0.0063323 0.018621 -0.13782 0.26961
1040000000 0.00039856 0.30245 0.03296 0.016026 -0.0010105 0.0066735 0.0023131 0.00057937
0.00012297 -0.0032459 -0.00088719 -0.0013907
0.032942 0.01605 -0.16801 0.3615 0.027736 -0.015622 0.0012575 -0.0017804
-0.0023242 -0.0025372 -0.0013981 -0.0027335
-0.00098859 0.006675 0.027678 -0.01569 0.16634 0.29921 -0.00065447 -0.0014122
-0.0015831 -0.00088996 -0.00043977 -0.0011057
0.0023014 0.00056921 0.0012607 -0.001838 -0.00064833 -0.0014149 -0.03897 0.28654
0.021442 0.0158 -0.0025807 0.0011758
9.631e-05 -0.0032105 -0.002313 -0.0025101 -0.0015748 -0.00085157 0.021474 0.015773
-0.065625 0.1957 0.013927 0.015896
-0.00089041 -0.0014144 -0.0014638 -0.0026766 -0.00047167 -0.001147 -0.0025902 0.001165
0.013903 0.015839 -0.11332 0.28967
1100000000 0.046057 0.30851 0.034581 -0.0056835 0.0028969 0.0035564 0.0021651 -0.0011142
-0.0019421 -0.0028273 -0.0035973 0.00041502
0.034556 -0.0056472 -0.1242 0.37771 0.013524 -0.027571 -0.00017803 -0.0017861
-0.0032778 -0.00049982 -0.0033077 -0.00033602
0.0029009 0.0035521 0.013461 -0.027619 0.21321 0.27697 -0.0018132 0.00022045
-0.0017826 0.00058667 -0.00087807 -0.00031098
0.002158 -0.0011094 -0.0001688 -0.0017853 -0.0018271 0.00023479 0.0026625 0.28907
0.025145 0.0022673 -0.0023771 0.00013298
-0.0019454 -0.002833 -0.0032912 -0.00047729 -0.001773 0.00059633 0.025176 0.00223
-0.046733 0.20722 0.018663 0.0061662
-0.0036248 0.000404 -0.0033248 -0.00030638 -0.00088572 -0.00026306 -0.0023826 0.0001608
0.018646 0.0061321 -0.066452 0.31361
1160000000 0.096988 0.30235 0.022252 -0.021424 0.0024421 -0.00044037 -0.00012322 -0.002073
-0.0039671 -0.00051054 -0.00074126 0.0037793
0.022261 -0.02137 -0.079795 0.38124 -0.0048944 -0.027977 -0.0016378 -0.0014183
-0.0025213 0.0024822 -0.0013622 0.0017745
0.0024353 -0.00042871 -0.0050034 -0.027971 0.25551 0.24449 -0.00072621 0.0017725
-0.00046115 0.0019691 -0.00076713 6.5573e-05
-0.00012957 -0.0020798 -0.0016293 -0.0014284 -0.00070893 0.001755 0.04199 0.28402
0.020409 -0.012988 -0.0031089 0.0043891
-0.0039814 -0.00050684 -0.0024825 0.0024682 -0.00048632 0.0019375 0.020413 -0.013042
-0.013553 0.21399 0.016872 -0.0018797
-0.00071766 0.0037789 -0.001396 0.0017427 -0.00078179 0.00016503 -0.003158 0.004391
0.016833 -0.0018331 -0.019896 0.31466
1220000000 0.14176 0.28942 0.0085923 -0.02948 -0.0014986 -0.00046443 4.5713e-05 -0.00087774
-0.0023361 0.0023178 0.0012814 0.0018487
0.0086015 -0.029439 -0.035473 0.3921 -0.017057 -0.01965 -0.0024122 0.00049535
9.4582e-05 0.0029035 -0.00053495 0.00198
-0.0015053 -0.00045525 -0.017141 -0.019628 0.29408 0.20435 0.0007996 0.0017684
0.00065684 0.0012609 0.00030885 0.00060773
5.5602e-05 -0.00088105 -0.002401 0.00050138 0.00079552 0.0017659 0.082211 0.27328
0.0091082 -0.019059 0.0013951 0.0013968
-0.0023237 0.0023258 0.00012479 0.0028807 0.00063628 0.0012415 0.0091011 -0.019087
0.010508 0.22082 0.011743 -0.013536
0.0012603 0.0018602 -0.00053331 0.0019657 0.00032238 0.00063602 0.0013821 0.0014013
0.011708 -0.013541 0.013827 0.32692
1280000000 0.19045 0.26572 -0.0089601 -0.027092 -0.0015074 0.0027227 -0.00097622 -0.0018838
-0.00064324 0.0029265 0.0023596 0.00085898
-0.008938 -0.02707 0.010251 0.38202 -0.023104 -0.0073521 -0.00090094 0.0013843
0.0016444 0.0016504 0.00076489 0.0018091
-0.0014984 0.0027206 -0.023143 -0.0072693 0.32338 0.15912 0.0015654 3.9283e-05
0.0011845 0.0002721 0.00028948 0.00010866
-0.00098017 -0.0018889 -0.00089769 0.0013887 0.0015841 4.2345e-05 0.11793 0.25414
-0.00090407 -0.020362 -0.00064765 0.00048086
-0.00062838 0.0029418 0.0016756 0.0016532 0.0011853 0.00027323 -0.00093778 -0.020361
0.046829 0.22221 0.0012846 -0.014934
0.0023541 0.00086399 0.00070331 0.0018113 0.00028759 0.00011872 -0.00065357 0.00048317
0.0012381 -0.014932 0.059738 0.32466
1340000000 0.22686 0.23083 -0.017883 -0.017263 0.0013059 0.0041696 -0.001626 -0.00086791
0.0014787 0.0024527 0.0014084 -0.0014781
-0.017848 -0.017276 0.049366 0.37288 -0.020545 0.0047939 -0.00014792 0.001949
0.0019071 0.00069376 0.0013319 0.00060407
0.0013143 0.0041566 -0.020544 0.0048584 0.34436 0.11109 0.0012794 -0.0010184
0.00064886 -0.0005032 8.9162e-05 0.00024763
-0.0016271 -0.00087632 -0.00014598 0.0019472 0.0012855 -0.0010199 0.14903 0.23225
-0.010522 -0.016664 0.00048043 0.0011917
0.0014878 0.0024404 0.001922 0.00067891 0.00067298 -0.00049817 -0.010564 -0.016656
0.076428 0.21581 -0.0052 -0.012789
0.001415 -0.0014866 0.0013251 0.00059658 7.2378e-05 0.00023106 0.00051266 0.0011938
-0.0052295 -0.012754 0.098587 0.31709
1400000000 0.25902 0.19128 -0.022621 -0.006042 0.0051435 0.0026371 -0.0020241 0.00052645
0.0022892 0.00079314 9.743e-05 -0.0013664
-0.022587 -0.006052 0.08621 0.35901 -0.013783 0.012231 0.0013491 0.0013512
0.0012359 -0.00080728 0.0010707 6.5747e-05
0.0051428 0.00263 -0.013757 0.01229 0.35699 0.057157 0.00011698 -0.0018065
0.00011201 -0.00041335 0.00030794 0.00018339
-0.0020314 0.00054021 0.0013598 0.0013597 0.00011276 -0.0018178 0.17719 0.20172
-0.01614 -0.0093916 -0.0004507 0.00050774
0.0022891 0.00079604 0.0012145 -0.00077796 8.5241e-05 -0.00040733 -0.016159 -0.009375
0.10852 0.20902 -0.011002 -0.0076578
8.3977e-05 -0.0013577 0.0010817 4.5765e-05 0.00030437 0.00019029 -0.00043221 0.00051603
-0.011022 -0.0076123 0.14156 0.30304
1460000000 0.28029 0.14662 -0.019304 0.0053111 0.0053014 -0.0021635 -0.0015715 0.0015989
0.0019459 -0.00060549 -0.00033924 -0.00086316
-0.019284 0.005284 0.11974 0.33665 -0.0055282 0.014616 0.0017499 0.0001582
0.00083083 -0.0013047 0.0010549 -0.00056965
0.0053043 -0.0021787 -0.0054688 0.014635 0.36171 0.002427 -0.0014162 -0.0013938
0.00025114 -0.00018506 0.00055888 -0.00028232
-0.001578 0.0016217 0.0017562 0.00015583 -0.0014153 -0.0013806 0.20091 0.17157
-0.016994 -0.0021809 -0.00019218 0.0022565
0.0019365 -0.00061259 0.00081125 -0.0013159 0.00022984 -0.00020592 -0.017003 -0.0021374
0.13641 0.1928 -0.011864 -0.0017235
-0.00035908 -0.000858 0.0010623 -0.00059021 0.00057083 -0.0003105 -0.00020492 0.0022416
-0.011833 -0.0016811 0.17335 0.28023
1520000000 0.29135 0.10404 -0.013508 0.010278 0.0028135 -0.0041037 6.5946e-05 0.0025879
0.0019346 -0.0016192 -0.0010348 -0.00010294
-0.01351 0.010245 0.153 0.32148 0.0015585 0.012425 0.0016938 -0.00085862
-5.9144e-05 -0.0011445 0.00024032 -0.00090542
0.0028036 -0.0041162 0.0016143 0.01242 0.35433 -0.05382 -0.0014111 -0.00028848
0.00049535 -0.00090071 -4.1106e-05 -0.00013749
7.3608e-05 0.0025834 0.0016834 -0.00086536 -0.0014193 -0.00029243 0.22201 0.13367
-0.015739 0.0039209 0.0020127 0.0019047
0.0019276 -0.0016301 -6.6081e-05 -0.0011529 0.00050317 -0.00095125 -0.015745 0.003965
0.16347 0.17717 -0.011376 0.002682
-0.0010337 -8.6839e-05 0.0002438 -0.00090478 -3.8695e-05 -0.00012257 0.0020156 0.0018849
-0.011316 0.0026956 0.20545 0.25733
1580000000 0.29918 0.057619 -0.0072309 0.01289 -0.0011617 -0.0045633 0.0014772 0.001928
-0.00016266 -0.0020812 -0.00026967 0.00034366
-0.0072341 0.012878 0.1797 0.2961 0.0049122 0.0077656 0.00043903 -0.001707
-0.00061725 -0.0010253 -0.00019804 -0.00075706
-0.001176 -0.0045518 0.0049473 0.0077436 0.33368 -0.11164 -0.0016597 0.0010004
-0.00038103 -0.0010941 0.00022107 -0.00053127
0.0014751 0.0019314 0.00044064 -0.001687 -0.001669 0.0010266 0.23369 0.094665
-0.011871 0.0089239 0.0024887 0.00033638
-0.00017521 -0.0020642 -0.00060997 -0.0010478 -0.00037432 -0.0010977 -0.01187 0.0089696
0.1862 0.15751 -0.0088838 0.0077866
-0.00024732 0.00034592 -0.00021308 -0.00075991 0.00025442 -0.00058295 0.0024867 0.00033023
-0.0088461 0.0077811 0.23526 0.22891
1640000000 0.2999 0.016097 -0.00099224 0.011539 -0.0027257 -0.0022597 0.0027896 0.00097798
-0.00075957 -0.0015325 -0.00030856 0.00061482
-0.0010066 0.011524 0.20871 0.27084 0.0054923 0.003478 -0.0008306 -0.0016587
-0.0010697 -0.00027903 -0.00052646 -0.00057112
-0.002744 -0.0022721 0.0055093 0.0034518 0.30411 -0.16021 -0.00055125 0.0016599
-0.0011928 -0.00085521 -9.8508e-05 -0.00022836
0.0027981 0.00096097 -0.00083985 -0.0016524 -0.00056118 0.0016711 0.24409 0.047499
-0.0071867 0.010307 0.0025593 -0.0011223
-0.0007656 -0.0015385 -0.0010802 -0.00027771 -0.0012056 -0.0008018 -0.0071631 0.010338
0.20708 0.13219 -0.0040902 0.0095029
-0.00029357 0.00063006 -0.00052135 -0.0005754 -0.00010313 -0.00027757 0.0025328 -0.0011258
-0.0040571 0.0094729 0.25929 0.19646
1700000000 0.29141 -0.029324 0.0020807 0.0087217 -0.0031837 0.00027523 0.0029507 -0.0014227
-0.0019848 -0.00067501 0.00062852 0.00041436
0.0020669 0.0087195 0.22655 0.23899 0.0036756 0.00074858 -0.0015008 -0.00049623
-0.00072669 0.0002812 -0.00084353 -0.00038289
-0.0032063 0.00029307 0.0036727 0.00072347 0.26059 -0.19985 0.00075531 0.0015167
-0.0018966 1.2645e-05 -0.00048488 -0.00073221
0.002944 -0.001408 -0.0015037 -0.00047466 0.000758 0.0015345 0.24043 -0.00045033
-0.0037878 0.010749 0.0014182 -0.0023721
-0.0019793 -0.00064747 -0.00071975 0.0002898 -0.0018746 3.5221e-05 -0.0037561 0.010748
0.22289 0.11096 0.00046324 0.0095855
0.00063329 0.00038815 -0.0008395 -0.00038274 -0.00051142 -0.00074889 0.0014373 -0.0023784
0.00046511 0.0095592 0.27388 0.16101
1760000000 0.27779 -0.077562 0.0039883 0.0056156 -0.002017 0.00086586 0.00097839 -0.0034588
-0.0014636 0.00071089 0.00047449 -0.00038188
0.0039739 0.0056185 0.2517 0.1985 0.0016663 -0.0010517 -0.0011845 0.00029619
-0.00087337 0.00094427 -0.00057282 0.00050097
-0.0020083 0.00089318 0.0016564 -0.00107 0.21175 -0.23294 0.0014698 0.00078472
-0.0010491 0.0016178 -0.0013897 -0.00025676
0.0009601 -0.0034741 -0.0011814 0.0003003 0.0014828 0.00076206 0.23119 -0.049822
-0.00018263 0.0098518 -0.00032109 -0.0025863
-0.0014755 0.0006942 -0.00085103 0.00094798 -0.0010641 0.0016162 -0.00019308 0.0098753
0.23545 0.075514 0.0041818 0.0069181
0.00047169 -0.0003892 -0.00058446 0.00050548 -0.0014491 -0.00026419 -0.00034556 -0.0025673
0.0041938 0.006886 0.28453 0.12245
1820000000 0.25211 -0.11414 0.003988 0.0023549 3.9544e-05 0.0023386 -0.0011892 -0.0028685
-0.00099956 0.0010953 0.0001204 -7.7412e-05
0.0039804 0.0023541 0.2611 0.16847 -0.00015395 -4.3814e-05 -0.0011183 0.0010369
0.00013246 0.0012458 -0.00048114 0.00053189
5.3547e-06 0.0023185 -0.00016068 -5.4157e-05 0.16147 -0.2484 0.001306 -2.182e-05
9.1095e-05 0.0022158 -0.0013125 0.00044185
-0.0012176 -0.0028713 -0.0011142 0.0010478 0.0013167 -1.5868e-05 0.20251 -0.095288
0.001761 0.0077778 -0.0016987 -0.001536
-0.00099738 0.0010939 0.00013061 0.0012437 7.7212e-05 0.0021843 0.0017806 0.0077834
0.25112 0.046259 0.005077 0.0034494
0.00010346 -6.4426e-05 -0.00048564 0.00053815 -0.0013083 0.00043464 -0.0016859 -0.0015188
0.0050598 0.0034239 0.28545 0.085416
1880000000 0.21595 -0.15384 0.0018467 0.00037182 -0.00031149 0.0019246 -0.0029263 -0.0018894
-5.9041e-05 0.0017125 0.00020671 -0.00061919
0.0018409 0.00037425 0.26491 0.12152 -0.0022696 0.001654 -3.6604e-05 0.001634
0.00062913 0.00097641 0.00020163 0.00091287
-0.00029996 0.0019271 -0.0022633 0.001654 0.10819 -0.25845 0.0013266 -0.0010044
0.0015984 0.0017094 -0.00069891 0.0014673
-0.0029514 -0.0018855 -2.9871e-05 0.0016364 0.0013005 -0.0010185 0.1636 -0.13553
0.0027538 0.0053701 -0.0022537 0.00021264
-7.0125e-05 0.0017028 0.00065018 0.00096297 0.0016648 0.0016766 0.002762 0.0053707
0.25254 0.013041 0.0048949 0.0012533
0.00022027 -0.00061629 0.00020156 0.00091256 -0.00074243 0.0014458 -0.0022692 0.00024175
0.0048836 0.0012502 0.28359 0.05076
1940000000 0.1759 -0.17883 -0.00023579 -0.0010885 0.0015139 0.0019351 -0.0035207 0.00067894
0.0016219 0.0010188 -0.0005396 -0.0006891
-0.00022671 -0.0010865 0.26449 0.090046 -0.0010875 0.0039738 0.001004 0.0010487
0.0016428 0.00033093 0.0009036 0.00030542
0.0015305 0.0019381 -0.0010717 0.0039892 0.061613 -0.25079 0.00017411 -0.0017329
0.0021909 0.0001831 0.00039242 0.001569
-0.0035286 0.00064231 0.0010308 0.0010362 0.00016514 -0.0017248 0.11217 -0.16624
0.0020696 0.0034245 -0.0014057 0.0012102
0.0016552 0.0010106 0.0016546 0.00031876 0.0022226 0.00023199 0.0020733 0.0034411
0.25286 -0.025807 0.0036676 -0.0018124
-0.00056942 -0.00069162 0.00089515 0.00030041 0.00044192 0.0016078 -0.0014109 0.0012336
0.0036409 -0.0018002 0.27102 0.014495
2000000000 0.12938 -0.19275 -0.0038966 0.001012 0.0024929 0.0013728 -0.0021847 0.0033441
0.0012449 -4.4001e-05 -0.0006113 0.00037737
-0.0038992 0.0010047 0.25012 0.054528 -0.00083693 0.0057115 0.0014507 0.00029
0.0010432 -0.0012272 0.00040801 -2.9454e-05
0.0024651 0.0013202 -0.0008049 0.0057336 0.018289 -0.2359 -0.0010193 -0.00082554
0.0015667 -0.0011707 0.0017093 0.001014
-0.0021796 0.0033573 0.0014585 0.00026611 -0.0010266 -0.00087822 0.059432 -0.17765
0.00023262 0.0025801 -0.00022519 0.0019754
0.0012984 -5.712e-05 0.0010558 -0.0012449 0.0015675 -0.0011819 0.00029396 0.0025879
0.24586 -0.060124 0.00053216 -0.0028868
