!Keysight Technologies,M9804A,MY58100912,A.14.10.03
!Date: Thursday, April 27, 2023 10:28:33
!Correction: S11(C  6-Port  ) 
!S12(C  6-Port  ) 
!S13(C  6-Port  ) 
!S14(C  6-Port  ) 
!S15(C  6-Port  ) 
!S16(C  6-Port  ) 
!S21(C  6-Port  ) 
!S22(C  6-Port  ) 
!S23(C  6-Port  ) 
!S24(C  6-Port  ) 
!S25(C  6-Port  ) 
!S26(C  6-Port  ) 
!S31(C  6-Port  ) 
!S32(C  6-Port  ) 
!S33(C  6-Port  ) 
!S34(C  6-Port  ) 
!S35(C  6-Port  ) 
!S36(C  6-Port  ) 
!S41(C  6-Port  ) 
!S42(C  6-Port  ) 
!S43(C  6-Port  ) 
!S44(C  6-Port  ) 
!S45(C  6-Port  ) 
!S46(C  6-Port  ) 
!S51(C  6-Port  ) 
!S52(C  6-Port  ) 
!S53(C  6-Port  ) 
!S54(C  6-Port  ) 
!S55(C  6-Port  ) 
!S56(C  6-Port  ) 
!S61(C  6-Port  ) 
!S62(C  6-Port  ) 
!S63(C  6-Port  ) 
!S64(C  6-Port  ) 
!S65(C  6-Port  ) 
!S66(C  6-Port  ) 
!S6P File: Measurement: :
# Hz S  RI   R 50
500000000 -0.34015 -0.020224 -0.011113 -0.0032373 -0.0078574 0.012995 -0.003346 0.012465
0.011014 0.0040867 -0.0030727 0.0089755
-0.011094 -0.00323 -0.4199 -0.038737 0.0058102 -0.011242 0.0017993 0.012428
0.0068615 0.0023874 0.0023149 0.01356
-0.0078365 0.013031 0.0057721 -0.011247 -0.26412 0.2219 0.0071979 0.0039006
-0.0011896 0.0082001 0.002461 0.011905
-0.0033187 0.012457 0.0018216 0.012409 0.0071998 0.0039049 -0.33192 0.058801
-0.020727 -0.0062594 0.015189 0.023974
0.011021 0.0040199 0.006869 0.0024011 -0.0011838 0.0081988 -0.020727 -0.0062518
-0.23652 -0.16911 -0.027135 0.0046495
-0.0029572 0.0089357 0.0023559 0.013582 0.002458 0.01191 0.015186 0.023991
-0.027152 0.0046541 -0.28352 -0.086458
560000000 -0.31391 0.13496 -0.027313 -0.059816 0.00073418 0.011754 0.0052483 0.010221
0.0087707 0.0049201 0.010499 0.0071087
-0.027262 -0.059737 -0.37553 0.1182 -0.042937 -0.034691 0.013417 0.003817
-0.012274 -0.0036977 0.002715 -0.00050883
0.00071256 0.011627 -0.043115 -0.034619 -0.18112 0.26671 0.00013008 -0.0046228
0.019363 0.0044192 0.0066844 -0.0063014
0.0052836 0.010199 0.013358 0.0036502 0.00013912 -0.0046258 -0.3061 0.14677
-4.7818e-05 -0.023332 0.0030114 -0.018636
0.0086955 0.0048431 -0.012327 -0.0036793 0.019347 0.0044173 -5.4853e-05 -0.023323
-0.28981 0.005475 0.0027552 -0.04741
0.010505 0.0070593 0.0027073 -0.00045599 0.0067264 -0.0063488 0.0030446 -0.01865
0.002754 -0.047419 -0.33041 0.053693
620000000 -0.27195 0.12216 -0.023494 0.0077716 0.0043279 0.0081335 0.0074657 -0.0048198
0.010891 -0.0015699 0.00061555 -0.0027098
-0.023471 0.0077598 -0.40188 0.072315 -0.019665 0.00086318 -0.00071645 -0.0023191
0.010271 -0.0062714 0.0018489 -0.0023873
0.0043401 0.0080397 -0.019683 0.00092398 -0.14989 0.27714 -0.00096381 -0.0050484
-0.0033342 -0.0026266 0.0080048 -0.003435
0.0075233 -0.0048294 -0.00074694 -0.00234 -0.0009516 -0.0050378 -0.26356 0.1589
-0.040724 -0.016914 0.011874 0.024078
0.010862 -0.0015193 0.010281 -0.0062881 -0.0033347 -0.0026231 -0.040712 -0.016906
-0.21137 -0.032831 -0.039752 0.016318
0.00053458 -0.0026179 0.0018736 -0.0024099 0.0080072 -0.0034622 0.011901 0.024065
-0.039772 0.016303 -0.25726 0.026141
680000000 -0.22904 0.20445 -0.027824 -0.011727 0.0055882 0.0047325 0.0011831 -0.0072176
-0.0026772 -0.010875 0.0044797 -0.0068182
-0.027805 -0.011738 -0.38468 0.16686 -0.032408 0.00052864 -0.0014413 -0.00069688
-0.0022636 -0.009253 -0.0015279 -0.0023021
0.0055974 0.0047214 -0.032407 0.0005878 -0.098421 0.29407 -0.0011291 -0.00056802
-0.00137 -0.00011462 -0.0033547 -0.0089696
0.0011899 -0.0072222 -0.0014538 -0.00069244 -0.0011193 -0.00056741 -0.21715 0.20621
-0.026177 -0.0042548 -0.0093021 -0.0083545
-0.0026878 -0.010909 -0.0022871 -0.0092472 -0.0013635 -0.0001196 -0.026234 -0.004218
-0.25322 0.066497 -0.0071667 -0.0060438
0.0044933 -0.0068323 -0.0015142 -0.0023035 -0.0033581 -0.0089675 -0.0093145 -0.0083746
-0.007157 -0.006055 -0.25496 0.12126
740000000 -0.18419 0.19947 -0.03634 0.026829 0.012326 -0.0058247 -0.00066452 -0.0041002
-0.004705 -0.0033869 -0.0059074 0.0024866
-0.036342 0.026795 -0.33269 0.18618 -0.032909 0.035466 -0.0012486 -0.0064843
-0.011684 0.0077419 -0.0022798 -0.0055901
0.012302 -0.0058446 -0.032853 0.035572 -0.064946 0.29312 -0.0018742 0.0031455
-0.0033084 -0.0046578 -0.0018412 0.0010985
-0.00065784 -0.0041068 -0.0012733 -0.0064696 -0.0018634 0.0031403 -0.19948 0.2153
-0.042732 -0.0027382 0.022444 0.012752
-0.0047153 -0.0033726 -0.011667 0.0078204 -0.0033526 -0.0046772 -0.042767 -0.0026917
-0.15793 0.087105 -0.039234 0.0054655
-0.005958 0.0025425 -0.00228 -0.0055696 -0.0018577 0.0011062 0.022416 0.012753
-0.039248 0.0053939 -0.24328 0.13179
800000000 -0.14995 0.23652 -0.020775 0.017691 0.0049185 -0.010555 -0.0044864 -0.0016336
-0.0038309 0.0024938 0.0035418 0.0007361
-0.020763 0.017672 -0.33294 0.25449 -0.0065209 0.033852 -0.0024009 0.0022397
-0.00096036 0.003449 0.00096886 0.0052193
0.0048946 -0.01055 -0.0064461 0.033884 -0.022368 0.31484 0.00070955 0.0018516
0.00043466 0.0035741 -0.0018241 0.0012826
-0.004489 -0.0016139 -0.0024091 0.0022538 0.00071265 0.0018547 -0.16915 0.24151
-0.02696 0.017053 0.012993 -0.010182
-0.0038336 0.0024447 -0.00095817 0.00344 0.00041709 0.0035669 -0.026975 0.017101
-0.19639 0.11518 -0.015623 0.019857
0.0035524 0.00071978 0.00099869 0.0052333 -0.0018255 0.0012959 0.012987 -0.010209
-0.015643 0.019849 -0.23027 0.17716
860000000 -0.11508 0.25603 -0.015406 0.030872 -0.0036092 -0.0098264 -0.0020034 0.0012171
0.0041942 0.0046602 -0.0028142 -0.0021878
-0.015408 0.03084 -0.28594 0.29512 0.009466 0.033414 0.00021925 0.0023295
0.0043807 0.00045268 0.0029094 0.00059322
-0.0036367 -0.0098142 0.0095294 0.033405 0.025577 0.32195 -0.00038211 8.0741e-05
0.0025035 -0.0012156 0.0018317 0.003938
-0.0019966 0.001219 0.00021221 0.0023085 -0.00037752 8.3688e-05 -0.13253 0.25201
-0.015035 0.021198 -0.0050609 -0.0088507
0.004203 0.0046299 0.0043686 0.00043708 0.0025066 -0.001219 -0.015028 0.021249
-0.14293 0.16081 -0.021034 0.017582
-0.0028238 -0.0021581 0.0029154 0.00059279 0.0018345 0.0039411 -0.0050586 -0.0088418
-0.021044 0.017566 -0.18182 0.21696
920000000 -0.088504 0.27739 0.0066439 0.036422 -0.0094111 -0.0042452 -0.0013171 0.0016299
0.0015293 0.0016679 0.0029151 -0.0018304
0.0066241 0.036374 -0.25553 0.31573 0.028652 0.020277 0.0017916 0.0010055
0.0074435 -0.00054024 0.0038911 -0.0028914
-0.009423 -0.0042239 0.028723 0.020229 0.073043 0.32228 0.0019632 -0.00017739
0.0016697 -0.00048285 0.00095838 -0.0012485
-0.0013178 0.0016388 0.001792 0.00098287 0.0019606 -0.00017963 -0.10635 0.26798
-0.0069525 0.03176 0.0029311 -0.0067381
0.0015403 0.0016911 0.0074283 -0.00055186 0.0016865 -0.00047916 -0.0069019 0.031798
-0.12891 0.16659 0.00092071 0.026115
0.0029081 -0.0018788 0.0038801 -0.0029105 0.00095635 -0.0012453 0.0029268 -0.006738
0.00091111 0.026096 -0.18057 0.23248
980000000 -0.041768 0.29447 0.01874 0.028133 -0.0087438 0.0046085 0.0020984 0.0028683
0.0042717 -0.0019265 -0.0030063 -0.0022071
0.018729 0.028125 -0.20384 0.34771 0.033033 0.003001 0.0021662 -0.00034475
0.0018201 -0.0063834 -0.00051107 -0.0026073
-0.0087363 0.0046232 0.033054 0.0029402 0.11974 0.31442 0.00051312 -0.0013635
7.4325e-05 -0.0024809 0.0012543 -0.00034609
0.0020871 0.002862 0.0021817 -0.00036927 0.0005124 -0.00136 -0.067237 0.27731
0.011927 0.029179 -0.0083068 -0.0066202
0.0042665 -0.0019306 0.0018033 -0.0064034 7.9955e-05 -0.0024737 0.011995 0.029181
-0.096754 0.19012 0.0067814 0.018458
-0.002998 -0.0021942 -0.00053636 -0.0025942 0.0012555 -0.00034529 -0.0083028 -0.006602
0.0067873 0.018456 -0.13715 0.27056
1040000000 0.00067324 0.30182 0.033126 0.015513 -0.0013513 0.0067072 0.0022163 0.0004562
7.7406e-05 -0.0033348 -0.00089751 -0.0015655
0.033104 0.015503 -0.16833 0.36125 0.028141 -0.016198 0.001358 -0.0018873
-0.0023875 -0.0028266 -0.0015755 -0.0030519
-0.0013409 0.0066872 0.028124 -0.016262 0.16667 0.30019 -0.00068523 -0.0015295
-0.0017059 -0.00098451 -0.00055045 -0.0010827
0.0022162 0.00045888 0.0013463 -0.0019163 -0.00068675 -0.0015356 -0.038828 0.2864
0.022455 0.015675 -0.0025962 0.00058101
7.2819e-05 -0.0033298 -0.0024279 -0.0028211 -0.0016947 -0.00097989 0.022494 0.015635
-0.06417 0.19603 0.01472 0.015569
-0.00088787 -0.0015768 -0.0015903 -0.0030323 -0.00054929 -0.0010881 -0.0025895 0.00057668
0.014706 0.015558 -0.11189 0.2901
1100000000 0.045978 0.30808 0.034576 -0.0061698 0.0026783 0.003682 0.0019303 -0.0010101
-0.0021481 -0.0028762 -0.0038679 0.00070472
0.034558 -0.0061463 -0.12478 0.37778 0.013588 -0.028403 -0.00027853 -0.0018092
-0.0037656 -0.00061929 -0.0035873 -5.6677e-05
0.0026839 0.0036857 0.013524 -0.028451 0.21425 0.27773 -0.0019084 0.0002737
-0.0019808 0.00068328 -0.00097693 -0.00012985
0.0019284 -0.00101 -0.00028231 -0.0018266 -0.0019119 0.00027465 0.0026372 0.28905
0.026218 0.0015334 -0.0028337 -0.00015542
-0.0021518 -0.0028583 -0.00379 -0.00060017 -0.0019823 0.00069361 0.026231 0.0014958
-0.045451 0.20688 0.01885 0.0057307
-0.0038434 0.00070867 -0.0035843 -4.3169e-05 -0.00097902 -0.00013779 -0.0028334 -0.00016318
0.018824 0.0057351 -0.065342 0.31451
1160000000 0.096625 0.30208 0.022016 -0.022096 0.0021841 -0.00025623 -0.0001758 -0.0017844
-0.0040224 -0.00042687 -0.00082191 0.0039985
0.022031 -0.022075 -0.080414 0.38207 -0.0055259 -0.02863 -0.0016818 -0.0014397
-0.0027103 0.0026024 -0.0014471 0.0018395
0.0021779 -0.000265 -0.0056112 -0.028606 0.25696 0.2445 -0.00077908 0.0018212
-0.00053892 0.0020643 -0.00096804 0.00023115
-0.00018598 -0.0017758 -0.001689 -0.001448 -0.00079018 0.0018255 0.041813 0.28435
0.020822 -0.014149 -0.0034081 0.0041647
-0.0040396 -0.00040484 -0.0027167 0.002613 -0.00052635 0.0020727 0.020819 -0.014194
-0.012517 0.21364 0.017882 -0.0025014
-0.00080365 0.0039839 -0.0014317 0.001852 -0.00096282 0.00024146 -0.0034103 0.0041749
0.017877 -0.0025053 -0.018572 0.31563
1220000000 0.1415 0.28952 0.0078845 -0.030019 -0.0017093 -0.00016638 0.00024077 -0.00073936
-0.0024687 0.0023697 0.0014381 0.0020222
0.0079121 -0.029993 -0.035508 0.39317 -0.017932 -0.019924 -0.0024568 0.00059258
0.00010521 0.0031857 -0.00048393 0.0020996
-0.0017097 -0.00016011 -0.018 -0.019866 0.29535 0.20331 0.00078032 0.0019178
0.00065374 0.0013244 0.00035059 0.0006751
0.00023756 -0.00073467 -0.0024543 0.00060136 0.00078377 0.0019261 0.082515 0.27383
0.0089796 -0.020492 0.0010288 0.0014176
-0.0024671 0.0023733 0.00012013 0.0031796 0.00064557 0.0013322 0.0089612 -0.020516
0.011101 0.22048 0.011962 -0.014745
0.0014501 0.0020039 -0.0004802 0.0020959 0.00035174 0.00067406 0.0010199 0.0014264
0.011965 -0.014732 0.015256 0.32726
1280000000 0.19039 0.26598 -0.010008 -0.027281 -0.0015056 0.0031231 -0.00085701 -0.0019826
-0.0006893 0.0030191 0.0025071 0.00091933
-0.0099729 -0.027272 0.010921 0.38322 -0.024029 -0.0071048 -0.00093427 0.0015093
0.0019514 0.0018181 0.00092083 0.0018642
-0.0014858 0.0031216 -0.024077 -0.0070317 0.32378 0.15762 0.0017306 0.00011815
0.0012551 0.00032378 0.00033483 0.00026544
-0.00086034 -0.0019848 -0.00092752 0.0015028 0.0017329 0.00011888 0.11855 0.25436
-0.0019607 -0.021598 -0.00091422 0.00068131
-0.00067869 0.003017 0.0019592 0.0018075 0.0012598 0.00032223 -0.0020031 -0.02161
0.047055 0.22178 0.00099974 -0.016432
0.0025199 0.00090299 0.00092669 0.0018533 0.00034486 0.00026548 -0.00091218 0.0006796
0.0010082 -0.016419 0.061238 0.32497
1340000000 0.22698 0.23118 -0.018935 -0.01674 0.0015572 0.0044801 -0.0016893 -0.00097813
0.0014959 0.0026026 0.0015757 -0.0015777
-0.018907 -0.016727 0.050681 0.37344 -0.021062 0.0056213 -4.8568e-05 0.0020549
0.0021747 0.0005805 0.0014941 0.00061583
0.0015667 0.0044846 -0.021055 0.0056801 0.34381 0.10956 0.0013599 -0.0011335
0.00074782 -0.00058418 0.00018359 0.00018137
-0.0016985 -0.00096742 -3.576e-05 0.0020572 0.0013602 -0.0011362 0.14984 0.2322
-0.01208 -0.017245 0.00013533 0.0015525
0.0015137 0.0025909 0.002171 0.00056512 0.00075195 -0.00058857 -0.012119 -0.017233
0.076661 0.21565 -0.0064041 -0.014034
0.0015756 -0.0015698 0.0014986 0.00061548 0.00018569 0.00017999 0.00014493 0.001553
-0.0063882 -0.014035 0.099998 0.31684
1400000000 0.25936 0.19155 -0.023207 -0.0049985 0.0056376 0.0027745 -0.0021944 0.00056359
0.0024159 0.0008733 5.0067e-05 -0.0015547
-0.023181 -0.0050082 0.087715 0.35891 -0.013774 0.013156 0.0014537 0.0012743
0.0012703 -0.0010481 0.0011325 -6.0925e-05
0.005633 0.0027686 -0.013733 0.013207 0.35575 0.056239 0.00010895 -0.0020866
0.00010255 -0.00051194 0.00031794 0.00019778
-0.0021872 0.00057022 0.0014548 0.0012698 0.00011535 -0.0020855 0.17789 0.20125
-0.017977 -0.0090056 -0.00047111 0.0010595
0.0024079 0.00085725 0.0012671 -0.001066 0.00010468 -0.00051757 -0.018008 -0.0089623
0.10868 0.20895 -0.012633 -0.0079844
4.3262e-05 -0.0015606 0.0011404 -7.0092e-05 0.00032431 0.00019227 -0.00046523 0.0010614
-0.012616 -0.007996 0.14307 0.30229
1460000000 0.28076 0.14655 -0.019216 0.0066023 0.0056884 -0.0023019 -0.0016323 0.0016839
0.0021192 -0.00065288 -0.00045606 -0.00094278
-0.019199 0.0065946 0.12097 0.33573 -0.0049903 0.015382 0.0018 4.962e-05
0.00065565 -0.001469 0.001038 -0.00065998
0.0056851 -0.0023211 -0.0049467 0.015392 0.36018 0.0024898 -0.0016527 -0.0014425
0.00019898 -0.00030016 0.00064148 -0.00033984
-0.001632 0.0016877 0.001805 4.6112e-05 -0.0016523 -0.0014444 0.20133 0.17087
-0.018448 -0.00072933 6.887e-05 0.0026897
0.0021125 -0.00065693 0.00065469 -0.0014771 0.00019874 -0.00029712 -0.018471 -0.00069654
0.1365 0.19309 -0.013451 -0.001269
-0.00046463 -0.0009555 0.0010287 -0.00067597 0.00063798 -0.00034564 7.4799e-05 0.0026912
-0.013445 -0.0012796 0.17438 0.27929
1520000000 0.29194 0.10377 -0.012763 0.011337 0.0031402 -0.0044878 0.000163 0.0026812
0.0020117 -0.0018225 -0.0011822 -9.7719e-05
-0.012758 0.011324 0.1536 0.32015 0.0023089 0.012633 0.0016932 -0.00099015
-0.00018994 -0.0011137 0.00019198 -0.00098704
0.0031186 -0.004498 0.0023528 0.012627 0.35329 -0.052989 -0.0015626 -0.00020543
0.00049782 -0.00099764 7.9459e-06 -0.00022221
0.00017111 0.0026806 0.0016926 -0.00098869 -0.0015633 -0.00019998 0.22211 0.13281
-0.016061 0.0059377 0.0024634 0.0021331
0.0020133 -0.0018276 -0.00019346 -0.0011094 0.00049475 -0.0010049 -0.016067 0.0059798
0.16394 0.17754 -0.012521 0.0038975
-0.0011868 -9.0178e-05 0.00018438 -0.00098882 8.3379e-07 -0.00022217 0.0024512 0.0021273
-0.012518 0.0038871 0.20597 0.25626
1580000000 0.29944 0.056886 -0.0060032 0.013348 -0.0011215 -0.0049857 0.0015512 0.0019005
-0.00031051 -0.002256 -0.00027314 0.00039451
-0.0060093 0.01333 0.17962 0.29456 0.0056043 0.0076383 0.00031845 -0.0018009
-0.00069814 -0.00091235 -0.00031272 -0.00077005
-0.0011474 -0.0049841 0.0056286 0.0076218 0.33307 -0.11046 -0.0016494 0.0011347
-0.00051166 -0.0011918 0.00016948 -0.00064485
0.0015497 0.0018984 0.00030909 -0.0018015 -0.001651 0.0011288 0.23327 0.093737
-0.011046 0.010802 0.0030068 0.000259
-0.0003126 -0.0022485 -0.00070467 -0.00090671 -0.00050778 -0.0011961 -0.011024 0.010841
0.18692 0.15769 -0.0092405 0.0092854
-0.00027536 0.00040102 -0.0003172 -0.00077106 0.0001615 -0.00065024 0.0030099 0.00025855
-0.0092554 0.0092854 0.23536 0.22805
1640000000 0.29975 0.015462 0.00028484 0.011259 -0.0029928 -0.0026733 0.002738 0.0008229
-0.00098522 -0.0016116 -0.00020229 0.00066408
0.0002755 0.011256 0.20787 0.26963 0.0059011 0.0030377 -0.0010056 -0.0016674
-0.0010112 -0.00019172 -0.00059389 -0.00050845
-0.0029871 -0.0026639 0.0059115 0.0030229 0.30416 -0.15875 -0.0005036 0.0017587
-0.0014033 -0.00076313 -0.00026034 -0.00034944
0.0027342 0.00081398 -0.0010052 -0.0016689 -0.00049814 0.0017613 0.24309 0.047017
-0.0055573 0.011303 0.0028266 -0.0014378
-0.00099474 -0.001606 -0.0010164 -0.00017799 -0.0014018 -0.00075613 -0.0055388 0.011321
0.20804 0.13224 -0.0036757 0.01101
-0.00019374 0.00067412 -0.00059597 -0.00050457 -0.00027303 -0.0003473 0.0028301 -0.0014424
-0.0036911 0.011015 0.25924 0.19593
1700000000 0.29077 -0.02981 0.0029546 0.0078842 -0.0036067 0.00021838 0.0029225 -0.0014911
-0.0021583 -0.00059694 0.00073858 0.00030803
0.002955 0.0078762 0.22531 0.23835 0.0038541 0.00027323 -0.0015902 -0.00036812
-0.00062652 0.00021292 -0.0008843 -0.00033228
-0.0035967 0.00023631 0.0038621 0.00025606 0.26159 -0.19884 0.00084885 0.0015067
-0.0019723 0.0001471 -0.00069074 -0.00081083
0.002911 -0.0014905 -0.0015939 -0.00036376 0.00084572 0.0014996 0.23927 -0.00034032
-0.0019961 0.010632 0.001529 -0.0026241
-0.0021653 -0.00058084 -0.00062738 0.00021684 -0.0019745 0.00014044 -0.001976 0.010649
0.22394 0.11045 0.0013529 0.010686
0.00075096 0.00030878 -0.00088536 -0.00031987 -0.00070244 -0.00080039 0.0015335 -0.0026291
0.0013687 0.010695 0.27407 0.16068
1760000000 0.27707 -0.077553 0.0042519 0.0044459 -0.0023716 0.0009684 0.00094584 -0.0034877
-0.0014953 0.00092135 0.0004239 -0.00050827
0.0042454 0.0044437 0.25032 0.19856 0.0015574 -0.0016123 -0.0011725 0.00045593
-0.00086307 0.00085301 -0.00052241 0.00050042
-0.0023677 0.00097665 0.001543 -0.001623 0.21291 -0.23262 0.0014788 0.00074635
-0.00098334 0.0018755 -0.0014421 -0.00020826
0.00092895 -0.0034872 -0.0011704 0.00046401 0.0014746 0.00074383 0.23024 -0.049063
0.0011128 0.0089319 -0.00035812 -0.0028855
-0.0015001 0.00092784 -0.00085472 0.00085427 -0.00098522 0.0018796 0.0011283 0.0089435
0.23636 0.074701 0.0054135 0.0075129
0.0004229 -0.00051903 -0.00050899 0.0005049 -0.0014511 -0.00021043 -0.00035587 -0.0028822
0.0054154 0.0075158 0.28493 0.12232
1820000000 0.25154 -0.11363 0.0036349 0.0013065 -4.2128e-05 0.0024627 -0.0012832 -0.0029143
-0.00087207 0.0011736 -4.1204e-05 -0.0001138
0.0036301 0.0013078 0.26004 0.16919 -0.00047868 -0.00037979 -0.0010123 0.0010951
6.6437e-05 0.0011403 -0.0004159 0.00053587
-5.2483e-05 0.0024529 -0.00047995 -0.00037628 0.16223 -0.24867 0.0012931 4.3599e-05
0.00032845 0.0022852 -0.0012773 0.00065505
-0.0012987 -0.0029049 -0.0010039 0.0010968 0.0013042 5.083e-05 0.20228 -0.093937
0.0022808 0.0065976 -0.0016996 -0.001892
-0.00086902 0.0011806 7.5459e-05 0.0011426 0.00033864 0.0022938 0.0023075 0.0065976
0.25167 0.045146 0.0064686 0.0033385
-4.3136e-05 -0.00011901 -0.00040504 0.00053515 -0.0012863 0.00064561 -0.0016974 -0.0018982
0.0064739 0.0033292 0.28611 0.085091
1880000000 0.21582 -0.15302 0.0010428 -0.00022224 -0.00042114 0.0022156 -0.0029307 -0.0018566
9.7991e-05 0.0016786 0.00016002 -0.000502
0.0010449 -0.00022038 0.26438 0.12259 -0.0026401 0.0015287 7.8598e-05 0.0016077
0.00051663 0.0010176 0.0002153 0.00084713
-0.00040373 0.0022189 -0.002637 0.0015486 0.10872 -0.25866 0.0013518 -0.0010652
0.0018629 0.0015068 -0.00058452 0.0014102
-0.0029397 -0.0018356 9.2297e-05 0.0016104 0.0013556 -0.0010605 0.16416 -0.1345
0.0026947 0.0041462 -0.0025406 3.7501e-05
0.00010011 0.0016773 0.00052054 0.0010159 0.0018723 0.0015053 0.0027107 0.0041554
0.25264 0.011752 0.0059852 0.0006096
0.00015072 -0.00051427 0.00022449 0.0008393 -0.0005879 0.0014005 -0.0025464 3.5869e-05
0.0059763 0.00060461 0.2843 0.050288
1940000000 0.17619 -0.17806 -0.0010946 -0.0011467 0.0015151 0.0021693 -0.0035376 0.0007733
0.0015755 0.00082155 -0.00057691 -0.00058273
-0.0010873 -0.0011478 0.26451 0.09121 -0.0014058 0.0040151 0.00098676 0.0010092
0.0015583 0.00043757 0.00083514 0.00023563
0.0015217 0.002155 -0.001382 0.0040159 0.062291 -0.25115 4.8545e-05 -0.0017674
0.0021348 -3.8416e-05 0.00059308 0.0014994
-0.0035272 0.00077919 0.00099358 0.00099686 5.6044e-05 -0.0017739 0.11327 -0.16558
0.0015218 0.0025956 -0.0018424 0.0011225
0.0015823 0.00081129 0.0015623 0.00042641 0.0021363 -4.3515e-05 0.0015281 0.002594
0.25244 -0.027085 0.0044274 -0.0029179
-0.00058371 -0.00057204 0.00082947 0.00022524 0.00058437 0.0014964 -0.0018452 0.0011243
0.0044243 -0.0029183 0.27167 0.013601
2000000000 0.13021 -0.19243 -0.0045107 0.0012485 0.0026357 0.0015552 -0.0022471 0.0034537
0.0010871 -0.00016912 -0.00049692 0.00039217
-0.0045143 0.0012502 0.25073 0.055464 -0.0010983 0.0057831 0.0013525 0.00018092
0.0012148 -0.0011553 0.00043949 9.8565e-07
0.0026408 0.0015453 -0.0010596 0.0057986 0.01861 -0.23674 -0.0011596 -0.00091666
0.0014737 -0.0012204 0.0016542 0.00089219
-0.0022312 0.0034591 0.0013638 0.00017243 -0.0011616 -0.00091975 0.060582 -0.17768
-0.00056455 0.0020938 -0.00059557 0.0020801
0.0010959 -0.00018372 0.0012102 -0.0011654 0.0014611 -0.0012105 -0.0005656 0.0020975
0.24504 -0.061068 0.0006279 -0.0042334
