!Keysight Technologies,M9804A,MY58100912,A.14.10.03
!Date: Thursday, April 27, 2023 10:28:33
!Correction: S11(C  6-Port  ) 
!S12(C  6-Port  ) 
!S13(C  6-Port  ) 
!S14(C  6-Port  ) 
!S15(C  6-Port  ) 
!S16(C  6-Port  ) 
!S21(C  6-Port  ) 
!S22(C  6-Port  ) 
!S23(C  6-Port  ) 
!S24(C  6-Port  ) 
!S25(C  6-Port  ) 
!S26(C  6-Port  ) 
!S31(C  6-Port  ) 
!S32(C  6-Port  ) 
!S33(C  6-Port  ) 
!S34(C  6-Port  ) 
!S35(C  6-Port  ) 
!S36(C  6-Port  ) 
!S41(C  6-Port  ) 
!S42(C  6-Port  ) 
!S43(C  6-Port  ) 
!S44(C  6-Port  ) 
!S45(C  6-Port  ) 
!S46(C  6-Port  ) 
!S51(C  6-Port  ) 
!S52(C  6-Port  ) 
!S53(C  6-Port  ) 
!S54(C  6-Port  ) 
!S55(C  6-Port  ) 
!S56(C  6-Port  ) 
!S61(C  6-Port  ) 
!S62(C  6-Port  ) 
!S63(C  6-Port  ) 
!S64(C  6-Port  ) 
!S65(C  6-Port  ) 
!S66(C  6-Port  ) 
!S6P File: Measurement: :
# Hz S  RI   R 50
500000000 -0.3395 -0.021349 -0.011188 -0.0034471 -0.0082909 0.012949 -0.0035739 0.012449
0.011672 0.0038106 -0.0034722 0.0087707
-0.011181 -0.0034446 -0.41938 -0.039658 0.0061326 -0.011388 0.001909 0.012517
0.0073386 0.002333 0.0021283 0.013987
-0.0082824 0.012946 0.0061062 -0.0114 -0.26381 0.22082 0.0070482 0.0037882
-0.001116 0.0080244 0.0018422 0.012086
-0.0035658 0.01245 0.0019221 0.01251 0.0070408 0.0037833 -0.33126 0.058658
-0.020746 -0.0062036 0.015605 0.024399
0.01167 0.0037971 0.0073439 0.0023219 -0.001121 0.0080265 -0.020752 -0.0062028
-0.23503 -0.17084 -0.026293 0.0041609
-0.0034666 0.0087735 0.0021499 0.013999 0.0018465 0.012075 0.015609 0.024392
-0.026289 0.0041822 -0.28182 -0.089704
560000000 -0.31377 0.13505 -0.026666 -0.060493 0.00066607 0.011619 0.0053011 0.0099213
0.0093782 0.0044631 0.010614 0.0074673
-0.026603 -0.06043 -0.37579 0.11647 -0.042255 -0.03494 0.013502 0.0039402
-0.01225 -0.0033282 0.0029977 -0.0012387
0.00068541 0.011614 -0.042339 -0.034882 -0.18161 0.26667 -0.00010986 -0.0041303
0.01855 0.0038501 0.0065548 -0.0060495
0.0053286 0.0099288 0.013509 0.0038938 -0.00010731 -0.0041219 -0.30606 0.14661
0.00030305 -0.023234 0.003486 -0.018786
0.0094136 0.0044285 -0.012287 -0.0032959 0.018562 0.0038394 0.00027437 -0.023244
-0.28977 0.0016291 0.0039302 -0.046837
0.010604 0.0074726 0.0030159 -0.0012771 0.0065673 -0.006028 0.0034847 -0.018801
0.0039539 -0.046851 -0.33035 0.051631
620000000 -0.27159 0.12076 -0.023415 0.007801 0.0039742 0.0082565 0.0072832 -0.0053789
0.01117 -0.001018 0.00064022 -0.0026149
-0.023396 0.0077908 -0.40162 0.07141 -0.019348 0.00078872 -0.0010672 -0.0022694
0.010481 -0.0062209 0.001495 -0.0023689
0.0039975 0.0082424 -0.019366 0.00082407 -0.14995 0.27601 -0.00094501 -0.0047957
-0.0034935 -0.0028737 0.0083724 -0.0031139
0.0072608 -0.0053826 -0.0010621 -0.0022714 -0.00093575 -0.0047909 -0.26348 0.15845
-0.040852 -0.017311 0.012203 0.024454
0.01119 -0.0010173 0.01047 -0.0062468 -0.0034915 -0.0028712 -0.040871 -0.017272
-0.21058 -0.034092 -0.03988 0.01533
0.00064713 -0.00261 0.0014919 -0.0023736 0.0083791 -0.0031059 0.012223 0.024464
-0.039859 0.015327 -0.25589 0.022328
680000000 -0.22873 0.2035 -0.027709 -0.011966 0.0056214 0.0046833 0.0012203 -0.0072542
-0.0027006 -0.010837 0.0045246 -0.0069686
-0.027681 -0.01196 -0.38484 0.16596 -0.032166 0.00054848 -0.0012075 -0.00043724
-0.0024154 -0.0089106 -0.0013041 -0.0020297
0.0056193 0.0046734 -0.03218 0.00060538 -0.09857 0.29373 -0.00088534 -0.0003623
-0.0015745 0.00014382 -0.0034737 -0.0087432
0.0012029 -0.0072497 -0.0012062 -0.00043995 -0.00088765 -0.0003648 -0.21781 0.20634
-0.026052 -0.0047358 -0.0092794 -0.0081167
-0.0027202 -0.010828 -0.0024403 -0.0089182 -0.0015813 0.00015657 -0.026076 -0.0047154
-0.25328 0.064296 -0.0072721 -0.0064317
0.0045255 -0.0069741 -0.0013192 -0.0020044 -0.0034673 -0.008745 -0.0092913 -0.0081238
-0.0072763 -0.0064393 -0.25483 0.11864
740000000 -0.18445 0.19856 -0.036457 0.026741 0.012459 -0.0057688 -0.00056562 -0.0040114
-0.0045378 -0.0032604 -0.0057865 0.0030764
-0.036453 0.026716 -0.33291 0.18544 -0.033104 0.035255 -0.0010951 -0.0063681
-0.01193 0.007918 -0.0021578 -0.0054562
0.012448 -0.0057676 -0.033026 0.035336 -0.06518 0.29248 -0.0017064 0.0031702
-0.0032728 -0.0046628 -0.0019602 0.0011252
-0.00057501 -0.0040261 -0.0011196 -0.0063601 -0.0017102 0.0031714 -0.19951 0.21493
-0.042566 -0.0027242 0.022711 0.012921
-0.0045331 -0.0032533 -0.01191 0.0079543 -0.0032798 -0.0046668 -0.042607 -0.0026667
-0.15807 0.085907 -0.039927 0.0044427
-0.005771 0.0030846 -0.0021688 -0.0054397 -0.0019463 0.0011078 0.022736 0.012921
-0.039921 0.0043938 -0.2438 0.12842
800000000 -0.15014 0.23588 -0.020936 0.017626 0.0048279 -0.010538 -0.0044981 -0.0017653
-0.0035214 0.0025334 0.003431 0.00041613
-0.020926 0.017606 -0.33342 0.25388 -0.0065693 0.033687 -0.0022936 0.0023033
-0.00056632 0.0033344 0.0010996 0.0052742
0.0048004 -0.010536 -0.0065113 0.033716 -0.022573 0.31449 0.00079957 0.0017072
0.00032809 0.003522 -0.0017777 0.001114
-0.0045005 -0.0017635 -0.0022989 0.0023054 0.0007998 0.0017086 -0.16925 0.24126
-0.026929 0.017054 0.013127 -0.010082
-0.0035284 0.0025495 -0.00055683 0.0033401 0.0003314 0.0035273 -0.026925 0.017111
-0.19643 0.11298 -0.016043 0.019611
0.0034358 0.00040478 0.0011044 0.0052628 -0.0017801 0.0011124 0.013131 -0.010098
-0.01605 0.019594 -0.2313 0.17511
860000000 -0.11554 0.25553 -0.015523 0.03079 -0.003629 -0.0097305 -0.0020765 0.0011277
0.0042141 0.0045543 -0.0028028 -0.0024351
-0.015545 0.030757 -0.28624 0.29485 0.0092639 0.033314 4.3294e-05 0.0022937
0.0042393 0.00026528 0.0029918 0.00043211
-0.0036535 -0.0097252 0.0093471 0.033311 0.025425 0.32163 -0.0004755 -3.8206e-05
0.0024876 -0.0014523 0.0017878 0.0041064
-0.0020726 0.0011232 4.1941e-05 0.0022938 -0.00047549 -3.7354e-05 -0.13243 0.25189
-0.015184 0.021145 -0.0053079 -0.008926
0.0042268 0.0045404 0.0042442 0.00025692 0.0024911 -0.0014569 -0.015173 0.021186
-0.14329 0.15947 -0.021582 0.016894
-0.0028091 -0.002427 0.002988 0.00041648 0.0017808 0.0041055 -0.0053205 -0.0089241
-0.021597 0.016882 -0.18213 0.2156
920000000 -0.089158 0.27703 0.0064767 0.036511 -0.0093988 -0.0041317 -0.001374 0.001694
0.0013104 0.0015582 0.0025858 -0.0017789
0.0064465 0.036486 -0.25597 0.31526 0.028408 0.020266 0.0017453 0.0010208
0.0071144 -0.00079173 0.0036986 -0.002965
-0.009396 -0.0041241 0.028472 0.02022 0.072819 0.32186 0.0019132 -0.00019017
0.0015497 -0.00048483 0.0008768 -0.0011768
-0.0013557 0.0016971 0.0017411 0.0010126 0.0019227 -0.00019811 -0.10652 0.26772
-0.0069261 0.031526 0.0029265 -0.0065313
0.0013026 0.0015458 0.007128 -0.00081226 0.0015474 -0.00048714 -0.0068849 0.031568
-0.13014 0.16504 0.00045049 0.026253
0.0025818 -0.0017838 0.0036791 -0.0029903 0.00088059 -0.0011789 0.0029227 -0.0065424
0.00042754 0.026251 -0.18243 0.2302
980000000 -0.042404 0.29447 0.018567 0.02834 -0.0086306 0.0047052 0.0019896 0.0029897
0.0040117 -0.001775 -0.0030938 -0.002116
0.018527 0.028323 -0.20409 0.3476 0.032788 0.003188 0.0021196 -0.00031876
0.0016963 -0.006305 -0.00053726 -0.0023778
-0.0086254 0.0047133 0.032813 0.0031312 0.1195 0.31399 0.00049398 -0.0012777
7.9338e-05 -0.0023494 0.0012302 -0.00029668
0.001996 0.0030015 0.0021139 -0.00034375 0.00049035 -0.0012779 -0.067267 0.27694
0.011608 0.02883 -0.008442 -0.0066686
0.0040126 -0.0017974 0.0016695 -0.0063012 7.2929e-05 -0.0023477 0.01166 0.028834
-0.097367 0.18903 0.0066804 0.018404
-0.0030945 -0.0021043 -0.00053288 -0.0023915 0.0012385 -0.0002983 -0.0084555 -0.0066635
0.0066556 0.018406 -0.1388 0.26897
1040000000 0.00021923 0.30181 0.033015 0.015703 -0.0012302 0.0067038 0.0022589 0.00052403
9.4384e-05 -0.0031799 -0.0008651 -0.0014103
0.032979 0.015723 -0.16848 0.36093 0.027997 -0.015951 0.0014001 -0.001846
-0.0024532 -0.0025963 -0.0015743 -0.0027493
-0.0012236 0.0066872 0.027987 -0.01603 0.1663 0.29964 -0.00063533 -0.001531
-0.0016346 -0.00094672 -0.00050421 -0.0010734
0.002269 0.00053359 0.0013818 -0.001861 -0.00064119 -0.0015301 -0.039078 0.2859
0.021855 0.015626 -0.0027124 0.00071085
8.6537e-05 -0.0032016 -0.0024525 -0.0025657 -0.0016247 -0.00093643 0.021897 0.015601
-0.065015 0.19487 0.014392 0.015755
-0.00086187 -0.0014041 -0.0015949 -0.002767 -0.00049862 -0.0010649 -0.002712 0.00070921
0.014382 0.015765 -0.11414 0.28879
1100000000 0.045711 0.3081 0.034618 -0.005893 0.0026815 0.0036658 0.0020255 -0.00094439
-0.0019394 -0.0027183 -0.0036339 0.00059625
0.034589 -0.0058644 -0.12484 0.37749 0.013579 -0.028045 -0.00017838 -0.0017556
-0.0035185 -0.00055104 -0.0034144 -0.00013515
0.0026858 0.0036542 0.01351 -0.028097 0.21354 0.2773 -0.0019122 0.00024016
-0.0019355 0.00060573 -0.001049 -0.00019059
0.0020248 -0.00094519 -0.00017781 -0.0017694 -0.0019135 0.00024049 0.0022833 0.28878
0.025698 0.0019117 -0.0028432 -5.4798e-05
-0.0019496 -0.0027124 -0.0035257 -0.00052314 -0.001932 0.00061296 0.025724 0.0018695
-0.04664 0.20632 0.018848 0.006231
-0.003639 0.00061804 -0.0034173 -0.0001284 -0.0010514 -0.00019351 -0.0028387 -5.1625e-05
0.018835 0.0062425 -0.067306 0.31358
1160000000 0.09631 0.30204 0.022075 -0.02178 0.0022729 -0.00032034 -8.8016e-05 -0.0019147
-0.003894 -0.00047257 -0.00067015 0.0038416
0.022076 -0.021732 -0.080649 0.38154 -0.0051893 -0.028401 -0.0016487 -0.001486
-0.0026655 0.002673 -0.0013957 0.0017486
0.0022744 -0.00033514 -0.0052797 -0.02839 0.25609 0.24448 -0.00077879 0.0018372
-0.00041449 0.0020392 -0.00086138 0.00020678
-0.0001007 -0.0019025 -0.0016617 -0.0014995 -0.00077713 0.0018381 0.041505 0.28407
0.020605 -0.013627 -0.0031631 0.0042856
-0.0038797 -0.0004764 -0.0026751 0.0027006 -0.0004073 0.0020445 0.020601 -0.013672
-0.013575 0.21262 0.017626 -0.0021522
-0.00066938 0.0038423 -0.0013899 0.0017416 -0.00085638 0.00020512 -0.0031586 0.004301
0.017612 -0.0021457 -0.0204 0.31428
1220000000 0.14112 0.2895 0.008213 -0.029798 -0.0016042 -0.00025233 0.00022034 -0.00087768
-0.0023863 0.0022991 0.001344 0.0018612
0.0082182 -0.029765 -0.035886 0.39257 -0.017605 -0.019875 -0.0024309 0.00052256
0.00010067 0.0030844 -0.0005244 0.0020472
-0.0015995 -0.00024577 -0.017681 -0.019827 0.29456 0.20369 0.00081629 0.0019028
0.00068864 0.0012956 0.00043503 0.00060115
0.00021855 -0.00087473 -0.0024287 0.00053134 0.00081313 0.0019015 0.081945 0.27357
0.0090649 -0.019835 0.0012193 0.0013894
-0.002367 0.0023012 0.00010201 0.0030879 0.00068821 0.0012911 0.009044 -0.01986
0.010089 0.21958 0.01205 -0.014282
0.001352 0.0018636 -0.00051478 0.0020413 0.00044048 0.00059995 0.0012229 0.0013888
0.012043 -0.014273 0.012991 0.32654
1280000000 0.18999 0.26608 -0.0095248 -0.027199 -0.0015457 0.002967 -0.00091389 -0.00203
-0.0006978 0.0029509 0.0023761 0.00086808
-0.0094893 -0.027177 0.010251 0.38269 -0.023714 -0.0072594 -0.00096459 0.0014261
0.0018942 0.0017598 0.00081242 0.0018315
-0.0015237 0.002975 -0.023762 -0.0071841 0.32347 0.15824 0.0017763 6.8908e-05
0.0012317 0.00022636 0.00029711 0.00016768
-0.00090873 -0.0020157 -0.00096233 0.0014276 0.001764 6.4039e-05 0.11792 0.2544
-0.0015526 -0.021106 -0.00084525 0.00062256
-0.00067976 0.002957 0.001899 0.0017523 0.0012323 0.00022452 -0.001593 -0.021119
0.045833 0.22111 0.0011004 -0.015927
0.0023793 0.00086496 0.00082315 0.0018313 0.00029762 0.00017089 -0.00083939 0.00063603
0.0011025 -0.015916 0.058847 0.32481
1340000000 0.22663 0.23127 -0.018518 -0.016939 0.0015131 0.0043816 -0.0017 -0.00098346
0.0014561 0.0025536 0.0015542 -0.0015053
-0.018482 -0.01694 0.049802 0.37328 -0.020883 0.0052442 -8.9275e-05 0.0020117
0.0020812 0.00061949 0.0013841 0.00064387
0.0015191 0.0043746 -0.020884 0.0053161 0.34387 0.11023 0.0013212 -0.0010672
0.00068745 -0.00056631 1.515e-05 0.00027256
-0.001707 -0.00097899 -7.5022e-05 0.0020198 0.0013238 -0.0010611 0.14928 0.2324
-0.011375 -0.017102 0.00030237 0.0013989
0.001456 0.0025455 0.0020935 0.00061103 0.00067682 -0.0005736 -0.011423 -0.017092
0.075311 0.21503 -0.005784 -0.013687
0.0015407 -0.0015143 0.0013871 0.00064026 1.8137e-05 0.00027274 0.00030854 0.0013993
-0.0057865 -0.013684 0.097843 0.31719
1400000000 0.259 0.1917 -0.022959 -0.0054152 0.0054624 0.002755 -0.0021608 0.0005538
0.0023964 0.00086723 0.0001251 -0.001416
-0.022932 -0.005423 0.086793 0.35912 -0.01383 0.012803 0.0013881 0.0012724
0.0012354 -0.001001 0.0011163 8.2279e-06
0.0054611 0.0027342 -0.013793 0.012865 0.35606 0.056555 8.5265e-05 -0.0020714
5.8365e-06 -0.00046063 0.00031591 0.00019391
-0.0021632 0.00056206 0.0013888 0.0012667 8.5587e-05 -0.0020609 0.17733 0.20167
-0.017324 -0.0091984 -0.00052556 0.00086487
0.0023927 0.00085225 0.0012298 -0.0010109 8.764e-06 -0.00046157 -0.017349 -0.0091707
0.1071 0.20878 -0.012031 -0.0079758
0.00011501 -0.0014249 0.0011236 -4.386e-06 0.0003214 0.00019165 -0.00052663 0.00085934
-0.012018 -0.0079885 0.1409 0.30292
1460000000 0.28048 0.14687 -0.019252 0.0061036 0.0055695 -0.002287 -0.0016206 0.0017188
0.0020509 -0.00056826 -0.00038847 -0.0008715
-0.019236 0.0060909 0.12027 0.33632 -0.0052022 0.015107 0.001761 9.2604e-05
0.00069579 -0.0014566 0.0010315 -0.00061471
0.005555 -0.0022985 -0.0051514 0.015139 0.36062 0.0025604 -0.0016449 -0.0014028
0.00013122 -0.00022036 0.00063322 -0.00033329
-0.0016142 0.0017213 0.0017637 9.5912e-05 -0.0016481 -0.0014103 0.20111 0.17143
-0.017938 -0.0012948 -6.518e-05 0.002603
0.0020452 -0.00057029 0.00068051 -0.0014634 0.00013321 -0.00022445 -0.01795 -0.0012558
0.13502 0.19304 -0.012892 -0.0014902
-0.00039821 -0.00086754 0.0010406 -0.00060246 0.0006375 -0.00033869 -5.4273e-05 0.0026037
-0.012883 -0.0014878 0.17268 0.28021
1520000000 0.2917 0.10409 -0.013045 0.010913 0.0030173 -0.0043437 0.0001532 0.0026802
0.0020539 -0.0017255 -0.001129 -8.7511e-05
-0.013046 0.010896 0.15321 0.32092 0.0020421 0.012597 0.0016682 -0.00090506
-0.00017484 -0.0011054 0.00021763 -0.00091374
0.0030016 -0.0043497 0.0020952 0.012598 0.35365 -0.053262 -0.0015321 -0.00020251
0.00047719 -0.00097705 1.844e-05 -0.00016151
0.00015804 0.0026894 0.0016597 -0.00090352 -0.0015246 -0.00020075 0.22208 0.13339
-0.015987 0.0052162 0.0022882 0.0021453
0.0020409 -0.0017365 -0.00018444 -0.0011038 0.00047267 -0.00098442 -0.015987 0.0052541
0.16237 0.17774 -0.012155 0.0033991
-0.0011314 -8.4006e-05 0.00022049 -0.00091454 2.1122e-05 -0.00016159 0.0022923 0.0021381
-0.012163 0.0033898 0.20459 0.25737
1580000000 0.29942 0.057252 -0.0064881 0.013152 -0.0011186 -0.0048327 0.0015985 0.0019027
-0.0001575 -0.0022051 -0.00028224 0.0003638
-0.0064866 0.013137 0.17961 0.29543 0.0053774 0.0077052 0.00038683 -0.001719
-0.00065541 -0.00088667 -0.0002426 -0.00077418
-0.0011346 -0.0048274 0.0054104 0.0076821 0.33319 -0.11085 -0.0016309 0.0011089
-0.00040683 -0.0011071 0.00016163 -0.00064203
0.0016 0.0018944 0.00038214 -0.0017218 -0.001626 0.0011098 0.2335 0.094298
-0.011345 0.010156 0.0028665 0.00033133
-0.0001648 -0.0022126 -0.00067368 -0.00088155 -0.00041184 -0.0011192 -0.011334 0.010193
0.18546 0.15829 -0.0091816 0.0087292
-0.00028125 0.00036668 -0.00025315 -0.00077657 0.00015845 -0.00064645 0.0028701 0.00031975
-0.0091876 0.0087373 0.23427 0.22919
1640000000 0.29986 0.01568 -0.00024388 0.011334 -0.0029182 -0.0025297 0.0027819 0.00084074
-0.00084342 -0.0016549 -0.00020936 0.00062874
-0.00024924 0.011326 0.20828 0.2703 0.0057608 0.0031775 -0.00089096 -0.0016468
-0.00098018 -0.00017013 -0.00051189 -0.00053301
-0.0029265 -0.0025203 0.0057691 0.003157 0.30401 -0.15944 -0.00044757 0.0016928
-0.0012837 -0.00079198 -0.00023215 -0.00022609
0.0027796 0.00082043 -0.00090063 -0.0016473 -0.00044345 0.0016937 0.24363 0.047242
-0.0061656 0.010977 0.0027777 -0.001327
-0.00084768 -0.0016599 -0.00098069 -0.00016181 -0.0012836 -0.00079011 -0.0061447 0.011008
0.2068 0.133 -0.0038601 0.010491
-0.00020364 0.00063135 -0.00051794 -0.00053096 -0.00023375 -0.00022707 0.0027719 -0.0013384
-0.0038563 0.010495 0.25851 0.19704
1700000000 0.29091 -0.029667 0.0025882 0.008201 -0.0035115 0.00024873 0.0029284 -0.0014863
-0.0021203 -0.0006984 0.00070876 0.00031434
0.0025769 0.0081959 0.22587 0.23874 0.003824 0.00042445 -0.0014972 -0.0004637
-0.00059168 0.00021272 -0.00087251 -0.00040864
-0.0035066 0.00026037 0.0038293 0.00039911 0.2612 -0.1991 0.00084035 0.0014206
-0.0018822 3.9823e-05 -0.00068785 -0.00076787
0.0029168 -0.0014884 -0.0015013 -0.00046054 0.00084172 0.0014162 0.23979 -0.00039934
-0.0026374 0.010705 0.0015494 -0.0025238
-0.002127 -0.00069042 -0.00059139 0.00021094 -0.0018781 3.4846e-05 -0.0026212 0.010722
0.22278 0.11152 0.0010839 0.010344
0.00071664 0.00031054 -0.00087414 -0.0004055 -0.00069052 -0.00077106 0.0015465 -0.0025325
0.0010916 0.010343 0.27339 0.16179
1760000000 0.2772 -0.077528 0.0041064 0.0048646 -0.0022911 0.00092867 0.00093355 -0.0035571
-0.0015215 0.00078075 0.00038865 -0.00051053
0.0041015 0.0048621 0.25103 0.19863 0.0015799 -0.0014463 -0.001183 0.00031624
-0.0008356 0.00079118 -0.0005624 0.00045763
-0.0022841 0.00094233 0.0015653 -0.0014687 0.21226 -0.23293 0.0013829 0.0006545
-0.0010482 0.0016682 -0.0013822 -0.00018498
0.00091786 -0.0035542 -0.0011907 0.00031747 0.001378 0.00064661 0.23066 -0.049364
0.00066424 0.0092504 -0.00030725 -0.0027678
-0.0015211 0.00078677 -0.00083404 0.00080551 -0.0010343 0.0016728 0.00068625 0.0092585
0.23559 0.075796 0.0050524 0.0073434
0.00038945 -0.0005176 -0.0005578 0.00046216 -0.0013892 -0.00018205 -0.00031119 -0.0027708
0.0050638 0.0073433 0.28434 0.1234
1820000000 0.25177 -0.11372 0.0037594 0.0017711 -5.3194e-05 0.0024832 -0.0012874 -0.0028566
-0.0010287 0.0011566 -7.8992e-05 -7.347e-05
0.0037514 0.0017748 0.26059 0.16891 -0.00036618 -0.00026173 -0.0011495 0.0010374
5.8425e-05 0.0010921 -0.00051334 0.00053926
-3.8806e-05 0.002479 -0.00036718 -0.00026168 0.16184 -0.24851 0.0012064 -3.6858e-05
0.00016555 0.0022146 -0.0013312 0.0005518
-0.0013024 -0.0028473 -0.0011475 0.0010393 0.0011974 -3.7903e-05 0.20241 -0.094487
0.0021466 0.0070616 -0.0015779 -0.0017705
-0.0010258 0.0011724 7.1085e-05 0.0010938 0.00016638 0.0022146 0.0021661 0.0070639
0.25112 0.046206 0.0060103 0.0033608
-7.8264e-05 -7.2238e-05 -0.00050691 0.0005426 -0.0013203 0.00056005 -0.0015801 -0.0017787
0.0060163 0.0033562 0.28555 0.086035
1880000000 0.21572 -0.15332 0.0013107 4.0764e-05 -0.00042548 0.0020876 -0.003036 -0.0017985
-9.2584e-05 0.001784 0.00020679 -0.00045143
0.0013138 3.3548e-05 0.26467 0.12218 -0.0025029 0.0015456 -8.7258e-05 0.0016089
0.00042743 0.00094841 0.00015805 0.00093296
-0.0004166 0.0020861 -0.0024944 0.0015587 0.10843 -0.25851 0.001334 -0.001009
0.0017057 0.0015724 -0.00074836 0.0014179
-0.0030393 -0.0017925 -7.0497e-05 0.0016097 0.00133 -0.0010049 0.16382 -0.135
0.0028069 0.004497 -0.0024115 -3.9717e-05
-8.3372e-05 0.0017812 0.00042847 0.00094271 0.0017087 0.0015619 0.0028207 0.0044961
0.2524 0.013027 0.0056527 0.00073212
0.000203 -0.00045365 0.00016445 0.0009302 -0.00074745 0.0014195 -0.0024033 -3.4885e-05
0.0056485 0.00073532 0.28374 0.051455
1940000000 0.17595 -0.17828 -0.00075149 -0.0010999 0.0015513 0.00209 -0.0035196 0.0008545
0.0015388 0.0010246 -0.00054881 -0.00055385
-0.00074538 -0.0010947 0.26458 0.090766 -0.0013339 0.0039653 0.00090711 0.001174
0.0014184 0.00045999 0.00082867 0.00032639
0.0015629 0.002068 -0.0013245 0.0039754 0.061962 -0.2513 0.00014685 -0.0016316
0.0021815 0.00015721 0.00050204 0.0016534
-0.0035146 0.00087204 0.00091466 0.0011699 0.00014281 -0.0016423 0.11265 -0.16592
0.0016858 0.0027983 -0.0018364 0.00099922
0.0015487 0.001007 0.0014234 0.0004537 0.0021874 0.00015312 0.0016929 0.0027983
0.25248 -0.026044 0.0041358 -0.0027275
-0.00055167 -0.00054816 0.00083278 0.0003201 0.00049883 0.0016556 -0.0018369 0.0010016
0.0041361 -0.0027283 0.27108 0.014712
2000000000 0.12966 -0.19249 -0.0043056 0.0010739 0.0026195 0.0015477 -0.0021574 0.0034262
0.0012317 -5.9277e-05 -0.0003891 0.00041769
-0.0043031 0.0010725 0.25053 0.055188 -0.0010911 0.0058402 0.0015183 0.00033828
0.001133 -0.00093245 0.00047656 5.1187e-05
0.0026274 0.0015389 -0.0010629 0.0058518 0.018018 -0.23633 -0.00092804 -0.0008981
0.0016445 -0.00097899 0.0016675 0.0010047
-0.0021442 0.0034287 0.0015155 0.00031963 -0.00092186 -0.0008937 0.059782 -0.17748
-0.00037852 0.0021359 -0.00062167 0.0020974
0.0012352 -6.0703e-05 0.001129 -0.00094172 0.0016441 -0.0009862 -0.00036844 0.0021361
0.24516 -0.060216 0.00047147 -0.0038278
