!Keysight Technologies,M9804A,MY58100912,A.14.10.03
!Date: Thursday, April 27, 2023 10:28:33
!Correction: S11(C  6-Port  ) 
!S12(C  6-Port  ) 
!S13(C  6-Port  ) 
!S14(C  6-Port  ) 
!S15(C  6-Port  ) 
!S16(C  6-Port  ) 
!S21(C  6-Port  ) 
!S22(C  6-Port  ) 
!S23(C  6-Port  ) 
!S24(C  6-Port  ) 
!S25(C  6-Port  ) 
!S26(C  6-Port  ) 
!S31(C  6-Port  ) 
!S32(C  6-Port  ) 
!S33(C  6-Port  ) 
!S34(C  6-Port  ) 
!S35(C  6-Port  ) 
!S36(C  6-Port  ) 
!S41(C  6-Port  ) 
!S42(C  6-Port  ) 
!S43(C  6-Port  ) 
!S44(C  6-Port  ) 
!S45(C  6-Port  ) 
!S46(C  6-Port  ) 
!S51(C  6-Port  ) 
!S52(C  6-Port  ) 
!S53(C  6-Port  ) 
!S54(C  6-Port  ) 
!S55(C  6-Port  ) 
!S56(C  6-Port  ) 
!S61(C  6-Port  ) 
!S62(C  6-Port  ) 
!S63(C  6-Port  ) 
!S64(C  6-Port  ) 
!S65(C  6-Port  ) 
!S66(C  6-Port  ) 
!S6P File: Measurement: :
# Hz S  RI   R 50
500000000 -0.3399 -0.020391 -0.011542 -0.0034352 -0.0080743 0.01301 -0.0034499 0.012194
0.011181 0.0042458 -0.0032221 0.0088033
-0.011543 -0.0034583 -0.4195 -0.039618 0.0059163 -0.01099 0.0017767 0.012457
0.0071387 0.0018397 0.0023967 0.01358
-0.0080675 0.013022 0.0059259 -0.01101 -0.26394 0.22203 0.0070601 0.0039083
-0.0014986 0.0079353 0.0020928 0.011846
-0.0034575 0.012185 0.0017863 0.012463 0.0070592 0.0039055 -0.33168 0.059
-0.020372 -0.0063725 0.015394 0.024216
0.011184 0.0042851 0.0071564 0.0018252 -0.0014944 0.0079192 -0.020386 -0.0063592
-0.23537 -0.16827 -0.026565 0.0043441
-0.0032043 0.0087783 0.0024149 0.013566 0.0020917 0.011834 0.015394 0.02421
-0.026574 0.0043533 -0.28297 -0.087238
560000000 -0.31401 0.13516 -0.026749 -0.060143 0.00072918 0.011977 0.0049392 0.0097303
0.0088139 0.0046284 0.010368 0.0073701
-0.026704 -0.060119 -0.37617 0.11715 -0.042192 -0.034456 0.013128 0.0041569
-0.012216 -0.0045429 0.0028085 -0.00023023
0.00075107 0.012003 -0.042254 -0.034463 -0.18162 0.26776 0.00032895 -0.0048187
0.019277 0.0051443 0.0063812 -0.0065691
0.0049455 0.0097307 0.013104 0.0041446 0.00032629 -0.0048168 -0.30662 0.14717
0.00075799 -0.024144 0.002992 -0.01875
0.0088629 0.0046514 -0.012247 -0.0045546 0.019266 0.0051181 0.00077043 -0.024156
-0.2887 0.0055651 0.0034576 -0.04721
0.010372 0.0073527 0.0027896 -0.00019615 0.0063853 -0.0065694 0.0029731 -0.018741
0.0034664 -0.047224 -0.33024 0.05251
620000000 -0.27164 0.12151 -0.023688 0.0078796 0.004087 0.008124 0.0073037 -0.0047928
0.011473 -0.0014448 0.00073399 -0.0023999
-0.023667 0.0078857 -0.40181 0.071312 -0.019365 0.00085605 -0.00081368 -0.002086
0.01017 -0.0064546 0.001619 -0.0026376
0.0040899 0.0081191 -0.019372 0.00088431 -0.1499 0.27743 -0.0010117 -0.004963
-0.0030964 -0.0028235 0.0080814 -0.0036367
0.0073018 -0.0047962 -0.00083056 -0.002093 -0.0010158 -0.004986 -0.26342 0.15878
-0.040281 -0.016644 0.0122 0.023896
0.011474 -0.0014563 0.010165 -0.0064857 -0.003104 -0.0028156 -0.040293 -0.016628
-0.21128 -0.033585 -0.039817 0.01643
0.00070135 -0.0024366 0.0016087 -0.0026379 0.0080989 -0.0035994 0.012178 0.023904
-0.039808 0.0164 -0.25624 0.024525
680000000 -0.22887 0.2041 -0.027651 -0.01177 0.0055997 0.004511 0.0010642 -0.0071987
-0.0027111 -0.010814 0.0041769 -0.0066466
-0.027627 -0.011774 -0.38488 0.16619 -0.031875 0.00042647 -0.0013032 -0.00071915
-0.002202 -0.0089898 -0.001262 -0.0021472
0.0056046 0.0044945 -0.03189 0.00047055 -0.097916 0.29438 -0.00092655 -0.00055864
-0.0013324 -6.7174e-05 -0.0032572 -0.0084995
0.0010612 -0.0071953 -0.0013021 -0.00071361 -0.00091786 -0.00056154 -0.21717 0.20651
-0.026066 -0.004376 -0.0090854 -0.0085445
-0.002719 -0.010814 -0.0022428 -0.0089787 -0.0013339 -4.9932e-05 -0.02609 -0.0043607
-0.25232 0.065305 -0.0067083 -0.0062193
0.0041811 -0.0066375 -0.0012585 -0.002153 -0.0032643 -0.0084974 -0.0091025 -0.0085405
-0.0066911 -0.0062176 -0.25532 0.12087
740000000 -0.18409 0.19865 -0.036264 0.026766 0.01225 -0.0058871 -0.00047438 -0.0042173
-0.0045467 -0.0028126 -0.0058176 0.0028677
-0.03629 0.026731 -0.33255 0.18572 -0.032635 0.035247 -0.0010857 -0.0065879
-0.011427 0.0078476 -0.0019717 -0.0052702
0.012255 -0.0059087 -0.032576 0.035308 -0.0644 0.29316 -0.0017011 0.0030755
-0.0032675 -0.0047087 -0.0019056 0.00099233
-0.00048637 -0.0042269 -0.0010878 -0.0065841 -0.0017103 0.0030739 -0.19939 0.21539
-0.042193 -0.0027041 0.022338 0.012777
-0.0045105 -0.0028005 -0.011413 0.0079085 -0.0032616 -0.0047205 -0.042249 -0.0026558
-0.15672 0.086075 -0.039677 0.004599
-0.0058087 0.0028887 -0.0019753 -0.0052591 -0.0018942 0.00099683 0.022336 0.012733
-0.039706 0.0045752 -0.24304 0.13052
800000000 -0.1502 0.23597 -0.020626 0.017466 0.0047491 -0.010574 -0.0043764 -0.0017511
-0.0035841 0.0023107 0.0034485 0.0007698
-0.020638 0.017448 -0.33293 0.254 -0.0063501 0.033459 -0.0023417 0.0022226
-0.00059244 0.0032665 0.0011075 0.0052537
0.0047299 -0.010578 -0.0062914 0.033462 -0.021749 0.31471 0.00073244 0.0018251
0.00042682 0.0035857 -0.0017827 0.0011516
-0.0043686 -0.0017521 -0.0023535 0.0022238 0.00072609 0.0018276 -0.16881 0.24164
-0.026571 0.016705 0.012698 -0.010181
-0.0035918 0.002321 -0.00058026 0.0032758 0.00043124 0.0035896 -0.026568 0.016763
-0.19558 0.11426 -0.015409 0.018906
0.0034459 0.00075972 0.0011154 0.005244 -0.0017887 0.0011581 0.012687 -0.0102
-0.015415 0.01888 -0.23085 0.17621
860000000 -0.11513 0.2558 -0.015257 0.030599 -0.0036408 -0.0096163 -0.0021631 0.0010977
0.0043214 0.0046129 -0.0026392 -0.0024115
-0.015277 0.030567 -0.28596 0.29459 0.0092453 0.033004 9.1203e-05 0.0021138
0.0043423 0.00012469 0.0031002 0.00045785
-0.0036454 -0.0096018 0.009321 0.032985 0.026138 0.32159 -0.00036981 3.4306e-05
0.0025635 -0.0013155 0.0016823 0.003918
-0.0021573 0.0010979 8.6662e-05 0.0021087 -0.00036948 3.8402e-05 -0.1321 0.25205
-0.014986 0.020817 -0.0053172 -0.0091326
0.0043352 0.0045996 0.0043413 0.00011577 0.0025653 -0.0013246 -0.014971 0.020862
-0.14248 0.15982 -0.020941 0.016905
-0.0026526 -0.0024033 0.0030988 0.00046231 0.0016817 0.0039218 -0.005329 -0.0091322
-0.020938 0.016886 -0.18139 0.21612
920000000 -0.08872 0.27692 0.0066084 0.036202 -0.0092936 -0.0041193 -0.0014758 0.001694
0.0013422 0.0017001 0.002802 -0.0019055
0.0065576 0.036184 -0.2556 0.31511 0.02828 0.020134 0.0017344 0.0010268
0.007031 -0.00061256 0.0037604 -0.0028115
-0.0092967 -0.0041016 0.028329 0.020073 0.073378 0.32174 0.0019785 -0.00016926
0.0015119 -0.00047166 0.00074225 -0.0010629
-0.0014637 0.0016948 0.0017252 0.0010273 0.0019767 -0.00016877 -0.10581 0.26763
-0.0071294 0.030991 0.0028293 -0.0065864
0.001353 0.0016814 0.0070317 -0.000647 0.0015046 -0.0004807 -0.0070826 0.031029
-0.12933 0.16537 0.00017139 0.025859
0.0027834 -0.0019212 0.0037578 -0.0028093 0.00073913 -0.0010623 0.0028324 -0.0065753
0.00016235 0.025852 -0.18105 0.23148
980000000 -0.042093 0.29441 0.018485 0.027945 -0.0085381 0.0046124 0.0018868 0.0029968
0.0040296 -0.0017284 -0.003224 -0.0021714
0.018421 0.027918 -0.2039 0.34735 0.032514 0.0031296 0.0020723 -0.00023237
0.0016478 -0.0061823 -0.00052326 -0.0024955
-0.0085298 0.004624 0.032553 0.0030418 0.1199 0.31378 0.00048056 -0.0013004
3.0714e-05 -0.002352 0.0011934 -0.00031513
0.0019041 0.0029977 0.0020632 -0.00025297 0.00048151 -0.0013037 -0.066971 0.27657
0.011312 0.028306 -0.008347 -0.0066333
0.0040365 -0.0017354 0.0016299 -0.0062158 2.7395e-05 -0.0023606 0.011365 0.028306
-0.09673 0.1892 0.0065026 0.017972
-0.0032362 -0.0021688 -0.00053562 -0.0024752 0.0012015 -0.00031538 -0.008372 -0.0066244
0.006478 0.017963 -0.13757 0.2701
1040000000 0.00060345 0.3016 0.032762 0.015536 -0.0012185 0.0064817 0.002262 0.00055697
0.00017116 -0.0032099 -0.00089401 -0.0012936
0.032709 0.015547 -0.16841 0.36061 0.027778 -0.015765 0.001424 -0.0018313
-0.0023626 -0.0026211 -0.0016064 -0.0027266
-0.0012103 0.0064964 0.027755 -0.015859 0.16651 0.29934 -0.00059265 -0.0015219
-0.0016345 -0.00090969 -0.00060271 -0.00097144
0.002279 0.00055858 0.0014063 -0.0018307 -0.00058452 -0.0015162 -0.038777 0.28565
0.021246 0.015409 -0.0027548 0.00087176
0.00015759 -0.0032145 -0.0023769 -0.0026278 -0.001633 -0.0009124 0.021289 0.015396
-0.064729 0.19526 0.013916 0.015378
-0.00089799 -0.0013063 -0.0016003 -0.0026892 -0.00061447 -0.00097985 -0.0027513 0.00086698
0.013907 0.015377 -0.11252 0.28993
1100000000 0.045912 0.3078 0.034216 -0.0060565 0.0025836 0.0035943 0.002126 -0.00085787
-0.001908 -0.0027014 -0.003612 0.00064569
0.034173 -0.0060262 -0.12486 0.37693 0.013483 -0.027738 -0.0001187 -0.0017259
-0.0034547 -0.00055322 -0.0033037 -0.00019357
0.0025926 0.0035906 0.013414 -0.027794 0.21357 0.27702 -0.0019025 0.00020905
-0.0019284 0.00065309 -0.00095203 -5.6394e-05
0.0021337 -0.00085265 -0.00012927 -0.001722 -0.0019053 0.00020796 0.0023467 0.28839
0.024869 0.0020774 -0.0026942 2.3415e-05
-0.0019147 -0.0026882 -0.0034599 -0.00054068 -0.0019293 0.00064339 0.024877 0.0020407
-0.045914 0.2066 0.018444 0.0061527
-0.0036053 0.00064423 -0.0033039 -0.00017748 -0.00095966 -4.8415e-05 -0.0026855 3.1098e-05
0.018432 0.0061629 -0.065696 0.31405
1160000000 0.096431 0.30173 0.021692 -0.021589 0.0021342 -0.00023889 -7.2964e-06 -0.0019225
-0.0038951 -0.00056404 -0.0007247 0.0039207
0.02168 -0.021565 -0.0809 0.38103 -0.0051147 -0.028177 -0.0016076 -0.0015106
-0.0026636 0.0026204 -0.0014653 0.0017814
0.0021368 -0.00023947 -0.0052014 -0.028183 0.25604 0.24436 -0.00080077 0.0018412
-0.00047268 0.0020561 -0.00076014 0.00033779
-2.4781e-06 -0.0019109 -0.0016321 -0.0015069 -0.00079244 0.001843 0.041418 0.28372
0.020217 -0.013028 -0.00318 0.0042931
-0.0038955 -0.00055526 -0.002651 0.0026199 -0.00046617 0.0020532 0.020201 -0.013063
-0.012899 0.21286 0.017173 -0.0021346
-0.00070355 0.0039129 -0.0014567 0.0018029 -0.00076148 0.00033055 -0.0031702 0.0043152
0.017163 -0.0021447 -0.01912 0.31458
1220000000 0.14108 0.28917 0.0079412 -0.029434 -0.0017029 -0.00014033 0.00026907 -0.00091193
-0.0024036 0.0022818 0.0013348 0.0019095
0.0079411 -0.029402 -0.036463 0.39218 -0.017422 -0.019749 -0.0024341 0.00046777
8.8236e-05 0.0030515 -0.00049539 0.0019715
-0.0017116 -0.00013111 -0.017482 -0.019707 0.29451 0.20381 0.0007687 0.0018905
0.0007492 0.0012794 0.0004569 0.00055549
0.00026479 -0.00091322 -0.0024391 0.0004712 0.0007653 0.0018924 0.081686 0.27343
0.0090123 -0.019006 0.0012058 0.0014307
-0.0023952 0.0022966 0.00011132 0.0030481 0.00074661 0.0012813 0.0089926 -0.019023
0.010715 0.21974 0.011729 -0.013938
0.0013414 0.0018945 -0.00048487 0.0019739 0.00045416 0.00056354 0.0012016 0.0014386
0.011719 -0.013932 0.014295 0.32662
1280000000 0.18982 0.26574 -0.009528 -0.026784 -0.0014694 0.0031203 -0.00093323 -0.002077
-0.00069423 0.0029136 0.0024346 0.00091087
-0.0095011 -0.026767 0.0094765 0.38249 -0.023503 -0.0073207 -0.0010657 0.0014189
0.0017974 0.0017482 0.00081291 0.0018085
-0.0014647 0.0031282 -0.023533 -0.0072466 0.32352 0.15854 0.0017073 4.0283e-05
0.0012376 0.00012772 0.0003725 8.3864e-05
-0.00093384 -0.0020801 -0.0010536 0.0014261 0.0017065 4.1753e-05 0.11757 0.25451
-0.001117 -0.020337 -0.00078507 0.00060894
-0.00068555 0.0029242 0.0018089 0.0017372 0.0012408 0.00012501 -0.001147 -0.020353
0.046281 0.22117 0.0010591 -0.015424
0.0024476 0.00090389 0.00081413 0.0018041 0.00037579 8.5053e-05 -0.00078213 0.00060608
0.0010668 -0.015419 0.060133 0.32457
1340000000 0.22633 0.23116 -0.018257 -0.016657 0.0015544 0.0045169 -0.0017841 -0.00095246
0.0013767 0.0025057 0.0015547 -0.0014732
-0.018227 -0.016657 0.048965 0.37345 -0.02086 0.0051256 -0.00012353 0.002078
0.0020614 0.00061927 0.0013493 0.00063811
0.0015708 0.0045075 -0.020844 0.0052004 0.34406 0.11042 0.0013652 -0.0010395
0.00061574 -0.00055983 1.6043e-05 0.00020843
-0.0017804 -0.00094547 -0.00012457 0.0020638 0.0013638 -0.0010356 0.14911 0.23275
-0.010544 -0.016664 0.0003923 0.0013197
0.0013894 0.0025078 0.0020581 0.00060953 0.00061999 -0.00055622 -0.010577 -0.016655
0.075588 0.2152 -0.005647 -0.013192
0.0015579 -0.0014783 0.0013575 0.00062806 1.9714e-05 0.00020198 0.00038608 0.0013263
-0.005642 -0.013186 0.098791 0.31685
1400000000 0.25866 0.19186 -0.022579 -0.0052999 0.0056302 0.0027874 -0.0022359 0.00063344
0.0023095 0.00085691 0.00016787 -0.0014887
-0.022553 -0.0053167 0.086115 0.35967 -0.013852 0.012716 0.0013901 0.0013421
0.001211 -0.00098768 0.0010827 3.7168e-05
0.0056409 0.0027656 -0.013815 0.012779 0.35642 0.056768 0.00011029 -0.002085
1.8564e-05 -0.00045726 0.00025016 0.00017949
-0.0022296 0.00063984 0.0013949 0.0013331 0.00011101 -0.0020831 0.17741 0.20214
-0.016344 -0.0093084 -0.0004557 0.00072249
0.0023188 0.00084854 0.0012116 -0.00099704 2.0563e-05 -0.00045663 -0.01638 -0.0092846
0.10755 0.20887 -0.01155 -0.0076077
0.00015551 -0.001482 0.0010868 3.4095e-05 0.00025551 0.00018445 -0.00045315 0.0007282
-0.011543 -0.0076157 0.14174 0.30262
1460000000 0.28032 0.14714 -0.01887 0.0059857 0.0056967 -0.0023103 -0.0015928 0.0017845
0.0020108 -0.00051631 -0.00038465 -0.00093785
-0.018856 0.0059704 0.11995 0.33712 -0.0052465 0.01509 0.0018131 0.00015388
0.00069033 -0.0013917 0.0010717 -0.00060257
0.0056847 -0.0023325 -0.0051934 0.01511 0.361 0.0027567 -0.0015753 -0.0014411
9.9896e-05 -0.00017723 0.00061178 -0.00031164
-0.0015892 0.0017841 0.0018108 0.00014287 -0.0015708 -0.0014421 0.20136 0.17192
-0.017189 -0.0019105 -7.9966e-05 0.0024368
0.0020189 -0.00052191 0.00069344 -0.0013892 0.00010384 -0.00018233 -0.017212 -0.0018817
0.13546 0.19329 -0.012344 -0.0015001
-0.00039722 -0.00093363 0.001056 -0.00060415 0.00061719 -0.00032073 -7.1501e-05 0.002434
-0.01234 -0.0014959 0.17334 0.27986
1520000000 0.29186 0.1045 -0.012802 0.010616 0.0030939 -0.0044415 0.00024044 0.0027116
0.0020564 -0.0016127 -0.0011045 -0.00013137
-0.012796 0.010596 0.15326 0.32179 0.0019715 0.012647 0.0016949 -0.00093307
-0.00016014 -0.0010886 0.00027515 -0.00092159
0.0030769 -0.0044491 0.0020227 0.012644 0.35401 -0.053369 -0.001526 -0.00017815
0.00056232 -0.00090869 -7.3681e-06 -0.0001272
0.00024669 0.0027048 0.0016887 -0.00093812 -0.0015266 -0.00018021 0.22264 0.13373
-0.015734 0.0042352 0.0022114 0.0020602
0.0020545 -0.0016185 -0.00016472 -0.0010862 0.00056793 -0.00091638 -0.015737 0.0042727
0.16301 0.17798 -0.011677 0.0031516
-0.0010969 -0.00012693 0.00026646 -0.0009165 -6.2032e-06 -0.00013142 0.0022055 0.0020477
-0.011677 0.0031487 0.20539 0.2571
1580000000 0.29971 0.0575 -0.006462 0.012758 -0.0011545 -0.0049505 0.0016001 0.0018611
-0.00013371 -0.0021829 -0.00025161 0.00040008
-0.006461 0.012748 0.18002 0.29616 0.0053684 0.0077763 0.00037677 -0.0017497
-0.00060885 -0.00090449 -0.0001796 -0.00077621
-0.001166 -0.0049411 0.0054073 0.0077548 0.33365 -0.1111 -0.0016065 0.0011456
-0.00030385 -0.0011153 0.00016466 -0.00056411
0.0016105 0.0018486 0.00036808 -0.0017478 -0.0016016 0.0011443 0.23426 0.094413
-0.01174 0.0092422 0.002772 0.00031388
-0.00015901 -0.0021798 -0.00061548 -0.00090214 -0.00031268 -0.0011225 -0.011726 0.0092789
0.18614 0.15834 -0.0088919 0.008286
-0.00024901 0.0004012 -0.00018496 -0.00078018 0.00016174 -0.00056281 0.0027785 0.00030017
-0.008894 0.008281 0.23512 0.22876
1640000000 0.30034 0.015857 -0.00038931 0.011106 -0.0029745 -0.0025908 0.0027548 0.00081651
-0.00079926 -0.0016258 -0.00019303 0.00062697
-0.00039336 0.011103 0.20888 0.27083 0.0058209 0.0032028 -0.00089592 -0.0016864
-0.00097385 -0.00023783 -0.00050039 -0.00060652
-0.0029886 -0.0025721 0.005838 0.0031823 0.30448 -0.15962 -0.00044433 0.0016992
-0.0012132 -0.00079011 -0.00015911 -0.00029424
0.0027467 0.00080064 -0.00090072 -0.0016713 -0.00044397 0.001693 0.24446 0.047076
-0.0069339 0.010474 0.0026622 -0.0013288
-0.00080288 -0.0016178 -0.00097494 -0.00023333 -0.0012157 -0.00078931 -0.0069137 0.0105
0.20751 0.13307 -0.0038649 0.010015
-0.00018875 0.00063178 -0.00050668 -0.00060099 -0.00015673 -0.00029865 0.0026662 -0.0013321
-0.0038615 0.01001 0.2591 0.19654
1700000000 0.29156 -0.029831 0.0023469 0.0081361 -0.003681 0.00020673 0.0029019 -0.0015123
-0.0020423 -0.00073659 0.00068731 0.00025995
0.0023348 0.0081279 0.22665 0.23896 0.0038553 0.00037449 -0.001528 -0.00045228
-0.00066857 0.00018429 -0.00089389 -0.00047401
-0.0036765 0.00020799 0.003861 0.00036329 0.26149 -0.19971 0.00081967 0.0014073
-0.0019254 -5.9473e-05 -0.00061245 -0.00080202
0.0028982 -0.0015255 -0.0015319 -0.00045099 0.00082266 0.0014152 0.24055 -0.0010877
-0.003481 0.010742 0.0014505 -0.0025192
-0.0020527 -0.0007363 -0.00066612 0.00018639 -0.0019251 -5.4588e-05 -0.0034625 0.01076
0.22365 0.11143 0.00081707 0.0099732
0.00068913 0.00025695 -0.00089566 -0.00046964 -0.00062277 -0.00080568 0.001453 -0.0025169
0.00082009 0.0099726 0.27398 0.1611
1760000000 0.27773 -0.078 0.0039742 0.0049574 -0.0023212 0.00098992 0.00092924 -0.0035479
-0.0015392 0.00070861 0.0003645 -0.00048037
0.0039702 0.0049593 0.25175 0.19849 0.0016014 -0.001502 -0.0011873 0.0003244
-0.00089868 0.00082847 -0.00063804 0.00042404
-0.0023191 0.00099225 0.001586 -0.0015101 0.21227 -0.23335 0.0013474 0.00067129
-0.0010908 0.0016529 -0.0013695 -0.00027599
0.00092238 -0.0035351 -0.0011809 0.00032587 0.0013448 0.00067469 0.23106 -0.050401
0.00010885 0.0097211 -0.00042069 -0.0026734
-0.001532 0.0007136 -0.00089245 0.00083101 -0.0010844 0.001657 0.00013375 0.0097243
0.23642 0.075587 0.0046235 0.0071217
0.00036399 -0.00048303 -0.00063512 0.0004269 -0.0013711 -0.00027211 -0.00042543 -0.0026845
0.0046231 0.0071169 0.28478 0.1227
1820000000 0.25191 -0.11446 0.0037268 0.0017668 -3.4277e-05 0.0025133 -0.0012992 -0.002865
-0.0011257 0.0010841 -9.3883e-05 -7.4284e-05
0.0037189 0.001766 0.26121 0.16852 -0.00043885 -0.00025849 -0.0011234 0.0010014
1.6618e-05 0.0011448 -0.00056599 0.00059158
-1.7116e-05 0.002522 -0.00044547 -0.00025492 0.16138 -0.24859 0.0012934 2.6544e-05
5.2437e-05 0.002222 -0.0013526 0.0006208
-0.001308 -0.0028642 -0.0011183 0.0010059 0.001293 2.2599e-05 0.20228 -0.095659
0.0019729 0.0076065 -0.0015949 -0.0016151
-0.0011192 0.0010877 3.3738e-05 0.0011448 5.0731e-05 0.0022308 0.0019874 0.0076065
0.25197 0.046056 0.0056489 0.0033439
-9.1855e-05 -7.4107e-05 -0.00056211 0.00059847 -0.0013509 0.00061253 -0.0016008 -0.0016133
0.0056416 0.0033469 0.28586 0.085388
1880000000 0.21558 -0.15398 0.0012595 -2.7423e-05 -0.00046349 0.0022178 -0.0030062 -0.001815
-0.00016247 0.0017621 0.00022905 -0.00043051
0.0012578 -2.5107e-05 0.26501 0.12146 -0.0025746 0.0015363 -7.4608e-05 0.001614
0.00048547 0.0010224 0.00016883 0.00099149
-0.00046371 0.0022142 -0.0025634 0.0015487 0.10841 -0.25871 0.0012696 -0.00098551
0.0016943 0.0016366 -0.00064696 0.0013764
-0.0030118 -0.0017989 -6.441e-05 0.0016118 0.0012692 -0.00098406 0.16321 -0.13597
0.0028654 0.0049984 -0.0023694 0.00011129
-0.00015925 0.0017645 0.00049277 0.0010105 0.0016928 0.0016364 0.0028698 0.0049953
0.25328 0.012406 0.0053048 0.00093274
0.00022473 -0.00043113 0.00017674 0.00098874 -0.00064499 0.0013844 -0.0023665 0.00012234
0.005307 0.00092878 0.28396 0.050725
1940000000 0.17562 -0.17877 -0.00092683 -0.0011488 0.0014498 0.0021074 -0.0034852 0.00090645
0.0015132 0.0011273 -0.00051604 -0.00055026
-0.00092033 -0.0011424 0.26456 0.090055 -0.0013415 0.0040299 0.00091615 0.0011588
0.0015681 0.00045019 0.00092319 0.00040512
0.0014569 0.0021079 -0.0013257 0.0040358 0.061977 -0.25096 0.00012658 -0.0016139
0.0022075 0.00018514 0.00055746 0.0016283
-0.0034816 0.00092131 0.0009169 0.0011486 0.00012838 -0.0016166 0.11156 -0.1663
0.001861 0.0031824 -0.0017052 0.0010897
0.0015203 0.0011119 0.0015746 0.00044823 0.0022177 0.00019063 0.001872 0.0031791
0.25317 -0.026692 0.0039871 -0.0023239
-0.00051986 -0.00054587 0.00092149 0.00039636 0.00055932 0.0016195 -0.0017014 0.0010988
0.0039712 -0.0023226 0.27128 0.014426
2000000000 0.12922 -0.19277 -0.0044721 0.0012693 0.0027287 0.0016663 -0.002058 0.003477
0.0012864 0.0001204 -0.00050497 0.00036551
-0.0044696 0.0012682 0.25018 0.05447 -0.00097959 0.0058465 0.0014543 0.00033084
0.0011782 -0.0011215 0.00062772 3.0929e-05
0.0027427 0.0016622 -0.00095347 0.0058556 0.018561 -0.2363 -0.00086146 -0.00098463
0.0017135 -0.0011073 0.0018539 0.00094135
-0.002033 0.003482 0.0014579 0.00032321 -0.00086203 -0.00097438 0.05899 -0.17742
-0.00011783 0.0024928 -0.00054086 0.0020485
0.0012912 0.00011423 0.0011705 -0.0011226 0.0016988 -0.0011056 -0.00012269 0.0024932
0.24583 -0.061088 0.0004372 -0.0035666
