!Keysight Technologies,M9804A,MY58100912,A.14.10.03
!Date: Thursday, April 27, 2023 10:28:33
!Correction: S11(C  6-Port  ) 
!S12(C  6-Port  ) 
!S13(C  6-Port  ) 
!S14(C  6-Port  ) 
!S15(C  6-Port  ) 
!S16(C  6-Port  ) 
!S21(C  6-Port  ) 
!S22(C  6-Port  ) 
!S23(C  6-Port  ) 
!S24(C  6-Port  ) 
!S25(C  6-Port  ) 
!S26(C  6-Port  ) 
!S31(C  6-Port  ) 
!S32(C  6-Port  ) 
!S33(C  6-Port  ) 
!S34(C  6-Port  ) 
!S35(C  6-Port  ) 
!S36(C  6-Port  ) 
!S41(C  6-Port  ) 
!S42(C  6-Port  ) 
!S43(C  6-Port  ) 
!S44(C  6-Port  ) 
!S45(C  6-Port  ) 
!S46(C  6-Port  ) 
!S51(C  6-Port  ) 
!S52(C  6-Port  ) 
!S53(C  6-Port  ) 
!S54(C  6-Port  ) 
!S55(C  6-Port  ) 
!S56(C  6-Port  ) 
!S61(C  6-Port  ) 
!S62(C  6-Port  ) 
!S63(C  6-Port  ) 
!S64(C  6-Port  ) 
!S65(C  6-Port  ) 
!S66(C  6-Port  ) 
!S6P File: Measurement: :
# Hz S  RI   R 50
500000000 -0.33457 -0.055208 -0.010818 -0.0019125 -0.0085057 0.013241 -0.0042306 0.011622
0.012543 0.0055378 -0.0048818 0.0082526
-0.010782 -0.0017492 -0.41617 -0.064996 0.007879 -0.010493 0.0011787 0.012107
0.0078813 0.0028815 0.0014836 0.013217
-0.0086369 0.013322 0.0078732 -0.010526 -0.26782 0.19863 0.0064202 0.0036332
-0.0012474 0.008464 0.0002162 0.011808
-0.0044626 0.01175 0.0013876 0.011831 0.0063383 0.0035092 -0.33245 0.042646
-0.0183 -0.0051597 0.015632 0.025105
0.012698 0.0055079 0.0080318 0.0030367 -0.0011619 0.0084257 -0.018469 -0.0049047
-0.2461 -0.19767 -0.026183 0.0038696
-0.0046108 0.007655 0.001375 0.013523 0.00010132 0.011824 0.015596 0.025492
-0.025609 0.0045599 -0.27102 -0.12665
560000000 -0.31884 0.11089 -0.022784 -0.064779 3.2629e-05 0.013298 0.0056042 0.011175
0.010983 0.0040833 0.0099399 0.0087772
-0.022831 -0.064856 -0.37588 0.098831 -0.042143 -0.037653 0.013411 0.0035662
-0.013399 -0.003547 0.0040314 -0.0012246
9.89e-05 0.013574 -0.042282 -0.037533 -0.18637 0.25061 -0.00070303 -0.0043627
0.018327 0.0062535 0.0078647 -0.0059825
0.0055628 0.010978 0.013219 0.0033252 -0.00068082 -0.0043661 -0.30624 0.13467
0.0057751 -0.023385 0.0056493 -0.022094
0.010972 0.0044454 -0.013447 -0.0037132 0.018187 0.0061439 0.005704 -0.02352
-0.31205 -0.018596 0.008605 -0.047729
0.0096413 0.0087949 0.0039987 -0.0015187 0.0082085 -0.0059499 0.0055149 -0.02129
0.0085634 -0.047497 -0.33184 0.022207
620000000 -0.27858 0.092273 -0.023206 0.0088541 0.0038264 0.0092768 0.0086596 -0.0043014
0.010182 -0.0010216 0.0012404 -0.0019842
-0.023305 0.0088488 -0.40357 0.047867 -0.018276 0.00089128 -0.0017557 -0.0021401
0.012376 -0.0061351 0.00070111 -0.0034178
0.0038322 0.009203 -0.018299 0.00095625 -0.15582 0.25992 -0.00062075 -0.0050942
-0.0032999 -0.0031129 0.0094744 -0.0033793
0.0087198 -0.0046144 -0.0016766 -0.0021754 -0.00056489 -0.0053723 -0.2646 0.14542
-0.039812 -0.018799 0.014369 0.026822
0.010167 -0.00079611 0.012361 -0.0062499 -0.0033629 -0.0028298 -0.039885 -0.019029
-0.22982 -0.054447 -0.043396 0.013924
0.0013181 -0.0021141 0.00068764 -0.0034788 0.0094843 -0.0031763 0.014192 0.027463
-0.042672 0.012951 -0.24857 -0.01195
680000000 -0.24013 0.18321 -0.026243 -0.014289 0.0049601 0.0050285 0.0015064 -0.0076132
-0.0019947 -0.011396 0.0059579 -0.0080278
-0.026166 -0.014393 -0.39021 0.1497 -0.032021 -0.0020903 -0.0016887 -0.00060694
-0.0017183 -0.0092063 -0.00069212 -0.0019406
0.005036 0.0050032 -0.032082 -0.0020038 -0.10389 0.28054 -0.0010494 -0.00059665
-0.0016269 0.00022993 -0.0025014 -0.009376
0.001661 -0.0076614 -0.0014074 -0.00046277 -0.00099005 -0.00050096 -0.22003 0.19793
-0.024067 -0.0083142 -0.0083939 -0.011288
-0.0020906 -0.011382 -0.0018008 -0.009238 -0.0015973 0.0001703 -0.024106 -0.0080695
-0.27947 0.051254 -0.0070361 -0.007703
0.0059339 -0.007768 -0.0006736 -0.0019718 -0.0025123 -0.0092832 -0.0082577 -0.011804
-0.0069915 -0.0082017 -0.26024 0.094114
740000000 -0.19295 0.1767 -0.039909 0.026828 0.013916 -0.0050061 0.00011476 -0.0040516
-0.0038191 -0.0032218 -0.0066944 0.0029082
-0.039823 0.026773 -0.33539 0.1682 -0.036818 0.034605 1.0205e-05 -0.0062832
-0.011999 0.0080284 -0.0016402 -0.0068381
0.013913 -0.0050853 -0.036784 0.034725 -0.069876 0.27739 -0.0019786 0.0034273
-0.0031052 -0.006348 -0.00084323 0.0010238
-2.8038e-05 -0.0042036 -0.00020469 -0.0060959 -0.0018246 0.0033048 -0.20284 0.2045
-0.042401 -0.0076728 0.022318 0.015688
-0.0039057 -0.0032273 -0.01232 0.0081735 -0.0032037 -0.0063617 -0.043021 -0.007766
-0.17972 0.077146 -0.041822 0.001595
-0.0065928 0.002663 -0.0014455 -0.0065646 -0.00097825 0.0011878 0.022822 0.015906
-0.042654 0.0010399 -0.24984 0.098309
800000000 -0.16215 0.22033 -0.021993 0.016302 0.0059589 -0.010636 -0.0041278 -0.0023338
-0.0045008 0.0019673 0.0047124 0.00057277
-0.022034 0.016334 -0.34127 0.23868 -0.0084295 0.03396 -0.0021412 0.0021127
-0.0010157 0.0027338 0.00093474 0.0053348
0.0058915 -0.010632 -0.0083328 0.034028 -0.031382 0.3015 0.0009469 0.0015627
-2.4747e-05 0.0035225 -0.0016151 0.00078263
-0.004117 -0.0023506 -0.002221 0.0021331 0.00095096 0.0014979 -0.17356 0.23187
-0.028784 0.013404 0.014644 -0.010333
-0.0045013 0.0020035 -0.00098314 0.002663 6.2372e-06 0.003531 -0.028509 0.013112
-0.22161 0.10588 -0.017498 0.020175
0.0046689 0.00061229 0.0010085 0.0052827 -0.0015642 0.00082985 0.014671 -0.010013
-0.018202 0.019741 -0.24014 0.14835
860000000 -0.12762 0.24053 -0.017811 0.030167 -0.0027451 -0.010436 -0.001929 0.00063839
0.0036434 0.0053616 -0.0038166 -0.0032382
-0.017805 0.030035 -0.29299 0.28142 0.0072685 0.034318 -1.8927e-05 0.0021302
0.0035708 0.000844 0.0024488 4.7553e-05
-0.0027699 -0.010383 0.0073986 0.034326 0.016223 0.30983 -0.00058812 -0.0001245
0.0022704 -0.001315 0.0014638 0.0041398
-0.0017901 0.00064297 -8.8654e-05 0.0021249 -0.00048736 -0.00011546 -0.13681 0.24283
-0.018215 0.018069 -0.0061597 -0.0088964
0.0037223 0.00538 0.0035919 0.00088721 0.0023041 -0.0013306 -0.017985 0.018226
-0.16578 0.15951 -0.024849 0.016248
-0.0036445 -0.0029762 0.0024918 1.4551e-05 0.001501 0.0041512 -0.0063326 -0.0087931
-0.024795 0.016187 -0.19116 0.19384
920000000 -0.10416 0.2635 0.0045457 0.038234 -0.0092291 -0.0051145 -0.001982 0.0017232
0.00096105 0.0021985 0.0030103 -0.0014618
0.0044832 0.03816 -0.26586 0.30266 0.027929 0.022899 0.0013077 0.0014154
0.0080333 -3.9393e-06 0.0043476 -0.0025952
-0.00924 -0.0050875 0.028051 0.022835 0.061228 0.31125 0.0019616 0.00011465
0.0011192 -0.00021429 0.00096589 -0.0012025
-0.002001 0.0017085 0.0013652 0.0014574 0.0019574 0.00017097 -0.11278 0.25914
-0.01107 0.030621 0.0039834 -0.0067336
0.00099423 0.0022401 0.0080693 -9.1367e-05 0.0011083 -0.00022467 -0.010979 0.030879
-0.15541 0.16427 -0.00048979 0.026827
0.003025 -0.0014468 0.0042636 -0.0027264 0.00099729 -0.0012203 0.0039139 -0.0067935
-0.00054235 0.026724 -0.19714 0.20576
980000000 -0.057683 0.28415 0.016719 0.030099 -0.0095318 0.0041589 0.0017411 0.0036663
0.0041599 -0.0016953 -0.0028202 -0.0026679
0.016688 0.030099 -0.21297 0.33732 0.033279 0.0055131 0.0021292 -0.00015693
0.0018962 -0.0063554 -0.00020825 -0.0025831
-0.0095149 0.0041982 0.033344 0.0054001 0.10696 0.30593 0.00075729 -0.001144
0.00057487 -0.0020528 0.0015665 -0.00023736
0.0017331 0.0036641 0.0020575 -6.605e-05 0.00072924 -0.0011436 -0.074415 0.26983
0.0075008 0.029444 -0.009105 -0.0073672
0.0041211 -0.0017073 0.0018506 -0.0064187 0.00057343 -0.0020767 0.0075561 0.029485
-0.12188 0.19373 0.0056926 0.018626
-0.0027771 -0.0026037 -0.00025348 -0.0025722 0.0015739 -0.00019745 -0.0091296 -0.007522
0.0054485 0.019126 -0.15625 0.25101
1040000000 -0.016412 0.29277 0.032769 0.019136 -0.0016807 0.0069565 0.0026072 0.00073226
0.00038981 -0.0033488 -0.00034003 -0.001782
0.032739 0.019098 -0.17807 0.35098 0.030095 -0.014394 0.0017787 -0.001773
-0.0019864 -0.0026609 -0.0010278 -0.0028936
-0.0016709 0.006987 0.030085 -0.014537 0.1529 0.293 -0.00042338 -0.0016974
-0.0016538 -0.001055 -0.00061763 -0.0010934
0.0026919 0.00070966 0.0016684 -0.0017076 -0.00041645 -0.0016825 -0.047559 0.27933
0.0191 0.018985 -0.0025909 0.00073387
0.00041034 -0.003368 -0.0020155 -0.0027283 -0.0016594 -0.0010346 0.01926 0.018844
-0.088926 0.20069 0.014411 0.018663
-0.00034038 -0.0017155 -0.0011029 -0.0029515 -0.00054396 -0.0011034 -0.0025463 0.00067135
0.014423 0.018571 -0.13317 0.27036
1100000000 0.028286 0.30217 0.036374 -0.0034072 0.0027161 0.0042026 0.002453 -0.00090145
-0.0021368 -0.0030941 -0.0039376 6.1398e-05
0.036357 -0.0034039 -0.13524 0.36914 0.016021 -0.027909 7.2089e-05 -0.0018512
-0.0036698 -0.00098844 -0.0035853 -0.00054836
0.0027132 0.0041747 0.015938 -0.028013 0.19883 0.27393 -0.001916 2.6622e-05
-0.0018371 0.00046271 -0.0011096 -0.00045725
0.0025108 -0.00089919 8.9648e-05 -0.0018922 -0.0019591 3.4698e-05 -0.0076318 0.28457
0.024569 0.0055931 -0.0025218 0.00022692
-0.002163 -0.0031002 -0.003632 -0.00093636 -0.001837 0.00044277 0.02465 0.0055486
-0.068384 0.21405 0.019371 0.0087866
-0.0039059 0.00020337 -0.0035026 -0.00055013 -0.0011491 -0.00045296 -0.0024621 0.00020039
0.019233 0.0089 -0.086764 0.30078
1160000000 0.079341 0.29851 0.024523 -0.020468 0.0027352 -0.00040582 -5.4477e-05 -0.0023726
-0.0039409 -0.00089195 -0.0010303 0.0043087
0.024533 -0.020431 -0.091968 0.37396 -0.0031307 -0.029642 -0.0016467 -0.0017107
-0.0029675 0.0025942 -0.0015147 0.0019488
0.0027399 -0.00042903 -0.0032417 -0.029682 0.24233 0.24399 -0.00084785 0.0017937
-0.00065254 0.0020683 -0.00088476 0.00038243
-7.7827e-05 -0.0023248 -0.0016697 -0.0017415 -0.00083719 0.0017917 0.03153 0.28219
0.021341 -0.010154 -0.0033503 0.0051198
-0.00393 -0.00087941 -0.0029532 0.0026257 -0.00064432 0.0020691 0.021274 -0.010128
-0.033691 0.22167 0.018613 -0.00069763
-0.00098345 0.0042658 -0.0014731 0.0018977 -0.00085607 0.00040846 -0.0032906 0.0051615
0.018688 -0.0007171 -0.040147 0.30275
1220000000 0.12316 0.28885 0.011115 -0.030176 -0.0016431 -0.00083203 0.00016482 -0.00094549
-0.0027026 0.0021077 0.0010413 0.0020699
0.011148 -0.030141 -0.048068 0.38726 -0.016931 -0.022068 -0.0027002 0.00046063
-4.0026e-05 0.0032625 -0.00086633 0.0019857
-0.001628 -0.0008323 -0.017039 -0.02202 0.28148 0.20554 0.00066274 0.0018986
0.00060233 0.0013354 0.00033327 0.00064078
0.00011063 -0.00097623 -0.0026804 0.00048093 0.00070383 0.0018894 0.07158 0.27412
0.011044 -0.016992 0.0021704 0.0013616
-0.00269 0.0021052 -7.8334e-06 0.0032602 0.00060186 0.0013303 0.010971 -0.017002
-0.010504 0.23017 0.013968 -0.013237
0.0010097 0.0020303 -0.00083314 0.0019758 0.00037213 0.00063237 0.0021757 0.0014298
0.013958 -0.013084 -0.008893 0.31768
1280000000 0.17362 0.26869 -0.0076852 -0.028908 -0.0020479 0.0025822 -0.00079772 -0.0021815
-0.00081828 0.0031979 0.0025621 0.0013033
-0.0076615 -0.028898 -0.0020207 0.37953 -0.024314 -0.0091521 -0.0010637 0.001461
0.0017686 0.0018618 0.00064646 0.0020611
-0.0020343 0.0026138 -0.024386 -0.009055 0.31234 0.16242 0.0017079 6.4197e-05
0.0012887 0.00025987 0.00038934 0.00014264
-0.00081342 -0.0021776 -0.0010637 0.0014867 0.0017132 0.00014127 0.10866 0.25836
0.0013036 -0.019454 -0.00013629 0.00030683
-0.00078203 0.003219 0.0017787 0.0018575 0.0012944 0.00027126 0.001283 -0.019447
0.025858 0.23365 0.0029819 -0.015592
0.002518 0.0012816 0.00064921 0.002049 0.0003952 0.00013976 -0.00020898 0.00030556
0.0029641 -0.015594 0.038053 0.31999
1340000000 0.21129 0.23599 -0.017597 -0.019237 0.00082039 0.004926 -0.0018688 -0.00089192
0.0014149 0.0027992 0.0018763 -0.0013377
-0.017562 -0.019233 0.037771 0.37214 -0.022252 0.0040796 -0.00012882 0.0020634
0.0021366 0.00082183 0.0012889 0.00070828
0.00084111 0.0049123 -0.022249 0.0041951 0.33466 0.11528 0.0012607 -0.00095683
0.00065062 -0.00056583 0.00012044 0.00015207
-0.0018606 -0.00088189 -0.00013278 0.0020582 0.0012345 -0.00095852 0.14205 0.23763
-0.008338 -0.016887 0.00061594 0.00055635
0.0014351 0.0028031 0.0021308 0.00081084 0.00064648 -0.00056598 -0.0083239 -0.016891
0.055806 0.22907 -0.0041288 -0.014195
0.0019306 -0.0013275 0.0012992 0.0007202 0.00012457 0.0001562 0.00071407 0.00053107
-0.0040917 -0.014183 0.07604 0.3147
1400000000 0.24525 0.19896 -0.023586 -0.0075633 0.0055341 0.0035171 -0.0023055 0.00065788
0.0024154 0.0010551 0.00040279 -0.0016372
-0.023563 -0.0075917 0.075428 0.36008 -0.015546 0.012694 0.0013901 0.001338
0.0013199 -0.00086474 0.0012103 0.0001593
0.005555 0.0034822 -0.015512 0.012793 0.3482 0.062412 0.00012084 -0.0017072
7.0582e-05 -0.00051032 0.00027503 0.00026402
-0.0023117 0.00067034 0.0014087 0.0013406 0.00015552 -0.001687 0.17185 0.20893
-0.014477 -0.010142 -0.00085078 -3.5752e-05
0.0023984 0.0010485 0.0013063 -0.00087431 6.4487e-05 -0.00050638 -0.014549 -0.010063
0.08874 0.22512 -0.010466 -0.008936
0.00032175 -0.0016081 0.0011833 0.00017208 0.00025622 0.00027616 -0.00086982 1.8816e-05
-0.010508 -0.0089719 0.12024 0.30423
1460000000 0.26912 0.15542 -0.020475 0.0048313 0.0060805 -0.0017724 -0.0015914 0.0018254
0.0021488 -0.00037961 -0.00042197 -0.001099
-0.020454 0.0048283 0.1105 0.33865 -0.0063536 0.016049 0.001752 0.00012927
0.00085621 -0.0014395 0.0012654 -0.00062649
0.0061012 -0.0017885 -0.0062778 0.0161 0.35517 0.0086632 -0.0012726 -0.0014188
0.0001714 -0.00022774 0.00072039 -0.00022825
-0.0015773 0.0017918 0.0017525 0.00012989 -0.0012371 -0.0014175 0.19894 0.1794
-0.015888 -0.0034258 -0.00084285 0.0021222
0.0021346 -0.00040009 0.00085185 -0.0014606 0.00016897 -0.0002378 -0.015915 -0.0034213
0.11836 0.21135 -0.012339 -0.002839
-0.00031712 -0.001087 0.0012829 -0.00061101 0.00076156 -0.00021544 -0.00083527 0.0021199
-0.012287 -0.0028148 0.15373 0.2836
1520000000 0.28201 0.11382 -0.014793 0.010297 0.0035872 -0.0044901 0.00018618 0.0026791
0.0021727 -0.0019371 -0.0011978 -0.00017598
-0.014783 0.010282 0.14446 0.32422 0.0017079 0.013678 0.0016693 -0.00081933
-1.4852e-05 -0.0011377 0.00037664 -0.0010952
0.0035543 -0.0044862 0.0017898 0.013665 0.34882 -0.047388 -0.0011552 -0.00034394
0.00071826 -0.0008637 5.9059e-05 -0.00021617
0.00018942 0.002672 0.0016601 -0.00083094 -0.0011758 -0.00035225 0.22226 0.14073
-0.015355 0.0026489 0.0016985 0.0022535
0.0021659 -0.0019417 -2.8467e-05 -0.001143 0.00071812 -0.00087268 -0.015351 0.0027074
0.14682 0.19821 -0.01213 0.00186
-0.0012335 -0.00019593 0.00037068 -0.0010923 3.8754e-05 -0.00024355 0.0016827 0.0022217
-0.012181 0.0018203 0.18649 0.2632
1580000000 0.29238 0.067779 -0.0079994 0.013509 -0.00095752 -0.0052589 0.00156 0.0019139
-0.00017627 -0.0022124 -0.00028047 0.00049698
-0.0079868 0.0135 0.17226 0.29977 0.005647 0.0085811 0.00048996 -0.0015971
-0.00059192 -0.0010217 -0.00016174 -0.00092702
-0.00099094 -0.0052451 0.0057051 0.008563 0.32968 -0.10498 -0.0016904 0.00063855
-0.00034816 -0.0012364 0.00036436 -0.00064633
0.001577 0.0019329 0.00049616 -0.0016026 -0.0016644 0.00065952 0.23614 0.1011
-0.011776 0.0076873 0.0023921 0.00071298
-0.00018821 -0.0022111 -0.00060397 -0.0010202 -0.0003521 -0.001237 -0.011792 0.0077576
0.17158 0.18093 -0.0094091 0.0075744
-0.00023225 0.00046493 -0.00015375 -0.00092201 0.00034442 -0.00059843 0.0024015 0.00067908
-0.0093865 0.0075648 0.21801 0.23663
1640000000 0.29499 0.026305 -0.001266 0.012231 -0.0029851 -0.0028559 0.0027633 0.001021
-0.00079136 -0.0016485 -0.0003196 0.00067972
-0.0012996 0.012224 0.20238 0.27479 0.0063814 0.0034563 -0.00063509 -0.0017778
-0.0010202 -0.00039793 -0.00053709 -0.00070091
-0.0030065 -0.0028461 0.0064027 0.003427 0.30156 -0.15453 -0.00068488 0.001533
-0.001098 -0.00095698 -0.00022253 -0.00032318
0.0027834 0.0010338 -0.00062788 -0.0017682 -0.00070815 0.0015411 0.24863 0.051709
-0.00748 0.0092773 0.0026509 -0.00087878
-0.00079384 -0.0016433 -0.0010254 -0.00038346 -0.0010971 -0.00095235 -0.0074971 0.0093094
0.19534 0.15698 -0.0046246 0.0097067
-0.00035872 0.00070973 -0.00057333 -0.00068144 -0.00021146 -0.00035645 0.0026142 -0.00085235
-0.0046205 0.0097467 0.24394 0.20589
1700000000 0.28797 -0.019215 0.0020987 0.0093735 -0.003832 -4.5513e-05 0.0031731 -0.0012724
-0.0020129 -0.00071616 0.00061272 0.00043875
0.002088 0.0093703 0.22067 0.24335 0.0042246 0.00029288 -0.0014811 -0.00058587
-0.00079849 2.7631e-05 -0.00094503 -0.00052408
-0.0038438 -3.5525e-05 0.0042488 0.00025557 0.25833 -0.19444 0.00047951 0.0016622
-0.0020511 -7.669e-05 -0.00040611 -0.00089665
0.0031748 -0.0012596 -0.0015005 -0.00057481 0.00046967 0.0016513 0.245 0.0015805
-0.0044388 0.0098361 0.0015772 -0.0023339
-0.0020262 -0.00070055 -0.00081768 4.7382e-05 -0.0020585 -7.6396e-05 -0.0043757 0.0098494
0.21297 0.1368 6.9808e-05 0.0098686
0.0006204 0.00042779 -0.00094564 -0.00052627 -0.0004788 -0.00090211 0.0016297 -0.0023931
7.3647e-05 0.0098424 0.26021 0.17187
1760000000 0.27648 -0.067864 0.0044629 0.0060608 -0.002483 0.00098766 0.0012897 -0.0034664
-0.0014521 0.00067543 0.00034385 -0.00055328
0.0044436 0.0060489 0.24719 0.20361 0.0017642 -0.001737 -0.0012619 0.00016564
-0.0011021 0.00089156 -0.00067396 0.00041668
-0.0024836 0.0010163 0.001753 -0.0017284 0.21045 -0.22787 0.0010863 0.0010218
-0.0013537 0.0015314 -0.001345 -0.00062279
0.0012643 -0.003468 -0.0012255 0.00015599 0.0010986 0.0010235 0.23584 -0.049768
-0.00098267 0.0089048 -0.00013787 -0.0024863
-0.001459 0.00068653 -0.0010926 0.0009019 -0.0013419 0.0015352 -0.00098203 0.008988
0.2286 0.10214 0.0039973 0.0074613
0.00031728 -0.0005779 -0.00067351 0.00038946 -0.0012509 -0.00058581 -0.0001932 -0.0024303
0.0040511 0.0074668 0.2732 0.1347
1820000000 0.25207 -0.10532 0.0044629 0.0024833 -0.00030509 0.0025784 -0.0010494 -0.0031755
-0.001181 0.001008 -9.8734e-05 -0.00019842
0.0044604 0.002497 0.25746 0.17321 -0.00073498 -0.00051472 -0.0013217 0.00094569
-8.5468e-05 0.0012263 -0.00059634 0.00055909
-0.00028455 0.0025857 -0.00074527 -0.00050025 0.15939 -0.24397 0.0017128 0.00037819
-0.00010234 0.0024152 -0.0013008 0.00042361
-0.0010548 -0.0031579 -0.0013393 0.00095235 0.0016654 0.00035695 0.20547 -0.097195
0.00073987 0.0074825 -0.001674 -0.0016017
-0.0011702 0.0010162 -7.1149e-05 0.0012407 -9.0008e-05 0.0024042 0.00077907 0.0074604
0.2461 0.073087 0.0050891 0.0037533
-9.6695e-05 -0.0002144 -0.00060221 0.00056434 -0.0013602 0.00041962 -0.0017135 -0.0016497
0.0051077 0.0037566 0.2756 0.098286
1880000000 0.21712 -0.14586 0.0021973 0.00010518 -0.00067065 0.0022817 -0.0029822 -0.0023095
-0.00020263 0.0018233 -5.4968e-05 -0.00056542
0.0021944 0.00010258 0.26201 0.12672 -0.0027825 0.0015456 -0.00024464 0.0017539
0.00053945 0.0013225 2.5123e-05 0.00096868
-0.00064865 0.0022832 -0.0027991 0.0015619 0.10725 -0.25282 0.0017918 -0.00099783
0.0016589 0.0019244 -0.0010264 0.0013336
-0.0030054 -0.0023017 -0.00022741 0.001739 0.0018846 -0.0010292 0.16478 -0.13711
0.0016805 0.0051769 -0.0022914 0.00019206
-0.00017336 0.0018499 0.00052942 0.0013293 0.0016426 0.0019392 0.0016765 0.0052396
0.25029 0.041615 0.0054485 0.0012566
-8.3833e-05 -0.0006399 4.9015e-05 0.00095749 -0.00094728 0.0013627 -0.0022503 0.00013073
0.0054957 0.0013418 0.2761 0.064318
1940000000 0.1779 -0.17169 -0.00024362 -0.0014141 0.0013435 0.0023392 -0.0038673 0.00040103
0.0013253 0.0011093 -0.00051149 -0.00056442
-0.00025754 -0.0014284 0.26282 0.094677 -0.0016398 0.0041595 0.0010171 0.0013122
0.0019078 0.00052423 0.0010433 0.00039131
0.0013417 0.0022947 -0.0015956 0.0041847 0.062145 -0.24576 0.00047668 -0.0022162
0.0023979 0.00022992 0.00046974 0.00158
-0.00391 0.00043766 0.0010279 0.0012738 0.00041284 -0.002185 0.1122 -0.16767
0.00079186 0.0037477 -0.0016438 0.0013493
0.0013252 0.0010403 0.0019203 0.00051378 0.0024089 0.00023192 0.00082336 0.003737
0.25356 0.0030611 0.0041538 -0.0021954
-0.00053426 -0.00058548 0.0010554 0.00038145 0.00049917 0.0015049 -0.0016223 0.0014106
0.0041516 -0.0022631 0.26558 0.028065
2000000000 0.13127 -0.18626 -0.0041383 0.00071228 0.0026874 0.0016197 -0.0023715 0.004002
0.0012407 0.0004089 -0.0004767 0.00064725
-0.004154 0.00068542 0.2484 0.059089 -0.00097221 0.0060455 0.0015968 0.00056888
0.0014054 -0.0010467 0.0005824 0.00015612
0.0027424 0.001546 -0.00094216 0.0060835 0.018863 -0.23197 -0.0011674 -0.0013029
0.0021622 -0.001135 0.0017266 0.0015143
-0.0023359 0.0039421 0.00166 0.00055849 -0.0011372 -0.0013528 0.058462 -0.17716
-0.00063104 0.0034468 -0.00011246 0.0023182
0.0012672 0.00048954 0.0013781 -0.0010593 0.0021267 -0.0011248 -0.00067902 0.0034796
0.24855 -0.03014 0.00084387 -0.0031059
