!Keysight Technologies,M9804A,MY58100912,A.14.10.03
!Date: Thursday, April 27, 2023 10:28:33
!Correction: S11(C  6-Port  ) 
!S12(C  6-Port  ) 
!S13(C  6-Port  ) 
!S14(C  6-Port  ) 
!S15(C  6-Port  ) 
!S16(C  6-Port  ) 
!S21(C  6-Port  ) 
!S22(C  6-Port  ) 
!S23(C  6-Port  ) 
!S24(C  6-Port  ) 
!S25(C  6-Port  ) 
!S26(C  6-Port  ) 
!S31(C  6-Port  ) 
!S32(C  6-Port  ) 
!S33(C  6-Port  ) 
!S34(C  6-Port  ) 
!S35(C  6-Port  ) 
!S36(C  6-Port  ) 
!S41(C  6-Port  ) 
!S42(C  6-Port  ) 
!S43(C  6-Port  ) 
!S44(C  6-Port  ) 
!S45(C  6-Port  ) 
!S46(C  6-Port  ) 
!S51(C  6-Port  ) 
!S52(C  6-Port  ) 
!S53(C  6-Port  ) 
!S54(C  6-Port  ) 
!S55(C  6-Port  ) 
!S56(C  6-Port  ) 
!S61(C  6-Port  ) 
!S62(C  6-Port  ) 
!S63(C  6-Port  ) 
!S64(C  6-Port  ) 
!S65(C  6-Port  ) 
!S66(C  6-Port  ) 
!S6P File: Measurement: :
# Hz S  RI   R 50
500000000 -0.33437 -0.055117 -0.01109 -0.0018379 -0.0083499 0.013251 -0.0047083 0.012635
0.012461 0.0049505 -0.0048619 0.0080608
-0.010674 -0.0015831 -0.41666 -0.065122 0.0078474 -0.010441 0.00096144 0.011873
0.0082173 0.0029384 0.0010301 0.013767
-0.0083962 0.013155 0.0077538 -0.01033 -0.26782 0.1987 0.0062408 0.0033107
-0.00093439 0.0085725 0.00031292 0.011469
-0.0045148 0.012162 0.0009074 0.012033 0.0064086 0.00336 -0.33228 0.043587
-0.019044 -0.0051082 0.016099 0.025791
0.012752 0.0054095 0.0084298 0.0026703 -0.0012059 0.0085116 -0.019125 -0.0052153
-0.24585 -0.19815 -0.026775 0.0048352
-0.0045102 0.0081596 0.00083632 0.013638 0.00023156 0.011531 0.015712 0.025928
-0.026546 0.0047288 -0.27104 -0.12588
560000000 -0.31915 0.11163 -0.02359 -0.064385 7.9595e-05 0.013099 0.0046395 0.010845
0.011532 0.0045422 0.0095905 0.0088622
-0.023364 -0.064677 -0.37609 0.098238 -0.041737 -0.037403 0.013519 0.0034948
-0.013122 -0.0027701 0.0036201 -0.001041
0.0001289 0.013006 -0.041648 -0.037503 -0.18688 0.25093 0.00012447 -0.0045573
0.018231 0.0056689 0.0079363 -0.0057087
0.0048865 0.01115 0.013731 0.0033555 0.00011 -0.0044668 -0.30713 0.13403
0.0052527 -0.023223 0.0052572 -0.021666
0.01107 0.0045055 -0.012709 -0.0027618 0.018376 0.0056771 0.0052196 -0.02338
-0.31117 -0.019096 0.0081373 -0.047325
0.0093784 0.008514 0.0028689 -0.0012124 0.0080734 -0.0058436 0.0052074 -0.021715
0.0085995 -0.046853 -0.33251 0.021161
620000000 -0.27806 0.09212 -0.023151 0.0091344 0.0039325 0.0093186 0.0084676 -0.0044448
0.010994 -0.0012198 0.00061569 -0.0027969
-0.023154 0.0089074 -0.40375 0.047869 -0.018417 0.00099698 -0.0014707 -0.0016692
0.012022 -0.0065612 0.00085855 -0.003078
0.0039808 0.009321 -0.018405 0.0010801 -0.15605 0.25997 -0.00084354 -0.0051204
-0.0031033 -0.0027716 0.0090788 -0.0028116
0.0083218 -0.0042161 -0.0015343 -0.00174 -0.00087927 -0.0051916 -0.26572 0.14471
-0.038848 -0.017928 0.01353 0.027189
0.011237 -0.0015537 0.012159 -0.0066912 -0.0031632 -0.0027775 -0.038952 -0.017685
-0.23038 -0.054371 -0.041568 0.013618
0.00047236 -0.0027031 0.0011008 -0.002885 0.0089701 -0.0030483 0.013514 0.026422
-0.041704 0.014885 -0.25079 -0.01022
680000000 -0.23968 0.18324 -0.026038 -0.014376 0.0050638 0.005128 0.0015961 -0.0079437
-0.0020826 -0.011424 0.0059542 -0.0080334
-0.025882 -0.014353 -0.39018 0.14953 -0.032007 -0.0020087 -0.0011937 -0.00029738
-0.0015898 -0.0094697 -0.00097827 -0.0020193
0.0050061 0.0052398 -0.032028 -0.0019359 -0.10377 0.2806 -0.00079363 -0.00060264
-0.001462 0.00021545 -0.0027053 -0.0090176
0.0010896 -0.0077579 -0.0013769 -0.00049257 -0.00082421 -0.00072763 -0.22047 0.19719
-0.024056 -0.0071495 -0.0082708 -0.011367
-0.0021987 -0.011214 -0.0018097 -0.0094433 -0.0013733 1.4199e-05 -0.024064 -0.0071555
-0.27954 0.051184 -0.0065192 -0.0075387
0.0062154 -0.0078683 -0.0010554 -0.0019423 -0.0028668 -0.0091478 -0.0073422 -0.011826
-0.0075007 -0.0073842 -0.26059 0.092751
740000000 -0.19341 0.17632 -0.039569 0.027093 0.013917 -0.0050433 -0.00026958 -0.0042242
-0.0043401 -0.0031087 -0.0064307 0.0026144
-0.039725 0.026994 -0.33521 0.16794 -0.036626 0.034687 -0.00030478 -0.006193
-0.0118 0.0073464 -0.001996 -0.0065777
0.013936 -0.005174 -0.036673 0.034808 -0.069694 0.27751 -0.0018266 0.0031117
-0.0031761 -0.0054298 -0.0010545 0.00097188
-0.00013144 -0.0042492 -0.00036562 -0.0063376 -0.0019452 0.0030554 -0.20333 0.2041
-0.041774 -0.008538 0.022823 0.015675
-0.0046588 -0.0030669 -0.011223 0.0074518 -0.0031702 -0.0053249 -0.041825 -0.008583
-0.18107 0.077904 -0.041321 0.0020638
-0.0064074 0.0028617 -0.002176 -0.0065812 -0.0010642 0.00076303 0.022327 0.015846
-0.040981 0.0012784 -0.24811 0.098885
800000000 -0.16207 0.22031 -0.022059 0.016428 0.0057482 -0.010555 -0.0042524 -0.0022474
-0.00447 0.0021146 0.0042832 0.00043265
-0.021971 0.016446 -0.34123 0.23866 -0.0084878 0.033942 -0.0021821 0.0022143
-0.0011988 0.0025212 0.00075725 0.0053163
0.0057577 -0.010584 -0.0083614 0.034039 -0.031384 0.30155 0.00082343 0.0016287
5.5001e-05 0.0034281 -0.0016571 0.00086761
-0.0042259 -0.0022447 -0.0021652 0.002231 0.00091104 0.0015854 -0.17361 0.23198
-0.028409 0.013358 0.014605 -0.0097189
-0.0041113 0.0019824 -0.0011177 0.0026588 -7.4135e-06 0.0034367 -0.028537 0.013215
-0.22268 0.10608 -0.01824 0.01905
0.0044603 0.00043399 0.00084206 0.0053527 -0.0018173 0.00098838 0.01446 -0.0099525
-0.017797 0.019927 -0.24033 0.15049
860000000 -0.12757 0.24046 -0.017781 0.030314 -0.0028815 -0.010334 -0.0018458 0.00049722
0.0039537 0.0053201 -0.0036449 -0.0028785
-0.017778 0.030288 -0.29282 0.28131 0.0073697 0.034281 -1.1406e-05 0.0022626
0.0035128 0.00096957 0.0028594 -3.7572e-05
-0.0028932 -0.010393 0.0074497 0.034279 0.016144 0.3099 -0.00057068 2.0935e-05
0.0023136 -0.0013112 0.0015801 0.0042433
-0.0019693 0.00058307 -0.00011058 0.002209 -0.00066327 1.6845e-05 -0.13713 0.24291
-0.017906 0.018121 -0.0065879 -0.0087664
0.0039395 0.0051417 0.0034682 0.00095575 0.0023621 -0.0014099 -0.017917 0.01819
-0.16566 0.15954 -0.024261 0.015746
-0.0038881 -0.0030474 0.0027296 -0.00020619 0.0014031 0.0041558 -0.0064954 -0.0089423
-0.024708 0.015936 -0.19174 0.1932
920000000 -0.10433 0.26336 0.0045021 0.038216 -0.009222 -0.0050829 -0.002051 0.0016564
0.0010829 0.002386 0.0030774 -0.0013271
0.0044652 0.038149 -0.26587 0.30268 0.027906 0.022893 0.001259 0.0014047
0.0080022 0.00023313 0.0042562 -0.0027815
-0.009269 -0.0051033 0.028051 0.022839 0.06115 0.31127 0.0019578 0.00014558
0.0011072 5.047e-05 0.001117 -0.0013302
-0.0020876 0.0016713 0.0012817 0.0014128 0.0019975 9.726e-05 -0.11299 0.25897
-0.011427 0.030522 0.0037872 -0.0070347
0.0012103 0.0023479 0.0081761 0.00024275 0.0011199 5.3609e-05 -0.011174 0.030585
-0.15393 0.16484 -0.00053912 0.026755
0.003067 -0.0015434 0.0044756 -0.0026553 0.0011694 -0.0013233 0.0038642 -0.0069172
-0.0008494 0.026236 -0.19677 0.20555
980000000 -0.05794 0.28395 0.016644 0.030091 -0.0094997 0.0041999 0.0018037 0.0036476
0.0040581 -0.0017641 -0.0026423 -0.0026311
0.0166 0.030037 -0.21298 0.3373 0.033265 0.0055534 0.0021629 -0.0001034
0.0018934 -0.0062402 -8.0105e-05 -0.0026169
-0.009527 0.004188 0.033358 0.0054441 0.10686 0.3059 0.00072627 -0.0011243
0.0005949 -0.0019849 0.0015352 -0.0001622
0.0017946 0.0035986 0.0021572 -0.0001553 0.00072436 -0.0011194 -0.074443 0.26979
0.0073775 0.029521 -0.0092654 -0.0073704
0.0041408 -0.0016461 0.0017921 -0.0062844 0.00055974 -0.0020076 0.0075013 0.029558
-0.12185 0.19427 0.0054275 0.018912
-0.0028275 -0.0026338 -0.00015632 -0.0025882 0.0015445 -0.00018018 -0.0090741 -0.0073558
0.0055135 0.018915 -0.15585 0.25073
1040000000 -0.016447 0.29262 0.032754 0.019108 -0.0016846 0.0069974 0.0026736 0.00073162
0.0001861 -0.0033795 -0.00012083 -0.0018521
0.032776 0.019053 -0.17812 0.3508 0.030103 -0.014415 0.0016896 -0.0017717
-0.0021503 -0.0027408 -0.00086221 -0.0029585
-0.0016387 0.0069619 0.030102 -0.014532 0.15281 0.29306 -0.00037211 -0.0016964
-0.0016478 -0.00098621 -0.00055085 -0.0010756
0.0026723 0.00071591 0.0017352 -0.0016859 -0.00038908 -0.0016869 -0.047503 0.27934
0.019135 0.018888 -0.0025736 0.00090597
2.2593e-05 -0.0034837 -0.0023508 -0.0027242 -0.0016487 -0.0010142 0.019193 0.018894
-0.088374 0.20092 0.013909 0.018194
-8.6073e-05 -0.0017191 -0.00088987 -0.0028152 -0.00055563 -0.0010564 -0.002498 0.00089244
0.014054 0.018291 -0.13273 0.27087
1100000000 0.028101 0.30221 0.036354 -0.0033764 0.0027291 0.0041983 0.00249 -0.0009308
-0.0021352 -0.0031746 -0.0038737 0.00015288
0.036384 -0.003362 -0.13534 0.36907 0.016048 -0.027923 0.0001371 -0.0018468
-0.0037836 -0.0010339 -0.0034411 -0.00045089
0.0027199 0.0041712 0.015969 -0.028019 0.19885 0.27401 -0.0019023 2.5473e-05
-0.0018635 0.00041146 -0.0011107 -0.00045538
0.0023846 -0.00086169 7.308e-05 -0.0018317 -0.0019162 -1.106e-06 -0.007677 0.28466
0.024683 0.0055516 -0.0026992 0.00018115
-0.0020959 -0.0031742 -0.0038268 -0.0010333 -0.0018238 0.00040744 0.024688 0.0054754
-0.068302 0.21434 0.019236 0.0086445
-0.0039771 0.00018219 -0.0035273 -0.00038341 -0.0011122 -0.00048996 -0.0026466 0.0001864
0.01929 0.0087885 -0.086772 0.30087
1160000000 0.079077 0.29854 0.024515 -0.020432 0.0027159 -0.00037661 -5.8709e-05 -0.0023611
-0.0039996 -0.00090194 -0.00098986 0.0042239
0.024537 -0.020391 -0.092123 0.37393 -0.0031378 -0.029644 -0.0016886 -0.0017839
-0.002957 0.0025948 -0.001417 0.0020186
0.0027187 -0.00040143 -0.0032374 -0.029656 0.24225 0.24404 -0.00091378 0.0017919
-0.00065105 0.0020923 -0.00076975 0.00037193
-6.8986e-05 -0.00245 -0.0016288 -0.0017502 -0.00088484 0.0018101 0.031492 0.2822
0.021269 -0.010058 -0.003327 0.0050389
-0.0039558 -0.00090293 -0.0029295 0.0026165 -0.00068633 0.0021022 0.021257 -0.010113
-0.033668 0.22148 0.01851 -0.0003443
-0.00085002 0.0042539 -0.0014614 0.0019808 -0.00082634 0.00041055 -0.0033146 0.0051759
0.018418 -0.00043447 -0.03947 0.30293
1220000000 0.12302 0.28889 0.01111 -0.030157 -0.0016577 -0.00081238 0.00014345 -0.00096507
-0.0027056 0.002144 0.0010744 0.0019616
0.01112 -0.030113 -0.048127 0.38723 -0.016935 -0.02207 -0.0026994 0.00044409
3.8731e-06 0.0032642 -0.00082063 0.0019951
-0.0016378 -0.00081874 -0.017048 -0.022 0.2815 0.20568 0.00071867 0.0018201
0.00062283 0.0013556 0.00036184 0.00057664
0.00014265 -0.00095051 -0.0026744 0.00043411 0.00065718 0.0018587 0.071524 0.27413
0.01104 -0.016937 0.0021367 0.0013694
-0.00272 0.0021773 1.7722e-05 0.0032427 0.00060278 0.0013369 0.011034 -0.016933
-0.010347 0.23036 0.013865 -0.01316
0.0011534 0.0019832 -0.0008084 0.0019904 0.00039939 0.00059716 0.002126 0.0013985
0.013907 -0.013213 -0.0086487 0.3177
1280000000 0.17346 0.26873 -0.0077133 -0.028888 -0.0020809 0.0025992 -0.00087596 -0.0021849
-0.00081207 0.0032312 0.0025467 0.0013556
-0.0076913 -0.028848 -0.0021438 0.37949 -0.024332 -0.0091306 -0.0010269 0.0014431
0.0018435 0.0018001 0.00062376 0.0020675
-0.0020485 0.0026257 -0.024416 -0.0090395 0.31237 0.16252 0.00168 0.0001027
0.0012497 0.00024969 0.00042602 0.00023985
-0.00079959 -0.0021803 -0.0010306 0.0014709 0.0016899 6.8777e-05 0.10861 0.25837
0.001197 -0.019343 -7.4651e-05 0.00040453
-0.00078172 0.0032035 0.0018334 0.0018714 0.0012744 0.00025624 0.0011699 -0.019348
0.025946 0.23354 0.002628 -0.015273
0.0026047 0.0013207 0.00069232 0.0020759 0.00046305 0.00020076 -6.7966e-05 0.00033271
0.0027043 -0.015306 0.038367 0.32009
1340000000 0.2111 0.23605 -0.017569 -0.019227 0.00086121 0.0048826 -0.0018808 -0.00090156
0.0014005 0.002695 0.0018491 -0.0013489
-0.017539 -0.019218 0.037623 0.37212 -0.022259 0.0040432 -0.00013016 0.0021218
0.0020898 0.00076813 0.0012673 0.00074736
0.00086033 0.004857 -0.022254 0.0041729 0.33457 0.11534 0.0012111 -0.00089348
0.00062606 -0.00063617 7.9111e-05 0.00020529
-0.001893 -0.00087746 -0.00011809 0.0020823 0.001229 -0.00089493 0.14206 0.23769
-0.0082913 -0.016991 0.0006206 0.00057437
0.0013896 0.0026972 0.0021183 0.0007387 0.0006343 -0.0006301 -0.0083341 -0.016977
0.056128 0.22915 -0.0040364 -0.014182
0.0018953 -0.0014021 0.0012359 0.00078149 3.8465e-05 0.00028343 0.00072116 0.00065512
-0.0040552 -0.01419 0.076212 0.31474
1400000000 0.24506 0.19908 -0.023556 -0.0075969 0.005562 0.0035042 -0.0022813 0.00064362
0.0024319 0.00098365 0.00034257 -0.0016266
-0.023541 -0.0075875 0.075329 0.36007 -0.015518 0.01271 0.0013898 0.00132
0.0012949 -0.00090194 0.0011593 0.0001437
0.0055473 0.0035001 -0.015498 0.012803 0.3482 0.062573 0.00010439 -0.0017277
0.00011535 -0.00045432 0.00022558 0.00019169
-0.002284 0.00068705 0.0014032 0.0013395 0.00011046 -0.0016936 0.17187 0.20891
-0.014462 -0.010051 -0.00079685 -0.00012197
0.0024239 0.00097593 0.0013072 -0.00095594 9.8619e-05 -0.00046815 -0.01449 -0.010036
0.088846 0.22516 -0.010454 -0.008758
0.0003099 -0.0016312 0.0011739 0.00012399 0.00027098 0.00016505 -0.00083493 -0.00016094
-0.01037 -0.008786 0.12043 0.30409
1460000000 0.26891 0.15551 -0.020456 0.0047842 0.006116 -0.0017333 -0.0015952 0.0018297
0.0021559 -0.00045546 -0.00039879 -0.0010835
-0.020418 0.0047688 0.11036 0.33863 -0.0063289 0.016013 0.0017526 0.00015619
0.00084224 -0.0014316 0.0012586 -0.00063415
0.0061243 -0.0017813 -0.0062708 0.016091 0.35505 0.0087463 -0.0012452 -0.0013732
0.00014637 -0.00021817 0.00068811 -0.00019024
-0.0015582 0.0018371 0.0017505 0.00014817 -0.0012368 -0.0014144 0.19887 0.17951
-0.015936 -0.0034179 -0.00083516 0.0020644
0.0021641 -0.00047731 0.00082883 -0.0014393 0.00014217 -0.00021353 -0.015945 -0.0034241
0.11857 0.21135 -0.012179 -0.0028899
-0.00041921 -0.0010424 0.0012479 -0.00065971 0.00070191 -0.00022327 -0.00083418 0.0020919
-0.012197 -0.0028873 0.1538 0.28367
1520000000 0.28188 0.11399 -0.014755 0.010283 0.0035983 -0.0044554 0.00016588 0.0026333
0.0021511 -0.0019138 -0.0012355 -0.00022198
-0.014746 0.010271 0.14432 0.32425 0.0016963 0.013698 0.0016714 -0.00081757
-2.3724e-05 -0.0011121 0.0003141 -0.0010745
0.0036017 -0.0044587 0.0017715 0.013699 0.34874 -0.04719 -0.0011811 -0.00034553
0.00063951 -0.00085001 7.6984e-06 -0.00021875
0.00019246 0.0026567 0.0016763 -0.00082289 -0.001148 -0.00034107 0.22223 0.14077
-0.015334 0.0026012 0.0015882 0.0021498
0.0021336 -0.0019611 -3.9592e-05 -0.0011231 0.00061737 -0.00090033 -0.015357 0.0026203
0.14686 0.19812 -0.012066 0.0018676
-0.0012273 -0.00015548 0.0003045 -0.0010591 4.112e-05 -0.00016814 0.0016316 0.0021332
-0.012037 0.0018563 0.18656 0.26317
1580000000 0.29233 0.068038 -0.0079573 0.01347 -0.00096557 -0.0053114 0.0015393 0.0019235
-0.00017403 -0.0022483 -0.00025411 0.00038959
-0.0079668 0.013459 0.17217 0.29979 0.0056896 0.0085658 0.00048174 -0.0015953
-0.00060065 -0.0009967 -0.00015161 -0.00091452
-0.00098813 -0.0052716 0.0057275 0.008537 0.32979 -0.10475 -0.0017176 0.00060576
-0.00034808 -0.0012679 0.00025378 -0.00061944
0.0015588 0.0019233 0.00046447 -0.0016026 -0.0017391 0.00063372 0.23621 0.10115
-0.011858 0.0076617 0.00236 0.00074387
-0.00019683 -0.002244 -0.0006026 -0.00099037 -0.00033027 -0.0012397 -0.011854 0.0076909
0.17161 0.18083 -0.0094003 0.007484
-0.00026994 0.00040665 -0.00017572 -0.00092256 0.00023296 -0.00067402 0.0023641 0.00076961
-0.0094373 0.0074141 0.2181 0.23682
1640000000 0.29495 0.026503 -0.0012879 0.012192 -0.0029804 -0.0029057 0.0027695 0.001052
-0.00079383 -0.0016202 -0.00034173 0.00068098
-0.0012904 0.0122 0.20222 0.27486 0.0064142 0.0034608 -0.00063779 -0.0017633
-0.0010106 -0.00037155 -0.00056034 -0.00072496
-0.0030009 -0.0028828 0.006453 0.0033993 0.30158 -0.15437 -0.00069191 0.0015507
-0.0010806 -0.00093481 -0.00016316 -0.00037247
0.0027616 0.0010491 -0.0006641 -0.0017576 -0.00070735 0.0015296 0.24868 0.051817
-0.007485 0.0092907 0.0026004 -0.00089054
-0.00080786 -0.0015913 -0.0010413 -0.00036595 -0.0010668 -0.00095499 -0.0074723 0.0093146
0.19528 0.15702 -0.0045588 0.009685
-0.00029662 0.00062492 -0.00055715 -0.00071184 -0.00019931 -0.00038273 0.0026327 -0.00088997
-0.0045248 0.0096891 0.24413 0.20592
1700000000 0.28797 -0.018997 0.0020833 0.0093564 -0.0039007 2.2159e-05 0.0031317 -0.0012406
-0.0020413 -0.00075361 0.00063245 0.00040531
0.0020767 0.0093505 0.22058 0.24344 0.0042154 0.00030573 -0.0014905 -0.00058072
-0.00079835 -8.0294e-06 -0.00099212 -0.00050114
-0.0039064 4.0624e-05 0.0042484 0.0002982 0.25848 -0.1943 0.00044335 0.0016915
-0.0020604 -9.8099e-05 -0.00057815 -0.00085412
0.0031684 -0.0012324 -0.0014767 -0.00058556 0.00043456 0.0016779 0.24501 0.0016735
-0.004472 0.0098312 0.001556 -0.0022777
-0.0019858 -0.00072318 -0.0007925 1.3985e-05 -0.0021088 -7.6639e-05 -0.0044485 0.0098463
0.213 0.13672 -1.9251e-05 0.0098016
0.00065568 0.0004264 -0.00098882 -0.00047592 -0.00054558 -0.00080063 0.0015301 -0.0022755
3.0827e-05 0.0098429 0.2602 0.17188
1760000000 0.27657 -0.06762 0.0044198 0.0060733 -0.0025728 0.001014 0.0013135 -0.0034706
-0.0014481 0.00070545 0.00036112 -0.00058789
0.0044084 0.0060624 0.24705 0.2037 0.0017544 -0.0017284 -0.0012426 0.00016745
-0.0010993 0.00090547 -0.00065745 0.00035212
-0.002558 0.001022 0.0017322 -0.0017275 0.21064 -0.22768 0.0011569 0.0010255
-0.0013167 0.0015027 -0.0013072 -0.00066513
0.0012787 -0.0034314 -0.0012718 0.0001871 0.0011108 0.0010598 0.23576 -0.049843
-0.00095957 0.0089656 -0.00021774 -0.0025306
-0.0014729 0.00066273 -0.0011299 0.00090252 -0.0013226 0.0014917 -0.00093956 0.0089459
0.22858 0.10215 0.0040401 0.0072557
0.00028893 -0.00053231 -0.00068791 0.00037635 -0.0013655 -0.00065639 -0.00017738 -0.0025327
0.0040322 0.0072803 0.27344 0.13442
1820000000 0.25212 -0.10509 0.0044531 0.0024669 -0.00021445 0.002587 -0.00099954 -0.0031204
-0.0011786 0.0010188 -0.0001145 -6.9435e-05
0.0044572 0.0024619 0.25733 0.17334 -0.00074898 -0.00045103 -0.0013598 0.00096405
-9.4105e-05 0.0012707 -0.0006592 0.00056072
-0.00024149 0.0026075 -0.00073795 -0.00045667 0.15938 -0.24378 0.0016733 0.00043821
-8.3442e-05 0.0025403 -0.0014817 0.00039732
-0.0010398 -0.0031335 -0.0013451 0.00093624 0.0017171 0.00039613 0.20549 -0.097166
0.00080471 0.0075161 -0.0016655 -0.0015518
-0.0011565 0.0010005 -7.9144e-05 0.0012617 -3.8831e-05 0.0025075 0.00082388 0.0075169
0.24621 0.07323 0.0050663 0.0037979
-8.5626e-05 -0.00017259 -0.00062681 0.00057424 -0.0014157 0.00046244 -0.0016122 -0.0015572
0.0050937 0.0037708 0.27581 0.098133
1880000000 0.21719 -0.14568 0.0021953 0.00012615 -0.00063427 0.0023257 -0.0029283 -0.0022917
-0.00021292 0.0019653 -1.0983e-06 -0.0005327
0.0022041 0.00012426 0.26194 0.12682 -0.0028368 0.0015094 -0.00019436 0.001723
0.00052708 0.0013462 8.8948e-05 0.00099344
-0.00057236 0.002359 -0.0028532 0.0015301 0.10735 -0.25294 0.0018074 -0.0010391
0.0016649 0.001908 -0.00096279 0.0013676
-0.0029853 -0.0022418 -0.00019996 0.001732 0.0018103 -0.0010315 0.16466 -0.13712
0.0016066 0.0051565 -0.0023222 0.00017711
-0.00022029 0.0018958 0.00052252 0.0013528 0.0016096 0.0019525 0.0015858 0.0051841
0.25035 0.041569 0.0053382 0.0011899
-7.5903e-05 -0.00058062 0.00010138 0.00095616 -0.0010253 0.0012808 -0.0023861 0.00021047
0.0053559 0.0011742 0.27589 0.064226
1940000000 0.17789 -0.17157 -0.00030604 -0.0014477 0.0014031 0.0023222 -0.0039055 0.00046209
0.0012912 0.0011374 -0.00060947 -0.00056504
-0.00027363 -0.0014251 0.26271 0.094796 -0.0015702 0.0041927 0.00094753 0.0013315
0.0018725 0.00057329 0.001068 0.00039271
0.0014483 0.0022884 -0.0015349 0.0041861 0.062435 -0.2456 0.00050185 -0.0022639
0.0024827 0.00033976 0.00064757 0.0015391
-0.0038793 0.00044785 0.0010091 0.0013909 0.00055014 -0.0022741 0.11215 -0.16763
0.0008196 0.0037487 -0.0017668 0.0014513
0.0013172 0.0011064 0.0018627 0.00057046 0.0024749 0.00035178 0.00084086 0.0036842
0.25363 0.0031336 0.0040194 -0.0021956
-0.00057454 -0.0005266 0.0010366 0.00043224 0.00053133 0.0016822 -0.0015815 0.0013473
0.003975 -0.0021831 0.26575 0.027931
2000000000 0.13142 -0.18615 -0.0042021 0.00076869 0.002672 0.0016225 -0.0024236 0.0038053
0.0012552 0.00038901 -0.00041467 0.00062465
-0.004153 0.00072072 0.24835 0.059204 -0.001071 0.0060563 0.001637 0.00053945
0.0014232 -0.001108 0.00052998 0.00020793
0.0027816 0.0016376 -0.0010112 0.0060681 0.018872 -0.23207 -0.0011985 -0.0013043
0.0020377 -0.0011161 0.0016273 0.0015885
-0.0024036 0.0038302 0.0015654 0.00050817 -0.0012243 -0.0012974 0.058482 -0.17717
-0.000755 0.0035136 -0.00015593 0.0024565
0.0012601 0.00035972 0.0014222 -0.0011455 0.0020686 -0.0011421 -0.00067231 0.0034738
0.24864 -0.030264 0.00044895 -0.0031261
