!Keysight Technologies,M9804A,MY58100912,A.14.10.03
!Date: Thursday, April 27, 2023 10:28:33
!Correction: S11(C  6-Port  ) 
!S12(C  6-Port  ) 
!S13(C  6-Port  ) 
!S14(C  6-Port  ) 
!S15(C  6-Port  ) 
!S16(C  6-Port  ) 
!S21(C  6-Port  ) 
!S22(C  6-Port  ) 
!S23(C  6-Port  ) 
!S24(C  6-Port  ) 
!S25(C  6-Port  ) 
!S26(C  6-Port  ) 
!S31(C  6-Port  ) 
!S32(C  6-Port  ) 
!S33(C  6-Port  ) 
!S34(C  6-Port  ) 
!S35(C  6-Port  ) 
!S36(C  6-Port  ) 
!S41(C  6-Port  ) 
!S42(C  6-Port  ) 
!S43(C  6-Port  ) 
!S44(C  6-Port  ) 
!S45(C  6-Port  ) 
!S46(C  6-Port  ) 
!S51(C  6-Port  ) 
!S52(C  6-Port  ) 
!S53(C  6-Port  ) 
!S54(C  6-Port  ) 
!S55(C  6-Port  ) 
!S56(C  6-Port  ) 
!S61(C  6-Port  ) 
!S62(C  6-Port  ) 
!S63(C  6-Port  ) 
!S64(C  6-Port  ) 
!S65(C  6-Port  ) 
!S66(C  6-Port  ) 
!S6P File: Measurement: :
# Hz S  RI   R 50
500000000 -0.33456 -0.055426 -0.010703 -0.0016764 -0.0084694 0.013317 -0.0053737 0.012253
0.013707 0.0048769 -0.0048949 0.008759
-0.010585 -0.0015023 -0.41644 -0.064952 0.0079676 -0.010329 0.00093049 0.011624
0.0081355 0.0029173 0.00096055 0.013573
-0.0083524 0.013321 0.0079005 -0.010359 -0.26761 0.19863 0.0063972 0.0030449
-0.0012523 0.0087643 0.00012919 0.011234
-0.0040825 0.012752 0.000979 0.012141 0.0063884 0.0037081 -0.33187 0.043537
-0.01911 -0.0055227 0.016297 0.026523
0.012657 0.0046906 0.0081343 0.002755 -0.0013325 0.0086503 -0.019156 -0.0052125
-0.24619 -0.19756 -0.027036 0.004349
-0.0039891 0.0088297 0.0011623 0.01382 0.00012405 0.012036 0.015995 0.026018
-0.026509 0.0048479 -0.27096 -0.12425
560000000 -0.31821 0.11144 -0.023731 -0.06417 -0.00019855 0.012932 0.0044078 0.011021
0.011516 0.0049516 0.0095831 0.0086501
-0.023505 -0.064198 -0.37552 0.098409 -0.042679 -0.038222 0.013218 0.0034347
-0.013231 -0.0028147 0.0037644 -0.0015012
-4.3891e-06 0.013281 -0.042274 -0.037569 -0.18566 0.25098 9.9762e-05 -0.0046402
0.01859 0.0058434 0.0085234 -0.0056105
0.0046718 0.011163 0.014136 0.0032932 -0.00066784 -0.0045963 -0.30681 0.13415
0.0052832 -0.023354 0.005067 -0.02138
0.011415 0.0047391 -0.013457 -0.0033764 0.018454 0.0058097 0.0050318 -0.023955
-0.31066 -0.019301 0.0085546 -0.046536
0.0094863 0.0091037 0.0039617 -0.00078043 0.0075906 -0.0061775 0.0050691 -0.021102
0.0084513 -0.0471 -0.33305 0.02165
620000000 -0.27815 0.091893 -0.023194 0.0090634 0.0038635 0.0094617 0.0085178 -0.0046209
0.01072 -0.0012883 0.00088602 -0.0027715
-0.023349 0.0090773 -0.40369 0.04786 -0.01843 0.0010133 -0.0016241 -0.0017802
0.012139 -0.0066217 0.00077541 -0.0030572
0.0040201 0.0091917 -0.018489 0.0010528 -0.156 0.25996 -0.00079384 -0.0051666
-0.0033896 -0.0028816 0.0090748 -0.0030509
0.0084833 -0.0044441 -0.0015563 -0.0017151 -0.00063961 -0.0054658 -0.26507 0.14557
-0.03973 -0.018707 0.013665 0.026886
0.010689 -0.0016026 0.012143 -0.0064005 -0.0035757 -0.0025725 -0.039759 -0.019027
-0.2297 -0.053096 -0.04217 0.014214
0.00085928 -0.0024044 0.0008835 -0.0030057 0.0093752 -0.0030055 0.013396 0.027525
-0.042708 0.01388 -0.2505 -0.010323
680000000 -0.23979 0.18334 -0.026087 -0.014334 0.0050766 0.005193 0.0015915 -0.0076626
-0.0018821 -0.011049 0.0066365 -0.0073276
-0.026319 -0.014229 -0.39008 0.14952 -0.031958 -0.0019678 -0.0012922 -0.00044914
-0.0017608 -0.0093811 -0.0011985 -0.0019917
0.0049386 0.005057 -0.032039 -0.0019543 -0.10374 0.28069 -0.00086409 -0.00046418
-0.0016638 4.8783e-05 -0.002917 -0.0092764
0.0017483 -0.0081588 -0.0014117 -0.00060792 -0.0008188 -0.00055015 -0.22058 0.19736
-0.023618 -0.0077346 -0.0081914 -0.011943
-0.0023449 -0.011042 -0.0018649 -0.0095074 -0.0015792 -1.3234e-05 -0.023481 -0.0075367
-0.27991 0.051505 -0.0070809 -0.0073336
0.0066883 -0.007589 -0.00084412 -0.001973 -0.0027684 -0.0088692 -0.008196 -0.01179
-0.006297 -0.0077907 -0.25892 0.092697
740000000 -0.19328 0.17668 -0.039845 0.026978 0.013855 -0.0050076 -0.00019611 -0.0044658
-0.0046876 -0.0029468 -0.0066435 0.0029987
-0.039769 0.027055 -0.33518 0.16813 -0.037081 0.034749 -0.00029261 -0.0063316
-0.011665 0.0073613 -0.0017429 -0.0061186
0.013744 -0.0050135 -0.036786 0.034958 -0.069596 0.27738 -0.0018659 0.0033691
-0.0031479 -0.005395 -0.0011098 0.00089629
0.00013741 -0.0040566 -0.00032434 -0.0061778 -0.0021409 0.0033128 -0.20299 0.20399
-0.042174 -0.0080138 0.022331 0.015634
-0.0048015 -0.0036503 -0.011664 0.0077017 -0.0032919 -0.0054381 -0.042047 -0.0079975
-0.18198 0.077421 -0.041077 0.0016676
-0.0061475 0.0031688 -0.0019858 -0.0063704 -0.0015602 0.001043 0.022671 0.015609
-0.041353 0.002197 -0.2486 0.099349
800000000 -0.16215 0.22056 -0.022148 0.016367 0.005762 -0.010605 -0.0043698 -0.0023208
-0.0044674 0.0018073 0.0042258 0.00036243
-0.022108 0.016361 -0.34133 0.23855 -0.0084857 0.03389 -0.0022543 0.0020516
-0.0011838 0.0025803 0.00069267 0.0052882
0.0057525 -0.010595 -0.0084007 0.033994 -0.031425 0.30147 0.00084958 0.0014533
-5.7818e-05 0.0034344 -0.0019126 0.00094476
-0.0042866 -0.0024287 -0.0021256 0.00214 0.00086135 0.0014577 -0.17348 0.23191
-0.028703 0.013038 0.014477 -0.010242
-0.0043593 0.0020691 -0.0010769 0.0026404 3.2458e-05 0.0035077 -0.028966 0.013171
-0.22222 0.10618 -0.017235 0.020183
0.0044692 0.00040037 0.00076241 0.0053553 -0.0016715 0.00073487 0.014631 -0.0097257
-0.017642 0.019077 -0.24031 0.149
860000000 -0.12759 0.24051 -0.017742 0.03036 -0.0028468 -0.010466 -0.0019324 0.00063748
0.0039832 0.0052263 -0.0038109 -0.0032227
-0.017785 0.030278 -0.29292 0.28128 0.007283 0.034265 -8.4021e-05 0.0022547
0.0034663 0.00078579 0.0028434 0.00010665
-0.0028202 -0.010352 0.0074349 0.034361 0.016102 0.30984 -0.00062993 -1.7487e-05
0.0022838 -0.0014822 0.0014164 0.004092
-0.001861 0.00056775 -7.6798e-05 0.0022588 -0.00058642 -0.00013553 -0.13716 0.24273
-0.017786 0.017972 -0.0063541 -0.0090703
0.0038152 0.005006 0.0034569 0.00098252 0.0022729 -0.0013813 -0.018003 0.017991
-0.16571 0.15975 -0.024639 0.015871
-0.0034564 -0.0029451 0.003036 -5.1187e-05 0.0016187 0.0043859 -0.006629 -0.0088598
-0.024272 0.01607 -0.19073 0.19347
920000000 -0.10442 0.26334 0.0046204 0.038196 -0.0092414 -0.0050761 -0.0019957 0.0017189
0.0010427 0.0023735 0.0032354 -0.0014232
0.0044506 0.038096 -0.26591 0.30264 0.027936 0.022959 0.0012492 0.0014762
0.0082148 0.00018856 0.0044506 -0.0026535
-0.0092424 -0.0050672 0.028021 0.022854 0.061139 0.31131 0.0019788 7.0213e-05
0.0011059 2.6289e-05 0.0011845 -0.0013732
-0.0020915 0.0016768 0.0012708 0.0013726 0.0019345 7.2999e-05 -0.113 0.25907
-0.01109 0.030643 0.0040146 -0.0067693
0.0012214 0.0023554 0.0082222 0.00013208 0.0010665 -2.76e-05 -0.011122 0.030702
-0.15498 0.16514 -0.0010442 0.026415
0.0029947 -0.001369 0.0045164 -0.0028764 0.0011544 -0.0013187 0.0039358 -0.0069442
-0.0007192 0.026852 -0.19672 0.20612
980000000 -0.057813 0.28399 0.016709 0.030062 -0.0094762 0.0041521 0.0017665 0.0036839
0.0040365 -0.0015915 -0.0026419 -0.0024361
0.01666 0.030018 -0.21295 0.3373 0.033264 0.0055716 0.002061 -0.00015673
0.0017965 -0.0062454 -0.00013374 -0.0025303
-0.0094922 0.004197 0.033341 0.0054549 0.10688 0.30589 0.00074526 -0.0011046
0.00059372 -0.0020529 0.0014942 -0.0001641
0.0018082 0.0036257 0.0021193 -0.00011155 0.00072704 -0.0011182 -0.074524 0.2699
0.0074461 0.029406 -0.0091823 -0.0074112
0.0041995 -0.0016419 0.001937 -0.0062861 0.00061343 -0.0020696 0.0074914 0.029457
-0.1216 0.19382 0.0056705 0.018873
-0.0026243 -0.0026304 -0.00016212 -0.0026122 0.0015021 -0.0001473 -0.0091905 -0.0074556
0.005347 0.018832 -0.15602 0.25088
1040000000 -0.016468 0.29277 0.032784 0.019022 -0.0016738 0.0069538 0.0027222 0.0007232
9.1096e-05 -0.0033292 -0.00020521 -0.001781
0.032687 0.019085 -0.1781 0.35083 0.030072 -0.014402 0.0017081 -0.0017489
-0.0022756 -0.0026607 -0.00095965 -0.0029517
-0.0016663 0.0070005 0.030102 -0.014539 0.15279 0.29304 -0.00038107 -0.0016702
-0.001721 -0.0010332 -0.00054819 -0.0010956
0.0026985 0.00075649 0.0017745 -0.001724 -0.00037544 -0.0016819 -0.0475 0.27933
0.018983 0.018834 -0.0026367 0.00088877
0.00031115 -0.003616 -0.0023333 -0.0026312 -0.0017132 -0.00096708 0.019041 0.018796
-0.088077 0.20079 0.013988 0.017953
-0.00033252 -0.0016788 -0.00088862 -0.0028136 -0.00052289 -0.0010464 -0.0026482 0.00087977
0.013851 0.017878 -0.13302 0.27102
1100000000 0.028071 0.3022 0.036376 -0.0033806 0.0027219 0.0042129 0.0024594 -0.0009162
-0.00219 -0.0031735 -0.0039034 0.00010293
0.036314 -0.0033066 -0.13535 0.36912 0.01605 -0.027916 0.00011956 -0.001875
-0.0038231 -0.0010522 -0.0034967 -0.00041316
0.0027529 0.0041647 0.015987 -0.028022 0.19881 0.27401 -0.0019221 3.8587e-05
-0.001813 0.00040272 -0.0011251 -0.00047009
0.0024021 -0.00094885 0.00012048 -0.0018493 -0.0019611 1.1209e-05 -0.0077111 0.28471
0.024755 0.0055014 -0.0026145 0.00012369
-0.0021059 -0.0030646 -0.0038634 -0.00098206 -0.001861 0.00047198 0.024694 0.0054178
-0.068389 0.21439 0.019393 0.0087507
-0.0038048 0.00013512 -0.0034743 -0.00044865 -0.0010641 -0.00043803 -0.0026296 0.00026351
0.019387 0.0086684 -0.086805 0.30068
1160000000 0.079055 0.29854 0.024562 -0.020445 0.002727 -0.00036912 -9.1979e-05 -0.002376
-0.0039951 -0.00090426 -0.00091447 0.0042708
0.024523 -0.020404 -0.092112 0.37394 -0.003132 -0.029614 -0.0016533 -0.0017798
-0.0029518 0.0025955 -0.0014253 0.0019795
0.0027246 -0.00038936 -0.0032607 -0.029654 0.24225 0.24405 -0.0008582 0.0017908
-0.00069418 0.0020967 -0.00076963 0.00042277
-4.6134e-05 -0.0023504 -0.0016558 -0.0017501 -0.00090674 0.0017957 0.031466 0.2822
0.021291 -0.010095 -0.0031932 0.0050595
-0.0039322 -0.00085901 -0.0029438 0.0026182 -0.00070808 0.0020739 0.021288 -0.010082
-0.033712 0.22157 0.018411 -0.00029594
-0.0010594 0.0042355 -0.0014276 0.0019814 -0.00082571 0.00042957 -0.0032708 0.0051068
0.018367 -0.00039587 -0.039502 0.30317
1220000000 0.12299 0.28887 0.011115 -0.030169 -0.0016208 -0.00081906 0.00013608 -0.00094271
-0.0027255 0.002149 0.0010234 0.0020005
0.011133 -0.030134 -0.048177 0.38724 -0.016925 -0.022054 -0.0027123 0.00042729
-1.9253e-05 0.0032279 -0.00084221 0.0019717
-0.0016501 -0.00081477 -0.017042 -0.022002 0.28144 0.20564 0.00066506 0.0018687
0.00062181 0.0013593 0.00040097 0.00055858
0.00013296 -0.00096356 -0.0026736 0.00048581 0.00065067 0.0018915 0.071618 0.27413
0.011078 -0.016895 0.0020724 0.0014075
-0.0027742 0.0021911 3.8311e-06 0.0032473 0.00060422 0.001349 0.011074 -0.016891
-0.010474 0.2304 0.013842 -0.013157
0.0010366 0.0020508 -0.00084408 0.0019979 0.00032825 0.0006086 0.0021932 0.0013351
0.01387 -0.0132 -0.0086788 0.31771
1280000000 0.17348 0.26878 -0.007716 -0.02888 -0.0020336 0.0026349 -0.00084654 -0.0021916
-0.0008107 0.0032348 0.0025797 0.0013412
-0.0076782 -0.028847 -0.0021701 0.37946 -0.024348 -0.0091339 -0.0010293 0.0014712
0.0018301 0.0018218 0.00066864 0.0020746
-0.0020451 0.0026288 -0.024406 -0.0090355 0.31232 0.16245 0.001684 8.4202e-05
0.0012494 0.000274 0.00039125 0.00026605
-0.00084737 -0.0021803 -0.0010326 0.0014692 0.0016378 9.3844e-05 0.10867 0.25839
0.0012009 -0.019351 -2.4444e-05 0.00031914
-0.00084059 0.0032246 0.0018511 0.0018341 0.0012683 0.00028205 0.0011603 -0.019351
0.025961 0.2335 0.0026659 -0.0154
0.0025832 0.0014051 0.00067937 0.0021179 0.00047489 0.00011025 -0.00010743 0.00035079
0.0026053 -0.01546 0.038356 0.32019
1340000000 0.21107 0.23609 -0.017578 -0.019194 0.00083761 0.0048826 -0.0018922 -0.0009061
0.0014193 0.0026965 0.0018131 -0.001351
-0.01754 -0.019228 0.037605 0.37214 -0.022218 0.0040721 -0.00012894 0.002088
0.0021446 0.00078982 0.0012881 0.00075956
0.00084099 0.0048762 -0.022264 0.0041687 0.33463 0.11539 0.001219 -0.00094923
0.00067724 -0.0006262 2.9532e-05 0.00021425
-0.0019274 -0.00089455 -0.00013921 0.0020813 0.0012152 -0.00096744 0.14195 0.23773
-0.0082932 -0.017026 0.00065114 0.00056743
0.0013958 0.0027267 0.0021375 0.00075332 0.00064557 -0.00059425 -0.0083493 -0.01699
0.056062 0.22916 -0.0039749 -0.014236
0.00177 -0.0013769 0.0012828 0.00076507 0.00011138 0.00021006 0.00065448 0.00054324
-0.0040597 -0.014194 0.076155 0.31469
1400000000 0.24505 0.19906 -0.023561 -0.0075772 0.0055602 0.0035358 -0.0022704 0.00065886
0.0024479 0.00099156 0.00037103 -0.0016498
-0.023532 -0.0075856 0.075272 0.36006 -0.015549 0.012722 0.0014121 0.0013389
0.0013052 -0.0009138 0.0012249 0.00013564
0.0055511 0.0034869 -0.015503 0.012797 0.34814 0.062523 0.00012995 -0.0017061
0.00012531 -0.00045947 0.00028215 0.00016893
-0.0022896 0.00066621 0.0013952 0.0013323 0.00013104 -0.0016924 0.17187 0.20889
-0.014491 -0.010054 -0.00087213 -8.9095e-05
0.0024201 0.0009491 0.0012622 -0.00088211 9.9353e-05 -0.0004408 -0.0145 -0.010022
0.08891 0.22513 -0.010444 -0.008718
0.0003466 -0.0016306 0.0012229 0.0001195 0.00025789 0.0001364 -0.00077931 -0.00013748
-0.01048 -0.0087995 0.12042 0.30392
1460000000 0.26893 0.15556 -0.020454 0.0047899 0.0061177 -0.001777 -0.0015973 0.0018374
0.0021564 -0.00042396 -0.00042387 -0.0011411
-0.020422 0.0047853 0.11031 0.33864 -0.0063194 0.016046 0.0017403 0.0001471
0.00083566 -0.0014424 0.0012238 -0.00062788
0.0060964 -0.0017695 -0.0062909 0.016092 0.35511 0.0087691 -0.0012834 -0.0013829
0.00010061 -0.00023134 0.0006947 -0.00020608
-0.0015976 0.0018588 0.0017585 0.00014383 -0.0012616 -0.001387 0.19888 0.17951
-0.015919 -0.0034831 -0.00080877 0.0021311
0.0021764 -0.00044296 0.0008225 -0.0014312 0.00019574 -0.00024945 -0.015968 -0.0034288
0.11856 0.21128 -0.01216 -0.0028766
-0.0004104 -0.0010845 0.0012465 -0.000633 0.00062855 -0.00028242 -0.00081776 0.002123
-0.012204 -0.0028782 0.15391 0.2836
1520000000 0.2819 0.11405 -0.014745 0.010269 0.003609 -0.004486 0.00015185 0.0026252
0.0021818 -0.0019216 -0.0012346 -0.00018085
-0.014742 0.010253 0.1443 0.32425 0.0017016 0.013684 0.0016527 -0.00081996
-1.9717e-05 -0.0011196 0.00032027 -0.0010527
0.0035693 -0.0044922 0.0017872 0.013693 0.34882 -0.04722 -0.0011863 -0.00035185
0.00063626 -0.00086873 3.3991e-05 -0.00018752
0.00016186 0.002639 0.0016666 -0.00083564 -0.0011545 -0.00034067 0.22223 0.14084
-0.015326 0.0026087 0.0016123 0.0021438
0.0021689 -0.0020035 -3.5293e-05 -0.0011144 0.00064952 -0.00086693 -0.015346 0.002627
0.14675 0.19811 -0.012062 0.0018552
-0.0012646 -0.00013314 0.00034314 -0.0010658 6.6611e-05 -0.00022973 0.0016007 0.0021845
-0.012044 0.0018775 0.1866 0.26325
1580000000 0.29226 0.068031 -0.0079657 0.013451 -0.0009572 -0.0053014 0.0015621 0.0019183
-0.00017434 -0.0022521 -0.00030792 0.00041969
-0.0079682 0.013449 0.1721 0.2998 0.005651 0.0085599 0.00049932 -0.0016076
-0.00060955 -0.0010061 -0.00019938 -0.00090544
-0.00095491 -0.0053196 0.0057199 0.0085407 0.32973 -0.10481 -0.0017037 0.00066766
-0.00037981 -0.0012072 0.00024077 -0.00070391
0.0015335 0.0019277 0.00046401 -0.0015955 -0.0017193 0.00063957 0.23622 0.10116
-0.011854 0.0076784 0.0023549 0.00071514
-0.00018731 -0.0022733 -0.00060528 -0.0010142 -0.00039639 -0.0012367 -0.01182 0.0076977
0.17164 0.18086 -0.0093981 0.0074059
-0.00033032 0.00040553 -0.00018934 -0.00089673 0.00031183 -0.00058289 0.0023888 0.00075447
-0.0093974 0.0074236 0.21818 0.23673
1640000000 0.29495 0.026555 -0.0012876 0.012205 -0.0030045 -0.0029199 0.0027353 0.0010569
-0.00080061 -0.001618 -0.00032147 0.00066929
-0.0012963 0.012188 0.20219 0.27487 0.0064233 0.003409 -0.0006564 -0.0017681
-0.0010293 -0.00038007 -0.0005425 -0.00074615
-0.0029776 -0.0028331 0.0064549 0.0033799 0.30169 -0.1544 -0.00070994 0.0015281
-0.0011242 -0.00097246 -0.00019738 -0.00033174
0.0027582 0.0010314 -0.00067021 -0.0017609 -0.00069659 0.0015123 0.24867 0.051824
-0.0074902 0.0092736 0.0026248 -0.0008328
-0.00082143 -0.0016249 -0.001016 -0.00038712 -0.0010833 -0.0010189 -0.0074861 0.009319
0.19523 0.157 -0.0045607 0.0096892
-0.00032546 0.00067413 -0.00054756 -0.00073935 -0.00023419 -0.00038148 0.0026901 -0.00084552
-0.0045918 0.0096798 0.24407 0.2059
1700000000 0.28798 -0.018971 0.0021036 0.0093532 -0.0038746 -3.8115e-06 0.0031717 -0.001266
-0.0019917 -0.00073555 0.00063613 0.00038741
0.0020785 0.0093257 0.22051 0.24344 0.0042306 0.00031196 -0.0014821 -0.00060928
-0.00079932 2.2547e-05 -0.00096831 -0.00048999
-0.0039259 5.8291e-05 0.0042334 0.00028498 0.25843 -0.19426 0.00050472 0.0016774
-0.0020483 -4.6858e-05 -0.00053658 -0.00083654
0.0031302 -0.0012562 -0.0014756 -0.00059571 0.00050273 0.0017283 0.24501 0.0016199
-0.0044121 0.0098081 0.0015874 -0.0023443
-0.0020285 -0.00073837 -0.00078822 2.1512e-05 -0.0020285 -2.4881e-05 -0.004438 0.00978
0.213 0.13677 5.8039e-05 0.0098513
0.00062949 0.00041323 -0.00095783 -0.00047306 -0.00041141 -0.0008976 0.0015383 -0.0022964
5.4905e-05 0.0098278 0.26042 0.17202
1760000000 0.27657 -0.067557 0.0044273 0.0060786 -0.0025324 0.00097019 0.0013239 -0.0034334
-0.0014634 0.00069469 0.00032284 -0.00054202
0.0043908 0.0060612 0.24702 0.20372 0.0017606 -0.0017238 -0.0012655 0.00019927
-0.0011206 0.00090929 -0.00070361 0.0003558
-0.002582 0.0010087 0.0017458 -0.0017191 0.21067 -0.22759 0.0010246 0.0010743
-0.001359 0.0015164 -0.0013513 -0.00064908
0.0012837 -0.0034147 -0.0012577 0.0001927 0.0010776 0.0010109 0.23582 -0.049802
-0.00097632 0.0090211 -0.0002451 -0.0025059
-0.0014815 0.00070704 -0.0011162 0.00089715 -0.0013191 0.0014671 -0.00094169 0.008955
0.22854 0.10218 0.0040028 0.0072776
0.00036698 -0.0005868 -0.00069082 0.0003981 -0.0013096 -0.00055773 -0.00020422 -0.0025481
0.0039648 0.0073359 0.27331 0.13443
1820000000 0.25215 -0.10514 0.0044613 0.0024693 -0.0003093 0.0026246 -0.00099105 -0.0031105
-0.0011882 0.00098113 -3.2039e-05 -0.00015056
0.004465 0.0024784 0.25731 0.17337 -0.00076189 -0.00045224 -0.0013398 0.00097302
-9.3702e-05 0.0012525 -0.00063825 0.00058074
-0.00021135 0.0025768 -0.00075461 -0.00044611 0.15936 -0.24375 0.0015945 0.000433
-5.4826e-05 0.0025199 -0.0014626 0.00050315
-0.0010021 -0.0031625 -0.0013378 0.00095997 0.0016889 0.00038127 0.20549 -0.097063
0.0008023 0.0075057 -0.0016165 -0.0014701
-0.001154 0.0010123 -6.3672e-05 0.0012808 -6.739e-05 0.0024698 0.00075201 0.0074904
0.24618 0.073281 0.0050989 0.0037951
2.2278e-06 -7.2596e-05 -0.00064569 0.00058614 -0.0014287 0.00048964 -0.0016176 -0.0016395
0.0051262 0.003739 0.27569 0.098039
1880000000 0.21719 -0.14566 0.0021771 0.00012739 -0.00061908 0.0023567 -0.0029729 -0.0023091
-0.00021981 0.0019288 -4.5613e-05 -0.00049464
0.0021882 0.0001365 0.26189 0.12685 -0.0028688 0.0015414 -0.00019858 0.0017544
0.00050716 0.0013468 5.3748e-05 0.00095995
-0.00057143 0.0023765 -0.00284 0.0015565 0.10728 -0.25293 0.0018446 -0.00091484
0.0016035 0.0019251 -0.00097504 0.0012729
-0.0030139 -0.0022863 -0.00020819 0.001747 0.0018108 -0.00092269 0.16483 -0.13707
0.001591 0.0051679 -0.0023632 0.00015112
-0.00025844 0.0018998 0.00053296 0.0013402 0.0016024 0.0019543 0.0015906 0.005268
0.25039 0.041571 0.0053612 0.0011939
-6.5647e-05 -0.00047511 7.1607e-05 0.00095604 -0.0010842 0.0012659 -0.0023532 0.00025497
0.0054439 0.0012966 0.27604 0.064283
1940000000 0.17793 -0.17155 -0.00033149 -0.0014643 0.0014657 0.0022542 -0.0038705 0.00042339
0.0013316 0.0010821 -0.00055842 -0.0005169
-0.00028457 -0.0014326 0.26272 0.094817 -0.0015046 0.004151 0.00098491 0.0013051
0.0018885 0.00056372 0.0010224 0.00041576
0.0014501 0.002298 -0.0015064 0.0041734 0.0625 -0.24565 0.00054122 -0.0022969
0.0024293 0.00035222 0.00055153 0.0016343
-0.0038721 0.00043052 0.0010214 0.0013526 0.00047518 -0.0022765 0.11219 -0.16761
0.00073607 0.0037678 -0.0016829 0.0013538
0.0013333 0.001097 0.0018962 0.00057477 0.0024594 0.00038712 0.0008349 0.0037262
0.25364 0.0030795 0.0039631 -0.0022462
-0.0005868 -0.00053216 0.0010635 0.0004001 0.00056492 0.0017323 -0.0017156 0.0014232
0.0039446 -0.0023007 0.26554 0.027873
2000000000 0.1315 -0.18622 -0.0041611 0.00077181 0.0027424 0.0016338 -0.0023836 0.003844
0.0012932 0.00036684 -0.0005354 0.00054464
-0.0041459 0.00071147 0.24837 0.059305 -0.00099345 0.0060796 0.0016521 0.00051495
0.0014388 -0.0011035 0.00055414 0.00017131
0.0026991 0.001681 -0.00096101 0.0061324 0.019112 -0.23196 -0.001188 -0.0014194
0.0020429 -0.0010937 0.0016726 0.001461
-0.0023803 0.0038768 0.0015979 0.00052837 -0.0011354 -0.0013409 0.058688 -0.17718
-0.00064037 0.0035382 -8.6316e-05 0.0024279
0.0012756 0.00042667 0.0013778 -0.0011009 0.0021208 -0.0010517 -0.00058211 0.0034688
0.24863 -0.030171 0.0005015 -0.0030861
