!Keysight Technologies,M9804A,MY58100912,A.14.10.03
!Date: Thursday, April 27, 2023 10:28:33
!Correction: S11(C  6-Port  ) 
!S12(C  6-Port  ) 
!S13(C  6-Port  ) 
!S14(C  6-Port  ) 
!S15(C  6-Port  ) 
!S16(C  6-Port  ) 
!S21(C  6-Port  ) 
!S22(C  6-Port  ) 
!S23(C  6-Port  ) 
!S24(C  6-Port  ) 
!S25(C  6-Port  ) 
!S26(C  6-Port  ) 
!S31(C  6-Port  ) 
!S32(C  6-Port  ) 
!S33(C  6-Port  ) 
!S34(C  6-Port  ) 
!S35(C  6-Port  ) 
!S36(C  6-Port  ) 
!S41(C  6-Port  ) 
!S42(C  6-Port  ) 
!S43(C  6-Port  ) 
!S44(C  6-Port  ) 
!S45(C  6-Port  ) 
!S46(C  6-Port  ) 
!S51(C  6-Port  ) 
!S52(C  6-Port  ) 
!S53(C  6-Port  ) 
!S54(C  6-Port  ) 
!S55(C  6-Port  ) 
!S56(C  6-Port  ) 
!S61(C  6-Port  ) 
!S62(C  6-Port  ) 
!S63(C  6-Port  ) 
!S64(C  6-Port  ) 
!S65(C  6-Port  ) 
!S66(C  6-Port  ) 
!S6P File: Measurement: :
# Hz S  RI   R 50
500000000 -0.33455 -0.054999 -0.010686 -0.0016412 -0.0086423 0.012997 -0.0041223 0.012544
0.012899 0.0053683 -0.0052205 0.0076143
-0.010711 -0.0018902 -0.41602 -0.064929 0.0081654 -0.010614 0.0016541 0.011979
0.0079685 0.0029386 0.00078839 0.01383
-0.0085266 0.013034 0.0080749 -0.010648 -0.26751 0.19851 0.0066168 0.0035068
-0.0017067 0.0086775 0.00045579 0.012049
-0.00438 0.012195 0.001769 0.012162 0.006727 0.0034712 -0.33245 0.04243
-0.018661 -0.0051154 0.014966 0.025512
0.012308 0.0056206 0.0073443 0.0028589 -0.0018561 0.0083491 -0.018978 -0.0050745
-0.24495 -0.19809 -0.026032 0.0041126
-0.0049517 0.0082975 0.0015194 0.014019 0.00073915 0.011722 0.015524 0.024972
-0.026234 0.0042285 -0.27226 -0.12569
560000000 -0.31911 0.11097 -0.022562 -0.064568 -0.00038908 0.013373 0.0057955 0.011399
0.010965 0.0043719 0.009112 0.009344
-0.022376 -0.064649 -0.37604 0.09964 -0.042649 -0.03786 0.013556 0.0041303
-0.013031 -0.0040021 0.0035378 -0.0020463
-0.00011143 0.013121 -0.042539 -0.037797 -0.18571 0.25023 -0.0011249 -0.0043138
0.01822 0.0063837 0.0082591 -0.0059451
0.0055769 0.011348 0.013515 0.0039344 -0.0012878 -0.0044279 -0.3064 0.1345
0.0052092 -0.023534 0.0055644 -0.022166
0.010823 0.0044436 -0.012708 -0.0043354 0.018774 0.0056334 0.0053429 -0.0234
-0.31181 -0.018824 0.0076097 -0.047307
0.0097134 0.0088027 0.0037187 -0.00081626 0.0076788 -0.0054827 0.0061808 -0.021625
0.0084647 -0.047458 -0.33155 0.021575
620000000 -0.27845 0.092108 -0.023094 0.0086755 0.0039589 0.009227 0.0090557 -0.0045248
0.010548 -0.00038848 0.0013843 -0.0020331
-0.023096 0.0086598 -0.40346 0.047684 -0.018468 0.00079787 -0.0017343 -0.0020857
0.012799 -0.0062824 0.00054919 -0.0031874
0.0036855 0.0093011 -0.018434 0.00093323 -0.15585 0.25977 -0.0006446 -0.0055465
-0.0029735 -0.0024711 0.0091526 -0.0027923
0.0088353 -0.0043681 -0.0017701 -0.0020585 -0.00060311 -0.0052422 -0.26572 0.14607
-0.039245 -0.018642 0.013403 0.027136
0.010813 -0.00073043 0.012592 -0.0060842 -0.0031907 -0.0029236 -0.039241 -0.018812
-0.22971 -0.054906 -0.041966 0.013872
0.0014087 -0.002129 0.00049177 -0.0034977 0.0090478 -0.0031306 0.013318 0.027233
-0.042147 0.013796 -0.25119 -0.011308
680000000 -0.24026 0.18343 -0.02636 -0.014311 0.0049657 0.0050955 0.0019389 -0.0080421
-0.0024194 -0.011059 0.005813 -0.0080447
-0.026322 -0.014188 -0.3902 0.14963 -0.03202 -0.0020621 -0.001113 -0.00063055
-0.0017424 -0.009094 -0.00071262 -0.0020529
0.0049591 0.0051506 -0.032097 -0.0020027 -0.10387 0.28052 -0.00085407 -0.00059213
-0.001448 0.0002815 -0.0024821 -0.0089974
0.001906 -0.0081428 -0.0012171 -0.00063195 -0.00088549 -0.00060001 -0.22059 0.19828
-0.023752 -0.0076315 -0.0086878 -0.011779
-0.0023492 -0.011263 -0.0017986 -0.0092436 -0.0015693 0.00035488 -0.023566 -0.007883
-0.27962 0.051427 -0.0068639 -0.0078751
0.0064186 -0.0076695 -0.00031739 -0.002008 -0.0024321 -0.0093272 -0.0086197 -0.011543
-0.0071429 -0.0073035 -0.26068 0.092398
740000000 -0.19319 0.17667 -0.03978 0.026791 0.013825 -0.0050208 -5.0226e-06 -0.0039456
-0.0042877 -0.003596 -0.0067068 0.0025298
-0.039993 0.02681 -0.33548 0.16836 -0.036692 0.034551 -0.0001205 -0.005978
-0.012191 0.0082258 -0.0014753 -0.0064919
0.013756 -0.0050489 -0.036803 0.034753 -0.070028 0.27744 -0.0018701 0.0032113
-0.003506 -0.0061708 -0.00092278 0.0011887
-3.6977e-05 -0.0040716 -0.00034498 -0.0059592 -0.0017435 0.0033177 -0.20314 0.20486
-0.042579 -0.0073829 0.022683 0.015415
-0.0042545 -0.0040981 -0.012643 0.0081255 -0.0030888 -0.0061929 -0.043013 -0.0079494
-0.18032 0.076292 -0.042077 0.0013326
-0.006779 0.0031515 -0.0011943 -0.0058856 -0.0012625 0.0010602 0.022819 0.016086
-0.043184 0.0022547 -0.24885 0.099318
800000000 -0.16222 0.22 -0.022012 0.016287 0.0059069 -0.010639 -0.0041771 -0.0023215
-0.0042912 0.0017892 0.0044081 0.00069336
-0.022081 0.016229 -0.34126 0.23855 -0.0084802 0.033929 -0.0023171 0.0021362
-0.0010275 0.0025843 0.00076081 0.0051994
0.0058848 -0.010752 -0.0084039 0.034001 -0.031379 0.3015 0.00086918 0.0015565
4.3161e-07 0.0036096 -0.0018 0.00090144
-0.0042325 -0.0025112 -0.0023207 0.0021142 0.00092798 0.0015801 -0.17357 0.23196
-0.028465 0.013684 0.014547 -0.010054
-0.0044774 0.0016952 -0.00093454 0.0023832 6.4303e-05 0.0034952 -0.028371 0.013223
-0.2224 0.10651 -0.01788 0.019903
0.0044889 0.00018864 0.00066742 0.005085 -0.0017564 0.00088769 0.014451 -0.010102
-0.018123 0.020398 -0.24103 0.1484
860000000 -0.12746 0.24041 -0.017805 0.030254 -0.0027862 -0.010266 -0.0017631 0.0006953
0.0036348 0.0054497 -0.0035951 -0.0031281
-0.017766 0.030212 -0.29286 0.28125 0.0072463 0.034306 8.2039e-05 0.0021939
0.0033278 0.0010316 0.0029586 0.0002783
-0.002774 -0.010313 0.007395 0.034333 0.016142 0.3099 -0.00057921 -4.4651e-05
0.0022368 -0.0013271 0.001586 0.0041586
-0.0017924 0.00073403 6.829e-05 0.0021177 -0.00060194 -6.0063e-05 -0.13683 0.24291
-0.018233 0.018195 -0.005942 -0.0088577
0.0039012 0.0052701 0.0034574 0.0010601 0.002409 -0.0011561 -0.017832 0.018101
-0.16565 0.16002 -0.02456 0.016166
-0.0034586 -0.0029229 0.002985 -9.1695e-05 0.0015101 0.0042451 -0.0062092 -0.0086496
-0.024929 0.016194 -0.19128 0.19328
920000000 -0.10424 0.26346 0.0045692 0.038274 -0.0092362 -0.0050843 -0.0020106 0.0017342
0.00089392 0.0022859 0.0031329 -0.0012709
0.0045034 0.03818 -0.26569 0.30261 0.028013 0.022923 0.0015161 0.0015419
0.007847 0.00010454 0.0044562 -0.0026656
-0.0093113 -0.0050166 0.028095 0.022865 0.061243 0.31133 0.0019568 0.00017026
0.0010849 -0.00016355 0.0010342 -0.0012078
-0.0020185 0.0017141 0.0014773 0.0015061 0.0019677 0.00012747 -0.11268 0.2591
-0.011069 0.0306 0.0038794 -0.0066343
0.0010206 0.0022875 0.0079387 0.00011436 0.0011613 -0.00014679 -0.011215 0.030663
-0.15446 0.16482 -0.00045824 0.026468
0.0029083 -0.0013176 0.0045391 -0.0025203 0.0010583 -0.0011569 0.0041007 -0.0066623
-0.00066632 0.026374 -0.19744 0.20549
980000000 -0.057614 0.28406 0.016747 0.030129 -0.0094526 0.004167 0.0018035 0.0037016
0.0041897 -0.0016705 -0.0028515 -0.0025748
0.016726 0.030099 -0.21285 0.33736 0.033325 0.0055494 0.0020856 -0.00012197
0.0018072 -0.0064196 -9.3519e-05 -0.0026228
-0.0094602 0.0041953 0.033392 0.0054402 0.10704 0.30592 0.0007691 -0.0011852
0.00060863 -0.002039 0.0015893 -0.0002389
0.0017718 0.0037355 0.002069 -9.1918e-05 0.00076564 -0.0011804 -0.074245 0.26996
0.0076568 0.029514 -0.009319 -0.0074015
0.0043141 -0.0017764 0.0019049 -0.0064467 0.00059217 -0.0020825 0.0075758 0.029522
-0.12186 0.19408 0.0054498 0.018899
-0.0030256 -0.0026305 -0.00035719 -0.0024969 0.0015708 -0.00014846 -0.0091865 -0.0073701
0.0057337 0.019393 -0.15602 0.25092
1040000000 -0.016508 0.29271 0.032748 0.019148 -0.0016723 0.0069695 0.0026202 0.00078277
0.00028607 -0.0035618 -0.00024577 -0.0017221
0.032677 0.019139 -0.17807 0.35095 0.030106 -0.014411 0.0016937 -0.0017218
-0.0020873 -0.0027681 -0.00087152 -0.0028867
-0.0016653 0.0069761 0.030097 -0.014546 0.1529 0.29297 -0.00041674 -0.0016717
-0.0016486 -0.0010524 -0.0005101 -0.0011277
0.0025581 0.00081454 0.0016615 -0.0017532 -0.00041738 -0.0016912 -0.047322 0.27936
0.019064 0.018853 -0.002618 0.00085429
0.00026269 -0.0034577 -0.0021704 -0.0026999 -0.0015747 -0.00097965 0.01911 0.018793
-0.088003 0.201 0.01465 0.018101
-0.00042105 -0.0017838 -0.0011165 -0.0030585 -0.00052675 -0.0011439 -0.0025197 0.00083547
0.014272 0.018368 -0.13336 0.27082
1100000000 0.028307 0.30214 0.036409 -0.0033788 0.0027245 0.0041877 0.0024773 -0.00094695
-0.0021067 -0.0030754 -0.0039529 0.00012252
0.036397 -0.0033393 -0.13524 0.36915 0.016043 -0.027947 0.00013313 -0.0018881
-0.0036914 -0.00096895 -0.0034542 -0.00044736
0.0027915 0.0042063 0.015973 -0.028042 0.19887 0.27388 -0.0018973 8.5374e-06
-0.0019039 0.00044274 -0.0011251 -0.00046753
0.0024746 -0.00093495 0.00013686 -0.0018818 -0.0019302 1.8462e-05 -0.007604 0.28468
0.024718 0.0055214 -0.0025955 0.0001095
-0.002115 -0.0031344 -0.0037621 -0.00098864 -0.0019407 0.00044506 0.02481 0.005436
-0.067806 0.21426 0.019533 0.0087755
-0.0039178 0.00015555 -0.0033665 -0.00047474 -0.0010745 -0.00044712 -0.0027388 0.00015888
0.019476 0.0087589 -0.087069 0.3006
1160000000 0.07926 0.29852 0.024545 -0.020475 0.002765 -0.00044329 -6.9819e-05 -0.0023217
-0.003965 -0.00089436 -0.00099272 0.0042361
0.02456 -0.020433 -0.091914 0.37399 -0.0030997 -0.029655 -0.0016244 -0.0017556
-0.0030626 0.0025965 -0.0014518 0.0019309
0.0027065 -0.00042896 -0.0032249 -0.02967 0.2423 0.24398 -0.00087588 0.0017568
-0.00067567 0.0020426 -0.00081004 0.00040525
-6.5078e-05 -0.0022688 -0.001634 -0.0017501 -0.00084462 0.0017625 0.031562 0.28209
0.021257 -0.010308 -0.003304 0.0050806
-0.0039783 -0.00079263 -0.003013 0.0026078 -0.00067467 0.0020364 0.021331 -0.010245
-0.033142 0.22133 0.01884 -0.00075296
-0.00095797 0.0040709 -0.0015022 0.0019975 -0.00085578 0.00047382 -0.0032897 0.0050165
0.018728 -0.0008167 -0.040225 0.30289
1220000000 0.12314 0.28884 0.011172 -0.030219 -0.0016109 -0.00086774 0.00015216 -0.00092812
-0.0027154 0.0021383 0.00098346 0.0020924
0.011198 -0.030181 -0.048014 0.38728 -0.016894 -0.02209 -0.0027145 0.00045788
-9.0511e-05 0.0032465 -0.00091568 0.0019883
-0.001616 -0.0008421 -0.017024 -0.022019 0.28147 0.20557 0.0006552 0.0018713
0.00055624 0.00134 0.00036837 0.00062161
0.00014215 -0.00095391 -0.0026759 0.00047775 0.00067618 0.001914 0.071552 0.27396
0.011066 -0.017164 0.0020845 0.0012803
-0.002667 0.0021267 -7.6573e-05 0.0032757 0.00058852 0.0013487 0.011042 -0.017108
-0.010198 0.23013 0.013978 -0.013422
0.0011311 0.0020154 -0.00087258 0.0019825 0.00033445 0.00060789 0.0019159 0.0013405
0.01418 -0.013433 -0.0088504 0.31759
1280000000 0.17361 0.26875 -0.0076717 -0.02896 -0.002043 0.0025814 -0.00084515 -0.0021492
-0.00087104 0.0031711 0.0024844 0.0013327
-0.0076629 -0.028926 -0.0019557 0.37952 -0.024303 -0.0091607 -0.0010666 0.0014431
0.0017925 0.0018593 0.00061779 0.0021084
-0.0020296 0.0025464 -0.024369 -0.009085 0.31235 0.16244 0.0017166 8.3809e-05
0.0013071 0.00024685 0.00043871 9.7677e-05
-0.00085477 -0.0021537 -0.0010848 0.0014453 0.0016576 9.5925e-05 0.10863 0.25822
0.0011904 -0.01958 -0.00019604 0.00025972
-0.0008451 0.0031981 0.001748 0.0018237 0.0013414 0.00025088 0.0011557 -0.019569
0.026011 0.23317 0.0030314 -0.015785
0.0024448 0.0013706 0.00068378 0.0021219 0.00041785 9.2828e-05 -0.00021196 0.00026458
0.0029053 -0.015615 0.037989 0.31997
1340000000 0.21131 0.23605 -0.017624 -0.019282 0.00077606 0.0048641 -0.0018531 -0.0009672
0.0014067 0.0027712 0.0018569 -0.0013679
-0.017585 -0.019285 0.037801 0.37211 -0.022239 0.0040275 -0.00012984 0.0020791
0.0021702 0.0008107 0.0012486 0.00074874
0.00082438 0.0048855 -0.022237 0.0041361 0.33469 0.11527 0.0012296 -0.00093269
0.00067154 -0.0006004 6.7808e-05 0.00017202
-0.0018542 -0.00096193 -0.00013253 0.0020656 0.0012408 -0.00095501 0.142 0.23761
-0.0084609 -0.016925 0.00065553 0.0006118
0.001458 0.0027417 0.0021589 0.00081387 0.00073046 -0.00058279 -0.0084481 -0.016902
0.055911 0.22886 -0.0040943 -0.014218
0.0018309 -0.0013472 0.0012864 0.00073194 8.1721e-05 0.00012157 0.00066306 0.00052612
-0.0042257 -0.014359 0.076133 0.31458
1400000000 0.24526 0.199 -0.023647 -0.0076021 0.0055277 0.0035085 -0.0022649 0.00063139
0.0024095 0.0010773 0.00039636 -0.001633
-0.023607 -0.0076065 0.075413 0.36005 -0.015555 0.012671 0.001411 0.0013421
0.001345 -0.00087609 0.0012042 0.00011754
0.0055252 0.0035011 -0.015524 0.012763 0.34821 0.062381 0.0001229 -0.0017261
5.8959e-05 -0.00046384 0.00027201 0.00020518
-0.0022557 0.0006642 0.0014462 0.0013404 0.00012843 -0.0017035 0.17175 0.2089
-0.01467 -0.01014 -0.00095225 2.1241e-05
0.0024149 0.0010401 0.0013812 -0.00089922 0.0001014 -0.00045376 -0.014733 -0.010068
0.088605 0.22476 -0.010639 -0.0089081
0.00044928 -0.0016292 0.0011947 0.00014455 0.00030016 0.00023051 -0.00088099 2.5769e-05
-0.010635 -0.0090198 0.12015 0.30402
1460000000 0.26921 0.15541 -0.020503 0.0048705 0.0060916 -0.001736 -0.0016197 0.0018227
0.002205 -0.00036786 -0.00033928 -0.0010663
-0.020514 0.0048197 0.11049 0.33864 -0.0063937 0.016016 0.0017253 0.0001498
0.00088771 -0.0014852 0.0012437 -0.00059924
0.0060302 -0.0018102 -0.006314 0.016074 0.35513 0.0085672 -0.001263 -0.0013575
0.00019004 -0.00024571 0.00064474 -0.00020145
-0.0016351 0.0018153 0.0017587 0.00010973 -0.0012609 -0.0014035 0.19885 0.17949
-0.016111 -0.0032954 -0.00071525 0.0021363
0.0021892 -0.00040805 0.0008817 -0.0014796 0.00015138 -0.00021993 -0.016143 -0.0032913
0.11823 0.21123 -0.012452 -0.0028316
-0.00042192 -0.00109 0.0012246 -0.00061904 0.00069454 -0.00025343 -0.00074707 0.0022227
-0.012364 -0.0028174 0.15381 0.28359
1520000000 0.28205 0.11368 -0.014842 0.010343 0.0035996 -0.0044444 0.00015196 0.0026669
0.002234 -0.0019186 -0.0012148 -0.0002766
-0.01483 0.010325 0.14442 0.32423 0.0016628 0.013677 0.0016659 -0.00082939
-2.8958e-05 -0.0011463 0.00033119 -0.0011242
0.003561 -0.0044702 0.0017511 0.013701 0.34887 -0.04748 -0.0011862 -0.0003854
0.00069385 -0.00089045 0.00010707 -0.00022624
0.00017649 0.0026781 0.0016775 -0.00082273 -0.0011833 -0.00037834 0.22218 0.14083
-0.01546 0.0028008 0.0017065 0.0023032
0.0021964 -0.0018903 -2.2809e-05 -0.0011491 0.00070921 -0.00089507 -0.015434 0.0028528
0.14654 0.19809 -0.012184 0.0019007
-0.0011886 -0.00019192 0.00035953 -0.0010845 8.2268e-05 -0.00023537 0.0016972 0.0022757
-0.012285 0.0019453 0.18636 0.2631
1580000000 0.29238 0.067663 -0.0079786 0.013542 -0.00091311 -0.0052112 0.0015747 0.0019675
-0.00017632 -0.0022865 -0.00029221 0.00048349
-0.0079941 0.013523 0.17225 0.2998 0.0056278 0.0086264 0.00050947 -0.001578
-0.00063077 -0.0010094 -0.00014761 -0.00085179
-0.00097296 -0.0052692 0.0056778 0.0086108 0.32969 -0.105 -0.0016934 0.00065845
-0.00030243 -0.0012623 0.00025065 -0.00060898
0.0015705 0.001971 0.00049341 -0.0015998 -0.0016872 0.00064546 0.23619 0.1012
-0.011791 0.0078957 0.0024161 0.0006917
-0.00014087 -0.0022665 -0.00065637 -0.0010078 -0.00028743 -0.0011993 -0.011827 0.0079408
0.17135 0.18094 -0.0095317 0.0077744
-0.00032253 0.00047322 -0.00015008 -0.00086439 0.0003391 -0.00069223 0.0024628 0.00075852
-0.0095224 0.0077344 0.21813 0.23664
1640000000 0.295 0.026193 -0.0012437 0.012292 -0.0029834 -0.0028628 0.0027753 0.0010304
-0.00078071 -0.0016665 -0.00037542 0.0007244
-0.0012467 0.01229 0.20237 0.27483 0.0063907 0.0035081 -0.00062505 -0.0017722
-0.0010153 -0.00036819 -0.00053047 -0.00070024
-0.0029803 -0.0028126 0.0064152 0.0034683 0.3016 -0.1546 -0.00064506 0.0015319
-0.0010529 -0.00097098 -0.00020358 -0.00036072
0.0028057 0.0010009 -0.0006479 -0.001767 -0.00067155 0.0015595 0.24868 0.051851
-0.0073446 0.009446 0.0026297 -0.00089484
-0.00078866 -0.0016813 -0.0010217 -0.00034461 -0.0011315 -0.00095878 -0.0073049 0.0094271
0.19531 0.15715 -0.0046889 0.0098441
-0.00035674 0.00071186 -0.00054725 -0.00069099 -0.00017413 -0.00024159 0.0026861 -0.0008881
-0.0046816 0.009848 0.24387 0.20592
1700000000 0.28784 -0.01927 0.0021496 0.0093957 -0.0038129 -2.7765e-05 0.0031935 -0.0012557
-0.0020468 -0.00068341 0.00063211 0.00047565
0.0021452 0.0093978 0.22069 0.24342 0.0042587 0.00038419 -0.0014838 -0.00059294
-0.00079191 3.1261e-05 -0.00097013 -0.00049009
-0.0038195 1.625e-05 0.0042711 0.00034209 0.25828 -0.19441 0.00049379 0.0016905
-0.0020597 -0.00010269 -0.00048772 -0.00089308
0.0031908 -0.0012628 -0.0015107 -0.00060707 0.00045043 0.0016114 0.24515 0.0017036
-0.0042896 0.0099269 0.0016138 -0.0023825
-0.0020682 -0.00067435 -0.00079806 4.4502e-05 -0.0020134 -9.473e-05 -0.0042643 0.0099379
0.21302 0.13682 0.0001512 0.0099131
0.00064012 0.00045304 -0.00095894 -0.0005157 -0.00048848 -0.0010122 0.0016068 -0.0022753
3.2162e-05 0.0099467 0.26015 0.17177
1760000000 0.27639 -0.067761 0.0044614 0.006054 -0.0025189 0.0010146 0.0013199 -0.0035349
-0.001415 0.00066218 0.0003503 -0.00060832
0.0044792 0.0060675 0.24724 0.20364 0.0017863 -0.00166 -0.0012041 0.00012862
-0.0010487 0.00088882 -0.0006311 0.00037107
-0.0024831 0.0010565 0.0017684 -0.0016947 0.21045 -0.22791 0.0011582 0.0010065
-0.0013226 0.0015634 -0.0012447 -0.00064214
0.0012951 -0.0035092 -0.0012348 0.00016162 0.0011093 0.0010481 0.23585 -0.049895
-0.00077766 0.0088814 -0.00019868 -0.0026192
-0.0014513 0.00069873 -0.0010923 0.00090471 -0.0013709 0.0015607 -0.00079631 0.0088752
0.22874 0.10236 0.0041342 0.0075331
0.00038169 -0.00049141 -0.00067176 0.00046251 -0.0012042 -0.0005157 -0.00020739 -0.0027034
0.0041904 0.0074473 0.27316 0.13458
1820000000 0.25194 -0.10515 0.0044699 0.0024527 -0.00025126 0.0025447 -0.0010313 -0.0031207
-0.0011528 0.0010293 -7.1751e-05 -0.00016581
0.0044735 0.0024653 0.25755 0.17324 -0.00066062 -0.00045421 -0.0013852 0.00095016
-7.5102e-05 0.0012141 -0.00060442 0.00057278
-0.00028561 0.0025402 -0.00067462 -0.00047981 0.15934 -0.24388 0.0015849 0.00033017
-9.5415e-05 0.0024111 -0.0014072 0.00046885
-0.0011074 -0.0031452 -0.0013527 0.00095363 0.0016566 0.0003165 0.20566 -0.097093
0.00088605 0.007482 -0.0016199 -0.0016696
-0.0011643 0.0010251 -7.0095e-05 0.0012178 -1.6e-05 0.0024652 0.0008708 0.0074761
0.24624 0.073158 0.0052209 0.0038719
-0.00015394 -0.00016416 -0.00060658 0.00056586 -0.001338 0.00050507 -0.0016266 -0.0016305
0.0051614 0.0038796 0.27569 0.098397
1880000000 0.21699 -0.14569 0.002203 8.3553e-05 -0.00064247 0.0023146 -0.0029699 -0.0022949
-0.00019137 0.0018206 -1.796e-05 -0.00056761
0.0021943 7.7723e-05 0.26211 0.12666 -0.0027862 0.001538 -0.00020086 0.0017233
0.00052986 0.0013015 4.926e-05 0.0009811
-0.00062856 0.0023004 -0.0027487 0.0015288 0.1071 -0.25288 0.0017826 -0.00097572
0.0016419 0.0018954 -0.00099503 0.001287
-0.0029911 -0.0022668 -0.00024073 0.0017158 0.0018113 -0.00092782 0.16477 -0.13736
0.0017381 0.0050072 -0.0024512 1.5592e-05
-0.0002033 0.0018899 0.00050642 0.0012971 0.0015559 0.0018961 0.0018102 0.0050489
0.25051 0.041624 0.0055321 0.0011752
-5.4454e-05 -0.00056659 1.9436e-05 0.00098073 -0.0010991 0.0012884 -0.0023471 5.8625e-05
0.0055909 0.0012337 0.27579 0.06437
1940000000 0.17785 -0.17158 -0.00030213 -0.0014359 0.0013439 0.0022998 -0.0039457 0.00039732
0.0012795 0.0010977 -0.0006283 -0.00061382
-0.0002749 -0.0014529 0.26288 0.094636 -0.0015958 0.0040766 0.00097691 0.0013147
0.0018205 0.00056045 0.0010001 0.00035756
0.0014281 0.0022946 -0.0015498 0.0041476 0.062087 -0.24582 0.00050883 -0.0023351
0.0024372 0.00028813 0.00049983 0.0015637
-0.0039371 0.00038752 0.0010078 0.0013199 0.000533 -0.002214 0.11225 -0.16771
0.00082386 0.0036477 -0.0016009 0.0013179
0.0013323 0.00098834 0.0018737 0.0005213 0.00242 0.0003015 0.00083844 0.0036034
0.25383 0.0029411 0.0043172 -0.0021927
-0.00070967 -0.00056127 0.0010438 0.0003479 0.00058487 0.0015613 -0.001734 0.0012743
0.0041844 -0.0022462 0.26553 0.028021
2000000000 0.13145 -0.18646 -0.004125 0.00073596 0.0026999 0.0015528 -0.0023974 0.0038019
0.0012334 0.00037219 -0.00048511 0.00060805
-0.0040921 0.00074657 0.2485 0.059027 -0.0010054 0.0060151 0.0016844 0.00049271
0.0014459 -0.0010572 0.0005521 0.0001498
0.0027188 0.0016947 -0.00099835 0.0060371 0.018739 -0.23202 -0.001205 -0.001408
0.0021198 -0.0011013 0.0016496 0.0015516
-0.0022635 0.003888 0.0016114 0.00050106 -0.0013113 -0.0013537 0.058431 -0.17739
-0.00069651 0.0033252 -0.00036517 0.0023684
0.0012699 0.0005056 0.0014337 -0.0010602 0.0020638 -0.001173 -0.0006632 0.0032412
0.24866 -0.030325 0.00068759 -0.0033326
