!Keysight Technologies,M9804A,MY58100912,A.14.10.03
!Date: Thursday, April 27, 2023 10:28:33
!Correction: S11(C  6-Port  ) 
!S12(C  6-Port  ) 
!S13(C  6-Port  ) 
!S14(C  6-Port  ) 
!S15(C  6-Port  ) 
!S16(C  6-Port  ) 
!S21(C  6-Port  ) 
!S22(C  6-Port  ) 
!S23(C  6-Port  ) 
!S24(C  6-Port  ) 
!S25(C  6-Port  ) 
!S26(C  6-Port  ) 
!S31(C  6-Port  ) 
!S32(C  6-Port  ) 
!S33(C  6-Port  ) 
!S34(C  6-Port  ) 
!S35(C  6-Port  ) 
!S36(C  6-Port  ) 
!S41(C  6-Port  ) 
!S42(C  6-Port  ) 
!S43(C  6-Port  ) 
!S44(C  6-Port  ) 
!S45(C  6-Port  ) 
!S46(C  6-Port  ) 
!S51(C  6-Port  ) 
!S52(C  6-Port  ) 
!S53(C  6-Port  ) 
!S54(C  6-Port  ) 
!S55(C  6-Port  ) 
!S56(C  6-Port  ) 
!S61(C  6-Port  ) 
!S62(C  6-Port  ) 
!S63(C  6-Port  ) 
!S64(C  6-Port  ) 
!S65(C  6-Port  ) 
!S66(C  6-Port  ) 
!S6P File: Measurement: :
# Hz S  RI   R 50
500000000 -0.33407 -0.055542 -0.010691 -0.0017015 -0.0085807 0.013188 -0.0042981 0.012215
0.012351 0.0054635 -0.0048147 0.0078185
-0.010709 -0.0019792 -0.41629 -0.064988 0.0079486 -0.010395 0.0011463 0.011705
0.0082359 0.0032902 0.00128 0.013352
-0.0084759 0.013229 0.00782 -0.010449 -0.26773 0.19873 0.0064502 0.0034029
-0.0012979 0.0085911 9.7715e-05 0.011713
-0.0044133 0.01201 0.0010665 0.012019 0.0064174 0.0035802 -0.33228 0.043017
-0.018646 -0.0053373 0.015495 0.024676
0.012694 0.0053257 0.0078951 0.002749 -0.0012382 0.0084428 -0.018923 -0.005508
-0.24619 -0.19732 -0.02563 0.0045184
-0.0047028 0.0079621 0.00093872 0.013642 0.00031555 0.011973 0.015624 0.025832
-0.026089 0.0040167 -0.27157 -0.12703
560000000 -0.31878 0.11091 -0.022732 -0.065282 2.5769e-05 0.013544 0.0056186 0.011099
0.010935 0.0040907 0.0096972 0.0088946
-0.022695 -0.064687 -0.3757 0.099195 -0.042395 -0.037768 0.013343 0.0036691
-0.013551 -0.0040832 0.0042464 -0.0013746
0.0001639 0.013114 -0.042552 -0.037622 -0.18628 0.25041 -0.00037385 -0.0043624
0.017989 0.0060313 0.0081003 -0.0059247
0.0055237 0.011237 0.013406 0.0034808 -0.00067319 -0.0043555 -0.30729 0.13452
0.0056966 -0.023071 0.0056453 -0.021823
0.011287 0.0043362 -0.012894 -0.0037543 0.018493 0.0064248 0.005664 -0.02302
-0.31231 -0.018916 0.008396 -0.048053
0.0099011 0.0087758 0.0041343 -0.0011759 0.0078953 -0.0057529 0.0053295 -0.022066
0.0082635 -0.047905 -0.33161 0.022372
620000000 -0.27837 0.092511 -0.023337 0.0088252 0.0039128 0.009206 0.0086414 -0.0044175
0.010941 -0.001019 0.001186 -0.002217
-0.023198 0.0088903 -0.40349 0.047842 -0.018356 0.0008284 -0.0016085 -0.0021631
0.012155 -0.0062333 0.00061789 -0.0035001
0.0037816 0.0093697 -0.018445 0.00079747 -0.15586 0.25986 -0.00060433 -0.0053949
-0.0032531 -0.0026307 0.0093582 -0.0031332
0.0086594 -0.0044869 -0.001718 -0.0022097 -0.0006657 -0.0051512 -0.26492 0.14533
-0.039716 -0.018549 0.014314 0.027353
0.010822 -0.00091959 0.012477 -0.0059657 -0.0031031 -0.0031672 -0.039464 -0.018418
-0.23005 -0.055105 -0.043235 0.013289
0.0013245 -0.0017964 0.00086769 -0.0038446 0.0090932 -0.0030345 0.014827 0.026369
-0.043737 0.013979 -0.2496 -0.010943
680000000 -0.24006 0.18316 -0.026179 -0.014324 0.0050351 0.0050722 0.0014379 -0.0078411
-0.0021124 -0.010997 0.0059574 -0.0080158
-0.026245 -0.014311 -0.39005 0.14969 -0.032015 -0.0020356 -0.0012969 -0.00056496
-0.0018459 -0.0092241 -0.00060758 -0.0020756
0.0049632 0.0050678 -0.032088 -0.0019503 -0.10386 0.28058 -0.00093335 -0.00061603
-0.0017135 0.00018276 -0.0025389 -0.0092505
0.0016686 -0.0079927 -0.0016332 -0.00069318 -0.00099777 -0.00054971 -0.21991 0.19817
-0.023855 -0.0081135 -0.0085876 -0.01148
-0.0021138 -0.01091 -0.0017347 -0.0092636 -0.0016221 0.00018263 -0.023984 -0.0081089
-0.27986 0.051089 -0.0070687 -0.0077743
0.0059325 -0.007995 -0.00062408 -0.0018204 -0.0026031 -0.0091994 -0.0082606 -0.011251
-0.0071 -0.0077652 -0.26029 0.093573
740000000 -0.19313 0.17648 -0.039797 0.026868 0.013927 -0.0050185 3.461e-06 -0.0039751
-0.004181 -0.0038307 -0.0068798 0.0027692
-0.03987 0.026848 -0.33504 0.16788 -0.036744 0.034527 -0.00018274 -0.0063133
-0.012079 0.008377 -0.0013294 -0.0066188
0.013871 -0.0050033 -0.036755 0.034734 -0.069841 0.27732 -0.0018851 0.0033133
-0.0032205 -0.0061346 -0.0010191 0.0012151
-7.6231e-05 -0.0040987 -9.4096e-05 -0.0062163 -0.0018563 0.0034446 -0.20318 0.20464
-0.042344 -0.007704 0.022569 0.01568
-0.0040512 -0.0040405 -0.012103 0.007925 -0.0030182 -0.0063872 -0.042142 -0.0076638
-0.18136 0.076917 -0.042506 0.0019015
-0.0068773 0.0029094 -0.0014799 -0.0062623 -0.0011043 0.0011889 0.022507 0.015801
-0.041751 0.0017628 -0.24872 0.098373
800000000 -0.16237 0.22017 -0.022111 0.016358 0.0059249 -0.010602 -0.0041699 -0.0024465
-0.0047345 0.0020838 0.0046268 0.00057499
-0.022145 0.016274 -0.34136 0.23869 -0.0084362 0.033935 -0.0021904 0.0020407
-0.0011173 0.0025622 0.00098835 0.0053945
0.005829 -0.010673 -0.0083483 0.034016 -0.03139 0.30152 0.00094533 0.0015658
-2.9999e-05 0.0035035 -0.0016115 0.00078208
-0.0042176 -0.0023908 -0.0021768 0.0021653 0.00093431 0.0015393 -0.17361 0.23205
-0.028229 0.013284 0.014866 -0.010322
-0.0046927 0.0019617 -0.00092237 0.0026225 -1.6245e-05 0.0034972 -0.028286 0.013185
-0.22266 0.10609 -0.018041 0.020338
0.0046922 0.00036572 0.00078052 0.005468 -0.0016206 0.00086277 0.014282 -0.010183
-0.017532 0.02027 -0.23962 0.14867
860000000 -0.12767 0.24042 -0.017843 0.030196 -0.0027671 -0.010393 -0.0019548 0.00058929
0.0036765 0.0053594 -0.0036252 -0.0032766
-0.017795 0.030244 -0.29305 0.28139 0.0072951 0.034264 -0.00013349 0.0021692
0.003645 0.00086889 0.0023843 3.0018e-05
-0.0028395 -0.010363 0.0074035 0.034331 0.016224 0.30985 -0.00058327 -3.1916e-05
0.0023163 -0.0014015 0.0014845 0.0040865
-0.0019338 0.00056177 -4.0515e-05 0.0021563 -0.0005273 -0.00010864 -0.13696 0.24304
-0.017967 0.017986 -0.0060576 -0.0089091
0.0039153 0.005279 0.003713 0.00075581 0.0022458 -0.0013381 -0.01795 0.01813
-0.16592 0.15929 -0.024951 0.016287
-0.0037795 -0.0031568 0.002473 0.000179 0.0015444 0.0042253 -0.0061056 -0.0089805
-0.024836 0.016196 -0.19068 0.19374
920000000 -0.10422 0.26335 0.0045018 0.038189 -0.0092181 -0.005101 -0.0020042 0.0016346
0.00090335 0.0022145 0.0029369 -0.001406
0.004502 0.038181 -0.26584 0.30263 0.027957 0.02291 0.0013398 0.00139
0.0080141 -3.219e-05 0.0043152 -0.0026809
-0.0092901 -0.0050383 0.028061 0.022831 0.061234 0.31133 0.0019346 0.00018699
0.0010914 -0.00021601 0.0010309 -0.0012297
-0.0020636 0.0017318 0.0013418 0.0013958 0.0019539 0.00014871 -0.11277 0.25902
-0.01103 0.030659 0.0038212 -0.006549
0.0009082 0.002203 0.0080421 4.3688e-05 0.0011495 -0.0001945 -0.010883 0.030699
-0.15528 0.16409 -0.00048676 0.02651
0.0029679 -0.0013273 0.0044252 -0.0026977 0.00099935 -0.0011963 0.0039304 -0.0067957
-0.00044657 0.026768 -0.19743 0.20595
980000000 -0.057744 0.28407 0.016746 0.03011 -0.0095148 0.0041626 0.0017635 0.0036685
0.00423 -0.0017955 -0.0028532 -0.002566
0.016702 0.030082 -0.21297 0.33743 0.033289 0.0055218 0.0021283 -4.6305e-05
0.002033 -0.0063619 -0.00021448 -0.0025367
-0.0095049 0.0042078 0.033359 0.0054181 0.10698 0.30592 0.00070376 -0.0011949
0.00064209 -0.0020273 0.0015999 -0.00019045
0.0017918 0.003701 0.0021406 -0.00011024 0.00074345 -0.0011749 -0.07429 0.26984
0.0074012 0.029381 -0.0092509 -0.0074864
0.0041242 -0.0018132 0.0017937 -0.0063336 0.00056115 -0.0020382 0.0075959 0.02947
-0.12145 0.19431 0.0059466 0.018837
-0.0028367 -0.0025147 -0.00020317 -0.0024803 0.0016073 -0.0001837 -0.0090656 -0.0074943
0.0057077 0.018578 -0.15598 0.25054
1040000000 -0.01644 0.2928 0.032845 0.019133 -0.001695 0.0069842 0.0026634 0.00074221
0.00033337 -0.0033426 -0.00046334 -0.0017656
0.032706 0.019141 -0.17801 0.35097 0.030096 -0.014421 0.0017332 -0.0017315
-0.0020472 -0.0027419 -0.0010594 -0.0028546
-0.0016449 0.0069722 0.030075 -0.014537 0.15288 0.29302 -0.00041749 -0.0016665
-0.0016609 -0.0010557 -0.00058392 -0.0011195
0.0026297 0.00078092 0.0017786 -0.0017594 -0.00043044 -0.0016767 -0.047376 0.27929
0.019126 0.018908 -0.0026427 0.00070264
0.00029375 -0.0034617 -0.0020991 -0.0027219 -0.001632 -0.001044 0.019097 0.018909
-0.088956 0.20102 0.014478 0.018784
-0.00030659 -0.001619 -0.0010579 -0.0028159 -0.0005605 -0.0010974 -0.0026501 0.0008574
0.014423 0.018716 -0.13295 0.27042
1100000000 0.028254 0.30218 0.036415 -0.0033988 0.0027151 0.0041809 0.0024279 -0.00089327
-0.0021214 -0.00316 -0.0038859 8.3822e-05
0.036383 -0.0033566 -0.13519 0.36913 0.01602 -0.027938 9.0188e-05 -0.0018533
-0.0036595 -0.001043 -0.003613 -0.00054567
0.0027699 0.0041965 0.015966 -0.028039 0.19888 0.27393 -0.0019198 3.6446e-06
-0.0018344 0.00044941 -0.001131 -0.00041411
0.002458 -0.00094529 5.4138e-05 -0.0018389 -0.001947 3.1046e-05 -0.0075736 0.28459
0.024623 0.0055585 -0.0024492 0.0001629
-0.0021142 -0.0031156 -0.003714 -0.0010295 -0.0018629 0.00045538 0.024568 0.005467
-0.067956 0.21427 0.019319 0.0088132
-0.0038812 8.6717e-05 -0.0036023 -0.00056873 -0.0011452 -0.00042226 -0.0025064 0.00021421
0.019331 0.008789 -0.086753 0.3008
1160000000 0.07925 0.29853 0.024563 -0.020492 0.0027421 -0.00040849 -5.5841e-05 -0.0023299
-0.0039541 -0.00094365 -0.0010707 0.0041833
0.024519 -0.020415 -0.091923 0.37394 -0.0031263 -0.02966 -0.0016299 -0.0017212
-0.0029623 0.0025803 -0.0014307 0.0018778
0.0027294 -0.00042414 -0.0032755 -0.029685 0.2423 0.24397 -0.00087204 0.0017907
-0.00065736 0.0020532 -0.0008662 0.00041604
-6.8589e-05 -0.0023215 -0.001693 -0.0016922 -0.00083263 0.0018169 0.031548 0.28211
0.021299 -0.010197 -0.0033924 0.0052452
-0.0039588 -0.00087029 -0.0029452 0.0025528 -0.00065651 0.0020726 0.021275 -0.010276
-0.033439 0.22154 0.018705 -0.00070851
-0.00099527 0.0041289 -0.0015497 0.0018753 -0.00087834 0.00043543 -0.0033746 0.0051819
0.01869 -0.00069654 -0.040256 0.30269
1220000000 0.12317 0.28888 0.011113 -0.030183 -0.0016211 -0.00083229 0.00013135 -0.00095314
-0.0026176 0.0020847 0.0010758 0.0019995
0.011152 -0.03014 -0.048041 0.38729 -0.016912 -0.022083 -0.0026881 0.00048181
2.0831e-05 0.0032574 -0.00082543 0.0019622
-0.0016141 -0.00082804 -0.017013 -0.022027 0.2815 0.20558 0.00071394 0.0019001
0.00057562 0.0013034 0.00035675 0.00062367
0.00011878 -0.00098731 -0.0026869 0.00046322 0.00070887 0.0019084 0.071584 0.27399
0.011 -0.016946 0.0021013 0.0013664
-0.0026499 0.0021074 -2.7187e-05 0.003276 0.00058867 0.0013402 0.011005 -0.017009
-0.010203 0.2301 0.014053 -0.013288
0.0010485 0.001977 -0.00082025 0.0020092 0.000407 0.00064339 0.0021679 0.0013235
0.013988 -0.013256 -0.0088268 0.31763
1280000000 0.17367 0.26872 -0.0076799 -0.02892 -0.00205 0.0025912 -0.00083063 -0.0021889
-0.00086694 0.0032469 0.0025311 0.0013339
-0.0076483 -0.028895 -0.0020096 0.37954 -0.024297 -0.0091529 -0.0010874 0.0014524
0.0017577 0.0018646 0.00063864 0.0020475
-0.0020423 0.0025837 -0.024401 -0.0090317 0.31234 0.16241 0.0016831 0.00011094
0.001288 0.00025107 0.00039241 0.00015674
-0.00083473 -0.002181 -0.0010646 0.0014755 0.0016865 0.00012751 0.10868 0.25831
0.0012453 -0.019488 -0.00019503 0.00031891
-0.00082868 0.0032675 0.0017329 0.0018509 0.0012977 0.00026522 0.0012193 -0.019442
0.026025 0.23351 0.0030425 -0.015638
0.0025175 0.0013226 0.00064226 0.0021393 0.00039215 0.0001035 -0.00019638 0.00036703
0.0029953 -0.015641 0.0382 0.31997
1340000000 0.21132 0.23596 -0.01761 -0.019245 0.00081788 0.0049032 -0.0018493 -0.00092575
0.0014519 0.0027661 0.0019342 -0.0013411
-0.017555 -0.019249 0.037795 0.37213 -0.022229 0.004074 -0.00015208 0.0020717
0.0021311 0.00082295 0.0012763 0.00071507
0.00083164 0.0048871 -0.02223 0.00418 0.33468 0.11531 0.0012252 -0.00093539
0.00064389 -0.00056589 0.00011684 0.00014111
-0.0018483 -0.00092798 -0.00012806 0.002091 0.0012392 -0.00096102 0.14204 0.23759
-0.0083266 -0.016892 0.00063378 0.00060269
0.0014712 0.0027832 0.0021515 0.00082836 0.00068281 -0.00058056 -0.008411 -0.016901
0.055965 0.22899 -0.0041538 -0.014258
0.0019554 -0.0013489 0.0012337 0.0007222 0.00011624 0.00014651 0.00064415 0.00061552
-0.0041399 -0.014253 0.07614 0.31486
1400000000 0.2453 0.19894 -0.023599 -0.0076086 0.00554 0.0035038 -0.0022917 0.00063561
0.00241 0.0010543 0.0003794 -0.0016295
-0.023567 -0.0076035 0.07541 0.36005 -0.015545 0.012687 0.001404 0.0013441
0.001311 -0.00084778 0.0011965 0.00017071
0.0055478 0.0035001 -0.015508 0.012782 0.3482 0.062403 0.00013193 -0.0017155
7.7773e-05 -0.00048152 0.00028065 0.00027289
-0.0022857 0.00065337 0.0014147 0.0013453 0.00014239 -0.0016972 0.17175 0.20893
-0.014531 -0.01014 -0.00084396 -2.0785e-06
0.0024147 0.0010726 0.0013373 -0.00087537 0.00010608 -0.00048227 -0.014576 -0.010137
0.088824 0.22497 -0.010541 -0.009042
0.00039855 -0.0016024 0.0011875 0.00011814 0.00029778 0.00025144 -0.00089936 -1.8031e-05
-0.010514 -0.0090349 0.1202 0.30414
1460000000 0.26914 0.15537 -0.020508 0.0048276 0.0061052 -0.0017524 -0.0016072 0.0018224
0.002138 -0.00042011 -0.00032692 -0.0011151
-0.020481 0.0048009 0.1105 0.33863 -0.0063688 0.016049 0.001733 0.00014085
0.0008606 -0.0014666 0.0012727 -0.00061796
0.0060773 -0.0017803 -0.0062696 0.016087 0.35516 0.0086337 -0.0012376 -0.0014095
0.00015504 -0.00023682 0.00073489 -0.00027636
-0.0015956 0.001825 0.0017548 0.00014233 -0.0012645 -0.0013851 0.19888 0.17944
-0.015945 -0.0033967 -0.00084377 0.0021649
0.0021721 -0.000415 0.00085145 -0.0014633 0.00017563 -0.00020833 -0.015973 -0.0033799
0.11846 0.21115 -0.012332 -0.0028701
-0.0003602 -0.0011234 0.0012424 -0.00060335 0.00071565 -0.00024066 -0.00082426 0.0021476
-0.012344 -0.0028858 0.15381 0.28346
1520000000 0.28197 0.1137 -0.014812 0.010288 0.0035771 -0.0044751 0.00016369 0.0026669
0.0021817 -0.0019073 -0.0012154 -0.00019131
-0.014823 0.010267 0.14445 0.32423 0.0016876 0.013667 0.0016763 -0.00082964
-2.39e-05 -0.0011366 0.00036406 -0.0010914
0.0035644 -0.0044857 0.0017452 0.013667 0.34882 -0.047419 -0.0011556 -0.00032661
0.00069496 -0.00086658 4.7211e-05 -0.00022562
0.00017893 0.0026541 0.0016647 -0.00083817 -0.0011813 -0.00035921 0.22221 0.14081
-0.015382 0.0026975 0.0017083 0.0022584
0.0021783 -0.0019251 -3.8125e-05 -0.0011348 0.00071784 -0.00085286 -0.015368 0.0027297
0.1468 0.19807 -0.012195 0.0018449
-0.0012209 -0.00022312 0.00034843 -0.0011054 5.6495e-05 -0.00023322 0.0016744 0.0022352
-0.012204 0.0018117 0.18657 0.26307
1580000000 0.29231 0.067696 -0.0080211 0.01351 -0.00096307 -0.0052464 0.0015391 0.0019434
-0.00014617 -0.0022121 -0.00027898 0.00048144
-0.008011 0.013503 0.17227 0.29978 0.0056409 0.0085854 0.00048777 -0.0015967
-0.00060495 -0.0010243 -0.00014647 -0.00093065
-0.00095678 -0.005271 0.0057099 0.0085528 0.32966 -0.10501 -0.0017057 0.00062143
-0.00032098 -0.0012536 0.00037812 -0.00065861
0.0015637 0.0019666 0.00048365 -0.0016128 -0.0016857 0.00066836 0.23616 0.10119
-0.011811 0.0077526 0.0024047 0.00070151
-0.00017391 -0.0022452 -0.0006123 -0.0010202 -0.00035035 -0.001241 -0.011811 0.007808
0.17147 0.18083 -0.0094488 0.0075586
-0.00030404 0.00046376 -0.00012994 -0.0008996 0.00033621 -0.00064477 0.0024362 0.0007252
-0.0094613 0.0075652 0.21799 0.2366
1640000000 0.29495 0.026291 -0.0012901 0.012257 -0.002999 -0.0028378 0.002798 0.001025
-0.00077353 -0.0016505 -0.00033453 0.00068182
-0.0013046 0.012265 0.20236 0.2748 0.0063809 0.0034718 -0.00062269 -0.0017655
-0.0010268 -0.00037304 -0.00055313 -0.00068617
-0.0029841 -0.002828 0.0063765 0.0034541 0.30156 -0.15453 -0.00067607 0.0015469
-0.0010918 -0.00094931 -0.00024949 -0.0003573
0.0027668 0.0010013 -0.00063541 -0.0017774 -0.00069849 0.0015449 0.2487 0.051798
-0.0074486 0.0093069 0.0026578 -0.00083312
-0.00078242 -0.0016809 -0.0010261 -0.00036971 -0.0011172 -0.00094231 -0.0074348 0.0093323
0.19533 0.15687 -0.0046625 0.0097247
-0.00035249 0.00067852 -0.00055683 -0.00071485 -0.0002123 -0.00032864 0.0026063 -0.0008764
-0.0046501 0.0097215 0.24385 0.20577
1700000000 0.28786 -0.019178 0.0021039 0.0093974 -0.0038445 -5.6322e-05 0.0031811 -0.0012672
-0.002022 -0.00070185 0.00062142 0.0004488
0.002081 0.0093918 0.22069 0.24336 0.0042306 0.00029713 -0.0014911 -0.00058028
-0.00079917 4.7933e-05 -0.00095074 -0.00053081
-0.0038373 -4.2169e-05 0.0042245 0.00026831 0.25836 -0.19442 0.00048902 0.0016685
-0.0020739 -8.633e-05 -0.0004339 -0.00090261
0.0031789 -0.0012371 -0.0014975 -0.00057639 0.00045695 0.0016192 0.24509 0.0016723
-0.0043712 0.009887 0.0015923 -0.0023665
-0.0020632 -0.00066073 -0.00078071 4.1347e-05 -0.002056 -0.00011549 -0.0043507 0.0098984
0.21303 0.13673 7.8831e-05 0.0098623
0.00065846 0.00044538 -0.00098838 -0.00050862 -0.00053388 -0.00089993 0.0016188 -0.0023636
8.0923e-05 0.009874 0.26024 0.17173
1760000000 0.27642 -0.067755 0.0044581 0.0060859 -0.0024898 0.0010049 0.0013197 -0.0034866
-0.0014473 0.00067426 0.00030529 -0.00055028
0.0044483 0.0060796 0.24721 0.20361 0.0017635 -0.0017192 -0.0012405 0.00016138
-0.0010899 0.00090282 -0.00067254 0.00041244
-0.002527 0.0010551 0.001749 -0.001687 0.21035 -0.22786 0.0010986 0.00099967
-0.0013829 0.0015152 -0.0012951 -0.00058147
0.0012809 -0.0035094 -0.001251 0.0001638 0.0011255 0.0010176 0.23589 -0.049812
-0.00092962 0.0089401 -0.00013174 -0.0024914
-0.0014697 0.00069194 -0.001084 0.00090958 -0.0013557 0.0015569 -0.00094832 0.0089432
0.22855 0.10212 0.0039773 0.0075484
0.00031427 -0.00051823 -0.00068466 0.00039969 -0.0012473 -0.00058069 -0.00018184 -0.0025227
0.0039729 0.0075353 0.27322 0.13469
1820000000 0.25206 -0.10524 0.004486 0.0024752 -0.00028555 0.0025634 -0.0010441 -0.00318
-0.0011761 0.00096401 -0.00012208 -0.00020942
0.0044942 0.0024803 0.25747 0.1732 -0.00072439 -0.00049457 -0.0013169 0.00096515
-6.172e-05 0.0012434 -0.00058647 0.0005859
-0.00027208 0.0025419 -0.00074187 -0.00050505 0.15937 -0.24396 0.001666 0.00046549
-6.6898e-05 0.0024516 -0.0013318 0.00048307
-0.0010239 -0.0031314 -0.0013245 0.00096119 0.0016604 0.00032273 0.20556 -0.097259
0.00079722 0.0074139 -0.0016365 -0.0016046
-0.0011646 0.0010312 -6.1815e-05 0.0012421 -4.9545e-05 0.0024009 0.00086019 0.007457
0.24613 0.073048 0.0050853 0.0038438
-9.1526e-05 -0.00022366 -0.0005751 0.00056724 -0.0013323 0.00040888 -0.0016212 -0.0015879
0.0050814 0.00384 0.27554 0.098367
1880000000 0.21715 -0.14579 0.0022254 9.61e-05 -0.00068362 0.0023249 -0.0029398 -0.0022972
-0.00021916 0.0018582 -5.8055e-05 -0.00059955
0.0022121 0.0001031 0.26206 0.12669 -0.002782 0.0015533 -0.00022447 0.0017475
0.00050705 0.0013301 3.002e-05 0.00095396
-0.00064596 0.0023039 -0.0027707 0.001545 0.10721 -0.25288 0.0018101 -0.0010375
0.0016163 0.0018953 -0.0010275 0.0012806
-0.0030012 -0.0023211 -0.00021979 0.0017332 0.0018504 -0.0010172 0.16479 -0.13726
0.0017112 0.0051777 -0.0022874 0.0001259
-0.00020931 0.0018466 0.00052676 0.0013353 0.0016031 0.001931 0.0017238 0.0051524
0.25037 0.041611 0.0054837 0.0013392
-6.9606e-05 -0.00062903 7.7398e-05 0.00097713 -0.00095878 0.0013589 -0.0022647 0.00010457
0.005481 0.0013344 0.27607 0.064335
1940000000 0.17788 -0.17174 -0.00025799 -0.0014562 0.0013476 0.0023257 -0.0038817 0.00039569
0.0013181 0.0010396 -0.00054822 -0.0005433
-0.00023388 -0.0014305 0.26285 0.094618 -0.0016258 0.0041666 0.0010165 0.0013091
0.0018878 0.00053275 0.0010448 0.00038816
0.0013828 0.0023214 -0.0015599 0.0042015 0.062096 -0.24572 0.00042427 -0.0022643
0.0023893 0.00028887 0.00048333 0.0015733
-0.0038747 0.00039005 0.0010137 0.0012864 0.00044771 -0.0022385 0.11211 -0.16779
0.00086886 0.0036529 -0.0016053 0.0013148
0.0013276 0.0010213 0.0019049 0.00047372 0.002426 0.00024375 0.00080548 0.0036474
0.25371 0.0030515 0.0041651 -0.0021743
-0.00068162 -0.00052618 0.0010995 0.00033192 0.0004681 0.001498 -0.0016906 0.001354
0.0041571 -0.002186 0.26555 0.028253
2000000000 0.13135 -0.18644 -0.0041603 0.00074793 0.002702 0.0016302 -0.002343 0.0039199
0.0012396 0.00048011 -0.00050378 0.00059465
-0.0041561 0.00069497 0.24842 0.059033 -0.00098477 0.0060473 0.0016427 0.00057722
0.0013874 -0.001049 0.00059059 0.00012197
0.0027065 0.0016146 -0.00096263 0.006041 0.01879 -0.23197 -0.0011498 -0.0013092
0.0021702 -0.0011308 0.001728 0.0014725
-0.0023728 0.0039277 0.0016623 0.00055946 -0.001166 -0.0012879 0.058519 -0.17736
-0.00063915 0.0034215 -0.00015426 0.0022646
0.001244 0.0003872 0.0013701 -0.0010448 0.0020977 -0.0011386 -0.00060528 0.0034102
0.24872 -0.030187 0.00087475 -0.0031223
