!Keysight Technologies,M9804A,MY58100912,A.14.10.03
!Date: Thursday, April 27, 2023 10:28:33
!Correction: S11(C  6-Port  ) 
!S12(C  6-Port  ) 
!S13(C  6-Port  ) 
!S14(C  6-Port  ) 
!S15(C  6-Port  ) 
!S16(C  6-Port  ) 
!S21(C  6-Port  ) 
!S22(C  6-Port  ) 
!S23(C  6-Port  ) 
!S24(C  6-Port  ) 
!S25(C  6-Port  ) 
!S26(C  6-Port  ) 
!S31(C  6-Port  ) 
!S32(C  6-Port  ) 
!S33(C  6-Port  ) 
!S34(C  6-Port  ) 
!S35(C  6-Port  ) 
!S36(C  6-Port  ) 
!S41(C  6-Port  ) 
!S42(C  6-Port  ) 
!S43(C  6-Port  ) 
!S44(C  6-Port  ) 
!S45(C  6-Port  ) 
!S46(C  6-Port  ) 
!S51(C  6-Port  ) 
!S52(C  6-Port  ) 
!S53(C  6-Port  ) 
!S54(C  6-Port  ) 
!S55(C  6-Port  ) 
!S56(C  6-Port  ) 
!S61(C  6-Port  ) 
!S62(C  6-Port  ) 
!S63(C  6-Port  ) 
!S64(C  6-Port  ) 
!S65(C  6-Port  ) 
!S66(C  6-Port  ) 
!S6P File: Measurement: :
# Hz S  RI   R 50
500000000 -0.3394 -0.017253 -0.010901 -0.0030078 -0.0070749 0.012712 -0.0031734 0.012062
0.011185 0.0038567 -0.0027766 0.0083451
-0.010884 -0.0029972 -0.41944 -0.035682 0.0064505 -0.011785 0.001959 0.012568
0.0065846 0.0023243 0.0019884 0.013875
-0.0070638 0.012703 0.0064225 -0.011774 -0.26249 0.22294 0.0072628 0.0036556
-0.00084576 0.0083724 0.0023313 0.012367
-0.0031651 0.012055 0.0019579 0.012583 0.0072671 0.0036635 -0.33025 0.063218
-0.019055 -0.0065078 0.015253 0.023635
0.011251 0.0036987 0.0065382 0.0024134 -0.00078973 0.008498 -0.019122 -0.0064489
-0.23702 -0.1633 -0.024825 0.0042102
-0.0027365 0.0083903 0.0019923 0.013923 0.0023505 0.012385 0.01526 0.023635
-0.02473 0.004117 -0.28529 -0.078693
560000000 -0.31159 0.13768 -0.026942 -0.060475 0.00094659 0.011371 0.0053524 0.0097219
0.0090647 0.0040563 0.010498 0.0062491
-0.026923 -0.060437 -0.37543 0.11824 -0.042149 -0.034512 0.013791 0.0032634
-0.012703 -0.0037997 0.0027893 -0.00087471
0.00096746 0.01136 -0.042192 -0.034436 -0.18011 0.26766 -0.0005759 -0.0044243
0.018988 0.0034305 0.0070296 -0.0065624
0.0053831 0.0097201 0.013792 0.0032231 -0.00055683 -0.0044305 -0.30392 0.1487
0.00049694 -0.024293 0.0032636 -0.018022
0.0090127 0.0040638 -0.012622 -0.0037101 0.018916 0.003388 0.00046731 -0.024299
-0.28688 0.0096408 0.002827 -0.046675
0.010526 0.0062217 0.0027819 -0.00088974 0.0070396 -0.0065616 0.003265 -0.018039
0.0029489 -0.046791 -0.32989 0.060341
620000000 -0.26974 0.12342 -0.023395 0.0071305 0.0036372 0.0079226 0.0077521 -0.0057754
0.010564 -0.00099632 0.0011407 -0.0026051
-0.023359 0.0071188 -0.40128 0.074233 -0.019475 0.00043302 -0.00099222 -0.0022621
0.010026 -0.0062773 0.0013669 -0.0030248
0.0036405 0.0079009 -0.01949 0.00045467 -0.14877 0.27738 -0.0013003 -0.0046007
-0.0031509 -0.002617 0.0082409 -0.004078
0.0077375 -0.0057628 -0.0010023 -0.0022639 -0.0013102 -0.0046023 -0.26238 0.16059
-0.039174 -0.017444 0.012263 0.022668
0.010616 -0.00098593 0.0099912 -0.0063743 -0.0031961 -0.0028911 -0.039205 -0.017399
-0.21032 -0.027711 -0.038668 0.014944
0.0011202 -0.002582 0.0013541 -0.0030378 0.0082508 -0.004097 0.012284 0.022677
-0.038521 0.014964 -0.25597 0.032584
680000000 -0.2272 0.20494 -0.027932 -0.01187 0.0053749 0.0044497 0.0013216 -0.0071955
-0.0029767 -0.011104 0.0037303 -0.0067784
-0.027914 -0.011875 -0.38417 0.16814 -0.032136 0.00056937 -0.0014901 -0.00049141
-0.0024948 -0.008821 -0.0015757 -0.0021159
0.0053898 0.0044503 -0.032146 0.00060679 -0.098024 0.29476 -0.00090772 -0.00036825
-0.001777 4.0588e-06 -0.0037401 -0.0084563
0.0013217 -0.007203 -0.0014929 -0.00049024 -0.00090628 -0.00035863 -0.21662 0.20751
-0.025704 -0.0053888 -0.0088903 -0.0082311
-0.0029543 -0.011203 -0.0024691 -0.0088024 -0.001783 8.6793e-05 -0.025667 -0.0053419
-0.24927 0.068461 -0.007143 -0.0066771
0.0037101 -0.0067629 -0.0015788 -0.0021151 -0.0037486 -0.0084487 -0.0088887 -0.0082476
-0.0070918 -0.0066651 -0.25282 0.1275
740000000 -0.18374 0.20001 -0.036701 0.026301 0.011795 -0.0059176 -0.00076002 -0.0039596
-0.0049499 -0.0025903 -0.0058407 0.0034364
-0.036718 0.026273 -0.33265 0.1878 -0.032405 0.035003 -0.001077 -0.0061787
-0.011373 0.0081943 -0.0017212 -0.0049197
0.011785 -0.0059223 -0.032353 0.035063 -0.064374 0.29447 -0.0017749 0.0030057
-0.0032512 -0.0044758 -0.0019227 0.0011607
-0.00076121 -0.0039664 -0.0010737 -0.0061752 -0.0017703 0.0030053 -0.19855 0.21663
-0.041902 -0.0033596 0.021717 0.012059
-0.0051786 -0.0027379 -0.011257 0.0081712 -0.0033009 -0.0044931 -0.041905 -0.0033609
-0.15718 0.089697 -0.037876 0.0028701
-0.0058291 0.0034584 -0.0017194 -0.004927 -0.0019284 0.0011503 0.02172 0.012057
-0.037865 0.0028627 -0.24143 0.13735
800000000 -0.15005 0.23694 -0.021418 0.017683 0.0043714 -0.01039 -0.0044005 -0.0015932
-0.0037758 0.0030246 0.0037631 0.00092602
-0.021415 0.017653 -0.33235 0.25603 -0.0065452 0.033521 -0.0023339 0.0023349
-0.00055041 0.0034121 0.0011038 0.0052906
0.0043529 -0.01038 -0.0064781 0.033538 -0.021508 0.31594 0.00087574 0.0015824
0.00038877 0.0036587 -0.0017947 0.0012222
-0.0043992 -0.0015924 -0.0023363 0.0023394 0.00088216 0.0015769 -0.16835 0.24256
-0.026638 0.016206 0.012333 -0.0099943
-0.0037044 0.0031244 -0.000593 0.0034322 0.00043689 0.0036438 -0.026634 0.016314
-0.19381 0.11645 -0.015473 0.018618
0.0037369 0.00088901 0.0011029 0.0053076 -0.0017948 0.0012335 0.012319 -0.010005
-0.015571 0.018588 -0.228 0.18233
860000000 -0.11498 0.2566 -0.015555 0.030875 -0.003835 -0.0093435 -0.0020791 0.0012102
0.0048157 0.0047062 -0.0024868 -0.0024139
-0.015573 0.030837 -0.28489 0.29671 0.0093019 0.032887 0.00039555 0.0020251
0.0050109 0.00017002 0.0032144 0.00059636
-0.0038547 -0.0093277 0.0093703 0.032884 0.026807 0.32272 -0.00027951 -1.1591e-05
0.0025888 -0.0013179 0.0017376 0.0040709
-0.0020613 0.0012168 0.00040568 0.0020212 -0.00028334 -1.2654e-05 -0.13175 0.25322
-0.014954 0.020579 -0.0055694 -0.0090362
0.004798 0.0046987 0.0050668 8.0789e-05 0.0026388 -0.0013328 -0.014929 0.020663
-0.1411 0.16037 -0.021264 0.01647
-0.0025015 -0.0024232 0.0032101 0.00059528 0.001742 0.0040661 -0.0055602 -0.0090417
-0.021333 0.016453 -0.17866 0.22163
920000000 -0.088256 0.27811 0.0064474 0.036441 -0.0092206 -0.00384 -0.0014403 0.0017801
0.0016499 0.0012988 0.0027293 -0.0018819
0.0064047 0.036392 -0.2544 0.31711 0.028183 0.019895 0.0017967 0.00083792
0.0069434 -0.00098977 0.0032744 -0.0030478
-0.0092211 -0.0038276 0.028259 0.019844 0.074395 0.32257 0.001974 -0.00019775
0.0015937 -0.00080461 0.00070267 -0.0012131
-0.001432 0.0017768 0.001788 0.00081806 0.0019702 -0.00019267 -0.10548 0.26897
-0.0070857 0.030201 0.0020318 -0.0062479
0.0017034 0.0013242 0.0069631 -0.0010077 0.0016001 -0.00080533 -0.0070765 0.030245
-0.1282 0.16665 -0.00067248 0.025085
0.0027328 -0.001898 0.0032642 -0.0030481 0.00069078 -0.0012144 0.0020251 -0.0062448
-0.00071173 0.025077 -0.17741 0.2374
980000000 -0.041255 0.29589 0.018597 0.028256 -0.0083369 0.0047542 0.0019491 0.0030066
0.0037221 -0.0019336 -0.0031877 -0.001864
0.018566 0.028221 -0.20243 0.34926 0.032254 0.0030085 0.0019798 -0.00027027
0.001375 -0.0061195 -0.00060472 -0.0023151
-0.0083198 0.0047548 0.032297 0.002963 0.12101 0.31435 0.00043742 -0.0013017
3.0475e-05 -0.0022123 0.0013608 -0.00018035
0.001961 0.0030075 0.0019756 -0.00029287 0.00043779 -0.0013011 -0.06667 0.27833
0.010438 0.028114 -0.0083582 -0.0056735
0.003715 -0.0019285 0.0013724 -0.0061306 5.5736e-05 -0.0022283 0.010511 0.028144
-0.096614 0.1911 0.0062759 0.018339
-0.0031754 -0.0018624 -0.0006249 -0.0023026 0.0013647 -0.00018145 -0.0083638 -0.005661
0.0062721 0.018338 -0.13309 0.27435
1040000000 0.0020945 0.30306 0.032877 0.015627 -0.0010321 0.0066031 0.0024311 0.00057489
-4.3247e-05 -0.0031253 -0.00076368 -0.0012551
0.032817 0.015615 -0.16644 0.36237 0.027428 -0.015681 0.0013666 -0.0016721
-0.0025055 -0.0023537 -0.0016095 -0.0026397
-0.0010313 0.0065904 0.027428 -0.015751 0.16762 0.29957 -0.0006527 -0.0014099
-0.0016137 -0.000784 -0.00047941 -0.0010449
0.0024308 0.00058092 0.0013509 -0.0016904 -0.00066097 -0.0014088 -0.037405 0.28739
0.020754 0.015425 -0.0027329 0.0013494
-7.2616e-05 -0.0031059 -0.0024849 -0.0023664 -0.0016068 -0.00079712 0.020831 0.015408
-0.064346 0.19737 0.013738 0.015565
-0.00075394 -0.0012718 -0.0016266 -0.0026294 -0.00048391 -0.0010431 -0.0027262 0.0013586
0.013738 0.015551 -0.10742 0.29385
1100000000 0.047605 0.30875 0.034242 -0.0059845 0.0027197 0.0035902 0.0023077 -0.0011272
-0.0020816 -0.0026819 -0.00352 0.00046
0.034212 -0.0059671 -0.12279 0.37818 0.013242 -0.027459 -8.0362e-05 -0.0017949
-0.0032964 -0.0004506 -0.0032807 -0.00024247
0.0027075 0.0035721 0.013196 -0.027503 0.21441 0.27708 -0.001767 0.00024533
-0.0017065 0.00069763 -0.00085064 -0.00020445
0.0022984 -0.0011147 -9.0626e-05 -0.0018071 -0.0017726 0.00023564 0.0040316 0.28975
0.024301 0.0022062 -0.0023712 0.0002169
-0.0020735 -0.0027156 -0.0032893 -0.00046114 -0.0017095 0.0006927 0.024353 0.0022013
-0.044804 0.20888 0.018288 0.0060366
-0.003507 0.00046517 -0.0032864 -0.00022687 -0.00084973 -0.00020698 -0.002365 0.00021973
0.018287 0.0060245 -0.060404 0.3167
1160000000 0.098385 0.30244 0.021796 -0.021428 0.0023329 -0.00030736 -5.7438e-05 -0.0021619
-0.0038592 -0.0004822 -0.00056499 0.003735
0.021781 -0.021416 -0.078468 0.38177 -0.0050452 -0.027802 -0.0016446 -0.0015084
-0.0025101 0.002486 -0.0012384 0.0017559
0.0023239 -0.00032395 -0.0051088 -0.027818 0.2566 0.24443 -0.00068789 0.0017776
-0.0003846 0.0018973 -0.00074623 0.00013139
-5.7352e-05 -0.0021522 -0.001663 -0.0015136 -0.00069147 0.0017757 0.043465 0.28452
0.019637 -0.012598 -0.0029658 0.004461
-0.0038475 -0.0004742 -0.0024812 0.0024884 -0.00039565 0.0018798 0.019669 -0.012664
-0.011485 0.21571 0.016565 -0.0020584
-0.00055077 0.0037333 -0.0012463 0.0017569 -0.00074935 0.00012905 -0.0029641 0.0044635
0.016554 -0.0020687 -0.013791 0.3171
1220000000 0.14317 0.28916 0.0081136 -0.029315 -0.0015271 -0.00036298 7.5798e-05 -0.0010028
-0.0023599 0.0023248 0.0013589 0.0018019
0.0081239 -0.029298 -0.034244 0.39226 -0.017133 -0.019474 -0.0024125 0.00046934
0.00022076 0.002801 -0.00047571 0.0018529
-0.001531 -0.00036531 -0.01719 -0.019445 0.29512 0.20406 0.00084864 0.001741
0.00067641 0.0011391 0.00030796 0.00048721
7.5049e-05 -0.00099108 -0.0024109 0.00046863 0.00084749 0.001735 0.083714 0.27362
0.0086108 -0.018233 0.0015084 0.0014696
-0.00236 0.0023203 0.00022091 0.002823 0.00067125 0.0011468 0.0086205 -0.018317
0.01281 0.22257 0.011366 -0.013282
0.0013642 0.0017888 -0.00047436 0.0018583 0.00030996 0.00049461 0.0015062 0.0014577
0.011374 -0.013284 0.020095 0.3282
1280000000 0.19168 0.26535 -0.0091974 -0.026744 -0.0014643 0.0027875 -0.00099433 -0.0019817
-0.00057554 0.0028642 0.0023287 0.00080147
-0.0091752 -0.026732 0.011347 0.38226 -0.023085 -0.0072575 -0.00092475 0.0013939
0.0017093 0.0015703 0.00074679 0.0016715
-0.001456 0.0028029 -0.023139 -0.0071913 0.32443 0.15892 0.0016281 -6.7445e-05
0.0011109 0.00012882 0.00021791 0.0001957
-0.00099221 -0.0019723 -0.00092134 0.0013963 0.001628 -6.1406e-05 0.11943 0.25447
-0.0009993 -0.019349 -0.00038429 0.00043478
-0.00054703 0.0028547 0.0017348 0.0015705 0.0011002 0.00013791 -0.0010394 -0.019409
0.049073 0.22355 0.0011698 -0.014785
0.0023208 0.00080737 0.00075231 0.0016731 0.00021709 0.00019002 -0.00039152 0.00043774
0.0011713 -0.014786 0.065646 0.32536
1340000000 0.22809 0.23021 -0.017934 -0.016884 0.0014025 0.0042534 -0.0017152 -0.00086511
0.001446 0.002439 0.0014128 -0.001449
-0.017904 -0.016892 0.050682 0.373 -0.020493 0.0049652 -0.0001182 0.0019728
0.001864 0.00056773 0.0012907 0.00063135
0.0014059 0.0042532 -0.020511 0.005025 0.34517 0.11059 0.0011415 -0.0010108
0.00059017 -0.00049591 5.7186e-05 0.00025254
-0.0017128 -0.00085952 -0.00011601 0.0019732 0.0011492 -0.0010139 0.15077 0.23236
-0.010015 -0.015709 0.00067399 0.0010645
0.0014525 0.0024134 0.0018722 0.00057062 0.00056922 -0.00050924 -0.010082 -0.015763
0.078715 0.21708 -0.0052245 -0.012547
0.0014088 -0.0014553 0.001303 0.00062283 5.4927e-05 0.00025689 0.00066176 0.0010765
-0.0052233 -0.012564 0.10447 0.31688
1400000000 0.25983 0.19067 -0.022454 -0.0057317 0.0052586 0.0025813 -0.0021182 0.00064812
0.0022885 0.00075064 0.00014028 -0.0013247
-0.022425 -0.005753 0.087389 0.35916 -0.013649 0.012342 0.0013009 0.001291
0.0010838 -0.00085281 0.0010642 0.00010082
0.0052658 0.0025818 -0.013645 0.012404 0.35769 0.056643 9.3302e-05 -0.0018054
4.8372e-05 -0.00035096 0.00033322 0.00018135
-0.0021266 0.00065551 0.0013158 0.0012906 8.5298e-05 -0.0018102 0.17891 0.20142
-0.015304 -0.0088531 -0.00032708 0.0003175
0.0022923 0.00072793 0.0010936 -0.00086034 4.3689e-05 -0.0003579 -0.0154 -0.0088626
0.11098 0.21012 -0.010715 -0.0073619
0.00014362 -0.001324 0.0010735 0.00010449 0.00033426 0.00018204 -0.00033065 0.00032144
-0.010709 -0.0073812 0.1469 0.30182
1460000000 0.28112 0.14607 -0.019013 0.0055223 0.0053659 -0.0022809 -0.0015172 0.0017068
0.001943 -0.00065719 -0.00042986 -0.00082554
-0.018988 0.0055018 0.12115 0.33671 -0.0054112 0.014654 0.0017241 0.00013275
0.00073554 -0.0012645 0.0010294 -0.00056272
0.0053573 -0.0022912 -0.0053767 0.014697 0.36229 0.0020145 -0.0014706 -0.0012726
0.00010508 -0.00012788 0.00059157 -0.00028666
-0.0015269 0.0017061 0.001723 0.00012984 -0.0014544 -0.0012786 0.20283 0.17098
-0.016025 -0.0020567 -0.00020733 0.0020037
0.001937 -0.00066723 0.00072593 -0.0012804 0.00010136 -0.0001272 -0.016126 -0.0020145
0.13916 0.19365 -0.011657 -0.0015794
-0.00044205 -0.00081178 0.0010237 -0.00056865 0.00060277 -0.00029023 -0.00019876 0.0020181
-0.011653 -0.0015819 0.17861 0.27885
1520000000 0.29221 0.10338 -0.013179 0.010351 0.0028094 -0.0042493 0.00014828 0.0026389
0.0018466 -0.0016268 -0.0010355 -3.1614e-05
-0.013177 0.010334 0.15434 0.32129 0.0016965 0.0124 0.0016345 -0.0008443
-2.2773e-05 -0.00099401 0.00027406 -0.00090224
0.0028096 -0.00425 0.0017411 0.012418 0.35506 -0.054385 -0.0013193 -0.0002512
0.00053416 -0.00084685 2.2093e-06 -0.00013612
0.00015207 0.002633 0.0016395 -0.00085415 -0.0013198 -0.00024966 0.22381 0.13253
-0.014885 0.003568 0.0018817 0.0017191
0.0018506 -0.0016235 -4.0984e-05 -0.0010079 0.00052217 -0.00085601 -0.014955 0.0036628
0.16656 0.17779 -0.011177 0.0026241
-0.0010464 -3.0248e-05 0.00027864 -0.00090707 9.7234e-07 -0.00014073 0.0018971 0.0017244
-0.011169 0.0026233 0.21034 0.2552
1580000000 0.30001 0.056738 -0.0069218 0.012721 -0.0012016 -0.0045289 0.0015529 0.0018593
-0.00016858 -0.0020108 -0.00024519 0.00037069
-0.0069315 0.01271 0.18107 0.29579 0.0049909 0.0077659 0.00043067 -0.0016605
-0.00052762 -0.00093155 -0.00022337 -0.00077974
-0.0012132 -0.0045366 0.0050319 0.0077661 0.33411 -0.11213 -0.0016077 0.00093936
-0.00030887 -0.0010028 0.00020171 -0.0004936
0.0015568 0.0018592 0.00042037 -0.0016645 -0.0016035 0.00093651 0.23522 0.093052
-0.011376 0.0081777 0.0023786 0.00021099
-0.0001846 -0.0020054 -0.00052445 -0.0009221 -0.00033652 -0.0010005 -0.011389 0.0082957
0.18953 0.1576 -0.008559 0.0075258
-0.00024854 0.00036948 -0.00022882 -0.00078344 0.00019617 -0.00050027 0.002387 0.00020885
-0.0085456 0.0075245 0.23955 0.22621
1640000000 0.30068 0.015173 -0.00082737 0.011314 -0.002704 -0.0022988 0.0028042 0.00084408
-0.00073206 -0.001438 -0.0002128 0.00052307
-0.00083278 0.011319 0.21009 0.27013 0.0055754 0.0033564 -0.00081509 -0.0016659
-0.00099404 -0.00032465 -0.00051807 -0.00057181
-0.0027144 -0.0022998 0.0056003 0.0033532 0.30453 -0.16069 -0.0005039 0.0015704
-0.0011228 -0.00080188 -0.00020432 -0.00024532
0.0028111 0.00083182 -0.00082151 -0.0016628 -0.00050768 0.0015664 0.24516 0.045294
-0.0070495 0.0095636 0.0023461 -0.0011989
-0.00073547 -0.0014529 -0.0010013 -0.00031447 -0.0011537 -0.00079002 -0.007009 0.0096691
0.21067 0.13179 -0.0040154 0.0091819
-0.00021252 0.00052716 -0.00052195 -0.00057667 -0.00021042 -0.00023737 0.0023515 -0.0012104
-0.0040073 0.0091817 0.26309 0.1933
1700000000 0.292 -0.030412 0.002117 0.0085047 -0.0032944 0.00013455 0.0028959 -0.0014703
-0.00188 -0.00067927 0.00061414 0.00040633
0.0020988 0.0084978 0.22765 0.23816 0.0037498 0.00061254 -0.0014611 -0.00045998
-0.00070029 0.00014005 -0.00086232 -0.00041196
-0.0032908 0.00014136 0.003776 0.00059783 0.26102 -0.20028 0.00063269 0.0014498
-0.0017705 -0.00017973 -0.00051853 -0.00081456
0.0028904 -0.0014759 -0.0014605 -0.00045597 0.00063067 0.0014461 0.24058 -0.0030453
-0.0039694 0.0101 0.0012275 -0.0022909
-0.0018939 -0.00066147 -0.00069787 0.00015141 -0.0017635 -0.00016807 -0.00391 0.010173
0.22647 0.10987 0.00033943 0.0093758
0.0006226 0.00040487 -0.00087175 -0.00040309 -0.00052717 -0.00082041 0.0012289 -0.002306
0.00033995 0.0093765 0.27721 0.15742
1760000000 0.27828 -0.078768 0.0039412 0.0054349 -0.0021847 0.00086569 0.0009157 -0.0034852
-0.0013988 0.00065375 0.00046898 -0.0004769
0.0039287 0.0054372 0.25275 0.19754 0.0016388 -0.0012273 -0.0011712 0.00026339
-0.00092732 0.00082599 -0.00058839 0.00046983
-0.0021845 0.00088071 0.001649 -0.0012409 0.21216 -0.23391 0.0013368 0.00075627
-0.0011223 0.001524 -0.0013609 -0.00028282
0.00090145 -0.0034898 -0.0011706 0.00026482 0.0013429 0.00075651 0.23049 -0.052275
-0.00054083 0.0093063 -0.0005576 -0.0024335
-0.0013962 0.00065664 -0.00092387 0.00082914 -0.0011493 0.0015313 -0.00044829 0.0093498
0.23912 0.073459 0.0038206 0.0066542
0.00046555 -0.00048267 -0.00058393 0.00047549 -0.0013588 -0.00027339 -0.00056291 -0.0024436
0.0038211 0.0066501 0.28743 0.11871
1820000000 0.25216 -0.1155 0.0039091 0.0021905 -6.8592e-05 0.0023995 -0.001315 -0.0028142
-0.0010578 0.00099228 1.7274e-05 -0.00010383
0.0038959 0.0021902 0.26182 0.16739 -0.00031249 -7.4866e-05 -0.0011714 0.0009864
2.8177e-06 0.0012145 -0.00051095 0.00057762
-6.9277e-05 0.0023907 -0.00030227 -9.2827e-05 0.16121 -0.24904 0.001295 4.1603e-05
-0.00010449 0.0020917 -0.0013237 0.00050071
-0.0013229 -0.0028091 -0.0011721 0.00098702 0.0012788 4.4882e-05 0.20082 -0.0972
0.0012139 0.0075431 -0.0016658 -0.0013005
-0.0010586 0.0010244 -7.0991e-06 0.001207 -0.0001096 0.0020853 0.0013031 0.0075281
0.25416 0.043423 0.0047416 0.0033264
4.7202e-06 -0.00010908 -0.00051049 0.00057817 -0.0013305 0.00050005 -0.0016599 -0.0013078
0.0047514 0.0033277 0.28746 0.081468
1880000000 0.21563 -0.15488 0.0016445 0.00025139 -0.00046876 0.0020439 -0.0029392 -0.0017862
-0.00025686 0.0016859 0.00020151 -0.00043494
0.0016425 0.00025023 0.26547 0.12042 -0.0024078 0.001596 -5.1732e-05 0.0016258
0.00058206 0.0010494 0.0001596 0.00095124
-0.00046087 0.0020419 -0.0024039 0.0015849 0.10823 -0.25903 0.0013745 -0.00098383
0.001498 0.0016357 -0.00077323 0.0014029
-0.002946 -0.0017736 -4.2936e-05 0.0016239 0.001372 -0.00098153 0.16143 -0.13651
0.0020908 0.0052714 -0.0022451 0.00051122
-0.00023653 0.0017088 0.00057748 0.0010416 0.0015148 0.0016374 0.0021572 0.0052214
0.25472 0.0095779 0.0044443 0.0013023
0.00019341 -0.00043752 0.00016735 0.00095063 -0.00077971 0.0013985 -0.002244 0.00049896
0.0044431 0.0012975 0.28489 0.046893
1940000000 0.1755 -0.17969 -0.0004546 -0.0010796 0.0015369 0.001894 -0.003513 0.00084228
0.0014604 0.0011859 -0.00059106 -0.00058989
-0.00044877 -0.0010775 0.26486 0.088964 -0.0011108 0.0040121 0.00097595 0.0011679
0.0016669 0.0004099 0.0009362 0.00039171
0.0015467 0.0018904 -0.001105 0.0040041 0.061857 -0.25124 0.00014169 -0.0015831
0.0023381 0.00036533 0.00058124 0.0016271
-0.0035021 0.00085528 0.00097198 0.0011573 0.00014741 -0.0015859 0.11005 -0.16624
0.0013522 0.0035973 -0.0013227 0.0014721
0.0014598 0.0011767 0.0016733 0.00039553 0.0023312 0.00033299 0.0013953 0.0035602
0.25408 -0.029786 0.0033051 -0.0015316
-0.00060151 -0.00058167 0.00093125 0.00038531 0.00058646 0.0016215 -0.0013278 0.0014803
0.0032781 -0.00152 0.27201 0.010414
2000000000 0.12877 -0.19351 -0.0040885 0.0010563 0.0025465 0.0014103 -0.0020039 0.0033505
0.0012919 0.0001074 -0.00056182 0.000438
-0.0040875 0.0010481 0.2503 0.053468 -0.0008148 0.0057437 0.0015557 0.00022732
0.0012193 -0.0012024 0.00046002 -8.0704e-06
0.0025463 0.0013967 -0.00080085 0.0057445 0.018409 -0.23658 -0.00095642 -0.00099395
0.0018598 -0.0011027 0.0017297 0.00095838
-0.0019914 0.0033534 0.0015525 0.00021247 -0.00096274 -0.00099369 0.057768 -0.17685
-0.00030418 0.0030281 5.4663e-05 0.0021452
0.0013017 9.2975e-05 0.0012071 -0.0011991 0.0018316 -0.0010898 -0.00029193 0.0029488
