!Keysight Technologies,M9804A,MY58100912,A.14.10.03
!Date: Thursday, April 27, 2023 10:28:33
!Correction: S11(C  6-Port  ) 
!S12(C  6-Port  ) 
!S13(C  6-Port  ) 
!S14(C  6-Port  ) 
!S15(C  6-Port  ) 
!S16(C  6-Port  ) 
!S21(C  6-Port  ) 
!S22(C  6-Port  ) 
!S23(C  6-Port  ) 
!S24(C  6-Port  ) 
!S25(C  6-Port  ) 
!S26(C  6-Port  ) 
!S31(C  6-Port  ) 
!S32(C  6-Port  ) 
!S33(C  6-Port  ) 
!S34(C  6-Port  ) 
!S35(C  6-Port  ) 
!S36(C  6-Port  ) 
!S41(C  6-Port  ) 
!S42(C  6-Port  ) 
!S43(C  6-Port  ) 
!S44(C  6-Port  ) 
!S45(C  6-Port  ) 
!S46(C  6-Port  ) 
!S51(C  6-Port  ) 
!S52(C  6-Port  ) 
!S53(C  6-Port  ) 
!S54(C  6-Port  ) 
!S55(C  6-Port  ) 
!S56(C  6-Port  ) 
!S61(C  6-Port  ) 
!S62(C  6-Port  ) 
!S63(C  6-Port  ) 
!S64(C  6-Port  ) 
!S65(C  6-Port  ) 
!S66(C  6-Port  ) 
!S6P File: Measurement: :
# Hz S  RI   R 50
500000000 -0.33951 -0.017453 -0.010847 -0.0029671 -0.0070816 0.012709 -0.0031365 0.012065
0.01119 0.0035952 -0.0027084 0.0084028
-0.010852 -0.0029644 -0.41939 -0.035764 0.0064503 -0.011737 0.0019721 0.01254
0.0065097 0.0024026 0.0020083 0.013823
-0.007036 0.012724 0.0064332 -0.011778 -0.26246 0.22288 0.0072526 0.0036394
-0.00079547 0.0085201 0.0022457 0.012361
-0.0031475 0.012014 0.0020135 0.012526 0.0072762 0.0036472 -0.33032 0.06324
-0.019174 -0.0064907 0.015231 0.023665
0.011189 0.0036008 0.0065392 0.0023872 -0.00083278 0.0084883 -0.019197 -0.0064883
-0.237 -0.16396 -0.024781 0.0041265
-0.0026848 0.0083755 0.0020993 0.013831 0.0023056 0.012347 0.015229 0.023641
-0.024803 0.0041053 -0.28529 -0.078983
560000000 -0.31179 0.13767 -0.027084 -0.060485 0.00090802 0.011334 0.0054002 0.0097085
0.0089706 0.0040423 0.010533 0.0064903
-0.027002 -0.060383 -0.3753 0.11832 -0.042141 -0.034513 0.013834 0.0031688
-0.012617 -0.003792 0.0028665 -0.00099002
0.00095068 0.011322 -0.042276 -0.034529 -0.1801 0.26759 -0.00049453 -0.0043992
0.018892 0.0034348 0.0070599 -0.0064724
0.0054332 0.0096728 0.013811 0.0031518 -0.00053251 -0.0044139 -0.30408 0.14871
0.0004792 -0.024219 0.0031283 -0.018164
0.0090398 0.0039661 -0.012669 -0.0038347 0.018896 0.0035208 0.00042786 -0.024215
-0.28754 0.0093465 0.0026772 -0.046731
0.010508 0.0064202 0.0028147 -0.0010412 0.0070602 -0.0064641 0.0031162 -0.018164
0.0027247 -0.046776 -0.32983 0.060122
620000000 -0.26984 0.12342 -0.023347 0.0070674 0.0037181 0.0078422 0.0078529 -0.0056641
0.010514 -0.0010365 0.0011533 -0.0025194
-0.023313 0.0070582 -0.40126 0.074121 -0.019503 0.00041949 -0.00099171 -0.0022986
0.0099486 -0.0063113 0.0014137 -0.002969
0.0037584 0.0078777 -0.019509 0.00044833 -0.14889 0.27731 -0.0012978 -0.0047447
-0.0031557 -0.0027401 0.0082623 -0.0040495
0.0077833 -0.0056905 -0.0009829 -0.0023026 -0.0013297 -0.0046986 -0.26233 0.1606
-0.039373 -0.017347 0.012193 0.022714
0.010594 -0.0010845 0.0099512 -0.0063133 -0.0031493 -0.0027735 -0.039368 -0.017309
-0.21056 -0.028033 -0.038825 0.014913
0.0011858 -0.002616 0.0013972 -0.0029888 0.0082191 -0.0040299 0.012173 0.022681
-0.03882 0.014854 -0.25581 0.032403
680000000 -0.22722 0.20486 -0.027961 -0.011918 0.0053514 0.0044466 0.0013039 -0.0071486
-0.002893 -0.011131 0.0037793 -0.0067781
-0.027927 -0.011913 -0.38419 0.16802 -0.032167 0.00053968 -0.0015102 -0.00048655
-0.0024279 -0.0087891 -0.0016045 -0.0021191
0.0053598 0.0044321 -0.032178 0.00059031 -0.098109 0.29474 -0.00092695 -0.00034343
-0.0017787 4.4373e-05 -0.0037539 -0.008452
0.0012881 -0.0071685 -0.0015049 -0.00048565 -0.00093656 -0.00035676 -0.21662 0.20754
-0.025689 -0.005335 -0.00897 -0.0081656
-0.0028926 -0.011123 -0.0024633 -0.0088067 -0.0017908 5.8752e-05 -0.025719 -0.0053098
-0.2499 0.068339 -0.0071928 -0.0065472
0.0037454 -0.0067828 -0.0016291 -0.0021313 -0.0037541 -0.0084463 -0.0089735 -0.0081642
-0.0072106 -0.0065582 -0.2529 0.12725
740000000 -0.1838 0.20006 -0.036714 0.026213 0.011835 -0.0058881 -0.00076685 -0.0040131
-0.005119 -0.0028978 -0.0057908 0.003454
-0.036698 0.026187 -0.33265 0.18769 -0.03242 0.035032 -0.001078 -0.0062425
-0.011235 0.0081648 -0.0016705 -0.0048147
0.011807 -0.0059031 -0.032356 0.035068 -0.064457 0.29445 -0.0017666 0.0029835
-0.0033231 -0.0045108 -0.0019048 0.0012295
-0.00073959 -0.0040268 -0.0010909 -0.0062206 -0.0017599 0.0029976 -0.19861 0.21664
-0.041879 -0.0034398 0.02178 0.012147
-0.0050781 -0.002864 -0.011223 0.008156 -0.0033318 -0.0045285 -0.041913 -0.0033698
-0.15725 0.089851 -0.038032 0.0031987
-0.0057986 0.0035115 -0.0017109 -0.0048322 -0.0019138 0.0012211 0.021785 0.012122
-0.038011 0.0031263 -0.24163 0.13704
800000000 -0.15005 0.23689 -0.021462 0.017681 0.0043731 -0.010381 -0.0043628 -0.0016027
-0.0036937 0.0030648 0.003787 0.00091465
-0.021467 0.017666 -0.33243 0.25599 -0.0065904 0.033515 -0.0023252 0.002308
-0.00062529 0.0033936 0.0010893 0.0052974
0.0043694 -0.010384 -0.006532 0.033547 -0.021591 0.31593 0.00089294 0.0015812
0.00040599 0.0036234 -0.0018117 0.001212
-0.0043747 -0.0015905 -0.0023307 0.002332 0.00088326 0.0015808 -0.16825 0.24262
-0.026608 0.016275 0.012395 -0.0099328
-0.0036994 0.0030861 -0.00061883 0.0033718 0.00041401 0.0036466 -0.026613 0.016325
-0.19413 0.11678 -0.015426 0.01878
0.0038015 0.00091189 0.0011123 0.0052986 -0.001795 0.0012242 0.012397 -0.0099343
-0.015443 0.018769 -0.22802 0.18222
860000000 -0.11505 0.25653 -0.015591 0.030891 -0.0038566 -0.0093419 -0.0020331 0.0012521
0.0047928 0.0047058 -0.0025341 -0.0024005
-0.015594 0.03087 -0.28491 0.29672 0.0092868 0.032904 0.00040545 0.0020678
0.0050536 0.00015615 0.0032044 0.00055377
-0.0038537 -0.0093368 0.0093601 0.032892 0.02679 0.32273 -0.00028744 -4.5383e-07
0.0026279 -0.0013216 0.0017308 0.0040704
-0.0020441 0.0012339 0.00040237 0.00205 -0.00028154 -4.4475e-06 -0.1317 0.25323
-0.014866 0.0207 -0.0054658 -0.0090127
0.004788 0.0046949 0.0050685 0.00011396 0.0026297 -0.0013243 -0.014848 0.02075
-0.14106 0.16097 -0.021227 0.016555
-0.0025134 -0.0023715 0.0032153 0.0005741 0.0017358 0.004076 -0.0054881 -0.0090053
-0.021204 0.016578 -0.1787 0.22156
920000000 -0.088349 0.27812 0.0064321 0.03648 -0.0092179 -0.0038511 -0.0014389 0.0017717
0.0016468 0.0013674 0.0027207 -0.0018235
0.0063955 0.036467 -0.25438 0.31711 0.028226 0.019931 0.0017715 0.00082976
0.0069974 -0.00091794 0.0033054 -0.0031248
-0.0092145 -0.0038327 0.028262 0.019876 0.07435 0.32261 0.0019666 -0.00018252
0.0015971 -0.00075962 0.00075749 -0.0012695
-0.0014504 0.0017556 0.0017806 0.00082024 0.0019607 -0.00018051 -0.10544 0.26896
-0.007051 0.030284 0.0021365 -0.0063094
0.0016381 0.0013521 0.0069785 -0.00094687 0.0015968 -0.00075791 -0.0069891 0.030309
-0.12801 0.16696 -0.0005488 0.025172
0.0027292 -0.0018843 0.0032949 -0.0030823 0.0007408 -0.0012511 0.0021449 -0.0063122
-0.00053199 0.025175 -0.17756 0.23741
980000000 -0.041333 0.29582 0.018623 0.02828 -0.0083268 0.0047261 0.0019745 0.0030108
0.0037304 -0.0018746 -0.0032103 -0.001849
0.018569 0.028258 -0.20245 0.34928 0.032279 0.0030423 0.0019804 -0.00031935
0.0013928 -0.0061065 -0.00058461 -0.0022952
-0.0083161 0.004749 0.032296 0.0029626 0.12098 0.31434 0.00044976 -0.0013197
6.9052e-05 -0.0021862 0.0013796 -0.00016712
0.0019604 0.0029989 0.0019836 -0.00030397 0.00043575 -0.0013165 -0.06664 0.27827
0.010516 0.02815 -0.0083084 -0.0057013
0.0037346 -0.0018984 0.0013776 -0.0061082 6.1636e-05 -0.002217 0.010583 0.028156
-0.096204 0.19131 0.0064449 0.018376
-0.0032059 -0.0018332 -0.00061144 -0.0022961 0.0013827 -0.00017988 -0.0083219 -0.0056939
0.0064396 0.018383 -0.13324 0.27423
1040000000 0.0019942 0.3031 0.032906 0.015666 -0.0010575 0.0065921 0.0024325 0.00059697
-6.3459e-05 -0.0030901 -0.00076904 -0.0012778
0.032847 0.015683 -0.16643 0.36238 0.027487 -0.01565 0.0013465 -0.0017112
-0.0024639 -0.0024222 -0.0015944 -0.0026832
-0.0010277 0.0066017 0.027435 -0.01573 0.16758 0.29955 -0.00065434 -0.0014103
-0.0016173 -0.00080407 -0.00046275 -0.0010697
0.0024229 0.00058368 0.0013582 -0.0017023 -0.00065443 -0.0014085 -0.037395 0.28732
0.020831 0.015392 -0.0027076 0.0012824
-5.9695e-05 -0.0031106 -0.0024677 -0.0023835 -0.0016217 -0.00080701 0.020875 0.015373
-0.063959 0.1973 0.013901 0.015599
-0.00076773 -0.001266 -0.0016134 -0.002644 -0.00046416 -0.0010718 -0.002707 0.0012963
0.013888 0.015606 -0.10764 0.29387
1100000000 0.047543 0.30878 0.034284 -0.005958 0.0027334 0.0035825 0.0023047 -0.0011091
-0.0020548 -0.0027464 -0.0034932 0.00041553
0.034253 -0.0059446 -0.1228 0.37821 0.013273 -0.027444 -9.2921e-05 -0.0018142
-0.0032946 -0.00052072 -0.0032854 -0.00025515
0.0027338 0.0035839 0.013203 -0.027491 0.21435 0.27706 -0.001783 0.0002303
-0.0017166 0.00068741 -0.00086817 -0.00019843
0.0023114 -0.0011171 -8.6816e-05 -0.0018086 -0.0017801 0.00023002 0.0040057 0.28966
0.024398 0.0021768 -0.0023872 0.00017257
-0.002069 -0.0027348 -0.0033083 -0.00050188 -0.0017292 0.00068547 0.024415 0.0021388
-0.044477 0.2087 0.018455 0.0059712
-0.0035008 0.00044215 -0.0032893 -0.00025155 -0.00085568 -0.00020249 -0.0023875 0.00018049
0.018448 0.0059654 -0.060541 0.31666
1160000000 0.098311 0.3025 0.021844 -0.021445 0.0023327 -0.00032846 -6.5408e-05 -0.0021388
-0.0038705 -0.00047637 -0.00057112 0.0037275
0.021834 -0.021409 -0.078441 0.38178 -0.0050042 -0.027785 -0.0016658 -0.0015189
-0.0025156 0.0024488 -0.0012544 0.0017595
0.0023386 -0.00032268 -0.0050925 -0.027789 0.25655 0.24447 -0.00069911 0.001799
-0.00041245 0.001874 -0.00074145 0.000128
-5.2912e-05 -0.0021385 -0.0016533 -0.0015056 -0.00069699 0.001794 0.043411 0.28444
0.019693 -0.012735 -0.0030019 0.0043952
-0.0038675 -0.00047691 -0.0025173 0.0024781 -0.00042004 0.0018631 0.019677 -0.012765
-0.011303 0.21532 0.016716 -0.0022077
-0.00054805 0.0037194 -0.0012574 0.0017743 -0.00075122 0.00013223 -0.0029964 0.0044042
0.01671 -0.0022134 -0.014041 0.31709
1220000000 0.14314 0.28922 0.0081631 -0.029382 -0.0015154 -0.00038976 8.0768e-05 -0.00097113
-0.002381 0.0023155 0.0013373 0.001813
0.0081814 -0.029355 -0.034209 0.39225 -0.017114 -0.019491 -0.0024063 0.00047109
0.00018795 0.0028379 -0.00049763 0.0018735
-0.0015233 -0.00036646 -0.017175 -0.019445 0.29511 0.20412 0.00084448 0.0017411
0.00068076 0.001163 0.00030224 0.00049452
8.3226e-05 -0.00097142 -0.0024142 0.00048147 0.0008529 0.001734 0.083605 0.27357
0.0086188 -0.018385 0.0014613 0.0014457
-0.0023735 0.0023208 0.00018671 0.0028507 0.00070126 0.0011526 0.0085984 -0.018405
0.012818 0.22211 0.011442 -0.013517
0.0013431 0.0018078 -0.0004845 0.0018733 0.00029997 0.00049613 0.0014666 0.0014466
0.011441 -0.013503 0.019926 0.32817
1280000000 0.19167 0.2654 -0.0091976 -0.026829 -0.0014739 0.0027642 -0.00096312 -0.001981
-0.00057504 0.0028741 0.0023188 0.00082886
-0.0091673 -0.026804 0.01135 0.38226 -0.023056 -0.0072785 -0.00090691 0.0013913
0.0017524 0.0016199 0.00075405 0.0016785
-0.0014552 0.0027636 -0.02311 -0.0072091 0.32439 0.15899 0.0016428 -6.5692e-05
0.0011191 0.00015052 0.00022105 0.000202
-0.00096537 -0.0019831 -0.00091526 0.0013975 0.0016382 -7.4681e-05 0.1193 0.25447
-0.0010743 -0.019474 -0.00046114 0.00044439
-0.00056054 0.002877 0.0017541 0.0015987 0.001117 0.00014393 -0.0011113 -0.019488
0.048929 0.22311 0.0011371 -0.015011
0.0023276 0.00082599 0.00075997 0.0016853 0.00022405 0.00020103 -0.00046126 0.00044632
0.0011423 -0.015002 0.065485 0.32537
1340000000 0.2281 0.23027 -0.017981 -0.016966 0.0013819 0.0042256 -0.0017107 -0.00087286
0.0014586 0.0024276 0.0014272 -0.0014414
-0.017945 -0.016957 0.050695 0.37298 -0.020511 0.0049176 -0.00011544 0.0019641
0.0019043 0.0005926 0.0013082 0.00063208
0.0013951 0.0042165 -0.020504 0.0049884 0.3452 0.11064 0.0011492 -0.0010298
0.00058555 -0.00048933 6.5727e-05 0.00025288
-0.001712 -0.00086115 -0.00010481 0.0019723 0.0011473 -0.0010211 0.15064 0.23243
-0.010147 -0.015802 0.00061134 0.0011146
0.001475 0.0024361 0.001909 0.00057988 0.00059848 -0.00049564 -0.010184 -0.015795
0.078442 0.21675 -0.0053953 -0.012721
0.0014217 -0.0014498 0.0013192 0.00062273 6.5583e-05 0.00025978 0.00060873 0.0011163
-0.005394 -0.012716 0.10436 0.31688
1400000000 0.25985 0.19068 -0.022524 -0.0057727 0.0052521 0.0025829 -0.0021285 0.0006369
0.0023081 0.0007517 0.00015227 -0.0013246
-0.022503 -0.005778 0.087338 0.35911 -0.013689 0.0123 0.0013002 0.001296
0.0011202 -0.00086903 0.0010722 9.8609e-05
0.0052548 0.002571 -0.013657 0.012361 0.35773 0.056673 8.6087e-05 -0.0018268
4.1234e-05 -0.00036686 0.00033446 0.00018189
-0.0021302 0.00064994 0.0013208 0.0012953 9.227e-05 -0.001823 0.17884 0.20153
-0.01549 -0.0088652 -0.00034522 0.00039183
0.0023069 0.00074202 0.001123 -0.00088163 4.7445e-05 -0.00036223 -0.015513 -0.0088448
0.11058 0.20991 -0.01094 -0.0074578
0.00014506 -0.0013318 0.0010701 8.6661e-05 0.00033751 0.00018268 -0.00034164 0.00039296
-0.010934 -0.0074721 0.14685 0.30182
1460000000 0.28112 0.14604 -0.019093 0.0055398 0.0053483 -0.0022662 -0.0015384 0.001694
0.0019702 -0.00065551 -0.00042719 -0.00083069
-0.019093 0.0055201 0.12109 0.33667 -0.0054566 0.01464 0.0017097 0.00013621
0.00073326 -0.0012982 0.0010279 -0.00056171
0.005338 -0.0022875 -0.0054113 0.014662 0.36235 0.0020598 -0.0014679 -0.0012792
9.9986e-05 -0.00014654 0.0006034 -0.00028893
-0.0015354 0.0017021 0.0017279 0.00013282 -0.0014579 -0.0012864 0.20281 0.17113
-0.016193 -0.0019586 -0.00018589 0.0020846
0.0019521 -0.00065851 0.00073251 -0.0013123 0.00010426 -0.00014819 -0.016203 -0.0019267
0.13875 0.19363 -0.011899 -0.0015458
-0.00043182 -0.00082521 0.0010199 -0.00058015 0.00060181 -0.000297 -0.0001824 0.0020857
-0.011898 -0.0015453 0.17852 0.2788
1520000000 0.29222 0.10337 -0.013226 0.010406 0.0028102 -0.0042229 0.00014857 0.0026474
0.0018684 -0.0016384 -0.0010537 -5.7161e-05
-0.013229 0.010395 0.15424 0.32126 0.0016519 0.012428 0.0016422 -0.00084592
-6.4671e-05 -0.0010201 0.00026796 -0.00090142
0.0028046 -0.0042268 0.0017126 0.012429 0.35507 -0.054388 -0.0013354 -0.0002333
0.00050406 -0.00086629 -3.4585e-06 -0.00015146
0.00015086 0.0026437 0.0016244 -0.0008573 -0.0013326 -0.0002434 0.22385 0.13265
-0.014988 0.0037418 0.0019387 0.0017788
0.0018595 -0.0016511 -6.1099e-05 -0.0010207 0.00051446 -0.00087157 -0.014993 0.0037718
0.16617 0.1779 -0.011358 0.0027638
-0.0010554 -4.6427e-05 0.00027014 -0.00090499 -1.8443e-06 -0.00014565 0.0019374 0.0017752
-0.011358 0.0027563 0.2102 0.25519
1580000000 0.29996 0.056744 -0.0069248 0.012795 -0.0011936 -0.0045332 0.0015607 0.0018633
-0.00018411 -0.0020274 -0.00025857 0.0003662
-0.0069346 0.012788 0.18098 0.29581 0.0049816 0.0078063 0.00043507 -0.0016534
-0.0005518 -0.0009121 -0.00022263 -0.000778
-0.001202 -0.0045271 0.0050042 0.0077786 0.33411 -0.11211 -0.001628 0.00093399
-0.00034465 -0.0010089 0.0001973 -0.00050389
0.0015669 0.0018532 0.00042276 -0.0016581 -0.0016225 0.00094248 0.2353 0.093111
-0.011365 0.0083802 0.0024404 0.00023261
-0.00018644 -0.0020311 -0.00055887 -0.00090931 -0.00035279 -0.0010032 -0.011355 0.0084098
0.18919 0.15783 -0.0086545 0.0077314
-0.00025747 0.00037456 -0.00022385 -0.0007821 0.00019791 -0.00052204 0.0024348 0.00022573
-0.0086599 0.0077211 0.23938 0.22621
1640000000 0.3006 0.015194 -0.00078284 0.011378 -0.0026981 -0.0022789 0.0028083 0.00084001
-0.00075343 -0.0014723 -0.00021974 0.00053406
-0.00078852 0.011368 0.21001 0.27021 0.0055752 0.0033965 -0.00080955 -0.0016702
-0.00099497 -0.00029138 -0.00051339 -0.00056962
-0.0027131 -0.0022733 0.0055889 0.0033785 0.30455 -0.16066 -0.00049122 0.0015733
-0.0011757 -0.00078475 -0.00022262 -0.00024854
0.0028093 0.00082209 -0.0008221 -0.0016705 -0.00050101 0.001581 0.24524 0.045327
-0.0069642 0.0097243 0.0024172 -0.0012255
-0.00076784 -0.0014794 -0.001004 -0.00029279 -0.0011827 -0.00078958 -0.0069477 0.0097399
0.21046 0.13208 -0.0040155 0.0094088
-0.00021305 0.00054683 -0.00051742 -0.00057174 -0.000224 -0.00024305 0.0024133 -0.0012309
-0.0040154 0.0094107 0.26291 0.19338
1700000000 0.29195 -0.030359 0.0021739 0.0085193 -0.003281 0.00012988 0.0029093 -0.0014818
-0.0019069 -0.00065118 0.00062888 0.00041328
0.0021613 0.00851 0.2276 0.23825 0.0037769 0.00063985 -0.0014711 -0.00046963
-0.00068029 0.00016116 -0.00086383 -0.00040825
-0.0032803 0.00013984 0.0037781 0.0006218 0.26103 -0.20027 0.0006498 0.0014388
-0.0017595 -0.00015087 -0.00052273 -0.00079611
0.0028989 -0.001489 -0.0014654 -0.00046534 0.00064881 0.001442 0.24067 -0.0030842
-0.0038384 0.010188 0.0012864 -0.0023358
-0.0019166 -0.00064306 -0.00067925 0.00016115 -0.0017682 -0.00014937 -0.0038216 0.010204
0.22637 0.11016 0.00042344 0.0095547
0.00063637 0.00041631 -0.0008532 -0.00039715 -0.00052169 -0.00080078 0.0012842 -0.0023403
0.00042404 0.0095644 0.27703 0.15757
1760000000 0.2782 -0.07865 0.0039823 0.0054252 -0.0021715 0.00085579 0.00090792 -0.0035021
-0.0014013 0.0006696 0.00048958 -0.0004706
0.003974 0.0054274 0.25275 0.19763 0.0016789 -0.0012257 -0.0011734 0.00026114
-0.00090228 0.00081524 -0.00057952 0.00046397
-0.0021647 0.00086297 0.0016759 -0.001227 0.21221 -0.23387 0.0013335 0.00073638
-0.0011177 0.0015245 -0.001324 -0.00029874
0.00088929 -0.0034913 -0.0011777 0.00026129 0.0013352 0.00073387 0.23052 -0.052341
-0.00037327 0.0093367 -0.00051858 -0.0024939
-0.0013993 0.00068616 -0.00089589 0.00082816 -0.0011129 0.0015298 -0.00036566 0.0093408
0.23909 0.073763 0.0039878 0.0067806
0.00049417 -0.0004807 -0.00057504 0.00047529 -0.0013258 -0.00029227 -0.00052241 -0.0025012
0.0039937 0.0067783 0.28725 0.11889
1820000000 0.25215 -0.1153 0.0039259 0.0021568 -9.1905e-05 0.0023667 -0.0013213 -0.0028067
-0.0010552 0.0010253 1.3394e-05 -0.00011974
0.0039235 0.0021604 0.26185 0.16744 -0.00027869 -0.000103 -0.0011831 0.00099774
-2.5069e-06 0.0011793 -0.00051358 0.00056901
-8.3103e-05 0.0023531 -0.0002739 -0.0001027 0.16127 -0.24899 0.0012842 6.2751e-05
-8.6226e-05 0.0021075 -0.0013195 0.00049553
-0.0013379 -0.0028051 -0.0011738 0.00099163 0.0012795 4.3987e-05 0.20083 -0.097229
0.0013836 0.0074877 -0.0016707 -0.0013778
-0.001038 0.0010308 1.1401e-05 0.0011818 -9.3282e-05 0.0020935 0.0014063 0.0074941
0.25423 0.043687 0.0049417 0.0033665
1.1086e-05 -0.00011813 -0.00050759 0.00057171 -0.0013262 0.00051188 -0.0016753 -0.001381
0.0049435 0.0033569 0.28736 0.081731
1880000000 0.21569 -0.15473 0.0016519 0.00021051 -0.00048599 0.0020246 -0.0029457 -0.0017683
-0.00022637 0.0016939 0.0001864 -0.00044925
0.0016565 0.00021116 0.2655 0.12047 -0.0023943 0.0015612 -5.9898e-05 0.0016456
0.0005414 0.0010324 0.00016503 0.0009388
-0.0004756 0.0020213 -0.0023954 0.0015703 0.10823 -0.25901 0.0013626 -0.00098983
0.0015084 0.0016091 -0.00076977 0.0014043
-0.0029507 -0.0017548 -4.7968e-05 0.0016474 0.0013665 -0.00099045 0.16139 -0.13656
0.0022194 0.0051597 -0.0023001 0.00044489
-0.00021606 0.0017019 0.00054729 0.0010239 0.0015249 0.0016163 0.0022356 0.0051565
0.25488 0.0097947 0.004628 0.0012441
0.00018178 -0.00045071 0.000168 0.00094341 -0.00078222 0.0014016 -0.0023064 0.00045005
0.0046378 0.001241 0.28483 0.047141
1940000000 0.17563 -0.17952 -0.0004466 -0.0010945 0.0015121 0.0018867 -0.003493 0.00085841
0.0014427 0.0011734 -0.00060766 -0.00056892
-0.00045398 -0.0010914 0.26489 0.088937 -0.0011312 0.003995 0.00098426 0.0011688
0.0016447 0.0004301 0.0009301 0.00040683
0.0015134 0.0018733 -0.0011231 0.0039883 0.061813 -0.2512 0.00013209 -0.0016
0.0023109 0.00032888 0.0005789 0.0016158
-0.0034865 0.00086529 0.00098266 0.0011708 0.00013539 -0.0015899 0.11001 -0.16625
0.0014055 0.0034628 -0.0014165 0.0014397
0.0014486 0.0011682 0.00164 0.00040516 0.0023149 0.0003138 0.0014219 0.0034535
0.25426 -0.029639 0.0034503 -0.0016695
-0.00061539 -0.0005641 0.00092579 0.00039232 0.00058228 0.0016153 -0.0014185 0.0014462
0.0034482 -0.0016655 0.27198 0.010616
2000000000 0.12896 -0.19342 -0.0040894 0.0010292 0.002557 0.0013856 -0.0019908 0.0033674
0.001278 0.0001087 -0.0005479 0.00046457
-0.0040921 0.0010278 0.25026 0.053454 -0.00082788 0.0057274 0.0015611 0.00022574
0.0012176 -0.0011669 0.00046736 -1.0791e-06
0.0025518 0.0013782 -0.00080987 0.005741 0.018397 -0.23658 -0.0009509 -0.0010192
0.0018185 -0.0010951 0.0017465 0.00095581
-0.0019677 0.0033644 0.0015689 0.00021043 -0.00094638 -0.0010129 0.057723 -0.17684
-0.00031485 0.0028497 -3.0285e-05 0.0021804
0.0012838 9.9937e-05 0.0012052 -0.0011672 0.0018247 -0.0010869 -0.00031106 0.0028596
0.24607 -0.063922 0.00043268 -0.002697
