!Keysight Technologies,M9804A,MY58100912,A.14.10.03
!Date: Thursday, April 27, 2023 10:28:33
!Correction: S11(C  6-Port  ) 
!S12(C  6-Port  ) 
!S13(C  6-Port  ) 
!S14(C  6-Port  ) 
!S15(C  6-Port  ) 
!S16(C  6-Port  ) 
!S21(C  6-Port  ) 
!S22(C  6-Port  ) 
!S23(C  6-Port  ) 
!S24(C  6-Port  ) 
!S25(C  6-Port  ) 
!S26(C  6-Port  ) 
!S31(C  6-Port  ) 
!S32(C  6-Port  ) 
!S33(C  6-Port  ) 
!S34(C  6-Port  ) 
!S35(C  6-Port  ) 
!S36(C  6-Port  ) 
!S41(C  6-Port  ) 
!S42(C  6-Port  ) 
!S43(C  6-Port  ) 
!S44(C  6-Port  ) 
!S45(C  6-Port  ) 
!S46(C  6-Port  ) 
!S51(C  6-Port  ) 
!S52(C  6-Port  ) 
!S53(C  6-Port  ) 
!S54(C  6-Port  ) 
!S55(C  6-Port  ) 
!S56(C  6-Port  ) 
!S61(C  6-Port  ) 
!S62(C  6-Port  ) 
!S63(C  6-Port  ) 
!S64(C  6-Port  ) 
!S65(C  6-Port  ) 
!S66(C  6-Port  ) 
!S6P File: Measurement: :
# Hz S  RI   R 50
500000000 -0.33944 -0.01731 -0.010854 -0.0030351 -0.0070927 0.012706 -0.0031544 0.012069
0.011213 0.0036683 -0.0028027 0.0084276
-0.010795 -0.0030182 -0.41946 -0.035724 0.0064624 -0.011769 0.0019269 0.012563
0.0065215 0.0023688 0.0019392 0.013868
-0.007073 0.012699 0.0064314 -0.011752 -0.26247 0.22285 0.0072342 0.0036552
-0.00086653 0.0084864 0.0022554 0.012356
-0.0031145 0.012002 0.0019309 0.012551 0.0072266 0.0036534 -0.33036 0.063176
-0.01917 -0.0065347 0.015196 0.023572
0.011255 0.0036448 0.006511 0.0023397 -0.00086961 0.0085126 -0.019173 -0.0065167
-0.23691 -0.16357 -0.024823 0.0041352
-0.0026909 0.0083869 0.0019781 0.013833 0.0022373 0.012309 0.015185 0.023543
-0.024819 0.0041447 -0.2853 -0.078958
560000000 -0.31155 0.1376 -0.027026 -0.060562 0.00089568 0.01137 0.0054074 0.0097358
0.0090228 0.0040486 0.010514 0.0063156
-0.026961 -0.060548 -0.37546 0.11821 -0.042135 -0.034576 0.013846 0.003245
-0.012687 -0.0038346 0.0028574 -0.00084943
0.00090216 0.011368 -0.042167 -0.03446 -0.1802 0.26762 -0.00057601 -0.0044279
0.018988 0.0035235 0.0070338 -0.0065164
0.0054121 0.0096931 0.013844 0.0032619 -0.00057008 -0.0044392 -0.30407 0.14866
0.00037053 -0.024213 0.0031466 -0.018103
0.0089426 0.0041172 -0.0127 -0.0038078 0.018931 0.003602 0.00041129 -0.024217
-0.2871 0.0095046 0.0027265 -0.046703
0.010507 0.00638 0.0028939 -0.00099757 0.0070097 -0.0065412 0.0031012 -0.01813
0.0026868 -0.046716 -0.32981 0.060263
620000000 -0.26963 0.12338 -0.023356 0.0070655 0.0036928 0.0078189 0.0077866 -0.0057079
0.010602 -0.0010081 0.001121 -0.002575
-0.023307 0.0070736 -0.40133 0.074183 -0.019504 0.00044044 -0.0010007 -0.0023108
0.01002 -0.0062649 0.0013871 -0.0029777
0.003743 0.0077698 -0.019524 0.00048052 -0.14883 0.27742 -0.0013888 -0.0046803
-0.0031047 -0.0028441 0.008182 -0.004127
0.0078306 -0.0056762 -0.0010142 -0.0023054 -0.0013968 -0.0046956 -0.26234 0.16058
-0.039313 -0.017366 0.012216 0.022694
0.010482 -0.0010387 0.0099979 -0.0063141 -0.0031106 -0.0028515 -0.039283 -0.01733
-0.21057 -0.027788 -0.038729 0.015037
0.0011279 -0.0024642 0.0013285 -0.0029804 0.0081752 -0.0040981 0.012275 0.02267
-0.038757 0.015012 -0.2558 0.032866
680000000 -0.22728 0.20489 -0.02798 -0.011913 0.0053626 0.004432 0.0013649 -0.0071713
-0.0028692 -0.011141 0.0037665 -0.0067374
-0.027947 -0.011924 -0.3842 0.16807 -0.032152 0.0005617 -0.0014926 -0.00049254
-0.0024365 -0.0088074 -0.0016179 -0.0021172
0.0053721 0.0043898 -0.032143 0.00059542 -0.098066 0.29475 -0.00092801 -0.00036586
-0.0017993 5.9037e-05 -0.0037511 -0.0084321
0.0013169 -0.0071553 -0.0014985 -0.0005188 -0.00092793 -0.00036352 -0.21666 0.20753
-0.025671 -0.0053409 -0.0089224 -0.008222
-0.0028766 -0.011124 -0.0024528 -0.0087986 -0.0017965 7.2682e-05 -0.025702 -0.0053322
-0.24968 0.068403 -0.0071407 -0.0066049
0.0037698 -0.0067491 -0.0016292 -0.0021074 -0.0037781 -0.0084266 -0.0089413 -0.0082129
-0.0071423 -0.0066082 -0.25281 0.12739
740000000 -0.18387 0.2001 -0.036733 0.026218 0.011827 -0.0059243 -0.0007444 -0.0040221
-0.0051505 -0.0028885 -0.005839 0.0034075
-0.036715 0.02618 -0.33273 0.18781 -0.032455 0.035016 -0.0010824 -0.0061691
-0.011323 0.0081624 -0.0016541 -0.0049053
0.011834 -0.0059159 -0.032411 0.035082 -0.064436 0.29446 -0.0017938 0.0029798
-0.003339 -0.0044941 -0.001912 0.0011777
-0.00075083 -0.0040131 -0.001094 -0.0062072 -0.0017873 0.0029903 -0.19857 0.21669
-0.041841 -0.0034362 0.021756 0.012111
-0.005124 -0.0029676 -0.011334 0.0081862 -0.0033556 -0.0045144 -0.041895 -0.0033659
-0.157 0.08986 -0.037845 0.0030437
-0.0057799 0.0033474 -0.0016324 -0.0049032 -0.0019157 0.0011897 0.021764 0.012134
-0.037874 0.0030938 -0.24146 0.13722
800000000 -0.15006 0.23692 -0.021452 0.017688 0.0043831 -0.010393 -0.0043648 -0.0016041
-0.0037531 0.0030884 0.0037608 0.00088228
-0.021441 0.017652 -0.33244 0.25604 -0.006578 0.033528 -0.0023229 0.0023121
-0.00063464 0.0033979 0.0011008 0.0052741
0.0043762 -0.010381 -0.0065264 0.033538 -0.021539 0.31595 0.00089703 0.0015792
0.00038918 0.0036456 -0.0018039 0.0012042
-0.0043799 -0.0015842 -0.0023223 0.0023084 0.00089755 0.0015678 -0.16828 0.24261
-0.026623 0.016238 0.012346 -0.0099667
-0.0037183 0.003098 -0.0006217 0.0033918 0.00040128 0.0036373 -0.026621 0.01631
-0.19402 0.11664 -0.015476 0.018714
0.0037473 0.00088677 0.0011152 0.005285 -0.0018003 0.0012062 0.012363 -0.0099842
-0.01549 0.018692 -0.228 0.18229
860000000 -0.11494 0.25659 -0.015573 0.030938 -0.0038497 -0.009348 -0.0020668 0.0012553
0.0047785 0.0047418 -0.002498 -0.0024178
-0.015579 0.030899 -0.28492 0.29677 0.0092991 0.032884 0.00038827 0.0020343
0.005085 0.00014819 0.003192 0.00057597
-0.0038633 -0.0093383 0.0093626 0.032882 0.026784 0.32272 -0.00029544 -1.1762e-05
0.0026337 -0.0013146 0.0017346 0.004083
-0.0020469 0.0012775 0.00037941 0.0020657 -0.00029422 -9.3345e-06 -0.13173 0.25325
-0.014892 0.020678 -0.0055294 -0.0090142
0.0047751 0.0047516 0.0050912 0.0001762 0.0026449 -0.0013168 -0.014882 0.02072
-0.14101 0.1608 -0.021283 0.016565
-0.0025193 -0.0024246 0.0032013 0.00055434 0.0017332 0.0040776 -0.0055306 -0.0090094
-0.02129 0.016564 -0.17873 0.2216
920000000 -0.088282 0.2781 0.0064481 0.036468 -0.0091941 -0.0038486 -0.0014397 0.0017581
0.0016524 0.0013713 0.0026862 -0.0018599
0.0064206 0.036413 -0.25435 0.31716 0.028215 0.019908 0.001781 0.00081715
0.0069863 -0.00094935 0.0032701 -0.0030896
-0.0092078 -0.0038394 0.02828 0.019878 0.074387 0.32261 0.0019491 -0.00019341
0.0015903 -0.00076713 0.00073625 -0.0012457
-0.0014284 0.001771 0.0017829 0.00082275 0.0019457 -0.00019215 -0.10545 0.26899
-0.0070841 0.030232 0.0021157 -0.0062949
0.0016462 0.001385 0.006957 -0.00094021 0.0015875 -0.00077326 -0.0070453 0.03028
-0.12806 0.16683 -0.00057727 0.025125
0.0026904 -0.0018221 0.0032608 -0.0031224 0.0007212 -0.0012665 0.002104 -0.0063081
-0.00058565 0.02511 -0.1775 0.23739
980000000 -0.041289 0.29586 0.018621 0.028282 -0.0083178 0.0047528 0.0019591 0.0030073
0.0037012 -0.0019026 -0.0031969 -0.0018696
0.018598 0.028233 -0.20242 0.34931 0.032277 0.0029968 0.0019954 -0.00031265
0.0014101 -0.0061075 -0.0006399 -0.0023046
-0.0082925 0.0047667 0.032304 0.0029668 0.12102 0.31432 0.00044357 -0.0013125
4.6064e-05 -0.0021835 0.001359 -0.00017625
0.0019759 0.003005 0.0019827 -0.00030356 0.0004471 -0.0013215 -0.066609 0.27828
0.010481 0.028128 -0.0083438 -0.0057056
0.0037183 -0.0019136 0.0013663 -0.0061048 5.7503e-05 -0.0021828 0.010548 0.028139
-0.096327 0.19118 0.0063797 0.018369
-0.0031963 -0.001866 -0.00060089 -0.0022833 0.0013587 -0.00016631 -0.0083437 -0.0056882
0.0063899 0.018358 -0.13318 0.27428
1040000000 0.0020445 0.30306 0.03289 0.015639 -0.0010297 0.0066081 0.0024255 0.00060696
-6.8989e-05 -0.0030912 -0.00075289 -0.0012806
0.032835 0.015633 -0.16642 0.36239 0.027442 -0.015691 0.0013487 -0.0017173
-0.0024795 -0.0024113 -0.0016347 -0.0026345
-0.0010261 0.0066001 0.027443 -0.015731 0.1676 0.29958 -0.00065142 -0.0014015
-0.0016216 -0.00080682 -0.00047409 -0.0010685
0.0024221 0.00058376 0.0013516 -0.0017016 -0.000661 -0.0014059 -0.037379 0.28733
0.020817 0.015397 -0.0027032 0.001321
-7.3633e-05 -0.0031174 -0.0024968 -0.0023757 -0.001622 -0.00080807 0.020858 0.015372
-0.06402 0.19725 0.013858 0.015577
-0.00075027 -0.0012826 -0.0016057 -0.0026449 -0.00046673 -0.0010801 -0.0026821 0.0013123
0.013863 0.01557 -0.10751 0.29385
1100000000 0.047582 0.30873 0.03427 -0.0059573 0.0027231 0.0035938 0.0022947 -0.0011155
-0.0020674 -0.0027283 -0.0034797 0.00045
0.034234 -0.0059317 -0.12278 0.37823 0.013254 -0.027455 -9.0376e-05 -0.0018187
-0.0032886 -0.00050262 -0.0032907 -0.00023973
0.0027251 0.0035766 0.013197 -0.027493 0.2144 0.27706 -0.0017798 0.00022927
-0.0017208 0.00069159 -0.00086206 -0.00019357
0.0022807 -0.0011144 -8.8671e-05 -0.0018124 -0.0017761 0.0002274 0.004047 0.28968
0.024366 0.0021875 -0.0023897 0.00018501
-0.0020677 -0.0027313 -0.0032965 -0.00049235 -0.0017161 0.00069527 0.024386 0.002159
-0.044582 0.20867 0.018415 0.005993
-0.0034682 0.00044377 -0.0032877 -0.00023336 -0.00086968 -0.00019855 -0.002384 0.00018018
0.018416 0.0059785 -0.060437 0.31668
1160000000 0.098356 0.30248 0.02182 -0.021451 0.0023286 -0.00031667 -6.5714e-05 -0.0021349
-0.0038744 -0.0004664 -0.00057259 0.0037431
0.021824 -0.021419 -0.078451 0.38177 -0.005019 -0.02781 -0.001658 -0.0015315
-0.0025087 0.0024662 -0.0012976 0.0017508
0.0023238 -0.00032734 -0.0050855 -0.027796 0.25657 0.24447 -0.0006976 0.0017944
-0.000409 0.0018659 -0.00075658 0.00013958
-7.0506e-05 -0.0021441 -0.0016675 -0.0015252 -0.00069158 0.0018064 0.043438 0.28446
0.019662 -0.012682 -0.0029761 0.0044094
-0.0038596 -0.00045265 -0.0025157 0.0024827 -0.00039898 0.0018753 0.019648 -0.012717
-0.01141 0.21539 0.016681 -0.0021701
-0.00057088 0.0037261 -0.0012725 0.0017622 -0.00076081 0.00013713 -0.002987 0.0044089
0.01669 -0.0022001 -0.013873 0.31714
1220000000 0.14313 0.28917 0.0081359 -0.029366 -0.0015221 -0.00036674 7.6651e-05 -0.00097244
-0.0023748 0.002315 0.0013439 0.0018126
0.008157 -0.029345 -0.034223 0.39226 -0.01712 -0.019495 -0.0024101 0.00046472
0.00019817 0.0028321 -0.00050451 0.0018568
-0.0015167 -0.00038065 -0.017182 -0.019454 0.2951 0.20409 0.00085078 0.001739
0.0006754 0.0011498 0.00030669 0.00049266
7.9915e-05 -0.00097514 -0.0024125 0.00047166 0.00083877 0.0017405 0.083645 0.27356
0.0086213 -0.018356 0.0014778 0.0014493
-0.0023595 0.0023151 0.00020366 0.0028311 0.00068287 0.0011575 0.0086094 -0.018368
0.012736 0.22218 0.011425 -0.013439
0.0013397 0.001793 -0.00049992 0.001864 0.00030753 0.00049136 0.00147 0.0014549
0.011409 -0.013476 0.020014 0.32816
1280000000 0.19166 0.26537 -0.0091977 -0.026795 -0.0014669 0.0027639 -0.00096754 -0.0019858
-0.00056041 0.002867 0.0023252 0.00083367
-0.0091707 -0.026781 0.011342 0.38225 -0.023077 -0.0072862 -0.00091883 0.0013906
0.0017333 0.0016001 0.00075055 0.0016765
-0.0014618 0.0027666 -0.023112 -0.00722 0.32441 0.15896 0.0016303 -6.2384e-05
0.0011195 0.00013723 0.00022207 0.00020402
-0.00096813 -0.0019785 -0.00092145 0.0013925 0.0016324 -5.5068e-05 0.11933 0.25445
-0.0010491 -0.019445 -0.00044139 0.0004416
-0.00056212 0.0028763 0.0017277 0.0015921 0.0011097 0.00014117 -0.001082 -0.019447
0.048874 0.22324 0.0011403 -0.014924
0.0023116 0.00082082 0.00077007 0.0016784 0.00022268 0.00020404 -0.00045233 0.00044828
0.0011255 -0.014963 0.065577 0.32536
1340000000 0.22806 0.23026 -0.017964 -0.016934 0.0013743 0.0042398 -0.001704 -0.00087008
0.0014517 0.0024315 0.0014169 -0.0014471
-0.017936 -0.016943 0.050671 0.37299 -0.020514 0.0049456 -0.00011464 0.0019593
0.0018964 0.00058284 0.0013069 0.00062344
0.0013813 0.0042299 -0.020509 0.0050055 0.3452 0.11061 0.0011633 -0.001017
0.00058046 -0.00049252 6.4895e-05 0.00025586
-0.0017117 -0.00086009 -0.00010469 0.0019744 0.001166 -0.0010121 0.15067 0.23237
-0.010112 -0.015796 0.00062271 0.0010998
0.0014632 0.002432 0.0018972 0.00058211 0.00059012 -0.00048771 -0.010145 -0.015787
0.078442 0.21689 -0.0053476 -0.012654
0.0014273 -0.0014535 0.0013059 0.00062406 6.8757e-05 0.0002562 0.00062658 0.0011091
-0.0053928 -0.012685 0.10443 0.31689
1400000000 0.25981 0.19068 -0.022486 -0.0057636 0.0052612 0.0026045 -0.0021307 0.0006501
0.0022993 0.00075599 0.00015243 -0.0013299
-0.022468 -0.0057777 0.087349 0.35914 -0.013692 0.012329 0.0013005 0.001302
0.0011004 -0.00087387 0.0010741 0.00010341
0.0052555 0.0025811 -0.013656 0.012378 0.35775 0.056651 9.8385e-05 -0.0018186
4.2165e-05 -0.00035756 0.0003329 0.00018696
-0.0021317 0.00064382 0.0012998 0.0013061 8.9472e-05 -0.0018171 0.17881 0.20149
-0.015453 -0.008876 -0.00034743 0.00036981
0.0023018 0.00076259 0.001113 -0.00087483 4.7172e-05 -0.00035791 -0.015471 -0.0088438
0.11063 0.21005 -0.010872 -0.0074262
0.00015259 -0.0013311 0.0010779 9.5572e-05 0.00033906 0.00018087 -0.00033926 0.00038526
-0.010911 -0.0074236 0.14689 0.30183
1460000000 0.28107 0.14607 -0.019059 0.0055175 0.0053508 -0.0022589 -0.0015345 0.0017016
0.0019537 -0.00065401 -0.00043171 -0.00082319
-0.019047 0.0055101 0.12107 0.33669 -0.005445 0.014656 0.0017237 0.0001356
0.0007388 -0.0012881 0.0010196 -0.00056433
0.0053308 -0.0022697 -0.005392 0.014684 0.36232 0.0020455 -0.001464 -0.0012903
9.7418e-05 -0.00014913 0.00059473 -0.00027593
-0.0015272 0.0016856 0.0017222 0.0001418 -0.001457 -0.0012738 0.20278 0.1711
-0.016172 -0.001987 -0.00019572 0.002053
0.001954 -0.00065061 0.00073858 -0.0012964 9.588e-05 -0.00014547 -0.0162 -0.001946
0.13887 0.19375 -0.011817 -0.0015529
-0.00043341 -0.00080877 0.0010122 -0.00058689 0.00060586 -0.00027821 -0.0001755 0.0020774
-0.011866 -0.0015179 0.17858 0.27883
1520000000 0.2922 0.10338 -0.013209 0.010383 0.0028369 -0.0042272 0.0001272 0.0026448
0.0018586 -0.0016462 -0.0010514 -4.3269e-05
-0.013212 0.010369 0.15428 0.3213 0.0016784 0.01244 0.0016397 -0.00085286
-5.3599e-05 -0.0010151 0.00027215 -0.00089748
0.0028162 -0.0042223 0.001707 0.01244 0.35514 -0.054363 -0.0013312 -0.00024342
0.00051188 -0.00086458 -4.1212e-06 -0.00013676
0.00014021 0.002643 0.0016334 -0.00085573 -0.0013354 -0.00024341 0.2238 0.13264
-0.014971 0.0037062 0.001926 0.0017695
0.0018526 -0.0016452 -5.5561e-05 -0.001026 0.00051562 -0.00085972 -0.014986 0.0037381
0.1663 0.17795 -0.011288 0.0027278
-0.0010547 -5.0077e-05 0.00026734 -0.00090151 -2.9958e-07 -0.00013632 0.0019353 0.0017642
-0.011305 0.0027726 0.21025 0.25517
1580000000 0.29994 0.056784 -0.0069356 0.012775 -0.001181 -0.0045336 0.0015694 0.0018563
-0.00018354 -0.0020219 -0.00025063 0.00036873
-0.0069424 0.012763 0.18101 0.2958 0.0049889 0.0078083 0.00042936 -0.0016609
-0.00054045 -0.00091336 -0.00022156 -0.00077932
-0.0012053 -0.0045232 0.0050055 0.0077893 0.3341 -0.11215 -0.0016158 0.00092123
-0.00032835 -0.0010063 0.00018541 -0.00051179
0.0015701 0.0018627 0.00042287 -0.0016568 -0.0016155 0.0009249 0.23527 0.093132
-0.011372 0.0083484 0.0024319 0.00023141
-0.00018331 -0.0020295 -0.00055031 -0.00091197 -0.00033799 -0.0010165 -0.011363 0.0083757
0.18936 0.15786 -0.0086209 0.0076671
-0.00025255 0.00036459 -0.00021978 -0.00078144 0.00019086 -0.0005014 0.0024353 0.00021043
-0.008603 0.007722 0.23947 0.22618
1640000000 0.30063 0.015223 -0.00080567 0.011359 -0.0027075 -0.0023089 0.0028072 0.00083487
-0.00074836 -0.0014702 -0.00021181 0.00053569
-0.00081371 0.011351 0.21003 0.2702 0.0055868 0.003377 -0.0008132 -0.0016719
-0.0009939 -0.00030422 -0.00051901 -0.00057579
-0.0027129 -0.0022868 0.0056005 0.0033661 0.30457 -0.1607 -0.00049639 0.001584
-0.0011676 -0.00078033 -0.00021911 -0.00025395
0.0028001 0.0008256 -0.00082197 -0.0016729 -0.00050706 0.0015795 0.24523 0.045354
-0.0069597 0.0096998 0.0024081 -0.0012283
-0.00076285 -0.0014698 -0.0010114 -0.00029846 -0.0011675 -0.00078003 -0.0069413 0.0097176
0.21065 0.13204 -0.0039998 0.0093463
-0.00020703 0.00053502 -0.00051895 -0.00057334 -0.00022228 -0.00025383 0.0023966 -0.0012456
-0.0039617 0.0093764 0.26302 0.1933
1700000000 0.29198 -0.030318 0.0021379 0.0085212 -0.0032738 0.0001325 0.0029013 -0.0014677
-0.0018986 -0.00065801 0.00062586 0.00041173
0.0021279 0.0085224 0.22763 0.23823 0.0037743 0.00063817 -0.0014666 -0.00046485
-0.00068977 0.00014787 -0.0008614 -0.00041223
-0.0032854 0.00014626 0.0037798 0.00062446 0.261 -0.20025 0.00064807 0.0014441
-0.0017544 -0.00015215 -0.00052857 -0.00080681
0.002904 -0.0014727 -0.0014762 -0.00046286 0.00064021 0.0014343 0.24066 -0.0030415
-0.0038356 0.010169 0.0012705 -0.0023396
-0.0019089 -0.0006447 -0.00067919 0.00015179 -0.0017548 -0.00016429 -0.0038278 0.010185
0.22654 0.11007 0.00040439 0.0094889
0.00063545 0.0004089 -0.00086411 -0.00039846 -0.00053512 -0.0008068 0.0012584 -0.0023539
0.00045479 0.0095026 0.2771 0.1575
1760000000 0.27827 -0.078649 0.003973 0.0054445 -0.0021934 0.00085808 0.00092137 -0.0034988
-0.0013877 0.00066906 0.00047975 -0.00047078
0.0039547 0.0054454 0.25273 0.1976 0.0016732 -0.0012359 -0.0011767 0.00026027
-0.0009186 0.00081375 -0.0005875 0.00046346
-0.0021779 0.0008288 0.0016749 -0.0012491 0.2122 -0.23389 0.0013315 0.00073848
-0.0011217 0.0015184 -0.0013156 -0.00029858
0.00090152 -0.0034952 -0.0011742 0.00026765 0.0013291 0.00073436 0.23054 -0.052327
-0.00039905 0.0093131 -0.00052877 -0.0024954
-0.001387 0.00067874 -0.00090223 0.00081735 -0.0011161 0.0015257 -0.00038224 0.0093158
0.23925 0.073603 0.0039333 0.0067293
0.00048095 -0.00047287 -0.00058164 0.00047191 -0.0013198 -0.00030476 -0.00055177 -0.0024907
0.0039803 0.0067096 0.2873 0.11881
1820000000 0.25221 -0.11539 0.0039385 0.0021719 -9.4193e-05 0.0023898 -0.0013281 -0.0028092
-0.0010582 0.001017 1.7613e-05 -0.00011217
0.0039358 0.0021797 0.26183 0.16745 -0.00028482 -9.3675e-05 -0.0011713 0.00098976
-4.2837e-07 0.0011907 -0.00051785 0.00057512
-6.5768e-05 0.0023589 -0.00028992 -0.0001009 0.16124 -0.24898 0.0012853 5.7183e-05
-9.272e-05 0.0020945 -0.0013152 0.00049604
-0.0013296 -0.0028053 -0.0011741 0.00099398 0.00128 6.7133e-05 0.20086 -0.097221
0.0013531 0.0074929 -0.0016843 -0.0013698
-0.0010488 0.0010365 8.7003e-07 0.001193 -9.6218e-05 0.0020983 0.0013659 0.0074981
0.25431 0.043482 0.0048798 0.0033341
1.3619e-05 -0.00012665 -0.00050982 0.00057545 -0.0013155 0.00050142 -0.0016956 -0.0013488
0.0049044 0.0033095 0.28739 0.081599
1880000000 0.21572 -0.15479 0.001674 0.00022109 -0.00047112 0.0020197 -0.002936 -0.0017913
-0.00023323 0.0016987 0.00019098 -0.00045305
0.0016716 0.00022156 0.2655 0.12047 -0.0023929 0.0015798 -5.8179e-05 0.0016388
0.00055227 0.0010444 0.00017076 0.00094535
-0.00045239 0.0020146 -0.0023804 0.0015716 0.10825 -0.25901 0.0013644 -0.00098321
0.0015212 0.0016322 -0.00077895 0.0014022
-0.0029368 -0.0017718 -5.0164e-05 0.0016358 0.001372 -0.00098105 0.16144 -0.13656
0.0021869 0.0051666 -0.0023027 0.00047837
-0.00021298 0.0016961 0.00055776 0.0010446 0.0015216 0.0016329 0.0022009 0.0051725
0.25485 0.0095693 0.0045568 0.0012535
0.00018929 -0.00046499 0.0001857 0.0009499 -0.00077277 0.0014033 -0.0022934 0.0004812
0.0045743 0.0012076 0.28484 0.047023
1940000000 0.1756 -0.17961 -0.00044802 -0.0010997 0.0015091 0.0018858 -0.0035086 0.00083638
0.0014294 0.0011647 -0.00060769 -0.00056872
-0.00043546 -0.0011048 0.26489 0.088969 -0.001119 0.0039878 0.00097944 0.0011657
0.0016684 0.00041557 0.00093536 0.00040312
0.0015386 0.0018842 -0.0011045 0.0039918 0.061821 -0.25125 0.0001248 -0.0015935
0.0023303 0.00033213 0.00057195 0.0015937
-0.0034985 0.00086946 0.00098918 0.0011538 0.00012827 -0.0015965 0.11002 -0.16627
0.0013763 0.003482 -0.0013855 0.0014646
0.0014519 0.0011624 0.0016659 0.00041507 0.0023306 0.00032241 0.0013861 0.0034863
0.25416 -0.029856 0.0033928 -0.001613
-0.0006216 -0.0005633 0.00093022 0.00040201 0.00056507 0.0015977 -0.0013784 0.0014748
0.0033854 -0.0016505 0.27197 0.010524
2000000000 0.12887 -0.19345 -0.0041051 0.0010323 0.0025365 0.0013922 -0.0019868 0.0033647
0.0012871 0.00011121 -0.00054957 0.00045722
-0.0040939 0.0010204 0.25028 0.053451 -0.00083106 0.0057236 0.0015522 0.00022381
0.0012304 -0.0011776 0.00046156 -4.6892e-06
0.0025653 0.0013782 -0.00080016 0.0057319 0.018391 -0.23655 -0.00094429 -0.0009974
0.0018249 -0.0010823 0.0017557 0.00097142
-0.0019969 0.0033723 0.0015549 0.00021663 -0.00094364 -0.00099997 0.057744 -0.17685
-0.00033241 0.002911 7.6811e-06 0.0021896
0.0012617 9.7906e-05 0.0012084 -0.0011891 0.0018231 -0.001088 -0.00032175 0.0029125
0.24587 -0.064081 0.00041009 -0.0026243
