!Keysight Technologies,M9804A,MY58100912,A.14.10.03
!Date: Thursday, April 27, 2023 10:28:33
!Correction: S11(C  6-Port  ) 
!S12(C  6-Port  ) 
!S13(C  6-Port  ) 
!S14(C  6-Port  ) 
!S15(C  6-Port  ) 
!S16(C  6-Port  ) 
!S21(C  6-Port  ) 
!S22(C  6-Port  ) 
!S23(C  6-Port  ) 
!S24(C  6-Port  ) 
!S25(C  6-Port  ) 
!S26(C  6-Port  ) 
!S31(C  6-Port  ) 
!S32(C  6-Port  ) 
!S33(C  6-Port  ) 
!S34(C  6-Port  ) 
!S35(C  6-Port  ) 
!S36(C  6-Port  ) 
!S41(C  6-Port  ) 
!S42(C  6-Port  ) 
!S43(C  6-Port  ) 
!S44(C  6-Port  ) 
!S45(C  6-Port  ) 
!S46(C  6-Port  ) 
!S51(C  6-Port  ) 
!S52(C  6-Port  ) 
!S53(C  6-Port  ) 
!S54(C  6-Port  ) 
!S55(C  6-Port  ) 
!S56(C  6-Port  ) 
!S61(C  6-Port  ) 
!S62(C  6-Port  ) 
!S63(C  6-Port  ) 
!S64(C  6-Port  ) 
!S65(C  6-Port  ) 
!S66(C  6-Port  ) 
!S6P File: Measurement: :
# Hz S  RI   R 50
500000000 -0.33948 -0.01718 -0.010881 -0.0030074 -0.0070876 0.012729 -0.0031107 0.012091
0.011165 0.0038233 -0.0027207 0.0084029
-0.010857 -0.0030014 -0.41944 -0.035616 0.0064316 -0.011752 0.0019497 0.012599
0.0066223 0.002376 0.0019686 0.013905
-0.0070529 0.01271 0.0064275 -0.011754 -0.26252 0.22299 0.0072712 0.0036669
-0.00079545 0.0084097 0.002324 0.01237
-0.0031087 0.012033 0.0019638 0.0126 0.0072777 0.0036686 -0.33023 0.063257
-0.019015 -0.0064902 0.015171 0.023525
0.011225 0.0036942 0.0065646 0.0024066 -0.00075232 0.0085007 -0.019082 -0.0064418
-0.23706 -0.16331 -0.024735 0.0043253
-0.0027118 0.0083616 0.0019909 0.013941 0.0023396 0.012385 0.015241 0.023591
-0.024678 0.0042081 -0.28548 -0.078774
560000000 -0.31165 0.1377 -0.026911 -0.060544 0.00088458 0.011365 0.0054531 0.0096944
0.0090887 0.0040177 0.010609 0.0064021
-0.026817 -0.060437 -0.37549 0.11822 -0.04212 -0.034403 0.013755 0.0031792
-0.012663 -0.0037974 0.0028095 -0.0010245
0.0009192 0.01137 -0.04215 -0.034424 -0.18015 0.26765 -0.00054675 -0.0044182
0.018918 0.0034444 0.007035 -0.0065803
0.0054341 0.0097073 0.013767 0.0031814 -0.00056369 -0.0044471 -0.30387 0.14871
0.00051919 -0.024261 0.0032437 -0.018042
0.0089202 0.0040838 -0.01255 -0.0037306 0.018855 0.003412 0.00049776 -0.024293
-0.28689 0.0096712 0.0027554 -0.046752
0.010532 0.0062683 0.0027594 -0.00092596 0.0070124 -0.006569 0.0032663 -0.01805
0.0028717 -0.046773 -0.3298 0.060513
620000000 -0.26967 0.12344 -0.023376 0.0071092 0.0036532 0.0078676 0.0077348 -0.0057771
0.010535 -0.0010124 0.0012168 -0.0025884
-0.023344 0.0070999 -0.40126 0.074275 -0.019457 0.00044983 -0.0010099 -0.002266
0.010016 -0.0062927 0.0013223 -0.0030376
0.0036583 0.0078503 -0.019468 0.00046542 -0.14878 0.27744 -0.0013345 -0.004599
-0.003135 -0.0026178 0.0083128 -0.004101
0.0077734 -0.0057802 -0.001016 -0.0022725 -0.0013219 -0.0046175 -0.26241 0.16064
-0.03919 -0.017446 0.01239 0.022674
0.010572 -0.00098886 0.0099803 -0.0063829 -0.0031772 -0.0028762 -0.039144 -0.017389
-0.21029 -0.02769 -0.038794 0.014869
0.0011519 -0.0025985 0.0013318 -0.0030623 0.008244 -0.0040902 0.012246 0.022682
-0.038539 0.014878 -0.25592 0.032764
680000000 -0.22721 0.20497 -0.027941 -0.011879 0.0053808 0.0044505 0.0013197 -0.0072194
-0.0029459 -0.011111 0.0037393 -0.0067465
-0.027934 -0.01189 -0.38415 0.16815 -0.03213 0.00054417 -0.0014928 -0.00048444
-0.0025028 -0.0088236 -0.001615 -0.0020924
0.0053846 0.0044364 -0.032143 0.00058915 -0.098033 0.29477 -0.00091542 -0.00034234
-0.0017666 2.1756e-05 -0.003765 -0.0084299
0.0013058 -0.0071906 -0.0015079 -0.00048269 -0.00091893 -0.00034202 -0.21658 0.20748
-0.025693 -0.0054143 -0.0088861 -0.0082307
-0.0029416 -0.011191 -0.0024687 -0.0087803 -0.0017735 9.3956e-05 -0.025661 -0.0053932
-0.24925 0.068463 -0.0071614 -0.0066106
0.0036998 -0.0067548 -0.0016017 -0.0021233 -0.0037603 -0.0084438 -0.0088515 -0.008269
-0.0070968 -0.0066166 -0.25275 0.12763
740000000 -0.18379 0.2001 -0.036722 0.026277 0.011805 -0.0059005 -0.00077238 -0.0039582
-0.0049853 -0.0026242 -0.0059212 0.0034588
-0.036719 0.026242 -0.33263 0.18781 -0.032413 0.034995 -0.0010484 -0.0061747
-0.011382 0.0082037 -0.0017336 -0.004897
0.011786 -0.0059134 -0.032361 0.035068 -0.064351 0.29449 -0.0017699 0.0030167
-0.0032726 -0.0044839 -0.0019488 0.0011926
-0.00078074 -0.0039806 -0.0010893 -0.0061578 -0.0017715 0.0030202 -0.19852 0.2166
-0.041911 -0.003329 0.021744 0.012029
-0.0052041 -0.0027339 -0.01126 0.0082317 -0.0033258 -0.0044815 -0.041932 -0.0033554
-0.15719 0.0898 -0.037875 0.002921
-0.0058348 0.00347 -0.0017264 -0.0048908 -0.0019401 0.001171 0.021758 0.012038
-0.03786 0.0029048 -0.24135 0.1373
800000000 -0.15004 0.23691 -0.021426 0.017665 0.0043635 -0.010376 -0.0043931 -0.0015818
-0.0037411 0.0030336 0.0037585 0.00090472
-0.021421 0.017652 -0.33231 0.25602 -0.006526 0.033515 -0.0023269 0.0023358
-0.00053456 0.0034056 0.0010972 0.0052951
0.0043566 -0.010382 -0.0064783 0.03352 -0.021499 0.31594 0.00088357 0.0015836
0.000392 0.0036545 -0.0018039 0.0012164
-0.0043748 -0.0015947 -0.0023232 0.0023347 0.00089096 0.0015754 -0.16832 0.24256
-0.026632 0.016199 0.012319 -0.0099924
-0.0036994 0.0031174 -0.00057368 0.0034371 0.00044367 0.0036245 -0.026638 0.016285
-0.1938 0.11645 -0.015469 0.018623
0.0037659 0.00091373 0.0011131 0.0053063 -0.0017884 0.0012284 0.012329 -0.0099957
-0.015549 0.0186 -0.22798 0.18242
860000000 -0.115 0.25658 -0.015546 0.030869 -0.0038515 -0.0093428 -0.002073 0.0012095
0.0048536 0.0047113 -0.0024832 -0.0024176
-0.015556 0.030845 -0.28487 0.2967 0.0093232 0.032883 0.0003965 0.0020244
0.0050499 0.0001684 0.0032074 0.0006062
-0.0038571 -0.0093354 0.0093655 0.032858 0.026828 0.32272 -0.00028125 -1.5199e-05
0.0026119 -0.001316 0.0017208 0.0040576
-0.0020569 0.0012205 0.00041118 0.0020338 -0.00028499 -2.0203e-05 -0.13175 0.25321
-0.014942 0.020603 -0.0055677 -0.0090285
0.0048488 0.0046993 0.0050885 7.7269e-05 0.0026297 -0.0013419 -0.014938 0.020664
-0.14101 0.16044 -0.021271 0.016455
-0.0024876 -0.0024342 0.0032136 0.00058974 0.0017467 0.0040731 -0.0055585 -0.0090464
-0.0213 0.016433 -0.17862 0.2218
920000000 -0.088268 0.27815 0.0064336 0.036458 -0.0092357 -0.0038358 -0.0014413 0.001777
0.0016293 0.0013088 0.0027187 -0.0018832
0.0064211 0.036415 -0.2544 0.31711 0.028215 0.019884 0.0017864 0.00082635
0.0069596 -0.00098851 0.003259 -0.0030941
-0.009231 -0.0038227 0.028248 0.019829 0.074394 0.32257 0.0019572 -0.00019675
0.0016014 -0.00078856 0.00071537 -0.0012409
-0.0014283 0.0017742 0.0017809 0.00081416 0.001967 -0.00019567 -0.10552 0.26895
-0.0070882 0.030222 0.0020353 -0.0062645
0.0016801 0.001333 0.0069436 -0.0010177 0.001592 -0.00079106 -0.0071032 0.03024
-0.12819 0.16668 -0.00067811 0.025066
0.002725 -0.0019011 0.0032729 -0.00307 0.00069812 -0.0012271 0.0020089 -0.0062578
-0.00071429 0.025071 -0.17734 0.23756
980000000 -0.041276 0.2959 0.018599 0.028265 -0.0083414 0.004747 0.001951 0.0030009
0.0037173 -0.0019381 -0.0031914 -0.001877
0.018592 0.028246 -0.20245 0.34928 0.032279 0.0030293 0.0019728 -0.00027163
0.0013739 -0.0060985 -0.00060992 -0.0023213
-0.008324 0.0047601 0.032279 0.0029444 0.121 0.31436 0.00042445 -0.0013076
3.4706e-05 -0.0021976 0.0013565 -0.00017642
0.0019658 0.00301 0.0019733 -0.00029214 0.00042751 -0.0012954 -0.066679 0.27833
0.010435 0.028134 -0.0083585 -0.0056699
0.0037015 -0.0019238 0.0013471 -0.0061197 4.9349e-05 -0.0022148 0.010494 0.028145
-0.096589 0.19111 0.0063156 0.018315
-0.0032038 -0.0018614 -0.0006322 -0.0023104 0.001356 -0.00018227 -0.0083663 -0.0056415
0.0062831 0.018336 -0.133 0.27434
1040000000 0.0020629 0.30311 0.032879 0.015624 -0.0010499 0.0065943 0.0024401 0.00056964
-5.4057e-05 -0.003117 -0.0007634 -0.0012479
0.032852 0.01561 -0.16645 0.3624 0.027463 -0.015694 0.0013787 -0.0016714
-0.0024886 -0.0023431 -0.0016311 -0.0026348
-0.0010323 0.0066004 0.027415 -0.015751 0.16763 0.29957 -0.00064982 -0.0014098
-0.0016236 -0.00079298 -0.00047179 -0.0010387
0.0024458 0.00057936 0.0013559 -0.0016872 -0.00065183 -0.0014085 -0.037427 0.28737
0.020764 0.015433 -0.0027193 0.0013572
-8.2331e-05 -0.0030995 -0.0024892 -0.0023605 -0.0016242 -0.00079019 0.020802 0.015403
-0.064316 0.19737 0.013732 0.015572
-0.00076507 -0.0012741 -0.0016266 -0.0026234 -0.00047724 -0.0010481 -0.0027259 0.0013645
0.013735 0.015566 -0.10734 0.29391
1100000000 0.047635 0.3088 0.034245 -0.0059878 0.0027088 0.0035756 0.0023077 -0.0011298
-0.0020791 -0.0026916 -0.0035054 0.00045441
0.034226 -0.0059647 -0.12279 0.37823 0.013241 -0.027462 -7.6846e-05 -0.0017949
-0.0032863 -0.00043988 -0.0032826 -0.00023604
0.002717 0.0035746 0.013176 -0.027492 0.21443 0.27707 -0.0017671 0.00024153
-0.0017022 0.0007102 -0.00085804 -0.00020899
0.0023013 -0.0011222 -8.7075e-05 -0.0017974 -0.0017651 0.00023793 0.0040019 0.28977
0.024311 0.002208 -0.0023763 0.00022653
-0.002073 -0.0027137 -0.0032797 -0.00044701 -0.0017091 0.00068777 0.024321 0.0022087
-0.044791 0.20889 0.018282 0.006033
-0.0034934 0.00046094 -0.0032819 -0.00022127 -0.00085262 -0.00020313 -0.0023636 0.00022491
0.018277 0.0060163 -0.060317 0.31672
1160000000 0.098419 0.30247 0.021793 -0.02143 0.0023213 -0.00033709 -5.1963e-05 -0.0021675
-0.003855 -0.00050037 -0.00056076 0.0037564
0.021796 -0.021422 -0.078449 0.38183 -0.0050375 -0.027788 -0.0016481 -0.0014938
-0.0024875 0.0024987 -0.0012576 0.0017476
0.0023197 -0.00032753 -0.0051257 -0.027794 0.25663 0.24442 -0.00068051 0.0017795
-0.00037593 0.0018836 -0.00074822 0.0001387
-5.9447e-05 -0.0021575 -0.0016583 -0.0015058 -0.00068843 0.0017789 0.043478 0.28456
0.019649 -0.012611 -0.0029545 0.0044567
-0.0038635 -0.00047198 -0.0024724 0.002476 -0.00042274 0.0018754 0.019638 -0.012636
-0.011493 0.21573 0.016585 -0.0020681
-0.00054127 0.0037394 -0.0012325 0.0017556 -0.0007465 0.00013766 -0.002951 0.0044692
0.016549 -0.0020619 -0.013718 0.31709
1220000000 0.14321 0.28919 0.0081077 -0.029315 -0.0015332 -0.0003619 6.82e-05 -0.0010014
-0.0023556 0.0023222 0.0013576 0.0017967
0.0081265 -0.029289 -0.034206 0.39233 -0.017129 -0.019456 -0.0024111 0.00046685
0.00022262 0.002807 -0.000478 0.0018432
-0.0015243 -0.00036274 -0.017192 -0.019406 0.29516 0.20405 0.0008477 0.0017255
0.00067719 0.0011418 0.00030997 0.00048384
6.448e-05 -0.00099978 -0.0024115 0.00047283 0.00084942 0.001722 0.083715 0.27366
0.0086198 -0.018244 0.0015145 0.0014658
-0.0023648 0.0023125 0.00022483 0.0028104 0.00066622 0.0011307 0.0086014 -0.01826
0.012806 0.22258 0.011356 -0.013281
0.0013654 0.0017949 -0.00047448 0.001855 0.0003102 0.00049254 0.0015191 0.001469
0.011381 -0.013291 0.020128 0.32816
1280000000 0.19175 0.26535 -0.0092045 -0.026751 -0.0014553 0.0027946 -0.00099801 -0.0019808
-0.00057462 0.0028773 0.0023211 0.00080855
-0.0091689 -0.026736 0.011411 0.38229 -0.023082 -0.007239 -0.00091684 0.0013986
0.0017173 0.0015733 0.000748 0.0016654
-0.0014507 0.0027965 -0.023124 -0.0071672 0.32445 0.15891 0.0016235 -6.7468e-05
0.0011138 0.0001266 0.00023001 0.00019292
-0.00099492 -0.0019716 -0.00091657 0.0013939 0.001619 -6.7509e-05 0.11946 0.25452
-0.00099597 -0.019351 -0.00038344 0.00043142
-0.0005572 0.0028588 0.001731 0.0015709 0.0010949 0.00013947 -0.0010325 -0.019351
0.049111 0.22358 0.0011664 -0.014783
0.0023175 0.00080068 0.00074909 0.0016704 0.00022209 0.00018906 -0.00038115 0.00043124
0.0011666 -0.014777 0.065705 0.32534
1340000000 0.22813 0.2302 -0.017931 -0.016878 0.0013954 0.0042574 -0.0017192 -0.00085472
0.0014524 0.0024349 0.0014164 -0.0014539
-0.017905 -0.016878 0.050741 0.37303 -0.020487 0.0049717 -0.00011977 0.0019712
0.0018581 0.00057702 0.0012847 0.00062841
0.0014139 0.0042472 -0.020473 0.0050321 0.34518 0.11056 0.0011362 -0.0010163
0.00059134 -0.00048446 6.1718e-05 0.00025799
-0.0017169 -0.00084899 -0.00011789 0.0019705 0.0011393 -0.0010127 0.15082 0.23238
-0.010014 -0.015707 0.00066596 0.0010674
0.001461 0.0024148 0.0018711 0.00056368 0.00057149 -0.00050763 -0.01004 -0.015708
0.078798 0.21708 -0.0052196 -0.012548
0.0014015 -0.0014554 0.0012943 0.00062594 5.7297e-05 0.00025529 0.00067411 0.0010613
-0.0052151 -0.012563 0.10451 0.31685
1400000000 0.25989 0.19065 -0.022439 -0.0057238 0.0052621 0.0025808 -0.0021135 0.00064853
0.0022915 0.00075122 0.00013821 -0.0013201
-0.022411 -0.005748 0.087459 0.35918 -0.013637 0.012339 0.0013031 0.0012966
0.0010856 -0.00084707 0.0010697 0.00011064
0.0052607 0.0025685 -0.013607 0.012393 0.35768 0.056593 8.7894e-05 -0.0018038
4.7927e-05 -0.00034858 0.0003362 0.00018073
-0.0021161 0.00065019 0.0012982 0.0012909 9.311e-05 -0.001804 0.17897 0.20144
-0.015303 -0.0088549 -0.00032688 0.0003141
0.0023006 0.00071626 0.0010896 -0.00085345 4.4434e-05 -0.00035242 -0.015332 -0.0088315
0.11102 0.21011 -0.010729 -0.0073701
0.00013218 -0.0013314 0.0010692 0.00010006 0.00033545 0.00018389 -0.00032562 0.00031376
-0.010723 -0.0073869 0.14698 0.3018
1460000000 0.28116 0.14601 -0.019009 0.0055158 0.0053583 -0.0022828 -0.0015156 0.0016973
0.0019521 -0.00065255 -0.00044009 -0.00083309
-0.018996 0.0055079 0.12118 0.33669 -0.0054003 0.014644 0.0017193 0.00013237
0.00073514 -0.0012573 0.0010224 -0.00056199
0.0053564 -0.0023002 -0.0053546 0.014672 0.36229 0.0019994 -0.0014548 -0.001278
0.00010644 -0.00012928 0.00059017 -0.00028368
-0.0015135 0.0016985 0.0017184 0.00012656 -0.0014565 -0.0012802 0.2029 0.17096
-0.016028 -0.0020586 -0.00020086 0.0020068
0.0019347 -0.00068099 0.00073029 -0.0012654 0.00010292 -0.00013015 -0.016037 -0.0020216
0.13924 0.19362 -0.011661 -0.0015804
-0.00045617 -0.00083265 0.0010242 -0.00055387 0.00059018 -0.00028875 -0.00019667 0.0020081
-0.011645 -0.0016098 0.17869 0.27884
1520000000 0.29225 0.10335 -0.01318 0.010345 0.002811 -0.0042475 0.00014445 0.0026312
0.0018524 -0.0016211 -0.0010308 -3.2951e-05
-0.013182 0.010323 0.15439 0.32131 0.0017018 0.012387 0.0016321 -0.00084971
-2.8657e-05 -0.00099891 0.00027972 -0.00090082
0.0027967 -0.0042537 0.0017411 0.012382 0.35502 -0.054406 -0.0013183 -0.00024516
0.00053882 -0.00084689 -3.9516e-06 -0.00014246
0.00015692 0.0026291 0.0016301 -0.00085342 -0.001316 -0.00024768 0.22386 0.13247
-0.014885 0.0035582 0.001887 0.0017254
0.0018475 -0.001628 -3.5065e-05 -0.0010062 0.00052308 -0.00085744 -0.014889 0.0035997
0.1666 0.17774 -0.011169 0.0026259
-0.0010367 -3.1464e-05 0.00027149 -0.00089911 -3.8073e-06 -0.00014113 0.0018899 0.0017206
-0.011167 0.0026168 0.21041 0.25516
1580000000 0.30003 0.0567 -0.0069329 0.012714 -0.0012008 -0.0045376 0.0015486 0.0018568
-0.0001627 -0.0020046 -0.00024902 0.00036876
-0.0069347 0.012703 0.18111 0.29576 0.0049899 0.0077461 0.00042412 -0.0016539
-0.00051847 -0.00091831 -0.00021033 -0.00077316
-0.0012165 -0.0045325 0.0050212 0.0077344 0.33411 -0.11213 -0.0016163 0.00093465
-0.0003074 -0.0010044 0.00020523 -0.00049084
0.0015446 0.0018588 0.00042409 -0.0016599 -0.0016137 0.00092767 0.23524 0.09299
-0.011378 0.0081639 0.002372 0.0002075
-0.00019973 -0.0019976 -0.00053005 -0.00092805 -0.00033338 -0.0010026 -0.01136 0.0082116
0.18955 0.15756 -0.0085666 0.0075283
-0.00024477 0.0003679 -0.00022084 -0.00077944 0.00020189 -0.00050008 0.0023731 0.00020274
-0.0085595 0.0075382 0.23962 0.22614
1640000000 0.30069 0.015151 -0.00083326 0.011311 -0.0027091 -0.0022961 0.0028019 0.0008454
-0.0007373 -0.0014464 -0.00020944 0.00052199
-0.00084338 0.011311 0.2101 0.27014 0.0055619 0.00335 -0.00081355 -0.0016687
-0.00099476 -0.00033154 -0.00051459 -0.00057593
-0.0027127 -0.0022864 0.0055709 0.0033288 0.30452 -0.1607 -0.0005072 0.0015635
-0.0011233 -0.00081467 -0.00020248 -0.00025097
0.0028023 0.00083053 -0.0008209 -0.0016587 -0.00050384 0.0015621 0.24515 0.045216
-0.00705 0.0095637 0.0023508 -0.0012032
-0.00074549 -0.0014444 -0.0010002 -0.00032548 -0.0011539 -0.00078815 -0.0070273 0.0095746
0.21067 0.13174 -0.0040132 0.0091868
-0.00020973 0.00052337 -0.00051925 -0.00057757 -0.0002091 -0.00024098 0.0023441 -0.0012095
-0.0040122 0.009185 0.26316 0.19325
1700000000 0.29203 -0.030443 0.002101 0.0084993 -0.0032877 0.00013387 0.002908 -0.0014678
-0.0018865 -0.00067593 0.00061721 0.00040711
0.0020969 0.0084971 0.22769 0.23816 0.0037312 0.00061114 -0.0014644 -0.00046916
-0.00070577 0.00014177 -0.00086488 -0.00040438
-0.0032861 0.00014786 0.0037385 0.00059891 0.26103 -0.20027 0.00062221 0.0014517
-0.0017694 -0.00018045 -0.00051231 -0.00081296
0.0028994 -0.0014806 -0.0014696 -0.00046199 0.00062223 0.0014564 0.24053 -0.0031082
-0.0039778 0.010108 0.0012327 -0.0022966
-0.0018883 -0.00065579 -0.00070531 0.00014845 -0.0017682 -0.00016878 -0.0039681 0.010108
0.22646 0.10984 0.0003381 0.0093776
0.00061672 0.00040363 -0.00087295 -0.00041066 -0.00052481 -0.0008178 0.0012324 -0.0022988
0.00034351 0.009367 0.27722 0.15738
1760000000 0.27828 -0.078791 0.0039227 0.0054451 -0.0021818 0.00087254 0.00090856 -0.0034825
-0.0014038 0.00064277 0.0004677 -0.00047627
0.003918 0.0054489 0.25275 0.19749 0.0016278 -0.001219 -0.0011703 0.00026587
-0.00092787 0.00082318 -0.00058739 0.00046991
-0.0021779 0.00087983 0.001624 -0.0012228 0.21216 -0.23391 0.0013425 0.00075023
-0.0011241 0.0015163 -0.0013388 -0.00029054
0.00090792 -0.0034906 -0.0011632 0.00027434 0.0013445 0.00075834 0.23045 -0.0523
-0.0005392 0.0093131 -0.00055504 -0.0024381
-0.0013919 0.00065454 -0.00092699 0.00083606 -0.0011414 0.0015326 -0.0005333 0.0093199
0.23912 0.073431 0.0038205 0.0066385
0.00046454 -0.00047889 -0.00058546 0.00047613 -0.0013508 -0.00027414 -0.00056462 -0.0024337
0.0038141 0.0066466 0.28743 0.11866
1820000000 0.25218 -0.11551 0.0038997 0.0022057 -6.4094e-05 0.0023921 -0.0013142 -0.0028043
-0.0010586 0.00099072 1.4917e-05 -0.00010073
0.0038949 0.002204 0.26183 0.16737 -0.00031981 -6.4695e-05 -0.0011662 0.00098869
6.4006e-06 0.0012107 -0.00051526 0.00057932
-6.0848e-05 0.002385 -0.0003163 -6.63e-05 0.16124 -0.24905 0.0012925 5.0421e-05
-0.00012477 0.0020796 -0.0013217 0.00050299
-0.0013226 -0.0028057 -0.0011669 0.00099298 0.0012876 3.9074e-05 0.20075 -0.097192
0.001216 0.007556 -0.0016628 -0.0012916
-0.0010685 0.0010184 4.8635e-07 0.001221 -0.00010521 0.0020821 0.0012306 0.0075396
0.25419 0.043406 0.0047314 0.0033301
4.281e-06 -0.00010413 -0.0005113 0.00057978 -0.001333 0.0004958 -0.0016649 -0.0012999
0.0047522 0.003331 0.28747 0.08144
1880000000 0.21563 -0.15493 0.0016559 0.00024937 -0.00046386 0.0020394 -0.0029352 -0.0017823
-0.00024535 0.0016895 0.00020312 -0.00043366
0.0016544 0.00026039 0.26548 0.12039 -0.0024052 0.0016107 -5.157e-05 0.0016321
0.00057363 0.0010542 0.00016541 0.00095361
-0.00046146 0.0020297 -0.0023982 0.0016223 0.10824 -0.25906 0.0013696 -0.00099565
0.0014919 0.0016352 -0.00077456 0.0014016
-0.002939 -0.0017727 -4.2457e-05 0.0016283 0.0013717 -0.00099289 0.16137 -0.13648
0.002088 0.0052753 -0.0022406 0.00050975
-0.00024428 0.0017021 0.00059039 0.0010488 0.0015244 0.0016325 0.0021017 0.0052611
0.25475 0.0095684 0.0044422 0.0012954
0.00019703 -0.00042657 0.00016919 0.00094972 -0.00076906 0.0014015 -0.0022429 0.00050679
0.0044436 0.0012876 0.2849 0.046877
1940000000 0.17548 -0.17972 -0.00043047 -0.0010676 0.0015372 0.0018823 -0.0035074 0.00083781
0.0014603 0.0011969 -0.00058829 -0.00058423
-0.00042771 -0.0010731 0.26485 0.088943 -0.0011088 0.0040197 0.00097599 0.0011587
0.0016713 0.00041191 0.00093497 0.0003965
0.0015419 0.0018777 -0.0010905 0.0040284 0.061849 -0.25127 0.00013238 -0.0015838
0.0023409 0.00034555 0.0005863 0.0016302
-0.0035064 0.00085002 0.00098258 0.0011571 0.00014896 -0.0015887 0.11005 -0.1662
0.0013546 0.0036075 -0.001314 0.0014764
0.0014466 0.0011778 0.0016874 0.00038687 0.0023266 0.00032849 0.0013558 0.0036319
0.25412 -0.029797 0.0033014 -0.0015316
-0.0005933 -0.00058816 0.00093837 0.00038851 0.0005972 0.0016267 -0.0013257 0.0014888
0.0032761 -0.001522 0.27201 0.010355
2000000000 0.12873 -0.19353 -0.0040705 0.0010452 0.0025315 0.0013986 -0.0019981 0.0033432
0.0012805 0.00010612 -0.0005668 0.00043941
-0.0040696 0.0010472 0.25029 0.053441 -0.00080367 0.0057423 0.0015485 0.00022292
0.0012175 -0.0012075 0.00046456 -1.0726e-05
0.0025383 0.0013757 -0.00077241 0.0057497 0.018408 -0.2366 -0.00095771 -0.0009927
0.0018456 -0.0010944 0.0017372 0.00095444
-0.0019851 0.0033548 0.0015527 0.00021249 -0.00096712 -0.00098866 0.05775 -0.1768
-0.00029592 0.0030447 5.5973e-05 0.0021496
0.0013102 9.7862e-05 0.0012031 -0.0012091 0.0018226 -0.0010867 -0.0002911 0.0030294
0.24591 -0.064042 0.00036761 -0.0025026
