!Keysight Technologies,M9804A,MY58100912,A.14.10.03
!Date: Thursday, April 27, 2023 10:28:33
!Correction: S11(C  6-Port  ) 
!S12(C  6-Port  ) 
!S13(C  6-Port  ) 
!S14(C  6-Port  ) 
!S15(C  6-Port  ) 
!S16(C  6-Port  ) 
!S21(C  6-Port  ) 
!S22(C  6-Port  ) 
!S23(C  6-Port  ) 
!S24(C  6-Port  ) 
!S25(C  6-Port  ) 
!S26(C  6-Port  ) 
!S31(C  6-Port  ) 
!S32(C  6-Port  ) 
!S33(C  6-Port  ) 
!S34(C  6-Port  ) 
!S35(C  6-Port  ) 
!S36(C  6-Port  ) 
!S41(C  6-Port  ) 
!S42(C  6-Port  ) 
!S43(C  6-Port  ) 
!S44(C  6-Port  ) 
!S45(C  6-Port  ) 
!S46(C  6-Port  ) 
!S51(C  6-Port  ) 
!S52(C  6-Port  ) 
!S53(C  6-Port  ) 
!S54(C  6-Port  ) 
!S55(C  6-Port  ) 
!S56(C  6-Port  ) 
!S61(C  6-Port  ) 
!S62(C  6-Port  ) 
!S63(C  6-Port  ) 
!S64(C  6-Port  ) 
!S65(C  6-Port  ) 
!S66(C  6-Port  ) 
!S6P File: Measurement: :
# Hz S  RI   R 50
500000000 -0.3395 -0.017407 -0.010789 -0.002991 -0.0070559 0.01272 -0.0031973 0.012
0.01123 0.0036045 -0.0027981 0.0083672
-0.010818 -0.0029417 -0.41938 -0.035785 0.0064504 -0.01174 0.0019262 0.01255
0.0065565 0.0023539 0.0019655 0.013816
-0.0070259 0.012732 0.0064444 -0.011786 -0.26245 0.2229 0.0072422 0.0036471
-0.0008455 0.0085071 0.0022319 0.012356
-0.0031264 0.012012 0.0019713 0.012543 0.0072379 0.0036541 -0.33038 0.063167
-0.019184 -0.006521 0.015268 0.023556
0.011202 0.0036228 0.0065426 0.0023367 -0.00081661 0.0084767 -0.019141 -0.0065352
-0.23691 -0.16377 -0.02479 0.0041454
-0.0026885 0.008406 0.0020168 0.013814 0.002224 0.012332 0.015186 0.023553
-0.024826 0.0041255 -0.28518 -0.079067
560000000 -0.31172 0.13766 -0.027117 -0.060521 0.00092666 0.011329 0.0054424 0.0097881
0.0089613 0.0040555 0.010591 0.0064507
-0.027025 -0.060432 -0.37545 0.11828 -0.042178 -0.034499 0.013849 0.0032114
-0.012651 -0.0037684 0.0028538 -0.00096449
0.0009584 0.011296 -0.042228 -0.034465 -0.18013 0.26754 -0.00056598 -0.0044226
0.018916 0.0035137 0.007055 -0.0064609
0.0053871 0.0097241 0.013882 0.0032415 -0.00054727 -0.0044484 -0.30404 0.14866
0.00036517 -0.024183 0.0031582 -0.018134
0.0090401 0.0038836 -0.012628 -0.0038095 0.018927 0.0035138 0.00034019 -0.024199
-0.28731 0.0095168 0.0026897 -0.046779
0.01054 0.006479 0.0028072 -0.0010256 0.0070829 -0.0064899 0.0031942 -0.018128
0.0026059 -0.046722 -0.32982 0.060255
620000000 -0.26976 0.12344 -0.023357 0.0070809 0.0037205 0.0078206 0.0077872 -0.0056787
0.010581 -0.00097892 0.001169 -0.002597
-0.023329 0.0070729 -0.4013 0.074155 -0.019525 0.00042331 -0.00097103 -0.0022853
0.0099952 -0.0062848 0.0013682 -0.0029894
0.0037644 0.0078539 -0.019531 0.00045889 -0.14895 0.27735 -0.0013553 -0.0047123
-0.003143 -0.0027738 0.0081997 -0.0041244
0.0078187 -0.0056655 -0.00098638 -0.0023008 -0.001335 -0.0047513 -0.2624 0.16065
-0.039309 -0.017369 0.012155 0.022624
0.01055 -0.0010852 0.0099783 -0.0063005 -0.0031086 -0.0027386 -0.03938 -0.017344
-0.21058 -0.027889 -0.038859 0.015093
0.0011695 -0.0024946 0.0013688 -0.002956 0.0082357 -0.0041182 0.012193 0.022682
-0.038838 0.015036 -0.25583 0.032522
680000000 -0.22723 0.20486 -0.027966 -0.011891 0.0053606 0.0044463 0.0013146 -0.0071719
-0.0028605 -0.011142 0.0037088 -0.0067904
-0.027925 -0.011928 -0.3842 0.16804 -0.032157 0.00054559 -0.0015019 -0.00049046
-0.0024303 -0.0088048 -0.0016298 -0.0021094
0.0053561 0.0044292 -0.032171 0.00057939 -0.098087 0.29475 -0.00092714 -0.00035345
-0.0017945 6.8652e-05 -0.0037487 -0.0084197
0.0012666 -0.0071211 -0.0015203 -0.00051751 -0.00092256 -0.00036293 -0.21662 0.20747
-0.025671 -0.0053391 -0.0089517 -0.0081999
-0.0028767 -0.011139 -0.0024679 -0.0088068 -0.0017939 7.0806e-05 -0.025703 -0.005299
-0.24989 0.068296 -0.0071503 -0.0064777
0.0037521 -0.0067911 -0.0016205 -0.0021013 -0.0037647 -0.0084347 -0.008985 -0.0081294
-0.0071467 -0.0065915 -0.25292 0.12733
740000000 -0.18379 0.20011 -0.036681 0.026209 0.011827 -0.0058911 -0.0007632 -0.0040018
-0.005182 -0.0029344 -0.0058147 0.003412
-0.036669 0.02616 -0.3326 0.18776 -0.032439 0.035032 -0.0010883 -0.0062428
-0.011252 0.0081338 -0.0016778 -0.0048237
0.011842 -0.0058909 -0.032354 0.03512 -0.064474 0.29445 -0.0017764 0.0029817
-0.0033424 -0.0045114 -0.0019168 0.0012098
-0.00074785 -0.0040104 -0.0010963 -0.0062431 -0.0017776 0.0029848 -0.1986 0.21665
-0.04185 -0.0034434 0.021761 0.012095
-0.0051006 -0.0029179 -0.011234 0.0081958 -0.0033622 -0.0045067 -0.041888 -0.0033982
-0.15713 0.089984 -0.037875 0.0030753
-0.0057822 0.0034677 -0.0016955 -0.0048321 -0.0018994 0.0012383 0.021806 0.012098
-0.037877 0.0031582 -0.24156 0.1371
800000000 -0.15003 0.23686 -0.021457 0.017699 0.0043934 -0.010376 -0.0043766 -0.0015933
-0.0037425 0.0031058 0.0037574 0.00087508
-0.021456 0.017642 -0.33244 0.25601 -0.0065748 0.033519 -0.0023208 0.002311
-0.00061195 0.0034008 0.0011169 0.0052785
0.0043805 -0.010399 -0.0065225 0.033531 -0.021567 0.31595 0.00090425 0.0015691
0.00038463 0.0036423 -0.0018048 0.0012134
-0.0043663 -0.0015836 -0.0023179 0.0023249 0.0008901 0.0015821 -0.16829 0.24263
-0.026634 0.016266 0.012348 -0.0099608
-0.0037175 0.0030593 -0.00061752 0.0034015 0.0003981 0.0036527 -0.02664 0.016312
-0.1941 0.11679 -0.015461 0.018748
0.0037859 0.00090564 0.0011058 0.0052997 -0.0018225 0.0012271 0.012369 -0.0099733
-0.015481 0.018754 -0.22806 0.18214
860000000 -0.11504 0.25655 -0.015582 0.03089 -0.003858 -0.0093495 -0.0020542 0.001242
0.004755 0.0047125 -0.0025143 -0.0024014
-0.015593 0.030884 -0.28492 0.29677 0.0092975 0.032888 0.00039438 0.0020751
0.0050717 0.00017482 0.0031906 0.00056536
-0.0038703 -0.0093452 0.0093508 0.032877 0.026784 0.32271 -0.00029556 -9.3571e-06
0.0026232 -0.0013218 0.0017268 0.004089
-0.0020242 0.0012627 0.00040991 0.0020604 -0.00028997 -2.7326e-06 -0.13173 0.25326
-0.014886 0.020709 -0.0055029 -0.0090367
0.0048006 0.0047394 0.0050673 0.0001438 0.0026333 -0.0013214 -0.014864 0.020747
-0.14109 0.16097 -0.021284 0.016532
-0.0025242 -0.0023939 0.0032236 0.00055278 0.0017318 0.0040764 -0.005522 -0.0090303
-0.021276 0.01656 -0.17873 0.22158
920000000 -0.088319 0.27814 0.0064377 0.036478 -0.009223 -0.003856 -0.0014387 0.0017639
0.0016288 0.0013622 0.0027019 -0.0018504
0.0064194 0.036437 -0.25438 0.31714 0.028238 0.019929 0.0017934 0.00084135
0.0069813 -0.00091328 0.0033071 -0.0030823
-0.0092125 -0.0038401 0.028259 0.019876 0.074353 0.3226 0.0019582 -0.00018677
0.0015941 -0.00075664 0.00073645 -0.0012461
-0.0014301 0.0017447 0.0017799 0.00082271 0.0019547 -0.0001822 -0.10543 0.26899
-0.0070733 0.030263 0.0021095 -0.0062961
0.001619 0.0013546 0.0069907 -0.00092864 0.0015895 -0.00075161 -0.0070293 0.030305
-0.12809 0.16693 -0.00058242 0.025158
0.0026966 -0.0018361 0.0033015 -0.003092 0.00074293 -0.0012465 0.0020981 -0.0063028
-0.00058158 0.025179 -0.17754 0.23732
980000000 -0.041325 0.29583 0.01861 0.028268 -0.0083302 0.0047394 0.0019504 0.0029845
0.0037296 -0.0019047 -0.0032153 -0.0018572
0.018582 0.028269 -0.20244 0.34929 0.032286 0.0030383 0.0019852 -0.00029328
0.0013889 -0.0060728 -0.00060164 -0.0022918
-0.0083033 0.0047535 0.032296 0.0029623 0.12099 0.31433 0.00043819 -0.0013174
5.0831e-05 -0.0021936 0.0013675 -0.00016913
0.001976 0.0029978 0.0019859 -0.00030822 0.00044582 -0.0013225 -0.066604 0.2783
0.010526 0.02815 -0.0083161 -0.0057051
0.0037002 -0.0018949 0.0013648 -0.0060952 6.0607e-05 -0.0021906 0.010588 0.028167
-0.096231 0.19139 0.0064286 0.018397
-0.0032268 -0.0018501 -0.00060633 -0.0023026 0.0013768 -0.0001566 -0.0083055 -0.0056739
0.0064251 0.018386 -0.13322 0.27425
1040000000 0.001985 0.3031 0.0329 0.015672 -0.0010501 0.0066078 0.0024282 0.00057198
-4.5388e-05 -0.0031235 -0.00077966 -0.0012758
0.032879 0.015685 -0.16641 0.36238 0.027487 -0.015657 0.0013832 -0.0016833
-0.0024625 -0.0023811 -0.0015802 -0.0026515
-0.0010276 0.0066104 0.027431 -0.015732 0.16757 0.29958 -0.00066091 -0.0014077
-0.0016222 -0.00081024 -0.00046638 -0.0010791
0.0024194 0.00058846 0.0013622 -0.0017028 -0.00066549 -0.0014096 -0.037374 0.28732
0.020832 0.0154 -0.0027099 0.001289
-7.5405e-05 -0.003107 -0.0024726 -0.0023855 -0.0016302 -0.00080892 0.020864 0.015369
-0.063986 0.19731 0.013896 0.015585
-0.00076495 -0.0012845 -0.0016101 -0.0026576 -0.00046427 -0.0010664 -0.0027027 0.0012957
0.013883 0.015588 -0.10758 0.29387
1100000000 0.047573 0.30875 0.034278 -0.0059712 0.0027242 0.0035898 0.0022948 -0.0011211
-0.0020576 -0.0027437 -0.0034942 0.00043616
0.034261 -0.0059336 -0.12278 0.3782 0.013274 -0.02745 -7.5084e-05 -0.0018019
-0.0032949 -0.00050285 -0.0032884 -0.0002499
0.0027327 0.0035847 0.01321 -0.027491 0.21438 0.27706 -0.0017848 0.00022852
-0.0017266 0.00068947 -0.0008662 -0.00019905
0.0022906 -0.0011092 -8.485e-05 -0.001797 -0.0017775 0.00022158 0.0040202 0.28965
0.024397 0.0021658 -0.0023797 0.00016727
-0.0020777 -0.0027433 -0.003302 -0.00049743 -0.0017255 0.00069648 0.024411 0.0021326
-0.044442 0.20874 0.018461 0.0059693
-0.003481 0.00043384 -0.0032928 -0.00024024 -0.00087304 -0.00019778 -0.0023798 0.00016773
0.018455 0.0059694 -0.060467 0.31669
1160000000 0.098303 0.30247 0.021829 -0.021456 0.0023246 -0.00033708 -5.1877e-05 -0.0021499
-0.003861 -0.00048087 -0.00057468 0.0037165
0.021847 -0.02142 -0.078459 0.38178 -0.0049976 -0.027803 -0.0016404 -0.0015095
-0.0025249 0.0024775 -0.0012608 0.0017769
0.0023235 -0.00033565 -0.0050935 -0.02779 0.25655 0.24446 -0.00070211 0.0017919
-0.00041022 0.0018709 -0.00075323 0.00013203
-7.0326e-05 -0.0021441 -0.0016672 -0.0015122 -0.00070314 0.0018032 0.04341 0.28443
0.019679 -0.01273 -0.0030033 0.0044012
-0.0038688 -0.0004597 -0.0025154 0.0024783 -0.00042775 0.0018736 0.019671 -0.01276
-0.011255 0.21537 0.016723 -0.002228
-0.00054467 0.0037437 -0.0012592 0.0017799 -0.00075327 0.00015004 -0.0029867 0.0044055
0.016728 -0.002217 -0.01395 0.31715
1220000000 0.14313 0.28923 0.0081522 -0.029381 -0.0015158 -0.00038183 8.8617e-05 -0.0009782
-0.0023769 0.0023075 0.0013339 0.0018118
0.0081712 -0.02934 -0.03421 0.39226 -0.017108 -0.019489 -0.0024086 0.00047575
0.00018256 0.0028456 -0.00050685 0.001878
-0.0015177 -0.00037812 -0.017171 -0.019456 0.2951 0.20412 0.00084436 0.0017358
0.00068607 0.0011476 0.00030523 0.00050003
8.4001e-05 -0.00096811 -0.0024032 0.00047922 0.00084416 0.0017319 0.083606 0.27354
0.0086126 -0.018401 0.0014619 0.0014477
-0.0023736 0.0023123 0.0001896 0.0028437 0.00068796 0.001151 0.008601 -0.018423
0.012885 0.22212 0.011451 -0.013515
0.0013363 0.0018091 -0.0004895 0.0018737 0.00030971 0.00050072 0.001455 0.001456
0.011444 -0.013498 0.019966 0.3282
1280000000 0.19169 0.26539 -0.009206 -0.026818 -0.001467 0.0027678 -0.00096285 -0.0019805
-0.0005756 0.002871 0.002314 0.00083947
-0.0091794 -0.026799 0.011347 0.38224 -0.02307 -0.0072906 -0.00091614 0.0013927
0.0017489 0.0016103 0.00075458 0.0016695
-0.0014617 0.0027688 -0.023106 -0.0072171 0.3244 0.15898 0.0016434 -6.5692e-05
0.0011201 0.00015134 0.00022622 0.00020331
-0.00097232 -0.0019734 -0.00091374 0.0013928 0.0016386 -6.2199e-05 0.1193 0.25446
-0.001078 -0.01947 -0.00045924 0.00044648
-0.00056089 0.0028788 0.0017454 0.0016101 0.0011192 0.00014528 -0.0011094 -0.019493
0.048974 0.22311 0.0011372 -0.015016
0.0023166 0.00082931 0.00076051 0.0016784 0.0002215 0.00020221 -0.00045762 0.0004468
0.0011394 -0.015015 0.065478 0.32534
1340000000 0.22808 0.23031 -0.017973 -0.016959 0.0013862 0.0042244 -0.0017139 -0.00087138
0.0014522 0.0024342 0.0014217 -0.0014394
-0.017936 -0.016953 0.050694 0.37296 -0.020512 0.0049334 -0.00011772 0.0019688
0.0019067 0.00059157 0.001316 0.0006356
0.0013934 0.0042143 -0.020499 0.00499 0.34522 0.11064 0.0011548 -0.001024
0.00058937 -0.00049021 6.7665e-05 0.00025865
-0.0017043 -0.00086949 -0.00011052 0.0019648 0.0011572 -0.0010302 0.15064 0.23241
-0.010159 -0.01581 0.00061509 0.0011062
0.0014614 0.002437 0.0019144 0.00059052 0.00058637 -0.0004876 -0.010187 -0.015809
0.078492 0.21672 -0.0054061 -0.012743
0.001421 -0.0014508 0.0013082 0.0006257 6.8122e-05 0.00025276 0.0006097 0.0011121
-0.0054026 -0.012742 0.10434 0.31689
1400000000 0.25988 0.19071 -0.02251 -0.0057648 0.0052478 0.0025921 -0.0021305 0.00063699
0.0023064 0.00075853 0.00015622 -0.0013309
-0.022478 -0.0057789 0.087343 0.35912 -0.013693 0.012321 0.0012956 0.0013017
0.0011162 -0.00086104 0.0010745 0.00010105
0.0052531 0.0025814 -0.013653 0.012363 0.35771 0.056666 9.1917e-05 -0.0018273
4.2193e-05 -0.00035954 0.00033786 0.00018636
-0.0021312 0.00064605 0.0012998 0.0012981 9.4612e-05 -0.001827 0.17881 0.20153
-0.015489 -0.0088534 -0.00035083 0.00039455
0.0023003 0.00076039 0.0011216 -0.00087693 4.5055e-05 -0.00036689 -0.015518 -0.0088233
0.11063 0.20989 -0.01096 -0.0074758
0.00015196 -0.0013279 0.0010755 9.871e-05 0.00033638 0.00017913 -0.00035065 0.00039504
-0.010958 -0.0074772 0.14679 0.30181
1460000000 0.28112 0.14607 -0.019083 0.0055383 0.0053406 -0.0022616 -0.0015291 0.0016902
0.0019646 -0.00065943 -0.00043468 -0.00084171
-0.019069 0.0055192 0.12109 0.33669 -0.0054577 0.014655 0.0017117 0.00013188
0.00072785 -0.0012933 0.001023 -0.00056957
0.0053331 -0.0022782 -0.0054109 0.014676 0.36233 0.0020803 -0.0014609 -0.0012761
0.00010626 -0.00014688 0.00059844 -0.00029018
-0.0015247 0.0016894 0.0017228 0.00013066 -0.0014585 -0.0012753 0.20279 0.17112
-0.016195 -0.0019501 -0.00018187 0.0020945
0.0019661 -0.00067182 0.00072342 -0.0012967 9.9703e-05 -0.00014893 -0.016204 -0.0019203
0.13875 0.19362 -0.011909 -0.0015428
-0.00044445 -0.00082741 0.0010037 -0.00057556 0.000612 -0.00028998 -0.00017461 0.0020926
-0.011909 -0.0015337 0.17847 0.27881
1520000000 0.29224 0.10339 -0.013212 0.0104 0.002819 -0.0042153 0.00012956 0.002652
0.0018655 -0.0016329 -0.0010538 -6.1601e-05
-0.013211 0.01038 0.15428 0.32131 0.0016561 0.012434 0.0016336 -0.00084837
-6.178e-05 -0.0010169 0.00027403 -0.00090103
0.002812 -0.0042217 0.0017045 0.012433 0.35508 -0.054391 -0.0013295 -0.00023447
0.00051459 -0.00086491 -6.3991e-06 -0.00014539
0.00014099 0.0026502 0.0016383 -0.00085494 -0.0013347 -0.00023425 0.22383 0.13263
-0.014983 0.0037486 0.001944 0.0017814
0.0018461 -0.0016519 -6.0223e-05 -0.0010245 0.00051316 -0.00086967 -0.014988 0.0037883
0.16618 0.17788 -0.01136 0.0027796
-0.0010603 -4.4797e-05 0.00027052 -0.00090213 -1.1591e-05 -0.00015069 0.0019471 0.0017732
-0.011367 0.0027772 0.21019 0.25516
1580000000 0.29997 0.056741 -0.0069232 0.012786 -0.0011844 -0.0045344 0.001558 0.0018667
-0.0001675 -0.0020219 -0.00025447 0.00036951
-0.0069347 0.012762 0.18102 0.29581 0.004985 0.0077979 0.0004358 -0.0016594
-0.00054574 -0.00091272 -0.00021575 -0.00078537
-0.0011948 -0.0045316 0.0050142 0.0077908 0.33412 -0.11211 -0.0016216 0.00093756
-0.00033475 -0.0010055 0.00019636 -0.00051529
0.0015728 0.0018662 0.00043078 -0.0016558 -0.0016139 0.00093545 0.23529 0.093113
-0.011352 0.0083747 0.0024494 0.00023105
-0.00018626 -0.0020254 -0.00055452 -0.00091154 -0.00033713 -0.0010063 -0.011344 0.0084092
0.18918 0.15783 -0.0086547 0.0077434
-0.00025566 0.00036539 -0.00022417 -0.00078251 0.00018926 -0.0005155 0.0024538 0.00022227
-0.0086463 0.0077364 0.23942 0.22618
1640000000 0.30063 0.015193 -0.00079235 0.011367 -0.0027019 -0.0022774 0.0028142 0.00083664
-0.00075461 -0.0014752 -0.0002144 0.00053413
-0.00079939 0.011364 0.21002 0.27021 0.0055764 0.0033924 -0.00080828 -0.0016701
-0.00099173 -0.00030178 -0.00050819 -0.00056988
-0.0027101 -0.002282 0.0055957 0.0033662 0.30453 -0.1607 -0.00050477 0.0015685
-0.0011897 -0.00078847 -0.00021692 -0.00024784
0.0028071 0.00082757 -0.00082116 -0.0016694 -0.00050369 0.0015686 0.24523 0.045326
-0.0069377 0.0097155 0.0024252 -0.0012403
-0.00075479 -0.0014817 -0.0010032 -0.00029475 -0.0011913 -0.00078251 -0.0069216 0.0097413
0.21048 0.13208 -0.0039955 0.0094138
-0.000215 0.00053606 -0.0005192 -0.00056946 -0.00021389 -0.00024694 0.0024222 -0.0012441
-0.0040014 0.0094164 0.26296 0.19336
1700000000 0.29196 -0.03036 0.0021479 0.008513 -0.0032827 0.00013921 0.0028985 -0.0014772
-0.0019101 -0.00065602 0.00062744 0.0004126
0.0021439 0.0085074 0.22763 0.23824 0.0037806 0.00062765 -0.0014781 -0.00047591
-0.00068593 0.00015394 -0.00085851 -0.0004068
-0.0032821 0.00014338 0.0037769 0.00061537 0.26107 -0.20027 0.00065025 0.0014434
-0.0017569 -0.00015157 -0.00052576 -0.00080739
0.0029039 -0.0014791 -0.0014716 -0.00046585 0.00064498 0.001441 0.24065 -0.0030643
-0.003827 0.01018 0.0012907 -0.0023486
-0.0019052 -0.00064621 -0.00068146 0.00015786 -0.0017567 -0.00014633 -0.0038061 0.010191
0.22636 0.11017 0.0004419 0.0095525
0.00063801 0.00040612 -0.00086217 -0.00039976 -0.00053535 -0.0008116 0.0012811 -0.0023556
0.00044492 0.0095529 0.27705 0.15755
1760000000 0.27822 -0.078669 0.0039727 0.0054296 -0.0021658 0.00086214 0.00091166 -0.0034881
-0.0013977 0.00068203 0.00048483 -0.00047127
0.0039682 0.0054286 0.25275 0.19761 0.0016776 -0.0012311 -0.0011772 0.00026539
-0.00090441 0.00081491 -0.00058332 0.00046669
-0.0021576 0.00085716 0.0016746 -0.0012417 0.21217 -0.23392 0.0013301 0.00073461
-0.0011162 0.0015175 -0.0013189 -0.00030401
0.00089484 -0.0034961 -0.0011824 0.00027331 0.0013216 0.00073619 0.23052 -0.052325
-0.00037174 0.0093094 -0.00052108 -0.0025118
-0.0013939 0.00068375 -0.00090752 0.00082068 -0.0011194 0.0015264 -0.00035272 0.0093241
0.23911 0.073753 0.0040046 0.0067666
0.00048366 -0.00047258 -0.00057866 0.00047223 -0.0013111 -0.00029786 -0.00053177 -0.002509
0.0039963 0.0067599 0.28725 0.11886
1820000000 0.25214 -0.11536 0.0039306 0.0021697 -0.0001035 0.0023794 -0.0013322 -0.0028049
-0.0010539 0.0010235 1.2863e-05 -0.00011447
0.0039222 0.0021698 0.26185 0.16746 -0.00028833 -0.00010917 -0.0011703 0.00099358
-9.9185e-07 0.001185 -0.00051554 0.00057516
-8.9107e-05 0.0023604 -0.00029131 -9.9791e-05 0.16129 -0.24897 0.0012909 6.3678e-05
-0.00010617 0.002106 -0.0013254 0.00050927
-0.00133 -0.0028043 -0.0011712 0.00099742 0.0012877 6.4387e-05 0.20083 -0.097223
0.0013727 0.0074922 -0.0016877 -0.0013826
-0.0010437 0.0010386 2.4925e-06 0.0011901 -9.3104e-05 0.0021121 0.0013827 0.0074875
0.25423 0.04365 0.0049301 0.0033557
1.3906e-05 -0.00011796 -0.00051409 0.00057567 -0.0013171 0.00050901 -0.0016915 -0.0013735
0.0049301 0.003343 0.28737 0.081682
1880000000 0.21566 -0.15474 0.0016597 0.00022201 -0.00045616 0.0020263 -0.0029424 -0.0017711
-0.00021974 0.0016994 0.00018738 -0.00045268
0.0016656 0.00022029 0.26552 0.12045 -0.0023784 0.0015679 -5.1082e-05 0.0016503
0.0005468 0.0010402 0.00016456 0.00095008
-0.0004452 0.0020147 -0.0023909 0.0015782 0.10826 -0.25896 0.0013656 -0.00099199
0.0015238 0.0016192 -0.00077966 0.0014104
-0.0029402 -0.0017704 -5.202e-05 0.0016371 0.0013639 -0.00099294 0.16144 -0.13656
0.0022067 0.0051538 -0.0023053 0.00045311
-0.00021255 0.0017043 0.00055395 0.0010303 0.0015237 0.0016184 0.0022215 0.0051453
0.25485 0.0097777 0.0046137 0.0012378
0.00018935 -0.00045548 0.00017346 0.00094151 -0.00077495 0.0014212 -0.0023115 0.00045845
0.0046116 0.0012241 0.28483 0.047095
1940000000 0.17559 -0.17955 -0.0004462 -0.0010914 0.0015035 0.0019068 -0.0035091 0.00084798
0.0014367 0.0011541 -0.00061163 -0.00056555
-0.00044072 -0.0010926 0.26491 0.08896 -0.0011364 0.0039894 0.00098833 0.0011653
0.0016454 0.00042084 0.00092779 0.00040282
0.0015246 0.0018917 -0.0011053 0.0039972 0.06179 -0.25124 0.00014504 -0.0015919
0.0023267 0.00032993 0.00057466 0.0016067
-0.0035042 0.0008582 0.00098577 0.001162 0.0001332 -0.0015899 0.11004 -0.16627
0.0013966 0.0034623 -0.0014112 0.0014602
0.0014559 0.0011594 0.0016562 0.00041205 0.0023235 0.00032695 0.0013999 0.0034593
0.25425 -0.02966 0.0034291 -0.0016496
-0.0006171 -0.00056182 0.00093092 0.00040047 0.00057908 0.00161 -0.0014104 0.0014618
0.0034288 -0.0016459 0.27197 0.010634
2000000000 0.12889 -0.19338 -0.0041001 0.0010253 0.0025536 0.0013809 -0.0019964 0.0033567
0.0012704 0.00010444 -0.00055075 0.00045766
-0.004103 0.0010224 0.2503 0.053442 -0.00082564 0.0057215 0.0015556 0.00022323
0.001219 -0.0011624 0.0004636 -3.8886e-06
0.0025681 0.0013671 -0.00079403 0.0057239 0.018402 -0.23656 -0.0009527 -0.0010085
0.0018167 -0.0010922 0.0017533 0.00095654
-0.0019794 0.0033783 0.0015629 0.00021053 -0.00094261 -0.0010028 0.057732 -0.17686
-0.00032115 0.0028719 -2.4097e-05 0.0021973
0.0012649 9.0305e-05 0.0012074 -0.0011718 0.0018188 -0.0010946 -0.0003169 0.0028761
