!Keysight Technologies,M9804A,MY58100912,A.14.10.03
!Date: Thursday, April 27, 2023 10:28:33
!Correction: S11(C  6-Port  ) 
!S12(C  6-Port  ) 
!S13(C  6-Port  ) 
!S14(C  6-Port  ) 
!S15(C  6-Port  ) 
!S16(C  6-Port  ) 
!S21(C  6-Port  ) 
!S22(C  6-Port  ) 
!S23(C  6-Port  ) 
!S24(C  6-Port  ) 
!S25(C  6-Port  ) 
!S26(C  6-Port  ) 
!S31(C  6-Port  ) 
!S32(C  6-Port  ) 
!S33(C  6-Port  ) 
!S34(C  6-Port  ) 
!S35(C  6-Port  ) 
!S36(C  6-Port  ) 
!S41(C  6-Port  ) 
!S42(C  6-Port  ) 
!S43(C  6-Port  ) 
!S44(C  6-Port  ) 
!S45(C  6-Port  ) 
!S46(C  6-Port  ) 
!S51(C  6-Port  ) 
!S52(C  6-Port  ) 
!S53(C  6-Port  ) 
!S54(C  6-Port  ) 
!S55(C  6-Port  ) 
!S56(C  6-Port  ) 
!S61(C  6-Port  ) 
!S62(C  6-Port  ) 
!S63(C  6-Port  ) 
!S64(C  6-Port  ) 
!S65(C  6-Port  ) 
!S66(C  6-Port  ) 
!S6P File: Measurement: :
# Hz S  RI   R 50
500000000 -0.3367 -0.04127 -0.0092449 -0.002622 -0.0081926 0.012122 -0.0041468 0.012354
0.012933 0.0043924 -0.004543 0.0089965
-0.009243 -0.0026122 -0.41853 -0.053503 0.0081534 -0.011177 0.0016127 0.012263
0.0077862 0.0022871 0.0015168 0.013329
-0.0081749 0.012104 0.0081505 -0.011187 -0.2644 0.20759 0.0078816 0.0034144
-0.0020424 0.007595 0.0013018 0.012067
-0.0041458 0.012358 0.0016416 0.01228 0.0078839 0.0034084 -0.33123 0.039966
-0.018706 -0.0061721 0.016622 0.026344
0.01292 0.0043627 0.0077929 0.0022498 -0.0020401 0.0075944 -0.018704 -0.0061611
-0.21728 -0.20467 -0.025532 0.0058319
-0.00453 0.0089977 0.0015514 0.013352 0.0013068 0.012065 0.016627 0.026329
-0.025526 0.0058284 -0.25976 -0.15037
560000000 -0.31632 0.12004 -0.023597 -0.063553 -0.00044986 0.011978 0.0056364 0.010895
0.010775 0.0049765 0.01086 0.0075748
-0.02356 -0.063456 -0.37643 0.10652 -0.041421 -0.038151 0.014069 0.0036113
-0.012946 -0.0057949 0.0028441 -0.00011929
-0.0004375 0.01196 -0.041562 -0.038071 -0.18265 0.25534 -0.0010426 -0.0043713
0.019857 0.0055653 0.0067073 -0.0058852
0.0056539 0.010882 0.014079 0.0035823 -0.0010379 -0.0043686 -0.30627 0.12944
0.0043384 -0.024458 0.0048205 -0.022161
0.010795 0.0049299 -0.013016 -0.0057524 0.019852 0.0055443 0.0043166 -0.024466
-0.28751 -0.028535 0.0096844 -0.049606
0.010884 0.0075535 0.0028471 -0.00014699 0.006708 -0.0058962 0.0048309 -0.022168
0.0097 -0.049629 -0.32836 0.001636
620000000 -0.27586 0.10444 -0.023544 0.007543 0.0026641 0.0084017 0.0084116 -0.0056306
0.010719 -0.00017018 0.0015665 -0.0024734
-0.023521 0.0075331 -0.4026 0.057821 -0.019108 -0.00020899 -0.0014583 -0.0022832
0.011466 -0.006227 0.0016411 -0.0030316
0.0026861 0.008349 -0.019132 -0.00013834 -0.15459 0.26526 -0.0018228 -0.0051463
-0.0027501 -0.002315 0.007791 -0.0034896
0.0084277 -0.0056613 -0.0014672 -0.0022768 -0.0018211 -0.0051337 -0.26673 0.14088
-0.038348 -0.019951 0.012357 0.026265
0.010717 -0.00018259 0.011454 -0.0062693 -0.0027305 -0.0023175 -0.038379 -0.01993
-0.20485 -0.0677 -0.042357 0.0146
0.0015395 -0.0024581 0.0016284 -0.0030434 0.0077882 -0.0034964 0.012369 0.026256
-0.042351 0.014579 -0.24753 -0.037828
680000000 -0.23541 0.19038 -0.027582 -0.014674 0.0047707 0.005356 0.0015356 -0.0071572
-0.0035251 -0.011159 0.0054889 -0.0068713
-0.027552 -0.014682 -0.38819 0.15584 -0.033334 -0.0015712 -0.0018835 -0.00038353
-0.0022949 -0.0089016 -0.0012435 -0.0017218
0.0047944 0.0053493 -0.033371 -0.0014885 -0.10361 0.2849 -0.00074085 -0.00010421
-0.0018394 0.0007935 -0.0028233 -0.0095339
0.0015097 -0.007152 -0.0018837 -0.00037737 -0.00074374 -9.7801e-05 -0.22197 0.19168
-0.023706 -0.00786 -0.009628 -0.012056
-0.0035586 -0.011179 -0.0023239 -0.0089022 -0.0018396 0.0007954 -0.023713 -0.0078392
-0.25913 0.03121 -0.0058817 -0.0089979
0.0054517 -0.0068864 -0.0012521 -0.0017173 -0.002824 -0.0095403 -0.0096391 -0.012058
-0.0058794 -0.0089872 -0.26163 0.071909
740000000 -0.19152 0.18511 -0.039142 0.026915 0.012647 -0.0049705 -0.00018834 -0.0042627
-0.0038697 -0.0024709 -0.0060701 0.0025383
-0.039141 0.026869 -0.33563 0.17502 -0.036047 0.035448 -0.00081341 -0.0062484
-0.011118 0.0078049 -0.0023357 -0.0069719
0.012615 -0.0049911 -0.035978 0.035564 -0.069973 0.28384 -0.0019288 0.0030598
-0.0017927 -0.0045329 -0.0014334 -0.00022848
-0.0001843 -0.0042437 -0.0008307 -0.0062557 -0.0019239 0.0030506 -0.20558 0.20004
-0.044693 -0.0077062 0.023414 0.015522
-0.0038644 -0.0024458 -0.011105 0.007845 -0.0017991 -0.0045361 -0.044727 -0.0076551
-0.15861 0.058798 -0.045277 -0.00046161
-0.0060891 0.0025739 -0.0023624 -0.0069925 -0.0014407 -0.00020319 0.023441 0.015472
-0.045262 -0.00048884 -0.25277 0.076456
800000000 -0.15913 0.22612 -0.022892 0.016813 0.005412 -0.010629 -0.0047426 -0.0021934
-0.0038401 0.0022514 0.0051142 1.5817e-05
-0.022876 0.016806 -0.3393 0.24561 -0.0081442 0.034479 -0.0022372 0.0021817
-0.00042313 0.0028346 0.0010673 0.005301
0.0053712 -0.010639 -0.0080462 0.03454 -0.029372 0.30771 0.0010679 0.0013624
0.00041182 0.0033539 -0.0017145 0.00073511
-0.0047587 -0.0021814 -0.0022334 0.0021959 0.0010727 0.0013733 -0.17756 0.22846
-0.029328 0.013737 0.01419 -0.010524
-0.0038405 0.0022619 -0.00040116 0.0028398 0.00041764 0.0033582 -0.029328 0.013801
-0.20838 0.082761 -0.018394 0.019286
0.0051155 -1.482e-05 0.0010839 0.005311 -0.0017208 0.00073393 0.014182 -0.01054
-0.018392 0.019266 -0.24967 0.12803
860000000 -0.12451 0.24678 -0.01784 0.030909 -0.003353 -0.010049 -0.0024393 0.0008972
0.00401 0.0046712 -0.0034417 -0.0031846
-0.017838 0.030883 -0.29174 0.28794 0.0078319 0.034671 -0.00010671 0.0018757
0.0040854 -0.00027951 0.003302 0.00071494
-0.0033957 -0.010037 0.0079493 0.034689 0.019043 0.31603 -0.00060705 -0.00032563
0.0028066 -0.0015558 0.0014453 0.0044238
-0.0024371 0.00090906 -0.00010567 0.00188 -0.00060843 -0.00032697 -0.14125 0.23994
-0.018901 0.01881 -0.0060756 -0.0091257
0.0040249 0.0046547 0.0040922 -0.00029676 0.002799 -0.0015582 -0.018886 0.01886
-0.15791 0.1359 -0.027261 0.015431
-0.0034677 -0.0031736 0.0033086 0.0007074 0.0014475 0.0044187 -0.0060765 -0.0091146
-0.027255 0.015422 -0.19877 0.17686
920000000 -0.099934 0.27038 0.0049295 0.038433 -0.0095231 -0.004339 -0.0017946 0.0020256
0.00089343 0.0018759 0.0024849 -0.0015339
0.0049093 0.038405 -0.26287 0.30968 0.028206 0.02237 0.0014021 0.0011964
0.0069952 -0.00040307 0.0039246 -0.0027489
-0.009551 -0.0043139 0.028318 0.022315 0.065688 0.31671 0.0017491 8.4187e-05
0.0010576 -0.00033002 0.00093554 -0.00094248
-0.0018031 0.0020326 0.0014279 0.0011961 0.0017445 8.7185e-05 -0.11737 0.25753
-0.011396 0.031441 0.0039127 -0.0066277
0.00090093 0.0018596 0.0069938 -0.00041861 0.0010635 -0.00033073 -0.011342 0.031477
-0.14803 0.14224 -0.003063 0.028237
0.0024948 -0.001557 0.0039165 -0.0027479 0.0009378 -0.00095144 0.0039034 -0.006635
-0.0030996 0.028223 -0.2111 0.19094
980000000 -0.052182 0.28999 0.017701 0.030572 -0.0090668 0.0048088 0.0022135 0.0035599
0.0039829 -0.0014862 -0.0033818 -0.0021796
0.017667 0.030572 -0.20964 0.34368 0.033468 0.0050149 0.0020187 -8.5283e-05
0.0014261 -0.0058535 -0.00041176 -0.0025186
-0.0090607 0.0048239 0.033518 0.0049259 0.11221 0.31014 0.00053688 -0.001113
0.00037451 -0.0020226 0.0016183 -0.00021902
0.0022243 0.0035502 0.0020236 -7.468e-05 0.00054079 -0.0011152 -0.078381 0.26946
0.0078598 0.03143 -0.0092241 -0.0075615
0.0039953 -0.0015093 0.0013878 -0.0058488 0.00036615 -0.0020209 0.0079333 0.031431
-0.1173 0.17309 0.004811 0.020557
-0.0033809 -0.0021727 -0.00043869 -0.0025109 0.0016218 -0.00022822 -0.0092394 -0.007547
0.0048015 0.02055 -0.16843 0.23898
1040000000 -0.0097771 0.29849 0.033575 0.01863 -0.0011153 0.0071627 0.0026354 0.0005615
-4.8368e-06 -0.0037105 -6.7581e-05 -0.0014024
0.033557 0.018648 -0.17383 0.35679 0.029792 -0.014964 0.0014206 -0.001773
-0.0025161 -0.0025432 -0.0012399 -0.0025627
-0.0010944 0.0071623 0.029769 -0.015085 0.15841 0.2963 -0.00049868 -0.0015486
-0.0015901 -0.00088046 -0.00032176 -0.0011813
0.0026269 0.00054915 0.001441 -0.0017643 -0.00049569 -0.0015531 -0.050716 0.27972
0.020122 0.019125 -0.0020894 0.0016278
-1.974e-05 -0.0037268 -0.0025485 -0.0025083 -0.0015923 -0.00088133 0.020182 0.019102
-0.084482 0.18094 0.013587 0.020078
-6.7382e-05 -0.001407 -0.0012607 -0.0025376 -0.0003231 -0.0011858 -0.0020861 0.0016282
0.013564 0.020072 -0.14875 0.26076
1100000000 0.03575 0.3062 0.036369 -0.0040678 0.0031369 0.0039345 0.0023404 -0.0014582
-0.0020441 -0.0031999 -0.0038397 2.7993e-05
0.036342 -0.0040337 -0.13029 0.37421 0.015299 -0.02815 -0.00010938 -0.0018005
-0.0032326 -0.00074237 -0.0034693 -0.00050617
0.0031535 0.0039216 0.015219 -0.028236 0.20481 0.2759 -0.0018745 0.00024925
-0.0017166 0.00042355 -0.0011482 -0.00059212
0.00233 -0.0014725 -0.00011144 -0.0017946 -0.0018767 0.00024943 -0.0099603 0.28486
0.025727 0.005498 -0.0024252 0.00010611
-0.0020644 -0.0032073 -0.0032448 -0.00071314 -0.0017167 0.00042884 0.025745 0.0054597
-0.066667 0.19521 0.019659 0.0097752
-0.0038404 4.178e-05 -0.0034885 -0.0004827 -0.001154 -0.00059505 -0.0024266 0.00011179
0.019649 0.0097732 -0.10301 0.29379
1160000000 0.087258 0.30108 0.024441 -0.020913 0.002995 -0.00068178 -0.0004757 -0.0024434
-0.0041938 -0.00082625 -0.00095066 0.004126
0.024458 -0.020876 -0.086235 0.37829 -0.0037672 -0.029432 -0.0016895 -0.0016555
-0.0026431 0.002289 -0.0013363 0.001887
0.0030023 -0.00070108 -0.0038876 -0.02944 0.24805 0.24493 -0.00063181 0.0017497
-0.00066932 0.0018846 -0.0010747 0.00020239
-0.00048726 -0.0024566 -0.0016888 -0.0016405 -0.000628 0.0017501 0.029922 0.28199
0.022309 -0.01066 -0.0030255 0.005227
-0.0041982 -0.00081567 -0.0026526 0.0023306 -0.00066025 0.0018985 0.022309 -0.01069
-0.032557 0.20491 0.019105 0.0012371
-0.00092012 0.0041349 -0.0013273 0.0019036 -0.0010644 0.00020843 -0.0030182 0.0052288
0.019095 0.0012321 -0.055438 0.29741
1220000000 0.13155 0.28982 0.010785 -0.030396 -0.0014567 -0.0011419 -0.000131 -0.00074205
-0.0027012 0.0024448 0.0012832 0.0020403
0.010798 -0.030359 -0.041642 0.3902 -0.017045 -0.021284 -0.0024949 0.00050395
-9.721e-06 0.0029242 -0.00082165 0.0019086
-0.0014614 -0.0011454 -0.017159 -0.021228 0.28722 0.20574 0.00082541 0.0015679
0.00052656 0.0011928 0.00020279 0.00071069
-0.00013238 -0.00074252 -0.0024944 0.00052371 0.00081385 0.0015682 0.069997 0.27314
0.011167 -0.017773 0.0024015 0.0013335
-0.0026856 0.0024664 -6.8441e-06 0.002937 0.00052614 0.0011929 0.011149 -0.017783
-0.010274 0.21408 0.015294 -0.012603
0.0012966 0.0020328 -0.00082069 0.0019149 0.00020661 0.00071515 0.0024034 0.0013306
0.015297 -0.012601 -0.025063 0.3166
1280000000 0.18132 0.26775 -0.0078316 -0.028972 -0.0020141 0.0021526 -0.00084169 -0.0017919
-0.00076959 0.0030504 0.0024347 0.0011684
-0.0078086 -0.028955 0.0045195 0.38091 -0.023838 -0.0084904 -0.00084574 0.0014231
0.0015727 0.0017876 0.00063149 0.0021281
-0.0019927 0.0021615 -0.02391 -0.0083782 0.31763 0.16165 0.0015665 -2.6172e-05
0.0011534 0.00039447 0.00038259 0.00048087
-0.00084796 -0.0017836 -0.00084029 0.0014257 0.0015727 -2.8283e-05 0.10681 0.25632
0.0014806 -0.019992 -0.00014669 -0.00018056
-0.0007567 0.003051 0.0015852 0.0017756 0.0011572 0.0003969 0.0014434 -0.019998
0.027033 0.2179 0.0039193 -0.01534
0.0024445 0.0011543 0.0006463 0.0021198 0.00038284 0.00048002 -0.0001471 -0.00018339
0.0039114 -0.015335 0.024017 0.32083
1340000000 0.21824 0.23362 -0.017756 -0.01945 0.0006506 0.0043632 -0.0015051 -0.00075676
0.001496 0.0027492 0.0017737 -0.0013816
-0.017729 -0.019445 0.043974 0.37224 -0.021603 0.0042651 -0.00014306 0.0019016
0.0018006 0.00091382 0.0013913 0.00082128
0.00066709 0.0043675 -0.021606 0.0043749 0.33949 0.11353 0.0011039 -0.00091382
0.00084696 -0.00044904 0.00032767 0.00042406
-0.0015093 -0.00074898 -0.00012896 0.0018993 0.0011082 -0.00091151 0.13877 0.23577
-0.0084733 -0.017326 0.00082763 0.00039457
0.0015103 0.0027335 0.0018187 0.00090185 0.00085209 -0.00044636 -0.0085155 -0.017325
0.056529 0.21295 -0.002906 -0.014158
0.001769 -0.0013916 0.0014018 0.00081714 0.00033194 0.00042459 0.00082959 0.00039374
-0.0029012 -0.014158 0.062531 0.31807
1400000000 0.25088 0.19526 -0.023789 -0.0077848 0.0049208 0.0031406 -0.0019339 0.0005
0.0023827 0.00087679 0.00036306 -0.0013123
-0.023764 -0.0078022 0.081027 0.35872 -0.01484 0.012351 0.0012275 0.0012809
0.0011449 -0.00071377 0.001283 0.000272
0.0049274 0.0031202 -0.014795 0.012444 0.35248 0.059942 0.00011321 -0.0015885
-1.9484e-05 -0.00050188 0.00047948 0.00024626
-0.0019372 0.00051054 0.001236 0.0012722 0.00011712 -0.0015821 0.16777 0.20709
-0.014604 -0.010439 -0.001071 -0.00065642
0.0023894 0.00085904 0.0011435 -0.00072954 -1.407e-05 -0.00050579 -0.01463 -0.010402
0.08944 0.20876 -0.0095432 -0.0097054
0.00035074 -0.0013162 0.001286 0.00025427 0.00048647 0.0002438 -0.0010768 -0.00065962
-0.0095219 -0.0097157 0.10881 0.30821
1460000000 0.27319 0.15131 -0.02089 0.0046579 0.0054363 -0.0016961 -0.0016021 0.001564
0.0020879 -0.00054141 -0.00035128 -0.00093779
-0.020873 0.0046272 0.11477 0.33657 -0.0061854 0.015173 0.0016828 0.00025086
0.00099023 -0.0012919 0.0011784 -0.0006998
0.0054232 -0.0017207 -0.0061219 0.015224 0.35824 0.0056157 -0.0012544 -0.001252
0.00016881 -0.00038891 0.00059374 -0.00043078
-0.0015965 0.001572 0.0016866 0.00025403 -0.0012491 -0.0012557 0.19367 0.17838
-0.016085 -0.0034997 -0.0010992 0.0020548
0.0020883 -0.00055503 0.00098094 -0.0012931 0.00018576 -0.000386 -0.016098 -0.0034624
0.11784 0.19385 -0.011928 -0.00344
-0.00035146 -0.00094099 0.0011702 -0.00070521 0.00059325 -0.00045205 -0.0011057 0.0020403
-0.011917 -0.0034461 0.14303 0.28801
1520000000 0.28494 0.10985 -0.01523 0.010479 0.0032797 -0.0039872 2.0206e-05 0.0025664
0.0021345 -0.0016688 -0.0010867 -0.00014683
-0.015228 0.010456 0.14783 0.32177 0.0014248 0.013027 0.0017003 -0.00070217
7.9461e-05 -0.0010782 0.00032301 -0.0010404
0.0032621 -0.0040104 0.0015013 0.013034 0.35135 -0.050687 -0.0010566 -0.00038108
0.00055597 -0.00081329 7.7809e-05 -0.0001279
3.6574e-05 0.002558 0.0017002 -0.00070381 -0.0010616 -0.00038475 0.21658 0.14115
-0.015609 0.0024579 0.0013416 0.0021838
0.0021161 -0.0016857 7.2855e-05 -0.0010814 0.00055572 -0.00081732 -0.015611 0.0024963
0.14466 0.18013 -0.012189 0.0010197
-0.0010893 -0.00013578 0.00031496 -0.0010482 8.1418e-05 -0.00012465 0.0013425 0.0021766
-0.012186 0.0010032 0.17737 0.26923
1580000000 0.29411 0.064158 -0.0083781 0.013816 -0.00086651 -0.004689 0.0012937 0.0019125
-0.00027444 -0.0020732 -0.00031659 0.00043693
-0.00837 0.013812 0.17462 0.29717 0.0049854 0.0082765 0.00055648 -0.0016023
-0.00063709 -0.0011197 -0.00034275 -0.00075142
-0.00089067 -0.0046826 0.0050341 0.0082587 0.33079 -0.10796 -0.0015975 0.00066171
-0.00028493 -0.0010892 6.9779e-05 -0.0005825
0.0013027 0.0019115 0.00055672 -0.0016071 -0.0015974 0.00065756 0.23049 0.10279
-0.012035 0.0076858 0.0022184 0.0010267
-0.00029442 -0.0020729 -0.00064199 -0.0011131 -0.00028621 -0.0010931 -0.012024 0.0077125
0.16848 0.1629 -0.0097824 0.0071853
-0.00031724 0.00043969 -0.00034835 -0.00074859 6.8875e-05 -0.00058578 0.0022237 0.0010188
-0.0097929 0.0071798 0.21115 0.24267
1640000000 0.29629 0.023208 -0.0013452 0.012774 -0.0025389 -0.0024277 0.0027016 0.001074
-0.00054209 -0.0015411 -0.00023577 0.00051692
-0.0013622 0.01277 0.20391 0.27244 0.0058206 0.0036017 -0.00062554 -0.0018097
-0.0010588 -0.00034291 -0.00047559 -0.00065506
-0.00254 -0.0024159 0.0058477 0.0035742 0.30261 -0.15709 -0.00061232 0.0014645
-0.0010458 -0.0010332 -8.6106e-05 -0.00046361
0.0027082 0.0010664 -0.0006385 -0.0018106 -0.00061261 0.0014602 0.24312 0.054893
-0.0077245 0.0091243 0.0024969 -0.00067846
-0.00055867 -0.0015324 -0.0010647 -0.00033771 -0.0010524 -0.0010323 -0.0077018 0.009147
0.19006 0.13934 -0.0050187 0.0093739
-0.00023281 0.00052302 -0.00047934 -0.0006517 -9.3273e-05 -0.00046158 0.0024896 -0.00069563
-0.0050273 0.0093698 0.23729 0.21207
1700000000 0.28921 -0.021887 0.0022505 0.0098296 -0.0032322 7.763e-05 0.0030499 -0.0011715
-0.0020455 -0.00075857 0.00068072 0.00044595
0.0022388 0.009819 0.22172 0.24128 0.0038238 0.00081409 -0.0014948 -0.00065457
-0.00073524 0.00012272 -0.00087166 -0.00040148
-0.003241 9.0447e-05 0.0038344 0.00078778 0.25883 -0.19664 0.00047609 0.0016215
-0.0018146 -0.00024652 -0.00041274 -0.00077774
0.0030468 -0.0011823 -0.0014997 -0.00064406 0.00047432 0.0016237 0.24071 0.0061899
-0.0048059 0.0099427 0.0015826 -0.0021683
-0.0020626 -0.00074626 -0.00073614 0.00012191 -0.0018177 -0.00024198 -0.0047805 0.0099633
0.20695 0.11993 -0.0002067 0.0098429
0.0006861 0.00044255 -0.00087252 -0.00040102 -0.00041326 -0.00078119 0.0015712 -0.0021776
-0.00020514 0.0098441 0.25495 0.17773
1760000000 0.2772 -0.07029 0.0046127 0.0064249 -0.0021767 0.00084456 0.0013168 -0.003368
-0.0013857 0.00063001 0.00044126 -0.0006076
0.0046089 0.0064217 0.24765 0.20183 0.001681 -0.00094817 -0.0012515 0.00019177
-0.00089678 0.00092091 -0.0004676 0.0003996
-0.0021723 0.00086386 0.0016727 -0.00096338 0.21005 -0.22947 0.0012424 0.00099569
-0.0011008 0.0013844 -0.00119 -0.00051032
0.0012999 -0.0033783 -0.0012549 0.00020462 0.0012464 0.001005 0.23291 -0.044481
-0.0012622 0.0093055 -0.00012926 -0.0024666
-0.0013738 0.00065141 -0.00089681 0.00093138 -0.0010981 0.0013894 -0.0012391 0.0093083
0.22134 0.086024 0.0038738 0.0073204
0.00043403 -0.0006141 -0.00046243 0.00040427 -0.0011941 -0.00050047 -0.00013885 -0.00247
0.0038812 0.0073146 0.26821 0.14028
1820000000 0.25279 -0.10766 0.0048518 0.002749 -5.5432e-05 0.0023283 -0.00095696 -0.0030474
-0.0011894 0.00093703 -4.7228e-05 -0.00012608
0.0048461 0.0027514 0.25769 0.17209 -0.00020955 5.5989e-05 -0.0013399 0.0010123
5.7547e-05 0.0012123 -0.00048338 0.00047127
-4.3142e-05 0.0023312 -0.00020728 6.1083e-05 0.1603 -0.24522 0.0014099 0.00035936
-0.00030751 0.0022893 -0.0013408 0.00016376
-0.00096675 -0.0030435 -0.0013374 0.001014 0.0014034 0.00035553 0.20449 -0.091647
0.00051493 0.0077539 -0.0014689 -0.0016134
-0.0011832 0.00095202 6.5062e-05 0.0012117 -0.00030547 0.0022959 0.0005306 0.0077567
0.23844 0.058082 0.0049467 0.0038335
-4.7267e-05 -0.00012855 -0.00048001 0.00047686 -0.001349 0.00016586 -0.0014709 -0.0016102
0.0049496 0.0038351 0.27153 0.10469
1880000000 0.21781 -0.14811 0.002738 0.00034142 -0.00031477 0.0020343 -0.0028766 -0.0022756
-0.00016815 0.0017969 0.00020081 -0.00053532
0.0027377 0.00034033 0.26239 0.1259 -0.0021209 0.0016896 -0.00014868 0.0017125
0.00055586 0.0010699 6.5631e-05 0.00083335
-0.00029591 0.0020286 -0.0021085 0.0017066 0.10819 -0.2548 0.0017027 -0.00086916
0.0014273 0.0020023 -0.0011699 0.001269
-0.0028911 -0.0022656 -0.00013861 0.0017194 0.0016977 -0.00086012 0.16533 -0.13252
0.0015943 0.00578 -0.0023476 0.00034357
-0.00014455 0.0017888 0.00055488 0.001071 0.0014412 0.0019942 0.0016151 0.0057827
0.24157 0.026694 0.0052253 0.0016868
0.00019677 -0.00054302 7.5366e-05 0.00083583 -0.0011757 0.0012732 -0.002352 0.00034878
0.0052238 0.0016879 0.27192 0.070237
1940000000 0.17838 -0.17395 0.00049826 -0.0014897 0.0013651 0.0019607 -0.0036778 0.00042853
0.0014015 0.0010765 -0.00069798 -0.00046743
0.0005053 -0.0014821 0.2633 0.094221 -0.0010533 0.0038431 0.0010517 0.001348
0.0016453 0.00038967 0.00069688 0.00025835
0.0013684 0.0019582 -0.0010226 0.0038555 0.062098 -0.24821 0.00045455 -0.0020282
0.0024047 0.00049543 0.00010499 0.0017325
-0.0036825 0.00044098 0.0010547 0.001347 0.00044869 -0.002032 0.11377 -0.16445
0.0011127 0.0042248 -0.0013969 0.0014907
0.0014086 0.0010684 0.0016529 0.00038478 0.0024066 0.0004953 0.0011291 0.0042227
0.24399 -0.011437 0.0040012 -0.0020068
-0.00070625 -0.00046534 0.00070277 0.00025165 0.00010589 0.0017223 -0.0014 0.0015006
0.0039936 -0.0020067 0.26171 0.034981
2000000000 0.132 -0.18883 -0.0034004 0.00029526 0.0023885 0.0015949 -0.002441 0.003387
0.001215 2.1044e-05 -0.00064527 0.0003472
-0.0033924 0.00028887 0.24947 0.05862 -0.00089597 0.005621 0.0016523 0.00034856
0.0011881 -0.0012571 0.00040776 0.00017608
0.0023974 0.0015757 -0.00085371 0.0056331 0.018457 -0.23343 -0.0012691 -0.0013019
0.002047 -0.0011406 0.0017031 0.0014156
-0.0024079 0.0033915 0.0016611 0.00033695 -0.0012743 -0.0013058 0.060077 -0.17575
-0.00022546 0.0036457 1.52e-05 0.0021875
0.0012189 1.0808e-05 0.0011796 -0.0012721 0.0020322 -0.0011454 -0.00021616 0.0036392
0.23852 -0.044783 0.00071045 -0.0028317
