!Keysight Technologies,M9804A,MY58100912,A.14.10.03
!Date: Thursday, April 27, 2023 10:28:33
!Correction: S11(C  6-Port  ) 
!S12(C  6-Port  ) 
!S13(C  6-Port  ) 
!S14(C  6-Port  ) 
!S15(C  6-Port  ) 
!S16(C  6-Port  ) 
!S21(C  6-Port  ) 
!S22(C  6-Port  ) 
!S23(C  6-Port  ) 
!S24(C  6-Port  ) 
!S25(C  6-Port  ) 
!S26(C  6-Port  ) 
!S31(C  6-Port  ) 
!S32(C  6-Port  ) 
!S33(C  6-Port  ) 
!S34(C  6-Port  ) 
!S35(C  6-Port  ) 
!S36(C  6-Port  ) 
!S41(C  6-Port  ) 
!S42(C  6-Port  ) 
!S43(C  6-Port  ) 
!S44(C  6-Port  ) 
!S45(C  6-Port  ) 
!S46(C  6-Port  ) 
!S51(C  6-Port  ) 
!S52(C  6-Port  ) 
!S53(C  6-Port  ) 
!S54(C  6-Port  ) 
!S55(C  6-Port  ) 
!S56(C  6-Port  ) 
!S61(C  6-Port  ) 
!S62(C  6-Port  ) 
!S63(C  6-Port  ) 
!S64(C  6-Port  ) 
!S65(C  6-Port  ) 
!S66(C  6-Port  ) 
!S6P File: Measurement: :
# Hz S  RI   R 50
500000000 -0.33678 -0.041113 -0.009119 -0.0026684 -0.0081775 0.012098 -0.0041035 0.012325
0.012977 0.0044208 -0.0045066 0.0090242
-0.0091162 -0.0026307 -0.41855 -0.053369 0.0081552 -0.011113 0.0016035 0.012272
0.0076826 0.0022212 0.0015496 0.013274
-0.0081503 0.012068 0.0081375 -0.011096 -0.26425 0.20761 0.0078796 0.0033977
-0.0020957 0.0076676 0.0012771 0.011967
-0.0040844 0.012348 0.001605 0.012299 0.0078602 0.0033936 -0.33128 0.04003
-0.018729 -0.0062465 0.016595 0.026277
0.012986 0.0043382 0.0077765 0.002179 -0.0020813 0.0076939 -0.018753 -0.0062242
-0.2175 -0.20469 -0.025493 0.0057197
-0.00444 0.0090438 0.0015104 0.013299 0.0012365 0.01198 0.016544 0.026273
-0.025463 0.0057291 -0.25979 -0.14997
560000000 -0.31625 0.12015 -0.023724 -0.063454 -0.0003359 0.011907 0.0056226 0.010803
0.010842 0.0050079 0.010819 0.0075369
-0.023672 -0.063362 -0.37629 0.10669 -0.041489 -0.038192 0.014034 0.0034226
-0.012942 -0.0058843 0.0029558 -0.00012959
-0.00028817 0.011891 -0.041601 -0.038114 -0.18261 0.25542 -0.001102 -0.0043883
0.019852 0.0055027 0.0066383 -0.0059181
0.0056839 0.010807 0.014031 0.0034269 -0.0011276 -0.0043554 -0.30633 0.12968
0.0042679 -0.024548 0.0047332 -0.022081
0.01092 0.0049372 -0.013005 -0.0059378 0.019879 0.0054584 0.004235 -0.024612
-0.28758 -0.028276 0.009644 -0.049489
0.010884 0.0075508 0.0029565 -8.0959e-05 0.0066441 -0.0059471 0.0046906 -0.021999
0.0096677 -0.049497 -0.3284 0.0019114
620000000 -0.276 0.10453 -0.023509 0.0075473 0.0026791 0.0085172 0.0084399 -0.005487
0.010791 -0.00028795 0.0014617 -0.002452
-0.023488 0.0075345 -0.40256 0.057915 -0.019118 -0.00022305 -0.0014064 -0.0022997
0.011366 -0.0061562 0.0016555 -0.0029326
0.0027792 0.0084739 -0.019148 -0.00017252 -0.15455 0.26517 -0.0017701 -0.0051746
-0.0028442 -0.0022339 0.0079726 -0.0034243
0.0084354 -0.0055123 -0.0013973 -0.0022894 -0.0017603 -0.0051337 -0.2668 0.14085
-0.038376 -0.019889 0.012345 0.026235
0.010707 -0.00024986 0.011359 -0.0062378 -0.0028633 -0.0022805 -0.038313 -0.019832
-0.20496 -0.067604 -0.042459 0.01458
0.0014934 -0.0024431 0.0016411 -0.0029494 0.0079253 -0.0034576 0.01238 0.026282
-0.042436 0.014584 -0.2475 -0.037526
680000000 -0.23554 0.19041 -0.027625 -0.014683 0.0047355 0.0053617 0.0014632 -0.0071693
-0.00351 -0.011168 0.0055076 -0.0069073
-0.027611 -0.014682 -0.38811 0.15591 -0.033311 -0.001533 -0.0018541 -0.00037028
-0.0022634 -0.0089456 -0.0012673 -0.0017446
0.0047532 0.0053422 -0.033349 -0.0014626 -0.10356 0.28496 -0.00069539 -6.9092e-05
-0.0018286 0.00077303 -0.002851 -0.009525
0.00147 -0.007166 -0.0018622 -0.00036707 -0.000711 -8.4511e-05 -0.22202 0.19167
-0.023792 -0.0079396 -0.0096986 -0.01201
-0.0034989 -0.011163 -0.0023269 -0.0089523 -0.0018394 0.00076697 -0.023853 -0.0079516
-0.25913 0.031411 -0.0059867 -0.0089108
0.0054573 -0.0068972 -0.0013 -0.0017281 -0.0028715 -0.0095083 -0.0097339 -0.012029
-0.0059613 -0.0089386 -0.26166 0.072414
740000000 -0.19138 0.18533 -0.039106 0.026763 0.012699 -0.0049383 -0.00016582 -0.0042935
-0.0038855 -0.0025861 -0.0059786 0.0027443
-0.039166 0.026715 -0.33568 0.17511 -0.036134 0.035426 -0.00078709 -0.0062133
-0.011117 0.0079615 -0.0024093 -0.0071583
0.012654 -0.0050046 -0.036021 0.035538 -0.069967 0.28386 -0.0019595 0.0030437
-0.0018347 -0.0045148 -0.001384 -0.00014555
-0.00021197 -0.0042893 -0.00082681 -0.0062556 -0.0019515 0.003082 -0.20558 0.20014
-0.044716 -0.0076527 0.023404 0.015405
-0.0039447 -0.0025683 -0.011203 0.0080211 -0.0018127 -0.0045063 -0.04481 -0.007609
-0.15841 0.059168 -0.045242 -0.00048616
-0.0060166 0.0027736 -0.0023608 -0.0070177 -0.001435 -0.00018134 0.023382 0.015459
-0.045197 -0.00052262 -0.25249 0.077009
800000000 -0.15904 0.22625 -0.022898 0.01679 0.0053927 -0.010639 -0.004758 -0.0021527
-0.0038143 0.0022895 0.0050884 7.8658e-05
-0.022897 0.016776 -0.33937 0.24563 -0.0081401 0.034472 -0.0022022 0.0021905
-0.00047296 0.0028692 0.0010242 0.0053564
0.0053718 -0.010655 -0.0080493 0.034518 -0.029342 0.30776 0.0010341 0.0013757
0.00041542 0.0033751 -0.0017388 0.00074257
-0.0047589 -0.0021399 -0.0022034 0.002203 0.0010458 0.0013692 -0.17761 0.22853
-0.029302 0.013867 0.014192 -0.010548
-0.0038134 0.0023456 -0.00046399 0.002895 0.00041514 0.0033589 -0.029288 0.013915
-0.20833 0.082937 -0.01837 0.019392
0.0050953 2.7532e-05 0.0010549 0.0053508 -0.0017422 0.00074484 0.014156 -0.010563
-0.0184 0.01937 -0.24955 0.12831
860000000 -0.12445 0.24692 -0.017893 0.030911 -0.0033866 -0.01004 -0.0023899 0.0009147
0.0040604 0.0046758 -0.0034367 -0.0031283
-0.017885 0.030872 -0.29176 0.28798 0.0078374 0.034648 -0.00010824 0.0018954
0.0040652 -0.00026211 0.0032591 0.00074743
-0.0034115 -0.010047 0.0079514 0.034661 0.019085 0.31606 -0.00062796 -0.00032531
0.002805 -0.0015755 0.0014586 0.0044607
-0.0024049 0.00091776 -0.00011704 0.0019079 -0.00063466 -0.0003254 -0.14118 0.24002
-0.018816 0.018907 -0.006092 -0.0091077
0.0040813 0.0046897 0.0040702 -0.00025246 0.0028025 -0.0015772 -0.01877 0.018951
-0.15771 0.13605 -0.027318 0.015404
-0.0034363 -0.0031512 0.0032784 0.00071941 0.0014614 0.004445 -0.0061095 -0.0091468
-0.027306 0.015364 -0.19861 0.17699
920000000 -0.09987 0.27043 0.0049593 0.038442 -0.0095412 -0.0043307 -0.0018023 0.0020199
0.00095704 0.0018913 0.0025411 -0.0014833
0.004917 0.038404 -0.26286 0.30972 0.028234 0.022368 0.0014488 0.0011945
0.0069349 -0.00039536 0.0038338 -0.0026831
-0.0095456 -0.0043002 0.028331 0.022296 0.065741 0.31673 0.0017619 9.3741e-05
0.0010558 -0.00033144 0.00085627 -0.00099135
-0.0017834 0.0020259 0.0014649 0.0012088 0.0017689 8.5155e-05 -0.11727 0.25763
-0.011348 0.031481 0.0038117 -0.0065897
0.00094075 0.0018991 0.0069692 -0.00039292 0.0010475 -0.00031564 -0.011293 0.03155
-0.14796 0.14231 -0.0030929 0.028259
0.002528 -0.0015253 0.0038471 -0.0027494 0.00087196 -0.00097884 0.0038576 -0.006608
-0.003094 0.028234 -0.21066 0.19103
980000000 -0.052009 0.29006 0.017707 0.030628 -0.0090834 0.0047865 0.0021864 0.003533
0.0039969 -0.0014638 -0.0033047 -0.00219
0.017688 0.030617 -0.20962 0.34385 0.033494 0.0050207 0.0020701 -9.3262e-05
0.0014137 -0.0058673 -0.00038405 -0.0025174
-0.0090588 0.0048283 0.033508 0.0049117 0.11225 0.31017 0.00053807 -0.0011058
0.0003641 -0.0020342 0.0016036 -0.00024889
0.0022104 0.003521 0.0020408 -8.2244e-05 0.00053714 -0.0011026 -0.078329 0.26955
0.0078962 0.031392 -0.0092059 -0.0075809
0.0039809 -0.0014734 0.0014514 -0.0058546 0.00035712 -0.0020361 0.0079727 0.031383
-0.11729 0.17307 0.0047727 0.020525
-0.003322 -0.0022083 -0.00037946 -0.0025128 0.0015923 -0.00024399 -0.0092436 -0.0075423
0.0047636 0.020525 -0.16824 0.23918
1040000000 -0.0096788 0.29847 0.033573 0.018656 -0.0011305 0.0071517 0.0026057 0.00051963
4.9858e-05 -0.0037 -8.2464e-05 -0.0013817
0.033526 0.018636 -0.17375 0.35688 0.029816 -0.014953 0.0014707 -0.0017792
-0.002564 -0.0024856 -0.0012222 -0.0025106
-0.0010861 0.0071628 0.029772 -0.015057 0.15844 0.29628 -0.00051378 -0.0015793
-0.0015745 -0.00091376 -0.00032299 -0.0011579
0.0026188 0.00050951 0.0014271 -0.0017738 -0.0005096 -0.0015767 -0.050644 0.27979
0.020172 0.019086 -0.002128 0.0016037
2.6605e-05 -0.0037111 -0.0025275 -0.0024748 -0.0015767 -0.00089502 0.020182 0.019085
-0.08438 0.18097 0.013576 0.020017
-7.1818e-05 -0.0013738 -0.0012647 -0.0025354 -0.00029908 -0.0011582 -0.002128 0.0015998
0.013564 0.020022 -0.14842 0.26099
1100000000 0.035885 0.30622 0.036366 -0.0040647 0.0031231 0.0039141 0.002296 -0.0014531
-0.0020355 -0.0031933 -0.0038301 5.7917e-05
0.036326 -0.0040402 -0.13017 0.37429 0.01531 -0.028143 -0.00010407 -0.0017888
-0.0032084 -0.0007388 -0.0034561 -0.00049744
0.0031354 0.0039196 0.015191 -0.028216 0.20489 0.2759 -0.0018845 0.00023487
-0.0017403 0.0004388 -0.0011466 -0.00061756
0.0023073 -0.0014667 -0.00010255 -0.0017941 -0.0018796 0.00024173 -0.0098401 0.28491
0.025759 0.0054862 -0.0024146 7.5927e-05
-0.0020627 -0.0031754 -0.0032113 -0.00071148 -0.0017342 0.00044749 0.02577 0.0054373
-0.066634 0.19521 0.019656 0.0096957
-0.0038456 6.6204e-05 -0.0034681 -0.00049396 -0.0011416 -0.00060371 -0.0024203 9.5182e-05
0.019641 0.0097042 -0.10276 0.29388
1160000000 0.087318 0.30105 0.024416 -0.020865 0.0029986 -0.00069614 -0.00049539 -0.0024727
-0.0041778 -0.00079851 -0.00093207 0.0040912
0.024419 -0.020853 -0.086098 0.37829 -0.0037229 -0.029446 -0.0016723 -0.0016463
-0.0026568 0.0023072 -0.0013469 0.0019141
0.0030009 -0.00070412 -0.0038783 -0.029445 0.24809 0.24489 -0.00062627 0.0017552
-0.00064938 0.0019114 -0.0010809 0.00021254
-0.00050168 -0.0024633 -0.0016916 -0.001615 -0.0006299 0.001752 0.030019 0.28197
0.022324 -0.0107 -0.0030507 0.0051881
-0.0041854 -0.00078487 -0.0026312 0.0023391 -0.00065323 0.0019027 0.022298 -0.010745
-0.032506 0.20495 0.019042 0.0012075
-0.00089598 0.0041274 -0.0013382 0.0019001 -0.0010667 0.00020623 -0.0030317 0.0052158
0.019047 0.0012087 -0.055177 0.29745
1220000000 0.13161 0.28982 0.010778 -0.030335 -0.0014666 -0.001149 -0.00014767 -0.0007515
-0.0026838 0.0024458 0.0012849 0.0020226
0.010786 -0.030315 -0.04153 0.39015 -0.01705 -0.021296 -0.0024909 0.0005192
-1.9043e-05 0.0029178 -0.00084701 0.0019044
-0.0014582 -0.0011397 -0.017165 -0.021234 0.28725 0.20573 0.00081171 0.0015849
0.0005245 0.0011877 0.00022683 0.0006926
-0.00014495 -0.00074518 -0.0024904 0.00052908 0.00082556 0.0015858 0.070108 0.27314
0.011188 -0.017797 0.0023715 0.0013194
-0.0026756 0.0024333 -5.1285e-06 0.0029229 0.00052671 0.0011848 0.011161 -0.017805
-0.010114 0.21415 0.01527 -0.012617
0.0012903 0.0019981 -0.00083331 0.0018787 0.00021865 0.00069832 0.002376 0.0013431
0.015258 -0.012604 -0.024769 0.31668
1280000000 0.1814 0.26775 -0.0077646 -0.028917 -0.0020025 0.0021586 -0.00085152 -0.0017825
-0.0007692 0.0030508 0.002421 0.0011546
-0.0077511 -0.028892 0.0046296 0.38084 -0.023853 -0.0084987 -0.00086558 0.001411
0.0015693 0.0017779 0.00062836 0.0021297
-0.0019788 0.0021639 -0.023922 -0.0083991 0.31765 0.16161 0.0015746 -2.3326e-05
0.0011572 0.00042153 0.0003934 0.00046672
-0.0008551 -0.0017744 -0.00085437 0.0014295 0.0015571 -1.2065e-05 0.10688 0.25627
0.0014706 -0.020033 -0.00016044 -0.00015933
-0.00075754 0.0030547 0.0015717 0.0017657 0.0011661 0.00042328 0.0014361 -0.020029
0.0272 0.21798 0.0038929 -0.015353
0.0024224 0.0011382 0.00064534 0.0021298 0.00039208 0.00046756 -0.00016783 -0.00015038
0.0038965 -0.015356 0.024298 0.3208
1340000000 0.21832 0.23362 -0.017679 -0.019429 0.00064581 0.0043639 -0.0015118 -0.00075166
0.001472 0.0027313 0.0017502 -0.0013758
-0.01765 -0.019425 0.04402 0.37213 -0.02161 0.0042568 -0.00013246 0.0018995
0.0017945 0.00088971 0.0013967 0.00081917
0.00067358 0.0043623 -0.021618 0.0043779 0.33952 0.1135 0.0011151 -0.00091897
0.00083251 -0.00044931 0.00032904 0.00043193
-0.0015098 -0.00074532 -0.00012843 0.0018986 0.0011069 -0.00092632 0.1388 0.23569
-0.0085008 -0.017372 0.00083661 0.00040694
0.0014885 0.0027119 0.0018029 0.0009043 0.0008357 -0.00044844 -0.0085286 -0.017373
0.05677 0.21295 -0.0029062 -0.014143
0.0017477 -0.0013866 0.0014022 0.00081845 0.00033069 0.00043052 0.00085402 0.00039948
-0.002897 -0.014139 0.062758 0.31804
1400000000 0.251 0.19525 -0.023721 -0.0078167 0.004906 0.0031242 -0.0019304 0.00049712
0.0023712 0.00087567 0.00034352 -0.00133
-0.023692 -0.0078229 0.081069 0.35863 -0.014831 0.012345 0.0012212 0.0012758
0.0011338 -0.00070203 0.0012889 0.0002633
0.0049353 0.0031024 -0.014799 0.012449 0.35254 0.059868 0.0001113 -0.0015977
-2.2988e-05 -0.00049024 0.00046737 0.00022195
-0.0019271 0.00050561 0.0012231 0.0012693 0.00010388 -0.0015928 0.16778 0.20703
-0.014639 -0.010457 -0.0010623 -0.00065896
0.0023825 0.00086048 0.0011342 -0.00072053 -2.8193e-05 -0.00048965 -0.014673 -0.010427
0.08965 0.20873 -0.0095429 -0.0096462
0.00034156 -0.0013146 0.0012791 0.00025466 0.00047309 0.00022941 -0.0010667 -0.00064945
-0.0095336 -0.0096518 0.109 0.30816
1460000000 0.27337 0.15124 -0.020853 0.0045856 0.0054064 -0.0017045 -0.0016214 0.0015386
0.0020839 -0.00054358 -0.0003458 -0.00096004
-0.020829 0.0045575 0.11477 0.33652 -0.0061762 0.015192 0.0016838 0.00025191
0.00099024 -0.001288 0.0011836 -0.00068906
0.0054132 -0.0017262 -0.0061036 0.015238 0.35825 0.0055764 -0.0012598 -0.0012605
0.00018153 -0.00037624 0.00059119 -0.00042108
-0.0016135 0.0015578 0.0016799 0.00024957 -0.0012508 -0.001265 0.19367 0.17833
-0.016142 -0.0035216 -0.0010733 0.0020582
0.0020878 -0.00055101 0.00098546 -0.0012907 0.00017214 -0.00038019 -0.016172 -0.003475
0.11805 0.19377 -0.011909 -0.0033877
-0.0003628 -0.00095013 0.0011785 -0.00070676 0.00059874 -0.00041334 -0.001087 0.0020613
-0.011907 -0.0033828 0.1432 0.28793
1520000000 0.28508 0.10977 -0.015247 0.010392 0.0032549 -0.0039784 1.0722e-05 0.0025547
0.0021306 -0.0016761 -0.0010786 -0.00013817
-0.015245 0.010371 0.14786 0.32179 0.0014295 0.013037 0.0016986 -0.00069642
8.5334e-05 -0.0010851 0.00032991 -0.0010327
0.0032379 -0.0039826 0.0015028 0.013043 0.35137 -0.050716 -0.0010615 -0.00037258
0.000542 -0.00081311 7.3396e-05 -0.00012145
2.332e-05 0.0025543 0.0017001 -0.00070318 -0.0010659 -0.00037671 0.21658 0.14114
-0.015653 0.0024921 0.0013473 0.0021639
0.0021283 -0.001694 6.9481e-05 -0.0010889 0.0005413 -0.00082179 -0.015657 0.0025223
0.14487 0.18002 -0.012149 0.0010592
-0.0010788 -0.00013201 0.00032533 -0.0010384 8.0077e-05 -0.00012117 0.0013392 0.0021654
-0.01214 0.0010542 0.17761 0.26913
1580000000 0.29424 0.064023 -0.0084212 0.013756 -0.00085971 -0.0046656 0.0013006 0.0019407
-0.00028288 -0.0020696 -0.00032087 0.00043463
-0.0084285 0.013737 0.17467 0.29718 0.0049855 0.0082696 0.0005734 -0.0015912
-0.00063261 -0.0011243 -0.00034239 -0.00074944
-0.00088845 -0.0046745 0.0050465 0.0082491 0.3308 -0.10802 -0.0016027 0.00066776
-0.000277 -0.0010725 8.5514e-05 -0.00058395
0.0013029 0.0019386 0.00056441 -0.0015974 -0.0016035 0.00066514 0.23051 0.10276
-0.012063 0.0077182 0.0022139 0.0010153
-0.000292 -0.0020713 -0.00063109 -0.0011275 -0.00027653 -0.0010763 -0.012048 0.0077593
0.1686 0.16271 -0.0097294 0.0071976
-0.00030989 0.00043315 -0.00034151 -0.00074982 8.255e-05 -0.00058797 0.0022159 0.0010084
-0.0097274 0.0071873 0.21133 0.24255
1640000000 0.29633 0.023002 -0.0014258 0.012751 -0.0025335 -0.0024046 0.0027108 0.0010806
-0.00055213 -0.0015499 -0.00024154 0.00050068
-0.001431 0.012741 0.20398 0.27246 0.0058066 0.0036105 -0.00062243 -0.0018091
-0.0010586 -0.00035211 -0.00046571 -0.00066569
-0.0025443 -0.0023907 0.0058459 0.0035744 0.30265 -0.15714 -0.00059662 0.001466
-0.0010409 -0.0010266 -8.8326e-05 -0.00044349
0.0027105 0.001073 -0.00062603 -0.0018039 -0.0006053 0.0014654 0.24314 0.054871
-0.0077195 0.0091681 0.0024901 -0.00068312
-0.00057401 -0.0015377 -0.0010585 -0.00034773 -0.0010425 -0.0010217 -0.0077023 0.0092078
0.19014 0.13916 -0.0049809 0.0093766
-0.00022801 0.00050775 -0.00047692 -0.00065014 -9.0713e-05 -0.00045682 0.0024877 -0.0006958
-0.0049768 0.0093692 0.23745 0.21193
1700000000 0.28919 -0.022049 0.0021722 0.0098387 -0.0032484 6.963e-05 0.003063 -0.0011657
-0.002064 -0.00077177 0.00066587 0.00045794
0.0021667 0.0098406 0.22182 0.24124 0.0038365 0.00079712 -0.0014871 -0.00066733
-0.00073232 0.00012074 -0.00088319 -0.00040194
-0.0032421 8.2874e-05 0.0038592 0.00077947 0.25887 -0.19669 0.00046064 0.0016239
-0.0018297 -0.0002535 -0.00044538 -0.00081854
0.0030563 -0.0011838 -0.0014963 -0.00064994 0.00046422 0.0016211 0.24073 0.00616
-0.0047689 0.009971 0.0015731 -0.0021652
-0.0020562 -0.00075408 -0.00074026 0.00012691 -0.0018294 -0.00024946 -0.0047554 0.0099933
0.20697 0.11976 -0.00018042 0.0098055
0.00066747 0.000463 -0.00088922 -0.00039695 -0.00043285 -0.00080334 0.0015726 -0.0021753
-0.00018598 0.0098056 0.25511 0.17758
1760000000 0.27716 -0.070489 0.0045624 0.0064745 -0.0021632 0.00084884 0.0013239 -0.0033842
-0.0013969 0.00064622 0.0004439 -0.00059499
0.0045557 0.0064712 0.24774 0.20176 0.0016645 -0.00094901 -0.0012567 0.00018419
-0.00089832 0.00092696 -0.00046454 0.00041374
-0.0021578 0.00087564 0.0016757 -0.000965 0.21005 -0.22954 0.0012518 0.00099534
-0.0011222 0.0013727 -0.0012123 -0.00050274
0.0013005 -0.003396 -0.0012511 0.00018914 0.0012529 0.00099526 0.23293 -0.044546
-0.0012313 0.0093125 -0.00013911 -0.00247
-0.001379 0.00065167 -0.00088725 0.00094221 -0.0011143 0.0013871 -0.0012077 0.0093192
0.22131 0.085886 0.0039049 0.0072654
0.00043486 -0.00061585 -0.00046585 0.000404 -0.0012239 -0.00049371 -0.00013599 -0.0024693
0.0039006 0.0072673 0.26831 0.14012
1820000000 0.25272 -0.10776 0.0048319 0.0028237 -6.5033e-05 0.0023282 -0.00095527 -0.0030547
-0.0011845 0.00096415 -3.4755e-05 -0.00012567
0.0048234 0.0028258 0.25776 0.17199 -0.00020387 4.9611e-05 -0.0013388 0.00099808
6.9992e-05 0.0012115 -0.00048801 0.00047931
-4.0589e-05 0.0023082 -0.00019001 6.1372e-05 0.16027 -0.24522 0.0014059 0.00035409
-0.00029292 0.0023046 -0.0013313 0.00017986
-0.00096991 -0.0030541 -0.0013335 0.0010147 0.0014139 0.00034528 0.20448 -0.091673
0.00052606 0.0077537 -0.0014862 -0.0016152
-0.0011839 0.00095951 7.6779e-05 0.0012091 -0.0002874 0.00231 0.00055604 0.0077555
0.23842 0.057977 0.0049371 0.0037989
-3.9035e-05 -0.00013283 -0.00048311 0.00047672 -0.0013443 0.00017488 -0.0014876 -0.0016078
0.0049423 0.0037909 0.27162 0.1045
1880000000 0.21772 -0.14822 0.0027578 0.0004007 -0.00030913 0.0020392 -0.0028899 -0.00228
-0.00016805 0.0018108 0.00020483 -0.00055003
0.0027492 0.00040335 0.26244 0.1258 -0.00212 0.0017053 -0.00014907 0.0017175
0.0005492 0.0010629 7.6698e-05 0.00083897
-0.0003066 0.0020306 -0.0020972 0.0017255 0.10813 -0.25483 0.0016841 -0.0008668
0.0014134 0.001999 -0.0011904 0.001309
-0.0029052 -0.0022698 -0.00013114 0.0017198 0.0016873 -0.00084805 0.16532 -0.13258
0.0016121 0.0057762 -0.0023247 0.00034845
-0.00014742 0.0018086 0.0005578 0.0010684 0.0014284 0.0020005 0.0016264 0.005774
0.24151 0.026656 0.0051924 0.0016529
0.00019874 -0.00055234 8.1344e-05 0.00083008 -0.0011947 0.0012954 -0.0023265 0.00034972
0.0051884 0.0016571 0.27197 0.070083
1940000000 0.17826 -0.174 0.00053557 -0.0014348 0.0013519 0.0019317 -0.0036993 0.00043139
0.001412 0.0010659 -0.00073099 -0.00046623
0.00054169 -0.0014386 0.2633 0.094134 -0.0010356 0.0038259 0.0010526 0.0013378
0.0016492 0.00038436 0.00069104 0.00024997
0.0013497 0.0019268 -0.0010164 0.0038478 0.062097 -0.24824 0.00043978 -0.0020133
0.0023934 0.00052373 8.9413e-05 0.0017113
-0.0036969 0.00045471 0.0010661 0.0013368 0.00043897 -0.0020248 0.11371 -0.16445
0.0011327 0.0042102 -0.0013894 0.0014758
0.0014051 0.0010459 0.0016545 0.00037393 0.0023986 0.00052198 0.0011367 0.0042066
0.24398 -0.011426 0.0039603 -0.0020046
-0.00072843 -0.0004566 0.00069274 0.00024965 0.00010908 0.0017069 -0.0013842 0.0014741
0.0039607 -0.0020109 0.26171 0.034834
2000000000 0.13192 -0.18883 -0.0033514 0.00031688 0.002396 0.001594 -0.0024503 0.0033612
0.0012183 9.0465e-06 -0.00062278 0.00034766
-0.0033431 0.00031845 0.24947 0.058536 -0.00088357 0.0056193 0.001649 0.00033247
0.0011624 -0.0012561 0.00040429 0.00017102
0.0023929 0.0015634 -0.00085348 0.0056368 0.018436 -0.23345 -0.0012992 -0.0013248
0.0020414 -0.0011268 0.0017104 0.0014297
-0.0024366 0.0033708 0.0016508 0.0003253 -0.0012692 -0.0013288 0.060074 -0.17573
-0.00020431 0.0036439 4.2722e-06 0.0021923
0.0012117 -6.2092e-06 0.0011588 -0.0012742 0.0020427 -0.0011286 -0.00018499 0.0036497
0.23856 -0.044802 0.00064917 -0.0028567
