!Keysight Technologies,M9804A,MY58100912,A.14.10.03
!Date: Thursday, April 27, 2023 10:28:33
!Correction: S11(C  6-Port  ) 
!S12(C  6-Port  ) 
!S13(C  6-Port  ) 
!S14(C  6-Port  ) 
!S15(C  6-Port  ) 
!S16(C  6-Port  ) 
!S21(C  6-Port  ) 
!S22(C  6-Port  ) 
!S23(C  6-Port  ) 
!S24(C  6-Port  ) 
!S25(C  6-Port  ) 
!S26(C  6-Port  ) 
!S31(C  6-Port  ) 
!S32(C  6-Port  ) 
!S33(C  6-Port  ) 
!S34(C  6-Port  ) 
!S35(C  6-Port  ) 
!S36(C  6-Port  ) 
!S41(C  6-Port  ) 
!S42(C  6-Port  ) 
!S43(C  6-Port  ) 
!S44(C  6-Port  ) 
!S45(C  6-Port  ) 
!S46(C  6-Port  ) 
!S51(C  6-Port  ) 
!S52(C  6-Port  ) 
!S53(C  6-Port  ) 
!S54(C  6-Port  ) 
!S55(C  6-Port  ) 
!S56(C  6-Port  ) 
!S61(C  6-Port  ) 
!S62(C  6-Port  ) 
!S63(C  6-Port  ) 
!S64(C  6-Port  ) 
!S65(C  6-Port  ) 
!S66(C  6-Port  ) 
!S6P File: Measurement: :
# Hz S  RI   R 50
500000000 -0.33686 -0.041082 -0.0092274 -0.0027436 -0.0081457 0.012285 -0.0042949 0.012295
0.012562 0.0046192 -0.0048778 0.0085496
-0.0092632 -0.0026541 -0.41843 -0.053358 0.0082196 -0.011243 0.0015062 0.012258
0.007624 0.0020854 0.0012598 0.013326
-0.0081637 0.01207 0.0081461 -0.011121 -0.26434 0.20775 0.0077923 0.0035333
-0.0018668 0.0074831 0.0013234 0.012206
-0.0041132 0.012351 0.0016108 0.012233 0.0078357 0.0034006 -0.33096 0.039904
-0.018935 -0.0059738 0.016653 0.026486
0.012899 0.0043869 0.0076843 0.0020467 -0.0020995 0.0073963 -0.01888 -0.006308
-0.21783 -0.20458 -0.025873 0.0057031
-0.0044303 0.0090117 0.0014839 0.013137 0.0011982 0.011942 0.017391 0.026281
-0.026038 0.0060579 -0.25973 -0.14956
560000000 -0.31646 0.12029 -0.024025 -0.063308 5.4879e-05 0.011609 0.0059622 0.010677
0.010798 0.0049218 0.011159 0.007426
-0.023583 -0.063269 -0.37577 0.10647 -0.041962 -0.037998 0.013907 0.0042133
-0.013021 -0.0055113 0.0024091 -0.000407
-0.00034847 0.011684 -0.041705 -0.037918 -0.18255 0.25551 -0.0010588 -0.0046807
0.019557 0.0056366 0.0072473 -0.0063608
0.0056232 0.010721 0.014041 0.0034499 -0.00089812 -0.0043907 -0.30603 0.13
0.0042603 -0.024735 0.0051077 -0.022353
0.01072 0.0047897 -0.013181 -0.0054543 0.01974 0.0054632 0.0043111 -0.025024
-0.28792 -0.028006 0.0093015 -0.050019
0.010971 0.0075635 0.0029273 -0.00015515 0.0065845 -0.0058287 0.0046955 -0.022046
0.0098353 -0.050096 -0.32697 0.0017635
620000000 -0.27608 0.10458 -0.023515 0.0075741 0.0028426 0.0084426 0.0082757 -0.0056524
0.010784 -0.00060619 0.0010276 -0.0026446
-0.023524 0.0075736 -0.40254 0.057893 -0.019097 -0.00027477 -0.0014336 -0.0022946
0.011495 -0.0062815 0.0016275 -0.0030749
0.0028433 0.0084043 -0.019186 -0.00018038 -0.15485 0.26496 -0.0018125 -0.0053991
-0.0027141 -0.0021645 0.0084575 -0.0032949
0.0084305 -0.0056538 -0.0014622 -0.0021794 -0.0018876 -0.0052169 -0.26678 0.14102
-0.038842 -0.019531 0.01193 0.026793
0.010787 -0.00018049 0.01139 -0.0063117 -0.0027349 -0.0019775 -0.038635 -0.020001
-0.20461 -0.068189 -0.041997 0.013689
0.001575 -0.0023562 0.001572 -0.0028432 0.008449 -0.0032559 0.01232 0.026203
-0.043604 0.013961 -0.24796 -0.037526
680000000 -0.23539 0.19041 -0.027542 -0.014747 0.0048204 0.0052665 0.0017247 -0.0071333
-0.003661 -0.011075 0.0052651 -0.0072983
-0.027593 -0.014698 -0.38804 0.15591 -0.03332 -0.0015583 -0.0018354 -0.00049304
-0.0022998 -0.0088929 -0.0011424 -0.0017167
0.0047601 0.0053375 -0.033329 -0.0014467 -0.10358 0.28489 -0.00067059 -0.00010955
-0.0017288 0.00086561 -0.002744 -0.0096512
0.0015144 -0.0071668 -0.0017681 -0.00036821 -0.00071501 -2.2274e-05 -0.22182 0.19157
-0.024058 -0.0079428 -0.009909 -0.01213
-0.0036272 -0.011047 -0.0022856 -0.0089737 -0.0017169 0.00080351 -0.024177 -0.0077783
-0.2591 0.032078 -0.0058756 -0.0088151
0.0055354 -0.006929 -0.0012732 -0.0017468 -0.002893 -0.0096393 -0.0096747 -0.011681
-0.0059971 -0.0085289 -0.26177 0.072097
740000000 -0.19142 0.18526 -0.039097 0.026824 0.01269 -0.0049193 -0.00032399 -0.0042213
-0.0037729 -0.0026153 -0.0064239 0.0028885
-0.039209 0.026778 -0.33584 0.17524 -0.03604 0.035328 -0.0006632 -0.0062289
-0.011526 0.007975 -0.0024848 -0.0067219
0.012672 -0.0049881 -0.035971 0.035412 -0.069964 0.28392 -0.0019422 0.0031025
-0.0016853 -0.0045842 -0.0015394 -0.00021373
-0.00026847 -0.0042987 -0.00079263 -0.0062326 -0.0019447 0.0030674 -0.20567 0.20008
-0.044722 -0.0074638 0.023415 0.015691
-0.0037806 -0.0026626 -0.011329 0.0081734 -0.0016532 -0.0045284 -0.044535 -0.0074995
-0.15877 0.059323 -0.045603 -0.00083354
-0.0059793 0.0027007 -0.0022721 -0.0070089 -0.0015417 -0.00012423 0.023465 0.015363
-0.045486 -0.00021999 -0.25235 0.077018
800000000 -0.15905 0.22619 -0.022918 0.016813 0.0053909 -0.010677 -0.0047205 -0.0021523
-0.0039002 0.0022659 0.0053575 0.00030921
-0.022887 0.016772 -0.33943 0.24562 -0.0081207 0.034435 -0.0022458 0.0021593
-0.00033054 0.0029082 0.0012815 0.0054496
0.005351 -0.010692 -0.008078 0.034497 -0.029316 0.3077 0.0010418 0.0013545
0.00037514 0.0034021 -0.0016834 0.00091333
-0.0047364 -0.002118 -0.0021932 0.0022177 0.0010895 0.0013521 -0.17748 0.22853
-0.029347 0.013806 0.014383 -0.010367
-0.0038237 0.0022532 -0.00038465 0.0028148 0.00039109 0.0033461 -0.029347 0.01386
-0.20846 0.082783 -0.018296 0.019351
0.0051489 8.2002e-05 0.0011013 0.0053536 -0.0017402 0.00078715 0.014135 -0.010406
-0.018273 0.01935 -0.24935 0.12831
860000000 -0.1244 0.24696 -0.01792 0.030927 -0.0034365 -0.010019 -0.0023154 0.0009136
0.0040839 0.0045651 -0.003599 -0.0030976
-0.017893 0.030921 -0.29169 0.28798 0.0078237 0.034595 -1.5251e-05 0.0019349
0.0043827 -0.00035682 0.0032939 0.00065611
-0.0034326 -0.010023 0.0079402 0.034644 0.019071 0.31602 -0.00060592 -0.00032128
0.0028041 -0.0016038 0.0015228 0.0044095
-0.0023943 0.00092901 -0.00011726 0.0018676 -0.0006644 -0.000359 -0.14101 0.24014
-0.018638 0.018909 -0.006196 -0.0092062
0.0040431 0.0046936 0.0042298 -0.000375 0.0028086 -0.0016462 -0.018674 0.01892
-0.15708 0.13572 -0.027597 0.015287
-0.0034107 -0.0031704 0.0032267 0.00066473 0.0013965 0.0043659 -0.0064027 -0.0090865
-0.027179 0.015744 -0.19841 0.17717
920000000 -0.099801 0.27044 0.0049436 0.038466 -0.0095234 -0.004329 -0.0017543 0.0020013
0.00084059 0.0019865 0.0024914 -0.0013347
0.0048776 0.038408 -0.26276 0.30956 0.028348 0.022363 0.0014161 0.0011877
0.006759 -0.00034019 0.0036749 -0.0025753
-0.0095428 -0.0043089 0.028407 0.022239 0.065771 0.31678 0.0017496 6.0014e-05
0.0010427 -0.00035511 0.00081281 -0.00090051
-0.0017876 0.0020109 0.0014623 0.0011628 0.0017548 0.00010145 -0.11729 0.25771
-0.011508 0.031521 0.0037376 -0.0065764
0.00093536 0.0018678 0.0069098 -0.00049078 0.0010827 -0.0002776 -0.011185 0.031486
-0.1481 0.14253 -0.002963 0.02835
0.0025607 -0.0014784 0.0037177 -0.0026519 0.0007897 -0.0010521 0.0037963 -0.0065573
-0.0035334 0.02827 -0.21072 0.19078
980000000 -0.052018 0.29008 0.017619 0.030587 -0.0090808 0.0048172 0.0022286 0.0035616
0.0040284 -0.0014441 -0.0033118 -0.0021602
0.01765 0.030536 -0.20967 0.34382 0.033456 0.0050199 0.0020391 -8.2713e-05
0.0014995 -0.0057899 -0.00043373 -0.0024365
-0.0090469 0.0048069 0.033504 0.0048831 0.11226 0.31018 0.00055301 -0.0011327
0.00037345 -0.002035 0.0016371 -0.00024595
0.0022413 0.0035295 0.0020836 -9.8678e-05 0.00052575 -0.0011082 -0.078293 0.26958
0.0077426 0.031393 -0.0093151 -0.0075166
0.0039851 -0.0014408 0.0014359 -0.0057997 0.00037325 -0.0020333 0.0079701 0.031353
-0.11745 0.17307 0.0049436 0.020794
-0.0033637 -0.0021269 -0.00037096 -0.0024636 0.0016206 -0.00024112 -0.0092156 -0.0075752
0.0045872 0.020328 -0.16829 0.23914
1040000000 -0.0096572 0.29846 0.033546 0.018616 -0.0011004 0.0071505 0.0027028 0.00052869
9.3061e-05 -0.0036755 -2.7924e-05 -0.0013696
0.033468 0.018609 -0.17373 0.35683 0.029795 -0.014965 0.0014436 -0.0016986
-0.0024929 -0.0024345 -0.001258 -0.0025317
-0.001082 0.0071566 0.029787 -0.015066 0.1585 0.29629 -0.00049949 -0.001577
-0.0015588 -0.000875 -0.00037 -0.0011846
0.0026332 0.00049322 0.0014927 -0.0017476 -0.00046294 -0.0015552 -0.050588 0.27984
0.020142 0.018956 -0.0021037 0.0017151
5.3028e-05 -0.0037172 -0.0025896 -0.0024282 -0.0015033 -0.00085034 0.020219 0.019119
-0.084069 0.1809 0.013394 0.020057
-7.8662e-05 -0.0013613 -0.0013002 -0.002523 -0.00037949 -0.0011717 -0.0021696 0.0015841
0.013669 0.019765 -0.14839 0.26108
1100000000 0.035855 0.30623 0.036328 -0.0040322 0.0031749 0.0039289 0.002312 -0.0014708
-0.0020907 -0.0032079 -0.0039133 8.1355e-05
0.036272 -0.0040523 -0.13021 0.37431 0.015337 -0.028127 -8.9286e-05 -0.0018119
-0.0032397 -0.00072381 -0.0034628 -0.00055869
0.0031501 0.0038972 0.015236 -0.028242 0.20491 0.27593 -0.001867 0.00025087
-0.0017482 0.00045472 -0.0011313 -0.00062254
0.0023058 -0.0014785 -0.00013597 -0.0018099 -0.0018955 0.00023539 -0.0097538 0.28494
0.02576 0.005566 -0.0023918 7.5272e-05
-0.0020589 -0.0031782 -0.0032438 -0.00072886 -0.0017404 0.00043019 0.025782 0.0054793
-0.066599 0.19527 0.019619 0.009757
-0.003816 7.4423e-05 -0.0034694 -0.00045144 -0.0011186 -0.0006424 -0.0023873 8.8296e-05
0.019599 0.0095275 -0.10249 0.29396
1160000000 0.087378 0.30106 0.024397 -0.020833 0.0029706 -0.00070065 -0.00045043 -0.0024591
-0.0041836 -0.00081339 -0.00082641 0.0041018
0.024394 -0.020841 -0.086042 0.3783 -0.0037266 -0.029453 -0.0016802 -0.0016217
-0.002593 0.0023214 -0.0013147 0.0019452
0.0030053 -0.00069934 -0.0038712 -0.029438 0.24813 0.24486 -0.00062291 0.001726
-0.00067206 0.0018922 -0.0010967 0.0002118
-0.00049579 -0.0024409 -0.0016733 -0.0016425 -0.0006247 0.001735 0.030043 0.28197
0.022259 -0.010793 -0.0030668 0.0053188
-0.0041737 -0.00078464 -0.0025889 0.0023661 -0.00069353 0.0018832 0.022304 -0.010744
-0.032547 0.20497 0.019107 0.0012453
-0.00092347 0.0041122 -0.0013679 0.0019173 -0.001124 0.00020318 -0.0030109 0.0052397
0.019063 0.0011683 -0.055306 0.29749
1220000000 0.13165 0.2898 0.010777 -0.030314 -0.0014812 -0.001148 -0.00014743 -0.00074082
-0.0027145 0.0024223 0.001271 0.0019782
0.010781 -0.030322 -0.041488 0.39019 -0.017022 -0.021282 -0.0024945 0.00049285
-5.9448e-06 0.0029155 -0.00084823 0.0019349
-0.0014797 -0.0011471 -0.017161 -0.021227 0.28724 0.20569 0.00083332 0.0016167
0.0005278 0.001202 0.00016731 0.00070914
-0.00016001 -0.00073609 -0.002502 0.00052661 0.00082396 0.0016029 0.070149 0.27312
0.011255 -0.017821 0.0023872 0.0013138
-0.0026751 0.0024569 2.9106e-06 0.0029354 0.00048132 0.0012093 0.011215 -0.017807
-0.010134 0.21423 0.015363 -0.012695
0.0012905 0.0020468 -0.00083354 0.0018817 0.00024952 0.00072041 0.0023438 0.0013156
0.015388 -0.012634 -0.025034 0.31667
1280000000 0.18143 0.26772 -0.0077972 -0.028914 -0.0020081 0.0021748 -0.00081796 -0.0017889
-0.00075587 0.0030924 0.0023842 0.0012154
-0.0077653 -0.028895 0.0046549 0.38082 -0.02388 -0.0085123 -0.00086368 0.0013874
0.001549 0.0017633 0.00058327 0.00216
-0.0019843 0.002166 -0.023927 -0.0083748 0.31773 0.16157 0.0015715 -2.492e-05
0.0011565 0.00041189 0.00039529 0.0004431
-0.00083865 -0.0017775 -0.0008408 0.001422 0.0015699 -3.5455e-05 0.1069 0.25626
0.0014587 -0.020071 -0.00023587 -0.000166
-0.00074288 0.0030483 0.0015907 0.0017572 0.0011408 0.00039273 0.0014184 -0.020033
0.02729 0.21806 0.0038503 -0.01539
0.0024173 0.0011417 0.00066259 0.002167 0.0003705 0.00045483 -0.00020594 -0.00019283
0.0038257 -0.015316 0.024082 0.32096
1340000000 0.21835 0.2336 -0.017682 -0.019432 0.00066463 0.004347 -0.0015061 -0.00072985
0.0013846 0.0026799 0.0017477 -0.0013473
-0.017677 -0.019417 0.044046 0.37213 -0.021583 0.0042496 -0.00012763 0.0018955
0.0018072 0.00088959 0.0013375 0.00078503
0.00067753 0.004369 -0.021603 0.0043563 0.33953 0.11346 0.0011049 -0.00091262
0.00078884 -0.00044563 0.0003222 0.00041502
-0.0014905 -0.00074354 -0.00013442 0.0019088 0.0011162 -0.00092791 0.13882 0.23566
-0.0084656 -0.017407 0.00082045 0.00037359
0.0014788 0.0027163 0.0017703 0.00091824 0.00079309 -0.00039046 -0.0085294 -0.017356
0.056794 0.21291 -0.0029346 -0.014183
0.0017383 -0.0013887 0.0013907 0.00080187 0.00030157 0.00041947 0.00085742 0.00041252
-0.0028377 -0.014096 0.062595 0.31811
1400000000 0.25102 0.19523 -0.023717 -0.0077992 0.0048851 0.0031538 -0.0019498 0.00051193
0.0023365 0.00089368 0.0003289 -0.001304
-0.023681 -0.0078138 0.081086 0.35863 -0.014807 0.012348 0.0012207 0.0012953
0.0011532 -0.00069281 0.0012861 0.00024258
0.004918 0.0031006 -0.014783 0.012445 0.35263 0.059863 0.00011209 -0.0015792
-3.0832e-06 -0.00050742 0.00046334 0.00028196
-0.0019414 0.00050155 0.0012361 0.0012695 0.00011417 -0.0016005 0.16781 0.20701
-0.014654 -0.010525 -0.0010343 -0.00062363
0.0023742 0.00085916 0.0011291 -0.00072225 -3.5183e-06 -0.00046321 -0.014696 -0.010462
0.089743 0.20869 -0.0095544 -0.0095813
0.00033265 -0.0013178 0.0012828 0.00025428 0.00047712 0.00022877 -0.0010387 -0.00064136
-0.0095136 -0.0095097 0.10907 0.30822
1460000000 0.27336 0.15123 -0.020836 0.0045927 0.0054508 -0.0017012 -0.0016142 0.0015352
0.0020876 -0.00054412 -0.00032139 -0.00096894
-0.020823 0.0045598 0.11481 0.33652 -0.0061602 0.015182 0.0016746 0.00024194
0.00098839 -0.0013016 0.0011533 -0.00071513
0.0053976 -0.0017461 -0.0060882 0.015216 0.3583 0.0055439 -0.0012609 -0.0012436
0.00022177 -0.00039362 0.00055334 -0.0003995
-0.0016164 0.0015605 0.0016779 0.00025244 -0.0012489 -0.0012728 0.19367 0.17829
-0.016181 -0.0035287 -0.0010443 0.0021029
0.0020898 -0.00055178 0.00098181 -0.0012916 0.00016451 -0.0003752 -0.016188 -0.003504
0.11814 0.19369 -0.011898 -0.0033237
-0.00036618 -0.00093859 0.0011898 -0.00070256 0.00061983 -0.00040941 -0.0010936 0.0020708
-0.011982 -0.0033438 0.14341 0.28789
1520000000 0.28508 0.10973 -0.01523 0.010379 0.0032487 -0.0039631 2.3534e-05 0.0025457
0.0020939 -0.0016555 -0.0011084 -0.00015196
-0.01522 0.010366 0.14789 0.3218 0.0014226 0.013038 0.0017165 -0.00070691
7.86e-05 -0.0010975 0.00028495 -0.001029
0.0032432 -0.0039853 0.001508 0.013046 0.35137 -0.050724 -0.0010626 -0.00036726
0.00057529 -0.00083886 6.0642e-05 -0.00011411
3.012e-05 0.0025541 0.0017014 -0.00070851 -0.0010658 -0.0003813 0.21657 0.14111
-0.015701 0.0024905 0.0013582 0.0021439
0.0021291 -0.001655 7.5813e-05 -0.001072 0.00053248 -0.00081576 -0.015719 0.0025335
0.14491 0.17991 -0.01218 0.0011433
-0.0010918 -0.00014611 0.00030725 -0.0010366 5.8008e-05 -0.00014305 0.0013429 0.0021733
-0.012108 0.0011029 0.17777 0.26905
1580000000 0.29425 0.063991 -0.0084251 0.013758 -0.00088582 -0.0046447 0.0013073 0.0019348
-0.00029645 -0.002064 -0.00028471 0.000418
-0.0084229 0.013744 0.17468 0.29718 0.0049743 0.0082842 0.00057026 -0.0016007
-0.00062403 -0.0011266 -0.00029962 -0.00075192
-0.00089359 -0.0046565 0.0050332 0.0082532 0.33084 -0.10805 -0.0016172 0.00064373
-0.00029405 -0.0010626 8.7611e-05 -0.0005859
0.001307 0.0019306 0.00055506 -0.0016025 -0.0015891 0.00063463 0.23052 0.10272
-0.012072 0.0077489 0.0021981 0.00099621
-0.00028258 -0.0020922 -0.00063456 -0.0011224 -0.00029325 -0.0010604 -0.012074 0.0077742
0.16865 0.16252 -0.0097279 0.0072413
-0.00030937 0.00043893 -0.0003371 -0.0007407 8.3277e-05 -0.00059055 0.002203 0.0010115
-0.0097059 0.007236 0.21135 0.2425
1640000000 0.29637 0.022989 -0.0014266 0.01274 -0.0025272 -0.0024006 0.002722 0.001091
-0.00055039 -0.0015483 -0.00022196 0.00054073
-0.001429 0.012739 0.20402 0.27244 0.0058057 0.0036137 -0.00062262 -0.0018006
-0.0010521 -0.0003519 -0.00047954 -0.00066355
-0.0025516 -0.002403 0.0058246 0.0035668 0.3026 -0.15716 -0.00061121 0.0014905
-0.0010484 -0.0010159 -8.0397e-05 -0.00045643
0.0027151 0.0010735 -0.00062959 -0.0017966 -0.00062069 0.0014674 0.24312 0.054874
-0.0077218 0.0092016 0.0024658 -0.00069375
-0.00055609 -0.0015505 -0.0010649 -0.00033751 -0.0010349 -0.0010176 -0.0076967 0.0092435
0.19011 0.13905 -0.0049392 0.0093995
-0.00022814 0.00050834 -0.00047596 -0.00065574 -6.5386e-05 -0.00046355 0.0024879 -0.00070838
-0.0049791 0.0093193 0.23761 0.2119
1700000000 0.28922 -0.02211 0.0021751 0.0098379 -0.0032398 7.327e-05 0.003076 -0.0011475
-0.0020655 -0.00079348 0.00065098 0.00045794
0.0021625 0.0098316 0.22181 0.24124 0.0038514 0.00079024 -0.0014988 -0.0006435
-0.00073711 0.00012102 -0.00088463 -0.00039346
-0.0032491 8.4452e-05 0.0038559 0.0007706 0.25888 -0.19677 0.00046847 0.0015996
-0.0018525 -0.00021506 -0.00041681 -0.00079616
0.0030623 -0.0011833 -0.0014954 -0.00064952 0.00050922 0.0015821 0.24073 0.0061667
-0.0047801 0.010008 0.0016032 -0.0021151
-0.0020744 -0.00077277 -0.00073482 0.00013384 -0.0018061 -0.00023788 -0.0047721 0.010014
0.20687 0.11968 -0.00016438 0.0097934
0.0006823 0.00043007 -0.00087583 -0.0004002 -0.0004051 -0.00082956 0.0015523 -0.002181
-0.0001704 0.0097775 0.25509 0.17761
1760000000 0.27715 -0.070515 0.0045664 0.0064632 -0.0021606 0.00088191 0.0013147 -0.0033815
-0.001409 0.00062411 0.0004462 -0.00064172
0.0045442 0.0064721 0.24777 0.20176 0.0016749 -0.00093463 -0.0012623 0.0001848
-0.00089693 0.00093994 -0.00046132 0.00038315
-0.0021559 0.00088309 0.0016475 -0.00093237 0.21004 -0.22961 0.0012841 0.0010175
-0.0011405 0.0013775 -0.0011756 -0.00053623
0.0013094 -0.0033885 -0.0012731 0.00019715 0.0012451 0.00099158 0.2329 -0.044558
-0.001221 0.0092948 -0.00010139 -0.0024773
-0.0013967 0.00064884 -0.00089083 0.00093049 -0.0011594 0.0013768 -0.0012089 0.0093156
0.22123 0.085881 0.0039091 0.0072851
0.00043958 -0.00061966 -0.00045327 0.00040413 -0.0012096 -0.00044487 -0.00012226 -0.0024683
0.0039276 0.0072266 0.26836 0.14014
1820000000 0.25267 -0.10782 0.0048288 0.0028129 -0.00010214 0.0023366 -0.00093758 -0.0030416
-0.0012076 0.00097721 -7.6291e-05 -0.00010695
0.0048143 0.0028112 0.25777 0.17196 -0.00023653 5.0143e-05 -0.001338 0.00099742
6.6363e-05 0.0012087 -0.00050255 0.00046187
-5.9012e-05 0.0023151 -0.00020116 5.1545e-05 0.16025 -0.24522 0.0013999 0.00035502
-0.00026814 0.0022853 -0.0013297 0.00017413
-0.00096529 -0.0030553 -0.0013268 0.0010072 0.0014114 0.00034448 0.20451 -0.091686
0.00052393 0.0077526 -0.0015345 -0.001588
-0.0011634 0.00097317 8.0344e-05 0.0012118 -0.00026945 0.0022717 0.00057174 0.0077604
0.23832 0.058079 0.0048783 0.0037632
-3.0697e-05 -0.00010806 -0.00048588 0.00048292 -0.0013225 0.00024203 -0.0015044 -0.0015812
0.0049036 0.0037356 0.27154 0.10451
1880000000 0.21768 -0.14823 0.0027461 0.00042004 -0.00031273 0.002085 -0.0028965 -0.0022697
-0.00017488 0.0017955 0.00021204 -0.00056826
0.0027481 0.00040958 0.26243 0.12581 -0.0021326 0.001708 -0.00014826 0.0017159
0.00056935 0.001072 7.9689e-05 0.00082625
-0.00029005 0.0020498 -0.0021221 0.0017357 0.10814 -0.25489 0.0016888 -0.00085212
0.0015051 0.0019769 -0.0012051 0.0012867
-0.0029076 -0.0022681 -0.00012979 0.0017212 0.0016821 -0.00084168 0.16534 -0.13263
0.0016385 0.0057951 -0.0023355 0.00040953
-0.00014536 0.0018156 0.00057641 0.0010501 0.0014275 0.0020057 0.0016592 0.0057639
0.24148 0.026791 0.0051121 0.0016983
0.00020442 -0.00056604 7.9067e-05 0.00084353 -0.0011086 0.0013387 -0.0023427 0.00037967
0.0051484 0.0016328 0.27197 0.070223
1940000000 0.17823 -0.17406 0.00055311 -0.0014333 0.0013538 0.0019603 -0.0036905 0.00045039
0.0014155 0.0011 -0.0006981 -0.00048458
0.00054171 -0.001437 0.26332 0.094111 -0.0010293 0.0038177 0.0010549 0.001333
0.0016297 0.00039632 0.00068661 0.00020091
0.0013435 0.0019132 -0.0010081 0.0038231 0.062142 -0.2482 0.00047442 -0.0020573
0.0023704 0.00052048 9.2049e-05 0.0017402
-0.0037086 0.0004677 0.0010627 0.001346 0.00051358 -0.0020227 0.11369 -0.16445
0.0011662 0.0042042 -0.0014771 0.0015462
0.00141 0.0010475 0.0016554 0.00037749 0.0023402 0.0005291 0.0011539 0.0041984
0.24405 -0.011308 0.0039185 -0.0020456
-0.00070257 -0.00047056 0.00069259 0.00022867 0.00011393 0.0017935 -0.0014002 0.0014989
0.0039913 -0.0020238 0.26172 0.034778
2000000000 0.1319 -0.18886 -0.0033361 0.00033218 0.0023963 0.0016011 -0.0024191 0.0033628
0.001191 5.7844e-05 -0.00068573 0.00030516
-0.0033349 0.00033051 0.24947 0.058529 -0.0008836 0.0055865 0.0016455 0.00035604
0.0011361 -0.0012389 0.00038948 0.00012727
0.002442 0.0015885 -0.00087319 0.0056288 0.018467 -0.23351 -0.0012884 -0.0012962
0.0020361 -0.001124 0.0016951 0.0014121
-0.0024054 0.0033989 0.001677 0.00035428 -0.001262 -0.0013291 0.060052 -0.17577
-0.00024264 0.0036066 -7.7324e-05 0.0021296
0.0012003 2.244e-05 0.0011418 -0.0012582 0.0020215 -0.0011268 -0.0002211 0.0036582
0.23868 -0.044704 0.00059622 -0.0028804
