!Keysight Technologies,M9804A,MY58100912,A.14.10.03
!Date: Thursday, April 27, 2023 10:28:33
!Correction: S11(C  6-Port  ) 
!S12(C  6-Port  ) 
!S13(C  6-Port  ) 
!S14(C  6-Port  ) 
!S15(C  6-Port  ) 
!S16(C  6-Port  ) 
!S21(C  6-Port  ) 
!S22(C  6-Port  ) 
!S23(C  6-Port  ) 
!S24(C  6-Port  ) 
!S25(C  6-Port  ) 
!S26(C  6-Port  ) 
!S31(C  6-Port  ) 
!S32(C  6-Port  ) 
!S33(C  6-Port  ) 
!S34(C  6-Port  ) 
!S35(C  6-Port  ) 
!S36(C  6-Port  ) 
!S41(C  6-Port  ) 
!S42(C  6-Port  ) 
!S43(C  6-Port  ) 
!S44(C  6-Port  ) 
!S45(C  6-Port  ) 
!S46(C  6-Port  ) 
!S51(C  6-Port  ) 
!S52(C  6-Port  ) 
!S53(C  6-Port  ) 
!S54(C  6-Port  ) 
!S55(C  6-Port  ) 
!S56(C  6-Port  ) 
!S61(C  6-Port  ) 
!S62(C  6-Port  ) 
!S63(C  6-Port  ) 
!S64(C  6-Port  ) 
!S65(C  6-Port  ) 
!S66(C  6-Port  ) 
!S6P File: Measurement: :
# Hz S  RI   R 50
500000000 -0.33713 -0.040575 -0.009533 -0.0023463 -0.0081303 0.012412 -0.0044234 0.012286
0.012934 0.0047939 -0.0050223 0.0093022
-0.0095178 -0.0023458 -0.41847 -0.052568 0.0083477 -0.010639 0.0015796 0.012344
0.0077299 0.0017005 0.0015851 0.013525
-0.0080934 0.012267 0.0083194 -0.010644 -0.26488 0.20828 0.0078069 0.0035884
-0.0022093 0.0076549 0.0014214 0.012209
-0.0044177 0.012249 0.0016052 0.012277 0.007789 0.0036068 -0.33152 0.040344
-0.019424 -0.0063973 0.01628 0.026319
0.012794 0.004697 0.0078247 0.0017048 -0.0021813 0.0077117 -0.019438 -0.0064046
-0.21778 -0.20628 -0.026059 0.0053598
-0.0050601 0.0092645 0.0017596 0.013396 0.0014054 0.012188 0.016288 0.026302
-0.026071 0.0053467 -0.26186 -0.14729
560000000 -0.31597 0.12131 -0.023486 -0.063484 -0.00021945 0.012196 0.0053594 0.010887
0.010417 0.0050844 0.01103 0.0079784
-0.023445 -0.063405 -0.3774 0.10695 -0.040907 -0.038141 0.014288 0.0041359
-0.013183 -0.0053696 0.0030531 0.00016171
-0.00020456 0.01221 -0.041136 -0.038005 -0.18343 0.25655 -0.0010043 -0.004236
0.019769 0.0050939 0.0065479 -0.0058785
0.0053881 0.010767 0.014218 0.0041964 -0.0009802 -0.0042697 -0.30687 0.1303
0.003523 -0.024133 0.0046191 -0.021891
0.010501 0.0051108 -0.01312 -0.0054536 0.019701 0.0051068 0.0035451 -0.024146
-0.28796 -0.0307 0.0093707 -0.049494
0.011044 0.0079666 0.0030081 0.00011557 0.0065498 -0.0058802 0.0046123 -0.021886
0.0094315 -0.049544 -0.3292 0.0041734
620000000 -0.27574 0.10495 -0.023202 0.0077093 0.0027636 0.0084409 0.0079358 -0.005563
0.010954 0.0001796 0.0018228 -0.0024238
-0.023187 0.0076944 -0.40253 0.058465 -0.018581 -0.00026108 -0.0013175 -0.0018882
0.011415 -0.006525 0.001584 -0.0031905
0.0029251 0.0083706 -0.018629 -0.00019366 -0.15422 0.26545 -0.0014157 -0.0051796
-0.0029387 -0.0025402 0.0080284 -0.0034313
0.0079404 -0.0054982 -0.0013628 -0.0019378 -0.0014405 -0.005223 -0.2671 0.14176
-0.03861 -0.019974 0.012679 0.02674
0.010922 7.6849e-05 0.011497 -0.006522 -0.0028881 -0.0024995 -0.0386 -0.019954
-0.20614 -0.068805 -0.042518 0.014374
0.0017531 -0.0024659 0.0016839 -0.0032003 0.008086 -0.0034768 0.012731 0.026775
-0.042516 0.014271 -0.24694 -0.034226
680000000 -0.2354 0.1911 -0.027324 -0.01454 0.0046239 0.0051604 0.0016407 -0.0072185
-0.003474 -0.011324 0.005506 -0.0069754
-0.0273 -0.014552 -0.38802 0.1567 -0.032856 -0.0015779 -0.0016842 -0.00040745
-0.0022017 -0.0088334 -0.00096001 -0.0016907
0.0046393 0.0051432 -0.032887 -0.0014807 -0.10285 0.2856 -0.00073171 -8.2499e-05
-0.0017045 0.0006272 -0.0028041 -0.0092674
0.0016106 -0.0072207 -0.0016394 -0.00043185 -0.00072563 -0.00010006 -0.22193 0.19348
-0.02363 -0.0076271 -0.0098532 -0.012073
-0.0034841 -0.01133 -0.0022545 -0.0088989 -0.0017057 0.00061523 -0.023639 -0.0076138
-0.26017 0.031229 -0.0053799 -0.009086
0.0055063 -0.0069447 -0.00096972 -0.0017177 -0.0028181 -0.0092692 -0.0098481 -0.012087
-0.0053944 -0.0090824 -0.26176 0.07408
740000000 -0.19139 0.18571 -0.038857 0.026794 0.012448 -0.0048879 -0.00011852 -0.0043633
-0.0038393 -0.0027043 -0.0062438 0.0024234
-0.038831 0.026735 -0.33531 0.1759 -0.035665 0.034957 -0.00084047 -0.0062482
-0.011243 0.0075461 -0.0022385 -0.0066658
0.012419 -0.0050223 -0.035609 0.035105 -0.068868 0.28422 -0.0022751 0.0030772
-0.0020007 -0.0047808 -0.0018283 -8.2799e-05
-0.00018502 -0.0043575 -0.00082994 -0.0061783 -0.0022746 0.003071 -0.20508 0.20125
-0.044496 -0.0073767 0.023392 0.01589
-0.003985 -0.0029258 -0.011136 0.0078697 -0.002044 -0.0047353 -0.044493 -0.0072965
-0.15811 0.058456 -0.045659 -0.00037795
-0.0062841 0.0026182 -0.0023846 -0.0066946 -0.0017904 -0.00010503 0.023413 0.015852
-0.04562 -0.00044168 -0.25206 0.080248
800000000 -0.15873 0.22651 -0.022662 0.016627 0.0052095 -0.010538 -0.0046816 -0.0023231
-0.0040847 0.0021638 0.0048056 -1.0969e-05
-0.022651 0.016598 -0.33857 0.24606 -0.0080087 0.033917 -0.0023357 0.0021861
-0.00063302 0.0027868 0.0010121 0.0051759
0.0051844 -0.010557 -0.0079206 0.034007 -0.028315 0.30751 0.0010236 0.0014568
0.00024798 0.0033304 -0.001822 0.00068168
-0.0047048 -0.002295 -0.0023433 0.0022024 0.0010175 0.0014702 -0.17675 0.22946
-0.028988 0.013943 0.014212 -0.010542
-0.0040107 0.002184 -0.00059256 0.002745 0.00027618 0.0033286 -0.028993 0.014002
-0.20874 0.08274 -0.018014 0.019067
0.0048239 -5.2373e-05 0.0010342 0.0051638 -0.0018308 0.00067705 0.014211 -0.010556
-0.018027 0.01906 -0.24853 0.13077
860000000 -0.12404 0.24691 -0.01773 0.030573 -0.0033929 -0.0098459 -0.0023477 0.00088742
0.0039415 0.0045451 -0.0033222 -0.0032162
-0.017733 0.03054 -0.29096 0.28806 0.0076872 0.034041 -2.7817e-05 0.0020108
0.0041527 7.6537e-05 0.0032825 0.00064679
-0.0034239 -0.0098329 0.0077672 0.034064 0.019814 0.31532 -0.00056231 -0.00028415
0.0028337 -0.0015462 0.0013044 0.0044275
-0.0023721 0.00086328 -4.0351e-05 0.0019157 -0.00055449 -0.00027175 -0.13992 0.24072
-0.018159 0.018801 -0.006364 -0.0091127
0.0039812 0.0045996 0.0040549 -4.5543e-05 0.0028417 -0.0015264 -0.018134 0.01884
-0.15721 0.13573 -0.027238 0.015179
-0.0032988 -0.0032015 0.003307 0.00074344 0.0013008 0.0043945 -0.0063709 -0.0090968
-0.027221 0.015153 -0.19689 0.17883
920000000 -0.09947 0.27037 0.0049121 0.037973 -0.0093492 -0.0042717 -0.00189 0.0019675
0.00080589 0.0016497 0.0024999 -0.0014716
0.0048992 0.03795 -0.26219 0.30943 0.027835 0.02205 0.0013609 0.0011571
0.0071354 -0.00030475 0.0039268 -0.0027453
-0.0093445 -0.0042257 0.027936 0.021945 0.066083 0.31589 0.0018356 3.0059e-05
0.0011063 -0.00028033 0.0009248 -0.001018
-0.0018752 0.0019721 0.0013628 0.0011555 0.0018518 2.9318e-05 -0.11614 0.25767
-0.011073 0.031213 0.0039623 -0.006728
0.00088779 0.0016195 0.0070922 -0.00028051 0.0011009 -0.0002805 -0.011012 0.031243
-0.14803 0.14232 -0.0031934 0.027971
0.0025109 -0.0015782 0.0038999 -0.0026462 0.00094033 -0.0010115 0.0039401 -0.006717
-0.0032297 0.027956 -0.20888 0.19313
980000000 -0.05175 0.28988 0.017461 0.030099 -0.0088532 0.0047473 0.0021592 0.0035503
0.0039026 -0.0013141 -0.0034491 -0.0021921
0.017447 0.030109 -0.20898 0.34348 0.032811 0.0050561 0.002041 5.2697e-05
0.0016144 -0.0055693 -0.00031738 -0.0023651
-0.0088645 0.0047696 0.032845 0.0049562 0.1122 0.30918 0.00051193 -0.001158
0.00032466 -0.0020283 0.0014905 -0.00018944
0.0021384 0.0035606 0.0020218 -4.6875e-06 0.00051636 -0.0011583 -0.077371 0.26888
0.0078194 0.03059 -0.0091366 -0.0075337
0.0039644 -0.0013985 0.0015725 -0.0056134 0.00032727 -0.0020263 0.0078869 0.030593
-0.11663 0.1721 0.0044033 0.019827
-0.0034244 -0.0022422 -0.00034731 -0.0023808 0.0014828 -0.00018526 -0.0091477 -0.0075161
0.0044105 0.01983 -0.16619 0.24038
1040000000 -0.0095307 0.29813 0.033074 0.018399 -0.001113 0.0069045 0.0025659 0.00059504
5.4097e-05 -0.0036634 -0.00010395 -0.0014634
0.033064 0.018407 -0.17329 0.35633 0.029262 -0.014509 0.0015369 -0.0016382
-0.0024459 -0.0024289 -0.0011603 -0.00247
-0.0010884 0.0068982 0.029242 -0.014636 0.15794 0.2954 -0.00044695 -0.0015724
-0.0015903 -0.00085843 -0.00039148 -0.0011059
0.0025774 0.00061053 0.001511 -0.0016935 -0.00045146 -0.0015601 -0.050077 0.27906
0.019552 0.018804 -0.0019798 0.0014284
1.1019e-05 -0.0036547 -0.0024775 -0.0024415 -0.0015892 -0.00085051 0.019592 0.01877
-0.084206 0.18053 0.013059 0.019587
-0.00010082 -0.0014513 -0.0012328 -0.0024685 -0.00039547 -0.0011082 -0.0019733 0.0014264
0.013061 0.019613 -0.14608 0.26185
1100000000 0.035854 0.30593 0.035691 -0.0040054 0.0030263 0.0038132 0.0023098 -0.001367
-0.0019981 -0.00318 -0.0038625 -2.0179e-05
0.035681 -0.0039732 -0.12985 0.37341 0.015235 -0.027453 -1.9108e-05 -0.0017926
-0.0032009 -0.0008902 -0.0034556 -0.00052988
0.0030058 0.0038084 0.015125 -0.027536 0.20396 0.27533 -0.0018656 0.00018796
-0.0017398 0.00038961 -0.001091 -0.00041224
0.0023226 -0.0013406 -4.2836e-05 -0.0018017 -0.0018694 0.00017248 -0.0096777 0.28399
0.025027 0.0057133 -0.0024708 -9.1432e-05
-0.0019949 -0.0031561 -0.0032091 -0.0008726 -0.0017401 0.00039578 0.025044 0.0056668
-0.066363 0.19446 0.019095 0.0094313
-0.0038047 -2.9166e-05 -0.0034503 -0.0005142 -0.0010921 -0.00041203 -0.0024748 -9.2807e-05
0.019089 0.0094332 -0.10065 0.29405
1160000000 0.087331 0.30081 0.023993 -0.020354 0.0027892 -0.00060076 -0.00038185 -0.0023691
-0.0040993 -0.00083795 -0.00091842 0.0040487
0.024008 -0.020323 -0.086265 0.3772 -0.00339 -0.028867 -0.0016785 -0.0016507
-0.0027985 0.0023042 -0.0013595 0.0018446
0.002794 -0.00062629 -0.0035132 -0.02888 0.24683 0.24493 -0.00068062 0.0017014
-0.00071968 0.0019154 -0.00095449 0.00024026
-0.00038579 -0.002379 -0.001702 -0.0016593 -0.00068238 0.0017072 0.029579 0.28113
0.021869 -0.010041 -0.0030544 0.0052102
-0.0040886 -0.00082016 -0.0027797 0.0022776 -0.00071877 0.0019218 0.021858 -0.010091
-0.032354 0.20381 0.018441 0.0015857
-0.00093238 0.0040779 -0.0013518 0.0018298 -0.00096375 0.00023748 -0.0030508 0.0052221
0.018446 0.0015946 -0.053378 0.2974
1220000000 0.13155 0.28958 0.010667 -0.029671 -0.0015566 -0.00095526 -1.7556e-06 -0.00084415
-0.0026464 0.002335 0.0012662 0.0019932
0.010684 -0.02963 -0.042216 0.38919 -0.016447 -0.0211 -0.0024755 0.00041213
-8.499e-05 0.0029051 -0.00084199 0.0018303
-0.001549 -0.00095966 -0.016561 -0.021024 0.28621 0.20635 0.00077253 0.001609
0.00053063 0.0012333 0.00032815 0.00065791
-1.0874e-05 -0.00084789 -0.0024843 0.00041454 0.00076425 0.001612 0.069373 0.27281
0.01124 -0.01698 0.0022473 0.0013657
-0.0026088 0.0023556 -4.3029e-05 0.0029077 0.00052322 0.0012331 0.011226 -0.01701
-0.010303 0.21272 0.014964 -0.011981
0.001275 0.001976 -0.00083637 0.0018394 0.00032087 0.00067469 0.0022439 0.0013531
0.014954 -0.011989 -0.023112 0.31631
1280000000 0.18107 0.26743 -0.0074177 -0.028295 -0.0018968 0.0022783 -0.00083887 -0.0019477
-0.00082924 0.0029458 0.0024646 0.0011728
-0.007396 -0.028275 0.0033882 0.38019 -0.023294 -0.0087734 -0.0010142 0.0013991
0.0014767 0.0018171 0.00055838 0.0020855
-0.0018881 0.002283 -0.023353 -0.0086634 0.31718 0.16262 0.0015881 5.6273e-05
0.0011514 0.00040575 0.00047436 0.0003509
-0.00083373 -0.0019215 -0.0010116 0.0014185 0.0015834 5.7454e-05 0.10612 0.25644
0.0020821 -0.019407 -0.00018484 -3.968e-05
-0.00080002 0.0029646 0.0014872 0.0018372 0.0011362 0.00040172 0.0020479 -0.019421
0.026369 0.21637 0.0038623 -0.014633
0.0024558 0.00117 0.00056418 0.0020898 0.00047455 0.00034538 -0.0001872 -3.8626e-05
0.0038753 -0.014631 0.025663 0.32014
1340000000 0.21786 0.23369 -0.01707 -0.019128 0.00069955 0.0043533 -0.0015897 -0.00081163
0.001432 0.0027296 0.0017366 -0.001314
-0.017039 -0.019117 0.042552 0.37229 -0.021446 0.0037858 -0.00020721 0.0019979
0.0018394 0.00098046 0.0013097 0.00084018
0.00072418 0.0043508 -0.021463 0.0038992 0.33966 0.11473 0.0011387 -0.00082194
0.0007611 -0.00043108 0.00025069 0.00035813
-0.0016056 -0.00079894 -0.00020193 0.0019892 0.0011407 -0.00081455 0.13836 0.23639
-0.0075855 -0.017193 0.000837 0.00042469
0.0014321 0.0027321 0.0018402 0.00098403 0.00075693 -0.00043738 -0.0076235 -0.01718
0.055256 0.21173 -0.0024425 -0.013557
0.0017195 -0.0013223 0.0013095 0.00082142 0.00024368 0.00035647 0.00083834 0.00042196
-0.0024356 -0.013554 0.063768 0.31735
1400000000 0.25056 0.19571 -0.023015 -0.007909 0.0049528 0.0030499 -0.0020041 0.00050481
0.0023092 0.00086569 0.00037217 -0.0013293
-0.022986 -0.0079123 0.07976 0.35948 -0.014948 0.011926 0.0012592 0.0014013
0.0012108 -0.00063344 0.0012864 0.0003193
0.0049708 0.003037 -0.01491 0.012022 0.35315 0.060731 0.00024363 -0.0016018
-1.744e-05 -0.00043058 0.00043738 0.00022812
-0.0020115 0.00051064 0.0012707 0.0013946 0.0002443 -0.0016076 0.16781 0.20782
-0.013739 -0.010961 -0.0010461 -0.00062635
0.0023203 0.00084811 0.0012086 -0.00063387 -1.8412e-05 -0.00042871 -0.01377 -0.010937
0.087697 0.208 -0.0089344 -0.0095108
0.00037744 -0.001325 0.0012764 0.00029826 0.00043633 0.00021355 -0.0010513 -0.00062869
-0.0089299 -0.0095101 0.10982 0.30757
1460000000 0.27324 0.1519 -0.020331 0.0041081 0.0054067 -0.0017097 -0.0016393 0.0015948
0.0020372 -0.00041101 -0.00027422 -0.00099284
-0.02031 0.0040929 0.11404 0.33801 -0.0065526 0.014977 0.001768 0.0002254
0.0010445 -0.0012876 0.0011851 -0.00059068
0.0054118 -0.0017346 -0.0065036 0.015035 0.35913 0.0058585 -0.0012212 -0.0013326
0.00015316 -0.00030344 0.00054035 -0.00036378
-0.0016515 0.0016091 0.0017753 0.0002106 -0.0012206 -0.0013423 0.19399 0.17905
-0.015722 -0.0045454 -0.0011869 0.0020452
0.0020256 -0.00042818 0.0010239 -0.0012835 0.00014865 -0.00030207 -0.015742 -0.0045133
0.11586 0.19366 -0.011287 -0.0036255
-0.00029798 -0.001002 0.0011817 -0.00060151 0.00052859 -0.00036786 -0.0011782 0.002041
-0.011301 -0.0036338 0.14401 0.28757
1520000000 0.28543 0.11043 -0.015039 0.0097436 0.0032183 -0.0039558 5.8838e-06 0.0026057
0.0021481 -0.0015664 -0.0011122 -0.00025891
-0.015031 0.0097277 0.14782 0.32335 0.0011094 0.0131 0.0017212 -0.0007507
0.00012677 -0.0011463 0.00037939 -0.0010183
0.0031989 -0.0039917 0.0011825 0.013107 0.35208 -0.0507 -0.0011621 -0.00041862
0.00062409 -0.00078375 2.1339e-05 -5.231e-05
1.7367e-05 0.0026099 0.0017133 -0.00076271 -0.0011643 -0.00042401 0.21727 0.14173
-0.015962 0.0012934 0.0012932 0.0022504
0.0021428 -0.0015848 0.00011281 -0.0011611 0.00062895 -0.00079137 -0.015967 0.0013396
0.14286 0.18052 -0.011766 0.00055639
-0.001093 -0.00025152 0.00035858 -0.0010193 2.5946e-05 -5.1045e-05 0.0012968 0.0022448
-0.01177 0.00054651 0.17854 0.26873
1580000000 0.29491 0.064435 -0.0086324 0.013102 -0.00084044 -0.004729 0.0013135 0.0019743
-0.00015341 -0.0020366 -0.00042305 0.00041113
-0.0086366 0.013086 0.17537 0.29861 0.004818 0.0084835 0.0005054 -0.0016362
-0.00064318 -0.0011965 -0.00028346 -0.00078627
-0.00084941 -0.0047138 0.0048698 0.008459 0.33132 -0.10834 -0.001697 0.00064729
-0.00020296 -0.0011323 5.1176e-05 -0.00045758
0.0013353 0.0019716 0.00050695 -0.0016279 -0.0016948 0.00063832 0.23142 0.10302
-0.013059 0.0069109 0.0022646 0.0011126
-0.00014452 -0.0020503 -0.00065718 -0.0011989 -0.00021438 -0.0011344 -0.01305 0.0069452
0.16688 0.16376 -0.0096695 0.0066341
-0.00042803 0.0004148 -0.00029773 -0.00078681 4.9798e-05 -0.00045815 0.0022764 0.0011055
-0.0096724 0.0066215 0.21225 0.24204
1640000000 0.29715 0.023061 -0.0019686 0.012405 -0.0025762 -0.0025067 0.0027491 0.0011076
-0.00048838 -0.0016076 -0.0002967 0.00056998
-0.0019811 0.012405 0.20514 0.27347 0.0057898 0.0038253 -0.00065885 -0.0017802
-0.0011412 -0.00043293 -0.00044557 -0.00073018
-0.0025762 -0.0024985 0.0058223 0.0037961 0.30282 -0.15738 -0.00067782 0.0015393
-0.0010308 -0.0011136 -8.8064e-05 -0.00039844
0.0027581 0.0011015 -0.00068474 -0.0017729 -0.00068839 0.0015541 0.24421 0.054715
-0.0089732 0.0091257 0.0025512 -0.00064987
-0.00048995 -0.0016073 -0.0011486 -0.00041896 -0.0010398 -0.001115 -0.0089529 0.009159
0.18878 0.14077 -0.0052645 0.0088191
-0.00029272 0.00057789 -0.00045031 -0.00071898 -9.45e-05 -0.00040516 0.0025552 -0.00066245
-0.0052583 0.0088185 0.23832 0.21126
1700000000 0.29006 -0.022503 0.0016263 0.0098885 -0.0033929 0.00014453 0.0031245 -0.0011562
-0.0020275 -0.00091128 0.00061194 0.00047697
0.0016237 0.0098851 0.22337 0.24163 0.0039346 0.00090135 -0.0014971 -0.00062325
-0.00086474 0.00015007 -0.00091427 -0.00048245
-0.0033948 0.00017758 0.0039222 0.00085888 0.25886 -0.19718 0.00052153 0.00173
-0.0020183 -0.0002935 -0.00042159 -0.00079957
0.0031182 -0.0011713 -0.0015027 -0.00061818 0.00051142 0.0017295 0.24173 0.0054623
-0.0058837 0.010676 0.0016594 -0.0021789
-0.0020296 -0.00089598 -0.00086725 0.00016162 -0.0020182 -0.00028557 -0.0058574 0.0107
0.2061 0.12167 -0.00066236 0.0095893
0.00062023 0.00048313 -0.00092314 -0.00046876 -0.00041956 -0.00079318 0.0016573 -0.0021759
-0.00065571 0.0095917 0.25573 0.17686
1760000000 0.27771 -0.07134 0.0042601 0.0067486 -0.0021172 0.00093334 0.001343 -0.0034507
-0.0014978 0.00051952 0.00049888 -0.00057371
0.0042443 0.0067479 0.24928 0.20143 0.0017608 -0.00089446 -0.0012175 0.00017939
-0.00093884 0.0010256 -0.0005563 0.0004048
-0.0021004 0.00091604 0.0017716 -0.0009156 0.20964 -0.23006 0.0013258 0.0010989
-0.0012458 0.0014472 -0.0012507 -0.00058966
0.0013273 -0.0034651 -0.0012137 0.00018837 0.0013243 0.0011004 0.23342 -0.045718
-0.0016259 0.010432 -8.0276e-05 -0.0024923
-0.0014934 0.00053498 -0.00092141 0.001042 -0.0012441 0.0014601 -0.0016053 0.010435
0.22115 0.08792 0.0034456 0.0072869
0.00047586 -0.00057286 -0.00056291 0.00040701 -0.0012575 -0.0005927 -8.5682e-05 -0.0024878
0.003448 0.0072942 0.26884 0.13927
1820000000 0.25275 -0.10884 0.0047321 0.0030661 6.646e-06 0.002247 -0.0010134 -0.0031117
-0.001312 0.00093962 -1.7838e-05 -9.9955e-05
0.0047243 0.0030623 0.25906 0.17105 -6.3492e-06 -2.4737e-05 -0.0013357 0.00096836
0.00011523 0.0013194 -0.00057222 0.00053265
2.6111e-05 0.0022624 -8.9883e-06 -2.6412e-05 0.16013 -0.24515 0.0015156 0.00031188
-0.00029274 0.0024335 -0.0014008 0.00030396
-0.0010304 -0.0031173 -0.0013234 0.00097865 0.0015092 0.00031279 0.20435 -0.092977
0.00081206 0.0088154 -0.0014608 -0.0015473
-0.0013185 0.00095042 0.00012897 0.0013165 -0.00027218 0.002441 0.00084009 0.0088186
0.23887 0.060024 0.0045424 0.0040454
-1.5905e-05 -8.796e-05 -0.00057651 0.00054156 -0.001409 0.00031551 -0.0014653 -0.0015485
0.0045399 0.0040349 0.27191 0.10365
1880000000 0.21728 -0.14917 0.0027029 0.00059116 -0.00042039 0.0019608 -0.0030103 -0.0022281
-0.00026682 0.0018457 0.00026901 -0.00058263
0.0026949 0.00060119 0.26312 0.12427 -0.0021416 0.0016043 -0.0002105 0.0016786
0.00067131 0.0010598 8.7988e-05 0.00094182
-0.00041558 0.0019772 -0.0021157 0.0016053 0.10774 -0.2548 0.0017149 -0.00099104
0.0015764 0.0019976 -0.0010604 0.0013482
-0.0030227 -0.0022135 -0.00019622 0.0016751 0.0017155 -0.00099148 0.16447 -0.13355
0.0023698 0.0064126 -0.002235 0.00032103
-0.00025012 0.0018414 0.00067888 0.0010615 0.00157 0.0020034 0.0023888 0.0064062
0.2427 0.028345 0.0049877 0.0020794
0.00026534 -0.0005779 0.00010962 0.00094009 -0.0010518 0.0013457 -0.0022337 0.00032583
0.0049876 0.002081 0.27205 0.069344
1940000000 0.1775 -0.17471 0.00053364 -0.0013247 0.0012494 0.0019922 -0.0037282 0.00053368
0.0013823 0.0011893 -0.00081707 -0.00057146
0.00053621 -0.0013229 0.26326 0.092484 -0.0011211 0.0037832 0.0010149 0.0013532
0.0017392 0.00029059 0.00078025 0.00029641
0.0012885 0.001978 -0.0011065 0.0038092 0.061754 -0.24789 0.00032407 -0.0019895
0.0024501 0.00043598 0.00014921 0.0016389
-0.0037195 0.00057263 0.0010265 0.0013508 0.0003215 -0.0019828 0.11261 -0.16474
0.0019294 0.0043529 -0.0013457 0.0013694
0.0013838 0.0011981 0.001733 0.00026769 0.0024525 0.00043505 0.0019416 0.0043512
0.24573 -0.010336 0.0040881 -0.0015684
-0.00081971 -0.00054123 0.00077565 0.00028326 0.00014409 0.0016376 -0.0013417 0.001385
0.0040778 -0.0015693 0.26171 0.034144
2000000000 0.13078 -0.18911 -0.003398 0.00049974 0.0024389 0.0017313 -0.0023918 0.0034113
0.0012549 0.00011248 -0.00070805 0.00036044
-0.0033881 0.00049504 0.24866 0.057071 -0.00099674 0.0056651 0.0016045 0.0004113
0.0010945 -0.0013803 0.00051673 0.00012863
0.0024515 0.0017215 -0.00096958 0.0056772 0.018503 -0.23311 -0.0012391 -0.0012399
0.0019852 -0.0011809 0.0016093 0.0012288
-0.0023775 0.0034435 0.0016043 0.00039147 -0.0012432 -0.0012346 0.059048 -0.17529
0.00037629 0.003437 -9.9492e-05 0.0020062
0.0012595 0.00010509 0.0010837 -0.00138 0.0019875 -0.0011863 0.00037964 0.0034445
0.24054 -0.044497 0.00093395 -0.0026692
