!Keysight Technologies,M9804A,MY58100912,A.14.10.03
!Date: Thursday, April 27, 2023 10:28:33
!Correction: S11(C  6-Port  ) 
!S12(C  6-Port  ) 
!S13(C  6-Port  ) 
!S14(C  6-Port  ) 
!S15(C  6-Port  ) 
!S16(C  6-Port  ) 
!S21(C  6-Port  ) 
!S22(C  6-Port  ) 
!S23(C  6-Port  ) 
!S24(C  6-Port  ) 
!S25(C  6-Port  ) 
!S26(C  6-Port  ) 
!S31(C  6-Port  ) 
!S32(C  6-Port  ) 
!S33(C  6-Port  ) 
!S34(C  6-Port  ) 
!S35(C  6-Port  ) 
!S36(C  6-Port  ) 
!S41(C  6-Port  ) 
!S42(C  6-Port  ) 
!S43(C  6-Port  ) 
!S44(C  6-Port  ) 
!S45(C  6-Port  ) 
!S46(C  6-Port  ) 
!S51(C  6-Port  ) 
!S52(C  6-Port  ) 
!S53(C  6-Port  ) 
!S54(C  6-Port  ) 
!S55(C  6-Port  ) 
!S56(C  6-Port  ) 
!S61(C  6-Port  ) 
!S62(C  6-Port  ) 
!S63(C  6-Port  ) 
!S64(C  6-Port  ) 
!S65(C  6-Port  ) 
!S66(C  6-Port  ) 
!S6P File: Measurement: :
# Hz S  RI   R 50
500000000 -0.33686 -0.040789 -0.010028 -0.0025953 -0.008347 0.012589 -0.0045316 0.012451
0.012995 0.0049096 -0.0052252 0.0093932
-0.0099651 -0.0025799 -0.41874 -0.052579 0.0080221 -0.010759 0.0014401 0.012377
0.0076898 0.0018274 0.0014133 0.013652
-0.0083466 0.012524 0.0080081 -0.010722 -0.2655 0.20848 0.0077283 0.0036018
-0.0022397 0.0075331 0.0015339 0.012099
-0.0045197 0.012455 0.0015085 0.012399 0.0077207 0.0035685 -0.33182 0.040963
-0.019666 -0.0063578 0.015831 0.026487
0.012866 0.0048695 0.0078522 0.0018642 -0.0022029 0.0075141 -0.019733 -0.0063431
-0.21882 -0.20499 -0.02634 0.0054703
-0.0052576 0.0093947 0.0015071 0.013473 0.0015151 0.012011 0.015782 0.026351
-0.026306 0.005468 -0.26315 -0.14466
560000000 -0.31632 0.12162 -0.023803 -0.063281 -0.00029892 0.012304 0.0052403 0.010954
0.010489 0.0052648 0.011185 0.0079261
-0.023741 -0.063269 -0.37729 0.10728 -0.041087 -0.038241 0.014567 0.0037659
-0.013062 -0.0051487 0.0032906 0.00046042
-0.0002514 0.012291 -0.041075 -0.038126 -0.18321 0.25728 -0.0009768 -0.0039386
0.019717 0.0050648 0.0064626 -0.0057551
0.0052127 0.011043 0.014403 0.0037128 -0.00090437 -0.0042069 -0.30658 0.13071
0.0033587 -0.024117 0.0045254 -0.021805
0.010328 0.0053285 -0.013029 -0.0050981 0.019695 0.005044 0.0033554 -0.024072
-0.28882 -0.029223 0.0090277 -0.049259
0.011252 0.0078699 0.0030732 0.00019286 0.0065163 -0.0057695 0.0046044 -0.021745
0.008989 -0.049195 -0.32933 0.0064718
620000000 -0.27609 0.10585 -0.023442 0.0076712 0.0029747 0.0085506 0.0081908 -0.0053143
0.010663 0.00014183 0.0016428 -0.0022608
-0.02347 0.0077177 -0.40253 0.058438 -0.018597 -0.00015055 -0.0014131 -0.0019048
0.011513 -0.0066045 0.0015422 -0.0032187
0.0030365 0.0084943 -0.018628 -4.9406e-05 -0.15433 0.26559 -0.00127 -0.0051296
-0.0030374 -0.0025404 0.0082887 -0.0035198
0.0083699 -0.0050745 -0.0015346 -0.0019588 -0.0013616 -0.0051315 -0.26685 0.14217
-0.038641 -0.019718 0.013092 0.027119
0.01049 -0.00016076 0.011561 -0.0066845 -0.0029178 -0.0025556 -0.038667 -0.0197
-0.20673 -0.067664 -0.042971 0.014108
0.0015384 -0.0023038 0.0016214 -0.0032896 0.0083324 -0.003527 0.013009 0.027111
-0.043029 0.014041 -0.24723 -0.031723
680000000 -0.23537 0.19165 -0.027422 -0.014263 0.0046267 0.0051329 0.0015676 -0.0071777
-0.0032992 -0.011302 0.0057874 -0.0071676
-0.02743 -0.014262 -0.38816 0.15678 -0.032836 -0.0015092 -0.0017678 -0.0004932
-0.001921 -0.008803 -0.000677 -0.0014795
0.0046403 0.0051293 -0.032897 -0.0014271 -0.10264 0.28605 -0.00069733 -0.00025655
-0.0017488 0.00067902 -0.0028369 -0.008966
0.0015593 -0.0071882 -0.0017707 -0.00048284 -0.00067567 -0.0002541 -0.22156 0.1936
-0.023694 -0.007252 -0.009634 -0.011658
-0.0033128 -0.011309 -0.0020289 -0.0087769 -0.0017325 0.00067529 -0.023699 -0.0072229
-0.26003 0.032413 -0.0058743 -0.0088567
0.005652 -0.0071971 -0.00064001 -0.0014627 -0.0028384 -0.0090112 -0.0096606 -0.011657
-0.005874 -0.0088461 -0.26159 0.07603
740000000 -0.19115 0.18629 -0.038661 0.027063 0.012665 -0.0047675 8.1393e-06 -0.0044888
-0.0038295 -0.0027357 -0.0061633 0.0023512
-0.038625 0.027001 -0.33533 0.17609 -0.035721 0.03522 -0.00075335 -0.0062403
-0.011595 0.0080746 -0.0021452 -0.0065335
0.012585 -0.004829 -0.035537 0.035325 -0.069011 0.28422 -0.0021277 0.0031402
-0.0022737 -0.0051736 -0.0017198 -0.00011015
-0.00010302 -0.0043591 -0.000802 -0.006115 -0.0022138 0.0031145 -0.20487 0.20119
-0.044532 -0.0067965 0.023677 0.015771
-0.0040051 -0.0026204 -0.011434 0.0081832 -0.0022965 -0.0051041 -0.04452 -0.0067146
-0.15785 0.059566 -0.045238 0.00015307
-0.0063076 0.0023684 -0.0022457 -0.006641 -0.0016517 -0.00014538 0.023695 0.015677
-0.045195 0.0002603 -0.25127 0.081796
800000000 -0.15834 0.22655 -0.022322 0.016683 0.0053138 -0.01066 -0.0046792 -0.002129
-0.0040356 0.0021673 0.0047528 -5.9085e-05
-0.022303 0.016644 -0.33848 0.24608 -0.0078346 0.034013 -0.0024015 0.0022727
-0.00073234 0.0028648 0.0010119 0.0051633
0.0052588 -0.01067 -0.0077786 0.034092 -0.028297 0.30763 0.00099002 0.0014832
0.00029719 0.0033311 -0.0018068 0.00075219
-0.0047137 -0.0020768 -0.0024303 0.0023273 0.00098051 0.0015006 -0.17663 0.22954
-0.028985 0.014143 0.014288 -0.010459
-0.0040156 0.0021044 -0.0006421 0.0028188 0.00034336 0.0033307 -0.029001 0.01421
-0.20803 0.083571 -0.017847 0.01937
0.00474 -0.00012235 0.0010369 0.0051485 -0.001825 0.00074976 0.014229 -0.010469
-0.017815 0.019364 -0.24772 0.1324
860000000 -0.12372 0.24702 -0.017627 0.030502 -0.0034089 -0.010037 -0.0022541 0.0008297
0.0038311 0.004568 -0.0033584 -0.0032055
-0.017594 0.030496 -0.29105 0.28789 0.0078638 0.034112 -4.6982e-05 0.002029
0.0039046 5.3326e-05 0.0033853 0.00056119
-0.0034192 -0.010055 0.0079575 0.034144 0.019774 0.3155 -0.00057521 -0.00019532
0.0026237 -0.0015617 0.0014383 0.0042374
-0.0023129 0.0008947 -0.00011705 0.0020011 -0.0005684 -0.00018341 -0.1398 0.24073
-0.018414 0.018897 -0.006346 -0.0090489
0.0038901 0.0045949 0.0038812 -6.1569e-05 0.0026067 -0.0015318 -0.018383 0.018928
-0.15651 0.1363 -0.026723 0.015174
-0.0033249 -0.0033176 0.0034982 0.00064194 0.0014607 0.0042306 -0.0063525 -0.0090384
-0.026732 0.015084 -0.19547 0.18025
920000000 -0.099104 0.27029 0.0050407 0.03792 -0.00951 -0.0043973 -0.0018763 0.0019513
0.00089008 0.0017789 0.002559 -0.0016304
0.0050228 0.037859 -0.26226 0.30941 0.028047 0.021918 0.0013784 0.0011389
0.0071727 -0.00037388 0.0039819 -0.0028397
-0.0094912 -0.0043453 0.028103 0.02185 0.065995 0.3161 0.0018469 1.176e-06
0.0011486 -0.00034628 0.000835 -0.0010796
-0.0018912 0.0019351 0.0013828 0.001106 0.0018648 2.0301e-06 -0.11615 0.25792
-0.010877 0.031375 0.0039447 -0.0066826
0.00088439 0.0017752 0.0071241 -0.00040894 0.0011319 -0.00034507 -0.010808 0.031416
-0.14707 0.14281 -0.0028671 0.027959
0.0025403 -0.0016382 0.0039856 -0.0027291 0.00079417 -0.0010968 0.0039357 -0.0066974
-0.0028773 0.027956 -0.20764 0.1944
980000000 -0.05175 0.28979 0.017392 0.029932 -0.009016 0.0046953 0.0020862 0.0034725
0.0038714 -0.0012743 -0.0032536 -0.0021163
0.017382 0.029926 -0.20918 0.34321 0.033073 0.004908 0.0020628 -3.5115e-05
0.0015336 -0.0056901 -0.00030386 -0.0023938
-0.0089957 0.0047339 0.033085 0.0048196 0.11222 0.30958 0.00050983 -0.0011703
0.00023479 -0.0020844 0.0014193 -0.00011215
0.0020503 0.0034634 0.0020348 -5.711e-05 0.00053313 -0.0011613 -0.077353 0.26916
0.0081154 0.030842 -0.0090129 -0.0074908
0.0038627 -0.0013265 0.0015121 -0.005736 0.00024065 -0.0020859 0.0081877 0.030846
-0.11569 0.17255 0.0044951 0.019794
-0.0032332 -0.0021473 -0.00027707 -0.0023888 0.0014423 -0.00011851 -0.0090047 -0.0074827
0.0044919 0.019794 -0.16533 0.24187
1040000000 -0.0096644 0.29806 0.033088 0.018231 -0.0012563 0.0070231 0.0024832 0.00056315
1.896e-05 -0.0036639 -0.00017693 -0.0014261
0.033049 0.018246 -0.17358 0.35626 0.029314 -0.014777 0.0015171 -0.0017246
-0.0024846 -0.0025602 -0.0012293 -0.0024871
-0.00122 0.0070082 0.029262 -0.014901 0.15819 0.2958 -0.00046917 -0.0015771
-0.0015713 -0.00090294 -0.00042572 -0.0011351
0.0024873 0.00056738 0.0014594 -0.0017355 -0.00048989 -0.0015623 -0.049854 0.27941
0.020058 0.018732 -0.0020813 0.001309
-3.412e-06 -0.0036597 -0.0025672 -0.0025429 -0.0015968 -0.00089977 0.0201 0.018744
-0.083119 0.1805 0.013488 0.019307
-0.00018828 -0.0013556 -0.0013185 -0.0024544 -0.00044554 -0.001129 -0.0021146 0.0013179
0.013467 0.019314 -0.14464 0.26255
1100000000 0.035722 0.30593 0.035789 -0.0041411 0.0029493 0.0038969 0.0022682 -0.0013202
-0.0019262 -0.0032431 -0.0038508 9.2508e-06
0.035746 -0.0041465 -0.13014 0.37353 0.015089 -0.027708 -3.5632e-05 -0.0018214
-0.0032573 -0.00087657 -0.00348 -0.00050606
0.0029675 0.0039013 0.014991 -0.0278 0.20441 0.27549 -0.0018646 0.00022062
-0.0018293 0.00048225 -0.0011065 -0.00036547
0.0022808 -0.0013088 -5.4176e-05 -0.0017927 -0.0018695 0.00022458 -0.0094141 0.28434
0.02554 0.0052632 -0.0026058 -0.00018783
-0.0019725 -0.0032118 -0.0032608 -0.00084502 -0.0018416 0.00050078 0.025561 0.0052257
-0.065722 0.19432 0.019282 0.0091236
-0.0038534 2.0322e-05 -0.0034613 -0.00045677 -0.0011129 -0.00037457 -0.0026054 -0.00018233
0.019275 0.009146 -0.099345 0.29473
1160000000 0.087184 0.30101 0.023872 -0.020609 0.0027537 -0.00052594 -0.00035826 -0.0023535
-0.0041281 -0.00088268 -0.00094791 0.004005
0.02388 -0.020583 -0.086509 0.37761 -0.0036417 -0.029004 -0.0016752 -0.0016513
-0.0027663 0.0023669 -0.0013021 0.0018156
0.0027871 -0.00053543 -0.0038037 -0.029002 0.24749 0.24481 -0.00070093 0.0017062
-0.00069119 0.0019146 -0.0010079 0.00030318
-0.00039021 -0.0023512 -0.001696 -0.0016451 -0.00070859 0.0016963 0.03007 0.28159
0.022058 -0.010695 -0.0031436 0.005054
-0.0041753 -0.00085949 -0.0028195 0.0024202 -0.00068302 0.0019407 0.02204 -0.010735
-0.032068 0.20365 0.018634 0.0012305
-0.0009145 0.0040529 -0.0013512 0.001859 -0.00099487 0.00030107 -0.0031448 0.0050468
0.01864 0.0012322 -0.051911 0.29814
1220000000 0.13143 0.28974 0.010439 -0.029895 -0.0015641 -0.00095531 9.5925e-06 -0.00083756
-0.0026916 0.0024014 0.0012439 0.0020474
0.010464 -0.029844 -0.042191 0.38954 -0.016786 -0.021079 -0.0024912 0.00042473
-5.8245e-05 0.0029743 -0.00082571 0.0018934
-0.001573 -0.00093344 -0.016907 -0.021029 0.28661 0.20584 0.00077395 0.0016617
0.00056931 0.0012479 0.0003574 0.00063958
3.1136e-06 -0.00085418 -0.0024889 0.00043995 0.00078096 0.001648 0.070064 0.273
0.011111 -0.017656 0.0021115 0.0013771
-0.0026961 0.0024025 -6.2779e-05 0.0029708 0.00055542 0.0012498 0.011101 -0.01768
-0.010064 0.21268 0.014844 -0.01247
0.0012597 0.0020652 -0.00081303 0.0019362 0.00035703 0.00062603 0.0021233 0.0013779
0.014845 -0.012464 -0.021511 0.31664
1280000000 0.18109 0.26778 -0.0078069 -0.028378 -0.0018793 0.0023767 -0.00082011 -0.0019469
-0.00085754 0.0030295 0.0024814 0.0012036
-0.0077859 -0.028361 0.0036351 0.38046 -0.023589 -0.0085171 -0.00097549 0.001442
0.0015431 0.0018335 0.00059146 0.0020783
-0.0018799 0.0023928 -0.023665 -0.0084309 0.31718 0.16197 0.0016079 5.4998e-05
0.0011481 0.0003522 0.00043745 0.00032138
-0.00084878 -0.0019417 -0.00097377 0.0014453 0.0016038 4.9156e-05 0.10686 0.25644
0.001513 -0.019947 -0.00033323 6.8387e-05
-0.0008156 0.0030357 0.0015723 0.0018343 0.0011335 0.00035204 0.0014673 -0.019974
0.026549 0.21664 0.0036583 -0.015018
0.0024572 0.0012027 0.00058929 0.0020906 0.00044685 0.00030982 -0.00032814 7.2741e-05
0.0036547 -0.01501 0.027133 0.32028
1340000000 0.21808 0.23397 -0.017449 -0.01896 0.00081598 0.0044774 -0.0016302 -0.00082723
0.0014654 0.0027799 0.001778 -0.0013361
-0.017428 -0.018959 0.042857 0.37224 -0.021506 0.0041326 -0.00019029 0.001969
0.0018903 0.00093307 0.001343 0.00080778
0.00084337 0.0044639 -0.021497 0.0042594 0.33917 0.11414 0.0011819 -0.00084372
0.00073846 -0.00046053 0.00020885 0.00034667
-0.0016265 -0.00079995 -0.00018447 0.0019837 0.0011647 -0.00086393 0.13905 0.23599
-0.0083409 -0.017331 0.00074403 0.00062099
0.0014781 0.0027911 0.0019216 0.00091201 0.00072579 -0.00046462 -0.0083872 -0.017325
0.05582 0.2121 -0.0029614 -0.013749
0.0017686 -0.0013244 0.001366 0.00079011 0.00020013 0.00033922 0.00075514 0.00061175
-0.0029524 -0.013753 0.065275 0.31715
1400000000 0.25087 0.19579 -0.023218 -0.0075506 0.0050504 0.0030678 -0.002017 0.00054651
0.0023931 0.00094214 0.00038866 -0.0013655
-0.023189 -0.0075554 0.080005 0.35925 -0.01481 0.012195 0.0012726 0.0013656
0.0011778 -0.00069231 0.0012941 0.00028171
0.0050812 0.0030431 -0.014769 0.012301 0.35241 0.060691 0.00024027 -0.0016837
2.9855e-05 -0.00048487 0.00041351 0.00020367
-0.0020329 0.00056138 0.001272 0.0013691 0.00023929 -0.0016868 0.1682 0.20725
-0.014558 -0.010664 -0.00099573 -0.00042384
0.0023908 0.00092479 0.0011859 -0.00070996 1.1073e-05 -0.00048292 -0.014586 -0.010633
0.08825 0.2083 -0.0095078 -0.0093943
0.00036101 -0.0013463 0.0012794 0.00026881 0.00042118 0.00019869 -0.00099873 -0.00042238
-0.0094971 -0.0093909 0.11114 0.3071
1460000000 0.27347 0.15183 -0.020304 0.0045265 0.0055486 -0.001873 -0.0016074 0.0016455
0.0021246 -0.0004566 -0.00034622 -0.0010163
-0.020301 0.0045056 0.11411 0.33756 -0.0062412 0.015113 0.0017654 0.00023678
0.00098457 -0.0013176 0.0011727 -0.00061095
0.0055419 -0.0019094 -0.0061748 0.015189 0.35859 0.0064121 -0.0013372 -0.0013404
0.00013835 -0.00030847 0.00059198 -0.00036898
-0.0016204 0.0016541 0.0017675 0.00022031 -0.001335 -0.001329 0.19418 0.17837
-0.016193 -0.0037904 -0.0010076 0.0021882
0.0021238 -0.00047605 0.00098848 -0.001322 0.00013881 -0.00030957 -0.016213 -0.003748
0.11676 0.19396 -0.011732 -0.0032721
-0.00036079 -0.0010357 0.0011787 -0.00065248 0.00058281 -0.00037247 -0.0010173 0.0022025
-0.011732 -0.0032706 0.14517 0.28691
1520000000 0.2855 0.1102 -0.01479 0.010104 0.0032307 -0.0041622 4.5148e-05 0.0026126
0.0021818 -0.001645 -0.001151 -0.00022594
-0.014784 0.010094 0.14764 0.32294 0.00136 0.013004 0.0017157 -0.00077052
6.8738e-05 -0.001123 0.0003298 -0.0010138
0.0032183 -0.0041664 0.0014281 0.013011 0.35184 -0.050062 -0.0011929 -0.00039637
0.00060455 -0.00082975 6.8271e-05 -7.7782e-05
5.28e-05 0.002596 0.001708 -0.00078127 -0.0011917 -0.00039757 0.21708 0.14109
-0.015922 0.0021867 0.0015127 0.0022714
0.0021708 -0.0016433 7.5741e-05 -0.0011233 0.00060446 -0.00083517 -0.01592 0.0022357
0.14389 0.18047 -0.011935 0.00108
-0.0011555 -0.00021957 0.0003316 -0.0010228 6.2236e-05 -8.4805e-05 0.0015135 0.0022706
-0.011931 0.0010683 0.17931 0.26793
1580000000 0.29479 0.06416 -0.008203 0.013271 -0.00097298 -0.0047616 0.0013651 0.0019624
-0.00017594 -0.0020936 -0.0004017 0.00040612
-0.0081995 0.013245 0.17497 0.29829 0.0049262 0.008301 0.0005009 -0.0016292
-0.0006361 -0.0011324 -0.00027821 -0.00078243
-0.00099889 -0.0047587 0.0050024 0.0082706 0.33134 -0.10783 -0.0016611 0.00069247
-0.00024615 -0.0011412 0.000112 -0.00041306
0.0013431 0.0019666 0.00049737 -0.0016452 -0.0016563 0.00068987 0.231 0.10264
-0.012546 0.0076167 0.0024055 0.00098757
-0.00022377 -0.0020854 -0.00064563 -0.0011469 -0.00023355 -0.0011416 -0.012522 0.0076669
0.16788 0.16352 -0.0095734 0.007078
-0.00039201 0.00041137 -0.00029672 -0.00078193 0.00011175 -0.00043284 0.0024059 0.00099493
-0.0095795 0.0070819 0.21274 0.24144
1640000000 0.29684 0.023002 -0.0015316 0.01229 -0.0026029 -0.0025323 0.0027582 0.001084
-0.00057823 -0.001635 -0.00026768 0.00051557
-0.0015352 0.012282 0.20461 0.27334 0.0058053 0.0037124 -0.00068991 -0.001789
-0.0010817 -0.00042517 -0.00044436 -0.00070803
-0.0026419 -0.0025148 0.005825 0.0036921 0.30278 -0.15661 -0.00065849 0.0015054
-0.0010018 -0.0011459 -9.0139e-05 -0.00043273
0.0027538 0.0010387 -0.0006945 -0.0017838 -0.000651 0.001501 0.24362 0.054624
-0.008193 0.0093861 0.0026132 -0.00074289
-0.00058441 -0.0016335 -0.0011005 -0.00040185 -0.0010027 -0.0011348 -0.0081713 0.0094199
0.18973 0.14006 -0.0049629 0.0092386
-0.00026928 0.00051173 -0.0004467 -0.00070874 -8.7647e-05 -0.00042515 0.0026075 -0.00076196
-0.0049618 0.0092377 0.23878 0.21068
1700000000 0.28964 -0.022373 0.0019301 0.0095732 -0.0034022 0.00014885 0.0031129 -0.001236
-0.0020702 -0.00085172 0.00060407 0.00047761
0.0019175 0.0095539 0.22276 0.24169 0.0039181 0.0007933 -0.0015134 -0.00061627
-0.00083543 0.00011348 -0.00088649 -0.00049179
-0.0034407 0.00014946 0.0039227 0.00076587 0.25947 -0.19637 0.00055558 0.0016892
-0.0019829 -0.00025452 -0.00034166 -0.00081907
0.0031247 -0.0012495 -0.001516 -0.00060106 0.00055611 0.0016838 0.24125 0.0057695
-0.0051131 0.010482 0.0016412 -0.0023045
-0.0020703 -0.00083374 -0.00081841 0.00012199 -0.0019817 -0.0002547 -0.0050954 0.010502
0.2067 0.12073 -0.0002553 0.0097592
0.00060198 0.00047798 -0.00088443 -0.0004863 -0.00033377 -0.00082304 0.0016518 -0.0023189
-0.00025147 0.0097629 0.25619 0.17628
1760000000 0.27736 -0.070922 0.0042933 0.0063564 -0.0022406 0.00091251 0.0012773 -0.0034658
-0.0015058 0.00056065 0.00046658 -0.0005731
0.0042745 0.0063429 0.24868 0.2017 0.0017191 -0.0011812 -0.0012245 0.00019326
-0.00094907 0.00094381 -0.00056416 0.00039133
-0.0022319 0.00092936 0.0017112 -0.0011853 0.21108 -0.23007 0.0012489 0.0010093
-0.0012216 0.0014534 -0.0012832 -0.00051733
0.0012748 -0.0034573 -0.0012235 0.00022384 0.0012389 0.0010017 0.2332 -0.045127
-0.0011743 0.0099317 -0.00012048 -0.0025818
-0.0014826 0.00059019 -0.00094308 0.00095968 -0.0012114 0.001449 -0.001152 0.0099348
0.22137 0.08694 0.0038231 0.0072938
0.00046082 -0.0005809 -0.00055581 0.00039603 -0.0012831 -0.0005286 -0.00012472 -0.0025971
0.0038318 0.0073045 0.26938 0.13872
1820000000 0.2526 -0.10812 0.0045802 0.0027809 6.6967e-05 0.0024088 -0.0010421 -0.0030595
-0.0012621 0.0010064 -3.3575e-05 -9.2949e-05
0.0045768 0.0027819 0.25862 0.17155 -0.0001997 6.3967e-05 -0.0012971 0.00099593
6.2906e-05 0.0013147 -0.00057442 0.00049477
7.9805e-05 0.0024436 -0.00021237 7.0418e-05 0.1605 -0.24538 0.0015417 0.00032886
-0.00024369 0.0024838 -0.0014924 0.00024194
-0.0010729 -0.0030377 -0.0012889 0.0010076 0.0015584 0.00032009 0.20453 -0.092347
0.00094294 0.0082415 -0.001554 -0.0016726
-0.00126 0.00099755 8.9584e-05 0.001307 -0.00022254 0.0024941 0.00096574 0.0082401
0.23875 0.059026 0.0048941 0.0038489
-3.623e-05 -9.6678e-05 -0.00057362 0.00051078 -0.0014595 0.00024226 -0.0015593 -0.0016456
0.0048945 0.0038458 0.27232 0.10298
1880000000 0.21747 -0.14845 0.0024712 0.00041434 -0.00036787 0.0020657 -0.0029553 -0.00216
-0.00016795 0.0018194 0.00025822 -0.00054779
0.0024671 0.00041578 0.26289 0.12492 -0.0022011 0.0016737 -0.00017719 0.0016594
0.00061366 0.0011037 6.7133e-05 0.00095378
-0.00033694 0.0020444 -0.0021917 0.0016858 0.10801 -0.25507 0.0017159 -0.00096214
0.0014938 0.0020296 -0.0011015 0.001337
-0.0029833 -0.0021737 -0.0001612 0.0016765 0.0016883 -0.00097209 0.16502 -0.13302
0.0021699 0.005902 -0.0023969 0.00031761
-0.00013953 0.0018285 0.00061373 0.0011101 0.0014982 0.0020376 0.0022004 0.0058994
0.24222 0.027613 0.0051784 0.0017604
0.00026765 -0.0005843 7.336e-05 0.00094647 -0.0011103 0.0013238 -0.0023914 0.00031625
0.0051708 0.0017554 0.27248 0.068756
1940000000 0.17805 -0.17412 0.00023702 -0.0012982 0.0012711 0.0018697 -0.0037271 0.0005396
0.0014014 0.0011482 -0.00075328 -0.0005582
0.00022908 -0.0012981 0.26324 0.093103 -0.0010234 0.0038411 0.001044 0.0013032
0.0017538 0.00038806 0.00081466 0.0003252
0.001287 0.0018922 -0.001001 0.0038667 0.062454 -0.24807 0.00036063 -0.0020761
0.0024837 0.00040626 0.00028857 0.0017517
-0.0037268 0.00059776 0.0010577 0.0012819 0.00039599 -0.0020902 0.1133 -0.1645
0.001542 0.0040285 -0.0014284 0.0013606
0.0014007 0.0011199 0.0017584 0.0003688 0.0024967 0.00040741 0.0015666 0.004032
0.24508 -0.010778 0.0041446 -0.0019546
-0.00075094 -0.0005383 0.00080544 0.00033025 0.00028981 0.0017507 -0.0014292 0.0013492
0.0041368 -0.0019656 0.26215 0.033433
2000000000 0.13142 -0.18881 -0.00353 0.0005512 0.0025095 0.0016593 -0.0023248 0.0033709
0.0012523 1.9022e-05 -0.00079135 0.00043242
-0.0035272 0.00052406 0.24891 0.057611 -0.0009005 0.0056472 0.0015782 0.00040812
0.0011466 -0.001327 0.00050818 0.00010383
0.0025023 0.001631 -0.00084731 0.0056433 0.018656 -0.23342 -0.001307 -0.0012145
0.0019721 -0.0012165 0.0016502 0.0013432
-0.0022971 0.0033874 0.0015942 0.00038882 -0.001292 -0.0012388 0.059764 -0.17544
-4.8423e-05 0.0033221 -0.00015396 0.0021276
0.0012833 2.2254e-05 0.0011496 -0.0013229 0.0019835 -0.0011756 -3.3287e-05 0.0033096
0.23975 -0.044579 0.00077251 -0.0029728
