!Keysight Technologies,M9804A,MY58100912,A.14.10.03
!Date: Thursday, April 27, 2023 10:28:33
!Correction: S11(C  6-Port  ) 
!S12(C  6-Port  ) 
!S13(C  6-Port  ) 
!S14(C  6-Port  ) 
!S15(C  6-Port  ) 
!S16(C  6-Port  ) 
!S21(C  6-Port  ) 
!S22(C  6-Port  ) 
!S23(C  6-Port  ) 
!S24(C  6-Port  ) 
!S25(C  6-Port  ) 
!S26(C  6-Port  ) 
!S31(C  6-Port  ) 
!S32(C  6-Port  ) 
!S33(C  6-Port  ) 
!S34(C  6-Port  ) 
!S35(C  6-Port  ) 
!S36(C  6-Port  ) 
!S41(C  6-Port  ) 
!S42(C  6-Port  ) 
!S43(C  6-Port  ) 
!S44(C  6-Port  ) 
!S45(C  6-Port  ) 
!S46(C  6-Port  ) 
!S51(C  6-Port  ) 
!S52(C  6-Port  ) 
!S53(C  6-Port  ) 
!S54(C  6-Port  ) 
!S55(C  6-Port  ) 
!S56(C  6-Port  ) 
!S61(C  6-Port  ) 
!S62(C  6-Port  ) 
!S63(C  6-Port  ) 
!S64(C  6-Port  ) 
!S65(C  6-Port  ) 
!S66(C  6-Port  ) 
!S6P File: Measurement: :
# Hz S  RI   R 50
500000000 -0.33699 -0.040859 -0.00967 -0.0022336 -0.0080801 0.012462 -0.0044212 0.012274
0.012941 0.0046499 -0.0050007 0.009251
-0.0096434 -0.0022495 -0.4184 -0.05252 0.0083392 -0.01069 0.0015864 0.01236
0.0076515 0.0017783 0.0015703 0.013577
-0.008078 0.012475 0.0083378 -0.010723 -0.26488 0.20829 0.007818 0.0036043
-0.0022061 0.0076953 0.0014496 0.012192
-0.0044098 0.012238 0.0016303 0.012383 0.0078251 0.0035862 -0.33156 0.040401
-0.019426 -0.0064086 0.016221 0.0264
0.012953 0.0045803 0.0076641 0.0017489 -0.002202 0.0076924 -0.019399 -0.0063976
-0.21782 -0.2061 -0.026067 0.0053714
-0.0049352 0.0092094 0.0016266 0.013605 0.0014738 0.012174 0.016189 0.026412
-0.026056 0.0053517 -0.26201 -0.1472
560000000 -0.31601 0.12134 -0.02342 -0.063557 -0.00021924 0.012191 0.0054614 0.01097
0.010448 0.0051474 0.011004 0.0080123
-0.023393 -0.063469 -0.37778 0.10708 -0.040949 -0.038253 0.014338 0.0039449
-0.013082 -0.0054122 0.0030792 0.0001932
-0.00021353 0.012205 -0.041086 -0.038201 -0.18327 0.25659 -0.00095369 -0.0041793
0.01976 0.0050143 0.0065283 -0.0058696
0.0054925 0.010968 0.014383 0.0039195 -0.00095846 -0.0041852 -0.3069 0.13039
0.0035581 -0.02399 0.004575 -0.021948
0.010487 0.0050889 -0.013075 -0.0052816 0.019751 0.005006 0.0035531 -0.023976
-0.28814 -0.030603 0.0093397 -0.049489
0.011002 0.0079905 0.0030419 0.00018566 0.0065192 -0.005894 0.0046056 -0.021941
0.0093277 -0.049467 -0.32918 0.0042565
620000000 -0.27557 0.10474 -0.023207 0.0078087 0.0028909 0.0085872 0.0079516 -0.0055393
0.010939 0.0001566 0.0017416 -0.002451
-0.023198 0.0077723 -0.40256 0.058459 -0.018645 -0.00028823 -0.0013377 -0.0019226
0.011463 -0.0065244 0.0016594 -0.003251
0.0029 0.0085736 -0.018671 -0.00023758 -0.15432 0.26529 -0.0014843 -0.0052287
-0.0028453 -0.0025474 0.0081684 -0.0034334
0.0079166 -0.0055714 -0.0013407 -0.0019167 -0.0014772 -0.0052142 -0.26708 0.14172
-0.038551 -0.019849 0.012751 0.026885
0.010974 0.00012955 0.011436 -0.0065493 -0.0028658 -0.0025512 -0.03856 -0.019857
-0.20628 -0.06892 -0.042628 0.014135
0.001761 -0.0025222 0.0016238 -0.0032441 0.00821 -0.0034048 0.012764 0.026854
-0.042586 0.014099 -0.24711 -0.034351
680000000 -0.23524 0.19105 -0.027344 -0.014535 0.0046309 0.0051992 0.0016267 -0.0072548
-0.0034665 -0.011327 0.0055509 -0.0069525
-0.027314 -0.014525 -0.38805 0.15677 -0.032843 -0.0015595 -0.0016577 -0.00038617
-0.0022102 -0.0088463 -0.00094867 -0.001682
0.0046366 0.0051883 -0.032886 -0.0014649 -0.10286 0.28562 -0.00071722 -6.1829e-05
-0.0017011 0.00061051 -0.0027839 -0.0092511
0.0016024 -0.0072602 -0.0016759 -0.00037806 -0.00071186 -6.7144e-05 -0.22189 0.19349
-0.023621 -0.0077107 -0.0098589 -0.012119
-0.0035055 -0.011325 -0.0022485 -0.0088709 -0.0017001 0.0006022 -0.023649 -0.0076967
-0.26022 0.031338 -0.0054624 -0.0090538
0.0055528 -0.0069568 -0.00096406 -0.0017079 -0.0027928 -0.0092644 -0.0098818 -0.012143
-0.0054638 -0.0090173 -0.26176 0.074256
740000000 -0.19146 0.18596 -0.038849 0.026767 0.012539 -0.00483 -0.00014811 -0.004405
-0.0037846 -0.0027132 -0.006251 0.0023754
-0.038823 0.026723 -0.33532 0.1758 -0.035661 0.034912 -0.00081143 -0.0062673
-0.011382 0.0075202 -0.0021732 -0.006632
0.012538 -0.0048813 -0.035623 0.035051 -0.068855 0.28421 -0.0022523 0.0030957
-0.0019775 -0.0048203 -0.0018438 -5.7793e-05
-0.00016063 -0.0044132 -0.00083658 -0.0062609 -0.0022534 0.0030915 -0.20509 0.20119
-0.044512 -0.0073925 0.023472 0.015854
-0.0037681 -0.0026999 -0.011417 0.0075872 -0.0019813 -0.0048253 -0.044556 -0.0073029
-0.15814 0.05852 -0.045518 -0.00050218
-0.0063016 0.0024075 -0.0022068 -0.0065533 -0.0018727 -1.3902e-05 0.023501 0.01586
-0.045541 -0.00047584 -0.2521 0.08043
800000000 -0.15885 0.22654 -0.022721 0.016575 0.0051979 -0.010565 -0.0047144 -0.0023321
-0.0041231 0.0021852 0.0048078 -7.6815e-06
-0.022702 0.016561 -0.3386 0.246 -0.0080199 0.03389 -0.0023507 0.0021827
-0.00062714 0.0028023 0.0010275 0.0051809
0.0051654 -0.010584 -0.0079362 0.033936 -0.028314 0.30746 0.0010136 0.001443
0.00024705 0.0033644 -0.0018349 0.00072156
-0.0047206 -0.0023243 -0.0023503 0.002185 0.0010199 0.0014441 -0.17674 0.22946
-0.029 0.013949 0.014221 -0.010536
-0.0041268 0.0022284 -0.00061656 0.0028203 0.00025288 0.0033708 -0.029002 0.014017
-0.20877 0.082713 -0.018121 0.019021
0.0048364 -1.5767e-05 0.0010545 0.0051823 -0.0018447 0.00073542 0.014196 -0.010548
-0.018108 0.019019 -0.24851 0.13087
860000000 -0.12408 0.24699 -0.017778 0.030614 -0.0033986 -0.0098487 -0.002349 0.00087655
0.0039491 0.0046039 -0.0033268 -0.0032754
-0.017781 0.030586 -0.291 0.28804 0.0076922 0.034025 -1.311e-07 0.0020177
0.0041255 8.3826e-05 0.0033037 0.0005987
-0.0034277 -0.0098426 0.0078026 0.03402 0.019834 0.31533 -0.00057739 -0.00027592
0.0028187 -0.0015598 0.0013073 0.0044378
-0.0023443 0.00087283 5.4086e-06 0.0020139 -0.00057774 -0.00027652 -0.13987 0.24068
-0.018155 0.018769 -0.0063637 -0.0091011
0.0039776 0.0045822 0.0041398 4.9624e-05 0.0028121 -0.0015598 -0.018142 0.018796
-0.15709 0.13584 -0.027239 0.01516
-0.0033464 -0.00325 0.0032732 0.00058871 0.0013239 0.0044469 -0.0063964 -0.0090963
-0.027259 0.015172 -0.19674 0.17898
920000000 -0.099371 0.27039 0.0048026 0.037992 -0.009382 -0.0042498 -0.001906 0.0019751
0.00085354 0.0016764 0.0025631 -0.0014771
0.0047845 0.03797 -0.26207 0.30946 0.027888 0.022052 0.0013496 0.0011454
0.0070476 -0.00030468 0.003935 -0.0027507
-0.0093947 -0.0042252 0.027978 0.02197 0.066087 0.31586 0.0018221 2.2747e-05
0.0010934 -0.00030242 0.00093819 -0.0010186
-0.0018992 0.0019927 0.0013463 0.0011366 0.0018275 1.9442e-05 -0.11612 0.25767
-0.011047 0.031212 0.0039813 -0.0066995
0.00084897 0.0016792 0.0070755 -0.00034842 0.0010913 -0.00029819 -0.011019 0.031237
-0.14808 0.1423 -0.0032311 0.027991
0.002592 -0.0015116 0.0038925 -0.0027849 0.00093577 -0.001028 0.0039655 -0.0066974
-0.0032265 0.027997 -0.2089 0.19322
980000000 -0.05178 0.28994 0.017413 0.03009 -0.0088405 0.004732 0.0021733 0.0035595
0.003903 -0.0012775 -0.0034595 -0.0021747
0.017375 0.030074 -0.20904 0.34348 0.032824 0.005085 0.0020522 5.7097e-05
0.0016019 -0.0055857 -0.00032225 -0.0023635
-0.0088411 0.0047639 0.032877 0.0049505 0.1122 0.30917 0.00050665 -0.0011631
0.00032647 -0.0020249 0.0014808 -0.00018025
0.0021807 0.003556 0.002055 2.9051e-05 0.00051196 -0.0011631 -0.077357 0.26889
0.0078357 0.030578 -0.0091559 -0.0075497
0.0038873 -0.0013139 0.0015954 -0.0055928 0.00031034 -0.0020227 0.0078985 0.030583
-0.1166 0.17209 0.0043874 0.01983
-0.0034822 -0.0021596 -0.00034604 -0.00238 0.0014919 -0.00018642 -0.009171 -0.007523
0.0043868 0.019821 -0.16616 0.24044
1040000000 -0.0095168 0.29815 0.033086 0.018415 -0.0011236 0.0068882 0.0025647 0.0005948
7.8048e-05 -0.0036565 -9.5837e-05 -0.0014628
0.033047 0.018431 -0.17328 0.35641 0.029313 -0.014487 0.0015471 -0.0016388
-0.0024799 -0.0024472 -0.0011834 -0.0024756
-0.0010933 0.0069059 0.029278 -0.014626 0.15795 0.29538 -0.00046125 -0.0015713
-0.0016032 -0.00085939 -0.00041309 -0.0011033
0.0025668 0.00060315 0.0015318 -0.0016582 -0.00045444 -0.0015681 -0.050046 0.27904
0.019547 0.01877 -0.0019972 0.00144
4.5047e-05 -0.0036766 -0.0024515 -0.0024474 -0.0016111 -0.00086099 0.019588 0.01873
-0.084135 0.18052 0.013075 0.019616
-9.1559e-05 -0.0014557 -0.0012214 -0.0024902 -0.00040797 -0.0011093 -0.0019933 0.001446
0.013059 0.019618 -0.14604 0.26181
1100000000 0.03583 0.30596 0.035686 -0.0040114 0.0030217 0.0037899 0.0023153 -0.0013765
-0.0020044 -0.0031729 -0.0038719 -1.0923e-05
0.03565 -0.0039825 -0.12985 0.37339 0.01525 -0.027443 -2.9039e-05 -0.0017978
-0.0032277 -0.00088991 -0.0034607 -0.00052578
0.0030412 0.0037857 0.01516 -0.02753 0.20397 0.27532 -0.001855 0.00018104
-0.0017422 0.00039141 -0.0011037 -0.00043653
0.0023059 -0.0013826 -4.2548e-05 -0.0018009 -0.0018614 0.00018176 -0.0096606 0.28399
0.025036 0.0057059 -0.0024737 -0.00010676
-0.0020255 -0.0031836 -0.0032282 -0.00088498 -0.0017355 0.00039281 0.025053 0.0056661
-0.066322 0.19446 0.019099 0.0094364
-0.0038573 2.3792e-05 -0.0034944 -0.00050653 -0.001115 -0.00043321 -0.0024745 -9.6861e-05
0.019104 0.0094364 -0.10059 0.29409
1160000000 0.087325 0.30079 0.023992 -0.020359 0.0028114 -0.0006238 -0.00037438 -0.0023644
-0.004075 -0.00080682 -0.00094039 0.0040612
0.023985 -0.020318 -0.086283 0.3772 -0.0033843 -0.028842 -0.0016862 -0.0016526
-0.0028057 0.0022868 -0.0013639 0.0018587
0.0028079 -0.00063642 -0.0035198 -0.028852 0.24683 0.24492 -0.00068849 0.0017121
-0.00072389 0.0019169 -0.00095182 0.00022795
-0.00037837 -0.0023578 -0.0016976 -0.0016567 -0.00069454 0.001713 0.029588 0.28114
0.02187 -0.010055 -0.003041 0.005201
-0.0040834 -0.00080065 -0.0027727 0.0023006 -0.00071769 0.0019054 0.021858 -0.010101
-0.032294 0.20383 0.018408 0.0015912
-0.00090109 0.0040622 -0.0013364 0.0018547 -0.00093596 0.00024731 -0.0030423 0.0052133
0.018391 0.001591 -0.053381 0.29738
1220000000 0.13157 0.28958 0.010645 -0.029675 -0.0015593 -0.00095918 -3.6518e-06 -0.00084456
-0.0026395 0.0023595 0.0012739 0.0019768
0.010662 -0.029642 -0.042219 0.38916 -0.016461 -0.021085 -0.0024786 0.00040988
-9.438e-05 0.0028792 -0.0008367 0.0018253
-0.001566 -0.00094251 -0.016574 -0.021038 0.28621 0.20633 0.00074885 0.0016152
0.00053079 0.0012258 0.00033073 0.00067042
-6.8817e-06 -0.00084025 -0.0024799 0.00042162 0.0007517 0.0016181 0.069384 0.27281
0.011262 -0.016994 0.0022587 0.001366
-0.0026265 0.002359 -6.7274e-05 0.0028934 0.00053825 0.0012247 0.011244 -0.017019
-0.010257 0.21271 0.014943 -0.011985
0.0012864 0.0019762 -0.00083632 0.0018282 0.00032576 0.00067271 0.0022678 0.0013677
0.014947 -0.011988 -0.0231 0.31631
1280000000 0.18108 0.26743 -0.007429 -0.028301 -0.0018997 0.0022907 -0.00083426 -0.0019477
-0.0008242 0.0029391 0.0024581 0.0011717
-0.0074093 -0.028289 0.0033948 0.3802 -0.023295 -0.0087737 -0.0010125 0.0013955
0.0014671 0.0018193 0.00056098 0.0020928
-0.0018827 0.0022997 -0.023368 -0.0086726 0.31717 0.16264 0.0015848 5.4411e-05
0.0011513 0.0003931 0.00047737 0.00035514
-0.00084619 -0.0019411 -0.0010099 0.0014069 0.0015881 5.5091e-05 0.10614 0.25645
0.0020817 -0.019409 -0.00018951 -3.4165e-05
-0.00081753 0.002951 0.0014765 0.0018153 0.0011473 0.00039593 0.0020442 -0.019427
0.026393 0.21639 0.0038674 -0.014625
0.002459 0.001162 0.00057915 0.0020807 0.00047899 0.00034895 -0.00019232 -3.1702e-05
0.0038794 -0.014622 0.025729 0.32014
1340000000 0.21787 0.23368 -0.017072 -0.019123 0.00069627 0.0043614 -0.0015831 -0.00081705
0.0014267 0.0027275 0.0017409 -0.0013211
-0.017045 -0.019116 0.042562 0.37225 -0.021445 0.003793 -0.00019837 0.0019919
0.0018359 0.00098818 0.0013192 0.00082253
0.00071268 0.0043612 -0.021447 0.0039051 0.3397 0.1147 0.0011322 -0.0008161
0.00076323 -0.00043531 0.00024827 0.00034933
-0.0015974 -0.00080182 -0.00018596 0.0019919 0.0011361 -0.00081731 0.13838 0.23637
-0.0075803 -0.017182 0.00084381 0.00042362
0.0014502 0.0027245 0.0018443 0.00097771 0.0007603 -0.00043345 -0.0076147 -0.01718
0.055363 0.21174 -0.0024421 -0.013535
0.0017407 -0.0013185 0.0013243 0.00081414 0.00025296 0.00035113 0.00083903 0.00042612
-0.0024331 -0.013534 0.063866 0.31734
1400000000 0.25056 0.1957 -0.023016 -0.0079024 0.0049613 0.0030503 -0.0020032 0.0005004
0.0023163 0.00085763 0.00037491 -0.0013246
-0.022983 -0.0079102 0.079741 0.35945 -0.014949 0.011931 0.0012544 0.0013951
0.0012055 -0.00063191 0.0012866 0.00031463
0.0049664 0.0030323 -0.014904 0.012021 0.35311 0.060711 0.00024838 -0.0016063
-3.6403e-05 -0.00042967 0.00042197 0.0002263
-0.0020034 0.00050642 0.0012658 0.00139 0.00024557 -0.0016046 0.16781 0.20782
-0.013738 -0.010951 -0.0010434 -0.00062885
0.0023246 0.00084872 0.0011937 -0.00064822 -3.7106e-05 -0.0004308 -0.013768 -0.010931
0.087754 0.208 -0.0089621 -0.0095198
0.00038257 -0.0013262 0.0012884 0.00030492 0.00043499 0.00022915 -0.0010605 -0.0006257
-0.0089504 -0.0095206 0.10988 0.30755
1460000000 0.27324 0.15188 -0.020328 0.0041056 0.0054212 -0.0016913 -0.0016552 0.0015981
0.002027 -0.0004115 -0.00028128 -0.0010027
-0.020312 0.004089 0.11403 0.33801 -0.0065681 0.014976 0.0017749 0.00023623
0.0010423 -0.0012823 0.0011897 -0.00058304
0.0054055 -0.0017173 -0.006495 0.015015 0.35916 0.0058535 -0.0012399 -0.0013218
0.00014736 -0.00029284 0.00053287 -0.00037396
-0.0016575 0.0015958 0.0017791 0.00021767 -0.0012438 -0.0013255 0.194 0.17904
-0.015714 -0.0045309 -0.0011825 0.0020412
0.0020214 -0.00041949 0.0010376 -0.0012987 0.00015289 -0.00029929 -0.015737 -0.0044973
0.11592 0.19365 -0.011302 -0.0036226
-0.00029072 -0.00099298 0.0011811 -0.00060138 0.00052734 -0.00039151 -0.0011771 0.0020349
-0.011301 -0.0036364 0.14409 0.28757
1520000000 0.28546 0.11041 -0.015033 0.0097498 0.0032122 -0.0039617 1.5253e-05 0.0026062
0.0021388 -0.0015622 -0.0011133 -0.00024355
-0.015028 0.0097293 0.14784 0.32335 0.0011174 0.013093 0.001719 -0.00075677
0.00012858 -0.0011485 0.00036908 -0.001011
0.0031953 -0.0039786 0.0011944 0.013101 0.35204 -0.050703 -0.0011582 -0.00042217
0.00061976 -0.00078479 3.011e-05 -4.8063e-05
1.6048e-05 0.0026071 0.001718 -0.00076004 -0.0011584 -0.00042031 0.21727 0.1417
-0.015961 0.0013086 0.0013062 0.0022505
0.0021338 -0.0015809 0.00011949 -0.0011565 0.00061762 -0.00079036 -0.015953 0.0013507
0.1429 0.18051 -0.011776 0.00054862
-0.0011095 -0.000233 0.00036543 -0.0010166 2.943e-05 -3.6333e-05 0.0013007 0.0022476
-0.011779 0.0005436 0.17856 0.26868
1580000000 0.29492 0.064394 -0.0086371 0.013099 -0.0008546 -0.0047241 0.0013156 0.0019792
-0.00014642 -0.0020233 -0.0004212 0.00040826
-0.0086285 0.013082 0.17536 0.29859 0.0048078 0.0084752 0.00051211 -0.0016287
-0.0006482 -0.0011989 -0.0002856 -0.00078839
-0.00087247 -0.0047153 0.0048545 0.0084658 0.33127 -0.10832 -0.0016876 0.00065001
-0.00019791 -0.0011497 5.8254e-05 -0.00045875
0.0013276 0.0019771 0.00050214 -0.0016423 -0.0016872 0.00064333 0.23143 0.10301
-0.01307 0.0069112 0.002268 0.0011113
-0.00015726 -0.0020292 -0.00066124 -0.0011982 -0.00020154 -0.0011519 -0.013066 0.0069471
0.16688 0.16374 -0.0096661 0.0066377
-0.00042079 0.00041402 -0.00028734 -0.00078076 5.1585e-05 -0.00045276 0.0022737 0.0011012
-0.0096647 0.0066425 0.21227 0.24202
1640000000 0.29716 0.023067 -0.0019583 0.012406 -0.0025769 -0.0025045 0.0027455 0.0011069
-0.0004801 -0.0016154 -0.00030878 0.00056704
-0.0019791 0.012396 0.20515 0.27344 0.0057863 0.0038186 -0.00065317 -0.0017817
-0.0011373 -0.00043491 -0.00044799 -0.00073427
-0.0025824 -0.0024989 0.0058103 0.0037847 0.30279 -0.15742 -0.00069056 0.0015276
-0.0010144 -0.0011206 -7.9177e-05 -0.00039562
0.0027592 0.0010955 -0.00067132 -0.0017767 -0.00069664 0.0015354 0.24421 0.054694
-0.0089745 0.0091386 0.0025534 -0.00065723
-0.00048681 -0.001604 -0.0011448 -0.00041826 -0.0010218 -0.0011171 -0.0089508 0.009172
0.18881 0.14076 -0.0052687 0.0088143
-0.00029517 0.00057708 -0.0004483 -0.00072901 -6.8778e-05 -0.00039811 0.0025581 -0.00066204
-0.0052649 0.0088151 0.23836 0.21124
1700000000 0.29007 -0.022533 0.0016357 0.0098857 -0.0033841 0.00014515 0.0031296 -0.0011548
-0.0020326 -0.00089951 0.00062433 0.00047832
0.0016239 0.0098732 0.22335 0.2416 0.0039205 0.0008943 -0.0015028 -0.00061494
-0.00086528 0.00014951 -0.00091801 -0.00047822
-0.003385 0.00015567 0.0039287 0.0008658 0.25888 -0.19719 0.00052445 0.0017204
-0.0020109 -0.0002967 -0.00043033 -0.00079554
0.003123 -0.0011697 -0.0015072 -0.00061675 0.0005143 0.0017079 0.24171 0.0054502
-0.00588 0.010671 0.0016575 -0.0021835
-0.002037 -0.00088859 -0.00086981 0.00015685 -0.0019989 -0.00030336 -0.0058629 0.010688
0.20615 0.12163 -0.00065217 0.0095697
0.00062609 0.00047202 -0.00092007 -0.00047207 -0.0004422 -0.00077686 0.0016506 -0.0021887
-0.0006591 0.0095751 0.25574 0.17683
1760000000 0.27774 -0.07138 0.0042558 0.0067515 -0.0021088 0.00093003 0.0013569 -0.0034477
-0.0015156 0.00052411 0.00048649 -0.00058742
0.0042487 0.0067491 0.24928 0.20141 0.0017697 -0.0009009 -0.0012175 0.00018837
-0.00093429 0.0010204 -0.00055504 0.0003919
-0.0020977 0.00094959 0.0017684 -0.0009183 0.20966 -0.23002 0.0013066 0.0011113
-0.0012524 0.0014548 -0.001243 -0.0006074
0.0013308 -0.0034522 -0.0012043 0.00019363 0.0013052 0.0011166 0.23343 -0.045722
-0.0016284 0.010434 -9.0391e-05 -0.0024915
-0.0015018 0.00053897 -0.00092972 0.0010366 -0.0012409 0.0014552 -0.0016015 0.010444
0.22116 0.087921 0.0034548 0.0072937
0.0004843 -0.00058826 -0.00055469 0.00040664 -0.0012326 -0.00059018 -9.0051e-05 -0.0024803
0.0034519 0.0072946 0.26885 0.13925
1820000000 0.25277 -0.10883 0.0047201 0.0030679 6.2754e-06 0.0022565 -0.0010044 -0.0031047
-0.0013186 0.00093893 -1.3737e-05 -0.00010773
0.0047148 0.0030645 0.25905 0.17099 -1.0411e-05 -2.7011e-05 -0.0013284 0.00096739
0.00012001 0.0013173 -0.00056917 0.00053382
2.1759e-05 0.0022604 -1.204e-05 -2.6342e-05 0.16014 -0.2452 0.001537 0.00028117
-0.0002753 0.0024462 -0.0014035 0.00028649
-0.0010215 -0.0030999 -0.0013195 0.00097598 0.0015346 0.00028232 0.20434 -0.092981
0.00081668 0.0088164 -0.0014717 -0.0015463
-0.0013186 0.00094731 0.00013995 0.0013195 -0.00027148 0.0024614 0.00084222 0.0088215
0.23891 0.059978 0.004543 0.004046
-1.0695e-05 -9.4577e-05 -0.00057698 0.00054016 -0.001416 0.00028939 -0.0014746 -0.0015527
0.0045449 0.0040393 0.27191 0.10358
1880000000 0.21726 -0.14921 0.0027004 0.0005717 -0.00043998 0.0019367 -0.0030193 -0.0022215
-0.00027054 0.0018511 0.00028106 -0.00059513
0.0026909 0.00058392 0.26309 0.12428 -0.0021359 0.0015905 -0.00021068 0.0016739
0.00067508 0.0010562 9.7646e-05 0.00094281
-0.00042692 0.0019447 -0.0021335 0.0016064 0.10775 -0.25481 0.0017073 -0.00099055
0.0015534 0.0019927 -0.0010635 0.001337
-0.0030352 -0.0022034 -0.00019947 0.0016694 0.0017008 -0.0010003 0.16448 -0.13356
0.0023642 0.0064223 -0.0022323 0.00032755
-0.0002524 0.0018495 0.00067699 0.0010527 0.0015518 0.0019886 0.002369 0.0064067
0.24271 0.028317 0.0050027 0.0020746
0.00026273 -0.00058759 0.00010268 0.0009342 -0.0010539 0.0013557 -0.002245 0.00032387
0.0049971 0.0020671 0.27206 0.0693
1940000000 0.1775 -0.17474 0.00052835 -0.0013253 0.0012272 0.0019646 -0.003738 0.00054647
0.0013809 0.0011871 -0.00081101 -0.00057724
0.000537 -0.0013176 0.26326 0.092466 -0.0011186 0.0037785 0.0010104 0.0013463
0.0017395 0.00029539 0.00077753 0.00030832
0.0012334 0.0019668 -0.0010928 0.0037836 0.061786 -0.24791 0.00032528 -0.0020024
0.0024365 0.00044926 0.00017717 0.0016366
-0.0037291 0.00056688 0.0010253 0.001338 0.00032644 -0.0019958 0.11262 -0.16474
0.0019352 0.0043606 -0.0013392 0.0013839
0.001404 0.0011731 0.0017373 0.00027862 0.0024421 0.00043406 0.0019506 0.0043645
0.24573 -0.010359 0.0040711 -0.0015908
-0.00082877 -0.00056048 0.00078818 0.00029021 0.00018483 0.0016607 -0.0013373 0.0013867
0.0040703 -0.0015872 0.26174 0.034076
2000000000 0.13077 -0.18909 -0.0033981 0.0005025 0.0024399 0.0017517 -0.0023947 0.0034029
0.0012663 0.00011719 -0.00072798 0.00035166
-0.0033866 0.00049002 0.24866 0.057078 -0.0009953 0.0056685 0.001617 0.00040468
0.0010888 -0.0013645 0.00051137 0.00012455
0.0024598 0.0017255 -0.00095199 0.0056775 0.018453 -0.23315 -0.001262 -0.0012806
0.001984 -0.0011561 0.0016194 0.0012141
-0.0023736 0.0034179 0.0016244 0.00038843 -0.0012681 -0.0012788 0.059006 -0.17529
0.00037748 0.0034389 -0.00011235 0.0020013
0.0012632 0.00011186 0.0010774 -0.0013795 0.0019764 -0.0011639 0.00038664 0.0034404
0.24054 -0.044554 0.00094954 -0.0026733
