!Keysight Technologies,M9804A,MY58100912,A.14.10.03
!Date: Thursday, April 27, 2023 10:28:33
!Correction: S11(C  6-Port  ) 
!S12(C  6-Port  ) 
!S13(C  6-Port  ) 
!S14(C  6-Port  ) 
!S15(C  6-Port  ) 
!S16(C  6-Port  ) 
!S21(C  6-Port  ) 
!S22(C  6-Port  ) 
!S23(C  6-Port  ) 
!S24(C  6-Port  ) 
!S25(C  6-Port  ) 
!S26(C  6-Port  ) 
!S31(C  6-Port  ) 
!S32(C  6-Port  ) 
!S33(C  6-Port  ) 
!S34(C  6-Port  ) 
!S35(C  6-Port  ) 
!S36(C  6-Port  ) 
!S41(C  6-Port  ) 
!S42(C  6-Port  ) 
!S43(C  6-Port  ) 
!S44(C  6-Port  ) 
!S45(C  6-Port  ) 
!S46(C  6-Port  ) 
!S51(C  6-Port  ) 
!S52(C  6-Port  ) 
!S53(C  6-Port  ) 
!S54(C  6-Port  ) 
!S55(C  6-Port  ) 
!S56(C  6-Port  ) 
!S61(C  6-Port  ) 
!S62(C  6-Port  ) 
!S63(C  6-Port  ) 
!S64(C  6-Port  ) 
!S65(C  6-Port  ) 
!S66(C  6-Port  ) 
!S6P File: Measurement: :
# Hz S  RI   R 50
500000000 -0.33694 -0.04082 -0.0098662 -0.0020052 -0.0082839 0.012454 -0.0044892 0.01225
0.012393 0.0045118 -0.0047527 0.009357
-0.009853 -0.0023422 -0.41898 -0.053399 0.0079094 -0.010594 0.0011751 0.011937
0.0070092 0.0021816 0.0011105 0.013609
-0.0083238 0.013001 0.0080264 -0.010447 -0.26599 0.20808 0.0072586 0.0032842
-0.0024416 0.0079269 0.0010101 0.012107
-0.0045731 0.011954 0.0020928 0.012506 0.0073957 0.0039323 -0.33208 0.039731
-0.020288 -0.0055213 0.016733 0.025894
0.012642 0.0047015 0.0069464 0.0023447 -0.0026469 0.007694 -0.020038 -0.0059645
-0.21749 -0.20585 -0.026686 0.0058626
-0.0055768 0.0085635 0.0017594 0.013507 0.00075135 0.01224 0.016029 0.026712
-0.027166 0.0066002 -0.26103 -0.14891
560000000 -0.31772 0.12122 -0.023244 -0.062609 0.00026322 0.0135 0.0050918 0.010859
0.010361 0.0056613 0.010993 0.0084732
-0.024111 -0.063493 -0.37475 0.10714 -0.041298 -0.037757 0.014027 0.0041035
-0.011895 -0.0043211 0.0029703 -2.1342e-05
6.9043e-05 0.012801 -0.041808 -0.037076 -0.18402 0.2571 -0.00036414 -0.0044399
0.018664 0.0063302 0.0064136 -0.0058137
0.0056782 0.01108 0.014281 0.0044832 -0.00015235 -0.004061 -0.30754 0.13078
0.0048547 -0.024081 0.0048548 -0.021993
0.01153 0.005204 -0.013156 -0.0058178 0.019869 0.0058864 0.0033165 -0.024579
-0.2916 -0.031119 0.0080097 -0.049769
0.011137 0.0077991 0.0040947 0.00050931 0.0064251 -0.0058979 0.0051397 -0.021869
0.011177 -0.049322 -0.32932 0.0038242
620000000 -0.27562 0.10441 -0.023205 0.0080319 0.0033387 0.0085679 0.0085814 -0.0047097
0.0105 -0.00030644 0.0018214 -0.0022554
-0.023417 0.0079436 -0.40284 0.057981 -0.018669 0.00022031 -0.0015256 -0.0022712
0.011403 -0.0062189 0.0014569 -0.0028843
0.0033929 0.008562 -0.018506 0.00038012 -0.15471 0.26629 -0.00093126 -0.0051365
-0.002791 -0.0019993 0.0085516 -0.0034924
0.008242 -0.0053562 -0.0011111 -0.0017761 -0.0013161 -0.0055742 -0.26789 0.14196
-0.038539 -0.020582 0.013917 0.026432
0.011197 0.0013726 0.01179 -0.006195 -0.0031364 -0.0020284 -0.038313 -0.02051
-0.20639 -0.064973 -0.044244 0.015138
0.0016607 -0.0024181 0.0016442 -0.0026797 0.0081529 -0.0037134 0.012263 0.027456
-0.043329 0.016648 -0.24581 -0.03336
680000000 -0.23636 0.1923 -0.027104 -0.014262 0.005017 0.0052311 0.0014921 -0.0072739
-0.0027535 -0.011098 0.0056755 -0.0069693
-0.027414 -0.01379 -0.38813 0.15632 -0.032798 -0.0014389 -0.0014173 -0.00054233
-0.0019989 -0.0093239 -0.00072277 -0.0019099
0.0050747 0.005615 -0.03288 -0.0015206 -0.10268 0.28596 -0.00063775 -0.00047009
-0.0016451 0.00051539 -0.0028227 -0.0093817
0.0013282 -0.0073439 -0.0014928 -0.00050351 -0.00080193 -0.00026082 -0.22167 0.19314
-0.024471 -0.0070254 -0.010378 -0.011704
-0.0036346 -0.011299 -0.0019747 -0.0091672 -0.0015908 0.00036743 -0.024546 -0.0075082
-0.26147 0.032196 -0.0056796 -0.0082219
0.0053091 -0.00629 -0.00063292 -0.0020235 -0.0027294 -0.0092209 -0.0099785 -0.010992
-0.0056941 -0.0087877 -0.26059 0.073369
740000000 -0.19093 0.18561 -0.038811 0.026968 0.012849 -0.0050984 -0.00012947 -0.0044011
-0.0041837 -0.0024643 -0.0064625 0.0027383
-0.038991 0.026892 -0.33487 0.17519 -0.035757 0.035337 -0.0010313 -0.0062717
-0.010971 0.007495 -0.0023944 -0.0070796
0.013025 -0.0048638 -0.035551 0.035638 -0.068908 0.28375 -0.0021205 0.0029703
-0.0022327 -0.0051703 -0.0013438 -2.7635e-05
-0.00029858 -0.0045654 -0.00075788 -0.0063877 -0.0020928 0.0031741 -0.20552 0.20106
-0.04439 -0.0073413 0.023895 0.016006
-0.0044882 -0.0022192 -0.012182 0.006859 -0.0019089 -0.0050616 -0.043311 -0.0071613
-0.15731 0.061439 -0.045282 -5.0238e-05
-0.0064438 0.0024389 -0.0020368 -0.0066234 -0.00086678 0.00011982 0.023074 0.015801
-0.04491 0.00015615 -0.25297 0.079876
800000000 -0.15861 0.22675 -0.022287 0.016663 0.0056885 -0.010763 -0.0045771 -0.0022554
-0.0041986 0.0022912 0.00475 -3.6622e-05
-0.022244 0.016593 -0.33857 0.24539 -0.0077782 0.034079 -0.0021555 0.0022915
-0.00072263 0.0026846 0.00099356 0.0054188
0.005426 -0.010577 -0.0078362 0.034132 -0.028457 0.30717 0.000986 0.0015365
0.00027688 0.0034099 -0.001602 0.00078885
-0.0049286 -0.0019993 -0.0023912 0.0020882 0.0008621 0.0016813 -0.17652 0.2292
-0.0286 0.014152 0.014479 -0.010689
-0.0042189 0.0018953 -0.000863 0.0028195 0.00035077 0.0034999 -0.02854 0.014675
-0.20852 0.085451 -0.017766 0.01987
0.0043903 0.00062217 0.00091251 0.0052938 -0.001859 0.0011608 0.015058 -0.01053
-0.017554 0.020017 -0.24813 0.13074
860000000 -0.12418 0.24646 -0.01754 0.030473 -0.0032395 -0.010165 -0.0021433 0.00062126
0.0041428 0.004719 -0.0032858 -0.0030558
-0.01735 0.030528 -0.29107 0.28724 0.0079467 0.034229 -0.00018279 0.0018558
0.0042084 0.00029943 0.0032755 0.00083759
-0.0033556 -0.010201 0.0080391 0.034164 0.019356 0.3151 -0.00054322 -0.00021434
0.002816 -0.0013486 0.0015515 0.0042516
-0.0021013 0.00052458 0.00014417 0.0019439 -0.00052591 -0.00011763 -0.1402 0.24009
-0.018078 0.018841 -0.0059811 -0.0088327
0.0039325 0.0044012 0.0042791 0.00040807 0.0027032 -0.0013922 -0.018326 0.018942
-0.15603 0.1365 -0.026915 0.015845
-0.003747 -0.0031398 0.0035197 0.00080079 0.0017286 0.0043028 -0.0064929 -0.0091152
-0.026052 0.015789 -0.19701 0.17782
920000000 -0.099424 0.26972 0.0050924 0.037664 -0.0094661 -0.0045934 -0.0018183 0.0018401
0.00082686 0.0016339 0.0025528 -0.0018203
0.0051868 0.037742 -0.2626 0.30864 0.028118 0.021979 0.0014214 0.0010923
0.0073554 -0.00025266 0.0039151 -0.0027083
-0.0094537 -0.0045365 0.028182 0.021862 0.065406 0.31596 0.001853 -1.5425e-05
0.0011303 -0.00018671 0.00081756 -0.0012401
-0.0018404 0.00199 0.0014096 0.0010201 0.0018782 -3.8556e-05 -0.11647 0.25746
-0.010808 0.031438 0.0042119 -0.0069721
0.00098605 0.001638 0.0070203 -8.6163e-05 0.0011879 -0.00019155 -0.010601 0.031593
-0.14659 0.143 -0.0025608 0.027856
0.0025707 -0.0015377 0.004015 -0.003122 0.000908 -0.001192 0.0038553 -0.0069199
-0.0024377 0.028312 -0.20924 0.19308
980000000 -0.052659 0.28909 0.017523 0.030036 -0.0092736 0.0045759 0.0019711 0.0034591
0.0040506 -0.0014746 -0.0032024 -0.0024198
0.017458 0.030133 -0.20969 0.34267 0.033139 0.0049263 0.0019774 -4.9367e-05
0.0018272 -0.0058979 -0.0002333 -0.0025948
-0.0092895 0.0046438 0.033276 0.0048194 0.11168 0.30967 0.00054289 -0.0011421
0.00037888 -0.0020684 0.001499 -0.00030611
0.0020214 0.0033743 0.0019657 -5.1242e-06 0.00055772 -0.0012301 -0.077742 0.26864
0.0082224 0.030946 -0.0091934 -0.0075395
0.0039938 -0.0013964 0.0017302 -0.005859 0.00032482 -0.0020519 0.0082502 0.030902
-0.11575 0.17282 0.0046347 0.020231
-0.0032027 -0.0024506 -0.00038278 -0.0024063 0.0013608 -0.00037304 -0.0091055 -0.0074871
0.004656 0.020023 -0.16648 0.24005
1040000000 -0.010619 0.29755 0.033247 0.018217 -0.0014455 0.0070408 0.0024184 0.00066675
0.0002122 -0.0037089 -0.00026888 -0.0015808
0.033116 0.018196 -0.17431 0.35596 0.029545 -0.014953 0.0014701 -0.0017962
-0.0025311 -0.0025172 -0.0013461 -0.0025294
-0.001253 0.0069771 0.029571 -0.01505 0.15786 0.29612 -0.00055177 -0.0016229
-0.0016899 -0.00091522 -0.00054642 -0.0011037
0.0024185 0.00072933 0.0014986 -0.0017444 -0.00054988 -0.0015703 -0.050676 0.27895
0.02028 0.01881 -0.0021792 0.001059
0.00022302 -0.0035342 -0.0024397 -0.0027019 -0.0016559 -0.00088127 0.020216 0.018839
-0.082843 0.18077 0.013746 0.019573
-3.2667e-05 -0.0013046 -0.0014513 -0.002482 -0.00055145 -0.00099609 -0.0022417 0.00099816
0.013988 0.019622 -0.14637 0.26148
1100000000 0.034813 0.30595 0.035924 -0.0041634 0.0028188 0.0039847 0.0023184 -0.0012554
-0.0019313 -0.0032328 -0.0038585 -2.8382e-05
0.035951 -0.0041369 -0.13103 0.37324 0.015207 -0.028033 -7.3425e-05 -0.0018257
-0.0034474 -0.00095308 -0.0035296 -0.00038506
0.002827 0.00399 0.015098 -0.028098 0.20438 0.27583 -0.0019546 0.00020442
-0.0019039 0.00048453 -0.0010544 -0.00036359
0.0024428 -0.001343 -7.3153e-05 -0.0018271 -0.0019316 0.00022627 -0.01012 0.2842
0.025817 0.0053245 -0.0028503 -0.00025131
-0.0020058 -0.0030844 -0.0034138 -0.00092534 -0.0018138 0.00045623 0.025747 0.0053038
-0.065823 0.19391 0.0195 0.0092974
-0.0040087 -0.00020218 -0.0036976 -0.00043171 -0.0011167 -0.0003493 -0.002952 -9.3151e-05
0.019423 0.0092475 -0.10095 0.29393
1160000000 0.086061 0.30102 0.023976 -0.020916 0.0027057 -0.00048265 -0.00026707 -0.002285
-0.0041834 -0.00085508 -0.0010102 0.0040453
0.023943 -0.020818 -0.087479 0.37775 -0.0038529 -0.029378 -0.0017964 -0.001683
-0.0028508 0.0024586 -0.0014177 0.0019298
0.0027734 -0.00052533 -0.0040309 -0.029387 0.24755 0.24497 -0.00066956 0.0018182
-0.00066125 0.0019984 -0.0010439 0.00035864
-0.00035224 -0.0023151 -0.0016706 -0.0017077 -0.00068664 0.0018087 0.029118 0.28155
0.02228 -0.011156 -0.0031638 0.005133
-0.0041034 -0.00092733 -0.0028295 0.0024604 -0.0006482 0.0020231 0.022205 -0.011433
-0.032487 0.20324 0.019132 0.00096546
-0.00090336 0.004013 -0.0015052 0.0018297 -0.0011444 0.00033677 -0.0031556 0.0052583
0.019318 0.0010649 -0.053999 0.29768
1220000000 0.13047 0.29041 0.010384 -0.03018 -0.0016309 -0.00078052 -6.9891e-06 -0.00083099
-0.0027174 0.0023475 0.0013293 0.0021081
0.010399 -0.030145 -0.042837 0.38989 -0.017085 -0.021195 -0.0025277 0.00045691
-4.5142e-05 0.0031697 -0.00081527 0.0019743
-0.0016283 -0.00078984 -0.017226 -0.021134 0.28667 0.20563 0.00084123 0.0017059
0.00063292 0.0012527 0.0003891 0.00070032
2.9255e-06 -0.0008215 -0.002568 0.00046162 0.00083076 0.0016801 0.06937 0.27324
0.011061 -0.018251 0.0019174 0.0014787
-0.0027431 0.0024782 -7.1481e-05 0.0031558 0.00063079 0.0012506 0.011129 -0.018253
-0.010986 0.21251 0.015021 -0.013142
0.0012687 0.0020574 -0.00082588 0.0020016 0.00031073 0.00070608 0.0019112 0.0014845
0.015081 -0.012835 -0.023568 0.31647
1280000000 0.18042 0.26833 -0.0080463 -0.028676 -0.0018144 0.0025227 -0.00084338 -0.0019743
-0.00091068 0.0031002 0.0024876 0.0012635
-0.0081027 -0.028631 0.0032255 0.3809 -0.023932 -0.008462 -0.0010119 0.0015015
0.001698 0.0018201 0.00070057 0.0021314
-0.0018468 0.0025326 -0.024037 -0.0083843 0.31694 0.16165 0.0016402 -6.9612e-06
0.0011544 0.00029049 0.00043099 0.00030501
-0.00086306 -0.0019859 -0.00091362 0.0014456 0.0016993 -8.0082e-06 0.10637 0.2567
0.0010602 -0.02048 -0.00042246 0.00015869
-0.0008194 0.0030444 0.00171 0.001925 0.0012655 0.00037451 0.00094656 -0.020439
0.025741 0.21677 0.0035404 -0.015531
0.0025825 0.0012654 0.0006558 0.0020596 0.00039301 0.00024581 -0.00035063 7.5195e-05
0.0035501 -0.015624 0.025185 0.32036
1340000000 0.21767 0.2347 -0.017873 -0.018905 0.00093775 0.0045183 -0.001715 -0.00083533
0.0014058 0.0028345 0.0017989 -0.001394
-0.017841 -0.018901 0.042759 0.37249 -0.02172 0.0043735 -0.0001335 0.0020006
0.0019602 0.00086208 0.0013901 0.00080376
0.00094506 0.0045295 -0.021731 0.0044899 0.33871 0.11391 0.0011798 -0.00097902
0.00072246 -0.00047484 0.0001843 0.0003156
-0.00166 -0.00084283 -9.7994e-05 0.0020239 0.0012215 -0.0010056 0.13862 0.23626
-0.0090492 -0.017601 0.00067112 0.0007542
0.001478 0.0028692 0.0019836 0.00081904 0.00083074 -0.00049183 -0.0091858 -0.017608
0.055282 0.21289 -0.0033916 -0.014245
0.0018101 -0.0014351 0.0014292 0.00075443 0.00018374 0.00027894 0.00067798 0.00066359
-0.0032872 -0.014246 0.063668 0.31742
1400000000 0.25066 0.19641 -0.023614 -0.0072296 0.0051947 0.0031078 -0.002099 0.00062464
0.0023965 0.00094743 0.00037977 -0.0013932
-0.023572 -0.0072375 0.080076 0.35925 -0.014843 0.012604 0.0013022 0.0013275
0.0012242 -0.00085819 0.0013231 0.00024003
0.0052368 0.0030564 -0.014765 0.012664 0.35161 0.060619 0.00014263 -0.0017834
-3.2183e-06 -0.00047801 0.00046214 0.00024735
-0.0020785 0.00063639 0.0012844 0.0012864 0.00016847 -0.0017954 0.16787 0.20738
-0.015416 -0.010393 -0.00097223 -0.00022671
0.0024446 0.00089427 0.0012516 -0.00083767 -4.0991e-05 -0.00045948 -0.015471 -0.010339
0.087876 0.20903 -0.010161 -0.0095676
0.00029153 -0.0014293 0.0011847 0.00024968 0.00045318 0.00028695 -0.0009888 -0.00027542
-0.010077 -0.0095783 0.10973 0.30752
1460000000 0.2734 0.15213 -0.020363 0.0050517 0.0056102 -0.0018428 -0.0016274 0.0016843
0.0022257 -0.00047359 -0.00036599 -0.0010187
-0.020375 0.0050244 0.11399 0.33732 -0.0060394 0.01544 0.0017185 0.00019803
0.00087106 -0.001345 0.0011554 -0.00062548
0.0056342 -0.0019051 -0.0059801 0.015498 0.35775 0.006576 -0.0013355 -0.0013269
0.00016192 -0.00034868 0.00058289 -0.00035956
-0.0016384 0.0017403 0.0017604 0.0001604 -0.0013618 -0.001326 0.19395 0.17855
-0.016825 -0.0029935 -0.00088406 0.002351
0.0021332 -0.00041195 0.00085832 -0.001364 0.00016036 -0.00028324 -0.016874 -0.0029178
0.11674 0.19466 -0.012443 -0.0031014
-0.00033595 -0.001022 0.0011213 -0.0007239 0.0006837 -0.00043463 -0.00085046 0.0024118
-0.012343 -0.0031258 0.14374 0.28732
1520000000 0.2853 0.11037 -0.014609 0.010568 0.0033536 -0.0041929 0.00011974 0.0026508
0.002307 -0.0017021 -0.0011527 -0.00018826
-0.014592 0.010516 0.14733 0.32258 0.0016766 0.013156 0.0016614 -0.00077869
-1.4384e-05 -0.0010108 0.00031824 -0.0010223
0.0033463 -0.0042421 0.001766 0.013128 0.35105 -0.049278 -0.001245 -0.00035515
0.00060638 -0.00080219 5.7596e-05 -3.8908e-05
0.0001481 0.0026725 0.001666 -0.00077666 -0.0012417 -0.00031394 0.2168 0.14112
-0.015851 0.0032823 0.0016758 0.0023161
0.0022818 -0.0017409 -4.5871e-05 -0.0010528 0.00055753 -0.00084227 -0.015913 0.0033123
0.14428 0.18138 -0.012456 0.001637
-0.0011949 -0.00024198 0.00035389 -0.0010033 0.00013589 -5.3684e-05 0.0017369 0.0023453
-0.012436 0.0016914 0.17791 0.26864
1580000000 0.29423 0.064282 -0.007829 0.013522 -0.00093439 -0.0049104 0.0014515 0.0019353
-0.00018927 -0.0022279 -0.00035568 0.00053311
-0.0078254 0.013515 0.17436 0.2979 0.0052696 0.0082636 0.00052139 -0.001626
-0.00062725 -0.0010589 -0.00033414 -0.00076057
-0.00096704 -0.0049398 0.0053167 0.0082297 0.33102 -0.10678 -0.0015537 0.00077714
-0.0002287 -0.0012245 0.00010588 -0.00056037
0.0014795 0.0019356 0.00049734 -0.0016591 -0.0016045 0.00075525 0.23049 0.10261
-0.011864 0.0084746 0.0025915 0.00093484
-0.0002137 -0.0021893 -0.00062223 -0.0010543 -0.00024681 -0.0012565 -0.011893 0.0085541
0.16831 0.16371 -0.0097046 0.0077739
-0.00028288 0.00047779 -0.00033122 -0.00078485 0.00013848 -0.00052022 0.0024886 0.0007596
-0.0096865 0.0077728 0.21149 0.24221
1640000000 0.29593 0.023295 -0.001055 0.012292 -0.0027334 -0.0026837 0.0027547 0.0009623
-0.0006513 -0.0017054 -0.0002197 0.00054859
-0.0010516 0.012271 0.20369 0.27317 0.0060259 0.0034295 -0.00068981 -0.0017808
-0.00099017 -0.00032467 -0.0004481 -0.00071522
-0.0027996 -0.0026708 0.006038 0.0033987 0.30314 -0.15582 -0.00054891 0.0015346
-0.0011298 -0.0010739 -0.00016077 -0.00048364
0.0027549 0.00094397 -0.00071362 -0.00178 -0.00053867 0.0015627 0.24296 0.054891
-0.0071184 0.0097493 0.0026787 -0.00086265
-0.00062694 -0.0016553 -0.0009986 -0.00033296 -0.0010663 -0.0011176 -0.0071552 0.0097818
0.19033 0.14025 -0.0047086 0.009882
-0.00024881 0.00052812 -0.00047717 -0.00069849 -0.0001746 -0.00049515 0.00261 -0.00083049
-0.004632 0.0098238 0.23771 0.21178
1700000000 0.28871 -0.021572 0.0022536 0.0092785 -0.0035636 6.4832e-05 0.0030649 -0.0013156
-0.0021135 -0.00083783 0.00064849 0.00041537
0.0022507 0.0092905 0.22174 0.24183 0.0039046 0.00052934 -0.0015047 -0.00061163
-0.00070173 8.6778e-05 -0.0009439 -0.00047445
-0.0035855 0.00010923 0.0039472 0.0005019 0.25977 -0.19587 0.00058919 0.0015797
-0.0019786 -0.00019883 -0.00047708 -0.0009208
0.0030521 -0.0012873 -0.0015036 -0.00063399 0.00057733 0.0016177 0.24066 0.0062831
-0.0041011 0.010122 0.0016789 -0.0024278
-0.002162 -0.00081627 -0.00069343 5.14e-05 -0.0020121 -0.00020844 -0.0040482 0.01014
0.20725 0.12039 0.00024463 0.010207
0.000617 0.00045311 -0.00094462 -0.00050244 -0.00043302 -0.00087573 0.0016395 -0.0022146
0.00022356 0.010173 0.25532 0.17752
1760000000 0.27652 -0.06971 0.0044269 0.0059235 -0.0023649 0.0010027 0.0012117 -0.0034474
-0.001493 0.00066118 0.0003262 -0.00069235
0.0044059 0.0058978 0.24766 0.20222 0.0015662 -0.0012174 -0.0012594 0.00020966
-0.00093884 0.0008499 -0.00056176 0.00035582
-0.0023329 0.0010127 0.0015919 -0.0012448 0.21086 -0.22921 0.0011671 0.0010065
-0.0012634 0.0014845 -0.0013328 -0.00050834
0.0012382 -0.0034869 -0.0012229 0.00019421 0.0012545 0.00095722 0.23275 -0.044374
-0.00061752 0.0090871 -0.00012225 -0.0027338
-0.0014714 0.00070236 -0.00090191 0.00085746 -0.0011972 0.0015581 -0.00058494 0.0090807
0.22164 0.086554 0.0045096 0.0074096
0.00028976 -0.00067729 -0.00056507 0.00042093 -0.0014038 -0.00056132 -5.4927e-05 -0.0028321
0.0044622 0.0074132 0.26865 0.14
1820000000 0.25235 -0.10667 0.0044512 0.0024173 -9.2874e-06 0.0024398 -0.0011006 -0.0030354
-0.0012028 0.00099176 -9.7958e-05 -6.365e-05
0.0044263 0.0024216 0.25781 0.17233 -0.00030433 -0.00010346 -0.0013383 0.00098823
-2.2435e-05 0.0011794 -0.00058012 0.00054093
2.4714e-05 0.0025002 -0.00033509 -0.00013373 0.16142 -0.24495 0.0014022 0.00036915
-0.00017624 0.0023491 -0.0013266 0.00050823
-0.0011367 -0.0030026 -0.0013319 0.00095364 0.001354 0.0003403 0.20447 -0.091426
0.0009878 0.0073936 -0.0016473 -0.0018241
-0.0012148 0.0010021 -7.506e-05 0.0011848 -0.00018346 0.0023193 0.00092729 0.0074371
0.23862 0.058585 0.005489 0.0036412
-9.2943e-05 -7.5451e-05 -0.00055741 0.00049597 -0.0013914 0.00045548 -0.001765 -0.0017835
0.0055434 0.0036202 0.27193 0.10436
1880000000 0.21779 -0.14697 0.0022174 0.00022075 -0.00042243 0.0020721 -0.0030043 -0.0022242
-0.00010641 0.0018011 0.0002593 -0.00047763
0.0022302 0.00019341 0.26237 0.12588 -0.0023805 0.0016013 -0.0001924 0.0016273
0.00044091 0.0011478 5.9986e-05 0.00094937
-0.00036934 0.0021156 -0.0023547 0.0016227 0.10898 -0.25485 0.0016937 -0.000909
0.0013491 0.0019634 -0.0010742 0.0014095
-0.0029571 -0.0021418 -0.00017763 0.0017198 0.0016871 -0.00085706 0.16533 -0.1324
0.0018238 0.0052635 -0.0025726 0.00025343
-0.00011706 0.0017669 0.00048706 0.0011543 0.0015389 0.0020121 0.001865 0.0051218
0.24177 0.027179 0.005577 0.0012033
0.00021057 -0.00046042 5.6606e-05 0.00090378 -0.0010305 0.0013821 -0.0026226 0.00023143
0.0056024 0.0012312 0.27244 0.069549
1940000000 0.17878 -0.17264 8.7971e-06 -0.0013623 0.0013185 0.0020522 -0.0036476 0.00056093
0.0013615 0.0010929 -0.00072547 -0.00046151
4.4529e-05 -0.0013323 0.263 0.09422 -0.0012342 0.003836 0.0010199 0.0013655
0.0016671 0.00052582 0.00073844 0.00032179
0.0012753 0.0021047 -0.0012317 0.0038571 0.062813 -0.24839 0.00045522 -0.0019928
0.0023996 0.00049804 0.00010177 0.0016549
-0.0037648 0.00064691 0.0010572 0.001394 0.0004978 -0.0020044 0.11374 -0.1641
0.001085 0.0037411 -0.0016885 0.0014841
0.0013718 0.0011422 0.0016679 0.00052484 0.0024232 0.00054494 0.0010005 0.003692
0.24436 -0.010767 0.0041587 -0.002554
-0.00067486 -0.0004395 0.00076193 0.00034719 0.00015796 0.0016011 -0.001675 0.0015033
0.0041363 -0.0026321 0.26205 0.034119
2000000000 0.13274 -0.18785 -0.0037842 0.00062498 0.0025027 0.0016757 -0.0023292 0.003459
0.0011073 -4.6553e-05 -0.00056749 0.00035699
-0.0037916 0.00064138 0.24901 0.058625 -0.001104 0.005726 0.0016054 0.00046041
0.0012727 -0.0012349 0.00058533 0.00022597
0.0024777 0.0017135 -0.0010702 0.0057498 0.018761 -0.23388 -0.0011903 -0.0013615
0.0019953 -0.0011016 0.0016962 0.0013252
-0.0023307 0.0035185 0.0016467 0.00036503 -0.001108 -0.0013902 0.060566 -0.17552
-0.00065814 0.0031971 -0.00019543 0.0021948
0.0011169 3.5635e-05 0.0012673 -0.0011888 0.0020151 -0.0011237 -0.00042305 0.0032521
0.23914 -0.044301 0.00070802 -0.0033571
