!Keysight Technologies,M9804A,MY58100912,A.14.10.03
!Date: Thursday, April 27, 2023 10:28:33
!Correction: S11(C  6-Port  ) 
!S12(C  6-Port  ) 
!S13(C  6-Port  ) 
!S14(C  6-Port  ) 
!S15(C  6-Port  ) 
!S16(C  6-Port  ) 
!S21(C  6-Port  ) 
!S22(C  6-Port  ) 
!S23(C  6-Port  ) 
!S24(C  6-Port  ) 
!S25(C  6-Port  ) 
!S26(C  6-Port  ) 
!S31(C  6-Port  ) 
!S32(C  6-Port  ) 
!S33(C  6-Port  ) 
!S34(C  6-Port  ) 
!S35(C  6-Port  ) 
!S36(C  6-Port  ) 
!S41(C  6-Port  ) 
!S42(C  6-Port  ) 
!S43(C  6-Port  ) 
!S44(C  6-Port  ) 
!S45(C  6-Port  ) 
!S46(C  6-Port  ) 
!S51(C  6-Port  ) 
!S52(C  6-Port  ) 
!S53(C  6-Port  ) 
!S54(C  6-Port  ) 
!S55(C  6-Port  ) 
!S56(C  6-Port  ) 
!S61(C  6-Port  ) 
!S62(C  6-Port  ) 
!S63(C  6-Port  ) 
!S64(C  6-Port  ) 
!S65(C  6-Port  ) 
!S66(C  6-Port  ) 
!S6P File: Measurement: :
# Hz S  RI   R 50
500000000 -0.3368 -0.040686 -0.009764 -0.0024548 -0.0082805 0.012461 -0.0045739 0.01232
0.012888 0.0046174 -0.0050047 0.0093066
-0.009743 -0.0024932 -0.41852 -0.052682 0.0082875 -0.010686 0.0016158 0.012278
0.007841 0.001924 0.001665 0.013317
-0.0082819 0.012407 0.0082914 -0.010733 -0.26487 0.20821 0.0078586 0.0035429
-0.0021348 0.0077484 0.0014454 0.012142
-0.0045199 0.012299 0.00163 0.012286 0.0078258 0.0035573 -0.33158 0.040309
-0.01942 -0.0063367 0.016291 0.026299
0.012829 0.0045869 0.0078199 0.0018656 -0.0021118 0.0077191 -0.019449 -0.0063415
-0.21792 -0.20648 -0.026182 0.0053059
-0.0051837 0.0091744 0.0016954 0.01345 0.0015021 0.012107 0.016311 0.026318
-0.026208 0.0054364 -0.26166 -0.14738
560000000 -0.31615 0.12103 -0.023415 -0.063396 -0.00026422 0.012169 0.0053553 0.011105
0.01032 0.0049478 0.011207 0.0078872
-0.023371 -0.063262 -0.37724 0.10702 -0.040781 -0.038002 0.014233 0.0038967
-0.013148 -0.0052946 0.0027904 0.0002203
-0.00021193 0.012189 -0.040935 -0.037991 -0.18347 0.25659 -0.00086393 -0.0043091
0.019701 0.0050633 0.0066181 -0.0059541
0.0053616 0.011095 0.014336 0.0038922 -0.00089803 -0.0042467 -0.30665 0.13019
0.0036233 -0.024005 0.0043992 -0.021855
0.010387 0.0049366 -0.013153 -0.005262 0.019629 0.005066 0.0036165 -0.024066
-0.28852 -0.03058 0.0095777 -0.049647
0.011024 0.007939 0.002967 0.00022265 0.0066194 -0.0057628 0.0045857 -0.021868
0.0095968 -0.049563 -0.32953 0.0042072
620000000 -0.27594 0.10511 -0.023323 0.0078075 0.0028027 0.0083992 0.0081835 -0.0054682
0.010825 0.00030829 0.0020202 -0.0022155
-0.023297 0.0077503 -0.40247 0.058398 -0.018653 -0.00032203 -0.0013564 -0.0020159
0.01136 -0.0063863 0.0017066 -0.0032088
0.0028669 0.0083479 -0.018663 -0.00027548 -0.15446 0.26554 -0.0013747 -0.0051687
-0.0031237 -0.0024773 0.0080874 -0.0035772
0.0081916 -0.0055182 -0.0013659 -0.0019999 -0.0013659 -0.0051564 -0.26698 0.14187
-0.038473 -0.020289 0.012873 0.026961
0.010729 0.00030595 0.011386 -0.0064605 -0.0030905 -0.0024389 -0.03845 -0.020218
-0.20613 -0.068296 -0.042603 0.014391
0.0016281 -0.0023481 0.0017139 -0.0032623 0.0080597 -0.0038235 0.012757 0.027102
-0.042701 0.014356 -0.24742 -0.034329
680000000 -0.23537 0.19114 -0.027325 -0.014641 0.0046529 0.0051541 0.0016306 -0.0071455
-0.0033302 -0.011162 0.0055805 -0.0068993
-0.027286 -0.014645 -0.38803 0.15661 -0.032876 -0.0016177 -0.0016852 -0.00043655
-0.0022733 -0.0088431 -0.00097806 -0.0016721
0.0046806 0.005084 -0.032909 -0.0015344 -0.10286 0.28558 -0.00068363 -0.00018524
-0.0018105 0.00064923 -0.0027879 -0.0092201
0.0016239 -0.0071581 -0.0016879 -0.00043153 -0.00069493 -0.00018147 -0.22206 0.19336
-0.023683 -0.007507 -0.0098154 -0.012108
-0.0033956 -0.011247 -0.0022987 -0.0088547 -0.0018234 0.00063064 -0.023804 -0.0075167
-0.26025 0.031329 -0.0052897 -0.0089321
0.0054186 -0.0068286 -0.00096293 -0.0015986 -0.002749 -0.0092126 -0.00986 -0.011967
-0.0053701 -0.0090118 -0.26169 0.074412
740000000 -0.1913 0.18561 -0.038882 0.026883 0.012432 -0.0049645 -0.00011228 -0.0042901
-0.0038091 -0.0026684 -0.0061131 0.0024234
-0.038802 0.026815 -0.33535 0.17563 -0.03565 0.034989 -0.00080481 -0.0063212
-0.011255 0.0076843 -0.0023344 -0.0066208
0.01241 -0.0049977 -0.035592 0.035112 -0.068879 0.28428 -0.0022827 0.0029912
-0.0020572 -0.0047157 -0.0017029 -0.00015127
-0.00014332 -0.0042871 -0.00084028 -0.0063359 -0.0022933 0.0030346 -0.20508 0.20117
-0.044563 -0.0074173 0.023463 0.015826
-0.0038954 -0.0027363 -0.011256 0.0077911 -0.0020618 -0.0047117 -0.044656 -0.0073399
-0.15813 0.058349 -0.045306 -0.00073977
-0.0062793 0.0025167 -0.0023756 -0.0066034 -0.0016556 -0.00016896 0.023394 0.015934
-0.045621 -0.00060736 -0.25228 0.080229
800000000 -0.15876 0.22645 -0.022664 0.016566 0.0052065 -0.010558 -0.0047487 -0.0022638
-0.0040835 0.0021413 0.0048508 9.7985e-05
-0.022671 0.016567 -0.33858 0.24594 -0.0080139 0.033921 -0.0023716 0.0021991
-0.00064036 0.0027727 0.00094077 0.0052117
0.0051739 -0.010568 -0.0079314 0.033983 -0.028354 0.30746 0.00097313 0.0014732
0.00028631 0.0033787 -0.0018264 0.00066259
-0.0047505 -0.002253 -0.0023555 0.0022049 0.00098639 0.0014642 -0.17677 0.22947
-0.028964 0.013936 0.014254 -0.010469
-0.0040489 0.0022299 -0.00061873 0.0027524 0.000293 0.0033748 -0.028952 0.013991
-0.20881 0.08261 -0.017959 0.019145
0.004778 -3.815e-06 0.0010075 0.0051359 -0.0018343 0.0006649 0.014252 -0.010514
-0.018056 0.019064 -0.2485 0.13092
860000000 -0.12412 0.24692 -0.017782 0.03055 -0.0033919 -0.0098429 -0.0023648 0.00083987
0.0039486 0.0045631 -0.0033449 -0.0032388
-0.017776 0.030546 -0.29098 0.28797 0.0076907 0.034051 -2.2782e-05 0.0019543
0.0041783 8.6273e-06 0.0033289 0.00065832
-0.0034313 -0.0098458 0.0077971 0.034059 0.019825 0.3153 -0.00053162 -0.00022155
0.0028424 -0.0014722 0.0013014 0.0043629
-0.0023697 0.000851 -1.7266e-05 0.0019657 -0.00053175 -0.00022299 -0.14003 0.24057
-0.018207 0.018767 -0.0063363 -0.0092238
0.0039803 0.0045746 0.0041571 -8.8435e-06 0.0028425 -0.001478 -0.018175 0.018793
-0.15754 0.13579 -0.027087 0.015104
-0.003398 -0.0032129 0.0033467 0.00058693 0.0012961 0.0043394 -0.006338 -0.0091797
-0.027029 0.015179 -0.1967 0.17887
920000000 -0.099446 0.27041 0.0048804 0.037988 -0.0093642 -0.0042446 -0.0018846 0.0019213
0.00079586 0.0016318 0.0025307 -0.0015912
0.004917 0.037971 -0.26222 0.30944 0.027829 0.02201 0.001373 0.0011786
0.0071593 -0.0002384 0.0040125 -0.0026527
-0.0093579 -0.0042092 0.027926 0.021964 0.066037 0.31583 0.0018492 2.3255e-05
0.0011099 -0.00027387 0.00090141 -0.00098202
-0.0018884 0.0019312 0.0013691 0.0011499 0.0018486 2.2955e-05 -0.11612 0.25755
-0.011009 0.031204 0.0039518 -0.0067039
0.00082345 0.0016205 0.0071393 -0.00028184 0.0011086 -0.00028474 -0.010945 0.031228
-0.14807 0.14225 -0.0030968 0.027991
0.0024894 -0.0016348 0.0040236 -0.0027229 0.00088337 -0.0009474 0.0039838 -0.0066187
-0.0031293 0.027928 -0.209 0.19276
980000000 -0.051804 0.28988 0.017429 0.03009 -0.0088737 0.0047525 0.0021044 0.0035711
0.0038607 -0.0013766 -0.0034649 -0.0021766
0.017413 0.030118 -0.20905 0.34344 0.032824 0.0050852 0.0020196 2.3977e-05
0.0015793 -0.0056195 -0.00037103 -0.0023893
-0.0088563 0.0047712 0.032855 0.0049775 0.11215 0.30918 0.00052574 -0.0011507
0.00033517 -0.0020359 0.0014708 -0.00018128
0.0021151 0.003583 0.0020241 3.7452e-05 0.00051955 -0.0011354 -0.07747 0.26887
0.0077863 0.030587 -0.0091344 -0.0075456
0.0038937 -0.0014031 0.0015574 -0.0056522 0.0003404 -0.0020279 0.0078499 0.030581
-0.11674 0.17215 0.0044215 0.019779
-0.0034819 -0.0021825 -0.00040027 -0.0023869 0.0014636 -0.00017724 -0.0092012 -0.0074826
0.0044269 0.019854 -0.16621 0.24027
1040000000 -0.0095746 0.29814 0.033113 0.018391 -0.0011266 0.0069071 0.0025495 0.00062312
1.8785e-05 -0.0037182 -0.00014047 -0.0014331
0.033095 0.018435 -0.17332 0.35633 0.02928 -0.014538 0.0014711 -0.0016801
-0.0024758 -0.0024542 -0.0011915 -0.0024576
-0.0010829 0.0069096 0.029239 -0.01464 0.15789 0.29539 -0.00046256 -0.0015646
-0.0015883 -0.00084883 -0.00038585 -0.001107
0.0025524 0.00062909 0.0014883 -0.0016909 -0.00045234 -0.001556 -0.050141 0.27903
0.019531 0.018792 -0.0019881 0.0014546
2.6885e-05 -0.0037001 -0.0025247 -0.0024447 -0.0016048 -0.00082789 0.019552 0.018784
-0.084251 0.18062 0.013103 0.019647
-0.00015283 -0.0014537 -0.0012201 -0.0024665 -0.00040216 -0.0011261 -0.0019401 0.0014544
0.013116 0.019636 -0.14621 0.26164
1100000000 0.035793 0.30596 0.035698 -0.0039989 0.0030072 0.0038076 0.00235 -0.0013163
-0.0019781 -0.0031716 -0.0038176 -3.4864e-05
0.03567 -0.003988 -0.12989 0.37332 0.015236 -0.027435 -1.7462e-05 -0.0017612
-0.0031847 -0.0008766 -0.0034726 -0.00053199
0.0030083 0.0038049 0.015141 -0.027516 0.20388 0.27531 -0.0018606 0.00018553
-0.0017348 0.00040033 -0.0010792 -0.00040686
0.0023395 -0.001323 -3.6269e-05 -0.0017792 -0.0018697 0.0001809 -0.0097474 0.28396
0.025013 0.0056857 -0.0025206 -6.6948e-05
-0.0019901 -0.0031314 -0.0032087 -0.00087081 -0.0017409 0.0004124 0.02503 0.00565
-0.066433 0.19439 0.019107 0.0094737
-0.0038119 6.8234e-06 -0.0034645 -0.00052199 -0.0010787 -0.00039794 -0.0025106 -7.761e-05
0.019061 0.0094647 -0.10067 0.29401
1160000000 0.087285 0.30083 0.024019 -0.020374 0.0027683 -0.00060821 -0.00038251 -0.0023811
-0.0040942 -0.00087746 -0.00091213 0.0040778
0.024025 -0.020333 -0.086291 0.37722 -0.0033618 -0.028885 -0.001699 -0.0016474
-0.0027806 0.0022725 -0.0013764 0.001805
0.0027725 -0.00061695 -0.0035112 -0.02889 0.24681 0.24494 -0.00068827 0.0017167
-0.00072223 0.001896 -0.00098508 0.00021386
-0.00039331 -0.0023829 -0.0016939 -0.001651 -0.00069072 0.0017072 0.029533 0.28114
0.02187 -0.010048 -0.0030716 0.0051979
-0.0040989 -0.00085904 -0.0027922 0.0022658 -0.0007424 0.0019036 0.021855 -0.010097
-0.032367 0.20373 0.018472 0.0015732
-0.0009289 0.0040705 -0.0014058 0.0018114 -0.0010065 0.00022707 -0.0030782 0.0051621
0.018455 0.0015719 -0.05344 0.2973
1220000000 0.13153 0.28958 0.01067 -0.02971 -0.0015492 -0.00097597 -1.4334e-05 -0.00083015
-0.002631 0.002362 0.0013112 0.0020072
0.010678 -0.029657 -0.042236 0.38918 -0.016444 -0.021088 -0.0024918 0.00040149
-8.1507e-05 0.0029215 -0.00085294 0.0018684
-0.0015525 -0.00098218 -0.016566 -0.021036 0.28614 0.20638 0.00075175 0.0016075
0.00054678 0.0012254 0.00028255 0.00069803
-1.7125e-05 -0.00083784 -0.0024874 0.00041073 0.00074907 0.0015952 0.069321 0.2728
0.011269 -0.017004 0.0022409 0.0013683
-0.0026153 0.0023788 -6.3048e-05 0.0029114 0.00055121 0.0012259 0.011267 -0.017023
-0.010412 0.21268 0.014952 -0.012018
0.0012883 0.0020221 -0.00084357 0.0018787 0.00031485 0.00068129 0.0022675 0.0013708
0.014933 -0.011992 -0.023153 0.31632
1280000000 0.18105 0.26744 -0.0074356 -0.028302 -0.0018912 0.0022934 -0.00083788 -0.0019262
-0.00082305 0.0029383 0.0024372 0.0011931
-0.007396 -0.028272 0.0032952 0.3802 -0.023298 -0.0087728 -0.0010185 0.0014063
0.0014815 0.0018308 0.0005653 0.0021025
-0.0018717 0.0022796 -0.023367 -0.0086647 0.31711 0.16268 0.0015747 4.4247e-05
0.001125 0.00039639 0.00047536 0.000351
-0.00084709 -0.0019222 -0.0010072 0.0014174 0.0015704 4.4452e-05 0.10606 0.25648
0.0020972 -0.019394 -0.00018825 -4.1778e-05
-0.00079555 0.0029538 0.0014932 0.0018302 0.0011274 0.00039274 0.0020567 -0.019398
0.026254 0.21636 0.0039723 -0.014664
0.002453 0.0011727 0.00057563 0.0020841 0.00045155 0.0003347 -0.0001779 -1.9414e-05
0.0039469 -0.014641 0.025683 0.32018
1340000000 0.21781 0.23372 -0.017083 -0.019121 0.00070418 0.0043747 -0.0015989 -0.00079255
0.0014322 0.0027305 0.0017365 -0.0013056
-0.017058 -0.01914 0.042528 0.37226 -0.021447 0.0037803 -0.00020554 0.0019896
0.0018569 0.00097452 0.0013034 0.0008331
0.0007275 0.004371 -0.021454 0.0038947 0.33965 0.11477 0.0011376 -0.00083387
0.00077241 -0.00043925 0.00021226 0.000335
-0.0016027 -0.00080022 -0.00020645 0.0020024 0.0011406 -0.00083184 0.13831 0.23641
-0.0075502 -0.017201 0.00084237 0.00043283
0.0014414 0.002743 0.0018496 0.00096385 0.00076158 -0.00042765 -0.0075865 -0.017208
0.055269 0.21179 -0.0024188 -0.013523
0.0017333 -0.0013144 0.0013061 0.00081944 0.00022181 0.00033345 0.0008453 0.00041321
-0.0024387 -0.013548 0.063659 0.31739
1400000000 0.25054 0.19571 -0.023023 -0.007894 0.0049392 0.0030574 -0.0020097 0.00049495
0.0022971 0.00086516 0.00037914 -0.0013189
-0.022996 -0.0079147 0.079717 0.35946 -0.014949 0.01193 0.0012601 0.0014059
0.0012042 -0.0006344 0.0012939 0.00031367
0.0049701 0.0030439 -0.014916 0.012022 0.35314 0.060763 0.00024578 -0.0016033
-9.3585e-06 -0.00042685 0.00045202 0.00018484
-0.0020052 0.00049933 0.0012635 0.0013926 0.0002572 -0.0016074 0.16772 0.20785
-0.013733 -0.010985 -0.0010598 -0.0005904
0.0023158 0.00083701 0.0012052 -0.00064579 -1.8455e-05 -0.00043142 -0.013771 -0.010953
0.087639 0.20798 -0.008927 -0.0094869
0.0003673 -0.0013192 0.0012857 0.00030842 0.00043015 0.0001747 -0.0010418 -0.00058426
-0.0089217 -0.0095154 0.10971 0.30763
1460000000 0.27318 0.15193 -0.020339 0.0041276 0.0054071 -0.0017165 -0.0016463 0.0016194
0.0020233 -0.00040085 -0.00026952 -0.00099854
-0.020316 0.0041113 0.11401 0.33798 -0.0065483 0.014979 0.0017667 0.00023382
0.0010455 -0.0012825 0.0012007 -0.0006056
0.0054 -0.0017531 -0.0064816 0.015035 0.35914 0.005924 -0.00122 -0.0013362
0.00016306 -0.00030521 0.00050999 -0.00040656
-0.0016459 0.0016286 0.0017731 0.00022076 -0.0012155 -0.0013344 0.19395 0.17909
-0.01572 -0.0045409 -0.0011794 0.0020587
0.0020106 -0.00041417 0.0010332 -0.0013018 0.00016467 -0.00030321 -0.015746 -0.0045096
0.11578 0.19373 -0.011294 -0.0036325
-0.00030987 -0.00099917 0.0011881 -0.00061316 0.00052735 -0.00040886 -0.0011803 0.0020505
-0.011277 -0.0036324 0.14389 0.2876
1520000000 0.28539 0.11049 -0.015043 0.0097715 0.003213 -0.0039811 1.1434e-05 0.0026106
0.0021717 -0.0015706 -0.0011067 -0.00024299
-0.015048 0.0097559 0.14778 0.32332 0.001117 0.01309 0.0017214 -0.00075869
0.00012742 -0.0011551 0.00037328 -0.0010195
0.0032051 -0.0040035 0.0011825 0.013098 0.35204 -0.050635 -0.0011633 -0.00043223
0.0006333 -0.00078072 5.588e-05 -4.7553e-05
2.2969e-05 0.0026079 0.0017151 -0.00076942 -0.0011651 -0.00042975 0.21723 0.14176
-0.015952 0.0012844 0.0012901 0.0022497
0.0021762 -0.0015796 0.00011562 -0.0011592 0.00063453 -0.0007829 -0.015971 0.0013324
0.14282 0.18054 -0.011769 0.00054194
-0.0011029 -0.00023413 0.00035414 -0.0010214 4.6088e-05 -5.5614e-05 0.0013042 0.0022546
-0.011765 0.00054145 0.17842 0.26875
1580000000 0.29488 0.064464 -0.0086312 0.013118 -0.0008397 -0.0047493 0.0013247 0.0019746
-0.00015007 -0.0020392 -0.00041795 0.00043185
-0.0086283 0.013108 0.17529 0.29861 0.0048179 0.0084739 0.00051345 -0.0016294
-0.00065138 -0.0012064 -0.00028101 -0.00078378
-0.00085979 -0.0047281 0.0048814 0.008456 0.33134 -0.10829 -0.0016938 0.00065304
-0.00021675 -0.0011397 8.7848e-05 -0.00044414
0.0013316 0.0019714 0.0005106 -0.0016268 -0.0016923 0.00064365 0.23141 0.10308
-0.013069 0.0069103 0.0022776 0.0011161
-0.00014913 -0.0020424 -0.00065151 -0.0011976 -0.00022328 -0.0011423 -0.013057 0.0069458
0.16675 0.16383 -0.0096796 0.0066198
-0.00040667 0.00042753 -0.00028557 -0.00078206 8.46e-05 -0.00044971 0.0022721 0.001101
-0.0096759 0.0066117 0.2121 0.24214
1640000000 0.29712 0.023183 -0.0019484 0.012431 -0.0025743 -0.002531 0.0027463 0.0010967
-0.00048471 -0.0015967 -0.00028139 0.00056411
-0.0019618 0.012417 0.20507 0.27346 0.0057978 0.0038181 -0.00066266 -0.0017842
-0.0011424 -0.00043498 -0.00044079 -0.00071417
-0.0025829 -0.0025107 0.0058265 0.003785 0.30281 -0.15731 -0.00070617 0.0015398
-0.0010198 -0.0011342 -5.14e-05 -0.0004183
0.0027563 0.0010899 -0.00067538 -0.0017713 -0.00070462 0.0015296 0.24421 0.054756
-0.008973 0.0091232 0.0025679 -0.00064069
-0.00049245 -0.0016039 -0.0011454 -0.00042498 -0.0010171 -0.0011373 -0.008942 0.009164
0.18876 0.14084 -0.0052629 0.0088448
-0.00027756 0.00056478 -0.00044844 -0.00072149 -7.2286e-05 -0.00042923 0.0025657 -0.00064752
-0.0052726 0.0088373 0.23824 0.21132
1700000000 0.29009 -0.02241 0.0016423 0.0098962 -0.0033867 0.00015245 0.003125 -0.0011632
-0.0020326 -0.00092007 0.00062299 0.00046701
0.00163 0.0098766 0.2233 0.24164 0.003908 0.00089271 -0.0014973 -0.00062103
-0.00085789 0.00014164 -0.00090072 -0.00047832
-0.0034065 0.00017131 0.0039229 0.00086868 0.25887 -0.19721 0.00051456 0.0017163
-0.0020084 -0.00028441 -0.00039452 -0.00077631
0.0031143 -0.0011746 -0.0015051 -0.00061578 0.00052205 0.0017125 0.24174 0.005491
-0.005867 0.010682 0.0016428 -0.0021654
-0.0020195 -0.00089835 -0.00085684 0.00014629 -0.0020112 -0.00027488 -0.0058408 0.010711
0.20608 0.12174 -0.00066411 0.0095881
0.0006265 0.00044495 -0.00090595 -0.00048378 -0.00042568 -0.00077568 0.0016399 -0.0021857
-0.00067121 0.0095898 0.2557 0.17686
1760000000 0.27773 -0.071258 0.0042635 0.0067495 -0.0021723 0.00091065 0.0013361 -0.0034566
-0.0014935 0.0005206 0.00049959 -0.00058721
0.0042562 0.0067484 0.24921 0.20146 0.0017786 -0.00092837 -0.0012073 0.00018164
-0.00092767 0.0010144 -0.00055601 0.00040641
-0.0021328 0.00093056 0.0017783 -0.00093961 0.20974 -0.22993 0.0012862 0.0011237
-0.0012409 0.0014571 -0.0012478 -0.00058986
0.0013205 -0.0034617 -0.0012177 0.00019437 0.0012807 0.001121 0.23343 -0.04565
-0.001639 0.010433 -6.9038e-05 -0.0024935
-0.0014994 0.000545 -0.00092016 0.0010268 -0.0012416 0.0014713 -0.0016037 0.010432
0.22109 0.088003 0.0034359 0.0073171
0.00048958 -0.00059098 -0.00055388 0.00040774 -0.0012265 -0.00059844 -7.2895e-05 -0.0025107
0.0034331 0.0073009 0.2688 0.13925
1820000000 0.25287 -0.10871 0.0047343 0.0030482 7.8699e-06 0.0022415 -0.0009901 -0.0031208
-0.0012994 0.00094171 -4.4517e-06 -7.8262e-05
0.0047305 0.0030657 0.25903 0.17105 -1.2278e-06 -3.6102e-05 -0.0013304 0.0009736
0.00012688 0.0013253 -0.00058423 0.00053877
9.383e-06 0.0022364 -2.9938e-06 -3.4781e-05 0.16021 -0.24521 0.001505 0.00029011
-0.00027397 0.0024475 -0.0013972 0.00030292
-0.001006 -0.003114 -0.0013259 0.00098662 0.0015082 0.00028986 0.20435 -0.092948
0.00080245 0.0088203 -0.0014646 -0.0015437
-0.0012917 0.00093607 0.00013847 0.0013249 -0.00026809 0.0024494 0.00082804 0.0088155
0.23889 0.060068 0.0045604 0.004044
-1.7167e-05 -0.00010217 -0.00057001 0.00054539 -0.0013938 0.00029086 -0.0014701 -0.0015544
0.0045515 0.004061 0.27192 0.10366
1880000000 0.21737 -0.14921 0.0027197 0.00058559 -0.00044205 0.0019327 -0.0029999 -0.0022255
-0.00025292 0.0018311 0.00027483 -0.00058861
0.002718 0.00058011 0.26309 0.12433 -0.0021298 0.0015705 -0.00021453 0.0016699
0.00068075 0.0010655 7.6932e-05 0.00091895
-0.00043477 0.0019469 -0.0021247 0.0015944 0.10782 -0.2548 0.0017067 -0.00098488
0.0015396 0.0020177 -0.0010864 0.0013384
-0.0030126 -0.002216 -0.00019071 0.0016724 0.0017211 -0.00098537 0.16452 -0.1335
0.0023698 0.0064191 -0.0022403 0.00031308
-0.00022124 0.0018321 0.00069188 0.0010605 0.0015301 0.0020155 0.002386 0.0064167
0.24266 0.028423 0.0049949 0.0020792
0.00025555 -0.00058845 9.8591e-05 0.00091559 -0.0010402 0.0013234 -0.0022316 0.00034021
0.0049726 0.0020866 0.27201 0.069354
1940000000 0.17755 -0.17471 0.00052727 -0.001341 0.0012277 0.0019497 -0.0037496 0.00052587
0.0013848 0.0011631 -0.00079892 -0.00060652
0.00054405 -0.0013314 0.26326 0.092511 -0.0011159 0.003776 0.0010191 0.0013365
0.0017382 0.0002932 0.00078578 0.00028463
0.0012279 0.0019557 -0.0010892 0.0037949 0.061823 -0.24798 0.00030109 -0.0020644
0.0024661 0.00043768 0.00013628 0.0016603
-0.003752 0.00055173 0.0010218 0.0013233 0.00027462 -0.0020697 0.11263 -0.16474
0.0019261 0.0043594 -0.0013203 0.0013806
0.0013878 0.0011441 0.0017527 0.00027267 0.0024499 0.00043496 0.0019372 0.0043584
0.24568 -0.010241 0.0040863 -0.0015715
-0.00079079 -0.00056804 0.00077996 0.0002867 0.00016006 0.001681 -0.0013418 0.001385
0.0040612 -0.0015792 0.26167 0.034241
2000000000 0.13089 -0.1891 -0.0033975 0.00048812 0.0024543 0.0017337 -0.0024062 0.0034304
0.0012417 0.00010994 -0.00072111 0.00038954
-0.0033974 0.00049126 0.24867 0.057097 -0.00097739 0.0056662 0.0016086 0.00040012
0.0010952 -0.0013677 0.00051063 0.00014074
0.0024628 0.0017169 -0.00093505 0.0056778 0.018578 -0.23303 -0.0012541 -0.0012184
0.0019623 -0.0011988 0.0016198 0.0012809
-0.0023853 0.0034481 0.0016118 0.00039121 -0.0012491 -0.0012226 0.05901 -0.17523
0.00035753 0.0034287 -0.00011532 0.0020211
0.0012517 0.00011065 0.0010835 -0.0013762 0.0019623 -0.0011946 0.00035473 0.0034268
