!Keysight Technologies,M9804A,MY58100912,A.14.10.03
!Date: Thursday, April 27, 2023 10:28:33
!Correction: S11(C  6-Port  ) 
!S12(C  6-Port  ) 
!S13(C  6-Port  ) 
!S14(C  6-Port  ) 
!S15(C  6-Port  ) 
!S16(C  6-Port  ) 
!S21(C  6-Port  ) 
!S22(C  6-Port  ) 
!S23(C  6-Port  ) 
!S24(C  6-Port  ) 
!S25(C  6-Port  ) 
!S26(C  6-Port  ) 
!S31(C  6-Port  ) 
!S32(C  6-Port  ) 
!S33(C  6-Port  ) 
!S34(C  6-Port  ) 
!S35(C  6-Port  ) 
!S36(C  6-Port  ) 
!S41(C  6-Port  ) 
!S42(C  6-Port  ) 
!S43(C  6-Port  ) 
!S44(C  6-Port  ) 
!S45(C  6-Port  ) 
!S46(C  6-Port  ) 
!S51(C  6-Port  ) 
!S52(C  6-Port  ) 
!S53(C  6-Port  ) 
!S54(C  6-Port  ) 
!S55(C  6-Port  ) 
!S56(C  6-Port  ) 
!S61(C  6-Port  ) 
!S62(C  6-Port  ) 
!S63(C  6-Port  ) 
!S64(C  6-Port  ) 
!S65(C  6-Port  ) 
!S66(C  6-Port  ) 
!S6P File: Measurement: :
# Hz S  RI   R 50
500000000 -0.33681 -0.040676 -0.0097309 -0.0027249 -0.008282 0.012405 -0.0044458 0.012396
0.012511 0.0047613 -0.0045323 0.0091018
-0.0094051 -0.0026192 -0.41903 -0.053431 0.0079496 -0.01092 0.0014529 0.012246
0.007813 0.0021419 0.0016277 0.013282
-0.0081987 0.012182 0.0081515 -0.010815 -0.26498 0.20792 0.007457 0.0036833
-0.0021841 0.0075927 0.0011229 0.012231
-0.0044594 0.011909 0.0013552 0.01222 0.0074421 0.0036769 -0.3338 0.037845
-0.020099 -0.0065749 0.016578 0.026746
0.012455 0.0047472 0.0079764 0.0019078 -0.0021896 0.0074926 -0.020182 -0.0066626
-0.21861 -0.20642 -0.026034 0.0057322
-0.0044521 0.0085675 0.0013361 0.013063 0.00097847 0.01215 0.016349 0.026415
-0.026138 0.0057345 -0.25801 -0.15372
560000000 -0.31669 0.12021 -0.023306 -0.063584 -0.0005625 0.011785 0.0053731 0.010992
0.010351 0.0049655 0.011125 0.007803
-0.023376 -0.062749 -0.37713 0.10705 -0.041294 -0.037452 0.014091 0.0039866
-0.013045 -0.004876 0.0027289 -0.00043053
-0.0006326 0.011828 -0.041508 -0.037845 -0.18348 0.25557 -0.0008054 -0.0041307
0.019897 0.0049314 0.0068105 -0.0054896
0.0057087 0.011292 0.013838 0.0045159 -0.00061446 -0.00388 -0.30889 0.13011
0.0029723 -0.023895 0.0047112 -0.022186
0.010572 0.0049301 -0.012671 -0.005435 0.019963 0.0048689 0.0028527 -0.023768
-0.28862 -0.030426 0.0092604 -0.049488
0.011276 0.0082216 0.0024702 -0.00021892 0.0067048 -0.0056522 0.0043632 -0.022383
0.0092895 -0.049548 -0.32858 -0.0010778
620000000 -0.2762 0.10444 -0.023386 0.0077655 0.0030519 0.0083658 0.0086479 -0.0051893
0.010959 9.1548e-05 0.0017606 -0.0025645
-0.023543 0.007542 -0.40264 0.05803 -0.018748 -0.00012197 -0.0013779 -0.0020335
0.011581 -0.0061331 0.0018094 -0.0030458
0.0029178 0.0083225 -0.018831 -0.00012943 -0.15426 0.26541 -0.0015724 -0.0050151
-0.0024629 -0.0027265 0.0081524 -0.0033845
0.008398 -0.0051688 -0.0013364 -0.0020868 -0.0014948 -0.0050969 -0.26946 0.14132
-0.039259 -0.019379 0.012228 0.027452
0.010455 9.6437e-05 0.011589 -0.0061967 -0.0024646 -0.0024403 -0.039203 -0.019242
-0.20665 -0.0681 -0.042681 0.014868
0.00098469 -0.0023461 0.0017402 -0.0030345 0.0084206 -0.0032425 0.012249 0.027357
-0.042855 0.015022 -0.24752 -0.041835
680000000 -0.2358 0.19045 -0.02754 -0.014647 0.0048834 0.0051419 0.0020019 -0.0070681
-0.0033283 -0.011219 0.0053472 -0.0069325
-0.027431 -0.014568 -0.38801 0.15612 -0.033071 -0.0015945 -0.001525 -0.00047664
-0.0021401 -0.0090688 -0.0012303 -0.0018958
0.0048556 0.0053413 -0.033072 -0.0014355 -0.10319 0.28539 -0.00063798 -0.00037207
-0.0018645 0.00052354 -0.0028866 -0.0095469
0.0019286 -0.0072378 -0.0016805 -0.00046718 -0.00062625 -0.00036021 -0.22345 0.19374
-0.024262 -0.0068246 -0.0097164 -0.012248
-0.0029906 -0.011455 -0.0021751 -0.009034 -0.0017591 0.00052242 -0.024386 -0.0067035
-0.26067 0.031999 -0.0057769 -0.0085102
0.0054488 -0.007109 -0.0012751 -0.001985 -0.0028525 -0.0098067 -0.0096834 -0.012122
-0.005685 -0.0085332 -0.26251 0.06997
740000000 -0.19139 0.18519 -0.039012 0.026988 0.012635 -0.0050685 -0.00010967 -0.0043459
-0.0036543 -0.0028832 -0.0063732 0.0024634
-0.039089 0.026881 -0.33568 0.1749 -0.035778 0.03529 -0.00084673 -0.0063441
-0.011242 0.0078668 -0.002446 -0.0070826
0.012587 -0.0051577 -0.035713 0.035467 -0.06955 0.28414 -0.0021917 0.0028239
-0.0020607 -0.0048339 -0.0015832 -0.00011179
-0.00019503 -0.0042588 -0.00095108 -0.0063574 -0.0022273 0.0028395 -0.20676 0.20217
-0.044423 -0.006721 0.024065 0.015979
-0.0036244 -0.0028021 -0.011354 0.0080053 -0.0022984 -0.0049622 -0.044421 -0.0065545
-0.15891 0.059054 -0.045234 -0.00041008
-0.0064944 0.0025738 -0.0024948 -0.0070553 -0.0015626 5.78e-05 0.024094 0.016106
-0.04526 -0.00034292 -0.25333 0.073947
800000000 -0.15884 0.22646 -0.022798 0.016828 0.0054002 -0.01063 -0.0046629 -0.0021074
-0.0038917 0.0019524 0.0048887 -7.0614e-05
-0.022706 0.0168 -0.33909 0.24577 -0.0080559 0.034374 -0.0023957 0.0022109
-0.0005928 0.0027725 0.00098555 0.0053059
0.0053999 -0.010646 -0.0079738 0.03442 -0.028957 0.30762 0.00083187 0.0015152
0.00024434 0.0033991 -0.0017951 0.00077047
-0.004651 -0.0021218 -0.0024009 0.0022218 0.00084452 0.0014936 -0.17774 0.23074
-0.028929 0.014643 0.014809 -0.010671
-0.0037483 0.0020441 -0.00064739 0.0027907 0.00023905 0.0034754 -0.02887 0.014628
-0.20836 0.083173 -0.018225 0.019413
0.0048914 -5.9457e-05 0.0010674 0.0052518 -0.0018046 0.00083446 0.014896 -0.01074
-0.018222 0.019373 -0.2512 0.12569
860000000 -0.12425 0.24697 -0.017741 0.030757 -0.0033058 -0.010038 -0.0021702 0.00086931
0.0039043 0.0045252 -0.0035018 -0.0032091
-0.017777 0.030794 -0.29138 0.2878 0.0078835 0.034564 -5.1475e-05 0.0020666
0.0037656 -5.0836e-05 0.0031599 0.00070534
-0.00335 -0.010062 0.0080274 0.034504 0.019262 0.31583 -0.00064158 -0.00013548
0.002733 -0.0014461 0.0015031 0.0043166
-0.0022114 0.00090538 5.2751e-05 0.0021109 -0.0006308 -0.00010411 -0.14053 0.24177
-0.01822 0.019363 -0.0060758 -0.0092126
0.0039729 0.0046412 0.0037914 -1.6965e-05 0.0027064 -0.0014175 -0.018129 0.019392
-0.15724 0.13582 -0.02703 0.015147
-0.0035267 -0.003356 0.003095 0.00064124 0.0015071 0.0042924 -0.0060774 -0.0091971
-0.027109 0.015092 -0.19958 0.17508
920000000 -0.099736 0.27018 0.0049945 0.038231 -0.0095455 -0.0044557 -0.0017444 0.0017595
0.00095565 0.0018483 0.002657 -0.0015413
0.0049928 0.038083 -0.26257 0.30925 0.028302 0.022128 0.0015549 0.0011065
0.0071515 -0.00024684 0.0039859 -0.0025498
-0.0095231 -0.0044041 0.028427 0.022103 0.065823 0.31646 0.0019267 7.7903e-05
0.0011495 -0.00028999 0.00086465 -0.0010356
-0.0017448 0.0017716 0.0015038 0.0011166 0.0018883 7.4767e-05 -0.11625 0.25917
-0.010686 0.031921 0.0043806 -0.0069245
0.0010109 0.0017977 0.0072003 -0.00029451 0.0011758 -0.00026362 -0.010665 0.03198
-0.14756 0.14229 -0.0030744 0.028306
0.0025955 -0.001527 0.003846 -0.0026724 0.00088986 -0.0010281 0.0044189 -0.0068904
-0.0030723 0.028319 -0.21269 0.18881
980000000 -0.051997 0.2898 0.017682 0.030384 -0.0091409 0.0047387 0.0020785 0.0033449
0.0039584 -0.0013576 -0.0033646 -0.0021614
0.017649 0.030392 -0.20951 0.34359 0.033337 0.0049373 0.0020829 -7.1795e-05
0.0015589 -0.005824 -0.00036622 -0.0025038
-0.0090995 0.0047604 0.03337 0.004826 0.11221 0.30997 0.00061114 -0.0011828
0.00039629 -0.002126 0.0015492 -0.00025539
0.0020851 0.0033082 0.0021095 -7.774e-05 0.00061266 -0.001182 -0.076806 0.27033
0.0086968 0.031431 -0.0092568 -0.0078963
0.0040367 -0.0014137 0.0015735 -0.0058732 0.00043983 -0.0021259 0.0087832 0.031411
-0.11661 0.17251 0.0047248 0.020453
-0.0032588 -0.002244 -0.00034003 -0.0024936 0.0015587 -0.00028376 -0.009291 -0.0078791
0.0046804 0.020455 -0.17005 0.23748
1040000000 -0.009775 0.2983 0.033436 0.018485 -0.0012293 0.0071459 0.0024222 0.00052389
6.9156e-05 -0.003658 -7.0135e-05 -0.0013984
0.033436 0.018493 -0.17389 0.35665 0.029666 -0.014998 0.0014868 -0.0017618
-0.0024491 -0.0025816 -0.0012475 -0.0025962
-0.0011655 0.0071184 0.02962 -0.015114 0.15836 0.29618 -0.00051055 -0.0016771
-0.0016172 -0.00097781 -0.00038341 -0.001153
0.0024434 0.00052691 0.0014479 -0.0018141 -0.00051892 -0.0016767 -0.04919 0.2803
0.020955 0.018917 -0.0019715 0.0011222
0.00011906 -0.0035564 -0.0024946 -0.0025527 -0.0015934 -0.0009579 0.020937 0.018874
-0.083828 0.17994 0.013604 0.01997
-0.00019746 -0.0013875 -0.0013031 -0.002576 -0.00040582 -0.001187 -0.0020138 0.0011479
0.013564 0.019983 -0.15059 0.25941
1100000000 0.035652 0.30606 0.036198 -0.0042049 0.0030393 0.0039732 0.0022153 -0.0012942
-0.0019736 -0.0031613 -0.0038324 3.7343e-05
0.036167 -0.0041584 -0.13033 0.37404 0.015194 -0.028101 -5.8148e-05 -0.0017653
-0.0033188 -0.00082668 -0.003523 -0.00049078
0.0030373 0.0039561 0.015098 -0.028184 0.20487 0.27582 -0.0020027 0.00019171
-0.0018806 0.00039119 -0.0012037 -0.00052944
0.0022205 -0.0012885 -7.2674e-05 -0.0017545 -0.0020133 0.0001894 -0.0082669 0.285
0.02652 0.0050285 -0.0027226 -0.00036269
-0.0019235 -0.0031057 -0.0033317 -0.00075053 -0.0018887 0.00037706 0.026515 0.0049932
-0.066487 0.19396 0.019709 0.0096615
-0.0038529 9.7776e-05 -0.0035045 -0.00045264 -0.0011888 -0.00049964 -0.0027004 -0.00035062
0.019672 0.0097013 -0.10503 0.29275
1160000000 0.0872 0.30101 0.024219 -0.020922 0.0028976 -0.00061352 -0.00046915 -0.0022673
-0.0041045 -0.00079131 -0.00092551 0.0041583
0.024241 -0.02087 -0.086393 0.37816 -0.0037889 -0.029382 -0.0016697 -0.001678
-0.0027278 0.0023819 -0.0014147 0.0019993
0.0029079 -0.00061882 -0.0039418 -0.029356 0.24803 0.2448 -0.00075702 0.0018284
-0.00067925 0.001975 -0.0010689 0.00027772
-0.00047127 -0.0022633 -0.0016608 -0.001652 -0.00075404 0.001828 0.03159 0.28156
0.022806 -0.011529 -0.0034538 0.0050596
-0.0041518 -0.00075155 -0.0027842 0.0024203 -0.00071982 0.0019942 0.022784 -0.011602
-0.032731 0.2035 0.019045 0.001181
-0.00087473 0.0041389 -0.0014502 0.0020069 -0.0011104 0.00026035 -0.0034383 0.0051075
0.019059 0.001209 -0.057543 0.2964
1220000000 0.13158 0.28978 0.010612 -0.030295 -0.0014866 -0.0010365 2.099e-05 -0.00068114
-0.0026921 0.0023944 0.001284 0.0020774
0.010632 -0.030256 -0.041792 0.39011 -0.017042 -0.021193 -0.0025271 0.00047282
-8.1536e-05 0.0030274 -0.00086475 0.0019424
-0.0014857 -0.0010467 -0.017167 -0.021162 0.28712 0.20562 0.00081576 0.0017353
0.00056098 0.0013355 0.00027759 0.0007382
2.0175e-05 -0.00068428 -0.0025237 0.00047886 0.00081004 0.0017667 0.071634 0.27236
0.011371 -0.018756 0.0018947 0.0012675
-0.002723 0.0023942 -8.5342e-05 0.0030147 0.00051341 0.001334 0.011319 -0.018803
-0.010857 0.21282 0.015307 -0.012742
0.0012462 0.0020399 -0.0008345 0.001954 0.00025712 0.00073703 0.0018946 0.0012475
0.015295 -0.012783 -0.027305 0.31616
1280000000 0.18129 0.26767 -0.0078802 -0.028803 -0.0018882 0.0022611 -0.00074103 -0.0018429
-0.00082895 0.0031007 0.0024446 0.0012448
-0.007846 -0.028765 0.0043869 0.38093 -0.023829 -0.008443 -0.00095918 0.0014317
0.0015968 0.0018962 0.00065936 0.0021924
-0.001886 0.0022584 -0.023914 -0.0083491 0.31762 0.16155 0.0017249 8.4409e-05
0.0012275 0.00041297 0.00043496 0.00042571
-0.00075397 -0.0018477 -0.00095554 0.001453 0.0016848 9.0337e-05 0.10836 0.25479
0.0012891 -0.021073 -0.00062776 0.00011824
-0.00083475 0.0031464 0.0015657 0.0018675 0.0011854 0.00038695 0.0012293 -0.021053
0.026145 0.21698 0.0037775 -0.015453
0.0024137 0.0012347 0.00065208 0.0021774 0.00044454 0.00038715 -0.00063526 0.0001325
0.0037852 -0.015425 0.021946 0.32078
1340000000 0.21824 0.23361 -0.01776 -0.019241 0.00078195 0.0043994 -0.0014443 -0.00085834
0.001458 0.0027806 0.0018123 -0.0013525
-0.017721 -0.019222 0.043837 0.3723 -0.021592 0.0042794 -0.00017629 0.0020009
0.0018618 0.00095845 0.0014239 0.00080889
0.00078287 0.0043731 -0.021613 0.0043779 0.33936 0.11352 0.0012553 -0.00092213
0.00085755 -0.00046656 0.00028678 0.00040499
-0.001435 -0.0008511 -0.00016781 0.0019958 0.0012762 -0.00092681 0.13972 0.23361
-0.009136 -0.018226 0.00063433 0.000833
0.0014561 0.0027463 0.0018498 0.00097215 0.00086363 -0.00044681 -0.0091833 -0.01818
0.055532 0.21243 -0.0030059 -0.014182
0.0017898 -0.0013534 0.0014302 0.00078042 0.00028097 0.0003888 0.00064617 0.00084064
-0.0030154 -0.014191 0.060417 0.31838
1400000000 0.25086 0.19531 -0.023636 -0.007639 0.0050021 0.0030864 -0.0020232 0.00041275
0.002404 0.00089019 0.00040686 -0.0013562
-0.023611 -0.0076279 0.08095 0.35887 -0.014761 0.012385 0.0013077 0.0014101
0.0012298 -0.00070062 0.0013135 0.00025087
0.0050115 0.0030939 -0.014726 0.012484 0.35237 0.059931 0.00023098 -0.0017763
3.5847e-05 -0.00047276 0.00049906 0.00025189
-0.00202 0.00043133 0.0013193 0.0014054 0.00023943 -0.0017632 0.16791 0.20447
-0.0156 -0.011087 -0.0011052 -0.00021198
0.0024127 0.00088676 0.0012258 -0.00070762 5.3018e-05 -0.00046831 -0.015664 -0.011018
0.088263 0.20849 -0.0097157 -0.0096361
0.00038218 -0.0013581 0.0013111 0.00027117 0.00049756 0.00024095 -0.0010909 -0.00020698
-0.0097122 -0.0096513 0.10699 0.30876
1460000000 0.27342 0.15136 -0.020668 0.0047326 0.0054553 -0.0017429 -0.0017319 0.0015953
0.0021034 -0.00048 -0.00032641 -0.0010069
-0.020656 0.0047127 0.11477 0.33683 -0.0061149 0.015168 0.0017874 0.00023359
0.00098911 -0.0013447 0.0011994 -0.0007105
0.0054229 -0.0017646 -0.0060762 0.015211 0.35816 0.0057074 -0.0013401 -0.0014629
0.00015709 -0.0004181 0.00060739 -0.00042857
-0.0017131 0.0016085 0.0017896 0.00020631 -0.0013428 -0.0014671 0.1926 0.17561
-0.01741 -0.003714 -0.00080093 0.0024565
0.0021251 -0.0005025 0.00096582 -0.0013551 0.00014456 -0.00041059 -0.017425 -0.0036388
0.11675 0.19391 -0.012029 -0.0032813
-0.0003205 -0.0010068 0.0011597 -0.0007091 0.00063818 -0.00041898 -0.00081024 0.0024412
-0.012021 -0.0032929 0.14136 0.28868
1520000000 0.28514 0.10974 -0.01504 0.010445 0.0032826 -0.0039998 -1.7679e-05 0.0026444
0.002201 -0.0016552 -0.0011281 -0.00019977
-0.015035 0.010415 0.14793 0.322 0.0014981 0.013005 0.0018014 -0.00079758
8.6219e-05 -0.001164 0.00033222 -0.0010553
0.0032569 -0.0040426 0.0015636 0.013011 0.35128 -0.050497 -0.0012894 -0.00043003
0.00055899 -0.00084941 7.7132e-05 -0.00014256
-3.8093e-06 0.0026308 0.0018022 -0.00081608 -0.001279 -0.00041837 0.21432 0.13893
-0.016931 0.002889 0.0017149 0.0023059
0.0021851 -0.0016973 6.5625e-05 -0.0011695 0.0005411 -0.00084464 -0.016881 0.0029755
0.14375 0.18041 -0.012268 0.0012072
-0.0011299 -0.00017933 0.00032852 -0.0010579 3.8806e-05 -0.00016346 0.001728 0.0022878
-0.012245 0.0011915 0.17591 0.27017
1580000000 0.29428 0.064018 -0.0082171 0.013676 -0.0008708 -0.0047314 0.0013855 0.0020376
-0.00019077 -0.0021116 -0.00038171 0.00045973
-0.008213 0.013658 0.17478 0.29739 0.0049984 0.0082655 0.00054444 -0.0017308
-0.00068048 -0.0011791 -0.00033991 -0.00076121
-0.00090511 -0.0047398 0.0050588 0.0082253 0.33083 -0.10789 -0.0017863 0.00082972
-0.0003205 -0.0010888 3.4472e-05 -0.00054686
0.0014057 0.0020371 0.00053202 -0.0017428 -0.0017698 0.00081829 0.22727 0.1016
-0.013059 0.008649 0.00259 0.00097282
-0.00021647 -0.0021121 -0.00067448 -0.0011627 -0.0003034 -0.0010464 -0.013 0.0086817
0.16757 0.16324 -0.0097057 0.0074356
-0.00038278 0.00046825 -0.00034652 -0.00075834 4.7765e-05 -0.00054186 0.0025889 0.00094878
-0.0097212 0.0074313 0.20988 0.2438
1640000000 0.29637 0.023002 -0.0013212 0.0126 -0.0025546 -0.0025269 0.0028444 0.0010329
-0.00055755 -0.0016437 -0.00025292 0.00056191
-0.0013098 0.012588 0.20417 0.27261 0.0058216 0.0035661 -0.00075452 -0.0018742
-0.0011361 -0.00037165 -0.00048318 -0.00067216
-0.0026078 -0.0024803 0.0058564 0.0035305 0.30254 -0.15694 -0.00061836 0.0016698
-0.0010121 -0.00108 -0.0001154 -0.00045015
0.0028395 0.0010238 -0.00076402 -0.0018814 -0.00059316 0.0016735 0.23946 0.055252
-0.0082374 0.010497 0.0027568 -0.00089446
-0.00057606 -0.0016414 -0.0011347 -0.00036567 -0.0010364 -0.0010555 -0.008188 0.010491
0.18933 0.13987 -0.0048639 0.0095684
-0.00025706 0.00058691 -0.00048758 -0.00066105 -0.00013983 -0.0004178 0.0027659 -0.00091376
-0.0048532 0.0095771 0.2363 0.21322
1700000000 0.28917 -0.022099 0.00219 0.0096618 -0.0033248 9.1148e-05 0.003164 -0.0012882
-0.0021109 -0.00086814 0.0006884 0.00046285
0.0021843 0.0096385 0.22202 0.2413 0.0038468 0.00075749 -0.0016174 -0.00058226
-0.00079376 0.00019 -0.00090527 -0.00041891
-0.0033543 8.7421e-05 0.0038676 0.00072684 0.25909 -0.19669 0.00065404 0.0016791
-0.0019324 -0.00020179 -0.00043048 -0.00082446
0.0031526 -0.0013029 -0.0016306 -0.00057508 0.00066613 0.0016657 0.23749 0.0081512
-0.0046251 0.011443 0.0016658 -0.0023817
-0.0021314 -0.00083088 -0.00080047 0.00018195 -0.0019123 -0.00018953 -0.0045975 0.01141
0.20629 0.12056 2.2169e-05 0.0099707
0.00070881 0.0004746 -0.00092165 -0.00040354 -0.00045668 -0.00084141 0.0016661 -0.0024006
2.088e-05 0.0099754 0.25418 0.17892
1760000000 0.27723 -0.070596 0.0045111 0.0062937 -0.002198 0.00092895 0.0012162 -0.003497
-0.001532 0.00066894 0.00044991 -0.00064995
0.0045155 0.006293 0.24798 0.20178 0.0016462 -0.00098088 -0.0012949 0.00031609
-0.00090384 0.0010051 -0.00048413 0.00039474
-0.0021863 0.00093803 0.0016273 -0.00097317 0.21024 -0.22975 0.0014359 0.00096741
-0.0011555 0.0014727 -0.0012817 -0.00053236
0.0012016 -0.0035105 -0.0012835 0.00033133 0.0014362 0.00093875 0.23092 -0.041101
-0.00043902 0.010555 -0.0001289 -0.0027481
-0.0015245 0.00067928 -0.00090429 0.0010286 -0.001153 0.0014844 -0.00043468 0.010513
0.22075 0.086878 0.0042063 0.0073182
0.0004425 -0.00067668 -0.00050164 0.00040548 -0.0012612 -0.00053742 -0.00012155 -0.0027555
0.0042114 0.0073155 0.26753 0.14142
1820000000 0.25267 -0.1079 0.0046927 0.0027233 -2.306e-05 0.0023778 -0.0011087 -0.0030844
-0.0012383 0.0010465 -5.2461e-05 -0.00012624
0.0046949 0.0027005 0.25801 0.17191 -0.00021146 5.7795e-05 -0.001224 0.0010964
0.00014158 0.0012514 -0.00050943 0.00049141
-1.291e-05 0.0023804 -0.00019244 4.9027e-05 0.16044 -0.2452 0.0014483 0.00011468
-0.00020068 0.0023898 -0.0013862 0.00023085
-0.0011363 -0.0030601 -0.0012175 0.001116 0.0014657 0.00014481 0.20431 -0.0877
0.0017906 0.0084818 -0.0016395 -0.0018138
-0.0012563 0.0010528 0.00014853 0.001252 -0.00018947 0.0023772 0.0017608 0.0084518
0.23812 0.059119 0.0051984 0.0037037
-4.521e-05 -0.00013691 -0.00052188 0.00050399 -0.001405 0.00024728 -0.0016417 -0.0018244
0.0052047 0.0036937 0.271 0.10588
1880000000 0.21769 -0.14818 0.0025711 0.00040353 -0.00036735 0.0020277 -0.0029682 -0.0021465
-0.00012467 0.0018937 0.00018503 -0.00062721
0.0025616 0.00040184 0.2626 0.12566 -0.0021236 0.0016976 -3.2161e-05 0.0016316
0.00061199 0.0010209 0.00010199 0.00081987
-0.00037794 0.0020393 -0.0021314 0.0017271 0.10825 -0.25493 0.0015254 -0.0010212
0.0015752 0.002017 -0.0011394 0.0013888
-0.0029534 -0.0021295 -1.1691e-05 0.0016466 0.0014828 -0.0010507 0.16714 -0.129
0.0030629 0.0058865 -0.0025227 0.00025447
-8.3815e-05 0.0018936 0.00061534 0.0010238 0.0016118 0.0019834 0.0030277 0.0058735
0.24159 0.027902 0.0054408 0.0014448
0.00021042 -0.00062542 0.00011765 0.00082965 -0.0011249 0.0014146 -0.0025165 0.00028266
0.0054171 0.0014523 0.2715 0.071435
1940000000 0.17828 -0.17412 0.00037901 -0.0013804 0.0012572 0.0019385 -0.0035716 0.0005342
0.001545 0.0010708 -0.00074997 -0.00048283
0.0003735 -0.0013697 0.2634 0.093894 -0.0010741 0.0038052 0.0010976 0.0012158
0.0016511 0.00034237 0.00072864 0.00018684
0.0012868 0.0019186 -0.0010391 0.0038078 0.062056 -0.24826 0.00028123 -0.0018641
0.0024035 0.00041486 0.0001973 0.0016276
-0.00358 0.00055085 0.0011081 0.0012052 0.00027623 -0.0018312 0.11685 -0.16239
0.0024224 0.0036419 -0.0015726 0.0014905
0.0015398 0.0010902 0.0016708 0.00034042 0.0024154 0.00041464 0.0023904 0.0036676
0.24452 -0.0103 0.0040798 -0.0023354
-0.00076978 -0.0004844 0.00071633 0.00020306 0.000173 0.0016298 -0.0015879 0.0015156
0.0040732 -0.0023335 0.26143 0.036319
2000000000 0.13169 -0.18889 -0.0034505 0.00041375 0.0023976 0.0015811 -0.0023787 0.0032508
0.0012524 -9.4097e-05 -0.00064905 0.00039722
-0.0034789 0.00042149 0.24947 0.058321 -0.00091401 0.0056206 0.0015289 0.00026871
0.0011503 -0.0012721 0.00037379 0.00016904
0.0023906 0.0015863 -0.0008881 0.0056456 0.018372 -0.2336 -0.0012227 -0.0010924
0.0019861 -0.0012378 0.0015884 0.0013288
-0.0024043 0.0032706 0.0015404 0.00024989 -0.0011819 -0.0011228 0.063452 -0.17552
0.00059317 0.0026071 -9.6904e-05 0.0023078
0.0012549 -0.00011033 0.0011391 -0.0012862 0.0019802 -0.0012541 0.0005948 0.0026382
0.23948 -0.043905 0.00060112 -0.0031476
