!Keysight Technologies,M9804A,MY58100912,A.14.10.03
!Date: Thursday, April 27, 2023 10:28:33
!Correction: S11(C  6-Port  ) 
!S12(C  6-Port  ) 
!S13(C  6-Port  ) 
!S14(C  6-Port  ) 
!S15(C  6-Port  ) 
!S16(C  6-Port  ) 
!S21(C  6-Port  ) 
!S22(C  6-Port  ) 
!S23(C  6-Port  ) 
!S24(C  6-Port  ) 
!S25(C  6-Port  ) 
!S26(C  6-Port  ) 
!S31(C  6-Port  ) 
!S32(C  6-Port  ) 
!S33(C  6-Port  ) 
!S34(C  6-Port  ) 
!S35(C  6-Port  ) 
!S36(C  6-Port  ) 
!S41(C  6-Port  ) 
!S42(C  6-Port  ) 
!S43(C  6-Port  ) 
!S44(C  6-Port  ) 
!S45(C  6-Port  ) 
!S46(C  6-Port  ) 
!S51(C  6-Port  ) 
!S52(C  6-Port  ) 
!S53(C  6-Port  ) 
!S54(C  6-Port  ) 
!S55(C  6-Port  ) 
!S56(C  6-Port  ) 
!S61(C  6-Port  ) 
!S62(C  6-Port  ) 
!S63(C  6-Port  ) 
!S64(C  6-Port  ) 
!S65(C  6-Port  ) 
!S66(C  6-Port  ) 
!S6P File: Measurement: :
# Hz S  RI   R 50
500000000 -0.33701 -0.04127 -0.0095162 -0.0026949 -0.0083487 0.012327 -0.0045006 0.012243
0.012611 0.0046879 -0.004606 0.0090049
-0.0094946 -0.0027095 -0.4188 -0.053358 0.0080142 -0.010796 0.0015184 0.012281
0.0078803 0.0021235 0.001517 0.0133
-0.0083333 0.012313 0.0080082 -0.010817 -0.26482 0.20793 0.0075257 0.0037035
-0.0022438 0.0077236 0.00098205 0.012187
-0.0044586 0.012211 0.0015363 0.012308 0.0075287 0.0037033 -0.3338 0.037874
-0.020078 -0.0066074 0.016403 0.026634
0.012598 0.004672 0.0078926 0.0020524 -0.0022498 0.0077473 -0.020081 -0.0065873
-0.21826 -0.20654 -0.026045 0.0058281
-0.0045701 0.0089774 0.001507 0.013342 0.0010314 0.01222 0.016384 0.026599
-0.026027 0.0058089 -0.25814 -0.15477
560000000 -0.31687 0.1203 -0.023469 -0.063133 -0.00061955 0.011961 0.0055162 0.011348
0.010454 0.0050095 0.011164 0.0078964
-0.023438 -0.063033 -0.37675 0.10635 -0.041137 -0.037703 0.014304 0.0035461
-0.0131 -0.0053382 0.0027317 -0.00038259
-0.00060342 0.011967 -0.041301 -0.037599 -0.18348 0.25576 -0.00083678 -0.0037769
0.019991 0.0052691 0.0068908 -0.0056399
0.0055422 0.011261 0.014251 0.003628 -0.0008358 -0.0037831 -0.30895 0.12986
0.00288 -0.023721 0.0047345 -0.022183
0.010438 0.0049456 -0.013122 -0.0051435 0.01995 0.0052371 0.0028724 -0.023647
-0.28845 -0.029962 0.0095484 -0.049496
0.011139 0.0078145 0.0027608 -0.0002839 0.0068568 -0.0056931 0.0046446 -0.022181
0.0095136 -0.049495 -0.32894 -0.0014992
620000000 -0.27585 0.10465 -0.023538 0.00778 0.0029418 0.0085133 0.0084762 -0.0051551
0.010835 3.8656e-05 0.0015629 -0.0025731
-0.023546 0.007744 -0.40267 0.057997 -0.018817 -8.9687e-05 -0.0013624 -0.0021447
0.011604 -0.0061966 0.0018725 -0.0031401
0.002874 0.0085167 -0.018847 -3.4517e-05 -0.1542 0.26548 -0.0014789 -0.0051029
-0.0024972 -0.0026268 0.0080993 -0.0033676
0.0084976 -0.0053562 -0.0013609 -0.0021398 -0.0014729 -0.0051051 -0.2693 0.14124
-0.039409 -0.018963 0.012115 0.027538
0.010977 0.00028294 0.011576 -0.006218 -0.0024691 -0.0026392 -0.039433 -0.018932
-0.20666 -0.068966 -0.042754 0.014986
0.0015929 -0.0025516 0.0018416 -0.0031199 0.0081116 -0.0033434 0.012147 0.02764
-0.042806 0.014888 -0.24777 -0.042422
680000000 -0.23582 0.19056 -0.027553 -0.014553 0.0048052 0.0053077 0.0018174 -0.0071552
-0.0032203 -0.011275 0.0053461 -0.0069369
-0.027505 -0.01455 -0.38813 0.15609 -0.033054 -0.001508 -0.0016758 -0.00044986
-0.0021417 -0.0089376 -0.0012302 -0.0018513
0.0048178 0.0053024 -0.03309 -0.0014385 -0.10318 0.28547 -0.00067654 -0.00041492
-0.0017811 0.00055312 -0.0028542 -0.009613
0.0018115 -0.0071585 -0.0016885 -0.00043083 -0.00067939 -0.00040631 -0.22347 0.19357
-0.024119 -0.0067617 -0.0097957 -0.01234
-0.0032484 -0.011243 -0.0021716 -0.0089453 -0.0018029 0.00056123 -0.024142 -0.0067156
-0.2605 0.031811 -0.0056688 -0.0084645
0.0053106 -0.0068949 -0.001275 -0.0018767 -0.0028336 -0.0096355 -0.0097624 -0.012367
-0.0057342 -0.0084939 -0.26247 0.069662
740000000 -0.1915 0.18524 -0.039124 0.02717 0.012477 -0.0050922 -0.00010193 -0.0043815
-0.0036884 -0.0028897 -0.0062107 0.002427
-0.039101 0.027161 -0.33571 0.17524 -0.035866 0.035304 -0.00095903 -0.0062477
-0.011177 0.0080508 -0.0024867 -0.007135
0.012484 -0.0050747 -0.035798 0.035428 -0.069528 0.28402 -0.0022006 0.0028053
-0.0023339 -0.0048193 -0.0015553 -7.4402e-05
-0.00010998 -0.0043714 -0.00096245 -0.0062894 -0.0022034 0.0028093 -0.20683 0.20206
-0.04446 -0.006651 0.024115 0.016022
-0.0036347 -0.0028168 -0.011188 0.008104 -0.0023104 -0.0048011 -0.044484 -0.0066078
-0.15863 0.058861 -0.045361 -0.00038239
-0.0062345 0.0023644 -0.0024686 -0.0070947 -0.00154 -9.8462e-05 0.024106 0.016023
-0.045352 -0.00040262 -0.25319 0.073699
800000000 -0.15874 0.22639 -0.02272 0.016911 0.0054251 -0.010593 -0.0046525 -0.0021446
-0.0040054 0.0019843 0.0049199 -6.6216e-05
-0.022697 0.016911 -0.33916 0.24578 -0.0081 0.034383 -0.0023629 0.002197
-0.00072168 0.0027629 0.00097437 0.0052711
0.0053859 -0.010603 -0.0080085 0.034451 -0.028991 0.30759 0.00084791 0.001524
0.00019925 0.0034207 -0.0017904 0.00076755
-0.0046662 -0.0021354 -0.002355 0.0022119 0.00085086 0.0015303 -0.17778 0.23072
-0.028934 0.014666 0.01488 -0.01067
-0.0039878 0.0019812 -0.00068489 0.0027718 0.00020117 0.0034358 -0.028936 0.014727
-0.20844 0.082885 -0.018297 0.019369
0.0049044 -9.9364e-05 0.0010007 0.0052875 -0.0017979 0.00078533 0.014874 -0.010716
-0.018299 0.019291 -0.25125 0.12542
860000000 -0.12412 0.24677 -0.017688 0.030805 -0.0032696 -0.010057 -0.0021546 0.00083807
0.0038146 0.0045136 -0.0035279 -0.0030924
-0.017686 0.030784 -0.29142 0.28796 0.0079183 0.034585 -6.5312e-05 0.0021219
0.003737 5.4208e-05 0.0031655 0.0006212
-0.0033049 -0.010072 0.0080533 0.034587 0.019315 0.3158 -0.0006132 -9.2897e-05
0.0027759 -0.0013828 0.0014589 0.004336
-0.0021409 0.00085901 -4.6309e-05 0.002128 -0.00061463 -9.259e-05 -0.1406 0.2417
-0.018247 0.019322 -0.0061307 -0.0091761
0.0038774 0.0045089 0.0037532 6.8485e-05 0.0027755 -0.0013939 -0.018219 0.019365
-0.15727 0.1358 -0.027225 0.015109
-0.0035453 -0.0031089 0.0031596 0.00059042 0.0014653 0.0043092 -0.0061237 -0.0091778
-0.027136 0.01506 -0.19976 0.17465
920000000 -0.099776 0.27018 0.0049719 0.038145 -0.0095048 -0.0044539 -0.0017691 0.0017872
0.00092849 0.0018386 0.0026341 -0.0014929
0.0049587 0.038119 -0.26261 0.30936 0.028267 0.02216 0.0014984 0.0010994
0.0072071 -0.00030842 0.0040388 -0.0026672
-0.0095325 -0.0044305 0.028376 0.022105 0.065845 0.31645 0.0019522 8.2111e-05
0.0011546 -0.00031272 0.00091696 -0.0010151
-0.001775 0.0017957 0.0014809 0.0011017 0.0019426 8.4816e-05 -0.11626 0.25908
-0.010715 0.031864 0.004382 -0.0069148
0.00095439 0.0018214 0.0072292 -0.00034765 0.0011591 -0.00030106 -0.010643 0.031917
-0.14748 0.14212 -0.0030432 0.028263
0.0025956 -0.0015585 0.0040621 -0.0026896 0.00091865 -0.0010011 0.0043838 -0.0069511
-0.003044 0.028244 -0.21298 0.18858
980000000 -0.052071 0.28977 0.017681 0.030347 -0.0091199 0.0047235 0.002062 0.0033689
0.0039604 -0.0014052 -0.0033959 -0.0021855
0.01764 0.030337 -0.20948 0.34359 0.033347 0.0049487 0.0020335 -8.6954e-05
0.0016027 -0.0058998 -0.0002972 -0.0025414
-0.0091204 0.0047372 0.033404 0.0048471 0.1122 0.30995 0.00060066 -0.0011824
0.0004273 -0.0021372 0.0015577 -0.00025085
0.0020703 0.0033693 0.0020441 -7.4426e-05 0.00059642 -0.0011804 -0.076901 0.27026
0.0087153 0.031444 -0.0092558 -0.0078938
0.0039476 -0.0014274 0.0015662 -0.0059031 0.00042433 -0.0021355 0.008785 0.031435
-0.11659 0.1724 0.0047327 0.020482
-0.0034102 -0.0022007 -0.00030563 -0.00253 0.0015692 -0.000254 -0.0092603 -0.0078635
0.0047154 0.020464 -0.17027 0.23722
1040000000 -0.0098072 0.29827 0.033452 0.018529 -0.0012232 0.007111 0.0024187 0.00055744
5.6578e-05 -0.0036575 -8.2432e-05 -0.0014433
0.033424 0.018559 -0.17384 0.35666 0.029645 -0.015005 0.0014226 -0.0017837
-0.0024773 -0.0025958 -0.0011939 -0.0026237
-0.001214 0.0071127 0.029639 -0.015116 0.1584 0.29617 -0.00051438 -0.0016698
-0.0016306 -0.00095423 -0.00038448 -0.0011626
0.0024222 0.00054807 0.0014446 -0.0017637 -0.00052522 -0.0016705 -0.049283 0.28024
0.020941 0.018907 -0.0019638 0.0011139
2.3338e-05 -0.0036379 -0.0025017 -0.0025828 -0.001629 -0.00094858 0.021007 0.018871
-0.083978 0.17983 0.013629 0.019973
-8.1137e-05 -0.0014435 -0.0012357 -0.0025915 -0.00040647 -0.001177 -0.0019639 0.0011236
0.013599 0.019993 -0.15092 0.25923
1100000000 0.035614 0.30601 0.036198 -0.0041776 0.0030195 0.0039787 0.0022206 -0.0012781
-0.0019625 -0.0031323 -0.0038421 2.3088e-05
0.036167 -0.0041627 -0.13028 0.37405 0.015183 -0.028114 -9.1633e-05 -0.0017694
-0.0033047 -0.00084154 -0.0035052 -0.00049488
0.0030252 0.0039711 0.015089 -0.02818 0.20479 0.27579 -0.0020175 0.00020214
-0.0018626 0.00039195 -0.001205 -0.00050887
0.0022271 -0.0012866 -9.0052e-05 -0.0017607 -0.0020148 0.00020686 -0.0083366 0.28502
0.026505 0.0049899 -0.0026568 -0.00038088
-0.0019807 -0.0031457 -0.0033183 -0.00082626 -0.0018574 0.00040017 0.026524 0.0049498
-0.066591 0.19385 0.01969 0.0096769
-0.0038314 3.0485e-05 -0.0035127 -0.00047172 -0.0011894 -0.00051167 -0.0026607 -0.00038635
0.019666 0.0096852 -0.10534 0.29268
1160000000 0.087134 0.30099 0.024224 -0.02093 0.002895 -0.00058964 -0.0004665 -0.0022519
-0.004111 -0.00080656 -0.00095195 0.0041844
0.024233 -0.020878 -0.086389 0.37817 -0.0038049 -0.029343 -0.0016732 -0.0016839
-0.0027979 0.0023754 -0.0014314 0.0019518
0.0028955 -0.00060906 -0.0039347 -0.02935 0.24803 0.24483 -0.0007498 0.0018379
-0.00069587 0.0019969 -0.0011044 0.00024271
-0.00047099 -0.0022617 -0.0016645 -0.0016648 -0.00074635 0.0018357 0.031523 0.28162
0.022814 -0.011539 -0.0034738 0.0050189
-0.0041287 -0.00078725 -0.0027789 0.0023738 -0.00069435 0.0020127 0.022807 -0.011573
-0.032884 0.20335 0.0191 0.0011911
-0.00092767 0.0041958 -0.0014194 0.0019753 -0.0010894 0.00022821 -0.0034526 0.0050259
0.019092 0.0011864 -0.057706 0.29634
1220000000 0.1315 0.28978 0.010626 -0.030329 -0.0015073 -0.00103 1.8888e-05 -0.00066694
-0.0027188 0.0024166 0.00127 0.0020736
0.010644 -0.030276 -0.041791 0.39006 -0.017091 -0.021223 -0.0025409 0.00045905
-0.00011088 0.003025 -0.00085621 0.0019549
-0.001502 -0.0010349 -0.017202 -0.02116 0.28712 0.2056 0.00079517 0.0017272
0.00055159 0.0013243 0.00028489 0.00074499
1.6296e-05 -0.00067872 -0.0025289 0.00048196 0.00079465 0.0017266 0.071607 0.2724
0.01133 -0.018763 0.0019292 0.001273
-0.0027077 0.0024137 -8.7014e-05 0.0030276 0.0005526 0.001324 0.011305 -0.018783
-0.011014 0.21286 0.015274 -0.012689
0.0012732 0.002077 -0.00085738 0.0019517 0.00028447 0.00075467 0.0019415 0.0012607
0.015267 -0.012682 -0.027574 0.31614
1280000000 0.18121 0.26772 -0.0079331 -0.028828 -0.0019194 0.0022526 -0.00074568 -0.0018446
-0.00083704 0.0031219 0.0024636 0.0012477
-0.0079142 -0.028795 0.0043277 0.38089 -0.023854 -0.0084765 -0.00096008 0.0014422
0.0015943 0.0019243 0.00064463 0.0021656
-0.0019108 0.0022651 -0.023921 -0.008366 0.31758 0.16155 0.001715 8.1426e-05
0.0012249 0.00038086 0.00042818 0.000409
-0.00074637 -0.0018324 -0.00096104 0.0014543 0.0017135 7.2828e-05 0.10835 0.25482
0.0012651 -0.021087 -0.0006288 0.0001253
-0.00079566 0.0031299 0.0016191 0.0019099 0.0012327 0.00037909 0.0012114 -0.021087
0.025984 0.217 0.0037993 -0.015428
0.0024723 0.0012451 0.00066543 0.0021697 0.00042614 0.00042224 -0.00063594 0.00012902
0.0037999 -0.01542 0.021658 0.32072
1340000000 0.2182 0.23371 -0.017794 -0.019238 0.00077614 0.0043973 -0.0014426 -0.00086503
0.0014885 0.002771 0.001836 -0.0013724
-0.017759 -0.019234 0.0438 0.37227 -0.021613 0.0043013 -0.0001787 0.0019989
0.0018829 0.0009318 0.0014171 0.00081289
0.0007969 0.0043937 -0.021613 0.0044209 0.33935 0.11351 0.0012799 -0.00092938
0.0008622 -0.00045601 0.00029433 0.00041139
-0.0014598 -0.00086392 -0.00017441 0.0019988 0.0012792 -0.00092242 0.13969 0.23364
-0.0091745 -0.018179 0.00064858 0.00082658
0.0014935 0.0027551 0.0018855 0.00092664 0.0008614 -0.00046171 -0.0092241 -0.018171
0.055369 0.2125 -0.0030009 -0.014185
0.0018291 -0.0013773 0.0014235 0.00080086 0.00029449 0.00040358 0.00065522 0.00082751
-0.0029976 -0.014168 0.060173 0.3184
1400000000 0.25088 0.1954 -0.023695 -0.0076163 0.004999 0.0030968 -0.0020239 0.00038614
0.0024028 0.00089301 0.00040819 -0.0013672
-0.023667 -0.0076303 0.080876 0.35887 -0.014801 0.012428 0.0013133 0.0013978
0.0012412 -0.0007205 0.0013112 0.00027223
0.0050082 0.003066 -0.014745 0.012509 0.35228 0.059923 0.00023557 -0.0017822
5.2469e-05 -0.00048501 0.00050262 0.00024235
-0.0020398 0.00040114 0.0013161 0.0013837 0.0002367 -0.0017729 0.16791 0.20446
-0.015625 -0.011017 -0.001104 -0.00020492
0.0023957 0.0008799 0.0012366 -0.00072607 5.6343e-05 -0.00048942 -0.015653 -0.010988
0.088192 0.20862 -0.0097199 -0.0096666
0.00040414 -0.001369 0.0013161 0.00025754 0.00051067 0.00025213 -0.0011049 -0.00020745
-0.0097086 -0.0096829 0.10675 0.30883
1460000000 0.27341 0.15137 -0.020706 0.0047843 0.0054511 -0.0017329 -0.0017282 0.001598
0.0021115 -0.00048996 -0.00032008 -0.0010153
-0.020685 0.0047701 0.11471 0.33684 -0.0061594 0.015201 0.0017978 0.00021741
0.00099442 -0.0013626 0.0011892 -0.00070733
0.005439 -0.0017595 -0.0060803 0.015253 0.35816 0.0057207 -0.0013501 -0.0014617
0.00017063 -0.00040952 0.00060258 -0.00042908
-0.0017237 0.0015987 0.0017987 0.00021439 -0.0013528 -0.001468 0.19258 0.17557
-0.017404 -0.0036448 -0.00079331 0.0024646
0.0021078 -0.00048915 0.00098395 -0.0013636 0.00017087 -0.00040344 -0.017427 -0.0036116
0.11669 0.19399 -0.011977 -0.0032654
-0.00032754 -0.0010063 0.0011929 -0.00070771 0.00060054 -0.00043595 -0.00080248 0.0024738
-0.011975 -0.0032895 0.1412 0.28883
1520000000 0.2852 0.1098 -0.015037 0.010491 0.0032789 -0.0040213 -2.0851e-05 0.0026582
0.0021801 -0.0016761 -0.0011377 -0.00019595
-0.015036 0.010466 0.14789 0.32203 0.0014994 0.013013 0.0017977 -0.00079643
6.6849e-05 -0.0011633 0.00033747 -0.0010727
0.0032624 -0.0040398 0.0015809 0.013008 0.35131 -0.050507 -0.0012934 -0.00043081
0.00056662 -0.000854 7.1683e-05 -0.00016633
-1.2695e-05 0.0026605 0.0017812 -0.00080947 -0.0012856 -0.0004316 0.21429 0.13894
-0.016855 0.0029396 0.0017306 0.0022862
0.0021669 -0.0016947 5.9788e-05 -0.0011643 0.00057258 -0.00084554 -0.016851 0.0029935
0.14376 0.18047 -0.012245 0.0011694
-0.001144 -0.00019812 0.00032567 -0.0010749 5.9375e-05 -0.00015819 0.0017337 0.0022948
-0.012256 0.0011734 0.17574 0.27035
1580000000 0.29434 0.063964 -0.0081689 0.01371 -0.0008632 -0.0047638 0.0013871 0.002054
-0.00020875 -0.0021084 -0.00038733 0.00044783
-0.008181 0.013705 0.17479 0.29746 0.0050456 0.0082499 0.00052741 -0.0017307
-0.00069361 -0.0011727 -0.00034343 -0.00077637
-0.00088447 -0.0047581 0.0050907 0.0082292 0.33082 -0.10788 -0.0017828 0.00082375
-0.00031039 -0.001091 2.1614e-05 -0.00055237
0.0013952 0.0020449 0.00052335 -0.0017312 -0.0017917 0.00082947 0.22723 0.10158
-0.01298 0.0086361 0.0025818 0.00096752
-0.00021802 -0.002109 -0.00070492 -0.0011711 -0.00030675 -0.001097 -0.012966 0.0086762
0.16765 0.16324 -0.0097093 0.007417
-0.00039282 0.00045171 -0.0003433 -0.00078646 3.1756e-05 -0.00056643 0.0025835 0.00096057
-0.009709 0.0074125 0.2098 0.24388
1640000000 0.29638 0.022974 -0.0012704 0.012603 -0.002581 -0.0025347 0.0028478 0.0010579
-0.00056996 -0.0016628 -0.00026069 0.00056911
-0.0012816 0.012601 0.20419 0.27261 0.005856 0.0035492 -0.00075981 -0.0018601
-0.0011422 -0.00036047 -0.00050366 -0.00067443
-0.0026019 -0.0025076 0.0058744 0.0035213 0.30261 -0.15688 -0.00059361 0.0016645
-0.0010351 -0.0010531 -0.00014324 -0.0004778
0.0028465 0.0010416 -0.00077302 -0.0018615 -0.00059291 0.0016694 0.2394 0.055287
-0.0081669 0.010464 0.0027396 -0.00090832
-0.00056616 -0.0016548 -0.0011452 -0.00035269 -0.0010438 -0.001056 -0.0081493 0.010484
0.18926 0.13983 -0.0048732 0.0095565
-0.00025755 0.0005734 -0.00050561 -0.00067949 -0.00014385 -0.00049319 0.0027403 -0.00092147
-0.004877 0.0095509 0.23619 0.21335
1700000000 0.28924 -0.022149 0.0022493 0.0096474 -0.0033184 6.5785e-05 0.0031534 -0.0012942
-0.0021257 -0.00085905 0.00069379 0.00045632
0.0022367 0.009645 0.22206 0.24134 0.0038651 0.00074657 -0.0016226 -0.00058574
-0.00079157 0.000181 -0.0008954 -0.00040582
-0.0033282 9.0541e-05 0.0038807 0.00074027 0.25905 -0.19669 0.00064836 0.0016762
-0.0019352 -0.00019396 -0.00042155 -0.00079003
0.0031416 -0.0013135 -0.0016217 -0.0005732 0.00065414 0.0016737 0.23745 0.0082275
-0.0046089 0.011378 0.0016422 -0.002386
-0.002137 -0.0008494 -0.00078389 0.00018837 -0.0019279 -0.000209 -0.0045832 0.011395
0.20618 0.12053 8.042e-06 0.009937
0.00069982 0.00045349 -0.00090925 -0.00039412 -0.0004487 -0.00079288 0.0016462 -0.0023942
-1.0332e-07 0.0099404 0.25408 0.179
1760000000 0.27719 -0.070583 0.0045495 0.0062824 -0.0021786 0.0009157 0.0012093 -0.0035192
-0.0015338 0.00066904 0.00047013 -0.00064097
0.0045301 0.0062843 0.24802 0.20178 0.0016605 -0.00099775 -0.0012812 0.00031604
-0.00091742 0.0010113 -0.00048762 0.00040782
-0.0021772 0.00092958 0.001654 -0.0010092 0.21029 -0.22965 0.0014407 0.00094362
-0.0011612 0.0014732 -0.0012701 -0.00055031
0.0011975 -0.0035293 -0.0012805 0.00031124 0.0014375 0.00094379 0.23089 -0.041007
-0.00045384 0.010484 -0.00012993 -0.0027336
-0.0015184 0.00068273 -0.00090096 0.0010218 -0.0011545 0.0014785 -0.00042532 0.010494
0.22065 0.08689 0.0041776 0.0073025
0.00046364 -0.00064173 -0.0004873 0.00041655 -0.0012712 -0.00056604 -0.0001255 -0.0027369
0.0041767 0.0072991 0.26743 0.14154
1820000000 0.25264 -0.10789 0.0047179 0.0026597 -6.5125e-05 0.0023928 -0.0011045 -0.0030832
-0.0012445 0.0010455 -4.9232e-05 -0.00014032
0.0047163 0.0026534 0.25802 0.17187 -0.00020016 1.3683e-05 -0.0012292 0.0010951
0.00014344 0.0012614 -0.00049703 0.00050145
-4.636e-05 0.002378 -0.00019647 1.6162e-05 0.16034 -0.24538 0.0014478 9.8784e-05
-0.00019369 0.0024138 -0.0013954 0.00022381
-0.0011309 -0.0030764 -0.0012198 0.0011002 0.0014497 9.6162e-05 0.20433 -0.087606
0.0017238 0.0084453 -0.0016427 -0.0018092
-0.0012436 0.0010594 0.00015982 0.0012554 -0.00017718 0.002405 0.0017445 0.008437
0.23793 0.059182 0.0051629 0.0037017
-4.5986e-05 -0.00014679 -0.00048731 0.00051272 -0.0014018 0.0002317 -0.0016495 -0.0018067
0.0051628 0.0037057 0.27093 0.10601
1880000000 0.2177 -0.14827 0.0025823 0.00036523 -0.00038623 0.0020386 -0.0029572 -0.0021559
-0.00012347 0.0019043 0.00018465 -0.00061375
0.0025884 0.00035962 0.26259 0.12563 -0.0021497 0.00164 -2.9862e-05 0.0016285
0.00060573 0.0010224 0.00010214 0.00083232
-0.00036324 0.0020452 -0.0021359 0.001659 0.10819 -0.25503 0.0015024 -0.0010265
0.001571 0.0019985 -0.0010885 0.0013973
-0.0029876 -0.0021414 -2.1504e-05 0.0016344 0.0015092 -0.0010127 0.16722 -0.12898
0.00299 0.0059097 -0.002501 0.00026633
-0.00010752 0.0018904 0.00061853 0.0010173 0.0015767 0.0019897 0.003002 0.0058975
0.24147 0.027998 0.0053989 0.0014791
0.00017938 -0.00061826 0.00011489 0.00082602 -0.0010999 0.0013887 -0.0024955 0.00027413
0.0053884 0.0014791 0.27142 0.071593
1940000000 0.17823 -0.17406 0.00035679 -0.0013953 0.001259 0.0019323 -0.0035928 0.00054076
0.0015342 0.0010982 -0.0008028 -0.00044249
0.00036238 -0.0014018 0.26337 0.093896 -0.0011117 0.003812 0.0010901 0.0012139
0.0016699 0.00034062 0.00071633 0.00019943
0.001272 0.0019119 -0.0010696 0.0038292 0.062053 -0.24843 0.00030327 -0.0018568
0.002417 0.00040627 0.00021565 0.0016078
-0.0035772 0.00056536 0.001092 0.00122 0.00028702 -0.0018488 0.11692 -0.16238
0.002388 0.0036916 -0.0015453 0.0015055
0.001551 0.0010864 0.0016672 0.00031826 0.0024259 0.00039506 0.0024042 0.0036932
0.24443 -0.010119 0.0040798 -0.0022995
-0.00079248 -0.0004305 0.00072341 0.00018981 0.00026004 0.001594 -0.0015497 0.0015167
0.0040881 -0.0022887 0.26139 0.036409
2000000000 0.13171 -0.18884 -0.0035076 0.00039198 0.0023565 0.0016625 -0.0024219 0.0032791
0.0012328 -0.00010685 -0.00066182 0.00042395
-0.0035112 0.00039198 0.24946 0.058346 -0.00096034 0.0056257 0.0015133 0.00026169
0.0011438 -0.0012785 0.00035764 0.00016839
0.0023685 0.001626 -0.00092349 0.0056298 0.018356 -0.23355 -0.0011582 -0.0011014
0.0019636 -0.0012283 0.0016128 0.0013196
-0.0023872 0.0033085 0.0015051 0.00026496 -0.0011616 -0.0011098 0.063514 -0.17554
0.00059577 0.0026558 -8.2327e-05 0.002265
0.0012202 -0.00010485 0.0011253 -0.001287 0.0019749 -0.0012259 0.00058956 0.0026591
0.23945 -0.043695 0.00062872 -0.0031128
