!Keysight Technologies,M9804A,MY58100912,A.14.10.03
!Date: Thursday, April 27, 2023 10:28:33
!Correction: S11(C  6-Port  ) 
!S12(C  6-Port  ) 
!S13(C  6-Port  ) 
!S14(C  6-Port  ) 
!S15(C  6-Port  ) 
!S16(C  6-Port  ) 
!S21(C  6-Port  ) 
!S22(C  6-Port  ) 
!S23(C  6-Port  ) 
!S24(C  6-Port  ) 
!S25(C  6-Port  ) 
!S26(C  6-Port  ) 
!S31(C  6-Port  ) 
!S32(C  6-Port  ) 
!S33(C  6-Port  ) 
!S34(C  6-Port  ) 
!S35(C  6-Port  ) 
!S36(C  6-Port  ) 
!S41(C  6-Port  ) 
!S42(C  6-Port  ) 
!S43(C  6-Port  ) 
!S44(C  6-Port  ) 
!S45(C  6-Port  ) 
!S46(C  6-Port  ) 
!S51(C  6-Port  ) 
!S52(C  6-Port  ) 
!S53(C  6-Port  ) 
!S54(C  6-Port  ) 
!S55(C  6-Port  ) 
!S56(C  6-Port  ) 
!S61(C  6-Port  ) 
!S62(C  6-Port  ) 
!S63(C  6-Port  ) 
!S64(C  6-Port  ) 
!S65(C  6-Port  ) 
!S66(C  6-Port  ) 
!S6P File: Measurement: :
# Hz S  RI   R 50
500000000 -0.33786 -0.041682 -0.010158 -0.0022964 -0.0084377 0.012858 -0.0046674 0.012349
0.012884 0.004385 -0.005368 0.0090051
-0.010169 -0.0023397 -0.41902 -0.053571 0.0078175 -0.010488 0.0011902 0.01246
0.0075145 0.0022269 0.0010859 0.013536
-0.0084538 0.012843 0.0078078 -0.010514 -0.2661 0.20803 0.0076169 0.0040206
-0.002597 0.0078076 0.0010173 0.0126
-0.0046586 0.012363 0.0012016 0.012436 0.0075602 0.0040161 -0.33271 0.040018
-0.019535 -0.0065211 0.015537 0.026558
0.012915 0.0043443 0.0075111 0.0022539 -0.0025747 0.0078344 -0.019556 -0.0065062
-0.21844 -0.20444 -0.025963 0.0054136
-0.005382 0.0090207 0.0011003 0.013474 0.00096838 0.012548 0.015534 0.026536
-0.025987 0.0054181 -0.26273 -0.14818
560000000 -0.3165 0.12091 -0.024169 -0.063264 -6.5156e-05 0.012823 0.005562 0.01085
0.010936 0.0056181 0.011312 0.0083374
-0.024114 -0.06316 -0.37751 0.10679 -0.041393 -0.03775 0.013951 0.0043385
-0.013066 -0.0054278 0.0027137 0.00051958
-4.8812e-05 0.012814 -0.041519 -0.037672 -0.1839 0.25699 -0.00068855 -0.0043223
0.019771 0.0060685 0.0063909 -0.0057803
0.005565 0.010821 0.014036 0.0043716 -0.00072599 -0.0042988 -0.30703 0.13065
0.0035947 -0.024268 0.0047793 -0.021923
0.010961 0.0055937 -0.012995 -0.0053365 0.019705 0.0059989 0.0035814 -0.024264
-0.29018 -0.028164 0.0090795 -0.050084
0.011343 0.0083265 0.0027205 0.00050207 0.0064231 -0.0057743 0.0047905 -0.021918
0.009096 -0.050071 -0.32937 0.0041282
620000000 -0.27601 0.10537 -0.023629 0.0080302 0.0032251 0.0088032 0.0083208 -0.0052772
0.011129 0.00017767 0.0012414 -0.0020838
-0.023592 0.0079859 -0.403 0.058134 -0.018645 0.00016143 -0.0011739 -0.0020029
0.011517 -0.0061372 0.0016726 -0.0027723
0.0032552 0.0087563 -0.018663 0.000214 -0.1548 0.2663 -0.0013078 -0.0052914
-0.002601 -0.0022765 0.008632 -0.0033327
0.0082982 -0.0053095 -0.0011761 -0.001991 -0.0012604 -0.005262 -0.26732 0.14205
-0.038833 -0.020248 0.012879 0.027355
0.011166 0.00012647 0.01151 -0.0061783 -0.0026398 -0.0022804 -0.038853 -0.02019
-0.20689 -0.067022 -0.043297 0.014313
0.0012387 -0.0020427 0.0016652 -0.002811 0.0086647 -0.0034025 0.012895 0.027321
-0.043309 0.014332 -0.24822 -0.034178
680000000 -0.23622 0.19108 -0.027309 -0.014186 0.0048823 0.0052764 0.0019138 -0.0070214
-0.003035 -0.011203 0.0055119 -0.0071215
-0.027288 -0.014188 -0.38807 0.15642 -0.032848 -0.0014747 -0.0015927 -0.00056478
-0.0020812 -0.0091254 -0.00077673 -0.0019144
0.0048939 0.0052421 -0.032896 -0.0013852 -0.10266 0.28585 -0.00069485 -0.00039018
-0.0016586 0.00038278 -0.0026701 -0.0094326
0.0019033 -0.0070318 -0.0015643 -0.00056092 -0.00069787 -0.00039362 -0.22183 0.1934
-0.024241 -0.0068957 -0.010182 -0.011522
-0.0030482 -0.011187 -0.0021103 -0.0091401 -0.0016857 0.00038033 -0.024265 -0.0068775
-0.26086 0.033374 -0.0057568 -0.0086414
0.0055341 -0.0071369 -0.00078659 -0.0019112 -0.0026798 -0.0094244 -0.010211 -0.011515
-0.0057566 -0.0086415 -0.26151 0.074835
740000000 -0.19148 0.18575 -0.038787 0.027149 0.012738 -0.0050071 -0.00015994 -0.0042272
-0.003881 -0.0030227 -0.0064963 0.0027352
-0.03874 0.027095 -0.33506 0.17544 -0.035751 0.035367 -0.00088236 -0.0065294
-0.011383 0.0078949 -0.0023491 -0.0070523
0.012718 -0.0050792 -0.035683 0.035518 -0.068953 0.28384 -0.0022726 0.003011
-0.0021159 -0.0048752 -0.0012504 -0.0001309
-0.00019259 -0.0042317 -0.00091264 -0.0065478 -0.0022642 0.0030164 -0.20525 0.20125
-0.044478 -0.0071685 0.023834 0.016138
-0.0038825 -0.0030323 -0.011359 0.0078769 -0.0021157 -0.004884 -0.044505 -0.0071107
-0.15824 0.06055 -0.045049 -0.0002575
-0.0064956 0.0027519 -0.0024417 -0.0070544 -0.0012866 -0.00014107 0.023833 0.016103
-0.045052 -0.00028371 -0.25261 0.080975
800000000 -0.15854 0.22646 -0.022152 0.01672 0.0054564 -0.010805 -0.0046809 -0.0022423
-0.0040576 0.0022672 0.0047971 9.0215e-05
-0.022146 0.016727 -0.33855 0.24553 -0.0078413 0.034092 -0.0023847 0.0021988
-0.00072292 0.0029123 0.00095372 0.0053666
0.005435 -0.010824 -0.0077442 0.034152 -0.028557 0.30708 0.00093186 0.0015304
0.00018652 0.003414 -0.0016901 0.00078187
-0.004692 -0.0022275 -0.0023781 0.0022162 0.00093858 0.0015372 -0.17662 0.22927
-0.028879 0.014292 0.014661 -0.010578
-0.0040572 0.0022924 -0.00068194 0.0029064 0.00018483 0.0033942 -0.028875 0.01435
-0.20789 0.08495 -0.017769 0.019714
0.0048095 9.7537e-05 0.00096977 0.0053803 -0.0016767 0.00078613 0.01467 -0.0106
-0.017779 0.019694 -0.24833 0.13113
860000000 -0.12383 0.24641 -0.017371 0.03047 -0.0031959 -0.010203 -0.0020684 0.00072575
0.0038913 0.0046976 -0.0033582 -0.0028999
-0.017356 0.030437 -0.291 0.28715 0.0079431 0.034204 -3.9535e-05 0.0018243
0.0040795 0.00033912 0.0033738 0.00078857
-0.0032247 -0.010201 0.0080596 0.034195 0.019289 0.3151 -0.0005231 -0.00022745
0.0027246 -0.0014912 0.0015063 0.0042304
-0.0020817 0.00072154 -2.072e-05 0.0018557 -0.00052792 -0.00022161 -0.14008 0.24004
-0.018003 0.01879 -0.0059549 -0.0090125
0.0038968 0.0046889 0.0041386 0.00031939 0.002726 -0.0014899 -0.017995 0.018837
-0.15633 0.13711 -0.026755 0.015648
-0.0033597 -0.0029027 0.0033387 0.00075499 0.0015184 0.0042213 -0.0059662 -0.009006
-0.026754 0.015623 -0.1971 0.17848
920000000 -0.099723 0.26962 0.0051003 0.037659 -0.009529 -0.0046532 -0.0019177 0.0018148
0.0008228 0.0018041 0.0025572 -0.0015502
0.0051042 0.037613 -0.26262 0.30854 0.028134 0.02197 0.0013467 0.0011377
0.007158 -0.00031867 0.004001 -0.002729
-0.0095307 -0.0046237 0.028236 0.021892 0.065407 0.31596 0.0018728 -6.316e-05
0.0011712 -0.00031759 0.00091209 -0.0011397
-0.001926 0.0018186 0.0013502 0.0011287 0.0018746 -6.733e-05 -0.11641 0.25735
-0.010787 0.031471 0.0041221 -0.0069687
0.00081486 0.0018187 0.007186 -0.00038901 0.0011787 -0.00033991 -0.010721 0.031503
-0.14673 0.14316 -0.0025347 0.027996
0.0025788 -0.0015747 0.0039348 -0.0027698 0.00091168 -0.001164 0.00412 -0.0069826
-0.0025468 0.027977 -0.20905 0.19326
980000000 -0.052469 0.28915 0.01752 0.030017 -0.009251 0.0045948 0.0019294 0.0034835
0.0039859 -0.0013905 -0.0033621 -0.0022513
0.01751 0.030018 -0.20983 0.34266 0.033177 0.0049462 0.0020123 -1.765e-05
0.0017125 -0.0058236 -0.00028011 -0.0024622
-0.0092412 0.004642 0.033232 0.0048093 0.11168 0.30966 0.00051342 -0.0011542
0.0003323 -0.0020631 0.0014109 -0.00023432
0.0019392 0.0034658 0.0020241 9.5973e-06 0.00050554 -0.0011514 -0.07778 0.2686
0.0082253 0.030976 -0.0091985 -0.007623
0.0039743 -0.0014055 0.0017041 -0.0057836 0.00032234 -0.0020602 0.008289 0.030983
-0.11555 0.17298 0.004761 0.02021
-0.0033565 -0.0022384 -0.00030034 -0.0024765 0.0014049 -0.00024764 -0.0092012 -0.0076222
0.0047539 0.020195 -0.16633 0.24037
1040000000 -0.010635 0.29773 0.033205 0.018209 -0.0014227 0.0069816 0.0024976 0.00067689
0.00015852 -0.0036138 -0.00026269 -0.0014322
0.033168 0.01821 -0.17441 0.35588 0.029569 -0.014901 0.0015105 -0.0017499
-0.002512 -0.0026584 -0.0013833 -0.0025371
-0.0013866 0.0070064 0.029529 -0.015056 0.15781 0.29608 -0.0005141 -0.0015966
-0.001655 -0.00086962 -0.00054025 -0.0010538
0.0024943 0.00065491 0.0015276 -0.0017447 -0.00051644 -0.0015942 -0.050503 0.27898
0.020293 0.018832 -0.0021648 0.0011284
0.00013775 -0.0036223 -0.0025181 -0.0026623 -0.0016778 -0.00088333 0.020347 0.018806
-0.082954 0.18036 0.013746 0.01934
-0.00024283 -0.001423 -0.0014165 -0.0025294 -0.00054617 -0.0010519 -0.0021754 0.0011355
0.013716 0.019326 -0.14656 0.26153
1100000000 0.034687 0.30577 0.035887 -0.0042097 0.0028282 0.0039639 0.0023206 -0.0012623
-0.0018834 -0.00326 -0.0039261 -6.9679e-05
0.035852 -0.0042041 -0.13104 0.37326 0.015188 -0.028026 -8.2057e-05 -0.0018474
-0.0034305 -0.00092823 -0.0035411 -0.00055343
0.0028402 0.0039634 0.015093 -0.02813 0.20437 0.27582 -0.0019384 0.00021576
-0.0018465 0.00050228 -0.0010741 -0.00034096
0.0023032 -0.0012775 -0.00010076 -0.001847 -0.0019266 0.00021995 -0.010141 0.28409
0.025833 0.0051862 -0.002732 -0.00012297
-0.0019128 -0.0032463 -0.0034381 -0.00090749 -0.0018438 0.00050076 0.025868 0.0051397
-0.065708 0.19385 0.019644 0.0092443
-0.0039302 -2.9562e-05 -0.0035682 -0.00053144 -0.0010776 -0.00034394 -0.0027363 -0.00012435
0.019642 0.009237 -0.10103 0.2942
1160000000 0.085987 0.30109 0.024014 -0.020809 0.0027531 -0.00047506 -0.00034488 -0.0023083
-0.0041761 -0.00091187 -0.001015 0.0040472
0.024 -0.020811 -0.087459 0.3777 -0.0038322 -0.029373 -0.0017354 -0.0016576
-0.0028877 0.0024085 -0.0013833 0.0019469
0.0027512 -0.00047849 -0.0039716 -0.029399 0.24752 0.24491 -0.00066378 0.0018331
-0.00068688 0.0020282 -0.0010264 0.00034466
-0.00034451 -0.0023197 -0.0017366 -0.0016444 -0.0006703 0.0018294 0.029163 0.28152
0.022177 -0.011127 -0.0032197 0.0049915
-0.004197 -0.00089392 -0.002862 0.00244 -0.0006917 0.0020243 0.022176 -0.011154
-0.032558 0.20317 0.019 0.00091538
-0.00098269 0.0040435 -0.0013788 0.0019242 -0.0010269 0.00033975 -0.0032145 0.0049973
0.019002 0.00091268 -0.053755 0.29782
1220000000 0.13045 0.29031 0.010359 -0.030161 -0.0015897 -0.00078008 5.7532e-05 -0.00088016
-0.0027024 0.0023523 0.0012748 0.0021055
0.010368 -0.030137 -0.042864 0.3899 -0.017086 -0.021185 -0.0025284 0.00044553
7.2178e-07 0.0031163 -0.00079223 0.001969
-0.0016005 -0.00077158 -0.017206 -0.021143 0.28666 0.20566 0.00086456 0.0016838
0.00063701 0.0012678 0.00035103 0.00063549
4.7434e-05 -0.00089119 -0.0025269 0.00046646 0.00085482 0.0016845 0.069374 0.2732
0.011098 -0.018274 0.0019126 0.0014786
-0.0027018 0.002372 2.1469e-05 0.0031358 0.00064069 0.001265 0.011076 -0.018295
-0.010761 0.21249 0.01505 -0.012944
0.0012937 0.0021092 -0.00078461 0.0019716 0.00036211 0.00063391 0.0019157 0.0014756
0.015046 -0.012954 -0.023413 0.31655
1280000000 0.18028 0.2684 -0.0080989 -0.028609 -0.0018247 0.0025234 -0.00084383 -0.0020001
-0.00088614 0.0030926 0.0025117 0.0012352
-0.0080785 -0.028587 0.0032375 0.38085 -0.023925 -0.008456 -0.0009443 0.0015056
0.0016924 0.0019038 0.00067832 0.0021524
-0.0018059 0.0025263 -0.024004 -0.008353 0.3169 0.16165 0.0016814 -2.0182e-05
0.001198 0.00033818 0.00043509 0.00028301
-0.00084755 -0.0019897 -0.00093923 0.0015047 0.001679 -1.8099e-05 0.10629 0.25662
0.0010605 -0.020506 -0.00043677 9.6482e-05
-0.00087162 0.0030978 0.001699 0.0018969 0.001209 0.00033455 0.001019 -0.020514
0.025781 0.21676 0.0035484 -0.015525
0.002523 0.0012258 0.00068181 0.0021551 0.00045334 0.00028592 -0.00043795 9.9818e-05
0.0035561 -0.015545 0.025459 0.32031
1340000000 0.21756 0.2347 -0.017841 -0.018879 0.00090467 0.0045296 -0.0016738 -0.0008636
0.0014278 0.0028219 0.0018253 -0.0014072
-0.017824 -0.018864 0.042721 0.37253 -0.021736 0.0043944 -0.00011365 0.0019963
0.0019767 0.00087178 0.001386 0.00075618
0.00093069 0.0045288 -0.021744 0.0045081 0.3387 0.11392 0.0012055 -0.00096265
0.00081565 -0.00051638 0.00023608 0.00030735
-0.0016786 -0.00084402 -0.0001006 0.0020016 0.0012103 -0.00096547 0.13866 0.23626
-0.0091193 -0.017575 0.000669 0.0008041
0.0014516 0.0028147 0.0019814 0.00085374 0.00081424 -0.00052289 -0.0091574 -0.01757
0.055217 0.21269 -0.0033395 -0.014214
0.0018189 -0.0014189 0.0013815 0.00074063 0.00023663 0.00030887 0.00066872 0.00081012
-0.0033526 -0.014213 0.06373 0.31761
1400000000 0.25066 0.19649 -0.023547 -0.0072368 0.0051952 0.0031038 -0.0020752 0.00062047
0.0024104 0.00095404 0.00033501 -0.0014015
-0.023525 -0.0072369 0.080051 0.35926 -0.014843 0.012582 0.0013293 0.0013159
0.0012118 -0.000848 0.0012841 0.00025258
0.0052188 0.0030782 -0.014793 0.012682 0.35165 0.060622 0.00014712 -0.001757
-4.3465e-05 -0.00048542 0.00045864 0.00026377
-0.0020884 0.0006282 0.0013416 0.0013085 0.00014639 -0.0017486 0.16793 0.20747
-0.015433 -0.010356 -0.0009688 -0.00015781
0.0024236 0.00093935 0.0012141 -0.00086703 -3.7813e-05 -0.00049807 -0.01546 -0.010324
0.088019 0.20901 -0.010143 -0.0095398
0.00033266 -0.0013985 0.0012726 0.0002329 0.00047344 0.00026794 -0.00096813 -0.00015167
-0.010151 -0.0095459 0.10978 0.30758
1460000000 0.27338 0.15218 -0.020348 0.0049905 0.0056404 -0.0018891 -0.001601 0.00174
0.0022066 -0.0004516 -0.00034828 -0.0010292
-0.020335 0.0049935 0.11397 0.33732 -0.0060466 0.015406 0.0017408 0.00019955
0.000849 -0.0013578 0.0011206 -0.00059306
0.0056316 -0.0019213 -0.0059689 0.015449 0.35775 0.0066521 -0.0013859 -0.001287
0.00012773 -0.00031226 0.00064607 -0.00041478
-0.001602 0.0017439 0.0017596 0.00018581 -0.0013863 -0.0012822 0.19388 0.17852
-0.016819 -0.002989 -0.00091343 0.0023247
0.002201 -0.00046721 0.00083781 -0.0013686 0.00014239 -0.00031959 -0.016838 -0.0029524
0.11669 0.19472 -0.012369 -0.0030697
-0.00037149 -0.0010339 0.0011176 -0.00060893 0.0006435 -0.00042077 -0.00091343 0.0023233
-0.012374 -0.0030676 0.14379 0.28733
1520000000 0.28533 0.11047 -0.014588 0.010501 0.0033782 -0.0042304 0.00011594 0.0026564
0.0022527 -0.0017183 -0.0011673 -0.00020577
-0.014578 0.010503 0.14732 0.32259 0.0016688 0.013133 0.0016657 -0.00074573
-1.1363e-05 -0.0010586 0.00031651 -0.001008
0.0033558 -0.0042662 0.0017434 0.013139 0.35117 -0.049299 -0.0012511 -0.00031627
0.00060661 -0.00084702 9.2862e-05 -5.1873e-05
0.00011995 0.0026571 0.0016665 -0.00076425 -0.0012497 -0.00031099 0.21681 0.14112
-0.015919 0.0032871 0.0016702 0.002299
0.0022448 -0.0017309 -1.3927e-05 -0.0010539 0.00060812 -0.00084672 -0.015926 0.0033318
0.14425 0.1812 -0.012444 0.0016136
-0.0011745 -0.00019696 0.00031667 -0.0010183 8.7695e-05 -6.2569e-05 0.0016809 0.0022891
-0.012446 0.0016131 0.17803 0.26851
1580000000 0.29418 0.064322 -0.0078489 0.013485 -0.00090679 -0.0049652 0.0014395 0.0018844
-0.00015802 -0.0021945 -0.00031229 0.00048179
-0.0078366 0.013479 0.17437 0.29789 0.0052438 0.008249 0.00052203 -0.001608
-0.00063936 -0.0010271 -0.00026276 -0.00076053
-0.00093628 -0.0049646 0.0052899 0.0082305 0.33098 -0.10675 -0.0015924 0.000779
-0.00025598 -0.0011675 0.00015992 -0.00050459
0.0014462 0.0018839 0.0005153 -0.0016171 -0.0015912 0.00077089 0.23051 0.10262
-0.011896 0.0084866 0.0025099 0.00089998
-0.00018031 -0.0021918 -0.00064944 -0.0010205 -0.00025491 -0.0011584 -0.011879 0.0085277
0.1684 0.16384 -0.0097251 0.0077146
-0.00031674 0.00048141 -0.00027461 -0.00075286 0.00015179 -0.0004944 0.002523 0.00089552
-0.0097267 0.0077204 0.2115 0.24197
1640000000 0.29599 0.023317 -0.0010952 0.01226 -0.0027667 -0.0026486 0.0027644 0.0009799
-0.00065685 -0.0016842 -0.00020676 0.00055338
-0.001084 0.012248 0.20369 0.27316 0.0060044 0.0034326 -0.00065043 -0.0017888
-0.00099046 -0.0003516 -0.00042403 -0.00074751
-0.00278 -0.0026427 0.0060221 0.0034058 0.30321 -0.15582 -0.00051636 0.0015395
-0.0011316 -0.0010827 -9.1832e-05 -0.00053411
0.0027648 0.0009604 -0.0006736 -0.0017947 -0.00051256 0.0015325 0.24298 0.054839
-0.0071224 0.0097525 0.0026604 -0.00088378
-0.00067828 -0.0016754 -0.00099864 -0.00033906 -0.0011393 -0.0010976 -0.0070958 0.0097805
0.19037 0.14016 -0.0047683 0.0098436
-0.00020453 0.000554 -0.00043896 -0.00075184 -0.00010192 -0.00053517 0.0026579 -0.00089833
-0.0047574 0.0098505 0.23775 0.21174
1700000000 0.28873 -0.021538 0.0022369 0.0092801 -0.0035735 7.3736e-05 0.0030642 -0.0012841
-0.0021597 -0.00081579 0.00065201 0.00038956
0.0022382 0.0092627 0.22175 0.2418 0.0039003 0.00055172 -0.0015075 -0.00060418
-0.00071163 6.2756e-05 -0.00090913 -0.00046852
-0.0035769 9.492e-05 0.0039149 0.0005315 0.2598 -0.19589 0.00057147 0.0015891
-0.001956 -0.00020682 -0.00050176 -0.00092285
0.0030686 -0.0012945 -0.0015226 -0.0006052 0.00056626 0.0015914 0.24061 0.0062081
-0.0041087 0.010142 0.0017046 -0.002411
-0.0021736 -0.00080122 -0.00072159 6.4737e-05 -0.0019581 -0.00020309 -0.0040909 0.010155
0.2072 0.12047 0.00020765 0.010161
0.00065741 0.00037811 -0.00090982 -0.00046036 -0.00050865 -0.00091666 0.0016973 -0.0024191
0.0002113 0.010178 0.25527 0.17751
1760000000 0.27658 -0.069671 0.004392 0.0059372 -0.0023449 0.00099535 0.0012154 -0.0034789
-0.001505 0.00066122 0.00036832 -0.00067217
0.0043887 0.0059199 0.24767 0.20216 0.0015959 -0.001215 -0.0012129 0.00019189
-0.00090923 0.00086664 -0.00057113 0.00037673
-0.0023268 0.00098546 0.0015931 -0.0012252 0.21086 -0.22924 0.0012572 0.00095915
-0.0012111 0.0015563 -0.0013486 -0.00050042
0.0011963 -0.0034808 -0.0012208 0.00020483 0.0012611 0.00095924 0.23277 -0.044422
-0.00061459 0.0091178 -7.7076e-05 -0.0027528
-0.0015003 0.00067387 -0.00090928 0.00087291 -0.0011947 0.0015564 -0.00059229 0.0091075
0.22155 0.086416 0.0044881 0.0074738
0.00035934 -0.00068246 -0.00056797 0.00038623 -0.0013671 -0.0004898 -9.0128e-05 -0.0027525
0.0044908 0.0074749 0.26867 0.13984
1820000000 0.25233 -0.10659 0.0044166 0.0024453 -2.0055e-06 0.0024439 -0.0011337 -0.0030496
-0.0012119 0.0010256 -0.00011969 -5.7653e-05
0.0044261 0.0024312 0.25779 0.17234 -0.00030913 -0.00010238 -0.001323 0.00096519
-2.9591e-05 0.0011864 -0.00057052 0.00050376
4.0222e-05 0.0024512 -0.00030614 -9.3285e-05 0.16132 -0.24498 0.0014123 0.00032627
-0.0001843 0.0023833 -0.001403 0.00038902
-0.0011499 -0.0030377 -0.0013191 0.00097593 0.0014063 0.00034582 0.20448 -0.091466
0.0010027 0.0074047 -0.001673 -0.001833
-0.0012099 0.0010362 -2.1392e-05 0.0011923 -0.0001654 0.0023751 0.0010158 0.0073944
0.23856 0.058603 0.0055019 0.003636
-0.00012513 -5.8741e-05 -0.0005644 0.00050975 -0.0014173 0.00042378 -0.0016907 -0.0018188
0.0055002 0.0036352 0.27197 0.1043
1880000000 0.21783 -0.14686 0.0022144 0.00025319 -0.00040242 0.002089 -0.0030436 -0.0021372
-0.00013621 0.0018084 0.00021996 -0.00051468
0.0022079 0.00024736 0.26236 0.12586 -0.0023507 0.001614 -0.00021715 0.0016744
0.00048306 0.001124 5.4448e-05 0.00092107
-0.00039608 0.0020997 -0.0023415 0.0016253 0.10891 -0.25488 0.0016793 -0.00090281
0.0015159 0.0019424 -0.0010874 0.0014074
-0.0030577 -0.0021125 -0.00020558 0.0016726 0.0016767 -0.00091213 0.16527 -0.13239
0.0018532 0.0052632 -0.0025688 0.00022414
-0.00013169 0.0018042 0.00047966 0.0011192 0.0015188 0.0019416 0.0018535 0.0052565
0.24171 0.027235 0.0055832 0.0012785
0.00022185 -0.00052134 5.5305e-05 0.00093237 -0.0010759 0.0014003 -0.0025819 0.00023008
0.0055882 0.0012841 0.27243 0.069683
1940000000 0.17881 -0.17271 3.8002e-05 -0.0013431 0.0012887 0.0020349 -0.0036912 0.00059849
0.0013849 0.001118 -0.00066499 -0.0004604
3.4064e-05 -0.0013534 0.26297 0.094193 -0.0012428 0.0038349 0.0010098 0.0013496
0.0016516 0.00052067 0.00075384 0.00031099
0.0012968 0.0020561 -0.0012207 0.0038421 0.062693 -0.2484 0.00050397 -0.0020134
0.0024222 0.00049005 0.00012505 0.0015898
-0.0036884 0.00061907 0.0010242 0.0013407 0.00049206 -0.0020008 0.11376 -0.16409
0.0010707 0.0036959 -0.001679 0.0015608
0.0013917 0.0011018 0.0016599 0.00051147 0.0024173 0.00048351 0.0010685 0.0036932
0.24434 -0.010793 0.004201 -0.0025779
-0.00068057 -0.00046149 0.00075477 0.00030601 0.00013873 0.0016044 -0.0016811 0.0015712
0.0042045 -0.0025652 0.26194 0.034072
2000000000 0.13276 -0.18776 -0.0037735 0.00065846 0.0024724 0.0016572 -0.0023299 0.0035103
0.0011461 4.1009e-05 -0.00061856 0.00031251
-0.0037795 0.00066516 0.24899 0.058669 -0.0011106 0.0057182 0.0016275 0.00039965
0.0012438 -0.0011687 0.00058132 0.00022135
0.0024758 0.0016516 -0.0010688 0.0057366 0.01879 -0.23384 -0.001167 -0.0013213
0.0020158 -0.0011062 0.0017431 0.0013735
-0.0022933 0.0035264 0.0016301 0.00039565 -0.0011722 -0.0013174 0.060166 -0.17536
-0.00058017 0.0032136 -0.00017128 0.0022968
0.0011537 2.7852e-05 0.0012392 -0.001175 0.0019994 -0.0011113 -0.00057573 0.0032294
0.23912 -0.044183 0.00065162 -0.0033331
