!Keysight Technologies,M9804A,MY58100912,A.14.10.03
!Date: Thursday, April 27, 2023 10:28:33
!Correction: S11(C  6-Port  ) 
!S12(C  6-Port  ) 
!S13(C  6-Port  ) 
!S14(C  6-Port  ) 
!S15(C  6-Port  ) 
!S16(C  6-Port  ) 
!S21(C  6-Port  ) 
!S22(C  6-Port  ) 
!S23(C  6-Port  ) 
!S24(C  6-Port  ) 
!S25(C  6-Port  ) 
!S26(C  6-Port  ) 
!S31(C  6-Port  ) 
!S32(C  6-Port  ) 
!S33(C  6-Port  ) 
!S34(C  6-Port  ) 
!S35(C  6-Port  ) 
!S36(C  6-Port  ) 
!S41(C  6-Port  ) 
!S42(C  6-Port  ) 
!S43(C  6-Port  ) 
!S44(C  6-Port  ) 
!S45(C  6-Port  ) 
!S46(C  6-Port  ) 
!S51(C  6-Port  ) 
!S52(C  6-Port  ) 
!S53(C  6-Port  ) 
!S54(C  6-Port  ) 
!S55(C  6-Port  ) 
!S56(C  6-Port  ) 
!S61(C  6-Port  ) 
!S62(C  6-Port  ) 
!S63(C  6-Port  ) 
!S64(C  6-Port  ) 
!S65(C  6-Port  ) 
!S66(C  6-Port  ) 
!S6P File: Measurement: :
# Hz S  RI   R 50
500000000 -0.33685 -0.041351 -0.009479 -0.0029799 -0.0080579 0.012049 -0.0043564 0.011862
0.012146 0.0049354 -0.0048293 0.0088135
-0.0095034 -0.003002 -0.4187 -0.053527 0.0081275 -0.011002 0.0015316 0.012502
0.0081689 0.0022406 0.0014022 0.013173
-0.008264 0.012326 0.0080986 -0.010911 -0.26492 0.208 0.0070778 0.0035943
-0.0020603 0.007885 0.00080593 0.012119
-0.0042049 0.012008 0.0013008 0.012288 0.006897 0.0035047 -0.33312 0.037575
-0.020336 -0.0061001 0.016471 0.026522
0.011677 0.0044518 0.0076967 0.0018639 -0.0013841 0.0082683 -0.020703 -0.0060282
-0.21905 -0.20718 -0.025811 0.0058211
-0.005452 0.0088766 0.0010506 0.013154 0.00069978 0.012144 0.017026 0.026784
-0.026889 0.0060398 -0.2579 -0.15495
560000000 -0.31803 0.12174 -0.022727 -0.063711 -0.00092432 0.011698 0.0052504 0.011293
0.010744 0.0047009 0.011336 0.0081219
-0.023339 -0.062289 -0.37638 0.10646 -0.040961 -0.037326 0.014034 0.0033801
-0.012908 -0.0043369 0.002577 -0.00038401
-0.00050502 0.012644 -0.041361 -0.037497 -0.18411 0.25522 -0.00087492 -0.0045515
0.019709 0.0048464 0.0068966 -0.0055523
0.005601 0.011792 0.014057 0.0031097 -0.00053791 -0.0039754 -0.30908 0.13092
0.0031979 -0.023662 0.0045984 -0.02251
0.011152 0.0048968 -0.012794 -0.0049509 0.019228 0.0052231 0.0034625 -0.023364
-0.28772 -0.031021 0.0094108 -0.049686
0.011217 0.0081283 0.0029463 -0.00051885 0.0068999 -0.00613 0.0042744 -0.021586
0.0096092 -0.050001 -0.32816 -0.0018098
620000000 -0.27631 0.10393 -0.023281 0.0077838 0.0032328 0.008598 0.00835 -0.0044584
0.010575 0.00011225 0.0015616 -0.002607
-0.02334 0.0076825 -0.40268 0.058014 -0.018845 -0.00014139 -0.0015175 -0.0017078
0.011622 -0.006093 0.0019181 -0.0029458
0.0029565 0.0085582 -0.018752 -6.7086e-05 -0.15434 0.26543 -0.0016473 -0.004914
-0.0024411 -0.002407 0.0083123 -0.0035014
0.007838 -0.0052956 -0.001483 -0.0022328 -0.0011575 -0.0050443 -0.26919 0.14065
-0.039021 -0.018885 0.012304 0.027398
0.010902 0.00046241 0.011732 -0.0060323 -0.0028421 -0.0029841 -0.039521 -0.018773
-0.20711 -0.068862 -0.04318 0.015098
0.0011922 -0.0026938 0.0013924 -0.0029122 0.0088079 -0.0034276 0.013567 0.027324
-0.043255 0.015644 -0.24733 -0.042365
680000000 -0.236 0.191 -0.027265 -0.014602 0.0046936 0.005234 0.0016809 -0.0071344
-0.003064 -0.01136 0.0051476 -0.006924
-0.027543 -0.014427 -0.38798 0.15617 -0.033022 -0.0015214 -0.0016602 -0.00063099
-0.0021419 -0.0090366 -0.0011306 -0.0018322
0.0049817 0.0055535 -0.032906 -0.0014237 -0.10315 0.28538 -0.00054074 -0.00065232
-0.0018521 0.00049813 -0.0028137 -0.0097337
0.002003 -0.0065965 -0.0015618 -0.00025468 -0.00067329 -0.00057808 -0.2227 0.19371
-0.024138 -0.0065409 -0.0098973 -0.012031
-0.0035013 -0.011351 -0.0021536 -0.0092776 -0.0018292 0.00031512 -0.024456 -0.0071739
-0.26087 0.031848 -0.0053586 -0.0085116
0.0057946 -0.0070021 -0.0010155 -0.0019562 -0.0030406 -0.0095282 -0.010667 -0.011596
-0.0055665 -0.0081132 -0.26268 0.069205
740000000 -0.19158 0.1856 -0.039304 0.02674 0.012664 -0.0051811 -0.0003046 -0.0045402
-0.0037331 -0.0028136 -0.0064775 0.002449
-0.039215 0.026786 -0.33586 0.17533 -0.036022 0.035025 -0.00060265 -0.0061728
-0.011292 0.0080739 -0.0024209 -0.0070198
0.012643 -0.004799 -0.035735 0.035389 -0.069536 0.28396 -0.0022421 0.0028565
-0.0019905 -0.0047684 -0.0016566 -0.00026968
-0.0005629 -0.0046007 -0.0010114 -0.0063414 -0.002138 0.0026837 -0.20668 0.20167
-0.044597 -0.0065267 0.023944 0.01608
-0.0042158 -0.0030827 -0.011147 0.0079878 -0.002116 -0.0048238 -0.044713 -0.0064599
-0.15811 0.058788 -0.045253 -0.00043678
-0.0065009 0.0026602 -0.0025106 -0.0070495 -0.0016931 -0.00047518 0.024712 0.016033
-0.045617 -0.0006627 -0.25348 0.073427
800000000 -0.15872 0.22644 -0.022858 0.016835 0.0054223 -0.010612 -0.0045973 -0.0023228
-0.0039844 0.0021991 0.0048157 -0.00018366
-0.022816 0.01688 -0.33922 0.24575 -0.0081151 0.034421 -0.0023996 0.0021476
-0.00071926 0.00296 0.0010523 0.0052784
0.0053021 -0.010603 -0.0079636 0.034435 -0.028993 0.3076 0.00086403 0.0015125
0.00012991 0.0034977 -0.0018393 0.00074125
-0.0048316 -0.0020446 -0.0024869 0.0022993 0.0008133 0.0015402 -0.17762 0.23076
-0.029049 0.014711 0.014804 -0.010771
-0.0037602 0.0022674 -0.00055974 0.0028929 0.00028821 0.003609 -0.028975 0.014536
-0.20863 0.082486 -0.018325 0.019327
0.0044273 -0.00015194 0.00078801 0.0055584 -0.0018053 0.00075604 0.014815 -0.010351
-0.018444 0.019296 -0.25141 0.12486
860000000 -0.12431 0.24707 -0.017657 0.030709 -0.0032832 -0.01006 -0.0020382 0.00095039
0.0038027 0.0045201 -0.0035508 -0.0031458
-0.017768 0.030879 -0.29139 0.28788 0.0078829 0.034606 -0.0001539 0.0020361
0.0037417 4.9354e-05 0.0030413 0.00062252
-0.0032498 -0.0099948 0.0080349 0.034541 0.019222 0.3158 -0.00059622 -8.9178e-05
0.002682 -0.001466 0.0014839 0.0043288
-0.0022351 0.00080704 1.338e-05 0.0020467 -0.00068153 -6.4e-05 -0.14063 0.24176
-0.018212 0.019427 -0.0061829 -0.0091864
0.0039659 0.0043253 0.0038466 -0.00011855 0.0027119 -0.0014081 -0.017952 0.019309
-0.1567 0.13573 -0.02723 0.01513
-0.0036409 -0.003022 0.0034511 0.00076767 0.0014557 0.0044032 -0.0058861 -0.0092616
-0.027278 0.015379 -0.19971 0.17466
920000000 -0.10013 0.26997 0.0051364 0.038192 -0.0095139 -0.004499 -0.0017903 0.0018304
0.00088431 0.0018893 0.002699 -0.0015018
0.0049691 0.038118 -0.26261 0.30923 0.028289 0.022143 0.0015692 0.0010604
0.007156 -0.00036115 0.0039681 -0.0026219
-0.0095518 -0.0044267 0.028411 0.022099 0.065843 0.31645 0.0019606 9.5678e-05
0.0011562 -0.00032092 0.00091182 -0.00098546
-0.0017326 0.0018017 0.0015803 0.0010102 0.0019699 6.6147e-05 -0.11617 0.2591
-0.010692 0.031987 0.0043945 -0.0069032
0.0011125 0.0021124 0.0070276 -0.00017416 0.0012658 -0.00031329 -0.010682 0.032101
-0.1478 0.14208 -0.0030242 0.028378
0.0027712 -0.0016326 0.0040629 -0.0028227 0.00087478 -0.00099936 0.0045813 -0.0068314
-0.0031112 0.028302 -0.21297 0.18825
980000000 -0.05192 0.2897 0.017658 0.030292 -0.0091501 0.004711 0.0019872 0.0033931
0.0039925 -0.0013706 -0.003368 -0.0021746
0.017592 0.030338 -0.20952 0.34347 0.033319 0.0049912 0.0020734 -0.00011392
0.0016751 -0.0058844 -0.0003526 -0.0024959
-0.0091329 0.0047241 0.033371 0.0048482 0.11217 0.30995 0.00063264 -0.0011665
0.00042 -0.0020931 0.0015289 -0.0002159
0.0021502 0.003433 0.0019798 -0.000189 0.00059122 -0.0011922 -0.077084 0.27041
0.0086674 0.031361 -0.0092988 -0.0079378
0.004089 -0.0014841 0.0016294 -0.0060621 0.00036969 -0.0021642 0.0087648 0.031399
-0.11677 0.17216 0.0046243 0.020392
-0.0032021 -0.0022792 -0.00054601 -0.0024394 0.0015679 -0.00018537 -0.0093651 -0.0079017
0.00473 0.02056 -0.17044 0.23719
1040000000 -0.0099418 0.29837 0.033486 0.018462 -0.0012166 0.0071104 0.0025551 0.00057407
9.2468e-05 -0.003667 -8.6513e-05 -0.001462
0.03344 0.018484 -0.17387 0.35666 0.029674 -0.014959 0.0014378 -0.0017658
-0.0024478 -0.0025997 -0.0012165 -0.0026513
-0.0011484 0.00705 0.02963 -0.015133 0.15838 0.29617 -0.00054069 -0.0016435
-0.0016313 -0.0010251 -0.00038548 -0.0011717
0.0024246 0.00053754 0.001485 -0.0018249 -0.00053986 -0.0016208 -0.049268 0.28032
0.020874 0.018886 -0.0019701 0.0011413
6.8642e-05 -0.0034078 -0.0023185 -0.0026528 -0.0016443 -0.0009353 0.02103 0.018966
-0.084163 0.17984 0.013591 0.019907
-0.00013766 -0.0014977 -0.0013569 -0.0027481 -0.00048847 -0.0011263 -0.0020143 0.0011406
0.013612 0.019981 -0.1511 0.25908
1100000000 0.035729 0.30592 0.036194 -0.0041344 0.0030285 0.0039877 0.0022048 -0.0012728
-0.0019751 -0.0031182 -0.0038194 -2.6067e-05
0.036225 -0.0041517 -0.13036 0.3741 0.015197 -0.028105 -7.9796e-05 -0.0017778
-0.0033011 -0.00084196 -0.003463 -0.0004892
0.0030203 0.0039342 0.015098 -0.028199 0.20481 0.27579 -0.0020389 0.00016484
-0.0018821 0.00037196 -0.0011842 -0.00052524
0.0023397 -0.0013028 -9.603e-05 -0.0017712 -0.001996 0.00015958 -0.0082799 0.28517
0.026463 0.0050441 -0.0026937 -0.00040407
-0.001967 -0.003201 -0.003264 -0.00082965 -0.0018871 0.00032915 0.026483 0.0050436
-0.066783 0.19372 0.019723 0.0097117
-0.0037839 -5.3589e-05 -0.0036347 -0.00053706 -0.0011844 -0.00051125 -0.0028078 -0.00026006
0.019579 0.0097461 -0.10557 0.29239
1160000000 0.086963 0.30107 0.024253 -0.020929 0.0029145 -0.00060178 -0.00052121 -0.0022856
-0.0041324 -0.00079408 -0.00095936 0.0041766
0.024277 -0.020776 -0.0864 0.37819 -0.0038198 -0.029385 -0.0016169 -0.0016534
-0.002798 0.0023782 -0.001405 0.0019324
0.0028936 -0.00065876 -0.0039547 -0.029384 0.24797 0.24478 -0.00074445 0.0017996
-0.0007219 0.0019699 -0.0010916 0.00025196
-0.00039453 -0.0022665 -0.0016417 -0.0016795 -0.00077954 0.0018172 0.031479 0.28158
0.02278 -0.011561 -0.0034548 0.0051228
-0.0041969 -0.0007347 -0.0026962 0.0023859 -0.00070277 0.0019518 0.022726 -0.011581
-0.033029 0.20339 0.019117 0.0012837
-0.00098768 0.004014 -0.0013596 0.0019935 -0.0010815 9.1539e-05 -0.003407 0.0052622
0.019101 0.0013119 -0.057976 0.29623
1220000000 0.13149 0.28974 0.010612 -0.030324 -0.0014804 -0.0010498 5.1399e-05 -0.00066919
-0.002717 0.0024177 0.0012354 0.0020945
0.010637 -0.030314 -0.041782 0.3901 -0.01708 -0.021229 -0.0025317 0.00047189
-9.573e-05 0.0030361 -0.00087545 0.0019496
-0.0014897 -0.0010264 -0.017179 -0.021163 0.28711 0.20557 0.00084218 0.0017132
0.00053033 0.0013424 0.00026097 0.00073126
-2.318e-05 -0.00070099 -0.0025592 0.00045012 0.00077898 0.0017744 0.071588 0.27249
0.011342 -0.01876 0.001909 0.0012567
-0.0027492 0.0023739 -7.272e-05 0.0030472 0.00053602 0.0012598 0.011326 -0.018799
-0.011107 0.21269 0.015346 -0.012755
0.0012936 0.0021095 -0.00088399 0.0019586 0.00013486 0.00077425 0.0019266 0.0012862
0.015339 -0.012819 -0.027805 0.31614
1280000000 0.18124 0.26786 -0.0078912 -0.028818 -0.0018945 0.0022234 -0.0007496 -0.0018618
-0.00083365 0.0031434 0.0024423 0.0012304
-0.0078543 -0.028797 0.004355 0.38095 -0.023868 -0.0084365 -0.00095858 0.0014547
0.0015964 0.0019019 0.00062667 0.0021859
-0.001904 0.0022804 -0.023907 -0.0083458 0.31755 0.16157 0.0017066 0.00013684
0.0012313 0.00041753 0.00042172 0.00041425
-0.00077606 -0.0017871 -0.00096575 0.0014246 0.0017255 7.8258e-05 0.10832 0.25481
0.0012422 -0.021069 -0.00061151 0.00015118
-0.00080456 0.0030646 0.0015964 0.0019775 0.0012321 0.00037634 0.0012 -0.021096
0.025885 0.21699 0.0037763 -0.015422
0.0025696 0.0012069 0.00059546 0.0021596 0.00034126 0.00044794 -0.00060588 4.202e-05
0.0038117 -0.015347 0.021493 0.32076
1340000000 0.21827 0.23369 -0.017774 -0.019256 0.00080117 0.004406 -0.0014275 -0.00086542
0.001477 0.0027768 0.0017941 -0.0013515
-0.017791 -0.019273 0.043809 0.37231 -0.021615 0.0043223 -0.00015837 0.0019841
0.0018733 0.00095986 0.0014027 0.00081905
0.00079609 0.0043915 -0.02161 0.0044023 0.33935 0.11354 0.0012965 -0.00091476
0.00085623 -0.00044576 0.00028003 0.00043002
-0.0014649 -0.00083317 -0.00015466 0.0019775 0.0012373 -0.0009057 0.13966 0.23364
-0.0091346 -0.018159 0.00065125 0.00083833
0.0015144 0.0027686 0.0019847 0.00095573 0.00088248 -0.00046086 -0.0091726 -0.01813
0.055344 0.21251 -0.0029749 -0.014159
0.0018554 -0.0013937 0.0013917 0.00074745 0.00023057 0.00028867 0.00068527 0.00088962
-0.0029004 -0.014138 0.060078 0.31846
1400000000 0.25085 0.19544 -0.023704 -0.0076295 0.0049606 0.0031064 -0.001995 0.00038995
0.0024135 0.00086314 0.00039052 -0.0013767
-0.023669 -0.0076127 0.080891 0.35889 -0.014802 0.012445 0.0013123 0.0014335
0.0012457 -0.0007196 0.0013097 0.00025154
0.0049968 0.0030432 -0.014733 0.01251 0.35225 0.059938 0.00018192 -0.0018026
5.181e-05 -0.00045464 0.00048707 0.00025392
-0.0020329 0.00045551 0.0013459 0.0013839 0.00023669 -0.0018295 0.1679 0.20445
-0.015641 -0.011029 -0.0010876 -0.00021093
0.0024114 0.0009016 0.0012799 -0.00073499 1.8338e-05 -0.00044686 -0.015627 -0.011
0.088039 0.20859 -0.0097007 -0.0096498
0.00038584 -0.0013615 0.0012902 0.00025906 0.00055471 0.0002502 -0.0011093 -0.00020217
-0.0096595 -0.00969 0.10665 0.30894
1460000000 0.27347 0.15143 -0.020717 0.0048268 0.0054516 -0.0016772 -0.0017066 0.0015739
0.0021326 -0.00045826 -0.0003243 -0.0010269
-0.020723 0.0047471 0.11473 0.33688 -0.006109 0.015191 0.0017884 0.00020576
0.00099114 -0.0013524 0.0011983 -0.00070561
0.0054516 -0.0017531 -0.0060614 0.015275 0.35814 0.0056649 -0.001377 -0.0014759
0.00020492 -0.00041343 0.00063015 -0.00041587
-0.001688 0.0016241 0.0017557 0.00017608 -0.001329 -0.0014708 0.19257 0.17561
-0.017366 -0.0036984 -0.00079003 0.0024543
0.0020538 -0.00045012 0.00098599 -0.0013247 0.00017631 -0.0003797 -0.017361 -0.0036609
0.11667 0.19396 -0.01198 -0.00329
-0.00028527 -0.0010728 0.0011676 -0.00072979 0.00067162 -0.00044911 -0.00080307 0.0024675
-0.01202 -0.0033201 0.14108 0.2889
1520000000 0.28518 0.10984 -0.015047 0.01051 0.0032705 -0.0040134 -5.5221e-06 0.0026516
0.0021902 -0.0016789 -0.0011417 -0.00018581
-0.015042 0.01049 0.14791 0.32205 0.0015005 0.013026 0.0018068 -0.00079112
6.6239e-05 -0.0011652 0.00032895 -0.0010755
0.0032538 -0.0040397 0.0015775 0.013059 0.35124 -0.050586 -0.0013003 -0.00038438
0.00054378 -0.00086609 9.6353e-05 -0.00017153
-5.4691e-05 0.0026666 0.0018189 -0.00080547 -0.0012784 -0.00045015 0.21427 0.13892
-0.016858 0.0029395 0.0017088 0.0022813
0.0021946 -0.0016338 5.7982e-05 -0.0011716 0.00055968 -0.00086883 -0.016852 0.0029579
0.14371 0.18052 -0.012238 0.001162
-0.0011509 -0.00018669 0.00035912 -0.0010678 0.00011528 -0.00020787 0.0017414 0.002228
-0.012275 0.0011914 0.17562 0.27036
1580000000 0.29436 0.063932 -0.0081845 0.013751 -0.00086744 -0.004725 0.0013763 0.0020517
-0.00017278 -0.0021431 -0.00038293 0.00044795
-0.0082015 0.013738 0.17478 0.29743 0.0050341 0.0082646 0.00055108 -0.0017054
-0.00068625 -0.0011601 -0.00034359 -0.00077568
-0.00088909 -0.0047355 0.0050788 0.008246 0.33084 -0.10788 -0.0018183 0.00084815
-0.0002988 -0.0010869 3.8905e-05 -0.00059089
0.0014522 0.0020151 0.00053296 -0.001746 -0.0017685 0.00078294 0.22718 0.10159
-0.013 0.0086305 0.0025792 0.00097303
-0.00021891 -0.0021035 -0.00070267 -0.0011886 -0.00031731 -0.0010758 -0.012958 0.008688
0.16761 0.16323 -0.0097222 0.0074108
-0.00042128 0.00042136 -0.00033622 -0.0008051 0.00010827 -0.00054502 0.0025469 0.00094066
-0.0097467 0.0074053 0.20963 0.24395
1640000000 0.29635 0.022933 -0.0012792 0.012629 -0.0025587 -0.0024974 0.0028445 0.0010294
-0.00058413 -0.0016488 -0.00026763 0.00058565
-0.0012777 0.012616 0.20419 0.27263 0.0058271 0.0035673 -0.00076422 -0.0018805
-0.0011427 -0.00035931 -0.00049707 -0.00068253
-0.0026054 -0.0025382 0.0058689 0.003523 0.30259 -0.15695 -0.00058821 0.0016401
-0.001024 -0.001103 -0.00012825 -0.00046604
0.0028921 0.0010518 -0.0007594 -0.001842 -0.00056216 0.0017037 0.23936 0.0553
-0.0082071 0.01045 0.0027335 -0.00089739
-0.00053296 -0.0016132 -0.00113 -0.00033997 -0.00103 -0.0010507 -0.0081777 0.01045
0.18928 0.13978 -0.0048638 0.009556
-0.0002421 0.0005364 -0.00050241 -0.00066689 -0.00014017 -0.0004279 0.0027319 -0.0009423
-0.0048921 0.0095321 0.23611 0.21347
1700000000 0.28921 -0.022157 0.0022519 0.0096618 -0.0033208 5.9898e-05 0.0031538 -0.0013067
-0.0021208 -0.00083979 0.00068816 0.00045857
0.0022426 0.0096702 0.22202 0.24134 0.0038525 0.00074947 -0.0015848 -0.00058183
-0.00079798 0.00018988 -0.00090226 -0.00041249
-0.0033246 0.00010974 0.0038609 0.00074184 0.25911 -0.19672 0.0007139 0.0017114
-0.0019095 -0.00018126 -0.00045394 -0.00081421
0.0031177 -0.0013361 -0.0015964 -0.00058654 0.00065593 0.0016807 0.23739 0.0082005
-0.0046509 0.011376 0.00165 -0.0023768
-0.0021163 -0.0008253 -0.0007864 0.00021163 -0.0019805 -0.00017625 -0.0046077 0.011383
0.20608 0.12054 -1.5064e-05 0.009941
0.00065489 0.00054224 -0.00093632 -0.00038915 -0.0004661 -0.00080904 0.001673 -0.0023807
-6.2222e-05 0.0099644 0.25398 0.17916
1760000000 0.27717 -0.070651 0.0045668 0.0062887 -0.0021442 0.00092983 0.0012401 -0.003496
-0.0015304 0.00066803 0.00046496 -0.00066196
0.0045646 0.0062754 0.24802 0.2018 0.0016461 -0.00098016 -0.0012919 0.00032259
-0.0009221 0.0010238 -0.00047832 0.00041282
-0.0021356 0.00095398 0.0016555 -0.00098626 0.21031 -0.2297 0.0013785 0.00090016
-0.0011572 0.0015039 -0.0013032 -0.00057588
0.0011945 -0.0034815 -0.001304 0.0002982 0.0014358 0.00087966 0.23091 -0.040947
-0.00048143 0.010506 -0.000133 -0.002746
-0.0015524 0.0006916 -0.00091028 0.0010135 -0.0011287 0.0014865 -0.00045848 0.010539
0.22055 0.086919 0.0041462 0.0072904
0.00048031 -0.00067929 -0.00047636 0.00043308 -0.0012959 -0.00065151 -0.00017094 -0.0026765
0.0041344 0.0073303 0.26734 0.14167
1820000000 0.25264 -0.10791 0.0047381 0.0026576 -8.2929e-05 0.0023686 -0.0011425 -0.0031115
-0.0012411 0.0010338 -4.0929e-05 -0.00014299
0.0047274 0.0026589 0.25803 0.1719 -0.00017793 3.904e-05 -0.0012032 0.0010613
0.0001568 0.001251 -0.0005065 0.00050759
-6.2481e-05 0.0023981 -0.00018425 3.2079e-05 0.16035 -0.2453 0.0014659 2.9679e-05
-0.00019184 0.0024158 -0.0014129 0.00024693
-0.0011584 -0.0031299 -0.0012202 0.0011 0.0014178 8.1205e-05 0.20431 -0.087623
0.0017105 0.0084578 -0.0016503 -0.0018318
-0.0012296 0.0010321 0.0001558 0.0012691 -0.00021574 0.0023433 0.0017491 0.0084252
0.23787 0.059201 0.0051672 0.0037155
-8.6403e-05 -0.00014361 -0.00047444 0.00049515 -0.0013349 0.00021636 -0.0015991 -0.0018298
0.0051632 0.0037233 0.27087 0.10617
1880000000 0.21767 -0.14821 0.0025751 0.00034153 -0.00044257 0.0020239 -0.0029528 -0.0021375
-0.00014064 0.0018842 0.00015522 -0.00065388
0.0026133 0.00035208 0.2626 0.12566 -0.002178 0.001654 6.2802e-06 0.0016487
0.00061916 0.001005 0.00013009 0.00083481
-0.00037938 0.0020504 -0.0021186 0.0016883 0.10818 -0.255 0.0014616 -0.00094652
0.001589 0.0020164 -0.0010901 0.0013766
-0.0029794 -0.0021512 2.7156e-06 0.0016581 0.0014512 -0.001006 0.16724 -0.12899
0.003018 0.0058918 -0.0024919 0.00024073
-9.5849e-05 0.0018991 0.00063384 0.0010323 0.0015821 0.0019671 0.0030832 0.0059179
0.2414 0.028101 0.0054025 0.0014668
0.0002271 -0.00059867 0.00016334 0.00081187 -0.0011164 0.0014754 -0.0024645 0.00026936
0.0054095 0.0014421 0.27142 0.071705
1940000000 0.17826 -0.17384 0.0003355 -0.0014197 0.0012928 0.0019575 -0.0035663 0.00059848
0.0014963 0.0010648 -0.00079126 -0.00045342
0.00035957 -0.001371 0.26339 0.093923 -0.0011133 0.0038103 0.0010637 0.0012395
0.0016474 0.00034334 0.00073056 0.00018244
0.0012925 0.0019338 -0.0010523 0.0038098 0.061938 -0.24847 0.00031344 -0.0018981
0.0023732 0.00047076 0.00022647 0.0016003
-0.0035241 0.00060135 0.001058 0.0012309 0.00029076 -0.0019456 0.11694 -0.16232
0.0023714 0.0036723 -0.001584 0.0014712
0.0015571 0.0011371 0.0016444 0.00030939 0.0024854 0.00042922 0.0023933 0.0037543
0.24446 -0.010058 0.0040994 -0.0023092
-0.00084319 -0.00041673 0.00071902 0.00020624 0.00024055 0.0015763 -0.0016441 0.0015348
0.0041037 -0.0023448 0.26139 0.036505
2000000000 0.13168 -0.18887 -0.0034546 0.00041683 0.0023177 0.0016356 -0.0023756 0.0032326
0.001244 -8.9011e-05 -0.00063919 0.0004088
-0.0034809 0.00044215 0.24945 0.05837 -0.00094974 0.005605 0.0014788 0.00022709
0.0011356 -0.0012592 0.00037303 0.00016315
0.0023942 0.0017153 -0.0009138 0.0056435 0.018348 -0.23367 -0.0011704 -0.0010884
0.0019619 -0.0012112 0.0016191 0.0012773
-0.0025226 0.0032903 0.0015602 0.00024563 -0.0012418 -0.0010579 0.063367 -0.17553
0.00060201 0.0026263 -0.00012733 0.0022767
0.0011882 -6.5513e-05 0.0011235 -0.0012527 0.0019826 -0.0012621 0.00058808 0.0025593
0.2395 -0.043632 0.00064033 -0.003143
