!Keysight Technologies,M9804A,MY58100912,A.14.10.03
!Date: Thursday, April 27, 2023 10:28:33
!Correction: S11(C  6-Port  ) 
!S12(C  6-Port  ) 
!S13(C  6-Port  ) 
!S14(C  6-Port  ) 
!S15(C  6-Port  ) 
!S16(C  6-Port  ) 
!S21(C  6-Port  ) 
!S22(C  6-Port  ) 
!S23(C  6-Port  ) 
!S24(C  6-Port  ) 
!S25(C  6-Port  ) 
!S26(C  6-Port  ) 
!S31(C  6-Port  ) 
!S32(C  6-Port  ) 
!S33(C  6-Port  ) 
!S34(C  6-Port  ) 
!S35(C  6-Port  ) 
!S36(C  6-Port  ) 
!S41(C  6-Port  ) 
!S42(C  6-Port  ) 
!S43(C  6-Port  ) 
!S44(C  6-Port  ) 
!S45(C  6-Port  ) 
!S46(C  6-Port  ) 
!S51(C  6-Port  ) 
!S52(C  6-Port  ) 
!S53(C  6-Port  ) 
!S54(C  6-Port  ) 
!S55(C  6-Port  ) 
!S56(C  6-Port  ) 
!S61(C  6-Port  ) 
!S62(C  6-Port  ) 
!S63(C  6-Port  ) 
!S64(C  6-Port  ) 
!S65(C  6-Port  ) 
!S66(C  6-Port  ) 
!S6P File: Measurement: :
# Hz S  RI   R 50
500000000 -0.33698 -0.041213 -0.0095623 -0.0026771 -0.0084223 0.012265 -0.0044854 0.012295
0.012603 0.0047539 -0.0047805 0.0090915
-0.009528 -0.0026548 -0.41877 -0.053393 0.0080533 -0.010799 0.0015302 0.012262
0.0080043 0.0021711 0.0016494 0.013351
-0.0083498 0.012339 0.0079936 -0.010847 -0.26471 0.20795 0.0075 0.0036746
-0.0021753 0.0076175 0.0011095 0.012073
-0.004476 0.012304 0.0015688 0.012284 0.007529 0.0036815 -0.33373 0.037868
-0.020057 -0.0065613 0.016555 0.02663
0.012668 0.0047278 0.0079839 0.0021239 -0.002242 0.0075628 -0.020041 -0.0065511
-0.21824 -0.20656 -0.026072 0.0058688
-0.0046828 0.0090827 0.0016139 0.013378 0.0010958 0.012158 0.016499 0.026619
-0.026018 0.0058619 -0.25804 -0.15448
560000000 -0.31681 0.12026 -0.023542 -0.063138 -0.00055759 0.011971 0.0054152 0.011285
0.010397 0.0050659 0.011126 0.0077929
-0.023489 -0.06306 -0.37664 0.1064 -0.041244 -0.037552 0.014078 0.0036269
-0.012914 -0.0051162 0.0027937 -0.00024551
-0.00059189 0.011936 -0.041365 -0.037518 -0.1833 0.25564 -0.00075292 -0.0040494
0.019892 0.0051504 0.0068311 -0.0056708
0.0055811 0.011326 0.014162 0.0036292 -0.00078941 -0.0040366 -0.30886 0.12976
0.0029007 -0.023961 0.0046767 -0.02213
0.01042 0.0049451 -0.013007 -0.0050895 0.019942 0.0052473 0.0028329 -0.023937
-0.2887 -0.030002 0.0094942 -0.049492
0.011125 0.0078532 0.0027394 -0.00027398 0.0068395 -0.0057472 0.004658 -0.022096
0.009529 -0.049504 -0.32887 -0.0013855
620000000 -0.27618 0.10452 -0.023562 0.0077588 0.002892 0.0084641 0.0085098 -0.0052449
0.010842 0.00015914 0.0016223 -0.0025723
-0.02352 0.0077755 -0.40264 0.05802 -0.018837 -5.0744e-05 -0.0013797 -0.002099
0.011591 -0.0062392 0.0018447 -0.0031415
0.0029344 0.0085011 -0.01886 -1.9411e-05 -0.15423 0.26554 -0.0014346 -0.0050191
-0.0026959 -0.0026167 0.008163 -0.0035073
0.0084453 -0.0052876 -0.0014014 -0.0021126 -0.0014547 -0.005031 -0.26937 0.14125
-0.039305 -0.019142 0.012314 0.027551
0.010881 0.00016961 0.011577 -0.0062575 -0.0026439 -0.0026862 -0.039307 -0.019077
-0.20659 -0.068432 -0.04291 0.014963
0.0016753 -0.0025664 0.0018183 -0.0031405 0.0080456 -0.0034241 0.012316 0.027535
-0.04288 0.014932 -0.2479 -0.04195
680000000 -0.23575 0.19062 -0.027555 -0.014612 0.0047946 0.0052755 0.0017662 -0.0071727
-0.0032132 -0.011166 0.0053392 -0.0068496
-0.027527 -0.014605 -0.38812 0.15614 -0.033064 -0.0014685 -0.0016658 -0.00041576
-0.0021092 -0.009023 -0.0012036 -0.0019172
0.0048198 0.0052708 -0.033092 -0.0013899 -0.10319 0.2855 -0.00065166 -0.00037315
-0.0017879 0.0005208 -0.0028501 -0.0096165
0.0017986 -0.0071677 -0.0016931 -0.00042296 -0.00066093 -0.00036936 -0.22343 0.1936
-0.024214 -0.0068481 -0.0098125 -0.012377
-0.0032826 -0.011212 -0.0021442 -0.0090069 -0.0018116 0.00052656 -0.024214 -0.0068081
-0.26049 0.031859 -0.0058047 -0.0084859
0.0053197 -0.0068881 -0.0012245 -0.0018873 -0.0028652 -0.0096283 -0.0097809 -0.012379
-0.0057622 -0.0085116 -0.26252 0.069849
740000000 -0.19146 0.18534 -0.039117 0.027114 0.012534 -0.0050694 -0.00010973 -0.0043673
-0.0036898 -0.0029081 -0.0062418 0.0025056
-0.039121 0.027068 -0.33572 0.17527 -0.035882 0.035242 -0.00097931 -0.0062723
-0.011366 0.0080232 -0.0023713 -0.007028
0.012544 -0.0050936 -0.035833 0.035403 -0.069486 0.28405 -0.0022225 0.0027704
-0.0023027 -0.0048267 -0.0015153 -2.9254e-05
-0.00010327 -0.0043608 -0.0010022 -0.0062494 -0.0022147 0.0027528 -0.20685 0.20211
-0.044457 -0.0067811 0.024148 0.016088
-0.0037402 -0.0028652 -0.011247 0.0081081 -0.0022702 -0.0048634 -0.044486 -0.0067104
-0.15852 0.059031 -0.045305 -0.00030338
-0.0062278 0.0024511 -0.0024914 -0.0071358 -0.0015085 -8.0145e-05 0.024191 0.016082
-0.045227 -0.00037597 -0.25354 0.073621
800000000 -0.15874 0.22643 -0.022716 0.01688 0.0054342 -0.010616 -0.0046762 -0.0021221
-0.0040034 0.0020712 0.0048299 -0.00011249
-0.022707 0.016858 -0.33911 0.24576 -0.0080887 0.034397 -0.0023691 0.0021811
-0.00071337 0.0027504 0.00099324 0.0052479
0.0054049 -0.010626 -0.0079912 0.034452 -0.029005 0.30761 0.00083233 0.0015152
0.00022843 0.0034299 -0.0017601 0.00076036
-0.0046794 -0.0021176 -0.0023781 0.0022005 0.00083676 0.0015181 -0.17776 0.23072
-0.028913 0.014659 0.01488 -0.010683
-0.0039805 0.0019884 -0.00068193 0.002737 0.00023498 0.0034221 -0.028911 0.014718
-0.20846 0.082988 -0.018257 0.019328
0.0048615 -0.0001345 0.0010026 0.0052257 -0.0017699 0.00074427 0.014876 -0.01072
-0.018255 0.019321 -0.25123 0.12553
860000000 -0.12414 0.24677 -0.017665 0.030807 -0.0032831 -0.010071 -0.0022 0.00083146
0.0038754 0.0045682 -0.0035442 -0.0031177
-0.017681 0.030757 -0.2914 0.28796 0.0079068 0.034578 -3.1195e-05 0.0020873
0.0037625 -1.0909e-05 0.0031023 0.00070471
-0.0033067 -0.010048 0.0080199 0.034577 0.019304 0.3158 -0.00060926 -9.4194e-05
0.0027371 -0.0014181 0.0014736 0.0043473
-0.0021872 0.00082684 -1.923e-05 0.0020839 -0.00060792 -9.5931e-05 -0.14058 0.24168
-0.018211 0.019332 -0.0061257 -0.0091744
0.0038857 0.0045084 0.0037712 -2.717e-05 0.0027525 -0.001408 -0.018198 0.019407
-0.15717 0.13574 -0.027106 0.015184
-0.003552 -0.0031073 0.0031575 0.00066495 0.0014761 0.0043292 -0.0061191 -0.0091977
-0.027109 0.015154 -0.19974 0.17471
920000000 -0.099714 0.27021 0.0049888 0.038185 -0.0095117 -0.0044445 -0.0017706 0.0017525
0.00095768 0.0018573 0.002662 -0.0015003
0.0049526 0.038139 -0.26261 0.30932 0.028289 0.022158 0.0015152 0.0011235
0.0071912 -0.0003135 0.0039761 -0.0026465
-0.0095382 -0.0044266 0.028382 0.022099 0.065836 0.31646 0.0019342 9.6029e-05
0.0011389 -0.00029415 0.00090185 -0.0010314
-0.0017795 0.001772 0.0015045 0.0010974 0.0019326 9.5476e-05 -0.11623 0.25914
-0.010722 0.03191 0.0043645 -0.0068912
0.0009659 0.0018523 0.0072014 -0.00034297 0.0011296 -0.00029665 -0.010666 0.031949
-0.14751 0.14224 -0.0030021 0.028247
0.0026355 -0.0015395 0.0040226 -0.0026725 0.00093815 -0.0010294 0.0043989 -0.0069164
-0.0030213 0.02822 -0.2128 0.18876
980000000 -0.052038 0.28981 0.017643 0.030377 -0.0091224 0.0047087 0.002061 0.0033377
0.0039675 -0.0013731 -0.0033356 -0.0021613
0.017614 0.03034 -0.20945 0.34358 0.033341 0.0049732 0.0020484 -6.815e-05
0.0016363 -0.0058597 -0.00028858 -0.0024586
-0.0091083 0.0047405 0.033399 0.0048533 0.11218 0.30994 0.00059757 -0.0011765
0.00044019 -0.0021327 0.0015827 -0.00026222
0.0020753 0.0033531 0.0020468 -8.9863e-05 0.00060503 -0.0011782 -0.076868 0.27029
0.008727 0.031422 -0.0092519 -0.007879
0.0039699 -0.0014161 0.0015683 -0.0059003 0.00043347 -0.0021318 0.0087907 0.03142
-0.11663 0.1724 0.0046731 0.020469
-0.0033742 -0.0021333 -0.0003412 -0.0024982 0.0015797 -0.00024607 -0.0092686 -0.0078593
0.004669 0.020467 -0.17033 0.23728
1040000000 -0.0097728 0.29829 0.033463 0.018549 -0.0012284 0.007109 0.0024153 0.00054203
5.704e-05 -0.0036425 -0.00010758 -0.0014343
0.033407 0.018513 -0.17379 0.35667 0.029685 -0.014959 0.001448 -0.0017577
-0.0024467 -0.0026149 -0.0012238 -0.0026189
-0.0011989 0.0071168 0.029631 -0.015103 0.15837 0.29618 -0.00051628 -0.0016784
-0.0016166 -0.00098556 -0.00042766 -0.0011623
0.0024207 0.00054546 0.0014376 -0.0017787 -0.00051188 -0.0016741 -0.049223 0.28028
0.020974 0.018933 -0.001968 0.0011277
4.4574e-05 -0.0036317 -0.0025152 -0.0026302 -0.0016367 -0.00096815 0.020999 0.0189
-0.083907 0.1799 0.013604 0.019941
-9.4973e-05 -0.0014539 -0.001228 -0.0026159 -0.00040698 -0.0011766 -0.0019571 0.0011307
0.013603 0.019945 -0.15079 0.25924
1100000000 0.035645 0.30603 0.036191 -0.0041858 0.0030073 0.0039615 0.0022128 -0.0012902
-0.0019764 -0.0031413 -0.0038937 6.5269e-05
0.036154 -0.0041603 -0.13027 0.37402 0.01519 -0.028109 -6.7129e-05 -0.0017646
-0.0033083 -0.00082156 -0.0035383 -0.00049403
0.0030315 0.0039489 0.015104 -0.028205 0.20481 0.27578 -0.0020078 0.00019867
-0.0018635 0.00036894 -0.0011917 -0.00054168
0.0022097 -0.0012862 -8.5986e-05 -0.0017695 -0.0020117 0.00019598 -0.0082975 0.285
0.026501 0.0049687 -0.0026923 -0.0003885
-0.0019712 -0.0031365 -0.0033058 -0.00080993 -0.0018598 0.00037553 0.026517 0.0049266
-0.066564 0.19389 0.019678 0.0096694
-0.0038389 6.3857e-05 -0.0035124 -0.00046005 -0.0012028 -0.00051609 -0.0026882 -0.00036232
0.019659 0.0096714 -0.10523 0.29281
1160000000 0.087149 0.30101 0.024227 -0.020919 0.0029153 -0.00061506 -0.00045538 -0.0022692
-0.0041122 -0.0008006 -0.00093797 0.0041483
0.024216 -0.020895 -0.086332 0.37813 -0.0037996 -0.029353 -0.0016532 -0.0016514
-0.002786 0.0023982 -0.0014106 0.0019964
0.0029061 -0.00061482 -0.003932 -0.029374 0.24802 0.2448 -0.00074815 0.0018458
-0.00067957 0.0020182 -0.001128 0.00027726
-0.00044818 -0.0022632 -0.001674 -0.0016716 -0.00074528 0.0018483 0.031567 0.28161
0.022817 -0.011557 -0.0034635 0.0050034
-0.0041162 -0.00076837 -0.0027821 0.002395 -0.0006938 0.0020098 0.022802 -0.011593
-0.032906 0.20343 0.019036 0.0011502
-0.00093863 0.0041732 -0.001409 0.0019835 -0.0011186 0.00026844 -0.0034626 0.0050177
0.01903 0.0011598 -0.057587 0.29636
1220000000 0.13153 0.28976 0.010604 -0.030323 -0.0014921 -0.0010609 9.3862e-06 -0.00067408
-0.0027094 0.0024185 0.0012819 0.002059
0.010608 -0.030297 -0.041759 0.39005 -0.017077 -0.02121 -0.0025471 0.00047015
-0.00010699 0.0030439 -0.00085949 0.0019633
-0.0015095 -0.0010441 -0.017194 -0.021166 0.28709 0.2056 0.00080385 0.0017394
0.00056062 0.0013271 0.00028004 0.00071364
8.706e-06 -0.00065981 -0.002546 0.0004765 0.00080125 0.0017383 0.071656 0.27239
0.011353 -0.018752 0.0019292 0.0012603
-0.0026932 0.0024419 -0.00010783 0.0030429 0.0005707 0.0013169 0.011335 -0.018784
-0.010933 0.21288 0.015306 -0.012727
0.0012964 0.002067 -0.00084214 0.0019745 0.00027314 0.00073858 0.0019221 0.0012771
0.015281 -0.012725 -0.027476 0.31622
1280000000 0.18121 0.26771 -0.0079413 -0.02883 -0.0019078 0.0022564 -0.00074715 -0.0018374
-0.00082021 0.0031241 0.0024622 0.0012447
-0.0079266 -0.028799 0.0043476 0.38087 -0.023855 -0.0084498 -0.00096065 0.001449
0.0015899 0.0019286 0.00067169 0.0021839
-0.0019099 0.0022616 -0.023923 -0.0083551 0.31755 0.16156 0.0017075 8.2851e-05
0.0012171 0.00039048 0.00042543 0.00042345
-0.00074408 -0.0018309 -0.00096062 0.0014519 0.0017105 8.273e-05 0.10837 0.2548
0.0012559 -0.021083 -0.00063149 0.00013562
-0.00080501 0.0031204 0.0015994 0.0019228 0.0012227 0.00039244 0.0012131 -0.021091
0.026032 0.21703 0.0038043 -0.015378
0.0024663 0.001245 0.00067767 0.0021881 0.00042697 0.00041281 -0.00063925 0.00013366
0.0038109 -0.015386 0.021793 0.32075
1340000000 0.21821 0.23368 -0.017794 -0.019227 0.00077758 0.0043939 -0.0014463 -0.00085994
0.0014589 0.0027751 0.0018341 -0.0013677
-0.017763 -0.019223 0.043821 0.37228 -0.021615 0.0043008 -0.00018165 0.0019983
0.0018774 0.00093171 0.0014177 0.00080505
0.00079149 0.0043989 -0.021616 0.0044054 0.33935 0.11352 0.0012712 -0.00093311
0.00088582 -0.00044046 0.0003048 0.00040766
-0.0014537 -0.00085024 -0.00016904 0.0019963 0.0012767 -0.00092802 0.13973 0.23363
-0.0091705 -0.018188 0.000639 0.00082693
0.0014847 0.0027714 0.0018834 0.00092153 0.00089395 -0.0004507 -0.0092024 -0.01818
0.055444 0.21246 -0.0030106 -0.014159
0.0018358 -0.0013714 0.0014262 0.00080539 0.00029769 0.00041046 0.00064575 0.00082965
-0.003002 -0.014166 0.060285 0.31841
1400000000 0.2509 0.19538 -0.023692 -0.0076076 0.0050084 0.0031013 -0.002013 0.00039671
0.0024108 0.00089411 0.00039309 -0.0013665
-0.02366 -0.0076141 0.080887 0.35888 -0.014791 0.012412 0.0013071 0.0014002
0.0012336 -0.00071113 0.001313 0.00026424
0.0050121 0.0030761 -0.01473 0.012506 0.35233 0.059935 0.00022466 -0.0017788
5.3438e-05 -0.00048826 0.00048725 0.00023414
-0.0020245 0.00039234 0.0013184 0.0013887 0.00022571 -0.0017821 0.16795 0.20444
-0.015633 -0.011022 -0.0011093 -0.00020941
0.0024096 0.0008802 0.0012363 -0.00072718 5.8048e-05 -0.00049416 -0.015657 -0.01099
0.088255 0.20855 -0.009718 -0.0096453
0.00040058 -0.0013594 0.0013122 0.00025023 0.00048908 0.00023206 -0.0011125 -0.00019692
-0.0097151 -0.0096458 0.10694 0.30878
1460000000 0.27341 0.15138 -0.020682 0.0047965 0.0054518 -0.0017261 -0.0017219 0.0015885
0.002105 -0.00048412 -0.00032672 -0.0010135
-0.020673 0.0047672 0.11472 0.33685 -0.0061458 0.015208 0.0017894 0.00021757
0.00098873 -0.0013508 0.0011978 -0.00070502
0.005442 -0.0017417 -0.0060764 0.015253 0.35817 0.00573 -0.0013552 -0.0014691
0.00015955 -0.00042445 0.00062763 -0.00042655
-0.0017159 0.0015887 0.001795 0.00021417 -0.0013573 -0.0014699 0.1926 0.17557
-0.017413 -0.0036392 -0.00078271 0.0024607
0.0021063 -0.00049262 0.00098457 -0.0013629 0.00015625 -0.00042248 -0.017419 -0.0036084
0.11673 0.19399 -0.011983 -0.0032635
-0.00033508 -0.00099072 0.0012067 -0.00072252 0.00061506 -0.00044013 -0.00078522 0.0024517
-0.011988 -0.0032662 0.14126 0.28875
1520000000 0.28518 0.10976 -0.015017 0.010483 0.0033001 -0.0040117 -2.6438e-05 0.0026494
0.0021986 -0.0016718 -0.0011483 -0.00018836
-0.015007 0.010463 0.14789 0.32205 0.0014978 0.013019 0.0017952 -0.00080212
6.886e-05 -0.0011561 0.00032374 -0.0010687
0.0032781 -0.0040351 0.0015805 0.013015 0.35134 -0.050517 -0.0012932 -0.00042219
0.00056668 -0.00085084 4.8783e-05 -0.0001439
-1.1304e-05 0.0026522 0.0017965 -0.00081092 -0.0012865 -0.00042522 0.21432 0.13888
-0.016856 0.0029514 0.0017418 0.0023084
0.002188 -0.0016958 6.4102e-05 -0.0011606 0.00056723 -0.00084866 -0.016863 0.0029963
0.14377 0.1804 -0.012247 0.0011881
-0.0011413 -0.00018006 0.00032213 -0.0010734 5.7809e-05 -0.0001491 0.0017413 0.0023013
-0.012239 0.0011842 0.17581 0.27034
1580000000 0.2943 0.063977 -0.0081624 0.013708 -0.00086204 -0.0047709 0.0013816 0.0020398
-0.0002053 -0.0021166 -0.00037871 0.00045145
-0.008173 0.013692 0.17482 0.29745 0.0050385 0.0082563 0.00053298 -0.0017451
-0.00068817 -0.001169 -0.00032237 -0.00077159
-0.00088938 -0.004754 0.0050852 0.0082329 0.33086 -0.10791 -0.0017933 0.00083789
-0.00031625 -0.0010834 4.9098e-05 -0.00056844
0.0013899 0.0020391 0.00052068 -0.0017438 -0.001785 0.00082747 0.22724 0.10155
-0.012979 0.008663 0.0025826 0.00096173
-0.00021225 -0.0021104 -0.00070086 -0.0011607 -0.0003182 -0.0010952 -0.012966 0.0087034
0.16766 0.16322 -0.0097073 0.0074076
-0.0003802 0.00045882 -0.00034072 -0.00077083 4.3056e-05 -0.00056801 0.0025927 0.00096169
-0.0097065 0.0074083 0.20983 0.24383
1640000000 0.29641 0.022948 -0.0012685 0.012598 -0.0025845 -0.0025409 0.0028347 0.0010614
-0.00056908 -0.0016497 -0.000259 0.00056058
-0.001276 0.012591 0.20419 0.27262 0.0058622 0.0035455 -0.00076238 -0.0018728
-0.0011355 -0.00037074 -0.0004865 -0.00068013
-0.0025871 -0.0025267 0.0058846 0.0035157 0.30261 -0.15697 -0.00059178 0.0016797
-0.0010287 -0.0010666 -0.00013311 -0.00046092
0.0028413 0.0010457 -0.00077609 -0.0018707 -0.00059113 0.0016802 0.23942 0.055237
-0.0081564 0.010476 0.0027429 -0.00091314
-0.00056886 -0.0016504 -0.0011502 -0.00036238 -0.001036 -0.0010676 -0.0081419 0.010503
0.18931 0.1398 -0.0048575 0.0095572
-0.00025471 0.00056381 -0.00049387 -0.00067458 -0.00013611 -0.00047257 0.0027491 -0.00092763
-0.0048596 0.0095575 0.23626 0.21328
1700000000 0.28922 -0.022153 0.0022325 0.0096406 -0.0033335 7.1199e-05 0.0031549 -0.0012984
-0.0021244 -0.00085453 0.00068521 0.00046674
0.0022308 0.0096303 0.22208 0.24133 0.0038666 0.00074517 -0.0016173 -0.00057696
-0.00079316 0.00018164 -0.00090149 -0.00040599
-0.0033306 8.6471e-05 0.0038641 0.00072092 0.2591 -0.19668 0.00065852 0.0016895
-0.0019403 -0.00019905 -0.0004278 -0.00081753
0.0031504 -0.0013128 -0.0016172 -0.00057471 0.00065651 0.0016895 0.23745 0.0081621
-0.0045904 0.011381 0.0016588 -0.0023992
-0.0021182 -0.00083862 -0.00079409 0.00018579 -0.0019313 -0.00019824 -0.0045638 0.011395
0.20623 0.12052 2.3551e-05 0.0099403
0.00069179 0.00045014 -0.00090326 -0.00039666 -0.00044916 -0.00080482 0.0016552 -0.0024084
2.4413e-05 0.009942 0.25414 0.17895
1760000000 0.27721 -0.07059 0.0045395 0.006273 -0.0022005 0.00090975 0.0012039 -0.003518
-0.0015298 0.00067611 0.00046801 -0.00064555
0.0045335 0.0062738 0.24802 0.20176 0.001657 -0.00099636 -0.00128 0.00031649
-0.00091133 0.0010063 -0.00047861 0.0004079
-0.0021894 0.00092045 0.0016409 -0.0010121 0.21021 -0.22968 0.0014481 0.00094506
-0.0011651 0.0014799 -0.0012779 -0.00056942
0.0011971 -0.0035235 -0.0012859 0.00031877 0.001439 0.00094665 0.23088 -0.041064
-0.00043684 0.010482 -0.00013199 -0.0027485
-0.0015206 0.00068438 -0.00091078 0.0010111 -0.0011604 0.0014805 -0.00041334 0.010485
0.22071 0.08684 0.00418 0.0072938
0.00045989 -0.00065065 -0.00047991 0.00041498 -0.0012745 -0.00054896 -0.00014392 -0.0027462
0.0041785 0.0072918 0.2675 0.14145
1820000000 0.25263 -0.10791 0.0046994 0.0026684 -4.3406e-05 0.0023647 -0.0010968 -0.0030766
-0.0012352 0.0010565 -5.2898e-05 -0.00013524
0.0046956 0.0026678 0.25802 0.17188 -0.00017647 2.1762e-05 -0.0012168 0.001108
0.00014326 0.0012648 -0.00049945 0.00050692
-4.4552e-05 0.0023722 -0.00018044 2.1517e-05 0.16048 -0.24532 0.0014576 0.00012781
-0.0002035 0.0023932 -0.0013811 0.00022805
-0.0011186 -0.0030806 -0.0012151 0.0011115 0.0014546 0.000124 0.20431 -0.087659
0.0017274 0.0084326 -0.0016481 -0.0018073
-0.001228 0.0010678 0.00015168 0.0012735 -0.00020031 0.0024123 0.0017516 0.0084377
0.23798 0.059114 0.0051559 0.0037073
-4.8509e-05 -0.00013215 -0.00049664 0.00051474 -0.001394 0.00023374 -0.0016519 -0.001805
0.0051573 0.0036966 0.27099 0.10594
1880000000 0.21769 -0.14823 0.0025686 0.00036139 -0.00039259 0.0020377 -0.0029595 -0.0021704
-0.00011741 0.001893 0.00019079 -0.00062173
0.0025667 0.00036539 0.26261 0.1256 -0.0021436 0.0016596 -1.6121e-05 0.0016437
0.00060965 0.0010324 0.00011219 0.00083266
-0.00036725 0.0020381 -0.002134 0.0016628 0.10817 -0.25497 0.0015065 -0.0010131
0.001571 0.0019943 -0.0011258 0.0013748
-0.0029704 -0.0021429 -1.0734e-05 0.0016419 0.0015055 -0.001008 0.16715 -0.12898
0.0029807 0.0058805 -0.0025192 0.0002693
-9.4912e-05 0.0018953 0.000613 0.0010211 0.0015675 0.0019924 0.002995 0.0058727
0.2415 0.027935 0.0053797 0.0014653
0.00017138 -0.00062547 0.00011587 0.00081806 -0.0011122 0.001374 -0.002515 0.00028203
0.0053866 0.0014691 0.27148 0.071492
1940000000 0.17825 -0.17409 0.00036137 -0.001402 0.0012569 0.0019315 -0.0035875 0.00052851
0.0015467 0.0010958 -0.00078086 -0.00045199
0.0003556 -0.0014049 0.26337 0.093885 -0.0010963 0.0037784 0.0010978 0.0012101
0.0016671 0.00034918 0.00072104 0.00018562
0.0012817 0.0019308 -0.0010701 0.003811 0.062105 -0.2484 0.00029193 -0.0018579
0.0024331 0.00042187 0.00022476 0.0016029
-0.0035867 0.00055659 0.0011009 0.0012077 0.00028896 -0.0018551 0.11688 -0.16241
0.0023824 0.0036993 -0.001553 0.001518
0.0015463 0.0010899 0.0016684 0.00032245 0.0024256 0.0004007 0.0023991 0.0036729
0.24444 -0.010209 0.0040404 -0.0022953
-0.00078876 -0.00044309 0.00072357 0.00017969 0.00021651 0.0015981 -0.0015497 0.0015265
0.0040446 -0.0022938 0.26141 0.036342
2000000000 0.13168 -0.18889 -0.0034958 0.00039833 0.0023502 0.0016307 -0.0024167 0.0032548
0.0012479 -0.00010259 -0.00066068 0.00043211
-0.0034883 0.00039393 0.24945 0.05833 -0.00096223 0.0056062 0.0015116 0.00024838
0.0011504 -0.001292 0.00035993 0.00015363
0.0023685 0.0016337 -0.00091864 0.0056213 0.01832 -0.23354 -0.0012023 -0.0011302
0.0019803 -0.001247 0.0016314 0.0013269
-0.0023923 0.0032816 0.001515 0.00024394 -0.0012144 -0.0011142 0.063449 -0.17553
0.00056975 0.0026869 -8.4594e-05 0.0022854
0.0012368 -0.0001257 0.0011397 -0.0013089 0.0019584 -0.0012755 0.00057389 0.0026768
0.23936 -0.043785 0.00061108 -0.0031373
