!Keysight Technologies,M9804A,MY58100912,A.14.10.03
!Date: Thursday, April 27, 2023 10:28:33
!Correction: S11(C  6-Port  ) 
!S12(C  6-Port  ) 
!S13(C  6-Port  ) 
!S14(C  6-Port  ) 
!S15(C  6-Port  ) 
!S16(C  6-Port  ) 
!S21(C  6-Port  ) 
!S22(C  6-Port  ) 
!S23(C  6-Port  ) 
!S24(C  6-Port  ) 
!S25(C  6-Port  ) 
!S26(C  6-Port  ) 
!S31(C  6-Port  ) 
!S32(C  6-Port  ) 
!S33(C  6-Port  ) 
!S34(C  6-Port  ) 
!S35(C  6-Port  ) 
!S36(C  6-Port  ) 
!S41(C  6-Port  ) 
!S42(C  6-Port  ) 
!S43(C  6-Port  ) 
!S44(C  6-Port  ) 
!S45(C  6-Port  ) 
!S46(C  6-Port  ) 
!S51(C  6-Port  ) 
!S52(C  6-Port  ) 
!S53(C  6-Port  ) 
!S54(C  6-Port  ) 
!S55(C  6-Port  ) 
!S56(C  6-Port  ) 
!S61(C  6-Port  ) 
!S62(C  6-Port  ) 
!S63(C  6-Port  ) 
!S64(C  6-Port  ) 
!S65(C  6-Port  ) 
!S66(C  6-Port  ) 
!S6P File: Measurement: :
# Hz S  RI   R 50
500000000 -0.33738 -0.041828 -0.0099788 -0.0023475 -0.0084779 0.012966 -0.0045224 0.012519
0.013016 0.0045017 -0.0051679 0.0093146
-0.0099785 -0.0023427 -0.41907 -0.053541 0.0078014 -0.010503 0.0013059 0.012426
0.007549 0.0021967 0.00127 0.013515
-0.0084655 0.012979 0.007789 -0.010528 -0.26614 0.20817 0.0075829 0.0037841
-0.00249 0.0078354 0.0011288 0.012213
-0.0044906 0.012547 0.0013306 0.012434 0.0075952 0.0037824 -0.33225 0.039938
-0.019565 -0.0062242 0.016047 0.026518
0.013059 0.0044268 0.0075497 0.0022035 -0.0024989 0.0078634 -0.019588 -0.0062206
-0.21859 -0.20465 -0.026401 0.0056853
-0.0051052 0.0094287 0.00128 0.013477 0.0011205 0.012197 0.01599 0.026472
-0.026401 0.005676 -0.26215 -0.14788
560000000 -0.31662 0.12054 -0.024018 -0.063484 -4.2631e-06 0.012525 0.0052761 0.011206
0.010364 0.0054001 0.011079 0.0080772
-0.023983 -0.063411 -0.3776 0.107 -0.041292 -0.037902 0.014204 0.0040279
-0.013056 -0.0054576 0.0029233 0.00039443
8.6127e-06 0.012506 -0.041436 -0.037875 -0.18373 0.25719 -0.0007067 -0.0040149
0.019869 0.0057254 0.0065483 -0.0057541
0.0052961 0.011256 0.014248 0.003962 -0.00069659 -0.0039891 -0.30741 0.12986
0.0034648 -0.023911 0.0045633 -0.022039
0.010408 0.0053635 -0.013108 -0.0054544 0.01988 0.0058169 0.0034124 -0.023907
-0.28999 -0.028736 0.0091258 -0.049532
0.011119 0.0080488 0.002933 0.00034801 0.0065562 -0.0057277 0.0045765 -0.022008
0.009139 -0.049529 -0.33001 0.0043062
620000000 -0.27621 0.10489 -0.02364 0.0081265 0.0029597 0.0086278 0.0082356 -0.0056012
0.011114 0.00039247 0.0019012 -0.0020892
-0.02363 0.0081103 -0.40304 0.058128 -0.01869 0.00024731 -0.0012247 -0.0021038
0.011513 -0.0061055 0.0017101 -0.00296
0.0029885 0.0086047 -0.018716 0.00029274 -0.15448 0.26637 -0.0013096 -0.0053347
-0.0027661 -0.002129 0.0083775 -0.0036046
0.0082853 -0.0056224 -0.0012311 -0.0020905 -0.0013206 -0.0053067 -0.26728 0.14202
-0.038847 -0.020198 0.012993 0.027084
0.011041 0.00041687 0.011528 -0.0061698 -0.0027699 -0.002186 -0.038909 -0.020178
-0.20646 -0.066485 -0.042934 0.014681
0.0018436 -0.002056 0.0017011 -0.0029571 0.0083576 -0.0035835 0.012929 0.027069
-0.042942 0.014684 -0.24769 -0.033509
680000000 -0.23597 0.19133 -0.027321 -0.014109 0.0049716 0.0052445 0.001692 -0.0072016
-0.003217 -0.011238 0.0056708 -0.0070544
-0.027291 -0.014113 -0.38813 0.15655 -0.032822 -0.0014161 -0.0016718 -0.00052076
-0.0021664 -0.0090308 -0.00087247 -0.0018336
0.0049865 0.0052436 -0.032852 -0.0013332 -0.10259 0.28591 -0.00068426 -0.0003491
-0.0017014 0.00051162 -0.0027411 -0.0093239
0.0016727 -0.0071871 -0.0016819 -0.0005298 -0.00066542 -0.0003557 -0.22172 0.19328
-0.023871 -0.0071553 -0.010085 -0.011635
-0.0032205 -0.011237 -0.0022085 -0.0090003 -0.0016979 0.00053405 -0.023879 -0.0071321
-0.26063 0.033472 -0.005681 -0.0084959
0.005638 -0.0070693 -0.00085665 -0.0018233 -0.0027235 -0.0093324 -0.01008 -0.011652
-0.0056873 -0.0084958 -0.26145 0.074568
740000000 -0.19125 0.18589 -0.038712 0.027288 0.012827 -0.0050202 -0.00018103 -0.0043059
-0.0038496 -0.0027088 -0.0062603 0.0023492
-0.038696 0.027241 -0.3351 0.17544 -0.035674 0.035423 -0.00092065 -0.0065076
-0.011193 0.0075842 -0.0023337 -0.0070242
0.012795 -0.0050544 -0.035626 0.035564 -0.068864 0.28385 -0.0022242 0.0030219
-0.0021225 -0.0047231 -0.001465 -0.00019347
-0.00016768 -0.004278 -0.00093821 -0.0065177 -0.0022076 0.0030207 -0.20526 0.20121
-0.044397 -0.0070747 0.023624 0.015921
-0.0039128 -0.0028128 -0.011167 0.0077079 -0.002163 -0.0047401 -0.044407 -0.0070119
-0.15827 0.060343 -0.045153 0.00034647
-0.0062668 0.0023724 -0.0023355 -0.0070114 -0.0014766 -0.00011587 0.023695 0.015914
-0.045148 0.00031683 -0.25249 0.080314
800000000 -0.15836 0.22637 -0.022088 0.016709 0.0055084 -0.010752 -0.0045984 -0.0022385
-0.0041499 0.0021526 0.0048053 3.0162e-05
-0.022085 0.016691 -0.33846 0.24555 -0.0077951 0.034066 -0.0023647 0.0021965
-0.00072288 0.0028409 0.0009996 0.0052336
0.0054761 -0.010776 -0.0076967 0.034126 -0.028493 0.30704 0.00092877 0.0015322
0.00024019 0.003392 -0.0016344 0.0006862
-0.004608 -0.0022378 -0.0023453 0.0022022 0.00092951 0.0015244 -0.17668 0.22928
-0.028853 0.014234 0.014506 -0.010646
-0.0041591 0.0021622 -0.00073177 0.002846 0.00022926 0.0033961 -0.028858 0.014279
-0.20794 0.08469 -0.017603 0.019552
0.004831 -1.1935e-05 0.0010413 0.005253 -0.0016279 0.00068753 0.014512 -0.010689
-0.017612 0.019532 -0.24842 0.13116
860000000 -0.1238 0.24643 -0.01734 0.030456 -0.0031889 -0.010193 -0.0022416 0.00072193
0.003805 0.0046606 -0.0033472 -0.0030027
-0.017338 0.030422 -0.29103 0.28723 0.0079405 0.034226 -4.5733e-05 0.0019141
0.0042429 0.00030013 0.0032926 0.00074824
-0.003232 -0.010184 0.0080605 0.034236 0.019351 0.31507 -0.00047794 -0.00022429
0.0028136 -0.0014506 0.0014119 0.0042015
-0.0022319 0.00070795 -2.0822e-05 0.0019374 -0.00048368 -0.00022098 -0.14023 0.24018
-0.018151 0.018964 -0.0059899 -0.009147
0.0038167 0.0046571 0.0041796 0.00026814 0.0028207 -0.0014641 -0.018133 0.019017
-0.1565 0.13696 -0.026716 0.015513
-0.0033772 -0.0030015 0.0033132 0.00073279 0.0014173 0.004218 -0.0060155 -0.0091257
-0.026725 0.015486 -0.19685 0.17869
920000000 -0.099568 0.2696 0.0051021 0.037665 -0.0094971 -0.0046568 -0.0019026 0.0017919
0.00084885 0.0017387 0.0025218 -0.0015702
0.0050696 0.037645 -0.26262 0.30876 0.028056 0.021978 0.001294 0.0012131
0.0072676 -0.00042361 0.0040376 -0.0028624
-0.0095271 -0.0046317 0.02817 0.021917 0.065417 0.31594 0.0018197 -2.6161e-05
0.0011637 -0.00031477 0.00088058 -0.0011738
-0.0019073 0.0017845 0.0013102 0.0012042 0.0018226 -2.9202e-05 -0.11641 0.25739
-0.010809 0.031412 0.0041117 -0.0070735
0.00085529 0.0017348 0.0072761 -0.00046481 0.00118 -0.00031994 -0.010747 0.031443
-0.1468 0.14305 -0.0026776 0.027789
0.0025374 -0.0015821 0.0040221 -0.0028811 0.00088781 -0.0011763 0.004116 -0.0070871
-0.0026952 0.027773 -0.20887 0.19313
980000000 -0.052376 0.28912 0.017471 0.02993 -0.009224 0.0046072 0.0019727 0.003461
0.0039711 -0.0013747 -0.0033659 -0.0022134
0.017412 0.02992 -0.20974 0.34269 0.033195 0.0049033 0.0020188 -2.8745e-05
0.0016667 -0.0057711 -0.00034751 -0.0025517
-0.0092193 0.0046309 0.033248 0.0048059 0.11175 0.30964 0.00052514 -0.0011511
0.00031979 -0.0020763 0.0013887 -0.0002318
0.0019726 0.0034514 0.0020244 -1.9928e-05 0.00052396 -0.0011453 -0.077766 0.2686
0.0083008 0.030974 -0.0091627 -0.0076175
0.0039723 -0.0013955 0.0016322 -0.0058124 0.00032092 -0.0020763 0.0083671 0.030961
-0.11545 0.17283 0.0046926 0.020182
-0.0034105 -0.0021885 -0.00036933 -0.0025629 0.0013861 -0.00023212 -0.009167 -0.0076137
0.0046873 0.020173 -0.16607 0.24044
1040000000 -0.010507 0.29773 0.03319 0.018223 -0.0014204 0.0070307 0.0024731 0.00065692
4.7957e-05 -0.0036293 -0.00021943 -0.0014949
0.033125 0.01825 -0.17431 0.35595 0.029488 -0.014939 0.0014653 -0.0017421
-0.0025706 -0.0026397 -0.0013312 -0.0025311
-0.0013999 0.0070245 0.029485 -0.01505 0.15785 0.29608 -0.0005121 -0.0015864
-0.0016822 -0.0008676 -0.00050625 -0.001047
0.0024685 0.00065539 0.0014749 -0.0017222 -0.00052457 -0.00158 -0.050576 0.2791
0.020284 0.018847 -0.002141 0.0011457
3.0927e-05 -0.0036204 -0.0026223 -0.0026573 -0.0016817 -0.00087113 0.020337 0.018826
-0.083164 0.18045 0.013533 0.019448
-0.00021692 -0.0014828 -0.0013755 -0.0025267 -0.00051921 -0.0010377 -0.0021441 0.0011479
0.013531 0.019447 -0.14637 0.26168
1100000000 0.034782 0.30577 0.035895 -0.0042253 0.0028379 0.0039903 0.0023347 -0.0012763
-0.0018902 -0.0032351 -0.0039336 -3.9987e-05
0.035855 -0.0041877 -0.13091 0.37327 0.015171 -0.028031 -7.5557e-05 -0.001818
-0.0034005 -0.00089129 -0.003581 -0.00046618
0.002848 0.0039768 0.01508 -0.028121 0.20442 0.2758 -0.0019192 0.00024335
-0.0018145 0.00053648 -0.0010927 -0.00031807
0.0023374 -0.0012784 -8.0757e-05 -0.0018132 -0.0019263 0.00024481 -0.010092 0.28421
0.025864 0.0051901 -0.0027426 -0.00017083
-0.0018959 -0.00323 -0.0034251 -0.00088443 -0.0018143 0.00053966 0.025887 0.0051469
-0.065625 0.19406 0.019447 0.0091694
-0.0039159 -9.2942e-06 -0.0035818 -0.00045275 -0.0010942 -0.00031233 -0.0027307 -0.0001617
0.019445 0.0091673 -0.10084 0.29402
1160000000 0.086172 0.30101 0.023985 -0.020885 0.0027219 -0.00043886 -0.0003473 -0.0022907
-0.0041299 -0.00091276 -0.001032 0.0040919
0.023972 -0.020829 -0.087323 0.37772 -0.0038701 -0.029377 -0.0017339 -0.0016829
-0.0028523 0.0024663 -0.0014328 0.0018967
0.0027301 -0.00046223 -0.0039934 -0.02938 0.24761 0.2449 -0.00066356 0.0018201
-0.00068366 0.002052 -0.0010157 0.0003359
-0.00035859 -0.0022968 -0.0017399 -0.0016646 -0.00066429 0.0018229 0.029289 0.28163
0.022261 -0.011106 -0.0032275 0.0050805
-0.0041275 -0.0008848 -0.0028654 0.0024719 -0.00066933 0.0020475 0.022256 -0.011138
-0.032448 0.20331 0.018923 0.0010185
-0.0010021 0.0040956 -0.0014315 0.0018973 -0.0010047 0.00032831 -0.0032187 0.0050789
0.018921 0.0010255 -0.053626 0.29764
1220000000 0.13054 0.2902 0.010313 -0.030184 -0.0016105 -0.00078015 5.849e-05 -0.00086484
-0.0027232 0.0023405 0.0013205 0.0021211
0.010325 -0.03014 -0.042794 0.38992 -0.017107 -0.021197 -0.0025139 0.00045972
-7.2089e-06 0.0031088 -0.00083085 0.0019951
-0.0016193 -0.00077287 -0.017229 -0.021141 0.28672 0.20556 0.00083589 0.0016849
0.00065055 0.0012374 0.00036362 0.00066389
6.4787e-05 -0.00086668 -0.0025174 0.00047745 0.00083693 0.0016788 0.069512 0.27327
0.011076 -0.018244 0.0019726 0.0014594
-0.0027063 0.0023595 2.332e-05 0.0030961 0.00064638 0.0012402 0.011053 -0.018255
-0.010644 0.21282 0.014966 -0.012771
0.0013226 0.0021106 -0.00080578 0.0019875 0.0003616 0.00066958 0.0019793 0.001452
0.014957 -0.01277 -0.023317 0.31649
1280000000 0.18039 0.26827 -0.008119 -0.028594 -0.0018182 0.0025093 -0.000835 -0.0019938
-0.00088741 0.0030648 0.002539 0.001189
-0.0080954 -0.028569 0.0033064 0.38089 -0.023939 -0.0084574 -0.00094978 0.0015019
0.001695 0.0018897 0.00069229 0.0020951
-0.0018055 0.0025217 -0.024021 -0.0083525 0.31691 0.16154 0.0016731 -1.5877e-05
0.0011932 0.0003298 0.0004449 0.0002981
-0.00083451 -0.0019811 -0.00095072 0.0015076 0.0016766 -1.5217e-05 0.10647 0.25662
0.0010758 -0.02047 -0.00034586 0.00014297
-0.00087029 0.0030728 0.0017076 0.0018943 0.0011975 0.00033088 0.0010409 -0.020484
0.026065 0.21692 0.0035653 -0.015428
0.0025485 0.0011782 0.00069921 0.0020994 0.00045289 0.00029538 -0.00035497 0.00014118
0.0035778 -0.015424 0.025592 0.32041
1340000000 0.21764 0.23459 -0.017839 -0.018842 0.00093386 0.0045298 -0.0016745 -0.00084577
0.0014496 0.0028335 0.001825 -0.0013833
-0.017811 -0.018828 0.042823 0.37253 -0.021727 0.0044215 -0.00012663 0.0020055
0.0019673 0.00083497 0.0013833 0.00079525
0.00094478 0.0045251 -0.021732 0.0045239 0.3387 0.11381 0.0011888 -0.00096048
0.00082546 -0.00051251 0.00021429 0.00033192
-0.0016777 -0.00083744 -0.00010433 0.0020031 0.0011834 -0.0009577 0.13881 0.23622
-0.0090674 -0.017559 0.0007071 0.00074014
0.0014787 0.0028224 0.0019784 0.00082809 0.00082311 -0.00051132 -0.0091133 -0.017552
0.055444 0.21275 -0.0033192 -0.014069
0.0018149 -0.0013984 0.0013838 0.00079016 0.00021568 0.0003314 0.00070554 0.00074029
-0.0033129 -0.014072 0.063891 0.3175
1400000000 0.25071 0.19638 -0.023556 -0.0072182 0.0052066 0.0030949 -0.002084 0.00060015
0.0024102 0.00095325 0.00032074 -0.0014025
-0.023513 -0.0072247 0.080172 0.35927 -0.014837 0.0126 0.0013139 0.0013101
0.0011905 -0.00083938 0.0012766 0.00024217
0.0052232 0.0030716 -0.01479 0.01269 0.3516 0.060567 0.00014784 -0.0017571
-2.2093e-05 -0.00046925 0.0004396 0.00024655
-0.0020847 0.000609 0.0013261 0.0013029 0.00015293 -0.0017568 0.16809 0.20736
-0.015334 -0.010363 -0.00092491 -0.00025073
0.0024061 0.00093216 0.0011749 -0.00085483 -1.9421e-05 -0.00047375 -0.015363 -0.010327
0.088323 0.20902 -0.010008 -0.0094887
0.00032591 -0.0014058 0.0012759 0.00023197 0.00045145 0.00024817 -0.00093118 -0.0002542
-0.010004 -0.0094901 0.10991 0.30751
1460000000 0.27339 0.15209 -0.020327 0.0050385 0.005632 -0.0018755 -0.0015852 0.0017232
0.0022149 -0.00043836 -0.00032965 -0.00099513
-0.020309 0.0050209 0.1141 0.3373 -0.0060397 0.015421 0.0017345 0.0002005
0.00086332 -0.0013292 0.0011442 -0.00061785
0.0056219 -0.0019098 -0.0059624 0.015472 0.35773 0.0065338 -0.0013849 -0.0013014
0.00014836 -0.00032411 0.00061556 -0.00041067
-0.0015915 0.0017296 0.0017359 0.00018726 -0.001386 -0.0012979 0.19398 0.17835
-0.016764 -0.0030084 -0.00092111 0.0022638
0.0022185 -0.00044562 0.00085778 -0.0013262 0.00015576 -0.00031695 -0.01677 -0.0029686
0.11687 0.19463 -0.012225 -0.0030678
-0.00035051 -0.00098642 0.0011449 -0.00062004 0.00060382 -0.00040483 -0.00092041 0.0022617
-0.012237 -0.0030628 0.14392 0.28738
1520000000 0.28536 0.11034 -0.014556 0.010516 0.0033804 -0.0042369 0.0001224 0.0026587
0.0022305 -0.0017182 -0.0011402 -0.0002008
-0.014552 0.010494 0.14744 0.32259 0.0017024 0.013129 0.0016815 -0.00075617
1.1532e-06 -0.0010628 0.00032814 -0.0010161
0.0033562 -0.0042578 0.0017745 0.013125 0.35111 -0.049384 -0.0012642 -0.00033398
0.0006034 -0.00085994 8.5883e-05 -6.4433e-05
0.00013631 0.0026549 0.0016788 -0.00076922 -0.0012612 -0.00033157 0.21684 0.14099
-0.015872 0.0032132 0.0016308 0.0022962
0.0022236 -0.0017386 -2.2773e-05 -0.0010633 0.00059487 -0.00085764 -0.015871 0.003251
0.14435 0.18112 -0.012251 0.0015419
-0.001143 -0.00019471 0.00032069 -0.0010167 8.7878e-05 -6.949e-05 0.0016358 0.0022947
-0.012252 0.0015429 0.17821 0.26862
1580000000 0.29424 0.064191 -0.0078106 0.013474 -0.00092867 -0.0049785 0.0014332 0.0019015
-0.00019987 -0.0021898 -0.00033837 0.00047149
-0.0078109 0.013462 0.17449 0.29783 0.0052758 0.0082272 0.00049696 -0.0016079
-0.00062676 -0.0010422 -0.0003041 -0.00076702
-0.00095 -0.0049788 0.005322 0.0082112 0.33093 -0.10684 -0.0016054 0.00076848
-0.00024593 -0.0011671 0.00013198 -0.00052383
0.0014464 0.0018955 0.00049059 -0.0016099 -0.0016058 0.00077047 0.23052 0.10245
-0.011888 0.0084097 0.0025415 0.00092604
-0.00021388 -0.0022011 -0.0006403 -0.0010365 -0.00025479 -0.0011712 -0.01188 0.0084515
0.16855 0.16372 -0.0096013 0.0076228
-0.00032937 0.00047257 -0.00030382 -0.00076753 0.00013126 -0.00052811 0.0025487 0.00092014
-0.0096032 0.007623 0.21184 0.24209
1640000000 0.29604 0.023223 -0.001065 0.012239 -0.0027802 -0.0026956 0.0027501 0.00096962
-0.00062652 -0.0016838 -0.00021609 0.00050971
-0.0010766 0.012225 0.20378 0.2731 0.0060125 0.0034085 -0.00066895 -0.0017837
-0.00099738 -0.0003598 -0.00045038 -0.00073347
-0.0027893 -0.0026848 0.0060377 0.0033816 0.30316 -0.1558 -0.00053429 0.0015417
-0.0011039 -0.0010936 -0.00013222 -0.00051777
0.0027588 0.00094826 -0.000672 -0.0017731 -0.00052726 0.0015385 0.24291 0.054704
-0.0071816 0.0096389 0.0026574 -0.00085269
-0.00065408 -0.0016856 -0.0010037 -0.00034931 -0.0011071 -0.0010959 -0.0071552 0.0096689
0.19039 0.14007 -0.0046973 0.0096999
-0.00020397 0.00051647 -0.00045797 -0.00073014 -0.00013066 -0.00050654 0.0026601 -0.0008584
-0.0047003 0.0097049 0.23792 0.21164
1700000000 0.28877 -0.021658 0.0022419 0.0092665 -0.0035776 6.9109e-05 0.0030754 -0.0012655
-0.0021416 -0.00083366 0.00064679 0.00039864
0.0022382 0.0092566 0.22184 0.24174 0.0038934 0.00053863 -0.0015051 -0.00059883
-0.00071242 5.475e-05 -0.00090659 -0.00047582
-0.003572 7.5917e-05 0.0039042 0.00051811 0.2597 -0.19597 0.00057323 0.0015764
-0.0019514 -0.00022785 -0.00047204 -0.0008847
0.0030593 -0.0012813 -0.001514 -0.00058917 0.00058063 0.0015795 0.24051 0.0061276
-0.0042038 0.010116 0.0016928 -0.0023959
-0.0021545 -0.00081953 -0.00071382 5.7309e-05 -0.0019515 -0.00021565 -0.0041792 0.010127
0.20728 0.12044 0.00020508 0.010035
0.00064964 0.00039779 -0.0009174 -0.00047638 -0.00047261 -0.00088031 0.0016884 -0.0024055
0.00021404 0.010036 0.25558 0.17732
1760000000 0.27662 -0.069792 0.0043864 0.0059182 -0.0023506 0.00099257 0.0012067 -0.0034913
-0.0014984 0.00065404 0.00036177 -0.0006588
0.0043807 0.0059171 0.24773 0.20208 0.0015678 -0.001239 -0.0012147 0.0001897
-0.000934 0.00086604 -0.00056925 0.00037824
-0.0023456 0.0010118 0.0015656 -0.0012512 0.2108 -0.22927 0.0012318 0.00096091
-0.0012026 0.0015307 -0.0013177 -0.00050955
0.0011936 -0.0035014 -0.0012225 0.00019782 0.0012252 0.0009584 0.23262 -0.044448
-0.00069354 0.009144 -0.00010652 -0.002695
-0.0014894 0.00066191 -0.00092681 0.0008703 -0.0011957 0.0015382 -0.00067283 0.0091539
0.22168 0.086332 0.0043846 0.0073269
0.00035682 -0.00066441 -0.00056569 0.0003829 -0.0013234 -0.00050072 -0.00011423 -0.002698
0.0043947 0.0073201 0.26888 0.13974
1820000000 0.25232 -0.10673 0.0044075 0.0024201 -3.1263e-05 0.0024561 -0.0011453 -0.0030533
-0.0012367 0.0010182 -8.3879e-05 -3.3182e-05
0.0044012 0.0024235 0.25785 0.17224 -0.00032551 -0.00010211 -0.0013337 0.00097412
-3.9018e-05 0.0012027 -0.00056735 0.00052976
-2.8016e-05 0.0024664 -0.00032685 -0.00010375 0.16119 -0.24507 0.0013815 0.00033752
-0.00020191 0.0023963 -0.0014184 0.00036962
-0.0011547 -0.0030475 -0.0013237 0.00097965 0.0013892 0.00033661 0.20443 -0.091429
0.00091827 0.0074689 -0.0016384 -0.0018116
-0.0012223 0.001025 -3.4448e-05 0.0012031 -0.00019763 0.0023969 0.00093959 0.007471
0.2387 0.058467 0.005371 0.0035817
-8.5851e-05 -3.0127e-05 -0.0005642 0.00053458 -0.001409 0.0003858 -0.0016396 -0.0018035
0.0053697 0.0035791 0.2722 0.10402
1880000000 0.21779 -0.14705 0.0021954 0.00025448 -0.00037824 0.0021008 -0.0030006 -0.0021311
-0.0001433 0.0017942 0.00025912 -0.0004695
0.0021953 0.00025167 0.2624 0.12577 -0.0023594 0.0016059 -0.00020796 0.0016876
0.00048081 0.0011208 5.0157e-05 0.00094089
-0.0003591 0.0021049 -0.0023529 0.0016231 0.10885 -0.25498 0.0016795 -0.00090162
0.0014894 0.0019713 -0.0010423 0.0014033
-0.0030131 -0.0021126 -0.00019694 0.0016863 0.0016758 -0.00090741 0.16523 -0.13233
0.0018206 0.0053432 -0.0025898 0.00027671
-0.00013552 0.0017847 0.00049028 0.0011296 0.0014914 0.0019519 0.0018283 0.0053452
0.24187 0.026992 0.0054235 0.0012907
0.00024917 -0.0004749 5.4094e-05 0.00093919 -0.0010378 0.0014123 -0.0025851 0.00027912
0.00543 0.0012957 0.2725 0.069374
1940000000 0.17873 -0.17285 -4.6036e-06 -0.0013225 0.0013067 0.0020112 -0.0036833 0.00060937
0.0013789 0.0011193 -0.00068996 -0.00046561
-2.2287e-06 -0.0013231 0.263 0.094089 -0.0012452 0.0038512 0.0010212 0.0013537
0.0016826 0.00052025 0.00075914 0.00032667
0.0013119 0.0020032 -0.0012093 0.003851 0.062661 -0.24856 0.00043713 -0.0020043
0.0024162 0.00051588 0.00013559 0.0015978
-0.0036773 0.00062708 0.0010322 0.0013473 0.00045171 -0.0020054 0.11372 -0.16407
0.0010956 0.0037794 -0.001625 0.0015236
0.0013811 0.0011033 0.001699 0.00050336 0.0024214 0.00050763 0.0011066 0.003787
0.2444 -0.011031 0.0040492 -0.0024778
-0.00069346 -0.00046771 0.00075971 0.00031905 0.00014487 0.0016098 -0.0016254 0.0015302
0.0040589 -0.002478 0.26202 0.033857
2000000000 0.13262 -0.18791 -0.0037909 0.00068662 0.0024772 0.0016909 -0.0023299 0.0035011
0.0011404 5.0459e-05 -0.00062744 0.00031912
-0.0037805 0.00067603 0.24904 0.058555 -0.001087 0.0056951 0.0016078 0.0004033
0.0012763 -0.0012189 0.00057424 0.0001975
0.002489 0.0016801 -0.0010415 0.0057184 0.018765 -0.23392 -0.0011524 -0.0013298
0.0019937 -0.0011116 0.0017103 0.0013333
-0.0023135 0.0035155 0.0016063 0.00038743 -0.0011586 -0.001331 0.060228 -0.17534
-0.00049079 0.0032309 -0.0001832 0.0022354
0.0011414 2.9268e-05 0.0012613 -0.0012351 0.0019978 -0.0011202 -0.00047599 0.0032415
0.23922 -0.044482 0.00057954 -0.0032832
