!Keysight Technologies,M9804A,MY58100912,A.14.10.03
!Date: Thursday, April 27, 2023 10:28:33
!Correction: S11(C  6-Port  ) 
!S12(C  6-Port  ) 
!S13(C  6-Port  ) 
!S14(C  6-Port  ) 
!S15(C  6-Port  ) 
!S16(C  6-Port  ) 
!S21(C  6-Port  ) 
!S22(C  6-Port  ) 
!S23(C  6-Port  ) 
!S24(C  6-Port  ) 
!S25(C  6-Port  ) 
!S26(C  6-Port  ) 
!S31(C  6-Port  ) 
!S32(C  6-Port  ) 
!S33(C  6-Port  ) 
!S34(C  6-Port  ) 
!S35(C  6-Port  ) 
!S36(C  6-Port  ) 
!S41(C  6-Port  ) 
!S42(C  6-Port  ) 
!S43(C  6-Port  ) 
!S44(C  6-Port  ) 
!S45(C  6-Port  ) 
!S46(C  6-Port  ) 
!S51(C  6-Port  ) 
!S52(C  6-Port  ) 
!S53(C  6-Port  ) 
!S54(C  6-Port  ) 
!S55(C  6-Port  ) 
!S56(C  6-Port  ) 
!S61(C  6-Port  ) 
!S62(C  6-Port  ) 
!S63(C  6-Port  ) 
!S64(C  6-Port  ) 
!S65(C  6-Port  ) 
!S66(C  6-Port  ) 
!S6P File: Measurement: :
# Hz S  RI   R 50
500000000 -0.33706 -0.041392 -0.0096633 -0.0026751 -0.0083203 0.012456 -0.0044589 0.012276
0.0124 0.0043957 -0.0050349 0.0091166
-0.0096266 -0.0026733 -0.4189 -0.053179 0.0079724 -0.010785 0.0014116 0.012547
0.0078012 0.0022053 0.0012531 0.013096
-0.0083028 0.012431 0.0079636 -0.010819 -0.26499 0.20795 0.0075276 0.0039406
-0.0024757 0.007502 0.0005766 0.012235
-0.0045211 0.012275 0.0013842 0.012544 0.0075406 0.0039151 -0.3338 0.038366
-0.019869 -0.0068237 0.016579 0.026512
0.012621 0.0044447 0.0078303 0.0021027 -0.0022531 0.0076747 -0.020109 -0.0066552
-0.21873 -0.20613 -0.025453 0.0058336
-0.0047649 0.0092045 0.0012002 0.013694 0.0008847 0.012558 0.016389 0.02721
-0.025786 0.0054285 -0.25801 -0.15403
560000000 -0.31603 0.12079 -0.023577 -0.063008 -0.00082808 0.012083 0.0059345 0.011134
0.010511 0.0047798 0.01153 0.0083628
-0.023537 -0.062911 -0.3764 0.10683 -0.041467 -0.037913 0.014108 0.0041838
-0.013015 -0.0053764 0.0029817 -0.00032692
-0.00082493 0.012062 -0.041598 -0.037834 -0.18313 0.25566 -0.00078412 -0.0041819
0.019382 0.0056332 0.0070785 -0.0058193
0.0060235 0.011127 0.014236 0.0040685 -0.00080607 -0.0040802 -0.30886 0.13042
0.0033299 -0.024819 0.0047833 -0.021835
0.010824 0.0051335 -0.013356 -0.0053001 0.019881 0.0052366 0.0031104 -0.024188
-0.28907 -0.029487 0.010062 -0.049538
0.011337 0.0079603 0.0024841 -0.0004671 0.00693 -0.0059946 0.0048427 -0.021777
0.0095041 -0.050411 -0.3284 -0.0012231
620000000 -0.27593 0.10475 -0.023524 0.0078104 0.0029369 0.0084492 0.0084786 -0.0053198
0.01119 0.00017178 0.00081176 -0.0028984
-0.023545 0.0077884 -0.40265 0.058021 -0.018767 -0.00011754 -0.0013587 -0.0020257
0.011525 -0.0062138 0.0016404 -0.0030918
0.0029502 0.0084363 -0.018784 -7.7493e-05 -0.1542 0.26555 -0.0014318 -0.0048638
-0.0023435 -0.0028591 0.0084513 -0.0030985
0.008377 -0.005381 -0.001337 -0.0020404 -0.0014682 -0.0048884 -0.26955 0.14154
-0.039094 -0.019073 0.012238 0.027996
0.010842 0.00026112 0.011567 -0.0062664 -0.0024837 -0.0029275 -0.039399 -0.019183
-0.20663 -0.068868 -0.042566 0.014439
0.001317 -0.0029144 0.0016246 -0.0028752 0.0083228 -0.003288 0.012239 0.027707
-0.04281 0.015112 -0.24799 -0.041731
680000000 -0.23577 0.1904 -0.027492 -0.014661 0.0047824 0.0052255 0.001944 -0.0070529
-0.0034342 -0.011329 0.0051975 -0.0071899
-0.027459 -0.014673 -0.38803 0.15608 -0.033028 -0.0015605 -0.0015795 -0.00048063
-0.0021138 -0.0090721 -0.0013713 -0.0019644
0.0047909 0.0052152 -0.033061 -0.0014897 -0.10316 0.28549 -0.00068485 -0.0003561
-0.0017911 0.00045971 -0.002925 -0.0096651
0.0019454 -0.0071007 -0.0015694 -0.00049684 -0.00069612 -0.0003654 -0.22349 0.1935
-0.024286 -0.0065852 -0.0097549 -0.012324
-0.0032374 -0.011283 -0.0021198 -0.009099 -0.0017547 0.00046049 -0.02443 -0.0067639
-0.2606 0.031957 -0.0055862 -0.0087774
0.005214 -0.0072686 -0.001044 -0.0019018 -0.0028158 -0.0096275 -0.0097463 -0.01238
-0.0058728 -0.0085466 -0.26306 0.070316
740000000 -0.19189 0.18494 -0.0392 0.026977 0.012475 -0.0051118 -0.0002568 -0.0042418
-0.0035307 -0.0028042 -0.0065375 0.0021389
-0.039208 0.026931 -0.33566 0.17517 -0.035774 0.035276 -0.00092905 -0.0063401
-0.011249 0.0078223 -0.0023424 -0.0066343
0.012466 -0.0051536 -0.03571 0.035414 -0.069547 0.28403 -0.0022021 0.0028445
-0.0022462 -0.0047554 -0.0018135 3.0961e-05
-0.0001981 -0.0042315 -0.00096397 -0.0063862 -0.0021899 0.0028454 -0.20684 0.20209
-0.044603 -0.0068569 0.023938 0.016336
-0.0036287 -0.0030045 -0.011546 0.0080964 -0.0022163 -0.0049626 -0.044734 -0.0068693
-0.15906 0.059404 -0.044768 -0.0012098
-0.0066424 0.002476 -0.0024099 -0.0071874 -0.0016015 -9.3561e-05 0.024212 0.016041
-0.045433 -0.00033355 -0.25417 0.074908
800000000 -0.15876 0.22639 -0.022772 0.016885 0.0053866 -0.010676 -0.0046758 -0.0021019
-0.0037777 0.001888 0.0050225 -0.00027008
-0.02276 0.016863 -0.3391 0.24577 -0.00811 0.034358 -0.0023821 0.0022199
-0.0005433 0.0027393 0.0010808 0.0051975
0.0053599 -0.010691 -0.0080112 0.034419 -0.028955 0.30762 0.00085318 0.0014845
0.00024943 0.0032866 -0.0017755 0.00076436
-0.0046429 -0.0020798 -0.0023777 0.0022351 0.00086248 0.0014871 -0.17779 0.23075
-0.028937 0.014632 0.01494 -0.010742
-0.0039023 0.0020744 -0.00059876 0.0027998 0.00015347 0.0034378 -0.028985 0.014765
-0.20815 0.083013 -0.018313 0.019076
0.0049713 -5.1393e-05 0.001043 0.0053696 -0.0017517 0.00078796 0.014918 -0.010713
-0.018144 0.01921 -0.25119 0.1256
860000000 -0.12422 0.24683 -0.017755 0.030882 -0.0033154 -0.01005 -0.0021642 0.00086367
0.0039449 0.0046241 -0.0035747 -0.0030928
-0.017754 0.030855 -0.29139 0.28786 0.0079174 0.034545 -7.9974e-05 0.0021479
0.0038869 8.021e-05 0.0032652 0.00064775
-0.0033452 -0.010039 0.0080348 0.034548 0.019287 0.31582 -0.00066171 -7.7851e-05
0.0027314 -0.0014218 0.0015079 0.0042738
-0.0021211 0.00090755 -3.3361e-05 0.0020691 -0.00062758 -9.1952e-05 -0.14058 0.24176
-0.018222 0.019522 -0.0062186 -0.00935
0.0039599 0.0046293 0.0038349 4.3422e-05 0.0027571 -0.0014447 -0.018191 0.01938
-0.15693 0.13603 -0.027237 0.015282
-0.0034612 -0.0032401 0.0031872 0.00062264 0.001497 0.0043903 -0.0061058 -0.0091492
-0.027378 0.015174 -0.20009 0.17454
920000000 -0.099793 0.27022 0.0049563 0.038141 -0.0095078 -0.0044672 -0.0017897 0.0018302
0.00097285 0.0018043 0.0027105 -0.0014991
0.0049574 0.03812 -0.26258 0.3093 0.028294 0.022166 0.0015213 0.0010835
0.0072228 -0.00024675 0.0039013 -0.002544
-0.0095223 -0.0044436 0.028394 0.022092 0.065866 0.31647 0.0019462 6.9602e-05
0.0011873 -0.0002659 0.00083762 -0.0009508
-0.0017526 0.0018212 0.0015254 0.0010392 0.0019574 7.1966e-05 -0.11632 0.25906
-0.010752 0.031918 0.0043463 -0.0068167
0.0009606 0.0018638 0.007164 -0.00030047 0.0011366 -0.00031538 -0.010651 0.032082
-0.14753 0.14225 -0.002983 0.02837
0.0026769 -0.0014489 0.0040416 -0.0026576 0.00097582 -0.001001 0.0044083 -0.0069246
-0.0031884 0.028168 -0.21297 0.18877
980000000 -0.052096 0.28983 0.017666 0.030368 -0.0091129 0.0047471 0.0020781 0.0033506
0.0040046 -0.0013685 -0.0034173 -0.0022017
0.017634 0.030364 -0.20944 0.34357 0.033331 0.0049702 0.0020847 -3.9168e-05
0.0016145 -0.0058 -0.00030405 -0.0024478
-0.0091126 0.0047769 0.033396 0.0048713 0.11222 0.30995 0.0006163 -0.0011725
0.00040886 -0.0021315 0.001561 -0.00024099
0.0020624 0.0033799 0.002063 -6.9411e-05 0.0006212 -0.0011731 -0.076853 0.27032
0.0087403 0.031459 -0.0093886 -0.0079188
0.0039378 -0.0014041 0.0015244 -0.0058162 0.00039092 -0.002136 0.0087659 0.031443
-0.11646 0.17233 0.0046473 0.020569
-0.0033877 -0.0021269 -0.00032068 -0.0024726 0.0015433 -0.00023795 -0.009301 -0.0079671
0.0046269 0.020513 -0.17028 0.23715
1040000000 -0.0097976 0.29827 0.033434 0.018523 -0.0011905 0.0070914 0.0024455 0.00055244
2.6451e-05 -0.0035941 -8.4033e-05 -0.0014262
0.033409 0.018533 -0.17384 0.35662 0.029643 -0.014969 0.0014727 -0.0017468
-0.0024303 -0.0025971 -0.0012969 -0.0026835
-0.0011732 0.0071059 0.029627 -0.0151 0.15838 0.29616 -0.00052752 -0.0016585
-0.0016278 -0.00094391 -0.0004639 -0.0012235
0.0024381 0.000552 0.0014513 -0.0017671 -0.00051541 -0.0016536 -0.049232 0.28031
0.021008 0.018867 -0.0020721 0.001178
5.9138e-05 -0.0036603 -0.0025101 -0.0025788 -0.0016305 -0.00095518 0.020933 0.018876
-0.083751 0.17995 0.013474 0.02003
-0.00013827 -0.0014287 -0.0013262 -0.0026554 -0.0004268 -0.0011776 -0.0020027 0.0011548
0.013697 0.020084 -0.15071 0.25945
1100000000 0.03562 0.30608 0.036174 -0.0041635 0.0030504 0.0039536 0.0021835 -0.0012864
-0.0019346 -0.0031574 -0.003954 0.00010553
0.036145 -0.0041383 -0.13032 0.37407 0.015182 -0.028101 -0.00010369 -0.001779
-0.0032349 -0.00080567 -0.0034724 -0.00052857
0.0030558 0.0039432 0.015088 -0.028185 0.20485 0.2758 -0.0020071 0.00017257
-0.0018803 0.00039348 -0.0011717 -0.00046448
0.0021941 -0.0012922 -0.00010868 -0.001765 -0.002003 0.0001774 -0.0082883 0.28501
0.026479 0.0050013 -0.0026846 -0.00033079
-0.0019957 -0.0031774 -0.0032823 -0.00081773 -0.0018648 0.00041869 0.026531 0.0049737
-0.066521 0.19387 0.019667 0.0096533
-0.0038531 -2.5557e-05 -0.0035143 -0.00057554 -0.0012028 -0.00049923 -0.0026208 -0.00034772
0.019599 0.009653 -0.10512 0.29261
1160000000 0.087219 0.30106 0.024224 -0.020845 0.0029248 -0.0006082 -0.00045037 -0.002289
-0.0041297 -0.00078429 -0.00086511 0.0041423
0.024242 -0.020804 -0.086339 0.3782 -0.0038229 -0.029347 -0.0016319 -0.001657
-0.0027524 0.0023734 -0.0013518 0.0020355
0.0029153 -0.00062802 -0.0039475 -0.029363 0.24802 0.24478 -0.00072659 0.0018177
-0.00072953 0.0019832 -0.001087 0.00020637
-0.00046003 -0.0022819 -0.0016576 -0.0016632 -0.00072445 0.0018292 0.031549 0.28159
0.022765 -0.011611 -0.0033916 0.0050644
-0.0041819 -0.00079061 -0.002768 0.0023841 -0.00070573 0.0019919 0.022767 -0.01162
-0.032885 0.20334 0.019113 0.0011226
-0.00095694 0.0041421 -0.001397 0.0020209 -0.0011013 0.00027348 -0.0034441 0.0050567
0.019048 0.0010736 -0.057501 0.29662
1220000000 0.13161 0.28976 0.010635 -0.030291 -0.0014911 -0.0010394 2.274e-05 -0.00068362
-0.0027086 0.002365 0.0012116 0.0020397
0.010648 -0.030253 -0.04174 0.3901 -0.017048 -0.021212 -0.0025244 0.00046852
-0.00011348 0.0030127 -0.00081516 0.0019529
-0.001497 -0.0010459 -0.017158 -0.021159 0.28715 0.20562 0.00082091 0.0017274
0.00052596 0.0013297 0.0002512 0.00071497
2.9582e-05 -0.00068204 -0.0025232 0.00046969 0.00081612 0.0017368 0.071649 0.27239
0.011332 -0.018784 0.001919 0.001224
-0.0026718 0.0023655 -9.1293e-05 0.0029811 0.0005464 0.001321 0.011293 -0.018805
-0.010998 0.2128 0.015257 -0.012773
0.0013046 0.002041 -0.00081913 0.001941 0.00028648 0.00071344 0.0019332 0.0012625
0.015277 -0.012752 -0.027333 0.31614
1280000000 0.18129 0.26774 -0.0078882 -0.028805 -0.0019305 0.0022619 -0.00074789 -0.0018499
-0.0008432 0.003112 0.0024303 0.0012936
-0.0078672 -0.028773 0.0043944 0.38091 -0.023841 -0.0084543 -0.00097507 0.0014178
0.0015802 0.0018824 0.00057725 0.0022201
-0.0019156 0.0022757 -0.02391 -0.0083482 0.31761 0.16154 0.0016945 6.6034e-05
0.0012115 0.00040752 0.0004123 0.00037745
-0.00075931 -0.0018338 -0.00097007 0.0014315 0.0016995 7.0701e-05 0.10836 0.25477
0.0012268 -0.021123 -0.00063772 2.5298e-05
-0.00082865 0.0031444 0.0016098 0.0018989 0.0012084 0.00039167 0.0011701 -0.021118
0.026088 0.21694 0.0037305 -0.01536
0.0024533 0.0013094 0.00064191 0.0021933 0.00040512 0.00036712 -0.00064857 4.7637e-05
0.003699 -0.015402 0.021888 0.32071
1340000000 0.21825 0.23361 -0.017757 -0.019239 0.00075647 0.0043824 -0.0014551 -0.00087139
0.0014553 0.0027823 0.0017784 -0.0013479
-0.017717 -0.019232 0.043884 0.37231 -0.021599 0.0042814 -0.00017877 0.0019743
0.001859 0.00094222 0.001347 0.00079317
0.00077849 0.0043793 -0.021597 0.0043938 0.33933 0.11353 0.0012758 -0.0009257
0.00085579 -0.00044849 0.00021993 0.00040803
-0.0014583 -0.00085642 -0.000169 0.00198 0.0012732 -0.00092944 0.13976 0.23364
-0.0091819 -0.018173 0.00065174 0.00077373
0.0014677 0.0027604 0.0018748 0.00094762 0.00086195 -0.00049233 -0.0092129 -0.018175
0.055419 0.2124 -0.0031104 -0.0142
0.0018399 -0.0013856 0.001409 0.00077809 0.00029245 0.00039417 0.00065969 0.00087626
-0.0030919 -0.01418 0.060375 0.31832
1400000000 0.25089 0.19535 -0.023653 -0.0076331 0.0049658 0.0030912 -0.0020086 0.00040909
0.002399 0.00091195 0.00038468 -0.0013421
-0.023622 -0.0076394 0.080949 0.35888 -0.014779 0.012383 0.0013177 0.0013834
0.0012347 -0.00071721 0.0012802 0.00022337
0.0049895 0.0030732 -0.01474 0.012479 0.35232 0.059886 0.0002288 -0.0017749
4.9361e-05 -0.00046232 0.0005014 0.00023675
-0.0020056 0.00041415 0.0013221 0.0013836 0.00022678 -0.0017694 0.16795 0.20445
-0.015655 -0.011023 -0.0010461 -0.00024884
0.0023726 0.00092849 0.0012431 -0.00071421 2.3293e-05 -0.00046737 -0.015714 -0.010994
0.088262 0.20856 -0.0097727 -0.0095928
0.00039645 -0.0013637 0.0013143 0.00022951 0.0005189 0.00027132 -0.0010616 -0.00014191
-0.009724 -0.0095494 0.10718 0.30879
1460000000 0.27342 0.15135 -0.020671 0.0047344 0.0054538 -0.0017375 -0.0017325 0.0015963
0.0021189 -0.00050654 -0.00031735 -0.0010592
-0.020652 0.0047198 0.11478 0.33681 -0.0061346 0.015196 0.0017788 0.00021414
0.00099753 -0.0013539 0.0011323 -0.00074507
0.0054428 -0.0017614 -0.0060742 0.015241 0.35816 0.005697 -0.0013659 -0.001462
0.00014052 -0.00039606 0.00057789 -0.00046476
-0.0017243 0.0016003 0.001791 0.0002069 -0.0013572 -0.0014805 0.19265 0.17559
-0.017409 -0.0036904 -0.00071698 0.0025446
0.0021124 -0.00049932 0.00097595 -0.0013606 0.00014205 -0.00040455 -0.017456 -0.0036564
0.11674 0.19397 -0.011969 -0.0032912
-0.00032558 -0.0010106 0.0011613 -0.0007103 0.00059495 -0.00041539 -0.00074841 0.0025158
-0.011976 -0.0032867 0.14144 0.28891
1520000000 0.28518 0.10977 -0.015017 0.010439 0.0032919 -0.004021 -4.5878e-05 0.0026523
0.0022286 -0.0016756 -0.0011134 -0.00013399
-0.01502 0.010423 0.14793 0.32196 0.0014943 0.012998 0.0017917 -0.00078033
9.6829e-05 -0.0011596 0.0003017 -0.0010286
0.003272 -0.0040367 0.0015618 0.013002 0.35134 -0.050508 -0.0012822 -0.00041448
0.0005533 -0.00086309 6.4702e-05 -0.00017767
-2.9435e-05 0.0026552 0.0017875 -0.0007926 -0.0012755 -0.00041613 0.21434 0.13889
-0.016922 0.0029741 0.0017395 0.0022664
0.0021906 -0.0016941 6.8505e-05 -0.0011672 0.00056126 -0.00086672 -0.016912 0.0029958
0.14379 0.18047 -0.012282 0.0012187
-0.0011693 -0.00015947 0.00029826 -0.0010428 6.9355e-05 -0.00015823 0.001756 0.002272
-0.012269 0.0012177 0.17595 0.27014
1580000000 0.29426 0.063979 -0.0082099 0.013681 -0.00087326 -0.0047359 0.0013943 0.0020512
-0.0002073 -0.0021275 -0.00037105 0.00053605
-0.008224 0.01367 0.17479 0.2974 0.0050098 0.0082665 0.00056687 -0.0017437
-0.00068117 -0.0011633 -0.00031716 -0.00073608
-0.0008938 -0.0047334 0.005056 0.00824 0.33085 -0.10791 -0.0017664 0.00083586
-0.00031129 -0.0010747 3.842e-05 -0.00054567
0.0014009 0.0020506 0.00056102 -0.0017431 -0.0017715 0.00082962 0.22722 0.10159
-0.013001 0.0087152 0.0025722 0.00088904
-0.00019557 -0.0021129 -0.00068642 -0.0011491 -0.00033062 -0.0010747 -0.012983 0.0087054
0.16772 0.16328 -0.0097499 0.0073869
-0.000363 0.0004844 -0.00029558 -0.00075931 5.5253e-05 -0.00055774 0.0025404 0.00096615
-0.0097568 0.0074116 0.21001 0.24366
1640000000 0.29637 0.022977 -0.0013169 0.012604 -0.0025961 -0.0025103 0.0028413 0.0010237
-0.00054364 -0.001652 -0.00024275 0.00060676
-0.0013311 0.012597 0.20419 0.27257 0.0058196 0.0035538 -0.00075319 -0.0018712
-0.0011375 -0.00037902 -0.00050147 -0.00066459
-0.002613 -0.0024963 0.0058549 0.0035246 0.30262 -0.15689 -0.00058677 0.0016755
-0.0010239 -0.0010787 -0.00014356 -0.00045863
0.002844 0.0010216 -0.00076817 -0.0018701 -0.00059229 0.001671 0.23944 0.055258
-0.0081942 0.010522 0.002764 -0.00090192
-0.00058761 -0.0016654 -0.0011543 -0.0003494 -0.0010472 -0.0010648 -0.0081674 0.010545
0.1894 0.13982 -0.0049017 0.0096059
-0.00026585 0.00055884 -0.00048448 -0.00069656 -0.00010104 -0.00049205 0.0027583 -0.00092671
-0.0048855 0.0095518 0.23641 0.21327
1700000000 0.28925 -0.022121 0.0021914 0.0096523 -0.0033453 7.8612e-05 0.0031579 -0.0013014
-0.0021379 -0.00086381 0.00066377 0.00049846
0.002192 0.009651 0.22202 0.24131 0.0038471 0.00075992 -0.0016218 -0.00057963
-0.00079608 0.00017852 -0.0009168 -0.00040313
-0.0033457 9.8082e-05 0.0038632 0.00074082 0.25908 -0.19672 0.00064839 0.0016954
-0.0018964 -0.00018174 -0.00044054 -0.00084708
0.0031437 -0.001315 -0.0016204 -0.00057621 0.00065317 0.0016745 0.23749 0.0081802
-0.0045918 0.011407 0.0016814 -0.0023908
-0.0021297 -0.00084232 -0.00079002 0.0001834 -0.001913 -0.0001737 -0.0045661 0.011428
0.20634 0.12053 1.714e-05 0.0099237
0.00065559 0.00043574 -0.00091157 -0.00041254 -0.00047695 -0.00081585 0.00168 -0.0023729
-2.0893e-05 0.0099549 0.2541 0.17887
1760000000 0.27725 -0.070564 0.0045155 0.0063031 -0.0022021 0.00091277 0.0012126 -0.0035102
-0.0015395 0.00068923 0.00043612 -0.00066153
0.0044951 0.0063086 0.248 0.20177 0.0016505 -0.00098231 -0.001285 0.00031336
-0.00090872 0.0010224 -0.00048658 0.00039073
-0.0021982 0.00092642 0.0016434 -0.0010009 0.21027 -0.22974 0.0014352 0.0009868
-0.0011305 0.0014971 -0.0012691 -0.00061934
0.0011969 -0.0035176 -0.0012731 0.00032069 0.0014632 0.00096303 0.23088 -0.041053
-0.00044443 0.010506 -6.1036e-05 -0.0027613
-0.0015316 0.00067181 -0.00089959 0.0010276 -0.0011463 0.0014937 -0.00044532 0.010512
0.22075 0.086844 0.0041816 0.0072997
0.00045462 -0.00064844 -0.00049533 0.00040993 -0.0012882 -0.00055859 -0.00012837 -0.0027499
0.0041796 0.0073165 0.2676 0.1414
1820000000 0.25271 -0.10791 0.0047115 0.0027081 -5.7642e-05 0.0023843 -0.0011165 -0.0030855
-0.0012419 0.0010474 -0.00012034 -0.00015527
0.0047036 0.0027135 0.25801 0.17188 -0.00020925 3.4316e-05 -0.0012271 0.0010872
0.00012831 0.0012666 -0.00051682 0.00048867
-4.1387e-05 0.0024011 -0.00021128 3.5213e-05 0.16039 -0.24527 0.0014436 0.0001084
-0.00018169 0.002402 -0.0013403 0.00025772
-0.0011234 -0.0030647 -0.001228 0.0010967 0.0014413 0.00010395 0.2043 -0.087639
0.001796 0.0084458 -0.0016991 -0.0017635
-0.0012194 0.0010467 0.00015209 0.0012484 -0.00016983 0.0023968 0.0017718 0.0084666
0.23806 0.059134 0.0051525 0.0037123
-3.4856e-05 -0.00014796 -0.00048797 0.00049812 -0.0013861 0.00028006 -0.0016744 -0.0017483
0.0051543 0.0036799 0.27091 0.10598
1880000000 0.2177 -0.14826 0.002576 0.00039047 -0.00037699 0.002024 -0.0029656 -0.0021391
-0.00010959 0.0018868 0.00021642 -0.00060641
0.0025739 0.00039612 0.2626 0.12562 -0.0021258 0.0016842 -2.8599e-05 0.0016306
0.00063806 0.001019 0.0001215 0.00085076
-0.000365 0.0020251 -0.0021192 0.0017013 0.10823 -0.25499 0.0015445 -0.0010249
0.0015909 0.002005 -0.0011524 0.0014245
-0.0029916 -0.0021233 -2.1019e-05 0.0016302 0.0015414 -0.0010276 0.16715 -0.12904
0.0030391 0.0058707 -0.0024689 0.00031223
-0.00010772 0.0018845 0.0006299 0.001015 0.0016123 0.0019991 0.0030241 0.0058563
0.24155 0.02791 0.0053232 0.0014898
0.00013168 -0.00064236 8.649e-05 0.00081808 -0.0011393 0.0013965 -0.0025176 0.00027063
0.0053899 0.0014729 0.27153 0.071614
1940000000 0.17826 -0.17413 0.00037442 -0.0013933 0.0012817 0.0018976 -0.0035611 0.00054497
0.0015272 0.0010808 -0.00074874 -0.00048009
0.00036594 -0.0013977 0.2634 0.093861 -0.0010588 0.003816 0.001093 0.001215
0.0016473 0.00032261 0.00071255 0.00017902
0.0013023 0.0018813 -0.0010341 0.0038222 0.062085 -0.2483 0.00033327 -0.0018596
0.002421 0.00038461 0.0001701 0.0016476
-0.0035898 0.00058849 0.0010885 0.0012173 0.00032373 -0.0018461 0.11687 -0.16234
0.0023964 0.0036645 -0.001551 0.0015371
0.0015297 0.0010815 0.0016637 0.00031856 0.0024105 0.00038976 0.0023849 0.0036147
0.24445 -0.010317 0.0040941 -0.0022312
-0.00076696 -0.0004615 0.00072173 0.00017475 0.0001672 0.001616 -0.0016148 0.0015597
0.0040217 -0.0022705 0.2615 0.036189
2000000000 0.13171 -0.18889 -0.0034676 0.00043944 0.0023734 0.0016058 -0.0023778 0.0032667
0.0012414 -0.00014474 -0.00064896 0.00043618
-0.0034748 0.00044139 0.24943 0.058294 -0.00092321 0.0056221 0.001526 0.00028602
0.001146 -0.0013028 0.00034193 0.00014192
0.0023807 0.0016087 -0.00089315 0.0056351 0.01836 -0.23361 -0.001194 -0.0011006
0.0019814 -0.0012543 0.0016117 0.0013395
-0.0023586 0.0032957 0.0015474 0.00027402 -0.0011825 -0.001106 0.063529 -0.17551
0.00055197 0.0026249 -0.00012948 0.0023232
0.0012586 -0.00011806 0.0011439 -0.0012863 0.0019646 -0.001248 0.00051766 0.0026628
0.23944 -0.043918 0.00054609 -0.0031265
