!Keysight Technologies,M9804A,MY58100912,A.14.10.03
!Date: Thursday, April 27, 2023 10:28:33
!Correction: S11(C  6-Port  ) 
!S12(C  6-Port  ) 
!S13(C  6-Port  ) 
!S14(C  6-Port  ) 
!S15(C  6-Port  ) 
!S16(C  6-Port  ) 
!S21(C  6-Port  ) 
!S22(C  6-Port  ) 
!S23(C  6-Port  ) 
!S24(C  6-Port  ) 
!S25(C  6-Port  ) 
!S26(C  6-Port  ) 
!S31(C  6-Port  ) 
!S32(C  6-Port  ) 
!S33(C  6-Port  ) 
!S34(C  6-Port  ) 
!S35(C  6-Port  ) 
!S36(C  6-Port  ) 
!S41(C  6-Port  ) 
!S42(C  6-Port  ) 
!S43(C  6-Port  ) 
!S44(C  6-Port  ) 
!S45(C  6-Port  ) 
!S46(C  6-Port  ) 
!S51(C  6-Port  ) 
!S52(C  6-Port  ) 
!S53(C  6-Port  ) 
!S54(C  6-Port  ) 
!S55(C  6-Port  ) 
!S56(C  6-Port  ) 
!S61(C  6-Port  ) 
!S62(C  6-Port  ) 
!S63(C  6-Port  ) 
!S64(C  6-Port  ) 
!S65(C  6-Port  ) 
!S66(C  6-Port  ) 
!S6P File: Measurement: :
# Hz S  RI   R 50
500000000 -0.33673 -0.041256 -0.0092484 -0.0026067 -0.0081794 0.012112 -0.00413 0.012364
0.012915 0.0044047 -0.0045971 0.009026
-0.0092129 -0.0026229 -0.41853 -0.053507 0.008126 -0.011123 0.0015909 0.012223
0.0077967 0.0022753 0.0015704 0.013288
-0.0081751 0.01211 0.008133 -0.011183 -0.2644 0.20765 0.007841 0.0034136
-0.0020374 0.0075432 0.0012808 0.012025
-0.0041081 0.012356 0.0016451 0.012241 0.007849 0.0034176 -0.33124 0.04001
-0.018709 -0.006184 0.016689 0.026354
0.012956 0.0043861 0.0077775 0.002282 -0.0020247 0.0075686 -0.018722 -0.0061625
-0.21732 -0.20463 -0.025573 0.0058441
-0.0044984 0.0090166 0.0015598 0.013305 0.0012659 0.012051 0.016601 0.026365
-0.025527 0.0058167 -0.25973 -0.15016
560000000 -0.31634 0.12002 -0.023641 -0.063567 -0.0004083 0.011939 0.0056732 0.01095
0.010803 0.0048413 0.010876 0.0075737
-0.023572 -0.063476 -0.37646 0.10662 -0.041373 -0.038181 0.014109 0.0035372
-0.012963 -0.0056901 0.0028249 -0.00014114
-0.00038641 0.011965 -0.041576 -0.0381 -0.18273 0.25544 -0.0010751 -0.0043359
0.019845 0.0055086 0.0066825 -0.0058844
0.0056702 0.0109 0.014101 0.0035784 -0.0010776 -0.0043043 -0.30632 0.12941
0.0043196 -0.024449 0.0048413 -0.022135
0.010828 0.0049393 -0.013033 -0.0057165 0.019883 0.0055134 0.004311 -0.024422
-0.2874 -0.028666 0.0096641 -0.049591
0.010894 0.0075351 0.0028603 -0.00011244 0.006702 -0.0059101 0.0048124 -0.022132
0.0096728 -0.04957 -0.32827 0.0016942
620000000 -0.27585 0.10442 -0.023536 0.0075647 0.0026775 0.0084059 0.0084694 -0.0056129
0.010605 -0.00019845 0.0016009 -0.0024856
-0.023522 0.0075519 -0.4026 0.057857 -0.019084 -0.00020748 -0.0014283 -0.0022656
0.011433 -0.0062458 0.0016537 -0.0030315
0.0026741 0.0084043 -0.019134 -0.00015096 -0.15444 0.26526 -0.0018227 -0.00515
-0.0027141 -0.0023466 0.0078019 -0.0035009
0.0083983 -0.0056609 -0.0014602 -0.0022795 -0.0018228 -0.0051706 -0.26677 0.14084
-0.038326 -0.019881 0.012257 0.026267
0.010742 -0.00019653 0.011463 -0.0062566 -0.0027038 -0.0023355 -0.038321 -0.019859
-0.20491 -0.067828 -0.042226 0.014558
0.001585 -0.0024994 0.0016442 -0.0030237 0.0078153 -0.0034438 0.012297 0.026296
-0.042356 0.014526 -0.24749 -0.03782
680000000 -0.23538 0.1904 -0.027605 -0.014683 0.0047794 0.0053581 0.0015738 -0.0071827
-0.0035317 -0.011127 0.0054763 -0.0068118
-0.027565 -0.014687 -0.38819 0.15586 -0.03333 -0.0015637 -0.0018856 -0.00036792
-0.0022805 -0.0089032 -0.00122 -0.0017148
0.0047906 0.0053531 -0.033366 -0.0014814 -0.10361 0.28494 -0.00074038 -8.5499e-05
-0.0018512 0.00080205 -0.0028256 -0.0095338
0.0015169 -0.0071653 -0.0018745 -0.000361 -0.00074087 -9.72e-05 -0.222 0.19169
-0.023696 -0.007856 -0.0096045 -0.012062
-0.0035783 -0.01116 -0.002319 -0.0089065 -0.0018486 0.00082012 -0.023712 -0.0078356
-0.25909 0.031249 -0.0058937 -0.0090421
0.0054717 -0.0068726 -0.0012524 -0.0017067 -0.0028434 -0.0095302 -0.00963 -0.012078
-0.0058747 -0.0090256 -0.2617 0.072063
740000000 -0.19154 0.18515 -0.039154 0.026881 0.012652 -0.0049283 -0.00016584 -0.0042572
-0.0038522 -0.0024475 -0.0061075 0.0026027
-0.039117 0.026845 -0.33568 0.17507 -0.036067 0.03542 -0.00085432 -0.0062691
-0.011104 0.0078138 -0.0023052 -0.0070447
0.01264 -0.0049726 -0.03599 0.035562 -0.06995 0.28384 -0.001911 0.0030536
-0.0017761 -0.0045465 -0.0014297 -0.00018239
-0.0001877 -0.0042602 -0.00083495 -0.0062605 -0.0019089 0.0030541 -0.20559 0.20005
-0.044716 -0.0076964 0.023418 0.015559
-0.0038834 -0.0024324 -0.011058 0.0078734 -0.0017846 -0.004515 -0.044746 -0.0076286
-0.15862 0.05875 -0.045287 -0.00053429
-0.0060866 0.0025859 -0.0023632 -0.0070077 -0.0014632 -0.0002088 0.023444 0.015564
-0.045268 -0.00058209 -0.25273 0.076518
800000000 -0.1591 0.22613 -0.022873 0.016811 0.0054022 -0.010624 -0.0047476 -0.002177
-0.0038567 0.0022267 0.0050863 3.5391e-05
-0.022867 0.016801 -0.33929 0.24562 -0.008147 0.034469 -0.0022322 0.0021921
-0.00041582 0.0028344 0.0010353 0.0053095
0.0053753 -0.010643 -0.0080378 0.034535 -0.029371 0.30775 0.0010683 0.0013612
0.00041202 0.0033463 -0.001727 0.00072083
-0.004753 -0.0021818 -0.0022187 0.0021975 0.0010608 0.0013592 -0.17756 0.22848
-0.029351 0.013769 0.014192 -0.010493
-0.0038384 0.0022778 -0.00041344 0.00284 0.00041832 0.0033463 -0.029338 0.013831
-0.20836 0.0827 -0.018385 0.019284
0.0051077 -8.8675e-06 0.0010861 0.0053176 -0.0017164 0.00072158 0.014198 -0.010521
-0.018409 0.019269 -0.2497 0.12804
860000000 -0.1245 0.24679 -0.017837 0.030917 -0.0033704 -0.010047 -0.0024069 0.00092112
0.004001 0.004642 -0.0034517 -0.0031684
-0.017831 0.030867 -0.29175 0.28795 0.0078297 0.034672 -0.0001322 0.0018976
0.0040912 -0.00029935 0.0033101 0.00073906
-0.0033955 -0.010038 0.0079473 0.034684 0.019037 0.31603 -0.00061686 -0.00032489
0.0028245 -0.001547 0.0014326 0.004406
-0.0024344 0.00091885 -0.00012502 0.0018827 -0.00061384 -0.00032182 -0.14127 0.23996
-0.018891 0.01885 -0.0060632 -0.009136
0.0040334 0.0046412 0.0040994 -0.00031329 0.0028391 -0.0015501 -0.018878 0.018904
-0.15798 0.13595 -0.027187 0.015411
-0.0034578 -0.0031667 0.0033227 0.00071945 0.0014254 0.0044056 -0.0061046 -0.0091524
-0.027217 0.015369 -0.19879 0.17689
920000000 -0.099898 0.27037 0.0049399 0.038423 -0.0095274 -0.0043467 -0.001792 0.0020119
0.00087041 0.0018424 0.0024858 -0.0015248
0.0049112 0.038376 -0.26289 0.30973 0.028201 0.022378 0.0014207 0.0011843
0.0069951 -0.00041618 0.0038959 -0.0027353
-0.0095477 -0.0043163 0.02832 0.022319 0.065694 0.31673 0.0017504 9.0026e-05
0.0010494 -0.00032938 0.00092094 -0.00096731
-0.0017919 0.0020164 0.0014238 0.0011937 0.0017519 8.8395e-05 -0.11737 0.25758
-0.011378 0.031447 0.0038871 -0.0066425
0.00089754 0.0018557 0.0069976 -0.00042794 0.0010637 -0.00032178 -0.011328 0.031491
-0.14805 0.14224 -0.0031125 0.028216
0.0024799 -0.0015549 0.003931 -0.0027771 0.00094319 -0.00097855 0.0038975 -0.0066459
-0.003109 0.028203 -0.21104 0.19098
980000000 -0.052161 0.29 0.017713 0.030577 -0.0090676 0.004805 0.0022064 0.0035669
0.0039551 -0.0014943 -0.0033627 -0.0021731
0.017705 0.030552 -0.20962 0.34365 0.03346 0.0050221 0.0020021 -8.3062e-05
0.0014165 -0.0058262 -0.00041795 -0.0024933
-0.00905 0.0048276 0.033529 0.0049213 0.11222 0.31015 0.00053746 -0.0011165
0.00037549 -0.0020131 0.001616 -0.00023363
0.002218 0.0035476 0.0020283 -7.8017e-05 0.00053718 -0.00112 -0.07839 0.26949
0.0078666 0.031449 -0.0092153 -0.0075645
0.0039809 -0.0015057 0.0013867 -0.0058529 0.00037432 -0.0020196 0.0079357 0.031454
-0.11732 0.17312 0.0047827 0.020542
-0.0033867 -0.0021746 -0.00043751 -0.0025109 0.0016146 -0.00022243 -0.009243 -0.0075415
0.0047919 0.020528 -0.16839 0.23906
1040000000 -0.0097601 0.29849 0.033588 0.018635 -0.001115 0.0071716 0.0026318 0.0005642
-1.8094e-05 -0.0037221 -7.3295e-05 -0.0014113
0.033543 0.018607 -0.17386 0.35683 0.02979 -0.014966 0.0014225 -0.0017676
-0.0024943 -0.0025295 -0.0012192 -0.0025378
-0.0010895 0.0071517 0.029776 -0.015078 0.15844 0.29632 -0.00049074 -0.0015485
-0.0015926 -0.00087976 -0.00033635 -0.0011709
0.0026333 0.00054031 0.0014371 -0.0017616 -0.00049288 -0.0015482 -0.050726 0.27976
0.020145 0.019142 -0.0020934 0.0016232
-9.6166e-06 -0.0037026 -0.0025407 -0.0025008 -0.0015863 -0.00086675 0.020197 0.019107
-0.084494 0.18099 0.01355 0.020039
-6.9387e-05 -0.0014002 -0.0012578 -0.002529 -0.0003243 -0.0011839 -0.0020822 0.0016283
0.013544 0.020033 -0.14866 0.26077
1100000000 0.035763 0.3062 0.036378 -0.0040667 0.0031383 0.0039436 0.0023392 -0.0014581
-0.0020254 -0.0031952 -0.0038488 2.9663e-05
0.036342 -0.0040563 -0.13026 0.37422 0.015297 -0.028151 -0.00010763 -0.0017973
-0.0032185 -0.0007212 -0.0034746 -0.00049207
0.0031468 0.0039207 0.015202 -0.028245 0.2048 0.27591 -0.0018694 0.0002555
-0.0017227 0.00043456 -0.0011477 -0.00059447
0.00234 -0.0014681 -0.00011195 -0.0017927 -0.0018701 0.00025186 -0.00995 0.2849
0.025741 0.0055079 -0.0024224 9.9754e-05
-0.0020461 -0.0031879 -0.0032276 -0.00070468 -0.0017171 0.00044738 0.025758 0.0054584
-0.066731 0.19523 0.01964 0.0097432
-0.0038439 4.1727e-05 -0.0034825 -0.00048477 -0.0011403 -0.00058358 -0.002418 0.00012603
0.019632 0.0097538 -0.10294 0.29383
1160000000 0.087293 0.30109 0.024435 -0.020905 0.0029848 -0.00067273 -0.00046856 -0.0024477
-0.0041604 -0.0008392 -0.0009229 0.004105
0.024441 -0.020897 -0.086257 0.37828 -0.0037657 -0.029429 -0.0016901 -0.0016594
-0.0026409 0.0023224 -0.0013337 0.0018977
0.002984 -0.00069947 -0.0038934 -0.029441 0.24806 0.24494 -0.0006276 0.0017631
-0.00067444 0.0018803 -0.0010858 0.00019818
-0.00048264 -0.0024577 -0.0016932 -0.001645 -0.00061818 0.0017595 0.029909 0.28201
0.022327 -0.01065 -0.00303 0.0052316
-0.0041827 -0.00081056 -0.002632 0.0023275 -0.00067231 0.0018935 0.022332 -0.010676
-0.032566 0.20498 0.019056 0.0012203
-0.0009114 0.004134 -0.0013316 0.0019045 -0.0010835 0.00019037 -0.0030129 0.0052355
0.019062 0.0012286 -0.055305 0.29745
1220000000 0.13156 0.28978 0.010783 -0.030393 -0.001455 -0.0011499 -0.00013856 -0.00074198
-0.0026925 0.0024438 0.0012858 0.0020273
0.010789 -0.03036 -0.041627 0.3902 -0.017047 -0.021282 -0.0024879 0.00050756
-1.6965e-05 0.0029183 -0.00082773 0.001907
-0.0014595 -0.001143 -0.017157 -0.021221 0.28722 0.20574 0.00081732 0.0015682
0.00053252 0.0011801 0.00020952 0.00070392
-0.00013461 -0.00074585 -0.0024939 0.00052362 0.00081676 0.0015726 0.070017 0.27319
0.01118 -0.017791 0.0024191 0.0013376
-0.0026777 0.0024573 -3.4564e-06 0.0029302 0.00052451 0.0011849 0.011157 -0.017799
-0.010242 0.21415 0.015262 -0.012576
0.0012986 0.002027 -0.00081348 0.0019132 0.00021449 0.0007143 0.0024137 0.0013495
0.015253 -0.012564 -0.024986 0.31654
1280000000 0.18132 0.26773 -0.0078332 -0.028973 -0.0020188 0.002157 -0.00083984 -0.0017947
-0.00078082 0.0030532 0.0024352 0.0011761
-0.0078034 -0.028939 0.004521 0.38088 -0.02384 -0.0084904 -0.00084699 0.001424
0.0015577 0.0017838 0.0006369 0.0021359
-0.0019981 0.0021736 -0.023905 -0.0083836 0.31765 0.16163 0.001569 -3.7078e-05
0.0011548 0.00039165 0.00038818 0.00048145
-0.00084226 -0.0017887 -0.00084657 0.0014282 0.0015699 -2.9751e-05 0.1068 0.25633
0.0014856 -0.020021 -0.00015373 -0.00018145
-0.00076312 0.0030511 0.0015841 0.0017774 0.0011514 0.00039643 0.0014476 -0.020021
0.027084 0.21795 0.0038952 -0.0153
0.0024423 0.0011511 0.00064964 0.0021235 0.00038498 0.00047522 -0.00015146 -0.0001827
0.0038863 -0.015294 0.024037 0.32081
1340000000 0.21827 0.23358 -0.017763 -0.019435 0.00064802 0.0043595 -0.0015066 -0.00076832
0.0014773 0.0027435 0.001751 -0.0013884
-0.017726 -0.019429 0.043979 0.37222 -0.021596 0.0042596 -0.00014489 0.0018985
0.0018095 0.0009213 0.001399 0.00082319
0.00067511 0.0043757 -0.021602 0.0043866 0.33949 0.11354 0.0011028 -0.00091245
0.00084867 -0.00044006 0.00032616 0.00042437
-0.0015072 -0.00075205 -0.00013375 0.0019005 0.0011068 -0.00091822 0.13877 0.23582
-0.0084875 -0.017361 0.00083463 0.0003857
0.0015083 0.002738 0.0018061 0.00090428 0.00084512 -0.00044475 -0.0085179 -0.017335
0.056658 0.21295 -0.0029087 -0.014112
0.0017624 -0.0013983 0.0014097 0.00081181 0.00032722 0.00042893 0.00084078 0.00038763
-0.0029015 -0.014118 0.062486 0.31805
1400000000 0.25087 0.19523 -0.023794 -0.007772 0.0049166 0.0031366 -0.0019318 0.00050581
0.00238 0.00087113 0.00036169 -0.001318
-0.023755 -0.0077841 0.081053 0.35872 -0.014839 0.012349 0.0012241 0.0012756
0.001152 -0.00070666 0.0012865 0.00028022
0.0049472 0.00312 -0.014793 0.012443 0.35251 0.059957 0.0001101 -0.0015881
-1.2708e-05 -0.00049527 0.00048378 0.00024991
-0.001932 0.00051154 0.0012355 0.0012664 0.00011176 -0.0015952 0.16781 0.2071
-0.014632 -0.010455 -0.0010689 -0.00066245
0.002381 0.00085279 0.0011384 -0.00071325 -1.549e-05 -0.00049994 -0.014642 -0.010427
0.089528 0.20874 -0.0095166 -0.009687
0.00034898 -0.0013224 0.0012916 0.00026695 0.00048218 0.00024485 -0.0010663 -0.00066901
-0.0095124 -0.0096771 0.10882 0.30822
1460000000 0.27321 0.15129 -0.020891 0.0046593 0.005434 -0.0016978 -0.0015959 0.0015667
0.0020877 -0.00053279 -0.00035234 -0.00094804
-0.020874 0.0046401 0.11478 0.33654 -0.0061854 0.015179 0.001676 0.0002495
0.00098474 -0.0012838 0.001177 -0.00070304
0.0054254 -0.001721 -0.0061122 0.015221 0.35823 0.0056175 -0.0012578 -0.0012758
0.00017787 -0.00037962 0.00060086 -0.00043251
-0.0016021 0.0015695 0.0016913 0.00024486 -0.0012559 -0.0012722 0.19366 0.17838
-0.016125 -0.0035007 -0.0010909 0.0020429
0.0020942 -0.0005549 0.00097502 -0.0012977 0.00018152 -0.00037658 -0.016122 -0.0034792
0.11795 0.19379 -0.011873 -0.003414
-0.00034888 -0.00093902 0.0011608 -0.00070893 0.00059666 -0.00043316 -0.0010976 0.0020532
-0.011874 -0.0034173 0.14308 0.28801
1520000000 0.28495 0.10982 -0.015227 0.010477 0.0032761 -0.0039907 1.9742e-05 0.0025565
0.0021339 -0.0016746 -0.0010825 -0.00014932
-0.015222 0.010458 0.14785 0.3218 0.0014203 0.01303 0.0017015 -0.00069595
7.3774e-05 -0.0010796 0.00032002 -0.0010346
0.0032565 -0.0040016 0.0014989 0.013033 0.35139 -0.050662 -0.0010581 -0.00038625
0.00056428 -0.00080858 7.1439e-05 -0.00012516
3.1741e-05 0.0025589 0.0017014 -0.00071216 -0.0010632 -0.00038292 0.21659 0.14118
-0.015634 0.0024853 0.0013401 0.0021786
0.0021267 -0.0016967 6.6193e-05 -0.0010784 0.00056195 -0.00081449 -0.015628 0.0025028
0.14476 0.18004 -0.012113 0.0010052
-0.0010872 -0.00013554 0.00031436 -0.0010436 7.6637e-05 -0.00012771 0.0013383 0.0021699
-0.012117 0.0010039 0.17741 0.2692
1580000000 0.2941 0.064164 -0.0083645 0.013809 -0.00086442 -0.0046873 0.0013008 0.0019118
-0.00026964 -0.0020797 -0.00031616 0.00043872
-0.0083684 0.013798 0.17465 0.29716 0.0049911 0.0082808 0.00056138 -0.0016006
-0.00062643 -0.0011136 -0.00033475 -0.00075503
-0.00088986 -0.0046881 0.0050366 0.0082586 0.33079 -0.10796 -0.0016073 0.00065505
-0.0002857 -0.0010988 6.9773e-05 -0.00057112
0.0013024 0.0019108 0.00055178 -0.0016028 -0.0016042 0.00065114 0.23051 0.10277
-0.012038 0.007713 0.0022055 0.001021
-0.00029616 -0.0020778 -0.00064283 -0.0011155 -0.00029601 -0.0010974 -0.012036 0.00773
0.16851 0.16279 -0.0097314 0.0071648
-0.00031054 0.00044139 -0.00034203 -0.00075276 6.4082e-05 -0.00057702 0.0022057 0.0010182
-0.0097394 0.007154 0.21117 0.24268
1640000000 0.29629 0.023175 -0.0013452 0.012768 -0.0025301 -0.0024325 0.0026902 0.0010764
-0.00054884 -0.0015463 -0.0002329 0.00051199
-0.0013533 0.012761 0.20392 0.27245 0.0058117 0.0036013 -0.00062829 -0.0018106
-0.0010549 -0.00034983 -0.00047346 -0.00066308
-0.0025392 -0.0024276 0.0058322 0.0035713 0.30263 -0.15707 -0.00060314 0.0014695
-0.0010478 -0.0010341 -0.00010071 -0.00047154
0.0027052 0.0010681 -0.00063097 -0.0018018 -0.00060869 0.0014706 0.2431 0.054934
-0.0077067 0.009144 0.0024773 -0.00067843
-0.00056711 -0.0015386 -0.0010586 -0.00034132 -0.0010593 -0.0010355 -0.0077126 0.0091614
0.19004 0.13925 -0.0049871 0.0093285
-0.00022863 0.00052117 -0.00048064 -0.00065251 -0.00011007 -0.00046734 0.0024905 -0.00069651
-0.0049828 0.0093289 0.23736 0.21201
1700000000 0.28921 -0.021887 0.0022419 0.0098224 -0.003247 6.5173e-05 0.0030414 -0.0011752
-0.0020532 -0.00075471 0.00067418 0.00043792
0.0022466 0.0098145 0.22174 0.24127 0.003836 0.00081437 -0.001498 -0.00064762
-0.00073837 0.00012206 -0.0008654 -0.00039922
-0.0032341 8.8265e-05 0.0038379 0.00079257 0.25884 -0.19666 0.00047806 0.0016253
-0.0018271 -0.00025489 -0.00041198 -0.00077548
0.0030426 -0.0011878 -0.0015033 -0.00064595 0.00047658 0.0016279 0.24075 0.0062133
-0.0047823 0.0099456 0.0015598 -0.0021649
-0.0020618 -0.0007483 -0.00074186 0.00013243 -0.0018189 -0.00025428 -0.004773 0.0099766
0.2069 0.11985 -0.00019776 0.0097826
0.00068413 0.00043833 -0.00087459 -0.00039602 -0.00039877 -0.00077465 0.0015655 -0.0021601
-0.0001969 0.0097914 0.25501 0.17767
1760000000 0.27722 -0.070297 0.0046089 0.00642 -0.0021883 0.00085353 0.0013176 -0.0033744
-0.0013897 0.00063095 0.0004391 -0.0006108
0.0045991 0.0064178 0.24765 0.20182 0.0016716 -0.00094209 -0.0012503 0.00018398
-0.00089341 0.00092465 -0.00046182 0.00039893
-0.0021706 0.00085565 0.0016813 -0.00095315 0.21006 -0.22947 0.001248 0.0010108
-0.0011037 0.0013726 -0.0011803 -0.00052154
0.0013009 -0.0033837 -0.0012586 0.00020311 0.0012473 0.0010136 0.23289 -0.044473
-0.0012407 0.0092837 -0.00013237 -0.0024764
-0.0013829 0.00065502 -0.00088737 0.00093181 -0.0011148 0.0013757 -0.0012292 0.009314
0.22124 0.085998 0.0038748 0.007257
0.00043316 -0.00061209 -0.0004637 0.00040453 -0.0011931 -0.00051808 -0.00012937 -0.0024711
0.0038806 0.0072618 0.26826 0.14025
1820000000 0.25278 -0.1077 0.0048491 0.0027435 -3.7924e-05 0.0023436 -0.00094957 -0.0030445
-0.0011895 0.0009413 -4.386e-05 -0.00011416
0.0048403 0.0027474 0.25772 0.17209 -0.00020764 6.2735e-05 -0.0013342 0.0010145
6.0319e-05 0.0012074 -0.00048015 0.00047609
-3.6919e-05 0.0023425 -0.00020751 5.6195e-05 0.16029 -0.24523 0.0014063 0.00035513
-0.00030148 0.0022934 -0.0013599 0.00015886
-0.00096364 -0.0030397 -0.0013338 0.0010144 0.0014092 0.00035019 0.20452 -0.091589
0.00050039 0.0077402 -0.0014645 -0.0016122
-0.0011868 0.0009525 7.7253e-05 0.001206 -0.00029095 0.0022884 0.00054347 0.0077469
0.23837 0.058093 0.0049015 0.0037938
-4.7799e-05 -0.00012196 -0.00047766 0.0004765 -0.0013544 0.00016671 -0.001471 -0.001604
0.0049022 0.0037871 0.27153 0.10464
1880000000 0.21784 -0.14815 0.0027354 0.00034455 -0.00031713 0.0020352 -0.0028797 -0.0022856
-0.00016584 0.0017907 0.00020609 -0.0005397
0.0027325 0.00034485 0.2624 0.12587 -0.0021136 0.0016856 -0.00015091 0.0017149
0.00054925 0.0010749 6.8311e-05 0.00082958
-0.00030941 0.0020342 -0.0021143 0.001705 0.10819 -0.2548 0.001694 -0.00086121
0.0014131 0.0019877 -0.0011601 0.0012642
-0.0028802 -0.0022641 -0.00013695 0.0017186 0.0016994 -0.00086087 0.16535 -0.13252
0.0015848 0.0057666 -0.0023495 0.00035452
-0.00014535 0.001801 0.00055891 0.0010642 0.0014343 0.0019742 0.00162 0.0057819
0.24149 0.026745 0.0051689 0.0016673
0.00019516 -0.00052818 7.1399e-05 0.00082849 -0.0011594 0.0012687 -0.0023431 0.00035756
0.0051653 0.0016497 0.27188 0.070243
1940000000 0.17838 -0.17399 0.00050783 -0.0014873 0.0013685 0.0019411 -0.0036782 0.00042195
0.0014029 0.0010747 -0.00069216 -0.00045847
0.00050276 -0.0014824 0.26329 0.094207 -0.0010309 0.0038407 0.0010454 0.0013513
0.0016424 0.00039845 0.00070017 0.00026299
0.0013929 0.0019481 -0.0010226 0.0038582 0.062143 -0.24826 0.00045705 -0.0020322
0.0023819 0.00050245 0.00010803 0.0017476
-0.0036805 0.00044327 0.0010554 0.0013474 0.00046217 -0.0020319 0.11377 -0.1644
0.001108 0.004226 -0.0013876 0.0014819
0.0014137 0.0010646 0.0016529 0.00037911 0.0023945 0.0005003 0.0011272 0.0042176
0.24395 -0.011337 0.0039473 -0.0020156
-0.00069326 -0.00046305 0.00070247 0.00025369 0.00010337 0.001733 -0.0013791 0.001499
0.0039368 -0.0020034 0.2617 0.034937
2000000000 0.13198 -0.18883 -0.0033972 0.00029489 0.0023782 0.0016084 -0.0024285 0.0033837
0.0012042 2.8164e-05 -0.00065286 0.00034715
-0.0034052 0.00030441 0.2495 0.05861 -0.00090261 0.0056138 0.0016644 0.00034344
0.0011846 -0.0012781 0.00040896 0.00016064
0.002402 0.0015913 -0.0008613 0.0056272 0.018484 -0.23343 -0.0012589 -0.0013042
0.0020404 -0.0011448 0.0016899 0.0014211
-0.0024082 0.003391 0.0016569 0.000338 -0.0012535 -0.001312 0.060135 -0.17571
-0.00023153 0.0036616 5.8611e-06 0.0021971
0.001211 1.5307e-07 0.0011688 -0.0012708 0.0020301 -0.0011454 -0.00022473 0.0036446
0.23857 -0.044725 0.00066226 -0.0028145
