!Keysight Technologies,M9804A,MY58100912,A.14.10.03
!Date: Thursday, April 27, 2023 10:28:33
!Correction: S11(C  6-Port  ) 
!S12(C  6-Port  ) 
!S13(C  6-Port  ) 
!S14(C  6-Port  ) 
!S15(C  6-Port  ) 
!S16(C  6-Port  ) 
!S21(C  6-Port  ) 
!S22(C  6-Port  ) 
!S23(C  6-Port  ) 
!S24(C  6-Port  ) 
!S25(C  6-Port  ) 
!S26(C  6-Port  ) 
!S31(C  6-Port  ) 
!S32(C  6-Port  ) 
!S33(C  6-Port  ) 
!S34(C  6-Port  ) 
!S35(C  6-Port  ) 
!S36(C  6-Port  ) 
!S41(C  6-Port  ) 
!S42(C  6-Port  ) 
!S43(C  6-Port  ) 
!S44(C  6-Port  ) 
!S45(C  6-Port  ) 
!S46(C  6-Port  ) 
!S51(C  6-Port  ) 
!S52(C  6-Port  ) 
!S53(C  6-Port  ) 
!S54(C  6-Port  ) 
!S55(C  6-Port  ) 
!S56(C  6-Port  ) 
!S61(C  6-Port  ) 
!S62(C  6-Port  ) 
!S63(C  6-Port  ) 
!S64(C  6-Port  ) 
!S65(C  6-Port  ) 
!S66(C  6-Port  ) 
!S6P File: Measurement: :
# Hz S  RI   R 50
500000000 -0.33717 -0.041606 -0.0096325 -0.0028023 -0.0082726 0.012433 -0.0045878 0.012281
0.01251 0.0045062 -0.0048165 0.0092728
-0.0094246 -0.003152 -0.41896 -0.053584 0.0080175 -0.010804 0.0013196 0.012532
0.0078986 0.0021355 0.0011806 0.013668
-0.0079599 0.012029 0.007946 -0.010861 -0.26493 0.20789 0.007544 0.0039278
-0.0022083 0.0076234 0.00088652 0.012518
-0.004508 0.012138 0.0012085 0.012312 0.0075277 0.0039579 -0.33386 0.038364
-0.020223 -0.0066967 0.016462 0.027173
0.012329 0.0041143 0.0080336 0.0022429 -0.0023456 0.0076102 -0.020263 -0.0066653
-0.21855 -0.20617 -0.026235 0.0057875
-0.00474 0.0084409 0.0010112 0.013389 0.00084267 0.012554 0.016271 0.027155
-0.026228 0.0057089 -0.25835 -0.15369
560000000 -0.3164 0.12046 -0.023707 -0.063574 -0.00077643 0.012065 0.0058174 0.011215
0.010753 0.0052164 0.011306 0.008
-0.02361 -0.063346 -0.37699 0.10649 -0.041357 -0.037827 0.013986 0.0041141
-0.013244 -0.005407 0.0025424 -0.00047032
-0.00046199 0.01184 -0.041336 -0.037726 -0.18323 0.25569 -0.0007203 -0.0042516
0.01979 0.0052481 0.0069199 -0.005958
0.0055422 0.010749 0.013961 0.003834 -0.00070458 -0.0042571 -0.30883 0.13053
0.0033117 -0.024124 0.0047749 -0.021749
0.010379 0.0048707 -0.013311 -0.0049428 0.019896 0.0054451 0.0031892 -0.024239
-0.28906 -0.029888 0.0099704 -0.050365
0.011347 0.0076546 0.0026509 -0.00075744 0.0068263 -0.0060965 0.0047845 -0.021756
0.0099388 -0.050286 -0.32793 -0.00056848
620000000 -0.2759 0.10484 -0.023448 0.0076589 0.0029364 0.0084124 0.0084285 -0.005242
0.010803 0.00027735 0.0012611 -0.0029079
-0.023531 0.0076414 -0.4027 0.057991 -0.018789 -0.00012039 -0.0013251 -0.0020226
0.011617 -0.006265 0.0016476 -0.0028623
0.0028585 0.0082607 -0.01876 -6.6291e-05 -0.15429 0.26554 -0.0014854 -0.0049182
-0.0024159 -0.0029037 0.0083781 -0.0033459
0.0082078 -0.0054574 -0.0013763 -0.001956 -0.001501 -0.0048709 -0.26956 0.14147
-0.039311 -0.019165 0.012214 0.027586
0.010877 0.00039871 0.011638 -0.0063267 -0.0023649 -0.0029845 -0.039298 -0.019125
-0.20676 -0.068943 -0.043044 0.014619
0.00086898 -0.0033047 0.0015643 -0.0028919 0.0082788 -0.0032311 0.012183 0.027676
-0.043052 0.014627 -0.24726 -0.042041
680000000 -0.23557 0.19051 -0.027378 -0.014567 0.0047681 0.0051887 0.0019472 -0.0070711
-0.0031897 -0.011253 0.0052223 -0.0072941
-0.027257 -0.014523 -0.38803 0.15609 -0.033036 -0.0015512 -0.0015768 -0.00048793
-0.0020736 -0.0090948 -0.0010384 -0.0019366
0.0049109 0.005281 -0.033076 -0.0014526 -0.10321 0.28544 -0.00067417 -0.00036725
-0.0017464 0.00044171 -0.0028007 -0.0096389
0.0019558 -0.0071376 -0.0016527 -0.00042409 -0.00066059 -0.00039728 -0.22353 0.19353
-0.024431 -0.0066479 -0.0096568 -0.012547
-0.0032116 -0.011549 -0.0020675 -0.0091388 -0.0017569 0.00048574 -0.024474 -0.0067085
-0.26066 0.031939 -0.0058047 -0.0086646
0.0052634 -0.0070929 -0.0012042 -0.0019119 -0.002828 -0.0096766 -0.0096928 -0.012418
-0.0057464 -0.0086776 -0.26248 0.069275
740000000 -0.19164 0.18532 -0.039069 0.026723 0.012472 -0.0051087 -0.00018898 -0.0042098
-0.003698 -0.002985 -0.0066471 0.0024619
-0.039006 0.026928 -0.33571 0.17526 -0.035791 0.035243 -0.00092046 -0.0063948
-0.011647 0.0080287 -0.0023565 -0.0072026
0.012493 -0.0051026 -0.035808 0.035371 -0.069532 0.28407 -0.0021902 0.0028319
-0.0021964 -0.004958 -0.0015862 -6.6972e-05
-0.00012234 -0.0044375 -0.00099192 -0.0062706 -0.0021816 0.0028428 -0.2068 0.20215
-0.044754 -0.0069312 0.024225 0.016161
-0.0037574 -0.0027853 -0.011618 0.0078674 -0.0022803 -0.0048971 -0.044816 -0.0068461
-0.15862 0.059598 -0.045717 -0.00063979
-0.0064623 0.0023232 -0.0024329 -0.0069707 -0.0015192 -7.0434e-06 0.024206 0.016163
-0.045676 -0.00074797 -0.25322 0.074529
800000000 -0.15866 0.22656 -0.022738 0.01688 0.0053998 -0.01069 -0.0046882 -0.0020863
-0.0039371 0.0021207 0.0049873 -4.189e-05
-0.022666 0.016885 -0.33911 0.24577 -0.0081029 0.034351 -0.0023893 0.0021964
-0.0006125 0.0027915 0.0010162 0.005364
0.0054525 -0.0106 -0.0080017 0.034419 -0.028956 0.3076 0.00085766 0.0014802
0.00015414 0.0034327 -0.0017437 0.00079627
-0.0046245 -0.0020974 -0.0023945 0.002225 0.00085705 0.001483 -0.17781 0.23077
-0.028945 0.014717 0.014868 -0.01064
-0.0036305 0.0020941 -0.00070253 0.0028355 0.00013474 0.0034229 -0.028944 0.014844
-0.20824 0.083285 -0.018338 0.019389
0.004985 9.9297e-05 0.00097369 0.0053107 -0.0017806 0.00078696 0.014843 -0.010685
-0.018354 0.019377 -0.2509 0.12565
860000000 -0.12415 0.24698 -0.017784 0.030849 -0.0033286 -0.010075 -0.0021273 0.00091912
0.0039439 0.0046778 -0.0034616 -0.0032404
-0.017746 0.030909 -0.29138 0.28794 0.0079102 0.034565 -1.9156e-05 0.0020919
0.0038485 1.3884e-05 0.0031587 0.00064956
-0.0033594 -0.010019 0.008015 0.034552 0.019284 0.31582 -0.00063861 -9.2507e-05
0.0027483 -0.001453 0.0014874 0.0043969
-0.0020631 0.00096122 -5.7254e-05 0.0020978 -0.00063781 -9.0737e-05 -0.14046 0.24171
-0.018157 0.019289 -0.0060584 -0.009116
0.0040274 0.0045466 0.0038437 3.7054e-05 0.0027487 -0.0014289 -0.018117 0.019361
-0.15707 0.13602 -0.027252 0.015135
-0.0037716 -0.0030527 0.0031226 0.00060152 0.0014987 0.0043599 -0.0061479 -0.0091842
-0.027242 0.015078 -0.19958 0.17464
920000000 -0.099724 0.27012 0.0049935 0.038196 -0.0095035 -0.0044257 -0.001813 0.0018217
0.00096519 0.0018749 0.0027028 -0.0014162
0.0049763 0.038145 -0.26256 0.30925 0.028306 0.022155 0.0015434 0.0010579
0.0071323 -0.00026684 0.0040229 -0.0026064
-0.0095296 -0.0044342 0.028426 0.022056 0.065873 0.31646 0.0019446 8.2665e-05
0.0011227 -0.00031181 0.00096205 -0.00099524
-0.0017131 0.0018261 0.0015172 0.0011046 0.0019354 8.1749e-05 -0.11632 0.25902
-0.010715 0.031974 0.0043935 -0.006807
0.00098883 0.0018325 0.0071705 -0.00027661 0.001138 -0.00032233 -0.010675 0.032054
-0.14752 0.14235 -0.0030384 0.028268
0.002633 -0.0015507 0.0039114 -0.0026089 0.0009565 -0.00098012 0.0043299 -0.0069137
-0.0030381 0.028293 -0.21268 0.18895
980000000 -0.052029 0.2898 0.017642 0.030442 -0.0091064 0.0047454 0.0020462 0.0033815
0.0039648 -0.001398 -0.0033821 -0.0021373
0.017602 0.030399 -0.20951 0.3436 0.033311 0.0049592 0.0020892 -6.8853e-05
0.0015723 -0.0058058 -0.00028774 -0.00246
-0.009114 0.0047493 0.033384 0.004841 0.11222 0.30995 0.00061214 -0.0011626
0.00038976 -0.0021241 0.0015489 -0.00023636
0.0020123 0.0033665 0.0020579 -8.5621e-05 0.00061846 -0.0011675 -0.076883 0.27024
0.0086619 0.031442 -0.0092799 -0.0079357
0.0039943 -0.0013582 0.0016235 -0.0058185 0.00039503 -0.0021295 0.0087774 0.031404
-0.1166 0.17245 0.0046774 0.020482
-0.0035012 -0.0021146 -0.0002786 -0.0025096 0.0015876 -0.00022881 -0.0093064 -0.0079045
0.0046268 0.020473 -0.16993 0.23728
1040000000 -0.0098038 0.29829 0.033441 0.018539 -0.001174 0.0071003 0.0024275 0.00058624
8.0112e-05 -0.0036659 -0.00014864 -0.0014069
0.033461 0.01854 -0.17388 0.35663 0.029656 -0.014959 0.0014767 -0.0017979
-0.0024519 -0.0025755 -0.0013046 -0.0026786
-0.0011579 0.0071022 0.029645 -0.015101 0.15839 0.29617 -0.00052581 -0.0016687
-0.0016293 -0.00094635 -0.0004306 -0.0011675
0.0024637 0.00055281 0.0014285 -0.0018072 -0.00052699 -0.0016734 -0.049239 0.28027
0.020863 0.018893 -0.0020088 0.0011595
2.7049e-05 -0.0035971 -0.0023765 -0.0026127 -0.001616 -0.00095269 0.020915 0.018876
-0.083774 0.17993 0.013662 0.019934
-2.001e-05 -0.0014249 -0.001308 -0.0026507 -0.0004452 -0.0011961 -0.002022 0.0011488
0.013622 0.019877 -0.15072 0.25934
1100000000 0.035698 0.30609 0.036215 -0.0041516 0.003037 0.0039703 0.0021796 -0.0012845
-0.0019823 -0.0031849 -0.0038758 -2.2779e-05
0.03618 -0.0041495 -0.13031 0.37408 0.015169 -0.028086 -8.5726e-05 -0.0017762
-0.0032687 -0.00082146 -0.0035105 -0.00060232
0.0030393 0.003951 0.015071 -0.028181 0.20484 0.27578 -0.0020011 0.00017951
-0.0018614 0.00040772 -0.001213 -0.00051061
0.0021897 -0.0012814 -0.00011335 -0.0017829 -0.0020175 0.00017641 -0.0083266 0.28502
0.026469 0.0050242 -0.0026393 -0.00035239
-0.0020117 -0.0031331 -0.0032759 -0.00081101 -0.0018686 0.00039471 0.026471 0.0049385
-0.066594 0.19383 0.019742 0.0096799
-0.0038726 7.2779e-05 -0.0034989 -0.00056899 -0.001195 -0.00050425 -0.0026689 -0.00032363
0.019715 0.0096869 -0.10514 0.29285
1160000000 0.08718 0.30102 0.024229 -0.020839 0.0029284 -0.00060406 -0.00045908 -0.002289
-0.0041602 -0.00081146 -0.00097363 0.0041355
0.024238 -0.020832 -0.08636 0.37821 -0.0038218 -0.029332 -0.0016379 -0.0016729
-0.0027549 0.002372 -0.0013966 0.0020041
0.0028969 -0.00061967 -0.0039396 -0.029369 0.24804 0.24477 -0.00073124 0.0018322
-0.00070366 0.0019892 -0.0010987 0.00028333
-0.00042145 -0.0022774 -0.0016715 -0.001685 -0.00073559 0.001827 0.031523 0.2816
0.022754 -0.011571 -0.0034332 0.0050208
-0.0041726 -0.00075589 -0.0027588 0.0023782 -0.00069706 0.0019822 0.022707 -0.011638
-0.032916 0.20341 0.018973 0.001233
-0.00082306 0.0041991 -0.0013778 0.0020019 -0.0011276 0.00028801 -0.0034053 0.0050668
0.018978 0.0012265 -0.057391 0.29619
1220000000 0.13157 0.28981 0.010625 -0.030289 -0.0014764 -0.0010578 1.0557e-05 -0.00069033
-0.0026746 0.0023537 0.0012865 0.0020433
0.010638 -0.030244 -0.041723 0.39008 -0.017052 -0.021207 -0.0025232 0.00045058
-9.5178e-05 0.0029889 -0.00082849 0.0019269
-0.001495 -0.0010523 -0.017161 -0.021165 0.28713 0.20561 0.00080865 0.0017253
0.00054111 0.00133 0.0002812 0.00069384
1.8327e-06 -0.00068197 -0.0025272 0.00046689 0.00081018 0.0017477 0.071663 0.27243
0.011309 -0.018753 0.0019289 0.001262
-0.0027318 0.0023871 -9.652e-05 0.003009 0.0005545 0.0013399 0.011249 -0.018792
-0.010973 0.21286 0.015197 -0.012788
0.00123 0.0020375 -0.00079013 0.0019323 0.00028795 0.000716 0.0019392 0.0012988
0.015209 -0.012799 -0.027344 0.31615
1280000000 0.18127 0.2677 -0.0078803 -0.028809 -0.0019165 0.0022502 -0.00075784 -0.0018387
-0.00084812 0.0031314 0.0024516 0.0013138
-0.0078701 -0.028789 0.0043961 0.3809 -0.02385 -0.0084592 -0.00097801 0.001425
0.0015818 0.0019119 0.00062865 0.0021984
-0.0018968 0.0022594 -0.02391 -0.008349 0.31758 0.16156 0.0016856 7.1278e-05
0.0011957 0.00039323 0.00040224 0.00037978
-0.00073896 -0.0018118 -0.00096536 0.0014282 0.00169 7.0729e-05 0.10836 0.25479
0.0012045 -0.021063 -0.00066891 7.6245e-05
-0.00084128 0.0031184 0.0015912 0.0019033 0.0012273 0.00039825 0.0011298 -0.021078
0.026069 0.21699 0.0037514 -0.015362
0.0024326 0.0013087 0.00062927 0.0021867 0.00041706 0.00040153 -0.00066715 7.7999e-05
0.0037692 -0.015357 0.021903 0.32066
1340000000 0.21825 0.23367 -0.017768 -0.019255 0.00076059 0.0043692 -0.0014527 -0.00085857
0.0014434 0.0027502 0.0018458 -0.0013765
-0.017727 -0.019234 0.043872 0.37227 -0.021602 0.0042834 -0.00017613 0.0019675
0.0018602 0.0009604 0.0014078 0.00077323
0.00077953 0.0044037 -0.021612 0.0043892 0.33935 0.11351 0.0012809 -0.00092046
0.00085721 -0.00048494 0.00028802 0.00039328
-0.0014647 -0.00085009 -0.0001665 0.0019921 0.0012782 -0.0009284 0.13977 0.23366
-0.009167 -0.01817 0.00064283 0.00088996
0.001454 0.0027589 0.0018769 0.00095732 0.00087405 -0.00046973 -0.0092487 -0.018133
0.055498 0.21238 -0.00297 -0.014094
0.0017659 -0.0013415 0.0013888 0.00078868 0.00028855 0.00037504 0.00064555 0.00087733
-0.0029754 -0.014079 0.060406 0.31839
1400000000 0.2509 0.19534 -0.023659 -0.0076348 0.0050022 0.0030919 -0.0020185 0.00041606
0.0023779 0.00093238 0.00039645 -0.001362
-0.023636 -0.00765 0.080961 0.35885 -0.014768 0.012387 0.0013213 0.0013866
0.0012483 -0.0007063 0.001317 0.0002356
0.0050034 0.0030948 -0.014736 0.012481 0.35231 0.059894 0.00022234 -0.0017577
3.8721e-05 -0.00046922 0.00051823 0.00026877
-0.0020207 0.00039498 0.0013243 0.0013877 0.00021694 -0.0017531 0.16795 0.20444
-0.01566 -0.010995 -0.0010505 -0.00014235
0.0023895 0.00088782 0.0012328 -0.00071714 5.6318e-05 -0.00046943 -0.015705 -0.010914
0.088261 0.20855 -0.0097579 -0.0095526
0.0003775 -0.0013531 0.0013159 0.00026734 0.00051402 0.00031083 -0.0010835 -0.00014354
-0.0097518 -0.0095744 0.10708 0.30888
1460000000 0.27341 0.15138 -0.020694 0.0047485 0.0054577 -0.0017464 -0.0017469 0.0016095
0.0021165 -0.00050832 -0.0003208 -0.0010103
-0.020677 0.0047258 0.11476 0.33681 -0.0061621 0.015191 0.0017955 0.00021374
0.00097655 -0.0013627 0.0011723 -0.00070419
0.0054456 -0.0017669 -0.0060882 0.015239 0.35817 0.005714 -0.0013566 -0.0014732
0.00015068 -0.00039948 0.00062146 -0.00043172
-0.0017212 0.0016076 0.0018012 0.00020952 -0.0013509 -0.0014583 0.19264 0.17555
-0.017417 -0.0036812 -0.00077997 0.0025029
0.0021148 -0.00051992 0.00097232 -0.001378 0.0001432 -0.00041651 -0.017401 -0.0035883
0.11675 0.19395 -0.011979 -0.0032267
-0.00029759 -0.0010501 0.001176 -0.00072778 0.00060076 -0.00045434 -0.00081845 0.0024935
-0.012003 -0.0032354 0.14132 0.28876
1520000000 0.28516 0.10978 -0.015033 0.010458 0.0032893 -0.0040063 -2.506e-05 0.002649
0.0022056 -0.0016717 -0.0011749 -0.00017928
-0.01504 0.010448 0.14793 0.32195 0.0014944 0.013004 0.0017842 -0.00077383
7.8134e-05 -0.0011595 0.00030758 -0.0010437
0.0032511 -0.0040234 0.0015601 0.013022 0.35128 -0.050506 -0.0012865 -0.00040907
0.00056627 -0.00085485 6.6872e-05 -0.00016182
-2.2502e-06 0.0026288 0.0017902 -0.00079611 -0.0012816 -0.00040856 0.21435 0.13882
-0.016888 0.0029604 0.0017298 0.0022944
0.0021873 -0.0016841 8.2591e-05 -0.0011748 0.00055465 -0.00087343 -0.016821 0.0030183
0.14379 0.18042 -0.012239 0.0012296
-0.0011272 -0.00014084 0.0002995 -0.0010553 4.1127e-05 -0.00016642 0.0017208 0.0022708
-0.012239 0.0012246 0.17588 0.27027
1580000000 0.29425 0.06398 -0.0082063 0.013702 -0.00088014 -0.0047304 0.0013992 0.0020528
-0.00017464 -0.002108 -0.0003635 0.0004727
-0.0082205 0.013687 0.17479 0.2974 0.0050164 0.0082614 0.00056485 -0.0017314
-0.00067125 -0.0011582 -0.00029262 -0.00076188
-0.0009091 -0.0047337 0.005066 0.0082519 0.33088 -0.10792 -0.0017745 0.00084325
-0.00031752 -0.0010769 6.0011e-05 -0.00056217
0.0013933 0.0020501 0.0005535 -0.0017346 -0.0017759 0.0008332 0.22717 0.10153
-0.012988 0.0086505 0.0025245 0.00098036
-0.00020939 -0.0021171 -0.0006771 -0.0011582 -0.000332 -0.001071 -0.012886 0.0086948
0.16768 0.16317 -0.0097341 0.007433
-0.00038752 0.00051349 -0.00030681 -0.00072969 7.4219e-05 -0.00056682 0.0025174 0.00094541
-0.0097339 0.0074268 0.20986 0.24371
1640000000 0.29638 0.022996 -0.0013266 0.012613 -0.002593 -0.0025087 0.0028497 0.0010398
-0.00057501 -0.0016534 -0.00026875 0.00056087
-0.0013234 0.012609 0.20419 0.27258 0.0058299 0.003565 -0.00076319 -0.0018748
-0.0011423 -0.00035988 -0.00048082 -0.00069252
-0.0025879 -0.0025039 0.0058708 0.0035413 0.30257 -0.15692 -0.00057696 0.0016555
-0.0010354 -0.0010721 -0.00010155 -0.00048709
0.0028431 0.0010409 -0.00077002 -0.0018815 -0.00057826 0.0016646 0.23939 0.055249
-0.0081838 0.010478 0.0027346 -0.00092569
-0.0005679 -0.0016337 -0.0011464 -0.00036581 -0.0010395 -0.0010631 -0.0081073 0.010468
0.18937 0.13982 -0.0048699 0.0095586
-0.00025581 0.00061232 -0.00049584 -0.00068863 -0.00010914 -0.00047672 0.002739 -0.00091826
-0.0048911 0.0095584 0.23633 0.21325
1700000000 0.28918 -0.022105 0.0022007 0.0096675 -0.0033517 7.6717e-05 0.0031464 -0.0013074
-0.0021275 -0.00084797 0.00065523 0.00044658
0.0021986 0.0096617 0.22204 0.24131 0.0038574 0.00074254 -0.0016172 -0.00058626
-0.00078575 0.00018753 -0.00091448 -0.00041224
-0.0033245 9.7976e-05 0.003885 0.00073047 0.25912 -0.19669 0.00065434 0.0016724
-0.0019084 -0.00017605 -0.00046631 -0.00082747
0.0031512 -0.0013149 -0.0016311 -0.00057992 0.00065472 0.0016868 0.23743 0.0082
-0.004602 0.011367 0.0016547 -0.0023637
-0.002142 -0.00082124 -0.00078628 0.00018971 -0.0019319 -0.00016548 -0.0045378 0.011312
0.20628 0.12044 -8.5054e-06 0.0099538
0.00068915 0.00043839 -0.00092024 -0.00042849 -0.00046862 -0.00085762 0.0016606 -0.0023733
-1.1847e-05 0.0099566 0.25412 0.17894
1760000000 0.27725 -0.070588 0.0045397 0.0062961 -0.0022097 0.00092844 0.0012021 -0.0034916
-0.0015423 0.00067184 0.00046265 -0.00064656
0.0045236 0.0063055 0.24803 0.20176 0.0016515 -0.00096704 -0.0012785 0.00031327
-0.00089632 0.0010101 -0.00049802 0.00040711
-0.0021892 0.00094521 0.0016538 -0.0010054 0.21026 -0.22972 0.0014618 0.00094844
-0.0011604 0.0014914 -0.0013044 -0.00056314
0.0011983 -0.0035019 -0.0012833 0.00032244 0.0014593 0.0009602 0.23092 -0.041019
-0.00050215 0.010475 -0.00011215 -0.0027707
-0.0015368 0.00069674 -0.00088948 0.0010167 -0.0011386 0.0014892 -0.00047216 0.010392
0.22069 0.086765 0.0042016 0.0073029
0.00044199 -0.00066034 -0.00049808 0.00039005 -0.0012729 -0.00054588 -9.7555e-05 -0.0027614
0.0041831 0.0073059 0.26754 0.14137
1820000000 0.25266 -0.10795 0.0047162 0.0027142 -5.4923e-05 0.0023742 -0.001126 -0.0030691
-0.0012182 0.0010313 -3.3078e-05 -0.00015823
0.0047185 0.002702 0.25801 0.1719 -0.00020564 4.1609e-05 -0.0012319 0.0010814
0.00014109 0.0012455 -0.00049706 0.00049575
-1.6111e-05 0.0023654 -0.000195 3.7126e-05 0.1604 -0.24527 0.0014485 0.00010428
-0.0001882 0.002397 -0.0013679 0.00027232
-0.0011453 -0.0030773 -0.0012131 0.0011091 0.0014665 0.00010057 0.20433 -0.087636
0.0017066 0.0084586 -0.0016344 -0.0017866
-0.001253 0.0010646 0.00015811 0.0012551 -0.00016857 0.0023972 0.0016797 0.0083881
0.23798 0.059064 0.005171 0.0037095
-0.00010779 -0.00017778 -0.00050131 0.00049022 -0.0013584 0.00024101 -0.0016362 -0.001746
0.005169 0.003704 0.27097 0.1059
1880000000 0.2177 -0.14823 0.0025807 0.00037782 -0.00038039 0.0020083 -0.0029618 -0.0021353
-0.00013692 0.0018817 0.00014424 -0.00064415
0.0025917 0.000399 0.26262 0.12563 -0.0021221 0.0016724 -1.795e-05 0.0016225
0.0006116 0.001024 9.1189e-05 0.00081577
-0.00036261 0.0020339 -0.0021203 0.0016954 0.10819 -0.25497 0.0015157 -0.0010175
0.0015868 0.0019892 -0.001147 0.0013971
-0.0029729 -0.0021334 -2.0116e-05 0.0016313 0.0015267 -0.0010497 0.16718 -0.12901
0.0029893 0.00587 -0.0025205 0.00025956
-9.0996e-05 0.0018904 0.00063471 0.001024 0.0016088 0.0019797 0.0029231 0.0058476
0.2415 0.027849 0.0053263 0.0014542
0.00020688 -0.00063461 0.00010124 0.00080935 -0.0011461 0.0014176 -0.0025175 0.00026567
0.0053256 0.0014513 0.27142 0.071508
1940000000 0.17826 -0.17412 0.00038891 -0.0014018 0.0012464 0.0019265 -0.0036094 0.00054077
0.0015186 0.0010948 -0.00075775 -0.00046386
0.0003978 -0.0013777 0.26342 0.093881 -0.0010745 0.003799 0.0010722 0.0011923
0.0016517 0.00033586 0.00071979 0.00017273
0.0013141 0.0019527 -0.0010433 0.0037946 0.062071 -0.24833 0.00031911 -0.0018377
0.0024062 0.00039535 0.00017384 0.0016023
-0.0036241 0.00050414 0.0010878 0.0011733 0.00031048 -0.0018558 0.11695 -0.16238
0.0024062 0.003662 -0.0015827 0.0015447
0.0015678 0.0010449 0.0016808 0.00032013 0.0024226 0.00038224 0.0023406 0.0036714
0.24445 -0.010289 0.0040731 -0.002309
-0.00074707 -0.00055461 0.00070814 0.00013353 0.00016385 0.0015741 -0.0015715 0.001571
0.0040715 -0.0023021 0.26144 0.036219
2000000000 0.13164 -0.1889 -0.0034686 0.00039586 0.0023958 0.0016012 -0.0024087 0.0032822
0.0012675 -9.7055e-05 -0.00065178 0.00040696
-0.0034871 0.0003755 0.24946 0.058304 -0.00090941 0.0056367 0.0015306 0.00028176
0.0011468 -0.0012448 0.00038288 0.00016951
0.002389 0.0016073 -0.00090287 0.0056268 0.018353 -0.2336 -0.0011929 -0.0010924
0.0019789 -0.0012309 0.0016105 0.0013412
-0.0024504 0.0032752 0.0014934 0.00029091 -0.0011925 -0.0010874 0.063465 -0.17559
0.00056657 0.0026703 -1.5078e-05 0.0023542
0.0012111 -0.0001281 0.0011026 -0.0012925 0.0019711 -0.0012618 0.00054955 0.002695
0.23947 -0.04384 0.00056906 -0.003092
