!Keysight Technologies,M9804A,MY58100912,A.14.10.03
!Date: Thursday, April 27, 2023 10:28:33
!Correction: S11(C  6-Port  ) 
!S12(C  6-Port  ) 
!S13(C  6-Port  ) 
!S14(C  6-Port  ) 
!S15(C  6-Port  ) 
!S16(C  6-Port  ) 
!S21(C  6-Port  ) 
!S22(C  6-Port  ) 
!S23(C  6-Port  ) 
!S24(C  6-Port  ) 
!S25(C  6-Port  ) 
!S26(C  6-Port  ) 
!S31(C  6-Port  ) 
!S32(C  6-Port  ) 
!S33(C  6-Port  ) 
!S34(C  6-Port  ) 
!S35(C  6-Port  ) 
!S36(C  6-Port  ) 
!S41(C  6-Port  ) 
!S42(C  6-Port  ) 
!S43(C  6-Port  ) 
!S44(C  6-Port  ) 
!S45(C  6-Port  ) 
!S46(C  6-Port  ) 
!S51(C  6-Port  ) 
!S52(C  6-Port  ) 
!S53(C  6-Port  ) 
!S54(C  6-Port  ) 
!S55(C  6-Port  ) 
!S56(C  6-Port  ) 
!S61(C  6-Port  ) 
!S62(C  6-Port  ) 
!S63(C  6-Port  ) 
!S64(C  6-Port  ) 
!S65(C  6-Port  ) 
!S66(C  6-Port  ) 
!S6P File: Measurement: :
# Hz S  RI   R 50
500000000 -0.33676 -0.041118 -0.0091644 -0.0025713 -0.0081461 0.012056 -0.004129 0.012367
0.012913 0.0043572 -0.0045252 0.0090401
-0.009163 -0.002562 -0.41849 -0.053379 0.0081407 -0.011138 0.001598 0.012208
0.0076846 0.0022176 0.00153 0.013239
-0.0081503 0.012081 0.0081281 -0.011165 -0.26424 0.20766 0.0078564 0.0033718
-0.0020528 0.0076312 0.0012658 0.011962
-0.0041257 0.012386 0.0016305 0.012228 0.0078573 0.0033803 -0.33122 0.039995
-0.018775 -0.0062434 0.016605 0.026228
0.012963 0.004357 0.0077196 0.0022138 -0.002037 0.0076411 -0.018768 -0.0062317
-0.21766 -0.20471 -0.025516 0.0056916
-0.0045544 0.0090644 0.001579 0.013251 0.0012864 0.011972 0.016643 0.026237
-0.02551 0.0056775 -0.25972 -0.15005
560000000 -0.3163 0.12022 -0.023694 -0.06343 -0.00034766 0.011908 0.005625 0.010735
0.010797 0.0050212 0.010841 0.0075819
-0.023643 -0.063375 -0.37625 0.10673 -0.041554 -0.038196 0.014045 0.0034806
-0.012965 -0.0058469 0.0029442 -0.00012715
-0.00031547 0.011897 -0.041681 -0.038116 -0.18259 0.25538 -0.0010719 -0.0043637
0.019853 0.0053917 0.0066696 -0.0059064
0.0056753 0.010746 0.014037 0.0034518 -0.0010604 -0.004384 -0.30639 0.12981
0.004325 -0.024584 0.0046266 -0.022034
0.010815 0.0049584 -0.013011 -0.005799 0.019835 0.0053906 0.0043054 -0.024569
-0.28768 -0.02827 0.0095864 -0.049492
0.010845 0.007545 0.0029499 -0.00013882 0.0066618 -0.0059039 0.0046394 -0.022048
0.0096434 -0.049484 -0.32837 0.0018519
620000000 -0.27599 0.10444 -0.023541 0.0075453 0.0027281 0.0085271 0.0083679 -0.005493
0.010766 -0.00032268 0.0014687 -0.0023979
-0.023516 0.0075595 -0.40255 0.05795 -0.019125 -0.00021166 -0.0014202 -0.0023167
0.011374 -0.0061239 0.0016691 -0.0029688
0.0027688 0.0085269 -0.019146 -0.00015688 -0.15462 0.26518 -0.0017785 -0.0051802
-0.0028251 -0.0022185 0.0080054 -0.0034548
0.0083518 -0.0054918 -0.0014332 -0.0023104 -0.0017725 -0.0051661 -0.26683 0.14088
-0.038343 -0.019898 0.012382 0.026281
0.010787 -0.00035437 0.011374 -0.0061984 -0.0028423 -0.0022066 -0.038345 -0.019856
-0.20501 -0.067474 -0.042467 0.014615
0.0014449 -0.0024199 0.0016755 -0.0029776 0.0080275 -0.0034568 0.012409 0.026266
-0.042479 0.01455 -0.24761 -0.037456
680000000 -0.23543 0.19043 -0.027633 -0.014668 0.0047154 0.0053544 0.0014903 -0.0071395
-0.0035236 -0.011088 0.0055945 -0.0068984
-0.027611 -0.014683 -0.3881 0.15594 -0.033303 -0.0015315 -0.0018343 -0.00036043
-0.002276 -0.008972 -0.001264 -0.0017457
0.0047428 0.0053343 -0.033343 -0.0014479 -0.10356 0.28497 -0.00069807 -7.5308e-05
-0.0018471 0.00075543 -0.0028541 -0.0095078
0.0014602 -0.0071465 -0.0018388 -0.00036009 -0.00071159 -7.6821e-05 -0.22198 0.1917
-0.023802 -0.0079136 -0.0096686 -0.012002
-0.0035332 -0.011087 -0.0022967 -0.0089679 -0.0018329 0.00074472 -0.023817 -0.0078815
-0.25912 0.031388 -0.0059746 -0.0088554
0.0055524 -0.0069208 -0.001271 -0.0017345 -0.0028615 -0.0095148 -0.009678 -0.012032
-0.0059941 -0.0088842 -0.26157 0.072505
740000000 -0.19135 0.18528 -0.039185 0.026786 0.012647 -0.0049787 -0.00020904 -0.0043197
-0.0039127 -0.0025676 -0.0059807 0.0027925
-0.039193 0.026725 -0.33567 0.17526 -0.036109 0.035419 -0.0007979 -0.0061729
-0.011088 0.0079364 -0.0024961 -0.0071185
0.012647 -0.0050119 -0.036055 0.035554 -0.069968 0.2839 -0.0019403 0.0030457
-0.0017962 -0.004487 -0.0013766 -0.00014367
-0.00020235 -0.0043203 -0.0008227 -0.0061835 -0.001949 0.003045 -0.20561 0.2002
-0.044695 -0.0076554 0.023365 0.015427
-0.0039373 -0.0025333 -0.011061 0.0079968 -0.0017918 -0.0044867 -0.044721 -0.0076331
-0.15831 0.059092 -0.045218 -0.00048804
-0.0059595 0.0028537 -0.0025208 -0.0071159 -0.001379 -0.00013307 0.02336 0.015425
-0.045206 -0.00051264 -0.25245 0.076852
800000000 -0.15901 0.22623 -0.022907 0.016814 0.0053898 -0.010641 -0.0047364 -0.0021577
-0.0037976 0.0023134 0.0051172 6.7377e-05
-0.022894 0.016775 -0.33938 0.24564 -0.0081427 0.034471 -0.002221 0.0022035
-0.00045567 0.0028869 0.001036 0.0053631
0.0053754 -0.010662 -0.0080481 0.034519 -0.02934 0.30775 0.0010475 0.0013734
0.00041377 0.0033708 -0.0017359 0.0007559
-0.0047355 -0.0021393 -0.0022075 0.0022102 0.0010468 0.0013825 -0.17758 0.22855
-0.029302 0.013879 0.014181 -0.010514
-0.003797 0.0023296 -0.0004361 0.0028842 0.00042297 0.0033787 -0.029313 0.013932
-0.20832 0.08291 -0.018352 0.019347
0.0051228 5.7195e-05 0.0010518 0.0053675 -0.001736 0.00075823 0.014201 -0.010535
-0.018354 0.019341 -0.24955 0.12833
860000000 -0.12443 0.24689 -0.017848 0.030885 -0.003376 -0.010047 -0.0023859 0.00089795
0.0040943 0.0046904 -0.0034495 -0.0031692
-0.017849 0.030851 -0.29173 0.28802 0.0078305 0.034662 -0.0001137 0.0018677
0.0040527 -0.00024917 0.003289 0.00072811
-0.00341 -0.010032 0.0079479 0.034663 0.019093 0.31606 -0.00062593 -0.0003261
0.0027919 -0.0015951 0.0014494 0.0044517
-0.002404 0.0008948 -0.00010181 0.0018778 -0.0006377 -0.00033038 -0.14116 0.24001
-0.01878 0.01889 -0.0061176 -0.0091156
0.0040783 0.0046859 0.0040545 -0.00027989 0.002797 -0.0016067 -0.018757 0.018944
-0.15758 0.13596 -0.027335 0.015349
-0.0034284 -0.0031353 0.0032751 0.00073187 0.0014594 0.004452 -0.0061213 -0.0091192
-0.027338 0.015345 -0.19866 0.17703
920000000 -0.099855 0.27043 0.004893 0.03844 -0.0095375 -0.00434 -0.0017761 0.0020267
0.00095168 0.0018674 0.0025477 -0.0014856
0.0048835 0.0384 -0.26283 0.30972 0.028226 0.022371 0.0014436 0.0011669
0.0069552 -0.00041 0.003845 -0.0026569
-0.0095632 -0.0043102 0.028329 0.022302 0.065755 0.31674 0.0017692 9.0866e-05
0.0010478 -0.00032349 0.00086652 -0.0009833
-0.0017857 0.002023 0.0014527 0.0011751 0.0017626 9.0719e-05 -0.11724 0.25765
-0.011343 0.031485 0.0038428 -0.0065624
0.0009659 0.0018809 0.0069598 -0.00043447 0.0010476 -0.00033453 -0.011275 0.031525
-0.14801 0.14235 -0.0030973 0.028288
0.0025598 -0.0014911 0.0038177 -0.0026941 0.00085992 -0.00097936 0.003839 -0.0065727
-0.0031201 0.028268 -0.2107 0.19112
980000000 -0.051993 0.29008 0.017695 0.030605 -0.0090676 0.0047865 0.0022084 0.0035242
0.0039811 -0.0014867 -0.0033124 -0.0022308
0.017681 0.03059 -0.20961 0.34383 0.033455 0.0050167 0.0020264 -0.0001072
0.0014331 -0.0058404 -0.00039262 -0.0025068
-0.0090546 0.0048136 0.033525 0.0049073 0.11227 0.31016 0.00052569 -0.0011133
0.00036004 -0.0020208 0.0016021 -0.0002408
0.0022253 0.0035158 0.002037 -9.3155e-05 0.00052589 -0.0011003 -0.078299 0.26956
0.007911 0.031395 -0.0091991 -0.0075693
0.0039701 -0.0015095 0.0013678 -0.0058596 0.00036343 -0.00204 0.0079653 0.031395
-0.11732 0.17312 0.0047828 0.020544
-0.003322 -0.0021929 -0.00041753 -0.0025296 0.0016061 -0.00024259 -0.0092137 -0.0075584
0.004773 0.020549 -0.16816 0.23922
1040000000 -0.0096623 0.29845 0.033525 0.018622 -0.0011066 0.0071358 0.0026271 0.00051974
2.4622e-05 -0.0037066 -7.0993e-05 -0.0013753
0.033513 0.018599 -0.17371 0.35685 0.029794 -0.014909 0.0014347 -0.0017393
-0.0025276 -0.0024922 -0.0012264 -0.0024963
-0.0010903 0.0071442 0.029784 -0.01506 0.15844 0.29628 -0.00050757 -0.0015742
-0.0015765 -0.00089014 -0.00032265 -0.0011689
0.0026221 0.00049743 0.0014508 -0.0017369 -0.00050082 -0.0015804 -0.050613 0.27978
0.02018 0.019085 -0.0021424 0.0016194
1.2133e-05 -0.003697 -0.0025594 -0.0024517 -0.0015797 -0.00090696 0.020239 0.019055
-0.084403 0.18101 0.01358 0.020009
-8.0008e-05 -0.0013592 -0.001264 -0.0024905 -0.00032233 -0.0011618 -0.0021431 0.0016208
0.013557 0.020001 -0.14842 0.26094
1100000000 0.035869 0.30623 0.036324 -0.004039 0.0031312 0.0039028 0.0023166 -0.0014644
-0.0020477 -0.003199 -0.0038196 3.879e-05
0.036304 -0.0040245 -0.13017 0.37432 0.015296 -0.028134 -0.00010486 -0.0018131
-0.0032172 -0.00074622 -0.0034575 -0.00051584
0.0031449 0.0038979 0.015204 -0.028227 0.2049 0.2759 -0.0018826 0.00023974
-0.0017354 0.00044071 -0.0011369 -0.00062292
0.0023101 -0.0014874 -0.00011474 -0.0018071 -0.001877 0.00023914 -0.0098027 0.28491
0.025762 0.0054862 -0.0024186 8.5753e-05
-0.0020772 -0.0031893 -0.0032272 -0.00072145 -0.0017303 0.00043916 0.025782 0.0054543
-0.066633 0.19529 0.019636 0.0097178
-0.0038315 7.6218e-05 -0.0034796 -0.00049288 -0.0011422 -0.00061968 -0.0024153 8.657e-05
0.019628 0.0097276 -0.10278 0.29389
1160000000 0.087351 0.30104 0.024398 -0.020872 0.0030183 -0.00068666 -0.00049062 -0.0024472
-0.0041842 -0.00081165 -0.00092098 0.0041089
0.024417 -0.020853 -0.086055 0.37829 -0.0037412 -0.029419 -0.0016972 -0.001648
-0.0026306 0.0023033 -0.001329 0.0019278
0.0029998 -0.00069735 -0.0038606 -0.029441 0.2481 0.24489 -0.00063376 0.0017516
-0.0006404 0.001903 -0.0010722 0.00020917
-0.0004946 -0.0024493 -0.0016989 -0.0016324 -0.00063092 0.001745 0.030036 0.28196
0.022333 -0.010705 -0.0030481 0.0052012
-0.0041941 -0.0007787 -0.0026355 0.0023466 -0.00063106 0.0019027 0.022334 -0.010729
-0.03249 0.205 0.019027 0.0012088
-0.00088575 0.0041159 -0.0013265 0.0019199 -0.0010882 0.0002163 -0.003036 0.0052029
0.019026 0.0012153 -0.055201 0.29745
1220000000 0.1316 0.2898 0.010759 -0.030341 -0.0014614 -0.0011441 -0.00014295 -0.0007439
-0.0026738 0.0024285 0.0012946 0.0020067
0.010784 -0.030314 -0.041496 0.39016 -0.017058 -0.021297 -0.0024948 0.00050955
-9.3949e-06 0.002916 -0.00084304 0.0018939
-0.0014731 -0.0011444 -0.017163 -0.021238 0.28725 0.20572 0.00082053 0.001584
0.0005223 0.0011883 0.00022235 0.00069564
-0.00014456 -0.00074539 -0.0024913 0.00051821 0.0008189 0.0015826 0.070126 0.27312
0.011188 -0.017815 0.00237 0.0013148
-0.0026657 0.0024561 -1.0472e-05 0.0029271 0.00052751 0.0011963 0.011172 -0.017822
-0.01007 0.21414 0.015278 -0.012601
0.0013024 0.0020123 -0.00083803 0.0019013 0.00021999 0.00069695 0.002371 0.0013155
0.015276 -0.012594 -0.024784 0.31669
1280000000 0.18141 0.26775 -0.0077905 -0.028916 -0.0020012 0.0021669 -0.00083609 -0.0017883
-0.00076515 0.003048 0.0024201 0.0011599
-0.0077606 -0.028898 0.0046607 0.38083 -0.023845 -0.008489 -0.00085444 0.0014183
0.0015641 0.0017846 0.00062524 0.0021358
-0.0019871 0.0021693 -0.023919 -0.0083862 0.31767 0.16159 0.0015662 -2.5182e-05
0.0011689 0.00041925 0.00039576 0.00047057
-0.00083971 -0.0017776 -0.00086224 0.0014246 0.0015635 -1.5183e-05 0.10689 0.25625
0.0014804 -0.020043 -0.0001593 -0.00015466
-0.00074081 0.0030602 0.0015797 0.0017748 0.001168 0.00041937 0.0014335 -0.020051
0.027238 0.21799 0.0038818 -0.015345
0.0024374 0.0011428 0.00064068 0.0021335 0.000396 0.00047082 -0.00015726 -0.00015362
0.0038873 -0.015329 0.024332 0.32082
1340000000 0.21836 0.23359 -0.017689 -0.019424 0.00065666 0.0043696 -0.001511 -0.00075402
0.0014751 0.0027346 0.0017583 -0.0013727
-0.017656 -0.019415 0.044026 0.37215 -0.021607 0.0042483 -0.0001377 0.0018989
0.0017898 0.00089755 0.0013937 0.00082298
0.0006693 0.0043612 -0.021605 0.0043649 0.33952 0.1135 0.0011027 -0.00093127
0.00083013 -0.00044463 0.00032963 0.00042873
-0.0015076 -0.00074541 -0.0001228 0.001908 0.0010943 -0.00092704 0.1388 0.23567
-0.0085053 -0.017384 0.00083347 0.0004086
0.0014843 0.0027189 0.0018005 0.00087585 0.00083288 -0.00043735 -0.0085418 -0.017375
0.05684 0.21293 -0.0029005 -0.014134
0.0017511 -0.0013916 0.0014043 0.00080611 0.0003315 0.00043162 0.0008374 0.00040493
-0.0028951 -0.014136 0.06275 0.31804
1400000000 0.25102 0.19525 -0.02372 -0.0078158 0.0049019 0.003119 -0.001925 0.00049727
0.0023749 0.0008786 0.00033722 -0.0013222
-0.023696 -0.0078107 0.081073 0.35865 -0.014824 0.012344 0.001222 0.0012816
0.0011388 -0.00071292 0.0012907 0.00026395
0.0049227 0.0031024 -0.014786 0.012441 0.35254 0.059864 0.0001067 -0.0016022
-1.8495e-05 -0.00048537 0.00046233 0.00023996
-0.0019313 0.00050321 0.0012249 0.0012717 0.00010662 -0.0016015 0.16779 0.20704
-0.014648 -0.010466 -0.0010586 -0.00066169
0.0023827 0.00086953 0.0011381 -0.00071846 -2.4353e-05 -0.00049069 -0.014689 -0.010431
0.089708 0.20869 -0.0095229 -0.0096356
0.00032836 -0.0013272 0.0012839 0.00025001 0.00046494 0.00023886 -0.0010564 -0.00065693
-0.0095155 -0.009648 0.10903 0.30816
1460000000 0.27337 0.15124 -0.020835 0.0045716 0.0054069 -0.0017008 -0.0016219 0.0015461
0.002079 -0.00054519 -0.00033995 -0.00095588
-0.020828 0.0045615 0.11477 0.33652 -0.0061681 0.015184 0.0016754 0.000248
0.00098786 -0.0012907 0.0011838 -0.00069146
0.0054171 -0.0017259 -0.0061059 0.015241 0.35824 0.0055604 -0.0012532 -0.0012599
0.00017452 -0.00037584 0.00060622 -0.0004059
-0.0016159 0.0015462 0.0016833 0.00024898 -0.0012592 -0.0012507 0.19367 0.17832
-0.016173 -0.0035069 -0.001078 0.0020528
0.0020809 -0.00056306 0.00098637 -0.0012915 0.00017803 -0.00037511 -0.016188 -0.003477
0.11806 0.19373 -0.011864 -0.00339
-0.00034767 -0.00096212 0.0011796 -0.00071662 0.00061231 -0.00040231 -0.0010826 0.002053
-0.011874 -0.0033924 0.14325 0.28791
1520000000 0.28507 0.10973 -0.015233 0.010383 0.0032585 -0.0039754 1.3236e-05 0.0025581
0.0021324 -0.0016599 -0.0010744 -0.00013932
-0.015228 0.010369 0.14787 0.32178 0.0014295 0.013032 0.0017032 -0.00069991
8.0659e-05 -0.0010871 0.00032985 -0.0010407
0.0032304 -0.0039875 0.0015056 0.013042 0.35139 -0.05074 -0.0010689 -0.00037216
0.0005491 -0.00081534 7.3679e-05 -0.00011079
2.3353e-05 0.0025552 0.001696 -0.00069836 -0.0010637 -0.00037782 0.21659 0.14114
-0.015665 0.0025052 0.0013433 0.0021585
0.0021192 -0.0016794 7.2886e-05 -0.0010901 0.00054528 -0.00082153 -0.015668 0.0025505
0.14489 0.17997 -0.012093 0.0010474
-0.001081 -0.00013875 0.00032382 -0.0010394 7.1871e-05 -0.00011272 0.0013461 0.0021603
-0.012117 0.0010395 0.17767 0.26914
1580000000 0.29427 0.063985 -0.0084118 0.013759 -0.00085883 -0.0046649 0.0012988 0.0019446
-0.00028006 -0.0020643 -0.00032419 0.00043501
-0.0084188 0.013738 0.17468 0.29718 0.0049929 0.0082638 0.00057341 -0.0015987
-0.00062928 -0.0011253 -0.00034052 -0.00075272
-0.00088451 -0.0046637 0.0050457 0.0082427 0.33079 -0.10805 -0.0015965 0.00066665
-0.00026647 -0.0010712 8.1081e-05 -0.00058063
0.0013101 0.0019301 0.00055893 -0.0016004 -0.0015945 0.00065917 0.23053 0.10274
-0.012069 0.0077357 0.0022102 0.0010152
-0.00029099 -0.0020716 -0.00063961 -0.0011258 -0.00026154 -0.0010745 -0.012062 0.0077682
0.16861 0.16263 -0.0097002 0.0071575
-0.00032123 0.00043604 -0.00035018 -0.00074672 7.9698e-05 -0.00058209 0.0022178 0.0010075
-0.0097168 0.007164 0.21133 0.24254
1640000000 0.29634 0.022989 -0.0014271 0.012753 -0.0025436 -0.0023975 0.0027079 0.0010859
-0.00055488 -0.0015542 -0.0002386 0.00050728
-0.0014307 0.012734 0.204 0.27245 0.0058017 0.0036094 -0.00061351 -0.0018065
-0.001066 -0.0003539 -0.00046834 -0.00065791
-0.0025571 -0.0023845 0.0058363 0.0035751 0.30266 -0.15714 -0.00061573 0.0014616
-0.0010291 -0.00103 -8.5842e-05 -0.00045218
0.0027226 0.0010713 -0.00062121 -0.0018022 -0.0006193 0.0014623 0.24313 0.054873
-0.0077137 0.0091903 0.0024913 -0.00068459
-0.00057633 -0.0015423 -0.0010613 -0.00034195 -0.0010387 -0.0010135 -0.0076967 0.0092072
0.1901 0.13914 -0.0049492 0.0093194
-0.00023733 0.00051081 -0.00047476 -0.00065035 -8.698e-05 -0.00045432 0.0024819 -0.00069633
-0.0049734 0.0093437 0.23746 0.21193
1700000000 0.28921 -0.022076 0.0021703 0.0098425 -0.0032447 6.897e-05 0.0030699 -0.0011602
-0.0020659 -0.00077131 0.00066183 0.00045501
0.0021671 0.0098279 0.22184 0.24124 0.0038439 0.00079187 -0.0015022 -0.00065761
-0.00074058 0.00012374 -0.00088075 -0.00040489
-0.003248 8.4465e-05 0.0038493 0.00077366 0.25885 -0.19671 0.00046567 0.0016143
-0.0018335 -0.0002433 -0.00042847 -0.00080012
0.0030575 -0.0011788 -0.0014978 -0.00064875 0.00046779 0.0016102 0.24076 0.006149
-0.0047605 0.0099772 0.001569 -0.002159
-0.002063 -0.00076218 -0.00074118 0.00012749 -0.0018334 -0.00024156 -0.0047424 0.0099894
0.20696 0.11974 -0.00018793 0.0097485
0.0006732 0.00045291 -0.00089075 -0.00040056 -0.00043602 -0.00080156 0.0015639 -0.0021729
-0.00018707 0.0097815 0.25509 0.17756
1760000000 0.27716 -0.070503 0.0045563 0.0064757 -0.0021611 0.00085217 0.0013223 -0.0033855
-0.0013893 0.00063823 0.0004349 -0.00060096
0.0045567 0.0064717 0.24774 0.20176 0.0016657 -0.00095269 -0.0012589 0.0001892
-0.00089731 0.00092659 -0.00046364 0.00040996
-0.002152 0.00086495 0.0016657 -0.00096646 0.21003 -0.22953 0.0012456 0.0009984
-0.0011144 0.0013945 -0.0012154 -0.000496
0.0012974 -0.0033951 -0.0012609 0.00019323 0.0012499 0.00099737 0.23293 -0.04456
-0.0012309 0.009307 -0.00013752 -0.0024615
-0.0013835 0.00065522 -0.00087507 0.00093754 -0.0011115 0.001394 -0.0012085 0.0093205
0.22128 0.085885 0.0038752 0.0072212
0.00043502 -0.00060946 -0.0004603 0.00041594 -0.0012145 -0.00049028 -0.00015427 -0.0024645
0.0038818 0.0072464 0.26834 0.1401
1820000000 0.2527 -0.10779 0.0048257 0.0028246 -5.7165e-05 0.0023302 -0.00094526 -0.0030533
-0.0011741 0.00094569 -2.8394e-05 -0.00012646
0.0048239 0.0028175 0.25777 0.17198 -0.00020186 5.3514e-05 -0.001331 0.0010096
8.0132e-05 0.0012047 -0.00048294 0.00048411
-5.4768e-05 0.0023243 -0.0002046 5.52e-05 0.16027 -0.24523 0.0014119 0.00035154
-0.00029642 0.0022993 -0.0013285 0.00018186
-0.0009702 -0.0030444 -0.0013316 0.0010204 0.0014158 0.00035369 0.20449 -0.091679
0.00054226 0.0077345 -0.0014829 -0.0016136
-0.0011723 0.0009635 8.5077e-05 0.001209 -0.00029049 0.0022992 0.00055637 0.0077511
0.23837 0.058025 0.0048721 0.0037626
-2.8567e-05 -0.00012717 -0.00048118 0.00048813 -0.0013373 0.00017511 -0.0014865 -0.0016074
0.0049002 0.0037869 0.27162 0.10444
1880000000 0.21771 -0.14826 0.0027472 0.00039997 -0.00031432 0.0020354 -0.0028938 -0.002278
-0.0001571 0.0018088 0.00019846 -0.00055004
0.0027481 0.00040214 0.26245 0.1258 -0.0021279 0.0017069 -0.00015309 0.001717
0.0005441 0.0010707 7.4274e-05 0.00083091
-0.00029772 0.0020271 -0.0021137 0.0017284 0.10811 -0.25481 0.001686 -0.00084184
0.0014168 0.0020022 -0.0011901 0.0013013
-0.0028996 -0.002268 -0.00013435 0.0017223 0.0016817 -0.00084076 0.16532 -0.1326
0.0016219 0.0057734 -0.0023355 0.0003585
-0.00015451 0.001822 0.00055439 0.0010719 0.0014209 0.0020004 0.0016306 0.0057663
0.24153 0.026701 0.0051553 0.0016568
0.00019743 -0.00055456 7.7452e-05 0.00083304 -0.0011916 0.0013073 -0.0023392 0.00036137
0.0051721 0.0016578 0.27195 0.070094
1940000000 0.17823 -0.174 0.00053457 -0.0014339 0.0013436 0.001929 -0.0036821 0.00043181
0.0013974 0.0010713 -0.00070469 -0.00046431
0.00054077 -0.0014279 0.26331 0.094143 -0.001037 0.0038247 0.0010539 0.0013465
0.0016407 0.0003763 0.00069062 0.00024823
0.0013566 0.001914 -0.0010052 0.0038389 0.062104 -0.24827 0.00043751 -0.0020325
0.0023937 0.00052334 0.00011254 0.0017101
-0.0036893 0.00045011 0.0010688 0.0013322 0.00043941 -0.0020378 0.11369 -0.16445
0.001124 0.0042069 -0.0013868 0.0014785
0.0014116 0.001062 0.0016499 0.00036949 0.0023901 0.00051705 0.0011366 0.0042006
0.244 -0.011345 0.003913 -0.0019826
-0.00071775 -0.00045011 0.00069299 0.00024433 0.0001173 0.001718 -0.0013808 0.0014738
0.0039494 -0.0019933 0.26175 0.034771
2000000000 0.13191 -0.18886 -0.0033486 0.00033327 0.0023945 0.0016011 -0.0024392 0.0033482
0.0012123 2.2446e-05 -0.00063098 0.00035282
-0.0033378 0.0003301 0.24947 0.058519 -0.00089777 0.0056121 0.0016648 0.00033576
0.0011553 -0.0012467 0.00040321 0.00017438
0.0024084 0.0015861 -0.00085328 0.0056273 0.018397 -0.23345 -0.0012686 -0.0013464
0.0020451 -0.0010966 0.0016729 0.0014328
-0.002408 0.0033743 0.0016635 0.00032902 -0.0012632 -0.0013388 0.06006 -0.17574
-0.00020774 0.0036704 1.382e-05 0.0022002
0.0012268 1.3003e-05 0.0011538 -0.001263 0.002041 -0.0011067 -0.00019667 0.0036573
0.2386 -0.04475 0.00063852 -0.0028123
