!Keysight Technologies,M9804A,MY58100912,A.14.10.03
!Date: Thursday, April 27, 2023 10:28:33
!Correction: S11(C  6-Port  ) 
!S12(C  6-Port  ) 
!S13(C  6-Port  ) 
!S14(C  6-Port  ) 
!S15(C  6-Port  ) 
!S16(C  6-Port  ) 
!S21(C  6-Port  ) 
!S22(C  6-Port  ) 
!S23(C  6-Port  ) 
!S24(C  6-Port  ) 
!S25(C  6-Port  ) 
!S26(C  6-Port  ) 
!S31(C  6-Port  ) 
!S32(C  6-Port  ) 
!S33(C  6-Port  ) 
!S34(C  6-Port  ) 
!S35(C  6-Port  ) 
!S36(C  6-Port  ) 
!S41(C  6-Port  ) 
!S42(C  6-Port  ) 
!S43(C  6-Port  ) 
!S44(C  6-Port  ) 
!S45(C  6-Port  ) 
!S46(C  6-Port  ) 
!S51(C  6-Port  ) 
!S52(C  6-Port  ) 
!S53(C  6-Port  ) 
!S54(C  6-Port  ) 
!S55(C  6-Port  ) 
!S56(C  6-Port  ) 
!S61(C  6-Port  ) 
!S62(C  6-Port  ) 
!S63(C  6-Port  ) 
!S64(C  6-Port  ) 
!S65(C  6-Port  ) 
!S66(C  6-Port  ) 
!S6P File: Measurement: :
# Hz S  RI   R 50
500000000 -0.33734 -0.041859 -0.0098938 -0.0023374 -0.0083654 0.012931 -0.0044723 0.012369
0.012944 0.0042416 -0.0049831 0.0091997
-0.0098713 -0.0023329 -0.41906 -0.053443 0.0078598 -0.010433 0.0013267 0.012527
0.0072999 0.0021053 0.001169 0.013578
-0.0083085 0.012938 0.0078257 -0.010472 -0.26611 0.20832 0.0076788 0.0038545
-0.0025303 0.0078459 0.0011597 0.01231
-0.0044426 0.012397 0.0013321 0.012537 0.0076793 0.003879 -0.33229 0.040146
-0.019629 -0.0062765 0.015832 0.026618
0.013086 0.0042893 0.0072837 0.0020293 -0.002556 0.007824 -0.019621 -0.0062581
-0.2185 -0.20453 -0.0263 0.0055487
-0.0049429 0.0092963 0.001182 0.013509 0.0011494 0.012322 0.015848 0.026596
-0.026317 0.0055497 -0.26249 -0.14766
560000000 -0.31686 0.12094 -0.024032 -0.063637 0.00017205 0.012504 0.0052778 0.011106
0.010553 0.0054076 0.010929 0.008249
-0.023977 -0.063556 -0.37777 0.10677 -0.04125 -0.037889 0.014405 0.0039965
-0.013169 -0.0056528 0.0031132 0.00039405
0.00015431 0.012515 -0.041523 -0.037753 -0.18394 0.25721 -0.00076829 -0.0038965
0.019939 0.0058033 0.0064814 -0.0058449
0.0053169 0.011066 0.014545 0.0040357 -0.00080209 -0.0038629 -0.30731 0.13026
0.0033678 -0.023863 0.0043551 -0.022148
0.010598 0.0053999 -0.013271 -0.0054728 0.019992 0.0057931 0.0033404 -0.023856
-0.28961 -0.028685 0.0089275 -0.049524
0.010998 0.0082113 0.0031577 0.00036131 0.0064772 -0.0058093 0.004348 -0.022141
0.0089443 -0.049523 -0.32972 0.0044058
620000000 -0.27624 0.1047 -0.023717 0.0080992 0.0030888 0.008806 0.008316 -0.0054484
0.010885 0.00029953 0.0015953 -0.0020464
-0.023697 0.0080994 -0.40303 0.058187 -0.01863 0.00021373 -0.0012621 -0.0020072
0.011574 -0.0062502 0.0016603 -0.0029832
0.0031089 0.0087917 -0.018668 0.00031874 -0.15456 0.26626 -0.0014763 -0.0054704
-0.0024776 -0.0021253 0.0086137 -0.0035068
0.0082514 -0.0054182 -0.0012388 -0.0019735 -0.0014594 -0.0054423 -0.2671 0.14186
-0.038942 -0.019839 0.012831 0.027276
0.010857 0.00016029 0.011491 -0.006331 -0.0025088 -0.0022022 -0.038945 -0.019824
-0.20662 -0.066898 -0.042952 0.014203
0.0015916 -0.0022989 0.0015945 -0.0029806 0.0086074 -0.0034293 0.012859 0.027268
-0.042958 0.014158 -0.24787 -0.033803
680000000 -0.23599 0.19134 -0.02732 -0.01404 0.0049729 0.0052808 0.001716 -0.0071373
-0.0031886 -0.011268 0.0056635 -0.0071988
-0.0273 -0.014052 -0.38817 0.15657 -0.03284 -0.0014362 -0.0016961 -0.0005482
-0.002091 -0.009049 -0.0008675 -0.0018637
0.0049556 0.0052964 -0.032886 -0.0013651 -0.10257 0.2859 -0.00071067 -0.00029815
-0.0016309 0.00048111 -0.0026908 -0.0093403
0.0016768 -0.0071585 -0.0016872 -0.00052345 -0.00071466 -0.00029365 -0.22167 0.1933
-0.023777 -0.0071745 -0.010098 -0.011634
-0.0033097 -0.011246 -0.0020649 -0.0089532 -0.0016371 0.00049888 -0.023796 -0.0071611
-0.26047 0.033575 -0.005735 -0.0084965
0.0056136 -0.0072094 -0.00085234 -0.0018282 -0.0026818 -0.0093202 -0.0101 -0.011635
-0.0057281 -0.0084921 -0.2616 0.074547
740000000 -0.19125 0.18605 -0.03864 0.027296 0.01284 -0.0050158 -0.0001737 -0.0043364
-0.0039022 -0.0026846 -0.0063396 0.0023534
-0.038642 0.027255 -0.33495 0.17539 -0.035602 0.035424 -0.00083174 -0.0064349
-0.011452 0.0075494 -0.00238 -0.0069555
0.01284 -0.0050801 -0.035551 0.035575 -0.068879 0.28389 -0.0022245 0.0030878
-0.002096 -0.0046733 -0.0015786 -0.00016502
-0.00024634 -0.0043846 -0.00089623 -0.0064624 -0.002246 0.0030813 -0.20525 0.20122
-0.044438 -0.007114 0.02361 0.015872
-0.0040283 -0.0027276 -0.011321 0.007629 -0.0021087 -0.0046749 -0.044478 -0.0070659
-0.15794 0.060451 -0.044945 0.00031705
-0.0062788 0.0023784 -0.0023071 -0.0069752 -0.0015645 -0.00018539 0.023631 0.015875
-0.044938 0.00025616 -0.25238 0.080755
800000000 -0.15837 0.22654 -0.022167 0.016714 0.0054767 -0.010761 -0.0046064 -0.0022549
-0.0041491 0.0020774 0.0048554 -3.0348e-06
-0.022155 0.016695 -0.33844 0.24558 -0.0077822 0.034053 -0.0023331 0.0021846
-0.00073826 0.0028702 0.0010462 0.0052626
0.0054473 -0.010787 -0.0076831 0.034109 -0.028401 0.30708 0.00095242 0.0015274
0.00020581 0.0033818 -0.0016951 0.0007233
-0.0046102 -0.0022304 -0.0023288 0.0021839 0.00095043 0.0015304 -0.17667 0.22922
-0.028854 0.014176 0.014515 -0.010686
-0.0041437 0.00211 -0.00071069 0.0028732 0.00021668 0.0033665 -0.028856 0.014242
-0.20778 0.084711 -0.017614 0.019557
0.0048297 -1.9659e-05 0.001092 0.0052628 -0.0017002 0.00072209 0.014511 -0.010708
-0.017624 0.019534 -0.24833 0.13123
860000000 -0.12381 0.24656 -0.017345 0.030424 -0.0032003 -0.010219 -0.0021864 0.0007598
0.0038653 0.004703 -0.0033214 -0.0031348
-0.017343 0.030379 -0.29095 0.28725 0.0079699 0.034197 -3.6038e-05 0.0019494
0.0041994 0.00033198 0.0034099 0.00080264
-0.0032262 -0.0102 0.0080893 0.03422 0.019367 0.31508 -0.00049999 -0.00025869
0.0028078 -0.0015114 0.001428 0.0042688
-0.0021849 0.00076046 -3.6914e-05 0.0019751 -0.0005013 -0.00026048 -0.14018 0.24015
-0.01805 0.01893 -0.0060547 -0.009208
0.0038545 0.0046884 0.0042312 0.00036051 0.00281 -0.0015025 -0.018038 0.018965
-0.1563 0.13701 -0.026792 0.015335
-0.0033024 -0.0030885 0.0033612 0.00073883 0.0014244 0.0042697 -0.0060692 -0.0091937
-0.026807 0.015321 -0.19682 0.17896
920000000 -0.099496 0.26979 0.0050648 0.03764 -0.0095319 -0.0046296 -0.0019338 0.001796
0.00083557 0.0016795 0.0025712 -0.0016152
0.0050615 0.037613 -0.2625 0.30875 0.028124 0.021993 0.0013273 0.0012067
0.0072489 -0.00049498 0.0040187 -0.0028565
-0.0095599 -0.0046122 0.028217 0.021935 0.065468 0.31598 0.001814 -2.4863e-06
0.0011571 -0.00032577 0.00091199 -0.0012388
-0.0019506 0.0018128 0.0013097 0.0011675 0.0017973 -1.3403e-05 -0.11643 0.25742
-0.010829 0.0314 0.0041306 -0.0071005
0.0008131 0.0016746 0.0072453 -0.00052227 0.0011583 -0.00033216 -0.010781 0.031433
-0.14667 0.14309 -0.0027106 0.027775
0.0025968 -0.00162 0.0039979 -0.0029015 0.00093876 -0.001233 0.0041003 -0.0071107
-0.002728 0.02776 -0.20896 0.19323
980000000 -0.052267 0.28913 0.017457 0.029902 -0.0092549 0.0046155 0.0020069 0.0034326
0.0039799 -0.0013751 -0.0033666 -0.0022544
0.017456 0.02988 -0.20967 0.34273 0.033203 0.0049215 0.0020302 1.2897e-05
0.0016743 -0.0057473 -0.00032863 -0.0025447
-0.0092402 0.0046465 0.033252 0.0048107 0.11178 0.30962 0.00049489 -0.0011593
0.00031753 -0.0020724 0.0013951 -0.00020852
0.0020009 0.0034513 0.0020379 -2.2989e-05 0.00049664 -0.0011655 -0.077749 0.26861
0.0082902 0.030956 -0.0091769 -0.0076294
0.003968 -0.0013999 0.0016436 -0.0057753 0.0003208 -0.0020731 0.0083459 0.03095
-0.11541 0.17277 0.0047179 0.020156
-0.0033981 -0.0022269 -0.00033272 -0.0025439 0.001408 -0.00019809 -0.0091728 -0.0076169
0.0047124 0.020154 -0.16609 0.24044
1040000000 -0.010365 0.29774 0.033142 0.018211 -0.0014231 0.0070038 0.0024981 0.00061375
6.8243e-05 -0.0036047 -0.00021173 -0.0015073
0.033126 0.018188 -0.17421 0.35594 0.029561 -0.014945 0.0015358 -0.0017043
-0.0025515 -0.0025776 -0.0013979 -0.0025343
-0.0013938 0.0070065 0.029512 -0.015043 0.15789 0.29609 -0.00050823 -0.0015969
-0.0016669 -0.00084211 -0.00054364 -0.0010534
0.0025244 0.00063972 0.0015068 -0.0016778 -0.00050023 -0.001582 -0.050538 0.2791
0.020256 0.018853 -0.0022092 0.0011595
4.2077e-05 -0.0035783 -0.0026088 -0.0025619 -0.001678 -0.00083228 0.020296 0.018817
-0.083219 0.18037 0.013496 0.019377
-0.00021944 -0.0015121 -0.0014025 -0.0025735 -0.00056039 -0.0010547 -0.0022042 0.0011701
0.013467 0.019396 -0.14621 0.26176
1100000000 0.034873 0.30573 0.035873 -0.0042435 0.0028606 0.0039804 0.0023193 -0.0012986
-0.0019128 -0.0032459 -0.0039503 -4.7841e-05
0.035846 -0.0042328 -0.13085 0.37329 0.015217 -0.028026 -6.0879e-05 -0.0018002
-0.0033899 -0.00087952 -0.0036071 -0.00044875
0.0028787 0.0039809 0.015094 -0.028112 0.20448 0.27581 -0.0019211 0.00023729
-0.0018104 0.00052901 -0.0011081 -0.00034087
0.002322 -0.0012956 -6.6752e-05 -0.0018073 -0.0019183 0.00024952 -0.010111 0.28425
0.025814 0.0052326 -0.002716 -0.00014712
-0.001916 -0.0032534 -0.003398 -0.0008661 -0.0018212 0.0005412 0.025839 0.0051859
-0.065701 0.19397 0.019453 0.0091472
-0.0039479 -3.9644e-05 -0.003585 -0.00043996 -0.001095 -0.00035722 -0.0027112 -0.0001384
0.01944 0.0091513 -0.10062 0.29411
1160000000 0.086238 0.30093 0.023927 -0.020849 0.0027438 -0.00043326 -0.00034569 -0.0023047
-0.0041258 -0.00091901 -0.0010479 0.0040982
0.023934 -0.020827 -0.08724 0.37771 -0.0038914 -0.029381 -0.0017264 -0.001656
-0.0028634 0.0024834 -0.0014411 0.0018953
0.002724 -0.00045955 -0.0040313 -0.029399 0.24764 0.24484 -0.00064708 0.0018278
-0.00068557 0.0020429 -0.00097635 0.00033939
-0.00034438 -0.0022717 -0.0017436 -0.0016565 -0.0006601 0.0018309 0.029318 0.28167
0.02223 -0.011064 -0.0031976 0.0051076
-0.0041271 -0.00086658 -0.0028784 0.0024815 -0.00069231 0.0020443 0.022212 -0.011104
-0.032593 0.20332 0.01891 0.0010615
-0.0010151 0.0041178 -0.0014098 0.0018982 -0.0009753 0.0003447 -0.0031826 0.0051154
0.018901 0.0010683 -0.053471 0.2977
1220000000 0.13063 0.29013 0.010295 -0.030127 -0.0016093 -0.00075816 4.4841e-05 -0.00087714
-0.0027488 0.0023415 0.001325 0.0020904
0.01032 -0.0301 -0.042719 0.38996 -0.017117 -0.021195 -0.00252 0.0004508
1.4483e-05 0.0030755 -0.00077919 0.0019684
-0.0016042 -0.00074443 -0.017218 -0.021127 0.28682 0.20554 0.00086076 0.0016759
0.00065531 0.0012343 0.00036042 0.00068026
5.2236e-05 -0.00086845 -0.0025103 0.00045727 0.00085109 0.0016715 0.06959 0.2733
0.011087 -0.01817 0.0019844 0.0014836
-0.0027534 0.0023658 5.1833e-06 0.0030947 0.00065447 0.0012317 0.011074 -0.018187
-0.010611 0.21295 0.014923 -0.012744
0.0013352 0.0020922 -0.00076277 0.0019771 0.00037249 0.00067419 0.0019835 0.0014866
0.014917 -0.012739 -0.023088 0.31645
1280000000 0.18049 0.26819 -0.0081333 -0.028568 -0.0018101 0.0025311 -0.00084094 -0.0020125
-0.00088821 0.003052 0.0025539 0.0011733
-0.0081067 -0.028533 0.0034312 0.38089 -0.023957 -0.0084639 -0.00095939 0.0014865
0.0016787 0.0018676 0.00066454 0.0021074
-0.0018147 0.0025545 -0.02403 -0.0083472 0.31699 0.16148 0.0016868 3.4149e-06
0.0012181 0.00034924 0.00044583 0.00032479
-0.00083709 -0.0019886 -0.00095042 0.0015003 0.0016896 -7.786e-07 0.10655 0.25665
0.0011168 -0.020414 -0.00033649 0.00013476
-0.0008777 0.0030582 0.0016958 0.0018797 0.0012177 0.00035272 0.0010789 -0.020425
0.026041 0.21703 0.0035146 -0.015409
0.0025635 0.001179 0.00069274 0.0020985 0.00044394 0.0003273 -0.00033446 0.0001316
0.0035285 -0.015403 0.025743 0.32038
1340000000 0.21766 0.23449 -0.017826 -0.018795 0.00095722 0.0045503 -0.0016769 -0.00085655
0.0014596 0.0028268 0.0018437 -0.0013746
-0.017793 -0.018784 0.042917 0.37255 -0.021727 0.0044289 -0.00011796 0.0020076
0.0019819 0.00084073 0.0013878 0.00079339
0.0009594 0.0045363 -0.021736 0.0045418 0.33874 0.11375 0.0012033 -0.00094777
0.00081166 -0.00051149 0.00020096 0.00034078
-0.0016739 -0.00083999 -0.00011475 0.002 0.0011866 -0.00094788 0.13889 0.23622
-0.0090249 -0.017524 0.00072179 0.00071028
0.0014688 0.002812 0.0019805 0.00081543 0.00079986 -0.0005174 -0.0090631 -0.017514
0.055531 0.21293 -0.0032823 -0.014049
0.0018167 -0.0013948 0.0014066 0.00077685 0.00020509 0.00034115 0.00072316 0.00070553
-0.0032798 -0.01405 0.064059 0.31748
1400000000 0.25069 0.19632 -0.023524 -0.0071954 0.0052182 0.0030862 -0.0020834 0.00060857
0.0024261 0.00095147 0.00031533 -0.0013946
-0.023498 -0.007202 0.080261 0.35926 -0.014812 0.012596 0.0013156 0.0013185
0.0011868 -0.00082785 0.0012824 0.00025314
0.0052319 0.0030569 -0.014748 0.012696 0.35165 0.060467 0.00015262 -0.0017566
-5.8852e-05 -0.00047155 0.00045115 0.00023756
-0.0020848 0.0006192 0.0013311 0.0012971 0.00014863 -0.0017527 0.16817 0.20732
-0.015267 -0.010358 -0.00092406 -0.0002743
0.0024304 0.00093219 0.0011627 -0.00086154 -6.2484e-05 -0.00048166 -0.015291 -0.010324
0.088504 0.20913 -0.0099836 -0.0094604
0.00031903 -0.0014088 0.0012731 0.00023251 0.00044751 0.00023813 -0.00092984 -0.00027734
-0.0099812 -0.009473 0.10997 0.30746
1460000000 0.2734 0.15204 -0.020291 0.0050298 0.0056406 -0.0018779 -0.0015878 0.0017184
0.0022176 -0.00044292 -0.00032315 -0.0010004
-0.02028 0.0050112 0.1142 0.33729 -0.0060175 0.015427 0.0017377 0.00019946
0.00086836 -0.0013186 0.0011474 -0.00061726
0.0056348 -0.0019133 -0.0059482 0.01547 0.35771 0.0064641 -0.0013834 -0.0013093
0.00014334 -0.00030868 0.00061584 -0.00038876
-0.0016027 0.0017416 0.0017417 0.00019051 -0.0013853 -0.0013076 0.19406 0.17829
-0.016685 -0.0030539 -0.00091191 0.0022419
0.0022064 -0.0004539 0.00086189 -0.0013309 0.00014359 -0.00030982 -0.016704 -0.0030066
0.11712 0.19469 -0.012188 -0.0030907
-0.00032896 -0.0010051 0.0011515 -0.00063116 0.00060763 -0.00039083 -0.00091024 0.0022358
-0.012193 -0.0030962 0.14393 0.2874
1520000000 0.2854 0.11033 -0.01454 0.010487 0.0033657 -0.0042342 0.00012539 0.0026595
0.002204 -0.0017186 -0.0011245 -0.00018885
-0.014541 0.010473 0.14755 0.32255 0.0017044 0.01312 0.0016843 -0.00077094
9.5357e-08 -0.00105 0.0003428 -0.0010109
0.0033349 -0.0042639 0.0017733 0.013126 0.3511 -0.049452 -0.0012549 -0.00031704
0.00057894 -0.00085358 7.701e-05 -8.0756e-05
0.00014483 0.0026625 0.0016805 -0.00077573 -0.0012574 -0.00032341 0.2169 0.14092
-0.015829 0.0031319 0.0016328 0.0022851
0.0021955 -0.0017272 -9.0398e-06 -0.0010469 0.00057846 -0.00087124 -0.015833 0.0031694
0.14467 0.1811 -0.012242 0.0015423
-0.0011351 -0.00017944 0.00032558 -0.001016 7.5453e-05 -8.0572e-05 0.0016394 0.0022818
-0.012231 0.0015305 0.17823 0.26859
1580000000 0.29432 0.064166 -0.0078094 0.013454 -0.00094095 -0.004971 0.0014321 0.0019056
-0.00021806 -0.0021732 -0.00033975 0.00045475
-0.0078112 0.013447 0.1746 0.29778 0.0052781 0.0082131 0.00049705 -0.0016144
-0.00062871 -0.0010394 -0.00031293 -0.00076328
-0.00097245 -0.004998 0.0053307 0.0081925 0.33093 -0.10691 -0.0015963 0.00077514
-0.000267 -0.0011417 9.761e-05 -0.00054331
0.0014415 0.0019039 0.00047937 -0.00162 -0.0015975 0.00077603 0.23054 0.10235
-0.011892 0.0083235 0.0025196 0.00091609
-0.00022341 -0.0021709 -0.00063679 -0.0010365 -0.00025425 -0.0011448 -0.011877 0.0083527
0.1688 0.1636 -0.0095746 0.0076275
-0.00032494 0.00047256 -0.00032137 -0.00076745 9.288e-05 -0.000541 0.0025251 0.00091717
-0.0095804 0.007626 0.21189 0.24205
1640000000 0.29614 0.023172 -0.001063 0.012214 -0.002788 -0.0026708 0.0027511 0.00097246
-0.00061084 -0.0016789 -0.00021722 0.00050222
-0.0010668 0.012209 0.20389 0.27304 0.0059908 0.0033928 -0.00067958 -0.0017758
-0.00097919 -0.00035734 -0.00044472 -0.00072531
-0.0027864 -0.0026521 0.006006 0.0033735 0.30314 -0.15587 -0.00053087 0.0015445
-0.0011183 -0.0010811 -0.00013598 -0.00049757
0.0027581 0.00095145 -0.00068454 -0.0017707 -0.00053488 0.0015559 0.24291 0.054616
-0.0072308 0.0095939 0.0026426 -0.00085742
-0.00063023 -0.0016828 -0.00099309 -0.00035207 -0.0011288 -0.0010751 -0.0072093 0.0096144
0.19056 0.13988 -0.0046865 0.0096772
-0.000208 0.00051342 -0.000446 -0.00072785 -0.00015075 -0.00049802 0.0026359 -0.00087433
-0.0046862 0.0096753 0.23803 0.21155
1700000000 0.28891 -0.021763 0.0022261 0.009257 -0.0036086 6.0615e-05 0.0030632 -0.0012573
-0.0021286 -0.00086022 0.00065171 0.00040859
0.0022234 0.0092518 0.22197 0.24166 0.0039053 0.00051686 -0.001509 -0.00060485
-0.00071087 4.7024e-05 -0.0009196 -0.00047977
-0.0035985 8.7867e-05 0.0039225 0.0004927 0.25965 -0.19599 0.00057899 0.0015751
-0.0019729 -0.00021741 -0.0004678 -0.00090293
0.0030525 -0.0012751 -0.0015146 -0.0005953 0.00057364 0.0015863 0.24046 0.0060684
-0.0042675 0.010085 0.001676 -0.0023874
-0.0021338 -0.00084247 -0.00071853 5.3876e-05 -0.0019754 -0.00021774 -0.0042483 0.010102
0.20742 0.12023 0.00019616 0.010022
0.00065977 0.00040625 -0.00092003 -0.00047355 -0.00047929 -0.00089827 0.0016683 -0.0023986
0.00019817 0.010012 0.25564 0.17725
1760000000 0.2767 -0.069963 0.0043751 0.0059089 -0.0023117 0.0010239 0.0012134 -0.00347
-0.0014738 0.00064229 0.00035269 -0.00066075
0.0043689 0.0059052 0.24782 0.20198 0.0015483 -0.0012222 -0.0012217 0.00018209
-0.00093271 0.00087374 -0.0005674 0.00038059
-0.0023161 0.0010391 0.001551 -0.001235 0.21074 -0.22945 0.0012633 0.00094817
-0.0012333 0.0015078 -0.0013475 -0.00051716
0.0011924 -0.0034839 -0.0012231 0.0001922 0.0012655 0.00093817 0.2326 -0.044504
-0.00075012 0.0091364 -0.00012012 -0.0026977
-0.0014764 0.00064925 -0.00092652 0.00088002 -0.0012358 0.0015099 -0.00072664 0.0091387
0.22169 0.086127 0.0043818 0.0073213
0.00034884 -0.00065743 -0.00056793 0.00038072 -0.0013761 -0.00052145 -0.00012834 -0.0027012
0.0043853 0.0073257 0.26895 0.13963
1820000000 0.25237 -0.10695 0.0043989 0.0024191 -2.1042e-05 0.0024456 -0.0011387 -0.0030396
-0.0012418 0.001006 -8.7619e-05 -3.8605e-05
0.0043949 0.002421 0.25792 0.17214 -0.00031591 -9.9441e-05 -0.0013246 0.00097461
-3.7216e-05 0.0012169 -0.00057822 0.00052997
-4.5845e-06 0.0024541 -0.00032725 -8.8229e-05 0.16109 -0.24505 0.001382 0.0003525
-0.00020986 0.0023822 -0.0014795 0.00041026
-0.0011468 -0.0030272 -0.0013268 0.00098341 0.0013814 0.00035227 0.20435 -0.091481
0.00086758 0.007479 -0.0016437 -0.0017776
-0.0012314 0.0010224 -2.8838e-05 0.0012172 -0.00021282 0.0023833 0.00088591 0.0074825
0.23871 0.058276 0.0053612 0.003579
-8.9732e-05 -5.6202e-05 -0.00057622 0.00052973 -0.0014784 0.00042123 -0.0016408 -0.0017727
0.0053662 0.0035811 0.27226 0.10389
1880000000 0.21778 -0.14725 0.0022151 0.00024475 -0.00034866 0.0021209 -0.0030188 -0.002113
-0.00016371 0.0017967 0.00025646 -0.00044108
0.0022124 0.00024358 0.26247 0.12565 -0.002376 0.0016125 -0.00020757 0.0016785
0.0004873 0.0011263 3.9988e-05 0.00093995
-0.00031261 0.0021292 -0.0023568 0.001632 0.1088 -0.25507 0.0016776 -0.0009217
0.0015045 0.0019357 -0.0010283 0.0014206
-0.0030219 -0.0020904 -0.00020285 0.0016697 0.0016668 -0.00092033 0.16517 -0.13237
0.0017806 0.0053657 -0.0025801 0.00029811
-0.00014786 0.0018069 0.00049248 0.001126 0.0015092 0.0019319 0.0017858 0.0053592
0.24181 0.026814 0.0054186 0.001286
0.00025858 -0.00045606 4.3932e-05 0.0009523 -0.0010395 0.0014099 -0.0025708 0.00030113
0.0054195 0.0012796 0.27256 0.069218
1940000000 0.17862 -0.17311 -2.4333e-06 -0.0013303 0.0013138 0.0020503 -0.0036459 0.00062367
0.001385 0.0011283 -0.00069038 -0.00045052
4.2624e-06 -0.0013308 0.26306 0.094002 -0.0012325 0.0038761 0.0010267 0.0013675
0.0016919 0.00052149 0.0007514 0.00031953
0.0013614 0.002033 -0.0012002 0.003907 0.062505 -0.24847 0.00046115 -0.0019785
0.0024293 0.00052905 0.00013659 0.001654
-0.0036435 0.00064015 0.0010362 0.00136 0.00045314 -0.0019691 0.1137 -0.16404
0.0010741 0.0038348 -0.0016138 0.0015492
0.0014103 0.0011258 0.001693 0.00050428 0.0024341 0.00052138 0.0010822 0.0038318
0.24433 -0.011129 0.0040538 -0.0024881
-0.00069986 -0.00046346 0.00075855 0.00032431 0.00016569 0.0016311 -0.0016075 0.0015485
0.0040486 -0.0024849 0.26201 0.03377
2000000000 0.13242 -0.1881 -0.0038125 0.00067037 0.0024697 0.001669 -0.002319 0.0034736
0.0011588 5.2547e-05 -0.00061462 0.00029104
-0.0038032 0.00066452 0.24905 0.058429 -0.0011105 0.0056945 0.0015994 0.00038595
0.0012708 -0.0012167 0.00057597 0.00021042
0.0024764 0.0016548 -0.0010708 0.0057118 0.018656 -0.23403 -0.0011837 -0.0013505
0.0020129 -0.001105 0.0017498 0.0013212
-0.0023062 0.0034821 0.0016096 0.00037789 -0.0011755 -0.0013561 0.060201 -0.1753
-0.00049714 0.0032894 -0.00014756 0.0022169
0.0011679 3.3858e-05 0.0012635 -0.0012378 0.0019933 -0.0011277 -0.00049008 0.0033061
0.23914 -0.044585 0.00058143 -0.0032594
