!Keysight Technologies,M9804A,MY58100912,A.14.10.03
!Date: Thursday, April 27, 2023 10:28:33
!Correction: S11(C  6-Port  ) 
!S12(C  6-Port  ) 
!S13(C  6-Port  ) 
!S14(C  6-Port  ) 
!S15(C  6-Port  ) 
!S16(C  6-Port  ) 
!S21(C  6-Port  ) 
!S22(C  6-Port  ) 
!S23(C  6-Port  ) 
!S24(C  6-Port  ) 
!S25(C  6-Port  ) 
!S26(C  6-Port  ) 
!S31(C  6-Port  ) 
!S32(C  6-Port  ) 
!S33(C  6-Port  ) 
!S34(C  6-Port  ) 
!S35(C  6-Port  ) 
!S36(C  6-Port  ) 
!S41(C  6-Port  ) 
!S42(C  6-Port  ) 
!S43(C  6-Port  ) 
!S44(C  6-Port  ) 
!S45(C  6-Port  ) 
!S46(C  6-Port  ) 
!S51(C  6-Port  ) 
!S52(C  6-Port  ) 
!S53(C  6-Port  ) 
!S54(C  6-Port  ) 
!S55(C  6-Port  ) 
!S56(C  6-Port  ) 
!S61(C  6-Port  ) 
!S62(C  6-Port  ) 
!S63(C  6-Port  ) 
!S64(C  6-Port  ) 
!S65(C  6-Port  ) 
!S66(C  6-Port  ) 
!S6P File: Measurement: :
# Hz S  RI   R 50
500000000 -0.33686 -0.040946 -0.0096453 -0.0024624 -0.0081312 0.012422 -0.0045169 0.012319
0.012701 0.0044862 -0.0050924 0.0092478
-0.0096516 -0.0024489 -0.41852 -0.052612 0.0083226 -0.010643 0.0015478 0.012341
0.007723 0.0018674 0.0015335 0.013532
-0.0081409 0.012412 0.0082954 -0.01066 -0.26488 0.20823 0.0078453 0.0035875
-0.0021639 0.0077736 0.0014696 0.012198
-0.0045148 0.012336 0.0015656 0.012361 0.0078578 0.0035934 -0.33157 0.040254
-0.019513 -0.0062957 0.01619 0.026286
0.012753 0.0044437 0.0077471 0.0018267 -0.0021761 0.007772 -0.01952 -0.0062859
-0.21779 -0.20675 -0.026227 0.0053905
-0.0051139 0.0092627 0.0015519 0.013513 0.001495 0.012195 0.016208 0.026277
-0.026246 0.0053922 -0.26186 -0.14759
560000000 -0.31605 0.1212 -0.023293 -0.063501 -0.00024116 0.012215 0.0052744 0.011118
0.010345 0.0051046 0.011142 0.007972
-0.023346 -0.06339 -0.37731 0.10704 -0.040959 -0.038038 0.014584 0.004082
-0.013138 -0.0052889 0.0029521 6.8e-05
-0.00021562 0.012216 -0.041064 -0.037938 -0.18349 0.25638 -0.0011489 -0.0040503
0.019689 0.0050576 0.0066383 -0.0057636
0.0053028 0.011104 0.014611 0.0040522 -0.0011611 -0.0040627 -0.30671 0.13033
0.0036114 -0.023938 0.0046266 -0.02205
0.010376 0.0049905 -0.013213 -0.0052398 0.019694 0.005052 0.0036078 -0.023958
-0.28843 -0.030333 0.0095521 -0.049594
0.011065 0.0080009 0.0029535 4.5468e-05 0.0066439 -0.0057474 0.0046145 -0.022014
0.0095603 -0.049569 -0.32954 0.0044854
620000000 -0.27587 0.10468 -0.023284 0.007796 0.0028997 0.0084335 0.0080691 -0.0054289
0.010776 0.00010714 0.0017525 -0.0024048
-0.023262 0.0077538 -0.40253 0.058369 -0.018663 -0.00025335 -0.0013462 -0.0019879
0.011405 -0.0064879 0.0016836 -0.003273
0.0029358 0.0083423 -0.018682 -0.00021074 -0.1544 0.26549 -0.0014593 -0.005222
-0.0029596 -0.0026573 0.0082055 -0.0036567
0.0080301 -0.0054009 -0.0013515 -0.0019794 -0.0014548 -0.0052257 -0.26711 0.14172
-0.03839 -0.02006 0.012804 0.027104
0.010789 -2.4251e-05 0.011388 -0.0065345 -0.0029546 -0.0026576 -0.038382 -0.020052
-0.20632 -0.068836 -0.042603 0.014199
0.0017886 -0.0024036 0.0016394 -0.0032729 0.0082145 -0.0036747 0.012858 0.02707
-0.042616 0.014184 -0.24749 -0.034275
680000000 -0.23529 0.19081 -0.027272 -0.0146 0.0046337 0.0051671 0.0016912 -0.0071872
-0.0034066 -0.011225 0.0055767 -0.0068793
-0.027261 -0.014584 -0.3881 0.15659 -0.032879 -0.0016182 -0.0016733 -0.00046206
-0.0022082 -0.0088378 -0.00094994 -0.0016862
0.0046675 0.0051604 -0.032905 -0.0015476 -0.10291 0.28553 -0.00070082 -0.00014996
-0.0017595 0.00064885 -0.0027457 -0.0092278
0.0016475 -0.0072287 -0.0016786 -0.00044291 -0.00070454 -0.00015133 -0.22202 0.19333
-0.023607 -0.007516 -0.0098585 -0.012174
-0.0034328 -0.011222 -0.0022409 -0.0088135 -0.0017524 0.00065552 -0.02364 -0.00749
-0.26007 0.031188 -0.0053701 -0.0089316
0.0055689 -0.0069443 -0.00095132 -0.0016724 -0.0027675 -0.0092396 -0.009879 -0.012152
-0.005366 -0.0089383 -0.2616 0.074187
740000000 -0.1913 0.18563 -0.038945 0.026857 0.012496 -0.0048892 -0.00016205 -0.004358
-0.0037925 -0.0025909 -0.0061779 0.0022981
-0.038931 0.026829 -0.33534 0.17559 -0.035701 0.034992 -0.00083542 -0.0062892
-0.01144 0.0076505 -0.0022657 -0.0065478
0.012453 -0.00494 -0.035627 0.035108 -0.068899 0.28421 -0.0023187 0.0030495
-0.0020776 -0.0047376 -0.0017726 -0.00015093
-0.00018976 -0.0043911 -0.00085094 -0.006276 -0.002307 0.0030399 -0.20514 0.20108
-0.044618 -0.0073861 0.023471 0.015846
-0.0038761 -0.0026225 -0.011431 0.0077233 -0.0020716 -0.0047508 -0.044651 -0.0073297
-0.15851 0.058231 -0.045378 -0.00052035
-0.0061277 0.0023466 -0.0023264 -0.0065553 -0.0017674 -0.00016732 0.023475 0.015842
-0.045361 -0.0005593 -0.25212 0.079999
800000000 -0.1588 0.22635 -0.022655 0.016577 0.0052096 -0.010577 -0.0046737 -0.0023388
-0.004039 0.0021274 0.0048877 2.6292e-05
-0.022651 0.016573 -0.3386 0.24589 -0.0080042 0.033906 -0.0023267 0.0021932
-0.00060645 0.0027656 0.0010423 0.0052309
0.0051779 -0.010581 -0.0079043 0.033958 -0.028365 0.30743 0.0010062 0.0014459
0.00023624 0.0033934 -0.0018451 0.00073091
-0.0046765 -0.0023159 -0.0023302 0.0022075 0.0010013 0.0014427 -0.1768 0.22939
-0.029004 0.01389 0.014244 -0.010572
-0.0039973 0.0021367 -0.00060562 0.002786 0.00024801 0.0033902 -0.029009 0.013952
-0.20878 0.082568 -0.018084 0.019023
0.0049091 -7.1881e-06 0.0010438 0.0052442 -0.0018361 0.00072552 0.014241 -0.010591
-0.018083 0.018991 -0.24848 0.13063
860000000 -0.1241 0.24694 -0.017784 0.030657 -0.0033998 -0.0098569 -0.0023132 0.00089188
0.0040186 0.0045786 -0.0033741 -0.0032452
-0.017798 0.030601 -0.29101 0.28794 0.0076882 0.03403 3.1235e-06 0.0020363
0.0041866 6.8913e-05 0.0033407 0.00055812
-0.0034149 -0.0098514 0.0078078 0.034037 0.019804 0.31528 -0.00052865 -0.00026325
0.0028681 -0.0015218 0.0012927 0.0044212
-0.0023215 0.00088464 -1.9068e-07 0.0020395 -0.00052884 -0.00026312 -0.13992 0.24066
-0.018137 0.018779 -0.0063917 -0.0091825
0.0040466 0.0045845 0.0042014 5.7208e-05 0.0028709 -0.0015207 -0.018128 0.018806
-0.1572 0.13595 -0.027216 0.01501
-0.0033834 -0.0032434 0.0033276 0.00051882 0.0012955 0.0044126 -0.0064062 -0.0091804
-0.027237 0.014986 -0.19679 0.17895
920000000 -0.099483 0.2703 0.0048358 0.037975 -0.0093585 -0.0042857 -0.0019144 0.0018947
0.00083828 0.0016894 0.002573 -0.0015147
0.0048332 0.037956 -0.26214 0.30944 0.027845 0.022062 0.0014109 0.0012108
0.0071137 -0.00027589 0.0039374 -0.0028089
-0.0093713 -0.0042525 0.027957 0.021997 0.066016 0.31583 0.0018393 4.6981e-05
0.0011086 -0.00027662 0.00090156 -0.001045
-0.0018944 0.0019147 0.001398 0.001204 0.0018387 5.8557e-05 -0.11615 0.25758
-0.01103 0.03121 0.00392 -0.0066822
0.00084264 0.0017042 0.0071333 -0.00029553 0.0011191 -0.00028419 -0.010986 0.031254
-0.14813 0.14225 -0.0031944 0.027982
0.0025633 -0.0015243 0.0039111 -0.0028218 0.00089977 -0.0010585 0.0039143 -0.0067005
-0.0032113 0.027977 -0.20896 0.193
980000000 -0.051884 0.28988 0.017419 0.030102 -0.0088539 0.0047297 0.0021237 0.0035683
0.0038917 -0.0013145 -0.003442 -0.0021589
0.017386 0.030088 -0.20907 0.34341 0.032822 0.0050739 0.00204 5.4891e-05
0.0016047 -0.0055964 -0.00031817 -0.0023961
-0.0088334 0.0047558 0.032885 0.0049868 0.11212 0.30916 0.0005074 -0.0011478
0.00033209 -0.002047 0.0014664 -0.00020858
0.0021408 0.0035643 0.0020423 2.8963e-05 0.00051242 -0.0011467 -0.077451 0.26883
0.0077865 0.030592 -0.0091737 -0.0075342
0.0038831 -0.001378 0.001591 -0.0056339 0.00034891 -0.0020471 0.0078452 0.030584
-0.11676 0.17207 0.0043957 0.019827
-0.0034281 -0.0021338 -0.00033224 -0.0024272 0.0014798 -0.00020271 -0.0091794 -0.0075203
0.004367 0.019829 -0.16627 0.24032
1040000000 -0.0096113 0.2981 0.033072 0.018411 -0.0011048 0.0069076 0.002575 0.00059926
6.4347e-05 -0.0036628 -0.00014868 -0.0014439
0.033043 0.018424 -0.17341 0.35626 0.02926 -0.014522 0.0015244 -0.0016382
-0.0024174 -0.002389 -0.0011956 -0.0024679
-0.0010884 0.0069007 0.02926 -0.014635 0.1579 0.29536 -0.00045767 -0.0015747
-0.0015744 -0.00085189 -0.00040983 -0.0011353
0.0025797 0.00061266 0.0014974 -0.0016629 -0.00045433 -0.0015742 -0.050163 0.27899
0.019525 0.01878 -0.0019782 0.0014415
3.6366e-05 -0.0036581 -0.0024455 -0.0023895 -0.0015711 -0.00084368 0.019573 0.018751
-0.084277 0.18049 0.01313 0.019634
-0.000174 -0.0014377 -0.0012427 -0.0024716 -0.0004209 -0.0011311 -0.0019863 0.0014414
0.013121 0.019628 -0.14624 0.2617
1100000000 0.035743 0.30593 0.035696 -0.0039969 0.0030208 0.0037916 0.002301 -0.0013561
-0.0019818 -0.0031964 -0.0038353 -7.2525e-06
0.035656 -0.0039594 -0.12995 0.37329 0.01525 -0.027442 -2.4045e-05 -0.0017772
-0.0031894 -0.0008877 -0.0034241 -0.00049056
0.0030193 0.0037878 0.015149 -0.027535 0.20386 0.27533 -0.0018613 0.00017342
-0.001719 0.00039971 -0.001083 -0.00043889
0.0023064 -0.001352 -3.8444e-05 -0.0017839 -0.0018596 0.00018092 -0.0097596 0.28396
0.025003 0.0057135 -0.0024828 -0.00011445
-0.0020263 -0.0031663 -0.0032014 -0.00086559 -0.0017239 0.00039924 0.025014 0.0056703
-0.066528 0.19436 0.019076 0.009398
-0.0038242 1.0218e-05 -0.003431 -0.00046487 -0.0010751 -0.00042633 -0.0024945 -0.00011883
0.019064 0.0094055 -0.10077 0.29394
1160000000 0.087286 0.30081 0.024019 -0.020367 0.0027753 -0.00060752 -0.00039308 -0.0023819
-0.0041018 -0.00085242 -0.0009203 0.0040357
0.024037 -0.020334 -0.08637 0.37717 -0.0034017 -0.028854 -0.001679 -0.0016614
-0.002791 0.0022751 -0.0013754 0.0018184
0.0027845 -0.00062156 -0.0035266 -0.028855 0.24679 0.24496 -0.0006847 0.0016992
-0.0007149 0.0019178 -0.00097015 0.00024867
-0.00040346 -0.0023678 -0.0016949 -0.0016637 -0.00068676 0.0017 0.029495 0.28113
0.021868 -0.010048 -0.0030629 0.0051658
-0.0041236 -0.000829 -0.0027802 0.0022814 -0.00072035 0.001919 0.02186 -0.010087
-0.032402 0.20379 0.018455 0.0015785
-0.00093226 0.0040528 -0.0013758 0.0018021 -0.00098496 0.00025391 -0.0030527 0.0051729
0.018456 0.0015845 -0.053442 0.29735
1220000000 0.1315 0.28957 0.010668 -0.029686 -0.0015459 -0.00094813 -2.1685e-06 -0.00084572
-0.0026356 0.002367 0.001304 0.001995
0.010682 -0.029658 -0.042288 0.38916 -0.016445 -0.021098 -0.0024715 0.0004021
-9.2465e-05 0.0028962 -0.00084437 0.0018692
-0.0015511 -0.00095648 -0.016552 -0.021037 0.28612 0.20635 0.00076137 0.001604
0.00051895 0.0012083 0.00031424 0.00066809
-1.5573e-05 -0.00084181 -0.0024794 0.00041288 0.00076046 0.0015982 0.069272 0.27279
0.011257 -0.016984 0.0022439 0.0013705
-0.0026255 0.0023751 -8.159e-05 0.0029102 0.0005152 0.001214 0.011244 -0.01701
-0.010414 0.21266 0.014942 -0.011962
0.0012953 0.0019988 -0.00083706 0.0018569 0.00031301 0.00066631 0.002257 0.0013718
0.014938 -0.011957 -0.02322 0.31627
1280000000 0.181 0.26747 -0.0074324 -0.028313 -0.0018857 0.0022886 -0.00084684 -0.0019565
-0.00082027 0.0029202 0.0024606 0.0011877
-0.0074056 -0.028281 0.0032842 0.3802 -0.023307 -0.0087717 -0.0010055 0.0014044
0.0014938 0.0018409 0.00056459 0.0020912
-0.0018869 0.0022947 -0.02338 -0.0086669 0.31711 0.16269 0.0015648 5.7147e-05
0.0011418 0.00040849 0.00047375 0.0003659
-0.00085634 -0.0019552 -0.0010077 0.0014065 0.0015583 5.5854e-05 0.10603 0.2565
0.0020894 -0.019391 -0.0001838 -2.988e-05
-0.00080656 0.0029372 0.0015112 0.0018353 0.0011384 0.00039977 0.0020614 -0.0194
0.026261 0.21635 0.003926 -0.014651
0.002459 0.0011621 0.00057644 0.0020917 0.00046679 0.00037187 -0.00018141 -2.8777e-05
0.0039316 -0.014647 0.025595 0.32012
1340000000 0.21776 0.2337 -0.017083 -0.01914 0.00070229 0.0043693 -0.0015855 -0.00081364
0.0014225 0.0027541 0.0017549 -0.0012941
-0.017058 -0.019145 0.042483 0.37223 -0.021457 0.0037937 -0.00021488 0.0020003
0.001833 0.00097494 0.0013271 0.00082773
0.00072272 0.004366 -0.021463 0.0039006 0.33964 0.11476 0.0011386 -0.00083634
0.00076272 -0.00041577 0.00021773 0.00034532
-0.0015915 -0.00080528 -0.0002061 0.0019928 0.0011335 -0.00082883 0.13828 0.23641
-0.0075488 -0.017212 0.00084407 0.000429
0.0014439 0.0027558 0.0018463 0.00096797 0.00076963 -0.00041863 -0.0075939 -0.017205
0.05527 0.21176 -0.0024092 -0.013541
0.0017487 -0.0013018 0.0013293 0.00082912 0.00022021 0.00034579 0.00084631 0.00042359
-0.0023904 -0.013544 0.063647 0.31737
1400000000 0.25048 0.19574 -0.023042 -0.0079016 0.0049362 0.0030533 -0.0020095 0.00049638
0.0023212 0.00085881 0.00036999 -0.0013184
-0.022996 -0.0079116 0.079679 0.35946 -0.014968 0.011938 0.0012601 0.001406
0.0012149 -0.00063508 0.0012901 0.00032452
0.004953 0.0030335 -0.014918 0.01203 0.3531 0.060798 0.00024781 -0.0016043
-9.8298e-06 -0.00044676 0.00043221 0.00020071
-0.0020085 0.00050432 0.0012641 0.0013959 0.00025507 -0.0015966 0.16771 0.20788
-0.013721 -0.010971 -0.0010486 -0.00061905
0.0023246 0.00085729 0.0012088 -0.00064401 -3.3114e-06 -0.00044649 -0.013753 -0.010944
0.087623 0.20802 -0.0089276 -0.0095176
0.00036689 -0.0013141 0.0012886 0.000311 0.00043059 0.00019765 -0.0010417 -0.00062443
-0.0089239 -0.0095225 0.10965 0.3076
1460000000 0.27318 0.15195 -0.02034 0.0041216 0.0053923 -0.0017061 -0.0016409 0.0016073
0.0020367 -0.00039914 -0.00027728 -0.00099204
-0.020319 0.0041005 0.11397 0.338 -0.0065702 0.014982 0.0017678 0.00023231
0.0010531 -0.0012901 0.0011872 -0.00058839
0.0053848 -0.0017241 -0.0064979 0.015028 0.35916 0.005952 -0.0012248 -0.001326
0.00014966 -0.00029878 0.00050971 -0.00037943
-0.0016309 0.0016145 0.0017809 0.00023456 -0.0012093 -0.0013302 0.19391 0.1791
-0.015714 -0.004554 -0.0011791 0.0020473
0.0020283 -0.00041523 0.0010508 -0.0013031 0.00014478 -0.00030223 -0.01574 -0.0045289
0.11578 0.19371 -0.011266 -0.0036441
-0.0002826 -0.00097803 0.0011861 -0.00060386 0.00051294 -0.00038449 -0.0011684 0.0020458
-0.011266 -0.0036545 0.14386 0.28765
1520000000 0.28537 0.11051 -0.015051 0.0097752 0.0032167 -0.0039716 1.2159e-05 0.0026137
0.002157 -0.0015558 -0.0011194 -0.00024175
-0.015041 0.0097539 0.14775 0.32334 0.001106 0.013088 0.0017193 -0.00076012
0.00012625 -0.0011546 0.00035891 -0.0010176
0.0031993 -0.0040015 0.0011806 0.013096 0.35201 -0.050612 -0.0011552 -0.00042291
0.0006142 -0.00077643 2.7096e-05 -4.1681e-05
1.8525e-05 0.002613 0.0017138 -0.00076646 -0.001156 -0.00042098 0.21722 0.14181
-0.015942 0.0012812 0.0013012 0.0022547
0.0021493 -0.0015652 0.00011969 -0.0011649 0.00061635 -0.00077567 -0.015952 0.0013358
0.14279 0.18054 -0.011771 0.00054679
-0.0011198 -0.00023394 0.00035927 -0.0010221 2.658e-05 -4.4406e-05 0.0013008 0.0022549
-0.011771 0.00054316 0.17836 0.26884
1580000000 0.29485 0.06448 -0.0086337 0.013125 -0.00083831 -0.0047389 0.0013133 0.0019869
-0.00014818 -0.0020247 -0.00040419 0.00042083
-0.0086388 0.01311 0.17527 0.29862 0.004827 0.0084833 0.00051445 -0.0016277
-0.00064506 -0.0012048 -0.00028042 -0.0007873
-0.00086945 -0.0047311 0.0048778 0.0084687 0.33132 -0.10825 -0.0017121 0.00064594
-0.00019108 -0.0011355 8.1522e-05 -0.0004469
0.0013255 0.001973 0.00050055 -0.0016304 -0.0017121 0.00064805 0.2314 0.10311
-0.013077 0.0068996 0.0022584 0.0011117
-0.00016551 -0.0020314 -0.00066183 -0.0011979 -0.00019471 -0.0011408 -0.013055 0.0069416
0.16672 0.16384 -0.0096861 0.0066162
-0.00041523 0.00042821 -0.00028835 -0.00077823 8.3078e-05 -0.0004568 0.0022678 0.0011075
-0.0096921 0.0066175 0.21212 0.24211
1640000000 0.29713 0.023168 -0.0019557 0.012426 -0.0025816 -0.0025265 0.0027458 0.0011074
-0.00048489 -0.0016048 -0.00029158 0.00056239
-0.0019674 0.012416 0.20505 0.27347 0.0058022 0.0038378 -0.00066194 -0.0017873
-0.0011516 -0.00043848 -0.00043947 -0.00073327
-0.0025904 -0.002519 0.0058235 0.0038084 0.30283 -0.15728 -0.00069619 0.001538
-0.0010226 -0.0011184 -6.7602e-05 -0.00042453
0.0027544 0.0010796 -0.0006734 -0.0017797 -0.00068731 0.0015347 0.24419 0.0548
-0.0089937 0.0091358 0.0025426 -0.00065003
-0.00050846 -0.0016044 -0.0011438 -0.0004222 -0.0010196 -0.0011155 -0.0089763 0.0091607
0.18872 0.14084 -0.0052849 0.0088257
-0.00027556 0.00055771 -0.00044976 -0.00073003 -7.6773e-05 -0.00042959 0.0025396 -0.00066176
-0.0052867 0.0088199 0.23825 0.21135
1700000000 0.29007 -0.022394 0.0016394 0.009893 -0.0033731 0.00015141 0.0031176 -0.0011585
-0.0020398 -0.00091361 0.00062252 0.00045301
0.0016315 0.0098909 0.22326 0.24165 0.0039259 0.00090364 -0.0015034 -0.00061452
-0.00085924 0.00014124 -0.00090763 -0.00048234
-0.003381 0.00018634 0.0039365 0.00087802 0.25886 -0.19717 0.00052184 0.0017119
-0.0019973 -0.00028977 -0.00043375 -0.00079124
0.0031134 -0.0011748 -0.001509 -0.00061446 0.00051639 0.0017078 0.24174 0.0055278
-0.0058764 0.010687 0.0016537 -0.0021697
-0.0020426 -0.00089525 -0.0008585 0.00015 -0.0020018 -0.00028738 -0.0058492 0.010693
0.20604 0.12176 -0.0006657 0.0095787
0.00063091 0.00045821 -0.00091312 -0.00048021 -0.00043276 -0.00080173 0.0016476 -0.0021756
-0.00066705 0.00958 0.25566 0.1769
1760000000 0.27772 -0.071242 0.0042644 0.006751 -0.002104 0.00091794 0.0013432 -0.0034448
-0.0014989 0.00051905 0.00049961 -0.00058721
0.004264 0.0067475 0.2492 0.20148 0.0017881 -0.00091433 -0.0012093 0.00019359
-0.00092986 0.0010187 -0.00054984 0.00040113
-0.0021072 0.00094328 0.0017888 -0.00092075 0.20976 -0.22996 0.0013126 0.0011045
-0.0012478 0.0014472 -0.0012368 -0.00060191
0.001322 -0.0034512 -0.0012085 0.00020252 0.0013034 0.0010978 0.23344 -0.045623
-0.0016259 0.010432 -8.2166e-05 -0.0024808
-0.0014904 0.00053308 -0.00092124 0.0010385 -0.001245 0.0014532 -0.0016073 0.01043
0.22106 0.088069 0.0034294 0.0073103
0.00050084 -0.00058997 -0.00055125 0.0004084 -0.0012367 -0.00060102 -8.3394e-05 -0.0024879
0.0034342 0.0073154 0.26877 0.13932
1820000000 0.25283 -0.1087 0.0047291 0.003061 1.4837e-05 0.0022656 -0.0010014 -0.0030876
-0.0013037 0.00093454 -8.8107e-06 -0.000104
0.004727 0.0030654 0.25901 0.17108 1.3808e-06 -9.5798e-06 -0.0013389 0.00097802
0.00013265 0.0013196 -0.00056364 0.00053656
1.4796e-05 0.0022591 7.7542e-07 -1.2278e-05 0.16018 -0.24503 0.0015135 0.00030743
-0.0002858 0.002425 -0.0014017 0.00031382
-0.0010153 -0.0030925 -0.0013342 0.00098465 0.0015211 0.00030562 0.20438 -0.092932
0.00080045 0.0088169 -0.001456 -0.0015446
-0.0013025 0.00093728 0.00014177 0.0013161 -0.00027655 0.0024272 0.00082934 0.0088218
0.23885 0.06011 0.0045238 0.0040478
-3.1979e-07 -9.5621e-05 -0.00055362 0.00054313 -0.0013963 0.00031963 -0.0014645 -0.001547
0.0045251 0.0040433 0.27185 0.10371
1880000000 0.21735 -0.14915 0.0027197 0.0005583 -0.00042092 0.0019153 -0.003 -0.0022288
-0.00025421 0.0018328 0.0002743 -0.00059638
0.0027122 0.00055765 0.26308 0.12437 -0.002126 0.0016043 -0.00020102 0.0016697
0.00067372 0.0010701 9.2966e-05 0.00094338
-0.00041676 0.0019462 -0.0021187 0.0016132 0.10779 -0.25472 0.0017063 -0.0010026
0.0015533 0.0019975 -0.0010738 0.0013477
-0.0030083 -0.002227 -0.00019 0.0016797 0.0017084 -0.00099694 0.16454 -0.1335
0.002359 0.0064145 -0.0022364 0.00032172
-0.00022377 0.0018307 0.00068511 0.0010652 0.0015669 0.0019997 0.0023771 0.0064054
0.24267 0.028456 0.0050035 0.002088
0.00028165 -0.00060251 9.7576e-05 0.00093921 -0.0010625 0.0013496 -0.0022271 0.00033421
0.005002 0.0020952 0.27199 0.069483
1940000000 0.17757 -0.17471 0.00054359 -0.0013331 0.0012463 0.0020123 -0.0037352 0.00052876
0.0013788 0.0011842 -0.0008197 -0.00057053
0.0005468 -0.0013196 0.26325 0.092519 -0.0011234 0.0037751 0.0010202 0.0013403
0.0017442 0.00029398 0.00078593 0.00029891
0.0012415 0.0019847 -0.0010928 0.003787 0.061805 -0.24781 0.00030446 -0.0019999
0.0024623 0.00043199 0.00016674 0.0016434
-0.0037292 0.00053767 0.0010295 0.0013383 0.00031131 -0.0019985 0.11264 -0.1647
0.001932 0.0043695 -0.0013225 0.0013898
0.0013894 0.0011639 0.0017493 0.00027746 0.0024507 0.00042109 0.0019332 0.0043661
0.24571 -0.010215 0.0040761 -0.0015752
-0.00082698 -0.00056335 0.00078566 0.00029026 0.00017489 0.001628 -0.0013221 0.0013817
0.0040853 -0.0015757 0.26166 0.03427
2000000000 0.13088 -0.18909 -0.0034057 0.00046246 0.0024235 0.0017349 -0.0024029 0.0033972
0.0012435 0.00010944 -0.00073972 0.00038923
-0.0033985 0.00047228 0.24864 0.057113 -0.0010168 0.0056417 0.0016104 0.00039192
0.0010855 -0.001371 0.00050053 0.00012357
0.0024387 0.0017347 -0.00097805 0.005666 0.018513 -0.2331 -0.0012577 -0.0012642
0.0019766 -0.0011562 0.0016216 0.0012164
-0.0023651 0.0034254 0.0016154 0.00038721 -0.0012584 -0.001259 0.058989 -0.17527
0.00034344 0.0034411 -0.00012701 0.0020031
0.001246 9.7067e-05 0.0010744 -0.0013782 0.0019818 -0.0011704 0.00035361 0.0034414
0.24052 -0.044423 0.00093963 -0.0026798
