!Keysight Technologies,M9804A,MY58100912,A.14.10.03
!Date: Thursday, April 27, 2023 10:28:33
!Correction: S11(C  6-Port  ) 
!S12(C  6-Port  ) 
!S13(C  6-Port  ) 
!S14(C  6-Port  ) 
!S15(C  6-Port  ) 
!S16(C  6-Port  ) 
!S21(C  6-Port  ) 
!S22(C  6-Port  ) 
!S23(C  6-Port  ) 
!S24(C  6-Port  ) 
!S25(C  6-Port  ) 
!S26(C  6-Port  ) 
!S31(C  6-Port  ) 
!S32(C  6-Port  ) 
!S33(C  6-Port  ) 
!S34(C  6-Port  ) 
!S35(C  6-Port  ) 
!S36(C  6-Port  ) 
!S41(C  6-Port  ) 
!S42(C  6-Port  ) 
!S43(C  6-Port  ) 
!S44(C  6-Port  ) 
!S45(C  6-Port  ) 
!S46(C  6-Port  ) 
!S51(C  6-Port  ) 
!S52(C  6-Port  ) 
!S53(C  6-Port  ) 
!S54(C  6-Port  ) 
!S55(C  6-Port  ) 
!S56(C  6-Port  ) 
!S61(C  6-Port  ) 
!S62(C  6-Port  ) 
!S63(C  6-Port  ) 
!S64(C  6-Port  ) 
!S65(C  6-Port  ) 
!S66(C  6-Port  ) 
!S6P File: Measurement: :
# Hz S  RI   R 50
500000000 -0.33674 -0.040991 -0.0096478 -0.0025415 -0.0080966 0.01239 -0.0045092 0.012385
0.012919 0.0045053 -0.0052292 0.0093119
-0.0096611 -0.0025245 -0.41851 -0.052579 0.0083264 -0.010632 0.0015349 0.012194
0.0075604 0.0020048 0.0018135 0.013385
-0.008113 0.012399 0.0083236 -0.010661 -0.26494 0.20823 0.007719 0.0035211
-0.0022401 0.0078932 0.0015644 0.011977
-0.0044913 0.0124 0.0015266 0.01232 0.0077696 0.0036059 -0.33161 0.040293
-0.019483 -0.0063591 0.016375 0.026405
0.01263 0.0045438 0.00775 0.0019061 -0.002026 0.0078066 -0.019478 -0.0063425
-0.21776 -0.20667 -0.026351 0.0053198
-0.0051396 0.0093156 0.0015187 0.013478 0.001427 0.012202 0.01634 0.026371
-0.026279 0.0052316 -0.26147 -0.1475
560000000 -0.31594 0.12128 -0.023346 -0.063541 -0.00015405 0.01221 0.0052816 0.010907
0.010143 0.0050362 0.010966 0.0080412
-0.023347 -0.063458 -0.37734 0.10712 -0.040945 -0.038115 0.014118 0.0040033
-0.01326 -0.0053643 0.0032414 0.00013618
-0.00011581 0.012199 -0.041125 -0.038114 -0.18349 0.25647 -0.00079194 -0.0042168
0.019589 0.0050383 0.0065491 -0.0058015
0.0051605 0.010931 0.014309 0.0042681 -0.00096017 -0.0043275 -0.30679 0.13023
0.0039898 -0.024085 0.0046573 -0.022144
0.010155 0.0048162 -0.013104 -0.0053876 0.019792 0.0052094 0.0039497 -0.024123
-0.28854 -0.030061 0.009442 -0.04959
0.011122 0.0080227 0.002971 -3.2126e-05 0.0066405 -0.0057944 0.0046432 -0.022229
0.009467 -0.049606 -0.32942 0.0044254
620000000 -0.27583 0.10455 -0.023247 0.0077722 0.0029414 0.0083632 0.0080675 -0.0053457
0.010777 -7.135e-05 0.0016971 -0.0023987
-0.023244 0.0077663 -0.40256 0.05835 -0.018688 -0.00029177 -0.0012906 -0.0020631
0.011333 -0.0063979 0.0017603 -0.0032497
0.0028779 0.0084032 -0.018702 -0.00025047 -0.15443 0.2654 -0.0012384 -0.0053859
-0.0032071 -0.0022967 0.0083882 -0.0035726
0.0079737 -0.005454 -0.0012919 -0.0019713 -0.0013812 -0.0052967 -0.26704 0.14186
-0.038531 -0.020137 0.012609 0.027144
0.010963 1.6062e-05 0.011277 -0.0064351 -0.0030135 -0.0023875 -0.038586 -0.020146
-0.20624 -0.06873 -0.042588 0.013873
0.001987 -0.0023623 0.0016092 -0.003126 0.0082731 -0.0035108 0.012633 0.027174
-0.04255 0.013822 -0.2475 -0.034541
680000000 -0.23521 0.19081 -0.027312 -0.014632 0.0046384 0.0051493 0.0016709 -0.0071663
-0.00342 -0.011194 0.0056311 -0.0068172
-0.027276 -0.014633 -0.38807 0.15662 -0.032863 -0.0016101 -0.0016089 -0.00044833
-0.0022189 -0.0088119 -0.0010016 -0.001746
0.004639 0.005134 -0.032901 -0.0015234 -0.10289 0.28556 -0.00067203 -0.00016509
-0.0017529 0.00064676 -0.0027857 -0.0092713
0.0016916 -0.0071564 -0.001696 -0.00044044 -0.00072142 -0.00017737 -0.22184 0.19335
-0.023677 -0.007644 -0.0099247 -0.012247
-0.0033712 -0.01117 -0.0022075 -0.0087943 -0.0017796 0.00062836 -0.02368 -0.0075886
-0.26023 0.031163 -0.0053417 -0.0086503
0.0056835 -0.0069719 -0.00089015 -0.0016487 -0.002738 -0.0092473 -0.0099776 -0.012193
-0.0053057 -0.0086885 -0.26133 0.07421
740000000 -0.1913 0.1855 -0.039012 0.026932 0.012414 -0.004913 -0.00015248 -0.0043467
-0.0037174 -0.0027389 -0.0062444 0.0023914
-0.038954 0.026891 -0.33528 0.17559 -0.035704 0.034985 -0.00080464 -0.0061812
-0.011402 0.0077593 -0.0022542 -0.006628
0.012386 -0.0049123 -0.035672 0.035104 -0.068933 0.28416 -0.002357 0.0030192
-0.0021337 -0.0047551 -0.0017541 -0.00010788
-0.00012794 -0.0042762 -0.00088662 -0.0062825 -0.0023391 0.0030227 -0.20519 0.2011
-0.044578 -0.0074855 0.023499 0.015918
-0.0036865 -0.0025888 -0.01137 0.0077875 -0.0021419 -0.0046583 -0.044571 -0.0074094
-0.1585 0.058039 -0.045566 -0.00035595
-0.0061833 0.0025186 -0.0022692 -0.0066653 -0.0017475 -6.7667e-05 0.023484 0.015887
-0.04557 -0.00041127 -0.2522 0.079698
800000000 -0.15883 0.22623 -0.022681 0.016571 0.0051768 -0.010584 -0.0046832 -0.002304
-0.0040579 0.0021727 0.0049172 2.2875e-05
-0.022665 0.016549 -0.33863 0.24589 -0.0080048 0.033913 -0.0023371 0.0021823
-0.00055341 0.0027421 0.0010793 0.0052164
0.0051609 -0.01061 -0.0079162 0.033967 -0.028386 0.30743 0.0009661 0.0014375
0.00029113 0.0034381 -0.0017964 0.0007405
-0.0046981 -0.0023255 -0.002347 0.0022301 0.00095888 0.0014393 -0.17685 0.22942
-0.029002 0.013946 0.014188 -0.010533
-0.0040335 0.0021764 -0.00065112 0.0027857 0.00028988 0.0033844 -0.02898 0.014017
-0.20883 0.082389 -0.018075 0.019034
0.004847 -5.7448e-05 0.0010114 0.0052273 -0.0018234 0.00070586 0.01417 -0.010549
-0.01814 0.019023 -0.24862 0.13054
860000000 -0.12415 0.24693 -0.017791 0.03057 -0.0033877 -0.009846 -0.0022974 0.00084936
0.0040288 0.00465 -0.0033843 -0.0032066
-0.01779 0.030552 -0.291 0.2879 0.0077005 0.034055 4.2351e-05 0.0020057
0.0041765 3.3197e-05 0.0032985 0.00062688
-0.0034134 -0.0098615 0.0078166 0.034041 0.019801 0.31529 -0.00054525 -0.00022414
0.0028415 -0.0015173 0.0013539 0.0044364
-0.0023492 0.00092467 1.1139e-05 0.0019971 -0.00052681 -0.00024294 -0.13999 0.24055
-0.018229 0.018765 -0.0063851 -0.0090792
0.0039961 0.0046412 0.0041629 6.8545e-05 0.0028595 -0.0015334 -0.018216 0.018815
-0.1572 0.13567 -0.027297 0.015163
-0.0034095 -0.0032391 0.0033558 0.00057518 0.0013534 0.0043618 -0.0063691 -0.0090946
-0.027306 0.015165 -0.19682 0.17869
920000000 -0.099439 0.27035 0.0048923 0.037992 -0.0093365 -0.0042461 -0.0019157 0.0019311
0.00086617 0.0017007 0.0025837 -0.0015469
0.0048762 0.037981 -0.26224 0.30935 0.027829 0.022007 0.0014138 0.0011755
0.00708 -0.00023733 0.0038145 -0.0027089
-0.0093473 -0.0042217 0.027928 0.021941 0.066027 0.31581 0.0018548 4.0809e-05
0.0010669 -0.00027982 0.00084775 -0.0010495
-0.0018507 0.0019211 0.001361 0.0011992 0.0018516 3.278e-05 -0.11611 0.25753
-0.011031 0.031196 0.0039053 -0.0065915
0.00081682 0.0017153 0.0070593 -0.00027182 0.0010589 -0.0002784 -0.010997 0.031237
-0.14815 0.14223 -0.0031905 0.028026
0.0025266 -0.0015403 0.0039965 -0.0027349 0.00088397 -0.00097015 0.0039437 -0.0065539
-0.0031858 0.028004 -0.20898 0.19282
980000000 -0.051879 0.28985 0.017426 0.030082 -0.0088583 0.0047396 0.0021385 0.0035459
0.0039382 -0.0013644 -0.0033857 -0.002159
0.017379 0.030084 -0.20905 0.3434 0.03282 0.0051012 0.0020613 3.6979e-05
0.0015696 -0.0056608 -0.00036013 -0.0024387
-0.0088436 0.0047751 0.032869 0.00497 0.11214 0.30916 0.00052344 -0.0011482
0.00035599 -0.0020218 0.001486 -0.0001987
0.0021512 0.0035789 0.0020205 2.0166e-05 0.00053281 -0.0011435 -0.077459 0.26882
0.0078071 0.030601 -0.0091941 -0.0075324
0.0038518 -0.0013778 0.0015799 -0.0056652 0.00032852 -0.0020504 0.0078503 0.030604
-0.11689 0.17209 0.0043318 0.019826
-0.0033971 -0.0021122 -0.00031847 -0.002376 0.0014587 -0.00018378 -0.009212 -0.0075042
0.0043033 0.019839 -0.16627 0.24039
1040000000 -0.0095765 0.29811 0.033118 0.018401 -0.001114 0.0068876 0.0025618 0.00058696
5.5143e-05 -0.0036869 -0.00015934 -0.0014413
0.033095 0.018431 -0.17328 0.35632 0.029295 -0.014489 0.0015263 -0.00168
-0.0023678 -0.0024601 -0.0012808 -0.0024645
-0.0010862 0.0068947 0.029254 -0.014636 0.15787 0.29537 -0.00047049 -0.0016046
-0.0015623 -0.00085136 -0.00041664 -0.0011092
0.0025687 0.00058598 0.0014908 -0.0016894 -0.00047255 -0.0015636 -0.05018 0.27897
0.019507 0.018807 -0.00201 0.0014878
3.2465e-05 -0.0036836 -0.002493 -0.002487 -0.0015946 -0.00085611 0.019562 0.018768
-0.084406 0.1805 0.013137 0.019648
-0.00016249 -0.0014554 -0.001247 -0.0025286 -0.00040526 -0.0011536 -0.0020058 0.0014944
0.013153 0.019669 -0.14618 0.26168
1100000000 0.03576 0.30592 0.035735 -0.0039957 0.0030014 0.0038033 0.0023009 -0.0013578
-0.0020075 -0.003165 -0.0038333 4.6166e-05
0.035705 -0.0039674 -0.12993 0.37331 0.015246 -0.027432 -2.571e-05 -0.0017752
-0.0032076 -0.00088411 -0.0034337 -0.0004678
0.0030254 0.003798 0.015163 -0.027529 0.20387 0.27532 -0.001872 0.00017653
-0.0017389 0.00041924 -0.0010845 -0.00042461
0.0023057 -0.0013622 -4.0864e-05 -0.0017834 -0.0018659 0.0001771 -0.0097659 0.28393
0.02502 0.0057069 -0.0025102 -0.00012752
-0.0020341 -0.0032112 -0.0032061 -0.00088698 -0.0017379 0.00041402 0.025025 0.0056598
-0.066516 0.19441 0.019104 0.0094468
-0.0038116 -2.5794e-05 -0.0034333 -0.00046864 -0.001081 -0.00041341 -0.0025121 -0.00012552
0.019082 0.0094586 -0.10084 0.2939
1160000000 0.087265 0.30082 0.024014 -0.020361 0.0027904 -0.00062069 -0.00038275 -0.0023658
-0.0041057 -0.00087141 -0.00092267 0.0040347
0.024019 -0.020315 -0.086355 0.37718 -0.0033895 -0.028863 -0.0016737 -0.0016443
-0.0027361 0.0022902 -0.0013744 0.0018502
0.0027869 -0.00062174 -0.0035402 -0.028884 0.24679 0.24493 -0.00068892 0.0017052
-0.00069055 0.001898 -0.00094289 0.00021017
-0.00037438 -0.0023656 -0.0016784 -0.0016593 -0.00069731 0.0017047 0.029508 0.28113
0.021891 -0.010067 -0.0030622 0.0051473
-0.0040884 -0.00082327 -0.0027753 0.0022658 -0.00074637 0.0018847 0.021868 -0.010105
-0.032399 0.20371 0.018425 0.0015905
-0.00091786 0.0040519 -0.0013756 0.0018229 -0.00098142 0.00022645 -0.0030422 0.0051537
0.018444 0.0016025 -0.053641 0.29734
1220000000 0.13148 0.28959 0.010673 -0.029693 -0.0015601 -0.00096381 -1.2194e-05 -0.00084074
-0.0026355 0.0023623 0.0013126 0.0020278
0.010677 -0.029657 -0.042287 0.38914 -0.016462 -0.021101 -0.00248 0.00039999
-9.4219e-05 0.0028982 -0.00085707 0.0018674
-0.0015634 -0.00093718 -0.016579 -0.021049 0.28613 0.20635 0.00076729 0.0015973
0.0005216 0.0012202 0.00029062 0.00068087
-2.4381e-06 -0.00085408 -0.0024661 0.00040707 0.00076417 0.0015902 0.069286 0.27282
0.011278 -0.016966 0.0022697 0.0013701
-0.002629 0.002355 -6.6873e-05 0.0028908 0.00055484 0.001193 0.011256 -0.016982
-0.010405 0.21266 0.01496 -0.011958
0.001282 0.0019939 -0.00084799 0.0018616 0.00031542 0.00068 0.0022602 0.0013674
0.014955 -0.011946 -0.02326 0.31623
1280000000 0.18098 0.26748 -0.0074387 -0.028304 -0.0019027 0.0022839 -0.00084265 -0.0019498
-0.00081477 0.0029407 0.0024601 0.0011931
-0.0074232 -0.028284 0.00328 0.38018 -0.023304 -0.0087835 -0.0010191 0.0014049
0.0014884 0.0018201 0.00057234 0.0020888
-0.0018861 0.0022977 -0.023386 -0.0086906 0.31707 0.16267 0.0015745 4.8625e-05
0.0011482 0.00041463 0.00046998 0.00035944
-0.00084577 -0.0019554 -0.0010039 0.0014046 0.0015726 5.1076e-05 0.10606 0.25649
0.0021059 -0.01939 -0.00019549 -5.0118e-06
-0.00079516 0.0029258 0.0015204 0.0018537 0.0011321 0.00038774 0.0020631 -0.019405
0.026239 0.21635 0.0039305 -0.014648
0.0024732 0.0011757 0.00056782 0.0020813 0.00047117 0.00035047 -0.00018038 -1.6462e-05
0.0039496 -0.014635 0.025538 0.3201
1340000000 0.21779 0.23371 -0.017073 -0.019142 0.00070601 0.0043656 -0.0015775 -0.00081749
0.0014147 0.0027411 0.0017514 -0.0012954
-0.017048 -0.019153 0.042469 0.37223 -0.021444 0.0037834 -0.0002126 0.0019815
0.0018321 0.00097692 0.0013147 0.00082787
0.00072716 0.0043702 -0.021446 0.0038991 0.33963 0.11477 0.0011417 -0.00081987
0.00077851 -0.00041125 0.00022645 0.00033843
-0.0015839 -0.00081537 -0.00020145 0.0019894 0.0011393 -0.00082866 0.13827 0.23642
-0.0075399 -0.017196 0.00083162 0.00043619
0.0014323 0.0027437 0.0018421 0.00098055 0.00076909 -0.00042211 -0.0075817 -0.017199
0.055214 0.21173 -0.002423 -0.013549
0.0017475 -0.0013136 0.0013138 0.00082661 0.00022017 0.00034469 0.00083148 0.00042557
-0.0024071 -0.013549 0.063502 0.3174
1400000000 0.2505 0.19574 -0.023028 -0.0079035 0.0049437 0.0030507 -0.0020012 0.00049381
0.0023085 0.00086493 0.0003757 -0.001301
-0.023004 -0.0079187 0.079681 0.35945 -0.014958 0.011934 0.0012601 0.0014047
0.0012011 -0.00062891 0.0012668 0.00031131
0.0049517 0.0030314 -0.014921 0.012024 0.35308 0.060765 0.00025946 -0.0016095
-1.8324e-05 -0.0004459 0.00044436 0.00018089
-0.0020073 0.00050732 0.001261 0.001391 0.0002551 -0.0016108 0.16771 0.20787
-0.013722 -0.010979 -0.001057 -0.00061269
0.0023095 0.00085051 0.0011994 -0.00063989 -1.2166e-05 -0.00044084 -0.01376 -0.010956
0.087662 0.20797 -0.0089325 -0.0095058
0.00036312 -0.0013218 0.0012763 0.0003073 0.00044135 0.00019699 -0.0010504 -0.00061891
-0.0089229 -0.0095122 0.10956 0.30767
1460000000 0.27317 0.15195 -0.020354 0.0041298 0.0054076 -0.0016988 -0.0016478 0.0016068
0.0020359 -0.00041895 -0.00029649 -0.00098046
-0.020331 0.0041069 0.11398 0.338 -0.0065764 0.01498 0.0017601 0.00023068
0.001066 -0.0012989 0.0011969 -0.00059295
0.0054014 -0.0017154 -0.0064963 0.015039 0.35916 0.0059369 -0.0012258 -0.0013301
0.00012829 -0.00026139 0.00050964 -0.00037541
-0.0016464 0.0016183 0.0017783 0.00021722 -0.0012121 -0.0013214 0.19391 0.17909
-0.015715 -0.0045638 -0.0011843 0.0020413
0.0020314 -0.00042433 0.0010451 -0.0013074 0.00014611 -0.00030227 -0.015739 -0.0045222
0.11577 0.19364 -0.011252 -0.0036296
-0.00030717 -0.00098958 0.0011988 -0.00061434 0.00052156 -0.00039066 -0.0011796 0.0020477
-0.011272 -0.0036379 0.14385 0.28765
1520000000 0.28539 0.11049 -0.015042 0.0097729 0.003222 -0.0039839 8.8295e-06 0.0026076
0.0021607 -0.0015629 -0.0011144 -0.00024493
-0.015048 0.0097602 0.14774 0.32334 0.0011204 0.013105 0.0017179 -0.00076182
0.00012177 -0.0011551 0.00036695 -0.0010303
0.0032103 -0.004002 0.001191 0.0131 0.35198 -0.050604 -0.0011547 -0.00042531
0.00062601 -0.00076572 3.8453e-05 -4.5812e-05
2.0066e-05 0.0026125 0.0017124 -0.00076964 -0.0011666 -0.00043388 0.21722 0.14182
-0.015944 0.001287 0.001295 0.0022448
0.0021445 -0.0015801 0.00012243 -0.0011634 0.00061181 -0.00078564 -0.015959 0.001336
0.14274 0.18057 -0.011787 0.00053736
-0.0011148 -0.00024094 0.00035458 -0.0010199 4.9041e-05 -5.7689e-05 0.0013058 0.002243
-0.011781 0.00054269 0.17831 0.26883
1580000000 0.29486 0.064467 -0.0086296 0.013122 -0.00082237 -0.0047375 0.0013209 0.0019797
-0.00014229 -0.0020372 -0.00041427 0.00040469
-0.0086318 0.013106 0.17527 0.29863 0.0048372 0.0084976 0.00051493 -0.0016235
-0.00064667 -0.0012035 -0.00028617 -0.00079118
-0.00084474 -0.0047303 0.0048749 0.0084895 0.33132 -0.10828 -0.0016804 0.00064498
-0.00020577 -0.0011462 5.723e-05 -0.0004483
0.0013141 0.0019826 0.00049982 -0.0016407 -0.0017034 0.00064544 0.23139 0.10312
-0.01307 0.0068985 0.0022634 0.0011062
-0.00016663 -0.0020317 -0.00065559 -0.0012109 -0.00021473 -0.0011576 -0.013063 0.00694
0.16674 0.16384 -0.0096844 0.0066124
-0.00042887 0.00040777 -0.0002825 -0.00079196 8.7933e-05 -0.00044607 0.0022694 0.0011072
-0.0096783 0.0066148 0.21205 0.24214
1640000000 0.29714 0.02317 -0.0019493 0.012432 -0.0025754 -0.0025368 0.0027347 0.0010993
-0.00047467 -0.0015989 -0.00028165 0.00056297
-0.0019571 0.012416 0.20505 0.27348 0.0058024 0.003824 -0.00066393 -0.0017896
-0.0011459 -0.00042931 -0.00044621 -0.0007261
-0.0025912 -0.0025254 0.0058281 0.0038021 0.30279 -0.15732 -0.00069886 0.001527
-0.0010253 -0.0011566 -5.2969e-05 -0.00044492
0.0027624 0.0010917 -0.00067712 -0.0017896 -0.0007044 0.0015077 0.2442 0.054792
-0.0089811 0.0091354 0.0025431 -0.00064711
-0.000497 -0.0016052 -0.0011438 -0.00041901 -0.001028 -0.0011456 -0.0089621 0.0091752
0.18869 0.14087 -0.0052703 0.0088215
-0.0002946 0.00056748 -0.00044132 -0.00072412 -6.6429e-05 -0.00040796 0.0025369 -0.00065449
-0.0052837 0.0088276 0.23818 0.21141
1700000000 0.29004 -0.022394 0.0016461 0.0098908 -0.0033766 0.00016086 0.0031072 -0.0011666
-0.0020419 -0.0009143 0.00064111 0.0004438
0.00163 0.0098861 0.22327 0.24165 0.0039259 0.00090081 -0.0014986 -0.0006287
-0.00087071 0.00014884 -0.00090956 -0.00048247
-0.0033677 0.00015115 0.0039461 0.00088115 0.25892 -0.1972 0.00051745 0.0016981
-0.0019953 -0.00029745 -0.00043042 -0.00078587
0.0031147 -0.0011787 -0.0015101 -0.00061902 0.00052474 0.0017 0.24175 0.0055216
-0.0058784 0.010686 0.0016438 -0.0021721
-0.0020377 -0.00089266 -0.00086181 0.00015384 -0.001986 -0.0002956 -0.0058518 0.010703
0.20603 0.12177 -0.00067691 0.0095734
0.00062852 0.00044968 -0.00090394 -0.00048196 -0.00040974 -0.0007652 0.0016445 -0.0021793
-0.00067132 0.0095784 0.25564 0.17693
1760000000 0.27771 -0.071223 0.0042656 0.0067432 -0.0021579 0.00092823 0.0013448 -0.0034602
-0.0014931 0.00053275 0.00048164 -0.00058041
0.00425 0.0067451 0.24919 0.20147 0.0017801 -0.00092663 -0.0012073 0.00017975
-0.00094426 0.0010187 -0.00056542 0.00039886
-0.0021192 0.00094927 0.0017667 -0.00093452 0.20973 -0.22994 0.0013028 0.0010926
-0.0012393 0.0014357 -0.0012404 -0.00058744
0.0013355 -0.0034491 -0.0012156 0.000194 0.0012948 0.0011036 0.23344 -0.045644
-0.0016132 0.010425 -6.873e-05 -0.0024789
-0.0014808 0.00054848 -0.00093606 0.0010377 -0.00125 0.001441 -0.0015961 0.010425
0.22106 0.088068 0.0034209 0.0073085
0.00048464 -0.00058224 -0.00056725 0.0004116 -0.0012362 -0.00060958 -7.6469e-05 -0.0024864
0.0034069 0.0073196 0.26877 0.13934
1820000000 0.25281 -0.10872 0.0047372 0.003058 -1.2029e-05 0.0022212 -0.00099177 -0.0030912
-0.0013159 0.0009391 -6.2329e-06 -0.00010195
0.0047225 0.00306 0.25901 0.17108 -1.3685e-06 -3.829e-05 -0.0013392 0.0009771
0.00012198 0.0013146 -0.00055609 0.00053967
-2.7718e-07 0.0022627 6.9076e-06 -1.6417e-05 0.16017 -0.24515 0.0015034 0.00027793
-0.00025646 0.0024465 -0.0014206 0.00032582
-0.0010129 -0.0030884 -0.0013391 0.00098695 0.0014958 0.0003226 0.20436 -0.09293
0.00080294 0.0088154 -0.001478 -0.0015488
-0.0012962 0.00095286 0.00013532 0.0013189 -0.00027753 0.0024608 0.00083433 0.0088137
0.23884 0.06014 0.0045237 0.004051
-1.6199e-06 -9.4699e-05 -0.00057019 0.00054677 -0.0013891 0.00030584 -0.0014719 -0.0015456
0.0045268 0.0040531 0.27182 0.10375
1880000000 0.21731 -0.14913 0.0027015 0.00056019 -0.00045646 0.0019465 -0.0029864 -0.002226
-0.00024953 0.0018518 0.00026812 -0.00057754
0.0027085 0.00056657 0.26308 0.12435 -0.0021386 0.0015901 -0.0002024 0.00167
0.00067798 0.0010617 8.3762e-05 0.0009349
-0.00043288 0.0019261 -0.002126 0.0015917 0.10784 -0.25476 0.0017237 -0.00098209
0.0015437 0.0019917 -0.001073 0.0013605
-0.0030126 -0.0022044 -0.0002002 0.0016814 0.0017138 -0.00099201 0.16453 -0.1335
0.0023538 0.0064179 -0.0022483 0.0003321
-0.00023193 0.0018582 0.00067688 0.0010598 0.0015446 0.0020042 0.0023705 0.0064197
0.24267 0.028453 0.0050078 0.0020523
0.00026973 -0.00059139 9.4546e-05 0.00092642 -0.0010549 0.0013423 -0.0022449 0.00034319
0.0049953 0.0020552 0.27195 0.069528
1940000000 0.17756 -0.17468 0.00052531 -0.0013306 0.0012558 0.0019575 -0.0037448 0.00051848
0.0013739 0.0011662 -0.00079643 -0.00057165
0.00053339 -0.0013322 0.26325 0.092522 -0.0011149 0.0038 0.0010197 0.0013455
0.0017423 0.00028858 0.00077354 0.00028849
0.001262 0.0019789 -0.0010776 0.0037973 0.061781 -0.24788 0.0003148 -0.0020305
0.0024751 0.00044828 0.00016204 0.0016181
-0.0037355 0.00054487 0.0010301 0.0013387 0.00030023 -0.0020306 0.11263 -0.16469
0.0019077 0.0043692 -0.0013257 0.0013714
0.0013822 0.0011756 0.0017522 0.00026911 0.0024597 0.0004158 0.0019214 0.0043604
0.24569 -0.010214 0.0040882 -0.0015927
-0.00082897 -0.00055861 0.00079846 0.00028331 0.00013211 0.0016116 -0.0013114 0.0013691
0.0040691 -0.0015899 0.26166 0.034271
2000000000 0.13092 -0.18906 -0.0033971 0.00049563 0.0024472 0.0017421 -0.002399 0.0034035
0.0012578 0.00011645 -0.00074383 0.00041834
-0.003384 0.00048488 0.24867 0.057112 -0.00097671 0.0056487 0.0016131 0.00038991
0.001097 -0.0013525 0.00050094 0.0001361
0.0024738 0.0017346 -0.00095477 0.0056566 0.018561 -0.23306 -0.0012526 -0.0012322
0.0019659 -0.0011387 0.001623 0.0013008
-0.0023595 0.0034382 0.0016159 0.00038452 -0.001237 -0.0012366 0.058992 -0.17524
0.00033982 0.0034323 -0.00011945 0.0020323
0.0012456 8.8856e-05 0.0010845 -0.0013804 0.0019649 -0.0011797 0.0003477 0.0034366
0.24051 -0.04442 0.00094932 -0.0026787
