!Keysight Technologies,M9804A,MY58100912,A.14.10.03
!Date: Thursday, April 27, 2023 10:28:33
!Correction: S11(C  6-Port  ) 
!S12(C  6-Port  ) 
!S13(C  6-Port  ) 
!S14(C  6-Port  ) 
!S15(C  6-Port  ) 
!S16(C  6-Port  ) 
!S21(C  6-Port  ) 
!S22(C  6-Port  ) 
!S23(C  6-Port  ) 
!S24(C  6-Port  ) 
!S25(C  6-Port  ) 
!S26(C  6-Port  ) 
!S31(C  6-Port  ) 
!S32(C  6-Port  ) 
!S33(C  6-Port  ) 
!S34(C  6-Port  ) 
!S35(C  6-Port  ) 
!S36(C  6-Port  ) 
!S41(C  6-Port  ) 
!S42(C  6-Port  ) 
!S43(C  6-Port  ) 
!S44(C  6-Port  ) 
!S45(C  6-Port  ) 
!S46(C  6-Port  ) 
!S51(C  6-Port  ) 
!S52(C  6-Port  ) 
!S53(C  6-Port  ) 
!S54(C  6-Port  ) 
!S55(C  6-Port  ) 
!S56(C  6-Port  ) 
!S61(C  6-Port  ) 
!S62(C  6-Port  ) 
!S63(C  6-Port  ) 
!S64(C  6-Port  ) 
!S65(C  6-Port  ) 
!S66(C  6-Port  ) 
!S6P File: Measurement: :
# Hz S  RI   R 50
500000000 -0.3369 -0.040716 -0.010061 -0.0025633 -0.0083701 0.012485 -0.0046415 0.012483
0.012726 0.0048304 -0.0054331 0.0092231
-0.01003 -0.0025577 -0.41884 -0.052501 0.0079915 -0.010727 0.0013658 0.012268
0.0078545 0.0017785 0.0014092 0.013348
-0.00831 0.012494 0.0079948 -0.010717 -0.26546 0.20852 0.0076276 0.00357
-0.0020878 0.0075502 0.0014234 0.012003
-0.0045955 0.012507 0.0014091 0.012314 0.0076343 0.003593 -0.33185 0.040935
-0.019589 -0.0063541 0.016 0.02639
0.01271 0.0047529 0.0078874 0.0017502 -0.0020476 0.0075295 -0.019559 -0.0063156
-0.21897 -0.20524 -0.026256 0.0053711
-0.0054145 0.0092653 0.001401 0.013356 0.0013965 0.012018 0.016006 0.026253
-0.026318 0.005342 -0.26258 -0.14495
560000000 -0.31628 0.12139 -0.023801 -0.063396 -0.0001414 0.012329 0.0051251 0.010861
0.010394 0.0053944 0.011165 0.0079909
-0.023778 -0.063357 -0.37705 0.10709 -0.04104 -0.038064 0.014066 0.0039633
-0.013068 -0.0048904 0.0029938 0.00015938
-0.00010088 0.012323 -0.041241 -0.03807 -0.18342 0.25722 -0.00064951 -0.0043252
0.019702 0.0051908 0.0066834 -0.0058147
0.0051511 0.010938 0.014086 0.0038736 -0.00058446 -0.0043026 -0.30704 0.13121
0.0036467 -0.024162 0.0042687 -0.021958
0.010397 0.0053645 -0.013092 -0.0048619 0.019622 0.0051747 0.0036634 -0.024236
-0.2889 -0.029172 0.0088995 -0.049271
0.011243 0.0079462 0.0029477 7.0164e-05 0.0067083 -0.0057955 0.0042165 -0.02201
0.0088938 -0.049307 -0.32873 0.0060558
620000000 -0.27619 0.10576 -0.023476 0.0076267 0.002981 0.0083422 0.0082227 -0.0050051
0.010738 -0.00028618 0.001677 -0.0022318
-0.023469 0.0076015 -0.40249 0.058486 -0.018566 -7.5969e-05 -0.0015221 -0.0019777
0.011517 -0.0065649 0.0016127 -0.0033205
0.0030321 0.0083381 -0.01863 -3.3356e-05 -0.15427 0.26588 -0.0014778 -0.0051627
-0.0029474 -0.0024699 0.0081881 -0.0037474
0.0082355 -0.0050056 -0.0014956 -0.0019848 -0.0014311 -0.0051837 -0.26668 0.14226
-0.038744 -0.01982 0.012703 0.027389
0.010736 -0.00038992 0.011484 -0.0065884 -0.0029731 -0.002456 -0.038794 -0.019748
-0.20633 -0.067417 -0.042624 0.013891
0.0016985 -0.0021916 0.0016229 -0.0033112 0.0081873 -0.0037431 0.012671 0.027348
-0.042572 0.013878 -0.24723 -0.031345
680000000 -0.23521 0.19178 -0.027491 -0.014321 0.0046271 0.0050871 0.0015614 -0.0071549
-0.0032997 -0.01125 0.0058039 -0.0071516
-0.027464 -0.014315 -0.38813 0.15689 -0.032869 -0.0014799 -0.0017162 -0.0004924
-0.001955 -0.0088552 -0.00068974 -0.0014968
0.0046439 0.0050952 -0.032903 -0.001387 -0.10266 0.2861 -0.00071712 -0.00027934
-0.0018263 0.00064564 -0.0028199 -0.0089737
0.001588 -0.0071785 -0.0017081 -0.00052656 -0.00070162 -0.00029445 -0.22156 0.19355
-0.023885 -0.0072219 -0.0095589 -0.011567
-0.0033197 -0.011252 -0.0019924 -0.0088556 -0.0018091 0.00064308 -0.023898 -0.0071635
-0.25996 0.032881 -0.0055394 -0.0088882
0.0058125 -0.0071914 -0.00072061 -0.0014883 -0.0028311 -0.0089811 -0.0096394 -0.011603
-0.0055368 -0.0088426 -0.26172 0.075659
740000000 -0.19099 0.1863 -0.038632 0.027116 0.012455 -0.0047635 -0.00013285 -0.004391
-0.0038247 -0.0026666 -0.0063024 0.0024526
-0.038558 0.027075 -0.33523 0.17618 -0.03564 0.035115 -0.0007163 -0.0061357
-0.011635 0.0079352 -0.0022584 -0.0067059
0.012474 -0.004815 -0.03558 0.035234 -0.068946 0.28437 -0.0022041 0.0031399
-0.0022345 -0.0049699 -0.0015863 -0.00014955
-0.0001548 -0.0043475 -0.00073448 -0.0061818 -0.0022028 0.0031355 -0.2049 0.20128
-0.044535 -0.0069777 0.02352 0.015731
-0.0038302 -0.0026168 -0.011582 0.0079661 -0.0022455 -0.0050071 -0.044578 -0.0069153
-0.15737 0.059784 -0.045334 3.0163e-05
-0.0063366 0.0024427 -0.0022933 -0.0067113 -0.0015875 -0.00016509 0.023599 0.015694
-0.045338 2.4095e-05 -0.25111 0.081531
800000000 -0.15829 0.22649 -0.022299 0.016645 0.0052994 -0.010717 -0.0046557 -0.0021009
-0.0039545 0.0022193 0.0047621 -6.9571e-05
-0.022293 0.016621 -0.33849 0.24609 -0.0078352 0.034009 -0.0024318 0.0022692
-0.0007414 0.0028562 0.00096678 0.0051356
0.0052651 -0.01073 -0.0077505 0.034064 -0.028304 0.30766 0.00096387 0.0015101
0.00040422 0.0033349 -0.0018148 0.00076547
-0.0046932 -0.0020895 -0.0024406 0.0022812 0.00096182 0.0015103 -0.17663 0.22954
-0.028993 0.014173 0.014216 -0.010417
-0.003985 0.0022185 -0.00071144 0.0028693 0.00040411 0.0033416 -0.028992 0.014215
-0.20809 0.083818 -0.017843 0.019468
0.004768 -9.8108e-05 0.00099717 0.0051342 -0.0018104 0.00076237 0.014208 -0.010477
-0.017796 0.0195 -0.24796 0.13235
860000000 -0.12367 0.24698 -0.017535 0.030478 -0.0033873 -0.010066 -0.0023409 0.00087999
0.0039361 0.0046115 -0.0033705 -0.0033539
-0.01754 0.030451 -0.29096 0.28804 0.0078942 0.034128 -0.00011051 0.00198
0.0039666 9.1323e-05 0.0034571 0.00059272
-0.0034027 -0.010055 0.0080229 0.034132 0.019835 0.31553 -0.00055284 -0.00014849
0.0026374 -0.0015137 0.0014763 0.0041458
-0.0023121 0.00087064 -5.9645e-05 0.0020024 -0.00054715 -0.00014127 -0.13994 0.24066
-0.018399 0.018877 -0.0062246 -0.0089962
0.0039239 0.0045852 0.0039896 8.0271e-05 0.0026505 -0.001505 -0.018393 0.018944
-0.15685 0.13619 -0.026606 0.015299
-0.0033864 -0.0033706 0.0034704 0.00057219 0.0014803 0.0041287 -0.0062443 -0.0090284
-0.026609 0.015222 -0.1955 0.18009
920000000 -0.099001 0.27035 0.005044 0.037926 -0.0094613 -0.0043568 -0.0018143 0.0019352
0.00083303 0.0017985 0.0025307 -0.0016364
0.0050243 0.037917 -0.26209 0.30945 0.028016 0.021942 0.0013787 0.0011551
0.0071208 -0.00032553 0.0039579 -0.0027499
-0.0094717 -0.0043158 0.028133 0.021861 0.066017 0.3161 0.0018613 -1.5953e-05
0.0011021 -0.0002884 0.00085994 -0.00103
-0.0018218 0.0019525 0.0013849 0.001134 0.0018587 -2.5014e-05 -0.11618 0.2579
-0.01088 0.031465 0.0039951 -0.0066794
0.00082953 0.0017822 0.0071461 -0.00037738 0.0011019 -0.00031616 -0.010812 0.031524
-0.14715 0.14287 -0.002909 0.027993
0.002534 -0.0016229 0.0039286 -0.0027724 0.00085803 -0.0010447 0.0040039 -0.006702
-0.0029303 0.027919 -0.20778 0.19402
980000000 -0.051696 0.28976 0.017419 0.02993 -0.0090139 0.0047087 0.0020586 0.0034958
0.003871 -0.0012702 -0.0032243 -0.0020664
0.017375 0.029924 -0.20914 0.34321 0.033011 0.0049068 0.0020445 -3.2195e-05
0.0015519 -0.0057264 -0.00029566 -0.0023806
-0.0090158 0.0047374 0.0331 0.004785 0.11228 0.30958 0.00055637 -0.0011564
0.00026484 -0.0020898 0.0014406 -8.1998e-05
0.0020624 0.0034865 0.002047 -4.3143e-05 0.00055916 -0.0011441 -0.077367 0.26917
0.0080841 0.030844 -0.0090476 -0.007462
0.0038686 -0.0013028 0.0014969 -0.0057482 0.00026272 -0.0021065 0.0081774 0.030844
-0.11586 0.17258 0.0044766 0.019859
-0.0032367 -0.0020673 -0.00033459 -0.0023785 0.0014399 -8.7826e-05 -0.0090291 -0.0074674
0.004439 0.019797 -0.1654 0.24175
1040000000 -0.0095842 0.29805 0.03312 0.018252 -0.0012283 0.0070106 0.0024952 0.00058916
4.5739e-05 -0.0036736 -0.00020062 -0.0013973
0.033083 0.01827 -0.17356 0.35636 0.029279 -0.014756 0.0014424 -0.0017219
-0.0024904 -0.0026313 -0.0012655 -0.002519
-0.001216 0.0070242 0.02927 -0.014902 0.15825 0.29582 -0.00046118 -0.0015454
-0.0015563 -0.00090485 -0.00044706 -0.0011485
0.0024858 0.00057796 0.0014552 -0.0017235 -0.00046802 -0.0015561 -0.049875 0.27944
0.020023 0.018784 -0.0020435 0.0012885
1.265e-07 -0.0036883 -0.0024961 -0.0025874 -0.0015713 -0.00091751 0.020083 0.018756
-0.083194 0.18049 0.013538 0.019372
-0.00019636 -0.0014047 -0.0012862 -0.0024966 -0.00043926 -0.00116 -0.0020503 0.0012931
0.013495 0.019334 -0.14468 0.2626
1100000000 0.035846 0.30599 0.035761 -0.0041466 0.0029699 0.0039164 0.0022473 -0.0013058
-0.0019698 -0.003242 -0.0038391 2.3249e-05
0.035731 -0.0041132 -0.13014 0.37356 0.015095 -0.027685 -4.4054e-05 -0.0018141
-0.0032373 -0.00084941 -0.0034529 -0.00046689
0.0029748 0.0039083 0.014988 -0.027786 0.20446 0.2755 -0.0018671 0.00021455
-0.0018759 0.00046525 -0.0011167 -0.00037481
0.0022537 -0.0013325 -4.6344e-05 -0.0018124 -0.0018802 0.00022116 -0.0093288 0.28437
0.025551 0.0052872 -0.0026154 -0.0002161
-0.0019782 -0.0032297 -0.003254 -0.00083375 -0.0018579 0.00046693 0.025569 0.0052364
-0.065768 0.1943 0.019276 0.0091477
-0.0038359 4.4967e-05 -0.003466 -0.00043562 -0.0011243 -0.00037179 -0.0026492 -0.00020949
0.019231 0.0091415 -0.099417 0.29464
1160000000 0.087249 0.30102 0.023877 -0.020593 0.0028158 -0.0005272 -0.00034948 -0.0023501
-0.0041775 -0.00088232 -0.00097302 0.0040064
0.023867 -0.020558 -0.086422 0.37767 -0.0036909 -0.029022 -0.0017035 -0.0016749
-0.0027763 0.0023879 -0.001285 0.0018624
0.0028118 -0.00053932 -0.0038178 -0.029036 0.24755 0.24479 -0.00069575 0.001704
-0.00067248 0.0019434 -0.0010018 0.00027224
-0.00036361 -0.0023497 -0.001704 -0.0016518 -0.00070522 0.0017016 0.0301 0.28161
0.022072 -0.0107 -0.003138 0.0050251
-0.004178 -0.00087477 -0.0027559 0.0024172 -0.00065682 0.0019348 0.022078 -0.010735
-0.032079 0.20366 0.018649 0.0012605
-0.00094188 0.0040184 -0.0012935 0.0018832 -0.001011 0.00028606 -0.0031359 0.0050467
0.01864 0.0012876 -0.051972 0.29817
1220000000 0.13154 0.28977 0.01047 -0.029883 -0.0015676 -0.000949 6.5933e-06 -0.00084481
-0.0027015 0.0023652 0.0012345 0.0020391
0.010462 -0.029835 -0.042141 0.38953 -0.016794 -0.021069 -0.0024851 0.00042384
-6.2425e-05 0.0029892 -0.00083258 0.001905
-0.0015814 -0.00095476 -0.016907 -0.021016 0.28666 0.20581 0.00078128 0.0016675
0.00058642 0.0012403 0.00038007 0.00063065
4.8259e-06 -0.0008472 -0.0024919 0.00044381 0.00078527 0.0016696 0.07009 0.27304
0.011142 -0.017663 0.0021234 0.001401
-0.0026813 0.0023703 -3.4637e-05 0.0029883 0.00060031 0.0012385 0.011119 -0.017688
-0.010196 0.21269 0.014839 -0.012498
0.0012518 0.0020327 -0.00083518 0.0019166 0.00038119 0.00063172 0.0021292 0.0014155
0.01482 -0.012466 -0.021652 0.31655
1280000000 0.18117 0.26775 -0.0078123 -0.028392 -0.0018875 0.0023656 -0.00083443 -0.0019634
-0.0008291 0.0030122 0.0024445 0.0012035
-0.0077898 -0.028366 0.0037013 0.38049 -0.023597 -0.0085209 -0.00096221 0.0014232
0.0015646 0.0018539 0.00057407 0.0020776
-0.0018807 0.0023742 -0.023664 -0.0084241 0.31725 0.16196 0.0015861 6.4153e-05
0.0011302 0.00034105 0.00038664 0.00034499
-0.00083987 -0.0019572 -0.00095132 0.0014431 0.0015793 5.3666e-05 0.10689 0.25645
0.0015143 -0.019955 -0.0003277 6.4283e-05
-0.00081098 0.0030263 0.0015664 0.0018545 0.0011377 0.00034511 0.0014431 -0.019982
0.026567 0.21665 0.0036639 -0.015006
0.0024583 0.0011907 0.00059121 0.002076 0.00038356 0.00034918 -0.0003162 8.441e-05
0.003668 -0.01498 0.027063 0.32035
1340000000 0.21816 0.23394 -0.017464 -0.018971 0.00081769 0.0044678 -0.0016099 -0.00081016
0.0014541 0.0027888 0.0017806 -0.0013145
-0.017429 -0.018954 0.042938 0.3722 -0.021501 0.00412 -0.00019545 0.0019818
0.0019082 0.00092914 0.0013485 0.00080568
0.00084267 0.0044579 -0.021503 0.004235 0.33923 0.11411 0.0011772 -0.00087054
0.00073112 -0.0004598 0.00021059 0.0003508
-0.0016144 -0.00079538 -0.00017934 0.0019815 0.0011798 -0.00087262 0.13905 0.236
-0.0083711 -0.017346 0.00072483 0.00060461
0.0014709 0.0027795 0.0019238 0.00092395 0.00072638 -0.0004589 -0.0084084 -0.017323
0.055813 0.21215 -0.0029727 -0.013766
0.0017724 -0.0013275 0.0013657 0.00079073 0.00021739 0.00035576 0.00074437 0.00060139
-0.0029447 -0.01376 0.065173 0.31714
1400000000 0.25095 0.19573 -0.02323 -0.0075526 0.0050503 0.0030685 -0.0020285 0.00055062
0.0024014 0.00093287 0.00038109 -0.0013527
-0.02319 -0.0075498 0.080069 0.35924 -0.014813 0.012197 0.0012682 0.0013601
0.0011889 -0.00067981 0.0012617 0.00028735
0.0050685 0.0030368 -0.014764 0.012291 0.35249 0.06068 0.00024269 -0.0016833
3.4753e-05 -0.00044145 0.00041061 0.00021249
-0.0020297 0.00055993 0.001279 0.0013647 0.00023863 -0.0016913 0.16824 0.20725
-0.01454 -0.010656 -0.00099017 -0.00040627
0.0024084 0.00091362 0.0011778 -0.00068817 3.5213e-05 -0.00043504 -0.014568 -0.010637
0.088269 0.20833 -0.0094715 -0.0093752
0.00038037 -0.0013596 0.001275 0.00027055 0.0004115 0.0002124 -0.00098952 -0.00042444
-0.0094208 -0.0093965 0.11099 0.30713
1460000000 0.27358 0.15176 -0.020334 0.0045227 0.0055473 -0.0018904 -0.0016386 0.0016468
0.002119 -0.00046219 -0.00038837 -0.001046
-0.020318 0.0044955 0.11418 0.33756 -0.0062093 0.015111 0.0017627 0.00023695
0.00098501 -0.0013237 0.001195 -0.00062927
0.005537 -0.0019125 -0.0061418 0.015169 0.35859 0.0063688 -0.0013212 -0.0013314
0.00014456 -0.00030537 0.00060346 -0.0003812
-0.001628 0.0016553 0.0017602 0.00022707 -0.0013222 -0.001335 0.1942 0.1784
-0.016175 -0.0037881 -0.0010107 0.0022101
0.0021269 -0.0004909 0.00097819 -0.001331 0.00014689 -0.00030029 -0.016194 -0.0037563
0.11672 0.19398 -0.011724 -0.0032522
-0.00039291 -0.0010526 0.0011807 -0.000635 0.0006064 -0.00040072 -0.0010159 0.0021922
-0.011705 -0.0032736 0.14503 0.28696
1520000000 0.28558 0.11012 -0.014788 0.010116 0.0032416 -0.0041412 5.1479e-05 0.0026012
0.0022033 -0.0016306 -0.0011422 -0.00024203
-0.014785 0.010095 0.1477 0.32289 0.0013564 0.013016 0.0017161 -0.00077214
8.6156e-05 -0.0011135 0.0003411 -0.0010166
0.0032213 -0.0041556 0.0014354 0.013031 0.3519 -0.050174 -0.0011842 -0.00036982
0.00059894 -0.00082144 9.433e-05 -6.6404e-05
5.735e-05 0.0025991 0.0017189 -0.00077848 -0.0011824 -0.00037656 0.2171 0.14109
-0.015924 0.0021936 0.0015053 0.0022847
0.0021966 -0.0016436 7.2736e-05 -0.0011131 0.00060484 -0.00083213 -0.015916 0.0022389
0.14388 0.18049 -0.011932 0.0010746
-0.001144 -0.00022153 0.0003342 -0.0010226 0.0001006 -6.5752e-05 0.0015008 0.0022712
-0.011934 0.0010483 0.17927 0.26793
1580000000 0.29483 0.064083 -0.0082005 0.013279 -0.00096505 -0.0047589 0.0013504 0.0019784
-0.00017187 -0.0020844 -0.00037684 0.00040394
-0.0082123 0.013262 0.17501 0.29828 0.0049221 0.0083077 0.00051377 -0.0016406
-0.00063885 -0.0011472 -0.00026864 -0.0007726
-0.00098719 -0.0047568 0.0049753 0.0082866 0.33134 -0.1079 -0.0016576 0.00068711
-0.00020294 -0.0011383 0.00013362 -0.00041789
0.0013561 0.0019642 0.00049968 -0.0016504 -0.0016581 0.00069157 0.231 0.10262
-0.012536 0.0076126 0.002401 0.00099526
-0.0001953 -0.0020842 -0.00064446 -0.0011489 -0.00021544 -0.0011412 -0.012528 0.0076562
0.16784 0.16347 -0.0095733 0.0070629
-0.0003758 0.00041562 -0.00026597 -0.000774 0.00013416 -0.00042038 0.0024008 0.00098994
-0.0095802 0.0070531 0.21267 0.24144
1640000000 0.29687 0.02289 -0.0015309 0.012309 -0.0026162 -0.0025408 0.0027597 0.00106
-0.00058918 -0.0016277 -0.00025936 0.00050634
-0.0015346 0.012306 0.20466 0.27328 0.0058034 0.0037192 -0.00068081 -0.0017872
-0.0011076 -0.00040682 -0.00043907 -0.00070312
-0.0026302 -0.0025279 0.0058303 0.0036879 0.30279 -0.15672 -0.00063873 0.0015229
-0.00099496 -0.0011786 -7.5744e-05 -0.00044056
0.0027739 0.00105 -0.00068705 -0.0017852 -0.00064449 0.0015183 0.24362 0.054654
-0.0082009 0.0093821 0.0026276 -0.00074562
-0.00059654 -0.001618 -0.0011057 -0.00041019 -0.00097842 -0.0011729 -0.0081844 0.0094191
0.18973 0.14007 -0.0049817 0.0092318
-0.00025137 0.00051008 -0.00044523 -0.0007111 -8.1195e-05 -0.00044379 0.0026194 -0.00076164
-0.0049948 0.009231 0.23872 0.21065
1700000000 0.28966 -0.022489 0.001929 0.0095792 -0.0034431 0.00012957 0.0031264 -0.0012354
-0.0020457 -0.00084322 0.00060392 0.00047384
0.0019165 0.0095692 0.22279 0.24165 0.0039056 0.00079187 -0.0015095 -0.00060045
-0.00082832 0.00011256 -0.00089046 -0.00049128
-0.0034378 0.00015827 0.0039225 0.00077278 0.25945 -0.19646 0.00056054 0.0016962
-0.0019783 -0.00028874 -0.00034818 -0.00083393
0.0031259 -0.0012492 -0.0015178 -0.00059468 0.00054247 0.0017008 0.24124 0.00575
-0.0051015 0.010471 0.0016387 -0.0022827
-0.0020558 -0.00082979 -0.00083053 0.00012297 -0.0019837 -0.00028319 -0.0050757 0.010494
0.20672 0.12071 -0.00027266 0.0097267
0.00060727 0.00046378 -0.00088885 -0.00048427 -0.00034915 -0.00083351 0.0016343 -0.0022903
-0.00028196 0.0097284 0.25616 0.17631
1760000000 0.27734 -0.071035 0.0042959 0.0063542 -0.002245 0.00093968 0.001288 -0.003445
-0.0014818 0.00057932 0.00047909 -0.00057583
0.0042899 0.0063396 0.24873 0.20165 0.0017097 -0.0011781 -0.0012242 0.00021704
-0.00095354 0.00094711 -0.00056301 0.00039442
-0.0022502 0.000944 0.0016961 -0.001195 0.21107 -0.23011 0.0012647 0.0010229
-0.0012162 0.0014453 -0.0013066 -0.00053582
0.0012708 -0.0034588 -0.0012276 0.00022719 0.0012613 0.0010223 0.23324 -0.045097
-0.0011707 0.0099272 -0.00014344 -0.0025938
-0.0014747 0.00059763 -0.00094963 0.00095907 -0.0012274 0.0014603 -0.0011482 0.0099336
0.22136 0.086946 0.0038281 0.007312
0.00046545 -0.0005841 -0.00055897 0.00039785 -0.0013185 -0.0005287 -0.00014643 -0.0025963
0.0038207 0.0073192 0.26938 0.13881
1820000000 0.25253 -0.10822 0.0045916 0.0027741 5.7556e-05 0.0024435 -0.001051 -0.0030373
-0.0012611 0.0010055 -2.27e-05 -9.7406e-05
0.0045838 0.0027804 0.25865 0.1715 -0.00020975 7.6588e-05 -0.0012931 0.001008
7.0559e-05 0.0013019 -0.0005748 0.00051137
7.3257e-05 0.0024338 -0.00020743 8.1395e-05 0.16045 -0.24538 0.0015523 0.00033338
-0.00022149 0.0024495 -0.0014562 0.00022086
-0.0010671 -0.0030276 -0.0012876 0.0010184 0.00155 0.0003251 0.20455 -0.092326
0.00095001 0.0082569 -0.0015674 -0.0016663
-0.001252 0.0010124 8.1766e-05 0.0013087 -0.00022052 0.0024433 0.00096795 0.0082514
0.23873 0.059015 0.0048946 0.0038435
-3.0918e-05 -9.7181e-05 -0.00057204 0.00052132 -0.0014507 0.00023255 -0.0015655 -0.0016641
0.0049125 0.0038501 0.27238 0.10305
1880000000 0.2174 -0.14855 0.0024664 0.00040959 -0.00035843 0.0020477 -0.0029596 -0.0021903
-0.00016449 0.0018363 0.00026474 -0.00054619
0.0024618 0.00041011 0.26291 0.12487 -0.0021889 0.0016749 -0.00016615 0.0016642
0.00060633 0.0011166 5.0191e-05 0.00095435
-0.00034548 0.0020586 -0.0021851 0.0016961 0.10795 -0.25515 0.0016783 -0.00097028
0.0014924 0.0020434 -0.0010706 0.0013335
-0.0029698 -0.0021786 -0.00015355 0.001678 0.0016772 -0.0009693 0.16502 -0.13299
0.002199 0.005903 -0.0023915 0.00031603
-0.00014186 0.0018325 0.00061608 0.001109 0.0015084 0.0020381 0.0022229 0.0058902
0.24224 0.027607 0.0051765 0.0017783
0.00025572 -0.00054617 5.5597e-05 0.00095811 -0.0010785 0.0013397 -0.0023898 0.00031531
0.0051923 0.0017777 0.27245 0.068826
1940000000 0.178 -0.17419 0.00024872 -0.0013142 0.0012823 0.0019055 -0.0037152 0.00055336
0.0013996 0.0011473 -0.00072929 -0.00054085
0.00024841 -0.0013082 0.26329 0.093052 -0.0010231 0.0038563 0.0010469 0.0012942
0.0017527 0.00038279 0.00082719 0.00032311
0.0012904 0.0018977 -0.00099176 0.0038551 0.062392 -0.2481 0.00043083 -0.0020741
0.0025173 0.00040174 0.00033795 0.0017459
-0.0037293 0.00058025 0.0010563 0.0012912 0.00042576 -0.0020692 0.11335 -0.1645
0.0015698 0.0040357 -0.0013919 0.0013785
0.0014085 0.0011448 0.0017534 0.0003681 0.0025281 0.00040169 0.0015816 0.0040234
0.24511 -0.01073 0.0041416 -0.0019493
-0.0007322 -0.00054192 0.00083368 0.00031836 0.00034515 0.0017606 -0.0014023 0.0013838
0.0041626 -0.001967 0.26216 0.033485
2000000000 0.13138 -0.18889 -0.003515 0.00053203 0.0025363 0.0016896 -0.0023239 0.003369
0.0012781 3.8405e-05 -0.00076905 0.00043241
-0.0035084 0.0005344 0.24893 0.057566 -0.00089838 0.0056522 0.0015953 0.00039531
0.0011609 -0.0013089 0.00048031 9.6906e-05
0.0025533 0.0016671 -0.00086167 0.0056475 0.018605 -0.23334 -0.0013015 -0.0012572
0.0019779 -0.0011496 0.0016287 0.0013133
-0.0023029 0.0033982 0.0016047 0.00038362 -0.0012829 -0.0012533 0.059782 -0.17543
-7.6555e-05 0.0033475 -0.00017751 0.002134
0.0012745 2.4491e-05 0.0011493 -0.0013236 0.0019739 -0.0011771 -6.3959e-05 0.0033537
0.23972 -0.044585 0.00076876 -0.0029678
