!Keysight Technologies,M9804A,MY58100912,A.14.10.03
!Date: Thursday, April 27, 2023 10:28:33
!Correction: S11(C  6-Port  ) 
!S12(C  6-Port  ) 
!S13(C  6-Port  ) 
!S14(C  6-Port  ) 
!S15(C  6-Port  ) 
!S16(C  6-Port  ) 
!S21(C  6-Port  ) 
!S22(C  6-Port  ) 
!S23(C  6-Port  ) 
!S24(C  6-Port  ) 
!S25(C  6-Port  ) 
!S26(C  6-Port  ) 
!S31(C  6-Port  ) 
!S32(C  6-Port  ) 
!S33(C  6-Port  ) 
!S34(C  6-Port  ) 
!S35(C  6-Port  ) 
!S36(C  6-Port  ) 
!S41(C  6-Port  ) 
!S42(C  6-Port  ) 
!S43(C  6-Port  ) 
!S44(C  6-Port  ) 
!S45(C  6-Port  ) 
!S46(C  6-Port  ) 
!S51(C  6-Port  ) 
!S52(C  6-Port  ) 
!S53(C  6-Port  ) 
!S54(C  6-Port  ) 
!S55(C  6-Port  ) 
!S56(C  6-Port  ) 
!S61(C  6-Port  ) 
!S62(C  6-Port  ) 
!S63(C  6-Port  ) 
!S64(C  6-Port  ) 
!S65(C  6-Port  ) 
!S66(C  6-Port  ) 
!S6P File: Measurement: :
# Hz S  RI   R 50
500000000 -0.33667 -0.041095 -0.0092429 -0.0025835 -0.0082491 0.012077 -0.0041592 0.012278
0.012994 0.0044282 -0.0045092 0.0088939
-0.0092381 -0.0025799 -0.41856 -0.053393 0.0081674 -0.011113 0.0016449 0.01224
0.0077066 0.002264 0.0015205 0.013306
-0.0082258 0.012096 0.0081384 -0.011155 -0.26428 0.20761 0.0079243 0.0034141
-0.0021016 0.0076696 0.0013194 0.012064
-0.0041511 0.012323 0.0016458 0.012256 0.007919 0.0034017 -0.33121 0.040013
-0.018793 -0.0061969 0.016601 0.026312
0.012998 0.0043495 0.0077645 0.0022687 -0.0020747 0.0076492 -0.018814 -0.0061707
-0.21731 -0.2048 -0.025598 0.0058222
-0.0045228 0.0089882 0.0015227 0.013315 0.0013134 0.012031 0.016598 0.026296
-0.025589 0.0057958 -0.25981 -0.15023
560000000 -0.3164 0.12013 -0.023704 -0.063611 -0.00037336 0.011922 0.0057502 0.01102
0.010845 0.0048746 0.010901 0.0076442
-0.023631 -0.063532 -0.37652 0.10677 -0.041406 -0.038294 0.014239 0.0033847
-0.013111 -0.0058862 0.0029038 -5.754e-05
-0.00038139 0.011926 -0.04151 -0.038235 -0.18268 0.25553 -0.0011383 -0.0043003
0.02003 0.0055579 0.0066538 -0.0059503
0.0057292 0.011017 0.014291 0.0034184 -0.0011404 -0.0043049 -0.30652 0.12961
0.0042205 -0.024349 0.0047479 -0.022114
0.010825 0.0048786 -0.01308 -0.0058181 0.019958 0.0055057 0.0042359 -0.024366
-0.2873 -0.028668 0.0095828 -0.04952
0.010884 0.0076467 0.0028803 -4.5686e-05 0.0066375 -0.0059468 0.0047666 -0.022126
0.0095613 -0.049587 -0.32829 0.0016594
620000000 -0.27595 0.10443 -0.023518 0.0075335 0.0026197 0.0084419 0.0084675 -0.0055266
0.010531 -0.00019216 0.0015305 -0.0025432
-0.023496 0.0075295 -0.40256 0.05788 -0.019104 -0.00020657 -0.0014615 -0.002302
0.011435 -0.006205 0.0016818 -0.0030427
0.0026174 0.0084153 -0.019142 -0.00017518 -0.15445 0.26525 -0.0018716 -0.0051622
-0.0027247 -0.0023291 0.0078345 -0.0034372
0.0084527 -0.005554 -0.0014741 -0.0023025 -0.0018743 -0.0051595 -0.26668 0.14078
-0.038333 -0.019694 0.012229 0.0264
0.010554 -0.0002093 0.011448 -0.0062727 -0.0027232 -0.0023192 -0.038354 -0.019703
-0.20515 -0.067908 -0.042414 0.014474
0.0015215 -0.0025161 0.0016876 -0.003089 0.0078782 -0.0035026 0.012246 0.026403
-0.042409 0.014491 -0.24762 -0.037721
680000000 -0.23534 0.1904 -0.027566 -0.014664 0.0047895 0.0053536 0.0015335 -0.0071834
-0.0035729 -0.011157 0.0054267 -0.0068777
-0.027536 -0.014669 -0.38818 0.15583 -0.033335 -0.0015481 -0.0018642 -0.00037664
-0.002296 -0.0088961 -0.0012028 -0.0016585
0.0048086 0.0053565 -0.033366 -0.0014732 -0.10358 0.28493 -0.00072903 -0.00010053
-0.0018557 0.00083357 -0.0028142 -0.0095146
0.0015336 -0.0071859 -0.0018711 -0.0003827 -0.00073413 -0.00010517 -0.22203 0.19168
-0.023732 -0.0078593 -0.0095885 -0.012026
-0.0035831 -0.011129 -0.002338 -0.0089045 -0.0018675 0.00081049 -0.023737 -0.0078327
-0.25903 0.031305 -0.0059539 -0.0090174
0.0054693 -0.0069233 -0.0011988 -0.0016428 -0.0028261 -0.0095079 -0.0096416 -0.012044
-0.0059551 -0.0090292 -0.26181 0.072037
740000000 -0.19144 0.1852 -0.039109 0.026856 0.012639 -0.0049226 -0.00016251 -0.0042896
-0.003987 -0.0024729 -0.0060141 0.002571
-0.039101 0.026825 -0.33567 0.175 -0.036044 0.03541 -0.00085903 -0.0062562
-0.011043 0.0079078 -0.0023463 -0.0070658
0.012625 -0.0049574 -0.035952 0.035547 -0.069934 0.28388 -0.0019104 0.0030627
-0.0017956 -0.0044874 -0.0014255 -0.00021544
-0.0001675 -0.0042775 -0.00085585 -0.0063058 -0.0019096 0.0030758 -0.20555 0.20007
-0.044705 -0.0075859 0.023432 0.015561
-0.0039682 -0.0024701 -0.011043 0.0079265 -0.0017767 -0.0045046 -0.044733 -0.0075554
-0.15851 0.058957 -0.045328 -0.00077258
-0.0060123 0.0025926 -0.0023836 -0.0070247 -0.0014522 -0.00022429 0.023451 0.01555
-0.045348 -0.00080672 -0.25268 0.076816
800000000 -0.15906 0.22616 -0.022889 0.016782 0.0054023 -0.010619 -0.0047559 -0.0021773
-0.0038693 0.002258 0.0050809 -1.0456e-05
-0.022871 0.016766 -0.33937 0.24559 -0.0081464 0.034468 -0.0022344 0.0021932
-0.000459 0.0028333 0.0010765 0.0052934
0.0053739 -0.010641 -0.0080418 0.034511 -0.029358 0.30773 0.0010633 0.0013673
0.00040185 0.0033772 -0.0017228 0.00072523
-0.00477 -0.0021591 -0.0022195 0.0021985 0.0010801 0.0013705 -0.17753 0.22852
-0.029329 0.013806 0.014197 -0.010524
-0.0038219 0.002239 -0.00044493 0.0028521 0.00039841 0.003352 -0.029338 0.013854
-0.20845 0.082746 -0.018412 0.019308
0.0050765 -3.6399e-05 0.0010938 0.0053224 -0.0017174 0.0007413 0.014197 -0.010539
-0.018431 0.01929 -0.24966 0.12795
860000000 -0.12442 0.2468 -0.017872 0.030906 -0.003371 -0.010039 -0.0023762 0.00089956
0.0040099 0.0046404 -0.0034613 -0.0031669
-0.01787 0.030867 -0.29177 0.28799 0.0078286 0.034669 -0.00011943 0.0018898
0.0041089 -0.00028614 0.0032897 0.00068123
-0.0034055 -0.010026 0.0079499 0.034682 0.019068 0.31603 -0.00060614 -0.00033218
0.0028335 -0.0015526 0.0014359 0.0044172
-0.002392 0.0009048 -0.00011304 0.0019157 -0.00060851 -0.00033549 -0.1412 0.23999
-0.018843 0.018895 -0.0060978 -0.0091549
0.0040241 0.0046435 0.0040815 -0.00027116 0.0028306 -0.0015606 -0.01881 0.018944
-0.15782 0.13605 -0.027269 0.015378
-0.003459 -0.0031915 0.003325 0.00064833 0.0014407 0.0044059 -0.0061031 -0.0091453
-0.027259 0.015323 -0.19872 0.177
920000000 -0.09984 0.27038 0.004904 0.038419 -0.0095256 -0.0043341 -0.0017827 0.0020039
0.00089382 0.0018759 0.0024871 -0.0015307
0.004882 0.038379 -0.26286 0.3098 0.028196 0.02239 0.0014347 0.0011714
0.0069706 -0.00042916 0.0038987 -0.002791
-0.0095458 -0.0043223 0.028311 0.022333 0.065712 0.3167 0.0017598 9.5326e-05
0.0010327 -0.00033079 0.00091354 -0.00098596
-0.0017966 0.0019987 0.0014488 0.0011817 0.0017569 8.6782e-05 -0.11731 0.25758
-0.011342 0.031457 0.0038576 -0.0066602
0.00086039 0.0018612 0.0070002 -0.00044998 0.0010567 -0.0003215 -0.011309 0.0315
-0.14799 0.14222 -0.0030997 0.02823
0.0024766 -0.0015311 0.0039237 -0.0028125 0.00093571 -0.00096957 0.0038507 -0.0066422
-0.0031128 0.028222 -0.21096 0.19101
980000000 -0.052114 0.29003 0.017715 0.030552 -0.0090629 0.004823 0.0022131 0.0035591
0.0039748 -0.0015032 -0.0034033 -0.0021582
0.01768 0.03052 -0.2096 0.34379 0.033465 0.0050208 0.0020037 -8.8082e-05
0.001444 -0.0058438 -0.00040177 -0.0025157
-0.0090543 0.0048374 0.033513 0.0049227 0.11223 0.31014 0.00053413 -0.0011228
0.00036493 -0.0020344 0.0016231 -0.00021147
0.0022191 0.0035376 0.0020132 -7.7068e-05 0.00052857 -0.0011263 -0.078354 0.26948
0.0078817 0.031439 -0.0092028 -0.007533
0.0039616 -0.001537 0.0013715 -0.0058561 0.00037867 -0.0020178 0.0079491 0.031447
-0.11733 0.17306 0.0048157 0.020524
-0.0034261 -0.0021585 -0.00045065 -0.0025016 0.0016213 -0.00021591 -0.0092116 -0.0075209
0.004776 0.020539 -0.16837 0.23903
1040000000 -0.00971 0.2985 0.03355 0.018614 -0.0011147 0.0071611 0.0026247 0.00055472
-2.614e-05 -0.0037058 -9.5656e-05 -0.0013912
0.033488 0.01862 -0.17375 0.35689 0.029778 -0.014963 0.0014063 -0.0017738
-0.0025549 -0.0025142 -0.0012271 -0.0025496
-0.0010948 0.0071572 0.029768 -0.015082 0.15845 0.29628 -0.00049065 -0.0015467
-0.0015798 -0.00084456 -0.00033836 -0.0011692
0.0026283 0.00054581 0.0014289 -0.001761 -0.00048955 -0.0015406 -0.050662 0.27975
0.020165 0.019138 -0.002083 0.0015927
-3.0412e-05 -0.0037008 -0.0025811 -0.0025176 -0.0015796 -0.00084374 0.020215 0.019113
-0.084456 0.18103 0.013619 0.020045
-9.7337e-05 -0.0013998 -0.0012528 -0.002538 -0.00033346 -0.0011815 -0.0020848 0.0016023
0.013611 0.02003 -0.14861 0.26084
1100000000 0.035777 0.30619 0.036352 -0.0040524 0.0031484 0.0039545 0.0023312 -0.0014629
-0.0020392 -0.0032172 -0.0038529 2.5335e-05
0.036306 -0.004027 -0.13019 0.3743 0.015304 -0.028148 -0.00010679 -0.0017842
-0.0031994 -0.00073975 -0.0034349 -0.00051967
0.0031679 0.0039351 0.015206 -0.028233 0.20483 0.27591 -0.0018728 0.00025181
-0.0017034 0.00044771 -0.0011156 -0.00058003
0.0023332 -0.0014717 -0.0001126 -0.0017958 -0.001871 0.00024675 -0.0098949 0.28487
0.025744 0.0054685 -0.0024185 9.1003e-05
-0.0020519 -0.0032017 -0.0032198 -0.00073103 -0.0017074 0.00045482 0.025769 0.0054486
-0.066703 0.19521 0.019632 0.0097126
-0.0038363 2.8259e-05 -0.0034591 -0.00048401 -0.0011248 -0.00059032 -0.0024219 9.6656e-05
0.019616 0.0097238 -0.10295 0.29378
1160000000 0.087327 0.30108 0.024426 -0.02088 0.0029947 -0.00067728 -0.00047885 -0.0024463
-0.0041444 -0.00083725 -0.00094607 0.0041179
0.024407 -0.020843 -0.086098 0.37832 -0.0037473 -0.02943 -0.0016889 -0.0016564
-0.0026591 0.0023007 -0.0013495 0.001877
0.0029903 -0.00069294 -0.0038762 -0.029423 0.24806 0.24491 -0.00062903 0.0017639
-0.00067837 0.0019078 -0.0011054 0.00018021
-0.00048583 -0.0024507 -0.0016832 -0.001636 -0.00062281 0.0017623 0.029944 0.28197
0.022316 -0.010678 -0.0030231 0.0052272
-0.0041529 -0.00080407 -0.0026491 0.0023078 -0.00065713 0.0019068 0.022329 -0.010705
-0.032518 0.20497 0.019083 0.0012102
-0.00091949 0.0041013 -0.0013484 0.0018894 -0.0010933 0.00019085 -0.0030145 0.0052289
0.019076 0.0012071 -0.055251 0.29744
1220000000 0.13157 0.28979 0.010797 -0.030356 -0.0014456 -0.0011433 -0.00015072 -0.00073779
-0.002689 0.0024509 0.0012743 0.0020479
0.01081 -0.03032 -0.041537 0.39015 -0.017044 -0.021288 -0.0024951 0.00050986
-3.401e-05 0.0029164 -0.00084088 0.0018895
-0.0014566 -0.0011409 -0.017154 -0.021221 0.28722 0.2057 0.00081406 0.0015735
0.0005266 0.0011855 0.00022109 0.00070958
-0.00014898 -0.00074683 -0.0024812 0.00051763 0.0008109 0.0015581 0.070028 0.27315
0.011169 -0.017806 0.0024197 0.0013258
-0.0026795 0.0024657 -1.1148e-05 0.0029046 0.0005294 0.0011955 0.01116 -0.017831
-0.010206 0.21415 0.015274 -0.012576
0.0012931 0.0020401 -0.0008277 0.0019004 0.00022014 0.00071215 0.0024254 0.001339
0.015278 -0.012571 -0.024988 0.31654
1280000000 0.18135 0.26776 -0.0077865 -0.028934 -0.0020066 0.002145 -0.00083357 -0.0017971
-0.00077048 0.0030649 0.002435 0.0011717
-0.0077615 -0.028907 0.0045978 0.38082 -0.023829 -0.0085035 -0.00085335 0.0014162
0.0015682 0.001783 0.0006146 0.0021484
-0.0019903 0.0021587 -0.023908 -0.0083982 0.31763 0.16161 0.0015606 -3.6829e-05
0.0011414 0.00040331 0.00038699 0.00048107
-0.00084131 -0.0017842 -0.00084021 0.0014244 0.0015668 -4.0645e-05 0.10682 0.25631
0.0014669 -0.020018 -0.00016741 -0.0001585
-0.00076708 0.0030675 0.0015722 0.0017709 0.001148 0.00040226 0.0014253 -0.02004
0.027152 0.21798 0.0038846 -0.015325
0.0024372 0.0011587 0.00062983 0.0021348 0.00038861 0.00047867 -0.00016961 -0.00015385
0.0038815 -0.015322 0.024094 0.32081
1340000000 0.2183 0.23363 -0.017701 -0.019431 0.00064678 0.0043584 -0.0015016 -0.00076538
0.0014669 0.0027335 0.0017532 -0.0014026
-0.017669 -0.019436 0.043997 0.37213 -0.021609 0.0042696 -0.00014535 0.0018979
0.0018167 0.00091336 0.0013918 0.00082098
0.00066389 0.0043566 -0.021615 0.0043783 0.3395 0.11351 0.0011102 -0.00092017
0.00082664 -0.00045089 0.00032455 0.00043675
-0.0015021 -0.00075689 -0.000135 0.0018922 0.0010991 -0.00091171 0.13879 0.23577
-0.0084991 -0.017369 0.00084284 0.00038948
0.0015004 0.002727 0.0018125 0.00091018 0.0008476 -0.00045235 -0.0085376 -0.017369
0.056694 0.213 -0.002926 -0.014098
0.0017567 -0.0014074 0.0014096 0.00081346 0.00032951 0.00042689 0.00084621 0.00038332
-0.0029185 -0.014094 0.062589 0.31803
1400000000 0.25097 0.19527 -0.023739 -0.0078116 0.0049131 0.0031302 -0.0019334 0.00049007
0.0023481 0.0008756 0.00035736 -0.0013211
-0.023705 -0.0078215 0.081027 0.35864 -0.01484 0.012367 0.0012147 0.0012786
0.0011416 -0.00070502 0.001276 0.00028261
0.0049163 0.0031022 -0.014803 0.012454 0.35251 0.059935 0.00010277 -0.0015947
-8.6174e-06 -0.00050732 0.00047621 0.00024315
-0.0019307 0.00049913 0.0012271 0.0012725 0.00010576 -0.0015972 0.16779 0.20708
-0.014643 -0.010448 -0.0010564 -0.00065099
0.0023748 0.000865 0.0011485 -0.00072026 -4.6668e-06 -0.00050376 -0.01468 -0.01043
0.089566 0.20876 -0.0095352 -0.0096911
0.00035357 -0.0013205 0.0012754 0.00027812 0.00048312 0.0002391 -0.0010656 -0.00065757
-0.0095266 -0.009703 0.10895 0.3082
1460000000 0.2733 0.15124 -0.020863 0.0045954 0.0054272 -0.0017099 -0.0016069 0.0015648
0.0020913 -0.00053513 -0.00034969 -0.00093238
-0.020838 0.0045679 0.11475 0.33653 -0.0061965 0.015197 0.0016787 0.00024998
0.00099858 -0.0012868 0.0011829 -0.00069968
0.0054134 -0.00173 -0.0061198 0.015245 0.35825 0.0055917 -0.0012643 -0.0012547
0.00018331 -0.00037827 0.00058268 -0.00042972
-0.0015993 0.0015762 0.0016835 0.00025294 -0.0012612 -0.0012659 0.19368 0.17837
-0.016139 -0.0034807 -0.0010829 0.0020675
0.0020961 -0.00055176 0.00098957 -0.0012929 0.00018598 -0.0003825 -0.016161 -0.003453
0.11798 0.19378 -0.011885 -0.0033957
-0.00036244 -0.0009385 0.0011756 -0.00070431 0.00059086 -0.00042704 -0.0010803 0.002071
-0.011877 -0.003402 0.14318 0.28801
1520000000 0.28505 0.10979 -0.015235 0.010406 0.0032539 -0.0039948 1.5938e-05 0.0025547
0.0021262 -0.0016696 -0.0010752 -0.00013621
-0.015235 0.010388 0.14784 0.32181 0.0014275 0.013046 0.0016991 -0.00069014
7.318e-05 -0.0010878 0.0003166 -0.0010396
0.0032303 -0.004004 0.001507 0.013047 0.35138 -0.050696 -0.001059 -0.00037355
0.00055785 -0.00080347 7.0279e-05 -0.00013556
3.0863e-05 0.0025547 0.0016952 -0.00070652 -0.0010652 -0.00037894 0.21662 0.14116
-0.015635 0.0024926 0.0013351 0.0021726
0.0021246 -0.0016865 7.5957e-05 -0.0010865 0.00056719 -0.00081311 -0.015642 0.0025436
0.14481 0.18003 -0.012132 0.001024
-0.0010853 -0.0001326 0.00031037 -0.0010419 7.3476e-05 -0.00011632 0.0013401 0.0021739
-0.012137 0.0010121 0.17747 0.2692
1580000000 0.29419 0.064031 -0.0084158 0.013765 -0.00087195 -0.0046717 0.0012945 0.0019353
-0.00027588 -0.0020703 -0.00031747 0.00043031
-0.0084183 0.013751 0.17464 0.29719 0.0050009 0.0082755 0.00056143 -0.001601
-0.00063049 -0.0011245 -0.0003458 -0.00075751
-0.00089894 -0.004671 0.0050535 0.0082606 0.3308 -0.108 -0.0016103 0.00065347
-0.00029225 -0.0010645 7.4328e-05 -0.0005697
0.0012984 0.0019238 0.00055283 -0.0016013 -0.0016086 0.00065567 0.23055 0.10274
-0.012035 0.0077188 0.0022064 0.0010263
-0.00028801 -0.0020753 -0.00064382 -0.0011183 -0.00029397 -0.001086 -0.012014 0.0077583
0.16856 0.16273 -0.0097224 0.0071734
-0.00031668 0.0004395 -0.00035209 -0.00075036 7.5962e-05 -0.00057753 0.0022103 0.0010157
-0.0097197 0.0071799 0.21124 0.24262
1640000000 0.29631 0.023054 -0.0014184 0.012759 -0.002541 -0.0024332 0.0027086 0.0010882
-0.00055334 -0.0015471 -0.0002332 0.00050513
-0.0014229 0.012755 0.20397 0.27248 0.0058247 0.003596 -0.00062254 -0.0017982
-0.0010618 -0.00034524 -0.00047005 -0.00065601
-0.0025418 -0.0024202 0.0058553 0.0035675 0.30264 -0.15709 -0.00060996 0.0014496
-0.0010458 -0.0010288 -9.3722e-05 -0.00046549
0.0027144 0.0010744 -0.0006344 -0.0017968 -0.00060697 0.0014658 0.24314 0.054854
-0.007698 0.0091606 0.0024801 -0.0006749
-0.00056273 -0.0015537 -0.0010627 -0.0003361 -0.0010548 -0.0010324 -0.0076782 0.0091888
0.19007 0.13923 -0.0049738 0.0093366
-0.00022601 0.00051413 -0.00047493 -0.0006534 -9.5027e-05 -0.00047322 0.0024786 -0.00068889
-0.0049781 0.0093447 0.23742 0.21198
1700000000 0.28919 -0.022003 0.0021873 0.0098418 -0.0032121 6.5751e-05 0.0030606 -0.0011688
-0.0020523 -0.00077043 0.00067644 0.00044589
0.0021787 0.009833 0.22179 0.24128 0.0038455 0.00080469 -0.0014917 -0.0006521
-0.00073445 0.00012363 -0.00086651 -0.00040347
-0.0032125 9.681e-05 0.0038471 0.00078543 0.25881 -0.19668 0.0004747 0.0016154
-0.0018118 -0.00025308 -0.00041591 -0.00077656
0.0030531 -0.0011832 -0.001501 -0.00064435 0.0004665 0.0016149 0.24075 0.0061341
-0.0047746 0.0099455 0.0015633 -0.0021707
-0.0020653 -0.00075615 -0.00073302 0.00012789 -0.0018136 -0.00025496 -0.0047397 0.009964
0.20693 0.11982 -0.0001851 0.0097925
0.00067482 0.00043171 -0.00086935 -0.00040069 -0.00040849 -0.00076322 0.0015608 -0.0021678
-0.00017093 0.0097914 0.25505 0.17763
1760000000 0.27715 -0.070403 0.0045765 0.0064781 -0.002179 0.00086603 0.0013285 -0.0033797
-0.0013904 0.00064586 0.00043961 -0.000603
0.0045556 0.0064774 0.24771 0.2018 0.0016687 -0.00094171 -0.0012574 0.00018514
-0.00089497 0.00092877 -0.00046444 0.00039999
-0.0021792 0.00087752 0.0016661 -0.00095587 0.21004 -0.22948 0.0012401 0.0010142
-0.0011232 0.001351 -0.0011795 -0.00053667
0.0013005 -0.003392 -0.0012482 0.00019477 0.0012335 0.001023 0.23288 -0.044552
-0.001248 0.0092859 -0.0001245 -0.0024663
-0.00139 0.00064999 -0.00087985 0.00093654 -0.0011154 0.0013744 -0.0012215 0.0092911
0.22127 0.085954 0.0038919 0.0072492
0.00043459 -0.00061318 -0.00046031 0.00040198 -0.0011886 -0.000537 -0.00013758 -0.0024732
0.0038894 0.0072424 0.26827 0.14022
1820000000 0.25272 -0.10771 0.0048402 0.0028114 -5.0416e-05 0.0023449 -0.00093993 -0.0030459
-0.0012018 0.00095787 -5.5138e-05 -0.00012158
0.0048324 0.0028071 0.25776 0.17202 -0.00021492 6.0105e-05 -0.0013363 0.0010055
6.0276e-05 0.0012096 -0.00049076 0.00047776
-2.6739e-05 0.0023333 -0.00021477 5.6698e-05 0.16026 -0.24525 0.0014099 0.00033069
-0.00028709 0.0022785 -0.0013605 0.00017298
-0.00095224 -0.0030498 -0.0013374 0.0010139 0.0014033 0.00033453 0.20447 -0.091667
0.00050745 0.007737 -0.0014807 -0.0016106
-0.001195 0.00095151 7.2071e-05 0.0012064 -0.00029526 0.0022685 0.0005288 0.007736
0.23841 0.058069 0.0049101 0.0037826
-4.5559e-05 -0.0001192 -0.0004825 0.00047509 -0.0013489 0.00017317 -0.0014839 -0.0016027
0.0049064 0.0037954 0.27161 0.10464
1880000000 0.21774 -0.14817 0.0027541 0.00039609 -0.00030947 0.0020264 -0.0028756 -0.0022821
-0.00015436 0.0018034 0.00021961 -0.00055536
0.002748 0.00039519 0.26242 0.12583 -0.0021242 0.0016902 -0.00015586 0.0017132
0.00053955 0.0010658 6.2047e-05 0.00083358
-0.00028922 0.002033 -0.002112 0.0017091 0.10817 -0.2548 0.0016995 -0.00087574
0.0014143 0.0019845 -0.0011685 0.0012738
-0.0028975 -0.002261 -0.00014784 0.0017136 0.001699 -0.00086666 0.16529 -0.13257
0.0015891 0.005781 -0.0023343 0.00034584
-0.00013224 0.0018023 0.0005551 0.0010613 0.0014231 0.0019827 0.0015993 0.0057679
0.24152 0.026714 0.0051546 0.001675
0.00021082 -0.00055051 7.2401e-05 0.00083157 -0.0011796 0.0012689 -0.0023282 0.0003503
0.0051496 0.0016719 0.27188 0.070197
1940000000 0.17832 -0.17397 0.00053828 -0.0014429 0.0013719 0.0019394 -0.0036867 0.00043381
0.0014096 0.0010703 -0.00072057 -0.00047608
0.00053943 -0.0014429 0.26331 0.094142 -0.0010391 0.0038412 0.0010535 0.001352
0.0016495 0.00039391 0.00069642 0.00025641
0.00138 0.001934 -0.0010097 0.0038614 0.062142 -0.24824 0.00045939 -0.0020375
0.0023816 0.00050033 0.00012112 0.001722
-0.0036805 0.00046811 0.0010489 0.0013535 0.00046883 -0.0020439 0.11369 -0.16442
0.0011077 0.0042444 -0.0013989 0.0014917
0.0014143 0.0010672 0.0016472 0.00037389 0.0023878 0.00050474 0.00111 0.0042233
0.24397 -0.011357 0.0039422 -0.0020117
-0.00070334 -0.00047696 0.00070563 0.00024899 0.0001258 0.0017189 -0.0013854 0.0014982
0.0039393 -0.0020081 0.2617 0.034892
2000000000 0.13198 -0.1888 -0.0033557 0.00031849 0.002393 0.0016112 -0.0024333 0.0033883
0.0011905 2.4401e-05 -0.00064513 0.00034158
-0.0033454 0.00032126 0.24947 0.058547 -0.00089294 0.0056255 0.0016469 0.00033539
0.001165 -0.0012802 0.0004141 0.00016672
0.0024125 0.0016014 -0.00085189 0.0056352 0.018496 -0.23343 -0.0012529 -0.0013277
0.0020436 -0.0011309 0.001702 0.0014517
-0.0024026 0.0034003 0.0016583 0.00033097 -0.0012552 -0.001321 0.060098 -0.17572
-0.00021316 0.0036573 -2.2173e-06 0.0022056
0.0012071 1.4973e-05 0.0011639 -0.0012781 0.0020532 -0.0011453 -0.00021888 0.0036621
0.23861 -0.044785 0.00065842 -0.0028254
