!Keysight Technologies,M9804A,MY58100912,A.14.10.03
!Date: Thursday, April 27, 2023 10:28:33
!Correction: S11(C  6-Port  ) 
!S12(C  6-Port  ) 
!S13(C  6-Port  ) 
!S14(C  6-Port  ) 
!S15(C  6-Port  ) 
!S16(C  6-Port  ) 
!S21(C  6-Port  ) 
!S22(C  6-Port  ) 
!S23(C  6-Port  ) 
!S24(C  6-Port  ) 
!S25(C  6-Port  ) 
!S26(C  6-Port  ) 
!S31(C  6-Port  ) 
!S32(C  6-Port  ) 
!S33(C  6-Port  ) 
!S34(C  6-Port  ) 
!S35(C  6-Port  ) 
!S36(C  6-Port  ) 
!S41(C  6-Port  ) 
!S42(C  6-Port  ) 
!S43(C  6-Port  ) 
!S44(C  6-Port  ) 
!S45(C  6-Port  ) 
!S46(C  6-Port  ) 
!S51(C  6-Port  ) 
!S52(C  6-Port  ) 
!S53(C  6-Port  ) 
!S54(C  6-Port  ) 
!S55(C  6-Port  ) 
!S56(C  6-Port  ) 
!S61(C  6-Port  ) 
!S62(C  6-Port  ) 
!S63(C  6-Port  ) 
!S64(C  6-Port  ) 
!S65(C  6-Port  ) 
!S66(C  6-Port  ) 
!S6P File: Measurement: :
# Hz S  RI   R 50
500000000 -0.33671 -0.041106 -0.0092076 -0.0026105 -0.008227 0.012099 -0.0041918 0.012297
0.013018 0.0043832 -0.0045863 0.0089397
-0.0091811 -0.0026197 -0.41856 -0.053443 0.0081284 -0.011114 0.0016129 0.012224
0.0077226 0.0022797 0.0014659 0.013296
-0.0081712 0.012098 0.0081348 -0.01116 -0.2643 0.20761 0.0079245 0.0034087
-0.0020899 0.0076518 0.0013436 0.012014
-0.0040861 0.012314 0.0016282 0.012234 0.0078903 0.0033883 -0.33122 0.039975
-0.018818 -0.0061881 0.016568 0.026255
0.012941 0.0043869 0.0077437 0.0022707 -0.0020956 0.0076883 -0.018858 -0.0061664
-0.2173 -0.20477 -0.02566 0.0058305
-0.0044566 0.0089701 0.0015201 0.013267 0.0012818 0.011982 0.01658 0.026235
-0.025644 0.0058073 -0.2599 -0.15041
560000000 -0.31643 0.1201 -0.02367 -0.063601 -0.00040046 0.01193 0.0057631 0.011051
0.010799 0.0048612 0.010842 0.0076847
-0.023641 -0.063436 -0.37656 0.10691 -0.041413 -0.038274 0.014223 0.0033435
-0.013123 -0.005888 0.0029125 -2.4411e-05
-0.0003941 0.011899 -0.041548 -0.038271 -0.1828 0.25553 -0.0011138 -0.0041937
0.019952 0.0055565 0.0066598 -0.0059299
0.0057916 0.01088 0.01421 0.0033739 -0.0010553 -0.0042296 -0.30645 0.12962
0.0042431 -0.024306 0.0048125 -0.022097
0.010838 0.0047769 -0.013101 -0.005875 0.019903 0.0055386 0.004261 -0.024307
-0.28729 -0.028708 0.0095524 -0.049582
0.011023 0.0076679 0.0029138 -0.0001382 0.006653 -0.0058716 0.0047891 -0.022195
0.0095709 -0.049533 -0.32834 0.0017677
620000000 -0.27572 0.10459 -0.023521 0.0075069 0.0027122 0.0084196 0.0085236 -0.0054879
0.010535 -0.00016744 0.0014979 -0.0025848
-0.023511 0.007493 -0.40257 0.057858 -0.019111 -0.0002181 -0.001435 -0.0023261
0.011456 -0.0062198 0.0017195 -0.0030674
0.0026115 0.0083705 -0.019108 -0.00015882 -0.15452 0.26527 -0.0018926 -0.0052188
-0.0026639 -0.0023209 0.0079384 -0.0034677
0.0085283 -0.0057065 -0.0014644 -0.0022816 -0.0018621 -0.0052263 -0.2667 0.14076
-0.038311 -0.019721 0.012271 0.026432
0.01069 -6.5555e-05 0.011436 -0.0062921 -0.0026424 -0.0022576 -0.03835 -0.019689
-0.20512 -0.06789 -0.042432 0.014406
0.001589 -0.0024006 0.0017099 -0.0030847 0.0079976 -0.003579 0.012236 0.026418
-0.042441 0.014433 -0.24776 -0.037776
680000000 -0.23533 0.19037 -0.027587 -0.014654 0.0047759 0.0053835 0.0015543 -0.0071854
-0.0035454 -0.011152 0.0055044 -0.0068761
-0.027565 -0.014655 -0.38818 0.15583 -0.033329 -0.0015709 -0.0018631 -0.00039859
-0.0023064 -0.0088914 -0.0011733 -0.0016465
0.0048107 0.0053727 -0.033369 -0.0014902 -0.10359 0.28493 -0.00073637 -0.00010701
-0.0018732 0.00082623 -0.0028019 -0.0095276
0.0015687 -0.0071547 -0.0018779 -0.0003883 -0.00072352 -0.00010897 -0.22205 0.1917
-0.023701 -0.0078259 -0.009636 -0.012066
-0.0035801 -0.01115 -0.0023417 -0.0088946 -0.0018816 0.00080378 -0.02373 -0.0077961
-0.25902 0.031261 -0.0059704 -0.0089464
0.0054527 -0.006906 -0.0012045 -0.0016563 -0.0028233 -0.0095113 -0.0096065 -0.012042
-0.0059333 -0.0089506 -0.26169 0.072174
740000000 -0.19149 0.18508 -0.039114 0.026898 0.012622 -0.0049292 -0.00013226 -0.0042823
-0.0039564 -0.0024955 -0.0061019 0.0025891
-0.039102 0.026891 -0.33564 0.17503 -0.036031 0.035416 -0.00084529 -0.0063041
-0.011046 0.0078909 -0.0023302 -0.0070407
0.012604 -0.0049241 -0.035975 0.035566 -0.069981 0.28389 -0.0019176 0.0030698
-0.0017896 -0.0044881 -0.001466 -0.00018787
-0.00018746 -0.0042694 -0.00082474 -0.0062822 -0.0019235 0.003059 -0.20555 0.20008
-0.044703 -0.0075905 0.023446 0.015644
-0.0038172 -0.0024009 -0.011017 0.0079829 -0.0018184 -0.0044856 -0.044743 -0.0075637
-0.15859 0.058897 -0.045415 -0.00072054
-0.0060778 0.0026169 -0.0024204 -0.0070025 -0.0014355 -0.00019024 0.023434 0.015592
-0.045312 -0.00074201 -0.2527 0.076603
800000000 -0.15907 0.22615 -0.022895 0.016794 0.0053939 -0.010619 -0.004784 -0.0021707
-0.003834 0.0022268 0.0050435 5.9832e-06
-0.022882 0.016787 -0.33934 0.24558 -0.0081504 0.034452 -0.0022437 0.0021814
-0.00044183 0.0028523 0.0010585 0.0053127
0.005362 -0.010635 -0.0080538 0.034511 -0.029358 0.30772 0.0010739 0.0013719
0.00040245 0.0033517 -0.0017183 0.00075209
-0.0047595 -0.0021538 -0.0022313 0.0022124 0.001065 0.0013765 -0.17755 0.2285
-0.029325 0.013784 0.01419 -0.010513
-0.0038619 0.002229 -0.00043115 0.0028628 0.00040607 0.003357 -0.029316 0.013848
-0.20841 0.082718 -0.018383 0.019284
0.0051192 -6.8279e-06 0.0010562 0.0053423 -0.0017161 0.00077396 0.014194 -0.010519
-0.018358 0.019249 -0.24963 0.12798
860000000 -0.12445 0.24679 -0.017875 0.030923 -0.0033908 -0.010035 -0.0023915 0.00090197
0.0040226 0.0046412 -0.0034548 -0.0032123
-0.017874 0.030911 -0.2918 0.28798 0.0078399 0.034679 -0.00016079 0.0019129
0.0041022 -0.00024614 0.0032968 0.00062034
-0.0034193 -0.010028 0.0079446 0.034684 0.019043 0.31603 -0.00061929 -0.00033463
0.0028384 -0.0015574 0.0014149 0.0044203
-0.0023922 0.00092816 -0.00012946 0.0019308 -0.00062496 -0.00032572 -0.1412 0.23997
-0.018834 0.018882 -0.0061455 -0.0091796
0.0040242 0.0046217 0.0041013 -0.00028319 0.0028211 -0.0015607 -0.018845 0.018907
-0.15794 0.13605 -0.027251 0.015378
-0.0034755 -0.00316 0.0033401 0.0006588 0.0014541 0.0043993 -0.0061152 -0.0091532
-0.027224 0.015319 -0.19868 0.17697
920000000 -0.099881 0.2704 0.0049001 0.038431 -0.0095253 -0.0043445 -0.0017926 0.0020016
0.000834 0.0018659 0.0024339 -0.0014965
0.0048578 0.038404 -0.26288 0.30978 0.028234 0.022383 0.0014596 0.0011624
0.0070049 -0.00043548 0.0038448 -0.0027978
-0.0095619 -0.0043095 0.028301 0.02232 0.065726 0.31674 0.0017656 7.9404e-05
0.0010609 -0.00034128 0.00090532 -0.00099579
-0.0017901 0.0020125 0.0014549 0.0011761 0.001764 7.2727e-05 -0.11734 0.25758
-0.011368 0.031453 0.0038289 -0.0066671
0.00087865 0.0018509 0.0069904 -0.00046882 0.0010546 -0.00033721 -0.011316 0.031505
-0.14798 0.14219 -0.003093 0.028256
0.0024888 -0.001517 0.0039181 -0.0027546 0.00089552 -0.00095681 0.0038567 -0.0066562
-0.0031196 0.028183 -0.21089 0.19119
980000000 -0.052134 0.29002 0.017699 0.030556 -0.009075 0.0047958 0.0021923 0.0035495
0.0039607 -0.001492 -0.0034201 -0.0021367
0.017648 0.030541 -0.20963 0.34375 0.033476 0.0050595 0.0020191 -6.6362e-05
0.0014238 -0.005843 -0.00042825 -0.00251
-0.0090559 0.0048344 0.033514 0.0049219 0.11222 0.31017 0.00052252 -0.00111
0.00037696 -0.0020132 0.0016172 -0.00021055
0.0022158 0.0035451 0.0020038 -7.8445e-05 0.00052777 -0.0011122 -0.078368 0.26948
0.0078769 0.031455 -0.0091727 -0.0075219
0.0039614 -0.0015436 0.0013832 -0.0058703 0.00036905 -0.002019 0.0079441 0.03147
-0.11735 0.17309 0.0048096 0.020549
-0.0034231 -0.00215 -0.00045793 -0.0025058 0.0016164 -0.00022264 -0.009198 -0.0075258
0.004799 0.020545 -0.16833 0.23905
1040000000 -0.0097579 0.2985 0.033553 0.018625 -0.0011433 0.0071398 0.0026005 0.00055379
-1.6425e-05 -0.0037099 -0.00011147 -0.0013606
0.033491 0.018654 -0.17379 0.35688 0.029811 -0.014934 0.001432 -0.0017789
-0.0025363 -0.0025574 -0.0012336 -0.0025386
-0.0010989 0.0071641 0.029761 -0.015078 0.15843 0.29631 -0.00049065 -0.0015382
-0.0015658 -0.00084598 -0.00032834 -0.0011543
0.0026312 0.00053863 0.0014298 -0.0017615 -0.00050084 -0.0015416 -0.050692 0.27977
0.020169 0.019134 -0.0020973 0.0016074
-2.37e-05 -0.0037246 -0.0025613 -0.0025277 -0.0015842 -0.00087129 0.020205 0.019109
-0.0845 0.18104 0.013582 0.020035
-8.7342e-05 -0.0013931 -0.0012352 -0.0025445 -0.00032397 -0.001158 -0.0020888 0.0016298
0.013567 0.020035 -0.14856 0.26082
1100000000 0.035792 0.3062 0.036358 -0.0040607 0.0031412 0.003938 0.0023306 -0.0014584
-0.0020344 -0.0032117 -0.0038476 3.2323e-05
0.036329 -0.0040239 -0.13022 0.37427 0.015311 -0.028139 -0.00010591 -0.001802
-0.0032019 -0.00076127 -0.0034696 -0.00051523
0.0031591 0.0039408 0.015216 -0.028226 0.20484 0.27591 -0.0018669 0.00025348
-0.0017029 0.00045845 -0.0011098 -0.00061299
0.0023359 -0.0014773 -0.00011488 -0.0017964 -0.001869 0.00025035 -0.0099167 0.28486
0.025745 0.0054898 -0.0024396 0.00010608
-0.0020445 -0.0032048 -0.0032263 -0.00072562 -0.0017147 0.00046361 0.025763 0.005458
-0.066712 0.19522 0.019618 0.0097241
-0.0038377 1.9512e-05 -0.0034658 -0.00048688 -0.0011458 -0.0006017 -0.0024361 0.00012178
0.019607 0.0097364 -0.10287 0.2939
1160000000 0.087291 0.30108 0.024431 -0.020903 0.0029896 -0.00069353 -0.0004879 -0.002451
-0.0041631 -0.00083867 -0.00095655 0.0041004
0.024412 -0.02085 -0.086171 0.37834 -0.0037347 -0.029404 -0.001657 -0.0016489
-0.0026438 0.0022823 -0.0013767 0.0018547
0.0029946 -0.00069702 -0.0038706 -0.029423 0.24805 0.24495 -0.0006217 0.0017632
-0.00067455 0.0018959 -0.001117 0.00018819
-0.00048377 -0.0024575 -0.0016847 -0.0016451 -0.00062541 0.0017543 0.029932 0.28197
0.022322 -0.010671 -0.0030393 0.0052172
-0.0041677 -0.00081656 -0.0026585 0.0023054 -0.00067417 0.0018747 0.022307 -0.010714
-0.032553 0.20495 0.019071 0.0011742
-0.00091151 0.004139 -0.0013728 0.0018969 -0.0011034 0.00020095 -0.0030318 0.0052396
0.019083 0.0011968 -0.05525 0.29741
1220000000 0.13157 0.28982 0.010793 -0.030367 -0.0014484 -0.0011514 -0.00015087 -0.00074239
-0.0026954 0.0024359 0.0012823 0.0020575
0.010795 -0.030334 -0.041565 0.39017 -0.017054 -0.021276 -0.0024777 0.00051614
-1.796e-05 0.0029135 -0.00083773 0.0018965
-0.0014594 -0.0011438 -0.017164 -0.021221 0.28723 0.20575 0.00080757 0.0015554
0.00052276 0.0011925 0.00022911 0.00072879
-0.00014583 -0.00074731 -0.0024837 0.00053432 0.00080345 0.0015633 0.070034 0.27318
0.011176 -0.017809 0.0024337 0.0013206
-0.0026838 0.0024459 -3.7867e-06 0.0029157 0.00052377 0.0011986 0.011143 -0.017833
-0.010246 0.21418 0.015291 -0.012563
0.001294 0.0020393 -0.00082808 0.0019093 0.00021668 0.00070176 0.0024249 0.0013217
0.015288 -0.012562 -0.024962 0.31654
1280000000 0.18133 0.26776 -0.0077936 -0.028946 -0.0020016 0.002152 -0.00082766 -0.0017803
-0.00077165 0.0030526 0.0024339 0.0011673
-0.0077779 -0.028918 0.0045756 0.38086 -0.023843 -0.0084899 -0.00085954 0.0014142
0.0015565 0.0017853 0.00061446 0.0021447
-0.0019955 0.0021601 -0.023902 -0.0084027 0.31764 0.16162 0.0015644 -4.9365e-05
0.0011478 0.00040155 0.00038526 0.00047933
-0.00084025 -0.0017874 -0.00085207 0.0014222 0.0015659 -4.4125e-05 0.10681 0.25631
0.0014786 -0.020014 -0.00015791 -0.00015176
-0.0007576 0.0030502 0.0015668 0.0017771 0.001162 0.00040318 0.0014439 -0.020028
0.027113 0.21796 0.0038721 -0.015316
0.0024463 0.0011577 0.00063015 0.0021364 0.00040108 0.00048322 -0.00016233 -0.00015191
0.0038793 -0.015316 0.02412 0.32084
1340000000 0.21827 0.23362 -0.017714 -0.019437 0.00065513 0.0043549 -0.0014984 -0.00076143
0.0014812 0.0027302 0.0017575 -0.0013888
-0.017687 -0.019432 0.043999 0.37216 -0.021622 0.00426 -0.00014467 0.0018896
0.0018057 0.00090764 0.0013901 0.00081724
0.0006767 0.0043573 -0.021617 0.0043728 0.33948 0.11355 0.0010965 -0.00091905
0.00083672 -0.0004548 0.00033009 0.00042832
-0.0015023 -0.00076107 -0.00013588 0.0018978 0.0010953 -0.00091091 0.13878 0.2358
-0.0084971 -0.017369 0.00084061 0.00038342
0.0014939 0.0027249 0.0018163 0.00090357 0.0008408 -0.00045896 -0.0085436 -0.017356
0.056665 0.213 -0.0029182 -0.014097
0.0017437 -0.0014059 0.0014052 0.00081731 0.00032651 0.00041891 0.00084197 0.00038602
-0.0029242 -0.014092 0.062562 0.31801
1400000000 0.25095 0.19524 -0.023763 -0.0077951 0.004911 0.0031331 -0.0019361 0.00050248
0.0023604 0.00088236 0.00035386 -0.0013222
-0.023716 -0.0078119 0.081033 0.35865 -0.01485 0.012367 0.0012203 0.001273
0.001145 -0.00072109 0.0012809 0.00027911
0.0049287 0.0031015 -0.014804 0.012447 0.35253 0.059953 0.00010589 -0.0016014
-7.0785e-06 -0.00050266 0.00047478 0.00025113
-0.0019317 0.0005046 0.00123 0.0012744 9.9405e-05 -0.0015835 0.1678 0.20709
-0.014644 -0.010452 -0.0010609 -0.00065736
0.002368 0.00086547 0.0011437 -0.00071916 7.9261e-07 -0.00050048 -0.014683 -0.010413
0.089598 0.20877 -0.0095234 -0.0096681
0.00034399 -0.0013326 0.001279 0.00027999 0.00048212 0.00024826 -0.0010636 -0.00064947
-0.0095181 -0.0096928 0.1089 0.30821
1460000000 0.27328 0.15126 -0.020873 0.0046128 0.0054249 -0.0017094 -0.0016051 0.0015706
0.0021005 -0.00052526 -0.00034668 -0.00093318
-0.020855 0.0045887 0.11475 0.33652 -0.006196 0.015187 0.0016778 0.00024826
0.00098979 -0.0012932 0.0011918 -0.00070269
0.0054202 -0.001722 -0.0061158 0.015235 0.35826 0.0055869 -0.0012675 -0.0012705
0.00018134 -0.00038624 0.00059492 -0.00041524
-0.0015975 0.0015642 0.0016833 0.00025445 -0.0012719 -0.0012672 0.19367 0.17838
-0.016132 -0.0034957 -0.0010778 0.002066
0.0020858 -0.00054932 0.00098194 -0.0012971 0.0001787 -0.00039126 -0.016151 -0.0034515
0.11793 0.19379 -0.011876 -0.0034156
-0.00035748 -0.00094238 0.0011747 -0.00070779 0.00061307 -0.00042792 -0.0010795 0.0020658
-0.011873 -0.0033997 0.14314 0.288
1520000000 0.285 0.10979 -0.015235 0.01043 0.0032594 -0.0039911 7.6309e-06 0.0025573
0.0021243 -0.0016727 -0.0010922 -0.00013589
-0.015233 0.0104 0.14784 0.32179 0.0014217 0.013048 0.001706 -0.00070268
7.4035e-05 -0.0010805 0.00031125 -0.0010344
0.0032335 -0.0039965 0.0014952 0.013046 0.35142 -0.050678 -0.0010546 -0.00038286
0.00056342 -0.00080874 6.8693e-05 -0.00013105
2.1571e-05 0.0025556 0.0016958 -0.00070609 -0.0010611 -0.00038029 0.21662 0.14115
-0.015635 0.0024853 0.0013381 0.0021789
0.0021243 -0.001685 7.0052e-05 -0.0010813 0.00055907 -0.00080518 -0.015638 0.0025279
0.14478 0.18005 -0.012135 0.0010308
-0.0010785 -0.00014415 0.00031463 -0.0010451 7.7797e-05 -0.00012506 0.0013462 0.0021809
-0.012129 0.0010155 0.17744 0.26921
1580000000 0.29416 0.064086 -0.0083956 0.013779 -0.00086754 -0.0046761 0.0013034 0.0019293
-0.00026557 -0.0020766 -0.00031867 0.00043575
-0.0084059 0.013765 0.17462 0.29719 0.0049979 0.0082812 0.00056605 -0.0016007
-0.00063964 -0.0011187 -0.00034749 -0.00075038
-0.00089317 -0.004674 0.0050529 0.0082665 0.33083 -0.10798 -0.0016066 0.00065585
-0.00028843 -0.0010795 7.2558e-05 -0.00056738
0.0012998 0.0019222 0.00055789 -0.0015977 -0.001605 0.00065751 0.23053 0.10275
-0.012041 0.0077212 0.002207 0.0010235
-0.00030374 -0.002072 -0.00064699 -0.001118 -0.00029963 -0.0010973 -0.012029 0.0077603
0.16856 0.16275 -0.009733 0.0071668
-0.00031776 0.00043997 -0.00034677 -0.00075232 7.7207e-05 -0.0005679 0.002213 0.0010255
-0.0097395 0.0071708 0.2112 0.24262
1640000000 0.29628 0.023115 -0.0013918 0.01276 -0.0025167 -0.0024294 0.0027028 0.0010808
-0.00055862 -0.0015523 -0.00022871 0.00050927
-0.0014 0.01275 0.20393 0.27247 0.0058395 0.0036064 -0.00063012 -0.0018094
-0.0010682 -0.00035019 -0.00046846 -0.00065387
-0.0025423 -0.0024111 0.0058523 0.0035818 0.30265 -0.15707 -0.00060862 0.001466
-0.0010581 -0.0010348 -0.00010881 -0.00047216
0.0027017 0.0010679 -0.00064125 -0.0018056 -0.00061056 0.0014616 0.24312 0.054871
-0.0076995 0.0091524 0.0024852 -0.00068591
-0.00057082 -0.0015458 -0.0010619 -0.00034055 -0.001043 -0.0010346 -0.0076741 0.0091861
0.19003 0.13926 -0.0049708 0.0093383
-0.00022904 0.00052221 -0.00047748 -0.00064655 -8.6788e-05 -0.00046314 0.0024836 -0.00069304
-0.0049793 0.0093336 0.23739 0.212
1700000000 0.28917 -0.021939 0.0022068 0.0098304 -0.0032254 8.7952e-05 0.0030597 -0.0011676
-0.0020616 -0.00076367 0.00067199 0.00043876
0.0021952 0.0098313 0.22176 0.24127 0.0038407 0.00081608 -0.0015008 -0.00065573
-0.00073832 0.00011773 -0.00086402 -0.00040591
-0.0032402 8.6063e-05 0.0038471 0.00079055 0.25889 -0.19666 0.00047889 0.001622
-0.0018249 -0.00024966 -0.00038155 -0.00077563
0.0030531 -0.0011842 -0.0014972 -0.00064808 0.00047879 0.0016207 0.24072 0.006154
-0.0047748 0.0099476 0.0015643 -0.0021629
-0.0020712 -0.0007658 -0.00073605 0.00012314 -0.0018189 -0.00024522 -0.0047503 0.0099673
0.20694 0.11983 -0.00018343 0.0097863
0.00067447 0.00043254 -0.00087363 -0.00039504 -0.00040497 -0.00078967 0.0015691 -0.0021687
-0.00019301 0.0097806 0.25502 0.17763
1760000000 0.27717 -0.07035 0.0045821 0.0064581 -0.0021866 0.00085074 0.0013211 -0.0033932
-0.0013901 0.00063948 0.00044332 -0.00060538
0.0045777 0.006463 0.24768 0.20183 0.0016724 -0.00095376 -0.0012489 0.00017882
-0.00088751 0.00092745 -0.00046441 0.0004004
-0.0021595 0.00086568 0.0016655 -0.00096613 0.21 -0.22945 0.0012353 0.0010247
-0.001122 0.0013701 -0.0011733 -0.00054605
0.0013059 -0.0033947 -0.0012537 0.00018707 0.0012316 0.0010134 0.23288 -0.044511
-0.0012496 0.0092826 -0.0001178 -0.0024754
-0.001381 0.00065536 -0.00088536 0.00094109 -0.0011083 0.0013671 -0.0012163 0.0093011
0.22125 0.08598 0.003885 0.0072387
0.00043124 -0.00061517 -0.00046017 0.00040137 -0.0011659 -0.00052873 -0.0001213 -0.0024759
0.0038852 0.0072473 0.26825 0.14019
1820000000 0.25276 -0.10768 0.0048436 0.0027871 -4.1616e-05 0.0023239 -0.00094154 -0.0030495
-0.0011932 0.0009472 -3.4904e-05 -0.00012018
0.0048363 0.0027832 0.25774 0.17206 -0.00021417 5.1061e-05 -0.0013341 0.0010069
5.8978e-05 0.0012045 -0.00048301 0.00047548
-2.4328e-05 0.0023375 -0.00021405 5.7235e-05 0.1603 -0.24525 0.0014061 0.00033977
-0.00029501 0.0022718 -0.0013412 0.00017395
-0.0009627 -0.0030456 -0.0013274 0.001027 0.0014309 0.00034968 0.20446 -0.091635
0.00050689 0.0077373 -0.0014678 -0.001607
-0.0011861 0.0009635 6.3712e-05 0.0012094 -0.00030212 0.0022895 0.00052658 0.0077419
0.23838 0.058103 0.0049064 0.0037844
-3.9991e-05 -0.00012209 -0.00047521 0.00048169 -0.0013494 0.00015377 -0.0014669 -0.0015998
0.0048923 0.0037875 0.27159 0.10457
1880000000 0.21777 -0.14812 0.0027441 0.0003826 -0.00031678 0.0020112 -0.002878 -0.0022833
-0.0001399 0.0017945 0.00021332 -0.00055229
0.002748 0.00038065 0.26241 0.12586 -0.0021206 0.00169 -0.00015183 0.0017042
0.00053985 0.0010673 6.1954e-05 0.00083621
-0.00029709 0.0020422 -0.0021178 0.0017069 0.10818 -0.2548 0.0016914 -0.00086568
0.0014113 0.0019839 -0.0011823 0.0012773
-0.0028948 -0.0022721 -0.00014373 0.0017054 0.0016962 -0.00086635 0.16529 -0.13253
0.001592 0.005781 -0.002334 0.00034492
-0.00014374 0.0018067 0.0005629 0.0010554 0.0014241 0.0019862 0.0016086 0.0057816
0.24153 0.026732 0.0051585 0.0016713
0.00020193 -0.00054995 6.9255e-05 0.00083181 -0.0011653 0.0012796 -0.0023195 0.00036073
0.0051572 0.0016604 0.27182 0.070211
1940000000 0.17835 -0.17396 0.00052923 -0.0014657 0.0013675 0.0019522 -0.0036764 0.00043427
0.0014053 0.0010721 -0.00070279 -0.00047878
0.00052415 -0.0014556 0.26331 0.094156 -0.0010434 0.003835 0.0010455 0.0013548
0.0016344 0.00039172 0.00069675 0.00024881
0.0013926 0.0019253 -0.0010027 0.0038546 0.06216 -0.24825 0.00046273 -0.0020529
0.0023921 0.00052126 0.0001351 0.0017127
-0.0036835 0.00045607 0.0010616 0.0013513 0.00047188 -0.0020418 0.11372 -0.16441
0.0011106 0.0042346 -0.0013894 0.0015051
0.0014019 0.0010668 0.0016476 0.00038191 0.0023894 0.0005142 0.0011219 0.0042328
0.24397 -0.011327 0.0039259 -0.0019962
-0.00071445 -0.00046592 0.00070161 0.00024994 0.00010614 0.0017142 -0.0013838 0.0015
0.003933 -0.0020063 0.2617 0.034861
2000000000 0.13201 -0.1888 -0.0033678 0.00030428 0.0023749 0.0016092 -0.0024228 0.0033899
0.0012046 2.9783e-05 -0.00064494 0.00036266
-0.0033721 0.00030296 0.24947 0.058556 -0.0008993 0.0056059 0.0016528 0.00034867
0.0011765 -0.001265 0.00041319 0.00016289
0.0023997 0.0015931 -0.00086282 0.005641 0.018492 -0.23343 -0.0012537 -0.001323
0.002066 -0.0011343 0.0017092 0.0014393
-0.0024057 0.0034077 0.0016594 0.00034753 -0.0012596 -0.001328 0.060095 -0.17572
-0.00022133 0.0036783 1.7492e-05 0.0021904
0.00119 1.7793e-05 0.0011664 -0.0012757 0.0020576 -0.0011562 -0.00021044 0.0036793
0.23859 -0.044762 0.00066096 -0.0028437
