!Keysight Technologies,M9804A,MY58100912,A.14.10.03
!Date: Thursday, April 27, 2023 10:28:33
!Correction: S11(C  6-Port  ) 
!S12(C  6-Port  ) 
!S13(C  6-Port  ) 
!S14(C  6-Port  ) 
!S15(C  6-Port  ) 
!S16(C  6-Port  ) 
!S21(C  6-Port  ) 
!S22(C  6-Port  ) 
!S23(C  6-Port  ) 
!S24(C  6-Port  ) 
!S25(C  6-Port  ) 
!S26(C  6-Port  ) 
!S31(C  6-Port  ) 
!S32(C  6-Port  ) 
!S33(C  6-Port  ) 
!S34(C  6-Port  ) 
!S35(C  6-Port  ) 
!S36(C  6-Port  ) 
!S41(C  6-Port  ) 
!S42(C  6-Port  ) 
!S43(C  6-Port  ) 
!S44(C  6-Port  ) 
!S45(C  6-Port  ) 
!S46(C  6-Port  ) 
!S51(C  6-Port  ) 
!S52(C  6-Port  ) 
!S53(C  6-Port  ) 
!S54(C  6-Port  ) 
!S55(C  6-Port  ) 
!S56(C  6-Port  ) 
!S61(C  6-Port  ) 
!S62(C  6-Port  ) 
!S63(C  6-Port  ) 
!S64(C  6-Port  ) 
!S65(C  6-Port  ) 
!S66(C  6-Port  ) 
!S6P File: Measurement: :
# Hz S  RI   R 50
500000000 -0.33696 -0.040872 -0.010005 -0.0024697 -0.0083202 0.012607 -0.0045606 0.012452
0.013101 0.0048848 -0.0051777 0.0094128
-0.0099794 -0.0024499 -0.41873 -0.052629 0.0080105 -0.010771 0.001508 0.012398
0.0078052 0.0018278 0.0014844 0.013626
-0.0083017 0.012603 0.0080228 -0.010786 -0.26551 0.2085 0.0078056 0.0035591
-0.0022468 0.0075822 0.0015745 0.01205
-0.0045493 0.012491 0.0015087 0.012377 0.0077587 0.0035545 -0.33177 0.040988
-0.019647 -0.0063378 0.015841 0.026445
0.013004 0.0049261 0.0077421 0.0018685 -0.0021961 0.0075795 -0.019605 -0.006363
-0.21898 -0.20484 -0.026216 0.0055843
-0.0052614 0.0094296 0.0014538 0.013597 0.0015471 0.012063 0.015834 0.026423
-0.026227 0.005541 -0.26318 -0.14457
560000000 -0.31629 0.12139 -0.023712 -0.063369 -0.0002562 0.012305 0.0052766 0.010936
0.010462 0.0052506 0.011148 0.0079792
-0.023726 -0.063305 -0.37726 0.10703 -0.041164 -0.038114 0.014415 0.0038539
-0.013055 -0.0049766 0.0034051 0.00045298
-0.00022443 0.01229 -0.041272 -0.038063 -0.1832 0.25709 -0.00097474 -0.004079
0.019601 0.0047648 0.0064097 -0.0057934
0.0052819 0.010933 0.014417 0.0037535 -0.00091825 -0.0040557 -0.30671 0.13095
0.0035309 -0.024039 0.0045007 -0.021904
0.010536 0.0052145 -0.013122 -0.005042 0.019695 0.0049546 0.0034284 -0.024014
-0.28912 -0.029283 0.0089242 -0.049148
0.011186 0.0078704 0.0032676 0.0004625 0.0064519 -0.0057855 0.0044731 -0.021905
0.0089311 -0.049171 -0.32922 0.0064042
620000000 -0.27592 0.10551 -0.023451 0.0078072 0.0030242 0.0086735 0.0081583 -0.0052836
0.010839 2.2435e-05 0.0016464 -0.002327
-0.023464 0.0077677 -0.40253 0.058433 -0.018593 -0.00017735 -0.0015014 -0.0019475
0.011546 -0.0064685 0.0015394 -0.0032494
0.0030446 0.0086627 -0.018616 -0.00013357 -0.15439 0.26554 -0.00129 -0.0051217
-0.0030587 -0.0023617 0.0082969 -0.0034429
0.0082073 -0.0052688 -0.0014778 -0.0019503 -0.001337 -0.0051045 -0.26678 0.14221
-0.038595 -0.019886 0.013066 0.027124
0.01076 3.5661e-05 0.01155 -0.006594 -0.0030069 -0.0025494 -0.038686 -0.019823
-0.20651 -0.067227 -0.042917 0.014204
0.0016447 -0.0022149 0.0015242 -0.0032403 0.0082438 -0.0035601 0.012973 0.027175
-0.042949 0.014209 -0.24744 -0.03175
680000000 -0.23527 0.19161 -0.027472 -0.014237 0.0046296 0.0051255 0.0016027 -0.0072233
-0.0032323 -0.011249 0.0057506 -0.0071948
-0.027452 -0.014235 -0.38814 0.15678 -0.032825 -0.0015076 -0.0017412 -0.00045111
-0.0018749 -0.0088623 -0.00065954 -0.0015048
0.0046432 0.0051186 -0.032874 -0.0014278 -0.10265 0.28603 -0.00068784 -0.00025241
-0.0017694 0.00062345 -0.002817 -0.0089753
0.0015463 -0.0072274 -0.0017647 -0.00046809 -0.00069119 -0.00025876 -0.22147 0.19357
-0.023762 -0.0073443 -0.0096488 -0.011657
-0.003345 -0.011318 -0.0019548 -0.00881 -0.0017564 0.00066768 -0.023736 -0.0072769
-0.2601 0.032536 -0.0057035 -0.0087075
0.0057713 -0.0071712 -0.00069738 -0.0014747 -0.0028508 -0.008961 -0.0096054 -0.011666
-0.0057397 -0.0087446 -0.26159 0.075922
740000000 -0.19107 0.18645 -0.038673 0.027056 0.012683 -0.0048082 -6.4642e-05 -0.0044728
-0.0037582 -0.0026056 -0.0062296 0.0024633
-0.038643 0.027006 -0.33515 0.17602 -0.035753 0.035247 -0.00074212 -0.0062127
-0.011746 0.0080661 -0.0020814 -0.0065435
0.012689 -0.0048013 -0.035681 0.035391 -0.069058 0.28419 -0.0021363 0.0031299
-0.0022609 -0.0052142 -0.0016081 -5.5402e-05
-1.5672e-05 -0.0044947 -0.0007484 -0.0062563 -0.0021817 0.0031318 -0.20482 0.20118
-0.044575 -0.0068136 0.023629 0.015736
-0.0038652 -0.0026252 -0.011673 0.0080803 -0.0022693 -0.0052152 -0.044602 -0.0067898
-0.15788 0.059368 -0.045172 0.00011117
-0.0061372 0.0023698 -0.0021666 -0.0065269 -0.0016933 -0.00010229 0.023659 0.015722
-0.045199 0.00010268 -0.25135 0.081606
800000000 -0.15837 0.22663 -0.022324 0.016695 0.0053141 -0.010655 -0.0046528 -0.0021137
-0.0040391 0.002164 0.0047805 -7.5464e-05
-0.022322 0.016664 -0.3385 0.24607 -0.0078422 0.033996 -0.0024088 0.0022788
-0.00068278 0.0028683 0.0010327 0.0051453
0.0052969 -0.010678 -0.0077375 0.034046 -0.0283 0.30762 0.0010005 0.0014814
0.00031597 0.0033258 -0.0018006 0.00073144
-0.0046653 -0.0020991 -0.0024147 0.0022837 0.0010043 0.001483 -0.17662 0.22951
-0.028983 0.014103 0.014285 -0.010447
-0.0040563 0.0021911 -0.00070447 0.0028784 0.00031117 0.0033282 -0.029009 0.014186
-0.20805 0.083562 -0.017825 0.019263
0.0047443 -6.9796e-05 0.0010556 0.0051489 -0.0017988 0.00074239 0.014281 -0.01049
-0.017836 0.01926 -0.24769 0.13234
860000000 -0.12372 0.247 -0.017541 0.030515 -0.0034172 -0.010043 -0.0022573 0.00084765
0.0038172 0.0046085 -0.0033483 -0.0032337
-0.017541 0.030495 -0.29102 0.288 0.0078453 0.034118 -6.8083e-05 0.0020218
0.0039738 4.2818e-05 0.0033675 0.00053895
-0.0034371 -0.010028 0.0079763 0.034127 0.019755 0.31551 -0.00057725 -0.00021036
0.0026357 -0.0014996 0.0014821 0.0041859
-0.002264 0.0008481 -5.3672e-05 0.0020565 -0.00057093 -0.00019586 -0.13978 0.2407
-0.018353 0.01892 -0.0063436 -0.0090245
0.0038608 0.0045648 0.0039224 6.0947e-05 0.0026336 -0.001533 -0.018337 0.01897
-0.15657 0.13628 -0.026643 0.015156
-0.0033823 -0.0032012 0.0033642 0.00053425 0.0014326 0.0042305 -0.0063815 -0.0090331
-0.026653 0.015177 -0.19551 0.18015
920000000 -0.099106 0.27024 0.0050118 0.037869 -0.009504 -0.0044263 -0.0018714 0.0019036
0.00088318 0.0018027 0.0025638 -0.0017089
0.0049785 0.037843 -0.26211 0.30938 0.028035 0.021942 0.0013517 0.0011294
0.0070948 -0.0003897 0.003915 -0.0027934
-0.0095209 -0.0043944 0.028148 0.021867 0.065992 0.31611 0.0018483 -9.2147e-06
0.0011193 -0.0003764 0.00083054 -0.0010858
-0.0018798 0.0019345 0.0013711 0.0011331 0.0018587 -3.4698e-06 -0.11609 0.2579
-0.010913 0.031399 0.0039263 -0.0066691
0.00088039 0.0017862 0.0071551 -0.00042029 0.0011416 -0.00037134 -0.01081 0.031435
-0.147 0.14286 -0.0028485 0.027989
0.0025695 -0.0016394 0.0039675 -0.0028634 0.00082901 -0.0010843 0.0039321 -0.0067048
-0.0028408 0.027993 -0.20762 0.19438
980000000 -0.051731 0.28976 0.017427 0.029907 -0.0090042 0.0046841 0.0020855 0.0034736
0.0038443 -0.0012572 -0.0032993 -0.00208
0.017407 0.029897 -0.20921 0.34314 0.033009 0.0048995 0.002052 -6.7663e-05
0.0015649 -0.0056947 -0.00032643 -0.0023863
-0.00899 0.0047216 0.03309 0.0047881 0.11221 0.30956 0.00052749 -0.0011562
0.00025106 -0.0020528 0.0014211 -9.4216e-05
0.0020963 0.0034599 0.0020521 -4.6986e-05 0.00053339 -0.0011583 -0.077355 0.26913
0.0081115 0.030823 -0.009029 -0.0075057
0.0038643 -0.0012987 0.001507 -0.0057112 0.00024688 -0.0021014 0.0081879 0.030829
-0.11576 0.17251 0.0044668 0.019737
-0.0032591 -0.0020916 -0.00033392 -0.0023965 0.0014142 -0.00011908 -0.0090249 -0.0074982
0.0044709 0.019764 -0.16523 0.24183
1040000000 -0.0096662 0.2981 0.033116 0.018289 -0.0012295 0.007022 0.0025023 0.00058238
-4.1053e-05 -0.0036352 -0.00019529 -0.0014144
0.03308 0.018291 -0.17365 0.3563 0.029285 -0.014726 0.001489 -0.0017121
-0.0025197 -0.0025661 -0.001274 -0.0025018
-0.0012118 0.0070386 0.029282 -0.014868 0.15818 0.29582 -0.00048605 -0.001559
-0.0015959 -0.0009181 -0.00043696 -0.0011419
0.0024841 0.00056152 0.0014914 -0.0016915 -0.00048078 -0.0015486 -0.049895 0.27943
0.020011 0.018744 -0.0020742 0.0013031
-2.511e-05 -0.0036707 -0.0025191 -0.0025173 -0.0015877 -0.00091063 0.020047 0.018699
-0.083176 0.18046 0.013457 0.019292
-0.00019394 -0.0014341 -0.0012735 -0.0024864 -0.00044435 -0.0011343 -0.002087 0.0012919
0.013484 0.019304 -0.14462 0.26255
1100000000 0.035715 0.30596 0.03575 -0.004169 0.0029619 0.0038938 0.0022823 -0.0013096
-0.001936 -0.0032432 -0.0038388 1.5962e-05
0.035722 -0.0041446 -0.13016 0.37351 0.015076 -0.027699 -4.0239e-05 -0.0018248
-0.0032329 -0.00087216 -0.0034626 -0.00048533
0.0029829 0.0038862 0.014982 -0.027798 0.20441 0.2755 -0.0018736 0.0002067
-0.0018089 0.00049092 -0.0010947 -0.00034128
0.0022814 -0.0013185 -4.2118e-05 -0.0018137 -0.0018711 0.00022623 -0.0094082 0.28437
0.025521 0.0052842 -0.0026043 -0.00015625
-0.0019558 -0.0032327 -0.003261 -0.00084954 -0.0018262 0.0004883 0.025564 0.0052434
-0.065754 0.19431 0.019209 0.0091151
-0.0038662 2.9788e-05 -0.0034933 -0.00048519 -0.0011063 -0.00036147 -0.0026143 -0.00018092
0.019244 0.0091193 -0.099296 0.29468
1160000000 0.08715 0.30099 0.023857 -0.02059 0.0027876 -0.00051898 -0.00034389 -0.0023349
-0.0041179 -0.00088426 -0.00096153 0.0040283
0.023856 -0.020563 -0.086536 0.37759 -0.0036734 -0.029001 -0.0016973 -0.0016621
-0.0027711 0.0023525 -0.0013309 0.0018078
0.0027834 -0.00052813 -0.0037959 -0.029028 0.24748 0.24481 -0.00070849 0.0017039
-0.00071658 0.0019351 -0.0010153 0.00029024
-0.00036529 -0.0023325 -0.0016865 -0.0016366 -0.00070485 0.0016989 0.030056 0.28159
0.022054 -0.010683 -0.0031279 0.0050492
-0.0041431 -0.00085214 -0.0027638 0.0024072 -0.00068467 0.0019221 0.022054 -0.010724
-0.032127 0.20366 0.018564 0.0012754
-0.00092215 0.0040274 -0.0012934 0.0018147 -0.0010198 0.00029693 -0.0031309 0.0050586
0.018633 0.0012488 -0.051861 0.29812
1220000000 0.1314 0.28974 0.010452 -0.029899 -0.001563 -0.00095103 1.708e-05 -0.00082324
-0.002682 0.0023787 0.0012417 0.0020557
0.010464 -0.029861 -0.042215 0.38949 -0.016796 -0.021087 -0.0025002 0.00042833
-5.8287e-05 0.0029627 -0.00082334 0.001892
-0.0015721 -0.00095513 -0.0169 -0.021022 0.28662 0.20585 0.00077736 0.0016545
0.00058472 0.00125 0.0003601 0.00064907
1.2156e-05 -0.00084087 -0.002498 0.00044365 0.00076724 0.0016527 0.07004 0.27299
0.011119 -0.017664 0.002135 0.001387
-0.0026782 0.0024136 -5.4918e-05 0.0029722 0.00058528 0.0012456 0.011102 -0.01768
-0.010188 0.2127 0.014787 -0.012415
0.0012557 0.0020416 -0.00081992 0.0018938 0.0003556 0.00063255 0.0021168 0.0013764
0.014828 -0.012476 -0.021547 0.31657
1280000000 0.18107 0.26779 -0.0078093 -0.028378 -0.0018919 0.0023908 -0.00083302 -0.0019623
-0.00084616 0.0030189 0.0024777 0.001182
-0.0077797 -0.028354 0.0036049 0.38046 -0.023597 -0.0085128 -0.00098242 0.0014353
0.0015616 0.0018506 0.00058032 0.0020657
-0.0018847 0.0023983 -0.023666 -0.0084078 0.31718 0.16199 0.0016006 2.759e-05
0.0011413 0.00035326 0.00042305 0.00031469
-0.00083566 -0.0019524 -0.00096287 0.0014479 0.0015989 4.7936e-05 0.10687 0.25645
0.0015155 -0.019936 -0.00030168 8.2088e-05
-0.00083264 0.0030263 0.0015686 0.0018319 0.0011516 0.00035359 0.0014821 -0.01995
0.02656 0.21669 0.0036453 -0.014928
0.0024871 0.0011885 0.00060047 0.002073 0.00043107 0.00030861 -0.00032111 8.3829e-05
0.0036699 -0.014998 0.027007 0.32025
1340000000 0.21806 0.23398 -0.017442 -0.018932 0.00082649 0.0044623 -0.0016347 -0.00082869
0.0014435 0.0027713 0.0017645 -0.0013384
-0.017405 -0.018935 0.042833 0.37224 -0.02151 0.004127 -0.0002014 0.0019808
0.0018818 0.00092138 0.0013197 0.00080107
0.00083802 0.0044529 -0.021517 0.004241 0.33917 0.11417 0.0011723 -0.00085009
0.00074219 -0.00044601 0.00020235 0.00036427
-0.0016354 -0.00081439 -0.00018155 0.0019695 0.0011764 -0.00085404 0.13906 0.23601
-0.0083039 -0.017334 0.00077633 0.00060141
0.001474 0.0027623 0.001892 0.00090941 0.000741 -0.000455 -0.0083376 -0.017324
0.055849 0.21218 -0.002907 -0.013621
0.0017727 -0.0013459 0.0013516 0.00079313 0.00021303 0.00034823 0.00076033 0.00061479
-0.00294 -0.013712 0.065233 0.3172
1400000000 0.25084 0.19579 -0.023207 -0.0075464 0.0050529 0.0030785 -0.0020089 0.00054509
0.0024041 0.00093562 0.0003853 -0.0013691
-0.023173 -0.0075565 0.079992 0.35925 -0.014826 0.012204 0.0012613 0.0013721
0.0011788 -0.00070061 0.0012699 0.00027942
0.005073 0.0030461 -0.014786 0.012291 0.35242 0.060715 0.00023277 -0.0016914
4.2623e-05 -0.00046931 0.0003993 0.0002007
-0.0020145 0.00056279 0.0012718 0.0013632 0.00023243 -0.001691 0.16819 0.20725
-0.014538 -0.010675 -0.00099393 -0.00046235
0.0024007 0.00091807 0.0011764 -0.00071242 2.495e-05 -0.00047989 -0.014565 -0.010642
0.088305 0.20836 -0.0094323 -0.0093145
0.00037807 -0.0013617 0.0012868 0.00027085 0.00040331 0.00019994 -0.00099514 -0.0004465
-0.0094902 -0.0093844 0.11114 0.30713
1460000000 0.27346 0.15184 -0.02032 0.0045244 0.0055529 -0.0018763 -0.0016009 0.0016511
0.002128 -0.00047489 -0.00033974 -0.00098201
-0.020307 0.0044997 0.11408 0.33759 -0.0062356 0.015115 0.0017618 0.0002321
0.00097259 -0.0013168 0.0011711 -0.00062751
0.0055478 -0.0018986 -0.0061664 0.015164 0.35855 0.0064272 -0.0013393 -0.0013219
0.00015728 -0.00032854 0.00060453 -0.00035837
-0.0016151 0.0016607 0.0017672 0.00022937 -0.001336 -0.0013341 0.19418 0.1784
-0.016182 -0.0038007 -0.001016 0.0021545
0.0021195 -0.00048247 0.00097191 -0.0013146 0.00014183 -0.00031297 -0.016194 -0.0037637
0.11677 0.19398 -0.011623 -0.0032279
-0.00035009 -0.0010217 0.0011667 -0.00062572 0.00059592 -0.00036505 -0.0010075 0.0021682
-0.011714 -0.0032587 0.14512 0.28698
1520000000 0.2855 0.11022 -0.014775 0.010102 0.0032245 -0.0041689 5.3789e-05 0.0026192
0.0021903 -0.0016291 -0.0011463 -0.00021262
-0.014774 0.010084 0.14761 0.32295 0.0013694 0.013007 0.0017143 -0.00076826
7.1201e-05 -0.0011112 0.00034609 -0.0010123
0.0032137 -0.004184 0.0014432 0.013012 0.35185 -0.050059 -0.0011909 -0.00038938
0.00060567 -0.00083428 5.0127e-05 -8.5767e-05
5.1977e-05 0.0026135 0.0017118 -0.00078005 -0.001191 -0.00039322 0.21708 0.1411
-0.015914 0.0021699 0.0014897 0.0022628
0.0021812 -0.0016518 6.7451e-05 -0.0011191 0.00060426 -0.00084639 -0.015912 0.0022191
0.14395 0.18047 -0.011828 0.0010541
-0.0011639 -0.00021542 0.00032201 -0.0010272 6.5482e-05 -8.1188e-05 0.0015173 0.0022676
-0.011921 0.0010839 0.17933 0.26799
1580000000 0.29477 0.064209 -0.0082087 0.013252 -0.0009601 -0.0047726 0.0013621 0.0019587
-0.00016457 -0.0020769 -0.00040372 0.00040515
-0.0082162 0.013241 0.17493 0.29832 0.0049389 0.0083105 0.00050623 -0.0016242
-0.00063505 -0.0011402 -0.00027946 -0.00078307
-0.00098099 -0.0047652 0.0049957 0.00829 0.33132 -0.10782 -0.0016567 0.00069494
-0.00024208 -0.001135 0.00012536 -0.00040467
0.0013662 0.0019544 0.0004924 -0.0016338 -0.0016608 0.00069036 0.23099 0.10265
-0.012555 0.0076017 0.0023902 0.0009783
-0.00018344 -0.0020892 -0.00064683 -0.0011355 -0.00024555 -0.0011351 -0.012547 0.0076381
0.16793 0.16349 -0.0094699 0.0070026
-0.0004052 0.00041255 -0.00029035 -0.00077939 0.00011073 -0.00041984 0.0024102 0.000975
-0.0095454 0.0070625 0.21281 0.24144
1640000000 0.29684 0.023061 -0.0015341 0.012294 -0.0026283 -0.0025358 0.0027559 0.0010674
-0.00057711 -0.001629 -0.00026227 0.00049973
-0.0015503 0.012286 0.20459 0.27334 0.0058092 0.0037006 -0.00068498 -0.0017857
-0.0010922 -0.00042026 -0.00044026 -0.00070693
-0.0026424 -0.0025135 0.0058323 0.0036705 0.30284 -0.15663 -0.00065395 0.0015061
-0.00099462 -0.0011355 -7.0355e-05 -0.00041506
0.0027584 0.0010551 -0.0006931 -0.0017922 -0.00066398 0.0015034 0.24364 0.054648
-0.0081952 0.0093822 0.0025824 -0.00074137
-0.00059002 -0.0016328 -0.0010814 -0.0004153 -0.0010096 -0.0011406 -0.0081819 0.0094132
0.18978 0.14003 -0.0049323 0.0091321
-0.00026275 0.00051684 -0.00044775 -0.00070677 -9.2869e-05 -0.00043585 0.002593 -0.00076366
-0.0049617 0.0092257 0.23887 0.21066
1700000000 0.28969 -0.022346 0.0019261 0.0095732 -0.0034062 0.00014376 0.0031117 -0.0012356
-0.0020511 -0.00086489 0.00060296 0.00047456
0.0019199 0.0095598 0.22273 0.24171 0.0039177 0.00081179 -0.0015113 -0.00060861
-0.00082754 0.00011567 -0.00088551 -0.00049295
-0.0033998 0.00016036 0.0039326 0.00078655 0.25948 -0.19631 0.00054207 0.0016778
-0.0019765 -0.00025963 -0.0003422 -0.00081075
0.0030932 -0.0012528 -0.0015127 -0.00060321 0.00054958 0.0016784 0.24127 0.0057635
-0.0051388 0.010482 0.0016313 -0.002292
-0.0020676 -0.00083585 -0.00083308 0.00011808 -0.0019839 -0.00025587 -0.0051092 0.010487
0.20672 0.1207 -0.00025385 0.0096497
0.000611 0.00047909 -0.00088968 -0.00048161 -0.00035017 -0.00082037 0.0016309 -0.0023102
-0.00024092 0.0097417 0.25628 0.17626
1760000000 0.2774 -0.070881 0.0042835 0.0063501 -0.0022563 0.00091042 0.0012792 -0.0034794
-0.00149 0.00057441 0.0004563 -0.0005653
0.0042704 0.0063444 0.24865 0.20172 0.0017147 -0.0011833 -0.0012191 0.00019726
-0.00095977 0.00095457 -0.00057546 0.00039298
-0.0022534 0.00091866 0.0017077 -0.0011914 0.21109 -0.23 0.0012378 0.0010095
-0.0012194 0.0014515 -0.0012756 -0.00051793
0.0012513 -0.0034783 -0.0012193 0.00021091 0.0012376 0.0010171 0.23321 -0.04512
-0.0011922 0.0099203 -0.00012367 -0.0025646
-0.0014974 0.00058247 -0.0009508 0.00096357 -0.0012213 0.0014597 -0.0011627 0.0099348
0.2214 0.086901 0.0037756 0.0072128
0.00045695 -0.00058162 -0.00056753 0.00039933 -0.0012865 -0.00052574 -0.0001403 -0.0025804
0.0038292 0.0072952 0.2694 0.13867
1820000000 0.25262 -0.10808 0.0045712 0.0027757 8.6382e-05 0.0023921 -0.0010562 -0.0030591
-0.0012599 0.00099679 -4.3335e-05 -9.2592e-05
0.004572 0.0027844 0.25859 0.17157 -0.00021864 6.4778e-05 -0.0012937 0.0010045
6.6461e-05 0.0013032 -0.00057956 0.00050087
0.00011408 0.0023887 -0.00021847 6.6579e-05 0.16045 -0.2454 0.0015384 0.00035126
-0.00022918 0.0024572 -0.0014848 0.00024262
-0.0010681 -0.0030512 -0.0012874 0.0010122 0.0015356 0.0003169 0.20451 -0.092317
0.00094505 0.0082561 -0.0015513 -0.0016528
-0.0012572 0.0010009 7.6749e-05 0.0013119 -0.00023277 0.0024882 0.0009633 0.0082558
0.23874 0.05898 0.0048166 0.0037832
-3.2144e-05 -8.9265e-05 -0.00057105 0.00050462 -0.0014848 0.00024399 -0.0015572 -0.001659
0.004889 0.0038246 0.27236 0.10296
1880000000 0.21749 -0.14844 0.0024661 0.00041984 -0.00035212 0.0020843 -0.0029472 -0.0021672
-0.00017371 0.0018319 0.00025667 -0.00055937
0.0024592 0.00041678 0.26285 0.12495 -0.0022053 0.0016733 -0.00017574 0.0016661
0.00060266 0.0011067 6.3476e-05 0.00095869
-0.0003521 0.0020852 -0.0022036 0.0016938 0.10806 -0.25511 0.0017042 -0.00098263
0.0015043 0.0020404 -0.0011022 0.0013334
-0.002962 -0.0021555 -0.00016343 0.0016544 0.0017108 -0.0009853 0.16501 -0.133
0.0021868 0.0059199 -0.0023965 0.00031982
-0.00014861 0.0018256 0.00063228 0.0010998 0.0014971 0.002035 0.0021964 0.0059187
0.24218 0.027554 0.0050593 0.0017328
0.00025155 -0.00055537 7.8031e-05 0.00095118 -0.0011036 0.0013333 -0.0023918 0.00032707
0.0051339 0.0017369 0.27251 0.068681
1940000000 0.17809 -0.17411 0.0002391 -0.0013227 0.0012447 0.0018639 -0.0037364 0.00053073
0.0014151 0.0011311 -0.00075556 -0.0005672
0.00024187 -0.0013171 0.26324 0.093109 -0.0010273 0.003828 0.0010427 0.001299
0.0017634 0.00038746 0.00081791 0.00033203
0.0012732 0.0018582 -0.0010052 0.003839 0.06237 -0.24803 0.00036293 -0.0020755
0.0025148 0.00041228 0.0002593 0.0017409
-0.0037293 0.00055818 0.0010503 0.0012993 0.00034445 -0.0020858 0.11329 -0.16448
0.001551 0.0040591 -0.0014143 0.0013625
0.0014146 0.0011284 0.0017686 0.00036963 0.0024994 0.00040309 0.0015674 0.0040457
0.24504 -0.010808 0.0040606 -0.0019052
-0.00076373 -0.00055364 0.00082077 0.00031768 0.00030195 0.001738 -0.00141 0.0013556
0.0041374 -0.0019491 0.26212 0.033424
2000000000 0.13142 -0.18877 -0.0035205 0.00054158 0.0025181 0.0016662 -0.0023235 0.0033784
0.0012704 1.8492e-05 -0.00077659 0.00040557
-0.0034997 0.00052935 0.24889 0.05765 -0.00090414 0.0056481 0.0015777 0.0004141
0.0011489 -0.0013219 0.00051249 9.394e-05
0.0025459 0.0016464 -0.00085146 0.0056526 0.018597 -0.23333 -0.0013069 -0.001225
0.001954 -0.0012062 0.0016413 0.0013381
-0.0022902 0.0033924 0.0015872 0.00040153 -0.0012952 -0.0012164 0.059781 -0.17544
-3.0481e-05 0.0033114 -0.00014364 0.0021304
0.0012717 1.7393e-05 0.0011372 -0.0013484 0.0019681 -0.0012259 -2.0457e-05 0.0033153
0.23972 -0.044585 0.00069626 -0.0028945
