!Keysight Technologies,M9804A,MY58100912,A.14.10.03
!Date: Thursday, April 27, 2023 10:28:33
!Correction: S11(C  6-Port  ) 
!S12(C  6-Port  ) 
!S13(C  6-Port  ) 
!S14(C  6-Port  ) 
!S15(C  6-Port  ) 
!S16(C  6-Port  ) 
!S21(C  6-Port  ) 
!S22(C  6-Port  ) 
!S23(C  6-Port  ) 
!S24(C  6-Port  ) 
!S25(C  6-Port  ) 
!S26(C  6-Port  ) 
!S31(C  6-Port  ) 
!S32(C  6-Port  ) 
!S33(C  6-Port  ) 
!S34(C  6-Port  ) 
!S35(C  6-Port  ) 
!S36(C  6-Port  ) 
!S41(C  6-Port  ) 
!S42(C  6-Port  ) 
!S43(C  6-Port  ) 
!S44(C  6-Port  ) 
!S45(C  6-Port  ) 
!S46(C  6-Port  ) 
!S51(C  6-Port  ) 
!S52(C  6-Port  ) 
!S53(C  6-Port  ) 
!S54(C  6-Port  ) 
!S55(C  6-Port  ) 
!S56(C  6-Port  ) 
!S61(C  6-Port  ) 
!S62(C  6-Port  ) 
!S63(C  6-Port  ) 
!S64(C  6-Port  ) 
!S65(C  6-Port  ) 
!S66(C  6-Port  ) 
!S6P File: Measurement: :
# Hz S  RI   R 50
500000000 -0.33164 -0.063582 -0.0099871 -0.00079939 -0.0088095 0.01237 -0.0046707 0.012054
0.013057 0.0050251 -0.0047168 0.0080424
-0.010079 -0.00070886 -0.41273 -0.072645 0.0088486 -0.010887 0.00063629 0.012176
0.0082217 0.0023573 0.000265 0.014625
-0.0087039 0.012419 0.0086731 -0.011204 -0.26536 0.19159 0.0066212 0.0038675
-0.0017446 0.0081989 0.00016419 0.012414
-0.0052309 0.012165 0.00054604 0.012037 0.006519 0.0036497 -0.33112 0.037442
-0.018583 -0.003777 0.016415 0.026366
0.013162 0.0054879 0.0083383 0.0033068 -0.0017186 0.0084345 -0.01812 -0.0038229
-0.23925 -0.21143 -0.026732 0.005421
-0.0057263 0.0084161 0.00061657 0.01366 0.00027461 0.011775 0.016256 0.025438
-0.026711 0.0048004 -0.26693 -0.13889
560000000 -0.31933 0.1042 -0.02209 -0.067511 6.9641e-05 0.013387 0.0056531 0.011227
0.010037 0.0041403 0.010639 0.0084585
-0.021735 -0.067131 -0.3727 0.092775 -0.041279 -0.039497 0.014116 0.0039207
-0.012839 -0.0041449 0.0030703 -0.0017581
5.3047e-05 0.013649 -0.041311 -0.039503 -0.18659 0.24447 -0.00057567 -0.0046467
0.018529 0.0055173 0.0080606 -0.0056588
0.0061526 0.011602 0.014248 0.0054154 1.251e-06 -0.0049699 -0.3068 0.13037
0.006201 -0.022931 0.005952 -0.021412
0.0091353 0.0040855 -0.013165 -0.0042867 0.017935 0.0057088 0.007293 -0.0231
-0.31029 -0.031492 0.010373 -0.050832
0.010834 0.0074026 0.0029552 -0.00070484 0.0084289 -0.0057943 0.0054383 -0.021571
0.011258 -0.050249 -0.33186 0.013099
620000000 -0.27959 0.083087 -0.02329 0.0087546 0.0031063 0.0095799 0.0081711 -0.0034203
0.012529 -0.0018768 0.00028653 -0.0019172
-0.02323 0.008573 -0.40253 0.039912 -0.018692 -1.0854e-06 -0.0014682 -0.0017121
0.012468 -0.0057708 0.00073174 -0.0032361
0.0029676 0.0096493 -0.018583 9.2401e-05 -0.1575 0.25395 -0.00081961 -0.0051657
-0.0042668 -0.0036376 0.010265 -0.0020713
0.0073058 -0.0043347 -0.0013167 -0.0019797 -0.00046653 -0.004781 -0.26508 0.13928
-0.038026 -0.019849 0.014384 0.02789
0.013383 -0.00072294 0.012172 -0.0061755 -0.004531 -0.0034697 -0.0399 -0.018484
-0.22537 -0.064782 -0.044026 0.010714
0.00068564 -0.0018262 0.0015178 -0.0029509 0.010131 -0.0017553 0.015009 0.026688
-0.041809 0.010884 -0.2461 -0.022983
680000000 -0.24252 0.17749 -0.026214 -0.01572 0.0047632 0.0053704 0.0022637 -0.007728
-0.0021247 -0.011075 0.0057122 -0.0067559
-0.026052 -0.015425 -0.39114 0.14151 -0.032835 -0.0028211 -0.0017515 -0.00047546
-0.0012777 -0.0089766 -0.0011169 -0.0021802
0.0050451 0.0052635 -0.032833 -0.0027678 -0.10735 0.27588 -0.0010752 -0.00033474
-0.0012146 0.00048292 -0.0028259 -0.009929
0.0020302 -0.0077521 -0.0014128 -0.00030321 -0.00066893 -0.00015018 -0.22032 0.19351
-0.022601 -0.0074556 -0.0086738 -0.011925
-0.0022009 -0.011467 -0.0013015 -0.0094422 -0.001194 0.0005607 -0.023112 -0.0076662
-0.28056 0.03918 -0.006447 -0.0077781
0.0056768 -0.0073271 -0.00099616 -0.0026705 -0.0029258 -0.0096707 -0.0082752 -0.012026
-0.0065595 -0.0075408 -0.26181 0.081511
740000000 -0.19651 0.16985 -0.040687 0.026371 0.013677 -0.0045127 -6.3518e-05 -0.0039142
-0.003628 -0.003392 -0.0072118 0.0024194
-0.04074 0.026127 -0.3361 0.1614 -0.038443 0.034062 3.1163e-06 -0.005429
-0.011536 0.0064666 -0.0016332 -0.0055283
0.013698 -0.0044748 -0.038285 0.034714 -0.073253 0.27396 -0.0019292 0.0035196
-0.0020448 -0.005499 -0.0015198 0.0010659
-0.00011433 -0.0038867 -0.00013382 -0.0056886 -0.0018178 0.0029504 -0.20469 0.20012
-0.042777 -0.0095201 0.022342 0.016346
-0.0034012 -0.0036522 -0.010778 0.007819 -0.0024767 -0.0057861 -0.043103 -0.0086975
-0.18242 0.069879 -0.043336 -0.00064731
-0.0066007 0.0036492 -0.00099737 -0.0062866 -0.0012525 0.00077229 0.023024 0.015958
-0.043655 -0.00079466 -0.25208 0.089779
800000000 -0.16524 0.21518 -0.022598 0.015529 0.0059375 -0.01064 -0.0041386 -0.0029984
-0.0045656 0.0020697 0.0042404 -3.9962e-05
-0.02278 0.015672 -0.34425 0.23194 -0.0092783 0.034045 -0.0020905 0.0018322
-0.00080468 0.0024614 0.00081409 0.0051459
0.005917 -0.010552 -0.0091879 0.034036 -0.034743 0.29914 0.0010097 0.0010823
8.3787e-05 0.0034788 -0.001819 0.00067984
-0.0042886 -0.0027436 -0.0020169 0.001658 0.0010841 0.0012493 -0.1758 0.22783
-0.028737 0.012503 0.014076 -0.010989
-0.0048861 0.0016423 -0.0010515 0.0025865 -0.00011397 0.0034253 -0.02886 0.012325
-0.22606 0.095629 -0.017905 0.020025
0.0044617 0.00015879 0.00096963 0.0049646 -0.0019155 0.00067813 0.014087 -0.010566
-0.017891 0.020364 -0.24706 0.13677
860000000 -0.13154 0.23595 -0.018807 0.030332 -0.0030705 -0.010067 -0.0019978 0.00063042
0.0039279 0.0057746 -0.0044816 -0.003245
-0.018842 0.030194 -0.29756 0.27625 0.0066105 0.034932 1.9925e-05 0.0024576
0.0035485 0.00070677 0.0031703 0.00049553
-0.0031003 -0.010239 0.0066928 0.034814 0.012563 0.30855 -0.00058114 -0.00014185
0.0020889 -0.0012445 0.0012308 0.0043291
-0.0019679 0.00043722 -0.00015818 0.0023707 -0.00060318 -0.00026268 -0.13895 0.2396
-0.018872 0.017725 -0.0063435 -0.0094595
0.0038761 0.0055321 0.0034721 0.00028841 0.0020334 -0.0011093 -0.018498 0.018018
-0.1714 0.15045 -0.026396 0.016311
-0.0039232 -0.0031597 0.0027363 0.0006717 0.0015039 0.0044486 -0.0068992 -0.0089273
-0.026264 0.015535 -0.19497 0.18448
920000000 -0.10819 0.25962 0.0039465 0.039274 -0.0092731 -0.0050609 -0.0019954 0.0017009
0.00094962 0.0017121 0.002966 -0.0012333
0.0040234 0.039143 -0.27018 0.29852 0.027837 0.023561 0.0013639 0.0010353
0.0081178 0.00028057 0.0043021 -0.0029009
-0.0092775 -0.0050542 0.027961 0.023542 0.058281 0.31046 0.0018418 7.8222e-05
0.0010082 -1.5826e-05 0.0008966 -0.001364
-0.0020423 0.0020338 0.0013584 0.0010251 0.0019201 0.00010198 -0.11586 0.25637
-0.012186 0.030544 0.0038701 -0.0064213
0.00079343 0.0017981 0.0078871 0.00065416 0.00094589 1.6171e-05 -0.012393 0.030402
-0.15983 0.15566 -0.0011233 0.026772
0.0027893 -0.0010047 0.0045886 -0.0028774 0.00096009 -0.0012083 0.0039771 -0.006382
-0.0011271 0.027206 -0.20433 0.19765
980000000 -0.062507 0.28146 0.016258 0.030952 -0.0095792 0.0043879 0.0017595 0.003813
0.0041673 -0.0013258 -0.0034112 -0.0026302
0.016 0.031002 -0.21735 0.33439 0.033253 0.0061186 0.0019393 -0.00013141
0.0016475 -0.0060354 -0.00028692 -0.0025575
-0.009548 0.004427 0.033345 0.0060666 0.10424 0.30502 0.00074688 -0.0011413
0.00049761 -0.0018138 0.0013314 -0.00019838
0.0018669 0.0039044 0.0018157 -0.00015923 0.00075561 -0.0011584 -0.077281 0.26751
0.0063352 0.029926 -0.0095098 -0.0074875
0.0040008 -0.001451 0.0016872 -0.006052 0.00047955 -0.0017471 0.0062944 0.029898
-0.12816 0.18687 0.0048374 0.020042
-0.0031645 -0.0027745 -0.00016198 -0.0029288 0.0013753 -0.00026759 -0.0097686 -0.0073064
0.0044763 0.019969 -0.16326 0.24476
1040000000 -0.021223 0.29026 0.032984 0.020113 -0.0014284 0.0073206 0.0027768 0.00084137
0.00063196 -0.0034135 0.00023662 -0.0017556
0.032976 0.020104 -0.18253 0.34845 0.030375 -0.013911 0.001711 -0.0016906
-0.0020941 -0.0023823 -0.0010515 -0.0033373
-0.0014346 0.00734 0.030382 -0.01405 0.15007 0.29264 -0.00042707 -0.001601
-0.0014587 -0.00092528 -0.00050391 -0.0010888
0.0026483 0.0008504 0.0017104 -0.0017174 -0.00042134 -0.0015926 -0.050677 0.27793
0.018344 0.019317 -0.0023311 0.0011326
0.00052466 -0.0034201 -0.0020093 -0.0027328 -0.0015052 -0.0010194 0.018379 0.019098
-0.095677 0.19511 0.014016 0.019041
1.1731e-05 -0.0014832 -0.0010504 -0.0032178 -0.00044764 -0.0010964 -0.0024976 0.0011906
0.013857 0.018916 -0.14185 0.26524
1100000000 0.023595 0.30088 0.036981 -0.0023233 0.0031512 0.0043506 0.0026081 -0.0010632
-0.0022909 -0.0029521 -0.0043323 -3.4559e-05
0.036922 -0.0022572 -0.13909 0.3679 0.016379 -0.027632 -4.8038e-05 -0.0017947
-0.0036663 -0.0007702 -0.0035915 -0.00039424
0.0031768 0.0043064 0.016316 -0.027722 0.19627 0.27382 -0.0019246 0.00011724
-0.0017283 0.00049961 -0.001095 -0.00063053
0.0025071 -0.0010188 -1.3655e-05 -0.0018855 -0.0019118 0.00011097 -0.010606 0.28352
0.024219 0.0063604 -0.0027449 0.00039116
-0.0023454 -0.0029635 -0.0036013 -0.00067097 -0.0017663 0.00056982 0.024179 0.0063267
-0.075867 0.20939 0.018922 0.0094324
-0.0041248 -0.00032039 -0.0035522 -0.00049764 -0.00106 -0.0005578 -0.0027051 0.00024162
0.019218 0.0095714 -0.095335 0.29633
1160000000 0.074601 0.29753 0.02551 -0.019789 0.0033068 -0.00046113 -0.00016328 -0.0025611
-0.0040783 -0.00076542 -0.00085326 0.0038666
0.025579 -0.019753 -0.095773 0.37282 -0.0027097 -0.029441 -0.001575 -0.001747
-0.0025978 0.0023845 -0.0013273 0.0018249
0.0032906 -0.00050772 -0.0028396 -0.029414 0.23954 0.24425 -0.00083169 0.0017703
-0.00074375 0.0018106 -0.0010886 0.00042017
-9.7739e-05 -0.002564 -0.0015778 -0.0016839 -0.00080747 0.0017802 0.028413 0.28135
0.021332 -0.0092745 -0.0033373 0.0054785
-0.0042665 -0.00087529 -0.0024991 0.002388 -0.00065122 0.0018625 0.021437 -0.0093865
-0.041186 0.21781 0.019052 0.00019851
-0.0011652 0.0042657 -0.0014149 0.0017253 -0.0012055 0.00027246 -0.0032955 0.0054257
0.01897 0.00024478 -0.047923 0.29972
1220000000 0.11835 0.28877 0.012464 -0.030093 -0.001264 -0.0013094 3.3332e-05 -0.00092456
-0.0028099 0.0020913 0.00098798 0.0020679
0.012311 -0.030031 -0.051542 0.38693 -0.016577 -0.021988 -0.0025861 0.0004462
-9.3345e-07 0.0029614 -0.00089009 0.0019595
-0.0012606 -0.0012863 -0.016686 -0.021918 0.27918 0.20659 0.00066774 0.0017459
0.00048559 0.0011864 0.0001473 0.00075279
-3.4897e-05 -0.00089993 -0.0025553 0.00048243 0.00065593 0.0017175 0.068606 0.27376
0.011324 -0.016106 0.002217 0.0012181
-0.002825 0.0021462 3.7472e-05 0.0030016 0.00048695 0.0011939 0.011301 -0.01614
-0.017906 0.22827 0.014793 -0.012672
0.0010261 0.0019962 -0.00086535 0.001922 0.00020825 0.00076246 0.0023394 0.0014817
0.0148 -0.012619 -0.017694 0.31621
1280000000 0.16892 0.26901 -0.0066058 -0.029464 -0.0019384 0.0020277 -0.0009499 -0.0021869
-0.00083944 0.003274 0.0027186 0.0014744
-0.00651 -0.029453 -0.005144 0.37913 -0.023977 -0.0089894 -0.0010396 0.0014216
0.0016039 0.0017175 0.00072125 0.0020773
-0.0019407 0.0020169 -0.024018 -0.008886 0.31063 0.16338 0.0015787 5.6931e-05
0.00111 0.00036096 0.00042781 0.00026851
-0.00091229 -0.0021685 -0.0009887 0.0014425 0.001544 3.2771e-05 0.10567 0.25821
0.0018558 -0.018726 0.00020875 0.00026204
-0.00085186 0.0032572 0.0015916 0.0016212 0.0011006 0.00028182 0.0018958 -0.018712
0.018477 0.23202 0.0037072 -0.015035
0.0027565 0.0015619 0.00069599 0.0022059 0.00028871 0.00022677 0.00012527 5.7238e-05
0.0037606 -0.015268 0.03036 0.31909
1340000000 0.20661 0.23726 -0.016807 -0.020368 0.00049553 0.0043599 -0.0018903 -0.00079622
0.0014218 0.0027972 0.0016209 -0.0012591
-0.016804 -0.020329 0.034486 0.37227 -0.021693 0.0039823 -9.1521e-05 0.0020561
0.0018539 0.00077529 0.0010991 0.00084805
0.00049458 0.0043239 -0.021742 0.0040565 0.33339 0.11665 0.0010155 -0.00088298
0.0005663 -0.00042721 0.00010067 0.00025263
-0.0018668 -0.00081405 -0.00010608 0.0020356 0.0010153 -0.00091161 0.13914 0.23843
-0.0074418 -0.016557 0.0010463 5.1034e-05
0.0013662 0.0027208 0.0019201 0.00079194 0.00063965 -0.00043871 -0.007461 -0.016696
0.048457 0.22845 -0.003184 -0.014395
0.0018402 -0.0013495 0.001153 0.00079998 0.00020329 0.00036206 0.00096913 0.0002946
-0.0032096 -0.014183 0.068232 0.31545
1400000000 0.24126 0.2009 -0.023538 -0.0088057 0.0049461 0.00329 -0.0022554 0.00075396
0.0024778 0.0009339 0.00040115 -0.0016299
-0.023519 -0.0088129 0.072894 0.36033 -0.01506 0.012372 0.0012359 0.0013237
0.0012437 -0.00064536 0.0012408 0.00019655
0.0049724 0.0032509 -0.015018 0.01247 0.34749 0.063097 5.2268e-05 -0.0015202
0.00016811 -0.00039891 0.00032241 0.00028805
-0.0022998 0.00067084 0.001234 0.0012951 6.299e-05 -0.0014998 0.16937 0.2099
-0.013711 -0.010281 -0.00078431 -0.00033262
0.002612 0.00096508 0.0012743 -0.00069724 0.00018319 -0.00037313 -0.01381 -0.010151
0.081911 0.22489 -0.0098091 -0.0090558
0.00036544 -0.0015949 0.0011746 0.00022952 0.00030251 0.00026387 -0.00074558 -0.00049481
-0.00973 -0.0091301 0.11343 0.30592
1460000000 0.26515 0.15776 -0.021028 0.003819 0.0055037 -0.0016839 -0.0015277 0.0017306
0.0022077 -0.00038898 -0.00032056 -0.0010435
-0.021032 0.0037572 0.10776 0.33877 -0.0059875 0.015493 0.0017221 0.00027726
0.00094213 -0.0012559 0.001276 -0.00055128
0.0054751 -0.0016926 -0.0059689 0.015523 0.35433 0.0088812 -0.0010789 -0.00114
0.00026034 -0.00017097 0.00076173 -0.0003961
-0.001511 0.0017477 0.0016833 0.00028024 -0.0011163 -0.0011431 0.19651 0.18094
-0.015113 -0.003803 -0.0010759 0.0017813
0.0021582 -0.00033599 0.00092828 -0.0012622 0.00021902 -0.0001616 -0.015064 -0.0037826
0.11159 0.2115 -0.011799 -0.0033988
-0.00030844 -0.0011368 0.0012336 -0.0005459 0.00077478 -0.00028921 -0.0011997 0.0018202
-0.012003 -0.0032646 0.14652 0.28554
1520000000 0.27895 0.11677 -0.015681 0.0096881 0.0033184 -0.0041452 0.00014936 0.0026288
0.0021705 -0.0019015 -0.0011706 -0.00017993
-0.015665 0.0096749 0.14195 0.32495 0.0018408 0.013048 0.0016596 -0.00069746
0.00012028 -0.0010708 0.0003518 -0.0010617
0.00334 -0.0041227 0.0018873 0.013033 0.34768 -0.046916 -0.00096716 -0.00039929
0.00072569 -0.00095658 0.00013134 -0.00017094
0.00014745 0.0026577 0.0016717 -0.00068812 -0.00089162 -0.00039234 0.22057 0.1429
-0.0149 0.0019515 0.0013529 0.0021076
0.0022082 -0.0018865 0.00015741 -0.0010654 0.00069698 -0.00081563 -0.014943 0.0019854
0.14006 0.1994 -0.012019 0.0013285
-0.0012887 -0.00011309 0.00028654 -0.0010485 0.00013517 -0.00021101 0.0015682 0.0021383
-0.011901 0.001266 0.18033 0.26639
1580000000 0.2897 0.071016 -0.0090406 0.013446 -0.001017 -0.0048535 0.0015164 0.0018821
-0.00019051 -0.0021988 -0.00023754 0.0005136
-0.0090522 0.013404 0.17 0.30016 0.0055547 0.0079058 0.00066146 -0.0015413
-0.0004042 -0.0011445 -0.00013924 -0.00087468
-0.001017 -0.0049042 0.0055969 0.0078543 0.32826 -0.1049 -0.0015685 0.00034786
-0.00030076 -0.0013299 0.00027176 -0.00065891
0.0015409 0.0018212 0.00066006 -0.0015315 -0.0015446 0.00032288 0.23515 0.10321
-0.011832 0.006952 0.0021492 0.00075495
-0.00012651 -0.0021984 -0.00045389 -0.0011652 -0.00031514 -0.001395 -0.011778 0.0069973
0.16476 0.18217 -0.0094279 0.007188
-0.00025415 0.0004509 -0.00015781 -0.00087098 0.00034918 -0.00069923 0.0019455 0.00069989
-0.0095611 0.0072043 0.21303 0.24017
1640000000 0.29286 0.030051 -0.0020915 0.012625 -0.0029278 -0.0025788 0.002699 0.001103
-0.00078294 -0.0016445 -0.00045776 0.00061618
-0.002073 0.012643 0.19976 0.27577 0.005885 0.0029002 -0.00048555 -0.001876
-0.00099716 -0.00056527 -0.00051029 -0.000726
-0.0029598 -0.0024748 0.0059064 0.0028417 0.2996 -0.15351 -0.00083014 0.0013312
-0.0010754 -0.0011041 -0.00019909 -0.00045219
0.0026849 0.0011061 -0.00050536 -0.0018629 -0.00077398 0.0013505 0.24801 0.05396
-0.0077526 0.0085748 0.0024392 -0.00071844
-0.00076656 -0.0016239 -0.0010165 -0.00053396 -0.0010927 -0.0011136 -0.0078431 0.0086059
0.18823 0.15963 -0.0047775 0.0092356
-0.00031971 0.00064394 -0.00056098 -0.00064156 -0.00026656 -0.00034491 0.0025156 -0.00066924
-0.0047458 0.0093781 0.23893 0.20981
1700000000 0.28722 -0.015481 0.0016392 0.010022 -0.0036175 0.00031571 0.0032057 -0.0011361
-0.0020081 -0.00063825 0.00059275 0.00037421
0.0016291 0.01001 0.21859 0.24432 0.0034498 -8.2893e-05 -0.0014506 -0.00071213
-0.00086839 -6.7689e-05 -0.00095861 -0.00049817
-0.0036487 0.00030426 0.0034407 -9.5848e-05 0.25715 -0.19336 0.0001498 0.001657
-0.0021774 -0.0001309 -0.00060149 -0.00074553
0.0031988 -0.0011916 -0.0014475 -0.00073797 0.00013485 0.0016693 0.24529 0.0034038
-0.0049881 0.009495 0.0015933 -0.0020416
-0.0020162 -0.00069455 -0.00086687 -0.00010589 -0.0020836 -0.00012883 -0.0049191 0.0094546
0.20679 0.14017 -0.00026043 0.0099011
0.00066796 0.00035764 -0.00092933 -0.0005042 -0.000538 -0.00080244 0.0015733 -0.0020955
-0.00027694 0.0097092 0.25651 0.17615
1760000000 0.2759 -0.064426 0.0043241 0.0067779 -0.0022154 0.0012241 0.0014049 -0.003456
-0.0014247 0.00054024 0.00046198 -0.00050381
0.0043165 0.0068105 0.24471 0.2047 0.0009182 -0.0017197 -0.0013208 -5.835e-06
-0.001179 0.00091874 -0.00058405 0.00041169
-0.0021094 0.0012614 0.00089511 -0.0016931 0.20905 -0.22652 0.0010671 0.0011955
-0.0012638 0.0014045 -0.0012661 -0.00059377
0.0013816 -0.0033985 -0.0013534 4.9118e-05 0.0010246 0.0012171 0.23596 -0.048726
-0.0016038 0.0088029 -0.0003958 -0.0022199
-0.0013312 0.00061877 -0.0011777 0.00099624 -0.0011879 0.0014263 -0.0015457 0.0087895
0.22229 0.10643 0.0037636 0.0072322
0.00035917 -0.00060363 -0.00063427 0.0003662 -0.0013538 -0.00070211 -0.00028382 -0.0021561
0.0037871 0.0073029 0.26968 0.13874
1820000000 0.25253 -0.10196 0.0046888 0.003179 0.00012383 0.0025849 -0.00098652 -0.0031927
-0.0011734 0.00091262 -4.4813e-05 -0.00013268
0.0046735 0.0031537 0.25535 0.17502 -0.0014525 -1.3423e-05 -0.0014924 0.00094791
-7.7239e-05 0.0013604 -0.00068133 0.00061947
0.00010216 0.0025727 -0.0014222 -2.9794e-05 0.15828 -0.24168 0.0016449 0.0005694
-0.00025712 0.0024879 -0.001631 0.00048975
-0.00086013 -0.0032361 -0.0014492 0.00097883 0.0016725 0.00049909 0.20593 -0.096076
0.00037459 0.0075511 -0.0017702 -0.001446
-0.0011572 0.00096738 -6.0959e-05 0.0013558 -0.00033449 0.0024684 0.00032396 0.0075675
0.24113 0.078619 0.0047054 0.0036622
-0.00013249 -4.2843e-05 -0.0005985 0.00067315 -0.0015712 0.00045154 -0.0018627 -0.0016174
0.0047632 0.0035731 0.27279 0.10299
1880000000 0.21771 -0.14324 0.0025163 0.00062864 -0.00044785 0.0021258 -0.0028756 -0.0023154
-0.00029185 0.001753 0.00016209 -0.00061173
0.0025068 0.00064629 0.25985 0.12838 -0.0033718 0.0021935 -0.00021944 0.0018773
0.00065898 0.0013656 0.00010406 0.0010224
-0.00039106 0.0021433 -0.0033377 0.0022047 0.10639 -0.25108 0.0020927 -0.001113
0.0017257 0.0018922 -0.0010385 0.0015066
-0.0029451 -0.0022387 -0.0002793 0.0018732 0.0021818 -0.00099431 0.16492 -0.13657
0.0012731 0.0054559 -0.002163 0.00027734
-0.00020886 0.0018482 0.00069274 0.0014001 0.0016882 0.0019771 0.0014122 0.0054411
0.24607 0.047335 0.0052538 0.0015673
0.0001719 -0.00061206 0.00016648 0.00098982 -0.0012022 0.0014535 -0.0022207 0.00044278
0.0052087 0.001767 0.27363 0.068685
1940000000 0.17843 -0.16934 0.00025642 -0.0011974 0.001564 0.0020851 -0.0040358 0.00032701
0.0011999 0.0010607 -0.0007126 -0.00063232
0.00033207 -0.0012052 0.26083 0.09724 -0.0017893 0.0050589 0.00099094 0.0013938
0.0020123 0.00051495 0.00095204 0.00027901
0.0016386 0.0020677 -0.001751 0.005091 0.061665 -0.2437 0.00054444 -0.002654
0.0024607 0.00044565 0.00026523 0.0017008
-0.004049 0.00034478 0.001025 0.0014206 0.00051545 -0.002665 0.11227 -0.16687
0.00058928 0.0038392 -0.0013056 0.0017584
0.0011527 0.0010696 0.0019479 0.00046553 0.0024829 0.00032403 0.00062572 0.0039014
0.25015 0.0095285 0.0039601 -0.0018728
-0.00069737 -0.00050342 0.00089454 0.00025096 0.00023061 0.001747 -0.0012966 0.0015754
0.0039091 -0.0019269 0.26284 0.033138
2000000000 0.13259 -0.18451 -0.0034322 0.00084757 0.0029525 0.0014167 -0.0022685 0.0036822
0.0012797 0.00053483 -0.00043078 0.00053114
-0.0034125 0.00074013 0.24728 0.061911 -0.00075387 0.0070988 0.0017553 0.00042715
0.0012766 -0.0013799 0.00048786 2.3895e-05
0.0029874 0.001366 -0.00070477 0.0070835 0.018798 -0.22964 -0.0014889 -0.0016197
0.002121 -0.0012948 0.0016107 0.0014138
-0.002308 0.0037237 0.0018381 0.00039515 -0.0014747 -0.0015017 0.058829 -0.17664
-0.00079881 0.0038231 0.00017347 0.0020784
0.0012483 0.00044242 0.0013613 -0.0012865 0.0020783 -0.0011308 -0.00085208 0.0038746
0.24651 -0.023726 0.0010696 -0.0027358
