!Keysight Technologies,M9804A,MY58100912,A.14.10.03
!Date: Thursday, April 27, 2023 10:28:33
!Correction: S11(C  6-Port  ) 
!S12(C  6-Port  ) 
!S13(C  6-Port  ) 
!S14(C  6-Port  ) 
!S15(C  6-Port  ) 
!S16(C  6-Port  ) 
!S21(C  6-Port  ) 
!S22(C  6-Port  ) 
!S23(C  6-Port  ) 
!S24(C  6-Port  ) 
!S25(C  6-Port  ) 
!S26(C  6-Port  ) 
!S31(C  6-Port  ) 
!S32(C  6-Port  ) 
!S33(C  6-Port  ) 
!S34(C  6-Port  ) 
!S35(C  6-Port  ) 
!S36(C  6-Port  ) 
!S41(C  6-Port  ) 
!S42(C  6-Port  ) 
!S43(C  6-Port  ) 
!S44(C  6-Port  ) 
!S45(C  6-Port  ) 
!S46(C  6-Port  ) 
!S51(C  6-Port  ) 
!S52(C  6-Port  ) 
!S53(C  6-Port  ) 
!S54(C  6-Port  ) 
!S55(C  6-Port  ) 
!S56(C  6-Port  ) 
!S61(C  6-Port  ) 
!S62(C  6-Port  ) 
!S63(C  6-Port  ) 
!S64(C  6-Port  ) 
!S65(C  6-Port  ) 
!S66(C  6-Port  ) 
!S6P File: Measurement: :
# Hz S  RI   R 50
500000000 -0.33113 -0.062797 -0.0099258 -0.0014977 -0.0092685 0.012587 -0.0041575 0.01137
0.0133 0.0057208 -0.0043376 0.0064177
-0.0099613 -0.0011746 -0.41344 -0.071851 0.0082638 -0.010618 0.0010296 0.012424
0.008332 0.0025528 0.0006625 0.013795
-0.0092011 0.012825 0.0082899 -0.010692 -0.26561 0.19253 0.0064965 0.0034929
-0.0015566 0.0084382 0.0001287 0.012159
-0.0040513 0.011337 0.00097951 0.012297 0.0064627 0.0034931 -0.33032 0.038991
-0.018377 -0.0051154 0.016515 0.026641
0.013474 0.0058193 0.0083386 0.0026385 -0.0015488 0.0084676 -0.018477 -0.0049966
-0.23906 -0.20981 -0.026586 0.0038249
-0.0041384 0.0066027 0.00073892 0.013574 7.3373e-05 0.012118 0.016314 0.026637
-0.026537 0.0035995 -0.26691 -0.13766
560000000 -0.31857 0.10545 -0.02188 -0.066947 -0.00049396 0.013722 0.0055995 0.011648
0.010575 0.0048222 0.011293 0.0084419
-0.02179 -0.066657 -0.37348 0.092699 -0.041587 -0.03961 0.01405 0.0040789
-0.012882 -0.0049996 0.003905 -0.00030107
-0.0005962 0.014001 -0.041629 -0.039536 -0.18641 0.24466 -0.00063326 -0.0047429
0.018962 0.0059537 0.007612 -0.0058142
0.0056291 0.011561 0.014061 0.0039469 -0.00056516 -0.0048459 -0.30696 0.13042
0.0058769 -0.023187 0.0053415 -0.021836
0.010758 0.0049409 -0.013183 -0.0049722 0.018847 0.0059738 0.0059236 -0.023116
-0.30969 -0.031084 0.011728 -0.050888
0.010975 0.0085817 0.0039152 -0.00054608 0.007512 -0.005672 0.0053321 -0.021909
0.011774 -0.050511 -0.33122 0.014056
620000000 -0.27821 0.084389 -0.023246 0.0082826 0.0032625 0.0094568 0.0079609 -0.0048634
0.01234 -0.0012869 -0.00036336 -0.0024994
-0.0231 0.0083121 -0.4021 0.04014 -0.018561 -6.8943e-05 -0.0014218 -0.0020949
0.012212 -0.0063262 0.00098379 -0.0031793
0.0033401 0.009419 -0.018573 -3.6286e-05 -0.15728 0.254 -0.00070512 -0.005035
-0.0036482 -0.0029884 0.010103 -0.002585
0.0081326 -0.0049 -0.0013371 -0.0021094 -0.00072694 -0.0049859 -0.26514 0.14076
-0.038099 -0.019023 0.013972 0.027775
0.011982 -0.0012029 0.012061 -0.0062983 -0.0036301 -0.002979 -0.037904 -0.019118
-0.22621 -0.066475 -0.041678 0.011612
-3.4395e-05 -0.0027132 0.0012536 -0.0031842 0.010072 -0.0025002 0.013948 0.027645
-0.04192 0.011718 -0.24766 -0.021843
680000000 -0.24252 0.17764 -0.026242 -0.015065 0.0048978 0.0055134 0.001197 -0.0072772
-0.0019576 -0.011222 0.0062808 -0.0068765
-0.026099 -0.01494 -0.39089 0.14199 -0.032577 -0.0028405 -0.0016438 -0.00037191
-0.0014 -0.0091315 -0.00089222 -0.0020828
0.0049113 0.0055474 -0.032598 -0.0027538 -0.10703 0.27616 -0.00083373 0.00012558
-0.0013101 0.00017166 -0.0027493 -0.0095427
0.0011742 -0.0072399 -0.0016287 -0.00035521 -0.00082511 0.0001093 -0.22117 0.19273
-0.023023 -0.0073457 -0.0097176 -0.012611
-0.0020163 -0.011261 -0.0015025 -0.0092517 -0.0013027 0.00023418 -0.023047 -0.007301
-0.28045 0.039213 -0.0068447 -0.0065873
0.0065312 -0.0067372 -0.00085194 -0.0019104 -0.0027823 -0.0094722 -0.0097346 -0.012559
-0.0066894 -0.0065972 -0.26175 0.080987
740000000 -0.19569 0.17041 -0.04072 0.025747 0.014013 -0.0043963 -0.00028893 -0.004324
-0.0033497 -0.0027253 -0.0068964 0.0028992
-0.04065 0.025828 -0.33663 0.16217 -0.038427 0.034114 0.00014799 -0.0055848
-0.012022 0.0066759 -0.0011872 -0.0054702
0.013953 -0.0044249 -0.038344 0.034238 -0.072957 0.27412 -0.0019492 0.0032918
-0.001832 -0.005803 -0.0017838 0.00087739
-0.0002318 -0.0041907 0.00021021 -0.0054712 -0.0019348 0.0033404 -0.2047 0.20042
-0.042942 -0.0095203 0.022331 0.016117
-0.0036927 -0.0028878 -0.012255 0.0065255 -0.0017934 -0.0058699 -0.043084 -0.0094839
-0.18148 0.068044 -0.044547 -0.0002706
-0.0069875 0.0029665 -0.0012823 -0.0052349 -0.0019122 0.00087163 0.022356 0.016104
-0.044694 3.841e-05 -0.25234 0.088669
800000000 -0.16491 0.21555 -0.022631 0.015676 0.005778 -0.010577 -0.0044154 -0.002707
-0.004457 0.0020602 0.0042449 0.00010324
-0.022567 0.015649 -0.34427 0.23221 -0.0092525 0.034059 -0.0020468 0.0019153
-0.00081384 0.0026441 0.0008151 0.0050165
0.0057992 -0.010592 -0.0091702 0.034144 -0.034645 0.29938 0.00088452 0.0011483
4.0546e-05 0.0035999 -0.0020619 0.00056129
-0.0043614 -0.0026771 -0.0020852 0.0019174 0.00086517 0.0011489 -0.17599 0.22796
-0.028547 0.01249 0.014032 -0.010796
-0.0044894 0.002003 -0.00079574 0.0025935 9.1719e-05 0.0035552 -0.028543 0.012498
-0.2259 0.09624 -0.017983 0.019985
0.0043436 0.00028197 0.00078948 0.005125 -0.0021198 0.00060452 0.013905 -0.010753
-0.017935 0.019965 -0.24684 0.13746
860000000 -0.13115 0.23669 -0.018857 0.030461 -0.0029397 -0.010113 -0.0019405 0.00068322
0.0038715 0.0054811 -0.0040483 -0.0032808
-0.018765 0.030301 -0.29727 0.27653 0.0066674 0.03485 0.0001483 0.0023213
0.0034135 0.00087337 0.0030885 5.515e-05
-0.0029714 -0.010128 0.006772 0.034863 0.012875 0.30867 -0.00056263 -0.0001589
0.002263 -0.0012123 0.0012679 0.0044404
-0.0018558 0.00067399 0.00012652 0.0023198 -0.0005526 -0.00015569 -0.13919 0.23937
-0.018503 0.017783 -0.006948 -0.0083653
0.0039612 0.0053863 0.0034453 0.00083008 0.0022954 -0.0012335 -0.018492 0.017778
-0.17073 0.15089 -0.025916 0.016147
-0.0042276 -0.0030155 0.0029705 0.00011121 0.0012732 0.004437 -0.0069359 -0.0085226
-0.025906 0.01621 -0.19458 0.18614
920000000 -0.10821 0.25998 0.0039811 0.039014 -0.0092372 -0.0049936 -0.00209 0.0016426
0.00097818 0.0019945 0.0030557 -0.0010541
0.0039638 0.038963 -0.2699 0.29857 0.027888 0.023541 0.0013659 0.0011169
0.0079631 0.00032004 0.0047791 -0.0027676
-0.0092514 -0.0049818 0.027992 0.023486 0.058549 0.31056 0.0018002 2.3427e-05
0.00098086 4.3581e-05 0.0009916 -0.0013238
-0.0020966 0.0016757 0.0013998 0.0011341 0.0018017 2.0857e-05 -0.1156 0.25619
-0.012161 0.030511 0.0037749 -0.0067915
0.0010459 0.001852 0.0079484 0.00022817 0.00098273 7.8423e-05 -0.012156 0.030546
-0.15919 0.15591 -0.001639 0.027102
0.003053 -0.0011838 0.0047657 -0.0027185 0.00099466 -0.0013541 0.0038248 -0.006847
-0.0017189 0.027136 -0.20396 0.19814
980000000 -0.061926 0.28148 0.016239 0.03089 -0.0095582 0.0043524 0.0019239 0.0038602
0.0039195 -0.0013834 -0.0031907 -0.0025104
0.016154 0.030839 -0.21719 0.3346 0.033247 0.0060745 0.0020159 -7.3115e-05
0.0015735 -0.0061367 -0.0004541 -0.0026971
-0.0095422 0.0043868 0.033288 0.0059672 0.10444 0.30512 0.00072923 -0.0011775
0.00044684 -0.0018695 0.001388 -0.00019041
0.0018703 0.003792 0.0020125 -0.00010369 0.00073423 -0.001184 -0.077024 0.26767
0.0065443 0.030104 -0.0095216 -0.0071634
0.0038819 -0.0014204 0.0015136 -0.0061169 0.00044405 -0.0018415 0.0066051 0.030102
-0.12843 0.18721 0.0053872 0.020071
-0.0031628 -0.0025556 -0.00048513 -0.0027145 0.0014183 -0.00021347 -0.009459 -0.0071328
0.0051764 0.020111 -0.16304 0.24467
1040000000 -0.020893 0.29059 0.032991 0.01999 -0.0014531 0.0072757 0.002695 0.00083832
0.00045681 -0.0032028 0.00010791 -0.0017038
0.032936 0.019989 -0.18225 0.34862 0.030382 -0.013949 0.0016511 -0.0017569
-0.0022042 -0.0023226 -0.0010946 -0.003345
-0.0014249 0.0072801 0.030349 -0.014064 0.15031 0.29264 -0.000445 -0.0016098
-0.0014679 -0.00095225 -0.00047716 -0.0011245
0.0027519 0.00082439 0.0016112 -0.0017617 -0.00043328 -0.0016135 -0.050559 0.2778
0.018281 0.019281 -0.0026172 0.001175
0.00054645 -0.003235 -0.0022352 -0.0022476 -0.0014591 -0.00092155 0.018281 0.019283
-0.094953 0.19499 0.013498 0.018849
6.3742e-05 -0.0017279 -0.001134 -0.0033129 -0.00047743 -0.001117 -0.0025762 0.0011714
0.013391 0.018867 -0.14113 0.2653
1100000000 0.024136 0.30096 0.036902 -0.0024126 0.0031532 0.0043304 0.0025464 -0.0010544
-0.0023077 -0.0029643 -0.0041141 7.2524e-05
0.036886 -0.0023763 -0.13888 0.36804 0.016398 -0.027626 -7.1661e-05 -0.0018084
-0.0035976 -0.00083372 -0.0035956 -0.00046035
0.0031666 0.0043165 0.01631 -0.027724 0.1965 0.27378 -0.0019163 0.00011182
-0.0017272 0.00045604 -0.0010424 -0.00054439
0.002557 -0.0010203 -6.6631e-05 -0.0018 -0.001926 0.00011034 -0.01036 0.28352
0.024167 0.0064084 -0.0025104 0.00035578
-0.0023761 -0.0029488 -0.0036595 -0.00080389 -0.0017254 0.00046313 0.024182 0.0063569
-0.075926 0.20922 0.019253 0.0097573
-0.0041955 0.00013989 -0.0036232 -0.00044052 -0.001051 -0.0005692 -0.0025035 0.00042675
0.019147 0.0097728 -0.094691 0.29667
1160000000 0.07489 0.29771 0.025459 -0.019759 0.0032765 -0.00050024 -0.00012809 -0.0025669
-0.0039842 -0.00078038 -0.00098348 0.0038691
0.025406 -0.01975 -0.095404 0.37295 -0.0027418 -0.029434 -0.0015002 -0.0017286
-0.0026533 0.0024726 -0.001405 0.0017222
0.0032735 -0.00050176 -0.0028614 -0.029441 0.2398 0.24417 -0.0008107 0.0017576
-0.00062596 0.0018647 -0.0011022 0.00033689
-0.00013143 -0.0025944 -0.0015371 -0.0017161 -0.00081287 0.0017617 0.028717 0.28134
0.021323 -0.0094387 -0.0034046 0.0054475
-0.003916 -0.00076388 -0.0026704 0.0024662 -0.0006287 0.001875 0.021307 -0.0094828
-0.040632 0.21822 0.018732 -4.6827e-05
-0.001088 0.003792 -0.0014102 0.0017018 -0.0010763 0.00033626 -0.0034331 0.0054316
0.018672 -4.3212e-05 -0.047936 0.2996
1220000000 0.11867 0.28866 0.012284 -0.03009 -0.0012404 -0.0012828 -5.4808e-06 -0.00096647
-0.0027834 0.0022213 0.0011043 0.0021518
0.012272 -0.030068 -0.051315 0.38707 -0.016596 -0.021959 -0.002596 0.00046147
2.9155e-06 0.0029413 -0.00076298 0.0019587
-0.0012259 -0.0012704 -0.016701 -0.0219 0.27937 0.20645 0.00069164 0.0017725
0.00043085 0.0012182 0.00020379 0.00073286
-9.9685e-06 -0.00092398 -0.0026076 0.00044406 0.00068346 0.0017644 0.068682 0.27384
0.01129 -0.01609 0.0024549 0.0014066
-0.002806 0.0022489 1.203e-05 0.0029315 0.00043057 0.0012161 0.011282 -0.01611
-0.017832 0.22813 0.014717 -0.012706
0.0011539 0.0021573 -0.00078064 0.0019661 0.00018916 0.00071737 0.0024162 0.0013659
0.014817 -0.012708 -0.017339 0.31638
1280000000 0.16935 0.26908 -0.0065543 -0.029383 -0.0019482 0.0020718 -0.0009416 -0.0021067
-0.00085872 0.0032465 0.0027415 0.0013555
-0.0065287 -0.029358 -0.0047982 0.37922 -0.024028 -0.0089494 -0.00098622 0.0014046
0.0015904 0.0017155 0.00062398 0.0020823
-0.0019512 0.002067 -0.024095 -0.0088542 0.31081 0.16328 0.0014916 -3.0775e-06
0.0011319 0.00031769 0.00034408 0.00023829
-0.0009258 -0.0021057 -0.00095935 0.0014156 0.0014835 1.5159e-05 0.10579 0.25827
0.0018652 -0.018796 0.00024584 0.00026613
-0.00082483 0.003219 0.0016254 0.001702 0.001134 0.00030506 0.0018294 -0.018801
0.019092 0.23214 0.0036638 -0.015312
0.0028004 0.0014123 0.00060155 0.0020837 0.00035144 0.00024881 0.0002463 0.00024917
0.0037042 -0.015334 0.030617 0.31947
1340000000 0.20679 0.23709 -0.016843 -0.020251 0.00048344 0.0043581 -0.0018861 -0.00077104
0.0014264 0.0028218 0.0018305 -0.0013181
-0.016812 -0.02025 0.034777 0.37232 -0.02172 0.0040135 -0.00016269 0.0020105
0.0019302 0.00085562 0.0011449 0.00082715
0.00050115 0.0043556 -0.021723 0.0041127 0.33358 0.11636 0.00096198 -0.00092085
0.00065288 -0.0004791 0.00024652 0.00022274
-0.0018995 -0.00074697 -0.00016785 0.0020062 0.00096533 -0.00092781 0.13929 0.23841
-0.0075815 -0.016532 0.0010063 0.0002715
0.0014321 0.0027901 0.0019719 0.00084794 0.00066167 -0.00048862 -0.0076137 -0.016507
0.048785 0.22819 -0.0034273 -0.01417
0.0017572 -0.0012794 0.0011399 0.00080111 0.00021766 0.00021634 0.0010071 0.00028256
-0.0034261 -0.014228 0.068482 0.31573
1400000000 0.24162 0.20066 -0.023533 -0.0087794 0.0049537 0.0032329 -0.0022094 0.00070464
0.0025674 0.001007 0.00032082 -0.0016998
-0.023489 -0.0087883 0.073196 0.36035 -0.01502 0.012401 0.0012809 0.0013123
0.0012267 -0.00072769 0.0011213 0.00020382
0.0049631 0.0032409 -0.014983 0.012481 0.3476 0.062886 0.0001159 -0.0014753
0.0001475 -0.00035922 0.00034578 0.00026964
-0.0022113 0.00071863 0.0012967 0.0013058 0.0001112 -0.0014785 0.16956 0.21001
-0.013754 -0.010216 -0.00080238 -0.000406
0.0025501 0.000992 0.001234 -0.00071698 0.00014927 -0.00036211 -0.013766 -0.010192
0.082189 0.22513 -0.0096143 -0.009271
0.00037356 -0.001676 0.0011348 0.00019219 0.00029977 0.00029258 -0.00081381 -0.00033172
-0.0095999 -0.0093237 0.11364 0.30572
1460000000 0.26534 0.15769 -0.020946 0.0038106 0.0054994 -0.0017048 -0.0015303 0.0017361
0.0021314 -0.00036828 -0.00021614 -0.0010307
-0.020904 0.0037898 0.10808 0.3388 -0.0059862 0.015521 0.0016445 0.00024727
0.00094812 -0.0012646 0.0012807 -0.00058155
0.0054819 -0.0017314 -0.0059209 0.015563 0.35447 0.0087209 -0.0011649 -0.0011988
0.0002652 -0.0001462 0.00072662 -0.00042752
-0.0015572 0.0017554 0.0016497 0.00024698 -0.0011595 -0.0012135 0.19662 0.18097
-0.015161 -0.0038301 -0.0010533 0.0018879
0.0021493 -0.00040551 0.00093789 -0.0012592 0.00025846 -0.00016483 -0.015191 -0.0037577
0.11188 0.21162 -0.011784 -0.0033197
-0.00029553 -0.0010499 0.0013427 -0.000573 0.00076598 -0.0004405 -0.0010416 0.0018922
-0.011798 -0.0033104 0.14687 0.2854
1520000000 0.27906 0.11665 -0.015615 0.0097012 0.0033477 -0.0041216 0.00018218 0.0026098
0.0021968 -0.001939 -0.0012445 -0.00016895
-0.015618 0.0096893 0.14225 0.32486 0.0018578 0.013014 0.0016703 -0.00067859
0.00013263 -0.001056 0.00034476 -0.001079
0.0033239 -0.0041334 0.0019289 0.013017 0.34769 -0.047226 -0.00093567 -0.00039933
0.00070764 -0.00096472 0.00012677 -0.00019467
0.00017322 0.0025911 0.001663 -0.00068671 -0.00094088 -0.00039079 0.22072 0.14272
-0.014879 0.0019933 0.0014443 0.0020104
0.0021989 -0.0019104 0.00012272 -0.0010548 0.00069851 -0.00098335 -0.01486 0.0020117
0.14029 0.19942 -0.011893 0.0013069
-0.0011992 -0.0002043 0.00032413 -0.0010819 0.00010769 -0.00018366 0.0014627 0.0019692
-0.011876 0.0012984 0.18084 0.26645
1580000000 0.28987 0.070767 -0.0090246 0.013411 -0.00098231 -0.0048736 0.0014789 0.0018743
-0.00018166 -0.0021765 -0.00021185 0.00047526
-0.0090336 0.013414 0.17025 0.30008 0.0055336 0.0078724 0.00064074 -0.0015214
-0.0004599 -0.0011389 -0.00013639 -0.00086574
-0.0010357 -0.0048768 0.0055813 0.0078616 0.32819 -0.10502 -0.0015396 0.00036862
-0.00034949 -0.0013127 0.00028728 -0.00064256
0.0015012 0.001878 0.00062761 -0.0015274 -0.0015294 0.00035389 0.23534 0.10308
-0.011774 0.0070027 0.002003 0.00083881
-0.00016987 -0.0022062 -0.00046182 -0.0011385 -0.00035069 -0.0013108 -0.011782 0.0070247
0.16503 0.18215 -0.0094554 0.0071283
-0.00022455 0.00049431 -0.00010609 -0.00086822 0.00032246 -0.00067739 0.0020032 0.00084188
-0.0094674 0.0071156 0.2131 0.24
1640000000 0.29306 0.029725 -0.0020485 0.012582 -0.002938 -0.0025556 0.0027001 0.0011188
-0.00069504 -0.0016822 -0.00048312 0.00061644
-0.0020824 0.012579 0.20004 0.27558 0.0058676 0.0028311 -0.00052608 -0.0018626
-0.00099533 -0.00055221 -0.0005554 -0.000727
-0.0029619 -0.0025545 0.0058861 0.0027989 0.29959 -0.15386 -0.00084394 0.0012862
-0.0010451 -0.0011162 -0.00026621 -0.00048407
0.0027219 0.0011023 -0.00053224 -0.0018647 -0.00084185 0.0012958 0.24816 0.053757
-0.0077633 0.0085223 0.0024639 -0.00069563
-0.00070916 -0.0016436 -0.001004 -0.00055535 -0.0010251 -0.0011166 -0.007727 0.0085353
0.18863 0.15941 -0.0047952 0.009299
-0.00043158 0.00059757 -0.00056511 -0.00070914 -0.0002992 -0.00043491 0.002464 -0.00071677
-0.0048165 0.0093108 0.23947 0.20946
1700000000 0.28731 -0.015717 0.0016241 0.010027 -0.003644 0.0002607 0.0032238 -0.0011564
-0.0020236 -0.00063982 0.00056799 0.00042064
0.0016235 0.010006 0.21879 0.24417 0.0034315 -0.00012328 -0.0014095 -0.0007333
-0.00087271 -7.3692e-05 -0.00094026 -0.00049896
-0.003647 0.00027307 0.0034389 -0.0001533 0.25704 -0.19361 0.00019871 0.0016569
-0.0021199 -0.00017762 -0.00067051 -0.00088611
0.0031879 -0.0011508 -0.0014068 -0.00072755 0.00019342 0.0016577 0.24529 0.0032757
-0.0049498 0.0094031 0.0015569 -0.0021249
-0.0020446 -0.00064367 -0.00087491 -6.0222e-05 -0.0021228 -0.00014856 -0.0049299 0.0094187
0.20712 0.14006 -0.00021457 0.0097212
0.00056781 0.00044442 -0.00093613 -0.00047834 -0.00060913 -0.000866 0.0015469 -0.0021502
-0.00018478 0.0096684 0.2568 0.17561
1760000000 0.27603 -0.064793 0.0043401 0.0067706 -0.0021746 0.0012702 0.0013921 -0.0033622
-0.0014262 0.00061805 0.00043057 -0.00053924
0.0043396 0.0067787 0.24497 0.20455 0.00091003 -0.0016643 -0.0013269 5.6816e-05
-0.0012005 0.00095154 -0.00055235 0.00039751
-0.0021299 0.0012621 0.00089139 -0.0016792 0.20889 -0.22671 0.0009955 0.0012535
-0.0012601 0.0014455 -0.0012542 -0.00063816
0.0013952 -0.0034289 -0.0013445 7.6842e-05 0.00099734 0.0012579 0.23613 -0.048896
-0.0015294 0.008818 -0.0002419 -0.0023105
-0.0014036 0.00061576 -0.0011904 0.00096886 -0.0012489 0.0014467 -0.0015096 0.0088183
0.22274 0.1062 0.0036764 0.0073307
0.00040907 -0.00055606 -0.000587 0.00041135 -0.0013178 -0.00059873 -0.00024605 -0.0022442
0.0036101 0.0073539 0.27025 0.13839
1820000000 0.2525 -0.10234 0.0046593 0.0031257 0.00014768 0.0026003 -0.00092698 -0.003228
-0.0012251 0.00090384 -5.0748e-06 -0.00013304
0.0046569 0.0031253 0.25552 0.17478 -0.0014587 -3.0972e-05 -0.0014887 0.00095386
-9.9144e-05 0.0013151 -0.00064857 0.0005988
0.00016475 0.0025903 -0.001465 -2.7717e-05 0.15832 -0.24198 0.0017069 0.00049881
-0.00029006 0.0024301 -0.0016026 0.00044926
-0.00092977 -0.0032161 -0.0015011 0.00097534 0.0017124 0.00050352 0.20578 -0.096287
0.00023656 0.0074618 -0.0018406 -0.0016054
-0.0011795 0.00091257 -9.4483e-05 0.0013197 -0.0002989 0.0024404 0.00024752 0.0074728
0.24121 0.078177 0.0047422 0.0035598
3.2426e-06 -0.00013103 -0.00065044 0.00061478 -0.0016073 0.00046208 -0.0018351 -0.0016151
0.0047369 0.0035815 0.27295 0.10256
1880000000 0.21765 -0.1435 0.0025336 0.00066129 -0.00041076 0.0021777 -0.0029929 -0.0023239
-0.00027333 0.0016801 0.00013738 -0.00068707
0.0025319 0.0006529 0.26004 0.12826 -0.003348 0.0022505 -0.00033003 0.0018483
0.00066521 0.0013955 0.00010371 0.00094006
-0.00041645 0.0022058 -0.0033458 0.0022656 0.10633 -0.25107 0.0019659 -0.00097518
0.0016136 0.001988 -0.0010909 0.0014671
-0.0029274 -0.0023174 -0.00030988 0.001814 0.0019801 -0.00099716 0.16499 -0.13684
0.0013633 0.005264 -0.0022991 0.00053875
-0.00021652 0.0017091 0.0006948 0.0013824 0.0016372 0.0019568 0.0013729 0.0053005
0.24632 0.046889 0.0049473 0.0016242
0.00012199 -0.00059473 0.0001426 0.000944 -0.0010757 0.0014698 -0.0023203 0.00051552
0.0049435 0.001529 0.27369 0.068353
1940000000 0.17826 -0.1695 0.00026569 -0.0012053 0.0015628 0.0020804 -0.0039525 0.00028599
0.0011943 0.0010993 -0.00072424 -0.0006622
0.00027078 -0.0011747 0.26097 0.096983 -0.0017476 0.0050769 0.0010425 0.0013291
0.001982 0.00042238 0.0010136 0.00027835
0.0015817 0.0020921 -0.0017297 0.0051015 0.061598 -0.24387 0.00053922 -0.0026807
0.0025227 0.00032659 0.00031569 0.0016213
-0.003934 0.00037489 0.0010537 0.0013545 0.0005473 -0.0026829 0.11197 -0.16678
0.00048916 0.0040852 -0.001215 0.0014709
0.00125 0.0011202 0.0019638 0.00042181 0.0025228 0.00033628 0.00046975 0.0040129
0.25021 0.0092416 0.0040546 -0.0018749
-0.00074299 -0.00063549 0.00096106 0.00031657 0.00032138 0.0016728 -0.0011591 0.0014343
0.0040853 -0.0018182 0.26288 0.032702
2000000000 0.13236 -0.18453 -0.0034728 0.00078564 0.002941 0.0013824 -0.0023055 0.0037501
0.0012132 0.00046464 -0.00061287 0.00060933
-0.003469 0.00077572 0.24735 0.061655 -0.00081109 0.0070639 0.0017394 0.00045097
0.001279 -0.0013662 0.00036774 1.8539e-05
0.0030027 0.0013084 -0.0007853 0.0070812 0.018765 -0.22981 -0.0015175 -0.0017171
0.002127 -0.001312 0.0015163 0.0013406
-0.0022686 0.0036779 0.0017359 0.00041781 -0.0015303 -0.0017454 0.058658 -0.17672
-0.0008802 0.0036912 1.1867e-05 0.002342
0.0012526 0.00045562 0.0012779 -0.0013821 0.0021201 -0.0013037 -0.00084406 0.0037135
0.24655 -0.024155 0.00082119 -0.0028345
