!Keysight Technologies,M9804A,MY58100912,A.14.10.03
!Date: Thursday, April 27, 2023 10:28:33
!Correction: S11(C  6-Port  ) 
!S12(C  6-Port  ) 
!S13(C  6-Port  ) 
!S14(C  6-Port  ) 
!S15(C  6-Port  ) 
!S16(C  6-Port  ) 
!S21(C  6-Port  ) 
!S22(C  6-Port  ) 
!S23(C  6-Port  ) 
!S24(C  6-Port  ) 
!S25(C  6-Port  ) 
!S26(C  6-Port  ) 
!S31(C  6-Port  ) 
!S32(C  6-Port  ) 
!S33(C  6-Port  ) 
!S34(C  6-Port  ) 
!S35(C  6-Port  ) 
!S36(C  6-Port  ) 
!S41(C  6-Port  ) 
!S42(C  6-Port  ) 
!S43(C  6-Port  ) 
!S44(C  6-Port  ) 
!S45(C  6-Port  ) 
!S46(C  6-Port  ) 
!S51(C  6-Port  ) 
!S52(C  6-Port  ) 
!S53(C  6-Port  ) 
!S54(C  6-Port  ) 
!S55(C  6-Port  ) 
!S56(C  6-Port  ) 
!S61(C  6-Port  ) 
!S62(C  6-Port  ) 
!S63(C  6-Port  ) 
!S64(C  6-Port  ) 
!S65(C  6-Port  ) 
!S66(C  6-Port  ) 
!S6P File: Measurement: :
# Hz S  RI   R 50
500000000 -0.332 -0.063371 -0.0095664 -0.00092998 -0.0089543 0.01222 -0.004165 0.012539
0.013488 0.0057313 -0.0043263 0.0076678
-0.0095395 -0.0010442 -0.41288 -0.071577 0.0085109 -0.011192 0.00027465 0.012827
0.0085525 0.002205 0.00086972 0.014099
-0.0088627 0.012299 0.0088219 -0.010801 -0.26583 0.19183 0.006524 0.0039664
-0.0017037 0.0081909 0.00016726 0.01218
-0.0040472 0.011376 0.00053038 0.013246 0.0068437 0.0038504 -0.33058 0.038892
-0.019254 -0.0044222 0.016375 0.027208
0.013271 0.0053666 0.0083532 0.0024318 -0.0019229 0.0081636 -0.019453 -0.0051056
-0.23798 -0.21086 -0.027334 0.003658
-0.0036417 0.0065079 0.00027096 0.014812 0.0004109 0.012349 0.015918 0.02684
-0.027134 0.004061 -0.26672 -0.13719
560000000 -0.31885 0.10345 -0.022065 -0.06747 0.00037042 0.013652 0.0053959 0.01112
0.0097894 0.0043633 0.010969 0.0088401
-0.022086 -0.067307 -0.37347 0.093041 -0.041578 -0.03977 0.014741 0.0041573
-0.01272 -0.0051151 0.002723 -0.0005917
0.00024897 0.013284 -0.041266 -0.039474 -0.18592 0.24455 -0.00050911 -0.004587
0.018333 0.0068409 0.0075386 -0.0062249
0.0055995 0.010858 0.014403 0.0040733 -0.00083201 -0.0051893 -0.30716 0.13036
0.0067791 -0.023845 0.0051079 -0.021589
0.010448 0.0040238 -0.012233 -0.0049126 0.018156 0.0058676 0.0066285 -0.023187
-0.30989 -0.029242 0.010373 -0.050286
0.011617 0.0084864 0.0028837 -0.00028095 0.0078511 -0.0062324 0.0053604 -0.021293
0.010221 -0.050697 -0.33349 0.012897
620000000 -0.27867 0.084866 -0.023271 0.0086681 0.0031763 0.0096781 0.0076191 -0.0041752
0.012489 -0.0019726 0.00047145 -0.0027445
-0.023219 0.0086601 -0.40216 0.039622 -0.018758 4.355e-05 -0.0018004 -0.0015271
0.012591 -0.0064774 0.00063088 -0.0027056
0.0033338 0.0096063 -0.018666 -9.6796e-06 -0.15738 0.2538 -0.001182 -0.004954
-0.0040798 -0.0031896 0.009776 -0.0026573
0.008302 -0.0045957 -0.0019001 -0.0019273 -0.00055284 -0.0048702 -0.26466 0.13998
-0.039783 -0.018671 0.015205 0.027157
0.011447 -0.0011455 0.012672 -0.0059469 -0.0046041 -0.003263 -0.040081 -0.019189
-0.22249 -0.064411 -0.043855 0.012002
0.00044018 -0.0027002 0.00036695 -0.0033865 0.010241 -0.0022141 0.014731 0.027868
-0.043414 0.01161 -0.24671 -0.023516
680000000 -0.24251 0.17693 -0.026215 -0.01533 0.0046645 0.0050736 0.0017261 -0.0081413
-0.0019167 -0.011224 0.0057355 -0.0072218
-0.026241 -0.01542 -0.39111 0.14166 -0.032678 -0.0028207 -0.0016221 -0.00060009
-0.0014909 -0.0091542 -0.0012773 -0.0025071
0.0047321 0.0052755 -0.032778 -0.0027803 -0.10728 0.27614 -0.00077465 -0.00024966
-0.0012919 0.00042836 -0.0028563 -0.009848
0.0013739 -0.0077452 -0.0019009 -0.0002848 -0.0010965 -9.9765e-05 -0.22143 0.19322
-0.022386 -0.0079369 -0.0093294 -0.01192
-0.0020092 -0.011338 -0.0012109 -0.0090403 -0.0011241 0.00040394 -0.022639 -0.0073161
-0.28065 0.039245 -0.006202 -0.0074422
0.0056621 -0.0069631 -0.00097404 -0.0021713 -0.0030266 -0.009839 -0.0092932 -0.011823
-0.0063799 -0.007187 -0.26272 0.080812
740000000 -0.19566 0.17 -0.040687 0.026131 0.013898 -0.0045278 8.6774e-05 -0.0041179
-0.0039031 -0.0030175 -0.0065333 0.0026986
-0.040691 0.025855 -0.33651 0.16135 -0.038154 0.033849 -0.00020383 -0.0059005
-0.011671 0.0071785 -0.00086446 -0.0063698
0.013806 -0.0045774 -0.03837 0.034365 -0.073044 0.27402 -0.0018144 0.0033345
-0.002485 -0.0058631 -0.0014676 0.0013452
4.1517e-05 -0.0038302 7.8518e-05 -0.0056722 -0.0016944 0.0032277 -0.20475 0.1996
-0.043457 -0.0088751 0.023111 0.01567
-0.0036856 -0.0039299 -0.011219 0.0073873 -0.0022337 -0.0053203 -0.043482 -0.0089893
-0.1805 0.068565 -0.044438 0.00060638
-0.0070812 0.0028208 -0.0014328 -0.006322 -0.0015216 0.00097131 0.022955 0.015686
-0.044821 0.00029044 -0.2509 0.087342
800000000 -0.16505 0.21513 -0.022394 0.015528 0.0057703 -0.010647 -0.0042689 -0.0026606
-0.0046113 0.0018687 0.0037811 0.00011044
-0.022402 0.01552 -0.34415 0.23196 -0.0092543 0.034091 -0.0020232 0.0019325
-0.0008491 0.0026391 0.00068896 0.0052946
0.0057277 -0.010642 -0.0091389 0.034072 -0.034837 0.29927 0.0010637 0.0012379
3.2744e-05 0.0032809 -0.002074 0.00072471
-0.0045374 -0.0028146 -0.0020265 0.0018885 0.0010244 0.0011209 -0.17587 0.22815
-0.028694 0.012197 0.01415 -0.010364
-0.0045869 0.0022152 -0.0010576 0.0025033 -4.3609e-05 0.0033981 -0.028434 0.012318
-0.22634 0.096267 -0.018105 0.019867
0.0037187 0.00034193 0.00078263 0.0053207 -0.001916 0.00073807 0.014017 -0.010265
-0.018142 0.019779 -0.24711 0.13855
860000000 -0.13163 0.23632 -0.018715 0.030352 -0.0029415 -0.010121 -0.0022902 0.00060899
0.0040055 0.0055048 -0.0038215 -0.0032672
-0.018765 0.030267 -0.29741 0.27618 0.0066295 0.034753 6.9579e-05 0.0025111
0.0034031 0.00053549 0.0033826 0.00052046
-0.0030135 -0.010256 0.0067577 0.034762 0.012676 0.30856 -0.00065404 -0.00017706
0.0022603 -0.0013341 0.0013361 0.0044999
-0.0019265 0.00055561 0.00019282 0.0024013 -0.00056026 -6.291e-05 -0.13892 0.23949
-0.018415 0.017924 -0.0067391 -0.0089659
0.0039753 0.0053013 0.0034396 0.00054305 0.0022061 -0.0013015 -0.01853 0.017861
-0.1713 0.15044 -0.025465 0.016139
-0.0037098 -0.0032358 0.0032727 0.00021987 0.0011659 0.0043239 -0.006784 -0.0093015
-0.025488 0.016041 -0.19615 0.18483
920000000 -0.10815 0.26001 0.0039378 0.038964 -0.0093113 -0.0049574 -0.0018019 0.0018279
0.00099795 0.0017764 0.0030262 -0.00097698
0.0039529 0.03898 -0.27016 0.2985 0.027854 0.023508 0.0013591 0.0010944
0.0078878 0.00016532 0.0047284 -0.002536
-0.0092738 -0.0049538 0.02793 0.023516 0.058371 0.3105 0.0018828 4.5551e-05
0.0010256 -0.00011428 0.00088083 -0.0014336
-0.0018928 0.0015314 0.0012745 0.0010646 0.0018259 8.1443e-05 -0.11582 0.25649
-0.012009 0.03068 0.0041126 -0.0065182
0.00094775 0.0018814 0.0081152 0.0002621 0.00095176 -7.0903e-05 -0.011949 0.030665
-0.15991 0.15578 -0.0012186 0.027184
0.002986 -0.0013787 0.0043527 -0.0027622 0.00090748 -0.001311 0.0039469 -0.0063447
-0.0011997 0.027227 -0.20397 0.19785
980000000 -0.061971 0.28136 0.016292 0.030914 -0.0095318 0.0044039 0.0017758 0.003823
0.0039259 -0.00133 -0.0030815 -0.0022561
0.016234 0.030829 -0.21748 0.33443 0.03327 0.0061062 0.0019884 -5.5776e-05
0.0015664 -0.0059726 -0.00027941 -0.0025349
-0.009503 0.0044236 0.033325 0.0059961 0.1043 0.30507 0.00080013 -0.0011889
0.00044495 -0.0017559 0.0015306 -0.00016674
0.0017391 0.0040814 0.0019188 -2.2313e-05 0.00072094 -0.0011313 -0.077005 0.26753
0.0062192 0.029915 -0.009495 -0.0072589
0.0038989 -0.0014525 0.0013606 -0.0061535 0.00052389 -0.0018567 0.0063036 0.030002
-0.12819 0.18736 0.0052504 0.019954
-0.0031181 -0.0023788 -0.00026521 -0.0025198 0.0013212 -0.00031372 -0.0094001 -0.0074253
0.0050902 0.020034 -0.16286 0.24456
1040000000 -0.021362 0.29063 0.033026 0.02007 -0.0014526 0.0073349 0.0027977 0.00077235
0.00062846 -0.0034932 3.777e-05 -0.0019553
0.033033 0.020023 -0.18245 0.34854 0.030396 -0.013921 0.0016811 -0.0016892
-0.0022042 -0.0025438 -0.0011243 -0.0032859
-0.0014632 0.0073127 0.030376 -0.014034 0.15011 0.29265 -0.00045009 -0.0016574
-0.0014523 -0.00096864 -0.00047932 -0.0011575
0.0028924 0.00072414 0.0016803 -0.001702 -0.00042062 -0.0015965 -0.050709 0.27795
0.018507 0.019367 -0.002556 0.0011553
0.00026192 -0.0032696 -0.0020817 -0.0025942 -0.0014537 -0.0010171 0.018352 0.019262
-0.095866 0.19497 0.014076 0.018947
0.00022095 -0.001912 -0.0010468 -0.0032295 -0.00050648 -0.001132 -0.0024834 0.0012411
0.013935 0.01903 -0.14171 0.26492
1100000000 0.023862 0.30071 0.036948 -0.0023936 0.0031117 0.0043754 0.0025766 -0.0010585
-0.0023206 -0.0029934 -0.0041441 -3.2335e-05
0.036875 -0.0023849 -0.13908 0.36793 0.016388 -0.027632 -2.554e-05 -0.001782
-0.0036074 -0.000843 -0.0036352 -0.00035085
0.003207 0.0043516 0.016309 -0.027701 0.19633 0.2738 -0.0019408 6.8977e-05
-0.0017224 0.00050147 -0.0011021 -0.0005854
0.0025512 -0.0010751 -3.6915e-05 -0.0017961 -0.001928 0.00012478 -0.010475 0.2835
0.024306 0.006464 -0.0024472 0.00023633
-0.002422 -0.0029566 -0.0036085 -0.00074999 -0.0016572 0.00049385 0.024209 0.0064321
-0.075753 0.20943 0.01925 0.009827
-0.0040338 0.00028485 -0.0036063 -0.00035151 -0.0010945 -0.00057796 -0.0024577 0.00030704
0.019103 0.0097912 -0.094954 0.296
1160000000 0.074567 0.29776 0.025447 -0.019722 0.0032794 -0.0005317 -0.00015476 -0.0025778
-0.0040585 -0.00082939 -0.0010447 0.0040261
0.025495 -0.019681 -0.095679 0.37294 -0.0026971 -0.029437 -0.0016025 -0.0017424
-0.0025589 0.002384 -0.0014584 0.0017115
0.0032853 -0.00050779 -0.0028003 -0.029446 0.23964 0.24421 -0.00084891 0.0017474
-0.00068186 0.0018414 -0.0011646 0.00027681
-9.0369e-05 -0.0024311 -0.0015593 -0.0017077 -0.00081619 0.0017537 0.028506 0.28135
0.02128 -0.009328 -0.0032862 0.0055471
-0.0041217 -0.00075112 -0.0026159 0.0024069 -0.00071022 0.0018248 0.021485 -0.0094767
-0.040838 0.21795 0.018654 0.0001122
-0.0010498 0.0039472 -0.0014146 0.0017098 -0.0011634 0.00039184 -0.0034233 0.0055897
0.018941 9.9651e-05 -0.047935 0.29975
1220000000 0.1186 0.28862 0.012412 -0.030211 -0.0012393 -0.0012906 2.2434e-05 -0.00097354
-0.0028477 0.0020907 0.00097295 0.0021597
0.012358 -0.030181 -0.051546 0.38694 -0.01658 -0.021959 -0.0025907 0.00047738
-3.5761e-05 0.0029456 -0.00084301 0.0019485
-0.0012521 -0.0012967 -0.016692 -0.021917 0.27923 0.20654 0.00069393 0.0017617
0.00047937 0.001205 0.00029271 0.00068233
8.0951e-06 -0.0010695 -0.0025888 0.0004275 0.00066653 0.0017696 0.068614 0.27368
0.011345 -0.016198 0.0022283 0.0012543
-0.0028011 0.0021104 2.0784e-05 0.0029633 0.00042849 0.0012091 0.011374 -0.016071
-0.017778 0.22828 0.014899 -0.01275
0.00088063 0.0021328 -0.00086151 0.0019057 0.00021806 0.00070307 0.0024458 0.0011609
0.014771 -0.012647 -0.017645 0.31625
1280000000 0.1691 0.26928 -0.0065486 -0.029342 -0.0019411 0.0020574 -0.00096497 -0.0021432
-0.0008498 0.0032716 0.0026749 0.0014188
-0.0064652 -0.029318 -0.0049935 0.37921 -0.024009 -0.0089991 -0.0010493 0.0014636
0.0016104 0.0017617 0.00068659 0.0020239
-0.0019449 0.0020062 -0.024079 -0.0089298 0.31065 0.16337 0.0015046 2.8422e-05
0.0010678 0.000374 0.00040724 0.00024335
-0.0010239 -0.0021126 -0.0010409 0.0015169 0.0015424 9.3161e-06 0.1057 0.25821
0.0019299 -0.018668 0.0002603 0.00015725
-0.00087355 0.0032332 0.001566 0.0017024 0.001111 0.00034666 0.0018534 -0.018735
0.018669 0.23214 0.0037577 -0.015185
0.0027138 0.0014464 0.00073426 0.0021214 0.00030809 0.00012926 0.0001369 0.00017387
0.0038603 -0.01523 0.030283 0.31927
1340000000 0.2066 0.23713 -0.016905 -0.020351 0.00044304 0.0043538 -0.0018264 -0.00079377
0.0013995 0.0027444 0.0018639 -0.0013214
-0.016908 -0.020314 0.034455 0.37235 -0.021734 0.0039587 -0.00010318 0.0020025
0.0019139 0.00078767 0.0011573 0.0007586
0.00048669 0.004377 -0.021745 0.0040885 0.33342 0.11655 0.00099581 -0.00093469
0.00062761 -0.00048059 0.00020735 0.00023626
-0.0017986 -0.00079925 -0.00012308 0.001945 0.00097294 -0.00093201 0.13921 0.23848
-0.0075193 -0.01656 0.0010091 0.00025191
0.0013851 0.0027073 0.0019202 0.00081947 0.00062356 -0.00040319 -0.0075585 -0.016516
0.048432 0.22839 -0.0032818 -0.014174
0.0018111 -0.0012011 0.0011192 0.00081378 0.00027874 0.00027184 0.0010466 0.00024673
-0.0033205 -0.014122 0.068209 0.31575
1400000000 0.24143 0.20082 -0.023559 -0.0087986 0.0049607 0.00327 -0.0022359 0.00067967
0.0025136 0.00095556 0.000349 -0.0015931
-0.023521 -0.0088058 0.072955 0.36035 -0.015036 0.012396 0.0012522 0.0013035
0.0012692 -0.00071063 0.0012571 0.00024157
0.0049896 0.0032477 -0.014999 0.01247 0.34746 0.063029 8.5835e-05 -0.0014853
0.00021184 -0.00046201 0.00031182 0.00032508
-0.0022582 0.00072983 0.0012576 0.0013408 0.00012288 -0.0015 0.16934 0.21003
-0.013687 -0.010257 -0.00097389 -0.00044869
0.0025943 0.00096598 0.0012501 -0.00072075 9.5987e-05 -0.0004637 -0.013694 -0.010224
0.081847 0.22485 -0.009617 -0.0090336
0.00028859 -0.0016122 0.001272 0.00023956 0.00033104 0.00033002 -0.00093557 -0.00053142
-0.0096453 -0.009056 0.11331 0.30558
1460000000 0.2652 0.15778 -0.02096 0.0038309 0.0054884 -0.0016813 -0.0015028 0.0017182
0.0021824 -0.00036143 -0.00022296 -0.0010841
-0.020999 0.0038009 0.10785 0.3388 -0.0060104 0.015498 0.0016917 0.00025317
0.00097342 -0.0012455 0.0012444 -0.00055199
0.0054614 -0.0016997 -0.005935 0.015553 0.35435 0.0088182 -0.0011269 -0.0011703
0.00023717 -9.4686e-05 0.00073843 -0.0003814
-0.0015369 0.0018328 0.0016794 0.00021557 -0.0011386 -0.0011984 0.19653 0.18092
-0.015098 -0.0037689 -0.001024 0.0018505
0.0021195 -0.00042708 0.00097439 -0.001241 0.00029504 -0.00013486 -0.015121 -0.0037402
0.11173 0.21164 -0.011958 -0.0034161
-0.00027599 -0.0011449 0.001238 -0.00050563 0.00079004 -0.00034332 -0.001054 0.001908
-0.011981 -0.0035119 0.14692 0.28578
1520000000 0.27897 0.1168 -0.01564 0.0097 0.0033114 -0.0041009 0.00015298 0.0026046
0.0022103 -0.0018571 -0.0012358 -0.000112
-0.015628 0.009669 0.14203 0.32494 0.0018604 0.013025 0.0016631 -0.00067895
0.00012394 -0.0010817 0.00038518 -0.0010558
0.0033218 -0.00415 0.0019105 0.013028 0.34777 -0.047071 -0.00092048 -0.00045149
0.00071818 -0.00094799 0.0001847 -0.00018721
0.000133 0.0025873 0.001663 -0.00066873 -0.00092208 -0.00042227 0.22065 0.14286
-0.014891 0.0019819 0.001395 0.0020542
0.002237 -0.0019203 9.8969e-05 -0.0010677 0.00070904 -0.00096806 -0.014895 0.0019971
0.14009 0.19945 -0.011853 0.0012712
-0.001303 -8.9495e-05 0.00034775 -0.0010378 0.00011686 -0.00024699 0.0014481 0.0020405
-0.011771 0.0013128 0.18027 0.26622
1580000000 0.28975 0.070942 -0.0090274 0.013428 -0.00099594 -0.0049033 0.0015014 0.0018766
-0.00017093 -0.0022337 -0.00025207 0.0004362
-0.0090421 0.013408 0.17008 0.30014 0.0055151 0.0078552 0.00064869 -0.0015346
-0.00042941 -0.0011448 -0.00015423 -0.00090797
-0.0010372 -0.0048764 0.0055426 0.0078463 0.32813 -0.10491 -0.0015292 0.00039266
-0.00030203 -0.0013025 0.00030538 -0.00068311
0.0015362 0.0019104 0.00063075 -0.0015497 -0.0015415 0.000365 0.23525 0.10315
-0.011818 0.0069816 0.0020106 0.00088881
-0.00016822 -0.0021855 -0.0004474 -0.0011485 -0.00029367 -0.0013017 -0.011811 0.0070072
0.16499 0.18219 -0.0096043 0.0070132
-0.00017309 0.0004869 -0.00017401 -0.0009035 0.00031174 -0.00059575 0.0019708 0.00084006
-0.0095902 0.006941 0.21309 0.24009
1640000000 0.29286 0.029942 -0.0020905 0.012581 -0.0029386 -0.002583 0.0026853 0.0011107
-0.00071186 -0.0016637 -0.00052188 0.00063101
-0.0020774 0.012563 0.19981 0.27573 0.0058948 0.0028486 -0.00050931 -0.0018566
-0.00098861 -0.00055733 -0.00054626 -0.00071197
-0.0029774 -0.0025656 0.0058916 0.0028228 0.29963 -0.15377 -0.00087032 0.0013271
-0.0010556 -0.0011252 -0.00032319 -0.00044878
0.002695 0.0011065 -0.0005173 -0.0018866 -0.00083653 0.0013214 0.24804 0.053908
-0.0077308 0.0085413 0.0024558 -0.00083449
-0.00073535 -0.0016162 -0.00099075 -0.00054977 -0.0010846 -0.0010416 -0.0077229 0.008576
0.18844 0.15951 -0.0047676 0.0092628
-0.00050899 0.00063959 -0.00054169 -0.00070838 -0.00030199 -0.00044717 0.0024868 -0.00067925
-0.0048039 0.0092709 0.2391 0.2096
1700000000 0.28725 -0.015501 0.0016187 0.010045 -0.0036321 0.00026737 0.0032318 -0.0011106
-0.0020425 -0.00064364 0.00067691 0.00044523
0.0016092 0.010037 0.21868 0.24432 0.0034554 -0.00011608 -0.0014272 -0.00073341
-0.0008891 -5.116e-05 -0.00094774 -0.0004814
-0.0036975 0.00033602 0.0034513 -0.00014488 0.2572 -0.19341 0.00019006 0.0015976
-0.0021305 -0.00015936 -0.00065154 -0.00081206
0.0032364 -0.0011446 -0.0014002 -0.0006935 0.00016754 0.0016483 0.24536 0.0034038
-0.0049253 0.0094197 0.0014627 -0.0020108
-0.0020536 -0.00063543 -0.00086302 -4.999e-05 -0.0021098 -0.00017543 -0.0049511 0.0094025
0.20707 0.14018 -0.00029323 0.0096568
0.00066156 0.00041109 -0.00093934 -0.00048262 -0.00062552 -0.00073492 0.0015208 -0.0020961
-0.00022961 0.009665 0.25656 0.17581
1760000000 0.27591 -0.064568 0.0043235 0.0067721 -0.002152 0.0012742 0.0013585 -0.0034783
-0.0013442 0.00054173 0.00029892 -0.00056566
0.0043059 0.0067578 0.24476 0.20466 0.00088014 -0.0016932 -0.0013221 2.2661e-05
-0.0011711 0.00093238 -0.00060376 0.00038724
-0.0021757 0.0012711 0.00088864 -0.0016674 0.20885 -0.22665 0.0010981 0.0012574
-0.0012671 0.0014412 -0.0012458 -0.00067006
0.0014215 -0.0034833 -0.0013251 6.0249e-05 0.0009969 0.0012418 0.23602 -0.048829
-0.0015696 0.0087949 -0.00012217 -0.0023031
-0.001362 0.00059849 -0.0012027 0.00097081 -0.0012516 0.0014636 -0.0014651 0.0087985
0.22246 0.1063 0.003752 0.0073747
0.00036916 -0.00049051 -0.00062878 0.00043601 -0.0012136 -0.00066992 -0.0002712 -0.0023007
0.0037115 0.0073027 0.26997 0.13869
1820000000 0.25248 -0.10207 0.0046551 0.0031291 0.00010161 0.0025641 -0.0009481 -0.0031565
-0.0012026 0.00093965 7.7708e-06 -0.00018894
0.0046635 0.0031301 0.2554 0.17498 -0.0014534 -5.1683e-05 -0.0015048 0.00091064
-0.00012114 0.0013582 -0.00060717 0.00057852
0.00019407 0.0026055 -0.0014409 3.3556e-06 0.15846 -0.24179 0.0017067 0.00042762
-0.00026155 0.002484 -0.001588 0.00046275
-0.00099065 -0.0031496 -0.0014997 0.00095103 0.0018086 0.00058592 0.20601 -0.096148
0.00035643 0.0075504 -0.0018618 -0.0015266
-0.0011854 0.0009562 -6.6227e-05 0.0013303 -0.00021363 0.0025289 0.00032675 0.0074771
0.24119 0.078398 0.0047094 0.0036537
-4.0394e-05 -0.00019369 -0.00062309 0.0005498 -0.0016452 0.00041822 -0.0018191 -0.0013979
0.0047151 0.0036858 0.27305 0.10289
1880000000 0.21774 -0.14326 0.0025115 0.00064777 -0.0004369 0.0022125 -0.0028487 -0.0022931
-0.00022134 0.0017069 0.00022475 -0.00070014
0.0025132 0.00065155 0.2599 0.12839 -0.003358 0.0022545 -0.00023667 0.0019072
0.0007072 0.0013973 0.00013997 0.0010146
-0.00037104 0.002193 -0.0033418 0.0022833 0.10644 -0.2511 0.0020657 -0.0010941
0.0016727 0.001941 -0.0011396 0.0015919
-0.0029368 -0.0023101 -0.00028912 0.0018589 0.0019716 -0.0010669 0.16497 -0.13663
0.0013241 0.0053362 -0.0022568 0.00049712
-0.00030375 0.0017631 0.00065964 0.0014166 0.0015978 0.001936 0.0014593 0.0055139
0.24624 0.047133 0.0050476 0.0016234
0.00017131 -0.00063978 0.00013695 0.00098256 -0.0010105 0.001575 -0.0021034 0.00035677
0.00513 0.0015475 0.27336 0.068636
1940000000 0.17829 -0.16935 0.00028854 -0.0011721 0.0015684 0.0021326 -0.0039358 0.00031909
0.001246 0.0011134 -0.00073815 -0.00043636
0.00026925 -0.0011731 0.26088 0.097204 -0.0017202 0.0051355 0.0010565 0.001409
0.0020033 0.00049158 0.00092539 0.00031643
0.0015921 0.0021314 -0.001696 0.0051002 0.061684 -0.24363 0.00062665 -0.0026148
0.0025212 0.00045548 0.00015539 0.0016174
-0.0039975 0.00036246 0.0010475 0.0013678 0.00054772 -0.0026291 0.11195 -0.16678
0.00060418 0.0039244 -0.0011497 0.0015843
0.0012997 0.0011185 0.0020022 0.00045888 0.0024985 0.00039768 0.00054874 0.0038213
0.25014 0.0093658 0.0040271 -0.00183
-0.0006894 -0.00053301 0.00097807 0.00034641 0.00022063 0.0016943 -0.0012894 0.0015674
0.0039158 -0.0017846 0.26285 0.03291
2000000000 0.13274 -0.18438 -0.0034728 0.00080148 0.0029108 0.0014454 -0.0023256 0.0037213
0.0012615 0.00058948 -0.00056291 0.00053656
-0.0034639 0.00080934 0.24732 0.06183 -0.00082485 0.0070217 0.0017538 0.00046482
0.0012878 -0.0013289 0.00041896 6.5626e-05
0.0029642 0.0013644 -0.00075361 0.0070674 0.018857 -0.22992 -0.0014226 -0.0016543
0.002063 -0.0012568 0.001639 0.0013533
-0.0023001 0.0036873 0.0017303 0.0004295 -0.0014858 -0.0017468 0.058933 -0.17684
-0.0008391 0.0037177 2.3707e-05 0.0021374
0.0012199 0.00048786 0.0013073 -0.0013022 0.0021781 -0.0012439 -0.000852 0.003765
0.2465 -0.024054 0.00096312 -0.0028
