!Keysight Technologies,M9804A,MY58100912,A.14.10.03
!Date: Thursday, April 27, 2023 10:28:33
!Correction: S11(C  6-Port  ) 
!S12(C  6-Port  ) 
!S13(C  6-Port  ) 
!S14(C  6-Port  ) 
!S15(C  6-Port  ) 
!S16(C  6-Port  ) 
!S21(C  6-Port  ) 
!S22(C  6-Port  ) 
!S23(C  6-Port  ) 
!S24(C  6-Port  ) 
!S25(C  6-Port  ) 
!S26(C  6-Port  ) 
!S31(C  6-Port  ) 
!S32(C  6-Port  ) 
!S33(C  6-Port  ) 
!S34(C  6-Port  ) 
!S35(C  6-Port  ) 
!S36(C  6-Port  ) 
!S41(C  6-Port  ) 
!S42(C  6-Port  ) 
!S43(C  6-Port  ) 
!S44(C  6-Port  ) 
!S45(C  6-Port  ) 
!S46(C  6-Port  ) 
!S51(C  6-Port  ) 
!S52(C  6-Port  ) 
!S53(C  6-Port  ) 
!S54(C  6-Port  ) 
!S55(C  6-Port  ) 
!S56(C  6-Port  ) 
!S61(C  6-Port  ) 
!S62(C  6-Port  ) 
!S63(C  6-Port  ) 
!S64(C  6-Port  ) 
!S65(C  6-Port  ) 
!S66(C  6-Port  ) 
!S6P File: Measurement: :
# Hz S  RI   R 50
500000000 -0.3369 -0.039367 -0.0096529 -0.0024123 -0.0076349 0.012543 -0.0041102 0.012001
0.012991 0.0046838 -0.0046799 0.0090005
-0.0096362 -0.0024502 -0.41926 -0.051674 0.0079569 -0.010678 0.0016693 0.012143
0.0078031 0.0029281 0.0017458 0.013449
-0.0076735 0.012549 0.0079582 -0.010721 -0.26537 0.20898 0.0078587 0.0034968
-0.0015715 0.0082894 0.0018145 0.012002
-0.0040884 0.011989 0.0017128 0.012179 0.0078663 0.0034973 -0.33073 0.044091
-0.018022 -0.006252 0.015463 0.026183
0.012937 0.0047748 0.0077744 0.0028767 -0.0015662 0.0082683 -0.018014 -0.0062433
-0.22468 -0.19535 -0.024927 0.0049457
-0.0046419 0.0089497 0.0017129 0.013516 0.0018307 0.012033 0.015443 0.02618
-0.024936 0.0049972 -0.26791 -0.13177
560000000 -0.31621 0.12261 -0.023756 -0.063765 0.00036604 0.01183 0.0052696 0.01062
0.009846 0.0044845 0.011118 0.0075409
-0.02371 -0.063776 -0.37858 0.10752 -0.041131 -0.037565 0.013533 0.0040196
-0.012939 -0.004505 0.0034378 0.00011331
0.00047433 0.0119 -0.041207 -0.037542 -0.18275 0.25721 -0.0005646 -0.0047712
0.019382 0.0045277 0.0067004 -0.0060158
0.0053676 0.01064 0.01354 0.0039072 -0.00056681 -0.0047643 -0.3058 0.1328
0.0042963 -0.023765 0.004268 -0.021734
0.0099089 0.0045035 -0.013051 -0.0044432 0.019405 0.0045407 0.0042924 -0.023749
-0.29021 -0.020479 0.0089711 -0.048564
0.011273 0.0075526 0.0034444 0.00013422 0.0067713 -0.0060329 0.0042507 -0.021734
0.0090351 -0.048528 -0.32987 0.016788
620000000 -0.27461 0.1068 -0.023184 0.0079513 0.0032469 0.0087535 0.0079638 -0.0053899
0.011243 -0.00044334 0.0019517 -0.0024511
-0.023213 0.0079268 -0.40257 0.059593 -0.018587 0.00015392 -0.0014581 -0.0020521
0.011579 -0.0065876 0.001763 -0.0032641
0.0031293 0.0087311 -0.018625 0.00018905 -0.15367 0.26634 -0.0014179 -0.0051736
-0.0030762 -0.0028363 0.0087027 -0.0035537
0.0079768 -0.0054051 -0.0014627 -0.002075 -0.0014154 -0.0051793 -0.2655 0.14412
-0.037358 -0.019998 0.012005 0.026159
0.011203 -0.00048348 0.011602 -0.0066086 -0.0030402 -0.0028135 -0.037421 -0.01995
-0.20785 -0.057741 -0.041372 0.014307
0.0019773 -0.0024666 0.0017308 -0.00332 0.0086458 -0.0035365 0.012009 0.026108
-0.041369 0.014292 -0.25063 -0.019394
680000000 -0.23464 0.19204 -0.027118 -0.014431 0.0051329 0.0051055 0.0010947 -0.0069283
-0.0031489 -0.010998 0.0049228 -0.0068891
-0.027096 -0.01443 -0.38754 0.15738 -0.032593 -0.0013934 -0.0018123 -0.00051058
-0.0021884 -0.0088565 -0.0015912 -0.002027
0.0051479 0.0051121 -0.032631 -0.0012963 -0.10237 0.28627 -0.00086056 -0.00012698
-0.0018154 0.00061655 -0.0029596 -0.0091782
0.0010971 -0.006938 -0.0018226 -0.00049493 -0.00086868 -0.00012552 -0.22054 0.19377
-0.023598 -0.0081501 -0.009859 -0.010808
-0.0031841 -0.011048 -0.002227 -0.0088235 -0.0018145 0.00062554 -0.023614 -0.008116
-0.25884 0.039895 -0.0049855 -0.0083671
0.0047706 -0.0068834 -0.0015522 -0.0019923 -0.0029659 -0.0091676 -0.0098748 -0.010796
-0.004935 -0.0083635 -0.2613 0.087215
740000000 -0.19029 0.18691 -0.038777 0.026576 0.012764 -0.0050822 -0.00012502 -0.0042216
-0.0045285 -0.0029135 -0.0057063 0.0026672
-0.038778 0.026545 -0.33451 0.17622 -0.035368 0.034994 -0.00090118 -0.0062844
-0.011376 0.0081543 -0.0020487 -0.0065421
0.012746 -0.0050882 -0.035314 0.035116 -0.068583 0.28454 -0.0019331 0.0031965
-0.0022295 -0.0045611 -0.0015531 2.5404e-05
-0.00016674 -0.0042282 -0.0009267 -0.0063091 -0.0019472 0.0032091 -0.20396 0.20161
-0.043243 -0.0072475 0.022817 0.014924
-0.0046041 -0.0028699 -0.011276 0.0082663 -0.0022401 -0.0045244 -0.043283 -0.0071945
-0.16004 0.066151 -0.04309 0.00070795
-0.0056876 0.0025321 -0.0020683 -0.006552 -0.001587 1.2791e-05 0.022829 0.014896
-0.043056 0.00069508 -0.24922 0.092169
800000000 -0.15746 0.22741 -0.022403 0.016757 0.0053883 -0.010512 -0.0047806 -0.0020265
-0.0041623 0.0022699 0.0046792 0.00066157
-0.022404 0.016738 -0.33803 0.24635 -0.0078372 0.033885 -0.0024269 0.0022327
-0.00056119 0.0030184 0.001057 0.0051569
0.0053671 -0.010518 -0.0077475 0.033959 -0.027865 0.30771 0.0010615 0.0015088
0.00039142 0.0034251 -0.0015709 0.00082423
-0.0047749 -0.0019994 -0.0024168 0.0022384 0.0010503 0.001513 -0.17534 0.22954
-0.028465 0.013615 0.013478 -0.010089
-0.0041465 0.0022216 -0.0005374 0.0030262 0.00038209 0.0034162 -0.028475 0.013671
-0.20715 0.089789 -0.017484 0.018784
0.004693 0.00063792 0.0010851 0.0051761 -0.0015688 0.00082077 0.013475 -0.010102
-0.017506 0.018785 -0.24377 0.14254
860000000 -0.12315 0.24767 -0.017455 0.030633 -0.0032899 -0.0098655 -0.0025255 0.0009533
0.0039188 0.0049792 -0.0031201 -0.0028398
-0.01748 0.030597 -0.29063 0.28833 0.0077741 0.034113 -8.362e-05 0.0019524
0.0042515 2.7822e-05 0.0033132 0.00087072
-0.0033156 -0.0098713 0.0078847 0.034127 0.019994 0.31552 -0.00057583 -0.00035191
0.002843 -0.0015508 0.0013716 0.0042986
-0.0025044 0.00097825 -7.0083e-05 0.0019736 -0.00057809 -0.00035119 -0.13921 0.24041
-0.018074 0.018279 -0.0059951 -0.0092737
0.0040217 0.0049163 0.0042852 4.9368e-05 0.0028411 -0.0015571 -0.018057 0.018334
-0.15693 0.14096 -0.025782 0.015318
-0.0031606 -0.0028447 0.0033537 0.00081612 0.0013758 0.0042962 -0.0060153 -0.0092618
-0.025777 0.015266 -0.19242 0.18856
920000000 -0.098462 0.27057 0.0051831 0.037801 -0.0093866 -0.0043586 -0.0018227 0.0020057
0.001125 0.0019307 0.0027975 -0.0016149
0.0051588 0.037782 -0.26143 0.30962 0.028056 0.021908 0.0014718 0.0011535
0.0070973 -0.00062983 0.0039414 -0.0026492
-0.0093999 -0.0043415 0.028127 0.021869 0.066232 0.31612 0.0018175 -8.9483e-05
0.0012215 -0.00041758 0.00090067 -0.0010774
-0.0018251 0.0020145 0.0014832 0.0011705 0.0018201 -8.6556e-05 -0.1153 0.25756
-0.010885 0.030316 0.0035676 -0.0065049
0.0011282 0.0019175 0.0070919 -0.00067706 0.00122 -0.00041803 -0.010822 0.030361
-0.14647 0.14751 -0.0029099 0.027169
0.0027382 -0.0015872 0.003999 -0.0026682 0.00089377 -0.0010767 0.0035604 -0.0065109
-0.0029234 0.027157 -0.20096 0.20221
980000000 -0.051078 0.28988 0.017489 0.029892 -0.0089619 0.0046215 0.0021083 0.0035532
0.0040268 -0.0013731 -0.0031863 -0.0022485
0.017451 0.029884 -0.20876 0.34338 0.032866 0.0048312 0.0020534 -8.3261e-05
0.0015601 -0.0057173 -0.00010667 -0.0024914
-0.0089359 0.0046482 0.032895 0.0047264 0.11238 0.30943 0.00045094 -0.0011472
0.00021642 -0.0020638 0.0014511 -0.0002347
0.0021298 0.0035308 0.0020523 -7.9228e-05 0.00045204 -0.0011458 -0.077041 0.2689
0.007755 0.029607 -0.009223 -0.0072429
0.0040004 -0.0014148 0.0015364 -0.0057642 0.00021358 -0.0020518 0.0078287 0.029609
-0.11581 0.17656 0.0048007 0.019351
-0.0031931 -0.0022352 -0.00013718 -0.0025147 0.0014438 -0.00023555 -0.0092169 -0.0072445
0.0047762 0.019334 -0.15883 0.24727
1040000000 -0.0090025 0.29833 0.033061 0.018104 -0.0012299 0.0068495 0.0025922 0.00070213
1.2207e-05 -0.0037903 -0.00040923 -0.0014069
0.033012 0.018146 -0.17311 0.35617 0.029278 -0.014783 0.0014379 -0.0016988
-0.0025853 -0.0024803 -0.0013576 -0.0026031
-0.0012025 0.0068659 0.029231 -0.014887 0.15827 0.29579 -0.00052096 -0.0015157
-0.0016805 -0.00084011 -0.0004617 -0.0010384
0.002585 0.00069317 0.0014626 -0.0016933 -0.00051673 -0.0015151 -0.049844 0.27917
0.018935 0.017903 -0.002361 0.0016176
3.332e-06 -0.0037742 -0.0026396 -0.0024564 -0.0016756 -0.00083298 0.01898 0.017866
-0.083841 0.18485 0.01306 0.018362
-0.00041441 -0.0014477 -0.0013755 -0.002578 -0.0004549 -0.0010397 -0.0023509 0.0016144
0.013054 0.018354 -0.13745 0.26761
1100000000 0.0363 0.30606 0.035651 -0.0041916 0.0028375 0.0038448 0.0023889 -0.001396
-0.0020624 -0.0031565 -0.003935 5.554e-05
0.035643 -0.0041704 -0.12987 0.37334 0.015035 -0.02765 -1.1721e-06 -0.0018672
-0.0033059 -0.00069547 -0.0034427 -0.00049408
0.002878 0.0038411 0.014933 -0.027726 0.20453 0.27548 -0.0018224 0.00024137
-0.0017498 0.00053236 -0.0010796 -0.00038223
0.0023982 -0.0013867 4.2479e-06 -0.0018567 -0.0018338 0.00023777 -0.00949 0.28416
0.024065 0.0050802 -0.0025986 0.00018598
-0.002077 -0.0031507 -0.0033185 -0.00069153 -0.0017552 0.0005208 0.024079 0.0050471
-0.066091 0.1988 0.018727 0.0087315
-0.0039423 5.7832e-05 -0.003431 -0.00048001 -0.0010681 -0.00037847 -0.0025853 0.00019326
0.018728 0.0087488 -0.091703 0.29797
1160000000 0.087575 0.30097 0.023827 -0.020669 0.0026058 -0.00051558 -0.00026246 -0.0024488
-0.0042118 -0.00073225 -0.0009181 0.0041651
0.023833 -0.020627 -0.086456 0.37739 -0.0036556 -0.028878 -0.0017624 -0.0017038
-0.0026726 0.0025268 -0.0012593 0.0018559
0.0026142 -0.00051897 -0.0037887 -0.02889 0.24736 0.24478 -0.00066239 0.0017259
-0.00052844 0.001935 -0.00085846 0.00022765
-0.00026588 -0.0024511 -0.0017537 -0.0016979 -0.00067175 0.0017216 0.029746 0.2817
0.020526 -0.0099849 -0.0029286 0.0052898
-0.0042263 -0.00072917 -0.0026804 0.0025334 -0.00052966 0.0019465 0.020528 -0.010008
-0.03249 0.20867 0.017809 0.0007944
-0.000917 0.0042069 -0.0012428 0.0018985 -0.00085275 0.00022297 -0.0029231 0.0052951
0.0178 0.00078543 -0.045088 0.30102
1220000000 0.13196 0.28987 0.010286 -0.029809 -0.001549 -0.00079826 -3.0355e-05 -0.00094604
-0.0026344 0.0025038 0.0013959 0.0019997
0.010296 -0.029782 -0.042223 0.38937 -0.016705 -0.021029 -0.0025297 0.00040424
6.7036e-05 0.0029573 -0.000714 0.0018445
-0.0015517 -0.00080325 -0.016817 -0.02097 0.28657 0.20605 0.00080845 0.0015747
0.00061257 0.0012053 0.00034525 0.00071493
-3.5209e-05 -0.00096142 -0.0025259 0.00042101 0.00081159 0.0015756 0.069567 0.27349
0.010151 -0.016455 0.0022618 0.0015431
-0.0026197 0.0025159 7.7625e-05 0.0029443 0.00061296 0.0011995 0.010126 -0.016477
-0.0099132 0.21817 0.014187 -0.01241
0.0014131 0.0020128 -0.00070574 0.0018535 0.00033952 0.00069471 0.0022776 0.0015371
0.014191 -0.012404 -0.013882 0.31798
1280000000 0.18156 0.26775 -0.0078587 -0.028204 -0.001844 0.0024962 -0.00094206 -0.0019766
-0.00076802 0.0030868 0.0024861 0.0011262
-0.0078269 -0.028177 0.0035141 0.38043 -0.023525 -0.008505 -0.00098198 0.0014777
0.0016307 0.0017539 0.00059532 0.0020725
-0.0018338 0.002494 -0.0236 -0.0084144 0.31713 0.16231 0.0015507 -6.1446e-05
0.0010954 0.00031227 0.00054837 0.0002622
-0.00095332 -0.0019738 -0.00097494 0.0014799 0.0015472 -5.4668e-05 0.10646 0.25735
0.0011024 -0.018318 0.00016215 5.524e-05
-0.00075747 0.0030849 0.0016556 0.0017567 0.001092 0.00031119 0.0010661 -0.018334
0.026684 0.22233 0.0033348 -0.014495
0.0025168 0.0011168 0.00061338 0.0020648 0.00054596 0.00027053 0.00016955 5.3682e-05
0.0033439 -0.014489 0.034308 0.32036
1340000000 0.21851 0.23394 -0.017425 -0.018794 0.00092667 0.004441 -0.0017651 -0.00075706
0.0015096 0.0027046 0.0017477 -0.0013929
-0.017379 -0.018782 0.042793 0.37235 -0.02146 0.0041021 -0.00012935 0.002011
0.0018821 0.00079406 0.0012892 0.00082531
0.00094899 0.0044363 -0.021466 0.0042091 0.33935 0.11437 0.0010548 -0.00087438
0.000708 -0.00045461 0.00021678 0.00026359
-0.0017795 -0.00074519 -0.00012335 0.0020112 0.0010584 -0.00087227 0.13913 0.23735
-0.0079131 -0.015672 0.001021 0.00034297
0.001526 0.0026961 0.001906 0.00077961 0.00070784 -0.00046221 -0.0079478 -0.015665
0.0568 0.21837 -0.0031125 -0.013134
0.0017403 -0.0013979 0.001311 0.0008284 0.0002103 0.00025382 0.0010213 0.00033362
-0.0031033 -0.013129 0.07241 0.31635
1400000000 0.25133 0.19563 -0.023105 -0.0074516 0.0050835 0.00302 -0.0020257 0.00065548
0.0024041 0.0008385 0.00034999 -0.0013682
-0.023074 -0.0074553 0.080028 0.35944 -0.014809 0.012209 0.0013077 0.0013311
0.0011024 -0.0007732 0.0012374 0.00024212
0.0051075 0.0030227 -0.014766 0.012297 0.35267 0.060734 0.000178 -0.0015249
-3.3949e-05 -0.00036305 0.00044607 0.00021679
-0.0020199 0.00065959 0.0013131 0.0013279 0.00017567 -0.0015331 0.16898 0.20886
-0.013466 -0.0093795 -0.00075006 -0.00060223
0.0024227 0.00082431 0.001102 -0.00078722 -3.3596e-05 -0.0003594 -0.013497 -0.0093492
0.089913 0.21449 -0.0095083 -0.0087207
0.00033835 -0.0013806 0.001235 0.00023173 0.00044296 0.00022376 -0.00075318 -0.0006006
-0.0094929 -0.0087417 0.11788 0.30549
1460000000 0.27378 0.1516 -0.020188 0.0045533 0.0055405 -0.0018043 -0.0015683 0.001694
0.0020905 -0.00059283 -0.00036439 -0.0010198
-0.020184 0.0045423 0.11422 0.33777 -0.006246 0.015169 0.0017553 0.00018425
0.00088928 -0.0012393 0.00118 -0.00060038
0.005517 -0.0018296 -0.0061801 0.015215 0.35867 0.0062531 -0.0011964 -0.0012591
0.00019425 -0.00030226 0.00054823 -0.00033285
-0.0015577 0.0016819 0.0017614 0.00018483 -0.0011917 -0.0012709 0.19558 0.17984
-0.01468 -0.0030593 -0.00099251 0.0017911
0.0020848 -0.0006019 0.0008833 -0.0012567 0.00019351 -0.00030593 -0.014693 -0.0030307
0.11918 0.20036 -0.011394 -0.0030203
-0.00035035 -0.0010014 0.0011839 -0.00061424 0.00054642 -0.00033089 -0.00099218 0.0017879
-0.011393 -0.0030359 0.15111 0.28499
1520000000 0.28583 0.10992 -0.014675 0.010057 0.0032702 -0.0041516 8.7717e-05 0.0026169
0.0019864 -0.0017042 -0.0011504 -0.00010453
-0.014667 0.010048 0.14786 0.32305 0.0013721 0.013051 0.0016544 -0.00078167
6.067e-05 -0.001006 0.00036064 -0.0010532
0.0032353 -0.0041646 0.0014454 0.013056 0.352 -0.050038 -0.0010527 -0.00038556
0.00068279 -0.00083293 -1.4082e-05 -9.504e-05
0.00010241 0.0026065 0.0016583 -0.00079324 -0.0010603 -0.00038479 0.21929 0.14204
-0.014214 0.0021932 0.0012425 0.002013
0.0019739 -0.0017318 5.1621e-05 -0.0010093 0.00068128 -0.00083783 -0.014213 0.0022254
0.14731 0.18673 -0.011412 0.0012548
-0.0011401 -9.7767e-05 0.00035678 -0.001056 -3.9774e-07 -9.186e-05 0.0012473 0.0020123
-0.011415 0.0012406 0.18472 0.26478
1580000000 0.29499 0.063833 -0.0081495 0.013168 -0.00087576 -0.0048661 0.0013861 0.0018723
-0.00032462 -0.0020369 -0.00040876 0.00039116
-0.0081634 0.013161 0.17527 0.29829 0.0050168 0.0083144 0.00046591 -0.0016022
-0.00054633 -0.0010769 -0.00026043 -0.00083462
-0.00089429 -0.0048526 0.0050704 0.0082963 0.33142 -0.1077 -0.0015989 0.00055616
-0.00033042 -0.0011387 9.8389e-05 -0.00041842
0.0013922 0.0018626 0.00045967 -0.0016096 -0.0015884 0.00055166 0.23364 0.10265
-0.011129 0.0069259 0.0021887 0.00091567
-0.00034974 -0.0020365 -0.00056261 -0.0010686 -0.00034009 -0.0011413 -0.011121 0.0069553
0.17196 0.16921 -0.0091951 0.0070188
-0.000392 0.00039722 -0.00026879 -0.00084345 0.00010225 -0.00042688 0.0021841 0.00091093
-0.0092 0.0070086 0.21744 0.23799
1640000000 0.29697 0.022636 -0.0015436 0.012237 -0.0026867 -0.0025378 0.0026954 0.0009951
-0.0006287 -0.0014377 -0.00018229 0.00058419
-0.0015449 0.012235 0.20483 0.27321 0.0058665 0.0036008 -0.00066814 -0.0017292
-0.0010138 -0.00042935 -0.00048041 -0.00071018
-0.002697 -0.0025419 0.005884 0.0035617 0.30316 -0.15689 -0.00071746 0.0014287
-0.001075 -0.0010151 -7.917e-05 -0.00046091
0.0027036 0.00097561 -0.00069367 -0.001723 -0.00072329 0.0014265 0.24631 0.053609
-0.0071378 0.0082232 0.0024383 -0.0006666
-0.0006415 -0.00142 -0.0010311 -0.00042918 -0.0010864 -0.0010109 -0.0071285 0.0082422
0.19481 0.14506 -0.0047679 0.0090077
-0.00017092 0.00058242 -0.00048792 -0.00070948 -7.5441e-05 -0.00047714 0.0024401 -0.00067687
-0.0047663 0.0090053 0.24298 0.20693
1700000000 0.28964 -0.022651 0.0018935 0.0095148 -0.0034088 0.00010381 0.0029921 -0.0011934
-0.0019229 -0.00070328 0.00067721 0.00043437
0.0018878 0.0095019 0.22301 0.24154 0.0039128 0.0007796 -0.0014902 -0.00055788
-0.00081607 6.6276e-05 -0.0009348 -0.00044292
-0.0034281 0.00011674 0.0039162 0.00075427 0.25959 -0.19672 0.00040126 0.0016952
-0.001931 -0.0001471 -0.00046375 -0.00081584
0.0029998 -0.0012074 -0.001496 -0.00055363 0.00040051 0.0016909 0.24339 0.0036792
-0.0046237 0.0089754 0.0014953 -0.0021512
-0.0019292 -0.00067861 -0.00081381 6.812e-05 -0.0019355 -0.0001423 -0.0046085 0.0089859
0.21247 0.12507 -8.0446e-05 0.0093612
0.00068181 0.00042997 -0.00093572 -0.00043144 -0.00047376 -0.00082467 0.001495 -0.0021634
-7.6808e-05 0.009361 0.25955 0.17228
1760000000 0.27731 -0.071115 0.0042583 0.0063272 -0.0022214 0.00089476 0.0013364 -0.0033873
-0.0012568 0.00066467 0.00044019 -0.00065582
0.0042586 0.0063184 0.24888 0.20144 0.0017618 -0.0010121 -0.0011772 0.00021623
-0.0010306 0.00092189 -0.00060048 0.00041977
-0.0022293 0.00092656 0.0017655 -0.001027 0.21065 -0.22952 0.0012379 0.0011412
-0.0011582 0.0014823 -0.0012991 -0.00054875
0.0013174 -0.003406 -0.0011757 0.00022749 0.0012376 0.0011415 0.23421 -0.048069
-0.0012912 0.0083702 -0.0002047 -0.0024644
-0.0012466 0.00068112 -0.0010321 0.00092994 -0.0011529 0.0014958 -0.0012784 0.0083887
0.22753 0.090094 0.0038034 0.0068961
0.00043241 -0.00066435 -0.0005987 0.00042783 -0.001314 -0.00054099 -0.00022071 -0.0024679
0.0037926 0.0068881 0.27218 0.13456
1820000000 0.25258 -0.1084 0.0045508 0.0027303 -3.199e-05 0.0023242 -0.00096281 -0.0030728
-0.00107 0.00084635 -8.3214e-05 -0.0001545
0.004551 0.0027283 0.25874 0.1712 -0.00014137 -5.8532e-05 -0.0012745 0.00094745
-3.8861e-05 0.0013627 -0.00050991 0.00055474
-3.9023e-05 0.0023413 -0.00014405 -6.0506e-05 0.16056 -0.24546 0.0014966 0.00040996
-0.00027257 0.0022656 -0.0013172 0.00037816
-0.00098335 -0.0030695 -0.0012821 0.00095095 0.0015006 0.00040004 0.20416 -0.095289
0.00016694 0.0067726 -0.001569 -0.0015388
-0.0010505 0.00085586 -2.3564e-05 0.0013626 -0.00026074 0.0022795 0.00018932 0.0067785
0.24484 0.061097 0.0046857 0.0034726
-7.7264e-05 -0.00013986 -0.00051173 0.00056525 -0.001313 0.00039182 -0.0015708 -0.0015277
0.0046819 0.003469 0.27462 0.098584
1880000000 0.21737 -0.14857 0.0023808 0.000394 -0.00044072 0.0019828 -0.0029354 -0.0021616
-0.0002723 0.0016438 0.00019963 -0.00051398
0.00239 0.00039582 0.26289 0.12449 -0.0022352 0.0015606 -0.00015163 0.0017012
0.00064777 0.0012254 0.00012433 0.00091304
-0.00045573 0.0019894 -0.0022254 0.0015753 0.10835 -0.25507 0.001861 -0.00096734
0.0015652 0.0019629 -0.00096051 0.001274
-0.0029353 -0.0021459 -0.00014427 0.0017047 0.0018524 -0.00096002 0.16334 -0.1355
0.00087615 0.0048517 -0.0024545 0.00043685
-0.00026204 0.001648 0.0006498 0.001215 0.0015578 0.0019653 0.0008887 0.0048494
0.24795 0.028375 0.0047993 0.0013468
0.00019483 -0.00048978 0.00013097 0.00090463 -0.00094946 0.0012866 -0.0024452 0.00045412
0.0047812 0.0013495 0.27422 0.064438
1940000000 0.17786 -0.17417 0.00016043 -0.0013266 0.0012727 0.0018766 -0.0037858 0.00050202
0.0012591 0.0009806 -0.00064105 -0.00051375
0.00015665 -0.0013252 0.26309 0.092678 -0.0010872 0.003789 0.0010259 0.001312
0.0018974 0.00042304 0.00084985 0.00028324
0.0012624 0.0018793 -0.0010679 0.0038032 0.062265 -0.24799 0.00033171 -0.0022529
0.0024031 0.00040483 0.00032569 0.0015552
-0.0037882 0.00053308 0.0010365 0.0012991 0.00032356 -0.0022511 0.11089 -0.16556
-7.5944e-05 0.0036851 -0.0014528 0.001524
0.0012626 0.00097989 0.0019147 0.00040524 0.002388 0.00039362 -6.2131e-05 0.0036858
0.24977 -0.010566 0.0036192 -0.001993
-0.00066625 -0.00051686 0.00085349 0.00027684 0.00034006 0.0015523 -0.0014548 0.0015221
0.0036242 -0.0019968 0.26334 0.028596
2000000000 0.13146 -0.18869 -0.0037126 0.00068729 0.0024465 0.0017457 -0.0023142 0.0035133
0.0010707 0.00019917 -0.00068461 0.00042658
-0.0037113 0.00067639 0.24852 0.057323 -0.001054 0.0056674 0.0016377 0.00034056
0.0013411 -0.0014502 0.00046199 9.3227e-05
0.0024386 0.0017203 -0.0010149 0.0056778 0.01892 -0.23344 -0.0013035 -0.0013517
0.0019703 -0.0011407 0.0015275 0.0012383
-0.0023093 0.0035412 0.0016299 0.00033303 -0.0013024 -0.0013526 0.057483 -0.17527
-0.0016553 0.0036119 -3.9877e-05 0.0022691
0.0010811 0.00019218 0.0013268 -0.0014646 0.0019563 -0.0011513 -0.0016419 0.0036239
0.2437 -0.044605 0.00027722 -0.0026934
