!Keysight Technologies,M9804A,MY58100912,A.14.10.03
!Date: Thursday, April 27, 2023 10:28:33
!Correction: S11(C  6-Port  ) 
!S12(C  6-Port  ) 
!S13(C  6-Port  ) 
!S14(C  6-Port  ) 
!S15(C  6-Port  ) 
!S16(C  6-Port  ) 
!S21(C  6-Port  ) 
!S22(C  6-Port  ) 
!S23(C  6-Port  ) 
!S24(C  6-Port  ) 
!S25(C  6-Port  ) 
!S26(C  6-Port  ) 
!S31(C  6-Port  ) 
!S32(C  6-Port  ) 
!S33(C  6-Port  ) 
!S34(C  6-Port  ) 
!S35(C  6-Port  ) 
!S36(C  6-Port  ) 
!S41(C  6-Port  ) 
!S42(C  6-Port  ) 
!S43(C  6-Port  ) 
!S44(C  6-Port  ) 
!S45(C  6-Port  ) 
!S46(C  6-Port  ) 
!S51(C  6-Port  ) 
!S52(C  6-Port  ) 
!S53(C  6-Port  ) 
!S54(C  6-Port  ) 
!S55(C  6-Port  ) 
!S56(C  6-Port  ) 
!S61(C  6-Port  ) 
!S62(C  6-Port  ) 
!S63(C  6-Port  ) 
!S64(C  6-Port  ) 
!S65(C  6-Port  ) 
!S66(C  6-Port  ) 
!S6P File: Measurement: :
# Hz S  RI   R 50
500000000 -0.33697 -0.039426 -0.0096746 -0.0024437 -0.0076872 0.012553 -0.0040906 0.011983
0.012967 0.0047932 -0.0046483 0.0089281
-0.0096437 -0.002413 -0.41931 -0.051706 0.0079387 -0.010684 0.0017321 0.012166
0.0077803 0.0028804 0.0017468 0.013527
-0.0076856 0.012555 0.0079322 -0.010693 -0.26539 0.20896 0.007866 0.0035033
-0.0016091 0.0082465 0.0018518 0.012067
-0.0040837 0.011984 0.0017511 0.012178 0.0078657 0.0034981 -0.33072 0.044091
-0.017984 -0.0062598 0.01543 0.026301
0.013 0.0047498 0.0077835 0.002879 -0.0016034 0.0082218 -0.017981 -0.0062715
-0.22476 -0.19532 -0.024921 0.0050161
-0.0046206 0.0089717 0.0017358 0.013528 0.0018248 0.012073 0.015451 0.026248
-0.024872 0.0049786 -0.26805 -0.13169
560000000 -0.31626 0.12258 -0.023807 -0.063825 0.00045704 0.011879 0.005317 0.010666
0.0099179 0.0044613 0.011189 0.0075767
-0.023742 -0.063761 -0.37882 0.10746 -0.040963 -0.037635 0.013622 0.0040433
-0.012904 -0.004425 0.0034724 0.00018652
0.00043812 0.011862 -0.041102 -0.037577 -0.18283 0.25731 -0.0007301 -0.0047689
0.019329 0.00459 0.0067915 -0.0060433
0.0053179 0.010661 0.013591 0.0039951 -0.00069187 -0.0047761 -0.30585 0.13271
0.0041798 -0.023722 0.0043087 -0.021665
0.00995 0.0044458 -0.01293 -0.0044208 0.019354 0.0046083 0.0041571 -0.023683
-0.29038 -0.020644 0.0091325 -0.048584
0.011237 0.0075775 0.0034223 0.00016872 0.006807 -0.0060456 0.0042996 -0.021706
0.0091249 -0.048625 -0.32995 0.016636
620000000 -0.27463 0.10681 -0.02326 0.0079148 0.0030941 0.0087457 0.0079601 -0.0053411
0.011186 -0.0003999 0.0018683 -0.0024165
-0.023254 0.0079093 -0.40253 0.059586 -0.018532 0.00015641 -0.0014681 -0.0020596
0.011611 -0.006595 0.0017698 -0.0033133
0.0031188 0.0087325 -0.018549 0.00021117 -0.15351 0.26639 -0.0014412 -0.0051628
-0.0030639 -0.0028708 0.0085324 -0.0036261
0.0079881 -0.0053756 -0.0014857 -0.0020591 -0.001437 -0.0051536 -0.26536 0.14408
-0.037534 -0.019997 0.012075 0.026
0.011136 -0.0004804 0.011631 -0.0066162 -0.0030239 -0.0028571 -0.037587 -0.019876
-0.2077 -0.057934 -0.041379 0.014449
0.001953 -0.0024577 0.0017425 -0.0033399 0.0085266 -0.0036079 0.01203 0.026007
-0.041362 0.014373 -0.25046 -0.019584
680000000 -0.23464 0.19202 -0.027159 -0.014412 0.0051301 0.0051219 0.0011113 -0.0069599
-0.0031464 -0.01102 0.004827 -0.0068588
-0.02713 -0.014419 -0.38754 0.15741 -0.032579 -0.0013675 -0.0018086 -0.00049697
-0.002226 -0.0088432 -0.0015618 -0.0019798
0.0051517 0.0051068 -0.032613 -0.001281 -0.1024 0.2863 -0.00085839 -0.00011043
-0.0018344 0.00064408 -0.0029882 -0.0091804
0.0011087 -0.0069615 -0.0018131 -0.00048916 -0.00085566 -0.00011621 -0.22056 0.19376
-0.02356 -0.0081148 -0.009899 -0.01085
-0.0031979 -0.011062 -0.0022515 -0.0088282 -0.001835 0.00064598 -0.023577 -0.0080869
-0.2588 0.039819 -0.0049239 -0.0085185
0.0048093 -0.0068644 -0.0015429 -0.001972 -0.0029725 -0.0091807 -0.0098622 -0.010851
-0.0049618 -0.008517 -0.26155 0.087078
740000000 -0.19034 0.18692 -0.038819 0.026622 0.012778 -0.0050687 -0.00016604 -0.0042312
-0.0045124 -0.0028497 -0.0056906 0.0024992
-0.038786 0.026577 -0.33454 0.17626 -0.035394 0.034978 -0.00090671 -0.0062712
-0.011327 0.0080861 -0.0020937 -0.0065751
0.012746 -0.0050943 -0.035317 0.035112 -0.068541 0.2845 -0.0019685 0.003243
-0.0021689 -0.0045036 -0.0016049 -8.1422e-05
-0.00017588 -0.0042433 -0.00094786 -0.0062903 -0.0019747 0.0032386 -0.20391 0.2016
-0.043248 -0.0072569 0.022828 0.014896
-0.0045767 -0.0028944 -0.011265 0.008177 -0.0021624 -0.0044931 -0.043293 -0.0072169
-0.16015 0.066405 -0.043143 0.0005891
-0.0057006 0.0025168 -0.0021001 -0.0065726 -0.0016217 -8.4625e-05 0.022829 0.014878
-0.043145 0.00058764 -0.24913 0.092387
800000000 -0.15747 0.22744 -0.022396 0.01679 0.0053833 -0.010496 -0.0047931 -0.002012
-0.0041531 0.0022152 0.0046699 0.00065558
-0.02239 0.016774 -0.33798 0.24635 -0.0078239 0.033903 -0.0024433 0.0022439
-0.00057115 0.0030165 0.0010747 0.0051742
0.0053698 -0.010516 -0.00774 0.03395 -0.027856 0.30771 0.0010443 0.0015189
0.00038404 0.0034086 -0.0015422 0.00080751
-0.0047819 -0.0019944 -0.0024353 0.0022404 0.0010487 0.0015134 -0.17537 0.22951
-0.028481 0.013613 0.013508 -0.010126
-0.0041547 0.0022156 -0.00053168 0.0030203 0.00037997 0.003417 -0.028481 0.013674
-0.20712 0.089781 -0.017519 0.018802
0.0046933 0.00062971 0.0011066 0.0051944 -0.0015405 0.00080799 0.013484 -0.01016
-0.017513 0.018805 -0.2438 0.1424
860000000 -0.1232 0.24765 -0.017431 0.030646 -0.0032858 -0.0098807 -0.0025389 0.00097915
0.0039838 0.0049245 -0.0031215 -0.0028361
-0.017431 0.030602 -0.29059 0.28829 0.007798 0.034127 -7.5278e-05 0.0019887
0.0042787 0.00010689 0.0033378 0.00083875
-0.0033063 -0.0098734 0.0079087 0.034131 0.019982 0.31552 -0.00055229 -0.00033986
0.0028603 -0.0015397 0.0013325 0.0042985
-0.0025066 0.00096396 -7.0126e-05 0.0019871 -0.00055342 -0.00034088 -0.13926 0.24044
-0.018103 0.018332 -0.0059384 -0.0092835
0.0040072 0.0049353 0.0043037 8.9541e-05 0.0028589 -0.0015375 -0.018077 0.018369
-0.15689 0.14101 -0.025787 0.015238
-0.0031312 -0.0028385 0.003356 0.00084195 0.0013475 0.004298 -0.0059322 -0.0092949
-0.025806 0.015208 -0.19249 0.1885
920000000 -0.098504 0.27061 0.0052146 0.037809 -0.0093762 -0.0043775 -0.0018442 0.0020012
0.0011391 0.0019266 0.002746 -0.0015786
0.0051996 0.037767 -0.26142 0.30959 0.028033 0.021942 0.0014947 0.0011934
0.0070889 -0.0006424 0.0039804 -0.0026884
-0.0093869 -0.0043445 0.028124 0.021863 0.066195 0.31615 0.0018182 -6.8376e-05
0.0012252 -0.00040835 0.00094016 -0.0010937
-0.0018353 0.0020211 0.0014724 0.0011781 0.001819 -7.089e-05 -0.1153 0.25752
-0.01089 0.030302 0.0035842 -0.0065162
0.001138 0.0019219 0.0071035 -0.00067901 0.0012201 -0.00041663 -0.010855 0.030334
-0.14648 0.14749 -0.0028997 0.027096
0.0027577 -0.0016061 0.0039683 -0.0026872 0.0009256 -0.0010982 0.0035684 -0.0065305
-0.0029362 0.02708 -0.20119 0.2023
980000000 -0.051114 0.28986 0.017529 0.029887 -0.0089553 0.004598 0.0021107 0.0035119
0.0040071 -0.0013848 -0.0031939 -0.0022439
0.017512 0.029876 -0.20875 0.34332 0.032857 0.0048489 0.0020598 -3.8738e-05
0.00155 -0.0057587 -0.00012348 -0.0025091
-0.0089405 0.0046432 0.032908 0.0047276 0.11237 0.30942 0.00045819 -0.0011394
0.00021435 -0.0020585 0.0014259 -0.00022479
0.0021296 0.0035239 0.0020562 -6.0944e-05 0.00045829 -0.0011387 -0.077055 0.26888
0.007743 0.029611 -0.0092448 -0.0072454
0.0039993 -0.0014045 0.0015454 -0.0057895 0.00021405 -0.0020642 0.007795 0.029616
-0.11581 0.1765 0.0047752 0.019326
-0.0031965 -0.0022546 -0.00013928 -0.0025133 0.0014236 -0.0002226 -0.0092558 -0.0072365
0.004756 0.019322 -0.15887 0.24717
1040000000 -0.0090573 0.29833 0.033083 0.018105 -0.0012252 0.006844 0.0025792 0.00070159
3.0192e-05 -0.0037813 -0.00041813 -0.0014495
0.033064 0.018084 -0.17314 0.35619 0.029262 -0.014743 0.0014809 -0.0016585
-0.002641 -0.0024737 -0.0013398 -0.0026488
-0.0011965 0.0068628 0.029217 -0.014874 0.15824 0.2958 -0.00051554 -0.0015078
-0.0016679 -0.00083543 -0.0004378 -0.0010717
0.0025875 0.00069497 0.0014466 -0.0016812 -0.00050956 -0.0015137 -0.049863 0.27919
0.018945 0.017898 -0.0022915 0.0015748
4.2e-06 -0.00377 -0.0026653 -0.0024954 -0.0016716 -0.0008296 0.018978 0.017878
-0.083744 0.18484 0.013096 0.018393
-0.00041091 -0.0014493 -0.0013641 -0.0026252 -0.00043672 -0.0010702 -0.0023073 0.0015708
0.013085 0.018383 -0.13752 0.26766
1100000000 0.036289 0.30609 0.035688 -0.0042274 0.0028575 0.003842 0.0023992 -0.0013778
-0.0020436 -0.0031575 -0.0039409 3.4618e-05
0.035663 -0.004214 -0.12989 0.37331 0.015039 -0.027638 1.9345e-05 -0.0018277
-0.003291 -0.00070398 -0.0034167 -0.00051633
0.0028685 0.0038412 0.014937 -0.027731 0.20449 0.2755 -0.0018337 0.00024301
-0.0017438 0.00052855 -0.0010602 -0.00036639
0.0023965 -0.0013859 2.8733e-06 -0.0018397 -0.001828 0.00024448 -0.0095315 0.28414
0.024052 0.0050541 -0.0025516 0.00018861
-0.0020704 -0.0031427 -0.0033059 -0.00069509 -0.0017504 0.00053238 0.024069 0.0050168
-0.066105 0.19875 0.018737 0.0087684
-0.0039447 3.9766e-05 -0.0034293 -0.00048739 -0.0010656 -0.00035529 -0.0025541 0.00019769
0.01873 0.0087664 -0.091743 0.29795
1160000000 0.087511 0.301 0.023838 -0.020716 0.0026053 -0.00052581 -0.00025624 -0.0024581
-0.0042005 -0.00073819 -0.00095423 0.0041927
0.023844 -0.020698 -0.086522 0.37739 -0.0036432 -0.028854 -0.0017421 -0.0016792
-0.0026885 0.0025308 -0.001301 0.0018968
0.0026062 -0.00053491 -0.0037833 -0.02888 0.24736 0.24481 -0.00066293 0.0017261
-0.00053717 0.0019321 -0.00084954 0.00020298
-0.00026493 -0.0024553 -0.0017582 -0.0016898 -0.00066267 0.0017229 0.029743 0.2817
0.020542 -0.0099806 -0.00294 0.0052989
-0.0042243 -0.00070576 -0.002683 0.0025409 -0.00054201 0.001926 0.020523 -0.010021
-0.032497 0.20862 0.017823 0.0008437
-0.00090618 0.0042062 -0.0012759 0.001913 -0.00084468 0.00020728 -0.0029246 0.0052962
0.017824 0.00084085 -0.045031 0.30095
1220000000 0.13194 0.28991 0.010266 -0.029863 -0.0015436 -0.00080748 -2.8374e-05 -0.0009661
-0.0026278 0.0025095 0.0013884 0.0020137
0.010286 -0.029831 -0.042245 0.3894 -0.016699 -0.021017 -0.0025114 0.00042024
4.7692e-05 0.002946 -0.00072747 0.0018413
-0.0015613 -0.00080216 -0.016817 -0.020972 0.28658 0.20607 0.00079793 0.0015655
0.00060947 0.0011625 0.00032379 0.00067263
-3.227e-05 -0.00096637 -0.0025151 0.00042634 0.00080503 0.0015688 0.069552 0.27347
0.010134 -0.016472 0.0022885 0.0015391
-0.0026376 0.0025181 7.3053e-05 0.0029531 0.00061036 0.0011562 0.010113 -0.016491
-0.0099741 0.21817 0.014173 -0.012371
0.0014115 0.0020058 -0.00071714 0.001856 0.00032278 0.00067807 0.0022767 0.001537
0.014164 -0.01238 -0.013933 0.31791
1280000000 0.18155 0.26775 -0.0078965 -0.028238 -0.0018536 0.002496 -0.00094045 -0.0019776
-0.0007799 0.003065 0.0025085 0.001129
-0.0078604 -0.028227 0.0034897 0.38045 -0.023523 -0.008507 -0.00098705 0.0014713
0.0016488 0.0017565 0.00061265 0.0020695
-0.0018472 0.0024968 -0.023598 -0.0084156 0.31715 0.16231 0.001537 -5.8419e-05
0.0010892 0.00031914 0.00052343 0.00028961
-0.00094963 -0.0019742 -0.00097932 0.0014655 0.0015402 -5.5374e-05 0.10644 0.25735
0.0011002 -0.018309 0.00015757 6.0675e-05
-0.00076808 0.0030746 0.0016668 0.0017519 0.0010865 0.00030856 0.0010678 -0.018314
0.026594 0.2223 0.0033769 -0.014521
0.0025106 0.0011241 0.00063075 0.0020676 0.00052049 0.00029341 0.00016243 6.1266e-05
0.0033736 -0.014514 0.034298 0.32036
1340000000 0.21851 0.23393 -0.017475 -0.01879 0.00092404 0.0044539 -0.0017679 -0.00075616
0.0015186 0.0027119 0.0017448 -0.001395
-0.017449 -0.018779 0.042803 0.37238 -0.021463 0.0040975 -0.00013802 0.0020126
0.001902 0.0007945 0.0013025 0.00083107
0.00093634 0.0044501 -0.021473 0.0042133 0.33936 0.11439 0.0010645 -0.00087189
0.00070724 -0.00045369 0.00019404 0.00025662
-0.0017705 -0.00074715 -0.00013659 0.0020179 0.0010724 -0.00086989 0.13912 0.23735
-0.0079181 -0.015673 0.0010307 0.00033066
0.001539 0.0026984 0.0019152 0.00077911 0.00071079 -0.00045969 -0.0079524 -0.015662
0.056671 0.21839 -0.0031262 -0.013163
0.0017415 -0.0014016 0.0013093 0.00082075 0.0002004 0.00025702 0.0010363 0.0003271
-0.0031291 -0.013168 0.072329 0.31632
1400000000 0.25133 0.19561 -0.02316 -0.0074253 0.0051022 0.0030463 -0.002019 0.000642
0.0024163 0.00084993 0.00035323 -0.001375
-0.023137 -0.0074275 0.080038 0.35942 -0.014823 0.012197 0.0013145 0.0013442
0.0011021 -0.00077628 0.0012422 0.00024397
0.0051111 0.0030224 -0.014774 0.012294 0.35269 0.060765 0.00017703 -0.0015399
-2.5311e-05 -0.00034701 0.00042964 0.00021563
-0.0020216 0.00065968 0.0013217 0.0013384 0.00017316 -0.0015357 0.16896 0.20885
-0.013468 -0.0093929 -0.00074748 -0.00060581
0.0024382 0.00082733 0.0011015 -0.00079246 -2.4872e-05 -0.00034858 -0.013487 -0.0093717
0.089831 0.21453 -0.0095039 -0.008777
0.00034003 -0.0013787 0.0012442 0.00023372 0.00044117 0.00021209 -0.00074855 -0.00060658
-0.0094895 -0.0087932 0.11778 0.30547
1460000000 0.27374 0.15158 -0.020226 0.0046038 0.0055409 -0.0017974 -0.0015541 0.0016914
0.0020862 -0.00058297 -0.00035195 -0.0010097
-0.020212 0.0045875 0.11422 0.33776 -0.0062651 0.015161 0.0017625 0.00017792
0.00089286 -0.0012508 0.0011854 -0.00060642
0.0055353 -0.0018273 -0.0061907 0.015215 0.35868 0.0062724 -0.001188 -0.0012608
0.0001952 -0.000302 0.00053148 -0.00033226
-0.0015715 0.001688 0.0017657 0.00018278 -0.0011951 -0.0012669 0.19556 0.17985
-0.014675 -0.0030572 -0.0010155 0.0017957
0.00209 -0.00059638 0.00088544 -0.0012524 0.00020041 -0.00030245 -0.014683 -0.0030353
0.11911 0.20042 -0.011411 -0.0030584
-0.00034276 -0.0010088 0.0011943 -0.00061308 0.00054029 -0.00032768 -0.0010116 0.0018
-0.011408 -0.0030634 0.15101 0.28502
1520000000 0.28575 0.10993 -0.01467 0.010126 0.0032678 -0.0041533 8.149e-05 0.0026117
0.0019851 -0.0017258 -0.0011395 -0.00010433
-0.014667 0.010109 0.14785 0.32305 0.0013658 0.013041 0.0016623 -0.00078313
5.6448e-05 -0.0010052 0.00036464 -0.0010502
0.0032515 -0.004167 0.0014391 0.013052 0.352 -0.050022 -0.0010624 -0.00038424
0.00068869 -0.00082604 -1.8724e-05 -8.7511e-05
9.8549e-05 0.0026232 0.0016646 -0.00079418 -0.001057 -0.00039081 0.21928 0.14205
-0.014215 0.0021713 0.0012424 0.0020098
0.001981 -0.0017337 4.4965e-05 -0.0010101 0.00067934 -0.00082546 -0.014208 0.0022091
0.14727 0.18679 -0.011449 0.0012306
-0.001144 -9.7219e-05 0.00036643 -0.0010488 -1.2921e-05 -9.0588e-05 0.0012427 0.0020164
-0.011448 0.0012272 0.18463 0.26485
1580000000 0.2949 0.063863 -0.0081161 0.01322 -0.00087159 -0.0048616 0.0013887 0.001866
-0.00033396 -0.0020467 -0.00039465 0.00038819
-0.0081218 0.013203 0.17523 0.29826 0.0050275 0.0083368 0.00046253 -0.0016069
-0.00055571 -0.0010687 -0.00025756 -0.0008378
-0.00088182 -0.0048637 0.0050763 0.0083197 0.33148 -0.10769 -0.0015962 0.00054903
-0.00033092 -0.0011535 0.00011012 -0.0004291
0.0013904 0.00186 0.00044997 -0.0016091 -0.0015978 0.00055346 0.23362 0.10266
-0.011138 0.0069221 0.0021807 0.00091269
-0.00035526 -0.0020489 -0.0005669 -0.001062 -0.00034151 -0.0011522 -0.011123 0.0069396
0.17194 0.16927 -0.0092223 0.0070307
-0.00039065 0.0003952 -0.00026123 -0.00084108 0.00010248 -0.00043115 0.0021862 0.00091089
-0.009224 0.0070314 0.21738 0.23806
1640000000 0.2969 0.022724 -0.0014903 0.012263 -0.0026791 -0.0025606 0.0027008 0.00098816
-0.00063368 -0.0014283 -0.00018375 0.00058794
-0.0014969 0.012245 0.20475 0.27321 0.0058633 0.0036038 -0.00067599 -0.0017381
-0.0010149 -0.00043034 -0.00049144 -0.00070136
-0.0026948 -0.0025493 0.0058898 0.0035615 0.30315 -0.15689 -0.00071932 0.0014423
-0.0010771 -0.0010129 -8.7065e-05 -0.00049615
0.0027062 0.00096346 -0.00068987 -0.0017232 -0.00070865 0.0014356 0.2463 0.053635
-0.0071539 0.0082063 0.0024511 -0.00067832
-0.00065025 -0.0014307 -0.0010236 -0.00042766 -0.001081 -0.0010216 -0.0071361 0.0082257
0.19484 0.14512 -0.0047738 0.0090405
-0.00017552 0.00058677 -0.00049501 -0.00069693 -9.6494e-05 -0.00048811 0.0024503 -0.00069197
-0.00479 0.009043 0.24293 0.207
1700000000 0.28959 -0.02255 0.0019509 0.0094993 -0.0034341 9.292e-05 0.0030065 -0.0011983
-0.0019218 -0.00068458 0.00067555 0.00043097
0.0019467 0.0094914 0.22298 0.24157 0.0039157 0.00078244 -0.0014856 -0.00055207
-0.00081518 6.9329e-05 -0.00093608 -0.00044104
-0.0034178 0.00010882 0.0039282 0.00076344 0.25964 -0.19672 0.00040014 0.0016895
-0.0019268 -0.00015392 -0.00047166 -0.00083971
0.0029955 -0.0012126 -0.0014961 -0.00054591 0.00039387 0.001695 0.2434 0.0036847
-0.0046275 0.0089813 0.0014968 -0.0021431
-0.0019346 -0.00068032 -0.00081543 6.8819e-05 -0.0019338 -0.00015392 -0.0046126 0.0089869
0.2125 0.12513 -0.00010176 0.0094083
0.00068944 0.0004253 -0.00094235 -0.00042792 -0.00048121 -0.00083285 0.0014971 -0.0021595
-9.234e-05 0.0094037 0.25951 0.17234
1760000000 0.27733 -0.071009 0.0043173 0.0062959 -0.0022447 0.00090844 0.0013293 -0.0033864
-0.0012484 0.00067718 0.00043605 -0.00065802
0.0043008 0.0062914 0.24884 0.20149 0.0017597 -0.0010207 -0.0011713 0.00022379
-0.0010313 0.00092136 -0.00059878 0.0004188
-0.0022415 0.00092635 0.0017556 -0.0010295 0.2106 -0.22946 0.0012347 0.0011524
-0.0011512 0.0014824 -0.0013036 -0.00053777
0.0013087 -0.0033979 -0.0011742 0.00022935 0.0012345 0.0011488 0.2342 -0.048068
-0.0012973 0.0083809 -0.00021692 -0.0024691
-0.0012612 0.00067145 -0.0010255 0.00093617 -0.0011455 0.001478 -0.0012869 0.0083798
0.22754 0.09011 0.0038016 0.006933
0.0004371 -0.00067065 -0.00059134 0.00042295 -0.0013018 -0.00053921 -0.00022482 -0.0024702
0.0038061 0.006933 0.27218 0.13459
1820000000 0.25263 -0.10833 0.0045734 0.0026863 -6.4962e-05 0.0023371 -0.00096632 -0.0030705
-0.0010523 0.00083366 -7.3654e-05 -0.00013879
0.0045672 0.0026917 0.25873 0.17129 -0.00014183 -8.1254e-05 -0.0012844 0.00093544
-3.0939e-05 0.0013709 -0.00051712 0.0005588
-4.6883e-05 0.0023428 -0.00014497 -7.6776e-05 0.16068 -0.24553 0.0014967 0.00040425
-0.00023599 0.00231 -0.0013469 0.00034424
-0.00098596 -0.0030716 -0.0012723 0.00094685 0.0015092 0.00040457 0.20414 -0.095292
0.00017244 0.0067949 -0.0015669 -0.0015343
-0.0010616 0.00085249 -2.0791e-05 0.0013659 -0.00022847 0.0023168 0.00019062 0.0068039
0.24487 0.061104 0.0047285 0.0035051
-7.7793e-05 -0.00013861 -0.00051045 0.00056666 -0.0013458 0.00036099 -0.0015735 -0.0015197
0.0047273 0.0034976 0.2746 0.098659
1880000000 0.21744 -0.14853 0.0023981 0.00035684 -0.0004731 0.0019842 -0.0029378 -0.0021664
-0.0002632 0.001641 0.0001958 -0.00047948
0.0023941 0.00034903 0.2629 0.12453 -0.0022192 0.0015491 -0.00015263 0.0017025
0.00065004 0.0012217 0.00012093 0.00090317
-0.00045075 0.0019881 -0.0022147 0.001565 0.10838 -0.25505 0.0018585 -0.00097668
0.0015682 0.001982 -0.00093836 0.0012835
-0.0029421 -0.0021353 -0.00014317 0.0016976 0.0018545 -0.00097216 0.16332 -0.13547
0.0008861 0.0048596 -0.0024515 0.00044514
-0.00026305 0.0016425 0.00065332 0.0012176 0.0015689 0.001976 0.0009018 0.0048549
0.24794 0.028397 0.0048367 0.0013662
0.00019295 -0.00048319 0.00013332 0.00090248 -0.00093167 0.001291 -0.002441 0.00044734
0.0048355 0.0013605 0.27421 0.064464
1940000000 0.17792 -0.17416 0.00013841 -0.0013658 0.0012511 0.001882 -0.0037897 0.00049605
0.0012595 0.00098097 -0.00064617 -0.00052293
0.00014223 -0.0013684 0.2631 0.092709 -0.0011007 0.003774 0.0010249 0.001301
0.0018922 0.00041743 0.00085479 0.00027696
0.0012537 0.0018805 -0.0010803 0.0037787 0.062401 -0.2481 0.00032742 -0.0022765
0.0024071 0.00040853 0.00032366 0.0015793
-0.0037765 0.00053478 0.0010341 0.0012994 0.0003284 -0.0022814 0.11093 -0.16556
-4.6757e-05 0.0036995 -0.0014641 0.0015341
0.0012696 0.00098538 0.0019027 0.00041021 0.0024073 0.00039788 -3.5445e-05 0.0036972
0.24973 -0.010542 0.003651 -0.00202
-0.00066164 -0.00051326 0.00085562 0.00026579 0.00033805 0.0015651 -0.001459 0.0015225
0.0036586 -0.0020072 0.26334 0.02864
2000000000 0.13149 -0.18867 -0.0037521 0.00065709 0.0024136 0.0017453 -0.0023243 0.0035163
0.001089 0.00019726 -0.00068514 0.00040158
-0.003752 0.00064387 0.24854 0.057334 -0.0010593 0.0056607 0.0016341 0.00034505
0.0013482 -0.0014425 0.00046485 8.7243e-05
0.0024108 0.0017305 -0.0010313 0.005662 0.01898 -0.23342 -0.00129 -0.0013471
0.0019509 -0.0011375 0.0015144 0.0012327
-0.0022993 0.0035387 0.0016305 0.00032866 -0.001286 -0.0013461 0.057493 -0.17527
-0.0016444 0.0036159 -3.819e-05 0.0022712
0.001084 0.00019746 0.0013316 -0.0014644 0.0019496 -0.0011381 -0.0016326 0.0036187
0.24369 -0.04458 0.0002665 -0.0027314
