!Keysight Technologies,M9804A,MY58100912,A.14.10.03
!Date: Thursday, April 27, 2023 10:28:33
!Correction: S11(C  6-Port  ) 
!S12(C  6-Port  ) 
!S13(C  6-Port  ) 
!S14(C  6-Port  ) 
!S15(C  6-Port  ) 
!S16(C  6-Port  ) 
!S21(C  6-Port  ) 
!S22(C  6-Port  ) 
!S23(C  6-Port  ) 
!S24(C  6-Port  ) 
!S25(C  6-Port  ) 
!S26(C  6-Port  ) 
!S31(C  6-Port  ) 
!S32(C  6-Port  ) 
!S33(C  6-Port  ) 
!S34(C  6-Port  ) 
!S35(C  6-Port  ) 
!S36(C  6-Port  ) 
!S41(C  6-Port  ) 
!S42(C  6-Port  ) 
!S43(C  6-Port  ) 
!S44(C  6-Port  ) 
!S45(C  6-Port  ) 
!S46(C  6-Port  ) 
!S51(C  6-Port  ) 
!S52(C  6-Port  ) 
!S53(C  6-Port  ) 
!S54(C  6-Port  ) 
!S55(C  6-Port  ) 
!S56(C  6-Port  ) 
!S61(C  6-Port  ) 
!S62(C  6-Port  ) 
!S63(C  6-Port  ) 
!S64(C  6-Port  ) 
!S65(C  6-Port  ) 
!S66(C  6-Port  ) 
!S6P File: Measurement: :
# Hz S  RI   R 50
500000000 -0.33697 -0.039131 -0.009671 -0.0023421 -0.0077127 0.012487 -0.0040418 0.011979
0.012973 0.0047755 -0.0046183 0.0090269
-0.0096364 -0.0024452 -0.41935 -0.051712 0.0080225 -0.010577 0.0017478 0.012157
0.0078206 0.0028982 0.0016829 0.013428
-0.0076254 0.012575 0.0078146 -0.010737 -0.26533 0.2091 0.0078566 0.003489
-0.0015536 0.0082516 0.0017525 0.01208
-0.0040451 0.011982 0.0017452 0.01212 0.0079936 0.003494 -0.33069 0.044217
-0.017901 -0.0062682 0.015529 0.026216
0.012882 0.0046778 0.007742 0.0028462 -0.0016245 0.0081051 -0.017924 -0.0062677
-0.22506 -0.19498 -0.024822 0.0050278
-0.0045473 0.0089678 0.0018593 0.013366 0.0019657 0.012141 0.015517 0.026343
-0.024827 0.0050203 -0.26789 -0.13126
560000000 -0.31629 0.12277 -0.023845 -0.063749 0.00040224 0.011952 0.005437 0.010642
0.0099831 0.0043916 0.011163 0.0075885
-0.023798 -0.063758 -0.37841 0.10772 -0.040875 -0.037598 0.013539 0.0038942
-0.012758 -0.0042915 0.0033789 1.41e-05
0.00039091 0.011788 -0.04122 -0.037483 -0.18299 0.25752 -0.00061492 -0.0047205
0.019252 0.0045828 0.0068661 -0.0060086
0.0053938 0.010776 0.013408 0.0037836 -0.00050702 -0.0047237 -0.30579 0.13277
0.0041825 -0.023751 0.0042649 -0.021636
0.0098409 0.0043552 -0.013088 -0.0045463 0.019242 0.0045383 0.0042413 -0.023641
-0.29042 -0.020566 0.0091232 -0.048533
0.011041 0.0075169 0.0035656 0.00015332 0.0067738 -0.0060933 0.0042322 -0.021673
0.0091176 -0.048494 -0.32981 0.016864
620000000 -0.2747 0.10707 -0.023235 0.0080486 0.0029827 0.0087403 0.0079305 -0.0054168
0.011385 -0.00032836 0.0019458 -0.0024885
-0.023213 0.007983 -0.40251 0.059681 -0.018551 7.3612e-05 -0.0014508 -0.0020483
0.011541 -0.0066316 0.0017327 -0.0032595
0.0031325 0.0086697 -0.018589 0.00013368 -0.15351 0.26642 -0.0014539 -0.005168
-0.0030258 -0.0028419 0.0085213 -0.0036382
0.0079161 -0.0054817 -0.0014541 -0.0020488 -0.0014833 -0.0051349 -0.26535 0.14406
-0.037469 -0.019788 0.012088 0.025947
0.011296 -0.00039682 0.011663 -0.006603 -0.0029389 -0.0029025 -0.037571 -0.019782
-0.20792 -0.057876 -0.0414 0.014449
0.0019728 -0.0024746 0.0018479 -0.0032915 0.0086882 -0.0034342 0.011984 0.0259
-0.041425 0.014416 -0.25055 -0.019259
680000000 -0.23464 0.1922 -0.027127 -0.014396 0.005147 0.0050992 0.0011284 -0.006942
-0.0031918 -0.011008 0.0048905 -0.0068439
-0.02709 -0.01441 -0.38746 0.15749 -0.032576 -0.0013674 -0.0018251 -0.00046183
-0.0022819 -0.0088548 -0.0016031 -0.0019712
0.0051656 0.0051162 -0.032641 -0.0012908 -0.10232 0.28636 -0.0008654 -0.00010493
-0.0018613 0.00061991 -0.0029979 -0.0091544
0.0011354 -0.0069417 -0.0018406 -0.000455 -0.00085936 -0.00010242 -0.22052 0.19387
-0.023578 -0.0081397 -0.0098392 -0.010844
-0.0031799 -0.011082 -0.0022855 -0.0088543 -0.0018022 0.0006282 -0.023587 -0.0081198
-0.2587 0.040085 -0.0050265 -0.0085126
0.0047319 -0.0069325 -0.0016111 -0.0019947 -0.0029501 -0.0090895 -0.0098498 -0.010876
-0.0050135 -0.0085075 -0.26145 0.087152
740000000 -0.19025 0.18694 -0.038737 0.026625 0.012738 -0.0051216 -0.00018702 -0.0042741
-0.0045928 -0.0027966 -0.0056548 0.0025066
-0.038711 0.026607 -0.33441 0.17644 -0.035423 0.035018 -0.00084109 -0.0062636
-0.011307 0.0080646 -0.0021179 -0.0065513
0.012745 -0.005143 -0.035417 0.035117 -0.068558 0.28444 -0.0019807 0.0032551
-0.0021797 -0.0044963 -0.0015686 -8.1997e-05
-0.00015144 -0.0042075 -0.0008589 -0.0062861 -0.0019791 0.0032804 -0.2039 0.20168
-0.043197 -0.0072391 0.022766 0.014865
-0.0046118 -0.0029791 -0.011347 0.0082879 -0.002217 -0.0045665 -0.043235 -0.0071429
-0.15995 0.066296 -0.043157 0.00073971
-0.0056271 0.0025101 -0.0021651 -0.0064401 -0.0017064 -6.4487e-05 0.02277 0.014883
-0.043187 0.00060207 -0.24891 0.092521
800000000 -0.15736 0.22751 -0.022346 0.016811 0.0053932 -0.01049 -0.0047564 -0.0019992
-0.0041206 0.0021975 0.0047113 0.00065699
-0.022358 0.016753 -0.33796 0.24644 -0.0078435 0.033865 -0.0024039 0.0022423
-0.00050522 0.0030449 0.0010925 0.0052076
0.0053547 -0.010512 -0.0077016 0.033964 -0.027802 0.3077 0.0010488 0.0015325
0.00038585 0.0034528 -0.001565 0.0008208
-0.004785 -0.0020167 -0.0023799 0.0022384 0.0010752 0.0015233 -0.1753 0.22956
-0.028496 0.013587 0.013506 -0.010115
-0.0040866 0.0022314 -0.00050093 0.0030391 0.00038306 0.0034334 -0.028478 0.013655
-0.20704 0.089977 -0.017518 0.018774
0.0047578 0.00065401 0.0011236 0.0051454 -0.0015409 0.00083686 0.013494 -0.01014
-0.017537 0.018756 -0.24368 0.14266
860000000 -0.12305 0.24773 -0.017382 0.030593 -0.0033152 -0.0098961 -0.0025371 0.00095064
0.0039608 0.0049431 -0.0030872 -0.0028552
-0.017407 0.030549 -0.29048 0.28839 0.0077969 0.034112 -8.0744e-05 0.0019531
0.004324 0.00011601 0.0033738 0.00086598
-0.0033239 -0.0098715 0.0078692 0.034116 0.020058 0.31552 -0.00055105 -0.00034973
0.0028818 -0.0015442 0.0013491 0.0043095
-0.0025239 0.0009471 -8.6255e-05 0.001993 -0.00054121 -0.00034333 -0.13919 0.24049
-0.018094 0.018364 -0.0058952 -0.0093159
0.004008 0.0049011 0.0041872 6.0347e-05 0.0029103 -0.0015845 -0.018121 0.018365
-0.15666 0.14112 -0.025831 0.015195
-0.0030993 -0.0028169 0.0033812 0.00088071 0.0013264 0.0042697 -0.0059601 -0.0093279
-0.02586 0.015106 -0.19237 0.18885
920000000 -0.098329 0.27065 0.0052496 0.037754 -0.0093863 -0.0044201 -0.0018424 0.0019883
0.001108 0.0019356 0.0028205 -0.0015676
0.0051973 0.037709 -0.26139 0.30953 0.028038 0.021927 0.0014726 0.0011836
0.0071209 -0.00065107 0.0039732 -0.0026616
-0.0093919 -0.0043573 0.028156 0.021805 0.066289 0.31615 0.0018121 -6.8976e-05
0.0012496 -0.00041389 0.00092335 -0.00109
-0.0018294 0.0019901 0.0014839 0.0011236 0.00181 -9.1337e-05 -0.11523 0.25759
-0.01083 0.030295 0.0035636 -0.0064856
0.0011213 0.0019201 0.0070974 -0.0005822 0.0012972 -0.00041032 -0.01079 0.030323
-0.14646 0.14746 -0.0029044 0.027116
0.002798 -0.0015606 0.0039149 -0.0025882 0.00097444 -0.0010938 0.0036099 -0.0065352
-0.0029442 0.027153 -0.20092 0.20241
980000000 -0.050975 0.28992 0.017515 0.029824 -0.0089468 0.0046086 0.0021189 0.0035189
0.0039842 -0.0013855 -0.0031713 -0.0022455
0.017479 0.029796 -0.20871 0.34339 0.032811 0.0048331 0.0020426 -6.7628e-05
0.0015449 -0.0057412 -0.00010349 -0.0025226
-0.0089301 0.0046454 0.032909 0.0047088 0.11245 0.30943 0.00045424 -0.0011488
0.00021888 -0.0020483 0.0014553 -0.00022777
0.0021167 0.0035157 0.0020653 -9.7448e-05 0.00046448 -0.0011374 -0.077006 0.26889
0.0077303 0.029598 -0.0092615 -0.007246
0.0040051 -0.0014053 0.0014543 -0.0057768 0.00023303 -0.0020805 0.0078011 0.02959
-0.11576 0.17654 0.0047971 0.0193
-0.0031986 -0.0021982 -0.00018779 -0.002452 0.0014908 -0.00022681 -0.0092731 -0.0072173
0.0047817 0.019303 -0.15868 0.2474
1040000000 -0.0088912 0.29835 0.033028 0.018048 -0.0012295 0.0068282 0.0025931 0.00069803
1.3119e-05 -0.003781 -0.00043049 -0.0014536
0.032985 0.018047 -0.17307 0.35619 0.02923 -0.014772 0.0014434 -0.0016655
-0.0026014 -0.0024507 -0.001348 -0.0026402
-0.001201 0.006836 0.029214 -0.014934 0.15836 0.29577 -0.00051585 -0.0015062
-0.0016733 -0.00082062 -0.00043709 -0.0010796
0.0025868 0.00069627 0.0014925 -0.0017148 -0.00051387 -0.0014998 -0.04983 0.27923
0.018901 0.017901 -0.0023178 0.0015577
-7.758e-06 -0.0037738 -0.0026386 -0.0024502 -0.0016772 -0.00084088 0.018958 0.017862
-0.083732 0.18484 0.013083 0.018301
-0.00042438 -0.0014468 -0.0013834 -0.0026008 -0.00043391 -0.0010623 -0.0023232 0.0015496
0.013084 0.018281 -0.13721 0.26777
1100000000 0.036443 0.30611 0.03562 -0.004234 0.0028392 0.0038454 0.0024143 -0.0013711
-0.002076 -0.0031509 -0.0039374 1.9172e-05
0.035602 -0.0041998 -0.1298 0.37344 0.015006 -0.027653 4.1795e-06 -0.0018173
-0.0032955 -0.00068292 -0.0034084 -0.00052555
0.002836 0.0038342 0.014897 -0.02775 0.20461 0.27548 -0.0018377 0.00025162
-0.0017521 0.00053661 -0.001074 -0.00036332
0.0024008 -0.0013739 2.418e-06 -0.001855 -0.0018214 0.0002703 -0.0094968 0.28419
0.024038 0.0050837 -0.0025712 0.00021542
-0.0020674 -0.0031189 -0.003327 -0.00066634 -0.0017426 0.00055151 0.024056 0.0050339
-0.066097 0.19892 0.018674 0.0087132
-0.0039233 2.6083e-05 -0.0034133 -0.00047598 -0.0010635 -0.00039244 -0.0025496 0.00020616
0.018668 0.0087159 -0.091472 0.29807
1160000000 0.087732 0.30099 0.02375 -0.02068 0.0025774 -0.00047316 -0.00023188 -0.0024472
-0.0041846 -0.00072936 -0.00096102 0.0042005
0.023751 -0.020658 -0.086384 0.37747 -0.0036743 -0.028879 -0.0017612 -0.0016944
-0.0026505 0.0025217 -0.0012883 0.0018935
0.0025783 -0.00051887 -0.0038336 -0.028895 0.24747 0.24472 -0.00065934 0.0017324
-0.00053965 0.0019473 -0.00087146 0.00020431
-0.00025001 -0.0024428 -0.0017397 -0.0016998 -0.00063833 0.0017225 0.029783 0.28172
0.020532 -0.0099433 -0.0029401 0.0053065
-0.0042013 -0.00069122 -0.002645 0.0025206 -0.00053307 0.0019189 0.020537 -0.0099705
-0.032415 0.20879 0.017745 0.00082209
-0.00090571 0.0042139 -0.0012643 0.0018759 -0.00090358 0.00020581 -0.0029126 0.0053098
0.017775 0.00082044 -0.044786 0.30101
1220000000 0.1321 0.28982 0.010229 -0.029764 -0.0015638 -0.00078027 -3.8993e-05 -0.00097056
-0.0026237 0.0025084 0.0013809 0.0020174
0.010246 -0.029765 -0.04215 0.38947 -0.016718 -0.021009 -0.0025279 0.00041657
7.0728e-05 0.0029381 -0.00073765 0.0018415
-0.0015661 -0.00077695 -0.016839 -0.020953 0.28662 0.20596 0.00080577 0.0015673
0.00059595 0.0011669 0.00029945 0.00069252
-4.6678e-05 -0.00096735 -0.0025331 0.00040826 0.00081748 0.001559 0.069625 0.2735
0.010152 -0.016458 0.0022652 0.0015494
-0.0026365 0.0025196 9.9548e-05 0.0029249 0.00061504 0.0011923 0.010148 -0.016475
-0.0098534 0.21828 0.014076 -0.012338
0.0013962 0.0019951 -0.00068878 0.0018429 0.00035352 0.00070784 0.0022714 0.0015498
0.014068 -0.012318 -0.013725 0.31787
1280000000 0.18173 0.26767 -0.0079069 -0.028155 -0.0018079 0.0025136 -0.00094218 -0.001988
-0.00078001 0.0030471 0.0025179 0.001126
-0.007867 -0.028127 0.0036281 0.38048 -0.023556 -0.008475 -0.00098429 0.0014616
0.0016407 0.0017495 0.00063152 0.0020684
-0.0018327 0.0025232 -0.02361 -0.0083849 0.31725 0.16216 0.0015551 -5.9438e-05
0.0010921 0.00030729 0.00052458 0.00029849
-0.00095148 -0.0019709 -0.0009668 0.0014623 0.0015348 -4.6879e-05 0.10651 0.25737
0.0011145 -0.018325 0.0001676 8.0306e-05
-0.0007477 0.003067 0.0016551 0.0017325 0.0010797 0.00030701 0.0010782 -0.018322
0.0268 0.22242 0.0032999 -0.014466
0.002509 0.0011256 0.00062109 0.0020452 0.00050966 0.00028088 0.00016475 7.2414e-05
0.003304 -0.014459 0.034503 0.32031
1340000000 0.21864 0.23382 -0.017424 -0.018724 0.00095042 0.0044405 -0.0017689 -0.0007388
0.0015009 0.0026817 0.0017405 -0.0014003
-0.017387 -0.018729 0.042933 0.37238 -0.021445 0.0041298 -0.00013096 0.0020119
0.0019071 0.00077171 0.0013032 0.00082315
0.00097013 0.0044355 -0.021471 0.0042375 0.33941 0.11426 0.0010582 -0.00087448
0.00070143 -0.00047179 0.00020042 0.00027198
-0.0017843 -0.00073725 -0.00012214 0.0020054 0.0010507 -0.00087722 0.13919 0.23735
-0.007908 -0.015679 0.0010473 0.00033169
0.0015217 0.0026818 0.001891 0.00077293 0.00069641 -0.0004601 -0.007945 -0.01567
0.056943 0.21849 -0.003146 -0.013068
0.0017422 -0.0014157 0.0012941 0.00082141 0.0002033 0.00027688 0.0010429 0.00032721
-0.0031574 -0.013069 0.072526 0.31625
1400000000 0.25145 0.19554 -0.023075 -0.0074006 0.0051144 0.0030253 -0.0020192 0.0006623
0.0024049 0.00084665 0.00034798 -0.0013754
-0.023042 -0.0074211 0.080176 0.35944 -0.014802 0.01221 0.0013203 0.001331
0.0010901 -0.00076701 0.0012329 0.00024211
0.0051142 0.0029951 -0.014753 0.012317 0.35267 0.060618 0.00016943 -0.0015335
-2.273e-05 -0.00034323 0.00044682 0.00022451
-0.0020095 0.00067082 0.0013187 0.0013314 0.00016592 -0.0015446 0.16907 0.20885
-0.013474 -0.0094025 -0.00073234 -0.00062301
0.0024109 0.00083744 0.0010885 -0.00078159 -3.393e-05 -0.00037335 -0.013496 -0.0093733
0.090082 0.21457 -0.0094644 -0.0087065
0.00033496 -0.0013788 0.0012492 0.00023989 0.00044248 0.00021347 -0.00072768 -0.0006209
-0.0094588 -0.0087123 0.11798 0.3054
1460000000 0.27389 0.15144 -0.020157 0.0045875 0.0055434 -0.001845 -0.0015663 0.0016821
0.0020682 -0.00060216 -0.00035581 -0.00099956
-0.020131 0.0045564 0.11436 0.33774 -0.0061952 0.015162 0.0017699 0.00018586
0.00088739 -0.0012361 0.0011868 -0.00060183
0.0055391 -0.0018526 -0.0061395 0.015219 0.35868 0.0061332 -0.001197 -0.001256
0.00020542 -0.00030374 0.00055272 -0.00034733
-0.0015515 0.0016838 0.0017625 0.00017411 -0.0011871 -0.0012645 0.19565 0.17983
-0.014663 -0.0030623 -0.00099787 0.0017698
0.0020654 -0.00060754 0.00088148 -0.0012311 0.00018251 -0.00032594 -0.014675 -0.0030337
0.11942 0.20039 -0.011338 -0.0030128
-0.0003608 -0.0010132 0.0011776 -0.00060409 0.00055315 -0.00034569 -0.0010017 0.0017785
-0.011325 -0.0030133 0.15119 0.28495
1520000000 0.2859 0.10981 -0.014633 0.010058 0.0032444 -0.0041452 7.9223e-05 0.0026102
0.0019737 -0.0017133 -0.0011377 -9.7606e-05
-0.014624 0.010033 0.148 0.32302 0.0013919 0.013045 0.0016449 -0.00078308
5.2785e-05 -0.0010046 0.00036473 -0.0010627
0.003236 -0.0041822 0.00149 0.013034 0.35195 -0.050145 -0.0010454 -0.00037949
0.00068548 -0.0008204 -7.0674e-06 -0.0001043
9.7414e-05 0.0026053 0.0016479 -0.00079119 -0.0010602 -0.00037092 0.21938 0.142
-0.014211 0.0021702 0.0012429 0.0019937
0.0019683 -0.0017281 6.7158e-05 -0.0010024 0.00066466 -0.00083925 -0.01421 0.0021998
0.14754 0.18668 -0.011357 0.0012433
-0.0011433 -9.2374e-05 0.00036112 -0.0010558 -2.7198e-05 -0.00010554 0.0012382 0.001987
-0.011349 0.0012422 0.18484 0.26473
1580000000 0.29507 0.063665 -0.0081283 0.013148 -0.00091921 -0.0048636 0.0013789 0.0018772
-0.00033385 -0.0020268 -0.00039457 0.00039056
-0.0081194 0.013126 0.17538 0.29824 0.0050416 0.0082948 0.00045105 -0.0015989
-0.00054476 -0.00107 -0.00025965 -0.00083118
-0.00091527 -0.0048618 0.0050928 0.0082823 0.33143 -0.10782 -0.0015962 0.00055306
-0.00032209 -0.0011437 8.9957e-05 -0.00042656
0.0013867 0.0018657 0.0004443 -0.0015989 -0.0015955 0.00056557 0.23373 0.10257
-0.011129 0.0069138 0.0021635 0.00090537
-0.00034889 -0.0020309 -0.00054375 -0.0010749 -0.00032405 -0.0011212 -0.011111 0.0069381
0.17215 0.16913 -0.0091482 0.006999
-0.0003858 0.00039205 -0.00026905 -0.00083411 9.0142e-05 -0.0004408 0.0021609 0.00089414
-0.0091492 0.0069887 0.21758 0.23791
1640000000 0.29701 0.022475 -0.0015235 0.012211 -0.0026874 -0.0025346 0.0027007 0.00099713
-0.00062682 -0.0014325 -0.00017331 0.0005868
-0.001544 0.012205 0.20492 0.27316 0.0058473 0.0035876 -0.00067567 -0.001733
-0.0010005 -0.00044696 -0.00048436 -0.00068906
-0.002706 -0.0025383 0.0058926 0.0035427 0.30305 -0.15693 -0.00071713 0.0014303
-0.0010656 -0.001017 -8.4737e-05 -0.00046955
0.0027032 0.00097868 -0.00068741 -0.0017172 -0.00071503 0.0014219 0.24638 0.053535
-0.0071518 0.008198 0.0024302 -0.00066757
-0.00062523 -0.0014318 -0.0010126 -0.0004343 -0.0010577 -0.001003 -0.007129 0.008234
0.19504 0.14492 -0.0047144 0.0089633
-0.0001742 0.0005886 -0.00049223 -0.00069787 -0.00010458 -0.00047169 0.0024211 -0.0007004
-0.0047126 0.0089628 0.24313 0.20686
1700000000 0.28965 -0.022829 0.0018875 0.0094807 -0.0034374 0.00013886 0.0030154 -0.0011723
-0.0019116 -0.00069725 0.00067024 0.00043431
0.0018818 0.0094681 0.22313 0.24146 0.0038884 0.00075886 -0.0014953 -0.00054871
-0.00081875 6.2211e-05 -0.00093151 -0.00043563
-0.0034277 0.00013245 0.0039051 0.00074664 0.25961 -0.19678 0.00039443 0.0017134
-0.0019382 -0.00013686 -0.00046256 -0.00082565
0.0030056 -0.0011929 -0.0015006 -0.00053497 0.00039513 0.0017082 0.24343 0.0035439
-0.0046511 0.0089586 0.0014736 -0.002134
-0.0019208 -0.00068178 -0.00082552 6.389e-05 -0.0019306 -0.00013435 -0.0046267 0.0089726
0.21261 0.12491 -7.3318e-05 0.0093191
0.00066589 0.00042417 -0.00093178 -0.00043898 -0.00045851 -0.00080588 0.0014729 -0.0021475
-6.3354e-05 0.0093281 0.2597 0.17217
1760000000 0.2773 -0.071304 0.0042529 0.0062937 -0.0021896 0.00095606 0.0013515 -0.0034042
-0.0012552 0.00066877 0.00043218 -0.00066427
0.0042367 0.0062967 0.24897 0.20135 0.001726 -0.0010101 -0.0011619 0.00022079
-0.0010386 0.00093192 -0.00059436 0.00040617
-0.0022288 0.00093623 0.0017239 -0.0010237 0.21056 -0.22963 0.0012198 0.0011563
-0.0011556 0.0014799 -0.0012861 -0.00054619
0.0013276 -0.0034001 -0.001166 0.00023126 0.0012331 0.001147 0.23417 -0.048208
-0.0013293 0.0083735 -0.00023996 -0.0024525
-0.0012478 0.00067805 -0.0010414 0.00093671 -0.001159 0.001464 -0.0013115 0.0083656
0.22766 0.089902 0.0037767 0.00684
0.00042832 -0.0006677 -0.00060239 0.00042314 -0.0013168 -0.00059044 -0.00023901 -0.0024493
0.0037864 0.0068473 0.27233 0.13442
1820000000 0.25252 -0.1086 0.0045324 0.002714 -2.395e-05 0.002359 -0.00096382 -0.0030928
-0.0010712 0.00082488 -8.3419e-05 -0.00013987
0.0045246 0.0027165 0.25881 0.17113 -0.00015753 -6.1e-05 -0.0012887 0.00093968
-3.6228e-05 0.0013753 -0.00051826 0.00055382
1.9775e-06 0.0023372 -0.0001562 -6.7877e-05 0.16057 -0.24561 0.0015012 0.00040689
-0.00022796 0.0022982 -0.0013282 0.00035055
-0.00097692 -0.0030832 -0.0012729 0.00094079 0.0015138 0.00043151 0.20409 -0.095368
0.00014508 0.0067943 -0.0015697 -0.0015037
-0.0010676 0.00084442 -1.6641e-05 0.0013774 -0.00022707 0.0022964 0.00015957 0.0068027
0.24493 0.060867 0.0046766 0.0034387
-8.5477e-05 -0.00013829 -0.00051903 0.00056311 -0.0013509 0.00040413 -0.0015646 -0.0014944
0.0046606 0.003421 0.27474 0.098423
1880000000 0.21726 -0.14875 0.0023639 0.00040414 -0.00046831 0.0019765 -0.0029261 -0.0021684
-0.00027737 0.001649 0.00018445 -0.00049641
0.0023554 0.00041823 0.26292 0.12438 -0.0022384 0.0015632 -0.00014466 0.0016903
0.00065542 0.0012273 0.00012056 0.00089606
-0.00044787 0.0019963 -0.0022174 0.0015837 0.10825 -0.25516 0.0018531 -0.00097589
0.0015637 0.0019823 -0.00095416 0.0012651
-0.0029355 -0.0021461 -0.00014359 0.0016944 0.0018587 -0.0010062 0.16324 -0.13552
0.00086445 0.0048825 -0.0024404 0.00046598
-0.00025892 0.0016462 0.00067364 0.0012201 0.0015808 0.0019903 0.00088164 0.0048786
0.24797 0.028165 0.0047512 0.0013136
0.00017862 -0.00048702 0.00013932 0.00089472 -0.00093909 0.0012663 -0.0024205 0.00047562
0.0047487 0.0013256 0.27432 0.064213
1940000000 0.17773 -0.17433 0.00015029 -0.0013102 0.0012563 0.0018927 -0.003801 0.00049747
0.001253 0.00099284 -0.00064907 -0.00051948
0.00014427 -0.0013127 0.2631 0.092574 -0.0011094 0.0037729 0.0010139 0.0012959
0.0019021 0.00040831 0.00085404 0.00028118
0.0013074 0.0018514 -0.0010845 0.0037973 0.062224 -0.24814 0.00031286 -0.0022894
0.0023767 0.00037279 0.00030562 0.0015366
-0.0038073 0.00052471 0.0010245 0.0012901 0.00035605 -0.0022766 0.11087 -0.16555
-5.0642e-05 0.0037369 -0.0014507 0.0015178
0.0012658 0.0009877 0.0019258 0.00038788 0.0024274 0.00041794 -5.096e-05 0.0037515
0.24976 -0.010796 0.0035709 -0.0020052
-0.00065389 -0.00051376 0.00085277 0.00027641 0.00032344 0.0015631 -0.0014265 0.0015242
0.0035702 -0.0020188 0.26337 0.028409
2000000000 0.13129 -0.18875 -0.0037183 0.00071641 0.002432 0.0016955 -0.0023195 0.003543
0.001077 0.00019902 -0.00068851 0.00041138
-0.0037055 0.00072346 0.24854 0.057231 -0.0010523 0.0056801 0.001622 0.00034956
0.0013308 -0.001461 0.00045947 8.4525e-05
0.0024598 0.0017148 -0.00099779 0.0056887 0.018854 -0.23345 -0.0012787 -0.0013359
0.0019562 -0.0011419 0.0015087 0.0012565
-0.0023072 0.0035451 0.0016386 0.00033922 -0.0013146 -0.0013149 0.057452 -0.17531
-0.0016194 0.0036295 -2.7755e-05 0.0022433
0.0010656 0.00020061 0.0013234 -0.0014744 0.0019622 -0.001153 -0.0016143 0.0036437
