!Keysight Technologies,M9804A,MY58100912,A.14.10.03
!Date: Thursday, April 27, 2023 10:28:33
!Correction: S11(C  6-Port  ) 
!S12(C  6-Port  ) 
!S13(C  6-Port  ) 
!S14(C  6-Port  ) 
!S15(C  6-Port  ) 
!S16(C  6-Port  ) 
!S21(C  6-Port  ) 
!S22(C  6-Port  ) 
!S23(C  6-Port  ) 
!S24(C  6-Port  ) 
!S25(C  6-Port  ) 
!S26(C  6-Port  ) 
!S31(C  6-Port  ) 
!S32(C  6-Port  ) 
!S33(C  6-Port  ) 
!S34(C  6-Port  ) 
!S35(C  6-Port  ) 
!S36(C  6-Port  ) 
!S41(C  6-Port  ) 
!S42(C  6-Port  ) 
!S43(C  6-Port  ) 
!S44(C  6-Port  ) 
!S45(C  6-Port  ) 
!S46(C  6-Port  ) 
!S51(C  6-Port  ) 
!S52(C  6-Port  ) 
!S53(C  6-Port  ) 
!S54(C  6-Port  ) 
!S55(C  6-Port  ) 
!S56(C  6-Port  ) 
!S61(C  6-Port  ) 
!S62(C  6-Port  ) 
!S63(C  6-Port  ) 
!S64(C  6-Port  ) 
!S65(C  6-Port  ) 
!S66(C  6-Port  ) 
!S6P File: Measurement: :
# Hz S  RI   R 50
500000000 -0.33815 -0.039496 -0.0097873 -0.0026882 -0.0077231 0.012611 -0.0043603 0.012258
0.013053 0.0040919 -0.0047596 0.0089936
-0.010206 -0.0025158 -0.41906 -0.051874 0.0079417 -0.010678 0.0016549 0.011797
0.0076075 0.0027502 0.0016539 0.013483
-0.0078665 0.013067 0.0082075 -0.010769 -0.26523 0.20892 0.0076579 0.0035849
-0.0017139 0.0083304 0.0018374 0.012095
-0.0033988 0.011502 0.0014927 0.011964 0.0079516 0.0036041 -0.33044 0.044028
-0.01803 -0.0062482 0.015354 0.026324
0.012308 0.0043027 0.0078369 0.0029241 -0.0019286 0.0083349 -0.018547 -0.0065882
-0.22453 -0.19548 -0.025002 0.004744
-0.0049222 0.0076148 0.0016057 0.013146 0.0016422 0.012327 0.015773 0.026312
-0.024665 0.0048211 -0.26795 -0.1322
560000000 -0.31744 0.12253 -0.023477 -0.06369 0.00028136 0.011879 0.0055598 0.010623
0.0096806 0.0043553 0.011331 0.0079216
-0.023875 -0.063012 -0.37863 0.10729 -0.040529 -0.037292 0.012999 0.0040379
-0.01245 -0.0041639 0.0032203 -0.00023218
-1.4288e-05 0.012034 -0.041153 -0.037333 -0.18359 0.25705 -0.0003925 -0.0046975
0.019168 0.0047499 0.0069799 -0.0060916
0.0049997 0.011163 0.013729 0.0033093 -0.00055016 -0.0046617 -0.30561 0.13321
0.0045457 -0.023359 0.0042413 -0.021837
0.010297 0.004599 -0.014215 -0.003467 0.01872 0.0042855 0.004949 -0.023474
-0.29003 -0.021095 0.008927 -0.048761
0.011294 0.0084547 0.0039524 -0.00034906 0.0079708 -0.0063115 0.0039615 -0.021349
0.0084551 -0.048711 -0.32955 0.016572
620000000 -0.27492 0.10597 -0.022885 0.0077533 0.0032098 0.0087539 0.0081175 -0.0053305
0.011525 -0.00037884 0.0016357 -0.0027403
-0.022988 0.0080671 -0.40247 0.059365 -0.018513 2.4692e-05 -0.0012895 -0.0020208
0.011474 -0.0066527 0.0017168 -0.0031448
0.0030711 0.0084933 -0.018548 0.00015645 -0.15345 0.26641 -0.0013493 -0.005201
-0.0028566 -0.0027197 0.0085867 -0.0033991
0.0078526 -0.0060379 -0.0015848 -0.002063 -0.0014229 -0.0050137 -0.26521 0.1435
-0.037544 -0.019816 0.011999 0.025983
0.011648 0.00028131 0.01173 -0.0065329 -0.0030295 -0.0030209 -0.037869 -0.01873
-0.20814 -0.058216 -0.041553 0.014497
0.0014643 -0.0031503 0.0013145 -0.0034325 0.0079678 -0.0030485 0.01195 0.026063
-0.041607 0.014442 -0.2503 -0.020472
680000000 -0.23431 0.19249 -0.027008 -0.014351 0.0050156 0.0052199 0.0013772 -0.0071178
-0.0031668 -0.010877 0.0046442 -0.0067789
-0.027064 -0.014223 -0.38759 0.15727 -0.032803 -0.0013022 -0.0016596 -0.00054331
-0.0021784 -0.0087555 -0.0015345 -0.0019983
0.0052727 0.0053909 -0.032641 -0.0013574 -0.10256 0.28616 -0.00087831 -1.6325e-05
-0.0017374 0.00069664 -0.0029242 -0.0092902
0.0006776 -0.0068667 -0.0016786 -0.0005556 -0.00049199 -0.00035856 -0.22062 0.19393
-0.023415 -0.0081445 -0.0099322 -0.010878
-0.003766 -0.010981 -0.0022945 -0.0088731 -0.0017191 0.00054385 -0.02354 -0.0077719
-0.25896 0.039959 -0.0050023 -0.0085971
0.0050401 -0.0062495 -0.0011022 -0.0020496 -0.0027991 -0.0093758 -0.0097464 -0.011234
-0.0048809 -0.0079492 -0.26188 0.086923
740000000 -0.19083 0.18702 -0.038875 0.026421 0.01265 -0.0053578 -0.00022194 -0.0041374
-0.0044386 -0.0028273 -0.0058915 0.0024085
-0.038949 0.026277 -0.3349 0.17675 -0.035289 0.035052 -0.00079493 -0.0063179
-0.011469 0.0081461 -0.0022286 -0.0065372
0.013036 -0.0050715 -0.035299 0.035099 -0.068674 0.28439 -0.0019478 0.0033021
-0.0021178 -0.0046618 -0.0017081 -0.00013573
-0.00021295 -0.0046999 -0.0008569 -0.0060755 -0.001888 0.0031323 -0.20372 0.2016
-0.043058 -0.0070016 0.022876 0.015034
-0.0043361 -0.0030282 -0.011209 0.0075041 -0.0018651 -0.0046718 -0.043339 -0.006988
-0.15993 0.065875 -0.043537 0.00035806
-0.0059324 0.0022901 -0.0023898 -0.0057035 -0.0021674 7.95e-05 0.022892 0.01493
-0.043492 0.00072947 -0.24917 0.092571
800000000 -0.15752 0.22732 -0.022363 0.016661 0.0054687 -0.010499 -0.0048826 -0.0019382
-0.0041976 0.0021896 0.0047352 0.00066626
-0.022534 0.016759 -0.33807 0.24613 -0.0078027 0.033906 -0.0024922 0.0021748
-0.0004177 0.0031197 0.0010172 0.005243
0.0053552 -0.010525 -0.0077836 0.034013 -0.027921 0.30767 0.0010233 0.0015021
0.00038268 0.0034912 -0.0015768 0.00085943
-0.0050896 -0.001824 -0.0023555 0.0023108 0.0010966 0.0015368 -0.17528 0.22938
-0.028506 0.013595 0.013501 -0.01007
-0.0045154 0.0020466 -0.00039726 0.0029913 0.00049873 0.0035683 -0.028602 0.01371
-0.207 0.089587 -0.01738 0.018859
0.0043806 0.00089996 0.0012128 0.0053844 -0.0015252 0.00073181 0.013416 -0.0099055
-0.017585 0.018944 -0.24394 0.14232
860000000 -0.12351 0.24769 -0.017516 0.030608 -0.0032116 -0.0098125 -0.0025214 0.00097532
0.0039684 0.0048808 -0.0032262 -0.0028201
-0.017453 0.030775 -0.29069 0.28829 0.00781 0.034169 2.3293e-05 0.0019657
0.0042402 0.0001371 0.0033565 0.00079749
-0.0033182 -0.0097186 0.007891 0.034114 0.01997 0.31561 -0.00053062 -0.00032846
0.0029103 -0.0016019 0.0013909 0.0043469
-0.0025578 0.00088463 -0.00019591 0.0020897 -0.00056505 -0.00029351 -0.13906 0.24049
-0.018167 0.018299 -0.0059449 -0.0093156
0.0044728 0.0047802 0.0042647 0.00011875 0.0028777 -0.0015988 -0.017958 0.018478
-0.15677 0.14084 -0.025903 0.015279
-0.0036903 -0.0026281 0.0032572 0.0008752 0.0012727 0.0042927 -0.0061302 -0.009366
-0.025898 0.015193 -0.19213 0.18878
920000000 -0.098667 0.27058 0.005125 0.037779 -0.0093925 -0.0043785 -0.0018506 0.0020699
0.0010196 0.0020214 0.0028148 -0.0015587
0.0050673 0.037871 -0.26159 0.30945 0.028077 0.021919 0.0014777 0.0011891
0.0070375 -0.00067634 0.0038865 -0.0026201
-0.0094312 -0.004309 0.028108 0.021802 0.06617 0.31615 0.0018539 -9.5414e-05
0.0012015 -0.0004157 0.00087396 -0.0011225
-0.0017353 0.0019912 0.0015314 0.0010924 0.0018316 -6.4451e-05 -0.11531 0.25754
-0.010898 0.03024 0.0034721 -0.0065686
0.0009808 0.0021501 0.0069891 -0.00059471 0.0013104 -0.00048467 -0.010819 0.030325
-0.14673 0.14704 -0.0029585 0.027308
0.0028075 -0.0015911 0.0038826 -0.0030077 0.0009019 -0.0011974 0.0035555 -0.0066973
-0.003038 0.027149 -0.20096 0.20226
980000000 -0.051166 0.28982 0.017525 0.029947 -0.0089407 0.0045725 0.0021255 0.0036229
0.0040142 -0.0012654 -0.0031899 -0.0022871
0.017435 0.029893 -0.20874 0.34334 0.032838 0.004831 0.0021213 -3.3856e-05
0.0015503 -0.005777 -0.00015912 -0.0025122
-0.0089757 0.0046472 0.032935 0.0047571 0.11236 0.30938 0.00049478 -0.0011353
0.00031705 -0.0020223 0.0014612 -0.00020469
0.0022045 0.0035043 0.0020355 -1.5322e-05 0.00050506 -0.0011886 -0.077109 0.26902
0.0077472 0.029649 -0.0092664 -0.0072734
0.0039324 -0.0012966 0.0016038 -0.0058948 0.0002417 -0.0020037 0.0079173 0.029707
-0.1161 0.17648 0.0046781 0.019414
-0.0032397 -0.0023104 -0.00037912 -0.0023924 0.0014935 -0.00023279 -0.0090819 -0.0072864
0.0046681 0.019487 -0.15898 0.24734
1040000000 -0.0091427 0.29836 0.033023 0.018155 -0.0011985 0.0068879 0.0026467 0.00074778
4.0837e-05 -0.0037573 -0.00041039 -0.0014234
0.03318 0.018064 -0.17343 0.35618 0.02922 -0.014766 0.0014665 -0.0017022
-0.0026215 -0.0025048 -0.0013078 -0.0026511
-0.0011395 0.0068116 0.029169 -0.014881 0.15826 0.29574 -0.00049481 -0.0015004
-0.0015755 -0.00085986 -0.0004454 -0.0010636
0.0026491 0.00066172 0.0014238 -0.0017123 -0.00049951 -0.0015415 -0.049839 0.27914
0.018961 0.017877 -0.0023384 0.0016175
-7.6076e-05 -0.0038526 -0.0026283 -0.0026207 -0.0016265 -0.00087841 0.01904 0.017833
-0.083998 0.1848 0.013047 0.018313
-0.00039329 -0.0013936 -0.0015674 -0.0027659 -0.00041956 -0.001087 -0.0022803 0.0015901
0.013039 0.018229 -0.13749 0.2676
1100000000 0.036294 0.30615 0.035731 -0.0041999 0.0028729 0.0038478 0.002368 -0.0013923
-0.0020713 -0.0031631 -0.0039767 3.277e-05
0.035693 -0.0041533 -0.12991 0.37335 0.015039 -0.027632 -1.8329e-06 -0.0018518
-0.0033184 -0.00073363 -0.0033982 -0.00054137
0.0028958 0.0037717 0.014967 -0.027722 0.20445 0.27551 -0.0018338 0.00023725
-0.0017704 0.00052779 -0.0010205 -0.0004098
0.0024352 -0.0012625 -5.1003e-05 -0.0018719 -0.0018387 0.00024534 -0.0095192 0.28417
0.024088 0.0050769 -0.0026181 0.00017375
-0.0019963 -0.003072 -0.0033027 -0.00073035 -0.0017561 0.00056737 0.024188 0.0050333
-0.066316 0.19873 0.018695 0.0088366
-0.0039195 9.1208e-05 -0.0033726 -0.00062304 -0.0010422 -0.00040038 -0.0025493 0.00011111
0.018692 0.0088494 -0.091842 0.29785
1160000000 0.087406 0.30102 0.023884 -0.020705 0.0026198 -0.00051249 -0.00025954 -0.0024555
-0.0042718 -0.0007294 -0.00092129 0.0041892
0.023888 -0.020611 -0.086572 0.37737 -0.0036494 -0.028903 -0.00176 -0.0017162
-0.0027326 0.0024405 -0.001251 0.0019295
0.0026396 -0.00057982 -0.0037576 -0.028937 0.24728 0.2448 -0.0006709 0.001729
-0.00055062 0.0019395 -0.00088418 0.00019262
-0.00019154 -0.0024729 -0.0017243 -0.0017065 -0.00068956 0.0016927 0.02975 0.28172
0.0205 -0.010019 -0.0029621 0.0053116
-0.0042063 -0.00078995 -0.002637 0.0024575 -0.00053515 0.0019193 0.020557 -0.010068
-0.032823 0.20861 0.017866 0.00083873
-0.00086666 0.0041189 -0.0012701 0.0019479 -0.00084206 0.00018076 -0.0029864 0.005357
0.017804 0.00093163 -0.045318 0.3008
1220000000 0.1319 0.28998 0.010318 -0.029874 -0.0015692 -0.0008047 -5.7195e-05 -0.00094782
-0.0026474 0.0025406 0.0013898 0.0020334
0.010367 -0.029841 -0.042315 0.38936 -0.016699 -0.021067 -0.0025077 0.00041071
2.8923e-05 0.0029312 -0.00071912 0.0018549
-0.001567 -0.00080593 -0.0168 -0.02099 0.28649 0.20612 0.00081941 0.0015639
0.00058792 0.0011905 0.00034366 0.00068363
-8.3916e-05 -0.0009593 -0.0025573 0.00046025 0.00083392 0.0015277 0.069522 0.27344
0.010167 -0.01647 0.0022813 0.001535
-0.0027814 0.0025065 9.258e-05 0.0029458 0.00063233 0.0012216 0.010115 -0.016579
-0.010174 0.21821 0.014198 -0.012339
0.0012885 0.0020594 -0.0007974 0.001817 0.00043095 0.00069207 0.0022744 0.0015645
0.014213 -0.012259 -0.014142 0.31786
1280000000 0.18156 0.26789 -0.0078255 -0.028248 -0.0018396 0.0024695 -0.00092108 -0.0019929
-0.00076385 0.0030679 0.0024875 0.0011393
-0.0078245 -0.028252 0.0034338 0.38046 -0.023514 -0.0085171 -0.00098072 0.0014255
0.0016562 0.0017762 0.00064895 0.0020817
-0.0019178 0.0024787 -0.023618 -0.0084264 0.31713 0.16232 0.0015418 -2.7869e-05
0.0010378 0.00028223 0.00054294 0.00034138
-0.00095244 -0.0018892 -0.00099599 0.0014993 0.0015081 -1.4062e-05 0.10642 0.25735
0.0011007 -0.018325 0.00016815 7.0577e-05
-0.00067899 0.003089 0.0016743 0.0017416 0.0010804 0.00024948 0.0010226 -0.018397
0.026486 0.22245 0.0033435 -0.014498
0.0026008 0.0011516 0.0006125 0.0020564 0.00053836 0.00039885 0.0001113 8.811e-05
0.0033493 -0.014504 0.034177 0.32024
1340000000 0.21854 0.23393 -0.017459 -0.018834 0.00087509 0.0044613 -0.0017657 -0.00077433
0.0014726 0.0027138 0.0017645 -0.0014036
-0.017477 -0.018859 0.042691 0.37236 -0.02147 0.00406 -0.00010768 0.0020224
0.0019041 0.00079304 0.0013153 0.00083486
0.00094231 0.004457 -0.021465 0.0041989 0.3394 0.11442 0.0010587 -0.00085397
0.0006837 -0.00042907 0.0001968 0.00026114
-0.0017927 -0.00073921 -0.00014656 0.0019808 0.0010642 -0.00085833 0.13907 0.23732
-0.0079284 -0.015647 0.0010228 0.00035658
0.0015432 0.0027142 0.0019544 0.00081912 0.00066656 -0.00044692 -0.0080613 -0.015665
0.056704 0.21855 -0.0031528 -0.013168
0.0017183 -0.0013951 0.0012813 0.0007325 0.00013072 0.0002257 0.0010181 0.00033445
-0.0030868 -0.013122 0.0722 0.31623
1400000000 0.25132 0.19565 -0.023189 -0.0074728 0.0050957 0.0030707 -0.0020185 0.0006339
0.0023961 0.00085473 0.0003638 -0.0013913
-0.02317 -0.0074683 0.079911 0.35943 -0.014866 0.012188 0.0013116 0.0013346
0.0011288 -0.00076723 0.0012557 0.00025785
0.0051053 0.0030238 -0.014822 0.012277 0.35269 0.060792 0.00015735 -0.0015336
-4.6748e-05 -0.00035302 0.00044549 0.00020514
-0.0020375 0.00072619 0.0013105 0.0013093 0.00012354 -0.001547 0.16889 0.20883
-0.013521 -0.0093894 -0.00076042 -0.00062076
0.0024375 0.00086323 0.0011201 -0.0008228 -2.0299e-05 -0.00032779 -0.013641 -0.0093169
0.089858 0.21464 -0.009531 -0.0088089
0.00028697 -0.0013798 0.0012379 0.0001925 0.00042148 0.00019215 -0.00075702 -0.00059363
-0.0095243 -0.0088201 0.11763 0.30542
1460000000 0.27376 0.15164 -0.020292 0.0045982 0.0055105 -0.001787 -0.0015653 0.0017198
0.0021124 -0.0005993 -0.00037012 -0.0010276
-0.020262 0.0045717 0.11413 0.33782 -0.0062818 0.01515 0.0017607 0.00020066
0.00089196 -0.001255 0.00121 -0.00060212
0.0055155 -0.0018094 -0.0062015 0.015216 0.35876 0.0062816 -0.0011792 -0.0012819
0.0001953 -0.00028109 0.00055736 -0.00033606
-0.0015642 0.0017077 0.0017701 0.00016576 -0.0011886 -0.0012702 0.1955 0.17983
-0.014717 -0.0030674 -0.0010041 0.0018129
0.0021402 -0.00061107 0.00088319 -0.0012572 0.00012504 -0.00028005 -0.014807 -0.0029553
0.11917 0.20038 -0.011466 -0.0030911
-0.00037001 -0.00099674 0.0011826 -0.00067589 0.00052198 -0.00026713 -0.00099086 0.0018545
-0.011452 -0.0030784 0.15086 0.28502
1520000000 0.28572 0.11002 -0.014682 0.010133 0.0032715 -0.004066 7.1617e-05 0.0026016
0.001977 -0.0017245 -0.0011598 -0.00011143
-0.014718 0.010132 0.14777 0.32312 0.001336 0.0131 0.0016627 -0.00078924
4.6886e-05 -0.0010166 0.00037035 -0.0010458
0.0033104 -0.0040971 0.0014284 0.013092 0.35198 -0.050082 -0.0010461 -0.00038536
0.00068604 -0.00082093 -1.1285e-05 -7.9727e-05
8.9521e-05 0.0025599 0.0016409 -0.00081125 -0.0010355 -0.00037001 0.21916 0.14208
-0.014233 0.0022227 0.0012585 0.001977
0.001992 -0.0017221 4.8675e-05 -0.00099485 0.00071616 -0.00082233 -0.014265 0.0023629
0.14722 0.18671 -0.011455 0.0012277
-0.0012287 -0.00013816 0.00032802 -0.0010607 -4.4127e-05 -0.00018862 0.0012676 0.0019931
-0.011482 0.0012156 0.18445 0.26487
1580000000 0.29495 0.063845 -0.0081313 0.013263 -0.00090389 -0.0048514 0.0013731 0.0018705
-0.00033608 -0.0020542 -0.00039958 0.00039683
-0.0081717 0.013256 0.17511 0.29834 0.0050279 0.0083546 0.00045888 -0.0016294
-0.00055005 -0.0010646 -0.00026029 -0.0008267
-0.00089428 -0.004821 0.0050661 0.0083456 0.33156 -0.10751 -0.0016464 0.00054879
-0.00030831 -0.0011345 0.00010844 -0.00042844
0.0014066 0.0018631 0.000463 -0.0016056 -0.0016517 0.00056603 0.23355 0.10269
-0.011117 0.0069715 0.0021689 0.00092087
-0.00030744 -0.0020439 -0.00056683 -0.0010368 -0.00033758 -0.0011577 -0.011077 0.0070965
0.17186 0.16918 -0.0092638 0.0070697
-0.00045646 0.00041874 -0.00024896 -0.00078932 0.00011166 -0.00043994 0.0021803 0.00092462
-0.0092492 0.0070209 0.2172 0.23811
1640000000 0.29686 0.022768 -0.0014823 0.012306 -0.0026724 -0.002568 0.002703 0.00098853
-0.00065135 -0.0014425 -0.00019028 0.00058766
-0.001487 0.012301 0.2047 0.27331 0.0058799 0.003644 -0.00067943 -0.0017442
-0.0010209 -0.0004357 -0.00049366 -0.00071535
-0.0026579 -0.0025424 0.0058861 0.0036076 0.30316 -0.15681 -0.00070376 0.0013925
-0.0010546 -0.0010417 -0.00010509 -0.0004385
0.0027271 0.0010392 -0.00071701 -0.0017471 -0.0006911 0.001345 0.24621 0.053747
-0.0071179 0.0082508 0.0024268 -0.00067678
-0.00062159 -0.0014017 -0.00099226 -0.00043569 -0.00099467 -0.0010185 -0.007055 0.008331
0.19464 0.14502 -0.0047833 0.009088
-0.00018831 0.00056799 -0.00055995 -0.0007243 -0.00010517 -0.00038218 0.0024214 -0.0007074
-0.0048178 0.009048 0.24276 0.20714
1700000000 0.28965 -0.022463 0.0019744 0.0095508 -0.0034357 7.3467e-05 0.0030133 -0.0011786
-0.0019469 -0.00069508 0.00067777 0.00041579
0.001953 0.0095308 0.22291 0.24166 0.0039323 0.00078555 -0.0015032 -0.0005605
-0.00081582 6.4269e-05 -0.00092813 -0.00043412
-0.0034304 0.000122 0.0039334 0.00078086 0.25954 -0.19672 0.00041456 0.0016926
-0.0019648 -0.0001779 -0.00047332 -0.0008396
0.0029563 -0.0012081 -0.0014646 -0.00054627 0.00039527 0.0017085 0.2433 0.0038446
-0.0045801 0.0089815 0.0014841 -0.0021492
-0.0020311 -0.00070128 -0.00078272 8.6636e-05 -0.0019794 -0.00014204 -0.0045002 0.0089997
0.21227 0.12516 -8.8361e-05 0.0094598
0.00068673 0.00043258 -0.00091409 -0.00042037 -0.0004771 -0.00085386 0.0014812 -0.0021683
-8.6423e-05 0.0094433 0.2593 0.17257
1760000000 0.27729 -0.070935 0.0043439 0.0062869 -0.00221 0.00092706 0.0013191 -0.0033806
-0.0012602 0.00066752 0.00044317 -0.00066377
0.0043289 0.0062969 0.24882 0.2016 0.0017543 -0.0010069 -0.0011856 0.00023336
-0.0010114 0.00093708 -0.0005795 0.00042618
-0.002216 0.00091901 0.0017776 -0.0010233 0.2105 -0.22939 0.0012037 0.0011176
-0.0011857 0.0014776 -0.0013025 -0.00056006
0.0013026 -0.0033823 -0.0011866 0.00023777 0.0011904 0.0011034 0.23423 -0.047912
-0.0012633 0.0083456 -0.00020866 -0.0024838
-0.0012193 0.00069373 -0.0010358 0.00094839 -0.0011826 0.0014072 -0.0011865 0.0083141
0.22735 0.090229 0.0038428 0.0069683
0.0004255 -0.00064143 -0.00059334 0.00041715 -0.0014727 -0.00050992 -0.00018665 -0.0024979
0.0038273 0.0069438 0.27204 0.13485
1820000000 0.25264 -0.10825 0.0045976 0.0026655 -4.8902e-05 0.0023624 -0.00094862 -0.0030757
-0.00106 0.00084648 -8.5632e-05 -0.00014325
0.0046144 0.0027055 0.2587 0.17133 -0.00013352 -7.64e-05 -0.001269 0.00093635
-1.5191e-05 0.001348 -0.00052414 0.00056284
-2.4279e-05 0.0023722 -0.00011248 -9.8358e-05 0.16075 -0.24537 0.0015327 0.00043008
-0.00023479 0.0022962 -0.00132 0.00039038
-0.0010306 -0.0030121 -0.0013106 0.00094778 0.0015509 0.00035949 0.20418 -0.095162
0.00018756 0.0067414 -0.0015732 -0.0015155
-0.0010771 0.0008668 -3.1811e-05 0.0013407 -0.00020609 0.0022545 0.00024112 0.0066837
0.24472 0.061297 0.0047927 0.0035219
-3.9444e-05 -0.00015095 -0.00050044 0.00057467 -0.0012333 0.00042487 -0.0015224 -0.0015337
0.0047958 0.0035364 0.27459 0.0989
1880000000 0.21733 -0.14844 0.002423 0.00032052 -0.00051974 0.0019394 -0.002904 -0.0021484
-0.00024284 0.0016475 0.00021682 -0.00050733
0.0024243 0.00032188 0.26287 0.12462 -0.0022108 0.0014899 -0.00013065 0.0017193
0.00063022 0.0012198 0.0001377 0.00090719
-0.00044509 0.0019692 -0.0022327 0.0015934 0.10851 -0.25496 0.0018511 -0.0010253
0.0015801 0.0019539 -0.00096033 0.0012698
-0.0029079 -0.0022542 -0.00015344 0.0017005 0.0017822 -0.0009533 0.16346 -0.13549
0.00088774 0.0047803 -0.0024401 0.00042836
-0.00019621 0.0016288 0.00063824 0.0011836 0.0014852 0.001962 0.0009223 0.0047557
0.2479 0.028595 0.0048965 0.0013455
0.00013813 -0.00051895 7.8071e-05 0.00090414 -0.00096008 0.0012184 -0.0023991 0.00047107
0.0049059 0.001349 0.27423 0.064715
1940000000 0.17797 -0.17405 0.00015323 -0.0013667 0.0012923 0.0018891 -0.0037467 0.00051064
0.0012773 0.00099532 -0.00065342 -0.00053546
0.00019158 -0.0013686 0.26309 0.092805 -0.0010965 0.0037891 0.0010138 0.0013095
0.001879 0.00042514 0.00085509 0.00026657
0.0013202 0.0019049 -0.0010707 0.003777 0.062457 -0.24788 0.0003865 -0.0022601
0.0023894 0.00039668 0.00030857 0.00157
-0.0037143 0.00050315 0.0010643 0.0012708 0.00042051 -0.002255 0.11107 -0.16564
-8.4404e-05 0.0036872 -0.0014751 0.0015401
0.0013471 0.00098845 0.0019107 0.00044627 0.0023958 0.00042277 -6.028e-05 0.0036881
0.24977 -0.010337 0.0037124 -0.0020642
-0.0006821 -0.0005424 0.00087435 0.00018541 0.0002851 0.0015973 -0.0014956 0.0015729
0.0037001 -0.0020794 0.26344 0.028841
2000000000 0.1317 -0.18869 -0.0037076 0.00055106 0.0024511 0.0017571 -0.0023105 0.0035173
0.0011144 0.00018 -0.00071159 0.00039335
-0.0036999 0.00062132 0.24852 0.057359 -0.0010346 0.0055998 0.0016459 0.00031471
0.0013364 -0.0014377 0.00043621 9.052e-05
0.0024774 0.0017142 -0.00099679 0.005601 0.018915 -0.23344 -0.001342 -0.0013311
0.0019414 -0.0011647 0.0015445 0.0012146
-0.0023128 0.0035794 0.0016321 0.00031562 -0.0013531 -0.0013095 0.057578 -0.17535
-0.0016985 0.0035999 -7.9326e-05 0.002266
0.001079 0.00026739 0.0013683 -0.0014682 0.0019563 -0.0011548 -0.0017597 0.0035779
0.24374 -0.044419 0.00030435 -0.0027778
