!Keysight Technologies,M9804A,MY58100912,A.14.10.03
!Date: Thursday, April 27, 2023 10:28:33
!Correction: S11(C  6-Port  ) 
!S12(C  6-Port  ) 
!S13(C  6-Port  ) 
!S14(C  6-Port  ) 
!S15(C  6-Port  ) 
!S16(C  6-Port  ) 
!S21(C  6-Port  ) 
!S22(C  6-Port  ) 
!S23(C  6-Port  ) 
!S24(C  6-Port  ) 
!S25(C  6-Port  ) 
!S26(C  6-Port  ) 
!S31(C  6-Port  ) 
!S32(C  6-Port  ) 
!S33(C  6-Port  ) 
!S34(C  6-Port  ) 
!S35(C  6-Port  ) 
!S36(C  6-Port  ) 
!S41(C  6-Port  ) 
!S42(C  6-Port  ) 
!S43(C  6-Port  ) 
!S44(C  6-Port  ) 
!S45(C  6-Port  ) 
!S46(C  6-Port  ) 
!S51(C  6-Port  ) 
!S52(C  6-Port  ) 
!S53(C  6-Port  ) 
!S54(C  6-Port  ) 
!S55(C  6-Port  ) 
!S56(C  6-Port  ) 
!S61(C  6-Port  ) 
!S62(C  6-Port  ) 
!S63(C  6-Port  ) 
!S64(C  6-Port  ) 
!S65(C  6-Port  ) 
!S66(C  6-Port  ) 
!S6P File: Measurement: :
# Hz S  RI   R 50
500000000 -0.33694 -0.039345 -0.0095819 -0.002388 -0.0076197 0.012532 -0.0040701 0.011998
0.012953 0.0047274 -0.0045894 0.0090388
-0.0095626 -0.0023875 -0.41932 -0.051726 0.0079149 -0.010683 0.0016611 0.012167
0.0077657 0.0028607 0.0016698 0.013433
-0.0075937 0.01253 0.0078964 -0.010717 -0.26538 0.20901 0.0078513 0.0035057
-0.0016116 0.0082814 0.0017731 0.012045
-0.0040748 0.012014 0.001685 0.01216 0.0078501 0.0034879 -0.33076 0.044122
-0.018016 -0.0062498 0.015404 0.026171
0.012979 0.004654 0.0078146 0.0028723 -0.0015607 0.0082744 -0.018005 -0.0062327
-0.22489 -0.19519 -0.024943 0.0049716
-0.0046587 0.0090162 0.0017556 0.013443 0.0018 0.012002 0.015424 0.026191
-0.02495 0.0049729 -0.26798 -0.13176
560000000 -0.3162 0.12273 -0.023821 -0.063773 0.00037222 0.011829 0.0052741 0.010736
0.0098153 0.0044372 0.01108 0.0075486
-0.023749 -0.063709 -0.37849 0.10747 -0.041112 -0.037516 0.013572 0.0040264
-0.012927 -0.0046109 0.0034571 0.00020044
0.00039298 0.011825 -0.04125 -0.037458 -0.18278 0.25717 -0.00071841 -0.0046842
0.019379 0.004607 0.0066851 -0.0061057
0.0052703 0.010664 0.013531 0.0040002 -0.00058732 -0.0047451 -0.30565 0.13272
0.0040745 -0.023594 0.0043264 -0.021626
0.0098159 0.0044414 -0.012966 -0.0045195 0.019385 0.0045507 0.0040722 -0.023631
-0.29012 -0.020433 0.0089456 -0.048625
0.011149 0.0075165 0.0034219 0.0001736 0.0066999 -0.006057 0.0043191 -0.021633
0.0089573 -0.048629 -0.3299 0.016901
620000000 -0.27478 0.10674 -0.023188 0.0079916 0.0032761 0.008768 0.0079738 -0.0053858
0.011177 -0.00044703 0.0019535 -0.0023947
-0.023165 0.0079849 -0.40253 0.059658 -0.018558 0.00012826 -0.0014509 -0.0020701
0.011616 -0.0065408 0.0017098 -0.0032941
0.0032928 0.0087348 -0.018594 0.00018015 -0.15366 0.26631 -0.0014043 -0.0051785
-0.0030086 -0.0028249 0.008581 -0.0035853
0.007957 -0.0053791 -0.001469 -0.0020483 -0.0013944 -0.0052043 -0.26545 0.1442
-0.037562 -0.019968 0.012048 0.026059
0.011244 -0.00046242 0.011591 -0.0066071 -0.0030716 -0.002795 -0.037563 -0.019969
-0.20776 -0.057948 -0.041358 0.014328
0.0019587 -0.0024322 0.0017612 -0.0032644 0.0087149 -0.0035894 0.012068 0.026024
-0.041342 0.014292 -0.25059 -0.019375
680000000 -0.23464 0.19202 -0.027108 -0.014462 0.0051226 0.0050921 0.001097 -0.0069398
-0.0031171 -0.011029 0.0048601 -0.0068965
-0.027075 -0.014464 -0.38751 0.15739 -0.032593 -0.0013807 -0.001821 -0.00049853
-0.0022437 -0.0088578 -0.0015741 -0.0020111
0.0051289 0.0050785 -0.032627 -0.0013004 -0.10236 0.2863 -0.00086919 -0.00010898
-0.0018207 0.00064965 -0.0029497 -0.0091968
0.001076 -0.0069281 -0.001824 -0.00050743 -0.00087603 -0.00012232 -0.22054 0.19379
-0.023568 -0.0081237 -0.009827 -0.010821
-0.0031738 -0.01102 -0.002228 -0.0088634 -0.0018116 0.00061634 -0.023586 -0.0081124
-0.25877 0.039984 -0.0050144 -0.0084964
0.0048909 -0.0069107 -0.0015877 -0.0020229 -0.0029605 -0.0091805 -0.0098514 -0.010825
-0.0050175 -0.0085003 -0.26138 0.087126
740000000 -0.19034 0.18696 -0.038765 0.026561 0.012765 -0.0050979 -0.0001467 -0.0041893
-0.0045421 -0.0029833 -0.0056832 0.0025484
-0.038732 0.02653 -0.33445 0.17626 -0.035375 0.035 -0.0008615 -0.0062919
-0.0114 0.0081881 -0.0021176 -0.0065384
0.012753 -0.0051273 -0.035311 0.035117 -0.068565 0.28453 -0.0019358 0.0032598
-0.0022069 -0.0045156 -0.001631 -5.3736e-05
-0.00014155 -0.0042149 -0.00088436 -0.0063126 -0.0019478 0.0032418 -0.20395 0.20163
-0.043271 -0.007208 0.022777 0.014911
-0.0045473 -0.0029241 -0.011387 0.0082433 -0.0022511 -0.0045649 -0.043281 -0.0071636
-0.16004 0.066371 -0.043068 0.00062732
-0.0056931 0.0026957 -0.002094 -0.0064979 -0.0015878 2.7319e-06 0.022819 0.014875
-0.043058 0.0005903 -0.24903 0.092316
800000000 -0.15749 0.22744 -0.022409 0.016722 0.0053723 -0.010516 -0.0047829 -0.0020285
-0.004127 0.0022201 0.0047147 0.00062213
-0.022408 0.016723 -0.338 0.24632 -0.007837 0.033869 -0.0024431 0.0022292
-0.00051103 0.0030133 0.0010847 0.0051567
0.0053476 -0.010534 -0.0077414 0.033936 -0.027843 0.30771 0.0010505 0.0015372
0.00039171 0.0034102 -0.0015695 0.00081861
-0.0047843 -0.0020242 -0.0024251 0.0022236 0.0010566 0.0015263 -0.17535 0.22956
-0.028444 0.013605 0.013493 -0.010096
-0.004139 0.002284 -0.0005471 0.0030071 0.00039395 0.0034106 -0.028443 0.013655
-0.20706 0.089814 -0.017463 0.018764
0.0046863 0.00064082 0.0010875 0.0051598 -0.0015734 0.00081638 0.013479 -0.010132
-0.017483 0.018745 -0.24377 0.14248
860000000 -0.12321 0.24772 -0.017441 0.030589 -0.0032857 -0.0098676 -0.002533 0.0009631
0.004022 0.004948 -0.0031236 -0.0028431
-0.017464 0.03058 -0.29057 0.28832 0.0077564 0.034105 -7.6528e-05 0.0019871
0.0043025 9.6668e-05 0.003374 0.00084298
-0.0033127 -0.009863 0.0078718 0.034113 0.020001 0.31551 -0.00055709 -0.00033726
0.0028462 -0.0015255 0.00135 0.0042812
-0.0025308 0.00095958 -6.4319e-05 0.0019724 -0.00056892 -0.00034014 -0.13925 0.24045
-0.018112 0.018287 -0.0059221 -0.0092443
0.0039772 0.0049786 0.0042766 7.4436e-06 0.002845 -0.001563 -0.018089 0.018329
-0.15696 0.14089 -0.025756 0.015332
-0.0031275 -0.0028537 0.0032971 0.00085197 0.0013644 0.0042832 -0.0059392 -0.009247
-0.025769 0.015347 -0.19246 0.18861
920000000 -0.098417 0.27058 0.0052349 0.037786 -0.0093706 -0.0043608 -0.0018324 0.0020012
0.001137 0.0019237 0.0027765 -0.0015519
0.0052127 0.037775 -0.26142 0.30955 0.02803 0.021897 0.0014918 0.0011644
0.0071129 -0.00064462 0.0039947 -0.0026845
-0.0093941 -0.0043364 0.028134 0.021828 0.066246 0.31614 0.0018095 -8.5741e-05
0.0012292 -0.00039968 0.00095284 -0.001066
-0.0018178 0.0020047 0.001493 0.0011478 0.0018142 -8.8828e-05 -0.11528 0.25757
-0.010881 0.030309 0.0036051 -0.0065087
0.001165 0.0019191 0.0070979 -0.00065696 0.0012326 -0.00040946 -0.010829 0.030342
-0.14637 0.1475 -0.0029201 0.027101
0.0027828 -0.0016161 0.0039321 -0.0026607 0.00091793 -0.0010729 0.003585 -0.0064941
-0.0029329 0.027104 -0.2011 0.20224
980000000 -0.051049 0.28986 0.017514 0.029883 -0.0089403 0.0046247 0.0021077 0.0035298
0.0040165 -0.0013686 -0.0031939 -0.0022389
0.017476 0.029876 -0.2088 0.34337 0.03285 0.0048296 0.0020696 -5.642e-05
0.0015769 -0.0057461 -0.00011116 -0.0024953
-0.0089387 0.0046336 0.03291 0.004727 0.1124 0.30943 0.0004532 -0.0011459
0.00021248 -0.0020541 0.0014584 -0.00021813
0.002117 0.0035487 0.0020585 -7.2076e-05 0.00044447 -0.0011406 -0.077038 0.2689
0.007753 0.029602 -0.0092333 -0.0072487
0.0040258 -0.0013829 0.0015208 -0.0057554 0.0002215 -0.0020718 0.007808 0.029601
-0.11573 0.17657 0.0048212 0.019336
-0.0031886 -0.0022398 -0.00013909 -0.0024877 0.0014719 -0.00024572 -0.0092515 -0.0072197
0.0048034 0.019355 -0.15875 0.24735
1040000000 -0.0089929 0.29834 0.033075 0.018081 -0.0012078 0.0068503 0.0025804 0.00068661
-1.3151e-05 -0.0037754 -0.00040649 -0.0014194
0.033039 0.018108 -0.17315 0.3562 0.029243 -0.014794 0.0014779 -0.0016783
-0.0026275 -0.0025393 -0.001337 -0.0026322
-0.0012041 0.0068441 0.029238 -0.014902 0.15829 0.29579 -0.00051018 -0.0015006
-0.0016879 -0.00082317 -0.00044117 -0.0010562
0.0025914 0.00067656 0.0014676 -0.0017119 -0.00051725 -0.0015097 -0.049849 0.27919
0.018938 0.017891 -0.0022987 0.0015861
-1.3583e-05 -0.00379 -0.0026251 -0.0025054 -0.0016709 -0.00083013 0.018963 0.017861
-0.083772 0.18489 0.013109 0.018381
-0.00041978 -0.0014146 -0.0013896 -0.0025755 -0.00046012 -0.0010423 -0.0022951 0.0015983
0.013106 0.018396 -0.13741 0.26773
1100000000 0.036343 0.3061 0.035651 -0.0041895 0.0028165 0.0038468 0.0023862 -0.0013736
-0.0020697 -0.0031355 -0.0039372 3.7335e-06
0.03563 -0.0041675 -0.12987 0.37338 0.015025 -0.027648 2.2685e-06 -0.0018261
-0.0032973 -0.00070067 -0.0034202 -0.00052651
0.0028368 0.0038264 0.014934 -0.027726 0.20457 0.27548 -0.0018292 0.000247
-0.0017537 0.00054711 -0.0010622 -0.00038079
0.002382 -0.0014018 -9.3917e-06 -0.0018567 -0.0018366 0.00024442 -0.0095042 0.28417
0.02407 0.0050473 -0.0025772 0.00017681
-0.0020809 -0.0031468 -0.0033152 -0.00070021 -0.0017512 0.00055089 0.024082 0.0050128
-0.06606 0.19879 0.018737 0.0087042
-0.003919 6.6449e-05 -0.0034535 -0.00047883 -0.0010661 -0.0003807 -0.0025616 0.0001822
0.018753 0.0087196 -0.091627 0.29796
1160000000 0.087651 0.301 0.023831 -0.02065 0.0026047 -0.00049366 -0.00024373 -0.0024534
-0.0042195 -0.00072886 -0.00094664 0.004189
0.023828 -0.02062 -0.086448 0.37742 -0.0036886 -0.028886 -0.001724 -0.0016851
-0.0026839 0.0025023 -0.0012948 0.0018915
0.0026 -0.00051502 -0.0037992 -0.028883 0.24738 0.24476 -0.00064879 0.0017253
-0.00054666 0.0019281 -0.00088212 0.00021041
-0.00026881 -0.0024574 -0.0017537 -0.0016941 -0.00066234 0.0017296 0.029735 0.28171
0.020526 -0.01 -0.0029382 0.005292
-0.0042235 -0.00070437 -0.002679 0.0025225 -0.0005402 0.0019399 0.020506 -0.010028
-0.032413 0.20866 0.017807 0.00079784
-0.00089643 0.0041719 -0.0012634 0.0018707 -0.00087253 0.00022453 -0.0029194 0.0052998
0.017852 0.00079764 -0.044957 0.30095
1220000000 0.13198 0.28984 0.010272 -0.029801 -0.001553 -0.00078138 -2.8251e-05 -0.00097136
-0.0026422 0.0024959 0.0013834 0.002008
0.010274 -0.029762 -0.042215 0.38938 -0.01671 -0.021039 -0.0025187 0.00041464
7.2046e-05 0.0029308 -0.00071562 0.0018441
-0.0015612 -0.00077891 -0.016831 -0.020981 0.28657 0.20602 0.00080585 0.0015598
0.00061528 0.0011733 0.0003225 0.00069827
-4.8232e-05 -0.00095161 -0.0025318 0.00041931 0.00081276 0.0015633 0.06958 0.27349
0.010139 -0.016483 0.0022774 0.0015617
-0.0026183 0.002523 9.654e-05 0.0029556 0.00061952 0.0012099 0.010122 -0.016505
-0.0099278 0.21817 0.014129 -0.012384
0.0014004 0.0019967 -0.00070887 0.0018502 0.00035187 0.00071003 0.0022565 0.0015549
0.014154 -0.012396 -0.013858 0.31791
1280000000 0.1816 0.26773 -0.0078646 -0.028186 -0.0018406 0.0025034 -0.00093974 -0.0019713
-0.00076586 0.0030772 0.0025016 0.0011374
-0.0078358 -0.028163 0.0035346 0.38042 -0.023537 -0.0084963 -0.00097696 0.0014702
0.001648 0.0017628 0.00059871 0.0020842
-0.0018303 0.002521 -0.023609 -0.0083949 0.31717 0.16227 0.0015393 -6.4597e-05
0.0010737 0.00030455 0.00052415 0.00028304
-0.00094151 -0.0019703 -0.0009707 0.0014784 0.0015407 -5.9507e-05 0.10648 0.25736
0.0010806 -0.018326 0.0001501 6.6505e-05
-0.00073651 0.0030867 0.0016536 0.0017481 0.001079 0.00029645 0.0010404 -0.018336
0.026715 0.22231 0.0033132 -0.014487
0.0024871 0.0011175 0.00060699 0.0020705 0.00054394 0.00026416 0.00014607 5.685e-05
0.0033274 -0.014516 0.034353 0.32035
1340000000 0.21854 0.23389 -0.017408 -0.01877 0.00094112 0.0044395 -0.0017682 -0.00074793
0.0015254 0.0027041 0.0017628 -0.0013825
-0.017377 -0.018773 0.042829 0.37233 -0.021472 0.0041178 -0.0001357 0.002006
0.0018946 0.00078018 0.0012956 0.00082954
0.00096253 0.0044342 -0.021462 0.0042241 0.33938 0.11434 0.0010593 -0.00088047
0.00071964 -0.00045956 0.00020992 0.00026824
-0.0017712 -0.00074114 -0.00011505 0.0020059 0.001054 -0.00087206 0.13915 0.23736
-0.0079588 -0.015674 0.0010285 0.00034488
0.0015266 0.0027009 0.0018936 0.00077397 0.00072047 -0.00046057 -0.0079792 -0.015667
0.056833 0.21837 -0.0031342 -0.013114
0.0017429 -0.0013858 0.0013104 0.00082826 0.00022383 0.00025895 0.0010235 0.00034551
-0.003135 -0.013126 0.072401 0.31629
1400000000 0.25137 0.19562 -0.023084 -0.0074423 0.0050989 0.0030244 -0.0020235 0.00065681
0.0024044 0.00084648 0.00034438 -0.0013708
-0.023052 -0.007452 0.080056 0.35942 -0.014812 0.012229 0.0013071 0.0013384
0.0010961 -0.00077853 0.001244 0.00023537
0.0051035 0.0030061 -0.014762 0.012314 0.35266 0.060725 0.00017354 -0.001538
-3.2172e-05 -0.00034044 0.00045307 0.00021534
-0.0020223 0.00066733 0.0013182 0.001324 0.00017269 -0.0015483 0.16901 0.20884
-0.013496 -0.0093749 -0.00072944 -0.00060057
0.0023986 0.00083069 0.0010941 -0.00078759 -2.4683e-05 -0.00035871 -0.013504 -0.0093497
0.089914 0.21447 -0.0095002 -0.008711
0.00033998 -0.0013775 0.0012408 0.00023706 0.00045 0.00021001 -0.00073802 -0.00059362
-0.0094893 -0.0087209 0.11784 0.30545
1460000000 0.27383 0.15155 -0.020181 0.0045501 0.0055494 -0.0018127 -0.0015621 0.001679
0.0020773 -0.00058826 -0.00034128 -0.0010099
-0.020169 0.0045356 0.11424 0.33775 -0.0062504 0.015164 0.0017597 0.00018422
0.00088723 -0.0012392 0.0011885 -0.00061059
0.0055444 -0.0018408 -0.0061704 0.015225 0.35868 0.0062167 -0.0011877 -0.0012625
0.00019276 -0.00030917 0.00054345 -0.00034635
-0.0015674 0.0016796 0.0017644 0.0001822 -0.0011925 -0.0012698 0.19562 0.17984
-0.014696 -0.0030309 -0.00099861 0.0017807
0.0020766 -0.0006115 0.00088665 -0.0012507 0.00019136 -0.00030636 -0.014698 -0.0030079
0.1192 0.20035 -0.011373 -0.0030012
-0.00036729 -0.0010129 0.0011789 -0.00061152 0.00054226 -0.00033408 -0.00098805 0.0017833
-0.011355 -0.0030129 0.15109 0.285
1520000000 0.28583 0.10992 -0.014667 0.010051 0.0032711 -0.0041461 9.02e-05 0.0026081
0.0019866 -0.001713 -0.001148 -0.00010083
-0.014663 0.010032 0.14789 0.32304 0.0013754 0.013034 0.0016536 -0.00077846
6.237e-05 -0.001013 0.0003562 -0.0010558
0.0032466 -0.0041688 0.0014569 0.013048 0.35197 -0.050043 -0.0010498 -0.00037441
0.00067839 -0.00082951 -2.0577e-05 -0.00010856
9.8419e-05 0.0026147 0.0016459 -0.00078831 -0.0010546 -0.00038058 0.21932 0.14201
-0.0142 0.0022162 0.0012565 0.0020178
0.0019635 -0.0017121 5.455e-05 -0.0010117 0.00068145 -0.00084274 -0.014201 0.0022401
0.1473 0.18669 -0.01138 0.0012565
-0.0011541 -9.3646e-05 0.00035236 -0.0010529 -1.1927e-05 -9.5856e-05 0.0012629 0.0020125
-0.011375 0.0012379 0.18476 0.26481
1580000000 0.295 0.063796 -0.0081512 0.013159 -0.0008966 -0.0048655 0.0013873 0.0018699
-0.00032826 -0.0020405 -0.00040288 0.00039243
-0.0081516 0.013145 0.1753 0.29827 0.0050325 0.0083088 0.00045776 -0.0015991
-0.00055072 -0.0010665 -0.00026404 -0.00083308
-0.00091448 -0.004863 0.0050789 0.0082834 0.33145 -0.10772 -0.0015901 0.0005536
-0.00031675 -0.001146 0.00010088 -0.00042748
0.0013993 0.0018705 0.00045505 -0.0015997 -0.0015849 0.0005496 0.23365 0.10261
-0.011108 0.006942 0.0021801 0.0009205
-0.00034197 -0.0020369 -0.00056081 -0.0010682 -0.00032899 -0.0011501 -0.011104 0.006965
0.17193 0.1692 -0.0091687 0.0070171
-0.00041068 0.00039821 -0.00027124 -0.00083991 9.246e-05 -0.00042263 0.0021834 0.00091366
-0.0091734 0.0070088 0.2175 0.23797
1640000000 0.297 0.022621 -0.0015335 0.012234 -0.0026924 -0.0025384 0.0026878 0.00099177
-0.00063026 -0.0014365 -0.00017864 0.00059156
-0.0015525 0.012231 0.20485 0.2732 0.005869 0.0036025 -0.00067798 -0.0017345
-0.0010122 -0.00044241 -0.00048675 -0.00070046
-0.0027134 -0.0025212 0.0058941 0.0035656 0.30311 -0.15688 -0.00071917 0.0014356
-0.0010625 -0.0010133 -8.9705e-05 -0.00048941
0.0027001 0.00098166 -0.00068805 -0.0017276 -0.00073149 0.0014243 0.24633 0.053591
-0.0071115 0.0082178 0.0024442 -0.00067663
-0.00062935 -0.0014378 -0.0010246 -0.00042276 -0.0010697 -0.0010192 -0.0071127 0.0082322
0.19483 0.14507 -0.0047392 0.0089946
-0.00017589 0.00059268 -0.00049202 -0.00070695 -8.2338e-05 -0.0004731 0.0024549 -0.00068968
-0.0047562 0.0089836 0.24304 0.20694
1700000000 0.28966 -0.0227 0.0018924 0.0095069 -0.0034093 0.00011461 0.0030175 -0.0011797
-0.0019232 -0.00068868 0.00067688 0.00043371
0.0018852 0.0095045 0.22306 0.24152 0.0039099 0.00077177 -0.0014941 -0.0005551
-0.00081667 5.2996e-05 -0.0009355 -0.00043779
-0.0034126 0.00013501 0.0039193 0.00074686 0.25965 -0.19676 0.00040273 0.0016862
-0.0019184 -0.00014731 -0.0004649 -0.00082645
0.0030017 -0.001191 -0.0014943 -0.00055027 0.00040208 0.0016926 0.24338 0.0036471
-0.0046029 0.0089576 0.0014837 -0.0021521
-0.0019255 -0.00068379 -0.00082123 6.9249e-05 -0.0019227 -0.00014125 -0.0046 0.0089772
0.21247 0.1251 -7.8012e-05 0.0093413
0.00068444 0.00043425 -0.00093329 -0.00043636 -0.00046074 -0.00081942 0.0014934 -0.002161
-8.5563e-05 0.0093372 0.25961 0.17225
1760000000 0.27732 -0.071161 0.0042636 0.0063227 -0.0022118 0.00089826 0.001344 -0.003393
-0.0012516 0.00066493 0.00044603 -0.00065607
0.004246 0.0063194 0.24891 0.20141 0.0017558 -0.0010068 -0.0011701 0.00021603
-0.0010345 0.00091986 -0.00059695 0.00041327
-0.0022075 0.00090563 0.0017536 -0.0010288 0.2106 -0.2295 0.0012251 0.0011565
-0.0011668 0.0014908 -0.0012777 -0.00055795
0.0013304 -0.0033979 -0.0011718 0.00022882 0.0012286 0.0011574 0.23419 -0.0481
-0.0012929 0.008352 -0.00020358 -0.002474
-0.0012476 0.00066732 -0.0010285 0.00093906 -0.0011681 0.0014939 -0.001278 0.0083772
0.22757 0.0901 0.003778 0.0068723
0.00044104 -0.00066211 -0.00059386 0.00042636 -0.0012982 -0.00055074 -0.00021856 -0.0024731
0.0037727 0.006868 0.27224 0.1345
1820000000 0.25258 -0.10849 0.0045549 0.0027203 -1.8674e-05 0.0023428 -0.00094816 -0.0030789
-0.0010637 0.0008345 -7.8193e-05 -0.00015088
0.0045431 0.0027279 0.25876 0.17119 -0.00016635 -5.7714e-05 -0.0012761 0.00093912
-4.2254e-05 0.0013644 -0.00052037 0.00054919
-3.3047e-06 0.0023312 -0.0001662 -5.2299e-05 0.16057 -0.24554 0.0015111 0.00042557
-0.00025121 0.0023069 -0.0013393 0.00035189
-0.00096324 -0.0030681 -0.0012741 0.00095814 0.0015239 0.0004174 0.20414 -0.095301
0.00016072 0.006771 -0.0015771 -0.0015333
-0.0010599 0.00085753 -2.1697e-05 0.0013604 -0.00026861 0.0022803 0.00017793 0.0067825
0.24491 0.061085 0.0046836 0.0034545
-8.6143e-05 -0.0001533 -0.00050373 0.00056148 -0.0013149 0.00036571 -0.0015831 -0.0015292
0.0046615 0.0034571 0.27463 0.098531
1880000000 0.21734 -0.14866 0.0023817 0.00039553 -0.00044561 0.0019852 -0.0029335 -0.0021698
-0.00026652 0.0016335 0.00019371 -0.00049834
0.0023735 0.00039672 0.2629 0.12445 -0.0022249 0.001572 -0.00015997 0.0016992
0.00064377 0.0012267 0.00011711 0.00090248
-0.00043836 0.0019918 -0.0022201 0.0015931 0.1083 -0.25509 0.001867 -0.00097949
0.0015719 0.0019648 -0.00095453 0.001271
-0.0029513 -0.0021488 -0.00014114 0.0016964 0.0018579 -0.00097561 0.16332 -0.13548
0.0008683 0.0048523 -0.0024565 0.00043336
-0.00026088 0.0016351 0.00066144 0.0012262 0.0015737 0.0019539 0.00088808 0.004851
0.248 0.028367 0.0047812 0.0013378
0.00018262 -0.0005222 0.00013828 0.00091231 -0.0009542 0.0012751 -0.0024547 0.0004572
0.0047658 0.001345 0.27423 0.064349
1940000000 0.17782 -0.17425 0.00016364 -0.0013222 0.0012815 0.0018828 -0.0037995 0.00050888
0.001243 0.00098734 -0.0006528 -0.00051591
0.00015707 -0.001328 0.26308 0.092646 -0.0010885 0.0037938 0.0010201 0.0013052
0.001898 0.00042898 0.00084985 0.00028143
0.0013005 0.0018669 -0.0010736 0.0038071 0.062336 -0.24805 0.00035096 -0.002269
0.002406 0.00041586 0.00029754 0.0015661
-0.0037994 0.00052129 0.0010325 0.001297 0.00034409 -0.0022717 0.1109 -0.16556
-6.4857e-05 0.0036931 -0.0014701 0.0015038
0.0012608 0.00097761 0.001905 0.00040722 0.0024204 0.00038592 -5.0085e-05 0.0037001
0.24983 -0.010636 0.0035998 -0.002002
-0.00065164 -0.00050419 0.0008583 0.00027878 0.00031587 0.0015334 -0.0014585 0.0015142
0.0036069 -0.0019901 0.26336 0.028524
2000000000 0.13137 -0.18871 -0.0037166 0.00070062 0.0024344 0.0017114 -0.0023441 0.0035226
0.0010726 0.00020994 -0.00068638 0.0004213
-0.0037083 0.000695 0.2485 0.057293 -0.0010425 0.0056612 0.0016302 0.00034199
0.0013402 -0.0014468 0.00046456 9.8909e-05
0.0024549 0.0017007 -0.0010057 0.0056854 0.018918 -0.23346 -0.0013085 -0.0013476
0.0019576 -0.001141 0.0015014 0.0012521
-0.0023057 0.00353 0.0016368 0.00032779 -0.001301 -0.0013565 0.057509 -0.17529
-0.0016581 0.0036233 -6.31e-05 0.0022733
0.0010689 0.00019364 0.0013319 -0.0014674 0.0019615 -0.0011509 -0.0016522 0.0036181
0.24374 -0.044707 0.00025383 -0.002693
