!Keysight Technologies,M9804A,MY58100912,A.14.10.03
!Date: Thursday, April 27, 2023 10:28:33
!Correction: S11(C  6-Port  ) 
!S12(C  6-Port  ) 
!S13(C  6-Port  ) 
!S14(C  6-Port  ) 
!S15(C  6-Port  ) 
!S16(C  6-Port  ) 
!S21(C  6-Port  ) 
!S22(C  6-Port  ) 
!S23(C  6-Port  ) 
!S24(C  6-Port  ) 
!S25(C  6-Port  ) 
!S26(C  6-Port  ) 
!S31(C  6-Port  ) 
!S32(C  6-Port  ) 
!S33(C  6-Port  ) 
!S34(C  6-Port  ) 
!S35(C  6-Port  ) 
!S36(C  6-Port  ) 
!S41(C  6-Port  ) 
!S42(C  6-Port  ) 
!S43(C  6-Port  ) 
!S44(C  6-Port  ) 
!S45(C  6-Port  ) 
!S46(C  6-Port  ) 
!S51(C  6-Port  ) 
!S52(C  6-Port  ) 
!S53(C  6-Port  ) 
!S54(C  6-Port  ) 
!S55(C  6-Port  ) 
!S56(C  6-Port  ) 
!S61(C  6-Port  ) 
!S62(C  6-Port  ) 
!S63(C  6-Port  ) 
!S64(C  6-Port  ) 
!S65(C  6-Port  ) 
!S66(C  6-Port  ) 
!S6P File: Measurement: :
# Hz S  RI   R 50
500000000 -0.33694 -0.039438 -0.0096908 -0.0024829 -0.0077339 0.012515 -0.0041408 0.011943
0.013014 0.0048002 -0.0046577 0.0089325
-0.009685 -0.0024756 -0.41924 -0.051729 0.007978 -0.010665 0.0017028 0.012158
0.0077198 0.0029477 0.0016851 0.013492
-0.0077285 0.012527 0.0079452 -0.010705 -0.26537 0.20895 0.0078613 0.0034794
-0.0016127 0.0082814 0.0017767 0.012072
-0.0041134 0.011946 0.0017317 0.012195 0.0078825 0.0034779 -0.33075 0.044084
-0.018024 -0.0062477 0.015471 0.026296
0.012949 0.0048197 0.0078155 0.002822 -0.0016126 0.0082017 -0.017997 -0.0062626
-0.22475 -0.19506 -0.024982 0.0050209
-0.0046637 0.0088767 0.0016413 0.013565 0.0018341 0.012104 0.015384 0.026256
-0.025008 0.0050089 -0.26788 -0.13174
560000000 -0.31621 0.12255 -0.023793 -0.063872 0.0004233 0.011874 0.0052983 0.010636
0.0099229 0.0044743 0.011256 0.007579
-0.023756 -0.063829 -0.37883 0.10763 -0.040972 -0.037708 0.013616 0.0039304
-0.01294 -0.0044841 0.0034928 0.00015485
0.00047585 0.011893 -0.041154 -0.037663 -0.18284 0.25738 -0.00069256 -0.0046783
0.019412 0.0046026 0.0068161 -0.0060051
0.0053714 0.010622 0.013663 0.0038517 -0.00067392 -0.00464 -0.3058 0.13267
0.0042837 -0.023711 0.0043453 -0.021697
0.0098847 0.0044302 -0.012957 -0.0044221 0.019454 0.0046415 0.0042079 -0.023627
-0.29038 -0.020582 0.0090834 -0.04857
0.011295 0.0076009 0.0034404 0.00018049 0.0067726 -0.0060187 0.0043287 -0.021693
0.009087 -0.048552 -0.32994 0.0166
620000000 -0.27463 0.10685 -0.023247 0.007904 0.0030875 0.0087474 0.0079998 -0.0053755
0.011311 -0.00043626 0.0019921 -0.0023553
-0.023247 0.0078951 -0.40257 0.059563 -0.018534 0.00014873 -0.0014878 -0.0020568
0.011615 -0.0065852 0.0017785 -0.0033563
0.0030887 0.0087435 -0.018563 0.00020731 -0.15349 0.26633 -0.0014579 -0.0051808
-0.0031576 -0.0028615 0.0085882 -0.0036722
0.0080504 -0.0053776 -0.0015037 -0.0020527 -0.0014822 -0.0052048 -0.26533 0.14406
-0.037522 -0.020028 0.011999 0.025981
0.011104 -0.00045428 0.011645 -0.0066472 -0.0029476 -0.0028934 -0.037651 -0.019833
-0.20766 -0.057903 -0.041297 0.014423
0.0018574 -0.0024331 0.0017665 -0.0033192 0.0085665 -0.0035473 0.012011 0.02602
-0.041316 0.014414 -0.25039 -0.019606
680000000 -0.23468 0.192 -0.027158 -0.014432 0.0051531 0.0051395 0.0011193 -0.006964
-0.0031459 -0.01104 0.0048693 -0.0068474
-0.027116 -0.014423 -0.38762 0.15739 -0.032609 -0.0013858 -0.0018017 -0.00049118
-0.0022121 -0.0088433 -0.0015554 -0.0019653
0.0051597 0.0051235 -0.032642 -0.0012825 -0.10241 0.28628 -0.00085558 -0.00010175
-0.0018268 0.00063523 -0.0029919 -0.0091737
0.0011027 -0.0069912 -0.0018075 -0.00047714 -0.00086096 -9.7689e-05 -0.22058 0.19377
-0.023541 -0.0081509 -0.0099059 -0.010841
-0.0032031 -0.011087 -0.0022295 -0.0088195 -0.0018165 0.00065625 -0.023522 -0.0081008
-0.25879 0.039847 -0.004846 -0.0084116
0.004778 -0.0068668 -0.0014871 -0.0019467 -0.0029489 -0.0091786 -0.009843 -0.010842
-0.0048304 -0.0083815 -0.26143 0.087039
740000000 -0.1904 0.1869 -0.038816 0.026627 0.012769 -0.0050396 -0.00012993 -0.0042596
-0.0044976 -0.0029546 -0.0056893 0.0024856
-0.038786 0.026583 -0.33456 0.17626 -0.035412 0.03498 -0.00088881 -0.0062937
-0.011343 0.008157 -0.0020895 -0.0065116
0.012749 -0.0050852 -0.035335 0.035123 -0.068545 0.28445 -0.001945 0.0032356
-0.0022449 -0.0045548 -0.0016386 -3.0834e-05
-0.00015116 -0.0042636 -0.00092678 -0.0062981 -0.001948 0.0032465 -0.20391 0.20157
-0.043262 -0.0072994 0.022854 0.014897
-0.004613 -0.0028589 -0.011231 0.008159 -0.0021948 -0.0044673 -0.043286 -0.0072007
-0.16005 0.066229 -0.043237 0.00068504
-0.0057098 0.0025099 -0.0021621 -0.0065592 -0.0016969 -6.6732e-05 0.022836 0.014911
-0.043181 0.00071363 -0.24921 0.092316
800000000 -0.15747 0.22736 -0.022407 0.016783 0.0053998 -0.01049 -0.00478 -0.0020042
-0.004133 0.0022413 0.0047147 0.00064643
-0.022402 0.016768 -0.33801 0.24636 -0.0078326 0.033887 -0.0024451 0.0022287
-0.00056437 0.003042 0.0011063 0.0051897
0.0053813 -0.010515 -0.0077468 0.033945 -0.027893 0.30769 0.0010519 0.0015159
0.00038768 0.0034183 -0.0015391 0.00082161
-0.0047919 -0.0019918 -0.0024456 0.0022335 0.0010478 0.0015152 -0.17537 0.2295
-0.028472 0.013584 0.013496 -0.010097
-0.004171 0.0022301 -0.00054254 0.0030622 0.00037028 0.003418 -0.028492 0.013646
-0.20724 0.089742 -0.017464 0.018802
0.0046925 0.00063976 0.0010964 0.0052088 -0.0015519 0.00082842 0.013498 -0.01013
-0.017424 0.018773 -0.24386 0.14241
860000000 -0.1232 0.24764 -0.01745 0.030671 -0.0032816 -0.009879 -0.0025057 0.00097165
0.0039961 0.0049529 -0.0031717 -0.0028218
-0.017452 0.03064 -0.29065 0.28831 0.0078009 0.034127 -8.8458e-05 0.0020178
0.0042444 0.00011938 0.0032978 0.00085744
-0.0033068 -0.0098813 0.0079128 0.034128 0.02 0.31553 -0.00056566 -0.00033871
0.0028424 -0.0015475 0.0013782 0.004302
-0.00249 0.00097862 -8.4709e-05 0.002027 -0.00056646 -0.00034243 -0.13922 0.24046
-0.018106 0.018323 -0.0059881 -0.0092413
0.0039955 0.0049354 0.0042962 0.00012517 0.0028653 -0.0015356 -0.018101 0.018379
-0.15693 0.14093 -0.025819 0.015276
-0.003171 -0.0028464 0.0033351 0.00078059 0.0013365 0.0043152 -0.0059627 -0.0092879
-0.025777 0.01523 -0.19244 0.18838
920000000 -0.098522 0.27059 0.0051934 0.037816 -0.0093806 -0.0043732 -0.0018535 0.0020105
0.0011075 0.0019322 0.0028278 -0.0016216
0.0051524 0.037795 -0.2614 0.30966 0.028037 0.021945 0.0014874 0.0011833
0.0070231 -0.00066121 0.0039427 -0.0026083
-0.009395 -0.0043563 0.028142 0.02189 0.066193 0.31612 0.001819 -7.8534e-05
0.0012075 -0.00044767 0.00089057 -0.0010719
-0.0018437 0.0020308 0.0014974 0.0011725 0.0018264 -6.6835e-05 -0.11533 0.25753
-0.010927 0.030294 0.0036015 -0.0064633
0.0011539 0.0019323 0.0070759 -0.00072333 0.0012307 -0.00043793 -0.010877 0.030336
-0.1466 0.14736 -0.0029405 0.027177
0.0027903 -0.0015888 0.003951 -0.002702 0.00092621 -0.0011134 0.0036063 -0.0065649
-0.0029505 0.027142 -0.20113 0.20217
980000000 -0.051121 0.2899 0.017527 0.029903 -0.008947 0.0046147 0.0021149 0.0035201
0.0040139 -0.0013774 -0.0031802 -0.0022618
0.017477 0.029886 -0.20875 0.34333 0.032875 0.0048381 0.002067 -3.5637e-05
0.001543 -0.0057766 -0.0001673 -0.0024918
-0.0089268 0.0046377 0.032917 0.0047225 0.11237 0.30941 0.00046157 -0.0011447
0.00021827 -0.0020558 0.0014217 -0.00022366
0.0021342 0.0035267 0.0020686 -5.7771e-05 0.00046278 -0.0011505 -0.077038 0.26889
0.0077397 0.029627 -0.0092299 -0.0072583
0.0040065 -0.0014026 0.0015359 -0.0058221 0.00022926 -0.0020479 0.007801 0.029613
-0.11587 0.17655 0.00477 0.019288
-0.0031978 -0.0022405 -0.00016188 -0.0025375 0.0014318 -0.00021568 -0.0092434 -0.0072605
0.004748 0.019249 -0.15896 0.24712
1040000000 -0.0090508 0.29834 0.033096 0.018097 -0.0012308 0.0068639 0.0025804 0.00070381
4.0805e-05 -0.0037605 -0.00036881 -0.001439
0.033049 0.018116 -0.17315 0.35622 0.029255 -0.014766 0.0014705 -0.0016548
-0.0026384 -0.0025222 -0.0013411 -0.0025679
-0.0011993 0.0068543 0.029211 -0.014893 0.15824 0.29576 -0.00051713 -0.0015058
-0.0016594 -0.00084272 -0.00041891 -0.0010652
0.0026007 0.00070944 0.0014515 -0.0016704 -0.00050581 -0.0015169 -0.049867 0.27919
0.01894 0.017897 -0.0023144 0.0015927
1.0699e-05 -0.0037721 -0.0026598 -0.0025001 -0.0016531 -0.00081738 0.018978 0.017882
-0.083797 0.18483 0.013091 0.018367
-0.00040528 -0.0014428 -0.0013642 -0.0026211 -0.00043848 -0.0010519 -0.0023016 0.0015748
0.013043 0.018353 -0.13755 0.26761
1100000000 0.036235 0.30605 0.0357 -0.0042531 0.0028602 0.0038386 0.0024049 -0.0013756
-0.0020578 -0.0031422 -0.0039329 4.6058e-05
0.035661 -0.0042223 -0.12988 0.37329 0.015056 -0.027642 1.8317e-05 -0.0018301
-0.003313 -0.00070755 -0.0034177 -0.00049116
0.0028841 0.0038265 0.014955 -0.027738 0.20447 0.2755 -0.0018295 0.00024874
-0.0017501 0.00052388 -0.0010787 -0.00035762
0.0024054 -0.0013903 1.1033e-05 -0.0018389 -0.0018326 0.00023943 -0.0095227 0.28416
0.024049 0.0050582 -0.0025775 0.00019215
-0.0020673 -0.0031464 -0.0033084 -0.0007117 -0.0017441 0.00053622 0.024069 0.0050288
-0.06612 0.19874 0.018733 0.0087661
-0.0039748 5.5081e-05 -0.0034227 -0.0005121 -0.0010438 -0.00034708 -0.0025645 0.00020187
0.018681 0.0087664 -0.091797 0.29793
1160000000 0.087515 0.30101 0.023846 -0.020736 0.0026028 -0.00051203 -0.00024275 -0.0024623
-0.0042059 -0.00071488 -0.00092652 0.0041873
0.023833 -0.020691 -0.086508 0.37738 -0.0036267 -0.028878 -0.0017345 -0.0016917
-0.0026885 0.0025106 -0.0012628 0.0019317
0.0026087 -0.00051882 -0.0037746 -0.028897 0.24733 0.24479 -0.00066156 0.0017099
-0.00053909 0.001943 -0.00085145 0.00022008
-0.00025991 -0.0024582 -0.001752 -0.0017047 -0.00066193 0.0017129 0.02975 0.28171
0.020544 -0.0099647 -0.0029163 0.0052974
-0.0042182 -0.00073015 -0.0026891 0.0025338 -0.0005362 0.0019447 0.020544 -0.010009
-0.032482 0.20864 0.017833 0.00083843
-0.00091974 0.0042206 -0.0012798 0.0019459 -0.00085113 0.00021008 -0.0029178 0.0053272
0.017801 0.0008627 -0.045129 0.30096
1220000000 0.13192 0.28989 0.010286 -0.029894 -0.0015538 -0.00081449 -4.2011e-05 -0.00097051
-0.0026424 0.0025202 0.0014059 0.001997
0.010286 -0.029858 -0.042255 0.38937 -0.016678 -0.021034 -0.0025167 0.00041801
4.1319e-05 0.0029543 -0.0007372 0.0018443
-0.001558 -0.00080628 -0.016813 -0.02099 0.28654 0.20605 0.00079767 0.0015637
0.00060054 0.0011737 0.00034506 0.00066862
-4.7759e-05 -0.00096166 -0.0025169 0.00040899 0.00080206 0.001566 0.069551 0.27347
0.010146 -0.016443 0.0022674 0.0015396
-0.002636 0.0025232 4.8682e-05 0.0029444 0.00059503 0.0011558 0.010125 -0.016489
-0.010027 0.21814 0.014178 -0.012351
0.0014072 0.0020207 -0.00073519 0.0018526 0.00034365 0.00068782 0.0022901 0.0015633
0.014164 -0.012316 -0.013993 0.3179
1280000000 0.18153 0.26777 -0.0078816 -0.028268 -0.0018464 0.0024937 -0.00094731 -0.001974
-0.00077563 0.0030853 0.0024858 0.0011308
-0.0078748 -0.028242 0.003432 0.38043 -0.023528 -0.0085221 -0.00099122 0.0014602
0.0016555 0.0017538 0.00060706 0.0020652
-0.0018365 0.0024962 -0.023613 -0.0084166 0.31715 0.16233 0.0015405 -4.9444e-05
0.0010897 0.00031041 0.00055297 0.00027972
-0.00094894 -0.0019618 -0.00099022 0.0014667 0.0015411 -5.0497e-05 0.10643 0.25734
0.0011012 -0.018306 0.00016313 5.7935e-05
-0.00076744 0.0030799 0.0016743 0.0017487 0.0010779 0.00032185 0.0010651 -0.018312
0.026608 0.22232 0.0033728 -0.014477
0.0025197 0.0011136 0.00063878 0.0020728 0.00052352 0.00029761 0.00016664 7.0594e-05
0.0033981 -0.014438 0.034202 0.32035
1340000000 0.2185 0.23394 -0.017501 -0.018802 0.00091733 0.0044594 -0.0017657 -0.00076004
0.0015131 0.0027094 0.0017429 -0.0013975
-0.01747 -0.018802 0.042745 0.37238 -0.021462 0.0040805 -0.00014467 0.0020072
0.0019032 0.0007883 0.0012972 0.00082136
0.0009317 0.0044562 -0.021473 0.0042086 0.33935 0.11441 0.0010619 -0.00086787
0.00070887 -0.00045093 0.00020236 0.00025603
-0.0017604 -0.00074284 -0.00013593 0.002018 0.0010601 -0.00086897 0.13911 0.23734
-0.0079077 -0.015656 0.0010284 0.00033619
0.0015417 0.0026934 0.001918 0.00077068 0.00069985 -0.00045231 -0.0079563 -0.015647
0.056662 0.21835 -0.0031043 -0.01316
0.0017475 -0.0014128 0.0013142 0.00083131 0.00019971 0.00025319 0.0010453 0.00032007
-0.0030635 -0.01314 0.072302 0.31631
1400000000 0.25133 0.19562 -0.023192 -0.0074218 0.0050981 0.0030451 -0.002025 0.00064902
0.0024369 0.00084336 0.000349 -0.001373
-0.023168 -0.0074256 0.080004 0.35944 -0.014823 0.012188 0.0013096 0.0013462
0.001104 -0.00077585 0.0012449 0.00024025
0.0051089 0.0030365 -0.014794 0.012298 0.35268 0.060786 0.00017384 -0.0015284
-3.5731e-05 -0.00035362 0.0004398 0.00022744
-0.0020318 0.00065655 0.0013233 0.0013434 0.00017664 -0.0015342 0.16894 0.20885
-0.013453 -0.009387 -0.0007551 -0.00061092
0.0024425 0.00083213 0.0010963 -0.00079588 -2.8876e-05 -0.00035012 -0.013481 -0.0093706
0.089777 0.21453 -0.0094952 -0.0087651
0.00033219 -0.0013806 0.0012515 0.00024401 0.0004295 0.00020923 -0.00073918 -0.00062258
-0.0094586 -0.0087908 0.11771 0.30546
1460000000 0.27373 0.15158 -0.020248 0.0046153 0.0055285 -0.0017997 -0.0015628 0.0016829
0.0020901 -0.00059744 -0.00036841 -0.0010046
-0.020235 0.0045948 0.11418 0.33779 -0.0062669 0.015163 0.001755 0.00018142
0.00088621 -0.001247 0.0011918 -0.0006016
0.0055288 -0.0018104 -0.0062014 0.015222 0.35869 0.0062925 -0.0011938 -0.0012743
0.00019813 -0.00029611 0.00054147 -0.00031921
-0.0015648 0.0016858 0.0017657 0.0001667 -0.0011921 -0.0012684 0.19553 0.17986
-0.014665 -0.0030687 -0.0010052 0.0018091
0.0020849 -0.00061082 0.00087794 -0.0012571 0.0001942 -0.00030665 -0.014682 -0.0030371
0.11911 0.20043 -0.011398 -0.0030542
-0.00036118 -0.0010201 0.0011911 -0.00059305 0.00052954 -0.00032796 -0.0010145 0.0017822
-0.011377 -0.0030904 0.15098 0.285
1520000000 0.28573 0.10995 -0.014672 0.010137 0.0032699 -0.004134 8.6274e-05 0.0026166
0.0019817 -0.0017232 -0.0011511 -9.4691e-05
-0.014676 0.010124 0.14783 0.32308 0.0013496 0.01305 0.0016641 -0.00078616
5.2549e-05 -0.0010152 0.00037226 -0.0010554
0.0032636 -0.004136 0.0014389 0.013065 0.35197 -0.050026 -0.001048 -0.00038902
0.00067897 -0.00083628 -1.3379e-05 -8.8964e-05
9.2733e-05 0.0026155 0.0016535 -0.00080365 -0.0010539 -0.00038941 0.21926 0.14205
-0.014203 0.0021589 0.0012458 0.0020113
0.0019652 -0.0017343 3.7257e-05 -0.0010098 0.000683 -0.0008371 -0.014202 0.0021923
0.14721 0.1868 -0.011449 0.001225
-0.0011465 -9.3935e-05 0.00036076 -0.0010536 -1.3257e-05 -8.8331e-05 0.0012318 0.0020035
-0.011437 0.0011915 0.1846 0.26487
1580000000 0.29491 0.063857 -0.0081142 0.013248 -0.00085589 -0.0048561 0.0013822 0.0018641
-0.00033443 -0.0020354 -0.00039551 0.00037975
-0.0081211 0.013232 0.17522 0.29831 0.0050097 0.0083419 0.00045284 -0.0016031
-0.00055858 -0.0010671 -0.00025055 -0.00083929
-0.00087457 -0.0048589 0.00508 0.0083282 0.33143 -0.10768 -0.0015924 0.000561
-0.00032546 -0.0011418 0.00010145 -0.0004245
0.0013851 0.00186 0.00044805 -0.0016117 -0.0016027 0.00055781 0.23359 0.1027
-0.01114 0.0068952 0.0021726 0.00092079
-0.00034712 -0.0020384 -0.0005594 -0.001063 -0.00033305 -0.0011407 -0.011135 0.0069375
0.17191 0.16929 -0.0092187 0.0070273
-0.00038706 0.00039308 -0.00025782 -0.00084041 9.7658e-05 -0.00042051 0.0021707 0.00091235
-0.0092402 0.0069932 0.21735 0.23807
1640000000 0.29688 0.022767 -0.001483 0.012268 -0.0026851 -0.002553 0.0027022 0.00099049
-0.00063811 -0.0014316 -0.00018045 0.00057809
-0.0014932 0.012267 0.20474 0.27325 0.0058449 0.0036108 -0.00067471 -0.0017347
-0.0010129 -0.00042699 -0.0004913 -0.00071699
-0.0026977 -0.0025422 0.0058899 0.0035772 0.30315 -0.15686 -0.00070776 0.0014451
-0.001067 -0.00099667 -9.2096e-05 -0.0004841
0.0027026 0.00097204 -0.00069108 -0.001727 -0.00071356 0.0014419 0.24629 0.05366
-0.0071592 0.0082092 0.0024338 -0.00067423
-0.00063886 -0.0014226 -0.0010178 -0.00042351 -0.0010692 -0.00099708 -0.0071501 0.0082278
0.19479 0.14513 -0.0047901 0.0090359
-0.00017635 0.00058241 -0.00049749 -0.00071198 -0.00011784 -0.00048716 0.002433 -0.00067611
-0.0048247 0.0090194 0.24288 0.20703
1700000000 0.2896 -0.022531 0.0019662 0.0095086 -0.0034222 9.6106e-05 0.0030002 -0.0011984
-0.0019335 -0.00069939 0.0006792 0.00042628
0.0019624 0.0095034 0.22296 0.2416 0.0039216 0.00079369 -0.0014966 -0.0005602
-0.00081167 6.1704e-05 -0.00094334 -0.00043292
-0.0034293 0.0001095 0.003934 0.00076327 0.25957 -0.19667 0.00040031 0.0016827
-0.0019288 -0.00015207 -0.00047239 -0.00083235
0.0029944 -0.0012105 -0.0014985 -0.00055042 0.00038964 0.0016846 0.24339 0.0037167
-0.0046429 0.0089716 0.0015108 -0.0021569
-0.0019279 -0.00068637 -0.00080928 7.1742e-05 -0.00193 -0.00014318 -0.0046195 0.0089965
0.2124 0.12518 -0.00010526 0.009412
0.00068003 0.00041903 -0.00093823 -0.0004313 -0.00047764 -0.00084361 0.0014957 -0.0021509
-0.0001316 0.0094107 0.25944 0.1724
1760000000 0.27731 -0.070985 0.0043265 0.0063026 -0.0022331 0.00091076 0.0013274 -0.0033865
-0.0012644 0.00066561 0.00044232 -0.00067051
0.0043211 0.0062995 0.24884 0.2015 0.0017603 -0.0010056 -0.0011755 0.00022608
-0.0010285 0.00091534 -0.00059774 0.00041429
-0.0022428 0.00092806 0.0017582 -0.0010208 0.21061 -0.22946 0.001239 0.0011413
-0.0011693 0.0014801 -0.0013081 -0.00054191
0.0013104 -0.0033876 -0.0011796 0.00023294 0.0012501 0.0011387 0.23422 -0.048045
-0.001313 0.008382 -0.0002113 -0.002476
-0.0012525 0.00068094 -0.0010184 0.00092592 -0.0011522 0.00148 -0.0012875 0.0083902
0.22753 0.090139 0.003792 0.0069294
0.00043193 -0.00066938 -0.00058955 0.00042575 -0.0012925 -0.0005457 -0.00020941 -0.0024614
0.0037875 0.0069575 0.27213 0.13465
1820000000 0.25262 -0.10829 0.0045822 0.002684 -4.3334e-05 0.0023408 -0.00096535 -0.0030755
-0.0010728 0.00084809 -8.3504e-05 -0.00014337
0.0045792 0.0026832 0.25872 0.1713 -0.00014381 -7.5172e-05 -0.0012701 0.00094321
-3.7259e-05 0.0013581 -0.00051258 0.00055786
-4.1538e-05 0.0023316 -0.00014407 -8.2869e-05 0.16062 -0.24546 0.0015236 0.00041786
-0.00024836 0.0022877 -0.0013072 0.000378
-0.00098521 -0.003062 -0.001273 0.00095271 0.0015078 0.00041551 0.20417 -0.095278
0.0001735 0.0068033 -0.001563 -0.001538
-0.0010656 0.0008566 -2.1336e-05 0.0013529 -0.00022446 0.0022904 0.0001895 0.00681
0.24484 0.061179 0.0047244 0.0035071
-7.8887e-05 -0.0001506 -0.00051158 0.00056983 -0.0013513 0.00038591 -0.0015671 -0.0015229
0.0047274 0.0035222 0.27459 0.098704
1880000000 0.21742 -0.14851 0.0024131 0.00034828 -0.00045936 0.0020025 -0.002933 -0.0021516
-0.00027335 0.0016416 0.00020158 -0.00049333
0.0024069 0.00034546 0.26288 0.12453 -0.0022206 0.0015549 -0.00015213 0.0016987
0.00065309 0.0012229 0.00012623 0.00091013
-0.00046562 0.0020014 -0.0022205 0.0015643 0.10838 -0.255 0.0018694 -0.00097817
0.0015715 0.0019814 -0.00095315 0.0013002
-0.0029468 -0.0021489 -0.00013724 0.0017032 0.0018648 -0.00097746 0.16335 -0.13548
0.00089526 0.0048695 -0.0024367 0.00044673
-0.00025984 0.0016487 0.0006589 0.0012173 0.0015745 0.0019817 0.00090905 0.0048614
0.24795 0.028428 0.0048349 0.0013701
0.00021058 -0.00048737 0.00012697 0.00091114 -0.00094894 0.0012834 -0.0024273 0.00044033
0.0048461 0.0013779 0.27422 0.06451
1940000000 0.17793 -0.17414 0.00015289 -0.0013738 0.0012349 0.0018939 -0.003797 0.00050924
0.0012567 0.00099136 -0.00064039 -0.00051618
0.00014555 -0.001372 0.26308 0.092719 -0.0011056 0.0037622 0.0010226 0.0012923
0.0018963 0.00042661 0.00084884 0.00027676
0.0012464 0.0018972 -0.0010782 0.0037721 0.062379 -0.24807 0.00033708 -0.0022636
0.0024255 0.00039527 0.00033842 0.001544
-0.0037861 0.00052102 0.0010258 0.0012857 0.00032982 -0.0022703 0.11094 -0.16554
-5.6079e-05 0.0036943 -0.0014708 0.0015102
0.0012757 0.00097928 0.0019086 0.00041263 0.002426 0.00040501 -5.3856e-05 0.0037059
0.24975 -0.010544 0.0036605 -0.0020007
-0.00065218 -0.00050338 0.00085613 0.00027702 0.00034508 0.0015627 -0.0014625 0.0015089
0.0036842 -0.0020135 0.26333 0.028706
2000000000 0.1315 -0.18866 -0.0037373 0.00062995 0.0024319 0.0017339 -0.0023194 0.0035121
0.0010858 0.00020386 -0.00067592 0.00040489
-0.0037454 0.00062799 0.24853 0.05734 -0.0010464 0.0056439 0.0016286 0.00033728
0.0013372 -0.0014415 0.0004618 7.4883e-05
0.0024375 0.0017318 -0.0010177 0.0056591 0.018973 -0.23344 -0.0013006 -0.0013417
0.0019402 -0.0011308 0.0014974 0.0012354
-0.0022974 0.0035288 0.0016453 0.0003325 -0.0013054 -0.0013395 0.057502 -0.1753
-0.0016455 0.0035979 -3.1994e-05 0.0022788
0.0010932 0.00019244 0.0013282 -0.0014494 0.0019575 -0.0011478 -0.0016335 0.0036069
0.24367 -0.044531 0.00029147 -0.002719
