!Keysight Technologies,M9804A,MY58100912,A.14.10.03
!Date: Thursday, April 27, 2023 10:28:33
!Correction: S11(C  6-Port  ) 
!S12(C  6-Port  ) 
!S13(C  6-Port  ) 
!S14(C  6-Port  ) 
!S15(C  6-Port  ) 
!S16(C  6-Port  ) 
!S21(C  6-Port  ) 
!S22(C  6-Port  ) 
!S23(C  6-Port  ) 
!S24(C  6-Port  ) 
!S25(C  6-Port  ) 
!S26(C  6-Port  ) 
!S31(C  6-Port  ) 
!S32(C  6-Port  ) 
!S33(C  6-Port  ) 
!S34(C  6-Port  ) 
!S35(C  6-Port  ) 
!S36(C  6-Port  ) 
!S41(C  6-Port  ) 
!S42(C  6-Port  ) 
!S43(C  6-Port  ) 
!S44(C  6-Port  ) 
!S45(C  6-Port  ) 
!S46(C  6-Port  ) 
!S51(C  6-Port  ) 
!S52(C  6-Port  ) 
!S53(C  6-Port  ) 
!S54(C  6-Port  ) 
!S55(C  6-Port  ) 
!S56(C  6-Port  ) 
!S61(C  6-Port  ) 
!S62(C  6-Port  ) 
!S63(C  6-Port  ) 
!S64(C  6-Port  ) 
!S65(C  6-Port  ) 
!S66(C  6-Port  ) 
!S6P File: Measurement: :
# Hz S  RI   R 50
500000000 -0.33425 -0.051736 -0.010159 -0.0017815 -0.0089272 0.013048 -0.0040574 0.01171
0.012108 0.0063704 -0.0039718 0.007954
-0.010154 -0.0017587 -0.41735 -0.06207 0.0078955 -0.010443 0.0020539 0.011834
0.0074217 0.0029168 0.0017492 0.013518
-0.0089342 0.013068 0.0078837 -0.010457 -0.26648 0.19994 0.007097 0.0037043
-0.0017618 0.0084441 0.00091271 0.012928
-0.0040332 0.011752 0.0021413 0.011844 0.0070955 0.0037208 -0.33167 0.044374
-0.017856 -0.0055544 0.016872 0.025316
0.012147 0.0063349 0.0074253 0.0028573 -0.0017841 0.0084677 -0.01784 -0.0054633
-0.25041 -0.19113 -0.025691 0.0037776
-0.0039119 0.0080067 0.0019194 0.013748 0.00095104 0.013051 0.016788 0.025325
-0.025681 0.0037317 -0.27318 -0.11615
560000000 -0.31825 0.11411 -0.023478 -0.064842 -0.00027928 0.012768 0.0070921 0.011278
0.010617 0.0043004 0.010498 0.0075606
-0.023599 -0.064651 -0.37512 0.099765 -0.041966 -0.036607 0.013619 0.0035271
-0.012486 -0.004213 0.0042198 -0.00013128
-0.0002371 0.012706 -0.042105 -0.036572 -0.18567 0.25053 -0.00010332 -0.0046314
0.01922 0.0048341 0.0069811 -0.0052005
0.0070747 0.011244 0.013486 0.0036453 -9.9052e-05 -0.0046596 -0.30784 0.13576
0.005859 -0.022981 0.0047193 -0.020818
0.010742 0.004126 -0.012623 -0.0039098 0.019156 0.0045017 0.0060381 -0.022975
-0.31001 -0.010699 0.0077219 -0.048101
0.010471 0.0075093 0.0042251 -0.00036276 0.0070881 -0.0051863 0.004671 -0.02076
0.0076365 -0.048135 -0.33063 0.028085
620000000 -0.27735 0.094676 -0.023234 0.0087535 0.0038865 0.009781 0.0087145 -0.0043705
0.01245 -0.00044382 0.0015447 -0.0021989
-0.023203 0.0087546 -0.40361 0.050434 -0.018094 0.00073669 -0.0012569 -0.0020983
0.01243 -0.0065077 0.0012094 -0.0027891
0.0039424 0.0097785 -0.018122 0.00079097 -0.15496 0.26141 -0.00084136 -0.0048901
-0.0027715 -0.0032119 0.0090066 -0.0029321
0.0087202 -0.0044043 -0.0012763 -0.0020772 -0.00080055 -0.0048649 -0.26489 0.14643
-0.037635 -0.019639 0.013876 0.02653
0.01246 -0.00047639 0.012433 -0.0065555 -0.0027554 -0.0031585 -0.037725 -0.019595
-0.23286 -0.044405 -0.040354 0.011218
0.0015464 -0.0022846 0.0013498 -0.0029045 0.0090096 -0.0029177 0.013806 0.026473
-0.040275 0.011189 -0.25314 -0.0019329
680000000 -0.23838 0.18404 -0.02628 -0.014618 0.0051194 0.0050941 0.0016845 -0.0077497
-0.0026951 -0.011909 0.0044244 -0.007352
-0.026253 -0.014588 -0.38968 0.15095 -0.03241 -0.0020218 -0.0013327 -0.00073838
-0.0019692 -0.009406 -0.0012239 -0.0017358
0.0051042 0.005123 -0.032441 -0.0019392 -0.1036 0.28108 -0.00073396 -0.0005522
-0.0017377 0.00062769 -0.0029465 -0.0093314
0.0016809 -0.0077511 -0.0013278 -0.00073489 -0.00078168 -0.0005023 -0.22054 0.19781
-0.023226 -0.0079557 -0.0084631 -0.011753
-0.0026536 -0.012 -0.0019429 -0.0094217 -0.0018096 0.000707 -0.023282 -0.0078153
-0.27722 0.059093 -0.0072888 -0.0069759
0.0044768 -0.0074561 -0.001162 -0.0016995 -0.0029371 -0.0093026 -0.0084902 -0.011742
-0.0072555 -0.0069523 -0.25984 0.096972
740000000 -0.19276 0.17765 -0.039654 0.026495 0.013682 -0.0047286 -0.00037042 -0.0040096
-0.0044295 -0.0023337 -0.0066335 0.0034678
-0.039599 0.02647 -0.33447 0.16974 -0.036831 0.034981 2.3757e-05 -0.0058215
-0.012673 0.0067015 -0.0013672 -0.0055934
0.013659 -0.0047532 -0.036746 0.035112 -0.070109 0.27847 -0.0021045 0.0035501
-0.0018964 -0.0054471 -0.0014331 0.00079001
-0.00037096 -0.0040053 3.2079e-05 -0.005868 -0.0021563 0.0035913 -0.20355 0.20519
-0.042438 -0.0080026 0.0213 0.015081
-0.0043257 -0.0022867 -0.012905 0.0068689 -0.0018565 -0.0055393 -0.042584 -0.0078918
-0.1784 0.084032 -0.040823 -0.00088241
-0.0066772 0.0035797 -0.0013089 -0.0057206 -0.0012688 0.00087656 0.021381 0.015066
-0.04082 -0.00093127 -0.2478 0.10749
800000000 -0.16172 0.22152 -0.022698 0.016285 0.0056945 -0.010537 -0.0049441 -0.0024166
-0.0042809 0.0029208 0.0034831 0.00066615
-0.022674 0.016272 -0.34063 0.24027 -0.0084808 0.034138 -0.0024887 0.0020056
-0.0011261 0.0029406 0.00039823 0.0054379
0.005664 -0.010572 -0.008394 0.034196 -0.03078 0.30259 0.00055949 0.0014808
7.7177e-06 0.0036709 -0.0023049 0.00090935
-0.004957 -0.0023939 -0.0024587 0.0020409 0.00052107 0.0014945 -0.17341 0.23181
-0.028622 0.01347 0.013509 -0.010846
-0.0042785 0.0028814 -0.0010485 0.0028991 3.0312e-05 0.0036584 -0.028605 0.013479
-0.22006 0.1118 -0.017103 0.02009
0.0035081 0.00065106 0.00041551 0.0054854 -0.0023389 0.00088616 0.013542 -0.01086
-0.017135 0.020057 -0.2392 0.15287
860000000 -0.12684 0.24155 -0.018216 0.030376 -0.0030535 -0.010277 -0.0019187 0.0006919
0.0038596 0.0053604 -0.0035278 -0.0029839
-0.018168 0.030401 -0.29262 0.28238 0.0073382 0.034162 8.6881e-05 0.0021873
0.0038558 0.00054266 0.0028686 0.00051877
-0.0030929 -0.01025 0.0074363 0.034171 0.016532 0.31066 -0.00076626 -0.00012282
0.0025416 -0.001464 0.0017185 0.004163
-0.0018998 0.00066524 5.2148e-05 0.0021558 -0.00075423 -0.0001637 -0.13757 0.24305
-0.018032 0.017453 -0.0065574 -0.0085179
0.0039231 0.0053167 0.0038974 0.00063356 0.0024993 -0.00138 -0.018012 0.017546
-0.1641 0.16264 -0.024107 0.017172
-0.0035531 -0.0030113 0.0028557 0.00047746 0.0017552 0.0041234 -0.0065236 -0.0085419
-0.024106 0.017148 -0.1887 0.19843
920000000 -0.10306 0.26475 0.004509 0.038233 -0.0093714 -0.0049405 -0.0019444 0.0018465
0.0011912 0.0020918 0.0029012 -0.0012008
0.0045128 0.038188 -0.26504 0.30394 0.027988 0.022746 0.0014284 0.0011851
0.007293 -9.6166e-05 0.0040495 -0.0029045
-0.0093915 -0.0049222 0.028074 0.022695 0.062028 0.31228 0.0020285 4.0751e-05
0.001009 -8.7995e-05 0.0011856 -0.0012333
-0.001929 0.001846 0.0014626 0.0012092 0.0020419 3.7004e-05 -0.11259 0.25932
-0.011221 0.030347 0.0038414 -0.0065829
0.0011762 0.0021139 0.0072552 -0.00010451 0.00095069 -8.3476e-05 -0.011186 0.030363
-0.15171 0.1699 -0.0020809 0.026427
0.0029166 -0.0012157 0.0039982 -0.0028697 0.0011558 -0.0011163 0.0037774 -0.006615
-0.0021154 0.02641 -0.19374 0.21249
980000000 -0.05675 0.2847 0.016796 0.030326 -0.009402 0.004242 0.0018305 0.003787
0.0038159 -0.0013818 -0.0025452 -0.0024131
0.016787 0.030296 -0.21203 0.33871 0.033284 0.0054321 0.0020821 2.1427e-05
0.0015548 -0.0061378 -0.00019498 -0.0023355
-0.0093883 0.004241 0.033328 0.0053385 0.10791 0.30636 0.00067206 -0.0011533
0.00049326 -0.0020164 0.0015056 -0.00017866
0.0018271 0.0037739 0.0020664 5.5805e-05 0.00065502 -0.0011604 -0.074606 0.2706
0.0071583 0.030022 -0.0090658 -0.0068679
0.0037901 -0.0013764 0.0015584 -0.00613 0.00050684 -0.0019865 0.0072202 0.030048
-0.11905 0.19809 0.0063965 0.019753
-0.0025513 -0.0023792 -0.00015687 -0.0023369 0.001568 -0.00019801 -0.0090102 -0.0068451
0.0063427 0.019745 -0.15087 0.25538
1040000000 -0.015433 0.2939 0.032829 0.018934 -0.0015289 0.0070069 0.0026358 0.00077783
0.00064749 -0.0035513 -0.00025656 -0.0014295
0.032833 0.018905 -0.17688 0.35199 0.030097 -0.014538 0.0016518 -0.0017396
-0.0018682 -0.0026504 -0.0012486 -0.0029062
-0.0015035 0.0070147 0.030064 -0.014627 0.15366 0.29353 -0.00043629 -0.0016284
-0.0013682 -0.0009652 -0.00057697 -0.001093
0.0026311 0.00076567 0.0016797 -0.0017433 -0.00044907 -0.0016295 -0.047254 0.28022
0.019071 0.018273 -0.0024247 0.0013938
0.00061809 -0.0035581 -0.0018955 -0.0026831 -0.0013907 -0.00097773 0.019127 0.018216
-0.08475 0.20461 0.013564 0.017724
-0.00024926 -0.0014682 -0.0012668 -0.002879 -0.00054715 -0.001114 -0.0024398 0.0013686
0.013563 0.017744 -0.12787 0.27568
1100000000 0.029795 0.30287 0.0364 -0.0034692 0.0027841 0.0040909 0.0024728 -0.0011606
-0.00209 -0.0030971 -0.0040762 -0.00024703
0.036368 -0.0034577 -0.13382 0.37 0.015941 -0.027913 0.00016155 -0.0018584
-0.0037059 -0.00083191 -0.0034941 -0.0006315
0.0027964 0.0040788 0.01585 -0.027992 0.19987 0.27414 -0.0019153 9.8421e-05
-0.0016841 0.00038222 -0.0010476 -0.00044309
0.0024621 -0.0011666 0.00014639 -0.0018544 -0.001925 9.31e-05 -0.0069094 0.28516
0.024615 0.0052289 -0.0024675 0.00027932
-0.0021081 -0.0030711 -0.003742 -0.00079204 -0.0016808 0.00041651 0.024629 0.0052151
-0.064388 0.21734 0.019466 0.008136
-0.0040771 -0.0002285 -0.0035131 -0.00064613 -0.0010863 -0.00045489 -0.0024582 0.00029285
0.019445 0.0081227 -0.08201 0.30307
1160000000 0.080624 0.29877 0.024521 -0.020479 0.0027863 -0.00036058 -2.2828e-05 -0.0024746
-0.0039888 -0.00074164 -0.00093548 0.0038222
0.024528 -0.020485 -0.090649 0.37455 -0.0032457 -0.029625 -0.0016614 -0.0016788
-0.0027199 0.0025562 -0.0014357 0.0018293
0.0028005 -0.00038419 -0.0033812 -0.029628 0.243 0.2441 -0.00086326 0.0017769
-0.00062156 0.0019444 -0.00088803 0.00028598
-2.6062e-05 -0.0024712 -0.0016673 -0.0016593 -0.00086332 0.0017891 0.032107 0.28239
0.020999 -0.01024 -0.0030325 0.0050917
-0.0039893 -0.00071328 -0.0027308 0.002584 -0.00064313 0.0019689 0.021008 -0.010291
-0.029912 0.22489 0.018561 -0.00065802
-0.0008923 0.0038354 -0.0014019 0.0018758 -0.00088298 0.00031683 -0.0030223 0.0051085
0.018583 -0.00066192 -0.03562 0.30525
1220000000 0.12494 0.28903 0.011134 -0.030161 -0.0016249 -0.00084255 -5.9238e-05 -0.00090598
-0.0026921 0.0022211 0.0012492 0.0020741
0.01114 -0.030141 -0.046599 0.38766 -0.016878 -0.021903 -0.0027119 0.00044796
2.575e-05 0.0031125 -0.00077441 0.0018744
-0.0016322 -0.00084671 -0.016991 -0.021861 0.28232 0.20583 0.00074074 0.001716
0.00063886 0.0011709 0.00023589 0.00051621
-5.5856e-05 -0.00090735 -0.0027074 0.00045185 0.00074111 0.0017095 0.072204 0.27432
0.010531 -0.016871 0.002092 0.0016634
-0.0027145 0.0022101 5.3897e-05 0.0031209 0.00062971 0.0011553 0.010498 -0.016889
-0.0057813 0.23269 0.013132 -0.013217
0.0012662 0.0020606 -0.00076174 0.0018888 0.00023919 0.00050971 0.0020988 0.0016497
0.013124 -0.013234 -0.0033246 0.32
1280000000 0.1751 0.26828 -0.0076759 -0.028919 -0.002019 0.0024048 -0.00089403 -0.0020582
-0.00077199 0.0031635 0.0024444 0.0012418
-0.0076543 -0.028904 -0.00057106 0.37929 -0.024195 -0.0091078 -0.0010102 0.001482
0.0018309 0.0017551 0.00063459 0.0019583
-0.0020127 0.0024138 -0.024265 -0.0090123 0.31311 0.16225 0.0016038 -5.6287e-05
0.0012386 0.00029186 0.00032709 0.00021004
-0.00090142 -0.0020543 -0.001006 0.0014797 0.0015822 -5.3302e-05 0.10906 0.25799
0.00082531 -0.019118 -4.9399e-05 0.00040123
-0.00076549 0.0031534 0.0018253 0.0017383 0.0012386 0.0002854 0.00080128 -0.01912
0.030797 0.23516 0.0029962 -0.015298
0.0024363 0.0012367 0.00065758 0.0019652 0.00034244 0.00019472 -4.7947e-05 0.00039863
0.0029853 -0.015274 0.043172 0.32041
1340000000 0.21256 0.23556 -0.01762 -0.019308 0.00082961 0.004786 -0.0018643 -0.00089078
0.0015581 0.0026551 0.001739 -0.0013601
-0.017614 -0.019294 0.038822 0.37191 -0.022066 0.0040514 -0.00012691 0.0020391
0.0020135 0.0007106 0.001262 0.00088764
0.0008448 0.004782 -0.022075 0.0041592 0.33543 0.1153 0.0010432 -0.0009385
0.00069854 -0.00058298 7.7302e-05 0.00016122
-0.0018706 -0.00088352 -0.0001187 0.0020383 0.0010536 -0.00094693 0.14232 0.23773
-0.0085274 -0.01642 0.00092965 0.00052248
0.0015735 0.0026517 0.0020304 0.00068964 0.00068256 -0.0005939 -0.0085751 -0.016401
0.060971 0.23031 -0.0040925 -0.014045
0.0017181 -0.0013789 0.0012705 0.00088085 7.2873e-05 0.00017621 0.00095505 0.00052036
-0.0040864 -0.014073 0.08158 0.31514
1400000000 0.24645 0.19819 -0.023597 -0.0076865 0.0052895 0.0034267 -0.0022357 0.00063451
0.0023907 0.00087173 0.0002678 -0.0015292
-0.023593 -0.0076799 0.076519 0.35952 -0.015481 0.012581 0.0013752 0.0012747
0.0013058 -0.00087915 0.0010967 0.0001943
0.0053234 0.0034012 -0.015441 0.012675 0.34897 0.062069 4.0284e-05 -0.0015452
2.7516e-05 -0.00029063 0.00038125 0.00018972
-0.0022473 0.00063801 0.001381 0.0012745 3.8383e-05 -0.0015372 0.17212 0.20876
-0.014441 -0.0095889 -0.00078537 -0.00029449
0.0024065 0.00087203 0.001305 -0.00088028 3.7717e-05 -0.0002878 -0.01448 -0.0095609
0.094081 0.22535 -0.010312 -0.0086878
0.00026419 -0.0015552 0.0011185 0.000188 0.00037721 0.00018737 -0.00078672 -0.00028979
-0.010322 -0.0086696 0.12538 0.30336
1460000000 0.26981 0.15448 -0.020517 0.0047393 0.0059363 -0.0017171 -0.0015898 0.0017992
0.0022076 -0.00039378 -0.00033928 -0.0010105
-0.020513 0.0047507 0.11107 0.33796 -0.0064135 0.01587 0.0017191 0.0001296
0.00080029 -0.0013863 0.001235 -0.00062706
0.0059358 -0.0017504 -0.0063426 0.015914 0.35555 0.0080664 -0.0011803 -0.0012767
0.00015247 -0.00020388 0.00061708 -0.00028481
-0.0015931 0.0018031 0.0017235 0.00012989 -0.0011713 -0.0012756 0.1989 0.17928
-0.015621 -0.0029135 -0.00077365 0.0018303
0.0022109 -0.00041494 0.00079532 -0.0013986 0.00014977 -0.0001969 -0.015635 -0.0028748
0.12345 0.21075 -0.012266 -0.0029859
-0.00034628 -0.001005 0.0012276 -0.00063607 0.00059977 -0.00027874 -0.00077773 0.001825
-0.012244 -0.0029899 0.15817 0.28258
1520000000 0.28251 0.11309 -0.014866 0.010309 0.0036051 -0.0043358 9.3872e-05 0.0025767
0.0020963 -0.0019325 -0.0011685 -0.00025168
-0.014868 0.010315 0.14502 0.32377 0.0016054 0.013634 0.0015808 -0.00076452
-4.7047e-06 -0.0011082 0.00037129 -0.0010441
0.0035823 -0.0043525 0.0016709 0.01363 0.34928 -0.04773 -0.0010851 -0.00035527
0.00064155 -0.00080961 0.00011852 -0.00019081
0.00011746 0.0025831 0.0015717 -0.00077194 -0.0010733 -0.00035556 0.22251 0.14098
-0.014814 0.0028726 0.0014478 0.002064
0.0020841 -0.0019552 -1.4653e-05 -0.0011059 0.00063559 -0.00079945 -0.01481 0.0029142
0.1516 0.19695 -0.012026 0.0018479
-0.0011637 -0.00023828 0.00036706 -0.0010704 0.0001222 -0.00020406 0.0014559 0.0020516
-0.012033 0.00184 0.19102 0.26146
1580000000 0.29264 0.066838 -0.0081231 0.013487 -0.00088131 -0.0051543 0.0015625 0.0018652
-0.00013413 -0.0021799 -0.00032449 0.00038392
-0.0081069 0.013493 0.17267 0.299 0.0055009 0.008583 0.00052811 -0.0015296
-0.00056876 -0.00095636 -0.00019648 -0.00084936
-0.00090694 -0.0051441 0.0055551 0.0085657 0.32993 -0.10556 -0.0015791 0.00058115
-0.00030177 -0.0011807 0.00021125 -0.00051293
0.0015644 0.0018667 0.00051326 -0.0015349 -0.0015752 0.00058712 0.23657 0.10094
-0.011323 0.0076314 0.0022246 0.00071526
-0.00015017 -0.0021914 -0.00057489 -0.0009568 -0.00031248 -0.0011893 -0.011318 0.0076771
0.17575 0.17879 -0.0092355 0.0074689
-0.00031043 0.00039738 -0.0002016 -0.0008465 0.00020073 -0.00051161 0.0022293 0.00070634
-0.0092443 0.007469 0.22206 0.23431
1640000000 0.29496 0.025656 -0.0013825 0.012329 -0.0029258 -0.0028034 0.0027039 0.0010163
-0.00076752 -0.0015589 -0.00033281 0.00062327
-0.001355 0.012333 0.20244 0.27428 0.0062894 0.0034452 -0.00061281 -0.0017562
-0.0009663 -0.00034989 -0.0004975 -0.00070445
-0.0029326 -0.0027933 0.006317 0.0034141 0.30182 -0.15501 -0.00066948 0.0013871
-0.001023 -0.0010348 -0.00016869 -0.00032086
0.0027209 0.0010057 -0.00062488 -0.0017445 -0.00067279 0.0014056 0.24888 0.05175
-0.006953 0.0089437 0.0024534 -0.00081476
-0.00079144 -0.001545 -0.00096896 -0.00034887 -0.0010266 -0.0010347 -0.0069389 0.008966
0.19922 0.15481 -0.0047528 0.0094267
-0.00034435 0.00062303 -0.00049667 -0.00070176 -0.00016061 -0.00030507 0.0024513 -0.00082805
-0.0047658 0.0094055 0.24745 0.20325
1700000000 0.28827 -0.019745 0.0020144 0.0094424 -0.0037027 -0.00013199 0.003079 -0.0011811
-0.0019601 -0.00061625 0.00061341 0.00040889
0.0020332 0.0094324 0.22095 0.2428 0.0041999 0.00042223 -0.0014537 -0.00063475
-0.00081356 1.9604e-05 -0.00089968 -0.00043792
-0.0037077 -0.00012706 0.0041977 0.00040907 0.25859 -0.19487 0.00038395 0.0015311
-0.0019563 -0.00012018 -0.00042327 -0.00087987
0.0030728 -0.0011914 -0.0014703 -0.00063177 0.0003924 0.0015303 0.24557 0.0013704
-0.0041811 0.0093635 0.0015504 -0.0021954
-0.001991 -0.00060242 -0.00081172 1.5209e-05 -0.0019856 -0.00010574 -0.0041591 0.0093932
0.21649 0.1339 -4.3891e-05 0.0098551
0.00061087 0.00038991 -0.00089501 -0.00044369 -0.00040182 -0.00087075 0.0015361 -0.002178
-4.2988e-05 0.0098774 0.26356 0.16872
1760000000 0.27641 -0.068409 0.0043926 0.0062041 -0.0025015 0.0010769 0.0013135 -0.0034201
-0.0013941 0.00059133 0.00032228 -0.00047956
0.0043956 0.0061882 0.2471 0.20299 0.001788 -0.0014391 -0.0011988 0.00011958
-0.0010312 0.00085135 -0.0006266 0.00037471
-0.0024998 0.0010804 0.0017849 -0.0014449 0.21006 -0.22789 0.001104 0.001111
-0.001289 0.0015409 -0.0011795 -0.00063487
0.001292 -0.0034353 -0.0011984 0.00012964 0.0011135 0.0011106 0.23604 -0.050752
-0.0008779 0.0083616 -0.00027224 -0.0025914
-0.0013833 0.0006455 -0.0010347 0.00086776 -0.0012936 0.0015262 -0.00087078 0.0083627
0.23149 0.099114 0.0038551 0.0070148
0.00029334 -0.00048395 -0.00062104 0.00037618 -0.0011944 -0.00065193 -0.00027994 -0.0026
0.0038469 0.0070056 0.27572 0.1311
1820000000 0.25217 -0.10577 0.0045728 0.0025851 -0.00028716 0.0024432 -0.0010195 -0.0031645
-0.0011206 0.00099817 -0.0001165 -8.688e-05
0.0045624 0.0025681 0.25741 0.17295 -0.00057218 -0.00042078 -0.0013367 0.00091392
-0.00011288 0.0012512 -0.00068512 0.00052729
-0.00027123 0.002465 -0.00057172 -0.00041334 0.15982 -0.24395 0.0016471 0.00049891
-0.00021052 0.0024262 -0.0015654 0.00039518
-0.0010474 -0.0031697 -0.0013277 0.00092268 0.0016402 0.00048864 0.20539 -0.097763
0.00047969 0.0069884 -0.0017591 -0.0013628
-0.0011109 0.00098739 -9.6012e-05 0.0012623 -0.00019649 0.0024324 0.00049475 0.0069946
0.24845 0.070007 0.0046085 0.0038966
-0.00011162 -7.2803e-05 -0.00068007 0.0005421 -0.0015836 0.00039779 -0.0017543 -0.0013463
0.0046052 0.0038988 0.27773 0.094757
1880000000 0.21705 -0.14642 0.0023759 0.00024994 -0.00056118 0.0021806 -0.0028893 -0.0023043
-0.00017335 0.0018607 0.00016159 -0.00050432
0.0023755 0.0002298 0.262 0.12624 -0.0025811 0.0014681 -0.00033013 0.0017294
0.00050669 0.0013278 2.6047e-05 0.00099397
-0.00054919 0.0021701 -0.002586 0.001486 0.10785 -0.25363 0.0017678 -0.00075057
0.0015535 0.0021004 -0.00094612 0.0013508
-0.0029189 -0.0022832 -0.00033262 0.0017329 0.0017443 -0.00074626 0.16427 -0.13801
0.0011726 0.0051461 -0.0024509 0.00029167
-0.00017439 0.0018526 0.00052163 0.0013259 0.0015623 0.0020684 0.0011862 0.0051115
0.25204 0.038183 0.0050642 0.0013982
0.00018561 -0.00050524 4.8253e-05 0.0010043 -0.00090802 0.0013454 -0.0024719 0.00031197
0.0050469 0.0013863 0.27717 0.060642
1940000000 0.1776 -0.17174 -8.0349e-05 -0.001361 0.0014405 0.0023032 -0.0038431 0.0005336
0.0013068 0.001142 -0.00042047 -0.00051478
-8.4835e-05 -0.0013721 0.26263 0.094488 -0.0014753 0.0041333 0.0010627 0.0014186
0.0018886 0.00061007 0.0010786 0.00040572
0.0014459 0.0022999 -0.0014415 0.0041578 0.06176 -0.24614 0.0006688 -0.0022674
0.0026089 0.00042196 0.00068101 0.0016498
-0.003834 0.00058167 0.0010744 0.001406 0.00067537 -0.0022763 0.11137 -0.16801
0.00043709 0.0038156 -0.0013932 0.0016384
0.0012851 0.0011194 0.0018958 0.00059352 0.0026178 0.00040633 0.00043258 0.0038386
0.25472 -0.00014881 0.0036673 -0.0017561
-0.00042743 -0.00048701 0.0010683 0.00039283 0.00070815 0.0016867 -0.00138 0.0016235
0.0036569 -0.0017462 0.26605 0.024284
2000000000 0.13172 -0.18682 -0.003892 0.00059939 0.0026629 0.0015894 -0.0024143 0.0037643
0.0012966 0.00053425 -0.00066485 0.00051555
-0.0039001 0.00058446 0.24863 0.05878 -0.00091584 0.0059178 0.0016102 0.00048828
0.001381 -0.0010657 0.00059304 0.00022804
0.0026805 0.0015802 -0.00087827 0.0059211 0.019028 -0.23212 -0.0011551 -0.0014387
0.002206 -0.0012023 0.0018941 0.0012954
-0.0023695 0.0037588 0.0016056 0.0004802 -0.0011714 -0.0014343 0.057571 -0.17728
-0.0012415 0.0037413 -3.7709e-06 0.0021757
0.0013169 0.00053745 0.0013698 -0.0010778 0.002219 -0.0012174 -0.0012179 0.0037252
0.24948 -0.033441 0.00073637 -0.0024601
