!Keysight Technologies,M9804A,MY58100912,A.14.10.03
!Date: Thursday, April 27, 2023 10:28:33
!Correction: S11(C  6-Port  ) 
!S12(C  6-Port  ) 
!S13(C  6-Port  ) 
!S14(C  6-Port  ) 
!S15(C  6-Port  ) 
!S16(C  6-Port  ) 
!S21(C  6-Port  ) 
!S22(C  6-Port  ) 
!S23(C  6-Port  ) 
!S24(C  6-Port  ) 
!S25(C  6-Port  ) 
!S26(C  6-Port  ) 
!S31(C  6-Port  ) 
!S32(C  6-Port  ) 
!S33(C  6-Port  ) 
!S34(C  6-Port  ) 
!S35(C  6-Port  ) 
!S36(C  6-Port  ) 
!S41(C  6-Port  ) 
!S42(C  6-Port  ) 
!S43(C  6-Port  ) 
!S44(C  6-Port  ) 
!S45(C  6-Port  ) 
!S46(C  6-Port  ) 
!S51(C  6-Port  ) 
!S52(C  6-Port  ) 
!S53(C  6-Port  ) 
!S54(C  6-Port  ) 
!S55(C  6-Port  ) 
!S56(C  6-Port  ) 
!S61(C  6-Port  ) 
!S62(C  6-Port  ) 
!S63(C  6-Port  ) 
!S64(C  6-Port  ) 
!S65(C  6-Port  ) 
!S66(C  6-Port  ) 
!S6P File: Measurement: :
# Hz S  RI   R 50
500000000 -0.33467 -0.051492 -0.010231 -0.0012081 -0.0083937 0.013107 -0.0044018 0.012293
0.011809 0.004724 -0.0044175 0.0087505
-0.010221 -0.0012426 -0.4173 -0.06184 0.0080651 -0.01021 0.0012737 0.012406
0.0077181 0.0022995 0.0010097 0.013764
-0.0085405 0.01324 0.0079 -0.010379 -0.26675 0.2005 0.0069568 0.0036556
-0.0016974 0.0086587 0.00073846 0.012833
-0.0044411 0.012579 0.0014472 0.012474 0.0070068 0.0037517 -0.33152 0.044808
-0.018917 -0.0055517 0.016594 0.025091
0.012191 0.0052728 0.0075361 0.0022359 -0.0017092 0.0085156 -0.018839 -0.0054873
-0.24961 -0.19161 -0.026008 0.0034023
-0.0041989 0.0088379 0.0012077 0.014006 0.00095484 0.012927 0.016531 0.025084
-0.026078 0.0032994 -0.27314 -0.11729
560000000 -0.31768 0.11471 -0.023406 -0.064737 0.00026716 0.012897 0.0060833 0.01059
0.01018 0.0047119 0.01056 0.007776
-0.023658 -0.064453 -0.3751 0.10122 -0.042543 -0.03749 0.014039 0.003626
-0.012799 -0.0050209 0.0041688 -0.00037037
0.00015055 0.01286 -0.04288 -0.03735 -0.18542 0.25055 -1.4617e-05 -0.0040528
0.018948 0.0039928 0.0072786 -0.004784
0.0056226 0.010692 0.014025 0.0036523 0.0001709 -0.0040183 -0.30718 0.13583
0.0072725 -0.0229 0.0039538 -0.020697
0.010037 0.0047431 -0.012735 -0.0050869 0.018924 0.0040694 0.0070099 -0.023045
-0.30876 -0.01187 0.0075644 -0.047215
0.010219 0.0078688 0.0039992 -0.00061179 0.0073322 -0.0046237 0.0041724 -0.020715
0.0076023 -0.047156 -0.33049 0.028994
620000000 -0.27677 0.093802 -0.022792 0.0087645 0.0036004 0.0095069 0.0079105 -0.0041669
0.013011 -0.0010473 0.0002655 -0.0014954
-0.023003 0.0087779 -0.40345 0.050574 -0.018162 0.00069158 -0.0016257 -0.0020087
0.012451 -0.0065948 0.0012101 -0.0027973
0.0036577 0.0095555 -0.018199 0.00059898 -0.15478 0.26143 -0.0013668 -0.0045944
-0.0025872 -0.0039603 0.0087005 -0.002678
0.0082 -0.003908 -0.001481 -0.0020947 -0.0010079 -0.0044848 -0.26531 0.14736
-0.037605 -0.020101 0.012275 0.026648
0.012861 -0.0014429 0.012384 -0.0066407 -0.0028692 -0.0039432 -0.037734 -0.020077
-0.23169 -0.04396 -0.039914 0.011382
0.00059999 -0.0015429 0.0012707 -0.0026543 0.0088885 -0.0024598 0.01226 0.026734
-0.039899 0.011431 -0.25263 -0.0030781
680000000 -0.23845 0.18452 -0.026218 -0.01445 0.0052626 0.0054363 0.0013173 -0.0071809
-0.0021113 -0.012057 0.0050964 -0.0070544
-0.026049 -0.01452 -0.38954 0.15109 -0.03233 -0.0019814 -0.001135 -0.00054566
-0.0018752 -0.0094743 -0.00084165 -0.0017862
0.0053941 0.0054409 -0.032348 -0.0019084 -0.10356 0.28108 -0.00091854 -0.00042796
-0.0017444 0.00035313 -0.0024865 -0.0091424
0.0016123 -0.0071896 -0.0011492 -0.00055806 -0.00098367 -0.0004853 -0.22175 0.19739
-0.023234 -0.0078361 -0.0088383 -0.011449
-0.0018952 -0.012182 -0.0019213 -0.0095253 -0.001719 0.0003586 -0.023272 -0.007808
-0.27742 0.05858 -0.0068028 -0.0083603
0.0050244 -0.0069709 -0.00092617 -0.001702 -0.0026968 -0.009137 -0.0087668 -0.011376
-0.0068459 -0.0083771 -0.2597 0.097273
740000000 -0.1933 0.17772 -0.039966 0.026357 0.013594 -0.0049316 -0.00054067 -0.0045402
-0.0043311 -0.0022432 -0.0070421 0.0032457
-0.039868 0.026446 -0.3341 0.1693 -0.036514 0.035409 0.00024402 -0.0058981
-0.012966 0.0071486 -0.001594 -0.005951
0.013536 -0.0049759 -0.036385 0.035604 -0.070231 0.2788 -0.0022127 0.0036451
-0.0024576 -0.00575 -0.0018016 0.0012559
-0.00057991 -0.0043516 0.00043344 -0.0061574 -0.0020547 0.0036883 -0.20319 0.20459
-0.042619 -0.0075973 0.021637 0.014361
-0.0042105 -0.0023939 -0.013016 0.0074617 -0.0024608 -0.0058133 -0.042673 -0.0074739
-0.17837 0.083599 -0.04092 0.00064099
-0.0067532 0.0033793 -0.0017602 -0.0060383 -0.0015491 0.0013132 0.021619 0.014256
-0.040948 0.00063568 -0.24784 0.10641
800000000 -0.1613 0.22174 -0.022673 0.016148 0.0055996 -0.01073 -0.0045252 -0.0019573
-0.0045494 0.0023778 0.0041823 0.00044379
-0.022634 0.01623 -0.34062 0.24018 -0.0083943 0.033993 -0.0021718 0.0021381
-0.00101 0.0027249 0.0010362 0.0054136
0.0056401 -0.010682 -0.0083319 0.034025 -0.0307 0.30247 0.00085613 0.0013867
2.7204e-05 0.0035985 -0.0018406 0.00066779
-0.0046485 -0.0020135 -0.0022322 0.0021141 0.00076059 0.0013928 -0.17381 0.23231
-0.028044 0.013011 0.013416 -0.010202
-0.0045896 0.0026235 -0.0011333 0.0026983 -3.3759e-05 0.003553 -0.028031 0.013076
-0.22006 0.11241 -0.016588 0.019317
0.0039966 0.00036208 0.00096206 0.0054185 -0.0019524 0.00086866 0.013403 -0.010184
-0.016556 0.019263 -0.23899 0.1543
860000000 -0.12674 0.24144 -0.017759 0.030461 -0.0029089 -0.010129 -0.0022728 0.00077865
0.0042952 0.0050738 -0.0036119 -0.0022187
-0.017763 0.030294 -0.29233 0.28265 0.0074806 0.034418 3.4927e-05 0.0022018
0.0038211 0.00056423 0.0034418 0.00072722
-0.0028862 -0.010123 0.0075636 0.034415 0.016577 0.31082 -0.00081907 -0.00015801
0.0024654 -0.0014631 0.0015391 0.0044222
-0.002226 0.00065368 0.00015147 0.0020814 -0.00083331 -0.00014453 -0.13735 0.24267
-0.018006 0.017928 -0.0067404 -0.0091984
0.0041979 0.0050659 0.0039148 0.00046486 0.0023895 -0.001463 -0.017983 0.017992
-0.16447 0.16205 -0.023782 0.017218
-0.0037561 -0.0021544 0.0033809 0.00079738 0.0015938 0.0043698 -0.0067501 -0.0093103
-0.02382 0.017214 -0.18966 0.19854
920000000 -0.10325 0.26466 0.0045353 0.038112 -0.0093409 -0.0049322 -0.0019033 0.0018722
0.001099 0.0021814 0.0030002 -0.0014256
0.0045811 0.038062 -0.26523 0.30425 0.027986 0.022806 0.0014977 0.0012173
0.0072547 -9.4211e-06 0.0041779 -0.0025098
-0.0093808 -0.0048881 0.028123 0.022713 0.062093 0.31232 0.0019439 1.8079e-05
0.0010056 3.4127e-05 0.001073 -0.0011377
-0.0017754 0.0017937 0.0014989 0.0012615 0.0019703 3.8792e-05 -0.11269 0.25963
-0.010991 0.030269 0.003733 -0.0066426
0.0010142 0.0021243 0.0074148 -8.2623e-05 0.0010398 7.9194e-06 -0.010925 0.030313
-0.15237 0.1697 -0.0018537 0.027181
0.0030366 -0.0012344 0.0042903 -0.0025692 0.0010877 -0.0012692 0.0037488 -0.0066338
-0.0019111 0.027172 -0.19338 0.21283
980000000 -0.056693 0.28467 0.016853 0.03021 -0.0093957 0.0042328 0.0017733 0.0037328
0.0041309 -0.0015851 -0.003001 -0.0023717
0.016756 0.030206 -0.21199 0.3387 0.033262 0.0054175 0.0021124 -0.00010857
0.0019546 -0.0060841 -0.00021387 -0.0025537
-0.0093977 0.0042371 0.03334 0.0053166 0.10795 0.30639 0.00067955 -0.001133
0.00053284 -0.0019691 0.0015435 -0.00029482
0.001741 0.0037983 0.0020819 -8.531e-05 0.00068024 -0.0011453 -0.074783 0.27048
0.0070722 0.029827 -0.0091725 -0.006617
0.0041239 -0.0016152 0.0019363 -0.0060467 0.00057658 -0.0019395 0.0071315 0.029836
-0.11838 0.19768 0.0060573 0.019693
-0.0029728 -0.0021651 -0.00027346 -0.0025095 0.0015231 -0.00026771 -0.0092262 -0.0065951
0.0060367 0.019648 -0.15125 0.25562
1040000000 -0.015156 0.29402 0.032926 0.019017 -0.0014937 0.0069717 0.0026053 0.00082388
0.00049003 -0.0035362 -0.00045394 -0.001437
0.032747 0.018984 -0.17698 0.3522 0.030061 -0.014477 0.0017043 -0.0017394
-0.0019952 -0.0026719 -0.0010995 -0.0028198
-0.001541 0.0069883 0.030076 -0.014595 0.15371 0.29354 -0.00047947 -0.0016478
-0.0015446 -0.00098767 -0.00049813 -0.0009971
0.0026539 0.00075548 0.0017042 -0.0017054 -0.0004835 -0.0016523 -0.04735 0.28021
0.01912 0.018448 -0.0026295 0.0013699
0.00055149 -0.0035975 -0.0020062 -0.0026816 -0.0015481 -0.0010385 0.019137 0.018445
-0.085295 0.20477 0.013997 0.017871
-0.00039259 -0.0014263 -0.0010772 -0.0028269 -0.00046309 -0.0010319 -0.0026707 0.0013759
0.013975 0.017862 -0.12779 0.27525
1100000000 0.02971 0.30299 0.036368 -0.0034814 0.0028112 0.0040916 0.0025216 -0.0011736
-0.0019958 -0.0032334 -0.0041167 -0.00029366
0.036271 -0.0034299 -0.13369 0.3701 0.015869 -0.027839 0.00011485 -0.0018713
-0.0036162 -0.0010146 -0.0035913 -0.00071262
0.0028269 0.0040833 0.01579 -0.027932 0.1999 0.27414 -0.0019636 0.0001121
-0.0017482 0.0003865 -0.0010787 -0.00045789
0.0024523 -0.0011761 0.00010864 -0.0018443 -0.001942 0.00011989 -0.0069833 0.28523
0.024543 0.0053459 -0.0023029 0.00030492
-0.0020636 -0.0032904 -0.0036396 -0.0010068 -0.0017675 0.0004097 0.024556 0.0053191
-0.064485 0.21763 0.019673 0.0079661
-0.0040401 -0.00014356 -0.0035707 -0.00067866 -0.0010947 -0.00050732 -0.0022916 0.00031512
0.019652 0.0079724 -0.082072 0.30337
1160000000 0.080793 0.29875 0.024461 -0.020601 0.0027564 -0.00039919 -6.8927e-05 -0.0025045
-0.0039441 -0.00075486 -0.00084424 0.0040549
0.024451 -0.020616 -0.090571 0.37463 -0.0033028 -0.029644 -0.0016292 -0.0017156
-0.0027683 0.0026542 -0.0014758 0.0018691
0.0027673 -0.00039145 -0.0033968 -0.029683 0.24309 0.24402 -0.00082592 0.0017507
-0.00058264 0.0019769 -0.00094822 0.00034041
-5.5219e-05 -0.0024759 -0.0016577 -0.0017257 -0.00084407 0.0017796 0.032063 0.28266
0.020868 -0.010123 -0.0030918 0.0050722
-0.0039619 -0.00073969 -0.0028226 0.0026808 -0.00056504 0.0020034 0.020841 -0.010141
-0.030093 0.2249 0.017955 -0.00089705
-0.00090158 0.0040448 -0.0014648 0.0019103 -0.000933 0.00037892 -0.0030811 0.0050983
0.017958 -0.00093761 -0.035506 0.30569
1220000000 0.12506 0.289 0.011146 -0.030141 -0.0015985 -0.00089186 -1.0631e-05 -0.00097641
-0.0026589 0.0022423 0.0011301 0.0020254
0.011132 -0.030127 -0.046561 0.38776 -0.016926 -0.021951 -0.0026884 0.00044224
6.908e-05 0.0030953 -0.00082301 0.0018624
-0.0016066 -0.00091703 -0.017035 -0.021872 0.28242 0.20584 0.00075671 0.0017102
0.00066532 0.0011872 0.00022396 0.00049219
-4.3072e-05 -0.00091249 -0.002669 0.00049734 0.00077904 0.0017025 0.072158 0.27423
0.010632 -0.016845 0.0020359 0.0015755
-0.002656 0.0022807 4.5825e-05 0.0030759 0.00067278 0.0011887 0.010602 -0.016868
-0.0058181 0.2329 0.013394 -0.013134
0.0011161 0.0021033 -0.00079149 0.0018681 0.00020886 0.00048595 0.0020284 0.0015753
0.013412 -0.01312 -0.003295 0.31989
1280000000 0.17521 0.26832 -0.0076947 -0.028828 -0.0019986 0.0024268 -0.00086922 -0.0020807
-0.00071019 0.0031544 0.0025499 0.0012057
-0.0076914 -0.028826 -0.0005745 0.37939 -0.024231 -0.0090343 -0.00097666 0.0014775
0.0018524 0.0017672 0.00067747 0.0019339
-0.0019992 0.0024395 -0.024301 -0.0089422 0.31323 0.16216 0.0015457 -7.2479e-05
0.0011942 0.00027292 0.00039599 0.00019615
-0.00084966 -0.0020644 -0.0010081 0.0014565 0.001534 -7.2576e-05 0.10921 0.25814
0.00092324 -0.019044 7.0593e-05 0.00038056
-0.00069274 0.0031434 0.0018264 0.0017681 0.0011937 0.00031327 0.00087917 -0.019057
0.030922 0.23571 0.0028769 -0.015257
0.0024873 0.0012186 0.00066067 0.0019829 0.00041224 0.00020031 8.8428e-05 0.00039553
0.0028782 -0.015262 0.04317 0.32026
1340000000 0.21261 0.23534 -0.017597 -0.019295 0.00083846 0.0047939 -0.0018167 -0.00083319
0.0014261 0.0026185 0.0018393 -0.0014204
-0.017569 -0.019296 0.038873 0.37194 -0.022072 0.0040738 -9.0032e-05 0.002029
0.0020356 0.00070534 0.0012621 0.00086159
0.00084192 0.0048091 -0.022087 0.0041843 0.3354 0.11509 0.0010776 -0.00093375
0.00065442 -0.0006032 0.00013774 0.00021801
-0.0018388 -0.0008479 -5.2022e-05 0.0020404 0.0010585 -0.0009109 0.1423 0.23773
-0.0083616 -0.016498 0.00085693 0.00047152
0.001469 0.0025708 0.002039 0.00065756 0.0006398 -0.00061978 -0.0083887 -0.016492
0.060989 0.23061 -0.0040121 -0.013749
0.0018167 -0.0014097 0.0012824 0.00081157 0.00012665 0.00023319 0.00085658 0.00046501
-0.0040063 -0.013737 0.081573 0.31501
1400000000 0.2464 0.19811 -0.023581 -0.0076506 0.0053268 0.003366 -0.0022334 0.00061154
0.0024003 0.00099912 0.0003194 -0.001583
-0.023547 -0.0076566 0.076573 0.3595 -0.015399 0.012584 0.0013633 0.0012999
0.0012628 -0.00083977 0.0011484 0.00013949
0.0053445 0.0033405 -0.015377 0.012669 0.34891 0.062017 3.7502e-05 -0.0015581
0.00010059 -0.00036951 0.00020303 0.00022043
-0.0022443 0.00064108 0.0013579 0.0012808 5.0741e-05 -0.0015592 0.17222 0.20882
-0.014364 -0.0096793 -0.0006856 -0.00030922
0.0023728 0.00097243 0.0012788 -0.00086349 0.00010987 -0.00036221 -0.014405 -0.00967
0.094452 0.22564 -0.010248 -0.0086189
0.00033567 -0.0015541 0.0011252 0.00016325 0.00018481 0.00024446 -0.00069896 -0.00030015
-0.010236 -0.0086355 0.12544 0.3034
1460000000 0.26977 0.15428 -0.020492 0.0046782 0.0059297 -0.0017009 -0.0015499 0.0018197
0.0021652 -0.00043039 -0.00033354 -0.0010468
-0.020472 0.0046734 0.11113 0.33799 -0.0064144 0.015843 0.0016675 0.00014349
0.00082123 -0.0014077 0.0011852 -0.0005829
0.0059033 -0.0017337 -0.0063544 0.015892 0.35565 0.0080348 -0.0011676 -0.0012235
0.00011127 -0.00020666 0.00058467 -0.0003111
-0.0015522 0.0017864 0.0016874 0.00012142 -0.0011706 -0.0012281 0.19898 0.17928
-0.015459 -0.0030644 -0.0008914 0.0017836
0.0021543 -0.0004357 0.00083124 -0.00142 0.00011075 -0.00022766 -0.015454 -0.0030111
0.12388 0.2108 -0.012069 -0.002823
-0.00034532 -0.0010227 0.0011734 -0.00062869 0.000582 -0.0002902 -0.00088808 0.0017573
-0.012048 -0.0028211 0.15823 0.28266
1520000000 0.28243 0.113 -0.014852 0.010298 0.0035635 -0.0042392 0.00010031 0.002566
0.0020802 -0.001971 -0.0011298 -0.00014652
-0.01485 0.010283 0.14505 0.32376 0.0016036 0.013616 0.0016227 -0.00078238
1.3457e-05 -0.001083 0.00035421 -0.0010588
0.0035299 -0.0042745 0.0016827 0.013633 0.34929 -0.047869 -0.0010715 -0.00039089
0.00068982 -0.00079538 9.2713e-05 -0.00020398
9.8334e-05 0.0025493 0.0015984 -0.00078067 -0.0010847 -0.00037096 0.22264 0.14091
-0.014839 0.0027306 0.0014393 0.0019659
0.0020841 -0.0019872 1.5097e-05 -0.0010806 0.00071084 -0.00080514 -0.014826 0.0027654
0.15194 0.19703 -0.011716 0.0018461
-0.0011574 -0.00013651 0.00035844 -0.0010419 0.00010153 -0.00022413 0.0014322 0.0019625
-0.011724 0.001831 0.19093 0.26144
1580000000 0.29256 0.066883 -0.0081081 0.013464 -0.00079362 -0.0051983 0.0015532 0.0018617
-0.00017684 -0.0021805 -0.00031176 0.0004053
-0.0081104 0.013449 0.17272 0.29901 0.0055839 0.0085172 0.00047682 -0.0015652
-0.00057604 -0.0010044 -0.00021963 -0.00084645
-0.00082947 -0.0051691 0.0056242 0.0084976 0.32977 -0.10559 -0.0016358 0.00055085
-0.0003686 -0.0012042 0.0002678 -0.00049766
0.0015742 0.0018762 0.00047125 -0.0015693 -0.0016277 0.00055405 0.23665 0.10088
-0.011326 0.0075279 0.0021816 0.00063427
-0.00019322 -0.0021532 -0.00056739 -0.0010071 -0.00035349 -0.0011951 -0.011336 0.0075656
0.17614 0.17858 -0.0091585 0.0073332
-0.0002694 0.00036799 -0.00020835 -0.00085193 0.00027581 -0.00050121 0.002188 0.00061998
-0.0091508 0.0073295 0.22232 0.23453
1640000000 0.29506 0.025668 -0.0013523 0.012311 -0.0028385 -0.0027816 0.0026516 0.0010132
-0.00073663 -0.0015696 -0.00030358 0.00053014
-0.001352 0.012314 0.20249 0.27426 0.0062966 0.0034428 -0.00059033 -0.0017394
-0.00095597 -0.00038818 -0.000525 -0.0006997
-0.002873 -0.0027526 0.0063064 0.0034111 0.30185 -0.15496 -0.00068026 0.001468
-0.0010158 -0.00098593 -0.00019412 -0.0003351
0.0026339 0.00099773 -0.00061349 -0.0017407 -0.00066876 0.0014546 0.24898 0.051548
-0.0071206 0.0087066 0.0024202 -0.00075271
-0.00078045 -0.0015734 -0.00095986 -0.00038431 -0.0010022 -0.00098405 -0.0070734 0.0087404
0.19928 0.15429 -0.0045988 0.0093812
-0.00031285 0.00058042 -0.00050454 -0.00069113 -0.00018947 -0.00033567 0.0024006 -0.00076289
-0.004615 0.0093851 0.24759 0.2032
1700000000 0.28833 -0.01966 0.0020013 0.0094681 -0.0037618 -8.3896e-05 0.003143 -0.0011748
-0.0019607 -0.00060743 0.00061888 0.00033166
0.0020059 0.0094564 0.22099 0.24279 0.0041575 0.00038257 -0.0014695 -0.00058907
-0.00082998 4.262e-05 -0.00090461 -0.00047972
-0.0037138 -8.8278e-05 0.004166 0.00038034 0.25861 -0.19492 0.00033593 0.0015575
-0.0019676 -0.00010552 -0.00038523 -0.00088682
0.0031242 -0.00117 -0.0014599 -0.00057002 0.00033537 0.0015607 0.24557 0.0011506
-0.0043131 0.0093983 0.0014729 -0.0021873
-0.0019596 -0.00058029 -0.00081672 4.9417e-05 -0.0019849 -0.00012812 -0.0042892 0.0094019
0.21654 0.13376 -5.3627e-05 0.0095564
0.0006218 0.00034639 -0.0009091 -0.00046844 -0.00042989 -0.00085163 0.0014368 -0.0022059
-4.6378e-05 0.0095619 0.26354 0.16869
1760000000 0.27653 -0.068426 0.0044064 0.0061945 -0.0023826 0.0010073 0.0012723 -0.003368
-0.0014654 0.00064546 0.00034546 -0.00057202
0.004392 0.0061911 0.24714 0.20297 0.0018033 -0.0014501 -0.0012199 9.7915e-05
-0.0010678 0.00085488 -0.00060918 0.00040777
-0.0023989 0.0010162 0.0017943 -0.0014752 0.21007 -0.22792 0.0010852 0.0011238
-0.0013125 0.0014943 -0.0012744 -0.00061833
0.0012539 -0.0033805 -0.0012073 9.176e-05 0.0011288 0.0011691 0.23596 -0.050755
-0.0010481 0.0084011 -0.00027743 -0.0025436
-0.001442 0.00068248 -0.0010709 0.00086279 -0.0012855 0.0014772 -0.0010091 0.0084193
0.23132 0.098663 0.0037502 0.0070399
0.00031614 -0.00054014 -0.00062533 0.00041906 -0.0012127 -0.00069897 -0.00025497 -0.0025568
0.0037586 0.0070402 0.27603 0.13096
1820000000 0.25229 -0.10592 0.0045532 0.0026112 -0.00032565 0.0024505 -0.00096442 -0.0031171
-0.001073 0.00098451 -0.00020484 -0.00012614
0.004562 0.0025973 0.25741 0.17292 -0.0006629 -0.00044225 -0.0013747 0.00089934
-0.00012242 0.0012622 -0.00069584 0.00054358
-0.00026623 0.0025078 -0.00067465 -0.00042013 0.1598 -0.244 0.0015454 0.00044895
-0.00031764 0.0023977 -0.001522 0.0004795
-0.000994 -0.0030721 -0.0013531 0.0009292 0.0015374 0.00043479 0.20531 -0.097903
0.00030572 0.0070792 -0.0017405 -0.0013898
-0.0010931 0.00099893 -0.00010148 0.001264 -0.00028288 0.0023937 0.00034672 0.0070595
0.24829 0.069922 0.0045615 0.0037013
-0.00020603 -0.00014834 -0.00068924 0.0005491 -0.0015808 0.00050505 -0.0017839 -0.0013627
0.0045557 0.0037055 0.27776 0.094597
1880000000 0.21705 -0.14651 0.0023708 0.00022277 -0.00047991 0.0022151 -0.0028772 -0.0022227
-0.00027421 0.001923 0.00018996 -0.00040935
0.0023346 0.00024894 0.26205 0.12619 -0.0026274 0.0014871 -0.00023141 0.0017655
0.0005575 0.0013581 8.7327e-05 0.00095635
-0.00054273 0.0022033 -0.0026106 0.0014865 0.10775 -0.25373 0.0018519 -0.00086692
0.0015984 0.0020331 -0.00089842 0.0013684
-0.0029177 -0.0022189 -0.00021426 0.0017431 0.0018388 -0.00082788 0.1642 -0.1381
0.0012178 0.0050941 -0.0024211 0.0004179
-0.00027021 0.0019293 0.00056079 0.0013548 0.0015984 0.0020271 0.0012245 0.0051185
0.25205 0.038029 0.0047279 0.0013577
0.0001818 -0.00046816 0.00010391 0.00096995 -0.00094526 0.0013792 -0.0024073 0.00046796
0.0047332 0.0013678 0.27718 0.060654
1940000000 0.17754 -0.17194 -9.0787e-05 -0.0013547 0.0014651 0.0022832 -0.0037882 0.00044792
0.0013576 0.0011571 -0.00041576 -0.00063767
-0.00010589 -0.0013609 0.2626 0.09446 -0.0014593 0.0041224 0.0010605 0.0013556
0.0019612 0.00058057 0.0010415 0.00044231
0.0014623 0.0022655 -0.0014286 0.0041301 0.061703 -0.24619 0.00061912 -0.002257
0.0025494 0.00035087 0.00064271 0.0016718
-0.0037878 0.00043874 0.0010761 0.001356 0.00061496 -0.0022163 0.11102 -0.16796
0.00028175 0.003973 -0.001508 0.0018075
0.0013645 0.0011856 0.0019648 0.00056174 0.00261 0.00043338 0.00028669 0.0039452
0.25456 -0.00010549 0.0034415 -0.0015974
-0.00043288 -0.0005538 0.0010703 0.0004581 0.00067161 0.0016645 -0.001526 0.0017613
0.0034238 -0.0015878 0.26581 0.024426
2000000000 0.13153 -0.18685 -0.0038908 0.00058069 0.0026822 0.001589 -0.0023338 0.003833
0.0012706 0.00053023 -0.00056602 0.00052517
-0.0038877 0.00055713 0.24863 0.058746 -0.00092053 0.0059395 0.0016305 0.00037397
0.0014663 -0.0011443 0.00064527 0.00015747
0.0026776 0.0016673 -0.00092819 0.0059386 0.018901 -0.23209 -0.0013934 -0.0014669
0.0021673 -0.0012312 0.0017513 0.0012534
-0.0023793 0.003886 0.0016204 0.00036523 -0.0013867 -0.0015199 0.057715 -0.17711
-0.0010005 0.0039306 0.00024425 0.0020123
0.0012568 0.00051768 0.0014582 -0.0011668 0.0021247 -0.0012928 -0.001012 0.0039369
0.24963 -0.033439 0.00077515 -0.002591
