!Keysight Technologies,M9804A,MY58100912,A.14.10.03
!Date: Thursday, April 27, 2023 10:28:33
!Correction: S11(C  6-Port  ) 
!S12(C  6-Port  ) 
!S13(C  6-Port  ) 
!S14(C  6-Port  ) 
!S15(C  6-Port  ) 
!S16(C  6-Port  ) 
!S21(C  6-Port  ) 
!S22(C  6-Port  ) 
!S23(C  6-Port  ) 
!S24(C  6-Port  ) 
!S25(C  6-Port  ) 
!S26(C  6-Port  ) 
!S31(C  6-Port  ) 
!S32(C  6-Port  ) 
!S33(C  6-Port  ) 
!S34(C  6-Port  ) 
!S35(C  6-Port  ) 
!S36(C  6-Port  ) 
!S41(C  6-Port  ) 
!S42(C  6-Port  ) 
!S43(C  6-Port  ) 
!S44(C  6-Port  ) 
!S45(C  6-Port  ) 
!S46(C  6-Port  ) 
!S51(C  6-Port  ) 
!S52(C  6-Port  ) 
!S53(C  6-Port  ) 
!S54(C  6-Port  ) 
!S55(C  6-Port  ) 
!S56(C  6-Port  ) 
!S61(C  6-Port  ) 
!S62(C  6-Port  ) 
!S63(C  6-Port  ) 
!S64(C  6-Port  ) 
!S65(C  6-Port  ) 
!S66(C  6-Port  ) 
!S6P File: Measurement: :
# Hz S  RI   R 50
500000000 -0.33412 -0.051573 -0.010224 -0.0017653 -0.0089746 0.013129 -0.0040714 0.011849
0.0122 0.006241 -0.0038884 0.0080733
-0.010276 -0.0017703 -0.41714 -0.06207 0.0079271 -0.010454 0.0020762 0.011879
0.0073496 0.0030376 0.0016263 0.013637
-0.0089674 0.013083 0.0079411 -0.010478 -0.26648 0.19994 0.0070733 0.0036677
-0.001841 0.0085321 0.00094318 0.012892
-0.0040748 0.011781 0.002109 0.011894 0.0070833 0.0036766 -0.33156 0.044309
-0.01796 -0.0055001 0.016864 0.025056
0.012158 0.0063335 0.0073534 0.0029963 -0.0018478 0.0085271 -0.017943 -0.0054732
-0.25033 -0.19106 -0.025651 0.0038987
-0.0039358 0.0080266 0.0016304 0.013634 0.00093321 0.012903 0.016854 0.025095
-0.025686 0.0039236 -0.27318 -0.11633
560000000 -0.31817 0.11447 -0.023643 -0.064683 -8.3583e-05 0.012725 0.0070795 0.011109
0.010747 0.0042874 0.01032 0.0076005
-0.023637 -0.064657 -0.37528 0.099823 -0.04185 -0.036639 0.013746 0.0034345
-0.012468 -0.0043641 0.0043467 -0.00014387
-8.5745e-05 0.012735 -0.04205 -0.036628 -0.1856 0.25064 -0.00014156 -0.0045815
0.01945 0.0047717 0.0069487 -0.0051367
0.0073022 0.01104 0.013787 0.0034171 -0.00014959 -0.00458 -0.30784 0.1359
0.0056625 -0.022856 0.0047634 -0.020877
0.010578 0.0042933 -0.012528 -0.004387 0.019491 0.004773 0.0056537 -0.022844
-0.3095 -0.0099926 0.0073021 -0.048194
0.01043 0.0076688 0.0043576 -0.00011959 0.0069225 -0.0051245 0.0047652 -0.020882
0.0073793 -0.048255 -0.33058 0.02814
620000000 -0.27731 0.09463 -0.023221 0.008783 0.0039598 0.0097507 0.0086277 -0.0044038
0.012502 -0.00051057 0.0015731 -0.0024549
-0.023224 0.0087855 -0.40363 0.050476 -0.018101 0.00072964 -0.0013092 -0.0020951
0.012492 -0.0065246 0.0012755 -0.0028451
0.0039923 0.0097933 -0.018123 0.00077739 -0.15504 0.26136 -0.00089559 -0.0049289
-0.0027533 -0.0031707 0.0090279 -0.0028965
0.0086685 -0.0044173 -0.0013194 -0.0020993 -0.00089129 -0.0049448 -0.26489 0.14645
-0.037834 -0.019652 0.013746 0.026559
0.012576 -0.00053931 0.012466 -0.0065933 -0.0027281 -0.0031237 -0.037822 -0.019667
-0.23236 -0.044273 -0.040143 0.010969
0.0016002 -0.0023193 0.001249 -0.0028614 0.0090148 -0.0029017 0.013741 0.026589
-0.040135 0.010867 -0.2531 -0.0019327
680000000 -0.2383 0.1839 -0.02624 -0.014623 0.0050967 0.0051959 0.001619 -0.0077516
-0.0025731 -0.012055 0.0045611 -0.0076484
-0.026246 -0.014638 -0.38968 0.15098 -0.032428 -0.0020073 -0.0013037 -0.00073742
-0.0019365 -0.0094275 -0.0011468 -0.0017422
0.0051372 0.0051579 -0.032453 -0.0019319 -0.1036 0.28104 -0.00077707 -0.00060646
-0.0016896 0.00056631 -0.0028208 -0.009351
0.0016388 -0.0077741 -0.0013029 -0.00072993 -0.00078493 -0.00061359 -0.22045 0.19772
-0.023135 -0.0079498 -0.0083888 -0.011771
-0.0026628 -0.011939 -0.0019581 -0.0094229 -0.0016909 0.00056372 -0.023161 -0.0079419
-0.27726 0.059198 -0.0069901 -0.0067559
0.0045337 -0.007478 -0.0011761 -0.0017542 -0.0028088 -0.0093657 -0.0084002 -0.011783
-0.0070613 -0.006786 -0.25959 0.097245
740000000 -0.19285 0.17758 -0.039637 0.026512 0.013676 -0.0047079 -0.00035902 -0.0040197
-0.0042489 -0.0024139 -0.0066965 0.0037039
-0.03959 0.026467 -0.33458 0.16973 -0.036759 0.03499 2.3273e-05 -0.0057744
-0.012879 0.0069347 -0.0012446 -0.0057828
0.013641 -0.0047056 -0.03669 0.035135 -0.070142 0.27855 -0.0020752 0.0034941
-0.0019001 -0.0054974 -0.0014555 0.00076955
-0.00035539 -0.0040352 -1.5726e-06 -0.0057776 -0.0020583 0.0034902 -0.20351 0.20525
-0.042511 -0.0078944 0.021343 0.015101
-0.0042979 -0.0024511 -0.012902 0.0069876 -0.0019404 -0.0055375 -0.042511 -0.0078724
-0.1784 0.083699 -0.041046 -0.00075443
-0.0066722 0.0036718 -0.0012497 -0.0057278 -0.0014745 0.00077613 0.021359 0.015073
-0.040972 -0.00080278 -0.24734 0.10691
800000000 -0.16176 0.2215 -0.022683 0.016266 0.0056627 -0.010593 -0.004946 -0.0023985
-0.0042165 0.0028647 0.003525 0.00057856
-0.022706 0.016256 -0.34065 0.2403 -0.0084636 0.034131 -0.0024979 0.0020156
-0.001037 0.0029949 0.00043091 0.0055035
0.0056601 -0.010597 -0.0083821 0.034202 -0.030763 0.30255 0.00058627 0.0015062
3.3201e-05 0.0036868 -0.0022802 0.00096964
-0.0049102 -0.002431 -0.0024822 0.0020157 0.00058888 0.0015145 -0.17338 0.23181
-0.028707 0.013434 0.013474 -0.010755
-0.004217 0.0029409 -0.0010411 0.0029995 5.0414e-05 0.0037088 -0.028712 0.013483
-0.21983 0.11197 -0.01723 0.020107
0.0035103 0.00069821 0.00043709 0.0055071 -0.0023047 0.00098447 0.013437 -0.010816
-0.017193 0.020085 -0.23933 0.15291
860000000 -0.12687 0.24153 -0.018116 0.030512 -0.0030226 -0.010172 -0.001936 0.00075618
0.0038208 0.0054099 -0.0034859 -0.0030819
-0.018076 0.030465 -0.2927 0.28245 0.007275 0.034213 0.00012755 0.00215
0.0038049 0.0005117 0.0028997 0.00057418
-0.0030433 -0.010178 0.0073877 0.034226 0.016508 0.31067 -0.0007627 -0.00010269
0.0024971 -0.0014698 0.0017433 0.0041363
-0.0018668 0.00074182 0.00011791 0.0021619 -0.00075962 -0.00010216 -0.13749 0.24316
-0.018043 0.01741 -0.006485 -0.0086756
0.003816 0.0054253 0.0038072 0.00050641 0.0024612 -0.001475 -0.018028 0.017463
-0.16425 0.1623 -0.024135 0.017289
-0.003516 -0.0030623 0.002908 0.00054468 0.001751 0.0041306 -0.0064752 -0.008652
-0.024169 0.017253 -0.18867 0.19841
920000000 -0.10312 0.2648 0.0045115 0.038216 -0.0093613 -0.0049009 -0.0019727 0.0018527
0.0012147 0.0021222 0.0028821 -0.0011826
0.0045152 0.038165 -0.26507 0.30395 0.027987 0.022712 0.0014128 0.0012196
0.0072729 -8.7895e-05 0.0040107 -0.0029254
-0.0093696 -0.0048795 0.02808 0.022663 0.062037 0.31225 0.0020124 4.1977e-05
0.0010188 -9.7891e-05 0.0011877 -0.0012233
-0.0019648 0.0018599 0.0014063 0.0012131 0.0020244 3.6164e-05 -0.11261 0.25935
-0.011228 0.030313 0.003772 -0.0066453
0.0012032 0.0021008 0.0072673 -0.00010592 0.0009992 -9.5736e-05 -0.011207 0.030368
-0.15171 0.16984 -0.0022572 0.026433
0.00291 -0.001165 0.0040317 -0.0029305 0.0011979 -0.0012149 0.0037862 -0.0066533
-0.0022706 0.026403 -0.19343 0.21282
980000000 -0.05679 0.2848 0.016815 0.030332 -0.0094056 0.004224 0.0018433 0.0037395
0.0038344 -0.0013468 -0.0025268 -0.0025284
0.016802 0.030313 -0.21204 0.33872 0.033288 0.0054425 0.0020948 -3.2813e-06
0.0015784 -0.0061121 -0.00022001 -0.002262
-0.0093906 0.0042518 0.033325 0.0053416 0.10793 0.30635 0.00067306 -0.0011495
0.0004697 -0.0019973 0.0015335 -0.00019356
0.0018572 0.0037484 0.0020828 -2.2358e-05 0.0006655 -0.0011503 -0.07463 0.2706
0.0071157 0.029922 -0.0090278 -0.0068058
0.0038602 -0.0013876 0.0015393 -0.0061169 0.00047693 -0.0019956 0.0071712 0.029932
-0.1191 0.19818 0.0062844 0.019743
-0.0025955 -0.002486 -0.00024802 -0.0022624 0.0015244 -0.00019635 -0.0090377 -0.0067962
0.0063133 0.019738 -0.15093 0.25498
1040000000 -0.015433 0.29398 0.032843 0.018925 -0.0015192 0.0070168 0.0026678 0.00077121
0.00058241 -0.0035691 -0.00020891 -0.0014968
0.032815 0.018889 -0.17689 0.352 0.03009 -0.014538 0.0016982 -0.0016943
-0.0018488 -0.0027003 -0.0012838 -0.0028434
-0.001496 0.0070122 0.030059 -0.014636 0.15367 0.29352 -0.00043929 -0.0016351
-0.0013732 -0.00097158 -0.00055406 -0.0010881
0.0026617 0.00076417 0.0016773 -0.0017217 -0.00042928 -0.0016326 -0.047258 0.28022
0.019054 0.018265 -0.0024683 0.0013976
0.00055931 -0.0035492 -0.0018771 -0.0026642 -0.0013873 -0.00095529 0.019097 0.018246
-0.084865 0.2046 0.013625 0.01777
-0.00023663 -0.001483 -0.0012761 -0.0028556 -0.000556 -0.0010928 -0.0024573 0.0014105
0.013582 0.017756 -0.12788 0.27567
1100000000 0.029815 0.30295 0.036391 -0.0034839 0.0027713 0.0041017 0.0024679 -0.001146
-0.0021249 -0.0031229 -0.0040131 -0.00016612
0.03636 -0.0034767 -0.1338 0.37004 0.015921 -0.027898 0.00018449 -0.0018446
-0.0037119 -0.00082992 -0.0034761 -0.00062005
0.0027921 0.0040901 0.01584 -0.027989 0.19987 0.27414 -0.0019122 0.00010196
-0.0016738 0.00039466 -0.0010384 -0.00043774
0.0024808 -0.0011572 0.00017632 -0.0018469 -0.0019217 0.00010476 -0.0068908 0.28516
0.024562 0.0052781 -0.0024478 0.00025357
-0.0021464 -0.0031185 -0.0037318 -0.00080587 -0.0016844 0.00039728 0.024583 0.0052363
-0.064536 0.21732 0.01952 0.0082466
-0.0040023 -0.0001461 -0.0034896 -0.00059525 -0.0010347 -0.00043289 -0.0024393 0.00024802
0.019514 0.0082611 -0.081914 0.30298
1160000000 0.080668 0.29883 0.024484 -0.020514 0.0027878 -0.00039768 -3.0172e-05 -0.0025054
-0.0039944 -0.00074747 -0.0010103 0.0038526
0.024498 -0.020498 -0.090687 0.37456 -0.0032362 -0.029631 -0.0016379 -0.0016636
-0.0027261 0.0024992 -0.0015152 0.0018216
0.0027913 -0.00040571 -0.0033787 -0.029632 0.24302 0.24408 -0.00085387 0.0017771
-0.00061911 0.0019397 -0.00089501 0.00027364
-3.7568e-05 -0.0025028 -0.0016532 -0.0016637 -0.00085534 0.001783 0.032052 0.28239
0.020972 -0.010258 -0.0030345 0.0051479
-0.0039725 -0.0007331 -0.0027254 0.0025461 -0.00061934 0.0019505 0.020959 -0.010307
-0.029915 0.22496 0.018519 -0.00064573
-0.00098489 0.0038412 -0.0014722 0.0018335 -0.00088996 0.00027018 -0.0030341 0.0051573
0.018519 -0.00065479 -0.035657 0.30521
1220000000 0.125 0.28905 0.011132 -0.03015 -0.0016404 -0.00085493 -3.8359e-05 -0.00090437
-0.0027074 0.0022322 0.00125 0.0020253
0.011151 -0.03011 -0.046599 0.38769 -0.01687 -0.021925 -0.0027041 0.00047339
5.573e-05 0.0031129 -0.00076954 0.0018645
-0.0016341 -0.00083936 -0.016988 -0.021879 0.28231 0.20581 0.00075769 0.0017088
0.00064445 0.0011625 0.00021074 0.00047411
-4.8472e-05 -0.00089952 -0.0027099 0.00047313 0.00075463 0.001711 0.072188 0.27434
0.010522 -0.016822 0.0020992 0.0016601
-0.0026886 0.0022503 6.4311e-05 0.0031246 0.00063116 0.0011717 0.010502 -0.016838
-0.0057621 0.23283 0.013203 -0.013148
0.0012776 0.0019931 -0.00075386 0.001866 0.00021495 0.00047335 0.0020909 0.0016549
0.013198 -0.013165 -0.0033084 0.32003
1280000000 0.17516 0.26825 -0.0076894 -0.028891 -0.0020201 0.0024157 -0.00090609 -0.0020502
-0.00076232 0.0031472 0.0024496 0.0012605
-0.0076577 -0.028863 -0.00056749 0.37929 -0.024203 -0.00909 -0.0010087 0.0014806
0.0018158 0.0017453 0.00063305 0.0019726
-0.0020134 0.0024139 -0.024276 -0.008996 0.31311 0.16227 0.0015972 -5.4678e-05
0.0012194 0.00029497 0.00035469 0.00024133
-0.00089767 -0.0020496 -0.0010077 0.0014855 0.0015969 -5.6502e-05 0.10908 0.25802
0.00086652 -0.019056 -2.6307e-05 0.00037474
-0.0007556 0.0031545 0.0018309 0.0017302 0.0012214 0.00028829 0.00083036 -0.019063
0.030851 0.2353 0.0029823 -0.015317
0.002462 0.0012217 0.00063987 0.0019554 0.00035059 0.00024755 -1.6495e-05 0.00037581
0.0029897 -0.015311 0.043249 0.32045
1340000000 0.21262 0.23553 -0.017606 -0.0193 0.00084793 0.0047827 -0.0018709 -0.00089594
0.0015986 0.0026203 0.0017398 -0.0013252
-0.017576 -0.019288 0.038829 0.37191 -0.022063 0.0040388 -0.00011978 0.0020384
0.001997 0.00069251 0.0012586 0.00086089
0.00085292 0.0047776 -0.02206 0.0041561 0.33545 0.11521 0.001032 -0.00093647
0.00065892 -0.0005871 9.4344e-05 0.00016708
-0.0018684 -0.00089023 -0.00011741 0.0020422 0.0010261 -0.00093615 0.14234 0.23773
-0.008481 -0.016392 0.00096417 0.00052284
0.0016043 0.002593 0.0019995 0.00068088 0.00064384 -0.00058325 -0.0085066 -0.016385
0.061092 0.2304 -0.0041151 -0.014044
0.0017227 -0.0013326 0.0012602 0.00085454 9.0364e-05 0.0001676 0.00095848 0.00052337
-0.004117 -0.014038 0.081577 0.31522
1400000000 0.24645 0.19814 -0.023577 -0.007705 0.0052913 0.0033904 -0.0022354 0.00064259
0.0023844 0.00089205 0.00024222 -0.0015557
-0.023538 -0.0077014 0.076517 0.35953 -0.01547 0.012593 0.0013683 0.0012742
0.0013079 -0.00087725 0.0011102 0.00021325
0.0053136 0.003382 -0.01544 0.01268 0.34893 0.062052 5.0139e-05 -0.0015444
5.1999e-05 -0.00029656 0.00034923 0.00018645
-0.0022347 0.00064722 0.0013825 0.001267 5.3011e-05 -0.0015438 0.17216 0.20879
-0.014401 -0.0095649 -0.00077105 -0.00030023
0.0023959 0.00087091 0.0013096 -0.00088309 5.479e-05 -0.00029532 -0.014423 -0.009533
0.094199 0.22537 -0.010251 -0.0087272
0.00022642 -0.0015558 0.0011135 0.00020775 0.00034382 0.00018822 -0.00078023 -0.00030064
-0.010264 -0.0087298 0.12543 0.30334
1460000000 0.26981 0.15443 -0.020494 0.0047067 0.0059284 -0.0017353 -0.0016049 0.0017852
0.0021836 -0.00040387 -0.00032632 -0.0010269
-0.020489 0.0047006 0.11107 0.33796 -0.0064096 0.015874 0.0017115 0.00012896
0.00081764 -0.0013768 0.0012059 -0.00061733
0.0059381 -0.0017554 -0.0063439 0.015915 0.35554 0.0080806 -0.0011744 -0.0012624
0.00017328 -0.0002028 0.0005918 -0.00029134
-0.0015931 0.0017963 0.0017169 0.00011776 -0.0011673 -0.0012511 0.19896 0.17928
-0.015552 -0.0029107 -0.00079124 0.0018115
0.0021848 -0.00042658 0.00079722 -0.0013869 0.0001746 -0.00020937 -0.015574 -0.0028775
0.12358 0.21068 -0.012217 -0.0029433
-0.00031949 -0.0010371 0.001189 -0.00064007 0.00060045 -0.000298 -0.00079498 0.0018184
-0.012232 -0.0029318 0.15813 0.28256
1520000000 0.28247 0.11312 -0.014891 0.01029 0.0035895 -0.0043248 0.00011263 0.002587
0.0020795 -0.001918 -0.0011721 -0.00022095
-0.014883 0.010273 0.14503 0.32376 0.0016081 0.013611 0.0015839 -0.00074871
-1.0439e-05 -0.0010932 0.00038704 -0.0010621
0.0035684 -0.0043435 0.001684 0.01361 0.34931 -0.047796 -0.0010879 -0.00035749
0.00062827 -0.00080718 0.00014372 -0.00020093
0.00012173 0.0025869 0.0015841 -0.00075963 -0.0010951 -0.00034943 0.22252 0.14093
-0.014762 0.0028253 0.0014538 0.0020456
0.0020771 -0.0019426 -2.0167e-05 -0.0010903 0.00063056 -0.00081755 -0.014768 0.0028611
0.15169 0.19688 -0.01201 0.001818
-0.0011664 -0.000228 0.00037809 -0.001064 0.00014065 -0.00021021 0.0014498 0.0020484
-0.012021 0.0018221 0.19106 0.26148
1580000000 0.29266 0.066853 -0.008124 0.013471 -0.00086409 -0.0051415 0.0015479 0.0018627
-0.00014056 -0.0021794 -0.00031521 0.00040761
-0.008131 0.013458 0.17268 0.29901 0.005506 0.0085873 0.0005297 -0.0015347
-0.00055839 -0.00097427 -0.00018934 -0.00083825
-0.00090087 -0.0051361 0.0055597 0.0085728 0.32986 -0.10553 -0.001571 0.000586
-0.00029026 -0.0011878 0.0002079 -0.0005168
0.0015578 0.0018696 0.00052615 -0.0015403 -0.0015716 0.00058491 0.23659 0.10087
-0.0113 0.007581 0.0022018 0.00068246
-0.00015682 -0.0021798 -0.00056527 -0.00097208 -0.00029352 -0.0011985 -0.011289 0.0076116
0.17579 0.17867 -0.0092283 0.0074559
-0.00031282 0.00040663 -0.00019197 -0.00083323 0.00021447 -0.00052673 0.0022156 0.00068261
-0.0092317 0.0074593 0.22208 0.23431
1640000000 0.29496 0.025714 -0.0013934 0.012313 -0.0029113 -0.0028225 0.0026953 0.0010064
-0.00077381 -0.0015494 -0.00033979 0.0006074
-0.0013948 0.012298 0.20246 0.27428 0.0063108 0.0034579 -0.00060949 -0.0017658
-0.00096011 -0.00036062 -0.00049659 -0.00069611
-0.0029181 -0.0028207 0.0063328 0.0034169 0.30188 -0.15494 -0.00067225 0.0013832
-0.0010174 -0.0010418 -0.00016295 -0.00029589
0.0027069 0.00098696 -0.00062222 -0.0017554 -0.00067371 0.001379 0.24886 0.051697
-0.0070094 0.0088718 0.0024505 -0.00081756
-0.00078328 -0.001542 -0.00096494 -0.00035468 -0.0010319 -0.0010467 -0.0069936 0.0088907
0.19924 0.15465 -0.0047748 0.0094106
-0.00032965 0.00060834 -0.00050507 -0.00068851 -0.0001661 -0.00029427 0.0024597 -0.00082329
-0.0047635 0.0094243 0.24746 0.20324
1700000000 0.28833 -0.019682 0.0019947 0.0094683 -0.0037186 -0.00010256 0.003093 -0.0011635
-0.0019634 -0.00063165 0.00060757 0.00040625
0.0019965 0.009455 0.22097 0.24278 0.0041715 0.00041717 -0.0014593 -0.00063768
-0.00081527 1.1737e-05 -0.00090464 -0.00043654
-0.0037179 -9.0651e-05 0.0041791 0.00040037 0.25855 -0.19492 0.0003811 0.0015579
-0.0019808 -0.00012049 -0.00044151 -0.0008543
0.003089 -0.0011859 -0.0014681 -0.00062386 0.00037574 0.0015569 0.24552 0.0012908
-0.0042394 0.0093205 0.0015176 -0.0021646
-0.0019651 -0.0006232 -0.00081086 2.0547e-05 -0.0019808 -0.00011471 -0.0042229 0.0093269
0.2164 0.13384 -4.9734e-05 0.0098299
0.00060768 0.00040857 -0.00091088 -0.00042511 -0.00044521 -0.00084732 0.0015177 -0.0021754
-4.3096e-05 0.0098429 0.26361 0.16871
1760000000 0.27649 -0.068412 0.0043875 0.0062382 -0.0024684 0.0011094 0.0013332 -0.0034433
-0.0013868 0.00060321 0.0003511 -0.00046128
0.0043783 0.0062339 0.24708 0.20298 0.0017847 -0.0014117 -0.0011928 0.00012763
-0.0010354 0.00085751 -0.00062098 0.00037145
-0.0024743 0.0011127 0.0017778 -0.0014291 0.21001 -0.2278 0.001128 0.001134
-0.0012725 0.0015392 -0.0011296 -0.00069277
0.0013081 -0.0034402 -0.001193 0.00012618 0.0011255 0.0011341 0.236 -0.050731
-0.00094415 0.0083417 -0.00029478 -0.0025869
-0.001393 0.00061684 -0.0010397 0.00087197 -0.0012697 0.001545 -0.00092664 0.0083442
0.23141 0.099023 0.0038534 0.0070371
0.00034137 -0.00045395 -0.00062207 0.00037577 -0.0011334 -0.00068617 -0.00028069 -0.0025888
0.0038797 0.0070514 0.27569 0.13113
1820000000 0.25224 -0.10584 0.0045802 0.0025898 -0.00028895 0.0024579 -0.001061 -0.0031827
-0.0011237 0.00094473 -0.0001235 -9.4242e-05
0.0045707 0.0025885 0.2574 0.17295 -0.00057977 -0.00041394 -0.0013321 0.0008987
-0.00010202 0.0012441 -0.00068463 0.0005456
-0.00027298 0.0024553 -0.00058603 -0.00041183 0.1598 -0.24397 0.0015786 0.00046703
-0.00022617 0.0024226 -0.0015763 0.00043706
-0.0010692 -0.0031746 -0.0013335 0.00090616 0.0015743 0.00047568 0.2053 -0.097738
0.0003861 0.0070296 -0.0017211 -0.0013777
-0.0011132 0.00097339 -9.7937e-05 0.0012439 -0.00022182 0.0024237 0.00039833 0.0070312
0.24834 0.070039 0.0046166 0.0038924
-0.00011477 -7.6259e-05 -0.00067492 0.00055056 -0.0015673 0.00045811 -0.0017386 -0.0013754
0.004634 0.0038857 0.27777 0.09473
1880000000 0.21706 -0.14653 0.0023626 0.00027027 -0.00055114 0.00216 -0.0028646 -0.0023185
-0.00018553 0.0018471 0.00013757 -0.00044771
0.0023643 0.00025534 0.26198 0.12624 -0.0025747 0.0014621 -0.00030859 0.0017387
0.00050802 0.0013259 3.8423e-06 0.0010044
-0.00053447 0.0021645 -0.0025749 0.0014856 0.10788 -0.2537 0.0017734 -0.00072739
0.0015356 0.0020927 -0.00092475 0.0013224
-0.0028839 -0.0023127 -0.00030049 0.0017375 0.0017723 -0.00072186 0.16429 -0.13798
0.0011379 0.0051687 -0.0024893 0.00033357
-0.00017923 0.0018455 0.00051952 0.001325 0.0015448 0.0020986 0.0011418 0.0051572
0.25196 0.038221 0.0050444 0.0013717
0.00012135 -0.00047721 1.1744e-05 0.00099951 -0.00091343 0.0013181 -0.002497 0.00031742
0.0050716 0.0013666 0.27719 0.060642
1940000000 0.17753 -0.17185 -8.6029e-05 -0.0013581 0.0014452 0.0022807 -0.0037975 0.00052491
0.0012901 0.0011604 -0.00045075 -0.00049704
-8.9855e-05 -0.0013598 0.2626 0.094502 -0.0014557 0.0041575 0.0010785 0.0014343
0.0018818 0.00059278 0.0010676 0.00040927
0.0014643 0.002281 -0.00144 0.0041673 0.061754 -0.24613 0.00068679 -0.0022888
0.0026434 0.00041392 0.00067828 0.0016404
-0.0037988 0.00054931 0.0010836 0.0014242 0.00068193 -0.0022976 0.11141 -0.16791
0.00042337 0.0039487 -0.0014285 0.0016476
0.001307 0.0011255 0.0018916 0.00058584 0.0026589 0.00041214 0.00044003 0.0039553
0.25472 -2.1602e-05 0.0035733 -0.0017683
-0.00044338 -0.00050871 0.0010815 0.00039654 0.00067899 0.001642 -0.0014138 0.0016555
0.0035874 -0.0017758 0.26606 0.024214
2000000000 0.13168 -0.18683 -0.0038589 0.0006016 0.0026732 0.0016451 -0.0024687 0.0037555
0.0013102 0.00050359 -0.00061362 0.00051778
-0.0038589 0.000593 0.2486 0.05881 -0.0009385 0.0059271 0.0016216 0.00044956
0.0014117 -0.0010681 0.00056793 0.00021704
0.0026952 0.001623 -0.0008983 0.0059355 0.018995 -0.2321 -0.0011863 -0.0014572
0.002187 -0.0012048 0.0018626 0.0012942
-0.0024209 0.0037597 0.0016257 0.0004464 -0.0011933 -0.0014569 0.057471 -0.17726
-0.0012617 0.0037428 3.4403e-05 0.0022246
0.0013201 0.00049579 0.0014128 -0.0010862 0.0021874 -0.001224 -0.0012441 0.0037421
0.24956 -0.033358 0.00076529 -0.0023483
