!Keysight Technologies,M9804A,MY58100912,A.14.10.03
!Date: Thursday, April 27, 2023 10:28:33
!Correction: S11(C  6-Port  ) 
!S12(C  6-Port  ) 
!S13(C  6-Port  ) 
!S14(C  6-Port  ) 
!S15(C  6-Port  ) 
!S16(C  6-Port  ) 
!S21(C  6-Port  ) 
!S22(C  6-Port  ) 
!S23(C  6-Port  ) 
!S24(C  6-Port  ) 
!S25(C  6-Port  ) 
!S26(C  6-Port  ) 
!S31(C  6-Port  ) 
!S32(C  6-Port  ) 
!S33(C  6-Port  ) 
!S34(C  6-Port  ) 
!S35(C  6-Port  ) 
!S36(C  6-Port  ) 
!S41(C  6-Port  ) 
!S42(C  6-Port  ) 
!S43(C  6-Port  ) 
!S44(C  6-Port  ) 
!S45(C  6-Port  ) 
!S46(C  6-Port  ) 
!S51(C  6-Port  ) 
!S52(C  6-Port  ) 
!S53(C  6-Port  ) 
!S54(C  6-Port  ) 
!S55(C  6-Port  ) 
!S56(C  6-Port  ) 
!S61(C  6-Port  ) 
!S62(C  6-Port  ) 
!S63(C  6-Port  ) 
!S64(C  6-Port  ) 
!S65(C  6-Port  ) 
!S66(C  6-Port  ) 
!S6P File: Measurement: :
# Hz S  RI   R 50
500000000 -0.33438 -0.051637 -0.01042 -0.00099942 -0.0085609 0.013286 -0.0047813 0.012538
0.011681 0.0055253 -0.0039938 0.0085755
-0.010235 -0.0014078 -0.41749 -0.061854 0.0080397 -0.010011 0.001022 0.012458
0.0075905 0.0027435 0.0011457 0.013897
-0.0084258 0.013273 0.0079175 -0.010121 -0.26655 0.20056 0.0065615 0.0037526
-0.0022861 0.0080627 0.0011676 0.012777
-0.0042569 0.012279 0.0014768 0.012369 0.0067535 0.0035878 -0.33217 0.044612
-0.017355 -0.0049841 0.01617 0.025134
0.012156 0.0049531 0.0075371 0.0022722 -0.001932 0.0085777 -0.018217 -0.0050969
-0.25074 -0.19054 -0.026165 0.00433
-0.004217 0.0087208 0.001516 0.014047 0.00074332 0.012454 0.015795 0.025288
-0.025624 0.0040955 -0.27371 -0.11543
560000000 -0.31808 0.11456 -0.023534 -0.065021 -0.00035283 0.013169 0.0059452 0.010718
0.010152 0.0031686 0.010681 0.0086608
-0.023437 -0.064389 -0.37485 0.10155 -0.041553 -0.037216 0.01343 0.00339
-0.013987 -0.0036614 0.0038588 -0.00044014
0.00011116 0.013303 -0.04294 -0.037815 -0.18547 0.25094 0.00049136 -0.0044048
0.019335 0.0036695 0.0076225 -0.0046232
0.006184 0.010818 0.013583 0.0042383 0.00025323 -0.0050201 -0.30727 0.13609
0.0066492 -0.024147 0.0044342 -0.021539
0.0098762 0.0047355 -0.013434 -0.0049138 0.01887 0.0043618 0.0061753 -0.023289
-0.30885 -0.011958 0.0069153 -0.047431
0.010503 0.0079284 0.0038382 -0.00081592 0.0075653 -0.0049148 0.0049025 -0.021871
0.0073006 -0.048442 -0.3316 0.02814
620000000 -0.27704 0.094054 -0.023022 0.0089165 0.0036337 0.0097447 0.0082232 -0.0046347
0.012065 -0.0020709 0.00031194 -0.0013222
-0.022937 0.0087918 -0.40352 0.05059 -0.018279 0.00052275 -0.0012567 -0.0024258
0.011749 -0.0064301 0.00119 -0.0028357
0.0037237 0.0095915 -0.018233 0.00070706 -0.15529 0.2612 -0.00061097 -0.0054814
-0.0029777 -0.0030725 0.0096291 -0.0032975
0.0076565 -0.0042007 -0.0015926 -0.0018668 -0.0010239 -0.00468 -0.26598 0.14622
-0.037513 -0.019899 0.011965 0.025473
0.013388 -0.0010357 0.012181 -0.0068873 -0.0029648 -0.0032552 -0.037339 -0.019878
-0.23156 -0.042847 -0.039892 0.012173
0.00059234 -0.0012959 0.0010856 -0.002725 0.0090431 -0.0028701 0.01242 0.024424
-0.039066 0.012964 -0.25353 -0.0040179
680000000 -0.23864 0.18452 -0.026191 -0.014598 0.005386 0.0051825 0.0015038 -0.0074776
-0.0020417 -0.011962 0.0047205 -0.007477
-0.026231 -0.014567 -0.38954 0.15107 -0.032278 -0.0019228 -0.0012675 -0.00049917
-0.0020172 -0.0096306 -0.00092433 -0.0015243
0.0053098 0.005337 -0.032346 -0.0019559 -0.10345 0.2811 -0.00099414 -0.00041716
-0.0018994 0.00023362 -0.0026187 -0.0090636
0.0013808 -0.0071634 -0.001031 -0.00065301 -0.0007335 -0.0004081 -0.22133 0.19727
-0.022739 -0.0079618 -0.0086894 -0.011251
-0.0020805 -0.011862 -0.0018571 -0.009539 -0.0017887 0.00042835 -0.022714 -0.0079639
-0.27732 0.057933 -0.0069706 -0.0079337
0.0050487 -0.0069778 -0.00073797 -0.0019396 -0.0025701 -0.009363 -0.0091888 -0.010868
-0.0067992 -0.0091585 -0.2596 0.097357
740000000 -0.19317 0.17802 -0.039745 0.02652 0.013611 -0.0048349 -0.00046858 -0.0041568
-0.0047972 -0.002462 -0.0059562 0.003623
-0.039955 0.026497 -0.33492 0.16935 -0.036471 0.035164 -0.00017486 -0.0061037
-0.012093 0.0068389 -0.0017965 -0.0060873
0.013535 -0.0050326 -0.036461 0.035282 -0.070118 0.27875 -0.0019603 0.0033137
-0.0019737 -0.0051133 -0.0017133 0.0006338
-0.00053782 -0.0045812 4.9595e-06 -0.0060688 -0.0022581 0.0034959 -0.20319 0.20465
-0.042796 -0.0074112 0.021671 0.014081
-0.0046611 -0.0025228 -0.012491 0.0070206 -0.0019709 -0.0054851 -0.04267 -0.0076694
-0.17897 0.082365 -0.041094 0.0015993
-0.0066225 0.0035258 -0.0015432 -0.0059548 -0.0019288 0.0011591 0.022043 0.014377
-0.040963 0.0018749 -0.24749 0.1048
800000000 -0.16134 0.22175 -0.02263 0.016269 0.0056505 -0.010604 -0.0044951 -0.0021674
-0.0044357 0.002707 0.0038688 0.00053393
-0.022617 0.016265 -0.3407 0.24018 -0.0084477 0.034009 -0.0022933 0.0020655
-0.0011843 0.0030221 0.00086624 0.0053845
0.0055731 -0.010716 -0.008357 0.03403 -0.030781 0.30252 0.00075346 0.0015241
0.00017505 0.0035852 -0.0017049 0.00065364
-0.0045956 -0.002081 -0.0022068 0.0020655 0.00080716 0.0013652 -0.17367 0.23219
-0.028181 0.013054 0.013757 -0.010284
-0.0043289 0.0026866 -0.0010769 0.0028203 -1.5086e-05 0.0037082 -0.028142 0.013181
-0.22017 0.1129 -0.017076 0.019692
0.0042628 0.00063395 0.00082431 0.0053589 -0.0019437 0.00069223 0.013201 -0.010309
-0.016607 0.01984 -0.23823 0.1542
860000000 -0.12678 0.24151 -0.017922 0.030405 -0.0029147 -0.010125 -0.002202 0.00086183
0.0039238 0.0054875 -0.0033765 -0.002486
-0.017912 0.030294 -0.29241 0.28263 0.0073921 0.034264 -7.0349e-05 0.0020845
0.0035927 0.00045029 0.003676 0.00050938
-0.0029203 -0.01016 0.0075743 0.03437 0.016591 0.31077 -0.00062929 -0.00010534
0.0022279 -0.0013648 0.0016153 0.0044486
-0.0023312 0.00068107 8.9839e-05 0.0022545 -0.0008743 -0.0001257 -0.13746 0.24303
-0.018411 0.01787 -0.0068132 -0.0089821
0.0040905 0.004985 0.0035828 0.00069809 0.0023563 -0.0015603 -0.018289 0.018177
-0.16426 0.16212 -0.024087 0.016735
-0.0036197 -0.0020842 0.00334 0.00053187 0.001775 0.0044637 -0.0064832 -0.0089968
-0.023934 0.017127 -0.1894 0.19862
920000000 -0.1033 0.26486 0.0044579 0.038084 -0.0093072 -0.0048277 -0.0019103 0.0018673
0.00087729 0.0022093 0.0028193 -0.0012258
0.0045379 0.038115 -0.26528 0.30418 0.028022 0.022727 0.0014811 0.0011224
0.0072877 -0.00012498 0.0040742 -0.0025719
-0.0093839 -0.0048931 0.028006 0.022709 0.06209 0.31232 0.0019363 5.0691e-05
0.00095237 -6.778e-05 0.0010182 -0.001176
-0.001891 0.0017745 0.0015095 0.00125 0.0019972 3.61e-05 -0.11285 0.25936
-0.010922 0.030007 0.0035387 -0.0066894
0.0010447 0.0020374 0.0073763 -0.00010925 0.00097964 -7.8385e-05 -0.011144 0.030323
-0.15222 0.17016 -0.0015048 0.026785
0.0031611 -0.0013647 0.0040966 -0.0027613 0.0010863 -0.0011581 0.0034699 -0.00653
-0.0016893 0.026349 -0.19365 0.21196
980000000 -0.056591 0.28459 0.016838 0.030169 -0.0094347 0.0041654 0.0019071 0.0037558
0.004092 -0.0016979 -0.002947 -0.0025903
0.016824 0.030174 -0.2119 0.33865 0.03329 0.0053323 0.0021002 -1.2423e-05
0.0017454 -0.0061959 -0.00033546 -0.0026794
-0.0094159 0.004229 0.033382 0.0052812 0.10795 0.30636 0.0006629 -0.0011279
0.00049939 -0.0019838 0.0015 -0.00020498
0.0018367 0.0036915 0.0020315 -0.00011299 0.00068463 -0.0011819 -0.074712 0.27063
0.0071366 0.029976 -0.0089601 -0.0065871
0.0041601 -0.0016316 0.0018465 -0.0060722 0.00047251 -0.002 0.0072904 0.029896
-0.11859 0.19753 0.005551 0.019123
-0.0029967 -0.0022765 -0.0003056 -0.0025706 0.0014743 -0.00026872 -0.0089402 -0.0068649
0.0059931 0.019358 -0.15048 0.256
1040000000 -0.015165 0.29405 0.032835 0.019017 -0.0015428 0.0070338 0.0026023 0.00087101
0.0004025 -0.003435 -0.00017019 -0.0013791
0.032788 0.019039 -0.177 0.35215 0.030045 -0.014517 0.0017213 -0.0017648
-0.0018613 -0.0026077 -0.00097613 -0.0028633
-0.0015211 0.0069534 0.030009 -0.014652 0.15372 0.29355 -0.00040719 -0.0016498
-0.0014728 -0.00089419 -0.00049015 -0.0010753
0.0026555 0.00081628 0.0017048 -0.0017165 -0.00044441 -0.0016155 -0.047455 0.28029
0.019166 0.018493 -0.0026506 0.0013163
0.00050762 -0.0036347 -0.0018882 -0.0026478 -0.0014684 -0.00094918 0.019191 0.018413
-0.085739 0.20484 0.014154 0.017863
-0.00040408 -0.0014519 -0.0010957 -0.0026698 -0.00045531 -0.0009891 -0.0026322 0.0014119
0.014255 0.017676 -0.12779 0.27514
1100000000 0.029812 0.30299 0.036372 -0.0034761 0.002802 0.0041221 0.0024436 -0.0012102
-0.0020763 -0.0031591 -0.0041455 -0.00020916
0.03632 -0.0034999 -0.13374 0.37007 0.015898 -0.027888 0.00012279 -0.0018746
-0.0036571 -0.00094971 -0.0035931 -0.00063819
0.0027925 0.0041054 0.015828 -0.027981 0.19992 0.27414 -0.001887 0.00015389
-0.0017708 0.00043907 -0.0011277 -0.00043344
0.0025257 -0.0012138 8.7755e-05 -0.001843 -0.0019215 0.00012947 -0.0069717 0.28527
0.024631 0.0053701 -0.0024118 0.00031233
-0.0020563 -0.0031537 -0.0036243 -0.00098306 -0.0017854 0.00039258 0.024556 0.0052629
-0.064646 0.21744 0.019298 0.0076668
-0.0041138 -0.00017355 -0.0036332 -0.00063987 -0.0010844 -0.00046892 -0.0024799 0.00036429
0.019508 0.0078914 -0.081964 0.30335
1160000000 0.080813 0.29882 0.024435 -0.020593 0.0027507 -0.00035068 -8.6913e-05 -0.0024726
-0.0040338 -0.00072621 -0.00076128 0.003921
0.024459 -0.020539 -0.090552 0.37468 -0.0032908 -0.029639 -0.0016203 -0.0017127
-0.0027769 0.0025068 -0.0014986 0.0018064
0.0027784 -0.00038037 -0.0034033 -0.029625 0.24306 0.24409 -0.00083166 0.0018097
-0.0006011 0.0019712 -0.0009614 0.00033738
-8.6853e-05 -0.0024711 -0.0016723 -0.0016833 -0.00083017 0.0017653 0.032025 0.28263
0.020874 -0.01021 -0.0029355 0.0050738
-0.0040149 -0.00073814 -0.002739 0.0026605 -0.00048855 0.0019253 0.020893 -0.010141
-0.029796 0.22492 0.018161 -0.00044244
-0.00083125 0.0040661 -0.001432 0.0018299 -0.00088125 0.00035077 -0.0029657 0.0050878
0.017787 -0.00061246 -0.035624 0.30543
1220000000 0.12505 0.28895 0.011106 -0.030143 -0.0016216 -0.0008392 8.7252e-06 -0.00092425
-0.0026241 0.0021977 0.0011122 0.00211
0.011086 -0.03013 -0.046578 0.38772 -0.016938 -0.021927 -0.002684 0.000445
9.1759e-06 0.0030254 -0.0007586 0.001997
-0.0016114 -0.0008742 -0.017054 -0.02188 0.28241 0.20579 0.00075686 0.0017505
0.00060923 0.001185 0.00023275 0.00053087
-5.7068e-06 -0.00096486 -0.0027036 0.00045216 0.00074896 0.0016984 0.072221 0.27442
0.010681 -0.016817 0.0019782 0.0016268
-0.0026361 0.00228 0.00010426 0.0031042 0.00060865 0.0011931 0.010595 -0.01682
-0.0056778 0.23326 0.013247 -0.013306
0.001115 0.0020383 -0.00077058 0.0018466 0.00020928 0.00055704 0.0020882 0.0015561
0.013347 -0.013188 -0.0032438 0.32004
1280000000 0.17518 0.26838 -0.0076677 -0.028834 -0.0020012 0.0024278 -0.00092869 -0.0020767
-0.00071966 0.0031178 0.0025388 0.0010821
-0.0076472 -0.028811 -0.00063626 0.37937 -0.024224 -0.0090526 -0.0010192 0.0015003
0.0017372 0.0017277 0.00060399 0.0019203
-0.0020099 0.0024718 -0.024278 -0.0089605 0.31316 0.16226 0.0015402 -6.9628e-05
0.0012298 0.00024562 0.00034002 0.00025306
-0.00089524 -0.0020693 -0.00095001 0.0015026 0.0015732 -5.566e-05 0.1092 0.25816
0.0010249 -0.019062 0.0001201 0.00030589
-0.00067085 0.0031628 0.0018585 0.001757 0.0012102 0.00032089 0.00093759 -0.019114
0.030901 0.23563 0.0028075 -0.015047
0.0025938 0.0011711 0.00066966 0.0019529 0.00046796 0.00020143 8.2623e-05 0.00036648
0.0028238 -0.015235 0.043396 0.32022
1340000000 0.21261 0.23537 -0.017617 -0.019242 0.00079035 0.0047798 -0.0018495 -0.00085465
0.0014653 0.0026389 0.0018456 -0.0013637
-0.017571 -0.019265 0.038951 0.37191 -0.022052 0.0040668 -8.6866e-05 0.0020219
0.0020351 0.00074585 0.001289 0.00079533
0.00083496 0.0047711 -0.022068 0.0041529 0.33538 0.11519 0.0010901 -0.0009501
0.00065057 -0.00053688 9.8443e-05 0.00020941
-0.0018223 -0.00082856 -0.00010595 0.002027 0.0010578 -0.00092466 0.14242 0.23786
-0.0083284 -0.016364 0.00081653 0.0004514
0.001459 0.0026031 0.0020334 0.00069839 0.00066771 -0.00058375 -0.0083163 -0.016346
0.061036 0.23058 -0.0040023 -0.013881
0.0018167 -0.0014389 0.0012632 0.00081884 0.00010142 0.0001937 0.00085518 0.00041621
-0.0038642 -0.013749 0.081548 0.31523
1400000000 0.24644 0.1981 -0.02359 -0.0076414 0.0053008 0.0033876 -0.0022466 0.00062574
0.0023704 0.00093083 0.00028451 -0.0015524
-0.023558 -0.0076577 0.076561 0.35953 -0.015461 0.012617 0.0013617 0.0012732
0.0012741 -0.00082068 0.0011087 0.00020747
0.0053176 0.0033414 -0.015396 0.012695 0.34893 0.06206 3.3919e-05 -0.0015682
1.7488e-05 -0.00033314 0.00025697 0.00020591
-0.0022415 0.00065944 0.0013909 0.0012989 5.4879e-05 -0.0015594 0.17235 0.20884
-0.014306 -0.0096624 -0.00070993 -0.00031963
0.002397 0.00097452 0.0012854 -0.00086836 6.869e-05 -0.00035386 -0.01433 -0.0096179
0.094611 0.22558 -0.010245 -0.0086453
0.00031628 -0.0016035 0.0011346 0.00014206 0.00025482 0.00025193 -0.00076926 -0.00028092
-0.010277 -0.0086378 0.1254 0.30342
1460000000 0.26978 0.15432 -0.020458 0.0046852 0.005915 -0.0017415 -0.0015404 0.0018102
0.0021461 -0.00040388 -0.0003675 -0.0010024
-0.020464 0.0046678 0.11115 0.33797 -0.0063877 0.01587 0.0017373 0.00012873
0.0008198 -0.0013752 0.0012345 -0.00059738
0.0058725 -0.0017295 -0.0063395 0.015891 0.35563 0.0080178 -0.0011536 -0.0012381
0.00010833 -0.00020408 0.00061569 -0.00032822
-0.001575 0.0018244 0.0016501 0.00017196 -0.0012009 -0.0012132 0.19908 0.17927
-0.015462 -0.0030948 -0.00085605 0.0017591
0.0021285 -0.00041529 0.00082699 -0.0014148 0.00014387 -0.0002361 -0.015427 -0.0029794
0.12378 0.21078 -0.01197 -0.0027574
-0.0003623 -0.0010442 0.001205 -0.00059811 0.00055731 -0.00023104 -0.00090298 0.0017567
-0.012041 -0.0027604 0.15822 0.2826
1520000000 0.28243 0.11298 -0.014857 0.010309 0.0036012 -0.0042923 0.0001663 0.0025803
0.0021383 -0.0019322 -0.001169 -0.00015411
-0.014852 0.010278 0.14504 0.32376 0.0016243 0.013604 0.0016018 -0.00076314
4.9461e-05 -0.0010648 0.00035721 -0.00099613
0.0035617 -0.0043252 0.0016805 0.013608 0.34928 -0.047768 -0.00099998 -0.00038107
0.00063778 -0.00084482 0.00013995 -0.00020835
0.0001199 0.0025555 0.0016082 -0.00078331 -0.0010507 -0.00040722 0.2227 0.14082
-0.014827 0.002716 0.0013971 0.0019994
0.0020756 -0.002006 2.116e-05 -0.0010849 0.00066471 -0.00081233 -0.014781 0.0026991
0.15187 0.19705 -0.011765 0.0017728
-0.0011386 -0.0001362 0.00033303 -0.0010516 7.4622e-05 -0.00017575 0.0014189 0.0019932
-0.011798 0.0017787 0.19104 0.26148
1580000000 0.29261 0.066842 -0.0081062 0.013458 -0.0008211 -0.00516 0.001475 0.0018954
-0.0002229 -0.0021738 -0.00024876 0.00042494
-0.0080909 0.013451 0.17271 0.299 0.0055802 0.008513 0.00052144 -0.0015709
-0.00056129 -0.0010235 -0.00018995 -0.0008869
-0.00085172 -0.0051622 0.0056116 0.0084907 0.32987 -0.1055 -0.0015796 0.00053599
-0.00031722 -0.0012073 0.00024487 -0.00049078
0.0015425 0.0018506 0.00046477 -0.0015415 -0.0016259 0.00051525 0.23665 0.10074
-0.011362 0.0073796 0.0021232 0.0007073
-0.00019484 -0.0021854 -0.00056789 -0.00099133 -0.00030602 -0.0011696 -0.011303 0.0074269
0.17611 0.17852 -0.0091915 0.0073821
-0.00029397 0.00042775 -0.00019958 -0.00084918 0.00023735 -0.00058825 0.0021887 0.0006744
-0.0092394 0.0073519 0.22239 0.2344
1640000000 0.29508 0.025693 -0.0013257 0.012299 -0.0029179 -0.0027971 0.0026739 0.0010441
-0.00074897 -0.0015924 -0.00033694 0.00062047
-0.001352 0.012293 0.20249 0.27424 0.0062885 0.0033986 -0.00059679 -0.0017414
-0.0009411 -0.00037959 -0.00050341 -0.00069787
-0.0028956 -0.0027699 0.0063283 0.0033934 0.30187 -0.15505 -0.00069121 0.0014616
-0.0010464 -0.0010123 -0.00018156 -0.00037258
0.0026741 0.0010022 -0.00060037 -0.0017413 -0.00068615 0.0014546 0.24898 0.051418
-0.0072118 0.008724 0.0024485 -0.00081222
-0.00073416 -0.0015841 -0.00095296 -0.00039375 -0.0010775 -0.00099221 -0.0071473 0.0088069
0.19913 0.15438 -0.0045208 0.0093897
-0.00032315 0.00054552 -0.00052227 -0.0006848 -0.0001906 -0.00033569 0.0023799 -0.00076729
-0.0045786 0.0093877 0.24748 0.20311
1700000000 0.28838 -0.019643 0.0020085 0.0094774 -0.0037183 -0.00012864 0.0031743 -0.0011825
-0.0019672 -0.00062424 0.00062828 0.00039928
0.0020104 0.0094807 0.22095 0.24278 0.0041643 0.00041328 -0.0014293 -0.00063825
-0.00082129 2.5447e-05 -0.00090562 -0.00046178
-0.0037635 -6.3581e-05 0.0041673 0.00035179 0.25865 -0.19482 0.00042044 0.0015283
-0.0019826 -0.00014806 -0.00044988 -0.00086803
0.0031366 -0.0011784 -0.0014621 -0.00058439 0.00040017 0.0015942 0.24551 0.0010255
-0.0043107 0.0093438 0.0014889 -0.002221
-0.0019515 -0.00059361 -0.0008186 4.3199e-05 -0.0019234 -0.00012237 -0.0043542 0.0093421
0.21661 0.13372 -0.0001362 0.009532
0.00061953 0.00035666 -0.00092228 -0.0004804 -0.00040692 -0.0008606 0.001544 -0.0022341
-6.0827e-05 0.009511 0.26354 0.16874
1760000000 0.27656 -0.068477 0.0044159 0.0061932 -0.0024627 0.0010736 0.0013248 -0.0034002
-0.0014483 0.0006473 0.00039206 -0.00054451
0.0044082 0.0061979 0.24714 0.20298 0.0017796 -0.0014332 -0.0011878 0.00012149
-0.0010732 0.00086282 -0.00060647 0.00039971
-0.0023926 0.001099 0.0017627 -0.0014591 0.21013 -0.2278 0.0011347 0.0011171
-0.0013543 0.0014771 -0.0012763 -0.00071209
0.0012468 -0.0033649 -0.0012301 0.00010064 0.0011327 0.001122 0.23577 -0.050911
-0.0011618 0.0084209 -0.00025159 -0.002487
-0.0014384 0.00062623 -0.0010675 0.0008517 -0.0013159 0.0015027 -0.0012637 0.008412
0.23134 0.09873 0.0038151 0.0071037
0.00037966 -0.00055698 -0.00061011 0.00039722 -0.0012084 -0.00068496 -0.00024253 -0.0024356
0.0037337 0.0069718 0.276 0.13086
1820000000 0.25229 -0.10592 0.0045821 0.0025885 -0.00029099 0.0024372 -0.0010398 -0.0030875
-0.0010984 0.00097304 -0.00022164 -0.0001357
0.0045566 0.0025861 0.2574 0.1729 -0.00063222 -0.00038878 -0.0013792 0.00094476
-0.0001041 0.001246 -0.00069143 0.00054769
-0.0002332 0.0024457 -0.00064565 -0.00042165 0.15993 -0.24382 0.0015731 0.00047771
-0.00028659 0.0024348 -0.0015499 0.00040239
-0.00099258 -0.0031221 -0.0013412 0.00090355 0.0015794 0.00053255 0.20515 -0.097916
0.00028337 0.007164 -0.0017315 -0.0014854
-0.0010812 0.0010077 -0.00010486 0.0012533 -0.00026501 0.0024653 0.00029167 0.0071345
0.24839 0.069983 0.0045625 0.0036241
-0.00020158 -0.00013722 -0.00064539 0.00056582 -0.0015177 0.00048273 -0.0017267 -0.0014314
0.0046514 0.0036781 0.2778 0.094681
1880000000 0.21703 -0.14657 0.0023581 0.00027234 -0.00050817 0.0021772 -0.0028495 -0.0023272
-0.00024821 0.0018558 0.0002903 -0.00044895
0.0023545 0.00022543 0.262 0.12621 -0.0026553 0.0014921 -0.00027456 0.0017042
0.00055249 0.0013771 5.4543e-05 0.00098817
-0.00051205 0.0022288 -0.0026292 0.0014992 0.10771 -0.25359 0.0017674 -0.00087465
0.0015752 0.0020848 -0.0010237 0.0014135
-0.0029053 -0.0022321 -0.00023341 0.0017604 0.0018492 -0.0008784 0.16396 -0.13793
0.0012459 0.0051948 -0.0024977 0.00043919
-0.00023037 0.0019117 0.00055682 0.0013635 0.0015693 0.0020599 0.0011557 0.0052463
0.25198 0.03795 0.0046725 0.0013791
0.00017684 -0.00045089 8.7851e-05 0.00094587 -0.0010768 0.0014355 -0.0024735 0.00055211
0.0046641 0.0014024 0.27732 0.060658
1940000000 0.17754 -0.17197 -0.00011923 -0.001365 0.0014381 0.0023073 -0.0037253 0.00043564
0.0013785 0.0011553 -0.00052017 -0.00051114
-0.00011181 -0.0013653 0.26261 0.094438 -0.0015056 0.0041201 0.0011362 0.0013799
0.0019166 0.0005532 0.0010047 0.0004316
0.0014312 0.002321 -0.0014681 0.0041704 0.061662 -0.24618 0.00057404 -0.0023815
0.002427 0.00037766 0.00065312 0.001648
-0.0037734 0.0004639 0.0010464 0.0012993 0.00055981 -0.002362 0.1112 -0.1679
0.00043033 0.0041476 -0.0012771 0.0017318
0.0013773 0.0011598 0.0019591 0.00051568 0.0025436 0.00035961 0.00032716 0.0040596
0.25468 -0.00014573 0.0036106 -0.0016372
-0.00043091 -0.00061882 0.0010639 0.00045832 0.00072808 0.0016503 -0.0014252 0.001783
0.0035166 -0.0017259 0.26591 0.024407
2000000000 0.13156 -0.18691 -0.003897 0.0005833 0.002621 0.0015602 -0.0024543 0.0038052
0.0013247 0.00048996 -0.00055396 0.00053168
-0.0038955 0.0005641 0.2486 0.058759 -0.00089182 0.0059607 0.001567 0.00042814
0.0014661 -0.0011602 0.0005866 0.00013555
0.0026398 0.0016096 -0.00090065 0.005982 0.019162 -0.23224 -0.0012667 -0.0015356
0.0022394 -0.0013329 0.0017532 0.0012545
-0.002362 0.0038503 0.0016393 0.00037922 -0.0013232 -0.0015451 0.057549 -0.17716
-0.00099519 0.0039597 8.5231e-05 0.0020846
0.0012666 0.00044858 0.0014655 -0.0011451 0.0021973 -0.0012858 -0.0010255 0.0037539
0.24971 -0.033404 0.00063634 -0.0025388
