!Keysight Technologies,M9804A,MY58100912,A.14.10.03
!Date: Thursday, April 27, 2023 10:28:33
!Correction: S11(C  6-Port  ) 
!S12(C  6-Port  ) 
!S13(C  6-Port  ) 
!S14(C  6-Port  ) 
!S15(C  6-Port  ) 
!S16(C  6-Port  ) 
!S21(C  6-Port  ) 
!S22(C  6-Port  ) 
!S23(C  6-Port  ) 
!S24(C  6-Port  ) 
!S25(C  6-Port  ) 
!S26(C  6-Port  ) 
!S31(C  6-Port  ) 
!S32(C  6-Port  ) 
!S33(C  6-Port  ) 
!S34(C  6-Port  ) 
!S35(C  6-Port  ) 
!S36(C  6-Port  ) 
!S41(C  6-Port  ) 
!S42(C  6-Port  ) 
!S43(C  6-Port  ) 
!S44(C  6-Port  ) 
!S45(C  6-Port  ) 
!S46(C  6-Port  ) 
!S51(C  6-Port  ) 
!S52(C  6-Port  ) 
!S53(C  6-Port  ) 
!S54(C  6-Port  ) 
!S55(C  6-Port  ) 
!S56(C  6-Port  ) 
!S61(C  6-Port  ) 
!S62(C  6-Port  ) 
!S63(C  6-Port  ) 
!S64(C  6-Port  ) 
!S65(C  6-Port  ) 
!S66(C  6-Port  ) 
!S6P File: Measurement: :
# Hz S  RI   R 50
500000000 -0.33007 -0.064686 -0.0097985 -0.0017577 -0.0088607 0.012288 -0.00377 0.011599
0.012949 0.0047689 -0.0045807 0.0082481
-0.0095602 -0.0016164 -0.41157 -0.072754 0.0086516 -0.011162 0.0014531 0.01175
0.0084027 0.0026315 0.001781 0.013891
-0.0088381 0.012621 0.0086929 -0.011146 -0.26512 0.19132 0.0073572 0.0033853
-0.0026572 0.0086891 0.0012418 0.01216
-0.0043745 0.011005 0.0014096 0.011696 0.0072488 0.0034432 -0.3302 0.037857
-0.01829 -0.0050056 0.016828 0.025093
0.012888 0.0051229 0.0083749 0.0025332 -0.0024619 0.0087278 -0.018394 -0.0050136
-0.236 -0.21242 -0.027012 0.0042921
-0.0052412 0.0072076 0.0018458 0.013567 0.0010585 0.012326 0.016852 0.024978
-0.026756 0.0042709 -0.26536 -0.1401
560000000 -0.31881 0.10333 -0.021796 -0.0668 -0.00016991 0.013331 0.0051075 0.011815
0.01101 0.0057173 0.010286 0.0078073
-0.021923 -0.066708 -0.3731 0.092755 -0.040934 -0.039955 0.013947 0.0036263
-0.012473 -0.0050869 0.0036985 -0.0011694
-0.00037302 0.013365 -0.041069 -0.040082 -0.18691 0.24427 -0.00053524 -0.0050972
0.017415 0.0063193 0.0074543 -0.0068306
0.0054589 0.012076 0.014146 0.0036538 -0.00056647 -0.0050276 -0.30641 0.12996
0.0059446 -0.023129 0.0052157 -0.022289
0.010152 0.0038373 -0.012574 -0.005385 0.017282 0.0060977 0.0060602 -0.023059
-0.30845 -0.029182 0.0096614 -0.049664
0.011219 0.0081092 0.0038888 -0.00090756 0.0071653 -0.0071502 0.0053094 -0.022053
0.010461 -0.049847 -0.33197 0.010871
620000000 -0.27886 0.083522 -0.023042 0.0085352 0.003353 0.0092224 0.0076987 -0.0035803
0.012757 -0.0028805 -0.00069551 -0.00029565
-0.023075 0.0087543 -0.40207 0.038986 -0.018718 -0.00024482 -0.001755 -0.0020246
0.012756 -0.0058275 0.00090444 -0.0031957
0.0033782 0.0094006 -0.018688 -0.00017411 -0.158 0.25288 -0.00082911 -0.0053472
-0.003587 -0.0025692 0.0092159 -0.0033072
0.0073072 -0.0042584 -0.0019361 -0.0018824 -0.0008611 -0.0053304 -0.265 0.14035
-0.039265 -0.01897 0.014122 0.027817
0.013067 -0.0017143 0.012937 -0.0060696 -0.0037455 -0.0026464 -0.039055 -0.018987
-0.2236 -0.068712 -0.043798 0.011914
-0.00039658 -0.00083791 0.00071111 -0.003195 0.0092447 -0.0031434 0.013956 0.027178
-0.043858 0.012187 -0.24569 -0.025181
680000000 -0.24262 0.1754 -0.026465 -0.015589 0.0043955 0.005344 0.0010915 -0.0069379
-0.0017896 -0.011055 0.0061517 -0.0079667
-0.026165 -0.015616 -0.39126 0.14035 -0.032831 -0.0028681 -0.0017375 0.00022668
-0.0015089 -0.0090587 -0.00081173 -0.0020251
0.0045449 0.0054279 -0.03287 -0.0028098 -0.10782 0.27558 -0.00060578 6.3302e-05
-0.0016716 0.00057206 -0.0022973 -0.0094652
0.00085856 -0.0070134 -0.0016475 0.00024579 -0.00070906 8.1411e-05 -0.22092 0.19313
-0.022982 -0.0083217 -0.0093484 -0.011601
-0.0017598 -0.011056 -0.0015081 -0.0089952 -0.001499 0.00053309 -0.02293 -0.0082363
-0.27961 0.037467 -0.0061953 -0.0082265
0.0064041 -0.0076238 -0.00070361 -0.0021068 -0.0023058 -0.0096217 -0.0090198 -0.011163
-0.0063408 -0.0084319 -0.26229 0.081859
740000000 -0.19602 0.16913 -0.040746 0.026495 0.013651 -0.0042788 0.00036702 -0.0042332
-0.0048452 -0.0033182 -0.0058768 0.0029444
-0.040907 0.026167 -0.33773 0.16022 -0.03812 0.03414 -0.00012474 -0.0062799
-0.011923 0.0074313 -0.0013866 -0.0067669
0.013691 -0.00426 -0.038043 0.034288 -0.073763 0.27391 -0.001707 0.0033056
-0.0023358 -0.0058955 -0.0014235 0.0011107
0.00033 -0.0042909 -0.00019348 -0.0063329 -0.0016671 0.00321 -0.20493 0.20003
-0.042099 -0.0098082 0.022209 0.01615
-0.005074 -0.0030066 -0.012107 0.0072175 -0.0023825 -0.0057776 -0.042231 -0.0097778
-0.18143 0.068381 -0.042877 -0.0021435
-0.0060983 0.0029046 -0.0012657 -0.006709 -0.0014405 0.0011844 0.022173 0.016264
-0.042739 -0.0021004 -0.25285 0.087615
800000000 -0.16605 0.21455 -0.023032 0.015679 0.0056854 -0.010383 -0.0045962 -0.0030496
-0.0047492 0.0021265 0.00439 -2.1796e-05
-0.023055 0.015626 -0.34466 0.23116 -0.0094441 0.034125 -0.0021065 0.0018262
-0.00091252 0.0027206 0.0010366 0.0053035
0.0056322 -0.010311 -0.0093676 0.034216 -0.035352 0.29935 0.0007911 0.0012225
0.00013958 0.0034149 -0.0020733 0.00096811
-0.0045178 -0.0029032 -0.0020826 0.0018973 0.00079516 0.0012205 -0.17591 0.2274
-0.02845 0.012297 0.013597 -0.010504
-0.0046541 0.0020558 -0.00083743 0.0026789 0.00017854 0.0034257 -0.02849 0.012371
-0.22792 0.094076 -0.0171 0.020065
0.0043942 0.00036115 0.00093714 0.0053609 -0.0021363 0.00090448 0.013567 -0.010606
-0.017176 0.020041 -0.24766 0.13719
860000000 -0.13218 0.23557 -0.018878 0.030331 -0.0030131 -0.010148 -0.0017354 0.00074954
0.0039073 0.0053046 -0.0038386 -0.0033685
-0.018921 0.030223 -0.29768 0.27536 0.0066659 0.034734 7.0401e-05 0.002016
0.0035165 0.00052275 0.0029624 0.00022208
-0.0030833 -0.010209 0.0068087 0.03473 0.012194 0.30866 -0.00057828 -0.00033848
0.0022877 -0.0013753 0.0013641 0.0040075
-0.0018218 0.0006974 3.4496e-06 0.0021338 -0.00066682 -0.00036657 -0.1392 0.23932
-0.019244 0.017632 -0.0060464 -0.0090998
0.0037039 0.0051527 0.0035861 0.00046198 0.0023108 -0.0013934 -0.019155 0.017616
-0.17161 0.14847 -0.026154 0.016167
-0.0038509 -0.0035914 0.0029226 0.00012459 0.001346 0.004093 -0.0061379 -0.009115
-0.026149 0.016056 -0.19628 0.18416
920000000 -0.10901 0.25942 0.0038606 0.038902 -0.009306 -0.0050381 -0.0022665 0.0018495
0.00077912 0.0019273 0.0027933 -0.0011729
0.0038421 0.038801 -0.27036 0.2977 0.0277 0.023517 0.0013171 0.0011716
0.0075493 3.3884e-05 0.0045746 -0.0030807
-0.0093527 -0.0050219 0.027851 0.023476 0.057799 0.31064 0.0017669 0.00011611
0.00089826 2.585e-05 0.0010246 -0.0014174
-0.0022035 0.0019279 0.001385 0.0012072 0.0018227 5.1438e-05 -0.11562 0.25625
-0.012487 0.03063 0.0040412 -0.0062601
0.00091041 0.0020127 0.0075619 -9.925e-06 0.00087715 7.1126e-05 -0.012478 0.030679
-0.16214 0.15429 -0.0018436 0.027588
0.0027915 -0.0012143 0.004688 -0.002815 0.0011072 -0.0013458 0.0040637 -0.0063889
-0.0018116 0.027623 -0.2043 0.19695
980000000 -0.063126 0.28105 0.016068 0.031049 -0.0095666 0.0044348 0.001888 0.0040216
0.0040861 -0.0013106 -0.0031616 -0.0026722
0.016056 0.030964 -0.21807 0.33378 0.033147 0.0061806 0.0020211 -0.00011998
0.0017016 -0.0059847 -0.00029713 -0.0027115
-0.0095319 0.0044688 0.033241 0.006104 0.10392 0.30521 0.00081052 -0.0010845
0.00054012 -0.0016414 0.0015098 -0.00025506
0.0019556 0.0039368 0.0019685 -3.9927e-05 0.00078037 -0.0010906 -0.077491 0.26748
0.0065211 0.029844 -0.0096421 -0.0076075
0.0040473 -0.0013186 0.0017093 -0.0060432 0.00052257 -0.0015943 0.006557 0.029846
-0.12905 0.186 0.0048061 0.019762
-0.0032376 -0.0026077 -0.00044371 -0.0027758 0.0014961 -0.00028712 -0.0096456 -0.0075055
0.0046748 0.019611 -0.16357 0.2436
1040000000 -0.022101 0.29052 0.032875 0.02039 -0.0013741 0.0073919 0.0027859 0.00067696
0.00055647 -0.0032968 -6.4409e-05 -0.0014584
0.032856 0.020342 -0.18326 0.34812 0.030264 -0.0138 0.0017073 -0.0016987
-0.002069 -0.0023907 -0.0012092 -0.0029816
-0.0013309 0.0073751 0.030276 -0.01392 0.14965 0.29292 -0.00041702 -0.0016114
-0.0015296 -0.00097946 -0.00052533 -0.0010962
0.002737 0.00082098 0.0016821 -0.001684 -0.00042367 -0.0016134 -0.050584 0.27776
0.018381 0.019294 -0.0024487 0.0013502
0.00045444 -0.0032478 -0.0019461 -0.0023961 -0.0014958 -0.00097507 0.018445 0.01929
-0.096716 0.19429 0.013328 0.019063
-4.2329e-05 -0.0015821 -0.0011307 -0.0031773 -0.00050843 -0.0010824 -0.0024407 0.0013134
0.013205 0.019313 -0.14183 0.26541
1100000000 0.022871 0.30078 0.036995 -0.0023349 0.0032196 0.0043322 0.0025358 -0.0010724
-0.0020313 -0.0028115 -0.0039152 -0.00027054
0.036953 -0.0022344 -0.1396 0.3673 0.016325 -0.027456 8.8953e-06 -0.0017888
-0.0034799 -0.00081531 -0.0033487 -0.00064356
0.0032443 0.0042976 0.016254 -0.027569 0.19587 0.27411 -0.0018646 0.00014358
-0.0017108 0.00049588 -0.0010968 -0.00048152
0.0025894 -0.0010965 -1.8444e-05 -0.0018318 -0.0018911 0.0001449 -0.010529 0.28342
0.02431 0.0066148 -0.0023488 0.00034341
-0.0020484 -0.0027975 -0.0034368 -0.00073654 -0.0017205 0.00051577 0.024313 0.0065633
-0.076595 0.20889 0.019592 0.0097482
-0.0038214 -0.00028365 -0.0032462 -0.00062952 -0.0010701 -0.00052163 -0.0023458 0.00032529
0.01974 0.009602 -0.095019 0.29588
1160000000 0.073709 0.29763 0.025674 -0.019649 0.0033509 -0.00049824 -0.00014471 -0.002545
-0.0040652 -0.00087635 -0.0010585 0.0041285
0.025632 -0.019666 -0.096521 0.3726 -0.0025958 -0.02926 -0.0016042 -0.0018101
-0.0025071 0.0025084 -0.0015578 0.0018917
0.0033511 -0.00055563 -0.0027221 -0.029285 0.23908 0.24474 -0.00080286 0.0017572
-0.00053409 0.0018562 -0.00097863 0.00025775
-0.00024669 -0.0025908 -0.0015366 -0.0017328 -0.00079515 0.0017618 0.028435 0.28141
0.021508 -0.0093228 -0.0033883 0.0052529
-0.0040966 -0.0009325 -0.0024814 0.0024837 -0.00052187 0.0018679 0.021504 -0.0093311
-0.042519 0.21715 0.019152 0.00036048
-0.0010484 0.0043173 -0.0015662 0.0019636 -0.00095873 0.00028519 -0.0033371 0.005207
0.018992 0.00035968 -0.048305 0.29873
1220000000 0.11761 0.28902 0.012574 -0.030111 -0.0011451 -0.0014197 -1.1737e-05 -0.00098014
-0.0028714 0.002224 0.00089272 0.0021066
0.012591 -0.03008 -0.052221 0.38676 -0.016367 -0.021875 -0.0025471 0.00049761
-4.7212e-05 0.0029875 -0.00087231 0.0019295
-0.0011415 -0.0014071 -0.016487 -0.021825 0.27883 0.20718 0.00072025 0.0017612
0.00050835 0.0012888 0.00033008 0.00076684
1.0518e-05 -0.00098014 -0.0025711 0.00049093 0.0006953 0.0017273 0.068563 0.27362
0.011333 -0.01625 0.0024551 0.0015484
-0.0028828 0.0021613 -6.7854e-05 0.002969 0.00048062 0.0012588 0.011346 -0.016245
-0.018941 0.22776 0.014731 -0.012447
0.00091652 0.0020558 -0.00086257 0.0018703 0.00033027 0.00076831 0.0024774 0.0015579
0.01476 -0.012418 -0.018094 0.31652
1280000000 0.16819 0.26928 -0.0063928 -0.029525 -0.0020074 0.001904 -0.00090685 -0.0020703
-0.00087329 0.0032359 0.0025943 0.0014032
-0.0063772 -0.029515 -0.0058517 0.37887 -0.023793 -0.0090206 -0.00098256 0.0013811
0.0016092 0.0016655 0.00060426 0.0020257
-0.0020101 0.0019198 -0.023893 -0.0089243 0.31047 0.16412 0.0015135 -0.00010043
0.0011182 0.00025821 0.00030171 0.00023127
-0.00094261 -0.0020947 -0.0010229 0.0014257 0.0015234 -5.843e-05 0.10542 0.25808
0.0020451 -0.01874 0.00019717 0.00013798
-0.00082204 0.0033034 0.001679 0.0016795 0.0011187 0.00024812 0.002014 -0.018732
0.017282 0.23174 0.0040488 -0.015058
0.0026228 0.0014142 0.00066093 0.00197 0.00026355 0.00015587 0.0001975 0.00014426
0.0040009 -0.015095 0.029674 0.31934
1340000000 0.20565 0.23783 -0.016772 -0.020426 0.00044286 0.0042759 -0.001891 -0.00084946
0.001389 0.0028036 0.0017868 -0.001349
-0.016732 -0.020421 0.033615 0.37228 -0.021591 0.0038674 -0.00017806 0.0020059
0.0018392 0.00080761 0.0011516 0.00077785
0.00042483 0.0042615 -0.021595 0.0039742 0.33328 0.1174 0.00096172 -0.00089003
0.0005908 -0.00046531 9.6129e-05 0.0002662
-0.0018529 -0.00083755 -0.00014982 0.0019838 0.00095503 -0.0009072 0.13893 0.23837
-0.0073836 -0.016674 0.00099396 0.00021897
0.0013614 0.002748 0.0018116 0.00081089 0.00057714 -0.00043924 -0.0074115 -0.016657
0.047186 0.22825 -0.0028895 -0.014092
0.0017962 -0.0012863 0.0011566 0.00079156 0.00013545 0.00033546 0.0010058 0.00012788
-0.002875 -0.014068 0.067652 0.31518
1400000000 0.24052 0.2015 -0.023587 -0.0090066 0.0048384 0.0032172 -0.0022359 0.00072011
0.002562 0.00097666 0.00040927 -0.0015178
-0.023516 -0.0089921 0.072063 0.36025 -0.015031 0.012154 0.0012577 0.0013416
0.0012762 -0.00063617 0.0011544 0.00021067
0.004873 0.0032097 -0.014993 0.012264 0.34759 0.063908 7.3898e-05 -0.0014634
0.00013321 -0.00038441 0.00029714 0.00028062
-0.0021966 0.00069406 0.0012432 0.0013511 5.1875e-05 -0.0014581 0.16913 0.21001
-0.013745 -0.010152 -0.00076948 -0.00041852
0.0025795 0.00098732 0.0012591 -0.00068776 0.00013778 -0.00038677 -0.013776 -0.010121
0.080583 0.22485 -0.0096142 -0.0090298
0.00036236 -0.0016312 0.0011169 0.00017873 0.00031245 0.00024538 -0.00079816 -0.00040168
-0.009565 -0.0090861 0.1128 0.30576
1460000000 0.26423 0.15847 -0.021166 0.0037539 0.0054426 -0.0015917 -0.0015117 0.0017313
0.002175 -0.00034159 -0.00033267 -0.0011154
-0.02115 0.0037241 0.10686 0.33887 -0.006079 0.015325 0.0016497 0.00029381
0.00096456 -0.0012596 0.0012346 -0.00047034
0.0053855 -0.0016087 -0.0060249 0.015403 0.35449 0.0095865 -0.0011414 -0.0011404
0.00016227 -9.5505e-05 0.00083197 -0.00023967
-0.0015673 0.0017853 0.0016762 0.00027832 -0.0011674 -0.0011756 0.19615 0.18115
-0.015106 -0.0039426 -0.0011475 0.0018597
0.0022388 -0.00039736 0.0009633 -0.0012675 0.00016793 -0.00010887 -0.015126 -0.0039151
0.11019 0.21166 -0.011668 -0.0035225
-0.00024251 -0.0010399 0.0012355 -0.00056665 0.00080339 -0.00024119 -0.0011523 0.0018677
-0.011675 -0.0034777 0.14623 0.28565
1520000000 0.27826 0.11782 -0.015775 0.0096684 0.0032933 -0.0040184 0.00010842 0.0026377
0.0022245 -0.001897 -0.0012174 -9.5352e-05
-0.015767 0.0096547 0.14107 0.32521 0.0017086 0.012885 0.0016732 -0.00062413
0.00013631 -0.0010758 0.0003395 -0.001002
0.0033148 -0.0040571 0.0018043 0.012893 0.34798 -0.046332 -0.00091983 -0.00036993
0.00072492 -0.00097125 5.1715e-05 -0.00024422
0.0001303 0.002639 0.0016695 -0.00065139 -0.00091589 -0.00039464 0.22041 0.14327
-0.014943 0.0018103 0.0013357 0.0021081
0.0022173 -0.0019031 0.00014252 -0.0010703 0.00072277 -0.00096624 -0.014949 0.0018556
0.13862 0.19964 -0.011832 0.0011446
-0.0012214 -0.00014105 0.00035078 -0.00098271 0.00010466 -0.00019165 0.0013641 0.0020991
-0.011827 0.0010652 0.17958 0.26673
1580000000 0.28908 0.072055 -0.0091597 0.013513 -0.0010011 -0.0047151 0.0015459 0.0018377
-0.00019709 -0.0022194 -0.00021627 0.00045221
-0.0091329 0.013507 0.16915 0.30042 0.0053615 0.0078515 0.00066096 -0.0015276
-0.0004268 -0.0011693 -0.00013958 -0.00083289
-0.0010112 -0.0047071 0.0054143 0.0078238 0.32846 -0.10435 -0.0014849 0.00039891
-0.00022336 -0.0011783 0.00040083 -0.00045888
0.0015418 0.0018087 0.00064783 -0.0015251 -0.0014823 0.00037157 0.23503 0.10353
-0.011882 0.0069429 0.0020596 0.00092239
-0.0001947 -0.0022243 -0.00043736 -0.0011573 -0.0002073 -0.0011869 -0.011869 0.0069782
0.16323 0.18276 -0.0096013 0.0069296
-0.00024563 0.00046562 -0.00010738 -0.00084867 0.00036714 -0.00055895 0.0020673 0.00089148
-0.0096027 0.0069712 0.21268 0.24047
1640000000 0.29246 0.031201 -0.0021273 0.012651 -0.0028692 -0.0024926 0.0027156 0.0011097
-0.00068468 -0.0016684 -0.0004418 0.00056142
-0.002128 0.012626 0.19878 0.27631 0.0057136 0.0029315 -0.00047831 -0.0018543
-0.00096761 -0.00056155 -0.00052005 -0.00068427
-0.002873 -0.0024479 0.0057487 0.0028881 0.2998 -0.15313 -0.00082917 0.0012669
-0.00096179 -0.0011168 -0.0002607 -0.00043011
0.0027179 0.0011072 -0.00050014 -0.0018652 -0.00087041 0.0012807 0.24806 0.054508
-0.0078671 0.0085524 0.0023689 -0.00078401
-0.00069558 -0.0016325 -0.00098571 -0.00054048 -0.0010036 -0.0011088 -0.0078503 0.0085859
0.18674 0.16034 -0.004953 0.0090896
-0.00033229 0.00052055 -0.00051513 -0.00067088 -0.00028516 -0.00036197 0.0023835 -0.00075591
-0.0049475 0.0091093 0.23846 0.21032
1700000000 0.2871 -0.014156 0.0016195 0.010098 -0.003469 0.00034886 0.0031969 -0.0011603
-0.0020207 -0.00070766 0.00051887 0.00042199
0.0016252 0.010087 0.21785 0.2449 0.0033756 -2.7175e-06 -0.0014188 -0.00076189
-0.00083725 -0.00010379 -0.00092936 -0.00053916
-0.0034792 0.00029577 0.0033556 -5.5119e-05 0.25737 -0.19278 0.00012203 0.0016165
-0.0020927 -0.00029237 -0.00055787 -0.00087079
0.0032046 -0.0011966 -0.0014347 -0.00076575 0.0001427 0.0016272 0.24559 0.0040208
-0.0048654 0.0095695 0.0015524 -0.0019954
-0.0020458 -0.00067998 -0.00085656 -9.3136e-05 -0.0020143 -0.00023677 -0.0048736 0.0095938
0.20553 0.14135 -0.00048199 0.0096386
0.00051176 0.00041828 -0.00088454 -0.00051638 -0.00044481 -0.00095262 0.0015599 -0.0020203
-0.00050404 0.0095825 0.25598 0.17646
1760000000 0.27596 -0.063116 0.004317 0.0068482 -0.00204 0.0011075 0.001444 -0.0035196
-0.0013073 0.00056494 0.00041618 -0.0005391
0.0043052 0.0068436 0.2439 0.20534 0.00089889 -0.0015805 -0.0013018 -2.3228e-05
-0.0011845 0.00093216 -0.00056951 0.00040222
-0.0020291 0.0011364 0.00091043 -0.0015953 0.20913 -0.22568 0.0010957 0.0013045
-0.001252 0.0013535 -0.0012244 -0.00058654
0.0013943 -0.0034936 -0.0012988 -2.6728e-05 0.0011113 0.0012631 0.23633 -0.04823
-0.0015291 0.0088956 -0.00018259 -0.0022041
-0.0013214 0.00053813 -0.0011573 0.00093599 -0.0012399 0.0014008 -0.0015083 0.0089041
0.22121 0.10767 0.0035537 0.0074739
0.00039037 -0.00046662 -0.00060412 0.00041781 -0.0012246 -0.00063937 -0.00021456 -0.0022083
0.0035409 0.0074534 0.26955 0.13916
1820000000 0.25287 -0.1007 0.0046871 0.0031969 0.00010185 0.0024421 -0.00089888 -0.0031868
-0.0012433 0.00087979 -5.8404e-05 -8.4841e-05
0.0046532 0.0031757 0.25481 0.17588 -0.0013405 -3.2446e-05 -0.0014817 0.0009214
-6.3164e-05 0.0012664 -0.00065682 0.0005349
8.1199e-05 0.0024245 -0.00134 -2.6116e-05 0.15902 -0.2412 0.001663 0.00039642
-0.00029532 0.0022878 -0.0015356 0.00022051
-0.00090426 -0.0031841 -0.0014807 0.00093129 0.0016562 0.00042322 0.20662 -0.096017
0.00046555 0.007484 -0.0017991 -0.0015455
-0.0011977 0.0008813 -5.3464e-05 0.0012917 -0.00032876 0.002345 0.00047995 0.0075028
0.24009 0.079949 0.0045913 0.003701
-3.1748e-05 -0.00023759 -0.00060171 0.00054446 -0.0014706 0.00028641 -0.001827 -0.0015406
0.0045765 0.0037052 0.27283 0.10352
1880000000 0.21842 -0.14211 0.0025926 0.00072167 -0.00043198 0.0021374 -0.002948 -0.0022646
-0.00035564 0.001837 0.00016996 -0.00067191
0.0025898 0.00072165 0.25935 0.12922 -0.0033229 0.0022534 -0.00036257 0.0018668
0.00059582 0.001413 7.7344e-05 0.0010857
-0.00043854 0.002133 -0.0033209 0.0022544 0.10728 -0.25049 0.0019913 -0.00097377
0.0015552 0.0020354 -0.0012079 0.0015554
-0.0029662 -0.0022477 -0.000333 0.0019016 0.0019956 -0.00094809 0.16545 -0.13662
0.0014272 0.0052802 -0.0022272 0.00024361
-0.00035632 0.0018281 0.00061029 0.0014199 0.0016245 0.0020171 0.0014459 0.0052981
0.24548 0.048847 0.004985 0.0018009
0.00018103 -0.00062236 5.5307e-05 0.0010657 -0.0011849 0.0015073 -0.0021489 0.00024709
0.0049618 0.0017458 0.27317 0.069225
1940000000 0.17915 -0.16824 0.00045691 -0.0010663 0.0015038 0.0021881 -0.0040138 0.00038512
0.0011071 0.0011341 -0.00086925 -0.00051872
0.00044048 -0.0011001 0.26048 0.098225 -0.0017526 0.0051024 0.001068 0.0013957
0.0019995 0.00044148 0.00087039 0.00028794
0.0014928 0.0021435 -0.001759 0.0051149 0.062401 -0.24315 0.00058115 -0.0024842
0.0024452 0.00045588 0.00017597 0.0015975
-0.0040029 0.00044043 0.0010685 0.0014033 0.00060465 -0.0024574 0.11263 -0.16695
0.00058495 0.0036513 -0.0014229 0.0015359
0.0011288 0.0011655 0.0019702 0.00047879 0.0024274 0.0004655 0.00059236 0.0036428
0.24976 0.011035 0.003936 -0.0017471
-0.0007914 -0.00058828 0.00087135 0.0003449 0.00020231 0.0016499 -0.0015069 0.0015142
0.0039228 -0.0017469 0.2624 0.033943
2000000000 0.13375 -0.18371 -0.0033512 0.00062385 0.0029083 0.0014705 -0.0022921 0.003725
0.0012365 0.00054308 -0.00072267 0.00033569
-0.0033097 0.00073256 0.24722 0.062864 -0.0008114 0.0070824 0.0017684 0.00052977
0.0012474 -0.0013254 0.0004746 -2.2708e-05
0.0029428 0.0014844 -0.00072938 0.0070727 0.019766 -0.22948 -0.0014786 -0.0015587
0.002079 -0.0012234 0.001618 0.0013919
-0.0022934 0.0036786 0.0017704 0.00051205 -0.0014505 -0.0015834 0.059142 -0.17658
-0.0010466 0.0036407 -0.00012959 0.0019512
0.0013238 0.00040154 0.0012208 -0.0013084 0.0021187 -0.0011425 -0.0010891 0.0036642
0.24618 -0.02216 0.00093339 -0.0027977
