!Keysight Technologies,M9804A,MY58100912,A.14.10.03
!Date: Thursday, April 27, 2023 10:28:33
!Correction: S11(C  6-Port  ) 
!S12(C  6-Port  ) 
!S13(C  6-Port  ) 
!S14(C  6-Port  ) 
!S15(C  6-Port  ) 
!S16(C  6-Port  ) 
!S21(C  6-Port  ) 
!S22(C  6-Port  ) 
!S23(C  6-Port  ) 
!S24(C  6-Port  ) 
!S25(C  6-Port  ) 
!S26(C  6-Port  ) 
!S31(C  6-Port  ) 
!S32(C  6-Port  ) 
!S33(C  6-Port  ) 
!S34(C  6-Port  ) 
!S35(C  6-Port  ) 
!S36(C  6-Port  ) 
!S41(C  6-Port  ) 
!S42(C  6-Port  ) 
!S43(C  6-Port  ) 
!S44(C  6-Port  ) 
!S45(C  6-Port  ) 
!S46(C  6-Port  ) 
!S51(C  6-Port  ) 
!S52(C  6-Port  ) 
!S53(C  6-Port  ) 
!S54(C  6-Port  ) 
!S55(C  6-Port  ) 
!S56(C  6-Port  ) 
!S61(C  6-Port  ) 
!S62(C  6-Port  ) 
!S63(C  6-Port  ) 
!S64(C  6-Port  ) 
!S65(C  6-Port  ) 
!S66(C  6-Port  ) 
!S6P File: Measurement: :
# Hz S  RI   R 50
500000000 -0.33045 -0.063578 -0.0094521 -0.0012849 -0.0086733 0.012265 -0.0039456 0.012014
0.013394 0.0060745 -0.0038203 0.0073909
-0.0096005 -0.0013053 -0.41097 -0.072586 0.0089941 -0.010807 0.0018402 0.011884
0.009078 0.0028964 0.0020029 0.013627
-0.0087775 0.012343 0.0089049 -0.010888 -0.26491 0.19127 0.0071728 0.0034806
-0.0016856 0.0084587 0.00047102 0.012257
-0.0038898 0.012395 0.001741 0.012115 0.0071777 0.0032717 -0.32936 0.038043
-0.019025 -0.0038981 0.017812 0.026337
0.013452 0.0054155 0.0090236 0.0026437 -0.002116 0.0086741 -0.018619 -0.0047104
-0.23634 -0.21327 -0.026743 0.0052714
-0.0039002 0.0085432 0.0025788 0.013893 0.00089602 0.011811 0.017918 0.025498
-0.027468 0.0052034 -0.26434 -0.1381
560000000 -0.31844 0.10224 -0.021775 -0.066526 -0.00038146 0.013338 0.0049612 0.011649
0.011002 0.0050456 0.011454 0.0089204
-0.021439 -0.066378 -0.3731 0.092669 -0.040856 -0.039923 0.013931 0.0043555
-0.012021 -0.0051148 0.0041862 0.00048478
-0.00043909 0.013309 -0.041093 -0.039881 -0.18679 0.24376 -0.00097879 -0.0052382
0.01801 0.0063746 0.0069194 -0.0062809
0.004626 0.011614 0.013721 0.003956 -0.00065868 -0.0050193 -0.30721 0.12928
0.0063694 -0.023096 0.0048265 -0.022323
0.010598 0.006043 -0.012782 -0.0053647 0.017378 0.0068066 0.0061893 -0.023577
-0.30823 -0.029726 0.0095543 -0.050345
0.010174 0.0085764 0.0034604 -0.00075077 0.0076718 -0.0068408 0.0051677 -0.022158
0.010983 -0.050561 -0.33191 0.011362
620000000 -0.27773 0.082587 -0.023117 0.0083852 0.003537 0.0093796 0.008187 -0.0040777
0.011769 -0.0012003 9.8979e-05 -0.0021516
-0.023041 0.0083493 -0.40197 0.038743 -0.018614 -0.00032312 -0.0015136 -0.0018022
0.01193 -0.0060301 0.0013711 -0.002892
0.0035714 0.0094053 -0.018591 -0.00014777 -0.1579 0.25278 -0.00079371 -0.0051184
-0.0038885 -0.0027558 0.0099023 -0.0029281
0.0077109 -0.0035938 -0.0014287 -0.0017148 -0.0008611 -0.0050819 -0.26413 0.14083
-0.038867 -0.020133 0.014754 0.027307
0.012051 -0.0032039 0.012296 -0.0063338 -0.0035374 -0.0028296 -0.038295 -0.02039
-0.22417 -0.06635 -0.043008 0.012017
-0.00043761 -0.0010676 0.0014786 -0.0033468 0.0092788 -0.0034182 0.014886 0.027267
-0.043105 0.011918 -0.24533 -0.023999
680000000 -0.24276 0.17647 -0.026483 -0.015445 0.0044774 0.0056217 0.001148 -0.0074226
-0.0018635 -0.011473 0.0054031 -0.0065692
-0.026476 -0.015464 -0.3913 0.14006 -0.032832 -0.0029104 -0.0016478 -0.00033371
-0.00174 -0.0093188 -0.00088549 -0.0019506
0.0043585 0.0054604 -0.032881 -0.0028768 -0.10795 0.27545 -0.00091129 -0.00019129
-0.0016941 0.00035111 -0.0026302 -0.0096631
0.0014145 -0.00746 -0.0013587 -0.00011679 -0.0007166 -0.00042103 -0.22079 0.19213
-0.022953 -0.0080356 -0.0097805 -0.011632
-0.0012546 -0.011411 -0.0017021 -0.0091645 -0.001535 0.00077817 -0.022873 -0.0078561
-0.28113 0.036829 -0.0059124 -0.0073929
0.0058759 -0.0072336 -0.00099997 -0.0021567 -0.0022631 -0.0095759 -0.0093048 -0.011919
-0.0061356 -0.0067565 -0.26152 0.081012
740000000 -0.19636 0.16869 -0.040803 0.025831 0.013783 -0.0043053 0.00024051 -0.0042593
-0.0045816 -0.0030767 -0.0059266 0.0025359
-0.040834 0.025662 -0.33742 0.16024 -0.037983 0.034484 0.00033722 -0.0058467
-0.01243 0.0075142 -0.00084434 -0.0059576
0.013939 -0.0042559 -0.038098 0.03454 -0.074185 0.27381 -0.0018647 0.003314
-0.0021102 -0.0059686 -0.0015403 0.00095648
0.00030474 -0.0041938 7.386e-05 -0.0059429 -0.0016363 0.0033391 -0.20454 0.19993
-0.042805 -0.010626 0.022929 0.016473
-0.0043016 -0.002603 -0.012451 0.0070896 -0.0024057 -0.0056371 -0.043113 -0.010023
-0.18095 0.066855 -0.044186 -0.0010181
-0.0060511 0.0030397 -0.0013823 -0.0059488 -0.001268 0.001387 0.023104 0.016114
-0.043765 -0.0010038 -0.25207 0.088118
800000000 -0.16548 0.21478 -0.022846 0.015667 0.0059666 -0.010411 -0.0046215 -0.0026065
-0.0044263 0.001844 0.0041126 0.0006537
-0.022887 0.01574 -0.34484 0.23101 -0.0093143 0.034185 -0.0021822 0.0018409
-0.00068543 0.0025922 0.0007425 0.0052373
0.0058977 -0.010371 -0.0092996 0.034212 -0.035366 0.29918 0.00077577 0.00119
0.00013099 0.0033925 -0.0020977 0.0010479
-0.0045298 -0.0026027 -0.0020673 0.0018623 0.00072578 0.0011603 -0.17602 0.2274
-0.028547 0.012214 0.013784 -0.010638
-0.004299 0.0018044 -0.00072245 0.0024488 0.00020959 0.0034266 -0.028801 0.01246
-0.22708 0.09351 -0.017642 0.020075
0.0043021 0.00047116 0.00096235 0.0050641 -0.0020666 0.00068874 0.013758 -0.010273
-0.017386 0.019686 -0.24723 0.13753
860000000 -0.13208 0.23574 -0.018846 0.030259 -0.0029553 -0.010122 -0.0020067 0.00063426
0.0037464 0.0053829 -0.0036486 -0.0032742
-0.018859 0.030223 -0.29789 0.27529 0.0066793 0.03482 0.00013116 0.0020832
0.0035047 0.00059253 0.0031767 0.00031233
-0.0029826 -0.010123 0.0067896 0.034713 0.012085 0.30853 -0.00052894 -0.00020956
0.0022554 -0.0014092 0.0013338 0.0044746
-0.0020604 0.0006339 0.00010543 0.0023261 -0.00057062 -0.00022498 -0.13953 0.23908
-0.01904 0.017542 -0.0069777 -0.0087866
0.0038286 0.0053362 0.0035793 0.00030361 0.002211 -0.0014349 -0.018981 0.017596
-0.17225 0.1481 -0.02533 0.016195
-0.0039836 -0.0032796 0.0029452 0.00027716 0.0014752 0.0045162 -0.0069476 -0.0086899
-0.025537 0.016041 -0.19599 0.1848
920000000 -0.10913 0.25954 0.0036536 0.039175 -0.0093544 -0.0049408 -0.0022224 0.0017666
0.00085554 0.0018208 0.0026512 -0.0011508
0.0037649 0.039039 -0.27072 0.29763 0.027709 0.02367 0.0013375 0.0012367
0.0077151 4.8797e-05 0.0042255 -0.00289
-0.0092837 -0.0049378 0.02783 0.023594 0.057682 0.31061 0.0018045 5.2661e-05
0.00087453 0.00010609 0.00085995 -0.0013615
-0.0021184 0.0018398 0.001301 0.0010946 0.0017911 0.00010094 -0.11592 0.25625
-0.012158 0.030525 0.0039464 -0.0066052
0.0010001 0.0020291 0.0078215 9.776e-05 0.00077321 2.7146e-05 -0.012111 0.030632
-0.1624 0.1538 -0.002257 0.027931
0.002779 -0.001102 0.004575 -0.003072 0.00084152 -0.0013314 0.0039209 -0.0066369
-0.002114 0.02774 -0.20447 0.19701
980000000 -0.063171 0.28099 0.015982 0.031124 -0.0095597 0.004424 0.0018728 0.0040184
0.0040958 -0.0012119 -0.0034323 -0.0027304
0.015993 0.031132 -0.21817 0.33367 0.033165 0.0062302 0.0019332 -9.9787e-05
0.001602 -0.0059811 -0.00035679 -0.0029312
-0.0095771 0.0045177 0.033247 0.0061253 0.10374 0.30511 0.00075735 -0.0011132
0.00055859 -0.0017519 0.0014677 -0.00030818
0.0017873 0.004047 0.0020742 -4.151e-06 0.00079432 -0.0011308 -0.077482 0.26744
0.0065926 0.030022 -0.0097031 -0.0073058
0.0040383 -0.0013674 0.0014444 -0.0061363 0.000543 -0.0016499 0.0065382 0.030047
-0.12961 0.18597 0.0051721 0.01979
-0.0034189 -0.0026876 -0.00040061 -0.0027146 0.0015365 -0.00025882 -0.0098103 -0.0071907
0.0050833 0.019703 -0.16296 0.24426
1040000000 -0.022238 0.29059 0.032872 0.020445 -0.0013773 0.0072987 0.0027132 0.00076765
0.00049741 -0.0034785 2.2175e-05 -0.0015059
0.032815 0.02043 -0.18344 0.34806 0.03037 -0.013748 0.0016096 -0.0017477
-0.0022422 -0.0024235 -0.0010719 -0.0029156
-0.0013757 0.007344 0.030315 -0.013885 0.14947 0.29291 -0.00041771 -0.0016015
-0.0015318 -0.0010035 -0.00042192 -0.0010661
0.002773 0.00071598 0.0016118 -0.0016328 -0.00041852 -0.0015827 -0.050983 0.27771
0.018343 0.019436 -0.0025328 0.001125
0.00057196 -0.003519 -0.0021755 -0.0024836 -0.0015439 -0.00094168 0.018312 0.019366
-0.096624 0.19415 0.01373 0.019437
-2.317e-05 -0.0015802 -0.0013603 -0.0028369 -0.0004491 -0.001073 -0.0024625 0.001248
0.013512 0.019308 -0.14183 0.26482
1100000000 0.022848 0.30065 0.037017 -0.002233 0.0032349 0.0043165 0.0025418 -0.0010688
-0.0022017 -0.0028649 -0.0039414 -0.00018038
0.036987 -0.00223 -0.13968 0.3672 0.016406 -0.027448 -1.2485e-05 -0.0017979
-0.0034698 -0.00077685 -0.0034334 -0.00043618
0.0032334 0.0043197 0.016296 -0.027557 0.19572 0.27413 -0.0019225 0.00013728
-0.0017433 0.00042072 -0.0011281 -0.00057127
0.0025303 -0.0011134 5.7834e-06 -0.0017684 -0.0019089 0.00011926 -0.010612 0.28332
0.024316 0.0066499 -0.0024582 0.00023992
-0.0020136 -0.0028325 -0.0033961 -0.00078933 -0.0017413 0.00048716 0.024318 0.0065501
-0.07714 0.20874 0.019646 0.0098282
-0.0037652 -0.00026835 -0.0034484 -0.00057007 -0.0011212 -0.0006066 -0.0023958 0.00022572
0.019652 0.0097409 -0.094744 0.29604
1160000000 0.073589 0.29758 0.025685 -0.019607 0.0033837 -0.00052357 -0.00014008 -0.0026021
-0.0040923 -0.00092469 -0.0012314 0.0041203
0.025684 -0.019578 -0.096609 0.37237 -0.0025567 -0.029208 -0.0015056 -0.0017675
-0.0026714 0.0024602 -0.0016413 0.0017304
0.0033832 -0.00052638 -0.0026796 -0.029298 0.23888 0.24476 -0.00083046 0.0017109
-0.00044406 0.0018488 -0.0010529 0.00039301
-9.7388e-05 -0.0025848 -0.0015468 -0.0017817 -0.00082169 0.0017439 0.028262 0.28129
0.021451 -0.0094231 -0.0034277 0.0053642
-0.0040527 -0.00085228 -0.0026105 0.0024402 -0.00044345 0.0018697 0.021518 -0.0094223
-0.042041 0.21749 0.01861 0.00028423
-0.0011379 0.0042071 -0.0016193 0.0017815 -0.0010542 0.00033941 -0.0034231 0.0053001
0.018634 0.00024007 -0.04874 0.29886
1220000000 0.11736 0.28907 0.012613 -0.029988 -0.0011528 -0.0014333 -3.7256e-05 -0.00093063
-0.0028056 0.0022452 0.00096309 0.0020692
0.012631 -0.029949 -0.052451 0.38668 -0.016347 -0.021913 -0.0025685 0.0004755
-1.0605e-05 0.0029275 -0.00079194 0.0019453
-0.0011574 -0.0014305 -0.016483 -0.021869 0.27866 0.20732 0.00076411 0.0016869
0.0004479 0.0012737 0.00028415 0.00064967
-2.328e-06 -0.0009512 -0.0025837 0.00052615 0.00076226 0.0017083 0.068284 0.27374
0.011417 -0.016114 0.0024541 0.0013618
-0.0028426 0.0022748 -1.0235e-05 0.0029836 0.00046369 0.0012468 0.011344 -0.016136
-0.019234 0.22774 0.014802 -0.012548
0.0010522 0.0020782 -0.00078359 0.0019715 0.00024413 0.00062075 0.0024191 0.0013978
0.014846 -0.012609 -0.018326 0.31655
1280000000 0.16785 0.26934 -0.0062608 -0.029492 -0.0019437 0.0018996 -0.00097052 -0.0021297
-0.00079209 0.0032223 0.0025545 0.001427
-0.0062542 -0.029446 -0.0060614 0.37878 -0.023779 -0.0090376 -0.00096591 0.0013754
0.0015828 0.0016541 0.00063303 0.0020869
-0.0019533 0.0019217 -0.023863 -0.0089302 0.31035 0.1642 0.0015136 -7.0001e-05
0.0010602 0.00027444 0.00033242 0.000262
-0.00097835 -0.0020898 -0.00099183 0.0014023 0.0015268 -9.0296e-05 0.10536 0.2581
0.0020554 -0.018754 0.00019702 0.00015137
-0.00077931 0.0032226 0.0015499 0.0016285 0.001007 0.00027018 0.001989 -0.018772
0.017363 0.23157 0.0038145 -0.01512
0.0026044 0.0012966 0.0005901 0.0020712 0.00034417 0.00031216 0.00020106 0.00022878
0.0038572 -0.015076 0.029439 0.31919
1340000000 0.20544 0.23795 -0.016617 -0.02047 0.00040206 0.0042717 -0.0018538 -0.00082259
0.0014739 0.0027506 0.0017895 -0.0012995
-0.016569 -0.020467 0.033244 0.37217 -0.021618 0.003833 -0.00016088 0.0019917
0.0018802 0.00083215 0.0010887 0.000853
0.00042218 0.0042729 -0.021634 0.0039546 0.33317 0.11749 0.0009707 -0.00087485
0.00060268 -0.00049805 0.0001122 0.00030988
-0.0018686 -0.00079535 -0.00017515 0.0019759 0.00097398 -0.00087702 0.13873 0.2385
-0.0074771 -0.016648 0.0010728 0.00020348
0.0013992 0.0027571 0.0018713 0.00082953 0.00061762 -0.00051483 -0.0074706 -0.016663
0.046939 0.22796 -0.00301 -0.014002
0.001791 -0.0012576 0.0011143 0.00077989 0.00011411 0.00021575 0.0010092 0.0001959
-0.0030454 -0.014065 0.06744 0.31565
1400000000 0.24029 0.2017 -0.023454 -0.0090687 0.0048135 0.0032021 -0.0022197 0.00065846
0.0026007 0.0009883 0.00029174 -0.0016185
-0.023414 -0.0090601 0.071852 0.36024 -0.015009 0.012145 0.0011743 0.0012895
0.0012377 -0.00067554 0.0011184 0.00022573
0.0048718 0.0032161 -0.014966 0.012256 0.34752 0.063986 4.1029e-05 -0.0014904
0.00015983 -0.00035298 0.00034639 0.00027429
-0.0022653 0.00064363 0.0012157 0.0012974 4.8549e-05 -0.0014678 0.169 0.21014
-0.013665 -0.010222 -0.00084278 -0.00047416
0.0026214 0.00098589 0.0012411 -0.00066726 0.0001321 -0.00036997 -0.013682 -0.010198
0.080643 0.225 -0.0095947 -0.0093069
0.00034997 -0.0016891 0.0011745 0.00019088 0.00035965 0.00028027 -0.00087591 -0.00053321
-0.009579 -0.0093411 0.11263 0.30595
1460000000 0.26405 0.1589 -0.021074 0.003536 0.0053842 -0.0015991 -0.0015342 0.0017553
0.0021603 -0.00031524 -0.00018392 -0.0010008
-0.021054 0.0035357 0.10652 0.33889 -0.0061192 0.015333 0.0016451 0.00028578
0.00098351 -0.0012858 0.00124 -0.00050716
0.0053931 -0.0016323 -0.0060388 0.015357 0.35439 0.0097555 -0.0011085 -0.0011383
0.00013027 -0.00011605 0.00076735 -0.00021873
-0.0014865 0.0018174 0.0016304 0.0002675 -0.0011161 -0.0011202 0.196 0.18122
-0.015098 -0.003895 -0.0010449 0.0017904
0.0021935 -0.00033485 0.00097182 -0.0013025 0.00015907 -9.5565e-05 -0.015097 -0.0038588
0.11002 0.21162 -0.011805 -0.0033814
-0.0002629 -0.0010416 0.0012296 -0.0004851 0.00078152 -0.00023397 -0.0010455 0.0018081
-0.011746 -0.0034104 0.14612 0.28561
1520000000 0.27818 0.11814 -0.0158 0.0095192 0.003243 -0.0040258 0.00013266 0.0026082
0.0022367 -0.0018769 -0.0012291 -0.00015288
-0.015795 0.0095067 0.14082 0.32534 0.0017055 0.01289 0.0016837 -0.00062536
0.00013213 -0.0010508 0.00035622 -0.0010149
0.0032258 -0.0040459 0.0017952 0.012901 0.34788 -0.046116 -0.00091069 -0.00037607
0.00071468 -0.00094568 8.1813e-05 -0.00014275
0.00014698 0.0026202 0.0016879 -0.00063478 -0.00088411 -0.00041047 0.2203 0.14339
-0.015014 0.0017944 0.0013253 0.0020882
0.0022218 -0.001895 0.00013154 -0.001052 0.00073554 -0.00096826 -0.014988 0.001822
0.13845 0.19969 -0.011782 0.0010156
-0.0012273 -2.0275e-05 0.00032927 -0.0010189 0.00013059 -0.00016278 0.0013454 0.0020865
-0.011797 0.0010384 0.17955 0.26698
1580000000 0.28908 0.072261 -0.0092542 0.013376 -0.0010251 -0.0047272 0.0014788 0.0018518
-0.00012422 -0.0021919 -0.00025935 0.00034226
-0.0092547 0.013342 0.16896 0.30052 0.0053803 0.0078369 0.0006657 -0.0015093
-0.0004455 -0.0011439 -0.0001662 -0.0008206
-0.0010501 -0.0047111 0.0054109 0.0078207 0.32845 -0.10422 -0.0015337 0.00037366
-0.00026634 -0.0011943 0.00030518 -0.00057984
0.0014812 0.001842 0.00065269 -0.0015053 -0.0015198 0.00043462 0.23506 0.10361
-0.011809 0.0069723 0.0020669 0.00085573
-0.00015196 -0.0022148 -0.00043967 -0.0011638 -0.00028283 -0.0012001 -0.011806 0.0069913
0.16323 0.18286 -0.0096435 0.0069728
-0.0001913 0.00038208 -0.00017391 -0.00083929 0.00031541 -0.0006118 0.0020443 0.00086525
-0.0096302 0.0070093 0.21259 0.24047
1640000000 0.29246 0.031404 -0.0022911 0.012615 -0.0028406 -0.0024348 0.0026985 0.0011114
-0.00069035 -0.0016865 -0.00036998 0.00057745
-0.0022942 0.012595 0.1986 0.27641 0.0057187 0.002864 -0.00045535 -0.0018565
-0.00097912 -0.00056142 -0.00045499 -0.00071834
-0.0028549 -0.0024002 0.0057345 0.0028717 0.29987 -0.15295 -0.00082162 0.001249
-0.0010276 -0.0011178 -0.00018094 -0.00037116
0.0027071 0.0011135 -0.00044227 -0.001867 -0.00085594 0.0011891 0.24793 0.054585
-0.0078931 0.0085447 0.0024869 -0.00069756
-0.00072835 -0.0017151 -0.00096858 -0.00054162 -0.0010281 -0.0011464 -0.007901 0.0085272
0.18654 0.16044 -0.0048556 0.009206
-0.00044546 0.00060347 -0.00051667 -0.00072472 -0.00018885 -0.00035853 0.0024595 -0.00072688
-0.0048804 0.0091741 0.23842 0.21036
1700000000 0.28715 -0.013996 0.0014864 0.010136 -0.00343 0.00035885 0.0031589 -0.0011215
-0.0020438 -0.00071396 0.0004856 0.00042553
0.0014835 0.010127 0.21776 0.245 0.0033608 2.4131e-05 -0.0014096 -0.00078455
-0.00086731 -0.00013341 -0.00090374 -0.00049021
-0.0034643 0.00033568 0.0033517 -3.3503e-05 0.25745 -0.19253 0.00011906 0.0015749
-0.0020331 -0.00026441 -0.00046389 -0.00084124
0.0032047 -0.0011702 -0.0014317 -0.00077194 0.00016723 0.0015971 0.24555 0.0040597
-0.0049326 0.0095224 0.001556 -0.0020997
-0.0020488 -0.00067821 -0.00086871 -0.00010371 -0.002026 -0.00028053 -0.0049147 0.0095361
0.20552 0.14148 -0.00036326 0.0095778
0.00057409 0.00039451 -0.00087906 -0.00047648 -0.000504 -0.00081044 0.0015828 -0.0020674
-0.00037476 0.0095886 0.2562 0.17656
1760000000 0.27594 -0.063042 0.0042272 0.0069486 -0.0020738 0.0011728 0.001415 -0.0034366
-0.001345 0.00055446 0.00046549 -0.00052221
0.0042132 0.0069395 0.2437 0.20542 0.00084692 -0.0015509 -0.0012774 -2.6693e-05
-0.0011607 0.00092887 -0.00059669 0.00036832
-0.0019752 0.0011459 0.00086233 -0.0015306 0.20938 -0.22552 0.0011358 0.001235
-0.0012932 0.0013524 -0.0013181 -0.00061567
0.0013562 -0.0034723 -0.0012984 -4.3722e-05 0.0010564 0.0012349 0.23628 -0.04818
-0.0014582 0.0089044 -0.00022623 -0.0022516
-0.0013881 0.00056498 -0.0011656 0.0009471 -0.0013266 0.001306 -0.0014295 0.0088895
0.22119 0.10784 0.0036014 0.0073625
0.00039991 -0.0004815 -0.00064444 0.00038068 -0.0013264 -0.00053324 -0.00022113 -0.0022737
0.0036334 0.0073484 0.26929 0.13929
1820000000 0.25286 -0.10055 0.0046088 0.0033065 0.0001429 0.0024672 -0.00090517 -0.0031839
-0.00124 0.000918 -6.9049e-05 -0.00013341
0.0046167 0.0032995 0.25457 0.17593 -0.0013657 -1.0161e-05 -0.0015186 0.00089385
-8.8538e-05 0.0012988 -0.00067376 0.00056201
0.00010698 0.0024272 -0.0014115 -4.7181e-05 0.15929 -0.24094 0.0017016 0.00047441
-0.00033292 0.0023849 -0.0015972 0.00035234
-0.00088049 -0.0032075 -0.0015291 0.00093728 0.0017101 0.00051115 0.20653 -0.095763
0.00042493 0.0075514 -0.0015974 -0.0015689
-0.0012146 0.000907 -5.6632e-05 0.0012883 -0.00033554 0.0024062 0.00042986 0.0075403
0.24007 0.080194 0.0047108 0.0037271
-9.7123e-05 -0.00012688 -0.00062712 0.000534 -0.0015469 0.00031704 -0.0015861 -0.0015705
0.0046894 0.0037254 0.27253 0.10374
1880000000 0.21843 -0.14191 0.0025808 0.00083872 -0.00045659 0.0020712 -0.0029753 -0.0023281
-0.00032605 0.001782 0.00026415 -0.00067343
0.0025858 0.00084132 0.25914 0.1293 -0.0033492 0.0022587 -0.00038405 0.0018631
0.0006033 0.0013691 0.00012382 0.0010574
-0.0004383 0.0020721 -0.0033265 0.002299 0.10726 -0.25043 0.0020079 -0.001041
0.0015024 0.0019408 -0.0011989 0.0014696
-0.0029657 -0.0022694 -0.00033098 0.0019072 0.0020281 -0.00098897 0.16541 -0.13661
0.001432 0.0052451 -0.0021625 0.00018739
-0.00032519 0.0018127 0.00061342 0.0014122 0.0015067 0.0020034 0.0014661 0.0052132
0.24543 0.048882 0.0050898 0.0016603
0.00022636 -0.00068977 8.4566e-05 0.0010376 -0.0011591 0.0014945 -0.002179 0.00020643
0.0050955 0.0016174 0.27344 0.069304
1940000000 0.17907 -0.16814 0.0004865 -0.001023 0.0015411 0.0021621 -0.0039349 0.00040198
0.0011271 0.0011432 -0.00077319 -0.0005778
0.00046058 -0.0010324 0.26021 0.098399 -0.0017147 0.0050866 0.001038 0.0014908
0.001932 0.00043013 0.00091391 0.00032658
0.0015482 0.0021167 -0.0017004 0.0051079 0.062589 -0.24319 0.00062351 -0.0023967
0.0024896 0.00046864 0.00016518 0.0016373
-0.0039883 0.00038542 0.00099044 0.0014191 0.00055687 -0.0023889 0.11245 -0.16659
0.0004245 0.0038002 -0.0013616 0.0014366
0.0011507 0.0011262 0.0019659 0.00039366 0.0024107 0.00044758 0.00048835 0.0038714
0.24966 0.011292 0.0039738 -0.0018764
-0.00083298 -0.00057529 0.00087194 0.00034117 0.00014892 0.0015963 -0.0013372 0.0014674
0.0039784 -0.0018476 0.26223 0.03373
2000000000 0.13355 -0.18365 -0.0032453 0.00071829 0.0029612 0.0014083 -0.0022932 0.0037015
0.0012957 0.00048606 -0.00054396 0.00056424
-0.0032269 0.00073047 0.24702 0.063101 -0.00075782 0.0071036 0.0017539 0.00049314
0.0012405 -0.0012676 0.00056998 7.3347e-05
0.0029204 0.0014268 -0.00067082 0.0071481 0.020068 -0.22938 -0.0013772 -0.0016701
0.0022132 -0.0010785 0.0016707 0.0014509
-0.0022308 0.0036921 0.0018216 0.00048093 -0.0014336 -0.0016581 0.058946 -0.17648
-0.0011965 0.0036422 -0.00018322 0.0021735
0.0012223 0.00046147 0.0012352 -0.0013237 0.0021357 -0.0011378 -0.0011458 0.0036632
0.24613 -0.022101 0.00085724 -0.0027772
