!Keysight Technologies,M9804A,MY58100912,A.14.10.03
!Date: Thursday, April 27, 2023 10:28:33
!Correction: S11(C  6-Port  ) 
!S12(C  6-Port  ) 
!S13(C  6-Port  ) 
!S14(C  6-Port  ) 
!S15(C  6-Port  ) 
!S16(C  6-Port  ) 
!S21(C  6-Port  ) 
!S22(C  6-Port  ) 
!S23(C  6-Port  ) 
!S24(C  6-Port  ) 
!S25(C  6-Port  ) 
!S26(C  6-Port  ) 
!S31(C  6-Port  ) 
!S32(C  6-Port  ) 
!S33(C  6-Port  ) 
!S34(C  6-Port  ) 
!S35(C  6-Port  ) 
!S36(C  6-Port  ) 
!S41(C  6-Port  ) 
!S42(C  6-Port  ) 
!S43(C  6-Port  ) 
!S44(C  6-Port  ) 
!S45(C  6-Port  ) 
!S46(C  6-Port  ) 
!S51(C  6-Port  ) 
!S52(C  6-Port  ) 
!S53(C  6-Port  ) 
!S54(C  6-Port  ) 
!S55(C  6-Port  ) 
!S56(C  6-Port  ) 
!S61(C  6-Port  ) 
!S62(C  6-Port  ) 
!S63(C  6-Port  ) 
!S64(C  6-Port  ) 
!S65(C  6-Port  ) 
!S66(C  6-Port  ) 
!S6P File: Measurement: :
# Hz S  RI   R 50
500000000 -0.33107 -0.063603 -0.0095538 -0.00098165 -0.0083339 0.012665 -0.0033891 0.011911
0.012831 0.0062145 -0.0036586 0.008212
-0.0097313 -0.00080496 -0.41201 -0.072836 0.0090357 -0.010445 0.0013342 0.012213
0.0083908 0.0032797 0.0017087 0.013809
-0.0086515 0.012436 0.0089944 -0.010746 -0.26491 0.19133 0.0070514 0.0035265
-0.0014834 0.0083732 0.00076027 0.012189
-0.0040532 0.012033 0.001453 0.012063 0.0071589 0.003534 -0.33019 0.037454
-0.018049 -0.0038735 0.016864 0.025098
0.012794 0.0053931 0.0083184 0.0029325 -0.0016138 0.008264 -0.01855 -0.0035457
-0.23761 -0.21246 -0.026509 0.0059376
-0.0045613 0.0076994 0.0018519 0.013187 0.00094323 0.012095 0.016356 0.024734
-0.025894 0.0055755 -0.26545 -0.14041
560000000 -0.31867 0.10319 -0.02167 -0.066695 -8.8832e-05 0.013316 0.0051103 0.012263
0.010952 0.0041368 0.0098409 0.009561
-0.021228 -0.066414 -0.37267 0.091749 -0.041519 -0.03939 0.01391 0.0035513
-0.01255 -0.0052446 0.0034951 0.00022462
-0.00019286 0.013462 -0.041327 -0.039329 -0.18615 0.24317 -0.00048434 -0.0045236
0.018798 0.0059831 0.006985 -0.0067005
0.0052535 0.012465 0.014582 0.0034686 -0.00048847 -0.004687 -0.30697 0.12926
0.0058124 -0.023157 0.0059597 -0.022213
0.0096615 0.0046935 -0.012679 -0.0052159 0.018485 0.0060976 0.0061126 -0.023037
-0.30769 -0.029623 0.010051 -0.050828
0.0097141 0.0089266 0.0044336 0.0005629 0.0074407 -0.0072016 0.0054595 -0.021802
0.010448 -0.050797 -0.33196 0.013319
620000000 -0.27831 0.082894 -0.023236 0.0086353 0.0034693 0.0093821 0.0079083 -0.0040636
0.012414 -0.0013895 -0.00052278 -0.0019579
-0.023302 0.0086858 -0.40215 0.038929 -0.018483 -0.00016237 -0.0016313 -0.0019902
0.011959 -0.0060733 0.0011181 -0.0030231
0.0034828 0.0093427 -0.01841 -0.00012767 -0.15787 0.25281 -0.00098089 -0.0048217
-0.003402 -0.0027954 0.009757 -0.003639
0.0082621 -0.0041641 -0.0016073 -0.0018657 -0.0010596 -0.005131 -0.26419 0.14047
-0.038129 -0.019458 0.015041 0.027626
0.011681 -0.0020189 0.012299 -0.0061659 -0.003461 -0.0029005 -0.038626 -0.019633
-0.22623 -0.067271 -0.043627 0.011802
-3.674e-07 -0.0016492 0.0012956 -0.0029591 0.0094022 -0.0034336 0.014053 0.02754
-0.042251 0.012522 -0.24574 -0.024391
680000000 -0.24288 0.17586 -0.026286 -0.015651 0.0046436 0.0057002 0.0015343 -0.0071656
-0.0020233 -0.011013 0.005459 -0.0065257
-0.026366 -0.015479 -0.39108 0.14032 -0.032765 -0.0028999 -0.0017761 -0.0001897
-0.0016593 -0.0092015 -0.0010686 -0.0018405
0.0045051 0.0055911 -0.032857 -0.0028191 -0.10795 0.2755 -0.00077399 1.831e-06
-0.0017252 0.00053209 -0.0024502 -0.0091615
0.0011989 -0.0074978 -0.0017972 -0.00026213 -0.00094357 -0.00011016 -0.22088 0.19214
-0.022668 -0.0078665 -0.0087895 -0.011895
-0.0016894 -0.011254 -0.0015793 -0.0091897 -0.0015322 0.00055327 -0.022697 -0.0080615
-0.28131 0.036807 -0.0067053 -0.0073227
0.0055729 -0.0071592 -0.00096239 -0.0019602 -0.0025879 -0.0090735 -0.0088776 -0.011493
-0.0070185 -0.0066646 -0.26223 0.082526
740000000 -0.19636 0.16901 -0.040879 0.026263 0.014058 -0.0041195 8.1071e-05 -0.0041176
-0.0039754 -0.0028463 -0.0065733 0.0031823
-0.040769 0.026229 -0.33721 0.1598 -0.038256 0.03412 0.00071449 -0.0063174
-0.012587 0.0074475 -0.00069395 -0.0063226
0.013656 -0.004153 -0.038211 0.034674 -0.074015 0.2738 -0.0017634 0.0034998
-0.0022998 -0.0057867 -0.0015332 0.0013108
0.00019363 -0.004019 0.00067844 -0.0062623 -0.0019498 0.0035215 -0.20462 0.20006
-0.042736 -0.010192 0.022624 0.015816
-0.0041157 -0.0027821 -0.01249 0.0072803 -0.0019525 -0.0061008 -0.042566 -0.0097873
-0.18219 0.06674 -0.043434 -0.00065561
-0.0064251 0.0029378 -0.0010471 -0.0064968 -0.0016693 0.0014281 0.022443 0.015757
-0.044077 -0.00013483 -0.25156 0.087363
800000000 -0.16607 0.21432 -0.023045 0.015636 0.0058264 -0.010402 -0.0044834 -0.0026805
-0.0045512 0.0018834 0.0043978 -0.00016088
-0.023014 0.015592 -0.34481 0.23102 -0.0094387 0.034186 -0.0020543 0.0017979
-0.00066707 0.0027154 0.00098033 0.004937
0.0057808 -0.010471 -0.009361 0.034293 -0.035424 0.29922 0.00091708 0.0011185
5.8895e-05 0.0033139 -0.0017792 0.00077808
-0.0046088 -0.0026992 -0.0021223 0.0019985 0.00092109 0.0012112 -0.17615 0.22753
-0.028841 0.012358 0.013684 -0.01041
-0.0044982 0.0020405 -0.0006942 0.0024961 0.00011343 0.0032799 -0.028394 0.01221
-0.22674 0.093664 -0.017492 0.019401
0.0042936 9.4654e-05 0.00070952 0.0051683 -0.0019811 0.00099547 0.013636 -0.01023
-0.01802 0.019301 -0.24741 0.1378
860000000 -0.1323 0.23559 -0.019012 0.030545 -0.0030255 -0.010042 -0.0021961 0.00038105
0.0040666 0.0056692 -0.0039966 -0.0033321
-0.019085 0.030424 -0.298 0.27548 0.0066072 0.034838 -3.6975e-05 0.0019372
0.0037086 0.00065623 0.0033168 0.00036943
-0.0030996 -0.010128 0.0067486 0.034859 0.012 0.30849 -0.00064229 -0.0003672
0.0023128 -0.0013001 0.001327 0.004338
-0.0022813 0.00037231 4.3521e-05 0.0021671 -0.00064087 -0.00021589 -0.13945 0.2391
-0.019406 0.017399 -0.0066546 -0.0088737
0.0040858 0.0056571 0.0035754 0.00079333 0.0022605 -0.0012619 -0.019347 0.017517
-0.17181 0.14885 -0.025669 0.016131
-0.0040738 -0.0032995 0.0031887 0.00020189 0.0012483 0.0042076 -0.0066192 -0.0091822
-0.025464 0.015941 -0.19588 0.18519
920000000 -0.10939 0.25963 0.0037302 0.039102 -0.0093842 -0.0049723 -0.0019772 0.0016837
0.0007807 0.0019801 0.0027188 -0.0013269
0.0037128 0.039083 -0.27073 0.29747 0.027724 0.023671 0.0014028 0.0013093
0.0076475 8.642e-05 0.0043179 -0.0029245
-0.0093967 -0.0049183 0.027845 0.023581 0.057596 0.31062 0.0018394 0.00013755
0.00081383 9.0801e-06 0.0010089 -0.0013649
-0.0020898 0.0017612 0.0013912 0.0012646 0.0018373 0.00013422 -0.11596 0.25628
-0.012028 0.030618 0.0038134 -0.0067324
0.0008004 0.0020257 0.007552 -0.00029176 0.00081341 4.2162e-05 -0.01196 0.030588
-0.1626 0.15426 -0.0018488 0.027492
0.0027327 -0.0013295 0.0044307 -0.0028 0.00096792 -0.0013365 0.0039987 -0.0065471
-0.0022033 0.027381 -0.20444 0.19763
980000000 -0.063172 0.28094 0.016009 0.031172 -0.0095792 0.0044288 0.001743 0.0039423
0.0040746 -0.0011906 -0.0033375 -0.0024053
0.016056 0.031048 -0.21826 0.33368 0.033162 0.0062655 0.001975 -0.0001457
0.0016841 -0.0060347 -0.00043153 -0.0027214
-0.0094611 0.0045048 0.033218 0.0061461 0.10364 0.30506 0.00074402 -0.0010715
0.00067454 -0.0017227 0.0015411 -0.00024996
0.0017507 0.0039727 0.0019601 -0.00011837 0.00072551 -0.0010664 -0.077474 0.26725
0.0063102 0.03014 -0.009658 -0.0073471
0.0042272 -0.0012255 0.001736 -0.0058746 0.00067436 -0.001749 0.0062657 0.030023
-0.12932 0.18564 0.0047728 0.019987
-0.0034278 -0.0024992 -0.00046658 -0.0029082 0.0014696 -0.00030418 -0.0098358 -0.0074315
0.0046968 0.020271 -0.16308 0.2441
1040000000 -0.022581 0.29057 0.032904 0.020371 -0.0013568 0.0073771 0.0026864 0.00068401
0.00046711 -0.0034294 -9.6989e-05 -0.0016205
0.032841 0.020322 -0.1835 0.34801 0.030347 -0.013751 0.00158 -0.0017155
-0.002193 -0.0024193 -0.0011497 -0.0029335
-0.0013061 0.0073825 0.030321 -0.01389 0.14936 0.29291 -0.00042089 -0.0016285
-0.0015164 -0.00099973 -0.00047667 -0.0010854
0.0027235 0.00074684 0.0016239 -0.0016896 -0.00041224 -0.0016113 -0.051007 0.27777
0.018458 0.019384 -0.0026449 0.0012555
0.00038017 -0.0034763 -0.0022663 -0.002306 -0.0015946 -0.001047 0.018547 0.019293
-0.096464 0.19412 0.013307 0.01903
2.193e-05 -0.0017083 -0.0010823 -0.0029379 -0.00053034 -0.0011308 -0.0026402 0.0012382
0.013478 0.019124 -0.14165 0.26553
1100000000 0.022712 0.30078 0.036943 -0.0021726 0.0032389 0.0043712 0.0025382 -0.0010202
-0.0021023 -0.0029301 -0.0039494 -3.5093e-05
0.036915 -0.0022183 -0.13981 0.36723 0.016422 -0.027435 1.577e-05 -0.001768
-0.0034541 -0.0007473 -0.0034868 -0.00043488
0.0032628 0.0043456 0.016315 -0.027537 0.19563 0.27415 -0.0018994 0.00010667
-0.0017288 0.00046013 -0.0010533 -0.0005493
0.0025222 -0.0010737 2.6795e-05 -0.0018159 -0.0019086 0.00011661 -0.010796 0.28333
0.024328 0.0064623 -0.002365 0.00018646
-0.0021404 -0.0029238 -0.0033936 -0.00070499 -0.0017513 0.00043243 0.024378 0.0065097
-0.07671 0.20893 0.019808 0.0095802
-0.0038267 -0.00010478 -0.0033414 -0.0005713 -0.0011231 -0.00055987 -0.0024588 9.982e-05
0.01979 0.0096742 -0.094954 0.29623
1160000000 0.073447 0.29768 0.025633 -0.019581 0.0034233 -0.00052406 -0.00024464 -0.002606
-0.0040529 -0.00097813 -0.0012028 0.0041267
0.025635 -0.019581 -0.096881 0.37231 -0.0025573 -0.02926 -0.0015721 -0.0017602
-0.0026009 0.0023991 -0.0018074 0.0018991
0.0033694 -0.00056702 -0.0026419 -0.029296 0.23878 0.24481 -0.00081924 0.0017252
-0.00053561 0.0018577 -0.0010531 0.00040801
-0.00019028 -0.0026056 -0.0015779 -0.0017062 -0.00079088 0.0017382 0.028096 0.28123
0.021514 -0.0093434 -0.0033071 0.0052436
-0.004107 -0.0010499 -0.0026492 0.0023529 -0.00056039 0.0017914 0.021471 -0.009323
-0.042386 0.2175 0.018758 0.00029668
-0.0011594 0.0041617 -0.0016212 0.0019748 -0.0011079 0.00039631 -0.0032965 0.0051867
0.018732 0.000349 -0.048968 0.29899
1220000000 0.11732 0.28908 0.01258 -0.029981 -0.0011156 -0.001418 -1.5112e-05 -0.00095773
-0.0028226 0.0022172 0.00093678 0.0020764
0.012586 -0.029927 -0.052541 0.38663 -0.01634 -0.021932 -0.0025524 0.00042079
4.2504e-06 0.002916 -0.00081944 0.0019359
-0.0011228 -0.0014267 -0.016472 -0.021878 0.27856 0.20737 0.00072509 0.001717
0.0004278 0.0012381 0.00031244 0.00070826
-4.0319e-05 -0.00098599 -0.0025568 0.00042412 0.00073647 0.001716 0.068275 0.27374
0.011376 -0.016108 0.0024736 0.001467
-0.002733 0.0022056 5.791e-05 0.0029155 0.0004963 0.0012303 0.011392 -0.016101
-0.019264 0.2277 0.014718 -0.012421
0.00097285 0.0020263 -0.00082571 0.0019142 0.00027685 0.0006685 0.0024971 0.0015148
0.01476 -0.012404 -0.017847 0.31651
1280000000 0.16791 0.26926 -0.0062509 -0.029437 -0.0019893 0.0018808 -0.00099049 -0.0021097
-0.00080649 0.0033064 0.0025809 0.0014168
-0.0062306 -0.029435 -0.0061801 0.37868 -0.023804 -0.0090519 -0.00095971 0.0014302
0.0016319 0.0016593 0.000545 0.002102
-0.0019585 0.0018776 -0.023891 -0.0089567 0.31029 0.16424 0.0014905 -9.1693e-05
0.001088 0.00027353 0.0003187 0.0002992
-0.00099027 -0.0020308 -0.00094571 0.001416 0.0015146 -7.1884e-05 0.10526 0.25816
0.0020021 -0.018714 0.00013757 0.00012047
-0.00076302 0.003341 0.0016424 0.0016344 0.001097 0.00029365 0.0019385 -0.018716
0.017354 0.23145 0.0038841 -0.015235
0.0025789 0.0013828 0.00060702 0.0020969 0.00034364 0.00027309 0.00011963 0.0001192
0.0037512 -0.015129 0.029583 0.31931
1340000000 0.20525 0.23788 -0.016624 -0.020423 0.00040139 0.0042951 -0.0018001 -0.00076162
0.0014646 0.0027482 0.0017716 -0.001219
-0.016581 -0.020418 0.033071 0.37223 -0.021608 0.0038295 -0.00017107 0.0019753
0.0018809 0.00086219 0.001138 0.00077823
0.00046035 0.0042944 -0.021632 0.0039512 0.33309 0.11759 0.00096859 -0.00088695
0.00064313 -0.00052366 7.2819e-05 0.00029848
-0.0018297 -0.00076897 -0.00016588 0.0019962 0.00094965 -0.00088397 0.13867 0.23847
-0.0074514 -0.016634 0.0010244 0.00013448
0.0013788 0.0027297 0.0018698 0.00083606 0.00062799 -0.00052028 -0.0074514 -0.016732
0.046968 0.22805 -0.0030703 -0.013907
0.0018125 -0.0013024 0.0011342 0.00077939 7.8071e-05 0.00026172 0.0010111 0.00025275
-0.0030724 -0.014037 0.067761 0.31549
1400000000 0.24016 0.20167 -0.023423 -0.0091025 0.0048272 0.0031817 -0.0022125 0.00066524
0.0025932 0.0010409 0.00028392 -0.0016759
-0.023405 -0.0091079 0.071712 0.36027 -0.014988 0.012165 0.0011989 0.0013055
0.0012313 -0.00069782 0.0011328 0.00019515
0.0048708 0.0032193 -0.014951 0.012266 0.34745 0.0641 4.1648e-05 -0.0014956
0.00016944 -0.00033399 0.00030134 0.00021345
-0.0022014 0.00069499 0.0012135 0.0013084 1.9727e-05 -0.001483 0.16895 0.21009
-0.013671 -0.010207 -0.00083534 -0.00044678
0.0025898 0.00099292 0.0012252 -0.00070115 0.00014286 -0.00031149 -0.013639 -0.010177
0.080521 0.22512 -0.0095257 -0.0092124
0.00040681 -0.0016613 0.0010954 0.0001811 0.00031126 0.00018161 -0.00084291 -0.00045728
-0.0094506 -0.0092204 0.11281 0.30605
1460000000 0.2638 0.15884 -0.021005 0.0035626 0.005407 -0.0016186 -0.0015152 0.0016831
0.0021658 -0.00035853 -0.00022846 -0.00098124
-0.021001 0.0035148 0.10636 0.3389 -0.0060981 0.015301 0.0016461 0.00030581
0.00099075 -0.0012436 0.0012237 -0.00057265
0.0053987 -0.0016551 -0.0060493 0.015373 0.35434 0.0098046 -0.0010935 -0.0011382
0.00022921 -0.00010552 0.00067766 -0.00023594
-0.0015214 0.0017061 0.0016602 0.00031201 -0.001122 -0.0011359 0.196 0.18125
-0.01508 -0.0039023 -0.0010657 0.0017907
0.0021686 -0.00040315 0.0010173 -0.001238 0.00022635 -0.00013913 -0.015065 -0.0038343
0.11002 0.21168 -0.011828 -0.0033729
-0.00023537 -0.00095421 0.0012683 -0.00057557 0.00079127 -0.00024202 -0.0011063 0.0018267
-0.011791 -0.0033885 0.14615 0.28562
1520000000 0.27798 0.11829 -0.015826 0.0095064 0.0032956 -0.0040145 0.00011754 0.0025987
0.0022717 -0.0018416 -0.0011999 -0.00015027
-0.015811 0.0094871 0.1407 0.32541 0.0016828 0.0129 0.0016889 -0.00061647
0.00013481 -0.0010608 0.00035092 -0.0010137
0.0032849 -0.004061 0.0017684 0.012906 0.34778 -0.045948 -0.00089995 -0.00038982
0.00070378 -0.00091003 0.00010171 -0.00017988
0.00015958 0.002584 0.0016739 -0.00062785 -0.0009095 -0.00036937 0.22022 0.1434
-0.014932 0.0017982 0.0012887 0.002152
0.0022339 -0.0018762 0.00013385 -0.0010728 0.00067155 -0.0009116 -0.014978 0.0018533
0.13845 0.19974 -0.011762 0.0010417
-0.0012201 -0.00020169 0.0003245 -0.00098255 9.5652e-05 -0.00017216 0.0013853 0.002122
-0.011731 0.0010356 0.1797 0.26696
1580000000 0.28895 0.072448 -0.0092726 0.013352 -0.0010158 -0.0047011 0.001485 0.0018518
-0.00017882 -0.0022074 -0.00020846 0.00030215
-0.0092732 0.013346 0.16885 0.30059 0.0053501 0.0078341 0.00064733 -0.0015061
-0.0004018 -0.0011105 -0.00015797 -0.00086005
-0.0010457 -0.0047138 0.0053951 0.0078418 0.32851 -0.10404 -0.0014997 0.00038449
-0.00025299 -0.0012482 0.00028426 -0.00065555
0.0014742 0.0018498 0.00064836 -0.0015132 -0.0014928 0.00037117 0.23506 0.10362
-0.011847 0.0069517 0.0020615 0.00084765
-0.00014802 -0.0022005 -0.00044452 -0.0011455 -0.00021664 -0.0012184 -0.011842 0.0069411
0.16319 0.18291 -0.009597 0.0069763
-0.00024475 0.00034259 -0.0001128 -0.00087067 0.00035404 -0.00061556 0.0020523 0.00087487
-0.0096176 0.0069562 0.21262 0.24051
1640000000 0.29243 0.031745 -0.0022842 0.012632 -0.0028315 -0.0024467 0.0026945 0.0010896
-0.00061141 -0.0016638 -0.00045295 0.0005016
-0.0022801 0.012613 0.19846 0.27654 0.0057411 0.0029202 -0.00045448 -0.0018872
-0.00098168 -0.00054858 -0.0004859 -0.00071269
-0.0028688 -0.0024642 0.0057512 0.0028737 0.29979 -0.1526 -0.00081517 0.0012566
-0.001002 -0.0011265 -0.00018568 -0.00034862
0.0027122 0.0010929 -0.00045632 -0.0018487 -0.00079942 0.0012645 0.24798 0.054669
-0.0078563 0.0085141 0.0024106 -0.00073788
-0.00065315 -0.001667 -0.00098179 -0.00052636 -0.00099319 -0.0011074 -0.0078358 0.0085657
0.18666 0.16047 -0.0048673 0.009111
-0.00044285 0.0005214 -0.00047654 -0.00069521 -0.00017808 -0.00036805 0.0024514 -0.00071004
-0.004841 0.0091027 0.23842 0.21044
1700000000 0.28725 -0.013713 0.0014676 0.010142 -0.0034376 0.00031491 0.0031913 -0.0011083
-0.0020518 -0.00068726 0.00048934 0.00038153
0.0014593 0.010125 0.21767 0.24508 0.0033821 -3.5308e-06 -0.0014181 -0.00076898
-0.00087486 -0.0001069 -0.00087605 -0.0005076
-0.0034927 0.00034797 0.0033511 -4.8752e-05 0.25759 -0.19249 0.00017413 0.0015804
-0.0020171 -0.00018948 -0.00045242 -0.00088467
0.003193 -0.0011387 -0.0014307 -0.00075817 0.00014555 0.0015972 0.24548 0.004047
-0.0049687 0.0094751 0.0016282 -0.0020771
-0.0020378 -0.00068603 -0.00089847 -8.2887e-05 -0.0020376 -0.00022551 -0.0049351 0.0094989
0.20551 0.1415 -0.00039363 0.0096922
0.00050183 0.00037613 -0.00089958 -0.00049589 -0.00049781 -0.00095903 0.0015791 -0.0020959
-0.00038783 0.0096755 0.25618 0.17643
1760000000 0.27611 -0.06292 0.0042376 0.0069232 -0.0020235 0.0011687 0.0014241 -0.0034812
-0.001328 0.00050281 0.00042406 -0.00052702
0.0042276 0.0069338 0.2436 0.2055 0.00087347 -0.0015438 -0.0013009 -1.8872e-05
-0.0011786 0.00090224 -0.00060244 0.00039319
-0.0020315 0.0011514 0.00084358 -0.0015525 0.20933 -0.22537 0.0010312 0.0013664
-0.0013399 0.0013192 -0.0013366 -0.00065127
0.0014117 -0.0034872 -0.0012757 -2.1768e-05 0.0010731 0.0013496 0.23633 -0.048157
-0.001459 0.0088596 -0.0002719 -0.0022398
-0.0013406 0.00050232 -0.0011524 0.00094594 -0.0013083 0.0014415 -0.0014535 0.0088951
0.22124 0.10781 0.0035664 0.0072959
0.00041223 -0.00054408 -0.0005545 0.00034621 -0.0012492 -0.00073599 -0.00026874 -0.0022846
0.0035871 0.0073035 0.26943 0.13921
1820000000 0.25306 -0.10045 0.0046591 0.0032782 8.906e-05 0.0024636 -0.00088762 -0.0031648
-0.0012497 0.00092094 -7.3318e-05 -0.00010475
0.0046399 0.0032841 0.25454 0.17605 -0.0013831 8.3362e-06 -0.0015291 0.00087339
-8.5861e-05 0.0012835 -0.00071885 0.00050901
0.00011353 0.0024647 -0.0013758 -9.1936e-06 0.15941 -0.2409 0.0016733 0.00049185
-0.00024373 0.0023482 -0.0016256 0.00029869
-0.00095662 -0.0031668 -0.0015257 0.00089392 0.0016768 0.00046416 0.20656 -0.09569
0.00046689 0.0074753 -0.0015655 -0.0015397
-0.0012027 0.00089363 -6.1559e-05 0.0013033 -0.00031131 0.0023767 0.00047103 0.0075338
0.24017 0.080137 0.004629 0.0037663
-2.9885e-05 -0.00011351 -0.0006889 0.00055956 -0.0015801 0.00033575 -0.0016315 -0.0015199
0.0046198 0.0038094 0.27253 0.10346
1880000000 0.21855 -0.14199 0.0026068 0.00085085 -0.00043763 0.0021086 -0.0029757 -0.0023957
-0.0003816 0.0017701 0.00031666 -0.00063721
0.0025643 0.00084218 0.25909 0.12942 -0.0033357 0.0022784 -0.00034441 0.0018552
0.00058353 0.0013761 0.0001072 0.001026
-0.0004096 0.0020789 -0.0033013 0.0023071 0.10741 -0.25034 0.0020517 -0.0010362
0.0015289 0.0020434 -0.001171 0.0014344
-0.0030274 -0.0023572 -0.00033245 0.0018411 0.002012 -0.00093713 0.1655 -0.13656
0.0013968 0.0052785 -0.0022907 0.00030207
-0.00037048 0.0017358 0.00063843 0.001376 0.0014963 0.0020349 0.0014205 0.0052844
0.24544 0.048855 0.0050458 0.0016779
0.0002261 -0.00058913 9.5236e-05 0.00108 -0.0011656 0.0014665 -0.002182 0.00031326
0.0050678 0.0016587 0.27327 0.069212
1940000000 0.17916 -0.16822 0.00052924 -0.001094 0.0015289 0.0021159 -0.0039682 0.0004871
0.0011494 0.0011948 -0.00074225 -0.0006446
0.0005272 -0.001075 0.26023 0.098521 -0.0016991 0.005108 0.00098194 0.0014756
0.0019504 0.00046063 0.0009805 0.00034768
0.0015427 0.0020853 -0.0016878 0.0051171 0.06266 -0.24305 0.00062092 -0.0024587
0.0024763 0.00046273 0.0001659 0.0016822
-0.0039609 0.00049675 0.00098605 0.0014569 0.00059208 -0.0024598 0.11238 -0.16669
0.00046781 0.0038043 -0.0013961 0.0013401
0.0011893 0.001195 0.0019747 0.00043027 0.0024642 0.00050074 0.00048144 0.0037374
0.24973 0.011242 0.0039195 -0.0018356
-0.00073299 -0.00068924 0.00091504 0.00030931 0.00020884 0.0015908 -0.0014806 0.0015706
0.0039216 -0.0018404 0.26237 0.033469
2000000000 0.13352 -0.1834 -0.0033024 0.00075508 0.0029703 0.0014071 -0.0023277 0.0036867
0.0013341 0.0005237 -0.00062125 0.00054423
-0.0032515 0.00074483 0.24689 0.06323 -0.0008271 0.0070927 0.0018293 0.00055595
0.0012694 -0.0012551 0.00052849 3.9119e-05
0.0030132 0.0013908 -0.00076705 0.0071342 0.019944 -0.22947 -0.0013827 -0.0016077
0.002184 -0.0011214 0.0016455 0.0014956
-0.0023332 0.0037119 0.0018317 0.00055498 -0.0013498 -0.0016949 0.059102 -0.17641
-0.0010658 0.0035661 -0.00020051 0.0021487
0.0012781 0.00057842 0.0012233 -0.0012661 0.002186 -0.0011115 -0.0011813 0.0036512
0.24617 -0.022156 0.00083039 -0.0027822
