!Keysight Technologies,M9804A,MY58100912,A.14.10.03
!Date: Thursday, April 27, 2023 10:28:33
!Correction: S11(C  6-Port  ) 
!S12(C  6-Port  ) 
!S13(C  6-Port  ) 
!S14(C  6-Port  ) 
!S15(C  6-Port  ) 
!S16(C  6-Port  ) 
!S21(C  6-Port  ) 
!S22(C  6-Port  ) 
!S23(C  6-Port  ) 
!S24(C  6-Port  ) 
!S25(C  6-Port  ) 
!S26(C  6-Port  ) 
!S31(C  6-Port  ) 
!S32(C  6-Port  ) 
!S33(C  6-Port  ) 
!S34(C  6-Port  ) 
!S35(C  6-Port  ) 
!S36(C  6-Port  ) 
!S41(C  6-Port  ) 
!S42(C  6-Port  ) 
!S43(C  6-Port  ) 
!S44(C  6-Port  ) 
!S45(C  6-Port  ) 
!S46(C  6-Port  ) 
!S51(C  6-Port  ) 
!S52(C  6-Port  ) 
!S53(C  6-Port  ) 
!S54(C  6-Port  ) 
!S55(C  6-Port  ) 
!S56(C  6-Port  ) 
!S61(C  6-Port  ) 
!S62(C  6-Port  ) 
!S63(C  6-Port  ) 
!S64(C  6-Port  ) 
!S65(C  6-Port  ) 
!S66(C  6-Port  ) 
!S6P File: Measurement: :
# Hz S  RI   R 50
500000000 -0.3303 -0.064045 -0.009498 -0.001195 -0.0086018 0.012242 -0.0036274 0.012217
0.012944 0.0054377 -0.0033609 0.0087532
-0.0097399 -0.0012437 -0.4112 -0.072648 0.0088961 -0.010869 0.0015358 0.012024
0.0087921 0.0027013 0.0020151 0.013368
-0.0088095 0.012583 0.0088768 -0.010907 -0.26504 0.19129 0.0071939 0.0033871
-0.0022055 0.0087096 0.0011329 0.011917
-0.0043078 0.012757 0.0015192 0.012072 0.0072039 0.0033855 -0.32967 0.038181
-0.018483 -0.0047272 0.017365 0.025656
0.013212 0.0049295 0.0087347 0.0027268 -0.002182 0.0086908 -0.018456 -0.0047273
-0.23597 -0.21242 -0.027151 0.0053649
-0.0041435 0.0091091 0.002038 0.013326 0.00096092 0.011857 0.017334 0.025835
-0.026782 0.005118 -0.26564 -0.13931
560000000 -0.31824 0.10313 -0.021456 -0.06685 -0.00013123 0.013139 0.0043352 0.012014
0.010767 0.0058068 0.0098221 0.0083576
-0.02105 -0.06714 -0.37316 0.09307 -0.041163 -0.039744 0.013788 0.0035213
-0.01274 -0.0050229 0.0038544 -0.00070565
-4.0362e-06 0.013519 -0.041366 -0.03975 -0.18659 0.24363 -0.00060037 -0.0047764
0.018399 0.0065615 0.0072803 -0.0061387
0.0048011 0.011178 0.013849 0.0035479 -0.00058779 -0.0047885 -0.30685 0.12933
0.0054403 -0.022954 0.0052834 -0.022057
0.010411 0.0052927 -0.012801 -0.0050687 0.018455 0.0065014 0.0054105 -0.02292
-0.30758 -0.02939 0.0097103 -0.051163
0.010234 0.0075106 0.0039686 -0.00077592 0.0075148 -0.0061353 0.0049991 -0.022795
0.0092856 -0.050859 -0.33188 0.011417
620000000 -0.27807 0.083316 -0.023109 0.0084263 0.0033431 0.0092272 0.0078463 -0.0039493
0.012074 -0.0025367 -2.4313e-05 -0.00094448
-0.02319 0.008699 -0.40188 0.038935 -0.018571 -0.00025718 -0.0015505 -0.0019053
0.012509 -0.0060439 0.0013498 -0.0034913
0.0032817 0.0094883 -0.01859 -0.00023534 -0.15776 0.25274 -0.00085176 -0.0050772
-0.0035787 -0.0027008 0.0091271 -0.0036812
0.0072572 -0.0034664 -0.0015216 -0.0019012 -0.00084521 -0.0050762 -0.26331 0.1413
-0.040121 -0.02039 0.014173 0.028548
0.013157 -0.0024189 0.012566 -0.0060801 -0.0035767 -0.0027201 -0.040163 -0.020359
-0.22252 -0.067164 -0.042883 0.011324
-0.00010639 -0.00049593 0.0012808 -0.0033662 0.0092558 -0.0035345 0.014622 0.028358
-0.043252 0.01166 -0.24721 -0.024371
680000000 -0.24258 0.17581 -0.026451 -0.01556 0.0044842 0.005486 0.0014478 -0.0072461
-0.0016796 -0.011276 0.0060924 -0.0072777
-0.02627 -0.015749 -0.3911 0.14024 -0.032692 -0.0029319 -0.0014346 -0.00010073
-0.0015893 -0.0091273 -0.00064739 -0.0018564
0.0046386 0.0052182 -0.03276 -0.002824 -0.10785 0.27549 -0.00064586 3.3779e-05
-0.0015638 0.00063731 -0.0020899 -0.0095153
0.0017731 -0.0074085 -0.0014286 -8.3581e-05 -0.00065274 3.9568e-05 -0.22127 0.19246
-0.022908 -0.0083391 -0.0093308 -0.011645
-0.0018504 -0.011232 -0.0016202 -0.0090819 -0.0015655 0.00062689 -0.022954 -0.008358
-0.28043 0.037805 -0.0064153 -0.0075083
0.0061135 -0.0077413 -0.000669 -0.0019659 -0.0019246 -0.0096142 -0.0088273 -0.011983
-0.0066068 -0.0075962 -0.26158 0.083493
740000000 -0.19591 0.16865 -0.040787 0.025871 0.013853 -0.0042234 0.00039925 -0.0040701
-0.0044917 -0.0030732 -0.0058897 0.0031165
-0.040647 0.026097 -0.33721 0.1605 -0.038108 0.034241 -2.3128e-06 -0.0059258
-0.012082 0.0073798 -0.0015298 -0.0060771
0.013869 -0.0042222 -0.038028 0.03439 -0.073965 0.27387 -0.0018114 0.0033132
-0.00205 -0.0058417 -0.0014684 0.001008
0.00042483 -0.0040224 -1.439e-06 -0.0059729 -0.0018132 0.0033156 -0.20486 0.20042
-0.041642 -0.01034 0.022224 0.016264
-0.0045205 -0.0035111 -0.012033 0.0074813 -0.0020529 -0.0058711 -0.041682 -0.010291
-0.1836 0.068711 -0.041768 -0.0019424
-0.0059615 0.0034893 -0.0014652 -0.0061794 -0.0015416 0.0011237 0.02204 0.016465
-0.041436 -0.0016675 -0.25349 0.087407
800000000 -0.1657 0.21492 -0.022765 0.015699 0.0059471 -0.010345 -0.0043931 -0.0026418
-0.0045452 0.0018054 0.0046709 0.00036868
-0.022895 0.015797 -0.34477 0.23111 -0.0093599 0.034175 -0.0020517 0.0017958
-0.00092504 0.0026289 0.0013099 0.0053119
0.0057458 -0.010369 -0.0092421 0.034255 -0.035326 0.29924 0.00092763 0.001109
9.6929e-05 0.0034385 -0.0016435 0.0008754
-0.0044979 -0.0029125 -0.0020572 0.001842 0.00092782 0.0011189 -0.17591 0.22752
-0.028373 0.012367 0.013621 -0.010154
-0.0045481 0.0022025 -0.00089075 0.0026266 0.00010986 0.0034496 -0.028378 0.012427
-0.22844 0.093624 -0.016913 0.019976
0.0044456 -4.6182e-05 0.0013337 0.0051546 -0.0016632 0.00078077 0.013969 -0.010426
-0.016982 0.01996 -0.24705 0.13802
860000000 -0.13197 0.23574 -0.018883 0.030264 -0.002966 -0.010136 -0.0021324 0.00060845
0.0037034 0.0054411 -0.0040987 -0.0031546
-0.018889 0.030199 -0.29784 0.27535 0.0066579 0.03473 2.3619e-05 0.0022558
0.003451 0.00044387 0.0031209 0.00047345
-0.0029242 -0.010082 0.0067859 0.03475 0.012197 0.30856 -0.00063055 -0.0002001
0.0023247 -0.0014107 0.0012672 0.0042614
-0.0021753 0.00062154 3.31e-05 0.0022418 -0.00063473 -0.00020535 -0.1394 0.23912
-0.019037 0.01776 -0.0065597 -0.0090782
0.0037903 0.0052517 0.0034669 0.00040822 0.0023177 -0.0014087 -0.01901 0.017753
-0.17151 0.14821 -0.025518 0.016348
-0.0039962 -0.0029159 0.0031759 0.00056096 0.0012306 0.004331 -0.0069019 -0.0087839
-0.025843 0.016459 -0.19683 0.18447
920000000 -0.10894 0.25969 0.0037339 0.039127 -0.0093205 -0.0049742 -0.002125 0.0018257
0.00086672 0.0019313 0.0029342 -0.0011103
0.0037403 0.039067 -0.27065 0.29777 0.0277 0.023655 0.0012824 0.0012106
0.0077162 0.00012355 0.0045195 -0.0029063
-0.0093133 -0.0049212 0.027822 0.02359 0.057752 0.31065 0.0018006 -9.3829e-06
0.00086815 6.4083e-05 0.0011249 -0.0014354
-0.0021136 0.0018379 0.0013002 0.0012283 0.0018051 1.6183e-05 -0.11557 0.25633
-0.012263 0.030313 0.0041045 -0.0062258
0.00091913 0.0018152 0.007748 3.9984e-05 0.00087242 5.4623e-05 -0.01218 0.030367
-0.16209 0.15418 -0.0016561 0.027228
0.0028617 -0.001083 0.0044985 -0.0030053 0.0010458 -0.0015133 0.0042286 -0.0064291
-0.0020184 0.027363 -0.20416 0.19731
980000000 -0.063055 0.28094 0.015998 0.031094 -0.0095417 0.0044529 0.0017539 0.0040533
0.0040664 -0.0013391 -0.003463 -0.0027357
0.01595 0.03109 -0.21818 0.33378 0.03315 0.0062347 0.0020489 -8.6121e-05
0.0015381 -0.0060401 -0.00038214 -0.0029093
-0.0095458 0.0044986 0.033235 0.0061031 0.10384 0.30515 0.00080186 -0.001067
0.00056337 -0.0016301 0.0014607 -0.00031386
0.0017763 0.0040001 0.0020514 -7.8833e-05 0.00079688 -0.0010725 -0.077637 0.26742
0.006585 0.030027 -0.0096525 -0.0077141
0.0041815 -0.0013083 0.0015315 -0.006045 0.0005648 -0.0016344 0.0066279 0.03004
-0.12953 0.18583 0.0048389 0.019634
-0.0034268 -0.0026135 -0.00036409 -0.0029261 0.0014935 -0.00028432 -0.0098658 -0.0076357
0.0051068 0.019642 -0.16317 0.24366
1040000000 -0.022077 0.29059 0.032923 0.020432 -0.0013752 0.0073387 0.0027745 0.0007068
0.00051378 -0.0034032 2.0354e-06 -0.0015933
0.032892 0.020424 -0.18335 0.34822 0.030291 -0.013732 0.0016275 -0.0016865
-0.0021944 -0.0024006 -0.0011448 -0.0029181
-0.0013838 0.0073493 0.030281 -0.013896 0.14956 0.2929 -0.0004404 -0.0015947
-0.0014889 -0.00098107 -0.00047899 -0.0011263
0.0028467 0.00074427 0.0016406 -0.0016813 -0.00043816 -0.0015962 -0.050737 0.27777
0.018381 0.019357 -0.0024173 0.0013948
0.00047547 -0.0034057 -0.0022089 -0.0024215 -0.0015019 -0.00099388 0.018425 0.019336
-0.096429 0.19392 0.013599 0.018923
-0.00010291 -0.0016126 -0.001241 -0.0028938 -0.00052595 -0.0010625 -0.0023177 0.001344
0.0134 0.019209 -0.14185 0.26583
1100000000 0.02286 0.30066 0.037 -0.0022539 0.0032299 0.004308 0.0025349 -0.0010683
-0.0020948 -0.0028292 -0.003913 -8.9106e-05
0.036988 -0.0021985 -0.13961 0.36731 0.016371 -0.027448 -7.1641e-06 -0.0017975
-0.0033566 -0.0007166 -0.0033839 -0.0005002
0.0032648 0.0043451 0.016289 -0.027562 0.19582 0.27411 -0.0018864 0.00013702
-0.0017611 0.00051688 -0.0011172 -0.00053696
0.002484 -0.0011238 -1.2101e-05 -0.0018097 -0.001876 0.00012309 -0.010576 0.28335
0.024194 0.0066322 -0.002368 0.0002039
-0.0020793 -0.0028844 -0.0033794 -0.00071374 -0.0017619 0.00051256 0.024217 0.0065907
-0.076824 0.20854 0.019816 0.0096261
-0.0039376 -9.7155e-05 -0.0033876 -0.00052907 -0.0010737 -0.0005355 -0.0024374 0.00019937
0.019613 0.0096527 -0.094861 0.29544
1160000000 0.073699 0.29759 0.025682 -0.019634 0.0033929 -0.00053938 -9.8239e-05 -0.0025451
-0.0040861 -0.00092436 -0.0011446 0.0041893
0.025625 -0.019564 -0.09657 0.37248 -0.0025657 -0.029223 -0.0015239 -0.0017517
-0.0026197 0.0025106 -0.0016812 0.0017292
0.0033559 -0.00054215 -0.0026924 -0.029277 0.23898 0.24476 -0.00078672 0.0017099
-0.00045812 0.0018967 -0.0010205 0.00032209
-0.00013068 -0.0025739 -0.0015083 -0.0017399 -0.00079295 0.0017052 0.02829 0.28119
0.021618 -0.0094853 -0.0034173 0.0053069
-0.0040501 -0.00089914 -0.0025782 0.0025055 -0.00045756 0.0018858 0.021612 -0.0095166
-0.042112 0.21759 0.018832 0.00051732
-0.0011448 0.0042651 -0.001676 0.0017306 -0.0010202 0.00033185 -0.0035121 0.0054601
0.018599 0.0002799 -0.048649 0.29893
1220000000 0.11745 0.28897 0.012614 -0.03001 -0.0011465 -0.0014217 6.6807e-06 -0.00092788
-0.0028154 0.0022477 0.00089989 0.002102
0.012617 -0.029969 -0.052327 0.38672 -0.016378 -0.021879 -0.0025629 0.00047807
2.1696e-05 0.0029562 -0.00080741 0.0019309
-0.00113 -0.0014332 -0.016497 -0.021843 0.27875 0.20725 0.00075005 0.0017056
0.00047119 0.0012672 0.00034732 0.00072561
-5.1335e-05 -0.00094914 -0.0025674 0.00051193 0.00075892 0.0017081 0.068391 0.27368
0.011305 -0.016098 0.0024965 0.001461
-0.0028518 0.0022363 2.6833e-05 0.0029678 0.00047245 0.0012464 0.011287 -0.016111
-0.019373 0.22763 0.014619 -0.01256
0.00094787 0.0021072 -0.00075143 0.0019317 0.00035665 0.00070387 0.0025277 0.0013973
0.014846 -0.012484 -0.018116 0.31651
1280000000 0.16798 0.26927 -0.0062697 -0.029512 -0.0019385 0.0019065 -0.00096326 -0.0021068
-0.00081943 0.0032339 0.002576 0.0013159
-0.0062165 -0.029456 -0.0059599 0.37881 -0.023772 -0.009026 -0.00099274 0.0014032
0.0015628 0.0016289 0.00056518 0.0019934
-0.0019421 0.0019032 -0.023864 -0.0089277 0.3104 0.16415 0.0015317 -8.2853e-05
0.0011034 0.00025162 0.00030024 0.00023444
-0.00097024 -0.0021016 -0.00097326 0.0014012 0.0015296 -7.9456e-05 0.10535 0.25807
0.0020167 -0.018736 0.00011317 9.5391e-05
-0.00079536 0.0033019 0.0015726 0.0016262 0.001106 0.00023258 0.0019779 -0.018754
0.017324 0.23164 0.0039596 -0.015119
0.0025585 0.0013266 0.00056994 0.0020588 0.00034163 0.00024938 0.00013253 0.00019319
0.00383 -0.015076 0.029744 0.3194
1340000000 0.20555 0.23793 -0.016645 -0.020472 0.00037657 0.0042745 -0.0018368 -0.00078259
0.0014016 0.002831 0.0017698 -0.0013178
-0.016612 -0.020463 0.03336 0.37221 -0.02162 0.003845 -0.0001545 0.0019543
0.0018926 0.0008446 0.0010951 0.00084026
0.00037416 0.0042661 -0.021634 0.0039616 0.33327 0.11742 0.00095843 -0.00092844
0.00061801 -0.00054263 6.3156e-05 0.00030406
-0.0018733 -0.00079431 -0.00015073 0.0019688 0.00096542 -0.00092731 0.13877 0.2385
-0.0074554 -0.016667 0.001027 0.00021202
0.0013907 0.0027946 0.0018927 0.00084453 0.00061894 -0.000543 -0.0074867 -0.016668
0.04715 0.22804 -0.003088 -0.014029
0.0017964 -0.0013265 0.0010872 0.00082867 3.3346e-05 0.0002929 0.0010567 0.00022133
-0.0030602 -0.013998 0.067711 0.31552
1400000000 0.24036 0.20162 -0.023477 -0.0090863 0.0048401 0.0032017 -0.0022303 0.00064141
0.0026177 0.0010199 0.00041125 -0.0016472
-0.023436 -0.0090944 0.071964 0.36027 -0.014996 0.012155 0.0011994 0.0013013
0.0012511 -0.00067191 0.0011214 0.00021023
0.0048555 0.0031887 -0.014957 0.012251 0.34758 0.063947 4.5616e-05 -0.0014814
0.00012698 -0.00035631 0.00035322 0.00024344
-0.0022231 0.00068566 0.0012099 0.0012916 3.7959e-05 -0.0014949 0.16905 0.21007
-0.013658 -0.01021 -0.00077143 -0.00045531
0.0025857 0.00099919 0.0012457 -0.00067456 0.00012413 -0.00036213 -0.013686 -0.010168
0.080639 0.22505 -0.009563 -0.0091397
0.00038969 -0.0016474 0.0011364 0.00017817 0.00035857 0.00022788 -0.00083742 -0.00046507
-0.0094806 -0.009304 0.11294 0.30586
1460000000 0.26416 0.15876 -0.021094 0.0035542 0.0053992 -0.0016099 -0.0015131 0.0017858
0.0022013 -0.00032991 -0.0003122 -0.0010084
-0.021074 0.0035414 0.10663 0.33891 -0.006103 0.015319 0.0016281 0.00027236
0.00099224 -0.0012933 0.0012599 -0.00056771
0.0053677 -0.0016339 -0.0060357 0.015387 0.35437 0.0096494 -0.0011196 -0.0011355
0.0001493 -0.00010601 0.00081766 -0.00024749
-0.001489 0.001762 0.0016364 0.00026005 -0.0011155 -0.0011434 0.19604 0.18125
-0.015082 -0.0039137 -0.0011694 0.0017806
0.0021794 -0.00034181 0.00099885 -0.0012976 0.00014851 -0.0001132 -0.015108 -0.0038855
0.11011 0.21166 -0.011796 -0.003467
-0.0002843 -0.0010038 0.0012325 -0.00052134 0.00081077 -0.00017869 -0.0010508 0.001809
-0.01175 -0.0033393 0.14623 0.2858
1520000000 0.27824 0.11801 -0.015816 0.009543 0.0032567 -0.004036 0.00013076 0.002617
0.0022525 -0.0018957 -0.0011767 -0.00013629
-0.015797 0.0095123 0.14095 0.32534 0.0017075 0.012885 0.0016871 -0.00063506
0.00013585 -0.0010501 0.00035819 -0.0010118
0.0032527 -0.0040748 0.0017748 0.012892 0.34792 -0.046172 -0.00090252 -0.00037384
0.00071899 -0.00097593 9.2282e-05 -0.00020998
0.00011579 0.0026257 0.0016881 -0.00064276 -0.00090218 -0.00038491 0.22037 0.1433
-0.014988 0.0018089 0.0013953 0.002098
0.0022061 -0.001857 0.00012515 -0.0010508 0.00072208 -0.00098103 -0.014993 0.0018408
0.13859 0.19963 -0.011756 0.0011162
-0.0011676 -0.00012337 0.00033794 -0.0010104 8.1923e-05 -0.00015227 0.0013693 0.0020948
-0.011721 0.0010581 0.17957 0.26671
1580000000 0.28912 0.072172 -0.009257 0.013381 -0.0010468 -0.0046862 0.0014884 0.0018699
-0.00012938 -0.002224 -0.00022305 0.0003905
-0.0092459 0.013351 0.16909 0.3005 0.005347 0.0078357 0.00068132 -0.0015105
-0.00041092 -0.0011716 -0.00017154 -0.00085465
-0.0010631 -0.0046875 0.0054057 0.007822 0.32845 -0.10435 -0.0015159 0.00038153
-0.0002254 -0.0011796 0.00040674 -0.00057032
0.0015099 0.001848 0.00066739 -0.0015232 -0.0015128 0.00037984 0.235 0.10361
-0.011871 0.0069736 0.0020793 0.00089136
-0.00016394 -0.0022591 -0.00041837 -0.0011678 -0.00022672 -0.0011848 -0.011873 0.0070042
0.16329 0.18281 -0.0095197 0.0069678
-0.00021907 0.00037981 -0.00017352 -0.00083307 0.00040603 -0.00059386 0.0020889 0.00090469
-0.0095808 0.006942 0.2127 0.24043
1640000000 0.29253 0.031285 -0.0022614 0.012618 -0.0028328 -0.0024667 0.0026919 0.0011265
-0.00068432 -0.0016873 -0.00041398 0.00055454
-0.0022887 0.012612 0.19876 0.27639 0.0057174 0.0029042 -0.00043807 -0.0018614
-0.00097277 -0.00054087 -0.00053683 -0.00067511
-0.0028706 -0.0024472 0.0057419 0.0028675 0.29981 -0.15292 -0.00079413 0.001236
-0.00096487 -0.0010821 -0.00026862 -0.00044002
0.0026913 0.0011115 -0.00044947 -0.0018659 -0.00078999 0.0012484 0.24803 0.054522
-0.0078903 0.0085512 0.002461 -0.0006853
-0.00072084 -0.0016502 -0.00097175 -0.00054007 -0.00096218 -0.0010731 -0.0078843 0.0085819
0.18665 0.16036 -0.0049573 0.0092268
-0.00040034 0.00054204 -0.00050001 -0.00071355 -0.00019469 -0.00042661 0.0024411 -0.00067037
-0.0048793 0.0091572 0.23847 0.21023
1700000000 0.28717 -0.014132 0.0014998 0.010136 -0.0035111 0.00035292 0.0032069 -0.0011389
-0.0020256 -0.00068743 0.00052639 0.00036835
0.0015038 0.010117 0.21788 0.24495 0.0033121 -3.2722e-05 -0.001426 -0.0007761
-0.0008589 -0.0001066 -0.00093809 -0.00052762
-0.0034917 0.00034074 0.0033241 -5.2989e-05 0.25744 -0.19279 9.6181e-05 0.0015473
-0.0020191 -0.00031813 -0.00042074 -0.00082297
0.0031929 -0.001168 -0.0014236 -0.00076996 8.6482e-05 0.0015392 0.24551 0.0040246
-0.0049863 0.0094975 0.0015417 -0.0020718
-0.0020352 -0.0006856 -0.00087049 -9.6286e-05 -0.0020167 -0.0003161 -0.0049661 0.0095149
0.20555 0.14138 -0.00032967 0.0095661
0.00055768 0.00037046 -0.00093977 -0.00048155 -0.00043023 -0.00083609 0.0015413 -0.0020712
-0.00037655 0.0095545 0.25607 0.17639
1760000000 0.27596 -0.063146 0.0042286 0.0069523 -0.0020222 0.0011211 0.0013767 -0.0034884
-0.0013776 0.0005564 0.00042015 -0.00048722
0.0042185 0.0069391 0.24383 0.20533 0.00089228 -0.0015367 -0.0012856 -5.0827e-05
-0.001158 0.00092349 -0.00061012 0.00038793
-0.0020062 0.0011105 0.00088137 -0.0015502 0.20921 -0.2255 0.001162 0.0013163
-0.0012264 0.0013627 -0.001301 -0.00072079
0.0013736 -0.0034892 -0.001288 -5.1746e-05 0.0011477 0.0013129 0.2364 -0.048222
-0.0014486 0.008907 -0.0002188 -0.0022682
-0.0013624 0.00055473 -0.001145 0.00094472 -0.0012173 0.001371 -0.0014388 0.0089
0.22119 0.10776 0.0035636 0.007361
0.00042635 -0.00050414 -0.00060743 0.00037009 -0.0012965 -0.00068637 -0.00028387 -0.0022547
0.0035906 0.0073738 0.26953 0.13908
1820000000 0.25289 -0.10065 0.0046384 0.0033183 6.2457e-05 0.0024225 -0.00088197 -0.0031514
-0.0012471 0.00092796 -4.6272e-05 -0.00016733
0.0046378 0.0033315 0.2547 0.1759 -0.0014334 -6.1204e-05 -0.00153 0.00095256
-8.9707e-05 0.0013119 -0.00064121 0.00052909
0.00010987 0.0023954 -0.0014309 -4.6112e-05 0.15915 -0.24123 0.0015991 0.00043881
-0.00031417 0.0023714 -0.0014297 0.00032531
-0.00090484 -0.0031936 -0.0015366 0.00096087 0.0016007 0.00042381 0.20657 -0.095864
0.00044289 0.0075621 -0.0017231 -0.0015276
-0.0012135 0.00088137 -9.1892e-05 0.0013115 -0.00031576 0.002375 0.00046323 0.0075705
0.24007 0.080119 0.0045911 0.0038039
-5.1419e-05 -0.00017771 -0.00062613 0.00053835 -0.0014464 0.00031722 -0.0015995 -0.0015141
0.0046261 0.0038141 0.27263 0.10367
1880000000 0.21845 -0.14203 0.0025748 0.00085186 -0.00051627 0.0020738 -0.0029488 -0.0022647
-0.00032975 0.0018025 0.00014709 -0.00062688
0.0025683 0.00082251 0.25924 0.1292 -0.0033291 0.0022776 -0.00033471 0.0019102
0.0006245 0.0014057 8.102e-05 0.0010742
-0.00050468 0.0021034 -0.0033225 0.0023014 0.10721 -0.25037 0.0019906 -0.00094713
0.0015052 0.002006 -0.0011925 0.0015057
-0.0029417 -0.002256 -0.0003213 0.0019081 0.0019942 -0.00095341 0.16551 -0.13665
0.0014375 0.0052553 -0.0021358 0.000193
-0.00034348 0.0018434 0.00064195 0.0014066 0.0015285 0.0020201 0.0014639 0.0052434
0.24545 0.048827 0.0051413 0.0017
0.00015137 -0.00064426 0.00011328 0.0010307 -0.001145 0.0014742 -0.0022583 0.00019564
0.0050939 0.0016679 0.27335 0.069222
1940000000 0.17914 -0.16825 0.00050492 -0.0010411 0.0015195 0.002103 -0.0040428 0.00039746
0.0010499 0.0011365 -0.00084053 -0.00056171
0.00053612 -0.0010476 0.26026 0.098291 -0.0017467 0.0050742 0.00099165 0.0014427
0.0019495 0.00041161 0.00088722 0.0003226
0.001506 0.0021231 -0.0017133 0.0050948 0.062553 -0.24324 0.00058912 -0.0024647
0.002462 0.0004533 0.0001412 0.0015875
-0.0039553 0.00037723 0.0010021 0.0014283 0.00060201 -0.002455 0.11238 -0.1667
0.00044826 0.0037703 -0.0015261 0.0015458
0.00112 0.0010944 0.0019629 0.00040257 0.0024674 0.00044927 0.00045125 0.0037551
0.24968 0.01118 0.0038044 -0.0018009
-0.00086713 -0.00055865 0.00088941 0.00034674 0.00011654 0.0016152 -0.0013836 0.0014714
0.0039146 -0.0018848 0.2624 0.033741
2000000000 0.13348 -0.18362 -0.0032999 0.00071981 0.0029725 0.0014474 -0.0022947 0.0036688
0.0013044 0.00049468 -0.00081174 0.00044098
-0.0032962 0.00067727 0.24705 0.062986 -0.00075652 0.0071545 0.0018423 0.00052142
0.0012443 -0.0012695 0.00046807 -4.9532e-05
0.0029291 0.001402 -0.00070284 0.0071601 0.01985 -0.22955 -0.0015091 -0.0016125
0.0021136 -0.0011664 0.0016338 0.0014017
-0.0022536 0.0037234 0.0018361 0.00051145 -0.0015211 -0.0016013 0.05904 -0.17655
-0.0010873 0.0037227 -4.6833e-05 0.0020214
0.001334 0.00051381 0.0012359 -0.0012976 0.002108 -0.0011764 -0.0011031 0.0037372
0.24621 -0.022089 0.0010501 -0.0027548
