!Keysight Technologies,M9804A,MY58100912,A.14.10.03
!Date: Thursday, April 27, 2023 10:28:33
!Correction: S11(C  6-Port  ) 
!S12(C  6-Port  ) 
!S13(C  6-Port  ) 
!S14(C  6-Port  ) 
!S15(C  6-Port  ) 
!S16(C  6-Port  ) 
!S21(C  6-Port  ) 
!S22(C  6-Port  ) 
!S23(C  6-Port  ) 
!S24(C  6-Port  ) 
!S25(C  6-Port  ) 
!S26(C  6-Port  ) 
!S31(C  6-Port  ) 
!S32(C  6-Port  ) 
!S33(C  6-Port  ) 
!S34(C  6-Port  ) 
!S35(C  6-Port  ) 
!S36(C  6-Port  ) 
!S41(C  6-Port  ) 
!S42(C  6-Port  ) 
!S43(C  6-Port  ) 
!S44(C  6-Port  ) 
!S45(C  6-Port  ) 
!S46(C  6-Port  ) 
!S51(C  6-Port  ) 
!S52(C  6-Port  ) 
!S53(C  6-Port  ) 
!S54(C  6-Port  ) 
!S55(C  6-Port  ) 
!S56(C  6-Port  ) 
!S61(C  6-Port  ) 
!S62(C  6-Port  ) 
!S63(C  6-Port  ) 
!S64(C  6-Port  ) 
!S65(C  6-Port  ) 
!S66(C  6-Port  ) 
!S6P File: Measurement: :
# Hz S  RI   R 50
500000000 -0.34019 -0.022547 -0.011604 -0.0030747 -0.0082038 0.012822 -0.0037907 0.012386
0.011194 0.0041695 -0.0033675 0.0085571
-0.011155 -0.0036979 -0.42022 -0.040131 0.006342 -0.011599 0.0016284 0.012402
0.0070577 0.002273 0.0016024 0.013981
-0.0083512 0.013231 0.0061306 -0.011581 -0.26525 0.22052 0.0067585 0.003895
-0.001355 0.0079709 0.0014128 0.012151
-0.0015788 0.01131 0.00096276 0.012361 0.0065389 0.0035419 -0.33239 0.057746
-0.020761 -0.006396 0.015489 0.025005
0.012042 0.0040344 0.0071878 0.0028831 -0.001022 0.0085797 -0.020675 -0.005892
-0.23484 -0.17141 -0.026617 0.0047659
-0.0018885 0.0061531 0.00091858 0.013652 0.0011983 0.011363 0.015215 0.024125
-0.026617 0.0044574 -0.2831 -0.089857
560000000 -0.31444 0.13452 -0.027308 -0.060452 0.0012145 0.012232 0.0056492 0.010319
0.0094165 0.0052788 0.010043 0.0080215
-0.027355 -0.060405 -0.37566 0.11614 -0.042447 -0.035109 0.01312 0.0035114
-0.011999 -0.0036516 0.0037659 -0.001471
0.00065951 0.011385 -0.043157 -0.035171 -0.18115 0.26713 9.9407e-05 -0.0041621
0.018884 0.0040761 0.0068099 -0.0056012
0.0051691 0.010608 0.013511 0.0029501 -0.00014058 -0.0045332 -0.30641 0.14659
0.00040364 -0.023265 0.003364 -0.018717
0.0090398 0.0049061 -0.013337 -0.0030953 0.019136 0.0046911 -0.00013486 -0.023073
-0.28833 0.0021757 0.0043067 -0.046687
0.0099518 0.0076055 0.0038797 -0.0018624 0.0065581 -0.0061474 0.00332 -0.01962
0.0036716 -0.046997 -0.33195 0.050991
620000000 -0.2715 0.12022 -0.023318 0.0080675 0.0044873 0.0084456 0.00804 -0.004973
0.011488 -0.0008162 0.0009517 -0.0022007
-0.02324 0.0081868 -0.40179 0.070505 -0.019164 0.0010568 -0.0010735 -0.0021393
0.01078 -0.0061648 0.0015196 -0.0024999
0.0048309 0.0081803 -0.019211 0.0010786 -0.15037 0.27573 -0.00079688 -0.0047799
-0.0034794 -0.0021261 0.0085094 -0.0029132
0.0082649 -0.0053331 -0.0014298 -0.0021862 -0.0010307 -0.00508 -0.26406 0.1574
-0.041296 -0.017613 0.012594 0.024743
0.011226 -0.0014471 0.011151 -0.0060477 -0.0032707 -0.0025684 -0.041048 -0.017459
-0.2098 -0.035715 -0.040117 0.015102
0.0012999 -0.0031042 0.0010605 -0.002918 0.008158 -0.0033191 0.011993 0.023902
-0.040135 0.015576 -0.25621 0.021958
680000000 -0.22939 0.20403 -0.027777 -0.011637 0.0055257 0.0048901 0.001508 -0.0070286
-0.0024604 -0.010851 0.0042047 -0.0071858
-0.028094 -0.011647 -0.38502 0.16623 -0.032037 0.00055646 -0.001355 -0.00038978
-0.0022456 -0.0090316 -0.0015191 -0.0024154
0.005577 0.0050545 -0.032108 0.00057769 -0.098587 0.29436 -0.00090795 -0.00036517
-0.0017148 -0.00021163 -0.0035255 -0.0089618
0.00095859 -0.0077748 -0.001222 -0.00056928 -0.00079955 -0.0003399 -0.21742 0.20638
-0.025995 -0.0049076 -0.009541 -0.0079645
-0.0037068 -0.010844 -0.0022693 -0.0092278 -0.0014645 8.7653e-05 -0.026142 -0.0045878
-0.25346 0.062965 -0.0075221 -0.0064231
0.0033472 -0.0063853 -0.0011146 -0.0021914 -0.0037674 -0.0084173 -0.0089182 -0.0079638
-0.0071568 -0.0063671 -0.25544 0.11879
740000000 -0.18524 0.19804 -0.036755 0.027196 0.012575 -0.0060117 -0.00080997 -0.0042411
-0.0048013 -0.0029847 -0.0058711 0.0026273
-0.036298 0.026999 -0.33305 0.18535 -0.033098 0.035179 -0.0012822 -0.0062433
-0.012056 0.0074483 -0.0019974 -0.0051632
0.012616 -0.005691 -0.033265 0.035372 -0.064603 0.2922 -0.0021279 0.0029853
-0.0031267 -0.0044688 -0.0018953 0.0009172
-6.3813e-05 -0.0040353 -0.001429 -0.006346 -0.0020336 0.002833 -0.19977 0.21434
-0.042987 -0.0028563 0.023188 0.012952
-0.004117 -0.0031176 -0.011524 0.0075327 -0.0034829 -0.0047174 -0.043064 -0.0028004
-0.15752 0.086269 -0.03918 0.0046136
-0.005833 0.0021648 -0.0027176 -0.004953 -0.0016125 0.00060105 0.022867 0.013123
-0.039193 0.0045713 -0.24366 0.12843
800000000 -0.15047 0.23592 -0.021172 0.017693 0.0048873 -0.010527 -0.0044931 -0.0017107
-0.0036714 0.0026027 0.0035982 0.00036287
-0.021217 0.017191 -0.33424 0.25354 -0.0067447 0.033983 -0.0023688 0.0022213
-0.00086395 0.0033852 0.0010333 0.0052557
0.0049308 -0.010538 -0.0066617 0.03398 -0.023341 0.3146 0.00085098 0.0017499
0.00037651 0.003685 -0.0016637 0.0011252
-0.0049706 -0.0016891 -0.0025082 0.0023105 0.0008482 0.0018081 -0.16994 0.24119
-0.027272 0.016946 0.013529 -0.0097858
-0.0044298 0.0025769 -0.00087339 0.003295 0.00038652 0.0037174 -0.027129 0.016884
-0.19684 0.11222 -0.016113 0.019573
0.0030202 0.001067 0.00065013 0.0057131 -0.0015079 0.0012221 0.013357 -0.0097319
-0.016062 0.019543 -0.23204 0.17516
860000000 -0.11584 0.25556 -0.01511 0.030858 -0.0034926 -0.0098842 -0.0018291 0.00094206
0.0045486 0.0047228 -0.003027 -0.0023568
-0.015274 0.030675 -0.28575 0.29458 0.0093091 0.033531 0.00013735 0.0022233
0.0043804 0.00029114 0.0030412 0.0003526
-0.0036362 -0.0099113 0.0095376 0.033519 0.025548 0.32181 -0.00038487 -6.8241e-05
0.002573 -0.0014165 0.0018518 0.0040303
-0.0015838 0.0013842 3.862e-05 0.0026163 -0.00037988 2.6547e-06 -0.13263 0.25147
-0.014941 0.020578 -0.0052471 -0.0091381
0.0043213 0.0051122 0.0046319 0.00037411 0.0025856 -0.0013773 -0.014926 0.02065
-0.1425 0.15835 -0.021765 0.017292
-0.0025789 -0.0029128 0.0032597 -3.7187e-05 0.0017523 0.0039905 -0.0052555 -0.0091601
-0.021675 0.016996 -0.18198 0.21512
920000000 -0.089352 0.27612 0.0065807 0.036323 -0.0094059 -0.0043925 -0.0012774 0.0016204
0.0014364 0.0013924 0.0026172 -0.001899
0.006581 0.036466 -0.25645 0.31453 0.028617 0.020369 0.0018248 0.00090245
0.00733 -0.00090657 0.0035571 -0.003002
-0.009427 -0.0043596 0.02873 0.020302 0.072354 0.32157 0.0020191 -0.0002409
0.001611 -0.00069358 0.00071702 -0.0012763
-0.0011363 0.0015546 0.0017197 0.0010112 0.0019214 -0.00023036 -0.10729 0.26706
-0.007126 0.031142 0.0026422 -0.0067814
0.0015345 0.0012078 0.0073058 -0.00088237 0.0015739 -0.00084504 -0.0071374 0.031274
-0.13083 0.16257 0.00015234 0.025858
0.0026678 -0.0016777 0.0033333 -0.0029681 0.00080334 -0.0013589 0.0026589 -0.0066114
-6.6687e-05 0.026041 -0.18361 0.2297
980000000 -0.042919 0.2944 0.018556 0.028317 -0.0088561 0.0045977 0.0019623 0.0027916
0.0039126 -0.0019188 -0.003078 -0.0020976
0.018463 0.028269 -0.20484 0.34765 0.032958 0.0031715 0.0020713 -0.00033986
0.0016847 -0.0063414 -0.00052569 -0.0024235
-0.0088831 0.0046061 0.033012 0.0030715 0.11915 0.31465 0.00045569 -0.0013557
5.582e-05 -0.0024719 0.0011979 -0.00029567
0.0017968 0.0028757 0.0021071 -0.00033413 0.00046365 -0.0013308 -0.068336 0.27729
0.011218 0.029071 -0.0084421 -0.0064177
0.0038477 -0.0019459 0.0016208 -0.0065466 7.9071e-05 -0.0023808 0.011253 0.029105
-0.098368 0.18843 0.0069077 0.018667
-0.0030709 -0.0022072 -0.00047977 -0.0024628 0.001163 -0.0003144 -0.0085504 -0.0065455
0.0069294 0.018524 -0.13915 0.26897
1040000000 0.0003777 0.30125 0.033195 0.015778 -0.0013997 0.0067212 0.0022383 0.00060929
0.0001225 -0.0031746 -0.00086094 -0.001369
0.033217 0.015698 -0.16899 0.36057 0.0282 -0.016131 0.0013303 -0.0017861
-0.0024354 -0.0028115 -0.0016224 -0.0028506
-0.0013044 0.0067063 0.028182 -0.016177 0.16651 0.29974 -0.0007017 -0.0014698
-0.0017435 -0.00089248 -0.0006223 -0.0010364
0.0023023 0.00063574 0.0013056 -0.0017439 -0.00069549 -0.001486 -0.039326 0.2861
0.022111 0.016021 -0.0026337 0.00077046
-6.5984e-05 -0.0031992 -0.0024523 -0.0026609 -0.0017657 -0.00082302 0.022128 0.016026
-0.065714 0.19427 0.014537 0.015942
-0.0009841 -0.0013553 -0.0017389 -0.0027478 -0.0006321 -0.00099227 -0.0027053 0.00078035
0.0145 0.016059 -0.11425 0.28846
1100000000 0.044826 0.30794 0.034703 -0.0060716 0.0026274 0.0037215 0.0020591 -0.00097429
-0.0019239 -0.0029546 -0.0038204 0.00043691
0.034682 -0.0060687 -0.12609 0.37748 0.013657 -0.028382 -0.00011252 -0.0018355
-0.0036329 -0.00070335 -0.0035251 -0.00022411
0.0026782 0.0037252 0.013584 -0.028481 0.21332 0.2777 -0.0019031 0.00028775
-0.0019172 0.00065153 -0.0009897 -0.00013543
0.0021014 -0.00093852 -0.00018228 -0.0018766 -0.0019293 0.00028588 0.0014838 0.28927
0.026208 0.0019435 -0.0027252 -0.00018335
-0.0018901 -0.0029446 -0.0036829 -0.00073815 -0.0019564 0.00069547 0.026276 0.0018632
-0.047795 0.20588 0.019273 0.0060012
-0.0037827 0.00053911 -0.0034592 -0.00027981 -0.0010737 -0.0001857 -0.0026994 -0.00016563
0.019214 0.0059508 -0.068245 0.31308
1160000000 0.096113 0.30215 0.022156 -0.022134 0.0022298 -0.00027479 -4.9289e-05 -0.0018958
-0.0039515 -0.00058115 -0.00077171 0.003894
0.022201 -0.02204 -0.081022 0.38205 -0.0054043 -0.028717 -0.0017117 -0.0015231
-0.0027288 0.0026993 -0.0014227 0.0018363
0.0021963 -0.00030921 -0.0055316 -0.028712 0.25688 0.24478 -0.00075849 0.0018765
-0.00036554 0.0021045 -0.0007599 0.00026813
-3.9992e-05 -0.0019135 -0.0016312 -0.0015604 -0.00074903 0.0018527 0.041706 0.28463
0.020889 -0.014055 -0.0032939 0.0042474
-0.0039643 -0.00054892 -0.0027268 0.0027357 -0.00038385 0.0020976 0.020889 -0.014072
-0.014468 0.21262 0.017597 -0.0021033
-0.00084499 0.0037459 -0.0013203 0.0017949 -0.00072667 0.00024525 -0.0033657 0.0042244
0.017561 -0.0020638 -0.020666 0.31482
1220000000 0.14037 0.2894 0.0079774 -0.030091 -0.0017287 -0.00019257 0.00021511 -0.00089088
-0.0024395 0.0022941 0.0013482 0.0019235
0.0080492 -0.030034 -0.036513 0.39285 -0.017921 -0.020011 -0.0024689 0.00051746
0.00014062 0.0031748 -0.00052196 0.0020744
-0.0017475 -0.00019159 -0.018027 -0.019973 0.29483 0.20303 0.0009173 0.001881
0.0007581 0.0012474 0.00043098 0.00053659
0.00015283 -0.00087066 -0.0025227 0.0005888 0.00090204 0.0018834 0.081733 0.27347
0.0090427 -0.02025 0.0011132 0.001437
-0.0025031 0.002272 0.00013941 0.0031962 0.00079262 0.0012137 0.0089945 -0.020294
0.0084929 0.21938 0.012041 -0.014454
0.0013554 0.002023 -0.00061436 0.0021187 0.00042216 0.00060124 0.0011387 0.0014714
0.012066 -0.014481 0.012478 0.32676
1280000000 0.18958 0.26667 -0.010006 -0.027395 -0.0015245 0.0031409 -0.00083714 -0.0019985
-0.00074604 0.0030689 0.0024576 0.00092469
-0.0099238 -0.027401 0.01013 0.3837 -0.024044 -0.0071575 -0.0009305 0.0014477
0.0019751 0.0017818 0.0008502 0.0018437
-0.0015596 0.003153 -0.02414 -0.00705 0.32334 0.15816 0.0017583 4.4658e-05
0.0012298 0.00022689 0.00028529 0.00016051
-0.00083595 -0.0019013 -0.0009659 0.0014571 0.001742 4.5684e-05 0.11793 0.25504
-0.001776 -0.021447 -0.00088628 0.00061396
-0.00070165 0.0030246 0.001959 0.0018353 0.0012735 0.00018162 -0.0018314 -0.021467
0.044734 0.22197 0.0011186 -0.016148
0.0025222 0.0009314 0.00071013 0.0017699 0.00022975 3.771e-05 -0.00095708 0.00055525
0.0010973 -0.016165 0.05856 0.3255
1340000000 0.22646 0.23131 -0.018974 -0.016864 0.0015027 0.0045169 -0.0017027 -0.00098909
0.0015597 0.0026555 0.0015716 -0.0015791
-0.018949 -0.016846 0.050235 0.37344 -0.021088 0.0054896 -7.1281e-05 0.0020699
0.0021733 0.00056472 0.0014248 0.00059864
0.0015345 0.0045262 -0.021111 0.0056268 0.34377 0.10951 0.0013717 -0.0011143
0.00072023 -0.00065207 5.9786e-05 0.00022494
-0.0017352 -0.0010082 -2.381e-05 0.0020324 0.0013956 -0.0011331 0.14966 0.2321
-0.011836 -0.01721 0.00031392 0.0014857
0.0015437 0.0025855 0.0021542 0.00053756 0.00071278 -0.00057527 -0.011811 -0.017209
0.07472 0.21566 -0.0060125 -0.013841
0.0015178 -0.0015674 0.0014486 0.00060202 0.00010867 0.00014594 0.00029643 0.0014558
-0.0059544 -0.01385 0.098026 0.31715
1400000000 0.25841 0.19201 -0.023364 -0.0050927 0.005682 0.0028578 -0.0022229 0.00052559
0.0024229 0.00091426 0.00010641 -0.0014892
-0.02334 -0.0050789 0.086794 0.3592 -0.013831 0.013192 0.0014681 0.001292
0.0012315 -0.0010521 0.0011413 -3.6113e-05
0.0056454 0.0027729 -0.013769 0.013267 0.35492 0.056553 3.12e-05 -0.0020889
1.4451e-05 -0.00047108 0.00034745 0.00019412
-0.0021863 0.00056093 0.0014761 0.0013138 1.4783e-05 -0.0020148 0.177 0.2016
-0.017664 -0.0090555 -0.00049973 0.0009237
0.0024271 0.00087668 0.001224 -0.0010573 -2.4772e-05 -0.00051316 -0.017736 -0.0090508
0.10634 0.20966 -0.012285 -0.0079894
6.8284e-05 -0.0015264 0.0011768 -6.0467e-05 0.0002561 0.00022961 -0.00046737 0.00093109
-0.012247 -0.0080243 0.1405 0.30306
1460000000 0.28058 0.14735 -0.019333 0.0066992 0.0057833 -0.0022618 -0.0016605 0.001703
0.0021273 -0.00068328 -0.0004201 -0.00090773
-0.019294 0.0066895 0.12074 0.33624 -0.0050101 0.01539 0.0017658 9.4517e-05
0.00064286 -0.0014736 0.0010685 -0.00063765
0.0058081 -0.0022896 -0.0049282 0.015476 0.3604 0.0029831 -0.0016917 -0.0013843
0.00012039 -0.00018399 0.00066174 -0.00030893
-0.0016583 0.001689 0.0017869 6.0404e-05 -0.0016473 -0.0013931 0.20137 0.1714
-0.018139 -0.000918 -3.8583e-05 0.0026818
0.0020793 -0.00069429 0.00070441 -0.001455 0.00018706 -0.00020168 -0.018156 -0.00086445
0.13528 0.19403 -0.013166 -0.0014123
-0.00045216 -0.00091805 0.0010122 -0.00064672 0.00063477 -0.00036133 -5.6705e-06 0.0026769
-0.013138 -0.0014105 0.17282 0.28045
1520000000 0.29138 0.104 -0.012849 0.011422 0.0031202 -0.0045279 0.00013853 0.0027196
0.0019987 -0.0018462 -0.0011209 -4.129e-05
-0.012847 0.011394 0.15307 0.32024 0.0023587 0.012669 0.0016634 -0.00095218
-0.00019417 -0.001091 0.00025087 -0.0009523
0.0031866 -0.0045571 0.0024031 0.012679 0.35317 -0.052973 -0.0015138 -0.00014048
0.00047443 -0.00095419 -6.2468e-06 -0.00010736
0.00014166 0.0026639 0.0016318 -0.00094528 -0.0015389 -0.00010475 0.2216 0.13283
-0.015945 0.0056451 0.0023599 0.0021099
0.0019613 -0.0018874 -0.0002138 -0.0010587 0.00053565 -0.00091949 -0.015929 0.0056933
0.16231 0.17792 -0.012318 0.0036171
-0.0011843 -0.0001213 0.00021579 -0.0009727 8.6271e-06 -0.00018356 0.0024112 0.0021045
-0.012287 0.0036152 0.20417 0.25704
1580000000 0.29933 0.057773 -0.0059717 0.013483 -0.0011802 -0.0049916 0.0016289 0.0020247
-0.00024911 -0.0022371 -0.00023966 0.00033312
-0.0060251 0.013474 0.17915 0.29534 0.005608 0.0076092 0.00036731 -0.0017333
-0.00064818 -0.00087269 -0.00026735 -0.00079107
-0.0011816 -0.0049725 0.0056367 0.0075884 0.3331 -0.1098 -0.0016097 0.0011258
-0.00042057 -0.0011814 0.00010977 -0.00054999
0.0016798 0.0019206 0.00040152 -0.0017216 -0.0016058 0.0010317 0.23293 0.094627
-0.011054 0.010482 0.0028686 0.00031567
-0.00020489 -0.0022017 -0.00065558 -0.00082135 -0.00048906 -0.0012195 -0.011039 0.010514
0.18564 0.15889 -0.0091942 0.0090069
-0.00027801 0.00029751 -0.00019277 -0.00082254 0.00019969 -0.00054057 0.0028548 0.00030971
-0.0091875 0.0089913 0.23384 0.22959
1640000000 0.29985 0.015722 0.00031079 0.011346 -0.0030855 -0.002603 0.0028744 0.00081383
-0.00091715 -0.0016021 -0.00024958 0.00062837
0.00033321 0.011328 0.20795 0.26987 0.0058953 0.0029665 -0.00091337 -0.0016785
-0.00095025 -0.00019294 -0.00056451 -0.00054526
-0.0030563 -0.0025922 0.0059288 0.0029106 0.30484 -0.15928 -0.00035905 0.0016866
-0.0012632 -0.00082561 -0.00025355 -0.00029881
0.0028136 0.00079271 -0.00091068 -0.0016934 -0.00032114 0.0016795 0.24333 0.047182
-0.005669 0.011083 0.0028127 -0.0013282
-0.00096129 -0.0015511 -0.00094366 -0.00018776 -0.0013463 -0.00078959 -0.0056367 0.011126
0.20728 0.1327 -0.0037509 0.010726
-0.00026939 0.00070191 -0.00060798 -0.00055117 -0.00022777 -0.00024325 0.0028373 -0.0013197
-0.0037217 0.010711 0.25839 0.19712
1700000000 0.29056 -0.029304 0.003079 0.0078689 -0.0035706 0.000145 0.0029546 -0.0015757
-0.0021087 -0.00059317 0.00064387 0.00033537
0.0031052 0.0078572 0.22477 0.23872 0.0037776 0.00020893 -0.0015609 -0.00042903
-0.00057478 0.00017212 -0.00085683 -0.0003923
-0.0035682 0.00022667 0.0038042 0.00022048 0.2606 -0.19901 0.00082595 0.0014382
-0.0018786 7.1038e-05 -0.00060503 -0.00082313
0.0029108 -0.0015861 -0.0015527 -0.00042528 0.00076607 0.0014278 0.23882 0.00016074
-0.0022034 0.010469 0.0016146 -0.0026188
-0.0021756 -0.00057728 -0.00055897 0.00013914 -0.0018767 1.9595e-05 -0.0021843 0.010504
0.22235 0.11129 0.0012832 0.010492
0.00065657 0.00038098 -0.00087044 -0.00036781 -0.00066213 -0.00083296 0.0016064 -0.0026021
0.0012706 0.010497 0.27258 0.16206
1760000000 0.27746 -0.076877 0.0042843 0.0043959 -0.0024063 0.00090954 0.00087062 -0.0035847
-0.0014343 0.00084472 0.00044205 -0.00040396
0.0042912 0.0043905 0.2505 0.19926 0.0014696 -0.0015927 -0.0011918 0.00037778
-0.00089201 0.00079664 -0.0005895 0.00050292
-0.0023761 0.00093045 0.0014515 -0.0016008 0.21267 -0.23237 0.0012981 0.00070688
-0.0010704 0.0016716 -0.0014784 -0.00028922
0.00083723 -0.0035312 -0.0012396 0.00038112 0.0012554 0.00064728 0.23073 -0.04838
0.00087028 0.0087911 -0.0003225 -0.002894
-0.001427 0.00090648 -0.00091389 0.00078514 -0.0010733 0.0016761 0.00087344 0.0088205
0.23562 0.075697 0.0052735 0.0073841
0.0004603 -0.00043767 -0.00063897 0.00055182 -0.0014567 -0.00033237 -0.00036613 -0.0029068
0.0052619 0.0073419 0.28427 0.12418
1820000000 0.25141 -0.11352 0.0035762 0.0012845 -0.00014117 0.0026041 -0.0013774 -0.0028312
-0.00093663 0.0011228 2.2497e-05 -9.6583e-05
0.003605 0.0012615 0.25986 0.16919 -0.00048747 -0.00024318 -0.0011253 0.00103
7.8683e-06 0.0011067 -0.00049273 0.0005721
-0.00011926 0.0026167 -0.00053051 -0.00027014 0.16192 -0.24828 0.0012432 1.2216e-05
9.7544e-05 0.0022599 -0.0014285 0.00058201
-0.0014026 -0.0028342 -0.001112 0.0010958 0.0013137 4.6306e-05 0.20214 -0.094052
0.0019498 0.0066066 -0.0017635 -0.0018879
-0.00091118 0.0011291 -3.7576e-05 0.001133 7.6066e-05 0.0022916 0.0019657 0.0065771
0.25035 0.045623 0.0062154 0.0033301
-6.09e-05 -7.1271e-05 -0.00046552 0.00058344 -0.0012944 0.00060144 -0.0017567 -0.0018985
0.0061822 0.0033367 0.28542 0.086398
1880000000 0.21586 -0.15225 0.00096255 -0.00023987 -0.00044007 0.002199 -0.0030112 -0.0017251
-7.7834e-05 0.0016713 0.00016341 -0.00055241
0.00098472 -0.00025657 0.26417 0.12334 -0.0026442 0.0015433 -2.0224e-05 0.0016105
0.0004473 0.0010413 0.00021719 0.00091375
-0.00044021 0.0022574 -0.0026136 0.0015591 0.10874 -0.2579 0.0013776 -0.00092747
0.0017754 0.0016184 -0.00076548 0.0014479
-0.0030862 -0.0017326 -3.4585e-05 0.0015804 0.0013298 -0.00091629 0.16416 -0.13361
0.0024124 0.004366 -0.0025683 -2.0481e-05
-5.0198e-05 0.0016885 0.00046545 0.0010031 0.0016937 0.0016092 0.0024304 0.0043702
0.25141 0.013481 0.0058022 0.00058865
0.00025719 -0.00058315 0.00015981 0.00090104 -0.00078638 0.0015215 -0.0025434 -2.3411e-05
0.0058035 0.00059311 0.28364 0.052588
1940000000 0.17691 -0.17803 -0.0011834 -0.0010674 0.0014805 0.0022413 -0.0035331 0.0007299
0.0015432 0.00091666 -0.00051864 -0.00055563
-0.0011353 -0.0011296 0.26477 0.091327 -0.0014659 0.0038802 0.0010203 0.0010944
0.0015707 0.00054353 0.00088105 0.0003678
0.0014875 0.002104 -0.0014432 0.0039249 0.062932 -0.25193 0.00020919 -0.0016381
0.0022426 0.00019099 0.00060695 0.001697
-0.0034434 0.00075641 0.00099801 0.0010166 0.00021347 -0.0016376 0.11378 -0.16561
0.0013732 0.0028657 -0.0017536 0.0011662
0.0015526 0.00097624 0.0016028 0.00047707 0.002229 0.00016966 0.0014169 0.0028684
0.25198 -0.025765 0.0043284 -0.0028543
-0.00048931 -0.00052637 0.00086027 0.00032345 0.00059757 0.0016411 -0.0017825 0.001214
0.0043234 -0.0028075 0.27191 0.014926
2000000000 0.12988 -0.19228 -0.0045408 0.001218 0.0026531 0.001674 -0.0020732 0.0033844
0.001148 -1.4117e-05 -0.0004248 0.00044732
-0.0045325 0.0013054 0.25025 0.05585 -0.0011844 0.0057997 0.0014619 0.00024639
0.001236 -0.0010656 0.00054164 -3.552e-05
0.0026367 0.0016852 -0.0012075 0.0057914 0.017935 -0.23674 -0.00099448 -0.00098091
0.001666 -0.0011567 0.001791 0.00088329
-0.0022194 0.0035175 0.0014369 0.00028175 -0.00098799 -0.00091395 0.060404 -0.17732
-0.00045291 0.0023776 -0.00053205 0.0022111
0.00098069 -6.3757e-05 0.0011935 -0.0010088 0.001616 -0.0011192 -0.00050004 0.002399
0.24402 -0.059285 0.0004324 -0.0040564
