!Keysight Technologies,M9804A,MY58100912,A.14.10.03
!Date: Thursday, April 27, 2023 10:28:33
!Correction: S11(C  6-Port  ) 
!S12(C  6-Port  ) 
!S13(C  6-Port  ) 
!S14(C  6-Port  ) 
!S15(C  6-Port  ) 
!S16(C  6-Port  ) 
!S21(C  6-Port  ) 
!S22(C  6-Port  ) 
!S23(C  6-Port  ) 
!S24(C  6-Port  ) 
!S25(C  6-Port  ) 
!S26(C  6-Port  ) 
!S31(C  6-Port  ) 
!S32(C  6-Port  ) 
!S33(C  6-Port  ) 
!S34(C  6-Port  ) 
!S35(C  6-Port  ) 
!S36(C  6-Port  ) 
!S41(C  6-Port  ) 
!S42(C  6-Port  ) 
!S43(C  6-Port  ) 
!S44(C  6-Port  ) 
!S45(C  6-Port  ) 
!S46(C  6-Port  ) 
!S51(C  6-Port  ) 
!S52(C  6-Port  ) 
!S53(C  6-Port  ) 
!S54(C  6-Port  ) 
!S55(C  6-Port  ) 
!S56(C  6-Port  ) 
!S61(C  6-Port  ) 
!S62(C  6-Port  ) 
!S63(C  6-Port  ) 
!S64(C  6-Port  ) 
!S65(C  6-Port  ) 
!S66(C  6-Port  ) 
!S6P File: Measurement: :
# Hz S  RI   R 50
500000000 -0.33941 -0.021547 -0.010365 -0.0034477 -0.007751 0.012424 -0.0031764 0.012372
0.011613 0.0034412 -0.0028385 0.0085553
-0.010358 -0.0034407 -0.41916 -0.04048 0.0068543 -0.012041 0.0017676 0.012313
0.0073063 0.0022097 0.0019062 0.013605
-0.007724 0.012419 0.0068302 -0.012059 -0.26334 0.22 0.0069347 0.0033944
-0.00072003 0.0077103 0.0018447 0.011475
-0.0031687 0.012375 0.0017892 0.012331 0.0069432 0.0033935 -0.33225 0.057921
-0.019718 -0.0059596 0.015096 0.023926
0.011618 0.0033679 0.0072982 0.0021779 -0.00071091 0.007702 -0.019708 -0.0059424
-0.23381 -0.17065 -0.0254 0.0055835
-0.0028118 0.008579 0.0019373 0.01359 0.0018521 0.011466 0.015105 0.023908
-0.025403 0.0055848 -0.28312 -0.09082
560000000 -0.31244 0.1346 -0.025957 -0.060986 0.00095087 0.011503 0.0052644 0.0097365
0.0094449 0.0046912 0.0098279 0.0072057
-0.025924 -0.060933 -0.37394 0.11511 -0.04212 -0.034916 0.013403 0.0035697
-0.012545 -0.0038937 0.0041224 -0.0016022
0.0009904 0.0115 -0.042237 -0.034876 -0.18071 0.26502 -0.00033987 -0.0046226
0.018256 0.0038649 0.0068869 -0.0064427
0.0053194 0.0097157 0.013466 0.0035386 -0.00032751 -0.0046159 -0.30571 0.14587
0.0010577 -0.024427 0.0035313 -0.019011
0.0095139 0.0046505 -0.012555 -0.003902 0.018264 0.0038459 0.0010493 -0.024438
-0.28718 0.0011294 0.0050926 -0.047885
0.0098401 0.007214 0.0041125 -0.0015855 0.0068747 -0.0064391 0.00352 -0.019026
0.0050979 -0.047875 -0.32988 0.050268
620000000 -0.27128 0.11992 -0.023105 0.0072635 0.0038477 0.0079834 0.0071764 -0.0052211
0.011251 -0.0015955 0.00033548 -0.0022932
-0.023091 0.0072505 -0.40127 0.069555 -0.019223 0.00035893 -0.001369 -0.0017621
0.010685 -0.0067279 0.00098008 -0.0024873
0.0038824 0.0079713 -0.019243 0.0004063 -0.15039 0.27418 -0.0010273 -0.0048146
-0.0037985 -0.00257 0.0077623 -0.0030575
0.0071359 -0.0051874 -0.0014028 -0.0017672 -0.0010357 -0.0047995 -0.26376 0.15681
-0.040192 -0.017349 0.012837 0.023834
0.011288 -0.0016655 0.010703 -0.0067772 -0.0037822 -0.0025892 -0.040209 -0.017316
-0.20885 -0.037221 -0.039563 0.014684
0.00023259 -0.0022887 0.00092711 -0.0025436 0.0077612 -0.0030496 0.012855 0.023835
-0.039584 0.01466 -0.25464 0.021231
680000000 -0.22814 0.20224 -0.027664 -0.012747 0.0052519 0.0046378 0.0011879 -0.0071354
-0.0030214 -0.010567 0.0040275 -0.0066519
-0.027628 -0.012746 -0.38522 0.16501 -0.032221 9.7257e-05 -0.0015874 -0.0003067
-0.0024794 -0.0087453 -0.0017588 -0.0020663
0.005277 0.0046191 -0.032243 0.00017912 -0.099466 0.29335 -0.0009126 -0.00020524
-0.0018107 0.0005104 -0.0034837 -0.0086692
0.0011952 -0.0071444 -0.0015821 -0.00029668 -0.00091323 -0.00021369 -0.21726 0.20667
-0.025863 -0.0056238 -0.0094154 -0.0083758
-0.0030917 -0.010542 -0.0025298 -0.0087652 -0.0018277 0.00051421 -0.025876 -0.0056093
-0.2515 0.061422 -0.0066734 -0.007152
0.0040442 -0.006645 -0.001783 -0.0020546 -0.0035043 -0.0086683 -0.0094159 -0.0083841
-0.0066724 -0.0071518 -0.25494 0.11776
740000000 -0.18497 0.19656 -0.037323 0.026303 0.012053 -0.0057336 -0.00091826 -0.0041558
-0.0046922 -0.002848 -0.0057464 0.0029699
-0.037302 0.026258 -0.33326 0.18425 -0.033481 0.034706 -0.00090893 -0.0064028
-0.011552 0.0075501 -0.0016112 -0.0052028
0.012036 -0.0057571 -0.033413 0.034837 -0.065429 0.2922 -0.00168 0.0029849
-0.0028782 -0.0043287 -0.0018405 0.0010311
-0.00091011 -0.0041541 -0.00093604 -0.0064013 -0.0016781 0.0029872 -0.19991 0.21404
-0.042587 -0.0033276 0.022578 0.012216
-0.0047472 -0.0028379 -0.011511 0.0076183 -0.0029027 -0.0043235 -0.042611 -0.0032729
-0.15779 0.083902 -0.039141 0.0034646
-0.0057396 0.0030215 -0.0016679 -0.0052376 -0.0018371 0.0010152 0.0226 0.01221
-0.039134 0.0034285 -0.24291 0.126
800000000 -0.15204 0.23532 -0.021826 0.017373 0.0045029 -0.010136 -0.0045986 -0.0016625
-0.0033259 0.0027817 0.003819 0.00063632
-0.021815 0.01734 -0.3349 0.25339 -0.0070288 0.0337 -0.002441 0.0022651
-0.00041327 0.0033046 0.0012086 0.0051751
0.0044782 -0.010148 -0.0069435 0.033746 -0.023553 0.31486 0.00090902 0.0016598
0.00049185 0.0036618 -0.0016761 0.0010481
-0.0046169 -0.0016711 -0.0024391 0.0022679 0.00090664 0.0016511 -0.17009 0.24119
-0.027154 0.016296 0.013026 -0.0096814
-0.0032868 0.0028224 -0.00040229 0.0033143 0.00048476 0.0036588 -0.027139 0.01636
-0.19692 0.11031 -0.016484 0.018363
0.0038289 0.0005907 0.0012229 0.0051704 -0.0016635 0.0010443 0.013033 -0.0096968
-0.016487 0.018344 -0.23247 0.1744
860000000 -0.11665 0.2553 -0.016154 0.031002 -0.0038238 -0.0093117 -0.002196 0.0010886
0.0045698 0.0043071 -0.0029161 -0.0025191
-0.016151 0.030965 -0.28679 0.29483 0.0089123 0.033196 0.00019729 0.0022934
0.0045051 -0.00010321 0.0031442 0.00036436
-0.0038391 -0.0093088 0.0090215 0.033198 0.025861 0.32187 -0.00041544 -6.1852e-05
0.0026547 -0.0013247 0.0015373 0.0042399
-0.002188 0.0010989 0.00020376 0.0023027 -0.0004175 -6.3597e-05 -0.13254 0.25173
-0.015224 0.020344 -0.005811 -0.0090308
0.0045797 0.0042944 0.0045144 -0.00012164 0.0026525 -0.0013221 -0.0152 0.020383
-0.14456 0.15651 -0.02224 0.016286
-0.0029369 -0.0025127 0.0031296 0.00037347 0.0015408 0.004247 -0.0058104 -0.009022
-0.022249 0.016262 -0.18254 0.21456
920000000 -0.090716 0.27703 0.006114 0.037123 -0.0091847 -0.0036406 -0.0014375 0.0018681
0.0012902 0.0014238 0.0025832 -0.0017359
0.0060759 0.03709 -0.25686 0.31493 0.028064 0.020448 0.0017551 0.00082676
0.006773 -0.00071772 0.0035243 -0.0028358
-0.0091985 -0.0036234 0.028143 0.020397 0.072672 0.32113 0.0019364 -0.00017197
0.0014802 -0.00068331 0.00079816 -0.001045
-0.0014402 0.0018636 0.0017406 0.0008236 0.0019322 -0.00017606 -0.10736 0.26685
-0.0076979 0.030587 0.0023657 -0.0062379
0.0012867 0.0014134 0.0067692 -0.00073538 0.001472 -0.0006754 -0.0076519 0.030617
-0.13207 0.1617 -0.00072949 0.025899
0.0025753 -0.0017418 0.0035011 -0.0028582 0.00080285 -0.0010501 0.00236 -0.0062512
-0.00075122 0.025883 -0.184 0.22886
980000000 -0.04334 0.29534 0.018339 0.028691 -0.0082405 0.0048149 0.00206 0.0030615
0.0039725 -0.0016969 -0.0031063 -0.002074
0.018304 0.02866 -0.20455 0.34824 0.032272 0.0035163 0.0020644 -0.00030772
0.0014766 -0.0060212 -0.00045673 -0.0022683
-0.0082161 0.0048381 0.032297 0.0034146 0.11926 0.31372 0.00049523 -0.0013196
0.00017427 -0.0022139 0.0014382 -0.00019412
0.0020742 0.0030679 0.0020449 -0.00032192 0.0004978 -0.0013248 -0.068129 0.27717
0.010269 0.028684 -0.0083888 -0.0059849
0.0039777 -0.0017116 0.0014171 -0.0060256 0.00016801 -0.00221 0.010327 0.028681
-0.10007 0.18764 0.0061302 0.01839
-0.0031183 -0.0020639 -0.00048193 -0.0022752 0.0014474 -0.00019904 -0.0083901 -0.0059807
0.0061144 0.018391 -0.13948 0.26892
1040000000 -5.7309e-05 0.30211 0.032938 0.016217 -0.00091534 0.0066152 0.0024916 0.00053179
0.00024932 -0.0031727 -0.00060581 -0.0012187
0.032875 0.016212 -0.16818 0.36071 0.027792 -0.015343 0.0014483 -0.0017182
-0.0021804 -0.0023729 -0.0013045 -0.0026703
-0.00088003 0.006621 0.027745 -0.01544 0.16591 0.29849 -0.00056632 -0.0014197
-0.0015708 -0.00090932 -0.00040572 -0.0010693
0.0025037 0.00051383 0.0014256 -0.0017045 -0.00055883 -0.0014248 -0.039126 0.28562
0.020671 0.015875 -0.0024445 0.0013388
0.00024527 -0.0031877 -0.0022088 -0.0023438 -0.0015862 -0.0009007 0.020699 0.015849
-0.066867 0.1936 0.013361 0.01607
-0.00061695 -0.0011811 -0.0013421 -0.0026769 -0.00040452 -0.0010687 -0.002432 0.0013362
0.013352 0.016072 -0.11474 0.28823
1100000000 0.045133 0.30862 0.034473 -0.0054244 0.0028498 0.0035384 0.0021613 -0.0011882
-0.0019293 -0.0028898 -0.003599 0.00031858
0.03443 -0.0054042 -0.12513 0.37721 0.013729 -0.027231 -0.00012031 -0.0018343
-0.0031115 -0.00067558 -0.0032562 -0.00036433
0.0028631 0.0035248 0.01364 -0.02731 0.21173 0.27684 -0.0018362 0.00020872
-0.0017348 0.00060004 -0.00091231 -0.00036786
0.0021622 -0.0011931 -0.00013744 -0.001827 -0.0018381 0.00020995 0.0015804 0.28877
0.024671 0.0028086 -0.00246 0.00011537
-0.0019382 -0.0028799 -0.0031335 -0.00064714 -0.0017459 0.00060933 0.024689 0.0027673
-0.048971 0.20594 0.018256 0.006487
-0.0035874 0.00034424 -0.0032656 -0.00035319 -0.00092383 -0.00035859 -0.0024618 0.00011351
0.01825 0.0064947 -0.068534 0.31292
1160000000 0.09676 0.30255 0.022293 -0.021061 0.0024568 -0.00052018 -0.00016005 -0.002171
-0.0038776 -0.00055585 -0.00074913 0.0036582
0.022272 -0.021031 -0.080274 0.3808 -0.0044781 -0.027893 -0.0016461 -0.0015603
-0.0024313 0.0023654 -0.0012159 0.0015443
0.0024636 -0.00052474 -0.0046056 -0.027887 0.25467 0.24497 -0.00076735 0.0017725
-0.00051306 0.0018509 -0.00088845 3.7064e-05
-0.00015932 -0.0021639 -0.0016632 -0.001553 -0.00076174 0.0017743 0.041544 0.28387
0.020093 -0.012211 -0.0030465 0.0045399
-0.0038769 -0.0005267 -0.0024329 0.0023851 -0.00051711 0.0018594 0.020072 -0.012249
-0.015044 0.21309 0.016436 -0.0011011
-0.00073048 0.003673 -0.0012144 0.0015514 -0.00088372 4.0886e-05 -0.0030379 0.0045548
0.016433 -0.0010875 -0.021005 0.31388
1220000000 0.14106 0.28919 0.008894 -0.02919 -0.0015512 -0.00055485 2.8954e-05 -0.00090289
-0.0023297 0.0022845 0.0012691 0.0017565
0.0089005 -0.029157 -0.03657 0.39136 -0.016742 -0.01981 -0.0023979 0.00043485
2.2859e-05 0.0027991 -0.00060066 0.0018225
-0.001551 -0.00055686 -0.016845 -0.019767 0.29308 0.20473 0.00077676 0.0017396
0.00064035 0.0011776 0.00035883 0.00052436
3.1723e-05 -0.00090079 -0.0024042 0.00044232 0.0007729 0.0017459 0.080994 0.27288
0.0093484 -0.018141 0.0016572 0.0014094
-0.0023124 0.0022947 3.4513e-05 0.0027961 0.00063853 0.0011745 0.0093241 -0.018159
0.0084246 0.21968 0.011843 -0.012721
0.0012821 0.0017582 -0.00058232 0.0018234 0.00036715 0.00052586 0.0016502 0.0014107
0.01184 -0.012712 0.011547 0.32627
1280000000 0.18987 0.26604 -0.0085024 -0.026957 -0.0015291 0.0026651 -0.00096179 -0.0018798
-0.00059862 0.0028741 0.002276 0.00084736
-0.0084707 -0.026927 0.0090434 0.3821 -0.022845 -0.0077081 -0.00099834 0.001379
0.0015552 0.0016774 0.00064644 0.0017544
-0.0015283 0.0026677 -0.022897 -0.0076172 0.32307 0.16054 0.0015485 4.6549e-05
0.0010356 0.00025121 0.00028297 0.0001432
-0.00096323 -0.0018782 -0.00099436 0.0013813 0.0015499 4.1122e-05 0.11689 0.25484
-0.00019125 -0.019588 -0.00042354 0.00038265
-0.00059122 0.0028755 0.0015701 0.0016634 0.0010374 0.000248 -0.00022611 -0.019593
0.044833 0.2219 0.0016145 -0.01434
0.0022814 0.00082613 0.00064949 0.0017494 0.00028391 0.00014595 -0.00042222 0.00038473
0.0016139 -0.01435 0.057954 0.32516
1340000000 0.22637 0.23072 -0.017436 -0.017558 0.0011664 0.0041344 -0.0015875 -0.00084261
0.0014482 0.0025049 0.0014073 -0.0014516
-0.017397 -0.017546 0.048427 0.37287 -0.020524 0.0043986 -0.00018073 0.0020237
0.0018726 0.0008424 0.0013171 0.00065434
0.0011888 0.0041244 -0.020525 0.0044992 0.34483 0.11171 0.0012322 -0.00089112
0.00063412 -0.00050117 6.932e-05 0.00020485
-0.001584 -0.00083942 -0.00017489 0.0020342 0.0012312 -0.00089365 0.14864 0.23246
-0.0093442 -0.016548 0.00071994 0.000972
0.0014582 0.0024875 0.0018841 0.00082927 0.00062846 -0.00049581 -0.009383 -0.016539
0.074592 0.21499 -0.004365 -0.012534
0.0013914 -0.0014561 0.0013237 0.00063512 7.1855e-05 0.00020312 0.00071297 0.00097269
-0.0043506 -0.012533 0.09664 0.31725
1400000000 0.25777 0.19162 -0.022352 -0.0065472 0.005052 0.002669 -0.0020453 0.00047376
0.0022263 0.00072569 0.00015557 -0.0013475
-0.022321 -0.0065524 0.084827 0.35959 -0.013969 0.011972 0.0013082 0.0014088
0.0012202 -0.00070208 0.0011552 0.00010194
0.0050584 0.0026471 -0.013932 0.012056 0.35704 0.057559 0.00016253 -0.0018396
2.5362e-05 -0.00042761 0.00027508 0.00012231
-0.002043 0.000477 0.0013161 0.0014074 0.00016265 -0.0018396 0.17616 0.20244
-0.015092 -0.0098773 -0.00053574 0.00020642
0.0022323 0.0007072 0.0012254 -0.00071309 2.3142e-05 -0.00042867 -0.015123 -0.0098365
0.10604 0.20894 -0.010069 -0.0076905
0.00015826 -0.0013508 0.0011615 9.2452e-05 0.00027763 0.00012264 -0.0005367 0.00021071
-0.010056 -0.0076966 0.13947 0.30364
1460000000 0.27979 0.14739 -0.019342 0.0047509 0.0052509 -0.0020411 -0.0016203 0.0015351
0.0018355 -0.00055 -0.00032189 -0.00089602
-0.019328 0.0047456 0.11924 0.33767 -0.0058498 0.014501 0.0017912 0.00019631
0.00090313 -0.0012774 0.001119 -0.0005402
0.005252 -0.0020626 -0.0057952 0.014552 0.3624 0.0028243 -0.0014306 -0.00137
0.00012073 -0.00016816 0.00058467 -0.00034385
-0.0016175 0.0015418 0.00179 0.00018984 -0.001432 -0.001379 0.20095 0.17262
-0.016374 -0.0031773 -0.00045158 0.0021572
0.00183 -0.00056074 0.00089536 -0.0012843 0.00012062 -0.00017368 -0.016379 -0.0031424
0.13459 0.19311 -0.01121 -0.0022583
-0.00032689 -0.00089721 0.0011165 -0.00055552 0.0005881 -0.00035705 -0.00043827 0.0021451
-0.011197 -0.0022663 0.17208 0.2813
1520000000 0.29084 0.10469 -0.013833 0.0098703 0.0028082 -0.0040448 3.8447e-05 0.0025848
0.0019219 -0.0015314 -0.0010485 -0.00014803
-0.013831 0.0098499 0.15244 0.3221 0.0012866 0.012502 0.0017253 -0.00088367
6.8058e-05 -0.0012061 0.00028745 -0.00096944
0.0027899 -0.0040546 0.0013514 0.012507 0.35458 -0.054267 -0.001425 -0.00036757
0.00047016 -0.00088157 -4.7139e-05 -0.0001009
4.864e-05 0.002587 0.0017226 -0.00089108 -0.0014258 -0.00036392 0.22183 0.13421
-0.015792 0.002768 0.0017405 0.0018763
0.0019088 -0.0015448 5.5911e-05 -0.0011968 0.00046842 -0.00088336 -0.015802 0.0028065
0.16109 0.17732 -0.011066 0.001825
-0.0010614 -0.00013802 0.00027823 -0.00096845 -5.1823e-05 -0.00010597 0.0017484 0.00187
-0.011062 0.0018195 0.20421 0.25812
1580000000 0.29909 0.058714 -0.0077 0.01264 -0.0011293 -0.0044615 0.0014457 0.0019589
-0.00013054 -0.0020003 -0.00034424 0.00034185
-0.0077005 0.012619 0.17953 0.29733 0.004723 0.0080105 0.0004424 -0.0017224
-0.0006012 -0.0011284 -0.00022128 -0.00082214
-0.0011479 -0.0044593 0.0047716 0.0079894 0.33348 -0.11128 -0.0016765 0.00093133
-0.00023836 -0.0011079 0.000111 -0.00047843
0.0014553 0.0019541 0.00043092 -0.0017321 -0.0016774 0.00092594 0.23395 0.095847
-0.012593 0.0080372 0.0023088 0.00054508
-0.00014571 -0.0020019 -0.00061908 -0.0011245 -0.00023205 -0.0011053 -0.012584 0.0080794
0.18407 0.15859 -0.0089695 0.007044
-0.00034357 0.00033935 -0.00022548 -0.00081731 0.00010614 -0.00048355 0.0023079 0.00054156
-0.0089671 0.0070429 0.23429 0.23027
1640000000 0.30051 0.016664 -0.001493 0.011627 -0.0026681 -0.0022348 0.0027429 0.00097587
-0.00058507 -0.0015306 -0.00028089 0.000675
-0.0015028 0.011608 0.20919 0.27139 0.0054701 0.0036499 -0.00084128 -0.0017251
-0.001136 -0.00033449 -0.0005064 -0.00054736
-0.0026878 -0.0022227 0.0055025 0.0036218 0.30449 -0.16054 -0.00051854 0.0016239
-0.0010896 -0.00080861 -0.00013932 -0.00013002
0.0027439 0.0009635 -0.00084808 -0.0017233 -0.00052756 0.0016218 0.24501 0.047714
-0.0082538 0.010019 0.0024866 -0.0010071
-0.00060338 -0.001523 -0.001144 -0.00032746 -0.0010975 -0.00080533 -0.00823 0.01005
0.20549 0.13314 -0.0045203 0.0088666
-0.00027775 0.00067447 -0.00052361 -0.00054068 -0.00013856 -0.00012892 0.0024886 -0.0010103
-0.0045178 0.0088653 0.25901 0.19732
1700000000 0.29174 -0.028915 0.0017215 0.0091009 -0.0032214 0.00018811 0.0029847 -0.0012996
-0.00195 -0.00075995 0.00063581 0.00041487
0.0017163 0.0091008 0.22652 0.23948 0.0037603 0.00089316 -0.0015575 -0.00049028
-0.00081713 0.00026895 -0.00080835 -0.00039537
-0.0032329 0.00019652 0.0037688 0.00086889 0.2603 -0.2001 0.00066576 0.0015172
-0.0017598 -0.00017476 -0.0004096 -0.00072872
0.0029828 -0.001314 -0.0015534 -0.00047095 0.00066407 0.0015263 0.24064 -0.00030167
-0.0047601 0.011051 0.0014681 -0.0021906
-0.0019583 -0.00074963 -0.0008185 0.00027961 -0.0017528 -0.00017448 -0.0047333 0.011062
0.22086 0.1124 -6.5602e-05 0.0093346
0.00063601 0.00040891 -0.00081415 -0.00038811 -0.00041189 -0.00072853 0.0014646 -0.0021955
-5.9466e-05 0.0093351 0.27299 0.16183
1760000000 0.27862 -0.077433 0.0039373 0.0060768 -0.0020743 0.00087003 0.0010764 -0.0034541
-0.0015002 0.00058433 0.0005306 -0.00040125
0.0039312 0.0060706 0.25239 0.19909 0.0017396 -0.0010434 -0.0012202 0.00031793
-0.00093438 0.0010119 -0.00058836 0.00047343
-0.0020657 0.00088277 0.0017367 -0.0010529 0.21157 -0.23321 0.0012943 0.00076546
-0.001128 0.0015536 -0.0012393 -0.00035435
0.0010555 -0.0034537 -0.0012228 0.00032416 0.0012925 0.00076601 0.23205 -0.049913
-0.00070909 0.010486 -0.00032752 -0.0024662
-0.0015002 0.00059201 -0.00092383 0.0010149 -0.0011175 0.0015457 -0.0006859 0.010491
0.2346 0.077182 0.0035493 0.0069386
0.00052764 -0.00039869 -0.00058718 0.00047787 -0.0012326 -0.00036244 -0.00032975 -0.002461
0.0035465 0.0069357 0.28441 0.12366
1820000000 0.2522 -0.11476 0.0042177 0.0026975 7.6183e-05 0.0023854 -0.001164 -0.0029345
-0.001188 0.0010439 8.5628e-05 -0.00013858
0.0042145 0.0026912 0.26137 0.16826 -8.9028e-05 0.00011692 -0.0011404 0.0010289
0.00017715 0.0012848 -0.00047468 0.00053467
7.6604e-05 0.0023762 -9.5102e-05 0.00012159 0.16041 -0.24822 0.0014157 7.1313e-05
-8.5996e-05 0.0022393 -0.0013661 0.00036806
-0.0011875 -0.0029183 -0.0011296 0.0010331 0.0014052 7.1799e-05 0.20244 -0.09617
0.0015488 0.0085561 -0.0015733 -0.0014559
-0.0011831 0.0010556 0.00019411 0.0013012 -7.1274e-05 0.0022394 0.0015693 0.0085617
0.25 0.047438 0.0046269 0.0036428
8.3685e-05 -0.00014125 -0.00047109 0.0005393 -0.0013678 0.00036575 -0.0015806 -0.0014556
0.0046257 0.0036397 0.28502 0.085913
1880000000 0.21573 -0.15373 0.0020477 0.00047525 -0.00040461 0.0019284 -0.0029156 -0.0019006
-0.00028391 0.0018484 0.00019088 -0.00055208
0.0020484 0.00047777 0.26501 0.12188 -0.0021982 0.0016728 -5.094e-05 0.0016214
0.00068766 0.00096316 0.00015876 0.00092856
-0.00039729 0.0019344 -0.0021912 0.0016923 0.10766 -0.25726 0.0014191 -0.0010459
0.0016121 0.0017035 -0.0008331 0.0012731
-0.0029308 -0.0018781 -4.5075e-05 0.0016184 0.001426 -0.0010543 0.16322 -0.13559
0.0029632 0.0059577 -0.0022073 0.00024804
-0.00027273 0.0018471 0.00070476 0.00095183 0.0016125 0.0017025 0.0029814 0.0059595
0.25177 0.015167 0.0045253 0.0016249
0.00019098 -0.00056039 0.00016668 0.00093038 -0.00083856 0.0012912 -0.0021996 0.00025459
0.0045267 0.0016216 0.28309 0.052409
1940000000 0.17587 -0.17908 -6.359e-05 -0.0010737 0.0013905 0.0017432 -0.0035582 0.00059128
0.0016065 0.0010747 -0.00058931 -0.00058109
-6.5377e-05 -0.0010696 0.26489 0.089771 -0.00094543 0.0037922 0.0010081 0.0011048
0.0016829 0.000265 0.0007856 0.00032479
0.0013972 0.0017301 -0.0009261 0.0038087 0.062249 -0.25068 8.5911e-05 -0.0016938
0.0021718 0.00026755 0.00026171 0.0014878
-0.003559 0.00061035 0.0010146 0.001096 8.7749e-05 -0.0016876 0.1119 -0.16663
0.0023834 0.0038774 -0.0013032 0.0011764
0.0016086 0.0010687 0.0016866 0.00025218 0.0021736 0.00026402 0.0023858 0.0038741
0.25284 -0.024498 0.0036162 -0.0014522
-0.00059846 -0.00058695 0.00079168 0.00031606 0.00026817 0.0014905 -0.0013085 0.0011881
0.0036123 -0.0014543 0.2712 0.015046
2000000000 0.12867 -0.19271 -0.0037393 0.00095444 0.0023466 0.001593 -0.002228 0.0032919
0.0013134 1.2482e-05 -0.00060088 0.00033479
-0.0037354 0.00095029 0.24964 0.05449 -0.00080443 0.0055792 0.0014684 0.00019572
0.0010954 -0.0013175 0.000498 9.672e-05
0.0023567 0.0015729 -0.00076957 0.0055889 0.018099 -0.23551 -0.00099574 -0.00098325
0.0017528 -0.0010592 0.0015891 0.0011975
-0.0022092 0.0033029 0.0014744 0.00018795 -0.00099706 -0.00098577 0.05824 -0.17741
0.00063023 0.0027156 -1.8285e-05 0.0020245
0.001321 4.0873e-06 0.0010847 -0.0013304 0.0017505 -0.0010723 0.0006425 0.0027017
0.2454 -0.058588 0.00042959 -0.0024043
