!Keysight Technologies,M9804A,MY58100912,A.14.10.03
!Date: Thursday, April 27, 2023 10:28:33
!Correction: S11(C  6-Port  ) 
!S12(C  6-Port  ) 
!S13(C  6-Port  ) 
!S14(C  6-Port  ) 
!S15(C  6-Port  ) 
!S16(C  6-Port  ) 
!S21(C  6-Port  ) 
!S22(C  6-Port  ) 
!S23(C  6-Port  ) 
!S24(C  6-Port  ) 
!S25(C  6-Port  ) 
!S26(C  6-Port  ) 
!S31(C  6-Port  ) 
!S32(C  6-Port  ) 
!S33(C  6-Port  ) 
!S34(C  6-Port  ) 
!S35(C  6-Port  ) 
!S36(C  6-Port  ) 
!S41(C  6-Port  ) 
!S42(C  6-Port  ) 
!S43(C  6-Port  ) 
!S44(C  6-Port  ) 
!S45(C  6-Port  ) 
!S46(C  6-Port  ) 
!S51(C  6-Port  ) 
!S52(C  6-Port  ) 
!S53(C  6-Port  ) 
!S54(C  6-Port  ) 
!S55(C  6-Port  ) 
!S56(C  6-Port  ) 
!S61(C  6-Port  ) 
!S62(C  6-Port  ) 
!S63(C  6-Port  ) 
!S64(C  6-Port  ) 
!S65(C  6-Port  ) 
!S66(C  6-Port  ) 
!S6P File: Measurement: :
# Hz S  RI   R 50
500000000 -0.33943 -0.021559 -0.010366 -0.0034399 -0.0077398 0.012425 -0.0031769 0.012349
0.011616 0.0034344 -0.0028329 0.0085543
-0.010362 -0.0034474 -0.41913 -0.040462 0.0068468 -0.012039 0.0017636 0.012325
0.0072977 0.0022083 0.0019105 0.013592
-0.0077193 0.012424 0.0068224 -0.012054 -0.26333 0.22001 0.0069408 0.0033954
-0.00072387 0.0077176 0.001834 0.011468
-0.0031717 0.012367 0.0017938 0.012333 0.0069493 0.0033983 -0.33229 0.05794
-0.019708 -0.0059589 0.015061 0.023915
0.011611 0.0034036 0.0072999 0.0021915 -0.00072197 0.0077193 -0.019706 -0.0059529
-0.23383 -0.17062 -0.025399 0.00559
-0.0028201 0.0085498 0.0019403 0.013606 0.0018403 0.011468 0.015058 0.023917
-0.025402 0.0055824 -0.28318 -0.090777
560000000 -0.31242 0.13457 -0.02604 -0.060973 0.00095149 0.011511 0.005266 0.0097382
0.0094365 0.0047137 0.0098158 0.0071686
-0.02598 -0.060911 -0.37392 0.11514 -0.042115 -0.034924 0.013402 0.0035879
-0.012507 -0.0038988 0.0040938 -0.001595
0.00098371 0.011497 -0.042244 -0.034858 -0.18074 0.26504 -0.00034578 -0.0046206
0.018259 0.0038607 0.006882 -0.0064476
0.0052639 0.0097238 0.013435 0.003562 -0.00034297 -0.0046174 -0.30568 0.14586
0.0010732 -0.02443 0.0035327 -0.019
0.0094516 0.0046883 -0.012557 -0.0038535 0.018267 0.0038547 0.0010617 -0.024421
-0.28721 0.0011539 0.0051014 -0.04787
0.0098534 0.0071708 0.0040811 -0.0016314 0.0068939 -0.0064387 0.0035211 -0.019014
0.0051118 -0.047882 -0.32991 0.05028
620000000 -0.27128 0.11994 -0.023135 0.0072793 0.0038548 0.0079787 0.007173 -0.0052303
0.01124 -0.0015907 0.00033875 -0.0023029
-0.023108 0.0072629 -0.40127 0.069586 -0.01921 0.00034116 -0.0013651 -0.0017578
0.010665 -0.0067309 0.0009758 -0.0024764
0.0038907 0.0079724 -0.019231 0.00039148 -0.15036 0.2742 -0.0010316 -0.0048175
-0.0037913 -0.0025735 0.0077662 -0.0030453
0.0071716 -0.0052483 -0.0013676 -0.0017596 -0.0010225 -0.0048154 -0.26373 0.1568
-0.040201 -0.017325 0.012861 0.023818
0.011249 -0.0016178 0.010656 -0.0067685 -0.0037941 -0.0025748 -0.040217 -0.017294
-0.20881 -0.037232 -0.03959 0.014704
0.00034346 -0.002303 0.00098366 -0.0025014 0.0077723 -0.0030556 0.01286 0.023818
-0.0396 0.014686 -0.25461 0.021288
680000000 -0.22815 0.20225 -0.027655 -0.012735 0.0052515 0.0046199 0.0011791 -0.0071396
-0.0030293 -0.010558 0.0040186 -0.0066419
-0.027616 -0.012728 -0.38522 0.16503 -0.032221 9.3051e-05 -0.0015898 -0.00029958
-0.0024853 -0.008748 -0.0017534 -0.0020661
0.0052682 0.00462 -0.032245 0.00016705 -0.099456 0.29335 -0.00091513 -0.00021212
-0.0018172 0.00051027 -0.0034949 -0.0086798
0.0011594 -0.0071441 -0.0015882 -0.00029803 -0.00091191 -0.00021043 -0.21725 0.20664
-0.025863 -0.0056236 -0.0094133 -0.0083799
-0.0030667 -0.010566 -0.0025049 -0.0087531 -0.0018177 0.0005151 -0.025878 -0.0055986
-0.25148 0.061484 -0.0066775 -0.0071465
0.0040041 -0.0066709 -0.0017588 -0.0020605 -0.0034889 -0.0086772 -0.0094308 -0.0083795
-0.0066678 -0.0071413 -0.25491 0.11782
740000000 -0.18494 0.19661 -0.03737 0.02631 0.01204 -0.005737 -0.00091475 -0.0041497
-0.0046921 -0.0028459 -0.005757 0.0029766
-0.037329 0.02627 -0.33322 0.18417 -0.033452 0.034708 -0.00091028 -0.0063824
-0.011564 0.0075462 -0.0016315 -0.005214
0.012017 -0.0057504 -0.033408 0.034829 -0.065425 0.29222 -0.0016825 0.0029832
-0.002875 -0.0043324 -0.0018365 0.0010196
-0.00091966 -0.0041419 -0.00092192 -0.0063943 -0.0016824 0.0029846 -0.19989 0.21402
-0.042578 -0.0033241 0.022569 0.012206
-0.0047012 -0.0028165 -0.011549 0.0075947 -0.0028805 -0.0043383 -0.042612 -0.0032821
-0.15778 0.083939 -0.03912 0.0034842
-0.0057583 0.0029866 -0.0016356 -0.0052159 -0.0018381 0.0010378 0.022572 0.012197
-0.039126 0.003441 -0.24291 0.12604
800000000 -0.15205 0.23535 -0.021831 0.017352 0.0044917 -0.010127 -0.0045827 -0.0016647
-0.0033297 0.0027723 0.0038136 0.00063714
-0.021827 0.017351 -0.33487 0.25338 -0.0070348 0.033696 -0.0024456 0.0022639
-0.00040539 0.0033083 0.0012156 0.0051646
0.004467 -0.01014 -0.0069395 0.033747 -0.023529 0.31487 0.00090811 0.0016655
0.00048309 0.0036567 -0.0016768 0.0010422
-0.004588 -0.0016736 -0.0024355 0.0022696 0.00090855 0.0016668 -0.17007 0.24118
-0.027161 0.016308 0.01302 -0.009694
-0.0033261 0.0027936 -0.00040014 0.003318 0.00049208 0.0036637 -0.027148 0.016371
-0.19692 0.11032 -0.016476 0.018364
0.0038435 0.00061875 0.0012432 0.0051687 -0.0016754 0.0010495 0.013033 -0.0097072
-0.016494 0.018355 -0.23244 0.17444
860000000 -0.11665 0.25529 -0.016148 0.030999 -0.0038258 -0.0093162 -0.0021886 0.0010843
0.00457 0.0043057 -0.0029299 -0.0025173
-0.016167 0.03098 -0.28679 0.29483 0.0088947 0.033194 0.00018877 0.0022956
0.0045052 -0.00010428 0.0031293 0.00036406
-0.0038467 -0.0093063 0.0090093 0.033197 0.025851 0.32187 -0.00041308 -6.1857e-05
0.0026478 -0.0013166 0.0015366 0.0042473
-0.0022017 0.0010861 0.00020015 0.0022964 -0.00041605 -6.1516e-05 -0.13253 0.25172
-0.015213 0.020345 -0.0058101 -0.0090078
0.0045834 0.0042892 0.004516 -0.00011781 0.0026524 -0.0013267 -0.015194 0.020379
-0.14454 0.15655 -0.022246 0.016292
-0.0029283 -0.0025106 0.0031335 0.00034884 0.0015439 0.0042395 -0.0058203 -0.0090062
-0.022256 0.016271 -0.18258 0.21454
920000000 -0.090699 0.27704 0.0061374 0.037129 -0.0091822 -0.003642 -0.0014246 0.0018552
0.0012833 0.0014283 0.0025735 -0.0017351
0.006102 0.037113 -0.25684 0.31491 0.028053 0.020453 0.0017352 0.0008253
0.0067669 -0.00071397 0.003526 -0.0028322
-0.0091923 -0.0036192 0.028145 0.020394 0.07268 0.32115 0.0019344 -0.00017173
0.0014763 -0.00067529 0.00080115 -0.0010445
-0.0014333 0.0018621 0.0017454 0.0008256 0.0019351 -0.00018236 -0.10734 0.26684
-0.007708 0.030588 0.0023666 -0.0062414
0.0012812 0.001421 0.0067768 -0.00073862 0.001464 -0.00067764 -0.0076451 0.030611
-0.13207 0.16167 -0.00073542 0.025889
0.002585 -0.0017414 0.0035054 -0.0028583 0.00079961 -0.0010498 0.0023568 -0.0062512
-0.00075189 0.025887 -0.18399 0.22889
980000000 -0.043323 0.29532 0.01836 0.028698 -0.0082314 0.0048261 0.0020666 0.0030678
0.0039708 -0.0016929 -0.0031043 -0.0020792
0.018313 0.028697 -0.20457 0.3482 0.032248 0.0034984 0.0020507 -0.00032534
0.0014745 -0.0060191 -0.00046304 -0.002267
-0.0082208 0.0048329 0.032295 0.0034092 0.11929 0.31372 0.00050635 -0.0013179
0.00017295 -0.0022144 0.0014443 -0.00019344
0.0020746 0.0030611 0.002054 -0.00031282 0.00049736 -0.0013211 -0.06812 0.27716
0.010271 0.028688 -0.0083828 -0.0059841
0.0039702 -0.0017174 0.0014381 -0.0060229 0.00017525 -0.0022156 0.010328 0.028684
-0.10006 0.18764 0.0061289 0.018395
-0.0031084 -0.0020648 -0.00048271 -0.0022876 0.0014408 -0.00019518 -0.0083883 -0.0059731
0.0061215 0.018386 -0.13945 0.26895
1040000000 -4.1031e-05 0.30212 0.032947 0.016223 -0.00089699 0.0066159 0.0025004 0.00053843
0.00024457 -0.0031698 -0.00061244 -0.0012191
0.032899 0.016241 -0.16821 0.3607 0.027759 -0.015343 0.0013996 -0.0017219
-0.0021813 -0.0023727 -0.0013032 -0.0026763
-0.00088765 0.0066076 0.027749 -0.015437 0.16591 0.2985 -0.00056372 -0.0014206
-0.001583 -0.00091048 -0.00040327 -0.0010756
0.0024976 0.00052603 0.0014203 -0.0017163 -0.00056246 -0.0014253 -0.039139 0.2856
0.020664 0.015868 -0.0024403 0.0013296
0.00022835 -0.0031902 -0.002198 -0.0023534 -0.0015725 -0.00090288 0.020715 0.01584
-0.066841 0.19358 0.013357 0.016066
-0.00060579 -0.0012102 -0.0013371 -0.0026825 -0.00040842 -0.0010769 -0.0024441 0.0013252
0.013351 0.016058 -0.11474 0.28822
1100000000 0.045129 0.30862 0.034479 -0.0054322 0.0028619 0.0035462 0.0021689 -0.001182
-0.0019214 -0.0028936 -0.0035937 0.00031972
0.034445 -0.0054034 -0.12514 0.37719 0.01372 -0.027235 -0.00013253 -0.0018355
-0.0031077 -0.00068405 -0.0032544 -0.00036007
0.0028661 0.0035261 0.013643 -0.027304 0.21174 0.27685 -0.0018352 0.00020494
-0.0017379 0.00060048 -0.00091656 -0.0003697
0.0021648 -0.0011899 -0.00014124 -0.0018354 -0.0018317 0.00020813 0.0015897 0.28876
0.024671 0.0028095 -0.0024568 0.00011441
-0.001934 -0.0028909 -0.0031166 -0.00066186 -0.0017348 0.00060225 0.024685 0.0027699
-0.049 0.2059 0.018255 0.006485
-0.0035977 0.00033918 -0.0032636 -0.00034923 -0.00091852 -0.00036823 -0.002458 0.00010885
0.018245 0.006495 -0.068545 0.3129
1160000000 0.096761 0.30252 0.022291 -0.021057 0.0024598 -0.0005075 -0.00015816 -0.0021554
-0.003876 -0.00054807 -0.00075246 0.0036557
0.022293 -0.021018 -0.080293 0.3808 -0.0044957 -0.027897 -0.0016704 -0.0015687
-0.0024314 0.0023655 -0.00122 0.0015445
0.002459 -0.00052092 -0.0046092 -0.027886 0.25468 0.24496 -0.00077351 0.0017774
-0.00050713 0.0018511 -0.00089257 3.2664e-05
-0.00015906 -0.0021644 -0.0016643 -0.0015485 -0.00076569 0.0017815 0.041546 0.28387
0.020088 -0.01222 -0.0030483 0.0045421
-0.0038741 -0.00053433 -0.0024216 0.0023877 -0.00050167 0.0018609 0.020088 -0.012249
-0.015024 0.21308 0.016428 -0.0011016
-0.00073115 0.0036741 -0.0012317 0.0015471 -0.00089092 3.5048e-05 -0.0030351 0.0045388
0.016426 -0.0010991 -0.021003 0.31388
1220000000 0.14108 0.28918 0.0088913 -0.029185 -0.0015531 -0.00054617 2.4457e-05 -0.00089483
-0.0023303 0.0022824 0.0012679 0.001744
0.0088981 -0.029148 -0.036585 0.39134 -0.016745 -0.019811 -0.0024046 0.00042792
3.1745e-05 0.0027967 -0.00060297 0.0018225
-0.0015504 -0.00054903 -0.016846 -0.019753 0.29309 0.20473 0.00076965 0.0017438
0.00064391 0.001178 0.00035771 0.00051977
2.9166e-05 -0.00090025 -0.0024045 0.00044552 0.00076977 0.0017439 0.080988 0.27286
0.0093486 -0.018145 0.0016524 0.0014117
-0.0023071 0.002289 4.0311e-05 0.0028001 0.00063749 0.0011876 0.0093248 -0.018158
0.0084541 0.21966 0.011845 -0.012716
0.0012797 0.0017502 -0.00059628 0.0018298 0.00036105 0.00052181 0.0016566 0.0014115
0.011835 -0.012709 0.0116 0.32628
1280000000 0.18988 0.26607 -0.0084922 -0.026951 -0.0015425 0.0026608 -0.00095897 -0.0018873
-0.00060057 0.0028715 0.0022706 0.00084936
-0.0084687 -0.026933 0.0090388 0.38209 -0.022839 -0.007701 -0.00099127 0.0013718
0.0015559 0.0016722 0.00064369 0.0017583
-0.0015209 0.0026709 -0.022904 -0.0076137 0.32309 0.16052 0.0015506 4.2767e-05
0.0010352 0.00024783 0.00028447 0.0001469
-0.00096459 -0.0018822 -0.00098551 0.0013762 0.001544 4.114e-05 0.1169 0.25485
-0.00019381 -0.019589 -0.00042394 0.00038707
-0.00058589 0.00287 0.0015784 0.0016704 0.001036 0.00024026 -0.00022778 -0.019593
0.044837 0.22191 0.0016026 -0.014336
0.0022801 0.00083617 0.00065184 0.0017507 0.00028513 0.00014595 -0.00042442 0.00038921
0.0016115 -0.014345 0.058012 0.32517
1340000000 0.22639 0.23072 -0.017438 -0.01754 0.0011749 0.0041262 -0.0015864 -0.00084994
0.0014581 0.0025059 0.0013998 -0.0014437
-0.017402 -0.017536 0.048418 0.37284 -0.020531 0.0044129 -0.00018411 0.0020362
0.0018852 0.00083577 0.001316 0.0006501
0.0011811 0.0041217 -0.020524 0.0045025 0.34484 0.1117 0.0012364 -0.0008872
0.00063512 -0.00049378 6.4648e-05 0.00020675
-0.0015892 -0.00083895 -0.00017792 0.0020272 0.0012398 -0.00088562 0.14863 0.23247
-0.0093446 -0.016555 0.00071895 0.00097065
0.001469 0.0024974 0.0018867 0.00083155 0.00063516 -0.00049303 -0.0093813 -0.016542
0.074647 0.21498 -0.0043657 -0.012529
0.0013951 -0.0014534 0.0013173 0.00064315 6.5892e-05 0.00020731 0.0007139 0.00097119
-0.004353 -0.012528 0.09669 0.31724
1400000000 0.2578 0.19162 -0.022356 -0.0065292 0.005059 0.0026604 -0.0020411 0.00046979
0.0022288 0.00073114 0.00014957 -0.0013491
-0.022321 -0.0065458 0.08481 0.35958 -0.013962 0.01197 0.0012986 0.0014112
0.0012192 -0.00070102 0.0011613 9.678e-05
0.005072 0.0026448 -0.013928 0.012049 0.35705 0.057563 0.00016552 -0.0018434
2.6305e-05 -0.00042638 0.00027296 0.00012214
-0.0020409 0.00047581 0.0013151 0.0014035 0.0001681 -0.0018343 0.17617 0.20244
-0.01509 -0.0098723 -0.00053275 0.00020684
0.0022357 0.00071145 0.001222 -0.00070365 2.9789e-05 -0.00042833 -0.01512 -0.009839
0.10604 0.20892 -0.010065 -0.007694
0.00015355 -0.0013468 0.0011593 8.7468e-05 0.00027557 0.00011918 -0.0005335 0.00020598
-0.010059 -0.0076991 0.13948 0.30364
1460000000 0.2798 0.14739 -0.019347 0.0047625 0.0052591 -0.0020467 -0.0016245 0.0015318
0.0018284 -0.00054543 -0.00032654 -0.00089873
-0.01933 0.0047456 0.11924 0.33767 -0.0058545 0.014501 0.001788 0.00019389
0.00090439 -0.00128 0.0011154 -0.00054426
0.005249 -0.0020648 -0.00579 0.014541 0.36239 0.0028101 -0.0014361 -0.0013771
0.00011908 -0.00017052 0.00058053 -0.0003415
-0.0016184 0.0015381 0.0017929 0.00018346 -0.0014306 -0.0013664 0.20097 0.17261
-0.016373 -0.0031732 -0.00045692 0.0021499
0.0018345 -0.00055743 0.00089483 -0.0012898 0.00012459 -0.00017187 -0.016386 -0.0031394
0.1346 0.19311 -0.011204 -0.002248
-0.00033067 -0.00090568 0.001112 -0.0005521 0.00057866 -0.0003528 -0.00045806 0.0021549
-0.011211 -0.0022425 0.1721 0.28128
1520000000 0.29084 0.1047 -0.01383 0.009874 0.0028045 -0.0040404 4.9679e-05 0.0025874
0.001925 -0.0015367 -0.0010507 -0.00014796
-0.013829 0.0098579 0.15242 0.32209 0.0012872 0.0125 0.0017285 -0.00088156
6.3328e-05 -0.0011955 0.00027972 -0.00096578
0.0027906 -0.0040538 0.0013473 0.012505 0.35458 -0.054251 -0.0014235 -0.00036628
0.00046866 -0.00088217 -4.8378e-05 -0.00010035
4.6747e-05 0.0025829 0.0017189 -0.00089305 -0.00142 -0.00036482 0.22182 0.13421
-0.015797 0.0027662 0.0017426 0.0018685
0.0019068 -0.0015477 4.618e-05 -0.0011944 0.00046831 -0.00088401 -0.015799 0.0028068
0.16111 0.17728 -0.011063 0.0018245
-0.0010557 -0.00014079 0.00027648 -0.00097641 -4.7082e-05 -0.00010179 0.0017461 0.0018651
-0.01107 0.0018238 0.20422 0.25812
1580000000 0.29913 0.05869 -0.007693 0.012633 -0.0011276 -0.004463 0.001446 0.0019616
-0.00013484 -0.0019979 -0.0003424 0.00033748
-0.0076951 0.012623 0.17951 0.29732 0.0047323 0.0080048 0.00044732 -0.0017257
-0.0005988 -0.001131 -0.00022157 -0.00082392
-0.0011544 -0.0044588 0.0047784 0.0079869 0.33349 -0.11131 -0.0016748 0.00092967
-0.00023038 -0.0010941 0.00011412 -0.00047992
0.0014536 0.0019553 0.00043612 -0.0017311 -0.0016712 0.00093239 0.23395 0.095836
-0.012594 0.0080371 0.0023062 0.00054474
-0.00014638 -0.002 -0.00060546 -0.0011262 -0.00023904 -0.0011043 -0.01258 0.0080701
0.18405 0.15859 -0.0089749 0.0070444
-0.00034005 0.00034221 -0.00023103 -0.00082108 0.00011248 -0.0004805 0.002313 0.00053073
-0.0089769 0.0070392 0.23428 0.23027
1640000000 0.30052 0.016636 -0.0014851 0.011616 -0.0026705 -0.0022353 0.0027477 0.00097675
-0.00058688 -0.0015285 -0.0002838 0.00067487
-0.0014949 0.011607 0.20917 0.27138 0.005475 0.003648 -0.00083094 -0.0017266
-0.0011399 -0.00033767 -0.00051737 -0.0005456
-0.0026808 -0.0022288 0.0055015 0.0036221 0.30447 -0.16054 -0.0005204 0.0016206
-0.001092 -0.00080843 -0.00014189 -0.00013131
0.0027457 0.00095907 -0.00084583 -0.0017238 -0.00052222 0.0016238 0.24502 0.047703
-0.0082479 0.010012 0.0024844 -0.0010029
-0.00060018 -0.0015247 -0.0011338 -0.00032777 -0.001098 -0.00081627 -0.0082251 0.010039
0.20549 0.13314 -0.0045261 0.0088704
-0.0002777 0.00067807 -0.00052236 -0.00054181 -0.00014263 -0.00012943 0.0024853 -0.0010093
-0.0045186 0.0088663 0.259 0.19734
1700000000 0.29173 -0.028942 0.0017268 0.0090946 -0.0032192 0.00018343 0.0029856 -0.0013004
-0.0019483 -0.00076304 0.0006333 0.0004145
0.0017147 0.0090911 0.22651 0.23948 0.0037586 0.00089289 -0.0015506 -0.00047708
-0.00082058 0.00026979 -0.00080573 -0.00039617
-0.0032287 0.00019817 0.0037616 0.00086526 0.26029 -0.20011 0.00068045 0.0015186
-0.0017515 -0.00016826 -0.00040937 -0.00072556
0.0029789 -0.0013232 -0.0015527 -0.00047052 0.00066208 0.0015171 0.24064 -0.00029364
-0.0047524 0.011054 0.0014651 -0.0021834
-0.0019533 -0.00074681 -0.00081177 0.00028218 -0.0017539 -0.00017322 -0.0047294 0.011059
0.22088 0.11238 -6.377e-05 0.0093348
0.00064175 0.00040928 -0.00081241 -0.0003917 -0.00041671 -0.00072556 0.001464 -0.0021897
-6.1334e-05 0.0093387 0.27299 0.16184
1760000000 0.27864 -0.077443 0.0039419 0.0060603 -0.002082 0.00087337 0.0010718 -0.0034601
-0.0015015 0.00058536 0.00052998 -0.00039984
0.003939 0.0060656 0.25237 0.19907 0.0017387 -0.0010345 -0.0012141 0.00031413
-0.00093203 0.0010092 -0.00058722 0.00047378
-0.0020715 0.00088294 0.0017317 -0.0010471 0.21158 -0.23323 0.0012947 0.00076356
-0.0011243 0.0015557 -0.0012294 -0.0003563
0.0010575 -0.0034594 -0.001221 0.00032088 0.0013008 0.00076327 0.23204 -0.049916
-0.00070174 0.010485 -0.00032635 -0.0024595
-0.0014978 0.00059553 -0.00091893 0.0010206 -0.0011196 0.0015557 -0.00068281 0.010485
0.23461 0.077191 0.0035482 0.0069352
0.00052921 -0.00040739 -0.0005848 0.00047793 -0.0012265 -0.00035774 -0.00032992 -0.0024636
0.0035519 0.006932 0.28441 0.12364
1820000000 0.25219 -0.11478 0.0042072 0.0026846 5.8259e-05 0.0023879 -0.0011742 -0.0029342
-0.0011918 0.0010474 8.2423e-05 -0.00014619
0.0042109 0.0026834 0.26136 0.16825 -9.34e-05 0.00012301 -0.0011418 0.0010333
0.00017838 0.0012907 -0.00047345 0.00053141
7.7246e-05 0.0023815 -9.2819e-05 0.00012543 0.16041 -0.24821 0.0014155 7.5228e-05
-8.2717e-05 0.0022318 -0.0013708 0.00036586
-0.0011872 -0.0029242 -0.0011321 0.0010318 0.0014107 6.2834e-05 0.20244 -0.096173
0.0015519 0.0085586 -0.001574 -0.001455
-0.0011834 0.0010557 0.00018883 0.0012894 -8.6017e-05 0.0022338 0.0015718 0.0085566
0.25001 0.047437 0.0046301 0.003649
8.43e-05 -0.00014801 -0.00047259 0.00053608 -0.0013738 0.00037451 -0.0015765 -0.0014529
0.0046303 0.0036458 0.28505 0.085907
1880000000 0.21569 -0.15372 0.0020394 0.00047361 -0.00041011 0.0019365 -0.0029227 -0.0019004
-0.00028436 0.0018517 0.00019033 -0.00054976
0.0020358 0.00047834 0.265 0.12186 -0.0021997 0.0016857 -5.1378e-05 0.0016208
0.00068743 0.00096606 0.00015897 0.00092876
-0.00039305 0.0019324 -0.002194 0.0016983 0.10766 -0.25731 0.0014218 -0.0010481
0.0016127 0.0016994 -0.00083461 0.0012736
-0.0029229 -0.0018833 -4.1328e-05 0.0016262 0.001418 -0.0010463 0.16324 -0.13561
0.0029617 0.0059552 -0.0022129 0.00026122
-0.00027117 0.0018566 0.00070207 0.00095734 0.0016099 0.0016964 0.0029779 0.0059504
0.25178 0.015152 0.0045155 0.0016214
0.00018502 -0.00055367 0.00016209 0.00092632 -0.00082922 0.0012787 -0.0022153 0.00025932
0.0045201 0.001617 0.28311 0.052372
1940000000 0.17588 -0.17908 -7.1683e-05 -0.0010689 0.0013924 0.0017476 -0.0035538 0.00058973
0.0016036 0.0010805 -0.00057843 -0.00058112
-6.5126e-05 -0.0010672 0.26486 0.089768 -0.00095394 0.0038059 0.0010098 0.0011064
0.0016898 0.00026785 0.00079069 0.00033024
0.0014039 0.0017347 -0.0009267 0.0038156 0.062229 -0.25069 9.0025e-05 -0.0016887
0.0021712 0.00027173 0.00026371 0.0014834
-0.0035562 0.00061571 0.0010172 0.0011049 9.2754e-05 -0.0016882 0.11187 -0.16662
0.002381 0.0038693 -0.0013049 0.0011817
0.0016163 0.0010629 0.0016941 0.00025253 0.0021802 0.00026363 0.0023957 0.003876
0.25284 -0.024497 0.0036156 -0.0014433
-0.00058605 -0.00057779 0.00079402 0.00032285 0.00026421 0.0014835 -0.0012985 0.0011766
0.0036132 -0.0014425 0.27121 0.015025
2000000000 0.12866 -0.19271 -0.0037438 0.00095731 0.0023467 0.0015841 -0.0022314 0.0032921
0.0013249 1.5101e-05 -0.00060354 0.00033992
-0.0037491 0.00094742 0.24963 0.054485 -0.00080522 0.0055815 0.0014685 0.00019401
0.0011009 -0.0013199 0.00050097 0.00010286
0.0023582 0.0015687 -0.00077443 0.0055859 0.018105 -0.23552 -0.0010032 -0.00098304
0.0017573 -0.0010695 0.0015981 0.0011971
-0.0022163 0.0033042 0.0014754 0.00018657 -0.0010054 -0.0009914 0.058247 -0.1774
0.00062356 0.0027122 -2.3223e-05 0.002015
0.0013264 8.5643e-06 0.001087 -0.0013206 0.0017494 -0.0010738 0.00063515 0.0027175
0.24539 -0.058611 0.00043274 -0.0024106
