!Keysight Technologies,M9804A,MY58100912,A.14.10.03
!Date: Thursday, April 27, 2023 10:28:33
!Correction: S11(C  6-Port  ) 
!S12(C  6-Port  ) 
!S13(C  6-Port  ) 
!S14(C  6-Port  ) 
!S15(C  6-Port  ) 
!S16(C  6-Port  ) 
!S21(C  6-Port  ) 
!S22(C  6-Port  ) 
!S23(C  6-Port  ) 
!S24(C  6-Port  ) 
!S25(C  6-Port  ) 
!S26(C  6-Port  ) 
!S31(C  6-Port  ) 
!S32(C  6-Port  ) 
!S33(C  6-Port  ) 
!S34(C  6-Port  ) 
!S35(C  6-Port  ) 
!S36(C  6-Port  ) 
!S41(C  6-Port  ) 
!S42(C  6-Port  ) 
!S43(C  6-Port  ) 
!S44(C  6-Port  ) 
!S45(C  6-Port  ) 
!S46(C  6-Port  ) 
!S51(C  6-Port  ) 
!S52(C  6-Port  ) 
!S53(C  6-Port  ) 
!S54(C  6-Port  ) 
!S55(C  6-Port  ) 
!S56(C  6-Port  ) 
!S61(C  6-Port  ) 
!S62(C  6-Port  ) 
!S63(C  6-Port  ) 
!S64(C  6-Port  ) 
!S65(C  6-Port  ) 
!S66(C  6-Port  ) 
!S6P File: Measurement: :
# Hz S  RI   R 50
500000000 -0.34028 -0.022177 -0.011666 -0.0034809 -0.0084785 0.013129 -0.0034804 0.012487
0.011541 0.0042321 -0.0031891 0.0087977
-0.011664 -0.0034977 -0.42014 -0.039995 0.0060736 -0.01124 0.001328 0.012726
0.0072863 0.0021955 0.0012386 0.013602
-0.0084764 0.013149 0.0060858 -0.011273 -0.26508 0.22072 0.0067212 0.0041143
-0.0013643 0.0081558 0.0012296 0.012112
-0.0034691 0.012465 0.0013623 0.012751 0.0067331 0.0041103 -0.33281 0.058178
-0.020507 -0.0067555 0.014468 0.023941
0.011554 0.0041824 0.0072877 0.0021668 -0.001366 0.0081586 -0.0205 -0.006738
-0.23512 -0.17124 -0.025892 0.0041464
-0.0031257 0.0087627 0.0012847 0.013612 0.001224 0.012118 0.01446 0.023924
-0.025862 0.0041265 -0.28407 -0.092172
560000000 -0.3142 0.13544 -0.027081 -0.060745 0.00093901 0.012035 0.0051221 0.010481
0.009882 0.0047414 0.010448 0.0078777
-0.027042 -0.060667 -0.37569 0.11659 -0.042388 -0.03473 0.013235 0.0043336
-0.011519 -0.0037633 0.0028203 -0.00069777
0.00094321 0.012019 -0.042526 -0.034708 -0.18198 0.26705 -6.7168e-05 -0.0046422
0.018795 0.0049196 0.0065345 -0.0064309
0.0051556 0.010501 0.013229 0.004356 -6.6156e-05 -0.0046438 -0.30638 0.14621
0.00068461 -0.023471 0.0032649 -0.01888
0.0098717 0.0047348 -0.011609 -0.0037662 0.018803 0.0048939 0.00066249 -0.023489
-0.28901 0.0024341 0.003327 -0.047126
0.010461 0.0078354 0.0028496 -0.00068338 0.0065231 -0.006422 0.0032521 -0.018884
0.0033296 -0.047127 -0.32999 0.051727
620000000 -0.27203 0.12046 -0.023447 0.0079897 0.00421 0.0082196 0.0076664 -0.0052922
0.011224 -0.0005731 0.00094207 -0.0027608
-0.02341 0.0079864 -0.40209 0.070712 -0.019292 0.00087378 -0.0010236 -0.0021645
0.010679 -0.0060826 0.0010186 -0.0024178
0.0042723 0.0082163 -0.019307 0.00090747 -0.15067 0.27599 -0.00093323 -0.005297
-0.003086 -0.0021236 0.0081455 -0.0033498
0.0076401 -0.0053255 -0.0010227 -0.0021643 -0.00093703 -0.0052996 -0.26347 0.15735
-0.041139 -0.017091 0.012661 0.023933
0.011334 -0.00055216 0.01067 -0.0060994 -0.0030829 -0.0021112 -0.041166 -0.017087
-0.21073 -0.0363 -0.041138 0.016135
0.0010011 -0.0026861 0.0010134 -0.0024348 0.0081607 -0.0033668 0.012704 0.023929
-0.04117 0.016111 -0.25753 0.022184
680000000 -0.22947 0.20434 -0.027872 -0.01171 0.0056855 0.0047092 0.0014469 -0.0071729
-0.0026217 -0.010856 0.0043329 -0.0067716
-0.027842 -0.011715 -0.38513 0.16615 -0.032123 0.00041231 -0.0013401 -0.00061853
-0.0020888 -0.0092076 -0.0016879 -0.0023005
0.0056989 0.0047018 -0.032161 0.00048966 -0.098618 0.29444 -0.00093348 -0.00058463
-0.0016641 -3.6729e-05 -0.0036237 -0.0088872
0.0014153 -0.0071582 -0.0013357 -0.00062022 -0.00093474 -0.00058615 -0.21766 0.20622
-0.025943 -0.0045866 -0.00912 -0.0085398
-0.0026717 -0.010868 -0.0021094 -0.0092246 -0.0016641 -3.6981e-05 -0.025975 -0.0045624
-0.2536 0.063206 -0.0080815 -0.0061943
0.0043528 -0.006764 -0.0016998 -0.0022807 -0.0036166 -0.0088806 -0.0091234 -0.0085413
-0.0080799 -0.006187 -0.25493 0.12016
740000000 -0.18488 0.19847 -0.036094 0.026782 0.012651 -0.005626 -0.00077385 -0.0041655
-0.0045197 -0.0028373 -0.0060689 0.0028459
-0.036095 0.026742 -0.33286 0.18494 -0.033148 0.035331 -0.0010914 -0.0063336
-0.012041 0.0074747 -0.0021161 -0.0050992
0.012655 -0.0056672 -0.033107 0.035461 -0.064736 0.29206 -0.002006 0.0030566
-0.0030661 -0.0047106 -0.0021345 0.00085252
-0.00076403 -0.0041452 -0.0011003 -0.006348 -0.002002 0.0030533 -0.19955 0.21441
-0.042866 -0.002508 0.022813 0.01283
-0.0045366 -0.002808 -0.012037 0.0075298 -0.0030739 -0.0047213 -0.042907 -0.0024406
-0.15738 0.084398 -0.039686 0.0048502
-0.006084 0.0028472 -0.0021463 -0.0050979 -0.0021523 0.00087268 0.022844 0.012828
-0.039679 0.0048181 -0.2439 0.12772
800000000 -0.15089 0.23622 -0.020937 0.017647 0.0048614 -0.010582 -0.0044943 -0.0016244
-0.0036811 0.0025998 0.0035051 0.00037527
-0.02094 0.017612 -0.33396 0.25348 -0.0066633 0.033813 -0.0024149 0.0023074
-0.00098165 0.0032647 0.00096709 0.0053402
0.0048382 -0.010605 -0.006579 0.033875 -0.023242 0.31453 0.0007768 0.0018285
0.00047288 0.003598 -0.0017012 0.0010703
-0.0045061 -0.0016209 -0.0024139 0.002333 0.00077928 0.0018336 -0.17 0.24107
-0.026972 0.017227 0.013337 -0.0099322
-0.0036808 0.002608 -0.0009512 0.0032764 0.00047848 0.0036039 -0.026965 0.017288
-0.19685 0.1117 -0.015741 0.019784
0.003499 0.0003376 0.00098342 0.0053361 -0.0017128 0.0010681 0.013335 -0.0099689
-0.015732 0.019765 -0.23173 0.17509
860000000 -0.11528 0.25573 -0.015419 0.030723 -0.0035223 -0.0098847 -0.0020782 0.0010616
0.0044897 0.0047551 -0.0027214 -0.0024329
-0.015407 0.030695 -0.28611 0.29443 0.0093167 0.033455 0.00014873 0.0020409
0.0044416 0.00024502 0.0032732 0.00061813
-0.0035587 -0.0098765 0.0094399 0.033485 0.025544 0.32178 -0.00045068 -6.335e-05
0.0026773 -0.0013783 0.0020061 0.0040576
-0.0020625 0.0010808 0.00015655 0.0020544 -0.00045006 -6.1392e-05 -0.13276 0.25138
-0.015014 0.02085 -0.0052055 -0.0089958
0.0045417 0.0047544 0.0044591 0.00025257 0.0026808 -0.0013749 -0.014986 0.020892
-0.14311 0.15869 -0.021288 0.017419
-0.0027156 -0.0024709 0.0032967 0.00058308 0.0020079 0.0040468 -0.0051925 -0.0089858
-0.021288 0.017366 -0.18161 0.21515
920000000 -0.089385 0.27647 0.0066334 0.03644 -0.0094686 -0.0043407 -0.0013867 0.001593
0.0015556 0.0014663 0.0027229 -0.0019815
0.0066009 0.036396 -0.25633 0.31454 0.028628 0.020359 0.0018279 0.00088695
0.0073192 -0.00071034 0.0037225 -0.0029847
-0.0094749 -0.0043221 0.02874 0.020296 0.072366 0.3216 0.0020257 -0.0002694
0.0016898 -0.0007285 0.00075724 -0.0012302
-0.0013828 0.0015998 0.0018323 0.00089333 0.0020251 -0.00026756 -0.10728 0.26711
-0.0070081 0.03122 0.0027156 -0.00685
0.0015848 0.0014638 0.0073251 -0.00075687 0.0016919 -0.00073679 -0.0069475 0.031262
-0.13097 0.16286 -5.8164e-05 0.026059
0.0027065 -0.0020081 0.0037404 -0.0029881 0.00076938 -0.0012345 0.0027019 -0.0068445
-7.3735e-05 0.02605 -0.1832 0.22987
980000000 -0.042574 0.2945 0.018607 0.028238 -0.0088669 0.0045762 0.0018731 0.0027334
0.0039675 -0.0020278 -0.0032028 -0.0020371
0.01857 0.028219 -0.20464 0.34764 0.033028 0.0031407 0.002091 -0.00038036
0.0016828 -0.0063506 -0.00047266 -0.0023844
-0.0088562 0.0046122 0.033093 0.00306 0.11917 0.31469 0.00040274 -0.0013597
8.8232e-05 -0.0024853 0.0012109 -0.00033203
0.0018644 0.0027369 0.0020821 -0.00037575 0.00040479 -0.0013605 -0.068321 0.27725
0.011314 0.029174 -0.0083461 -0.0064205
0.0039431 -0.0020756 0.0016749 -0.0064026 8.6964e-05 -0.0024881 0.011378 0.029177
-0.098461 0.18869 0.0069077 0.018772
-0.0032074 -0.0020263 -0.00051997 -0.0023746 0.0012058 -0.0003359 -0.0083548 -0.0064069
0.0068965 0.018771 -0.13865 0.26942
1040000000 0.0002088 0.30138 0.033164 0.015688 -0.0013799 0.0067106 0.0022082 0.00065011
0.0001139 -0.0031477 -0.00087992 -0.0014297
0.033115 0.01568 -0.1689 0.36059 0.028158 -0.016112 0.0013156 -0.0017831
-0.002386 -0.0026363 -0.0015537 -0.0028332
-0.0013687 0.0067054 0.028152 -0.016222 0.16648 0.29977 -0.00066681 -0.0014705
-0.001703 -0.00083121 -0.00063879 -0.0010083
0.002205 0.00062914 0.0013337 -0.0017772 -0.00066418 -0.0014683 -0.039323 0.286
0.022102 0.016005 -0.0026515 0.00077157
0.00010487 -0.003142 -0.0023909 -0.0026612 -0.0016977 -0.000825 0.022152 0.015975
-0.065592 0.19406 0.014547 0.015944
-0.00086853 -0.0014037 -0.0015707 -0.0027927 -0.00063823 -0.00099912 -0.0026393 0.00077827
0.01453 0.015928 -0.11393 0.28872
1100000000 0.045057 0.30781 0.034701 -0.0061986 0.002671 0.003692 0.0020482 -0.00093353
-0.0019604 -0.0028953 -0.003801 0.00044766
0.034664 -0.0061677 -0.12588 0.37745 0.013671 -0.02842 -0.00016096 -0.0018145
-0.0036249 -0.00063987 -0.0034951 -0.00023015
0.002692 0.0036759 0.013592 -0.028507 0.21343 0.27772 -0.0019251 0.00029023
-0.0019278 0.000676 -0.00095965 -9.1635e-05
0.0020436 -0.00095558 -0.00015813 -0.0018204 -0.0019257 0.00029636 0.0015996 0.28915
0.026242 0.001853 -0.0027459 -0.00020681
-0.0019668 -0.0028867 -0.0036311 -0.00063814 -0.0019245 0.0006784 0.026258 0.0018112
-0.047616 0.20604 0.019243 0.0059466
-0.0038099 0.00046729 -0.003509 -0.00021858 -0.00095923 -8.5543e-05 -0.0027384 -0.00018731
0.01923 0.0059435 -0.067843 0.31312
1160000000 0.096174 0.30206 0.022155 -0.022122 0.0022042 -0.00025299 -7.2395e-05 -0.0018967
-0.0039444 -0.00051801 -0.00078286 0.0039131
0.022156 -0.022098 -0.081015 0.38199 -0.0054812 -0.028729 -0.0016428 -0.0015052
-0.00271 0.0027354 -0.0014937 0.0017729
0.0022118 -0.00027042 -0.0055878 -0.028727 0.25692 0.24478 -0.00074258 0.0018859
-0.00035589 0.0020778 -0.00074975 0.00023755
-7.2823e-05 -0.0019035 -0.0016337 -0.0014889 -0.00074515 0.0018786 0.041684 0.28453
0.020919 -0.014017 -0.0033142 0.0042438
-0.0039679 -0.00049713 -0.0026967 0.0027333 -0.00036379 0.0020874 0.020919 -0.014056
-0.01442 0.21262 0.017599 -0.0020485
-0.00075833 0.0039223 -0.0014972 0.0017992 -0.00074648 0.00023641 -0.0033151 0.0042537
0.017587 -0.0020542 -0.020373 0.31468
1220000000 0.14047 0.28932 0.0079718 -0.030135 -0.0016934 -0.0001888 0.00023376 -0.00084775
-0.002444 0.0023478 0.0013646 0.00201
0.0079848 -0.030102 -0.036438 0.3929 -0.017931 -0.020014 -0.002479 0.00053532
0.00014064 0.0031895 -0.00048842 0.0021267
-0.0016884 -0.00018513 -0.018029 -0.019965 0.29485 0.20306 0.00090274 0.001863
0.00078966 0.001226 0.00040184 0.00057398
0.00022854 -0.0008576 -0.0024809 0.0005523 0.00089545 0.0018598 0.081807 0.2735
0.0090793 -0.02033 0.0011216 0.0013939
-0.0024442 0.0023721 0.00016879 0.0031897 0.00078079 0.0012326 0.0090525 -0.020351
0.0087776 0.2195 0.012045 -0.014581
0.0013762 0.0019955 -0.00048979 0.0021311 0.00040551 0.0005778 0.0011354 0.0013919
0.012041 -0.014578 0.012684 0.32683
1280000000 0.18962 0.26646 -0.0099911 -0.027411 -0.0015558 0.0031102 -0.00085616 -0.0020154
-0.00075649 0.0030259 0.0024496 0.00086922
-0.0099541 -0.027391 0.010142 0.38359 -0.024108 -0.00716 -0.0009248 0.001469
0.001975 0.0017905 0.00088301 0.0018679
-0.0015445 0.0031145 -0.024178 -0.0070649 0.32341 0.15806 0.0017509 1.345e-05
0.0012631 0.00018472 0.00030003 0.00016591
-0.000864 -0.0020143 -0.00092785 0.0014685 0.0017507 1.2718e-05 0.11795 0.25496
-0.0017727 -0.021438 -0.00090286 0.00069732
-0.00074574 0.0030408 0.0019919 0.0017817 0.0012601 0.00018431 -0.0018219 -0.021444
0.04484 0.22205 0.0010955 -0.016173
0.0024417 0.00086376 0.00090615 0.0018607 0.00030363 0.00016251 -0.00089926 0.00070772
0.0011046 -0.016164 0.058789 0.32542
1340000000 0.22651 0.23126 -0.018993 -0.016842 0.0015629 0.0045841 -0.0016937 -0.0010012
0.001526 0.0026021 0.0015801 -0.0016175
-0.018954 -0.01683 0.050296 0.37342 -0.021104 0.0055369 -6.7851e-05 0.0020417
0.0021632 0.00056462 0.0014446 0.00059573
0.0015809 0.0045835 -0.021106 0.0056309 0.3437 0.1095 0.001354 -0.0011394
0.00069495 -0.00061644 0.00010885 0.00024086
-0.0016994 -0.00099161 -5.793e-05 0.0020402 0.0013623 -0.0011239 0.14963 0.23214
-0.011823 -0.017206 0.00031102 0.0014948
0.0015386 0.0025809 0.0021686 0.00055037 0.00069931 -0.00061219 -0.011868 -0.017199
0.07482 0.21562 -0.0060317 -0.013823
0.0015569 -0.0016267 0.0014487 0.00058684 0.00011333 0.00023841 0.0003132 0.0015025
-0.0060276 -0.013829 0.098147 0.31706
1400000000 0.25852 0.19199 -0.023359 -0.0050242 0.0056683 0.0028285 -0.0022356 0.00053205
0.0024419 0.00089518 0.00012263 -0.0014663
-0.023326 -0.0050402 0.086856 0.35917 -0.013822 0.013183 0.0014558 0.0012885
0.0012149 -0.0010563 0.0011455 -1.229e-05
0.0056774 0.0028033 -0.013776 0.013268 0.35504 0.056517 2.7628e-05 -0.0021043
-2.9015e-05 -0.00051059 0.00033142 0.00027957
-0.0022357 0.00053659 0.0014638 0.0012897 2.9607e-05 -0.0021007 0.1771 0.20157
-0.017698 -0.0090556 -0.00049213 0.00091102
0.0024411 0.00087985 0.0012102 -0.0010634 -2.6947e-05 -0.00051077 -0.017734 -0.0090188
0.10653 0.20962 -0.012299 -0.0080368
0.00011357 -0.001476 0.0011449 -1.6e-05 0.00033785 0.00027791 -0.00048856 0.00091383
-0.012282 -0.0080388 0.14078 0.303
1460000000 0.28049 0.14722 -0.019303 0.006665 0.0057946 -0.0022832 -0.0016349 0.0016916
0.0021563 -0.00068304 -0.00041469 -0.00085832
-0.019287 0.0066381 0.12074 0.33616 -0.004946 0.015403 0.0017785 8.5836e-05
0.0006482 -0.0014366 0.0010233 -0.00067963
0.0057902 -0.0023156 -0.0048754 0.015449 0.36036 0.0030805 -0.0016777 -0.0013789
0.00010825 -0.00022329 0.00063787 -0.00034641
-0.0016329 0.0017062 0.0017742 7.9876e-05 -0.0016652 -0.0013756 0.2013 0.17138
-0.018216 -0.00091286 1.1709e-05 0.00265
0.0021522 -0.00070015 0.0006492 -0.0014458 0.00010708 -0.00022558 -0.018229 -0.00087342
0.13538 0.19392 -0.013186 -0.0013657
-0.00041091 -0.00084503 0.0010267 -0.00066908 0.00064046 -0.00034281 2.1224e-05 0.0026457
-0.013172 -0.0013758 0.17292 0.28035
1520000000 0.29146 0.104 -0.012793 0.01141 0.0031831 -0.00447 0.0001335 0.0027422
0.0019905 -0.0018412 -0.0011253 -3.7015e-05
-0.012793 0.011385 0.15314 0.3202 0.0023708 0.012694 0.0016688 -0.00095324
-0.00020501 -0.001103 0.00021446 -0.00095116
0.0031687 -0.0044799 0.0024401 0.012691 0.35323 -0.052996 -0.0015206 -0.00015022
0.00051843 -0.00091631 3.1952e-05 -0.00016182
0.00015287 0.0027312 0.0016702 -0.00096435 -0.0015177 -0.00015236 0.22168 0.13286
-0.01596 0.0056918 0.0023627 0.002129
0.0019869 -0.0018538 -0.00021295 -0.0011061 0.00052486 -0.00092767 -0.015966 0.0057304
0.16245 0.17788 -0.01232 0.0036878
-0.0011167 -3.4606e-05 0.00021984 -0.0009547 2.7307e-05 -0.00016006 0.0023746 0.0021203
-0.012326 0.0036766 0.2044 0.25694
1580000000 0.29924 0.057729 -0.0060006 0.013469 -0.0012224 -0.0050656 0.0016681 0.0019618
-0.00017699 -0.0022073 -0.00026358 0.00035124
-0.0060055 0.013456 0.17921 0.2952 0.0056337 0.007593 0.00037902 -0.0017166
-0.00063142 -0.00083454 -0.00028798 -0.00078158
-0.0012472 -0.005063 0.0056844 0.0075638 0.33305 -0.10989 -0.0015779 0.0011418
-0.00045658 -0.0011831 0.00010161 -0.00059657
0.0016758 0.0019511 0.00038241 -0.001722 -0.0015769 0.0011372 0.23293 0.094525
-0.011065 0.010492 0.0028743 0.00032059
-0.00019878 -0.0022077 -0.00064614 -0.00083118 -0.00045941 -0.0011903 -0.01105 0.010533
0.18579 0.15874 -0.009186 0.0090555
-0.00026618 0.00035957 -0.00028972 -0.0007828 9.6072e-05 -0.00059626 0.0028772 0.00030654
-0.0091836 0.009029 0.23402 0.22938
1640000000 0.29989 0.015779 0.00037248 0.011316 -0.0030233 -0.0026036 0.0028767 0.00081371
-0.00094831 -0.0015987 -0.00026231 0.00061166
0.00035551 0.011313 0.20793 0.26979 0.0059537 0.0029285 -0.0009102 -0.0016708
-0.00095482 -0.00018788 -0.00056795 -0.00053588
-0.0030305 -0.0025886 0.0059706 0.0028947 0.3048 -0.15923 -0.00037779 0.001646
-0.0012638 -0.00085482 -0.00018422 -0.00024755
0.0028776 0.0008089 -0.00091644 -0.0016726 -0.00037471 0.0016415 0.24331 0.047149
-0.0056291 0.011107 0.0027948 -0.0013576
-0.0009601 -0.0015877 -0.00095527 -0.00017923 -0.0012606 -0.00084729 -0.0056116 0.011132
0.20737 0.13267 -0.0037232 0.010732
-0.0002555 0.00061141 -0.00056872 -0.00053071 -0.00018945 -0.00025203 0.002796 -0.0013653
-0.0037357 0.010731 0.25845 0.19698
1700000000 0.29052 -0.0294 0.0030845 0.0078275 -0.0035988 0.00021201 0.0029426 -0.0015586
-0.0021258 -0.00059249 0.00067746 0.00033985
0.0030742 0.0078189 0.22484 0.23866 0.0037896 0.00021661 -0.0015479 -0.00043287
-0.0005853 0.00016516 -0.00085857 -0.00037747
-0.0035924 0.00023792 0.003799 0.00019501 0.2607 -0.199 0.0008594 0.0014124
-0.0019101 4.3906e-05 -0.00065451 -0.00083407
0.0029325 -0.0015714 -0.0015547 -0.00041381 0.00086248 0.0014183 0.23891 0.00013446
-0.0021948 0.01052 0.0016204 -0.0026081
-0.0021267 -0.00057034 -0.00058637 0.00017059 -0.0019195 4.8864e-05 -0.0021755 0.010527
0.22244 0.1112 0.0013106 0.010501
0.00069035 0.00034095 -0.00086219 -0.00036905 -0.00065616 -0.00083487 0.0016173 -0.0026138
0.0013193 0.010505 0.27274 0.16192
1760000000 0.27742 -0.07697 0.0042889 0.0043777 -0.0023524 0.00098774 0.00086458 -0.0035984
-0.0013914 0.00085169 0.00041365 -0.00040683
0.0042822 0.0043783 0.25046 0.19912 0.0014711 -0.0016319 -0.0011733 0.00035756
-0.00087198 0.00079849 -0.00060771 0.00048375
-0.0023484 0.0010121 0.0014538 -0.0016456 0.21265 -0.23236 0.0013103 0.0007038
-0.0010572 0.0017128 -0.0015302 -0.00031847
0.00084513 -0.003606 -0.0011776 0.00036749 0.0013078 0.00070393 0.23067 -0.048459
0.00089553 0.0088001 -0.00031795 -0.0028783
-0.0013862 0.00085395 -0.00086704 0.00080799 -0.0010479 0.0017202 0.0009161 0.0088013
0.23563 0.075527 0.0053083 0.0073929
0.0004161 -0.00040132 -0.00060468 0.00049494 -0.0015229 -0.00031293 -0.00032541 -0.0028729
0.0053149 0.0073884 0.28431 0.12394
1820000000 0.25143 -0.1136 0.0035928 0.0012529 -0.0001647 0.0025905 -0.0013866 -0.00282
-0.00097145 0.0011075 -2.2908e-05 -0.00013119
0.0035856 0.0012519 0.25989 0.16919 -0.00050329 -0.00027141 -0.001121 0.0010517
1.3477e-05 0.0010903 -0.0004927 0.00054558
-0.00014447 0.0025803 -0.00049991 -0.00026719 0.16193 -0.24841 0.0012097 1.6979e-05
0.00013003 0.002278 -0.0013714 0.00051584
-0.0013977 -0.0028145 -0.0011182 0.0010603 0.0012071 1.5991e-05 0.20216 -0.094009
0.0019683 0.0066099 -0.0017494 -0.001851
-0.00096495 0.0011187 2.3961e-05 0.0010967 0.00013778 0.002276 0.0019916 0.0066118
0.25039 0.045541 0.0062517 0.003293
-2.5537e-05 -0.00013531 -0.00048887 0.00054932 -0.0013741 0.00052755 -0.0017495 -0.0018542
0.0062504 0.0032825 0.28556 0.086266
1880000000 0.21586 -0.15231 0.00094964 -0.00021638 -0.00043566 0.0021685 -0.0030169 -0.0017596
-6.5576e-05 0.001636 0.00018099 -0.00057677
0.00094562 -0.00021835 0.2642 0.12322 -0.0026095 0.0015012 -1.6683e-05 0.001609
0.0004552 0.0010424 0.00019143 0.00090713
-0.00043451 0.0021804 -0.0026024 0.0015115 0.10902 -0.25815 0.001341 -0.00090602
0.0017267 0.0016625 -0.00063922 0.0014646
-0.0030198 -0.0017417 -1.0737e-05 0.0016097 0.0013426 -0.00089784 0.16418 -0.1337
0.002428 0.0043701 -0.0026029 -7.1148e-06
-5.2387e-05 0.0016445 0.00046534 0.0010408 0.0017369 0.0016629 0.0024448 0.0043637
0.2514 0.013345 0.0058697 0.0005773
0.00017499 -0.00057463 0.0001998 0.00091118 -0.00064022 0.0014663 -0.0026035 7.9689e-06
0.0058659 0.00057355 0.28374 0.052317
1940000000 0.17682 -0.17816 -0.0011636 -0.0011324 0.0014455 0.0022152 -0.0034929 0.00077091
0.0015638 0.00091094 -0.00053814 -0.00058375
-0.0011494 -0.0011304 0.26473 0.091333 -0.0014837 0.0039365 0.00098905 0.0011002
0.0015613 0.00054474 0.00089324 0.0003454
0.0014545 0.0022128 -0.0014622 0.0039465 0.062756 -0.25167 0.00023257 -0.0016811
0.002326 0.00014544 0.00060936 0.0016677
-0.0034963 0.00079364 0.00099615 0.001089 0.00022964 -0.001678 0.11376 -0.16557
0.0014131 0.0028779 -0.0017892 0.001182
0.0015701 0.00089732 0.0015667 0.00053232 0.0023142 0.00013337 0.0014189 0.0028687
0.25188 -0.02579 0.004334 -0.0028073
-0.0005447 -0.00057949 0.00089378 0.00033995 0.00061253 0.0016704 -0.001786 0.0011835
0.0043251 -0.0028074 0.27183 0.014869
2000000000 0.12988 -0.19235 -0.0045328 0.0012912 0.0026791 0.0016478 -0.0021327 0.0034352
0.0010688 -3.6199e-05 -0.00051399 0.00037959
-0.0045263 0.0012801 0.25033 0.05584 -0.0012179 0.0058327 0.0014963 0.00028699
0.0012252 -0.0010616 0.00054332 -6.0129e-05
0.0027052 0.001627 -0.0011728 0.005849 0.017907 -0.23675 -0.00099551 -0.00097385
0.0016835 -0.0011764 0.0018104 0.00089299
-0.0021151 0.0034462 0.0015023 0.00027381 -0.00098819 -0.00098178 0.060397 -0.17737
-0.00046681 0.0023295 -0.00048029 0.0022355
0.0010707 -3.1485e-05 0.0012162 -0.0010737 0.0016835 -0.0011772 -0.0004572 0.0023396
0.244 -0.059393 0.00046567 -0.004107
