!Keysight Technologies,M9804A,MY58100912,A.14.10.03
!Date: Thursday, April 27, 2023 10:28:33
!Correction: S11(C  6-Port  ) 
!S12(C  6-Port  ) 
!S13(C  6-Port  ) 
!S14(C  6-Port  ) 
!S15(C  6-Port  ) 
!S16(C  6-Port  ) 
!S21(C  6-Port  ) 
!S22(C  6-Port  ) 
!S23(C  6-Port  ) 
!S24(C  6-Port  ) 
!S25(C  6-Port  ) 
!S26(C  6-Port  ) 
!S31(C  6-Port  ) 
!S32(C  6-Port  ) 
!S33(C  6-Port  ) 
!S34(C  6-Port  ) 
!S35(C  6-Port  ) 
!S36(C  6-Port  ) 
!S41(C  6-Port  ) 
!S42(C  6-Port  ) 
!S43(C  6-Port  ) 
!S44(C  6-Port  ) 
!S45(C  6-Port  ) 
!S46(C  6-Port  ) 
!S51(C  6-Port  ) 
!S52(C  6-Port  ) 
!S53(C  6-Port  ) 
!S54(C  6-Port  ) 
!S55(C  6-Port  ) 
!S56(C  6-Port  ) 
!S61(C  6-Port  ) 
!S62(C  6-Port  ) 
!S63(C  6-Port  ) 
!S64(C  6-Port  ) 
!S65(C  6-Port  ) 
!S66(C  6-Port  ) 
!S6P File: Measurement: :
# Hz S  RI   R 50
500000000 -0.3372 -0.035566 -0.010144 -0.0034644 -0.0079367 0.012077 -0.0035704 0.011646
0.012078 0.0047453 -0.0037131 0.0082248
-0.010129 -0.0034629 -0.41926 -0.049878 0.0073204 -0.011236 0.001695 0.011941
0.0072654 0.0025517 0.0011213 0.013392
-0.0079212 0.012085 0.0072987 -0.011251 -0.26559 0.21141 0.0068515 0.00324
-0.00059287 0.0089007 0.00053877 0.012021
-0.003558 0.011655 0.0017245 0.011966 0.0068536 0.0032505 -0.32781 0.046858
-0.020253 -0.0044221 0.017428 0.02529
0.01209 0.0047224 0.0072777 0.0025298 -0.00058593 0.0088945 -0.020243 -0.0044101
-0.22621 -0.18522 -0.02754 0.0047245
-0.003723 0.00821 0.0011515 0.013412 0.0005418 0.012022 0.017444 0.025291
-0.027546 0.0047166 -0.27334 -0.11373
560000000 -0.3161 0.12445 -0.024045 -0.062891 0.00026814 0.012215 0.0063313 0.010028
0.010631 0.0044402 0.0099594 0.007421
-0.023993 -0.062817 -0.37682 0.10852 -0.042035 -0.036218 0.013412 0.0037628
-0.013587 -0.0046907 0.0040777 -0.0005504
0.00029514 0.012208 -0.042183 -0.036161 -0.18289 0.25968 -0.00036364 -0.0048158
0.019458 0.0045277 0.0068431 -0.0056579
0.0063737 0.010021 0.013422 0.003744 -0.00036521 -0.0048271 -0.30333 0.13643
0.0034006 -0.024518 0.0045836 -0.019428
0.010633 0.0044373 -0.013622 -0.0046717 0.019464 0.0045265 0.0033856 -0.024518
-0.28605 -0.0091721 0.0073606 -0.049663
0.0099763 0.007395 0.0040524 -0.00052993 0.0068447 -0.0056819 0.0045811 -0.019455
0.0073781 -0.049666 -0.33136 0.032581
620000000 -0.27337 0.10952 -0.023256 0.007665 0.003605 0.0084919 0.0066543 -0.0055273
0.011609 -0.00050038 0.00056653 -0.002244
-0.02325 0.00766 -0.40298 0.062745 -0.018652 0.00033676 -0.0011747 -0.0019138
0.010596 -0.0071243 0.0014851 -0.0026529
0.0036404 0.0084844 -0.018688 0.00037859 -0.15252 0.26853 -0.0014089 -0.0051935
-0.0035663 -0.0033876 0.0082867 -0.003613
0.0066331 -0.0055475 -0.0011794 -0.0019061 -0.0014008 -0.0051999 -0.26209 0.14638
-0.039227 -0.018171 0.014322 0.024009
0.011611 -0.00052465 0.01058 -0.0071551 -0.0035699 -0.003378 -0.039218 -0.018148
-0.20486 -0.049383 -0.040407 0.014439
0.0005665 -0.0022437 0.001481 -0.0026725 0.0083121 -0.0036125 0.014347 0.024039
-0.040442 0.014411 -0.24978 -0.0033215
680000000 -0.23345 0.19363 -0.027877 -0.013616 0.0048655 0.0049159 0.0011541 -0.0076635
-0.0030843 -0.010924 0.0042649 -0.0066855
-0.027864 -0.013621 -0.38721 0.15992 -0.032499 -0.0011539 -0.0015522 -0.00033366
-0.0026073 -0.0090426 -0.0009588 -0.0020482
0.0048685 0.0049086 -0.032527 -0.0010717 -0.10144 0.2879 -0.00076976 -8.86e-05
-0.0021619 0.00052596 -0.0027481 -0.0094254
0.0011531 -0.0076753 -0.0015589 -0.0003216 -0.00078172 -8.1245e-05 -0.21898 0.19617
-0.023537 -0.0077413 -0.0085848 -0.010366
-0.0031136 -0.010929 -0.0026427 -0.0090388 -0.0021663 0.00052607 -0.023552 -0.0077101
-0.25312 0.049191 -0.0057259 -0.0089798
0.0042608 -0.0066975 -0.00096486 -0.0020652 -0.0027568 -0.0094275 -0.0085861 -0.010352
-0.005716 -0.0089839 -0.25888 0.099355
740000000 -0.18966 0.18872 -0.038237 0.026793 0.01262 -0.0052264 -0.00070314 -0.0040604
-0.0047223 -0.0027115 -0.0062832 0.0031758
-0.038221 0.026758 -0.33434 0.17818 -0.034516 0.035262 -0.00074856 -0.0065097
-0.012093 0.0076735 -0.0025456 -0.0060259
0.012591 -0.0052571 -0.034441 0.035382 -0.067868 0.28622 -0.0015449 0.0033064
-0.0028236 -0.0043139 -0.0014151 0.00021861
-0.00070855 -0.0040492 -0.00075677 -0.0065044 -0.0015455 0.0033101 -0.20215 0.20342
-0.042381 -0.0078767 0.022347 0.013441
-0.0047228 -0.0026899 -0.012088 0.00775 -0.0028373 -0.0043226 -0.042396 -0.0077987
-0.15677 0.074663 -0.041637 0.00054802
-0.0062806 0.0031882 -0.0025851 -0.0060245 -0.0014419 0.00022194 0.022362 0.013433
-0.041629 0.00052226 -0.24627 0.10492
800000000 -0.15705 0.22839 -0.022062 0.017282 0.0052398 -0.010536 -0.004778 -0.0020385
-0.0041679 0.0024596 0.0042502 0.00081022
-0.022055 0.017264 -0.337 0.24863 -0.0075784 0.033921 -0.0022025 0.0021863
-0.00086714 0.0033332 0.0011557 0.0053338
0.0052161 -0.010556 -0.0074913 0.033978 -0.026763 0.30887 0.001041 0.0016385
0.00057058 0.0036514 -0.0017469 0.00091835
-0.0047994 -0.0020305 -0.0022027 0.0021903 0.001038 0.001636 -0.17379 0.23088
-0.027828 0.012649 0.013035 -0.0099504
-0.0041598 0.0024626 -0.00085966 0.0033332 0.0005799 0.0036557 -0.027815 0.012707
-0.20076 0.097461 -0.017045 0.017326
0.004237 0.00078718 0.0011874 0.0053375 -0.0017371 0.00092146 0.013037 -0.0099738
-0.017055 0.017314 -0.23745 0.15653
860000000 -0.12228 0.2492 -0.016799 0.031001 -0.0032869 -0.0098592 -0.0024483 0.0011152
0.0039684 0.0050237 -0.0029295 -0.002734
-0.016801 0.030974 -0.28902 0.29031 0.008259 0.033965 0.00014615 0.0021176
0.0041393 0.00047207 0.0032956 0.00035102
-0.0033072 -0.0098575 0.0083715 0.033975 0.021377 0.31657 -0.00039005 -0.00025497
0.0027978 -0.0015413 0.0016222 0.0042565
-0.0024469 0.0011247 0.00015857 0.002127 -0.00039098 -0.00025675 -0.13792 0.24224
-0.017448 0.018506 -0.0059994 -0.0087695
0.004004 0.0050253 0.004142 0.000457 0.0028001 -0.0015463 -0.017423 0.01854
-0.15027 0.14566 -0.02392 0.015074
-0.0029423 -0.002725 0.0033295 0.00034378 0.0016351 0.0042632 -0.0060088 -0.0087596
-0.023924 0.015059 -0.18762 0.19818
920000000 -0.097086 0.27211 0.0055743 0.037327 -0.0093095 -0.00444 -0.0019502 0.0021315
0.0015335 0.0016312 0.0025182 -0.0015141
0.0055558 0.037292 -0.25995 0.31075 0.02803 0.021423 0.0015791 0.0010469
0.0069673 -0.00067027 0.0038931 -0.003074
-0.0093148 -0.0044164 0.02812 0.021362 0.067525 0.3169 0.0018192 -0.00016012
0.0012603 -0.00050804 0.00075184 -0.0011749
-0.0019497 0.0021273 0.0015938 0.0010541 0.0018118 -0.00015363 -0.11368 0.25846
-0.010009 0.029718 0.0027321 -0.0066861
0.0015294 0.0016374 0.0069836 -0.00071698 0.0012643 -0.00051138 -0.0099584 0.029737
-0.1403 0.15099 -0.0019382 0.026958
0.0025032 -0.0015231 0.0039058 -0.0030872 0.00075115 -0.0011773 0.0027262 -0.0067068
-0.0019746 0.026956 -0.19273 0.21211
980000000 -0.049637 0.29161 0.017953 0.029546 -0.0088379 0.0045398 0.0022885 0.0037183
0.0040351 -0.0017607 -0.0028839 -0.0021034
0.017949 0.029514 -0.20727 0.34432 0.032753 0.0044213 0.0019723 -6.2654e-06
0.0012684 -0.006268 -0.00052694 -0.0021444
-0.0088185 0.0045528 0.032785 0.004311 0.11375 0.31011 0.00043766 -0.0012108
6.5394e-05 -0.002152 0.0014052 -4.266e-06
0.0023078 0.0037067 0.0019866 1.0638e-05 0.00043347 -0.0012163 -0.075643 0.26958
0.0077154 0.028143 -0.0090398 -0.0067337
0.0040284 -0.0017723 0.001251 -0.0063028 6.1413e-05 -0.0021567 0.0077678 0.028133
-0.10813 0.17835 0.0049206 0.018517
-0.0028884 -0.0020972 -0.00053298 -0.0021253 0.0014047 -2.3024e-05 -0.0090474 -0.0067158
0.0049064 0.018511 -0.14994 0.25672
1040000000 -0.0069902 0.29972 0.033138 0.017418 -0.0012472 0.0067354 0.0027122 0.00079252
1.5596e-05 -0.0037329 -0.00062438 -0.0016017
0.033109 0.017387 -0.17194 0.35716 0.02891 -0.014979 0.0014992 -0.0017519
-0.00255 -0.002484 -0.001513 -0.0027641
-0.0012141 0.0067339 0.02887 -0.015085 0.1598 0.29622 -0.00052815 -0.0014557
-0.001639 -0.00082056 -0.00048206 -0.001075
0.0027098 0.00077178 0.0015141 -0.0017425 -0.00053422 -0.0014617 -0.048443 0.27952
0.018174 0.016731 -0.0030795 0.0018272
5.2923e-06 -0.0037166 -0.0025745 -0.002501 -0.0016354 -0.00080785 0.018211 0.016694
-0.07783 0.18652 0.013467 0.017498
-0.00063714 -0.0016028 -0.0015011 -0.0027501 -0.00048231 -0.0010708 -0.0030695 0.0018419
0.013454 0.017503 -0.12777 0.27543
1100000000 0.038451 0.30693 0.035396 -0.0048468 0.0027174 0.0037095 0.0025804 -0.0012689
-0.0021363 -0.0030952 -0.0039302 0.00013369
0.035374 -0.0048406 -0.12851 0.374 0.014723 -0.02764 4.2429e-05 -0.0018162
-0.0033113 -0.00054166 -0.0034156 -0.00048512
0.0027341 0.0036954 0.01463 -0.027717 0.20605 0.27568 -0.0017837 0.00025051
-0.0017819 0.00070138 -0.00097311 -0.00025333
0.0025831 -0.0012935 3.6613e-05 -0.0018175 -0.0017843 0.00024705 -0.0081712 0.28448
0.022499 0.0046303 -0.0024906 0.00083102
-0.002159 -0.0030761 -0.0033199 -0.00053037 -0.0017798 0.00071212 0.022502 0.0046065
-0.059484 0.19948 0.018579 0.0082825
-0.0039402 0.00014455 -0.0034115 -0.00046608 -0.00097612 -0.00024905 -0.0024875 0.00083788
0.018554 0.0082898 -0.080875 0.30303
1160000000 0.089952 0.30166 0.023294 -0.020948 0.00248 -0.00041437 -4.4551e-05 -0.0024696
-0.0040084 -0.00046746 -0.00099052 0.0038539
0.023293 -0.020952 -0.084981 0.3782 -0.0039753 -0.028743 -0.0017613 -0.0016665
-0.0025592 0.002781 -0.0012801 0.00156
0.0024868 -0.00041949 -0.0041116 -0.028742 0.24888 0.24467 -0.00066276 0.001749
-0.00036768 0.0019047 -0.00086406 9.562e-05
-5.0892e-05 -0.0024792 -0.0017633 -0.0016576 -0.00066411 0.0017399 0.030915 0.28168
0.018881 -0.0098778 -0.002799 0.0055764
-0.0040266 -0.0004363 -0.0025373 0.002785 -0.00036696 0.0019031 0.01887 -0.0098886
-0.026799 0.20848 0.017102 0.00035077
-0.00096886 0.0038505 -0.0012577 0.0015755 -0.0008644 9.5233e-05 -0.0027794 0.0055841
0.017081 0.00034909 -0.034156 0.30545
1220000000 0.13438 0.28998 0.0096874 -0.02981 -0.0016506 -0.00062602 -4.1641e-05 -0.0012133
-0.0025591 0.0025574 0.0013082 0.0018987
0.0096906 -0.029798 -0.04086 0.38987 -0.016864 -0.020774 -0.0025076 0.00042075
0.00025378 0.0029888 -0.00063956 0.0017785
-0.0016485 -0.0006139 -0.016981 -0.020722 0.2878 0.20553 0.0008925 0.0016336
0.00063725 0.0011154 0.00032511 0.00070448
-4.2874e-05 -0.0012199 -0.002514 0.00043254 0.00088788 0.0016345 0.070455 0.27355
0.0089106 -0.015382 0.0025126 0.0018191
-0.0025635 0.0025686 0.00027507 0.0030011 0.0006331 0.0011109 0.0088902 -0.015378
-0.0040678 0.21789 0.013116 -0.012224
0.0013228 0.0018883 -0.00062848 0.001788 0.0003306 0.00070569 0.0025201 0.0018191
0.013116 -0.01223 -0.0023033 0.32062
1280000000 0.18387 0.26743 -0.0083011 -0.027885 -0.0017916 0.0027211 -0.0011001 -0.0020945
-0.0006153 0.0030635 0.0025603 0.0010438
-0.0082932 -0.027871 0.0049205 0.38091 -0.023532 -0.0082838 -0.001047 0.0015073
0.00173 0.0016231 0.00058116 0.0019441
-0.0017744 0.0027224 -0.023596 -0.0081811 0.31821 0.1617 0.0014886 -0.00016198
0.0010941 3.6081e-05 0.00029737 0.00037383
-0.0011074 -0.0020853 -0.0010462 0.0015057 0.0014871 -0.00015436 0.10694 0.25777
0.00018388 -0.016962 0.00042977 0.00029162
-0.00060226 0.0030703 0.0017409 0.0016099 0.0010948 3.0228e-05 0.00015911 -0.016957
0.03249 0.22193 0.002578 -0.014167
0.0025704 0.0010279 0.00059518 0.0019411 0.00029884 0.00037126 0.000436 0.00029145
0.002575 -0.014161 0.044929 0.32081
1340000000 0.22073 0.23327 -0.017762 -0.018304 0.00098448 0.0044886 -0.0020369 -0.00080041
0.0015024 0.0025853 0.0017287 -0.0014939
-0.017742 -0.018298 0.044425 0.37253 -0.021372 0.0042973 -2.1403e-05 0.0020106
0.0018271 0.00056491 0.0013058 0.00088977
0.0010164 0.0044822 -0.021379 0.0044078 0.34024 0.11372 0.0010049 -0.00092482
0.00061809 -0.00041871 0.00014012 0.00023252
-0.0020479 -0.00079705 -1.558e-05 0.0020028 0.0010081 -0.00092807 0.1401 0.23799
-0.0078697 -0.013944 0.0012634 0.00025935
0.0015089 0.00258 0.0018347 0.00054733 0.00061182 -0.00041809 -0.0078915 -0.013929
0.062675 0.21794 -0.0036322 -0.012857
0.0017234 -0.0015028 0.0013159 0.00088484 0.00014266 0.00023469 0.0012628 0.00025768
-0.0036376 -0.012858 0.083317 0.31519
1400000000 0.25339 0.19468 -0.023103 -0.0069341 0.0052252 0.0030465 -0.002071 0.00080907
0.0025268 0.00071002 0.00019259 -0.0014358
-0.023092 -0.0069391 0.081443 0.35941 -0.014653 0.012301 0.0014025 0.0012824
0.00099483 -0.00090399 0.0011707 0.00023138
0.0052454 0.003017 -0.014619 0.012397 0.35325 0.060107 4.6275e-05 -0.0014662
3.1963e-05 -0.0003033 0.00033853 0.0001644
-0.0020698 0.0008177 0.0014201 0.0012765 4.4987e-05 -0.0014656 0.17019 0.20963
-0.012667 -0.0078417 -0.00040503 -0.00062319
0.002538 0.00068365 0.00099847 -0.00091059 2.5036e-05 -0.0003033 -0.012679 -0.0078262
0.095795 0.21368 -0.0097539 -0.0080792
0.00017723 -0.0014376 0.0011777 0.00022205 0.00033694 0.00016278 -0.00040523 -0.0006245
-0.0097539 -0.0080719 0.12715 0.30347
1460000000 0.27594 0.15037 -0.019941 0.0049675 0.0056515 -0.0018019 -0.0014852 0.0018633
0.0019979 -0.00074604 -0.00038861 -0.00090843
-0.019942 0.0049519 0.11576 0.33753 -0.0060579 0.01519 0.0017354 0.00011193
0.00077285 -0.0011633 0.0011901 -0.00061789
0.0056406 -0.0018508 -0.005989 0.015237 0.35924 0.0056442 -0.0011535 -0.0012138
0.0002309 -5.3276e-05 0.00070705 -0.00036996
-0.0014811 0.0018772 0.0017344 0.00010979 -0.0011546 -0.001199 0.19739 0.18056
-0.013122 -0.0022192 -0.00089394 0.0014693
0.001986 -0.00076745 0.00077062 -0.00116 0.00023591 -5.6826e-05 -0.013144 -0.0021955
0.12593 0.1994 -0.011232 -0.0025507
-0.00041336 -0.00089211 0.0011959 -0.00063149 0.00070788 -0.00037283 -0.00089936 0.0014888
-0.011237 -0.0025612 0.16029 0.28182
1520000000 0.28781 0.10841 -0.01424 0.010318 0.003189 -0.0042515 0.00020011 0.0026236
0.0016928 -0.0017545 -0.0011627 -0.00012036
-0.014237 0.010313 0.14925 0.3226 0.0014895 0.013038 0.0015787 -0.00084855
2.4998e-05 -0.00084736 0.00033674 -0.0010096
0.0031665 -0.0042525 0.0015658 0.013048 0.35242 -0.050629 -0.0010021 -0.00032144
0.00056366 -0.00082457 -5.8533e-05 -7.1945e-05
0.00021898 0.0026171 0.0015848 -0.00086051 -0.0010045 -0.00032711 0.22151 0.14218
-0.012306 0.0023288 0.0011567 0.0016925
0.0016835 -0.0017631 1.7036e-05 -0.00085401 0.0005648 -0.00082965 -0.012307 0.0023527
0.15456 0.18502 -0.011141 0.0016989
-0.0011554 -0.0001125 0.00034402 -0.0010149 -5.6595e-05 -7.2365e-05 0.0011563 0.0016876
-0.011154 0.0016986 0.19272 0.26057
1580000000 0.29673 0.061775 -0.0077145 0.013137 -0.000925 -0.0049208 0.0014664 0.0017807
-0.00052046 -0.002111 -0.00039083 0.0003963
-0.0077106 0.013138 0.1765 0.29767 0.0051527 0.0082741 0.00039556 -0.0015811
-0.00038798 -0.00095603 -0.00022838 -0.00090129
-0.00094442 -0.0049267 0.0052239 0.0082466 0.33197 -0.10823 -0.0014636 0.00050459
-0.00027421 -0.0011238 0.00012895 -0.00056575
0.0014642 0.001771 0.0003792 -0.0015862 -0.0014613 0.00050709 0.23623 0.10212
-0.0094651 0.0061165 0.0019306 0.00053998
-0.00054876 -0.0021042 -0.00040156 -0.00095243 -0.0002753 -0.0011291 -0.0094573 0.0061478
0.17962 0.1666 -0.0087119 0.007057
-0.00039056 0.00040054 -0.00023812 -0.00090591 0.00012456 -0.00056795 0.0019332 0.00053936
-0.0087148 0.0070474 0.22399 0.23314
1640000000 0.29815 0.020004 -0.0012743 0.011972 -0.0028012 -0.0026159 0.0025751 0.00092211
-0.00088555 -0.001144 -0.0002809 0.00065074
-0.0012684 0.011972 0.20587 0.27236 0.0058277 0.0035054 -0.00074115 -0.0016242
-0.00087989 -0.0004735 -0.00055565 -0.00068446
-0.0028174 -0.0026108 0.005856 0.0034566 0.30364 -0.1575 -0.00076681 0.0013274
-0.0010859 -0.00086477 -0.00014452 -0.00034869
0.0025702 0.00090948 -0.00075629 -0.0016296 -0.00077228 0.0013317 0.2489 0.052084
-0.0060006 0.0068248 0.0021862 -0.00078002
-0.0009011 -0.0011264 -0.00087857 -0.00047211 -0.0010883 -0.0008644 -0.0059752 0.006847
0.20331 0.14104 -0.0042882 0.0090405
-0.00027129 0.00065345 -0.00055523 -0.00068323 -0.0001489 -0.0003479 0.0021867 -0.00078416
-0.004288 0.0090448 0.24923 0.20146
1700000000 0.29008 -0.025397 0.0020181 0.0092371 -0.0035584 5.3856e-05 0.0028766 -0.0011879
-0.0018612 -0.00043029 0.00066267 0.00044371
0.0020228 0.0092322 0.22384 0.24063 0.0039375 0.00063834 -0.0013953 -0.00053249
-0.00076304 -8.1099e-05 -0.00098126 -0.00040829
-0.0035639 7.2249e-05 0.0039401 0.00062125 0.25992 -0.19742 0.00035867 0.0015435
-0.0017689 -0.00018884 -0.00062856 -0.00094263
0.0028703 -0.0011978 -0.0014065 -0.00052092 0.00034695 0.001548 0.24533 0.0010087
-0.0041487 0.007188 0.0012344 -0.0021565
-0.0018724 -0.00042079 -0.00076756 -8.8527e-05 -0.0017786 -0.00018433 -0.0041277 0.007195
0.22109 0.11932 0.0001695 0.0091982
0.00067484 0.00044282 -0.00099265 -0.00040124 -0.00063541 -0.00094104 0.0012247 -0.0021578
0.00017138 0.0092026 0.26483 0.16689
1760000000 0.27697 -0.073802 0.0042458 0.0060455 -0.0023281 0.00083192 0.0012913 -0.0033221
-0.0010081 0.00069183 0.00042605 -0.00052303
0.0042505 0.0060385 0.24957 0.20053 0.0017087 -0.0011234 -0.0010844 0.00022855
-0.0012022 0.00082059 -0.00062389 0.00055435
-0.0023239 0.0008468 0.0017061 -0.0011294 0.21069 -0.23037 0.0010822 0.0012421
-0.0011905 0.0013871 -0.0013268 -0.00036231
0.0012782 -0.0033272 -0.0010862 0.00023065 0.0010807 0.0012473 0.23512 -0.051404
-0.0017815 0.0066223 -0.00043114 -0.0022703
-0.00099758 0.00068857 -0.0011846 0.00081879 -0.0011898 0.0013925 -0.0017636 0.0066157
0.23603 0.082293 0.0040233 0.006634
0.00041832 -0.0005331 -0.00062275 0.00056011 -0.0013271 -0.00036013 -0.00043503 -0.0022742
0.004022 0.0066452 0.27682 0.12875
1820000000 0.25148 -0.1108 0.004441 0.0025463 -0.00016574 0.0024119 -0.00094534 -0.0031065
-0.00075684 0.00060753 -7.7452e-06 -0.00017992
0.0044427 0.0025393 0.25919 0.17024 -0.00027328 -0.00013148 -0.0013038 0.00084014
-0.00022114 0.0013701 -0.00050272 0.0005944
-0.00015707 0.0024178 -0.00027371 -0.00012991 0.16048 -0.24605 0.0015367 0.00042905
-0.0003843 0.0021244 -0.0014391 0.00054981
-0.00095919 -0.003101 -0.001295 0.00085155 0.0015427 0.00043597 0.20367 -0.098825
-0.00082652 0.0053041 -0.0016508 -0.0014053
-0.00076219 0.00061646 -0.00021326 0.0013703 -0.0003791 0.002131 -0.00081927 0.0052929
0.25239 0.050722 0.0048374 0.0031637
-1.3644e-05 -0.0001814 -0.0004977 0.00059912 -0.0014232 0.00055929 -0.0016534 -0.0013966
0.0048434 0.0031819 0.2783 0.092321
1880000000 0.21572 -0.1502 0.0022683 0.0003314 -0.000455 0.0022374 -0.002851 -0.0022469
-0.00021996 0.0013711 0.0002718 -0.00050025
0.0022721 0.00032114 0.26324 0.12364 -0.0022347 0.0015261 -0.00014912 0.0016713
0.00058468 0.0014653 0.00023843 0.0010159
-0.00043598 0.0022357 -0.002228 0.0015468 0.1085 -0.25537 0.0020109 -0.00092603
0.0014709 0.0020678 -0.0007865 0.0014393
-0.002857 -0.0022365 -0.00014243 0.0016708 0.00201 -0.0009188 0.16166 -0.13828
-0.00072922 0.0041021 -0.0024414 0.00065214
-0.00021859 0.0013662 0.00060447 0.0014622 0.0014777 0.0020639 -0.00072181 0.0040954
0.25374 0.016052 0.0044494 0.00099137
0.00027116 -0.00050432 0.00025079 0.0010121 -0.00078215 0.001441 -0.0024374 0.00066015
0.0044545 0.0010012 0.27715 0.058086
1940000000 0.17602 -0.17528 4.4728e-06 -0.0014244 0.0013243 0.0020273 -0.0037431 0.00054929
0.0010466 0.0010494 -0.00065274 -0.00057544
-2.7183e-06 -0.0014343 0.26334 0.091791 -0.001223 0.0037753 0.00093271 0.0013456
0.0020393 0.00069513 0.00094301 0.00026318
0.0013389 0.002027 -0.0011892 0.0037938 0.062501 -0.24901 0.00044866 -0.0023137
0.0024628 0.00058965 0.00054033 0.0016393
-0.0037379 0.00055948 0.00094348 0.0013389 0.00044322 -0.0023185 0.10832 -0.16736
-0.0019625 0.0035389 -0.0013388 0.0017669
0.0010546 0.0010486 0.0020528 0.00068017 0.0024637 0.00058708 -0.0019699 0.0035487
0.25291 -0.024889 0.0031871 -0.0020876
-0.00066828 -0.00056752 0.00093758 0.00025274 0.00053431 0.0016411 -0.0013308 0.0017731
0.0031878 -0.0020812 0.26538 0.021896
2000000000 0.1297 -0.18876 -0.003916 0.00065333 0.0024586 0.0016433 -0.002285 0.0036797
0.00097398 0.00041287 -0.00059076 0.00043476
-0.0039288 0.00064262 0.24874 0.056491 -0.0010133 0.0057122 0.0016686 0.00037431
0.0016273 -0.0014196 0.00054676 0.00011638
0.0024662 0.0016223 -0.00097241 0.0057229 0.018862 -0.23431 -0.0013973 -0.0015201
0.0021015 -0.0012163 0.0016448 0.0011912
-0.0022668 0.0036898 0.0016739 0.0003643 -0.0014005 -0.00153 0.055051 -0.17549
-0.0033771 0.0044272 0.00017743 0.0023839
0.00098288 0.00040504 0.0016131 -0.0014363 0.0020976 -0.0012257 -0.0033707 0.0044532
