!Keysight Technologies,M9804A,MY58100912,A.14.10.03
!Date: Thursday, April 27, 2023 10:28:33
!Correction: S11(C  6-Port  ) 
!S12(C  6-Port  ) 
!S13(C  6-Port  ) 
!S14(C  6-Port  ) 
!S15(C  6-Port  ) 
!S16(C  6-Port  ) 
!S21(C  6-Port  ) 
!S22(C  6-Port  ) 
!S23(C  6-Port  ) 
!S24(C  6-Port  ) 
!S25(C  6-Port  ) 
!S26(C  6-Port  ) 
!S31(C  6-Port  ) 
!S32(C  6-Port  ) 
!S33(C  6-Port  ) 
!S34(C  6-Port  ) 
!S35(C  6-Port  ) 
!S36(C  6-Port  ) 
!S41(C  6-Port  ) 
!S42(C  6-Port  ) 
!S43(C  6-Port  ) 
!S44(C  6-Port  ) 
!S45(C  6-Port  ) 
!S46(C  6-Port  ) 
!S51(C  6-Port  ) 
!S52(C  6-Port  ) 
!S53(C  6-Port  ) 
!S54(C  6-Port  ) 
!S55(C  6-Port  ) 
!S56(C  6-Port  ) 
!S61(C  6-Port  ) 
!S62(C  6-Port  ) 
!S63(C  6-Port  ) 
!S64(C  6-Port  ) 
!S65(C  6-Port  ) 
!S66(C  6-Port  ) 
!S6P File: Measurement: :
# Hz S  RI   R 50
500000000 -0.33729 -0.035392 -0.010132 -0.003452 -0.0080123 0.012052 -0.0034569 0.011668
0.012075 0.0044934 -0.0034551 0.0081454
-0.010113 -0.0034224 -0.41935 -0.049767 0.0073386 -0.01128 0.0015846 0.011864
0.0073179 0.0025848 0.00099136 0.013148
-0.0079086 0.012078 0.0073325 -0.01127 -0.26555 0.21146 0.0068341 0.0031013
-0.00052813 0.0088744 0.0006722 0.01188
-0.003494 0.011685 0.0016972 0.011944 0.0068856 0.0031233 -0.32768 0.046905
-0.020103 -0.0042192 0.017498 0.025005
0.012086 0.0047329 0.0072434 0.0025177 -0.00052096 0.0088501 -0.020109 -0.0042089
-0.22602 -0.18464 -0.02752 0.0048687
-0.0036873 0.0082699 0.0010785 0.013342 0.00069565 0.011955 0.017496 0.024988
-0.02753 0.0048546 -0.27304 -0.11389
560000000 -0.31613 0.12456 -0.024177 -0.062872 0.00033328 0.012116 0.0063086 0.0098242
0.010506 0.0042146 0.009961 0.0074163
-0.024048 -0.062794 -0.37681 0.10892 -0.042159 -0.036132 0.013433 0.0038196
-0.013685 -0.0046189 0.0041088 -0.00071332
0.00029785 0.012151 -0.042237 -0.036105 -0.18295 0.25975 -0.00049523 -0.0048601
0.019554 0.0045673 0.0069818 -0.0057457
0.0063799 0.0099447 0.013476 0.0038357 -0.00051934 -0.0048163 -0.30282 0.13656
0.0035693 -0.024508 0.0044937 -0.019479
0.010687 0.0043569 -0.013669 -0.004553 0.019454 0.0045214 0.0035564 -0.024506
-0.28591 -0.0086055 0.007366 -0.049457
0.0099804 0.0073997 0.0041666 -0.0005975 0.006902 -0.0057759 0.0044886 -0.019504
0.0073824 -0.049472 -0.33121 0.032902
620000000 -0.27335 0.10959 -0.023263 0.0076602 0.0036117 0.0084869 0.006635 -0.0055412
0.011629 -0.00051457 0.00050865 -0.0022856
-0.023236 0.0076695 -0.4029 0.062801 -0.018639 0.00032765 -0.0011272 -0.0018451
0.010517 -0.007174 0.0013745 -0.0026426
0.0036631 0.0085279 -0.018642 0.00035199 -0.15256 0.2687 -0.0014438 -0.0051546
-0.0035093 -0.0033744 0.0083205 -0.0035225
0.006636 -0.0055261 -0.0011802 -0.0018881 -0.0014365 -0.0051631 -0.26204 0.14649
-0.038695 -0.018349 0.014317 0.024101
0.011604 -0.00068383 0.01051 -0.0071779 -0.003586 -0.0033699 -0.038723 -0.018323
-0.20514 -0.048976 -0.040148 0.014535
0.00059054 -0.0022584 0.0014016 -0.0026605 0.008334 -0.0035883 0.014332 0.024105
-0.040148 0.014532 -0.24986 -0.0031648
680000000 -0.2334 0.19378 -0.027895 -0.013565 0.0048206 0.004933 0.0010794 -0.00762
-0.0030075 -0.010937 0.0043381 -0.0066782
-0.027844 -0.013613 -0.38713 0.15999 -0.032483 -0.0011645 -0.0016602 -0.00031678
-0.002663 -0.0090016 -0.0009216 -0.0020612
0.0048718 0.0049062 -0.032493 -0.0010681 -0.1014 0.28797 -0.00084214 -8.2961e-05
-0.0021953 0.00056219 -0.0027566 -0.0093831
0.0010826 -0.0076528 -0.0016284 -0.00030514 -0.00085178 -7.955e-05 -0.21901 0.1959
-0.023435 -0.0078119 -0.0084575 -0.010368
-0.0031884 -0.010921 -0.0027264 -0.0090339 -0.002227 0.00055421 -0.023463 -0.0077887
-0.2526 0.049182 -0.0056719 -0.0090711
0.0042415 -0.0066961 -0.00093383 -0.0020523 -0.0027658 -0.0093743 -0.0084317 -0.010367
-0.0056664 -0.0090721 -0.25882 0.099411
740000000 -0.18957 0.1888 -0.038296 0.026864 0.01264 -0.0053097 -0.0007156 -0.0039909
-0.0046953 -0.0027542 -0.0061584 0.0031396
-0.038241 0.026743 -0.33424 0.17821 -0.034538 0.035263 -0.00084502 -0.006497
-0.012131 0.0077256 -0.0024688 -0.0061032
0.012616 -0.0053041 -0.03444 0.035377 -0.067756 0.28625 -0.0015575 0.0033124
-0.0026711 -0.0042151 -0.0013281 0.00030256
-0.00071684 -0.0040042 -0.00081241 -0.006515 -0.0015389 0.0033127 -0.20205 0.20325
-0.042374 -0.0081031 0.022216 0.013278
-0.0047115 -0.0026595 -0.012111 0.0077828 -0.0027634 -0.00419 -0.042418 -0.008049
-0.15681 0.074761 -0.04114 0.00036508
-0.0063038 0.0032442 -0.0025011 -0.0060399 -0.0012974 0.00029182 0.022244 0.013248
-0.041137 0.00033925 -0.24636 0.10514
800000000 -0.15699 0.22847 -0.022047 0.017255 0.005301 -0.010563 -0.004732 -0.001989
-0.004078 0.0025054 0.004273 0.0010453
-0.022044 0.017244 -0.33695 0.24861 -0.0075462 0.033906 -0.0022209 0.0022336
-0.00078726 0.0033186 0.0010436 0.0053745
0.005226 -0.010586 -0.0074621 0.033966 -0.026658 0.30891 0.0010787 0.0016459
0.00057969 0.003615 -0.0017408 0.00094765
-0.0047974 -0.0020217 -0.0021505 0.0022373 0.0010676 0.0016451 -0.17381 0.23075
-0.027939 0.012515 0.012916 -0.0098948
-0.004135 0.0025429 -0.0007701 0.0033464 0.00061519 0.003628 -0.027936 0.01257
-0.20041 0.097397 -0.017121 0.017202
0.0042628 0.00082435 0.0011653 0.0053809 -0.001744 0.00095465 0.012911 -0.0099254
-0.017141 0.017197 -0.23748 0.15666
860000000 -0.12225 0.2492 -0.016798 0.030962 -0.0033094 -0.0098604 -0.0023786 0.0011653
0.0041108 0.0050824 -0.0029513 -0.0026575
-0.016783 0.030946 -0.28898 0.29028 0.0082718 0.033956 0.00019436 0.0021139
0.0042623 0.00042758 0.003289 0.00044321
-0.0033264 -0.0098624 0.0083597 0.03394 0.021421 0.31657 -0.00037986 -0.00023307
0.0028758 -0.0015558 0.0016011 0.004236
-0.0024566 0.0011317 0.00017971 0.0021196 -0.00038511 -0.00024393 -0.13802 0.24223
-0.017621 0.01856 -0.0060448 -0.0088249
0.0040569 0.0050155 0.0042325 0.00044736 0.0028539 -0.0015536 -0.017594 0.018599
-0.15032 0.14545 -0.023929 0.014949
-0.0029353 -0.0027473 0.0033081 0.00038786 0.0016156 0.0042464 -0.0060462 -0.0088213
-0.023926 0.014934 -0.18755 0.19832
920000000 -0.097027 0.27213 0.0055289 0.037286 -0.0093267 -0.0043928 -0.0018992 0.0021969
0.0015236 0.0016511 0.0025035 -0.0014218
0.0055372 0.037286 -0.25998 0.31078 0.028025 0.021402 0.0015746 0.0010968
0.0069674 -0.00071899 0.003921 -0.0030975
-0.0093373 -0.0044174 0.0281 0.021356 0.067576 0.31693 0.0018108 -0.00014923
0.0012512 -0.00050727 0.00076466 -0.0011904
-0.0019458 0.0021641 0.0015702 0.0010732 0.0018015 -0.00015307 -0.1138 0.25845
-0.01018 0.029798 0.0027197 -0.0065902
0.0015688 0.0015889 0.0070088 -0.00074609 0.0012529 -0.00051317 -0.010129 0.029833
-0.14038 0.15075 -0.0021364 0.026838
0.0024928 -0.0015353 0.0039301 -0.00312 0.00076728 -0.0011894 0.0027142 -0.0066038
-0.002149 0.026823 -0.19273 0.21224
980000000 -0.049578 0.29164 0.017932 0.029506 -0.0088483 0.0045245 0.0022969 0.0037554
0.0040109 -0.0017882 -0.0029181 -0.0021099
0.017891 0.029524 -0.20728 0.3444 0.032735 0.0043992 0.0019872 1.086e-05
0.0012611 -0.0063642 -0.00054325 -0.0021606
-0.0088329 0.0045705 0.032757 0.0043059 0.1138 0.31013 0.00042853 -0.0011976
8.7463e-05 -0.0021501 0.001391 -1.2303e-05
0.0023306 0.003712 0.0019845 9.5462e-06 0.00043445 -0.0012018 -0.075781 0.26964
0.007513 0.028271 -0.0091002 -0.0066672
0.0040138 -0.0018114 0.0012069 -0.0063372 8.4975e-05 -0.0021438 0.0075825 0.02827
-0.10842 0.17824 0.0048402 0.018485
-0.0029149 -0.0021044 -0.00055352 -0.0021403 0.0013883 -1.8055e-05 -0.0091045 -0.0066471
0.0048215 0.018471 -0.14967 0.25684
1040000000 -0.0069244 0.29972 0.033107 0.017416 -0.0012143 0.0067232 0.0027281 0.00078519
2.0422e-06 -0.0037411 -0.00071783 -0.0015728
0.033097 0.01743 -0.17192 0.35727 0.028885 -0.014958 0.0014913 -0.0017023
-0.0025601 -0.0025429 -0.001509 -0.0027871
-0.0012034 0.0067382 0.028846 -0.015054 0.15987 0.29626 -0.00052879 -0.0014227
-0.0016207 -0.00082888 -0.00050922 -0.0010994
0.0027266 0.0007652 0.001503 -0.0017136 -0.00053218 -0.0014403 -0.048563 0.27967
0.018094 0.01689 -0.0030933 0.001903
-3.7116e-05 -0.0037249 -0.0025993 -0.0025153 -0.0016166 -0.00083754 0.018145 0.016857
-0.078181 0.18664 0.013332 0.017539
-0.0006662 -0.0016011 -0.0015232 -0.0027733 -0.00049489 -0.0011066 -0.0030841 0.0019106
0.013318 0.017533 -0.12763 0.27567
1100000000 0.038563 0.30697 0.03538 -0.0048518 0.0027298 0.0037013 0.0026222 -0.0013198
-0.0021805 -0.0030737 -0.0039446 0.00014525
0.035367 -0.0048262 -0.1285 0.3741 0.014701 -0.027625 5.9661e-05 -0.0018066
-0.0033084 -0.00048868 -0.0033455 -0.00048996
0.0027432 0.0036904 0.014604 -0.02772 0.20612 0.27567 -0.0017686 0.00025316
-0.0017845 0.0007018 -0.00095846 -0.0002367
0.0025917 -0.001315 2.9951e-05 -0.0018203 -0.0017746 0.00025288 -0.0082257 0.28467
0.022443 0.0048309 -0.0024424 0.00087789
-0.002177 -0.0030592 -0.0033271 -0.00049092 -0.0017833 0.00070791 0.022462 0.0047929
-0.059796 0.19971 0.018427 0.0082945
-0.0039555 0.00015403 -0.0033766 -0.00043478 -0.00095813 -0.00022067 -0.0024418 0.00088062
0.018416 0.0083011 -0.080739 0.30308
1160000000 0.090027 0.30164 0.023273 -0.020936 0.0024662 -0.00040162 -5.1549e-05 -0.0025198
-0.0040323 -0.0004421 -0.00097272 0.0038371
0.023266 -0.02091 -0.084912 0.37829 -0.0039799 -0.02874 -0.0017482 -0.0016774
-0.002489 0.0027408 -0.0012172 0.0015351
0.0024858 -0.00042186 -0.0041048 -0.028746 0.24897 0.24462 -0.00065315 0.001751
-0.00034394 0.0018966 -0.00090021 0.00010882
-4.8461e-05 -0.0025067 -0.0017521 -0.0016452 -0.00064823 0.0017367 0.030952 0.28191
0.018954 -0.0096403 -0.0027002 0.0056144
-0.003997 -0.00044324 -0.0025027 0.0027707 -0.00034207 0.0018951 0.01895 -0.0096722
-0.027051 0.20885 0.016982 0.00044793
-0.00096327 0.0038858 -0.0012367 0.0015862 -0.00090348 0.00011002 -0.0026885 0.0056109
0.016992 0.00043878 -0.034031 0.30547
1220000000 0.13447 0.29 0.0096622 -0.029767 -0.0016566 -0.00058812 -6.9811e-05 -0.0012146
-0.0025655 0.0025725 0.0012955 0.0019027
0.0096761 -0.029745 -0.040825 0.38995 -0.016882 -0.020764 -0.0025101 0.00043221
0.00028609 0.0029693 -0.00064793 0.0017765
-0.0016537 -0.0006007 -0.01699 -0.020706 0.28794 0.20547 0.00088924 0.0016276
0.00065936 0.0011266 0.00029022 0.00070825
-6.9634e-05 -0.001228 -0.0025041 0.00044518 0.00089231 0.0016241 0.07058 0.27374
0.0090601 -0.015224 0.0025833 0.0018016
-0.0025356 0.0025582 0.00029979 0.0029712 0.00065208 0.0011171 0.0090402 -0.015228
-0.0040926 0.2183 0.013084 -0.012141
0.0013237 0.0018865 -0.00064276 0.0017839 0.00027064 0.00070577 0.0025842 0.0018053
0.01308 -0.012133 -0.0021325 0.32066
1280000000 0.18399 0.2674 -0.0082979 -0.027845 -0.0017542 0.0027204 -0.001126 -0.0020789
-0.00059141 0.0030571 0.0025317 0.0010052
-0.008279 -0.027829 0.0049971 0.38097 -0.023532 -0.0082386 -0.0010387 0.0015138
0.0017157 0.0015911 0.00055329 0.0019386
-0.0017556 0.0027525 -0.023596 -0.0081382 0.31824 0.16161 0.0014577 -0.00017127
0.0010571 3.3377e-05 0.00031321 0.00034865
-0.0011232 -0.0020741 -0.0010423 0.0015199 0.0014618 -0.00016154 0.10711 0.25787
0.00042553 -0.016865 0.00049495 0.000235
-0.00060173 0.0030553 0.0017201 0.0015731 0.0010532 1.4463e-05 0.00039783 -0.016873
0.032638 0.22242 0.0025715 -0.01402
0.0025527 0.001002 0.00058212 0.0019305 0.00030871 0.00034804 0.00049685 0.00023572
0.0025752 -0.014017 0.045053 0.32079
1340000000 0.22077 0.23326 -0.017722 -0.018273 0.0010367 0.0045091 -0.0020279 -0.00076859
0.0015097 0.002609 0.0017294 -0.0015071
-0.017692 -0.018282 0.044472 0.37259 -0.021366 0.004324 -1.5163e-05 0.0020015
0.0017842 0.00054006 0.0013146 0.00089544
0.0010194 0.0044876 -0.021352 0.0044318 0.34026 0.1136 0.00097375 -0.00091445
0.000618 -0.00041094 0.000122 0.00023312
-0.0020489 -0.00075365 -1.4263e-05 0.0020038 0.00097581 -0.00091111 0.1403 0.23803
-0.0076162 -0.013993 0.0013059 0.00017744
0.0015075 0.002579 0.0017919 0.0005352 0.00060923 -0.00041103 -0.0076452 -0.013985
0.06303 0.21835 -0.0035442 -0.012674
0.0017058 -0.001516 0.0013076 0.00089313 0.00012194 0.00023226 0.0013058 0.00017673
-0.0035336 -0.012675 0.083364 0.3152
1400000000 0.25349 0.19467 -0.023041 -0.0069283 0.0052465 0.0030375 -0.0020566 0.00083736
0.0025361 0.00073379 0.0001777 -0.0014022
-0.023032 -0.0069432 0.081575 0.35947 -0.01463 0.012351 0.0013932 0.0012796
0.00097173 -0.00087635 0.0011556 0.00022617
0.0052535 0.003012 -0.014582 0.01244 0.35323 0.060056 5.2265e-05 -0.0014479
1.459e-05 -0.0003235 0.00030365 0.00012969
-0.0020498 0.00083044 0.001398 0.0012725 6.0325e-05 -0.0014584 0.1704 0.2096
-0.012442 -0.0080329 -0.00043548 -0.00071696
0.0025227 0.00068791 0.00096605 -0.00088178 2.4857e-05 -0.0003228 -0.012467 -0.0080008
0.096309 0.2139 -0.0096102 -0.0079886
0.00017322 -0.001424 0.0011674 0.00021648 0.00032453 0.00013952 -0.00043256 -0.0007146
-0.0095968 -0.0080039 0.12728 0.30355
1460000000 0.27602 0.15034 -0.019917 0.004914 0.0056557 -0.0018431 -0.0014575 0.0018644
0.0019757 -0.00074615 -0.00040375 -0.0008867
-0.019893 0.0049069 0.11584 0.33756 -0.0060195 0.015184 0.0017247 0.00014053
0.00079225 -0.0011295 0.0012015 -0.00063872
0.0056343 -0.0018559 -0.0059466 0.015216 0.35919 0.0055866 -0.0011243 -0.0011861
0.0002381 -6.3697e-05 0.00068771 -0.00039638
-0.0014531 0.0018589 0.0017261 0.00011723 -0.0011189 -0.0011735 0.19762 0.18045
-0.013022 -0.0025155 -0.00094092 0.0014279
0.0019739 -0.00076099 0.00077422 -0.001137 0.00022963 -5.1629e-05 -0.013027 -0.002486
0.1265 0.19936 -0.011073 -0.0025704
-0.00040135 -0.00088286 0.0011816 -0.00062047 0.0007034 -0.00039005 -0.00094008 0.0014352
-0.011061 -0.0025729 0.1604 0.28185
1520000000 0.2879 0.1084 -0.014236 0.010264 0.0031932 -0.0042694 0.00021529 0.0026063
0.0016984 -0.0017321 -0.0011676 -0.00010783
-0.01422 0.010252 0.14937 0.3226 0.0015414 0.013023 0.0015807 -0.00083838
5.9572e-05 -0.00082968 0.00033396 -0.0010179
0.0031626 -0.0042753 0.0016105 0.013009 0.35237 -0.05064 -0.00097606 -0.00035029
0.00058534 -0.00083561 -3.1831e-05 -7.6013e-05
0.00021978 0.0025941 0.0015714 -0.00084422 -0.00096886 -0.00035294 0.22166 0.14205
-0.01239 0.0020324 0.0010732 0.0016743
0.0016742 -0.0017472 6.4076e-05 -0.00084212 0.00057766 -0.00083789 -0.012385 0.0020666
0.15504 0.18478 -0.01098 0.0016024
-0.0011505 -0.00010146 0.00033356 -0.0010206 -4.3119e-05 -5.7079e-05 0.0010817 0.0016694
-0.010976 0.0015982 0.19295 0.26057
1580000000 0.29682 0.061656 -0.0077157 0.013081 -0.00092983 -0.0049308 0.001451 0.00176
-0.00051331 -0.0020796 -0.0003778 0.00039702
-0.0077298 0.013078 0.17661 0.29762 0.0051909 0.0082323 0.00039883 -0.0015795
-0.00036541 -0.00096745 -0.00022958 -0.00090659
-0.00096172 -0.004922 0.0052501 0.008207 0.33196 -0.10823 -0.0015043 0.00045731
-0.00026624 -0.0011459 0.00015531 -0.00051802
0.0014595 0.0017509 0.00038856 -0.001581 -0.0014931 0.00046203 0.23639 0.1019
-0.0096448 0.0059342 0.0018755 0.00055539
-0.00053374 -0.0021006 -0.00037029 -0.00098292 -0.00026202 -0.0011498 -0.0096322 0.005965
0.18001 0.16619 -0.0085968 0.0068815
-0.0003699 0.00039481 -0.00024255 -0.00090477 0.00013498 -0.00052559 0.0018745 0.00054478
-0.0086102 0.0068805 0.22422 0.23307
1640000000 0.29819 0.019928 -0.0013224 0.011938 -0.0028346 -0.0026133 0.0025639 0.00091194
-0.00086525 -0.0011394 -0.00026241 0.00062512
-0.0013249 0.011941 0.20595 0.27228 0.005824 0.0034311 -0.00073682 -0.0016202
-0.00089921 -0.00051086 -0.00056002 -0.00068821
-0.0028391 -0.0026034 0.0058417 0.0033969 0.30364 -0.15752 -0.00082179 0.0013461
-0.0010851 -0.00090393 -0.00015383 -0.00034223
0.0025623 0.00091052 -0.00075677 -0.0016154 -0.00081852 0.0013315 0.24893 0.051803
-0.0062463 0.0067601 0.0021575 -0.00074457
-0.0008769 -0.0011244 -0.00089165 -0.0004993 -0.001079 -0.00088887 -0.0062306 0.0067756
0.20344 0.14064 -0.0042402 0.0088894
-0.00026934 0.00063759 -0.00056656 -0.00068219 -0.00014332 -0.00034745 0.0021522 -0.00075781
-0.0042563 0.0088853 0.24944 0.20136
1700000000 0.29013 -0.025505 0.0019521 0.0092254 -0.0035304 6.3936e-05 0.0028771 -0.001161
-0.0018382 -0.00044068 0.00066423 0.00043443
0.0019499 0.0092182 0.22389 0.24053 0.0038979 0.00061128 -0.0013964 -0.00052701
-0.00079716 -9.3921e-05 -0.00098255 -0.00040623
-0.0035597 9.1041e-05 0.0038943 0.00057516 0.25987 -0.19747 0.00032655 0.0015744
-0.001776 -0.00019323 -0.00063338 -0.00098021
0.002862 -0.0011941 -0.0013999 -0.00052801 0.00032174 0.0015772 0.2453 0.0007307
-0.00435 0.0072571 0.0012107 -0.002118
-0.0018516 -0.00043547 -0.00079344 -9.4474e-05 -0.0017658 -0.00020219 -0.0043305 0.0072644
0.22113 0.11894 0.00014459 0.0090347
0.00065548 0.00042717 -0.00098547 -0.00038878 -0.00062138 -0.00096701 0.0012021 -0.0021177
0.00014925 0.0090334 0.26497 0.1667
1760000000 0.27697 -0.07394 0.004193 0.0060761 -0.0023261 0.0008677 0.0012716 -0.0032967
-0.001012 0.00066357 0.00042714 -0.00051824
0.004192 0.006063 0.24959 0.20042 0.0016659 -0.001139 -0.0010862 0.00022271
-0.0012177 0.00083517 -0.00061773 0.00055792
-0.0023322 0.0008771 0.001654 -0.0011357 0.21069 -0.23045 0.0010888 0.0012692
-0.0012138 0.0013831 -0.0013641 -0.00038079
0.0012651 -0.0033299 -0.0010884 0.00022109 0.0010947 0.0012684 0.2349 -0.051632
-0.0019234 0.0067634 -0.00045746 -0.0022228
-0.0010049 0.00068178 -0.0012044 0.00085171 -0.0012042 0.0013749 -0.0019142 0.0067639
0.23586 0.081997 0.0038939 0.0064984
0.00040382 -0.00051888 -0.00062108 0.0005619 -0.0013703 -0.00037681 -0.00047009 -0.0022209
0.0038866 0.0065073 0.27689 0.12858
1820000000 0.25149 -0.11088 0.0044102 0.002596 -0.00013115 0.0024439 -0.00094485 -0.0030967
-0.00076264 0.00060578 -2.6209e-06 -0.00017628
0.0044198 0.0025975 0.25916 0.17014 -0.00033266 -8.7584e-05 -0.0013218 0.00083947
-0.00022478 0.0014011 -0.0004933 0.00058709
-0.0001445 0.00245 -0.00034142 -9.1465e-05 0.16049 -0.24605 0.0015366 0.00040322
-0.00041057 0.0021261 -0.001416 0.00055126
-0.00095254 -0.0030823 -0.0013231 0.00084323 0.001517 0.00041537 0.2034 -0.098904
-0.00090711 0.0054671 -0.001645 -0.0013771
-0.00077669 0.00061695 -0.00020748 0.001399 -0.00039549 0.0021353 -0.00089229 0.0054654
0.25223 0.050557 0.0046708 0.003103
-1.3351e-05 -0.00017376 -0.00049089 0.00059566 -0.0014213 0.00053102 -0.0016506 -0.0013715
0.0046713 0.0030941 0.27831 0.092124
1880000000 0.21573 -0.15031 0.0022636 0.00041053 -0.00041926 0.0022589 -0.0028187 -0.0022183
-0.00022994 0.0013923 0.00027978 -0.00052706
0.0022685 0.00038941 0.2632 0.12358 -0.0022457 0.0015912 -0.00015728 0.0016877
0.00061847 0.0014775 0.00026304 0.0010024
-0.00041287 0.0022653 -0.0022467 0.001612 0.10849 -0.25537 0.0020439 -0.00098213
0.0014853 0.0020751 -0.00078045 0.0014341
-0.0028545 -0.0022209 -0.00014418 0.0016711 0.0020267 -0.00096845 0.16137 -0.13821
-0.00073527 0.00427 -0.0023897 0.00067883
-0.00022064 0.0013842 0.0006452 0.0014848 0.001483 0.0020649 -0.0007162 0.004269
0.25355 0.015904 0.0042867 0.00097927
0.00028562 -0.00049479 0.00025193 0.0010204 -0.00078475 0.0014087 -0.0023925 0.00068319
0.0042909 0.00097918 0.27718 0.057896
1940000000 0.17595 -0.17538 3.0138e-05 -0.0013675 0.0013568 0.00201 -0.0037336 0.00056057
0.0010467 0.0010547 -0.0006105 -0.00061304
2.8165e-05 -0.0013945 0.26328 0.091776 -0.0012189 0.003833 0.000943 0.0013428
0.0020936 0.0006605 0.00095394 0.00027202
0.0013609 0.0020112 -0.0011826 0.0038526 0.062402 -0.24908 0.00041028 -0.0023261
0.0024787 0.00061129 0.00049836 0.0015965
-0.0037326 0.00055119 0.00095919 0.0013432 0.0004062 -0.0023217 0.10818 -0.16715
-0.0018873 0.0037239 -0.0013202 0.0017946
0.0010739 0.0010527 0.0021011 0.00064902 0.0024513 0.00059761 -0.0018778 0.0037295
0.25272 -0.024874 0.0029952 -0.0020102
-0.00063297 -0.00057861 0.00094269 0.00026158 0.00049733 0.001635 -0.0013062 0.0018004
0.0029891 -0.0020148 0.26534 0.021758
2000000000 0.12966 -0.18884 -0.0038923 0.00069997 0.0024676 0.0015762 -0.0022863 0.0036495
0.00096998 0.00041387 -0.00062895 0.00037719
-0.0038784 0.00066079 0.24872 0.056459 -0.0009734 0.0057213 0.0016714 0.00034719
0.0016408 -0.0014536 0.000555 0.00011877
0.0024606 0.001597 -0.00092112 0.0057434 0.018857 -0.23443 -0.0014488 -0.0015072
0.0020613 -0.001234 0.001671 0.0012005
-0.0022727 0.0036628 0.001679 0.000341 -0.0014716 -0.0015069 0.055102 -0.17522
-0.0032675 0.0045961 0.00020694 0.0023596
0.0010159 0.00040032 0.0016047 -0.0014762 0.0020496 -0.0012505 -0.0032581 0.0046079
0.24367 -0.05969 -0.00031335 -0.0025445
