!Keysight Technologies,M9804A,MY58100912,A.14.10.03
!Date: Thursday, April 27, 2023 10:28:33
!Correction: S11(C  6-Port  ) 
!S12(C  6-Port  ) 
!S13(C  6-Port  ) 
!S14(C  6-Port  ) 
!S15(C  6-Port  ) 
!S16(C  6-Port  ) 
!S21(C  6-Port  ) 
!S22(C  6-Port  ) 
!S23(C  6-Port  ) 
!S24(C  6-Port  ) 
!S25(C  6-Port  ) 
!S26(C  6-Port  ) 
!S31(C  6-Port  ) 
!S32(C  6-Port  ) 
!S33(C  6-Port  ) 
!S34(C  6-Port  ) 
!S35(C  6-Port  ) 
!S36(C  6-Port  ) 
!S41(C  6-Port  ) 
!S42(C  6-Port  ) 
!S43(C  6-Port  ) 
!S44(C  6-Port  ) 
!S45(C  6-Port  ) 
!S46(C  6-Port  ) 
!S51(C  6-Port  ) 
!S52(C  6-Port  ) 
!S53(C  6-Port  ) 
!S54(C  6-Port  ) 
!S55(C  6-Port  ) 
!S56(C  6-Port  ) 
!S61(C  6-Port  ) 
!S62(C  6-Port  ) 
!S63(C  6-Port  ) 
!S64(C  6-Port  ) 
!S65(C  6-Port  ) 
!S66(C  6-Port  ) 
!S6P File: Measurement: :
# Hz S  RI   R 50
500000000 -0.3373 -0.035167 -0.010086 -0.0034489 -0.0079594 0.012097 -0.0034567 0.011669
0.012069 0.0044658 -0.0034524 0.0081325
-0.010074 -0.0034451 -0.4195 -0.049737 0.0072657 -0.011262 0.00158 0.011876
0.0073174 0.002594 0.00098135 0.01316
-0.0079308 0.012092 0.0072506 -0.011296 -0.26565 0.21146 0.0068294 0.0031272
-0.00053048 0.008903 0.00065688 0.011872
-0.0034424 0.011667 0.0016083 0.011891 0.0068323 0.0031236 -0.32766 0.046949
-0.020077 -0.0042171 0.017512 0.025011
0.012083 0.0044445 0.0073279 0.0025734 -0.00051782 0.0088996 -0.020079 -0.0041918
-0.22602 -0.18461 -0.027525 0.0048877
-0.0034358 0.0081437 0.0010129 0.013167 0.00066168 0.011875 0.017506 0.025009
-0.027524 0.004881 -0.27308 -0.1138
560000000 -0.31635 0.12468 -0.024113 -0.062768 0.00031236 0.012143 0.0063097 0.0098328
0.010491 0.004203 0.0099758 0.0073995
-0.024079 -0.062719 -0.37675 0.10899 -0.042194 -0.036141 0.01346 0.0038152
-0.013674 -0.0046034 0.0040949 -0.00067993
0.0003562 0.012142 -0.04232 -0.036088 -0.18291 0.25979 -0.00049022 -0.0048516
0.019553 0.0045569 0.0069831 -0.0057622
0.0063382 0.0098125 0.013461 0.0038119 -0.0004899 -0.004868 -0.30279 0.1366
0.0035695 -0.024501 0.0044721 -0.019491
0.010515 0.0041826 -0.013708 -0.0045941 0.019559 0.0045487 0.0035521 -0.02451
-0.28589 -0.0086027 0.0073509 -0.049434
0.0099952 0.0073864 0.0040859 -0.00072043 0.0069792 -0.0057556 0.0044708 -0.019497
0.0073751 -0.049447 -0.3312 0.032942
620000000 -0.27336 0.10966 -0.023236 0.007636 0.0036559 0.0085071 0.0066441 -0.0055339
0.011622 -0.0005029 0.00050578 -0.0022856
-0.023239 0.0076352 -0.40293 0.062872 -0.018656 0.00034667 -0.0011165 -0.0018577
0.010513 -0.007173 0.0013704 -0.0026362
0.0036753 0.0084979 -0.018669 0.00039381 -0.15257 0.26873 -0.0014346 -0.0051445
-0.0035178 -0.0033806 0.008336 -0.0035177
0.0066429 -0.0055587 -0.0011263 -0.0018542 -0.0014421 -0.0051405 -0.26203 0.14653
-0.038703 -0.018357 0.014312 0.024098
0.011639 -0.00053511 0.010504 -0.0072096 -0.0035125 -0.0033836 -0.038705 -0.018333
-0.20514 -0.049 -0.040148 0.014524
0.00049927 -0.0022838 0.0013683 -0.0026559 0.0083283 -0.0035228 0.014332 0.024102
-0.040166 0.014514 -0.24987 -0.0030972
680000000 -0.23309 0.19394 -0.027902 -0.013559 0.0048297 0.0049295 0.0010753 -0.0076268
-0.0030155 -0.010946 0.004315 -0.0066742
-0.027872 -0.013565 -0.38713 0.16003 -0.032481 -0.001181 -0.0016652 -0.00032291
-0.0026615 -0.0089954 -0.00091931 -0.0020583
0.004834 0.0049303 -0.032502 -0.00111 -0.10138 0.28797 -0.00084695 -7.8473e-05
-0.0021931 0.00056598 -0.0027569 -0.0093829
0.0010676 -0.0076208 -0.0016657 -0.00031376 -0.00084515 -7.7452e-05 -0.219 0.19592
-0.023443 -0.0078055 -0.0084429 -0.010361
-0.0030454 -0.010943 -0.0026867 -0.009004 -0.0021932 0.00056845 -0.023464 -0.0077855
-0.25259 0.049212 -0.0056635 -0.0090538
0.0043022 -0.0066964 -0.00093051 -0.0020507 -0.0027609 -0.0093896 -0.0084428 -0.010346
-0.0056589 -0.0090604 -0.25882 0.099516
740000000 -0.18947 0.18845 -0.038325 0.026967 0.012642 -0.0053212 -0.00070813 -0.0039886
-0.0046906 -0.0027225 -0.0061763 0.0031706
-0.038315 0.026914 -0.33425 0.17821 -0.034527 0.035251 -0.00082627 -0.006488
-0.012138 0.007725 -0.0024465 -0.0060938
0.012617 -0.0053469 -0.034453 0.035385 -0.067709 0.28625 -0.0015496 0.0033147
-0.0026715 -0.004206 -0.0013196 0.00030825
-0.00071752 -0.0039849 -0.00084291 -0.0064954 -0.0015538 0.0033235 -0.20204 0.20326
-0.042395 -0.0081031 0.022224 0.013272
-0.0047238 -0.002701 -0.012118 0.007799 -0.0026892 -0.0042081 -0.042433 -0.0080435
-0.15681 0.074777 -0.041129 0.00034327
-0.0061636 0.0031768 -0.002472 -0.0061123 -0.0013203 0.00030417 0.022239 0.01324
-0.041113 0.00030607 -0.24634 0.10527
800000000 -0.15694 0.22842 -0.022045 0.017242 0.0053063 -0.010571 -0.0047351 -0.0019851
-0.0040738 0.0024839 0.0042634 0.0010413
-0.022035 0.017226 -0.33697 0.24859 -0.007527 0.033908 -0.002225 0.0022394
-0.00078712 0.0033086 0.0010444 0.0053855
0.0052876 -0.010588 -0.007448 0.033958 -0.026628 0.30891 0.0010771 0.0016412
0.00057809 0.0036211 -0.0017392 0.00095485
-0.0047337 -0.0019804 -0.0022178 0.0022547 0.0010813 0.0016531 -0.17381 0.23075
-0.027945 0.012506 0.012903 -0.0098955
-0.0040826 0.0025101 -0.00076585 0.0033273 0.00057947 0.0036222 -0.027933 0.012557
-0.20039 0.097415 -0.017114 0.017211
0.0042946 0.0010239 0.0010672 0.0053921 -0.0017432 0.00096018 0.012904 -0.0099151
-0.017132 0.017189 -0.23748 0.15666
860000000 -0.12216 0.24926 -0.016753 0.030971 -0.0033074 -0.0098587 -0.0023783 0.0011635
0.0041132 0.0050901 -0.0029607 -0.0026553
-0.016751 0.030942 -0.28891 0.29031 0.0082641 0.033958 0.00019121 0.0021169
0.0042694 0.00043361 0.0032847 0.00044717
-0.003332 -0.0098525 0.0083617 0.033959 0.02142 0.31658 -0.00038196 -0.00023326
0.0028864 -0.0015602 0.0015916 0.0042338
-0.0023776 0.0011721 0.0002067 0.0021213 -0.00038357 -0.00023382 -0.13802 0.24223
-0.017623 0.018565 -0.0060299 -0.0088156
0.0041376 0.005074 0.0042728 0.00041331 0.0028861 -0.0015638 -0.017605 0.018611
-0.15031 0.14548 -0.023913 0.014937
-0.0029711 -0.0026483 0.0032976 0.00043276 0.0015995 0.0042375 -0.0060418 -0.0088104
-0.02392 0.01492 -0.18756 0.19831
920000000 -0.097044 0.27213 0.0055628 0.037327 -0.0093152 -0.0043738 -0.0019046 0.002201
0.001524 0.0016447 0.0025061 -0.0014334
0.0055365 0.037298 -0.25993 0.31079 0.028039 0.021411 0.0015794 0.0010922
0.0069701 -0.00072215 0.0039125 -0.0030875
-0.009322 -0.0043629 0.028124 0.021351 0.067589 0.31693 0.0018069 -0.00014538
0.0012505 -0.00050596 0.00076062 -0.0011973
-0.0019121 0.0022003 0.0015954 0.0010968 0.0018096 -0.00014956 -0.11381 0.25845
-0.010194 0.029799 0.0027153 -0.0065974
0.0015355 0.0016318 0.0069663 -0.00074527 0.0012418 -0.00050633 -0.010135 0.029837
-0.14038 0.15075 -0.0021348 0.026837
0.0025 -0.0014414 0.0039084 -0.0031116 0.0007617 -0.0011905 0.0027091 -0.0066007
-0.0021524 0.026827 -0.19271 0.21224
980000000 -0.04957 0.29167 0.017929 0.029521 -0.0088545 0.0045284 0.0023014 0.0037594
0.0040167 -0.0017897 -0.0028956 -0.0021102
0.017895 0.029491 -0.20723 0.34442 0.032736 0.0043971 0.0019781 1.4075e-05
0.0012571 -0.0063704 -0.00057982 -0.0021512
-0.0088271 0.0045511 0.032755 0.0042907 0.1138 0.31012 0.00043035 -0.0012017
8.8228e-05 -0.0021503 0.0013945 -2.6082e-05
0.0023034 0.00375 0.0019887 3.1363e-05 0.00043322 -0.0012055 -0.075784 0.26966
0.007519 0.028277 -0.009103 -0.0066543
0.0040149 -0.0018014 0.0012059 -0.0063766 8.1909e-05 -0.002151 0.0075772 0.028275
-0.10839 0.17828 0.0048478 0.018474
-0.0029144 -0.0020991 -0.00057879 -0.002157 0.0013915 -1.9435e-05 -0.0091006 -0.0066452
0.0048254 0.018476 -0.14964 0.25688
1040000000 -0.0069407 0.29979 0.033094 0.017397 -0.0012226 0.0067351 0.0027398 0.000789
-6.3521e-07 -0.0037427 -0.0006972 -0.0015887
0.03303 0.017398 -0.17189 0.35729 0.028886 -0.014964 0.0014914 -0.0017039
-0.0025591 -0.0025392 -0.0015165 -0.0027428
-0.0011892 0.0067374 0.028835 -0.015061 0.15988 0.29625 -0.00052277 -0.0014244
-0.0016255 -0.00083287 -0.00051043 -0.0011016
0.0027322 0.00076573 0.0015115 -0.0016906 -0.00052996 -0.0014218 -0.048587 0.27971
0.018102 0.016889 -0.0030907 0.001904
2.791e-06 -0.0037604 -0.0025897 -0.0025145 -0.0016286 -0.00081248 0.01814 0.016864
-0.078165 0.18666 0.013341 0.017517
-0.00071307 -0.0015733 -0.0015325 -0.0027606 -0.00050447 -0.0010974 -0.003082 0.0019116
0.013328 0.017527 -0.12759 0.27569
1100000000 0.038564 0.30699 0.035389 -0.0048364 0.0027294 0.0037017 0.0026289 -0.001321
-0.002173 -0.0030713 -0.003925 0.00013265
0.035349 -0.0048181 -0.12847 0.37411 0.014693 -0.027625 6.0076e-05 -0.0018082
-0.0033078 -0.00049323 -0.0033548 -0.00047635
0.0027361 0.0036942 0.014603 -0.027711 0.20612 0.27566 -0.001776 0.00024926
-0.0017829 0.00070525 -0.00096364 -0.00023631
0.0026167 -0.0013309 5.9667e-05 -0.0018051 -0.001778 0.00025309 -0.0081998 0.2847
0.022445 0.0048289 -0.0024388 0.00086738
-0.0021804 -0.0030666 -0.0033202 -0.00047037 -0.001788 0.00070951 0.02247 0.0047979
-0.059792 0.1997 0.018432 0.0082892
-0.0039364 0.00015881 -0.003354 -0.00045944 -0.00095974 -0.00023095 -0.0024435 0.00087593
0.018412 0.0083029 -0.080708 0.30309
1160000000 0.090082 0.30164 0.023265 -0.020954 0.0024561 -0.00039704 -6.1047e-05 -0.002518
-0.0040384 -0.00044124 -0.00094392 0.003844
0.023254 -0.020926 -0.084901 0.37825 -0.0039962 -0.028726 -0.0017467 -0.0016783
-0.0024868 0.0027414 -0.0012348 0.001559
0.0024691 -0.00040184 -0.0041214 -0.028728 0.24897 0.24462 -0.00064821 0.0017445
-0.00034194 0.0018987 -0.00089247 0.00011003
-6.6981e-05 -0.002522 -0.0017538 -0.0016638 -0.00065438 0.0017394 0.030941 0.28194
0.018966 -0.0096497 -0.0026997 0.0056146
-0.004021 -0.00041412 -0.00249 0.0027659 -0.00034308 0.0019023 0.018958 -0.0096742
-0.027017 0.20886 0.016996 0.0004244
-0.00094615 0.0038401 -0.0012255 0.0015515 -0.00088891 0.00010913 -0.0026895 0.0056172
0.016986 0.00043546 -0.033992 0.3055
1220000000 0.13449 0.28997 0.0096594 -0.029776 -0.0016559 -0.00059133 -6.8597e-05 -0.0012108
-0.0025662 0.002573 0.0013086 0.0019041
0.0096655 -0.029742 -0.04083 0.38995 -0.016903 -0.020767 -0.00251 0.00043197
0.00028668 0.002971 -0.00065963 0.0017751
-0.0016501 -0.00058224 -0.017005 -0.020715 0.28796 0.20548 0.00089076 0.0016188
0.00065666 0.0011363 0.00028904 0.00071393
-7.6399e-05 -0.0012099 -0.002507 0.00044507 0.00089464 0.0016215 0.0706 0.27379
0.0090586 -0.015225 0.0025777 0.0018074
-0.0025502 0.002599 0.00029639 0.0029636 0.00065817 0.0011343 0.0090387 -0.015233
-0.0041041 0.21827 0.013094 -0.012144
0.0013156 0.0018914 -0.00064417 0.0017857 0.00029373 0.00070828 0.0025843 0.0018049
0.013074 -0.012136 -0.0020541 0.3207
1280000000 0.18399 0.2674 -0.0083101 -0.027845 -0.0017646 0.0027237 -0.0011277 -0.0020759
-0.00058765 0.0030605 0.0025362 0.0010006
-0.0082906 -0.027826 0.0050011 0.38093 -0.02353 -0.0082351 -0.0010302 0.0015085
0.0017171 0.0015945 0.00056073 0.0019378
-0.0017547 0.002729 -0.023587 -0.0081329 0.31825 0.16161 0.0014552 -0.00016629
0.0010535 3.9245e-05 0.000315 0.00034458
-0.0011337 -0.0020723 -0.0010342 0.0015177 0.001459 -0.00016852 0.10715 0.25788
0.00042734 -0.016867 0.00049614 0.00023316
-0.00056492 0.0030555 0.0017339 0.0015877 0.0010512 3.5757e-05 0.00038898 -0.016874
0.032646 0.22241 0.0025635 -0.014023
0.0025386 0.0009942 0.00056541 0.0019299 0.00031484 0.00034488 0.00049637 0.00023166
0.0025727 -0.014017 0.045097 0.3208
1340000000 0.22081 0.23321 -0.017716 -0.018274 0.001043 0.0045152 -0.0020319 -0.00076713
0.0015082 0.0026018 0.0017357 -0.0015019
-0.017686 -0.018273 0.044445 0.37258 -0.021364 0.0043242 -1.7233e-05 0.0020044
0.0017855 0.00053949 0.0013181 0.00089495
0.0010634 0.0045043 -0.021355 0.0044353 0.34025 0.1136 0.00096614 -0.0009104
0.00062159 -0.00041096 0.00012182 0.00023712
-0.002039 -0.00076308 -1.3087e-05 0.0019998 0.00097412 -0.00091158 0.14032 0.23806
-0.0076161 -0.013999 0.0013023 0.00017765
0.0015167 0.0026007 0.0017971 0.00054068 0.00062065 -0.00041171 -0.0076456 -0.013986
0.063057 0.21834 -0.0035403 -0.01267
0.0017275 -0.0015172 0.0013315 0.0008891 0.0001225 0.00023668 0.0013036 0.0001753
-0.0035404 -0.012673 0.083406 0.3152
1400000000 0.25348 0.19464 -0.023041 -0.0069368 0.0052501 0.0030362 -0.002051 0.00083626
0.0025406 0.00072617 0.00018494 -0.0013969
-0.023015 -0.006949 0.081544 0.35947 -0.014633 0.012344 0.0013904 0.001285
0.00097993 -0.00088258 0.0011584 0.00022566
0.0052655 0.0030169 -0.014591 0.012435 0.35326 0.060049 5.1209e-05 -0.0014504
1.5332e-05 -0.00032277 0.00030175 0.00013127
-0.0020593 0.00084992 0.0013937 0.0012695 4.8556e-05 -0.0014565 0.17046 0.20961
-0.012442 -0.0080272 -0.00044151 -0.000709
0.0025361 0.0007118 0.00096497 -0.00087873 1.0376e-05 -0.00032278 -0.012463 -0.0080071
0.096291 0.21389 -0.0096131 -0.0079873
0.00017099 -0.0013995 0.0011572 0.00022377 0.00030286 0.00013356 -0.00043858 -0.00071657
-0.009606 -0.0079951 0.12726 0.30353
1460000000 0.27601 0.15032 -0.019918 0.0049256 0.005644 -0.0018397 -0.0014617 0.0018632
0.0019752 -0.00074993 -0.0003883 -0.00088768
-0.019897 0.0049062 0.11583 0.33757 -0.0060127 0.015193 0.0017224 0.00013908
0.00079125 -0.0011257 0.0012018 -0.00063941
0.0056383 -0.0018646 -0.0059498 0.015238 0.3592 0.0055704 -0.0011261 -0.0011842
0.00023442 -6.4117e-05 0.0006937 -0.00039204
-0.0014585 0.0018649 0.0017343 0.00012954 -0.00112 -0.0011915 0.19764 0.18046
-0.01302 -0.002523 -0.00093443 0.0014219
0.0019699 -0.00076447 0.00078019 -0.0011288 0.000232 -6.5998e-05 -0.013034 -0.0024931
0.12654 0.19936 -0.011072 -0.0025665
-0.00040247 -0.00088275 0.0012006 -0.00064291 0.00069343 -0.00038726 -0.00093433 0.0014258
-0.011073 -0.0025706 0.16043 0.28184
1520000000 0.28787 0.10836 -0.014229 0.010259 0.0031929 -0.0042879 0.00021965 0.0026015
0.0017001 -0.0017289 -0.0011738 -0.00011109
-0.014213 0.01024 0.14938 0.32262 0.00154 0.013028 0.0015799 -0.00083309
6.2277e-05 -0.00083059 0.00033688 -0.0010222
0.0031804 -0.0043003 0.0016184 0.013026 0.35239 -0.050654 -0.00097416 -0.00035108
0.00058522 -0.00083681 -2.6998e-05 -7.5212e-05
0.00022442 0.0025992 0.0015797 -0.00085166 -0.00097902 -0.00035015 0.22171 0.14203
-0.012389 0.0020273 0.0010725 0.0016817
0.0016915 -0.0017443 5.6063e-05 -0.00083145 0.00058282 -0.0008418 -0.012387 0.0020701
0.15506 0.18477 -0.010972 0.0016044
-0.0011722 -9.9961e-05 0.00033034 -0.001016 -2.8472e-05 -7.4395e-05 0.0010863 0.0016745
-0.010987 0.0015997 0.19299 0.26054
1580000000 0.2968 0.061675 -0.0077258 0.013079 -0.00093547 -0.0049411 0.0014465 0.0017614
-0.00051867 -0.0020806 -0.000376 0.00039653
-0.0077238 0.013068 0.17663 0.29763 0.0051971 0.0082394 0.00039951 -0.0015764
-0.00036676 -0.00097013 -0.00023691 -0.00090264
-0.0009575 -0.0049358 0.0052483 0.0082203 0.33195 -0.10824 -0.001501 0.0004488
-0.00026139 -0.0011394 0.00015713 -0.0005151
0.0014583 0.0017537 0.00038505 -0.0015764 -0.0015082 0.0004514 0.2364 0.10188
-0.0096509 0.0059313 0.0018796 0.00055594
-0.00052934 -0.002084 -0.00037005 -0.00096684 -0.00026423 -0.0011367 -0.0096317 0.0059558
0.17999 0.16618 -0.0085928 0.0068873
-0.00037499 0.00040203 -0.00024015 -0.00090173 0.00015571 -0.00052021 0.0018826 0.00054631
-0.0085996 0.0068786 0.22423 0.23307
1640000000 0.2982 0.01988 -0.0013122 0.011947 -0.0028435 -0.002612 0.0025559 0.00090805
-0.00086208 -0.001135 -0.00026402 0.00062523
-0.0013192 0.01194 0.20598 0.27233 0.0058208 0.0034288 -0.00074176 -0.0016256
-0.00090109 -0.00050851 -0.00055967 -0.00068796
-0.0028584 -0.0026024 0.005844 0.0034058 0.30364 -0.1575 -0.00080965 0.0013434
-0.0010776 -0.00090868 -0.00015415 -0.00034065
0.0025567 0.00089722 -0.00075845 -0.0016227 -0.00081946 0.0013483 0.24897 0.051782
-0.0062471 0.0067617 0.0021634 -0.00074943
-0.00086511 -0.0011306 -0.0008995 -0.0005077 -0.001089 -0.00090041 -0.0062382 0.0067807
0.20347 0.14062 -0.0042429 0.0088901
-0.0002608 0.00062713 -0.00056763 -0.00068792 -0.00015542 -0.00034178 0.0021545 -0.00076334
-0.004246 0.0088924 0.24946 0.20136
1700000000 0.29012 -0.025484 0.0019635 0.0092273 -0.0035303 6.2893e-05 0.0028775 -0.0011651
-0.0018414 -0.00044621 0.0006611 0.00043355
0.0019556 0.0092222 0.22394 0.24055 0.0039023 0.00060477 -0.0014038 -0.00052736
-0.00079974 -9.7378e-05 -0.00097865 -0.00041073
-0.0035349 7.7337e-05 0.003913 0.00058246 0.2599 -0.19745 0.00032938 0.0015798
-0.0017767 -0.00019264 -0.00063797 -0.00097893
0.0028696 -0.0011716 -0.001401 -0.00052202 0.00032942 0.0015812 0.24531 0.00068129
-0.0043498 0.0072594 0.0012172 -0.0021209
-0.0018425 -0.00043022 -0.00079646 -9.0247e-05 -0.0017794 -0.0001911 -0.0043347 0.0072655
0.2211 0.11892 0.00015533 0.0090374
0.00066597 0.00042692 -0.00098764 -0.00040019 -0.00063826 -0.00098184 0.0012098 -0.0021278
0.00014827 0.0090313 0.26503 0.16667
1760000000 0.27702 -0.073944 0.0042067 0.0060632 -0.002343 0.00086011 0.0012787 -0.0033033
-0.0010212 0.00066807 0.00042645 -0.00051558
0.0041974 0.0060712 0.24963 0.20042 0.0016598 -0.0011309 -0.0010829 0.00022045
-0.0012209 0.00083572 -0.0006179 0.00055762
-0.0023343 0.00087364 0.0016649 -0.0011453 0.2107 -0.23045 0.0010895 0.0012759
-0.001208 0.0013859 -0.001359 -0.00038942
0.0012571 -0.0033 -0.0010843 0.00022003 0.001086 0.0012792 0.23489 -0.051661
-0.0019226 0.0067627 -0.00046264 -0.0022292
-0.0010107 0.00067034 -0.0012113 0.0008464 -0.0012107 0.0013875 -0.0019048 0.006772
0.23587 0.081996 0.0038971 0.0065026
0.00042127 -0.00052065 -0.00061273 0.0005643 -0.0013599 -0.00038853 -0.00046081 -0.0022291
0.0038918 0.0065026 0.27692 0.12853
1820000000 0.25147 -0.11091 0.0044079 0.0025793 -0.00012941 0.0024419 -0.00094619 -0.0030975
-0.00076199 0.00060422 -1.1259e-06 -0.00017773
0.0044041 0.002589 0.25921 0.17016 -0.00033671 -7.3391e-05 -0.0013258 0.00084023
-0.00021798 0.0013999 -0.00049415 0.00058611
-0.00012126 0.0024364 -0.00033586 -7.3891e-05 0.1605 -0.24601 0.0015381 0.00041058
-0.00040485 0.0021252 -0.0014185 0.00054341
-0.00096405 -0.0030932 -0.001324 0.0008468 0.0015465 0.00040987 0.20339 -0.098906
-0.00090129 0.0054678 -0.0016453 -0.0013796
-0.00076507 0.00060665 -0.00021268 0.0014022 -0.00041168 0.0021322 -0.00089058 0.0054707
0.25222 0.050522 0.0046801 0.0030911
-5.1013e-06 -0.00017766 -0.0004882 0.00059096 -0.0014165 0.00055651 -0.0016498 -0.0013706
0.0046722 0.0030914 0.27835 0.092085
1880000000 0.21571 -0.15033 0.0022612 0.00038801 -0.00042796 0.0022433 -0.0028158 -0.0022228
-0.00023893 0.0013968 0.00027868 -0.00053025
0.0022587 0.00038801 0.26324 0.12356 -0.0022402 0.0015891 -0.00015624 0.0016813
0.00062139 0.0014818 0.00026351 0.0010016
-0.00041025 0.0022486 -0.00224 0.0016073 0.10852 -0.25542 0.0020501 -0.00098473
0.0014823 0.0020725 -0.00078418 0.0014365
-0.0028279 -0.0022038 -0.00014723 0.0016887 0.0020424 -0.00097473 0.16135 -0.13823
-0.00073173 0.0042697 -0.0023993 0.00067531
-0.00022571 0.0013992 0.00064301 0.0014792 0.001481 0.0020704 -0.00072451 0.0042746
0.25353 0.01592 0.0042848 0.00097847
0.00027276 -0.00053324 0.00027393 0.0010012 -0.0007884 0.0014348 -0.0023967 0.00068649
0.0042819 0.00097476 0.27719 0.057886
1940000000 0.17592 -0.17543 2.9535e-05 -0.0013841 0.0013668 0.0020267 -0.0037367 0.00055619
0.0010566 0.0010565 -0.00061247 -0.00061258
3.8778e-05 -0.0013794 0.26332 0.091747 -0.0012103 0.0038291 0.00093756 0.0013314
0.0020991 0.00066234 0.00095453 0.00027243
0.0013707 0.0020165 -0.0011845 0.0038403 0.062392 -0.24915 0.00040397 -0.00233
0.0024799 0.00060894 0.00050798 0.00159
-0.0037353 0.00057551 0.00096088 0.0013271 0.00040611 -0.0023262 0.10814 -0.16713
-0.0018856 0.0037117 -0.0013189 0.0017955
0.0010681 0.0010469 0.0021134 0.00064628 0.0024891 0.0006025 -0.0018848 0.0037265
0.25273 -0.024906 0.002988 -0.0020109
-0.00061744 -0.00060703 0.00095805 0.00026459 0.00051252 0.0015809 -0.0013113 0.0018036
0.0029869 -0.0020206 0.26536 0.021712
2000000000 0.12958 -0.18883 -0.0038894 0.00069542 0.0024579 0.0015787 -0.0022929 0.0036503
0.00097582 0.00040795 -0.00063017 0.00037907
-0.003889 0.00069052 0.2487 0.056432 -0.00096377 0.0057116 0.0016756 0.0003487
0.0016314 -0.0014508 0.00055574 0.00012103
0.0024636 0.0015647 -0.00092467 0.0057297 0.018883 -0.23442 -0.0014464 -0.0015047
0.0020538 -0.0012432 0.0016787 0.0012023
-0.0022647 0.0036624 0.0016769 0.00033685 -0.0014506 -0.0015072 0.055111 -0.17522
-0.0032653 0.0045961 0.00020641 0.0023691
0.0009737 0.0004028 0.001618 -0.0014754 0.002055 -0.0012503 -0.0032486 0.0046037
