!Keysight Technologies,M9804A,MY58100912,A.14.10.03
!Date: Thursday, April 27, 2023 10:28:33
!Correction: S11(C  6-Port  ) 
!S12(C  6-Port  ) 
!S13(C  6-Port  ) 
!S14(C  6-Port  ) 
!S15(C  6-Port  ) 
!S16(C  6-Port  ) 
!S21(C  6-Port  ) 
!S22(C  6-Port  ) 
!S23(C  6-Port  ) 
!S24(C  6-Port  ) 
!S25(C  6-Port  ) 
!S26(C  6-Port  ) 
!S31(C  6-Port  ) 
!S32(C  6-Port  ) 
!S33(C  6-Port  ) 
!S34(C  6-Port  ) 
!S35(C  6-Port  ) 
!S36(C  6-Port  ) 
!S41(C  6-Port  ) 
!S42(C  6-Port  ) 
!S43(C  6-Port  ) 
!S44(C  6-Port  ) 
!S45(C  6-Port  ) 
!S46(C  6-Port  ) 
!S51(C  6-Port  ) 
!S52(C  6-Port  ) 
!S53(C  6-Port  ) 
!S54(C  6-Port  ) 
!S55(C  6-Port  ) 
!S56(C  6-Port  ) 
!S61(C  6-Port  ) 
!S62(C  6-Port  ) 
!S63(C  6-Port  ) 
!S64(C  6-Port  ) 
!S65(C  6-Port  ) 
!S66(C  6-Port  ) 
!S6P File: Measurement: :
# Hz S  RI   R 50
500000000 -0.3373 -0.035409 -0.0101 -0.0034217 -0.007938 0.012105 -0.0035229 0.011665
0.01209 0.0048206 -0.0036779 0.0082599
-0.010081 -0.0034266 -0.41926 -0.049868 0.0073177 -0.011249 0.001712 0.01192
0.0072812 0.0025623 0.0011399 0.013373
-0.0078903 0.01205 0.0072925 -0.011259 -0.26562 0.21146 0.0068498 0.0032363
-0.00055683 0.0088717 0.0005554 0.012046
-0.0034942 0.011653 0.0017252 0.011937 0.0068628 0.0032333 -0.32765 0.046941
-0.020098 -0.0043799 0.017506 0.02524
0.012087 0.0047051 0.0072926 0.0025526 -0.00054628 0.0088709 -0.020096 -0.0043634
-0.22626 -0.18487 -0.027479 0.0047689
-0.0036336 0.008255 0.0011817 0.01337 0.00055264 0.012012 0.017495 0.025239
-0.027491 0.0047743 -0.27332 -0.11353
560000000 -0.31607 0.12452 -0.024072 -0.062904 0.00028144 0.01218 0.006326 0.0099734
0.010686 0.0043808 0.0099353 0.0073973
-0.024041 -0.06282 -0.37686 0.1086 -0.042038 -0.036168 0.01342 0.0037783
-0.013589 -0.0047246 0.0041227 -0.00046687
0.00030423 0.012178 -0.042151 -0.03611 -0.18294 0.25976 -0.00033222 -0.0048505
0.019466 0.0044857 0.0068347 -0.0057019
0.0063632 0.0099379 0.01344 0.0037834 -0.00035557 -0.004845 -0.3032 0.13634
0.0035357 -0.024571 0.004659 -0.019403
0.010665 0.004348 -0.013652 -0.0046733 0.019476 0.0044622 0.003513 -0.024568
-0.28567 -0.0090516 0.007429 -0.049581
0.0099805 0.0073968 0.0041092 -0.00049525 0.0068438 -0.0056781 0.0046454 -0.019424
0.0074475 -0.049581 -0.33131 0.032764
620000000 -0.27333 0.10952 -0.023298 0.0076559 0.0036344 0.0084544 0.0066372 -0.0055582
0.011618 -0.00056272 0.00062906 -0.0022229
-0.023244 0.0076694 -0.40294 0.062798 -0.018662 0.00035333 -0.0011918 -0.0019416
0.010597 -0.0071332 0.0014647 -0.0026631
0.0036583 0.0085258 -0.018661 0.00039529 -0.15251 0.26862 -0.0014412 -0.0052157
-0.0035829 -0.003398 0.0082923 -0.0036272
0.0066251 -0.0055297 -0.0011712 -0.0019251 -0.0014374 -0.0052007 -0.26189 0.14631
-0.039119 -0.018192 0.01433 0.02397
0.011608 -0.00065683 0.010552 -0.0071766 -0.0035887 -0.0034464 -0.039128 -0.018168
-0.20457 -0.049284 -0.040239 0.014485
0.00061412 -0.0022805 0.0014161 -0.002665 0.0082909 -0.0036219 0.014339 0.023958
-0.040248 0.014461 -0.24979 -0.0031961
680000000 -0.23342 0.19377 -0.027865 -0.013622 0.0048696 0.0049224 0.0011338 -0.0076274
-0.0031388 -0.010959 0.004258 -0.0066865
-0.027847 -0.013608 -0.38719 0.15994 -0.032491 -0.0011318 -0.001567 -0.00033628
-0.0026409 -0.0090487 -0.00099135 -0.0020268
0.0048709 0.0049059 -0.032524 -0.0010552 -0.10139 0.28794 -0.00078475 -8.0326e-05
-0.0021816 0.00052848 -0.0027393 -0.0094102
0.0010904 -0.007643 -0.0015482 -0.00032417 -0.00078175 -7.8197e-05 -0.21891 0.19605
-0.023509 -0.0079067 -0.0085419 -0.010413
-0.0031666 -0.010896 -0.0026621 -0.0090515 -0.0021998 0.00053307 -0.02353 -0.0078831
-0.25274 0.04911 -0.0056568 -0.0090465
0.0042361 -0.0066874 -0.00099118 -0.0020336 -0.0027251 -0.0094081 -0.0085319 -0.010406
-0.0056521 -0.0090587 -0.25889 0.099415
740000000 -0.1896 0.18878 -0.038255 0.026722 0.012612 -0.0052438 -0.00070649 -0.0040196
-0.0047283 -0.0026991 -0.0062928 0.0031965
-0.038271 0.026722 -0.33434 0.17819 -0.034498 0.035231 -0.0007438 -0.0065338
-0.012059 0.0077748 -0.0025566 -0.0059959
0.012616 -0.0052908 -0.034419 0.035352 -0.067786 0.28623 -0.0015253 0.0033366
-0.0028348 -0.0042788 -0.001443 0.00021632
-0.00070539 -0.0040213 -0.00076369 -0.0065208 -0.001524 0.0033402 -0.20212 0.20324
-0.042388 -0.0079983 0.02232 0.013353
-0.0047283 -0.0026569 -0.012046 0.0078025 -0.0028296 -0.0042722 -0.04243 -0.0079599
-0.15668 0.07437 -0.041565 0.00049806
-0.0062695 0.0032579 -0.0025519 -0.0060584 -0.001425 0.00026002 0.022315 0.013352
-0.041543 0.00045667 -0.2461 0.1049
800000000 -0.157 0.22843 -0.022052 0.017256 0.0052496 -0.010543 -0.0047832 -0.0020303
-0.0041734 0.0024815 0.0042634 0.00082241
-0.022054 0.017255 -0.33698 0.24862 -0.0075514 0.033929 -0.0021778 0.0021895
-0.00084546 0.0033328 0.001187 0.0053153
0.0052275 -0.010566 -0.0074777 0.033973 -0.026686 0.30887 0.001067 0.0016267
0.00057429 0.0036604 -0.0017342 0.00090547
-0.0047968 -0.0020197 -0.0021746 0.0022049 0.0010701 0.0016211 -0.17385 0.23077
-0.027898 0.012516 0.012958 -0.0099558
-0.0041162 0.0025197 -0.00084173 0.0033594 0.00058318 0.0036673 -0.027889 0.012577
-0.20065 0.097144 -0.017017 0.017231
0.0042474 0.00081482 0.0012011 0.0053233 -0.001732 0.00089892 0.012954 -0.009971
-0.017018 0.017199 -0.2374 0.15659
860000000 -0.12225 0.24918 -0.016797 0.030982 -0.0032906 -0.009849 -0.0024513 0.0011211
0.0040331 0.0050125 -0.0029136 -0.0027363
-0.016794 0.03095 -0.28899 0.2903 0.008265 0.033953 0.00014562 0.0021042
0.0041872 0.00043836 0.0033246 0.00034093
-0.0033133 -0.0098457 0.0083678 0.03396 0.021406 0.31655 -0.0003911 -0.00026891
0.0028047 -0.0015497 0.0016412 0.0042573
-0.0024617 0.0011334 0.0001356 0.0021234 -0.00039419 -0.00026749 -0.13803 0.24215
-0.017605 0.01844 -0.0060696 -0.0087716
0.0040367 0.0050118 0.0041702 0.00042187 0.0027983 -0.0015539 -0.017593 0.018477
-0.15045 0.14541 -0.023948 0.014894
-0.0029354 -0.0027488 0.0033177 0.00034706 0.0016377 0.0042597 -0.006061 -0.0087589
-0.023929 0.014881 -0.1876 0.19823
920000000 -0.097021 0.27206 0.0055517 0.037302 -0.0093327 -0.0044512 -0.0019516 0.0021448
0.0015834 0.0016038 0.0025167 -0.001508
0.0055331 0.037285 -0.25995 0.31075 0.028022 0.021416 0.0015929 0.0010326
0.0069314 -0.0006986 0.0038753 -0.0030689
-0.0093336 -0.0044181 0.028111 0.02135 0.067535 0.3169 0.0017978 -0.00015587
0.0012459 -0.00051932 0.0007376 -0.0011836
-0.0019463 0.0021548 0.0015921 0.0010396 0.0018058 -0.00016003 -0.11379 0.25843
-0.010163 0.029735 0.0026712 -0.0066448
0.001559 0.0016062 0.0069557 -0.0007167 0.0012549 -0.00050404 -0.010112 0.029777
-0.14043 0.15082 -0.0020314 0.026865
0.002502 -0.0015317 0.0038527 -0.0030756 0.00073069 -0.0011861 0.0026711 -0.0066601
-0.0020515 0.02686 -0.19264 0.21216
980000000 -0.049586 0.29163 0.017941 0.029542 -0.008845 0.004533 0.0023017 0.0037162
0.004026 -0.001778 -0.0028848 -0.0021054
0.017899 0.029538 -0.20729 0.34435 0.03275 0.0044133 0.0019863 1.6795e-05
0.0012229 -0.006296 -0.00051609 -0.0021175
-0.00883 0.00456 0.032782 0.0043105 0.11377 0.31012 0.00043657 -0.0012007
5.9801e-05 -0.0021569 0.0013981 -8.4259e-06
0.0023154 0.0037033 0.001976 9.5279e-06 0.00042565 -0.0012044 -0.07577 0.26964
0.0075576 0.028237 -0.0090515 -0.006683
0.004014 -0.0017986 0.0012135 -0.0062826 5.1798e-05 -0.0021521 0.0076194 0.028242
-0.1084 0.17829 0.0048501 0.018463
-0.0029039 -0.0021037 -0.00053658 -0.0021089 0.0013865 -1.5173e-05 -0.0090638 -0.0066621
0.004833 0.018453 -0.14981 0.25677
1040000000 -0.0069385 0.2997 0.033125 0.017433 -0.0012406 0.0067364 0.0027095 0.0007767
4.8287e-06 -0.003717 -0.00065952 -0.0015988
0.033102 0.017435 -0.17192 0.35719 0.028899 -0.014982 0.0015367 -0.0017554
-0.0026023 -0.002515 -0.0014737 -0.0027656
-0.0012012 0.0067363 0.028857 -0.01508 0.15982 0.29624 -0.00052491 -0.0014521
-0.0016232 -0.00081105 -0.0004879 -0.0010514
0.0027195 0.00076523 0.0015097 -0.0017474 -0.00052532 -0.0014568 -0.048543 0.27965
0.018058 0.016865 -0.0030713 0.0019068
-3.5847e-05 -0.00372 -0.0025776 -0.0024899 -0.0016207 -0.00081322 0.018116 0.01684
-0.078108 0.1866 0.013337 0.017515
-0.00065673 -0.0016098 -0.0014964 -0.0027432 -0.00048577 -0.0010626 -0.0030754 0.0019209
0.013316 0.017502 -0.12769 0.27551
1100000000 0.038526 0.30694 0.035388 -0.0048286 0.0027155 0.0037009 0.0025795 -0.0012929
-0.0021407 -0.0030547 -0.0039409 0.00013987
0.035376 -0.0048193 -0.12848 0.37406 0.014714 -0.027649 5.5145e-05 -0.0018202
-0.0033012 -0.00052916 -0.0033915 -0.00047868
0.0027424 0.0036967 0.014612 -0.027718 0.20608 0.27568 -0.0017637 0.00025403
-0.0017613 0.00069511 -0.00096892 -0.0002386
0.0025887 -0.0013041 3.1663e-05 -0.0018149 -0.0017645 0.00025169 -0.0081728 0.28463
0.022456 0.004819 -0.0024451 0.00089415
-0.0021568 -0.0030689 -0.0032956 -0.0005107 -0.0017608 0.00070716 0.022473 0.0047815
-0.059693 0.19963 0.018483 0.008329
-0.0039451 0.00014954 -0.0033996 -0.00045368 -0.00097288 -0.00023619 -0.002445 0.00090511
0.018475 0.0083294 -0.08079 0.30304
1160000000 0.090022 0.30166 0.023269 -0.020934 0.0024813 -0.00040712 -5.0302e-05 -0.0025015
-0.003987 -0.00043345 -0.00099567 0.003877
0.023279 -0.020911 -0.084937 0.37823 -0.0039785 -0.02875 -0.0017405 -0.0016723
-0.0025312 0.0027528 -0.0012419 0.0015668
0.0024943 -0.00042267 -0.0041169 -0.028736 0.24893 0.24465 -0.00064672 0.0017377
-0.00035742 0.0019018 -0.00086241 9.3749e-05
-5.4211e-05 -0.0025037 -0.0017622 -0.0016606 -0.00064878 0.0017379 0.030957 0.28182
0.018946 -0.0096581 -0.0027215 0.0056084
-0.0040061 -0.0004536 -0.0025034 0.0027666 -0.0003667 0.0019005 0.018935 -0.0096812
-0.026983 0.20878 0.016982 0.00041923
-0.00097025 0.0038768 -0.0012412 0.0015769 -0.0008541 0.00010106 -0.0027231 0.0056277
0.016984 0.00040514 -0.034103 0.30541
1220000000 0.13442 0.28996 0.0096855 -0.029785 -0.0016504 -0.0006094 -5.6377e-05 -0.0012235
-0.0025452 0.0025544 0.0013127 0.0018895
0.0096975 -0.029756 -0.040806 0.38991 -0.01688 -0.02076 -0.0024996 0.00042647
0.00026769 0.0029487 -0.00063065 0.0017675
-0.0016471 -0.00059929 -0.016979 -0.020709 0.28783 0.20548 0.00088425 0.0016207
0.00061774 0.0010963 0.00033063 0.00069285
-5.9571e-05 -0.0012137 -0.002508 0.00043428 0.00088893 0.0016221 0.070566 0.27368
0.0090641 -0.015233 0.0025891 0.0018333
-0.0025411 0.0025615 0.00028013 0.0029718 0.00061112 0.001098 0.0090417 -0.015254
-0.0041169 0.21822 0.013086 -0.012091
0.0013144 0.0018842 -0.00062273 0.0017712 0.00032841 0.00069821 0.0025908 0.0018251
0.013081 -0.01208 -0.0022322 0.32063
1280000000 0.18394 0.26744 -0.0082915 -0.027873 -0.0017748 0.002743 -0.0011102 -0.0020872
-0.00062066 0.0030529 0.0025516 0.0010164
-0.0082774 -0.027853 0.0050001 0.3809 -0.023545 -0.0082531 -0.0010492 0.0014959
0.001697 0.0015858 0.00057341 0.0019356
-0.0017494 0.0027362 -0.023597 -0.008145 0.31824 0.16164 0.0014731 -0.00016269
0.0010787 2.6062e-05 0.00029524 0.00035466
-0.0011243 -0.002075 -0.0010405 0.0015061 0.0014744 -0.00016582 0.10705 0.25782
0.00041924 -0.016902 0.0005037 0.00024652
-0.00060009 0.0030577 0.0017204 0.0015962 0.0010699 2.2736e-05 0.00039287 -0.016906
0.032617 0.2223 0.0025928 -0.014006
0.0025527 0.0010043 0.00057665 0.001934 0.00029905 0.00036042 0.00050411 0.00024554
0.0025917 -0.014002 0.044974 0.3208
1340000000 0.22078 0.23326 -0.017722 -0.018296 0.001008 0.0044932 -0.0020412 -0.00077581
0.0014794 0.0025904 0.0017303 -0.0015077
-0.017694 -0.018303 0.044455 0.37252 -0.02138 0.0043202 -2.5098e-05 0.0019989
0.0017935 0.00055889 0.0013043 0.00088386
0.0010292 0.0044879 -0.021376 0.0044343 0.34025 0.11363 0.00099027 -0.00091899
0.0006164 -0.00041225 0.00013963 0.00023803
-0.0020429 -0.00076027 -1.6622e-05 0.0020084 0.00098845 -0.00092537 0.14019 0.238
-0.0076309 -0.01402 0.001302 0.00018174
0.0015122 0.0025991 0.001805 0.00055483 0.00060415 -0.00041498 -0.0076684 -0.014009
0.06297 0.2182 -0.0035239 -0.012705
0.0017065 -0.0015083 0.0013097 0.00087674 0.00013869 0.00023679 0.0013078 0.00017442
-0.003523 -0.012708 0.083321 0.31523
1400000000 0.25347 0.19468 -0.023079 -0.0069364 0.0052358 0.0030223 -0.00206 0.00081817
0.0025128 0.00069695 0.00018302 -0.001427
-0.023045 -0.0069605 0.081512 0.3594 -0.014634 0.012323 0.0014013 0.001282
0.00098972 -0.00087578 0.0011552 0.00022975
0.0052462 0.0030097 -0.01459 0.0124 0.35323 0.06007 4.3451e-05 -0.0014584
3.7922e-05 -0.00029208 0.00033658 0.00016509
-0.0020527 0.00082485 0.0014125 0.0012718 5.2679e-05 -0.0014505 0.1703 0.20963
-0.0125 -0.0080293 -0.00043191 -0.00070348
0.0025138 0.0006904 0.00099275 -0.00089626 2.9461e-05 -0.00029178 -0.012526 -0.0080025
0.096186 0.21381 -0.0096169 -0.0079925
0.00017418 -0.0014253 0.0011648 0.00022603 0.00034288 0.00016968 -0.00043971 -0.00070722
-0.0096091 -0.0080078 0.12719 0.30355
1460000000 0.27601 0.15036 -0.019929 0.0049363 0.0056397 -0.0018299 -0.0014719 0.001855
0.0019782 -0.00074328 -0.00039318 -0.00089289
-0.019916 0.0049106 0.1158 0.33751 -0.006037 0.015199 0.0017345 0.00011988
0.00078565 -0.0011362 0.00118 -0.00062357
0.0056289 -0.0018598 -0.0059681 0.015234 0.35917 0.0055969 -0.0011266 -0.0011783
0.00024011 -3.6751e-05 0.00069153 -0.00037209
-0.001467 0.0018664 0.0017249 0.00011525 -0.0011248 -0.0011777 0.19751 0.18054
-0.01306 -0.0024801 -0.00095925 0.0014304
0.0019784 -0.00075712 0.0007694 -0.0011473 0.00024108 -3.9952e-05 -0.013074 -0.0024489
0.12636 0.19934 -0.011065 -0.0025398
-0.00040012 -0.00088878 0.0011886 -0.00062547 0.00068568 -0.00037733 -0.00096034 0.0014244
-0.011062 -0.002543 0.16033 0.2819
1520000000 0.2879 0.1084 -0.014237 0.010276 0.00318 -0.0042515 0.00020316 0.0026026
0.0016862 -0.0017376 -0.0011461 -0.00010686
-0.014242 0.010262 0.1493 0.32258 0.0015188 0.013031 0.0015889 -0.00084495
5.0936e-05 -0.00084349 0.00034767 -0.0010121
0.0031717 -0.0042666 0.0015943 0.013036 0.35237 -0.050652 -0.00098134 -0.00033542
0.00057056 -0.00081221 -6.4468e-05 -6.5103e-05
0.000217 0.0026024 0.001576 -0.00085217 -0.00098329 -0.00034241 0.2216 0.14215
-0.012408 0.0020907 0.0010841 0.0016841
0.0016836 -0.0017543 3.5759e-05 -0.00084919 0.00057212 -0.00082196 -0.012417 0.0021166
0.15489 0.18484 -0.011013 0.001607
-0.0011538 -0.00010348 0.00033535 -0.0010159 -5.8766e-05 -6.3665e-05 0.0010824 0.0016738
-0.011016 0.0016002 0.19289 0.2606
1580000000 0.29682 0.061675 -0.007734 0.01311 -0.0009251 -0.0049218 0.0014577 0.001768
-0.00052242 -0.0020956 -0.00037763 0.00038536
-0.0077352 0.013099 0.17655 0.29764 0.005186 0.008243 0.00039306 -0.0015825
-0.00037285 -0.00098129 -0.00023147 -0.0009056
-0.00094736 -0.0049101 0.0052392 0.0082207 0.33197 -0.10826 -0.0014786 0.0004776
-0.00026315 -0.0011337 0.0001347 -0.00056698
0.0014596 0.0017498 0.00038924 -0.0015805 -0.0014771 0.00047101 0.23635 0.10202
-0.0096619 0.0059852 0.0018752 0.00056769
-0.00053049 -0.0021053 -0.00038288 -0.00097076 -0.00026779 -0.0011392 -0.0096487 0.0060077
0.17986 0.16629 -0.0086163 0.0069296
-0.00037812 0.00039239 -0.00023677 -0.0008925 0.00013132 -0.00057711 0.001871 0.00055929
-0.0086238 0.0069332 0.22416 0.23313
1640000000 0.2982 0.01992 -0.0013059 0.011962 -0.0028131 -0.0026271 0.0025615 0.00092491
-0.00087242 -0.0011317 -0.00027529 0.00063349
-0.0013221 0.011959 0.2059 0.27232 0.005829 0.0034566 -0.00074798 -0.0016313
-0.00088964 -0.00050337 -0.00056666 -0.00067969
-0.0028273 -0.0025977 0.0058488 0.0034292 0.30362 -0.15754 -0.00080127 0.0013274
-0.0010789 -0.00087535 -0.0001438 -0.00036329
0.0025714 0.00091137 -0.00074652 -0.0016226 -0.00079716 0.0013286 0.24898 0.051938
-0.006218 0.0067976 0.0021599 -0.00073061
-0.00088499 -0.0011391 -0.00089639 -0.0004788 -0.0010821 -0.00087195 -0.0062046 0.0068261
0.20335 0.14074 -0.0042577 0.0088909
-0.00027136 0.00064008 -0.00056634 -0.00068395 -0.0001433 -0.0003597 0.0021581 -0.00074749
-0.0042653 0.0088871 0.24936 0.2014
1700000000 0.29012 -0.025504 0.0019795 0.0092463 -0.0035667 6.0166e-05 0.0028679 -0.0011774
-0.0018547 -0.00045039 0.00064687 0.00043642
0.001971 0.0092372 0.22386 0.24059 0.0039155 0.00061021 -0.0013969 -0.00053719
-0.00078679 -9.0451e-05 -0.00098736 -0.00040237
-0.003558 8.9311e-05 0.003912 0.00058528 0.2599 -0.19746 0.00032961 0.0015593
-0.0017786 -0.00020692 -0.00063702 -0.00094022
0.0028647 -0.001183 -0.0014032 -0.00052972 0.00034135 0.0015701 0.24536 0.00081029
-0.0043231 0.0072741 0.0012113 -0.002112
-0.0018629 -0.00043451 -0.00078484 -8.8902e-05 -0.0017769 -0.00019987 -0.0043192 0.0072844
0.22104 0.11905 0.00012819 0.009047
0.00066107 0.00043252 -0.00099439 -0.00039862 -0.00065029 -0.00093989 0.0012089 -0.0021179
0.0001291 0.0090423 0.26495 0.1668
1760000000 0.27697 -0.073928 0.004213 0.0060742 -0.0023269 0.00085103 0.0012905 -0.0033173
-0.0010127 0.00068357 0.00040785 -0.00051174
0.0042115 0.0060712 0.24959 0.20047 0.0016732 -0.0011301 -0.0010802 0.00022077
-0.0012099 0.00083193 -0.00064075 0.00054631
-0.0023277 0.00086591 0.0016677 -0.0011455 0.21068 -0.23042 0.0010897 0.0012646
-0.0012066 0.00139 -0.0013286 -0.00037226
0.0012721 -0.0033223 -0.0010781 0.00022999 0.0010991 0.0012676 0.23501 -0.051593
-0.0018903 0.0067636 -0.00044477 -0.0022329
-0.0010033 0.00069537 -0.0011983 0.00084262 -0.0012053 0.0013815 -0.001877 0.0067673
0.23586 0.082084 0.0039085 0.0065104
0.00041009 -0.00052107 -0.00062348 0.00056429 -0.0013235 -0.00037216 -0.00044282 -0.0022253
0.003921 0.0065106 0.2769 0.12862
1820000000 0.25148 -0.11088 0.0044341 0.0025799 -0.00015311 0.0024353 -0.00093979 -0.0031019
-0.00077751 0.00061608 -4.8932e-06 -0.00017481
0.0044327 0.002594 0.2592 0.17019 -0.00030667 -0.00012078 -0.0013053 0.00084153
-0.00022044 0.0013899 -0.0004974 0.00059148
-0.00014899 0.0024468 -0.00030915 -0.00011464 0.16047 -0.24605 0.0015599 0.00043514
-0.00039725 0.0021419 -0.0014193 0.00056685
-0.00095282 -0.0030966 -0.0013046 0.00085016 0.0015563 0.00043511 0.20349 -0.098918
-0.00087232 0.005452 -0.0016347 -0.0013579
-0.00076324 0.00061644 -0.00020247 0.0013828 -0.00038738 0.0021399 -0.0008639 0.0054641
0.25223 0.050638 0.004679 0.0031093
-3.9973e-06 -0.00018043 -0.00049746 0.00059672 -0.0014292 0.00056421 -0.0016391 -0.0013459
0.0046836 0.0031095 0.27833 0.092202
1880000000 0.2157 -0.15029 0.0022646 0.00038423 -0.00043403 0.0022451 -0.0028397 -0.0022405
-0.00023515 0.0013847 0.00028299 -0.00049594
0.0022758 0.00038775 0.26322 0.1236 -0.0022505 0.001551 -0.00015561 0.0016655
0.0006129 0.0014734 0.000229 0.0010149
-0.00041406 0.0022575 -0.0022503 0.0015729 0.10851 -0.2554 0.0020246 -0.00092942
0.0014716 0.002084 -0.00080619 0.0014466
-0.0028507 -0.0022241 -0.00014677 0.0016734 0.0020223 -0.00094423 0.16144 -0.13825
-0.00070527 0.0042372 -0.0023907 0.00067548
-0.00020433 0.001379 0.00062566 0.0014725 0.0014714 0.0020817 -0.00070036 0.0042415
0.2536 0.015997 0.0042983 0.0010148
0.00027734 -0.00049566 0.00024464 0.0010095 -0.00078865 0.0014378 -0.002383 0.00068004
0.0042939 0.0010158 0.27715 0.057984
1940000000 0.17594 -0.17534 3.203e-05 -0.0014052 0.0013462 0.00202 -0.0037428 0.00054537
0.0010598 0.0010524 -0.00063743 -0.00058606
2.5424e-05 -0.0013976 0.26332 0.091766 -0.0012141 0.0038138 0.00093118 0.0013446
0.0020634 0.00066523 0.00093817 0.00025135
0.0013633 0.0020255 -0.0011835 0.0038278 0.062495 -0.24901 0.00040403 -0.0023455
0.0024775 0.00057294 0.00054106 0.0016337
-0.0037415 0.00055842 0.0009477 0.0013509 0.00042277 -0.0023339 0.10817 -0.16723
-0.0019037 0.0036557 -0.001287 0.0017703
0.0010594 0.0010445 0.0020702 0.00065626 0.0024794 0.0005742 -0.0018935 0.0036711
0.2528 -0.024854 0.0030561 -0.0019873
-0.00064605 -0.00057412 0.00094632 0.00025009 0.00053995 0.0016303 -0.0012845 0.0017647
0.0030524 -0.0019858 0.2654 0.021813
2000000000 0.12962 -0.18879 -0.0038848 0.00066408 0.0024554 0.001616 -0.0022857 0.0036725
0.0009947 0.00040473 -0.000597 0.00042252
-0.0038782 0.0006526 0.24872 0.056486 -0.00097925 0.0057291 0.001668 0.00037761
0.0016112 -0.0014415 0.00054707 0.00011313
0.0024637 0.0015994 -0.00094665 0.0057415 0.018859 -0.23435 -0.0014424 -0.0015218
0.0020881 -0.0012336 0.0016594 0.0011871
-0.0022674 0.0036815 0.0016854 0.00037191 -0.0014306 -0.0015052 0.055054 -0.17532
-0.0032657 0.0045146 0.00022993 0.0023486
0.00099665 0.0003922 0.0015981 -0.0014576 0.0020839 -0.0012384 -0.0032525 0.0045266
0.24375 -0.059659 -0.00024953 -0.0025286
