!Keysight Technologies,M9804A,MY58100912,A.14.10.03
!Date: Thursday, April 27, 2023 10:28:33
!Correction: S11(C  6-Port  ) 
!S12(C  6-Port  ) 
!S13(C  6-Port  ) 
!S14(C  6-Port  ) 
!S15(C  6-Port  ) 
!S16(C  6-Port  ) 
!S21(C  6-Port  ) 
!S22(C  6-Port  ) 
!S23(C  6-Port  ) 
!S24(C  6-Port  ) 
!S25(C  6-Port  ) 
!S26(C  6-Port  ) 
!S31(C  6-Port  ) 
!S32(C  6-Port  ) 
!S33(C  6-Port  ) 
!S34(C  6-Port  ) 
!S35(C  6-Port  ) 
!S36(C  6-Port  ) 
!S41(C  6-Port  ) 
!S42(C  6-Port  ) 
!S43(C  6-Port  ) 
!S44(C  6-Port  ) 
!S45(C  6-Port  ) 
!S46(C  6-Port  ) 
!S51(C  6-Port  ) 
!S52(C  6-Port  ) 
!S53(C  6-Port  ) 
!S54(C  6-Port  ) 
!S55(C  6-Port  ) 
!S56(C  6-Port  ) 
!S61(C  6-Port  ) 
!S62(C  6-Port  ) 
!S63(C  6-Port  ) 
!S64(C  6-Port  ) 
!S65(C  6-Port  ) 
!S66(C  6-Port  ) 
!S6P File: Measurement: :
# Hz S  RI   R 50
500000000 -0.33725 -0.035405 -0.010099 -0.0034411 -0.00792 0.012064 -0.003536 0.011621
0.012094 0.0047025 -0.003638 0.0082231
-0.010076 -0.0034396 -0.41926 -0.049853 0.0073425 -0.011244 0.0016802 0.011935
0.0072654 0.0025669 0.0011075 0.01336
-0.0079074 0.012062 0.0072986 -0.011269 -0.26558 0.21144 0.006847 0.0032458
-0.0005777 0.0088859 0.00052788 0.012012
-0.0035127 0.011626 0.0017056 0.011938 0.006844 0.0032482 -0.32776 0.046869
-0.020211 -0.0044015 0.017427 0.025222
0.012115 0.0046545 0.0072576 0.0025431 -0.00057025 0.0088855 -0.020211 -0.0043965
-0.22622 -0.18513 -0.027576 0.0047396
-0.0035908 0.0082182 0.0011406 0.013361 0.00053371 0.012018 0.017402 0.025219
-0.027581 0.004727 -0.27342 -0.11374
560000000 -0.31609 0.12449 -0.024115 -0.062963 0.00030236 0.012193 0.0063244 0.0099471
0.010641 0.0043249 0.0099844 0.0074377
-0.024077 -0.062889 -0.37682 0.10866 -0.042008 -0.036177 0.013397 0.0038137
-0.013631 -0.0046454 0.0041396 -0.00052106
0.00034414 0.012191 -0.042169 -0.036131 -0.18298 0.25967 -0.00038681 -0.0047919
0.019411 0.0045004 0.0068516 -0.0056802
0.0063246 0.0099595 0.013444 0.0037939 -0.0003832 -0.0047852 -0.30322 0.13635
0.0034439 -0.024551 0.0046088 -0.01944
0.010647 0.0043201 -0.013679 -0.0046328 0.019428 0.0044971 0.0034325 -0.024551
-0.28605 -0.0091787 0.0074121 -0.049627
0.0099748 0.0074118 0.0041375 -0.00050523 0.0068427 -0.0056755 0.0046029 -0.019441
0.0074283 -0.049633 -0.33136 0.032661
620000000 -0.27329 0.10956 -0.023248 0.0076623 0.0036057 0.0085119 0.0066668 -0.0055333
0.011628 -0.00055242 0.00062327 -0.0022215
-0.023236 0.0076401 -0.40292 0.062795 -0.018628 0.00031179 -0.0011972 -0.0019174
0.010595 -0.0071227 0.0014718 -0.0026437
0.003638 0.0085147 -0.018652 0.00036637 -0.15252 0.26853 -0.0014179 -0.0051977
-0.0036024 -0.0033577 0.0082892 -0.0036004
0.0066544 -0.0055422 -0.0011941 -0.0019153 -0.0014139 -0.0051993 -0.26204 0.14632
-0.039155 -0.018197 0.014344 0.023952
0.011628 -0.00055428 0.010579 -0.0071523 -0.0035956 -0.0033702 -0.039166 -0.018174
-0.20484 -0.049393 -0.040374 0.014481
0.00064149 -0.0022772 0.001461 -0.0026267 0.0082907 -0.0035979 0.014326 0.023965
-0.040384 0.014459 -0.2498 -0.003354
680000000 -0.23339 0.19373 -0.027875 -0.013585 0.0048324 0.0049261 0.0011368 -0.0076739
-0.0030748 -0.010885 0.0042646 -0.0066588
-0.027853 -0.013588 -0.38718 0.15993 -0.0325 -0.0011528 -0.0015823 -0.00030349
-0.0026383 -0.0090226 -0.0009583 -0.0020284
0.0048456 0.0049203 -0.03252 -0.0010537 -0.10142 0.28789 -0.00078769 -8.539e-05
-0.0022117 0.00053235 -0.0027601 -0.0094114
0.0011139 -0.0076436 -0.0015752 -0.00030729 -0.00079538 -9.1614e-05 -0.21894 0.19609
-0.023568 -0.0077695 -0.0085994 -0.01039
-0.0030964 -0.010888 -0.0026672 -0.0090324 -0.0022073 0.00053339 -0.023577 -0.0077599
-0.25318 0.049214 -0.0057188 -0.0089545
0.0042498 -0.0066785 -0.00096415 -0.0020231 -0.0027539 -0.0094125 -0.0086113 -0.010386
-0.005718 -0.008943 -0.25884 0.099431
740000000 -0.18968 0.18869 -0.03828 0.026774 0.012632 -0.0052593 -0.00070561 -0.004027
-0.0046544 -0.0027037 -0.0062814 0.0031911
-0.038265 0.026718 -0.33431 0.17817 -0.034514 0.035242 -0.00075685 -0.0065183
-0.012045 0.0077357 -0.002512 -0.0059902
0.012605 -0.0052874 -0.034426 0.035377 -0.067822 0.28622 -0.0015221 0.0033078
-0.0027991 -0.0042808 -0.0014023 0.00024687
-0.000714 -0.004037 -0.0007834 -0.0065522 -0.0015197 0.0033086 -0.20216 0.20331
-0.042384 -0.0078996 0.022304 0.013388
-0.0047008 -0.002684 -0.01201 0.0077228 -0.0027978 -0.0042795 -0.042419 -0.0078559
-0.1568 0.074639 -0.041641 0.00057877
-0.0062354 0.0031993 -0.0025268 -0.0060352 -0.0014159 0.00023971 0.022327 0.013381
-0.041684 0.00056343 -0.24623 0.10472
800000000 -0.15697 0.22843 -0.022062 0.017274 0.0052589 -0.010541 -0.0047598 -0.0020298
-0.004151 0.0024537 0.004278 0.00081902
-0.022045 0.01726 -0.337 0.24863 -0.0075779 0.03393 -0.0021858 0.0022032
-0.00085645 0.0033201 0.0011581 0.0053346
0.0052329 -0.010557 -0.0074847 0.033995 -0.02672 0.30889 0.0010597 0.0016501
0.00057224 0.0036324 -0.0017474 0.00093001
-0.0047631 -0.0020284 -0.0021757 0.0022109 0.0010553 0.0016475 -0.1738 0.23083
-0.027835 0.012615 0.013004 -0.0099491
-0.0041422 0.0024684 -0.00084879 0.0033305 0.00057524 0.0036346 -0.027833 0.01267
-0.20079 0.097496 -0.017032 0.017331
0.0042844 0.00079643 0.0011831 0.0053199 -0.0017584 0.00094309 0.013001 -0.0099806
-0.017047 0.017324 -0.23748 0.15644
860000000 -0.12225 0.24918 -0.016803 0.030972 -0.0032855 -0.0098451 -0.0024453 0.001113
0.0040028 0.0050171 -0.002938 -0.0027551
-0.016799 0.030951 -0.28903 0.2903 0.0082481 0.033949 0.00014124 0.0021079
0.0041939 0.00047059 0.0032899 0.00036362
-0.0033145 -0.0098365 0.0083575 0.033961 0.021378 0.31656 -0.00038334 -0.00025794
0.0027974 -0.0015424 0.0016278 0.0042636
-0.002444 0.001122 0.00014358 0.0021108 -0.0003855 -0.00026005 -0.13794 0.24217
-0.017484 0.018417 -0.0060377 -0.0087513
0.0040244 0.0050037 0.0041956 0.00044811 0.0027966 -0.0015481 -0.017462 0.018469
-0.15029 0.14577 -0.023941 0.015041
-0.0029499 -0.0027441 0.0032983 0.00035423 0.0016343 0.0042645 -0.006043 -0.0087485
-0.023944 0.015042 -0.18766 0.19811
920000000 -0.097066 0.2721 0.0055541 0.037323 -0.0093199 -0.0044289 -0.0019619 0.0021426
0.0015511 0.0016302 0.0025032 -0.0015361
0.0055342 0.037298 -0.25994 0.31078 0.02802 0.021419 0.0015927 0.0010546
0.0069913 -0.0006597 0.0038776 -0.0030588
-0.0093358 -0.0044129 0.028115 0.021366 0.067527 0.31691 0.0018165 -0.00015006
0.0012549 -0.00050054 0.00075398 -0.0011855
-0.0019756 0.0021355 0.0016018 0.0010551 0.0018096 -0.00015864 -0.11373 0.25845
-0.01003 0.029745 0.0027296 -0.0066653
0.0015691 0.0016323 0.0069965 -0.0006948 0.0012523 -0.00049968 -0.0099733 0.029779
-0.14027 0.15103 -0.0019975 0.026906
0.00249 -0.0015416 0.0038749 -0.0030772 0.00076113 -0.0011869 0.0027375 -0.00668
-0.0020021 0.026901 -0.19276 0.21205
980000000 -0.049595 0.2916 0.017933 0.02953 -0.0088432 0.0045361 0.0022979 0.003712
0.0040313 -0.0017705 -0.0029019 -0.0021135
0.017913 0.029533 -0.20726 0.34436 0.032733 0.0044144 0.0019846 3.1912e-06
0.0012888 -0.0062774 -0.00052472 -0.0021142
-0.0088293 0.0045652 0.032781 0.0043129 0.11377 0.31011 0.00043417 -0.0012039
7.5037e-05 -0.0021495 0.0014078 -1.4224e-05
0.0023033 0.0037047 0.0019925 9.8445e-06 0.00042817 -0.0012042 -0.075678 0.2696
0.0076471 0.028179 -0.0090387 -0.0066986
0.0040141 -0.0017874 0.0012508 -0.0063021 7.4869e-05 -0.0021521 0.0077156 0.028177
-0.10807 0.17843 0.0049164 0.018497
-0.0029124 -0.0020888 -0.00051712 -0.002121 0.0014086 -1.4128e-05 -0.009049 -0.0066919
0.004916 0.0185 -0.14992 0.25672
1040000000 -0.0069515 0.29968 0.033107 0.017434 -0.0012372 0.0067471 0.0027188 0.00078345
7.5756e-06 -0.0037381 -0.00064896 -0.0016257
0.033098 0.017456 -0.17189 0.35723 0.028901 -0.014972 0.0015031 -0.0017377
-0.002515 -0.0025113 -0.0015123 -0.0027452
-0.0012017 0.0067439 0.028868 -0.015072 0.15981 0.29623 -0.00052664 -0.0014574
-0.0016287 -0.00081868 -0.00049242 -0.0010716
0.0027083 0.00077517 0.0015225 -0.0017301 -0.00052604 -0.0014543 -0.048481 0.27957
0.01814 0.016775 -0.0030864 0.0018648
3.6843e-07 -0.0037211 -0.0025634 -0.0025094 -0.0016297 -0.00080917 0.018191 0.01675
-0.077726 0.18658 0.01345 0.017504
-0.00066388 -0.0016167 -0.0015184 -0.0027662 -0.00049322 -0.0010721 -0.0030763 0.0018531
0.01345 0.017504 -0.12768 0.2755
1100000000 0.03849 0.30691 0.035399 -0.004842 0.002727 0.0037123 0.0025868 -0.0012826
-0.0021471 -0.0030848 -0.0039511 0.00013501
0.035372 -0.0048171 -0.12847 0.37404 0.014705 -0.027634 3.2107e-05 -0.0018094
-0.0033205 -0.00054127 -0.0034083 -0.00046062
0.0027396 0.0036911 0.014617 -0.027715 0.20607 0.27568 -0.0017767 0.00025151
-0.0017657 0.00070123 -0.00097286 -0.00024191
0.0025877 -0.0012832 2.6622e-05 -0.001817 -0.001772 0.00024616 -0.0081503 0.28452
0.022479 0.0046928 -0.0024642 0.00086752
-0.002158 -0.003068 -0.0033411 -0.00051375 -0.0017699 0.00070968 0.022499 0.0046656
-0.05938 0.19943 0.01859 0.0082703
-0.0039522 0.00014278 -0.0034045 -0.0004522 -0.00096798 -0.00023752 -0.002477 0.00085073
0.018599 0.0082742 -0.080874 0.30302
1160000000 0.089957 0.30161 0.023273 -0.020949 0.0025026 -0.00040584 -3.877e-05 -0.002475
-0.0040049 -0.00046877 -0.00099425 0.0038547
0.023294 -0.020907 -0.084921 0.37821 -0.00397 -0.028717 -0.0017623 -0.0016649
-0.0025403 0.0027754 -0.0012806 0.0015864
0.0025107 -0.00041465 -0.0041031 -0.028741 0.2489 0.24466 -0.00065486 0.001753
-0.00036836 0.001906 -0.00087115 9.5122e-05
-4.1445e-05 -0.0024798 -0.0017617 -0.0016551 -0.00065272 0.0017578 0.030921 0.28172
0.018885 -0.0098013 -0.002761 0.0055812
-0.0040187 -0.00045845 -0.0025383 0.0027852 -0.00037622 0.0019226 0.018892 -0.0098186
-0.026761 0.2084 0.017099 0.00033877
-0.00099363 0.0038671 -0.0012582 0.0015943 -0.00087127 0.00010167 -0.0027646 0.0055863
0.017124 0.0003243 -0.034144 0.30543
1220000000 0.13438 0.28997 0.0096871 -0.029803 -0.0016477 -0.00061452 -5.017e-05 -0.0012213
-0.0025563 0.0025622 0.0013188 0.0019153
0.0097031 -0.029759 -0.040805 0.38988 -0.016859 -0.020765 -0.0025068 0.00042621
0.00026776 0.0030091 -0.00064811 0.0017854
-0.0016476 -0.00061901 -0.016967 -0.020725 0.28783 0.20555 0.00088907 0.0016457
0.00062491 0.0011245 0.0003155 0.00070014
-4.7694e-05 -0.0012255 -0.0025074 0.00044286 0.00089134 0.0016402 0.07049 0.27363
0.0089692 -0.015323 0.0025561 0.0018097
-0.0025384 0.0025653 0.00027832 0.0030049 0.0006248 0.0011193 0.0089411 -0.015334
-0.0040632 0.21781 0.013117 -0.012213
0.0013118 0.0019071 -0.00063452 0.001787 0.00032422 0.00070187 0.0025341 0.001808
0.013117 -0.012247 -0.0022637 0.32063
1280000000 0.18389 0.26744 -0.0082851 -0.027874 -0.0017729 0.0027187 -0.0011037 -0.002085
-0.00061601 0.0030759 0.0025632 0.0010296
-0.0082546 -0.027844 0.0049812 0.3809 -0.023527 -0.0082529 -0.0010457 0.0014994
0.0017255 0.0016054 0.00057287 0.0019389
-0.0017606 0.00273 -0.02359 -0.0081606 0.31825 0.16168 0.0014769 -0.00017078
0.0011007 3.0709e-05 0.00029919 0.00036298
-0.001107 -0.0020903 -0.0010407 0.0015112 0.0014777 -0.00016779 0.10698 0.25777
0.00028262 -0.016936 0.00045776 0.00026015
-0.00059412 0.0030771 0.0017344 0.001609 0.0010909 3.1416e-05 0.00024353 -0.016945
0.032388 0.22185 0.0025758 -0.014137
0.002563 0.0010175 0.00058959 0.0019349 0.00030203 0.00036268 0.00044745 0.00027908
0.0025752 -0.014177 0.044928 0.32083
1340000000 0.22072 0.23332 -0.017729 -0.018303 0.0009884 0.004488 -0.0020344 -0.00079018
0.0015083 0.0025913 0.0017248 -0.0014967
-0.017689 -0.01831 0.044418 0.37254 -0.021362 0.0043029 -2.767e-05 0.0020085
0.0018354 0.0005562 0.0013084 0.00089342
0.0010018 0.0044902 -0.02138 0.0044055 0.34028 0.11372 0.0009965 -0.00092762
0.0006149 -0.000414 0.00012935 0.00023319
-0.0020447 -0.00078486 -1.0971e-05 0.0020103 0.0010055 -0.00092426 0.14011 0.238
-0.0077714 -0.01398 0.0012644 0.00022132
0.0015219 0.0025893 0.0018444 0.00054237 0.00061188 -0.00041465 -0.0078041 -0.013969
0.062612 0.21797 -0.0036058 -0.012821
0.0017207 -0.0015162 0.0013219 0.00089402 0.00013291 0.00023422 0.0012714 0.0002387
-0.0036387 -0.012863 0.083273 0.3152
1400000000 0.25346 0.19473 -0.023069 -0.0069506 0.0052258 0.0030209 -0.0020658 0.00081443
0.0025239 0.00070126 0.00019167 -0.0014256
-0.023041 -0.0069651 0.081489 0.35942 -0.014634 0.012306 0.0013912 0.001282
0.0010069 -0.00090455 0.0011714 0.00022631
0.0052369 0.0030101 -0.014604 0.012393 0.35327 0.060086 4.2341e-05 -0.0014678
4.0412e-05 -0.00031119 0.00034295 0.00016447
-0.0020742 0.00082097 0.0014066 0.0012745 4.1673e-05 -0.0014645 0.17021 0.20964
-0.012592 -0.0079281 -0.00044767 -0.00064686
0.0025198 0.0006927 0.00099326 -0.00091817 3.617e-05 -0.0003128 -0.012619 -0.007897
0.095764 0.21374 -0.0097291 -0.0080575
0.00018462 -0.0014212 0.0011703 0.00022609 0.00034261 0.00016039 -0.00043055 -0.00063561
-0.0097757 -0.0080752 0.12705 0.3035
1460000000 0.27599 0.1504 -0.019922 0.00493 0.0056437 -0.0018229 -0.0014728 0.0018511
0.0019906 -0.00075844 -0.00039141 -0.00089871
-0.019914 0.0048994 0.11577 0.33753 -0.0060274 0.015176 0.0017262 0.00012229
0.00077201 -0.0011597 0.0011791 -0.00063218
0.0056524 -0.0018318 -0.0059782 0.015235 0.35925 0.0055914 -0.0011497 -0.0011957
0.00023714 -6.0234e-05 0.00070008 -0.00037207
-0.0014667 0.001851 0.0017329 0.00010375 -0.001145 -0.0011884 0.19743 0.18059
-0.013109 -0.0023344 -0.00094533 0.0014782
0.0019911 -0.00077392 0.00076085 -0.0011652 0.00023521 -7.4496e-05 -0.013127 -0.0022945
0.12593 0.19947 -0.01121 -0.0025562
-0.00040347 -0.00091008 0.0011751 -0.00063087 0.00069754 -0.00037398 -0.00091415 0.001477
-0.011246 -0.0025243 0.16024 0.28189
1520000000 0.28791 0.10843 -0.014238 0.010281 0.0031724 -0.0042576 0.00020314 0.0026134
0.0016908 -0.0017502 -0.0011699 -0.00011184
-0.014244 0.010254 0.14928 0.3226 0.0015033 0.013008 0.0015831 -0.00084028
3.2683e-05 -0.00084801 0.00033789 -0.0010146
0.0031655 -0.0042754 0.0015714 0.013032 0.35241 -0.050672 -0.0009937 -0.00031845
0.0005664 -0.00082065 -6.2921e-05 -7.2015e-05
0.00020897 0.0026271 0.0015785 -0.00085112 -0.00098175 -0.00033013 0.22157 0.14222
-0.01236 0.002218 0.0011187 0.001716
0.0016814 -0.0017633 2.7554e-05 -0.00085006 0.00056254 -0.00082439 -0.012357 0.0022486
0.15467 0.18507 -0.01113 0.0016574
-0.0011783 -0.00010135 0.00033309 -0.0010216 -6.6278e-05 -7.1512e-05 0.0011428 0.0017001
-0.011156 0.0016952 0.19277 0.26058
1580000000 0.29681 0.061713 -0.0077404 0.013107 -0.00094745 -0.0049259 0.0014613 0.0017638
-0.0005174 -0.0021057 -0.00038498 0.00038913
-0.0077494 0.013099 0.17651 0.29765 0.0051546 0.0082444 0.00040285 -0.0015793
-0.00038421 -0.00096772 -0.00023039 -0.00089694
-0.00096007 -0.0049212 0.0052087 0.0082415 0.33192 -0.10828 -0.0014645 0.00048177
-0.00027326 -0.0011347 0.00013567 -0.00055622
0.0014732 0.0017701 0.000395 -0.0015783 -0.0014627 0.00048825 0.23632 0.10211
-0.0095683 0.0060802 0.0019178 0.00057783
-0.00053555 -0.0021147 -0.00039443 -0.00096027 -0.0002758 -0.0011314 -0.0095594 0.0061063
0.17971 0.16659 -0.0087002 0.007026
-0.00038387 0.00039559 -0.00022843 -0.00090135 0.00013427 -0.00055861 0.0019291 0.00054973
-0.0087123 0.0070706 0.22405 0.23316
1640000000 0.29818 0.019955 -0.0013152 0.011968 -0.0027998 -0.0026101 0.0025759 0.00091709
-0.00088952 -0.0011407 -0.00028736 0.00064429
-0.0013318 0.011955 0.20588 0.27236 0.0058085 0.0034715 -0.00073794 -0.0016256
-0.00088326 -0.0004835 -0.00055504 -0.00068558
-0.0028141 -0.002599 0.00585 0.003456 0.3036 -0.15753 -0.00078081 0.0013288
-0.001087 -0.00086799 -0.00014152 -0.00035084
0.002584 0.00091218 -0.00074173 -0.0016222 -0.00078047 0.0013241 0.249 0.052035
-0.006107 0.0068379 0.0021996 -0.00075967
-0.0008954 -0.0011286 -0.00089189 -0.00047526 -0.0010861 -0.00086496 -0.0060956 0.0068612
0.20339 0.14099 -0.0042987 0.0090333
-0.00028013 0.00065263 -0.00056952 -0.00067751 -0.00014105 -0.0003545 0.0022011 -0.00077644
-0.0042872 0.0090735 0.24929 0.20144
1700000000 0.29012 -0.025477 0.0019767 0.009246 -0.0035341 8.5086e-05 0.0028702 -0.0011737
-0.0018673 -0.00043738 0.00066391 0.00044158
0.0019646 0.0092414 0.22388 0.24061 0.0039011 0.00063483 -0.001395 -0.00053148
-0.00076982 -9.0157e-05 -0.00098594 -0.00039975
-0.0035352 9.7915e-05 0.0039268 0.00061432 0.25992 -0.19747 0.00033216 0.0015553
-0.0017762 -0.00018696 -0.00063236 -0.00093291
0.0028741 -0.0011982 -0.001397 -0.00053185 0.00033115 0.0015475 0.24542 0.00089164
-0.0042073 0.007251 0.0012475 -0.002152
-0.001863 -0.00042172 -0.0007719 -8.4676e-05 -0.0017776 -0.00018241 -0.0042007 0.0072633
0.22115 0.11924 0.00015368 0.0091769
0.00067274 0.0004381 -0.00098869 -0.00039121 -0.0006393 -0.00094391 0.001231 -0.0021693
0.00018445 0.0092074 0.26488 0.16684
1760000000 0.27696 -0.073885 0.0042235 0.0060716 -0.0023157 0.00086049 0.0012914 -0.0033214
-0.0010113 0.00068779 0.00042136 -0.00052629
0.0042073 0.0060753 0.24958 0.2005 0.001678 -0.0011223 -0.001086 0.00022833
-0.0012002 0.00081814 -0.00062028 0.0005475
-0.0023103 0.00086516 0.0016899 -0.0011317 0.21071 -0.23043 0.0010924 0.001254
-0.0011934 0.0013924 -0.0013242 -0.00036653
0.0012732 -0.0033421 -0.0010856 0.0002258 0.0010924 0.0012468 0.23512 -0.051535
-0.001796 0.0067025 -0.00042757 -0.0022874
-0.0010038 0.0007024 -0.0011975 0.0008301 -0.0011836 0.0013861 -0.0017864 0.0067111
0.23597 0.082207 0.0040052 0.0066315
0.00041582 -0.00053447 -0.0006283 0.00055423 -0.0013246 -0.00036376 -0.00044815 -0.0022878
0.0040548 0.0066365 0.27688 0.12871
1820000000 0.25148 -0.11084 0.004448 0.0025924 -0.00014215 0.002431 -0.00093685 -0.0030987
-0.00076899 0.00060356 -1.0774e-05 -0.00018682
0.0044362 0.0026007 0.25919 0.1702 -0.00029392 -0.0001072 -0.0013101 0.00084636
-0.00022519 0.0013675 -0.00050861 0.00058788
-0.00013209 0.0024368 -0.00028138 -0.00011636 0.1605 -0.24599 0.0015308 0.00043611
-0.0003933 0.0021272 -0.0014246 0.0005425
-0.00096213 -0.0030952 -0.0013074 0.00084554 0.0015275 0.0004327 0.2036 -0.098942
-0.00080648 0.0053735 -0.0016407 -0.0014162
-0.00076432 0.0006138 -0.00021697 0.0013749 -0.0003825 0.0021322 -0.00079584 0.0053797
0.25233 0.050692 0.0048109 0.0031682
-1.538e-05 -0.00018984 -0.00050936 0.00058549 -0.001427 0.00054768 -0.0016494 -0.0013978
0.004859 0.0031629 0.27827 0.092254
1880000000 0.21572 -0.15026 0.0022753 0.00039071 -0.00043443 0.0022528 -0.0028446 -0.0022463
-0.00021375 0.0013678 0.00028256 -0.00050082
0.002272 0.00039376 0.26321 0.12361 -0.0022459 0.0015589 -0.00015223 0.0016746
0.0005996 0.0014714 0.00023292 0.0010176
-0.00043243 0.0022572 -0.0022459 0.0015652 0.1085 -0.2554 0.0020131 -0.00092999
0.0014846 0.0020663 -0.00078942 0.0014511
-0.0028688 -0.0022221 -0.00014185 0.0016819 0.0020214 -0.00093297 0.16156 -0.13833
-0.00067887 0.0041297 -0.0024355 0.00063769
-0.00021068 0.0013631 0.00060432 0.0014675 0.0014785 0.0020724 -0.00067182 0.0041309
0.25369 0.016047 0.0044392 0.0010061
0.00027185 -0.00050875 0.00023644 0.001021 -0.00079039 0.0014479 -0.0024351 0.0006475
0.0044675 0.00098068 0.27714 0.058078
1940000000 0.17599 -0.17529 3.7654e-05 -0.0013863 0.0013419 0.0020157 -0.0037513 0.00054451
0.0010498 0.0010526 -0.00065071 -0.00057825
2.7091e-05 -0.0013942 0.2633 0.091783 -0.0012056 0.003805 0.00094192 0.0013521
0.0020521 0.00069703 0.00094521 0.00025823
0.0013388 0.0020053 -0.0011993 0.003815 0.062461 -0.24902 0.00042684 -0.0023366
0.0024693 0.00057958 0.00055191 0.0016255
-0.0037515 0.00056804 0.00095538 0.001345 0.00042018 -0.002336 0.10819 -0.16735
-0.0019329 0.0035462 -0.0013527 0.0017572
0.0010535 0.0010398 0.0020541 0.00067427 0.0024719 0.00057529 -0.0019183 0.0035423
0.25287 -0.024822 0.0031787 -0.0020681
-0.00065798 -0.00056809 0.00094978 0.00025139 0.00056094 0.0016175 -0.0013543 0.0017627
0.0031915 -0.0021039 0.2654 0.021929
2000000000 0.12971 -0.18878 -0.0038783 0.00067626 0.0024591 0.0016194 -0.0022876 0.0036617
0.0009944 0.00041971 -0.00058669 0.000438
-0.0038853 0.00066941 0.24872 0.05649 -0.001002 0.0057388 0.001675 0.00037832
0.0016286 -0.0014223 0.0005443 0.00011874
0.0024658 0.00162 -0.00096448 0.0057429 0.018886 -0.23433 -0.0014281 -0.0015198
0.0020863 -0.0012406 0.0016518 0.0011779
-0.0022684 0.0036808 0.0016838 0.00036681 -0.0014302 -0.0015139 0.055016 -0.17544
-0.0033419 0.0044218 0.00017033 0.0023768
0.0010014 0.00041325 0.0016126 -0.0014417 0.0020768 -0.0012416 -0.0033264 0.0044384
