!Keysight Technologies,M9804A,MY58100912,A.14.10.03
!Date: Thursday, April 27, 2023 10:28:33
!Correction: S11(C  6-Port  ) 
!S12(C  6-Port  ) 
!S13(C  6-Port  ) 
!S14(C  6-Port  ) 
!S15(C  6-Port  ) 
!S16(C  6-Port  ) 
!S21(C  6-Port  ) 
!S22(C  6-Port  ) 
!S23(C  6-Port  ) 
!S24(C  6-Port  ) 
!S25(C  6-Port  ) 
!S26(C  6-Port  ) 
!S31(C  6-Port  ) 
!S32(C  6-Port  ) 
!S33(C  6-Port  ) 
!S34(C  6-Port  ) 
!S35(C  6-Port  ) 
!S36(C  6-Port  ) 
!S41(C  6-Port  ) 
!S42(C  6-Port  ) 
!S43(C  6-Port  ) 
!S44(C  6-Port  ) 
!S45(C  6-Port  ) 
!S46(C  6-Port  ) 
!S51(C  6-Port  ) 
!S52(C  6-Port  ) 
!S53(C  6-Port  ) 
!S54(C  6-Port  ) 
!S55(C  6-Port  ) 
!S56(C  6-Port  ) 
!S61(C  6-Port  ) 
!S62(C  6-Port  ) 
!S63(C  6-Port  ) 
!S64(C  6-Port  ) 
!S65(C  6-Port  ) 
!S66(C  6-Port  ) 
!S6P File: Measurement: :
# Hz S  RI   R 50
500000000 -0.33726 -0.035578 -0.010104 -0.0034737 -0.0079314 0.012071 -0.0035694 0.011637
0.012063 0.0047389 -0.0037856 0.0081946
-0.010092 -0.0034724 -0.41923 -0.049933 0.0073102 -0.011247 0.0016855 0.011943
0.0072611 0.0025362 0.0011219 0.013405
-0.0079124 0.012072 0.0072902 -0.011267 -0.26558 0.2114 0.0068395 0.0032411
-0.00057845 0.0088991 0.00054305 0.012017
-0.0035242 0.011653 0.0017021 0.011956 0.0068367 0.0032373 -0.32779 0.046828
-0.020233 -0.0044265 0.017446 0.025311
0.012115 0.0047163 0.0072523 0.0025213 -0.00060083 0.0089145 -0.020253 -0.0043969
-0.22621 -0.18526 -0.027542 0.0047134
-0.0036582 0.0082413 0.0011239 0.01337 0.00051556 0.01201 0.017412 0.025284
-0.027526 0.004693 -0.27332 -0.11379
560000000 -0.31609 0.12448 -0.024057 -0.062925 0.00027323 0.012214 0.0063376 0.010011
0.01061 0.0044497 0.0099419 0.0074072
-0.024013 -0.062853 -0.37684 0.10847 -0.04204 -0.03622 0.013417 0.0037644
-0.013581 -0.0046938 0.0040525 -0.00049251
0.00029938 0.0122 -0.042167 -0.036156 -0.1829 0.25964 -0.00036761 -0.0048076
0.019427 0.0045503 0.0068241 -0.0056766
0.0063651 0.010007 0.013404 0.0037537 -0.00035966 -0.0048271 -0.30332 0.1364
0.0034316 -0.024476 0.004586 -0.019466
0.010663 0.0044173 -0.01365 -0.0046785 0.019458 0.0045287 0.0033885 -0.0245
-0.28608 -0.0092043 0.0073141 -0.049687
0.009974 0.0074178 0.0040574 -0.00052604 0.0068515 -0.0056599 0.0045887 -0.019455
0.0073417 -0.049673 -0.33141 0.03248
620000000 -0.27333 0.10953 -0.023277 0.0076393 0.0035882 0.0085011 0.0066591 -0.0055289
0.01163 -0.00052021 0.00059186 -0.0022382
-0.02327 0.0076377 -0.40297 0.062717 -0.018652 0.0003343 -0.0011731 -0.0019096
0.010572 -0.007098 0.0014883 -0.0026537
0.0036138 0.0084974 -0.018672 0.00038164 -0.15253 0.26848 -0.0014093 -0.0052012
-0.0035912 -0.0033535 0.0083206 -0.0036145
0.0066663 -0.0055595 -0.0011867 -0.0018983 -0.0014029 -0.0051914 -0.26208 0.14633
-0.039231 -0.018189 0.014311 0.024077
0.011616 -0.00050552 0.010586 -0.0071596 -0.003563 -0.0034022 -0.039203 -0.018133
-0.20478 -0.04938 -0.040455 0.014416
0.00058051 -0.0022558 0.0014617 -0.0026468 0.008323 -0.0035871 0.014345 0.024027
-0.040474 0.014397 -0.24986 -0.0034499
680000000 -0.23347 0.19364 -0.027895 -0.013616 0.0048539 0.0049195 0.0011675 -0.0076864
-0.0030611 -0.010937 0.0042623 -0.0066915
-0.027863 -0.013616 -0.38723 0.15988 -0.0325 -0.0011437 -0.0015609 -0.00031811
-0.0026098 -0.0090546 -0.00094138 -0.0020668
0.0048568 0.0049104 -0.032538 -0.0010608 -0.10145 0.28788 -0.0007755 -8.2924e-05
-0.0021557 0.00051166 -0.0027312 -0.0094192
0.0011415 -0.007645 -0.0015558 -0.00032589 -0.00077331 -8.6784e-05 -0.219 0.19615
-0.023523 -0.0077607 -0.0085815 -0.010333
-0.0031262 -0.010905 -0.0026266 -0.0090473 -0.0021758 0.00051676 -0.023548 -0.0077358
-0.25313 0.049213 -0.0057491 -0.0089483
0.004258 -0.0067125 -0.00097175 -0.0020515 -0.0027553 -0.0094413 -0.0086146 -0.010371
-0.0057385 -0.0089259 -0.25898 0.099391
740000000 -0.1897 0.18872 -0.038266 0.026792 0.012609 -0.0052518 -0.00070756 -0.0040578
-0.004658 -0.0027179 -0.0063041 0.0031502
-0.038254 0.026738 -0.33436 0.17817 -0.034519 0.035258 -0.00075106 -0.0065038
-0.012081 0.0076929 -0.0025694 -0.0060923
0.012597 -0.0052625 -0.03445 0.03538 -0.06787 0.28619 -0.0015438 0.003315
-0.0027917 -0.0043279 -0.001417 0.00022407
-0.0007011 -0.0040395 -0.00076535 -0.0065146 -0.0015506 0.0033175 -0.20213 0.20339
-0.042407 -0.0078556 0.022361 0.013433
-0.0047456 -0.0026673 -0.012046 0.0077416 -0.0028334 -0.0042931 -0.042398 -0.0078354
-0.15673 0.07468 -0.041695 0.00057827
-0.0062532 0.00318 -0.0025727 -0.0060751 -0.0014254 0.00024015 0.022384 0.013435
-0.041695 0.00053252 -0.24627 0.10493
800000000 -0.15705 0.22839 -0.022061 0.017308 0.0052566 -0.010538 -0.0047796 -0.0020405
-0.0041758 0.0024528 0.0042308 0.00079867
-0.02206 0.017281 -0.33702 0.24863 -0.0075902 0.033931 -0.0022089 0.0021943
-0.00087513 0.0033197 0.0011645 0.0053288
0.0052232 -0.010551 -0.0074943 0.033994 -0.026781 0.30886 0.0010492 0.0016423
0.00057035 0.0036509 -0.0017344 0.00093071
-0.0047846 -0.002034 -0.0022051 0.0022026 0.0010481 0.0016456 -0.1738 0.23087
-0.02782 0.012633 0.013044 -0.0099567
-0.004184 0.0024766 -0.00084951 0.0033425 0.00057831 0.0036475 -0.02782 0.012689
-0.20072 0.097431 -0.01702 0.017367
0.0042458 0.00079841 0.00116 0.0053302 -0.0017536 0.00092491 0.013056 -0.0099719
-0.017054 0.017361 -0.2375 0.15653
860000000 -0.12233 0.24913 -0.01681 0.031006 -0.0032789 -0.0098533 -0.0024536 0.0011281
0.0039972 0.0050607 -0.0029465 -0.0027158
-0.016812 0.030983 -0.28905 0.29032 0.008244 0.033971 0.00015127 0.0021087
0.0041479 0.00049975 0.0033255 0.00035911
-0.003305 -0.009845 0.008361 0.033976 0.021362 0.31656 -0.00039096 -0.00025538
0.0027901 -0.0015341 0.0016343 0.0042596
-0.0024622 0.0011383 0.00014452 0.0021128 -0.00038942 -0.0002566 -0.13794 0.24222
-0.017447 0.018474 -0.005987 -0.0087641
0.0039976 0.0050376 0.0041283 0.0004545 0.0027931 -0.0015465 -0.017434 0.018516
-0.15021 0.1456 -0.02389 0.015101
-0.0029437 -0.0027101 0.0033113 0.00036504 0.0016275 0.0042655 -0.0060022 -0.0087636
-0.023913 0.015089 -0.18762 0.19813
920000000 -0.097132 0.27211 0.0055692 0.037341 -0.0092983 -0.0044413 -0.0019537 0.0021366
0.0015347 0.0016382 0.0025075 -0.0015061
0.0055566 0.037317 -0.25993 0.31076 0.028021 0.021426 0.0015773 0.0010358
0.0069899 -0.00068067 0.0039371 -0.0030569
-0.0093193 -0.0044157 0.028127 0.021376 0.067518 0.3169 0.0018147 -0.00016579
0.0012512 -0.00050197 0.00074854 -0.0011648
-0.0019606 0.0021386 0.0015986 0.0010469 0.0018173 -0.00015504 -0.11371 0.25845
-0.010037 0.029698 0.0027456 -0.0066988
0.0015578 0.0016427 0.0069722 -0.00069719 0.0012519 -0.00051151 -0.00996 0.029748
-0.14034 0.1509 -0.0019113 0.026974
0.0025184 -0.0015159 0.003897 -0.0030775 0.00074563 -0.0011874 0.0027369 -0.0066974
-0.0019175 0.026963 -0.19273 0.2121
980000000 -0.049659 0.2916 0.017966 0.029547 -0.0088293 0.0045348 0.0022949 0.0037076
0.0040254 -0.0017798 -0.0028768 -0.0021193
0.017938 0.02955 -0.20728 0.34433 0.032741 0.0044015 0.0019788 8.4931e-06
0.0012859 -0.0062698 -0.00051003 -0.0021124
-0.0088196 0.0045503 0.032797 0.0043106 0.11375 0.31011 0.00043985 -0.0012125
6.3714e-05 -0.0021462 0.0014032 -1.2563e-05
0.0022997 0.0037035 0.0019823 1.8094e-05 0.00043874 -0.0012153 -0.075666 0.26957
0.0076899 0.028133 -0.0090337 -0.0067439
0.0040389 -0.0017869 0.0012443 -0.0062967 5.9448e-05 -0.0021596 0.0077534 0.02813
-0.1082 0.17831 0.0049655 0.018495
-0.0028914 -0.0020931 -0.00051286 -0.0021306 0.0014055 -1.5033e-05 -0.009045 -0.0067268
0.0049553 0.018475 -0.14994 0.25669
1040000000 -0.0070342 0.29972 0.033142 0.017416 -0.001227 0.0067444 0.0027079 0.00079678
1.7569e-06 -0.0037265 -0.0006419 -0.0016202
0.033131 0.017429 -0.17192 0.35717 0.028888 -0.014981 0.0015031 -0.0017446
-0.0025348 -0.0025189 -0.0014592 -0.002757
-0.00121 0.0067352 0.028874 -0.015089 0.1598 0.29622 -0.00052353 -0.0014517
-0.001635 -0.00082253 -0.00049499 -0.0010709
0.002717 0.00078022 0.0015115 -0.0017415 -0.00053211 -0.0014549 -0.048477 0.27956
0.018142 0.016738 -0.0030767 0.0018298
-1.1442e-05 -0.0037183 -0.0025806 -0.002487 -0.0016343 -0.00081959 0.018191 0.016709
-0.077906 0.1865 0.013482 0.01746
-0.00065606 -0.0016259 -0.001509 -0.0027681 -0.00048751 -0.0010755 -0.0030725 0.0018302
0.01348 0.017463 -0.1278 0.2754
1100000000 0.038462 0.30696 0.035413 -0.0048486 0.0027246 0.0037104 0.0025917 -0.0012752
-0.0021386 -0.0030841 -0.0039508 0.00011979
0.035396 -0.0048247 -0.1285 0.37401 0.014718 -0.027645 4.0759e-05 -0.0018096
-0.0033146 -0.00054971 -0.0034029 -0.00048959
0.0027364 0.0036914 0.014633 -0.027725 0.206 0.27566 -0.001777 0.00025687
-0.0017768 0.00070912 -0.00097569 -0.00025484
0.0025844 -0.0012851 3.8876e-05 -0.0018094 -0.0017805 0.00024851 -0.008167 0.2845
0.022472 0.0046553 -0.0025029 0.0008173
-0.0021557 -0.0030848 -0.0033274 -0.00052754 -0.0017758 0.00071183 0.022487 0.0046217
-0.059585 0.19949 0.018579 0.0082373
-0.0039543 0.00012897 -0.0034153 -0.00046362 -0.00099031 -0.00024439 -0.0025001 0.00081781
0.018563 0.0082463 -0.080971 0.30299
1160000000 0.089926 0.30168 0.023293 -0.020985 0.00249 -0.00040743 -3.9052e-05 -0.0024731
-0.0040044 -0.0004562 -0.0010007 0.0038438
0.023313 -0.020944 -0.084977 0.3782 -0.0039858 -0.028754 -0.001762 -0.0016737
-0.0025457 0.0027743 -0.0012639 0.0015912
0.0024993 -0.00042572 -0.0041046 -0.028751 0.24886 0.24468 -0.00065981 0.0017478
-0.00036026 0.0018885 -0.00086566 9.3958e-05
-4.6686e-05 -0.0024813 -0.0017621 -0.0016553 -0.00065921 0.0017434 0.030908 0.28169
0.018878 -0.0098384 -0.0028198 0.005576
-0.0040163 -0.0004554 -0.0025536 0.0027738 -0.00035274 0.0019056 0.018865 -0.0098544
-0.026882 0.20855 0.017095 0.00028132
-0.00099062 0.0038539 -0.0012667 0.0015845 -0.00087307 9.2352e-05 -0.0028093 0.0055739
0.017092 0.00030022 -0.034201 0.30546
1220000000 0.13438 0.29 0.0096892 -0.029846 -0.0016441 -0.00062536 -4.3129e-05 -0.0012139
-0.0025605 0.0025514 0.0013039 0.0018959
0.0097017 -0.029802 -0.04085 0.38991 -0.016862 -0.020782 -0.0025112 0.00041547
0.00026283 0.0030029 -0.00063165 0.0017893
-0.0016418 -0.00061948 -0.016971 -0.020723 0.28776 0.20554 0.0008897 0.0016375
0.00063051 0.0011096 0.0003288 0.00070884
-4.247e-05 -0.0012171 -0.0025106 0.00042801 0.00088235 0.0016364 0.070456 0.27356
0.0089308 -0.015349 0.0024964 0.0018361
-0.0025438 0.0025607 0.0002635 0.0030014 0.00063116 0.0011171 0.0089193 -0.015361
-0.004111 0.21797 0.013088 -0.012291
0.0013145 0.0018994 -0.00063032 0.001801 0.00031988 0.00069891 0.0024984 0.001832
0.013093 -0.012284 -0.0022951 0.32064
1280000000 0.18389 0.26745 -0.0083213 -0.02793 -0.0017847 0.0027108 -0.0011017 -0.0020885
-0.0006145 0.0030668 0.0025712 0.0010505
-0.008297 -0.027905 0.004939 0.3809 -0.02353 -0.008269 -0.0010523 0.0015022
0.0017325 0.0016153 0.00058904 0.0019454
-0.0017728 0.0027255 -0.0236 -0.0081754 0.31818 0.16172 0.0014881 -0.00016599
0.0010919 2.7607e-05 0.00029885 0.00036922
-0.0011084 -0.002088 -0.0010447 0.0015002 0.0014828 -0.00015383 0.10694 0.25775
0.00022569 -0.016953 0.00041783 0.000315
-0.00058892 0.0030581 0.0017298 0.0016185 0.0010929 1.7272e-05 0.00019331 -0.016957
0.032492 0.22201 0.0025123 -0.014218
0.0025704 0.0010451 0.0005928 0.0019474 0.00029855 0.00037197 0.00042292 0.0003088
0.0025229 -0.014226 0.044941 0.32084
1340000000 0.22072 0.2333 -0.017785 -0.018336 0.00098137 0.0044958 -0.0020336 -0.00079872
0.00149 0.0025883 0.0017387 -0.0014979
-0.017756 -0.018328 0.04443 0.37255 -0.021394 0.0042916 -2.2161e-05 0.0020141
0.0018364 0.00056275 0.0013126 0.00089453
0.00099534 0.0044849 -0.021385 0.0044068 0.34025 0.11373 0.00099532 -0.00092442
0.0006154 -0.0004172 0.00013747 0.00024319
-0.0020424 -0.00079164 -1.5746e-05 0.002009 0.001006 -0.00092564 0.14008 0.23797
-0.0078243 -0.013958 0.0012877 0.00028666
0.0015092 0.0025972 0.0018394 0.00054615 0.00060594 -0.00042123 -0.0078609 -0.013952
0.062743 0.21797 -0.0037162 -0.012865
0.0017373 -0.0015108 0.0013156 0.00088191 0.00013429 0.00024103 0.0012845 0.00028288
-0.0037025 -0.012866 0.083335 0.31517
1400000000 0.2534 0.19467 -0.023144 -0.0069392 0.0052229 0.0030437 -0.0020687 0.00080628
0.0025214 0.00071158 0.00019084 -0.0014491
-0.023112 -0.0069538 0.081474 0.35943 -0.014666 0.012301 0.00141 0.001295
0.0010123 -0.00090723 0.001174 0.00023306
0.005234 0.0030202 -0.014622 0.012382 0.35327 0.060142 3.7125e-05 -0.0014632
2.8824e-05 -0.00030563 0.00034502 0.00016248
-0.0020758 0.00081307 0.0014157 0.0012843 4.0787e-05 -0.001462 0.17017 0.20962
-0.012658 -0.0078854 -0.00039447 -0.00060753
0.0025218 0.00069569 0.0010164 -0.00092116 3.3017e-05 -0.00029874 -0.012672 -0.0078557
0.095853 0.21364 -0.0098528 -0.0080268
0.00018727 -0.0014459 0.0011727 0.00021376 0.00034752 0.00016537 -0.00039941 -0.00061094
-0.0098482 -0.0080377 0.12716 0.30346
1460000000 0.27591 0.15039 -0.019976 0.0049713 0.0056439 -0.0018151 -0.0014885 0.0018738
0.0019923 -0.00074031 -0.00039076 -0.00091764
-0.019972 0.0049645 0.11575 0.33751 -0.00607 0.015188 0.0017325 0.00013013
0.0007707 -0.0011602 0.0011867 -0.0006292
0.0056355 -0.0018375 -0.0060041 0.015236 0.35921 0.0056499 -0.0011589 -0.0011883
0.00023566 -3.5507e-05 0.00069262 -0.00036794
-0.0014784 0.0018758 0.0017411 0.00011967 -0.0011543 -0.0011775 0.19738 0.18056
-0.013126 -0.0022559 -0.00086833 0.0014678
0.0019864 -0.00075011 0.00077494 -0.0011727 0.00024554 -4.3383e-05 -0.013134 -0.0022271
0.12595 0.19932 -0.011293 -0.0024655
-0.00040669 -0.00091721 0.001182 -0.00063769 0.00069267 -0.0003782 -0.00086548 0.0014722
-0.011282 -0.0024652 0.1603 0.28177
1520000000 0.28778 0.10846 -0.014258 0.01035 0.0031962 -0.0042366 0.00020437 0.0026183
0.0017067 -0.0017592 -0.0011689 -0.00011483
-0.01426 0.010329 0.14927 0.32259 0.0014887 0.013055 0.0015828 -0.00084792
2.4687e-05 -0.00084653 0.00034426 -0.0010133
0.0031766 -0.0042537 0.0015585 0.013057 0.3524 -0.050596 -0.00098634 -0.00034341
0.00057377 -0.00083608 -4.5992e-05 -7.1981e-05
0.00021327 0.0026137 0.0015932 -0.00085717 -0.00098912 -0.00034512 0.22147 0.1422
-0.012339 0.0023174 0.0011718 0.0016806
0.0016842 -0.0017659 1.2265e-05 -0.00085279 0.0005801 -0.00083877 -0.012334 0.0023471
0.15452 0.18495 -0.011165 0.0017881
-0.0011808 -0.00011545 0.00034224 -0.0010125 -5.1056e-05 -7.321e-05 0.0011645 0.0016727
-0.01115 0.0017745 0.1927 0.26048
1580000000 0.29671 0.06179 -0.0077063 0.013173 -0.00091316 -0.0049157 0.0014629 0.001776
-0.00053279 -0.0021119 -0.00039568 0.00040345
-0.0077123 0.013161 0.17649 0.29763 0.0051675 0.0082811 0.00039548 -0.0015889
-0.00039667 -0.00095597 -0.0002233 -0.0009006
-0.00093237 -0.0049087 0.005214 0.0082582 0.33201 -0.10821 -0.0014778 0.00049291
-0.00028011 -0.001142 0.00012065 -0.00056926
0.001472 0.0017708 0.00038355 -0.0015965 -0.0014709 0.00049066 0.23621 0.10214
-0.0094853 0.006135 0.001932 0.00052818
-0.00054252 -0.0021104 -0.00039961 -0.00096031 -0.00028273 -0.0011431 -0.0094769 0.0061605
0.17954 0.16655 -0.008697 0.0071408
-0.00039207 0.00040619 -0.00023284 -0.00090209 0.00011744 -0.00057913 0.0019362 0.00052217
-0.0086682 0.0071236 0.22391 0.23309
1640000000 0.29811 0.020076 -0.0012575 0.012001 -0.0028001 -0.0026326 0.0025698 0.0009235
-0.00088988 -0.0011344 -0.00027084 0.00065351
-0.0012719 0.011994 0.20581 0.27235 0.0058326 0.0035041 -0.00075228 -0.0016315
-0.00087812 -0.00047414 -0.00055443 -0.00068613
-0.0028075 -0.0026137 0.0058593 0.0034711 0.30364 -0.15751 -0.00078383 0.0013336
-0.0010944 -0.00086644 -0.00015264 -0.00034914
0.002577 0.00091414 -0.00076209 -0.0016274 -0.00078269 0.0013315 0.2489 0.052113
-0.0060004 0.0068327 0.0021831 -0.00079871
-0.00089287 -0.0011355 -0.00089237 -0.00046362 -0.0010879 -0.00087181 -0.0059952 0.0068509
0.20321 0.14104 -0.0042341 0.0091223
-0.00026972 0.00065959 -0.00056655 -0.00068133 -0.00015373 -0.00035348 0.0021769 -0.0008076
-0.0042166 0.0090898 0.2491 0.20144
1700000000 0.29009 -0.025336 0.0020382 0.0092494 -0.0035512 4.5838e-05 0.0028705 -0.0011843
-0.0018714 -0.00042576 0.00067282 0.00044737
0.0020328 0.0092409 0.22381 0.24064 0.0039357 0.00064978 -0.0014051 -0.00052183
-0.0007583 -9.0556e-05 -0.00098876 -0.000415
-0.003554 6.0888e-05 0.0039375 0.00062502 0.2599 -0.19743 0.00035069 0.0015539
-0.0017654 -0.00017493 -0.00062927 -0.00094166
0.0028706 -0.0011965 -0.0014052 -0.00051983 0.00034776 0.001557 0.24535 0.0010277
-0.004145 0.007192 0.0012186 -0.0021675
-0.0018665 -0.00041626 -0.0007663 -8.4824e-05 -0.001773 -0.000182 -0.0041327 0.0072031
0.221 0.11936 0.00023071 0.0092348
0.0006826 0.00043925 -0.00099451 -0.00040941 -0.00063849 -0.0009376 0.001206 -0.0021613
0.00023609 0.0092061 0.2647 0.16693
1760000000 0.27699 -0.073761 0.0042661 0.0060488 -0.0023306 0.0008359 0.0012949 -0.0033253
-0.0010027 0.0006921 0.00042355 -0.00053445
0.0042578 0.0060403 0.24951 0.20056 0.0017229 -0.0011167 -0.0010832 0.00023197
-0.0011852 0.00081126 -0.00061784 0.00054858
-0.002326 0.00084396 0.0017107 -0.0011335 0.21069 -0.23037 0.0010781 0.0012466
-0.0011775 0.0013907 -0.001335 -0.00036228
0.0012768 -0.0033306 -0.0010863 0.00023451 0.0010885 0.0012545 0.23514 -0.051396
-0.0017868 0.0066073 -0.00044132 -0.0022777
-0.00099568 0.00070186 -0.0011906 0.00082712 -0.0011903 0.001385 -0.00177 0.0066158
0.23595 0.082373 0.0040976 0.0066395
0.00042264 -0.00054379 -0.00062273 0.00055761 -0.0013392 -0.00036498 -0.00045365 -0.0022647
0.0040792 0.0066071 0.27672 0.12879
1820000000 0.25153 -0.11073 0.004462 0.0025449 -0.00016773 0.002414 -0.0009404 -0.0031037
-0.00075868 0.00060125 -1.4696e-05 -0.00018819
0.0044567 0.002547 0.25916 0.1703 -0.00026588 -0.0001355 -0.0013013 0.00084616
-0.0002182 0.0013567 -0.00050415 0.00059141
-0.00015037 0.0024152 -0.00026623 -0.00013615 0.16047 -0.24604 0.0015454 0.00044249
-0.00037975 0.0021309 -0.0014324 0.00055164
-0.00096573 -0.0030978 -0.0012938 0.00085433 0.0015479 0.00043163 0.20368 -0.098823
-0.00084561 0.0053086 -0.0016602 -0.0013987
-0.00075306 0.00060566 -0.00021402 0.0013696 -0.00037857 0.0021227 -0.00082922 0.0053096
0.25237 0.050821 0.0049031 0.0031544
-1.8925e-05 -0.00019014 -0.00049773 0.00060113 -0.0014322 0.00057247 -0.0016603 -0.0013912
0.0048656 0.0031349 0.27823 0.092419
1880000000 0.2158 -0.15014 0.0022781 0.00032758 -0.00045229 0.002253 -0.0028388 -0.0022523
-0.00022413 0.0013684 0.00027091 -0.00050191
0.0022773 0.00033786 0.26323 0.12371 -0.0022288 0.0015238 -0.00014626 0.0016652
0.00059113 0.0014623 0.00024318 0.0010167
-0.00044519 0.0022555 -0.0022306 0.0015385 0.10851 -0.25536 0.0020171 -0.0009234
0.0014718 0.0020582 -0.00078021 0.0014346
-0.0028619 -0.0022291 -0.00014275 0.0016677 0.0020191 -0.00092896 0.16164 -0.13829
-0.00075014 0.0041024 -0.0024348 0.00065799
-0.00020648 0.0013687 0.00059189 0.0014618 0.0014765 0.0020658 -0.00073155 0.0041053
0.25376 0.016145 0.0045001 0.00094863
0.00025254 -0.00050416 0.00024203 0.0010133 -0.00078566 0.0014529 -0.0024298 0.00066697
0.0044783 0.00094167 0.27712 0.058205
1940000000 0.17605 -0.17526 2.2029e-05 -0.001452 0.0013287 0.0020299 -0.0037478 0.0005437
0.0010378 0.0010553 -0.00066376 -0.00056588
1.3855e-05 -0.0014519 0.26334 0.091868 -0.0012206 0.0037805 0.00092741 0.0013405
0.002038 0.00069753 0.00092954 0.00026316
0.001346 0.0020279 -0.0012043 0.0037783 0.06252 -0.24898 0.00044668 -0.0023307
0.0024574 0.00057926 0.00052705 0.0016354
-0.0037407 0.0005766 0.00094551 0.001341 0.00045034 -0.0023248 0.10831 -0.16736
-0.0019698 0.0035429 -0.00134 0.0017717
0.0010509 0.0010444 0.0020467 0.00068172 0.0024705 0.00057487 -0.0019597 0.003553
0.25297 -0.024817 0.0032075 -0.0021437
-0.00066394 -0.00055674 0.00094268 0.00025611 0.00054456 0.0016402 -0.0013246 0.0017765
0.0031875 -0.0021414 0.2654 0.021968
2000000000 0.12977 -0.18875 -0.0039251 0.00063782 0.0024455 0.0016479 -0.0022846 0.0036858
0.00098018 0.00041957 -0.00058235 0.00043435
-0.0039216 0.00062797 0.24877 0.056538 -0.0010221 0.0057213 0.0016657 0.00037198
0.0016253 -0.001414 0.00055042 0.00011682
0.0024643 0.0016343 -0.00098798 0.0057261 0.018878 -0.23428 -0.0014078 -0.0015281
0.0020951 -0.0012263 0.001653 0.0011822
-0.0022671 0.0036915 0.0016637 0.00037121 -0.0014073 -0.0015255 0.05504 -0.17546
-0.0033732 0.0044455 0.00018615 0.0023882
0.00098488 0.0004164 0.0016184 -0.0014278 0.0020834 -0.0012289 -0.0033565 0.004455
0.24388 -0.059691 -0.00018449 -0.0027455
