!Keysight Technologies,M9804A,MY58100912,A.14.10.03
!Date: Thursday, April 27, 2023 10:28:33
!Correction: S11(C  6-Port  ) 
!S12(C  6-Port  ) 
!S13(C  6-Port  ) 
!S14(C  6-Port  ) 
!S15(C  6-Port  ) 
!S16(C  6-Port  ) 
!S21(C  6-Port  ) 
!S22(C  6-Port  ) 
!S23(C  6-Port  ) 
!S24(C  6-Port  ) 
!S25(C  6-Port  ) 
!S26(C  6-Port  ) 
!S31(C  6-Port  ) 
!S32(C  6-Port  ) 
!S33(C  6-Port  ) 
!S34(C  6-Port  ) 
!S35(C  6-Port  ) 
!S36(C  6-Port  ) 
!S41(C  6-Port  ) 
!S42(C  6-Port  ) 
!S43(C  6-Port  ) 
!S44(C  6-Port  ) 
!S45(C  6-Port  ) 
!S46(C  6-Port  ) 
!S51(C  6-Port  ) 
!S52(C  6-Port  ) 
!S53(C  6-Port  ) 
!S54(C  6-Port  ) 
!S55(C  6-Port  ) 
!S56(C  6-Port  ) 
!S61(C  6-Port  ) 
!S62(C  6-Port  ) 
!S63(C  6-Port  ) 
!S64(C  6-Port  ) 
!S65(C  6-Port  ) 
!S66(C  6-Port  ) 
!S6P File: Measurement: :
# Hz S  RI   R 50
500000000 -0.33725 -0.03541 -0.010103 -0.0034437 -0.007937 0.012066 -0.0035295 0.01163
0.012081 0.004716 -0.0036482 0.0082252
-0.010096 -0.0034368 -0.41922 -0.049837 0.0073291 -0.011244 0.0016879 0.011929
0.0072563 0.0025656 0.0011263 0.013362
-0.0079122 0.012074 0.0073113 -0.011272 -0.26561 0.21146 0.00686 0.0032437
-0.00056826 0.0088856 0.00053702 0.012021
-0.0035122 0.011636 0.0017092 0.011946 0.0068564 0.0032384 -0.32767 0.046934
-0.020151 -0.0044056 0.017453 0.025218
0.012105 0.0046693 0.0072699 0.0025435 -0.00056126 0.0088883 -0.020156 -0.0043863
-0.22612 -0.18507 -0.027532 0.0047781
-0.003629 0.0082268 0.0011394 0.01338 0.00053596 0.012009 0.017434 0.02521
-0.027556 0.00476 -0.27339 -0.11368
560000000 -0.31609 0.12451 -0.024103 -0.062953 0.0003154 0.012201 0.0063068 0.0099457
0.010649 0.0043276 0.0099675 0.0074353
-0.024049 -0.062882 -0.37682 0.10864 -0.042002 -0.036176 0.013428 0.003781
-0.01363 -0.0046689 0.0041368 -0.00050875
0.0003406 0.012184 -0.042146 -0.03612 -0.18297 0.2597 -0.00039327 -0.0047978
0.019419 0.0044932 0.0068529 -0.00568
0.0063332 0.0099236 0.013427 0.0037821 -0.00038784 -0.0048006 -0.30311 0.13637
0.0034918 -0.024602 0.0046112 -0.019437
0.010662 0.0043186 -0.013671 -0.0046476 0.019434 0.0044838 0.0034731 -0.024591
-0.28587 -0.0092146 0.0074591 -0.049583
0.010014 0.007413 0.0041391 -0.00052021 0.0068651 -0.0056794 0.0046108 -0.019436
0.0074627 -0.049607 -0.33138 0.032704
620000000 -0.2733 0.10959 -0.023245 0.0076454 0.0036129 0.0085106 0.0066577 -0.005541
0.011609 -0.00054884 0.00061848 -0.0022337
-0.023235 0.0076409 -0.40291 0.062807 -0.018637 0.00032804 -0.0011923 -0.0019218
0.010587 -0.007133 0.0014654 -0.0026383
0.0036381 0.0085118 -0.018657 0.00036931 -0.15251 0.26855 -0.0014305 -0.0051957
-0.0036154 -0.0033774 0.0082684 -0.003622
0.0066619 -0.0055554 -0.0011975 -0.001916 -0.0014225 -0.0051952 -0.26195 0.1463
-0.039111 -0.01825 0.014358 0.023895
0.011607 -0.00055861 0.010579 -0.0071757 -0.0035982 -0.0033683 -0.039136 -0.018204
-0.20476 -0.049323 -0.040287 0.014498
0.00061886 -0.0022363 0.0014663 -0.0026469 0.0082994 -0.003607 0.014358 0.023941
-0.040326 0.014473 -0.24979 -0.0032001
680000000 -0.2334 0.19375 -0.02788 -0.013583 0.0048354 0.0049326 0.0011332 -0.0076798
-0.0030997 -0.010895 0.0042598 -0.0066669
-0.027851 -0.01359 -0.38714 0.15992 -0.03249 -0.001151 -0.0015818 -0.00029573
-0.0026554 -0.0090281 -0.0009725 -0.0020229
0.0048429 0.0049038 -0.03252 -0.0010589 -0.1014 0.2879 -0.00079778 -7.877e-05
-0.0022156 0.00053206 -0.0027613 -0.0094084
0.0011134 -0.0076719 -0.0015814 -0.00030309 -0.00079038 -8.1562e-05 -0.2189 0.19603
-0.02357 -0.007864 -0.0086106 -0.010411
-0.0031076 -0.010899 -0.0026775 -0.0090311 -0.0022197 0.00052642 -0.023584 -0.0078382
-0.25302 0.049103 -0.0056547 -0.0090124
0.0042517 -0.0066772 -0.00096308 -0.0020265 -0.0027542 -0.009407 -0.0085878 -0.010413
-0.0056788 -0.0089772 -0.25882 0.099464
740000000 -0.18967 0.18871 -0.03827 0.026799 0.012615 -0.0052657 -0.00070947 -0.0040424
-0.0046855 -0.0026897 -0.0062748 0.0031731
-0.038272 0.026725 -0.33432 0.17817 -0.034519 0.03523 -0.00076696 -0.0065268
-0.012022 0.0077007 -0.0025359 -0.0060001
0.012612 -0.0052848 -0.034416 0.035359 -0.067813 0.28623 -0.0015228 0.0033112
-0.0027962 -0.004264 -0.0014054 0.00022147
-0.00071069 -0.0040361 -0.00078374 -0.0065534 -0.0015346 0.0033156 -0.20214 0.20324
-0.042415 -0.0079411 0.022277 0.013364
-0.0047002 -0.0026891 -0.012027 0.0077872 -0.0027809 -0.0042835 -0.042433 -0.0078775
-0.15691 0.074541 -0.041628 0.0004907
-0.0062641 0.0031989 -0.0025438 -0.0060177 -0.0014003 0.00022144 0.022301 0.013349
-0.041627 0.00050418 -0.24616 0.10476
800000000 -0.15696 0.22845 -0.022066 0.017274 0.0052559 -0.010546 -0.004766 -0.0020301
-0.0041336 0.0024831 0.0042848 0.00082503
-0.022055 0.017255 -0.337 0.24862 -0.0075678 0.033924 -0.0021855 0.0022048
-0.0008398 0.0033317 0.0011673 0.0053243
0.0052284 -0.010567 -0.0074807 0.033977 -0.026706 0.30889 0.0010593 0.0016382
0.00058555 0.0036381 -0.0017481 0.00092746
-0.0047773 -0.0020132 -0.0021773 0.0022142 0.0010604 0.0016362 -0.17383 0.23075
-0.027901 0.01259 0.012982 -0.0099493
-0.0041416 0.0024835 -0.0008307 0.0033426 0.0005817 0.0036449 -0.027891 0.012652
-0.20081 0.097427 -0.017044 0.017239
0.0042682 0.0008165 0.0011746 0.0053311 -0.0017466 0.00092943 0.01298 -0.0099665
-0.01705 0.017256 -0.23744 0.15649
860000000 -0.12223 0.24918 -0.016804 0.030983 -0.0032949 -0.0098544 -0.00245 0.001121
0.0040159 0.0050066 -0.0029227 -0.0027515
-0.016803 0.030948 -0.28904 0.2903 0.008254 0.03395 0.00013994 0.0021093
0.004201 0.00045414 0.0033003 0.00034689
-0.0033161 -0.0098422 0.0083548 0.033952 0.021397 0.31656 -0.00038544 -0.00026389
0.0027998 -0.0015402 0.0016334 0.0042602
-0.002453 0.0011235 0.00014953 0.002106 -0.00038366 -0.00026404 -0.13802 0.24213
-0.017567 0.018452 -0.0060535 -0.0087507
0.0040305 0.0050018 0.0042003 0.00043992 0.0027973 -0.0015489 -0.017537 0.018503
-0.15043 0.14564 -0.023953 0.014981
-0.0029528 -0.0027413 0.0033013 0.00034648 0.0016267 0.0042637 -0.0060513 -0.0087475
-0.023944 0.014975 -0.18764 0.19816
920000000 -0.097033 0.27207 0.0055526 0.03732 -0.0093277 -0.0044282 -0.0019628 0.0021505
0.0015514 0.0016133 0.0024991 -0.0015316
0.0055332 0.037298 -0.25994 0.31076 0.028015 0.021419 0.0015846 0.0010573
0.0069752 -0.00066427 0.0038812 -0.0030871
-0.0093361 -0.0044117 0.028105 0.021359 0.067541 0.31692 0.0017995 -0.0001486
0.001255 -0.00050417 0.0007467 -0.0011833
-0.0019544 0.002153 0.0016003 0.0010539 0.0018025 -0.00015459 -0.11381 0.25841
-0.010082 0.02979 0.0027028 -0.0066496
0.0015664 0.0016139 0.0069811 -0.00070224 0.0012541 -0.00049804 -0.010017 0.029813
-0.14034 0.15101 -0.0020385 0.026862
0.0024954 -0.0015358 0.0038765 -0.0030926 0.00075173 -0.0011903 0.0027161 -0.0066601
-0.0020504 0.026868 -0.19271 0.21214
980000000 -0.049578 0.29158 0.017937 0.029537 -0.0088461 0.0045334 0.0023139 0.0037155
0.0040104 -0.0017847 -0.0029169 -0.0021121
0.0179 0.029537 -0.20727 0.34436 0.032736 0.0044053 0.0019778 5.6277e-06
0.0012736 -0.0062696 -0.00050385 -0.0021257
-0.0088323 0.0045614 0.032767 0.0043084 0.11377 0.31014 0.00042728 -0.0012005
7.4146e-05 -0.0021462 0.0014103 -5.9598e-06
0.0023189 0.0037045 0.0019834 1.067e-05 0.00043048 -0.001204 -0.075763 0.26963
0.0076328 0.028254 -0.0090571 -0.0066883
0.0040247 -0.0017953 0.0012316 -0.0062995 6.8283e-05 -0.0021511 0.0077072 0.028237
-0.10822 0.17843 0.0048569 0.018474
-0.0029125 -0.0021032 -0.00051842 -0.002115 0.0014034 -1.1479e-05 -0.0090537 -0.0066734
0.0048669 0.018477 -0.14988 0.25673
1040000000 -0.0069334 0.29965 0.033117 0.017444 -0.0012412 0.0067405 0.0027225 0.00076934
-6.5432e-07 -0.003727 -0.00066803 -0.0016018
0.033096 0.017454 -0.17189 0.35724 0.028903 -0.014976 0.0015052 -0.0017386
-0.002529 -0.0024986 -0.0014972 -0.0027755
-0.0012152 0.006731 0.028859 -0.015075 0.15984 0.29623 -0.00051809 -0.0014478
-0.0016287 -0.00082204 -0.00048912 -0.0010572
0.0027241 0.00075861 0.0015128 -0.0017412 -0.00051966 -0.0014526 -0.04853 0.27964
0.018159 0.016844 -0.0030784 0.0019022
3.4036e-06 -0.0037326 -0.0025635 -0.0024964 -0.0016252 -0.00081553 0.018204 0.016795
-0.077863 0.18659 0.013362 0.017518
-0.00065811 -0.001608 -0.0015263 -0.0027543 -0.00049348 -0.001067 -0.003078 0.001886
0.013379 0.017516 -0.12772 0.27549
1100000000 0.038504 0.30689 0.035402 -0.0048454 0.0027227 0.0037058 0.0025919 -0.0012901
-0.0021522 -0.003073 -0.0039582 0.00014095
0.035381 -0.0048152 -0.12847 0.37406 0.014702 -0.027641 3.6847e-05 -0.0018174
-0.0033119 -0.00052357 -0.0033953 -0.00047286
0.0027401 0.0037014 0.014612 -0.027715 0.20608 0.27567 -0.0017656 0.00025038
-0.0017648 0.00070362 -0.00097404 -0.00024017
0.0025786 -0.0012997 3.0396e-05 -0.001814 -0.0017703 0.00025085 -0.0081636 0.2846
0.022526 0.0047554 -0.0024487 0.00088843
-0.0021665 -0.0030734 -0.0033239 -0.00050906 -0.0017683 0.00070377 0.022533 0.0046982
-0.059454 0.19953 0.018513 0.0083062
-0.003947 0.00015646 -0.0034052 -0.0004492 -0.00097179 -0.00023872 -0.0024583 0.00087376
0.018538 0.0082943 -0.080826 0.30301
1160000000 0.089961 0.30161 0.023287 -0.020941 0.0025015 -0.00040467 -5.0632e-05 -0.0024896
-0.0039924 -0.00047123 -0.0010019 0.003862
0.023298 -0.0209 -0.084908 0.37823 -0.0039773 -0.028733 -0.0017616 -0.0016655
-0.0025314 0.002768 -0.0012538 0.0015668
0.0025107 -0.00041648 -0.0041219 -0.028736 0.24892 0.24465 -0.0006548 0.0017493
-0.00037487 0.001905 -0.00087558 8.9551e-05
-4.658e-05 -0.0024923 -0.0017649 -0.001651 -0.00065381 0.0017548 0.030936 0.28179
0.018968 -0.0097721 -0.0027352 0.0056082
-0.0040281 -0.00044732 -0.0025316 0.0027817 -0.00037327 0.0019155 0.018956 -0.0098059
-0.026787 0.20855 0.017009 0.0004109
-0.00097667 0.0038649 -0.0012587 0.0015914 -0.00086708 9.5654e-05 -0.0027418 0.0055999
0.017038 0.00037775 -0.034114 0.30542
1220000000 0.13437 0.28994 0.0096853 -0.0298 -0.00165 -0.00060819 -5.9213e-05 -0.0012187
-0.002549 0.0025494 0.0013115 0.0019107
0.0097027 -0.029766 -0.040788 0.3899 -0.016867 -0.02076 -0.002506 0.00042381
0.00025915 0.0029913 -0.00063696 0.0017861
-0.0016403 -0.00060709 -0.016978 -0.020704 0.28785 0.20552 0.00088907 0.0016381
0.00063935 0.0011225 0.00032161 0.00069884
-5.9471e-05 -0.0012241 -0.0025036 0.00044555 0.00089114 0.001631 0.070536 0.27368
0.0090433 -0.015343 0.0025854 0.0018079
-0.0025421 0.0025719 0.00027634 0.0029851 0.00063005 0.0011201 0.0090079 -0.015355
-0.0040011 0.21795 0.013081 -0.012118
0.0013203 0.0019071 -0.00062847 0.0017855 0.00032206 0.00070209 0.0025751 0.0018071
0.013089 -0.01216 -0.0022684 0.32065
1280000000 0.1839 0.26745 -0.0082823 -0.027873 -0.0017804 0.0027268 -0.0011095 -0.0020816
-0.00061765 0.0030603 0.0025545 0.0010139
-0.0082596 -0.027851 0.004998 0.38092 -0.023533 -0.0082475 -0.0010392 0.0015063
0.0017102 0.0016091 0.00057382 0.0019326
-0.0017727 0.0027314 -0.023586 -0.008146 0.31825 0.16167 0.0014776 -0.00017458
0.001088 2.8151e-05 0.00029826 0.00036195
-0.0011123 -0.0020805 -0.0010481 0.0015062 0.0014767 -0.00017406 0.10703 0.25781
0.00033994 -0.016988 0.00048815 0.00024795
-0.00059415 0.0030787 0.0017252 0.0015978 0.0010907 2.7956e-05 0.00028981 -0.016992
0.03258 0.22198 0.0025896 -0.014042
0.0025656 0.0010073 0.00059027 0.0019377 0.00029871 0.00036086 0.00047287 0.00025439
0.0025777 -0.014068 0.044945 0.32083
1340000000 0.22074 0.23331 -0.017727 -0.018312 0.00098916 0.0044829 -0.0020309 -0.0007815
0.0015027 0.002595 0.0017177 -0.0014955
-0.017704 -0.018303 0.044452 0.37253 -0.02136 0.0043063 -2.2018e-05 0.0020038
0.0018148 0.00056436 0.0012976 0.00089361
0.0010108 0.0044731 -0.021369 0.0044212 0.34029 0.11368 0.00099008 -0.00092558
0.00061045 -0.00040928 0.0001258 0.00024238
-0.0020346 -0.00077866 -1.6798e-05 0.0020028 0.00099553 -0.00092952 0.14016 0.23802
-0.0077497 -0.014056 0.0012956 0.00018242
0.0015295 0.0025858 0.0018236 0.0005499 0.00060899 -0.00040958 -0.0077977 -0.014031
0.062779 0.21793 -0.0035344 -0.012743
0.0017178 -0.0015099 0.0013228 0.00088364 0.0001261 0.0002387 0.0012854 0.00020451
-0.0035639 -0.012772 0.08332 0.31524
1400000000 0.25346 0.19472 -0.023079 -0.006956 0.0052251 0.0030325 -0.0020561 0.00080921
0.0025142 0.00070275 0.00018586 -0.0014235
-0.023053 -0.0069634 0.081502 0.35942 -0.014635 0.012311 0.0013986 0.0012821
0.0010021 -0.00089124 0.0011666 0.00022363
0.0052422 0.0029992 -0.01459 0.012402 0.35326 0.060063 5.0788e-05 -0.0014592
3.6593e-05 -0.00030951 0.00034455 0.00016628
-0.0020579 0.00081709 0.0014081 0.0012762 4.2308e-05 -0.0014646 0.17028 0.20963
-0.012614 -0.0080139 -0.00045346 -0.00069355
0.0025228 0.00068692 0.00099837 -0.00090874 3.07e-05 -0.00031169 -0.012632 -0.0079574
0.095934 0.21365 -0.009648 -0.0080143
0.00017556 -0.0014266 0.0011748 0.00021767 0.00034407 0.00016653 -0.00045652 -0.00067461
-0.0096786 -0.0080287 0.1272 0.30355
1460000000 0.27602 0.15039 -0.019937 0.0049188 0.0056295 -0.001834 -0.0014711 0.0018544
0.0019824 -0.00074376 -0.00039363 -0.00090057
-0.019919 0.0049057 0.11578 0.33751 -0.0060253 0.015178 0.00172 0.00012386
0.00078497 -0.0011476 0.0011845 -0.0006292
0.0056229 -0.001848 -0.0059685 0.015223 0.3592 0.0055751 -0.0011323 -0.0011803
0.00023786 -4.9513e-05 0.00068387 -0.00037539
-0.0014701 0.0018582 0.0017343 0.00010767 -0.0011354 -0.0011712 0.19748 0.18056
-0.013152 -0.0023929 -0.0009631 0.0014511
0.0019816 -0.00077043 0.00076951 -0.0011588 0.0002341 -4.7521e-05 -0.013161 -0.0023466
0.126 0.1993 -0.011104 -0.0025413
-0.00039453 -0.0009064 0.0011829 -0.00063632 0.00068754 -0.00036589 -0.00094568 0.0014688
-0.011143 -0.0025372 0.16038 0.28187
1520000000 0.2879 0.1084 -0.014246 0.010284 0.0031691 -0.0042529 0.00020268 0.0026098
0.0017021 -0.001742 -0.0011612 -0.00010954
-0.014247 0.010265 0.1493 0.32259 0.0015126 0.013016 0.0015828 -0.00083829
4.0881e-05 -0.0008486 0.00034428 -0.0010135
0.0031564 -0.0042726 0.0015832 0.013026 0.35239 -0.050656 -0.00098343 -0.00034498
0.00057507 -0.00082753 -6.0232e-05 -7.1025e-05
0.000213 0.0026156 0.001581 -0.0008509 -0.00096922 -0.00034525 0.22161 0.14219
-0.012449 0.0022023 0.0010867 0.0017007
0.0016776 -0.001759 3.7329e-05 -0.00085144 0.00057136 -0.00083236 -0.01243 0.0022483
0.15458 0.18496 -0.01105 0.0016188
-0.0011678 -0.00010843 0.00033777 -0.0010159 -6.0994e-05 -7.1743e-05 0.0011127 0.0017019
-0.011069 0.0016249 0.19285 0.26061
1580000000 0.29683 0.06169 -0.0077373 0.013116 -0.00093122 -0.0049256 0.0014464 0.0017578
-0.00052088 -0.0021138 -0.00038049 0.00038867
-0.0077402 0.013103 0.17654 0.29764 0.0051774 0.0082327 0.00039873 -0.0015751
-0.00038292 -0.00097362 -0.00023085 -0.00089242
-0.00096239 -0.0049185 0.0052218 0.0082158 0.33194 -0.10829 -0.0014816 0.00046725
-0.00027586 -0.0011406 0.00013288 -0.00055839
0.0014631 0.0017633 0.00039297 -0.0015848 -0.001489 0.00047313 0.23636 0.10205
-0.0096341 0.0061017 0.0018844 0.00057383
-0.00053538 -0.0021116 -0.00039154 -0.00097602 -0.00028439 -0.0011385 -0.0096044 0.0061353
0.17963 0.16651 -0.0086489 0.0069568
-0.00038482 0.00039294 -0.0002327 -0.00089231 0.00013031 -0.00055991 0.0019127 0.00056864
-0.0086674 0.0069771 0.22412 0.23315
1640000000 0.29821 0.019893 -0.0013096 0.011972 -0.0027999 -0.0026104 0.0025675 0.00092757
-0.000886 -0.0011369 -0.00028549 0.00063747
-0.0013223 0.011966 0.20588 0.27233 0.0058136 0.0034625 -0.00073394 -0.001617
-0.00088217 -0.00049078 -0.00056761 -0.00068377
-0.0028141 -0.0026014 0.0058383 0.0034264 0.30361 -0.15756 -0.0007967 0.001335
-0.0010852 -0.00087143 -0.00014088 -0.00035353
0.0025688 0.00091652 -0.00075463 -0.0016271 -0.00080272 0.0013295 0.24901 0.051958
-0.0061561 0.0068822 0.0021898 -0.00072772
-0.00090063 -0.00113 -0.00089111 -0.00048243 -0.0010821 -0.00087079 -0.0061156 0.0068897
0.20322 0.14101 -0.0042811 0.0089406
-0.00028372 0.00064852 -0.00056807 -0.00067617 -0.00014117 -0.00035007 0.0021907 -0.00076
-0.0042817 0.0089677 0.24933 0.2014
1700000000 0.29011 -0.025532 0.0019813 0.0092436 -0.0035509 8.2919e-05 0.0028764 -0.0011714
-0.0018627 -0.00044217 0.00065805 0.00043587
0.0019743 0.0092379 0.22388 0.2406 0.0038981 0.0006203 -0.0013918 -0.00053655
-0.00077682 -8.9621e-05 -0.00098849 -0.00040097
-0.0035361 9.5188e-05 0.0039092 0.00059844 0.25992 -0.19749 0.00033584 0.001569
-0.0017745 -0.00019063 -0.00063738 -0.00093893
0.0028712 -0.0011825 -0.001399 -0.00053072 0.00033013 0.0015581 0.24539 0.00081152
-0.0042259 0.0073147 0.0012348 -0.0021251
-0.0018668 -0.00041638 -0.00077936 -8.5777e-05 -0.0017799 -0.00019004 -0.0042035 0.0072983
0.22103 0.11932 0.00013103 0.0090877
0.00066841 0.00043707 -0.00099086 -0.00039373 -0.0006339 -0.0009364 0.0012275 -0.0021423
0.00014468 0.0091129 0.26492 0.1668
1760000000 0.27693 -0.073951 0.0042238 0.0060767 -0.0023302 0.00087427 0.0012905 -0.003316
-0.0010131 0.00068525 0.00041421 -0.00052017
0.0042051 0.0060735 0.24958 0.20047 0.0016708 -0.0011274 -0.0010827 0.00022564
-0.0011911 0.00082465 -0.00062638 0.00055256
-0.0023151 0.00087685 0.0016654 -0.0011433 0.21069 -0.23044 0.0010976 0.0012623
-0.0011957 0.0013897 -0.0013243 -0.00036727
0.0012761 -0.0033264 -0.0010845 0.00022701 0.0010992 0.0012626 0.23503 -0.051606
-0.0017948 0.0067564 -0.00042851 -0.0022533
-0.00099967 0.00070142 -0.0011982 0.00083562 -0.0011865 0.0013935 -0.0017801 0.0067301
0.23596 0.082314 0.0039523 0.0065631
0.00041601 -0.00052905 -0.00062036 0.00055785 -0.0013249 -0.000365 -0.00042747 -0.0022718
0.0039697 0.0065776 0.27688 0.12866
1820000000 0.25145 -0.11088 0.0044452 0.0025924 -0.0001396 0.0024467 -0.00093913 -0.0030912
-0.00077214 0.00061262 -1.0612e-05 -0.00017571
0.0044393 0.0026035 0.25919 0.17021 -0.00029816 -0.00010625 -0.0013122 0.00084682
-0.00021625 0.0013765 -0.00050519 0.00058876
-0.00013229 0.0024331 -0.00029993 -0.00010513 0.16047 -0.246 0.0015413 0.00042179
-0.00039177 0.002129 -0.0014298 0.00054369
-0.00095062 -0.0030916 -0.0013103 0.00084896 0.0015357 0.00042195 0.20349 -0.098939
-0.00078279 0.0054149 -0.0016321 -0.0013861
-0.00075354 0.00060878 -0.00021437 0.0013834 -0.00039697 0.0021331 -0.0007851 0.005403
0.25237 0.050807 0.004735 0.0031379
-1.0528e-05 -0.00018577 -0.00050073 0.00059313 -0.0014191 0.0005376 -0.0016372 -0.0013959
0.0047557 0.0031462 0.27831 0.092241
1880000000 0.21568 -0.15027 0.0022815 0.00038105 -0.00043391 0.0022566 -0.0028393 -0.0022482
-0.00022115 0.0013736 0.000288 -0.00049182
0.0022793 0.00038231 0.26324 0.12358 -0.0022577 0.0015616 -0.00015246 0.0016735
0.00060322 0.0014704 0.0002317 0.0010144
-0.0004172 0.0022659 -0.0022433 0.0015792 0.1085 -0.25541 0.002019 -0.00095436
0.0014792 0.0020724 -0.00079304 0.0014433
-0.0028516 -0.0022321 -0.00014173 0.0016744 0.0020208 -0.00093997 0.16146 -0.1383
-0.00064096 0.0041591 -0.0024123 0.00065875
-0.00020561 0.0013711 0.00061094 0.0014729 0.0014819 0.0020716 -0.00065154 0.0041496
0.25379 0.016071 0.0043605 0.0010127
0.00027815 -0.00050762 0.00024339 0.0010176 -0.00078922 0.001443 -0.00242 0.00065691
0.0043834 0.001005 0.27715 0.057985
1940000000 0.17595 -0.1753 4.5568e-05 -0.0013996 0.0013435 0.0020142 -0.0037435 0.00054266
0.0010557 0.0010583 -0.00063714 -0.00058358
3.8446e-05 -0.0013889 0.2633 0.09177 -0.0012136 0.0038031 0.00094452 0.0013427
0.0020461 0.00068038 0.00094415 0.00025853
0.0013568 0.0020085 -0.0011949 0.0038177 0.062482 -0.24906 0.00041923 -0.0023356
0.0024694 0.00057695 0.00054909 0.0016258
-0.0037478 0.00055734 0.00094993 0.0013464 0.000417 -0.0023438 0.10815 -0.16726
-0.0018746 0.0035451 -0.001319 0.0017577
0.0010534 0.0010468 0.0020627 0.000662 0.0024801 0.00057836 -0.0018914 0.0035636
0.25298 -0.024879 0.0031144 -0.0020175
-0.0006563 -0.00057432 0.00095124 0.00024794 0.00055474 0.001622 -0.00134 0.0017628
0.0031327 -0.0020398 0.26539 0.021827
2000000000 0.12966 -0.18877 -0.0038845 0.00066666 0.002456 0.0016216 -0.0022827 0.0036544
0.0009993 0.00041802 -0.00058891 0.00042772
-0.0038741 0.00065972 0.24874 0.05648 -0.00099677 0.0057328 0.0016785 0.00037175
0.0016179 -0.0014186 0.00054373 0.00011945
0.0024708 0.001604 -0.00095182 0.0057527 0.01887 -0.23434 -0.0014324 -0.0015088
0.0020892 -0.001237 0.0016455 0.0011795
-0.0022636 0.0036701 0.001678 0.00036224 -0.0014309 -0.0015172 0.055032 -0.17533
-0.0032914 0.0044129 0.00019543 0.0023637
0.0010004 0.0004131 0.0016216 -0.0014432 0.0020846 -0.0012425 -0.0032932 0.0044384
