!Keysight Technologies,M9804A,MY58100912,A.14.10.03
!Date: Thursday, April 27, 2023 10:28:33
!Correction: S11(C  6-Port  ) 
!S12(C  6-Port  ) 
!S13(C  6-Port  ) 
!S14(C  6-Port  ) 
!S15(C  6-Port  ) 
!S16(C  6-Port  ) 
!S21(C  6-Port  ) 
!S22(C  6-Port  ) 
!S23(C  6-Port  ) 
!S24(C  6-Port  ) 
!S25(C  6-Port  ) 
!S26(C  6-Port  ) 
!S31(C  6-Port  ) 
!S32(C  6-Port  ) 
!S33(C  6-Port  ) 
!S34(C  6-Port  ) 
!S35(C  6-Port  ) 
!S36(C  6-Port  ) 
!S41(C  6-Port  ) 
!S42(C  6-Port  ) 
!S43(C  6-Port  ) 
!S44(C  6-Port  ) 
!S45(C  6-Port  ) 
!S46(C  6-Port  ) 
!S51(C  6-Port  ) 
!S52(C  6-Port  ) 
!S53(C  6-Port  ) 
!S54(C  6-Port  ) 
!S55(C  6-Port  ) 
!S56(C  6-Port  ) 
!S61(C  6-Port  ) 
!S62(C  6-Port  ) 
!S63(C  6-Port  ) 
!S64(C  6-Port  ) 
!S65(C  6-Port  ) 
!S66(C  6-Port  ) 
!S6P File: Measurement: :
# Hz S  RI   R 50
500000000 -0.33908 -0.018462 -0.010447 -0.0032525 -0.0071199 0.012262 -0.0028616 0.012339
0.011359 0.0039285 -0.0020526 0.0088055
-0.010389 -0.0032028 -0.41931 -0.036271 0.0065546 -0.011815 0.0019989 0.012666
0.0066747 0.0023938 0.0023798 0.013581
-0.0070528 0.012259 0.0065356 -0.011834 -0.26232 0.22212 0.0074625 0.0036188
-0.000686 0.0086028 0.0027493 0.011818
-0.0028681 0.012309 0.0020414 0.012675 0.0074989 0.0036162 -0.33018 0.062785
-0.019353 -0.0064551 0.015228 0.023859
0.011342 0.0038677 0.0066724 0.0023846 -0.00068614 0.0085884 -0.019312 -0.0064223
-0.23567 -0.16463 -0.025379 0.0044275
-0.0020293 0.0088361 0.0023723 0.01358 0.002753 0.01182 0.015217 0.023838
-0.02541 0.0044419 -0.28407 -0.079091
560000000 -0.31166 0.13716 -0.026724 -0.060473 0.00091732 0.011081 0.0054587 0.0095654
0.009156 0.0038986 0.010626 0.0063304
-0.026605 -0.060354 -0.37512 0.11684 -0.041838 -0.034135 0.013694 0.0035239
-0.012176 -0.0035741 0.0031629 -0.00090899
0.00089676 0.011051 -0.041847 -0.03412 -0.1803 0.26663 -0.00055822 -0.0047199
0.018416 0.0035193 0.0070455 -0.0062769
0.0054716 0.0095318 0.01371 0.0035147 -0.00059626 -0.0047609 -0.30399 0.14782
0.00093295 -0.024672 0.0032169 -0.018195
0.0091454 0.0038646 -0.0122 -0.0035717 0.018458 0.0034987 0.0009023 -0.02466
-0.28652 0.0085716 0.0032709 -0.046792
0.010646 0.0063567 0.0030993 -0.00094948 0.007044 -0.0062949 0.0031814 -0.018218
0.0032545 -0.046773 -0.32976 0.059599
620000000 -0.26976 0.12274 -0.023328 0.0068829 0.0036528 0.0076685 0.0081278 -0.0055308
0.010047 -0.0012149 0.00054465 -0.0019954
-0.023307 0.0068879 -0.4011 0.07337 -0.019532 0.00018065 -0.00094107 -0.0022527
0.0097884 -0.0065353 0.0014331 -0.0031384
0.0036761 0.0076614 -0.019533 0.00019779 -0.14955 0.27654 -0.001276 -0.0048794
-0.0033171 -0.0026013 0.0084042 -0.003973
0.0081037 -0.0055565 -0.00095158 -0.0022581 -0.0013025 -0.0048803 -0.26218 0.15994
-0.038881 -0.017487 0.012169 0.023233
0.010071 -0.0012497 0.0097613 -0.0065427 -0.0033078 -0.0026095 -0.038873 -0.017482
-0.21036 -0.028834 -0.038122 0.014278
0.00058914 -0.0019593 0.0014107 -0.0031243 0.0084046 -0.003958 0.012205 0.023237
-0.038126 0.014261 -0.25615 0.03084
680000000 -0.22711 0.20396 -0.027867 -0.012184 0.0053616 0.0045161 0.0012154 -0.0071421
-0.0030231 -0.010987 0.003932 -0.0067458
-0.027833 -0.012183 -0.3843 0.16736 -0.032252 0.00040631 -0.0014832 -0.00053118
-0.0025128 -0.0086713 -0.0015618 -0.0020248
0.0053732 0.0045251 -0.032271 0.00044767 -0.098473 0.29423 -0.00089811 -0.00029414
-0.0017585 0.0001083 -0.0037096 -0.0085315
0.0012138 -0.0071299 -0.0014894 -0.00053039 -0.00089552 -0.00030304 -0.21667 0.20692
-0.025419 -0.0056004 -0.0090287 -0.008365
-0.0030832 -0.011 -0.0025447 -0.0086859 -0.0017754 0.00011313 -0.025444 -0.0055941
-0.24844 0.066951 -0.0070784 -0.0073453
0.003914 -0.0067298 -0.001558 -0.0020148 -0.0037199 -0.0085212 -0.0090365 -0.008379
-0.007085 -0.0073533 -0.25334 0.1258
740000000 -0.18432 0.19917 -0.036851 0.025911 0.011793 -0.0057669 -0.00085101 -0.004003
-0.0049698 -0.0027028 -0.0060373 0.0035588
-0.03687 0.025895 -0.33295 0.18747 -0.032818 0.034844 -0.00090781 -0.0061341
-0.011303 0.007962 -0.0018286 -0.0045805
0.011774 -0.0057882 -0.032792 0.034925 -0.064864 0.29412 -0.0016892 0.0030282
-0.0032534 -0.0046775 -0.0022963 0.0014088
-0.00085355 -0.0039993 -0.00092652 -0.0061394 -0.0016949 0.0030165 -0.19891 0.21599
-0.041892 -0.0037091 0.021716 0.012212
-0.0049644 -0.0027282 -0.011328 0.0080078 -0.0032685 -0.0046892 -0.041893 -0.0036535
-0.15779 0.087808 -0.038528 0.003269
-0.0059741 0.0035392 -0.0018133 -0.0045639 -0.0022812 0.0014129 0.021748 0.012196
-0.038529 0.0032246 -0.24131 0.13548
800000000 -0.15049 0.2362 -0.021594 0.017473 0.0043195 -0.010362 -0.0043248 -0.0016576
-0.0038619 0.0030103 0.003825 0.00088918
-0.021584 0.017443 -0.33276 0.25547 -0.0066531 0.033462 -0.0022715 0.0022977
-0.00058866 0.0032944 0.0011091 0.0053517
0.0043198 -0.01034 -0.0066002 0.033475 -0.021778 0.31579 0.00091701 0.0015362
0.00032942 0.0035561 -0.0018987 0.0012814
-0.0043318 -0.0016516 -0.0022705 0.0023102 0.00091494 0.0015466 -0.1688 0.2422
-0.026775 0.016019 0.012173 -0.010012
-0.0038582 0.0030494 -0.00057821 0.0033155 0.00034051 0.0035635 -0.026763 0.016082
-0.19439 0.11487 -0.015704 0.018485
0.0037959 0.00085871 0.0011185 0.0053526 -0.0018973 0.0012876 0.012189 -0.010031
-0.015716 0.018455 -0.22864 0.18104
860000000 -0.11578 0.25639 -0.015965 0.031131 -0.0039659 -0.0092617 -0.0022035 0.0015179
0.0044509 0.0049322 -0.0025759 -0.0024767
-0.015984 0.031091 -0.28557 0.29671 0.0091628 0.032987 0.00030792 0.0024071
0.0047501 0.00060586 0.0032502 0.00059041
-0.0039667 -0.0092436 0.0092221 0.032972 0.026599 0.32261 -0.0003073 6.1526e-05
0.002549 -0.0011381 0.0016745 0.0040972
-0.0021915 0.0015232 0.00031535 0.0024116 -0.00031089 5.505e-05 -0.13218 0.25295
-0.015345 0.020902 -0.0056918 -0.0089272
0.0044939 0.0049406 0.0047638 0.00059065 0.0025474 -0.001153 -0.015282 0.020938
-0.14253 0.16062 -0.021701 0.016278
-0.0025635 -0.0024711 0.0032541 0.00057958 0.0016825 0.0041065 -0.0057031 -0.0089131
-0.021703 0.016256 -0.17936 0.22109
920000000 -0.088871 0.27823 0.0062897 0.036915 -0.0091475 -0.0036021 -0.0013573 0.0019611
0.0018938 0.0016703 0.0027851 -0.0017718
0.0062736 0.036886 -0.25491 0.3172 0.028138 0.020147 0.0018096 0.00092456
0.0069394 -0.00056661 0.0034975 -0.0029346
-0.0091365 -0.0035708 0.028186 0.020088 0.074257 0.32249 0.0019862 -9.5482e-05
0.0016431 -0.00058422 0.00095838 -0.0011214
-0.0013525 0.0019669 0.0017988 0.0009232 0.0019927 -9.8528e-05 -0.10584 0.2688
-0.0072696 0.030446 0.0021586 -0.0061207
0.0019068 0.0016734 0.0069677 -0.00060544 0.0016527 -0.00058684 -0.0072167 0.030487
-0.12779 0.16597 -0.00057285 0.02494
0.0027541 -0.0017973 0.0034869 -0.0029749 0.00096029 -0.0011199 0.0021634 -0.0061306
-0.00057528 0.024927 -0.17842 0.23614
980000000 -0.041652 0.29581 0.018654 0.028423 -0.0081769 0.0048038 0.0022219 0.0029712
0.0038764 -0.002209 -0.0032946 -0.0020415
0.018605 0.02839 -0.20278 0.34922 0.032236 0.0031504 0.0020587 -0.00039639
0.0014198 -0.0062798 -0.00074244 -0.0023014
-0.0081737 0.0048236 0.032271 0.003069 0.12083 0.31414 0.00050473 -0.0012992
3.7588e-05 -0.0022147 0.0013805 -0.00019041
0.0022255 0.0029775 0.0020784 -0.00041854 0.00052048 -0.0012957 -0.066787 0.27801
0.010337 0.027887 -0.0085767 -0.0057493
0.0038733 -0.0022155 0.0014206 -0.0062899 3.7837e-05 -0.0022156 0.010388 0.027883
-0.097482 0.19017 0.0060552 0.018524
-0.0032931 -0.002022 -0.00074515 -0.0023138 0.0013838 -0.00018787 -0.0085798 -0.0057534
0.0060448 0.018535 -0.13363 0.27388
1040000000 0.0015269 0.30307 0.032849 0.015708 -0.00099828 0.0065623 0.0024295 0.00042082
-9.8467e-05 -0.0033098 -0.00072609 -0.001405
0.032779 0.01571 -0.16671 0.36226 0.027453 -0.01555 0.0012796 -0.0017823
-0.0024025 -0.0024316 -0.0014998 -0.0027781
-0.00098386 0.0065739 0.027418 -0.015636 0.1673 0.29935 -0.00066646 -0.0014856
-0.001559 -0.00090929 -0.00042547 -0.0011398
0.0024262 0.00043701 0.0012814 -0.0018001 -0.00067221 -0.0014713 -0.037989 0.2872
0.020523 0.015392 -0.0027372 0.0013359
-0.00010744 -0.0032991 -0.0023961 -0.0024345 -0.0015662 -0.00091426 0.020566 0.015339
-0.065249 0.1967 0.01356 0.015561
-0.00073235 -0.0013946 -0.0015214 -0.0027879 -0.00042434 -0.0011301 -0.0027391 0.0013361
0.01355 0.015557 -0.10822 0.29282
1100000000 0.047244 0.30888 0.034308 -0.0057398 0.0028029 0.0035464 0.0022362 -0.001129
-0.0022275 -0.002701 -0.0034706 0.00051355
0.034261 -0.0057194 -0.12301 0.37821 0.013325 -0.027325 -0.00013021 -0.0017587
-0.0033869 -0.00041524 -0.0032727 -0.00018426
0.0028051 0.0035439 0.013261 -0.02737 0.21396 0.27697 -0.0017902 0.00019525
-0.0017406 0.00066448 -0.00090744 -0.0002934
0.0022273 -0.0011297 -0.00013801 -0.0017661 -0.0017928 0.00019651 0.0036159 0.28976
0.023908 0.0024452 -0.0024053 0.00034363
-0.0022381 -0.0026901 -0.0033851 -0.00040365 -0.0017394 0.00066679 0.023928 0.0024091
-0.046166 0.20823 0.017995 0.0064332
-0.0034652 0.0005379 -0.0032652 -0.00017789 -0.00090743 -0.00029199 -0.0024076 0.00035357
0.017983 0.0064401 -0.061323 0.3165
1160000000 0.098163 0.30254 0.021958 -0.021251 0.0023833 -0.00041338 -7.2172e-05 -0.0021882
-0.0038489 -0.0004322 -0.00056741 0.0036806
0.02193 -0.02123 -0.07867 0.38156 -0.0048786 -0.027687 -0.0016149 -0.0015226
-0.00244 0.0023752 -0.0012412 0.0017495
0.0023775 -0.0004114 -0.0049558 -0.027694 0.25608 0.24449 -0.00078886 0.0016973
-0.00053003 0.00182 -0.00077871 0.00018701
-8.5891e-05 -0.0021799 -0.0016153 -0.0015293 -0.00079138 0.0016919 0.043151 0.28465
0.019702 -0.012083 -0.0029009 0.0045151
-0.0038542 -0.0004255 -0.0024104 0.0023798 -0.00052958 0.0018083 0.019705 -0.012119
-0.01217 0.21566 0.016482 -0.0018345
-0.0005669 0.0036786 -0.0012376 0.0017409 -0.0007912 0.00018994 -0.0028986 0.0045245
0.016481 -0.0018334 -0.014609 0.31647
1220000000 0.14296 0.28919 0.008393 -0.029199 -0.0014657 -0.00043532 6.2559e-05 -0.00096369
-0.0023296 0.0023699 0.0014143 0.0018331
0.0084027 -0.02917 -0.034501 0.39209 -0.016938 -0.019444 -0.0023979 0.00046203
0.00016664 0.0027585 -0.00047939 0.0018544
-0.0014747 -0.00043209 -0.016987 -0.019398 0.29475 0.2044 0.00078591 0.0017908
0.00061796 0.0011873 0.00028508 0.00053013
5.8517e-05 -0.00095585 -0.0023969 0.00046694 0.00078663 0.001797 0.083478 0.27361
0.008757 -0.017919 0.0016661 0.001445
-0.0023219 0.0023759 0.00018592 0.0027629 0.00062083 0.0011815 0.0087424 -0.017937
0.012086 0.22242 0.011538 -0.012959
0.001417 0.0018191 -0.00046939 0.0018433 0.00028582 0.00052514 0.0016657 0.0014461
0.011524 -0.012948 0.019045 0.3279
1280000000 0.19147 0.2653 -0.0088782 -0.026793 -0.0014768 0.0026316 -0.00099847 -0.0019078
-0.00056755 0.0028885 0.0022856 0.00086319
-0.0088542 -0.026774 0.011017 0.38206 -0.022933 -0.0073366 -0.00095838 0.0013872
0.001582 0.0015979 0.00070347 0.0017384
-0.0014675 0.0026385 -0.022963 -0.0072683 0.32436 0.15924 0.0015751 3.9252e-06
0.0010192 0.00022706 0.00016729 0.00025918
-0.00099285 -0.0018939 -0.00095791 0.0013856 0.0015817 9.2007e-06 0.11917 0.25448
-0.00059536 -0.019062 -0.00026923 0.00031831
-0.00055449 0.0028857 0.0015989 0.0015957 0.0010233 0.00021557 -0.00063421 -0.019072
0.048457 0.22361 0.0014763 -0.014417
0.0022891 0.00086209 0.00070294 0.0017334 0.00016924 0.00025953 -0.00027318 0.00032406
0.0014821 -0.014421 0.064842 0.32531
1340000000 0.22776 0.23017 -0.017649 -0.017132 0.0013012 0.0041516 -0.0016655 -0.00081056
0.0014721 0.0024474 0.0013911 -0.0014372
-0.017617 -0.01713 0.050244 0.37292 -0.02039 0.004776 -0.00014176 0.0019842
0.0018265 0.00065241 0.0012787 0.00062853
0.0013072 0.0041429 -0.020379 0.0048511 0.3453 0.11099 0.0011989 -0.00097484
0.0006482 -0.00051301 5.9994e-05 0.00020928
-0.0016672 -0.00080914 -0.00012653 0.0019913 0.0011937 -0.00098409 0.15038 0.23233
-0.0096438 -0.015743 0.00065931 0.0009281
0.0014774 0.0024374 0.0018339 0.00064205 0.00064432 -0.00050927 -0.0096721 -0.015743
0.078034 0.21696 -0.0048919 -0.012374
0.0013949 -0.0014355 0.0012849 0.00062408 6.1071e-05 0.00020653 0.00066697 0.00092735
-0.0048873 -0.012377 0.10349 0.31703
1400000000 0.25942 0.19073 -0.022336 -0.0061022 0.0050976 0.0025402 -0.0020278 0.00059289
0.0022883 0.00067441 0.00010299 -0.0013228
-0.022308 -0.0061125 0.086918 0.35917 -0.013669 0.012102 0.0013098 0.0013462
0.0011511 -0.00075922 0.0010917 0.00011668
0.0051011 0.0025161 -0.013637 0.012162 0.35796 0.056702 0.00013576 -0.0017349
8.3045e-05 -0.00031406 0.00036512 0.00016176
-0.0020267 0.00059939 0.0013189 0.0013504 0.00013311 -0.0017329 0.17855 0.20161
-0.01486 -0.0089592 -0.00032373 0.00019976
0.0022915 0.00066785 0.0011431 -0.00075823 8.1323e-05 -0.00030731 -0.014891 -0.0089283
0.11039 0.21015 -0.010278 -0.007408
9.6218e-05 -0.0013218 0.0010952 0.00010737 0.00036204 0.00015769 -0.0003211 0.0002012
-0.010274 -0.0074156 0.14604 0.30211
1460000000 0.28069 0.14621 -0.019112 0.0051432 0.0051926 -0.0021876 -0.0015066 0.0016204
0.0019144 -0.00064191 -0.00041066 -0.00083091
-0.019101 0.0051226 0.12069 0.33682 -0.0055444 0.014478 0.0017473 0.00013778
0.00081514 -0.001218 0.0010512 -0.00061713
0.0051835 -0.0021902 -0.0055012 0.014505 0.36248 0.0019383 -0.0013885 -0.0013472
0.00012427 -0.00018567 0.00057676 -0.00028442
-0.00151 0.0016154 0.0017474 0.00015031 -0.0013952 -0.0013345 0.20253 0.17119
-0.015769 -0.002495 -0.00030799 0.0018937
0.0019056 -0.00063367 0.00080899 -0.001223 0.00012839 -0.00018387 -0.015783 -0.0024686
0.13856 0.19357 -0.011363 -0.001833
-0.00039378 -0.00081984 0.0010461 -0.00061931 0.00058043 -0.00028549 -0.00031842 0.0019006
-0.011362 -0.0018275 0.17788 0.27915
1520000000 0.29183 0.10374 -0.013474 0.010078 0.0027891 -0.0041 7.6925e-05 0.0025281
0.001842 -0.0016535 -0.0010351 -2.7468e-05
-0.01347 0.010067 0.15396 0.3215 0.0014909 0.012353 0.0016848 -0.00088822
7.8082e-05 -0.0010599 0.00025866 -0.00092993
0.0027687 -0.0041101 0.0015376 0.012353 0.35501 -0.054607 -0.0013285 -0.00034042
0.00054075 -0.00089059 -4.4907e-05 -0.000138
8.2053e-05 0.0025304 0.0016825 -0.0008886 -0.0013192 -0.00034463 0.22353 0.13284
-0.01492 0.0030687 0.001773 0.0016937
0.0018306 -0.0016576 6.9546e-05 -0.0010651 0.00053778 -0.00088385 -0.014921 0.0030976
0.16584 0.17775 -0.01101 0.0022336
-0.0010345 -2.2387e-05 0.00025916 -0.00093611 -4.2861e-05 -0.0001369 0.0017775 0.0017004
-0.011017 0.0022185 0.20975 0.25562
1580000000 0.29979 0.057188 -0.0073109 0.012673 -0.0011697 -0.0044614 0.0014356 0.0018388
-0.00022074 -0.0020003 -0.00024035 0.0003852
-0.0073231 0.01265 0.18078 0.29603 0.0047962 0.007792 0.000406 -0.0017171
-0.00051853 -0.0010648 -0.0002509 -0.00079909
-0.0011717 -0.0044505 0.0048182 0.007779 0.33399 -0.11226 -0.0016831 0.00087893
-0.00029119 -0.0010313 0.00020383 -0.00050014
0.0014401 0.0018341 0.00039974 -0.0017243 -0.0016799 0.00086852 0.23506 0.093428
-0.011673 0.0078218 0.0022414 0.00024417
-0.00023319 -0.0019951 -0.00052899 -0.0010576 -0.00028801 -0.0010331 -0.011658 0.0078501
0.18872 0.15768 -0.0086014 0.0071523
-0.00023693 0.00038644 -0.00026351 -0.00079716 0.00019463 -0.00049705 0.0022396 0.00023024
-0.0086088 0.0071438 0.23912 0.22664
1640000000 0.30058 0.015664 -0.0011791 0.011472 -0.0026678 -0.0022124 0.0026983 0.00095807
-0.00074184 -0.0014467 -0.00023322 0.00052334
-0.0011921 0.011464 0.20986 0.27047 0.0054036 0.0035204 -0.00088781 -0.0016643
-0.0010897 -0.00039588 -0.00055205 -0.00055406
-0.0026809 -0.0022108 0.0054252 0.0034918 0.30432 -0.16072 -0.00062889 0.001622
-0.0011957 -0.00075891 -0.00021682 -0.00017892
0.0027052 0.00094494 -0.00088931 -0.0016658 -0.00063052 0.0016044 0.24521 0.045688
-0.0075144 0.0094671 0.002244 -0.0011059
-0.00075496 -0.0014408 -0.0010999 -0.00038424 -0.0011879 -0.00076513 -0.0074903 0.0094838
0.20976 0.132 -0.004254 0.0088529
-0.00022844 0.00052373 -0.00055097 -0.00055111 -0.00021968 -0.00017491 0.002257 -0.0011028
-0.0042603 0.0088539 0.26264 0.19366
1700000000 0.29211 -0.030007 0.0019134 0.0088251 -0.0032372 0.00020378 0.0029696 -0.0012895
-0.001918 -0.00062755 0.00065056 0.00038363
0.0019062 0.0088157 0.22758 0.23844 0.0037205 0.00077039 -0.0014982 -0.00042197
-0.00081744 0.00020102 -0.00086617 -0.00035393
-0.0032342 0.00021027 0.0037362 0.00075637 0.2611 -0.20039 0.00066328 0.0014938
-0.0017699 -0.00015921 -0.00056479 -0.00077969
0.0029644 -0.001291 -0.0014951 -0.0004134 0.00065732 0.0014933 0.2408 -0.0028644
-0.0043745 0.010256 0.0011763 -0.0021707
-0.0019206 -0.00061936 -0.00081584 0.00020832 -0.0017717 -0.00015505 -0.0043608 0.010271
0.22563 0.11033 4.5114e-05 0.0092175
0.00065672 0.00037989 -0.00086631 -0.00035133 -0.0005685 -0.00077543 0.0011599 -0.0021746
4.9815e-05 0.0092217 0.27687 0.15781
1760000000 0.27851 -0.078517 0.003972 0.0057811 -0.0020543 0.00089683 0.0010725 -0.0034328
-0.0013543 0.00073289 0.00043984 -0.00044636
0.0039654 0.0057694 0.25269 0.19772 0.0016638 -0.0010675 -0.0011699 0.00032828
-0.00097421 0.00095676 -0.00055597 0.00050817
-0.0020584 0.00089136 0.0016689 -0.0010777 0.21177 -0.23401 0.0013654 0.00089605
-0.001183 0.0015834 -0.0013066 -0.00028196
0.0010555 -0.003433 -0.0011764 0.00033367 0.0013703 0.00089956 0.23064 -0.05229
-0.00074114 0.009601 -0.00054144 -0.0023088
-0.0013492 0.00073468 -0.00096765 0.00097093 -0.0011752 0.0015808 -0.00071915 0.0096102
0.23845 0.074137 0.0034856 0.0066652
0.00043824 -0.00044907 -0.00055183 0.00051168 -0.0013124 -0.00029358 -0.0005468 -0.002318
0.0034803 0.0066607 0.28697 0.11903
1820000000 0.25241 -0.11537 0.0040617 0.0024311 4.679e-05 0.0023368 -0.0011582 -0.0028697
-0.0010235 0.0010731 1.8353e-05 -5.648e-05
0.0040665 0.0024302 0.26177 0.16746 -0.00015566 7.1279e-06 -0.0011241 0.0010282
6.5054e-05 0.0013396 -0.00047935 0.00056125
5.9976e-05 0.0023278 -0.00015497 5.3372e-06 0.16112 -0.24888 0.0013605 4.6673e-06
-6.7543e-05 0.0021221 -0.0013145 0.00043881
-0.0011556 -0.0028555 -0.0011191 0.0010356 0.0013447 9.2452e-06 0.20091 -0.097304
0.001264 0.007844 -0.0016146 -0.001184
-0.0010173 0.001073 7.3989e-05 0.0013401 -6.4543e-05 0.0021208 0.0012808 0.0078508
0.2537 0.044242 0.0044122 0.0034541
2.1468e-05 -5.7217e-05 -0.00047428 0.00056414 -0.0013121 0.00043953 -0.0016228 -0.0011836
0.0044138 0.003457 0.287 0.081858
1880000000 0.2157 -0.15505 0.0018818 0.00032381 -0.00037354 0.0018586 -0.002909 -0.0019098
-0.00012795 0.001682 0.00022696 -0.00049378
0.0018763 0.00031969 0.26535 0.12046 -0.0022763 0.0016178 1.2687e-05 0.0016085
0.00073148 0.0010613 0.00023126 0.00087811
-0.00036344 0.0018511 -0.0022625 0.0016296 0.10789 -0.25881 0.0014119 -0.0010958
0.0016227 0.0016561 -0.00078611 0.001306
-0.0029068 -0.0019016 2.6611e-05 0.0016058 0.0014067 -0.0010948 0.16133 -0.13662
0.0022716 0.0054562 -0.002099 0.00053155
-0.00012451 0.0016934 0.00073007 0.0010555 0.0016312 0.0016658 0.0022862 0.0054582
0.25453 0.010447 0.0042006 0.0015637
0.0002241 -0.00049916 0.00023765 0.00087416 -0.0007849 0.0013104 -0.0021015 0.00053628
0.0042105 0.0015693 0.28444 0.047274
1940000000 0.17539 -0.17966 -0.00025082 -0.0011038 0.0013545 0.0018512 -0.0035674 0.00067042
0.0015127 0.001091 -0.00058353 -0.00065757
-0.00025356 -0.0011047 0.2647 0.088968 -0.0010411 0.0039708 0.001035 0.001037
0.0017839 0.00029483 0.00088292 0.00032543
0.0013621 0.0018416 -0.0010202 0.003977 0.061675 -0.25094 0.00013777 -0.0017188
0.0023321 0.00025333 0.0004559 0.001627
-0.0035631 0.00068929 0.0010467 0.0010335 0.00014408 -0.0017104 0.10992 -0.16626
0.0016057 0.0037108 -0.0011802 0.0015457
0.001517 0.0010767 0.0017921 0.0002823 0.0023403 0.00024775 0.0016134 0.0037103
0.25413 -0.029018 0.0032039 -0.0011979
-0.00058552 -0.00065025 0.00088569 0.00031978 0.0004437 0.0016256 -0.0011812 0.0015384
0.0032091 -0.0011993 0.2714 0.011062
2000000000 0.12877 -0.19338 -0.00394 0.00099764 0.0024461 0.0013782 -0.002183 0.003329
0.0012359 -5.1774e-05 -0.00066546 0.00037923
-0.0039327 0.00098841 0.25002 0.053578 -0.00080435 0.0057088 0.001451 0.00014411
0.0011921 -0.0013655 0.00041577 -6.2053e-05
0.0024403 0.0013621 -0.00077006 0.005722 0.018418 -0.23627 -0.0010915 -0.0010271
0.0017717 -0.0011611 0.0017212 0.00097944
-0.0021697 0.0033351 0.0014524 0.00013985 -0.0010999 -0.0010349 0.057548 -0.17673
-0.00014098 0.0029562 0.00012036 0.0020362
0.0012357 -4.1015e-05 0.0011873 -0.0013844 0.0017764 -0.0011727 -0.0001309 0.002965
0.24606 -0.063482 0.000461 -0.0022527
