!Keysight Technologies,M9804A,MY58100912,A.14.10.03
!Date: Thursday, April 27, 2023 10:28:33
!Correction: S11(C  6-Port  ) 
!S12(C  6-Port  ) 
!S13(C  6-Port  ) 
!S14(C  6-Port  ) 
!S15(C  6-Port  ) 
!S16(C  6-Port  ) 
!S21(C  6-Port  ) 
!S22(C  6-Port  ) 
!S23(C  6-Port  ) 
!S24(C  6-Port  ) 
!S25(C  6-Port  ) 
!S26(C  6-Port  ) 
!S31(C  6-Port  ) 
!S32(C  6-Port  ) 
!S33(C  6-Port  ) 
!S34(C  6-Port  ) 
!S35(C  6-Port  ) 
!S36(C  6-Port  ) 
!S41(C  6-Port  ) 
!S42(C  6-Port  ) 
!S43(C  6-Port  ) 
!S44(C  6-Port  ) 
!S45(C  6-Port  ) 
!S46(C  6-Port  ) 
!S51(C  6-Port  ) 
!S52(C  6-Port  ) 
!S53(C  6-Port  ) 
!S54(C  6-Port  ) 
!S55(C  6-Port  ) 
!S56(C  6-Port  ) 
!S61(C  6-Port  ) 
!S62(C  6-Port  ) 
!S63(C  6-Port  ) 
!S64(C  6-Port  ) 
!S65(C  6-Port  ) 
!S66(C  6-Port  ) 
!S6P File: Measurement: :
# Hz S  RI   R 50
500000000 -0.3386 -0.019169 -0.010407 -0.0029008 -0.0072096 0.011836 -0.0035152 0.012114
0.011418 0.0046035 -0.0021683 0.0084557
-0.010742 -0.0040507 -0.41907 -0.036358 0.0067319 -0.011904 0.0019511 0.012528
0.0068753 0.0020684 0.0027294 0.01366
-0.0075152 0.011782 0.0065505 -0.011735 -0.26229 0.22194 0.0075195 0.0035205
-0.00099409 0.0081699 0.0031645 0.01174
-0.0027146 0.01109 0.0016754 0.012195 0.0072418 0.0033506 -0.32921 0.062379
-0.019191 -0.0064755 0.015819 0.023724
0.012048 0.003751 0.0069962 0.0024806 -0.00059144 0.0087101 -0.019027 -0.0063107
-0.23552 -0.1639 -0.025361 0.0052709
-0.0030694 0.0070556 0.002362 0.013207 0.0026555 0.011354 0.016801 0.024112
-0.025687 0.0049117 -0.28338 -0.078819
560000000 -0.31311 0.13728 -0.027465 -0.060328 0.00085951 0.011408 0.0059874 0.009803
0.0098322 0.0036846 0.010338 0.0062743
-0.026846 -0.060219 -0.37569 0.11842 -0.041878 -0.035337 0.013031 0.0028121
-0.012042 -0.0031137 0.0031663 -0.00087657
0.00082816 0.011531 -0.042834 -0.035093 -0.17974 0.267 -0.00031913 -0.0044685
0.018206 0.0035523 0.006632 -0.0064445
0.0058657 0.010145 0.013039 0.0030462 -0.00041462 -0.004619 -0.30419 0.1478
0.0013172 -0.024462 0.0032175 -0.018549
0.010322 0.0046355 -0.012985 -0.0035943 0.018364 0.0039915 0.00028539 -0.024377
-0.28721 0.0086381 0.0032532 -0.046213
0.011257 0.0064517 0.0027665 -0.00084855 0.0066187 -0.0064198 0.0035854 -0.018529
0.0035209 -0.046782 -0.32977 0.058637
620000000 -0.27 0.1224 -0.023311 0.0070974 0.0040908 0.0078209 0.0077573 -0.0049535
0.010024 -0.0011889 0.0011075 -0.0029189
-0.023207 0.0070991 -0.4012 0.07336 -0.019653 0.00033995 -0.0010554 -0.0024341
0.0096642 -0.0063681 0.0016141 -0.0027479
0.003756 0.007749 -0.019584 0.00048074 -0.14934 0.27629 -0.001126 -0.0049159
-0.0033778 -0.0025367 0.0082321 -0.0036011
0.0073872 -0.0058708 -0.0011611 -0.0022328 -0.00099604 -0.0048615 -0.262 0.16046
-0.03921 -0.017132 0.012297 0.022625
0.0092627 -0.0013813 0.010133 -0.0064252 -0.0036737 -0.0029128 -0.039784 -0.018121
-0.20997 -0.029514 -0.038328 0.014741
0.00032325 -0.0027014 0.0014267 -0.0027869 0.0082349 -0.0037135 0.012408 0.02315
-0.038322 0.014354 -0.25548 0.030874
680000000 -0.22763 0.20381 -0.027774 -0.012236 0.0053087 0.0045894 0.001142 -0.0073936
-0.0032389 -0.011323 0.0037938 -0.0067644
-0.027997 -0.012109 -0.38433 0.16746 -0.032175 0.00048227 -0.0014378 -0.00043523
-0.0025068 -0.0087576 -0.0014518 -0.0021176
0.0053467 0.0048044 -0.032272 0.00054813 -0.098453 0.29412 -0.00079908 -8.5331e-05
-0.00165 7.2977e-05 -0.0036047 -0.0085433
0.00032009 -0.0067473 -0.0013325 -0.00047198 -0.00086221 3.6113e-05 -0.21694 0.20669
-0.025466 -0.0053471 -0.0089844 -0.0083184
-0.0032287 -0.010668 -0.0025612 -0.0088244 -0.0015139 0.00021164 -0.025477 -0.005947
-0.24903 0.067119 -0.0072078 -0.0074162
0.0044791 -0.0062075 -0.0013679 -0.0024176 -0.0040809 -0.0085171 -0.0092393 -0.0086841
-0.0071058 -0.007638 -0.25377 0.1253
740000000 -0.18452 0.19848 -0.037003 0.026035 0.011761 -0.0059884 -0.00083996 -0.0041579
-0.0053653 -0.0026928 -0.0059473 0.0034407
-0.036867 0.025927 -0.33296 0.18789 -0.033176 0.034766 -0.00093945 -0.0059995
-0.011355 0.0079203 -0.0019105 -0.0045328
0.011857 -0.0055694 -0.032998 0.034886 -0.064891 0.29405 -0.001919 0.0030643
-0.0031669 -0.0044667 -0.0021865 0.001337
-0.00050159 -0.0045221 -0.0012646 -0.0059471 -0.0018092 0.0029394 -0.19898 0.21586
-0.041796 -0.0033956 0.02164 0.012332
-0.0048832 -0.0036093 -0.011184 0.0076627 -0.0031701 -0.0046426 -0.042241 -0.0033011
-0.15777 0.088296 -0.038893 0.0032991
-0.0062392 0.0030596 -0.0023877 -0.0043296 -0.0021242 0.0011418 0.021595 0.012227
-0.038631 0.0030611 -0.24168 0.13523
800000000 -0.15023 0.23586 -0.021639 0.017551 0.0043291 -0.01031 -0.0043892 -0.0016237
-0.0038571 0.0030402 0.0037261 0.00082619
-0.02169 0.017154 -0.33277 0.25563 -0.006718 0.03356 -0.0024174 0.0022527
-0.00075172 0.00339 0.0011053 0.0053782
0.0045026 -0.010395 -0.0065972 0.033568 -0.022005 0.31587 0.00083034 0.0015765
0.00024201 0.0036094 -0.0019009 0.0012785
-0.0050742 -0.0011643 -0.0023338 0.0023757 0.00094877 0.0015938 -0.16865 0.24206
-0.026635 0.016131 0.012257 -0.01001
-0.0039593 0.0036781 -0.00051857 0.0034176 0.00026567 0.0035963 -0.026847 0.016111
-0.19463 0.11459 -0.015655 0.018634
0.0036242 0.0011293 0.0010851 0.0057773 -0.0018288 0.0012845 0.012378 -0.0098842
-0.015653 0.018317 -0.22849 0.18063
860000000 -0.11613 0.2566 -0.015776 0.031034 -0.0038394 -0.0092952 -0.0021018 0.0015466
0.0042922 0.004992 -0.0026694 -0.0024783
-0.015964 0.031136 -0.28518 0.29669 0.0092491 0.033019 0.00028685 0.0022579
0.0048257 0.0004775 0.0031119 0.00063294
-0.0039185 -0.0091669 0.0093721 0.033003 0.026585 0.32266 -0.0003154 7.7112e-05
0.0024671 -0.0011969 0.0016897 0.0041748
-0.0018255 0.0012218 0.00023744 0.0024443 -0.0003327 1.9791e-05 -0.1321 0.25312
-0.015084 0.020828 -0.0057053 -0.0089288
0.0049126 0.0049092 0.0045975 0.00068035 0.0024876 -0.0012133 -0.015037 0.020893
-0.14215 0.16074 -0.021707 0.016458
-0.0030183 -0.0028387 0.0032204 0.00040832 0.0016599 0.0040124 -0.0057862 -0.0090547
-0.021707 0.016649 -0.17974 0.22061
920000000 -0.089384 0.27793 0.0062523 0.036978 -0.0090805 -0.0035913 -0.0013302 0.001998
0.0018909 0.0016584 0.0027472 -0.0019403
0.0062486 0.03687 -0.25483 0.31714 0.028159 0.020109 0.0018266 0.00097126
0.007224 -0.00053026 0.0035112 -0.0031201
-0.0091963 -0.0035893 0.028219 0.02011 0.074188 0.32251 0.0019967 -9.5149e-05
0.0016413 -0.00057365 0.00089736 -0.0012209
-0.0014122 0.0020821 0.0016796 0.0010631 0.0019858 -0.00011726 -0.10589 0.26881
-0.0071791 0.030469 0.0021949 -0.0060995
0.0018198 0.0019505 0.0071034 -0.00063375 0.0017153 -0.000575 -0.0071969 0.030533
-0.12744 0.1663 -0.00069947 0.025303
0.0027961 -0.0018341 0.003444 -0.0029386 0.0010452 -0.0010423 0.0021699 -0.0060261
-0.00038633 0.02531 -0.17842 0.23611
980000000 -0.041635 0.29573 0.018837 0.028387 -0.0082819 0.0047698 0.0022613 0.0029801
0.0040501 -0.00209 -0.0032934 -0.0020827
0.01881 0.028325 -0.20264 0.34908 0.032282 0.0031143 0.0021377 -0.0003917
0.0014178 -0.0062729 -0.00072851 -0.002352
-0.0081901 0.004728 0.032287 0.0030454 0.12077 0.31414 0.00053216 -0.0013513
0.00013939 -0.0022358 0.0013685 -0.00025297
0.0023044 0.0029988 0.0021447 -0.00039111 0.00049602 -0.0013486 -0.066958 0.27805
0.010439 0.027925 -0.0085047 -0.0058317
0.0040475 -0.0023817 0.0015009 -0.0063381 0.00012416 -0.0022587 0.010529 0.027982
-0.097244 0.19017 0.0061227 0.018676
-0.0031978 -0.0023095 -0.00070329 -0.0025683 0.0013346 -0.00019716 -0.0085107 -0.0057624
0.0062028 0.01864 -0.13391 0.27387
1040000000 0.0012162 0.30275 0.032878 0.015773 -0.00099999 0.0065759 0.0024484 0.00044229
-4.0319e-05 -0.0032724 -0.00069031 -0.0014356
0.032957 0.0156 -0.16683 0.36208 0.027481 -0.015627 0.0013097 -0.0018634
-0.0023407 -0.0025843 -0.0014368 -0.0027494
-0.00093063 0.0065463 0.027429 -0.01566 0.16724 0.29937 -0.0006555 -0.0014667
-0.0015334 -0.00091118 -0.00037531 -0.0011348
0.0023281 0.0004702 0.001285 -0.0018388 -0.00067172 -0.001472 -0.037974 0.28718
0.020572 0.015426 -0.0027663 0.0012896
-0.00028139 -0.0033537 -0.0023591 -0.0027112 -0.0015825 -0.00095036 0.020655 0.015382
-0.065107 0.19642 0.013737 0.015501
-0.00073089 -0.00131 -0.0015914 -0.0026183 -0.00045876 -0.0011855 -0.0027133 0.0012021
0.013898 0.015498 -0.10851 0.29277
1100000000 0.04719 0.30898 0.034345 -0.0057107 0.0027899 0.0035896 0.0022194 -0.0011216
-0.0021912 -0.002744 -0.003435 0.00039245
0.03438 -0.0057441 -0.12316 0.37811 0.013319 -0.027348 -0.00018093 -0.0017743
-0.0034082 -0.00046581 -0.0032555 -0.00022683
0.0027974 0.0035175 0.013218 -0.027379 0.21389 0.27697 -0.0018094 0.00019518
-0.0017735 0.00066333 -0.00091943 -0.00025722
0.0023257 -0.0010317 -0.0001479 -0.0018192 -0.0017939 0.00021688 0.0036516 0.28965
0.023979 0.0024023 -0.0023593 0.00036133
-0.0020425 -0.0027753 -0.0033596 -0.00038692 -0.0018258 0.00073168 0.024064 0.0023657
-0.046127 0.2079 0.018142 0.0064429
-0.0034392 0.00041871 -0.0032151 -0.0003314 -0.00098426 -0.00026768 -0.0023699 0.00025124
0.018123 0.0064823 -0.061535 0.31646
1160000000 0.097984 0.30249 0.021997 -0.021335 0.0023738 -0.00042468 -9.553e-05 -0.0021928
-0.0039272 -0.00043188 -0.00055757 0.0036594
0.021955 -0.02126 -0.078792 0.38149 -0.0048793 -0.027696 -0.001601 -0.0015902
-0.0024679 0.002373 -0.0013323 0.0017494
0.0023505 -0.00045118 -0.0049663 -0.027697 0.2561 0.2446 -0.00081663 0.0016952
-0.00060325 0.0018717 -0.00083645 0.00020062
-7.5836e-05 -0.0021882 -0.0016494 -0.0015386 -0.00078411 0.0017102 0.043087 0.28467
0.01959 -0.012273 -0.0029456 0.0044202
-0.0038274 -0.00039171 -0.0024797 0.0024179 -0.00055726 0.0018935 0.019623 -0.012215
-0.012299 0.21503 0.016625 -0.0019599
-0.00067314 0.0037542 -0.001318 0.001796 -0.0007924 0.00012001 -0.0028357 0.0043067
0.016686 -0.0019402 -0.014835 0.3167
1220000000 0.14284 0.2894 0.008331 -0.029274 -0.0015349 -0.000465 7.7355e-05 -0.00090082
-0.0023363 0.0023591 0.0013285 0.0018441
0.0084134 -0.029219 -0.034604 0.39208 -0.016961 -0.019506 -0.0024027 0.00048776
0.00017777 0.0028184 -0.00050676 0.0018827
-0.001528 -0.0004874 -0.017053 -0.019446 0.29479 0.20446 0.00074723 0.0017997
0.00063042 0.0012686 0.00025739 0.00052145
1.5888e-05 -0.000862 -0.0024077 0.00052134 0.00077416 0.0018116 0.083507 0.27357
0.0087131 -0.017965 0.0016659 0.0014454
-0.002379 0.0024115 0.00015626 0.0028379 0.00060757 0.0012299 0.0087077 -0.017953
0.011732 0.22201 0.011598 -0.013144
0.0012981 0.001927 -0.0005634 0.0019005 0.00029253 0.00053227 0.0016135 0.0015009
0.011592 -0.013198 0.018869 0.32804
1280000000 0.19146 0.26538 -0.0089917 -0.026856 -0.0015001 0.0026975 -0.00094372 -0.0019057
-0.00057663 0.002928 0.0022893 0.00090194
-0.0089674 -0.026882 0.010919 0.38211 -0.022938 -0.0073513 -0.00096941 0.0013969
0.0016365 0.0016498 0.00071205 0.0017464
-0.0014782 0.0027191 -0.022977 -0.0072907 0.32424 0.15931 0.0016041 7.2968e-06
0.0010494 0.00020799 0.00020521 0.0002642
-0.00096466 -0.0019181 -0.00095311 0.0013917 0.0015663 -8.4912e-06 0.11915 0.25442
-0.00070129 -0.019121 -0.00029914 0.00033514
-0.00051442 0.0028526 0.0016613 0.0016622 0.0011104 0.00020037 -0.00075351 -0.019085
0.048007 0.22332 0.0014132 -0.014708
0.0023399 0.00088249 0.00065996 0.0017879 0.00015112 0.00023192 -0.00038715 0.00034951
0.0014921 -0.014697 0.064695 0.32533
1340000000 0.22775 0.2303 -0.017775 -0.017124 0.0012271 0.0041645 -0.0016888 -0.00085482
0.0015016 0.002419 0.0014396 -0.0014496
-0.017714 -0.017151 0.050222 0.373 -0.020427 0.0047655 -0.00013368 0.0019785
0.0018292 0.00065239 0.0013084 0.00066104
0.0013101 0.0041527 -0.02043 0.0048658 0.3453 0.11106 0.0012127 -0.00099066
0.00072043 -0.00050115 0.00010796 0.00024256
-0.0017093 -0.00078886 -0.00011381 0.0019586 0.0012432 -0.00096884 0.15037 0.23236
-0.0097523 -0.015691 0.00061546 0.00099057
0.0014618 0.0025071 0.0018337 0.00064284 0.00059559 -0.00051317 -0.0097226 -0.015729
0.077579 0.21693 -0.0050651 -0.012577
0.0014447 -0.0014783 0.0012734 0.0006496 6.7521e-05 0.00023331 0.00062349 0.00095281
-0.0050414 -0.012622 0.1034 0.31703
1400000000 0.25936 0.19063 -0.022434 -0.0060649 0.0051545 0.0026064 -0.0021095 0.00061767
0.0022842 0.00062983 0.00016051 -0.0013673
-0.022442 -0.0060672 0.086889 0.35916 -0.01374 0.012119 0.0012917 0.0013681
0.0011315 -0.00077901 0.0010868 9.9854e-05
0.005151 0.0025642 -0.013687 0.012182 0.35789 0.056653 0.00010635 -0.0017846
9.1503e-05 -0.00034072 0.00033989 0.00014682
-0.0020669 0.0006392 0.0013407 0.0013711 8.3397e-05 -0.0017513 0.17848 0.20159
-0.014936 -0.008944 -0.00036508 0.00029424
0.0022796 0.00070539 0.0011472 -0.00074627 4.0776e-05 -0.00036731 -0.014943 -0.008882
0.1099 0.2102 -0.010566 -0.0075097
8.1541e-05 -0.0013812 0.0011065 5.9705e-05 0.00035584 0.00014604 -0.00031325 0.0002866
-0.010549 -0.0074882 0.14584 0.30208
1460000000 0.28063 0.14631 -0.019135 0.0052994 0.0052477 -0.0021548 -0.0015156 0.0016496
0.0019213 -0.00062051 -0.00041645 -0.0008504
-0.01911 0.0052442 0.12071 0.33685 -0.0055986 0.014519 0.0017661 0.00015679
0.00080603 -0.0012179 0.0010675 -0.00058989
0.0053156 -0.0021519 -0.0055144 0.014551 0.36246 0.001999 -0.0013336 -0.0013389
0.00015204 -0.00018881 0.00060841 -0.00030037
-0.0015561 0.0016239 0.0017374 0.00014502 -0.0013702 -0.001387 0.20245 0.17119
-0.015826 -0.0024325 -0.00030643 0.0019954
0.0018403 -0.00061097 0.00084017 -0.0012606 0.00018489 -0.00021961 -0.015836 -0.0023852
0.13819 0.19377 -0.0117 -0.0018183
-0.00036265 -0.00083011 0.0010582 -0.00056751 0.00064858 -0.00027711 -0.00027297 0.0020667
-0.011656 -0.0018207 0.17776 0.27912
1520000000 0.2917 0.10371 -0.013449 0.010207 0.0028103 -0.0041372 8.0299e-05 0.0025596
0.0018251 -0.0016408 -0.0010587 -5.1879e-05
-0.013474 0.010172 0.15397 0.32145 0.0014995 0.01242 0.0016849 -0.00090758
2.2028e-05 -0.0010805 0.00027141 -0.00093429
0.0028382 -0.0041123 0.0015165 0.012437 0.35495 -0.054435 -0.0013166 -0.00036616
0.00053485 -0.00088503 -4.4919e-05 -0.00013218
9.795e-05 0.0025471 0.001693 -0.00089536 -0.0013125 -0.00034004 0.22346 0.13288
-0.014918 0.0031917 0.0018552 0.0017517
0.0018078 -0.0016351 3.6887e-05 -0.0010502 0.00051594 -0.00088285 -0.014906 0.0032172
0.16565 0.17804 -0.011268 0.0023893
-0.0011401 -7.4281e-05 0.00025423 -0.00095672 -3.8698e-05 -0.00012444 0.0018554 0.0017672
-0.011254 0.0024068 0.20945 0.25557
1580000000 0.29966 0.05722 -0.0072045 0.012764 -0.0011348 -0.0044933 0.001464 0.0018454
-0.00019519 -0.0020186 -0.00025983 0.00039378
-0.0072359 0.012734 0.18071 0.29604 0.0048363 0.0078455 0.00040458 -0.0017111
-0.00054197 -0.0010215 -0.00023441 -0.00080353
-0.0011443 -0.0044668 0.0048572 0.0078633 0.33392 -0.11212 -0.0017114 0.00090248
-0.00032535 -0.0010403 0.0001737 -0.00053204
0.0014769 0.001806 0.00041225 -0.0017529 -0.0017073 0.00089614 0.23503 0.093462
-0.01161 0.0079182 0.002339 0.00022987
-0.00015006 -0.0020942 -0.00055364 -0.0010521 -0.00032567 -0.0010494 -0.01163 0.0079066
0.18858 0.15801 -0.008711 0.0074348
-0.00038747 0.00041287 -0.00021985 -0.00082373 0.00016924 -0.00051617 0.0023767 0.00024193
-0.0087113 0.0074275 0.23883 0.22668
1640000000 0.30046 0.015713 -0.0010915 0.011511 -0.0026575 -0.0023118 0.0027046 0.00095068
-0.00078296 -0.001437 -0.00024048 0.00055384
-0.001087 0.011472 0.2098 0.27048 0.0054592 0.0035394 -0.00088573 -0.0016649
-0.0010736 -0.00035976 -0.00056518 -0.00055403
-0.0026412 -0.0022813 0.0054484 0.0035455 0.30433 -0.16072 -0.00058701 0.0015865
-0.0011834 -0.00078752 -0.00017679 -0.00021038
0.002654 0.00097097 -0.00089204 -0.0016581 -0.00064011 0.0015377 0.24522 0.045767
-0.0074029 0.0095139 0.0023023 -0.0011816
-0.00081138 -0.0013912 -0.0010975 -0.00035085 -0.0011446 -0.00079306 -0.0073726 0.0095385
0.20981 0.13229 -0.0042336 0.0091329
-0.00023563 0.00055514 -0.00056907 -0.00056638 -0.0002723 -0.00021278 0.0023093 -0.0011891
-0.0042014 0.0091561 0.26243 0.19368
1700000000 0.29203 -0.029829 0.0019865 0.0088163 -0.003258 0.00026275 0.0029167 -0.0012893
-0.001937 -0.00059901 0.00066505 0.00039859
0.0020022 0.0088081 0.22748 0.23848 0.0037563 0.00080175 -0.0015059 -0.00042078
-0.00080689 0.00019093 -0.00085664 -0.00035004
-0.0032498 0.00027622 0.0037464 0.00074128 0.26114 -0.20037 0.00071015 0.0015173
-0.0018003 -0.00014136 -0.00056703 -0.00078361
0.0028651 -0.0013244 -0.0015342 -0.00044101 0.00073991 0.001527 0.24082 -0.0027457
-0.0042563 0.010253 0.001222 -0.0022637
-0.0019697 -0.00058733 -0.00080747 0.00016053 -0.0018066 -6.2047e-05 -0.0042504 0.01026
0.2257 0.11056 0.00020427 0.0094213
0.00065072 0.00052189 -0.00086637 -0.00031459 -0.00052934 -0.00076652 0.001204 -0.0022577
0.00016907 0.0094516 0.2766 0.15794
1760000000 0.27851 -0.078361 0.0040237 0.0057058 -0.0020833 0.00079665 0.0010477 -0.0034351
-0.0013692 0.00072727 0.00048423 -0.00045156
0.0040401 0.0057052 0.25268 0.19783 0.0017184 -0.0010935 -0.0011725 0.00033366
-0.00094591 0.00093681 -0.0005551 0.00050646
-0.0020671 0.00080286 0.0017422 -0.0011074 0.2118 -0.23386 0.0014032 0.0008535
-0.0011086 0.0015809 -0.0012653 -0.00026359
0.0010805 -0.0034279 -0.0011433 0.00039583 0.0013503 0.00083267 0.23066 -0.052221
-0.00066767 0.0095462 -0.00054212 -0.0023759
-0.001367 0.00067141 -0.00095848 0.00098403 -0.0011306 0.0016026 -0.00064227 0.0095096
0.23855 0.074271 0.0037304 0.0067665
0.00050668 -0.00044179 -0.00053816 0.00048801 -0.0012874 -0.00024254 -0.00051064 -0.0024058
0.0037057 0.0067921 0.28682 0.11925
1820000000 0.2524 -0.11511 0.0041178 0.0023879 -3.0098e-05 0.0023766 -0.0011348 -0.0028868
-0.0010016 0.0010645 1.0491e-05 -9.7721e-05
0.004112 0.0023648 0.26184 0.16762 -0.00017033 -4.334e-05 -0.0011067 0.0010339
6.7394e-05 0.0013045 -0.00043696 0.0005758
-4.1011e-05 0.0022932 -0.00012752 3.353e-05 0.16107 -0.24884 0.0013537 1.5747e-05
-5.5294e-05 0.002128 -0.0012944 0.00048697
-0.0011354 -0.0028918 -0.0011506 0.0010214 0.0013371 -6.5474e-05 0.20096 -0.097288
0.0013091 0.0077291 -0.0016322 -0.0012331
-0.0009652 0.0010864 3.7615e-05 0.0013082 -2.8145e-05 0.0021004 0.0013311 0.0077715
0.25387 0.044343 0.0046443 0.0034903
-7.3395e-06 -0.00014919 -0.0004179 0.0005531 -0.0012337 0.0004815 -0.0016531 -0.0012161
0.0046216 0.0034893 0.28681 0.082064
1880000000 0.21576 -0.15473 0.001855 0.0002222 -0.00040896 0.001906 -0.0029147 -0.0018701
-0.00010439 0.0016489 0.00026373 -0.00050903
0.001887 0.00025789 0.26548 0.12057 -0.0022109 0.0015743 2.5588e-05 0.0016024
0.00070894 0.0010636 0.00024672 0.00089961
-0.00037786 0.0018935 -0.0022781 0.0016188 0.10807 -0.2586 0.0014852 -0.0010751
0.0016363 0.001704 -0.00069477 0.0013391
-0.0029334 -0.0019236 2.9976e-05 0.0016452 0.0014818 -0.0010555 0.16134 -0.13659
0.0022742 0.0053603 -0.0021457 0.00053944
-9.4539e-05 0.0016606 0.00069237 0.0011097 0.0016652 0.001718 0.0022574 0.0053221
0.25467 0.010454 0.0044377 0.0014828
0.00024303 -0.000485 0.00024053 0.00089429 -0.00073571 0.0013825 -0.002094 0.0004334
0.0044108 0.0015454 0.28434 0.04762
1940000000 0.17559 -0.17938 -0.00032375 -0.0012016 0.0013705 0.0018156 -0.0035449 0.00068735
0.0014988 0.0010552 -0.00058995 -0.00062402
-0.00030352 -0.0011647 0.26483 0.088973 -0.0011038 0.0038654 0.0010416 0.0010676
0.001774 0.00032877 0.00088004 0.00031853
0.0012957 0.001831 -0.0010688 0.0038461 0.061615 -0.25108 0.00012401 -0.0017073
0.002321 0.00029077 0.00044047 0.001575
-0.0035703 0.00073593 0.00098735 0.00105 0.00011082 -0.0017256 0.1099 -0.16634
0.0015365 0.0036121 -0.001312 0.001556
0.0014863 0.0011009 0.0017476 0.00031675 0.0022956 0.00026247 0.00158 0.0036153
0.25423 -0.029049 0.0033624 -0.001364
-0.00055261 -0.00073884 0.00074824 0.00034815 0.00035957 0.0016105 -0.0013055 0.0015568
0.0033823 -0.0013603 0.27151 0.011329
2000000000 0.12901 -0.19332 -0.004024 0.0009107 0.0025062 0.0014818 -0.0022064 0.0034116
0.0012026 -4.3027e-06 -0.00058884 0.00038431
-0.0039626 0.00097656 0.25015 0.053484 -0.00084539 0.0057274 0.0014696 0.0001289
0.0011877 -0.0013297 0.00039444 -1.8442e-05
0.0025593 0.0014584 -0.00079784 0.0057501 0.018253 -0.2361 -0.0010878 -0.0009439
0.0017233 -0.0012002 0.0017058 0.0010752
-0.0021368 0.0033833 0.0014893 0.00011531 -0.0011087 -0.0009423 0.057497 -0.17679
-0.00017756 0.0029032 0.0001012 0.002027
0.0011792 1.1722e-05 0.0012907 -0.0014093 0.001644 -0.0011463 -0.00015256 0.0029015
0.24615 -0.063412 0.00055076 -0.0023831
