!Keysight Technologies,M9804A,MY58100912,A.14.10.03
!Date: Thursday, April 27, 2023 10:28:33
!Correction: S11(C  6-Port  ) 
!S12(C  6-Port  ) 
!S13(C  6-Port  ) 
!S14(C  6-Port  ) 
!S15(C  6-Port  ) 
!S16(C  6-Port  ) 
!S21(C  6-Port  ) 
!S22(C  6-Port  ) 
!S23(C  6-Port  ) 
!S24(C  6-Port  ) 
!S25(C  6-Port  ) 
!S26(C  6-Port  ) 
!S31(C  6-Port  ) 
!S32(C  6-Port  ) 
!S33(C  6-Port  ) 
!S34(C  6-Port  ) 
!S35(C  6-Port  ) 
!S36(C  6-Port  ) 
!S41(C  6-Port  ) 
!S42(C  6-Port  ) 
!S43(C  6-Port  ) 
!S44(C  6-Port  ) 
!S45(C  6-Port  ) 
!S46(C  6-Port  ) 
!S51(C  6-Port  ) 
!S52(C  6-Port  ) 
!S53(C  6-Port  ) 
!S54(C  6-Port  ) 
!S55(C  6-Port  ) 
!S56(C  6-Port  ) 
!S61(C  6-Port  ) 
!S62(C  6-Port  ) 
!S63(C  6-Port  ) 
!S64(C  6-Port  ) 
!S65(C  6-Port  ) 
!S66(C  6-Port  ) 
!S6P File: Measurement: :
# Hz S  RI   R 50
500000000 -0.33897 -0.018335 -0.01045 -0.003344 -0.007222 0.012009 -0.0031204 0.012165
0.011407 0.0037402 -0.0021681 0.0083152
-0.010465 -0.003331 -0.41921 -0.036539 0.0065273 -0.011813 0.0021273 0.012541
0.0069611 0.0020736 0.0029804 0.013734
-0.0072232 0.012026 0.006504 -0.011845 -0.26225 0.22202 0.0076373 0.0035943
-0.00069147 0.0083646 0.0032311 0.011844
-0.0031058 0.012189 0.0021361 0.012548 0.0076177 0.0035951 -0.32971 0.062526
-0.019223 -0.0063752 0.016142 0.024099
0.011464 0.003778 0.0069603 0.0020808 -0.00071574 0.008366 -0.019213 -0.0063465
-0.23595 -0.1643 -0.025184 0.0049105
-0.0021991 0.0083583 0.003008 0.013732 0.003215 0.011834 0.016132 0.024081
-0.025167 0.0048979 -0.28292 -0.077826
560000000 -0.31165 0.137 -0.026662 -0.061026 0.0010352 0.011286 0.005836 0.0093766
0.0091513 0.0040454 0.010517 0.0062838
-0.026576 -0.060936 -0.37501 0.11794 -0.042163 -0.034566 0.013414 0.0030123
-0.012523 -0.0041146 0.003315 -0.00098297
0.0010476 0.011304 -0.04219 -0.034573 -0.18009 0.26658 -0.00045167 -0.0042012
0.018801 0.0033752 0.0068646 -0.00637
0.0058153 0.0094144 0.01341 0.0030118 -0.00043872 -0.0041739 -0.30439 0.14822
0.00074403 -0.02436 0.0030469 -0.018701
0.0091788 0.004002 -0.012543 -0.0040032 0.018759 0.0033491 0.00069031 -0.024347
-0.28616 0.0084497 0.0034335 -0.046488
0.010543 0.0062878 0.0032727 -0.0009566 0.0068595 -0.0063556 0.0030291 -0.018716
0.0034735 -0.046477 -0.32978 0.058741
620000000 -0.27038 0.12267 -0.023313 0.0068832 0.0039238 0.0078394 0.0078771 -0.0052236
0.010132 -0.0016614 0.0011044 -0.0028253
-0.023311 0.0068943 -0.40125 0.073421 -0.01965 0.00033243 -0.0010087 -0.0023018
0.010026 -0.006407 0.0015753 -0.0027605
0.0039189 0.0078342 -0.019663 0.00036691 -0.14943 0.27645 -0.0011663 -0.0048579
-0.003636 -0.0024964 0.0080094 -0.0036466
0.0078596 -0.0052532 -0.0010085 -0.0023053 -0.0011696 -0.0048384 -0.26222 0.16023
-0.039203 -0.018004 0.012007 0.022429
0.010102 -0.0016522 0.010017 -0.0064185 -0.0036468 -0.0024935 -0.039242 -0.017985
-0.20947 -0.02819 -0.037791 0.015065
0.0011324 -0.0027944 0.00157 -0.002751 0.0079968 -0.0036351 0.011993 0.022416
-0.037776 0.015052 -0.25516 0.030816
680000000 -0.22718 0.20419 -0.027914 -0.012192 0.0053583 0.0045581 0.0010285 -0.0072876
-0.0030066 -0.011092 0.0039331 -0.0066697
-0.027906 -0.012202 -0.38441 0.16741 -0.032303 0.00044994 -0.0015351 -0.00052015
-0.0024679 -0.0087041 -0.0014375 -0.0021348
0.0053567 0.0045462 -0.032328 0.00049661 -0.098621 0.29422 -0.00080389 -0.00039079
-0.0017257 0.00014406 -0.0035639 -0.0086048
0.0010207 -0.0072726 -0.0015333 -0.00051584 -0.00080534 -0.00038644 -0.21696 0.20667
-0.025512 -0.0054422 -0.0089832 -0.008308
-0.0030544 -0.011076 -0.0024751 -0.0087103 -0.0017301 0.00013583 -0.025532 -0.0054203
-0.24902 0.067017 -0.0072364 -0.0071409
0.003926 -0.0066756 -0.0014281 -0.0021394 -0.0035658 -0.0086186 -0.0089895 -0.0083291
-0.0072471 -0.007159 -0.25376 0.12599
740000000 -0.18429 0.19899 -0.03676 0.026138 0.011713 -0.0057297 -0.00089224 -0.0040227
-0.0051262 -0.002446 -0.0060726 0.0033439
-0.036726 0.026124 -0.33279 0.18729 -0.032922 0.034766 -0.00090637 -0.0060233
-0.011046 0.0077251 -0.0019821 -0.0047937
0.011709 -0.0057189 -0.032871 0.034831 -0.064827 0.29406 -0.0017214 0.0030449
-0.0033219 -0.0043128 -0.0020431 0.0012566
-0.00087015 -0.0040068 -0.00092816 -0.0060396 -0.0017184 0.0030384 -0.19902 0.21594
-0.041695 -0.0033679 0.021674 0.012185
-0.0051628 -0.0024089 -0.011028 0.0077722 -0.0033312 -0.0043119 -0.041708 -0.0033303
-0.15873 0.087929 -0.038534 0.0034664
-0.0060391 0.0033404 -0.00197 -0.0047784 -0.0020486 0.0012594 0.021688 0.012173
-0.038554 0.0034359 -0.24113 0.13555
800000000 -0.15051 0.23602 -0.021577 0.017498 0.0043494 -0.010374 -0.0044232 -0.001609
-0.0038496 0.0027736 0.0038108 0.00068563
-0.021549 0.017493 -0.33282 0.25549 -0.0066743 0.033502 -0.0022774 0.0022994
-0.00058079 0.0032319 0.0010825 0.0052954
0.0043404 -0.010364 -0.0066136 0.033523 -0.021939 0.31582 0.00087494 0.0015728
0.00037108 0.0035471 -0.0018577 0.0012219
-0.0044338 -0.00162 -0.0022594 0.0023136 0.00088479 0.0015695 -0.1688 0.24219
-0.026813 0.016075 0.012296 -0.0099469
-0.0038533 0.0028181 -0.0005787 0.003229 0.00036523 0.0035508 -0.026821 0.016139
-0.19428 0.11518 -0.015862 0.018705
0.0038231 0.00069046 0.0010921 0.0053048 -0.001858 0.0012222 0.012279 -0.0099652
-0.015873 0.018696 -0.22847 0.181
860000000 -0.11583 0.25627 -0.01597 0.031081 -0.0039207 -0.0093172 -0.0021283 0.0014167
0.0044906 0.0049608 -0.002575 -0.0024935
-0.015975 0.031039 -0.28544 0.29656 0.0091978 0.033026 0.00033411 0.0022627
0.004632 0.00047278 0.0031119 0.00076219
-0.0039248 -0.0092952 0.0092628 0.033012 0.026568 0.32267 -0.00035522 4.0623e-05
0.0025055 -0.00116 0.0016845 0.0040896
-0.0021357 0.0014266 0.00033418 0.002259 -0.00035651 4.3426e-05 -0.132 0.25292
-0.01522 0.020847 -0.0056831 -0.0088087
0.0044749 0.0049421 0.0046344 0.00045067 0.0025141 -0.0011599 -0.015192 0.020897
-0.14258 0.16075 -0.021666 0.016581
-0.0025643 -0.0024714 0.0031185 0.00074941 0.0016908 0.0040858 -0.005677 -0.0087999
-0.021656 0.016533 -0.1798 0.22084
920000000 -0.088863 0.27833 0.0063416 0.036931 -0.0090772 -0.0035853 -0.0012982 0.00197
0.0019472 0.0016591 0.002755 -0.0019643
0.0063051 0.036913 -0.25482 0.31704 0.028133 0.020155 0.0017166 0.00093795
0.0070492 -0.00056815 0.0034598 -0.0030885
-0.0090846 -0.0035585 0.028189 0.020083 0.074204 0.32248 0.0019704 -0.00012887
0.0016882 -0.00060767 0.00087484 -0.0011654
-0.0012893 0.0019842 0.0017425 0.00093003 0.0019662 -0.0001222 -0.1059 0.26881
-0.0072445 0.030474 0.0021696 -0.0061241
0.0019515 0.0016559 0.0070788 -0.00058119 0.0016945 -0.00060972 -0.0071859 0.030511
-0.1276 0.16599 -0.00064282 0.025195
0.0027606 -0.0019854 0.0034733 -0.0031085 0.00088323 -0.0011564 0.0021624 -0.0061242
-0.00065595 0.025187 -0.17864 0.23612
980000000 -0.041644 0.29577 0.018724 0.028448 -0.0081901 0.0047446 0.0022146 0.0029746
0.0039534 -0.0021287 -0.0032995 -0.0020099
0.018684 0.028431 -0.20277 0.34918 0.032263 0.003116 0.002054 -0.00038974
0.0014475 -0.0062554 -0.00073141 -0.0022802
-0.0081841 0.0047589 0.032294 0.0030252 0.12079 0.31414 0.00051835 -0.0013527
6.8943e-05 -0.0022495 0.0013636 -0.00020156
0.0022135 0.0029663 0.002074 -0.0003748 0.00051969 -0.001351 -0.066863 0.27801
0.010483 0.027887 -0.0085181 -0.005807
0.0039492 -0.0021588 0.0014356 -0.0062523 6.3503e-05 -0.0022521 0.010552 0.027882
-0.097073 0.1903 0.0062544 0.018681
-0.0032979 -0.0020158 -0.00073213 -0.0022919 0.0013602 -0.00019828 -0.0085348 -0.0058051
0.0062459 0.018674 -0.13374 0.27379
1040000000 0.001468 0.30306 0.032893 0.015735 -0.00097267 0.006566 0.0024666 0.00048851
-9.5312e-05 -0.0033015 -0.00071395 -0.0014599
0.032854 0.01575 -0.16674 0.36215 0.027461 -0.015553 0.0012622 -0.0018079
-0.0024032 -0.0025483 -0.0014546 -0.0027927
-0.0009534 0.0065791 0.027423 -0.015655 0.16727 0.29937 -0.00064799 -0.0014827
-0.001577 -0.00089744 -0.00036987 -0.0011836
0.0024467 0.00049077 0.0012763 -0.001816 -0.00064823 -0.0014842 -0.038019 0.28719
0.020584 0.015363 -0.0027323 0.0013107
-9.1405e-05 -0.0033308 -0.0024103 -0.002513 -0.0015874 -0.00089863 0.020634 0.015342
-0.064981 0.19647 0.013766 0.015576
-0.00071866 -0.0014456 -0.0014824 -0.0028109 -0.00037224 -0.0011844 -0.0027271 0.0013117
0.01376 0.015581 -0.10841 0.29281
1100000000 0.047218 0.30892 0.034325 -0.0057847 0.0028077 0.0035627 0.002214 -0.0011441
-0.0022188 -0.0027488 -0.0034306 0.00045697
0.034304 -0.005753 -0.12305 0.37811 0.013325 -0.027323 -0.00014813 -0.0017741
-0.0033622 -0.00046816 -0.0032331 -0.0001892
0.0028197 0.0035614 0.013259 -0.027379 0.21389 0.277 -0.001791 0.0002107
-0.0017615 0.00064769 -0.00092059 -0.00026982
0.0022056 -0.0011467 -0.00014293 -0.0017791 -0.0017833 0.0002058 0.0035885 0.28971
0.023995 0.0023845 -0.0023789 0.00031981
-0.0022256 -0.0027501 -0.0033651 -0.00043616 -0.0017605 0.00065144 0.024017 0.0023523
-0.046101 0.20793 0.018125 0.0063612
-0.0034341 0.00046794 -0.0032353 -0.00018691 -0.00091761 -0.00027233 -0.0023773 0.00032862
0.018123 0.0063639 -0.061421 0.31637
1160000000 0.098111 0.30258 0.021958 -0.021314 0.0023819 -0.00039483 -8.5046e-05 -0.0021356
-0.0039127 -0.0004288 -0.00060263 0.0036742
0.02196 -0.021276 -0.078783 0.38152 -0.0048915 -0.02769 -0.0016312 -0.001501
-0.0024804 0.0022926 -0.0013127 0.0017736
0.0023789 -0.00039824 -0.0049793 -0.027701 0.25606 0.2446 -0.00078657 0.0017083
-0.00059173 0.0018425 -0.00084313 0.00019128
-8.6387e-05 -0.0021408 -0.0016144 -0.001503 -0.00079034 0.0017059 0.043097 0.2847
0.019623 -0.012193 -0.0029044 0.0043898
-0.0039016 -0.00043062 -0.0024753 0.0023253 -0.00058669 0.0018375 0.019634 -0.012213
-0.012268 0.21526 0.016628 -0.0019993
-0.00059469 0.0036759 -0.0013048 0.0017678 -0.00084693 0.00018808 -0.0028995 0.0043941
0.016627 -0.0019874 -0.014782 0.31666
1220000000 0.14291 0.28926 0.008371 -0.029279 -0.0015281 -0.00046936 8.4531e-05 -0.00092186
-0.0023446 0.0023496 0.0013207 0.0018528
0.0083905 -0.029248 -0.034559 0.3921 -0.016966 -0.019486 -0.0023975 0.00046141
0.00019287 0.0027784 -0.00049314 0.0018793
-0.0015215 -0.00047496 -0.017029 -0.019443 0.29477 0.20442 0.00076757 0.0018129
0.00061745 0.0012054 0.00027066 0.00048556
7.8024e-05 -0.00091804 -0.0023923 0.00047395 0.0007606 0.0018119 0.083488 0.27359
0.0087316 -0.017975 0.0016556 0.0014332
-0.0023225 0.0023571 0.00019485 0.0027855 0.00062976 0.0012047 0.0087197 -0.017993
0.011732 0.22203 0.011662 -0.01321
0.0013242 0.0018545 -0.0004791 0.0018737 0.00027127 0.00048495 0.0016549 0.0014296
0.011645 -0.013201 0.018979 0.32803
1280000000 0.19146 0.26537 -0.0089581 -0.026845 -0.0014757 0.0026758 -0.00099552 -0.0019243
-0.00057942 0.002868 0.0022869 0.00086333
-0.008917 -0.026832 0.010946 0.38213 -0.022915 -0.007343 -0.00096548 0.0013738
0.0016385 0.0016324 0.00070708 0.0017246
-0.0014765 0.0026725 -0.022944 -0.0072803 0.32425 0.15929 0.0015756 -1.4458e-05
0.001063 0.00021953 0.00021291 0.00023949
-0.00099663 -0.0019174 -0.0009627 0.0013791 0.0015821 -6.6117e-06 0.11914 0.25444
-0.00070578 -0.019074 -0.00031607 0.00036963
-0.00056119 0.002877 0.0016525 0.0016106 0.0010672 0.00021687 -0.00074296 -0.019083
0.047987 0.22335 0.0014067 -0.014696
0.0022918 0.00086159 0.00070965 0.0017163 0.00021897 0.00023894 -0.00031643 0.00036936
0.0014077 -0.014692 0.064689 0.32535
1340000000 0.22775 0.23027 -0.017722 -0.01714 0.0012728 0.0041609 -0.0016809 -0.00084909
0.00148 0.0024472 0.0014327 -0.0014402
-0.017685 -0.017128 0.050242 0.37297 -0.020402 0.0047637 -0.00013109 0.0020017
0.0018493 0.00067093 0.0012973 0.00067609
0.0012773 0.00415 -0.020394 0.0048406 0.3453 0.11105 0.0012371 -0.00097992
0.0006668 -0.00050181 8.3072e-05 0.00024738
-0.0016729 -0.00083605 -0.00013097 0.00201 0.00123 -0.00097688 0.15036 0.23235
-0.0097565 -0.015712 0.00061662 0.00097982
0.0014953 0.0024407 0.0018589 0.00066088 0.00067342 -0.00049524 -0.0097976 -0.015705
0.077617 0.2169 -0.0050503 -0.012585
0.0014225 -0.0014355 0.0013092 0.00066652 8.5207e-05 0.00024498 0.00061789 0.00097726
-0.0050497 -0.012583 0.10346 0.31703
1400000000 0.25943 0.19072 -0.022404 -0.0060472 0.0051118 0.0025505 -0.0020571 0.00058865
0.0023076 0.0006606 0.00014051 -0.0013313
-0.02238 -0.0060539 0.086934 0.35919 -0.013705 0.012106 0.0013147 0.0013675
0.0011407 -0.00076408 0.0010849 9.6808e-05
0.0051144 0.0025284 -0.013668 0.012168 0.35794 0.056684 0.00010579 -0.0017489
5.5674e-05 -0.00032081 0.00032016 0.00013486
-0.0020573 0.00060121 0.0013158 0.0013618 0.00011147 -0.0017499 0.17847 0.2016
-0.014959 -0.0089272 -0.00035473 0.000283
0.0022997 0.00064742 0.0011383 -0.00077196 5.6223e-05 -0.00031797 -0.014984 -0.0089105
0.10995 0.21022 -0.010544 -0.0075356
0.00012612 -0.001324 0.0010863 8.4967e-05 0.00031904 0.00013599 -0.00035738 0.00028116
-0.010539 -0.0075357 0.14593 0.30206
1460000000 0.2807 0.1462 -0.019143 0.0052074 0.0052325 -0.0022086 -0.0015291 0.0016409
0.0019163 -0.00063198 -0.00042609 -0.00083068
-0.019133 0.0051938 0.12068 0.33681 -0.005578 0.014463 0.001769 0.00016299
0.00081353 -0.0012424 0.0010589 -0.00059485
0.0052253 -0.002232 -0.0055362 0.01449 0.36246 0.00201 -0.0013906 -0.0013385
0.00013748 -0.00018932 0.00061542 -0.00026834
-0.0015153 0.0016423 0.0017617 0.00014668 -0.0013861 -0.0013427 0.20247 0.17121
-0.015824 -0.0024124 -0.0003032 0.0019672
0.0019108 -0.00063777 0.00081646 -0.0012481 0.00014127 -0.00019343 -0.015842 -0.0023762
0.13824 0.19381 -0.01169 -0.0018248
-0.00043991 -0.00084064 0.0010646 -0.00060673 0.00061748 -0.0002768 -0.00030207 0.0019617
-0.011677 -0.0018303 0.17779 0.27912
1520000000 0.29185 0.10368 -0.013443 0.010158 0.0028252 -0.0041056 6.749e-05 0.0025768
0.0018504 -0.0016379 -0.0010696 -6.2287e-05
-0.013447 0.010146 0.15392 0.32144 0.0014638 0.012397 0.0016776 -0.00089587
4.1947e-05 -0.0010755 0.00028095 -0.00093012
0.0028082 -0.0041194 0.0015217 0.012394 0.35499 -0.05454 -0.0013202 -0.00037477
0.00050816 -0.00092076 -5.6257e-05 -0.00014308
7.3941e-05 0.0025683 0.0016728 -0.00090366 -0.0013157 -0.00038479 0.22349 0.13289
-0.014909 0.0032064 0.0018468 0.0017555
0.001837 -0.0016434 3.0948e-05 -0.0010794 0.00050849 -0.00092322 -0.014914 0.0032376
0.16568 0.17802 -0.011262 0.0023974
-0.0010725 -6.6114e-05 0.00027842 -0.00093464 -5.4736e-05 -0.00013991 0.0018481 0.0017486
-0.011268 0.0023915 0.20951 0.25555
1580000000 0.29968 0.057184 -0.0072567 0.01272 -0.0011676 -0.0044817 0.0014534 0.0018321
-0.00018965 -0.0020413 -0.00026171 0.00038476
-0.0072563 0.012706 0.18069 0.29601 0.0047989 0.0078035 0.00040677 -0.001728
-0.000544 -0.0010357 -0.00024217 -0.00079762
-0.0011784 -0.0044705 0.0048293 0.0077921 0.33392 -0.11224 -0.0016891 0.00086404
-0.0002917 -0.0010464 0.0001799 -0.00053979
0.0014634 0.0018236 0.00039685 -0.0017288 -0.0016869 0.00086083 0.23502 0.093483
-0.011597 0.0079301 0.0023172 0.0002299
-0.00020023 -0.0020394 -0.00055525 -0.0010354 -0.00029534 -0.0010494 -0.011595 0.0079603
0.18862 0.158 -0.008738 0.0074149
-0.00025851 0.00038664 -0.00025063 -0.0008058 0.00017694 -0.0005406 0.0023131 0.00022024
-0.0087384 0.0074069 0.23887 0.22665
1640000000 0.30043 0.015686 -0.00112 0.011482 -0.0026773 -0.0022716 0.0026961 0.00094842
-0.00079714 -0.0014626 -0.0002263 0.00054056
-0.0011382 0.011473 0.20977 0.27044 0.0054301 0.0035228 -0.00088985 -0.0016702
-0.0010868 -0.00037341 -0.00055336 -0.00053784
-0.0026775 -0.0022632 0.005446 0.0035081 0.30434 -0.16069 -0.00062123 0.0015875
-0.0012103 -0.00076732 -0.00023378 -0.00020079
0.0027035 0.00094245 -0.00089627 -0.0016579 -0.00061193 0.0015931 0.24523 0.045765
-0.0073756 0.0095169 0.0023118 -0.0011754
-0.00080604 -0.0014566 -0.0010936 -0.00036373 -0.001214 -0.00076291 -0.0073717 0.0095376
0.20983 0.13229 -0.0042304 0.0091338
-0.00022151 0.00054747 -0.00055845 -0.00053576 -0.00023389 -0.00019859 0.0023148 -0.0011808
-0.0042303 0.0091354 0.26249 0.19367
1700000000 0.29201 -0.029864 0.0019595 0.0088235 -0.003254 0.00023459 0.002964 -0.0012948
-0.0019209 -0.00060366 0.0006604 0.00039638
0.0019538 0.0088189 0.22744 0.23848 0.0037239 0.00079967 -0.0015077 -0.00042589
-0.00080717 0.00020044 -0.00086426 -0.00035168
-0.0032514 0.00024806 0.0037382 0.0007802 0.26112 -0.20038 0.00069346 0.0015213
-0.0018062 -0.00014179 -0.00055547 -0.00078132
0.002961 -0.0013005 -0.0015158 -0.00041915 0.00069503 0.001518 0.24082 -0.0027752
-0.0042484 0.010244 0.001226 -0.0022441
-0.0019299 -0.00059695 -0.00080651 0.00020261 -0.0018104 -0.00013781 -0.0042372 0.010262
0.22574 0.11055 0.00019519 0.0094363
0.0006643 0.00039776 -0.00086659 -0.00034604 -0.00056617 -0.00078157 0.0012277 -0.0022532
0.00019256 0.0094304 0.27665 0.15788
1760000000 0.27841 -0.078364 0.0040168 0.0057317 -0.0020272 0.0008873 0.001056 -0.0034244
-0.0013635 0.00072394 0.00047866 -0.0004547
0.0040117 0.0057326 0.25261 0.19782 0.0016893 -0.0010826 -0.0011802 0.00033613
-0.00095597 0.00094031 -0.00056321 0.00049953
-0.0020209 0.00089129 0.0016944 -0.0010949 0.21182 -0.23391 0.0013757 0.00087719
-0.001164 0.0015914 -0.0012761 -0.00030132
0.0010356 -0.0034267 -0.001175 0.00033352 0.001382 0.00087362 0.23069 -0.052219
-0.00065416 0.0095331 -0.00055173 -0.0023899
-0.0013567 0.00072276 -0.00095197 0.00094743 -0.0011659 0.0015878 -0.00063633 0.0095356
0.23858 0.074258 0.0036942 0.0067439
0.00048409 -0.00045707 -0.00055852 0.00050533 -0.0012805 -0.00029014 -0.00055204 -0.0023764
0.0036979 0.0067503 0.28685 0.11916
1820000000 0.25238 -0.11515 0.0040931 0.0023824 1.0276e-05 0.0023477 -0.0011749 -0.0028609
-0.001014 0.0010639 3.9693e-05 -8.1401e-05
0.0040903 0.0023848 0.26177 0.16759 -0.00012446 2.6621e-06 -0.001105 0.0010461
6.2614e-05 0.0013053 -0.0004505 0.00056778
1.1829e-05 0.0023548 -0.00012296 8.29e-07 0.16107 -0.24869 0.0013027 3.9069e-05
-4.7223e-05 0.0021107 -0.0012946 0.00046342
-0.0011819 -0.0028524 -0.0011005 0.0010539 0.0013013 3.7661e-05 0.20091 -0.097278
0.0012885 0.007718 -0.0016365 -0.001278
-0.00099627 0.0010681 6.8933e-05 0.0013142 -4.3081e-05 0.002122 0.0013081 0.0077306
0.25385 0.044275 0.0046682 0.0034711
3.6617e-05 -8.4487e-05 -0.00044679 0.00057349 -0.0012954 0.00046454 -0.0016477 -0.0012695
0.00467 0.0034645 0.28683 0.082036
1880000000 0.21576 -0.15481 0.001867 0.00027605 -0.0003763 0.0018813 -0.0029185 -0.0019319
-0.00012287 0.001666 0.00025039 -0.00050683
0.0018701 0.00026313 0.2654 0.12056 -0.0022669 0.0016126 2.1139e-05 0.0016013
0.00071798 0.001074 0.0002445 0.00089725
-0.00036956 0.001879 -0.0022559 0.0016179 0.10803 -0.25874 0.0014485 -0.0010261
0.0016054 0.0017079 -0.00071566 0.0013576
-0.0029295 -0.0019173 3.4019e-05 0.0016043 0.0014506 -0.0010369 0.16136 -0.13664
0.0022441 0.0053409 -0.0021586 0.00049667
-0.00011005 0.0016734 0.00072905 0.0010649 0.001613 0.0017115 0.0022516 0.0053404
0.25461 0.010421 0.0044255 0.0014821
0.00024267 -0.00050998 0.00025178 0.00089595 -0.00072193 0.0013569 -0.0021541 0.000507
0.0044231 0.0014816 0.28433 0.047583
1940000000 0.1755 -0.1795 -0.00028821 -0.0011606 0.001386 0.0018001 -0.0035547 0.0007067
0.0015213 0.0010547 -0.00055341 -0.0006227
-0.00028473 -0.0011554 0.26475 0.089021 -0.0010693 0.0039119 0.0010326 0.0010508
0.0017647 0.00033937 0.00088391 0.00033316
0.0013925 0.0017871 -0.0010507 0.0039164 0.061747 -0.25103 0.0001206 -0.001722
0.0023223 0.00026039 0.00038633 0.0015778
-0.0035529 0.00071812 0.0010403 0.0010502 0.00012439 -0.0017213 0.1099 -0.16634
0.0015229 0.0035869 -0.0013279 0.0015482
0.0015272 0.00104 0.0017728 0.00032193 0.0023345 0.00025716 0.001534 0.0035864
0.25422 -0.029096 0.0033563 -0.0013603
-0.00055777 -0.00062383 0.00089364 0.0003276 0.00039527 0.0015834 -0.0013119 0.0015508
0.0033538 -0.001356 0.27149 0.011256
2000000000 0.12893 -0.19333 -0.0039718 0.00096311 0.002462 0.0014687 -0.0021843 0.0033687
0.00122 -5.8633e-05 -0.00061373 0.00038114
-0.0039746 0.00095281 0.25007 0.053562 -0.00082209 0.0057202 0.0014836 0.00013737
0.0012085 -0.0013228 0.00037995 -2.4506e-05
0.0024505 0.0014611 -0.00079198 0.0057239 0.018389 -0.23616 -0.0010819 -0.0009709
0.0017568 -0.0011158 0.0017038 0.0010818
-0.0021763 0.0033695 0.001486 0.0001246 -0.0010872 -0.00096135 0.057532 -0.17675
-0.00020302 0.0028904 0.00010201 0.0020659
0.0012175 -7.1576e-05 0.001208 -0.0013325 0.001756 -0.0011134 -0.00020347 0.0028922
0.24607 -0.063493 0.00054006 -0.0024138
