!Keysight Technologies,M9804A,MY58100912,A.14.10.03
!Date: Thursday, April 27, 2023 10:28:33
!Correction: S11(C  6-Port  ) 
!S12(C  6-Port  ) 
!S13(C  6-Port  ) 
!S14(C  6-Port  ) 
!S15(C  6-Port  ) 
!S16(C  6-Port  ) 
!S21(C  6-Port  ) 
!S22(C  6-Port  ) 
!S23(C  6-Port  ) 
!S24(C  6-Port  ) 
!S25(C  6-Port  ) 
!S26(C  6-Port  ) 
!S31(C  6-Port  ) 
!S32(C  6-Port  ) 
!S33(C  6-Port  ) 
!S34(C  6-Port  ) 
!S35(C  6-Port  ) 
!S36(C  6-Port  ) 
!S41(C  6-Port  ) 
!S42(C  6-Port  ) 
!S43(C  6-Port  ) 
!S44(C  6-Port  ) 
!S45(C  6-Port  ) 
!S46(C  6-Port  ) 
!S51(C  6-Port  ) 
!S52(C  6-Port  ) 
!S53(C  6-Port  ) 
!S54(C  6-Port  ) 
!S55(C  6-Port  ) 
!S56(C  6-Port  ) 
!S61(C  6-Port  ) 
!S62(C  6-Port  ) 
!S63(C  6-Port  ) 
!S64(C  6-Port  ) 
!S65(C  6-Port  ) 
!S66(C  6-Port  ) 
!S6P File: Measurement: :
# Hz S  RI   R 50
500000000 -0.33914 -0.018513 -0.010326 -0.0032592 -0.0070604 0.012175 -0.0028474 0.012285
0.011323 0.0037851 -0.0019147 0.0088325
-0.010319 -0.003243 -0.41937 -0.036281 0.0064972 -0.011785 0.001941 0.012671
0.0067308 0.0024397 0.0021941 0.013618
-0.0070471 0.012185 0.0064806 -0.011797 -0.2623 0.22216 0.0074617 0.0036401
-0.00062914 0.0085855 0.0026939 0.011892
-0.0028218 0.012277 0.0019599 0.012674 0.0074658 0.0036415 -0.33025 0.062744
-0.019346 -0.0064613 0.015152 0.023826
0.011323 0.0037892 0.0067536 0.0024278 -0.00061974 0.0085782 -0.019344 -0.0064505
-0.23567 -0.16504 -0.025317 0.0044066
-0.0018991 0.0088417 0.0022191 0.013618 0.0027049 0.011896 0.015153 0.023825
-0.025347 0.004373 -0.28417 -0.0792
560000000 -0.31158 0.13703 -0.026811 -0.060453 0.00086594 0.011038 0.0054746 0.0096848
0.0091837 0.0038729 0.010585 0.0063576
-0.026762 -0.060407 -0.37514 0.11714 -0.04182 -0.034219 0.013866 0.0033516
-0.012258 -0.0036268 0.0032345 -0.0008303
0.00089973 0.011058 -0.041858 -0.034196 -0.18044 0.26658 -0.00052925 -0.0046146
0.018421 0.0035735 0.0069378 -0.0062661
0.005478 0.0096932 0.013871 0.00333 -0.00053382 -0.0046098 -0.30404 0.14774
0.0008616 -0.024554 0.0031885 -0.018183
0.0092088 0.0038949 -0.01224 -0.0036359 0.018432 0.0035837 0.00083402 -0.024563
-0.28678 0.0085146 0.0032017 -0.046764
0.010575 0.0063611 0.0032126 -0.00084575 0.0069313 -0.006272 0.0031845 -0.018192
0.003191 -0.046802 -0.32969 0.0595
620000000 -0.26986 0.12265 -0.023287 0.006825 0.0036497 0.0076241 0.0081013 -0.0055039
0.010076 -0.00128 0.00067802 -0.0020891
-0.023265 0.0068495 -0.4011 0.073339 -0.019565 0.00019758 -0.00098444 -0.0022769
0.0098159 -0.0064552 0.0014457 -0.0030587
0.0036747 0.0076442 -0.019566 0.0002378 -0.14957 0.27655 -0.001298 -0.0048745
-0.0032947 -0.0026632 0.0083517 -0.0040615
0.0080936 -0.0054893 -0.0010087 -0.0022804 -0.0013159 -0.0048858 -0.26216 0.15998
-0.038949 -0.01751 0.012086 0.023084
0.010058 -0.0013058 0.0098304 -0.0064797 -0.0032813 -0.002662 -0.038974 -0.01749
-0.21049 -0.028892 -0.038094 0.014466
0.00068071 -0.0020977 0.0014645 -0.0030546 0.0083673 -0.0040481 0.012095 0.023088
-0.038131 0.014459 -0.25613 0.031085
680000000 -0.22715 0.2039 -0.027844 -0.012209 0.0054012 0.0045374 0.0012614 -0.0071476
-0.0030089 -0.010996 0.0039269 -0.0067598
-0.027814 -0.012221 -0.38432 0.16733 -0.032277 0.00038595 -0.0014807 -0.00054038
-0.0024798 -0.0086712 -0.0015084 -0.0020002
0.005396 0.0045168 -0.032277 0.00043175 -0.098514 0.29424 -0.00089958 -0.000282
-0.0017363 0.00016204 -0.0036968 -0.0085164
0.0012646 -0.0071515 -0.0014914 -0.00052871 -0.00090688 -0.00027098 -0.21664 0.20687
-0.025498 -0.0055801 -0.0090289 -0.0083007
-0.0030155 -0.010996 -0.0025065 -0.008682 -0.0017426 0.00016045 -0.025521 -0.0055684
-0.24881 0.066991 -0.0070562 -0.0073077
0.0039271 -0.006777 -0.0015181 -0.0020003 -0.0036944 -0.0085243 -0.0090661 -0.0083002
-0.0070738 -0.0073111 -0.25338 0.12569
740000000 -0.1842 0.19918 -0.036882 0.025919 0.011763 -0.0057489 -0.00077611 -0.0040272
-0.0051973 -0.0027298 -0.0059935 0.003538
-0.036864 0.025876 -0.33289 0.18737 -0.032821 0.034926 -0.00092119 -0.0061879
-0.011337 0.0080129 -0.0016955 -0.0045254
0.011749 -0.0057636 -0.032764 0.035002 -0.064925 0.29413 -0.0017503 0.0030551
-0.0033317 -0.0046735 -0.0022561 0.0013547
-0.0007961 -0.0040222 -0.00093161 -0.0061849 -0.0017531 0.0030461 -0.19886 0.21598
-0.041929 -0.003651 0.02172 0.012284
-0.005193 -0.0027346 -0.011333 0.0080449 -0.0033303 -0.0046661 -0.041965 -0.0036233
-0.1576 0.08791 -0.038449 0.0032287
-0.0059569 0.0035173 -0.0017066 -0.0045656 -0.0022414 0.0013713 0.021725 0.012287
-0.03847 0.0032528 -0.24153 0.13544
800000000 -0.15054 0.23616 -0.021611 0.017469 0.0043159 -0.01035 -0.004364 -0.0016833
-0.003848 0.0030169 0.0038406 0.00085808
-0.021598 0.017444 -0.33281 0.25542 -0.0066648 0.033469 -0.00224 0.0022878
-0.0006244 0.0032847 0.0010862 0.0053525
0.0043068 -0.010358 -0.0066142 0.033495 -0.021813 0.31582 0.00090733 0.0015254
0.00031282 0.003527 -0.0018945 0.0012459
-0.0043545 -0.0016888 -0.0022421 0.0022918 0.0009066 0.0015227 -0.16881 0.24218
-0.026767 0.016083 0.012218 -0.0099921
-0.0038292 0.0030321 -0.00061718 0.0032915 0.00031245 0.0035387 -0.02677 0.016147
-0.19454 0.115 -0.015666 0.018485
0.0038443 0.00084683 0.0010928 0.0053648 -0.001894 0.0012499 0.01223 -0.01001
-0.015668 0.018496 -0.22853 0.18097
860000000 -0.11577 0.25639 -0.015958 0.031138 -0.0039624 -0.0092452 -0.0021713 0.0015197
0.0044449 0.0049658 -0.0025846 -0.0024769
-0.015966 0.031105 -0.28554 0.29677 0.0091598 0.033011 0.00035838 0.0024285
0.0047871 0.00058539 0.0032316 0.00055888
-0.0039666 -0.0092418 0.0092106 0.033002 0.02658 0.32264 -0.00030111 6.3245e-05
0.0025736 -0.0011677 0.0016506 0.0041042
-0.0021603 0.001523 0.00036637 0.0024249 -0.0003005 6.3057e-05 -0.13215 0.25304
-0.015254 0.021028 -0.0056421 -0.0089553
0.0044607 0.0049682 0.0047899 0.00057301 0.0025663 -0.0011609 -0.015233 0.021059
-0.14241 0.16091 -0.021662 0.01628
-0.0025996 -0.0024676 0.0032352 0.00055791 0.0016578 0.0041095 -0.0056551 -0.0089466
-0.021682 0.016295 -0.17947 0.22093
920000000 -0.088899 0.27821 0.0062955 0.036898 -0.0091376 -0.0035927 -0.0013497 0.0019651
0.0019018 0.0016421 0.0027571 -0.0017547
0.0062677 0.036859 -0.2549 0.31715 0.028164 0.020161 0.0018107 0.00094366
0.0070038 -0.00050765 0.00347 -0.0029833
-0.0091211 -0.0035842 0.028204 0.020105 0.074239 0.32253 0.0019828 -7.9346e-05
0.0016508 -0.0005513 0.00095469 -0.0011838
-0.0013489 0.0019688 0.0018066 0.00093774 0.0019879 -8.1381e-05 -0.10586 0.26883
-0.0072366 0.030539 0.0021793 -0.0061233
0.0018995 0.001662 0.0070106 -0.00054012 0.0016536 -0.00054703 -0.0071873 0.03057
-0.12759 0.16618 -0.00046055 0.024912
0.0027464 -0.0017587 0.0034536 -0.0029854 0.00096457 -0.0011806 0.002192 -0.0061235
-0.00045718 0.024945 -0.17839 0.23613
980000000 -0.041652 0.29585 0.018669 0.02845 -0.0081735 0.0047921 0.0022439 0.0029935
0.0039197 -0.0021859 -0.0032843 -0.0020267
0.018634 0.028429 -0.20275 0.34928 0.032263 0.0031511 0.0021023 -0.00041515
0.0014672 -0.0062622 -0.00070817 -0.0023323
-0.0081428 0.0047993 0.032267 0.0030713 0.12082 0.31413 0.00053962 -0.0013036
6.5655e-05 -0.0021703 0.0013872 -0.00017559
0.0022625 0.0029945 0.00209 -0.00041869 0.0005422 -0.0013056 -0.066787 0.27802
0.01038 0.027913 -0.0085699 -0.0057719
0.0039122 -0.0022151 0.0014595 -0.0062933 5.3622e-05 -0.002167 0.010433 0.027913
-0.097268 0.19018 0.0060785 0.018508
-0.0032917 -0.0020231 -0.00069977 -0.0023279 0.001388 -0.00017731 -0.0085681 -0.0057727
0.0060962 0.018535 -0.13372 0.27381
1040000000 0.0015046 0.30305 0.032844 0.015702 -0.0009974 0.00658 0.0023993 0.00045353
-0.00010779 -0.0032902 -0.00071431 -0.00139
0.032789 0.015695 -0.16665 0.3622 0.027486 -0.015555 0.0013093 -0.0018177
-0.0024086 -0.0024396 -0.0015334 -0.0028003
-0.00096865 0.0065697 0.027428 -0.015628 0.16729 0.29936 -0.00067652 -0.001479
-0.0015771 -0.00093203 -0.0004176 -0.0011417
0.002396 0.0004472 0.0012849 -0.0018183 -0.00067407 -0.0014829 -0.037974 0.28722
0.020556 0.015354 -0.0027383 0.0013062
-0.00012847 -0.0032881 -0.0024009 -0.0024491 -0.0015912 -0.00092583 0.020597 0.015332
-0.064999 0.19659 0.013656 0.015597
-0.00072152 -0.0013863 -0.0015271 -0.002807 -0.00042066 -0.0011388 -0.002717 0.0013039
0.013672 0.015616 -0.10824 0.29283
1100000000 0.047212 0.30889 0.034305 -0.0057251 0.0027801 0.0035602 0.0022182 -0.0011394
-0.0022383 -0.0027256 -0.0034557 0.00050161
0.034266 -0.0057009 -0.12302 0.37819 0.013331 -0.027317 -0.00014077 -0.0017891
-0.003399 -0.00044459 -0.0032845 -0.00017878
0.0027851 0.0035335 0.013266 -0.027358 0.21396 0.27697 -0.0017908 0.00018424
-0.0017505 0.00068148 -0.00091936 -0.00027783
0.0022212 -0.0011463 -0.00015099 -0.0018012 -0.0017825 0.00018988 0.0036078 0.28975
0.023977 0.0023894 -0.0024066 0.00033854
-0.0022446 -0.0027246 -0.0033959 -0.00043454 -0.0017485 0.00067831 0.023993 0.0023549
-0.046011 0.20804 0.018065 0.0063955
-0.0034493 0.0005105 -0.0032752 -0.00016385 -0.00091859 -0.00027442 -0.0024065 0.00032557
0.018099 0.0064085 -0.061351 0.31647
1160000000 0.09817 0.30256 0.021968 -0.021249 0.0023808 -0.00040552 -8.7993e-05 -0.0022149
-0.0038671 -0.0004332 -0.00056064 0.0036687
0.021955 -0.021221 -0.078665 0.38155 -0.0048662 -0.027695 -0.0016046 -0.0015365
-0.002473 0.0023604 -0.0012625 0.0017319
0.0023686 -0.00040153 -0.0049624 -0.027699 0.25606 0.24453 -0.00080084 0.0017111
-0.0005345 0.0018369 -0.00079132 0.00018179
-8.6792e-05 -0.0021918 -0.0016246 -0.0015389 -0.00080157 0.0017076 0.043119 0.28466
0.019706 -0.012184 -0.0029061 0.0044892
-0.0038746 -0.00041999 -0.0024627 0.0023752 -0.00054443 0.0018345 0.019698 -0.012224
-0.012135 0.21543 0.016567 -0.0018664
-0.00055952 0.0036528 -0.0012381 0.0017376 -0.00079432 0.00018164 -0.0029006 0.0044749
0.016616 -0.0018917 -0.014694 0.31651
1220000000 0.14297 0.28919 0.008405 -0.029207 -0.0014626 -0.00046156 5.7723e-05 -0.00095863
-0.0023416 0.0023942 0.0013852 0.0018376
0.008422 -0.029182 -0.034508 0.39204 -0.016909 -0.019464 -0.0023961 0.00047048
0.00014905 0.0027943 -0.00051426 0.0018534
-0.0014721 -0.0004473 -0.016974 -0.019431 0.29475 0.20445 0.00077074 0.0017998
0.00062909 0.0011951 0.00028831 0.00053241
6.1274e-05 -0.00095526 -0.0023942 0.00047772 0.00077237 0.0017885 0.083458 0.2736
0.0087258 -0.018017 0.0016502 0.0014336
-0.0023312 0.002403 0.00015873 0.0027944 0.00062236 0.0011895 0.0087068 -0.018037
0.012002 0.22214 0.011586 -0.013034
0.0013829 0.0018273 -0.00050263 0.0018658 0.00028743 0.00053385 0.0016381 0.0014241
0.011613 -0.013094 0.019033 0.32793
1280000000 0.19146 0.2653 -0.0088648 -0.0268 -0.0014724 0.0026341 -0.00099732 -0.0018959
-0.00055567 0.0028935 0.002282 0.00087566
-0.0088383 -0.026781 0.010968 0.38204 -0.022903 -0.0073405 -0.00095863 0.0013818
0.0016102 0.001614 0.0007008 0.0017304
-0.0014666 0.0026404 -0.022941 -0.007265 0.32434 0.15924 0.0015858 5.1384e-06
0.0010288 0.00023532 0.00017355 0.00027046
-0.0009935 -0.0019014 -0.00095443 0.001392 0.0015846 1.0593e-05 0.11914 0.2545
-0.00070537 -0.019131 -0.00031158 0.00032567
-0.00055314 0.0029009 0.0016251 0.0016122 0.0010343 0.00022619 -0.00073988 -0.019132
0.048266 0.2234 0.0014709 -0.014499
0.0022852 0.00086456 0.00071456 0.0017366 0.00017938 0.00027488 -0.00032493 0.00032773
0.0014945 -0.014564 0.064791 0.32534
1340000000 0.22773 0.23019 -0.017648 -0.017137 0.0012943 0.0041336 -0.0016719 -0.00081827
0.001478 0.0024552 0.0013932 -0.001424
-0.017612 -0.017146 0.050228 0.37291 -0.020398 0.0047513 -0.00013608 0.0019798
0.0018376 0.00065877 0.0012902 0.00064125
0.0013003 0.0041356 -0.020394 0.0048071 0.34532 0.11103 0.0011955 -0.00096514
0.00063286 -0.00049905 6.3109e-05 0.00022131
-0.001677 -0.00081021 -0.0001295 0.0019882 0.0011975 -0.00096736 0.15039 0.23234
-0.0097548 -0.015761 0.00063196 0.00094214
0.0014855 0.0024391 0.0018428 0.00064696 0.00063098 -0.00050171 -0.0097903 -0.015755
0.077807 0.21688 -0.0049451 -0.012452
0.0013959 -0.0014283 0.0013065 0.00064292 6.811e-05 0.00022458 0.00061689 0.00095883
-0.0049679 -0.01252 0.10348 0.31701
1400000000 0.25941 0.19076 -0.02234 -0.0061125 0.0050748 0.0025387 -0.0020206 0.00058389
0.0022849 0.00066666 0.00010934 -0.0013216
-0.022305 -0.0061251 0.086886 0.35917 -0.013671 0.012095 0.0013132 0.0013596
0.0011579 -0.0007751 0.0011008 0.00011256
0.0050929 0.0025275 -0.013644 0.012155 0.35799 0.056712 0.00013222 -0.0017397
8.3267e-05 -0.00029995 0.00035235 0.00015317
-0.0020213 0.00059397 0.0013112 0.0013463 0.00013487 -0.0017416 0.17857 0.20162
-0.014971 -0.0089139 -0.00034506 0.0002287
0.002285 0.00065661 0.0011484 -0.00078218 8.279e-05 -0.00030297 -0.014998 -0.0088925
0.1101 0.21016 -0.010372 -0.0074538
0.00011879 -0.0013181 0.0010938 0.00011367 0.00035215 0.000155 -0.00034817 0.00024876
-0.010417 -0.0075116 0.14597 0.30211
1460000000 0.28065 0.14621 -0.019138 0.0051232 0.0051953 -0.0021588 -0.0015138 0.0016215
0.0019072 -0.00064028 -0.00040966 -0.00083439
-0.019129 0.0051059 0.12068 0.33682 -0.0055635 0.014485 0.001737 0.00015586
0.00081136 -0.0012341 0.0010492 -0.0006132
0.0051947 -0.0021788 -0.0055193 0.014499 0.36251 0.0018958 -0.0013878 -0.0013535
0.00013445 -0.00018833 0.00058005 -0.000279
-0.0014995 0.0016242 0.0017368 0.00013756 -0.0013738 -0.001352 0.20253 0.17121
-0.015833 -0.0023878 -0.00030628 0.0019492
0.0019031 -0.00062822 0.00080752 -0.0012331 0.00013158 -0.00019263 -0.015851 -0.0023507
0.13833 0.19369 -0.011473 -0.0018385
-0.00040117 -0.00083328 0.0010459 -0.00061278 0.00057366 -0.00027873 -0.00030826 0.0019504
-0.011538 -0.0018564 0.17786 0.27914
1520000000 0.29184 0.10377 -0.013491 0.010085 0.0027857 -0.0040885 7.4579e-05 0.0025342
0.0018393 -0.0016503 -0.0010386 -3.2883e-05
-0.013491 0.010065 0.15395 0.32148 0.0014758 0.012352 0.0016811 -0.00087174
5.7084e-05 -0.0010643 0.00025381 -0.00092368
0.0027758 -0.004103 0.001527 0.01235 0.35501 -0.054585 -0.0013312 -0.0003404
0.00053882 -0.00088373 -3.8221e-05 -0.00014464
8.229e-05 0.0025384 0.0016781 -0.00087331 -0.0013285 -0.00034148 0.22352 0.13283
-0.014905 0.0032036 0.0018076 0.0017287
0.0018237 -0.0016561 5.2489e-05 -0.0010676 0.00053586 -0.00089291 -0.014906 0.0032355
0.16572 0.17793 -0.011101 0.0022776
-0.0010437 -2.5943e-05 0.00025518 -0.00092767 -4.1858e-05 -0.00014969 0.0018284 0.0017337
-0.011166 0.0023065 0.20967 0.25559
1580000000 0.29977 0.05722 -0.0073184 0.01267 -0.0011682 -0.0044493 0.0014377 0.0018481
-0.00019808 -0.001983 -0.00023761 0.00037788
-0.0073286 0.012657 0.18075 0.29605 0.004793 0.0077864 0.00040456 -0.0017191
-0.00053695 -0.0010434 -0.00025453 -0.00079894
-0.0011777 -0.0044613 0.0048232 0.0077764 0.334 -0.11224 -0.0016864 0.00087452
-0.00031587 -0.0010214 0.00019034 -0.00051279
0.0014376 0.0018424 0.0003957 -0.0017197 -0.0016839 0.00087338 0.23504 0.093418
-0.011603 0.0079251 0.0022753 0.00024689
-0.00020445 -0.0019821 -0.00054303 -0.0010473 -0.00031976 -0.0010263 -0.011587 0.0079576
0.18866 0.15788 -0.0086416 0.0072407
-0.00024092 0.00038475 -0.00026704 -0.00079919 0.00018753 -0.00051931 0.0023008 0.00024443
-0.0087009 0.0072846 0.23905 0.22663
1640000000 0.30059 0.015702 -0.0011968 0.011479 -0.002651 -0.0022256 0.0026925 0.00094934
-0.00075548 -0.0014496 -0.00022774 0.00052594
-0.0012053 0.011475 0.20985 0.27046 0.00541 0.0035251 -0.00087715 -0.0016659
-0.0010863 -0.00037722 -0.00055144 -0.00055308
-0.0026628 -0.0022188 0.0054244 0.0035083 0.30426 -0.16077 -0.00060857 0.0016169
-0.0011946 -0.00075371 -0.0002299 -0.00017882
0.0027004 0.00094537 -0.00088615 -0.0016582 -0.00060509 0.001603 0.24521 0.045705
-0.007392 0.0095245 0.0022819 -0.0011087
-0.00076471 -0.0014511 -0.0010864 -0.00037279 -0.0012043 -0.00075503 -0.0073771 0.0095552
0.20982 0.1322 -0.0042426 0.0089661
-0.00022853 0.0005322 -0.0005504 -0.00054781 -0.00022887 -0.00017206 0.0022918 -0.0011274
-0.0042688 0.0090304 0.26262 0.19364
1700000000 0.29213 -0.029997 0.0019162 0.0088359 -0.0032614 0.00021056 0.0029702 -0.0012853
-0.0019191 -0.0006284 0.00064804 0.00039728
0.0019107 0.0088367 0.22753 0.23843 0.0037287 0.00076059 -0.0014952 -0.00043304
-0.00079641 0.00020356 -0.00086487 -0.00035954
-0.0032563 0.00021647 0.0037453 0.00074937 0.26106 -0.20034 0.0006608 0.0014965
-0.001762 -0.00015401 -0.0005762 -0.00076364
0.0029622 -0.0012969 -0.0014975 -0.00042858 0.00066337 0.0014994 0.24078 -0.0028249
-0.0042591 0.010242 0.0012045 -0.0022044
-0.0019181 -0.00062245 -0.00080049 0.00020613 -0.0017662 -0.00015007 -0.0042446 0.010255
0.22574 0.11048 8.9447e-05 0.0092978
0.00065398 0.00039415 -0.00087378 -0.00035002 -0.0005819 -0.00075565 0.0011999 -0.0022212
0.00010258 0.0093669 0.27682 0.15782
1760000000 0.2785 -0.078525 0.0039811 0.0057951 -0.0020568 0.00090374 0.0010749 -0.0034235
-0.0013763 0.00074663 0.000451 -0.00044338
0.0039713 0.0057891 0.25268 0.19775 0.0016765 -0.0010719 -0.0011844 0.00032597
-0.0009506 0.00094637 -0.00055194 0.00050572
-0.0020585 0.00091999 0.0016724 -0.0010837 0.21179 -0.23404 0.0013725 0.0008656
-0.001161 0.0016068 -0.0012955 -0.00029342
0.0010544 -0.0034302 -0.0011776 0.0003357 0.0013675 0.00086982 0.23064 -0.052241
-0.00064202 0.0095465 -0.00054047 -0.002354
-0.0013656 0.00075486 -0.00095252 0.00096992 -0.0011585 0.0016024 -0.0006273 0.0095626
0.23859 0.074234 0.0035483 0.0067015
0.00045202 -0.00044804 -0.00054884 0.00051002 -0.0013025 -0.00029059 -0.00054608 -0.0023667
0.0035914 0.0067566 0.28693 0.11902
1820000000 0.25241 -0.11534 0.0040702 0.0024255 3.3737e-05 0.0023032 -0.0011522 -0.0028887
-0.0010111 0.0010784 1.5367e-06 -5.4043e-05
0.0040681 0.0024291 0.26178 0.16748 -0.0001534 2.4761e-06 -0.0011312 0.0010402
6.1297e-05 0.0013239 -0.00048986 0.00055504
3.0878e-05 0.0023137 -0.00014768 -3.4766e-06 0.16096 -0.24887 0.0013315 6.0837e-06
-6.7123e-05 0.0021192 -0.0013025 0.00044418
-0.0011546 -0.0028847 -0.00112 0.0010451 0.0013221 8.595e-06 0.20092 -0.097266
0.0013154 0.0077432 -0.0016261 -0.0012263
-0.001014 0.0010857 6.5208e-05 0.0013295 -6.8395e-05 0.0021214 0.0013263 0.007752
0.25386 0.044263 0.0044875 0.0034717
-1.9957e-06 -6.2267e-05 -0.00048361 0.00055432 -0.0013071 0.00045325 -0.0016414 -0.0012292
0.0045503 0.0034919 0.28693 0.081896
1880000000 0.21571 -0.15503 0.001886 0.00031598 -0.00034366 0.0018687 -0.0029046 -0.0019186
-0.00012689 0.0016875 0.00023112 -0.00049053
0.0018816 0.00031892 0.26534 0.1205 -0.0022476 0.0016176 2.4703e-05 0.0016088
0.00071024 0.001059 0.00023594 0.00088055
-0.00033372 0.0018646 -0.0022446 0.0016311 0.10791 -0.25873 0.0014119 -0.0010586
0.0016208 0.0016502 -0.00078415 0.0013254
-0.0029107 -0.0019049 2.8716e-05 0.0016066 0.001411 -0.0010602 0.16136 -0.13657
0.0022684 0.0053567 -0.0021493 0.00051251
-0.00012843 0.001688 0.0007238 0.0010527 0.001621 0.0016491 0.002277 0.0053634
0.25464 0.010386 0.0042737 0.0015378
0.00022371 -0.00049731 0.00023713 0.00088091 -0.00078179 0.0013237 -0.0021539 0.000519
0.0043322 0.0015556 0.28439 0.047361
1940000000 0.17538 -0.17965 -0.00025537 -0.0011094 0.0013876 0.001835 -0.003569 0.00068279
0.0015053 0.0010885 -0.0005965 -0.00065307
-0.00025364 -0.0011012 0.26469 0.088975 -0.0010371 0.0039643 0.0010366 0.001039
0.00177 0.00030918 0.00087911 0.00032945
0.0013831 0.0018326 -0.0010244 0.0039637 0.061675 -0.25099 0.00013133 -0.0017325
0.0023324 0.00023869 0.00041269 0.001594
-0.0035684 0.00069679 0.0010393 0.0010422 0.00013552 -0.0017313 0.10996 -0.16626
0.0015584 0.0036218 -0.0012381 0.0015394
0.0015136 0.001072 0.0017808 0.00029497 0.0023456 0.00023312 0.0015675 0.0036242
0.25417 -0.029118 0.0032635 -0.0012676
-0.00061216 -0.00065247 0.00087624 0.00032012 0.00040641 0.0015963 -0.001247 0.0015391
0.003319 -0.0012907 0.27138 0.011132
2000000000 0.12878 -0.19334 -0.0039378 0.0010144 0.0024447 0.0014127 -0.0021948 0.0033442
0.0012219 -5.4209e-05 -0.00066229 0.00039961
-0.0039308 0.0010086 0.25 0.053606 -0.00080604 0.0057431 0.001457 0.00015022
0.0012007 -0.0013401 0.00041536 -4.0884e-05
0.0024541 0.0014097 -0.0007803 0.005748 0.018368 -0.2362 -0.0010942 -0.0010083
0.0017779 -0.0011408 0.0017165 0.0010182
-0.0021779 0.0033505 0.0014629 0.00013582 -0.0010943 -0.0010128 0.057605 -0.17677
-0.00019234 0.0029213 9.5185e-05 0.0020677
0.0012219 -6.3153e-05 0.0011921 -0.0013565 0.0017697 -0.0011507 -0.00018679 0.0029153
0.24605 -0.063567 0.00051251 -0.0023185
