!Keysight Technologies,M9804A,MY58100912,A.14.10.03
!Date: Thursday, April 27, 2023 10:28:33
!Correction: S11(C  6-Port  ) 
!S12(C  6-Port  ) 
!S13(C  6-Port  ) 
!S14(C  6-Port  ) 
!S15(C  6-Port  ) 
!S16(C  6-Port  ) 
!S21(C  6-Port  ) 
!S22(C  6-Port  ) 
!S23(C  6-Port  ) 
!S24(C  6-Port  ) 
!S25(C  6-Port  ) 
!S26(C  6-Port  ) 
!S31(C  6-Port  ) 
!S32(C  6-Port  ) 
!S33(C  6-Port  ) 
!S34(C  6-Port  ) 
!S35(C  6-Port  ) 
!S36(C  6-Port  ) 
!S41(C  6-Port  ) 
!S42(C  6-Port  ) 
!S43(C  6-Port  ) 
!S44(C  6-Port  ) 
!S45(C  6-Port  ) 
!S46(C  6-Port  ) 
!S51(C  6-Port  ) 
!S52(C  6-Port  ) 
!S53(C  6-Port  ) 
!S54(C  6-Port  ) 
!S55(C  6-Port  ) 
!S56(C  6-Port  ) 
!S61(C  6-Port  ) 
!S62(C  6-Port  ) 
!S63(C  6-Port  ) 
!S64(C  6-Port  ) 
!S65(C  6-Port  ) 
!S66(C  6-Port  ) 
!S6P File: Measurement: :
# Hz S  RI   R 50
500000000 -0.33906 -0.018486 -0.010338 -0.0032023 -0.0070299 0.012237 -0.0028266 0.012327
0.011337 0.0038827 -0.0020281 0.0088452
-0.010434 -0.0032141 -0.41939 -0.036271 0.0064835 -0.011786 0.0019622 0.012675
0.0067153 0.0024476 0.0023448 0.01356
-0.0070582 0.012273 0.0064645 -0.011798 -0.26234 0.22218 0.0074442 0.0036353
-0.00061468 0.0086009 0.0027115 0.011819
-0.002876 0.0123 0.001974 0.012661 0.0074341 0.003639 -0.33025 0.062768
-0.0193 -0.0064066 0.015182 0.023841
0.011355 0.0038465 0.0067299 0.0024443 -0.00060984 0.008621 -0.019314 -0.0063859
-0.2357 -0.16474 -0.025372 0.0044593
-0.001982 0.0088025 0.0022732 0.013575 0.0026524 0.011862 0.015126 0.023835
-0.025323 0.0044826 -0.2841 -0.079177
560000000 -0.31158 0.13716 -0.026722 -0.060483 0.00092957 0.011043 0.0054134 0.0097015
0.0091452 0.0038849 0.010634 0.0063832
-0.026639 -0.060379 -0.37513 0.11689 -0.041805 -0.034161 0.013841 0.0034908
-0.012164 -0.0035983 0.0031215 -0.00095472
0.00090715 0.011065 -0.04186 -0.034116 -0.18036 0.26658 -0.00063883 -0.0046531
0.018418 0.0035714 0.0070421 -0.0062911
0.0054747 0.0095806 0.013839 0.0035007 -0.00061419 -0.0046287 -0.30402 0.14772
0.0008753 -0.024599 0.0031921 -0.018223
0.0091399 0.0038857 -0.01223 -0.0035421 0.018446 0.0035249 0.00084688 -0.024585
-0.2866 0.0086278 0.0032524 -0.046787
0.010635 0.0063526 0.0031232 -0.00088641 0.0070069 -0.0063383 0.0032013 -0.018159
0.0032263 -0.046785 -0.32968 0.059539
620000000 -0.26972 0.12261 -0.023326 0.0068833 0.0036199 0.0077121 0.0080476 -0.0056026
0.010166 -0.0012123 0.00058954 -0.0019604
-0.023296 0.006882 -0.40112 0.07336 -0.019557 0.00013527 -0.00093606 -0.0022687
0.0097465 -0.0064534 0.0014157 -0.0031187
0.0036255 0.0076927 -0.01956 0.00018598 -0.14954 0.27648 -0.0012905 -0.0048122
-0.0033917 -0.002695 0.0084049 -0.0039863
0.0080644 -0.0055949 -0.00095712 -0.0022536 -0.0012728 -0.0048064 -0.26226 0.16002
-0.038823 -0.017626 0.012202 0.02318
0.010159 -0.0012368 0.0097495 -0.006502 -0.0034015 -0.0027004 -0.038842 -0.017611
-0.21039 -0.028602 -0.038164 0.014402
0.00066767 -0.0019741 0.0013603 -0.0031327 0.0083118 -0.0041217 0.012306 0.023083
-0.038213 0.014544 -0.25622 0.030947
680000000 -0.22714 0.20395 -0.027833 -0.012198 0.0053968 0.0045356 0.0012336 -0.00714
-0.0030292 -0.010993 0.0039236 -0.0067444
-0.027826 -0.012186 -0.38431 0.16736 -0.032267 0.00040369 -0.001492 -0.00052875
-0.0024958 -0.0086895 -0.00155 -0.0020192
0.0053757 0.0045253 -0.032281 0.00044536 -0.098487 0.29422 -0.00090895 -0.00028268
-0.001751 0.00016131 -0.0036951 -0.0085208
0.001228 -0.0071298 -0.0014911 -0.00051919 -0.00090942 -0.00028788 -0.21668 0.2069
-0.025439 -0.005642 -0.0090219 -0.0083668
-0.0030534 -0.010993 -0.0025169 -0.008687 -0.0017534 0.00017182 -0.025464 -0.0056198
-0.24857 0.066946 -0.0070789 -0.0073025
0.0039151 -0.0067495 -0.0015339 -0.0020219 -0.0036764 -0.0085147 -0.0090451 -0.0083338
-0.0070592 -0.0072921 -0.25334 0.12565
740000000 -0.18432 0.19919 -0.036863 0.025973 0.011762 -0.0057751 -0.00084272 -0.0039941
-0.0051493 -0.002779 -0.005977 0.0035172
-0.036845 0.025874 -0.33296 0.18746 -0.032841 0.034885 -0.00093691 -0.0061627
-0.011319 0.0079143 -0.0017908 -0.0045693
0.011778 -0.0057866 -0.032786 0.034953 -0.064873 0.29411 -0.0017315 0.0030254
-0.0032753 -0.0046297 -0.002281 0.0014155
-0.00086201 -0.0040131 -0.00094027 -0.0061387 -0.0017256 0.0030199 -0.19892 0.21603
-0.041938 -0.0036979 0.021753 0.012181
-0.0050086 -0.0027416 -0.011355 0.0079677 -0.0033049 -0.0046439 -0.041972 -0.0036463
-0.15754 0.087869 -0.038542 0.0032684
-0.0060115 0.0035091 -0.0017709 -0.004585 -0.0022491 0.001375 0.021763 0.012198
-0.03841 0.0032435 -0.24134 0.1354
800000000 -0.15054 0.23615 -0.021587 0.017479 0.0043335 -0.010357 -0.0043508 -0.0016829
-0.0038527 0.0030456 0.0037987 0.00087977
-0.021602 0.017446 -0.33275 0.25544 -0.0066529 0.033464 -0.0022546 0.0023019
-0.00059824 0.0033176 0.0011055 0.0053298
0.004298 -0.010366 -0.0065818 0.033493 -0.021789 0.3158 0.00090933 0.0015247
0.00031203 0.0035602 -0.0018933 0.0012663
-0.0043161 -0.0016518 -0.0022528 0.0023088 0.00091299 0.0015352 -0.16877 0.24217
-0.026774 0.016023 0.012189 -0.01001
-0.0038498 0.0030506 -0.00059141 0.0033189 0.00031815 0.0035537 -0.026778 0.016082
-0.19448 0.11484 -0.0157 0.018466
0.0038023 0.00087559 0.0011072 0.0053626 -0.0019053 0.0012592 0.012219 -0.010027
-0.015672 0.018412 -0.22864 0.18099
860000000 -0.11577 0.25638 -0.015985 0.031127 -0.0039471 -0.0092592 -0.0021897 0.001522
0.0044459 0.0049608 -0.002562 -0.0024677
-0.01597 0.031096 -0.28556 0.29669 0.0091393 0.033002 0.00033414 0.0024143
0.0047746 0.00059889 0.0032657 0.0005885
-0.003976 -0.0092399 0.009216 0.032988 0.026581 0.32261 -0.00028992 5.267e-05
0.0025602 -0.0011698 0.0016728 0.0041061
-0.0021819 0.0015273 0.00032075 0.0023996 -0.00029156 5.4447e-05 -0.13218 0.25301
-0.015294 0.020973 -0.0056946 -0.0089339
0.0044773 0.0049568 0.0047559 0.00055978 0.0025653 -0.0011733 -0.015274 0.021009
-0.14249 0.1607 -0.021723 0.016248
-0.0025788 -0.0024643 0.0032814 0.00058609 0.0016547 0.0041048 -0.0056682 -0.0089512
-0.021723 0.016226 -0.17938 0.22107
920000000 -0.088858 0.27821 0.0063083 0.036907 -0.0091218 -0.0035914 -0.0013455 0.0019639
0.0019093 0.0016766 0.0027672 -0.0017785
0.0062703 0.036882 -0.25488 0.31717 0.028132 0.020155 0.0018218 0.00092854
0.0069771 -0.00054801 0.0035064 -0.0029926
-0.0091379 -0.0035784 0.028203 0.020104 0.07424 0.32249 0.0019912 -9.2383e-05
0.0016514 -0.0005488 0.00098288 -0.00113
-0.0013507 0.0019622 0.0018136 0.00092252 0.0019904 -8.7893e-05 -0.10584 0.26881
-0.0072831 0.030483 0.0021733 -0.0061219
0.0018945 0.0016921 0.0069693 -0.00055872 0.0016542 -0.00056537 -0.0072279 0.030512
-0.12782 0.16606 -0.00052251 0.024925
0.0027654 -0.0017737 0.0034599 -0.0029764 0.00096557 -0.0011518 0.002163 -0.00612
-0.00051783 0.024907 -0.17848 0.2361
980000000 -0.041672 0.29582 0.018637 0.028437 -0.0081704 0.0048159 0.0022269 0.002976
0.0038728 -0.0021982 -0.003295 -0.0020221
0.018623 0.0284 -0.20275 0.34923 0.032229 0.0031263 0.002069 -0.00040299
0.001471 -0.0062678 -0.00073161 -0.0023232
-0.0081679 0.0048219 0.032265 0.0030697 0.12082 0.31413 0.00052275 -0.0013085
5.0261e-05 -0.0021849 0.0013811 -0.00018162
0.0022357 0.0029824 0.0020719 -0.00042502 0.00052142 -0.0013037 -0.066783 0.27803
0.01033 0.027913 -0.0085827 -0.005764
0.0038649 -0.0021952 0.0014295 -0.006291 4.1572e-05 -0.0021966 0.010386 0.027909
-0.097477 0.19021 0.0060723 0.018542
-0.0032995 -0.0020046 -0.00072742 -0.0023192 0.0013773 -0.0001813 -0.0085951 -0.0057525
0.0060491 0.018487 -0.13367 0.27384
1040000000 0.0015245 0.30305 0.032829 0.015724 -0.00099449 0.0065786 0.0024132 0.00044169
-0.00012447 -0.0032915 -0.0007341 -0.0013964
0.03281 0.015705 -0.16667 0.3622 0.027432 -0.015564 0.0012987 -0.0017839
-0.0023641 -0.0024503 -0.0014941 -0.0028182
-0.00099505 0.0065768 0.027417 -0.015638 0.16729 0.29934 -0.0006773 -0.0014706
-0.001573 -0.00091234 -0.00041611 -0.0011252
0.0024154 0.00044966 0.0012731 -0.0018099 -0.00067817 -0.0014741 -0.037988 0.28722
0.020526 0.015385 -0.0027276 0.0013279
-0.00013831 -0.0033007 -0.0023886 -0.0024263 -0.0015675 -0.00090864 0.020552 0.015351
-0.065205 0.19675 0.013563 0.015557
-0.00073028 -0.0014042 -0.0015034 -0.0027964 -0.00041154 -0.0011274 -0.0027337 0.0013207
0.013564 0.015579 -0.10825 0.2928
1100000000 0.047223 0.30885 0.034297 -0.0057302 0.002782 0.0035681 0.0022216 -0.0011385
-0.0022377 -0.0027161 -0.0034694 0.00052654
0.034274 -0.0057139 -0.12302 0.37818 0.013319 -0.02732 -0.00012725 -0.0017694
-0.0033615 -0.0004247 -0.0032634 -0.0001887
0.0027968 0.0035536 0.013254 -0.027359 0.21394 0.27697 -0.0017845 0.0001935
-0.0017437 0.00066958 -0.000905 -0.00030772
0.0022304 -0.0011166 -0.00013828 -0.0017692 -0.0017898 0.00019247 0.003632 0.28975
0.023929 0.0024428 -0.0024149 0.00034538
-0.0022434 -0.0026978 -0.0033834 -0.00041361 -0.0017361 0.00067229 0.023938 0.0023993
-0.046146 0.20826 0.017984 0.0064368
-0.0034557 0.00052935 -0.0032634 -0.00017158 -0.00091734 -0.00029133 -0.0024172 0.00035058
0.017972 0.0064319 -0.061372 0.31647
1160000000 0.09814 0.30253 0.021951 -0.021251 0.0023883 -0.0004036 -7.6831e-05 -0.0022003
-0.0038545 -0.00046154 -0.00058678 0.0036863
0.021956 -0.021228 -0.078629 0.38153 -0.0048809 -0.027702 -0.0016175 -0.0015238
-0.0024436 0.0023669 -0.0012395 0.0017267
0.002372 -0.00041216 -0.0049589 -0.027698 0.25607 0.24452 -0.00079732 0.0017007
-0.00052793 0.0018156 -0.00078291 0.00018924
-7.9245e-05 -0.0021936 -0.0016262 -0.0015356 -0.00079227 0.0017042 0.043139 0.28465
0.019705 -0.012094 -0.0029109 0.0045239
-0.0038665 -0.00041987 -0.0024463 0.0023758 -0.00051634 0.0018196 0.01968 -0.012128
-0.012144 0.21569 0.016495 -0.0018277
-0.00057168 0.0036772 -0.0012463 0.0017419 -0.00078392 0.00019913 -0.0029041 0.0045055
0.016496 -0.0018219 -0.014634 0.31645
1220000000 0.14295 0.28917 0.0083899 -0.029199 -0.0014537 -0.00043486 6.3379e-05 -0.00096128
-0.0023259 0.0023735 0.0014093 0.0018303
0.0084051 -0.029173 -0.034491 0.39207 -0.016914 -0.019458 -0.0023942 0.00046431
0.00016773 0.0027805 -0.00047654 0.001847
-0.0014652 -0.00043549 -0.01698 -0.019406 0.29472 0.20443 0.0007823 0.0017932
0.00061536 0.0011874 0.00028234 0.00052764
6.1165e-05 -0.00095576 -0.0023921 0.00046112 0.00077523 0.0017955 0.083464 0.2736
0.0087579 -0.017933 0.0016692 0.0014397
-0.0023182 0.0023856 0.00017329 0.0027784 0.00062026 0.0011882 0.0087383 -0.017952
0.012106 0.22238 0.011529 -0.012953
0.0014039 0.0018256 -0.00048859 0.0018576 0.00029202 0.00052625 0.0016405 0.0014381
0.011541 -0.012961 0.018897 0.32785
1280000000 0.19145 0.2653 -0.0088714 -0.026797 -0.0014785 0.002641 -0.00099932 -0.0019103
-0.00056683 0.0028943 0.0022749 0.00086126
-0.0088526 -0.026773 0.011009 0.38206 -0.022917 -0.0073388 -0.00095938 0.001386
0.0015918 0.0015968 0.00070078 0.0017453
-0.0014678 0.0026264 -0.022961 -0.0072667 0.32436 0.15925 0.001588 1.1667e-05
0.0010203 0.00022955 0.00016859 0.00025679
-0.0010046 -0.0018971 -0.00095771 0.0013897 0.0015861 9.0296e-06 0.11915 0.25449
-0.00060711 -0.019076 -0.00027497 0.00031796
-0.00055206 0.0028964 0.0015961 0.0016007 0.0010214 0.00022476 -0.00064606 -0.019079
0.048499 0.22357 0.0014846 -0.014416
0.0022852 0.00085761 0.00070731 0.0017343 0.00017365 0.00026073 -0.00028878 0.00032392
0.0014926 -0.014426 0.064691 0.32531
1340000000 0.22775 0.23017 -0.017651 -0.017135 0.0012902 0.0041435 -0.0016695 -0.00081437
0.0014627 0.0024466 0.001394 -0.0014253
-0.017617 -0.017124 0.050242 0.37291 -0.020381 0.0047726 -0.00013753 0.0019841
0.0018218 0.00065923 0.001281 0.00063234
0.0013143 0.0041335 -0.020384 0.0048442 0.3453 0.111 0.0011973 -0.00098109
0.00063012 -0.00050441 6.7664e-05 0.00020335
-0.0016684 -0.00081734 -0.00013181 0.0019794 0.0011991 -0.00097802 0.15039 0.23233
-0.0096618 -0.015756 0.00066595 0.00093115
0.0014833 0.0024343 0.001828 0.00064952 0.00062884 -0.00051639 -0.0096724 -0.015738
0.078078 0.21691 -0.004891 -0.01238
0.0013927 -0.0014323 0.0012799 0.00063573 6.4024e-05 0.00020694 0.00064986 0.00093837
-0.0048822 -0.012386 0.10344 0.31701
1400000000 0.25939 0.19072 -0.022335 -0.0061035 0.0050839 0.002535 -0.0020237 0.00059428
0.00229 0.00067474 0.00010289 -0.0013194
-0.022317 -0.0061144 0.086902 0.35917 -0.013664 0.012104 0.0013043 0.0013572
0.0011482 -0.00076447 0.001095 0.00011352
0.0050977 0.002529 -0.013627 0.01216 0.35794 0.056701 0.00013008 -0.0017366
8.6946e-05 -0.00031398 0.00036439 0.00015739
-0.0020248 0.00060133 0.001315 0.0013514 0.00013351 -0.0017374 0.17856 0.20163
-0.014872 -0.008959 -0.00032394 0.00019609
0.0022975 0.0006664 0.0011501 -0.00076692 8.3241e-05 -0.00032077 -0.014882 -0.0089374
0.11035 0.2101 -0.01027 -0.0074063
0.00010478 -0.0013192 0.0010972 0.00011278 0.00036014 0.0001533 -0.00032482 0.00021128
-0.010276 -0.0074398 0.14598 0.30211
1460000000 0.28069 0.14621 -0.019116 0.0051328 0.0051877 -0.0021727 -0.0015015 0.0016234
0.0019124 -0.00063076 -0.00040648 -0.00082909
-0.019108 0.0051238 0.12068 0.33682 -0.0055391 0.014493 0.0017375 0.00014972
0.00081598 -0.0012144 0.0010558 -0.00061703
0.0051806 -0.0021965 -0.005503 0.014509 0.36249 0.0019088 -0.0013808 -0.001338
0.00013546 -0.0001855 0.00058217 -0.00028049
-0.0015081 0.0016303 0.0017433 0.00013743 -0.0013786 -0.0013449 0.20254 0.1712
-0.015769 -0.0024977 -0.00031747 0.0019045
0.0019097 -0.0006439 0.00081627 -0.0012241 0.00013331 -0.00019012 -0.015775 -0.0024737
0.13852 0.19352 -0.011359 -0.0018314
-0.00041693 -0.00083667 0.0010541 -0.0006165 0.0005716 -0.00028282 -0.00030397 0.0019146
-0.011375 -0.0018396 0.17784 0.27918
1520000000 0.29182 0.10372 -0.013476 0.010083 0.0027878 -0.0040938 8.3863e-05 0.0025396
0.0018399 -0.0016435 -0.0010367 -3.0494e-05
-0.013479 0.010066 0.15395 0.32149 0.0014871 0.012355 0.0016821 -0.00087729
8.0222e-05 -0.0010623 0.00026296 -0.00092575
0.0027743 -0.0040972 0.0015361 0.012346 0.35499 -0.05459 -0.0013288 -0.00033656
0.00053708 -0.00088517 -4.1834e-05 -0.00013872
8.467e-05 0.0025272 0.0016823 -0.00088774 -0.0013259 -0.00035063 0.22353 0.13283
-0.014911 0.0030768 0.0017651 0.0017023
0.0018331 -0.0016548 6.6332e-05 -0.0010647 0.00053713 -0.00089391 -0.014922 0.0031017
0.1658 0.17772 -0.011024 0.0022264
-0.0010431 -2.7395e-05 0.0002637 -0.00094054 -4.5182e-05 -0.00014662 0.0018033 0.0017007
-0.011043 0.0022103 0.2097 0.25566
1580000000 0.29978 0.057197 -0.0073135 0.012669 -0.0011621 -0.0044586 0.001428 0.0018424
-0.00021802 -0.0019883 -0.00024258 0.00038308
-0.0073186 0.012652 0.18076 0.29604 0.0047907 0.0077878 0.00040141 -0.0017159
-0.00053218 -0.0010575 -0.00025845 -0.0008028
-0.0011725 -0.0044495 0.0048228 0.0077837 0.33399 -0.11226 -0.001682 0.00088091
-0.00030625 -0.0010339 0.00019769 -0.00050054
0.001436 0.0018331 0.0004018 -0.0017255 -0.0016857 0.00087252 0.23506 0.093428
-0.011664 0.0078252 0.0022364 0.00023763
-0.00022157 -0.002 -0.00053503 -0.0010577 -0.00032307 -0.0010388 -0.011667 0.0078481
0.18866 0.15768 -0.0086095 0.0071434
-0.00023819 0.00038662 -0.00026189 -0.00080239 0.00018921 -0.00051494 0.0022606 0.00023819
-0.0086234 0.0071505 0.23911 0.22666
1640000000 0.30058 0.015667 -0.001184 0.011471 -0.0026632 -0.0022194 0.002695 0.0009522
-0.00074819 -0.0014448 -0.00022855 0.00052542
-0.0011946 0.011462 0.20987 0.27044 0.0054023 0.0035026 -0.00087934 -0.0016572
-0.001096 -0.0003967 -0.00055661 -0.00055436
-0.002681 -0.0022167 0.005414 0.0034921 0.30425 -0.16077 -0.00061491 0.001598
-0.0011896 -0.00075934 -0.00021255 -0.00018345
0.0026946 0.00094408 -0.0008884 -0.0016648 -0.00061816 0.0016056 0.24523 0.045704
-0.0075048 0.0094765 0.0022433 -0.001087
-0.0007626 -0.0014435 -0.0011002 -0.00038046 -0.0011979 -0.00074922 -0.0074959 0.009502
0.20972 0.13201 -0.0042515 0.0088508
-0.00022637 0.00053033 -0.00055264 -0.00055056 -0.00022507 -0.00017724 0.0022513 -0.0011061
-0.0042658 0.0088729 0.26264 0.19367
1700000000 0.29211 -0.030001 0.0019179 0.0088353 -0.0032468 0.00020236 0.0029642 -0.0012863
-0.0019197 -0.00062818 0.00065311 0.00038127
0.0019129 0.0088278 0.22755 0.23843 0.0037225 0.00076688 -0.0014968 -0.00042554
-0.00081513 0.00020224 -0.00086616 -0.00035724
-0.0032345 0.00021809 0.0037331 0.00075742 0.26104 -0.20037 0.0006634 0.0015012
-0.0017688 -0.00016598 -0.00056377 -0.00077736
0.0029505 -0.0012847 -0.0015062 -0.00041822 0.00065544 0.0015022 0.24081 -0.00286
-0.0043696 0.010266 0.0011705 -0.0021676
-0.0019317 -0.00062827 -0.00081421 0.00020978 -0.001775 -0.00015514 -0.0043468 0.010276
0.2256 0.11035 4.6121e-05 0.0092217
0.00066596 0.0003813 -0.0008656 -0.00035399 -0.00057879 -0.00077883 0.0011746 -0.0021731
3.9689e-05 0.0092304 0.27685 0.15786
1760000000 0.27851 -0.078524 0.0039781 0.0057833 -0.0020577 0.00090504 0.0010572 -0.0034201
-0.0013557 0.00073139 0.00044107 -0.00044551
0.0039716 0.0057868 0.25268 0.19772 0.0016635 -0.0010726 -0.0011723 0.0003255
-0.00096053 0.00096916 -0.00055828 0.00050747
-0.00205 0.00089592 0.0016534 -0.0010802 0.21174 -0.23402 0.001374 0.00088513
-0.0011837 0.0015985 -0.0013148 -0.00028576
0.0010651 -0.0034399 -0.0011808 0.00033456 0.0013672 0.0008835 0.23065 -0.052275
-0.0007288 0.0096182 -0.0005397 -0.0023191
-0.0013469 0.00074554 -0.00096513 0.0009676 -0.0011825 0.0015993 -0.0007027 0.0096221
0.23843 0.074178 0.0034796 0.0066672
0.00044098 -0.00044812 -0.00055539 0.00051636 -0.0013125 -0.00028974 -0.00053955 -0.0023124
0.0034884 0.0066748 0.28692 0.1191
1820000000 0.2524 -0.11536 0.0040683 0.002424 4.1228e-05 0.002324 -0.0011477 -0.0028763
-0.0010185 0.0010726 2.4056e-05 -5.8045e-05
0.0040621 0.0024296 0.26176 0.16745 -0.00016233 -4.4186e-06 -0.0011212 0.0010327
7.0905e-05 0.0013423 -0.00047669 0.00056359
6.3504e-05 0.0023373 -0.00015837 2.19e-06 0.16102 -0.24891 0.001352 6.8589e-06
-6.8086e-05 0.0021159 -0.0013055 0.00045158
-0.0011747 -0.0028577 -0.0011192 0.0010342 0.0013551 1.9111e-06 0.20091 -0.097312
0.0012742 0.0078363 -0.0016187 -0.0011887
-0.0010241 0.0010807 7.6399e-05 0.0013328 -6.2006e-05 0.0021179 0.001302 0.0078451
0.25369 0.044272 0.0044104 0.0034581
2.8738e-05 -6.1357e-05 -0.00047536 0.0005579 -0.001313 0.00045418 -0.0016177 -0.0011951
0.0044245 0.0034644 0.28698 0.081936
1880000000 0.2157 -0.15503 0.0018757 0.00031447 -0.00036981 0.0018546 -0.0028988 -0.0019201
-0.0001326 0.0016911 0.00022582 -0.00049038
0.0018867 0.00032247 0.26532 0.12048 -0.0022605 0.0016154 2.7099e-05 0.0016109
0.00072335 0.0010543 0.00023116 0.00087365
-0.00035333 0.0018482 -0.0022587 0.0016268 0.10788 -0.25877 0.0014107 -0.0010918
0.0016223 0.0016653 -0.00077396 0.001318
-0.0029095 -0.0019095 2.1917e-05 0.0016038 0.0014097 -0.0010817 0.16133 -0.1366
0.0022614 0.0054614 -0.0020996 0.00053367
-0.00012289 0.0016966 0.00072587 0.0010578 0.0016411 0.0016628 0.0022943 0.0054381
0.25455 0.010455 0.0042011 0.0015657
0.00022441 -0.00049554 0.00023879 0.00087834 -0.00077368 0.0013336 -0.0021034 0.00053425
0.0042123 0.0015581 0.28445 0.047316
1940000000 0.17538 -0.17967 -0.00024914 -0.0011062 0.0013917 0.0018494 -0.0035717 0.00068423
0.0015043 0.0010944 -0.00057783 -0.00066081
-0.00024912 -0.0011022 0.2647 0.088979 -0.0010485 0.0039638 0.0010384 0.0010377
0.001786 0.00029312 0.00088281 0.00032402
0.0013614 0.0018548 -0.0010308 0.0039737 0.061688 -0.25098 0.00013103 -0.0017101
0.0023327 0.00024527 0.00041456 0.0016325
-0.0035729 0.00069938 0.0010383 0.0010298 0.00012852 -0.0017142 0.10993 -0.16624
0.0015978 0.0037213 -0.0011806 0.001536
0.001507 0.0010648 0.0017844 0.00028886 0.0023322 0.00022867 0.0016134 0.0036907
0.25414 -0.029066 0.0032211 -0.0011942
-0.00058379 -0.00065184 0.00087643 0.0003237 0.00041459 0.0016032 -0.0012128 0.0015235
0.0032148 -0.0012236 0.27139 0.011132
2000000000 0.12874 -0.19335 -0.0039324 0.0010045 0.0024217 0.001382 -0.0021858 0.0033331
0.0012387 -3.9769e-05 -0.00066724 0.00038767
-0.0039327 0.0009876 0.25002 0.053576 -0.0008135 0.0057311 0.001455 0.00015171
0.0011965 -0.0013628 0.00041539 -5.88e-05
0.0024305 0.0013758 -0.00079159 0.0057295 0.018323 -0.23623 -0.0010992 -0.0010115
0.0017783 -0.0011587 0.0017366 0.0010083
-0.0021644 0.0033364 0.0014551 0.00013773 -0.001107 -0.0010163 0.057564 -0.17671
-0.00012736 0.0029753 0.00011858 0.0020389
0.0012473 -4.2168e-05 0.0011872 -0.0013635 0.001763 -0.0011537 -0.00012473 0.002964
0.24604 -0.063478 0.00046401 -0.0022582
