!Keysight Technologies,M9804A,MY58100912,A.14.10.03
!Date: Thursday, April 27, 2023 10:28:33
!Correction: S11(C  6-Port  ) 
!S12(C  6-Port  ) 
!S13(C  6-Port  ) 
!S14(C  6-Port  ) 
!S15(C  6-Port  ) 
!S16(C  6-Port  ) 
!S21(C  6-Port  ) 
!S22(C  6-Port  ) 
!S23(C  6-Port  ) 
!S24(C  6-Port  ) 
!S25(C  6-Port  ) 
!S26(C  6-Port  ) 
!S31(C  6-Port  ) 
!S32(C  6-Port  ) 
!S33(C  6-Port  ) 
!S34(C  6-Port  ) 
!S35(C  6-Port  ) 
!S36(C  6-Port  ) 
!S41(C  6-Port  ) 
!S42(C  6-Port  ) 
!S43(C  6-Port  ) 
!S44(C  6-Port  ) 
!S45(C  6-Port  ) 
!S46(C  6-Port  ) 
!S51(C  6-Port  ) 
!S52(C  6-Port  ) 
!S53(C  6-Port  ) 
!S54(C  6-Port  ) 
!S55(C  6-Port  ) 
!S56(C  6-Port  ) 
!S61(C  6-Port  ) 
!S62(C  6-Port  ) 
!S63(C  6-Port  ) 
!S64(C  6-Port  ) 
!S65(C  6-Port  ) 
!S66(C  6-Port  ) 
!S6P File: Measurement: :
# Hz S  RI   R 50
500000000 -0.33908 -0.018402 -0.010498 -0.0033162 -0.0071772 0.012254 -0.0028391 0.012346
0.011363 0.0039513 -0.0020313 0.0088468
-0.010472 -0.0032376 -0.4193 -0.036363 0.0065817 -0.011838 0.0019731 0.012623
0.0066515 0.0023855 0.0022889 0.013509
-0.0071606 0.012253 0.0066161 -0.011827 -0.2623 0.22199 0.0074201 0.0036411
-0.00071696 0.0086495 0.0026278 0.011839
-0.0028644 0.012303 0.0020506 0.012718 0.0074714 0.0036352 -0.33024 0.062687
-0.019391 -0.0064967 0.015261 0.023788
0.011371 0.003959 0.0066239 0.0022448 -0.00078949 0.0086361 -0.01937 -0.0064928
-0.23559 -0.16489 -0.025429 0.0043347
-0.0020717 0.0088034 0.0024486 0.013602 0.0026603 0.011796 0.015258 0.023786
-0.025489 0.0043996 -0.28403 -0.079423
560000000 -0.31159 0.13718 -0.026728 -0.06053 0.00092991 0.01104 0.0054504 0.0095404
0.0090211 0.0038597 0.010632 0.0063462
-0.026694 -0.060464 -0.3749 0.11699 -0.041937 -0.03421 0.013787 0.0035772
-0.012283 -0.0035568 0.003179 -0.00087025
0.00093733 0.011007 -0.041965 -0.034151 -0.18029 0.26657 -0.00058504 -0.0047004
0.018393 0.0035907 0.0069983 -0.0063278
0.0055375 0.0094951 0.013605 0.003486 -0.0005522 -0.0047747 -0.30403 0.14785
0.00085278 -0.02448 0.0031199 -0.018247
0.00901 0.0038584 -0.012329 -0.0035432 0.018415 0.0035868 0.0008366 -0.024478
-0.28668 0.0084722 0.002959 -0.046862
0.010722 0.0063101 0.0030697 -0.00096207 0.0070726 -0.0063324 0.0031295 -0.018211
0.0030516 -0.046892 -0.3297 0.059374
620000000 -0.26977 0.12274 -0.023329 0.0068869 0.0036933 0.0076073 0.0081514 -0.00545
0.010055 -0.0012338 0.00054719 -0.0019909
-0.023313 0.0068896 -0.40111 0.0733 -0.019549 0.00015956 -0.00092581 -0.0022191
0.0097085 -0.0064869 0.0014546 -0.0030827
0.0037289 0.0076018 -0.019543 0.00020446 -0.14964 0.27655 -0.001315 -0.0048619
-0.003346 -0.0026611 0.0082936 -0.0040748
0.0081262 -0.0054175 -0.0009363 -0.0022453 -0.0013317 -0.0049349 -0.26215 0.15983
-0.038948 -0.017444 0.012082 0.023142
0.010054 -0.0012553 0.009733 -0.006538 -0.0033038 -0.0025608 -0.038985 -0.017412
-0.21052 -0.028922 -0.038197 0.014552
0.00050879 -0.0019045 0.0014702 -0.0030983 0.008356 -0.0039962 0.012249 0.0232
-0.03835 0.014534 -0.256 0.03127
680000000 -0.22712 0.20404 -0.027894 -0.012207 0.0053369 0.0045083 0.0012542 -0.0071169
-0.0029918 -0.011 0.0039453 -0.0067152
-0.027846 -0.012225 -0.38431 0.16733 -0.032267 0.00039829 -0.0014868 -0.0005016
-0.002472 -0.0086608 -0.0015583 -0.0020296
0.0053489 0.0044903 -0.032281 0.00045264 -0.09851 0.29418 -0.00093811 -0.00027512
-0.0017204 0.00016955 -0.0036997 -0.0085127
0.001222 -0.0071016 -0.0014746 -0.00054095 -0.00091893 -0.00029462 -0.21672 0.20695
-0.025531 -0.0055265 -0.0090163 -0.0083138
-0.0029946 -0.010987 -0.0025154 -0.0086734 -0.0017415 0.00013959 -0.025563 -0.0055154
-0.24892 0.067007 -0.0071809 -0.0073361
0.0039187 -0.0067247 -0.0015918 -0.0020292 -0.0037007 -0.0085354 -0.0089965 -0.0083674
-0.0072088 -0.0073473 -0.25342 0.12571
740000000 -0.1844 0.19923 -0.036851 0.025875 0.011808 -0.005772 -0.00084073 -0.0040184
-0.0050961 -0.0028841 -0.0059336 0.0035832
-0.036872 0.025798 -0.33303 0.1874 -0.032804 0.03483 -0.00098544 -0.0061469
-0.011283 0.0079321 -0.0016513 -0.0046204
0.011818 -0.0057917 -0.03277 0.034921 -0.064948 0.29413 -0.0016913 0.0029931
-0.0032312 -0.0046423 -0.002244 0.0013838
-0.00086512 -0.0040189 -0.00099159 -0.0061317 -0.0016621 0.002986 -0.199 0.21601
-0.04185 -0.0036676 0.021692 0.012333
-0.0049484 -0.0028221 -0.011353 0.0079741 -0.0032526 -0.0046707 -0.041878 -0.0036142
-0.1576 0.088054 -0.038582 0.0033963
-0.0059999 0.0035611 -0.0016821 -0.0046863 -0.0022792 0.0014436 0.021764 0.01225
-0.038597 0.0033347 -0.24164 0.13543
800000000 -0.15055 0.23616 -0.021634 0.017462 0.0043389 -0.010338 -0.0043193 -0.0016661
-0.003882 0.002972 0.0038107 0.00089848
-0.02162 0.017447 -0.33278 0.25541 -0.0066542 0.033469 -0.002249 0.0023149
-0.00062565 0.0032768 0.0010979 0.005347
0.0043363 -0.010331 -0.0065937 0.033484 -0.021831 0.31581 0.00089008 0.0015417
0.00029442 0.0035512 -0.0019039 0.001242
-0.004313 -0.0016229 -0.0022669 0.0023088 0.00090753 0.0015534 -0.1688 0.24217
-0.026753 0.016074 0.012253 -0.010003
-0.0039072 0.0029654 -0.00062086 0.0032617 0.00028392 0.0035595 -0.026739 0.016125
-0.19451 0.11501 -0.01569 0.018516
0.0037402 0.00089176 0.0011387 0.0053167 -0.001914 0.0012784 0.012277 -0.010045
-0.015739 0.018488 -0.22851 0.1809
860000000 -0.11578 0.25641 -0.016004 0.031158 -0.0039618 -0.0092586 -0.0022712 0.0015314
0.0044186 0.004962 -0.0025758 -0.0024236
-0.016012 0.031117 -0.2856 0.29672 0.00915 0.032995 0.00026428 0.0024004
0.0046804 0.00063337 0.0033101 0.00055731
-0.0039738 -0.0092499 0.0092224 0.032985 0.026574 0.32264 -0.00033404 4.2223e-05
0.0025077 -0.0011614 0.0016771 0.0041377
-0.0022589 0.0015467 0.00028001 0.0024134 -0.00035337 4.0098e-05 -0.13221 0.25294
-0.015237 0.021006 -0.005653 -0.008997
0.0044488 0.0049544 0.0047037 0.00065798 0.0024828 -0.0011604 -0.015219 0.021069
-0.14229 0.16099 -0.02164 0.016267
-0.0025945 -0.0024081 0.0032556 0.000553 0.0017124 0.0041384 -0.0056931 -0.0089566
-0.021665 0.016269 -0.17946 0.22101
920000000 -0.088895 0.27818 0.0062882 0.03691 -0.009131 -0.0036069 -0.0013589 0.0019331
0.0019072 0.0017022 0.0028171 -0.0017576
0.0062754 0.036903 -0.2549 0.31726 0.028153 0.020195 0.0018429 0.00092912
0.0069693 -0.0005458 0.0034916 -0.0029369
-0.0091314 -0.0035903 0.028209 0.020133 0.074235 0.32253 0.0019941 -8.8991e-05
0.0016646 -0.00056019 0.0009866 -0.0011655
-0.0013602 0.0019192 0.0018407 0.00090544 0.002001 -0.00010312 -0.10587 0.26877
-0.007199 0.030522 0.002234 -0.0061338
0.0018848 0.0017123 0.0069711 -0.00056317 0.001662 -0.0005742 -0.0071527 0.030553
-0.12765 0.16613 -0.00042492 0.025067
0.0028019 -0.0017512 0.0034887 -0.0029231 0.00099189 -0.0011011 0.0022341 -0.0061042
-0.00048118 0.02507 -0.17844 0.23618
980000000 -0.041687 0.29575 0.018662 0.02842 -0.0081937 0.0048044 0.0022221 0.0029656
0.0039083 -0.0022047 -0.0032637 -0.0019885
0.018631 0.02841 -0.20276 0.34921 0.03224 0.0031479 0.0020774 -0.00040384
0.0014767 -0.0063229 -0.00072095 -0.0023395
-0.0081797 0.0048116 0.032269 0.003053 0.1208 0.31414 0.00051656 -0.0013033
4.1986e-05 -0.0022199 0.0013958 -0.00017775
0.0022304 0.0029623 0.0020867 -0.00041542 0.00051225 -0.0013029 -0.06681 0.27801
0.010437 0.027896 -0.0085496 -0.0058157
0.0038932 -0.0021859 0.0014433 -0.006303 4.2422e-05 -0.0022162 0.010487 0.027894
-0.097178 0.19019 0.0061411 0.01862
-0.0032605 -0.0019635 -0.00074623 -0.0023178 0.0013891 -0.0001787 -0.0085305 -0.0058123
0.0061349 0.018646 -0.13381 0.27387
1040000000 0.0014203 0.30304 0.032833 0.015719 -0.00099654 0.0065437 0.0024062 0.00043451
-9.931e-05 -0.0033004 -0.0007212 -0.0013874
0.032807 0.015726 -0.16674 0.36223 0.027454 -0.015555 0.0012795 -0.0017932
-0.0023672 -0.0025001 -0.0014883 -0.0028027
-0.00099679 0.0065635 0.027421 -0.015651 0.16724 0.29937 -0.00067371 -0.001491
-0.0015568 -0.0009035 -0.00040205 -0.0011224
0.0024033 0.00044434 0.0012711 -0.0018073 -0.00066938 -0.0014845 -0.038004 0.2872
0.020615 0.01535 -0.0027454 0.0013107
-0.00010638 -0.0033141 -0.0023738 -0.0024838 -0.0015628 -0.00090523 0.020649 0.015319
-0.065019 0.19655 0.013726 0.015574
-0.00071716 -0.0013924 -0.0014884 -0.0027917 -0.00040454 -0.0011126 -0.0027318 0.0013066
0.013697 0.015547 -0.10829 0.29279
1100000000 0.047175 0.30885 0.034326 -0.0057252 0.0028153 0.0035546 0.0022108 -0.0011344
-0.0022677 -0.0027239 -0.0034686 0.00052641
0.034308 -0.005715 -0.12305 0.37819 0.013343 -0.027327 -0.0001425 -0.0017645
-0.0033819 -0.00044649 -0.0032446 -0.00022192
0.0028224 0.0035543 0.01328 -0.027382 0.21395 0.27702 -0.001806 0.00019235
-0.0017628 0.00065001 -0.00091627 -0.00030737
0.002205 -0.0011076 -0.00016141 -0.0017641 -0.0018074 0.00018981 0.0035989 0.28973
0.024002 0.0023576 -0.0023765 0.00028434
-0.0022753 -0.0027017 -0.003402 -0.00043167 -0.0017552 0.0006524 0.024027 0.0023149
-0.046033 0.20798 0.018117 0.0064042
-0.0034837 0.00051887 -0.0032451 -0.00021152 -0.00090505 -0.00031925 -0.002373 0.00028555
0.018103 0.0064024 -0.06147 0.3165
1160000000 0.098065 0.30254 0.021979 -0.021264 0.0023771 -0.00042938 -6.6086e-05 -0.0021764
-0.0038752 -0.00043251 -0.00055379 0.0036926
0.021986 -0.021232 -0.078703 0.38156 -0.0048632 -0.027694 -0.0016262 -0.0015281
-0.0024714 0.0023768 -0.0012534 0.0017537
0.0023657 -0.00044035 -0.0049472 -0.027707 0.25607 0.24451 -0.00078533 0.0016773
-0.00050865 0.0018442 -0.00079233 0.00021301
-8.7791e-05 -0.0021677 -0.0016175 -0.0015345 -0.00078751 0.0016825 0.043083 0.28463
0.019696 -0.012184 -0.0029241 0.0044387
-0.0038797 -0.00039964 -0.0024621 0.0024305 -0.0005017 0.0018308 0.019687 -0.012217
-0.012183 0.21535 0.016614 -0.0019454
-0.00055101 0.0036942 -0.0012467 0.0017676 -0.00078714 0.00021437 -0.002925 0.0044573
0.016624 -0.0019519 -0.014705 0.31657
1220000000 0.14291 0.28926 0.0084181 -0.029236 -0.0014782 -0.00044518 8.4845e-05 -0.00096875
-0.0023401 0.0023947 0.0013773 0.0018461
0.0084378 -0.029201 -0.034491 0.39207 -0.016942 -0.019461 -0.0023913 0.00046596
0.00016539 0.0027905 -0.00050795 0.0018671
-0.0014795 -0.00042572 -0.017002 -0.019424 0.29472 0.20445 0.00077966 0.0018023
0.00062792 0.0011848 0.00029485 0.00053378
7.2239e-05 -0.00095599 -0.0023851 0.00047513 0.00079362 0.0018 0.083434 0.2736
0.0086899 -0.018037 0.0016039 0.0014265
-0.0023286 0.0024057 0.00017545 0.0027903 0.00064132 0.0011951 0.0086725 -0.018065
0.011893 0.22209 0.011569 -0.013126
0.0014118 0.0018306 -0.00046732 0.0018813 0.00030373 0.00054702 0.0016131 0.0014236
0.011544 -0.013137 0.019028 0.32789
1280000000 0.19141 0.26538 -0.0088751 -0.026826 -0.0014878 0.0026063 -0.00098041 -0.0019156
-0.00056391 0.0028995 0.0022754 0.0008787
-0.0088525 -0.026796 0.010976 0.38207 -0.022922 -0.007352 -0.00094846 0.0013788
0.0016049 0.0016108 0.00069752 0.0017589
-0.0014831 0.0026178 -0.02296 -0.0072908 0.32435 0.15926 0.0015846 1.496e-05
0.0010413 0.00022825 0.00016462 0.00024222
-0.0009842 -0.0019125 -0.00093719 0.0013785 0.0015737 1.9713e-05 0.11912 0.25449
-0.0007158 -0.01913 -0.00032938 0.00031843
-0.00055069 0.002895 0.0016217 0.0015962 0.0010372 0.00021607 -0.00074665 -0.019135
0.048205 0.22337 0.0014303 -0.014618
0.0022723 0.00087476 0.0007104 0.0017597 0.00016029 0.000233 -0.00033417 0.00031167
0.0014405 -0.01462 0.064782 0.32538
1340000000 0.22775 0.23026 -0.017675 -0.017161 0.0012897 0.0041406 -0.0016558 -0.00083172
0.0014663 0.0024354 0.0014054 -0.0014168
-0.017649 -0.017151 0.050224 0.37293 -0.02041 0.004772 -0.0001401 0.0019907
0.0018384 0.00067216 0.0013048 0.00063603
0.001302 0.0041358 -0.020405 0.0048486 0.34533 0.11103 0.0012021 -0.00096846
0.0006419 -0.00051639 7.6179e-05 0.00020086
-0.0016684 -0.00083399 -0.00013453 0.0019881 0.0012052 -0.00098245 0.15036 0.23236
-0.0097772 -0.015755 0.00062199 0.0009817
0.0014901 0.0024292 0.0018512 0.0006589 0.00064394 -0.00052132 -0.0098179 -0.01574
0.077763 0.21687 -0.0050389 -0.012522
0.0014116 -0.0014182 0.0013233 0.00062169 9.3244e-05 0.00018519 0.0006179 0.00096991
-0.0050507 -0.012517 0.10344 0.317
1400000000 0.25944 0.19076 -0.022366 -0.0061026 0.0050869 0.0025448 -0.0020335 0.00059058
0.0023043 0.00067996 0.00013245 -0.00132
-0.022342 -0.0061093 0.086891 0.35916 -0.013704 0.012093 0.0013118 0.0013599
0.0011514 -0.00077456 0.0010907 0.00011737
0.0051039 0.0025298 -0.013669 0.012151 0.35793 0.056688 0.00013283 -0.0017473
9.6993e-05 -0.00032234 0.00035966 0.00016657
-0.0020366 0.00060386 0.0013128 0.0013545 0.00013543 -0.001736 0.17854 0.20163
-0.014994 -0.0088985 -0.00033657 0.0002736
0.0022933 0.00066217 0.0011501 -0.00076994 0.00010543 -0.00032756 -0.015019 -0.0088645
0.11005 0.21017 -0.010473 -0.0074792
0.00011962 -0.0013154 0.001086 0.00010518 0.00037889 0.00017063 -0.00034066 0.00027921
-0.010476 -0.0074797 0.14598 0.30206
1460000000 0.28073 0.14622 -0.019162 0.005152 0.0051818 -0.0021981 -0.0015094 0.0016172
0.0019172 -0.00062583 -0.00039605 -0.00083276
-0.019151 0.0051371 0.1207 0.33686 -0.0055694 0.014467 0.0017449 0.00013092
0.00080254 -0.0012376 0.0010531 -0.00058785
0.0051801 -0.0022156 -0.0055132 0.014494 0.36242 0.0019873 -0.0013954 -0.0013432
0.00013848 -0.00021027 0.0005921 -0.00027508
-0.0015081 0.0016261 0.001744 0.00014818 -0.0013956 -0.0013546 0.20251 0.17121
-0.015847 -0.0023735 -0.00027372 0.0019682
0.0019058 -0.00064263 0.00078616 -0.0012482 0.0001434 -0.00020818 -0.015865 -0.0023355
0.13829 0.19368 -0.011607 -0.0017872
-0.00038983 -0.00084086 0.0010407 -0.00062349 0.0006033 -0.00025863 -0.00027847 0.0019777
-0.011596 -0.001788 0.17784 0.27908
1520000000 0.29187 0.10365 -0.013474 0.010099 0.0027925 -0.0040943 7.6504e-05 0.0025415
0.0018381 -0.0016659 -0.0010571 -3.7753e-05
-0.013483 0.010084 0.15396 0.32148 0.0014787 0.012366 0.0016873 -0.00088471
5.0107e-05 -0.0010632 0.00026168 -0.00093797
0.0027798 -0.0041032 0.0015343 0.012365 0.35503 -0.05455 -0.0013096 -0.00034527
0.00053343 -0.00087811 -3.2924e-05 -0.00014617
8.4952e-05 0.0025337 0.0016845 -0.00088977 -0.0013216 -0.00034092 0.22351 0.13285
-0.01492 0.0032406 0.001832 0.0017328
0.00184 -0.0016781 3.6598e-05 -0.0010609 0.00052334 -0.00087782 -0.014927 0.0032799
0.16564 0.17795 -0.011191 0.0023874
-0.001047 -2.8513e-05 0.0002536 -0.00093685 -3.8969e-05 -0.00013529 0.0018371 0.001747
-0.01119 0.0023844 0.2096 0.25554
1580000000 0.29972 0.05713 -0.0073156 0.012671 -0.0011518 -0.0044552 0.0014345 0.0018434
-0.00021133 -0.0020093 -0.00024534 0.00038505
-0.0073149 0.012657 0.18075 0.29605 0.0047857 0.0078027 0.00041817 -0.0017066
-0.00052205 -0.0010369 -0.00024883 -0.000801
-0.0011752 -0.0044531 0.0048181 0.0077962 0.33398 -0.11228 -0.0016916 0.00088643
-0.00030882 -0.0010539 0.00018117 -0.00053853
0.0014497 0.0018338 0.00040387 -0.0017196 -0.0016797 0.00088271 0.23501 0.093443
-0.011592 0.0079457 0.0023216 0.00023001
-0.00020958 -0.002034 -0.00052537 -0.0010435 -0.00030043 -0.0010567 -0.011579 0.0079675
0.18857 0.15792 -0.0086721 0.0073518
-0.00025882 0.00038844 -0.00025449 -0.00079722 0.00018033 -0.00052502 0.0023313 0.00023007
-0.0086619 0.0073556 0.23896 0.22658
1640000000 0.30048 0.015621 -0.0011756 0.011477 -0.0026933 -0.0022369 0.0027112 0.00095214
-0.00076353 -0.0014553 -0.000234 0.00053945
-0.0011821 0.011472 0.20986 0.27047 0.005418 0.0035395 -0.00088397 -0.0016552
-0.0010776 -0.0003726 -0.00055319 -0.00055502
-0.0027026 -0.0022224 0.0054302 0.0035114 0.30433 -0.16061 -0.0006323 0.0016175
-0.0012076 -0.00077015 -0.00021656 -0.00018707
0.0027118 0.0009355 -0.00088794 -0.0016617 -0.00066013 0.0016059 0.2452 0.04572
-0.0073607 0.0095292 0.0023106 -0.0011516
-0.00076112 -0.0014448 -0.0010797 -0.0003752 -0.0012093 -0.00078014 -0.0073447 0.0095523
0.20974 0.13223 -0.0042047 0.00906
-0.00023934 0.00055669 -0.00055831 -0.00055383 -0.00019735 -0.0001952 0.0023189 -0.0011493
-0.0042 0.0090611 0.26252 0.19364
1700000000 0.292 -0.029972 0.0019224 0.0088452 -0.0031987 0.0002262 0.0029851 -0.0012794
-0.0019489 -0.00060455 0.00066172 0.00039318
0.0019183 0.008843 0.22754 0.23846 0.0037187 0.00079393 -0.0015087 -0.00042171
-0.00080866 0.00020705 -0.00086824 -0.00035512
-0.0032021 0.00023331 0.0037227 0.00077723 0.26118 -0.20038 0.00068196 0.0015066
-0.0017682 -0.00012389 -0.00058654 -0.0007728
0.0029683 -0.0012882 -0.0015157 -0.00041239 0.00067449 0.0015089 0.24077 -0.0028104
-0.0042226 0.010244 0.0011964 -0.0022344
-0.0019554 -0.00061114 -0.00080187 0.00021189 -0.0017928 -0.00012269 -0.0042058 0.010267
0.22565 0.11056 0.00017455 0.0093685
0.00067496 0.00039869 -0.00087096 -0.00034916 -0.00057002 -0.00077778 0.0011976 -0.002245
0.00017651 0.009358 0.27673 0.15785
1760000000 0.2784 -0.078395 0.0039783 0.00578 -0.00203 0.00089004 0.0010524 -0.0034554
-0.001349 0.00073987 0.0004593 -0.00043315
0.0039683 0.0057808 0.2527 0.19778 0.0016641 -0.0010624 -0.0011821 0.00032246
-0.0009651 0.00095474 -0.00056091 0.00051887
-0.0020333 0.00088972 0.0016822 -0.0010713 0.21174 -0.23406 0.0013593 0.00086309
-0.0011601 0.0015755 -0.0013159 -0.00030746
0.0010515 -0.0034469 -0.0011731 0.0003279 0.0013648 0.00087096 0.23062 -0.0522
-0.00061495 0.0094984 -0.00053892 -0.0023925
-0.0013468 0.00075792 -0.00096208 0.00095472 -0.0011492 0.0015842 -0.00060026 0.009507
0.23857 0.074321 0.0036637 0.0067525
0.00045747 -0.00044484 -0.00056065 0.00051214 -0.0013071 -0.00031413 -0.00054083 -0.0023939
0.0036669 0.0067438 0.28684 0.11911
1820000000 0.25234 -0.1152 0.0040802 0.0024389 1.0387e-05 0.0023366 -0.0011739 -0.0028691
-0.0010057 0.0010789 3.728e-05 -8.7213e-05
0.0040746 0.0024379 0.26181 0.16751 -0.00014293 -4.5974e-06 -0.0011193 0.0010237
6.0279e-05 0.0013138 -0.00047448 0.00055872
2.8558e-05 0.0023415 -0.00015138 -1.4668e-05 0.16112 -0.24878 0.0013773 2.0086e-05
-4.5242e-05 0.0021142 -0.0013028 0.00047413
-0.0012036 -0.0028579 -0.0011142 0.0010319 0.0013482 4.7982e-05 0.20095 -0.097223
0.0013208 0.0077315 -0.0016577 -0.0012299
-0.0010008 0.001075 6.8318e-05 0.0013101 -3.655e-05 0.0021215 0.0013402 0.0077402
0.25388 0.044368 0.0046008 0.0034392
5.0408e-05 -8.184e-05 -0.00047147 0.00056806 -0.0013125 0.000483 -0.001664 -0.0012439
0.0045937 0.0034298 0.28687 0.08199
1880000000 0.21576 -0.1548 0.0018701 0.00033475 -0.00035812 0.0018494 -0.0029217 -0.0019216
-0.00011402 0.0016786 0.00021373 -0.00049282
0.0018792 0.00033274 0.2654 0.12049 -0.0022707 0.0015943 1.6666e-05 0.0016058
0.00070484 0.0010573 0.0002118 0.00088574
-0.00035936 0.0018503 -0.0022698 0.0015944 0.10795 -0.25885 0.0014143 -0.0010915
0.0016205 0.0016911 -0.00077809 0.0013362
-0.0029251 -0.0019206 2.9967e-05 0.0016129 0.0014303 -0.0011018 0.16139 -0.13657
0.0022691 0.005328 -0.0021611 0.00052766
-0.00011555 0.0016803 0.00071025 0.0010506 0.0016047 0.0017146 0.0022846 0.0053268
0.25472 0.010486 0.0043461 0.0014808
0.00020681 -0.00050997 0.00022204 0.00086744 -0.00077104 0.0013466 -0.0021597 0.00052518
0.0043354 0.0014755 0.28437 0.047427
1940000000 0.17554 -0.17954 -0.00024368 -0.0011375 0.001337 0.0017819 -0.0035614 0.00069378
0.0014991 0.0010881 -0.00060346 -0.00066155
-0.00024517 -0.0011296 0.26477 0.088974 -0.0010549 0.0039387 0.0010462 0.0010507
0.0017733 0.00031692 0.00088256 0.0003082
0.0013389 0.0017989 -0.0010449 0.0039664 0.061646 -0.25096 0.00011529 -0.0017102
0.0023051 0.00020204 0.00040651 0.0016022
-0.0035594 0.00069566 0.0010602 0.0010506 0.0001345 -0.0017162 0.10994 -0.16625
0.0015104 0.0036052 -0.0012567 0.0015472
0.0015135 0.0010605 0.0017793 0.0003121 0.0023083 0.00021114 0.0015225 0.0035962
0.2543 -0.029084 0.0033333 -0.0013222
-0.00060051 -0.00064396 0.00088978 0.00031119 0.00037069 0.001625 -0.0012573 0.0015444
0.0033298 -0.00132 0.27138 0.011225
2000000000 0.12892 -0.19328 -0.0039485 0.00099307 0.0024341 0.0014062 -0.0021898 0.0033509
0.001207 -2.4873e-05 -0.00066911 0.00041047
-0.0039368 0.00098897 0.25005 0.053557 -0.00080063 0.0057197 0.001487 0.00014058
0.0012202 -0.0013337 0.00041138 -3.6639e-05
0.0024618 0.0014014 -0.00076419 0.0057303 0.018478 -0.23615 -0.0010635 -0.00096484
0.001761 -0.0011292 0.0017347 0.0010406
-0.0021758 0.0033599 0.0014789 0.00013193 -0.0010476 -0.00095127 0.057619 -0.17673
-0.00022587 0.0029328 8.033e-05 0.0020783
0.001212 -2.9749e-05 0.0012133 -0.0013474 0.0017559 -0.0011559 -0.00022958 0.0029244
0.24615 -0.063598 0.00051073 -0.0023979
