!Keysight Technologies,M9804A,MY58100912,A.14.10.03
!Date: Thursday, April 27, 2023 10:28:33
!Correction: S11(C  6-Port  ) 
!S12(C  6-Port  ) 
!S13(C  6-Port  ) 
!S14(C  6-Port  ) 
!S15(C  6-Port  ) 
!S16(C  6-Port  ) 
!S21(C  6-Port  ) 
!S22(C  6-Port  ) 
!S23(C  6-Port  ) 
!S24(C  6-Port  ) 
!S25(C  6-Port  ) 
!S26(C  6-Port  ) 
!S31(C  6-Port  ) 
!S32(C  6-Port  ) 
!S33(C  6-Port  ) 
!S34(C  6-Port  ) 
!S35(C  6-Port  ) 
!S36(C  6-Port  ) 
!S41(C  6-Port  ) 
!S42(C  6-Port  ) 
!S43(C  6-Port  ) 
!S44(C  6-Port  ) 
!S45(C  6-Port  ) 
!S46(C  6-Port  ) 
!S51(C  6-Port  ) 
!S52(C  6-Port  ) 
!S53(C  6-Port  ) 
!S54(C  6-Port  ) 
!S55(C  6-Port  ) 
!S56(C  6-Port  ) 
!S61(C  6-Port  ) 
!S62(C  6-Port  ) 
!S63(C  6-Port  ) 
!S64(C  6-Port  ) 
!S65(C  6-Port  ) 
!S66(C  6-Port  ) 
!S6P File: Measurement: :
# Hz S  RI   R 50
500000000 -0.33913 -0.018574 -0.010381 -0.0032333 -0.007042 0.012198 -0.0028505 0.012303
0.011322 0.0037848 -0.0019409 0.008849
-0.010364 -0.0032304 -0.41934 -0.03629 0.0064723 -0.01177 0.0019323 0.01267
0.0067667 0.0024432 0.0021878 0.013618
-0.0070482 0.0122 0.0064737 -0.011802 -0.26234 0.22216 0.0074328 0.0036307
-0.00061585 0.0085883 0.0026784 0.011871
-0.0028607 0.012292 0.0019873 0.012685 0.0074424 0.0036314 -0.33028 0.062733
-0.019351 -0.0064693 0.01514 0.023812
0.011317 0.0037962 0.0067293 0.0024113 -0.00061095 0.0085935 -0.019366 -0.0064494
-0.23566 -0.16498 -0.025365 0.0044154
-0.0019256 0.0088142 0.0022324 0.013635 0.0026797 0.011879 0.015151 0.023822
-0.025365 0.0043869 -0.28418 -0.079298
560000000 -0.31156 0.13699 -0.026858 -0.060458 0.00089541 0.011036 0.0054807 0.0096633
0.0091852 0.0038827 0.010591 0.0063603
-0.026799 -0.060412 -0.37515 0.1172 -0.04192 -0.034215 0.013854 0.0034165
-0.012226 -0.0035819 0.0031839 -0.0008308
0.00091889 0.01106 -0.041927 -0.034262 -0.18037 0.26653 -0.00052948 -0.0046059
0.018388 0.0035544 0.0069702 -0.0062753
0.0054715 0.0096983 0.013902 0.0033359 -0.00053962 -0.0045956 -0.30404 0.14771
0.00084836 -0.024553 0.0031794 -0.018198
0.0092345 0.0038872 -0.012277 -0.0036226 0.018446 0.0035269 0.00086179 -0.024535
-0.28672 0.0085146 0.0031996 -0.046819
0.010586 0.0063761 0.0031829 -0.00085797 0.0069633 -0.0062495 0.0031781 -0.018205
0.0031909 -0.046815 -0.32972 0.059431
620000000 -0.26985 0.12256 -0.023278 0.0068162 0.0036499 0.0076637 0.0081233 -0.0054858
0.010029 -0.0012974 0.00061435 -0.0021299
-0.023266 0.0068318 -0.40112 0.073353 -0.01956 0.00020109 -0.0009913 -0.0022671
0.0098324 -0.0064648 0.0014833 -0.003039
0.0036454 0.0076482 -0.019588 0.00023845 -0.14955 0.27649 -0.0012708 -0.0048617
-0.0032828 -0.0026482 0.0084161 -0.0040129
0.0080905 -0.0054932 -0.0010152 -0.0023019 -0.0012833 -0.0048634 -0.26216 0.15997
-0.038961 -0.017481 0.012036 0.023133
0.010107 -0.0012798 0.0098358 -0.0064688 -0.0033225 -0.0026502 -0.038968 -0.017483
-0.21046 -0.028979 -0.038106 0.014409
0.00072466 -0.0021068 0.0014639 -0.0030534 0.0083553 -0.0040392 0.012067 0.023103
-0.038117 0.014405 -0.25614 0.031082
680000000 -0.2272 0.20393 -0.027818 -0.01221 0.0053952 0.0045372 0.0012386 -0.0071598
-0.0029957 -0.010999 0.003935 -0.0067584
-0.027789 -0.012216 -0.38434 0.16731 -0.032273 0.00039471 -0.0014821 -0.0005329
-0.0024799 -0.0086877 -0.0015183 -0.0019931
0.005401 0.00451 -0.032288 0.00044175 -0.098518 0.29423 -0.00091206 -0.00027455
-0.0017433 0.00015021 -0.0037022 -0.0085241
0.0012545 -0.0071363 -0.0014914 -0.000537 -0.00090164 -0.00028096 -0.21665 0.20689
-0.025478 -0.005587 -0.0090764 -0.0083009
-0.0030086 -0.010998 -0.0025145 -0.0086877 -0.0017284 0.0001486 -0.025506 -0.0055676
-0.24879 0.066994 -0.0070821 -0.0073094
0.0039252 -0.0067666 -0.0015207 -0.0019784 -0.003701 -0.0085351 -0.0090907 -0.0083125
-0.0070884 -0.0072962 -0.25337 0.12567
740000000 -0.18418 0.19923 -0.036857 0.025893 0.011757 -0.0057175 -0.00077292 -0.0040472
-0.0051745 -0.0027133 -0.0059932 0.0035167
-0.036852 0.025827 -0.33291 0.18734 -0.032813 0.03491 -0.00091788 -0.0061565
-0.011378 0.0079948 -0.0017145 -0.0045355
0.011746 -0.005754 -0.032758 0.035005 -0.064891 0.29412 -0.001751 0.003035
-0.0033094 -0.0046689 -0.0022535 0.0013654
-0.00079973 -0.0040348 -0.00095161 -0.0061905 -0.0017522 0.0030425 -0.19885 0.21599
-0.041906 -0.0036639 0.0217 0.012303
-0.0052101 -0.0027532 -0.011318 0.00807 -0.0033182 -0.0046739 -0.041943 -0.003612
-0.15756 0.087946 -0.038505 0.0032547
-0.0059598 0.0035389 -0.0016772 -0.0045514 -0.002256 0.0013671 0.021715 0.012295
-0.038467 0.0032384 -0.24154 0.13537
800000000 -0.15051 0.23618 -0.021615 0.017455 0.0043228 -0.010352 -0.0043393 -0.0016904
-0.0038624 0.0030157 0.0038414 0.00085507
-0.021612 0.01745 -0.33281 0.25542 -0.0066457 0.033484 -0.0022515 0.0022869
-0.00062299 0.0032973 0.0010891 0.0053493
0.0042948 -0.010347 -0.0066003 0.033497 -0.02181 0.31582 0.00090814 0.0015395
0.00030592 0.0035464 -0.0018968 0.0012361
-0.0043494 -0.0016881 -0.0022422 0.0022918 0.00090353 0.0015259 -0.16879 0.24217
-0.026775 0.016064 0.012226 -0.0099893
-0.0038233 0.0030313 -0.00062234 0.0032909 0.00031616 0.0035547 -0.026784 0.016134
-0.19454 0.11497 -0.015662 0.018518
0.0038387 0.00084702 0.0011039 0.0053665 -0.001901 0.0012507 0.012216 -0.010007
-0.015669 0.018491 -0.22855 0.18094
860000000 -0.11575 0.25635 -0.015968 0.03113 -0.0039536 -0.0092607 -0.0021746 0.0015068
0.0044214 0.0049688 -0.0025702 -0.0024713
-0.01597 0.031113 -0.28552 0.29673 0.0091417 0.033015 0.00033943 0.0023983
0.0047616 0.00057844 0.003254 0.00057774
-0.0039677 -0.0092297 0.0092119 0.032997 0.026574 0.32263 -0.00029854 6.7432e-05
0.0025777 -0.0011393 0.0016605 0.0040967
-0.0021529 0.0015119 0.00037669 0.0024123 -0.00029797 6.2942e-05 -0.13216 0.25299
-0.015273 0.020997 -0.0056204 -0.0089227
0.0044476 0.0049757 0.0048004 0.00057044 0.0025737 -0.0011649 -0.015263 0.021037
-0.14245 0.16088 -0.021635 0.016338
-0.002601 -0.0024447 0.0032306 0.00055027 0.0016513 0.0041041 -0.0056378 -0.008925
-0.021624 0.0163 -0.17952 0.22089
920000000 -0.088897 0.27816 0.0062792 0.036903 -0.0091279 -0.003613 -0.001335 0.0019622
0.0018827 0.0016674 0.0027559 -0.0017589
0.0062689 0.036886 -0.25489 0.31715 0.028156 0.020174 0.0017938 0.00094882
0.007008 -0.00050693 0.0034631 -0.0029766
-0.0091257 -0.0035804 0.028214 0.02011 0.07423 0.32253 0.0019864 -8.6518e-05
0.0016496 -0.00055491 0.00095783 -0.0011701
-0.001337 0.0019618 0.0018091 0.00093602 0.0019978 -8.9789e-05 -0.10586 0.26881
-0.0072445 0.030522 0.0021915 -0.0061175
0.0019002 0.0016667 0.0070179 -0.00053733 0.001649 -0.00055941 -0.0071889 0.030563
-0.1276 0.16614 -0.00043342 0.024938
0.0027682 -0.0017483 0.003454 -0.0030145 0.00096632 -0.0011679 0.0021903 -0.0061212
-0.00044428 0.024916 -0.17844 0.23599
980000000 -0.041646 0.29579 0.018647 0.028471 -0.0081616 0.0047817 0.0022542 0.0029898
0.0039228 -0.0022092 -0.0032803 -0.0020272
0.018619 0.028471 -0.20274 0.34924 0.032243 0.0031502 0.0020842 -0.00043037
0.001487 -0.0062594 -0.00072384 -0.0023417
-0.0081504 0.0048086 0.032281 0.0030667 0.1208 0.31413 0.00054606 -0.0012992
5.6894e-05 -0.0021927 0.0013855 -0.00018502
0.002262 0.0029877 0.0020918 -0.00042088 0.00054209 -0.001308 -0.066806 0.278
0.01038 0.027888 -0.0085671 -0.0057883
0.0038963 -0.0022179 0.0014651 -0.0062799 5.2933e-05 -0.0021784 0.010449 0.027894
-0.097286 0.19015 0.0061006 0.018574
-0.0032996 -0.0020205 -0.00070448 -0.0023288 0.0013862 -0.00018284 -0.0085718 -0.005773
0.0060854 0.018569 -0.13378 0.2738
1040000000 0.0014679 0.30298 0.032841 0.015741 -0.00097962 0.0065628 0.0024206 0.00044779
-0.00011475 -0.003308 -0.00070143 -0.001381
0.032823 0.015746 -0.16668 0.36217 0.027475 -0.015541 0.0012627 -0.0018093
-0.0023667 -0.0024336 -0.0015413 -0.0027921
-0.00097086 0.0065765 0.027437 -0.015624 0.1673 0.29936 -0.00067728 -0.0014857
-0.0015643 -0.00093075 -0.00042061 -0.0011413
0.0023983 0.00044966 0.0012819 -0.0018137 -0.00067454 -0.0014899 -0.038004 0.28719
0.020559 0.015358 -0.0027391 0.0012992
-0.00013416 -0.0032964 -0.0023965 -0.0024418 -0.0015775 -0.00093523 0.020613 0.015323
-0.065042 0.19655 0.013689 0.015602
-0.00072339 -0.001384 -0.001519 -0.0028023 -0.00041406 -0.001144 -0.002731 0.0013077
0.01367 0.015599 -0.10828 0.29283
1100000000 0.047163 0.30885 0.034308 -0.0057124 0.0027898 0.0035538 0.0022298 -0.0011401
-0.0022349 -0.0027244 -0.0034571 0.00050515
0.034294 -0.0056718 -0.12303 0.37817 0.013337 -0.027317 -0.00014821 -0.0017883
-0.0033885 -0.00043954 -0.0032751 -0.0001884
0.0027835 0.0035492 0.01327 -0.027372 0.21395 0.27698 -0.0017956 0.00019542
-0.0017468 0.00066628 -0.00091405 -0.00029043
0.0022225 -0.0011361 -0.00014814 -0.0017911 -0.0017905 0.00019209 0.00359 0.28974
0.023965 0.0023777 -0.0023995 0.00031563
-0.002252 -0.0027138 -0.0033939 -0.00043406 -0.0017566 0.0006686 0.02399 0.0023461
-0.046061 0.208 0.0181 0.0064226
-0.0034544 0.00051071 -0.003268 -0.00016826 -0.00091387 -0.00029426 -0.0024069 0.00032248
0.018082 0.0064166 -0.061416 0.31649
1160000000 0.09809 0.30253 0.021968 -0.021241 0.0023835 -0.00041031 -8.2454e-05 -0.0021756
-0.0038661 -0.00044717 -0.00056906 0.003658
0.021988 -0.021203 -0.078676 0.38151 -0.0048856 -0.027702 -0.0016435 -0.00154
-0.002471 0.002386 -0.0012683 0.001739
0.002381 -0.00040615 -0.0049692 -0.027707 0.25608 0.24454 -0.00080253 0.0017091
-0.00053998 0.0018341 -0.0007891 0.00017519
-8.8364e-05 -0.0021825 -0.001636 -0.001545 -0.00080157 0.0017087 0.043119 0.28466
0.019698 -0.012179 -0.002913 0.0044879
-0.0038728 -0.00043699 -0.0024656 0.0023934 -0.0005398 0.0018288 0.019698 -0.012205
-0.012188 0.21539 0.01664 -0.0018848
-0.0005668 0.0036635 -0.0012426 0.0017446 -0.00080519 0.00018429 -0.002915 0.0044763
0.016606 -0.0018872 -0.014711 0.31654
1220000000 0.14289 0.28923 0.0084142 -0.029219 -0.0014677 -0.00045294 6.5854e-05 -0.00094594
-0.0023433 0.0023819 0.0013843 0.0018391
0.0084324 -0.029176 -0.034509 0.39206 -0.016923 -0.019478 -0.0023922 0.00046668
0.00014004 0.0027951 -0.00050834 0.0018573
-0.0014747 -0.00045559 -0.016987 -0.01944 0.29475 0.20443 0.00076869 0.001807
0.00062182 0.0011794 0.00028437 0.00053684
6.7279e-05 -0.00094749 -0.0023962 0.00047401 0.00076849 0.0018033 0.083473 0.27362
0.0087181 -0.018002 0.0016384 0.0014194
-0.0023276 0.0023857 0.00016433 0.0028012 0.0006239 0.0011885 0.0087091 -0.018019
0.011944 0.22212 0.011602 -0.013084
0.0013755 0.0018307 -0.0005025 0.0018609 0.00028584 0.00053244 0.0016341 0.0014268
0.011595 -0.013085 0.019041 0.32796
1280000000 0.19144 0.26536 -0.0088658 -0.026806 -0.0014702 0.0026345 -0.00098997 -0.0019066
-0.00055743 0.0028852 0.0022867 0.00087174
-0.0088353 -0.026786 0.010987 0.38205 -0.022916 -0.007338 -0.00096294 0.0013844
0.0016123 0.0016125 0.00069024 0.0017384
-0.0014599 0.0026326 -0.022956 -0.0072761 0.32434 0.15922 0.0015833 1.3086e-05
0.0010285 0.00022761 0.00017435 0.00026562
-0.00098548 -0.0019068 -0.00095685 0.0013918 0.0015891 6.7751e-06 0.11915 0.2545
-0.00070578 -0.019115 -0.00032126 0.00032578
-0.00054737 0.0028907 0.0016221 0.0016007 0.0010341 0.0002288 -0.00073551 -0.019117
0.048196 0.22341 0.001493 -0.014574
0.0022821 0.0008683 0.00071392 0.0017284 0.00017426 0.00026822 -0.00032247 0.00032811
0.0014859 -0.014564 0.064798 0.32537
1340000000 0.22774 0.23027 -0.017648 -0.017149 0.001299 0.0041499 -0.0016753 -0.00082461
0.0014759 0.0024397 0.0014045 -0.0014209
-0.01762 -0.017145 0.050226 0.37292 -0.020411 0.0047527 -0.00013324 0.001975
0.0018403 0.00065303 0.0013045 0.00064092
0.0012956 0.0041278 -0.0204 0.0048194 0.3453 0.111 0.0012002 -0.00097185
0.00063852 -0.00050603 6.2279e-05 0.00021729
-0.001679 -0.00082241 -0.00012201 0.0019798 0.0011978 -0.00096253 0.15037 0.23234
-0.0097462 -0.015749 0.00061299 0.00094545
0.0014842 0.0024416 0.001842 0.00064269 0.00064344 -0.00050627 -0.0097849 -0.01574
0.077776 0.21691 -0.0049709 -0.012519
0.0013998 -0.0014332 0.0012988 0.00064612 6.016e-05 0.00021895 0.00061808 0.0009593
-0.0049634 -0.01251 0.1035 0.31702
1400000000 0.25945 0.19081 -0.022352 -0.006108 0.0050919 0.0025439 -0.0020303 0.00058895
0.0022943 0.00067121 0.00011546 -0.0013277
-0.02232 -0.0061265 0.086881 0.35917 -0.013688 0.012099 0.0013084 0.0013557
0.001146 -0.00077028 0.0011067 0.00010656
0.0050924 0.0025312 -0.013657 0.012162 0.35796 0.056708 0.00013407 -0.0017476
7.7275e-05 -0.00030004 0.00035126 0.00015643
-0.0020363 0.00059186 0.0013167 0.0013503 0.00013253 -0.0017469 0.17856 0.20163
-0.014952 -0.0089038 -0.00034872 0.00024474
0.0022889 0.00066493 0.0011521 -0.00078786 7.4897e-05 -0.00029566 -0.014985 -0.0088797
0.11009 0.21021 -0.010428 -0.0075053
0.00012122 -0.0013303 0.0011001 0.00010456 0.00035588 0.00015548 -0.00034883 0.0002494
-0.010416 -0.0074976 0.14598 0.30208
1460000000 0.28075 0.14623 -0.019127 0.00512 0.0052079 -0.0021437 -0.0015158 0.0016228
0.0019155 -0.00063395 -0.00042151 -0.00083878
-0.01912 0.0051067 0.12066 0.33681 -0.0055525 0.014495 0.0017368 0.00014738
0.00080846 -0.0012255 0.0010523 -0.00060281
0.0051903 -0.0021722 -0.0055183 0.014517 0.36247 0.0019262 -0.001387 -0.0013443
0.00013735 -0.0001987 0.00058644 -0.00028425
-0.0015095 0.0016255 0.0017377 0.00014423 -0.0013816 -0.0013541 0.20253 0.17121
-0.015824 -0.0023822 -0.00030344 0.0019519
0.0019127 -0.00064443 0.00079813 -0.0012417 0.00013818 -0.00018586 -0.015836 -0.0023525
0.13833 0.19373 -0.011552 -0.0018571
-0.00041054 -0.00083682 0.0010404 -0.00061393 0.00058892 -0.00028937 -0.00028609 0.0019736
-0.011541 -0.001851 0.1778 0.2791
1520000000 0.2919 0.10371 -0.013479 0.010082 0.002786 -0.004104 7.0027e-05 0.0025426
0.0018327 -0.0016535 -0.0010547 -3.4228e-05
-0.013484 0.010059 0.15394 0.32149 0.0014803 0.01237 0.0016797 -0.00086695
5.4866e-05 -0.0010582 0.00026087 -0.00093503
0.0027755 -0.0041099 0.0015283 0.012361 0.35498 -0.054558 -0.0013319 -0.0003481
0.00053544 -0.00089679 -4.7918e-05 -0.0001463
8.6212e-05 0.0025416 0.0016821 -0.00087336 -0.0013328 -0.00034816 0.22353 0.13282
-0.014892 0.0032009 0.0018256 0.0017375
0.0018302 -0.001656 5.6618e-05 -0.0010668 0.00053269 -0.00088892 -0.0149 0.003232
0.16575 0.17797 -0.011168 0.0022934
-0.0010519 -2.6789e-05 0.00025732 -0.00093191 -4.2435e-05 -0.00014262 0.0018341 0.0017303
-0.011157 0.0023022 0.20961 0.2556
1580000000 0.29977 0.057119 -0.0073142 0.012665 -0.0011664 -0.0044611 0.001434 0.0018508
-0.00021309 -0.0019857 -0.00024503 0.00038293
-0.0073214 0.01265 0.18074 0.29604 0.0047988 0.0078034 0.00040542 -0.0017193
-0.0005308 -0.0010474 -0.00025753 -0.00079709
-0.0011799 -0.0044493 0.004834 0.0077833 0.33398 -0.11219 -0.0016782 0.00088425
-0.00030567 -0.0010168 0.00019757 -0.00052275
0.0014404 0.0018499 0.00039629 -0.0017213 -0.0016824 0.00088061 0.23503 0.093424
-0.011589 0.007918 0.0023011 0.00024977
-0.00021465 -0.0019979 -0.00054939 -0.0010494 -0.00031168 -0.001023 -0.011585 0.0079453
0.18869 0.15791 -0.0086908 0.0072816
-0.00023713 0.00038475 -0.0002581 -0.00080009 0.00019009 -0.00051738 0.0023041 0.00023426
-0.0086835 0.0072808 0.23898 0.22662
1640000000 0.30052 0.015624 -0.0011991 0.011476 -0.0026641 -0.0022239 0.002699 0.00095412
-0.00075876 -0.0014532 -0.0002317 0.00053118
-0.0012169 0.011476 0.20984 0.27046 0.0054225 0.0035305 -0.00087507 -0.0016691
-0.001084 -0.00038036 -0.00054988 -0.00055332
-0.002657 -0.0022121 0.0054362 0.0035096 0.30429 -0.16072 -0.00060722 0.001612
-0.001197 -0.00075542 -0.00022832 -0.00017358
0.0027041 0.00094708 -0.00088273 -0.0016607 -0.0006032 0.0016111 0.2452 0.04571
-0.0073905 0.0095095 0.0022878 -0.0011248
-0.00076956 -0.0014602 -0.0010926 -0.00036689 -0.001198 -0.00075536 -0.0073781 0.0095386
0.20984 0.1322 -0.0042706 0.0090255
-0.00022926 0.00053671 -0.00055399 -0.00054487 -0.00022961 -0.00017947 0.0022908 -0.0011367
-0.0042626 0.0090158 0.26254 0.19368
1700000000 0.29202 -0.030003 0.001905 0.0088401 -0.0032533 0.00020148 0.0029671 -0.0012853
-0.0019149 -0.00062791 0.00065147 0.00040024
0.0018891 0.0088303 0.22753 0.23844 0.0037389 0.00077031 -0.0014882 -0.00043157
-0.00080525 0.00020291 -0.00086211 -0.00035368
-0.0032589 0.00022759 0.0037452 0.00074153 0.26107 -0.20031 0.00067584 0.0014946
-0.0017646 -0.00014156 -0.00058606 -0.00076186
0.0029617 -0.0013027 -0.0014943 -0.00043137 0.00065689 0.0014956 0.24075 -0.002825
-0.004257 0.010221 0.0012021 -0.0022129
-0.0019316 -0.00061559 -0.00080254 0.0002066 -0.0017705 -0.0001517 -0.0042493 0.010243
0.22573 0.11047 9.7635e-05 0.0093591
0.0006563 0.00039095 -0.00086993 -0.00035079 -0.00058715 -0.00076208 0.0011945 -0.0022242
0.00011024 0.0093551 0.2768 0.15787
1760000000 0.2784 -0.078458 0.0039709 0.0057983 -0.0020683 0.00090084 0.0010661 -0.0034299
-0.0013719 0.00074325 0.00045745 -0.00044161
0.0039718 0.0058031 0.25267 0.19775 0.0016819 -0.0010775 -0.0011774 0.00032389
-0.00096033 0.00095045 -0.0005492 0.00050687
-0.0020448 0.00091225 0.0016809 -0.0010879 0.21185 -0.23398 0.0013714 0.00086389
-0.0011604 0.0015869 -0.0013017 -0.00030528
0.0010513 -0.003432 -0.0011876 0.00033042 0.0013657 0.00087411 0.23063 -0.052219
-0.00064717 0.0095352 -0.00054102 -0.0023629
-0.001351 0.00076149 -0.00094649 0.00096176 -0.0011546 0.0016008 -0.00064259 0.0095437
0.2386 0.074228 0.0035757 0.0067538
0.00045022 -0.00044737 -0.00054819 0.00051171 -0.0012912 -0.00030215 -0.00054358 -0.0023686
0.0035857 0.0067354 0.28689 0.11907
1820000000 0.25235 -0.11524 0.0040755 0.0024364 1.3136e-05 0.0023085 -0.0011473 -0.002881
-0.0010074 0.0010805 -1.0779e-06 -5.8497e-05
0.004078 0.0024376 0.26178 0.1675 -0.00015087 -9.2396e-06 -0.0011233 0.0010346
5.2334e-05 0.0013271 -0.00048752 0.00055175
3.8137e-05 0.0023112 -0.00014417 -2.0264e-05 0.161 -0.2489 0.001334 7.3755e-06
-6.9493e-05 0.0021195 -0.0013068 0.00044846
-0.0011749 -0.0028769 -0.001126 0.0010459 0.001321 -4.7407e-06 0.20091 -0.097266
0.0012976 0.0077406 -0.0016445 -0.001226
-0.0010014 0.0010929 6.5553e-05 0.0013285 -7.1684e-05 0.0021298 0.0013213 0.0077457
0.25384 0.044246 0.0045414 0.0035028
6.315e-06 -6.294e-05 -0.00048348 0.00055617 -0.0013093 0.00045099 -0.0016516 -0.0012246
0.0045447 0.0034846 0.28694 0.081973
1880000000 0.21573 -0.15488 0.0018923 0.0003232 -0.00034994 0.0018721 -0.0029006 -0.0019118
-0.00013447 0.0016816 0.00022798 -0.00049743
0.0018962 0.00032396 0.26535 0.1205 -0.0022526 0.0015959 2.4239e-05 0.0016081
0.00070837 0.0010614 0.00024104 0.00087541
-0.00033552 0.0018571 -0.0022467 0.0016226 0.10796 -0.25876 0.001404 -0.0010689
0.001629 0.001662 -0.00078502 0.0013165
-0.0029034 -0.0019035 2.749e-05 0.0016092 0.0014074 -0.0010651 0.16136 -0.13656
0.0022561 0.0053656 -0.002157 0.00050587
-0.00011316 0.0016887 0.00071541 0.0010577 0.0016321 0.001653 0.0022658 0.0053584
0.25463 0.010384 0.0043303 0.0015591
0.00022472 -0.00049733 0.00023706 0.00088004 -0.00077113 0.0013327 -0.0021617 0.0005306
0.0043211 0.0015354 0.28444 0.047393
1940000000 0.17548 -0.17954 -0.00024582 -0.0011094 0.0013847 0.0018344 -0.00357 0.00067719
0.0015013 0.0010838 -0.00060503 -0.00065239
-0.0002494 -0.0011059 0.2647 0.088988 -0.0010513 0.0039391 0.0010369 0.0010379
0.0017769 0.00031678 0.00087509 0.00033238
0.0013941 0.0018369 -0.001029 0.0039558 0.061661 -0.251 0.00012708 -0.0017204
0.0023362 0.00023501 0.00041143 0.0015874
-0.0035736 0.00069689 0.001035 0.0010312 0.00013029 -0.0017373 0.10997 -0.16626
0.0015507 0.003631 -0.0012399 0.0015418
0.0014963 0.0010662 0.0017829 0.0002992 0.0023368 0.00022359 0.0015512 0.0036367
0.25417 -0.029137 0.0033239 -0.0012794
-0.00062144 -0.00065205 0.00087509 0.00031482 0.00041412 0.0015979 -0.0012446 0.0015547
0.00331 -0.0012807 0.27139 0.011197
2000000000 0.12891 -0.19332 -0.0039359 0.0010125 0.0024379 0.0014162 -0.0021841 0.0033494
0.0012276 -3.788e-05 -0.00064869 0.00041066
-0.0039265 0.0010007 0.25004 0.053613 -0.00082066 0.0057281 0.0014507 0.00014671
0.0012068 -0.0013431 0.00041231 -3.7257e-05
0.002459 0.0013985 -0.00078788 0.0057396 0.018353 -0.23624 -0.0010832 -0.0010168
0.0017644 -0.001142 0.0017273 0.0010072
-0.0021668 0.003342 0.0014607 0.00014234 -0.0010819 -0.0010099 0.057595 -0.17677
-0.00019371 0.0029362 7.544e-05 0.002081
0.0012228 -7.1428e-05 0.0012027 -0.0013573 0.0017663 -0.0011417 -0.00018149 0.0029417
0.24604 -0.063575 0.00054893 -0.0023544
