!Keysight Technologies,M9804A,MY58100912,A.14.10.03
!Date: Thursday, April 27, 2023 10:28:33
!Correction: S11(C  6-Port  ) 
!S12(C  6-Port  ) 
!S13(C  6-Port  ) 
!S14(C  6-Port  ) 
!S15(C  6-Port  ) 
!S16(C  6-Port  ) 
!S21(C  6-Port  ) 
!S22(C  6-Port  ) 
!S23(C  6-Port  ) 
!S24(C  6-Port  ) 
!S25(C  6-Port  ) 
!S26(C  6-Port  ) 
!S31(C  6-Port  ) 
!S32(C  6-Port  ) 
!S33(C  6-Port  ) 
!S34(C  6-Port  ) 
!S35(C  6-Port  ) 
!S36(C  6-Port  ) 
!S41(C  6-Port  ) 
!S42(C  6-Port  ) 
!S43(C  6-Port  ) 
!S44(C  6-Port  ) 
!S45(C  6-Port  ) 
!S46(C  6-Port  ) 
!S51(C  6-Port  ) 
!S52(C  6-Port  ) 
!S53(C  6-Port  ) 
!S54(C  6-Port  ) 
!S55(C  6-Port  ) 
!S56(C  6-Port  ) 
!S61(C  6-Port  ) 
!S62(C  6-Port  ) 
!S63(C  6-Port  ) 
!S64(C  6-Port  ) 
!S65(C  6-Port  ) 
!S66(C  6-Port  ) 
!S6P File: Measurement: :
# Hz S  RI   R 50
500000000 -0.33353 -0.029522 -0.0090213 -0.0042429 -0.0080176 0.011284 -0.00416 0.011706
0.012352 0.0040246 -0.0046102 0.0072018
-0.0090137 -0.0042376 -0.41893 -0.047901 0.0072784 -0.01153 0.0014908 0.011145
0.0077911 0.0025298 0.0012673 0.01251
-0.0079639 0.011324 0.0072519 -0.01154 -0.26468 0.21251 0.0069893 0.0031477
-3.0046e-05 0.0087988 0.00087038 0.012095
-0.0041751 0.011678 0.001505 0.011141 0.0069892 0.0031513 -0.32567 0.050501
-0.018486 -0.0059282 0.018251 0.025264
0.012404 0.0039789 0.0078334 0.0025122 -2.4501e-05 0.0088047 -0.018478 -0.0059205
-0.22865 -0.17551 -0.025898 0.00358
-0.0045843 0.0071151 0.0013219 0.012506 0.00087799 0.012094 0.01825 0.025248
-0.025928 0.0035693 -0.27329 -0.1226
560000000 -0.30956 0.12758 -0.023226 -0.063214 0.00010541 0.01212 0.0067866 0.0091954
0.012194 0.0030282 0.0091722 0.0077239
-0.023255 -0.063125 -0.37587 0.10996 -0.041725 -0.03629 0.013246 0.0031015
-0.013174 -0.0038601 0.0041654 -0.00088728
0.00010904 0.012091 -0.041835 -0.036214 -0.18249 0.25974 -0.00036386 -0.0050043
0.018221 0.0036597 0.0072744 -0.0066849
0.0067639 0.0091879 0.013228 0.0030612 -0.00034499 -0.0050015 -0.30134 0.13745
0.0048929 -0.025418 0.0056195 -0.019375
0.012148 0.003045 -0.013203 -0.0038515 0.018229 0.0036383 0.0048758 -0.025418
-0.28485 -0.0043616 0.0075634 -0.050535
0.0091334 0.0077424 0.0041599 -0.00086107 0.0072671 -0.0066884 0.0056114 -0.019377
0.0076059 -0.050513 -0.33162 0.024883
620000000 -0.26861 0.11094 -0.02257 0.0060716 0.003514 0.0083886 0.0073221 -0.0060893
0.010508 -0.00090732 0.0012321 -0.0021559
-0.02253 0.0060403 -0.40233 0.064236 -0.018574 -0.00018105 -0.0015314 -0.001943
0.010468 -0.0075049 0.0010453 -0.0026785
0.0035423 0.0083906 -0.018591 -0.00012081 -0.15222 0.26863 -0.001547 -0.0051257
-0.0040034 -0.0034032 0.0083642 -0.0035433
0.0073263 -0.0061103 -0.0015435 -0.0019267 -0.0015494 -0.0051286 -0.25974 0.14717
-0.038318 -0.019424 0.014485 0.024137
0.01053 -0.00094962 0.010486 -0.0075442 -0.0039883 -0.003407 -0.038304 -0.01939
-0.20437 -0.041399 -0.039345 0.013809
0.0011815 -0.0021853 0.0010389 -0.002657 0.0083709 -0.0035477 0.014486 0.02412
-0.039368 0.013812 -0.25183 -0.011211
680000000 -0.22789 0.19107 -0.028449 -0.014948 0.0047026 0.0050986 0.00036533 -0.0074736
-0.003295 -0.011268 0.0042389 -0.0069817
-0.028425 -0.014919 -0.38655 0.16109 -0.032605 -0.0010956 -0.0019465 -0.00049826
-0.0028504 -0.0086741 -0.0009704 -0.0026507
0.0046988 0.0050962 -0.032641 -0.0010207 -0.10145 0.28804 -0.00089122 7.2342e-05
-0.0023568 0.00084266 -0.0029978 -0.0096632
0.00032787 -0.0074491 -0.0019451 -0.0004953 -0.00089247 7.0928e-05 -0.21835 0.19593
-0.022951 -0.0087807 -0.010762 -0.0094665
-0.0033114 -0.01128 -0.0028908 -0.008673 -0.0023567 0.00085116 -0.022971 -0.0087702
-0.24869 0.053645 -0.0044036 -0.010894
0.0042366 -0.0069965 -0.00098647 -0.0026518 -0.003006 -0.009674 -0.01076 -0.0094702
-0.004405 -0.010892 -0.26224 0.091781
740000000 -0.18697 0.18533 -0.039432 0.025541 0.012585 -0.0053288 -0.0012618 -0.004216
-0.0041312 -0.0017099 -0.0063805 0.0026951
-0.03941 0.025501 -0.33474 0.17992 -0.034769 0.034642 -0.00097771 -0.0060964
-0.011732 0.0079491 -0.0027903 -0.0059401
0.012566 -0.0053523 -0.034704 0.034749 -0.067782 0.28706 -0.001339 0.003515
-0.0033237 -0.0036419 -0.00088384 0.00074489
-0.0012788 -0.0042335 -0.00097129 -0.0060905 -0.0013413 0.0035178 -0.20119 0.20332
-0.041707 -0.0077302 0.022216 0.012342
-0.0041526 -0.0017302 -0.01172 0.0080013 -0.0033222 -0.003646 -0.041742 -0.0076741
-0.15731 0.075166 -0.041092 0.0012507
-0.0063697 0.0026852 -0.0028242 -0.0059268 -0.0008737 0.00074026 0.022246 0.012351
-0.041091 0.0012093 -0.25057 0.099282
800000000 -0.15734 0.22552 -0.023593 0.01722 0.0050551 -0.010277 -0.0050573 -0.001847
-0.0038573 0.0032994 0.0040401 0.0012259
-0.023589 0.017212 -0.33675 0.25002 -0.007821 0.034027 -0.0020735 0.002503
-0.00041657 0.0034278 0.00096411 0.0057491
0.005043 -0.0103 -0.0077226 0.034085 -0.026586 0.31001 0.0013458 0.0015996
0.00070963 0.0037663 -0.0018584 0.0012242
-0.0050698 -0.001834 -0.0020717 0.0025162 0.0013511 0.0016081 -0.17346 0.23089
-0.028448 0.012645 0.012911 -0.0097062
-0.0038706 0.0033402 -0.00040192 0.0034118 0.00072025 0.0037729 -0.028452 0.012702
-0.19759 0.098665 -0.017731 0.017429
0.0040253 0.0012506 0.00096043 0.0057566 -0.0018655 0.0012291 0.012911 -0.0097235
-0.017745 0.017417 -0.24333 0.15288
860000000 -0.12348 0.24759 -0.017669 0.031822 -0.003477 -0.0095964 -0.0027012 0.001529
0.0048372 0.0050654 -0.002831 -0.0030331
-0.017683 0.031788 -0.28844 0.29177 0.0083165 0.034032 0.00040633 0.0020807
0.0047965 0.00042514 0.0034189 0.00028627
-0.0034953 -0.0096031 0.0084299 0.034036 0.021984 0.31763 -0.00021231 -0.00032303
0.0030231 -0.0014465 0.0015522 0.0044556
-0.0026855 0.0015413 0.00042096 0.002086 -0.00021041 -0.00032396 -0.13788 0.24302
-0.017881 0.018506 -0.0064873 -0.0093448
0.0049068 0.0050487 0.0048056 0.00040384 0.0030208 -0.0014378 -0.017846 0.018551
-0.14848 0.14664 -0.023844 0.015204
-0.0028264 -0.0030236 0.0034229 0.00024576 0.0015456 0.0044592 -0.0065028 -0.0093327
-0.023846 0.015167 -0.19299 0.19467
920000000 -0.098351 0.27217 0.00496 0.0385 -0.009212 -0.0038975 -0.0015201 0.00263
0.0016742 0.0012801 0.0023005 -0.0012385
0.0049159 0.038483 -0.25921 0.31208 0.028183 0.021427 0.001791 0.00087865
0.0066973 -0.00081841 0.0038423 -0.0029714
-0.0092415 -0.0038667 0.028292 0.021378 0.068393 0.31772 0.0017935 -0.00024222
0.0012903 -0.00041293 0.00086278 -0.0011876
-0.0015396 0.0026237 0.0017993 0.00089675 0.0017931 -0.00024779 -0.11349 0.25924
-0.01068 0.02951 0.0024392 -0.0063025
0.0016914 0.0013117 0.0067022 -0.00087047 0.0012918 -0.0004219 -0.010629 0.029547
-0.13802 0.15337 -0.0028064 0.026592
0.0022641 -0.0012635 0.0038393 -0.0029926 0.00086223 -0.001182 0.0024253 -0.0063151
-0.002829 0.026611 -0.19886 0.2097
980000000 -0.050941 0.29188 0.01815 0.030505 -0.0085073 0.0048223 0.0027461 0.0037832
0.004157 -0.0019112 -0.0030596 -0.0022265
0.0181 0.030476 -0.20634 0.34531 0.032807 0.00427 0.0019751 -0.00013324
0.0011544 -0.006207 -0.00059066 -0.0022624
-0.0084947 0.0048242 0.032857 0.0041889 0.11468 0.31071 0.00036938 -0.0012742
8.6509e-06 -0.0021676 0.0016273 -0.00018936
0.0027724 0.0037799 0.0019534 -0.00013833 0.00037197 -0.0012712 -0.075478 0.27072
0.007145 0.028042 -0.0096705 -0.0064449
0.0041405 -0.0019364 0.0011514 -0.0062147 1.5065e-05 -0.002159 0.0072027 0.028045
-0.10717 0.17926 0.0051048 0.018033
-0.0030431 -0.0022247 -0.00060739 -0.0022793 0.0016291 -0.00019727 -0.0096849 -0.006422
0.005099 0.018017 -0.15592 0.25333
1040000000 -0.0078051 0.3007 0.033603 0.017993 -0.00079018 0.0068423 0.003052 0.00069588
-8.6759e-05 -0.0040207 -0.00055916 -0.0012929
0.033557 0.018011 -0.17073 0.35828 0.028731 -0.014992 0.0014341 -0.0017016
-0.0025596 -0.0022092 -0.0015135 -0.0026228
-0.00078128 0.0068458 0.028714 -0.015094 0.16076 0.29654 -0.00055002 -0.001359
-0.00162 -0.00076384 -0.00054059 -0.0012373
0.003064 0.00068174 0.0014243 -0.0016995 -0.00055288 -0.0013608 -0.047606 0.28095
0.017626 0.016675 -0.0029721 0.0024557
-0.00012054 -0.0040214 -0.0025558 -0.002211 -0.0016149 -0.00076115 0.017673 0.01665
-0.077284 0.18851 0.013177 0.017472
-0.0005683 -0.0012866 -0.0015165 -0.0026483 -0.00054144 -0.0012308 -0.0029683 0.0024581
0.013154 0.017472 -0.13373 0.27458
1100000000 0.038036 0.30823 0.035888 -0.0044381 0.0031576 0.0035649 0.0026474 -0.0016892
-0.0022743 -0.0030876 -0.0038089 0.00024599
0.035849 -0.0044145 -0.12739 0.37485 0.014546 -0.027576 -3.6538e-05 -0.0018181
-0.0030666 -0.00031674 -0.0035519 -0.00043704
0.0031634 0.0035553 0.014457 -0.027663 0.20688 0.27585 -0.0018185 0.00032656
-0.0016206 0.00062159 -0.0010181 -0.00028936
0.0026533 -0.0016981 -4.618e-05 -0.0018167 -0.001823 0.00032042 -0.0070747 0.28563
0.021845 0.0048569 -0.0021873 0.0012602
-0.0022931 -0.0030941 -0.0030752 -0.00029836 -0.0016109 0.00062851 0.021855 0.0048226
-0.059092 0.20202 0.018245 0.0083223
-0.0037931 0.00026755 -0.0035435 -0.00042613 -0.0010233 -0.00029264 -0.0021776 0.0012715
0.018239 0.0083167 -0.087001 0.30314
1160000000 0.08974 0.30309 0.023975 -0.020846 0.0026943 -0.00079308 -0.00013985 -0.0027909
-0.0041428 -6.5992e-05 -0.00079959 0.0039987
0.023978 -0.020807 -0.083443 0.37869 -0.0040478 -0.028614 -0.0017996 -0.0015316
-0.0022507 0.0027108 -0.0013079 0.0016312
0.0027103 -0.00080688 -0.0041581 -0.028609 0.24968 0.24475 -0.00052368 0.001713
-0.00033881 0.0017991 -0.00095998 0.00016489
-0.00014206 -0.0027937 -0.0018166 -0.0015196 -0.00051967 0.0017129 0.032429 0.28277
0.018292 -0.0093269 -0.0026262 0.0059171
-0.0041455 -5.0973e-05 -0.0022359 0.0027188 -0.00033742 0.0018073 0.018279 -0.009348
-0.025879 0.2117 0.016975 0.00025635
-0.00080139 0.0039875 -0.0012886 0.0016217 -0.00096286 0.00016095 -0.0026133 0.0059221
0.016947 0.00027685 -0.040152 0.30594
1220000000 0.13459 0.29159 0.010263 -0.029815 -0.0016348 -0.0010453 -0.00044542 -0.0012707
-0.0023624 0.0027424 0.0014254 0.001815
0.01027 -0.029788 -0.039447 0.39004 -0.016779 -0.020549 -0.0025126 0.00049481
0.00036116 0.0027612 -0.00064982 0.0017301
-0.0016367 -0.0010363 -0.016885 -0.020491 0.28861 0.20556 0.00090397 0.0015033
0.00059522 0.0010992 0.00028703 0.00075017
-0.00045152 -0.0012693 -0.0025195 0.00050948 0.00090497 0.001496 0.072169 0.27394
0.0086538 -0.014534 0.0031229 0.001814
-0.0023479 0.0027525 0.00037184 0.0027658 0.00059902 0.0011056 0.0086339 -0.014552
-0.0018864 0.22152 0.012906 -0.012014
0.0014267 0.0018107 -0.00063696 0.0017409 0.00029511 0.00074825 0.0031124 0.0018176
0.01289 -0.012012 -0.0078181 0.32218
1280000000 0.18415 0.26921 -0.0076952 -0.028127 -0.0019313 0.0023537 -0.0013544 -0.0018457
-0.00025953 0.0031079 0.0023922 0.00095351
-0.0076647 -0.0281 0.0062118 0.38087 -0.023259 -0.0081519 -0.00096497 0.0014918
0.0015895 0.0014357 0.00044768 0.0020036
-0.0019224 0.0023656 -0.023327 -0.0080519 0.31914 0.16156 0.0013395 -0.00018739
0.0009154 0.00012312 0.00032358 0.00043193
-0.0013589 -0.0018459 -0.00095962 0.0015034 0.0013342 -0.00018151 0.10844 0.25791
0.00042193 -0.015836 0.00077839 -2.3516e-05
-0.00025237 0.0031117 0.0016011 0.0014248 0.00091956 0.00011704 0.00038455 -0.015828
0.035734 0.22546 0.002644 -0.014026
0.0023946 0.0009204 0.00046702 0.0019958 0.00032773 0.00043659 0.00078062 -2.9141e-05
0.0026551 -0.014016 0.039609 0.32324
1340000000 0.22166 0.23548 -0.017335 -0.018847 0.00067509 0.0042214 -0.0019913 -0.00043189
0.0016241 0.0023078 0.0015468 -0.0014992
-0.01731 -0.01883 0.04558 0.37219 -0.021107 0.0042348 -1.5292e-05 0.0019158
0.0015971 0.00059245 0.0013286 0.00081112
0.00068066 0.0042196 -0.021115 0.0043286 0.34117 0.11353 0.00089455 -0.00084443
0.00053107 -0.00029654 0.00032491 0.00016845
-0.0019896 -0.00043766 -6.3271e-07 0.0019282 0.00088764 -0.0008475 0.14157 0.23801
-0.0070451 -0.013093 0.001621 -0.00019828
0.0016525 0.0022923 0.0016042 0.00058246 0.00053302 -0.00030047 -0.007066 -0.013085
0.066798 0.22093 -0.0033356 -0.012206
0.0015366 -0.00152 0.0013374 0.00080528 0.00032522 0.00016713 0.0016126 -0.00020771
-0.0033362 -0.012211 0.078828 0.31807
1400000000 0.25506 0.19713 -0.022869 -0.0075656 0.0048856 0.0030604 -0.0018315 0.00092181
0.0024496 0.00039609 7.7646e-05 -0.0013051
-0.022834 -0.0075726 0.082373 0.35896 -0.014485 0.012128 0.0013652 0.001259
0.00082938 -0.00075166 0.0012299 0.00030924
0.0048979 0.0030493 -0.014439 0.012213 0.35418 0.059705 3.9212e-05 -0.0013143
4.2472e-05 -0.00029092 0.00039 0.00021192
-0.0018243 0.00091921 0.0013628 0.0012517 3.8542e-05 -0.0013142 0.1716 0.20955
-0.011486 -0.0075368 -0.00051346 -0.0010748
0.0024532 0.00039657 0.00082429 -0.00075726 4.5023e-05 -0.0002914 -0.011501 -0.0075141
0.10085 0.21562 -0.0092518 -0.0077466
5.2249e-05 -0.0013162 0.0012317 0.00031245 0.00039469 0.00020703 -0.00052142 -0.0010703
-0.00924 -0.0077555 0.1233 0.30671
1460000000 0.27892 0.1529 -0.020138 0.0042459 0.0053288 -0.0016556 -0.0012163 0.0017258
0.001688 -0.00088302 -0.00036224 -0.00082867
-0.020125 0.0042361 0.11647 0.33709 -0.0061157 0.014865 0.0016894 0.00010334
0.00078757 -0.00092316 0.0012196 -0.00067123
0.0053212 -0.001686 -0.0060514 0.014904 0.35998 0.0049167 -0.00098446 -0.0011414
0.00030645 -0.00011295 0.00063621 -0.00040788
-0.0012167 0.0017341 0.0016932 9.5765e-05 -0.0009945 -0.0011447 0.19891 0.18045
-0.011892 -0.002512 -0.0011929 0.0011033
0.0016893 -0.00088529 0.00078717 -0.00092968 0.00030823 -0.00011468 -0.011895 -0.0024827
0.13142 0.20021 -0.010569 -0.0025261
-0.00037725 -0.00083567 0.0012223 -0.00067704 0.00063676 -0.0004103 -0.0011799 0.0011018
-0.010556 -0.002533 0.15678 0.2849
1520000000 0.29206 0.10979 -0.014673 0.0097866 0.0030045 -0.003867 0.00021338 0.0022681
0.0013624 -0.0016236 -0.0011506 -0.00016241
-0.014675 0.0097707 0.14983 0.32206 0.0013256 0.012858 0.0015788 -0.00083817
0.00020473 -0.00083449 0.00027906 -0.0010757
0.0029778 -0.0038843 0.0013909 0.012866 0.35275 -0.051432 -0.00081686 -0.0004026
0.00057848 -0.00075917 -4.4346e-05 -3.6639e-05
0.00021917 0.0022705 0.001577 -0.00084387 -0.00082194 -0.00039642 0.22314 0.14176
-0.011348 0.0013648 0.00073699 0.0014751
0.001364 -0.001635 0.00019136 -0.00083478 0.00058199 -0.00076176 -0.011354 0.0013979
0.16019 0.18445 -0.010594 0.0014155
-0.0011539 -0.00015382 0.00028112 -0.0010773 -4.4062e-05 -3.2516e-05 0.00073301 0.0014743
-0.010584 0.0014002 0.18988 0.26412
1580000000 0.30185 0.061641 -0.0083337 0.012818 -0.00090015 -0.0045307 0.001248 0.0015671
-0.00055847 -0.0017924 -0.00037692 0.00030647
-0.0083348 0.012797 0.17697 0.29723 0.0049258 0.0081754 0.00039251 -0.0015924
-0.00020193 -0.0011155 -0.00032919 -0.00091828
-0.00092097 -0.0045302 0.0049657 0.0081561 0.33221 -0.10919 -0.001478 0.00031968
-0.00031448 -0.0011487 0.00016879 -0.0005514
0.0012532 0.0015622 0.00038021 -0.0016008 -0.001476 0.00031588 0.238 0.10129
-0.009118 0.004941 0.0014784 0.00061479
-0.00056507 -0.0017891 -0.00021742 -0.0011181 -0.00031606 -0.001151 -0.0091132 0.0049653
0.18487 0.16512 -0.0085162 0.0065701
-0.00038345 0.00030504 -0.0003308 -0.00091746 0.00016247 -0.00055656 0.0014815 0.0006154
-0.0085179 0.0065643 0.22161 0.23713
1640000000 0.30345 0.01764 -0.0019368 0.012056 -0.0026114 -0.002244 0.0022819 0.0010457
-0.00069227 -0.00079116 -0.00039273 0.00068865
-0.0019385 0.012054 0.2064 0.27186 0.0056236 0.0035968 -0.00075931 -0.0016166
-0.00094156 -0.00065931 -0.00062197 -0.00064099
-0.0026213 -0.0022294 0.0056476 0.0035604 0.30353 -0.15818 -0.001003 0.0012708
-0.0010635 -0.00085622 -9.7094e-05 -0.00018312
0.0022853 0.0010424 -0.00076706 -0.0016202 -0.00099883 0.0012613 0.25055 0.050762
-0.0063033 0.0057413 0.0018585 -0.00046577
-0.00070888 -0.00078894 -0.00095908 -0.00065477 -0.0010659 -0.00085848 -0.0062838 0.0057639
0.20811 0.13889 -0.004266 0.0084401
-0.00037804 0.00070464 -0.00062953 -0.00064108 -9.7877e-05 -0.00018065 0.0018598 -0.00047922
-0.0042664 0.0084498 0.24744 0.20571
1700000000 0.29408 -0.029878 0.001498 0.0094801 -0.0031538 0.00020403 0.0027861 -0.00082192
-0.0014835 -0.00035765 0.00053022 0.00051937
0.0015025 0.0094724 0.22427 0.24013 0.0037757 0.00076273 -0.0014138 -0.0005183
-0.0009621 -0.00011983 -0.00095695 -0.000344
-0.0031638 0.00022989 0.0037848 0.00074239 0.25979 -0.19798 0.00019239 0.0016817
-0.0017738 -0.000251 -0.00055834 -0.00091165
0.0027741 -0.0008382 -0.0014188 -0.00051085 0.00019951 0.0016823 0.24663 -0.00097827
-0.0048675 0.0063466 0.0012601 -0.0018229
-0.0014924 -0.000345 -0.00096346 -0.00011712 -0.0017716 -0.000252 -0.0048585 0.0063606
0.2253 0.11627 0.00015302 0.0088972
0.00053382 0.00052021 -0.00095948 -0.00033284 -0.00057086 -0.00091573 0.0012552 -0.0018243
0.00015483 0.0089018 0.26346 0.1706
1760000000 0.27914 -0.079782 0.0038486 0.0065243 -0.001981 0.00070578 0.001552 -0.0030524
-0.00082889 0.00060268 0.00058896 -0.00032783
0.0038487 0.0065112 0.25001 0.19991 0.0016123 -0.00095447 -0.0011064 0.00027914
-0.001386 0.00094015 -0.00058295 0.00057575
-0.0019749 0.0007167 0.0016021 -0.00096831 0.21038 -0.23092 0.0011187 0.0015422
-0.0011561 0.0013769 -0.0013131 -0.00044561
0.0015361 -0.003071 -0.0011066 0.00028636 0.0011204 0.0015394 0.23572 -0.053687
-0.0025832 0.0062378 -0.0005297 -0.0020315
-0.00083103 0.00060448 -0.0013804 0.00095431 -0.0011557 0.0013849 -0.00257 0.0062474
0.24003 0.078683 0.0036978 0.0061534
0.00056806 -0.00033738 -0.00057003 0.00058854 -0.0013141 -0.00044491 -0.00053023 -0.0020351
0.003682 0.0061521 0.27575 0.13273
1820000000 0.25103 -0.11694 0.0043045 0.0030662 5.773e-05 0.0021596 -0.00070098 -0.0030798
-0.00074681 0.00035488 0.00020466 -9.3548e-05
0.004298 0.003073 0.25947 0.16949 -0.00013597 0.00014316 -0.0013191 0.00088674
-0.00020636 0.0016492 -0.00041124 0.00060257
6.8889e-05 0.0021679 -0.00013872 0.00014334 0.16066 -0.24614 0.001771 0.0005065
-0.00032895 0.0022293 -0.0012627 0.00052127
-0.00069895 -0.0030756 -0.0013109 0.00088864 0.0017625 0.00051747 0.20311 -0.1011
-0.0017904 0.0052034 -0.0015553 -0.0011222
-0.00073666 0.0003792 -0.00019584 0.0016492 -0.00033109 0.0022434 -0.0017805 0.0052237
0.25553 0.046384 0.0044822 0.0028367
0.00022262 -9.9504e-05 -0.00041264 0.00061552 -0.0012692 0.00051302 -0.001551 -0.0011254
0.0044886 0.0028328 0.27763 0.095995
1880000000 0.21292 -0.15555 0.0022468 0.00091237 -0.00039562 0.001898 -0.0027541 -0.0024276
-0.00052881 0.0013501 0.00059243 -0.00082776
0.0022449 0.0009073 0.26341 0.1229 -0.0020625 0.0017188 -7.8918e-05 0.0017116
0.00081348 0.0016301 0.00034737 0.00094113
-0.00039348 0.0019047 -0.0020534 0.0017206 0.10854 -0.25536 0.0020665 -0.001111
0.0015233 0.0020393 -0.00089091 0.0014589
-0.0027771 -0.0024157 -7.0675e-05 0.0017127 0.0020592 -0.0011218 0.16041 -0.14003
-0.0016559 0.0043212 -0.0023371 0.00081874
-0.00053129 0.0013436 0.0008211 0.0016231 0.0015341 0.0020422 -0.0016425 0.0043231
0.25588 0.010758 0.0038993 0.00095403
0.00056913 -0.00081456 0.00035895 0.00094401 -0.00087277 0.0014532 -0.002339 0.00083866
0.0038974 0.00096002 0.27701 0.062041
1940000000 0.17178 -0.17868 0.0003259 -0.00074009 0.001102 0.0017732 -0.0039695 0.00032241
0.00095664 0.0010433 -0.00076632 -0.0007707
0.0003238 -0.00073955 0.26326 0.091021 -0.0010366 0.003772 0.0010259 0.0012682
0.0023453 0.00052174 0.00091777 0.00019962
0.0011101 0.0017551 -0.0010156 0.0037785 0.062491 -0.24924 0.00030933 -0.0025337
0.0025565 0.00049383 0.00050556 0.0015676
-0.0039702 0.00032785 0.0010306 0.0012629 0.00031394 -0.0025311 0.10692 -0.16793
-0.0028174 0.004448 -0.0010286 0.0021125
0.00096174 0.0010402 0.0023567 0.00050554 0.0025486 0.0004863 -0.0028188 0.0044533
0.25369 -0.030449 0.0026398 -0.0018366
-0.00077762 -0.00077466 0.00090863 0.0001895 0.0005051 0.0015693 -0.0010244 0.0021018
0.0026372 -0.0018292 0.26576 0.025851
2000000000 0.12482 -0.19011 -0.0032665 0.0011544 0.0023532 0.0017042 -0.0025503 0.003632
0.001044 0.00047982 -0.0011015 0.00042055
-0.0032669 0.001144 0.24842 0.055749 -0.00085544 0.0055507 0.0016092 0.00015342
0.0017516 -0.0018962 0.00039128 7.4258e-06
0.0023589 0.0016848 -0.00081154 0.0055623 0.018857 -0.23478 -0.0016827 -0.0014796
0.0019724 -0.0014212 0.0015825 0.0012927
-0.0025257 0.0036368 0.0016167 0.00013791 -0.0016814 -0.0014837 0.05403 -0.17545
-0.0037466 0.0055943 0.00025813 0.0021766
0.0010629 0.00047043 0.0017372 -0.0019209 0.0019784 -0.0014236 -0.0037218 0.0056157
