!Keysight Technologies,M9804A,MY58100912,A.14.10.03
!Date: Thursday, April 27, 2023 10:28:33
!Correction: S11(C  6-Port  ) 
!S12(C  6-Port  ) 
!S13(C  6-Port  ) 
!S14(C  6-Port  ) 
!S15(C  6-Port  ) 
!S16(C  6-Port  ) 
!S21(C  6-Port  ) 
!S22(C  6-Port  ) 
!S23(C  6-Port  ) 
!S24(C  6-Port  ) 
!S25(C  6-Port  ) 
!S26(C  6-Port  ) 
!S31(C  6-Port  ) 
!S32(C  6-Port  ) 
!S33(C  6-Port  ) 
!S34(C  6-Port  ) 
!S35(C  6-Port  ) 
!S36(C  6-Port  ) 
!S41(C  6-Port  ) 
!S42(C  6-Port  ) 
!S43(C  6-Port  ) 
!S44(C  6-Port  ) 
!S45(C  6-Port  ) 
!S46(C  6-Port  ) 
!S51(C  6-Port  ) 
!S52(C  6-Port  ) 
!S53(C  6-Port  ) 
!S54(C  6-Port  ) 
!S55(C  6-Port  ) 
!S56(C  6-Port  ) 
!S61(C  6-Port  ) 
!S62(C  6-Port  ) 
!S63(C  6-Port  ) 
!S64(C  6-Port  ) 
!S65(C  6-Port  ) 
!S66(C  6-Port  ) 
!S6P File: Measurement: :
# Hz S  RI   R 50
500000000 -0.3323 -0.027646 -0.0080834 -0.0047574 -0.007626 0.01014 -0.0033951 0.011732
0.012275 0.0043579 -0.0038225 0.0079848
-0.0080934 -0.0047185 -0.41839 -0.04766 0.0077273 -0.012061 0.0015116 0.010975
0.0079498 0.0021923 0.001448 0.011928
-0.0077095 0.010182 0.0076961 -0.012135 -0.26348 0.21208 0.0071107 0.0028667
0.00065741 0.0076933 0.0010478 0.01164
-0.0034133 0.011733 0.0015466 0.010996 0.007089 0.0028867 -0.32524 0.050378
-0.018195 -0.0050389 0.018114 0.024759
0.012284 0.0043651 0.0079625 0.0021435 0.00061585 0.007688 -0.018165 -0.0050351
-0.22764 -0.17535 -0.026589 0.004451
-0.0038509 0.008008 0.0014916 0.011943 0.00098957 0.011666 0.018129 0.024784
-0.026605 0.0044497 -0.27329 -0.12063
560000000 -0.30819 0.12686 -0.022998 -0.063978 -0.00061444 0.011809 0.0069014 0.0095662
0.011606 0.0025967 0.0091664 0.0069297
-0.022984 -0.063896 -0.37614 0.10932 -0.041082 -0.036477 0.014453 0.0032439
-0.012954 -0.0050183 0.005173 -0.00093874
-0.00055266 0.011829 -0.041199 -0.036563 -0.18288 0.25905 -0.00099961 -0.0051737
0.01844 0.0036616 0.0073355 -0.0060956
0.006954 0.0095247 0.014483 0.0032338 -0.0009389 -0.0051679 -0.30025 0.13707
0.0048184 -0.025824 0.0051552 -0.019229
0.011627 0.002601 -0.012959 -0.0049763 0.018316 0.0036848 0.0048652 -0.025823
-0.28348 -0.0039315 0.0075183 -0.050854
0.0091651 0.0069081 0.0051836 -0.00096179 0.007282 -0.0060913 0.0051601 -0.019234
0.0075365 -0.050859 -0.33169 0.025859
620000000 -0.2675 0.11004 -0.022779 0.005197 0.0030318 0.0080232 0.0067682 -0.0059379
0.010494 -0.0014737 0.00057308 -0.0022417
-0.02279 0.0051613 -0.40205 0.063698 -0.019297 -0.00058917 -0.00192 -0.001997
0.0099201 -0.0075775 0.00056735 -0.0029059
0.0029227 0.0079808 -0.019286 -0.00050328 -0.15292 0.26792 -0.0024109 -0.0049909
-0.0038078 -0.0034686 0.0078374 -0.0035872
0.0067084 -0.0059179 -0.001941 -0.0019789 -0.0023862 -0.0050766 -0.25877 0.14586
-0.038022 -0.018513 0.01434 0.023645
0.010482 -0.0015858 0.0099171 -0.0076016 -0.0038509 -0.0032638 -0.038075 -0.0185
-0.20414 -0.044078 -0.039258 0.013275
0.0005057 -0.0022785 0.00055538 -0.002902 0.0079313 -0.0035457 0.014356 0.023676
-0.039272 0.01325 -0.25112 -0.010018
680000000 -0.22739 0.18949 -0.028449 -0.015647 0.0046981 0.0052493 -0.00011511 -0.0080954
-0.0038103 -0.010704 0.0037936 -0.0070102
-0.028436 -0.015657 -0.38665 0.16034 -0.033084 -0.001129 -0.001894 -0.00031745
-0.0031704 -0.0084565 -0.00072919 -0.0024821
0.0046865 0.0052341 -0.03311 -0.0010413 -0.1022 0.28749 -0.00062758 0.00033924
-0.0025809 0.0012821 -0.0031055 -0.0096004
-0.00012075 -0.0080829 -0.0018937 -0.00031201 -0.00061882 0.00033196 -0.21788 0.19496
-0.023752 -0.0095974 -0.010813 -0.009948
-0.0038127 -0.010705 -0.0031874 -0.0084583 -0.0025654 0.0012831 -0.023742 -0.0095897
-0.24754 0.052736 -0.0047056 -0.010261
0.0037592 -0.0070293 -0.00072885 -0.0024808 -0.0031049 -0.0096017 -0.010853 -0.0099311
-0.0047117 -0.01028 -0.2621 0.091432
740000000 -0.18783 0.18468 -0.039531 0.025049 0.012448 -0.0049685 -0.00103 -0.0040781
-0.004495 -0.0018703 -0.0060535 0.0034421
-0.039523 0.025007 -0.33552 0.1795 -0.034826 0.034991 -0.0008369 -0.0061071
-0.011031 0.0086782 -0.0024231 -0.0059471
0.012418 -0.0050448 -0.034758 0.0351 -0.069037 0.28716 -0.0010032 0.0034733
-0.0031 -0.0035485 -0.00090128 0.00066913
-0.0010572 -0.0040561 -0.00086587 -0.0060941 -0.0010042 0.0034866 -0.20126 0.20251
-0.042602 -0.0081093 0.022263 0.012347
-0.0045084 -0.0018842 -0.011051 0.00876 -0.0031385 -0.0036359 -0.042648 -0.0079854
-0.15608 0.073278 -0.042133 0.00063138
-0.0060608 0.0034668 -0.0024212 -0.0059313 -0.00096234 0.00071375 0.022293 0.012342
-0.042124 0.00063829 -0.25012 0.099586
800000000 -0.1586 0.22494 -0.024221 0.017227 0.0051069 -0.010384 -0.0050353 -0.001878
-0.0040092 0.0034241 0.0044471 0.0007308
-0.024221 0.017221 -0.33748 0.24993 -0.0078297 0.034336 -0.001874 0.0022867
-0.00010995 0.0037289 0.001319 0.0052635
0.0050763 -0.010372 -0.007761 0.034396 -0.027415 0.31049 0.0013704 0.0013221
0.00084406 0.003488 -0.0020709 0.0011796
-0.0050454 -0.0018748 -0.0018713 0.0022939 0.0013762 0.0013318 -0.17429 0.2306
-0.029243 0.012266 0.012575 -0.0095389
-0.0040243 0.003475 -7.9436e-05 0.0037207 0.00086906 0.0034596 -0.02924 0.012308
-0.198 0.09802 -0.018009 0.017285
0.0044413 0.000733 0.0013479 0.0052762 -0.0020861 0.0011589 0.012566 -0.0095488
-0.018002 0.017256 -0.24344 0.15251
860000000 -0.1246 0.24775 -0.018221 0.032106 -0.0036664 -0.0096819 -0.0027228 0.0017219
0.0049034 0.0048394 -0.0027868 -0.0033131
-0.018233 0.032078 -0.28942 0.29229 0.0083445 0.034291 0.00048734 0.0021078
0.0050263 -0.00034703 0.0032653 0.00017344
-0.0036998 -0.0096624 0.0084354 0.034301 0.021549 0.31844 -0.00033805 -0.00040969
0.002807 -0.0016959 0.0015343 0.0045077
-0.0027336 0.0017372 0.00048951 0.0021164 -0.0003448 -0.00040929 -0.139 0.24327
-0.018566 0.018971 -0.0061782 -0.0094861
0.0049312 0.0048271 0.0050315 -0.00033809 0.0028238 -0.0016938 -0.018545 0.019042
-0.15062 0.1461 -0.023735 0.015269
-0.0028065 -0.0032784 0.0032774 0.00016125 0.0015254 0.0044898 -0.0061807 -0.0094893
-0.023729 0.015249 -0.19235 0.19539
920000000 -0.099097 0.27271 0.004631 0.039177 -0.0093895 -0.003734 -0.0015568 0.0027954
0.0015814 0.0013969 0.0022205 -0.0013381
0.0046077 0.039153 -0.25967 0.31312 0.028487 0.021798 0.0016787 0.0010058
0.0066926 -0.00081764 0.0036773 -0.0028538
-0.009407 -0.0037262 0.028572 0.021726 0.068489 0.31864 0.0016985 -0.00012219
0.0012796 -0.00049372 0.00094614 -0.0009418
-0.0015581 0.0027919 0.0016666 0.0010029 0.0016994 -0.00012534 -0.11442 0.2601
-0.010696 0.030186 0.0021396 -0.0060578
0.001579 0.0013919 0.0066931 -0.00084669 0.0012589 -0.0004712 -0.010652 0.030245
-0.13998 0.15302 -0.0024294 0.027307
0.0022369 -0.0013421 0.0036633 -0.002852 0.00095297 -0.00093692 0.0021286 -0.0060493
-0.0024489 0.027297 -0.19897 0.21038
980000000 -0.051311 0.293 0.018167 0.031168 -0.0084682 0.0050543 0.002844 0.0037822
0.0039649 -0.0019203 -0.0028586 -0.0018537
0.018145 0.031161 -0.20669 0.34643 0.033268 0.0043943 0.0018713 -0.00021331
0.00068706 -0.0059302 -0.00042759 -0.0021863
-0.0084288 0.0050612 0.033309 0.0042914 0.11499 0.31146 0.00037829 -0.0012185
-5.6588e-05 -0.0021009 0.0017417 -9.5504e-05
0.0028628 0.0037887 0.0018682 -0.0002402 0.00039232 -0.0012149 -0.07594 0.27211
0.0073372 0.028861 -0.0094926 -0.0063724
0.0039498 -0.0019369 0.00065623 -0.0059556 -7.7256e-05 -0.0020604 0.0073707 0.028866
-0.10879 0.18017 0.0051733 0.018669
-0.0028697 -0.0018487 -0.00046142 -0.0021741 0.0017368 -9.2469e-05 -0.0095029 -0.0063543
0.0051512 0.018673 -0.15555 0.25394
1040000000 -0.0075949 0.30161 0.033898 0.018342 -0.00068057 0.0070527 0.0031597 0.00040583
-0.00028536 -0.0038379 -0.00045364 -0.0011737
0.033885 0.018364 -0.17058 0.3592 0.029114 -0.01526 0.0013255 -0.0017346
-0.0028174 -0.0020495 -0.0013533 -0.0025165
-0.00063403 0.0070437 0.029065 -0.015356 0.16138 0.29714 -0.00052342 -0.0013367
-0.0015271 -0.00076107 -0.00030468 -0.0012553
0.0031803 0.00041442 0.0013013 -0.001755 -0.00053003 -0.0013374 -0.047485 0.28211
0.01818 0.017341 -0.0030691 0.0026935
-0.00032624 -0.0038254 -0.0028407 -0.0020629 -0.0015344 -0.0007603 0.018218 0.017315
-0.077937 0.18977 0.013184 0.018018
-0.00045464 -0.0011777 -0.0013723 -0.0024824 -0.00029751 -0.0012589 -0.0030608 0.0026898
0.013176 0.018004 -0.13342 0.27552
1100000000 0.038511 0.30882 0.036343 -0.0043651 0.0034503 0.0035993 0.0025712 -0.0018326
-0.0023684 -0.0028413 -0.0035815 0.00020056
0.036321 -0.0043457 -0.12697 0.37585 0.014631 -0.027939 -0.00010652 -0.0017818
-0.0029442 -0.00016015 -0.0033355 -0.00041897
0.0034648 0.0035946 0.01453 -0.028002 0.20763 0.27613 -0.0017434 0.00034052
-0.0015647 0.0006167 -0.0010021 -0.00047143
0.0025752 -0.0018341 -0.00011213 -0.0017858 -0.0017418 0.00034054 -0.0063257 0.28685
0.022479 0.0050719 -0.0019451 0.0015323
-0.0023971 -0.0028346 -0.0029373 -0.00013824 -0.0015722 0.00062658 0.022483 0.0050379
-0.059315 0.2034 0.018297 0.0083263
-0.0035792 0.00021088 -0.0033427 -0.00039275 -0.0010255 -0.0004703 -0.0019468 0.0015342
0.0183 0.0083282 -0.086484 0.30415
1160000000 0.090376 0.30368 0.024206 -0.020929 0.0029967 -0.00097172 -0.00034607 -0.0029229
-0.0040386 -9.7645e-05 -0.00065352 0.0039493
0.024214 -0.020876 -0.082573 0.37946 -0.004092 -0.028905 -0.0017952 -0.0015098
-0.0019917 0.0025123 -0.0012781 0.0015702
0.003009 -0.00097403 -0.004233 -0.028901 0.25043 0.2448 -0.00047681 0.0016457
-0.00037955 0.0016063 -0.0011286 7.9069e-05
-0.00035667 -0.0029008 -0.0018057 -0.0015106 -0.00048503 0.0016497 0.033761 0.28349
0.019022 -0.009511 -0.0023206 0.0058631
-0.0040517 -8.7192e-05 -0.0019697 0.0025361 -0.00036495 0.0016096 0.019025 -0.0095532
-0.025519 0.2135 0.017293 0.00031101
-0.00062322 0.0039478 -0.0012691 0.0015964 -0.0011296 0.00010858 -0.0023093 0.0058788
0.017299 0.0003085 -0.039885 0.30662
1220000000 0.13534 0.29174 0.010538 -0.030049 -0.0015074 -0.0014429 -0.00053172 -0.0011455
-0.0022367 0.0026766 0.0013302 0.0017466
0.010552 -0.030004 -0.038319 0.39054 -0.017008 -0.020688 -0.0024158 0.00055547
0.0004477 0.0025608 -0.00067676 0.0017311
-0.0015316 -0.0014355 -0.017126 -0.020645 0.2894 0.20531 0.0008983 0.0014361
0.0006033 0.0010771 0.00015257 0.00068397
-0.00053328 -0.0011393 -0.0024264 0.00056458 0.00089791 0.0014297 0.07353 0.27408
0.0090771 -0.014964 0.0034357 0.0016598
-0.0022355 0.0026844 0.00045074 0.0025801 0.00059449 0.0010973 0.0090615 -0.014975
-0.00087472 0.22304 0.013245 -0.012163
0.0013453 0.0017444 -0.00067305 0.001734 0.00016527 0.00068816 0.003432 0.0016527
0.013239 -0.012161 -0.0070605 0.32251
1280000000 0.18494 0.26933 -0.0076463 -0.028411 -0.0020874 0.0020668 -0.0013103 -0.0016917
-0.00026521 0.0029979 0.002379 0.00080096
-0.0076257 -0.028382 0.0075606 0.38084 -0.023508 -0.008075 -0.00083004 0.0014706
0.0014571 0.0013113 0.00046199 0.0019907
-0.0020878 0.0020808 -0.023568 -0.0079722 0.3197 0.161 0.0012369 -0.00026768
0.00086043 0.0001745 0.00030259 0.00049
-0.0013115 -0.00169 -0.00082833 0.0014681 0.0012248 -0.00026082 0.10974 0.25747
0.00052039 -0.016331 0.00095732 -0.00026454
-0.00024556 0.002996 0.0014613 0.001294 0.00085245 0.00018092 0.0004892 -0.016339
0.037107 0.22653 0.0028552 -0.01413
0.0023835 0.00080215 0.0004633 0.0019848 0.00030681 0.0004922 0.00095499 -0.00025579
0.0028565 -0.014122 0.040274 0.32359
1340000000 0.2225 0.23524 -0.017338 -0.019108 0.00043912 0.0041082 -0.0017962 -0.00038859
0.0015554 0.0022177 0.0013729 -0.0014643
-0.017312 -0.019107 0.046737 0.37165 -0.021185 0.0043383 -1.8695e-05 0.0018252
0.0014598 0.00062374 0.0013373 0.00082839
0.00045365 0.0041055 -0.021184 0.0044445 0.34136 0.11294 0.00079302 -0.00075561
0.00048144 -0.00029761 0.00030906 0.00024707
-0.0018047 -0.00037689 -5.9278e-06 0.0018284 0.00079788 -0.000755 0.14232 0.23693
-0.0071374 -0.013523 0.0015387 -0.00053227
0.0015723 0.002217 0.0014662 0.0006183 0.00045624 -0.00029648 -0.0071665 -0.013523
0.068672 0.22098 -0.0033804 -0.012376
0.0013624 -0.0014842 0.0013525 0.00082751 0.00031934 0.00024806 0.001539 -0.0005279
-0.0033756 -0.012378 0.079836 0.3182
1400000000 0.25571 0.1966 -0.023019 -0.0077785 0.0046592 0.0031712 -0.0017524 0.00084549
0.0022615 0.00036117 7.2018e-05 -0.001172
-0.022988 -0.0077889 0.083244 0.35803 -0.014486 0.012206 0.0012622 0.0011642
0.00076677 -0.00068707 0.0011884 0.00032748
0.0046744 0.0031475 -0.014443 0.0123 0.35426 0.059239 5.0124e-05 -0.0012534
0.00010721 -0.00033573 0.00034541 0.00026469
-0.0017513 0.00085449 0.0012707 0.0011538 5.1859e-05 -0.0012523 0.17192 0.20846
-0.011785 -0.007819 -0.00061172 -0.0012867
0.002265 0.00034935 0.0007749 -0.00069004 0.00010309 -0.00032518 -0.011802 -0.0077875
0.10257 0.21504 -0.0094069 -0.0079241
6.5509e-05 -0.001173 0.0011889 0.00032332 0.00033547 0.00026413 -0.00061057 -0.0012925
-0.0093995 -0.0079342 0.12446 0.3067
1460000000 0.27936 0.15223 -0.020284 0.0041154 0.0052359 -0.001515 -0.0013029 0.0015669
0.0015427 -0.00085478 -0.00033868 -0.00073788
-0.02027 0.0040959 0.11681 0.33592 -0.0060332 0.014852 0.0015984 0.00012468
0.00083461 -0.00091064 0.0011681 -0.00067058
0.0052231 -0.0015393 -0.0059729 0.014907 0.35988 0.0045646 -0.00098633 -0.0011306
0.00024838 -0.00012825 0.00068818 -0.00037947
-0.0013005 0.0015592 0.0016053 0.0001268 -0.00098631 -0.0011292 0.19876 0.17943
-0.012219 -0.0026661 -0.0013508 0.0010812
0.0015325 -0.00087102 0.00083163 -0.00091671 0.00024012 -0.00013596 -0.012226 -0.0026474
0.1328 0.19911 -0.010772 -0.0026426
-0.00033906 -0.00072004 0.0011628 -0.00068298 0.00068284 -0.0003554 -0.0013438 0.001074
-0.010754 -0.0026472 0.15777 0.28485
1520000000 0.29224 0.10914 -0.014856 0.0097754 0.0029365 -0.003707 0.00015688 0.002238
0.0013559 -0.0014939 -0.0010397 -0.00013295
-0.014857 0.0097512 0.14975 0.32103 0.0013329 0.012835 0.0014953 -0.00076195
0.00020785 -0.0008387 0.00024146 -0.0010306
0.0029216 -0.0037325 0.0014004 0.012848 0.35265 -0.051919 -0.00076614 -0.0003704
0.00051128 -0.00074808 -2.5195e-05 -5.6671e-05
0.00015883 0.0022305 0.0014983 -0.00076997 -0.00077143 -0.00037408 0.22258 0.14108
-0.011721 0.0013667 0.00059354 0.0015932
0.0013475 -0.0015087 0.00020888 -0.00084973 0.00050788 -0.00075214 -0.011729 0.0013967
0.16082 0.18311 -0.010727 0.0014251
-0.0010393 -0.00011852 0.00022294 -0.0010387 -3.0498e-05 -6.3239e-05 0.00059731 0.0015858
-0.010724 0.0014198 0.19089 0.26375
1580000000 0.30191 0.061168 -0.0085037 0.012925 -0.00094527 -0.0043662 0.0011341 0.0016313
-0.00048807 -0.0016919 -0.0002987 0.00026816
-0.0085011 0.01292 0.17648 0.29639 0.0049023 0.0081836 0.00043123 -0.0014739
-0.00026068 -0.0010724 -0.0003513 -0.00086523
-0.00094867 -0.0043787 0.0049443 0.0081644 0.33193 -0.1095 -0.0014642 0.00035093
-0.00029668 -0.0010623 0.00017863 -0.00055099
0.0011427 0.0016248 0.00043006 -0.0014771 -0.0014572 0.00034993 0.23723 0.10087
-0.0093859 0.0050806 0.0013674 0.00071188
-0.00049997 -0.0016856 -0.00026682 -0.0010782 -0.00028945 -0.0010699 -0.0093753 0.0050938
0.18504 0.1639 -0.0086184 0.0065794
-0.00029804 0.0002721 -0.00036352 -0.00086006 0.00017225 -0.00054881 0.0013689 0.00071146
-0.0086175 0.0065713 0.22257 0.23646
1640000000 0.30339 0.017174 -0.0020309 0.012122 -0.0025137 -0.002177 0.0022335 0.0011313
-0.00063596 -0.00084012 -0.00039957 0.00057827
-0.0020448 0.012114 0.2057 0.27132 0.0056059 0.003629 -0.00067669 -0.0015486
-0.00096919 -0.00058375 -0.00056394 -0.00054242
-0.0025189 -0.0021538 0.0056366 0.0036016 0.303 -0.15802 -0.00095672 0.0011678
-0.00095751 -0.00074857 -3.3223e-05 -0.0002462
0.0022365 0.0011237 -0.00068557 -0.0015457 -0.00096107 0.0011618 0.24973 0.050615
-0.0064709 0.0059028 0.0018496 -0.00044433
-0.00064215 -0.00083918 -0.00097283 -0.00057607 -0.0009432 -0.00073914 -0.0064611 0.0059258
0.20787 0.13772 -0.0043163 0.0085095
-0.00039637 0.00057858 -0.00055797 -0.00054418 -2.9168e-05 -0.00024873 0.0018469 -0.0004534
-0.0043249 0.0085082 0.2482 0.20477
1700000000 0.29406 -0.030268 0.0014534 0.0096179 -0.0030666 0.00032339 0.0029067 -0.00075026
-0.0014437 -0.00038311 0.00043253 0.00050372
0.0014448 0.0096114 0.22341 0.23995 0.0037869 0.00080295 -0.0012909 -0.00055304
-0.0008859 -3.6118e-05 -0.00087686 -0.00034556
-0.0030586 0.00033675 0.0038017 0.00078602 0.25962 -0.19773 0.00020031 0.0016145
-0.0016978 -0.00034248 -0.00058809 -0.00096229
0.0028993 -0.0007646 -0.001291 -0.00054906 0.00019588 0.0016212 0.24579 -0.00056637
-0.0049707 0.0065114 0.0012292 -0.00166
-0.0014414 -0.00037526 -0.00088997 -2.4199e-05 -0.0016913 -0.00032597 -0.0049625 0.0065186
0.22485 0.11543 0.00019612 0.0088437
0.00043589 0.00049244 -0.00088396 -0.0003391 -0.00058048 -0.00097181 0.0012279 -0.0016663
0.00019531 0.0088485 0.26396 0.16976
1760000000 0.27904 -0.080109 0.0037764 0.00664 -0.0017881 0.0006385 0.001591 -0.0030848
-0.00084264 0.00047804 0.00052326 -0.0002106
0.0037647 0.0066472 0.24918 0.20009 0.0016642 -0.0010545 -0.0010885 0.00014224
-0.0012261 0.00087758 -0.00053963 0.00054149
-0.00178 0.00063285 0.0016554 -0.0010653 0.21077 -0.23119 0.0010611 0.0013959
-0.0010727 0.0011588 -0.0013363 -0.00041493
0.0015828 -0.0031011 -0.001096 0.00014001 0.0010716 0.0013957 0.23503 -0.052911
-0.0027766 0.0063843 -0.00042917 -0.0018527
-0.00083975 0.00049033 -0.0012275 0.00088343 -0.001077 0.0011621 -0.002771 0.0063859
0.23933 0.077828 0.0036322 0.0063169
0.00052696 -0.00022925 -0.00053451 0.00055356 -0.0013138 -0.00039377 -0.00043005 -0.001853
0.0036381 0.0063158 0.27616 0.13173
1820000000 0.25086 -0.11723 0.0042784 0.0032474 0.00015373 0.0021101 -0.00058233 -0.0031403
-0.00076762 0.00035725 0.00024838 -0.00010877
0.0042683 0.0032512 0.25879 0.17001 -0.00016081 0.00018351 -0.0013533 0.00080265
-0.00011915 0.0015255 -0.00043366 0.00048448
0.00018469 0.0021129 -0.00016105 0.00018111 0.16042 -0.24597 0.0016564 0.00052309
-0.00045278 0.0021226 -0.0013868 0.00044236
-0.00060595 -0.0031341 -0.0013502 0.00081357 0.0016683 0.00053186 0.20309 -0.1001
-0.0018606 0.0055344 -0.0014283 -0.00098906
-0.00077708 0.00035701 -0.00010701 0.0015223 -0.00045911 0.0021314 -0.0018492 0.0055423
0.25475 0.045905 0.0044223 0.0029263
0.00024937 -0.00010464 -0.00042377 0.00048965 -0.0013716 0.00044843 -0.0014332 -0.00099514
0.0044143 0.0029253 0.27781 0.095284
1880000000 0.21268 -0.15575 0.0023122 0.0011586 -0.00034793 0.0018887 -0.0028389 -0.0025381
-0.00057336 0.0012695 0.00060255 -0.00081152
0.002309 0.0011566 0.26308 0.12376 -0.0020952 0.0017427 -0.00020918 0.0016717
0.00075779 0.0014257 0.00025841 0.00095
-0.00037453 0.0018908 -0.0020804 0.0017558 0.10818 -0.25567 0.0019933 -0.0011004
0.0013365 0.0020292 -0.00091341 0.0014887
-0.0028455 -0.0025218 -0.00020635 0.0016786 0.001991 -0.0010981 0.16107 -0.13887
-0.0016281 0.004817 -0.0020538 0.00082068
-0.00055776 0.0012787 0.00077287 0.0014125 0.0013316 0.0020099 -0.0016149 0.00482
0.25501 0.010738 0.0039787 0.0010754
0.00058018 -0.00082331 0.00026336 0.00095536 -0.00093016 0.0014834 -0.0020567 0.00082529
0.0039812 0.0010769 0.27707 0.061436
1940000000 0.17149 -0.17896 0.00050085 -0.00058312 0.0012343 0.0015625 -0.0040465 0.00045878
0.00096265 0.0011453 -0.00075163 -0.00093949
0.00049402 -0.00058189 0.2634 0.09196 -0.00095606 0.0039174 0.00097552 0.0013379
0.0021443 0.000421 0.0008705 0.00019503
0.0012118 0.0015598 -0.00094353 0.0039292 0.06228 -0.24881 0.00021712 -0.0024981
0.0025029 0.00042287 0.00037292 0.001733
-0.0040422 0.000481 0.00098481 0.0013273 0.00022465 -0.0025049 0.10817 -0.16746
-0.0022959 0.0047598 -0.00092608 0.0017405
0.00096858 0.0011362 0.0021608 0.00040141 0.0025203 0.00041188 -0.0022841 0.0047706
0.2531 -0.030284 0.0028747 -0.0018335
-0.00075306 -0.00092305 0.00087044 0.00018553 0.00036568 0.0017236 -0.00092107 0.0017373
0.0028756 -0.0018349 0.26573 0.025399
2000000000 0.12457 -0.1904 -0.0028962 0.0010896 0.0023635 0.0015311 -0.0024102 0.0037404
0.0011016 0.00056492 -0.0010847 0.00038686
-0.0028921 0.0010766 0.24913 0.056495 -0.00064585 0.005549 0.0016772 0.00027246
0.0015629 -0.0017095 0.00044462 9.3945e-06
0.0023925 0.0015119 -0.00060129 0.0055575 0.018894 -0.2345 -0.0016522 -0.0014022
0.002036 -0.0012398 0.0015613 0.0012526
-0.0023909 0.0037433 0.0016656 0.00026212 -0.0016608 -0.0014124 0.055225 -0.17545
-0.0032066 0.0057975 0.00022495 0.0021201
0.0011032 0.00057101 0.001541 -0.0017324 0.00203 -0.0012647 -0.003184 0.0058056
