!Keysight Technologies,M9804A,MY58100912,A.14.10.03
!Date: Thursday, April 27, 2023 10:28:33
!Correction: S11(C  6-Port  ) 
!S12(C  6-Port  ) 
!S13(C  6-Port  ) 
!S14(C  6-Port  ) 
!S15(C  6-Port  ) 
!S16(C  6-Port  ) 
!S21(C  6-Port  ) 
!S22(C  6-Port  ) 
!S23(C  6-Port  ) 
!S24(C  6-Port  ) 
!S25(C  6-Port  ) 
!S26(C  6-Port  ) 
!S31(C  6-Port  ) 
!S32(C  6-Port  ) 
!S33(C  6-Port  ) 
!S34(C  6-Port  ) 
!S35(C  6-Port  ) 
!S36(C  6-Port  ) 
!S41(C  6-Port  ) 
!S42(C  6-Port  ) 
!S43(C  6-Port  ) 
!S44(C  6-Port  ) 
!S45(C  6-Port  ) 
!S46(C  6-Port  ) 
!S51(C  6-Port  ) 
!S52(C  6-Port  ) 
!S53(C  6-Port  ) 
!S54(C  6-Port  ) 
!S55(C  6-Port  ) 
!S56(C  6-Port  ) 
!S61(C  6-Port  ) 
!S62(C  6-Port  ) 
!S63(C  6-Port  ) 
!S64(C  6-Port  ) 
!S65(C  6-Port  ) 
!S66(C  6-Port  ) 
!S6P File: Measurement: :
# Hz S  RI   R 50
500000000 -0.33631 -0.031532 -0.0094742 -0.0038482 -0.0077259 0.011534 -0.0035028 0.011548
0.011982 0.0043976 -0.0041738 0.0079114
-0.0094726 -0.0038393 -0.41874 -0.048261 0.0075471 -0.012007 0.0014304 0.010857
0.0078621 0.003036 0.00095735 0.012119
-0.0077057 0.011548 0.0075283 -0.012022 -0.26445 0.21188 0.0069059 0.0028135
0.00063883 0.0085357 0.0008273 0.011657
-0.0034892 0.011558 0.0014509 0.010865 0.0068949 0.0028238 -0.32644 0.049508
-0.018864 -0.0047985 0.017476 0.02451
0.011998 0.0043684 0.0078703 0.003028 0.00065709 0.0085439 -0.018864 -0.0048091
-0.22671 -0.17742 -0.027146 0.0049789
-0.0041684 0.0079215 0.00097774 0.012105 0.000835 0.011637 0.017486 0.024479
-0.027148 0.0050041 -0.27375 -0.12483
560000000 -0.31368 0.12621 -0.024663 -0.06301 0.00042301 0.011907 0.0066944 0.0099145
0.011752 0.0035325 0.0093824 0.0073417
-0.024614 -0.062932 -0.37572 0.11121 -0.042217 -0.036823 0.014293 0.0033546
-0.012864 -0.0053122 0.0048431 -0.0004218
0.00045017 0.011897 -0.04232 -0.036752 -0.18201 0.25977 -0.0011346 -0.0046887
0.018738 0.0039735 0.0072943 -0.0061971
0.0066961 0.0098815 0.014311 0.0033185 -0.0011141 -0.0046702 -0.3012 0.13746
0.0047495 -0.025192 0.0052492 -0.01964
0.011785 0.0035052 -0.01286 -0.005303 0.018721 0.0039653 0.004736 -0.025192
-0.2841 -0.0046077 0.0078931 -0.050857
0.0094172 0.0073431 0.0047972 -0.00045492 0.007318 -0.0062067 0.0052147 -0.01962
0.0079075 -0.050868 -0.33225 0.023638
620000000 -0.27187 0.11052 -0.023081 0.0067535 0.0032346 0.0084133 0.0067071 -0.0059131
0.010821 -0.0010251 0.00062851 -0.0025848
-0.023057 0.0067455 -0.40244 0.0643 -0.019157 -0.00032065 -0.0016594 -0.0024155
0.010467 -0.00681 0.00076807 -0.0026208
0.0032612 0.0084064 -0.019182 -0.00028658 -0.15246 0.26858 -0.001798 -0.0052149
-0.0033823 -0.003134 0.007826 -0.003502
0.0066782 -0.005929 -0.0016604 -0.00241 -0.00178 -0.0052262 -0.25885 0.1469
-0.038895 -0.019147 0.014417 0.023512
0.010842 -0.0010538 0.010454 -0.0068422 -0.0034111 -0.0031248 -0.038921 -0.019124
-0.20365 -0.044015 -0.038866 0.013372
0.00058255 -0.0025922 0.00077592 -0.0026198 0.0078868 -0.0034835 0.014436 0.023542
-0.038899 0.013332 -0.25017 -0.013491
680000000 -0.23108 0.19283 -0.027933 -0.014076 0.0050586 0.0050285 0.00047999 -0.0077092
-0.0033861 -0.010989 0.0040768 -0.0074746
-0.027901 -0.014087 -0.38646 0.16075 -0.032912 -0.0010409 -0.0017476 -0.00056358
-0.0031157 -0.0086431 -0.00087698 -0.0024458
0.0050604 0.0050205 -0.032942 -0.00095934 -0.10189 0.28791 -0.00073272 0.0002239
-0.0024335 0.00094225 -0.0029661 -0.0096987
0.00046096 -0.0077144 -0.0017469 -0.00055831 -0.00073865 0.00022477 -0.21793 0.19545
-0.023535 -0.0086981 -0.010791 -0.010127
-0.0034075 -0.010984 -0.003142 -0.0086501 -0.0024375 0.00093727 -0.023577 -0.0086912
-0.24821 0.052414 -0.0048909 -0.0097442
0.0040555 -0.007476 -0.00087388 -0.0024601 -0.0029682 -0.0097154 -0.010831 -0.010128
-0.0049015 -0.0097558 -0.26207 0.090537
740000000 -0.18861 0.18863 -0.038362 0.026377 0.012406 -0.0052707 -0.00074085 -0.0038595
-0.0047218 -0.0022642 -0.0063615 0.0032755
-0.038335 0.026334 -0.33498 0.17934 -0.034597 0.035064 -0.00086212 -0.0063808
-0.011437 0.0084235 -0.0025971 -0.0059864
0.012388 -0.005276 -0.034526 0.035174 -0.068269 0.28716 -0.001132 0.0035132
-0.0027771 -0.0035444 -0.0010015 0.00063047
-0.00076481 -0.0038632 -0.0008774 -0.0063809 -0.0011339 0.0035104 -0.2011 0.20334
-0.042816 -0.0078856 0.022483 0.012183
-0.0047451 -0.0022508 -0.011404 0.0084628 -0.0027859 -0.0035664 -0.042864 -0.00783
-0.15531 0.07383 -0.04214 0.0012368
-0.006373 0.0032838 -0.0026458 -0.0059907 -0.001005 0.00061836 0.022445 0.012187
-0.042095 0.0011424 -0.25019 0.097636
800000000 -0.15728 0.22892 -0.022649 0.017366 0.0051144 -0.010455 -0.004826 -0.0019256
-0.0040491 0.0030535 0.0043812 0.0010281
-0.022639 0.017353 -0.33701 0.24954 -0.0077105 0.034109 -0.0019457 0.0021874
-0.00025853 0.0035853 0.0012959 0.0052665
0.0050895 -0.010471 -0.0076195 0.034159 -0.026883 0.3101 0.0012496 0.0014998
0.00077764 0.0035969 -0.0018574 0.0010081
-0.004827 -0.0019182 -0.0019413 0.0022008 0.0012568 0.0015087 -0.17379 0.23104
-0.028759 0.012383 0.012825 -0.0096617
-0.0040492 0.0030733 -0.00024194 0.0035891 0.00077508 0.0035867 -0.028765 0.012441
-0.1975 0.09866 -0.01798 0.016954
0.0043884 0.0010107 0.0013113 0.0052711 -0.001861 0.0010191 0.012816 -0.0096839
-0.017963 0.016945 -0.24373 0.15184
860000000 -0.12221 0.25067 -0.017024 0.031451 -0.0034349 -0.0096224 -0.0026249 0.0012797
0.0045024 0.0051735 -0.002672 -0.0026958
-0.017019 0.03142 -0.28906 0.29149 0.0082817 0.034067 0.0003825 0.0018968
0.0046784 -9.8894e-05 0.0034448 0.00044528
-0.0034593 -0.0096199 0.0083967 0.034073 0.021879 0.31781 -0.00028231 -0.00033662
0.0028801 -0.0016177 0.0016192 0.0045662
-0.0026395 0.0012801 0.00038776 0.0019075 -0.00028517 -0.00033726 -0.13826 0.24304
-0.017977 0.018352 -0.006212 -0.0091782
0.0045231 0.0051567 0.0046888 -0.00011148 0.0028748 -0.0016271 -0.017957 0.018392
-0.14993 0.1459 -0.023942 0.015638
-0.0026637 -0.0026899 0.003465 0.00044058 0.0016127 0.0045418 -0.0061962 -0.0091723
-0.023874 0.015587 -0.19343 0.1946
920000000 -0.096586 0.274 0.0053547 0.038119 -0.0094135 -0.0040138 -0.0015841 0.0025158
0.0013226 0.0016669 0.0026535 -0.0012949
0.0053415 0.038091 -0.25979 0.31255 0.028075 0.02155 0.0017077 0.0011198
0.0066805 -0.00092718 0.0037353 -0.0028339
-0.0094304 -0.0039885 0.028176 0.021488 0.068413 0.31792 0.0017483 -0.00015585
0.0013291 -0.00060141 0.0008063 -0.0010609
-0.0015665 0.0025168 0.0017099 0.001118 0.0017501 -0.0001508 -0.11372 0.25959
-0.010566 0.029695 0.0023501 -0.0062087
0.0013258 0.0016532 0.006691 -0.00094711 0.0013307 -0.00060365 -0.010515 0.029727
-0.13931 0.15266 -0.0022119 0.027257
0.0026481 -0.0013227 0.0037146 -0.0028787 0.00081417 -0.0010591 0.0023824 -0.0062202
-0.0022326 0.027245 -0.19932 0.20884
980000000 -0.048611 0.29335 0.01823 0.029905 -0.0086752 0.0048325 0.0025768 0.0037194
0.0039781 -0.0018635 -0.0029018 -0.002199
0.018207 0.029903 -0.20674 0.34587 0.032796 0.0043155 0.0020067 -4.5455e-05
0.00092378 -0.0061332 -0.00055957 -0.0022448
-0.0086635 0.0048472 0.032848 0.0042298 0.11478 0.31091 0.00035689 -0.0011686
-4.1164e-06 -0.0020933 0.0015985 -0.00017852
0.0025947 0.0037188 0.0019904 -5.6631e-05 0.00034914 -0.0011614 -0.075409 0.2713
0.0071674 0.028227 -0.0094697 -0.0063706
0.0039799 -0.001886 0.00088339 -0.0061231 -7.2633e-06 -0.0020954 0.0072284 0.028235
-0.10847 0.17962 0.0052133 0.018559
-0.0029127 -0.0021956 -0.00057506 -0.0022594 0.001585 -0.00017734 -0.0094728 -0.0063561
0.0052057 0.018561 -0.1564 0.25308
1040000000 -0.00528 0.30124 0.033405 0.017467 -0.00093619 0.0068374 0.0029523 0.00064688
-4.9145e-05 -0.0037775 -0.00073119 -0.0013816
0.033384 0.017476 -0.17081 0.35866 0.028789 -0.015022 0.00146 -0.0016705
-0.0026316 -0.0021966 -0.0014176 -0.0026633
-0.00092446 0.006826 0.028775 -0.015127 0.16089 0.29657 -0.0005378 -0.0013765
-0.0015526 -0.00074444 -0.00038237 -0.0010575
0.0029715 0.00063655 0.0014467 -0.001656 -0.00053586 -0.0013766 -0.047532 0.28118
0.01796 0.016816 -0.0031572 0.0024058
-6.686e-05 -0.0037873 -0.0026542 -0.0021566 -0.0015398 -0.00074165 0.018008 0.016793
-0.077902 0.18883 0.013157 0.017845
-0.00071661 -0.0013553 -0.0014636 -0.0026664 -0.00036995 -0.0010574 -0.0031421 0.0024173
0.013154 0.017851 -0.13451 0.27414
1100000000 0.040582 0.3081 0.035593 -0.0048223 0.0030531 0.0036059 0.0025834 -0.0016237
-0.0022232 -0.0029256 -0.003879 7.9352e-05
0.035572 -0.0047885 -0.12718 0.37526 0.014541 -0.027628 3.1802e-05 -0.0018337
-0.0030507 -0.00023981 -0.0033713 -0.00046045
0.0030628 0.0035983 0.014466 -0.0277 0.20705 0.27587 -0.0017468 0.00030151
-0.0015787 0.00064651 -0.00094692 -0.00041436
0.0025779 -0.0016299 1.8815e-05 -0.0018316 -0.0017524 0.0003007 -0.006762 0.28589
0.021979 0.0049148 -0.0020545 0.001308
-0.0022408 -0.0029196 -0.0030602 -0.00021941 -0.0015716 0.00064942 0.021994 0.0048886
-0.059145 0.20212 0.018283 0.0083686
-0.0038708 0.00012274 -0.0033756 -0.00045202 -0.00095858 -0.00042443 -0.0020515 0.0013111
0.018289 0.0083688 -0.087618 0.30306
1160000000 0.09235 0.30213 0.023516 -0.020997 0.0026652 -0.0006137 -0.00010458 -0.0026403
-0.0041356 -0.00028103 -0.00085813 0.0040795
0.023531 -0.020955 -0.083096 0.37888 -0.0040151 -0.028564 -0.0017672 -0.0016018
-0.0021655 0.0025702 -0.0012986 0.0016168
0.0026683 -0.00062964 -0.0041341 -0.028558 0.24983 0.24464 -0.00051521 0.0016382
-0.00025871 0.0017237 -0.0010564 5.075e-05
-9.6091e-05 -0.002641 -0.0017841 -0.0015829 -0.00051252 0.0016401 0.032795 0.28281
0.018497 -0.0094068 -0.0025179 0.0058419
-0.0041396 -0.00026465 -0.0021599 0.0026016 -0.00025913 0.0017362 0.018478 -0.0094325
-0.025695 0.21197 0.017013 0.00054554
-0.00085687 0.0040841 -0.001288 0.0016285 -0.0010644 5.7664e-05 -0.0025023 0.0058535
0.017011 0.00053774 -0.040736 0.30576
1220000000 0.13671 0.28981 0.0099275 -0.02985 -0.0015824 -0.00090846 -0.00025608 -0.0011413
-0.0024803 0.0026454 0.001348 0.0018655
0.0099411 -0.029809 -0.039035 0.39011 -0.016733 -0.020566 -0.0024838 0.00047565
0.00039539 0.0027024 -0.00066888 0.0017446
-0.0015798 -0.00091329 -0.016836 -0.020509 0.28869 0.20554 0.00091635 0.001477
0.00057946 0.0010344 0.00022838 0.0007264
-0.00025619 -0.0011349 -0.0024899 0.00048358 0.00091707 0.0014736 0.072423 0.27383
0.0087272 -0.014655 0.0032026 0.0017345
-0.0024674 0.0026499 0.00040816 0.002711 0.00058611 0.0010398 0.0086995 -0.014671
-0.0015608 0.22154 0.013028 -0.011957
0.0013575 0.0018623 -0.00066604 0.0017444 0.0002333 0.00072001 0.0032005 0.0017324
0.013037 -0.011953 -0.0085065 0.32185
1280000000 0.18596 0.26689 -0.0080473 -0.028013 -0.0018515 0.0023627 -0.0011638 -0.0019449
-0.00044125 0.0030819 0.0025454 0.00090953
-0.0080248 -0.027993 0.0065988 0.38068 -0.023176 -0.0081232 -0.00096805 0.0014454
0.0015702 0.0013988 0.00048388 0.0019332
-0.0018355 0.0023786 -0.023242 -0.0080249 0.31917 0.16154 0.0012711 -0.00020196
0.00087289 6.8605e-05 0.00031217 0.00046503
-0.0011705 -0.0019441 -0.00095658 0.0014518 0.0012853 -0.00020366 0.10873 0.25773
0.00037437 -0.015908 0.00099376 -3.576e-05
-0.00042495 0.0030856 0.0015867 0.0013856 0.00087107 6.4081e-05 0.00033939 -0.015918
0.035951 0.22518 0.002731 -0.01385
0.0025382 0.00088309 0.00048697 0.0019323 0.00032161 0.00046218 0.0009944 -3.7583e-05
0.0027232 -0.013851 0.038895 0.32297
1340000000 0.22247 0.23229 -0.017574 -0.018671 0.00081679 0.0042908 -0.0019317 -0.00062742
0.0014895 0.0024622 0.0015485 -0.0015359
-0.017542 -0.018662 0.045792 0.37193 -0.021061 0.0041966 -6.786e-05 0.0018905
0.0015795 0.0005971 0.001301 0.00084435
0.00083345 0.0042908 -0.021057 0.0043035 0.34126 0.11342 0.00086764 -0.00082996
0.00050144 -0.00034346 0.00026893 0.00023238
-0.0019339 -0.00061813 -6.3775e-05 0.001895 0.00086536 -0.00082862 0.14157 0.23755
-0.0070157 -0.013132 0.0015988 -0.00036166
0.0014956 0.0024564 0.001593 0.0005936 0.00050567 -0.000348 -0.0070446 -0.013124
0.067218 0.22019 -0.0033046 -0.012274
0.0015474 -0.0015485 0.0013104 0.00083858 0.0002665 0.00023424 0.0015968 -0.0003755
-0.0032835 -0.012278 0.077991 0.31815
1400000000 0.25476 0.19366 -0.023136 -0.0073122 0.0049638 0.0030383 -0.0019893 0.00074788
0.0024317 0.0005158 0.00011831 -0.0013376
-0.023108 -0.0073205 0.082455 0.35872 -0.014459 0.012031 0.0013069 0.0012152
0.00078541 -0.00074345 0.0011811 0.00027853
0.0049748 0.0030276 -0.014415 0.012118 0.35426 0.059627 5.49e-05 -0.0013773
-4.3147e-05 -0.0003157 0.0003535 0.00024155
-0.0019913 0.00075291 0.0013148 0.0012117 5.6132e-05 -0.0013794 0.17148 0.20927
-0.011535 -0.0074925 -0.00050697 -0.0011965
0.0024362 0.00050044 0.0007866 -0.00074728 -4.0887e-05 -0.00031799 -0.01156 -0.0074723
0.10082 0.21481 -0.0092719 -0.0078571
0.00012141 -0.0013345 0.0011958 0.00027269 0.00035772 0.00024355 -0.00051292 -0.0011928
-0.0092736 -0.0078558 0.12275 0.30672
1460000000 0.27705 0.14935 -0.020271 0.0045701 0.005328 -0.0016897 -0.0014774 0.0017299
0.001826 -0.00086252 -0.00038473 -0.0008672
-0.020257 0.0045497 0.11641 0.33681 -0.006123 0.014761 0.0016716 0.00013095
0.00080246 -0.0009973 0.001185 -0.00062224
0.0053258 -0.0017049 -0.0060479 0.0148 0.35992 0.0047488 -0.0010226 -0.0011169
0.00025829 -0.00010971 0.00059268 -0.00041153
-0.0014676 0.001739 0.0016721 0.00012983 -0.0010226 -0.0011166 0.19871 0.18014
-0.011852 -0.0026313 -0.0012697 0.0010959
0.0018184 -0.00086099 0.00080184 -0.0010064 0.00025762 -0.00010655 -0.011865 -0.0025959
0.13116 0.19942 -0.01054 -0.0027966
-0.00040072 -0.00086977 0.0011734 -0.00063661 0.00059357 -0.00042034 -0.0012572 0.0010963
-0.010545 -0.0027992 0.15598 0.28534
1520000000 0.28873 0.10734 -0.014685 0.010174 0.0030868 -0.0039421 0.00014522 0.0024935
0.0015005 -0.0016789 -0.0011341 -9.7323e-05
-0.014682 0.010152 0.14971 0.3219 0.0012379 0.012795 0.0015555 -0.00080012
0.0001787 -0.00083443 0.00028803 -0.0010372
0.0030647 -0.0039646 0.0013096 0.012797 0.35282 -0.05165 -0.00081271 -0.00036355
0.00056522 -0.00075037 -2.9448e-05 -8.2062e-05
0.00016093 0.0024944 0.0015501 -0.00081886 -0.00081447 -0.00036404 0.2228 0.14173
-0.011398 0.0013581 0.00070405 0.0015505
0.0014902 -0.0016884 0.00017623 -0.00083882 0.00056767 -0.00075314 -0.011398 0.0013791
0.15939 0.18392 -0.010661 0.0012595
-0.0011399 -8.8139e-05 0.00027768 -0.0010358 -3.175e-05 -8.3111e-05 0.00070905 0.0015561
-0.010674 0.0012531 0.18939 0.2645
1580000000 0.29771 0.060745 -0.0081918 0.013268 -0.00096694 -0.0046067 0.0013605 0.0017866
-0.00060762 -0.001851 -0.00031863 0.00037988
-0.0081998 0.013253 0.17682 0.29716 0.004852 0.0081995 0.00041926 -0.0015319
-0.00030243 -0.0010142 -0.00030326 -0.0008748
-0.00098826 -0.0046037 0.004897 0.00818 0.3322 -0.10921 -0.001434 0.00037482
-0.00026721 -0.0010843 0.00014024 -0.00057677
0.0013719 0.0017804 0.00040511 -0.0015318 -0.0014394 0.00037204 0.23768 0.10137
-0.0091667 0.0048685 0.0015167 0.00069527
-0.00061823 -0.0018504 -0.00031204 -0.0010136 -0.00026976 -0.0010894 -0.009154 0.0048875
0.18393 0.16489 -0.0086376 0.0064641
-0.00031226 0.00038164 -0.00031848 -0.00087187 0.00014104 -0.00057997 0.0015224 0.00069379
-0.0086355 0.0064642 0.22145 0.23745
1640000000 0.29917 0.01865 -0.0015664 0.012318 -0.0026095 -0.0023445 0.0025312 0.0010056
-0.00080127 -0.00088483 -0.00029071 0.00070321
-0.001578 0.012307 0.20626 0.27183 0.0055719 0.003643 -0.00071509 -0.0015859
-0.00092304 -0.00057228 -0.00056959 -0.00063731
-0.0026237 -0.0023301 0.0055976 0.0036062 0.30356 -0.15851 -0.000902 0.0012026
-0.00098871 -0.00086283 -6.6737e-05 -0.00029807
0.0025353 0.00099698 -0.00072071 -0.0015761 -0.00091686 0.0011974 0.25029 0.050889
-0.0064142 0.0056602 0.0019215 -0.00052962
-0.0008082 -0.00088575 -0.00093378 -0.00056098 -0.00099451 -0.00085844 -0.0064015 0.0056854
0.20703 0.13882 -0.004401 0.0084111
-0.00028537 0.00070821 -0.00057774 -0.00062524 -6.6412e-05 -0.00029463 0.0019203 -0.00053364
-0.0044051 0.0084106 0.24718 0.20581
1700000000 0.29069 -0.027144 0.0019274 0.0096132 -0.0032132 0.0001225 0.002887 -0.0010319
-0.0015919 -0.0003069 0.00064551 0.00044241
0.0019235 0.0096024 0.22414 0.24016 0.0037658 0.0008822 -0.0013434 -0.0005306
-0.00087534 -7.3766e-05 -0.00093123 -0.00037074
-0.0032054 0.00013693 0.0037731 0.00086838 0.25953 -0.19791 0.00020295 0.0015848
-0.0017323 -0.0003169 -0.00056851 -0.00091353
0.0028866 -0.0010489 -0.0013559 -0.00052091 0.00020937 0.0015853 0.24645 -0.00067271
-0.0049989 0.0063246 0.0012299 -0.0017501
-0.0015939 -0.00028922 -0.00087556 -6.9844e-05 -0.0017402 -0.00031117 -0.0049848 0.0063425
0.22438 0.11658 -1.3734e-05 0.008866
0.00065434 0.00043319 -0.00093711 -0.00036292 -0.00057293 -0.00091611 0.0012317 -0.0017558
-5.8875e-06 0.0088627 0.26314 0.17083
1760000000 0.27717 -0.075696 0.0042905 0.0064631 -0.0021003 0.00073885 0.0013972 -0.0032665
-0.00082388 0.00056573 0.00047928 -0.0004212
0.0042819 0.0064613 0.24991 0.2 0.0016906 -0.00082485 -0.0010689 0.00019501
-0.0012356 0.00086205 -0.00059672 0.00058254
-0.0020867 0.00074947 0.0016748 -0.00083876 0.21033 -0.23091 0.0010717 0.0013453
-0.0011693 0.0012342 -0.001397 -0.00040591
0.0013888 -0.0032695 -0.0010656 0.00020057 0.0010747 0.0013355 0.23554 -0.05331
-0.0028488 0.0062714 -0.00054749 -0.0019144
-0.00082082 0.00057337 -0.0012314 0.00087396 -0.0011684 0.001236 -0.0028437 0.0062874
0.23927 0.079057 0.0034379 0.0062925
0.00047646 -0.00043063 -0.00059815 0.00058513 -0.0014007 -0.00039107 -0.0005511 -0.0019075
0.0034384 0.0062878 0.27547 0.13296
1820000000 0.25107 -0.11258 0.0046459 0.0028594 -0.00010565 0.0022171 -0.0008682 -0.0030438
-0.00072943 0.00039366 7.9954e-05 -0.00016325
0.0046414 0.0028624 0.25937 0.16961 -0.00010289 8.4311e-05 -0.0013492 0.00080227
-0.00017241 0.0014708 -0.00045784 0.00055867
-9.1446e-05 0.0022173 -0.0001055 9.0959e-05 0.16041 -0.24628 0.0015474 0.00050586
-0.00047191 0.0020426 -0.001302 0.00058508
-0.00088519 -0.003039 -0.0013461 0.00082327 0.0015533 0.00051842 0.20326 -0.10079
-0.0018615 0.0054078 -0.0015504 -0.0011118
-0.00073118 0.00039792 -0.00016358 0.0014709 -0.00045502 0.002037 -0.0018524 0.0054204
0.25492 0.047122 0.0043107 0.0030696
7.9778e-05 -0.00016612 -0.000452 0.00056156 -0.0013087 0.00056414 -0.001552 -0.0011143
0.0043261 0.0030711 0.27725 0.096518
1880000000 0.21473 -0.15159 0.0025731 0.00051366 -0.00033012 0.0020214 -0.0028351 -0.0022873
-0.00043532 0.0012325 0.00026549 -0.00067163
0.0025651 0.00051719 0.26339 0.12307 -0.0020147 0.0017169 -0.00018253 0.0016955
0.00072742 0.0014518 0.00027302 0.00090471
-0.00031354 0.0020206 -0.0020127 0.0017245 0.10842 -0.25544 0.0019905 -0.0010336
0.0014182 0.0020558 -0.00087449 0.0014086
-0.0028462 -0.0022777 -0.00017291 0.0016975 0.001999 -0.0010348 0.16083 -0.13959
-0.0016661 0.0046392 -0.0021204 0.00090394
-0.00042168 0.0012416 0.00073715 0.0014473 0.0014268 0.0020497 -0.0016455 0.0046441
0.25547 0.011704 0.0039509 0.0012532
0.00025022 -0.00068016 0.00028018 0.0009036 -0.00086878 0.0014158 -0.0021156 0.00090631
0.0039527 0.001262 0.27684 0.062511
1940000000 0.17492 -0.17619 0.00041036 -0.0013426 0.0013243 0.0018648 -0.0038339 0.0004722
0.00095112 0.00099014 -0.00075088 -0.00059797
0.00040888 -0.0013411 0.26341 0.091185 -0.00090565 0.0038003 0.00095738 0.0012886
0.0021501 0.00052157 0.00083321 0.00018368
0.0013352 0.0018574 -0.00087915 0.0038101 0.062261 -0.24909 0.00028346 -0.0024997
0.002411 0.00054022 0.00039669 0.0015953
-0.0038345 0.00048696 0.00095533 0.0012834 0.00029554 -0.0024959 0.10741 -0.16793
-0.002508 0.0045838 -0.00093026 0.0019008
0.0009612 0.00098098 0.0021545 0.00050481 0.0024149 0.00054744 -0.0025057 0.0045922
0.25375 -0.029455 0.0028148 -0.001678
-0.00075692 -0.00060586 0.00083782 0.00016814 0.00037006 0.0015781 -0.00093569 0.0018931
0.0028238 -0.0016662 0.26549 0.02638
2000000000 0.12879 -0.18925 -0.0034388 0.00048005 0.0023239 0.0015477 -0.0023018 0.0035918
0.0010179 0.00045497 -0.00064644 0.00039909
-0.0034318 0.00047994 0.24869 0.055809 -0.00080622 0.0054309 0.0016429 0.00020426
0.0016865 -0.0017231 0.00047705 5.8048e-05
0.0023341 0.0015376 -0.0007686 0.0054445 0.018891 -0.23468 -0.0015693 -0.0015133
0.0021084 -0.0013128 0.0016756 0.001154
-0.0022883 0.0035924 0.0016489 0.00019 -0.0015871 -0.0015157 0.054107 -0.17566
-0.0036417 0.0055341 0.00041311 0.0021507
