!Keysight Technologies,M9804A,MY58100912,A.14.10.03
!Date: Thursday, April 27, 2023 10:28:33
!Correction: S11(C  6-Port  ) 
!S12(C  6-Port  ) 
!S13(C  6-Port  ) 
!S14(C  6-Port  ) 
!S15(C  6-Port  ) 
!S16(C  6-Port  ) 
!S21(C  6-Port  ) 
!S22(C  6-Port  ) 
!S23(C  6-Port  ) 
!S24(C  6-Port  ) 
!S25(C  6-Port  ) 
!S26(C  6-Port  ) 
!S31(C  6-Port  ) 
!S32(C  6-Port  ) 
!S33(C  6-Port  ) 
!S34(C  6-Port  ) 
!S35(C  6-Port  ) 
!S36(C  6-Port  ) 
!S41(C  6-Port  ) 
!S42(C  6-Port  ) 
!S43(C  6-Port  ) 
!S44(C  6-Port  ) 
!S45(C  6-Port  ) 
!S46(C  6-Port  ) 
!S51(C  6-Port  ) 
!S52(C  6-Port  ) 
!S53(C  6-Port  ) 
!S54(C  6-Port  ) 
!S55(C  6-Port  ) 
!S56(C  6-Port  ) 
!S61(C  6-Port  ) 
!S62(C  6-Port  ) 
!S63(C  6-Port  ) 
!S64(C  6-Port  ) 
!S65(C  6-Port  ) 
!S66(C  6-Port  ) 
!S6P File: Measurement: :
# Hz S  RI   R 50
500000000 -0.33233 -0.027693 -0.0080665 -0.0047327 -0.0076992 0.010167 -0.0034228 0.011734
0.012408 0.0042334 -0.0039974 0.0078323
-0.0080572 -0.0047354 -0.41839 -0.047683 0.0077017 -0.012121 0.0015208 0.010971
0.0079507 0.0022226 0.0012989 0.011759
-0.0076692 0.010157 0.0076894 -0.012138 -0.26352 0.21202 0.0071651 0.002832
0.00055474 0.0078365 0.0010458 0.011477
-0.0033912 0.011731 0.0015558 0.010981 0.0071331 0.0028508 -0.32522 0.050333
-0.018102 -0.0049802 0.018174 0.024414
0.012277 0.0043355 0.0079712 0.0021615 0.00063954 0.0076841 -0.018225 -0.0050356
-0.22752 -0.17543 -0.026338 0.0047231
-0.0037971 0.00801 0.0014976 0.011953 0.00107 0.011633 0.01813 0.024733
-0.026346 0.0047538 -0.27301 -0.12131
560000000 -0.30817 0.12688 -0.022991 -0.063956 -0.00060132 0.011832 0.0069195 0.0095917
0.011571 0.0026939 0.0091271 0.0070581
-0.022925 -0.063895 -0.37618 0.10933 -0.041103 -0.036602 0.014587 0.0032091
-0.013261 -0.0048653 0.0052222 -0.0011175
-0.00056697 0.011825 -0.04119 -0.036575 -0.18276 0.25915 -0.0011179 -0.0051898
0.01862 0.0033883 0.0073163 -0.0061446
0.0069161 0.0095397 0.014462 0.003207 -0.0010015 -0.0051395 -0.30029 0.13701
0.0047152 -0.025901 0.0051584 -0.019422
0.011581 0.002554 -0.012961 -0.0049928 0.018435 0.0036649 0.0047407 -0.025881
-0.2838 -0.0039739 0.0075838 -0.050807
0.0091791 0.0069259 0.0051671 -0.00096444 0.0073144 -0.0060787 0.0051764 -0.019255
0.0075994 -0.050824 -0.33153 0.025723
620000000 -0.26745 0.11004 -0.022787 0.0051762 0.0029267 0.0079937 0.0067887 -0.0059445
0.010765 -0.0015981 0.00064813 -0.0022696
-0.022756 0.0051906 -0.40205 0.063679 -0.019271 -0.00055551 -0.0019132 -0.0019999
0.0099189 -0.0074383 0.00065857 -0.0027566
0.0029807 0.0079903 -0.01929 -0.00050508 -0.15273 0.26797 -0.0023861 -0.0048442
-0.0039611 -0.0037124 0.0078538 -0.0034418
0.0067375 -0.0059609 -0.0019447 -0.0019751 -0.0023889 -0.0049268 -0.25889 0.1459
-0.037713 -0.018888 0.014339 0.023624
0.010469 -0.0015183 0.0099117 -0.007621 -0.0038255 -0.0034058 -0.038032 -0.01857
-0.20425 -0.043386 -0.039254 0.013488
0.00056429 -0.0022406 0.00057987 -0.002925 0.0078072 -0.0035573 0.014369 0.023519
-0.039237 0.013452 -0.25084 -0.0096268
680000000 -0.22736 0.18947 -0.028457 -0.015675 0.0046884 0.0052524 -0.00011375 -0.0080627
-0.0037926 -0.010679 0.0038224 -0.0069616
-0.02842 -0.01566 -0.38665 0.16032 -0.033097 -0.0011273 -0.0019092 -0.00031496
-0.0032148 -0.0084231 -0.00076915 -0.0024816
0.004695 0.0052323 -0.03312 -0.0010417 -0.10221 0.2875 -0.00063251 0.00034755
-0.002586 0.0013449 -0.003109 -0.0096223
-0.00012377 -0.0080943 -0.0018954 -0.00031009 -0.00062725 0.00033861 -0.21797 0.19496
-0.023859 -0.009476 -0.010784 -0.0099743
-0.0038315 -0.01069 -0.0031866 -0.008458 -0.0025791 0.0012768 -0.023766 -0.0094919
-0.24723 0.052872 -0.0048171 -0.010443
0.0037656 -0.0070224 -0.00073514 -0.0024801 -0.0031073 -0.0096011 -0.010814 -0.0099726
-0.0048111 -0.010456 -0.26227 0.091646
740000000 -0.18783 0.18462 -0.039557 0.025032 0.012432 -0.0049745 -0.0010276 -0.0040748
-0.0045166 -0.0018382 -0.0061288 0.0033949
-0.039528 0.024995 -0.33549 0.1795 -0.03484 0.03498 -0.00085234 -0.0060598
-0.010949 0.0085325 -0.0023154 -0.0059191
0.01242 -0.0050277 -0.034769 0.035118 -0.06903 0.28717 -0.0010038 0.0034405
-0.0029144 -0.0035679 -0.00085619 0.00074776
-0.0010359 -0.004093 -0.00085348 -0.0060877 -0.0010079 0.0034761 -0.20127 0.2026
-0.042724 -0.0080998 0.022301 0.012396
-0.0045188 -0.0018284 -0.011032 0.0087628 -0.0031233 -0.0035734 -0.042625 -0.0080536
-0.15588 0.072849 -0.042282 0.00061727
-0.0060537 0.0034767 -0.0024239 -0.0059486 -0.00093176 0.0006658 0.022305 0.012368
-0.04229 0.00059909 -0.24994 0.099684
800000000 -0.15862 0.22489 -0.024229 0.017225 0.0051026 -0.010359 -0.0050258 -0.0018822
-0.003967 0.0035786 0.0044938 0.00075528
-0.024227 0.017198 -0.3375 0.24992 -0.0078486 0.034332 -0.0018937 0.0023071
-7.5794e-05 0.003791 0.001348 0.0052536
0.0050802 -0.010378 -0.0077661 0.03439 -0.027426 0.3105 0.0013519 0.0013246
0.00091018 0.0035289 -0.002019 0.0011768
-0.0050303 -0.0018741 -0.0018768 0.0022994 0.0013729 0.001326 -0.1743 0.2306
-0.029179 0.012319 0.012561 -0.0095174
-0.0039905 0.0034498 -8.4701e-05 0.0037211 0.00085473 0.0034763 -0.029211 0.012339
-0.19797 0.098013 -0.017968 0.017279
0.0044594 0.00071903 0.0013357 0.0052749 -0.0020793 0.0011809 0.012569 -0.0095272
-0.017966 0.017254 -0.24344 0.15244
860000000 -0.1246 0.24773 -0.018227 0.032106 -0.0036729 -0.0096738 -0.0027429 0.0016841
0.0046621 0.0048595 -0.0026853 -0.0032145
-0.018234 0.032069 -0.28942 0.2923 0.008328 0.034292 0.00051226 0.0020473
0.0049172 -0.00046362 0.0032278 0.00020412
-0.0036994 -0.0096714 0.0084304 0.034291 0.021542 0.31844 -0.00034476 -0.00041417
0.0027266 -0.0016955 0.0015629 0.0044834
-0.0027148 0.0017325 0.00049762 0.0021028 -0.00034703 -0.00041158 -0.13899 0.24325
-0.018622 0.018902 -0.0062166 -0.0094072
0.0049521 0.0048455 0.0050345 -0.0003481 0.0028083 -0.0016969 -0.018535 0.018973
-0.15046 0.14597 -0.023719 0.015366
-0.0027994 -0.003333 0.0032769 0.00016367 0.0015422 0.0045057 -0.0061958 -0.0094396
-0.023702 0.01533 -0.19224 0.19515
920000000 -0.099091 0.27267 0.0046285 0.03917 -0.0094066 -0.003744 -0.0015719 0.0028059
0.0016159 0.0014682 0.002287 -0.0014033
0.0045942 0.039141 -0.25966 0.31312 0.028485 0.021781 0.0016448 0.0010163
0.0067521 -0.00097244 0.0035391 -0.0029106
-0.0094077 -0.0037177 0.028571 0.021717 0.068472 0.31864 0.0016915 -0.00010645
0.0013023 -0.00050908 0.00088568 -0.00095636
-0.0015485 0.0027977 0.0016662 0.0010008 0.0016915 -0.00013115 -0.11442 0.26012
-0.010761 0.030152 0.0021394 -0.0060661
0.001592 0.0013964 0.0066885 -0.00086473 0.0012803 -0.00048332 -0.010635 0.030202
-0.13994 0.15308 -0.0024138 0.027303
0.0022209 -0.0013562 0.0036678 -0.0028451 0.00094739 -0.00094746 0.0021129 -0.006063
-0.0024293 0.027286 -0.19886 0.21051
980000000 -0.0513 0.29303 0.018172 0.031163 -0.0084493 0.0050417 0.0028417 0.0038007
0.0039405 -0.0019261 -0.0028937 -0.0018649
0.018117 0.031151 -0.20673 0.34646 0.03328 0.0043966 0.0018751 -0.00023132
0.00078507 -0.00599 -0.00042462 -0.0022319
-0.0084331 0.0050694 0.033312 0.0042905 0.11499 0.31147 0.00036603 -0.0012085
-8.7602e-05 -0.002088 0.001728 -0.00011783
0.0028565 0.0037856 0.0018707 -0.00023278 0.00038003 -0.0012246 -0.075947 0.27211
0.0073704 0.028791 -0.0095441 -0.0064246
0.0039486 -0.0019354 0.00066243 -0.0059544 -6.2531e-05 -0.0020843 0.0074237 0.028834
-0.10887 0.18005 0.0051744 0.018722
-0.0028553 -0.0018369 -0.00046093 -0.0021799 0.0017408 -9.6384e-05 -0.0094942 -0.0063722
0.0051592 0.018713 -0.15553 0.25383
1040000000 -0.007593 0.30162 0.033902 0.018335 -0.00066742 0.0070475 0.0031813 0.00042089
-0.00026632 -0.0038848 -0.0004748 -0.0011653
0.033843 0.018362 -0.1706 0.35924 0.029108 -0.015254 0.0012967 -0.0017582
-0.0027848 -0.0021284 -0.0013456 -0.0025243
-0.00063446 0.0070401 0.029065 -0.01535 0.16139 0.29715 -0.00051909 -0.001346
-0.001485 -0.00075231 -0.00032438 -0.0012112
0.0031664 0.00040591 0.0013048 -0.0017557 -0.00052625 -0.0013383 -0.047499 0.28214
0.018158 0.017313 -0.0030797 0.002692
-0.00031589 -0.0038332 -0.0028419 -0.0020642 -0.0015318 -0.00075371 0.018224 0.017294
-0.077935 0.18985 0.013172 0.017921
-0.00044358 -0.0011937 -0.0013762 -0.0024874 -0.00030993 -0.0012617 -0.0030628 0.002689
0.013139 0.017916 -0.13334 0.27565
1100000000 0.03851 0.30886 0.036347 -0.0043752 0.0034511 0.0035969 0.0025813 -0.0018302
-0.0023969 -0.0028391 -0.0036261 0.00018251
0.036306 -0.0043305 -0.12698 0.37585 0.014624 -0.027925 -0.00011874 -0.0017949
-0.0029558 -0.00016577 -0.0033618 -0.00045661
0.0034686 0.0035885 0.014528 -0.028002 0.20762 0.27613 -0.0017372 0.00034991
-0.0015641 0.00060153 -0.00092834 -0.00049518
0.0025657 -0.0018376 -0.00011828 -0.0017885 -0.0017396 0.00033798 -0.0063203 0.28683
0.0225 0.0050607 -0.0019115 0.0015306
-0.002385 -0.0028375 -0.0029342 -0.00014011 -0.0015629 0.00062303 0.022504 0.0050442
-0.059285 0.20337 0.018328 0.0083432
-0.0035734 0.00021828 -0.0033449 -0.00039399 -0.0010052 -0.00046603 -0.0019102 0.0015542
0.01831 0.0083427 -0.086537 0.30411
1160000000 0.090375 0.3037 0.024204 -0.02093 0.0029995 -0.00096056 -0.00034795 -0.0028944
-0.0040747 -6.2573e-05 -0.00065341 0.003945
0.024193 -0.020881 -0.082576 0.37947 -0.0040887 -0.028902 -0.0018094 -0.0015498
-0.0020288 0.0025271 -0.0012795 0.0016416
0.0030079 -0.0009794 -0.0042203 -0.028899 0.25046 0.24482 -0.00048356 0.0016408
-0.0003752 0.0016589 -0.0011311 4.4023e-05
-0.00035568 -0.0029037 -0.0018049 -0.001514 -0.00047119 0.0016521 0.033734 0.28346
0.019012 -0.0094831 -0.0023344 0.0058942
-0.0040432 -8.9372e-05 -0.0019721 0.0025328 -0.00038176 0.001607 0.019008 -0.0095327
-0.025482 0.21351 0.017382 0.00032788
-0.00063419 0.0039589 -0.0012698 0.0016007 -0.0011335 8.426e-05 -0.0023158 0.0058774
0.017381 0.0003129 -0.03992 0.3066
1220000000 0.13534 0.29176 0.010542 -0.030047 -0.0015157 -0.0014443 -0.00052811 -0.0011393
-0.0022668 0.0027229 0.0013656 0.0017621
0.01055 -0.030004 -0.038315 0.39055 -0.017014 -0.020683 -0.0024123 0.00053964
0.00041007 0.0025714 -0.00065465 0.0016997
-0.0015249 -0.0014369 -0.017126 -0.020637 0.2894 0.20532 0.00091241 0.00143
0.00055406 0.0010624 0.00016606 0.00074227
-0.00053722 -0.0011398 -0.002421 0.00055685 0.00090804 0.0014266 0.073533 0.27405
0.009041 -0.014951 0.0034477 0.0016323
-0.0022217 0.0026952 0.00046256 0.0025672 0.00060112 0.0010825 0.0090529 -0.014977
-0.00080758 0.22306 0.013186 -0.012118
0.0013433 0.0017423 -0.00067703 0.0017365 0.0001591 0.00068867 0.0034444 0.001646
0.013192 -0.012102 -0.0070133 0.32251
1280000000 0.18496 0.26934 -0.0076449 -0.028399 -0.0020916 0.0020686 -0.0013119 -0.0016993
-0.00026354 0.0029879 0.0023787 0.00077856
-0.0076111 -0.028379 0.0075463 0.38083 -0.023506 -0.0080688 -0.00081254 0.0014705
0.0014658 0.0013041 0.00048432 0.0019977
-0.0020881 0.0020722 -0.023563 -0.0079643 0.31972 0.161 0.001227 -0.00027359
0.00082546 0.00016107 0.00027463 0.00044988
-0.0013091 -0.0016841 -0.00082514 0.0014659 0.0012383 -0.0002687 0.10972 0.25745
0.0005164 -0.016355 0.00096892 -0.0002629
-0.00025544 0.0030019 0.0014707 0.0012906 0.0008565 0.00016975 0.00048437 -0.016341
0.037102 0.22654 0.0028483 -0.014124
0.0023902 0.00079727 0.00046722 0.0019854 0.0002952 0.00049107 0.00096123 -0.00026318
0.0028525 -0.014124 0.04027 0.32362
1340000000 0.2225 0.23523 -0.017338 -0.019098 0.00043005 0.0041014 -0.001799 -0.00038566
0.0015305 0.0022028 0.0013809 -0.0015019
-0.017302 -0.019095 0.046734 0.37162 -0.021179 0.0043382 -1.9739e-05 0.0018271
0.0014763 0.00061627 0.0013337 0.00082866
0.00044633 0.0040988 -0.021176 0.0044432 0.34137 0.11295 0.00078728 -0.00074709
0.00048476 -0.0003176 0.0002868 0.00028268
-0.0018003 -0.00037704 -8.9868e-06 0.0018217 0.00078778 -0.00075482 0.14233 0.23691
-0.0071356 -0.013514 0.0015591 -0.00050881
0.0015735 0.002205 0.0014668 0.00061703 0.00047676 -0.0003005 -0.0071708 -0.013521
0.068702 0.22103 -0.0033801 -0.012394
0.0013544 -0.0014804 0.0013531 0.00082346 0.00031998 0.00024289 0.0015459 -0.00050924
-0.0033893 -0.012408 0.079791 0.31824
1400000000 0.2557 0.19659 -0.023013 -0.0077783 0.0046582 0.0031677 -0.0017538 0.00084433
0.0022718 0.00037597 7.0595e-05 -0.0011873
-0.022986 -0.0077841 0.08323 0.35801 -0.014477 0.012211 0.0012541 0.0011596
0.00077112 -0.0006619 0.0011775 0.000327
0.0046724 0.0031527 -0.014442 0.012298 0.35425 0.059242 5.1132e-05 -0.0012594
7.7763e-05 -0.00032709 0.00035335 0.00024129
-0.0017528 0.00085549 0.0012639 0.0011596 5.0647e-05 -0.0012599 0.17191 0.20845
-0.011795 -0.0078229 -0.00061901 -0.0012769
0.0022619 0.00033897 0.00076947 -0.00068261 0.00010036 -0.00033235 -0.01181 -0.0077919
0.10259 0.21503 -0.0094406 -0.0079098
6.288e-05 -0.0011776 0.0011863 0.00032705 0.00034738 0.00026714 -0.0006143 -0.001295
-0.0094298 -0.0079202 0.12444 0.30669
1460000000 0.27937 0.15223 -0.02028 0.0041181 0.0052276 -0.0015122 -0.0013061 0.0015623
0.001541 -0.00084665 -0.00034548 -0.0007225
-0.020268 0.004098 0.11681 0.33591 -0.0060343 0.014856 0.0015896 0.00013089
0.00084733 -0.00091542 0.0011547 -0.00066145
0.0052302 -0.0015399 -0.0059719 0.014898 0.35991 0.0045918 -0.00098841 -0.0011091
0.00025193 -0.00013783 0.00066298 -0.00036069
-0.0012955 0.0015661 0.0016025 0.0001138 -0.00099096 -0.0011244 0.19875 0.17942
-0.012229 -0.0026711 -0.0013523 0.0010773
0.0015309 -0.00087231 0.00083095 -0.00091729 0.00023648 -0.00014158 -0.012232 -0.0026396
0.13277 0.19908 -0.010773 -0.0026447
-0.00035265 -0.00073351 0.0011642 -0.00067075 0.0006961 -0.00036121 -0.0013569 0.0010958
-0.010769 -0.0026401 0.15779 0.28491
1520000000 0.29226 0.10915 -0.014854 0.0097678 0.002936 -0.0037105 0.00015512 0.0022336
0.0013333 -0.0014933 -0.0010292 -0.00013963
-0.014849 0.0097424 0.14972 0.32101 0.0013299 0.012843 0.0014988 -0.00075814
0.00021653 -0.00084546 0.00024324 -0.001042
0.0029185 -0.0037246 0.0014044 0.012843 0.35266 -0.051911 -0.00076475 -0.00038603
0.00051052 -0.00076095 -1.0504e-05 -3.6687e-05
0.00015842 0.0022342 0.0014939 -0.00076777 -0.00076733 -0.00037575 0.22257 0.14106
-0.011715 0.0013555 0.00058516 0.0015763
0.0013568 -0.001511 0.00019634 -0.00084577 0.00050412 -0.00075517 -0.01172 0.0013969
0.16087 0.18315 -0.010728 0.0014245
-0.0010416 -0.00012626 0.00021719 -0.0010413 -2.949e-05 -5.8468e-05 0.00059511 0.0015793
-0.010727 0.0014095 0.19091 0.26375
1580000000 0.30193 0.061167 -0.0084995 0.012917 -0.00093596 -0.0043747 0.0011337 0.0016303
-0.00051271 -0.0017029 -0.00030474 0.00026813
-0.0085044 0.012897 0.17646 0.29639 0.0048937 0.0081787 0.00044122 -0.0014676
-0.00025783 -0.0010822 -0.00035781 -0.00086613
-0.00094784 -0.0043736 0.0049465 0.0081632 0.33193 -0.1095 -0.001456 0.00035702
-0.00027132 -0.001052 0.00013484 -0.00054352
0.0011434 0.0016191 0.00042661 -0.0014682 -0.0014576 0.0003476 0.23723 0.10087
-0.0093641 0.0050962 0.0013727 0.00070329
-0.00050424 -0.0016882 -0.00026016 -0.0010772 -0.00028872 -0.0010627 -0.0093765 0.0051089
0.18502 0.16391 -0.0086174 0.0065682
-0.00029551 0.00027275 -0.0003585 -0.00086115 0.00017806 -0.00055085 0.0013794 0.00070515
-0.0086154 0.0065764 0.22259 0.2365
1640000000 0.30341 0.017187 -0.0020424 0.012108 -0.0025032 -0.0021648 0.0022202 0.0011336
-0.00061967 -0.00085591 -0.00040962 0.00057679
-0.0020409 0.012102 0.20569 0.27131 0.005599 0.0036327 -0.00067788 -0.0015514
-0.00096366 -0.00057256 -0.00056065 -0.00055048
-0.0025125 -0.002153 0.0056314 0.0036091 0.30304 -0.158 -0.00094768 0.0011876
-0.0009362 -0.0007155 -2.8011e-05 -0.00023429
0.0022302 0.0011257 -0.00068408 -0.0015419 -0.00095929 0.0011724 0.24972 0.050624
-0.0064752 0.0059003 0.0018683 -0.00042904
-0.00065454 -0.00083892 -0.00096039 -0.00058381 -0.00095344 -0.00074711 -0.0064557 0.0059203
0.20784 0.13773 -0.0043178 0.0085346
-0.0003957 0.00058376 -0.00056671 -0.00054587 -3.4685e-05 -0.00024751 0.0018593 -0.00044608
-0.0043278 0.0085284 0.2482 0.20475
1700000000 0.29408 -0.03027 0.0014493 0.0096146 -0.0030629 0.00031805 0.0028951 -0.0007537
-0.0014396 -0.00038202 0.000404 0.00050492
0.0014416 0.0096072 0.22338 0.23994 0.0037863 0.00081231 -0.0012842 -0.0005484
-0.00087867 -3.6169e-05 -0.00088333 -0.00034833
-0.003059 0.00033384 0.0037988 0.00079222 0.25967 -0.19772 0.00019271 0.0016167
-0.00168 -0.00031029 -0.00058274 -0.00094959
0.0028985 -0.00076203 -0.0012954 -0.00054581 0.00019437 0.0016171 0.2458 -0.00056423
-0.0049612 0.0065264 0.0012463 -0.00168
-0.001451 -0.00037588 -0.00088087 -2.5777e-05 -0.0016924 -0.00033493 -0.0049628 0.0065319
0.22487 0.11543 0.00019627 0.0088556
0.0004385 0.00050149 -0.00088153 -0.0003401 -0.00058664 -0.00095371 0.0012403 -0.0016777
0.00019312 0.0088534 0.26397 0.16979
1760000000 0.27905 -0.080118 0.0037605 0.0066434 -0.0017861 0.00063338 0.0015704 -0.0030892
-0.00085171 0.0004616 0.0004915 -0.00023381
0.0037634 0.0066375 0.24918 0.20009 0.001657 -0.0010526 -0.0010915 0.00014458
-0.0012109 0.00086738 -0.00054139 0.00054105
-0.0017838 0.00063966 0.0016593 -0.0010615 0.21078 -0.23118 0.0010618 0.0014046
-0.0010877 0.0011885 -0.0013588 -0.00038035
0.0015766 -0.0030922 -0.0010962 0.00014572 0.0010602 0.0013951 0.23504 -0.052898
-0.0027854 0.0063806 -0.00043116 -0.0018511
-0.0008466 0.00048649 -0.0012192 0.00088391 -0.0010808 0.001157 -0.0027669 0.0063923
0.23932 0.077828 0.003621 0.0063137
0.00052287 -0.00021694 -0.00053903 0.0005507 -0.0013292 -0.00042669 -0.00044435 -0.0018429
0.0036194 0.0063067 0.27615 0.13174
1820000000 0.25087 -0.11723 0.004278 0.0032524 0.00016229 0.0021044 -0.0005903 -0.0031514
-0.00078291 0.00034751 0.00025197 -8.4937e-05
0.004267 0.0032607 0.25876 0.17003 -0.00016391 0.00018126 -0.001351 0.00080078
-0.0001232 0.0015173 -0.00043948 0.00050089
0.00016231 0.0021104 -0.0001645 0.00018014 0.16045 -0.24595 0.0016382 0.00052722
-0.0004918 0.0021161 -0.0013924 0.00045303
-0.00059843 -0.0031363 -0.0013448 0.00081596 0.0016507 0.00051963 0.2031 -0.10008
-0.0018497 0.0055359 -0.0014149 -0.0010282
-0.00076204 0.00036658 -9.714e-05 0.0015159 -0.00045262 0.0021305 -0.0018511 0.0055408
0.25478 0.045906 0.0044335 0.0029496
0.00024815 -0.00010798 -0.00042397 0.0004889 -0.0013782 0.0004438 -0.0014157 -0.0010036
0.0044324 0.0029435 0.2778 0.095396
1880000000 0.21267 -0.15574 0.0023132 0.0011628 -0.00036969 0.0018869 -0.0028428 -0.0025224
-0.00055263 0.0012669 0.00056846 -0.00080816
0.0023162 0.0011603 0.26307 0.12378 -0.0020959 0.0017287 -0.00024027 0.0016755
0.00076523 0.0014275 0.00023314 0.00095707
-0.00035431 0.0018846 -0.0020728 0.0017553 0.10822 -0.25571 0.0019924 -0.0010962
0.0013375 0.0020332 -0.00097823 0.0015459
-0.0028491 -0.0025265 -0.00020088 0.0016731 0.0019939 -0.0011011 0.16105 -0.13887
-0.0016123 0.0048075 -0.0020724 0.0008434
-0.00056589 0.0012759 0.00077371 0.0014145 0.0013356 0.0020255 -0.0015979 0.004827
0.25501 0.0107 0.0039686 0.0010514
0.0005912 -0.00081797 0.00026836 0.00094952 -0.00091702 0.0014833 -0.0020745 0.00083161
0.0039553 0.0010604 0.27706 0.061353
1940000000 0.17148 -0.17896 0.00049372 -0.00057329 0.001231 0.0015567 -0.0040515 0.00046356
0.00096566 0.0011435 -0.00073699 -0.00097361
0.00049602 -0.00057725 0.26341 0.091974 -0.00096873 0.0039106 0.00097442 0.0013375
0.0021541 0.00041075 0.00089161 0.00019369
0.0012337 0.0015531 -0.00093588 0.0039165 0.062331 -0.24878 0.00021816 -0.0024831
0.0025403 0.00043803 0.00038413 0.0017163
-0.0040484 0.00047572 0.00099053 0.0013296 0.00021992 -0.0024938 0.10818 -0.16747
-0.0022724 0.0047739 -0.00095094 0.0017522
0.00096415 0.0011292 0.0021592 0.00040101 0.0025059 0.00042164 -0.0022749 0.0047723
0.25306 -0.030257 0.0028477 -0.0018395
-0.00075157 -0.00092472 0.00087021 0.00018581 0.00035585 0.0017319 -0.00092714 0.0017415
0.0028357 -0.0018296 0.26572 0.025394
2000000000 0.12454 -0.19038 -0.0028927 0.0010937 0.0023805 0.0015203 -0.0024057 0.0037165
0.001111 0.00059132 -0.0011072 0.00040766
-0.0028955 0.0010875 0.24913 0.056517 -0.00064022 0.0055418 0.0016661 0.00026444
0.0015699 -0.0017108 0.00042758 6.8944e-06
0.0023847 0.0015079 -0.00060036 0.005555 0.01895 -0.2345 -0.0016333 -0.0014308
0.0020534 -0.0012496 0.0015639 0.0012401
-0.0023966 0.0037577 0.0016669 0.00025803 -0.0016486 -0.001412 0.055251 -0.17542
-0.0031724 0.0058546 0.00027466 0.0021298
