!Keysight Technologies,M9804A,MY58100912,A.14.10.03
!Date: Thursday, April 27, 2023 10:28:33
!Correction: S11(C  6-Port  ) 
!S12(C  6-Port  ) 
!S13(C  6-Port  ) 
!S14(C  6-Port  ) 
!S15(C  6-Port  ) 
!S16(C  6-Port  ) 
!S21(C  6-Port  ) 
!S22(C  6-Port  ) 
!S23(C  6-Port  ) 
!S24(C  6-Port  ) 
!S25(C  6-Port  ) 
!S26(C  6-Port  ) 
!S31(C  6-Port  ) 
!S32(C  6-Port  ) 
!S33(C  6-Port  ) 
!S34(C  6-Port  ) 
!S35(C  6-Port  ) 
!S36(C  6-Port  ) 
!S41(C  6-Port  ) 
!S42(C  6-Port  ) 
!S43(C  6-Port  ) 
!S44(C  6-Port  ) 
!S45(C  6-Port  ) 
!S46(C  6-Port  ) 
!S51(C  6-Port  ) 
!S52(C  6-Port  ) 
!S53(C  6-Port  ) 
!S54(C  6-Port  ) 
!S55(C  6-Port  ) 
!S56(C  6-Port  ) 
!S61(C  6-Port  ) 
!S62(C  6-Port  ) 
!S63(C  6-Port  ) 
!S64(C  6-Port  ) 
!S65(C  6-Port  ) 
!S66(C  6-Port  ) 
!S6P File: Measurement: :
# Hz S  RI   R 50
500000000 -0.33356 -0.029445 -0.0084757 -0.0042902 -0.0079616 0.010921 -0.0033338 0.011386
0.0123 0.0046846 -0.0036032 0.007776
-0.0085194 -0.0043072 -0.41841 -0.048322 0.0076126 -0.01191 0.0015 0.011188
0.0078261 0.0024272 0.00084379 0.012229
-0.0079251 0.010939 0.0075677 -0.011932 -0.26422 0.21199 0.0070209 0.0029284
0.00041759 0.0083254 0.00055797 0.011778
-0.0032836 0.011476 0.0014752 0.01119 0.0069456 0.002905 -0.32633 0.04962
-0.018387 -0.0049369 0.017054 0.024381
0.012198 0.0046308 0.0077858 0.0024077 0.000408 0.0082774 -0.018499 -0.0049729
-0.22765 -0.1766 -0.025918 0.0048744
-0.0035539 0.0077765 0.00094517 0.012343 0.00054144 0.011798 0.017023 0.02455
-0.025797 0.0049932 -0.27465 -0.12331
560000000 -0.30995 0.12657 -0.023914 -0.063785 -1.1718e-05 0.012222 0.0068285 0.0097495
0.011863 0.0037901 0.0091042 0.006849
-0.023873 -0.063774 -0.37609 0.10999 -0.041593 -0.036625 0.014015 0.0037551
-0.012504 -0.0050557 0.0048327 -0.00067356
1.7702e-05 0.012171 -0.041802 -0.036683 -0.18281 0.25957 -0.00078828 -0.0051634
0.018483 0.0043305 0.0074864 -0.0063916
0.0068095 0.009806 0.014024 0.0036709 -0.00082174 -0.0052498 -0.30091 0.13702
0.0044856 -0.025555 0.0049098 -0.019256
0.011906 0.0038029 -0.012652 -0.005425 0.01858 0.0043865 0.0045431 -0.025301
-0.28427 -0.0040814 0.0076752 -0.05103
0.0091087 0.0068318 0.0048499 -0.00063008 0.0074482 -0.0063878 0.0049794 -0.019155
0.0076655 -0.050975 -0.33185 0.024626
620000000 -0.26864 0.11051 -0.02303 0.0057237 0.003146 0.0081503 0.0070476 -0.0061925
0.010815 -0.001018 0.00078639 -0.0020137
-0.022971 0.0056911 -0.40262 0.063718 -0.019371 -0.00016384 -0.0017143 -0.0021877
0.010159 -0.0070577 0.00074098 -0.0029564
0.0031775 0.0082041 -0.019375 -8.5389e-05 -0.15281 0.26849 -0.0019876 -0.0050332
-0.0035761 -0.0032459 0.0075553 -0.003745
0.0070654 -0.0061472 -0.0017561 -0.0021988 -0.0021164 -0.0051112 -0.25893 0.14666
-0.038373 -0.019347 0.015001 0.023473
0.010869 -0.0011057 0.010181 -0.0071644 -0.0035489 -0.003305 -0.03861 -0.019144
-0.20402 -0.043137 -0.039553 0.014195
0.00079593 -0.0020589 0.0006733 -0.002959 0.0075427 -0.0036911 0.014815 0.023581
-0.039727 0.014329 -0.25063 -0.012077
680000000 -0.22825 0.19073 -0.028466 -0.015114 0.0048749 0.00532 0.00016756 -0.0078855
-0.0036381 -0.010653 0.0040281 -0.0069297
-0.02844 -0.015124 -0.3868 0.16044 -0.033086 -0.0010116 -0.0019604 -0.00044492
-0.0030921 -0.008656 -0.00084347 -0.0023978
0.0048741 0.0053092 -0.033109 -0.00092873 -0.10198 0.28765 -0.00069634 0.00025592
-0.0024457 0.0010511 -0.0029128 -0.0096537
0.00013801 -0.0079425 -0.0019575 -0.00041113 -0.00070435 0.00023047 -0.2176 0.1951
-0.023682 -0.0090278 -0.010918 -0.0098885
-0.0036553 -0.010691 -0.0031587 -0.0086211 -0.0024514 0.0010875 -0.023785 -0.0089979
-0.24825 0.053059 -0.0049921 -0.009723
0.0040495 -0.0069588 -0.00086235 -0.0024146 -0.0029012 -0.0096835 -0.010907 -0.009868
-0.0050111 -0.0096428 -0.26144 0.091677
740000000 -0.18764 0.18548 -0.039145 0.025623 0.012611 -0.0050596 -0.0010618 -0.0040696
-0.0046474 -0.0021487 -0.0058801 0.0034757
-0.039123 0.025561 -0.33507 0.17925 -0.034706 0.035394 -0.00082692 -0.0063718
-0.011123 0.0086309 -0.0026395 -0.0062658
0.012627 -0.0050815 -0.034653 0.035496 -0.068761 0.28714 -0.0011392 0.0035274
-0.0030809 -0.0032364 -0.00065863 0.00051344
-0.0010786 -0.0040655 -0.00081061 -0.0063913 -0.0011089 0.0035302 -0.20138 0.20279
-0.042695 -0.0077875 0.0225 0.012325
-0.0047201 -0.0020802 -0.010995 0.0086332 -0.0030139 -0.0032704 -0.042758 -0.0077428
-0.15609 0.074451 -0.042377 0.00091464
-0.0058973 0.0034745 -0.0027092 -0.0062852 -0.00066112 0.00055355 0.022513 0.012311
-0.042211 0.00083211 -0.24984 0.099319
800000000 -0.1575 0.22554 -0.023596 0.017401 0.0052892 -0.010489 -0.0049593 -0.0018209
-0.0040201 0.0034218 0.0044729 0.00091728
-0.023598 0.017399 -0.33723 0.24965 -0.0077326 0.034316 -0.0019429 0.0022589
-0.00027722 0.0037022 0.0012349 0.0052661
0.0052612 -0.010507 -0.0076441 0.034378 -0.027415 0.30999 0.0013161 0.0014826
0.00081528 0.0035555 -0.001883 0.0011136
-0.0049573 -0.0018265 -0.001938 0.0022615 0.0013011 0.0014596 -0.17409 0.23064
-0.028815 0.012535 0.012986 -0.0096492
-0.0040183 0.0034026 -0.00023354 0.003736 0.00084169 0.0035717 -0.028866 0.012628
-0.1978 0.098838 -0.017917 0.017161
0.0044628 0.00087306 0.0012622 0.0052665 -0.0018872 0.0010899 0.01298 -0.0096991
-0.017911 0.017092 -0.24356 0.15261
860000000 -0.12375 0.24778 -0.017778 0.031924 -0.0034444 -0.0098595 -0.0026716 0.0014788
0.0045273 0.005167 -0.0026281 -0.0029511
-0.017759 0.031901 -0.28894 0.29142 0.008484 0.034383 0.00047033 0.0019293
0.0049726 0.0001078 0.0034305 0.00051872
-0.0034974 -0.0098561 0.0086066 0.03441 0.021307 0.31802 -0.00028493 -0.00036492
0.002863 -0.001635 0.0014975 0.004523
-0.002622 0.0014399 0.00047608 0.0019307 -0.00028153 -0.00036055 -0.13877 0.24284
-0.018059 0.018709 -0.0061068 -0.009263
0.004571 0.0051332 0.0049249 0.0001085 0.0028656 -0.0016027 -0.018157 0.018815
-0.15028 0.14596 -0.023984 0.01555
-0.0026517 -0.0029508 0.0034584 0.0005028 0.0014943 0.0045232 -0.0061627 -0.0092873
-0.023952 0.015574 -0.19355 0.19502
920000000 -0.098745 0.27233 0.0048086 0.038787 -0.0095355 -0.0040397 -0.0016089 0.0027151
0.001374 0.0013887 0.0023699 -0.001341
0.0047752 0.038751 -0.26008 0.31222 0.028396 0.021656 0.0017007 0.0010296
0.0066873 -0.0010937 0.0038116 -0.0027652
-0.0095478 -0.0040184 0.028519 0.021593 0.068008 0.31841 0.0016798 -0.00019235
0.0013589 -0.00056611 0.00088439 -0.001031
-0.0016094 0.0027107 0.0017003 0.0010272 0.0016877 -0.0001886 -0.11438 0.25961
-0.010464 0.030054 0.0022659 -0.0063953
0.0014193 0.0014093 0.006682 -0.0010932 0.0013432 -0.00055278 -0.010404 0.030101
-0.13931 0.15297 -0.002285 0.027262
0.0023651 -0.0013576 0.0038229 -0.0028166 0.00090746 -0.0010387 0.0023083 -0.0063736
-0.0023103 0.027228 -0.19917 0.20951
980000000 -0.050907 0.29223 0.018305 0.0309 -0.0087445 0.004951 0.0027367 0.0037671
0.0040648 -0.0018741 -0.0028292 -0.0019684
0.018269 0.030866 -0.20709 0.34568 0.033298 0.0042875 0.0019937 -0.00020741
0.00082083 -0.0061625 -0.00051035 -0.0023315
-0.0087386 0.004972 0.033348 0.0041936 0.11465 0.31151 0.00032481 -0.001199
-0.00013461 -0.0021527 0.0016473 -7.9967e-05
0.0027575 0.0037642 0.0019793 -0.00020322 0.00032244 -0.0012006 -0.075935 0.2716
0.007458 0.028769 -0.0094596 -0.0064333
0.0040863 -0.0019201 0.00076262 -0.006206 -0.00013254 -0.0021733 0.0075263 0.028773
-0.10866 0.17973 0.0051337 0.018722
-0.0028195 -0.001984 -0.0005573 -0.0023125 0.0016636 -8.6924e-05 -0.0094655 -0.0064181
0.0050704 0.018745 -0.15627 0.25356
1040000000 -0.0078073 0.30087 0.033984 0.018079 -0.00088058 0.0070672 0.0031017 0.00054299
-7.4341e-05 -0.0038779 -0.00053729 -0.0011953
0.033903 0.018069 -0.17132 0.3587 0.029154 -0.015371 0.0014104 -0.0017204
-0.0027901 -0.002131 -0.001458 -0.0026873
-0.00085639 0.0070591 0.029144 -0.015485 0.16104 0.29737 -0.00056138 -0.0013442
-0.0016221 -0.00073489 -0.0004054 -0.0011366
0.0031177 0.00052094 0.0013901 -0.0017154 -0.00055655 -0.0013417 -0.04791 0.28174
0.018552 0.016998 -0.0032749 0.0023845
-0.00010391 -0.0038835 -0.0028252 -0.0021283 -0.0016268 -0.00075111 0.018559 0.016941
-0.077802 0.18878 0.013361 0.0178
-0.00053952 -0.001182 -0.0014749 -0.0026449 -0.0003993 -0.0011391 -0.0032707 0.0023758
0.013332 0.017709 -0.13424 0.27469
1100000000 0.038145 0.30825 0.036398 -0.004633 0.003311 0.0036658 0.0026356 -0.0017832
-0.002275 -0.0029461 -0.0037072 8.2114e-05
0.03636 -0.0046034 -0.12771 0.37547 0.014647 -0.028131 -6.6523e-05 -0.0018261
-0.0030741 -0.00015715 -0.003407 -0.00046333
0.0033184 0.003654 0.014554 -0.028207 0.20765 0.2764 -0.0017758 0.00034391
-0.0016055 0.00072523 -0.00092321 -0.00044303
0.0026299 -0.0017876 -6.0212e-05 -0.0018203 -0.0017746 0.00036136 -0.0068197 0.28657
0.022612 0.0045855 -0.0021484 0.0014114
-0.0023233 -0.00294 -0.003093 -0.00015276 -0.0016076 0.00073823 0.022647 0.004574
-0.059506 0.20204 0.018417 0.0083601
-0.0036991 9.0946e-05 -0.0034287 -0.00045264 -0.00091491 -0.00044289 -0.0021305 0.0014118
0.018396 0.0083674 -0.087209 0.30375
1160000000 0.089694 0.30311 0.024261 -0.021268 0.0028782 -0.00079912 -0.0001919 -0.002794
-0.0041652 -0.00016608 -0.00079085 0.0039376
0.024223 -0.021244 -0.083487 0.37953 -0.0043101 -0.029079 -0.0018559 -0.0015202
-0.0021563 0.0027045 -0.0013169 0.0016339
0.00287 -0.00081399 -0.0044211 -0.029066 0.25065 0.24476 -0.00044734 0.0017256
-0.00025841 0.0017472 -0.0011042 2.0873e-05
-0.00018407 -0.0027976 -0.0018673 -0.0015034 -0.000452 0.0017225 0.03298 0.28347
0.018842 -0.010106 -0.0025267 0.0059249
-0.0041538 -0.00014325 -0.0021214 0.0027302 -0.00024295 0.0017499 0.018828 -0.010153
-0.026347 0.21229 0.017256 0.00018666
-0.00077149 0.0039385 -0.0013084 0.0016492 -0.001087 2.516e-05 -0.002524 0.0059247
0.017226 0.00021632 -0.040432 0.30662
1220000000 0.13461 0.29165 0.010342 -0.030394 -0.0015943 -0.0011644 -0.00045186 -0.0012228
-0.0024221 0.0027358 0.0013764 0.0017693
0.010334 -0.030358 -0.03894 0.39082 -0.017271 -0.020724 -0.0024739 0.00056987
0.00046653 0.0027257 -0.0006135 0.0017419
-0.0015976 -0.0011642 -0.017361 -0.020665 0.28943 0.205 0.001012 0.0014249
0.00064329 0.0010463 0.00016166 0.00071977
-0.00043778 -0.0012197 -0.0024693 0.00057357 0.0010047 0.0014451 0.073025 0.27428
0.0086307 -0.015531 0.0032521 0.0018199
-0.0023942 0.0027383 0.00050049 0.0027104 0.00064459 0.0010455 0.0086053 -0.015536
-0.0019552 0.22232 0.013141 -0.012294
0.0013858 0.001756 -0.00062688 0.0017432 0.00016372 0.00072554 0.0032249 0.0018177
0.01317 -0.012323 -0.0077254 0.32248
1280000000 0.18426 0.2693 -0.0080742 -0.028672 -0.0019965 0.0022815 -0.0013122 -0.0018499
-0.00032122 0.0031219 0.0024571 0.00082346
-0.0080435 -0.028641 0.0071495 0.38126 -0.0237 -0.0079517 -0.00085694 0.0014957
0.0016573 0.0013168 0.00052616 0.0019321
-0.0019792 0.0022915 -0.023775 -0.0078581 0.3194 0.16065 0.0012964 -0.0003188
0.00092335 6.5019e-05 0.00027219 0.00045643
-0.0013306 -0.0018381 -0.00084984 0.0014965 0.0012954 -0.00032264 0.10941 0.25776
-0.00029581 -0.016623 0.00097361 -3.0125e-05
-0.00030652 0.0031279 0.0016654 0.0013211 0.00092741 7.5227e-05 -0.00031577 -0.016621
0.035761 0.22623 0.0025892 -0.014245
0.0024531 0.00081293 0.00053225 0.0019322 0.0002625 0.00047388 0.00096337 -4.6557e-05
0.0025678 -0.01427 0.039682 0.32357
1340000000 0.22188 0.23541 -0.017905 -0.019032 0.0006222 0.0042639 -0.0019766 -0.00047082
0.001604 0.002362 0.0014706 -0.0015212
-0.017863 -0.019021 0.046605 0.372 -0.021326 0.0046383 3.9606e-05 0.0018227
0.0016046 0.00050527 0.0013542 0.00080166
0.00063855 0.0042674 -0.021317 0.0047472 0.34091 0.11276 0.00078534 -0.00090453
0.00055292 -0.00034793 0.0002657 0.0002805
-0.0019724 -0.0004604 4.7453e-05 0.0018366 0.00080166 -0.00089728 0.14212 0.23725
-0.0080241 -0.013343 0.0015544 -0.00027726
0.0016365 0.0023677 0.0016085 0.00047811 0.00055235 -0.00036046 -0.0080627 -0.01332
0.067591 0.22144 -0.0036456 -0.012496
0.0014613 -0.0015298 0.0013635 0.00079829 0.00026412 0.00027668 0.0015524 -0.00028037
-0.0036556 -0.0125 0.079169 0.31844
1400000000 0.25526 0.19685 -0.023501 -0.0074042 0.0048459 0.0031201 -0.0018635 0.00086813
0.002406 0.0003727 8.4901e-05 -0.0012362
-0.02347 -0.0074135 0.083284 0.35821 -0.014413 0.012522 0.0013054 0.0010902
0.00073426 -0.00081707 0.0012186 0.00023327
0.004868 0.0031048 -0.014369 0.012613 0.35362 0.059259 -1.9183e-05 -0.0013725
4.2977e-06 -0.00035792 0.0003715 0.000244
-0.001875 0.00087507 0.0013045 0.0010973 -3.1018e-05 -0.0013694 0.17181 0.20871
-0.012533 -0.0070383 -0.00047608 -0.0011385
0.0024175 0.00036374 0.00072438 -0.00082581 5.693e-06 -0.00035763 -0.012562 -0.0070138
0.10167 0.21595 -0.0097108 -0.007794
7.9778e-05 -0.0012363 0.0012186 0.00021439 0.00036901 0.00023783 -0.00047752 -0.0011305
-0.0097192 -0.0078069 0.12389 0.30681
1460000000 0.27883 0.15223 -0.02046 0.0046981 0.005321 -0.0016021 -0.0012825 0.0017332
0.0017138 -0.00094282 -0.00040399 -0.00072712
-0.020455 0.0046825 0.11683 0.33585 -0.0058325 0.015076 0.001575 0.00012034
0.00067135 -0.00093197 0.0011054 -0.00064995
0.0053212 -0.001622 -0.0057504 0.015125 0.35927 0.0047995 -0.0010846 -0.0010537
0.00023193 -0.00016661 0.00069677 -0.00038276
-0.0012715 0.0017429 0.0015634 0.00010248 -0.001075 -0.0010603 0.19867 0.1795
-0.012435 -0.0015764 -0.001221 0.0011247
0.0017178 -0.00093916 0.00068434 -0.00095438 0.00022517 -0.00015825 -0.01245 -0.0015575
0.13224 0.20013 -0.010927 -0.0024879
-0.0004053 -0.00072138 0.001101 -0.00065589 0.00071048 -0.00038711 -0.0012178 0.0011392
-0.010943 -0.0024749 0.15706 0.28517
1520000000 0.29159 0.10921 -0.014717 0.010342 0.0030336 -0.0038706 0.00027604 0.002334
0.0013398 -0.0016348 -0.0010487 -8.0203e-05
-0.014716 0.010324 0.14965 0.32084 0.0016249 0.012865 0.0015054 -0.0007443
0.00012283 -0.00074662 0.00024139 -0.0010256
0.0030237 -0.0038919 0.0016879 0.01286 0.35226 -0.051212 -0.00080277 -0.00028657
0.00050514 -0.00076417 -1.9484e-05 -7.6585e-05
0.0002784 0.0023431 0.0015027 -0.00075401 -0.00081674 -0.00029631 0.2225 0.14112
-0.011216 0.0025449 0.00080639 0.0015287
0.0013239 -0.0016343 0.00011883 -0.00074925 0.00049355 -0.00075653 -0.011218 0.0025618
0.16093 0.18418 -0.010788 0.0017146
-0.0010482 -7.8496e-05 0.00023654 -0.0010311 -2.6009e-05 -7.3201e-05 0.00080885 0.0015228
-0.010784 0.001723 0.19025 0.26412
1580000000 0.30094 0.061301 -0.0081095 0.013308 -0.0008742 -0.0045838 0.0012807 0.0015826
-0.00065444 -0.0017642 -0.00027194 0.00031833
-0.0081229 0.013293 0.17626 0.29607 0.0051556 0.0080435 0.00044898 -0.0014637
-0.0002512 -0.00092197 -0.00036011 -0.00085202
-0.00089238 -0.0045794 0.0051912 0.0080216 0.33175 -0.10874 -0.0013686 0.00043459
-0.00027683 -0.0010053 0.00018152 -0.0005916
0.0012782 0.001586 0.00044046 -0.0014682 -0.0013771 0.00042142 0.23705 0.10087
-0.0083067 0.0057142 0.0015257 0.00063877
-0.00067114 -0.0017614 -0.00025718 -0.00092633 -0.00029741 -0.0010182 -0.0082896 0.0057306
0.18536 0.16458 -0.0085162 0.0068996
-0.00026684 0.00031872 -0.00036278 -0.00084388 0.0001778 -0.00059741 0.0015438 0.00062365
-0.0085176 0.0069028 0.22205 0.237
1640000000 0.30239 0.017868 -0.0014956 0.012259 -0.0026065 -0.0023461 0.002285 0.00098792
-0.00073919 -0.00077443 -0.00033978 0.0006141
-0.0015055 0.012253 0.2052 0.27111 0.0057167 0.0033614 -0.00068344 -0.0015863
-0.00084812 -0.00054716 -0.00055949 -0.00056596
-0.0026133 -0.0023186 0.0057444 0.0033217 0.30347 -0.15747 -0.00086031 0.0011293
-0.00098362 -0.00075865 -3.8146e-05 -0.00031731
0.0022906 0.0009837 -0.00069638 -0.0015764 -0.00086496 0.0011256 0.24938 0.050794
-0.0052356 0.0057992 0.0019282 -0.00058755
-0.00073724 -0.00078661 -0.00085547 -0.00053987 -0.00097623 -0.00075409 -0.0052257 0.00582
0.2083 0.13805 -0.0040106 0.0087609
-0.00033723 0.00062596 -0.00056678 -0.0005703 -4.1919e-05 -0.00032242 0.0019298 -0.00058507
-0.0040313 0.0087719 0.24772 0.20531
1700000000 0.29318 -0.029104 0.0019311 0.009444 -0.0031938 0.00015186 0.0027765 -0.0008719
-0.0015062 -0.00030185 0.00054866 0.00046359
0.0019236 0.0094445 0.22279 0.23989 0.0037431 0.00056843 -0.0013356 -0.00057578
-0.00080231 -0.00014654 -0.00089017 -0.00033408
-0.003204 0.0001503 0.0037386 0.00055274 0.26008 -0.19748 0.00018499 0.0014781
-0.0016556 -0.00032136 -0.00061962 -0.00095989
0.0027784 -0.00088513 -0.001341 -0.00056604 0.0001802 0.0014799 0.2455 -0.00025727
-0.0040648 0.0057742 0.0012268 -0.0018236
-0.0015102 -0.00032155 -0.00080207 -0.00014578 -0.0016642 -0.00032144 -0.0040522 0.0057805
0.22524 0.11536 0.00048313 0.0089969
0.00055362 0.0004595 -0.00089318 -0.0003266 -0.00060923 -0.0009551 0.001214 -0.0018254
0.00049363 0.0090005 0.26374 0.17032
1760000000 0.2786 -0.078672 0.0040966 0.0063057 -0.0020346 0.00075599 0.0014492 -0.0031147
-0.00077538 0.00053863 0.0004091 -0.00034406
0.0040818 0.0063012 0.2485 0.20028 0.001447 -0.0010697 -0.0011006 0.00016646
-0.0012256 0.00077518 -0.00055877 0.00052588
-0.0020211 0.00076271 0.0014457 -0.0010944 0.21069 -0.23071 0.00099976 0.0013665
-0.001115 0.0012542 -0.0013719 -0.0003969
0.0014443 -0.0031244 -0.001098 0.00016579 0.0010015 0.0013609 0.23483 -0.052416
-0.0024474 0.0053333 -0.00055471 -0.0019746
-0.00078985 0.0005501 -0.0012258 0.00077451 -0.0010959 0.0012334 -0.0024512 0.0053532
0.23953 0.077686 0.003912 0.0061498
0.0004095 -0.00035536 -0.00054509 0.00053461 -0.0013812 -0.00037824 -0.00055764 -0.0019736
0.0039165 0.0061602 0.276 0.13238
1820000000 0.25108 -0.11564 0.0043603 0.0029014 -6.2686e-06 0.0022182 -0.00072205 -0.0030585
-0.00072618 0.0003123 0.00012828 -7.2571e-05
0.0043528 0.002908 0.25819 0.17041 -0.00029497 9.6008e-05 -0.0013571 0.0008073
-0.00024769 0.0014272 -0.00044365 0.00051893
-6.6631e-06 0.0021928 -0.00029661 9.0029e-05 0.16105 -0.24606 0.0015165 0.00053318
-0.00046772 0.0020038 -0.0013465 0.00058764
-0.00075293 -0.0030557 -0.00136 0.00081776 0.0015081 0.00053985 0.20325 -0.099521
-0.0020823 0.0045966 -0.0016549 -0.0011771
-0.00071989 0.00031426 -0.00023859 0.0014353 -0.000481 0.00201 -0.0020781 0.004625
0.25463 0.045803 0.0046298 0.0026886
0.00013258 -7.4595e-05 -0.00043446 0.00052191 -0.0013257 0.00060355 -0.0016499 -0.0011762
0.004649 0.0026946 0.27777 0.095781
1880000000 0.21345 -0.15436 0.0022689 0.0008199 -0.00028405 0.0019644 -0.0028378 -0.0023809
-0.00050483 0.0012359 0.00051752 -0.00070573
0.002273 0.0008179 0.26264 0.12427 -0.0021352 0.0017806 -0.00020694 0.0017021
0.00065785 0.0014988 0.00024892 0.00090743
-0.00029821 0.0019668 -0.0021135 0.0017999 0.10888 -0.25546 0.0019927 -0.0010589
0.0013735 0.0020186 -0.00087444 0.0014213
-0.0028522 -0.0023683 -0.0001984 0.0017023 0.0019951 -0.0010557 0.16143 -0.13856
-0.0021637 0.0041299 -0.002241 0.00090837
-0.00049773 0.0012275 0.00066669 0.0014811 0.001356 0.0020038 -0.0021555 0.0041483
0.25478 0.0107 0.0040251 0.00080141
0.00051366 -0.00071397 0.00025517 0.00092236 -0.00088482 0.00142 -0.0022338 0.00091936
0.0040518 0.00081077 0.27722 0.061528
1940000000 0.17256 -0.17802 0.00037604 -0.00085626 0.0011207 0.0018244 -0.0039056 0.00045607
0.00093245 0.0010902 -0.00063935 -0.00077434
0.00039984 -0.00085349 0.26314 0.092571 -0.0010692 0.0038828 0.00093308 0.0013459
0.002113 0.00059317 0.00083954 0.0001884
0.0011149 0.0017952 -0.001034 0.0039093 0.062689 -0.24928 0.00030041 -0.0025605
0.0024451 0.00056711 0.00037623 0.0015631
-0.0039131 0.00046496 0.0009446 0.0013361 0.00030504 -0.0025416 0.10844 -0.16722
-0.0031236 0.0044977 -0.001016 0.0019408
0.00093663 0.0010956 0.002121 0.00058219 0.0024546 0.00056571 -0.0031045 0.0045076
0.25275 -0.030011 0.0026968 -0.0021384
-0.00066138 -0.00076476 0.00084329 0.0001733 0.0003859 0.0015489 -0.0010307 0.0019401
0.0026981 -0.0021212 0.26561 0.025288
2000000000 0.12601 -0.18976 -0.0031382 0.00094691 0.0023428 0.0016375 -0.0023522 0.0037289
0.0010466 0.00056917 -0.00089794 0.00033278
-0.0031294 0.00096081 0.24901 0.057084 -0.00081541 0.0054809 0.0017022 0.00022599
0.0017531 -0.001646 0.00048568 8.8664e-05
0.0023621 0.0016432 -0.00077227 0.0054875 0.019005 -0.23523 -0.0015536 -0.0014542
0.0021449 -0.0012945 0.0016851 0.0012845
-0.0023356 0.0037322 0.0017154 0.00021035 -0.0015337 -0.0014571 0.055357 -0.17556
-0.0040583 0.0057373 0.00036617 0.0022281
0.0010502 0.00058199 0.0017417 -0.0016716 0.002174 -0.0012707 -0.0040392 0.0057182
