!Keysight Technologies,M9804A,MY58100912,A.14.10.03
!Date: Thursday, April 27, 2023 10:28:33
!Correction: S11(C  6-Port  ) 
!S12(C  6-Port  ) 
!S13(C  6-Port  ) 
!S14(C  6-Port  ) 
!S15(C  6-Port  ) 
!S16(C  6-Port  ) 
!S21(C  6-Port  ) 
!S22(C  6-Port  ) 
!S23(C  6-Port  ) 
!S24(C  6-Port  ) 
!S25(C  6-Port  ) 
!S26(C  6-Port  ) 
!S31(C  6-Port  ) 
!S32(C  6-Port  ) 
!S33(C  6-Port  ) 
!S34(C  6-Port  ) 
!S35(C  6-Port  ) 
!S36(C  6-Port  ) 
!S41(C  6-Port  ) 
!S42(C  6-Port  ) 
!S43(C  6-Port  ) 
!S44(C  6-Port  ) 
!S45(C  6-Port  ) 
!S46(C  6-Port  ) 
!S51(C  6-Port  ) 
!S52(C  6-Port  ) 
!S53(C  6-Port  ) 
!S54(C  6-Port  ) 
!S55(C  6-Port  ) 
!S56(C  6-Port  ) 
!S61(C  6-Port  ) 
!S62(C  6-Port  ) 
!S63(C  6-Port  ) 
!S64(C  6-Port  ) 
!S65(C  6-Port  ) 
!S66(C  6-Port  ) 
!S6P File: Measurement: :
# Hz S  RI   R 50
500000000 -0.33349 -0.030368 -0.0085142 -0.0037572 -0.008033 0.011105 -0.0034337 0.011534
0.011998 0.0046869 -0.0040048 0.0080279
-0.008895 -0.0045649 -0.41805 -0.048138 0.0072488 -0.012166 0.0016595 0.011269
0.0074548 0.0026913 0.0010807 0.012236
-0.0081466 0.011527 0.0078637 -0.011802 -0.26418 0.21149 0.0068479 0.0029608
0.00036748 0.0084308 0.00084525 0.011727
-0.0027621 0.010914 0.0019471 0.010894 0.0070533 0.0028384 -0.32711 0.049497
-0.018333 -0.0052774 0.01723 0.024906
0.011722 0.0036946 0.0079368 0.0026546 -0.00075364 0.0084155 -0.017091 -0.0055017
-0.22767 -0.17638 -0.026995 0.0046491
-0.0038859 0.0067709 0.0013821 0.012217 0.00042179 0.011211 0.016788 0.023955
-0.026454 0.0046758 -0.27479 -0.1231
560000000 -0.31059 0.12688 -0.023601 -0.062653 0.00028736 0.01229 0.0066897 0.010614
0.011774 0.0036023 0.0090789 0.0068202
-0.022982 -0.062807 -0.37451 0.11128 -0.04214 -0.036873 0.01376 0.003916
-0.011862 -0.0046514 0.0047961 -0.00039666
-0.00035864 0.01266 -0.042826 -0.036802 -0.1817 0.2595 -0.0010401 -0.005074
0.017649 0.0045009 0.0072881 -0.006257
0.0069112 0.0095408 0.013404 0.0036912 -0.00072703 -0.0051693 -0.2992 0.1359
0.00523 -0.024852 0.0050357 -0.019267
0.012026 0.0034907 -0.012486 -0.0044027 0.019476 0.003043 0.0048318 -0.025073
-0.28466 -0.0038292 0.0078909 -0.051012
0.0096872 0.0069323 0.0047449 0.00045477 0.0074787 -0.0057729 0.0053765 -0.018944
0.0074008 -0.050875 -0.33224 0.024176
620000000 -0.26949 0.10952 -0.022962 0.0057969 0.0031645 0.0085196 0.0066495 -0.0059457
0.010744 -0.0017509 0.00053419 -0.001987
-0.022909 0.0059906 -0.4026 0.063583 -0.019031 -0.00037351 -0.0018263 -0.0026508
0.010201 -0.0071444 0.00039987 -0.002837
0.0029441 0.008457 -0.019085 -0.00023249 -0.1524 0.2682 -0.0018137 -0.0052311
-0.0034813 -0.0031731 0.0078228 -0.0038098
0.0067987 -0.0063661 -0.0017977 -0.0021285 -0.0018367 -0.005232 -0.25949 0.14685
-0.038788 -0.018862 0.015013 0.023597
0.010529 -0.00015442 0.010507 -0.0071831 -0.0038988 -0.003156 -0.038381 -0.019876
-0.20382 -0.043667 -0.03933 0.013619
0.00044257 -0.0017232 0.0004125 -0.0025986 0.0083494 -0.0035494 0.012865 0.024151
-0.039924 0.013318 -0.25082 -0.012346
680000000 -0.22863 0.19131 -0.028369 -0.014986 0.0047518 0.0051982 0.0004153 -0.0083679
-0.0035295 -0.011163 0.0041287 -0.0068994
-0.028478 -0.014915 -0.38644 0.16038 -0.033098 -0.00099328 -0.0017231 -0.000402
-0.002808 -0.0087599 -0.0009499 -0.0023993
0.0050621 0.0056184 -0.032933 -0.00084299 -0.10184 0.28758 -0.00069578 0.00031508
-0.0022228 0.0011287 -0.0030011 -0.0096988
0.00017889 -0.0079962 -0.0018019 -0.00013067 -0.00063749 0.0004783 -0.21787 0.19462
-0.023359 -0.0090161 -0.010912 -0.009921
-0.0043412 -0.010482 -0.0032608 -0.0085987 -0.002341 0.00098797 -0.023684 -0.0088089
-0.24803 0.05303 -0.005109 -0.0094404
0.0041442 -0.0062012 -0.00095815 -0.0022402 -0.0031764 -0.0096803 -0.0099227 -0.01064
-0.0052156 -0.0095611 -0.26137 0.091202
740000000 -0.18806 0.18591 -0.039201 0.025493 0.012535 -0.0050074 -0.00097901 -0.0042406
-0.0047374 -0.0016558 -0.0059845 0.0034694
-0.039389 0.025436 -0.33485 0.17922 -0.034841 0.035124 -0.00075418 -0.0062003
-0.01138 0.0080995 -0.0027359 -0.0059209
0.012856 -0.0046918 -0.034906 0.035143 -0.068573 0.28683 -0.0015532 0.0037317
-0.0029682 -0.0035092 -0.00079687 0.00071838
-0.0012581 -0.0045139 -0.00084022 -0.0062233 -0.0011581 0.0038676 -0.20117 0.2027
-0.042864 -0.0077707 0.022593 0.012364
-0.0051488 -0.0023251 -0.011482 0.0081011 -0.0030177 -0.0044656 -0.04264 -0.0085606
-0.15561 0.073503 -0.042439 0.0015982
-0.0064813 0.0031648 -0.0029168 -0.0063169 -0.0010502 0.0013691 0.022301 0.0133
-0.042766 0.0010962 -0.25005 0.098333
800000000 -0.15774 0.2256 -0.023658 0.01753 0.0054534 -0.010508 -0.0050225 -0.0019857
-0.0041353 0.0034778 0.0044001 0.00077321
-0.023653 0.017307 -0.33718 0.24962 -0.0077695 0.034347 -0.0018443 0.0022769
-0.00040572 0.0037115 0.0012503 0.0052148
0.005182 -0.010485 -0.007667 0.034464 -0.027446 0.30994 0.0013134 0.0014408
0.00083081 0.003607 -0.0019974 0.0010966
-0.0053109 -0.0017246 -0.0020029 0.0025353 0.0013309 0.0015428 -0.17438 0.23054
-0.028868 0.012547 0.012921 -0.0096893
-0.0041674 0.0034882 -0.00032562 0.0036967 0.0010641 0.0034536 -0.028578 0.012745
-0.19811 0.098429 -0.017857 0.017102
0.004045 0.0010419 0.0014085 0.0060097 -0.0019942 0.0012276 0.012786 -0.010185
-0.01787 0.017091 -0.24383 0.152
860000000 -0.12376 0.24782 -0.017702 0.031997 -0.0035077 -0.0099228 -0.0023508 0.0012522
0.0046715 0.0051904 -0.0027454 -0.0029172
-0.017785 0.031863 -0.28895 0.29128 0.0085285 0.03445 0.00059106 0.0019785
0.0050147 4.3573e-05 0.0034056 0.0004294
-0.0035186 -0.0097607 0.0085425 0.0344 0.021205 0.31806 -0.0002279 -0.00039888
0.002871 -0.0016309 0.0015155 0.004538
-0.0025814 0.0014609 0.00034997 0.0019642 -0.00036903 -0.00037432 -0.1385 0.24224
-0.018041 0.018559 -0.0060383 -0.0092309
0.0049567 0.0048626 0.0049058 0.0002594 0.0027374 -0.0015134 -0.018099 0.018804
-0.15019 0.14568 -0.023854 0.015596
-0.0029699 -0.0029387 0.0032124 0.00058973 0.0017251 0.0046119 -0.0058387 -0.0085426
-0.024426 0.01606 -0.19361 0.19447
920000000 -0.098847 0.27222 0.0050157 0.03879 -0.0094333 -0.0040281 -0.0016246 0.0027457
0.0014587 0.0016117 0.0022833 -0.0013459
0.0050034 0.03876 -0.26 0.31183 0.028391 0.021598 0.0017364 0.00093407
0.0066836 -0.00090412 0.0038634 -0.0026724
-0.0095396 -0.0040763 0.028526 0.02153 0.067914 0.31838 0.0017505 -0.0001783
0.001333 -0.00051129 0.00081359 -0.0010067
-0.0015466 0.0028045 0.0018097 0.00083794 0.001755 -0.00031924 -0.11453 0.25964
-0.010454 0.030089 0.0023267 -0.0063697
0.0014617 0.0016763 0.0063927 -0.00088381 0.0012921 -0.00054221 -0.010639 0.030223
-0.13953 0.153 -0.0020516 0.027377
0.0023524 -0.0012658 0.0039822 -0.0031287 0.00097835 -0.0013668 0.0021957 -0.0065479
-0.0023178 0.027526 -0.19948 0.20903
980000000 -0.050937 0.2924 0.018358 0.030715 -0.0087298 0.0049416 0.0026658 0.0038
0.0040786 -0.0018538 -0.0028678 -0.0019981
0.018297 0.030852 -0.20722 0.34544 0.033341 0.0043424 0.0019592 -0.00015435
0.00077107 -0.0061723 -0.0005263 -0.0023291
-0.008674 0.004982 0.033322 0.0042082 0.11455 0.3115 0.00035679 -0.0011884
-0.00011379 -0.0021346 0.0016623 -9.2042e-05
0.0027342 0.0038213 0.0019306 -0.00022446 0.00030937 -0.0011943 -0.076287 0.27151
0.0073428 0.028918 -0.0094961 -0.0064769
0.0040739 -0.0020205 0.0009476 -0.0061753 -1.1385e-05 -0.0021232 0.0073803 0.029008
-0.1086 0.1796 0.0051955 0.018667
-0.0030119 -0.0019313 -0.00080507 -0.0023358 0.00154 -0.0001095 -0.0092438 -0.0061719
0.0053209 0.018713 -0.1567 0.25328
1040000000 -0.0082231 0.30092 0.0341 0.018075 -0.00087027 0.0070749 0.0031233 0.00053428
-7.0271e-05 -0.0038545 -0.0005215 -0.0012417
0.03401 0.018079 -0.17143 0.35868 0.029207 -0.015315 0.0012734 -0.0016683
-0.0028511 -0.0021743 -0.0014671 -0.0027332
-0.00081183 0.0070247 0.029161 -0.015431 0.16098 0.29736 -0.00061793 -0.0013096
-0.0016683 -0.00079096 -0.00041863 -0.0011446
0.0030595 0.00065122 0.0014629 -0.0017562 -0.00051813 -0.0013382 -0.047936 0.28162
0.018544 0.017002 -0.0032685 0.0023712
-0.00033838 -0.0036421 -0.0027064 -0.0020341 -0.0016347 -0.00071754 0.01864 0.017059
-0.077859 0.18858 0.013418 0.017741
-0.00044739 -0.001441 -0.0015627 -0.0029033 -0.00035839 -0.0011934 -0.0032899 0.0024925
0.013372 0.017781 -0.13461 0.27448
1100000000 0.038321 0.30815 0.036468 -0.0045254 0.0032609 0.0037077 0.0026866 -0.0017794
-0.0022782 -0.0029807 -0.0037267 2.6932e-05
0.036456 -0.0045949 -0.12783 0.37548 0.01467 -0.028144 -2.066e-05 -0.0018257
-0.0030951 -0.00022257 -0.0034234 -0.00047084
0.0033182 0.0035788 0.01458 -0.028206 0.20756 0.2764 -0.0017912 0.00035225
-0.0016248 0.00074192 -0.00089316 -0.00046032
0.0027392 -0.0017881 3.3658e-05 -0.0017864 -0.0017419 0.00038419 -0.0069479 0.28665
0.022621 0.0046443 -0.0021063 0.0013717
-0.0023228 -0.0031187 -0.0031082 -0.00021332 -0.0016618 0.00072444 0.022655 0.0046183
-0.059652 0.20197 0.018491 0.008379
-0.0036915 3.0831e-05 -0.0035376 -0.00048701 -0.00081218 -0.00050375 -0.0022445 0.0014736
0.018337 0.0084395 -0.087606 0.30354
1160000000 0.089368 0.30306 0.024233 -0.02132 0.0028296 -0.00082996 -0.00017055 -0.0027809
-0.0041325 -0.00016852 -0.00076987 0.0039543
0.024269 -0.021198 -0.083752 0.37955 -0.0042846 -0.029065 -0.0018123 -0.0015677
-0.0020841 0.0026882 -0.0013342 0.0016524
0.0028791 -0.0008432 -0.0044388 -0.02904 0.25055 0.2448 -0.00047101 0.0017
-0.00029758 0.0017442 -0.0011032 3.9801e-05
-0.0001233 -0.0027295 -0.001868 -0.0015814 -0.00049521 0.0017267 0.032787 0.28351
0.01892 -0.010085 -0.0025256 0.0058997
-0.0042422 -0.00012855 -0.0021072 0.0027214 -0.00035136 0.0017403 0.018861 -0.010135
-0.026319 0.21218 0.017307 0.00022268
-0.00073696 0.0037466 -0.0012626 0.0016201 -0.0010661 0.00010796 -0.0025142 0.005711
0.017349 0.0001378 -0.040765 0.30651
1220000000 0.13451 0.29169 0.010382 -0.030429 -0.0015913 -0.0011609 -0.00039992 -0.0011788
-0.0024476 0.002755 0.0013699 0.0017817
0.010388 -0.030416 -0.039089 0.39082 -0.017275 -0.02072 -0.0024892 0.00056588
0.00046445 0.0027623 -0.00063254 0.0017751
-0.0016515 -0.0012117 -0.017402 -0.02068 0.28933 0.20505 0.0010223 0.0014483
0.00065379 0.0010748 0.0001897 0.00070694
-0.00046471 -0.0011927 -0.0024661 0.00058919 0.00098406 0.0014602 0.07292 0.27431
0.0086365 -0.015506 0.0032431 0.0018414
-0.0024751 0.0026941 0.00043827 0.0027109 0.00063885 0.00094728 0.0086155 -0.015455
-0.0020752 0.22214 0.01312 -0.012344
0.0013106 0.0017892 -0.00058879 0.0017068 7.5891e-06 0.00079206 0.003376 0.0019177
0.013111 -0.012353 -0.0081501 0.32238
1280000000 0.18415 0.26936 -0.0080397 -0.028762 -0.0019841 0.0022839 -0.0013447 -0.0018517
-0.00033676 0.0031437 0.0024953 0.00082541
-0.0080656 -0.028715 0.00702 0.3813 -0.023705 -0.0079773 -0.00084645 0.0015048
0.0016814 0.0013496 0.0005375 0.0019518
-0.0020014 0.0023156 -0.023788 -0.0078837 0.31931 0.16073 0.0013117 -0.00026628
0.00093208 2.2568e-05 0.00028448 0.00051027
-0.0013566 -0.0018446 -0.00084301 0.0014797 0.0012642 -0.0002735 0.10926 0.2578
-0.00026643 -0.016596 0.00095643 -4.6406e-05
-0.00030693 0.0031012 0.0016602 0.0013704 0.00095127 7.579e-05 -0.00030869 -0.016597
0.035571 0.2261 0.0025532 -0.014294
0.0025238 0.00085279 0.00048748 0.0020298 0.0001817 0.00047136 0.0009984 -9.9184e-05
0.0026068 -0.014345 0.039168 0.32356
1340000000 0.22184 0.2354 -0.017953 -0.019061 0.00059005 0.0042598 -0.0019685 -0.00047733
0.0016277 0.0023644 0.0014808 -0.0015759
-0.017967 -0.01909 0.046478 0.37204 -0.021305 0.0046489 5.4182e-05 0.0018619
0.0016087 0.00052271 0.0013638 0.00081657
0.00062893 0.0042895 -0.021324 0.0047135 0.34087 0.11284 0.00078813 -0.00089848
0.00051446 -0.00035363 0.00026552 0.00029883
-0.0019131 -0.00044324 8.2359e-05 0.0018485 0.00084021 -0.00086302 0.14202 0.23731
-0.0079842 -0.013313 0.0015534 -0.00027365
0.0016908 0.0023672 0.0016388 0.00047024 0.0005337 -0.00029409 -0.0079964 -0.013298
0.067263 0.22128 -0.0037322 -0.012528
0.001441 -0.0015842 0.0013715 0.00075442 0.00035427 0.00032378 0.0015849 -0.00026948
-0.0037598 -0.012557 0.078697 0.31855
1400000000 0.25519 0.1968 -0.023575 -0.0074519 0.0048559 0.003127 -0.001904 0.00087557
0.0024023 0.00037792 7.965e-05 -0.0012673
-0.023531 -0.0074198 0.083146 0.35822 -0.014425 0.012524 0.0012952 0.0011356
0.00074639 -0.00082515 0.0012003 0.00021559
0.0048881 0.0031674 -0.014367 0.012641 0.35357 0.059316 -2.886e-05 -0.0013787
-7.2955e-07 -0.00036884 0.00038623 0.00021525
-0.0018958 0.00088014 0.0013128 0.0011034 -5.056e-05 -0.0013205 0.17178 0.20874
-0.012493 -0.0070409 -0.00048334 -0.0011662
0.0024443 0.00034965 0.00075591 -0.00085954 -1.1884e-05 -0.00031449 -0.012538 -0.0070776
0.10128 0.21585 -0.0097371 -0.0077925
1.3774e-05 -0.0012427 0.0011728 0.00030162 0.0004338 0.00022042 -0.00047949 -0.0010773
-0.0097106 -0.0078154 0.12354 0.30694
1460000000 0.27871 0.15222 -0.020547 0.0047464 0.0053421 -0.0016357 -0.0012765 0.0016988
0.001722 -0.00092461 -0.00038976 -0.00074875
-0.020556 0.0047232 0.11671 0.3359 -0.0058366 0.015098 0.0015695 0.00010935
0.00067436 -0.00092534 0.0011208 -0.00065194
0.0053241 -0.001647 -0.0058066 0.015136 0.3593 0.0049071 -0.0010436 -0.0010694
0.0002578 -0.00018834 0.00068772 -0.00040101
-0.0013169 0.001733 0.0015746 0.00013233 -0.0010775 -0.0010619 0.19867 0.17959
-0.012401 -0.0016073 -0.0012431 0.0011335
0.0017228 -0.00090898 0.0007143 -0.00093223 0.00028146 -0.0001902 -0.012391 -0.0015946
0.13187 0.20012 -0.010997 -0.002446
-0.00035877 -0.0007615 0.0011556 -0.0006744 0.00061131 -0.00051385 -0.0012583 0.0011161
-0.010981 -0.0024785 0.15681 0.28526
1520000000 0.29134 0.10925 -0.0148 0.010434 0.0030457 -0.0038727 0.00028356 0.0023718
0.0013625 -0.0016653 -0.00108 -8.9402e-05
-0.014782 0.010404 0.14952 0.32089 0.0015959 0.012865 0.0014885 -0.00074062
0.00010957 -0.00076485 0.00023404 -0.0010209
0.0030569 -0.0038903 0.0016694 0.012878 0.35213 -0.051156 -0.00080963 -0.00028462
0.00047249 -0.00075399 6.5013e-07 -6.0395e-05
0.00028228 0.0023167 0.0014886 -0.00078387 -0.00080695 -0.00028732 0.22253 0.14118
-0.0112 0.002484 0.00078483 0.0015427
0.001362 -0.0016692 9.8197e-05 -0.00076303 0.0004105 -0.00078446 -0.011192 0.0025052
0.16053 0.18436 -0.010809 0.0017808
-0.0011476 -6.057e-05 0.00022099 -0.0010174 5.3737e-05 -6.8322e-05 0.00083215 0.0015173
-0.0108 0.0017853 0.18999 0.2643
1580000000 0.30068 0.061297 -0.0080932 0.013393 -0.00084819 -0.0045468 0.0012767 0.0015921
-0.0006683 -0.0018105 -0.0002723 0.00033715
-0.008129 0.013382 0.17613 0.29612 0.0051152 0.0080539 0.00045363 -0.0014521
-0.00024029 -0.00093098 -0.0003573 -0.00084783
-0.00088182 -0.0045303 0.005175 0.0080595 0.33177 -0.10857 -0.0013693 0.00042128
-0.00030458 -0.0010208 0.00016839 -0.00058822
0.0013504 0.0016366 0.00046105 -0.0014792 -0.0013743 0.00034251 0.2371 0.10086
-0.0083043 0.0056737 0.0015493 0.000634
-0.00066254 -0.0017857 -0.00023596 -0.00094089 -0.00030489 -0.0010943 -0.0082894 0.0056997
0.185 0.16481 -0.0084949 0.0069211
-0.00026472 0.0002942 -0.00033258 -0.00083433 0.0002422 -0.00055452 0.0014944 0.00066687
-0.0085069 0.0069383 0.22186 0.23722
1640000000 0.30201 0.018052 -0.0014632 0.012324 -0.0026064 -0.0022778 0.0022817 0.00099109
-0.00076147 -0.00078513 -0.00032709 0.00060222
-0.0014613 0.012324 0.20504 0.2712 0.0056863 0.0033793 -0.00068555 -0.0015906
-0.00082958 -0.00054147 -0.00055533 -0.00056978
-0.0025968 -0.0023547 0.005735 0.0033645 0.3035 -0.1574 -0.00083073 0.0011541
-0.0009532 -0.0007364 -3.0594e-05 -0.00030617
0.0023158 0.00093523 -0.00064879 -0.0015908 -0.00081679 0.0012025 0.24932 0.050831
-0.0052562 0.0057591 0.0019368 -0.00057124
-0.00073205 -0.00077074 -0.00082755 -0.00053959 -0.00097366 -0.00075243 -0.0052534 0.0057263
0.20809 0.1384 -0.0039897 0.0087666
-0.0003619 0.00062962 -0.00060573 -0.00061323 -8.2306e-05 -0.00033354 0.0019719 -0.00057455
-0.0039891 0.0087681 0.24756 0.20551
1700000000 0.29294 -0.028836 0.001988 0.0094794 -0.0032209 8.6303e-05 0.0027505 -0.00085219
-0.0015112 -0.00028526 0.00055441 0.00045826
0.0019684 0.0094735 0.2227 0.23997 0.0037337 0.00055608 -0.00133 -0.00056662
-0.00080167 -0.00014914 -0.00089221 -0.00033041
-0.0031999 0.00016064 0.0037368 0.00058013 0.26005 -0.19742 0.0001943 0.0015691
-0.0016665 -0.00032998 -0.00062317 -0.00096022
0.0027486 -0.00090151 -0.0013101 -0.00058523 0.00021438 0.0015942 0.24545 -0.00019347
-0.0040934 0.0057338 0.0012326 -0.0018341
-0.0015318 -0.00028228 -0.0007866 -0.00016254 -0.0016732 -0.0002715 -0.0041174 0.0057825
0.22513 0.11573 0.00051645 0.0089923
0.00057984 0.00048468 -0.00090421 -0.00031326 -0.00055307 -0.00097291 0.0012253 -0.0018365
0.00053515 0.0090115 0.26352 0.17052
1760000000 0.27831 -0.078293 0.0041576 0.0062721 -0.002078 0.00072437 0.0014718 -0.0031256
-0.00081722 0.00057558 0.00042998 -0.00035353
0.0041493 0.0062754 0.24838 0.20039 0.0014512 -0.0010428 -0.0011328 0.00018266
-0.0012179 0.00076747 -0.00055207 0.0005384
-0.0020537 0.0007242 0.0014794 -0.001083 0.21081 -0.23057 0.0010261 0.0013676
-0.0010862 0.001302 -0.00136 -0.0003711
0.0014655 -0.0031695 -0.0011249 0.0001647 0.00095771 0.0013341 0.23474 -0.052365
-0.0024939 0.0053607 -0.00054546 -0.0019624
-0.00075391 0.00058282 -0.0012452 0.00078095 -0.0010406 0.001224 -0.0025028 0.0053458
0.23952 0.078018 0.0039381 0.0061579
0.00043608 -0.00035668 -0.00053912 0.00056417 -0.0013551 -0.00043249 -0.00064318 -0.0019888
0.0039218 0.0061477 0.27584 0.13266
1820000000 0.25106 -0.11515 0.0044161 0.0028583 4.3356e-05 0.0022649 -0.00077102 -0.0030646
-0.00070961 0.00030422 0.00013789 -0.00010622
0.004401 0.0028654 0.25809 0.17057 -0.00027952 0.00012805 -0.0013565 0.0008002
-0.00026287 0.0014447 -0.0004335 0.00052563
-8.1682e-06 0.0022719 -0.00028715 9.9603e-05 0.16099 -0.24603 0.0016107 0.00052941
-0.00049179 0.0019889 -0.0013627 0.00063719
-0.00079675 -0.0030168 -0.0013994 0.00082813 0.0016097 0.00050739 0.20322 -0.099586
-0.0021142 0.0045771 -0.0016551 -0.0011804
-0.00073836 0.000288 -0.00024531 0.0014291 -0.00039746 0.0020893 -0.0020157 0.0046028
0.25473 0.046082 0.0046578 0.0026551
0.00017858 -6.3764e-05 -0.00045529 0.00053281 -0.0012672 0.0005694 -0.0015244 -0.0010896
0.0046793 0.0026416 0.27761 0.096079
1880000000 0.21353 -0.15401 0.0023277 0.00074305 -0.0003698 0.0019769 -0.0028356 -0.0023091
-0.00049477 0.0012192 0.0005167 -0.00070308
0.0023064 0.00073629 0.26255 0.12441 -0.0021329 0.0017622 -0.00020705 0.0017362
0.00065085 0.0014954 0.00025235 0.0008988
-0.00033028 0.0019791 -0.0021314 0.0017737 0.10896 -0.25528 0.0019584 -0.0011225
0.0014057 0.0020092 -0.00091486 0.0014483
-0.0028182 -0.0023476 -0.0001346 0.001744 0.0019137 -0.0010831 0.1614 -0.13836
-0.0022088 0.004149 -0.0022474 0.00091385
-0.00051044 0.0012434 0.00070451 0.0015507 0.0013281 0.0019009 -0.0022419 0.004153
0.25489 0.010841 0.0040365 0.00075101
0.00048326 -0.00075546 0.00027375 0.00089786 -0.00098219 0.0014154 -0.0023165 0.00085498
0.0040263 0.0008014 0.27709 0.061829
1940000000 0.17291 -0.17754 0.00040575 -0.00088624 0.0011045 0.0017799 -0.0039026 0.00039379
0.00091763 0.0010894 -0.00068659 -0.00079439
0.00040807 -0.00089405 0.26307 0.092751 -0.0010505 0.0038823 0.0010083 0.001318
0.0021703 0.00059306 0.00084058 0.00017398
0.0011162 0.0017876 -0.0010282 0.0038933 0.06282 -0.24934 0.00039038 -0.0025149
0.0024454 0.00062822 0.00033318 0.0015245
-0.0039626 0.00052433 0.00097115 0.0013766 0.00022274 -0.0023003 0.10837 -0.16712
-0.0031512 0.0045445 -0.0010168 0.0019621
0.00090102 0.0011149 0.0020849 0.00060722 0.0023395 0.00065898 -0.0031353 0.0045378
0.25284 -0.029916 0.0026893 -0.0021416
-0.000739 -0.00072231 0.00087464 0.00020091 0.00034045 0.0015952 -0.0010163 0.0020252
0.0026886 -0.0021506 0.26554 0.025554
2000000000 0.1264 -0.18956 -0.0031451 0.00092947 0.0023075 0.0016101 -0.0022958 0.0036976
0.0010434 0.00058963 -0.00088933 0.0003055
-0.0031172 0.00088231 0.24901 0.057293 -0.00084356 0.0054769 0.0016977 0.0002321
0.0017243 -0.0016376 0.0004893 6.3143e-05
0.002356 0.0017006 -0.00078486 0.0055069 0.01915 -0.23507 -0.0015278 -0.0014926
0.0021334 -0.0013201 0.0017096 0.0012879
-0.0022403 0.0037798 0.0017256 0.00027824 -0.0017053 -0.0015358 0.055402 -0.17554
-0.0041009 0.0057016 0.00033082 0.0021928
0.00097326 0.00058506 0.0017447 -0.0017065 0.0021505 -0.0013313 -0.0039852 0.0057673
