!Keysight Technologies,M9804A,MY58100912,A.14.10.03
!Date: Thursday, April 27, 2023 10:28:33
!Correction: S11(C  6-Port  ) 
!S12(C  6-Port  ) 
!S13(C  6-Port  ) 
!S14(C  6-Port  ) 
!S15(C  6-Port  ) 
!S16(C  6-Port  ) 
!S21(C  6-Port  ) 
!S22(C  6-Port  ) 
!S23(C  6-Port  ) 
!S24(C  6-Port  ) 
!S25(C  6-Port  ) 
!S26(C  6-Port  ) 
!S31(C  6-Port  ) 
!S32(C  6-Port  ) 
!S33(C  6-Port  ) 
!S34(C  6-Port  ) 
!S35(C  6-Port  ) 
!S36(C  6-Port  ) 
!S41(C  6-Port  ) 
!S42(C  6-Port  ) 
!S43(C  6-Port  ) 
!S44(C  6-Port  ) 
!S45(C  6-Port  ) 
!S46(C  6-Port  ) 
!S51(C  6-Port  ) 
!S52(C  6-Port  ) 
!S53(C  6-Port  ) 
!S54(C  6-Port  ) 
!S55(C  6-Port  ) 
!S56(C  6-Port  ) 
!S61(C  6-Port  ) 
!S62(C  6-Port  ) 
!S63(C  6-Port  ) 
!S64(C  6-Port  ) 
!S65(C  6-Port  ) 
!S66(C  6-Port  ) 
!S6P File: Measurement: :
# Hz S  RI   R 50
500000000 -0.33662 -0.032605 -0.0099064 -0.0042474 -0.0082278 0.011709 -0.0038762 0.011597
0.01181 0.0047428 -0.0042663 0.0082117
-0.0098763 -0.004249 -0.41949 -0.048755 0.0072832 -0.011546 0.0013458 0.010902
0.0076232 0.0029777 0.00093062 0.011992
-0.0082077 0.011704 0.007272 -0.011554 -0.2652 0.212 0.0067289 0.0029231
0.00031916 0.0085344 0.00040209 0.011541
-0.0038887 0.011611 0.0013832 0.010912 0.0067233 0.0029074 -0.32766 0.048625
-0.020466 -0.004964 0.017366 0.024963
0.011846 0.0047142 0.0076366 0.0029766 0.0003324 0.0085377 -0.020458 -0.004959
-0.22723 -0.18169 -0.028413 0.0043959
-0.0042751 0.008259 0.00097714 0.011983 0.00040962 0.011521 0.017354 0.024953
-0.028424 0.0044008 -0.27226 -0.12826
560000000 -0.31488 0.12602 -0.024798 -0.063176 0.00046531 0.01218 0.0063673 0.010297
0.011366 0.0040821 0.0093848 0.0078379
-0.02476 -0.063085 -0.37715 0.1105 -0.042022 -0.036715 0.014572 0.0039626
-0.013012 -0.0049008 0.00508 -0.00046608
0.00047398 0.012182 -0.04215 -0.036634 -0.18252 0.26029 -0.0010164 -0.0047223
0.019425 0.0042164 0.0069001 -0.0060618
0.0063872 0.010288 0.014515 0.0039146 -0.00096562 -0.0047042 -0.30196 0.13727
0.0033619 -0.02431 0.0052005 -0.019672
0.011378 0.004056 -0.013066 -0.0048717 0.019431 0.0042251 0.0033906 -0.024339
-0.28632 -0.0078817 0.0067918 -0.051069
0.0094027 0.0078379 0.0051023 -0.00049298 0.0068919 -0.0060771 0.0051469 -0.019665
0.0068184 -0.051084 -0.33274 0.020532
620000000 -0.27287 0.11089 -0.023493 0.0072171 0.0033682 0.0082371 0.0071647 -0.0056919
0.01104 -0.00026117 0.00084999 -0.0017141
-0.023479 0.0072125 -0.40276 0.064055 -0.018796 7.7401e-05 -0.0015969 -0.0020677
0.010636 -0.0069606 0.00071495 -0.0026856
0.0034004 0.008226 -0.018832 0.0001481 -0.15201 0.26937 -0.0020429 -0.0049646
-0.0028925 -0.0038186 0.0080988 -0.003678
0.0071737 -0.0056711 -0.0016167 -0.0020399 -0.0019917 -0.0049453 -0.26003 0.14673
-0.03922 -0.018227 0.014717 0.024738
0.011045 -0.00031221 0.010634 -0.0070083 -0.0028871 -0.0037993 -0.039253 -0.018189
-0.20623 -0.046394 -0.040585 0.013957
0.00073515 -0.0017303 0.00070026 -0.0027043 0.0081268 -0.0036283 0.014754 0.024728
-0.040619 0.013929 -0.2515 -0.01623
680000000 -0.23197 0.19364 -0.027733 -0.013741 0.0050833 0.0051139 0.00075581 -0.0078079
-0.0031621 -0.010907 0.0043446 -0.0075758
-0.0277 -0.013745 -0.38664 0.16097 -0.032788 -0.00096672 -0.0016325 -0.00066603
-0.0027758 -0.0088092 -0.00067557 -0.0025328
0.0051074 0.0051046 -0.032836 -0.00087374 -0.10139 0.28832 -0.00071822 -6.9193e-05
-0.0023723 0.0007707 -0.0027694 -0.0096604
0.00075359 -0.0078186 -0.0016137 -0.00067885 -0.00071366 -6.9106e-05 -0.21799 0.19615
-0.023544 -0.0078095 -0.011084 -0.010026
-0.003204 -0.010931 -0.0027836 -0.0088148 -0.0023634 0.00076574 -0.023567 -0.0077786
-0.25165 0.051916 -0.005468 -0.008878
0.0043044 -0.0075801 -0.00068197 -0.0025649 -0.0027848 -0.0096676 -0.011096 -0.010011
-0.0054501 -0.0088791 -0.26324 0.088771
740000000 -0.18877 0.18933 -0.037915 0.026698 0.01284 -0.0052478 -0.00077263 -0.0041568
-0.0043388 -0.002728 -0.0064097 0.003137
-0.037888 0.026654 -0.33452 0.17933 -0.034496 0.035348 -0.00076152 -0.0065832
-0.011622 0.0086398 -0.002878 -0.00612
0.012823 -0.0052858 -0.03444 0.035448 -0.067882 0.28688 -0.0012622 0.0032955
-0.0030425 -0.0038823 -0.00087912 0.00040234
-0.00079101 -0.0041356 -0.00077394 -0.0065794 -0.0012461 0.0032966 -0.20127 0.20369
-0.042463 -0.0071448 0.023258 0.012859
-0.0043442 -0.0027054 -0.011606 0.0086914 -0.0030659 -0.0038812 -0.042504 -0.0070998
-0.15643 0.073826 -0.042387 0.0021056
-0.0064023 0.0031567 -0.0029458 -0.0061788 -0.00089923 0.00041415 0.023299 0.012865
-0.042417 0.0020635 -0.25128 0.09535
800000000 -0.15669 0.22913 -0.022053 0.017374 0.0053751 -0.010575 -0.0047822 -0.0019873
-0.0042333 0.0026336 0.0042633 0.00077911
-0.022046 0.017346 -0.33658 0.24937 -0.0074778 0.034101 -0.0020531 0.0021272
-0.00047478 0.003467 0.0012602 0.0052808
0.0053542 -0.010577 -0.0073761 0.034149 -0.026625 0.30963 0.0011474 0.0015683
0.00067764 0.0035188 -0.0018067 0.0010144
-0.0048005 -0.0019655 -0.0020589 0.0021371 0.00114 0.0015732 -0.1735 0.23134
-0.028223 0.013041 0.0134 -0.0098411
-0.0042392 0.0026665 -0.00046657 0.0034846 0.00068273 0.0035298 -0.028229 0.013084
-0.19871 0.098844 -0.017673 0.017743
0.0042791 0.00077298 0.0012612 0.005286 -0.0018175 0.0010297 0.013406 -0.0098528
-0.017686 0.01774 -0.24494 0.14982
860000000 -0.12167 0.25017 -0.016622 0.031265 -0.0032523 -0.0099805 -0.0024683 0.0012091
0.0041693 0.0050369 -0.002751 -0.0028319
-0.016633 0.031233 -0.28865 0.2911 0.008486 0.034136 0.00024635 0.0020617
0.0043873 0.00024518 0.0033703 0.00025771
-0.003284 -0.0099734 0.0086003 0.034135 0.02165 0.31742 -0.00030239 -0.00023395
0.0027348 -0.0016044 0.001679 0.0043136
-0.0024897 0.0012073 0.00025822 0.0020521 -0.00031646 -0.00023016 -0.13804 0.24302
-0.01738 0.018514 -0.0059139 -0.0092857
0.0041938 0.0050285 0.0043925 0.0002425 0.0027211 -0.0015971 -0.017346 0.018574
-0.14961 0.1464 -0.023363 0.01571
-0.0027591 -0.0028243 0.0033845 0.00024324 0.0017029 0.0043184 -0.0059099 -0.0092884
-0.023354 0.015675 -0.19427 0.19285
920000000 -0.096639 0.27343 0.0054968 0.037753 -0.0095439 -0.0043739 -0.0017287 0.0023135
0.0012141 0.0017136 0.002711 -0.0012242
0.0054826 0.037719 -0.25991 0.31177 0.02823 0.021436 0.0016735 0.0011912
0.0068628 -0.00088432 0.0038208 -0.0027248
-0.0095576 -0.0043419 0.028331 0.021355 0.068015 0.31782 0.0017679 -0.00013654
0.0013257 -0.00057177 0.00072583 -0.0011117
-0.0017197 0.0023199 0.0016845 0.0011722 0.0017733 -0.0001418 -0.11336 0.25943
-0.0099376 0.029918 0.0028456 -0.0065276
0.001214 0.0017132 0.0068594 -0.00089917 0.0013216 -0.00058261 -0.0098715 0.029945
-0.13902 0.15259 -0.0015622 0.027423
0.0027021 -0.0012316 0.0038317 -0.0027651 0.0007261 -0.0011184 0.0028327 -0.0065321
-0.001567 0.027427 -0.20117 0.20694
980000000 -0.048882 0.29253 0.018195 0.029684 -0.0089346 0.0047028 0.0024242 0.0036648
0.0040564 -0.0016472 -0.0028429 -0.0021031
0.018162 0.02968 -0.20712 0.34518 0.032992 0.0042938 0.0020397 -3.1374e-05
0.0011155 -0.0062357 -0.00049519 -0.0023684
-0.00893 0.0047338 0.033064 0.0041867 0.11442 0.31109 0.00036727 -0.001167
-5.8616e-05 -0.0021892 0.0014505 -0.00013219
0.0024384 0.0036547 0.0020458 -1.8209e-05 0.00035792 -0.0011759 -0.075165 0.27075
0.007998 0.028169 -0.0094124 -0.0067218
0.0040609 -0.0016623 0.0010843 -0.0062222 -5.5807e-05 -0.002201 0.0080485 0.028165
-0.1077 0.17922 0.0056468 0.018649
-0.0028615 -0.0020848 -0.00048396 -0.0023848 0.0014454 -0.00013284 -0.0094196 -0.0067099
0.0056277 0.018656 -0.15819 0.2513
1040000000 -0.0059943 0.30069 0.033381 0.01732 -0.0012311 0.0068877 0.0028822 0.00075333
0.00014954 -0.0035871 -0.00059352 -0.0014238
0.033356 0.017336 -0.17142 0.35809 0.028992 -0.015252 0.0014964 -0.0016964
-0.0026744 -0.002311 -0.0015472 -0.0026324
-0.0012219 0.0068953 0.028976 -0.015386 0.16083 0.29705 -0.00056419 -0.0014203
-0.0016261 -0.00075271 -0.00049148 -0.00098869
0.0028858 0.00073384 0.0015117 -0.0016886 -0.00055252 -0.0014194 -0.04759 0.28078
0.018697 0.016518 -0.0032084 0.0018328
0.0001427 -0.0035998 -0.0026979 -0.002275 -0.0016316 -0.00076063 0.018748 0.016485
-0.077161 0.18755 0.013881 0.017622
-0.0006213 -0.0014109 -0.0015703 -0.00266 -0.00049732 -0.00099642 -0.0032015 0.0018393
0.013874 0.017623 -0.13655 0.2726
1100000000 0.039747 0.30768 0.03572 -0.0050751 0.002882 0.0037587 0.0025788 -0.0014753
-0.0020124 -0.0030197 -0.0039125 -3.6527e-05
0.035701 -0.0050451 -0.128 0.37501 0.014575 -0.027969 2.8433e-05 -0.0018604
-0.003284 -0.00033098 -0.0035097 -0.00044659
0.0028888 0.0037499 0.014488 -0.028055 0.20739 0.2762 -0.0018165 0.00032913
-0.0016797 0.00075038 -0.00095309 -0.00030818
0.0025884 -0.0014892 3.1845e-05 -0.0018553 -0.0018284 0.0003355 -0.0069277 0.28549
0.022748 0.0041617 -0.0024679 0.00087044
-0.0020284 -0.0030229 -0.0032888 -0.00029709 -0.0016772 0.00074839 0.022767 0.0041289
-0.058902 0.20022 0.018805 0.0080467
-0.0039272 -2.6192e-05 -0.0035113 -0.00043783 -0.00095109 -0.00030491 -0.0024793 0.00087083
0.018805 0.008061 -0.089872 0.30204
1160000000 0.091371 0.30214 0.023419 -0.021362 0.0025829 -0.00047145 -1.2123e-05 -0.0025204
-0.0041666 -0.0004302 -0.00091733 0.0040676
0.023438 -0.021323 -0.083995 0.37927 -0.0043293 -0.028911 -0.0018488 -0.0016382
-0.0023537 0.0027984 -0.0013138 0.0016382
0.0025819 -0.00049182 -0.0044547 -0.028928 0.25046 0.24464 -0.00052604 0.0017541
-0.00020454 0.0018888 -0.0010182 0.00015332
-1.2383e-05 -0.0025295 -0.0018318 -0.0016105 -0.0005202 0.0017524 0.032476 0.28259
0.01881 -0.010663 -0.0029935 0.0056337
-0.0041727 -0.00042602 -0.0023656 0.0028287 -0.00020087 0.0018869 0.018805 -0.010677
-0.026142 0.20964 0.017559 -5.5852e-05
-0.00090669 0.0040676 -0.0012924 0.0016392 -0.0010258 0.00014426 -0.0029722 0.0056462
0.017548 -5.1846e-05 -0.042979 0.30521
1220000000 0.13593 0.29024 0.0095621 -0.030212 -0.0016116 -0.00069914 -0.00010024 -0.0011642
-0.002615 0.0025671 0.0013394 0.0019335
0.0095786 -0.030176 -0.039569 0.39075 -0.017179 -0.020711 -0.0025261 0.00049144
0.00042043 0.0029277 -0.00059675 0.0017915
-0.0016148 -0.00070381 -0.017283 -0.020656 0.2892 0.20488 0.00099611 0.0015441
0.00070832 0.0010557 0.00032399 0.00065184
-9.6026e-05 -0.0011683 -0.0025308 0.00050723 0.00099559 0.0015577 0.072245 0.27375
0.0084107 -0.015969 0.0026319 0.0018386
-0.0025925 0.0025628 0.00044295 0.0029287 0.00072251 0.0010549 0.0083923 -0.015984
-0.002844 0.21954 0.013157 -0.012861
0.0013349 0.0019401 -0.00058785 0.0017994 0.00031567 0.00065684 0.0026238 0.0018448
0.013164 -0.012859 -0.010699 0.32152
1280000000 0.18548 0.26746 -0.0086672 -0.028213 -0.0018097 0.0026004 -0.0011383 -0.0021022
-0.00056599 0.003228 0.0026032 0.0010034
-0.0086404 -0.028194 0.0065167 0.38142 -0.023673 -0.0079986 -0.00091699 0.0015135
0.0018384 0.0015497 0.00058271 0.0019528
-0.0018017 0.0026077 -0.02373 -0.0078931 0.3191 0.16067 0.0014193 -0.00025715
0.0009894 -3.6175e-06 0.00029433 0.0003732
-0.0011381 -0.0020859 -0.00092196 0.0015264 0.0014307 -0.00025655 0.10866 0.2575
-0.00070065 -0.017056 0.00057346 0.00034462
-0.00055376 0.0032383 0.0018463 0.0015353 0.00098801 -7.3409e-07 -0.00073218 -0.017055
0.034009 0.22358 0.002384 -0.014782
0.0026159 0.00099366 0.00059166 0.0019442 0.00029297 0.00036633 0.00057816 0.00034124
0.0023891 -0.014773 0.036995 0.32301
1340000000 0.22238 0.23286 -0.01822 -0.018332 0.00099544 0.0044179 -0.0020374 -0.00074157
0.0015058 0.0025899 0.0016533 -0.001553
-0.018192 -0.018333 0.046153 0.37239 -0.021365 0.0046012 1.8026e-05 0.0019167
0.0018046 0.00046161 0.0013611 0.00079912
0.0010162 0.0044044 -0.021371 0.0047168 0.34063 0.11263 0.00090894 -0.00098262
0.0005499 -0.00044322 0.00022377 0.00019164
-0.002035 -0.00073415 2.6969e-05 0.0019083 0.00089641 -0.00097994 0.14144 0.23719
-0.0086268 -0.013553 0.0014223 0.00018359
0.0015181 0.0025913 0.0018171 0.00045152 0.00055013 -0.000433 -0.0086599 -0.013543
0.065006 0.21938 -0.0041649 -0.01298
0.0016428 -0.0015556 0.0013714 0.00079465 0.00022359 0.00020054 0.0014111 0.00017617
-0.0041538 -0.012981 0.0762 0.31816
1400000000 0.25495 0.19397 -0.023492 -0.0066737 0.0052328 0.0031018 -0.0021341 0.00080934
0.0025601 0.00066882 0.00013866 -0.001404
-0.023468 -0.0066918 0.082981 0.35879 -0.014465 0.012567 0.0013605 0.0011502
0.00083215 -0.00097211 0.0011552 0.00022504
0.005246 0.0030757 -0.014428 0.012653 0.35315 0.059231 -5.9851e-05 -0.0015089
-7.4792e-05 -0.00031194 0.00031101 0.00028488
-0.0021355 0.0008174 0.0013763 0.0011391 -5.5965e-05 -0.0015146 0.17123 0.20881
-0.013231 -0.0069889 -0.00034387 -0.00060124
0.0025624 0.00065006 0.00082585 -0.00098379 -7.5484e-05 -0.00031394 -0.013247 -0.006969
0.098656 0.21454 -0.010367 -0.0079486
0.00014014 -0.0014099 0.001155 0.00022086 0.0003139 0.00027875 -0.00034103 -0.00060738
-0.010351 -0.0079595 0.12097 0.30687
1460000000 0.27722 0.14921 -0.020154 0.0053665 0.0055924 -0.0018218 -0.0015036 0.0018829
0.0020426 -0.0008263 -0.00039959 -0.00092331
-0.02014 0.0053557 0.11687 0.33647 -0.005767 0.015174 0.0016233 9.0122e-05
0.00060166 -0.001112 0.0011263 -0.00062884
0.005584 -0.0018394 -0.0057121 0.015215 0.35893 0.0051333 -0.0012428 -0.0011031
0.00024606 -0.00013379 0.00063785 -0.00036618
-0.0014987 0.0018747 0.0016209 7.8061e-05 -0.0012267 -0.0011138 0.19814 0.17967
-0.013113 -0.0012332 -0.00081998 0.0015046
0.0020518 -0.00083687 0.0005986 -0.0011068 0.00025111 -0.00012495 -0.013127 -0.001199
0.12911 0.19969 -0.011516 -0.0023178
-0.00039776 -0.00092736 0.0011252 -0.00064424 0.00064322 -0.00036893 -0.00081428 0.0015076
-0.011508 -0.002333 0.15408 0.28567
1520000000 0.28862 0.10699 -0.014212 0.010752 0.0032034 -0.0042132 0.00025907 0.0026317
0.001627 -0.001823 -0.0011759 -8.2967e-05
-0.014205 0.010734 0.14986 0.32134 0.0017058 0.012916 0.0015238 -0.00080229
-1.9429e-05 -0.00077137 0.00028285 -0.00098692
0.0031781 -0.0042294 0.001773 0.01292 0.3522 -0.050991 -0.00091489 -0.00024758
0.00060979 -0.0008168 1.5946e-05 -0.00011095
0.00027139 0.0026343 0.0015158 -0.00081409 -0.00091188 -0.00024729 0.22201 0.14143
-0.01164 0.0032045 0.0012454 0.0016186
0.0016172 -0.0018375 -2.5475e-05 -0.00077513 0.00061017 -0.00081756 -0.011638 0.0032473
0.15782 0.18447 -0.011301 0.0021265
-0.0011747 -6.6644e-05 0.00027192 -0.00099005 1.6388e-05 -0.00011242 0.0012468 0.0016169
-0.011287 0.0021136 0.18741 0.26514
1580000000 0.29713 0.060328 -0.0074758 0.013509 -0.00098743 -0.0048897 0.0015305 0.0017708
-0.00059961 -0.0020478 -0.00026206 0.00039504
-0.0074817 0.013495 0.17659 0.29648 0.0052374 0.0080773 0.00041132 -0.0014952
-0.00033143 -0.00079974 -0.00027314 -0.00084819
-0.0010143 -0.0048781 0.0052894 0.0080527 0.33188 -0.10843 -0.0013314 0.00056236
-0.00030895 -0.0010275 0.00013483 -0.00053232
0.0015375 0.001773 0.00040227 -0.0015065 -0.0013313 0.00056641 0.23659 0.10135
-0.008377 0.0065206 0.0019513 0.00047081
-0.0006116 -0.0020379 -0.00034336 -0.0008006 -0.00031595 -0.0010336 -0.0083703 0.006536
0.18258 0.1654 -0.0087373 0.0074767
-0.00026395 0.00040031 -0.00027924 -0.00084761 0.0001287 -0.00053317 0.0019538 0.00045917
-0.0087342 0.0074648 0.21956 0.23845
1640000000 0.2982 0.018651 -0.00085893 0.012129 -0.0028043 -0.0025562 0.0026177 0.00087569
-0.00095156 -0.0010194 -0.00027181 0.00066493
-0.00087882 0.012127 0.20563 0.27136 0.0058476 0.003362 -0.00070595 -0.0015738
-0.00077603 -0.00042258 -0.00053504 -0.00066607
-0.0028212 -0.002539 0.0058754 0.003339 0.30369 -0.15737 -0.00071647 0.0012465
-0.0010618 -0.00081263 -9.548e-05 -0.00037655
0.0026198 0.00085937 -0.00071047 -0.0015735 -0.00071299 0.0012483 0.24909 0.051475
-0.0049617 0.0065532 0.0021511 -0.00087497
-0.00096294 -0.0010216 -0.00078236 -0.00042442 -0.0010636 -0.00080976 -0.0049506 0.0065662
0.20573 0.13927 -0.0040088 0.00934
-0.00026896 0.00067269 -0.00053569 -0.00065963 -9.4812e-05 -0.00037219 0.0021485 -0.00087824
-0.004018 0.009339 0.24549 0.20725
1700000000 0.28972 -0.026567 0.0024212 0.0090953 -0.0034869 9.4434e-05 0.0028679 -0.0012004
-0.001761 -0.00028115 0.00063372 0.00035981
0.0024093 0.0090958 0.2233 0.23999 0.0038406 0.00053756 -0.0013548 -0.00053658
-0.00068474 -0.00014935 -0.00093296 -0.00042026
-0.0034858 0.0001137 0.0038492 0.00050544 0.26026 -0.19748 0.00030482 0.001394
-0.0017521 -0.00025634 -0.00065058 -0.00096433
0.0028623 -0.0012168 -0.0013567 -0.00053449 0.0003082 0.0013864 0.24553 0.00047234
-0.0034696 0.006331 0.0012766 -0.0021157
-0.0017724 -0.00026182 -0.00068579 -0.00014315 -0.0017591 -0.00025206 -0.0034601 0.0063386
0.22292 0.11707 0.00068164 0.0094612
0.00063514 0.00035582 -0.00093452 -0.00041879 -0.0006478 -0.00096479 0.001276 -0.0021102
0.00067719 0.0094569 0.26195 0.17254
1760000000 0.27647 -0.074662 0.0044269 0.0057801 -0.0022402 0.00086425 0.0012179 -0.0033475
-0.00091808 0.00069153 0.00036434 -0.00045394
0.0044285 0.0057861 0.24902 0.20026 0.0015344 -0.0011534 -0.0010804 0.00016938
-0.0011635 0.00067057 -0.00065257 0.00052688
-0.0022425 0.00088311 0.0015299 -0.0011778 0.21107 -0.23078 0.00099551 0.0012427
-0.0011044 0.0012455 -0.0014678 -0.00041663
0.0012054 -0.0033489 -0.0010821 0.0001643 0.00099286 0.0012515 0.23522 -0.051717
-0.0016761 0.0056039 -0.00065651 -0.0022258
-0.00090663 0.00069679 -0.0011494 0.00068038 -0.0011082 0.0012456 -0.0016524 0.0056097
0.2376 0.079846 0.0043114 0.0064573
0.00036392 -0.00046078 -0.00064171 0.0005375 -0.001476 -0.00040595 -0.0006539 -0.0022201
0.004305 0.0064543 0.27476 0.13464
1820000000 0.25092 -0.11135 0.0044501 0.0022514 -0.0001354 0.0024379 -0.0010283 -0.0029774
-0.00069545 0.00050628 -2.1739e-05 -0.00010951
0.0044455 0.0022566 0.25874 0.17022 -0.00036542 -1.7607e-06 -0.0013611 0.00077039
-0.00028867 0.0012365 -0.00052721 0.00054695
-0.00011524 0.0024366 -0.00036811 1.7924e-06 0.16075 -0.24646 0.0014304 0.00048027
-0.00041078 0.0020439 -0.0013507 0.00065958
-0.0010516 -0.002971 -0.0013626 0.00078371 0.0014354 0.00049263 0.20384 -0.099306
-0.0011981 0.0044089 -0.0017728 -0.0013578
-0.00068777 0.00051472 -0.0002704 0.0012516 -0.00041669 0.0020416 -0.0011925 0.0044211
0.25325 0.048319 0.0051333 0.0028735
-2.6217e-05 -0.00011076 -0.00051983 0.00055553 -0.0013522 0.00066756 -0.0017659 -0.0013534
0.0051281 0.0028534 0.27706 0.098143
1880000000 0.21516 -0.15038 0.0020961 0.00017986 -0.00032314 0.0021817 -0.0028914 -0.002128
-0.0003196 0.0012557 0.00027388 -0.00056171
0.0020864 0.00018265 0.26306 0.12382 -0.002197 0.0016912 -0.00026245 0.0016775
0.00047176 0.001421 0.00021953 0.0009577
-0.00030398 0.0021829 -0.0021926 0.0017067 0.1088 -0.25573 0.0018713 -0.00091501
0.0013768 0.0020022 -0.00088967 0.0015707
-0.0029011 -0.0021243 -0.00024828 0.0016776 0.0018683 -0.00091902 0.16204 -0.13857
-0.0014764 0.0035691 -0.0024247 0.00074409
-0.00030539 0.0012554 0.00047816 0.0014131 0.0013754 0.0019857 -0.0014642 0.0035632
0.25402 0.013503 0.0046206 0.00073204
0.00027465 -0.00056585 0.00022759 0.00097251 -0.00089637 0.0015575 -0.0024165 0.00074439
0.0046072 0.00073239 0.27681 0.063853
1940000000 0.17576 -0.17533 -0.00010182 -0.0014129 0.0013355 0.0020381 -0.0036969 0.00058878
0.00099938 0.00098905 -0.00066296 -0.00054618
-9.7113e-05 -0.0014136 0.26341 0.091978 -0.0010885 0.0037926 0.00090519 0.0013617
0.0019263 0.00075743 0.00087465 0.00029053
0.0013397 0.0020237 -0.0010646 0.0038168 0.062656 -0.24942 0.00040439 -0.0023297
0.0024006 0.00060585 0.00044675 0.0016315
-0.003699 0.00060757 0.00092242 0.0013663 0.00042223 -0.0023339 0.10888 -0.16769
-0.0027291 0.0036152 -0.0012441 0.0019104
0.0010047 0.00098606 0.0019334 0.00074708 0.0024117 0.00061843 -0.002722 0.0036218
0.25291 -0.027142 0.0031546 -0.0023924
-0.00067475 -0.00053485 0.00087365 0.00027725 0.00045373 0.0016194 -0.0012439 0.0019117
0.0031538 -0.0024004 0.26555 0.027646
2000000000 0.12975 -0.18882 -0.0038785 0.00066337 0.0024463 0.0015766 -0.0022269 0.0035604
0.00096606 0.0003898 -0.00058441 0.00041094
-0.0038705 0.00066689 0.24899 0.056483 -0.00093043 0.0055362 0.0016987 0.00033994
0.0017518 -0.0013769 0.00053405 0.00011602
0.0024541 0.0015554 -0.0009006 0.0055484 0.018756 -0.23516 -0.0013411 -0.0014861
0.0021332 -0.0012041 0.0017256 0.0012045
-0.0022102 0.0035769 0.0017036 0.0003241 -0.0013426 -0.0014807 0.055414 -0.17612
-0.0041808 0.0048392 0.00014007 0.0023451
