!Keysight Technologies,M9804A,MY58100912,A.14.10.03
!Date: Thursday, April 27, 2023 10:28:33
!Correction: S11(C  6-Port  ) 
!S12(C  6-Port  ) 
!S13(C  6-Port  ) 
!S14(C  6-Port  ) 
!S15(C  6-Port  ) 
!S16(C  6-Port  ) 
!S21(C  6-Port  ) 
!S22(C  6-Port  ) 
!S23(C  6-Port  ) 
!S24(C  6-Port  ) 
!S25(C  6-Port  ) 
!S26(C  6-Port  ) 
!S31(C  6-Port  ) 
!S32(C  6-Port  ) 
!S33(C  6-Port  ) 
!S34(C  6-Port  ) 
!S35(C  6-Port  ) 
!S36(C  6-Port  ) 
!S41(C  6-Port  ) 
!S42(C  6-Port  ) 
!S43(C  6-Port  ) 
!S44(C  6-Port  ) 
!S45(C  6-Port  ) 
!S46(C  6-Port  ) 
!S51(C  6-Port  ) 
!S52(C  6-Port  ) 
!S53(C  6-Port  ) 
!S54(C  6-Port  ) 
!S55(C  6-Port  ) 
!S56(C  6-Port  ) 
!S61(C  6-Port  ) 
!S62(C  6-Port  ) 
!S63(C  6-Port  ) 
!S64(C  6-Port  ) 
!S65(C  6-Port  ) 
!S66(C  6-Port  ) 
!S6P File: Measurement: :
# Hz S  RI   R 50
500000000 -0.33321 -0.030051 -0.008537 -0.0046065 -0.0079457 0.011026 -0.0035602 0.011066
0.012182 0.0044672 -0.004101 0.0066469
-0.008533 -0.0045967 -0.4182 -0.048518 0.0077523 -0.012032 0.0016594 0.010782
0.0074685 0.002991 0.0013976 0.012203
-0.0079081 0.011036 0.0077235 -0.012056 -0.26427 0.21157 0.0069023 0.0029856
0.00035973 0.0086021 0.0010143 0.011797
-0.0035234 0.011105 0.001695 0.01085 0.0069069 0.0030036 -0.32564 0.049881
-0.018834 -0.0050575 0.016642 0.024619
0.012267 0.0043133 0.0076824 0.0028175 0.00034856 0.0084898 -0.01866 -0.0051142
-0.22737 -0.1764 -0.026007 0.0047016
-0.0038729 0.007042 0.0014707 0.012144 0.00045773 0.01182 0.018029 0.024902
-0.026659 0.0049827 -0.27474 -0.12347
560000000 -0.31001 0.12673 -0.02329 -0.063904 0.00019083 0.012566 0.0071157 0.0095505
0.012054 0.0035705 0.0093052 0.0071331
-0.023209 -0.063869 -0.3754 0.10974 -0.042124 -0.036652 0.01392 0.0038247
-0.012305 -0.0050588 0.0053624 -0.0009322
0.00014987 0.012715 -0.042309 -0.03655 -0.18258 0.25935 -0.00071358 -0.0047176
0.018393 0.0046958 0.0071301 -0.005888
0.0071938 0.009527 0.013922 0.0038261 -0.0006985 -0.0047526 -0.30064 0.13677
0.0047334 -0.026333 0.005512 -0.019253
0.01226 0.0035056 -0.012673 -0.0046261 0.018682 0.004303 0.0048353 -0.025633
-0.28432 -0.0035653 0.0077273 -0.050511
0.0091277 0.0074873 0.0049002 -0.00067688 0.0071033 -0.0062836 0.0053764 -0.019392
0.0073793 -0.051261 -0.33165 0.025444
620000000 -0.26864 0.11035 -0.023035 0.005717 0.003269 0.0083648 0.0070196 -0.0060653
0.010856 -0.00089495 -8.9817e-05 -0.0024777
-0.023016 0.0057118 -0.40239 0.063696 -0.019051 -0.00033556 -0.0015366 -0.0023248
0.010044 -0.0070701 0.00087114 -0.0029621
0.003283 0.0084037 -0.019065 -0.00028691 -0.15235 0.26795 -0.0020178 -0.005247
-0.0036067 -0.0032442 0.0080411 -0.0033175
0.0070117 -0.0060792 -0.0015382 -0.0023137 -0.0019984 -0.005238 -0.25963 0.14714
-0.038288 -0.019826 0.014475 0.02338
0.010821 -0.00089103 0.0099822 -0.0070251 -0.0036781 -0.0031921 -0.037886 -0.019841
-0.20445 -0.042152 -0.038348 0.014043
-0.00032329 -0.0023124 0.00074637 -0.0029517 0.007929 -0.003708 0.014421 0.023908
-0.039405 0.01321 -0.25057 -0.011483
680000000 -0.22843 0.19091 -0.028563 -0.015099 0.0049527 0.0053714 0.00021538 -0.0079593
-0.0036885 -0.010828 0.0038047 -0.0065371
-0.02855 -0.0151 -0.38663 0.16045 -0.033038 -0.00099688 -0.0018485 -0.00049414
-0.0031548 -0.0086665 -0.0010127 -0.0024634
0.0049523 0.0053696 -0.033075 -0.00090279 -0.10191 0.28767 -0.00070436 0.00027922
-0.0024256 0.0010837 -0.0031057 -0.009691
0.00018147 -0.0079794 -0.0018414 -0.00049364 -0.00069014 0.00028448 -0.21783 0.19508
-0.023707 -0.0091912 -0.010868 -0.0099313
-0.0037026 -0.010769 -0.0031395 -0.0087064 -0.0023883 0.001002 -0.023776 -0.008989
-0.24822 0.053306 -0.0054824 -0.0098654
0.003714 -0.0067684 -0.0010861 -0.0024645 -0.00293 -0.0095648 -0.01135 -0.010192
-0.0050763 -0.0098777 -0.26127 0.092486
740000000 -0.18785 0.18562 -0.03953 0.025606 0.012674 -0.0050441 -0.00096328 -0.0039748
-0.0046392 -0.0021125 -0.0062515 0.0035886
-0.039484 0.025545 -0.33518 0.17916 -0.034742 0.035117 -0.0010592 -0.0064071
-0.011554 0.0083696 -0.0026947 -0.0058999
0.01267 -0.0050447 -0.034669 0.03526 -0.068534 0.28707 -0.0011212 0.0035158
-0.0028742 -0.0036518 -0.0010523 0.00082516
-0.00097204 -0.0039697 -0.0010803 -0.0064195 -0.0011045 0.0035137 -0.20136 0.20268
-0.042996 -0.0077471 0.022861 0.012658
-0.0048318 -0.0022178 -0.011243 0.0086354 -0.0028951 -0.0035456 -0.04308 -0.0077775
-0.15664 0.073872 -0.042489 0.00060921
-0.0058661 0.0034832 -0.0029992 -0.0063843 -0.00058141 0.00071661 0.022637 0.012356
-0.042402 0.00077723 -0.25014 0.10043
800000000 -0.15737 0.22566 -0.023564 0.01745 0.0053176 -0.010418 -0.0047663 -0.0017999
-0.0040736 0.0031633 0.004478 0.00082297
-0.023552 0.017447 -0.33725 0.24968 -0.0077407 0.034382 -0.0018938 0.0022952
-0.00034951 0.0036809 0.001369 0.0052187
0.0052939 -0.010441 -0.0076472 0.034422 -0.027372 0.31004 0.0013521 0.0015037
0.00085509 0.003576 -0.0017679 0.0012175
-0.0047998 -0.0017547 -0.0018847 0.0022978 0.0013628 0.0015062 -0.17389 0.23062
-0.02883 0.012542 0.013003 -0.0096405
-0.0038908 0.0034576 -0.00034488 0.0037969 0.00087765 0.0036549 -0.02873 0.012798
-0.19795 0.099141 -0.017563 0.017228
0.0045636 0.0010083 0.0012587 0.0051985 -0.0018262 0.0012012 0.013282 -0.0097496
-0.017799 0.01703 -0.24375 0.1523
860000000 -0.12374 0.24796 -0.017745 0.032143 -0.0034515 -0.0098421 -0.0026034 0.001732
0.0047019 0.0051098 -0.002907 -0.0029285
-0.017759 0.032111 -0.28892 0.29164 0.0085345 0.034379 0.00049852 0.0021329
0.0049068 0.00017047 0.0034721 0.00033429
-0.0034901 -0.0098568 0.0086373 0.034385 0.021338 0.31807 -0.00030804 -0.0003459
0.0029424 -0.001552 0.0015238 0.0045989
-0.0026478 0.0016831 0.00050145 0.0021293 -0.00030924 -0.00035255 -0.13875 0.24302
-0.017909 0.018841 -0.0064138 -0.0095836
0.0046571 0.0053093 0.004919 0.0003175 0.002869 -0.0015241 -0.0181 0.019014
-0.14988 0.14594 -0.024248 0.015592
-0.0028865 -0.0029952 0.0034324 0.00038753 0.0015782 0.0045625 -0.0062947 -0.0094925
-0.024043 0.015539 -0.19305 0.19424
920000000 -0.0987 0.27223 0.0048481 0.038721 -0.0094969 -0.0040561 -0.0015632 0.0026695
0.0014488 0.0014149 0.0023005 -0.0011739
0.0048406 0.038695 -0.26006 0.31225 0.028443 0.021623 0.0016703 0.0009658
0.0066217 -0.0010258 0.0037944 -0.0027971
-0.0095102 -0.0040501 0.028539 0.021551 0.068039 0.31838 0.0016866 -0.00023112
0.0013498 -0.00055009 0.00093239 -0.0010741
-0.0015617 0.0026642 0.0016714 0.00097425 0.0016805 -0.0002369 -0.11425 0.25965
-0.010482 0.03014 0.0024136 -0.0063008
0.0013977 0.0014937 0.0065698 -0.0010629 0.001282 -0.00048758 -0.010521 0.030028
-0.13925 0.15311 -0.0023231 0.027024
0.0023593 -0.0011997 0.0038075 -0.0028375 0.00092336 -0.001152 0.0024261 -0.0062217
-0.0022487 0.027258 -0.19898 0.20976
980000000 -0.05094 0.29223 0.018261 0.030906 -0.0087349 0.0049455 0.002814 0.003829
0.0041025 -0.0019514 -0.002967 -0.0019043
0.018242 0.030898 -0.2071 0.34576 0.033276 0.0043058 0.0019772 -0.00017132
0.00089768 -0.0061443 -0.0005058 -0.002219
-0.0087209 0.0049732 0.033307 0.0042041 0.11464 0.3115 0.00033154 -0.0012024
-0.00011125 -0.0021727 0.001687 -3.7236e-05
0.002804 0.003822 0.001969 -0.00015627 0.0003336 -0.0012025 -0.07585 0.27169
0.0074949 0.028866 -0.009613 -0.0064643
0.0040792 -0.0019459 0.00079926 -0.0061745 -0.00011449 -0.002151 0.0075072 0.028849
-0.10831 0.17975 0.0051512 0.018602
-0.0030767 -0.001858 -0.00064814 -0.0022356 0.0016343 -1.6144e-05 -0.0095692 -0.0063888
0.005097 0.018596 -0.15633 0.2533
1040000000 -0.007763 0.30092 0.03394 0.018171 -0.00086718 0.0070895 0.0031249 0.0006051
-7.2701e-05 -0.0037695 -0.00048194 -0.0012187
0.033928 0.018164 -0.17129 0.35875 0.0292 -0.015338 0.0013415 -0.0016806
-0.0027401 -0.0020862 -0.0015729 -0.0026281
-0.00083462 0.0070842 0.029162 -0.015433 0.16112 0.29735 -0.00055935 -0.0013193
-0.0016397 -0.00069296 -0.00041046 -0.001102
0.0031201 0.0005824 0.0013554 -0.0016729 -0.00056562 -0.0013166 -0.047802 0.28171
0.018626 0.01698 -0.0032434 0.002492
-9.7137e-05 -0.0038135 -0.0028303 -0.0020709 -0.0016248 -0.0007257 0.018633 0.016963
-0.077501 0.1887 0.013276 0.017737
-0.00063993 -0.0012929 -0.0015403 -0.0026336 -0.00043211 -0.001145 -0.0032695 0.0024452
0.013522 0.017812 -0.13431 0.27496
1100000000 0.038078 0.30827 0.036309 -0.0045855 0.003284 0.0036455 0.0026719 -0.0017965
-0.0022779 -0.0030231 -0.0036276 0.00017182
0.036287 -0.0045583 -0.12772 0.37556 0.014652 -0.028158 -5.3111e-05 -0.0018726
-0.0031241 -0.00013333 -0.0033731 -0.0005112
0.0033101 0.0036306 0.014553 -0.028239 0.20769 0.27637 -0.0017625 0.00032743
-0.0016207 0.00072397 -0.00097176 -0.00044223
0.0026627 -0.0018136 -5.1489e-05 -0.0018802 -0.0017641 0.00033027 -0.0066851 0.28653
0.02266 0.0045755 -0.0021062 0.0015643
-0.0023186 -0.0030196 -0.0031323 -0.00011036 -0.0016328 0.00074249 0.022685 0.0044896
-0.059535 0.20216 0.018381 0.0084625
-0.0035687 0.00022166 -0.0033472 -0.00051103 -0.00088565 -0.00043517 -0.0021317 0.0015218
0.018471 0.0083664 -0.086904 0.30385
1160000000 0.089722 0.30308 0.024251 -0.02122 0.0028777 -0.00079616 -0.00014332 -0.0027599
-0.0041764 -0.00011425 -0.00081106 0.0039461
0.02426 -0.021192 -0.083382 0.37958 -0.0043124 -0.02906 -0.001865 -0.0015305
-0.0021828 0.0026504 -0.001263 0.0016433
0.00288 -0.00082196 -0.0044544 -0.029062 0.25069 0.24476 -0.00045797 0.0017521
-0.00030059 0.0017441 -0.001129 5.8533e-05
-0.00015736 -0.0027639 -0.0018609 -0.0015199 -0.0004593 0.0017559 0.033084 0.28338
0.018762 -0.010146 -0.0024795 0.005939
-0.0041507 -0.00013704 -0.0021632 0.0026515 -0.00027789 0.0017403 0.018804 -0.010205
-0.026272 0.21227 0.017249 0.00019011
-0.00081992 0.0039098 -0.0012426 0.0016393 -0.0011077 6.1878e-05 -0.0025327 0.0059064
0.017256 6.254e-05 -0.04008 0.30638
1220000000 0.1346 0.29162 0.010354 -0.030368 -0.0016043 -0.0011887 -0.00045508 -0.0011978
-0.0024043 0.0027311 0.00129 0.0017752
0.010363 -0.030334 -0.038876 0.39084 -0.017286 -0.020713 -0.0024815 0.00057773
0.00047433 0.0027235 -0.00065083 0.0017306
-0.001601 -0.0011888 -0.017396 -0.020663 0.28942 0.20496 0.0010141 0.0014403
0.00059667 0.001067 0.00014717 0.00065854
-0.00045894 -0.0012016 -0.002487 0.00059409 0.0010071 0.0014398 0.073044 0.27421
0.0085963 -0.015557 0.0032119 0.0017758
-0.0024081 0.0027141 0.0005017 0.0027088 0.00062281 0.0010531 0.0086046 -0.015556
-0.0019685 0.22232 0.013035 -0.012198
0.001326 0.001793 -0.0006271 0.001733 0.00013497 0.00065357 0.0031844 0.0017431
0.013092 -0.012347 -0.0077035 0.32233
1280000000 0.18427 0.26933 -0.0080356 -0.02866 -0.0019612 0.0022957 -0.0013237 -0.0018128
-0.00032804 0.0031184 0.0024068 0.000845
-0.0080142 -0.028636 0.0072959 0.38127 -0.023709 -0.0079604 -0.00084528 0.0015047
0.0016363 0.0013467 0.00046641 0.0018982
-0.0019565 0.0023071 -0.023762 -0.0078608 0.31942 0.16063 0.0012795 -0.00031589
0.00092974 4.7486e-05 0.00026793 0.00043821
-0.0013303 -0.0018096 -0.00084167 0.0015163 0.0012896 -0.00030981 0.10936 0.25765
-0.00033847 -0.0167 0.00095835 -0.00011339
-0.00032219 0.0030956 0.0016727 0.0013334 0.00092629 5.3473e-05 -0.00035974 -0.016644
0.035804 0.22621 0.0025656 -0.014344
0.0024607 0.00087656 0.00046245 0.0019156 0.00026968 0.00047403 0.00089513 -6.211e-05
0.0025913 -0.014308 0.039787 0.32354
1340000000 0.22197 0.23545 -0.01785 -0.019012 0.00061838 0.0042577 -0.0020003 -0.0004559
0.0015743 0.0023555 0.0014556 -0.0015477
-0.017827 -0.019003 0.04668 0.372 -0.021301 0.0046319 1.5001e-05 0.0018397
0.0015867 0.00051451 0.0013477 0.00070352
0.00064438 0.004258 -0.021302 0.0047526 0.34093 0.11269 0.00077995 -0.00089455
0.0005245 -0.00037968 0.00027935 0.00023166
-0.0020075 -0.00045288 3.2338e-05 0.0018392 0.00078121 -0.00088781 0.1421 0.23713
-0.0080737 -0.013329 0.0015011 -0.00038203
0.0015737 0.0023837 0.001568 0.0005051 0.00050639 -0.00035449 -0.0081135 -0.013321
0.06758 0.2214 -0.0036903 -0.012618
0.0014784 -0.0015321 0.0013316 0.00074064 0.00026704 0.00029201 0.0015433 -0.00037443
-0.0036753 -0.01254 0.079025 0.3184
1400000000 0.25531 0.19684 -0.023462 -0.0074209 0.0048341 0.0031296 -0.0018786 0.00086496
0.0023943 0.00038363 7.6541e-05 -0.0012544
-0.023421 -0.0074321 0.083333 0.35818 -0.01441 0.01252 0.0013005 0.0010964
0.00074385 -0.0008109 0.0012063 0.00021891
0.0048565 0.0030992 -0.014368 0.012605 0.3536 0.059162 -3.523e-05 -0.0013653
3.7205e-05 -0.00036678 0.00035783 0.00026401
-0.0018694 0.00087724 0.0013068 0.001096 -3.2008e-05 -0.001371 0.17178 0.20867
-0.01259 -0.0070144 -0.00054295 -0.001144
0.0024132 0.00037602 0.00073695 -0.00084731 -9.2688e-06 -0.00036122 -0.012607 -0.0070071
0.10163 0.21603 -0.0096478 -0.0076998
7.0933e-05 -0.0012652 0.0012158 0.00021562 0.00038855 0.00028174 -0.00046834 -0.0010547
-0.0096594 -0.0077814 0.12386 0.30675
1460000000 0.27894 0.15228 -0.020439 0.0046665 0.0052899 -0.0016052 -0.0013111 0.0017027
0.0016984 -0.00091149 -0.00039148 -0.00076654
-0.020421 0.0046483 0.11686 0.33582 -0.0058496 0.015061 0.0015497 9.7486e-05
0.00067356 -0.00095743 0.0011316 -0.00069951
0.0053005 -0.0016483 -0.0057843 0.015102 0.35927 0.004745 -0.0010665 -0.001045
0.00019924 -0.00014255 0.0006434 -0.00040847
-0.0013081 0.0017206 0.0015632 9.4318e-05 -0.0010633 -0.0010522 0.19865 0.17949
-0.012443 -0.0015769 -0.0012119 0.0011206
0.0016889 -0.00093761 0.00065894 -0.0009534 0.00021168 -0.00012837 -0.012497 -0.0015606
0.13225 0.20017 -0.010925 -0.0024342
-0.0003898 -0.00073427 0.0011086 -0.00064024 0.00071298 -0.00041801 -0.0012473 0.0011568
-0.010924 -0.0024788 0.15738 0.28512
1520000000 0.29167 0.10921 -0.014733 0.010307 0.0030095 -0.003857 0.00026158 0.002331
0.0013598 -0.0016563 -0.0010624 -7.8699e-05
-0.014732 0.01028 0.14969 0.32082 0.0015898 0.012864 0.0014786 -0.00073344
0.00011426 -0.00074946 0.00021152 -0.0010495
0.0029937 -0.0038691 0.0016719 0.012865 0.35216 -0.051289 -0.00080318 -0.00028595
0.00050679 -0.00077652 -6.1659e-05 -3.7843e-05
0.00027194 0.0023357 0.001479 -0.00074321 -0.00080139 -0.00028557 0.22244 0.14111
-0.011229 0.0026112 0.000845 0.0014831
0.0013413 -0.0016537 0.00012555 -0.00075037 0.0005224 -0.00076792 -0.011228 0.0026094
0.16094 0.18412 -0.010842 0.0017452
-0.0010683 -8.9699e-05 0.00021797 -0.0010283 6.5826e-06 -5.1639e-05 0.00087143 0.0014559
-0.010816 0.0017657 0.19049 0.26401
1580000000 0.30102 0.061238 -0.0081239 0.013261 -0.00088875 -0.0045651 0.0012792 0.0015989
-0.00066981 -0.0017816 -0.00023601 0.00032881
-0.0081257 0.013246 0.17627 0.29604 0.0051395 0.0080553 0.00046666 -0.0014573
-0.00024 -0.00093378 -0.00031433 -0.00084464
-0.00091053 -0.0045636 0.0051844 0.0080372 0.33177 -0.10874 -0.0013718 0.00045918
-0.00023856 -0.001014 0.00017693 -0.00060942
0.0012868 0.0015856 0.00045121 -0.0014679 -0.0013707 0.00045841 0.23701 0.1009
-0.008313 0.0058055 0.0014726 0.00060841
-0.00068415 -0.001765 -0.00025379 -0.00093016 -0.00025132 -0.0010094 -0.0082504 0.0057875
0.18542 0.1646 -0.0085398 0.0068499
-0.00026242 0.00037092 -0.00031286 -0.00082579 0.00017575 -0.00060165 0.0014816 0.00057497
-0.0085712 0.006872 0.22196 0.23691
1640000000 0.30246 0.017781 -0.0015403 0.012251 -0.002609 -0.0022908 0.0022974 0.00099314
-0.00072959 -0.00077609 -0.00036966 0.00065077
-0.001547 0.012245 0.20522 0.2711 0.0056989 0.0033707 -0.0006727 -0.0015719
-0.0008424 -0.00053613 -0.00057828 -0.00056877
-0.0026117 -0.0022787 0.0057325 0.0033349 0.30345 -0.15755 -0.00083747 0.0011455
-0.00095935 -0.0007556 -6.4502e-05 -0.00034725
0.0023054 0.00097996 -0.00067846 -0.0015703 -0.00084306 0.0011552 0.24938 0.050863
-0.00523 0.0058405 0.0019387 -0.00055681
-0.00072525 -0.00075601 -0.00085085 -0.00053312 -0.00095705 -0.00074661 -0.0052052 0.0058628
0.20837 0.13805 -0.0039897 0.0087335
-0.00033539 0.00059612 -0.0005635 -0.00058674 -5.9174e-05 -0.00035045 0.0019042 -0.00060685
-0.0039753 0.0086852 0.24762 0.2053
1700000000 0.29324 -0.029204 0.0018686 0.0094524 -0.0031701 0.00016183 0.002782 -0.00086434
-0.0014766 -0.00032019 0.00052544 0.00040952
0.0018576 0.0094446 0.22284 0.23988 0.0037364 0.0005866 -0.0013314 -0.0005772
-0.00078995 -0.00015801 -0.00088251 -0.00035105
-0.0031852 0.00017622 0.0037488 0.00057075 0.25999 -0.19747 0.00019928 0.0014996
-0.0016769 -0.00033427 -0.00062055 -0.00097258
0.0027669 -0.00087303 -0.0013432 -0.00056727 0.00018593 0.0015145 0.24557 -0.00020608
-0.0040246 0.0057761 0.0012398 -0.0018202
-0.001496 -0.00031285 -0.0007971 -0.00014724 -0.0016366 -0.00032416 -0.0040004 0.0058052
0.22526 0.11533 0.00046781 0.0089296
0.00053668 0.00043609 -0.00090905 -0.00032102 -0.00064481 -0.00097246 0.0012494 -0.001816
0.00048725 0.0090066 0.26363 0.17029
1760000000 0.27867 -0.078874 0.0040788 0.0063056 -0.0020285 0.00076925 0.0014441 -0.0031056
-0.0007858 0.00058348 0.00041114 -0.00035848
0.0040726 0.0063045 0.24854 0.20027 0.0014614 -0.0010623 -0.0010905 0.00017659
-0.0012193 0.0007627 -0.00054867 0.00054039
-0.002021 0.00078437 0.0014521 -0.0010792 0.21071 -0.23074 0.0010415 0.0013849
-0.0010659 0.0012304 -0.001354 -0.00038454
0.0014243 -0.0031159 -0.0011011 0.00017086 0.0010423 0.0013815 0.23497 -0.052408
-0.0023825 0.0052914 -0.00059715 -0.0019546
-0.00081945 0.000567 -0.0012423 0.00078401 -0.0010722 0.0012689 -0.0023778 0.0053362
0.23961 0.077662 0.0038379 0.0061631
0.00044185 -0.00032918 -0.00053797 0.00053728 -0.0013899 -0.00038383 -0.00058353 -0.0019679
0.0039059 0.0061419 0.27605 0.1324
1820000000 0.25099 -0.11583 0.0043583 0.0029091 5.4947e-05 0.00223 -0.00074375 -0.0030439
-0.00073837 0.00032547 0.00011768 -8.1788e-05
0.0043543 0.0029211 0.25826 0.17041 -0.00029342 0.00011435 -0.0013662 0.00080505
-0.00025205 0.0014416 -0.00041984 0.00053405
6.2623e-05 0.0022195 -0.00029029 0.00011445 0.16095 -0.24616 0.0015429 0.00053619
-0.00043033 0.0020088 -0.0013254 0.00064169
-0.00076572 -0.0030429 -0.0013644 0.00081265 0.0015481 0.00055529 0.20332 -0.099533
-0.002025 0.0045815 -0.001737 -0.0011688
-0.00069888 0.00032892 -0.00023346 0.0014477 -0.00040601 0.0020308 -0.0020765 0.0045864
0.25465 0.045784 0.0045417 0.0026261
9.7862e-05 -8.5805e-05 -0.0004181 0.00053693 -0.0013297 0.00062132 -0.0016864 -0.00115
0.0046445 0.0026795 0.2777 0.095735
1880000000 0.21337 -0.15447 0.0022463 0.00085424 -0.00031961 0.0019801 -0.0028691 -0.0023847
-0.00053152 0.001224 0.00045415 -0.00079053
0.0022473 0.00085133 0.2627 0.12424 -0.0021325 0.001789 -0.0002189 0.0017067
0.00065151 0.0014907 0.00021313 0.00089963
-0.00030433 0.0019768 -0.0021286 0.001814 0.10883 -0.2554 0.0020052 -0.0010407
0.0013699 0.0020161 -0.00095817 0.001495
-0.0028992 -0.0023865 -0.0002197 0.0016865 0.0019951 -0.0010522 0.16146 -0.13866
-0.0021349 0.0040808 -0.0022356 0.00095015
-0.00048356 0.0012029 0.00066017 0.0014759 0.0013648 0.0020326 -0.0021535 0.0040906
0.25481 0.01059 0.0040143 0.00077941
0.00048585 -0.0007212 0.00023261 0.00090086 -0.00092276 0.0015125 -0.0022333 0.00092554
0.0040271 0.00076144 0.27715 0.061437
1940000000 0.17245 -0.17811 0.00039369 -0.00083046 0.0011435 0.0017833 -0.0039442 0.00044005
0.00090789 0.0010603 -0.00063549 -0.0008053
0.00040121 -0.00081952 0.2632 0.092513 -0.001014 0.0038857 0.00090997 0.0013519
0.0021202 0.00060321 0.00081539 0.0001549
0.0011564 0.0018019 -0.0009876 0.0038935 0.062737 -0.24935 0.00031907 -0.0025042
0.0024046 0.00063973 0.00033135 0.0015141
-0.0039685 0.00043113 0.00090699 0.0013267 0.00032183 -0.0025182 0.10843 -0.16722
-0.0031144 0.0044158 -0.0010889 0.0019379
0.00095261 0.0010361 0.0021391 0.00056613 0.0024294 0.00060176 -0.0031056 0.0045175
0.25282 -0.030111 0.0026858 -0.0021614
-0.00068091 -0.00077753 0.00081565 0.00015292 0.0003648 0.0015186 -0.0010593 0.0019749
0.0027116 -0.0022124 0.26573 0.025143
2000000000 0.12584 -0.18985 -0.0031442 0.00096458 0.0023131 0.0016236 -0.0023728 0.003766
0.0009909 0.00061227 -0.00082143 0.00035297
-0.0031396 0.00097338 0.24902 0.057022 -0.00080882 0.0055331 0.0016542 0.00023713
0.0016935 -0.0016357 0.00050564 9.429e-05
0.0023202 0.0016246 -0.00078895 0.0055351 0.018937 -0.23518 -0.0015437 -0.0014387
0.0021585 -0.0012617 0.0016615 0.0013858
-0.0023184 0.0037798 0.0016652 0.00024929 -0.001524 -0.0014323 0.055366 -0.17557
-0.0041313 0.0057141 0.00039043 0.0023655
0.00098475 0.00057282 0.0016719 -0.0016811 0.0021132 -0.0012616 -0.0041285 0.0057368
