!Keysight Technologies,M9804A,MY58100912,A.14.10.03
!Date: Thursday, April 27, 2023 10:28:33
!Correction: S11(C  6-Port  ) 
!S12(C  6-Port  ) 
!S13(C  6-Port  ) 
!S14(C  6-Port  ) 
!S15(C  6-Port  ) 
!S16(C  6-Port  ) 
!S21(C  6-Port  ) 
!S22(C  6-Port  ) 
!S23(C  6-Port  ) 
!S24(C  6-Port  ) 
!S25(C  6-Port  ) 
!S26(C  6-Port  ) 
!S31(C  6-Port  ) 
!S32(C  6-Port  ) 
!S33(C  6-Port  ) 
!S34(C  6-Port  ) 
!S35(C  6-Port  ) 
!S36(C  6-Port  ) 
!S41(C  6-Port  ) 
!S42(C  6-Port  ) 
!S43(C  6-Port  ) 
!S44(C  6-Port  ) 
!S45(C  6-Port  ) 
!S46(C  6-Port  ) 
!S51(C  6-Port  ) 
!S52(C  6-Port  ) 
!S53(C  6-Port  ) 
!S54(C  6-Port  ) 
!S55(C  6-Port  ) 
!S56(C  6-Port  ) 
!S61(C  6-Port  ) 
!S62(C  6-Port  ) 
!S63(C  6-Port  ) 
!S64(C  6-Port  ) 
!S65(C  6-Port  ) 
!S66(C  6-Port  ) 
!S6P File: Measurement: :
# Hz S  RI   R 50
500000000 -0.33333 -0.029515 -0.0089453 -0.0042805 -0.0079753 0.011283 -0.0041347 0.011562
0.012426 0.0040576 -0.0044913 0.0072259
-0.0089403 -0.0042801 -0.41882 -0.04785 0.0072969 -0.011551 0.0015004 0.01104
0.0078257 0.0026419 0.0012978 0.012467
-0.0079658 0.011289 0.0072793 -0.011577 -0.26472 0.21253 0.0069469 0.0031195
-1.2419e-05 0.0088745 0.000779 0.012054
-0.0041244 0.011578 0.0015203 0.01106 0.0069756 0.0031111 -0.32568 0.050484
-0.018354 -0.0058947 0.018159 0.025235
0.012513 0.0039305 0.007887 0.0025835 2.9996e-07 0.0088662 -0.018372 -0.0059053
-0.22876 -0.17548 -0.025789 0.0037561
-0.0044162 0.0071156 0.001366 0.012443 0.00080929 0.012046 0.018174 0.025196
-0.025781 0.0037653 -0.27345 -0.12247
560000000 -0.30949 0.12759 -0.023151 -0.063245 2.4666e-05 0.012193 0.0069235 0.0090905
0.012192 0.0031533 0.0090719 0.0076276
-0.023121 -0.063171 -0.37579 0.10993 -0.041746 -0.036256 0.013259 0.0030406
-0.013073 -0.0038496 0.0041611 -0.00091831
5.4328e-05 0.01218 -0.041876 -0.036195 -0.1826 0.2597 -0.00038005 -0.00494
0.018129 0.0036923 0.007259 -0.006722
0.0069016 0.0091021 0.013204 0.003066 -0.00038713 -0.0049742 -0.30127 0.13749
0.0048905 -0.025537 0.0056806 -0.019319
0.012124 0.0031653 -0.013212 -0.0038327 0.018157 0.003679 0.0048592 -0.025531
-0.28469 -0.0040211 0.0073864 -0.050654
0.0090485 0.0076395 0.0041764 -0.00083335 0.0072043 -0.0067361 0.0056672 -0.01935
0.0073793 -0.050668 -0.33149 0.024949
620000000 -0.26838 0.11112 -0.022462 0.0060722 0.003507 0.0084539 0.0072512 -0.0061093
0.010449 -0.00080218 0.0011173 -0.0021011
-0.022454 0.0060644 -0.40225 0.064247 -0.018595 -0.00016227 -0.0015825 -0.0019276
0.010558 -0.0074854 0.00096255 -0.0026873
0.0035308 0.0084497 -0.018611 -0.00012105 -0.15225 0.26866 -0.0016387 -0.0051776
-0.0039709 -0.0033169 0.008278 -0.0036226
0.0073149 -0.0060755 -0.0015599 -0.0019171 -0.0015859 -0.0051633 -0.2598 0.14719
-0.038222 -0.019401 0.014325 0.024078
0.010512 -0.00095566 0.010538 -0.0076125 -0.0039689 -0.0034047 -0.038307 -0.019381
-0.20458 -0.04144 -0.039352 0.013886
0.0011021 -0.0021165 0.00098027 -0.0026464 0.0082958 -0.0036711 0.01434 0.024014
-0.039354 0.013874 -0.25198 -0.011093
680000000 -0.22791 0.19095 -0.028481 -0.014992 0.0046635 0.0050795 0.00037651 -0.0074802
-0.003356 -0.011198 0.0042716 -0.0070074
-0.028455 -0.014995 -0.38654 0.16101 -0.032638 -0.0010778 -0.0019643 -0.00052291
-0.0029356 -0.0086048 -0.00097064 -0.002614
0.0046751 0.0050727 -0.032664 -0.00099099 -0.10142 0.2881 -0.00089078 7.7148e-05
-0.0023546 0.00087552 -0.0030158 -0.009638
0.00021405 -0.0074745 -0.0020245 -0.00049023 -0.00089949 7.6633e-05 -0.21841 0.19594
-0.022978 -0.0087634 -0.010764 -0.0095121
-0.0033408 -0.011181 -0.0029314 -0.0086044 -0.0023369 0.0008772 -0.022976 -0.008743
-0.24866 0.053748 -0.004446 -0.010819
0.0042546 -0.0069826 -0.0009748 -0.0025978 -0.0030242 -0.0095916 -0.010778 -0.0094704
-0.0044359 -0.010816 -0.26232 0.091792
740000000 -0.18697 0.18543 -0.039437 0.025461 0.012585 -0.0052817 -0.0012417 -0.0041758
-0.0040797 -0.0017951 -0.0063696 0.0027987
-0.039424 0.025427 -0.33477 0.17997 -0.03475 0.034644 -0.00094029 -0.005997
-0.011748 0.0078044 -0.0027429 -0.0058563
0.012563 -0.0053001 -0.034678 0.034756 -0.067771 0.28713 -0.0013416 0.0034726
-0.0032462 -0.0035948 -0.0008629 0.00076047
-0.0012675 -0.0041911 -0.00095827 -0.0059848 -0.0013322 0.0034436 -0.20109 0.2034
-0.041752 -0.0077069 0.022292 0.012349
-0.0041451 -0.0017765 -0.011706 0.0078926 -0.0033071 -0.0036026 -0.041803 -0.0076511
-0.15719 0.075329 -0.041287 0.0013634
-0.0063217 0.0027823 -0.0028051 -0.0058136 -0.00087048 0.00067059 0.022318 0.012298
-0.041318 0.0013491 -0.25023 0.099376
800000000 -0.15728 0.22551 -0.023579 0.017181 0.005072 -0.010291 -0.0050616 -0.0018448
-0.0038701 0.0032413 0.0039796 0.0011903
-0.023579 0.017157 -0.3368 0.24998 -0.0077843 0.034052 -0.0020871 0.0025041
-0.00035476 0.003349 0.00089817 0.0056943
0.0050442 -0.010301 -0.0076887 0.034095 -0.026528 0.31005 0.001373 0.0016014
0.00071217 0.0037635 -0.0018226 0.0012388
-0.0050609 -0.0018317 -0.0020939 0.0025121 0.001367 0.0016073 -0.17342 0.23098
-0.028461 0.012598 0.01287 -0.0096286
-0.0038904 0.0032741 -0.00038613 0.0033442 0.00071816 0.0037799 -0.028464 0.012657
-0.19761 0.098588 -0.017727 0.017321
0.0039702 0.0011751 0.0008891 0.005688 -0.001799 0.0012602 0.012867 -0.0096083
-0.017751 0.01728 -0.24339 0.15327
860000000 -0.12344 0.24762 -0.01764 0.031825 -0.0034618 -0.0096067 -0.002679 0.0015244
0.0048892 0.0050695 -0.0027967 -0.0030643
-0.017642 0.031788 -0.2885 0.2918 0.0083215 0.034011 0.00043955 0.002087
0.0048154 0.00038579 0.0034316 0.00021284
-0.0034805 -0.0095935 0.00844 0.03402 0.022008 0.31763 -0.00021284 -0.00032338
0.0030308 -0.0014161 0.0015476 0.0044482
-0.0026693 0.0015395 0.00046438 0.0020567 -0.00020365 -0.00033672 -0.13785 0.24304
-0.017869 0.018592 -0.00649 -0.0094036
0.0049579 0.0050158 0.0048343 0.00029042 0.0030533 -0.0014535 -0.017851 0.018611
-0.14836 0.14684 -0.023878 0.015289
-0.0027633 -0.0030344 0.003445 0.00016931 0.0015538 0.004429 -0.0064858 -0.0093946
-0.02388 0.015279 -0.1929 0.19463
920000000 -0.098351 0.27216 0.0049206 0.038524 -0.0092387 -0.0038674 -0.0015187 0.0026654
0.0017102 0.0012706 0.0022734 -0.0011925
0.0048907 0.038501 -0.25922 0.3122 0.028172 0.021451 0.0018137 0.00091191
0.0066419 -0.00092057 0.0038328 -0.0029747
-0.0092524 -0.003853 0.028277 0.021385 0.068405 0.31773 0.0018004 -0.00023515
0.00128 -0.0004689 0.00088589 -0.0011746
-0.0015434 0.0026653 0.0017884 0.00092313 0.001781 -0.00023577 -0.11341 0.25929
-0.010623 0.029467 0.0024757 -0.006213
0.0017064 0.0013201 0.0066615 -0.00091256 0.0012876 -0.00043047 -0.010597 0.02951
-0.13817 0.15344 -0.0027468 0.026468
0.0022113 -0.0012433 0.0037793 -0.002981 0.00085637 -0.0011966 0.0024713 -0.006236
-0.0027597 0.026435 -0.1986 0.21009
980000000 -0.05088 0.2919 0.018127 0.030507 -0.0084908 0.0048253 0.0027591 0.0037816
0.0041312 -0.0018891 -0.003078 -0.0022277
0.018084 0.030492 -0.20634 0.3454 0.032799 0.0042717 0.0019537 -0.00014938
0.0011968 -0.006157 -0.00060876 -0.0022985
-0.0084809 0.0048445 0.03286 0.0041791 0.11471 0.31072 0.00037196 -0.0012614
1.7915e-05 -0.0021746 0.0016081 -0.00017316
0.0027857 0.0037823 0.0019556 -0.0001647 0.00038619 -0.0012665 -0.075416 0.27073
0.0071667 0.028042 -0.0096522 -0.0064785
0.0041365 -0.0019301 0.0011452 -0.0061898 9.6612e-06 -0.0021906 0.0072187 0.028043
-0.10709 0.17932 0.0051379 0.018062
-0.0030248 -0.0022156 -0.00059741 -0.0023421 0.0016532 -0.00019658 -0.0096574 -0.0064205
0.0051273 0.01805 -0.15585 0.25334
1040000000 -0.0077843 0.30069 0.033549 0.018042 -0.00079976 0.0068705 0.0030301 0.00067369
-7.5127e-05 -0.0039945 -0.00059566 -0.0012468
0.033508 0.018046 -0.17073 0.3584 0.028728 -0.014991 0.0014299 -0.0017084
-0.00254 -0.002209 -0.0015132 -0.002662
-0.00078422 0.006857 0.028722 -0.015098 0.16079 0.29658 -0.00055677 -0.0013465
-0.0016153 -0.00075775 -0.00054334 -0.0012314
0.0030363 0.00065577 0.0014129 -0.0016949 -0.00055936 -0.0013466 -0.047554 0.28096
0.017694 0.016671 -0.0029957 0.0024614
-0.00010163 -0.0040085 -0.0025524 -0.0021858 -0.0016248 -0.00074772 0.017736 0.016644
-0.07716 0.1887 0.013229 0.017436
-0.00061079 -0.0012635 -0.0015175 -0.0026523 -0.00055415 -0.0012231 -0.0030038 0.0024625
0.013221 0.017426 -0.13363 0.27472
1100000000 0.038032 0.30823 0.035841 -0.00438 0.0031604 0.003571 0.0026447 -0.0017019
-0.0022936 -0.0030464 -0.0038292 0.00023548
0.035809 -0.0043629 -0.1273 0.37493 0.014567 -0.027603 -4.4095e-05 -0.0017981
-0.0030499 -0.00030908 -0.0035446 -0.0004636
0.0031728 0.0035568 0.014483 -0.02768 0.20693 0.27586 -0.0018236 0.00032431
-0.0016124 0.00063717 -0.0010272 -0.00028877
0.0026598 -0.0017049 -5.175e-05 -0.0017871 -0.0018178 0.00033542 -0.0070182 0.28564
0.021841 0.0048343 -0.0021821 0.0012431
-0.0023005 -0.0030587 -0.0030358 -0.00029068 -0.0016015 0.00063606 0.021855 0.0048081
-0.058977 0.20199 0.018216 0.0082949
-0.0037991 0.0002512 -0.0035211 -0.00042659 -0.0010118 -0.00028509 -0.0021844 0.0012536
0.018195 0.0082954 -0.086826 0.30317
1160000000 0.089747 0.30309 0.023989 -0.020737 0.0027168 -0.00077621 -0.00015835 -0.0028039
-0.0041609 -8.4581e-05 -0.00079985 0.0039845
0.023989 -0.020699 -0.083299 0.37872 -0.0040524 -0.028619 -0.0018126 -0.0015198
-0.002231 0.002638 -0.0012783 0.0016223
0.0027103 -0.00079942 -0.0041645 -0.028618 0.24974 0.24477 -0.00051831 0.001701
-0.00034026 0.0017815 -0.00095488 0.00016442
-0.00016533 -0.0028056 -0.0018316 -0.0015222 -0.00053119 0.0017023 0.032473 0.28277
0.018321 -0.0093513 -0.0026352 0.0058981
-0.0041724 -6.3323e-05 -0.002222 0.0026875 -0.00033466 0.0017922 0.018309 -0.0093781
-0.025736 0.21172 0.016945 0.00020635
-0.00078274 0.0039977 -0.0012956 0.0016246 -0.00096942 0.00014666 -0.0026108 0.0059219
0.016958 0.00019036 -0.040153 0.30606
1220000000 0.13457 0.29158 0.010312 -0.029732 -0.0016146 -0.0010316 -0.00044651 -0.0012722
-0.0023598 0.0027346 0.0014093 0.0017953
0.010324 -0.029691 -0.03933 0.39 -0.016804 -0.020558 -0.0025045 0.00050211
0.00035822 0.0027525 -0.00064774 0.0017265
-0.0016207 -0.0010348 -0.016911 -0.020505 0.28868 0.20553 0.00091147 0.0014943
0.00059698 0.0010948 0.00028913 0.00074722
-0.0004471 -0.0012755 -0.0025007 0.00051155 0.00091664 0.0014961 0.072245 0.27397
0.0086312 -0.014557 0.0031227 0.0018025
-0.0023421 0.0027498 0.0003809 0.00275 0.00060381 0.0010843 0.0086135 -0.014581
-0.0017922 0.22148 0.012881 -0.012001
0.0014129 0.0017815 -0.00062904 0.0017374 0.00030356 0.00075103 0.0031391 0.001794
0.012874 -0.012003 -0.0076907 0.32217
1280000000 0.18416 0.26925 -0.0075932 -0.028072 -0.0019239 0.0023491 -0.0013547 -0.0018407
-0.00025482 0.003108 0.002401 0.0009279
-0.0075849 -0.028048 0.0062938 0.38074 -0.023281 -0.0081437 -0.00095859 0.0014908
0.0015778 0.0014302 0.0004662 0.0019954
-0.0019082 0.0023685 -0.023346 -0.0080461 0.31918 0.1615 0.0013242 -0.0001935
0.00092798 0.00010933 0.00032666 0.00044691
-0.0013568 -0.0018376 -0.00094546 0.001497 0.0013277 -0.00019229 0.1085 0.25789
0.00039361 -0.01586 0.00076071 -1.9451e-05
-0.00026202 0.0030894 0.0015892 0.0014301 0.00091269 0.00012306 0.00035864 -0.015866
0.03584 0.22553 0.0026278 -0.014023
0.0024183 0.00089335 0.00046125 0.0019858 0.00031593 0.00043387 0.00076104 -1.5944e-05
0.0026376 -0.014016 0.039662 0.32323
1340000000 0.22167 0.23551 -0.01723 -0.018858 0.00067323 0.0042064 -0.00198 -0.00043967
0.0016384 0.0022943 0.0015332 -0.0014809
-0.017199 -0.018856 0.045577 0.37206 -0.021122 0.0042505 -2.2083e-05 0.001913
0.0015888 0.00059072 0.0013309 0.00082107
0.00068911 0.0042088 -0.021127 0.0043563 0.3412 0.11348 0.00087775 -0.00085349
0.00053397 -0.00029817 0.00032332 0.00016075
-0.0019726 -0.000444 -1.6037e-05 0.0019125 0.00088519 -0.00084886 0.14158 0.23798
-0.00706 -0.013107 0.0015979 -0.0001728
0.0016588 0.0022903 0.0015982 0.00057965 0.0005463 -0.00030549 -0.0071 -0.013099
0.066866 0.22083 -0.0033697 -0.012197
0.0015177 -0.001503 0.0013338 0.00081066 0.00033115 0.00017453 0.0016047 -0.00017396
-0.0033642 -0.012197 0.078947 0.3181
1400000000 0.25509 0.19721 -0.022788 -0.007637 0.0048656 0.0030513 -0.0018197 0.00090085
0.0024479 0.00041609 7.4725e-05 -0.0013229
-0.022754 -0.0076469 0.082343 0.35889 -0.014487 0.012153 0.0013536 0.0012245
0.00084396 -0.0007592 0.0012202 0.00029914
0.0048788 0.0030367 -0.014443 0.012234 0.35417 0.059641 3.9434e-05 -0.0013386
4.0034e-05 -0.00030216 0.00038212 0.00021637
-0.001802 0.00091679 0.0013546 0.0012353 4.3948e-05 -0.0013345 0.17162 0.20953
-0.011504 -0.0075157 -0.00051007 -0.001072
0.0024329 0.0004113 0.00082859 -0.00075095 4.261e-05 -0.00030312 -0.011526 -0.007493
0.10093 0.21563 -0.0092748 -0.0077219
7.9186e-05 -0.0013286 0.0012272 0.0003003 0.00039274 0.00019904 -0.00052879 -0.0010632
-0.0092607 -0.0077264 0.12347 0.3066
1460000000 0.27904 0.15292 -0.020104 0.0041445 0.0052881 -0.0016695 -0.0012394 0.0017043
0.001665 -0.00085947 -0.00035265 -0.00081583
-0.020081 0.0041214 0.1164 0.33705 -0.0061002 0.01488 0.0016922 0.00011285
0.00078667 -0.00092849 0.0012274 -0.00066381
0.0052893 -0.0016965 -0.0060286 0.014912 0.35994 0.0048732 -0.00098298 -0.0011404
0.00028908 -9.5475e-05 0.00063488 -0.00043342
-0.0012305 0.0017069 0.0016827 0.00010105 -0.0009891 -0.0011511 0.19893 0.18043
-0.011892 -0.0024669 -0.0012159 0.0010983
0.0016582 -0.00087746 0.00077944 -0.00093057 0.00029743 -9.7022e-05 -0.011917 -0.002441
0.13149 0.20018 -0.010582 -0.0025149
-0.00035507 -0.00083356 0.0012294 -0.00066013 0.00062211 -0.00042205 -0.0011861 0.0011116
-0.010581 -0.0025195 0.15699 0.28488
1520000000 0.29218 0.1098 -0.014705 0.0096959 0.0029695 -0.0038612 0.00020122 0.002256
0.0013656 -0.0015982 -0.0011293 -0.0001583
-0.014696 0.0096686 0.14978 0.32213 0.001337 0.012871 0.0015673 -0.00082722
0.0002075 -0.00083605 0.00028845 -0.0010725
0.0029521 -0.0038743 0.0014044 0.012877 0.35268 -0.051439 -0.00081966 -0.0003875
0.00057108 -0.00075323 -2.2051e-05 -2.217e-05
0.00019979 0.002255 0.0015594 -0.00084395 -0.00081401 -0.00038133 0.22316 0.14175
-0.011357 0.0013994 0.00076459 0.0014904
0.0013567 -0.0016115 0.00019383 -0.00083359 0.00056059 -0.00075901 -0.011358 0.0014273
0.16025 0.18447 -0.010575 0.001435
-0.001147 -0.00014912 0.00027745 -0.0010696 7.4433e-07 -3.2576e-05 0.00076854 0.0014783
-0.010575 0.0014204 0.19005 0.26401
1580000000 0.30199 0.061558 -0.0084108 0.012739 -0.00091784 -0.0045036 0.0012411 0.0015866
-0.00055359 -0.0017785 -0.00035996 0.00031533
-0.008411 0.012731 0.17697 0.29728 0.004949 0.0081635 0.00039968 -0.0015834
-0.0002124 -0.0011024 -0.00033065 -0.00091605
-0.00092796 -0.004498 0.0049947 0.0081443 0.33217 -0.10916 -0.0014722 0.00032637
-0.00030835 -0.0011525 0.00017031 -0.00055484
0.0012359 0.0015801 0.00039739 -0.0015796 -0.0014715 0.00033035 0.23804 0.10126
-0.0091034 0.0049572 0.0014969 0.0005795
-0.00056602 -0.0017643 -0.00021569 -0.0010976 -0.00031143 -0.0011582 -0.0090929 0.0049825
0.18497 0.1651 -0.008516 0.0065608
-0.00035282 0.00031093 -0.00032751 -0.0009226 0.00015722 -0.0005277 0.0014915 0.00058955
-0.0085155 0.0065609 0.22171 0.23703
1640000000 0.30355 0.017497 -0.0020454 0.012036 -0.0026113 -0.0022097 0.0022824 0.0010557
-0.00066879 -0.00078072 -0.00039408 0.00067107
-0.0020477 0.012027 0.20642 0.27195 0.0056295 0.0035779 -0.00073623 -0.0016059
-0.0009449 -0.00063962 -0.00060922 -0.00064245
-0.002622 -0.002202 0.005655 0.0035506 0.3035 -0.15817 -0.00099238 0.0012568
-0.001042 -0.00084326 -9.0119e-05 -0.00020515
0.0022892 0.0010553 -0.00074684 -0.0015905 -0.00098662 0.0012541 0.25055 0.050729
-0.006296 0.0057149 0.0018567 -0.00045597
-0.00067842 -0.00078729 -0.00095379 -0.00064432 -0.0010562 -0.00084623 -0.006282 0.0057376
0.20815 0.13882 -0.0042515 0.0084673
-0.00038791 0.00068775 -0.00060149 -0.00062923 -7.9128e-05 -0.0001985 0.0018697 -0.00047327
-0.0042483 0.0084671 0.24754 0.20561
1700000000 0.29411 -0.029999 0.0014146 0.0095225 -0.0031431 0.00022521 0.0028076 -0.00082362
-0.0014902 -0.00035608 0.00054273 0.0005018
0.0014118 0.0095168 0.22435 0.24018 0.0037689 0.0007624 -0.0013929 -0.00052392
-0.00095039 -0.00011454 -0.00094936 -0.00034006
-0.0031434 0.00024606 0.0037807 0.00072768 0.25976 -0.19793 0.00020541 0.0016696
-0.0017791 -0.00025251 -0.00053837 -0.00091969
0.0028036 -0.00082652 -0.0014007 -0.00051213 0.00021795 0.0016763 0.24663 -0.0010247
-0.0048315 0.0063342 0.001244 -0.0018641
-0.0014994 -0.00033569 -0.00094828 -0.00010888 -0.0017876 -0.00024845 -0.0048263 0.0063459
0.22537 0.1162 0.00016854 0.0088641
0.00054721 0.00049552 -0.00095238 -0.0003374 -0.00054544 -0.00091495 0.0012385 -0.0018605
0.00017266 0.0088636 0.2635 0.17049
1760000000 0.27916 -0.079961 0.0037935 0.0065751 -0.0019595 0.00070747 0.0015534 -0.0030792
-0.00082818 0.00059101 0.00059612 -0.0003067
0.0037852 0.0065812 0.2501 0.1999 0.0015922 -0.00095793 -0.0011046 0.00025805
-0.0013798 0.00092796 -0.00057987 0.00057182
-0.0019467 0.00073156 0.0015864 -0.00096579 0.21038 -0.2309 0.0010947 0.0015352
-0.0011639 0.0013803 -0.0013242 -0.00043894
0.0015441 -0.0030833 -0.0011035 0.00026005 0.0010887 0.0015293 0.23567 -0.053701
-0.0026085 0.0062364 -0.00052706 -0.0020273
-0.00082106 0.00059376 -0.0013687 0.00094328 -0.0011581 0.0013707 -0.002595 0.0062474
0.24006 0.078573 0.0037406 0.0061671
0.00057919 -0.00032632 -0.00057387 0.000588 -0.0013136 -0.00040975 -0.00052007 -0.0020181
0.0037486 0.0061642 0.27576 0.13262
1820000000 0.25097 -0.11706 0.0042985 0.0031602 8.9894e-05 0.0021357 -0.00068035 -0.0031066
-0.00072964 0.00036648 0.00019662 -0.00012317
0.0042869 0.0031595 0.25955 0.16944 -0.0001541 0.00014676 -0.0013424 0.00086244
-0.00020371 0.0016261 -0.00043293 0.00060582
0.00010933 0.0021358 -0.00015232 0.00014168 0.16069 -0.24611 0.0017052 0.00052386
-0.00035509 0.0022083 -0.0012711 0.0005705
-0.00068664 -0.0030906 -0.0013373 0.00087139 0.0017028 0.0005148 0.20307 -0.10112
-0.0017945 0.0052208 -0.0015533 -0.0011134
-0.00072577 0.00037126 -0.00018723 0.0016297 -0.00033968 0.0022125 -0.0017788 0.0052388
0.25553 0.04634 0.0045082 0.0028419
0.00021691 -0.00012012 -0.00042818 0.00060954 -0.0013031 0.0005545 -0.0015604 -0.0011082
0.0045082 0.00284 0.27768 0.095969
1880000000 0.21283 -0.15564 0.0022808 0.00097465 -0.00037525 0.0018465 -0.0028091 -0.0024022
-0.00055979 0.0013361 0.00062245 -0.00080386
0.0022828 0.0009747 0.26344 0.12281 -0.0020639 0.0017053 -0.00010792 0.0017185
0.00080249 0.0016055 0.00033517 0.00094724
-0.00036586 0.0018503 -0.0020607 0.0017169 0.10858 -0.25536 0.0020689 -0.001138
0.0015329 0.002022 -0.00091969 0.001443
-0.002827 -0.002392 -9.7834e-05 0.0017271 0.0020564 -0.0011271 0.16051 -0.13994
-0.0016418 0.0043785 -0.0022891 0.00079734
-0.00055477 0.0013398 0.00081729 0.0015955 0.0015273 0.0020202 -0.0016309 0.0043784
0.25592 0.010753 0.0039243 0.00093083
0.00059107 -0.00080366 0.00033794 0.00095846 -0.00092437 0.001434 -0.0022726 0.00081478
0.0039319 0.00092559 0.27702 0.061895
1940000000 0.17165 -0.17875 0.00038544 -0.00070271 0.001109 0.0017354 -0.0039916 0.00031926
0.00098182 0.0010546 -0.00076774 -0.00073878
0.00038219 -0.00070836 0.26327 0.090926 -0.0010223 0.0037581 0.0010041 0.001272
0.0023311 0.00051686 0.00090536 0.00020657
0.001119 0.0017193 -0.0010027 0.0037739 0.062533 -0.24926 0.00035168 -0.0025324
0.0025601 0.00052192 0.00051733 0.0015647
-0.003983 0.00032117 0.0010065 0.0012511 0.00036392 -0.0025445 0.10684 -0.16796
-0.0028146 0.0044296 -0.001054 0.002146
0.00098997 0.0010502 0.0023403 0.00049783 0.0025709 0.00051958 -0.0028041 0.0044508
0.25372 -0.030521 0.0026309 -0.0018653
-0.00077504 -0.00076136 0.0008878 0.00018231 0.00049532 0.0015546 -0.0010469 0.0021268
0.0026188 -0.0018693 0.26586 0.025763
2000000000 0.12474 -0.19006 -0.0032006 0.0011891 0.0023316 0.0017259 -0.0024859 0.0036586
0.0010214 0.00052617 -0.0010896 0.00042394
-0.0032005 0.0011853 0.24843 0.055665 -0.00086605 0.0055488 0.0016303 0.00014598
0.0017336 -0.0018786 0.00040694 1.9682e-05
0.0023453 0.001706 -0.00082045 0.005564 0.018835 -0.23481 -0.0016708 -0.0014817
0.0019862 -0.0014027 0.0016033 0.0012906
-0.0024693 0.0036684 0.0016419 0.00013694 -0.001663 -0.0014832 0.054103 -0.1754
-0.0037155 0.005611 0.00033145 0.0021331
0.0010426 0.00052357 0.0017129 -0.0018955 0.0019734 -0.001406 -0.0037023 0.0056124
