!Keysight Technologies,M9804A,MY58100912,A.14.10.03
!Date: Thursday, April 27, 2023 10:28:33
!Correction: S11(C  6-Port  ) 
!S12(C  6-Port  ) 
!S13(C  6-Port  ) 
!S14(C  6-Port  ) 
!S15(C  6-Port  ) 
!S16(C  6-Port  ) 
!S21(C  6-Port  ) 
!S22(C  6-Port  ) 
!S23(C  6-Port  ) 
!S24(C  6-Port  ) 
!S25(C  6-Port  ) 
!S26(C  6-Port  ) 
!S31(C  6-Port  ) 
!S32(C  6-Port  ) 
!S33(C  6-Port  ) 
!S34(C  6-Port  ) 
!S35(C  6-Port  ) 
!S36(C  6-Port  ) 
!S41(C  6-Port  ) 
!S42(C  6-Port  ) 
!S43(C  6-Port  ) 
!S44(C  6-Port  ) 
!S45(C  6-Port  ) 
!S46(C  6-Port  ) 
!S51(C  6-Port  ) 
!S52(C  6-Port  ) 
!S53(C  6-Port  ) 
!S54(C  6-Port  ) 
!S55(C  6-Port  ) 
!S56(C  6-Port  ) 
!S61(C  6-Port  ) 
!S62(C  6-Port  ) 
!S63(C  6-Port  ) 
!S64(C  6-Port  ) 
!S65(C  6-Port  ) 
!S66(C  6-Port  ) 
!S6P File: Measurement: :
# Hz S  RI   R 50
500000000 -0.33671 -0.032565 -0.0098775 -0.004278 -0.0082056 0.011679 -0.0038918 0.01158
0.011743 0.0047272 -0.0042405 0.0081696
-0.0098823 -0.0042712 -0.41953 -0.048665 0.0072925 -0.011525 0.0013486 0.010921
0.0076468 0.0029833 0.00092597 0.012013
-0.0081733 0.0117 0.0072751 -0.011542 -0.26521 0.21206 0.0067392 0.0029154
0.00037762 0.0085277 0.00041979 0.01158
-0.0038808 0.011585 0.0013717 0.010934 0.0067404 0.002929 -0.32763 0.048695
-0.020443 -0.004989 0.017374 0.024972
0.01177 0.0047064 0.0076463 0.0029731 0.00037136 0.008524 -0.020463 -0.0049659
-0.22735 -0.18156 -0.028364 0.0043579
-0.0042254 0.0081819 0.00093366 0.011998 0.00041055 0.011571 0.017364 0.024935
-0.028374 0.0043498 -0.27229 -0.12793
560000000 -0.31488 0.12604 -0.024783 -0.063165 0.00044857 0.012167 0.0063959 0.01028
0.011363 0.0041028 0.0093829 0.007854
-0.024763 -0.063107 -0.37731 0.1106 -0.041929 -0.036728 0.014556 0.0038407
-0.012985 -0.0049961 0.0051331 -0.00045771
0.00049009 0.01217 -0.042067 -0.036674 -0.18262 0.26032 -0.00099022 -0.0046907
0.019441 0.0042373 0.0068643 -0.0060841
0.0063968 0.010263 0.014601 0.0038295 -0.00098916 -0.0047044 -0.30202 0.13734
0.0033237 -0.024339 0.0051756 -0.01965
0.011398 0.004054 -0.013013 -0.0049701 0.019436 0.0042375 0.0033037 -0.024333
-0.28628 -0.0078088 0.0067547 -0.051045
0.0094084 0.0078319 0.0051198 -0.0004804 0.0068689 -0.0060789 0.0051922 -0.019674
0.0067807 -0.051047 -0.33271 0.020758
620000000 -0.27278 0.11093 -0.023475 0.0072529 0.0033622 0.0082151 0.0071433 -0.0056905
0.011017 -0.00032008 0.00083244 -0.0017579
-0.023458 0.0072515 -0.40275 0.064115 -0.018794 9.6656e-05 -0.0016146 -0.0020718
0.010647 -0.0069572 0.00074087 -0.0026603
0.0033866 0.0082213 -0.018819 0.00014152 -0.15202 0.26944 -0.0020249 -0.004966
-0.0028303 -0.0037583 0.0081074 -0.0036577
0.0071313 -0.0057357 -0.001616 -0.0020578 -0.0020349 -0.0049682 -0.26006 0.14682
-0.039302 -0.018188 0.014638 0.024713
0.01108 -0.00033182 0.010645 -0.006998 -0.0028487 -0.0037565 -0.039319 -0.018191
-0.20616 -0.046423 -0.040476 0.013921
0.00091167 -0.0017597 0.00072502 -0.0026779 0.0080876 -0.0036736 0.014656 0.02469
-0.040491 0.013923 -0.25143 -0.015948
680000000 -0.23193 0.19366 -0.027742 -0.013712 0.005102 0.0051222 0.00074236 -0.0077897
-0.0031623 -0.010903 0.0043424 -0.0075761
-0.027704 -0.013703 -0.38667 0.16101 -0.03281 -0.00094629 -0.001629 -0.00066985
-0.002778 -0.0087901 -0.00068202 -0.0025319
0.0051092 0.0051097 -0.032838 -0.00086377 -0.10139 0.28833 -0.00070691 -5.6937e-05
-0.0023657 0.00077707 -0.0027677 -0.009654
0.00073675 -0.0078086 -0.0016383 -0.00066676 -0.0007077 -5.9295e-05 -0.218 0.19617
-0.023581 -0.0078157 -0.01104 -0.010019
-0.0031939 -0.010891 -0.0028141 -0.0087983 -0.0023658 0.00077954 -0.023608 -0.0077818
-0.25164 0.052024 -0.0054575 -0.0088483
0.0043267 -0.007603 -0.00068631 -0.0025295 -0.0027703 -0.0096506 -0.011075 -0.010012
-0.0054507 -0.0088619 -0.26325 0.08898
740000000 -0.18876 0.18944 -0.037905 0.026701 0.012859 -0.0052739 -0.00078748 -0.0041245
-0.0043408 -0.0027013 -0.0063743 0.0031081
-0.037886 0.026666 -0.33451 0.17935 -0.034526 0.035307 -0.00079585 -0.0065796
-0.011629 0.008655 -0.0028535 -0.0061538
0.012844 -0.0052912 -0.034455 0.035437 -0.067853 0.28688 -0.0012704 0.0032663
-0.0030613 -0.0038901 -0.00085572 0.00042243
-0.00080303 -0.0041498 -0.00079599 -0.0065707 -0.00128 0.0032682 -0.20128 0.20379
-0.042507 -0.0071658 0.023265 0.012835
-0.0043174 -0.0027139 -0.011634 0.0086875 -0.0030664 -0.0038921 -0.04252 -0.0070774
-0.15644 0.073895 -0.042384 0.0021636
-0.00638 0.0031266 -0.0028961 -0.0061158 -0.00085241 0.00040979 0.023269 0.012819
-0.042372 0.0021332 -0.25119 0.095653
800000000 -0.15664 0.22914 -0.022045 0.017374 0.0053773 -0.010574 -0.0047733 -0.0019654
-0.0042262 0.0026116 0.0042681 0.00078581
-0.022052 0.017354 -0.33658 0.24943 -0.007466 0.034103 -0.0020457 0.0021241
-0.00045635 0.0034793 0.001267 0.0052612
0.0053487 -0.010598 -0.0073815 0.034144 -0.026609 0.30964 0.00114 0.00157
0.00068166 0.0035123 -0.0018004 0.0010196
-0.0047756 -0.0019701 -0.0020501 0.0021351 0.0011407 0.0015607 -0.17348 0.23139
-0.028245 0.013035 0.013389 -0.0098419
-0.0042237 0.0026498 -0.00043329 0.0034772 0.00068702 0.0035179 -0.028218 0.013121
-0.19867 0.099009 -0.01769 0.017745
0.0042762 0.00076684 0.0012864 0.0052697 -0.0017974 0.0010158 0.013397 -0.0098664
-0.0177 0.017723 -0.24486 0.14996
860000000 -0.12164 0.25027 -0.016629 0.031257 -0.0032757 -0.0099774 -0.0024783 0.0012028
0.0041716 0.0050296 -0.0027367 -0.002829
-0.016639 0.031233 -0.28863 0.29111 0.0085126 0.034099 0.00025935 0.002053
0.0043928 0.00022966 0.0033772 0.0002527
-0.0032953 -0.0099743 0.0086185 0.03411 0.021673 0.31743 -0.00031107 -0.00023825
0.0027269 -0.0016252 0.0016928 0.0043228
-0.0024743 0.0012119 0.00025998 0.0020605 -0.00031416 -0.00023757 -0.13801 0.24304
-0.017384 0.018523 -0.0059144 -0.0092454
0.0041982 0.0050154 0.0044089 0.00022114 0.0027259 -0.0016252 -0.017333 0.018564
-0.14959 0.14647 -0.023363 0.015731
-0.0027566 -0.00282 0.0033743 0.00023628 0.0016948 0.0043261 -0.0059193 -0.0092708
-0.023357 0.015715 -0.19418 0.193
920000000 -0.096555 0.2735 0.0055407 0.037736 -0.0095376 -0.0043441 -0.0017268 0.0023017
0.0012027 0.001685 0.0026729 -0.0012119
0.0055081 0.037714 -0.25992 0.31183 0.028242 0.021422 0.0017014 0.0011954
0.0068571 -0.00088965 0.0038018 -0.002761
-0.0095462 -0.0043255 0.028329 0.021361 0.06803 0.31783 0.001765 -0.00013714
0.0013243 -0.00057649 0.00073272 -0.0011119
-0.0017111 0.0023105 0.0016801 0.0011852 0.0017673 -0.00013765 -0.1133 0.25946
-0.0099224 0.029928 0.0028427 -0.0065179
0.0012022 0.0016842 0.0068688 -0.00092413 0.0013229 -0.00056464 -0.009863 0.029945
-0.13894 0.15274 -0.0015544 0.02741
0.0026943 -0.0012322 0.0038028 -0.0027575 0.0007342 -0.0011178 0.0028383 -0.0065284
-0.0015691 0.027397 -0.20107 0.20717
980000000 -0.048801 0.29255 0.01824 0.029659 -0.0089395 0.0047229 0.0024233 0.0036354
0.0040363 -0.0016632 -0.0028743 -0.0020853
0.018197 0.02966 -0.20709 0.3452 0.033024 0.0042874 0.0020457 5.0359e-09
0.0010769 -0.0062479 -0.00046949 -0.0023993
-0.0089226 0.004732 0.033054 0.004177 0.11445 0.31109 0.00035166 -0.001165
-6.2752e-05 -0.0021657 0.0014578 -0.00012584
0.0024358 0.0036468 0.0020402 -2.1869e-05 0.0003648 -0.0011603 -0.075099 0.27077
0.0080037 0.028185 -0.0094059 -0.0067048
0.0040444 -0.0016857 0.0010628 -0.0062461 -6.4517e-05 -0.0021795 0.0080721 0.028155
-0.1076 0.17934 0.0056516 0.01866
-0.0028729 -0.002088 -0.00048824 -0.0023726 0.0014611 -0.00013132 -0.0094142 -0.0066944
0.0056434 0.018644 -0.15804 0.25142
1040000000 -0.0059236 0.30071 0.033391 0.017294 -0.0012561 0.0068904 0.0028641 0.00072823
0.00016392 -0.0035965 -0.00060839 -0.0014055
0.033354 0.017312 -0.17141 0.3581 0.029 -0.015296 0.0015216 -0.0016643
-0.0027088 -0.0022932 -0.0015278 -0.0026609
-0.0012272 0.0068862 0.028966 -0.015402 0.16084 0.29705 -0.0005646 -0.0014198
-0.0016262 -0.00075173 -0.00048507 -0.00098489
0.002874 0.000729 0.001503 -0.0016801 -0.00056428 -0.0014225 -0.047552 0.2808
0.018717 0.016504 -0.0031939 0.0018217
0.00012811 -0.0036 -0.0026988 -0.0022864 -0.0016301 -0.00074172 0.018756 0.016461
-0.077053 0.18763 0.013901 0.017608
-0.00060611 -0.0014178 -0.0015448 -0.0026429 -0.00048788 -0.00098229 -0.0031949 0.0018332
0.013876 0.017599 -0.13637 0.27271
1100000000 0.039838 0.30769 0.035715 -0.0051039 0.0028667 0.0037558 0.0025767 -0.0014793
-0.0020081 -0.0030216 -0.0039087 -1.9483e-05
0.035687 -0.0050645 -0.12796 0.37506 0.014571 -0.027985 3.6153e-05 -0.001842
-0.0032874 -0.00031583 -0.0034933 -0.00045413
0.0028733 0.00374 0.01447 -0.028064 0.20741 0.27621 -0.0018049 0.00033566
-0.0016766 0.00073912 -0.00095085 -0.00031013
0.0025727 -0.0014764 2.4652e-05 -0.0018398 -0.0018115 0.00033561 -0.0068843 0.28549
0.022759 0.0041618 -0.0024663 0.00086647
-0.0020335 -0.0030124 -0.0032898 -0.00030411 -0.0016855 0.00075123 0.022763 0.004095
-0.058771 0.20028 0.018813 0.0080391
-0.0038984 -8.5219e-06 -0.0035035 -0.00043087 -0.00094184 -0.00031266 -0.0024706 0.00086893
0.018806 0.0080342 -0.089693 0.30213
1160000000 0.091434 0.30211 0.023419 -0.021376 0.0025583 -0.00050069 4.117e-06 -0.0025299
-0.0041545 -0.00040943 -0.0009383 0.0040579
0.023418 -0.021333 -0.083964 0.37929 -0.0043078 -0.028924 -0.0018215 -0.0016089
-0.0023606 0.0027989 -0.0012877 0.0016201
0.0025731 -0.00050628 -0.0044452 -0.028924 0.25048 0.24463 -0.00052704 0.0017419
-0.00019958 0.0018931 -0.0010251 0.00015049
-1.6768e-05 -0.0025145 -0.0018378 -0.0016087 -0.00051881 0.0017469 0.032495 0.28257
0.018823 -0.010666 -0.0029736 0.0056386
-0.004163 -0.00039803 -0.0023414 0.0028255 -0.00020238 0.0019032 0.018784 -0.010717
-0.026038 0.20966 0.017545 -6.6998e-05
-0.00090493 0.0040686 -0.0012953 0.0016405 -0.0010158 0.00015544 -0.0029699 0.005636
0.017542 -8.2696e-05 -0.042786 0.30526
1220000000 0.13601 0.29024 0.0095412 -0.030206 -0.0016286 -0.00068865 -8.5323e-05 -0.0011644
-0.0026053 0.002576 0.0013337 0.0019324
0.0095535 -0.030163 -0.039562 0.39076 -0.017171 -0.02069 -0.0025186 0.00050419
0.00041439 0.0029207 -0.00058477 0.0017791
-0.0016209 -0.00067398 -0.017283 -0.020639 0.28922 0.2049 0.0009913 0.00155
0.00070803 0.0010494 0.00032599 0.00064994
-9.4895e-05 -0.0011648 -0.0025286 0.00051578 0.00098323 0.0015432 0.072265 0.27375
0.0084204 -0.015981 0.0026219 0.0018316
-0.002597 0.0025771 0.00043408 0.0029302 0.00070469 0.0010498 0.0083844 -0.015996
-0.0027249 0.21958 0.013141 -0.01287
0.0013421 0.0019206 -0.00057764 0.0017869 0.00032959 0.00065122 0.0026185 0.0018275
0.013141 -0.012866 -0.010549 0.32157
1280000000 0.18555 0.26742 -0.0086909 -0.028185 -0.001798 0.0026108 -0.0011284 -0.0020957
-0.00056895 0.0032172 0.0025988 0.0010099
-0.0086609 -0.028164 0.0065364 0.38142 -0.023679 -0.0079986 -0.00092318 0.0015163
0.0018417 0.0015297 0.00057493 0.0019509
-0.0017901 0.0026179 -0.023746 -0.0078996 0.31914 0.16066 0.0014192 -0.0002563
0.00098256 -1.0881e-05 0.00029132 0.0003828
-0.0011402 -0.0020896 -0.00091527 0.0015172 0.0014245 -0.00025272 0.10867 0.25749
-0.00069391 -0.01707 0.00057418 0.00033798
-0.00054942 0.0032246 0.0018478 0.0015278 0.00098468 -1.4927e-05 -0.00074067 -0.01707
0.034134 0.22359 0.0023554 -0.01478
0.0026118 0.00099529 0.00059069 0.0019467 0.00029572 0.0003783 0.00057287 0.00034409
0.0023622 -0.014779 0.037131 0.32299
1340000000 0.2224 0.23282 -0.018229 -0.018301 0.0010034 0.0044337 -0.0020312 -0.00075436
0.0014998 0.0025829 0.0016528 -0.0015502
-0.018192 -0.018297 0.046143 0.37238 -0.021363 0.0046166 1.9521e-05 0.0019132
0.0018127 0.00045951 0.0013569 0.00079007
0.0010299 0.0044259 -0.021368 0.0047286 0.34066 0.11264 0.00089678 -0.00097604
0.00054726 -0.00044234 0.00021822 0.00018936
-0.0020388 -0.00073622 2.7349e-05 0.0019081 0.00090179 -0.00098013 0.14146 0.23721
-0.0086352 -0.013574 0.0014085 0.00017492
0.0015158 0.0025765 0.001817 0.00044853 0.00054321 -0.00044766 -0.0086735 -0.013544
0.065104 0.21937 -0.0041739 -0.012979
0.0016385 -0.0015601 0.0013703 0.00078965 0.00022074 0.00018929 0.001413 0.00018583
-0.0041686 -0.01298 0.076336 0.31817
1400000000 0.25496 0.19394 -0.023483 -0.0066475 0.0052293 0.0030971 -0.0021358 0.00080734
0.0025461 0.00066136 0.00013792 -0.0014036
-0.023451 -0.0066589 0.083002 0.35879 -0.014471 0.012565 0.0013619 0.0011484
0.00083206 -0.00095738 0.0011455 0.00022565
0.0052437 0.0030676 -0.014425 0.012653 0.35321 0.059234 -6.2874e-05 -0.0015066
-7.2765e-05 -0.00031064 0.00030707 0.00029021
-0.0021414 0.00082084 0.0013755 0.0011352 -5.9274e-05 -0.0015019 0.17127 0.20881
-0.013237 -0.0070082 -0.00035163 -0.00059759
0.0025522 0.00064705 0.00082755 -0.00097781 -7.9354e-05 -0.00030782 -0.013256 -0.0069616
0.098739 0.21452 -0.010367 -0.0079386
0.00013504 -0.0014027 0.0011493 0.00021888 0.00031285 0.00029045 -0.00034669 -0.00059727
-0.01036 -0.0079491 0.12115 0.30685
1460000000 0.27722 0.14918 -0.020127 0.0053712 0.0055828 -0.001828 -0.0014983 0.0018761
0.0020412 -0.0008354 -0.00039079 -0.00091607
-0.02011 0.0053621 0.11687 0.33646 -0.0057813 0.015174 0.0016201 8.6611e-05
0.00059576 -0.0010966 0.0011311 -0.0006325
0.005587 -0.0018421 -0.005708 0.015223 0.35896 0.0051205 -0.001231 -0.0011066
0.00024724 -0.00012359 0.00063158 -0.00036233
-0.0015078 0.0018858 0.0016198 8.1528e-05 -0.0012333 -0.0011171 0.19817 0.17967
-0.013134 -0.0012299 -0.0008281 0.0015009
0.0020413 -0.00083805 0.00059609 -0.0011062 0.00024698 -0.00012377 -0.013129 -0.0011951
0.1292 0.19966 -0.011517 -0.0023115
-0.0003889 -0.00091842 0.0011259 -0.00064229 0.00063561 -0.00036661 -0.00082418 0.0014972
-0.011524 -0.0023106 0.15423 0.28562
1520000000 0.28864 0.10699 -0.014188 0.010741 0.0031984 -0.0042107 0.00025768 0.0026333
0.0016237 -0.0018253 -0.0011694 -7.6972e-05
-0.01418 0.010723 0.14987 0.32137 0.0017063 0.012914 0.0015207 -0.0008026
-1.9887e-05 -0.00076552 0.00027787 -0.00098558
0.0031771 -0.0042236 0.001773 0.012915 0.35219 -0.05101 -0.00091823 -0.00025131
0.00060024 -0.00082212 1.677e-05 -0.00010324
0.00026858 0.0026301 0.001518 -0.0008112 -0.00091244 -0.00023939 0.22205 0.14142
-0.011655 0.0032123 0.0012404 0.0016246
0.0016097 -0.0018334 -2.4866e-05 -0.00076935 0.00059867 -0.00082632 -0.011648 0.0032523
0.15789 0.18443 -0.011298 0.0021434
-0.0011748 -7.2852e-05 0.00027036 -0.00098691 1.4971e-05 -0.00010566 0.0012499 0.0016206
-0.011292 0.0021273 0.18755 0.26509
1580000000 0.29719 0.060323 -0.0074653 0.013494 -0.00098503 -0.0048956 0.0015349 0.001776
-0.00058929 -0.0020407 -0.00025952 0.00039167
-0.0074676 0.013473 0.17663 0.29648 0.0052424 0.0080762 0.00040892 -0.0014934
-0.0003323 -0.00080009 -0.00026884 -0.00084601
-0.0010122 -0.0048924 0.0052941 0.0080539 0.33188 -0.10845 -0.0013348 0.0005679
-0.00031029 -0.0010264 0.00013423 -0.00053872
0.0015357 0.0017716 0.00040044 -0.0015005 -0.0013306 0.00056239 0.23663 0.10132
-0.0083945 0.0065222 0.0019545 0.00047781
-0.00060937 -0.0020367 -0.00033809 -0.00080047 -0.00030257 -0.0010303 -0.0083678 0.0065553
0.18266 0.16534 -0.0087351 0.0074858
-0.00025665 0.00039565 -0.00027619 -0.00084995 0.00013232 -0.00054615 0.0019605 0.00046314
-0.0087382 0.0074835 0.21968 0.23837
1640000000 0.29823 0.018634 -0.00086582 0.01211 -0.0028046 -0.0025472 0.0026131 0.00087372
-0.00094812 -0.0010129 -0.00027186 0.00066421
-0.00088062 0.012095 0.20564 0.27136 0.005849 0.0033651 -0.00070189 -0.0015686
-0.00077787 -0.00042588 -0.00053219 -0.00066208
-0.0028242 -0.0025349 0.0058749 0.0033324 0.30367 -0.15743 -0.00071552 0.001243
-0.001062 -0.00080268 -9.4798e-05 -0.00037678
0.0026225 0.00086074 -0.00070886 -0.0015695 -0.00072442 0.00124 0.2491 0.051445
-0.0049711 0.0065683 0.0021531 -0.00086349
-0.00096128 -0.0010154 -0.00078317 -0.00041845 -0.0010589 -0.00080354 -0.0049464 0.0065765
0.20581 0.13922 -0.0039981 0.0093549
-0.00026743 0.00066725 -0.00054545 -0.00066359 -9.6846e-05 -0.00038061 0.0021533 -0.00088329
-0.0040003 0.0093428 0.2456 0.20714
1700000000 0.28977 -0.026609 0.0024038 0.0090807 -0.0034779 8.3029e-05 0.0028728 -0.001201
-0.0017621 -0.00027915 0.00062951 0.00035751
0.0023991 0.0090705 0.22336 0.23999 0.003849 0.00054124 -0.0013459 -0.0005392
-0.00067609 -0.00014414 -0.00093066 -0.0004247
-0.0034812 0.00010787 0.0038574 0.00051301 0.26023 -0.19747 0.00031223 0.0013855
-0.0017502 -0.000256 -0.00064676 -0.00096637
0.0028668 -0.0012181 -0.0013566 -0.00053089 0.0003074 0.0013898 0.24556 0.00043548
-0.0034689 0.0063499 0.0012788 -0.0021145
-0.0017602 -0.00027189 -0.00068 -0.00014199 -0.0017571 -0.00024325 -0.003451 0.0063525
0.22295 0.11703 0.00069823 0.0094683
0.00063423 0.00035407 -0.00093049 -0.00041334 -0.00064654 -0.00096788 0.0012735 -0.0021141
0.00069817 0.0094691 0.26203 0.17243
1760000000 0.27652 -0.074721 0.0044136 0.0057781 -0.0022483 0.00086797 0.0012152 -0.0033366
-0.00091431 0.00069614 0.00035705 -0.00045055
0.0044044 0.0057703 0.24905 0.20024 0.0015362 -0.0011648 -0.0010679 0.00016928
-0.0011593 0.00067031 -0.00065643 0.00052692
-0.0022381 0.00088429 0.0015339 -0.0011746 0.21111 -0.23079 0.0010009 0.0012476
-0.0011055 0.0012335 -0.0014761 -0.00040998
0.0011994 -0.0033454 -0.0010724 0.0001765 0.0010014 0.0012528 0.23523 -0.051755
-0.0016591 0.0056264 -0.00065389 -0.0022275
-0.00090635 0.0007013 -0.0011588 0.00068107 -0.0010982 0.0012443 -0.001643 0.0056266
0.23766 0.079789 0.004313 0.0064608
0.00035461 -0.00045597 -0.00065452 0.00053251 -0.0014791 -0.00041062 -0.00065831 -0.0022228
0.0043177 0.0064634 0.27483 0.13456
1820000000 0.25093 -0.11143 0.0044381 0.0022529 -0.00012118 0.0024312 -0.0010342 -0.0029755
-0.00070017 0.00050072 -2.2552e-05 -0.00010936
0.0044246 0.0022542 0.25878 0.17022 -0.00036291 1.0324e-05 -0.0013652 0.00076187
-0.00028489 0.0012407 -0.00053082 0.00054211
-0.00010445 0.0024326 -0.00035854 7.8783e-06 0.16072 -0.24645 0.0014313 0.00048787
-0.00041661 0.002036 -0.0013383 0.00066614
-0.0010429 -0.0029739 -0.0013558 0.00077672 0.0014181 0.00048379 0.20385 -0.099322
-0.00119 0.00442 -0.0017672 -0.001357
-0.00069646 0.000509 -0.00027998 0.0012453 -0.00042032 0.0020374 -0.0011782 0.0044267
0.25332 0.048284 0.0051323 0.0028631
-2.533e-05 -0.00010896 -0.00052453 0.00055004 -0.0013403 0.00066248 -0.0017786 -0.0013463
0.0051357 0.002853 0.2771 0.098052
1880000000 0.21514 -0.15048 0.0020873 0.00018094 -0.00031838 0.0021838 -0.0028907 -0.0021317
-0.00033072 0.0012504 0.00028329 -0.00056165
0.0020779 0.000186 0.26308 0.12378 -0.0022038 0.001686 -0.00026806 0.0016629
0.00046416 0.0014111 0.00021321 0.0009623
-0.00030145 0.0021917 -0.0021941 0.0017017 0.10882 -0.25575 0.0018743 -0.00092484
0.0013722 0.0019927 -0.00088817 0.0015625
-0.0029008 -0.002117 -0.00025826 0.0016707 0.0018772 -0.00092151 0.16204 -0.1386
-0.0014592 0.003572 -0.0024244 0.0007343
-0.00031154 0.001259 0.00047848 0.0014047 0.0013755 0.0019976 -0.0014516 0.0035695
0.25408 0.013446 0.0046129 0.00073258
0.00026963 -0.00056261 0.00022669 0.0009628 -0.00089106 0.0015594 -0.0024205 0.00074323
0.004609 0.00072078 0.27687 0.063739
1940000000 0.17571 -0.17541 -0.00011579 -0.0014232 0.0013374 0.0020233 -0.0036962 0.00058339
0.0010067 0.00098473 -0.00064967 -0.00054946
-0.00010545 -0.0014205 0.26343 0.091963 -0.0010959 0.0038089 0.00091457 0.0013668
0.001928 0.00076905 0.00088134 0.00029452
0.0013567 0.0020169 -0.0010697 0.0038237 0.062664 -0.24953 0.00041667 -0.0023358
0.0023978 0.00060781 0.00045755 0.0016166
-0.0036952 0.00060543 0.00092824 0.0013611 0.00041064 -0.0023424 0.10886 -0.16769
-0.0027105 0.0036169 -0.0012427 0.0019071
0.0010137 0.00097953 0.0019303 0.00074709 0.0024085 0.00060214 -0.0027054 0.0036061
0.25297 -0.027206 0.0031435 -0.0024001
-0.00066013 -0.00054689 0.00088352 0.00028771 0.00046811 0.0016154 -0.0012371 0.0019171
0.0031469 -0.0023909 0.26558 0.027502
2000000000 0.12968 -0.18888 -0.003881 0.00068808 0.0024504 0.001566 -0.0022274 0.0035582
0.00097735 0.00040557 -0.00058957 0.00041288
-0.0038761 0.00068124 0.249 0.056464 -0.00092167 0.0055506 0.001705 0.00033465
0.0017451 -0.0013704 0.00053995 0.00011878
0.0024633 0.0015509 -0.00088183 0.0055546 0.018766 -0.23521 -0.0013328 -0.0014808
0.0021363 -0.0011903 0.0017443 0.0012018
-0.0022083 0.0035742 0.0017026 0.00032494 -0.0013319 -0.0014874 0.055417 -0.17613
-0.0041664 0.0048254 0.00014173 0.0023386
