!Keysight Technologies,M9804A,MY58100912,A.14.10.03
!Date: Thursday, April 27, 2023 10:28:33
!Correction: S11(C  6-Port  ) 
!S12(C  6-Port  ) 
!S13(C  6-Port  ) 
!S14(C  6-Port  ) 
!S15(C  6-Port  ) 
!S16(C  6-Port  ) 
!S21(C  6-Port  ) 
!S22(C  6-Port  ) 
!S23(C  6-Port  ) 
!S24(C  6-Port  ) 
!S25(C  6-Port  ) 
!S26(C  6-Port  ) 
!S31(C  6-Port  ) 
!S32(C  6-Port  ) 
!S33(C  6-Port  ) 
!S34(C  6-Port  ) 
!S35(C  6-Port  ) 
!S36(C  6-Port  ) 
!S41(C  6-Port  ) 
!S42(C  6-Port  ) 
!S43(C  6-Port  ) 
!S44(C  6-Port  ) 
!S45(C  6-Port  ) 
!S46(C  6-Port  ) 
!S51(C  6-Port  ) 
!S52(C  6-Port  ) 
!S53(C  6-Port  ) 
!S54(C  6-Port  ) 
!S55(C  6-Port  ) 
!S56(C  6-Port  ) 
!S61(C  6-Port  ) 
!S62(C  6-Port  ) 
!S63(C  6-Port  ) 
!S64(C  6-Port  ) 
!S65(C  6-Port  ) 
!S66(C  6-Port  ) 
!S6P File: Measurement: :
# Hz S  RI   R 50
500000000 -0.33335 -0.029536 -0.0090522 -0.0042786 -0.0081447 0.011179 -0.0042114 0.011853
0.012334 0.0040621 -0.0046296 0.0074402
-0.0089831 -0.0042598 -0.41891 -0.047901 0.0072739 -0.011571 0.0014502 0.011092
0.0078229 0.0025921 0.0012698 0.012529
-0.0079775 0.011293 0.0072348 -0.011584 -0.26462 0.21254 0.0069093 0.0030942
-5.9294e-05 0.0088226 0.00083736 0.012042
-0.004216 0.011623 0.001469 0.011163 0.0069681 0.0030867 -0.32589 0.050628
-0.018389 -0.0058638 0.018097 0.025214
0.012483 0.0040039 0.0078448 0.0025686 -0.0001007 0.0088024 -0.018301 -0.0059222
-0.22867 -0.17551 -0.025824 0.0037768
-0.0045651 0.0071691 0.0012475 0.01256 0.00082468 0.012064 0.018 0.025265
-0.025812 0.0037559 -0.27342 -0.12262
560000000 -0.30949 0.12766 -0.023229 -0.063308 0.00014218 0.012168 0.0070132 0.0091292
0.012089 0.003005 0.009421 0.0075423
-0.023118 -0.063111 -0.37585 0.11006 -0.041839 -0.036338 0.013372 0.0030455
-0.013267 -0.0037899 0.0042008 -0.0010407
0.0001004 0.012194 -0.042004 -0.036293 -0.18243 0.25969 -0.00032387 -0.0048679
0.018189 0.0035503 0.0074017 -0.0066502
0.0068766 0.0091048 0.013332 0.0030912 -0.00040003 -0.0049001 -0.30117 0.13745
0.0049244 -0.025511 0.0055908 -0.019309
0.012251 0.0031289 -0.013238 -0.003713 0.01822 0.0035217 0.0050385 -0.025676
-0.28479 -0.0041801 0.0075379 -0.050899
0.0090527 0.0076116 0.0041829 -0.0010662 0.0074451 -0.0066381 0.0056043 -0.019305
0.0075188 -0.050914 -0.33127 0.025199
620000000 -0.26858 0.11102 -0.022589 0.0060649 0.003682 0.0082966 0.0073744 -0.0058483
0.010566 -0.0011677 0.0013719 -0.0021326
-0.022562 0.0061103 -0.40235 0.064279 -0.018605 -0.00020849 -0.0016157 -0.0019017
0.010564 -0.0075032 0.0010034 -0.00272
0.0034818 0.0084816 -0.018632 -0.00014929 -0.15211 0.26858 -0.0015468 -0.0050766
-0.0039514 -0.0035031 0.0084393 -0.0035849
0.0073144 -0.0060611 -0.0015434 -0.0019412 -0.0015046 -0.0050726 -0.25998 0.14722
-0.038041 -0.019409 0.014465 0.02418
0.010497 -0.00083205 0.010487 -0.0075207 -0.0039127 -0.0034948 -0.037985 -0.019201
-0.20453 -0.041799 -0.039269 0.013666
0.0011415 -0.001982 0.0010304 -0.0027596 0.0084757 -0.0035665 0.014345 0.024247
-0.039277 0.013673 -0.25185 -0.011084
680000000 -0.22793 0.19091 -0.028347 -0.014908 0.0046974 0.0051608 0.00015268 -0.0073777
-0.0032011 -0.011142 0.0040781 -0.0068381
-0.028462 -0.014996 -0.38649 0.16112 -0.032609 -0.0010333 -0.0019655 -0.00050944
-0.0028547 -0.0086416 -0.0010233 -0.002569
0.0046863 0.0050477 -0.032621 -0.00095818 -0.10148 0.28805 -0.00092747 -4.0948e-05
-0.0023645 0.00087663 -0.0030557 -0.0096678
0.00030752 -0.0074768 -0.0020032 -0.00043214 -0.000947 -2.7908e-05 -0.21843 0.1955
-0.023023 -0.0086849 -0.01083 -0.0096618
-0.0033381 -0.011227 -0.0029138 -0.0086589 -0.002385 0.00090011 -0.023045 -0.008738
-0.2486 0.053635 -0.0044294 -0.010784
0.0042247 -0.0070052 -0.00098098 -0.0025851 -0.0030442 -0.0097027 -0.010812 -0.0096728
-0.0044074 -0.010792 -0.26239 0.091718
740000000 -0.18703 0.18534 -0.039382 0.025496 0.012575 -0.0053028 -0.001242 -0.0042508
-0.0041352 -0.0016939 -0.0063509 0.0026364
-0.039444 0.025461 -0.33475 0.17996 -0.034756 0.034599 -0.0009452 -0.006082
-0.011674 0.0078145 -0.0027849 -0.0059308
0.012595 -0.0053359 -0.034725 0.034719 -0.067745 0.28709 -0.0012837 0.0035141
-0.0033956 -0.003597 -0.00076757 0.00072273
-0.0012445 -0.0042087 -0.00098505 -0.0060271 -0.001312 0.0034706 -0.20114 0.20341
-0.041745 -0.0078544 0.022326 0.012387
-0.004164 -0.0017764 -0.011612 0.0079009 -0.0034007 -0.0036213 -0.041657 -0.0078755
-0.1574 0.075388 -0.041178 0.0010129
-0.0063518 0.002824 -0.0028486 -0.0058948 -0.00078378 0.00074146 0.022229 0.012431
-0.041115 0.0010377 -0.25024 0.099487
800000000 -0.15732 0.22554 -0.023561 0.017255 0.0050314 -0.01031 -0.0050769 -0.0018959
-0.0038877 0.0033132 0.0040154 0.0011967
-0.023567 0.017202 -0.33674 0.25005 -0.0078153 0.034049 -0.002074 0.0024879
-0.00041538 0.0033862 0.00088751 0.0057208
0.0050362 -0.010288 -0.007723 0.034096 -0.026556 0.31006 0.0013269 0.0016277
0.00068321 0.0037865 -0.0018519 0.0012733
-0.0050723 -0.0018218 -0.0020731 0.0025237 0.0013388 0.0016196 -0.1735 0.2309
-0.028493 0.012607 0.01277 -0.009707
-0.0038875 0.0033183 -0.00044054 0.0034109 0.00067995 0.0037775 -0.028466 0.012663
-0.19769 0.098563 -0.017815 0.017328
0.0039571 0.0011968 0.00095621 0.0057584 -0.001856 0.0012841 0.012742 -0.0097663
-0.01781 0.017296 -0.24364 0.15297
860000000 -0.12348 0.2476 -0.017688 0.031832 -0.0034735 -0.0095808 -0.0026839 0.0014961
0.0048481 0.0050864 -0.0027846 -0.0030361
-0.017645 0.031809 -0.28847 0.29181 0.0083174 0.034024 0.00042805 0.0020662
0.004792 0.00041243 0.0034359 0.00021197
-0.0035005 -0.0095942 0.0084383 0.034035 0.021985 0.31766 -0.00021547 -0.00034313
0.0030264 -0.0014362 0.001543 0.0044395
-0.0026881 0.0015367 0.00040931 0.0020675 -0.00022571 -0.00032485 -0.13787 0.24299
-0.017815 0.018573 -0.0064924 -0.0094387
0.0049335 0.0050582 0.0047768 0.00036001 0.003006 -0.0014355 -0.017859 0.018538
-0.1484 0.14675 -0.023855 0.015258
-0.0027752 -0.0030526 0.0034483 0.00025585 0.0015458 0.0044565 -0.0064532 -0.0094296
-0.02387 0.015243 -0.19292 0.19453
920000000 -0.098366 0.27217 0.0049356 0.03846 -0.0091963 -0.0038993 -0.0015313 0.0026715
0.0016897 0.0012745 0.0022733 -0.0012122
0.0049446 0.038507 -0.2593 0.31214 0.028155 0.021407 0.0018312 0.00095869
0.0066754 -0.00085412 0.0038701 -0.0030207
-0.0092439 -0.0038671 0.028259 0.021356 0.068399 0.31773 0.0017801 -0.00021919
0.0012709 -0.00042614 0.00088314 -0.0012028
-0.0015207 0.0026502 0.0018046 0.00092272 0.0017909 -0.00021932 -0.11348 0.25927
-0.010664 0.029532 0.0024273 -0.006228
0.0017311 0.0012979 0.0067335 -0.00087779 0.0012773 -0.00043931 -0.010587 0.029602
-0.13801 0.1534 -0.0028299 0.026519
0.0022668 -0.0012336 0.0038324 -0.0030643 0.00090534 -0.0011912 0.0023982 -0.0062334
-0.002853 0.026503 -0.19867 0.20995
980000000 -0.050924 0.29186 0.018169 0.030527 -0.0085005 0.0048371 0.00276 0.0037811
0.0041688 -0.0018856 -0.003062 -0.0022741
0.018122 0.030501 -0.20633 0.34532 0.032818 0.0042702 0.0019569 -0.00012308
0.0011973 -0.0062291 -0.00057232 -0.0022842
-0.0084943 0.0048423 0.032864 0.0041781 0.11469 0.31072 0.00036645 -0.0012743
1.9532e-05 -0.0021694 0.0016287 -0.00020119
0.0027934 0.0037768 0.0019349 -0.00013887 0.00036508 -0.001283 -0.075435 0.27073
0.0071478 0.028054 -0.0096162 -0.0064573
0.0041105 -0.0019181 0.0011436 -0.0062226 3.1118e-05 -0.0021637 0.0071916 0.02807
-0.10715 0.17921 0.0051618 0.018062
-0.0030539 -0.0022217 -0.00058251 -0.0023051 0.0016066 -0.00021395 -0.009602 -0.0065042
0.0051438 0.018069 -0.15585 0.25335
1040000000 -0.0078254 0.30071 0.03363 0.018011 -0.00079807 0.0068455 0.0030655 0.00069284
-8.0241e-05 -0.0040053 -0.00055067 -0.0012859
0.03357 0.018002 -0.17076 0.35829 0.028732 -0.014982 0.0014088 -0.001702
-0.002536 -0.0022343 -0.0014995 -0.0026424
-0.00077848 0.0068561 0.028738 -0.015098 0.16076 0.29657 -0.0005471 -0.0013486
-0.0016231 -0.00075596 -0.0005474 -0.0012369
0.0030451 0.00066042 0.0014038 -0.0016921 -0.000546 -0.0013483 -0.047589 0.28097
0.017654 0.016664 -0.0029955 0.0024724
-0.00011764 -0.0040234 -0.0025576 -0.0021945 -0.0016167 -0.00074191 0.017677 0.016671
-0.077218 0.18866 0.013117 0.017417
-0.00061829 -0.0012694 -0.0015241 -0.0026335 -0.00055415 -0.0012343 -0.0029982 0.0025012
0.013111 0.017422 -0.1337 0.27462
1100000000 0.038043 0.30827 0.035867 -0.0044209 0.0031514 0.003569 0.0026479 -0.0017082
-0.0022989 -0.0030684 -0.0038297 0.00023466
0.03585 -0.0044129 -0.12741 0.37488 0.014556 -0.027584 -2.9597e-05 -0.001835
-0.0030563 -0.00031559 -0.0035517 -0.0004579
0.0031708 0.0035544 0.014472 -0.027664 0.20689 0.27586 -0.0018196 0.00031842
-0.0016094 0.00063224 -0.0010169 -0.00028899
0.0026472 -0.0016963 -3.5697e-05 -0.0018242 -0.00182 0.00031509 -0.0070409 0.28566
0.02184 0.0048471 -0.0021892 0.0012744
-0.0023134 -0.0030658 -0.0030641 -0.00028214 -0.0016158 0.00062989 0.021848 0.0048173
-0.05907 0.20195 0.018212 0.0082972
-0.00383 0.00024083 -0.0035743 -0.00044313 -0.0010239 -0.00029504 -0.0021701 0.0012811
0.018205 0.008307 -0.086955 0.30318
1160000000 0.089727 0.30309 0.023962 -0.020827 0.0026927 -0.00078753 -0.00013529 -0.0028095
-0.0041784 -8.7125e-05 -0.00079155 0.0039898
0.023985 -0.020782 -0.083456 0.37872 -0.0040421 -0.028611 -0.001813 -0.00154
-0.0022386 0.0026555 -0.0012858 0.0016664
0.0027026 -0.0008042 -0.0041582 -0.028611 0.24969 0.24476 -0.00053177 0.0017067
-0.00034496 0.001793 -0.00096384 0.00015942
-0.00015792 -0.0028046 -0.0018247 -0.00151 -0.00053138 0.0017142 0.032441 0.28277
0.018294 -0.0093283 -0.0026457 0.0058755
-0.0041626 -7.5769e-05 -0.002218 0.0027062 -0.00031462 0.0017959 0.018263 -0.0093303
-0.025801 0.21171 0.016934 0.00018714
-0.00078704 0.0039874 -0.0012958 0.0016473 -0.00098333 0.00016857 -0.0025914 0.0058384
0.01694 0.00020165 -0.0402 0.30602
1220000000 0.1346 0.29161 0.010261 -0.0298 -0.0016264 -0.0010345 -0.00043967 -0.001268
-0.0023919 0.0027421 0.0014196 0.0017858
0.010262 -0.029766 -0.039429 0.39007 -0.016785 -0.020544 -0.0025083 0.00049353
0.00035407 0.0027606 -0.00062947 0.0017154
-0.0016368 -0.001039 -0.016889 -0.020483 0.28864 0.20557 0.00091727 0.0015008
0.00058689 0.0010925 0.00030528 0.00074683
-0.00044411 -0.0012721 -0.0025105 0.00049896 0.00090897 0.0015 0.072154 0.27397
0.0086557 -0.014536 0.0031118 0.0018256
-0.002357 0.0027562 0.0003608 0.0027601 0.00058626 0.0010936 0.0086448 -0.014565
-0.0018413 0.22148 0.012891 -0.011976
0.0014209 0.0018055 -0.00063341 0.0017169 0.00030507 0.0007481 0.0031046 0.0018504
0.012899 -0.011965 -0.007794 0.32221
1280000000 0.18417 0.26921 -0.007694 -0.028108 -0.0019311 0.0023587 -0.0013479 -0.0018572
-0.00025878 0.003093 0.0024118 0.00092934
-0.0076764 -0.028086 0.0062014 0.38085 -0.023255 -0.0081461 -0.00097368 0.001505
0.0015886 0.0014418 0.00045362 0.0019775
-0.0019209 0.0023662 -0.023328 -0.0080547 0.31916 0.16153 0.0013195 -0.00018034
0.00091687 0.00011057 0.00032636 0.00044716
-0.0013693 -0.0018396 -0.0009586 0.0015129 0.0013114 -0.00017458 0.10851 0.25792
0.00041859 -0.015851 0.000806 -3.733e-05
-0.00024399 0.0031232 0.0016027 0.0014282 0.00092854 0.00011169 0.00037769 -0.015846
0.035749 0.2255 0.0026593 -0.014025
0.0024221 0.00092099 0.00047188 0.00199 0.00032146 0.00045474 0.00082021 -6.4341e-05
0.0026509 -0.014019 0.039656 0.32321
1340000000 0.22165 0.23547 -0.017318 -0.018839 0.00066378 0.0042253 -0.0019672 -0.00042104
0.0016364 0.0022985 0.0015461 -0.0015018
-0.017293 -0.018834 0.045575 0.37219 -0.021107 0.0042387 -1.3402e-05 0.00191
0.001593 0.0005895 0.001328 0.00083091
0.00068599 0.0042323 -0.02111 0.0043452 0.34118 0.11354 0.00088276 -0.00084987
0.00054178 -0.00029974 0.00032396 0.00017027
-0.0019856 -0.00043887 -1.5155e-05 0.0019251 0.00088783 -0.00084034 0.14152 0.23798
-0.0070394 -0.013089 0.0016109 -0.00018995
0.0016561 0.0022967 0.0016015 0.00057563 0.00054906 -0.00030584 -0.0070681 -0.013081
0.066838 0.22088 -0.0033596 -0.012186
0.0015238 -0.001503 0.0013303 0.00082414 0.00031623 0.00016549 0.0015879 -0.0002
-0.0033502 -0.012179 0.078854 0.31809
1400000000 0.25504 0.19716 -0.022853 -0.007559 0.0048828 0.0030712 -0.0018426 0.0009148
0.0024542 0.00040188 8.3955e-05 -0.0013038
-0.022824 -0.0075719 0.082373 0.35895 -0.014478 0.012119 0.0013645 0.0012532
0.0008405 -0.00075512 0.0012212 0.00030468
0.0048956 0.003041 -0.014436 0.01221 0.35419 0.059694 4.5397e-05 -0.0013288
3.9682e-05 -0.00030244 0.00039684 0.00021128
-0.0018168 0.00090758 0.0013581 0.0012383 5.3481e-05 -0.0013292 0.17165 0.20956
-0.011475 -0.0075411 -0.0005182 -0.0010617
0.0024636 0.000398 0.00083116 -0.00075683 5.2431e-05 -0.00029066 -0.011519 -0.0075
0.1009 0.21566 -0.0092362 -0.0077975
8.4559e-05 -0.0013317 0.0012242 0.00029856 0.00038831 0.00019689 -0.00049683 -0.0010695
-0.0092348 -0.0077885 0.12335 0.30672
1460000000 0.27891 0.15291 -0.020132 0.0042548 0.005318 -0.0016726 -0.0012216 0.0016993
0.0016771 -0.00087926 -0.00035835 -0.00082059
-0.020105 0.0042341 0.11649 0.33708 -0.0061116 0.014858 0.0016906 0.00010706
0.00079444 -0.00092211 0.0012237 -0.00067161
0.0053099 -0.0016777 -0.0060371 0.014911 0.35997 0.0049058 -0.00097276 -0.001152
0.00030126 -0.00011887 0.00062099 -0.00039973
-0.0012279 0.0017189 0.0016784 7.5677e-05 -0.00098552 -0.0011463 0.19894 0.18041
-0.011892 -0.0024848 -0.0012208 0.0011018
0.0016679 -0.00088381 0.00079264 -0.00091798 0.00031287 -0.00011737 -0.011915 -0.0024746
0.13141 0.20019 -0.010568 -0.0024963
-0.00036449 -0.00082509 0.0012024 -0.00067168 0.00062703 -0.00040362 -0.00122 0.0010858
-0.010552 -0.002493 0.15691 0.28485
1520000000 0.29207 0.10982 -0.014676 0.0097857 0.0029889 -0.003869 0.00020467 0.0022709
0.0013754 -0.0016192 -0.0011424 -0.00015493
-0.014656 0.0097673 0.14985 0.32207 0.0013263 0.012862 0.001571 -0.00083846
0.00020758 -0.00082854 0.00027962 -0.0010735
0.0029755 -0.0038898 0.0014007 0.012862 0.35274 -0.05144 -0.00083199 -0.00041521
0.00056891 -0.00075904 -3.0974e-05 -2.5599e-05
0.00022427 0.0022532 0.0015596 -0.00083855 -0.00083591 -0.00040977 0.22312 0.14177
-0.011366 0.0013853 0.00074798 0.0014848
0.0013513 -0.001625 0.00019705 -0.00082199 0.0005635 -0.00076252 -0.011364 0.0014052
0.16022 0.18448 -0.010573 0.0014252
-0.0011577 -0.00015799 0.0002719 -0.0010822 -4.3567e-05 -3.8801e-05 0.00072919 0.0015019
-0.01058 0.0014156 0.18997 0.26408
1580000000 0.30188 0.061636 -0.0083332 0.012798 -0.00091001 -0.0045472 0.0012322 0.00155
-0.00055617 -0.0017739 -0.00037918 0.00032646
-0.0083322 0.012798 0.17699 0.29723 0.0049251 0.008166 0.00039492 -0.0015958
-0.00019776 -0.0011039 -0.00032763 -0.0009199
-0.00093738 -0.0045202 0.0049796 0.0081439 0.33222 -0.10917 -0.0014645 0.0003452
-0.00030651 -0.0011621 0.00016861 -0.00054696
0.0012522 0.0015737 0.0003717 -0.001594 -0.0014608 0.00034047 0.23804 0.10129
-0.009143 0.0049435 0.0015016 0.00057817
-0.00056 -0.0017705 -0.0002135 -0.0011038 -0.00030263 -0.0011689 -0.0091171 0.0049783
0.18491 0.16512 -0.0085451 0.0065676
-0.00036701 0.00030704 -0.00032291 -0.00091253 0.00017257 -0.00054414 0.0015431 0.0005806
-0.0085425 0.0065594 0.22169 0.23707
1640000000 0.30348 0.01763 -0.0019399 0.012046 -0.0026129 -0.0022284 0.0023077 0.0010336
-0.00067364 -0.00077708 -0.00038261 0.0006756
-0.0019495 0.01204 0.2064 0.27189 0.0056287 0.003596 -0.00074466 -0.0016172
-0.00094522 -0.00065456 -0.00061075 -0.00065709
-0.0026269 -0.0022387 0.0056437 0.0035635 0.30356 -0.15817 -0.00099524 0.0012509
-0.0010406 -0.00084826 -9.5712e-05 -0.00020262
0.0022867 0.0010382 -0.00075765 -0.0016101 -0.00099117 0.0012466 0.25053 0.050695
-0.0063099 0.0057327 0.0018391 -0.00046227
-0.00069419 -0.00078025 -0.00093943 -0.00065235 -0.0010652 -0.00082063 -0.0062703 0.0057494
0.20811 0.1389 -0.0042554 0.0084313
-0.00039855 0.00069336 -0.00061723 -0.00065271 -8.6673e-05 -0.00021897 0.001793 -0.0005098
-0.0042616 0.0084408 0.24745 0.2057
1700000000 0.29411 -0.029899 0.001486 0.0094739 -0.0031596 0.00020715 0.0027987 -0.00080569
-0.0014862 -0.00036191 0.00054992 0.0005118
0.0014863 0.009478 0.22428 0.24013 0.0037726 0.00077073 -0.0014193 -0.00052296
-0.00097432 -0.00011617 -0.00095123 -0.0003259
-0.0031551 0.0002327 0.0037808 0.00074007 0.25981 -0.19798 0.0002074 0.0016721
-0.0017895 -0.00024963 -0.00054448 -0.00091409
0.0027974 -0.00082828 -0.0014208 -0.00051432 0.00021094 0.001673 0.24663 -0.00096347
-0.0048591 0.0063539 0.0012738 -0.0018344
-0.0014859 -0.00032503 -0.00097214 -0.0001058 -0.0017717 -0.0002681 -0.0048571 0.0063746
0.22532 0.11623 0.00016643 0.0089032
0.00056843 0.00048111 -0.0009596 -0.00031272 -0.00057379 -0.00091506 0.0013184 -0.0018018
0.00016815 0.0089049 0.26346 0.17053
1760000000 0.27917 -0.079833 0.0038451 0.0065129 -0.0019866 0.00069743 0.0015315 -0.0030752
-0.00084446 0.00060383 0.00060325 -0.00030009
0.0038346 0.0065115 0.25002 0.19991 0.0016022 -0.00094927 -0.0010854 0.00028375
-0.0013825 0.00093628 -0.00057832 0.00057749
-0.001971 0.00072523 0.0016081 -0.00095781 0.21037 -0.23093 0.001124 0.0015318
-0.0011494 0.0013801 -0.0013492 -0.0004306
0.0015172 -0.0030673 -0.0010791 0.00028684 0.0011264 0.0015301 0.23572 -0.053718
-0.0025828 0.0062594 -0.00052492 -0.0020479
-0.00082725 0.00059261 -0.0013688 0.00094855 -0.0011543 0.0013768 -0.002575 0.0062601
0.24003 0.07865 0.0037245 0.0061762
0.0005862 -0.00030193 -0.00057107 0.00058082 -0.001318 -0.00044626 -0.00052524 -0.0020731
0.0037221 0.0061746 0.27577 0.13266
1820000000 0.25104 -0.11696 0.004303 0.0030883 6.6561e-05 0.0021669 -0.00064371 -0.0030992
-0.00071705 0.00036418 0.00020662 -0.00013687
0.0042889 0.0030777 0.25948 0.16948 -0.00015239 0.00014359 -0.0013196 0.00086205
-0.00020251 0.0016461 -0.00042327 0.0006188
8.1609e-05 0.0021487 -0.00014422 0.00014168 0.16065 -0.24611 0.0017034 0.00052552
-0.00034095 0.0022365 -0.0012723 0.00056051
-0.00067532 -0.0030896 -0.0013303 0.00086801 0.0016965 0.00052945 0.20302 -0.10115
-0.0017939 0.0051985 -0.0015599 -0.0010833
-0.00072757 0.00037481 -0.00018925 0.0016366 -0.00033663 0.0022383 -0.0017716 0.0051507
0.25555 0.046366 0.0044871 0.00284
0.000191 -0.00012967 -0.00042987 0.00061449 -0.0013099 0.00055063 -0.00162 -0.0010488
0.0044862 0.0028388 0.27766 0.095988
1880000000 0.21291 -0.15561 0.0022547 0.00092037 -0.00036324 0.0018944 -0.0027892 -0.0023914
-0.00053967 0.0013616 0.00063184 -0.00082731
0.0022577 0.00090667 0.26343 0.12287 -0.0020618 0.0017 -7.7771e-05 0.0017271
0.00081998 0.001628 0.00034876 0.00093446
-0.00036377 0.0018747 -0.0020512 0.0017169 0.10854 -0.25538 0.00207 -0.0010864
0.0015169 0.0020122 -0.00090127 0.0014547
-0.0028008 -0.0023855 -5.6378e-05 0.0017055 0.0020773 -0.0010891 0.16054 -0.13994
-0.0016383 0.0043288 -0.0023131 0.00079534
-0.00053305 0.0013317 0.00084234 0.0016159 0.0015279 0.0020324 -0.0016176 0.004356
0.25592 0.010758 0.0039135 0.00094251
0.00060223 -0.00079409 0.00035967 0.00091292 -0.00087615 0.0014278 -0.0022783 0.00081111
0.0039148 0.00094573 0.27699 0.061983
1940000000 0.17172 -0.17872 0.00033562 -0.00075293 0.0010933 0.0017496 -0.003987 0.00028789
0.00098334 0.0010317 -0.00077442 -0.00077324
0.00032645 -0.00074046 0.26327 0.090994 -0.0010214 0.0037856 0.00099215 0.001223
0.0023499 0.00050999 0.00090771 0.00019668
0.001126 0.0017631 -0.0010062 0.0037943 0.062557 -0.24924 0.00028707 -0.0025375
0.0025585 0.00051297 0.00052531 0.001554
-0.003967 0.00032195 0.001009 0.001231 0.00028567 -0.0025436 0.10682 -0.16804
-0.0028159 0.0044262 -0.0010762 0.0021586
0.0010018 0.0010419 0.0023656 0.00047855 0.0025627 0.00045455 -0.0028046 0.0044113
0.2537 -0.030409 0.0026253 -0.001851
-0.00079447 -0.00074505 0.00090785 0.00018101 0.00050243 0.001598 -0.0011401 0.0021225
0.0026209 -0.0018563 0.26579 0.025887
2000000000 0.12482 -0.1901 -0.0032505 0.0011687 0.0023442 0.0017219 -0.0024971 0.0036684
0.0010222 0.00049486 -0.0011137 0.00039887
-0.0032581 0.0011696 0.24845 0.055723 -0.00084535 0.005557 0.0016158 0.00016324
0.0017406 -0.0019052 0.00038069 1.8278e-05
0.0023732 0.0017153 -0.00082268 0.0055617 0.018845 -0.23483 -0.0016704 -0.0014603
0.0019745 -0.0014005 0.001627 0.0013148
-0.002465 0.0036512 0.0016143 0.00013793 -0.0016755 -0.0014683 0.054043 -0.17527
-0.0037423 0.0056498 0.00032706 0.0021833
0.0010711 0.00053027 0.0017235 -0.0019106 0.0019601 -0.0014019 -0.0037633 0.0057235
