!Keysight Technologies,M9804A,MY58100912,A.14.10.03
!Date: Thursday, April 27, 2023 10:28:33
!Correction: S11(C  6-Port  ) 
!S12(C  6-Port  ) 
!S13(C  6-Port  ) 
!S14(C  6-Port  ) 
!S15(C  6-Port  ) 
!S16(C  6-Port  ) 
!S21(C  6-Port  ) 
!S22(C  6-Port  ) 
!S23(C  6-Port  ) 
!S24(C  6-Port  ) 
!S25(C  6-Port  ) 
!S26(C  6-Port  ) 
!S31(C  6-Port  ) 
!S32(C  6-Port  ) 
!S33(C  6-Port  ) 
!S34(C  6-Port  ) 
!S35(C  6-Port  ) 
!S36(C  6-Port  ) 
!S41(C  6-Port  ) 
!S42(C  6-Port  ) 
!S43(C  6-Port  ) 
!S44(C  6-Port  ) 
!S45(C  6-Port  ) 
!S46(C  6-Port  ) 
!S51(C  6-Port  ) 
!S52(C  6-Port  ) 
!S53(C  6-Port  ) 
!S54(C  6-Port  ) 
!S55(C  6-Port  ) 
!S56(C  6-Port  ) 
!S61(C  6-Port  ) 
!S62(C  6-Port  ) 
!S63(C  6-Port  ) 
!S64(C  6-Port  ) 
!S65(C  6-Port  ) 
!S66(C  6-Port  ) 
!S6P File: Measurement: :
# Hz S  RI   R 50
500000000 -0.3335 -0.029451 -0.0083969 -0.00423 -0.0078897 0.010995 -0.0033275 0.011563
0.012275 0.0044521 -0.0041296 0.0076232
-0.0084719 -0.0042929 -0.41848 -0.048389 0.0074735 -0.011978 0.0011507 0.010862
0.007798 0.0030185 0.0010602 0.012448
-0.007911 0.010983 0.007489 -0.01192 -0.26433 0.21197 0.0067112 0.002836
0.00050143 0.0084513 0.00058793 0.011899
-0.0032995 0.011488 0.0015093 0.011075 0.0068321 0.0028583 -0.32626 0.049312
-0.01882 -0.005159 0.017726 0.024797
0.012217 0.0046548 0.0077872 0.0023723 0.00047136 0.0082519 -0.01843 -0.0047714
-0.22755 -0.17667 -0.026382 0.0049999
-0.0036043 0.0078151 0.0011157 0.012214 0.00052461 0.01157 0.01745 0.024007
-0.02676 0.0046539 -0.27409 -0.12266
560000000 -0.31 0.12662 -0.02386 -0.063969 -8.4795e-06 0.012349 0.006858 0.0097363
0.011907 0.00362 0.008858 0.0068698
-0.023857 -0.063752 -0.376 0.10974 -0.042117 -0.036407 0.013867 0.0036209
-0.012656 -0.004852 0.0046791 -2.6806e-05
2.0642e-05 0.01219 -0.041985 -0.036339 -0.18232 0.25903 -0.00075173 -0.0051025
0.01852 0.0036793 0.0068524 -0.0064834
0.0067688 0.0097762 0.014397 0.0039485 -0.00074715 -0.0052066 -0.30143 0.13705
0.0050715 -0.025099 0.0050103 -0.019304
0.011929 0.0037663 -0.012565 -0.0052011 0.018462 0.0043515 0.0047454 -0.025408
-0.28357 -0.0045717 0.0073119 -0.051117
0.0091162 0.0068045 0.0045726 -0.00047579 0.0074852 -0.0063929 0.0047941 -0.01965
0.0076102 -0.050553 -0.33203 0.024782
620000000 -0.26868 0.11056 -0.023019 0.0057769 0.0034729 0.0083976 0.0069219 -0.0056677
0.010933 -0.0013556 0.00031013 -0.0023304
-0.022941 0.0057069 -0.40266 0.063698 -0.019364 -0.00029443 -0.001646 -0.0021875
0.010057 -0.0067478 0.00048119 -0.0028294
0.003251 0.0081331 -0.019411 -0.00014564 -0.15297 0.26808 -0.0019775 -0.0050966
-0.0037488 -0.0031029 0.0082195 -0.0036098
0.0071216 -0.0061419 -0.0016779 -0.0022382 -0.0018506 -0.0053076 -0.25915 0.14694
-0.038252 -0.01925 0.014809 0.023141
0.010851 -0.0010368 0.01013 -0.0070551 -0.0037569 -0.0030711 -0.038408 -0.019594
-0.20443 -0.042318 -0.039264 0.013997
0.00078424 -0.0019435 0.00067666 -0.0029325 0.0080166 -0.0040209 0.014747 0.023978
-0.039489 0.014372 -0.25004 -0.011592
680000000 -0.22824 0.19071 -0.028428 -0.015117 0.0048599 0.005215 0.00010535 -0.00803
-0.0036711 -0.010763 0.0041561 -0.0071244
-0.028416 -0.015126 -0.38679 0.1604 -0.033049 -0.0010035 -0.0019205 -0.00051544
-0.0030821 -0.0086603 -0.0010626 -0.0025198
0.0048764 0.0052868 -0.033117 -0.00094563 -0.10196 0.28765 -0.00066522 0.00019345
-0.0024448 0.0011646 -0.0029805 -0.0096499
0.00010552 -0.0079634 -0.0019561 -0.00047249 -0.00068553 0.00022534 -0.21764 0.1952
-0.023478 -0.0090604 -0.010814 -0.0096059
-0.0036686 -0.010682 -0.0031997 -0.0086134 -0.0025094 0.0010533 -0.023689 -0.0089672
-0.24848 0.053166 -0.0051375 -0.0098586
0.0040268 -0.006959 -0.00087398 -0.0023874 -0.002911 -0.0096858 -0.010945 -0.0097443
-0.0052683 -0.0092795 -0.26112 0.091742
740000000 -0.18763 0.18549 -0.039103 0.025581 0.012711 -0.0049917 -0.0010909 -0.0040284
-0.0046564 -0.0020366 -0.0059089 0.003616
-0.039081 0.02553 -0.33514 0.17931 -0.034818 0.035264 -0.00077966 -0.0063532
-0.011423 0.0084325 -0.0027213 -0.0064915
0.012638 -0.0050901 -0.034741 0.035467 -0.06866 0.28693 -0.0011198 0.0035265
-0.0028582 -0.0033714 -0.00078878 0.00093509
-0.0010735 -0.004085 -0.00087466 -0.006322 -0.0012274 0.0034662 -0.20115 0.20259
-0.042814 -0.0077089 0.022571 0.012597
-0.0047275 -0.0020914 -0.011105 0.0085938 -0.0030609 -0.0034401 -0.042767 -0.0077285
-0.15606 0.074176 -0.042415 0.0012781
-0.0059139 0.0035484 -0.0026706 -0.0062564 -0.00064768 0.00067848 0.022575 0.012459
-0.042179 0.00085283 -0.25043 0.09866
800000000 -0.1575 0.2255 -0.023587 0.017436 0.0052741 -0.010527 -0.0049608 -0.0018566
-0.0037362 0.0033652 0.0046281 0.0006604
-0.023629 0.017383 -0.33716 0.24971 -0.0076923 0.034357 -0.0019389 0.0022329
-0.0001694 0.0036802 0.001446 0.005403
0.0052391 -0.010526 -0.0075995 0.034406 -0.027381 0.30999 0.0012773 0.001458
0.00089841 0.0035593 -0.0017518 0.0010858
-0.0049536 -0.0018394 -0.001943 0.002302 0.0013222 0.0014572 -0.17403 0.23066
-0.028829 0.012593 0.012689 -0.0096215
-0.0040131 0.0034252 -0.00020449 0.0037098 0.00087742 0.0035763 -0.028809 0.012614
-0.19796 0.098992 -0.017931 0.017481
0.0044704 0.00091616 0.0012521 0.0053118 -0.0019061 0.001098 0.013028 -0.0096556
-0.017978 0.017085 -0.24403 0.15256
860000000 -0.12371 0.24775 -0.017724 0.031931 -0.0035022 -0.0098723 -0.0026901 0.0015331
0.0047539 0.005293 -0.0027533 -0.0031279
-0.017737 0.031891 -0.28894 0.29154 0.0084367 0.034375 0.00046688 0.0019776
0.0049806 0.00032094 0.0034332 0.00040576
-0.0034844 -0.0098556 0.0085682 0.034405 0.021365 0.31803 -0.00032358 -0.00038745
0.0028683 -0.0015271 0.0015813 0.004545
-0.0025999 0.0014469 0.00051716 0.0019254 -0.00029595 -0.0003752 -0.13873 0.24281
-0.018137 0.018831 -0.0062576 -0.0093719
0.0045676 0.0051508 0.0049407 1.6895e-05 0.002899 -0.001532 -0.018072 0.018637
-0.15057 0.1461 -0.023966 0.015819
-0.0026334 -0.0029536 0.0034607 0.00057561 0.001535 0.0044736 -0.0061943 -0.0091771
-0.023686 0.015504 -0.19359 0.19453
920000000 -0.098762 0.27232 0.0048198 0.038791 -0.0095446 -0.0040545 -0.0015848 0.0026972
0.0013086 0.0015125 0.0022363 -0.0011909
0.0047703 0.038772 -0.26013 0.31224 0.02845 0.021625 0.0016553 0.0010165
0.0066675 -0.0010096 0.0037099 -0.0028549
-0.0095602 -0.0040111 0.028494 0.021563 0.06804 0.31837 0.0016855 -0.00019675
0.0013436 -0.00048913 0.0009077 -0.0011508
-0.0016016 0.0027083 0.0017086 0.001018 0.0017095 -0.000177 -0.11431 0.25962
-0.010482 0.030229 0.0023573 -0.0062561
0.0014248 0.0013963 0.0066248 -0.001056 0.0013115 -0.00055593 -0.010448 0.030188
-0.13917 0.15299 -0.0022772 0.027104
0.0023791 -0.0013532 0.0037495 -0.00275 0.00082404 -0.0010821 0.0022497 -0.0063933
-0.0022844 0.027134 -0.19915 0.20963
980000000 -0.050894 0.29223 0.018288 0.03088 -0.0087474 0.0049035 0.0027797 0.003765
0.0040269 -0.0018544 -0.0027879 -0.0020058
0.018251 0.030876 -0.20706 0.34571 0.033305 0.0043084 0.0020119 -0.00018673
0.00076357 -0.0061514 -0.00044148 -0.0023898
-0.0087471 0.0049578 0.033345 0.0041765 0.11462 0.31149 0.00035112 -0.0012235
-0.00013228 -0.0021381 0.0016503 -0.00011772
0.0027529 0.0037469 0.0019681 -0.00021211 0.00030541 -0.0012038 -0.075931 0.27163
0.0074268 0.028858 -0.0094226 -0.0063701
0.0040826 -0.0019168 0.0007456 -0.0061935 -0.00013867 -0.002183 0.0074899 0.028809
-0.10856 0.17959 0.0051286 0.0186
-0.0028112 -0.0019525 -0.00055478 -0.0023368 0.0016383 -8.2501e-05 -0.0094621 -0.0063901
0.0050405 0.018624 -0.15617 0.25343
1040000000 -0.007805 0.30086 0.033969 0.018084 -0.00086628 0.0070189 0.0030952 0.0005517
-6.1332e-05 -0.0038822 -0.00055919 -0.0012701
0.033895 0.018119 -0.17128 0.35873 0.029237 -0.015379 0.0013745 -0.0017034
-0.0027956 -0.0020981 -0.0014235 -0.0027311
-0.00086 0.0070547 0.029157 -0.015491 0.16106 0.29735 -0.00054815 -0.0013425
-0.0016375 -0.00077233 -0.00038937 -0.0011898
0.0031145 0.00052155 0.0013835 -0.0016995 -0.00054886 -0.0013642 -0.047841 0.28167
0.018626 0.016956 -0.0032565 0.002375
-9.8899e-05 -0.0038836 -0.0028431 -0.002096 -0.0016737 -0.00074196 0.018659 0.01695
-0.077659 0.18877 0.013617 0.017704
-0.00053604 -0.0011999 -0.0014828 -0.0026671 -0.00043839 -0.0011643 -0.0032365 0.0023575
0.0134 0.017719 -0.13395 0.27458
1100000000 0.038155 0.30825 0.036404 -0.0046129 0.0032823 0.0036436 0.0026266 -0.001812
-0.0022592 -0.0029567 -0.0037199 9.389e-06
0.036354 -0.004585 -0.12765 0.37547 0.014628 -0.028138 -6.8891e-05 -0.0018315
-0.0031582 -0.00014751 -0.0034382 -0.00042467
0.0033255 0.0036636 0.014554 -0.028198 0.20764 0.27636 -0.0017661 0.00036393
-0.001649 0.00075877 -0.00096084 -0.00041517
0.0026223 -0.0017877 -8.0559e-05 -0.0018255 -0.0017949 0.00035583 -0.006759 0.28653
0.022631 0.0045715 -0.0021729 0.0013705
-0.002315 -0.0029465 -0.0030855 -0.00014409 -0.0016023 0.00072645 0.022658 0.0045373
-0.059537 0.20218 0.018459 0.0084214
-0.003704 9.6258e-05 -0.0034281 -0.00042686 -0.00091558 -0.00044095 -0.0021761 0.001342
0.018409 0.0084159 -0.087255 0.30369
1160000000 0.089696 0.30311 0.024252 -0.021242 0.0028685 -0.00080221 -0.00019794 -0.0028028
-0.0041226 -0.0001333 -0.00077409 0.0039885
0.024226 -0.021213 -0.083446 0.37954 -0.0043019 -0.029045 -0.0018279 -0.001512
-0.0021934 0.0027027 -0.00128 0.0016465
0.0028758 -0.00081163 -0.0044507 -0.029075 0.25067 0.24473 -0.00046357 0.0017322
-0.000269 0.0017368 -0.0010734 9.1353e-05
-0.00017865 -0.0027767 -0.0018642 -0.0015012 -0.00046873 0.0017221 0.033024 0.28344
0.018846 -0.010185 -0.0025375 0.0058362
-0.0041509 -0.00015136 -0.0021228 0.0026681 -0.00024448 0.0017613 0.018817 -0.01017
-0.026309 0.21229 0.017226 9.8925e-05
-0.00076193 0.0039412 -0.0013385 0.0016227 -0.0010908 4.4771e-05 -0.0025143 0.0059566
0.017304 0.00022614 -0.040526 0.30656
1220000000 0.13462 0.29166 0.010322 -0.030381 -0.0016051 -0.001154 -0.00045031 -0.0012156
-0.0024314 0.0027019 0.0013208 0.0017376
0.010332 -0.03035 -0.038937 0.39086 -0.01728 -0.020705 -0.0024849 0.00056294
0.00046017 0.0027227 -0.0006345 0.0016994
-0.0016033 -0.0011642 -0.017367 -0.020678 0.28942 0.20498 0.0010136 0.001458
0.00065869 0.0010503 0.00017745 0.00073791
-0.00043022 -0.001216 -0.0024774 0.00057555 0.0010193 0.0014337 0.073022 0.27422
0.0086232 -0.015507 0.003213 0.0018359
-0.0023909 0.0027327 0.00050887 0.0026988 0.0006364 0.0010448 0.0086052 -0.015537
-0.0019195 0.22234 0.013066 -0.012308
0.0013918 0.0017593 -0.0006176 0.0017219 0.00017371 0.00071522 0.0032311 0.0018441
0.013135 -0.012344 -0.0078674 0.3225
1280000000 0.18425 0.26932 -0.0080596 -0.028651 -0.0019827 0.0022679 -0.0013201 -0.0018342
-0.00032851 0.003118 0.0024128 0.00085639
-0.0080262 -0.028625 0.0071604 0.38124 -0.023713 -0.0079282 -0.00084575 0.0014856
0.0016646 0.0013138 0.00052349 0.0019234
-0.0019815 0.0022829 -0.02376 -0.0078163 0.31937 0.16071 0.0012963 -0.00030779
0.00091548 4.9631e-05 0.00026504 0.0004493
-0.0013266 -0.0018561 -0.00083143 0.001498 0.0013066 -0.00032838 0.10937 0.25772
-0.00033259 -0.016629 0.00088829 -3.2717e-05
-0.00030536 0.0031242 0.0016781 0.0013331 0.00094263 7.0988e-05 -0.00035691 -0.016644
0.035805 0.22624 0.002521 -0.01425
0.0024654 0.00080768 0.00053071 0.001929 0.0003017 0.00050154 0.00095144 -4.6786e-05
0.0025662 -0.01428 0.039808 0.3236
1340000000 0.22189 0.23543 -0.017894 -0.019026 0.00063619 0.0042668 -0.0019537 -0.00045241
0.0016008 0.0023526 0.001481 -0.001535
-0.017864 -0.019008 0.046609 0.372 -0.021324 0.0046446 4.4311e-05 0.0018359
0.0015689 0.00052635 0.0013694 0.00075533
0.00064674 0.0042556 -0.021326 0.0047437 0.34089 0.11274 0.0007868 -0.00089729
0.00050408 -0.00033311 0.00025928 0.00027948
-0.001968 -0.00046639 4.9667e-05 0.001834 0.000783 -0.00090193 0.14207 0.23721
-0.0080734 -0.013348 0.001549 -0.00025384
0.0016388 0.002355 0.0016186 0.00050711 0.00055215 -0.00033721 -0.0080882 -0.013313
0.067595 0.22143 -0.003685 -0.012513
0.0014613 -0.001538 0.0013774 0.00080187 0.00028551 0.00031144 0.0015343 -0.00027241
-0.0036587 -0.012456 0.079239 0.31845
1400000000 0.25529 0.19686 -0.023492 -0.0074065 0.0048528 0.0031265 -0.0018845 0.00087799
0.002417 0.00039821 0.0001034 -0.0012705
-0.023468 -0.007411 0.083272 0.35819 -0.014417 0.012527 0.0013005 0.0011075
0.00072954 -0.00080832 0.0012036 0.00023248
0.004863 0.0030991 -0.01437 0.012615 0.35357 0.059245 -3.4708e-05 -0.0013699
-2.0542e-05 -0.00034776 0.00034893 0.00024914
-0.0018735 0.0008752 0.0013087 0.0010903 -2.3894e-05 -0.0013829 0.17176 0.20869
-0.012567 -0.007031 -0.00049182 -0.0011023
0.0024112 0.00035523 0.00072279 -0.00081186 -1.0065e-06 -0.00038802 -0.012579 -0.0070102
0.10162 0.21593 -0.0097146 -0.0078246
6.8663e-05 -0.0012389 0.001215 0.00023156 0.00040288 0.00024934 -0.00047769 -0.0011268
-0.0096991 -0.0077679 0.12386 0.30682
1460000000 0.27885 0.15224 -0.020466 0.0046943 0.0053266 -0.0015927 -0.0013018 0.0017395
0.0017002 -0.00093403 -0.00038299 -0.00073736
-0.020453 0.0046853 0.11684 0.33585 -0.0058307 0.015068 0.0015643 0.00012624
0.00068096 -0.00091389 0.0011153 -0.00065243
0.0053292 -0.0016165 -0.0057469 0.015133 0.35924 0.0047678 -0.0010585 -0.001075
0.00022619 -0.00014281 0.00064376 -0.00041039
-0.0012758 0.0017457 0.0015621 0.00010951 -0.0010818 -0.0010605 0.19865 0.17952
-0.012489 -0.0015519 -0.0012278 0.0011365
0.0017137 -0.00093794 0.00068618 -0.00094804 0.00023036 -0.00015596 -0.012478 -0.0015363
0.13219 0.20012 -0.010957 -0.0024491
-0.00042225 -0.00073876 0.0010978 -0.00066531 0.00070072 -0.00039658 -0.0012247 0.0011337
-0.01092 -0.0024721 0.1571 0.28514
1520000000 0.29163 0.10922 -0.014722 0.01034 0.0030366 -0.0038782 0.00025763 0.002334
0.0013485 -0.0016468 -0.0010485 -0.00010778
-0.01471 0.010319 0.14967 0.32087 0.0016215 0.012853 0.0014984 -0.00075523
0.00010167 -0.00075392 0.00022879 -0.001024
0.0030184 -0.0038871 0.001698 0.01285 0.35219 -0.051226 -0.00079885 -0.00030174
0.00048703 -0.00078185 -6.5333e-06 -4.5646e-05
0.00028589 0.0023434 0.0015001 -0.00075193 -0.00082846 -0.00029895 0.22247 0.14114
-0.011218 0.0025755 0.00082593 0.0015397
0.0013291 -0.0016482 0.00011106 -0.00074382 0.00047543 -0.00074326 -0.011233 0.0025977
0.16085 0.18423 -0.010765 0.0017424
-0.0010566 -7.2506e-05 0.00022655 -0.0010265 4.3402e-06 -7.5122e-05 0.00081797 0.0015335
-0.01079 0.0017702 0.19033 0.2641
1580000000 0.30097 0.061302 -0.0081195 0.013298 -0.0008833 -0.0045813 0.0012724 0.0015817
-0.00065178 -0.0017641 -0.00022837 0.00031286
-0.0081146 0.013276 0.17626 0.29609 0.0051544 0.0080545 0.00044911 -0.0014644
-0.0002401 -0.0009466 -0.00032564 -0.00084872
-0.00089677 -0.0045787 0.0052022 0.0080265 0.33174 -0.10873 -0.0013759 0.00043077
-0.00028608 -0.0010385 0.00021059 -0.00058603
0.0012875 0.0015807 0.00044111 -0.0014662 -0.0013534 0.00042383 0.23703 0.1009
-0.0082932 0.0057491 0.0015352 0.00061535
-0.0006687 -0.0017597 -0.00025667 -0.00092871 -0.00029414 -0.001037 -0.0082834 0.0057692
0.18541 0.16459 -0.0085031 0.0069191
-0.00027131 0.00032205 -0.00034853 -0.00083779 0.00015902 -0.00057398 0.0015367 0.00061599
-0.0085204 0.0068925 0.22208 0.23695
1640000000 0.30243 0.017844 -0.0015021 0.012244 -0.0026365 -0.0023418 0.0022752 0.0009908
-0.00073171 -0.00078505 -0.00032564 0.00061518
-0.0015002 0.012246 0.20521 0.27111 0.0057241 0.0033485 -0.00068654 -0.0015742
-0.00083425 -0.00052456 -0.00057364 -0.00057649
-0.0026222 -0.0023204 0.005723 0.0033205 0.3035 -0.15743 -0.00085284 0.0011636
-0.00093554 -0.00070666 -0.00010188 -0.00036507
0.0022856 0.00097633 -0.00068365 -0.0015727 -0.00084146 0.0011445 0.24941 0.050812
-0.0052108 0.0058345 0.0019217 -0.00058034
-0.00074691 -0.00078855 -0.00084463 -0.0005478 -0.00099416 -0.00076459 -0.0051958 0.0058569
0.20836 0.1381 -0.0040223 0.008758
-0.00033626 0.00061946 -0.00056652 -0.00056319 -4.8195e-05 -0.00031532 0.0019398 -0.0005924
-0.0040054 0.0087644 0.24778 0.20527
1700000000 0.29323 -0.029143 0.0019097 0.0094468 -0.003195 0.00015679 0.0027823 -0.00086992
-0.001478 -0.00031507 0.00054131 0.0004429
0.0019096 0.0094416 0.22281 0.23988 0.0037406 0.00058234 -0.0013429 -0.00059044
-0.00079974 -0.00014134 -0.00089206 -0.00034269
-0.0032033 0.00015969 0.0037487 0.00055817 0.26004 -0.19744 0.00019634 0.0014775
-0.0016756 -0.00036837 -0.00069236 -0.00094941
0.002768 -0.00089122 -0.0013348 -0.00056341 0.00018818 0.0014899 0.24552 -0.00024456
-0.0040263 0.0057716 0.0012235 -0.0018117
-0.0015115 -0.00032034 -0.00079798 -0.00014135 -0.0016502 -0.00032718 -0.004013 0.0057814
0.22528 0.11541 0.00049365 0.0089816
0.00055529 0.00046225 -0.00089448 -0.00032662 -0.00063125 -0.00096035 0.0012081 -0.0018305
0.00049558 0.0090031 0.26369 0.1703
1760000000 0.27863 -0.078707 0.0040941 0.0063059 -0.0020431 0.00074925 0.0014625 -0.0031201
-0.00080853 0.00056275 0.00043134 -0.00032818
0.0040768 0.0063083 0.24852 0.20026 0.0014486 -0.00108 -0.0010983 0.00016826
-0.001237 0.00077863 -0.00055607 0.00053876
-0.0020322 0.00075235 0.0014485 -0.0010738 0.21074 -0.23066 0.001006 0.001386
-0.001078 0.0012986 -0.0013895 -0.00041478
0.001434 -0.0031215 -0.0011031 0.00017209 0.0010039 0.0013801 0.2349 -0.052417
-0.0024384 0.0053313 -0.00057705 -0.0019598
-0.00080113 0.00054337 -0.0012294 0.00078238 -0.0011169 0.0012282 -0.0024104 0.0053361
0.23961 0.077696 0.0039111 0.0061412
0.00040877 -0.00034562 -0.00055632 0.00053681 -0.0013574 -0.00037103 -0.00058143 -0.0019721
0.0039239 0.0061454 0.27609 0.13232
1820000000 0.25108 -0.1157 0.0043553 0.0029101 1.9249e-05 0.002209 -0.00072477 -0.0030686
-0.0006873 0.00030766 0.0001677 -1.4034e-05
0.0043459 0.0029116 0.25821 0.17042 -0.00030546 9.9126e-05 -0.0013682 0.00081185
-0.00024962 0.0014478 -0.00042754 0.00053948
4.8634e-06 0.0021914 -0.00030284 0.00011348 0.16093 -0.24613 0.0015245 0.00054845
-0.00047071 0.0020454 -0.0013056 0.00060834
-0.00073913 -0.003054 -0.0013555 0.00080682 0.0014922 0.00054497 0.20326 -0.099604
-0.0020406 0.0045666 -0.0016442 -0.0011685
-0.00071361 0.00031597 -0.00024566 0.0014339 -0.00045877 0.0019816 -0.0020371 0.004576
0.2547 0.04582 0.0046902 0.0026826
0.00012686 -7.5386e-05 -0.00043792 0.00051989 -0.0013105 0.00061146 -0.0016734 -0.0011446
0.0046821 0.0027209 0.27781 0.095807
1880000000 0.21345 -0.15442 0.0022779 0.00081996 -0.00032385 0.0019618 -0.0028381 -0.0023899
-0.0005291 0.0012483 0.00051251 -0.00067136
0.002274 0.00082323 0.26266 0.12428 -0.0021463 0.0017606 -0.00020077 0.0016899
0.00064045 0.0014796 0.00024865 0.00092343
-0.00029046 0.0019753 -0.0021225 0.0018156 0.1089 -0.25551 0.0020111 -0.0010579
0.0014399 0.0019998 -0.00092005 0.0014541
-0.0028475 -0.0023703 -0.00019142 0.0017126 0.0019983 -0.0010714 0.16142 -0.13858
-0.0021493 0.0041305 -0.0022556 0.00088253
-0.00051808 0.0012404 0.00066659 0.0014845 0.0013867 0.002005 -0.0021447 0.0041307
0.25482 0.010666 0.0040319 0.00077902
0.00050641 -0.00070827 0.00026174 0.00090354 -0.0009037 0.001449 -0.0022472 0.00090967
0.0039864 0.00077642 0.27722 0.061506
1940000000 0.17255 -0.17806 0.00038903 -0.00084303 0.0011832 0.0017975 -0.0039056 0.00042266
0.00091597 0.0010733 -0.0006399 -0.00078332
0.0003952 -0.00083787 0.26316 0.09256 -0.0010423 0.00389 0.0009363 0.0013475
0.0021236 0.00059364 0.00082561 0.00017691
0.0011288 0.0017854 -0.0010203 0.003907 0.062743 -0.24934 0.00031566 -0.0025535
0.0024393 0.0005764 0.00033213 0.0015125
-0.0039192 0.00047027 0.00094214 0.0013438 0.00033294 -0.0025409 0.10839 -0.16724
-0.0031615 0.0045116 -0.00098202 0.001971
0.00094258 0.0010946 0.0021215 0.00056995 0.002429 0.00057529 -0.0031682 0.0044725
0.25274 -0.030059 0.0027261 -0.0021163
-0.00064939 -0.00076574 0.00084757 0.00017722 0.0003496 0.0015348 -0.0010139 0.0019277
0.0026843 -0.0021181 0.26564 0.025273
2000000000 0.12596 -0.1898 -0.0031461 0.00096831 0.0023117 0.0016407 -0.0023358 0.0037236
0.0010059 0.00056909 -0.00095504 0.00034434
-0.0031243 0.00096853 0.24901 0.057053 -0.00081833 0.005476 0.0017022 0.00023116
0.0017718 -0.001646 0.00050233 4.6282e-05
0.0023629 0.0016237 -0.00077577 0.0055158 0.018991 -0.23524 -0.0015621 -0.0014503
0.0021122 -0.0012913 0.0016814 0.001224
-0.0023398 0.0037431 0.0017069 0.00021277 -0.0015645 -0.0014644 0.05536 -0.1755
-0.004132 0.0056677 0.00028984 0.0022308
0.001062 0.00057512 0.0017266 -0.0016846 0.0021402 -0.0013108 -0.0040419 0.0057673
