!Keysight Technologies,M9804A,MY58100912,A.14.10.03
!Date: Thursday, April 27, 2023 10:28:33
!Correction: S11(C  6-Port  ) 
!S12(C  6-Port  ) 
!S13(C  6-Port  ) 
!S14(C  6-Port  ) 
!S15(C  6-Port  ) 
!S16(C  6-Port  ) 
!S21(C  6-Port  ) 
!S22(C  6-Port  ) 
!S23(C  6-Port  ) 
!S24(C  6-Port  ) 
!S25(C  6-Port  ) 
!S26(C  6-Port  ) 
!S31(C  6-Port  ) 
!S32(C  6-Port  ) 
!S33(C  6-Port  ) 
!S34(C  6-Port  ) 
!S35(C  6-Port  ) 
!S36(C  6-Port  ) 
!S41(C  6-Port  ) 
!S42(C  6-Port  ) 
!S43(C  6-Port  ) 
!S44(C  6-Port  ) 
!S45(C  6-Port  ) 
!S46(C  6-Port  ) 
!S51(C  6-Port  ) 
!S52(C  6-Port  ) 
!S53(C  6-Port  ) 
!S54(C  6-Port  ) 
!S55(C  6-Port  ) 
!S56(C  6-Port  ) 
!S61(C  6-Port  ) 
!S62(C  6-Port  ) 
!S63(C  6-Port  ) 
!S64(C  6-Port  ) 
!S65(C  6-Port  ) 
!S66(C  6-Port  ) 
!S6P File: Measurement: :
# Hz S  RI   R 50
500000000 -0.33753 -0.03227 -0.010018 -0.0035682 -0.0079672 0.012108 -0.0041885 0.012069
0.011633 0.0046534 -0.0043412 0.0081827
-0.010781 -0.003822 -0.41939 -0.048255 0.007624 -0.011474 0.0013063 0.010941
0.0079232 0.0029182 0.00099142 0.01198
-0.0083078 0.01238 0.0072805 -0.011127 -0.2648 0.21234 0.0066328 0.0030532
0.00046103 0.0083731 0.00040038 0.011546
-0.0036608 0.011879 0.0016434 0.010892 0.0068695 0.0026369 -0.32757 0.048388
-0.020173 -0.0051231 0.017406 0.025012
0.011005 0.0044215 0.0080827 0.0031571 -0.0004605 0.0082721 -0.020223 -0.0052275
-0.22768 -0.18133 -0.028345 0.0043377
-0.0046136 0.0084761 0.0012155 0.012421 0.00077547 0.010692 0.017954 0.024342
-0.02791 0.004219 -0.27218 -0.12835
560000000 -0.31526 0.127 -0.024735 -0.062364 -0.00012031 0.012038 0.0063212 0.0097326
0.011393 0.0036907 0.009412 0.0078709
-0.023474 -0.06266 -0.37587 0.11015 -0.042302 -0.035922 0.013804 0.0040002
-0.012881 -0.0049052 0.0050369 -0.0005343
-7.0232e-05 0.012802 -0.042666 -0.036442 -0.18197 0.25935 -0.00058154 -0.0050452
0.019121 0.0042627 0.006906 -0.0060166
0.0074194 0.010369 0.014149 0.0030322 -0.001517 -0.0046784 -0.30151 0.13826
0.0037378 -0.02415 0.0051833 -0.019727
0.011433 0.0024452 -0.014172 -0.003671 0.020275 0.0044391 0.004302 -0.024638
-0.2861 -0.0077521 0.0068222 -0.051082
0.01013 0.0076205 0.0046877 -0.0014954 0.0063123 -0.0066265 0.004974 -0.020338
0.0069633 -0.051222 -0.33268 0.020301
620000000 -0.27308 0.11057 -0.023427 0.0073763 0.0037252 0.0087274 0.007315 -0.0056488
0.011304 -0.00035888 0.00063868 -0.0016516
-0.023206 0.0073652 -0.4027 0.064059 -0.018789 0.0001936 -0.0016651 -0.0022442
0.010575 -0.0068662 0.00076429 -0.0026818
0.0034969 0.0088994 -0.018649 0.00025376 -0.15217 0.26894 -0.0018673 -0.0054606
-0.003438 -0.0032438 0.0083599 -0.0035569
0.0065427 -0.0047025 -0.0016465 -0.0020602 -0.0015431 -0.0054621 -0.25978 0.14664
-0.039527 -0.018689 0.014635 0.024968
0.01215 4.4071e-05 0.010664 -0.0069908 -0.0032064 -0.0030674 -0.039703 -0.018298
-0.20519 -0.046194 -0.040649 0.013802
0.0010843 -0.0016012 0.00072758 -0.0025822 0.0089444 -0.0043136 0.014665 0.024325
-0.040968 0.01422 -0.25151 -0.016542
680000000 -0.23198 0.19458 -0.027914 -0.013652 0.0049702 0.0052696 0.00067678 -0.0079732
-0.0030001 -0.010839 0.0043475 -0.0075437
-0.027957 -0.013501 -0.38671 0.16101 -0.03285 -0.00089104 -0.001714 -0.00059213
-0.0026801 -0.0087204 -0.00066579 -0.0025416
0.0051912 0.0051691 -0.032891 -0.00078436 -0.10134 0.28822 -0.00075829 -2.7084e-05
-0.0022603 0.00080359 -0.0027653 -0.0096673
0.0011036 -0.0084923 -0.0016792 -0.00049745 -0.00059865 -7.7825e-05 -0.21823 0.19588
-0.0236 -0.0079247 -0.011076 -0.010015
-0.0036318 -0.011026 -0.0030095 -0.0086916 -0.0022143 0.00079341 -0.023739 -0.0079455
-0.25167 0.051581 -0.0054721 -0.0089661
0.0037271 -0.007814 -0.00086848 -0.0027152 -0.0026259 -0.0092692 -0.010983 -0.010053
-0.0057866 -0.0089989 -0.2633 0.088646
740000000 -0.18834 0.18975 -0.038489 0.026664 0.012892 -0.005225 -0.00065964 -0.0042728
-0.0041944 -0.0022663 -0.0064276 0.0031492
-0.038367 0.026466 -0.33459 0.17924 -0.034839 0.035372 -0.00077005 -0.0069862
-0.012005 0.0084294 -0.0028504 -0.0063345
0.013338 -0.0052234 -0.034429 0.035421 -0.068048 0.28644 -0.00103 0.003525
-0.0029859 -0.0041362 -0.00082742 0.00045018
-0.0010632 -0.0038653 -0.00086203 -0.0062499 -0.001522 0.0035929 -0.20106 0.20327
-0.042431 -0.0069696 0.023186 0.01285
-0.0050859 -0.0022844 -0.011549 0.0076866 -0.0034267 -0.0047125 -0.042622 -0.0067106
-0.15617 0.073272 -0.042455 0.0021447
-0.0062286 0.003044 -0.0029814 -0.0057348 -0.001428 0.00084169 0.023148 0.01304
-0.042697 0.0018117 -0.25112 0.095039
800000000 -0.15704 0.22929 -0.022019 0.017407 0.005354 -0.010507 -0.0047765 -0.002014
-0.0041989 0.0025131 0.0042678 0.00077167
-0.022224 0.017181 -0.33665 0.24935 -0.0075553 0.034035 -0.0020892 0.0021285
-0.00046751 0.0033184 0.0012327 0.0052702
0.0051526 -0.010476 -0.0073545 0.034315 -0.026692 0.30961 0.0011604 0.0015233
0.0007103 0.0034482 -0.0018275 0.0010024
-0.0048986 -0.0021804 -0.0020816 0.0023192 0.0011407 0.0016008 -0.17338 0.2314
-0.028214 0.012986 0.013407 -0.0098382
-0.0046612 0.0025249 -0.00046277 0.0031703 0.00078687 0.003459 -0.028161 0.013077
-0.19884 0.098778 -0.017679 0.017768
0.003717 0.0010149 0.00088589 0.0059007 -0.0018618 0.00078287 0.013443 -0.0097
-0.017658 0.017715 -0.24512 0.1495
860000000 -0.12193 0.25011 -0.016484 0.03128 -0.0032028 -0.010003 -0.0025107 0.0011201
0.0042639 0.005002 -0.0027341 -0.0028041
-0.016701 0.03128 -0.28838 0.29107 0.0085294 0.034178 0.00023064 0.0019296
0.0045627 0.0003726 0.0033763 0.00032916
-0.003312 -0.010047 0.0086595 0.034089 0.021549 0.31746 -0.0004082 -0.0003412
0.0027573 -0.0016005 0.0016696 0.0043438
-0.0025895 0.0012017 0.00022884 0.0021988 -0.00028799 -0.00026903 -0.13789 0.24297
-0.017271 0.018518 -0.0059702 -0.0092182
0.0041637 0.0049852 0.0045169 0.00020622 0.0025268 -0.0016222 -0.017398 0.018517
-0.14941 0.14609 -0.023378 0.015846
-0.0027825 -0.0029959 0.0039228 6.5111e-05 0.0017549 0.0045327 -0.0059763 -0.00888
-0.023223 0.015951 -0.19435 0.19258
920000000 -0.096464 0.27356 0.0054238 0.037713 -0.0095219 -0.0043362 -0.0016985 0.00239
0.0012033 0.0017694 0.0027234 -0.0011953
0.0055656 0.037711 -0.2598 0.31192 0.028304 0.021459 0.0017138 0.0010805
0.0068023 -0.00075754 0.0038222 -0.0026866
-0.0094704 -0.0042776 0.0284 0.021442 0.068008 0.31787 0.0018385 -0.00011725
0.0012759 -0.0004974 0.00070671 -0.0011101
-0.0016788 0.0023103 0.001535 0.0011222 0.0017585 -0.000161 -0.11334 0.25944
-0.0099053 0.029943 0.0028078 -0.0065298
0.0015942 0.0015631 0.0068152 -0.00078662 0.0011762 -0.00066858 -0.009882 0.029863
-0.13906 0.15259 -0.0015973 0.027513
0.0022988 -0.0011426 0.0035785 -0.0025624 0.00076162 -0.0011052 0.0026138 -0.0068894
-0.0015409 0.027306 -0.20121 0.20674
980000000 -0.048904 0.29231 0.018246 0.02963 -0.0090515 0.0047105 0.0023952 0.0037309
0.0040411 -0.0016624 -0.0028478 -0.0021337
0.018113 0.02972 -0.20709 0.34498 0.032957 0.0042967 0.0019556 2.8439e-05
0.0010587 -0.0062561 -0.00044617 -0.0023666
-0.0089506 0.0046947 0.033059 0.0041372 0.1144 0.31103 0.00033895 -0.0012193
-3.8946e-05 -0.0021443 0.0014551 -0.00015695
0.0024736 0.0037044 0.0020077 -9.5111e-05 0.00038538 -0.0011927 -0.075217 0.27077
0.0079388 0.028168 -0.0094106 -0.0067498
0.0039528 -0.0017329 0.0013558 -0.0063221 -2.1882e-05 -0.0020844 0.0080564 0.028306
-0.10791 0.17921 0.005576 0.018639
-0.0029242 -0.00207 -0.00049692 -0.0024363 0.0014094 -1.4924e-05 -0.0093216 -0.0065334
0.0055813 0.018625 -0.15839 0.25126
1040000000 -0.0058993 0.30067 0.033356 0.01731 -0.0012217 0.0069447 0.0027779 0.00080306
0.00023933 -0.0035629 -0.00062861 -0.0014106
0.033409 0.017325 -0.17146 0.35808 0.028993 -0.015214 0.0014465 -0.0016618
-0.0027215 -0.0022872 -0.001544 -0.0026871
-0.0011261 0.0069245 0.028952 -0.015334 0.16084 0.29707 -0.00057528 -0.0013827
-0.0016301 -0.00077249 -0.00049587 -0.001023
0.0027882 0.00076794 0.001467 -0.0017977 -0.00055512 -0.0014284 -0.047641 0.2808
0.018715 0.016535 -0.003235 0.0018141
0.00010519 -0.0035863 -0.0025167 -0.0024162 -0.0016462 -0.00080818 0.018787 0.016465
-0.077239 0.18744 0.013849 0.017616
-0.00066546 -0.0013732 -0.0016928 -0.0027093 -0.00038739 -0.00093922 -0.003149 0.0018217
0.013842 0.017577 -0.13668 0.27258
1100000000 0.039722 0.30763 0.035683 -0.0049572 0.0028477 0.0037592 0.0025857 -0.0014771
-0.0019612 -0.0029972 -0.0039206 -3.1758e-05
0.035683 -0.0049856 -0.12811 0.37512 0.014549 -0.027993 2.8847e-05 -0.0018597
-0.0032783 -0.00032483 -0.0034906 -0.00044083
0.0028883 0.0037237 0.014491 -0.028057 0.20739 0.27615 -0.0018166 0.000363
-0.001671 0.00074588 -0.00095786 -0.00029855
0.00272 -0.0014811 -2.133e-05 -0.0018388 -0.0018346 0.00033625 -0.0069176 0.28558
0.022736 0.004179 -0.0024706 0.00087006
-0.0022176 -0.0030218 -0.0033443 -0.00038458 -0.0017336 0.0007385 0.02274 0.0041824
-0.058976 0.2002 0.018791 0.0080485
-0.0039039 -8.7564e-05 -0.0036235 -0.00045168 -0.00099969 -0.00029215 -0.002423 0.00082723
0.018866 0.0080551 -0.090058 0.302
1160000000 0.091391 0.30215 0.023461 -0.02142 0.0025787 -0.00052568 -1.09e-05 -0.002506
-0.0041581 -0.00044739 -0.00093671 0.0040593
0.023459 -0.021436 -0.084082 0.37928 -0.0042847 -0.028924 -0.0018017 -0.0016239
-0.0023742 0.0027612 -0.0013063 0.0016422
0.0026132 -0.00049729 -0.0044182 -0.028916 0.25042 0.24465 -0.000567 0.0017425
-0.00021277 0.001884 -0.0010133 0.00014938
1.4837e-05 -0.0025534 -0.0018284 -0.0016498 -0.00052838 0.0017783 0.032505 0.2826
0.018767 -0.010657 -0.0029943 0.005657
-0.0041137 -0.00042045 -0.0023243 0.0027907 -0.0002385 0.001909 0.018776 -0.010703
-0.026286 0.20959 0.017575 -6.3024e-05
-0.0010513 0.0040486 -0.0012956 0.0018024 -0.00090504 0.00012991 -0.0030051 0.0057002
0.017562 -2.4909e-05 -0.043116 0.30516
1220000000 0.13584 0.29038 0.0095954 -0.030259 -0.001614 -0.0007232 -0.00013977 -0.0011757
-0.0026058 0.0025661 0.0013249 0.0019484
0.0096364 -0.030146 -0.039619 0.3907 -0.017218 -0.020679 -0.0025131 0.000501
0.00042434 0.0030003 -0.00059421 0.0018225
-0.001617 -0.00072721 -0.017304 -0.020652 0.28908 0.2049 0.00098806 0.0016432
0.00074286 0.001089 0.00030526 0.00066022
-0.00022147 -0.0011514 -0.0025196 0.00053871 0.0010217 0.0015863 0.072287 0.27378
0.0084381 -0.015972 0.0026426 0.0018763
-0.0026712 0.00257 0.00043189 0.0029901 0.0007189 0.0010252 0.0084198 -0.016035
-0.0029468 0.21948 0.013195 -0.012855
0.0011936 0.0019288 -0.00062439 0.0018374 0.00025747 0.00074369 0.0026426 0.0018885
0.013176 -0.012929 -0.01087 0.32153
1280000000 0.18556 0.26753 -0.008675 -0.028215 -0.0017821 0.002593 -0.0011238 -0.0020977
-0.00057451 0.003247 0.0026063 0.0010071
-0.0086344 -0.028285 0.0065196 0.38151 -0.023707 -0.0080036 -0.00096865 0.0015147
0.0018205 0.0015558 0.00056689 0.0019462
-0.0018178 0.0026037 -0.023777 -0.0079276 0.31906 0.16063 0.0014553 -0.00026367
0.00097029 -5.732e-06 0.0003081 0.00037038
-0.0011429 -0.0020156 -0.00091874 0.0015172 0.0014026 -0.0002084 0.10866 0.25751
-0.00069699 -0.017069 0.00058152 0.00034056
-0.00054569 0.0031496 0.0018141 0.0015671 0.00098791 -2.4292e-05 -0.00073306 -0.017049
0.033881 0.22354 0.0024095 -0.014772
0.0026005 0.0010573 0.00056689 0.0019144 0.00025415 0.00045302 0.00055008 0.00034767
0.0024275 -0.014762 0.036753 0.323
1340000000 0.22245 0.23288 -0.018224 -0.018344 0.00097187 0.0044492 -0.0020456 -0.00072493
0.0015196 0.0025839 0.001658 -0.001554
-0.01821 -0.01839 0.04615 0.3724 -0.021375 0.0046061 2.1935e-05 0.0019284
0.0018014 0.0004775 0.0013663 0.0008051
0.00099827 0.0044228 -0.021374 0.0047311 0.34063 0.1127 0.00088978 -0.0010087
0.00053576 -0.00044206 0.00020479 0.00021315
-0.0020713 -0.0007048 3.3637e-05 0.0019108 0.00092325 -0.0009595 0.14146 0.23717
-0.0086185 -0.013539 0.0014211 0.00018149
0.0014905 0.0025867 0.0018048 0.00047169 0.00047243 -0.00042136 -0.008652 -0.013532
0.064945 0.2194 -0.0041547 -0.012993
0.0016216 -0.0015712 0.0013263 0.00079687 0.00023285 0.00020353 0.0013967 0.00018162
-0.0041793 -0.012987 0.075929 0.31822
1400000000 0.25497 0.19395 -0.023494 -0.0066969 0.0052009 0.0030806 -0.0021422 0.00083725
0.0025492 0.00067542 0.00013596 -0.0014049
-0.023496 -0.0066966 0.082969 0.35875 -0.014491 0.012577 0.001368 0.0011719
0.00081269 -0.00097778 0.0011624 0.00022122
0.0052778 0.0030819 -0.014428 0.012668 0.35311 0.059233 -5.2044e-05 -0.001497
-5.3451e-05 -0.00032165 0.00032232 0.00028512
-0.0021035 0.00080961 0.001409 0.0011307 -6.9687e-05 -0.0015013 0.1712 0.20875
-0.013249 -0.0070139 -0.00034131 -0.00060224
0.0025952 0.00062119 0.00087058 -0.0010254 -5.1132e-05 -0.00033348 -0.013264 -0.0069845
0.098581 0.21455 -0.010357 -0.007953
0.00010512 -0.0013585 0.0011973 0.00021795 0.00033582 0.00027503 -0.00035564 -0.00062193
-0.01033 -0.0079734 0.12066 0.30698
1460000000 0.27715 0.14926 -0.020205 0.0053641 0.0055654 -0.0018405 -0.0015012 0.0018642
0.002038 -0.00086417 -0.00037501 -0.00091972
-0.020182 0.0053196 0.11686 0.33649 -0.0057838 0.015197 0.0016148 0.00010806
0.00062232 -0.0011199 0.001133 -0.00063988
0.0055509 -0.0019179 -0.0057282 0.015246 0.35901 0.0052083 -0.0011772 -0.0010951
0.00024452 -0.00011915 0.00066596 -0.00036403
-0.0014555 0.0018935 0.001631 7.6365e-05 -0.0011902 -0.0010751 0.19808 0.1797
-0.013112 -0.0012167 -0.00083405 0.0014911
0.0020252 -0.00077382 0.00060942 -0.0010861 0.00027157 -0.00011765 -0.013153 -0.0011953
0.12908 0.19974 -0.011505 -0.0023484
-0.00043577 -0.00092526 0.0011427 -0.00066543 0.00066583 -0.0003403 -0.00079099 0.0014816
-0.011523 -0.0023844 0.15376 0.28576
1520000000 0.28863 0.10696 -0.014237 0.010773 0.003194 -0.0042072 0.00025214 0.0026184
0.0016445 -0.0018409 -0.0011757 -8.1801e-05
-0.014231 0.010769 0.14985 0.32134 0.0016723 0.012918 0.0015237 -0.00081667
-2.5271e-05 -0.00078579 0.00027052 -0.00098995
0.0031698 -0.004241 0.0017612 0.012932 0.35213 -0.050967 -0.00088309 -0.0002394
0.00061904 -0.00082496 1.6988e-05 -0.00010553
0.00032029 0.0026409 0.0015142 -0.00077406 -0.00093877 -0.00020843 0.22198 0.14142
-0.011656 0.0032078 0.0012473 0.0016142
0.0016506 -0.0018497 -2.9384e-05 -0.00076002 0.00054657 -0.00079245 -0.011645 0.0032282
0.15782 0.18445 -0.011295 0.0021136
-0.0012076 -0.00012113 0.00027005 -0.0009658 -8.3439e-06 -6.1245e-05 0.0012456 0.0016208
-0.011287 0.002107 0.18719 0.26529
1580000000 0.29709 0.060259 -0.0074736 0.013542 -0.00099904 -0.0048533 0.0015387 0.0017712
-0.00059514 -0.0020642 -0.0002576 0.00039796
-0.007502 0.01352 0.17657 0.29646 0.0052468 0.0080874 0.00041457 -0.0015018
-0.00032693 -0.00080687 -0.000272 -0.00085168
-0.0010565 -0.0048111 0.0052824 0.0080529 0.33194 -0.10835 -0.0013788 0.00059808
-0.0002846 -0.0010578 0.00011474 -0.0005346
0.0015299 0.0017874 0.00044897 -0.0014994 -0.001329 0.00050385 0.23655 0.10134
-0.0083731 0.0065306 0.0019516 0.00046207
-0.00057688 -0.0020556 -0.00029697 -0.00084553 -0.00026166 -0.0010663 -0.0083942 0.0065329
0.18254 0.16541 -0.0087469 0.0074701
-0.00032479 0.00044379 -0.00019453 -0.00086168 0.00014353 -0.00060091 0.0019365 0.00048872
-0.0087521 0.0074314 0.21943 0.2386
1640000000 0.29816 0.018668 -0.00087435 0.012167 -0.0027866 -0.0025125 0.0026016 0.00084972
-0.00096544 -0.0010188 -0.00027558 0.00066713
-0.00085418 0.012157 0.20564 0.27139 0.0058269 0.0033835 -0.00068971 -0.0015912
-0.00078674 -0.0004338 -0.00053158 -0.00066702
-0.0028235 -0.0025392 0.0058683 0.0033293 0.30359 -0.15741 -0.00068026 0.0012402
-0.0010483 -0.00079787 -0.0001005 -0.00036594
0.0026335 0.00086066 -0.0007124 -0.0016027 -0.00067775 0.0012494 0.24908 0.051492
-0.0049574 0.006537 0.0021576 -0.00087717
-0.00095081 -0.0010065 -0.0007678 -0.0004367 -0.0010665 -0.00077636 -0.0049559 0.0065535
0.20576 0.13927 -0.0040077 0.009329
-0.00027165 0.00062731 -0.00063447 -0.00068882 -0.00013005 -0.00037691 0.0021399 -0.00089684
-0.0040158 0.0093256 0.24544 0.20736
1700000000 0.28969 -0.026556 0.0024413 0.0091086 -0.0034641 7.8709e-05 0.0028656 -0.0011792
-0.0017621 -0.00030212 0.00063111 0.00035258
0.0024071 0.0090902 0.22333 0.24 0.0038581 0.00056834 -0.0013625 -0.00054322
-0.00068336 -0.00014222 -0.00092479 -0.00042392
-0.0035006 0.00012611 0.0038566 0.00051001 0.2602 -0.1973 0.00026561 0.0013925
-0.0017555 -0.00023902 -0.00065427 -0.00095917
0.0028283 -0.0012846 -0.0013632 -0.00053699 0.00036241 0.0014469 0.24556 0.00051133
-0.0034544 0.0063445 0.0012734 -0.0021041
-0.0017439 -0.00024852 -0.00066497 -0.00014754 -0.0016662 -0.00024992 -0.0034629 0.0063624
0.22289 0.11706 0.00067809 0.0094624
0.00061272 0.00043217 -0.00095954 -0.00040451 -0.00070235 -0.00089295 0.0012134 -0.0021157
0.00067697 0.009452 0.26188 0.17264
1760000000 0.27642 -0.074681 0.0044441 0.0057927 -0.0023417 0.00089427 0.0012264 -0.0033562
-0.00091328 0.00070686 0.0003669 -0.00045431
0.0044346 0.0057683 0.24901 0.20029 0.0015423 -0.0011695 -0.0010803 0.00016922
-0.0011506 0.00068011 -0.00064861 0.00052771
-0.0023091 0.00087824 0.0015336 -0.0011739 0.21119 -0.23083 0.00099608 0.0012882
-0.0011288 0.0012514 -0.0014913 -0.00042699
0.0011993 -0.0032878 -0.0010575 0.00018501 0.00099116 0.0012132 0.23523 -0.051713
-0.0016727 0.0055954 -0.000649 -0.0022173
-0.00086664 0.00079476 -0.0011587 0.00070365 -0.0010951 0.0012607 -0.0016497 0.005597
0.23758 0.079861 0.0043002 0.0064627
0.00037745 -0.0005351 -0.0006053 0.00050945 -0.0014836 -0.00046081 -0.00061622 -0.0022108
0.0043006 0.0064765 0.2747 0.13477
1820000000 0.25093 -0.11126 0.0044418 0.002249 -0.00013499 0.0025293 -0.0010415 -0.002981
-0.0006967 0.00051804 -2.1824e-05 -0.00011534
0.004426 0.0022466 0.25875 0.17027 -0.0004046 6.3829e-05 -0.001377 0.00075773
-0.00028297 0.0012378 -0.00052363 0.00055262
-0.00013785 0.0024394 -0.00034612 1.6968e-05 0.16057 -0.24643 0.001456 0.00050001
-0.00036437 0.0020463 -0.0013478 0.00066603
-0.0010861 -0.0030073 -0.0013456 0.00081085 0.0014497 0.00053387 0.20386 -0.09924
-0.0011972 0.0044166 -0.0017657 -0.0013541
-0.0007688 0.00050072 -0.0002949 0.0012982 -0.00041287 0.0020455 -0.0012092 0.0044135
0.25325 0.048363 0.0051262 0.002865
2.2779e-05 -9.9981e-05 -0.00050988 0.00057185 -0.0011679 0.00066064 -0.0018159 -0.0013037
0.0050978 0.0028667 0.27704 0.098229
1880000000 0.21515 -0.1504 0.0021283 0.00016536 -0.00036937 0.002163 -0.0028335 -0.0021149
-0.00033391 0.0012761 0.0002848 -0.00055675
0.002116 0.00016098 0.26306 0.12385 -0.0022611 0.0016851 -0.00026316 0.0016881
0.00045711 0.0014092 0.00020692 0.00096801
-0.00028006 0.0022271 -0.0022171 0.001678 0.1086 -0.25569 0.0018939 -0.00096808
0.0014173 0.0019757 -0.00090796 0.001536
-0.0029078 -0.0020704 -0.00026718 0.0017177 0.0019017 -0.00089036 0.16209 -0.13858
-0.0014628 0.0035692 -0.0024159 0.00074108
-0.00031307 0.0012999 0.00048544 0.0014428 0.0013323 0.0020459 -0.0014661 0.0035772
0.254 0.013537 0.0046051 0.00072555
0.00030354 -0.00051815 0.0002102 0.00096718 -0.0010065 0.0015036 -0.0024225 0.00079557
0.0046044 0.00073551 0.27679 0.063936
1940000000 0.17587 -0.17524 -0.00015894 -0.0013704 0.0012941 0.0019489 -0.0036425 0.00058868
0.0010074 0.00098486 -0.00067822 -0.00054628
-9.6693e-05 -0.0014051 0.26342 0.092032 -0.0010854 0.0037616 0.00088425 0.0013666
0.0019415 0.0007507 0.0008765 0.00028562
0.001301 0.0020127 -0.0010245 0.0038775 0.062709 -0.24954 0.00032434 -0.0023645
0.002377 0.0006237 0.00045334 0.0016382
-0.0037065 0.0006034 0.00090498 0.0014385 0.00039781 -0.0023686 0.10891 -0.1677
-0.0027524 0.0036124 -0.001241 0.001911
0.0010303 0.0010284 0.0019289 0.00079832 0.0023662 0.00058761 -0.0027342 0.0036364
0.25284 -0.027112 0.0031462 -0.0023958
-0.00064096 -0.00054438 0.00092808 0.00029509 0.00054403 0.001545 -0.001292 0.001938
0.0031639 -0.0024103 0.26553 0.027736
2000000000 0.12984 -0.18883 -0.0038442 0.00067862 0.0024468 0.0016599 -0.0022767 0.0035771
0.00095554 0.00041948 -0.00059672 0.00042005
-0.0037982 0.00067836 0.24901 0.05654 -0.00097892 0.005519 0.0017167 0.00034781
0.0017359 -0.0013759 0.00051961 0.00010244
0.0024954 0.0015776 -0.00092667 0.0055832 0.018771 -0.23508 -0.0013234 -0.0014398
0.0021192 -0.0011998 0.0017082 0.0012127
-0.0021717 0.0036814 0.0016926 0.0003655 -0.0014142 -0.0015103 0.055429 -0.17608
-0.0041907 0.0048222 0.00014782 0.0023551
0.00094302 0.00051815 0.0017003 -0.0013608 0.0022238 -0.0011979 -0.0042118 0.0048145
