!Keysight Technologies,M9804A,MY58100912,A.14.10.03
!Date: Thursday, April 27, 2023 10:28:33
!Correction: S11(C  6-Port  ) 
!S12(C  6-Port  ) 
!S13(C  6-Port  ) 
!S14(C  6-Port  ) 
!S15(C  6-Port  ) 
!S16(C  6-Port  ) 
!S21(C  6-Port  ) 
!S22(C  6-Port  ) 
!S23(C  6-Port  ) 
!S24(C  6-Port  ) 
!S25(C  6-Port  ) 
!S26(C  6-Port  ) 
!S31(C  6-Port  ) 
!S32(C  6-Port  ) 
!S33(C  6-Port  ) 
!S34(C  6-Port  ) 
!S35(C  6-Port  ) 
!S36(C  6-Port  ) 
!S41(C  6-Port  ) 
!S42(C  6-Port  ) 
!S43(C  6-Port  ) 
!S44(C  6-Port  ) 
!S45(C  6-Port  ) 
!S46(C  6-Port  ) 
!S51(C  6-Port  ) 
!S52(C  6-Port  ) 
!S53(C  6-Port  ) 
!S54(C  6-Port  ) 
!S55(C  6-Port  ) 
!S56(C  6-Port  ) 
!S61(C  6-Port  ) 
!S62(C  6-Port  ) 
!S63(C  6-Port  ) 
!S64(C  6-Port  ) 
!S65(C  6-Port  ) 
!S66(C  6-Port  ) 
!S6P File: Measurement: :
# Hz S  RI   R 50
500000000 -0.33371 -0.029223 -0.0084242 -0.0044598 -0.0076643 0.010788 -0.0033736 0.011427
0.011779 0.0047319 -0.0037237 0.0080273
-0.0084198 -0.0044634 -0.41841 -0.048701 0.007607 -0.012117 0.0015737 0.010853
0.0077065 0.0026161 0.00153 0.011887
-0.0076724 0.010786 0.0076098 -0.012143 -0.26431 0.21193 0.0070021 0.0027541
0.00064778 0.0081408 0.00092994 0.011575
-0.0033638 0.01143 0.0015933 0.010856 0.0070044 0.0027551 -0.32593 0.04967
-0.018878 -0.004915 0.017798 0.024835
0.011799 0.0047083 0.0077153 0.0025919 0.00065825 0.0081337 -0.01888 -0.0049139
-0.22772 -0.17691 -0.027248 0.004696
-0.0037099 0.007992 0.0015706 0.011911 0.00094635 0.011594 0.017788 0.024878
-0.027237 0.0046763 -0.27382 -0.12219
560000000 -0.3101 0.12655 -0.023653 -0.064037 2.0922e-05 0.012179 0.0065196 0.0097058
0.011545 0.0035263 0.0092542 0.0068275
-0.023602 -0.063948 -0.37611 0.10973 -0.041729 -0.03665 0.014003 0.0040247
-0.012737 -0.0049596 0.0049278 -0.0005071
3.4849e-05 0.012174 -0.041869 -0.03662 -0.18247 0.25971 -0.00076768 -0.0052749
0.018684 0.0042479 0.007232 -0.0061178
0.0065336 0.0097161 0.014073 0.0040163 -0.00076861 -0.0052771 -0.30041 0.13716
0.0050913 -0.025175 0.0049232 -0.018951
0.01158 0.0034707 -0.012771 -0.0049363 0.018671 0.0042597 0.0050937 -0.025128
-0.28413 -0.0040694 0.0075004 -0.050867
0.0092912 0.0068114 0.0049037 -0.00051392 0.0072175 -0.0061175 0.0048751 -0.018955
0.0075224 -0.050868 -0.33226 0.024598
620000000 -0.26863 0.11031 -0.023125 0.0058981 0.0031975 0.008503 0.0070279 -0.0060968
0.010651 -0.00090792 0.00044316 -0.0021762
-0.023114 0.0058962 -0.40256 0.063561 -0.019239 -0.00024018 -0.0016736 -0.0020983
0.010118 -0.0070554 0.00053141 -0.0028817
0.0032446 0.0084553 -0.019253 -0.00018453 -0.15271 0.26842 -0.0020142 -0.005257
-0.0033602 -0.0030061 0.0080858 -0.0036434
0.0070649 -0.0061031 -0.0016716 -0.0020947 -0.0020108 -0.0052643 -0.25882 0.14645
-0.038716 -0.01884 0.014668 0.023979
0.010634 -0.00094184 0.010108 -0.0070825 -0.0033726 -0.0030022 -0.038804 -0.01885
-0.20383 -0.043804 -0.039439 0.013541
0.00052353 -0.0021893 0.00051872 -0.0028757 0.0080786 -0.0036193 0.014681 0.023936
-0.039444 0.013536 -0.25144 -0.01197
680000000 -0.22831 0.19067 -0.028362 -0.015099 0.0048948 0.005288 0.00027137 -0.0079909
-0.0038427 -0.010989 0.0040186 -0.0068986
-0.028332 -0.015108 -0.38676 0.16029 -0.033074 -0.0011183 -0.0018849 -0.00044844
-0.0029772 -0.0087671 -0.00088561 -0.0024315
0.0049233 0.0052858 -0.0331 -0.0010301 -0.10197 0.28754 -0.00068673 0.00022563
-0.0024622 0.00099076 -0.0029593 -0.0096254
0.00025112 -0.0080031 -0.0018771 -0.00045401 -0.00068591 0.00022889 -0.21766 0.19496
-0.023668 -0.0089929 -0.011099 -0.0098456
-0.0038745 -0.011002 -0.0030166 -0.0087833 -0.0024537 0.00098689 -0.023699 -0.0089489
-0.24832 0.053475 -0.0049744 -0.0097435
0.0039896 -0.0068997 -0.00089115 -0.0024453 -0.0029699 -0.0096235 -0.011112 -0.0098558
-0.0049638 -0.0097438 -0.26143 0.091464
740000000 -0.18785 0.18542 -0.039142 0.025762 0.012544 -0.0050153 -0.0010109 -0.0039791
-0.0043501 -0.0019037 -0.0061488 0.0035069
-0.039142 0.025742 -0.33513 0.17933 -0.03483 0.035175 -0.000836 -0.006274
-0.011303 0.0084629 -0.0027008 -0.0062804
0.012559 -0.0050382 -0.034759 0.035324 -0.068637 0.28692 -0.0011588 0.0034934
-0.0031076 -0.0034541 -0.00065174 0.00068977
-0.00098081 -0.0039649 -0.00082639 -0.006295 -0.0011717 0.0034883 -0.20134 0.20273
-0.042626 -0.0077604 0.022436 0.012397
-0.0043623 -0.0019385 -0.011297 0.0085449 -0.0031032 -0.0034794 -0.042654 -0.0076869
-0.15608 0.073819 -0.042388 0.0013536
-0.0061518 0.0035043 -0.002743 -0.0062764 -0.00063674 0.0007015 0.022484 0.012362
-0.042382 0.0013417 -0.24986 0.09895
800000000 -0.15769 0.22544 -0.023621 0.017376 0.0052933 -0.010526 -0.0049922 -0.00185
-0.0039799 0.0030918 0.0043781 0.00074116
-0.023618 0.017358 -0.33722 0.24956 -0.0077526 0.034326 -0.0018957 0.0022736
-0.00025146 0.0036119 0.0012436 0.005214
0.0052608 -0.010538 -0.007648 0.03439 -0.027455 0.30998 0.0012957 0.0014515
0.00083359 0.0035248 -0.0019121 0.0010682
-0.0049982 -0.0018466 -0.0018883 0.0022832 0.0013017 0.0014462 -0.17414 0.23056
-0.028934 0.012568 0.01294 -0.0096731
-0.0039665 0.0031286 -0.00022965 0.0036109 0.00084616 0.0035253 -0.028936 0.012632
-0.19782 0.098844 -0.018002 0.017139
0.0043901 0.00070056 0.0012546 0.0052139 -0.0019133 0.0010687 0.012943 -0.0096841
-0.018005 0.01712 -0.24367 0.15242
860000000 -0.12374 0.24776 -0.017643 0.031988 -0.0033843 -0.0099026 -0.0026227 0.0015373
0.0047095 0.0050797 -0.0027661 -0.0029711
-0.017646 0.031947 -0.289 0.29144 0.0085347 0.034345 0.00042223 0.0020919
0.0051042 0.0001018 0.0033629 0.00052329
-0.0034228 -0.0099038 0.008647 0.03435 0.02129 0.31802 -0.00029194 -0.00038701
0.0029563 -0.001563 0.0014824 0.0045618
-0.0026241 0.0015274 0.00044102 0.0020905 -0.0002937 -0.00038594 -0.13879 0.24281
-0.018029 0.018643 -0.006156 -0.009275
0.0047302 0.0050693 0.0051068 7.4322e-05 0.0029478 -0.0015786 -0.01799 0.018714
-0.15033 0.14608 -0.023861 0.015725
-0.0027699 -0.0029505 0.0033717 0.00053083 0.001494 0.0045621 -0.0061688 -0.0092692
-0.023867 0.015715 -0.19326 0.19474
920000000 -0.098775 0.2723 0.004806 0.038783 -0.0095554 -0.004086 -0.0015919 0.0026747
0.0013825 0.0014991 0.0023561 -0.0012693
0.0047854 0.038754 -0.25999 0.31214 0.028487 0.021663 0.0016663 0.00091173
0.0066694 -0.00089671 0.0037444 -0.0027909
-0.0095798 -0.0040453 0.028593 0.021601 0.067992 0.31842 0.0016965 -0.00019252
0.0013652 -0.0005142 0.00083988 -0.0010907
-0.0015996 0.0026823 0.0016685 0.00092439 0.0016912 -0.00019166 -0.11442 0.2596
-0.01034 0.03008 0.0021859 -0.0064035
0.0013893 0.0015029 0.006679 -0.00093317 0.0013794 -0.0005139 -0.010284 0.030119
-0.13931 0.153 -0.0023233 0.027409
0.0023495 -0.001303 0.0037497 -0.0028114 0.00084854 -0.0010975 0.0021669 -0.006416
-0.0023371 0.027409 -0.19905 0.20958
980000000 -0.050995 0.29224 0.018286 0.030863 -0.008736 0.0049268 0.0027512 0.003755
0.0040257 -0.00189 -0.0028614 -0.0019333
0.018257 0.030872 -0.20711 0.34566 0.033278 0.004319 0.0019427 -0.000213
0.00074987 -0.0062043 -0.00049078 -0.0023175
-0.0087251 0.0049523 0.033335 0.0042454 0.11459 0.31151 0.00033424 -0.001239
-0.0001134 -0.0021577 0.0016711 -8.7987e-05
0.0027677 0.0037416 0.0019435 -0.00019833 0.00033417 -0.0012389 -0.076073 0.27166
0.0074499 0.028862 -0.00939 -0.0064382
0.0040109 -0.0019136 0.00073365 -0.0062292 -0.00011443 -0.0021505 0.0075133 0.028859
-0.10857 0.18002 0.0051968 0.018698
-0.0028861 -0.0019392 -0.00051581 -0.0023133 0.0016701 -9.8147e-05 -0.0094098 -0.0064169
0.0051918 0.018687 -0.15642 0.25349
1040000000 -0.0078524 0.30088 0.033945 0.018054 -0.00086649 0.0070347 0.0031362 0.00057451
-4.7794e-05 -0.0037937 -0.00055027 -0.001174
0.033917 0.018074 -0.1713 0.35865 0.029164 -0.015358 0.0013716 -0.0017388
-0.0028323 -0.0021247 -0.0015292 -0.0027137
-0.00085009 0.0070342 0.029153 -0.015471 0.16101 0.29739 -0.00057344 -0.0013462
-0.0016541 -0.00077027 -0.00038343 -0.001195
0.0031407 0.00055508 0.0013825 -0.0017437 -0.00057496 -0.0013532 -0.04791 0.2817
0.01855 0.01702 -0.0032261 0.0023809
-8.0711e-05 -0.0037875 -0.002849 -0.0021415 -0.0016453 -0.0007701 0.0186 0.01699
-0.077767 0.18875 0.013445 0.017795
-0.00054955 -0.0011919 -0.0015354 -0.0026764 -0.00038289 -0.0011892 -0.003229 0.0023927
0.013442 0.017789 -0.13428 0.27455
1100000000 0.038043 0.30822 0.036353 -0.0045944 0.003265 0.0036764 0.0026392 -0.0017953
-0.0022614 -0.0029655 -0.003662 0.00010971
0.036338 -0.0045696 -0.12777 0.37545 0.014629 -0.028153 -7.4277e-05 -0.0018269
-0.0030928 -0.0001555 -0.0034288 -0.00044591
0.0032854 0.0036642 0.014537 -0.028235 0.20764 0.27638 -0.0017747 0.00032985
-0.0016082 0.00076196 -0.00096702 -0.00040634
0.0026341 -0.0018052 -8.4112e-05 -0.0018299 -0.0017733 0.00033156 -0.0068575 0.28655
0.022637 0.0046248 -0.0021824 0.001396
-0.0022802 -0.0029478 -0.0031027 -0.0001444 -0.0016054 0.00077142 0.022652 0.0045914
-0.059352 0.20213 0.018475 0.0083279
-0.0036617 0.00011042 -0.0034393 -0.00041899 -0.00097424 -0.00041061 -0.0021751 0.001398
0.018462 0.0083295 -0.087184 0.3037
1160000000 0.089641 0.30309 0.02425 -0.021267 0.0028699 -0.00079 -0.00018378 -0.0028253
-0.0041587 -0.00017127 -0.00077771 0.0040083
0.024261 -0.021227 -0.083496 0.37955 -0.0042931 -0.029078 -0.0018303 -0.0015006
-0.0021092 0.0026915 -0.0013248 0.0016015
0.0028827 -0.00080181 -0.0044126 -0.029079 0.25062 0.24479 -0.00046329 0.0017402
-0.00027157 0.0017169 -0.0010801 7.1438e-05
-0.00017768 -0.0028282 -0.001829 -0.0014901 -0.00046012 0.0017334 0.032999 0.28347
0.01889 -0.010136 -0.0025289 0.0059157
-0.0041741 -0.00016032 -0.002097 0.0027032 -0.00025849 0.0017351 0.018906 -0.010156
-0.02611 0.21219 0.017211 0.00012825
-0.00075246 0.0040174 -0.0013286 0.0016242 -0.0010747 6.9989e-05 -0.0025104 0.0059297
0.01721 0.00013499 -0.040591 0.30662
1220000000 0.13453 0.29164 0.010307 -0.030405 -0.0016145 -0.0011732 -0.00042777 -0.0011972
-0.0023664 0.002721 0.0013763 0.0017801
0.010316 -0.03036 -0.039017 0.39082 -0.01728 -0.020743 -0.0024982 0.00055245
0.00051832 0.002755 -0.00065156 0.0018085
-0.0016141 -0.001173 -0.017388 -0.02068 0.28938 0.20505 0.0010049 0.0014619
0.00065785 0.0010839 0.00016378 0.00070572
-0.00043206 -0.001209 -0.0024934 0.00057203 0.0010127 0.0014612 0.072975 0.27428
0.0086488 -0.015531 0.0031953 0.0018546
-0.0023561 0.0027295 0.00053479 0.0027558 0.00064796 0.0010902 0.0086317 -0.01554
-0.0019248 0.22216 0.013112 -0.012409
0.0013792 0.0017936 -0.00064147 0.0018154 0.0001613 0.00071028 0.0032008 0.0018463
0.01312 -0.012411 -0.0078535 0.32249
1280000000 0.18422 0.26934 -0.0080947 -0.028674 -0.0019753 0.0022755 -0.0013163 -0.0018448
-0.00030348 0.0031206 0.0024578 0.00084144
-0.0080663 -0.028641 0.0070921 0.38125 -0.023725 -0.0079496 -0.00082612 0.0014962
0.0016743 0.001362 0.00051859 0.0019505
-0.0019683 0.0022799 -0.023802 -0.0078544 0.31939 0.1607 0.0013089 -0.00030077
0.00093282 6.1905e-05 0.00027334 0.00049794
-0.0013188 -0.0018413 -0.00083034 0.0015065 0.0013075 -0.00029926 0.10936 0.25776
-0.00030335 -0.016625 0.00096619 -5.3755e-05
-0.00028989 0.0031261 0.0016917 0.0013389 0.00092484 5.4761e-05 -0.00034318 -0.016633
0.035811 0.22607 0.0025804 -0.014294
0.002461 0.00083658 0.00052023 0.0019428 0.00027347 0.00049852 0.00096623 -5.2033e-05
0.0025786 -0.014292 0.039577 0.3236
1340000000 0.22186 0.23542 -0.017891 -0.019052 0.00063061 0.0042625 -0.0019548 -0.00046668
0.0016008 0.002368 0.0014683 -0.0015449
-0.017857 -0.019046 0.04658 0.372 -0.021302 0.0046362 4.2433e-05 0.0018401
0.0015745 0.00053716 0.0013776 0.0007987
0.00064282 0.0042578 -0.021293 0.0047382 0.34092 0.11281 0.00079506 -0.00091942
0.00054064 -0.00035726 0.00029886 0.00028798
-0.0019573 -0.00045556 4.8984e-05 0.0018464 0.00080242 -0.00091348 0.14208 0.23725
-0.0080311 -0.013344 0.0015389 -0.00030672
0.0016109 0.0023629 0.0015927 0.00052568 0.00054427 -0.00036488 -0.008058 -0.013339
0.067492 0.22121 -0.0037126 -0.012548
0.0014673 -0.0015492 0.0013974 0.00078962 0.00030129 0.00028664 0.0015434 -0.00031017
-0.0037054 -0.012555 0.079098 0.31841
1400000000 0.25525 0.19685 -0.023525 -0.007407 0.0048585 0.0031422 -0.0018819 0.00089411
0.0024228 0.00037737 7.494e-05 -0.001235
-0.023486 -0.0074193 0.083246 0.35821 -0.014414 0.012522 0.0013046 0.0010936
0.00074158 -0.00082091 0.0012111 0.00022108
0.0048732 0.0031349 -0.014368 0.012616 0.35357 0.059298 -2.3364e-05 -0.0013773
2.2978e-05 -0.00034223 0.00035417 0.0002577
-0.001883 0.00090119 0.0013115 0.0010933 -1.9312e-05 -0.0013735 0.17181 0.20871
-0.012531 -0.0070517 -0.00045924 -0.0011359
0.0024161 0.00036281 0.00074373 -0.00082681 2.0332e-05 -0.00034246 -0.012542 -0.0070262
0.10147 0.21574 -0.0097345 -0.0077695
6.9966e-05 -0.0012349 0.0012104 0.00021252 0.0003568 0.00025449 -0.00045907 -0.0011465
-0.0097271 -0.0077791 0.12385 0.30682
1460000000 0.27878 0.15222 -0.020488 0.0047057 0.0052963 -0.001587 -0.0012784 0.0017327
0.0017052 -0.0009339 -0.00038213 -0.00073365
-0.020477 0.0046909 0.11678 0.33588 -0.0058481 0.015058 0.0015597 0.00011761
0.00068297 -0.00094294 0.0011086 -0.0006465
0.005297 -0.0016149 -0.0057762 0.015103 0.35924 0.0048494 -0.0010466 -0.0010551
0.00023508 -0.00017303 0.00068034 -0.00038412
-0.0012755 0.0017341 0.0015693 0.00011577 -0.0010564 -0.0010517 0.19864 0.17953
-0.012452 -0.0015856 -0.0012071 0.0011499
0.0016979 -0.00095792 0.00067012 -0.00095108 0.00023733 -0.00017082 -0.012467 -0.0015615
0.13203 0.20003 -0.010998 -0.0024667
-0.00039223 -0.00073775 0.0010972 -0.00065346 0.00068475 -0.00038831 -0.0011949 0.001147
-0.011002 -0.0024806 0.15707 0.28518
1520000000 0.29152 0.10924 -0.014734 0.010353 0.0030386 -0.0038677 0.00027623 0.0023465
0.0013499 -0.0016446 -0.0010722 -8.4314e-05
-0.014725 0.010338 0.14962 0.32086 0.0016005 0.01284 0.0015017 -0.00075895
0.00013168 -0.0007656 0.0002391 -0.0010138
0.0030159 -0.0038713 0.0016732 0.012845 0.35219 -0.051203 -0.00080156 -0.00029528
0.00050713 -0.0007783 -1.2575e-05 -8.2042e-05
0.0002791 0.002342 0.0015022 -0.00076748 -0.00080077 -0.00029273 0.22248 0.14112
-0.011254 0.0025409 0.00079613 0.0015464
0.0013424 -0.0016478 0.00012223 -0.00076178 0.00051353 -0.00077961 -0.011251 0.0025697
0.16066 0.18417 -0.010794 0.0017552
-0.0010664 -7.4256e-05 0.00022536 -0.0010094 -1.0538e-05 -8.2702e-05 0.000798 0.0015433
-0.010799 0.0017593 0.19022 0.26419
1580000000 0.30087 0.061308 -0.0081131 0.013322 -0.00086127 -0.0045961 0.0012803 0.0015882
-0.00064492 -0.001764 -0.00027637 0.00031881
-0.0081152 0.013308 0.17622 0.2961 0.0051551 0.0080574 0.00045097 -0.0014661
-0.00024905 -0.00094044 -0.00034648 -0.00085914
-0.00088416 -0.0045965 0.0052064 0.0080327 0.33174 -0.1087 -0.0013712 0.0004395
-0.0002791 -0.00099538 0.00016834 -0.00056841
0.00129 0.0015853 0.0004426 -0.0014637 -0.0013698 0.0004386 0.23703 0.10088
-0.0083146 0.0057074 0.0015577 0.00062412
-0.00066087 -0.0017707 -0.00025322 -0.00093218 -0.00029118 -0.0009987 -0.0083071 0.0057314
0.18513 0.16467 -0.0084873 0.006937
-0.0002739 0.00032695 -0.00035307 -0.00085361 0.0001643 -0.00056852 0.0015569 0.00062624
-0.0084921 0.0069313 0.22205 0.23703
1640000000 0.30228 0.01792 -0.001497 0.012295 -0.0026267 -0.0023225 0.0022802 0.00098824
-0.00075889 -0.00079552 -0.00033518 0.00060103
-0.0015076 0.012287 0.20515 0.27116 0.005715 0.0033686 -0.00068369 -0.0015742
-0.00083576 -0.00054411 -0.00056274 -0.0005712
-0.0026233 -0.0023091 0.0057454 0.0033376 0.3035 -0.15742 -0.00081445 0.0011715
-0.0009691 -0.0007171 -2.5596e-05 -0.00028909
0.0022862 0.00097442 -0.00068571 -0.0015714 -0.00081452 0.001163 0.24934 0.050804
-0.0052758 0.0058085 0.0019376 -0.00058573
-0.00076215 -0.00079244 -0.0008398 -0.0005413 -0.00097997 -0.00071815 -0.0052629 0.0058175
0.20815 0.13822 -0.0039911 0.0087813
-0.0003352 0.00060226 -0.00056713 -0.00057008 -2.952e-05 -0.00029497 0.0019359 -0.00059176
-0.0039977 0.0087724 0.24768 0.20533
1700000000 0.29312 -0.029008 0.0019331 0.0094529 -0.0032264 0.00013984 0.0027669 -0.00086816
-0.0015204 -0.00031834 0.00055414 0.00046442
0.0019235 0.0094476 0.22278 0.23992 0.0037247 0.00057931 -0.0013424 -0.00058141
-0.00080358 -0.00015756 -0.00089997 -0.00032668
-0.0032083 0.00014886 0.0037407 0.00055727 0.26003 -0.1974 0.00016665 0.0014875
-0.0016667 -0.00031846 -0.0006411 -0.0009972
0.0027556 -0.00088278 -0.0013432 -0.00057372 0.00017276 0.0014905 0.24544 -0.00021833
-0.0040706 0.0058023 0.0012236 -0.0018191
-0.0015199 -0.00031545 -0.0008054 -0.0001476 -0.0016707 -0.0003141 -0.0040675 0.0058162
0.22511 0.11559 0.00051812 0.0089925
0.00056061 0.0004522 -0.00090109 -0.00031653 -0.00064274 -0.00099821 0.0012205 -0.0018258
0.00051786 0.0089966 0.26369 0.17035
1760000000 0.27854 -0.07855 0.0041142 0.0063163 -0.002053 0.00073922 0.0014488 -0.0031295
-0.00082137 0.00056337 0.00041093 -0.00029468
0.0041136 0.0063111 0.24845 0.20031 0.0014606 -0.0010684 -0.0011123 0.00015916
-0.0012401 0.00076353 -0.00055975 0.00053203
-0.0020396 0.00076278 0.0014543 -0.0010791 0.21071 -0.23063 0.0010294 0.0013516
-0.001087 0.0012313 -0.0013132 -0.00037923
0.001435 -0.0031312 -0.0011077 0.00016489 0.0010282 0.001357 0.2348 -0.052382
-0.0024474 0.0053786 -0.00056451 -0.0019899
-0.00080801 0.00057276 -0.0012345 0.00078098 -0.0010778 0.0012338 -0.0024312 0.0053799
0.23952 0.07791 0.0039299 0.0061529
0.00041579 -0.00030196 -0.00055317 0.00054731 -0.0013168 -0.00035919 -0.00057362 -0.001989
0.003931 0.0061549 0.27598 0.1324
1820000000 0.25107 -0.11549 0.0043677 0.0029075 1.8847e-05 0.0022255 -0.00072448 -0.00305
-0.00072148 0.00032036 0.0001577 -7.6445e-05
0.0043621 0.0029037 0.25815 0.17046 -0.00029807 9.3082e-05 -0.001362 0.00080111
-0.00025266 0.0014204 -0.00043466 0.00051804
3.3812e-05 0.0022268 -0.00029884 9.4064e-05 0.16106 -0.24612 0.0015337 0.00051877
-0.00044779 0.0020324 -0.0012797 0.00061191
-0.00074608 -0.0030507 -0.0013623 0.00080294 0.0015377 0.00052805 0.20322 -0.099522
-0.0020341 0.0046069 -0.0016524 -0.001141
-0.00072419 0.00033213 -0.00024696 0.0014325 -0.00045685 0.002028 -0.0020301 0.0046106
0.2547 0.046006 0.0046772 0.0026569
0.00014687 -7.7183e-05 -0.00043091 0.00052245 -0.0012859 0.00062074 -0.0016619 -0.0011436
0.004685 0.0026696 0.27776 0.095811
1880000000 0.21348 -0.15422 0.0022726 0.00080331 -0.00029277 0.0019265 -0.0028562 -0.002396
-0.00049534 0.001234 0.00052703 -0.00072489
0.0022705 0.00080349 0.26261 0.1243 -0.0021214 0.0017961 -0.00021255 0.001701
0.000654 0.0014814 0.00027729 0.00089505
-0.00028391 0.0019379 -0.0021036 0.001795 0.10899 -0.25539 0.0020114 -0.0010677
0.0013534 0.0020101 -0.00086248 0.0014535
-0.0028718 -0.002376 -0.00019826 0.0016934 0.002015 -0.001067 0.16138 -0.13846
-0.0021428 0.0041446 -0.0022511 0.00090919
-0.00049763 0.0012302 0.00066163 0.0014814 0.0013594 0.0019961 -0.0021315 0.0041383
0.25493 0.010859 0.004026 0.00073568
0.00050668 -0.00073397 0.00028326 0.00089079 -0.0008741 0.0014445 -0.0022468 0.00091414
0.0040328 0.00073402 0.27719 0.061544
1940000000 0.17264 -0.17789 0.00038972 -0.00085965 0.0011696 0.001854 -0.0039141 0.00046358
0.0009107 0.0011142 -0.00065704 -0.00077937
0.00039169 -0.00085934 0.26312 0.092627 -0.0010497 0.0038839 0.00096582 0.0013255
0.0021175 0.00060425 0.00084621 0.00018723
0.0011836 0.0018392 -0.0010238 0.003895 0.062813 -0.24925 0.00032906 -0.0025657
0.0024552 0.0005957 0.00035867 0.0015584
-0.0039097 0.00048167 0.00098489 0.0013204 0.00033582 -0.0025602 0.10843 -0.16718
-0.0030868 0.0044872 -0.0010193 0.0019476
0.00091716 0.0010982 0.0021288 0.00058397 0.0024532 0.00058888 -0.003085 0.0044953
0.25296 -0.029957 0.0027154 -0.0021884
-0.00066193 -0.00077355 0.00085252 0.00018278 0.00036296 0.0015493 -0.0010168 0.0019489
0.0027017 -0.0021797 0.26557 0.025359
2000000000 0.12609 -0.18969 -0.0031441 0.00094359 0.0023491 0.0016467 -0.0023512 0.003702
0.0010153 0.00059199 -0.00086389 0.0003199
-0.0031383 0.00093789 0.249 0.057113 -0.00080816 0.0054875 0.0017239 0.00023792
0.0017407 -0.0016346 0.00047425 9.9965e-05
0.0023717 0.0016104 -0.00077169 0.005494 0.019043 -0.23523 -0.0015917 -0.0014836
0.0021546 -0.0012942 0.0017467 0.0012722
-0.0023316 0.0037211 0.0017346 0.00022083 -0.0015901 -0.0014906 0.05539 -0.17543
-0.0040675 0.0056848 0.00031516 0.0021772
0.0010293 0.00058962 0.0017224 -0.0016541 0.0021551 -0.0013108 -0.0040598 0.0056875
