!Keysight Technologies,M9804A,MY58100912,A.14.10.03
!Date: Thursday, April 27, 2023 10:28:33
!Correction: S11(C  6-Port  ) 
!S12(C  6-Port  ) 
!S13(C  6-Port  ) 
!S14(C  6-Port  ) 
!S15(C  6-Port  ) 
!S16(C  6-Port  ) 
!S21(C  6-Port  ) 
!S22(C  6-Port  ) 
!S23(C  6-Port  ) 
!S24(C  6-Port  ) 
!S25(C  6-Port  ) 
!S26(C  6-Port  ) 
!S31(C  6-Port  ) 
!S32(C  6-Port  ) 
!S33(C  6-Port  ) 
!S34(C  6-Port  ) 
!S35(C  6-Port  ) 
!S36(C  6-Port  ) 
!S41(C  6-Port  ) 
!S42(C  6-Port  ) 
!S43(C  6-Port  ) 
!S44(C  6-Port  ) 
!S45(C  6-Port  ) 
!S46(C  6-Port  ) 
!S51(C  6-Port  ) 
!S52(C  6-Port  ) 
!S53(C  6-Port  ) 
!S54(C  6-Port  ) 
!S55(C  6-Port  ) 
!S56(C  6-Port  ) 
!S61(C  6-Port  ) 
!S62(C  6-Port  ) 
!S63(C  6-Port  ) 
!S64(C  6-Port  ) 
!S65(C  6-Port  ) 
!S66(C  6-Port  ) 
!S6P File: Measurement: :
# Hz S  RI   R 50
500000000 -0.33326 -0.029335 -0.00891 -0.0042915 -0.0079702 0.011299 -0.0042304 0.011129
0.01245 0.0042062 -0.0045547 0.0068705
-0.0088837 -0.0042137 -0.41881 -0.047782 0.0074109 -0.011528 0.0015499 0.011044
0.0078405 0.0027719 0.0014326 0.012439
-0.0078901 0.011255 0.0072729 -0.011591 -0.26457 0.21255 0.0068234 0.0030887
0.00032686 0.0088606 0.00065662 0.012037
-0.0043751 0.011592 0.0015011 0.011046 0.0068108 0.0031427 -0.32606 0.050735
-0.018326 -0.0057658 0.018046 0.025667
0.012546 0.0039378 0.0078488 0.0026158 0.0003185 0.0088318 -0.018281 -0.0056058
-0.22894 -0.1759 -0.025732 0.0037012
-0.0046387 0.0070321 0.0013631 0.012487 0.00068558 0.012053 0.017927 0.025739
-0.025809 0.0036674 -0.27347 -0.12141
560000000 -0.30939 0.12754 -0.023094 -0.063277 -0.00015896 0.012346 0.0071999 0.008751
0.012053 0.0031336 0.0090823 0.0077023
-0.023078 -0.063203 -0.37587 0.10994 -0.04191 -0.036276 0.013717 0.0034375
-0.012954 -0.0039178 0.0042785 -0.00067807
0.00018328 0.012164 -0.041797 -0.036151 -0.1824 0.25964 -0.00074635 -0.0047979
0.018257 0.003837 0.0070502 -0.0066211
0.0067653 0.0089315 0.013232 0.0028323 -0.00064987 -0.0047725 -0.30106 0.13757
0.004491 -0.025476 0.0057152 -0.019358
0.01199 0.0032558 -0.013089 -0.0038858 0.018327 0.0038309 0.0042285 -0.025117
-0.28581 -0.0039754 0.0075813 -0.050584
0.0090881 0.0074734 0.0040592 -0.0010659 0.0069675 -0.0065182 0.005806 -0.019436
0.0077164 -0.050642 -0.33137 0.024888
620000000 -0.26844 0.11089 -0.02253 0.0060982 0.0035811 0.0084818 0.0073075 -0.0061725
0.010553 -0.0010585 0.0010729 -0.0022312
-0.022461 0.0060345 -0.40228 0.064337 -0.018564 -0.00019497 -0.0015113 -0.0019577
0.010486 -0.0075452 0.00094333 -0.002674
0.0034617 0.0084474 -0.018654 -8.8658e-05 -0.15218 0.26863 -0.0015394 -0.0052324
-0.0039142 -0.0033603 0.0082518 -0.0038327
0.0072867 -0.006176 -0.0016198 -0.0019793 -0.001566 -0.0052482 -0.2599 0.14733
-0.038278 -0.019467 0.014137 0.023864
0.010307 -0.00061864 0.010558 -0.0074422 -0.0038651 -0.0033712 -0.03847 -0.019468
-0.20482 -0.04093 -0.039162 0.013694
0.0010751 -0.0021259 0.00088257 -0.0026841 0.0082954 -0.0037917 0.014247 0.023884
-0.039144 0.013645 -0.25216 -0.010981
680000000 -0.22762 0.19076 -0.028505 -0.015099 0.0046063 0.0051255 3.668e-05 -0.0077038
-0.0033347 -0.011076 0.0043128 -0.0069838
-0.028391 -0.015109 -0.38657 0.16103 -0.032649 -0.0010965 -0.0019093 -0.00044827
-0.0028747 -0.0086674 -0.00091563 -0.0026232
0.0047126 0.0050247 -0.032655 -0.0010035 -0.1014 0.28809 -0.00076873 0.00010971
-0.0023591 0.00089597 -0.0029873 -0.0096201
0.00033594 -0.0072415 -0.0019066 -0.00053611 -0.00080898 0.00010654 -0.21781 0.19604
-0.023233 -0.0087509 -0.010787 -0.0095344
-0.0033553 -0.011201 -0.0029819 -0.0085882 -0.0023781 0.00092454 -0.023395 -0.0088406
-0.24872 0.054138 -0.0045548 -0.01063
0.0041858 -0.0070672 -0.0010203 -0.0026047 -0.0029505 -0.0096525 -0.010738 -0.009654
-0.0045782 -0.01059 -0.26221 0.091948
740000000 -0.18703 0.18543 -0.03951 0.025424 0.012593 -0.005348 -0.0012596 -0.0041728
-0.0041011 -0.001906 -0.0063213 0.0027705
-0.039527 0.02538 -0.33479 0.18009 -0.034654 0.034853 -0.0007297 -0.0059774
-0.011726 0.0077874 -0.0026981 -0.0056265
0.012632 -0.0052948 -0.034643 0.034725 -0.067903 0.28714 -0.0014773 0.0036903
-0.0031106 -0.0037358 -0.0010195 0.0006724
-0.0012584 -0.0042706 -0.00093268 -0.0060486 -0.0015058 0.0036057 -0.20094 0.20377
-0.041851 -0.0078487 0.022356 0.012533
-0.004265 -0.0015231 -0.011703 0.0079181 -0.0030424 -0.003818 -0.041935 -0.0078757
-0.15747 0.075377 -0.041164 0.0010061
-0.0061937 0.002633 -0.0027335 -0.0058392 -0.0011296 0.00076132 0.022443 0.012748
-0.041143 0.00082794 -0.24997 0.10001
800000000 -0.15749 0.22549 -0.023603 0.01721 0.005041 -0.010305 -0.0049226 -0.0018698
-0.0038178 0.0032336 0.0039492 0.0011801
-0.023655 0.017186 -0.33681 0.25003 -0.0077821 0.034033 -0.002056 0.0024717
-0.00039378 0.0033575 0.00085197 0.0056643
0.0050917 -0.010256 -0.0076721 0.034094 -0.026483 0.31002 0.0013473 0.0015335
0.00070503 0.0038168 -0.0017712 0.0012606
-0.0049734 -0.0019224 -0.0020827 0.0024761 0.0013622 0.0015559 -0.17338 0.23115
-0.028353 0.012709 0.012791 -0.0096189
-0.0039474 0.0033872 -0.00031973 0.0033836 0.00072051 0.0038114 -0.028354 0.012609
-0.19771 0.099179 -0.017739 0.017449
0.0041505 0.0011875 0.00089703 0.0056536 -0.0017785 0.0012616 0.012742 -0.0095833
-0.017707 0.017439 -0.2436 0.15356
860000000 -0.12353 0.24769 -0.017635 0.031908 -0.0034593 -0.009602 -0.0026025 0.0015406
0.0049104 0.0050667 -0.0026878 -0.003058
-0.017728 0.031773 -0.28842 0.29187 0.0083401 0.03401 0.00050776 0.0020568
0.0048351 0.00022459 0.0034023 0.00015983
-0.0035362 -0.0095888 0.0084428 0.03404 0.022011 0.31767 -0.00022005 -0.00038907
0.0029267 -0.001523 0.0015441 0.0044096
-0.0026138 0.0015257 0.0004702 0.0020634 -0.00020677 -0.00037438 -0.13773 0.24297
-0.017768 0.018419 -0.0063739 -0.0093067
0.0048233 0.0049017 0.004781 0.00036146 0.0029491 -0.0015297 -0.017829 0.018429
-0.14838 0.14652 -0.023914 0.015143
-0.0028246 -0.0030621 0.003489 9.724e-05 0.0015124 0.0044111 -0.0062408 -0.0092362
-0.02397 0.015057 -0.19233 0.19492
920000000 -0.098342 0.27221 0.0049335 0.038576 -0.0092172 -0.00384 -0.001623 0.0026338
0.0016402 0.0014142 0.002179 -0.0012281
0.0049457 0.038472 -0.25921 0.31226 0.028157 0.021447 0.0017646 0.00091128
0.0065711 -0.00075608 0.0038157 -0.0029324
-0.0092435 -0.0038576 0.02827 0.02139 0.06845 0.31779 0.001785 -0.00022516
0.0013038 -0.00042623 0.00086223 -0.0011654
-0.0015408 0.0026545 0.001834 0.00092471 0.0017728 -0.00022631 -0.11342 0.25938
-0.010501 0.029506 0.0024386 -0.0062129
0.0017618 0.0012878 0.0066353 -0.00094292 0.0013039 -0.00041917 -0.01043 0.029538
-0.13788 0.15366 -0.0026499 0.026494
0.0022519 -0.0012563 0.0038243 -0.002947 0.00085253 -0.0011557 0.0023717 -0.0061805
-0.0026317 0.026544 -0.19844 0.21026
980000000 -0.050934 0.29191 0.018107 0.030503 -0.0085072 0.0048415 0.0027174 0.0038087
0.0041101 -0.0019605 -0.0030922 -0.0021555
0.018106 0.030432 -0.20631 0.3455 0.032759 0.0042611 0.0019565 -0.00020957
0.0010812 -0.0061604 -0.00060839 -0.0023963
-0.0084539 0.0048591 0.032848 0.0041892 0.11474 0.31073 0.00038147 -0.0012917
-2.8379e-05 -0.0021714 0.0016384 -0.00019761
0.0027625 0.0038065 0.0019501 -0.00015619 0.0003819 -0.0012829 -0.07539 0.27085
0.007266 0.027955 -0.0096339 -0.0063287
0.0040203 -0.0019162 0.0011052 -0.0060988 -1.1978e-05 -0.0021728 0.0073019 0.027991
-0.10689 0.17924 0.0051621 0.017935
-0.0029794 -0.0021507 -0.00061396 -0.002301 0.0016118 -0.00017556 -0.0095772 -0.0062921
0.0050853 0.017912 -0.15531 0.25391
1040000000 -0.0077428 0.3007 0.033523 0.01801 -0.00080432 0.0068513 0.0030437 0.00062928
-8.5448e-05 -0.003992 -0.00057766 -0.001307
0.033506 0.01799 -0.17069 0.35842 0.028722 -0.015011 0.001405 -0.0017079
-0.0025805 -0.0021791 -0.0014532 -0.0027072
-0.00075512 0.0068531 0.028697 -0.015095 0.16083 0.29658 -0.00056462 -0.0013474
-0.0016333 -0.0007603 -0.00054275 -0.0012005
0.0030258 0.00065718 0.0014126 -0.0016931 -0.00056443 -0.0013515 -0.047519 0.28099
0.017717 0.016543 -0.003083 0.0023583
-9.5953e-05 -0.0039852 -0.0025398 -0.002177 -0.001626 -0.00076336 0.01771 0.016545
-0.076936 0.18876 0.013217 0.017292
-0.00066712 -0.0012581 -0.0015253 -0.0026638 -0.00054414 -0.0012032 -0.0031032 0.0023663
0.013183 0.017281 -0.13362 0.27465
1100000000 0.038063 0.30829 0.035819 -0.0044054 0.0031576 0.0035692 0.002653 -0.0017079
-0.0022929 -0.0030523 -0.0037484 0.00025766
0.035808 -0.0043615 -0.12725 0.37494 0.014562 -0.027592 -4.7301e-05 -0.0017932
-0.0030357 -0.00033306 -0.0035153 -0.0004464
0.0031753 0.0035627 0.014469 -0.027669 0.20699 0.27587 -0.0017982 0.00032904
-0.0015894 0.00064189 -0.00098009 -0.00031481
0.0026556 -0.0017087 -6.0817e-05 -0.0017741 -0.0018094 0.00033502 -0.0069275 0.28567
0.021871 0.0047711 -0.0022223 0.0012999
-0.0023189 -0.0030313 -0.0030635 -0.00027844 -0.001572 0.00063046 0.021848 0.0047318
-0.058725 0.2019 0.018236 0.0081787
-0.0037647 0.00020966 -0.0035246 -0.00044793 -0.0010105 -0.00031836 -0.0022066 0.001409
0.018222 0.0081302 -0.086762 0.30339
1160000000 0.089824 0.30314 0.023939 -0.020711 0.0027316 -0.00076677 -0.00013206 -0.0027925
-0.0041292 -6.6076e-05 -0.00082621 0.0039837
0.023936 -0.020697 -0.083249 0.37872 -0.0040312 -0.028602 -0.0017972 -0.0015349
-0.0022164 0.002698 -0.0012914 0.0015825
0.0027218 -0.00080103 -0.0041553 -0.028599 0.24977 0.24473 -0.00052169 0.0017096
-0.00034756 0.0017857 -0.00095765 0.00014414
-0.000153 -0.0028021 -0.0018437 -0.0015188 -0.00051947 0.0017091 0.032529 0.28277
0.018294 -0.0094584 -0.0026197 0.0059279
-0.0041061 -4.4029e-05 -0.0021971 0.0026713 -0.00035691 0.0018096 0.018284 -0.0094432
-0.025584 0.21152 0.016842 0.00023675
-0.00081591 0.0039686 -0.0013117 0.001621 -0.00096726 0.0001264 -0.0026153 0.0058933
0.016828 0.00026449 -0.039891 0.306
1220000000 0.13464 0.29159 0.010294 -0.029688 -0.0015972 -0.0010287 -0.00042368 -0.0012552
-0.0023576 0.0027017 0.0013843 0.001785
0.010312 -0.029665 -0.039298 0.39 -0.016799 -0.020548 -0.0024631 0.00051604
0.0003495 0.0027374 -0.00063603 0.0017199
-0.00162 -0.0010426 -0.016892 -0.020497 0.2887 0.20553 0.00094579 0.0015138
0.00059791 0.0010725 0.00028178 0.00074422
-0.00046345 -0.0012645 -0.0025058 0.00051665 0.0009296 0.0015187 0.072201 0.27396
0.0086022 -0.014625 0.0030894 0.001818
-0.0023228 0.0027346 0.00039884 0.0027597 0.00059513 0.0010693 0.0086118 -0.014664
-0.0016922 0.22145 0.012871 -0.011972
0.0013939 0.0018282 -0.00064626 0.0017461 0.00028881 0.00074815 0.0031287 0.0018362
0.012889 -0.011988 -0.0075181 0.32216
1280000000 0.18423 0.26924 -0.0075888 -0.028023 -0.0019203 0.0023509 -0.0013578 -0.001839
-0.0003183 0.0030823 0.0024409 0.00090427
-0.0075635 -0.02801 0.0063107 0.38073 -0.023261 -0.0081553 -0.00094333 0.0014997
0.0015677 0.0014403 0.00046947 0.0020279
-0.001896 0.0023487 -0.023341 -0.0080529 0.31921 0.16149 0.0013139 -0.00018599
0.00091477 0.00010189 0.00032279 0.00047623
-0.0013588 -0.0018294 -0.00094462 0.0015088 0.001298 -0.00018964 0.1085 0.25786
0.00031274 -0.015988 0.0007848 3.5944e-05
-0.00024352 0.0030938 0.0015838 0.0014146 0.00091175 0.00010163 0.00023993 -0.015986
0.035797 0.22542 0.0026001 -0.014075
0.0023952 0.00091348 0.0005045 0.0019944 0.00034181 0.0004591 0.00080538 5.1607e-05
0.0025651 -0.014058 0.039993 0.3231
1340000000 0.22174 0.23547 -0.017183 -0.018821 0.00067726 0.0041924 -0.0019768 -0.00042017
0.0016461 0.0022803 0.001525 -0.0014875
-0.01716 -0.018815 0.045613 0.37207 -0.021113 0.0042648 -2.4176e-05 0.0018855
0.0015999 0.0005798 0.0013156 0.00081287
0.00068702 0.0041903 -0.021107 0.0043457 0.34122 0.1135 0.00087304 -0.00085481
0.00052516 -0.00032434 0.00033677 0.0001913
-0.0019696 -0.00042759 -9.857e-06 0.0019085 0.00087493 -0.00084437 0.14161 0.23791
-0.0071629 -0.013072 0.0015961 -0.00019368
0.0016368 0.0022728 0.0016152 0.00056854 0.00053434 -0.00033813 -0.0071589 -0.013086
0.066839 0.22086 -0.0033884 -0.012148
0.0015212 -0.0014957 0.0013304 0.00080659 0.00032331 0.00019037 0.0015751 -0.00018538
-0.0033693 -0.012167 0.079186 0.31803
1400000000 0.25513 0.1972 -0.022736 -0.007629 0.0048603 0.0030522 -0.0018037 0.00091325
0.0023941 0.00040585 0.00011809 -0.001279
-0.022709 -0.0076212 0.082363 0.35889 -0.014475 0.01214 0.0013615 0.0012172
0.00082502 -0.00076913 0.0012356 0.0003032
0.0048684 0.0030245 -0.014437 0.012219 0.35422 0.059638 3.6426e-05 -0.0013545
5.5419e-05 -0.0002867 0.000372 0.00018358
-0.0018105 0.0009055 0.0013676 0.001218 4.7165e-05 -0.0013499 0.17167 0.20955
-0.011623 -0.0074957 -0.00048267 -0.0010231
0.0024068 0.00038643 0.00084687 -0.00076068 6.2927e-05 -0.00029979 -0.011636 -0.0074502
0.10089 0.21567 -0.0092902 -0.0078118
9.2829e-05 -0.0012797 0.0012145 0.00028062 0.00036338 0.00018092 -0.00044694 -0.0010582
-0.0093128 -0.007826 0.12371 0.3067
1460000000 0.27905 0.15292 -0.020058 0.0041093 0.0052704 -0.0016668 -0.0012299 0.001682
0.0016636 -0.00084967 -0.00033649 -0.00082004
-0.020051 0.0041067 0.11645 0.33705 -0.0061072 0.014848 0.0016812 0.00011754
0.0007636 -0.00095442 0.0012187 -0.00063777
0.0052847 -0.0016766 -0.0060378 0.014893 0.35998 0.0048301 -0.00097878 -0.0011382
0.00029498 -7.9751e-05 0.00064685 -0.00042216
-0.0012378 0.0017051 0.0016748 0.00010543 -0.00099905 -0.0011422 0.19896 0.18039
-0.011966 -0.0023902 -0.0011501 0.0011003
0.0016575 -0.00087155 0.00077174 -0.00094508 0.00028329 -7.729e-05 -0.01198 -0.0023874
0.13154 0.20028 -0.010569 -0.0024656
-0.000364 -0.00078497 0.0012366 -0.00064278 0.00062304 -0.0004388 -0.0011665 0.0011096
-0.010556 -0.0024875 0.15716 0.28478
1520000000 0.2922 0.10982 -0.014686 0.0096494 0.00296 -0.0038473 0.0002195 0.002262
0.0013825 -0.0015618 -0.0011515 -0.00018396
-0.014681 0.0096355 0.14983 0.32209 0.0013346 0.012855 0.0015517 -0.00083508
0.00020478 -0.00082631 0.00027189 -0.0010625
0.0029513 -0.0038566 0.0013926 0.012863 0.35277 -0.0515 -0.00081453 -0.00039735
0.00055785 -0.00071481 -1.9742e-05 -7.6166e-05
0.00022418 0.0022505 0.0015403 -0.00082938 -0.00079461 -0.00040206 0.22315 0.14176
-0.011331 0.0015121 0.00073901 0.0014793
0.0013795 -0.001561 0.00018343 -0.0008329 0.00055937 -0.00072295 -0.011309 0.0014938
0.16042 0.18455 -0.010569 0.0014075
-0.0011267 -0.00018819 0.00028108 -0.0010591 -3.384e-05 -9.2181e-05 0.00074706 0.0015226
-0.010579 0.0013982 0.19019 0.26402
1580000000 0.30203 0.061603 -0.0084266 0.012711 -0.00092113 -0.0045006 0.0012123 0.0015725
-0.0005509 -0.0017317 -0.00033516 0.00028594
-0.0084045 0.012706 0.177 0.29726 0.0049458 0.0081567 0.00039881 -0.0015688
-0.00021783 -0.0010827 -0.00031964 -0.00091682
-0.0009357 -0.0045026 0.0049791 0.0081401 0.33221 -0.10925 -0.0014654 0.00036805
-0.0003011 -0.0011218 0.00017186 -0.00056495
0.0012299 0.0015989 0.00039867 -0.0015741 -0.0014658 0.00035616 0.23807 0.10124
-0.0090622 0.0050518 0.0015221 0.00059893
-0.00056201 -0.0017632 -0.00022018 -0.001085 -0.00028958 -0.0011171 -0.0090393 0.0050928
0.18509 0.16514 -0.0084212 0.0065675
-0.00036829 0.0002975 -0.00032955 -0.00092289 0.00014506 -0.0005711 0.0014923 0.00056911
-0.0084254 0.0065583 0.22187 0.23697
1640000000 0.30365 0.017487 -0.0020597 0.012016 -0.0026 -0.0022 0.0022878 0.0010398
-0.00067481 -0.000787 -0.00037882 0.00067608
-0.002062 0.012015 0.20645 0.27191 0.005605 0.0035851 -0.00073946 -0.0015987
-0.00093707 -0.0006419 -0.00058421 -0.0006345
-0.0026073 -0.0021847 0.0056413 0.0035544 0.30349 -0.15825 -0.00094875 0.0012199
-0.0010249 -0.00083061 -5.4977e-05 -0.00023345
0.0022846 0.0010498 -0.00072685 -0.0015812 -0.00094549 0.0012315 0.25054 0.050702
-0.0062184 0.0057904 0.001896 -0.00051608
-0.00066236 -0.00075078 -0.00094846 -0.00064459 -0.0010769 -0.00082743 -0.0062063 0.0058184
0.2084 0.13879 -0.0041828 0.0084748
-0.00039975 0.00064926 -0.00058538 -0.00062505 -5.3999e-05 -0.00023967 0.001921 -0.00051606
-0.004188 0.0084732 0.24764 0.20546
1700000000 0.29425 -0.030114 0.0013926 0.0095275 -0.0031435 0.00025591 0.0028146 -0.0007737
-0.0014726 -0.00039052 0.00050044 0.00053197
0.0013953 0.0094944 0.22438 0.24013 0.003763 0.0007649 -0.0013628 -0.00053892
-0.0009142 -0.00010828 -0.0009739 -0.00037511
-0.0031252 0.00024538 0.0037811 0.00075097 0.25981 -0.19801 0.00022735 0.0016981
-0.0017429 -0.0002141 -0.00055768 -0.00092859
0.0028088 -0.00082207 -0.0013728 -0.00053112 0.00020374 0.0017106 0.24666 -0.0010305
-0.0047835 0.0063392 0.0012371 -0.0017807
-0.0015247 -0.00034291 -0.00090792 -0.00010219 -0.0017553 -0.00022845 -0.004744 0.0063318
0.22555 0.11612 0.00022751 0.0088432
0.00055393 0.00052924 -0.00097446 -0.00035158 -0.00053724 -0.00090251 0.0012443 -0.0018176
0.00022332 0.0088514 0.26365 0.17041
1760000000 0.27923 -0.080067 0.0037833 0.0065867 -0.0019436 0.00070034 0.0015457 -0.0031182
-0.00081345 0.00056161 0.00053739 -0.00035184
0.0037656 0.0065781 0.25012 0.19989 0.0015975 -0.00094301 -0.0010933 0.00021903
-0.0013436 0.00091004 -0.00057358 0.0005579
-0.0019287 0.00072087 0.0016012 -0.00096734 0.21033 -0.23099 0.0011363 0.0014681
-0.0011541 0.0013771 -0.0012823 -0.00046648
0.0015411 -0.003088 -0.0010898 0.00023947 0.0011399 0.0014898 0.23561 -0.053766
-0.0025644 0.006201 -0.00048194 -0.0020488
-0.00080582 0.00055556 -0.0013488 0.00091479 -0.001146 0.0013363 -0.0025431 0.0062043
0.24026 0.078399 0.003758 0.0061823
0.00051578 -0.00027424 -0.00059541 0.00057583 -0.0013277 -0.00042849 -0.00055282 -0.0020236
0.0037523 0.0061897 0.27591 0.13226
1820000000 0.25101 -0.11722 0.0042823 0.0031605 8.1461e-05 0.0021233 -0.00065819 -0.0030931
-0.00077956 0.00035704 0.00025022 -0.00010634
0.0042688 0.0031602 0.25955 0.16939 -0.00014272 0.00012746 -0.0013215 0.00083987
-0.00019719 0.0016027 -0.00044672 0.00059362
9.9286e-05 0.002137 -0.0001485 0.00013602 0.16058 -0.2462 0.0017408 0.0005208
-0.0003488 0.0022085 -0.0012956 0.00055688
-0.00069962 -0.003126 -0.0013349 0.00085365 0.001711 0.00051595 0.20304 -0.10113
-0.0017823 0.0052401 -0.0015828 -0.0010562
-0.00073218 0.00037368 -0.00016982 0.0015998 -0.00030815 0.0022567 -0.0017403 0.0052202
0.25556 0.04624 0.004553 0.0028299
0.00019558 -0.00013893 -0.00045767 0.00059819 -0.0012689 0.00053433 -0.0015739 -0.0011059
0.0045586 0.0028226 0.2778 0.095754
1880000000 0.21275 -0.15579 0.00227 0.00097129 -0.00039194 0.001884 -0.0028443 -0.0024484
-0.00058425 0.001281 0.00050097 -0.00079762
0.0022461 0.0009934 0.26348 0.12277 -0.0020527 0.001712 -0.00012283 0.0016969
0.00077828 0.0016014 0.00032394 0.00095664
-0.00035877 0.0018759 -0.0020456 0.0017206 0.10854 -0.25534 0.0020563 -0.0011142
0.0014826 0.0020362 -0.00088618 0.0014555
-0.0028615 -0.002442 -0.00015101 0.0017057 0.0020794 -0.0010808 0.16052 -0.13997
-0.0016545 0.0043374 -0.0022463 0.00079339
-0.00061278 0.0013043 0.00079674 0.0015618 0.0014906 0.0020406 -0.0016642 0.004345
0.25584 0.01054 0.0039217 0.00089313
0.00056014 -0.00073021 0.0003237 0.00097586 -0.00085204 0.001429 -0.0022471 0.00085548
0.0039106 0.00088996 0.27701 0.061679
1940000000 0.17146 -0.17883 0.00035948 -0.00071786 0.0010605 0.0017243 -0.0039676 0.00037961
0.00093686 0.0010886 -0.0007646 -0.00079221
0.00034688 -0.00066818 0.26327 0.09088 -0.0010378 0.0037845 0.0010139 0.0012479
0.00229 0.0004943 0.00089251 0.00019559
0.0011089 0.0017347 -0.001011 0.0037743 0.062452 -0.24923 0.00029427 -0.0025636
0.0025442 0.00049271 0.0004514 0.0015752
-0.0039964 0.00040154 0.00099963 0.001251 0.00025916 -0.0025545 0.10693 -0.16798
-0.0027688 0.0045073 -0.0010394 0.0021105
0.00096239 0.0010787 0.0023204 0.00048238 0.0025162 0.0005016 -0.0026783 0.0043924
0.25373 -0.030528 0.0027109 -0.0018488
-0.00080634 -0.00075545 0.00087441 0.00017401 0.00050419 0.0015487 -0.0010038 0.0020691
0.0027121 -0.00185 0.26584 0.025521
2000000000 0.12459 -0.19012 -0.0032121 0.0012089 0.0023328 0.0016782 -0.0025523 0.003751
0.0010083 0.00056618 -0.0011095 0.00049607
-0.0031952 0.0012047 0.24843 0.055652 -0.00087574 0.005528 0.0016328 0.00019851
0.0017351 -0.0018489 0.00045886 3.9504e-05
0.0023707 0.001655 -0.00082416 0.0055515 0.018848 -0.23485 -0.001676 -0.0014479
0.0019972 -0.0013974 0.001645 0.0012816
-0.0025048 0.0037213 0.0016775 0.0001936 -0.001698 -0.0014623 0.054004 -0.17541
-0.0038014 0.0055029 0.00029494 0.002204
0.0010259 0.00060112 0.001722 -0.0018365 0.0020073 -0.0013533 -0.0038143 0.0055892
