!Keysight Technologies,M9804A,MY58100912,A.14.10.03
!Date: Thursday, April 27, 2023 10:28:33
!Correction: S11(C  6-Port  ) 
!S12(C  6-Port  ) 
!S13(C  6-Port  ) 
!S14(C  6-Port  ) 
!S15(C  6-Port  ) 
!S16(C  6-Port  ) 
!S21(C  6-Port  ) 
!S22(C  6-Port  ) 
!S23(C  6-Port  ) 
!S24(C  6-Port  ) 
!S25(C  6-Port  ) 
!S26(C  6-Port  ) 
!S31(C  6-Port  ) 
!S32(C  6-Port  ) 
!S33(C  6-Port  ) 
!S34(C  6-Port  ) 
!S35(C  6-Port  ) 
!S36(C  6-Port  ) 
!S41(C  6-Port  ) 
!S42(C  6-Port  ) 
!S43(C  6-Port  ) 
!S44(C  6-Port  ) 
!S45(C  6-Port  ) 
!S46(C  6-Port  ) 
!S51(C  6-Port  ) 
!S52(C  6-Port  ) 
!S53(C  6-Port  ) 
!S54(C  6-Port  ) 
!S55(C  6-Port  ) 
!S56(C  6-Port  ) 
!S61(C  6-Port  ) 
!S62(C  6-Port  ) 
!S63(C  6-Port  ) 
!S64(C  6-Port  ) 
!S65(C  6-Port  ) 
!S66(C  6-Port  ) 
!S6P File: Measurement: :
# Hz S  RI   R 50
500000000 -0.33342 -0.029521 -0.0090291 -0.0042936 -0.0080696 0.011198 -0.0040717 0.011761
0.012486 0.0039662 -0.004456 0.0071028
-0.009024 -0.00427 -0.41888 -0.047889 0.0072725 -0.011577 0.0015059 0.011114
0.0078765 0.0026022 0.0013454 0.012423
-0.0080641 0.011191 0.0072589 -0.011617 -0.26465 0.21249 0.0069747 0.003107
-1.1871e-05 0.0088601 0.0008141 0.012042
-0.0040839 0.011791 0.0015154 0.011135 0.006976 0.0030914 -0.32572 0.050542
-0.018335 -0.0059255 0.018151 0.025193
0.012385 0.0040532 0.0078441 0.0025994 -3.7803e-05 0.0088306 -0.018382 -0.0058585
-0.22875 -0.17551 -0.02577 0.0037202
-0.0046343 0.0074542 0.0012832 0.012544 0.0008305 0.012049 0.018103 0.025224
-0.025749 0.0037361 -0.27343 -0.12252
560000000 -0.30928 0.12737 -0.02318 -0.063307 7.6881e-05 0.01214 0.0069019 0.0092174
0.012111 0.0031384 0.0090417 0.0077173
-0.023082 -0.063207 -0.37582 0.11006 -0.04183 -0.036348 0.013264 0.0031384
-0.013188 -0.0038403 0.0041918 -0.00080893
0.00012346 0.012144 -0.04197 -0.036305 -0.18248 0.25969 -0.00040756 -0.0049569
0.018157 0.0036693 0.0072038 -0.0067403
0.0069413 0.0092089 0.013276 0.0031066 -0.00040881 -0.0049579 -0.30129 0.13744
0.004852 -0.025524 0.0056467 -0.019354
0.012184 0.0030832 -0.013243 -0.0037153 0.018129 0.0036011 0.0049001 -0.025488
-0.28472 -0.0040692 0.0074344 -0.05059
0.0093979 0.0074987 0.0041877 -0.0010808 0.0073782 -0.0066587 0.0055987 -0.019319
0.0074367 -0.050648 -0.33156 0.024861
620000000 -0.2683 0.11107 -0.022565 0.0060719 0.0036599 0.0083583 0.0074623 -0.0059812
0.010552 -0.00096096 0.0010993 -0.0021253
-0.022534 0.00608 -0.40235 0.064278 -0.018607 -0.00021009 -0.0015649 -0.0019357
0.010565 -0.0075638 0.0009914 -0.0026439
0.0036899 0.0083641 -0.018655 -0.00016989 -0.15214 0.26857 -0.0014827 -0.0050998
-0.0039542 -0.0034196 0.0082913 -0.0036787
0.0074389 -0.0059853 -0.0015807 -0.0019371 -0.0014927 -0.0051029 -0.25981 0.14729
-0.038158 -0.019438 0.014413 0.024012
0.010586 -0.0011462 0.010541 -0.0075418 -0.0039735 -0.0034917 -0.038076 -0.0194
-0.20468 -0.041592 -0.039373 0.013785
0.0013143 -0.0020634 0.00098519 -0.002734 0.0084274 -0.0036014 0.014473 0.024155
-0.039323 0.013764 -0.25188 -0.011307
680000000 -0.22782 0.19099 -0.028382 -0.014888 0.0046898 0.0051683 8.9683e-05 -0.0074991
-0.0032841 -0.011152 0.0042622 -0.0069994
-0.02835 -0.014903 -0.38653 0.16109 -0.032614 -0.0010346 -0.0020665 -0.00045108
-0.0028932 -0.0086055 -0.0009617 -0.002595
0.0047017 0.0051418 -0.032682 -0.0009377 -0.10146 0.28808 -0.00094317 4.3228e-06
-0.0023427 0.00088444 -0.0030173 -0.0095794
7.8452e-05 -0.0075445 -0.0020656 -0.00045449 -0.00093836 6.6351e-06 -0.21833 0.19562
-0.022993 -0.0087133 -0.010795 -0.0094655
-0.0032602 -0.011107 -0.0029045 -0.0086219 -0.0023625 0.00090675 -0.023054 -0.0086286
-0.24862 0.053706 -0.0044063 -0.010785
0.0040299 -0.0068812 -0.0010455 -0.002563 -0.0030626 -0.0096599 -0.010838 -0.0096571
-0.004411 -0.01078 -0.26236 0.091954
740000000 -0.18688 0.18549 -0.039399 0.025529 0.012544 -0.0052708 -0.0012269 -0.0042531
-0.004145 -0.0017662 -0.0063359 0.0027576
-0.039369 0.025467 -0.3348 0.18 -0.034761 0.034602 -0.00093299 -0.0060098
-0.011706 0.0078197 -0.0027918 -0.0058411
0.012539 -0.0053128 -0.034719 0.034763 -0.06775 0.28711 -0.0013138 0.0034427
-0.0033112 -0.0036088 -0.0008658 0.00067032
-0.0012356 -0.0042232 -0.0009606 -0.0060158 -0.0013191 0.0034581 -0.2011 0.20339
-0.041752 -0.0077755 0.02235 0.012294
-0.0041927 -0.0016745 -0.01165 0.0078568 -0.0033763 -0.0036113 -0.041799 -0.0077991
-0.15731 0.075205 -0.041241 0.0013002
-0.0063395 0.0026891 -0.0027822 -0.0058953 -0.00078035 0.00070925 0.022364 0.01236
-0.041249 0.001237 -0.25012 0.099234
800000000 -0.1573 0.22552 -0.023553 0.017245 0.0050615 -0.010319 -0.0050888 -0.0018286
-0.0039034 0.003267 0.003986 0.0011889
-0.023568 0.0172 -0.33675 0.2501 -0.0078008 0.03405 -0.0020958 0.0024923
-0.0004038 0.0033358 0.0008912 0.0056973
0.0050219 -0.010331 -0.0076969 0.034145 -0.026546 0.31002 0.0013515 0.0016038
0.00070854 0.0037739 -0.0018022 0.0012466
-0.005114 -0.001824 -0.0020771 0.0025061 0.001347 0.0016116 -0.1735 0.23091
-0.028504 0.012593 0.01284 -0.0096394
-0.00393 0.0033213 -0.0003936 0.0033991 0.00069368 0.0037856 -0.028514 0.012686
-0.19772 0.098585 -0.017818 0.017338
0.0039705 0.0011781 0.00090576 0.0057101 -0.0018437 0.0012799 0.012758 -0.0097181
-0.017845 0.017286 -0.24344 0.15321
860000000 -0.12339 0.24758 -0.017631 0.031816 -0.003456 -0.009602 -0.0026768 0.0015088
0.0049231 0.0050418 -0.0027638 -0.0030513
-0.017648 0.031801 -0.28846 0.29184 0.0083092 0.034023 0.00043638 0.0020356
0.0048344 0.00033293 0.0034303 0.0001851
-0.0034872 -0.0095731 0.0084822 0.034062 0.02199 0.31763 -0.00021316 -0.00033295
0.0030449 -0.0014388 0.0015456 0.0044312
-0.0026594 0.0015249 0.00044212 0.0020407 -0.00021042 -0.00033521 -0.13785 0.24302
-0.017804 0.018572 -0.0064715 -0.0094035
0.0049234 0.0050765 0.0048079 0.00033835 0.0030347 -0.0014491 -0.017798 0.01861
-0.14827 0.14671 -0.02387 0.01526
-0.0027742 -0.0030334 0.0034469 0.00018053 0.0015501 0.0044335 -0.0064984 -0.0094291
-0.023873 0.01526 -0.1929 0.1945
920000000 -0.098329 0.27214 0.0049613 0.038453 -0.0092146 -0.0039006 -0.0015519 0.0026475
0.0016923 0.0013115 0.0022279 -0.0012574
0.0049445 0.03846 -0.25918 0.31217 0.028161 0.021435 0.0017963 0.00092761
0.0066594 -0.00087727 0.0037899 -0.0029653
-0.0092187 -0.0038525 0.028316 0.021354 0.068382 0.31771 0.0017857 -0.00022068
0.0012815 -0.00043692 0.0008508 -0.0011854
-0.0015461 0.0026533 0.0017978 0.00093937 0.0017834 -0.0002236 -0.11348 0.25928
-0.01068 0.029509 0.0024609 -0.0062599
0.0017271 0.0012802 0.0066873 -0.00089047 0.0012644 -0.00044226 -0.010588 0.029566
-0.13811 0.15345 -0.0028163 0.026533
0.0022592 -0.001206 0.0038464 -0.0030398 0.00089021 -0.001207 0.0024252 -0.0062295
-0.0028293 0.026482 -0.19871 0.20996
980000000 -0.050888 0.29192 0.018155 0.030521 -0.0084917 0.0048242 0.00278 0.0037883
0.0041464 -0.0019074 -0.0030081 -0.0022285
0.018114 0.030509 -0.20625 0.34537 0.032801 0.0042812 0.0019281 -0.00015247
0.0011861 -0.0061624 -0.00058935 -0.0023641
-0.0084806 0.004852 0.032911 0.0041532 0.11468 0.31072 0.00037329 -0.0012721
6.8007e-06 -0.0021923 0.0016623 -0.00019722
0.0027871 0.0037751 0.00193 -0.00013926 0.00037227 -0.0012733 -0.075429 0.27075
0.0071831 0.028035 -0.0096277 -0.006367
0.0041649 -0.0019139 0.0011367 -0.0062254 1.2982e-05 -0.002188 0.0072187 0.028051
-0.10715 0.17929 0.0052102 0.017987
-0.0030601 -0.0022575 -0.00061595 -0.0023012 0.0016305 -0.00020084 -0.0096198 -0.0064329
0.0051812 0.01801 -0.15574 0.25356
1040000000 -0.0077645 0.30069 0.033586 0.018008 -0.00079135 0.006838 0.0030733 0.00069356
-8.2878e-05 -0.0040224 -0.00059899 -0.0012588
0.033543 0.018023 -0.17069 0.35832 0.028731 -0.014959 0.001387 -0.0017011
-0.0025218 -0.002187 -0.0015217 -0.0026662
-0.00077544 0.0068429 0.028747 -0.015144 0.16074 0.29657 -0.00054342 -0.0013511
-0.0016367 -0.00074965 -0.00054481 -0.0012193
0.0030649 0.0006757 0.0014089 -0.0016878 -0.00054421 -0.0013467 -0.047595 0.28099
0.017677 0.016649 -0.0030349 0.0024353
-9.8588e-05 -0.004028 -0.0025679 -0.0021866 -0.0016291 -0.00074926 0.017716 0.016633
-0.077212 0.18867 0.013178 0.017385
-0.00057426 -0.0012647 -0.0015385 -0.0026477 -0.00055253 -0.0012353 -0.002994 0.002475
0.013156 0.017392 -0.13369 0.27461
1100000000 0.038055 0.30825 0.035858 -0.0044223 0.0031563 0.0035735 0.002669 -0.001688
-0.0022786 -0.0030673 -0.0037969 0.00023491
0.035827 -0.0044074 -0.12733 0.37487 0.014544 -0.027587 -3.0767e-05 -0.0018122
-0.0030316 -0.00030522 -0.0035241 -0.0004574
0.0031709 0.0035508 0.014462 -0.027729 0.20688 0.27587 -0.0018218 0.00032247
-0.0015999 0.00063525 -0.0010166 -0.00029301
0.0026592 -0.0017056 -3.3338e-05 -0.0018124 -0.0018154 0.00033162 -0.0070351 0.28566
0.021837 0.0048511 -0.002201 0.0012634
-0.0023094 -0.0030594 -0.0030551 -0.00027724 -0.0016043 0.00063766 0.02187 0.0048114
-0.058991 0.20197 0.018235 0.0083194
-0.0038253 0.00024127 -0.003563 -0.00043254 -0.0010194 -0.00028057 -0.002191 0.0012684
0.018209 0.0083308 -0.086856 0.30321
1160000000 0.089756 0.3031 0.023967 -0.020829 0.0027159 -0.00078779 -0.0001417 -0.0027855
-0.0041597 -8.7399e-05 -0.0007971 0.0039987
0.023942 -0.020781 -0.083405 0.37869 -0.004061 -0.028594 -0.0018242 -0.0015336
-0.0022268 0.0026683 -0.0013199 0.0016083
0.0027069 -0.0008042 -0.0041946 -0.02867 0.24971 0.24478 -0.00052056 0.0017117
-0.00034325 0.0017866 -0.00097379 0.00015702
-0.00014549 -0.0028066 -0.0018256 -0.0015146 -0.00052318 0.0016996 0.032444 0.28278
0.018313 -0.0093465 -0.0026161 0.0059062
-0.0041688 -8.0763e-05 -0.0022354 0.0026803 -0.00032798 0.0017895 0.018299 -0.0093582
-0.025779 0.21169 0.016953 0.00018213
-0.00077564 0.0039943 -0.0012779 0.0016674 -0.00096385 0.00015749 -0.0026339 0.0058808
0.01696 0.00017323 -0.04011 0.30609
1220000000 0.1346 0.29157 0.010263 -0.029805 -0.0016194 -0.0010407 -0.00044049 -0.0012829
-0.0023552 0.002731 0.0014043 0.0017952
0.010262 -0.029758 -0.039409 0.39008 -0.01681 -0.020539 -0.0025083 0.00049125
0.00037054 0.0027512 -0.0006421 0.0017217
-0.0016311 -0.0010282 -0.016951 -0.020523 0.28867 0.20557 0.00092205 0.0014924
0.00060074 0.0010799 0.00030306 0.00075812
-0.00044066 -0.001282 -0.002508 0.0004957 0.00091405 0.001504 0.072186 0.27399
0.0086294 -0.014545 0.0031104 0.0017904
-0.0023651 0.0027563 0.00036623 0.002765 0.00059728 0.0010854 0.0086317 -0.014557
-0.0018045 0.22147 0.012858 -0.011968
0.0014193 0.0017836 -0.00062051 0.0017199 0.00030237 0.00074368 0.0031081 0.0018177
0.01285 -0.011965 -0.0077397 0.32218
1280000000 0.18416 0.26919 -0.0076891 -0.028113 -0.0019123 0.0023534 -0.0013556 -0.0018579
-0.00027793 0.0030942 0.0024106 0.00091114
-0.0076676 -0.028071 0.0062535 0.38084 -0.023274 -0.0081336 -0.00095804 0.0015103
0.0015759 0.0014455 0.0004433 0.001986
-0.0019164 0.0023611 -0.023395 -0.0080483 0.31918 0.16152 0.0013201 -0.00018016
0.00091582 0.00012084 0.00030759 0.00043362
-0.0013536 -0.0018558 -0.00095393 0.0015029 0.001323 -0.00017617 0.10851 0.2579
0.00040495 -0.015882 0.00079101 -7.0914e-06
-0.00024294 0.0031085 0.0016008 0.0014238 0.00092194 0.00011243 0.00038394 -0.015877
0.035757 0.22548 0.0026656 -0.01408
0.0024306 0.00091456 0.00047332 0.0019775 0.00032561 0.00044542 0.00079998 -2.8734e-05
0.0026778 -0.014079 0.039774 0.32325
1340000000 0.22168 0.23545 -0.017315 -0.018834 0.00066355 0.004219 -0.0019596 -0.00043925
0.0016401 0.0022993 0.0015267 -0.001496
-0.017275 -0.018814 0.045564 0.37219 -0.021098 0.0042468 -1.4909e-05 0.0019316
0.0016038 0.00059702 0.0013299 0.00081249
0.0006808 0.0042212 -0.021166 0.0043729 0.34121 0.1135 0.00088261 -0.00085687
0.00054239 -0.00029906 0.00032621 0.00017187
-0.00197 -0.0004213 -1.2652e-05 0.0019241 0.00088138 -0.00084982 0.14156 0.23798
-0.0070703 -0.013089 0.0016192 -0.00019664
0.0016547 0.0022875 0.0016126 0.0005681 0.00053803 -0.00030356 -0.0070866 -0.013085
0.066846 0.22086 -0.0034047 -0.012168
0.0015369 -0.0014964 0.0013288 0.00080995 0.00032509 0.00016998 0.0016045 -0.0002
-0.0034024 -0.012173 0.07897 0.31806
1400000000 0.25502 0.19715 -0.022845 -0.0075494 0.0048749 0.0030613 -0.001823 0.00090996
0.0024348 0.00041527 8.8966e-05 -0.0013271
-0.022814 -0.0075492 0.082415 0.35896 -0.014462 0.012138 0.001354 0.001241
0.00084044 -0.00074684 0.0012159 0.00031375
0.0048953 0.0030441 -0.014462 0.01228 0.35419 0.059655 4.4609e-05 -0.0013317
4.0461e-05 -0.0003044 0.00039043 0.00020411
-0.0018175 0.00091607 0.0013639 0.0012399 4.4337e-05 -0.0013325 0.17161 0.20955
-0.011475 -0.0075243 -0.00054297 -0.0010524
0.0024612 0.00040295 0.00082892 -0.00075693 3.1768e-05 -0.00030118 -0.011508 -0.0075102
0.10091 0.21562 -0.0092299 -0.0077844
7.4027e-05 -0.001312 0.0012256 0.00028023 0.00039431 0.00021178 -0.00051823 -0.0010584
-0.0092255 -0.0077864 0.1234 0.3067
1460000000 0.27895 0.15291 -0.02011 0.0042496 0.0052931 -0.0016676 -0.0012284 0.0017138
0.0016732 -0.000869 -0.00034482 -0.000837
-0.020099 0.0042199 0.11649 0.33706 -0.0060901 0.014866 0.0016827 9.2242e-05
0.00078591 -0.00092953 0.0012256 -0.00065789
0.0053059 -0.0016889 -0.006026 0.014978 0.35997 0.0048781 -0.0010053 -0.0011404
0.0002975 -9.6411e-05 0.00062492 -0.00041086
-0.0012213 0.001709 0.0016958 8.8602e-05 -0.00099584 -0.0011488 0.1989 0.18041
-0.011899 -0.0024736 -0.0011608 0.0011093
0.0016708 -0.0008864 0.00078841 -0.00092981 0.00030011 -0.00010648 -0.011913 -0.0024461
0.13143 0.20019 -0.010613 -0.0025094
-0.00036195 -0.00082719 0.0012174 -0.00067752 0.00061161 -0.00040894 -0.001214 0.001106
-0.0106 -0.0025101 0.15704 0.2848
1520000000 0.29209 0.10982 -0.014649 0.0097865 0.0029887 -0.0038777 0.00020597 0.0022611
0.0013737 -0.0016089 -0.0011413 -0.00015302
-0.014652 0.0097482 0.14986 0.32205 0.0013353 0.012849 0.0015657 -0.00084352
0.00019652 -0.00084088 0.00028625 -0.0010679
0.0029733 -0.0038826 0.0014605 0.01291 0.35271 -0.051443 -0.00083547 -0.00038951
0.00056143 -0.00075614 2.1886e-07 -3.8908e-05
0.00021601 0.002259 0.0015601 -0.00085143 -0.00083387 -0.00039151 0.22315 0.14178
-0.011348 0.0014003 0.0007406 0.0014652
0.0013619 -0.0016226 0.00019744 -0.0008278 0.00056549 -0.00075862 -0.011359 0.0014276
0.16026 0.1845 -0.010559 0.0014221
-0.0011498 -0.00015311 0.0002774 -0.001073 -2.4011e-05 -2.4953e-05 0.00075664 0.0014925
-0.010567 0.0014204 0.18991 0.26405
1580000000 0.30191 0.061647 -0.0083252 0.012784 -0.00091243 -0.0045282 0.0012236 0.0015688
-0.00055587 -0.0017752 -0.00035713 0.00030465
-0.0083333 0.012777 0.177 0.29717 0.0049293 0.0081509 0.00039595 -0.0015839
-0.00021257 -0.0011022 -0.00032368 -0.00092071
-0.00093173 -0.0045357 0.0050565 0.0081494 0.33219 -0.10919 -0.0014586 0.00033694
-0.00030492 -0.0011552 0.00015886 -0.00052583
0.0012281 0.0015607 0.00037777 -0.0015927 -0.0014652 0.00032915 0.23805 0.10127
-0.0091107 0.0049474 0.0014887 0.000625
-0.00058052 -0.001767 -0.00020696 -0.0010977 -0.00031277 -0.0011592 -0.0091227 0.004973
0.18493 0.16512 -0.0085247 0.0065688
-0.00037488 0.00032658 -0.00033467 -0.0009131 0.00016999 -0.00054433 0.0015127 0.00057369
-0.0085239 0.0065726 0.22177 0.23711
1640000000 0.30351 0.017587 -0.0019501 0.01203 -0.0026227 -0.0022207 0.0023022 0.0010554
-0.0006716 -0.00078564 -0.00039371 0.00068828
-0.0019549 0.012031 0.20638 0.27187 0.0056143 0.0035823 -0.00073457 -0.0015955
-0.00095196 -0.00065731 -0.0005891 -0.00063292
-0.0026343 -0.0022196 0.0057133 0.0035334 0.30351 -0.15817 -0.00098253 0.0012664
-0.0010431 -0.00085108 -7.6481e-05 -0.00020076
0.0022924 0.0010388 -0.00075339 -0.001595 -0.00098757 0.0012589 0.25053 0.050711
-0.0062963 0.0057342 0.0018656 -0.00050076
-0.00069109 -0.00076663 -0.00095094 -0.00064769 -0.0010447 -0.00083799 -0.0062916 0.0057458
0.20812 0.13889 -0.0042148 0.0084602
-0.0003693 0.00068223 -0.00060377 -0.00063713 -9.0546e-05 -0.00020516 0.0018411 -0.00047901
-0.0042181 0.008452 0.24742 0.20557
1700000000 0.29413 -0.029904 0.0014794 0.0094682 -0.003157 0.00021657 0.0027851 -0.00080685
-0.0014961 -0.00034774 0.00053437 0.00050227
0.0014814 0.0094639 0.22429 0.24012 0.0037647 0.00075746 -0.0014128 -0.00050449
-0.0009458 -0.0001078 -0.00094845 -0.00034501
-0.0031673 0.00022235 0.0038173 0.00069002 0.25976 -0.19795 0.00020632 0.0016757
-0.0017891 -0.00025044 -0.00054326 -0.00091222
0.002781 -0.00081853 -0.0014218 -0.00050038 0.00020916 0.001673 0.24659 -0.00098523
-0.0048429 0.006326 0.0012361 -0.0018238
-0.0015025 -0.0003412 -0.00096401 -0.00011528 -0.0017969 -0.00024411 -0.0048454 0.0063522
0.22541 0.11621 0.00014423 0.0088712
0.0005717 0.00051347 -0.00095193 -0.0003156 -0.00054771 -0.00092052 0.0012609 -0.0018375
0.00015554 0.0088842 0.26352 0.17056
1760000000 0.27921 -0.079867 0.0038272 0.006511 -0.0019819 0.00071171 0.0015368 -0.0030556
-0.00081839 0.00059125 0.00057474 -0.00031768
0.0038228 0.0065098 0.24999 0.19989 0.0015983 -0.00095395 -0.0010816 0.00027374
-0.0013751 0.00092902 -0.00057425 0.00059205
-0.0019829 0.0007108 0.0016175 -0.0010216 0.21038 -0.23092 0.001119 0.0015032
-0.0011548 0.0013669 -0.0013116 -0.00042462
0.001512 -0.0030753 -0.0010833 0.00027477 0.001115 0.0015086 0.2357 -0.053718
-0.0025889 0.0062373 -0.00048438 -0.0020212
-0.00083344 0.00060322 -0.0013678 0.00094738 -0.0011438 0.0013738 -0.0025723 0.0062553
0.24002 0.078621 0.003748 0.0061728
0.00058383 -0.00028592 -0.00057313 0.00057885 -0.0013441 -0.00043574 -0.00053199 -0.0020371
0.0037469 0.0061648 0.27579 0.13255
1820000000 0.25104 -0.11703 0.0042937 0.0031009 9.1483e-05 0.0021479 -0.0006506 -0.0030931
-0.00072269 0.0003642 0.00022283 -0.00011452
0.0042943 0.0031003 0.25946 0.16952 -0.00015495 0.0001464 -0.0013327 0.00085875
-0.00020079 0.0016215 -0.00043063 0.0006042
8.6997e-05 0.002148 -0.00016263 9.7011e-05 0.16069 -0.24609 0.0017026 0.0005257
-0.00034828 0.0022162 -0.0013127 0.00055631
-0.00065566 -0.0030762 -0.0013257 0.00085542 0.001694 0.00052722 0.20302 -0.10109
-0.0017792 0.0052119 -0.0015797 -0.0011285
-0.00071459 0.00038373 -0.00018175 0.0016344 -0.00033503 0.0022133 -0.0017796 0.0052133
0.25556 0.046387 0.0045054 0.0028326
0.00022553 -0.00015612 -0.00042356 0.00061761 -0.0012754 0.00057108 -0.001563 -0.0010755
0.0045084 0.0028392 0.27765 0.095963
1880000000 0.21288 -0.15567 0.0022486 0.00092796 -0.00035969 0.0018805 -0.0027753 -0.0023586
-0.00057861 0.0013405 0.00059377 -0.00078848
0.0022348 0.00092247 0.26342 0.12288 -0.0020768 0.0016982 -8.7077e-05 0.0017056
0.00080903 0.001611 0.00033906 0.00096594
-0.00036546 0.0018937 -0.0020803 0.0016685 0.10856 -0.25537 0.002051 -0.0011308
0.0015188 0.0020108 -0.00092578 0.0014474
-0.0028136 -0.002351 -6.9027e-05 0.0017097 0.0020571 -0.001126 0.16052 -0.13998
-0.0016307 0.0043598 -0.0022781 0.00083641
-0.00055005 0.0013669 0.00083048 0.0016029 0.0015255 0.0020051 -0.0016197 0.0043435
0.25592 0.010757 0.0039523 0.00091843
0.00062278 -0.00078763 0.0003481 0.00092787 -0.00091569 0.0014557 -0.0022952 0.00079966
0.0039556 0.00091447 0.27701 0.061932
1940000000 0.17171 -0.17877 0.00034002 -0.00074679 0.0011061 0.0017434 -0.0039723 0.00028486
0.00097957 0.0010488 -0.00076775 -0.00076571
0.00033799 -0.00073997 0.26326 0.091036 -0.0010262 0.0037765 0.00099175 0.0012458
0.0023339 0.00051164 0.00088487 0.00019323
0.0011227 0.0017391 -0.0010365 0.0037556 0.062566 -0.24926 0.0003403 -0.0025111
0.0025586 0.00053201 0.00048854 0.0015627
-0.0039426 0.00029279 0.00099674 0.0012273 0.00034561 -0.0025113 0.10679 -0.16797
-0.0028295 0.0044241 -0.0010526 0.0020843
0.0010105 0.0010405 0.0023466 0.00048187 0.0025583 0.0005139 -0.0027901 0.0044565
0.25372 -0.030467 0.002638 -0.0018577
-0.00079214 -0.00078283 0.00089746 0.00019204 0.00053314 0.0015498 -0.0010805 0.0021441
0.0026258 -0.0018561 0.26576 0.025767
2000000000 0.12475 -0.19008 -0.0032548 0.0011737 0.0023365 0.0017237 -0.0025103 0.0036446
0.0010322 0.00053311 -0.0011068 0.00040252
-0.0032527 0.0011799 0.24846 0.055742 -0.00085515 0.0055555 0.0016155 0.00014623
0.0017308 -0.0018799 0.00039001 1.2969e-06
0.0023594 0.0017018 -0.0008644 0.005546 0.018883 -0.23484 -0.0016729 -0.0014477
0.0019688 -0.0014136 0.0015893 0.001288
-0.0024945 0.0036628 0.001607 0.00014792 -0.0016814 -0.0014471 0.054109 -0.17535
-0.0037318 0.0056013 0.000299 0.002201
0.0010191 0.00048416 0.0017088 -0.0019058 0.0019695 -0.001404 -0.0037296 0.0056486
