!Keysight Technologies,M9804A,MY58100912,A.14.10.03
!Date: Thursday, April 27, 2023 10:28:33
!Correction: S11(C  6-Port  ) 
!S12(C  6-Port  ) 
!S13(C  6-Port  ) 
!S14(C  6-Port  ) 
!S15(C  6-Port  ) 
!S16(C  6-Port  ) 
!S21(C  6-Port  ) 
!S22(C  6-Port  ) 
!S23(C  6-Port  ) 
!S24(C  6-Port  ) 
!S25(C  6-Port  ) 
!S26(C  6-Port  ) 
!S31(C  6-Port  ) 
!S32(C  6-Port  ) 
!S33(C  6-Port  ) 
!S34(C  6-Port  ) 
!S35(C  6-Port  ) 
!S36(C  6-Port  ) 
!S41(C  6-Port  ) 
!S42(C  6-Port  ) 
!S43(C  6-Port  ) 
!S44(C  6-Port  ) 
!S45(C  6-Port  ) 
!S46(C  6-Port  ) 
!S51(C  6-Port  ) 
!S52(C  6-Port  ) 
!S53(C  6-Port  ) 
!S54(C  6-Port  ) 
!S55(C  6-Port  ) 
!S56(C  6-Port  ) 
!S61(C  6-Port  ) 
!S62(C  6-Port  ) 
!S63(C  6-Port  ) 
!S64(C  6-Port  ) 
!S65(C  6-Port  ) 
!S66(C  6-Port  ) 
!S6P File: Measurement: :
# Hz S  RI   R 50
500000000 -0.33668 -0.03257 -0.0098915 -0.0042819 -0.0082126 0.011703 -0.0039099 0.011602
0.011824 0.0046967 -0.0042373 0.0081848
-0.0098781 -0.0042672 -0.4195 -0.048693 0.0072953 -0.011532 0.0013751 0.010922
0.0076232 0.0029567 0.00092575 0.011953
-0.008198 0.011687 0.0072875 -0.011546 -0.26521 0.21202 0.0067407 0.0029081
0.0003295 0.0085121 0.00037874 0.011531
-0.003883 0.011598 0.0013903 0.010917 0.0067289 0.0029083 -0.32764 0.048628
-0.020472 -0.0049697 0.017363 0.024942
0.011796 0.0047412 0.0076385 0.0029702 0.00032726 0.0085226 -0.020467 -0.0049712
-0.2273 -0.18163 -0.028427 0.0043751
-0.0042334 0.0082245 0.00095351 0.011986 0.00040852 0.01154 0.017367 0.024962
-0.028393 0.0043917 -0.27232 -0.12817
560000000 -0.3149 0.12602 -0.024798 -0.063196 0.00043635 0.012212 0.0063935 0.010273
0.011366 0.0040944 0.0093539 0.0078583
-0.024749 -0.0631 -0.37724 0.1106 -0.041978 -0.036712 0.014547 0.0039077
-0.012996 -0.0048853 0.0051153 -0.00047124
0.00049302 0.012177 -0.042118 -0.036666 -0.18255 0.26029 -0.00098484 -0.0047073
0.019422 0.0042093 0.006896 -0.0060695
0.0064108 0.010285 0.01458 0.0038878 -0.001006 -0.0046845 -0.302 0.13735
0.0033491 -0.024336 0.0051869 -0.019683
0.011383 0.0040609 -0.013036 -0.0048773 0.019436 0.0041938 0.0033214 -0.024335
-0.28632 -0.0078037 0.0067795 -0.05103
0.0094079 0.0078394 0.0050868 -0.00049067 0.0068924 -0.0060736 0.0051832 -0.019667
0.0067971 -0.051042 -0.33273 0.020585
620000000 -0.27281 0.11094 -0.023483 0.0072522 0.003361 0.0082486 0.0071808 -0.0056836
0.011031 -0.00025584 0.00081345 -0.0016886
-0.023476 0.0072478 -0.40275 0.064092 -0.018811 6.8581e-05 -0.0015842 -0.002048
0.010639 -0.0069526 0.00072252 -0.0026697
0.0033882 0.0082236 -0.018829 0.00010719 -0.15205 0.26935 -0.001998 -0.0049307
-0.0028835 -0.003774 0.0080812 -0.0036758
0.0071682 -0.0056863 -0.0016018 -0.0020491 -0.0020109 -0.0049503 -0.26012 0.14676
-0.039222 -0.018244 0.014694 0.024715
0.011013 -0.00029593 0.010626 -0.0070094 -0.0029024 -0.0037878 -0.039252 -0.018191
-0.20618 -0.046398 -0.040594 0.013985
0.00079615 -0.0017099 0.00072601 -0.0026804 0.0081093 -0.00367 0.014705 0.024726
-0.040531 0.013952 -0.25149 -0.016099
680000000 -0.23194 0.19366 -0.027732 -0.013718 0.0050984 0.0051077 0.00073939 -0.0078015
-0.0031888 -0.01091 0.0043317 -0.0075879
-0.02771 -0.013729 -0.38665 0.16099 -0.032811 -0.00094071 -0.0016383 -0.00067883
-0.0027838 -0.0087996 -0.00066868 -0.0025225
0.0051017 0.0051062 -0.03283 -0.00086709 -0.10139 0.28834 -0.00070556 -6.0703e-05
-0.0023723 0.00078179 -0.0027578 -0.0096624
0.00074022 -0.0078136 -0.0016334 -0.00065778 -0.00071728 -6.2614e-05 -0.218 0.19615
-0.023567 -0.0077986 -0.011086 -0.0099904
-0.0031957 -0.010915 -0.0028078 -0.0088124 -0.0023784 0.00077822 -0.023572 -0.007793
-0.25166 0.05194 -0.0054677 -0.0088739
0.0043099 -0.0075806 -0.00068028 -0.0025289 -0.00277 -0.0096556 -0.01109 -0.010037
-0.0054604 -0.0088585 -0.2632 0.088888
740000000 -0.18875 0.18934 -0.037904 0.026716 0.01285 -0.0052563 -0.00076424 -0.0041326
-0.0042912 -0.0027094 -0.006422 0.0031276
-0.037906 0.026652 -0.33453 0.17929 -0.034508 0.035325 -0.00078301 -0.0065958
-0.011636 0.0086068 -0.002868 -0.0061094
0.012837 -0.0052959 -0.034434 0.035452 -0.067862 0.28688 -0.0012519 0.0032865
-0.003028 -0.0038925 -0.00088583 0.00041539
-0.00078711 -0.0041387 -0.00079905 -0.0065953 -0.001273 0.0032867 -0.20129 0.20372
-0.042472 -0.0071437 0.023272 0.012874
-0.0043304 -0.0027078 -0.011586 0.0086921 -0.0030526 -0.0038787 -0.042481 -0.0070889
-0.15643 0.073825 -0.042393 0.0021132
-0.006401 0.0031492 -0.0028745 -0.0061319 -0.00088887 0.00040646 0.023298 0.012839
-0.042351 0.0020766 -0.25127 0.095469
800000000 -0.15667 0.22913 -0.022056 0.017365 0.005389 -0.010583 -0.0047914 -0.0019691
-0.0042303 0.0026413 0.0042801 0.00078607
-0.022037 0.017349 -0.33658 0.24937 -0.0074737 0.034091 -0.0020605 0.0021196
-0.00045825 0.0034829 0.0012618 0.0052686
0.0053528 -0.010586 -0.007375 0.034152 -0.026613 0.30962 0.0011399 0.0015798
0.00069503 0.0035224 -0.0018014 0.001013
-0.0047859 -0.0019673 -0.0020489 0.0021257 0.0011458 0.0015693 -0.1735 0.23136
-0.028213 0.013039 0.013404 -0.0098299
-0.0042322 0.002649 -0.00045482 0.0034874 0.00069007 0.0035182 -0.028235 0.013103
-0.19868 0.098842 -0.017677 0.017759
0.0042697 0.00076955 0.0012777 0.0052831 -0.0018079 0.0010155 0.013409 -0.0098603
-0.01768 0.017725 -0.24491 0.14988
860000000 -0.12168 0.25022 -0.016645 0.031255 -0.0032632 -0.0099927 -0.002486 0.0012039
0.0041552 0.0050238 -0.0027359 -0.0028139
-0.016625 0.031223 -0.28861 0.29109 0.0084969 0.034108 0.00025848 0.0020325
0.0043977 0.00023808 0.0033727 0.00024717
-0.0032871 -0.0099747 0.0086117 0.034116 0.021653 0.31742 -0.00031129 -0.0002346
0.0027354 -0.0016062 0.001686 0.0043228
-0.0024749 0.0012035 0.00025406 0.0020534 -0.00030688 -0.00023836 -0.13804 0.24302
-0.017363 0.018498 -0.0059099 -0.0092682
0.0042073 0.0050101 0.0044045 0.00021869 0.0027252 -0.0016114 -0.017372 0.018545
-0.14963 0.14638 -0.023352 0.015741
-0.0027512 -0.0028167 0.0033771 0.00024188 0.0016899 0.0043202 -0.0059156 -0.0092619
-0.023367 0.015685 -0.19424 0.19294
920000000 -0.096621 0.27349 0.0055045 0.037748 -0.0095344 -0.0043568 -0.0017202 0.0023184
0.0011939 0.0016925 0.0026942 -0.0012125
0.0054949 0.037708 -0.25991 0.31178 0.028219 0.021427 0.0016914 0.0011762
0.0068679 -0.00088274 0.0038145 -0.0027471
-0.0095517 -0.0043331 0.028332 0.021367 0.068021 0.31781 0.001772 -0.00013863
0.0013206 -0.00057285 0.00073029 -0.0011095
-0.0017193 0.0023166 0.0016845 0.0011815 0.0017755 -0.00013447 -0.11334 0.25946
-0.0099245 0.029923 0.0028359 -0.0065181
0.0012162 0.0017068 0.0068635 -0.00090402 0.0013371 -0.00057317 -0.0098723 0.029955
-0.139 0.15262 -0.0015482 0.027437
0.0027045 -0.0012318 0.0038052 -0.002753 0.00072265 -0.0011164 0.0028351 -0.0065318
-0.0015767 0.027408 -0.20109 0.20707
980000000 -0.048858 0.29255 0.018206 0.029673 -0.0089333 0.0047226 0.0024183 0.0036579
0.0040513 -0.0016658 -0.0028601 -0.0020936
0.018201 0.029654 -0.20711 0.34518 0.033008 0.0042762 0.0020604 -1.7698e-05
0.0010972 -0.0062088 -0.0004677 -0.0023861
-0.0089272 0.0047388 0.03306 0.0041847 0.11443 0.3111 0.00036242 -0.0011619
-6.2097e-05 -0.0021819 0.0014525 -0.0001266
0.0024301 0.0036483 0.0020477 -2.7239e-05 0.0003565 -0.001168 -0.07516 0.27075
0.00801 0.028169 -0.0094159 -0.0067157
0.0040508 -0.0016696 0.0010646 -0.0062314 -5.7649e-05 -0.0021866 0.0080587 0.028169
-0.10766 0.17927 0.0056633 0.018661
-0.0028632 -0.0020782 -0.00049428 -0.0023772 0.0014493 -0.00012823 -0.0094174 -0.0067038
0.0056455 0.018641 -0.15811 0.25136
1040000000 -0.0059964 0.30072 0.033378 0.017307 -0.0012485 0.0069036 0.0028564 0.00074035
0.00015062 -0.0036027 -0.00060238 -0.0014051
0.033354 0.017292 -0.17141 0.35807 0.028971 -0.015294 0.0015247 -0.0017015
-0.0026576 -0.0022824 -0.0015259 -0.0026765
-0.0012192 0.006896 0.028966 -0.015395 0.16084 0.29705 -0.00056223 -0.0014175
-0.0016326 -0.0007541 -0.00048486 -0.00098589
0.0028829 0.00073806 0.001515 -0.0016929 -0.00056229 -0.0014237 -0.047571 0.2808
0.018696 0.016493 -0.0032109 0.0018182
0.00014325 -0.0035919 -0.0026996 -0.002272 -0.0016268 -0.00075319 0.018743 0.016476
-0.077124 0.18762 0.013884 0.017616
-0.00061809 -0.0014076 -0.0015524 -0.0026459 -0.00047856 -0.00098579 -0.0032084 0.0018364
0.013866 0.017614 -0.1365 0.27264
1100000000 0.039762 0.30767 0.035714 -0.0050748 0.0028614 0.0037519 0.0025823 -0.0014761
-0.0020103 -0.003028 -0.0039168 -2.6379e-05
0.035688 -0.0050623 -0.12798 0.37505 0.014562 -0.027982 3.8605e-05 -0.0018517
-0.0032727 -0.00031831 -0.003504 -0.00046152
0.00288 0.003743 0.014482 -0.028065 0.20739 0.2762 -0.0018138 0.00033764
-0.0016809 0.00074954 -0.00094902 -0.00031694
0.0025802 -0.0014802 2.2132e-05 -0.0018536 -0.0018135 0.00033363 -0.00691 0.28549
0.02274 0.0041511 -0.0024657 0.00085931
-0.0020264 -0.0030109 -0.0032899 -0.00029961 -0.001677 0.0007511 0.022762 0.0041183
-0.058856 0.20027 0.018802 0.0080548
-0.0039149 -1.5541e-05 -0.0035129 -0.00043384 -0.00095397 -0.00030995 -0.0024674 0.00086647
0.018798 0.0080541 -0.089797 0.30208
1160000000 0.091385 0.30214 0.023414 -0.021365 0.0025734 -0.00048591 -1.8404e-05 -0.002525
-0.0041596 -0.00042986 -0.00094234 0.0040625
0.02342 -0.021347 -0.083981 0.37927 -0.004329 -0.028929 -0.0018207 -0.0016226
-0.002345 0.0028236 -0.0012945 0.001617
0.0025758 -0.00049459 -0.0044374 -0.028928 0.25047 0.24464 -0.00052475 0.0017548
-0.00020305 0.0018828 -0.0010132 0.00014898
-6.3987e-06 -0.0025236 -0.001832 -0.0016123 -0.00052908 0.0017497 0.032464 0.28258
0.0188 -0.010667 -0.0029884 0.0056386
-0.0041623 -0.00040117 -0.0023595 0.0028333 -0.00020319 0.0018947 0.018789 -0.010694
-0.026094 0.20964 0.017556 -4.3755e-05
-0.00090224 0.0040673 -0.0012932 0.0016304 -0.0010223 0.00014631 -0.0029799 0.0056433
0.017546 -5.797e-05 -0.042888 0.30523
1220000000 0.13596 0.29027 0.0095557 -0.030205 -0.0016176 -0.00068755 -9.5701e-05 -0.0011586
-0.0026072 0.0025692 0.0013279 0.0019348
0.0095734 -0.030176 -0.039565 0.39073 -0.017174 -0.020711 -0.0025189 0.0004988
0.0004179 0.0029331 -0.0005943 0.0017863
-0.0016194 -0.00068139 -0.017285 -0.020651 0.28919 0.20488 0.00098705 0.0015492
0.00070805 0.0010545 0.00032022 0.0006511
-0.00010038 -0.0011638 -0.0025237 0.00051232 0.00099144 0.0015522 0.072259 0.27377
0.0084069 -0.015967 0.0026197 0.0018458
-0.0026061 0.0025698 0.00043293 0.0029271 0.00070826 0.0010575 0.0083851 -0.015987
-0.0027749 0.21959 0.013139 -0.012868
0.001342 0.00193 -0.00058819 0.0017878 0.0003204 0.00065236 0.002621 0.0018472
0.013157 -0.012858 -0.010629 0.32155
1280000000 0.18549 0.26745 -0.008675 -0.028209 -0.0018053 0.0026045 -0.001125 -0.002098
-0.0005752 0.0032232 0.0026106 0.00099918
-0.0086422 -0.028173 0.0065111 0.38142 -0.023674 -0.0080024 -0.00093813 0.0015158
0.0018419 0.0015395 0.00058077 0.0019529
-0.0017975 0.0026095 -0.02374 -0.0079027 0.31912 0.16066 0.0014283 -0.00025492
0.00098097 -1.18e-05 0.00029572 0.00037058
-0.0011397 -0.00209 -0.00092201 0.0015176 0.0014253 -0.00025627 0.10865 0.2575
-0.0007053 -0.017057 0.00057157 0.00034487
-0.00055429 0.0032336 0.001843 0.0015369 0.00098546 -6.9929e-06 -0.00073502 -0.017064
0.03406 0.22357 0.0023755 -0.014779
0.0026176 0.00099812 0.00060015 0.00195 0.00029541 0.00037718 0.00057301 0.00034342
0.0023821 -0.014773 0.037056 0.32299
1340000000 0.2224 0.23284 -0.018226 -0.01832 0.0010012 0.0044195 -0.0020347 -0.00074264
0.0014996 0.0025891 0.0016537 -0.0015498
-0.018193 -0.018307 0.04615 0.37236 -0.021368 0.0046222 2.0471e-05 0.0019031
0.0018106 0.00045914 0.0013545 0.00079658
0.0010165 0.0044187 -0.021364 0.0047189 0.34064 0.11264 0.00090078 -0.00097696
0.00054398 -0.00044361 0.00022129 0.0001879
-0.0020323 -0.00073525 2.3158e-05 0.0019117 0.00090746 -0.00098312 0.14144 0.23721
-0.0086383 -0.013551 0.0014148 0.00018513
0.0015209 0.0025821 0.0018128 0.00045062 0.00055036 -0.000448 -0.0086707 -0.013535
0.065036 0.21936 -0.0041764 -0.01298
0.0016406 -0.0015577 0.0013691 0.00078868 0.00022387 0.00018353 0.0014155 0.00018023
-0.004157 -0.012982 0.076217 0.31816
1400000000 0.25492 0.19397 -0.023488 -0.0066658 0.0052283 0.0030951 -0.0021414 0.00081559
0.0025541 0.00066557 0.0001475 -0.0014039
-0.023462 -0.0066725 0.082969 0.35877 -0.014474 0.012571 0.0013707 0.0011424
0.00083278 -0.00096461 0.0011583 0.00022829
0.0052506 0.0030779 -0.014429 0.012649 0.35317 0.059262 -6.3482e-05 -0.0015111
-7.194e-05 -0.00031096 0.00030795 0.00028444
-0.0021363 0.00081776 0.0013717 0.0011433 -6.2528e-05 -0.0015068 0.17124 0.2088
-0.013237 -0.0069929 -0.00034457 -0.00059958
0.002561 0.00064562 0.00082649 -0.00097553 -7.0352e-05 -0.00031371 -0.013267 -0.0069628
0.098659 0.21453 -0.010367 -0.0079487
0.00012792 -0.0014031 0.0011641 0.00021943 0.00031123 0.00028401 -0.00034701 -0.00059748
-0.010364 -0.0079528 0.12104 0.30687
1460000000 0.27721 0.1492 -0.020135 0.0053697 0.0055878 -0.0018271 -0.0015089 0.0018801
0.0020483 -0.00083732 -0.00039964 -0.00091818
-0.020134 0.0053529 0.11687 0.33646 -0.005778 0.015174 0.0016192 8.5158e-05
0.00060004 -0.0010999 0.0011317 -0.0006285
0.0055823 -0.0018435 -0.0057032 0.015217 0.35893 0.0051295 -0.0012351 -0.0011099
0.00024597 -0.00013156 0.00063552 -0.00037029
-0.0014984 0.0018851 0.0016118 7.4356e-05 -0.001226 -0.0011066 0.19813 0.17967
-0.01311 -0.0012274 -0.00082134 0.0014955
0.0020392 -0.00084558 0.00059862 -0.0011143 0.00024492 -0.0001284 -0.013128 -0.0011895
0.12912 0.19967 -0.011517 -0.0023239
-0.00040395 -0.00091974 0.0011217 -0.00064464 0.00063392 -0.00036522 -0.00081834 0.0015022
-0.011528 -0.0023311 0.15415 0.28565
1520000000 0.28863 0.10699 -0.014196 0.010744 0.0031954 -0.0042074 0.00025441 0.0026338
0.0016226 -0.0018269 -0.0011681 -7.3848e-05
-0.014195 0.010727 0.14983 0.32132 0.0017046 0.012906 0.0015201 -0.00080344
-2.1237e-05 -0.00077193 0.00027792 -0.00098949
0.0031802 -0.0042252 0.0017774 0.012916 0.35221 -0.050981 -0.00091593 -0.0002439
0.00060436 -0.00081872 1.6418e-05 -0.00010858
0.00027434 0.0026333 0.0015207 -0.00081448 -0.00091717 -0.00024677 0.22202 0.14142
-0.011641 0.0032184 0.0012475 0.0016183
0.0016102 -0.0018349 -2.4129e-05 -0.00077305 0.00060914 -0.00081961 -0.01164 0.0032493
0.15785 0.18446 -0.011298 0.0021212
-0.0011781 -7.2421e-05 0.00027126 -0.00098959 1.6837e-05 -0.00011185 0.0012442 0.0016189
-0.0113 0.0021222 0.18746 0.26513
1580000000 0.29716 0.060359 -0.007469 0.013502 -0.00098607 -0.0048934 0.0015316 0.0017754
-0.00059667 -0.0020441 -0.00025994 0.00039737
-0.0074742 0.013479 0.17659 0.29648 0.0052383 0.0080725 0.00040394 -0.0015034
-0.00033389 -0.00080646 -0.00027172 -0.0008489
-0.0010079 -0.0048873 0.005293 0.0080529 0.3319 -0.10845 -0.0013346 0.00055865
-0.00030768 -0.0010287 0.00013432 -0.00053302
0.0015413 0.001773 0.000403 -0.0015048 -0.0013317 0.00056531 0.23661 0.10133
-0.0083799 0.0065193 0.0019558 0.00047308
-0.00060717 -0.0020408 -0.00034126 -0.00080146 -0.00031158 -0.0010342 -0.008358 0.0065449
0.18259 0.16538 -0.0087347 0.0074741
-0.00026204 0.00039932 -0.00027589 -0.00085018 0.00013506 -0.0005366 0.0019621 0.00045646
-0.0087333 0.0074733 0.21961 0.23841
1640000000 0.29822 0.018654 -0.00086648 0.012114 -0.0028087 -0.0025421 0.0026234 0.0008816
-0.00095625 -0.0010156 -0.00027355 0.00066606
-0.00087302 0.012095 0.20564 0.27135 0.0058524 0.0033629 -0.0007065 -0.0015711
-0.0007758 -0.00042952 -0.0005347 -0.00066463
-0.0028211 -0.002536 0.0058756 0.0033312 0.30369 -0.1574 -0.00070703 0.0012345
-0.0010659 -0.00080218 -9.4603e-05 -0.00037816
0.0026173 0.00085414 -0.00071505 -0.0015792 -0.00070724 0.0012329 0.24908 0.051481
-0.0049549 0.0065475 0.0021464 -0.00086992
-0.00097226 -0.0010098 -0.00078386 -0.00042317 -0.0010698 -0.00080542 -0.0049467 0.0065664
0.20577 0.13925 -0.0040109 0.0093438
-0.00026589 0.000672 -0.0005379 -0.00066016 -0.00010094 -0.00038209 0.0021529 -0.00088177
-0.0040171 0.0093448 0.24553 0.20722
1700000000 0.28977 -0.026568 0.002405 0.0090963 -0.0034785 8.6825e-05 0.002869 -0.0011991
-0.0017621 -0.0002842 0.0006298 0.00035766
0.0023987 0.0090853 0.2233 0.23999 0.0038444 0.000537 -0.001351 -0.00053785
-0.00067998 -0.00014671 -0.00093207 -0.0004156
-0.003486 0.00010567 0.0038519 0.00052458 0.26024 -0.19749 0.00031502 0.0013854
-0.0017509 -0.00025997 -0.00064707 -0.00096641
0.0028628 -0.0012062 -0.0013555 -0.00053782 0.00031062 0.001382 0.24554 0.00046233
-0.0034648 0.0063398 0.0012763 -0.0021108
-0.001767 -0.00027636 -0.00068366 -0.00014233 -0.0017513 -0.00025592 -0.0034509 0.0063488
0.22294 0.11704 0.00068345 0.0094709
0.00063702 0.00035655 -0.00093147 -0.0004141 -0.00065342 -0.00096706 0.0012748 -0.0021136
0.00068334 0.0094696 0.26199 0.1725
1760000000 0.2765 -0.074675 0.0044274 0.0057872 -0.0022557 0.00086792 0.0012185 -0.0033404
-0.00092211 0.0007022 0.00036162 -0.00045589
0.0044133 0.0057812 0.24902 0.20026 0.0015501 -0.0011639 -0.001075 0.00016497
-0.00116 0.00067324 -0.00065336 0.00052527
-0.0022496 0.00086879 0.0015297 -0.0011775 0.21111 -0.23078 0.00099176 0.0012502
-0.0011069 0.0012334 -0.0014672 -0.00041007
0.0012047 -0.0033487 -0.0010731 0.00016719 0.0010057 0.0012521 0.23522 -0.051717
-0.0016666 0.0056081 -0.00064959 -0.002224
-0.00091822 0.0006967 -0.0011602 0.00068028 -0.0010966 0.0012367 -0.0016573 0.0056204
0.23762 0.079823 0.0043054 0.0064593
0.00036088 -0.00045714 -0.0006481 0.00053361 -0.0014715 -0.00041627 -0.00066011 -0.0022263
0.0043054 0.0064606 0.27478 0.13461
1820000000 0.25094 -0.11139 0.0044426 0.0022493 -0.00012323 0.002442 -0.0010249 -0.002972
-0.00069685 0.00049813 -2.3892e-05 -0.00010812
0.0044353 0.0022421 0.25874 0.1702 -0.0003594 1.0816e-05 -0.0013642 0.00077491
-0.00029302 0.0012387 -0.0005289 0.00054441
-0.0001135 0.0024385 -0.00036076 1.2236e-05 0.16073 -0.24649 0.0014352 0.00048091
-0.00041224 0.0020472 -0.0013572 0.00066057
-0.0010415 -0.0029677 -0.0013607 0.00077106 0.0014426 0.00048062 0.20387 -0.09929
-0.0011979 0.0044103 -0.0017694 -0.0013542
-0.00069214 0.00051147 -0.00027946 0.0012504 -0.00041598 0.0020473 -0.0011842 0.0044274
0.25329 0.048299 0.0051421 0.0028635
-2.8375e-05 -0.00010979 -0.00052252 0.00055062 -0.0013496 0.00065912 -0.0017757 -0.0013516
0.0051328 0.0028628 0.27707 0.098124
1880000000 0.21516 -0.1504 0.0020863 0.00018586 -0.00032383 0.0021823 -0.0028936 -0.0021332
-0.00033004 0.0012573 0.00027819 -0.00056175
0.0020935 0.00018159 0.26304 0.12381 -0.0021957 0.0016852 -0.0002671 0.001674
0.00046718 0.0014078 0.0002181 0.00095799
-0.00030689 0.0021834 -0.0021834 0.0017012 0.10882 -0.25574 0.0018726 -0.00091794
0.0013784 0.0019953 -0.00089223 0.0015641
-0.0029052 -0.0021144 -0.00025267 0.0016681 0.0018722 -0.00091917 0.16205 -0.13858
-0.0014699 0.003563 -0.0024271 0.00074322
-0.00031744 0.0012644 0.00047751 0.0014109 0.0013772 0.0019956 -0.0014635 0.0035731
0.25403 0.013474 0.0046147 0.00072613
0.0002735 -0.00056424 0.00022751 0.00095602 -0.00088255 0.0015651 -0.0024213 0.00075127
0.0046118 0.00073571 0.27684 0.06386
1940000000 0.17575 -0.17535 -0.00011464 -0.0014188 0.0013585 0.0020404 -0.0036871 0.00059087
0.00099311 0.00098432 -0.00066179 -0.00054426
-0.000102 -0.0014159 0.26342 0.091958 -0.0011057 0.0038136 0.00091103 0.0013638
0.0019279 0.0007646 0.00087579 0.00029332
0.001356 0.0020387 -0.0010768 0.0038211 0.062671 -0.24947 0.00041696 -0.0023349
0.0023994 0.00060547 0.00045204 0.0016248
-0.0036925 0.00059935 0.00092189 0.0013599 0.00041819 -0.0023272 0.10889 -0.16768
-0.0027251 0.0036086 -0.0012493 0.0019137
0.0010058 0.0009809 0.0019376 0.00074058 0.0023988 0.00059789 -0.0027221 0.0036227
0.2529 -0.027154 0.0031617 -0.0023975
-0.00066432 -0.00053909 0.00088221 0.00028246 0.00044484 0.0016236 -0.0012398 0.0019219
0.0031511 -0.0023948 0.26557 0.027602
2000000000 0.1297 -0.18884 -0.0038793 0.00068091 0.002436 0.0015685 -0.0022243 0.003566
0.00097009 0.00039912 -0.00058704 0.00041196
-0.0038743 0.00067871 0.24896 0.056481 -0.00092086 0.0055358 0.0017087 0.00034062
0.0017424 -0.0013704 0.00053437 0.00011505
0.0024518 0.0015613 -0.00088581 0.0055473 0.018781 -0.23513 -0.0013448 -0.0014776
0.0021429 -0.0011997 0.0017216 0.0012097
-0.0022148 0.003579 0.0017072 0.00032357 -0.0013382 -0.0014795 0.055429 -0.17612
-0.0041897 0.004835 0.00013691 0.002344
