!Keysight Technologies,M9804A,MY58100912,A.14.10.03
!Date: Thursday, April 27, 2023 10:28:33
!Correction: S11(C  6-Port  ) 
!S12(C  6-Port  ) 
!S13(C  6-Port  ) 
!S14(C  6-Port  ) 
!S15(C  6-Port  ) 
!S16(C  6-Port  ) 
!S21(C  6-Port  ) 
!S22(C  6-Port  ) 
!S23(C  6-Port  ) 
!S24(C  6-Port  ) 
!S25(C  6-Port  ) 
!S26(C  6-Port  ) 
!S31(C  6-Port  ) 
!S32(C  6-Port  ) 
!S33(C  6-Port  ) 
!S34(C  6-Port  ) 
!S35(C  6-Port  ) 
!S36(C  6-Port  ) 
!S41(C  6-Port  ) 
!S42(C  6-Port  ) 
!S43(C  6-Port  ) 
!S44(C  6-Port  ) 
!S45(C  6-Port  ) 
!S46(C  6-Port  ) 
!S51(C  6-Port  ) 
!S52(C  6-Port  ) 
!S53(C  6-Port  ) 
!S54(C  6-Port  ) 
!S55(C  6-Port  ) 
!S56(C  6-Port  ) 
!S61(C  6-Port  ) 
!S62(C  6-Port  ) 
!S63(C  6-Port  ) 
!S64(C  6-Port  ) 
!S65(C  6-Port  ) 
!S66(C  6-Port  ) 
!S6P File: Measurement: :
# Hz S  RI   R 50
500000000 -0.33219 -0.02804 -0.0083989 -0.0042633 -0.0078506 0.010544 -0.003492 0.012039
0.012623 0.0041587 -0.0040645 0.0082097
-0.0081246 -0.0043457 -0.4184 -0.048068 0.0074526 -0.012413 0.0012768 0.010777
0.0079881 0.0023776 0.0010786 0.011705
-0.0077888 0.010519 0.0074482 -0.012462 -0.26376 0.2118 0.0069147 0.0026976
0.00051561 0.008074 0.00080004 0.011374
-0.0033448 0.012002 0.0013636 0.010779 0.0069316 0.0026924 -0.32542 0.049974
-0.017973 -0.0047777 0.01787 0.024035
0.012501 0.0042113 0.0079955 0.0023598 0.00053064 0.008053 -0.017962 -0.0047681
-0.22728 -0.17582 -0.026093 0.0050963
-0.0038403 0.0082491 0.0011206 0.011729 0.00078005 0.01139 0.017806 0.023985
-0.026066 0.0050905 -0.27359 -0.12218
560000000 -0.30826 0.12687 -0.022886 -0.06386 -0.00061983 0.012079 0.0070304 0.0094871
0.011638 0.0027091 0.0091892 0.0071923
-0.022921 -0.063829 -0.37494 0.1095 -0.042069 -0.036533 0.014093 0.0029645
-0.01326 -0.0045409 0.0052922 -0.0011597
-0.00064218 0.011996 -0.042231 -0.036545 -0.18192 0.25878 -0.0010384 -0.0049561
0.018346 0.00313 0.0072374 -0.0060554
0.0070087 0.0093729 0.014101 0.0029615 -0.0010297 -0.0049567 -0.30019 0.13674
0.0048513 -0.025871 0.0051148 -0.019497
0.011888 0.0027531 -0.013365 -0.0045761 0.018386 0.0031571 0.0048601 -0.025889
-0.28391 -0.0039179 0.0076209 -0.050691
0.0091356 0.0069493 0.0052944 -0.0011504 0.0072545 -0.0060472 0.0051335 -0.019526
0.0076611 -0.050706 -0.33146 0.025227
620000000 -0.26805 0.11004 -0.022748 0.0051162 0.0028968 0.0082716 0.0066943 -0.0055497
0.010816 -0.0017991 0.00020251 -0.0021925
-0.022684 0.0051914 -0.402 0.063737 -0.01919 -0.00065423 -0.0018075 -0.0020545
0.0098801 -0.0075018 0.00073912 -0.0028359
0.0032094 0.0082974 -0.019185 -0.00060154 -0.15246 0.26692 -0.0017852 -0.0047855
-0.0044685 -0.0035117 0.0079381 -0.0034425
0.0067223 -0.0054043 -0.0018388 -0.0020122 -0.0017969 -0.0047192 -0.25922 0.14621
-0.037608 -0.019161 0.014577 0.023911
0.010608 -0.0019283 0.0098684 -0.0075729 -0.004433 -0.0035472 -0.037635 -0.01915
-0.20418 -0.043184 -0.039668 0.013266
5.7086e-05 -0.0020447 0.00072292 -0.0028495 0.0079328 -0.0034565 0.014657 0.023841
-0.039706 0.013365 -0.25125 -0.010292
680000000 -0.2272 0.18956 -0.028505 -0.015632 0.0046467 0.0052224 -4.5494e-05 -0.0081471
-0.0037394 -0.0107 0.0039642 -0.0068895
-0.02848 -0.015637 -0.38661 0.16036 -0.033058 -0.0010993 -0.0018417 -0.00035763
-0.0032098 -0.0083882 -0.00084053 -0.0024531
0.0046664 0.005246 -0.033081 -0.0010236 -0.1022 0.28749 -0.00059045 0.00033111
-0.0025628 0.0013268 -0.0031486 -0.0095976
-6.5895e-06 -0.0081153 -0.0018457 -0.00034445 -0.0005984 0.00034273 -0.21784 0.19493
-0.023671 -0.0093954 -0.010888 -0.010098
-0.003801 -0.010749 -0.0032312 -0.0084004 -0.0025772 0.0013251 -0.023698 -0.0093851
-0.24705 0.052562 -0.0049821 -0.010421
0.0039577 -0.0070045 -0.00083969 -0.0024533 -0.0031567 -0.0095998 -0.01086 -0.010082
-0.0050027 -0.010391 -0.26205 0.0919
740000000 -0.1878 0.18465 -0.03948 0.025196 0.012277 -0.0048945 -0.0010459 -0.0040859
-0.0043359 -0.0017998 -0.0062706 0.0032072
-0.039297 0.025158 -0.33582 0.17954 -0.034854 0.034752 -0.00074136 -0.0059768
-0.011368 0.0082691 -0.0022359 -0.0057976
0.012303 -0.0049419 -0.034784 0.034883 -0.068826 0.28715 -0.0010444 0.0035196
-0.0027673 -0.003752 -0.00092984 0.00067133
-0.0010675 -0.0040475 -0.00077351 -0.0060002 -0.0010559 0.0035161 -0.20113 0.2025
-0.042785 -0.0081915 0.022271 0.012505
-0.0044326 -0.0018779 -0.011295 0.0083029 -0.0027727 -0.003742 -0.042822 -0.0081325
-0.15639 0.072653 -0.042225 0.00075922
-0.0064694 0.0033475 -0.0022526 -0.0057973 -0.00094416 0.00070437 0.022344 0.012515
-0.042178 0.00071244 -0.25014 0.099175
800000000 -0.1584 0.22502 -0.02417 0.01729 0.0051668 -0.010366 -0.005021 -0.001927
-0.0040398 0.0036351 0.0045184 0.00075302
-0.024184 0.017265 -0.33749 0.25 -0.0078404 0.034421 -0.0019244 0.0022894
-0.0001021 0.0037436 0.0013034 0.0051837
0.0051372 -0.010376 -0.0077581 0.034474 -0.027435 0.31054 0.0013753 0.0013498
0.00088993 0.0034405 -0.0019968 0.0010903
-0.0050312 -0.0018972 -0.0019224 0.0023021 0.0013705 0.001367 -0.17435 0.2306
-0.029099 0.012241 0.012594 -0.0095206
-0.0040757 0.0036301 -7.8201e-05 0.0037472 0.00090898 0.0034476 -0.029096 0.01231
-0.19805 0.097913 -0.017952 0.017218
0.0043809 0.00085282 0.0013202 0.0051771 -0.0020209 0.0010943 0.012587 -0.0095471
-0.017953 0.017191 -0.24346 0.1526
860000000 -0.12454 0.24781 -0.018397 0.032156 -0.0037042 -0.0096739 -0.0027869 0.0018118
0.0047355 0.0050533 -0.0026811 -0.0033634
-0.018332 0.032078 -0.28949 0.2922 0.0083276 0.034339 0.00032477 0.0020568
0.0049703 -0.00031554 0.0033254 6.3372e-05
-0.0037335 -0.0096584 0.0084402 0.034353 0.021569 0.31851 -0.00038372 -0.00042627
0.0027455 -0.0016338 0.0016149 0.0043822
-0.0027796 0.0017276 0.00031561 0.0020053 -0.000384 -0.00042756 -0.13916 0.24334
-0.018678 0.018976 -0.0061372 -0.0094178
0.0047213 0.0049006 0.0049422 -0.00035668 0.0027499 -0.0016368 -0.018648 0.019021
-0.15048 0.14593 -0.023719 0.015269
-0.0026823 -0.0032165 0.003335 6.3058e-05 0.0016164 0.0043744 -0.0061788 -0.0094338
-0.023781 0.015209 -0.19232 0.19519
920000000 -0.09904 0.27262 0.0046452 0.039197 -0.0093878 -0.0037402 -0.0015026 0.0028342
0.0015969 0.001379 0.002212 -0.0014225
0.0045893 0.039178 -0.25973 0.3131 0.028501 0.021786 0.00167 0.0010379
0.0067277 -0.00096233 0.0035116 -0.00284
-0.0094235 -0.0037181 0.028582 0.021734 0.068467 0.31864 0.0016927 -0.0001216
0.0012892 -0.00051891 0.00084937 -0.00094119
-0.0015272 0.0028143 0.001687 0.0010473 0.0016928 -0.00012418 -0.11446 0.26012
-0.010846 0.030166 0.0021263 -0.0060635
0.0016138 0.0014499 0.0067257 -0.00099147 0.0012782 -0.00051546 -0.010783 0.030223
-0.13988 0.15303 -0.0023192 0.027213
0.0023344 -0.001357 0.0035048 -0.0028693 0.0008562 -0.00094424 0.0021089 -0.0060435
-0.002355 0.027159 -0.19894 0.21022
980000000 -0.051328 0.29302 0.018174 0.031184 -0.0084516 0.0050537 0.00284 0.0038082
0.0038895 -0.0018841 -0.0029584 -0.001831
0.018164 0.031124 -0.20674 0.34638 0.033275 0.0043649 0.0019015 -0.00025813
0.00067113 -0.0059747 -0.00048896 -0.0021744
-0.0084502 0.00505 0.033308 0.0042721 0.11502 0.31145 0.00040684 -0.0012141
-7.2579e-05 -0.0020483 0.0016852 -7.7869e-05
0.0028566 0.0037623 0.0019093 -0.00024557 0.00041252 -0.0012044 -0.07596 0.27208
0.0072702 0.02883 -0.0095238 -0.0063691
0.0039181 -0.0019029 0.00065873 -0.0060077 -8.4375e-05 -0.0020479 0.0073446 0.02883
-0.10893 0.18005 0.0051893 0.0187
-0.0028904 -0.001758 -0.00051851 -0.0021777 0.0016807 -7.1154e-05 -0.0095411 -0.0063307
0.0051754 0.018653 -0.15559 0.25377
1040000000 -0.0076306 0.30151 0.033975 0.018347 -0.00068985 0.0070631 0.0031915 0.00041966
-0.00026954 -0.0038806 -0.00039232 -0.0011673
0.033929 0.018317 -0.17063 0.35926 0.02911 -0.015242 0.0012939 -0.0017442
-0.0028361 -0.0020777 -0.0013311 -0.0025462
-0.00065098 0.0070471 0.029061 -0.015339 0.16135 0.29712 -0.00052315 -0.0013373
-0.0015061 -0.00074638 -0.00028967 -0.0012378
0.003188 0.00039848 0.0013101 -0.0017405 -0.00052591 -0.0013425 -0.047539 0.28215
0.018167 0.017326 -0.0030722 0.0026857
-0.00029767 -0.0038819 -0.0028375 -0.0020903 -0.0015034 -0.00074397 0.018226 0.0173
-0.077888 0.18978 0.013103 0.018002
-0.00042 -0.0011654 -0.0013537 -0.0025142 -0.00028253 -0.0012389 -0.0030698 0.002671
0.01309 0.018 -0.13345 0.27534
1100000000 0.038411 0.30885 0.036338 -0.0043852 0.0034505 0.003603 0.0025929 -0.0018753
-0.002356 -0.0028451 -0.0036556 0.00016979
0.036311 -0.0043529 -0.12698 0.37583 0.014667 -0.027945 -9.9515e-05 -0.0018058
-0.0029496 -0.0001503 -0.0034191 -0.0004613
0.0034783 0.00359 0.014577 -0.028018 0.20761 0.27614 -0.0017219 0.00033751
-0.0015626 0.00062017 -0.00097722 -0.00050588
0.0025836 -0.0018833 -8.9848e-05 -0.0017869 -0.0017207 0.00034743 -0.0063301 0.28683
0.022492 0.0050968 -0.0019208 0.0015241
-0.002402 -0.0028431 -0.0029452 -0.00014113 -0.0015688 0.00063081 0.022506 0.0050678
-0.059362 0.2033 0.018358 0.0083934
-0.0036582 0.00018952 -0.0034237 -0.00044428 -0.00097692 -0.00050805 -0.0019298 0.0015391
0.018346 0.0083761 -0.086733 0.30401
1160000000 0.090335 0.30369 0.024226 -0.020957 0.0029905 -0.00098513 -0.00035043 -0.0028844
-0.0040592 -6.0418e-05 -0.00068304 0.0039519
0.024232 -0.020925 -0.082602 0.37943 -0.0040937 -0.028924 -0.0018514 -0.0015384
-0.0020377 0.0025187 -0.0012359 0.0016374
0.0030148 -0.00099665 -0.0042127 -0.028918 0.25044 0.24473 -0.00050312 0.0016406
-0.00036881 0.0016291 -0.0011279 9.2727e-05
-0.00035968 -0.0029012 -0.001838 -0.0015364 -0.00049977 0.0016244 0.033711 0.28351
0.019024 -0.009488 -0.0022957 0.0059145
-0.004081 -3.8804e-05 -0.0020156 0.0025433 -0.00037977 0.0016314 0.019022 -0.0095121
-0.025554 0.21346 0.017324 0.00033034
-0.0006492 0.0039385 -0.0012435 0.0016615 -0.0011271 9.1527e-05 -0.0022869 0.0059085
0.017295 0.00032083 -0.040155 0.30649
1220000000 0.13532 0.29173 0.010572 -0.030065 -0.0015186 -0.0014374 -0.00054196 -0.0011191
-0.0022436 0.0027123 0.0013434 0.0017598
0.010586 -0.030046 -0.038311 0.39053 -0.017001 -0.020691 -0.0024295 0.00053461
0.00041865 0.0025635 -0.00070324 0.0016862
-0.0015236 -0.0014142 -0.017108 -0.020642 0.28937 0.20531 0.00089733 0.0014238
0.00056061 0.001078 0.00018398 0.0007098
-0.00053714 -0.0011343 -0.002427 0.00054821 0.00089548 0.0014231 0.073479 0.27409
0.0090485 -0.014914 0.0034477 0.0016691
-0.0022748 0.0026956 0.00043251 0.0025745 0.00054896 0.0010772 0.0090258 -0.01493
-0.0009506 0.22299 0.01327 -0.012067
0.001376 0.0017421 -0.00069988 0.0016839 0.00018418 0.00071073 0.0034455 0.0016686
0.01327 -0.012087 -0.0072195 0.32248
1280000000 0.18489 0.26933 -0.0076452 -0.028444 -0.0020817 0.0020692 -0.0013205 -0.001693
-0.000289 0.0029987 0.0023598 0.00081425
-0.0076275 -0.028418 0.007565 0.38086 -0.023507 -0.0080709 -0.00082122 0.0014601
0.0014867 0.0012843 0.00047559 0.0020043
-0.0020833 0.0020969 -0.023562 -0.0079733 0.31969 0.16095 0.0012268 -0.00026606
0.00083216 0.00016213 0.00027829 0.00049673
-0.0013148 -0.0016868 -0.00081563 0.0014707 0.0012201 -0.00025798 0.10968 0.25747
0.00051271 -0.016323 0.00097577 -0.0002833
-0.00026314 0.0029935 0.0014908 0.0012793 0.00083321 0.00015679 0.0004854 -0.016333
0.037021 0.22649 0.0028678 -0.014143
0.002399 0.0008318 0.00048705 0.0020036 0.00028478 0.00049794 0.0009625 -0.00028333
0.0028647 -0.014136 0.040153 0.32351
1340000000 0.22251 0.23524 -0.017358 -0.019124 0.00042966 0.0041053 -0.00181 -0.00038141
0.001548 0.0021982 0.0013824 -0.0014887
-0.017331 -0.019118 0.046738 0.37163 -0.021182 0.0043393 -1.7974e-05 0.0018179
0.0014807 0.00061358 0.0013467 0.00083491
0.00045725 0.0041201 -0.021192 0.00445 0.3414 0.11295 0.00079968 -0.00076479
0.00048385 -0.0002896 0.00029648 0.00028783
-0.0018154 -0.00038651 -3.5276e-06 0.0018175 0.0008039 -0.00076568 0.1423 0.23695
-0.0071033 -0.013511 0.0015623 -0.00052673
0.0015816 0.0022 0.0014847 0.00058822 0.00048206 -0.00029389 -0.007126 -0.013499
0.068605 0.221 -0.0033837 -0.012384
0.0013715 -0.001484 0.001359 0.00083352 0.00030412 0.00028613 0.0015532 -0.00054001
-0.0033883 -0.012389 0.07971 0.31826
1400000000 0.25572 0.19659 -0.023056 -0.0077915 0.0046555 0.0031526 -0.0017426 0.00084426
0.0022859 0.00035264 6.3214e-05 -0.0011948
-0.023037 -0.0077875 0.083218 0.35801 -0.014483 0.012216 0.0012556 0.0011748
0.00077892 -0.00067702 0.0011836 0.00032981
0.0046728 0.0031372 -0.014449 0.012295 0.35421 0.059222 5.6688e-05 -0.0012418
0.00010452 -0.00031763 0.00034755 0.00024253
-0.0017546 0.00085954 0.0012624 0.0011671 5.6085e-05 -0.0012502 0.1719 0.20847
-0.011777 -0.0078266 -0.00061756 -0.0012827
0.002294 0.00034914 0.00077142 -0.00068715 9.7037e-05 -0.00031679 -0.011793 -0.0077954
0.10249 0.21504 -0.0094173 -0.0079207
5.6651e-05 -0.0012024 0.0011787 0.00032412 0.00034898 0.00024246 -0.00061065 -0.0012846
-0.0094199 -0.0079344 0.12433 0.30675
1460000000 0.27934 0.15221 -0.020328 0.0041259 0.0052322 -0.0015313 -0.0013055 0.001557
0.0015411 -0.00088249 -0.00035728 -0.0007165
-0.02032 0.0041142 0.1168 0.33592 -0.0060346 0.01485 0.0015949 0.00011774
0.00082815 -0.00091423 0.0011552 -0.00065872
0.005234 -0.0015497 -0.0059642 0.014892 0.35989 0.0046149 -0.00099195 -0.0011125
0.00027064 -0.00011173 0.00067781 -0.00039906
-0.0013049 0.0015692 0.0016036 0.00011786 -0.0010001 -0.0011175 0.19877 0.17943
-0.012215 -0.0026707 -0.0013569 0.0010839
0.0015469 -0.00086772 0.00082667 -0.00092752 0.00026575 -0.00011644 -0.012228 -0.0026546
0.1327 0.19913 -0.010763 -0.002658
-0.00037476 -0.00074805 0.0011468 -0.00067318 0.00068209 -0.00039446 -0.0013536 0.0010812
-0.010756 -0.0026659 0.15766 0.28501
1520000000 0.29221 0.10913 -0.014887 0.009785 0.002917 -0.0037212 0.00016182 0.0022447
0.0013517 -0.0015044 -0.0010344 -0.0001444
-0.01488 0.0097926 0.14974 0.32103 0.0013435 0.012846 0.0014977 -0.00075684
0.00019401 -0.00083612 0.00024162 -0.0010359
0.0028863 -0.0037257 0.0014109 0.012854 0.35262 -0.051963 -0.00077267 -0.00037076
0.00049601 -0.00075464 -1.9558e-05 -2.987e-05
0.00015516 0.002238 0.0015012 -0.00076251 -0.00078405 -0.00037493 0.22257 0.14108
-0.01172 0.0013462 0.00057899 0.0015795
0.0013396 -0.0015259 0.00019281 -0.0008421 0.00049076 -0.00076616 -0.011727 0.0013754
0.16075 0.18317 -0.010735 0.0014057
-0.0010331 -0.00013745 0.00023667 -0.0010444 -2.2417e-05 -3.3726e-05 0.00057817 0.001582
-0.010735 0.0014047 0.19076 0.26382
1580000000 0.30186 0.061168 -0.0085092 0.01295 -0.00096513 -0.0044193 0.0011296 0.0016112
-0.00050039 -0.0016816 -0.00028943 0.00027071
-0.0084964 0.012945 0.17648 0.29639 0.0049128 0.0081663 0.00044876 -0.0014821
-0.00025573 -0.0010686 -0.00036614 -0.00086403
-0.00098239 -0.0043979 0.00496 0.0081493 0.33193 -0.10947 -0.0014546 0.00037161
-0.00028561 -0.0010476 0.00013401 -0.00053821
0.0011344 0.0016151 0.00043559 -0.0014743 -0.0014667 0.00037572 0.23722 0.10088
-0.0093749 0.0050856 0.0013671 0.00072491
-0.0005215 -0.0016731 -0.00027173 -0.0010724 -0.00028565 -0.0010398 -0.0093702 0.0051033
0.18497 0.16398 -0.0086239 0.0065817
-0.00029431 0.00025792 -0.00037067 -0.00086549 0.00013786 -0.0005397 0.0013761 0.00071654
-0.0086242 0.0065881 0.22241 0.23665
1640000000 0.3033 0.017235 -0.0020189 0.012136 -0.002501 -0.0021854 0.0022277 0.0011365
-0.0006276 -0.00085178 -0.00039623 0.00058492
-0.0020137 0.01213 0.20571 0.27131 0.0055879 0.0036254 -0.00067261 -0.0015515
-0.00094781 -0.00058635 -0.00056901 -0.00054057
-0.0025232 -0.0021712 0.0056188 0.0035995 0.303 -0.15811 -0.00094538 0.001187
-0.00093402 -0.00072883 -4.3636e-05 -0.00025366
0.002245 0.0011236 -0.00068523 -0.0015465 -0.00094817 0.0011938 0.24971 0.050617
-0.006466 0.0059068 0.0018561 -0.0004413
-0.00063423 -0.00084199 -0.00096212 -0.00057385 -0.00093796 -0.00072153 -0.0064617 0.0059248
0.20785 0.13779 -0.0043131 0.0085293
-0.00038818 0.00058988 -0.00057229 -0.00054292 -4.533e-05 -0.00025182 0.0018646 -0.00044638
-0.0043116 0.0085399 0.24813 0.20494
1700000000 0.29403 -0.030189 0.0014795 0.009641 -0.003076 0.00032315 0.0028963 -0.00076121
-0.0014376 -0.00037234 0.00042899 0.00049758
0.0014821 0.0096348 0.22341 0.23995 0.0038037 0.00080976 -0.001287 -0.00055721
-0.00088924 -3.6201e-05 -0.00087758 -0.00034412
-0.0030506 0.00034141 0.0038149 0.00078557 0.25967 -0.19768 0.00021702 0.0016071
-0.0016839 -0.00032014 -0.00057859 -0.00096591
0.0028899 -0.00076641 -0.001292 -0.00054881 0.00021466 0.0016105 0.24579 -0.00058778
-0.0049663 0.0065019 0.0012477 -0.0016838
-0.0014402 -0.00035121 -0.00089259 -2.3597e-05 -0.0016904 -0.00031054 -0.0049562 0.0065115
0.22486 0.11549 0.00019123 0.0088761
0.00043985 0.00050405 -0.00088581 -0.00032825 -0.00059309 -0.00095461 0.0012345 -0.0016924
0.00020718 0.0088856 0.26394 0.16992
1760000000 0.279 -0.080017 0.0038079 0.0066515 -0.00182 0.00063577 0.0015784 -0.0030829
-0.0008381 0.00048508 0.0005009 -0.00023513
0.0038122 0.0066267 0.24918 0.20009 0.0016338 -0.0010576 -0.001109 0.00013774
-0.0012156 0.00086884 -0.00053325 0.00054228
-0.001799 0.0006437 0.0016373 -0.0010666 0.21082 -0.23119 0.0010873 0.0014098
-0.0010723 0.0011713 -0.0013467 -0.00036925
0.0015634 -0.0030937 -0.0011001 0.00014229 0.0010835 0.001412 0.23501 -0.052892
-0.0027742 0.0063718 -0.00041885 -0.0018468
-0.0008413 0.0004774 -0.0012091 0.00087903 -0.0010656 0.0011833 -0.0027661 0.0063708
0.23936 0.077877 0.0036517 0.0063098
0.00050906 -0.00023307 -0.00053346 0.00055209 -0.0013412 -0.00038684 -0.00042392 -0.0018469
0.0036584 0.0062992 0.27616 0.13188
1820000000 0.2509 -0.11714 0.0043155 0.00325 0.0001682 0.0020981 -0.00061575 -0.0031333
-0.00077951 0.00036632 0.00026157 -8.271e-05
0.0043106 0.0032402 0.25879 0.17001 -0.00014529 0.00018496 -0.0013486 0.00080838
-0.00012022 0.0015185 -0.00042921 0.00049558
0.00020312 0.0021182 -0.00014383 0.00018951 0.1604 -0.24597 0.0016615 0.00055561
-0.00046769 0.0021136 -0.0014058 0.00043386
-0.00059765 -0.0031387 -0.0013386 0.00081509 0.0016575 0.00055389 0.20309 -0.10004
-0.0018667 0.0055362 -0.0014257 -0.0010149
-0.0007689 0.00035867 -0.00010774 0.0015259 -0.00046837 0.0021186 -0.0018625 0.0055427
0.25479 0.045927 0.0044384 0.002954
0.00026173 -9.4945e-05 -0.00042602 0.00050244 -0.0014052 0.0004476 -0.0014391 -0.001022
0.0044526 0.0029248 0.27778 0.095338
1880000000 0.21271 -0.1557 0.0023419 0.0011239 -0.00035588 0.0019117 -0.0028178 -0.0025303
-0.00057133 0.001265 0.00055951 -0.00081099
0.0023483 0.0011172 0.26309 0.12375 -0.0021081 0.0017712 -0.0002214 0.0016938
0.00076266 0.0014316 0.0002323 0.00095213
-0.00035258 0.0019049 -0.0021103 0.0017732 0.1082 -0.25564 0.0019971 -0.0010967
0.001332 0.0020401 -0.000965 0.0015227
-0.0028554 -0.0024948 -0.00021592 0.0016919 0.0020066 -0.0010964 0.16106 -0.13883
-0.0016287 0.0048076 -0.0020662 0.00083263
-0.00055874 0.001259 0.0007662 0.0014184 0.0013352 0.0020485 -0.0016168 0.004804
0.25499 0.010689 0.003959 0.0010572
0.00057119 -0.00081015 0.00024111 0.00094751 -0.00093981 0.0015099 -0.0020653 0.00082803
0.0039496 0.0010468 0.27704 0.061356
1940000000 0.17158 -0.17889 0.00049327 -0.00060985 0.0011635 0.0015496 -0.0040742 0.00046767
0.0009734 0.0011228 -0.00072183 -0.0009572
0.00050383 -0.00061174 0.2634 0.091968 -0.00097788 0.0039076 0.00096031 0.0013372
0.0021537 0.00040437 0.00088695 0.00018316
0.0012156 0.0015436 -0.00094873 0.003928 0.06234 -0.24876 0.00026205 -0.0024956
0.0024655 0.00046036 0.00033796 0.0017089
-0.0040767 0.00049418 0.0009776 0.0013317 0.00025413 -0.0024859 0.1082 -0.16745
-0.0023278 0.0047991 -0.00095466 0.0017558
0.00096855 0.0011292 0.0021512 0.00039259 0.0024668 0.00044386 -0.0023206 0.0048102
0.25308 -0.030328 0.0028703 -0.0018542
-0.0007272 -0.00098097 0.00089013 0.0001766 0.00032004 0.0017091 -0.00094605 0.0017652
0.0028621 -0.0018624 0.26574 0.025331
2000000000 0.12463 -0.19038 -0.0029 0.0010543 0.0023858 0.0015207 -0.0024018 0.0037354
0.0011183 0.00057147 -0.0010658 0.00038655
-0.0029011 0.0010603 0.24914 0.056497 -0.00063351 0.0055502 0.0016554 0.00027891
0.0015338 -0.0017166 0.00045028 -2.6796e-05
0.0023868 0.0015054 -0.00060088 0.0055632 0.018893 -0.23452 -0.0016871 -0.0014229
0.0020226 -0.0012828 0.0015858 0.0012096
-0.0023787 0.0037547 0.0016653 0.00025989 -0.0016871 -0.0014278 0.055243 -0.17539
-0.0031941 0.0058146 0.00027882 0.0021436
0.0011276 0.00055633 0.0015307 -0.0017425 0.0020222 -0.0013 -0.0031747 0.0058259
