!Keysight Technologies,M9804A,MY58100912,A.14.10.03
!Date: Thursday, April 27, 2023 10:28:33
!Correction: S11(C  6-Port  ) 
!S12(C  6-Port  ) 
!S13(C  6-Port  ) 
!S14(C  6-Port  ) 
!S15(C  6-Port  ) 
!S16(C  6-Port  ) 
!S21(C  6-Port  ) 
!S22(C  6-Port  ) 
!S23(C  6-Port  ) 
!S24(C  6-Port  ) 
!S25(C  6-Port  ) 
!S26(C  6-Port  ) 
!S31(C  6-Port  ) 
!S32(C  6-Port  ) 
!S33(C  6-Port  ) 
!S34(C  6-Port  ) 
!S35(C  6-Port  ) 
!S36(C  6-Port  ) 
!S41(C  6-Port  ) 
!S42(C  6-Port  ) 
!S43(C  6-Port  ) 
!S44(C  6-Port  ) 
!S45(C  6-Port  ) 
!S46(C  6-Port  ) 
!S51(C  6-Port  ) 
!S52(C  6-Port  ) 
!S53(C  6-Port  ) 
!S54(C  6-Port  ) 
!S55(C  6-Port  ) 
!S56(C  6-Port  ) 
!S61(C  6-Port  ) 
!S62(C  6-Port  ) 
!S63(C  6-Port  ) 
!S64(C  6-Port  ) 
!S65(C  6-Port  ) 
!S66(C  6-Port  ) 
!S6P File: Measurement: :
# Hz S  RI   R 50
500000000 -0.33221 -0.027926 -0.0078974 -0.0045182 -0.0077828 0.010498 -0.0033398 0.011704
0.012357 0.004268 -0.0037812 0.0079678
-0.00786 -0.0044914 -0.41853 -0.047592 0.0074687 -0.011987 0.0013433 0.011142
0.0082162 0.0020842 0.00093941 0.012201
-0.0077643 0.010504 0.0074585 -0.012007 -0.26378 0.21194 0.0070774 0.0029676
0.00063716 0.0078103 0.00079626 0.011696
-0.0033035 0.011734 0.0013677 0.01115 0.0070743 0.002966 -0.32581 0.05025
-0.017728 -0.0049899 0.017003 0.024503
0.012373 0.0042472 0.0082199 0.0020755 0.00064508 0.007808 -0.01773 -0.004977
-0.22754 -0.17559 -0.025535 0.0049895
-0.0037425 0.0079886 0.0009385 0.012186 0.0007877 0.011685 0.017012 0.024465
-0.025533 0.00498 -0.27497 -0.12179
560000000 -0.30853 0.12699 -0.023008 -0.064014 -0.00052611 0.011966 0.0069621 0.0093324
0.011905 0.002786 0.0091192 0.006836
-0.022919 -0.063916 -0.37588 0.10943 -0.041669 -0.036491 0.014301 0.0036934
-0.013056 -0.0051746 0.0048724 -0.0011167
-0.00050568 0.011982 -0.041812 -0.036463 -0.18221 0.25864 -0.0011578 -0.0051012
0.018277 0.0036318 0.0074785 -0.0061765
0.0069817 0.0092941 0.014294 0.00368 -0.00114 -0.0050927 -0.30006 0.13671
0.0045301 -0.025936 0.0051559 -0.019287
0.011964 0.0027572 -0.013127 -0.0051603 0.018268 0.0036078 0.0044996 -0.025942
-0.28384 -0.0040517 0.0078766 -0.051075
0.0091434 0.0068378 0.0048486 -0.0011461 0.0075108 -0.0061574 0.0051594 -0.019304
0.0078945 -0.051086 -0.33162 0.025698
620000000 -0.26784 0.11032 -0.022732 0.0051657 0.0030166 0.0081842 0.0068554 -0.0056965
0.010564 -0.0017948 0.00041239 -0.0015821
-0.022693 0.0051564 -0.40207 0.06379 -0.019287 -0.00056178 -0.0019054 -0.0021286
0.0099982 -0.0075132 0.0007307 -0.0029843
0.0030622 0.0081915 -0.019295 -0.00051313 -0.15266 0.26756 -0.0021548 -0.0048484
-0.0041191 -0.0036792 0.0078009 -0.0036834
0.0068585 -0.0056745 -0.0019171 -0.0021314 -0.0021484 -0.0048692 -0.25868 0.14625
-0.038122 -0.019258 0.014845 0.023635
0.010531 -0.0018044 0.0099916 -0.0075457 -0.0040858 -0.0036364 -0.03814 -0.019222
-0.20381 -0.043516 -0.039502 0.013578
0.00038242 -0.0015829 0.00072527 -0.0029895 0.0077724 -0.0036819 0.014879 0.023615
-0.039508 0.013598 -0.2511 -0.010133
680000000 -0.22736 0.1895 -0.02843 -0.015582 0.0046908 0.0051945 -5.568e-05 -0.0080235
-0.0037249 -0.010526 0.0039645 -0.0071291
-0.028421 -0.01557 -0.38673 0.16034 -0.033163 -0.0010729 -0.0019753 -0.00036476
-0.003233 -0.0083825 -0.00079956 -0.0024289
0.0046971 0.0051989 -0.033198 -0.00099821 -0.1023 0.2875 -0.00071116 0.00040677
-0.0025515 0.0013175 -0.0030988 -0.0096302
-6.689e-05 -0.0080398 -0.001975 -0.00037096 -0.00071684 0.00040636 -0.21774 0.19491
-0.023762 -0.0096278 -0.010758 -0.010018
-0.0037949 -0.010559 -0.0032641 -0.0083793 -0.0025568 0.0013181 -0.023787 -0.0096076
-0.24759 0.052161 -0.0050228 -0.010248
0.00394 -0.0071142 -0.0007998 -0.0024518 -0.0031158 -0.0096218 -0.010758 -0.010016
-0.0049963 -0.010261 -0.26208 0.091609
740000000 -0.18767 0.18468 -0.039351 0.025135 0.012415 -0.0049367 -0.0010383 -0.0040937
-0.0046228 -0.0017355 -0.0060807 0.0033825
-0.039336 0.025085 -0.33577 0.17933 -0.034869 0.03496 -0.00082317 -0.0060758
-0.011316 0.0085343 -0.0023526 -0.0058565
0.012394 -0.0049492 -0.034803 0.035072 -0.068963 0.2871 -0.0010491 0.003484
-0.0030219 -0.0037375 -0.0010207 0.00068419
-0.0010177 -0.0040859 -0.00083745 -0.0061057 -0.0010549 0.0035001 -0.20131 0.20256
-0.042867 -0.0080631 0.02249 0.012231
-0.0046307 -0.0017242 -0.011271 0.0086114 -0.0030319 -0.0037434 -0.042914 -0.0080055
-0.15666 0.072899 -0.042264 0.00064853
-0.0061153 0.0034787 -0.0023687 -0.0058317 -0.00099143 0.00073591 0.022493 0.012211
-0.042236 0.00062936 -0.25032 0.099472
800000000 -0.15834 0.22502 -0.024187 0.017314 0.0051357 -0.010372 -0.0050115 -0.0018519
-0.0040359 0.0036937 0.0045098 0.00092663
-0.024189 0.01728 -0.33751 0.24995 -0.0078969 0.034402 -0.0019435 0.0023274
-0.00011134 0.0037412 0.00124 0.0052433
0.0051093 -0.01037 -0.0078162 0.034463 -0.027451 0.31049 0.0013561 0.0013641
0.0009003 0.0035245 -0.0020927 0.0011713
-0.0050194 -0.0018498 -0.0019384 0.0023431 0.0013537 0.0013667 -0.1744 0.23049
-0.029167 0.012277 0.012512 -0.0095759
-0.0040448 0.003707 -0.00010078 0.0037578 0.00090068 0.003538 -0.029167 0.012339
-0.19808 0.097886 -0.018059 0.017262
0.0045286 0.0009197 0.0012586 0.0052462 -0.0020982 0.0011731 0.012516 -0.0095869
-0.018082 0.017261 -0.24367 0.15257
860000000 -0.12453 0.24786 -0.018327 0.032201 -0.0036762 -0.0096526 -0.0027273 0.0017671
0.0047539 0.0050764 -0.0026982 -0.0032908
-0.018334 0.032151 -0.28944 0.29221 0.0082808 0.034363 0.0004431 0.0020173
0.0048338 -0.00040447 0.0032568 0.00013739
-0.0037086 -0.0096501 0.0083841 0.034381 0.021563 0.31846 -0.00034944 -0.00041433
0.0027126 -0.0016369 0.0015756 0.004472
-0.0027315 0.0017873 0.00044957 0.0020231 -0.00034824 -0.00041161 -0.13906 0.24328
-0.018837 0.018956 -0.0062775 -0.0094146
0.0047845 0.0050636 0.0048279 -0.00041352 0.0027081 -0.0016375 -0.018821 0.018999
-0.15072 0.14577 -0.023946 0.015286
-0.0026914 -0.0032847 0.0032754 0.00014642 0.0015608 0.004494 -0.0062792 -0.0094235
-0.023928 0.015254 -0.1925 0.19535
920000000 -0.099051 0.27263 0.0046127 0.039219 -0.0094185 -0.0037659 -0.0015291 0.002823
0.0016496 0.0014321 0.0022779 -0.0013018
0.0045815 0.039167 -0.25985 0.31306 0.028415 0.021764 0.0017084 0.0010564
0.006673 -0.0009156 0.0035523 -0.0026967
-0.0094258 -0.00374 0.028525 0.021709 0.06844 0.31858 0.0017093 -0.00011946
0.0012683 -0.00055176 0.00085822 -0.00090153
-0.0015265 0.0028238 0.0017219 0.0010771 0.0017143 -0.00012331 -0.11442 0.26003
-0.010797 0.030206 0.0021244 -0.0060261
0.0016675 0.0014327 0.006674 -0.0009425 0.001273 -0.00056067 -0.010744 0.030238
-0.14011 0.15289 -0.0023557 0.027234
0.0022814 -0.0013457 0.0035318 -0.0027069 0.00083925 -0.00090641 0.0021264 -0.0060376
-0.0023607 0.027237 -0.19881 0.21052
980000000 -0.051351 0.29303 0.018209 0.031171 -0.0084644 0.0050592 0.0028856 0.0038253
0.0039807 -0.0019571 -0.0029203 -0.0018862
0.018172 0.031131 -0.20674 0.34641 0.033251 0.0043646 0.0019195 -0.00024507
0.00080028 -0.0059685 -0.00047968 -0.0022745
-0.0084421 0.0050724 0.033305 0.0042811 0.11495 0.31147 0.00039259 -0.0012173
-3.5881e-05 -0.0021284 0.0016957 -0.00010293
0.0028961 0.0038194 0.0019252 -0.00023757 0.00039232 -0.0012133 -0.076 0.27209
0.0073041 0.028823 -0.0095287 -0.0064095
0.0039751 -0.0019724 0.0007584 -0.0060015 -2.5847e-05 -0.002129 0.0073712 0.028829
-0.10882 0.18008 0.0050891 0.018667
-0.0029185 -0.0018782 -0.00050727 -0.0022589 0.0017053 -0.00012417 -0.0095365 -0.0063931
0.0050679 0.018674 -0.15572 0.254
1040000000 -0.0076003 0.30149 0.033978 0.018315 -0.00066683 0.007038 0.003193 0.00039146
-0.00030246 -0.0039038 -0.0004746 -0.00114
0.033906 0.018285 -0.17061 0.35922 0.029096 -0.015267 0.001333 -0.001761
-0.0027465 -0.0020521 -0.001426 -0.0025292
-0.00065031 0.0070293 0.029086 -0.015375 0.16136 0.29711 -0.0005427 -0.0013433
-0.001521 -0.00075412 -0.00031637 -0.0012317
0.0032032 0.00037145 0.0013613 -0.0017597 -0.00054731 -0.00135 -0.047582 0.28212
0.01816 0.017296 -0.0031481 0.0027389
-0.00030007 -0.0038871 -0.002778 -0.0020616 -0.0015135 -0.00074963 0.018203 0.017265
-0.077897 0.18969 0.013141 0.018048
-0.00048062 -0.0011577 -0.0014369 -0.0025009 -0.00033139 -0.0012361 -0.0031441 0.0027401
0.013118 0.018042 -0.13342 0.27535
1100000000 0.038496 0.30887 0.036392 -0.0043841 0.0034554 0.0036119 0.0025686 -0.0018724
-0.0024021 -0.0028575 -0.0036482 0.00018484
0.036341 -0.004376 -0.12701 0.3758 0.014642 -0.027942 -0.00010828 -0.0018053
-0.0029415 -0.00014308 -0.0033847 -0.00040063
0.0034662 0.0035988 0.01456 -0.028017 0.20756 0.27617 -0.0017272 0.00034737
-0.0015643 0.0006038 -0.00098544 -0.00052604
0.0025713 -0.0018778 -0.00010644 -0.001803 -0.0017305 0.00034306 -0.0063646 0.28686
0.022497 0.0050771 -0.0019108 0.0015233
-0.0024138 -0.0028476 -0.0029491 -0.00011815 -0.0015578 0.00060895 0.022511 0.0050497
-0.059332 0.20334 0.018354 0.0083565
-0.0036425 0.00020043 -0.0033944 -0.00037609 -0.00097678 -0.00052509 -0.0019103 0.0015392
0.018354 0.0083624 -0.086631 0.30406
1160000000 0.090331 0.30371 0.024236 -0.020926 0.0029939 -0.00095128 -0.0003414 -0.0029056
-0.0040505 -0.00010188 -0.00067493 0.0038963
0.024209 -0.02091 -0.082644 0.37946 -0.0041013 -0.028864 -0.0018376 -0.0015245
-0.0019956 0.0025264 -0.0013087 0.0015814
0.0029983 -0.00097299 -0.0042157 -0.028863 0.25049 0.24478 -0.00049049 0.0016557
-0.00035254 0.0016429 -0.0011811 5.9601e-05
-0.00034809 -0.0029111 -0.0018333 -0.0015202 -0.00049442 0.0016483 0.033678 0.28351
0.019014 -0.0095017 -0.0022994 0.0058731
-0.004049 -7.0903e-05 -0.0019929 0.0025403 -0.00034828 0.0016483 0.019002 -0.0095178
-0.025614 0.21343 0.017378 0.00039172
-0.00064525 0.0038941 -0.0013005 0.0015899 -0.0011864 5.5364e-05 -0.0022956 0.0058715
0.017378 0.00038844 -0.039946 0.30662
1220000000 0.1353 0.29174 0.010563 -0.030089 -0.0015376 -0.0014112 -0.00052894 -0.0011447
-0.0022421 0.0027138 0.001365 0.001723
0.010559 -0.03006 -0.038319 0.39052 -0.017001 -0.020714 -0.002432 0.00054735
0.00042184 0.0025942 -0.00071857 0.0016819
-0.0015413 -0.0014036 -0.017114 -0.020663 0.28938 0.2053 0.00089085 0.0014055
0.00052883 0.0010781 0.00014516 0.00071248
-0.00052158 -0.0011434 -0.0024368 0.00056369 0.00089974 0.0013992 0.073484 0.27411
0.0090459 -0.014933 0.0034312 0.0016623
-0.0022349 0.0027331 0.0004406 0.0025902 0.00053414 0.0010855 0.009033 -0.014948
-0.00090968 0.223 0.013293 -0.012072
0.0013796 0.0017272 -0.00070952 0.0016935 0.00013634 0.0007132 0.0034307 0.0016565
0.013289 -0.012066 -0.0072944 0.32244
1280000000 0.18497 0.26938 -0.0076739 -0.028448 -0.0020987 0.0020897 -0.0013213 -0.0016999
-0.0002925 0.0029909 0.0024111 0.00078653
-0.0076506 -0.028423 0.0075335 0.38083 -0.023464 -0.0080746 -0.00084058 0.0014667
0.0014606 0.001272 0.00046237 0.0019989
-0.0020928 0.0020931 -0.02353 -0.0079782 0.31967 0.16103 0.0012257 -0.00026167
0.00083383 0.0001758 0.00033127 0.00046447
-0.0013198 -0.0016884 -0.00083848 0.0014678 0.0012322 -0.00026069 0.10971 0.25749
0.00052147 -0.016308 0.00096335 -0.00025592
-0.00027464 0.0029976 0.0014674 0.0012774 0.00083351 0.00017417 0.00049236 -0.01631
0.037051 0.2265 0.0028704 -0.014113
0.0024141 0.00077778 0.00047446 0.001995 0.00033003 0.00046884 0.00096202 -0.00026098
0.0028741 -0.0141 0.040066 0.32349
1340000000 0.22251 0.23523 -0.01739 -0.019127 0.00043946 0.0041267 -0.0018122 -0.00038617
0.0015746 0.0022326 0.0013695 -0.0014919
-0.017359 -0.019121 0.046717 0.37164 -0.021196 0.0043458 -2.3374e-05 0.001809
0.0014733 0.00059717 0.0013091 0.00087858
0.00046063 0.0041293 -0.021198 0.0044556 0.34133 0.11293 0.00076565 -0.00078051
0.00046928 -0.00030063 0.00029842 0.00027231
-0.0018131 -0.00037623 -4.6247e-06 0.0018079 0.00076573 -0.00078284 0.1423 0.23694
-0.0071045 -0.013504 0.0015413 -0.00051622
0.0015911 0.002231 0.0014785 0.00058499 0.00047157 -0.00029752 -0.0071339 -0.013493
0.068601 0.22097 -0.0033617 -0.012381
0.0013605 -0.0015018 0.0013103 0.00087213 0.00030093 0.00027093 0.001554 -0.0005163
-0.0033581 -0.012388 0.079678 0.31825
1400000000 0.25572 0.19659 -0.023086 -0.0077685 0.0046481 0.0031655 -0.0017518 0.00084588
0.0023055 0.00035002 7.2421e-05 -0.0011726
-0.023049 -0.0077795 0.083222 0.35801 -0.014479 0.012204 0.001265 0.0011794
0.00078814 -0.00066849 0.001198 0.00032425
0.0046615 0.0031489 -0.014431 0.012292 0.35425 0.059224 6.6729e-05 -0.0012645
0.00010722 -0.0003154 0.00039011 0.00024774
-0.0017501 0.0008433 0.0012802 0.0011638 6.7053e-05 -0.0012612 0.17189 0.20848
-0.011778 -0.0078037 -0.00062718 -0.0012912
0.002296 0.00034678 0.00078268 -0.00068522 0.00010625 -0.00031538 -0.011796 -0.0077799
0.10245 0.21507 -0.0094307 -0.0079321
5.92e-05 -0.0011756 0.0012043 0.00032633 0.00039659 0.00024457 -0.00062851 -0.0012943
-0.0094198 -0.0079449 0.12426 0.30671
1460000000 0.27934 0.15216 -0.020339 0.0041466 0.005245 -0.0015277 -0.0012792 0.0015659
0.0015815 -0.00087236 -0.00034556 -0.00071679
-0.020316 0.0041271 0.11678 0.3359 -0.0060504 0.014867 0.0016054 0.00012783
0.0008606 -0.00091385 0.0011408 -0.00065043
0.0052333 -0.001558 -0.0059847 0.014905 0.35992 0.0045727 -0.00099203 -0.0011216
0.00025925 -0.00012884 0.0006701 -0.00040447
-0.0012792 0.0015706 0.00161 0.0001285 -0.00098236 -0.0011276 0.19877 0.17945
-0.01221 -0.0026935 -0.0013785 0.0010716
0.0015743 -0.00087734 0.00085759 -0.00092577 0.00025619 -0.00012843 -0.012218 -0.0026664
0.13268 0.19912 -0.010757 -0.0026757
-0.00035237 -0.00071373 0.0011501 -0.00065094 0.00066876 -0.00041279 -0.0013742 0.0010721
-0.010742 -0.0026809 0.15766 0.28496
1520000000 0.29214 0.10906 -0.014883 0.0098349 0.0029234 -0.0037307 0.00014922 0.0022376
0.0013578 -0.0014857 -0.0010274 -0.0001359
-0.014876 0.0098179 0.14969 0.321 0.0013664 0.012848 0.0015009 -0.00075843
0.00020788 -0.00083619 0.00024255 -0.001047
0.0028979 -0.0037445 0.0014281 0.012854 0.35266 -0.051915 -0.00078176 -0.00038559
0.00049709 -0.00074846 -6.4121e-06 -7.2135e-05
0.00015663 0.0022358 0.001497 -0.00076863 -0.00078534 -0.00038951 0.22256 0.14108
-0.011717 0.001357 0.00058716 0.0015813
0.0013384 -0.0014958 0.00020871 -0.00084394 0.0004952 -0.00075557 -0.011713 0.0013854
0.16074 0.18317 -0.010751 0.0014193
-0.0010374 -0.00012764 0.00023507 -0.0010437 -8.769e-06 -6.6087e-05 0.00058986 0.0015748
-0.010745 0.0014051 0.19077 0.26386
1580000000 0.30178 0.061121 -0.0084823 0.012979 -0.00095759 -0.0043921 0.0011379 0.0016417
-0.00050705 -0.0016814 -0.00029578 0.00025187
-0.008493 0.012969 0.17645 0.29641 0.0049067 0.0081591 0.00043649 -0.0014704
-0.00027146 -0.0010697 -0.00037392 -0.00085191
-0.0009783 -0.0043804 0.0049543 0.0081482 0.33185 -0.10951 -0.0014487 0.00034643
-0.00028858 -0.0010547 0.00012517 -0.00052944
0.0011415 0.0016316 0.00042697 -0.0014778 -0.0014539 0.00034782 0.23723 0.1009
-0.0093797 0.0050775 0.0013676 0.00071295
-0.00052774 -0.00168 -0.00028157 -0.0010648 -0.00029794 -0.001057 -0.0093697 0.0050983
0.18496 0.16398 -0.0086275 0.0065968
-0.00028858 0.00025819 -0.00037669 -0.00085506 0.00012929 -0.00054103 0.0013762 0.00070725
-0.00863 0.0065857 0.22251 0.23662
1640000000 0.30324 0.017211 -0.0019904 0.012136 -0.0025116 -0.0021964 0.0022311 0.0011359
-0.00061672 -0.00084479 -0.00039919 0.00058686
-0.0020039 0.012136 0.20569 0.27132 0.0056034 0.0036165 -0.00066925 -0.0015463
-0.00095085 -0.00058496 -0.00056735 -0.00055251
-0.0025159 -0.002181 0.0056309 0.0035893 0.30308 -0.15811 -0.00094327 0.0011891
-0.00095545 -0.000747 -6.5812e-05 -0.00025392
0.0022333 0.0011206 -0.0006861 -0.0015505 -0.00093931 0.0011938 0.2497 0.050641
-0.0064757 0.0059005 0.0018681 -0.0004383
-0.00062339 -0.00084957 -0.00095689 -0.00057878 -0.00095748 -0.00075129 -0.0064552 0.0059241
0.20782 0.13782 -0.0043068 0.0085431
-0.00039485 0.00059101 -0.00056824 -0.00055355 -6.8949e-05 -0.00024756 0.0018641 -0.0004473
-0.0043154 0.0085382 0.24819 0.20487
1700000000 0.29394 -0.030168 0.0015085 0.0096411 -0.0030692 0.00032888 0.0028857 -0.00077529
-0.0014423 -0.00038728 0.00042885 0.0005251
0.0014976 0.0096306 0.22337 0.23996 0.0037943 0.0007988 -0.0012803 -0.00055596
-0.00088668 -3.2876e-05 -0.00087953 -0.00034995
-0.0030615 0.00034869 0.0038093 0.00077249 0.25971 -0.1977 0.00019504 0.0016206
-0.0016888 -0.00032354 -0.00055044 -0.00096234
0.0028911 -0.00078363 -0.001289 -0.0005519 0.00019326 0.0016112 0.24578 -0.00056918
-0.0049782 0.0065126 0.0012546 -0.0016914
-0.00144 -0.00038023 -0.00088875 -2.281e-05 -0.001692 -0.00031683 -0.0049679 0.0065183
0.22484 0.11549 0.00020301 0.00887
0.00042957 0.00052379 -0.00088181 -0.00034616 -0.00054005 -0.00096375 0.001244 -0.001698
0.0002061 0.0088705 0.26394 0.16989
1760000000 0.27899 -0.079971 0.0038092 0.0066302 -0.0018008 0.0005945 0.0015765 -0.0031001
-0.00083776 0.00044929 0.00050851 -0.00023989
0.0038046 0.0066226 0.24919 0.2001 0.0016579 -0.00104 -0.001102 0.000143
-0.0012194 0.00085379 -0.00055192 0.00055284
-0.0017931 0.00061543 0.0016483 -0.0010485 0.21074 -0.23117 0.0010682 0.001394
-0.0010911 0.0011589 -0.0013537 -0.00035905
0.0015721 -0.0030989 -0.001104 0.0001541 0.0010615 0.0013906 0.235 -0.052905
-0.0028024 0.0063581 -0.00041069 -0.0018536
-0.00083432 0.00046666 -0.0012133 0.00086783 -0.0010863 0.0011558 -0.0027913 0.0063714
0.2394 0.077856 0.0036668 0.0063247
0.00050401 -0.00024914 -0.00054688 0.00055522 -0.0013676 -0.00035631 -0.00041652 -0.0018416
0.0036646 0.0063314 0.27611 0.1319
1820000000 0.25089 -0.11706 0.0043233 0.0032522 0.00017237 0.0021149 -0.00060855 -0.0031376
-0.00076655 0.00035022 0.00026509 -0.00011039
0.0043155 0.0032495 0.25878 0.17002 -0.0001677 0.00019239 -0.0013408 0.00080677
-0.00011459 0.0015348 -0.00043947 0.00048839
0.00018453 0.0021083 -0.00016408 0.00019476 0.16047 -0.24592 0.0016735 0.00053958
-0.0004702 0.002125 -0.0014069 0.00044056
-0.00062355 -0.0031313 -0.0013366 0.00081021 0.0016652 0.00054215 0.20306 -0.10006
-0.0018829 0.0055322 -0.0014106 -0.0010369
-0.00075405 0.00036325 -0.0001023 0.0015402 -0.00045841 0.0021355 -0.0018716 0.0055503
0.25479 0.045962 0.0044209 0.0029279
0.00025866 -0.00010679 -0.00043705 0.00049106 -0.0013995 0.00045641 -0.0014087 -0.0010366
0.0044275 0.0029278 0.27777 0.095368
1880000000 0.21272 -0.15555 0.0023324 0.0011075 -0.00036418 0.0019261 -0.002846 -0.002511
-0.0005882 0.0012644 0.00054306 -0.00082423
0.0023331 0.0011041 0.26309 0.12376 -0.0021015 0.0017758 -0.00021434 0.0016907
0.0007617 0.0014241 0.0002551 0.00093939
-0.00036524 0.0019333 -0.0020938 0.0017838 0.10818 -0.25565 0.0019921 -0.0010803
0.0013433 0.0019997 -0.00097195 0.001524
-0.0028594 -0.0024951 -0.00020478 0.0016841 0.0019919 -0.0010792 0.16106 -0.13885
-0.0016317 0.0048105 -0.0020913 0.00084046
-0.00057109 0.0012723 0.00076101 0.0014112 0.0013532 0.0019961 -0.0016242 0.0048085
0.25502 0.010711 0.0039211 0.0010388
0.00053939 -0.00084819 0.00026964 0.00094034 -0.00097825 0.0015148 -0.0020893 0.00084483
0.0039261 0.0010496 0.27703 0.061382
1940000000 0.17164 -0.17885 0.00052481 -0.00064061 0.0012017 0.0015658 -0.0040628 0.00048673
0.0009249 0.0011079 -0.00072952 -0.0010004
0.00052564 -0.00063444 0.26341 0.091974 -0.00095226 0.0039214 0.00097262 0.0013378
0.0021459 0.00040794 0.00087292 0.00018999
0.0011968 0.0015523 -0.00092403 0.0039285 0.062444 -0.2488 0.00022785 -0.0024676
0.0024951 0.00044911 0.00035545 0.0016888
-0.0040649 0.00049773 0.00098842 0.0013305 0.00023265 -0.0024643 0.1082 -0.16743
-0.0023039 0.004779 -0.00097937 0.001745
0.00094139 0.0010956 0.0021599 0.00038539 0.0024831 0.00043537 -0.0022943 0.0047811
0.25306 -0.030282 0.0028209 -0.0018859
-0.00073468 -0.00099546 0.00087867 0.00018695 0.0003432 0.0016853 -0.00097667 0.0017482
0.0028251 -0.0018888 0.26571 0.025343
2000000000 0.12474 -0.19035 -0.0029198 0.0010573 0.0024 0.0015189 -0.0024207 0.0037187
0.0011106 0.00055529 -0.0010823 0.00039747
-0.0029158 0.0010575 0.24913 0.05649 -0.00062909 0.0055519 0.0016562 0.00026443
0.0015502 -0.0017297 0.00043707 -2.665e-06
0.0023971 0.0015165 -0.00059411 0.0055615 0.018904 -0.23463 -0.0016765 -0.0014213
0.0020535 -0.0013008 0.001595 0.0012311
-0.0024007 0.0037331 0.0016604 0.00024878 -0.0016677 -0.0014227 0.055218 -0.17541
-0.0031798 0.0058123 0.00029137 0.0021148
0.0011152 0.00055151 0.0015461 -0.0017438 0.0020488 -0.0012908 -0.0031636 0.0058422
