!Keysight Technologies,M9804A,MY58100912,A.14.10.03
!Date: Thursday, April 27, 2023 10:28:33
!Correction: S11(C  6-Port  ) 
!S12(C  6-Port  ) 
!S13(C  6-Port  ) 
!S14(C  6-Port  ) 
!S15(C  6-Port  ) 
!S16(C  6-Port  ) 
!S21(C  6-Port  ) 
!S22(C  6-Port  ) 
!S23(C  6-Port  ) 
!S24(C  6-Port  ) 
!S25(C  6-Port  ) 
!S26(C  6-Port  ) 
!S31(C  6-Port  ) 
!S32(C  6-Port  ) 
!S33(C  6-Port  ) 
!S34(C  6-Port  ) 
!S35(C  6-Port  ) 
!S36(C  6-Port  ) 
!S41(C  6-Port  ) 
!S42(C  6-Port  ) 
!S43(C  6-Port  ) 
!S44(C  6-Port  ) 
!S45(C  6-Port  ) 
!S46(C  6-Port  ) 
!S51(C  6-Port  ) 
!S52(C  6-Port  ) 
!S53(C  6-Port  ) 
!S54(C  6-Port  ) 
!S55(C  6-Port  ) 
!S56(C  6-Port  ) 
!S61(C  6-Port  ) 
!S62(C  6-Port  ) 
!S63(C  6-Port  ) 
!S64(C  6-Port  ) 
!S65(C  6-Port  ) 
!S66(C  6-Port  ) 
!S6P File: Measurement: :
# Hz S  RI   R 50
500000000 -0.33334 -0.029436 -0.008953 -0.0042847 -0.0079915 0.011253 -0.0041698 0.011552
0.012492 0.0040416 -0.0044477 0.0070764
-0.0089399 -0.0042654 -0.41883 -0.047805 0.0072907 -0.011562 0.0014979 0.011025
0.0078456 0.0026324 0.0013264 0.012426
-0.007971 0.011264 0.0072713 -0.011582 -0.26471 0.21255 0.0069618 0.0031028
1.8584e-05 0.0088631 0.0007892 0.012021
-0.0041444 0.011583 0.0015105 0.011056 0.0069582 0.0031102 -0.32566 0.050513
-0.018382 -0.0058962 0.018139 0.025214
0.012485 0.0040079 0.0078703 0.0026138 -4.8385e-07 0.0088764 -0.01833 -0.0058818
-0.2288 -0.17552 -0.025836 0.0037673
-0.0044579 0.0071239 0.0013498 0.012458 0.00080072 0.012029 0.018168 0.02518
-0.025829 0.0037428 -0.27347 -0.12242
560000000 -0.30938 0.12766 -0.023124 -0.063281 8.7435e-05 0.012215 0.0068715 0.009068
0.012114 0.0032105 0.0089621 0.0076431
-0.023099 -0.063189 -0.37584 0.10988 -0.041701 -0.03626 0.013174 0.0030141
-0.013183 -0.0039363 0.004178 -0.00075151
0.00010559 0.01219 -0.041828 -0.036202 -0.18262 0.25974 -0.00037367 -0.0049754
0.018152 0.0037151 0.0071293 -0.0067379
0.006902 0.0090595 0.013218 0.0030027 -0.0003477 -0.004973 -0.30129 0.13743
0.0048114 -0.025503 0.0056901 -0.019334
0.012129 0.0030909 -0.013229 -0.0038825 0.018197 0.0036754 0.0048297 -0.025569
-0.2848 -0.0040492 0.0074436 -0.050511
0.009034 0.0076872 0.0041569 -0.00086957 0.0072007 -0.0067536 0.0056664 -0.019352
0.0074778 -0.050527 -0.33153 0.02485
620000000 -0.2685 0.11111 -0.022493 0.0060637 0.0034831 0.0084685 0.0072807 -0.0060734
0.010473 -0.00089065 0.0010304 -0.0021163
-0.022467 0.0060525 -0.40227 0.064304 -0.0186 -0.00016142 -0.0015678 -0.0019232
0.010524 -0.0075797 0.00097867 -0.0026316
0.0035162 0.0084495 -0.018625 -0.00010795 -0.15226 0.2687 -0.0016125 -0.0051597
-0.0039816 -0.0033437 0.0082461 -0.0036866
0.0072937 -0.0060882 -0.001575 -0.0019229 -0.0015968 -0.0051588 -0.25979 0.14717
-0.038309 -0.01943 0.014319 0.023981
0.010533 -0.0009255 0.010549 -0.0075916 -0.0039566 -0.0033732 -0.038292 -0.019448
-0.20476 -0.041297 -0.039422 0.013906
0.0011067 -0.0021316 0.00095689 -0.0026546 0.0082818 -0.0036702 0.01437 0.023965
-0.039411 0.013904 -0.25199 -0.011227
680000000 -0.22791 0.19091 -0.028491 -0.015014 0.0046507 0.0050825 0.00028267 -0.0074818
-0.0033511 -0.011185 0.004329 -0.0069804
-0.028465 -0.014999 -0.38657 0.16101 -0.032635 -0.0010681 -0.0019954 -0.00050686
-0.0029016 -0.0085993 -0.00094106 -0.0026184
0.0046663 0.0050778 -0.032661 -0.00099352 -0.1014 0.2881 -0.00089332 8.1794e-05
-0.0023227 0.00088993 -0.0030043 -0.0095937
0.00026606 -0.0075226 -0.0020027 -0.00052198 -0.00089703 6.3765e-05 -0.21845 0.19592
-0.023024 -0.008713 -0.010797 -0.0094035
-0.003361 -0.011206 -0.0029356 -0.0086158 -0.0023377 0.00087983 -0.023046 -0.0087792
-0.24871 0.053773 -0.004451 -0.010777
0.0042628 -0.0070233 -0.00096988 -0.0026087 -0.0030183 -0.0095973 -0.010792 -0.0094363
-0.0044565 -0.010775 -0.26226 0.091948
740000000 -0.18697 0.18541 -0.039438 0.025469 0.01257 -0.0052822 -0.0012564 -0.0041797
-0.0041283 -0.0018514 -0.0063284 0.0028526
-0.039412 0.025431 -0.33478 0.17999 -0.034732 0.034645 -0.00090961 -0.0059879
-0.011714 0.0078405 -0.0027561 -0.0057889
0.01258 -0.0053149 -0.034666 0.034774 -0.067785 0.28717 -0.0013353 0.0034542
-0.0032709 -0.0036177 -0.00089159 0.00069837
-0.0012502 -0.0042005 -0.00093387 -0.0059989 -0.0013392 0.0034536 -0.20113 0.2034
-0.041803 -0.0077392 0.022387 0.012369
-0.004157 -0.0018223 -0.011704 0.0078933 -0.0032829 -0.003606 -0.041865 -0.0077349
-0.1573 0.075313 -0.041297 0.0013373
-0.0063275 0.0028204 -0.0027754 -0.0058213 -0.0008661 0.00072377 0.022356 0.012315
-0.041296 0.001276 -0.25002 0.099525
800000000 -0.15731 0.2255 -0.023586 0.017182 0.0050745 -0.010286 -0.0050509 -0.0018487
-0.0038696 0.0032512 0.0039289 0.0011736
-0.023583 0.017161 -0.33678 0.25002 -0.0077805 0.034042 -0.0020712 0.0024997
-0.00037465 0.0033399 0.00087228 0.0056778
0.0050433 -0.010305 -0.0076857 0.034099 -0.02652 0.31006 0.0013805 0.001596
0.00071423 0.0037552 -0.0017908 0.0012527
-0.0050739 -0.001826 -0.0020791 0.0025094 0.0013638 0.0016008 -0.17341 0.23104
-0.028494 0.012662 0.012847 -0.0095727
-0.0038705 0.0032889 -0.0003642 0.0033523 0.00072128 0.0037685 -0.028574 0.012716
-0.1977 0.098853 -0.017808 0.017334
0.0039624 0.0012017 0.00091999 0.0057001 -0.0018121 0.0012413 0.01286 -0.0096274
-0.017821 0.017319 -0.24347 0.15349
860000000 -0.12344 0.24763 -0.017656 0.031822 -0.0034762 -0.0096027 -0.0026467 0.0015212
0.004922 0.0050164 -0.0027481 -0.0030482
-0.017663 0.031785 -0.2885 0.29185 0.0083281 0.034026 0.00045068 0.0020586
0.004831 0.0002952 0.0034486 0.00019802
-0.0034968 -0.0095867 0.0084402 0.034031 0.022007 0.31763 -0.00021399 -0.00034543
0.0030319 -0.0014704 0.001542 0.0044365
-0.0026457 0.0015353 0.0004561 0.0020748 -0.00020927 -0.00033157 -0.13777 0.2431
-0.017764 0.018563 -0.0064315 -0.0094208
0.0049485 0.0050329 0.0048405 0.00034358 0.003042 -0.0014449 -0.017829 0.018689
-0.14824 0.14672 -0.023784 0.015254
-0.0027885 -0.0030512 0.0034422 0.00018615 0.0015555 0.004433 -0.0064456 -0.0094259
-0.023779 0.015231 -0.19281 0.19465
920000000 -0.098315 0.27219 0.0049172 0.038522 -0.0092437 -0.003882 -0.0015399 0.0026366
0.0016891 0.0013092 0.0022105 -0.0012386
0.0048901 0.038486 -0.25922 0.31223 0.028172 0.021458 0.0017745 0.0009178
0.0066503 -0.00086426 0.0037924 -0.0029529
-0.0092545 -0.0038532 0.028277 0.021381 0.068417 0.31774 0.0017689 -0.00024544
0.0012795 -0.00043916 0.0008534 -0.0011847
-0.0015307 0.0026627 0.0018124 0.00091259 0.0017868 -0.00024091 -0.11336 0.25929
-0.010612 0.029514 0.0024905 -0.0062807
0.0016862 0.001287 0.0066523 -0.00091234 0.0012764 -0.00044026 -0.010641 0.029629
-0.13793 0.15359 -0.0027744 0.026468
0.0022329 -0.0012435 0.0038027 -0.0029856 0.00085337 -0.0011935 0.0024604 -0.006295
-0.0027986 0.026475 -0.19856 0.21005
980000000 -0.050911 0.29189 0.018098 0.030499 -0.008488 0.0048168 0.0027648 0.0037783
0.0041169 -0.0018981 -0.0030159 -0.0022245
0.01807 0.03049 -0.20632 0.34546 0.032791 0.0042788 0.0019226 -0.0001402
0.0011207 -0.0061419 -0.00055678 -0.0023486
-0.0084868 0.0048372 0.032862 0.0041774 0.11471 0.31072 0.00037688 -0.0012507
6.639e-06 -0.0021895 0.0016481 -0.00018252
0.0027847 0.0037676 0.0019505 -0.00015795 0.00037862 -0.0012652 -0.07534 0.27073
0.0072317 0.027998 -0.009639 -0.0063779
0.0041253 -0.0019208 0.0011415 -0.0061798 1.1311e-05 -0.0021869 0.0072885 0.028118
-0.107 0.1793 0.0052331 0.01795
-0.0030334 -0.0022161 -0.00059541 -0.00231 0.0016403 -0.00017911 -0.0096739 -0.0063814
0.0052137 0.017939 -0.15569 0.25365
1040000000 -0.0077863 0.3007 0.033524 0.018034 -0.00078158 0.006853 0.0030459 0.00067066
-7.9376e-05 -0.0040029 -0.00060004 -0.001261
0.03351 0.01805 -0.1707 0.35843 0.02873 -0.014961 0.0014038 -0.0016559
-0.0025672 -0.002151 -0.0014779 -0.0026423
-0.00077637 0.0068557 0.028726 -0.015092 0.16078 0.29658 -0.00055993 -0.001341
-0.0016299 -0.00074466 -0.00055901 -0.0012214
0.0030425 0.0006577 0.0014081 -0.0016949 -0.00055907 -0.0013433 -0.047541 0.28089
0.017701 0.016614 -0.0030302 0.0024153
-0.0001001 -0.0040065 -0.0025636 -0.0021755 -0.001634 -0.00075684 0.017813 0.016668
-0.07711 0.18863 0.013187 0.017358
-0.00059441 -0.0012565 -0.0015291 -0.0026401 -0.00055368 -0.0012225 -0.0030405 0.00244
0.013173 0.017363 -0.13363 0.27464
1100000000 0.038047 0.30824 0.035835 -0.0043804 0.0031619 0.0035675 0.0026642 -0.0016886
-0.0022654 -0.0030583 -0.0037925 0.00023073
0.035808 -0.0043649 -0.12727 0.37497 0.014559 -0.027589 -4.0449e-05 -0.0017739
-0.0030275 -0.00029893 -0.003505 -0.00043222
0.0031701 0.0035525 0.014485 -0.027678 0.20693 0.27586 -0.0018143 0.00033184
-0.0015989 0.00063864 -0.0010102 -0.00028695
0.00265 -0.0017013 -5.2334e-05 -0.0017901 -0.0018244 0.0003396 -0.0070182 0.2856
0.02185 0.004814 -0.0022157 0.0012675
-0.0022991 -0.0030602 -0.0030427 -0.00028836 -0.0015968 0.00063791 0.021982 0.0048196
-0.058889 0.20192 0.018223 0.0082875
-0.0037934 0.00024927 -0.0035332 -0.00042416 -0.0010239 -0.00028729 -0.002213 0.0012916
0.018214 0.0083024 -0.086791 0.30327
1160000000 0.089746 0.30309 0.023971 -0.02074 0.0027335 -0.0007836 -0.00013766 -0.0028022
-0.0041287 -6.9393e-05 -0.00078503 0.0039624
0.023991 -0.020696 -0.083256 0.37872 -0.0040525 -0.028612 -0.0018328 -0.0015168
-0.0022439 0.0026807 -0.0012993 0.0016117
0.0027116 -0.00079382 -0.0041726 -0.028625 0.24974 0.24475 -0.00052251 0.001697
-0.00034105 0.0017969 -0.00096964 0.00012886
-0.00016071 -0.0028016 -0.0018308 -0.0015136 -0.00052052 0.0017031 0.032453 0.28275
0.01831 -0.0093957 -0.002611 0.0059225
-0.0041626 -5.393e-05 -0.002232 0.002679 -0.00033683 0.0017863 0.018427 -0.0094476
-0.025754 0.21159 0.016926 0.0001624
-0.00077377 0.0039934 -0.001301 0.001625 -0.00096612 0.00014882 -0.0025952 0.0059345
0.016912 0.0001633 -0.040033 0.30612
1220000000 0.13459 0.29159 0.010304 -0.029724 -0.0016202 -0.0010421 -0.00044076 -0.0012774
-0.0023468 0.0027324 0.0013861 0.0017738
0.010321 -0.029684 -0.039305 0.39002 -0.016814 -0.020558 -0.0025074 0.00049671
0.0003714 0.0027427 -0.00063777 0.0017328
-0.0016231 -0.0010373 -0.016908 -0.020507 0.28868 0.20553 0.00091102 0.0014906
0.00060828 0.0010874 0.00030245 0.00074352
-0.00044144 -0.0012654 -0.0025065 0.00050891 0.00091561 0.0015018 0.072178 0.27398
0.0085927 -0.014591 0.0030942 0.0018029
-0.0023381 0.0027461 0.0003759 0.0027481 0.0006086 0.0010963 0.0086768 -0.014692
-0.0018156 0.22145 0.012825 -0.01196
0.001401 0.0017929 -0.00063726 0.0017358 0.00029619 0.00074773 0.0031314 0.001794
0.012823 -0.011959 -0.0076808 0.32216
1280000000 0.18417 0.26926 -0.007597 -0.028068 -0.0019137 0.0023445 -0.0013473 -0.0018482
-0.00028495 0.0030789 0.0024128 0.00091348
-0.0075733 -0.028041 0.0063227 0.38074 -0.02329 -0.0081544 -0.00095691 0.0014873
0.0015867 0.0014496 0.00044562 0.0019858
-0.0019022 0.0023565 -0.023353 -0.0080534 0.31919 0.16149 0.0013179 -0.0001876
0.00091355 0.00011621 0.00030695 0.0004317
-0.0013513 -0.0018339 -0.00094114 0.0015019 0.0013202 -0.00018648 0.10846 0.25795
0.00036635 -0.015899 0.00076937 -1.5197e-06
-0.00025316 0.0030915 0.0015925 0.0014335 0.00091349 0.00011441 0.00035897 -0.016044
0.03576 0.22545 0.0026551 -0.014066
0.0024089 0.00089971 0.00047062 0.0019887 0.00031472 0.00043143 0.00079926 -1.2404e-05
0.0026552 -0.014071 0.039854 0.32326
1340000000 0.22167 0.23552 -0.017215 -0.01886 0.00067638 0.0042094 -0.0019855 -0.00044298
0.0016288 0.002288 0.0015219 -0.0014831
-0.017188 -0.018852 0.045571 0.37211 -0.02112 0.0042459 -2.7631e-05 0.0019044
0.0015955 0.00058606 0.0013316 0.00081211
0.00069181 0.0042058 -0.021117 0.0043598 0.34118 0.11347 0.00087847 -0.00085188
0.00053786 -0.00030674 0.00032743 0.00017287
-0.0019808 -0.00043449 -1.2055e-05 0.0019136 0.0008852 -0.00084903 0.14156 0.23805
-0.0071373 -0.013098 0.0016078 -0.00018889
0.0016455 0.0022849 0.0016048 0.0005804 0.00053682 -0.00029953 -0.0072371 -0.013249
0.066788 0.22086 -0.0034203 -0.01216
0.001521 -0.0014989 0.0013364 0.00080656 0.00032511 0.00016804 0.0016196 -0.00020854
-0.0034062 -0.01216 0.079083 0.31803
1400000000 0.25513 0.19722 -0.022774 -0.0076422 0.0048622 0.0030479 -0.0018182 0.00089651
0.0024208 0.00042693 7.8903e-05 -0.0013221
-0.022737 -0.0076488 0.08236 0.35892 -0.014485 0.012147 0.0013487 0.0012243
0.00084406 -0.00076507 0.0012067 0.00030651
0.0048734 0.0030301 -0.014444 0.01224 0.35417 0.059638 3.1193e-05 -0.0013359
3.2858e-05 -0.00030082 0.00038958 0.00020078
-0.0018108 0.00089993 0.0013573 0.0012267 3.9094e-05 -0.0013374 0.17167 0.20961
-0.011547 -0.0074961 -0.00052875 -0.0010329
0.0024321 0.00039997 0.00083762 -0.00075672 3.5027e-05 -0.00030343 -0.011743 -0.0075587
0.1009 0.21569 -0.0092364 -0.0077515
7.1575e-05 -0.0013299 0.0012211 0.00029321 0.00038928 0.00021122 -0.00054975 -0.0010619
-0.0092274 -0.0077573 0.12357 0.30669
1460000000 0.27904 0.15293 -0.020093 0.0041342 0.0052834 -0.00167 -0.0012466 0.0017089
0.0016634 -0.00085683 -0.0003391 -0.000834
-0.020072 0.0041073 0.1164 0.33706 -0.0060999 0.014875 0.0016868 0.00010682
0.00077408 -0.00093767 0.0012137 -0.00063577
0.0052785 -0.0016971 -0.0060319 0.014916 0.35994 0.0048623 -0.00099118 -0.0011372
0.00029468 -9.2345e-05 0.00062296 -0.00042086
-0.0012217 0.001714 0.0016879 0.00010634 -0.00098275 -0.0011505 0.19904 0.18044
-0.011939 -0.0024256 -0.0011345 0.0011056
0.00166 -0.00086834 0.0007793 -0.00093289 0.00029576 -0.00010115 -0.012154 -0.0023644
0.13149 0.20028 -0.010604 -0.0025066
-0.00035 -0.00082624 0.0012303 -0.00066907 0.00062044 -0.00042332 -0.0011695 0.0010896
-0.010596 -0.0025175 0.15711 0.28479
1520000000 0.2922 0.10983 -0.0147 0.0096774 0.0029625 -0.0038576 0.00019296 0.0022629
0.0013632 -0.0015983 -0.0011433 -0.00016864
-0.014696 0.0096569 0.1498 0.32216 0.0013492 0.012872 0.0015562 -0.00082466
0.00018819 -0.00083391 0.00028627 -0.0010627
0.0029527 -0.0038712 0.0014137 0.012877 0.35268 -0.051453 -0.00081959 -0.00038458
0.00055401 -0.00075018 3.855e-06 -4.5849e-05
0.00020246 0.0022605 0.0015641 -0.00083272 -0.00081352 -0.00037992 0.22326 0.14169
-0.011341 0.0014765 0.00073857 0.0014643
0.0013516 -0.0016068 0.00019293 -0.00083745 0.0005628 -0.00076365 -0.011504 0.0016646
0.16032 0.18458 -0.01052 0.00143
-0.0011368 -0.00016008 0.00027981 -0.0010769 -2.1025e-06 -3.2501e-05 0.00072822 0.0014703
-0.010534 0.0014214 0.18999 0.264
1580000000 0.30204 0.061545 -0.0084113 0.012729 -0.0009156 -0.0045026 0.0012424 0.0015965
-0.00054603 -0.0017675 -0.00035594 0.00029498
-0.0084151 0.012715 0.177 0.29728 0.0049474 0.0081619 0.00040563 -0.0015826
-0.00021693 -0.0010846 -0.00031491 -0.00092753
-0.00093998 -0.0044911 0.0049909 0.0081424 0.33218 -0.10918 -0.0014671 0.00033109
-0.00030545 -0.0011478 0.0001592 -0.00051991
0.0012384 0.0015829 0.00038637 -0.0015766 -0.0014742 0.00032504 0.23807 0.10116
-0.0090669 0.0050013 0.0014975 0.00064026
-0.00056381 -0.0017698 -0.0002236 -0.0010999 -0.00031172 -0.0011538 -0.0090788 0.0052746
0.18511 0.16514 -0.0084933 0.0065574
-0.00035889 0.00030915 -0.00033069 -0.00091964 0.00015914 -0.0005412 0.0014759 0.00063372
-0.0085036 0.0065599 0.22184 0.23706
1640000000 0.30357 0.017491 -0.0020504 0.012031 -0.0026092 -0.0022148 0.0022821 0.0010642
-0.00067883 -0.0007928 -0.00040025 0.00069767
-0.0020518 0.012024 0.20642 0.27197 0.0056282 0.0035754 -0.00073433 -0.0015898
-0.0009412 -0.00064133 -0.00058418 -0.00062126
-0.0026172 -0.0021967 0.0056545 0.003546 0.3035 -0.15817 -0.00097965 0.0012561
-0.0010431 -0.00082983 -7.2853e-05 -0.00020314
0.0022875 0.0010555 -0.00074955 -0.0015976 -0.00098744 0.0012532 0.25052 0.050609
-0.0062365 0.0057563 0.0018787 -0.00051556
-0.00067879 -0.00078071 -0.00095966 -0.00064644 -0.0010439 -0.00083223 -0.0060993 0.0059686
0.20828 0.13882 -0.0041865 0.0084774
-0.00038749 0.00068595 -0.00059907 -0.00063424 -8.2363e-05 -0.00019829 0.0018789 -0.00048762
-0.0041989 0.0084805 0.24748 0.20549
1700000000 0.29417 -0.030038 0.0014067 0.0095238 -0.0031379 0.00023023 0.0028155 -0.00082097
-0.0014805 -0.00034481 0.00052823 0.00050328
0.0013972 0.0095116 0.22442 0.24019 0.0037735 0.00074237 -0.0013842 -0.00052585
-0.0009224 -0.00010593 -0.00096467 -0.00035972
-0.0031431 0.00024126 0.0037865 0.00072662 0.25978 -0.19794 0.00021924 0.0016666
-0.0017621 -0.00024349 -0.0005621 -0.00092461
0.0027965 -0.00082935 -0.0014016 -0.00051667 0.00020583 0.0016839 0.24654 -0.001073
-0.0047938 0.0062963 0.0012261 -0.0018152
-0.0014888 -0.00034225 -0.00095191 -0.00010264 -0.0017804 -0.00025317 -0.004601 0.0063712
0.22553 0.11612 0.00014989 0.0088551
0.00053755 0.00050444 -0.00095479 -0.00033183 -0.00055055 -0.00091723 0.0012265 -0.0018302
0.00015269 0.0088503 0.26355 0.17052
1760000000 0.27915 -0.080013 0.0037858 0.0065859 -0.0019502 0.00070829 0.0015672 -0.0031041
-0.00080672 0.00058165 0.0005518 -0.00033088
0.0037796 0.0065757 0.25011 0.1999 0.0015994 -0.00096791 -0.0010935 0.00024494
-0.0013683 0.00091109 -0.00056991 0.00058997
-0.0019509 0.00072399 0.0015903 -0.00097221 0.21037 -0.23092 0.0010877 0.0015315
-0.0011618 0.0013489 -0.001307 -0.00041015
0.0015571 -0.0030845 -0.0010953 0.0002642 0.0010913 0.0015279 0.23559 -0.053677
-0.002597 0.0062166 -0.00048183 -0.0020154
-0.0008176 0.00060139 -0.0013704 0.00094346 -0.0011544 0.0013733 -0.0024587 0.0061781
0.2401 0.078455 0.0037707 0.006178
0.0005815 -0.00033733 -0.00057497 0.00058674 -0.0013133 -0.00041202 -0.00048915 -0.0020057
0.0037691 0.006176 0.2758 0.1325
1820000000 0.25097 -0.1171 0.0042827 0.0031664 8.5256e-05 0.0021331 -0.00067758 -0.0030997
-0.00072568 0.00035403 0.0002296 -0.00011192
0.0042793 0.0031589 0.25959 0.16948 -0.00015409 0.00014406 -0.0013358 0.00084745
-0.00019717 0.0016087 -0.00044641 0.00059191
8.7865e-05 0.0021407 -0.00014829 0.00014497 0.16068 -0.24611 0.0017094 0.00050078
-0.00033665 0.0021924 -0.0013141 0.00054945
-0.00070055 -0.0030889 -0.0013429 0.00088169 0.0017093 0.00051706 0.20303 -0.10111
-0.001767 0.0051911 -0.0016079 -0.0011273
-0.00072646 0.00037196 -0.0001886 0.0016198 -0.00033603 0.0022175 -0.001728 0.0051553
0.25556 0.046257 0.0045093 0.0028278
0.00021746 -0.00011206 -0.00042814 0.00060831 -0.0012874 0.00055611 -0.0015684 -0.0011294
0.0045198 0.002821 0.27771 0.095937
1880000000 0.21279 -0.1557 0.00227 0.00098661 -0.00036896 0.0018484 -0.0028331 -0.002431
-0.00055825 0.0013168 0.00055095 -0.00079644
0.0022647 0.00098047 0.2635 0.12278 -0.0020601 0.0016999 -0.00014008 0.0017128
0.00078306 0.001576 0.00032346 0.00097928
-0.00036217 0.0018521 -0.0020551 0.0017225 0.10857 -0.25536 0.0020469 -0.0011086
0.0014954 0.0020278 -0.00089561 0.0014387
-0.0028202 -0.0023914 -9.9939e-05 0.001728 0.0020568 -0.0011309 0.16049 -0.13985
-0.0016635 0.0043809 -0.0022241 0.00087015
-0.00055766 0.0013495 0.00081748 0.0016048 0.0015344 0.0020218 -0.0016452 0.0043644
0.25586 0.01067 0.003967 0.00094684
0.00059551 -0.00080704 0.00034132 0.00095967 -0.00091638 0.0014476 -0.0022523 0.00086508
0.0039652 0.00094055 0.27705 0.061842
1940000000 0.17161 -0.17878 0.00037419 -0.0006977 0.0011046 0.0017277 -0.0039984 0.00033799
0.00094851 0.0010786 -0.00075554 -0.00079174
0.00037822 -0.00069304 0.26327 0.090937 -0.0010322 0.0037565 0.00099185 0.0012813
0.0023063 0.00052938 0.00089882 0.00018346
0.0011161 0.0017175 -0.0010047 0.0037724 0.062513 -0.24927 0.00035673 -0.0025367
0.0025696 0.0005555 0.00050774 0.0015695
-0.003993 0.00032826 0.0010015 0.00126 0.00035101 -0.0025461 0.10691 -0.16797
-0.0027802 0.0044204 -0.0010926 0.0020406
0.00097574 0.0010403 0.0023346 0.00049152 0.0025664 0.00051743 -0.0027625 0.0044304
0.25371 -0.030537 0.0026384 -0.0018928
-0.00076788 -0.00075467 0.00089308 0.00019444 0.00049569 0.0015488 -0.0010449 0.0020473
0.0026457 -0.0018773 0.26583 0.025678
2000000000 0.12471 -0.19007 -0.0031954 0.0011933 0.0023324 0.0017207 -0.0024685 0.0036589
0.0010386 0.00055406 -0.0010944 0.00040228
-0.0031908 0.0011797 0.24846 0.055654 -0.00086134 0.0055527 0.0016335 0.00016631
0.0017105 -0.0018583 0.00041631 1.7982e-05
0.0023453 0.0017066 -0.00081803 0.0055649 0.018848 -0.23482 -0.001654 -0.0014776
0.0019866 -0.0013941 0.0015838 0.0012828
-0.0024796 0.0036608 0.0016353 0.00013843 -0.0016692 -0.0014716 0.054069 -0.17545
-0.0037136 0.0055286 0.00028871 0.0022357
0.0010423 0.00052052 0.001711 -0.0018954 0.0019716 -0.0014134 -0.0036562 0.0055409
