!Keysight Technologies,M9804A,MY58100912,A.14.10.03
!Date: Thursday, April 27, 2023 10:28:33
!Correction: S11(C  6-Port  ) 
!S12(C  6-Port  ) 
!S13(C  6-Port  ) 
!S14(C  6-Port  ) 
!S15(C  6-Port  ) 
!S16(C  6-Port  ) 
!S21(C  6-Port  ) 
!S22(C  6-Port  ) 
!S23(C  6-Port  ) 
!S24(C  6-Port  ) 
!S25(C  6-Port  ) 
!S26(C  6-Port  ) 
!S31(C  6-Port  ) 
!S32(C  6-Port  ) 
!S33(C  6-Port  ) 
!S34(C  6-Port  ) 
!S35(C  6-Port  ) 
!S36(C  6-Port  ) 
!S41(C  6-Port  ) 
!S42(C  6-Port  ) 
!S43(C  6-Port  ) 
!S44(C  6-Port  ) 
!S45(C  6-Port  ) 
!S46(C  6-Port  ) 
!S51(C  6-Port  ) 
!S52(C  6-Port  ) 
!S53(C  6-Port  ) 
!S54(C  6-Port  ) 
!S55(C  6-Port  ) 
!S56(C  6-Port  ) 
!S61(C  6-Port  ) 
!S62(C  6-Port  ) 
!S63(C  6-Port  ) 
!S64(C  6-Port  ) 
!S65(C  6-Port  ) 
!S66(C  6-Port  ) 
!S6P File: Measurement: :
# Hz S  RI   R 50
500000000 -0.33633 -0.032157 -0.0096256 -0.0041444 -0.0077612 0.011718 -0.0036757 0.011088
0.012176 0.0039734 -0.0038931 0.0071329
-0.0096394 -0.0041621 -0.41897 -0.048109 0.0074331 -0.011713 0.0014406 0.010823
0.0077891 0.0030737 0.0011654 0.012309
-0.0076776 0.011703 0.0074083 -0.011708 -0.26456 0.21208 0.0068267 0.0029231
0.00070479 0.0088206 0.00053872 0.01198
-0.0037204 0.011088 0.0014492 0.010839 0.006831 0.002913 -0.32616 0.049835
-0.019044 -0.0051217 0.017825 0.024998
0.012199 0.0039127 0.0078126 0.0030534 0.0007333 0.0087978 -0.01904 -0.0050881
-0.22676 -0.17723 -0.026684 0.0046937
-0.0039134 0.0070491 0.0011978 0.012312 0.0005511 0.011931 0.017802 0.025021
-0.026693 0.0046916 -0.27336 -0.12355
560000000 -0.31313 0.12674 -0.024286 -0.062965 0.00038682 0.012263 0.0067289 0.0096588
0.011517 0.0032136 0.0098048 0.0081423
-0.024242 -0.062841 -0.37554 0.10985 -0.042097 -0.03642 0.01392 0.0036215
-0.013273 -0.0049424 0.0052966 -0.00046665
0.00036784 0.012173 -0.042191 -0.036363 -0.18217 0.25917 -0.00079282 -0.0046915
0.018916 0.0038023 0.0070249 -0.0060659
0.006768 0.0097389 0.01396 0.0036103 -0.00080885 -0.0046712 -0.30123 0.1369
0.0043053 -0.025798 0.0056936 -0.019927
0.011362 0.0033485 -0.013348 -0.0048902 0.018873 0.0037151 0.0042498 -0.025767
-0.28485 -0.0052074 0.0079726 -0.050783
0.009975 0.0081155 0.0052518 -0.00047211 0.0070877 -0.0060832 0.0056854 -0.019963
0.0079617 -0.050758 -0.33195 0.024459
620000000 -0.27212 0.1105 -0.02318 0.0068043 0.0034558 0.0082133 0.0070148 -0.0063528
0.010717 -0.00044366 0.00046037 -0.0027554
-0.023174 0.0068099 -0.4023 0.06433 -0.01897 -0.00021118 -0.0016975 -0.0023516
0.010391 -0.0069368 0.00073168 -0.0028213
0.0033893 0.00818 -0.018993 -0.00017957 -0.15222 0.2684 -0.0019016 -0.005269
-0.0035648 -0.003267 0.008146 -0.003676
0.0069249 -0.0063682 -0.0017029 -0.0023503 -0.0019197 -0.0052689 -0.25916 0.147
-0.038751 -0.019697 0.015156 0.023414
0.010789 -0.00040143 0.010382 -0.0069715 -0.0035745 -0.0032676 -0.038775 -0.019641
-0.20338 -0.042579 -0.039511 0.013544
0.00037739 -0.0028728 0.00072124 -0.0028419 0.0081353 -0.0036881 0.01519 0.023395
-0.039496 0.013495 -0.25002 -0.012336
680000000 -0.23111 0.19322 -0.028004 -0.014025 0.0049777 0.0050905 0.00047069 -0.0080607
-0.0035405 -0.010914 0.0043149 -0.0073121
-0.027952 -0.014017 -0.38633 0.1608 -0.032905 -0.0010578 -0.0016655 -0.00069898
-0.003121 -0.0087135 -0.0010151 -0.002443
0.0049673 0.0050575 -0.032928 -0.00097965 -0.10184 0.28795 -0.00067414 0.00010688
-0.0023816 0.00094184 -0.0030085 -0.009659
0.0003628 -0.0080864 -0.0016792 -0.00068605 -0.00067779 0.000105 -0.21748 0.19574
-0.023605 -0.0090443 -0.011093 -0.010301
-0.0035803 -0.010839 -0.0031617 -0.0087163 -0.0023838 0.00093784 -0.023645 -0.0090433
-0.24845 0.052851 -0.005231 -0.010019
0.0043472 -0.0074572 -0.0010089 -0.0024596 -0.0029947 -0.0096376 -0.011089 -0.010305
-0.0052102 -0.010019 -0.2618 0.091389
740000000 -0.18854 0.18851 -0.038786 0.026272 0.01259 -0.0051638 -0.00083262 -0.0038997
-0.0041954 -0.0021466 -0.0063564 0.0033009
-0.038767 0.026252 -0.3349 0.17931 -0.03467 0.035122 -0.00085345 -0.0064165
-0.011607 0.0085694 -0.0025893 -0.0060554
0.012583 -0.0052028 -0.034547 0.035233 -0.068239 0.2872 -0.0010073 0.0036355
-0.0027366 -0.0036031 -0.00096615 0.00059514
-0.00085801 -0.0039069 -0.00088259 -0.0064097 -0.0010245 0.0036371 -0.20098 0.20304
-0.042882 -0.0077629 0.023012 0.012476
-0.0041485 -0.0021621 -0.01159 0.0086525 -0.0027318 -0.0035996 -0.042916 -0.0076879
-0.15588 0.074487 -0.042573 0.00075906
-0.0063662 0.003287 -0.0026384 -0.0060584 -0.00099316 0.00056404 0.02302 0.012445
-0.042594 0.00074216 -0.24983 0.098534
800000000 -0.15725 0.22866 -0.022606 0.017267 0.0050837 -0.010465 -0.0047596 -0.0019107
-0.0041487 0.00307 0.004331 0.00086756
-0.022599 0.017271 -0.33699 0.24958 -0.0076909 0.034106 -0.002013 0.0022153
-0.00038538 0.0036199 0.0010457 0.0052944
0.0050526 -0.010475 -0.0076017 0.034155 -0.026812 0.31014 0.0012872 0.0014903
0.00074896 0.0035663 -0.0017877 0.0010119
-0.0047897 -0.0018888 -0.0020059 0.0022227 0.0012824 0.0014872 -0.17362 0.23108
-0.028849 0.012408 0.013038 -0.0096471
-0.0040749 0.0031334 -0.0003853 0.0036294 0.00073449 0.0035633 -0.028846 0.012453
-0.19774 0.099131 -0.018103 0.01693
0.0042917 0.00085732 0.0010628 0.0053052 -0.001797 0.0010113 0.013026 -0.0096778
-0.018089 0.016907 -0.24332 0.15222
860000000 -0.12249 0.2505 -0.017083 0.03154 -0.0034806 -0.0097436 -0.0025229 0.0012695
0.0044091 0.0051989 -0.0026725 -0.0029289
-0.017085 0.031534 -0.28903 0.29162 0.0083546 0.034032 0.00034969 0.0019644
0.0045873 0.00013219 0.0034484 0.00027777
-0.003516 -0.0097375 0.0084561 0.034036 0.021875 0.31783 -0.0003144 -0.00036494
0.0028731 -0.0017018 0.0015898 0.0045896
-0.0025389 0.00127 0.00034864 0.001957 -0.0003193 -0.00036716 -0.13805 0.24318
-0.0179 0.018405 -0.0063448 -0.0093623
0.0044603 0.0052295 0.004595 0.00010851 0.0028753 -0.0016978 -0.017892 0.018448
-0.14962 0.14631 -0.024007 0.015404
-0.0027174 -0.0029258 0.0034599 0.00026397 0.0015924 0.0045834 -0.0063797 -0.0093427
-0.023986 0.015374 -0.19296 0.19454
920000000 -0.096683 0.27398 0.0054176 0.037981 -0.0093356 -0.0039937 -0.0015676 0.0023939
0.0013986 0.001493 0.0025233 -0.0013107
0.005369 0.03795 -0.25973 0.31255 0.028132 0.021491 0.0017235 0.0010417
0.0065957 -0.0010018 0.0035474 -0.0028758
-0.0093419 -0.0039774 0.028202 0.021438 0.068421 0.31795 0.0017422 -0.00017044
0.0013484 -0.00056826 0.00080008 -0.0011207
-0.0015765 0.0023954 0.00172 0.0010266 0.0017453 -0.0001673 -0.11369 0.25959
-0.010583 0.029718 0.0024096 -0.0060947
0.0014174 0.0014755 0.0065997 -0.0010287 0.0013515 -0.00056825 -0.010544 0.029756
-0.13915 0.15288 -0.0022681 0.027126
0.0025348 -0.0013141 0.0035339 -0.0029144 0.00081562 -0.0011106 0.0023797 -0.0060943
-0.0022787 0.027114 -0.19937 0.20923
980000000 -0.048603 0.29342 0.018273 0.029892 -0.0086398 0.0048422 0.002589 0.0038174
0.0040469 -0.0018804 -0.0030325 -0.0021098
0.018223 0.029858 -0.20676 0.34587 0.032812 0.0043268 0.0019709 -2.5713e-05
0.00093767 -0.0061213 -0.00060252 -0.0021464
-0.0086108 0.0048598 0.032841 0.0042323 0.11481 0.3109 0.00033089 -0.0011673
2.0104e-05 -0.0020969 0.0015758 -5.1726e-05
0.0026137 0.003808 0.0019711 -4.5211e-05 0.00033641 -0.0011721 -0.075256 0.27128
0.0071814 0.028355 -0.0094387 -0.0063567
0.0040281 -0.0018997 0.00089263 -0.0061539 1.5518e-05 -0.0020958 0.0072346 0.028351
-0.10826 0.17945 0.0050303 0.018515
-0.003021 -0.0021025 -0.00059672 -0.0021468 0.0015789 -6.403e-05 -0.0094363 -0.0063304
0.0050238 0.0185 -0.15612 0.25265
1040000000 -0.0053276 0.30129 0.033371 0.017501 -0.00097701 0.0068907 0.0029183 0.00068066
-3.805e-06 -0.0037449 -0.00070526 -0.0014789
0.033295 0.017541 -0.17081 0.35874 0.028784 -0.014985 0.001441 -0.0016229
-0.0026497 -0.0021152 -0.001448 -0.0025494
-0.00094039 0.0068923 0.028746 -0.01509 0.16094 0.29662 -0.0005424 -0.00134
-0.001533 -0.00069598 -0.00042286 -0.0011278
0.0029315 0.00069493 0.0014201 -0.0016401 -0.00053787 -0.001335 -0.047484 0.2812
0.017951 0.016785 -0.003075 0.0024699
-1.2699e-05 -0.0037434 -0.0026807 -0.0021199 -0.0015251 -0.00069094 0.017979 0.016759
-0.077643 0.18887 0.013244 0.017831
-0.00072437 -0.0014701 -0.0014571 -0.0025674 -0.00041638 -0.0011333 -0.0030768 0.0024701
0.013212 0.017823 -0.13458 0.27406
1100000000 0.040461 0.3081 0.035557 -0.0048034 0.0030138 0.0036116 0.0025975 -0.0016279
-0.0022007 -0.002961 -0.003781 0.0001357
0.035508 -0.0047801 -0.12716 0.37536 0.014539 -0.027625 1.0528e-05 -0.0018392
-0.0030323 -0.00022928 -0.0033317 -0.00051537
0.0030304 0.0035932 0.01444 -0.027702 0.20708 0.27583 -0.0017462 0.00027703
-0.0015701 0.00066329 -0.00092755 -0.00039837
0.0026026 -0.0016295 -5.0086e-07 -0.0018463 -0.0017404 0.00027668 -0.0067042 0.28586
0.021997 0.0048604 -0.0021003 0.0012837
-0.0022205 -0.0029588 -0.0030395 -0.00023016 -0.0015716 0.00066837 0.022013 0.0048219
-0.059048 0.20218 0.01834 0.0082177
-0.0037856 0.00016926 -0.0033446 -0.00049493 -0.00092146 -0.00040201 -0.0021139 0.0012802
0.018333 0.0082237 -0.087782 0.30316
1160000000 0.09229 0.30217 0.023517 -0.021013 0.0026479 -0.00065523 -4.0422e-05 -0.0026728
-0.0041293 -0.00022877 -0.00080574 0.004106
0.023482 -0.020969 -0.083029 0.379 -0.0040122 -0.028573 -0.0017533 -0.0015797
-0.0021923 0.002605 -0.00127 0.0015502
0.0026553 -0.0006655 -0.0041416 -0.028564 0.24985 0.24464 -0.00051117 0.0016778
-0.00031893 0.0017395 -0.0010528 4.2402e-05
-6.5101e-05 -0.0026623 -0.0017698 -0.0015893 -0.00051769 0.0016774 0.03282 0.28279
0.018465 -0.0094479 -0.0024958 0.0058077
-0.0041202 -0.00021218 -0.0021867 0.0026074 -0.00033651 0.0017593 0.018456 -0.0094842
-0.025575 0.21202 0.016986 0.00031015
-0.00078965 0.0040968 -0.0012409 0.0015515 -0.0010539 2.3758e-05 -0.0024922 0.0058242
0.016987 0.00030639 -0.040389 0.30557
1220000000 0.13668 0.2899 0.0099249 -0.029804 -0.00156 -0.00089263 -0.00029529 -0.0011631
-0.0024591 0.0026275 0.0012945 0.0018675
0.0099212 -0.029759 -0.038964 0.3901 -0.016755 -0.020556 -0.0024808 0.00050876
0.00036528 0.0027366 -0.00066732 0.0016853
-0.0015605 -0.00089262 -0.016871 -0.020502 0.28868 0.20549 0.00090558 0.0014835
0.00058375 0.0010512 0.00024927 0.00072652
-0.0002976 -0.0011544 -0.0024834 0.00051712 0.00090319 0.0014854 0.072455 0.27383
0.0087367 -0.014676 0.0031378 0.0017386
-0.0024465 0.0026437 0.0003827 0.0027296 0.00058029 0.0010513 0.0087184 -0.014693
-0.0013582 0.2217 0.013035 -0.01201
0.001284 0.0018615 -0.0006568 0.0016869 0.00026233 0.00073351 0.0031424 0.0017293
0.013019 -0.011999 -0.0083651 0.32189
1280000000 0.18592 0.26698 -0.008048 -0.027992 -0.0018212 0.0023766 -0.0011787 -0.0019206
-0.00044649 0.0031068 0.0025183 0.00094279
-0.0080093 -0.027961 0.0066767 0.38068 -0.023182 -0.0081466 -0.00095867 0.0014456
0.0015833 0.0014104 0.000437 0.0018895
-0.0018104 0.0023807 -0.023239 -0.0080438 0.31919 0.16147 0.0012411 -0.00020104
0.00086545 6.2688e-05 0.00027059 0.00049676
-0.0011829 -0.001915 -0.00095123 0.0014509 0.0012383 -0.00020111 0.10877 0.25768
0.00031326 -0.015975 0.00091034 -0.00010104
-0.00042733 0.0031019 0.0015971 0.0014064 0.00087017 5.3489e-05 0.00027869 -0.015977
0.036014 0.22515 0.002602 -0.013821
0.0025349 0.00092951 0.00045056 0.0018827 0.00028036 0.00049927 0.0009126 -0.00010165
0.0026157 -0.013825 0.039257 0.3227
1340000000 0.22252 0.23239 -0.017524 -0.018637 0.0007903 0.0042785 -0.001945 -0.00062789
0.0014706 0.0024339 0.0015752 -0.0015411
-0.017504 -0.018623 0.045843 0.37188 -0.021072 0.004192 -6.0306e-05 0.0018922
0.0015618 0.00059528 0.0012883 0.00079394
0.00081207 0.0042789 -0.021069 0.0043064 0.34126 0.11337 0.0008673 -0.00081964
0.0004863 -0.00034533 0.0002814 0.00021192
-0.001952 -0.00061802 -5.071e-05 0.0018905 0.00086336 -0.0008195 0.14158 0.23752
-0.0070887 -0.013128 0.0015993 -0.00037636
0.0014913 0.0024125 0.0015676 0.00057942 0.00048405 -0.00034524 -0.0071227 -0.013119
0.067324 0.22014 -0.0033703 -0.012292
0.0015498 -0.0015313 0.0012891 0.00079498 0.00027408 0.00020989 0.0016038 -0.0003696
-0.0033616 -0.01229 0.078315 0.31813
1400000000 0.25479 0.19368 -0.023059 -0.0073049 0.0049578 0.0030365 -0.00199 0.00074234
0.0024234 0.00050538 0.00011659 -0.0013144
-0.023021 -0.0073148 0.082484 0.35866 -0.014457 0.012045 0.0013204 0.0012227
0.00079004 -0.00073486 0.0012176 0.00028099
0.0049682 0.0030204 -0.014419 0.012136 0.35427 0.059538 3.7715e-05 -0.0013524
-2.2234e-05 -0.00032059 0.00035627 0.00024259
-0.0019831 0.00075986 0.001322 0.0012156 3.7196e-05 -0.0013592 0.17155 0.20926
-0.011576 -0.0074926 -0.00052945 -0.0011169
0.002439 0.00049343 0.00078441 -0.0007495 -2.8925e-05 -0.00032174 -0.011599 -0.007461
0.10097 0.21489 -0.0092497 -0.0078419
0.00010202 -0.0013126 0.0012203 0.00027487 0.00036642 0.00024334 -0.00053842 -0.001115
-0.0092447 -0.0078492 0.12289 0.30678
1460000000 0.27719 0.14944 -0.020214 0.0045237 0.0053475 -0.0017222 -0.0014968 0.0017245
0.001847 -0.00085608 -0.00036719 -0.00082516
-0.020204 0.0045038 0.11642 0.3368 -0.0061041 0.014784 0.0016592 0.00012729
0.00079769 -0.0010162 0.0011565 -0.00062303
0.0053392 -0.0017311 -0.006042 0.014834 0.3599 0.004705 -0.0010209 -0.001104
0.00025431 -0.00011853 0.00062157 -0.00041374
-0.0014814 0.0017429 0.001666 0.00012369 -0.0010244 -0.0011159 0.19872 0.18009
-0.011866 -0.0026055 -0.0012932 0.0010936
0.0018426 -0.000872 0.00080368 -0.001034 0.00025181 -0.00013336 -0.011873 -0.0025768
0.13121 0.19944 -0.01052 -0.0027862
-0.00035563 -0.00082146 0.0011537 -0.00063924 0.00061869 -0.00041861 -0.0012749 0.0010797
-0.01052 -0.0028003 0.15607 0.28522
1520000000 0.2889 0.1073 -0.014661 0.01011 0.0030334 -0.003955 0.0001559 0.0024873
0.0015234 -0.001692 -0.0011467 -0.00012571
-0.014664 0.010084 0.14975 0.3219 0.0012558 0.012797 0.0015363 -0.0007896
0.0001671 -0.00082682 0.00025039 -0.0010201
0.0030211 -0.0039714 0.0013152 0.012801 0.35287 -0.051708 -0.00082422 -0.00035359
0.0005581 -0.00074675 -5.9815e-05 -3.9338e-05
0.00016035 0.0024933 0.0015271 -0.00079944 -0.00081635 -0.00036068 0.22283 0.14169
-0.011389 0.0013831 0.0007725 0.0015431
0.0015254 -0.0017124 0.00016213 -0.00083663 0.00055376 -0.00075057 -0.0114 0.0014098
0.15942 0.18389 -0.01062 0.001294
-0.0011478 -0.00010008 0.00024216 -0.0010212 -5.9135e-05 -4.5601e-05 0.00077743 0.0015544
-0.010621 0.0012957 0.18953 0.26432
1580000000 0.29787 0.060717 -0.008218 0.013201 -0.00098911 -0.0046001 0.001363 0.0017678
-0.0006178 -0.0018396 -0.00027624 0.00038257
-0.0082225 0.013189 0.17682 0.29715 0.0048473 0.0081972 0.00044512 -0.0015184
-0.00029317 -0.0010224 -0.00023112 -0.00084906
-0.0010068 -0.0045913 0.0049 0.0081814 0.33217 -0.10926 -0.0014235 0.00039798
-0.00026332 -0.0010772 0.00016863 -0.00053526
0.0013639 0.0017699 0.00043579 -0.0015172 -0.0014245 0.0003954 0.23765 0.1013
-0.0091365 0.0049416 0.001472 0.00062203
-0.0006282 -0.0018356 -0.00030237 -0.0010261 -0.00026739 -0.0010761 -0.0091339 0.0049668
0.18393 0.16492 -0.0086076 0.006466
-0.00028572 0.00038021 -0.00023506 -0.00084257 0.00016327 -0.00054172 0.001469 0.0006165
-0.0086028 0.0064548 0.22131 0.23713
1640000000 0.29933 0.018547 -0.0016093 0.012272 -0.0025881 -0.0023131 0.0025241 0.0010057
-0.00080525 -0.00086154 -0.00029224 0.00073869
-0.0016367 0.012257 0.20632 0.27185 0.0055576 0.003618 -0.00069956 -0.001578
-0.00092477 -0.00055964 -0.00056236 -0.00062866
-0.0025924 -0.0023013 0.0055967 0.0035908 0.30358 -0.15852 -0.00088954 0.0012068
-0.0009856 -0.00087185 -4.9957e-05 -0.00029984
0.0025344 0.0010109 -0.0007147 -0.0015769 -0.00088899 0.0012043 0.25031 0.050881
-0.0063533 0.0056873 0.0019274 -0.00057671
-0.00081196 -0.00085544 -0.00094052 -0.00055143 -0.00098386 -0.00086277 -0.0063496 0.005707
0.20709 0.13882 -0.0043211 0.0083699
-0.00027138 0.00074146 -0.00056922 -0.00062553 -4.9429e-05 -0.0002964 0.001936 -0.00058114
-0.0043216 0.0083775 0.24716 0.20565
1700000000 0.29078 -0.027294 0.0018584 0.0095993 -0.0031969 0.00014851 0.0029114 -0.0010417
-0.0015632 -0.00029595 0.00064303 0.00043981
0.001862 0.0095949 0.22421 0.24017 0.0037381 0.0008822 -0.0013458 -0.00053317
-0.00085942 -8.9798e-05 -0.00093503 -0.00037617
-0.003193 0.00014862 0.0037552 0.00086926 0.25953 -0.19804 0.00022587 0.0015931
-0.001687 -0.00033405 -0.00058803 -0.00097207
0.0028906 -0.0010484 -0.0013547 -0.00052092 0.0002343 0.001591 0.24647 -0.00071135
-0.0049667 0.006329 0.0012789 -0.0017439
-0.0015736 -0.00029259 -0.00086481 -8.5319e-05 -0.0016873 -0.00033285 -0.0049484 0.0063422
0.22445 0.11645 -1.1764e-05 0.0088965
0.00063449 0.00044277 -0.00093386 -0.00036027 -0.00058335 -0.00096917 0.0012636 -0.0017523
-1.5714e-05 0.0088886 0.26316 0.17082
1760000000 0.27724 -0.075902 0.0042421 0.0064875 -0.0021443 0.00070791 0.0014059 -0.0032525
-0.00081612 0.00061548 0.00053044 -0.00043294
0.0042357 0.0064873 0.24997 0.19997 0.0016693 -0.0008423 -0.0010394 0.00017852
-0.0012433 0.00087481 -0.00055773 0.00057863
-0.0021317 0.00071198 0.0016764 -0.0008535 0.21041 -0.23085 0.0011377 0.0013653
-0.0011482 0.0012522 -0.0013623 -0.00043047
0.0013966 -0.0032698 -0.0010384 0.00018844 0.0011256 0.0013697 0.23556 -0.053369
-0.0027832 0.0062264 -0.00059662 -0.0019628
-0.00080898 0.00062717 -0.0012345 0.00088572 -0.0011574 0.0012548 -0.002773 0.0062309
0.23931 0.078961 0.003409 0.0062662
0.00051549 -0.00045219 -0.00054804 0.00059045 -0.0013565 -0.0004332 -0.00058709 -0.0019783
0.003413 0.0062706 0.27557 0.13269
1820000000 0.25101 -0.11282 0.0046218 0.002896 -7.5589e-05 0.00224 -0.00090987 -0.0030047
-0.00075234 0.00038792 0.00010055 -0.00011648
0.0046182 0.0028935 0.25943 0.16958 -0.00013448 0.00011368 -0.0013684 0.00083169
-0.00018959 0.0014811 -0.00044395 0.00058651
-6.9083e-05 0.0022604 -0.00012687 0.00011698 0.16043 -0.24648 0.0015595 0.00053462
-0.00043271 0.0020858 -0.0013242 0.00055689
-0.00092065 -0.0029965 -0.0013589 0.00084306 0.0015798 0.00053774 0.20331 -0.10079
-0.0018498 0.0054042 -0.0015306 -0.0010793
-0.00074569 0.00039836 -0.00017955 0.001482 -0.00041793 0.0020881 -0.0018222 0.0054236
0.25498 0.04705 0.0043201 0.0031075
0.00010736 -0.00012959 -0.00044818 0.0005921 -0.0012961 0.00056258 -0.0015264 -0.0010817
0.0043178 0.0031054 0.27742 0.096473
1880000000 0.2146 -0.15179 0.0025522 0.00059333 -0.00029701 0.0020179 -0.0028917 -0.0022817
-0.00045826 0.0012384 0.00020586 -0.00066744
0.0025496 0.00058793 0.26342 0.12302 -0.0020049 0.0017242 -0.00018171 0.0016833
0.00072625 0.0014687 0.00022488 0.00089777
-0.00029633 0.0020085 -0.0019919 0.0017424 0.10837 -0.25541 0.001986 -0.0010451
0.0014331 0.0020763 -0.00090459 0.0014249
-0.0029019 -0.0022746 -0.00018058 0.0016932 0.0019985 -0.0010559 0.16077 -0.1397
-0.0016532 0.0045645 -0.0021738 0.00089767
-0.00042609 0.0012286 0.00074166 0.0014629 0.0014471 0.0020719 -0.0016508 0.0045717
0.25554 0.01158 0.003941 0.00122
0.00019879 -0.00065326 0.00023942 0.00089082 -0.00089291 0.0014143 -0.0021611 0.00091458
0.0039491 0.0012186 0.27685 0.06238
1940000000 0.17472 -0.17636 0.00040657 -0.0013131 0.0013142 0.0019004 -0.003869 0.00050874
0.00093208 0.001019 -0.00073126 -0.0005773
0.00042536 -0.0013063 0.2634 0.091103 -0.00093588 0.0038148 0.00092611 0.0013282
0.0021112 0.00052782 0.0008138 0.00017892
0.0013405 0.001896 -0.00090348 0.0038248 0.062307 -0.24915 0.00035913 -0.0024664
0.0024116 0.00059064 0.0003743 0.0015677
-0.0038752 0.00052723 0.00094582 0.0013312 0.00035937 -0.0024738 0.10749 -0.16797
-0.0024959 0.0045891 -0.00097583 0.0018766
0.00092943 0.0010135 0.0021173 0.00051155 0.0024184 0.00059097 -0.002483 0.0045859
0.25376 -0.029536 0.0028639 -0.0017614
-0.00072977 -0.00056561 0.00081532 0.00017944 0.00037552 0.0015558 -0.00095324 0.0018826
0.0028613 -0.001754 0.26554 0.026219
2000000000 0.12857 -0.18932 -0.0033905 0.00052473 0.0023441 0.0015671 -0.0023243 0.0036421
0.00096942 0.00041626 -0.00070012 0.00044024
-0.003401 0.00051328 0.24864 0.055763 -0.00079661 0.0054847 0.0015948 0.00029867
0.0016297 -0.0017736 0.0004053 0.00014463
0.002354 0.0015582 -0.00076314 0.0055077 0.018849 -0.2346 -0.001594 -0.0013727
0.0020224 -0.0013182 0.0016529 0.001299
-0.0022956 0.0036713 0.0016038 0.00029433 -0.0015988 -0.0013812 0.05418 -0.17556
-0.0036836 0.0055856 0.00042148 0.0023422
0.00095132 0.00039621 0.001603 -0.0017832 0.0020103 -0.0013354 -0.0036588 0.0056051
