!Keysight Technologies,M9804A,MY58100912,A.14.10.03
!Date: Thursday, April 27, 2023 10:28:33
!Correction: S11(C  6-Port  ) 
!S12(C  6-Port  ) 
!S13(C  6-Port  ) 
!S14(C  6-Port  ) 
!S15(C  6-Port  ) 
!S16(C  6-Port  ) 
!S21(C  6-Port  ) 
!S22(C  6-Port  ) 
!S23(C  6-Port  ) 
!S24(C  6-Port  ) 
!S25(C  6-Port  ) 
!S26(C  6-Port  ) 
!S31(C  6-Port  ) 
!S32(C  6-Port  ) 
!S33(C  6-Port  ) 
!S34(C  6-Port  ) 
!S35(C  6-Port  ) 
!S36(C  6-Port  ) 
!S41(C  6-Port  ) 
!S42(C  6-Port  ) 
!S43(C  6-Port  ) 
!S44(C  6-Port  ) 
!S45(C  6-Port  ) 
!S46(C  6-Port  ) 
!S51(C  6-Port  ) 
!S52(C  6-Port  ) 
!S53(C  6-Port  ) 
!S54(C  6-Port  ) 
!S55(C  6-Port  ) 
!S56(C  6-Port  ) 
!S61(C  6-Port  ) 
!S62(C  6-Port  ) 
!S63(C  6-Port  ) 
!S64(C  6-Port  ) 
!S65(C  6-Port  ) 
!S66(C  6-Port  ) 
!S6P File: Measurement: :
# Hz S  RI   R 50
500000000 -0.33325 -0.029195 -0.00897 -0.0043285 -0.007957 0.011254 -0.004135 0.011387
0.01249 0.0041695 -0.0045687 0.0069131
-0.00895 -0.004323 -0.41871 -0.047711 0.0073805 -0.011536 0.0015151 0.011035
0.0078752 0.0027513 0.0014149 0.012445
-0.0079441 0.011265 0.0073641 -0.01155 -0.26456 0.21261 0.0067893 0.0030822
0.00027882 0.0088894 0.00065719 0.012029
-0.0041283 0.011398 0.0015368 0.011045 0.006785 0.0031028 -0.32585 0.050848
-0.018308 -0.005841 0.018047 0.025683
0.012509 0.0041379 0.0078711 0.0027355 0.00028168 0.0088844 -0.018311 -0.0058267
-0.22894 -0.17572 -0.025748 0.0036885
-0.0045648 0.0069064 0.0014365 0.012437 0.00066217 0.012024 0.018045 0.025674
-0.025736 0.0036782 -0.27348 -0.12136
560000000 -0.30917 0.12761 -0.023254 -0.06326 -8.2634e-05 0.012258 0.0071133 0.0089862
0.012108 0.0031922 0.0091307 0.0076709
-0.023217 -0.063177 -0.37575 0.11001 -0.041828 -0.036287 0.013221 0.003275
-0.012943 -0.0038704 0.004284 -0.00069239
-6.7091e-05 0.01225 -0.041962 -0.036216 -0.18246 0.25973 -0.00060499 -0.0048959
0.018189 0.0038042 0.00706 -0.006616
0.0071039 0.0089774 0.013264 0.0032625 -0.00059708 -0.004894 -0.30124 0.1376
0.0045827 -0.025522 0.0057275 -0.019363
0.012127 0.0031847 -0.012977 -0.003836 0.018193 0.0038077 0.0045752 -0.025513
-0.28561 -0.0041149 0.0076197 -0.05058
0.0091593 0.0076753 0.004281 -0.00071262 0.0070639 -0.0066026 0.0057159 -0.019367
0.0076287 -0.050583 -0.33129 0.02504
620000000 -0.26821 0.11116 -0.022419 0.0059972 0.0036227 0.0084607 0.0073216 -0.0060749
0.010573 -0.001018 0.0011324 -0.0022927
-0.022408 0.0059973 -0.40224 0.064299 -0.018543 -0.00020696 -0.0015559 -0.0019716
0.010532 -0.0075255 0.00095041 -0.0027052
0.0036535 0.0084541 -0.018563 -0.00015937 -0.15213 0.26866 -0.0015648 -0.0052385
-0.0039167 -0.0033229 0.0082666 -0.0038118
0.0073015 -0.0060872 -0.0015596 -0.0019717 -0.0015673 -0.0052342 -0.26001 0.14721
-0.038198 -0.019465 0.014162 0.023878
0.010575 -0.001025 0.010514 -0.0075592 -0.0039129 -0.003331 -0.038217 -0.019444
-0.20486 -0.041119 -0.039112 0.013684
0.0011386 -0.0022835 0.00094806 -0.0027111 0.0082779 -0.0038166 0.014172 0.023874
-0.039131 0.013658 -0.25212 -0.010733
680000000 -0.22769 0.19102 -0.028495 -0.014937 0.004618 0.0051363 0.0001051 -0.0076313
-0.0033342 -0.011076 0.0042796 -0.0069584
-0.028474 -0.014942 -0.38653 0.1611 -0.032641 -0.0010789 -0.0020161 -0.00048451
-0.0028954 -0.0086274 -0.00092269 -0.0026274
0.0046289 0.0051327 -0.03267 -0.0009948 -0.10138 0.28811 -0.0008437 0.00011112
-0.0023654 0.00089763 -0.0030021 -0.0096266
8.9123e-05 -0.0076378 -0.0020233 -0.00047509 -0.0008427 0.0001132 -0.21809 0.19606
-0.023218 -0.0087499 -0.010803 -0.0095621
-0.0033668 -0.011076 -0.0029193 -0.0086382 -0.002362 0.00091028 -0.023233 -0.0087241
-0.24874 0.054116 -0.0045507 -0.010672
0.0042767 -0.0069825 -0.00092293 -0.0026153 -0.0029973 -0.0096325 -0.010808 -0.0095683
-0.0045558 -0.010657 -0.26214 0.092019
740000000 -0.18697 0.18526 -0.039405 0.025436 0.012554 -0.0053073 -0.0012176 -0.0042314
-0.0040891 -0.0018726 -0.006334 0.0027593
-0.03938 0.025378 -0.33452 0.18 -0.034728 0.034785 -0.00082074 -0.0059077
-0.011753 0.0077856 -0.00269 -0.0056599
0.012556 -0.005341 -0.034658 0.03491 -0.067808 0.28715 -0.0014568 0.0035297
-0.0031385 -0.0037233 -0.0010247 0.00070155
-0.0012406 -0.0042312 -0.00082123 -0.0059153 -0.0014518 0.0035389 -0.201 0.20361
-0.041839 -0.0078122 0.022332 0.012549
-0.004109 -0.0018378 -0.011728 0.0078339 -0.0031405 -0.0037114 -0.041874 -0.0077728
-0.15741 0.075362 -0.041107 0.00095288
-0.0063256 0.0027653 -0.0027096 -0.0056535 -0.0010087 0.00068762 0.022357 0.012544
-0.041092 0.00093123 -0.24993 0.10007
800000000 -0.15729 0.22543 -0.023584 0.017211 0.0050276 -0.010311 -0.0050416 -0.0017911
-0.0038004 0.0032656 0.0039644 0.0012054
-0.02358 0.017193 -0.33677 0.25007 -0.00778 0.034056 -0.0021079 0.0025025
-0.00035788 0.0033397 0.00087508 0.005684
0.0050025 -0.010329 -0.0076902 0.034101 -0.02647 0.31004 0.0013849 0.0015653
0.00071463 0.0038254 -0.001765 0.0012517
-0.0050678 -0.0017911 -0.0020978 0.0025184 0.0013854 0.0015637 -0.17341 0.23105
-0.028405 0.012723 0.012792 -0.0096291
-0.003797 0.0032786 -0.00035499 0.003354 0.00071901 0.0038234 -0.028393 0.012768
-0.19778 0.099051 -0.017764 0.017431
0.0039784 0.0011747 0.00089651 0.0056782 -0.0017713 0.001249 0.01278 -0.0096489
-0.017776 0.017427 -0.24352 0.15353
860000000 -0.12352 0.24773 -0.017697 0.031852 -0.0034847 -0.0096046 -0.0026416 0.0015176
0.0049283 0.0050898 -0.0027057 -0.0030756
-0.017692 0.031828 -0.28844 0.29195 0.0083157 0.034001 0.00046943 0.0020223
0.004872 0.00025736 0.0033981 0.00016419
-0.0035119 -0.0095899 0.008432 0.033997 0.022021 0.31766 -0.00021067 -0.00037282
0.0029662 -0.0014977 0.001545 0.0044073
-0.0026292 0.0015223 0.0004693 0.0020244 -0.0002101 -0.00037087 -0.13772 0.24305
-0.017728 0.018495 -0.0063977 -0.0093038
0.0049681 0.0050828 0.0048778 0.00024551 0.0029717 -0.0015088 -0.017716 0.01853
-0.14822 0.14666 -0.023953 0.015116
-0.002732 -0.0030556 0.0033832 0.00014726 0.0015505 0.0044169 -0.0064051 -0.0093046
-0.023941 0.01511 -0.19232 0.19493
920000000 -0.098345 0.27221 0.0048305 0.038547 -0.0092324 -0.0038432 -0.0015685 0.0026287
0.0016128 0.0013964 0.0021826 -0.0012381
0.0048173 0.038517 -0.25922 0.31225 0.028162 0.021459 0.0017779 0.00091429
0.0065526 -0.00078488 0.0038315 -0.0029405
-0.0092508 -0.0038136 0.028263 0.021384 0.068463 0.31776 0.0017794 -0.00023837
0.0012866 -0.00043018 0.00086517 -0.0011705
-0.0015628 0.002631 0.0017725 0.00092523 0.0017772 -0.00023085 -0.11337 0.25935
-0.010532 0.029498 0.0024385 -0.0062254
0.0016318 0.0013753 0.0065642 -0.00080606 0.0012837 -0.00043792 -0.010481 0.029538
-0.13789 0.15373 -0.0027128 0.026498
0.0021874 -0.001246 0.0038203 -0.0029514 0.00085891 -0.0011647 0.0024319 -0.0062247
-0.0027081 0.026498 -0.19847 0.21017
980000000 -0.050939 0.29198 0.018095 0.030482 -0.0084851 0.0048316 0.0027298 0.0037997
0.0041245 -0.0019513 -0.0031108 -0.0021565
0.018064 0.030478 -0.20633 0.3455 0.032751 0.0042719 0.0019798 -0.00018183
0.001139 -0.006197 -0.00060579 -0.0023455
-0.0084871 0.0048553 0.032809 0.0041698 0.11475 0.31073 0.00038024 -0.0012705
-1.2642e-05 -0.0021688 0.0016396 -0.00019348
0.0027488 0.0037877 0.0019633 -0.00018412 0.00038141 -0.0012677 -0.075388 0.27078
0.0072825 0.027967 -0.009641 -0.0063346
0.0041092 -0.0019809 0.0010887 -0.0062026 -2.1203e-05 -0.002183 0.0073322 0.027975
-0.10683 0.17933 0.0051118 0.017963
-0.0031046 -0.0021402 -0.00062535 -0.0023617 0.0016434 -0.00019814 -0.0096484 -0.0063223
0.0051203 0.017955 -0.1554 0.25385
1040000000 -0.0077303 0.3008 0.033527 0.017998 -0.00079228 0.0068394 0.003036 0.00064698
-9.3092e-05 -0.0039814 -0.00057109 -0.0013099
0.033511 0.018008 -0.17063 0.35839 0.02873 -0.014973 0.0014274 -0.0017078
-0.0025598 -0.0022227 -0.001432 -0.0026603
-0.00078008 0.0068398 0.028719 -0.015101 0.16084 0.29658 -0.00055824 -0.0013336
-0.0016452 -0.00075235 -0.00054336 -0.0012051
0.0030509 0.00063208 0.0014072 -0.0016985 -0.00056291 -0.0013401 -0.047534 0.28097
0.017723 0.016538 -0.0030691 0.0023693
-0.000112 -0.0039918 -0.0025843 -0.0021872 -0.0016423 -0.000756 0.017759 0.016527
-0.076862 0.18883 0.013192 0.017314
-0.00057122 -0.0013077 -0.0014738 -0.0026679 -0.0005506 -0.0012019 -0.0030658 0.0023659
0.013184 0.017291 -0.13363 0.27463
1100000000 0.038095 0.30832 0.03579 -0.004403 0.0031571 0.0035686 0.002669 -0.0016813
-0.00229 -0.0030437 -0.0037398 0.00025764
0.035767 -0.0043817 -0.12723 0.37495 0.014554 -0.027585 -4.5231e-05 -0.0017716
-0.00302 -0.00033262 -0.0035154 -0.00042704
0.0031621 0.0035594 0.014467 -0.027669 0.20699 0.27584 -0.0017982 0.00034323
-0.0015817 0.00064468 -0.00097792 -0.00031363
0.0026674 -0.0016908 -5.3977e-05 -0.0017751 -0.0018067 0.00034311 -0.0069688 0.28565
0.021874 0.0047932 -0.0022205 0.0013078
-0.002308 -0.0030326 -0.0030244 -0.00030624 -0.0015834 0.0006443 0.02188 0.0047633
-0.058671 0.20192 0.018239 0.0082229
-0.0037384 0.00027608 -0.0035322 -0.00041246 -0.00098342 -0.00030558 -0.0022209 0.0013096
0.018239 0.008207 -0.086731 0.3034
1160000000 0.089879 0.30314 0.023943 -0.020742 0.0027339 -0.00077889 -0.00014585 -0.0027993
-0.0041571 -6.7462e-05 -0.00080488 0.003979
0.023954 -0.020701 -0.083199 0.37869 -0.0040416 -0.028587 -0.0018029 -0.0015274
-0.0022213 0.0026796 -0.0012807 0.0016039
0.0027225 -0.00078741 -0.0041609 -0.028604 0.24978 0.24473 -0.0005362 0.0016969
-0.00035664 0.0017931 -0.00095483 0.00013643
-0.00015067 -0.0027889 -0.001822 -0.0015114 -0.00053674 0.0017009 0.032533 0.28278
0.018301 -0.0094635 -0.0026001 0.0059294
-0.0041532 -5.0001e-05 -0.0022184 0.0027089 -0.00034557 0.0017842 0.018296 -0.0094762
-0.025489 0.21156 0.01686 0.00026176
-0.00079084 0.0040012 -0.0012866 0.0016039 -0.00096176 0.0001422 -0.0026035 0.0059369
0.016848 0.00024497 -0.039814 0.30602
1220000000 0.1347 0.29155 0.010295 -0.029687 -0.0016044 -0.0010441 -0.00044609 -0.0012685
-0.0023598 0.0027126 0.001389 0.0017652
0.01031 -0.029644 -0.039279 0.38998 -0.016806 -0.020541 -0.0024762 0.00051643
0.00036607 0.0027358 -0.00064029 0.0017253
-0.001616 -0.0010321 -0.016905 -0.02049 0.2887 0.20552 0.00091978 0.0015002
0.00061074 0.0010696 0.00028675 0.00074146
-0.00043842 -0.0012676 -0.002491 0.00052561 0.00092407 0.0014998 0.072251 0.27397
0.0085878 -0.014613 0.0031109 0.0018073
-0.0023431 0.0027131 0.00037974 0.0027378 0.00061108 0.0010727 0.0085857 -0.014622
-0.0016556 0.22141 0.01291 -0.011946
0.0013944 0.0017713 -0.00062863 0.0017243 0.0002891 0.00074097 0.0030959 0.0018133
0.01289 -0.011954 -0.0075023 0.32214
1280000000 0.18431 0.26922 -0.0075892 -0.028009 -0.0019036 0.0023433 -0.0013619 -0.0018258
-0.00030909 0.0030728 0.0024337 0.00090275
-0.0075665 -0.027992 0.0063504 0.38073 -0.023275 -0.0081546 -0.00094716 0.001504
0.0015708 0.0014447 0.00047052 0.0020172
-0.0018961 0.0023556 -0.023339 -0.008059 0.31921 0.16147 0.0013135 -0.00019076
0.00090683 0.00010286 0.00032335 0.00047054
-0.0013691 -0.0018198 -0.00093657 0.0014964 0.001313 -0.00018864 0.10851 0.25789
0.00033204 -0.015968 0.00078835 2.3873e-05
-0.00029137 0.003072 0.0015836 0.0014297 0.00090639 0.00010416 0.00031756 -0.015972
0.035815 0.22536 0.002647 -0.014058
0.0024394 0.00089194 0.00047852 0.0020213 0.00032606 0.00047142 0.0007804 3.964e-05
0.0026202 -0.014063 0.039984 0.32313
1340000000 0.22176 0.2354 -0.017183 -0.018818 0.00067687 0.0041979 -0.0019587 -0.00042082
0.0016462 0.0022786 0.0015125 -0.0014906
-0.017153 -0.018811 0.045626 0.37208 -0.021114 0.0042442 -2.5777e-05 0.0018854
0.0015938 0.00057927 0.001327 0.00081541
0.00068682 0.0041945 -0.021111 0.0043466 0.34121 0.11348 0.0008739 -0.00084633
0.00052903 -0.00032242 0.0003339 0.00019196
-0.001964 -0.00041585 -1.1262e-05 0.0018921 0.0008737 -0.00084693 0.14161 0.23794
-0.0071613 -0.013068 0.0015895 -0.00021438
0.0016566 0.0022698 0.001604 0.00057397 0.00052759 -0.00032328 -0.0071869 -0.013068
0.066832 0.22083 -0.0033375 -0.012191
0.0015132 -0.0014969 0.0013302 0.00081001 0.00033591 0.00019201 0.0015981 -0.00019226
-0.0033624 -0.012179 0.079197 0.31806
1400000000 0.25515 0.19711 -0.022718 -0.0076454 0.0048552 0.0030551 -0.0018044 0.00092113
0.0023832 0.00039857 0.00011088 -0.0012837
-0.022691 -0.007653 0.082394 0.35891 -0.014471 0.012145 0.0013617 0.0012244
0.00081978 -0.0007629 0.0012357 0.00030934
0.0048649 0.0030288 -0.014443 0.012234 0.35422 0.059615 5.043e-05 -0.0013219
5.0881e-05 -0.00028424 0.00037739 0.00018341
-0.0018024 0.00092479 0.0013678 0.001218 4.6618e-05 -0.0013148 0.17165 0.20952
-0.011593 -0.0074828 -0.00050318 -0.0010336
0.0023873 0.00039219 0.00081912 -0.00076949 4.7583e-05 -0.00028453 -0.011621 -0.007468
0.10085 0.21565 -0.0092468 -0.0078769
0.00010571 -0.0012811 0.0012296 0.00029632 0.00037895 0.00018458 -0.00049341 -0.0010296
-0.0092573 -0.0078536 0.12365 0.30674
1460000000 0.27903 0.15288 -0.020043 0.0040868 0.0052566 -0.0016621 -0.0012343 0.0016843
0.0016413 -0.00085289 -0.00033511 -0.00081528
-0.02003 0.0040789 0.11644 0.33706 -0.0060944 0.01487 0.0016696 8.4901e-05
0.00077484 -0.0009534 0.0012141 -0.00062735
0.0052513 -0.0016839 -0.0060282 0.014901 0.35999 0.004821 -0.0009952 -0.0011467
0.00028459 -9.2837e-05 0.00064209 -0.00042292
-0.0012251 0.0016863 0.0016687 9.0686e-05 -0.00098382 -0.001155 0.19897 0.18042
-0.011945 -0.0024132 -0.0011654 0.0011175
0.0016464 -0.00085781 0.00076731 -0.00096106 0.0002829 -8.7163e-05 -0.011961 -0.0023859
0.13146 0.20027 -0.010576 -0.0025501
-0.0003456 -0.00082125 0.0012142 -0.00065365 0.00063574 -0.00042558 -0.0011469 0.0011111
-0.010567 -0.0025054 0.15714 0.28485
1520000000 0.29217 0.10983 -0.01468 0.0096323 0.0029579 -0.0038555 0.00020772 0.0022612
0.0013772 -0.0015565 -0.0011422 -0.00017825
-0.014679 0.0096194 0.14985 0.32207 0.0013369 0.012859 0.0015547 -0.00082811
0.00020399 -0.00082595 0.00026991 -0.0010655
0.0029415 -0.0038697 0.0014063 0.012868 0.35275 -0.051499 -0.00078824 -0.0003855
0.00055475 -0.00072328 -1.383e-05 -7.5594e-05
0.00022419 0.0022664 0.0015503 -0.00083506 -0.00078895 -0.00039295 0.22318 0.14174
-0.011338 0.0014948 0.00073682 0.0014888
0.0013676 -0.0015675 0.00020064 -0.00082603 0.00055158 -0.00072641 -0.011347 0.0015242
0.1604 0.18457 -0.010609 0.0013446
-0.0011487 -0.00016918 0.00026423 -0.0010664 -1.4618e-05 -7.6958e-05 0.00073748 0.0014639
-0.010586 0.0013863 0.19018 0.26408
1580000000 0.30204 0.061585 -0.0084308 0.012701 -0.0009237 -0.00449 0.0012215 0.0015859
-0.00054216 -0.0017244 -0.00033358 0.00028198
-0.0084419 0.012689 0.17702 0.29726 0.0049435 0.0081663 0.00039781 -0.0015726
-0.00021794 -0.0010757 -0.00031984 -0.00092055
-0.00093864 -0.0044829 0.0049892 0.0081443 0.33221 -0.10928 -0.0014626 0.00034719
-0.00029981 -0.0011224 0.00016073 -0.00056408
0.0012312 0.0015819 0.00038989 -0.0015765 -0.0014625 0.00033806 0.23808 0.10123
-0.0090659 0.0050191 0.0015142 0.00062227
-0.00055489 -0.0017249 -0.00021937 -0.0010809 -0.00030056 -0.0011237 -0.0090546 0.0050552
0.18508 0.16515 -0.0084984 0.0065383
-0.00033263 0.00029115 -0.00031656 -0.00091895 0.00016011 -0.00056908 0.0015173 0.00059724
-0.0084615 0.0065396 0.22197 0.23706
1640000000 0.30368 0.017477 -0.0020638 0.012018 -0.0025833 -0.0021852 0.0022917 0.0010753
-0.00066071 -0.00078168 -0.00038562 0.00067442
-0.0020775 0.012008 0.20646 0.2719 0.005611 0.0035807 -0.00072357 -0.0015905
-0.00093306 -0.00065001 -0.00058448 -0.00063649
-0.0026037 -0.0021707 0.0056466 0.0035479 0.30352 -0.15827 -0.00094547 0.0012428
-0.0010258 -0.00083599 -5.3707e-05 -0.00023083
0.002308 0.0010655 -0.00073401 -0.0015876 -0.00094326 0.0012399 0.25059 0.050646
-0.0062457 0.0057767 0.0019253 -0.00051566
-0.00066692 -0.00078062 -0.00094004 -0.00064166 -0.0010293 -0.0008254 -0.0062302 0.0057973
0.20844 0.13879 -0.004251 0.008493
-0.00037419 0.00067714 -0.00059022 -0.00062778 -5.4278e-05 -0.00023585 0.0019076 -0.00052688
-0.0042241 0.008485 0.24778 0.20538
1700000000 0.29428 -0.030062 0.0013878 0.0095246 -0.0031512 0.00026729 0.0028272 -0.00080645
-0.0014829 -0.00038353 0.00049041 0.00053167
0.0013791 0.0095176 0.2244 0.24014 0.0037652 0.00076722 -0.001358 -0.00053468
-0.0009033 -0.00010651 -0.0009706 -0.00038231
-0.0031511 0.00027696 0.0037687 0.00075087 0.25978 -0.198 0.00022345 0.0016731
-0.0017548 -0.00021194 -0.00055561 -0.00093746
0.0028241 -0.00081909 -0.0013641 -0.00052672 0.0002171 0.0016806 0.24661 -0.0010512
-0.0047972 0.0063415 0.0012288 -0.0017813
-0.0014867 -0.00037621 -0.00091014 -9.4175e-05 -0.0017573 -0.00021096 -0.004784 0.0063545
0.22562 0.1161 0.00018009 0.0088881
0.00050422 0.00052673 -0.00098198 -0.00037376 -0.00056732 -0.00094005 0.0012166 -0.0017874
0.00020104 0.0088619 0.26375 0.17035
1760000000 0.27924 -0.08014 0.0037706 0.0065859 -0.001922 0.00072293 0.0015838 -0.0031091
-0.00080673 0.00056247 0.00053865 -0.00035494
0.0037648 0.0065815 0.25014 0.19987 0.0015894 -0.00094648 -0.001086 0.00024441
-0.0013517 0.00091165 -0.0005784 0.00056014
-0.0019303 0.00073698 0.0015855 -0.00095114 0.21033 -0.23102 0.0011167 0.0015274
-0.0011474 0.0013671 -0.001274 -0.00045716
0.001561 -0.0031171 -0.0010882 0.00024903 0.0011233 0.0015314 0.23562 -0.053756
-0.0025903 0.0062122 -0.00045802 -0.0020429
-0.0008067 0.00057191 -0.0013407 0.00092928 -0.0011563 0.0013769 -0.0025668 0.0062183
0.24027 0.078379 0.0037391 0.0062456
0.00053352 -0.00037076 -0.00057284 0.00056789 -0.001283 -0.0004557 -0.0004758 -0.0020351
0.0037387 0.0062141 0.27603 0.13212
1820000000 0.251 -0.1173 0.004269 0.0031712 8.3676e-05 0.0021419 -0.00066343 -0.0030651
-0.00078065 0.00036181 0.000266 -9.7383e-05
0.0042613 0.0031723 0.25957 0.1694 -0.00015127 0.00012583 -0.0013392 0.00085552
-0.00019014 0.001601 -0.00044408 0.00058362
9.231e-05 0.0021371 -0.00014779 0.00012564 0.16057 -0.24622 0.0017129 0.00052453
-0.00033058 0.002218 -0.0013025 0.00053234
-0.00067624 -0.0030746 -0.0013332 0.00086662 0.0017058 0.0005155 0.20304 -0.10118
-0.0017752 0.0052665 -0.0015897 -0.0010913
-0.00077282 0.00036414 -0.00018272 0.001613 -0.00034358 0.0022095 -0.0017667 0.0052691
0.2556 0.046183 0.004561 0.0028736
0.00025687 -0.00010211 -0.00043185 0.00059384 -0.0012941 0.00054587 -0.0015938 -0.0010877
0.0045585 0.002836 0.27783 0.095595
1880000000 0.21276 -0.15591 0.0022488 0.00098511 -0.00040548 0.0018647 -0.0028854 -0.0024796
-0.00058756 0.0012915 0.00050434 -0.00080998
0.0022437 0.00097827 0.26349 0.12276 -0.0020638 0.0017084 -0.00015416 0.0017143
0.00077354 0.0015912 0.00031806 0.00095407
-0.00039511 0.0018651 -0.0020506 0.0017271 0.10853 -0.25536 0.0020373 -0.0011209
0.0014801 0.0020394 -0.00089374 0.0014655
-0.0029119 -0.0024702 -0.00013226 0.0017189 0.0020429 -0.0011162 0.16051 -0.13988
-0.0016684 0.0043517 -0.0022566 0.00080762
-0.00057299 0.0012969 0.00079354 0.0015933 0.0014843 0.0020343 -0.0016555 0.0043621
0.25583 0.010507 0.0039363 0.00092593
0.00049255 -0.00081313 0.00032776 0.00095511 -0.00088081 0.0014759 -0.0022555 0.0008197
0.0039133 0.00091231 0.27701 0.061559
1940000000 0.17146 -0.17895 0.0003657 -0.00069864 0.001113 0.0017135 -0.0040133 0.00033965
0.00093268 0.0010846 -0.00075629 -0.00079429
0.00036489 -0.00070144 0.26329 0.090872 -0.0010424 0.0037745 0.0010083 0.0012607
0.0022914 0.00049209 0.00089237 0.00019514
0.001121 0.0017103 -0.001024 0.0037837 0.062418 -0.24922 0.00033778 -0.0025857
0.0025428 0.00049989 0.00042882 0.0015687
-0.0040051 0.00036629 0.0010222 0.0012533 0.00034175 -0.0025893 0.10684 -0.16792
-0.0027642 0.0045231 -0.0010378 0.0020794
0.00094826 0.0010725 0.0023009 0.0004789 0.0025443 0.00049416 -0.002759 0.0045298
0.25373 -0.030539 0.0027527 -0.0018285
-0.00076188 -0.00078157 0.00089509 0.00018602 0.00043915 0.0015679 -0.0010327 0.0020822
0.0027264 -0.0018291 0.26577 0.025417
2000000000 0.12457 -0.19015 -0.0032155 0.0012159 0.00237 0.0016871 -0.0025157 0.0036952
0.0010082 0.00057665 -0.0011158 0.00048834
-0.0032107 0.0012138 0.24844 0.055631 -0.00086332 0.0055436 0.0016427 0.00017157
0.0017334 -0.0018501 0.00045278 3.1443e-05
0.0023792 0.0016707 -0.00082389 0.0055538 0.018872 -0.23486 -0.0017346 -0.0014926
0.0019933 -0.0013982 0.0016436 0.0012793
-0.0024905 0.003705 0.0016411 0.00015255 -0.0017336 -0.0014994 0.053907 -0.1754
-0.0037782 0.0054996 0.00026002 0.0022282
0.0010041 0.00056219 0.0017157 -0.0018734 0.001984 -0.001412 -0.0037636 0.0055027
