!Keysight Technologies,M9804A,MY58100912,A.14.10.03
!Date: Thursday, April 27, 2023 10:28:33
!Correction: S11(C  6-Port  ) 
!S12(C  6-Port  ) 
!S13(C  6-Port  ) 
!S14(C  6-Port  ) 
!S15(C  6-Port  ) 
!S16(C  6-Port  ) 
!S21(C  6-Port  ) 
!S22(C  6-Port  ) 
!S23(C  6-Port  ) 
!S24(C  6-Port  ) 
!S25(C  6-Port  ) 
!S26(C  6-Port  ) 
!S31(C  6-Port  ) 
!S32(C  6-Port  ) 
!S33(C  6-Port  ) 
!S34(C  6-Port  ) 
!S35(C  6-Port  ) 
!S36(C  6-Port  ) 
!S41(C  6-Port  ) 
!S42(C  6-Port  ) 
!S43(C  6-Port  ) 
!S44(C  6-Port  ) 
!S45(C  6-Port  ) 
!S46(C  6-Port  ) 
!S51(C  6-Port  ) 
!S52(C  6-Port  ) 
!S53(C  6-Port  ) 
!S54(C  6-Port  ) 
!S55(C  6-Port  ) 
!S56(C  6-Port  ) 
!S61(C  6-Port  ) 
!S62(C  6-Port  ) 
!S63(C  6-Port  ) 
!S64(C  6-Port  ) 
!S65(C  6-Port  ) 
!S66(C  6-Port  ) 
!S6P File: Measurement: :
# Hz S  RI   R 50
500000000 -0.33225 -0.027985 -0.0079436 -0.0042968 -0.0078151 0.01046 -0.0033712 0.011648
0.012354 0.0043237 -0.0037359 0.0079351
-0.0082345 -0.0043142 -0.41847 -0.047644 0.0075004 -0.011922 0.0013487 0.011255
0.0082377 0.0020431 0.00090763 0.012203
-0.0077263 0.010498 0.0073987 -0.01208 -0.26374 0.21196 0.0071163 0.0029895
0.00063365 0.0077868 0.00077272 0.011719
-0.0034807 0.01188 0.0013667 0.011066 0.0070868 0.0029958 -0.3258 0.050301
-0.017728 -0.0050293 0.017002 0.024518
0.012435 0.0042288 0.0081697 0.0022759 0.00062166 0.0078045 -0.017754 -0.0049647
-0.22756 -0.17555 -0.025519 0.0049659
-0.0040523 0.0078846 0.00094804 0.012165 0.00079258 0.011713 0.016966 0.024526
-0.025503 0.0049045 -0.27498 -0.12185
560000000 -0.30843 0.12693 -0.022872 -0.063982 -0.00050529 0.011981 0.0069991 0.0092948
0.011943 0.0027766 0.0091485 0.0068454
-0.023013 -0.063701 -0.3756 0.10958 -0.041522 -0.036554 0.014298 0.0035772
-0.013118 -0.0052312 0.0048903 -0.001161
-0.00049204 0.012027 -0.042086 -0.036416 -0.1823 0.25875 -0.0011196 -0.005018
0.018327 0.0036589 0.0075236 -0.0061559
0.007073 0.0094515 0.014235 0.003599 -0.0010988 -0.0050075 -0.30004 0.13669
0.0045152 -0.025913 0.0051301 -0.019275
0.011645 0.0026033 -0.013129 -0.0051729 0.01823 0.0037103 0.0045969 -0.025894
-0.28375 -0.0041325 0.0078783 -0.051087
0.0091477 0.0070031 0.0047502 -0.0011513 0.0075421 -0.0061764 0.0051253 -0.019342
0.0078777 -0.051129 -0.33162 0.025647
620000000 -0.26796 0.11044 -0.022769 0.00515 0.0029425 0.0081815 0.0067277 -0.0057423
0.010554 -0.0019059 0.00047786 -0.0016105
-0.022775 0.0050321 -0.40207 0.06376 -0.019299 -0.00056848 -0.0018894 -0.0021506
0.010041 -0.0075133 0.00072159 -0.002973
0.0030351 0.0081205 -0.019334 -0.00054046 -0.15264 0.26758 -0.0020518 -0.0047904
-0.0040961 -0.0036259 0.0077558 -0.0037137
0.0068814 -0.0055634 -0.0018935 -0.0021455 -0.0020961 -0.0048593 -0.25868 0.14636
-0.038232 -0.01923 0.014837 0.023564
0.010439 -0.0018632 0.0099637 -0.0075 -0.0040613 -0.0036555 -0.038126 -0.019324
-0.20374 -0.043654 -0.039508 0.013598
-4.7665e-05 -0.0024093 0.00071002 -0.0030469 0.0077098 -0.0035888 0.014712 0.023632
-0.0395 0.013516 -0.25094 -0.010183
680000000 -0.22722 0.18967 -0.028465 -0.01557 0.0046876 0.0052072 -5.2981e-05 -0.0080243
-0.0037248 -0.010539 0.0039423 -0.0071392
-0.028506 -0.015624 -0.38668 0.16034 -0.033148 -0.0010963 -0.0019828 -0.00038828
-0.0032512 -0.0083803 -0.00078351 -0.0024154
0.00468 0.0051765 -0.033162 -0.0010167 -0.10228 0.28748 -0.00072279 0.00038893
-0.0025693 0.0013248 -0.0031228 -0.0096292
-3.8894e-05 -0.0081956 -0.0019572 -0.00037948 -0.00073162 0.00038171 -0.21776 0.1949
-0.023773 -0.0096288 -0.010735 -0.0099921
-0.0038746 -0.010743 -0.0032358 -0.0084234 -0.0025646 0.0012997 -0.023772 -0.0096111
-0.24759 0.052112 -0.0050145 -0.010243
0.0038784 -0.0069869 -0.00082966 -0.002455 -0.0031533 -0.0095954 -0.010745 -0.010039
-0.0049978 -0.010281 -0.26204 0.091542
740000000 -0.18764 0.18464 -0.039324 0.025228 0.012449 -0.004928 -0.0010557 -0.0040708
-0.0046339 -0.0017867 -0.0061267 0.0034257
-0.039432 0.025126 -0.33575 0.17939 -0.034923 0.034963 -0.00078679 -0.0060836
-0.011286 0.0085377 -0.0023643 -0.0058426
0.012316 -0.004957 -0.034813 0.035063 -0.068992 0.28708 -0.0010456 0.003518
-0.0030288 -0.003729 -0.0010094 0.00070253
-0.0011158 -0.0040428 -0.00072369 -0.0061163 -0.0010604 0.0035251 -0.20128 0.20252
-0.042874 -0.0080777 0.022452 0.012206
-0.0045431 -0.0017374 -0.011362 0.008556 -0.0030798 -0.0037536 -0.042887 -0.0079833
-0.15665 0.072901 -0.042199 0.00061066
-0.0064555 0.0035154 -0.0024502 -0.0057036 -0.00097807 0.00072404 0.022438 0.012228
-0.042165 0.00057563 -0.25031 0.099443
800000000 -0.15838 0.22512 -0.024163 0.017326 0.0051256 -0.010354 -0.0050123 -0.0018646
-0.0040404 0.0037078 0.0045142 0.00095789
-0.024198 0.017248 -0.33749 0.24995 -0.0078906 0.034396 -0.0019414 0.0023482
-0.00013536 0.0037534 0.0012353 0.0052554
0.0050913 -0.010371 -0.0078119 0.034454 -0.027439 0.31051 0.0013546 0.0013748
0.00089461 0.003547 -0.0020899 0.0011683
-0.0050094 -0.0018719 -0.0019074 0.0023271 0.0013608 0.0013761 -0.1744 0.23046
-0.029166 0.012265 0.012536 -0.009562
-0.0040386 0.0035872 -7.8629e-05 0.0037315 0.00088198 0.0035514 -0.029171 0.012343
-0.19813 0.097848 -0.018075 0.017235
0.0044741 0.00079885 0.0012972 0.0052485 -0.0020945 0.0011833 0.012526 -0.0095757
-0.018077 0.017259 -0.24364 0.1525
860000000 -0.12447 0.24779 -0.018302 0.032204 -0.003687 -0.0096584 -0.002741 0.0017592
0.0047481 0.0050746 -0.0027096 -0.0032819
-0.018366 0.032108 -0.28949 0.29224 0.0082865 0.034358 0.00045512 0.0019952
0.0048283 -0.00041031 0.0032413 0.00018549
-0.0037077 -0.0096687 0.0083982 0.034338 0.02155 0.31844 -0.00032034 -0.00040684
0.0027263 -0.0016218 0.0015467 0.0044806
-0.0028011 0.0017821 0.00043249 0.0020269 -0.00031734 -0.00040002 -0.13909 0.24326
-0.01887 0.018977 -0.0062527 -0.0094535
0.0048045 0.0049174 0.0049119 -0.00040005 0.0027169 -0.0016286 -0.018815 0.018984
-0.15078 0.14571 -0.02389 0.015333
-0.0025901 -0.0031819 0.0032371 3.8618e-05 0.0015456 0.0044599 -0.0062396 -0.0094508
-0.023907 0.015304 -0.19255 0.19524
920000000 -0.099023 0.27267 0.0046218 0.039162 -0.0094225 -0.0037642 -0.0015419 0.0028157
0.0016541 0.0014172 0.0022655 -0.0013146
0.0046171 0.039162 -0.25976 0.31301 0.02845 0.021754 0.0017293 0.0010475
0.0066761 -0.00090326 0.0035442 -0.002655
-0.0093874 -0.0037423 0.028578 0.021708 0.068458 0.3186 0.0017154 -0.00011534
0.0012649 -0.00055896 0.00085364 -0.00089496
-0.0015114 0.0028443 0.0017286 0.0010651 0.0017223 -0.00011233 -0.11443 0.26002
-0.010803 0.030201 0.0021123 -0.0060278
0.0015854 0.0013497 0.0066966 -0.00094461 0.0012751 -0.00056129 -0.01075 0.030232
-0.14012 0.15291 -0.0023671 0.027252
0.0021758 -0.001379 0.0034838 -0.0027877 0.00083602 -0.00092606 0.002135 -0.0060355
-0.0023649 0.027245 -0.19885 0.21043
980000000 -0.051289 0.29298 0.018227 0.031152 -0.0084673 0.0050453 0.0028624 0.0038309
0.0039906 -0.001951 -0.0029173 -0.0018983
0.018156 0.031127 -0.20679 0.34639 0.033268 0.0043799 0.0019353 -0.00022632
0.00078905 -0.0059769 -0.00048579 -0.0022415
-0.0084382 0.0050416 0.033308 0.0042628 0.11495 0.31146 0.00038859 -0.0012017
-4.8372e-05 -0.0021332 0.0017017 -0.00010813
0.0028408 0.0038199 0.0019118 -0.00022699 0.0003839 -0.0011995 -0.076009 0.27211
0.0073031 0.028828 -0.0095279 -0.0064107
0.0039589 -0.0019176 0.0007314 -0.0059397 -7.1084e-06 -0.002109 0.0073633 0.028843
-0.10884 0.18007 0.0050807 0.018677
-0.0028445 -0.0018166 -0.00048902 -0.0022635 0.0017143 -0.00013823 -0.0095292 -0.0064
0.0050638 0.018675 -0.15577 0.25397
1040000000 -0.0075528 0.30149 0.03397 0.018287 -0.00068646 0.007029 0.0031875 0.00038122
-0.00030641 -0.0039086 -0.00046935 -0.0011684
0.033926 0.018339 -0.17063 0.35924 0.029135 -0.015275 0.0013785 -0.0017776
-0.002739 -0.0020605 -0.0013922 -0.0025162
-0.00066353 0.0070527 0.029096 -0.015394 0.16134 0.29715 -0.00054134 -0.0013409
-0.001517 -0.00076018 -0.00031972 -0.0012362
0.0031904 0.00043611 0.0013845 -0.0017329 -0.00054398 -0.0013342 -0.047602 0.28213
0.018152 0.017299 -0.0031465 0.0027259
-0.00033062 -0.0038842 -0.002795 -0.0020366 -0.0015151 -0.00074162 0.018201 0.017278
-0.077927 0.18968 0.013135 0.018037
-0.00045731 -0.0012547 -0.0014532 -0.0024814 -0.00032621 -0.0012606 -0.003154 0.0027198
0.01311 0.018046 -0.13348 0.27534
1100000000 0.03847 0.30886 0.036403 -0.0044051 0.0034335 0.0036182 0.0025687 -0.0018656
-0.0024096 -0.0028672 -0.0036316 0.00017872
0.036335 -0.0043355 -0.12699 0.37581 0.014641 -0.027933 -9.2184e-05 -0.0018066
-0.0029399 -0.00014556 -0.0033681 -0.00039599
0.00346 0.0036053 0.014566 -0.02801 0.20758 0.27616 -0.0017327 0.00034497
-0.0015673 0.00061203 -0.0009879 -0.00052041
0.0025631 -0.0018695 -8.6879e-05 -0.0017958 -0.0017415 0.00035575 -0.0063859 0.28685
0.022488 0.0050849 -0.0019201 0.0015386
-0.0024111 -0.0028699 -0.0029478 -0.00013723 -0.0015672 0.00061331 0.022508 0.0050531
-0.059366 0.20333 0.018351 0.0083688
-0.0036113 0.00019973 -0.0033887 -0.00039458 -0.00097153 -0.00050845 -0.001907 0.0015446
0.018349 0.008364 -0.086679 0.30405
1160000000 0.090354 0.30367 0.024246 -0.020937 0.0029822 -0.00096919 -0.00035995 -0.0029056
-0.0040492 -0.00010517 -0.00067228 0.0038957
0.024207 -0.020927 -0.082662 0.37942 -0.0040748 -0.028852 -0.0018106 -0.0015457
-0.0019884 0.0025379 -0.0013218 0.0015964
0.0029958 -0.00096386 -0.0042206 -0.028851 0.25049 0.24478 -0.00048625 0.0016526
-0.00034827 0.0016434 -0.0011812 6.307e-05
-0.00034994 -0.0028923 -0.0018188 -0.001528 -0.00050266 0.0016504 0.033678 0.28352
0.019011 -0.0094917 -0.0023032 0.0058591
-0.0040736 -6.9855e-05 -0.0019687 0.0025174 -0.00036176 0.0016465 0.019003 -0.009525
-0.025646 0.21343 0.017378 0.00036859
-0.00068966 0.0039571 -0.00129 0.0016377 -0.001191 5.6198e-05 -0.0022948 0.0058885
0.017381 0.00037434 -0.039978 0.30661
1220000000 0.13531 0.2917 0.010555 -0.0301 -0.0015287 -0.0014054 -0.00052331 -0.0011551
-0.0022395 0.0027032 0.0013657 0.0017294
0.010565 -0.030077 -0.038327 0.39054 -0.016997 -0.020699 -0.0024312 0.00055279
0.00043104 0.0025929 -0.00071396 0.0016993
-0.0015347 -0.0014344 -0.017119 -0.020652 0.2894 0.20531 0.0009001 0.0013987
0.00053629 0.0010785 0.0001454 0.00071288
-0.00054243 -0.0011235 -0.0024345 0.00056072 0.0009004 0.0013977 0.073467 0.2741
0.0090543 -0.014928 0.0034318 0.0016669
-0.0022313 0.0026847 0.00042275 0.0025836 0.00052484 0.0010671 0.0090369 -0.014956
-0.00094164 0.223 0.013291 -0.012076
0.0013613 0.0017655 -0.00069564 0.001677 0.00011312 0.00071459 0.0034292 0.0016693
0.013298 -0.012063 -0.0072849 0.32244
1280000000 0.18491 0.26934 -0.0076884 -0.028467 -0.0020889 0.0020886 -0.0013254 -0.0016965
-0.00029631 0.0029976 0.0024209 0.00079122
-0.0076475 -0.028433 0.0075227 0.38082 -0.023468 -0.008077 -0.00084779 0.0014637
0.0014521 0.0012816 0.00046942 0.0019882
-0.0020955 0.0020914 -0.023543 -0.0079808 0.31969 0.16101 0.0012258 -0.00026421
0.0008355 0.00018013 0.00032822 0.00045352
-0.0013167 -0.0016865 -0.00083312 0.0014667 0.0012251 -0.00026452 0.1097 0.2575
0.00051996 -0.016304 0.00096239 -0.00026599
-0.00026704 0.0030097 0.0014627 0.0012812 0.00084195 0.00016829 0.00049256 -0.016311
0.037023 0.2265 0.0028757 -0.014103
0.0023845 0.00081714 0.00046088 0.0020062 0.000319 0.00046956 0.00096137 -0.00025626
0.0028837 -0.0141 0.04003 0.32349
1340000000 0.22251 0.23519 -0.017398 -0.019131 0.00044376 0.0041326 -0.0018113 -0.00038751
0.0015726 0.0022398 0.0013723 -0.0014938
-0.017374 -0.019124 0.046746 0.37167 -0.021197 0.0043413 -1.4322e-05 0.0018141
0.0014726 0.00060199 0.0013148 0.00087352
0.00044534 0.0041241 -0.021209 0.0044559 0.34132 0.11294 0.00077561 -0.00078128
0.00046717 -0.00029821 0.00029703 0.00026557
-0.0018217 -0.00037899 -1.0792e-05 0.0018243 0.00077189 -0.00078267 0.1423 0.23693
-0.0071026 -0.013508 0.0015529 -0.00051019
0.0015726 0.0022071 0.0014853 0.00059364 0.00046732 -0.00030025 -0.0071395 -0.013496
0.068559 0.22097 -0.003361 -0.01239
0.0013496 -0.0014801 0.0013179 0.000861 0.00029426 0.00027011 0.0015523 -0.0005154
-0.0033501 -0.012386 0.079634 0.31825
1400000000 0.25566 0.19654 -0.023095 -0.0077736 0.0046426 0.0031552 -0.0017536 0.0008428
0.0022983 0.00035569 8.0556e-05 -0.0011803
-0.023063 -0.0077727 0.08322 0.35801 -0.014467 0.012198 0.0012695 0.0011682
0.00078207 -0.00067453 0.0011967 0.00033157
0.0046782 0.0031333 -0.014435 0.012291 0.35425 0.059225 6.3995e-05 -0.0012618
0.00010706 -0.00031356 0.00040694 0.00024478
-0.0017605 0.00086053 0.0012678 0.0011659 6.4251e-05 -0.0012647 0.17188 0.20847
-0.01177 -0.0078081 -0.00062582 -0.0012958
0.0022989 0.00035575 0.00078278 -0.00067586 8.9133e-05 -0.00030779 -0.011802 -0.0077768
0.10243 0.21508 -0.0094123 -0.0079487
4.5503e-05 -0.001197 0.001197 0.0003088 0.00039315 0.00025092 -0.000629 -0.0012938
-0.0094108 -0.0079474 0.12423 0.30672
1460000000 0.27929 0.15215 -0.020348 0.0041546 0.0052422 -0.0015359 -0.0012878 0.0015726
0.001584 -0.00086924 -0.00034531 -0.00072026
-0.02033 0.0041448 0.11677 0.33589 -0.0060403 0.014856 0.0016065 0.00012892
0.00085862 -0.00091597 0.0011536 -0.00064549
0.0052338 -0.0015535 -0.0059811 0.014919 0.3599 0.0045755 -0.00099313 -0.0011213
0.00025922 -0.00013088 0.00066838 -0.00040772
-0.0013004 0.0015831 0.001608 0.00011586 -0.00097884 -0.0011215 0.19877 0.17944
-0.012201 -0.0027004 -0.0013727 0.0010796
0.0015524 -0.00088464 0.00085238 -0.00092371 0.00026258 -0.00012857 -0.012219 -0.0026828
0.13267 0.19914 -0.010754 -0.0026823
-0.00036548 -0.00074349 0.0011583 -0.00065766 0.00066486 -0.00041635 -0.0013739 0.0010778
-0.010746 -0.0026871 0.15761 0.28496
1520000000 0.29214 0.10909 -0.014894 0.0098484 0.0029164 -0.0037354 0.00014762 0.0022469
0.0013539 -0.001491 -0.0010336 -0.00013434
-0.014875 0.0098306 0.14971 0.321 0.0013545 0.012844 0.0015051 -0.0007586
0.00021395 -0.0008417 0.00023131 -0.0010331
0.0029131 -0.0037332 0.0014225 0.012845 0.35265 -0.051897 -0.00077619 -0.00038291
0.00049706 -0.00074849 -5.5953e-06 -6.7271e-05
0.00015926 0.0022447 0.0015018 -0.00076439 -0.00078916 -0.00039127 0.22256 0.14107
-0.011713 0.0013501 0.00059302 0.0015859
0.0013477 -0.0015126 0.00020698 -0.00083929 0.00050029 -0.00075939 -0.011713 0.0013799
0.16072 0.1832 -0.010754 0.0014165
-0.0010466 -0.00012882 0.00023518 -0.0010492 -3.2541e-06 -6.9517e-05 0.00058434 0.0015809
-0.010745 0.001403 0.19076 0.26387
1580000000 0.30175 0.061148 -0.0084812 0.012982 -0.00094762 -0.0043809 0.0011392 0.0016323
-0.00050624 -0.001688 -0.0002906 0.00025751
-0.00848 0.012972 0.17645 0.29639 0.0049011 0.0081654 0.00043601 -0.0014723
-0.00027584 -0.00107 -0.00036352 -0.00085839
-0.00099864 -0.0043902 0.0049407 0.0081534 0.33184 -0.1095 -0.0014467 0.00034775
-0.00029034 -0.0010561 0.00012267 -0.00054131
0.0011225 0.0016224 0.0004283 -0.0014759 -0.00145 0.00035292 0.23723 0.1009
-0.0093828 0.0050695 0.0013703 0.00070959
-0.0005385 -0.0016952 -0.00028167 -0.0010689 -0.00029149 -0.001055 -0.0093718 0.0050947
0.18495 0.16398 -0.0086333 0.0065974
-0.00030024 0.0002707 -0.00038288 -0.00085281 0.00013379 -0.00054272 0.0013759 0.00070684
-0.0086345 0.0065879 0.22247 0.23664
1640000000 0.3032 0.017255 -0.0019784 0.012152 -0.0025096 -0.0021984 0.0022341 0.0011278
-0.00062131 -0.00084544 -0.00039554 0.00058564
-0.0019841 0.012138 0.20569 0.27132 0.0056015 0.0036146 -0.00067096 -0.0015536
-0.00094983 -0.00058627 -0.00056218 -0.00055266
-0.0025049 -0.0021897 0.0056242 0.0035851 0.30307 -0.1581 -0.00094634 0.0011812
-0.00095504 -0.0007467 -6.3479e-05 -0.00025194
0.0022495 0.0011153 -0.00068316 -0.0015508 -0.00095687 0.0011766 0.2497 0.050648
-0.0064711 0.0058983 0.0018666 -0.00043114
-0.00064268 -0.00084476 -0.00096196 -0.00057565 -0.00095542 -0.00074103 -0.006457 0.0059233
0.20783 0.13783 -0.0043165 0.0085384
-0.00039104 0.00059332 -0.00057027 -0.00055097 -7.6124e-05 -0.00025241 0.001871 -0.00045016
-0.0043194 0.0085374 0.24819 0.20489
1700000000 0.2939 -0.030112 0.0015173 0.0096439 -0.0030786 0.00032879 0.0028887 -0.00077336
-0.0014462 -0.0003901 0.00043124 0.0005222
0.0015045 0.0096212 0.22339 0.23996 0.0037982 0.00079282 -0.0012834 -0.00055163
-0.00088023 -2.7572e-05 -0.0008835 -0.0003448
-0.0030389 0.00032462 0.0038159 0.00078706 0.2597 -0.19769 0.00019326 0.0016075
-0.0016909 -0.00032479 -0.00054299 -0.00097168
0.0028989 -0.00077816 -0.0012907 -0.00055157 0.0001988 0.0015919 0.24579 -0.00056579
-0.0049856 0.0065103 0.0012494 -0.0016905
-0.0014498 -0.00035224 -0.00088574 -2.7961e-05 -0.0016944 -0.00032244 -0.0049724 0.0065165
0.22485 0.1155 0.00020167 0.0088724
0.00042756 0.00051345 -0.00088313 -0.00034388 -0.00052667 -0.00095879 0.0012447 -0.0016939
0.00020306 0.0088694 0.26394 0.16991
1760000000 0.27895 -0.079926 0.0038291 0.0066265 -0.0017756 0.00061423 0.0015836 -0.0030893
-0.00083328 0.00045473 0.00050002 -0.00023921
0.0038165 0.0066228 0.24919 0.20008 0.0016471 -0.0010393 -0.0011016 0.00014606
-0.0012253 0.00086838 -0.00055554 0.00054907
-0.0017957 0.0006537 0.0016377 -0.0010465 0.21073 -0.23117 0.0010601 0.0013895
-0.0010933 0.0011581 -0.0013326 -0.00036274
0.001566 -0.0030899 -0.0011104 0.00015323 0.0010572 0.0013933 0.23498 -0.052906
-0.0028078 0.0063659 -0.00040791 -0.0018493
-0.00084082 0.00048187 -0.0012149 0.00087178 -0.0010755 0.0011628 -0.0027881 0.0063643
0.23939 0.077875 0.0036569 0.0063265
0.00050745 -0.00023058 -0.00054133 0.00055377 -0.0013673 -0.00036599 -0.00041436 -0.001848
0.0036691 0.0063289 0.27609 0.1319
1820000000 0.25089 -0.11703 0.0043287 0.00324 0.00018174 0.0021125 -0.00061206 -0.0031277
-0.00076142 0.00035475 0.00026358 -0.00010229
0.0043254 0.0032204 0.25879 0.17002 -0.00016254 0.00019597 -0.0013484 0.00080889
-0.00011749 0.00153 -0.00043763 0.00049066
0.00020332 0.002142 -0.00016976 0.00020107 0.16044 -0.24593 0.0016714 0.00054252
-0.00046454 0.0021334 -0.0014042 0.00044765
-0.00062281 -0.0031118 -0.0013396 0.00081559 0.0016696 0.00055376 0.20304 -0.10006
-0.0018875 0.0055414 -0.0014096 -0.0010325
-0.00077235 0.00034897 -0.00010313 0.0015375 -0.00045871 0.0021386 -0.001869 0.00555
0.25477 0.045952 0.0044317 0.0029236
0.00026556 -0.0001209 -0.00043986 0.0004954 -0.0013923 0.00045256 -0.0014085 -0.001033
0.0044334 0.0029258 0.27776 0.095378
1880000000 0.21278 -0.15557 0.0023531 0.0010813 -0.00037937 0.001929 -0.0028308 -0.0025052
-0.00058873 0.0012664 0.00052963 -0.00082141
0.0023481 0.0010931 0.26311 0.12375 -0.0021048 0.0017659 -0.00021036 0.0016869
0.00075265 0.0014231 0.00025834 0.00093368
-0.00035781 0.0019159 -0.0020974 0.0017728 0.1082 -0.25565 0.0019989 -0.0010747
0.0013333 0.0020068 -0.00096231 0.0015216
-0.0028306 -0.002506 -0.00020378 0.0016823 0.0019967 -0.0010757 0.16104 -0.13881
-0.0016371 0.0048147 -0.0020824 0.00083177
-0.0005721 0.001258 0.0007606 0.0014287 0.0013556 0.0020081 -0.0016189 0.004819
0.25502 0.010723 0.003922 0.0010441
0.00057286 -0.00080255 0.00027708 0.00093833 -0.0009635 0.0014909 -0.002084 0.00083207
0.0039152 0.0010545 0.27704 0.061374
1940000000 0.17165 -0.17883 0.00053843 -0.00063219 0.0011866 0.0015572 -0.0040616 0.0004769
0.00091905 0.0011156 -0.00072508 -0.00099478
0.00051152 -0.00063821 0.2634 0.091973 -0.00094995 0.0039135 0.00097467 0.0013274
0.0021495 0.00040765 0.00088501 0.00019786
0.0011811 0.0015487 -0.00093765 0.0039288 0.062455 -0.24882 0.00022077 -0.0024665
0.0024895 0.000439 0.00032188 0.0016841
-0.0040595 0.00046819 0.00098303 0.0013256 0.00021495 -0.002479 0.1082 -0.16744
-0.0023135 0.004785 -0.0009831 0.0017477
0.00097011 0.0010948 0.0021624 0.00039112 0.0024922 0.00043617 -0.0022901 0.0047899
0.25306 -0.030283 0.0028335 -0.0018976
-0.00074561 -0.00095602 0.00088254 0.00017933 0.00035425 0.0016857 -0.00096138 0.0017524
0.0028299 -0.0018938 0.26571 0.025352
2000000000 0.12476 -0.19036 -0.0029153 0.0010363 0.0023994 0.0015327 -0.0024167 0.003724
0.0011061 0.00055122 -0.0010882 0.00040073
-0.0029217 0.0010258 0.24912 0.056476 -0.00062835 0.0055552 0.0016547 0.00027054
0.001553 -0.0017313 0.00043041 -3.3878e-06
0.0024228 0.001509 -0.0005911 0.0055436 0.018905 -0.23461 -0.0016694 -0.0013985
0.0020479 -0.0012993 0.0015999 0.0012268
-0.0023961 0.0037184 0.0016605 0.00026456 -0.0016801 -0.0013995 0.055242 -0.1754
-0.0031769 0.0058144 0.00028893 0.0021024
