!Keysight Technologies,M9804A,MY58100912,A.14.10.03
!Date: Thursday, April 27, 2023 10:28:33
!Correction: S11(C  6-Port  ) 
!S12(C  6-Port  ) 
!S13(C  6-Port  ) 
!S14(C  6-Port  ) 
!S15(C  6-Port  ) 
!S16(C  6-Port  ) 
!S21(C  6-Port  ) 
!S22(C  6-Port  ) 
!S23(C  6-Port  ) 
!S24(C  6-Port  ) 
!S25(C  6-Port  ) 
!S26(C  6-Port  ) 
!S31(C  6-Port  ) 
!S32(C  6-Port  ) 
!S33(C  6-Port  ) 
!S34(C  6-Port  ) 
!S35(C  6-Port  ) 
!S36(C  6-Port  ) 
!S41(C  6-Port  ) 
!S42(C  6-Port  ) 
!S43(C  6-Port  ) 
!S44(C  6-Port  ) 
!S45(C  6-Port  ) 
!S46(C  6-Port  ) 
!S51(C  6-Port  ) 
!S52(C  6-Port  ) 
!S53(C  6-Port  ) 
!S54(C  6-Port  ) 
!S55(C  6-Port  ) 
!S56(C  6-Port  ) 
!S61(C  6-Port  ) 
!S62(C  6-Port  ) 
!S63(C  6-Port  ) 
!S64(C  6-Port  ) 
!S65(C  6-Port  ) 
!S66(C  6-Port  ) 
!S6P File: Measurement: :
# Hz S  RI   R 50
500000000 -0.33326 -0.029796 -0.0086646 -0.0047645 -0.0079817 0.0111 -0.0035868 0.010941
0.01229 0.0043231 -0.0037832 0.0069354
-0.0086835 -0.0044796 -0.41831 -0.048625 0.0075761 -0.012009 0.0015275 0.010684
0.0076351 0.0029208 0.0013131 0.011978
-0.007969 0.011164 0.0076655 -0.012011 -0.26446 0.21166 0.0068653 0.0030185
0.0004837 0.0085652 0.00043966 0.011895
-0.0035456 0.011361 0.0015786 0.01063 0.0068606 0.0030035 -0.32572 0.049585
-0.018862 -0.005022 0.017987 0.024693
0.012457 0.0041513 0.0076348 0.0028182 0.00051545 0.0085782 -0.018856 -0.0050004
-0.22722 -0.17659 -0.026565 0.0049423
-0.0038334 0.0073559 0.0013256 0.01186 0.00045129 0.011907 0.017941 0.02465
-0.026573 0.0049296 -0.27374 -0.12268
560000000 -0.31015 0.12633 -0.023468 -0.063996 0.00019541 0.012705 0.0069896 0.0093723
0.012021 0.0035194 0.0092011 0.0074941
-0.023657 -0.063799 -0.3756 0.10968 -0.041914 -0.036566 0.013856 0.0037425
-0.012799 -0.0050329 0.0049363 -0.00040738
0.00010859 0.012342 -0.042159 -0.036787 -0.18267 0.25933 -0.00065402 -0.0048131
0.01875 0.0042653 0.0070187 -0.0062958
0.0069908 0.0091084 0.013899 0.0038729 -0.00070838 -0.0048069 -0.30064 0.13666
0.0045326 -0.025983 0.0055572 -0.019324
0.012108 0.0032776 -0.012961 -0.0049103 0.018744 0.0041542 0.0045162 -0.025981
-0.28478 -0.0043431 0.0079435 -0.050948
0.0090566 0.0071154 0.005205 -0.00053393 0.0070396 -0.0062121 0.0055341 -0.019344
0.0079875 -0.050964 -0.33192 0.025233
620000000 -0.26843 0.11021 -0.023149 0.0057856 0.0032905 0.0082904 0.0071518 -0.0061677
0.010754 -0.00082127 -0.00011419 -0.002165
-0.022952 0.0057471 -0.40246 0.063679 -0.019033 -0.00031526 -0.0015592 -0.0022906
0.010044 -0.0070169 0.00070849 -0.0030241
0.0032734 0.0083417 -0.019102 -0.00030825 -0.15242 0.26797 -0.001966 -0.0051617
-0.0037071 -0.0030866 0.0079036 -0.0036783
0.0068945 -0.0061119 -0.0016506 -0.0023922 -0.0019853 -0.0051707 -0.25925 0.14717
-0.038179 -0.019866 0.014864 0.024016
0.010877 -0.0010091 0.010012 -0.0069669 -0.0036905 -0.0030635 -0.038218 -0.019843
-0.20442 -0.042005 -0.039283 0.01331
-0.00017953 -0.002325 0.00070557 -0.0031444 0.0078932 -0.0036865 0.014911 0.024017
-0.039281 0.013291 -0.25076 -0.010952
680000000 -0.22827 0.19076 -0.028647 -0.015042 0.0048286 0.0053203 0.00028111 -0.0080999
-0.0036722 -0.01075 0.003828 -0.0067041
-0.028483 -0.015131 -0.38666 0.16039 -0.033022 -0.0010334 -0.0018375 -0.0005347
-0.0031327 -0.0086563 -0.0011409 -0.0025384
0.0048594 0.0052888 -0.033059 -0.00092826 -0.10188 0.28764 -0.00068361 0.00021867
-0.0024182 0.0010336 -0.0029765 -0.0096985
0.00021853 -0.0080944 -0.001864 -0.00053556 -0.0006851 0.00023108 -0.21757 0.19525
-0.023688 -0.0091811 -0.01138 -0.010079
-0.0037411 -0.010737 -0.0031493 -0.008659 -0.0024087 0.0010379 -0.023706 -0.0091706
-0.24818 0.053192 -0.0050853 -0.0098437
0.0043287 -0.0068893 -0.0012129 -0.0025366 -0.0030159 -0.0096822 -0.011423 -0.010063
-0.0050766 -0.0098443 -0.26196 0.092123
740000000 -0.18759 0.18558 -0.039388 0.025734 0.012713 -0.0049475 -0.0009542 -0.0040057
-0.0045464 -0.0021458 -0.0059357 0.0034998
-0.039171 0.025669 -0.33519 0.17915 -0.034743 0.035152 -0.0010097 -0.00632
-0.01148 0.0084263 -0.0029523 -0.0062753
0.01261 -0.0050106 -0.034696 0.035289 -0.068618 0.28693 -0.0011485 0.0035606
-0.0029052 -0.0036084 -0.00070854 0.00058735
-0.00079229 -0.0039961 -0.0010033 -0.006252 -0.001148 0.003563 -0.2013 0.20273
-0.043012 -0.0077379 0.022592 0.012461
-0.0046794 -0.0018356 -0.011472 0.0084004 -0.0029299 -0.0035743 -0.043047 -0.0076798
-0.15669 0.073951 -0.042417 0.00071994
-0.0059091 0.0036608 -0.002904 -0.0061778 -0.00072459 0.00058155 0.022604 0.012452
-0.042449 0.00069249 -0.25003 0.099414
800000000 -0.15742 0.22574 -0.02361 0.017331 0.0053117 -0.010461 -0.0048474 -0.0018832
-0.0040666 0.0032951 0.0045052 0.00080186
-0.023522 0.017426 -0.33726 0.24969 -0.0077479 0.034387 -0.0019508 0.0022635
-0.00034326 0.0037744 0.0011634 0.0051546
0.0052691 -0.010439 -0.0076641 0.034437 -0.027366 0.31005 0.0013413 0.001478
0.00083615 0.0035803 -0.0018222 0.00116
-0.0049077 -0.0017611 -0.0019839 0.0023085 0.0013444 0.0014706 -0.17396 0.23055
-0.028813 0.012578 0.013118 -0.0097934
-0.0038866 0.0033724 -0.00026601 0.0037948 0.00082821 0.0035923 -0.028823 0.012635
-0.19791 0.099117 -0.01776 0.017198
0.0043987 0.00086785 0.0010816 0.0051796 -0.0018011 0.0011428 0.013111 -0.0098083
-0.017754 0.017191 -0.24355 0.15238
860000000 -0.1237 0.24794 -0.017698 0.032062 -0.0034045 -0.0098935 -0.0024431 0.0016525
0.0047466 0.0051715 -0.002738 -0.0028196
-0.017767 0.032068 -0.28886 0.29159 0.0085793 0.034405 0.00055767 0.0021742
0.0049604 0.00022084 0.0034892 0.0004584
-0.0035181 -0.0098507 0.0086823 0.034394 0.021361 0.31809 -0.00027928 -0.00030804
0.0029331 -0.00152 0.0015477 0.004652
-0.0026258 0.0016114 0.00055351 0.0021668 -0.0002777 -0.00031299 -0.13862 0.24303
-0.017898 0.018992 -0.0062907 -0.00937
0.0047251 0.0052645 0.0050195 0.00025105 0.0029285 -0.001531 -0.017856 0.019024
-0.14971 0.1461 -0.024303 0.015603
-0.0028351 -0.0030823 0.0034446 0.00047956 0.0015786 0.0046581 -0.0062908 -0.0093429
-0.024297 0.015579 -0.19313 0.19448
920000000 -0.098713 0.27227 0.0048768 0.038684 -0.0094988 -0.0040637 -0.0015313 0.0026976
0.0014565 0.0014654 0.0023504 -0.0011859
0.0048439 0.038681 -0.26003 0.31225 0.028456 0.021639 0.0017004 0.00099051
0.0065801 -0.0010321 0.0037927 -0.0028334
-0.0095229 -0.0040179 0.028559 0.021564 0.06802 0.31837 0.001698 -0.00021864
0.001306 -0.00048698 0.00092874 -0.0011231
-0.0015418 0.002699 0.0017131 0.00097389 0.0017084 -0.00021343 -0.11434 0.25965
-0.010542 0.030169 0.0023966 -0.0062389
0.0014638 0.0013985 0.0066332 -0.001075 0.0012971 -0.00049415 -0.010495 0.030199
-0.1391 0.15311 -0.0023545 0.027147
0.0022713 -0.0011727 0.0037779 -0.0028664 0.00093165 -0.0011172 0.002396 -0.006245
-0.0023892 0.027137 -0.19912 0.20996
980000000 -0.051079 0.2922 0.018319 0.030833 -0.0087089 0.0049448 0.0028313 0.0037837
0.0040701 -0.001934 -0.0028723 -0.0018818
0.018202 0.030834 -0.20708 0.34574 0.033294 0.0043313 0.001991 -0.00015929
0.00087579 -0.006201 -0.00059713 -0.002253
-0.0087208 0.0049571 0.033318 0.0041964 0.11463 0.31151 0.0003425 -0.0012225
-0.00013279 -0.0021474 0.0016579 -2.8675e-05
0.0027156 0.0038111 0.0019978 -0.00017973 0.00033356 -0.0012204 -0.075838 0.27166
0.0074426 0.028831 -0.009453 -0.0063639
0.00404 -0.0018854 0.00082598 -0.0061933 -0.00014116 -0.0021535 0.007494 0.028823
-0.10826 0.17964 0.0050036 0.018565
-0.00304 -0.0019705 -0.00059765 -0.0022823 0.0016544 -2.354e-05 -0.0094551 -0.0063608
0.004989 0.01857 -0.15625 0.25338
1040000000 -0.0077597 0.3008 0.033957 0.018105 -0.00088691 0.0070625 0.003128 0.00057064
-3.7432e-05 -0.0037237 -0.00056199 -0.0012855
0.033934 0.01813 -0.17127 0.35873 0.029199 -0.015313 0.0013487 -0.0016563
-0.002759 -0.0020763 -0.0015443 -0.0026466
-0.00081566 0.0070782 0.029141 -0.015448 0.16108 0.29733 -0.00056324 -0.0013369
-0.0016047 -0.0006805 -0.00042529 -0.0011738
0.0031193 0.00054567 0.0013818 -0.0016883 -0.00055468 -0.0013339 -0.047849 0.28169
0.018629 0.017056 -0.0033396 0.0024083
-0.00012948 -0.0038386 -0.002784 -0.0020114 -0.001615 -0.0006919 0.018676 0.017006
-0.077378 0.18889 0.013372 0.017793
-0.00053514 -0.0012832 -0.0014932 -0.0026328 -0.00042872 -0.0011664 -0.0033336 0.0024299
0.013354 0.017816 -0.13442 0.27463
1100000000 0.038077 0.30825 0.036325 -0.0046061 0.0032874 0.0036482 0.0026465 -0.0017893
-0.0023157 -0.0030196 -0.0036072 0.00013904
0.036303 -0.0045452 -0.12772 0.37551 0.014662 -0.028153 -9.0115e-05 -0.0018348
-0.0031397 -0.00016473 -0.0033965 -0.00048634
0.0032923 0.0036481 0.014553 -0.02825 0.20766 0.27638 -0.0017888 0.00033459
-0.0016366 0.00073167 -0.00092646 -0.00048679
0.0026354 -0.001825 -7.1741e-05 -0.0018334 -0.0017873 0.00033818 -0.0067688 0.28647
0.022658 0.0045585 -0.0020777 0.0013391
-0.002271 -0.0029891 -0.0031451 -0.00011358 -0.0016439 0.0007335 0.022676 0.0045242
-0.05946 0.20215 0.018492 0.0083118
-0.0036949 7.313e-05 -0.0033572 -0.00046919 -0.00094576 -0.00046704 -0.0020881 0.0013449
0.018472 0.008316 -0.086866 0.30379
1160000000 0.089728 0.30308 0.024259 -0.021254 0.0028868 -0.00083345 -0.00015003 -0.0028035
-0.0041918 -0.00011457 -0.00072233 0.0039646
0.024268 -0.02119 -0.083388 0.37959 -0.0042997 -0.029025 -0.0018716 -0.0015072
-0.0021623 0.0026561 -0.0013444 0.0015952
0.0028881 -0.00083477 -0.0044444 -0.029056 0.25068 0.24475 -0.00045292 0.0017454
-0.0002924 0.0017418 -0.0011083 9.1317e-05
-0.00017939 -0.0027737 -0.0018657 -0.0015198 -0.00045068 0.0017449 0.033108 0.2834
0.018776 -0.010168 -0.0024642 0.0059409
-0.0041244 -9.5188e-05 -0.0021456 0.0026806 -0.00029059 0.0017348 0.018767 -0.010192
-0.02634 0.21224 0.017324 4.8948e-05
-0.00069648 0.0038835 -0.001328 0.0016697 -0.0010968 9.4136e-05 -0.0024522 0.0059446
0.017313 4.7959e-05 -0.040457 0.30653
1220000000 0.13455 0.29161 0.010336 -0.030401 -0.0015953 -0.0011918 -0.00046343 -0.0012142
-0.0024264 0.0027332 0.0013389 0.0018251
0.010346 -0.030362 -0.038913 0.39081 -0.017295 -0.020704 -0.0024949 0.00058432
0.00047779 0.0027291 -0.00063035 0.001722
-0.0015839 -0.0011972 -0.017396 -0.020657 0.28941 0.20496 0.00099852 0.0014453
0.00062625 0.0010547 0.00014438 0.00069443
-0.00046067 -0.0012071 -0.0024965 0.00058911 0.001003 0.0014532 0.073046 0.27423
0.0086059 -0.015559 0.0031857 0.0017598
-0.0024214 0.0027135 0.00048885 0.0027227 0.00063185 0.0010537 0.0085924 -0.015563
-0.0020476 0.22236 0.01314 -0.01236
0.0013466 0.0017458 -0.00062616 0.0017406 0.0001521 0.00069819 0.0031797 0.0017567
0.013124 -0.012356 -0.0079381 0.32233
1280000000 0.18425 0.26932 -0.0080366 -0.028662 -0.0019584 0.0022951 -0.0013187 -0.001829
-0.00032258 0.0031175 0.0024448 0.00084862
-0.0080171 -0.028635 0.0072235 0.38127 -0.023716 -0.007952 -0.0008727 0.0014725
0.0016472 0.0013285 0.00049423 0.0018803
-0.0019583 0.0022988 -0.023777 -0.0078603 0.3194 0.16065 0.0012648 -0.00030975
0.00091544 4.8831e-05 0.00026343 0.00049567
-0.0013212 -0.0018193 -0.00087129 0.0014979 0.0012632 -0.00031414 0.10941 0.25768
-0.00030768 -0.016654 0.00092707 -9.9076e-05
-0.00030971 0.0031325 0.0016571 0.0013294 0.00091499 5.293e-05 -0.00033839 -0.01666
0.035741 0.22618 0.0026129 -0.014231
0.0024667 0.00084109 0.00049656 0.0018802 0.00025427 0.00050476 0.00093953 -0.00011355
0.002627 -0.014238 0.039746 0.32345
1340000000 0.22194 0.23547 -0.017879 -0.019005 0.00061515 0.0042647 -0.0019816 -0.00044972
0.0015991 0.0023885 0.0014896 -0.0015532
-0.017832 -0.019007 0.04663 0.37197 -0.021319 0.0046411 2.9194e-05 0.0018325
0.0015899 0.00052262 0.0013419 0.00073142
0.0006331 0.0042729 -0.021323 0.0047411 0.34092 0.1127 0.00079042 -0.00090653
0.00052774 -0.00036013 0.00029828 0.00027003
-0.002006 -0.00043691 4.6541e-05 0.0018269 0.00078225 -0.00090271 0.14208 0.23719
-0.0080967 -0.013323 0.0015101 -0.00032478
0.0015876 0.0023539 0.0016014 0.00050643 0.00052882 -0.00036454 -0.0081253 -0.01331
0.067524 0.22136 -0.0037278 -0.012485
0.0014411 -0.0014893 0.0013599 0.00073358 0.00030208 0.00027191 0.0015104 -0.00031438
-0.0037163 -0.012486 0.078975 0.31833
1400000000 0.2553 0.19688 -0.023464 -0.0074076 0.0048455 0.0031278 -0.001887 0.00089061
0.0024025 0.00038669 3.4089e-05 -0.0012496
-0.023434 -0.0074188 0.083285 0.35818 -0.014423 0.012548 0.001302 0.0011082
0.00073938 -0.00084417 0.0011894 0.00024852
0.0048659 0.0031181 -0.014377 0.012621 0.35355 0.059198 -3.7651e-05 -0.0013833
4.4488e-05 -0.00034935 0.00039198 0.0002442
-0.0018769 0.00087521 0.0013 0.0011117 -3.4291e-05 -0.001377 0.17175 0.20866
-0.012591 -0.0070248 -0.00046451 -0.0011288
0.0023961 0.00036341 0.00074251 -0.00083671 4.5272e-05 -0.0003533 -0.012624 -0.0069961
0.10171 0.21603 -0.0097041 -0.0078111
6.4981e-05 -0.0012618 0.0011798 0.00024766 0.0003993 0.000232 -0.00047565 -0.0011322
-0.0096982 -0.0078187 0.12387 0.30685
1460000000 0.27892 0.1523 -0.020462 0.0047022 0.0053254 -0.0016068 -0.0013064 0.001713
0.001701 -0.00091299 -0.00036033 -0.00072984
-0.020425 0.0046454 0.11685 0.33585 -0.0058366 0.015067 0.001548 9.6092e-05
0.00064939 -0.00095037 0.0011236 -0.00067159
0.0053006 -0.0016345 -0.0057696 0.015112 0.35925 0.0047858 -0.0010596 -0.00107
0.00019971 -0.00013366 0.00071366 -0.00042615
-0.0012974 0.0017146 0.0015494 8.9991e-05 -0.0010696 -0.0010536 0.19867 0.17952
-0.012454 -0.0015719 -0.0012238 0.0011467
0.0016882 -0.00091733 0.00066571 -0.00094648 0.00021332 -0.00012996 -0.012461 -0.0015533
0.13226 0.20019 -0.010943 -0.0024987
-0.00036514 -0.00079521 0.0010874 -0.00068193 0.00070496 -0.00043844 -0.0012285 0.001163
-0.010925 -0.0025071 0.15708 0.28519
1520000000 0.29164 0.10921 -0.01473 0.010324 0.0030263 -0.0038649 0.00025899 0.0023389
0.0013621 -0.001638 -0.0010555 -8.4432e-05
-0.014718 0.010299 0.14967 0.32082 0.0016038 0.01286 0.0014861 -0.0007288
0.00011901 -0.000748 0.00021357 -0.00099607
0.0030121 -0.0038864 0.0016846 0.012867 0.35213 -0.051264 -0.00081596 -0.00027305
0.00049839 -0.00078519 -1.7896e-05 -1.1409e-05
0.00027006 0.0023452 0.0014825 -0.00074093 -0.00080977 -0.00027592 0.22247 0.14113
-0.011222 0.0025934 0.00083358 0.0014641
0.0013278 -0.0016368 0.00010104 -0.0007458 0.00049594 -0.00078447 -0.011219 0.0026185
0.1609 0.1842 -0.010776 0.0017354
-0.0010279 -8.0149e-05 0.00023242 -0.001019 -1.9397e-05 -6.0196e-06 0.00082168 0.0014651
-0.010769 0.0017307 0.19037 0.26392
1580000000 0.301 0.061249 -0.0081147 0.01328 -0.00087653 -0.0045587 0.0012736 0.0015852
-0.00067357 -0.0017656 -0.00025791 0.00036906
-0.0081157 0.013256 0.17625 0.29607 0.0051517 0.0080652 0.000466 -0.0014605
-0.00024153 -0.00093718 -0.00030636 -0.00082204
-0.00089964 -0.0045563 0.0052022 0.0080368 0.33175 -0.10875 -0.0013667 0.00045078
-0.00025471 -0.0010236 0.00017254 -0.00059379
0.0012823 0.0015852 0.00046332 -0.0014625 -0.0013671 0.00045456 0.23704 0.10089
-0.0082878 0.005799 0.0015253 0.00056696
-0.0006453 -0.0017483 -0.00025277 -0.00094035 -0.00025879 -0.0010322 -0.0082746 0.0058203
0.1854 0.16463 -0.0084987 0.0068719
-0.00027877 0.00035971 -0.00030156 -0.00080583 0.0001676 -0.00059209 0.0015258 0.00055959
-0.0084961 0.0068626 0.22214 0.2369
1640000000 0.30244 0.017784 -0.0015268 0.01225 -0.0025946 -0.0022952 0.0022892 0.00098832
-0.00074693 -0.00080115 -0.00032785 0.00063694
-0.0015314 0.012244 0.20521 0.27112 0.0057148 0.0033657 -0.00067609 -0.0015757
-0.00084544 -0.00053675 -0.00055667 -0.00059165
-0.0026263 -0.0022977 0.005735 0.0033333 0.30343 -0.15756 -0.0008279 0.0011383
-0.00095145 -0.00074029 -3.585e-06 -0.00033302
0.002295 0.0010058 -0.00068349 -0.0015758 -0.00083579 0.0011348 0.2494 0.050854
-0.0052176 0.0058726 0.0019045 -0.00057033
-0.00072673 -0.0007497 -0.00084439 -0.00054608 -0.00095459 -0.00073806 -0.0052041 0.0058859
0.20831 0.13811 -0.0040069 0.0087329
-0.00035143 0.00063891 -0.00057312 -0.00057175 -1.1024e-05 -0.00033752 0.0019152 -0.00057647
-0.0040013 0.0087168 0.24768 0.20539
1700000000 0.29326 -0.029182 0.001885 0.0094419 -0.0031913 0.00012586 0.0027864 -0.00084664
-0.0015083 -0.00033272 0.00053473 0.00046006
0.0018847 0.0094363 0.22282 0.23989 0.0037392 0.00057727 -0.001336 -0.00058431
-0.00079374 -0.00015891 -0.00090871 -0.00033173
-0.0031936 0.00015923 0.0037463 0.00055657 0.26004 -0.19745 0.00019295 0.0015024
-0.0016796 -0.00031863 -0.00059533 -0.00099928
0.0027771 -0.00086372 -0.0013393 -0.00057752 0.00019352 0.0015042 0.24557 -0.00022752
-0.0040185 0.0058003 0.0013162 -0.0017999
-0.0015114 -0.00032035 -0.00080336 -0.00015216 -0.0016814 -0.00031818 -0.0040178 0.005809
0.22527 0.11538 0.00049643 0.009036
0.00053449 0.00044989 -0.00090673 -0.00032242 -0.00059497 -0.0010075 0.0013086 -0.0018168
0.00049694 0.0090385 0.26389 0.17033
1760000000 0.27865 -0.078808 0.0040939 0.0063072 -0.0020226 0.00074221 0.001466 -0.0031441
-0.00078909 0.0005659 0.0004364 -0.00035505
0.0040804 0.0063077 0.24854 0.2003 0.0014656 -0.0010802 -0.0010806 0.00014975
-0.0012237 0.00077646 -0.00054439 0.0005236
-0.0020423 0.00076784 0.0014703 -0.0010829 0.21075 -0.23075 0.0010365 0.0013801
-0.0011024 0.0012548 -0.0013979 -0.00033154
0.0014086 -0.0031634 -0.0010961 0.00016442 0.0010292 0.0013632 0.23487 -0.052421
-0.0024384 0.0052943 -0.00056636 -0.0019267
-0.00080515 0.00052607 -0.0012307 0.00077823 -0.001093 0.0012478 -0.0024263 0.0053127
0.23961 0.077623 0.0038484 0.0062095
0.00041437 -0.00035943 -0.00054719 0.00054274 -0.0013902 -0.00033109 -0.00055428 -0.0019335
0.0038691 0.0062127 0.27615 0.13242
1820000000 0.25102 -0.11578 0.0043591 0.0029186 2.3708e-05 0.0022297 -0.00075266 -0.0030442
-0.00070118 0.00032384 0.00011594 -5.4651e-05
0.0043482 0.0029118 0.25824 0.17042 -0.00030831 0.0001153 -0.0013451 0.00081925
-0.00025625 0.0014411 -0.0003968 0.00055523
5.4308e-05 0.0022202 -0.00029798 0.00012606 0.16097 -0.24609 0.0015644 0.00053517
-0.00044366 0.0020191 -0.0012946 0.0005999
-0.00076549 -0.0030591 -0.0013565 0.00081219 0.0015581 0.00054524 0.20329 -0.099615
-0.0020514 0.0045411 -0.0017027 -0.0011345
-0.00071832 0.00033499 -0.00022964 0.0014373 -0.0004401 0.0020277 -0.0020498 0.0045496
0.25474 0.045769 0.0045999 0.0026315
0.00015454 -0.00010376 -0.00042171 0.00051918 -0.0012944 0.00059895 -0.0017065 -0.0011292
0.0046034 0.002631 0.27773 0.095919
1880000000 0.21341 -0.15447 0.0022655 0.00083196 -0.00028853 0.0019383 -0.0028827 -0.0023961
-0.0005147 0.0012418 0.00049969 -0.00072078
0.0022608 0.00083195 0.26267 0.12426 -0.0021272 0.0018009 -0.00021274 0.0016927
0.00064445 0.0014887 0.00022998 0.0009292
-0.00033792 0.0019726 -0.0021247 0.001795 0.10889 -0.25544 0.0019809 -0.0010535
0.0013522 0.0020342 -0.00090702 0.0015184
-0.0028872 -0.0024122 -0.00018939 0.0017086 0.0019724 -0.001045 0.1614 -0.13868
-0.002154 0.0040438 -0.0022535 0.00085724
-0.00047314 0.0012197 0.00067263 0.0014883 0.0013539 0.0020244 -0.0021488 0.0040577
0.2549 0.010571 0.0040212 0.00069384
0.00053393 -0.00074311 0.00025315 0.00091022 -0.00090962 0.00152 -0.0022596 0.0008503
0.0040162 0.00068971 0.27723 0.061517
1940000000 0.17249 -0.17806 0.00040053 -0.00084538 0.0011492 0.0018141 -0.0039634 0.00044748
0.00090786 0.001091 -0.0006635 -0.00080925
0.00040165 -0.00083957 0.26317 0.092524 -0.0010196 0.0038966 0.00092032 0.0013452
0.0021148 0.00061358 0.00080521 0.00018849
0.0011478 0.0018091 -0.0010058 0.0038986 0.062724 -0.24935 0.00029648 -0.0025304
0.0024187 0.00058556 0.00034537 0.0014947
-0.003895 0.00043416 0.00092629 0.0013504 0.00029488 -0.0025334 0.1084 -0.16729
-0.0030765 0.0044313 -0.0011186 0.0019482
0.00095093 0.0011033 0.002145 0.00059057 0.0024349 0.00058628 -0.003066 0.0044438
0.25285 -0.030082 0.0027226 -0.0022412
-0.00058931 -0.00077027 0.00082396 0.00017689 0.00034488 0.0015208 -0.0011047 0.0019511
0.0027157 -0.0022316 0.26551 0.025261
2000000000 0.12583 -0.18979 -0.0031341 0.00096891 0.0023418 0.0016414 -0.0023636 0.0037552
0.0009549 0.00060759 -0.00089764 0.00033811
-0.0031302 0.00093999 0.24902 0.057048 -0.0008084 0.0055153 0.0016682 0.00027013
0.0016904 -0.0016413 0.00046129 0.00011986
0.0023355 0.0015975 -0.0007857 0.005525 0.018935 -0.23522 -0.0015436 -0.0014624
0.0021617 -0.0012866 0.0017229 0.0013389
-0.0023048 0.0037932 0.001667 0.00022823 -0.0015491 -0.0014729 0.055335 -0.17558
-0.0040536 0.0057497 0.00034613 0.0022143
