!Keysight Technologies,M9804A,MY58100912,A.14.10.03
!Date: Thursday, April 27, 2023 10:28:33
!Correction: S11(C  6-Port  ) 
!S12(C  6-Port  ) 
!S13(C  6-Port  ) 
!S14(C  6-Port  ) 
!S15(C  6-Port  ) 
!S16(C  6-Port  ) 
!S21(C  6-Port  ) 
!S22(C  6-Port  ) 
!S23(C  6-Port  ) 
!S24(C  6-Port  ) 
!S25(C  6-Port  ) 
!S26(C  6-Port  ) 
!S31(C  6-Port  ) 
!S32(C  6-Port  ) 
!S33(C  6-Port  ) 
!S34(C  6-Port  ) 
!S35(C  6-Port  ) 
!S36(C  6-Port  ) 
!S41(C  6-Port  ) 
!S42(C  6-Port  ) 
!S43(C  6-Port  ) 
!S44(C  6-Port  ) 
!S45(C  6-Port  ) 
!S46(C  6-Port  ) 
!S51(C  6-Port  ) 
!S52(C  6-Port  ) 
!S53(C  6-Port  ) 
!S54(C  6-Port  ) 
!S55(C  6-Port  ) 
!S56(C  6-Port  ) 
!S61(C  6-Port  ) 
!S62(C  6-Port  ) 
!S63(C  6-Port  ) 
!S64(C  6-Port  ) 
!S65(C  6-Port  ) 
!S66(C  6-Port  ) 
!S6P File: Measurement: :
# Hz S  RI   R 50
500000000 -0.33673 -0.032494 -0.0098773 -0.004282 -0.0081994 0.011691 -0.0038831 0.011565
0.011763 0.0047266 -0.0042477 0.0081977
-0.0098573 -0.0042877 -0.41952 -0.04863 0.0072813 -0.011524 0.0013643 0.010922
0.0076537 0.0030098 0.00091896 0.012009
-0.0081791 0.011668 0.0072656 -0.011529 -0.26521 0.21208 0.006751 0.0029272
0.00037476 0.0085418 0.00040369 0.011564
-0.0038635 0.011578 0.0013847 0.010933 0.00675 0.0029262 -0.3276 0.048738
-0.020461 -0.0049907 0.017354 0.02497
0.011753 0.0047012 0.0076671 0.0029837 0.00037847 0.0085346 -0.020452 -0.0049811
-0.22737 -0.1815 -0.0284 0.0043743
-0.0042238 0.0081931 0.00095985 0.012009 0.00042465 0.011564 0.017365 0.02495
-0.028401 0.0043748 -0.27229 -0.128
560000000 -0.31488 0.12606 -0.02484 -0.06315 0.00045706 0.012179 0.0063886 0.010285
0.011381 0.0040818 0.0093774 0.0078494
-0.024739 -0.063088 -0.37725 0.11064 -0.041958 -0.03674 0.014569 0.0038552
-0.013001 -0.0049752 0.0051143 -0.00045396
0.00048147 0.012167 -0.042064 -0.036643 -0.18259 0.26035 -0.001008 -0.0047081
0.01943 0.0042346 0.0068774 -0.0060872
0.0064088 0.010255 0.014542 0.0038513 -0.00099149 -0.0047088 -0.30198 0.1374
0.0033225 -0.024333 0.0051859 -0.019659
0.011386 0.0040646 -0.013024 -0.0049694 0.019441 0.0042251 0.0032967 -0.024334
-0.28626 -0.0077112 0.0067417 -0.05105
0.0094074 0.0078266 0.0051078 -0.00047323 0.0068818 -0.0060835 0.0051688 -0.01967
0.00676 -0.051041 -0.33269 0.020768
620000000 -0.27278 0.111 -0.023507 0.007249 0.0033641 0.0082383 0.0071424 -0.0056997
0.011046 -0.00032075 0.00084651 -0.0017625
-0.023465 0.0072353 -0.40273 0.064131 -0.018784 8.4897e-05 -0.001609 -0.0020641
0.010654 -0.0069626 0.00073969 -0.0026588
0.0034051 0.0081987 -0.018811 0.0001594 -0.15197 0.26943 -0.0020313 -0.0049525
-0.0028569 -0.0037515 0.0080829 -0.0036476
0.0071601 -0.0056934 -0.0016359 -0.0020573 -0.0020305 -0.0049531 -0.26004 0.14682
-0.039293 -0.018212 0.014638 0.024702
0.010998 -0.00033205 0.010649 -0.0070133 -0.0028589 -0.003768 -0.039303 -0.01818
-0.20616 -0.046387 -0.040457 0.013963
0.00080919 -0.0017271 0.00072229 -0.0026819 0.0080976 -0.003664 0.01466 0.024698
-0.040508 0.013947 -0.25145 -0.015862
680000000 -0.23192 0.19368 -0.027745 -0.013696 0.0050949 0.0051112 0.00075098 -0.0078211
-0.003161 -0.010893 0.0043446 -0.007579
-0.027713 -0.01369 -0.38666 0.16103 -0.032802 -0.000942 -0.0016304 -0.00066213
-0.002778 -0.0087862 -0.00068605 -0.0025315
0.0051188 0.005112 -0.032838 -0.00086391 -0.10137 0.28835 -0.00070227 -6.0789e-05
-0.0023647 0.00078826 -0.0027688 -0.0096567
0.00074858 -0.0078194 -0.0016355 -0.00065952 -0.00070621 -6.0392e-05 -0.21796 0.19616
-0.023585 -0.0078123 -0.011067 -0.0099998
-0.0031927 -0.010896 -0.0028042 -0.008799 -0.0023667 0.00078618 -0.023605 -0.0077845
-0.25165 0.052069 -0.0054559 -0.0088289
0.0043177 -0.007593 -0.00069337 -0.0025429 -0.0027753 -0.0096617 -0.011062 -0.0099994
-0.0054583 -0.0088324 -0.26321 0.089082
740000000 -0.18871 0.18941 -0.03794 0.026718 0.012852 -0.0052702 -0.00079112 -0.0041529
-0.0043278 -0.0026829 -0.0063734 0.0031055
-0.037909 0.026685 -0.3345 0.17941 -0.034495 0.035329 -0.00078561 -0.0065672
-0.011647 0.0086352 -0.0028736 -0.0061358
0.012833 -0.0053091 -0.034449 0.035461 -0.067861 0.28689 -0.0012665 0.0032766
-0.0030431 -0.0038817 -0.00087169 0.00041246
-0.00079433 -0.0041163 -0.00079881 -0.0065707 -0.0012666 0.003275 -0.20125 0.20376
-0.042529 -0.0071466 0.023264 0.012828
-0.0043409 -0.0026902 -0.011621 0.0087011 -0.0030501 -0.0038679 -0.042552 -0.0071057
-0.15638 0.073937 -0.04237 0.0021398
-0.0064091 0.003151 -0.0029127 -0.0061677 -0.00087212 0.00043656 0.023291 0.012828
-0.042349 0.0021149 -0.25115 0.095765
800000000 -0.15663 0.22916 -0.022042 0.017372 0.0053746 -0.010601 -0.0047637 -0.0019722
-0.0042299 0.0026372 0.0042762 0.00078821
-0.022041 0.017351 -0.33658 0.24944 -0.0074764 0.034093 -0.0020525 0.0021201
-0.00045047 0.0034799 0.0012691 0.0052642
0.0053548 -0.010601 -0.0073788 0.034137 -0.026595 0.30964 0.001145 0.0015585
0.00068488 0.0035182 -0.0018 0.0010156
-0.0047862 -0.0019583 -0.0020481 0.002128 0.0011438 0.0015645 -0.17347 0.23139
-0.028236 0.01306 0.013393 -0.0098451
-0.004216 0.0026423 -0.00045042 0.0034907 0.00069267 0.0035182 -0.028244 0.013113
-0.19865 0.099017 -0.017675 0.017737
0.0042681 0.00076641 0.0012907 0.0052698 -0.001814 0.0010187 0.013398 -0.0098591
-0.017686 0.017728 -0.24479 0.1501
860000000 -0.12163 0.25028 -0.016618 0.031251 -0.0032653 -0.0099888 -0.0024709 0.0011976
0.004177 0.0050257 -0.0027361 -0.0028332
-0.016633 0.031212 -0.28861 0.29114 0.008502 0.034112 0.00024511 0.0020354
0.0043961 0.0002495 0.0033866 0.00024521
-0.0032949 -0.009976 0.0086122 0.034113 0.021678 0.31743 -0.00031595 -0.00023885
0.0027193 -0.0016141 0.0016957 0.0043192
-0.0024774 0.0011909 0.00025943 0.0020322 -0.00031473 -0.00024125 -0.13801 0.24303
-0.017367 0.01852 -0.0059064 -0.0092574
0.0041914 0.0050173 0.0044013 0.00022362 0.0027296 -0.0016239 -0.017355 0.01856
-0.14956 0.1465 -0.023359 0.015724
-0.0027521 -0.0028358 0.0033861 0.00023467 0.0016989 0.0043187 -0.0059083 -0.0092524
-0.023349 0.015708 -0.19412 0.19308
920000000 -0.096531 0.27351 0.0055383 0.037736 -0.0095311 -0.0043652 -0.0017156 0.0023084
0.0011976 0.0016753 0.002686 -0.0012167
0.0054976 0.037695 -0.25991 0.31184 0.028231 0.02143 0.001677 0.0011744
0.0068617 -0.00087456 0.0038036 -0.0027512
-0.0095473 -0.0043305 0.028323 0.021355 0.06804 0.31784 0.0017666 -0.00014272
0.0013179 -0.00057692 0.0007406 -0.0011165
-0.0017125 0.0023143 0.0016842 0.0011815 0.0017672 -0.0001424 -0.11331 0.25946
-0.0099205 0.029927 0.0028485 -0.0065175
0.0012236 0.0016846 0.0068707 -0.0009307 0.0013216 -0.00057967 -0.0098573 0.029955
-0.13891 0.15272 -0.00155 0.027411
0.0026872 -0.0012393 0.0037943 -0.0027615 0.00074078 -0.0011168 0.002833 -0.0065142
-0.0015671 0.027401 -0.20103 0.20719
980000000 -0.048778 0.29259 0.01824 0.029659 -0.008921 0.0047206 0.0024257 0.0036602
0.0040523 -0.0016735 -0.002875 -0.0020889
0.018197 0.029624 -0.20709 0.34523 0.03299 0.004289 0.0020332 -3.5275e-05
0.0010688 -0.0062272 -0.00048287 -0.0023976
-0.0089129 0.0047451 0.033059 0.0041741 0.11447 0.3111 0.00036291 -0.001158
-6.0777e-05 -0.0021773 0.0014535 -0.00012467
0.0024372 0.0036438 0.0020422 -2.3289e-05 0.00036064 -0.0011615 -0.075134 0.27077
0.0080085 0.028179 -0.009416 -0.0067036
0.0040438 -0.001682 0.0010597 -0.0062499 -6.1978e-05 -0.0021837 0.0080697 0.028181
-0.10757 0.17936 0.0056597 0.018651
-0.0028677 -0.0020875 -0.00050173 -0.0023815 0.0014588 -0.00012958 -0.009411 -0.0066921
0.0056455 0.018648 -0.15802 0.25141
1040000000 -0.0058826 0.30072 0.03339 0.017285 -0.001234 0.0068772 0.0028783 0.00075243
0.00015822 -0.0036055 -0.00061432 -0.0014028
0.033307 0.01728 -0.17141 0.35813 0.028975 -0.015256 0.0014893 -0.0016861
-0.0026917 -0.0022634 -0.0015392 -0.0026654
-0.00122 0.006887 0.028968 -0.015404 0.16085 0.29705 -0.00056472 -0.0014213
-0.0016279 -0.00075442 -0.00048038 -0.00098901
0.002877 0.00074177 0.0015024 -0.0016817 -0.00055608 -0.0014135 -0.047572 0.28083
0.018715 0.016504 -0.0031928 0.0018238
0.00014068 -0.0036 -0.0026966 -0.0022732 -0.0016387 -0.00075517 0.018763 0.016474
-0.077014 0.18765 0.013895 0.017599
-0.00061326 -0.0014025 -0.0015558 -0.002635 -0.00048153 -0.00099476 -0.0031898 0.0018294
0.013882 0.017582 -0.13637 0.27265
1100000000 0.039841 0.30767 0.035713 -0.0051025 0.0028721 0.0037486 0.0025699 -0.0014682
-0.0020148 -0.0030255 -0.0039021 -1.3685e-05
0.035664 -0.0050804 -0.12794 0.37509 0.014557 -0.027974 2.2879e-05 -0.0018453
-0.0032834 -0.00030576 -0.0034958 -0.00045694
0.0028819 0.0037446 0.014472 -0.028062 0.20742 0.2762 -0.0018034 0.00032942
-0.0016744 0.00074555 -0.00094796 -0.00030585
0.0025754 -0.0014738 2.6647e-05 -0.001847 -0.0018096 0.0003335 -0.0069006 0.2855
0.022759 0.0041503 -0.0024745 0.00086557
-0.0020259 -0.0030093 -0.0032929 -0.00030081 -0.0016741 0.00074458 0.022778 0.0041097
-0.058737 0.20028 0.018806 0.0080271
-0.0039083 -7.8989e-06 -0.0034995 -0.00043559 -0.00094495 -0.00030256 -0.0024615 0.00087247
0.018792 0.0080317 -0.089696 0.3021
1160000000 0.091458 0.30213 0.023411 -0.021368 0.0025821 -0.00049414 -6.5529e-06 -0.0025083
-0.0041455 -0.00041229 -0.00094188 0.0040585
0.023381 -0.021352 -0.083953 0.3793 -0.0043337 -0.028901 -0.0018382 -0.0016301
-0.0023572 0.002822 -0.0012751 0.0016216
0.0025609 -0.0004965 -0.0044376 -0.02892 0.25049 0.24463 -0.0005181 0.001743
-0.00020307 0.0018946 -0.0010197 0.00015261
-7.3611e-06 -0.0025103 -0.0018284 -0.001615 -0.0005185 0.0017444 0.032488 0.28261
0.018817 -0.010667 -0.0029715 0.0056291
-0.0041484 -0.00039504 -0.0023388 0.0028157 -0.00018831 0.0018915 0.01881 -0.010692
-0.025996 0.20967 0.017535 -7.2381e-05
-0.00090383 0.0040612 -0.0012861 0.0016322 -0.001024 0.00015816 -0.0029663 0.0056388
0.017521 -7.2745e-05 -0.042766 0.30527
1220000000 0.13602 0.29021 0.0095354 -0.030206 -0.0016151 -0.00067862 -9.3396e-05 -0.0011607
-0.0026025 0.0025774 0.001334 0.0019194
0.0095443 -0.030175 -0.039538 0.39077 -0.017184 -0.020686 -0.0025221 0.00049909
0.00040697 0.0029238 -0.00058375 0.0017822
-0.0016283 -0.00067924 -0.017286 -0.020642 0.28923 0.20489 0.00098938 0.0015456
0.00069942 0.0010539 0.00032507 0.00065091
-0.00010026 -0.0011653 -0.0025189 0.00051656 0.00099304 0.0015487 0.072279 0.27379
0.008422 -0.015983 0.0026232 0.0018345
-0.002598 0.0025862 0.00043355 0.0029245 0.00070875 0.0010556 0.0083962 -0.015998
-0.0026812 0.21957 0.013147 -0.012859
0.0013516 0.0019278 -0.00057759 0.0017869 0.00033029 0.00065033 0.0026256 0.0018348
0.013138 -0.012858 -0.010496 0.32155
1280000000 0.18555 0.26742 -0.0086947 -0.028183 -0.0017923 0.002618 -0.0011316 -0.0020972
-0.00056145 0.0032126 0.002598 0.0010077
-0.0086726 -0.028156 0.0065558 0.38141 -0.023678 -0.0079968 -0.00092251 0.0015091
0.0018402 0.0015403 0.00057505 0.0019548
-0.0017945 0.0026187 -0.023738 -0.0078974 0.31915 0.16065 0.0014291 -0.00025701
0.00098481 -2.782e-06 0.00029091 0.00037895
-0.0011335 -0.0020914 -0.0009276 0.0015212 0.0014247 -0.00025409 0.10869 0.25754
-0.00069712 -0.017072 0.0005787 0.00034067
-0.00054498 0.003219 0.0018513 0.0015279 0.00098858 -7.5576e-06 -0.00072957 -0.017082
0.034141 0.22358 0.0023571 -0.014778
0.0026079 0.00099702 0.00058049 0.0019486 0.00029192 0.00038044 0.00057777 0.00033598
0.0023561 -0.014765 0.037221 0.32298
1340000000 0.22242 0.23281 -0.018222 -0.018295 0.0010059 0.0044314 -0.0020361 -0.0007443
0.0015049 0.0025826 0.0016568 -0.0015479
-0.018194 -0.018288 0.046167 0.37238 -0.02136 0.0046142 1.7522e-05 0.0019166
0.0018104 0.00045973 0.0013589 0.00079871
0.0010232 0.0044105 -0.021366 0.0047259 0.34067 0.11264 0.00090608 -0.00097717
0.00054238 -0.00044253 0.00022079 0.00019293
-0.0020344 -0.0007349 2.9216e-05 0.0019059 0.00090522 -0.00097854 0.1415 0.23723
-0.0086357 -0.013572 0.0014155 0.00018239
0.0015177 0.0025769 0.001816 0.00044835 0.0005485 -0.00044442 -0.0086609 -0.013568
0.065143 0.21937 -0.0041821 -0.012971
0.0016456 -0.0015583 0.0013705 0.0007894 0.00022051 0.00018926 0.0014037 0.00017758
-0.0041721 -0.012981 0.076447 0.31814
1400000000 0.25496 0.19393 -0.023482 -0.0066465 0.005237 0.0030977 -0.0021345 0.0008082
0.0025517 0.00065894 0.00013497 -0.0014038
-0.023443 -0.0066598 0.083007 0.35879 -0.01446 0.012561 0.0013589 0.0011397
0.00082501 -0.00096506 0.0011496 0.00022978
0.0052503 0.0030791 -0.014426 0.012651 0.3532 0.059222 -6.4508e-05 -0.0015007
-7.3916e-05 -0.00030841 0.0003088 0.00029206
-0.0021352 0.00080883 0.0013659 0.0011336 -6.5927e-05 -0.0015056 0.17132 0.20882
-0.013251 -0.0070095 -0.00034884 -0.000598
0.0025517 0.00064045 0.00082391 -0.00098042 -7.9116e-05 -0.00031087 -0.01327 -0.0069728
0.098742 0.21451 -0.010365 -0.0079387
0.00012363 -0.0014021 0.0011516 0.00021566 0.0003122 0.00029339 -0.00035006 -0.00060072
-0.010355 -0.0079486 0.1212 0.30682
1460000000 0.27722 0.14916 -0.020117 0.0053755 0.0055741 -0.0018252 -0.0014999 0.0018711
0.0020376 -0.00082783 -0.00039161 -0.00091465
-0.02011 0.0053598 0.11688 0.33645 -0.0057722 0.015167 0.0016159 8.489e-05
0.00059952 -0.0010993 0.0011263 -0.00062908
0.0055753 -0.0018469 -0.0057058 0.015215 0.35893 0.0050866 -0.0012259 -0.0011125
0.0002401 -0.00012181 0.00063317 -0.00035833
-0.0014988 0.0018759 0.0016218 8.1573e-05 -0.0012193 -0.0011169 0.1982 0.17967
-0.013137 -0.0012328 -0.00083129 0.0014996
0.0020299 -0.00084097 0.00059514 -0.0011111 0.00024146 -0.00012732 -0.013136 -0.0012109
0.12922 0.19967 -0.011517 -0.0023103
-0.0003908 -0.00091566 0.0011244 -0.00063867 0.00062748 -0.0003615 -0.00083865 0.0014969
-0.011508 -0.0023288 0.15425 0.2856
1520000000 0.28863 0.10696 -0.014177 0.010738 0.0032047 -0.0042174 0.00025715 0.0026291
0.001623 -0.0018236 -0.0011714 -7.827e-05
-0.014172 0.010719 0.14987 0.32135 0.0017037 0.012914 0.0015201 -0.00080355
-1.9764e-05 -0.00076874 0.0002763 -0.0009869
0.0031723 -0.0042343 0.0017811 0.012918 0.3522 -0.051013 -0.00091141 -0.00024683
0.00060031 -0.00082323 1.9179e-05 -0.00010528
0.00026677 0.0026242 0.0015196 -0.0008141 -0.00091211 -0.00025527 0.22209 0.14139
-0.011657 0.0032174 0.0012404 0.0016287
0.0016166 -0.0018305 -2.4447e-05 -0.00076881 0.00059878 -0.00082641 -0.011656 0.0032511
0.15792 0.18441 -0.011298 0.0021392
-0.0011747 -6.874e-05 0.00027588 -0.00099043 1.6944e-05 -0.00010557 0.0012498 0.0016192
-0.01129 0.0021378 0.18751 0.26509
1580000000 0.29717 0.060313 -0.0074492 0.013481 -0.00098665 -0.0049003 0.0015259 0.0017751
-0.00059159 -0.0020401 -0.00025503 0.0003939
-0.0074616 0.013471 0.17663 0.29647 0.0052412 0.0080665 0.00040863 -0.0014973
-0.00033708 -0.00080742 -0.00026919 -0.00084174
-0.001012 -0.0048935 0.0052953 0.0080501 0.33189 -0.10845 -0.0013374 0.00055947
-0.0002988 -0.0010281 0.00013749 -0.0005406
0.0015334 0.0017674 0.00039773 -0.0015061 -0.0013278 0.00056652 0.23666 0.10129
-0.0083959 0.0065358 0.0019578 0.00047233
-0.00060229 -0.0020394 -0.00033788 -0.00079924 -0.00030837 -0.0010268 -0.0083784 0.0065559
0.18266 0.16533 -0.0087329 0.0074791
-0.00025801 0.00039539 -0.00027499 -0.00085017 0.00013304 -0.00054214 0.0019613 0.00046974
-0.0087365 0.0074785 0.21961 0.23842
1640000000 0.29825 0.018631 -0.00086105 0.012095 -0.0028139 -0.0025495 0.0026119 0.00087123
-0.0009528 -0.0010119 -0.00027218 0.000661
-0.00087616 0.012087 0.20566 0.27135 0.0058438 0.0033583 -0.00069588 -0.0015718
-0.00077551 -0.00041964 -0.00052822 -0.00065642
-0.0028168 -0.0025377 0.0058749 0.0033286 0.30368 -0.15742 -0.00071567 0.0012402
-0.00106 -0.00080215 -9.1564e-05 -0.00037547
0.0026191 0.0008607 -0.00071037 -0.0015715 -0.00071543 0.0012375 0.24912 0.051395
-0.004966 0.0065738 0.0021541 -0.00086342
-0.00095408 -0.0010204 -0.00078249 -0.00041896 -0.001063 -0.00080171 -0.0049488 0.0065792
0.20584 0.1392 -0.003996 0.0093509
-0.00026586 0.00066668 -0.00053347 -0.00066258 -9.672e-05 -0.00037888 0.0021549 -0.00087437
-0.0040042 0.0093518 0.24557 0.20716
1700000000 0.28978 -0.026623 0.0024092 0.0090788 -0.0034829 7.7629e-05 0.0028654 -0.001201
-0.0017495 -0.00027873 0.00062872 0.00035562
0.0023956 0.0090694 0.22336 0.23998 0.0038419 0.00053798 -0.0013491 -0.00053112
-0.00067987 -0.00014656 -0.00093462 -0.00042957
-0.0034849 0.00010565 0.0038498 0.00050682 0.26024 -0.19748 0.00030645 0.0013935
-0.0017538 -0.00025644 -0.00064822 -0.00096176
0.0028657 -0.0012154 -0.0013507 -0.00053123 0.00030411 0.0013855 0.24557 0.00038525
-0.0034683 0.0063464 0.0012728 -0.0021121
-0.0017606 -0.00027106 -0.00068057 -0.00014193 -0.0017563 -0.00025256 -0.0034548 0.0063581
0.22299 0.11701 0.00069997 0.0094651
0.0006316 0.00035146 -0.00093243 -0.00042257 -0.00065468 -0.00096704 0.0012695 -0.0021159
0.00069192 0.0094713 0.262 0.17246
1760000000 0.27654 -0.074738 0.0044124 0.0057707 -0.0022541 0.00087491 0.0012164 -0.0033374
-0.00091376 0.00069015 0.00035726 -0.00044751
0.0043994 0.0057705 0.24905 0.20022 0.0015429 -0.0011614 -0.001066 0.00016855
-0.0011641 0.00066999 -0.00065684 0.00053299
-0.0022425 0.00088163 0.0015326 -0.0011746 0.21111 -0.23079 0.001001 0.0012483
-0.0011019 0.0012384 -0.0014725 -0.00041719
0.0012029 -0.0033514 -0.0010725 0.00017569 0.0010017 0.0012485 0.23522 -0.051792
-0.0016602 0.005629 -0.00064997 -0.002226
-0.00091432 0.00069741 -0.0011554 0.00068453 -0.0011041 0.0012407 -0.0016538 0.0056323
0.23766 0.079783 0.0043166 0.006466
0.0003538 -0.00045659 -0.00064844 0.00053451 -0.0014741 -0.00041508 -0.00065455 -0.0022273
0.0043163 0.0064669 0.27484 0.13457
1820000000 0.25093 -0.11146 0.0044335 0.0022484 -0.00013094 0.0024371 -0.0010329 -0.002973
-0.00069929 0.00050489 -2.2671e-05 -0.00011166
0.0044229 0.0022506 0.25878 0.1702 -0.00036349 7.2396e-06 -0.0013653 0.00077097
-0.0002903 0.0012414 -0.00053233 0.00054456
-0.00012187 0.0024344 -0.00036833 9.2905e-06 0.16072 -0.24647 0.0014375 0.00049129
-0.00042198 0.0020358 -0.0013561 0.00065693
-0.0010386 -0.0029698 -0.0013575 0.00077606 0.0014379 0.00048135 0.20381 -0.099339
-0.0011783 0.004425 -0.0017648 -0.0013521
-0.00068867 0.00050067 -0.00027505 0.0012427 -0.00041579 0.0020339 -0.0011745 0.004428
0.25334 0.048245 0.0051378 0.0028692
-2.5201e-05 -0.00010794 -0.00052715 0.00055125 -0.001344 0.00066074 -0.0017762 -0.0013525
0.0051336 0.0028624 0.27713 0.097997
1880000000 0.21512 -0.15047 0.0020811 0.00017848 -0.00031107 0.0021859 -0.0028954 -0.0021277
-0.00031724 0.0012543 0.0002784 -0.00055854
0.0020732 0.0001767 0.26308 0.12376 -0.0022033 0.0016815 -0.00026738 0.001662
0.00046328 0.0014074 0.00021589 0.00095921
-0.00030096 0.00219 -0.0022017 0.0017036 0.10884 -0.25577 0.0018668 -0.00092697
0.0013739 0.001999 -0.00088994 0.0015628
-0.0029074 -0.0021127 -0.00025509 0.0016684 0.0018696 -0.00092055 0.16201 -0.13858
-0.0014563 0.0035757 -0.0024294 0.00073357
-0.00031201 0.0012625 0.00047728 0.0014075 0.001376 0.0019941 -0.0014515 0.0035739
0.2541 0.013424 0.0046164 0.00072286
0.00027786 -0.00056591 0.00022925 0.00096581 -0.00088728 0.001565 -0.0024177 0.00074304
0.0046237 0.00071902 0.2769 0.063682
1940000000 0.17569 -0.17544 -0.00010972 -0.0014167 0.0013382 0.0020253 -0.0036946 0.00058439
0.0010064 0.00098738 -0.00064915 -0.00054758
-0.00011231 -0.0014093 0.26342 0.091957 -0.0010901 0.0038066 0.00091567 0.0013632
0.0019188 0.0007608 0.00088137 0.00029373
0.0013389 0.0020099 -0.0010654 0.0038221 0.062649 -0.24953 0.00040757 -0.0023418
0.0023964 0.00061472 0.00046294 0.0016222
-0.0036874 0.00059733 0.00092446 0.0013627 0.00041583 -0.0023353 0.10885 -0.16768
-0.0027154 0.003607 -0.0012423 0.0019067
0.0010078 0.00099279 0.0019294 0.00074923 0.002403 0.00060046 -0.0026934 0.0036207
0.25296 -0.027219 0.0031517 -0.0023992
-0.00065778 -0.00053734 0.00087916 0.00028834 0.00045832 0.0016174 -0.0012353 0.0019193
0.0031565 -0.0024001 0.26561 0.027429
2000000000 0.12965 -0.18889 -0.0038775 0.00068601 0.0024509 0.0015658 -0.0022272 0.0035652
0.00099018 0.00040864 -0.00058738 0.00041659
-0.0038817 0.00068498 0.24902 0.056445 -0.00091528 0.0055428 0.0017032 0.00033875
0.0017439 -0.0013659 0.00054053 0.00012139
0.0024607 0.0015575 -0.00087828 0.0055534 0.018764 -0.23523 -0.0013361 -0.0014787
0.0021435 -0.0011893 0.0017346 0.0012027
-0.0022097 0.0035726 0.0017066 0.00032269 -0.0013287 -0.0014729 0.055415 -0.1761
-0.0041664 0.0048196 0.00013773 0.0023519
