!Keysight Technologies,M9804A,MY58100912,A.14.10.03
!Date: Thursday, April 27, 2023 10:28:33
!Correction: S11(C  6-Port  ) 
!S12(C  6-Port  ) 
!S13(C  6-Port  ) 
!S14(C  6-Port  ) 
!S15(C  6-Port  ) 
!S16(C  6-Port  ) 
!S21(C  6-Port  ) 
!S22(C  6-Port  ) 
!S23(C  6-Port  ) 
!S24(C  6-Port  ) 
!S25(C  6-Port  ) 
!S26(C  6-Port  ) 
!S31(C  6-Port  ) 
!S32(C  6-Port  ) 
!S33(C  6-Port  ) 
!S34(C  6-Port  ) 
!S35(C  6-Port  ) 
!S36(C  6-Port  ) 
!S41(C  6-Port  ) 
!S42(C  6-Port  ) 
!S43(C  6-Port  ) 
!S44(C  6-Port  ) 
!S45(C  6-Port  ) 
!S46(C  6-Port  ) 
!S51(C  6-Port  ) 
!S52(C  6-Port  ) 
!S53(C  6-Port  ) 
!S54(C  6-Port  ) 
!S55(C  6-Port  ) 
!S56(C  6-Port  ) 
!S61(C  6-Port  ) 
!S62(C  6-Port  ) 
!S63(C  6-Port  ) 
!S64(C  6-Port  ) 
!S65(C  6-Port  ) 
!S66(C  6-Port  ) 
!S6P File: Measurement: :
# Hz S  RI   R 50
500000000 -0.33614 -0.032192 -0.0096167 -0.0041042 -0.0076869 0.011721 -0.0037362 0.011081
0.0122 0.0039561 -0.0038991 0.0071055
-0.0095999 -0.0041172 -0.41896 -0.048145 0.0074261 -0.011682 0.0014145 0.010847
0.0078196 0.0030534 0.0011766 0.012316
-0.0077771 0.011739 0.0074078 -0.011733 -0.26456 0.21208 0.0068191 0.0029459
0.00074061 0.00879 0.00055072 0.01194
-0.0036403 0.011112 0.0014766 0.010877 0.0068206 0.0029642 -0.32613 0.049793
-0.019016 -0.0050914 0.017795 0.025043
0.01219 0.0039819 0.0077846 0.0030485 0.0007324 0.0087709 -0.019035 -0.0050553
-0.2268 -0.17726 -0.026695 0.0046638
-0.0038742 0.0072544 0.0012033 0.012356 0.00051396 0.011972 0.017844 0.025017
-0.026685 0.0046794 -0.27343 -0.12348
560000000 -0.3133 0.12667 -0.024244 -0.062957 0.00041238 0.012233 0.006766 0.0097548
0.011401 0.0032482 0.0098925 0.0081399
-0.024186 -0.062945 -0.37555 0.1098 -0.042072 -0.036458 0.013962 0.003649
-0.013381 -0.0048644 0.0053302 -0.00050171
0.00041679 0.012343 -0.04216 -0.036323 -0.18216 0.25925 -0.00080428 -0.0047078
0.018884 0.003721 0.0071142 -0.0060305
0.0067687 0.0095838 0.013973 0.0035821 -0.00079453 -0.0047149 -0.30121 0.13692
0.0043165 -0.025758 0.0056898 -0.019903
0.011595 0.0031788 -0.013306 -0.0049378 0.018979 0.0037454 0.0042851 -0.025769
-0.28494 -0.0051674 0.008016 -0.050863
0.0097216 0.0080609 0.0052257 -0.00039888 0.007066 -0.0060956 0.0056801 -0.01989
0.0080032 -0.050814 -0.33192 0.02465
620000000 -0.27197 0.11048 -0.02317 0.0068281 0.0034431 0.0082145 0.006979 -0.006381
0.010741 -0.00037949 0.00039885 -0.002859
-0.023147 0.0068298 -0.40233 0.06433 -0.018973 -0.00023206 -0.0017038 -0.0023547
0.010407 -0.0069288 0.00069619 -0.0028377
0.0035379 0.0082484 -0.018986 -0.00017217 -0.15222 0.26838 -0.001898 -0.0052765
-0.00359 -0.0032719 0.0081737 -0.0037049
0.007058 -0.0063565 -0.0016955 -0.0023524 -0.0018998 -0.005278 -0.25909 0.14694
-0.038822 -0.019615 0.015288 0.023383
0.01076 -0.00046142 0.010381 -0.0069611 -0.003616 -0.0032667 -0.03884 -0.019587
-0.20323 -0.0427 -0.0396 0.013618
0.00044848 -0.0026739 0.00070549 -0.0028369 0.0081809 -0.0036902 0.015264 0.023348
-0.039582 0.013594 -0.24988 -0.012268
680000000 -0.23111 0.1931 -0.027996 -0.014039 0.0049681 0.0050826 0.00040675 -0.0080934
-0.0035637 -0.010897 0.0043592 -0.0074007
-0.027966 -0.014017 -0.38634 0.16079 -0.032895 -0.0010711 -0.001685 -0.00068066
-0.0031309 -0.0087136 -0.0010148 -0.0024695
0.0049979 0.0050911 -0.03292 -0.00098166 -0.10186 0.28794 -0.00067967 0.00012257
-0.0023663 0.00093181 -0.0030127 -0.009642
0.00053402 -0.0080308 -0.0016643 -0.00069201 -0.00067809 0.00012582 -0.21746 0.19564
-0.023651 -0.0090483 -0.011059 -0.010304
-0.0035817 -0.010901 -0.0031704 -0.0087063 -0.0023689 0.00094224 -0.023667 -0.0090271
-0.24841 0.0528 -0.0052426 -0.0099699
0.0043186 -0.0072929 -0.00099142 -0.0024661 -0.0030188 -0.009672 -0.011115 -0.010301
-0.005274 -0.0099654 -0.26183 0.091333
740000000 -0.18856 0.1886 -0.03878 0.02625 0.012607 -0.0051596 -0.00085301 -0.0039039
-0.004137 -0.002124 -0.0063939 0.0032555
-0.038738 0.026215 -0.33497 0.17929 -0.034608 0.035086 -0.000863 -0.0064382
-0.01158 0.0086109 -0.0026033 -0.0060734
0.012584 -0.0052154 -0.03455 0.035226 -0.068268 0.2872 -0.00098986 0.0036177
-0.002747 -0.0035728 -0.000955 0.00058228
-0.00082573 -0.0039276 -0.00090212 -0.0064379 -0.00098285 0.0036312 -0.20097 0.20299
-0.04288 -0.00777 0.023 0.012435
-0.0043125 -0.0021352 -0.0116 0.0086717 -0.002781 -0.0035905 -0.042905 -0.0077254
-0.15581 0.074487 -0.04249 0.00077548
-0.0063111 0.0032908 -0.002647 -0.0060852 -0.0009327 0.00057598 0.023037 0.012416
-0.042542 0.00071502 -0.24983 0.09839
800000000 -0.15727 0.22862 -0.022581 0.017266 0.00508 -0.010448 -0.0047639 -0.0019063
-0.0041277 0.0030843 0.00429 0.00087245
-0.022562 0.017235 -0.33699 0.24958 -0.00769 0.034118 -0.0020184 0.0022178
-0.00038167 0.0036158 0.001035 0.0052708
0.0050583 -0.010472 -0.0076053 0.034164 -0.026831 0.31014 0.0012817 0.0014854
0.00074297 0.0035696 -0.001796 0.00099505
-0.0047606 -0.0019226 -0.0020021 0.0022195 0.0012874 0.0014911 -0.17363 0.23105
-0.02889 0.012427 0.012994 -0.0096691
-0.004165 0.0030899 -0.00036601 0.0036338 0.00076244 0.0035796 -0.028872 0.012482
-0.19768 0.099103 -0.01808 0.016893
0.0043876 0.00080003 0.001082 0.0052942 -0.0017698 0.0010054 0.013032 -0.0096824
-0.018162 0.01689 -0.24333 0.15221
860000000 -0.12245 0.25043 -0.01707 0.031534 -0.0034957 -0.0097451 -0.0025358 0.0012673
0.0044236 0.005231 -0.0026842 -0.002943
-0.01708 0.031495 -0.289 0.2916 0.0083547 0.034041 0.00033294 0.0019761
0.0046183 0.00013619 0.0034598 0.00023548
-0.0035017 -0.0097503 0.0084608 0.034046 0.02187 0.31782 -0.00032041 -0.00036901
0.0028739 -0.0016983 0.0016095 0.0045658
-0.0025048 0.0012752 0.00035727 0.0019651 -0.00031653 -0.00036725 -0.13806 0.24314
-0.01796 0.018428 -0.0063942 -0.0093559
0.0044333 0.0051526 0.004621 0.00010168 0.0028707 -0.0016976 -0.017941 0.018476
-0.14959 0.1463 -0.023944 0.015402
-0.0026005 -0.002903 0.0035142 0.00022968 0.0016112 0.0046031 -0.0063712 -0.0093595
-0.023996 0.015395 -0.19297 0.19445
920000000 -0.096699 0.27398 0.0054243 0.037962 -0.0093449 -0.0039992 -0.0015812 0.0023832
0.0013982 0.0014827 0.0025236 -0.0013209
0.0053843 0.037941 -0.25973 0.31253 0.028118 0.021516 0.0016904 0.0010423
0.0065893 -0.0009752 0.0035459 -0.0028907
-0.0093528 -0.0039827 0.028204 0.021437 0.068408 0.31793 0.0017436 -0.00017595
0.0013489 -0.00056807 0.00080254 -0.001108
-0.0015408 0.0024215 0.0017155 0.0010291 0.0017587 -0.00017218 -0.11368 0.25956
-0.010609 0.029711 0.0023806 -0.0061266
0.0014395 0.0014746 0.0066155 -0.0010288 0.0013445 -0.00056897 -0.010551 0.029738
-0.13912 0.15278 -0.0022891 0.027145
0.0025528 -0.0012811 0.0035341 -0.002911 0.00081403 -0.0011227 0.0023888 -0.0061175
-0.002325 0.02711 -0.19935 0.2092
980000000 -0.048635 0.29345 0.018295 0.029899 -0.0086191 0.0048316 0.0026079 0.0038203
0.0040466 -0.00189 -0.0030171 -0.002118
0.018234 0.029892 -0.20676 0.34586 0.032797 0.004358 0.0019559 -4.2101e-05
0.00090762 -0.0061234 -0.00055242 -0.0021938
-0.0086151 0.004871 0.032845 0.0042289 0.1148 0.3109 0.00034493 -0.0011692
2.8654e-05 -0.0020987 0.0015974 -5.9759e-05
0.0025963 0.0038315 0.0019746 -3.9591e-05 0.00034685 -0.0011672 -0.075287 0.27127
0.0071687 0.028356 -0.0094501 -0.0063646
0.0040315 -0.0018848 0.00089987 -0.006153 4.5759e-06 -0.0021094 0.0072289 0.028358
-0.1083 0.17943 0.0050336 0.018553
-0.003046 -0.0020952 -0.00057884 -0.0021605 0.0015927 -4.7861e-05 -0.0094554 -0.0063407
0.0050152 0.018531 -0.15606 0.25264
1040000000 -0.005348 0.30125 0.033367 0.017509 -0.00096217 0.0068768 0.002935 0.00068983
1.1322e-05 -0.003751 -0.00073382 -0.0014521
0.033324 0.017521 -0.17084 0.35875 0.028794 -0.014949 0.0014228 -0.0016139
-0.0026731 -0.0020747 -0.0014078 -0.0025961
-0.00094706 0.0068851 0.028745 -0.015088 0.16093 0.29662 -0.00053861 -0.0013392
-0.0015144 -0.00068643 -0.0004112 -0.0011183
0.0029254 0.00067853 0.0014163 -0.0016553 -0.00054298 -0.0013378 -0.047484 0.2812
0.017961 0.016806 -0.0030617 0.002463
-2.8831e-05 -0.0037436 -0.0026834 -0.0021136 -0.0015228 -0.00069271 0.017992 0.016775
-0.077674 0.18882 0.013254 0.017884
-0.00073878 -0.0014728 -0.0014656 -0.002565 -0.00042126 -0.0011276 -0.0030747 0.0024738
0.013234 0.017875 -0.13449 0.27408
1100000000 0.040455 0.3081 0.035553 -0.0047999 0.0030158 0.0035994 0.0026056 -0.0016178
-0.0021919 -0.002966 -0.0038023 0.00015758
0.035509 -0.0047652 -0.12718 0.37537 0.014533 -0.027618 -3.0792e-06 -0.0018351
-0.0030376 -0.00023904 -0.0033454 -0.00050875
0.0030251 0.0035969 0.014439 -0.027705 0.20707 0.27584 -0.0017476 0.00027887
-0.0015688 0.00066001 -0.00092555 -0.00040416
0.0025932 -0.001629 -6.3631e-06 -0.0018499 -0.0017481 0.00027746 -0.006713 0.28584
0.021985 0.0048725 -0.0020623 0.0013033
-0.0022045 -0.0029574 -0.0030465 -0.0002335 -0.0015646 0.00066377 0.022 0.0048291
-0.059085 0.20213 0.018308 0.0082741
-0.003804 0.0001685 -0.0033461 -0.0004968 -0.00093866 -0.00039884 -0.0020696 0.0012948
0.018324 0.0082544 -0.087686 0.30321
1160000000 0.092269 0.30213 0.023516 -0.021013 0.0026602 -0.00066288 -4.1772e-05 -0.0026612
-0.0041063 -0.0002281 -0.00083028 0.0040961
0.023519 -0.020965 -0.083038 0.37898 -0.0040011 -0.028546 -0.0017747 -0.0015858
-0.0022043 0.0026203 -0.001261 0.0015271
0.0026604 -0.00067139 -0.0041334 -0.028559 0.24984 0.24465 -0.00050232 0.0016689
-0.00030771 0.0017464 -0.0010714 3.1092e-05
-4.99e-05 -0.0026633 -0.0017765 -0.0015871 -0.00051145 0.0016713 0.032803 0.2828
0.018453 -0.0094557 -0.0024902 0.0058186
-0.0041352 -0.00019855 -0.0021862 0.0026002 -0.00031038 0.0017442 0.018449 -0.0094862
-0.025587 0.21197 0.016922 0.00038695
-0.00079988 0.0040853 -0.0012315 0.0015482 -0.0010646 5.0387e-05 -0.0024958 0.0058222
0.016949 0.00032585 -0.04035 0.30555
1220000000 0.13666 0.28989 0.0099283 -0.029811 -0.0015576 -0.00090097 -0.00030016 -0.0011484
-0.002455 0.0026348 0.0012664 0.0018676
0.0099418 -0.02976 -0.038982 0.39013 -0.016762 -0.02055 -0.0024878 0.00049952
0.00036714 0.0027256 -0.0006705 0.0016818
-0.0015567 -0.00089144 -0.016866 -0.020505 0.28867 0.20551 0.00090717 0.0014768
0.00058358 0.0010519 0.00023694 0.00071937
-0.00029823 -0.0011547 -0.0024821 0.00051427 0.00090303 0.001482 0.072436 0.27384
0.0087406 -0.014665 0.0031775 0.0017396
-0.0024522 0.0026414 0.00038372 0.0027237 0.00059755 0.0010454 0.0087316 -0.014679
-0.0014053 0.22167 0.013014 -0.011979
0.0013088 0.0018682 -0.00066106 0.0016862 0.00024263 0.00070615 0.0031507 0.0017328
0.013021 -0.012014 -0.0083321 0.32189
1280000000 0.18593 0.26696 -0.0080391 -0.027997 -0.0018242 0.0023743 -0.0011763 -0.0019162
-0.00044519 0.0031046 0.0025244 0.00093916
-0.0080168 -0.027972 0.0066719 0.38068 -0.023164 -0.0081392 -0.00096719 0.0014388
0.0015882 0.0014147 0.00044187 0.0018923
-0.0018124 0.0023789 -0.023239 -0.0080459 0.31921 0.16149 0.0012382 -0.00020241
0.00086656 5.9908e-05 0.00029242 0.00047834
-0.0011756 -0.0019026 -0.00095712 0.0014504 0.001248 -0.00019074 0.10875 0.25767
0.00031188 -0.015968 0.00090046 -9.8915e-05
-0.00043079 0.0030998 0.0015975 0.0014003 0.00086931 5.9314e-05 0.00029236 -0.01597
0.036009 0.22515 0.0026171 -0.013832
0.0025344 0.00091654 0.00044811 0.0018888 0.00028461 0.00049115 0.0009096 -0.00010148
0.002624 -0.01382 0.039133 0.32273
1340000000 0.22249 0.23239 -0.017536 -0.018638 0.00079987 0.0042828 -0.0019464 -0.000615
0.0014785 0.0024331 0.0015559 -0.0015318
-0.017493 -0.018629 0.045821 0.3719 -0.021074 0.0042065 -6.3691e-05 0.0018837
0.0015544 0.00059494 0.0012973 0.00078897
0.00081625 0.00427 -0.021069 0.0043028 0.34126 0.1134 0.00087241 -0.00082156
0.00048631 -0.00035031 0.00027629 0.00020718
-0.0019473 -0.00061687 -5.7284e-05 0.0018861 0.00086679 -0.00080787 0.14155 0.23752
-0.0070822 -0.013123 0.0015948 -0.00038728
0.0014843 0.0024339 0.0015642 0.00058964 0.00048725 -0.00034805 -0.0071145 -0.013113
0.06731 0.22014 -0.0033832 -0.012282
0.0015733 -0.0015556 0.0013033 0.00078793 0.00029232 0.00021092 0.0015943 -0.00038677
-0.0033713 -0.012296 0.078263 0.31809
1400000000 0.25479 0.19368 -0.023064 -0.0073085 0.0049604 0.0030362 -0.0019933 0.00074985
0.0024287 0.00051174 0.00011145 -0.0013091
-0.023029 -0.0073177 0.082471 0.35866 -0.014462 0.012052 0.0013217 0.0012085
0.00078339 -0.00073352 0.00121 0.00027506
0.0049789 0.0030165 -0.014416 0.012134 0.35427 0.05956 4.5237e-05 -0.0013572
-1.2652e-05 -0.00031841 0.00035434 0.00023164
-0.0019925 0.00074678 0.0013233 0.0012138 3.2378e-05 -0.0013608 0.17154 0.20926
-0.011565 -0.0074821 -0.00051022 -0.0011122
0.0024208 0.00049991 0.00079095 -0.00073701 -1.5296e-05 -0.00031914 -0.011588 -0.0074592
0.10094 0.21488 -0.0092678 -0.0078518
9.8036e-05 -0.0013136 0.001226 0.00027692 0.00035476 0.00021969 -0.00052497 -0.0011136
-0.00925 -0.0078491 0.12293 0.30683
1460000000 0.27717 0.14946 -0.020221 0.0045266 0.0053497 -0.0016954 -0.0014976 0.0017262
0.0018524 -0.00085168 -0.00034949 -0.00082049
-0.020202 0.0045021 0.11641 0.3368 -0.0061142 0.014779 0.0016665 0.00012883
0.00080589 -0.0010336 0.0011692 -0.00061667
0.0053404 -0.0017309 -0.0060514 0.014816 0.35991 0.0047408 -0.0010096 -0.0011196
0.00025115 -0.00012462 0.00064173 -0.00041433
-0.0014997 0.0017278 0.0016712 0.00012456 -0.001014 -0.001106 0.19869 0.1801
-0.011864 -0.0026152 -0.0013024 0.0011073
0.00184 -0.00086328 0.00079774 -0.0010366 0.00025431 -0.00012163 -0.011869 -0.0025835
0.13122 0.19946 -0.010515 -0.0027834
-0.000376 -0.00082248 0.0011632 -0.00061962 0.00062877 -0.00041671 -0.001284 0.0011033
-0.010509 -0.0027777 0.15611 0.28523
1520000000 0.28885 0.10734 -0.014672 0.010117 0.0030293 -0.0039408 0.00014889 0.0024922
0.0015223 -0.0016925 -0.0011485 -0.00011857
-0.014665 0.010097 0.14973 0.3219 0.0012441 0.012789 0.001537 -0.00078029
0.00016477 -0.00083795 0.00025579 -0.0010058
0.0030112 -0.003955 0.0013079 0.012797 0.35286 -0.051694 -0.00082097 -0.00035256
0.00055623 -0.00074171 -4.5151e-05 -2.8083e-05
0.00015275 0.002478 0.0015279 -0.00080765 -0.00081978 -0.00034946 0.22281 0.14168
-0.011397 0.0013618 0.00077936 0.0015397
0.0015103 -0.0017054 0.00016444 -0.00083157 0.00055514 -0.00074668 -0.011401 0.0013929
0.15939 0.18393 -0.010623 0.0013063
-0.0011528 -0.00012657 0.00023793 -0.0010274 -4.5196e-05 -2.5587e-05 0.00077756 0.0015398
-0.010618 0.001284 0.18968 0.26426
1580000000 0.29783 0.060704 -0.0082141 0.013212 -0.00098669 -0.0045881 0.0013602 0.0017772
-0.00061011 -0.0018423 -0.00029114 0.00037099
-0.0082208 0.013197 0.17681 0.29717 0.0048588 0.008212 0.00044117 -0.0015221
-0.00029617 -0.0010209 -0.00024239 -0.00086773
-0.0010062 -0.0045908 0.0049004 0.0081846 0.33218 -0.10928 -0.0014219 0.00040021
-0.00026637 -0.0010692 0.00017472 -0.00056249
0.0013723 0.0017759 0.00042844 -0.0015191 -0.0014249 0.00038984 0.23765 0.10133
-0.0091416 0.004932 0.001493 0.00065865
-0.00061347 -0.0018409 -0.00031033 -0.0010118 -0.00026865 -0.0010709 -0.0091409 0.0049545
0.18395 0.16493 -0.0086096 0.0064497
-0.00026901 0.00039401 -0.00023108 -0.00084737 0.0001685 -0.00055507 0.0014773 0.00064234
-0.0085988 0.0064431 0.22144 0.23718
1640000000 0.2993 0.018591 -0.001612 0.012282 -0.0025875 -0.0023205 0.0025307 0.0010182
-0.00079709 -0.00085306 -0.00027876 0.00074094
-0.0016184 0.012271 0.20629 0.27185 0.0055659 0.0036224 -0.00071158 -0.0015801
-0.00092857 -0.00055308 -0.00057016 -0.00064722
-0.0025827 -0.0023075 0.0055898 0.0035975 0.30358 -0.15851 -0.00088981 0.0012125
-0.00098599 -0.00087552 -3.311e-05 -0.00031231
0.0025348 0.00099571 -0.00071542 -0.0015803 -0.00089291 0.0012003 0.2503 0.050899
-0.0063646 0.0056787 0.001906 -0.00056857
-0.00080474 -0.0008672 -0.0009301 -0.00055585 -0.00099879 -0.00087694 -0.0063554 0.0056912
0.20709 0.13884 -0.0043233 0.008354
-0.00029086 0.0007168 -0.00056993 -0.00063009 -5.0644e-05 -0.00030456 0.0019058 -0.00059129
-0.0043164 0.0083518 0.24716 0.20559
1700000000 0.29076 -0.027232 0.00187 0.0096103 -0.0031913 0.00014603 0.0029032 -0.001043
-0.0015583 -0.00030031 0.00062806 0.00043882
0.0018517 0.0095963 0.22419 0.24019 0.0037508 0.00089707 -0.0013513 -0.00053581
-0.00086672 -9.0274e-05 -0.00094378 -0.00036921
-0.0032 0.00016997 0.0037579 0.00086562 0.25954 -0.19801 0.00022159 0.0015866
-0.0016953 -0.00035081 -0.00060139 -0.00095046
0.0029132 -0.0010523 -0.0013542 -0.00052766 0.00022165 0.0015807 0.24646 -0.00068792
-0.004979 0.006328 0.0012923 -0.0017388
-0.00156 -0.00028773 -0.00086637 -8.5005e-05 -0.0016926 -0.00036664 -0.0049685 0.0063442
0.22438 0.11649 7.9095e-06 0.0088793
0.00066281 0.00043293 -0.00093373 -0.00036131 -0.00061847 -0.00094375 0.00129 -0.0017511
3.3791e-06 0.0088857 0.26319 0.17072
1760000000 0.27719 -0.075864 0.0042479 0.0064832 -0.0021349 0.00071358 0.0014115 -0.0032708
-0.00081328 0.00060761 0.00051991 -0.00045256
0.0042333 0.0064787 0.24996 0.20001 0.0016842 -0.00083838 -0.0010377 0.0001638
-0.0012369 0.00087628 -0.00056731 0.0005682
-0.002148 0.00072537 0.0016741 -0.00085074 0.21041 -0.23086 0.0011146 0.0013585
-0.0011522 0.0012413 -0.0013892 -0.00042761
0.001376 -0.0032657 -0.0010407 0.00017836 0.001119 0.0013582 0.23554 -0.053344
-0.0027934 0.0062142 -0.00063167 -0.0019523
-0.00081024 0.00062248 -0.0012415 0.00088473 -0.0011507 0.0012377 -0.0027789 0.0062285
0.23929 0.078983 0.0033874 0.0062336
0.00051484 -0.00042292 -0.00055224 0.00058808 -0.0014006 -0.00042713 -0.00061757 -0.001951
0.0033949 0.0062501 0.27547 0.13268
1820000000 0.25101 -0.11273 0.0046301 0.002891 -9.9196e-05 0.0022614 -0.00089733 -0.0030065
-0.00075346 0.00039474 0.00010754 -0.00012673
0.0046238 0.0028902 0.25941 0.16959 -0.00012735 0.00011555 -0.0013592 0.00083968
-0.00019811 0.0014825 -0.00043547 0.00058906
-6.7921e-05 0.0022538 -0.00012959 0.00011731 0.16044 -0.24651 0.0015675 0.00054441
-0.00044398 0.0020783 -0.0013101 0.00058525
-0.00090899 -0.003015 -0.0013592 0.00084126 0.0015679 0.00053817 0.20334 -0.1008
-0.001819 0.0054274 -0.0015343 -0.0011377
-0.00073608 0.00040245 -0.00017914 0.0014853 -0.00042688 0.0020779 -0.0018088 0.0054288
0.25494 0.04709 0.0043641 0.0030958
9.5627e-05 -0.00014253 -0.00043427 0.00059417 -0.0013378 0.0005797 -0.0015286 -0.0011139
0.0043406 0.0031072 0.27732 0.096347
1880000000 0.21463 -0.1517 0.0025603 0.00058487 -0.00031079 0.0020155 -0.0028852 -0.0022835
-0.00043699 0.0012302 0.00020419 -0.00065667
0.0025533 0.00058403 0.26341 0.12303 -0.0020077 0.0017215 -0.00018812 0.001685
0.00072495 0.0014703 0.00022415 0.00090921
-0.00029752 0.0020215 -0.002 0.0017446 0.10839 -0.25542 0.0019871 -0.0010359
0.0014319 0.0020695 -0.00091611 0.0014336
-0.0028846 -0.0022729 -0.00017629 0.0016894 0.0019789 -0.0010458 0.16077 -0.13967
-0.0016824 0.0045949 -0.002127 0.00091901
-0.00042019 0.0012447 0.00074063 0.0014621 0.0014304 0.0020655 -0.0016747 0.004602
0.25553 0.011597 0.0039336 0.0012871
0.00020144 -0.00067558 0.00024401 0.00089171 -0.00091382 0.0014391 -0.002131 0.00093229
0.0039154 0.0012565 0.27684 0.062468
1940000000 0.17476 -0.17633 0.00041077 -0.0013227 0.0013323 0.0018963 -0.0038651 0.00050097
0.0009243 0.0010192 -0.00072122 -0.00058314
0.0004135 -0.0013212 0.26339 0.09112 -0.00091019 0.003816 0.00092704 0.0013171
0.0021109 0.00054477 0.00080778 0.00015677
0.0013468 0.0018866 -0.00090407 0.0038253 0.062317 -0.24915 0.00035392 -0.002482
0.0024359 0.0005997 0.00036081 0.0015244
-0.0038653 0.0005329 0.00094865 0.0013387 0.0003521 -0.0024876 0.10746 -0.16796
-0.0024999 0.0045709 -0.0010292 0.0018468
0.00093211 0.0010137 0.0021205 0.00051788 0.0024308 0.00058984 -0.0025004 0.0045791
0.25379 -0.029487 0.0028602 -0.0017625
-0.00073025 -0.00055794 0.00082501 0.00017119 0.00037086 0.001542 -0.00099161 0.0018662
0.0028736 -0.0017612 0.26542 0.026225
2000000000 0.12862 -0.18927 -0.0033975 0.00051765 0.0023469 0.0015677 -0.00231 0.0036658
0.00094942 0.00042702 -0.00068701 0.0004663
-0.003388 0.00050677 0.24865 0.055794 -0.00079398 0.0055024 0.0016244 0.00030863
0.0016175 -0.0017384 0.00043943 0.00015997
0.0023634 0.0015409 -0.00076529 0.0055065 0.018865 -0.23456 -0.0015697 -0.0013829
0.0020227 -0.0012958 0.0016786 0.0012718
-0.0023038 0.0036548 0.0016164 0.00029955 -0.0015672 -0.0013825 0.054206 -0.1756
-0.0036473 0.0056157 0.00047125 0.002289
0.00095524 0.00040385 0.0015952 -0.0017709 0.0020285 -0.0012941 -0.0036287 0.005623
