!Keysight Technologies,M9804A,MY58100912,A.14.10.03
!Date: Thursday, April 27, 2023 10:28:33
!Correction: S11(C  6-Port  ) 
!S12(C  6-Port  ) 
!S13(C  6-Port  ) 
!S14(C  6-Port  ) 
!S15(C  6-Port  ) 
!S16(C  6-Port  ) 
!S21(C  6-Port  ) 
!S22(C  6-Port  ) 
!S23(C  6-Port  ) 
!S24(C  6-Port  ) 
!S25(C  6-Port  ) 
!S26(C  6-Port  ) 
!S31(C  6-Port  ) 
!S32(C  6-Port  ) 
!S33(C  6-Port  ) 
!S34(C  6-Port  ) 
!S35(C  6-Port  ) 
!S36(C  6-Port  ) 
!S41(C  6-Port  ) 
!S42(C  6-Port  ) 
!S43(C  6-Port  ) 
!S44(C  6-Port  ) 
!S45(C  6-Port  ) 
!S46(C  6-Port  ) 
!S51(C  6-Port  ) 
!S52(C  6-Port  ) 
!S53(C  6-Port  ) 
!S54(C  6-Port  ) 
!S55(C  6-Port  ) 
!S56(C  6-Port  ) 
!S61(C  6-Port  ) 
!S62(C  6-Port  ) 
!S63(C  6-Port  ) 
!S64(C  6-Port  ) 
!S65(C  6-Port  ) 
!S66(C  6-Port  ) 
!S6P File: Measurement: :
# Hz S  RI   R 50
500000000 -0.33631 -0.03304 -0.0096934 -0.0038358 -0.0080205 0.01195 -0.0040361 0.011588
0.011612 0.0042555 -0.0039319 0.0073089
-0.0098023 -0.0039069 -0.41937 -0.048709 0.0074026 -0.01162 0.0013829 0.011459
0.0075816 0.0035524 0.00062728 0.011973
-0.007865 0.011923 0.0073494 -0.011674 -0.2652 0.21194 0.0062963 0.0029619
3.9653e-05 0.0087585 0.00027086 0.011612
-0.003868 0.011607 0.0017695 0.011527 0.0065394 0.0030621 -0.32698 0.049076
-0.019537 -0.0045022 0.018195 0.026159
0.011941 0.0042658 0.0072162 0.0034986 0.00022136 0.0087319 -0.019976 -0.0051279
-0.22703 -0.1823 -0.027543 0.0037481
-0.0038373 0.0078801 0.00099177 0.013093 -4.6502e-05 0.011597 0.018616 0.025966
-0.02732 0.0058391 -0.27153 -0.12523
560000000 -0.31469 0.12521 -0.024986 -0.06256 0.00042738 0.012058 0.0063229 0.0099677
0.011422 0.0034938 0.009495 0.0071444
-0.024611 -0.062627 -0.37535 0.10976 -0.042271 -0.036537 0.013621 0.004169
-0.01198 -0.0048355 0.005248 0.00029005
2.5831e-05 0.012227 -0.042327 -0.03637 -0.18227 0.26008 -0.00077879 -0.0049328
0.019492 0.004516 0.0061731 -0.0064374
0.0061241 0.010404 0.013867 0.0040071 -0.0010346 -0.0049145 -0.30183 0.13794
0.0029746 -0.025533 0.0048228 -0.01883
0.010764 0.0040897 -0.012349 -0.0045038 0.019224 0.0045773 0.0037637 -0.025614
-0.28743 -0.0051619 0.0069319 -0.051576
0.0093605 0.0066237 0.0044994 0.0007162 0.0067081 -0.0067235 0.005202 -0.019183
0.0064067 -0.053536 -0.33397 0.021006
620000000 -0.27262 0.11098 -0.023407 0.0072802 0.0036953 0.0083688 0.0066533 -0.0055308
0.011091 -0.00071486 0.0011418 -0.0020896
-0.023478 0.0072468 -0.4027 0.064189 -0.018885 1.3891e-05 -0.0016741 -0.0024361
0.0109 -0.006437 0.00094303 -0.0029534
0.0038165 0.0084207 -0.018943 6.8175e-05 -0.152 0.2692 -0.0020851 -0.0052629
-0.0034388 -0.0032592 0.0082169 -0.0032056
0.0071569 -0.0055411 -0.0017349 -0.0022147 -0.0020045 -0.0053007 -0.2602 0.14756
-0.039857 -0.019913 0.014664 0.024001
0.010782 -8.2594e-05 0.011022 -0.0068353 -0.0031592 -0.0033026 -0.03891 -0.020058
-0.20479 -0.043751 -0.039666 0.01479
0.00060197 -0.0015208 0.00092964 -0.0031502 0.0078682 -0.0033031 0.013881 0.025182
-0.040332 0.012581 -0.25125 -0.016462
680000000 -0.23173 0.19361 -0.027746 -0.013537 0.0048946 0.0053084 0.00072488 -0.008123
-0.0029544 -0.011174 0.0044013 -0.0079549
-0.027745 -0.013552 -0.38674 0.16105 -0.03291 -0.00092312 -0.0016045 -0.00061524
-0.0027641 -0.0089158 -0.00080807 -0.0027115
0.0050645 0.005167 -0.03292 -0.00082697 -0.10131 0.28827 -0.00080795 -7.9025e-05
-0.0017728 0.0010451 -0.0025953 -0.009835
0.00059775 -0.0082277 -0.0015359 -0.00065415 -0.00062102 -6.8494e-05 -0.21826 0.19611
-0.022926 -0.0082264 -0.01079 -0.0099636
-0.0030557 -0.011122 -0.0026344 -0.0087965 -0.0018529 0.00097208 -0.0236 -0.0084318
-0.25193 0.053411 -0.0059637 -0.0084168
0.0047905 -0.0081687 -0.00070088 -0.0023282 -0.0028486 -0.0093862 -0.010645 -0.010701
-0.0050697 -0.0078936 -0.2627 0.090065
740000000 -0.18902 0.1895 -0.038026 0.026537 0.01283 -0.0052181 -0.00082888 -0.0042511
-0.0040523 -0.0023498 -0.0063057 0.0034272
-0.038028 0.026535 -0.33477 0.17997 -0.034536 0.035174 -0.00068953 -0.006305
-0.011942 0.0083865 -0.0023007 -0.0063199
0.012921 -0.0052621 -0.034632 0.035345 -0.067661 0.28693 -0.0014053 0.003497
-0.0026128 -0.0036506 -0.00074437 0.001096
-0.00085901 -0.0041824 -0.00066429 -0.0062448 -0.001504 0.0034299 -0.20073 0.20361
-0.042542 -0.006947 0.023378 0.012972
-0.0045796 -0.0026468 -0.011827 0.0090563 -0.0029071 -0.0040251 -0.043056 -0.0072797
-0.157 0.07529 -0.042908 0.0002057
-0.0062493 0.0034561 -0.0026225 -0.0058149 -0.0010642 0.00067593 0.024059 0.013154
-0.043062 0.00062686 -0.25149 0.096661
800000000 -0.15644 0.22902 -0.021915 0.017438 0.0053442 -0.01046 -0.0048082 -0.0020408
-0.0040945 0.002766 0.0043436 0.00075019
-0.021932 0.017457 -0.33652 0.2496 -0.0075368 0.034153 -0.0020069 0.0020445
-0.00057538 0.0036696 0.0011708 0.0054787
0.0054362 -0.010566 -0.0074016 0.034198 -0.026637 0.3097 0.0012082 0.001553
0.00068751 0.0035424 -0.0017188 0.0010702
-0.0048376 -0.0020557 -0.0020763 0.0020399 0.0012386 0.0015682 -0.17343 0.23151
-0.02849 0.012953 0.013401 -0.0098617
-0.0040253 0.0027391 -0.00046975 0.0034711 0.00069422 0.0034447 -0.028405 0.012882
-0.19855 0.099231 -0.017661 0.017603
0.0043767 0.00065053 0.0015623 0.0052248 -0.0017608 0.0010656 0.013159 -0.0097015
-0.017645 0.017664 -0.24405 0.15051
860000000 -0.12156 0.25033 -0.016444 0.03113 -0.0031901 -0.00998 -0.002554 0.0011996
0.0042364 0.0051261 -0.0027698 -0.0028819
-0.016608 0.031191 -0.2885 0.29122 0.008522 0.034113 0.00032489 0.0020443
0.0044534 0.00010708 0.0033257 0.00034635
-0.0032694 -0.010006 0.0086351 0.034131 0.021668 0.31748 -0.00036578 -0.00027149
0.0026424 -0.0018819 0.001764 0.0043692
-0.0024406 0.0011671 0.00032855 0.0020429 -0.00032859 -0.00022233 -0.13803 0.24288
-0.016956 0.018219 -0.0061267 -0.0091714
0.0042295 0.0052522 0.0043456 0.00020092 0.0025971 -0.0017838 -0.016924 0.018471
-0.14943 0.14687 -0.023151 0.015996
-0.0025621 -0.002909 0.0033688 0.00036797 0.0015801 0.0043644 -0.0060076 -0.0092938
-0.023893 0.01585 -0.19348 0.19253
920000000 -0.096217 0.27341 0.0056673 0.037673 -0.0094845 -0.0043457 -0.0016304 0.002285
0.0013379 0.0016659 0.0025761 -0.0014079
0.0056796 0.037656 -0.2597 0.31184 0.028286 0.021403 0.001767 0.0010038
0.0067618 -0.00090773 0.0038594 -0.002729
-0.0094437 -0.004369 0.028386 0.021342 0.068064 0.31788 0.0017996 -0.00022802
0.0012657 -0.00058089 0.0008007 -0.0011851
-0.001581 0.0022859 0.0016694 0.0010709 0.0017477 -0.00022905 -0.11323 0.25944
-0.0099882 0.029942 0.0029052 -0.006621
0.0011444 0.0018422 0.0068616 -0.00097242 0.0013441 -0.0005571 -0.0099187 0.030176
-0.13933 0.15225 -0.0016294 0.027611
0.0026365 -0.0013354 0.0036577 -0.0027178 0.00087146 -0.0012443 0.0027191 -0.0065638
-0.0016439 0.027234 -0.20034 0.20719
980000000 -0.048736 0.29264 0.01819 0.029634 -0.0089372 0.004715 0.0024497 0.0037015
0.0040897 -0.0016259 -0.0028474 -0.0021384
0.018105 0.029657 -0.20702 0.34518 0.032998 0.0042377 0.002063 -1.6104e-05
0.0010337 -0.0061349 -0.00065573 -0.002284
-0.0089213 0.0047441 0.033044 0.0041498 0.11449 0.31104 0.00038881 -0.0011649
-5.4418e-05 -0.0021085 0.001399 -0.00017486
0.002396 0.0036767 0.0020194 -3.1397e-05 0.00036224 -0.0011543 -0.075188 0.27078
0.0079163 0.028342 -0.0093974 -0.0068286
0.0040732 -0.00164 0.0010493 -0.0061775 -8.0088e-05 -0.0021191 0.0079919 0.028383
-0.10762 0.17894 0.0050441 0.018512
-0.0028523 -0.0020227 -0.00052624 -0.002215 0.0014668 -0.00015714 -0.009245 -0.0068085
0.005688 0.018661 -0.15799 0.25195
1040000000 -0.0059961 0.30077 0.033382 0.017306 -0.0012233 0.0069305 0.0027521 0.00075165
0.00010389 -0.0037436 -0.00065252 -0.0014016
0.033268 0.017289 -0.17139 0.35815 0.028963 -0.015259 0.0014711 -0.001655
-0.0026503 -0.002294 -0.0014706 -0.0028008
-0.0012216 0.0069406 0.028968 -0.015372 0.16092 0.29707 -0.00058554 -0.0013818
-0.0015629 -0.00087986 -0.00042417 -0.0010174
0.0028667 0.00071084 0.0014792 -0.0017167 -0.00058081 -0.0013938 -0.047517 0.28086
0.018651 0.01655 -0.003212 0.0019015
0.00019765 -0.0037759 -0.0026827 -0.0023418 -0.0016152 -0.00080481 0.018774 0.016582
-0.077336 0.18789 0.013596 0.017401
-0.00061885 -0.0013482 -0.0014355 -0.0027169 -0.00043031 -0.001045 -0.0030418 0.0018467
0.013472 0.017551 -0.13663 0.27278
1100000000 0.039799 0.30762 0.035631 -0.0050796 0.0028548 0.0037562 0.0025652 -0.0014721
-0.0019763 -0.0030225 -0.003831 1.9558e-05
0.035633 -0.0051169 -0.12789 0.3751 0.014526 -0.028039 0.00012128 -0.0018755
-0.0033289 -0.00032867 -0.0034758 -0.00036841
0.0028739 0.0037511 0.014441 -0.028093 0.20745 0.27615 -0.0018135 0.00033076
-0.0016681 0.00078254 -0.00089687 -0.00025006
0.0025659 -0.0014946 1.5466e-06 -0.0018637 -0.0018188 0.00034386 -0.0069194 0.28566
0.022787 0.0042331 -0.0025396 0.00083083
-0.0019534 -0.003062 -0.0033443 -0.0002831 -0.0016973 0.00078074 0.022818 0.0042701
-0.05891 0.20027 0.018707 0.0080634
-0.0037836 -3.6326e-06 -0.0034719 -0.00048719 -0.00096155 -0.00032115 -0.0026368 0.00079025
0.018738 0.0081142 -0.08923 0.30199
1160000000 0.091392 0.30205 0.023408 -0.021452 0.0025901 -0.00047297 -1.201e-05 -0.0024527
-0.0041735 -0.00033801 -0.00093776 0.0041544
0.023361 -0.021446 -0.083924 0.37932 -0.0043355 -0.028945 -0.0018142 -0.0016106
-0.0023936 0.0028486 -0.0013568 0.0016145
0.0025609 -0.00050594 -0.0044489 -0.028944 0.25045 0.24464 -0.00052917 0.0017677
-0.00023048 0.0018853 -0.0010615 6.7523e-05
5.6044e-06 -0.0024529 -0.0017713 -0.0016433 -0.00052203 0.0017613 0.032527 0.2826
0.018851 -0.010687 -0.0029163 0.0057263
-0.0041658 -0.00032217 -0.0022712 0.0028362 -0.00024185 0.0018671 0.018841 -0.010646
-0.026212 0.20972 0.017365 0.00015181
-0.0010263 0.0041532 -0.0012141 0.0017313 -0.0010191 0.0001984 -0.0030226 0.005725
0.017438 0.00021457 -0.042957 0.30511
1220000000 0.13593 0.29015 0.0095309 -0.030233 -0.0016156 -0.00070144 -0.00010069 -0.0011501
-0.0026071 0.0024873 0.0012929 0.0019121
0.0095503 -0.030189 -0.039487 0.3907 -0.017177 -0.020713 -0.0025024 0.0005184
0.0004437 0.0029266 -0.0005665 0.0017029
-0.0016336 -0.00067417 -0.0173 -0.020661 0.2892 0.20493 0.0010046 0.001557
0.00069823 0.0010361 0.00036785 0.00066593
-9.6486e-05 -0.0011371 -0.0025452 0.00053879 0.00097979 0.0015551 0.072346 0.27374
0.0085051 -0.015921 0.0027333 0.0019284
-0.002593 0.0026009 0.00036871 0.0030108 0.00071649 0.0010534 0.0085147 -0.015987
-0.0028962 0.21973 0.013082 -0.012745
0.0013261 0.0018606 -0.00061818 0.001747 0.0003885 0.0006936 0.002814 0.0019219
0.012984 -0.012878 -0.010503 0.32154
1280000000 0.18555 0.26741 -0.0086731 -0.028151 -0.0017684 0.0026029 -0.001114 -0.0020818
-0.00057069 0.0031903 0.0025779 0.001012
-0.0086333 -0.02812 0.0066264 0.38141 -0.02369 -0.0079802 -0.00093862 0.001483
0.0017667 0.0014905 0.00054954 0.0019956
-0.0017491 0.0026137 -0.023763 -0.007899 0.31913 0.16064 0.0013886 -0.00024313
0.0010029 6.778e-06 0.00032925 0.00039561
-0.0011461 -0.0020736 -0.00096685 0.001539 0.0013922 -0.00022899 0.10867 0.25756
-0.00061229 -0.017122 0.00064193 0.00028991
-0.00058826 0.0031934 0.0017672 0.0014805 0.0010057 3.111e-07 -0.00063379 -0.017116
0.034055 0.22378 0.0023484 -0.014569
0.0025919 0.001053 0.0006025 0.0019271 0.00036003 0.00039951 0.00056022 0.00022398
0.0024259 -0.014617 0.037354 0.32294
1340000000 0.22245 0.2329 -0.018199 -0.018278 0.00098995 0.0044725 -0.0020354 -0.00069779
0.0014771 0.0025833 0.0016838 -0.0015223
-0.018189 -0.018255 0.046129 0.37232 -0.021379 0.0046143 -2.1358e-06 0.0019303
0.0017415 0.0004584 0.001293 0.00077284
0.0010416 0.0044591 -0.021375 0.0047373 0.34068 0.1126 0.00091946 -0.00097843
0.00048481 -0.00039464 0.00016918 0.00018384
-0.0020207 -0.00069907 3.0218e-05 0.0019261 0.00090972 -0.00098018 0.14152 0.23723
-0.0085604 -0.013633 0.0014689 5.8535e-05
0.0015273 0.0025848 0.0017615 0.00044145 0.00048667 -0.00040958 -0.0085463 -0.013612
0.065221 0.21958 -0.0039907 -0.012726
0.0015336 -0.0015177 0.00134 0.00072043 0.00015686 0.00023809 0.0013579 0.00014756
-0.0042299 -0.012757 0.076492 0.31827
1400000000 0.25499 0.19395 -0.023416 -0.0066744 0.0052569 0.0030957 -0.0021142 0.00084322
0.0025361 0.0006777 0.00013245 -0.0014139
-0.023398 -0.0066594 0.083003 0.35876 -0.014465 0.012623 0.0013775 0.0011635
0.00085506 -0.00096515 0.0011456 0.00024121
0.0052402 0.0030928 -0.014412 0.012679 0.35319 0.059192 -5.0548e-05 -0.0014918
-7.831e-05 -0.00034538 0.00035301 0.00025882
-0.0021289 0.00082873 0.0013654 0.0011389 -3.6396e-05 -0.0015013 0.17129 0.20879
-0.013197 -0.0071446 -0.00035374 -0.00067226
0.0025105 0.00066449 0.00085252 -0.00097942 -5.6552e-05 -0.00032844 -0.013199 -0.007104
0.098919 0.21483 -0.010149 -0.0078936
0.00015896 -0.0014118 0.001157 0.00022289 0.00031696 0.00029251 -0.00037173 -0.00063102
-0.010144 -0.007937 0.12122 0.30691
1460000000 0.2773 0.14923 -0.020135 0.0053581 0.0055746 -0.0018029 -0.0015072 0.0018523
0.0020018 -0.00082934 -0.00042839 -0.00091896
-0.020085 0.0053029 0.11683 0.33646 -0.0058031 0.015189 0.001637 8.1673e-05
0.00060937 -0.0010766 0.0011281 -0.00062923
0.0055869 -0.0018416 -0.0057287 0.015259 0.35886 0.0051209 -0.0011668 -0.0011013
0.00027704 -0.00011229 0.00061755 -0.00028912
-0.0014757 0.0018729 0.0016343 6.7554e-05 -0.0011842 -0.0010803 0.19823 0.17968
-0.013165 -0.0013254 -0.00088064 0.0014187
0.0020209 -0.00085619 0.00060652 -0.0010839 0.00028048 -0.00011403 -0.013123 -0.0013
0.12941 0.19974 -0.011269 -0.0024443
-0.00037265 -0.00090907 0.0011456 -0.00062923 0.00064345 -0.00040627 -0.0008433 0.0014259
-0.011438 -0.0023581 0.1543 0.2857
1520000000 0.28872 0.10693 -0.014199 0.010689 0.0031874 -0.0042092 0.00025594 0.0026202
0.0016076 -0.0018097 -0.0011762 -6.029e-05
-0.0142 0.01067 0.14988 0.3214 0.0017223 0.012924 0.0015141 -0.0007881
-2.2049e-05 -0.0007661 0.00025815 -0.00096841
0.0031598 -0.0042003 0.0018049 0.012922 0.35217 -0.051023 -0.00090944 -0.00020574
0.00059637 -0.00075693 -4.4351e-05 -6.8888e-05
0.00025181 0.0026114 0.0015325 -0.00080406 -0.00087727 -0.00022635 0.22211 0.14144
-0.011697 0.0031461 0.001193 0.0016021
0.0015996 -0.0018429 -4.5146e-06 -0.00077685 0.00068164 -0.00078137 -0.011708 0.0031208
0.15818 0.18453 -0.011094 0.0020568
-0.0011501 -5.1327e-05 0.00022681 -0.00099204 3.9614e-06 -7.9128e-05 0.0012289 0.0015381
-0.011218 0.002035 0.1877 0.26519
1580000000 0.29729 0.060315 -0.0074741 0.013463 -0.00099205 -0.0048631 0.0015217 0.0017745
-0.00055495 -0.0020546 -0.00027665 0.00040129
-0.0074747 0.013461 0.17667 0.29649 0.0052803 0.0080505 0.00042302 -0.0014808
-0.0003015 -0.00081576 -0.0002577 -0.00085566
-0.0010305 -0.0048302 0.0053146 0.0080313 0.33201 -0.10845 -0.001326 0.00055612
-0.00027373 -0.0011 0.00018391 -0.00050976
0.0015416 0.0017551 0.00040879 -0.0014914 -0.0013427 0.00057471 0.2367 0.10129
-0.0084851 0.0064855 0.0019107 0.0005119
-0.00061604 -0.002041 -0.00029772 -0.0008091 -0.00029466 -0.0010382 -0.0084891 0.0065368
0.1829 0.16524 -0.008619 0.0072381
-0.00026626 0.00036667 -0.00026509 -0.00086525 0.00013559 -0.00051066 0.0018932 0.00048061
-0.0086464 0.0073836 0.21988 0.23843
1640000000 0.29831 0.018541 -0.00090381 0.012104 -0.0028292 -0.0025187 0.0026264 0.00088882
-0.00092941 -0.0010456 -0.00026663 0.00067473
-0.00091001 0.012091 0.20568 0.27137 0.0058242 0.0033207 -0.00069107 -0.0015699
-0.00078149 -0.00043655 -0.00054878 -0.00064142
-0.0028367 -0.0025553 0.00585 0.0032989 0.30357 -0.15745 -0.00072616 0.0012116
-0.0010075 -0.00078036 -0.00013134 -0.00041124
0.0026397 0.00090059 -0.00071 -0.0015579 -0.00071773 0.0012373 0.24917 0.051406
-0.0050255 0.0065652 0.0021321 -0.00086986
-0.00093149 -0.00097889 -0.00079986 -0.00042621 -0.0010282 -0.00082953 -0.0050216 0.0065662
0.20605 0.13907 -0.003968 0.0091272
-0.00025814 0.00066927 -0.00059097 -0.00064068 -0.00015975 -0.00043912 0.0021102 -0.00087476
-0.0039496 0.009224 0.24585 0.20709
1700000000 0.28985 -0.026719 0.0023801 0.0090901 -0.0034663 6.6126e-05 0.0028767 -0.0011609
-0.0017139 -0.00031165 0.00067813 0.00038469
0.0023757 0.0090888 0.22343 0.23997 0.0038558 0.000555 -0.0013443 -0.00054249
-0.00068665 -0.00015081 -0.00091217 -0.00040887
-0.0035496 9.0858e-05 0.0038567 0.00052055 0.26033 -0.19741 0.00029824 0.0014321
-0.0017688 -0.00030992 -0.00061915 -0.00095871
0.002886 -0.0012156 -0.0013522 -0.00051883 0.00030674 0.0014435 0.24562 0.00041648
-0.0035383 0.0064081 0.0012893 -0.0020693
-0.0016878 -0.00027232 -0.0006782 -0.00012603 -0.0017572 -0.00027719 -0.0035436 0.0064496
0.22324 0.11677 0.00059356 0.0092749
0.00064635 0.00038551 -0.00091501 -0.00038566 -0.00063852 -0.00084765 0.0012293 -0.0020604
0.00067386 0.0093364 0.2622 0.17235
1760000000 0.27652 -0.074857 0.004416 0.0057936 -0.0023257 0.00089268 0.0012555 -0.0033529
-0.00089695 0.0006898 0.00035341 -0.00047086
0.0044065 0.005804 0.2491 0.20018 0.0014781 -0.0011702 -0.0010616 0.00017238
-0.0011722 0.0006942 -0.00063199 0.0005349
-0.0022718 0.00089648 0.0014832 -0.0011823 0.21105 -0.23084 0.0009786 0.0012788
-0.0011124 0.0012817 -0.0014298 -0.00038495
0.001207 -0.0033617 -0.0010662 0.00019622 0.0009516 0.0012556 0.23518 -0.051847
-0.0016777 0.0056823 -0.00066486 -0.0021716
-0.00089891 0.00068203 -0.0011592 0.00069389 -0.0011071 0.0012808 -0.0017104 0.0057232
0.23777 0.079593 0.0041234 0.0062992
0.00039739 -0.00044266 -0.00065123 0.00054325 -0.0015187 -0.00044155 -0.00067434 -0.0021989
0.004224 0.0063506 0.27497 0.13427
1820000000 0.25087 -0.11157 0.0044118 0.0022946 -0.00014991 0.0024413 -0.0010279 -0.0029956
-0.00067972 0.00052537 -6.0106e-06 -3.5288e-05
0.0044285 0.0023 0.25882 0.17014 -0.00034744 5.2083e-05 -0.0013528 0.00079656
-0.00027912 0.001283 -0.00056812 0.00060065
-0.00013023 0.0024437 -0.00033593 2.6526e-05 0.16068 -0.2463 0.0013876 0.00052004
-0.00039609 0.0020973 -0.0013875 0.00070113
-0.0010405 -0.0029848 -0.0013543 0.0007707 0.0014189 0.00054047 0.20386 -0.099402
-0.0011628 0.004483 -0.0017709 -0.0012907
-0.00067041 0.00053209 -0.00025817 0.001269 -0.00041029 0.0021172 -0.0011448 0.004542
0.25339 0.048023 0.0049263 0.0028732
-8.8012e-06 -0.00016479 -0.00047925 0.0005593 -0.0012336 0.00066488 -0.0017248 -0.0013017
0.0050074 0.0028378 0.27719 0.097847
1880000000 0.21504 -0.15051 0.0021142 0.00019414 -0.00034364 0.002237 -0.0028846 -0.0020468
-0.00035014 0.0013045 0.00037416 -0.00050759
0.0020958 0.00019188 0.26308 0.12374 -0.0022513 0.0016884 -0.00027329 0.0016904
0.00044445 0.001413 0.00022378 0.0010201
-0.00033605 0.0021411 -0.0022533 0.0017037 0.10869 -0.25578 0.0018339 -0.00093232
0.0013857 0.0019923 -0.00085616 0.0015701
-0.002882 -0.0020711 -0.00024113 0.0017024 0.0019122 -0.00092147 0.16195 -0.1386
-0.0014341 0.0036376 -0.0023155 0.00079218
-0.00032757 0.0012677 0.00047424 0.0014164 0.0013476 0.0020119 -0.0014612 0.003663
0.25399 0.013209 0.004405 0.00078094
0.00031031 -0.00056519 0.00020349 0.00098965 -0.0010148 0.0015845 -0.0024501 0.0007171
0.0044848 0.00069826 0.27689 0.063678
1940000000 0.1756 -0.17539 -9.7489e-05 -0.0013824 0.0013047 0.0020273 -0.0036872 0.00054372
0.0010175 0.00098719 -0.0007297 -0.00052795
-0.00013872 -0.0013837 0.2634 0.091932 -0.0011364 0.0038346 0.00088565 0.001359
0.001928 0.00072396 0.00081679 0.00021571
0.0013526 0.0019237 -0.001069 0.0038777 0.062534 -0.24954 0.00042085 -0.0023968
0.0024106 0.00064376 0.00048905 0.0015194
-0.0037066 0.00061999 0.00092826 0.0013814 0.00037424 -0.0023666 0.10877 -0.16777
-0.0026987 0.0036797 -0.0013055 0.0019054
0.0010414 0.00097791 0.0019278 0.00073632 0.0023645 0.00057417 -0.0026744 0.0036535
0.25276 -0.027378 0.0029768 -0.002299
-0.00069962 -0.00051265 0.00087648 0.00019506 0.00052356 0.0015809 -0.001186 0.0019232
0.0029969 -0.0023404 0.26553 0.027137
2000000000 0.12958 -0.18899 -0.0038293 0.00074467 0.0025125 0.0015543 -0.0022406 0.0036176
0.00099405 0.00039223 -0.00050597 0.00043929
-0.0038306 0.00070853 0.24895 0.056454 -0.00087546 0.0055446 0.0016861 0.00035044
0.0017293 -0.0014247 0.00055942 0.00011895
0.002489 0.0016507 -0.00087634 0.0055479 0.018801 -0.23502 -0.0013825 -0.0014573
0.0020752 -0.0012152 0.0016931 0.0012314
-0.002225 0.0035627 0.0016573 0.0003258 -0.0013503 -0.0014652 0.05545 -0.17606
-0.00412 0.0047925 0.00013614 0.0023454
0.00098122 0.00038788 0.0017331 -0.0014123 0.0020981 -0.0011743 -0.0041062 0.0048177
