!Keysight Technologies,M9804A,MY58100912,A.14.10.03
!Date: Thursday, April 27, 2023 10:28:33
!Correction: S11(C  6-Port  ) 
!S12(C  6-Port  ) 
!S13(C  6-Port  ) 
!S14(C  6-Port  ) 
!S15(C  6-Port  ) 
!S16(C  6-Port  ) 
!S21(C  6-Port  ) 
!S22(C  6-Port  ) 
!S23(C  6-Port  ) 
!S24(C  6-Port  ) 
!S25(C  6-Port  ) 
!S26(C  6-Port  ) 
!S31(C  6-Port  ) 
!S32(C  6-Port  ) 
!S33(C  6-Port  ) 
!S34(C  6-Port  ) 
!S35(C  6-Port  ) 
!S36(C  6-Port  ) 
!S41(C  6-Port  ) 
!S42(C  6-Port  ) 
!S43(C  6-Port  ) 
!S44(C  6-Port  ) 
!S45(C  6-Port  ) 
!S46(C  6-Port  ) 
!S51(C  6-Port  ) 
!S52(C  6-Port  ) 
!S53(C  6-Port  ) 
!S54(C  6-Port  ) 
!S55(C  6-Port  ) 
!S56(C  6-Port  ) 
!S61(C  6-Port  ) 
!S62(C  6-Port  ) 
!S63(C  6-Port  ) 
!S64(C  6-Port  ) 
!S65(C  6-Port  ) 
!S66(C  6-Port  ) 
!S6P File: Measurement: :
# Hz S  RI   R 50
500000000 -0.33703 -0.032746 -0.010011 -0.0038342 -0.0079755 0.011746 -0.0038223 0.01167
0.011758 0.0046242 -0.0043058 0.0083034
-0.010015 -0.0037796 -0.41921 -0.048788 0.0072366 -0.011714 0.0013619 0.010827
0.007881 0.0031269 0.0012154 0.012089
-0.0079781 0.011836 0.0071907 -0.011794 -0.26519 0.21214 0.0066782 0.0029495
0.00052039 0.0086431 0.00040309 0.01157
-0.0038157 0.011742 0.0013947 0.010868 0.0066247 0.0029234 -0.32752 0.048661
-0.020324 -0.0050485 0.017571 0.025095
0.011753 0.0046317 0.0079641 0.0031787 0.00047853 0.0085087 -0.02021 -0.0049286
-0.22731 -0.18135 -0.028112 0.0043473
-0.0046639 0.008115 0.0010557 0.012107 0.00056058 0.011548 0.017548 0.024787
-0.028278 0.0044779 -0.27221 -0.1275
560000000 -0.31487 0.12598 -0.024876 -0.062939 0.00047254 0.012047 0.0063843 0.010193
0.011274 0.0037398 0.0094068 0.0078283
-0.024717 -0.062788 -0.37634 0.11067 -0.042215 -0.036532 0.014185 0.0034808
-0.012999 -0.0050059 0.0052365 -0.00022041
0.00046972 0.012088 -0.042323 -0.036498 -0.18249 0.26036 -0.00077277 -0.0043991
0.01929 0.0041297 0.0066905 -0.0060729
0.0064386 0.010125 0.014261 0.0034782 -0.00089682 -0.0045274 -0.30194 0.13758
0.003548 -0.024298 0.0053491 -0.019707
0.011365 0.0036849 -0.013136 -0.0049789 0.019449 0.0042266 0.0034499 -0.024289
-0.28597 -0.0076604 0.0063505 -0.051153
0.0095914 0.0078761 0.005117 -0.00051386 0.0069213 -0.0060399 0.0052411 -0.019551
0.0065847 -0.050953 -0.33247 0.02105
620000000 -0.27277 0.11065 -0.023523 0.0072483 0.0032699 0.0085343 0.006909 -0.0057003
0.011293 -0.00018131 0.00076474 -0.001881
-0.023517 0.0072743 -0.40269 0.064111 -0.018772 0.00012022 -0.0016973 -0.0020922
0.010697 -0.0069006 0.0007516 -0.0026485
0.0033288 0.0086017 -0.018788 0.00011699 -0.15191 0.26968 -0.0018427 -0.0050183
-0.00314 -0.0033517 0.0080874 -0.0037069
0.0069682 -0.005773 -0.0016569 -0.0021079 -0.0017939 -0.0049722 -0.2598 0.14708
-0.039809 -0.018569 0.014697 0.024444
0.010986 -0.00022798 0.010716 -0.0069323 -0.0029033 -0.0034561 -0.039698 -0.018331
-0.20532 -0.046413 -0.040281 0.014216
0.00042397 -0.002298 0.00077339 -0.0026259 0.0078886 -0.0036281 0.014309 0.02467
-0.040157 0.013631 -0.25108 -0.016211
680000000 -0.23187 0.19375 -0.027762 -0.013705 0.0050674 0.0051276 0.00075534 -0.0078363
-0.0031037 -0.010993 0.0042053 -0.0076931
-0.02774 -0.013699 -0.38664 0.16105 -0.032765 -0.00095676 -0.001535 -0.00057574
-0.0027314 -0.0087471 -0.00056626 -0.0024369
0.0050931 0.0051218 -0.032787 -0.00084431 -0.10132 0.28833 -0.00067014 -4.1478e-05
-0.0022912 0.0007199 -0.0027099 -0.0094997
0.00070201 -0.0077341 -0.001579 -0.00053686 -0.00071119 -6.6541e-05 -0.21779 0.19617
-0.023762 -0.0078464 -0.01111 -0.0099487
-0.0031221 -0.011 -0.0027526 -0.0087485 -0.0023148 0.00073563 -0.023794 -0.0077996
-0.25174 0.052174 -0.0053137 -0.0087375
0.0041689 -0.0076082 -0.00066668 -0.0024915 -0.0028139 -0.0096225 -0.010994 -0.0099982
-0.0053196 -0.0088021 -0.26289 0.088685
740000000 -0.18856 0.18922 -0.038124 0.026713 0.012754 -0.0052616 -0.00093456 -0.0040378
-0.0044398 -0.0026023 -0.0063039 0.003348
-0.03809 0.026742 -0.33461 0.17949 -0.034514 0.035183 -0.00079346 -0.0064962
-0.011491 0.0084756 -0.0028222 -0.0063853
0.012708 -0.0052858 -0.034404 0.035326 -0.067777 0.2869 -0.0012191 0.0033134
-0.0029874 -0.0037506 -0.00081992 0.00045019
-0.00089753 -0.00407 -0.00085286 -0.0064377 -0.0012829 0.0033253 -0.20134 0.20386
-0.042148 -0.0073381 0.023166 0.01284
-0.0044852 -0.0025691 -0.01159 0.0084771 -0.0029102 -0.0038686 -0.042254 -0.00736
-0.15604 0.074382 -0.042754 0.0019323
-0.0062711 0.0030678 -0.0027337 -0.0064747 -0.00086517 0.00043033 0.023024 0.012797
-0.042809 0.0021503 -0.25105 0.095937
800000000 -0.15673 0.22916 -0.022103 0.01734 0.0053729 -0.010627 -0.0047591 -0.0019797
-0.0042543 0.002628 0.0042613 0.00091804
-0.022095 0.017308 -0.33664 0.24936 -0.007478 0.034055 -0.0020337 0.0021049
-0.0005451 0.0034477 0.0012464 0.0053243
0.0053432 -0.010629 -0.0073933 0.034111 -0.026596 0.30965 0.0011656 0.0015695
0.00069092 0.0035082 -0.0017358 0.0010438
-0.0047882 -0.0019545 -0.0020301 0.002108 0.0011326 0.0015521 -0.17347 0.23141
-0.028214 0.013062 0.013402 -0.0097526
-0.0042951 0.0026648 -0.00053689 0.003457 0.00070621 0.0034999 -0.028208 0.013106
-0.19858 0.099115 -0.017705 0.017703
0.0043118 0.00086817 0.0013071 0.0053309 -0.0017947 0.00099656 0.013397 -0.0098103
-0.017604 0.017682 -0.24468 0.15025
860000000 -0.12163 0.25023 -0.016602 0.031222 -0.0032495 -0.0099576 -0.0025317 0.0011745
0.0041917 0.0049648 -0.0028253 -0.002846
-0.01659 0.031186 -0.28862 0.29103 0.0085157 0.0341 0.00023295 0.0020106
0.0044566 0.00026841 0.0034257 0.00024793
-0.0032676 -0.009956 0.0086166 0.034105 0.021644 0.31746 -0.00031265 -0.00031327
0.002672 -0.0015896 0.0016122 0.0043183
-0.0025258 0.0011721 0.00027338 0.0019758 -0.00030319 -0.00028452 -0.138 0.24301
-0.017296 0.018449 -0.005823 -0.0093006
0.0041734 0.0050458 0.004416 0.00023097 0.0027278 -0.001606 -0.017206 0.018558
-0.14972 0.1464 -0.023133 0.015742
-0.0028615 -0.0028265 0.0034032 0.00022885 0.0016269 0.0044141 -0.0059943 -0.0093365
-0.023418 0.015746 -0.19442 0.19289
920000000 -0.096464 0.27344 0.0054632 0.037752 -0.0095387 -0.0043774 -0.0016663 0.0022968
0.0011343 0.0017274 0.0026033 -0.0011238
0.0054372 0.037734 -0.25981 0.31187 0.028281 0.021443 0.0016525 0.0011024
0.006858 -0.00083967 0.0038224 -0.0026487
-0.0095675 -0.0043497 0.028325 0.021368 0.068051 0.31785 0.0017621 -0.00014445
0.001353 -0.00055141 0.00077785 -0.0010482
-0.0016557 0.0023464 0.0016928 0.0010541 0.0017832 -0.00016114 -0.11339 0.25952
-0.0098831 0.029843 0.0027299 -0.0065424
0.001149 0.0017445 0.0069263 -0.00086124 0.0013508 -0.00052724 -0.0098453 0.029871
-0.13894 0.15266 -0.0017563 0.027297
0.0026851 -0.0011634 0.0038587 -0.0026977 0.00076414 -0.0011507 0.0027234 -0.0066127
-0.001649 0.027568 -0.20093 0.20704
980000000 -0.048749 0.2926 0.01822 0.029677 -0.0089306 0.0046952 0.0024558 0.0036809
0.0040183 -0.0016711 -0.0028547 -0.0020967
0.018203 0.029665 -0.20707 0.34518 0.033028 0.0042471 0.0019723 1.9141e-05
0.00098324 -0.0062093 -0.00048887 -0.0022648
-0.0089223 0.0047329 0.033066 0.0041486 0.11447 0.31109 0.00035137 -0.0011751
-3.2097e-05 -0.002169 0.0014727 -0.00011411
0.002439 0.0036711 0.0019941 -6.792e-06 0.00035118 -0.0011703 -0.07512 0.27074
0.0080299 0.02814 -0.0093896 -0.0066814
0.004052 -0.0016937 0.00098133 -0.0062046 -7.7771e-05 -0.0021454 0.0080803 0.028152
-0.10763 0.17944 0.0056336 0.018537
-0.0028672 -0.0021225 -0.00050849 -0.0023112 0.0014668 -0.00011926 -0.0093489 -0.0066884
0.0055729 0.018689 -0.15793 0.25132
1040000000 -0.0059293 0.3007 0.033434 0.017286 -0.0012302 0.0068948 0.0028274 0.00074326
0.00016604 -0.0036269 -0.00063906 -0.0013614
0.03341 0.01725 -0.1714 0.35824 0.028981 -0.015299 0.0014535 -0.0017007
-0.0026404 -0.0023058 -0.0014995 -0.0026412
-0.0011951 0.00689 0.02896 -0.015407 0.16085 0.29706 -0.00056003 -0.0013846
-0.0016341 -0.0007336 -0.00043531 -0.00099539
0.0028082 0.00075679 0.0014855 -0.0017221 -0.00055553 -0.0013803 -0.047551 0.28082
0.018719 0.016549 -0.003218 0.0018857
0.00011329 -0.003599 -0.0026862 -0.0022764 -0.0016474 -0.00074003 0.018755 0.01651
-0.077068 0.18766 0.013754 0.017543
-0.00064711 -0.0013768 -0.0015337 -0.0027406 -0.00044108 -0.0010015 -0.0031514 0.0018781
0.013745 0.017609 -0.13632 0.27262
1100000000 0.03983 0.30769 0.035691 -0.0050946 0.00285 0.003787 0.0025845 -0.0014555
-0.0020113 -0.0030215 -0.0038818 2.1531e-05
0.035663 -0.0050903 -0.12791 0.37507 0.014541 -0.027969 3.2975e-05 -0.0018412
-0.0032636 -0.00031537 -0.0034623 -0.00041196
0.0028679 0.0037826 0.014437 -0.028049 0.20743 0.27616 -0.0018154 0.00031869
-0.0016677 0.00075426 -0.00095399 -0.00028293
0.0025788 -0.0014717 3.8807e-05 -0.0018244 -0.0018139 0.00032664 -0.0068727 0.28549
0.022805 0.0041549 -0.0024439 0.00086459
-0.0020487 -0.0029989 -0.0033005 -0.00030487 -0.0016557 0.00075847 0.022819 0.0041077
-0.058729 0.2003 0.018792 0.0079694
-0.0039096 3.8082e-05 -0.003538 -0.00042866 -0.00095619 -0.00027467 -0.002448 0.00091318
0.018808 0.0080113 -0.089671 0.30198
1160000000 0.091433 0.3021 0.023407 -0.021423 0.0025537 -0.00049413 -3.477e-06 -0.0025351
-0.0041429 -0.00041702 -0.00090896 0.0041207
0.0234 -0.021407 -0.083935 0.37924 -0.0043023 -0.028923 -0.0018257 -0.0015935
-0.0023257 0.002778 -0.0012936 0.001635
0.0025433 -0.00050733 -0.0044206 -0.028929 0.25051 0.24464 -0.00053155 0.0017425
-0.0002189 0.0018519 -0.00098889 0.00016095
-2.0824e-05 -0.0025393 -0.0018038 -0.0015888 -0.00053171 0.0017366 0.032508 0.28262
0.018809 -0.01066 -0.0029525 0.0056618
-0.0041443 -0.00040084 -0.0023416 0.0028292 -0.00021262 0.001872 0.018815 -0.010699
-0.026025 0.20969 0.017502 -6.0292e-05
-0.00086281 0.0040866 -0.0012887 0.0016644 -0.00097834 0.00015558 -0.0029798 0.0056396
0.017531 1.2202e-05 -0.042737 0.30524
1220000000 0.13605 0.29016 0.0095277 -0.030222 -0.0016113 -0.00071238 -0.00010941 -0.0011773
-0.0025884 0.0025891 0.00132 0.0019576
0.0095456 -0.030192 -0.039509 0.3907 -0.017186 -0.020698 -0.0025401 0.00049932
0.00042851 0.002959 -0.00063921 0.0018445
-0.0016173 -0.00069804 -0.017313 -0.020642 0.28923 0.20488 0.00098923 0.0015498
0.00073261 0.0010666 0.00032911 0.00067687
-0.00011499 -0.0011694 -0.0025355 0.00050971 0.00097714 0.0015487 0.072293 0.27378
0.0084368 -0.015972 0.0026745 0.0019019
-0.002568 0.0026001 0.00043318 0.0029738 0.00072555 0.0010496 0.0084266 -0.016005
-0.0027895 0.21958 0.013154 -0.012881
0.0013152 0.0019594 -0.00063328 0.0018624 0.00031739 0.00067541 0.002648 0.0018889
0.013118 -0.012893 -0.010408 0.32153
1280000000 0.18556 0.2674 -0.0087027 -0.028176 -0.0017788 0.0026074 -0.0011289 -0.0020842
-0.00056811 0.0032046 0.0025935 0.0010085
-0.0086688 -0.028138 0.0065794 0.3814 -0.023678 -0.007986 -0.00094845 0.0015047
0.0018074 0.0015292 0.00053951 0.0019248
-0.0017723 0.0026023 -0.023735 -0.0078934 0.31915 0.16061 0.0014163 -0.00024088
0.00097067 -1.9521e-05 0.00033036 0.00036349
-0.0011279 -0.0020883 -0.00090755 0.0015018 0.001424 -0.00024802 0.10871 0.25752
-0.00067558 -0.01707 0.00059556 0.00032285
-0.00056865 0.0032137 0.0018294 0.0015303 0.00098005 -4.4535e-05 -0.00069321 -0.017084
0.034081 0.22369 0.0023543 -0.014672
0.0025953 0.00098502 0.00055714 0.0019175 0.00032119 0.00036098 0.00060152 0.0003541
0.0024137 -0.014705 0.037192 0.32302
1340000000 0.22244 0.23281 -0.018212 -0.018272 0.0010225 0.0044347 -0.0020364 -0.00072978
0.001486 0.0025835 0.0016475 -0.0015583
-0.018185 -0.018263 0.046179 0.37237 -0.021371 0.0046186 2.6596e-05 0.0019038
0.0018082 0.00047807 0.0013718 0.00077426
0.0010375 0.0044285 -0.021362 0.0047238 0.34067 0.11261 0.00091267 -0.00098322
0.00052606 -0.00044939 0.00017935 0.00019794
-0.0020403 -0.00072869 3.2887e-05 0.0019252 0.00091346 -0.0009928 0.1415 0.23722
-0.0086023 -0.01357 0.0014228 0.00016412
0.0015161 0.0025752 0.0018165 0.00046702 0.00053312 -0.00044837 -0.0086415 -0.013562
0.065155 0.21945 -0.0041536 -0.012915
0.0016474 -0.0015632 0.0013683 0.00078194 0.00020303 0.00017459 0.0014088 0.00018402
-0.0041676 -0.012946 0.076439 0.31821
1400000000 0.25493 0.19391 -0.023474 -0.0066359 0.0052329 0.003099 -0.0021344 0.00081218
0.0025276 0.00064748 0.00013401 -0.0013782
-0.023445 -0.0066397 0.082997 0.35875 -0.014456 0.012576 0.0013726 0.0011329
0.0008331 -0.00096746 0.0011586 0.00025001
0.0052415 0.0030673 -0.014411 0.012661 0.35319 0.059222 -4.2483e-05 -0.0014921
-4.4918e-05 -0.00032175 0.00032326 0.00028466
-0.0021281 0.00082274 0.0013768 0.0011408 -3.9548e-05 -0.0014991 0.1713 0.20882
-0.013238 -0.0070387 -0.00034033 -0.00065922
0.0025326 0.00063833 0.00082733 -0.00097703 -7.2147e-05 -0.00030907 -0.01327 -0.0070124
0.098799 0.21459 -0.010306 -0.0079421
0.00012518 -0.0013948 0.0011657 0.00022652 0.00032906 0.00030762 -0.0003415 -0.00060326
-0.010363 -0.0079571 0.12127 0.30684
1460000000 0.27726 0.1492 -0.020115 0.0053768 0.005582 -0.0018422 -0.0014922 0.0018808
0.0020383 -0.00081971 -0.00038052 -0.00089929
-0.020102 0.0053635 0.11689 0.33644 -0.0057677 0.015176 0.0016324 9.3514e-05
0.00062577 -0.0011033 0.0011257 -0.00060699
0.0055718 -0.0018509 -0.0057012 0.015226 0.35892 0.0050912 -0.0012104 -0.0010925
0.00025213 -0.00012658 0.00062085 -0.00035344
-0.0014819 0.0018911 0.0016283 8.6888e-05 -0.001228 -0.0010857 0.1982 0.17967
-0.013137 -0.0012633 -0.00082027 0.0014573
0.0020297 -0.00084138 0.00060756 -0.001114 0.00024515 -0.0001285 -0.013155 -0.0012305
0.12933 0.1997 -0.011474 -0.00234
-0.00037987 -0.00091004 0.0010994 -0.00062539 0.00065251 -0.00037763 -0.00082414 0.0014775
-0.011535 -0.0023505 0.15431 0.28562
1520000000 0.28868 0.10692 -0.014156 0.010745 0.003178 -0.0042094 0.00026448 0.0026298
0.0016243 -0.0018199 -0.0011688 -8.3793e-05
-0.014152 0.010722 0.14988 0.32131 0.0017017 0.012903 0.0015232 -0.00081578
-1.2137e-05 -0.0007638 0.00027708 -0.00097489
0.0031693 -0.0042239 0.0017703 0.01291 0.35226 -0.051029 -0.00090123 -0.00023054
0.00060559 -0.00081026 9.5108e-06 -0.00011538
0.00027339 0.0026301 0.0015186 -0.00081644 -0.0009037 -0.00023081 0.22208 0.14138
-0.011692 0.0031965 0.0012404 0.0016116
0.001607 -0.0018355 -2.846e-05 -0.00076879 0.00060673 -0.00081941 -0.011679 0.0032306
0.15801 0.18441 -0.01123 0.0021191
-0.0011637 -8.2647e-05 0.00025028 -0.00098521 -1.8332e-05 -0.00012175 0.0012578 0.0016287
-0.011294 0.0021071 0.18763 0.2651
1580000000 0.29717 0.060346 -0.0074454 0.013484 -0.0010189 -0.0049089 0.0015269 0.0017677
-0.00057209 -0.0020331 -0.00026247 0.0003938
-0.0074541 0.013467 0.17661 0.29645 0.0052341 0.0080495 0.00040858 -0.0015005
-0.0003217 -0.00080512 -0.00025357 -0.00086838
-0.0010496 -0.0049165 0.005288 0.0080391 0.33186 -0.1085 -0.0013426 0.00055953
-0.00032551 -0.0010782 0.00015647 -0.00056139
0.001538 0.0017727 0.00039954 -0.0015032 -0.0013392 0.00055789 0.23666 0.10129
-0.0084373 0.0065059 0.0019312 0.00046339
-0.0006041 -0.0020315 -0.00033607 -0.00081248 -0.00032795 -0.0010612 -0.0084154 0.00655
0.18275 0.16528 -0.0086899 0.0074372
-0.00026934 0.00040755 -0.00026699 -0.00084859 0.00015569 -0.00054397 0.00195 0.0004503
-0.0087328 0.0074815 0.21974 0.23837
1640000000 0.29828 0.018626 -0.00086623 0.012099 -0.0028103 -0.0025661 0.0026064 0.00087638
-0.00093912 -0.0010144 -0.00027204 0.00063895
-0.00087656 0.012087 0.20565 0.27131 0.005836 0.0033485 -0.00070785 -0.0015737
-0.0007723 -0.00042197 -0.000516 -0.00066083
-0.0028096 -0.0025569 0.0058758 0.0033208 0.30363 -0.15734 -0.00071695 0.0012256
-0.0010531 -0.00079229 -9.8284e-05 -0.00035778
0.0026115 0.00086857 -0.0007035 -0.0015638 -0.00071129 0.0012134 0.24914 0.051388
-0.0049853 0.006565 0.0021193 -0.00085979
-0.00095107 -0.0010082 -0.00079049 -0.00041674 -0.0010602 -0.00077635 -0.0049696 0.0065779
0.20592 0.13915 -0.0039632 0.0093106
-0.00026636 0.00066884 -0.0005398 -0.00065432 -7.923e-05 -0.00034701 0.0021521 -0.00087285
-0.0039895 0.0093562 0.24566 0.20706
1700000000 0.28978 -0.026642 0.0024067 0.0090754 -0.0034952 9.2099e-05 0.0028664 -0.0012066
-0.0017519 -0.00029305 0.0006429 0.00035892
0.0023905 0.0090695 0.22336 0.23995 0.0038402 0.00053257 -0.0013528 -0.00054159
-0.00068526 -0.00014547 -0.00093513 -0.00041603
-0.0034918 0.00010409 0.0038687 0.00049977 0.26033 -0.19747 0.00031017 0.0014001
-0.0017428 -0.00026468 -0.00065136 -0.00097079
0.0028714 -0.0012137 -0.0013537 -0.00053444 0.00031138 0.0013972 0.24556 0.00039224
-0.0034857 0.0063539 0.001259 -0.0020959
-0.0017656 -0.00027131 -0.00068621 -0.00014328 -0.0017351 -0.00027321 -0.0034743 0.0063707
0.22303 0.11693 0.00071196 0.0094098
0.00063199 0.00033667 -0.00092857 -0.00042714 -0.00061627 -0.00097153 0.0012643 -0.0021018
0.00070919 0.009447 0.26211 0.17232
1760000000 0.27656 -0.074761 0.0044183 0.0057759 -0.0022405 0.00089869 0.0012122 -0.0033478
-0.00092754 0.00070426 0.00037507 -0.0004515
0.0044088 0.0057692 0.24906 0.20021 0.0015224 -0.0011564 -0.001064 0.00015763
-0.0011524 0.00066345 -0.00061858 0.00053973
-0.0022599 0.00093073 0.0015163 -0.0011638 0.211 -0.23083 0.0010007 0.0012468
-0.0011178 0.0012473 -0.0014637 -0.00039422
0.0012123 -0.0033471 -0.0010671 0.0001679 0.00098583 0.001235 0.23523 -0.051829
-0.0016615 0.0056265 -0.00065471 -0.002191
-0.00091328 0.00071752 -0.0011543 0.00068212 -0.0010961 0.0012453 -0.0016416 0.0056321
0.23769 0.079713 0.0042869 0.0064083
0.000361 -0.00045973 -0.00063253 0.00053717 -0.0014873 -0.00042125 -0.00064653 -0.0022168
0.0043283 0.00646 0.2749 0.13447
1820000000 0.25094 -0.11149 0.004423 0.0022647 -0.00011171 0.0024451 -0.0010184 -0.0029687
-0.00069198 0.00051256 -2.6022e-05 -0.00010177
0.0044146 0.0022689 0.25876 0.17018 -0.00036248 -1.4621e-07 -0.0013593 0.00077821
-0.0002866 0.0012487 -0.00052549 0.00054317
-0.0001184 0.002438 -0.00034902 4.2641e-06 0.16072 -0.24651 0.0014561 0.00048196
-0.00040337 0.0020071 -0.0013482 0.00066588
-0.0010525 -0.0029739 -0.0013663 0.00076696 0.0014756 0.000494 0.20378 -0.09934
-0.0011842 0.0044409 -0.001787 -0.0013206
-0.00068679 0.00051302 -0.00027581 0.0012481 -0.00039114 0.0020254 -0.0011712 0.0044471
0.25335 0.04822 0.0050988 0.002816
-1.9159e-05 -7.8792e-05 -0.00054732 0.00056557 -0.001371 0.000638 -0.0017587 -0.0013419
0.0051268 0.0028551 0.27713 0.097895
1880000000 0.21513 -0.15049 0.0020799 0.00017162 -0.00028717 0.0021448 -0.0028631 -0.0020945
-0.000333 0.0012926 0.0002978 -0.00052908
0.002084 0.00017799 0.26308 0.12377 -0.0022019 0.0016839 -0.00028298 0.0016601
0.00044754 0.0013984 0.00020793 0.00096061
-0.00028811 0.0021502 -0.0022081 0.001694 0.10886 -0.25578 0.0018606 -0.00092948
0.00141 0.0019622 -0.00084941 0.0015191
-0.0028858 -0.002081 -0.00025585 0.0016764 0.001861 -0.00092667 0.16203 -0.13862
-0.0014315 0.0035861 -0.002381 0.00072502
-0.0003278 0.001285 0.00046143 0.0014043 0.0013848 0.00196 -0.0014278 0.0035953
0.25407 0.013374 0.0046045 0.00069293
0.00025239 -0.00055894 0.00020359 0.00096618 -0.00089191 0.0015388 -0.0024053 0.0007521
0.0046255 0.00069431 0.27689 0.063683
1940000000 0.17569 -0.17546 -0.00013509 -0.0014086 0.0013775 0.0020157 -0.0036849 0.00058336
0.0010158 0.00098339 -0.0006497 -0.00053044
-0.00013087 -0.0014038 0.26343 0.091929 -0.0010878 0.0038425 0.00091106 0.001371
0.001927 0.00074809 0.00087691 0.00024644
0.001334 0.0020065 -0.0010612 0.0038417 0.062611 -0.24941 0.00039937 -0.0023658
0.0023854 0.00062752 0.00047182 0.0016312
-0.0036908 0.00059954 0.00091594 0.001375 0.0004103 -0.0023486 0.10884 -0.1677
-0.0027078 0.0036388 -0.0012333 0.0019127
0.00099313 0.00095672 0.0019221 0.00073432 0.002379 0.00062096 -0.0026964 0.0036371
0.25293 -0.027258 0.0031201 -0.002419
-0.00070061 -0.00053917 0.00086674 0.00027592 0.00048009 0.0016864 -0.0012564 0.0019229
0.00313 -0.0024087 0.26556 0.02729
2000000000 0.12962 -0.18892 -0.0038989 0.00068369 0.0024326 0.0016306 -0.0022302 0.0035638
0.00097264 0.00043893 -0.00051658 0.0004127
-0.0038947 0.00069872 0.249 0.056422 -0.00096452 0.0055215 0.0017005 0.00033054
0.0017248 -0.001373 0.0005474 0.00012676
0.0024303 0.0015637 -0.00090501 0.0055326 0.018756 -0.23522 -0.0013221 -0.0014737
0.0021501 -0.0011615 0.0017026 0.0012064
-0.0022077 0.0035549 0.0016965 0.00031957 -0.001314 -0.0014818 0.055427 -0.17608
-0.0041764 0.0048102 0.00014453 0.0023073
0.00099027 0.00041676 0.0017227 -0.0013872 0.0021387 -0.0011735 -0.0041604 0.0048385
