!Keysight Technologies,M9804A,MY58100912,A.14.10.03
!Date: Thursday, April 27, 2023 10:28:33
!Correction: S11(C  6-Port  ) 
!S12(C  6-Port  ) 
!S13(C  6-Port  ) 
!S14(C  6-Port  ) 
!S15(C  6-Port  ) 
!S16(C  6-Port  ) 
!S21(C  6-Port  ) 
!S22(C  6-Port  ) 
!S23(C  6-Port  ) 
!S24(C  6-Port  ) 
!S25(C  6-Port  ) 
!S26(C  6-Port  ) 
!S31(C  6-Port  ) 
!S32(C  6-Port  ) 
!S33(C  6-Port  ) 
!S34(C  6-Port  ) 
!S35(C  6-Port  ) 
!S36(C  6-Port  ) 
!S41(C  6-Port  ) 
!S42(C  6-Port  ) 
!S43(C  6-Port  ) 
!S44(C  6-Port  ) 
!S45(C  6-Port  ) 
!S46(C  6-Port  ) 
!S51(C  6-Port  ) 
!S52(C  6-Port  ) 
!S53(C  6-Port  ) 
!S54(C  6-Port  ) 
!S55(C  6-Port  ) 
!S56(C  6-Port  ) 
!S61(C  6-Port  ) 
!S62(C  6-Port  ) 
!S63(C  6-Port  ) 
!S64(C  6-Port  ) 
!S65(C  6-Port  ) 
!S66(C  6-Port  ) 
!S6P File: Measurement: :
# Hz S  RI   R 50
500000000 -0.33347 -0.029422 -0.0085485 -0.0035651 -0.0077194 0.01139 -0.00422 0.01173
0.012442 0.0039885 -0.0045609 0.0071259
-0.0091054 -0.0047253 -0.41836 -0.047636 0.0074833 -0.01156 0.0014504 0.011149
0.0078336 0.0024924 0.0013094 0.012502
-0.0080303 0.011645 0.0074602 -0.011523 -0.26437 0.21262 0.0070013 0.0031563
-2.3811e-05 0.0088109 0.00087625 0.012094
-0.0030481 0.010707 0.0019857 0.011313 0.0070807 0.0029936 -0.32564 0.050409
-0.018467 -0.0059872 0.018237 0.025264
0.01211 0.0036769 0.0079651 0.0022732 -0.00013847 0.0084654 -0.018527 -0.0058946
-0.22858 -0.1755 -0.025855 0.0035932
-0.0044862 0.006141 0.0014706 0.012702 0.00088297 0.011894 0.018271 0.025166
-0.02589 0.0035524 -0.27323 -0.12272
560000000 -0.31013 0.12779 -0.023803 -0.062477 -0.00052906 0.012277 0.0066536 0.0092479
0.012128 0.0030933 0.0090433 0.007741
-0.023073 -0.062545 -0.37559 0.11156 -0.04193 -0.036109 0.013153 0.0031276
-0.013261 -0.0038821 0.0041636 -0.00079795
-0.0003805 0.012469 -0.042277 -0.036486 -0.18226 0.25961 -0.00033497 -0.0050625
0.018259 0.0036328 0.0072107 -0.0067274
0.0066435 0.0095771 0.013129 0.0034275 -0.00099142 -0.0048764 -0.30135 0.13747
0.004863 -0.025409 0.0056187 -0.019374
0.012315 0.0035733 -0.012266 -0.0035611 0.01817 0.0038312 0.0047749 -0.025346
-0.28484 -0.0044606 0.0075475 -0.050477
0.0094263 0.0077664 0.003709 0.00060276 0.0071325 -0.0063645 0.0055792 -0.019408
0.0076013 -0.050431 -0.33165 0.024647
620000000 -0.26869 0.10991 -0.022579 0.0059916 0.0031789 0.0082444 0.0073435 -0.0060647
0.010509 -0.0008635 0.0011274 -0.0021448
-0.02264 0.0061519 -0.40236 0.064162 -0.018556 -0.00019323 -0.0015171 -0.0019494
0.010495 -0.0075328 0.0010435 -0.0026288
0.0031589 0.0081366 -0.018656 -7.2266e-05 -0.15214 0.26843 -0.0015092 -0.0051427
-0.0040221 -0.0034092 0.0083256 -0.0035823
0.0067329 -0.0065857 -0.0016482 -0.0019892 -0.0014135 -0.0053416 -0.25973 0.14709
-0.038364 -0.019472 0.014482 0.024093
0.010539 -0.00047097 0.010556 -0.0073582 -0.0039375 -0.0038306 -0.038393 -0.01932
-0.20438 -0.041384 -0.039358 0.013791
0.00041919 -0.0019983 0.00070663 -0.0026932 0.0084038 -0.0037773 0.014541 0.024011
-0.039411 0.01378 -0.25177 -0.011471
680000000 -0.22778 0.1915 -0.028094 -0.015073 0.0047895 0.0050004 0.00037926 -0.0074056
-0.0032605 -0.011305 0.0042839 -0.0070124
-0.028199 -0.014963 -0.38625 0.16106 -0.032573 -0.0011554 -0.001932 -0.00048401
-0.0028404 -0.0086816 -0.00097102 -0.0026521
0.0049761 0.0052584 -0.032475 -0.00097685 -0.10143 0.28793 -0.00087278 9.5511e-05
-0.0023379 0.00084109 -0.0029965 -0.0096135
0.00014171 -0.0078775 -0.0017807 -0.00032902 -0.00079656 -4.5121e-05 -0.21837 0.196
-0.022914 -0.0087404 -0.010787 -0.009434
-0.0040703 -0.010577 -0.0031892 -0.0086366 -0.0024805 0.00086146 -0.022929 -0.0087329
-0.24866 0.053569 -0.0043773 -0.010867
0.004468 -0.0066904 -0.00082524 -0.0023953 -0.0028777 -0.009915 -0.010781 -0.0094313
-0.0043488 -0.010872 -0.2623 0.091696
740000000 -0.1875 0.18602 -0.039034 0.02512 0.012564 -0.0051482 -0.0012809 -0.0042125
-0.0041753 -0.0017751 -0.0063389 0.0026978
-0.039214 0.025294 -0.33459 0.17964 -0.034625 0.034712 -0.00099009 -0.0061225
-0.011735 0.0079478 -0.0027929 -0.0059223
0.012739 -0.0048515 -0.034512 0.034754 -0.067871 0.28722 -0.0013219 0.0034941
-0.0033473 -0.0036273 -0.00090139 0.00069085
-0.001214 -0.0046274 -0.00081936 -0.006095 -0.0013176 0.0035484 -0.20119 0.20328
-0.041697 -0.0077365 0.022255 0.012298
-0.0051409 -0.0024519 -0.011491 0.0074243 -0.0033614 -0.0035605 -0.041737 -0.0077556
-0.15733 0.075047 -0.041116 0.0013255
-0.0065169 0.002987 -0.0028973 -0.0059481 -0.00084501 0.00090411 0.022233 0.01231
-0.041103 0.0012691 -0.25049 0.099011
800000000 -0.15757 0.2254 -0.023721 0.017307 0.0050829 -0.010244 -0.0050611 -0.0018726
-0.0038932 0.0033433 0.0040098 0.0012466
-0.023728 0.017203 -0.33676 0.25001 -0.0078359 0.034045 -0.0020445 0.0025161
-0.00043313 0.0034201 0.00094395 0.0057342
0.0049506 -0.010299 -0.0077027 0.034092 -0.026593 0.3101 0.0013478 0.001594
0.00072646 0.003752 -0.0018395 0.0012174
-0.0053079 -0.0016654 -0.0022171 0.0025649 0.0012445 0.0016614 -0.17347 0.2309
-0.028473 0.012624 0.012898 -0.0096931
-0.0043236 0.0034187 -0.00042837 0.003671 0.00079514 0.0036349 -0.028432 0.012667
-0.19762 0.098612 -0.01779 0.017438
0.003863 0.0012524 0.0010367 0.0058893 -0.002101 0.0013641 0.012903 -0.0097211
-0.017751 0.01741 -0.24338 0.15284
860000000 -0.12361 0.24784 -0.017751 0.03171 -0.003453 -0.0095656 -0.0026747 0.0015308
0.0048929 0.0050383 -0.0028001 -0.0030221
-0.017918 0.031796 -0.28845 0.29167 0.0083619 0.034099 0.00041467 0.0020771
0.004797 0.00039502 0.0034254 0.00024557
-0.0035554 -0.009414 0.0083785 0.034059 0.022038 0.31767 -0.00021178 -0.00033777
0.0030313 -0.0014407 0.001543 0.0044569
-0.0025816 0.0013847 0.00046337 0.0020246 -0.00020732 -0.00025005 -0.13787 0.24297
-0.01787 0.018481 -0.0064881 -0.0093516
0.0052276 0.0051212 0.0047404 0.00040088 0.0030192 -0.0014567 -0.017861 0.018494
-0.14847 0.1466 -0.023867 0.015202
-0.0030429 -0.0029595 0.0034027 0.00053003 0.0016509 0.0045797 -0.0065053 -0.0093866
-0.023862 0.015163 -0.19306 0.19452
920000000 -0.09854 0.27206 0.0049075 0.03855 -0.0092486 -0.0038862 -0.0015515 0.0026166
0.0017139 0.0013339 0.0022721 -0.0012434
0.004959 0.038528 -0.2593 0.31216 0.028192 0.021455 0.001786 0.00091873
0.006725 -0.00085598 0.003829 -0.0029786
-0.0092942 -0.0038666 0.028213 0.021403 0.068401 0.31775 0.0017764 -0.00022942
0.001311 -0.00039571 0.00084421 -0.0011906
-0.0015639 0.0027257 0.0017258 0.00099518 0.0018328 -0.0002135 -0.1135 0.25923
-0.010706 0.02952 0.0024281 -0.0063152
0.0016728 0.0016182 0.0066034 -0.00078305 0.0013585 -0.00046058 -0.010637 0.029595
-0.13799 0.15339 -0.0028252 0.026624
0.0023747 -0.0012521 0.0037885 -0.0029129 0.00089997 -0.0011439 0.0023761 -0.0063372
-0.0028382 0.026636 -0.19893 0.2096
980000000 -0.050768 0.29215 0.018241 0.030475 -0.0084984 0.004811 0.0027588 0.003781
0.004142 -0.0018937 -0.0030374 -0.0022345
0.018173 0.030598 -0.20641 0.34537 0.032834 0.0042801 0.0019691 -0.0001236
0.0011977 -0.0062111 -0.00055312 -0.0023156
-0.008459 0.0049198 0.032808 0.0041548 0.11468 0.31072 0.00038435 -0.0012697
1.0793e-05 -0.0021702 0.0016538 -0.00019889
0.0027804 0.0037944 0.0020325 -0.00015863 0.00038892 -0.0012714 -0.075503 0.27073
0.007132 0.028028 -0.0096429 -0.006388
0.0042859 -0.0019546 0.0011103 -0.0061986 7.699e-06 -0.0021711 0.007179 0.028047
-0.10723 0.17921 0.0051166 0.018004
-0.0032221 -0.0021782 -0.00068458 -0.002545 0.0016187 -0.00021198 -0.0096292 -0.006393
0.0050901 0.018002 -0.15593 0.25339
1040000000 -0.0080982 0.30069 0.033674 0.017876 -0.00082962 0.006855 0.0030588 0.00068418
-9.4476e-05 -0.0040023 -0.00057909 -0.0012797
0.033644 0.017881 -0.1707 0.35824 0.028738 -0.015004 0.0014438 -0.0016674
-0.0025384 -0.0022561 -0.0014987 -0.002686
-0.00078582 0.0067767 0.028739 -0.015145 0.16077 0.29654 -0.00055704 -0.0013443
-0.001611 -0.00075382 -0.00055137 -0.0012272
0.0029765 0.00065521 0.0014802 -0.0017465 -0.0005647 -0.0013418 -0.047632 0.28095
0.017609 0.016661 -0.0029967 0.0024457
-0.00039027 -0.0038504 -0.0026117 -0.0021203 -0.001618 -0.00082083 0.017633 0.016647
-0.077325 0.18851 0.013149 0.017481
-0.00046901 -0.0013914 -0.0014337 -0.0028732 -0.0005461 -0.0012078 -0.0029985 0.0024731
0.013137 0.017464 -0.13385 0.27451
1100000000 0.038257 0.30818 0.035925 -0.0043957 0.0031822 0.0035599 0.0026585 -0.0016976
-0.0022911 -0.0030964 -0.0038099 0.00024743
0.03596 -0.0044606 -0.12737 0.37488 0.014561 -0.027596 -2.7502e-05 -0.0018185
-0.0030641 -0.00034047 -0.0035292 -0.00044547
0.0031592 0.0034679 0.014472 -0.02768 0.20688 0.27583 -0.0018148 0.00032044
-0.001624 0.000621 -0.0010156 -0.0002946
0.002792 -0.0016645 -2.3688e-05 -0.0017425 -0.0018025 0.00029428 -0.0070611 0.28566
0.02184 0.0048681 -0.0021909 0.0012792
-0.0023215 -0.0030551 -0.0031421 -0.00031928 -0.0016394 0.0006345 0.021866 0.0048171
-0.059108 0.202 0.018236 0.0083343
-0.003739 0.00016345 -0.0034691 -0.00046397 -0.0009846 -0.00034116 -0.0021748 0.0012985
0.018235 0.0083556 -0.087083 0.30313
1160000000 0.089558 0.3031 0.023932 -0.020883 0.0026903 -0.00078698 -0.00012221 -0.0028061
-0.0041617 -7.6709e-05 -0.00082927 0.0039884
0.023953 -0.020738 -0.083579 0.37871 -0.0040332 -0.028604 -0.0018008 -0.001522
-0.002234 0.0026916 -0.001313 0.0016048
0.0027382 -0.00083703 -0.0041415 -0.028582 0.24968 0.24477 -0.00052227 0.0017143
-0.00034333 0.0017891 -0.00098299 0.00015075
-9.8409e-05 -0.002773 -0.0018301 -0.0016284 -0.00052711 0.0017018 0.032422 0.28275
0.018301 -0.0093012 -0.0026113 0.0059107
-0.004204 -0.00016537 -0.0022254 0.0026505 -0.00031305 0.0018045 0.018292 -0.0093493
-0.02597 0.2117 0.016971 0.00027819
-0.00076224 0.0038524 -0.0013885 0.0016501 -0.00099277 0.00015846 -0.0026352 0.0058934
0.016979 0.00023906 -0.040213 0.30591
1220000000 0.13468 0.29162 0.010279 -0.029821 -0.0016304 -0.0010608 -0.00044491 -0.0012788
-0.0023648 0.002741 0.0014063 0.0018267
0.010339 -0.029805 -0.039446 0.39008 -0.016782 -0.020549 -0.0025216 0.00050384
0.00037018 0.0027592 -0.00063385 0.0017416
-0.0016426 -0.0010636 -0.01689 -0.020481 0.28862 0.20555 0.00091215 0.0015109
0.00060493 0.001094 0.00029446 0.00075349
-0.00044184 -0.0012375 -0.0025322 0.0004771 0.00090852 0.0014923 0.072175 0.27394
0.0086521 -0.014511 0.0031236 0.0018096
-0.0024054 0.002671 0.00033474 0.0027284 0.00057264 0.0010888 0.0086374 -0.014526
-0.0019056 0.22154 0.012906 -0.011982
0.0012787 0.0018398 -0.0006833 0.0017208 0.00027688 0.0007357 0.0031039 0.0018133
0.012898 -0.011963 -0.0079375 0.32218
1280000000 0.18414 0.26928 -0.0076669 -0.028163 -0.0019253 0.0023602 -0.0013547 -0.0018524
-0.0002686 0.0031164 0.0024029 0.0009324
-0.0076833 -0.02813 0.0061852 0.38084 -0.023253 -0.0081606 -0.00096 0.001496
0.0015891 0.0014438 0.00045071 0.0019999
-0.0019403 0.0023757 -0.023319 -0.0080923 0.31914 0.16154 0.0013239 -0.00018832
0.00092628 0.00012747 0.000314 0.0004296
-0.0013678 -0.0018065 -0.0009346 0.0015065 0.0013063 -0.00020043 0.10844 0.25791
0.00043403 -0.015839 0.00080369 -1.8759e-05
-0.00029316 0.0030687 0.0015772 0.0014399 0.00093337 0.00014569 0.000395 -0.01583
0.035662 0.22548 0.0026696 -0.014046
0.0025263 0.00089752 0.0004524 0.0020708 0.0003079 0.0004522 0.00080355 -3.3726e-05
0.0026775 -0.014057 0.039574 0.32327
1340000000 0.22172 0.2354 -0.01736 -0.018857 0.00066687 0.0042423 -0.0020014 -0.00044362
0.0016393 0.0023068 0.0015489 -0.0015051
-0.017342 -0.01884 0.045577 0.3722 -0.021112 0.0042409 -1.2303e-05 0.0019252
0.0015876 0.00059017 0.0013236 0.00080818
0.00071015 0.0042546 -0.021104 0.0043356 0.34117 0.11356 0.00090035 -0.00084303
0.00053038 -0.00029834 0.00032674 0.00017344
-0.0019743 -0.00037666 -1.6477e-05 0.001954 0.00089528 -0.00084653 0.14154 0.238
-0.0070299 -0.013087 0.0016361 -0.00021806
0.0017067 0.0023375 0.0016237 0.00057943 0.00049058 -0.00031657 -0.0070603 -0.013087
0.066764 0.22091 -0.003345 -0.012177
0.0015089 -0.0015372 0.0013512 0.00080192 0.00035232 0.00020628 0.0016211 -0.00022173
-0.0033339 -0.012164 0.078763 0.31805
1400000000 0.25499 0.19713 -0.022912 -0.0075795 0.0048991 0.0030676 -0.0018252 0.00090646
0.0024528 0.00041699 6.3515e-05 -0.0013197
-0.022888 -0.0075661 0.082371 0.35899 -0.01448 0.012116 0.0013536 0.001261
0.00083425 -0.00074172 0.001232 0.0003075
0.0048838 0.0030905 -0.014426 0.012218 0.35418 0.059668 3.9454e-05 -0.0013174
4.2989e-05 -0.00029258 0.00039174 0.00020928
-0.00182 0.00093048 0.0013378 0.001276 4.8651e-05 -0.0013372 0.17158 0.20957
-0.011471 -0.0075499 -0.0005389 -0.00106
0.0023901 0.00035919 0.0008146 -0.00072605 8.087e-05 -0.00030689 -0.011487 -0.0075326
0.10086 0.21566 -0.0092434 -0.007782
6.5943e-05 -0.0012912 0.0012087 0.00033781 0.00033743 0.00019288 -0.00051747 -0.0010628
-0.0092247 -0.0078023 0.12325 0.30679
1460000000 0.27889 0.15287 -0.020142 0.0042724 0.0053326 -0.0016446 -0.0012214 0.0017278
0.0016905 -0.00087691 -0.00037168 -0.00082834
-0.02012 0.0042443 0.1165 0.3371 -0.0061386 0.014851 0.001686 9.3939e-05
0.0007883 -0.0009258 0.001228 -0.00066835
0.0053125 -0.0016625 -0.006053 0.014909 0.35999 0.0048879 -0.00099783 -0.0011508
0.00030759 -0.0001176 0.00062912 -0.00040417
-0.0012655 0.0017245 0.00168 0.00010991 -0.00098426 -0.0011265 0.19893 0.18046
-0.011889 -0.0025142 -0.0011777 0.0010963
0.0016271 -0.00087916 0.00076976 -0.00092514 0.00031332 -0.0001263 -0.011905 -0.0024897
0.13136 0.2002 -0.010563 -0.0025236
-0.00028647 -0.00085845 0.0012064 -0.00065392 0.00064031 -0.00042186 -0.0011654 0.0010723
-0.010566 -0.0025128 0.15678 0.28487
1520000000 0.29204 0.10981 -0.014681 0.0098117 0.002978 -0.0038689 0.00021486 0.0022654
0.0013721 -0.0016229 -0.0011511 -0.00016355
-0.014686 0.0097905 0.14983 0.32205 0.0013171 0.012856 0.0015649 -0.00083503
0.0001964 -0.00083815 0.00028436 -0.0010803
0.0029717 -0.0038713 0.0013764 0.012849 0.35277 -0.051483 -0.0008171 -0.00041423
0.00057326 -0.00076589 -3.3713e-05 -4.4533e-05
0.00021191 0.0022547 0.0015608 -0.00084721 -0.00082683 -0.00039614 0.2231 0.14177
-0.011351 0.0013544 0.00071046 0.0014692
0.0013588 -0.0015843 0.00019036 -0.00083225 0.0005955 -0.00077104 -0.011345 0.0013819
0.16022 0.18449 -0.010591 0.0013912
-0.0011777 -0.00011488 0.0003152 -0.0010609 -7.6256e-05 -7.1293e-05 0.00071607 0.0014741
-0.01059 0.0013847 0.18982 0.2642
1580000000 0.30182 0.061577 -0.0083461 0.012852 -0.00091327 -0.0045466 0.0012469 0.0015542
-0.00056292 -0.0017934 -0.0003809 0.00029328
-0.0083479 0.012837 0.17697 0.29722 0.00491 0.0081719 0.00039986 -0.0015925
-0.00020278 -0.0011078 -0.00032842 -0.00092814
-0.00094667 -0.0045328 0.004976 0.0081568 0.33218 -0.10916 -0.0014865 0.00032701
-0.00030805 -0.0011522 0.00016585 -0.00054073
0.0012774 0.0016142 0.00039785 -0.0016272 -0.0014913 0.00036655 0.23799 0.10131
-0.0091176 0.0049295 0.0014876 0.0006379
-0.00058598 -0.0017615 -0.00021378 -0.0011018 -0.00026521 -0.0011203 -0.0091135 0.0049579
0.18485 0.16512 -0.0085103 0.0065743
-0.00034434 0.00025653 -0.00034621 -0.00094231 0.00015221 -0.00056541 0.0015059 0.00062909
-0.0085231 0.0065675 0.22164 0.23717
1640000000 0.30335 0.017575 -0.0019178 0.01207 -0.0026062 -0.0022375 0.0022807 0.0010534
-0.00068781 -0.00078727 -0.00038791 0.00069587
-0.0019326 0.012073 0.20638 0.27186 0.0056274 0.0036074 -0.00076224 -0.0016125
-0.00095516 -0.000655 -0.0006106 -0.00064187
-0.0026235 -0.002208 0.0056365 0.0035736 0.30352 -0.15819 -0.00099507 0.0012711
-0.001058 -0.00086324 -9.0869e-05 -0.00018232
0.0022679 0.00099544 -0.00076046 -0.0016006 -0.00098865 0.0012125 0.25054 0.050758
-0.0063083 0.005746 0.0018437 -0.00048153
-0.00067557 -0.00078732 -0.00095022 -0.00065382 -0.0010461 -0.0008224 -0.0062873 0.0057498
0.20808 0.13893 -0.0042507 0.0084211
-0.00043265 0.0006465 -0.00063162 -0.00064513 -0.00016155 -0.00025039 0.0018368 -0.00049839
-0.0042504 0.0084064 0.24733 0.20576
1700000000 0.29401 -0.029801 0.0015297 0.0095068 -0.0031312 0.00022925 0.0027756 -0.00082084
-0.0014909 -0.00034338 0.00053472 0.00050843
0.0015202 0.0094929 0.22426 0.24015 0.0037765 0.00079431 -0.0014153 -0.00052923
-0.00096516 -0.00012759 -0.00096432 -0.00033815
-0.003188 0.00026358 0.0037737 0.00076827 0.25975 -0.19794 0.0001907 0.0016819
-0.0017781 -0.00024874 -0.00056746 -0.00090977
0.0027778 -0.00079973 -0.0014182 -0.00052666 0.000186 0.0016975 0.2466 -0.00093776
-0.0048726 0.0063488 0.0012664 -0.0018103
-0.0015306 -0.00033779 -0.00097254 -0.00012532 -0.0017856 -0.00024673 -0.0048657 0.0063657
0.22531 0.11625 0.00014433 0.0089148
0.00056813 0.00056601 -0.00094293 -0.00032225 -0.00058048 -0.00089446 0.0012754 -0.0017934
0.00013805 0.0089051 0.26346 0.17067
1760000000 0.27913 -0.079772 0.0038573 0.0065163 -0.0019794 0.00070578 0.0015347 -0.0030526
-0.00083591 0.00059704 0.00057975 -0.00032158
0.0038571 0.006509 0.24999 0.1999 0.0016163 -0.00095558 -0.0011059 0.00028408
-0.0013873 0.00093509 -0.0005717 0.00059201
-0.0019532 0.00071399 0.0015959 -0.00097863 0.21033 -0.23094 0.0011247 0.0015355
-0.0011555 0.0013831 -0.0012922 -0.00043494
0.0015074 -0.0031258 -0.0010685 0.00027409 0.0011316 0.001486 0.23575 -0.05367
-0.002585 0.006257 -0.00049474 -0.0020408
-0.00078912 0.00054893 -0.0013251 0.00093879 -0.0011966 0.0014094 -0.0025593 0.0062576
0.24001 0.078711 0.0037112 0.0061409
0.00056498 -0.00032159 -0.00057673 0.00058795 -0.001307 -0.00048139 -0.00050484 -0.0020646
0.0037119 0.0061424 0.27572 0.13272
1820000000 0.25111 -0.11686 0.0043163 0.0030898 6.9695e-05 0.0021582 -0.00069557 -0.0030886
-0.00072201 0.00035775 0.00021246 -0.00010659
0.0043031 0.0030726 0.25945 0.1695 -0.00015612 0.00016425 -0.0013095 0.00086843
-0.00020112 0.0016447 -0.00042121 0.00060974
6.1632e-06 0.002193 -0.00012446 0.00012026 0.16061 -0.24605 0.0017639 0.00047744
-0.00033328 0.0022259 -0.0012904 0.00053611
-0.00070264 -0.0030997 -0.001326 0.00090089 0.0016937 0.00053719 0.20311 -0.1011
-0.0018001 0.0051891 -0.0015724 -0.0011107
-0.0007494 0.00032371 -0.00018412 0.0016694 -0.00032583 0.002242 -0.0017812 0.0052124
0.25552 0.046368 0.0044892 0.002855
0.00023229 -0.00013413 -0.00043543 0.00063241 -0.0012636 0.00053699 -0.0015768 -0.0011147
0.0044716 0.0028401 0.27762 0.096108
1880000000 0.21291 -0.15549 0.0022743 0.00093227 -0.00035617 0.0019036 -0.0027779 -0.0024129
-0.00054218 0.0013416 0.00059382 -0.00079338
0.0022668 0.00090199 0.26342 0.1229 -0.0020514 0.0017021 -7.7574e-05 0.0017259
0.00080739 0.0016286 0.00035027 0.0009518
-0.00039075 0.0018891 -0.0020478 0.0017596 0.10856 -0.25531 0.0020785 -0.0011024
0.0015322 0.0020358 -0.00089448 0.0014472
-0.0028304 -0.0025123 -9.6349e-05 0.001703 0.0021229 -0.0011231 0.16045 -0.13994
-0.0016599 0.0043375 -0.0022961 0.00080277
-0.00054379 0.0012202 0.00083654 0.0016264 0.0015223 0.0020945 -0.0016553 0.0043387
0.25587 0.010782 0.0039172 0.00093771
0.00048468 -0.00080894 0.00034587 0.00095239 -0.0008813 0.0013713 -0.0022816 0.00084328
0.0039212 0.00096298 0.277 0.062084
1940000000 0.17178 -0.17862 0.00028709 -0.0007838 0.0011331 0.0017767 -0.0039573 0.00029329
0.00095979 0.0010522 -0.00077814 -0.00077146
0.00030745 -0.00075876 0.26326 0.091019 -0.001013 0.0037875 0.0010185 0.0012588
0.0023475 0.00052082 0.00088865 0.00019267
0.001081 0.001703 -0.00096823 0.0038 0.062556 -0.24921 0.00029611 -0.0025521
0.0025622 0.0004854 0.00049048 0.0015606
-0.0039589 0.00037284 0.0010712 0.0012529 0.00030968 -0.0025319 0.1069 -0.16798
-0.0028177 0.0044131 -0.001075 0.0021067
0.0010611 0.0011357 0.0024237 0.00051655 0.0025926 0.00043191 -0.0028236 0.0044263
0.25369 -0.03044 0.0026186 -0.001856
-0.00081414 -0.00082931 0.0008863 8.1168e-05 0.00051999 0.001628 -0.0010872 0.002085
0.0026044 -0.0018575 0.26571 0.025929
2000000000 0.12499 -0.1901 -0.0032687 0.0011798 0.0023642 0.0016879 -0.0025347 0.0036305
0.0010529 0.00049297 -0.0011221 0.00040758
-0.0031932 0.0011334 0.2485 0.055772 -0.0008478 0.0055336 0.0016196 0.00015595
0.0017445 -0.0018987 0.00038164 -2.5753e-06
0.0023999 0.0017067 -0.00077213 0.005539 0.018774 -0.23485 -0.0016868 -0.0014593
0.0019665 -0.0014244 0.0015803 0.0012853
-0.0024692 0.0037301 0.0017284 0.00010868 -0.0016479 -0.0014547 0.054051 -0.17544
-0.003751 0.0056194 0.0002642 0.0021874
0.0010133 0.00058781 0.0017327 -0.0019214 0.0020361 -0.0014134 -0.0037523 0.0056471
