!Keysight Technologies,M9804A,MY58100912,A.14.10.03
!Date: Thursday, April 27, 2023 10:28:33
!Correction: S11(C  6-Port  ) 
!S12(C  6-Port  ) 
!S13(C  6-Port  ) 
!S14(C  6-Port  ) 
!S15(C  6-Port  ) 
!S16(C  6-Port  ) 
!S21(C  6-Port  ) 
!S22(C  6-Port  ) 
!S23(C  6-Port  ) 
!S24(C  6-Port  ) 
!S25(C  6-Port  ) 
!S26(C  6-Port  ) 
!S31(C  6-Port  ) 
!S32(C  6-Port  ) 
!S33(C  6-Port  ) 
!S34(C  6-Port  ) 
!S35(C  6-Port  ) 
!S36(C  6-Port  ) 
!S41(C  6-Port  ) 
!S42(C  6-Port  ) 
!S43(C  6-Port  ) 
!S44(C  6-Port  ) 
!S45(C  6-Port  ) 
!S46(C  6-Port  ) 
!S51(C  6-Port  ) 
!S52(C  6-Port  ) 
!S53(C  6-Port  ) 
!S54(C  6-Port  ) 
!S55(C  6-Port  ) 
!S56(C  6-Port  ) 
!S61(C  6-Port  ) 
!S62(C  6-Port  ) 
!S63(C  6-Port  ) 
!S64(C  6-Port  ) 
!S65(C  6-Port  ) 
!S66(C  6-Port  ) 
!S6P File: Measurement: :
# Hz S  RI   R 50
500000000 -0.33332 -0.029283 -0.0090729 -0.0043092 -0.0079869 0.01117 -0.0043495 0.011672
0.012611 0.004496 -0.0045801 0.0069721
-0.008971 -0.0042954 -0.41861 -0.047679 0.0072071 -0.011591 0.0014713 0.011152
0.0079175 0.0027291 0.0014473 0.012453
-0.0079975 0.01125 0.0074533 -0.011588 -0.26476 0.21254 0.0068496 0.0031549
0.0002978 0.0087618 0.00069582 0.011939
-0.0040696 0.01151 0.0015418 0.011086 0.0068789 0.0031006 -0.32592 0.050965
-0.01821 -0.005606 0.017987 0.025682
0.012464 0.0041571 0.007857 0.0026921 -0.00022799 0.0088073 -0.018032 -0.0062301
-0.2287 -0.17614 -0.025718 0.0037766
-0.0045263 0.0071295 0.0014516 0.012437 0.00063358 0.012 0.018039 0.025708
-0.025743 0.0036678 -0.27356 -0.12149
560000000 -0.30928 0.12758 -0.023364 -0.063225 0.000229 0.012209 0.0067371 0.0089499
0.011851 0.0029765 0.0093368 0.0075661
-0.023138 -0.063151 -0.37585 0.10987 -0.041635 -0.036249 0.013226 0.0028167
-0.012702 -0.0042174 0.0043739 -0.00068411
-1.2287e-05 0.012213 -0.042149 -0.036164 -0.18256 0.25981 -0.00015487 -0.0049025
0.01838 0.0038354 0.007036 -0.0065597
0.0070991 0.0090768 0.013763 0.0034303 -0.00014381 -0.0048662 -0.30133 0.1374
0.0042913 -0.025168 0.0058221 -0.019292
0.012151 0.0030741 -0.012752 -0.0040587 0.018441 0.0033837 0.0047935 -0.025183
-0.28574 -0.0035251 0.007525 -0.050662
0.0092259 0.0077012 0.0047519 -0.00062323 0.0074366 -0.0066676 0.0054483 -0.019305
0.0074424 -0.050547 -0.33103 0.024932
620000000 -0.26834 0.1112 -0.022507 0.0058872 0.0034257 0.0084382 0.0072862 -0.006141
0.010529 -0.0010163 0.0011547 -0.0023927
-0.022457 0.0060127 -0.40233 0.064274 -0.018674 -0.00013683 -0.0015739 -0.0019351
0.010461 -0.0075966 0.00090713 -0.0027103
0.00361 0.0083986 -0.018606 -0.00022024 -0.15229 0.26876 -0.0015932 -0.0050997
-0.0038466 -0.0034664 0.0083091 -0.0038263
0.0073769 -0.0060492 -0.0015107 -0.0019877 -0.0016121 -0.0050849 -0.25972 0.14728
-0.038418 -0.01952 0.014191 0.023928
0.01052 -0.0011942 0.010319 -0.007632 -0.004031 -0.0034357 -0.038444 -0.019341
-0.20455 -0.041371 -0.039061 0.013717
0.0011508 -0.0022761 0.00099091 -0.002718 0.0083172 -0.0034612 0.014441 0.024165
-0.039207 0.013528 -0.25198 -0.010805
680000000 -0.2278 0.19111 -0.028354 -0.014927 0.0047243 0.0049872 0.00039287 -0.0073884
-0.0033485 -0.011068 0.0043395 -0.0070149
-0.028428 -0.014942 -0.38651 0.16104 -0.032612 -0.0010485 -0.0018898 -0.00050473
-0.0029504 -0.0086676 -0.00091673 -0.0026334
0.0046667 0.0051174 -0.032674 -0.0010273 -0.10143 0.28808 -0.00084656 5.3597e-05
-0.002367 0.00092995 -0.002983 -0.0096529
0.00010738 -0.0076293 -0.0018863 -0.00043402 -0.00082373 2.2923e-05 -0.21842 0.19595
-0.023388 -0.0088778 -0.010805 -0.0096507
-0.0033338 -0.011136 -0.002976 -0.0087262 -0.0024154 0.00081792 -0.023023 -0.0086829
-0.24856 0.054034 -0.0045678 -0.010584
0.0043047 -0.0070046 -0.00082765 -0.0026931 -0.0029602 -0.0096217 -0.010674 -0.0095614
-0.0046612 -0.010446 -0.26237 0.091776
740000000 -0.18692 0.18537 -0.039397 0.025379 0.012642 -0.00523 -0.0011897 -0.0042312
-0.0039726 -0.0021142 -0.0063998 0.0028102
-0.039393 0.025389 -0.33458 0.17979 -0.034679 0.034556 -0.00099873 -0.0061427
-0.011715 0.0078316 -0.0026055 -0.005637
0.012551 -0.0053223 -0.03451 0.03502 -0.067726 0.28723 -0.0012373 0.0035184
-0.0030382 -0.0039447 -0.0010289 0.00076023
-0.0013008 -0.0041787 -0.00071584 -0.0060113 -0.0012493 0.0035836 -0.20113 0.20324
-0.041805 -0.0079901 0.022321 0.012685
-0.0039945 -0.001886 -0.011714 0.007913 -0.0033319 -0.0037133 -0.041754 -0.0073273
-0.15757 0.075121 -0.041015 0.00082938
-0.0064478 0.0028168 -0.0025096 -0.0057313 -0.00087345 0.0008262 0.022212 0.012143
-0.041117 0.00056066 -0.25001 0.10012
800000000 -0.15717 0.22549 -0.023625 0.017199 0.0051127 -0.010231 -0.0050319 -0.001919
-0.0039505 0.0032723 0.0039895 0.001234
-0.023541 0.017162 -0.33682 0.25003 -0.0077506 0.034048 -0.0020596 0.002495
-0.00045396 0.0034024 0.00089484 0.005707
0.0050034 -0.010331 -0.0076775 0.034105 -0.026515 0.31005 0.0013409 0.0016005
0.00073633 0.0038474 -0.0017834 0.0012258
-0.0050202 -0.0017732 -0.0020393 0.002485 0.0013275 0.0016028 -0.17337 0.23099
-0.02841 0.012545 0.012811 -0.0096479
-0.0038475 0.0032352 -0.0004806 0.003417 0.00084009 0.0037226 -0.028379 0.012754
-0.19763 0.099222 -0.017776 0.017396
0.0040186 0.0012299 0.00099089 0.0056934 -0.001827 0.0011707 0.012918 -0.0096946
-0.017822 0.017221 -0.24357 0.15339
860000000 -0.12343 0.24764 -0.017739 0.031865 -0.0035047 -0.0096134 -0.0026393 0.0015156
0.0048138 0.0052141 -0.0027105 -0.0031201
-0.017688 0.031808 -0.28841 0.29192 0.0083174 0.034041 0.00044531 0.0020703
0.004804 0.00021126 0.0033744 0.0002222
-0.0035033 -0.0095961 0.008424 0.034019 0.022012 0.31767 -0.00021231 -0.00034037
0.0029465 -0.0015149 0.0015596 0.0044291
-0.0026673 0.0015212 0.00048369 0.0020593 -0.00020648 -0.00033153 -0.13776 0.24307
-0.01782 0.018392 -0.0064235 -0.009259
0.0049163 0.0050922 0.0047389 0.00017737 0.002957 -0.0014469 -0.01787 0.01867
-0.14833 0.14659 -0.023865 0.015073
-0.0027022 -0.0030718 0.0033699 0.00033123 0.001565 0.0044618 -0.0063491 -0.0094002
-0.023905 0.014812 -0.19243 0.1949
920000000 -0.098287 0.27214 0.0048492 0.0386 -0.0092151 -0.0038813 -0.0015271 0.0026545
0.0015735 0.0014564 0.0022658 -0.0012337
0.0048221 0.038477 -0.25926 0.31224 0.028192 0.021433 0.0018322 0.00088232
0.0065732 -0.00069326 0.003865 -0.0029702
-0.0092367 -0.0038399 0.028287 0.021392 0.068441 0.31778 0.0017896 -0.00023679
0.0012965 -0.00040689 0.00085826 -0.0011908
-0.0015636 0.0026158 0.0017615 0.00091918 0.001786 -0.00021185 -0.11338 0.25929
-0.010514 0.029499 0.00243 -0.0062295
0.0015827 0.0013535 0.0066193 -0.00074172 0.0013022 -0.00044765 -0.01054 0.029522
-0.138 0.1536 -0.0026525 0.026522
0.0022264 -0.0012476 0.0038199 -0.0029423 0.00087232 -0.0011572 0.0024281 -0.0062627
-0.002454 0.02663 -0.19851 0.21001
980000000 -0.050907 0.29188 0.01807 0.030504 -0.0084892 0.0048439 0.0027479 0.0037961
0.0040913 -0.0019208 -0.0031428 -0.0021164
0.018098 0.030477 -0.20641 0.34554 0.032812 0.0042815 0.0019435 -0.00012214
0.0010546 -0.0061816 -0.0006038 -0.0022823
-0.0084946 0.0048578 0.03281 0.004213 0.11473 0.31073 0.00036053 -0.001263
-8.3986e-06 -0.002169 0.0016201 -0.00016979
0.002739 0.0037776 0.0019515 -0.00020173 0.00037017 -0.0012759 -0.075347 0.27071
0.0072448 0.028001 -0.0096769 -0.0063649
0.0041208 -0.001958 0.0010191 -0.0061419 -9.5503e-06 -0.0021263 0.007293 0.028039
-0.10709 0.17906 0.0051097 0.018033
-0.0031277 -0.0021306 -0.00066973 -0.0023449 0.0016274 -0.00022034 -0.0096392 -0.006524
0.0050693 0.018044 -0.15556 0.25377
1040000000 -0.0077684 0.30068 0.033532 0.017995 -0.00078109 0.0068608 0.0030234 0.00070389
-9.7385e-05 -0.0039352 -0.00053975 -0.0013436
0.033524 0.017978 -0.17066 0.3584 0.028735 -0.014988 0.001415 -0.0017073
-0.0025951 -0.0022161 -0.0014514 -0.0026508
-0.00078668 0.006846 0.028722 -0.015116 0.16081 0.29659 -0.00055058 -0.0013412
-0.0016279 -0.00076605 -0.00056438 -0.0012057
0.0030625 0.00063058 0.0014033 -0.0016909 -0.00055162 -0.0013499 -0.047535 0.28096
0.017647 0.016566 -0.0030443 0.0023681
-0.00010522 -0.0039754 -0.002601 -0.0021882 -0.0015495 -0.0007334 0.017763 0.016617
-0.076942 0.18864 0.013164 0.01729
-0.00053514 -0.0012973 -0.0014566 -0.0026572 -0.00052319 -0.0012268 -0.0030125 0.002497
0.013146 0.017292 -0.13373 0.27462
1100000000 0.03802 0.30823 0.035825 -0.0043889 0.0031599 0.003593 0.0026477 -0.001696
-0.0023211 -0.0030714 -0.0037412 0.00027123
0.035789 -0.0043665 -0.12726 0.37495 0.014546 -0.027595 -3.2993e-05 -0.0018075
-0.0030531 -0.00036561 -0.0035351 -0.00041706
0.0031675 0.0035549 0.014467 -0.027668 0.20696 0.27587 -0.0018212 0.00032763
-0.0015921 0.0006143 -0.00098491 -0.00030169
0.0026685 -0.0016905 -5.2199e-05 -0.0017806 -0.0018137 0.00031013 -0.0069984 0.28562
0.021829 0.0047892 -0.0022254 0.0013099
-0.00229 -0.0030404 -0.0030679 -0.00035401 -0.0016258 0.00064163 0.021873 0.0047493
-0.058677 0.20189 0.018207 0.0081747
-0.003742 0.00029092 -0.003521 -0.00040946 -0.0010215 -0.00032943 -0.0021824 0.0012441
0.018054 0.0079897 -0.086876 0.30343
1160000000 0.089743 0.30309 0.023946 -0.02077 0.0027206 -0.000787 -0.00014212 -0.002797
-0.0041498 -6.3056e-05 -0.00080782 0.0039807
0.023973 -0.020734 -0.083276 0.37872 -0.0040498 -0.028626 -0.0018075 -0.0015175
-0.0021749 0.0026702 -0.0012689 0.0015962
0.0027036 -0.00079538 -0.0041635 -0.028629 0.24978 0.24475 -0.00051439 0.0017124
-0.00034502 0.0018101 -0.00093243 0.00012523
-0.00013747 -0.0027779 -0.0017958 -0.0015191 -0.00051488 0.0017317 0.0325 0.28275
0.018286 -0.0094066 -0.0026224 0.005934
-0.0041576 -4.9229e-05 -0.0021681 0.0026908 -0.00033787 0.0017562 0.018296 -0.0094166
-0.025816 0.21162 0.016849 0.00025559
-0.00076787 0.0039949 -0.0012896 0.001578 -0.0010127 0.00021978 -0.0026227 0.0058685
0.016947 0.00031107 -0.03992 0.30603
1220000000 0.13459 0.2916 0.010316 -0.029748 -0.0016114 -0.0010473 -0.00045443 -0.0012689
-0.0023858 0.002719 0.0013805 0.0017677
0.010328 -0.029695 -0.039288 0.38999 -0.016797 -0.020538 -0.0024997 0.00050744
0.00036442 0.0027372 -0.00065254 0.0017269
-0.0016193 -0.0010285 -0.016905 -0.020486 0.28869 0.20555 0.00091317 0.001492
0.00059563 0.0010844 0.00028651 0.00074646
-0.00043283 -0.0012714 -0.0024814 0.00052311 0.00091005 0.0014868 0.072269 0.27393
0.0086342 -0.01462 0.0031174 0.0018175
-0.0023595 0.0027171 0.00035419 0.0027533 0.00061132 0.0011098 0.0086012 -0.014623
-0.0017008 0.22157 0.012861 -0.011993
0.0013901 0.0017603 -0.00063633 0.0017476 0.00027832 0.00073703 0.0031182 0.0017956
0.012805 -0.012073 -0.0075708 0.32214
1280000000 0.18418 0.26929 -0.0076079 -0.028055 -0.0019099 0.0023611 -0.0013536 -0.0018384
-0.00033881 0.0030717 0.0024284 0.00093175
-0.0075707 -0.028034 0.0063087 0.38075 -0.023297 -0.0081485 -0.00095083 0.0014863
0.0015864 0.0014478 0.00047149 0.0020166
-0.0019102 0.0023641 -0.023346 -0.0080695 0.31921 0.16149 0.0013331 -0.00019404
0.00091543 0.00010698 0.00033527 0.00044416
-0.0013612 -0.0018247 -0.0009387 0.0015026 0.0013249 -0.00018334 0.10849 0.25787
0.00030729 -0.015962 0.00077355 4.5128e-05
-0.00029445 0.0030662 0.0015948 0.0014154 0.0009483 0.00011078 0.00029931 -0.015888
0.035708 0.22535 0.0025958 -0.014023
0.0024411 0.0009053 0.0005287 0.0019863 0.00032443 0.0004291 0.00075513 -4.391e-05
0.0026252 -0.013966 0.03989 0.32317
1340000000 0.22173 0.23548 -0.017214 -0.018837 0.00066665 0.0041926 -0.0019836 -0.00043256
0.0016486 0.0022736 0.0015255 -0.0014911
-0.017186 -0.018829 0.045612 0.37208 -0.021115 0.0042649 -5.1274e-06 0.0019094
0.0015987 0.00058245 0.0013319 0.00081262
0.00070039 0.0041958 -0.02112 0.0043707 0.34121 0.11349 0.00088026 -0.00086349
0.00052396 -0.0003361 0.00031767 0.00017722
-0.0019588 -0.0004249 -2.1884e-05 0.0018972 0.00087831 -0.00086268 0.14158 0.23795
-0.0071264 -0.013082 0.0016168 -0.0001721
0.0016509 0.0022782 0.0016201 0.00057025 0.00051806 -0.00032269 -0.007181 -0.013096
0.066875 0.22098 -0.0033873 -0.012199
0.001514 -0.0015024 0.001334 0.00083047 0.00029829 0.0001637 0.0016128 -0.00016459
-0.003413 -0.012203 0.079148 0.31807
1400000000 0.25516 0.19718 -0.022769 -0.0076423 0.0048681 0.003052 -0.0018293 0.00089696
0.0023749 0.00039863 0.00010604 -0.0012918
-0.022738 -0.0076515 0.082346 0.3589 -0.014473 0.012162 0.0013465 0.0012256
0.00082432 -0.00077519 0.0012282 0.00029651
0.0048836 0.0030338 -0.014434 0.012241 0.35419 0.059618 2.8884e-05 -0.0013298
5.9857e-05 -0.00029998 0.00039076 0.00018299
-0.0018062 0.00092401 0.0013646 0.0012119 1.7574e-05 -0.0013319 0.17162 0.20952
-0.011572 -0.0074827 -0.00048873 -0.0010536
0.0023957 0.00038943 0.00083551 -0.00078819 8.1452e-05 -0.00028645 -0.011605 -0.0074694
0.10089 0.21567 -0.0092525 -0.0077596
0.00010215 -0.0012955 0.0012073 0.00030905 0.00034904 0.00017245 -0.00051142 -0.001053
-0.0093245 -0.0077641 0.12356 0.30668
1460000000 0.27908 0.15292 -0.020062 0.004124 0.0052965 -0.001665 -0.001238 0.0017081
0.0017094 -0.00082012 -0.00033412 -0.00080856
-0.020072 0.0040965 0.11642 0.33706 -0.0061096 0.014863 0.0016726 9.5157e-05
0.0007936 -0.00096637 0.0012093 -0.00063581
0.0052675 -0.0016777 -0.0060268 0.014911 0.35995 0.0048277 -0.00099827 -0.0011357
0.00029318 -8.8207e-05 0.00063218 -0.00041675
-0.0012216 0.0016859 0.0016751 0.00011471 -0.00098793 -0.0011286 0.19892 0.18043
-0.011976 -0.0024388 -0.0011759 0.0011372
0.0016547 -0.00086647 0.0007788 -0.00097106 0.00027345 -0.00013303 -0.011964 -0.0023856
0.13157 0.20034 -0.010583 -0.0025027
-0.00033978 -0.00082509 0.0012215 -0.00066522 0.00064121 -0.00036971 -0.0011958 0.0010826
-0.010618 -0.0025761 0.15714 0.28482
1520000000 0.29221 0.10981 -0.014692 0.0096787 0.0029699 -0.0038515 0.00020457 0.0022644
0.0013815 -0.0015834 -0.0011511 -0.0001865
-0.01469 0.0096527 0.1498 0.32209 0.0013431 0.012864 0.0015582 -0.00082108
0.00019732 -0.00082887 0.00027543 -0.0010651
0.0029414 -0.003867 0.0014118 0.012862 0.35275 -0.051485 -0.0008242 -0.00038522
0.00056213 -0.0007238 -1.1863e-05 -5.3843e-05
0.00023351 0.0022685 0.001553 -0.00084465 -0.00084667 -0.0003886 0.22313 0.14173
-0.011305 0.001438 0.00075032 0.001451
0.0013756 -0.0015907 0.00020663 -0.00083058 0.00060266 -0.0007458 -0.011344 0.0015046
0.16036 0.18452 -0.01056 0.001412
-0.0011584 -0.00016916 0.00027076 -0.0010617 -0.00010441 -7.4493e-05 0.00077202 0.0014835
-0.010571 0.0014114 0.19007 0.26395
1580000000 0.30207 0.061538 -0.0084166 0.012735 -0.00091494 -0.0045096 0.0012391 0.0015861
-0.00055108 -0.0017499 -0.00032565 0.00029941
-0.0084252 0.01271 0.17699 0.29728 0.0049455 0.0081622 0.00038116 -0.0015737
-0.00020376 -0.0010605 -0.00031217 -0.00091935
-0.00094029 -0.0045057 0.0050022 0.0081389 0.3322 -0.10919 -0.001459 0.00032889
-0.00027353 -0.0011102 0.00014515 -0.00058461
0.0012506 0.001572 0.00039489 -0.0015787 -0.0014624 0.0003334 0.23806 0.10128
-0.0090678 0.0050484 0.0014831 0.00061102
-0.00056451 -0.0017451 -0.0002234 -0.0010751 -0.00031725 -0.0011412 -0.0090515 0.0050517
0.18502 0.16518 -0.0084674 0.0065564
-0.0003321 0.00029707 -0.00031726 -0.00093752 0.00020103 -0.0005771 0.0015228 0.00057501
-0.0084763 0.0065672 0.22181 0.23707
1640000000 0.3036 0.017434 -0.0020542 0.012031 -0.0026042 -0.0021934 0.0022963 0.0010595
-0.00070162 -0.00080338 -0.00038283 0.00067133
-0.0020567 0.012008 0.20644 0.27192 0.0056366 0.0035879 -0.00072724 -0.0016068
-0.0009659 -0.0006525 -0.00060052 -0.00064014
-0.0026034 -0.0021889 0.0056287 0.0035537 0.30351 -0.1582 -0.00097539 0.0012518
-0.0010748 -0.00080617 -5.7448e-05 -0.00023138
0.002306 0.0010494 -0.00073521 -0.001595 -0.00096823 0.0012445 0.25055 0.050687
-0.0062231 0.0057977 0.0019303 -0.00051114
-0.0006875 -0.00078259 -0.00097215 -0.00063378 -0.0010161 -0.00077032 -0.0062098 0.0057749
0.20828 0.13879 -0.0042062 0.0084919
-0.00037584 0.00067629 -0.00059383 -0.00063604 -0.00012296 -0.00029607 0.0018419 -0.00047233
-0.0041497 0.0085026 0.2476 0.2054
1700000000 0.29422 -0.030048 0.0013845 0.0095254 -0.003124 0.00024916 0.0028115 -0.00082543
-0.0014841 -0.00037465 0.00051513 0.00050705
0.0014003 0.0095285 0.22437 0.24016 0.0037688 0.00075538 -0.0013732 -0.00053331
-0.00089902 -0.00012025 -0.00096421 -0.00038648
-0.0031497 0.00027341 0.0037608 0.00073791 0.25981 -0.19794 0.00020506 0.001652
-0.0017274 -0.0002226 -0.00056566 -0.00095968
0.0028228 -0.00083746 -0.0013869 -0.00052781 0.0001954 0.0016721 0.24662 -0.0010204
-0.0047913 0.0063164 0.0012194 -0.0017944
-0.0014942 -0.00035239 -0.00090787 -0.00011942 -0.0017601 -0.00029623 -0.0047627 0.0063462
0.22557 0.11613 0.00019346 0.0088508
0.00053375 0.00053053 -0.00098508 -0.00035571 -0.00056181 -0.00089561 0.0012716 -0.0018363
0.00018148 0.0088926 0.26353 0.17049
1760000000 0.27915 -0.080022 0.0037816 0.0065844 -0.0019381 0.00071926 0.0015623 -0.0030853
-0.00079645 0.00052639 0.00054735 -0.00038128
0.0037772 0.0065908 0.25012 0.19991 0.0016019 -0.00096767 -0.0010807 0.00024777
-0.0013292 0.00089248 -0.00058707 0.00056289
-0.0019236 0.00072348 0.0015979 -0.00095512 0.21037 -0.23095 0.0011124 0.001525
-0.0011595 0.0013563 -0.0012971 -0.00043668
0.0015471 -0.0031323 -0.0010861 0.00023511 0.0011187 0.0014965 0.2357 -0.053722
-0.0025497 0.0062185 -0.00048826 -0.0020006
-0.00079055 0.00055649 -0.0013271 0.00091705 -0.0011655 0.0013361 -0.0025572 0.0062302
0.24017 0.07846 0.0037396 0.006213
0.00050684 -0.00035501 -0.00058311 0.00058629 -0.0013251 -0.00042944 -0.00052114 -0.0020449
0.0037582 0.0061913 0.2759 0.13242
1820000000 0.25095 -0.11716 0.0042782 0.0031791 8.368e-05 0.0021229 -0.00069348 -0.003111
-0.00075115 0.00034003 0.00024378 -0.0001001
0.0042693 0.0031748 0.25958 0.16942 -0.00016035 0.00012791 -0.0013422 0.00084466
-0.00017734 0.0016005 -0.00042104 0.00059235
9.4768e-05 0.00216 -0.00014292 0.00012246 0.16058 -0.24613 0.0016769 0.00052812
-0.00029906 0.0022232 -0.0012701 0.0005239
-0.0006587 -0.003081 -0.0013331 0.00084298 0.0016992 0.0004992 0.20306 -0.10112
-0.0017875 0.0052074 -0.0015622 -0.0011296
-0.00073299 0.0003774 -0.00016415 0.0016138 -0.00034124 0.0022087 -0.0017528 0.0052015
0.25558 0.04624 0.0045451 0.0028119
0.00026268 -0.00012872 -0.00045518 0.00058345 -0.0013316 0.00052678 -0.0015663 -0.0011043
0.0045425 0.0027679 0.2777 0.095838
1880000000 0.21278 -0.15576 0.0022503 0.00099773 -0.00039742 0.0018793 -0.002832 -0.0023804
-0.00056454 0.0012802 0.00052317 -0.00080578
0.0022626 0.00098182 0.2635 0.12278 -0.0020844 0.0017052 -0.00011488 0.0017115
0.00079204 0.0015624 0.00031432 0.00095949
-0.00038131 0.0018785 -0.0020538 0.00173 0.10855 -0.25537 0.0020586 -0.0011118
0.0014777 0.0020506 -0.00088619 0.0014697
-0.0029045 -0.0024064 -0.00010229 0.0017077 0.0020864 -0.0010558 0.16056 -0.14001
-0.0016722 0.0043662 -0.0022946 0.00083762
-0.00059939 0.001315 0.00082657 0.0015706 0.0015134 0.002039 -0.0016171 0.0043413
0.25577 0.010692 0.0039122 0.0009276
0.00052809 -0.00077755 0.00033025 0.00092967 -0.00086374 0.0014112 -0.0022881 0.00076786
0.0039929 0.00091529 0.277 0.06182
1940000000 0.17156 -0.17883 0.00037412 -0.00071035 0.0011231 0.0017417 -0.0040225 0.00035502
0.00098031 0.0011074 -0.00074585 -0.00076366
0.00038123 -0.000723 0.26329 0.090912 -0.0010298 0.0037651 0.00098835 0.0012816
0.0023044 0.0005116 0.0008945 0.00018824
0.0010934 0.0017067 -0.001015 0.0037792 0.062475 -0.24926 0.00032818 -0.0025261
0.0025369 0.00048051 0.00044382 0.0015407
-0.0039939 0.00040257 0.0010149 0.0012726 0.00023303 -0.0025298 0.10686 -0.168
-0.0027075 0.0043927 -0.0010446 0.0020829
0.00091994 0.0011209 0.0023143 0.00049738 0.0024909 0.00051663 -0.0027654 0.0044297
0.25375 -0.030645 0.0026539 -0.0018737
-0.00075206 -0.00081604 0.00088009 0.0001485 0.00043001 0.0016052 -0.0010739 0.0021091
0.0026815 -0.0018664 0.26585 0.025598
2000000000 0.1247 -0.1901 -0.0031829 0.0012036 0.0023447 0.0017234 -0.0024942 0.0037085
0.0009453 0.00057866 -0.001124 0.00045416
-0.0031974 0.0012018 0.24843 0.055626 -0.00090071 0.0055621 0.0016418 0.00017764
0.001728 -0.0018316 0.00044896 3.1643e-05
0.0023206 0.0016661 -0.00084883 0.0055331 0.018781 -0.23481 -0.0016745 -0.0014756
0.0020343 -0.0013693 0.0016561 0.0012667
-0.0025394 0.0037265 0.0016204 0.00021662 -0.0016453 -0.0014766 0.054097 -0.17544
-0.0038484 0.0055935 0.00024295 0.0021661
0.00096778 0.00055243 0.0016962 -0.001855 0.0020152 -0.0013968 -0.0036912 0.005568
