!Keysight Technologies,M9804A,MY58100912,A.14.10.03
!Date: Thursday, April 27, 2023 10:28:33
!Correction: S11(C  6-Port  ) 
!S12(C  6-Port  ) 
!S13(C  6-Port  ) 
!S14(C  6-Port  ) 
!S15(C  6-Port  ) 
!S16(C  6-Port  ) 
!S21(C  6-Port  ) 
!S22(C  6-Port  ) 
!S23(C  6-Port  ) 
!S24(C  6-Port  ) 
!S25(C  6-Port  ) 
!S26(C  6-Port  ) 
!S31(C  6-Port  ) 
!S32(C  6-Port  ) 
!S33(C  6-Port  ) 
!S34(C  6-Port  ) 
!S35(C  6-Port  ) 
!S36(C  6-Port  ) 
!S41(C  6-Port  ) 
!S42(C  6-Port  ) 
!S43(C  6-Port  ) 
!S44(C  6-Port  ) 
!S45(C  6-Port  ) 
!S46(C  6-Port  ) 
!S51(C  6-Port  ) 
!S52(C  6-Port  ) 
!S53(C  6-Port  ) 
!S54(C  6-Port  ) 
!S55(C  6-Port  ) 
!S56(C  6-Port  ) 
!S61(C  6-Port  ) 
!S62(C  6-Port  ) 
!S63(C  6-Port  ) 
!S64(C  6-Port  ) 
!S65(C  6-Port  ) 
!S66(C  6-Port  ) 
!S6P File: Measurement: :
# Hz S  RI   R 50
500000000 -0.33632 -0.031562 -0.0094848 -0.0038245 -0.0077182 0.01155 -0.0035072 0.011556
0.011975 0.0043947 -0.0041977 0.0079094
-0.0094822 -0.0038196 -0.41872 -0.048278 0.007538 -0.01201 0.0014325 0.010836
0.0078465 0.0030463 0.00096167 0.012083
-0.007696 0.011563 0.0075264 -0.012035 -0.26446 0.21189 0.0068915 0.0028126
0.00063832 0.0085339 0.00083503 0.011624
-0.0034879 0.011557 0.001454 0.010858 0.0068969 0.0028132 -0.32643 0.049473
-0.018865 -0.0047883 0.017492 0.02446
0.011989 0.0043731 0.0078643 0.003027 0.0006523 0.0085341 -0.018859 -0.0047823
-0.22671 -0.17741 -0.027145 0.0050188
-0.004175 0.0079084 0.00099273 0.012095 0.00083677 0.011624 0.017488 0.024459
-0.027156 0.0050228 -0.27375 -0.12488
560000000 -0.31374 0.12621 -0.024644 -0.063003 0.00041886 0.011916 0.0066714 0.0098961
0.011775 0.0035282 0.0094069 0.0073522
-0.024567 -0.062945 -0.37564 0.11122 -0.04223 -0.03685 0.014255 0.0033397
-0.01285 -0.0053089 0.0048184 -0.00044213
0.00043772 0.011913 -0.04236 -0.036779 -0.18198 0.25977 -0.0011262 -0.004665
0.018732 0.003965 0.0073081 -0.0062068
0.0067097 0.009887 0.014278 0.0033251 -0.0011317 -0.004666 -0.30115 0.13747
0.0047773 -0.025193 0.005233 -0.0196
0.011774 0.0035254 -0.012864 -0.0052921 0.018727 0.0039629 0.0047523 -0.025186
-0.28414 -0.0045817 0.0078914 -0.050863
0.009424 0.0073583 0.0048125 -0.00048376 0.0073166 -0.0062045 0.0052345 -0.019602
0.0079059 -0.050863 -0.3322 0.023659
620000000 -0.27191 0.1105 -0.023078 0.0067659 0.0032238 0.0084224 0.0066682 -0.0059046
0.010831 -0.0010329 0.00058733 -0.0026026
-0.023055 0.0067587 -0.40241 0.064283 -0.019169 -0.00033229 -0.0016529 -0.0024128
0.010458 -0.0068046 0.00080242 -0.0026176
0.0032509 0.0084131 -0.019197 -0.00028833 -0.15246 0.26855 -0.0017866 -0.0052249
-0.0033921 -0.0031471 0.0078804 -0.0034898
0.0066678 -0.0059339 -0.0016626 -0.0024153 -0.0017885 -0.0052202 -0.25885 0.1469
-0.03888 -0.019163 0.01441 0.023588
0.010847 -0.0010579 0.01045 -0.0068389 -0.0034072 -0.0031436 -0.038919 -0.019154
-0.20366 -0.044003 -0.038874 0.013328
0.00060293 -0.0026069 0.00079927 -0.0026227 0.0078713 -0.0034896 0.014417 0.023586
-0.038894 0.013305 -0.25035 -0.013566
680000000 -0.23109 0.19283 -0.027929 -0.014079 0.0050533 0.0050239 0.00047089 -0.007718
-0.0033912 -0.010991 0.0040698 -0.0074467
-0.0279 -0.01408 -0.38643 0.16074 -0.032908 -0.0010461 -0.0017318 -0.00056068
-0.0030965 -0.0086534 -0.0008731 -0.0024739
0.0050636 0.0050159 -0.032938 -0.00096765 -0.10189 0.28791 -0.00073002 0.00021699
-0.0024291 0.00093177 -0.002964 -0.0097178
0.00046085 -0.0077084 -0.0017325 -0.00055958 -0.00072831 0.0002257 -0.21795 0.19543
-0.023511 -0.0087205 -0.010818 -0.010165
-0.0034033 -0.010994 -0.0031317 -0.0086564 -0.0024335 0.00093365 -0.02354 -0.0087046
-0.24822 0.052429 -0.0048872 -0.0097553
0.0040623 -0.0074839 -0.00089038 -0.002471 -0.0029598 -0.0097169 -0.010845 -0.010175
-0.0048849 -0.0097458 -0.2621 0.090624
740000000 -0.18864 0.18863 -0.038356 0.026368 0.01239 -0.0052627 -0.00074111 -0.003853
-0.0047533 -0.0022482 -0.0063992 0.0032682
-0.038341 0.02634 -0.33496 0.17932 -0.03462 0.035028 -0.00085831 -0.0063489
-0.01142 0.0084074 -0.0026178 -0.0060144
0.012398 -0.0052816 -0.034533 0.035164 -0.06827 0.28717 -0.001128 0.0035061
-0.0027757 -0.0035306 -0.0010008 0.00059271
-0.00076714 -0.0038566 -0.00086443 -0.0063848 -0.001136 0.0035183 -0.2011 0.20333
-0.042839 -0.0079156 0.022415 0.012206
-0.0047601 -0.0022644 -0.011415 0.0084626 -0.0027485 -0.0035483 -0.042866 -0.0078603
-0.15532 0.073829 -0.042109 0.0011799
-0.006389 0.0032734 -0.0026427 -0.0059939 -0.0009913 0.00058897 0.022408 0.012171
-0.042087 0.0011359 -0.2501 0.097632
800000000 -0.15726 0.22894 -0.022641 0.017363 0.0051112 -0.010451 -0.0048161 -0.0019365
-0.0040556 0.0030364 0.0043843 0.0010014
-0.02264 0.017341 -0.33702 0.24952 -0.0077135 0.03412 -0.0019422 0.0021833
-0.00025543 0.0035938 0.0012872 0.0052687
0.0050807 -0.010467 -0.0076188 0.034166 -0.026893 0.31012 0.0012538 0.001505
0.00077737 0.0035919 -0.0018612 0.001005
-0.0048325 -0.0019254 -0.0019306 0.0022023 0.0012509 0.001509 -0.17382 0.23103
-0.028764 0.012371 0.012826 -0.0096753
-0.0040538 0.0030751 -0.00024666 0.0035928 0.00078151 0.0035981 -0.028763 0.012432
-0.19752 0.098593 -0.017973 0.016959
0.004376 0.0010085 0.0013285 0.0052793 -0.0018492 0.00099808 0.012826 -0.0096939
-0.017982 0.016939 -0.24371 0.15179
860000000 -0.12221 0.25067 -0.017028 0.031448 -0.0034278 -0.0096296 -0.0026397 0.0012799
0.004492 0.0051762 -0.0026551 -0.0027094
-0.017044 0.031405 -0.28904 0.2915 0.0082817 0.034066 0.00036014 0.0018885
0.0046655 -7.2925e-05 0.0034726 0.00045826
-0.0034553 -0.0096217 0.008398 0.03408 0.021871 0.31782 -0.00028186 -0.00033822
0.0028782 -0.0016213 0.0016131 0.0045402
-0.0026417 0.0012831 0.00037709 0.0018951 -0.00028322 -0.00033834 -0.13831 0.24303
-0.017994 0.018347 -0.006186 -0.0091706
0.0045079 0.0051568 0.0046828 -0.00010657 0.0028739 -0.0016226 -0.017979 0.018387
-0.14996 0.14588 -0.023874 0.015605
-0.0026768 -0.0026882 0.0034797 0.00044221 0.0016229 0.0045513 -0.0061941 -0.009173
-0.023878 0.01558 -0.19349 0.19462
920000000 -0.096578 0.274 0.0053414 0.038125 -0.0094091 -0.0040149 -0.0015682 0.0025037
0.001323 0.001659 0.0026518 -0.0013181
0.0053153 0.038085 -0.25978 0.31252 0.02808 0.021547 0.0016929 0.0011221
0.0066754 -0.0009045 0.0037114 -0.0028566
-0.0094251 -0.0039938 0.028181 0.021491 0.068423 0.31794 0.0017462 -0.00015326
0.0013285 -0.00060392 0.00080782 -0.0010621
-0.0015659 0.0025167 0.0017057 0.0011249 0.0017404 -0.00015478 -0.11374 0.25959
-0.010571 0.029691 0.0023743 -0.0062057
0.0013372 0.0016624 0.0066866 -0.00094298 0.0013343 -0.00060246 -0.010517 0.029718
-0.13935 0.15259 -0.0021971 0.02726
0.0026568 -0.0013222 0.0037183 -0.0028762 0.00080339 -0.0010608 0.0023797 -0.0062135
-0.0022163 0.027244 -0.19939 0.20878
980000000 -0.048597 0.29334 0.018233 0.029905 -0.0086833 0.0048327 0.0025901 0.003741
0.0039971 -0.0018708 -0.0029028 -0.0022045
0.018175 0.029882 -0.20674 0.34586 0.032801 0.0043149 0.0019888 -6.5063e-05
0.0008939 -0.0061172 -0.00059012 -0.0022609
-0.008671 0.0048471 0.032851 0.0042312 0.11479 0.31092 0.00035304 -0.0011632
-9.2066e-06 -0.0020961 0.0015807 -0.00018305
0.0026055 0.0037137 0.001993 -5.1136e-05 0.00035618 -0.001166 -0.075432 0.2713
0.007147 0.028234 -0.0094773 -0.0063715
0.0039872 -0.001892 0.0008867 -0.0061368 -4.6476e-06 -0.0020965 0.0072157 0.028228
-0.1085 0.17959 0.0052265 0.01857
-0.0029121 -0.0021903 -0.00058691 -0.0022622 0.0015846 -0.00017974 -0.0094829 -0.0063596
0.0052083 0.01857 -0.15641 0.25308
1040000000 -0.0052672 0.30123 0.0334 0.017471 -0.00094324 0.0068307 0.002971 0.00064969
-3.0731e-05 -0.0037883 -0.00069757 -0.0013668
0.033343 0.017483 -0.17079 0.35864 0.02879 -0.01502 0.0014306 -0.0016641
-0.0026503 -0.0021549 -0.0014481 -0.0026365
-0.00092 0.0068277 0.028779 -0.015125 0.16089 0.29658 -0.00052936 -0.0013774
-0.0015459 -0.00075295 -0.00036404 -0.0010541
0.0029623 0.00063264 0.0014477 -0.0016625 -0.00053099 -0.0013771 -0.047549 0.2812
0.01795 0.01682 -0.0031409 0.0024276
-5.6443e-05 -0.0037953 -0.002652 -0.0021562 -0.0015436 -0.00074022 0.017996 0.016798
-0.077919 0.18881 0.013175 0.017846
-0.00071713 -0.0013641 -0.001458 -0.0026578 -0.00037222 -0.0010566 -0.0031377 0.0024382
0.013147 0.017859 -0.13451 0.27411
1100000000 0.04057 0.30808 0.035598 -0.0048127 0.003059 0.0036063 0.0025828 -0.0016185
-0.0022158 -0.0029368 -0.0038649 9.8792e-05
0.035554 -0.0047796 -0.12719 0.37524 0.014551 -0.02763 2.2751e-05 -0.0018343
-0.0030518 -0.00023402 -0.0033711 -0.00045486
0.0030703 0.0035938 0.014465 -0.02771 0.20704 0.27587 -0.0017486 0.00030327
-0.0015795 0.00065172 -0.00096368 -0.00041845
0.0025787 -0.0016345 1.6124e-05 -0.0018396 -0.0017464 0.00030482 -0.0067719 0.28591
0.021966 0.004927 -0.002059 0.0013041
-0.0022337 -0.0029328 -0.0030571 -0.00022407 -0.0015758 0.00065284 0.021989 0.0048941
-0.059157 0.20213 0.018298 0.0083691
-0.0038764 0.00011864 -0.0033804 -0.00044477 -0.00095775 -0.00041887 -0.0020555 0.0013076
0.01829 0.0083657 -0.08764 0.30307
1160000000 0.092322 0.30212 0.023525 -0.020995 0.0026745 -0.00061302 -9.8507e-05 -0.0026374
-0.0041133 -0.00027827 -0.00086962 0.0040883
0.02352 -0.020945 -0.083085 0.37888 -0.0040153 -0.02856 -0.0017833 -0.0016107
-0.002174 0.0025918 -0.001302 0.0016341
0.0026671 -0.00062365 -0.0041294 -0.028557 0.24983 0.24465 -0.00051396 0.0016343
-0.00025931 0.0017258 -0.0010587 5.6854e-05
-9.9196e-05 -0.0026385 -0.0017931 -0.0015915 -0.00051136 0.0016287 0.032769 0.28282
0.018495 -0.0093887 -0.0025072 0.0058517
-0.0041282 -0.0002701 -0.0021586 0.0026063 -0.00025429 0.0017451 0.018492 -0.0094124
-0.025686 0.21198 0.017033 0.0005373
-0.00085967 0.0040815 -0.0012866 0.0016312 -0.001065 5.4444e-05 -0.0025017 0.0058521
0.017012 0.00053825 -0.040749 0.30575
1220000000 0.1367 0.28981 0.009944 -0.02985 -0.0015819 -0.00091019 -0.00025386 -0.0011285
-0.0024727 0.0026492 0.0013601 0.0018648
0.009945 -0.029813 -0.039038 0.39009 -0.016737 -0.020571 -0.0024883 0.00045995
0.00037797 0.0027066 -0.00067944 0.0017419
-0.0015789 -0.00090693 -0.016841 -0.020519 0.28869 0.20553 0.00090974 0.0014761
0.00058349 0.0010354 0.00022413 0.00072339
-0.00025966 -0.0011332 -0.0024931 0.00047671 0.00091208 0.0014812 0.072401 0.27385
0.0087296 -0.01463 0.0031959 0.0017347
-0.0024598 0.0026499 0.00040354 0.0027063 0.00058086 0.0010373 0.0086997 -0.014642
-0.0015367 0.22159 0.013052 -0.011944
0.0013631 0.0018654 -0.00066612 0.0017456 0.00022636 0.00072136 0.0032072 0.0017273
0.013041 -0.011943 -0.0084897 0.32185
1280000000 0.18591 0.26687 -0.0080403 -0.028019 -0.0018519 0.0023588 -0.0011636 -0.0019549
-0.00044486 0.0030736 0.0025315 0.00089121
-0.0080169 -0.027989 0.0065862 0.38067 -0.023173 -0.0081213 -0.00095612 0.0014611
0.0015761 0.0013963 0.00047525 0.0019313
-0.0018386 0.002374 -0.023243 -0.0080261 0.31918 0.16155 0.0012732 -0.0002014
0.00087127 6.9125e-05 0.0003176 0.00046118
-0.0011731 -0.0019491 -0.00095646 0.0014565 0.0012806 -0.00020104 0.10872 0.25772
0.00038206 -0.015893 0.00099735 -3.9824e-05
-0.00042811 0.0030832 0.0015918 0.0013885 0.00087227 6.5087e-05 0.00034589 -0.015907
0.035961 0.22518 0.0027283 -0.013847
0.0025403 0.00088797 0.00049357 0.0019285 0.00031957 0.00046262 0.00099954 -3.8704e-05
0.0027324 -0.013842 0.038908 0.32298
1340000000 0.22245 0.23227 -0.017574 -0.018675 0.00081151 0.0042917 -0.0019317 -0.00062526
0.0014827 0.0024677 0.0015564 -0.0015345
-0.017537 -0.01866 0.045809 0.3719 -0.021057 0.0042005 -7.4676e-05 0.0018986
0.0015757 0.00059471 0.0012937 0.0008409
0.00082714 0.0042881 -0.021059 0.0043012 0.34128 0.11342 0.0008672 -0.00082682
0.00049973 -0.00034165 0.00026789 0.00023417
-0.0019349 -0.00061482 -6.7272e-05 0.001899 0.00086164 -0.00082261 0.14156 0.23756
-0.007005 -0.01313 0.0016064 -0.00037945
0.0015038 0.0024544 0.0015851 0.00058879 0.00050235 -0.00034688 -0.0070309 -0.013117
0.06722 0.22021 -0.0032802 -0.012272
0.0015442 -0.0015491 0.0013078 0.00083938 0.00026926 0.00023436 0.0016039 -0.00037734
-0.0032726 -0.012286 0.078014 0.31816
1400000000 0.25473 0.19366 -0.023137 -0.0073198 0.0049692 0.0030466 -0.0019891 0.00074451
0.0024362 0.00051472 0.00012878 -0.0013359
-0.023112 -0.0073255 0.082427 0.35868 -0.014459 0.012034 0.0013037 0.0012107
0.00078915 -0.00074464 0.0011878 0.00027944
0.0049788 0.0030233 -0.014419 0.012116 0.35428 0.059629 6.18e-05 -0.0013807
-3.8825e-05 -0.00031552 0.00035805 0.00024602
-0.0019838 0.0007457 0.0013119 0.0012058 5.8059e-05 -0.0013748 0.17149 0.20928
-0.011524 -0.0074927 -0.00051524 -0.0011965
0.0024462 0.00049948 0.00079059 -0.00074401 -3.7703e-05 -0.00031547 -0.011543 -0.0074692
0.10084 0.21482 -0.009273 -0.00785
0.00012238 -0.0013437 0.0011937 0.0002701 0.00035969 0.00024391 -0.00051919 -0.0011999
-0.0092608 -0.0078601 0.12276 0.30674
1460000000 0.27703 0.14935 -0.020285 0.0045671 0.0053327 -0.0016828 -0.001475 0.0017345
0.0018193 -0.00085739 -0.00040684 -0.00086174
-0.020267 0.0045512 0.11642 0.33681 -0.0061242 0.014761 0.0016752 0.00013494
0.00081119 -0.0010042 0.0011789 -0.00062964
0.0053224 -0.0017065 -0.006051 0.014806 0.35993 0.004745 -0.0010301 -0.0011158
0.00025476 -0.00011331 0.00058849 -0.00041982
-0.0014703 0.0017436 0.0016775 0.00013032 -0.0010232 -0.0011171 0.19869 0.18015
-0.011844 -0.0026387 -0.0012613 0.0010983
0.0018205 -0.00086597 0.0008025 -0.00099957 0.00025899 -0.00010824 -0.011844 -0.0026082
0.13115 0.1994 -0.010548 -0.0028053
-0.00040836 -0.00086866 0.0011811 -0.00063293 0.00059247 -0.00042659 -0.0012612 0.0010998
-0.010541 -0.0027915 0.15596 0.28535
1520000000 0.28873 0.10735 -0.014693 0.010177 0.0030844 -0.0039426 0.00015029 0.0024964
0.0015028 -0.0016808 -0.0011293 -9.2055e-05
-0.014692 0.010158 0.14971 0.32189 0.0012331 0.012793 0.0015602 -0.00080317
0.00018358 -0.00082908 0.00028736 -0.0010369
0.0030563 -0.0039524 0.0013056 0.0128 0.35282 -0.051658 -0.00081226 -0.00036776
0.00056723 -0.00074709 -2.9756e-05 -8.2918e-05
0.00015388 0.0025048 0.0015567 -0.00081042 -0.00081098 -0.00036462 0.2228 0.14175
-0.011393 0.0013339 0.00070488 0.0015603
0.0014979 -0.0016986 0.00017792 -0.00083751 0.00056973 -0.00075226 -0.011389 0.0013646
0.15937 0.18393 -0.010673 0.0012443
-0.0011317 -8.3016e-05 0.00028302 -0.0010387 -3.0377e-05 -8.3629e-05 0.00070826 0.0015549
-0.010672 0.0012388 0.18939 0.26452
1580000000 0.2977 0.060737 -0.0081945 0.013277 -0.00096059 -0.0046078 0.0013615 0.001789
-0.00060898 -0.0018603 -0.00031487 0.00037753
-0.0081942 0.013263 0.17681 0.29715 0.0048528 0.0082032 0.00041387 -0.0015285
-0.00030474 -0.0010114 -0.00031203 -0.00087843
-0.00098319 -0.004601 0.0048986 0.0081847 0.33221 -0.10922 -0.0014313 0.000375
-0.00027433 -0.0010888 0.00013761 -0.00058292
0.0013671 0.0017831 0.00040359 -0.0015351 -0.0014323 0.00037504 0.23768 0.10137
-0.0091659 0.0048482 0.0015115 0.00070888
-0.0006204 -0.0018521 -0.00031117 -0.0010164 -0.00027058 -0.001093 -0.0091608 0.0048791
0.18389 0.16488 -0.0086363 0.0064552
-0.00031348 0.00038249 -0.00031158 -0.00088039 0.00013771 -0.00058465 0.0015188 0.00069566
-0.0086422 0.0064508 0.22139 0.23745
1640000000 0.29914 0.018675 -0.0015681 0.012323 -0.0026074 -0.0023475 0.0025297 0.0010082
-0.00080668 -0.00088675 -0.00029044 0.00070443
-0.0015702 0.012311 0.20626 0.27184 0.0055731 0.0036471 -0.00070525 -0.0015791
-0.00092225 -0.00057832 -0.00057823 -0.00062883
-0.0026209 -0.0023332 0.0055922 0.003607 0.30357 -0.15851 -0.00091777 0.0011956
-0.00099562 -0.00086435 -6.509e-05 -0.00029722
0.0025291 0.001002 -0.0007239 -0.0015782 -0.00091261 0.0011975 0.25029 0.050911
-0.0064214 0.0056524 0.0019217 -0.00051973
-0.00081276 -0.00088283 -0.00093872 -0.00056749 -0.00099381 -0.00085632 -0.006413 0.0056688
0.20701 0.13882 -0.0044098 0.0084151
-0.00028438 0.00070973 -0.00057999 -0.00062342 -6.9297e-05 -0.00029766 0.0019217 -0.00052584
-0.0044181 0.0084099 0.24718 0.20581
1700000000 0.29068 -0.027103 0.0019294 0.0096147 -0.0032104 0.00011688 0.0028889 -0.0010336
-0.0015907 -0.00030701 0.00064828 0.00043698
0.0019223 0.0096137 0.22414 0.24016 0.0037687 0.00087983 -0.0013576 -0.00052602
-0.00087513 -6.9787e-05 -0.00093838 -0.00037248
-0.003207 0.00013912 0.0037749 0.00086284 0.25955 -0.19791 0.00020663 0.0015826
-0.0017302 -0.00031868 -0.00056729 -0.00091208
0.0028874 -0.0010588 -0.0013595 -0.00052337 0.0002107 0.0015853 0.24646 -0.00066976
-0.0050043 0.0063197 0.0012414 -0.0017445
-0.0016035 -0.00029462 -0.00087884 -7.1284e-05 -0.0017374 -0.00031859 -0.0049928 0.0063283
0.22438 0.11657 -1.0779e-05 0.0088603
0.00065637 0.00043468 -0.00093515 -0.00035889 -0.00057502 -0.00091344 0.0012336 -0.0017488
-1.8742e-05 0.0088639 0.26317 0.17083
1760000000 0.27715 -0.075632 0.0043052 0.0064688 -0.0020941 0.00073039 0.0014064 -0.003263
-0.00082317 0.00056556 0.00047986 -0.00042742
0.0042932 0.0064676 0.2499 0.2 0.0016906 -0.00082811 -0.0010687 0.00019517
-0.0012351 0.00086368 -0.00059838 0.00058286
-0.0020889 0.00075018 0.0016809 -0.00084239 0.21031 -0.23088 0.0010697 0.0013354
-0.0011744 0.0012345 -0.0014047 -0.00038606
0.0013887 -0.0032781 -0.0010599 0.00019176 0.0010713 0.001345 0.23552 -0.053317
-0.0028617 0.0062731 -0.0005411 -0.0019028
-0.00081985 0.00057649 -0.0012337 0.00088038 -0.0011706 0.0012264 -0.0028512 0.0062743
0.23926 0.079059 0.0034244 0.006288
0.00047803 -0.00043195 -0.00059495 0.00058341 -0.0014037 -0.0003845 -0.00055437 -0.0019076
0.0034258 0.0062848 0.27547 0.13293
1820000000 0.25107 -0.11251 0.0046487 0.0028553 -0.0001003 0.0022209 -0.00087317 -0.0030398
-0.00073042 0.00038972 8.337e-05 -0.00016911
0.004647 0.0028527 0.25938 0.16961 -0.00010279 8.2045e-05 -0.0013489 0.00080879
-0.00017212 0.0014721 -0.00045931 0.00055634
-7.731e-05 0.0022173 -0.00010104 8.3694e-05 0.16045 -0.24629 0.0015428 0.00052043
-0.00047054 0.0020383 -0.0013089 0.00055598
-0.00088726 -0.0030321 -0.0013456 0.00081727 0.0015437 0.00051997 0.20325 -0.10079
-0.0018765 0.0054061 -0.0015508 -0.0011073
-0.00072914 0.00040216 -0.00015991 0.0014783 -0.00046224 0.0020309 -0.0018651 0.0054113
0.25493 0.047123 0.0043174 0.0030772
8.067e-05 -0.0001693 -0.00044978 0.00056082 -0.0013054 0.00056654 -0.0015525 -0.0011124
0.0043137 0.0030747 0.27729 0.096488
1880000000 0.21477 -0.15153 0.0025664 0.00050574 -0.00032563 0.0020077 -0.0028328 -0.0022932
-0.00043199 0.0012346 0.00025076 -0.00067627
0.0025668 0.00050606 0.26339 0.12307 -0.0019989 0.0017148 -0.00018192 0.0016983
0.00072834 0.0014482 0.00026914 0.00090033
-0.00031707 0.0020155 -0.0019976 0.0017276 0.10842 -0.25546 0.0019876 -0.0010419
0.0014246 0.0020525 -0.00088569 0.0014024
-0.0028544 -0.0022823 -0.00017251 0.0016981 0.0019921 -0.0010343 0.16081 -0.13958
-0.0016658 0.0046433 -0.0021162 0.00089233
-0.00042248 0.0012385 0.00074318 0.0014513 0.0014276 0.0020505 -0.0016571 0.0046552
0.25544 0.01172 0.0039595 0.001274
0.00024737 -0.00067828 0.00027926 0.00090016 -0.00087575 0.0014077 -0.0021147 0.00089495
0.0039513 0.0012678 0.27685 0.062489
1940000000 0.17498 -0.17615 0.0004082 -0.0013553 0.0013139 0.0018572 -0.0038481 0.00046912
0.00093941 0.00098661 -0.00075013 -0.00061025
0.00041056 -0.0013439 0.26341 0.091191 -0.00090378 0.0037967 0.00095465 0.0012882
0.00215 0.00051842 0.00083603 0.00017339
0.0013293 0.0018591 -0.00087696 0.0038026 0.062267 -0.24909 0.00029753 -0.0025125
0.0024269 0.00054974 0.00037832 0.0015754
-0.0038389 0.00048743 0.00096593 0.001285 0.00030005 -0.002506 0.10741 -0.16791
-0.0025008 0.0045875 -0.00093387 0.0018868
0.00095485 0.00098228 0.0021602 0.00050833 0.0024226 0.00054305 -0.0024962 0.0045999
0.25373 -0.029425 0.0028216 -0.0016461
-0.00075371 -0.00060463 0.00083974 0.00016789 0.00038107 0.0015729 -0.00093225 0.0018909
0.0028254 -0.0016596 0.26552 0.026404
2000000000 0.12888 -0.18924 -0.0034403 0.00048946 0.0023307 0.0015478 -0.0023154 0.0035771
0.0010306 0.0004557 -0.00064648 0.00041176
-0.0034357 0.00048329 0.24867 0.055803 -0.00080363 0.005432 0.0016453 0.00020073
0.0016806 -0.001724 0.00047925 6.0013e-05
0.0023431 0.0015357 -0.00077106 0.0054384 0.018878 -0.23469 -0.0015922 -0.0014987
0.002099 -0.0013111 0.0016603 0.0011591
-0.0022978 0.0035943 0.0016497 0.00019498 -0.0015961 -0.0014999 0.054113 -0.17562
-0.0036396 0.0055502 0.00040796 0.0021445
