!Keysight Technologies,M9804A,MY58100912,A.14.10.03
!Date: Thursday, April 27, 2023 10:28:33
!Correction: S11(C  6-Port  ) 
!S12(C  6-Port  ) 
!S13(C  6-Port  ) 
!S14(C  6-Port  ) 
!S15(C  6-Port  ) 
!S16(C  6-Port  ) 
!S21(C  6-Port  ) 
!S22(C  6-Port  ) 
!S23(C  6-Port  ) 
!S24(C  6-Port  ) 
!S25(C  6-Port  ) 
!S26(C  6-Port  ) 
!S31(C  6-Port  ) 
!S32(C  6-Port  ) 
!S33(C  6-Port  ) 
!S34(C  6-Port  ) 
!S35(C  6-Port  ) 
!S36(C  6-Port  ) 
!S41(C  6-Port  ) 
!S42(C  6-Port  ) 
!S43(C  6-Port  ) 
!S44(C  6-Port  ) 
!S45(C  6-Port  ) 
!S46(C  6-Port  ) 
!S51(C  6-Port  ) 
!S52(C  6-Port  ) 
!S53(C  6-Port  ) 
!S54(C  6-Port  ) 
!S55(C  6-Port  ) 
!S56(C  6-Port  ) 
!S61(C  6-Port  ) 
!S62(C  6-Port  ) 
!S63(C  6-Port  ) 
!S64(C  6-Port  ) 
!S65(C  6-Port  ) 
!S66(C  6-Port  ) 
!S6P File: Measurement: :
# Hz S  RI   R 50
500000000 -0.33877 -0.037294 -0.010536 -0.0031781 -0.0080576 0.012477 -0.0037838 0.011551
0.011966 0.0045434 -0.0039738 0.0081034
-0.010542 -0.0031342 -0.4196 -0.050556 0.0072815 -0.010846 0.0013854 0.012308
0.0070809 0.00238 0.00075538 0.013428
-0.0080193 0.01249 0.0073145 -0.010889 -0.26641 0.21118 0.0069084 0.0036118
-0.0008757 0.0088128 0.00048278 0.012238
-0.0037911 0.011602 0.0014089 0.012338 0.0069083 0.0036111 -0.328 0.046142
-0.02087 -0.004281 0.017844 0.02563
0.012077 0.0044638 0.0071041 0.002342 -0.00083669 0.0087665 -0.020825 -0.0043138
-0.22672 -0.18616 -0.028638 0.0046599
-0.0039607 0.0081562 0.00072083 0.01347 0.00045789 0.012255 0.017838 0.025603
-0.028627 0.0046379 -0.27252 -0.1168
560000000 -0.31804 0.12415 -0.024134 -0.062494 0.00048616 0.012404 0.0062351 0.010245
0.010232 0.0047663 0.010409 0.008062
-0.024179 -0.062477 -0.37716 0.10857 -0.042392 -0.036451 0.013462 0.0040875
-0.01337 -0.0046514 0.0041375 -0.0005867
0.00057705 0.012435 -0.042577 -0.036424 -0.18345 0.25983 -0.00019006 -0.0045016
0.019221 0.0048259 0.0069156 -0.0058676
0.0061841 0.010291 0.013512 0.004135 -0.00018814 -0.0045131 -0.30355 0.13583
0.0036573 -0.024014 0.0046133 -0.019356
0.010218 0.0046913 -0.01338 -0.0045869 0.019207 0.0048742 0.003651 -0.023988
-0.28754 -0.010038 0.007428 -0.05006
0.010425 0.0079904 0.0041693 -0.00055903 0.0068746 -0.005843 0.0045422 -0.019355
0.0074626 -0.050085 -0.3321 0.030294
620000000 -0.27509 0.1096 -0.023005 0.0081568 0.0039695 0.0085367 0.0069236 -0.0054164
0.0119 -0.00018669 0.00046038 -0.001992
-0.023014 0.0080776 -0.4032 0.061772 -0.018578 0.00033598 -0.0010412 -0.0018597
0.010698 -0.0071528 0.0013644 -0.002701
0.0038951 0.0084032 -0.018599 0.00037728 -0.15296 0.26858 -0.0012052 -0.0052469
-0.0034813 -0.003363 0.0082634 -0.0034389
0.0069085 -0.0054217 -0.0010799 -0.0018188 -0.001204 -0.005252 -0.26258 0.1463
-0.039053 -0.018491 0.014317 0.024784
0.011842 -0.00024472 0.010714 -0.0071825 -0.0035042 -0.0032777 -0.039067 -0.018449
-0.20544 -0.049169 -0.040801 0.014605
0.00050956 -0.0020724 0.0013328 -0.0026288 0.0082643 -0.00339 0.014281 0.024774
-0.040796 0.014634 -0.25078 -0.0057602
680000000 -0.23439 0.19489 -0.027379 -0.013338 0.0049687 0.0048854 0.0012398 -0.0074101
-0.0028307 -0.011139 0.0045506 -0.0070021
-0.027339 -0.013346 -0.38747 0.15942 -0.032303 -0.0012084 -0.0014797 -0.00033327
-0.0024704 -0.0091284 -0.0010661 -0.002058
0.0049209 0.004837 -0.032317 -0.0011324 -0.10137 0.28786 -0.00075566 -0.00012492
-0.0021021 0.00032878 -0.0028783 -0.0095227
0.0012188 -0.0074366 -0.0014881 -0.00034307 -0.0007493 -0.00012008 -0.21941 0.19565
-0.023465 -0.007343 -0.0088098 -0.010318
-0.0028691 -0.011176 -0.0024851 -0.0091465 -0.0021324 0.00033063 -0.023509 -0.0072814
-0.25383 0.049381 -0.0056764 -0.0088546
0.0045925 -0.007021 -0.0010875 -0.0020652 -0.0028951 -0.0095132 -0.0087916 -0.010266
-0.0056623 -0.008867 -0.25951 0.097416
740000000 -0.18934 0.18939 -0.037801 0.026957 0.012733 -0.0053671 -0.00043674 -0.0039959
-0.0045519 -0.0032052 -0.006283 0.0033262
-0.037811 0.026935 -0.33417 0.17762 -0.034541 0.035227 -0.0005975 -0.0064611
-0.012141 0.0075211 -0.0025354 -0.0061444
0.012754 -0.0054226 -0.034499 0.03534 -0.067584 0.28584 -0.0017815 0.0033128
-0.0027503 -0.0041353 -0.0012411 0.00023046
-0.00055354 -0.0039975 -0.0005984 -0.0064763 -0.0017817 0.0033238 -0.2023 0.20337
-0.042071 -0.0080785 0.022368 0.013693
-0.0046238 -0.0032285 -0.012119 0.0076082 -0.002777 -0.0041068 -0.042123 -0.0079935
-0.15746 0.074753 -0.041178 0.00047948
-0.0062872 0.0032847 -0.0025925 -0.0061149 -0.0012384 0.0001846 0.022347 0.013683
-0.04116 0.00045413 -0.24742 0.10359
800000000 -0.15616 0.2288 -0.021817 0.016874 0.0052362 -0.010641 -0.0045911 -0.002009
-0.0041305 0.0023385 0.0042769 0.0010821
-0.02181 0.016826 -0.33707 0.24789 -0.007603 0.033755 -0.002192 0.0021679
-0.00091011 0.0033156 0.0010839 0.0053436
0.0052356 -0.010657 -0.0075107 0.033823 -0.026774 0.30835 0.0010355 0.001627
0.0006625 0.0036761 -0.0017169 0.0008666
-0.0046102 -0.0019878 -0.0021776 0.0021763 0.0010436 0.0016215 -0.17399 0.23066
-0.02748 0.012715 0.013137 -0.0099985
-0.0041393 0.002344 -0.00091288 0.0032929 0.00065199 0.003671 -0.027489 0.012794
-0.20076 0.097449 -0.016761 0.017651
0.0042914 0.0011286 0.0011318 0.0052962 -0.001674 0.00089638 0.013114 -0.010001
-0.016794 0.01766 -0.2387 0.15484
860000000 -0.12152 0.24879 -0.016817 0.030493 -0.0033028 -0.0099343 -0.0022466 0.00087594
0.0038877 0.0049538 -0.0029458 -0.0026094
-0.016858 0.03047 -0.28925 0.28954 0.0080936 0.033869 0.00013193 0.0020285
0.0040782 0.00052556 0.0033153 0.0004415
-0.0033199 -0.0099265 0.0082117 0.033874 0.021002 0.31597 -0.0004054 -0.00026176
0.0028516 -0.00158 0.0016069 0.004164
-0.0022715 0.00091814 0.00012156 0.0020072 -0.00041094 -0.0002642 -0.13813 0.2416
-0.017301 0.018193 -0.006041 -0.0088045
0.0039514 0.0049607 0.0040721 0.00047386 0.0028551 -0.0015811 -0.017287 0.018184
-0.15018 0.14519 -0.023779 0.015202
-0.0029514 -0.0026049 0.0033103 0.00044197 0.0015949 0.0041642 -0.0060697 -0.0087869
-0.023802 0.015214 -0.18858 0.1964
920000000 -0.096756 0.27122 0.0053676 0.037052 -0.0094053 -0.004533 -0.0019491 0.0019594
0.0014338 0.0016369 0.0025989 -0.001607
0.0053448 0.036997 -0.26041 0.30993 0.027935 0.021445 0.0015364 0.0011001
0.0069961 -0.00065478 0.0038982 -0.0029967
-0.0094057 -0.0045021 0.028039 0.021379 0.067018 0.31653 0.0018085 -0.00016989
0.0011883 -0.00042481 0.00070961 -0.0012248
-0.0019617 0.0019501 0.0015535 0.0011129 0.0018192 -0.00016756 -0.11399 0.25795
-0.010141 0.029605 0.0028747 -0.0068025
0.001449 0.0016235 0.0069981 -0.00067594 0.0011839 -0.00041785 -0.010104 0.029641
-0.14044 0.15073 -0.0020044 0.026964
0.0026231 -0.0016062 0.0038994 -0.0030106 0.00072473 -0.0012244 0.0029154 -0.0068191
-0.0020205 0.026989 -0.19381 0.21078
980000000 -0.049566 0.29045 0.01757 0.02942 -0.0089797 0.0044925 0.0021232 0.0037137
0.0039293 -0.0016972 -0.0031267 -0.0020657
0.017551 0.029377 -0.20777 0.34362 0.032755 0.0045283 0.00198 0.00011558
0.0013254 -0.0062603 -0.00067447 -0.0021219
-0.0089648 0.0045225 0.032788 0.0044327 0.1132 0.30992 0.00044222 -0.0011817
6.1484e-05 -0.0021446 0.0012673 -3.1666e-05
0.002134 0.0037027 0.0019828 0.00013286 0.00044662 -0.0011785 -0.076063 0.26911
0.007462 0.02802 -0.0092505 -0.006654
0.0039141 -0.0017042 0.0012733 -0.0062833 6.8361e-05 -0.0021466 0.00752 0.028016
-0.10871 0.17775 0.0048437 0.01861
-0.0031436 -0.0020442 -0.00066504 -0.0021104 0.0012737 -3.4335e-05 -0.0092695 -0.0066572
0.0048374 0.018625 -0.15096 0.25546
1040000000 -0.0075085 0.2986 0.032921 0.017553 -0.0013416 0.0067227 0.0025296 0.00091702
2.6175e-05 -0.0036232 -0.00065725 -0.0016512
0.032856 0.017544 -0.17257 0.35657 0.028978 -0.01492 0.0015133 -0.0016952
-0.0025009 -0.0024847 -0.0014381 -0.0027714
-0.001311 0.006723 0.028936 -0.01502 0.15922 0.29619 -0.00050088 -0.0014326
-0.0016332 -0.00074802 -0.00051664 -0.0010403
0.0025184 0.00089552 0.0015297 -0.0016849 -0.00050114 -0.0014211 -0.048992 0.27912
0.018046 0.016767 -0.0030752 0.0017423
3.2161e-05 -0.0036426 -0.0025529 -0.0024992 -0.0016314 -0.00073774 0.018094 0.016765
-0.077973 0.18592 0.013343 0.017649
-0.00066298 -0.001645 -0.0014413 -0.002781 -0.00052959 -0.0010425 -0.0030774 0.0017404
0.013348 0.017672 -0.12917 0.27452
1100000000 0.037557 0.30591 0.035327 -0.004679 0.0026789 0.0037734 0.0026071 -0.0011579
-0.0020477 -0.0030655 -0.0038909 0.00014089
0.035276 -0.0046622 -0.12926 0.37341 0.014856 -0.027673 0.00010264 -0.0018135
-0.003395 -0.00057567 -0.0033912 -0.00047503
0.0026946 0.0037537 0.014774 -0.027761 0.20554 0.27576 -0.0017895 0.00022244
-0.0017747 0.00073934 -0.00091797 -0.00013374
0.0025993 -0.0011656 9.8418e-05 -0.0018196 -0.0017909 0.00022935 -0.0088211 0.28423
0.022335 0.0046384 -0.0025642 0.00079586
-0.0020529 -0.0030448 -0.0034092 -0.00054949 -0.0017777 0.00075154 0.022348 0.0046122
-0.05981 0.19905 0.01845 0.008273
-0.0039045 0.00015564 -0.0034167 -0.00046563 -0.0009055 -0.00016501 -0.0025729 0.00078452
0.018457 0.0082885 -0.082349 0.30238
1160000000 0.088671 0.30088 0.023321 -0.020877 0.0024279 -0.00033911 2.1994e-05 -0.0023519
-0.0040191 -0.00055296 -0.00090856 0.0038667
0.023305 -0.020837 -0.085919 0.37771 -0.0039706 -0.0289 -0.0017229 -0.0017101
-0.0026339 0.0028053 -0.0011504 0.0016218
0.0024435 -0.00035209 -0.0041062 -0.028878 0.24848 0.24476 -0.00065592 0.0017437
-0.00029453 0.0019428 -0.00077353 0.00012482
1.7912e-05 -0.0023513 -0.0017263 -0.0017061 -0.00065697 0.0017324 0.030155 0.2816
0.018746 -0.0097239 -0.0028679 0.0055826
-0.0040194 -0.0005295 -0.0026414 0.0028116 -0.00028226 0.0019573 0.018747 -0.009747
-0.027383 0.20806 0.017126 0.0003007
-0.00088924 0.0038573 -0.0011422 0.0016201 -0.00076764 0.00015362 -0.0028586 0.0055792
0.017157 0.00031248 -0.036029 0.30518
1220000000 0.13286 0.28971 0.0096691 -0.029767 -0.0016529 -0.00053735 7.1877e-05 -0.0012101
-0.0026131 0.0024865 0.0013456 0.0018983
0.0096832 -0.029735 -0.041849 0.38965 -0.016884 -0.020875 -0.0025112 0.00036425
0.00028372 0.0030596 -0.00064365 0.001779
-0.0016393 -0.00052672 -0.017006 -0.02082 0.28746 0.20562 0.00087488 0.0016552
0.00070506 0.0011255 0.00034588 0.00067657
6.5467e-05 -0.0012136 -0.0025261 0.00038529 0.00087334 0.0016543 0.069768 0.2736
0.0088654 -0.015279 0.0024372 0.0019237
-0.0025879 0.0025097 0.00028386 0.0030537 0.00069712 0.0011243 0.0088466 -0.015289
-0.0047142 0.21758 0.013215 -0.012276
0.0013401 0.001901 -0.00064345 0.0017878 0.00033436 0.0006825 0.0024249 0.0019131
0.013243 -0.012289 -0.0038725 0.32053
1280000000 0.18235 0.26745 -0.0083315 -0.0279 -0.0017309 0.0028164 -0.0010311 -0.0021537
-0.00070463 0.0030674 0.0025556 0.0010382
-0.0083168 -0.027879 0.00393 0.38079 -0.023633 -0.0083412 -0.0010686 0.0015142
0.0017969 0.0016597 0.00058204 0.0019266
-0.0017314 0.0028246 -0.0237 -0.0082375 0.31778 0.16172 0.0014756 -0.00017738
0.0011087 -6.095e-05 0.00033057 0.00029717
-0.0010326 -0.0021509 -0.0010698 0.0015172 0.0014702 -0.00017179 0.10629 0.25792
0.00020096 -0.016852 0.0004657 0.0003643
-0.00066934 0.0030712 0.0018044 0.0016446 0.0010942 -6.7932e-05 0.00016041 -0.016856
0.031704 0.22186 0.0026154 -0.014262
0.0025419 0.0010503 0.00058217 0.0019387 0.00032799 0.00029808 0.00046284 0.00036528
0.0026477 -0.014292 0.043468 0.32077
1340000000 0.2193 0.23369 -0.017802 -0.018215 0.0010944 0.0045984 -0.0020389 -0.00087447
0.0014089 0.0026603 0.0017968 -0.0015434
-0.017765 -0.018213 0.043404 0.37267 -0.021489 0.0043523 -5.824e-05 0.002064
0.0018808 0.00051313 0.0012966 0.00086853
0.0011152 0.0045908 -0.021492 0.0044659 0.3397 0.11389 0.0010333 -0.00095933
0.00060512 -0.00045522 0.00013485 0.00022205
-0.0020411 -0.00086972 -4.5681e-05 0.0020606 0.0010268 -0.00095638 0.13954 0.23823
-0.0077922 -0.013894 0.0013476 0.00027104
0.001421 0.0026639 0.0018846 0.00049488 0.00058352 -0.00046112 -0.0078208 -0.0139
0.061899 0.21811 -0.0035351 -0.012853
0.0017858 -0.001564 0.0013167 0.00085232 0.00012292 0.00022056 0.0013513 0.00026096
-0.0035258 -0.012905 0.081786 0.3155
1400000000 0.25212 0.19541 -0.02311 -0.0068035 0.0053765 0.0030729 -0.0021311 0.00077644
0.0025585 0.00082727 0.00022316 -0.0014514
-0.023081 -0.0068107 0.080618 0.35967 -0.014716 0.012435 0.0014155 0.0012946
0.00098672 -0.00095824 0.0011759 0.00020619
0.0053995 0.0030468 -0.014683 0.012524 0.35274 0.060529 1.5192e-05 -0.0015282
-2.329e-05 -0.0003409 0.00034338 0.00015188
-0.0021351 0.00078603 0.001426 0.0012831 1.6115e-05 -0.0015266 0.1697 0.20992
-0.012647 -0.0077617 -0.00038046 -0.00059221
0.0025509 0.00082082 0.00098426 -0.00096817 -1.5656e-05 -0.00033289 -0.012663 -0.0077497
0.095032 0.21398 -0.0098172 -0.0080661
0.00021401 -0.0014648 0.0011819 0.00019663 0.00034425 0.00015689 -0.00038018 -0.00058618
-0.0098253 -0.0081217 0.12587 0.30389
1460000000 0.27477 0.15125 -0.019858 0.0051196 0.0057474 -0.0018566 -0.0015246 0.0019005
0.0020472 -0.00066869 -0.00041426 -0.00086493
-0.019836 0.0050918 0.11496 0.33794 -0.0060296 0.015354 0.0017335 0.00013167
0.00069801 -0.0011671 0.0012076 -0.00062664
0.0057431 -0.0018715 -0.0059721 0.0154 0.35878 0.0061349 -0.0011978 -0.0012076
0.00020944 -7.6017e-05 0.00072974 -0.00038092
-0.0015231 0.0018832 0.0017367 0.00013536 -0.0011907 -0.0012079 0.19699 0.18087
-0.013039 -0.0021708 -0.00089356 0.0014439
0.002047 -0.00067752 0.00069103 -0.0011805 0.00021761 -9.8858e-05 -0.013055 -0.0021303
0.12532 0.19984 -0.011283 -0.0026221
-0.00040823 -0.00085907 0.0012035 -0.0006255 0.00072147 -0.00037736 -0.0008993 0.001452
-0.011307 -0.0026496 0.15894 0.28238
1520000000 0.28679 0.10949 -0.014065 0.010393 0.0032505 -0.004369 0.00019911 0.0026606
0.0018345 -0.001742 -0.0011904 -8.3639e-05
-0.014065 0.010373 0.14863 0.32313 0.0016268 0.013135 0.0015836 -0.00084423
-2.8287e-05 -0.00079103 0.00035441 -0.0010173
0.0032355 -0.0043917 0.0017011 0.013142 0.35209 -0.049831 -0.0010225 -0.00026701
0.00056326 -0.00079218 -2.0111e-05 -5.7103e-05
0.00021045 0.0026686 0.0015761 -0.00084947 -0.0010175 -0.00027309 0.22118 0.14256
-0.012228 0.0023676 0.0011887 0.0016843
0.0018175 -0.0017453 -3.7978e-05 -0.00079767 0.00055919 -0.00080371 -0.012229 0.0023887
0.15411 0.18549 -0.011151 0.0017279
-0.0011843 -7.9082e-05 0.00035511 -0.0010167 -4.1616e-05 -5.6115e-05 0.0012064 0.0016849
-0.011202 0.0017121 0.19163 0.26129
1580000000 0.29577 0.063079 -0.0075113 0.013133 -0.00095595 -0.0050287 0.0015268 0.0017827
-0.00045478 -0.0021655 -0.00034572 0.00044853
-0.0075206 0.013119 0.17601 0.29818 0.0052954 0.0082927 0.00041213 -0.0015733
-0.00036881 -0.00088706 -0.00021446 -0.00088644
-0.0010051 -0.0050304 0.0053449 0.0082668 0.33186 -0.10747 -0.0014219 0.00052712
-0.00025837 -0.0011162 0.00014215 -0.00052291
0.0015255 0.0017786 0.00041268 -0.0015777 -0.0014161 0.00051776 0.23599 0.10248
-0.0093695 0.0061459 0.0019678 0.00050977
-0.00046165 -0.0021557 -0.0003815 -0.00088246 -0.0002523 -0.0011306 -0.0093569 0.0061763
0.17929 0.16704 -0.0087376 0.0070349
-0.00034083 0.00045999 -0.00021518 -0.00088847 0.00013744 -0.00052864 0.0019764 0.0005086
-0.0087813 0.0070512 0.22312 0.234
1640000000 0.2975 0.021642 -0.0010807 0.011833 -0.0029231 -0.0027101 0.0026261 0.00088968
-0.00088514 -0.0012447 -0.00023005 0.0006426
-0.0010862 0.011839 0.20546 0.27294 0.0059492 0.0034004 -0.00071564 -0.0016451
-0.00079632 -0.00046031 -0.00052934 -0.00071535
-0.0029446 -0.0026735 0.0059767 0.0033783 0.3039 -0.15687 -0.00068485 0.0012847
-0.0010373 -0.00093094 -0.00011347 -0.00034061
0.002631 0.00087979 -0.00072719 -0.0016478 -0.00068216 0.0012845 0.24873 0.052443
-0.0058543 0.0067922 0.002159 -0.00082029
-0.00088769 -0.001245 -0.00081286 -0.00045612 -0.0010359 -0.00091632 -0.0058381 0.0068091
0.20296 0.14153 -0.0042687 0.0090036
-0.00021994 0.00064655 -0.0005288 -0.00070967 -0.00011283 -0.00034769 0.0021662 -0.00082409
-0.0043126 0.0090314 0.24837 0.2024
1700000000 0.28991 -0.023616 0.0021317 0.0090119 -0.0036096 7.0094e-05 0.00291 -0.0012326
-0.0019343 -0.0004682 0.00067355 0.00034765
0.0021276 0.0089998 0.2236 0.24114 0.0039393 0.00053657 -0.0013832 -0.00053587
-0.00070918 -0.00013673 -0.00098149 -0.00046153
-0.0036037 9.4153e-05 0.0039434 0.00050873 0.26001 -0.19685 0.0003947 0.0015459
-0.0017117 -0.00019685 -0.00057738 -0.00097417
0.0028912 -0.0012488 -0.001386 -0.00053278 0.00039471 0.0015495 0.24521 0.0012683
-0.0040526 0.0070604 0.0012214 -0.002191
-0.0019329 -0.00045788 -0.0007144 -0.000132 -0.0017116 -0.0001942 -0.0040399 0.0070778
0.22073 0.11976 0.00019644 0.0091883
0.00068575 0.00034179 -0.00097373 -0.00045686 -0.00058232 -0.00097442 0.0012308 -0.0022067
0.00016332 0.0092327 0.26414 0.16781
1760000000 0.27734 -0.071972 0.00423 0.0057648 -0.0023954 0.00091928 0.0011982 -0.0033693
-0.0011013 0.00068434 0.0003072 -0.00057813
0.0042157 0.0057554 0.24936 0.20094 0.0017097 -0.0012597 -0.0011078 0.00019237
-0.0012009 0.0007306 -0.0006728 0.0005143
-0.0023917 0.00094069 0.0017078 -0.0012805 0.2111 -0.2299 0.0010284 0.0011921
-0.0011926 0.0013131 -0.0014377 -0.00038672
0.0011877 -0.00336 -0.0011121 0.00020008 0.0010327 0.0011827 0.23495 -0.051146
-0.0017215 0.0064223 -0.00052468 -0.0023342
-0.0010971 0.00069076 -0.0011993 0.00074057 -0.0011834 0.001328 -0.0017098 0.0064355
0.23572 0.082717 0.0039792 0.0066133
0.00029957 -0.00058185 -0.00067514 0.00052491 -0.0014376 -0.0003917 -0.00052647 -0.0023496
0.0039813 0.0066691 0.27627 0.12974
1820000000 0.25251 -0.10922 0.0042484 0.0023649 -0.00017733 0.0025196 -0.00099124 -0.0030541
-0.00079589 0.00068259 -0.00010097 -0.00011832
0.0042416 0.0023691 0.25899 0.1706 -0.0003817 -0.00023588 -0.001357 0.00084693
-0.00028917 0.0013016 -0.00056813 0.00058415
-0.00016515 0.0025199 -0.00038567 -0.00023328 0.16105 -0.24573 0.0014529 0.00043835
-0.00038009 0.0020951 -0.0014921 0.00055995
-0.0010112 -0.0030622 -0.0013497 0.00085135 0.0014656 0.00044574 0.20355 -0.098504
-0.00091198 0.0052215 -0.0016886 -0.0013624
-0.00079004 0.00068593 -0.00027437 0.0013028 -0.00035485 0.0020977 -0.00089253 0.0052314
0.25196 0.051407 0.0048128 0.0031475
-9.2611e-05 -0.00011303 -0.00056318 0.00059311 -0.0014659 0.00059145 -0.0016965 -0.0013633
0.0048423 0.0031901 0.27785 0.093323
1880000000 0.21718 -0.14921 0.0020079 0.00021727 -0.00047824 0.0022694 -0.0028631 -0.0021896
-0.00024258 0.0014552 0.00027806 -0.00035593
0.0019996 0.00022204 0.26298 0.12389 -0.0024276 0.0015218 -0.00020941 0.0017132
0.00049598 0.0014979 0.0001925 0.0010393
-0.00047041 0.0022618 -0.0024297 0.0015416 0.10896 -0.25527 0.0020161 -0.00081937
0.0014168 0.0020786 -0.00078633 0.0014542
-0.0028741 -0.0021601 -0.00020021 0.0017148 0.0020119 -0.00082023 0.16154 -0.13793
-0.00086849 0.0040343 -0.0024485 0.00068899
-0.00022556 0.0014573 0.00050097 0.0014937 0.001436 0.0020874 -0.00085529 0.0040425
0.25326 0.016783 0.0044576 0.0010549
0.00028332 -0.00037958 0.00020749 0.0010425 -0.00077501 0.0014638 -0.0024526 0.00067992
0.0044923 0.001084 0.27695 0.058977
1940000000 0.17748 -0.17488 -0.00026819 -0.0013737 0.0014107 0.0020995 -0.0036921 0.00055249
0.0011032 0.0011023 -0.00049364 -0.0004553
-0.0002767 -0.00136 0.26297 0.09212 -0.0013699 0.0039024 0.00096959 0.0013931
0.0019798 0.00079899 0.00095485 0.00034949
0.0014189 0.0020966 -0.001369 0.0039247 0.062677 -0.24895 0.00053678 -0.0022274
0.0023962 0.00065643 0.00050201 0.0016469
-0.0036901 0.00057648 0.0009732 0.0013867 0.0005385 -0.0022303 0.10832 -0.16702
-0.0020311 0.0035481 -0.0012904 0.0018497
0.0011192 0.0010893 0.0019847 0.00078216 0.0024048 0.00064804 -0.0020274 0.0035694
0.25272 -0.024 0.0031659 -0.0020627
-0.00050905 -0.00046144 0.00094599 0.00034779 0.00051386 0.0016472 -0.0013069 0.0018709
0.0032127 -0.0020481 0.26517 0.022758
2000000000 0.13099 -0.18909 -0.0041562 0.00083313 0.0025259 0.0016213 -0.0023217 0.0037268
0.00092818 0.00039759 -0.00050529 0.00034025
-0.0041498 0.00083172 0.24835 0.056889 -0.001008 0.0058652 0.0016768 0.00039584
0.0016818 -0.0013377 0.00061652 0.00019691
0.0025257 0.0016261 -0.00098964 0.0058832 0.019177 -0.23431 -0.0013483 -0.00153
0.0021266 -0.0011 0.0016455 0.0012635
-0.0022888 0.0037491 0.0016779 0.00039048 -0.0013459 -0.0015412 0.055045 -0.17522
-0.0033771 0.0044666 0.00024396 0.0023876
0.00092098 0.00039618 0.001674 -0.0013616 0.0021123 -0.0011308 -0.0033833 0.0044803
