!Keysight Technologies,M9804A,MY58100912,A.14.10.03
!Date: Thursday, April 27, 2023 10:28:33
!Correction: S11(C  6-Port  ) 
!S12(C  6-Port  ) 
!S13(C  6-Port  ) 
!S14(C  6-Port  ) 
!S15(C  6-Port  ) 
!S16(C  6-Port  ) 
!S21(C  6-Port  ) 
!S22(C  6-Port  ) 
!S23(C  6-Port  ) 
!S24(C  6-Port  ) 
!S25(C  6-Port  ) 
!S26(C  6-Port  ) 
!S31(C  6-Port  ) 
!S32(C  6-Port  ) 
!S33(C  6-Port  ) 
!S34(C  6-Port  ) 
!S35(C  6-Port  ) 
!S36(C  6-Port  ) 
!S41(C  6-Port  ) 
!S42(C  6-Port  ) 
!S43(C  6-Port  ) 
!S44(C  6-Port  ) 
!S45(C  6-Port  ) 
!S46(C  6-Port  ) 
!S51(C  6-Port  ) 
!S52(C  6-Port  ) 
!S53(C  6-Port  ) 
!S54(C  6-Port  ) 
!S55(C  6-Port  ) 
!S56(C  6-Port  ) 
!S61(C  6-Port  ) 
!S62(C  6-Port  ) 
!S63(C  6-Port  ) 
!S64(C  6-Port  ) 
!S65(C  6-Port  ) 
!S66(C  6-Port  ) 
!S6P File: Measurement: :
# Hz S  RI   R 50
500000000 -0.33973 -0.037223 -0.010647 -0.0034261 -0.0080682 0.012527 -0.0039461 0.011739
0.011972 0.0045805 -0.0035779 0.0082573
-0.011423 -0.0026248 -0.41977 -0.050838 0.0074938 -0.010974 0.0014269 0.012044
0.0072376 0.0027376 0.0010616 0.013297
-0.0082135 0.012694 0.0070158 -0.010984 -0.26638 0.21108 0.0068497 0.0036773
-0.00052363 0.0087166 0.00057631 0.012158
-0.0046179 0.010909 0.0017504 0.01201 0.0068875 0.003376 -0.328 0.045837
-0.020603 -0.0045136 0.018056 0.02567
0.012068 0.0051216 0.0071614 0.0021735 -0.00046845 0.0085669 -0.020887 -0.004684
-0.2274 -0.18642 -0.028641 0.0042232
-0.0050732 0.0067353 0.0011137 0.01324 0.00076239 0.012049 0.018399 0.025333
-0.028226 0.0045234 -0.27187 -0.11654
560000000 -0.31782 0.12453 -0.024247 -0.062219 0.00042616 0.012089 0.0067533 0.010197
0.0095693 0.0045885 0.010329 0.0081178
-0.024846 -0.061962 -0.37674 0.10787 -0.042087 -0.036141 0.013204 0.0045663
-0.012937 -0.0037372 0.0039171 -0.00092827
0.0011717 0.012022 -0.04245 -0.03624 -0.18352 0.25958 -0.00018411 -0.004591
0.019166 0.0047634 0.0069845 -0.0058444
0.0063749 0.0095553 0.013523 0.0032659 -0.00026827 -0.0043021 -0.30414 0.13616
0.0038747 -0.024216 0.0046901 -0.019607
0.010548 0.004086 -0.014053 -0.0033003 0.019177 0.0048423 0.0035197 -0.024199
-0.28774 -0.010901 0.0077341 -0.050148
0.010546 0.0073612 0.0043377 -0.0010369 0.0069738 -0.0058416 0.0044788 -0.019391
0.0072112 -0.04966 -0.33192 0.030066
620000000 -0.27538 0.10905 -0.022702 0.0079712 0.0040208 0.0083794 0.0070165 -0.0053822
0.012015 -4.2838e-05 0.00061574 -0.0021635
-0.022885 0.0081167 -0.40295 0.061772 -0.018423 0.00032662 -0.001195 -0.0020311
0.01074 -0.0070197 0.0013159 -0.0026683
0.004003 0.0087163 -0.018511 0.00035687 -0.15285 0.26858 -0.0012902 -0.0053424
-0.0031193 -0.0031271 0.0080865 -0.0035018
0.0073475 -0.0048317 -0.0017231 -0.0019252 -0.001257 -0.0052079 -0.26253 0.14642
-0.039439 -0.018343 0.014038 0.024798
0.011383 -0.0010232 0.011224 -0.0069267 -0.0034604 -0.0035289 -0.03966 -0.018602
-0.20535 -0.049263 -0.040961 0.014638
0.00054469 -0.0016989 0.00048071 -0.0031437 0.0082324 -0.0034266 0.014131 0.024955
-0.040966 0.014403 -0.25095 -0.0058032
680000000 -0.23401 0.19481 -0.027145 -0.013238 0.004982 0.0049516 0.0015698 -0.0076391
-0.0028813 -0.011416 0.0046553 -0.0069838
-0.027388 -0.013543 -0.38708 0.15955 -0.032363 -0.0011628 -0.0013774 -0.00026833
-0.0023747 -0.0091119 -0.0011089 -0.0021004
0.0050816 0.00477 -0.032305 -0.0010667 -0.10149 0.28786 -0.00073976 -0.00011475
-0.0020405 0.00038609 -0.0029618 -0.0095126
0.0015913 -0.0071575 -0.0014543 -0.00052719 -0.00066975 -0.00018293 -0.2195 0.19592
-0.023539 -0.0070943 -0.0088546 -0.010272
-0.0027378 -0.011214 -0.0025388 -0.0091297 -0.0020936 0.00042608 -0.023708 -0.0069656
-0.25448 0.049696 -0.0058522 -0.0088937
0.0048115 -0.0069157 -0.00078167 -0.0023193 -0.0027646 -0.009329 -0.0090092 -0.010149
-0.0055985 -0.0087361 -0.25932 0.097612
740000000 -0.18923 0.18944 -0.038164 0.026683 0.012875 -0.0053269 -0.00065167 -0.0039769
-0.0044437 -0.003489 -0.006646 0.003444
-0.037745 0.026601 -0.3346 0.17814 -0.034667 0.03502 -0.0005075 -0.0063463
-0.012194 0.0075614 -0.0023608 -0.0061027
0.012839 -0.0054212 -0.034591 0.035036 -0.067511 0.28589 -0.0018522 0.0033964
-0.0027615 -0.0042998 -0.0013601 0.00039287
-0.00076548 -0.0039992 -0.00082158 -0.00623 -0.0018527 0.0032774 -0.20235 0.2035
-0.042111 -0.0079159 0.022449 0.013731
-0.0043369 -0.003394 -0.012101 0.0077326 -0.0026297 -0.0039618 -0.042048 -0.007929
-0.15764 0.07511 -0.041358 0.00070456
-0.0067915 0.0029345 -0.0029936 -0.0060675 -0.001354 0.00017759 0.022519 0.013526
-0.041478 0.0002112 -0.24753 0.10367
800000000 -0.15601 0.22944 -0.021858 0.016832 0.0052379 -0.010651 -0.0047096 -0.0019578
-0.0041143 0.0021674 0.004232 0.0010712
-0.022043 0.016922 -0.33715 0.24794 -0.0075596 0.033732 -0.0021919 0.0021867
-0.00091036 0.0032729 0.0011429 0.0053311
0.0053695 -0.010481 -0.0075638 0.033811 -0.026763 0.3084 0.0010206 0.0016286
0.00065248 0.0036441 -0.0016883 0.00089949
-0.0047284 -0.0017178 -0.0022771 0.0022338 0.0010245 0.0015808 -0.17407 0.23091
-0.027471 0.012814 0.013192 -0.010017
-0.0039201 0.0030617 -0.00085602 0.0031747 0.00063627 0.0036851 -0.027392 0.012966
-0.20095 0.098173 -0.01681 0.017759
0.0039879 0.0017305 0.000805 0.0053428 -0.0016672 0.00080911 0.01308 -0.010065
-0.016757 0.017829 -0.23877 0.15485
860000000 -0.12136 0.24858 -0.016937 0.030493 -0.0033241 -0.0099652 -0.0021569 0.00095601
0.0038391 0.0049541 -0.0030075 -0.0025814
-0.016855 0.030375 -0.28914 0.28967 0.0081358 0.033812 0.00014605 0.0020368
0.00422 0.00042243 0.0033224 0.00052994
-0.0033496 -0.0099778 0.0082516 0.033844 0.021093 0.31608 -0.00033045 -0.00022493
0.0027962 -0.0016446 0.0016101 0.0041539
-0.0021467 0.0010297 7.4663e-05 0.0020364 -0.00041759 -0.00026848 -0.13793 0.24196
-0.01703 0.018231 -0.0060142 -0.0087807
0.0040155 0.0049383 0.0041425 0.00045209 0.002902 -0.0016196 -0.0169 0.018178
-0.1499 0.14561 -0.023814 0.015544
-0.0028544 -0.0024935 0.0035789 0.00041308 0.0016692 0.0042072 -0.0060658 -0.0088923
-0.023827 0.015495 -0.18868 0.19625
920000000 -0.096559 0.27133 0.0054154 0.037081 -0.0093686 -0.0045264 -0.0019431 0.0019152
0.001267 0.0017937 0.0025405 -0.0015904
0.0053828 0.037273 -0.26031 0.31022 0.027954 0.021436 0.0015892 0.001179
0.0069705 -0.00051685 0.0039863 -0.002969
-0.0093575 -0.0044148 0.028042 0.021374 0.067119 0.31654 0.0018564 -0.000171
0.001222 -0.00032628 0.00077224 -0.0011686
-0.0019634 0.0018814 0.0016196 0.0011159 0.001869 -0.00017122 -0.11369 0.2581
-0.0099901 0.029768 0.0029645 -0.0068449
0.0013132 0.0019838 0.0071838 -0.0007839 0.0012112 -0.00030859 -0.0099115 0.029632
-0.14033 0.15114 -0.0019379 0.027152
0.0025361 -0.0016741 0.0038413 -0.0028955 0.00075018 -0.0011178 0.0029647 -0.0067628
-0.002117 0.027223 -0.19406 0.21064
980000000 -0.049533 0.29045 0.01751 0.029469 -0.0089959 0.0044987 0.0020617 0.0036867
0.0039425 -0.0016208 -0.003108 -0.0020255
0.01752 0.029401 -0.20771 0.34381 0.032717 0.0045463 0.0020135 0.00013093
0.0013438 -0.0062285 -0.00062014 -0.0021256
-0.0089726 0.0045473 0.032773 0.0044131 0.1133 0.30996 0.00047127 -0.0012001
9.8912e-05 -0.0021154 0.0013044 -2.4825e-05
0.002131 0.0036355 0.0019419 0.00010603 0.00047236 -0.00121 -0.075915 0.26906
0.007571 0.028001 -0.0092062 -0.006701
0.0040346 -0.0016657 0.0014453 -0.0062641 8.2781e-05 -0.0021558 0.0076614 0.028034
-0.10848 0.17795 0.0049072 0.01872
-0.0032085 -0.00214 -0.00078707 -0.0021642 0.0013062 -4.4957e-05 -0.0091247 -0.0067858
0.0048745 0.018641 -0.15118 0.25541
1040000000 -0.0073656 0.29863 0.032967 0.017543 -0.0013384 0.0067368 0.0024598 0.00086515
8.2358e-05 -0.0036941 -0.00067483 -0.0016202
0.032936 0.017589 -0.17244 0.35675 0.028953 -0.014924 0.0015284 -0.0016349
-0.0024887 -0.0025884 -0.0014302 -0.0027763
-0.0013088 0.00676 0.028907 -0.014994 0.15935 0.29616 -0.00053574 -0.0014441
-0.0016069 -0.00076375 -0.00053253 -0.0010462
0.0024559 0.00095121 0.0014703 -0.0016423 -0.00053224 -0.0014496 -0.048786 0.279
0.018233 0.016659 -0.0030883 0.0016334
0.00025268 -0.0036904 -0.0026104 -0.0025767 -0.0016321 -0.00077421 0.018258 0.016679
-0.077552 0.18615 0.013553 0.017747
-0.00062101 -0.0015762 -0.0015081 -0.0027575 -0.00053828 -0.0010392 -0.0029903 0.0015377
0.013469 0.017686 -0.12938 0.27452
1100000000 0.037713 0.30601 0.035343 -0.0045942 0.0026965 0.0037733 0.0025712 -0.0011247
-0.0019955 -0.0030622 -0.0039504 0.00013978
0.035306 -0.0045215 -0.12912 0.37355 0.014842 -0.027662 8.42e-05 -0.0018227
-0.0034228 -0.00066632 -0.0034199 -0.00051365
0.0027062 0.0038273 0.01476 -0.027747 0.20559 0.27571 -0.0018129 0.00021424
-0.0017905 0.00073355 -0.00091209 -0.00016623
0.0025643 -0.0011489 9.4687e-05 -0.0018322 -0.0018409 0.00023168 -0.0086745 0.28407
0.022416 0.004425 -0.0026234 0.00069145
-0.0018835 -0.0031214 -0.0034897 -0.00064924 -0.0017965 0.00074418 0.022493 0.0044292
-0.059311 0.1989 0.018642 0.0082641
-0.003967 7.8298e-05 -0.003306 -0.00050717 -0.00091493 -0.00021639 -0.0026346 0.00073459
0.018566 0.0083418 -0.082629 0.30246
1160000000 0.088915 0.30088 0.023379 -0.020847 0.0024367 -0.0003671 2.07e-05 -0.00235
-0.0040126 -0.00052909 -0.00093062 0.0038237
0.023401 -0.020791 -0.085762 0.3778 -0.0039389 -0.028874 -0.0017183 -0.0017035
-0.0026366 0.0028569 -0.0011748 0.0016533
0.0024222 -0.0003899 -0.0040692 -0.028876 0.24854 0.24475 -0.00065229 0.0017422
-0.00030141 0.00199 -0.00080209 0.00013398
7.6622e-05 -0.0023622 -0.0016754 -0.0016324 -0.00069349 0.0017577 0.030172 0.2814
0.018713 -0.0099799 -0.0029145 0.005522
-0.0040494 -0.00060058 -0.0026668 0.0028128 -0.00030491 0.0019746 0.018681 -0.010042
-0.026775 0.20768 0.017376 0.00025161
-0.00091226 0.0038461 -0.0012051 0.0017115 -0.00079878 0.00015811 -0.0029867 0.0055377
0.017402 0.00018759 -0.036307 0.30513
1220000000 0.13302 0.28961 0.0097427 -0.029813 -0.0016267 -0.00056696 8.5873e-05 -0.0011806
-0.0026572 0.0024975 0.0013281 0.0019342
0.0097411 -0.029778 -0.041654 0.38963 -0.016865 -0.020874 -0.0025416 0.00039333
0.00024448 0.0031173 -0.00065903 0.0018305
-0.0016328 -0.00055867 -0.016989 -0.02082 0.28747 0.20558 0.00090796 0.0016832
0.00069982 0.0011095 0.00033417 0.00066817
5.1526e-05 -0.0011727 -0.0025086 0.00040066 0.00089294 0.0016769 0.069697 0.27344
0.0087004 -0.015489 0.0023514 0.0019041
-0.0027118 0.0024816 0.00023818 0.0031098 0.0006901 0.0011452 0.0086826 -0.015539
-0.0043558 0.21705 0.013352 -0.01248
0.0013672 0.0020226 -0.00065946 0.0018438 0.00031589 0.0007 0.0023343 0.0019211
0.013359 -0.012467 -0.0039638 0.32055
1280000000 0.18253 0.26741 -0.0082745 -0.027928 -0.0017273 0.0028001 -0.00097974 -0.0021378
-0.00071903 0.0031189 0.0025435 0.0010655
-0.0082993 -0.027887 0.0040488 0.38082 -0.023612 -0.0083274 -0.0011014 0.0015229
0.0018393 0.001697 0.00058494 0.0019465
-0.0017455 0.0027819 -0.023678 -0.0082357 0.31786 0.16175 0.0015066 -0.00016775
0.0010962 -3.7076e-05 0.00030743 0.00027038
-0.00096523 -0.0021252 -0.0010851 0.0014984 0.0014775 -0.00019481 0.10613 0.25784
-8.8875e-05 -0.016993 0.00038874 0.00039716
-0.00067596 0.0031012 0.0018442 0.0017031 0.0010952 -3.5102e-05 -0.00011095 -0.017029
0.031759 0.22127 0.0026372 -0.014491
0.0025902 0.0010037 0.00058408 0.0018465 0.00035423 0.00024375 0.00036209 0.00041065
0.0026721 -0.014486 0.043413 0.32085
1340000000 0.21955 0.2336 -0.017779 -0.018274 0.001063 0.0045867 -0.002003 -0.00090847
0.0014206 0.0026805 0.001807 -0.0015467
-0.017753 -0.018307 0.04359 0.37264 -0.021478 0.0043258 -6.5547e-05 0.0020711
0.0019241 0.0005232 0.0013121 0.00085144
0.0010885 0.0045248 -0.021477 0.0044405 0.33982 0.11385 0.0010501 -0.00096513
0.0005691 -0.00045082 0.00014395 0.00023772
-0.0020239 -0.00085958 -5.7928e-05 0.0020401 0.0010249 -0.00099448 0.1394 0.23821
-0.0081169 -0.01385 0.0012737 0.00034668
0.0014388 0.0026518 0.0019189 0.00050206 0.0005593 -0.00045123 -0.0081664 -0.013831
0.06173 0.21759 -0.0036712 -0.013087
0.0017988 -0.0015052 0.0012799 0.00081736 0.00015586 0.00020768 0.0012775 0.00033775
-0.0036611 -0.013058 0.081771 0.31548
1400000000 0.25235 0.19524 -0.023114 -0.0068399 0.005333 0.0030628 -0.002159 0.00076423
0.0025626 0.00087664 0.00023956 -0.0014518
-0.023089 -0.0068561 0.080734 0.35967 -0.014731 0.012413 0.0014161 0.0013046
0.0010232 -0.00098573 0.0011967 0.00019103
0.0053538 0.0030145 -0.014691 0.012511 0.35283 0.060464 -9.2984e-06 -0.0015406
-2.8483e-06 -0.0003254 0.00032068 0.00019379
-0.0021624 0.00077639 0.0013963 0.001291 -2.3511e-05 -0.0015276 0.16958 0.20999
-0.012907 -0.0075818 -0.00036763 -0.00050683
0.0025832 0.0008765 0.0010212 -0.0010205 2.7271e-06 -0.00032592 -0.012963 -0.0075316
0.094604 0.21356 -0.0099988 -0.0082187
0.00025425 -0.0014662 0.001153 0.00015693 0.00029855 0.00015187 -0.00040541 -0.00050361
-0.0099752 -0.008178 0.12558 0.30393
1460000000 0.27497 0.15108 -0.019909 0.005092 0.005702 -0.0018368 -0.0015188 0.0018989
0.0020751 -0.00065552 -0.00036938 -0.00088897
-0.019885 0.0051048 0.11513 0.33797 -0.0060662 0.015327 0.0017365 0.00013227
0.00068444 -0.0011984 0.0011971 -0.00061883
0.0056822 -0.0018814 -0.0059746 0.015361 0.3589 0.0060477 -0.0011923 -0.0011958
0.00020353 -6.9666e-05 0.00073643 -0.00036425
-0.0015141 0.0018738 0.0017207 0.00010188 -0.001178 -0.0011725 0.19692 0.18102
-0.013202 -0.0018593 -0.00084453 0.0014901
0.0020708 -0.00071362 0.00066547 -0.0012008 0.00025512 -8.2276e-05 -0.013214 -0.0018088
0.12476 0.1997 -0.01153 -0.0026967
-0.00045545 -0.00089886 0.0012166 -0.00067374 0.00075756 -0.00037061 -0.00086715 0.0015245
-0.011516 -0.0026681 0.1588 0.2824
1520000000 0.28693 0.10917 -0.014124 0.010392 0.0032335 -0.0043517 0.00020217 0.0026647
0.0018313 -0.0017664 -0.0012157 -0.00010527
-0.014121 0.010361 0.14878 0.32306 0.0015967 0.013136 0.0015835 -0.00085008
-7.2236e-05 -0.00080584 0.00033769 -0.0010149
0.0032473 -0.0044003 0.0016581 0.013144 0.35214 -0.049959 -0.0010247 -0.00024377
0.00058552 -0.00080215 -1.4459e-05 -6.5843e-05
0.00023001 0.0026485 0.0015698 -0.00085908 -0.0010301 -0.00025446 0.22117 0.14265
-0.012179 0.0026957 0.0012562 0.0017274
0.0018929 -0.0017867 -7.0191e-05 -0.00081827 0.00056429 -0.00082881 -0.01219 0.0027491
0.15362 0.1856 -0.011383 0.0018142
-0.0013028 -0.00014784 0.00032465 -0.00098001 -2.3362e-05 -4.9531e-05 0.0012696 0.0017405
-0.01137 0.0017776 0.19143 0.26127
1580000000 0.2959 0.062855 -0.0075356 0.013171 -0.00096885 -0.0050154 0.0015346 0.0018006
-0.00047034 -0.0021888 -0.00033713 0.00043704
-0.007538 0.013147 0.17614 0.29816 0.00527 0.0082857 0.00042682 -0.0015812
-0.00040787 -0.00087443 -0.00020811 -0.00088739
-0.00098037 -0.004968 0.0053112 0.0082667 0.33191 -0.10759 -0.0014552 0.00056355
-0.00027834 -0.0011343 0.0001247 -0.00054428
0.0015419 0.0018137 0.00043734 -0.0015862 -0.0014374 0.000548 0.23603 0.10257
-0.0091736 0.0064023 0.002043 0.00052041
-0.00043379 -0.0022407 -0.00038797 -0.00085854 -0.00028917 -0.0011416 -0.0091427 0.0064428
0.17888 0.16737 -0.0089169 0.0071893
-0.00032915 0.00048858 -0.00016306 -0.0008635 0.00016446 -0.00055988 0.0020505 0.00052402
-0.0089158 0.0071688 0.22293 0.23406
1640000000 0.2975 0.021349 -0.0011115 0.011888 -0.0029067 -0.0026889 0.0026194 0.00089035
-0.00094485 -0.0012622 -0.00024142 0.0006568
-0.0011108 0.011863 0.20562 0.27287 0.0059484 0.0034378 -0.00070998 -0.0016592
-0.00080337 -0.00043114 -0.00052393 -0.0007129
-0.0028844 -0.0026669 0.0059432 0.0034136 0.3039 -0.15702 -0.0006751 0.0012783
-0.001019 -0.00089682 -0.00013444 -0.00034057
0.0026472 0.00090933 -0.00071513 -0.001636 -0.00065977 0.0012775 0.24884 0.052538
-0.0055621 0.0069246 0.0022154 -0.00084129
-0.00092265 -0.0012204 -0.00080282 -0.00041415 -0.0010475 -0.00090158 -0.005551 0.0069554
0.20284 0.14197 -0.0043801 0.0092154
-0.00023441 0.00070334 -0.00054745 -0.00070097 -0.00013423 -0.00033613 0.0022545 -0.00084111
-0.0044034 0.0092176 0.24813 0.2025
1700000000 0.28982 -0.023835 0.0021089 0.0090456 -0.0036334 0.00010392 0.002933 -0.0012294
-0.0019394 -0.00045393 0.00068974 0.00036868
0.0021389 0.0090419 0.22371 0.24104 0.0039265 0.00054864 -0.0013815 -0.00053952
-0.00067471 -0.0001282 -0.00096938 -0.00045748
-0.0036132 0.00010498 0.0039268 0.00052343 0.2599 -0.19697 0.00040905 0.0015146
-0.001714 -0.0001841 -0.00058272 -0.00096336
0.0029022 -0.0012058 -0.0014059 -0.00053658 0.00039015 0.0015121 0.2453 0.001338
-0.0037697 0.0070289 0.0012564 -0.002257
-0.0018949 -0.0004205 -0.00066022 -0.00010573 -0.0017324 -0.00018167 -0.0037281 0.0070546
0.22077 0.12013 0.00019444 0.0094232
0.00065511 0.00036575 -0.00099016 -0.00048201 -0.00055273 -0.00095523 0.0012633 -0.0022541
0.0001954 0.0094025 0.26387 0.16802
1760000000 0.27726 -0.072132 0.0042246 0.0057945 -0.0024318 0.00092366 0.0011907 -0.0033595
-0.0011062 0.00075673 0.00031749 -0.00057108
0.0042344 0.005797 0.24949 0.20083 0.0017339 -0.0012554 -0.0011216 0.00020878
-0.0011795 0.00071144 -0.00067554 0.00051488
-0.0024306 0.00095781 0.0017203 -0.0012376 0.21109 -0.22996 0.0010255 0.0011755
-0.0011775 0.0013599 -0.0014187 -0.00037828
0.0011786 -0.0033339 -0.0011245 0.00022344 0.0010528 0.0011698 0.23512 -0.051096
-0.0014772 0.0062807 -0.00049495 -0.0024161
-0.0011575 0.00082374 -0.0012011 0.0007269 -0.001152 0.0013493 -0.0014701 0.006275
0.23596 0.083111 0.0040821 0.0068078
0.00043163 -0.00058258 -0.00067156 0.0005379 -0.001455 -0.00038228 -0.00051052 -0.0024016
0.004021 0.0068371 0.27616 0.12989
1820000000 0.25242 -0.10936 0.0042897 0.0023904 -0.00017428 0.0025291 -0.00102 -0.0030711
-0.00076388 0.0007119 -9.6195e-05 -0.00012317
0.0042849 0.0023799 0.2591 0.17045 -0.00034167 -0.00022626 -0.0013397 0.00082774
-0.00029828 0.0012642 -0.000572 0.00058982
-0.00010831 0.0024976 -0.00035262 -0.00022139 0.16114 -0.24585 0.0014891 0.00044356
-0.00036547 0.0020875 -0.0015014 0.0006083
-0.0009959 -0.0029687 -0.0013542 0.00085419 0.0015313 0.0004319 0.20369 -0.09865
-0.00073713 0.0049978 -0.0017211 -0.0014514
-0.00075764 0.00079471 -0.00028205 0.0012487 -0.00030839 0.0020929 -0.00074961 0.0049768
0.25231 0.051611 0.004995 0.0032918
-9.6417e-05 -0.00018607 -0.00057605 0.00058531 -0.0014544 0.00062307 -0.0017143 -0.0014336
0.0049623 0.0032835 0.27777 0.093461
1880000000 0.217 -0.14931 0.0020306 0.0002234 -0.00050277 0.0022807 -0.0029006 -0.0021899
-0.00020175 0.0014353 0.00025798 -0.00039725
0.0019963 0.00022942 0.26307 0.12378 -0.0024214 0.0015383 -0.00017982 0.0017086
0.0004657 0.0014817 0.00019762 0.0010482
-0.00043937 0.0022732 -0.0024147 0.0015484 0.10883 -0.25511 0.0020724 -0.00083796
0.0014554 0.0020881 -0.00078377 0.0014802
-0.0030055 -0.0021936 -0.00023307 0.0017118 0.0020582 -0.00081049 0.16161 -0.13808
-0.00083832 0.0038025 -0.0025152 0.00064311
-0.00027711 0.0013734 0.00045362 0.001463 0.0014394 0.0020695 -0.00083221 0.0038034
0.25362 0.016816 0.0046443 0.0011095
0.00021937 -0.00034305 0.00021063 0.0010453 -0.00079526 0.0015185 -0.0025346 0.00066692
0.0046352 0.0010997 0.27687 0.059218
1940000000 0.17746 -0.17491 -0.00022495 -0.0013828 0.0014669 0.0020942 -0.0037169 0.0004896
0.0011241 0.0010199 -0.00050429 -0.0004673
-0.00027068 -0.0013652 0.26308 0.091983 -0.0013644 0.0039119 0.00099853 0.0013907
0.0019503 0.00085273 0.00093814 0.00036037
0.0014098 0.0021008 -0.0012995 0.0039195 0.062646 -0.24895 0.00059204 -0.0021743
0.0023819 0.0006817 0.00049469 0.0016258
-0.0037384 0.00049272 0.00094215 0.0013666 0.00055063 -0.0021806 0.10833 -0.16728
-0.0021694 0.0033257 -0.0014391 0.001833
0.0011066 0.00094635 0.0019739 0.00082105 0.0023652 0.00068557 -0.0020951 0.0033235
0.25306 -0.024102 0.0033647 -0.0021272
-0.00055653 -0.00044533 0.00095867 0.00033367 0.00051796 0.0016574 -0.0013799 0.0018278
0.0033905 -0.002082 0.26519 0.02298
2000000000 0.13091 -0.1891 -0.0041596 0.00080994 0.0025664 0.0016511 -0.0023145 0.0036848
0.00090498 0.00038764 -0.00050442 0.00036649
-0.0041918 0.00082293 0.24834 0.05676 -0.0010007 0.0058797 0.0017129 0.00042138
0.0016862 -0.0012874 0.00060113 0.0002142
0.002535 0.0016635 -0.0009998 0.0058976 0.019135 -0.23428 -0.0013077 -0.0015036
0.0021495 -0.0010902 0.0016456 0.0012835
-0.0022384 0.0038047 0.0016874 0.00040392 -0.0013335 -0.0015107 0.054943 -0.17538
-0.0035975 0.0042864 0.00014429 0.0023902
0.00090651 0.00043888 0.0016746 -0.0013087 0.0021226 -0.0011237 -0.0035437 0.0043256
