!Keysight Technologies,M9804A,MY58100912,A.14.10.03
!Date: Thursday, April 27, 2023 10:28:33
!Correction: S11(C  6-Port  ) 
!S12(C  6-Port  ) 
!S13(C  6-Port  ) 
!S14(C  6-Port  ) 
!S15(C  6-Port  ) 
!S16(C  6-Port  ) 
!S21(C  6-Port  ) 
!S22(C  6-Port  ) 
!S23(C  6-Port  ) 
!S24(C  6-Port  ) 
!S25(C  6-Port  ) 
!S26(C  6-Port  ) 
!S31(C  6-Port  ) 
!S32(C  6-Port  ) 
!S33(C  6-Port  ) 
!S34(C  6-Port  ) 
!S35(C  6-Port  ) 
!S36(C  6-Port  ) 
!S41(C  6-Port  ) 
!S42(C  6-Port  ) 
!S43(C  6-Port  ) 
!S44(C  6-Port  ) 
!S45(C  6-Port  ) 
!S46(C  6-Port  ) 
!S51(C  6-Port  ) 
!S52(C  6-Port  ) 
!S53(C  6-Port  ) 
!S54(C  6-Port  ) 
!S55(C  6-Port  ) 
!S56(C  6-Port  ) 
!S61(C  6-Port  ) 
!S62(C  6-Port  ) 
!S63(C  6-Port  ) 
!S64(C  6-Port  ) 
!S65(C  6-Port  ) 
!S66(C  6-Port  ) 
!S6P File: Measurement: :
# Hz S  RI   R 50
500000000 -0.33948 -0.037405 -0.010546 -0.0029156 -0.0080968 0.012817 -0.0028692 0.011269
0.011716 0.0043171 -0.0035918 0.0072883
-0.010785 -0.0029084 -0.41924 -0.050376 0.0073122 -0.010869 0.0018798 0.012182
0.0073912 0.0021447 0.0010256 0.01333
-0.0080802 0.012982 0.0073007 -0.010858 -0.26625 0.21121 0.0070041 0.0034192
-0.00098613 0.0086844 0.00050059 0.012583
-0.0036997 0.012078 0.0018376 0.012296 0.007001 0.0034411 -0.32759 0.046158
-0.020892 -0.0048025 0.01876 0.025279
0.010858 0.004173 0.007145 0.0021288 -0.00096051 0.008677 -0.020868 -0.0047721
-0.22701 -0.18726 -0.028807 0.0038181
-0.0045554 0.0088599 0.0010049 0.013629 0.00052522 0.012565 0.01875 0.02533
-0.028796 0.0037931 -0.27151 -0.11743
560000000 -0.3185 0.12458 -0.023914 -0.061515 2.6774e-06 0.012778 0.0063803 0.010221
0.0108 0.004919 0.010386 0.0082145
-0.023395 -0.061549 -0.37595 0.10801 -0.042603 -0.036249 0.013164 0.0042881
-0.012918 -0.0039128 0.0043721 -3.5039e-05
0.00025714 0.012928 -0.04259 -0.035937 -0.18323 0.25948 8.666e-06 -0.004331
0.019105 0.0046777 0.0062991 -0.006318
0.006732 0.010553 0.013477 0.0042081 2.8162e-06 -0.0043533 -0.3037 0.13586
0.0036307 -0.024987 0.0043053 -0.019132
0.010712 0.0034189 -0.012705 -0.0044325 0.01913 0.0046907 0.0036606 -0.025036
-0.28903 -0.011298 0.0074125 -0.049451
0.010792 0.0073283 0.004835 -0.00067452 0.0062581 -0.006334 0.0043185 -0.019254
0.0074085 -0.049462 -0.3312 0.032454
620000000 -0.27594 0.10876 -0.022979 0.0077719 0.0040548 0.0080516 0.0067289 -0.0055053
0.012551 0.00013651 -0.00049207 -0.0023741
-0.022853 0.008136 -0.40319 0.061828 -0.018458 0.00015667 -0.0010901 -0.0021839
0.0109 -0.0068421 0.0007614 -0.0027105
0.0037265 0.00869 -0.0186 0.0003701 -0.15286 0.26825 -0.0010591 -0.0056275
-0.0033433 -0.0030928 0.0083305 -0.0037035
0.0062013 -0.0052326 -0.0013249 -0.0020634 -0.0010829 -0.0056552 -0.26245 0.14556
-0.039126 -0.017971 0.014137 0.023666
0.012411 0.00026813 0.011086 -0.0068933 -0.0033508 -0.0030546 -0.039177 -0.017962
-0.20581 -0.049555 -0.040878 0.01459
0.00055549 -0.0018762 0.00077893 -0.0026348 0.0083455 -0.0037238 0.01424 0.023701
-0.040882 0.014583 -0.25104 -0.0064448
680000000 -0.23507 0.19539 -0.027374 -0.013326 0.0047666 0.0049859 0.0010977 -0.0070866
-0.0028581 -0.011058 0.0044583 -0.0063147
-0.027556 -0.01347 -0.38724 0.15954 -0.032393 -0.001009 -0.0016199 -4.173e-05
-0.0026452 -0.009006 -0.0010169 -0.001819
0.0051021 0.0050587 -0.032327 -0.0010807 -0.10151 0.28809 -0.00092206 -2.9275e-05
-0.0022544 0.00047752 -0.00279 -0.0090619
0.0019927 -0.0073138 -0.0013123 -4.9453e-05 -0.00091084 -8.9187e-06 -0.21968 0.19586
-0.023252 -0.0073458 -0.0088953 -0.01005
-0.0030037 -0.011321 -0.0025561 -0.0090234 -0.0022736 0.00047165 -0.023252 -0.0073545
-0.25497 0.049469 -0.0063889 -0.0087392
0.0046016 -0.00687 -0.0007982 -0.0022228 -0.002817 -0.009055 -0.0089594 -0.0101
-0.0063806 -0.0087775 -0.25854 0.098128
740000000 -0.18937 0.18997 -0.038019 0.02636 0.012989 -0.0053313 -0.00051966 -0.0042828
-0.0043138 -0.0033839 -0.0066088 0.0028208
-0.037968 0.026322 -0.33387 0.178 -0.034824 0.034924 -0.0004563 -0.0062718
-0.012506 0.0072018 -0.0028396 -0.0062062
0.013087 -0.0050395 -0.034756 0.035252 -0.067453 0.28569 -0.0017212 0.0032239
-0.0025865 -0.0041622 -0.0014741 -0.00013217
-0.0008968 -0.0040943 -0.00052258 -0.0062673 -0.0017248 0.0032111 -0.20229 0.20355
-0.042237 -0.0077543 0.022495 0.013525
-0.0045005 -0.0035833 -0.012486 0.0072893 -0.0026103 -0.0041534 -0.042285 -0.0077281
-0.15792 0.075191 -0.041221 0.00097899
-0.0063941 0.0034565 -0.00276 -0.006054 -0.001429 -0.00015259 0.022556 0.013537
-0.041201 0.00095145 -0.24754 0.10315
800000000 -0.15613 0.22908 -0.021768 0.016785 0.0052205 -0.010504 -0.0049597 -0.0019565
-0.0043431 0.0025142 0.0040005 0.0013209
-0.021815 0.016737 -0.33699 0.248 -0.0076126 0.033787 -0.0023589 0.0022336
-0.00081901 0.0031505 0.0010092 0.0056081
0.0049768 -0.010638 -0.0074894 0.033773 -0.026766 0.30852 0.00075515 0.0017287
0.00065964 0.003732 -0.0017778 0.0012449
-0.0047288 -0.0019726 -0.0022308 0.002264 0.00076439 0.0017501 -0.1741 0.23049
-0.027339 0.012867 0.01262 -0.010321
-0.0043213 0.0022021 -0.00083413 0.0030626 0.00066334 0.0037423 -0.027331 0.012925
-0.20122 0.097718 -0.016815 0.017985
0.003855 0.00081396 0.0011205 0.0055268 -0.0018117 0.0012918 0.012621 -0.010395
-0.016806 0.017966 -0.23952 0.15514
860000000 -0.12144 0.24891 -0.016985 0.030582 -0.0034125 -0.0099305 -0.0020887 0.00093225
0.0041601 0.0049146 -0.0032856 -0.0025658
-0.016993 0.030504 -0.28932 0.28961 0.0080165 0.033788 9.4899e-05 0.0019941
0.0041748 0.00049557 0.0032189 0.0004593
-0.0032323 -0.0098668 0.0081707 0.033858 0.021086 0.31606 -0.00025235 -0.00025245
0.002976 -0.0014637 0.0016081 0.0040589
-0.0023284 0.00090607 -3.9708e-05 0.0021329 -0.00026047 -0.00027461 -0.13802 0.242
-0.017124 0.018349 -0.0059542 -0.0090173
0.0040262 0.0047149 0.0041892 0.00048589 0.0029766 -0.0014615 -0.017113 0.01837
-0.14925 0.14552 -0.023602 0.016342
-0.0030672 -0.0022609 0.0033537 0.00050481 0.0016296 0.0040512 -0.0059392 -0.0089501
-0.023647 0.016353 -0.1892 0.19548
920000000 -0.096834 0.27147 0.0053577 0.037114 -0.0092699 -0.0044935 -0.00194 0.0020651
0.0011832 0.0016681 0.0027603 -0.0014458
0.0053122 0.037061 -0.26032 0.31018 0.02794 0.02149 0.0016211 0.00099287
0.0069467 -0.00028439 0.0039051 -0.0030525
-0.0094814 -0.0043932 0.028047 0.021394 0.067125 0.31656 0.0019039 -0.00016292
0.001129 -0.0002953 0.00075418 -0.0012405
-0.0018828 0.0019561 0.0016075 0.00088731 0.0019008 -0.00016705 -0.11357 0.25796
-0.0097291 0.02961 0.0029223 -0.0069351
0.0015861 0.0017861 0.006927 -0.00038452 0.0011186 -0.00030369 -0.0096521 0.02968
-0.14017 0.15141 -0.0016702 0.02697
0.0024172 -0.0017213 0.0038941 -0.0031462 0.00075845 -0.0012487 0.0029391 -0.0069538
-0.0016879 0.026958 -0.19388 0.21073
980000000 -0.049197 0.29053 0.017571 0.029433 -0.0089968 0.0045478 0.0020997 0.0036705
0.0040287 -0.0016839 -0.0032909 -0.0019605
0.017501 0.029457 -0.20773 0.34372 0.032737 0.0045389 0.0019586 8.4157e-05
0.0014104 -0.0063561 -0.00087604 -0.0018586
-0.0089401 0.0045023 0.032772 0.0044358 0.11328 0.31 0.00043152 -0.0012342
9.3713e-05 -0.0020777 0.0012395 -9.5304e-06
0.0021387 0.0037084 0.0019336 0.000146 0.00043634 -0.001226 -0.075717 0.2691
0.0073703 0.027999 -0.0092383 -0.0069082
0.0039446 -0.0017953 0.0013887 -0.0062996 8.5535e-05 -0.0020863 0.0074224 0.027985
-0.10799 0.17814 0.0046028 0.018983
-0.0031762 -0.001909 -0.00083304 -0.0018963 0.0012558 -1.002e-05 -0.0092611 -0.0068746
0.004579 0.018982 -0.15073 0.25539
1040000000 -0.00754 0.29886 0.033 0.017548 -0.0012488 0.0067268 0.0023676 0.00099724
6.9059e-05 -0.0036587 -0.00047408 -0.0015234
0.0329 0.017575 -0.17234 0.3567 0.029053 -0.014869 0.0015038 -0.0015865
-0.0023104 -0.002531 -0.0013707 -0.0026062
-0.0013055 0.0067575 0.028969 -0.014996 0.15941 0.29617 -0.00046604 -0.0014204
-0.0016169 -0.00082001 -0.00054485 -0.0010103
0.0025186 0.0009403 0.0015302 -0.0016417 -0.0004668 -0.0014323 -0.048547 0.27913
0.0184 0.016623 -0.0029104 0.0014838
7.211e-05 -0.0034833 -0.0023892 -0.0025334 -0.0016135 -0.00079454 0.018447 0.016647
-0.077709 0.18581 0.01382 0.01791
-0.00066195 -0.0017876 -0.0014123 -0.0026974 -0.00055019 -0.001012 -0.0028813 0.0015037
0.013813 0.017917 -0.12966 0.27462
1100000000 0.037949 0.3059 0.035403 -0.0045518 0.0026888 0.0037572 0.0027039 -0.0011039
-0.0020616 -0.0030365 -0.0040141 -4.1465e-05
0.035372 -0.004593 -0.12909 0.37355 0.014817 -0.027652 0.00017364 -0.0018575
-0.0034762 -0.00064348 -0.003498 -0.00065146
0.0027391 0.0037101 0.014735 -0.027729 0.20562 0.2757 -0.00188 0.00022009
-0.0017831 0.00075166 -0.00095553 -0.00010807
0.0026433 -0.0011573 0.00013732 -0.0018695 -0.0018792 0.00021951 -0.0086419 0.28412
0.022357 0.0045034 -0.0025701 0.00075737
-0.0022506 -0.0031619 -0.0034712 -0.00062668 -0.0017883 0.0007544 0.022376 0.0044543
-0.059136 0.19898 0.018622 0.0084494
-0.0037302 -1.4336e-05 -0.0035126 -0.00060759 -0.00096386 -0.00010228 -0.002579 0.00074971
0.018612 0.0084468 -0.082065 0.30256
1160000000 0.088793 0.30096 0.023344 -0.02084 0.0024584 -0.00034845 -6.8812e-05 -0.0023366
-0.0040725 -0.00048202 -0.00083085 0.0039328
0.023403 -0.020784 -0.085742 0.37789 -0.0039588 -0.02887 -0.0017555 -0.0016795
-0.002725 0.0028724 -0.0010538 0.0016566
0.0024492 -0.00037371 -0.0040956 -0.028878 0.24852 0.2448 -0.00067761 0.0017537
-0.00024515 0.0020199 -0.00082244 8.3192e-05
0.00011606 -0.0022938 -0.0017973 -0.0016451 -0.00067334 0.0017622 0.030232 0.28135
0.018661 -0.010001 -0.0029632 0.0054934
-0.0040139 -0.00046626 -0.0026961 0.0028527 -0.00025848 0.0020333 0.018634 -0.010031
-0.026914 0.20771 0.017576 9.4576e-05
-0.0010572 0.0036427 -0.0010849 0.0016383 -0.0008048 8.4449e-05 -0.0029432 0.0055278
0.017577 0.00013161 -0.036397 0.30537
1220000000 0.13302 0.28958 0.0098066 -0.029815 -0.0016375 -0.00061817 5.497e-05 -0.0012162
-0.0027771 0.0025481 0.0011441 0.0019461
0.0097415 -0.029751 -0.041633 0.38962 -0.016894 -0.020858 -0.0025159 0.00039777
0.00024865 0.0030777 -0.00075405 0.0018293
-0.0016367 -0.00059708 -0.016992 -0.020799 0.2875 0.20556 0.00085671 0.0016337
0.00071955 0.0011246 0.00033045 0.00070695
2.7777e-05 -0.0011786 -0.0025173 0.00036223 0.00085426 0.0016278 0.069741 0.27352
0.0086559 -0.015404 0.0022369 0.0019159
-0.0027524 0.0024084 0.00020926 0.0030741 0.00071786 0.0011215 0.008626 -0.015411
-0.0042541 0.21698 0.013439 -0.01251
0.0012712 0.0019748 -0.00070561 0.001817 0.00031748 0.00070617 0.0022427 0.0019062
0.01344 -0.012504 -0.0036969 0.32069
1280000000 0.18265 0.26744 -0.0083131 -0.027946 -0.0017534 0.0028229 -0.00098231 -0.0021424
-0.00069335 0.0030221 0.0026468 0.0011779
-0.0082075 -0.027925 0.0040554 0.38092 -0.023587 -0.0083132 -0.0010696 0.001444
0.001838 0.0017068 0.00066238 0.0019238
-0.0017327 0.0027854 -0.023653 -0.008231 0.31791 0.1617 0.0014376 -0.00015566
0.0010794 -3.9962e-05 0.00030539 0.00022352
-0.00099587 -0.0021111 -0.0011266 0.0014819 0.0014452 -0.0001556 0.10627 0.25783
-5e-05 -0.017033 0.00034743 0.00044492
-0.00066484 0.0031038 0.0018598 0.0016674 0.00107 -4.0042e-05 -7.6567e-05 -0.017027
0.031753 0.22104 0.0025678 -0.014532
0.0026062 0.0010705 0.00065359 0.0020029 0.00031616 0.00023233 0.0003334 0.00044665
0.0025381 -0.014541 0.043408 0.32078
1340000000 0.21952 0.23355 -0.017826 -0.018324 0.0010843 0.0045781 -0.0019915 -0.0009284
0.0014262 0.0027202 0.001768 -0.001591
-0.01782 -0.018297 0.0436 0.37264 -0.021471 0.0043218 -4.2136e-05 0.0020587
0.001945 0.00051456 0.0012634 0.00085187
0.0011056 0.0045621 -0.021483 0.0044433 0.3398 0.11384 0.0010517 -0.00099598
0.00059698 -0.00044689 0.00010973 0.00025794
-0.0020149 -0.00091141 1.2049e-05 0.0020106 0.0010468 -0.0010021 0.13939 0.23827
-0.008131 -0.013779 0.0012347 0.00038966
0.0014766 0.0026695 0.0019208 0.00048029 0.00059392 -0.00043658 -0.0081706 -0.013774
0.061776 0.21757 -0.0036878 -0.013191
0.0018366 -0.0016082 0.001286 0.00081881 0.00011022 0.00025305 0.0012403 0.00036361
-0.0036633 -0.013184 0.081934 0.31558
1400000000 0.25239 0.19526 -0.023137 -0.0068242 0.0053723 0.0030402 -0.0021902 0.00078819
0.0025926 0.00082333 0.00023931 -0.0014253
-0.023088 -0.0068703 0.080786 0.3597 -0.014717 0.012374 0.0013967 0.0012732
0.00099919 -0.000977 0.0011716 0.00022974
0.0053765 0.0030545 -0.014668 0.012476 0.3528 0.060422 -9.6504e-05 -0.0015497
-1.5987e-05 -0.00027729 0.00033616 0.00024811
-0.0021226 0.00080228 0.001376 0.0013028 -9.1265e-05 -0.0015562 0.16963 0.20999
-0.01283 -0.0076145 -0.00040333 -0.00048231
0.0025713 0.0008463 0.0010261 -0.00096454 -3.0821e-05 -0.00028457 -0.012858 -0.0075667
0.094604 0.21341 -0.01017 -0.0082002
0.00018496 -0.0014706 0.0011507 0.00025174 0.00032288 0.00025178 -0.00042591 -0.00047001
-0.010152 -0.008225 0.12578 0.30379
1460000000 0.27501 0.15102 -0.019895 0.0051203 0.00574 -0.0018862 -0.0015524 0.0019122
0.0020299 -0.00064985 -0.0004189 -0.0010206
-0.019904 0.0050932 0.1152 0.33795 -0.0060792 0.015321 0.0017105 0.00016108
0.00068306 -0.0011783 0.001241 -0.00056726
0.0057182 -0.0019059 -0.006003 0.015384 0.35897 0.0060806 -0.0012158 -0.0011582
0.00024249 -5.2208e-05 0.00071466 -0.00041182
-0.0015428 0.0018901 0.0017446 0.0001286 -0.0011988 -0.0011616 0.19702 0.18094
-0.013241 -0.0018803 -0.00085963 0.0014932
0.0020484 -0.000635 0.00065931 -0.0012187 0.00025011 -5.845e-05 -0.013247 -0.0018412
0.1248 0.19969 -0.011649 -0.0026273
-0.00036684 -0.00096045 0.0012171 -0.0006853 0.0007048 -0.00042661 -0.00083036 0.0014813
-0.01164 -0.0025877 0.15875 0.28244
1520000000 0.28699 0.10923 -0.014146 0.010398 0.0032636 -0.0043207 0.00021086 0.0026651
0.0018778 -0.0017498 -0.001256 -0.00010744
-0.014145 0.010379 0.14881 0.32303 0.0016236 0.013132 0.0015933 -0.00086454
-7.3782e-05 -0.00081098 0.00032314 -0.0010126
0.0032607 -0.0043204 0.0016824 0.013124 0.35216 -0.050007 -0.0010556 -0.00021196
0.00055981 -0.00083597 1.8655e-05 -7.5151e-05
0.00021774 0.0026833 0.001575 -0.00086589 -0.0010508 -0.00020992 0.22119 0.14261
-0.012243 0.0027216 0.0012759 0.0016998
0.0018283 -0.0017793 -8.0019e-05 -0.00081418 0.00055655 -0.00084648 -0.012252 0.0027485
0.15356 0.18562 -0.01146 0.001959
-0.0011952 -0.00011206 0.00032425 -0.0010018 2.0777e-05 -8.1478e-05 0.0012746 0.0016969
-0.011449 0.001934 0.19141 0.26118
1580000000 0.29588 0.06272 -0.0075482 0.013164 -0.00097105 -0.0049954 0.0015492 0.0018062
-0.00047492 -0.0022073 -0.00036698 0.00042642
-0.0075533 0.013155 0.17619 0.29814 0.0052726 0.0082811 0.00042079 -0.001617
-0.00038956 -0.00087812 -0.00017161 -0.00087864
-0.00099235 -0.0049986 0.0053138 0.0082664 0.3319 -0.10759 -0.0014419 0.00059817
-0.0002912 -0.0011306 0.00013499 -0.0006706
0.0015633 0.0017596 0.00041551 -0.0016013 -0.0014416 0.00059377 0.23603 0.10269
-0.0090712 0.006493 0.0020143 0.00049697
-0.00044366 -0.0021575 -0.00036697 -0.00089136 -0.00029857 -0.0011334 -0.0090729 0.0065435
0.17887 0.16749 -0.0089642 0.0072535
-0.00036761 0.00047879 -0.00017067 -0.0009066 0.00013705 -0.00066936 0.0020195 0.00049724
-0.008982 0.0072446 0.22299 0.23408
1640000000 0.2975 0.02134 -0.0010894 0.011882 -0.0028862 -0.0026687 0.002673 0.00091007
-0.00090393 -0.0012368 -0.00025648 0.00063842
-0.0011196 0.011897 0.20568 0.27281 0.0059277 0.0034603 -0.0007334 -0.0016207
-0.00080529 -0.00042784 -0.00049996 -0.00073664
-0.0028835 -0.0026625 0.0059483 0.0034393 0.30391 -0.15706 -0.00063659 0.0013232
-0.0010265 -0.00088806 -0.00014538 -0.00031926
0.0026487 0.00088374 -0.00072496 -0.0016275 -0.00063665 0.0013217 0.24891 0.052498
-0.0055618 0.0068643 0.0022443 -0.00087982
-0.00094324 -0.0012964 -0.00081943 -0.00041975 -0.0010482 -0.00087997 -0.0055394 0.0068739
0.20276 0.14191 -0.0043607 0.0093508
-0.00021215 0.00065178 -0.00051229 -0.00073232 -0.00014757 -0.0003261 0.0022471 -0.00087862
-0.0043386 0.0093509 0.24812 0.2023
1700000000 0.28978 -0.023887 0.0021212 0.0090542 -0.0036283 8.6223e-05 0.0029001 -0.0012666
-0.0019643 -0.00045793 0.00063899 0.00037469
0.0021486 0.0090593 0.22368 0.24101 0.0039256 0.00052201 -0.0013661 -0.00055982
-0.00063952 -0.00012091 -0.0010076 -0.00047292
-0.0035811 9.9053e-05 0.0039271 0.00052468 0.25983 -0.19701 0.00038012 0.0014852
-0.0016876 -0.00014703 -0.00056611 -0.00096369
0.0029128 -0.0013295 -0.0013704 -0.00055187 0.00038194 0.0014938 0.24525 0.0012433
-0.0037654 0.0070916 0.0011848 -0.0022683
-0.0019402 -0.00041652 -0.00064576 -0.00012499 -0.0016892 -0.00013791 -0.0037627 0.0070942
0.22084 0.12018 0.00024941 0.0095024
0.00061423 0.00038585 -0.00099602 -0.00044761 -0.00056421 -0.00097147 0.0011847 -0.002276
0.00024485 0.009503 0.264 0.16787
1760000000 0.2772 -0.072215 0.0042431 0.0057853 -0.0024238 0.00093436 0.0012267 -0.0032955
-0.0010711 0.0007696 0.00033505 -0.0006551
0.0042369 0.0057957 0.24951 0.20083 0.0017721 -0.0012539 -0.0011325 0.00021888
-0.0011826 0.00069344 -0.00064148 0.00055905
-0.0023913 0.00092535 0.0017366 -0.0012607 0.21113 -0.23001 0.0010153 0.0012258
-0.001122 0.00141 -0.0013868 -0.00036278
0.0011337 -0.0033452 -0.001116 0.00023279 0.0010157 0.0012139 0.23516 -0.051091
-0.0013851 0.0062171 -0.00051095 -0.0023408
-0.0011313 0.0007882 -0.0011693 0.00071506 -0.0011389 0.0014099 -0.0013671 0.0062482
0.23597 0.083113 0.0041064 0.0068401
0.00037447 -0.00062193 -0.00066728 0.00054941 -0.0014029 -0.00033884 -0.00052632 -0.0023356
0.0041185 0.0068663 0.27619 0.12988
1820000000 0.25234 -0.10936 0.0042794 0.0023737 -0.00015898 0.0025231 -0.001011 -0.0030304
-0.00078466 0.00067547 -8.8977e-05 -0.00017731
0.0042769 0.002362 0.25907 0.17042 -0.00037598 -0.00024425 -0.0013707 0.00084762
-0.00031204 0.0012546 -0.00060596 0.0005673
-0.00016482 0.0025569 -0.000358 -0.00021887 0.16099 -0.24588 0.0015035 0.00041878
-0.00036058 0.0021233 -0.0015226 0.0006356
-0.00099135 -0.0030321 -0.0013692 0.00083503 0.001493 0.00041317 0.2038 -0.09859
-0.00076727 0.00507 -0.0018418 -0.0014375
-0.00072524 0.00068474 -0.00031054 0.0012524 -0.00034203 0.0021232 -0.00076392 0.0050498
0.25224 0.051679 0.0050458 0.00332
-0.00016633 -0.00016706 -0.00059707 0.0006073 -0.0015255 0.00063973 -0.001822 -0.0014446
0.0050368 0.0032993 0.27789 0.09345
1880000000 0.21707 -0.14936 0.0020433 0.00022521 -0.00052365 0.0022861 -0.0028777 -0.0021884
-0.00015583 0.0014584 0.00020599 -0.0004028
0.0020459 0.00019695 0.26304 0.1238 -0.0024309 0.0015132 -0.00024668 0.001674
0.00045641 0.0014697 0.00021897 0.0010593
-0.00049689 0.0022441 -0.0024163 0.0015449 0.10879 -0.25516 0.0019515 -0.00077476
0.001442 0.0020838 -0.00073609 0.0014562
-0.0029402 -0.002191 -0.00021984 0.0016922 0.0019566 -0.00078279 0.16149 -0.13811
-0.00076399 0.0038145 -0.0025683 0.00078519
-0.00017634 0.0014294 0.0004686 0.0014638 0.0014372 0.0020707 -0.00076928 0.0038402
0.25384 0.016786 0.0046625 0.001132
0.00028739 -0.00039378 0.00023001 0.0010085 -0.0007297 0.0014645 -0.0025855 0.00077811
0.0046672 0.0011473 0.27709 0.059183
1940000000 0.17744 -0.17496 -0.00021507 -0.0013423 0.0014175 0.0021144 -0.0036489 0.00049441
0.0010658 0.0010119 -0.00051673 -0.00047861
-0.00024399 -0.0013842 0.26311 0.091989 -0.0013852 0.0038927 0.0010479 0.0013495
0.0019296 0.00082126 0.00090312 0.00033746
0.0014585 0.0020789 -0.0013478 0.0039275 0.062593 -0.24894 0.00057271 -0.0022802
0.0023895 0.00062851 0.00058393 0.0016304
-0.0036585 0.00056773 0.0010015 0.001367 0.0005608 -0.0022747 0.10847 -0.16723
-0.0019876 0.003259 -0.0012332 0.0018542
0.0011022 0.0010692 0.0019545 0.00080957 0.0024048 0.00063834 -0.0019749 0.0032809
0.25309 -0.024134 0.003436 -0.0021993
-0.00047618 -0.00050476 0.00091793 0.00035112 0.00060237 0.0016338 -0.0012062 0.0019104
0.0034293 -0.0022084 0.26504 0.022894
2000000000 0.13097 -0.18937 -0.0041257 0.00083876 0.0025885 0.0016867 -0.0023455 0.0037572
0.0008538 0.00045024 -0.00054894 0.0004231
-0.0041146 0.00080025 0.24842 0.056765 -0.0010153 0.0058944 0.0016919 0.0003991
0.001696 -0.0013087 0.00054812 0.00020492
0.0025895 0.0016301 -0.0009785 0.0058919 0.019004 -0.23421 -0.0013777 -0.0015436
0.0020342 -0.0011626 0.0015649 0.0012029
-0.0022947 0.0036385 0.0016786 0.0003625 -0.0013771 -0.0015719 0.05499 -0.17542
-0.0035018 0.0042739 0.00018117 0.0023185
0.00083796 0.00033902 0.0016984 -0.0013503 0.0020351 -0.0011813 -0.0034882 0.0042792
0.24418 -0.058792 0.00020131 -0.002907
