!Keysight Technologies,M9804A,MY58100912,A.14.10.03
!Date: Thursday, April 27, 2023 10:28:33
!Correction: S11(C  6-Port  ) 
!S12(C  6-Port  ) 
!S13(C  6-Port  ) 
!S14(C  6-Port  ) 
!S15(C  6-Port  ) 
!S16(C  6-Port  ) 
!S21(C  6-Port  ) 
!S22(C  6-Port  ) 
!S23(C  6-Port  ) 
!S24(C  6-Port  ) 
!S25(C  6-Port  ) 
!S26(C  6-Port  ) 
!S31(C  6-Port  ) 
!S32(C  6-Port  ) 
!S33(C  6-Port  ) 
!S34(C  6-Port  ) 
!S35(C  6-Port  ) 
!S36(C  6-Port  ) 
!S41(C  6-Port  ) 
!S42(C  6-Port  ) 
!S43(C  6-Port  ) 
!S44(C  6-Port  ) 
!S45(C  6-Port  ) 
!S46(C  6-Port  ) 
!S51(C  6-Port  ) 
!S52(C  6-Port  ) 
!S53(C  6-Port  ) 
!S54(C  6-Port  ) 
!S55(C  6-Port  ) 
!S56(C  6-Port  ) 
!S61(C  6-Port  ) 
!S62(C  6-Port  ) 
!S63(C  6-Port  ) 
!S64(C  6-Port  ) 
!S65(C  6-Port  ) 
!S66(C  6-Port  ) 
!S6P File: Measurement: :
# Hz S  RI   R 50
500000000 -0.33888 -0.037277 -0.010521 -0.0031695 -0.0080385 0.012467 -0.0037807 0.011614
0.012105 0.0044501 -0.0039494 0.0081508
-0.010491 -0.0031617 -0.4196 -0.050552 0.0073052 -0.010856 0.001445 0.012268
0.0070294 0.002387 0.0008116 0.013432
-0.0080055 0.012441 0.0072742 -0.010851 -0.26644 0.21118 0.006903 0.003566
-0.00081871 0.0088878 0.0004975 0.012213
-0.0037514 0.011551 0.0014489 0.012323 0.0069133 0.0036331 -0.32792 0.046072
-0.02098 -0.0042963 0.017934 0.025573
0.012018 0.0045386 0.0070515 0.0023301 -0.00089971 0.0087896 -0.020979 -0.004286
-0.22663 -0.18584 -0.028746 0.0046461
-0.0039732 0.0081007 0.00077673 0.01346 0.00047759 0.012278 0.017938 0.025559
-0.028751 0.0046408 -0.27239 -0.11688
560000000 -0.31806 0.12396 -0.024159 -0.062483 0.00053705 0.012447 0.0062055 0.010351
0.010142 0.0047178 0.010395 0.0080367
-0.024108 -0.062402 -0.37717 0.10858 -0.042459 -0.036497 0.01358 0.0041783
-0.013591 -0.0044435 0.0041169 -0.0005863
0.00060096 0.012465 -0.042537 -0.036427 -0.18338 0.2598 -0.00026907 -0.0044886
0.019276 0.0047084 0.0069568 -0.0058549
0.0062902 0.010245 0.01344 0.0040538 -0.00021691 -0.0044742 -0.30372 0.13581
0.0036531 -0.024049 0.0046659 -0.019522
0.010205 0.0047547 -0.013355 -0.0045221 0.01923 0.0048456 0.0036333 -0.024045
-0.28746 -0.0102 0.0075399 -0.050001
0.010404 0.0081063 0.0042327 -0.00057378 0.006892 -0.0058907 0.0046586 -0.019525
0.0075584 -0.049994 -0.33203 0.030379
620000000 -0.2752 0.10964 -0.023009 0.0081634 0.0039779 0.0084643 0.0069157 -0.0054114
0.011803 -0.0001996 0.00053533 -0.0021407
-0.022989 0.0081563 -0.40319 0.061773 -0.018586 0.00033703 -0.0010736 -0.0017735
0.010654 -0.0071696 0.0012935 -0.0027167
0.0039784 0.0084711 -0.018584 0.00039214 -0.15299 0.26854 -0.001243 -0.0051561
-0.0035081 -0.003413 0.008199 -0.0034396
0.0069317 -0.0054361 -0.0010739 -0.0018234 -0.0012299 -0.0052302 -0.26259 0.14635
-0.039047 -0.018489 0.014258 0.024759
0.011872 -0.00019338 0.010701 -0.0071631 -0.0034425 -0.0033566 -0.039057 -0.018463
-0.20544 -0.049302 -0.0407 0.014544
0.00034426 -0.0020004 0.0012367 -0.0026719 0.0083129 -0.0033442 0.014272 0.024762
-0.040724 0.014517 -0.25066 -0.005862
680000000 -0.23439 0.19488 -0.027404 -0.013355 0.0049574 0.0048332 0.0012372 -0.0074146
-0.0028452 -0.011172 0.0045556 -0.0070312
-0.027375 -0.013352 -0.38748 0.15941 -0.032289 -0.0011986 -0.0014961 -0.00032227
-0.0024755 -0.0091241 -0.0010728 -0.0020826
0.0049684 0.0048197 -0.032314 -0.0011194 -0.10138 0.28784 -0.0007644 -0.0001268
-0.0021331 0.00035682 -0.0028558 -0.0095083
0.0012728 -0.0074151 -0.0014874 -0.00033379 -0.00077123 -0.00013768 -0.21945 0.19571
-0.023499 -0.007338 -0.0087506 -0.010315
-0.0028349 -0.011096 -0.0025051 -0.0091682 -0.0020993 0.00033685 -0.023514 -0.0073169
-0.25386 0.049298 -0.0056643 -0.0089062
0.004506 -0.0070473 -0.0010957 -0.0020801 -0.002884 -0.0095317 -0.0087605 -0.010329
-0.0056581 -0.0089048 -0.25955 0.097547
740000000 -0.18944 0.18946 -0.037819 0.026941 0.012756 -0.0053637 -0.00051258 -0.0039895
-0.0046001 -0.0031801 -0.0063264 0.00326
-0.037814 0.026901 -0.33419 0.1776 -0.034548 0.035219 -0.00056093 -0.0064516
-0.012169 0.0075125 -0.0025011 -0.0061948
0.012739 -0.0053976 -0.034462 0.035341 -0.067579 0.28584 -0.0017698 0.0033336
-0.0027731 -0.0040975 -0.001207 0.00021665
-0.00053332 -0.0040062 -0.00057719 -0.0064369 -0.0017951 0.0033316 -0.20225 0.20332
-0.04212 -0.0080695 0.0224 0.013647
-0.0046019 -0.0031733 -0.012156 0.0075651 -0.0027633 -0.0041525 -0.042154 -0.0080221
-0.15742 0.074751 -0.041179 0.00052473
-0.0062927 0.0033801 -0.002604 -0.006107 -0.0012696 0.00022304 0.022403 0.013609
-0.041154 0.00052528 -0.2475 0.10367
800000000 -0.15613 0.22889 -0.021803 0.01687 0.0052392 -0.010627 -0.0046011 -0.0020025
-0.0041243 0.0023292 0.004309 0.0011348
-0.021791 0.016849 -0.33708 0.24788 -0.0076125 0.033762 -0.002168 0.0021638
-0.00090799 0.0032921 0.0011456 0.0053838
0.0052023 -0.010657 -0.0075213 0.033816 -0.026775 0.30834 0.0010199 0.0016261
0.0006943 0.0036751 -0.0017335 0.00088088
-0.004616 -0.002004 -0.0021717 0.0021649 0.0010318 0.0016277 -0.17398 0.23065
-0.027478 0.012662 0.013146 -0.010037
-0.0041303 0.0023908 -0.00091361 0.0033207 0.00066227 0.0036821 -0.027482 0.012712
-0.20081 0.09742 -0.016781 0.017616
0.0043195 0.0010597 0.0011614 0.0053191 -0.0017166 0.00088351 0.013161 -0.010054
-0.016788 0.0176 -0.23864 0.15477
860000000 -0.12151 0.24875 -0.016814 0.030492 -0.0032996 -0.0099206 -0.0022686 0.00092202
0.0039408 0.004949 -0.0029648 -0.0025911
-0.016816 0.030451 -0.28923 0.28952 0.0081095 0.033863 0.00011207 0.0020409
0.0041303 0.00057402 0.0033086 0.00041702
-0.0033214 -0.0099228 0.0082163 0.033882 0.021018 0.31598 -0.00039852 -0.00026976
0.0028337 -0.0015677 0.0016193 0.0041585
-0.0022973 0.00088059 0.000116 0.0020045 -0.00040108 -0.00026608 -0.13809 0.24167
-0.017243 0.018178 -0.0060593 -0.0088154
0.0038981 0.0049221 0.0040999 0.0004623 0.0028616 -0.0015866 -0.01722 0.018221
-0.15015 0.14509 -0.023823 0.015219
-0.0029619 -0.0025806 0.0033116 0.00043561 0.0016176 0.0041625 -0.0060669 -0.0088113
-0.02382 0.01519 -0.18862 0.19642
920000000 -0.096741 0.27118 0.0053671 0.037049 -0.0093812 -0.0045222 -0.0019534 0.0019563
0.0014197 0.0016242 0.0025949 -0.0016184
0.0053409 0.037004 -0.26043 0.30991 0.027942 0.021448 0.0015373 0.0011109
0.007 -0.00064556 0.0039379 -0.0029931
-0.0094018 -0.0045073 0.028038 0.021384 0.067021 0.31655 0.0018078 -0.00016272
0.001195 -0.00044633 0.00071935 -0.0012229
-0.0019419 0.0019668 0.00155 0.0011128 0.0018172 -0.00016028 -0.11395 0.25797
-0.010131 0.029578 0.0028787 -0.0067761
0.0014579 0.0016346 0.0069824 -0.00067868 0.0012035 -0.00040159 -0.010084 0.029613
-0.14051 0.15073 -0.0020069 0.027008
0.0025965 -0.0016757 0.0039252 -0.0030213 0.0007195 -0.0012245 0.0028784 -0.0067837
-0.0020235 0.027004 -0.19383 0.21075
980000000 -0.049565 0.29046 0.01756 0.029419 -0.0089818 0.0044933 0.0021385 0.0037195
0.0039144 -0.0016828 -0.0031338 -0.0020625
0.01754 0.029383 -0.20778 0.34359 0.032756 0.0045325 0.0019784 0.00012825
0.0013145 -0.0062794 -0.00065517 -0.0021191
-0.0089622 0.0045155 0.032793 0.0044265 0.1132 0.30991 0.00043877 -0.0011844
8.3166e-05 -0.0021564 0.0012768 -4.1997e-05
0.0021427 0.0036941 0.0019797 0.00013371 0.00043692 -0.0011758 -0.076063 0.26909
0.0074632 0.028039 -0.0092566 -0.0066719
0.0039254 -0.0017112 0.0012778 -0.0062837 5.5927e-05 -0.0021405 0.0075232 0.028036
-0.10877 0.17774 0.004868 0.018621
-0.0031387 -0.0020449 -0.00066688 -0.0021041 0.0012654 -2.4515e-05 -0.0092586 -0.006654
0.0048563 0.018607 -0.15097 0.25546
1040000000 -0.0075496 0.2986 0.032918 0.01756 -0.0013484 0.0067219 0.0025338 0.00090816
2.7528e-05 -0.0036496 -0.0006649 -0.001659
0.032868 0.017531 -0.17255 0.35656 0.028976 -0.014913 0.0015086 -0.0016913
-0.0024787 -0.0024985 -0.0014159 -0.0027906
-0.0013097 0.006723 0.028928 -0.015029 0.15922 0.2962 -0.00050509 -0.0014211
-0.0016299 -0.00075516 -0.00051403 -0.0010355
0.0025291 0.00090266 0.0015236 -0.001682 -0.00051833 -0.0014437 -0.049005 0.27913
0.018048 0.016778 -0.0030888 0.0017315
2.2309e-05 -0.0036219 -0.0025505 -0.0024945 -0.0016255 -0.00074278 0.018095 0.016756
-0.078063 0.18597 0.013348 0.017652
-0.00066391 -0.0016332 -0.0014433 -0.0027847 -0.00052306 -0.0010303 -0.0030801 0.00174
0.013347 0.017649 -0.12916 0.27452
1100000000 0.03753 0.30592 0.035327 -0.0046808 0.0026759 0.0037641 0.0025984 -0.0011598
-0.0020398 -0.0030588 -0.0039265 0.00013338
0.03529 -0.0046714 -0.12928 0.37339 0.014858 -0.027684 9.2681e-05 -0.0018238
-0.0034021 -0.0005654 -0.0033818 -0.00049552
0.0026986 0.0037607 0.014775 -0.027751 0.20557 0.27577 -0.0017971 0.00022624
-0.00179 0.00074802 -0.00091248 -0.00014845
0.0025979 -0.0011747 9.9664e-05 -0.0018178 -0.0017886 0.00021614 -0.0088129 0.28422
0.02235 0.0046452 -0.0025753 0.00078789
-0.0020495 -0.0030409 -0.0033982 -0.00054603 -0.0017659 0.00075732 0.022368 0.0046114
-0.059848 0.19911 0.018468 0.0082572
-0.0039251 0.00017648 -0.00341 -0.00046442 -0.00091718 -0.00013637 -0.0025649 0.00080127
0.018457 0.0082688 -0.082364 0.30245
1160000000 0.088659 0.30087 0.023314 -0.020882 0.0024353 -0.00034547 1.526e-05 -0.002349
-0.0040049 -0.00055754 -0.00091271 0.0038492
0.023311 -0.020848 -0.08594 0.37771 -0.0039441 -0.028882 -0.0017193 -0.0017086
-0.0026247 0.0028023 -0.0011482 0.0016096
0.0024363 -0.0003395 -0.0040999 -0.028889 0.24849 0.24478 -0.00064687 0.0017559
-0.00029083 0.0019454 -0.00079442 0.00011414
2.8251e-05 -0.0023599 -0.0017223 -0.00171 -0.00064666 0.0017418 0.030145 0.28158
0.018758 -0.009721 -0.002875 0.0055738
-0.0040163 -0.00052038 -0.0026425 0.002819 -0.00028935 0.0019487 0.018757 -0.0097503
-0.027401 0.20813 0.017141 0.00027913
-0.00091908 0.0038605 -0.0011453 0.001631 -0.00077395 0.00012191 -0.0028573 0.005581
0.017139 0.00029014 -0.035981 0.3052
1220000000 0.13284 0.28973 0.0096671 -0.02977 -0.0016533 -0.00052935 7.0926e-05 -0.0012196
-0.0026041 0.0024783 0.0013479 0.0019068
0.0096725 -0.029739 -0.041861 0.38963 -0.016883 -0.020865 -0.0025264 0.00037263
0.00028914 0.0030451 -0.00062973 0.0017778
-0.0016553 -0.00053075 -0.017004 -0.020826 0.28748 0.20561 0.00087969 0.0016517
0.00069916 0.0011176 0.00032466 0.00068953
5.6578e-05 -0.0012189 -0.0025267 0.00038853 0.00088227 0.0016516 0.069759 0.27362
0.0088698 -0.015284 0.0024217 0.0019216
-0.0025948 0.0025208 0.00029138 0.0030596 0.00069227 0.0011144 0.0088573 -0.015296
-0.0047241 0.21765 0.013186 -0.012281
0.0013576 0.0019088 -0.00064502 0.0017919 0.00035698 0.00067684 0.0024274 0.0019184
0.013184 -0.01228 -0.0038271 0.32053
1280000000 0.18234 0.26745 -0.008335 -0.027905 -0.0017306 0.0028276 -0.0010231 -0.00215
-0.00069265 0.0030645 0.0025516 0.0010716
-0.0083067 -0.027876 0.0039081 0.38079 -0.02363 -0.0083373 -0.0010799 0.001505
0.0018062 0.0016475 0.0005718 0.0019356
-0.0017209 0.0028311 -0.023695 -0.0082335 0.31778 0.16169 0.0014796 -0.00018541
0.0010961 -5.1936e-05 0.00032591 0.00028307
-0.0010455 -0.0021445 -0.001065 0.0015176 0.0014704 -0.00018413 0.1063 0.2579
0.00020989 -0.016866 0.00046439 0.00036103
-0.00068943 0.0030625 0.0018092 0.0016498 0.0010972 -6.4949e-05 0.00016933 -0.016869
0.031689 0.2219 0.0026228 -0.014277
0.0025657 0.0010511 0.00057778 0.0019365 0.00032931 0.00029496 0.00046362 0.00036235
0.0026225 -0.014272 0.043505 0.32078
1340000000 0.21928 0.23373 -0.017798 -0.018217 0.0010921 0.0045984 -0.0020343 -0.00087537
0.0014086 0.0026631 0.0017837 -0.0015471
-0.017769 -0.018214 0.043411 0.37267 -0.021494 0.0043523 -5.0588e-05 0.0020646
0.0018802 0.00050715 0.0013272 0.00086076
0.0011202 0.0045918 -0.02149 0.0044688 0.3397 0.11388 0.0010408 -0.00095874
0.0005981 -0.00045565 0.00014357 0.0002233
-0.0020375 -0.00086262 -4.3509e-05 0.0020615 0.0010416 -0.00095987 0.13951 0.23823
-0.0077949 -0.013893 0.0013561 0.00026029
0.0014239 0.0026718 0.0018873 0.00049885 0.00059875 -0.00045226 -0.0078239 -0.013889
0.061961 0.21817 -0.0035419 -0.012858
0.0017802 -0.0015506 0.0013206 0.00085626 0.0001353 0.00022285 0.0013496 0.0002579
-0.0035314 -0.012856 0.081821 0.31548
1400000000 0.25211 0.19544 -0.02311 -0.0067946 0.0053908 0.0030656 -0.0021298 0.00077813
0.002543 0.00083205 0.00022665 -0.0014669
-0.023078 -0.0068109 0.080593 0.35968 -0.014721 0.012431 0.0014183 0.0012878
0.00099607 -0.00095494 0.0011833 0.00021272
0.0054043 0.0030493 -0.014687 0.012531 0.35273 0.06052 1.8906e-05 -0.001529
-2.1508e-05 -0.00033599 0.00034262 0.00014605
-0.002126 0.00078356 0.0014395 0.001286 2.4497e-05 -0.0015306 0.16971 0.20994
-0.012649 -0.0077837 -0.00037814 -0.00058852
0.0025564 0.00081742 0.00098685 -0.00097509 -2.0548e-05 -0.00034044 -0.012661 -0.0077492
0.095117 0.214 -0.0098284 -0.008067
0.00021947 -0.0014578 0.0011823 0.0001989 0.00034449 0.00016202 -0.00038067 -0.00059391
-0.0098195 -0.0080747 0.12584 0.30389
1460000000 0.27476 0.15125 -0.019851 0.0051211 0.0057534 -0.0018559 -0.0015334 0.0018756
0.0020584 -0.00066798 -0.000403 -0.00085915
-0.019835 0.0050937 0.11496 0.33794 -0.0060377 0.015357 0.0017388 0.00014179
0.00069209 -0.0011657 0.0011925 -0.00061267
0.005754 -0.0018731 -0.005971 0.015397 0.35878 0.0061518 -0.0011922 -0.0012014
0.0002168 -7.3695e-05 0.000724 -0.00036884
-0.0015213 0.0018949 0.0017387 0.00013252 -0.001185 -0.00121 0.19697 0.18085
-0.013057 -0.0021705 -0.00088032 0.001438
0.0020371 -0.00067285 0.00068738 -0.0011882 0.00021587 -8.7113e-05 -0.013063 -0.0021448
0.12538 0.19982 -0.01129 -0.002623
-0.00041315 -0.00085762 0.0011944 -0.00062652 0.00072962 -0.00037848 -0.00089206 0.0014402
-0.011293 -0.0026303 0.15892 0.28243
1520000000 0.28678 0.10954 -0.014065 0.010396 0.0032485 -0.0043753 0.00020535 0.0026601
0.0018371 -0.0017327 -0.0011864 -8.3144e-05
-0.014063 0.010371 0.14861 0.32309 0.0016272 0.013128 0.0015781 -0.00084975
-3.4449e-05 -0.00079644 0.00035506 -0.0010122
0.003225 -0.0043938 0.0017021 0.013141 0.3521 -0.049816 -0.0010293 -0.00026492
0.00055801 -0.00078688 -2.6556e-05 -5.3974e-05
0.00020461 0.0026682 0.0015782 -0.00085371 -0.0010309 -0.00026747 0.22119 0.14258
-0.012245 0.0023639 0.0011968 0.0016878
0.0018216 -0.0017448 -3.3581e-05 -0.00079124 0.00056231 -0.00079741 -0.012246 0.0023922
0.15418 0.18547 -0.011151 0.0017373
-0.00119 -7.9621e-05 0.00034915 -0.0010123 -2.6963e-05 -5.027e-05 0.0012073 0.0016771
-0.011145 0.0017284 0.19161 0.26131
1580000000 0.29577 0.063113 -0.0075016 0.013129 -0.0009721 -0.0050277 0.0015175 0.0017841
-0.00045153 -0.0021605 -0.00034128 0.00045477
-0.0075069 0.013121 0.17598 0.2982 0.0052982 0.0082857 0.00042395 -0.0015659
-0.00036985 -0.00088848 -0.00020813 -0.0008922
-0.00099255 -0.0050213 0.0053415 0.0082626 0.3319 -0.1075 -0.0014322 0.00053123
-0.00025958 -0.001119 0.00014598 -0.00053919
0.0015302 0.0017789 0.00040372 -0.0015717 -0.0014265 0.00052468 0.23598 0.10246
-0.0093775 0.0061539 0.00197 0.0005162
-0.00046966 -0.0021672 -0.00037924 -0.00088082 -0.00026429 -0.0011067 -0.0093705 0.006181
0.17928 0.16699 -0.0087585 0.0070331
-0.00034078 0.00045193 -0.00021665 -0.00089214 0.00012645 -0.00052785 0.0019663 0.00051524
-0.008751 0.0070313 0.22313 0.23399
1640000000 0.29748 0.021701 -0.0010752 0.011843 -0.0029261 -0.0026992 0.0026273 0.0008895
-0.00087988 -0.0012474 -0.00022515 0.00063883
-0.001095 0.011838 0.20545 0.27293 0.0059521 0.0034134 -0.00071113 -0.0016485
-0.00079639 -0.00045913 -0.00051589 -0.00072088
-0.0029374 -0.0026963 0.0059794 0.0033762 0.30392 -0.15688 -0.00068018 0.0012807
-0.0010376 -0.00092095 -0.00010412 -0.00033994
0.0026258 0.00088214 -0.00072607 -0.0016424 -0.00068338 0.0012884 0.24871 0.052444
-0.0058602 0.0068058 0.0021555 -0.00082412
-0.00089356 -0.0012371 -0.00080739 -0.00045743 -0.0010337 -0.00092787 -0.0058489 0.0068334
0.20298 0.14147 -0.0042693 0.0090032
-0.00021811 0.00064226 -0.00053245 -0.00071671 -0.00011365 -0.00035203 0.0021539 -0.00082639
-0.0042704 0.0090046 0.24835 0.20242
1700000000 0.28994 -0.023565 0.002136 0.0090108 -0.0036158 6.804e-05 0.0029066 -0.0012371
-0.0019295 -0.00047138 0.00067603 0.00034654
0.0021254 0.0090059 0.22355 0.24113 0.0039384 0.00052349 -0.001384 -0.00053053
-0.00070786 -0.0001395 -0.00097781 -0.0004549
-0.0036107 9.9326e-05 0.0039418 0.00051163 0.25996 -0.19685 0.000396 0.0015569
-0.0017084 -0.00019322 -0.00057423 -0.00097989
0.0029085 -0.001253 -0.0013901 -0.00053171 0.00039796 0.001549 0.24522 0.0012752
-0.0040473 0.0070816 0.0012168 -0.0021885
-0.0019243 -0.00045329 -0.00071498 -0.00013489 -0.001704 -0.00019975 -0.004036 0.0070944
0.2207 0.11972 0.00018757 0.0091855
0.00067267 0.00033928 -0.0009791 -0.00046247 -0.00057454 -0.00097597 0.0012192 -0.0021948
0.00018408 0.0091898 0.26414 0.16782
1760000000 0.27736 -0.071953 0.0042189 0.0057577 -0.0024111 0.00092069 0.0012025 -0.0033652
-0.0010997 0.00069632 0.00030095 -0.00057144
0.004212 0.0057561 0.24935 0.20094 0.0017167 -0.0012712 -0.0011038 0.00020142
-0.0012089 0.00073436 -0.00068008 0.00051946
-0.0024146 0.00093294 0.0017113 -0.0012853 0.21112 -0.22995 0.0010458 0.001201
-0.0011947 0.0013221 -0.0014353 -0.00037583
0.0011854 -0.0033703 -0.0011097 0.00020498 0.0010419 0.0011925 0.23492 -0.051141
-0.0017213 0.0064233 -0.00052114 -0.0023366
-0.001105 0.00069242 -0.0012062 0.0007459 -0.0011855 0.0013138 -0.0017023 0.0064272
0.23567 0.08269 0.0039911 0.0066083
0.00030087 -0.00058621 -0.00067849 0.00052788 -0.0014367 -0.00037708 -0.00053924 -0.002339
0.0039936 0.0066156 0.27629 0.12972
1820000000 0.25256 -0.10919 0.0042542 0.0023603 -0.00019152 0.002521 -0.00099546 -0.0030687
-0.00078863 0.00068047 -9.4404e-05 -0.00011891
0.004251 0.0023623 0.25896 0.17059 -0.00038235 -0.00024135 -0.0013564 0.00084949
-0.00028447 0.0013098 -0.00055984 0.00059102
-0.00017141 0.0025333 -0.00038604 -0.0002261 0.16109 -0.24571 0.001444 0.00045022
-0.00038327 0.0020824 -0.0014946 0.00056191
-0.0010131 -0.0030498 -0.0013547 0.00085952 0.0014398 0.00044836 0.20355 -0.098493
-0.00089704 0.0052185 -0.0016942 -0.0013603
-0.00079166 0.00069504 -0.00027811 0.001306 -0.00038247 0.0020893 -0.00088555 0.0052301
0.25193 0.0514 0.0048202 0.0031493
-0.0001034 -0.00011639 -0.00056992 0.00058986 -0.001482 0.00055313 -0.0016983 -0.0013541
0.0048141 0.0031478 0.27788 0.093277
1880000000 0.21723 -0.14925 0.0020121 0.0002138 -0.00049278 0.0022645 -0.0028611 -0.0021752
-0.0002413 0.0014626 0.00028247 -0.00035814
0.0020045 0.00021636 0.26297 0.12389 -0.0024366 0.0015201 -0.00020574 0.0017127
0.0004961 0.0014942 0.00019087 0.0010448
-0.00046805 0.0022664 -0.0024314 0.001535 0.10895 -0.25527 0.0020009 -0.00084495
0.0014308 0.0020762 -0.00077976 0.0014667
-0.0028754 -0.0021764 -0.00019556 0.0017146 0.0020145 -0.00083539 0.16154 -0.13791
-0.00085831 0.0040286 -0.0024488 0.00069832
-0.00022042 0.0014592 0.00050862 0.0014953 0.0014351 0.0020871 -0.00083689 0.0040321
0.25321 0.016801 0.0044544 0.0010478
0.00027747 -0.00036744 0.00020928 0.0010431 -0.00078095 0.0014623 -0.0024426 0.00070264
0.0044515 0.0010493 0.27697 0.058948
1940000000 0.17749 -0.17489 -0.00026968 -0.001368 0.0013987 0.0021004 -0.0036787 0.00054945
0.0011154 0.0011021 -0.00049441 -0.00045089
-0.00026962 -0.0013676 0.26297 0.092133 -0.0013942 0.0039149 0.00096803 0.0013976
0.0019866 0.00080186 0.00094558 0.00036164
0.0014181 0.0021067 -0.001371 0.0039358 0.062668 -0.24896 0.00054399 -0.002221
0.0023903 0.00068386 0.00049542 0.0016509
-0.0036838 0.00057194 0.00098031 0.00139 0.00054334 -0.0022316 0.10831 -0.16701
-0.0020395 0.0035426 -0.0013047 0.0018474
0.001118 0.0010879 0.0019927 0.00078392 0.0023947 0.00065732 -0.0020183 0.0035479
0.25267 -0.023953 0.0031672 -0.0020586
-0.00050157 -0.00045748 0.00094865 0.00035675 0.00049015 0.0016422 -0.0012959 0.0018528
0.0031691 -0.0020561 0.26517 0.022788
2000000000 0.13102 -0.18909 -0.0041538 0.00083767 0.0025129 0.0016478 -0.0022999 0.0037353
0.00092779 0.00039853 -0.00051725 0.00034935
-0.0041559 0.00083207 0.24834 0.056896 -0.0010168 0.0058737 0.0016797 0.00041523
0.0016773 -0.0013432 0.00060515 0.00019782
0.0025173 0.0016317 -0.0009839 0.0058954 0.019215 -0.2343 -0.0013223 -0.0015169
0.0021369 -0.0011102 0.0016584 0.0012738
-0.0023019 0.0037484 0.0016762 0.0003948 -0.0013154 -0.0015189 0.055073 -0.17523
-0.0033663 0.0044675 0.00024506 0.0023879
0.00092715 0.00038289 0.0016769 -0.0013564 0.002124 -0.0011123 -0.0033578 0.0044716
