!Keysight Technologies,M9804A,MY58100912,A.14.10.03
!Date: Thursday, April 27, 2023 10:28:33
!Correction: S11(C  6-Port  ) 
!S12(C  6-Port  ) 
!S13(C  6-Port  ) 
!S14(C  6-Port  ) 
!S15(C  6-Port  ) 
!S16(C  6-Port  ) 
!S21(C  6-Port  ) 
!S22(C  6-Port  ) 
!S23(C  6-Port  ) 
!S24(C  6-Port  ) 
!S25(C  6-Port  ) 
!S26(C  6-Port  ) 
!S31(C  6-Port  ) 
!S32(C  6-Port  ) 
!S33(C  6-Port  ) 
!S34(C  6-Port  ) 
!S35(C  6-Port  ) 
!S36(C  6-Port  ) 
!S41(C  6-Port  ) 
!S42(C  6-Port  ) 
!S43(C  6-Port  ) 
!S44(C  6-Port  ) 
!S45(C  6-Port  ) 
!S46(C  6-Port  ) 
!S51(C  6-Port  ) 
!S52(C  6-Port  ) 
!S53(C  6-Port  ) 
!S54(C  6-Port  ) 
!S55(C  6-Port  ) 
!S56(C  6-Port  ) 
!S61(C  6-Port  ) 
!S62(C  6-Port  ) 
!S63(C  6-Port  ) 
!S64(C  6-Port  ) 
!S65(C  6-Port  ) 
!S66(C  6-Port  ) 
!S6P File: Measurement: :
# Hz S  RI   R 50
500000000 -0.33875 -0.037259 -0.010495 -0.0031478 -0.0080328 0.01247 -0.0038401 0.01159
0.01205 0.004476 -0.0039728 0.0081651
-0.010488 -0.003137 -0.41951 -0.050489 0.0073843 -0.01092 0.0014499 0.012259
0.0070541 0.0024568 0.00078249 0.013453
-0.0080159 0.012478 0.0073817 -0.01094 -0.26638 0.2111 0.0069123 0.0035624
-0.00080056 0.0088987 0.00049735 0.012235
-0.003815 0.011598 0.0014784 0.01228 0.0069138 0.0035496 -0.32797 0.046069
-0.020927 -0.0043146 0.017893 0.02559
0.012064 0.0044442 0.0070626 0.0024429 -0.00080027 0.0089028 -0.020936 -0.004301
-0.22683 -0.18599 -0.028761 0.004671
-0.0039527 0.0081647 0.00081265 0.013466 0.00050732 0.01223 0.017894 0.025584
-0.028762 0.0046698 -0.2725 -0.1169
560000000 -0.31801 0.12417 -0.024221 -0.06243 0.0005012 0.012393 0.006138 0.010331
0.010216 0.0046729 0.010328 0.0080005
-0.024178 -0.062353 -0.37693 0.10843 -0.042527 -0.036252 0.013605 0.0041747
-0.013658 -0.0046618 0.0040489 -0.00043151
0.00053402 0.012372 -0.042664 -0.036179 -0.18339 0.25967 -0.00025222 -0.004467
0.019345 0.004758 0.0069123 -0.0059628
0.0061729 0.010311 0.013614 0.0041558 -0.00024649 -0.0044762 -0.30368 0.13575
0.0036002 -0.024084 0.0046966 -0.019457
0.010251 0.0046509 -0.0137 -0.0046192 0.019355 0.0047489 0.0035758 -0.02409
-0.28756 -0.010252 0.0075703 -0.05007
0.010362 0.0079665 0.0040481 -0.00044941 0.0069092 -0.0059707 0.0046981 -0.019451
0.0075949 -0.050075 -0.33212 0.030364
620000000 -0.275 0.10958 -0.023024 0.0080875 0.0038319 0.0084294 0.006933 -0.0054529
0.011836 -0.00014171 0.00049422 -0.0020819
-0.023011 0.0080761 -0.4032 0.061839 -0.018629 0.00034628 -0.0010391 -0.0017884
0.010697 -0.0071265 0.0013051 -0.0026616
0.0038453 0.0084129 -0.018644 0.00040734 -0.15306 0.26859 -0.0012555 -0.0051728
-0.0034547 -0.0033605 0.0081313 -0.0034628
0.0069353 -0.0054784 -0.0010534 -0.0017952 -0.0012606 -0.0051692 -0.26264 0.14633
-0.039059 -0.018487 0.014263 0.024736
0.011841 -0.00016304 0.010677 -0.0071645 -0.0034552 -0.0033531 -0.039073 -0.018472
-0.20553 -0.049399 -0.04068 0.014598
0.00047346 -0.0020756 0.0012885 -0.0026701 0.0081272 -0.0034722 0.014271 0.024717
-0.040713 0.014585 -0.25051 -0.0057687
680000000 -0.23434 0.1949 -0.02737 -0.01337 0.0048844 0.0048629 0.0012568 -0.0073846
-0.0028108 -0.011171 0.0046338 -0.0070188
-0.027331 -0.013382 -0.38741 0.15944 -0.032285 -0.0011887 -0.0014987 -0.0003061
-0.0024836 -0.0091008 -0.001055 -0.0020608
0.004905 0.0048553 -0.032334 -0.0011003 -0.1014 0.28792 -0.00077401 -0.00013133
-0.0021128 0.00034395 -0.002852 -0.009506
0.0012324 -0.0073932 -0.0015015 -0.00030356 -0.00077059 -0.00013492 -0.21941 0.19571
-0.023542 -0.0073362 -0.0087819 -0.010263
-0.0028613 -0.011164 -0.0025121 -0.0091159 -0.0021188 0.00034311 -0.023558 -0.0073119
-0.25402 0.049284 -0.0056859 -0.0089162
0.0046498 -0.0070122 -0.0010687 -0.0020608 -0.0028608 -0.0095168 -0.0088069 -0.010289
-0.005682 -0.0089129 -0.25954 0.097466
740000000 -0.18934 0.18941 -0.037837 0.026952 0.012734 -0.0053916 -0.00056184 -0.0040287
-0.0046424 -0.0032502 -0.0063256 0.0032551
-0.037823 0.026897 -0.3342 0.17767 -0.034532 0.035223 -0.00054925 -0.0064751
-0.012168 0.0074873 -0.0025137 -0.00617
0.012729 -0.0054128 -0.034476 0.035343 -0.067575 0.28585 -0.0017915 0.0033285
-0.0027422 -0.0041916 -0.0012245 0.00023095
-0.00056271 -0.0040111 -0.00058498 -0.0064795 -0.0017911 0.0033379 -0.20221 0.20334
-0.042112 -0.007994 0.022429 0.013661
-0.0046564 -0.0032335 -0.012149 0.0075597 -0.0027592 -0.0042063 -0.042153 -0.0079437
-0.15774 0.074803 -0.041129 0.00054876
-0.006315 0.003295 -0.0025374 -0.0061422 -0.0012375 0.00022738 0.022445 0.013657
-0.041097 0.00054148 -0.24747 0.10355
800000000 -0.15622 0.22879 -0.021842 0.016819 0.0052459 -0.010663 -0.0045996 -0.0019916
-0.0041291 0.0023039 0.0043014 0.0011664
-0.021838 0.016792 -0.33709 0.2479 -0.0076156 0.033744 -0.0021843 0.0021798
-0.00093205 0.0032745 0.0010911 0.0053723
0.0052151 -0.010667 -0.0075205 0.033805 -0.026801 0.30838 0.0010184 0.0016297
0.00067026 0.0036753 -0.001741 0.00088314
-0.0046125 -0.0019811 -0.0021715 0.0021883 0.0010192 0.0016302 -0.17399 0.23063
-0.027487 0.012746 0.013147 -0.010002
-0.0041272 0.0023288 -0.00091517 0.0032932 0.00066901 0.003676 -0.02749 0.012793
-0.20093 0.09756 -0.016793 0.017682
0.004308 0.0011562 0.0011211 0.0053793 -0.0017392 0.00089401 0.013146 -0.010018
-0.016812 0.017668 -0.23877 0.15474
860000000 -0.12156 0.24877 -0.016873 0.030519 -0.0033035 -0.0099425 -0.0022669 0.00092408
0.0039086 0.0049552 -0.002949 -0.0026124
-0.016886 0.030502 -0.28926 0.28961 0.0080959 0.033859 0.00011981 0.0020483
0.0041196 0.00055578 0.0032875 0.00040958
-0.0033366 -0.0099302 0.0082187 0.03386 0.021047 0.31599 -0.00039594 -0.00025778
0.0028134 -0.0015651 0.0016125 0.0041711
-0.0022719 0.0009278 0.0001314 0.0020549 -0.00039921 -0.00025821 -0.13807 0.24167
-0.017244 0.018241 -0.0060464 -0.0087915
0.0039324 0.0049392 0.0041317 0.00055224 0.0028119 -0.0015753 -0.017228 0.018283
-0.15017 0.14532 -0.023868 0.015259
-0.0029592 -0.0026138 0.0032945 0.00039951 0.0016219 0.0041694 -0.0060535 -0.0087862
-0.023864 0.015237 -0.18863 0.19632
920000000 -0.096798 0.27126 0.005368 0.037044 -0.009385 -0.0045322 -0.001972 0.0019531
0.0014342 0.0016241 0.002626 -0.0015939
0.0053409 0.037032 -0.26036 0.31002 0.027919 0.02146 0.0015418 0.0011001
0.007015 -0.00063131 0.0038986 -0.0030024
-0.009403 -0.0044873 0.028034 0.02138 0.067029 0.31655 0.0018173 -0.00018048
0.0011942 -0.00042411 0.00072804 -0.0012358
-0.0019756 0.0019489 0.0015565 0.0011027 0.0018153 -0.00017713 -0.11395 0.25793
-0.010113 0.029653 0.0029032 -0.0067758
0.0014343 0.0016059 0.0070201 -0.0006581 0.0011966 -0.00042972 -0.010051 0.029691
-0.14046 0.15092 -0.0020249 0.027077
0.0026167 -0.0016177 0.003894 -0.0030099 0.00072113 -0.0012325 0.002898 -0.0067752
-0.0020363 0.027063 -0.19386 0.21074
980000000 -0.049545 0.29047 0.017579 0.029418 -0.0089676 0.0044957 0.0021231 0.0037172
0.003902 -0.0016675 -0.0031438 -0.0020483
0.017544 0.029438 -0.20774 0.34369 0.032702 0.0045396 0.0019974 0.00012544
0.0013237 -0.0063043 -0.00063976 -0.0021566
-0.0089691 0.0045265 0.032774 0.0044288 0.11321 0.30993 0.00045226 -0.0011801
9.8818e-05 -0.0021555 0.0012785 -3.3747e-05
0.0021387 0.0037019 0.0019965 0.00014532 0.00044298 -0.0011705 -0.076076 0.26909
0.007509 0.028074 -0.0092193 -0.0066773
0.0039075 -0.0016981 0.001278 -0.0063176 9.6741e-05 -0.002161 0.0075739 0.028077
-0.10859 0.17795 0.0048513 0.018623
-0.0031432 -0.0020383 -0.00066147 -0.0021448 0.0012768 -4.1862e-05 -0.0092277 -0.0066626
0.0048338 0.018615 -0.15102 0.25543
1040000000 -0.0075379 0.29862 0.032928 0.017554 -0.0013145 0.0067137 0.00253 0.00090097
5.0424e-05 -0.003633 -0.00066132 -0.0016401
0.032903 0.017599 -0.17249 0.35667 0.028939 -0.014863 0.0015112 -0.0017025
-0.0024733 -0.0025596 -0.0014268 -0.0028158
-0.0013067 0.006722 0.028922 -0.01501 0.15926 0.29619 -0.00050884 -0.0014225
-0.0016239 -0.00077022 -0.00052168 -0.001048
0.0025304 0.00089011 0.0015249 -0.0016953 -0.00050997 -0.0014189 -0.048964 0.27912
0.018132 0.016787 -0.0030802 0.0017154
2.797e-05 -0.0036533 -0.0025075 -0.0025258 -0.0016201 -0.00077141 0.01818 0.016759
-0.077834 0.18608 0.013408 0.017686
-0.00065351 -0.0016468 -0.0014409 -0.0027948 -0.00051998 -0.0010428 -0.0030726 0.0017192
0.013394 0.01769 -0.12923 0.2745
1100000000 0.037634 0.30598 0.035318 -0.0046836 0.002703 0.0037641 0.0025984 -0.0011535
-0.0020273 -0.0030586 -0.0039182 0.00013222
0.0353 -0.0046482 -0.12921 0.37344 0.014853 -0.027667 0.00011409 -0.0018171
-0.0033926 -0.00057989 -0.0033837 -0.00050932
0.0027163 0.0037568 0.014763 -0.027763 0.20556 0.27575 -0.0018049 0.0002282
-0.0018004 0.00074382 -0.00090765 -0.00015598
0.0026004 -0.0011661 0.00010237 -0.001817 -0.0018045 0.00022278 -0.0087986 0.28421
0.022437 0.0046095 -0.0025656 0.00076977
-0.0020423 -0.0030508 -0.0034006 -0.00055438 -0.0017952 0.00073595 0.022452 0.0045771
-0.059674 0.19908 0.018503 0.0082703
-0.0039093 0.00014758 -0.0034021 -0.00049028 -0.00091012 -0.00016031 -0.0025631 0.00077
0.018496 0.0082696 -0.082469 0.30243
1160000000 0.088715 0.3009 0.023346 -0.020853 0.0024595 -0.00034256 1.7862e-05 -0.0023392
-0.0040177 -0.000556 -0.00091229 0.0038285
0.023355 -0.020806 -0.085838 0.37776 -0.0039768 -0.028875 -0.0017169 -0.0017167
-0.0026297 0.0027595 -0.0011396 0.0015707
0.0024624 -0.00036422 -0.004099 -0.028891 0.24852 0.24479 -0.00065622 0.0017458
-0.0003068 0.0019407 -0.0008032 0.00012449
1.3842e-05 -0.0023532 -0.0017229 -0.0016971 -0.0006549 0.00174 0.030146 0.28158
0.018823 -0.0098341 -0.0028754 0.0055669
-0.0040199 -0.00054397 -0.002625 0.0027921 -0.00029862 0.0019407 0.018825 -0.0098475
-0.027223 0.20802 0.017189 0.00030813
-0.00087828 0.0038375 -0.0011364 0.0015904 -0.00081064 0.00012579 -0.0028717 0.0055697
0.017191 0.0003042 -0.03607 0.30523
1220000000 0.13294 0.28976 0.0096813 -0.029768 -0.0016363 -0.00054391 6.3409e-05 -0.0012194
-0.0026109 0.0024811 0.0013348 0.0019169
0.0097029 -0.029729 -0.041785 0.38965 -0.016896 -0.020868 -0.0025273 0.00036811
0.00027488 0.0030524 -0.00063438 0.0017837
-0.0016488 -0.00054306 -0.017001 -0.020814 0.2875 0.20559 0.00088855 0.0016652
0.00071094 0.0011333 0.00032066 0.00068222
5.7156e-05 -0.0012178 -0.0025344 0.00038744 0.00088929 0.0016701 0.069766 0.27361
0.0088696 -0.015399 0.0024102 0.0018995
-0.0025945 0.0024845 0.00029218 0.0030527 0.00071108 0.0011299 0.0088513 -0.015408
-0.0046166 0.21748 0.013229 -0.012346
0.0013373 0.001897 -0.00063114 0.00179 0.00032284 0.00068484 0.0024075 0.0019011
0.013233 -0.012344 -0.0038614 0.32055
1280000000 0.18244 0.26748 -0.0083198 -0.027899 -0.0017416 0.0028082 -0.0010163 -0.0021557
-0.00069529 0.003052 0.0025676 0.0010756
-0.0083036 -0.027886 0.0039714 0.38076 -0.023642 -0.0083367 -0.0010771 0.001518
0.0017905 0.0016814 0.00056381 0.0019314
-0.0017333 0.0028082 -0.023707 -0.0082291 0.31779 0.16175 0.0014852 -0.0001691
0.0011274 -3.3417e-05 0.00032631 0.00030077
-0.0010238 -0.0021539 -0.0010798 0.0015262 0.0014848 -0.00016808 0.10628 0.2579
0.00015879 -0.016971 0.00044636 0.00035677
-0.00067807 0.0030695 0.0018135 0.0016676 0.0011303 -3.7411e-05 0.00012028 -0.016978
0.03175 0.22171 0.0026497 -0.014337
0.0025751 0.0010674 0.00057275 0.0019323 0.00032484 0.00030272 0.00044406 0.00035925
0.0026522 -0.01433 0.043429 0.32085
1340000000 0.21942 0.23371 -0.017797 -0.018237 0.0010938 0.0045919 -0.0020322 -0.00088419
0.0014117 0.0026718 0.0017992 -0.0015539
-0.017771 -0.018239 0.043473 0.37265 -0.021489 0.0043514 -4.4734e-05 0.0020543
0.0018841 0.00052287 0.0013171 0.00087655
0.0011136 0.0045844 -0.021496 0.0044654 0.33972 0.11387 0.0010397 -0.00095913
0.00060058 -0.00045989 0.00013473 0.00023186
-0.0020411 -0.00086548 -3.9215e-05 0.0020552 0.001032 -0.00096452 0.13949 0.23824
-0.0079086 -0.013974 0.0013236 0.00027203
0.0014102 0.0026691 0.0018911 0.00051436 0.00059917 -0.00046064 -0.0079472 -0.013962
0.061916 0.21797 -0.0035745 -0.012944
0.0017866 -0.0015673 0.001329 0.00086612 0.00013662 0.00023439 0.001324 0.00027739
-0.0035642 -0.012946 0.081809 0.3155
1400000000 0.25227 0.19536 -0.023114 -0.0068082 0.0053713 0.0030739 -0.0021263 0.00077595
0.0025467 0.00084459 0.00021283 -0.0014555
-0.023087 -0.0068286 0.080642 0.35965 -0.014727 0.012429 0.0014211 0.0012924
0.0010124 -0.00097272 0.0011719 0.00020613
0.0053934 0.0030508 -0.014687 0.012514 0.35274 0.060486 1.3686e-05 -0.0015226
-1.6277e-05 -0.00033411 0.00034012 0.00015101
-0.0021284 0.0007832 0.0014299 0.0012896 1.6708e-05 -0.0015261 0.16967 0.20994
-0.012769 -0.0077928 -0.00039844 -0.00057802
0.0025555 0.00082198 0.0010079 -0.00097617 -1.9852e-05 -0.00033437 -0.01279 -0.0077686
0.094967 0.21385 -0.009864 -0.008151
0.0002067 -0.001457 0.0011794 0.0002015 0.00034117 0.00015202 -0.00039567 -0.00057805
-0.0098603 -0.0081521 0.12584 0.30389
1460000000 0.27494 0.15116 -0.019872 0.0051093 0.0057474 -0.0018327 -0.001544 0.0018778
0.0020595 -0.00066312 -0.00039984 -0.00085354
-0.019856 0.005088 0.11502 0.33794 -0.0060488 0.01535 0.00174 0.00014043
0.00070849 -0.0011916 0.0011881 -0.00061922
0.0057338 -0.0018612 -0.005968 0.015391 0.3588 0.0061474 -0.0011881 -0.0011979
0.00021291 -7.6612e-05 0.00071694 -0.00036907
-0.0015388 0.001879 0.001749 0.0001346 -0.0011873 -0.0011948 0.19697 0.18092
-0.013173 -0.0021139 -0.0008978 0.0014625
0.0020504 -0.00067952 0.00070092 -0.0011993 0.00021602 -7.7335e-05 -0.013183 -0.00209
0.12523 0.19974 -0.011378 -0.00267
-0.00040431 -0.00084467 0.0011802 -0.00062852 0.00071136 -0.0003753 -0.00089692 0.0014611
-0.011375 -0.0026672 0.15896 0.28241
1520000000 0.28692 0.10933 -0.014074 0.010383 0.0032517 -0.0043755 0.0002028 0.0026581
0.0018467 -0.00173 -0.0011853 -8.4678e-05
-0.014072 0.010371 0.14867 0.32307 0.0016139 0.013135 0.0015761 -0.00084799
-3.5145e-05 -0.00080672 0.00035778 -0.0010203
0.0032216 -0.0043845 0.0016883 0.013139 0.35209 -0.049856 -0.0010316 -0.00026116
0.0005632 -0.00079882 -2.2797e-05 -5.716e-05
0.00021286 0.0026553 0.0015747 -0.00085432 -0.0010317 -0.00026211 0.22117 0.14257
-0.01232 0.00247 0.0012067 0.0017204
0.0018348 -0.001741 -5.3545e-05 -0.00080571 0.00056096 -0.00080469 -0.012312 0.0025043
0.154 0.18545 -0.011244 0.0017537
-0.0011864 -7.7462e-05 0.00035157 -0.0010238 -2.2307e-05 -5.7593e-05 0.0012116 0.0017197
-0.011242 0.0017433 0.1916 0.26125
1580000000 0.29582 0.062878 -0.0075273 0.013134 -0.0009923 -0.0050154 0.0015095 0.0017819
-0.00043745 -0.0021823 -0.00033595 0.00045516
-0.0075154 0.013124 0.17604 0.29818 0.0052885 0.0082942 0.00042564 -0.0015623
-0.00038322 -0.00087765 -0.00021174 -0.0008969
-0.0010071 -0.0050114 0.0053434 0.0082763 0.33189 -0.10747 -0.0014256 0.00053716
-0.00025459 -0.0011289 0.00013993 -0.00054938
0.0015247 0.0017794 0.0004108 -0.0015664 -0.0014287 0.00053542 0.23599 0.10251
-0.0093969 0.0062739 0.001993 0.00053475
-0.00045446 -0.0021733 -0.00038524 -0.00087869 -0.00025987 -0.0011321 -0.0093762 0.0062979
0.17914 0.16706 -0.0088203 0.0070772
-0.00033344 0.00045828 -0.00022168 -0.00089297 0.00013622 -0.00055521 0.0019965 0.0005272
-0.0088214 0.0070746 0.22307 0.23399
1640000000 0.29744 0.021447 -0.001091 0.011843 -0.0029164 -0.0026755 0.0026064 0.00088737
-0.00090401 -0.0012615 -0.00023054 0.00064164
-0.001095 0.011841 0.20553 0.2729 0.0059485 0.0034117 -0.0007117 -0.0016475
-0.00080765 -0.00045356 -0.00052452 -0.00071812
-0.0029279 -0.0026602 0.0059767 0.0033923 0.30394 -0.15689 -0.00069436 0.001285
-0.0010371 -0.00092602 -9.8108e-05 -0.00034344
0.0026204 0.00087232 -0.00072315 -0.0016446 -0.00069767 0.0012825 0.24878 0.052486
-0.0058138 0.0069294 0.0021911 -0.00081842
-0.00089999 -0.0012597 -0.00080838 -0.00044178 -0.0010343 -0.00091769 -0.0057992 0.0069409
0.2029 0.14161 -0.0043219 0.009089
-0.00022712 0.00064513 -0.00053099 -0.00071608 -9.9372e-05 -0.00034709 0.0021893 -0.00082688
-0.0043252 0.0090874 0.24832 0.20237
1700000000 0.28977 -0.023751 0.0021295 0.0090211 -0.0035929 7.9207e-05 0.0029011 -0.0012283
-0.0019418 -0.00048163 0.00067672 0.00034738
0.002112 0.0090047 0.22361 0.24109 0.0039214 0.00054897 -0.0013814 -0.00053559
-0.00070151 -0.00012722 -0.0009732 -0.00045924
-0.0035922 9.9492e-05 0.0039314 0.00053006 0.25993 -0.19691 0.00040204 0.0015489
-0.0017195 -0.00019394 -0.00058787 -0.0009734
0.0028858 -0.0012383 -0.0013915 -0.00053251 0.00039963 0.0015564 0.24527 0.0012765
-0.0039534 0.0071639 0.0012478 -0.0022032
-0.0019426 -0.00046785 -0.00069891 -0.00012073 -0.0017183 -0.00019234 -0.0039409 0.0071668
0.22069 0.11987 0.00017062 0.0092792
0.00068135 0.00034071 -0.00098233 -0.00044241 -0.00059219 -0.00097806 0.001241 -0.0022131
0.00016947 0.0092736 0.26405 0.16781
1760000000 0.27721 -0.072018 0.0042224 0.0057658 -0.0023797 0.00091497 0.0012148 -0.0033558
-0.0011082 0.00070019 0.00031189 -0.00057013
0.0042021 0.0057605 0.2494 0.20089 0.001707 -0.0012606 -0.001114 0.00019679
-0.0011974 0.00072211 -0.00067766 0.00051476
-0.0023648 0.00093836 0.0017059 -0.0012669 0.21112 -0.22998 0.0010586 0.0011898
-0.0011928 0.0013149 -0.00144 -0.00038224
0.0011953 -0.0033616 -0.0011076 0.00019865 0.0010581 0.0011865 0.23501 -0.051159
-0.0015899 0.0064459 -0.00048656 -0.0023559
-0.001099 0.00070871 -0.0011958 0.00073312 -0.001178 0.001314 -0.0015838 0.0064546
0.23572 0.082865 0.0040243 0.0067138
0.00030574 -0.00057232 -0.00067103 0.00051528 -0.0014371 -0.00037601 -0.00050154 -0.0023565
0.0040283 0.006716 0.27623 0.12974
1820000000 0.25236 -0.1092 0.0042524 0.0023804 -0.00017884 0.0025022 -0.00099303 -0.0030685
-0.00079027 0.00070419 -0.00010087 -0.0001134
0.0042313 0.0023862 0.25902 0.17055 -0.00038187 -0.00022341 -0.0013576 0.00083432
-0.00028805 0.0012844 -0.00057703 0.00059293
-0.00016471 0.0025047 -0.00038054 -0.00022549 0.16105 -0.24575 0.0014555 0.00044443
-0.00037058 0.0020802 -0.0014988 0.00057032
-0.0010101 -0.003069 -0.0013682 0.00084191 0.0014548 0.00043781 0.20361 -0.09858
-0.0007769 0.0051978 -0.0016947 -0.0013999
-0.00077961 0.00070745 -0.00026985 0.0012926 -0.00036641 0.0020845 -0.00076798 0.0051973
0.25203 0.051513 0.00487 0.0032249
-9.9407e-05 -0.00011267 -0.00056621 0.0006032 -0.0014953 0.00056575 -0.0016989 -0.0013875
0.0048815 0.0032249 0.27778 0.093318
1880000000 0.21708 -0.14912 0.0020155 0.00022636 -0.00048237 0.0022593 -0.0028636 -0.0021791
-0.00021419 0.0014469 0.00028534 -0.00037252
0.0020058 0.00024589 0.26299 0.12384 -0.0024171 0.001514 -0.00020766 0.0017134
0.00048516 0.0014814 0.00019324 0.00104
-0.00047651 0.0022604 -0.0024105 0.0015339 0.10894 -0.25525 0.0020105 -0.00083769
0.001423 0.0020971 -0.00079406 0.0014399
-0.0028744 -0.0021662 -0.00020038 0.0017254 0.0020052 -0.00084373 0.16152 -0.13802
-0.00075302 0.0039477 -0.0024602 0.00066489
-0.00020528 0.0014517 0.00049842 0.001482 0.0014246 0.0020929 -0.00074291 0.0039459
0.25336 0.01689 0.0045503 0.0010939
0.00028328 -0.00037686 0.00020329 0.0010411 -0.00078609 0.001442 -0.00246 0.00067834
0.0045488 0.0010947 0.27689 0.059044
1940000000 0.17744 -0.17477 -0.00025751 -0.001376 0.0013923 0.0020879 -0.0036967 0.00054771
0.0011026 0.0010838 -0.00051635 -0.00046939
-0.00024736 -0.0013487 0.26301 0.092073 -0.0013847 0.003914 0.00096264 0.0014167
0.0019565 0.00080971 0.00094608 0.00035296
0.0013962 0.0020853 -0.0013539 0.0039337 0.062703 -0.24893 0.00053572 -0.0022259
0.0023853 0.00069237 0.00049522 0.0016498
-0.0036831 0.00056713 0.00097712 0.0014094 0.00052744 -0.0022169 0.10827 -0.16711
-0.0019794 0.0034364 -0.0013464 0.0018393
0.0011183 0.0010825 0.0019745 0.00079349 0.0023852 0.0006826 -0.0019724 0.0034397
0.25285 -0.023951 0.0032807 -0.0020723
-0.00051944 -0.00046516 0.00094426 0.00033792 0.00049421 0.0016495 -0.0013505 0.0018485
0.0032726 -0.0020746 0.26516 0.022848
2000000000 0.13101 -0.18897 -0.0041485 0.00081954 0.0025296 0.0016445 -0.0023127 0.0037342
0.00092062 0.00038564 -0.00051592 0.00035386
-0.0041152 0.00082703 0.24835 0.05683 -0.0010267 0.0058727 0.0016831 0.00040011
0.0016789 -0.0013225 0.00060555 0.00019886
0.0025353 0.0016355 -0.00098993 0.0058857 0.019145 -0.23429 -0.0013215 -0.0015239
0.0021248 -0.0010935 0.0016228 0.0012604
-0.0022891 0.0037431 0.0016891 0.0003907 -0.0013223 -0.0015265 0.054964 -0.17524
-0.0033907 0.0043409 0.00020287 0.0024077
0.0009277 0.00037721 0.0016721 -0.001343 0.0021324 -0.0011002 -0.0033766 0.0043514
