!Keysight Technologies,M9804A,MY58100912,A.14.10.03
!Date: Thursday, April 27, 2023 10:28:33
!Correction: S11(C  6-Port  ) 
!S12(C  6-Port  ) 
!S13(C  6-Port  ) 
!S14(C  6-Port  ) 
!S15(C  6-Port  ) 
!S16(C  6-Port  ) 
!S21(C  6-Port  ) 
!S22(C  6-Port  ) 
!S23(C  6-Port  ) 
!S24(C  6-Port  ) 
!S25(C  6-Port  ) 
!S26(C  6-Port  ) 
!S31(C  6-Port  ) 
!S32(C  6-Port  ) 
!S33(C  6-Port  ) 
!S34(C  6-Port  ) 
!S35(C  6-Port  ) 
!S36(C  6-Port  ) 
!S41(C  6-Port  ) 
!S42(C  6-Port  ) 
!S43(C  6-Port  ) 
!S44(C  6-Port  ) 
!S45(C  6-Port  ) 
!S46(C  6-Port  ) 
!S51(C  6-Port  ) 
!S52(C  6-Port  ) 
!S53(C  6-Port  ) 
!S54(C  6-Port  ) 
!S55(C  6-Port  ) 
!S56(C  6-Port  ) 
!S61(C  6-Port  ) 
!S62(C  6-Port  ) 
!S63(C  6-Port  ) 
!S64(C  6-Port  ) 
!S65(C  6-Port  ) 
!S66(C  6-Port  ) 
!S6P File: Measurement: :
# Hz S  RI   R 50
500000000 -0.32789 -0.066199 -0.010009 -0.0018615 -0.0079803 0.011647 -0.0043605 0.011892
0.013037 0.0063514 -0.004837 0.0094135
-0.0097971 -0.0017868 -0.40985 -0.075502 0.0089577 -0.01133 0.00056458 0.012302
0.0085721 0.0033476 0.00016188 0.014495
-0.0078858 0.011715 0.0089213 -0.01138 -0.25763 0.18842 0.0067687 0.0031819
-0.0019734 0.0083305 0.0013396 0.012242
-0.0042272 0.011902 0.00055891 0.012319 0.0067535 0.0031625 -0.32755 0.040213
-0.020201 -0.0046267 0.014718 0.027728
0.013258 0.0063166 0.0086365 0.0033417 -0.0019945 0.0082951 -0.020044 -0.0044934
-0.21659 -0.23787 -0.028732 0.0039287
-0.0046447 0.0091475 0.00025883 0.01429 0.0013565 0.012057 0.01439 0.027576
-0.0287 0.003937 -0.26516 -0.14263
560000000 -0.31794 0.10295 -0.021692 -0.067535 0.00052196 0.012883 0.0058203 0.010609
0.012218 0.0036398 0.010172 0.0095382
-0.021551 -0.067361 -0.37117 0.088811 -0.040741 -0.039419 0.013962 0.0034255
-0.012861 -0.0055117 0.0038385 -0.00095815
0.00042856 0.012939 -0.040893 -0.039408 -0.18305 0.23957 -0.00016209 -0.0056286
0.018991 0.006282 0.0080271 -0.0060771
0.0058294 0.010642 0.013961 0.0034434 -0.00013924 -0.0056525 -0.30502 0.13061
0.0071776 -0.023467 0.0062799 -0.021132
0.012476 0.0039279 -0.012537 -0.0052098 0.018836 0.0066543 0.0073027 -0.023102
-0.30283 -0.056671 0.013776 -0.051756
0.0101 0.0096251 0.0036424 -0.0008321 0.0078969 -0.0060612 0.0062706 -0.021183
0.013907 -0.051678 -0.33101 0.0068317
620000000 -0.27688 0.081043 -0.023143 0.0085349 0.0029124 0.0089229 0.0086889 -0.0045932
0.011726 -0.00026979 0.0010697 -0.0022684
-0.023113 0.0084924 -0.39997 0.035293 -0.019111 -0.00033897 -0.0015717 -0.0024499
0.012444 -0.0050855 0.00043339 -0.0033936
0.0029219 0.0089794 -0.019149 -0.00028476 -0.1561 0.24923 -0.0012856 -0.005275
-0.0037281 -0.0023236 0.0087828 -0.0029373
0.0086719 -0.0045246 -0.0015891 -0.0024173 -0.00128 -0.0052909 -0.26242 0.13879
-0.038514 -0.019585 0.012927 0.026866
0.011824 -0.00036691 0.012278 -0.0050928 -0.0038529 -0.0022593 -0.038504 -0.019411
-0.21369 -0.097063 -0.042278 0.014335
0.00094382 -0.0021133 0.00058274 -0.0034343 0.0087875 -0.0032203 0.013056 0.026295
-0.042657 0.014517 -0.24599 -0.031697
680000000 -0.24135 0.17355 -0.026056 -0.01532 0.0048213 0.0055524 0.001175 -0.0073672
-0.0014961 -0.011278 0.0067121 -0.0074736
-0.026063 -0.015286 -0.39068 0.13658 -0.032978 -0.0026758 -0.0018628 -0.00055228
-0.0015574 -0.0096001 -0.00079485 -0.0020939
0.0047811 0.0055319 -0.033033 -0.0025718 -0.10904 0.27163 -0.0010789 0.00035403
-0.0011971 0.00079509 -0.0032411 -0.0093271
0.0011526 -0.0074195 -0.0018701 -0.0005431 -0.0010708 0.00034517 -0.22006 0.1908
-0.023085 -0.0074705 -0.009362 -0.012075
-0.0016943 -0.011211 -0.0015714 -0.0095708 -0.001163 0.00076804 -0.023204 -0.0073497
-0.28101 0.0083527 -0.0054545 -0.0083319
0.0067254 -0.0073036 -0.0008589 -0.0020137 -0.0031658 -0.0093444 -0.0094302 -0.011757
-0.0053512 -0.0083793 -0.25969 0.073232
740000000 -0.19654 0.16642 -0.041316 0.026527 0.013348 -0.0038179 0.00013295 -0.0037379
-0.0043503 -0.0015839 -0.0071639 0.0031879
-0.041323 0.026522 -0.33781 0.1571 -0.037899 0.034051 -0.00020692 -0.0058403
-0.012972 0.006816 -0.0018729 -0.0055966
0.013342 -0.0038534 -0.037851 0.034191 -0.075926 0.27266 -0.0016573 0.0032389
-0.0014166 -0.0050583 -0.0015681 0.00037057
0.00015162 -0.0037542 -0.00020375 -0.005865 -0.0016616 0.0032376 -0.20357 0.19892
-0.043859 -0.010081 0.02294 0.016088
-0.0043747 -0.0017617 -0.01289 0.0068474 -0.0013534 -0.0051355 -0.043797 -0.010078
-0.18033 0.045639 -0.046291 -0.0026183
-0.0071026 0.0029544 -0.0019078 -0.0057411 -0.0015449 0.00034949 0.02295 0.015973
-0.046309 -0.0027309 -0.2505 0.079837
800000000 -0.16686 0.21285 -0.023166 0.015957 0.0056393 -0.010169 -0.0045368 -0.0024023
-0.0040084 0.0017743 0.0045953 0.00062257
-0.023183 0.015942 -0.34588 0.22796 -0.009433 0.0346 -0.002189 0.0021752
5.7765e-05 0.0024404 0.00050779 0.0053577
0.0055923 -0.010182 -0.0093391 0.034672 -0.037432 0.29903 0.0011779 0.0013103
3.4448e-05 0.0032918 -0.0016351 0.0010679
-0.0046015 -0.0023884 -0.0021888 0.0021877 0.0011722 0.0013183 -0.17514 0.22687
-0.028932 0.012591 0.014416 -0.010171
-0.0040403 0.0019055 7.0361e-05 0.002444 6.6789e-06 0.0033385 -0.029061 0.012757
-0.23438 0.067194 -0.018366 0.019928
0.0046161 0.00062154 0.00054848 0.0053727 -0.0016339 0.0010479 0.014435 -0.010223
-0.018403 0.019968 -0.24847 0.13157
860000000 -0.1336 0.23397 -0.019044 0.0306 -0.0031233 -0.01004 -0.0019802 0.00082733
0.004272 0.0053553 -0.0036057 -0.0033492
-0.01901 0.03057 -0.29919 0.2728 0.0071013 0.034796 0.00042164 0.0019543
0.0038045 1.025e-05 0.0041085 -2.8698e-05
-0.0031416 -0.010027 0.0072229 0.034823 0.010656 0.30924 -0.00050764 -0.00048932
0.0025465 -0.0018908 0.0017654 0.0042599
-0.0019892 0.0008253 0.00044152 0.0019659 -0.00050669 -0.00049767 -0.13924 0.23911
-0.018868 0.017248 -0.0062623 -0.0094631
0.0044035 0.0052029 0.0038607 -7.7459e-06 0.0026085 -0.0019053 -0.018841 0.017168
-0.18128 0.12863 -0.026805 0.01557
-0.0036571 -0.003244 0.0041705 7.3432e-05 0.0017343 0.0043836 -0.0063743 -0.0092021
-0.026746 0.015593 -0.19697 0.17766
920000000 -0.11029 0.25822 0.0039145 0.039899 -0.0093206 -0.0044809 -0.0017515 0.0019613
0.00038886 0.0018212 0.0031812 -0.0010848
0.0038864 0.039856 -0.27227 0.29585 0.027989 0.023542 0.0014961 0.0012267
0.0072681 -3.3101e-05 0.003961 -0.0026495
-0.0093233 -0.0044584 0.028102 0.023486 0.057268 0.31169 0.0017271 -1.7921e-05
0.0006961 -0.00042464 0.0010177 -0.0013512
-0.0017772 0.0019434 0.0015024 0.0012307 0.0017271 -1.8186e-05 -0.11538 0.2564
-0.012444 0.030346 0.00361 -0.00618
0.00040566 0.0017594 0.0072398 -6.4665e-05 0.00069813 -0.00042596 -0.012532 0.03039
-0.17357 0.13294 -0.0035546 0.028318
0.0031736 -0.0011343 0.0039298 -0.0027023 0.00094113 -0.0014226 0.0037102 -0.0065392
-0.0036537 0.02834 -0.20807 0.19258
980000000 -0.064393 0.27974 0.016371 0.031079 -0.0093773 0.0047372 0.0019969 0.0037482
0.0037023 -0.0018313 -0.0034622 -0.0024755
0.016362 0.031041 -0.22005 0.33244 0.033238 0.005797 0.0019216 -0.00036747
0.0017301 -0.0061953 -0.00045814 -0.0027655
-0.0093677 0.0047592 0.0333 0.0056983 0.10372 0.30623 0.00051841 -0.0011516
0.0002021 -0.0018113 0.0015622 -0.00031983
0.0019888 0.0037016 0.0019357 -0.00036054 0.00051603 -0.0011529 -0.077026 0.26792
0.0066691 0.030326 -0.0094636 -0.007622
0.0036993 -0.0017919 0.0017092 -0.006173 0.00022436 -0.0017837 0.0067403 0.030361
-0.14439 0.16994 0.0050855 0.020873
-0.0035869 -0.0024677 -0.00049603 -0.0027177 0.0015976 -0.000315 -0.0095884 -0.0074386
0.0050859 0.020874 -0.16645 0.23972
1040000000 -0.023714 0.28998 0.033119 0.020396 -0.0010741 0.0075571 0.0025583 0.00059047
5.7569e-05 -0.003629 -0.0003198 -0.0013517
0.033073 0.020352 -0.18512 0.34704 0.030128 -0.014076 0.0014457 -0.0018243
-0.0024599 -0.0023604 -0.0011875 -0.0030444
-0.0010415 0.0075615 0.030095 -0.014182 0.14989 0.29403 -0.00050123 -0.0014725
-0.0015285 -0.00094017 -0.00059986 -0.0012415
0.0025347 0.00056044 0.0014496 -0.0018137 -0.00049899 -0.0014772 -0.049941 0.27807
0.018268 0.01952 -0.0024903 0.0016364
-2.1038e-05 -0.0036313 -0.0025653 -0.0024201 -0.0015527 -0.0009846 0.018339 0.019399
-0.11232 0.17969 0.013461 0.020106
-0.00027439 -0.0013792 -0.0011559 -0.0030277 -0.00055508 -0.0012385 -0.0023985 0.0016605
0.013445 0.020115 -0.14591 0.2613
1100000000 0.021629 0.30061 0.037078 -0.0023387 0.00362 0.0041858 0.0024124 -0.0010287
-0.002392 -0.0032404 -0.0042288 0.00017814
0.037042 -0.0023347 -0.14128 0.36685 0.015916 -0.02759 -0.00019444 -0.0017807
-0.0033438 -0.00092556 -0.0035328 -0.00065236
0.0036334 0.0041745 0.01583 -0.027694 0.19668 0.27503 -0.0017526 0.0003372
-0.001696 0.00058915 -0.0011471 -0.0006311
0.0024068 -0.0010365 -0.00018716 -0.0017877 -0.0017497 0.00033661 -0.0091665 0.28348
0.024451 0.0068803 -0.0026191 0.00024285
-0.0023901 -0.0032289 -0.0033039 -0.00090951 -0.0016512 0.00060987 0.02446 0.0068784
-0.094946 0.19692 0.020188 0.010672
-0.0043205 0.00015354 -0.003622 -0.00058294 -0.0012452 -0.00064327 -0.0026842 0.00011279
0.020202 0.010675 -0.10086 0.29292
1160000000 0.072609 0.29754 0.02561 -0.019776 0.003527 -0.00078893 -0.00021607 -0.0025542
-0.0042134 -0.00089123 -0.0011791 0.0041388
0.025614 -0.019757 -0.097682 0.37191 -0.0031917 -0.028979 -0.0015304 -0.0015498
-0.0025795 0.0025876 -0.0016156 0.0020014
0.0035342 -0.00080487 -0.0033328 -0.028987 0.24001 0.24532 -0.00060252 0.0016072
-0.00050247 0.0017801 -0.0010063 0.00033089
-0.000219 -0.0025537 -0.001526 -0.0015215 -0.00059522 0.0016042 0.029977 0.28096
0.0217 -0.0093343 -0.0033033 0.0053848
-0.0041846 -0.00089005 -0.0026297 0.0025736 -0.00052762 0.001781 0.021741 -0.0093642
-0.058791 0.20865 0.019106 0.0015446
-0.0011305 0.0041512 -0.0014931 0.0019075 -0.00092892 0.00032087 -0.0032916 0.0054172
0.019036 0.0015143 -0.052016 0.29652
1220000000 0.11669 0.28898 0.012544 -0.030089 -0.0011448 -0.0016459 -3.9955e-05 -0.00094316
-0.0027862 0.002356 0.0012733 0.0020732
0.012549 -0.030059 -0.05337 0.38647 -0.016515 -0.021352 -0.0024823 0.00056357
4.38e-05 0.0029735 -0.00081337 0.0018847
-0.0011721 -0.001652 -0.016629 -0.021299 0.27992 0.20771 0.00084026 0.001421
0.00050301 0.0011642 0.00012843 0.00067127
-2.4914e-05 -0.00092994 -0.0024862 0.00056844 0.00084391 0.0014225 0.069803 0.27309
0.011233 -0.016191 0.0022618 0.001564
-0.0028035 0.0023521 5.8703e-05 0.0029674 0.00049434 0.001168 0.011246 -0.016237
-0.036919 0.22109 0.015351 -0.012218
0.0012661 0.0020014 -0.00082489 0.0018765 0.00011846 0.00065301 0.0023152 0.0015689
0.015396 -0.012237 -0.023108 0.31527
1280000000 0.16727 0.26935 -0.0064236 -0.029426 -0.0019885 0.0015106 -0.00099531 -0.0019249
-0.00090115 0.003282 0.0025308 0.0013771
-0.0063952 -0.029394 -0.0066912 0.37838 -0.023651 -0.008453 -0.00084271 0.0013666
0.001588 0.0017666 0.0005593 0.0020706
-0.0019952 0.0015243 -0.023727 -0.0083548 0.31172 0.1643 0.0013532 -9.122e-05
0.0010507 0.00043421 0.00029026 0.00038764
-0.001024 -0.0019378 -0.00082857 0.0013754 0.001354 -9.8432e-05 0.10647 0.25688
0.0021593 -0.018818 0.00010462 -0.00010135
-0.0008507 0.0033009 0.0016033 0.0017725 0.0010367 0.00043252 0.0020866 -0.018789
0.0007274 0.22726 0.0041915 -0.015153
0.0024888 0.0013608 0.00056819 0.0020919 0.0002671 0.00043032 0.00011756 -0.00017476
0.0041727 -0.015129 0.025139 0.31869
1340000000 0.20463 0.23766 -0.016577 -0.020398 0.0001539 0.0041036 -0.0017845 -0.00067266
0.0016021 0.0027896 0.0017336 -0.0013473
-0.01654 -0.020394 0.032245 0.37174 -0.021002 0.004283 -0.00024905 0.0019291
0.0018041 0.00087582 0.0011054 0.00080359
0.00017049 0.0041035 -0.021012 0.0043964 0.33478 0.11712 0.00085477 -0.00083502
0.00068633 -0.00050945 3.8064e-05 0.0002033
-0.0017786 -0.00067258 -0.000243 0.0019169 0.00085445 -0.00083377 0.13935 0.23752
-0.0074605 -0.016287 0.0011905 0.00019187
0.0016166 0.002773 0.001825 0.00086532 0.00067651 -0.0005066 -0.0075029 -0.016289
0.029971 0.22518 -0.0026373 -0.013799
0.0017473 -0.0013507 0.001098 0.0008114 7.684e-05 0.00012216 0.0011887 0.00021916
-0.0026064 -0.013817 0.062908 0.31535
1400000000 0.23958 0.20128 -0.023417 -0.0091405 0.0045832 0.0031534 -0.0020153 0.00065926
0.0026931 0.00091486 0.00025162 -0.0013785
-0.02338 -0.0091477 0.070895 0.35984 -0.01435 0.012251 0.0012138 0.0013377
0.0012219 -0.00053883 0.001185 0.00023838
0.0046032 0.003135 -0.014316 0.012345 0.34909 0.063163 -6.4233e-05 -0.0013024
0.00027768 -0.00021033 0.00044752 0.00023483
-0.0020108 0.00068256 0.0012259 0.0013299 -6.5369e-05 -0.0012994 0.16947 0.20923
-0.013451 -0.010054 -0.00099369 -0.00050592
0.0026796 0.00089196 0.0012004 -0.00052474 0.00027677 -0.00020905 -0.013473 -0.010061
0.06422 0.22454 -0.009273 -0.0095362
0.0002428 -0.0013887 0.0011679 0.00021476 0.00043886 0.00025849 -0.00086092 -0.00052988
-0.0092609 -0.0095813 0.10855 0.30673
1460000000 0.26316 0.15844 -0.020954 0.0034971 0.0051265 -0.0015114 -0.0014998 0.0016106
0.002152 -0.00040446 -0.00030141 -0.0010055
-0.020936 0.0034715 0.10534 0.33851 -0.0054364 0.014884 0.0016164 0.00028998
0.0011156 -0.0012119 0.0012337 -0.00051841
0.0051356 -0.0015225 -0.0053505 0.014944 0.35568 0.0080976 -0.00090166 -0.0010978
0.00032413 -0.00017763 0.00059176 -0.00038279
-0.0015096 0.0016073 0.0016224 0.00028626 -0.0009038 -0.0010885 0.19625 0.18052
-0.014578 -0.0039186 -0.00098685 0.0017533
0.0021701 -0.00043851 0.0011321 -0.0012417 0.00033623 -0.00023113 -0.014627 -0.0038266
0.093605 0.21268 -0.011077 -0.0035431
-0.00028026 -0.00095938 0.0012587 -0.0005384 0.00061678 -0.0003868 -0.001136 0.0016895
-0.011065 -0.00354 0.1418 0.28625
1520000000 0.27693 0.11815 -0.015839 0.0094332 0.0031502 -0.0038449 6.1446e-05 0.002547
0.0022649 -0.0019408 -0.0010768 -4.9016e-05
-0.015834 0.0094203 0.1396 0.32544 0.0019311 0.012267 0.0017416 -0.00064794
0.00034626 -0.0010297 0.00030064 -0.0010469
0.0031391 -0.0038506 0.0019995 0.012273 0.34871 -0.048342 -0.00068679 -0.00038924
0.00068408 -0.00097328 -1.09e-05 -0.00012353
8.9637e-05 0.0025414 0.0017379 -0.0006489 -0.00068863 -0.00038872 0.22051 0.14287
-0.014626 0.0016225 0.0012427 0.0018623
0.0022469 -0.001931 0.0003438 -0.0010071 0.00070084 -0.00095527 -0.014614 0.0016271
0.12227 0.20264 -0.011623 0.00078317
-0.001057 -0.00013428 0.00023944 -0.0010605 -7.3918e-05 -0.000113 0.0012968 0.0020102
-0.011624 0.00077985 0.17619 0.268
1580000000 0.28789 0.072691 -0.0093333 0.0133 -0.0010578 -0.0045334 0.0013706 0.0018358
-0.00033018 -0.0022443 -0.0002296 0.00039339
-0.0093229 0.013289 0.16777 0.30074 0.0052671 0.0071728 0.00059006 -0.0015864
-0.00042945 -0.0012251 -0.00019714 -0.00079853
-0.0010753 -0.0045315 0.0053113 0.0071539 0.32838 -0.10646 -0.0015353 0.00015559
-0.00042682 -0.0013394 0.00017923 -0.00062629
0.0013548 0.0018086 0.00058334 -0.0015937 -0.0015396 0.00016211 0.23536 0.10338
-0.011537 0.006685 0.0018145 0.00090563
-0.00034098 -0.0022004 -0.00044227 -0.0012304 -0.00044388 -0.0013223 -0.011583 0.0067226
0.14798 0.18727 -0.0095043 0.0068233
-0.00021659 0.00042072 -0.00020195 -0.00077306 0.00022762 -0.00061531 0.0018982 0.0007963
-0.0095097 0.0068235 0.2094 0.24234
1640000000 0.29137 0.032166 -0.0023704 0.01262 -0.0027774 -0.0020994 0.0026915 0.0011641
-0.00063529 -0.0016267 -0.0003901 0.0005028
-0.0023742 0.012614 0.19749 0.27718 0.0053645 0.0024421 -0.00049077 -0.0018778
-0.00098636 -0.0006796 -0.00055853 -0.00062262
-0.0027921 -0.0020813 0.0053897 0.0024152 0.29896 -0.15517 -0.00090363 0.0012555
-0.0011739 -0.0011204 -0.00025792 -0.0003464
0.0027033 0.0011537 -0.00049503 -0.0018732 -0.0009008 0.0012466 0.24837 0.054677
-0.007726 0.008109 0.0024702 -0.00049628
-0.00067191 -0.0016377 -0.00099486 -0.00067307 -0.0011619 -0.0011221 -0.007681 0.0081599
0.1718 0.16714 -0.0048 0.0088796
-0.00037146 0.00049601 -0.0005746 -0.00064834 -0.00023607 -0.00034184 0.0023614 -0.00047067
-0.0048023 0.0088774 0.23541 0.21224
1700000000 0.28641 -0.012691 0.0013927 0.010115 -0.003191 0.00031662 0.003174 -0.0011314
-0.0021325 -0.00061918 0.00053968 0.00053688
0.0013883 0.010112 0.21696 0.2459 0.0028276 -0.0001845 -0.001469 -0.00070665
-0.00091912 -0.0001398 -0.00082991 -0.00038059
-0.0031935 0.000347 0.0028339 -0.00019118 0.25556 -0.19401 4.9023e-05 0.0018078
-0.0021123 -0.00013209 -0.00022384 -0.00079212
0.0031907 -0.0011499 -0.0014798 -0.00070342 5.5708e-05 0.0017979 0.24627 0.0040716
-0.005116 0.0091607 0.0016972 -0.0019342
-0.0020991 -0.0005953 -0.00091563 -0.00012522 -0.0020552 -0.00016196 -0.00514 0.0091465
0.19189 0.14983 -0.00012794 0.0095841
0.00056514 0.00052074 -0.0008236 -0.00041411 -0.00029783 -0.00084097 0.0017221 -0.0018348
-0.00013305 0.0095811 0.25359 0.1787
1760000000 0.2757 -0.061788 0.0041113 0.0070233 -0.0019916 0.0011972 0.0014384 -0.0033976
-0.0012312 0.000605 0.00033496 -0.00053611
0.004108 0.0070187 0.24313 0.2064 0.00026227 -0.0015907 -0.0012612 8.7688e-05
-0.0012666 0.0010013 -0.00048444 0.00038584
-0.0019768 0.0012111 0.00026108 -0.0015818 0.20648 -0.2264 0.0011517 0.0014019
-0.0012684 0.0015165 -0.0011334 -0.0005952
0.0014052 -0.0034119 -0.0012713 8.3271e-05 0.0011563 0.0014148 0.23728 -0.048452
-0.0016294 0.0085459 -0.00013207 -0.002276
-0.0012268 0.00062645 -0.0012571 0.0010299 -0.0012082 0.0015306 -0.0015799 0.0085651
0.20884 0.11792 0.0037391 0.0069016
0.00034356 -0.00049558 -0.00046874 0.00041171 -0.0011257 -0.000704 -0.00010976 -0.002464
0.0037508 0.0069075 0.26665 0.14142
1820000000 0.25299 -0.099587 0.0046626 0.0033363 0.00024283 0.0021922 -0.00073521 -0.0031531
-0.0010746 0.00085262 6.2444e-05 -0.0001483
0.0046478 0.0033423 0.25443 0.17713 -0.001853 9.596e-05 -0.0014611 0.00096816
-4.7533e-05 0.0013416 -0.00057125 0.00044029
0.00024527 0.0021993 -0.0018513 0.00011373 0.15715 -0.24104 0.0017794 0.00053249
-0.00025801 0.00232 -0.0016794 0.00010083
-0.00075048 -0.0031393 -0.00145 0.00097317 0.0017801 0.00053113 0.20758 -0.096135
0.000211 0.0072382 -0.0016287 -0.0018224
-0.0010706 0.00084898 -3.0715e-05 0.0013576 -0.00025355 0.0023434 0.00025487 0.0072368
0.22979 0.091451 0.0047495 0.0033995
2.3885e-05 -0.00015783 -0.00058892 0.00039962 -0.0016474 2.9736e-05 -0.0016674 -0.0017624
0.0047541 0.0033918 0.27057 0.10625
1880000000 0.21863 -0.14131 0.0026416 0.00094399 -0.00020606 0.0021885 -0.0028485 -0.0025276
-9.5123e-05 0.0015787 0.00026433 -0.00064917
0.0026297 0.00094449 0.25915 0.13043 -0.0037379 0.0027853 -0.00027192 0.0018634
0.00069071 0.0014452 5.9265e-05 0.00083667
-0.00019307 0.002189 -0.0037109 0.0028325 0.10538 -0.24926 0.0020307 -0.0012333
0.0016871 0.0020295 -0.0011099 0.001128
-0.0028773 -0.0024832 -0.0002637 0.0018623 0.0020209 -0.0012282 0.16658 -0.13687
0.00123 0.005181 -0.002364 0.00032665
-8.0904e-05 0.0016536 0.00067558 0.001458 0.001672 0.0020564 0.0011122 0.0052683
0.23665 0.061342 0.0052814 0.0014672
0.00031844 -0.00065706 9.928e-05 0.00088115 -0.0010307 0.0012534 -0.0022068 0.00041747
0.0052617 0.001458 0.27163 0.071938
1940000000 0.17955 -0.16764 0.00052661 -0.0010161 0.0017086 0.0018835 -0.003986 0.00017976
0.0011307 0.00078887 -0.00057993 -0.00067353
0.00056325 -0.0010444 0.26056 0.099402 -0.0017895 0.005594 0.0011632 0.001369
0.0021352 0.00036704 0.00085387 0.00030035
0.0017166 0.0018675 -0.0017513 0.0056252 0.061044 -0.24116 0.00062947 -0.0024964
0.0023688 0.00043692 4.4514e-05 0.0017529
-0.004066 0.00018308 0.0011765 0.0013484 0.00061278 -0.0024999 0.11379 -0.16747
0.00043784 0.0037393 -0.0015133 0.0015624
0.0011247 0.00075012 0.0021565 0.00034938 0.0023675 0.00040349 0.00054212 0.003616
0.24278 0.024811 0.0037903 -0.0021983
-0.0005916 -0.00069021 0.00085671 0.00026215 -2.8116e-05 0.0017166 -0.0016935 0.0014022
0.003792 -0.0021823 0.26198 0.036794
2000000000 0.13412 -0.1829 -0.003128 0.00078935 0.0029151 0.0012302 -0.0026805 0.0037484
0.00075529 0.00048759 -0.00082358 0.00041247
-0.0031458 0.00077932 0.24762 0.064127 -0.00049571 0.0077425 0.0016325 0.00021215
0.0013091 -0.00154 0.00047125 0.00014024
0.0029234 0.0012218 -0.00043759 0.0077554 0.020353 -0.2269 -0.0016603 -0.0016129
0.0020865 -0.0011593 0.0015855 0.0016869
-0.0026512 0.0037369 0.0016346 0.00019879 -0.001656 -0.0016146 0.059981 -0.17723
-0.0013132 0.0035281 -3.3027e-05 0.0022059
0.0007121 0.00048551 0.0013009 -0.0015509 0.0021201 -0.0011576 -0.0012881 0.003502
0.24147 -0.0084574 0.00068831 -0.0029597
