!Keysight Technologies,M9804A,MY58100912,A.14.10.03
!Date: Thursday, April 27, 2023 10:28:33
!Correction: S11(C  6-Port  ) 
!S12(C  6-Port  ) 
!S13(C  6-Port  ) 
!S14(C  6-Port  ) 
!S15(C  6-Port  ) 
!S16(C  6-Port  ) 
!S21(C  6-Port  ) 
!S22(C  6-Port  ) 
!S23(C  6-Port  ) 
!S24(C  6-Port  ) 
!S25(C  6-Port  ) 
!S26(C  6-Port  ) 
!S31(C  6-Port  ) 
!S32(C  6-Port  ) 
!S33(C  6-Port  ) 
!S34(C  6-Port  ) 
!S35(C  6-Port  ) 
!S36(C  6-Port  ) 
!S41(C  6-Port  ) 
!S42(C  6-Port  ) 
!S43(C  6-Port  ) 
!S44(C  6-Port  ) 
!S45(C  6-Port  ) 
!S46(C  6-Port  ) 
!S51(C  6-Port  ) 
!S52(C  6-Port  ) 
!S53(C  6-Port  ) 
!S54(C  6-Port  ) 
!S55(C  6-Port  ) 
!S56(C  6-Port  ) 
!S61(C  6-Port  ) 
!S62(C  6-Port  ) 
!S63(C  6-Port  ) 
!S64(C  6-Port  ) 
!S65(C  6-Port  ) 
!S66(C  6-Port  ) 
!S6P File: Measurement: :
# Hz S  RI   R 50
500000000 -0.3281 -0.065467 -0.010188 -0.0012069 -0.0082898 0.012165 -0.0043315 0.011966
0.013062 0.0067862 -0.0041376 0.0084002
-0.010173 -0.0011813 -0.40977 -0.074989 0.0081996 -0.010969 0.0009315 0.012475
0.0081071 0.0034807 0.00075402 0.014425
-0.0082653 0.012193 0.0081794 -0.011009 -0.25771 0.18948 0.0068026 0.003514
-0.0023555 0.0086365 0.0012338 0.01213
-0.0043524 0.011946 0.00098697 0.012538 0.0068495 0.0035432 -0.32687 0.039813
-0.020377 -0.0047668 0.015453 0.026873
0.01314 0.0067239 0.0081296 0.0034215 -0.0023774 0.0086088 -0.020434 -0.004761
-0.22011 -0.23206 -0.029067 0.0044903
-0.0042016 0.0085147 0.00078164 0.01451 0.0012711 0.012142 0.015516 0.026776
-0.029099 0.0045486 -0.26306 -0.1439
560000000 -0.31668 0.10287 -0.022027 -0.067419 0.00027225 0.012948 0.0055709 0.01052
0.010411 0.0040046 0.010795 0.009576
-0.021957 -0.067327 -0.37137 0.089962 -0.041202 -0.039578 0.013851 0.0026493
-0.014142 -0.0052511 0.0050623 -0.0012932
0.00031809 0.012966 -0.041362 -0.039534 -0.18254 0.2407 -0.00022821 -0.0054408
0.017973 0.0057712 0.0075002 -0.0054639
0.0055817 0.010513 0.013934 0.0026834 -0.00026775 -0.0054443 -0.30443 0.13002
0.006467 -0.021874 0.0065498 -0.021056
0.01047 0.0039734 -0.014162 -0.0052959 0.017981 0.0058016 0.0064985 -0.021893
-0.3007 -0.050891 0.012244 -0.051826
0.010835 0.0095072 0.0050657 -0.0012564 0.0075029 -0.0054704 0.0065593 -0.021074
0.012363 -0.051887 -0.32907 0.0072349
620000000 -0.27615 0.081279 -0.023425 0.008836 0.0030303 0.0091351 0.0087874 -0.0044064
0.011935 -0.00036588 0.0015363 -0.002349
-0.023398 0.0088273 -0.39974 0.035353 -0.019222 4.311e-05 -0.0016959 -0.0020771
0.012529 -0.0055152 0.00067051 -0.0030624
0.0030631 0.0091395 -0.019253 9.193e-05 -0.15565 0.24958 -0.00089736 -0.0052573
-0.0038713 -0.0027027 0.009392 -0.0033088
0.0087218 -0.0044396 -0.001756 -0.0021367 -0.00089068 -0.0052868 -0.26237 0.14006
-0.039721 -0.021004 0.013213 0.027741
0.011981 -0.00044804 0.012559 -0.0055261 -0.0038912 -0.0027005 -0.039797 -0.021034
-0.21527 -0.085516 -0.043414 0.012384
0.0015933 -0.0022846 0.00068743 -0.0030993 0.009419 -0.0033044 0.013169 0.027742
-0.043357 0.012336 -0.24507 -0.033215
680000000 -0.24182 0.17401 -0.026402 -0.014972 0.0045848 0.0057287 0.0012823 -0.0073538
-0.0019017 -0.011683 0.0061423 -0.0064045
-0.026361 -0.015004 -0.39058 0.13677 -0.033112 -0.0023034 -0.0020116 -0.00041838
-0.0013707 -0.0096491 -0.00065742 -0.0018325
0.0046066 0.0057223 -0.033165 -0.0022101 -0.10839 0.27229 -0.0010213 -1.2653e-05
-0.0013902 0.00071941 -0.0030495 -0.0091555
0.0013351 -0.0073038 -0.0019974 -0.00040846 -0.0010285 2.7043e-06 -0.21966 0.19167
-0.022706 -0.0081452 -0.0094609 -0.012035
-0.002054 -0.011705 -0.0014526 -0.0096599 -0.0014093 0.00070609 -0.022712 -0.0080781
-0.28201 0.015742 -0.0052694 -0.0079176
0.0061156 -0.006402 -0.0006294 -0.0017809 -0.003039 -0.0091323 -0.0094429 -0.012031
-0.0052777 -0.0079238 -0.26117 0.073489
740000000 -0.19578 0.16735 -0.041353 0.026521 0.013983 -0.0039502 0.00026557 -0.003972
-0.0042218 -0.0016777 -0.0067482 0.0029483
-0.041357 0.026458 -0.33748 0.15629 -0.037416 0.034368 0.00023727 -0.006065
-0.013298 0.0068086 -0.0015614 -0.0058775
0.01399 -0.0039829 -0.037355 0.034534 -0.075774 0.27313 -0.0014491 0.0033459
-0.0019772 -0.0055707 -0.0019585 0.00073216
0.0001747 -0.0039504 0.00018332 -0.0061263 -0.001429 0.0033314 -0.20308 0.19916
-0.043257 -0.0096842 0.02312 0.016271
-0.0041906 -0.0016466 -0.013321 0.0068387 -0.00198 -0.0055633 -0.043254 -0.0096817
-0.17963 0.048705 -0.045072 -0.0014082
-0.0068053 0.0029397 -0.0016078 -0.0058798 -0.0019747 0.00071973 0.023139 0.016338
-0.045104 -0.0014758 -0.25205 0.078953
800000000 -0.16652 0.21291 -0.022672 0.015818 0.005843 -0.010245 -0.0046846 -0.0019247
-0.0035873 0.0017086 0.0042124 0.00070511
-0.022663 0.015793 -0.34532 0.22754 -0.009116 0.034656 -0.0022272 0.0022401
7.35e-06 0.0026388 0.00073502 0.0051038
0.0058095 -0.010286 -0.0090233 0.03474 -0.037236 0.29923 0.0010876 0.0013766
0.00014758 0.003145 -0.0017615 0.00094443
-0.0046449 -0.0019487 -0.0022297 0.0022362 0.0010892 0.0013691 -0.175 0.22697
-0.029664 0.012858 0.014731 -0.010219
-0.0036498 0.0016969 4.8019e-06 0.0026041 0.00011052 0.0031409 -0.029694 0.012922
-0.2319 0.074136 -0.018368 0.020011
0.0042777 0.00062136 0.00078799 0.0050963 -0.0017518 0.00094539 0.014724 -0.01029
-0.0184 0.020001 -0.24814 0.13056
860000000 -0.13308 0.23402 -0.018817 0.030525 -0.003181 -0.010368 -0.0019317 0.00044373
0.0033556 0.0052707 -0.0035685 -0.0031437
-0.018807 0.030471 -0.29892 0.27289 0.0072803 0.035012 -4.0034e-06 0.0020022
0.003381 0.00073319 0.0038817 0.00012229
-0.0032102 -0.010377 0.0074108 0.035041 0.010795 0.30964 -0.0006093 -0.00057773
0.0023504 -0.0016886 0.0018346 0.0043296
-0.0019188 0.0004665 -1.3925e-05 0.0019592 -0.00060733 -0.00055208 -0.13912 0.23919
-0.018879 0.017686 -0.0065399 -0.0095946
0.0033987 0.0052458 0.0034576 0.00070429 0.0023703 -0.0017087 -0.018898 0.017706
-0.17909 0.13397 -0.025798 0.015855
-0.0035214 -0.0031074 0.0038553 0.00013588 0.0018433 0.0043258 -0.0065079 -0.0095945
-0.025771 0.015817 -0.19942 0.17835
920000000 -0.11023 0.25804 0.004128 0.03962 -0.0094938 -0.0047882 -0.0017558 0.0017226
0.0001869 0.0017256 0.0032268 -0.0013404
0.0040952 0.039577 -0.27228 0.29513 0.028247 0.023429 0.0014573 0.0011684
0.0069188 -0.00038422 0.0038895 -0.0030707
-0.0095187 -0.0047737 0.028369 0.023376 0.057402 0.31224 0.0016702 -2.1852e-05
0.00064168 -0.00053354 0.00087267 -0.0014393
-0.0017684 0.0017358 0.0014708 0.0011622 0.0016593 -3.2219e-05 -0.11543 0.25634
-0.012412 0.031142 0.0036923 -0.0069126
0.00018535 0.0017557 0.0069445 -0.00042923 0.00064871 -0.00051167 -0.012331 0.03118
-0.17018 0.13797 -0.0029848 0.028179
0.0032329 -0.0013309 0.0039156 -0.003085 0.00087569 -0.0014565 0.0036811 -0.0069185
-0.0029901 0.028143 -0.20906 0.1911
980000000 -0.064108 0.27989 0.01645 0.031112 -0.0096208 0.0047148 0.0019563 0.0034958
0.003877 -0.0016023 -0.0035439 -0.0026485
0.01642 0.031075 -0.22035 0.33243 0.033642 0.0055269 0.0018895 -0.00023341
0.0016421 -0.0062629 -0.00042215 -0.0027519
-0.0096132 0.0047449 0.033713 0.005432 0.10414 0.30714 0.00051498 -0.001134
0.00021602 -0.0018167 0.0015679 -0.00027085
0.0019677 0.0035489 0.0018772 -0.00025835 0.00052833 -0.0011243 -0.076637 0.26824
0.0069002 0.030946 -0.0094266 -0.0081014
0.0038695 -0.0016111 0.0016308 -0.0062512 0.00021809 -0.0018044 0.0069386 0.030957
-0.13942 0.17326 0.004778 0.020943
-0.0035143 -0.0026266 -0.00045201 -0.0027578 0.0015688 -0.00028517 -0.0094313 -0.0080837
0.0047752 0.020929 -0.16653 0.2397
1040000000 -0.023386 0.28988 0.033499 0.020227 -0.001183 0.0077379 0.0026205 0.00068422
0.00021125 -0.0033704 -3.5377e-05 -0.0016155
0.033441 0.020195 -0.18529 0.34699 0.030294 -0.014524 0.0014112 -0.0017306
-0.0025193 -0.0027369 -0.0010208 -0.0029455
-0.0011605 0.0077357 0.030288 -0.014653 0.15084 0.29485 -0.0005561 -0.0014164
-0.0016417 -0.0010399 -0.00062428 -0.0011262
0.0026049 0.00066258 0.0014063 -0.0017666 -0.00054484 -0.0014124 -0.049539 0.27875
0.019188 0.019878 -0.0025021 0.0014002
0.00021756 -0.0033403 -0.0025318 -0.0027298 -0.0016431 -0.0010343 0.019236 0.019852
-0.10735 0.18251 0.013776 0.02016
-7.952e-05 -0.0016314 -0.0010458 -0.0028985 -0.0006179 -0.0011203 -0.0025163 0.0013864
0.013757 0.020171 -0.14585 0.26082
1100000000 0.021787 0.30026 0.037387 -0.0027553 0.0035868 0.004341 0.0023959 -0.0011166
-0.0023266 -0.0030697 -0.0042301 0.00017267
0.037353 -0.0027427 -0.14178 0.36733 0.015773 -0.028165 -0.00015994 -0.001848
-0.0036327 -0.00077361 -0.0036753 -0.00049351
0.0035988 0.0043259 0.015688 -0.02826 0.19792 0.27557 -0.001763 0.00034026
-0.0016545 0.00065582 -0.0011514 -0.00059402
0.0024042 -0.0011018 -0.00017547 -0.0018398 -0.0017569 0.00033676 -0.0087813 0.28428
0.025456 0.0063411 -0.0027471 0.00045008
-0.002368 -0.003026 -0.0036499 -0.00073771 -0.0016478 0.00065827 0.025464 0.00629
-0.089713 0.19868 0.019867 0.010159
-0.0042045 0.00016431 -0.0036843 -0.00048158 -0.0011583 -0.00060598 -0.0027541 0.00045952
0.019851 0.01019 -0.10099 0.29341
1160000000 0.072843 0.29769 0.025672 -0.020291 0.003548 -0.0007329 -0.00022901 -0.0023396
-0.004147 -0.00085629 -0.0010158 0.0040373
0.025647 -0.020273 -0.097937 0.37277 -0.00371 -0.029391 -0.00157 -0.0014989
-0.0025529 0.0025582 -0.0014527 0.0019123
0.0035502 -0.00075904 -0.0038375 -0.029405 0.24182 0.24532 -0.00056952 0.0017083
-0.00047277 0.0018387 -0.0010395 0.00028952
-0.00024617 -0.0023393 -0.0016037 -0.0014998 -0.00057026 0.00171 0.030907 0.28153
0.022551 -0.010242 -0.0036812 0.0052067
-0.0041456 -0.00082524 -0.0025247 0.0025753 -0.00046908 0.0018385 0.022538 -0.010273
-0.055048 0.21003 0.020022 0.00045132
-0.00097736 0.0040501 -0.0014338 0.0019387 -0.0010431 0.0002828 -0.0036645 0.005234
0.019983 0.00041804 -0.053728 0.29707
1220000000 0.11668 0.28918 0.012262 -0.030686 -0.0010836 -0.0015701 -0.00011725 -0.00098194
-0.0027665 0.002208 0.0011817 0.002089
0.012269 -0.030659 -0.052937 0.38756 -0.017191 -0.02142 -0.0025178 0.00061449
5.9891e-05 0.0030413 -0.00077627 0.0020534
-0.0010949 -0.0015743 -0.017307 -0.021368 0.28135 0.20675 0.00093574 0.001527
0.00059715 0.0011569 0.00016516 0.00061392
-0.00012697 -0.00098013 -0.0025165 0.00061737 0.000932 0.0015266 0.070972 0.27344
0.011436 -0.017551 0.0023169 0.0016566
-0.0027698 0.0022193 8.2515e-05 0.0030523 0.00060016 0.0011649 0.011411 -0.017582
-0.032469 0.22168 0.015093 -0.012731
0.0011931 0.0020947 -0.00077605 0.002057 0.00016023 0.0006059 0.0023197 0.0016486
0.015118 -0.01273 -0.02302 0.31498
1280000000 0.16772 0.26972 -0.007111 -0.029875 -0.0020437 0.0016531 -0.00094752 -0.0019773
-0.0010218 0.0034131 0.0024825 0.001268
-0.0070895 -0.02985 -0.0055604 0.37939 -0.024244 -0.0080385 -0.00071951 0.0014259
0.001684 0.0016469 0.00054273 0.0020126
-0.0020245 0.0016622 -0.024334 -0.007936 0.31246 0.16308 0.0014068 -0.00019034
0.0010928 0.00034545 0.00019279 0.00045608
-0.00095206 -0.0019763 -0.00071313 0.0014398 0.0014052 -0.00019557 0.10786 0.25685
0.0014348 -0.020053 -2.7686e-05 -5.1021e-05
-0.00099921 0.0034257 0.0016996 0.0016459 0.0010965 0.00034219 0.0013829 -0.020065
0.004873 0.2278 0.0039631 -0.016113
0.0025031 0.0012346 0.00055284 0.0019857 0.00018571 0.00046414 -1.9666e-05 -5.0597e-05
0.0039708 -0.016114 0.025124 0.31899
1340000000 0.20543 0.23773 -0.017387 -0.020268 0.00027437 0.0042165 -0.0018526 -0.00073028
0.0015847 0.0028639 0.0018962 -0.0013887
-0.017348 -0.020255 0.033877 0.37199 -0.021255 0.0049014 -0.00012351 0.0019297
0.001901 0.00081327 0.001227 0.00071504
0.00029541 0.0042186 -0.021257 0.0050046 0.33499 0.11571 0.00085919 -0.00099463
0.00068856 -0.00051797 0.00018594 0.00029523
-0.0018587 -0.00070249 -0.00012472 0.0019315 0.00085406 -0.00098166 0.14057 0.23672
-0.0086906 -0.017248 0.00088939 0.00054028
0.0016219 0.0028741 0.0019082 0.00079288 0.00069537 -0.00051341 -0.0087337 -0.017249
0.03487 0.22573 -0.00342 -0.014523
0.0018838 -0.0013642 0.0012278 0.00073327 0.00018668 0.00030918 0.00088738 0.00053868
-0.0034326 -0.01452 0.062843 0.31562
1400000000 0.2404 0.20109 -0.024045 -0.0085848 0.0048276 0.0032175 -0.0021124 0.00079408
0.0026864 0.0010137 0.00026634 -0.0014337
-0.024008 -0.0085982 0.072378 0.35948 -0.014184 0.012852 0.0012121 0.0012137
0.0011008 -0.00070785 0.0010762 0.00011148
0.004846 0.0032009 -0.014138 0.012947 0.34865 0.062086 -0.00017367 -0.0013465
0.00017036 -0.0001887 0.00041647 0.00033111
-0.0020975 0.00079829 0.0012248 0.0012067 -0.0001701 -0.0013479 0.17029 0.20801
-0.015142 -0.0099932 -0.0007047 -0.00024347
0.0026908 0.0010098 0.0010995 -0.00071812 0.00017728 -0.00018388 -0.015165 -0.0099604
0.068916 0.22369 -0.010024 -0.0093759
0.00026263 -0.0014483 0.001083 8.6904e-05 0.00039951 0.00032307 -0.00071329 -0.00023809
-0.010005 -0.0093867 0.10871 0.30618
1460000000 0.26394 0.15786 -0.02122 0.0043788 0.0051996 -0.0016944 -0.0014355 0.0016791
0.0022767 -0.00046193 -0.00021199 -0.00079248
-0.021201 0.0043588 0.10653 0.33744 -0.004929 0.015231 0.0015918 0.00025017
0.0010186 -0.0012037 0.0012529 -0.0006537
0.0051954 -0.0017301 -0.0048664 0.015288 0.35508 0.0075795 -0.0010766 -0.00098828
0.00032311 -0.0002188 0.00062701 -0.00047578
-0.0014212 0.0016862 0.0015936 0.00025403 -0.0010812 -0.00099812 0.19661 0.17928
-0.016072 -0.0028713 -0.0010087 0.0019915
0.0022805 -0.0004994 0.0010126 -0.0012191 0.00032482 -0.00022092 -0.016075 -0.0028398
0.098465 0.21145 -0.012253 -0.0030743
-0.00025496 -0.0007867 0.0012381 -0.00065054 0.0006517 -0.00046615 -0.0010185 0.0019854
-0.012258 -0.0030853 0.14205 0.28611
1520000000 0.27733 0.11708 -0.015552 0.010274 0.0031696 -0.0039709 0.00023778 0.0026508
0.0023767 -0.0019481 -0.0011041 -0.00014041
-0.015551 0.010257 0.14022 0.32408 0.0025148 0.012311 0.0016429 -0.00061274
0.00015225 -0.00098618 0.00026325 -0.00099452
0.0031531 -0.0039914 0.0025913 0.012317 0.34795 -0.048567 -0.00080553 -0.00026541
0.00070303 -0.00095468 0.00011516 -0.00016908
0.00024244 0.0026448 0.0016391 -0.00061102 -0.00080724 -0.00025864 0.22025 0.14146
-0.015152 0.0031455 0.0016396 0.0019713
0.002387 -0.0019713 0.00015237 -0.00098143 0.00070669 -0.00094646 -0.015154 0.0031826
0.12709 0.20024 -0.012198 0.0017027
-0.0010921 -0.00012755 0.00027046 -0.0010018 0.00012357 -0.00016907 0.0016529 0.0019774
-0.012187 0.0017019 0.17575 0.2679
1580000000 0.28789 0.071651 -0.0086286 0.013972 -0.0011068 -0.0045626 0.0014636 0.0017639
-0.00027855 -0.0023794 -8.5294e-05 0.00048029
-0.0086346 0.013952 0.16769 0.29945 0.0056607 0.0069414 0.00061807 -0.001502
-0.00042799 -0.0010756 -0.00021977 -0.00073119
-0.0011322 -0.0045525 0.0057017 0.0069229 0.32804 -0.10606 -0.0014001 0.00027186
-0.00052026 -0.0013405 0.00029841 -0.00060419
0.0014689 0.0017544 0.00060386 -0.0015073 -0.0014006 0.00027052 0.23445 0.10246
-0.011088 0.0082798 0.0020653 0.00066141
-0.00030458 -0.0023707 -0.00042951 -0.0010667 -0.000531 -0.0013373 -0.011084 0.0082949
0.15235 0.18443 -0.0094729 0.0079148
-9.5113e-05 0.0004663 -0.00024039 -0.00072104 0.00029434 -0.00058264 0.0020782 0.00065264
-0.0094903 0.0079008 0.20909 0.2419
1640000000 0.29094 0.031244 -0.0014895 0.012713 -0.0029258 -0.0021769 0.002731 0.0010403
-0.00076902 -0.0016819 -0.0004771 0.00033713
-0.0015001 0.012703 0.19702 0.27602 0.0055705 0.0020322 -0.00050414 -0.0018319
-0.00092932 -0.00051393 -0.00048953 -0.00065642
-0.0029247 -0.0021582 0.0055928 0.0019913 0.2992 -0.1547 -0.0007697 0.001202
-0.001103 -0.0010314 -0.00018215 -0.00045631
0.00275 0.0010296 -0.00051832 -0.0018284 -0.0007696 0.0012007 0.24725 0.054118
-0.0065932 0.0089672 0.0025616 -0.00057635
-0.00078445 -0.00168 -0.00093234 -0.00050897 -0.0010956 -0.0010229 -0.0065877 0.008998
0.17558 0.1629 -0.0043004 0.01001
-0.00044588 0.00035461 -0.00047215 -0.00066312 -0.0001839 -0.00046662 0.0025447 -0.00061426
-0.0043078 0.010017 0.23502 0.21232
1700000000 0.2854 -0.013384 0.0021894 0.0096657 -0.0032943 0.00035506 0.0030809 -0.0012477
-0.002179 -0.00060555 0.00050072 0.00043659
0.0021625 0.0096626 0.21592 0.24525 0.0028473 -0.00057969 -0.0014489 -0.00070465
-0.00078581 -0.00012195 -0.00081104 -0.00041009
-0.0032938 0.00037599 0.0028482 -0.00060305 0.25599 -0.19383 8.3144e-05 0.0015858
-0.0020791 -4.9646e-05 -0.00037914 -0.00089556
0.0030783 -0.0012529 -0.0014595 -0.00070585 7.9556e-05 0.0015872 0.24493 0.0043084
-0.003858 0.0091318 0.0016252 -0.0022282
-0.0022031 -0.00058674 -0.00078673 -0.00011858 -0.0020719 -4.0082e-05 -0.0038237 0.0091401
0.19465 0.14527 0.00051018 0.0098554
0.00049478 0.00040371 -0.00080887 -0.00039554 -0.00038202 -0.00088791 0.0016381 -0.0022059
0.0005273 0.0098439 0.2534 0.17912
1760000000 0.27469 -0.061783 0.0044163 0.0062154 -0.0020989 0.0012375 0.0013012 -0.0034924
-0.001265 0.00069201 0.00012979 -0.00057634
0.0044045 0.0062056 0.24211 0.20646 3.2133e-05 -0.001864 -0.0012483 3.6619e-06
-0.0011165 0.00089626 -0.00054468 0.00033949
-0.0020969 0.0012427 2.2131e-05 -0.0018717 0.20733 -0.22635 0.0011546 0.0013447
-0.0011909 0.0014588 -0.0013221 -0.00069979
0.0013017 -0.003499 -0.0012495 1.0651e-05 0.0011651 0.0013463 0.23636 -0.047245
-0.00090053 0.0080066 -8.427e-05 -0.0023741
-0.0012544 0.00069129 -0.0011069 0.0009134 -0.0011884 0.0014608 -0.00088381 0.0080123
0.21035 0.11283 0.0047573 0.0072249
0.00014442 -0.0005684 -0.00055269 0.00034411 -0.0013158 -0.00069255 -7.476e-05 -0.0023998
0.004763 0.0072353 0.26678 0.14132
1820000000 0.25214 -0.09901 0.0044508 0.0026367 7.036e-05 0.002428 -0.00091905 -0.00313
-0.0010927 0.00091588 -0.0001655 1.4135e-06
0.0044418 0.0026429 0.2535 0.17759 -0.0021593 3.7912e-05 -0.0014734 0.0009261
-0.00011065 0.0012015 -0.00065743 0.00038567
8.3513e-05 0.0024355 -0.0021689 5.3522e-05 0.15734 -0.24135 0.0017762 0.00050148
-0.00017471 0.002255 -0.0019089 0.00026707
-0.00093099 -0.0031197 -0.0014786 0.00092185 0.0017815 0.0005191 0.20756 -0.094578
0.00037535 0.0066485 -0.0016603 -0.0017529
-0.0010854 0.00091837 -0.00010538 0.0011941 -0.00018213 0.0022622 0.00038038 0.0066592
0.22998 0.086549 0.0055739 0.0032066
-0.00016694 -7.1876e-06 -0.0006385 0.00039325 -0.0019137 0.00024115 -0.0016915 -0.0017584
0.0055712 0.0031953 0.27079 0.10679
1880000000 0.21866 -0.14027 0.0021718 0.00059142 -0.00020025 0.0024349 -0.0029334 -0.0024124
-0.00014243 0.0016112 0.00027153 -0.00057653
0.0021728 0.00058912 0.25866 0.13151 -0.0039981 0.0029592 -0.00032583 0.0018781
0.00049679 0.0013728 8.8626e-05 0.00098459
-0.00018041 0.0024316 -0.0039964 0.0029927 0.10558 -0.2493 0.0019787 -0.0010124
0.0016591 0.0020707 -0.00096046 0.0015117
-0.002957 -0.0023857 -0.00033578 0.0019062 0.0019989 -0.00097651 0.16721 -0.13571
0.00096393 0.0048268 -0.002346 0.00016978
-0.00013975 0.0016153 0.00050622 0.0013836 0.0016709 0.0020582 0.00098273 0.0048488
0.23607 0.056977 0.0057525 0.00096606
0.00026581 -0.0005894 9.637e-05 0.00098712 -0.00095191 0.0015141 -0.0023244 0.00017843
0.0057374 0.00094962 0.2723 0.072053
1940000000 0.18028 -0.16697 0.00019711 -0.0010678 0.0019865 0.001751 -0.0037797 0.00032026
0.001253 0.00080408 -0.00057698 -0.00068517
0.00019725 -0.0010674 0.26088 0.10052 -0.001668 0.005827 0.001006 0.0013994
0.0019344 0.00049761 0.00086912 0.00017145
0.001995 0.0017347 -0.0016368 0.0058407 0.062099 -0.24137 0.0005439 -0.0024509
0.0022205 0.00038551 0.00028985 0.0017705
-0.0037778 0.00034531 0.0010206 0.0013833 0.00051095 -0.0024905 0.11536 -0.16675
0.00019717 0.0036198 -0.0019107 0.0014853
0.0012639 0.00079318 0.0019318 0.00048479 0.0022093 0.0003454 0.00018817 0.0035979
0.24156 0.021092 0.004125 -0.0030206
-0.00055137 -0.0006978 0.00090394 0.00016617 0.00031435 0.0017864 -0.00193 0.0014741
0.0041301 -0.0030167 0.26197 0.036482
2000000000 0.13473 -0.18261 -0.0035 0.00097113 0.0028496 0.0010941 -0.0024805 0.0037285
0.00084584 0.00039198 -0.00075497 0.00049518
-0.0035003 0.00095436 0.24821 0.065005 -0.00040208 0.0076304 0.0017293 0.0003779
0.0012432 -0.0012523 0.00039694 0.00014095
0.0028611 0.0010818 -0.00035756 0.0076357 0.020646 -0.22814 -0.0015442 -0.001523
0.0020303 -0.0010333 0.001757 0.0015437
-0.0024416 0.0037527 0.0017168 0.000371 -0.0015132 -0.0015524 0.062092 -0.17787
-0.0010407 0.0035475 0.0001694 0.002296
0.00083889 0.00038018 0.0012237 -0.0012764 0.0020377 -0.0010363 -0.0010508 0.0035815
0.24008 -0.011102 0.00044928 -0.0038068
