!Keysight Technologies,M9804A,MY58100912,A.14.10.03
!Date: Thursday, April 27, 2023 10:28:33
!Correction: S11(C  6-Port  ) 
!S12(C  6-Port  ) 
!S13(C  6-Port  ) 
!S14(C  6-Port  ) 
!S15(C  6-Port  ) 
!S16(C  6-Port  ) 
!S21(C  6-Port  ) 
!S22(C  6-Port  ) 
!S23(C  6-Port  ) 
!S24(C  6-Port  ) 
!S25(C  6-Port  ) 
!S26(C  6-Port  ) 
!S31(C  6-Port  ) 
!S32(C  6-Port  ) 
!S33(C  6-Port  ) 
!S34(C  6-Port  ) 
!S35(C  6-Port  ) 
!S36(C  6-Port  ) 
!S41(C  6-Port  ) 
!S42(C  6-Port  ) 
!S43(C  6-Port  ) 
!S44(C  6-Port  ) 
!S45(C  6-Port  ) 
!S46(C  6-Port  ) 
!S51(C  6-Port  ) 
!S52(C  6-Port  ) 
!S53(C  6-Port  ) 
!S54(C  6-Port  ) 
!S55(C  6-Port  ) 
!S56(C  6-Port  ) 
!S61(C  6-Port  ) 
!S62(C  6-Port  ) 
!S63(C  6-Port  ) 
!S64(C  6-Port  ) 
!S65(C  6-Port  ) 
!S66(C  6-Port  ) 
!S6P File: Measurement: :
# Hz S  RI   R 50
500000000 -0.32862 -0.066555 -0.0099164 -0.0010847 -0.0082167 0.012437 -0.0047213 0.011892
0.013766 0.0060194 -0.0056534 0.0085392
-0.0098185 -0.0012008 -0.41014 -0.076657 0.0083767 -0.010742 0.00027989 0.011474
0.0092693 0.0035886 -0.00017246 0.013267
-0.0080002 0.012459 0.0082329 -0.010772 -0.25981 0.18888 0.0062451 0.0037323
-0.0014742 0.0083548 4.817e-05 0.012743
-0.0048262 0.011868 0.00062685 0.011434 0.0062514 0.0037205 -0.32791 0.038734
-0.019593 -0.0051786 0.015569 0.027359
0.013654 0.0058743 0.0092388 0.0036283 -0.0014559 0.0083199 -0.019554 -0.0050493
-0.22294 -0.23034 -0.027472 0.0040868
-0.0055833 0.0082887 0.00036638 0.013087 0.00014387 0.012766 0.015482 0.027101
-0.027478 0.0038137 -0.2639 -0.14391
560000000 -0.31772 0.10196 -0.022364 -0.06771 0.00085091 0.013027 0.005925 0.011041
0.011549 0.0049507 0.011513 0.0099483
-0.022326 -0.067488 -0.37159 0.089193 -0.041675 -0.039192 0.01417 0.0030208
-0.013254 -0.006829 0.0044679 -0.0013535
0.001025 0.012875 -0.041742 -0.039143 -0.18357 0.23993 -0.00011317 -0.0052087
0.018234 0.0071292 0.0078 -0.0053527
0.0059131 0.010911 0.01406 0.0030374 -0.0001303 -0.0051803 -0.30575 0.12886
0.0071075 -0.022116 0.0063094 -0.021495
0.011705 0.0040523 -0.013053 -0.0066088 0.018098 0.0069897 0.0071244 -0.021967
-0.30205 -0.047878 0.011752 -0.052107
0.01169 0.010347 0.0043844 -0.0010676 0.0078784 -0.0053876 0.0064261 -0.021565
0.011478 -0.051466 -0.33123 0.0070548
620000000 -0.27675 0.080778 -0.023705 0.0088323 0.0033343 0.009296 0.0086347 -0.0042935
0.012651 -0.0013546 0.00084724 -0.0017482
-0.023575 0.0087942 -0.40078 0.035156 -0.018859 0.00011516 -0.001609 -0.0018278
0.012455 -0.0057799 0.00067511 -0.0022752
0.0034923 0.0093706 -0.018907 0.00015141 -0.1568 0.24959 -0.001457 -0.0056053
-0.0037411 -0.0023184 0.0085887 -0.0033345
0.0085983 -0.0044937 -0.0016639 -0.0018485 -0.0014589 -0.0056814 -0.26486 0.13865
-0.039036 -0.019364 0.011755 0.028724
0.012302 -0.0014217 0.012522 -0.0058363 -0.0037206 -0.0023115 -0.038646 -0.019524
-0.21688 -0.084556 -0.043406 0.012239
0.00064848 -0.0021119 0.00049199 -0.0022395 0.0084998 -0.0034175 0.011834 0.028481
-0.043834 0.012801 -0.24742 -0.027681
680000000 -0.24223 0.17349 -0.026235 -0.015231 0.004563 0.0060585 0.0015228 -0.0073408
-0.002165 -0.011518 0.0060043 -0.0068666
-0.026144 -0.015194 -0.39099 0.13681 -0.032837 -0.0026933 -0.0017196 -0.00036973
-0.0015178 -0.0097174 -0.0011297 -0.0019966
0.0045699 0.0059314 -0.03289 -0.0026296 -0.10852 0.2719 -0.00092877 8.724e-05
-0.0013086 0.00087779 -0.0027772 -0.009203
0.0015878 -0.0073445 -0.0017244 -0.00031886 -0.00089169 0.00010334 -0.21998 0.19039
-0.023139 -0.0078438 -0.0094217 -0.011193
-0.0021458 -0.011553 -0.0015361 -0.0097133 -0.0013136 0.00088704 -0.023214 -0.0078662
-0.28207 0.018008 -0.0052639 -0.0082667
0.0067185 -0.0066334 -0.0011261 -0.0019856 -0.0028275 -0.0092002 -0.009299 -0.011008
-0.0053347 -0.008461 -0.26331 0.074814
740000000 -0.19658 0.16711 -0.040998 0.026794 0.013932 -0.0037122 0.00016934 -0.0040287
-0.0039666 -0.0022094 -0.0070547 0.0027194
-0.040915 0.02666 -0.33677 0.15694 -0.038122 0.034819 0.00024413 -0.0058563
-0.0139 0.0066801 -0.0014913 -0.0060639
0.014017 -0.0037174 -0.038038 0.034964 -0.076057 0.27219 -0.0018907 0.0034729
-0.0020311 -0.0052324 -0.0017221 0.00070279
0.00021324 -0.0040578 0.00028969 -0.0058073 -0.0018976 0.0034904 -0.20421 0.19881
-0.043285 -0.0088059 0.023011 0.015776
-0.003956 -0.0022359 -0.013777 0.0065423 -0.0019705 -0.0052498 -0.043375 -0.0088218
-0.17971 0.051009 -0.045106 -9.2168e-05
-0.006871 0.0028862 -0.0012711 -0.0058799 -0.0018611 0.00071348 0.023089 0.015816
-0.045071 -0.00018027 -0.25131 0.078332
800000000 -0.16673 0.21285 -0.022574 0.015916 0.0060259 -0.0105 -0.0042013 -0.0025079
-0.0043803 0.0017606 0.0046699 0.00049499
-0.022756 0.015817 -0.34547 0.22785 -0.0091481 0.034538 -0.0020169 0.0021569
-0.00040369 0.0023062 0.00082666 0.0053379
0.0058709 -0.010452 -0.0090565 0.034636 -0.037576 0.29813 0.0011427 0.0012215
1.7797e-05 0.0033019 -0.0017633 0.00063103
-0.0042648 -0.0024338 -0.0020005 0.0022205 0.0011718 0.0012086 -0.17529 0.22656
-0.029018 0.012978 0.015149 -0.010431
-0.0042559 0.0016789 -0.00035604 0.0022779 -2.7446e-07 0.0032591 -0.02897 0.012992
-0.23157 0.075305 -0.018985 0.020547
0.0043621 0.00058744 0.00099766 0.0054682 -0.0016763 0.00057611 0.01509 -0.010439
-0.018976 0.020543 -0.24674 0.13211
860000000 -0.13338 0.23372 -0.018486 0.030392 -0.0028644 -0.010366 -0.0017769 0.00069338
0.0041207 0.0053842 -0.0036949 -0.0023069
-0.018551 0.030346 -0.29905 0.27244 0.0071346 0.034903 0.00022497 0.0021266
0.0040448 0.0006237 0.0039896 0.00072407
-0.0029413 -0.010372 0.0072629 0.034952 0.010107 0.30849 -0.00043169 -0.00048494
0.0024159 -0.0017563 0.0020897 0.0043416
-0.00178 0.00074123 0.0002613 0.0021572 -0.00043719 -0.00046844 -0.1392 0.23841
-0.018607 0.017648 -0.0066432 -0.0099838
0.0041277 0.0054923 0.0040774 0.00065049 0.0024458 -0.0017627 -0.018662 0.017719
-0.17713 0.13514 -0.026583 0.016441
-0.0039596 -0.0023885 0.0037733 0.00072467 0.0020521 0.004451 -0.006622 -0.010027
-0.026536 0.016453 -0.19773 0.17834
920000000 -0.11035 0.2581 0.0040714 0.039444 -0.0093787 -0.0048692 -0.0019728 0.00176
0.00021804 0.0014718 0.0029933 -0.0012764
0.0040889 0.039442 -0.27244 0.29511 0.028133 0.023444 0.001309 0.0013116
0.0072678 -0.000368 0.0038739 -0.0028279
-0.0093808 -0.0048626 0.028249 0.023377 0.056491 0.31127 0.0017331 -2.5252e-05
0.00060926 -0.00054985 0.00084683 -0.0013452
-0.0018583 0.001846 0.0013249 0.0013177 0.0017154 -2.1309e-05 -0.11566 0.25599
-0.012554 0.0307 0.0041468 -0.0068988
0.00036606 0.0014933 0.0073374 -0.00035303 0.00060771 -0.0005338 -0.01248 0.030672
-0.16963 0.13964 -0.0036867 0.027897
0.003224 -0.0012619 0.004007 -0.0029856 0.00084532 -0.0013813 0.0041454 -0.0069813
-0.0037153 0.027972 -0.20782 0.19223
980000000 -0.064716 0.27932 0.016073 0.031043 -0.009782 0.0046034 0.0017214 0.00361
0.0040255 -0.0015137 -0.0034723 -0.0025199
0.016065 0.031042 -0.22038 0.33186 0.033473 0.0058603 0.0017382 -0.00028764
0.001782 -0.0061233 -0.00037416 -0.0028611
-0.0097615 0.004648 0.033558 0.0057436 0.1029 0.30607 0.00041243 -0.0011587
0.00028431 -0.0017816 0.0014553 -0.00032377
0.0017565 0.0036084 0.0017606 -0.00028689 0.00041128 -0.0011641 -0.077456 0.26715
0.0067037 0.030447 -0.0098058 -0.0078994
0.0041005 -0.0015404 0.0017833 -0.0061379 0.00028306 -0.0017727 0.0067589 0.030432
-0.13906 0.17549 0.0051336 0.020869
-0.003546 -0.0025962 -0.0003369 -0.0028144 0.001453 -0.00035127 -0.0097881 -0.0078812
0.0050538 0.020796 -0.1665 0.23982
1040000000 -0.024121 0.28931 0.033235 0.020233 -0.0013313 0.0075528 0.002598 0.00081751
0.00028616 -0.0034464 -3.0313e-05 -0.0016842
0.033154 0.020243 -0.18576 0.34657 0.030423 -0.01431 0.0013461 -0.0016939
-0.0024616 -0.0026138 -0.0013294 -0.003084
-0.0013402 0.0075954 0.030425 -0.014461 0.1492 0.29427 -0.00053246 -0.0014673
-0.0016034 -0.00085602 -0.00069165 -0.001185
0.0025898 0.00078895 0.0013557 -0.0017145 -0.00052075 -0.0014599 -0.050442 0.27788
0.018836 0.0194 -0.0024805 0.0013109
0.00028984 -0.0035128 -0.0024558 -0.0026242 -0.0016182 -0.00087597 0.018896 0.019348
-0.10674 0.18428 0.013952 0.019326
-2.4836e-05 -0.0015381 -0.0013652 -0.0030807 -0.00066824 -0.0011638 -0.0024495 0.0013575
0.013944 0.019354 -0.1455 0.26079
1100000000 0.021019 0.30028 0.037112 -0.0025425 0.0034654 0.0043501 0.0024406 -0.00098858
-0.0021869 -0.003124 -0.0043176 5.5245e-05
0.03706 -0.0025153 -0.14197 0.36656 0.016061 -0.027966 -0.00011572 -0.0018089
-0.0035934 -0.00079276 -0.0036896 -0.00046837
0.0034775 0.0043397 0.015976 -0.028065 0.19633 0.27521 -0.0018005 0.00034155
-0.0017489 0.00074789 -0.0011096 -0.00048113
0.0024366 -0.00099927 -0.00012476 -0.0018219 -0.0017992 0.00034052 -0.0098129 0.28329
0.024859 0.0063856 -0.0027241 0.00016828
-0.0022359 -0.0031124 -0.0036004 -0.00077484 -0.0017478 0.00075033 0.024844 0.0063679
-0.088346 0.20032 0.019904 0.010048
-0.0044225 7.4831e-05 -0.0036708 -0.00044898 -0.0011063 -0.00048223 -0.0027855 0.00015545
0.019847 0.00999 -0.10047 0.29343
1160000000 0.071763 0.29747 0.025705 -0.020169 0.0035111 -0.00060752 -0.00014696 -0.002476
-0.00416 -0.001061 -0.001215 0.0041022
0.025691 -0.020082 -0.098597 0.372 -0.0033878 -0.029447 -0.0015745 -0.0016164
-0.0026859 0.0025763 -0.0017286 0.0019794
0.0035121 -0.00061749 -0.0035216 -0.029474 0.23986 0.24536 -0.00063327 0.0016979
-0.00040611 0.0018401 -0.00099358 0.00032194
-0.00019969 -0.0024901 -0.0015604 -0.0016012 -0.00062354 0.0017006 0.029021 0.2808
0.021886 -0.010085 -0.0035991 0.005365
-0.0041842 -0.00103 -0.0026845 0.0026277 -0.00039896 0.001826 0.021898 -0.010143
-0.053804 0.211 0.019605 0.00035911
-0.0012291 0.004075 -0.0017061 0.0019479 -0.0010072 0.00032312 -0.0036255 0.0054295
0.019592 0.00040125 -0.053006 0.29699
1220000000 0.11593 0.28924 0.012336 -0.03045 -0.0012173 -0.0014772 -5.8997e-05 -0.00090686
-0.0028316 0.0022772 0.0012523 0.0021519
0.012336 -0.030414 -0.053849 0.387 -0.01695 -0.02161 -0.0025851 0.00054534
0.00010395 0.0031012 -0.0008162 0.0019269
-0.0012099 -0.0014627 -0.017076 -0.021577 0.27976 0.2074 0.0009422 0.0015354
0.00064884 0.0010877 0.00019954 0.00058974
-5.6317e-05 -0.00091244 -0.0025763 0.0005484 0.00092885 0.0015344 0.069147 0.27337
0.010927 -0.016885 0.0022299 0.0017532
-0.0028478 0.0022844 0.00010633 0.0031182 0.00064892 0.0010914 0.0109 -0.016894
-0.031674 0.22291 0.015201 -0.012762
0.0012421 0.0021506 -0.00079756 0.0019167 0.00020997 0.00059027 0.0022175 0.0017226
0.015179 -0.012771 -0.023051 0.31538
1280000000 0.16684 0.26973 -0.0068674 -0.029646 -0.0019571 0.0017776 -0.00093554 -0.0021061
-0.00092318 0.0035523 0.0026849 0.0012486
-0.0068197 -0.02962 -0.0068732 0.37889 -0.024243 -0.0083999 -0.00080246 0.0014575
0.0018099 0.0018013 0.00074174 0.0020662
-0.0019573 0.0017805 -0.024313 -0.0083197 0.31113 0.16378 0.0014767 -0.00014175
0.0010445 0.00039676 0.00042019 0.00042949
-0.00097287 -0.0021021 -0.00081566 0.0014742 0.001487 -0.0001466 0.10588 0.25723
0.0013103 -0.019374 -3.5153e-05 0.00019641
-0.00091228 0.0035335 0.0018174 0.0018101 0.0010502 0.00037054 0.0013117 -0.019384
0.005349 0.22832 0.0039203 -0.015931
0.0026897 0.0012545 0.00077392 0.0020964 0.00035443 0.00043865 -4.6139e-05 0.00022649
0.0039255 -0.015918 0.02534 0.31848
1340000000 0.20432 0.23829 -0.017148 -0.020196 0.00037615 0.0043225 -0.0018597 -0.00075518
0.0014969 0.0028492 0.0018429 -0.0015214
-0.017118 -0.020191 0.032368 0.37215 -0.021419 0.0046262 -0.00012694 0.0019053
0.0019161 0.00084606 0.0012076 0.00077422
0.00039789 0.0043071 -0.021428 0.0047558 0.33376 0.1168 0.00083328 -0.00098299
0.00064896 -0.00067541 1.0521e-05 0.00024959
-0.0018418 -0.00074904 -0.00012354 0.001895 0.00083098 -0.00096734 0.13888 0.23781
-0.0083366 -0.016586 0.0010978 0.00050021
0.0015411 0.0028655 0.0019076 0.00083356 0.00063582 -0.0006646 -0.0083539 -0.016585
0.034904 0.22669 -0.0030977 -0.014288
0.0018489 -0.0015434 0.0012413 0.00075303 1.4506e-05 0.00025555 0.0011165 0.00047252
-0.0030596 -0.014287 0.062925 0.31528
1400000000 0.23959 0.2019 -0.023848 -0.0086075 0.004801 0.0032809 -0.0021816 0.00073955
0.0027031 0.00092475 0.0004099 -0.0013632
-0.023817 -0.0086133 0.071257 0.35995 -0.014446 0.012814 0.0012692 0.0012742
0.0011044 -0.00070626 0.0012152 0.00014632
0.0048234 0.0032618 -0.014411 0.012908 0.34785 0.063367 -7.7441e-05 -0.0014265
0.00010026 -0.00016767 0.00041525 0.00028299
-0.0021817 0.00074948 0.0012813 0.0012675 -8.2455e-05 -0.0014291 0.16926 0.20934
-0.014466 -0.0096295 -0.0007834 -0.00035873
0.0026912 0.00090557 0.0011059 -0.00071755 0.00010038 -0.00017955 -0.014484 -0.0095981
0.069283 0.22499 -0.010061 -0.0091998
0.00040858 -0.0013752 0.0012588 0.00014711 0.00041327 0.00026381 -0.00080407 -0.00036395
-0.010054 -0.0091732 0.10898 0.30591
1460000000 0.26331 0.15861 -0.020971 0.0041769 0.0053213 -0.001615 -0.0015417 0.0017934
0.0022471 -0.00046881 -0.00026518 -0.00092386
-0.020929 0.0041696 0.10552 0.33816 -0.0052303 0.015414 0.0016075 0.00026633
0.00097003 -0.0011885 0.0012696 -0.00051249
0.0053172 -0.0016492 -0.0051551 0.015463 0.35449 0.0087915 -0.0011381 -0.0010822
0.00032961 -0.00026461 0.00070722 -0.0003005
-0.0015131 0.0018034 0.0016 0.00024865 -0.0011414 -0.0010791 0.196 0.18056
-0.015314 -0.0028952 -0.00083557 0.001949
0.0022174 -0.0005111 0.00096041 -0.0012019 0.00034381 -0.00028006 -0.015333 -0.0028757
0.098963 0.21284 -0.01227 -0.0030623
-0.00031578 -0.00091288 0.0012328 -0.00048044 0.00067179 -0.00028964 -0.00082784 0.0019849
-0.012292 -0.0030698 0.14182 0.28632
1520000000 0.27711 0.11823 -0.015493 0.010033 0.003288 -0.0040013 0.0002151 0.0025881
0.0023222 -0.0020381 -0.0011691 -0.00013974
-0.01547 0.0099918 0.13958 0.32503 0.0023652 0.012519 0.0016697 -0.00065274
0.00012927 -0.00093836 0.00034281 -0.00098091
0.0032783 -0.0040223 0.002445 0.012521 0.3478 -0.047081 -0.00078318 -0.00024152
0.00063876 -0.00089067 7.6001e-05 -9.3683e-05
0.00020966 0.0026044 0.0016633 -0.00067765 -0.00077478 -0.00024991 0.22013 0.14297
-0.014634 0.0027237 0.0014343 0.0019877
0.002316 -0.00204 0.00014278 -0.00095134 0.00066455 -0.00089307 -0.014649 0.0027433
0.12786 0.20202 -0.011987 0.001474
-0.0011592 -0.00010138 0.00032623 -0.0010158 9.7368e-05 -0.00014541 0.0014254 0.0019764
-0.011969 0.0014538 0.17573 0.26781
1580000000 0.28772 0.072285 -0.0087267 0.013565 -0.0010083 -0.0048172 0.0015039 0.0018683
-0.00033548 -0.0022768 -0.00020241 0.00039102
-0.0087427 0.013565 0.16754 0.30015 0.0057605 0.0071598 0.0005889 -0.0015633
-0.00043603 -0.0011116 -0.00023495 -0.00077608
-0.0010429 -0.0048135 0.0058169 0.0071396 0.32816 -0.10505 -0.0014176 0.0002393
-0.00043155 -0.00141 0.0002494 -0.00064646
0.00149 0.0018443 0.00058385 -0.0015558 -0.0014165 0.0002448 0.23487 0.10329
-0.010902 0.007641 0.0020846 0.00082831
-0.00036022 -0.0022622 -0.00045989 -0.0010964 -0.00043275 -0.0014054 -0.010889 0.0076694
0.15342 0.18605 -0.0094038 0.0077378
-0.00019564 0.00036721 -0.00021165 -0.00078413 0.00024602 -0.00060739 0.0020668 0.00084347
-0.0094124 0.0077492 0.20898 0.24196
1640000000 0.29081 0.032051 -0.0016926 0.012512 -0.0029559 -0.002398 0.0027644 0.0010993
-0.0007189 -0.0016193 -0.00038079 0.00049325
-0.0017096 0.012508 0.19675 0.27679 0.0057046 0.0021443 -0.0005 -0.0018423
-0.00088863 -0.00052887 -0.00052263 -0.00066883
-0.0029725 -0.0023848 0.0057253 0.0021219 0.29903 -0.15354 -0.00067151 0.0012234
-0.0010808 -0.0010543 -0.00013559 -0.00045598
0.0027939 0.001073 -0.00051071 -0.0018512 -0.00067181 0.0012275 0.2477 0.054802
-0.006624 0.008445 0.0026012 -0.00069684
-0.00075146 -0.0016361 -0.00090204 -0.00054144 -0.001092 -0.0010554 -0.0066454 0.0084824
0.17727 0.16475 -0.0045474 0.0096669
-0.00033203 0.00055295 -0.0005506 -0.0006853 -0.00014647 -0.00043871 0.002609 -0.00070067
-0.0045602 0.0096793 0.23512 0.21244
1700000000 0.28585 -0.012622 0.0018949 0.0096683 -0.0034472 0.00029487 0.0031594 -0.0012747
-0.0021153 -0.00053444 0.00057648 0.00045829
0.0018859 0.0096785 0.21618 0.2457 0.0029275 -0.00058882 -0.0014906 -0.00070559
-0.00084495 -0.0001706 -0.00083286 -0.0003608
-0.0034722 0.00031585 0.002924 -0.00060393 0.25633 -0.19322 3.9321e-05 0.0016266
-0.0022013 -5.2777e-05 -0.00038175 -0.00074302
0.0031499 -0.001275 -0.0014938 -0.00069105 2.2474e-05 0.001629 0.24554 0.0046522
-0.0040901 0.0087741 0.0017173 -0.0020439
-0.0021259 -0.00052168 -0.00083299 -0.00016836 -0.002193 -6.4973e-05 -0.0040808 0.0087835
0.19707 0.1466 0.00047991 0.0099024
0.00055576 0.00045698 -0.00084711 -0.00036235 -0.00039428 -0.00075432 0.0017014 -0.0020421
0.00049269 0.0098877 0.25322 0.17907
1760000000 0.27498 -0.061349 0.0042617 0.0063881 -0.0022048 0.0012815 0.0012982 -0.0035392
-0.0012534 0.00064532 0.00028011 -0.00053425
0.0042679 0.0063903 0.24211 0.20657 0.00013264 -0.0018833 -0.0012573 8.6628e-05
-0.0012035 0.00087365 -0.00054119 0.00034272
-0.0022078 0.0013013 0.0001339 -0.0018828 0.20723 -0.22595 0.0010347 0.001397
-0.0012041 0.0014797 -0.0012466 -0.00067824
0.0012754 -0.0035178 -0.0012511 8.6666e-05 0.0010334 0.0013902 0.23651 -0.047463
-0.0010431 0.0079227 -0.00018961 -0.0025308
-0.0012557 0.00067159 -0.0012035 0.00089876 -0.0011875 0.0014793 -0.001057 0.007914
0.21319 0.11375 0.0044123 0.0070591
0.00025018 -0.00055606 -0.00051403 0.00033703 -0.0011956 -0.00074679 -0.00017925 -0.0025435
0.0044201 0.0070594 0.26682 0.14163
1820000000 0.25256 -0.098704 0.004484 0.0027693 0.00015407 0.0023138 -0.00098153 -0.0031458
-0.0010352 0.00085507 -0.00015526 -0.00014579
0.0044986 0.0027873 0.25366 0.17767 -0.0020352 -7.7775e-05 -0.001477 0.00095713
-0.00017547 0.0013037 -0.0006226 0.00039179
0.00016451 0.0023176 -0.0020307 -5.4911e-05 0.15777 -0.24058 0.001768 0.00063596
-0.00020273 0.0023494 -0.0016225 0.00031023
-0.00098913 -0.0031682 -0.0014723 0.0009694 0.0017598 0.00064759 0.20741 -0.095092
0.00027312 0.006487 -0.0016866 -0.0017569
-0.0010372 0.00086258 -0.00016903 0.0013069 -0.00019502 0.0023674 0.00029574 0.0065108
0.23311 0.08698 0.0055522 0.0033944
-0.00014689 -0.00016258 -0.00061605 0.00040976 -0.0016153 0.00031974 -0.0017158 -0.0017583
0.0055907 0.0033951 0.2709 0.10691
1880000000 0.21879 -0.14045 0.0022541 0.00056901 -0.00031293 0.0023705 -0.0029623 -0.0023447
-0.00023702 0.0016235 0.00034951 -0.00059068
0.0022601 0.00056184 0.25865 0.13102 -0.0038468 0.0027113 -0.00030072 0.0018597
0.00055123 0.0015175 0.00012165 0.00093282
-0.00030369 0.0023736 -0.0038422 0.0027531 0.10637 -0.24924 0.0021267 -0.0010273
0.0016135 0.0020985 -0.00096224 0.0014382
-0.0029444 -0.0023103 -0.00027235 0.0018469 0.0021242 -0.001041 0.16679 -0.13606
0.00092323 0.0046418 -0.0024491 0.00025528
-0.00021826 0.0016598 0.00057714 0.0015009 0.0016016 0.0020943 0.00090756 0.0046541
0.23922 0.056279 0.0055391 0.0010675
0.00033839 -0.0006308 9.7863e-05 0.00093086 -0.0009762 0.0014577 -0.0024548 0.00027563
0.0055321 0.0010754 0.27226 0.072294
1940000000 0.18001 -0.16665 0.00010709 -0.0010849 0.0016254 0.0020634 -0.0038881 0.00022994
0.0010842 0.00086036 -0.00065698 -0.00059243
0.0001055 -0.0010771 0.26014 0.10024 -0.0021136 0.0055326 0.0011422 0.0014437
0.0020931 0.00060492 0.0008199 0.00040008
0.0016651 0.0020546 -0.0020784 0.0055475 0.061573 -0.24178 0.00058113 -0.0024832
0.0023575 0.00039896 6.4148e-05 0.0017028
-0.0038699 0.0002332 0.0011623 0.0014411 0.0005913 -0.0024851 0.1142 -0.1668
1.1684e-05 0.0033513 -0.0015365 0.0014324
0.0010963 0.00086521 0.0021079 0.00058173 0.0023773 0.00040384 1.6481e-05 0.0033731
0.24418 0.019779 0.0041942 -0.0028443
-0.00059503 -0.00056712 0.00084854 0.00037455 7.3218e-05 0.0016918 -0.0015757 0.0014394
0.0041873 -0.0028425 0.26171 0.03686
2000000000 0.13503 -0.18241 -0.0034527 0.00096896 0.0030529 0.0014222 -0.0024965 0.0037786
0.00080427 0.00049484 -0.00078671 0.00043125
-0.0034633 0.00096056 0.24765 0.064854 -0.00067329 0.0078108 0.0016738 0.00030793
0.0013936 -0.0014027 0.00058063 0.00022969
0.0030818 0.0014133 -0.00063212 0.0078383 0.020261 -0.22746 -0.0017003 -0.0015755
0.0020502 -0.001059 0.0016536 0.0015571
-0.00247 0.0037731 0.0016884 0.00030353 -0.0016752 -0.0015808 0.061058 -0.17743
-0.0016104 0.0033492 -0.00010495 0.002214
0.00082257 0.0004906 0.0013706 -0.0014232 0.0020419 -0.0010814 -0.0015957 0.0033577
0.2423 -0.013233 0.0006839 -0.0038729
