!Keysight Technologies,M9804A,MY58100912,A.14.10.03
!Date: Thursday, April 27, 2023 10:28:33
!Correction: S11(C  6-Port  ) 
!S12(C  6-Port  ) 
!S13(C  6-Port  ) 
!S14(C  6-Port  ) 
!S15(C  6-Port  ) 
!S16(C  6-Port  ) 
!S21(C  6-Port  ) 
!S22(C  6-Port  ) 
!S23(C  6-Port  ) 
!S24(C  6-Port  ) 
!S25(C  6-Port  ) 
!S26(C  6-Port  ) 
!S31(C  6-Port  ) 
!S32(C  6-Port  ) 
!S33(C  6-Port  ) 
!S34(C  6-Port  ) 
!S35(C  6-Port  ) 
!S36(C  6-Port  ) 
!S41(C  6-Port  ) 
!S42(C  6-Port  ) 
!S43(C  6-Port  ) 
!S44(C  6-Port  ) 
!S45(C  6-Port  ) 
!S46(C  6-Port  ) 
!S51(C  6-Port  ) 
!S52(C  6-Port  ) 
!S53(C  6-Port  ) 
!S54(C  6-Port  ) 
!S55(C  6-Port  ) 
!S56(C  6-Port  ) 
!S61(C  6-Port  ) 
!S62(C  6-Port  ) 
!S63(C  6-Port  ) 
!S64(C  6-Port  ) 
!S65(C  6-Port  ) 
!S66(C  6-Port  ) 
!S6P File: Measurement: :
# Hz S  RI   R 50
500000000 -0.32893 -0.06657 -0.0099713 -0.0011554 -0.0081597 0.012442 -0.0047284 0.011992
0.013566 0.005998 -0.0055902 0.0084973
-0.010002 -0.0011679 -0.4102 -0.076641 0.0084279 -0.010755 0.00014352 0.01158
0.0093411 0.0034303 -0.00034799 0.013102
-0.0081272 0.012402 0.0084095 -0.010785 -0.2598 0.18881 0.0062395 0.0035992
-0.001529 0.0083692 0.00012825 0.012553
-0.0046734 0.012032 0.00020211 0.011609 0.0062412 0.0036095 -0.32786 0.039071
-0.019629 -0.0052861 0.015128 0.027568
0.013562 0.005891 0.0092762 0.0034075 -0.0015186 0.0083735 -0.019633 -0.0052432
-0.22326 -0.22993 -0.027643 0.0039393
-0.0054711 0.0085589 -0.00021774 0.01319 0.00013442 0.012615 0.01516 0.027336
-0.027594 0.0039874 -0.26488 -0.14409
560000000 -0.31774 0.10197 -0.022566 -0.067637 0.00078809 0.012967 0.0058999 0.010927
0.011449 0.0045068 0.011764 0.010074
-0.022566 -0.0676 -0.37186 0.089455 -0.041717 -0.039351 0.014023 0.0032427
-0.013902 -0.0068185 0.0046002 -0.0015537
0.0008728 0.012901 -0.041832 -0.039357 -0.18345 0.24001 -0.00017942 -0.0053922
0.018573 0.006818 0.0077954 -0.0051461
0.0058568 0.010921 0.013966 0.0032551 -0.00016774 -0.0054021 -0.30593 0.12912
0.0064432 -0.022143 0.006742 -0.021841
0.011392 0.0045851 -0.014004 -0.0069295 0.01861 0.0068074 0.0064277 -0.022204
-0.30238 -0.048688 0.011727 -0.051762
0.011767 0.010041 0.0046711 -0.0015473 0.0077507 -0.0051294 0.0068031 -0.021823
0.011699 -0.051748 -0.33077 0.0069332
620000000 -0.27726 0.080589 -0.02361 0.0088443 0.0033986 0.0093857 0.0084701 -0.0042613
0.01288 -0.0012374 0.0001145 -0.0017293
-0.023638 0.0088255 -0.40074 0.03525 -0.018847 0.00012865 -0.001642 -0.001838
0.012457 -0.0055876 0.00056001 -0.0022747
0.0034364 0.00931 -0.018873 0.00017975 -0.15675 0.24965 -0.0014486 -0.0055276
-0.0036425 -0.0024977 0.0084392 -0.003216
0.0085008 -0.0044293 -0.0016842 -0.001802 -0.0014856 -0.0055027 -0.26477 0.13906
-0.038206 -0.01984 0.011692 0.02909
0.012788 -0.0011184 0.012459 -0.005737 -0.0036184 -0.0024731 -0.03821 -0.019753
-0.21846 -0.084437 -0.042395 0.012573
0.00029623 -0.0019457 0.00050497 -0.0023057 0.0084862 -0.0032164 0.011674 0.029027
-0.042538 0.012566 -0.24791 -0.026815
680000000 -0.24256 0.17342 -0.026254 -0.015279 0.0046101 0.0060439 0.0013821 -0.0074374
-0.0021906 -0.01137 0.0062664 -0.0069353
-0.026239 -0.015189 -0.39098 0.13697 -0.032823 -0.002698 -0.0015639 -0.00051991
-0.0016467 -0.0097055 -0.00082332 -0.0018556
0.0045494 0.0060395 -0.032891 -0.0026109 -0.10855 0.27193 -0.00086125 8.4665e-05
-0.0013322 0.00080852 -0.0027124 -0.0091607
0.0013248 -0.0074517 -0.0016109 -0.00053782 -0.00086073 4.2908e-05 -0.2205 0.19028
-0.022954 -0.0076239 -0.0094945 -0.011628
-0.0022663 -0.011391 -0.0016449 -0.009703 -0.0013397 0.00082866 -0.022999 -0.0076304
-0.28212 0.018055 -0.005566 -0.0080234
0.0060943 -0.0070384 -0.00092881 -0.0019021 -0.0027124 -0.0091535 -0.0094551 -0.011595
-0.0055376 -0.0080287 -0.26258 0.074494
740000000 -0.19665 0.16708 -0.040987 0.02672 0.014021 -0.0037274 0.00018535 -0.0040701
-0.0039722 -0.0022553 -0.00703 0.0027427
-0.040995 0.026673 -0.3368 0.15693 -0.038088 0.034869 0.00048763 -0.0058598
-0.013627 0.0067289 -0.0012256 -0.0057537
0.014 -0.0038385 -0.038036 0.035028 -0.076083 0.27223 -0.0018589 0.0035531
-0.0020166 -0.0050659 -0.0019389 0.00078159
0.00011358 -0.0041233 0.00043008 -0.0058673 -0.0018384 0.0035632 -0.20418 0.19884
-0.043109 -0.0088161 0.022976 0.016042
-0.0041009 -0.002137 -0.013765 0.0066544 -0.002033 -0.0051065 -0.043179 -0.0087278
-0.17994 0.051431 -0.044939 -1.8226e-06
-0.0070307 0.0027175 -0.0013583 -0.0057689 -0.0019258 0.00072647 0.022993 0.015998
-0.044994 1.825e-05 -0.25184 0.078706
800000000 -0.1666 0.21288 -0.022567 0.015861 0.0059956 -0.010472 -0.0042322 -0.0024879
-0.0043332 0.0017258 0.0047523 0.00042595
-0.0226 0.015849 -0.34545 0.22789 -0.0091795 0.034523 -0.0020057 0.0021693
-0.00038217 0.0023032 0.00088196 0.00525
0.0059957 -0.01046 -0.0090742 0.034606 -0.037632 0.29814 0.0011233 0.0012398
4.6077e-05 0.0032897 -0.0018043 0.00055892
-0.0042425 -0.0024004 -0.0019949 0.0021797 0.0011241 0.0012113 -0.17533 0.2265
-0.028975 0.012974 0.015191 -0.010566
-0.0042404 0.0017638 -0.00037408 0.0022839 2.9114e-05 0.0032829 -0.028983 0.013022
-0.2316 0.075547 -0.018925 0.02038
0.0047071 0.00048685 0.00092509 0.0053635 -0.0017728 0.00059732 0.01514 -0.010472
-0.018917 0.020423 -0.24669 0.13174
860000000 -0.13317 0.23374 -0.018461 0.030347 -0.0028867 -0.010366 -0.0018421 0.00063522
0.0041792 0.0053762 -0.0035989 -0.0022606
-0.01848 0.030335 -0.29904 0.27239 0.0071194 0.034888 0.00021888 0.0020938
0.0040501 0.00062804 0.0040305 0.00053177
-0.00294 -0.010359 0.0072375 0.034907 0.010103 0.30846 -0.00047038 -0.00051879
0.0023811 -0.0017022 0.0021546 0.0042971
-0.0018096 0.00064967 0.00023307 0.0021157 -0.0004575 -0.00049222 -0.13911 0.2385
-0.018619 0.017685 -0.0068862 -0.0096663
0.0042678 0.0053915 0.0040664 0.0006383 0.0023879 -0.0017269 -0.018595 0.017737
-0.17701 0.13508 -0.026769 0.016695
-0.0038955 -0.0022203 0.003941 0.00063895 0.0021103 0.0043438 -0.0068719 -0.0099061
-0.026719 0.016626 -0.19739 0.17782
920000000 -0.11045 0.25811 0.0040725 0.039493 -0.0093816 -0.0048641 -0.0019052 0.0017579
0.00019516 0.0015427 0.0030232 -0.0012107
0.0040469 0.039471 -0.27246 0.29516 0.028132 0.023434 0.0013373 0.0013329
0.0073251 -0.00035456 0.0039058 -0.0028196
-0.0094141 -0.0048555 0.028245 0.023378 0.056463 0.31126 0.0017534 -3.1487e-05
0.00060363 -0.00056522 0.0008652 -0.0013397
-0.0018559 0.001745 0.0013646 0.0013207 0.0017454 -2.781e-05 -0.11571 0.25603
-0.012519 0.030743 0.0041554 -0.0069961
0.00023437 0.0014355 0.0073141 -0.00046058 0.00060637 -0.0005575 -0.012479 0.030744
-0.1695 0.13958 -0.003885 0.028049
0.0030338 -0.0013088 0.0039019 -0.0029164 0.00084488 -0.0013491 0.0041923 -0.0069192
-0.0038869 0.027962 -0.20767 0.19241
980000000 -0.064642 0.27927 0.016102 0.031073 -0.0097926 0.0046192 0.0016934 0.0036158
0.0040226 -0.001568 -0.0035383 -0.0025663
0.01604 0.031035 -0.22034 0.33187 0.03351 0.005869 0.0017291 -0.00022039
0.0018019 -0.0060861 -0.00045956 -0.0028832
-0.0097673 0.0046338 0.033569 0.0057482 0.10288 0.30605 0.00040933 -0.0011582
0.00028417 -0.0017729 0.0014608 -0.00034968
0.0017201 0.0036331 0.0017341 -0.00023799 0.00042528 -0.0011582 -0.077498 0.26716
0.0066904 0.030451 -0.0098096 -0.0078027
0.0040212 -0.0016046 0.0018003 -0.0061374 0.00028761 -0.0017785 0.0067458 0.030443
-0.13899 0.1755 0.0049661 0.020798
-0.0035232 -0.0024499 -0.00040958 -0.0028266 0.0014698 -0.00034419 -0.0098747 -0.0078953
0.0049716 0.020804 -0.1664 0.23972
1040000000 -0.023994 0.28933 0.033305 0.020228 -0.0013609 0.0075663 0.0025981 0.00082416
0.00026113 -0.0034278 -7.3589e-05 -0.0016445
0.033241 0.020232 -0.18574 0.34661 0.030441 -0.014328 0.0013688 -0.0016632
-0.0023892 -0.0025621 -0.0013667 -0.0031063
-0.0013348 0.0075688 0.030405 -0.014455 0.14919 0.29425 -0.00052531 -0.001462
-0.0015875 -0.00087059 -0.00066536 -0.0011489
0.0025954 0.00079135 0.0013404 -0.0016946 -0.00052526 -0.0014677 -0.050502 0.27787
0.018858 0.019388 -0.0024706 0.0013183
0.00021125 -0.0034144 -0.002445 -0.0025648 -0.001596 -0.00085025 0.018892 0.019349
-0.10676 0.18435 0.013943 0.019283
-0.00011901 -0.0017123 -0.0013835 -0.0031184 -0.00068126 -0.0011498 -0.0024288 0.0013725
0.013958 0.019301 -0.14576 0.26098
1100000000 0.020955 0.30025 0.03712 -0.0025404 0.003468 0.0043599 0.0024311 -0.00099217
-0.0021503 -0.0031381 -0.0044419 3.9528e-05
0.037075 -0.002493 -0.14196 0.36654 0.016074 -0.02798 -9.7803e-05 -0.0017885
-0.003559 -0.00078176 -0.0037417 -0.00053924
0.0034691 0.0043429 0.015976 -0.028076 0.19631 0.27521 -0.0018031 0.0003439
-0.0017244 0.000748 -0.0011437 -0.00052022
0.0024598 -0.00097493 -9.2924e-05 -0.0018049 -0.0017871 0.00034002 -0.0098196 0.28325
0.024847 0.0063543 -0.0027302 0.00014619
-0.0022141 -0.0031079 -0.0035773 -0.00075487 -0.0017346 0.00075151 0.02484 0.0063313
-0.088384 0.20035 0.019939 0.010113
-0.0043047 3.2677e-05 -0.0036596 -0.00051264 -0.0011142 -0.00052846 -0.0027273 0.00014524
0.019902 0.010117 -0.10003 0.29327
1160000000 0.071812 0.29734 0.02569 -0.020156 0.0034866 -0.00060511 -0.0001577 -0.0025122
-0.0041214 -0.0010745 -0.0012571 0.0040189
0.025674 -0.020118 -0.098615 0.37201 -0.0033656 -0.029456 -0.0015697 -0.0016149
-0.0026927 0.0025747 -0.0017118 0.0019885
0.0034973 -0.00060565 -0.0035123 -0.029481 0.23986 0.24536 -0.00061967 0.0016961
-0.00040979 0.0018483 -0.00096321 0.00029381
-0.00017167 -0.0024976 -0.0015835 -0.0015893 -0.00061903 0.0016944 0.029007 0.28079
0.021935 -0.010082 -0.0036288 0.0053708
-0.0041422 -0.0010373 -0.0026885 0.002614 -0.00041258 0.0018504 0.021918 -0.010116
-0.053882 0.21096 0.019461 0.00048912
-0.0012034 0.00407 -0.0016976 0.0019994 -0.00097862 0.00031551 -0.0035993 0.0054071
0.019472 0.00047549 -0.052845 0.29737
1220000000 0.11591 0.2892 0.012319 -0.030468 -0.0012133 -0.0014701 -3.7439e-05 -0.00089897
-0.0028543 0.00226 0.0012288 0.0021681
0.012354 -0.030421 -0.053855 0.38704 -0.016947 -0.021612 -0.0025687 0.00054945
9.0804e-05 0.0031068 -0.00082905 0.0019295
-0.0012296 -0.0014757 -0.017066 -0.021566 0.27974 0.20741 0.0009335 0.0015307
0.00064195 0.0010881 0.00018477 0.00059419
-2.455e-05 -0.00089258 -0.0025707 0.00055832 0.00093805 0.0015447 0.069135 0.27339
0.010906 -0.016892 0.0022625 0.0017404
-0.0028469 0.0022852 0.00012537 0.0031186 0.00064535 0.001086 0.010888 -0.01691
-0.031692 0.2229 0.015146 -0.012816
0.0012391 0.0021634 -0.00081356 0.0019316 0.00019456 0.00059165 0.0022564 0.0017406
0.01514 -0.012794 -0.022983 0.31537
1280000000 0.16675 0.2697 -0.0068553 -0.02965 -0.0019675 0.0017724 -0.0009535 -0.0020983
-0.00091125 0.0035644 0.0026828 0.0012485
-0.0068652 -0.029618 -0.0068483 0.37883 -0.024235 -0.0084123 -0.00081788 0.001474
0.0017885 0.0017864 0.00077654 0.0020661
-0.0019327 0.0017813 -0.024314 -0.008306 0.31114 0.16376 0.0014917 -0.00015011
0.0010455 0.00038898 0.00040031 0.00046148
-0.00099505 -0.0021152 -0.00081005 0.001477 0.0014836 -0.00016092 0.10583 0.25726
0.0013302 -0.019326 -3.5885e-05 0.00022888
-0.00091943 0.0035384 0.0017992 0.0017744 0.0010457 0.00038513 0.0012928 -0.019354
0.0052994 0.22841 0.003934 -0.015958
0.0026658 0.0013011 0.00077953 0.0020808 0.00038499 0.00045431 -5.6361e-05 0.00023534
0.0039296 -0.015947 0.025021 0.31845
1340000000 0.20429 0.23825 -0.017156 -0.020182 0.00039084 0.0043238 -0.0018436 -0.00074945
0.0015291 0.0028498 0.0018147 -0.0015131
-0.017148 -0.020186 0.032394 0.37215 -0.021423 0.0046327 -0.00013346 0.0018989
0.001941 0.00084948 0.001208 0.00074607
0.0003954 0.0043323 -0.021433 0.004739 0.33374 0.1168 0.0008148 -0.00097744
0.00062647 -0.0006581 2.9016e-05 0.00024878
-0.0017974 -0.00075634 -0.00012079 0.0018974 0.00083344 -0.00096318 0.13886 0.2378
-0.0083294 -0.016578 0.0011231 0.00042997
0.0015932 0.0028566 0.0019465 0.00084339 0.00062972 -0.00066597 -0.0083746 -0.016566
0.03497 0.2267 -0.0029854 -0.014382
0.0018026 -0.0015554 0.0012183 0.00075951 2.6929e-05 0.00023862 0.0011382 0.0004366
-0.002985 -0.014365 0.062911 0.31523
1400000000 0.23953 0.20194 -0.02386 -0.0086012 0.0048053 0.003277 -0.0021761 0.00074014
0.0027159 0.0009118 0.0004005 -0.0013349
-0.02382 -0.0086052 0.07128 0.35994 -0.014436 0.012804 0.0012669 0.0012797
0.0011157 -0.00070093 0.001209 0.00015384
0.0048351 0.0032577 -0.014408 0.012899 0.34784 0.063354 -7.92e-05 -0.0014301
0.00011062 -0.00017836 0.00041792 0.00028957
-0.0021845 0.0007583 0.0012744 0.0012734 -8.9762e-05 -0.001425 0.16923 0.20936
-0.014458 -0.0096163 -0.00077236 -0.00037116
0.002701 0.00091155 0.0010984 -0.00069505 0.00010802 -0.00017557 -0.014491 -0.0095855
0.069268 0.22503 -0.010059 -0.0091306
0.00038835 -0.0013609 0.0012135 0.00012611 0.00041405 0.00029595 -0.00076954 -0.00035054
-0.01006 -0.0091361 0.109 0.30588
1460000000 0.26331 0.15873 -0.020942 0.0041928 0.0053334 -0.0016126 -0.0015321 0.0017911
0.0022363 -0.00046869 -0.00024146 -0.00094068
-0.020961 0.0041519 0.10548 0.33813 -0.0052308 0.015433 0.0015909 0.00025455
0.00097474 -0.0011983 0.001243 -0.00051019
0.005316 -0.0016343 -0.0051542 0.015462 0.35449 0.0088106 -0.0011408 -0.001063
0.00032599 -0.00026221 0.00070175 -0.00028711
-0.00151 0.001789 0.0015973 0.00027285 -0.0011417 -0.0010664 0.19598 0.1806
-0.015312 -0.0029086 -0.00078782 0.0019823
0.0022356 -0.000479 0.0009531 -0.001206 0.00032221 -0.00026121 -0.01532 -0.0028903
0.098996 0.21288 -0.012195 -0.0030227
-0.00021898 -0.00094749 0.0012776 -0.00052156 0.00070876 -0.00030592 -0.00081941 0.0019894
-0.012196 -0.0030413 0.14188 0.2863
1520000000 0.27715 0.11833 -0.01546 0.010035 0.0033179 -0.0040096 0.00020907 0.0026019
0.0023374 -0.0020164 -0.0011554 -8.6503e-05
-0.015448 0.010016 0.13961 0.32507 0.0023699 0.012526 0.0016739 -0.00065951
0.00012684 -0.00093178 0.0003347 -0.00098225
0.0032876 -0.0040098 0.0024395 0.012527 0.34778 -0.047059 -0.00078709 -0.00024056
0.00065928 -0.00089018 6.036e-05 -9.7071e-05
0.00017924 0.002615 0.001673 -0.00066802 -0.00077489 -0.00023641 0.22012 0.14299
-0.014645 0.0027224 0.0013843 0.001981
0.002291 -0.0020372 0.00013539 -0.00094187 0.00065422 -0.00089592 -0.01464 0.002763
0.12789 0.20203 -0.012021 0.0014792
-0.0011589 -8.1247e-05 0.00030542 -0.00099175 5.2637e-05 -0.00010074 0.0013997 0.0019657
-0.012032 0.0014844 0.17572 0.26777
1580000000 0.28779 0.072346 -0.00872 0.013591 -0.0010269 -0.0048327 0.0014904 0.0018574
-0.00034968 -0.0022634 -0.00019616 0.00040132
-0.0087268 0.013588 0.16752 0.30013 0.0057629 0.0071505 0.00057995 -0.0015503
-0.00045281 -0.001104 -0.00023782 -0.00077669
-0.0010514 -0.0048169 0.0058026 0.0071299 0.3282 -0.10505 -0.0014216 0.00026831
-0.00043663 -0.0013822 0.00027935 -0.00064787
0.0015197 0.0018309 0.00056743 -0.001557 -0.0014161 0.00024888 0.23487 0.10328
-0.010877 0.0076233 0.0021392 0.00083793
-0.00034396 -0.0022836 -0.00045918 -0.0011072 -0.00044127 -0.0013778 -0.010877 0.0076522
0.15351 0.18609 -0.0093624 0.0076433
-0.00018869 0.00041717 -0.00022815 -0.00078414 0.00028238 -0.00066591 0.0021157 0.00084156
-0.0093654 0.0076451 0.20889 0.242
1640000000 0.29096 0.032052 -0.0016832 0.012505 -0.0029575 -0.0024035 0.0027825 0.0010915
-0.00073097 -0.0016324 -0.00037678 0.00050849
-0.0016983 0.012488 0.19678 0.27677 0.0057145 0.0021508 -0.00050236 -0.0018641
-0.00089942 -0.00053866 -0.00053151 -0.00067757
-0.0029746 -0.0023931 0.0057309 0.0021256 0.29907 -0.15353 -0.00068887 0.0012011
-0.001092 -0.0010478 -0.00011792 -0.00049492
0.002784 0.0010923 -0.00051939 -0.0018646 -0.00068256 0.0012136 0.24768 0.05481
-0.0066491 0.0084528 0.0026059 -0.00068817
-0.00073928 -0.0016258 -0.00090779 -0.00053754 -0.0010948 -0.00105 -0.0066309 0.0084792
0.1773 0.16478 -0.0045458 0.0096842
-0.00041642 0.00052898 -0.00053549 -0.00066099 -0.00012243 -0.00047173 0.0025951 -0.00068982
-0.0045567 0.00969 0.23505 0.21243
1700000000 0.28593 -0.012697 0.0018922 0.0096651 -0.0034567 0.00027282 0.0031625 -0.0012474
-0.0021403 -0.00052025 0.00059079 0.00044127
0.0018825 0.0096426 0.21617 0.24566 0.002937 -0.00059519 -0.0014904 -0.0007026
-0.00084018 -0.00016802 -0.00082626 -0.00036351
-0.0034467 0.00029487 0.0029287 -0.00061773 0.25632 -0.19322 3.7213e-05 0.0016362
-0.0022177 -3.8163e-05 -0.00038505 -0.00073011
0.0031695 -0.0012771 -0.0014895 -0.00068671 4.614e-05 0.0016243 0.24553 0.0046427
-0.0040762 0.0087617 0.001712 -0.0020381
-0.0021399 -0.00051812 -0.00084511 -0.00015264 -0.0022046 -3.833e-05 -0.0040537 0.008767
0.19707 0.14664 0.00045207 0.0098773
0.00059935 0.00046225 -0.00083175 -0.00037274 -0.00039022 -0.00073772 0.0017214 -0.0020516
0.00046019 0.0098807 0.25322 0.17907
1760000000 0.27505 -0.061451 0.0042651 0.0063888 -0.0022016 0.0013091 0.0012921 -0.0035293
-0.0012599 0.00066703 0.00026458 -0.00054875
0.0042625 0.0063897 0.24209 0.20653 0.00014072 -0.0018808 -0.0012617 7.0948e-05
-0.0012064 0.00086648 -0.0005459 0.0003331
-0.0021949 0.0013266 0.00012585 -0.0018907 0.20723 -0.22595 0.0010497 0.0013815
-0.0011783 0.00147 -0.0012108 -0.00072506
0.001267 -0.0035268 -0.0012729 8.5971e-05 0.0010558 0.0013918 0.2365 -0.047448
-0.0010743 0.0079071 -0.00020333 -0.0025781
-0.0012612 0.00066807 -0.0011999 0.00088047 -0.0011833 0.0014798 -0.0010783 0.0079113
0.21322 0.11373 0.0043966 0.007009
0.00026584 -0.00053693 -0.00052002 0.00034915 -0.0012249 -0.00070845 -0.00019633 -0.0025517
0.004381 0.0070292 0.26678 0.14169
1820000000 0.25253 -0.098838 0.0044758 0.0027832 0.00013644 0.0023065 -0.00097823 -0.0031478
-0.0010638 0.00087027 -0.00014813 -0.0001181
0.0044717 0.0027766 0.25366 0.17765 -0.0020357 -8.8233e-05 -0.0014824 0.00095618
-0.0001936 0.0012893 -0.00064791 0.00041082
0.00017741 0.0023163 -0.0020425 -5.4591e-05 0.15773 -0.24059 0.0017644 0.00065711
-0.00022057 0.0023493 -0.0016215 0.00040314
-0.0009736 -0.003154 -0.00147 0.00095536 0.00177 0.0006638 0.20741 -0.095073
0.00029328 0.0064904 -0.0017071 -0.0017442
-0.0010351 0.00087812 -0.00016319 0.0013058 -0.00020196 0.0023484 0.00030949 0.006501
0.23316 0.087027 0.005539 0.0034013
-0.00016746 -0.00012868 -0.00065577 0.0003838 -0.001626 0.00035217 -0.0016928 -0.0017392
0.005547 0.0033944 0.27084 0.10694
1880000000 0.21869 -0.14053 0.0022362 0.00058403 -0.00031734 0.0023741 -0.0029327 -0.0023552
-0.00022841 0.0016277 0.00037741 -0.00059008
0.0022335 0.00059448 0.25862 0.13099 -0.0038615 0.0026996 -0.00029415 0.0018352
0.00055301 0.001501 0.00011154 0.0009337
-0.00030464 0.0023781 -0.0038505 0.0027389 0.10634 -0.24929 0.0021103 -0.0010198
0.0016087 0.0021036 -0.00099621 0.0014523
-0.0029455 -0.0023341 -0.00027977 0.0018456 0.0021095 -0.0010208 0.16681 -0.13605
0.00090898 0.0046574 -0.0024493 0.00025486
-0.0002196 0.0016416 0.00056902 0.0015036 0.0015961 0.0020926 0.0009138 0.0046329
0.23921 0.056295 0.0055672 0.0010648
0.00034699 -0.0005901 0.00012852 0.00092488 -0.00098308 0.0014494 -0.0024918 0.00024174
0.0055335 0.0010552 0.27215 0.07223
1940000000 0.17985 -0.16682 0.00011967 -0.0011206 0.0016264 0.0020521 -0.0038867 0.00025947
0.0010537 0.00084517 -0.0006341 -0.00056834
9.9441e-05 -0.0011166 0.26015 0.10021 -0.0021066 0.0055347 0.001143 0.0014414
0.0020753 0.00058723 0.00081761 0.00039843
0.0016403 0.0020533 -0.0020596 0.0055443 0.061568 -0.24179 0.00059638 -0.0025054
0.0023569 0.00037668 3.9477e-05 0.0017067
-0.0038894 0.00029724 0.0011654 0.0014534 0.00059167 -0.0025063 0.11426 -0.16672
1.0955e-05 0.0034128 -0.0016126 0.0014952
0.0010491 0.00084586 0.0021004 0.00058101 0.0023644 0.00036867 4.6806e-05 0.0034268
0.2442 0.019792 0.0041084 -0.0028221
-0.00067001 -0.00060795 0.00079307 0.0003753 2.5045e-05 0.001701 -0.0015797 0.0014614
0.0041322 -0.0028168 0.2618 0.036869
2000000000 0.13485 -0.18241 -0.0034536 0.00096352 0.0030714 0.0014297 -0.0024922 0.0037464
0.00084263 0.00049473 -0.0007883 0.00040524
-0.0034589 0.0009723 0.2477 0.064827 -0.00067622 0.0078064 0.0017085 0.00029993
0.0014075 -0.0013857 0.00061713 0.00021315
0.0030864 0.0014155 -0.00064513 0.0078197 0.020284 -0.22749 -0.0016882 -0.0016102
0.002042 -0.0010905 0.0016611 0.0014618
-0.0024823 0.003737 0.0016722 0.00030987 -0.0016566 -0.0016175 0.061012 -0.17751
-0.0015994 0.0033132 -9.801e-08 0.0020707
0.00082932 0.00048414 0.0013635 -0.0014172 0.002041 -0.0010947 -0.0016125 0.0032926
0.24232 -0.013203 0.00078697 -0.0039169
