!Keysight Technologies,M9804A,MY58100912,A.14.10.03
!Date: Thursday, April 27, 2023 10:28:33
!Correction: S11(C  6-Port  ) 
!S12(C  6-Port  ) 
!S13(C  6-Port  ) 
!S14(C  6-Port  ) 
!S15(C  6-Port  ) 
!S16(C  6-Port  ) 
!S21(C  6-Port  ) 
!S22(C  6-Port  ) 
!S23(C  6-Port  ) 
!S24(C  6-Port  ) 
!S25(C  6-Port  ) 
!S26(C  6-Port  ) 
!S31(C  6-Port  ) 
!S32(C  6-Port  ) 
!S33(C  6-Port  ) 
!S34(C  6-Port  ) 
!S35(C  6-Port  ) 
!S36(C  6-Port  ) 
!S41(C  6-Port  ) 
!S42(C  6-Port  ) 
!S43(C  6-Port  ) 
!S44(C  6-Port  ) 
!S45(C  6-Port  ) 
!S46(C  6-Port  ) 
!S51(C  6-Port  ) 
!S52(C  6-Port  ) 
!S53(C  6-Port  ) 
!S54(C  6-Port  ) 
!S55(C  6-Port  ) 
!S56(C  6-Port  ) 
!S61(C  6-Port  ) 
!S62(C  6-Port  ) 
!S63(C  6-Port  ) 
!S64(C  6-Port  ) 
!S65(C  6-Port  ) 
!S66(C  6-Port  ) 
!S6P File: Measurement: :
# Hz S  RI   R 50
500000000 -0.32896 -0.066945 -0.010327 -0.0015363 -0.0081984 0.012544 -0.004967 0.012222
0.013206 0.0048044 -0.0052084 0.0087603
-0.0097416 -0.0012282 -0.41005 -0.076139 0.0085821 -0.010817 0.00031318 0.01281
0.0085561 0.0030466 0.0005682 0.013472
-0.0081428 0.012602 0.0085843 -0.01079 -0.25976 0.18851 0.006398 0.0039819
-0.0020347 0.0082219 0.00042692 0.012746
-0.0042862 0.012383 0.00042096 0.0122 0.0064374 0.0038136 -0.32763 0.038714
-0.020154 -0.004411 0.015599 0.026363
0.013305 0.0052929 0.0092074 0.00326 -0.0020373 0.0077684 -0.019561 -0.0046569
-0.22176 -0.23049 -0.028322 0.0050046
-0.0050807 0.0091213 8.8855e-05 0.014325 0.0004398 0.012573 0.016414 0.027448
-0.028665 0.005147 -0.26496 -0.1454
560000000 -0.31795 0.10249 -0.022722 -0.067713 0.00078929 0.013581 0.004969 0.010756
0.011488 0.0041974 0.01094 0.0097588
-0.022955 -0.067631 -0.37207 0.089324 -0.040876 -0.039412 0.013848 0.0031693
-0.012672 -0.0070767 0.0051559 -0.00079035
0.0010169 0.012895 -0.041762 -0.039207 -0.18429 0.24032 -0.00033476 -0.0056455
0.018194 0.0070682 0.0081518 -0.0054248
0.005288 0.011259 0.014358 0.0029236 -0.00014435 -0.0055633 -0.30573 0.12944
0.005428 -0.022755 0.0061916 -0.02183
0.011121 0.0044144 -0.013205 -0.0063112 0.01811 0.0066573 0.005509 -0.022338
-0.30639 -0.044924 0.011057 -0.053341
0.011171 0.010153 0.0046313 -0.00096716 0.00815 -0.0053754 0.0058768 -0.021497
0.011673 -0.053193 -0.33029 0.0068191
620000000 -0.27703 0.079856 -0.023596 0.00878 0.0035687 0.0093596 0.0079463 -0.0040084
0.013272 -0.0013996 0.00069854 -0.0010965
-0.023355 0.0090195 -0.40082 0.03516 -0.018809 0.00016504 -0.0018688 -0.0020696
0.01279 -0.0052959 0.00071511 -0.0028373
0.0036003 0.0089908 -0.018848 0.00019325 -0.15661 0.24954 -0.0015238 -0.0053408
-0.0036135 -0.0024422 0.0084609 -0.0035312
0.0088348 -0.0041494 -0.001867 -0.0020659 -0.001126 -0.0054691 -0.2641 0.13987
-0.038346 -0.021006 0.011335 0.029148
0.012228 -0.00081647 0.012755 -0.0052793 -0.0038756 -0.0026418 -0.038124 -0.021292
-0.21839 -0.083673 -0.04127 0.011447
0.0010865 -0.00048663 0.00037712 -0.0027889 0.0092693 -0.0031415 0.011152 0.029542
-0.041027 0.011446 -0.24781 -0.029677
680000000 -0.2429 0.17331 -0.026326 -0.015536 0.0048783 0.0056759 0.0013831 -0.0073434
-0.0026715 -0.011548 0.0054133 -0.0072935
-0.026226 -0.015482 -0.39103 0.13681 -0.032856 -0.0026305 -0.001738 -0.00055891
-0.0017011 -0.0099486 -0.00084188 -0.0020676
0.004782 0.0058361 -0.032993 -0.0025236 -0.10861 0.27199 -0.00095421 -0.00018708
-0.001418 0.00046842 -0.0027961 -0.0091965
0.0012748 -0.0073683 -0.0016188 -0.00075181 -0.00091106 -0.00018696 -0.22016 0.19061
-0.023098 -0.0077575 -0.0092776 -0.011433
-0.0019787 -0.011643 -0.0016045 -0.009692 -0.0014827 0.00067422 -0.022887 -0.0079919
-0.28153 0.01813 -0.0059382 -0.0070911
0.005643 -0.0069084 -0.00088588 -0.0019328 -0.0027078 -0.009442 -0.009025 -0.011569
-0.0060164 -0.0071621 -0.26203 0.075095
740000000 -0.19663 0.16709 -0.041179 0.026884 0.013946 -0.0036075 0.00022254 -0.0041867
-0.0041814 -0.0024249 -0.0065595 0.0023682
-0.041207 0.026796 -0.33663 0.15621 -0.037989 0.034562 0.00035228 -0.0056992
-0.013366 0.0065123 -0.0012692 -0.0057263
0.013817 -0.0037428 -0.037676 0.034901 -0.075853 0.2721 -0.0019398 0.0033536
-0.0016761 -0.0048741 -0.0021695 0.0004146
-1.9622e-05 -0.0040907 0.0003886 -0.0061073 -0.0019978 0.0033936 -0.20447 0.19867
-0.0429 -0.0090225 0.022712 0.016213
-0.0041041 -0.0012638 -0.013185 0.0068696 -0.0017982 -0.0050594 -0.042919 -0.0092164
-0.1794 0.051813 -0.044981 0.00092363
-0.0068963 0.0028197 -0.0012857 -0.0064262 -0.0017869 0.00076015 0.023006 0.016068
-0.045207 0.00076412 -0.25181 0.079648
800000000 -0.16693 0.21242 -0.022803 0.015594 0.0058046 -0.010327 -0.0047305 -0.0024123
-0.0045771 0.0016601 0.0042096 0.00068652
-0.022748 0.015532 -0.34551 0.22769 -0.0093046 0.03455 -0.0022775 0.0020774
-0.00050105 0.0022753 0.00064315 0.0056399
0.0058997 -0.010595 -0.009123 0.034563 -0.037638 0.29826 0.0010062 0.0012321
-0.00010802 0.0033272 -0.0019225 0.0008361
-0.0042851 -0.0024415 -0.0021834 0.002101 0.00088877 0.0012279 -0.17515 0.22671
-0.029303 0.013001 0.014637 -0.01008
-0.0045054 0.0015859 -0.00031205 0.0021311 4.0597e-05 0.0033066 -0.029456 0.012912
-0.23167 0.075896 -0.01882 0.020223
0.0045225 0.00029164 0.00058153 0.0051517 -0.0020658 0.00079946 0.014574 -0.010335
-0.018713 0.020274 -0.2491 0.13199
860000000 -0.13334 0.2338 -0.018585 0.030423 -0.0029315 -0.010394 -0.0018703 0.00060533
0.0041991 0.0052816 -0.0038677 -0.0027809
-0.018544 0.030384 -0.29896 0.2722 0.0070311 0.034901 0.00016034 0.0019634
0.0040138 0.00060134 0.003718 0.00014677
-0.0029864 -0.010383 0.0072298 0.034921 0.01016 0.30852 -0.00054018 -0.000392
0.0025575 -0.0017162 0.0019767 0.004301
-0.0020111 0.00066233 4.0602e-05 0.0019128 -0.00050017 -0.00040113 -0.13958 0.23811
-0.018673 0.01745 -0.0066799 -0.0095504
0.0042189 0.0055248 0.004125 0.00033986 0.0025429 -0.0018365 -0.018365 0.017482
-0.17713 0.13441 -0.025615 0.016703
-0.0034104 -0.0027038 0.0038884 0.00060531 0.0019893 0.00416 -0.0061405 -0.0096064
-0.026039 0.016922 -0.19823 0.17567
920000000 -0.11047 0.25799 0.0040857 0.039595 -0.0094026 -0.0048612 -0.0020207 0.0018678
0.00040099 0.0017111 0.0030406 -0.0013355
0.0041279 0.039509 -0.27233 0.29504 0.028122 0.023466 0.001254 0.0011538
0.0074831 -8.5267e-05 0.0042923 -0.0030851
-0.0094885 -0.0048631 0.028216 0.023382 0.056517 0.31131 0.0016937 -9.7678e-05
0.00055537 -0.00047394 0.0010198 -0.0013864
-0.0020073 0.0016908 0.0012965 0.0011095 0.0017059 -2.2413e-05 -0.1157 0.25577
-0.012367 0.031014 0.0039031 -0.006867
0.00023902 0.0018605 0.0074878 -4.6383e-05 0.0006509 -0.00048464 -0.012356 0.03114
-0.16926 0.14038 -0.0033967 0.028348
0.0029306 -0.0014528 0.0041039 -0.0029857 0.00092854 -0.0014269 0.0040465 -0.006979
-0.003259 0.028121 -0.2079 0.19266
980000000 -0.064789 0.27935 0.016039 0.030971 -0.0097994 0.004647 0.0017741 0.0036294
0.0040787 -0.0014549 -0.00372 -0.002661
0.016068 0.030958 -0.22041 0.33177 0.033519 0.0058823 0.001844 -0.00029638
0.001843 -0.0061197 -0.00050454 -0.00259
-0.0097267 0.0046415 0.033588 0.0057253 0.10291 0.30611 0.00047737 -0.0011504
0.00032544 -0.0017445 0.0014895 -0.00041811
0.001726 0.0035941 0.0018844 -0.00028741 0.00043838 -0.0011605 -0.077438 0.26728
0.0068637 0.030574 -0.0094065 -0.0081942
0.0039481 -0.0015088 0.001678 -0.0060342 0.00034273 -0.0017332 0.006741 0.03066
-0.13916 0.17527 0.0048132 0.021152
-0.0035517 -0.0026766 -0.00050312 -0.0026029 0.0015173 -0.00040589 -0.009376 -0.0080889
0.004832 0.021151 -0.16582 0.23927
1040000000 -0.024049 0.28946 0.033238 0.020189 -0.0012882 0.0075869 0.0025481 0.00088898
0.00019757 -0.0035951 -0.00012389 -0.0016602
0.033162 0.020183 -0.18578 0.34661 0.030445 -0.014313 0.0014357 -0.001709
-0.0023361 -0.0026303 -0.0013747 -0.003093
-0.001309 0.0076168 0.030392 -0.014421 0.14926 0.29426 -0.0005708 -0.0014435
-0.0015564 -0.00094341 -0.00070909 -0.0012067
0.0024093 0.00080019 0.0013963 -0.0017719 -0.00052618 -0.0014532 -0.050333 0.27797
0.018943 0.01968 -0.0024277 0.001402
0.00035083 -0.0034235 -0.0023034 -0.0025828 -0.0016268 -0.00096785 0.018894 0.019594
-0.10687 0.18409 0.013611 0.01929
7.8409e-06 -0.0014456 -0.0012364 -0.0030039 -0.00068031 -0.0011379 -0.0024912 0.0013595
0.013666 0.019392 -0.14575 0.26116
1100000000 0.021043 0.30022 0.037106 -0.0025816 0.0034703 0.0043329 0.0023187 -0.0010486
-0.0022041 -0.0032013 -0.0042662 8.9913e-05
0.037098 -0.002562 -0.14196 0.36651 0.016078 -0.027968 -8.2702e-05 -0.0018032
-0.0035709 -0.0008672 -0.0036417 -0.0004083
0.0034846 0.0043193 0.015966 -0.028079 0.19635 0.27522 -0.0017869 0.00030591
-0.0017287 0.00076842 -0.001198 -0.0005174
0.0024035 -0.0011075 -9.7e-05 -0.00188 -0.0018187 0.00030165 -0.0098944 0.28318
0.024955 0.0062172 -0.0027685 0.00010114
-0.0022722 -0.0030632 -0.0036435 -0.00072204 -0.0017011 0.00073375 0.024978 0.0060189
-0.087914 0.19989 0.020096 0.010059
-0.0043228 -4.7581e-05 -0.0037214 -0.00039455 -0.001198 -0.00048275 -0.002831 3.3577e-05
0.019938 0.010074 -0.10059 0.29325
1160000000 0.071801 0.29738 0.025631 -0.02014 0.0034557 -0.00059649 -0.00017541 -0.0024388
-0.0041849 -0.0010472 -0.0012407 0.0042612
0.025614 -0.020093 -0.098591 0.37195 -0.0034042 -0.029414 -0.0015708 -0.0016539
-0.0026701 0.0025616 -0.0017142 0.002047
0.0035025 -0.00058722 -0.0034953 -0.029524 0.23991 0.24541 -0.00061973 0.0017052
-0.00043423 0.0018442 -0.00099578 0.00036101
-0.00019232 -0.002469 -0.0016277 -0.0014681 -0.00063842 0.0016731 0.028955 0.28079
0.021931 -0.010264 -0.0036716 0.005186
-0.004208 -0.0010951 -0.0027019 0.0025242 -0.00040033 0.001865 0.021876 -0.010242
-0.05367 0.21076 0.019857 0.00057355
-0.0012068 0.0044227 -0.0016321 0.0019656 -0.00097209 0.00031989 -0.0037148 0.0051684
0.0199 0.00065731 -0.052588 0.29722
1220000000 0.1159 0.28929 0.012386 -0.030427 -0.0011997 -0.0015025 -4.9408e-05 -0.00096121
-0.0028878 0.0022967 0.0011706 0.0021781
0.012392 -0.030398 -0.053856 0.38704 -0.016931 -0.021636 -0.0025212 0.00055706
2.5539e-05 0.0031592 -0.00078918 0.0019714
-0.0012231 -0.0014776 -0.017057 -0.021553 0.2798 0.20737 0.00097416 0.0015263
0.0006241 0.0011001 0.00023088 0.00063957
-3.5173e-05 -0.00098604 -0.0025729 0.0005474 0.00095722 0.0015298 0.069125 0.27333
0.010863 -0.017153 0.0021773 0.0018423
-0.002865 0.002381 5.6715e-05 0.0031459 0.00062272 0.0011243 0.010889 -0.017233
-0.031573 0.22257 0.015183 -0.012886
0.0011163 0.0021947 -0.00075159 0.0019912 0.00021999 0.00062769 0.0022666 0.0018308
0.015132 -0.012912 -0.022872 0.31543
1280000000 0.16676 0.2697 -0.0068912 -0.029715 -0.0019923 0.001767 -0.00090174 -0.0020821
-0.00090105 0.0034849 0.0025424 0.0012922
-0.0068503 -0.029672 -0.0069244 0.3788 -0.024196 -0.0083931 -0.00084568 0.0014661
0.0018414 0.0018015 0.00070419 0.0020676
-0.0019895 0.0017612 -0.024287 -0.0082994 0.31117 0.16378 0.0015135 -0.00017597
0.0010448 0.00040242 0.0004009 0.00043027
-0.00092984 -0.0019976 -0.00076446 0.0014862 0.0014607 -0.00018899 0.10586 0.25721
0.0013045 -0.019523 -0.00019414 6.8899e-05
-0.00088098 0.003463 0.0018223 0.0017908 0.0010682 0.00040006 0.0012719 -0.019462
0.0052438 0.22793 0.0040397 -0.015926
0.0026976 0.0013431 0.00071793 0.0020516 0.00050264 0.00046287 -0.00024926 9.9388e-05
0.0040215 -0.01591 0.025706 0.31855
1340000000 0.20433 0.23834 -0.017119 -0.020257 0.00035718 0.0042979 -0.0018117 -0.00072522
0.0015656 0.0028854 0.0018793 -0.0015988
-0.017083 -0.020208 0.032359 0.37213 -0.021409 0.0046318 -0.00011735 0.001905
0.0019687 0.00079771 0.0012416 0.00074
0.00038134 0.0042748 -0.02143 0.0047624 0.33381 0.11673 0.000854 -0.0009624
0.00062017 -0.00059605 3.2333e-05 0.00018432
-0.00185 -0.00075597 -9.5714e-05 0.0019709 0.00086593 -0.0009698 0.13888 0.23782
-0.008464 -0.016637 0.0010792 0.00060017
0.0015918 0.0028998 0.0020232 0.00081338 0.00058866 -0.00058008 -0.0084551 -0.016625
0.034796 0.22618 -0.0031456 -0.014285
0.0019562 -0.0015548 0.0013121 0.00079485 6.8495e-05 0.00020104 0.001099 0.00057495
-0.0031536 -0.01433 0.063245 0.31517
1400000000 0.23958 0.20191 -0.023852 -0.0086247 0.0048342 0.0032811 -0.0022393 0.00069906
0.0026693 0.00094967 0.0004058 -0.0014349
-0.023825 -0.0086404 0.071261 0.35998 -0.014458 0.012778 0.0012568 0.0013277
0.001174 -0.00071264 0.0012078 0.00021945
0.0048505 0.0032368 -0.014422 0.01287 0.34781 0.063328 -9.3924e-05 -0.001431
0.00014306 -0.00019599 0.0004727 0.00029661
-0.0021797 0.00073368 0.0012944 0.0012669 -0.00010477 -0.0014442 0.16922 0.20937
-0.014636 -0.0096916 -0.00084997 -0.00027636
0.0026808 0.0009202 0.0011497 -0.00072277 0.00013665 -0.0001415 -0.014655 -0.0096392
0.068885 0.22467 -0.010136 -0.0094603
0.0003947 -0.0014175 0.0011599 0.00018527 0.00050494 0.00021446 -0.00086542 -0.00028776
-0.010127 -0.0094576 0.10868 0.30614
1460000000 0.26317 0.15864 -0.02094 0.0040916 0.0053631 -0.0016458 -0.0015372 0.0017651
0.0022688 -0.00053201 -0.00021949 -0.00093312
-0.020943 0.0040852 0.10545 0.33819 -0.0052175 0.015434 0.0015848 0.0002301
0.00097444 -0.0012239 0.0012131 -0.00052205
0.0053673 -0.001625 -0.0051142 0.015442 0.35449 0.00877 -0.0011025 -0.0010816
0.00026412 -0.00025935 0.0007426 -0.00031297
-0.0015714 0.0017805 0.0016114 0.00022808 -0.0010974 -0.001056 0.19598 0.18056
-0.015462 -0.0028026 -0.00092107 0.0020084
0.0022777 -0.00049161 0.0009474 -0.0012498 0.00028267 -0.0002728 -0.015437 -0.0027939
0.098377 0.21271 -0.012203 -0.0031457
-0.00026567 -0.00095774 0.0011625 -0.00059486 0.00069349 -0.00026182 -0.00089639 0.0020355
-0.012249 -0.003141 0.14186 0.28593
1520000000 0.27713 0.11818 -0.015494 0.010007 0.0033058 -0.0040013 0.00022249 0.0026271
0.0023642 -0.0020807 -0.0011374 -7.3335e-05
-0.015503 0.0099728 0.13961 0.32507 0.0023567 0.012498 0.0016922 -0.00063757
0.00014787 -0.00097354 0.00032349 -0.0010424
0.0032679 -0.0040164 0.0024273 0.012495 0.34774 -0.047148 -0.00078458 -0.00018932
0.00068309 -0.00091725 0.00011938 -0.00011885
0.00023614 0.0026174 0.0016975 -0.00067443 -0.00077238 -0.00021182 0.22017 0.14303
-0.014693 0.0028857 0.0014787 0.0021044
0.0023655 -0.0020613 0.0001407 -0.00095953 0.00069089 -0.00089573 -0.014659 0.0029055
0.12737 0.20211 -0.012217 0.0015592
-0.0011599 -0.00017273 0.00032178 -0.00098136 0.00011381 -0.00010986 0.0014887 0.0020245
-0.012217 0.0015364 0.1758 0.26786
1580000000 0.28767 0.072346 -0.0087559 0.013599 -0.00096842 -0.0048314 0.0014602 0.001852
-0.00037747 -0.0023099 -0.00019367 0.00030728
-0.0087409 0.013587 0.16751 0.30017 0.0057465 0.0071553 0.00058853 -0.0015331
-0.00048461 -0.0010914 -0.00023599 -0.00082285
-0.00103 -0.0048251 0.0057983 0.0071309 0.32811 -0.10512 -0.001471 0.00026014
-0.00042943 -0.0013629 0.00024566 -0.00064987
0.0014914 0.0018334 0.00058213 -0.0015413 -0.0014515 0.00025386 0.23494 0.1033
-0.010897 0.0077884 0.0022279 0.00081964
-0.00036184 -0.0023191 -0.00049521 -0.0010705 -0.00040333 -0.0014446 -0.010888 0.007837
0.15293 0.18625 -0.0094591 0.0076357
-0.00018748 0.00037725 -0.00026044 -0.0008063 0.00015748 -0.00062927 0.0021692 0.00082581
-0.0094806 0.0076817 0.20908 0.24228
1640000000 0.29084 0.032081 -0.0017034 0.012537 -0.0029193 -0.0023573 0.0027522 0.0010479
-0.00076064 -0.0016683 -0.00034206 0.00056379
-0.0016995 0.012526 0.19675 0.27678 0.0056734 0.0022074 -0.00049775 -0.0018443
-0.00091049 -0.00053609 -0.00051261 -0.00064035
-0.0029472 -0.0023207 0.0057343 0.0021434 0.299 -0.15358 -0.00067872 0.0012097
-0.0011347 -0.0010383 -0.00017171 -0.00047232
0.0027654 0.0010508 -0.00051051 -0.0018452 -0.00070833 0.001214 0.24772 0.054793
-0.0065171 0.0086277 0.0026003 -0.00071373
-0.00076209 -0.0016553 -0.00091553 -0.00053086 -0.0010984 -0.0010538 -0.0065244 0.0085895
0.17708 0.16511 -0.0046483 0.0098015
-0.00040184 0.00043855 -0.00051268 -0.00065266 -0.00014864 -0.00048672 0.0026504 -0.00072732
-0.0046795 0.0098136 0.23502 0.21243
1700000000 0.28582 -0.012609 0.0018794 0.0096959 -0.0035234 0.00033015 0.0030464 -0.0012524
-0.00217 -0.00055874 0.00065219 0.00049355
0.0018694 0.0096919 0.21619 0.24569 0.0029091 -0.00057725 -0.0014651 -0.00072889
-0.00080948 -0.00015828 -0.00082757 -0.00037555
-0.0034858 0.00033886 0.0029629 -0.00059401 0.25628 -0.19326 6.4013e-05 0.0015821
-0.0021354 -6.1137e-05 -0.00038024 -0.00073536
0.0030904 -0.0012767 -0.0014759 -0.00071458 2.1653e-05 0.0016046 0.24565 0.004539
-0.0039186 0.0087815 0.0017718 -0.0021561
-0.0021871 -0.00054893 -0.00082233 -0.00013584 -0.0022045 -0.00012129 -0.0038974 0.0088452
0.197 0.14694 0.00044664 0.010021
0.00059247 0.00045722 -0.00085196 -0.00039539 -0.00033023 -0.0007663 0.0017753 -0.0021863
0.00040348 0.0099913 0.2533 0.17893
1760000000 0.27493 -0.06137 0.0043024 0.0063894 -0.0021371 0.0013143 0.0013927 -0.0035015
-0.0012114 0.00065802 0.0002591 -0.00054456
0.004291 0.0063818 0.2421 0.20658 0.00016604 -0.0018664 -0.0012609 0.00010794
-0.0011757 0.00090259 -0.00052138 0.00030871
-0.0021576 0.0013082 0.00013713 -0.0018511 0.20726 -0.22581 0.0010855 0.001361
-0.001171 0.0015121 -0.0012135 -0.00065902
0.0013344 -0.0034896 -0.0012686 9.935e-05 0.0011089 0.001381 0.23658 -0.04751
-0.00088744 0.0079103 -0.00017606 -0.0026154
-0.0012104 0.00069759 -0.00115 0.00087971 -0.0011482 0.0014974 -0.00087991 0.0079346
0.21324 0.1141 0.0043652 0.0073277
0.00023018 -0.0005436 -0.00050106 0.00032278 -0.00125 -0.00069549 -0.00016648 -0.0025691
0.0043945 0.0073104 0.2669 0.14184
1820000000 0.25258 -0.098659 0.0044676 0.0027925 0.00014462 0.002366 -0.0010152 -0.0031516
-0.0010848 0.00086569 -0.00011182 -7.8277e-05
0.0044686 0.0027636 0.25363 0.17765 -0.002058 -5.1108e-05 -0.0014681 0.00095786
-0.00017825 0.0012721 -0.00065783 0.00045061
0.00020816 0.0023422 -0.002016 -8.1911e-05 0.15765 -0.24071 0.0017699 0.00073002
-0.00022735 0.0023517 -0.001613 0.00033067
-0.00096162 -0.003171 -0.0014307 0.00096479 0.0016952 0.00070567 0.20748 -0.095022
0.00047359 0.006484 -0.0016397 -0.0018874
-0.0010425 0.0008769 -0.00015315 0.0012935 -0.00026755 0.0023458 0.00045553 0.0065042
0.23323 0.087181 0.0056103 0.0034711
-0.00015791 -0.00011563 -0.00065459 0.00043979 -0.0016899 0.00026972 -0.0016512 -0.0019642
0.005565 0.0035004 0.27078 0.10704
1880000000 0.21883 -0.14039 0.0022925 0.00059183 -0.00021528 0.0023854 -0.0029256 -0.0023065
-0.00014554 0.0015982 0.0003486 -0.00056956
0.0023042 0.00058753 0.25864 0.13103 -0.003849 0.0026737 -0.00026781 0.0018537
0.00053301 0.0014993 8.7522e-05 0.00094847
-0.00022976 0.00234 -0.0038112 0.0027268 0.10643 -0.24939 0.0020704 -0.0010748
0.0016255 0.0021186 -0.0010679 0.0014078
-0.0029854 -0.0023427 -0.00029515 0.0019129 0.002036 -0.0011445 0.16684 -0.13612
0.00096641 0.0045732 -0.0024566 0.00024482
-0.00020796 0.0015776 0.00049545 0.0015024 0.0016847 0.0020365 0.00095574 0.0045913
0.23918 0.056445 0.0057221 0.0011957
0.00038839 -0.00062686 0.00014393 0.0009517 -0.00090156 0.0013679 -0.0025283 0.00031198
0.0056665 0.0011692 0.27211 0.072331
1940000000 0.18009 -0.16673 0.00018964 -0.0011321 0.001705 0.0020493 -0.0038323 0.00019847
0.0011625 0.00084534 -0.00063029 -0.00066849
0.00018937 -0.0011323 0.26017 0.10026 -0.0020564 0.0055563 0.0011757 0.0014033
0.0020803 0.00057431 0.00085491 0.00030191
0.0016819 0.0019669 -0.0020944 0.0055657 0.061543 -0.24155 0.00065616 -0.0024344
0.0023317 0.00042015 0.00019957 0.0016114
-0.0039075 0.00017283 0.0011463 0.0014192 0.00065008 -0.0024741 0.11421 -0.1668
9.4459e-05 0.0032863 -0.00166 0.0013825
0.0011065 0.00078628 0.0020851 0.00051695 0.0023932 0.00046004 0.00012041 0.0032751
0.2443 0.0199 0.0043015 -0.002741
-0.00052176 -0.00062654 0.00089123 0.00032033 0.00014516 0.0017388 -0.0016035 0.0013743
0.0043373 -0.0027716 0.2617 0.03691
2000000000 0.13514 -0.1825 -0.0035033 0.00086921 0.003063 0.0014363 -0.0025188 0.0037216
0.00082071 0.00043941 -0.00078928 0.00038884
-0.0034524 0.00086981 0.2477 0.064851 -0.00078952 0.007833 0.0017426 0.0003028
0.0014168 -0.0013865 0.00053766 0.00013984
0.0030582 0.0013515 -0.00068315 0.0077872 0.020056 -0.22755 -0.0016211 -0.0016458
0.0020671 -0.0011425 0.0015974 0.0015593
-0.0025153 0.0037539 0.0017589 0.00028046 -0.0016327 -0.0015507 0.06109 -0.17733
-0.0015808 0.0032042 -0.00012194 0.0019455
0.00080105 0.00042081 0.0014229 -0.0013568 0.0019764 -0.0010972 -0.0015865 0.0032908
0.24237 -0.013174 0.00086967 -0.0039652
