!Keysight Technologies,M9804A,MY58100912,A.14.10.03
!Date: Thursday, April 27, 2023 10:28:33
!Correction: S11(C  6-Port  ) 
!S12(C  6-Port  ) 
!S13(C  6-Port  ) 
!S14(C  6-Port  ) 
!S15(C  6-Port  ) 
!S16(C  6-Port  ) 
!S21(C  6-Port  ) 
!S22(C  6-Port  ) 
!S23(C  6-Port  ) 
!S24(C  6-Port  ) 
!S25(C  6-Port  ) 
!S26(C  6-Port  ) 
!S31(C  6-Port  ) 
!S32(C  6-Port  ) 
!S33(C  6-Port  ) 
!S34(C  6-Port  ) 
!S35(C  6-Port  ) 
!S36(C  6-Port  ) 
!S41(C  6-Port  ) 
!S42(C  6-Port  ) 
!S43(C  6-Port  ) 
!S44(C  6-Port  ) 
!S45(C  6-Port  ) 
!S46(C  6-Port  ) 
!S51(C  6-Port  ) 
!S52(C  6-Port  ) 
!S53(C  6-Port  ) 
!S54(C  6-Port  ) 
!S55(C  6-Port  ) 
!S56(C  6-Port  ) 
!S61(C  6-Port  ) 
!S62(C  6-Port  ) 
!S63(C  6-Port  ) 
!S64(C  6-Port  ) 
!S65(C  6-Port  ) 
!S66(C  6-Port  ) 
!S6P File: Measurement: :
# Hz S  RI   R 50
500000000 -0.32948 -0.066935 -0.010276 -0.00089179 -0.0083845 0.012418 -0.0041539 0.012184
0.012529 0.0051838 -0.0052487 0.0085628
-0.010265 -0.00083588 -0.40992 -0.075254 0.0093591 -0.010401 0.0011462 0.011339
0.0082694 0.0035671 0.00095088 0.013365
-0.008365 0.012428 0.0093351 -0.010387 -0.25872 0.18805 0.006629 0.0034052
-0.0018871 0.0085432 0.0005374 0.012648
-0.0041525 0.012168 0.0012108 0.011421 0.0066471 0.0034336 -0.32667 0.037653
-0.019165 -0.0042954 0.017388 0.025823
0.012557 0.0051213 0.00838 0.0034516 -0.0018069 0.008561 -0.019224 -0.0043684
-0.22428 -0.22884 -0.028189 0.0050619
-0.0052505 0.0085528 0.00089663 0.013735 0.00060064 0.012758 0.017548 0.025881
-0.028319 0.0050292 -0.2629 -0.14463
560000000 -0.3185 0.10047 -0.021529 -0.068031 0.00032394 0.012602 0.0059033 0.011699
0.011598 0.0048994 0.011522 0.0089084
-0.021449 -0.067913 -0.37143 0.089067 -0.04108 -0.039939 0.013738 0.0038269
-0.013144 -0.0058949 0.0040608 -0.0007472
0.00034918 0.01256 -0.04126 -0.039919 -0.18357 0.23906 -0.00055366 -0.0057467
0.018148 0.0063185 0.0079351 -0.0062401
0.00593 0.011723 0.013787 0.0038491 -0.00058054 -0.0057569 -0.30567 0.12967
0.0071305 -0.02212 0.0057907 -0.020625
0.011796 0.0050123 -0.013284 -0.0061115 0.018282 0.0063645 0.0070939 -0.02217
-0.30383 -0.042821 0.010573 -0.051765
0.011498 0.0086633 0.0041398 -0.0007016 0.0078648 -0.0061765 0.0056588 -0.020588
0.011185 -0.052226 -0.32875 0.0083268
620000000 -0.27659 0.081126 -0.022993 0.0088366 0.0031164 0.0093343 0.0080234 -0.0046366
0.013026 -0.00078017 0.00098092 -0.0022581
-0.022956 0.0087803 -0.40033 0.035194 -0.018726 -0.00015771 -0.0021022 -0.0022507
0.012394 -0.005466 0.00047214 -0.0031538
0.0031167 0.0093276 -0.018768 -9.5484e-05 -0.15696 0.24889 -0.0011564 -0.0052989
-0.0038925 -0.0026265 0.0094249 -0.0033576
0.0078351 -0.0044796 -0.0020878 -0.0022071 -0.0011372 -0.0052796 -0.2639 0.1396
-0.038661 -0.021835 0.012286 0.028713
0.013207 -0.0010304 0.012326 -0.0054331 -0.0038294 -0.0027334 -0.038668 -0.021808
-0.22058 -0.079714 -0.043953 0.010969
0.0011453 -0.0021255 0.0006511 -0.0031376 0.0094503 -0.0030911 0.012215 0.02868
-0.0434 0.010744 -0.24815 -0.028404
680000000 -0.2425 0.17442 -0.0264 -0.015787 0.0044578 0.005637 0.0021504 -0.0076149
-0.0019432 -0.010963 0.0058734 -0.0064509
-0.026313 -0.015747 -0.39112 0.13636 -0.032953 -0.0029596 -0.002049 -0.00020013
-0.0014607 -0.0092436 -0.00099258 -0.0019629
0.0044732 0.0056148 -0.033025 -0.0028595 -0.10923 0.27142 -0.0012605 0.00017021
-0.0014815 0.0010594 -0.0028781 -0.0090218
0.0021646 -0.0076475 -0.0020874 -0.00022676 -0.0012606 0.00018763 -0.22064 0.1913
-0.022866 -0.0083779 -0.0093016 -0.01151
-0.0020436 -0.010957 -0.0015002 -0.0092801 -0.0015066 0.0010304 -0.022911 -0.0083597
-0.28093 0.019717 -0.0046257 -0.0083892
0.005574 -0.006177 -0.00092783 -0.0019721 -0.0029002 -0.0091036 -0.009539 -0.011624
-0.0045474 -0.0080637 -0.26224 0.074725
740000000 -0.19676 0.1661 -0.041479 0.026356 0.013655 -0.0039996 -2.4625e-05 -0.0041233
-0.003157 -0.0019433 -0.00747 0.0028892
-0.041477 0.026341 -0.33808 0.15619 -0.03798 0.033968 -4.3484e-05 -0.0057888
-0.013299 0.0062924 -0.0011444 -0.0058429
0.013671 -0.0040474 -0.037892 0.03417 -0.076209 0.27223 -0.0019715 0.0030782
-0.0015889 -0.0053824 -0.001916 0.00073062
1.1249e-05 -0.0041225 -6.1232e-05 -0.0058086 -0.0019639 0.0030814 -0.20425 0.19917
-0.043464 -0.010114 0.023147 0.016165
-0.0033705 -0.0020448 -0.013246 0.0063164 -0.0015551 -0.0053994 -0.043472 -0.010102
-0.17987 0.055403 -0.045746 -0.0018434
-0.0075016 0.0026885 -0.0010104 -0.0058329 -0.0018818 0.00080726 0.023245 0.016117
-0.04576 -0.002174 -0.2505 0.080185
800000000 -0.16739 0.21259 -0.023364 0.015684 0.0057129 -0.010233 -0.0042636 -0.0024509
-0.0042263 0.0015732 0.0045327 0.00083317
-0.023334 0.015676 -0.346 0.22788 -0.0095609 0.034496 -0.0018771 0.0022383
-0.00033732 0.0021195 0.00097548 0.0056863
0.0056685 -0.010249 -0.0094907 0.034578 -0.03776 0.29825 0.0012606 0.0011732
0.00011996 0.0033407 -0.0017614 0.00082389
-0.0042945 -0.0024977 -0.0019008 0.0022166 0.001249 0.001167 -0.17529 0.22651
-0.028915 0.012697 0.014915 -0.01
-0.0042755 0.0016286 -0.00035082 0.0020982 0.00011854 0.0033452 -0.028906 0.012788
-0.2311 0.077194 -0.01838 0.020085
0.0042498 0.00071733 0.00070532 0.0057077 -0.0018152 0.00082757 0.014859 -0.010063
-0.018384 0.020133 -0.24741 0.1329
860000000 -0.13412 0.23384 -0.01904 0.030521 -0.0031051 -0.010108 -0.0019906 0.00071214
0.0044168 0.0055157 -0.0046585 -0.0029005
-0.019045 0.030499 -0.29933 0.27247 0.0067654 0.034745 0.00011003 0.0021025
0.0042453 0.00034305 0.002952 0.00057274
-0.0031401 -0.010102 0.0068934 0.034768 0.010028 0.30842 -0.0004905 -0.00045468
0.002474 -0.001701 0.0014643 0.0043297
-0.0019669 0.0007563 0.00013238 0.0021231 -0.00047705 -0.00045006 -0.13929 0.23841
-0.018629 0.017374 -0.0067283 -0.0097597
0.0045118 0.0054288 0.0042271 0.00026662 0.0024829 -0.0016999 -0.018638 0.017434
-0.17649 0.13651 -0.0273 0.016681
-0.004594 -0.0031091 0.0031728 0.00023215 0.0014992 0.0042761 -0.0067608 -0.0097697
-0.02742 0.016447 -0.19907 0.1768
920000000 -0.11066 0.25807 0.0039195 0.039469 -0.0091859 -0.0046021 -0.0017319 0.0019001
0.00050326 0.001183 0.0031885 -0.0011921
0.0038919 0.039408 -0.27221 0.29529 0.027859 0.023622 0.0012727 0.0011979
0.007389 -8.5441e-06 0.0040818 -0.0026971
-0.0092162 -0.0045651 0.027983 0.023587 0.056575 0.31104 0.0017105 5.1195e-05
0.00046567 -0.00051884 0.00089822 -0.0012397
-0.0017764 0.0019174 0.0013029 0.0012291 0.0017066 6.2202e-05 -0.11559 0.25584
-0.012462 0.030479 0.0042994 -0.0063183
0.00051509 0.0012324 0.0073579 -2.6851e-05 0.00047172 -0.00050656 -0.01246 0.030541
-0.16877 0.14183 -0.0031994 0.028236
0.003196 -0.00097233 0.0041554 -0.0024942 0.00093055 -0.0012239 0.0042498 -0.0062933
-0.0033039 0.028316 -0.20674 0.19248
980000000 -0.064755 0.27951 0.015996 0.03121 -0.0094573 0.0047092 0.0017521 0.0036288
0.0038869 -0.0015305 -0.0037179 -0.002555
0.015963 0.031166 -0.22011 0.33206 0.033097 0.0060448 0.0018613 -0.00019396
0.0017935 -0.0060304 -0.0004732 -0.0026018
-0.0094573 0.0047393 0.03317 0.0059568 0.10275 0.30547 0.00046604 -0.0011083
0.00028739 -0.0017273 0.0015263 -0.00029109
0.0017793 0.0036148 0.0018642 -0.00017534 0.00046943 -0.001112 -0.077755 0.26672
0.0061427 0.030131 -0.0097987 -0.0079896
0.0038608 -0.0015691 0.0017829 -0.0060433 0.00030327 -0.0017347 0.0061859 0.030098
-0.13801 0.1767 0.0048628 0.02056
-0.0036626 -0.0025078 -0.00062257 -0.0025418 0.0015016 -0.00027729 -0.0097233 -0.0079027
0.0048432 0.020621 -0.16665 0.23975
1040000000 -0.024175 0.28972 0.033024 0.020552 -0.0010401 0.0075502 0.0026607 0.00076933
6.4237e-05 -0.0034763 5.9589e-05 -0.0015216
0.032973 0.020513 -0.18548 0.34662 0.030224 -0.01384 0.0014388 -0.0015572
-0.0024333 -0.0023538 -0.0011892 -0.0028973
-0.0010261 0.0075387 0.030223 -0.013965 0.14861 0.29365 -0.00047919 -0.0014041
-0.0015784 -0.00087481 -0.00064035 -0.0011799
0.0026654 0.00084043 0.0014217 -0.0015912 -0.00048555 -0.0013986 -0.050729 0.27769
0.018153 0.019491 -0.0022222 0.0016418
0.0001454 -0.0034345 -0.0024946 -0.0023451 -0.0015605 -0.00085558 0.018211 0.019464
-0.10582 0.18554 0.013343 0.019718
7.2067e-05 -0.0013335 -0.0012686 -0.0030185 -0.0006487 -0.0012176 -0.0022829 0.0017163
0.013225 0.019721 -0.14525 0.2619
1100000000 0.021066 0.30037 0.036934 -0.0021678 0.0036192 0.0042332 0.002494 -0.0010369
-0.0024174 -0.003333 -0.0041599 0.00010867
0.036897 -0.0021545 -0.14149 0.36632 0.01622 -0.027378 -5.4163e-05 -0.0017586
-0.0033958 -0.00095859 -0.003529 -0.00054721
0.003645 0.0042252 0.016145 -0.027482 0.19538 0.27485 -0.0017329 0.00029286
-0.001637 0.00055209 -0.0010575 -0.00062233
0.0024544 -0.0010634 -6.3638e-05 -0.0017838 -0.0017316 0.00029332 -0.010227 0.28307
0.024104 0.0067392 -0.0026311 0.0001868
-0.0024161 -0.0033357 -0.0034172 -0.00096994 -0.0016327 0.00054903 0.02415 0.0066901
-0.086903 0.20162 0.019477 0.01008
-0.0042423 0.00013866 -0.0035771 -0.00049803 -0.0010652 -0.00064621 -0.002593 0.00017106
0.019526 0.0099798 -0.099995 0.29324
1160000000 0.071964 0.29734 0.025711 -0.019529 0.0035803 -0.00071715 -9.8688e-05 -0.0025774
-0.0040307 -0.00089057 -0.0012255 0.0042922
0.025704 -0.019504 -0.098408 0.37133 -0.0028325 -0.029048 -0.0016405 -0.0016247
-0.0024226 0.0023819 -0.0016881 0.0018799
0.0035575 -0.00073889 -0.0029632 -0.029059 0.23854 0.24555 -0.00063283 0.0016327
-0.00048181 0.0017004 -0.0010619 0.00031275
-0.00010978 -0.0025272 -0.0016004 -0.0016448 -0.00064444 0.0016331 0.028662 0.28058
0.021548 -0.0093234 -0.0034378 0.0055179
-0.004033 -0.0008197 -0.0024436 0.0023982 -0.00047725 0.0017067 0.021543 -0.0093089
-0.052342 0.21164 0.018924 0.0013163
-0.0011635 0.0041417 -0.0016112 0.0018717 -0.0010412 0.00027601 -0.003506 0.0054364
0.018876 0.0013459 -0.052667 0.29653
1220000000 0.11592 0.28907 0.01271 -0.029943 -0.0010855 -0.0017004 -8.8512e-05 -0.00092538
-0.0027902 0.0022454 0.0012061 0.0020098
0.012711 -0.02991 -0.054027 0.38626 -0.016303 -0.021602 -0.0025062 0.00045696
3.2651e-05 0.0029273 -0.00075805 0.0017986
-0.0010956 -0.0016915 -0.016419 -0.021552 0.27877 0.20835 0.00083236 0.0014394
0.00054764 0.0010683 0.00020585 0.00054082
-0.00014424 -0.00093688 -0.0025118 0.00048266 0.000833 0.0014335 0.068539 0.27318
0.011127 -0.016003 0.0022615 0.0016583
-0.0027826 0.0022742 5.8011e-05 0.0029157 0.00055243 0.0010787 0.011108 -0.016026
-0.029548 0.22358 0.015165 -0.012118
0.0012587 0.0020015 -0.00073641 0.00187 0.00019875 0.00058196 0.002357 0.0017076
0.015174 -0.012131 -0.022459 0.31519
1280000000 0.16661 0.26923 -0.0061832 -0.029414 -0.0020042 0.0015469 -0.00099064 -0.0020493
-0.00085176 0.0033846 0.0025138 0.0013164
-0.0061495 -0.029389 -0.007603 0.37808 -0.02356 -0.0087566 -0.00084774 0.0013796
0.0015705 0.0017769 0.00056283 0.0021358
-0.0019988 0.0015552 -0.023655 -0.0086581 0.31084 0.16496 0.0013647 -8.8232e-05
0.001036 0.00032254 0.00027699 0.00040954
-0.00094337 -0.0020278 -0.00081116 0.0013506 0.0013616 -8.5262e-05 0.10526 0.25731
0.0021532 -0.018679 7.9343e-05 -5.4228e-06
-0.00082869 0.0033916 0.0015912 0.0017921 0.0010308 0.00032174 0.0021237 -0.018683
0.0076013 0.22856 0.0042041 -0.015071
0.0025032 0.0012563 0.00054106 0.0021263 0.00027622 0.0003824 3.7562e-05 -1.6727e-05
0.0042064 -0.015088 0.025116 0.31816
1340000000 0.20376 0.23811 -0.016385 -0.020523 0.00016013 0.0041241 -0.0017608 -0.00071409
0.0014267 0.002792 0.0017176 -0.0014799
-0.016343 -0.020508 0.031362 0.37194 -0.021135 0.0039307 -0.00021349 0.0019002
0.0018241 0.00086153 0.0011339 0.00078474
0.00018982 0.0041314 -0.021159 0.0040309 0.33399 0.11815 0.00076081 -0.00083002
0.00060639 -0.00058962 5.8969e-05 0.00015076
-0.0018132 -0.00069747 -0.00020267 0.0019319 0.0007711 -0.00082884 0.13836 0.23816
-0.0072636 -0.016342 0.0012193 0.00017419
0.0014394 0.002764 0.0018239 0.00086211 0.0006067 -0.00060609 -0.0072825 -0.016329
0.036731 0.22625 -0.0023437 -0.013941
0.0017753 -0.0014261 0.0011364 0.00082087 5.166e-05 0.00019369 0.0011949 0.00020098
-0.0023435 -0.013908 0.063174 0.31534
1400000000 0.23897 0.20188 -0.023308 -0.0093143 0.0045678 0.0032609 -0.0021188 0.00075684
0.0025432 0.00088116 0.00043378 -0.001217
-0.023288 -0.0093252 0.070268 0.36015 -0.014606 0.012154 0.0012427 0.0013776
0.0010953 -0.00058326 0.0012507 0.0002426
0.004586 0.0032566 -0.014575 0.012248 0.3487 0.064005 -1.9392e-05 -0.0013031
8.9517e-05 -0.00013262 0.00041257 0.00030671
-0.0021021 0.0007189 0.001232 0.0013669 -2.2864e-05 -0.0012795 0.16886 0.20992
-0.013316 -0.01016 -0.00084591 -0.00056106
0.0025517 0.00088384 0.0011055 -0.00059491 0.00010797 -0.00012947 -0.013333 -0.010124
0.070742 0.22429 -0.0092418 -0.0093357
0.00038013 -0.0013035 0.0012186 0.00022022 0.00041571 0.00026783 -0.00081544 -0.00063956
-0.0092223 -0.0093045 0.10884 0.30623
1460000000 0.26255 0.15912 -0.020956 0.0033129 0.0050978 -0.0014872 -0.0015728 0.0016185
0.0020526 -0.00032147 -0.00027283 -0.0010489
-0.020927 0.0032873 0.10472 0.33891 -0.0057438 0.014946 0.001598 0.00032611
0.00109 -0.001212 0.0013027 -0.00041133
0.0051001 -0.0015085 -0.0056784 0.01498 0.35529 0.0088223 -0.00096847 -0.0010673
0.0003064 -0.00013501 0.00070479 -0.00033047
-0.0015937 0.0016572 0.0016268 0.00032371 -0.00096296 -0.0010697 0.19585 0.18119
-0.014618 -0.004045 -0.0010797 0.0018717
0.0020479 -0.00034122 0.0010868 -0.0012053 0.00031944 -0.00013189 -0.014648 -0.0040133
0.10032 0.21193 -0.011486 -0.00358
-0.00018628 -0.00097547 0.0012535 -0.00042704 0.00069875 -0.00035775 -0.0011035 0.0019702
-0.011489 -0.0035973 0.14197 0.28633
1520000000 0.27674 0.11909 -0.015911 0.009267 0.003181 -0.0038289 5.635e-05 0.0026085
0.0021991 -0.0018189 -0.00096859 -0.0001451
-0.015904 0.0092528 0.13931 0.32598 0.0018352 0.012455 0.0016831 -0.00064976
0.00022495 -0.0010509 0.00030166 -0.00098585
0.0031636 -0.0038457 0.00191 0.012464 0.34839 -0.047331 -0.00075402 -0.00035354
0.00067825 -0.00089037 6.2922e-05 -0.00011814
5.0458e-05 0.0025635 0.0016648 -0.00065492 -0.00076176 -0.00036768 0.22023 0.14372
-0.014741 0.0013931 0.0011961 0.0019591
0.0021979 -0.0018605 0.00021583 -0.0010524 0.000666 -0.000898 -0.014746 0.0014298
0.12872 0.20134 -0.011551 0.00065079
-0.0010427 -0.0002055 0.00030474 -0.001014 7.0961e-05 -0.00013166 0.001215 0.0019188
-0.01151 0.00063802 0.17597 0.26804
1580000000 0.28786 0.073359 -0.0094723 0.013208 -0.0010355 -0.0045304 0.0014637 0.0019043
-0.00019753 -0.0021277 -0.00032782 0.00035414
-0.0094892 0.013195 0.1677 0.30106 0.0052904 0.0074367 0.00059797 -0.0015266
-0.00042059 -0.0012423 -0.00017171 -0.00083581
-0.0010635 -0.0045307 0.005329 0.007418 0.32839 -0.10561 -0.0015149 0.00014987
-0.00035568 -0.0014154 0.00027221 -0.00061121
0.001467 0.0019354 0.00059996 -0.0015516 -0.00151 0.00014872 0.23528 0.1038
-0.011753 0.0065913 0.001912 0.00095169
-0.00019421 -0.0021339 -0.00043452 -0.0012339 -0.0003815 -0.0014022 -0.011754 0.0066181
0.15396 0.18543 -0.0095111 0.0068886
-0.00028681 0.00037544 -0.00017316 -0.00081363 0.0002799 -0.00058576 0.0018523 0.00097255
-0.0095251 0.0068976 0.20956 0.24196
1640000000 0.29141 0.032751 -0.0025327 0.012627 -0.0028174 -0.0022245 0.0028181 0.0011964
-0.00057695 -0.0016423 -0.00049858 0.00050309
-0.0025441 0.01261 0.1973 0.27745 0.0054462 0.0025092 -0.0004216 -0.0018334
-0.00094069 -0.00056877 -0.00052923 -0.00070853
-0.0028212 -0.0022436 0.0054514 0.0024835 0.29894 -0.15418 -0.00078478 0.0012223
-0.00099281 -0.0010967 -0.00017957 -0.00044202
0.0027995 0.0011382 -0.00043985 -0.0018272 -0.00077572 0.0012258 0.24832 0.055049
-0.0079596 0.0082381 0.0024249 -0.00055246
-0.00057592 -0.0016489 -0.00096152 -0.00055037 -0.00099271 -0.0011121 -0.0079433 0.0082703
0.17726 0.16442 -0.0049008 0.0088948
-0.00054879 0.00048354 -0.00049407 -0.00072932 -0.00016837 -0.00046248 0.0024729 -0.00058174
-0.0048764 0.0089073 0.2353 0.21232
1700000000 0.2868 -0.012368 0.0012865 0.010229 -0.0032533 0.00041588 0.0031922 -0.001261
-0.0020176 -0.00062557 0.00053025 0.00048841
0.0012719 0.010216 0.21702 0.24599 0.0028726 -0.00019083 -0.0014009 -0.00075321
-0.00088008 -0.00011196 -0.00080718 -0.00043294
-0.0032534 0.00043877 0.0028658 -0.00021608 0.25589 -0.19369 0.00010151 0.0016826
-0.0020964 -0.00018102 -0.0002502 -0.00075344
0.0032146 -0.0012331 -0.0014224 -0.00076047 0.00010471 0.0016661 0.24624 0.004371
-0.0052111 0.0092469 0.0016365 -0.0018252
-0.0020179 -0.00060187 -0.00088709 -9.9312e-05 -0.0021026 -0.00018234 -0.0051924 0.0092461
0.1974 0.14643 -0.00030761 0.0095694
0.00057217 0.00049805 -0.00082434 -0.00041077 -0.00030094 -0.00073711 0.0016182 -0.0018263
-0.00031967 0.0095444 0.25361 0.17863
1760000000 0.27581 -0.061663 0.0040806 0.007161 -0.0019533 0.00118 0.0014658 -0.0034693
-0.0012366 0.00053369 0.0003371 -0.00058106
0.0040703 0.0071675 0.24291 0.20636 0.00031363 -0.0015137 -0.0012837 -1.2297e-05
-0.0011723 0.00098357 -0.00056586 0.00032907
-0.0019538 0.0011843 0.00028777 -0.0015289 0.20649 -0.22593 0.00097595 0.001469
-0.0011945 0.0014335 -0.0012968 -0.00074316
0.0013889 -0.0034988 -0.0012707 4.4041e-06 0.00099078 0.0014837 0.23692 -0.048217
-0.0016104 0.0088043 -5.2703e-05 -0.0024663
-0.0012303 0.00053777 -0.0011552 0.00099821 -0.0011931 0.0014073 -0.0016098 0.0088127
0.21372 0.11369 0.0036241 0.0071008
0.00030874 -0.00056354 -0.00056376 0.00031249 -0.0012663 -0.00074849 -6.9575e-05 -0.0024177
0.0036047 0.007091 0.26663 0.14142
1820000000 0.25308 -0.099438 0.0047171 0.0034448 0.00024528 0.0022202 -0.00090609 -0.0032058
-0.0011257 0.00080077 3.7455e-05 -0.00015108
0.0047041 0.0034425 0.25431 0.17713 -0.0017307 0.00012293 -0.0015103 0.00091623
-7.8607e-05 0.0013322 -0.00066164 0.00043735
0.00029189 0.0022134 -0.0017349 0.00013247 0.15728 -0.24019 0.0017875 0.00063189
-0.00031411 0.0023908 -0.0017297 0.00013867
-0.00087784 -0.0031787 -0.0015155 0.00092273 0.0017765 0.00063554 0.20734 -0.095878
0.00025089 0.0074727 -0.0016142 -0.001655
-0.0011372 0.00080737 -6.7158e-05 0.0013279 -0.00028786 0.002391 0.00028883 0.0074507
0.23387 0.087262 0.004795 0.0037749
-2.2229e-05 -0.00019979 -0.00065589 0.00042857 -0.0017626 0.00016686 -0.0016438 -0.0016897
0.0047994 0.0037614 0.27066 0.10653
1880000000 0.21882 -0.14142 0.0027462 0.00095201 -0.00025364 0.0021429 -0.0029041 -0.0023973
-0.00031321 0.0016757 0.00030877 -0.00073583
0.0027419 0.00095906 0.25891 0.13015 -0.003594 0.0026875 -0.00037113 0.0018377
0.00066379 0.0014169 0.00017058 0.00095886
-0.00026336 0.0021894 -0.0035851 0.0026986 0.10581 -0.24914 0.0021064 -0.0011688
0.0016358 0.0020038 -0.00089102 0.0014471
-0.0029729 -0.0023976 -0.00035577 0.0018271 0.0020905 -0.0011578 0.16643 -0.13689
0.0012947 0.0054014 -0.0022316 0.00029595
-0.00032039 0.001685 0.00064473 0.0014036 0.0016304 0.0020173 0.0013061 0.0054094
0.24024 0.056227 0.0051706 0.00169
0.00037238 -0.00074225 0.0001966 0.0009617 -0.00087452 0.0014124 -0.0021984 0.00029013
0.0051881 0.0016853 0.27185 0.07224
1940000000 0.17932 -0.16741 0.00060088 -0.0010774 0.0016378 0.0018349 -0.0039851 0.00036844
0.00095753 0.0010589 -0.00062383 -0.00055159
0.00059335 -0.0010879 0.26001 0.099361 -0.0018835 0.0054592 0.0010241 0.0015202
0.0019832 0.0004192 0.0008608 0.00039829
0.0016234 0.0018098 -0.0018464 0.0054963 0.061187 -0.24097 0.00049065 -0.002496
0.0023058 0.00038685 0.00021672 0.0016528
-0.0039014 0.00037126 0.0010137 0.0015116 0.00048784 -0.0024889 0.11352 -0.16698
0.00070646 0.0038147 -0.001353 0.0012459
0.00098587 0.001042 0.0019884 0.00037163 0.0023196 0.00037733 0.00071252 0.0038306
0.24568 0.019459 0.0041257 -0.0021095
-0.00070172 -0.00053444 0.00086816 0.00038496 0.00023582 0.0016581 -0.0013606 0.0013124
0.0040937 -0.0020762 0.26178 0.037059
2000000000 0.13416 -0.1827 -0.0030662 0.00080471 0.0028716 0.0013408 -0.002563 0.0036118
0.00096973 0.00056209 -0.00084228 0.00049604
-0.003065 0.00077804 0.24714 0.064083 -0.00053669 0.0076748 0.0017072 0.00037191
0.001196 -0.0013718 0.00051116 6.559e-05
0.0028567 0.0013237 -0.00049855 0.0076974 0.020473 -0.22682 -0.0016027 -0.0015244
0.002054 -0.00096371 0.0015003 0.0013887
-0.0025969 0.0036915 0.0017038 0.00033215 -0.0015843 -0.0015526 0.059955 -0.17693
-0.0010695 0.0035524 -0.0001366 0.0023793
0.0009268 0.00059872 0.0011928 -0.0013773 0.0020461 -0.00097383 -0.0010798 0.0035433
0.24371 -0.014115 0.00065258 -0.0031802
