!Keysight Technologies,M9804A,MY58100912,A.14.10.03
!Date: Thursday, April 27, 2023 10:28:33
!Correction: S11(C  6-Port  ) 
!S12(C  6-Port  ) 
!S13(C  6-Port  ) 
!S14(C  6-Port  ) 
!S15(C  6-Port  ) 
!S16(C  6-Port  ) 
!S21(C  6-Port  ) 
!S22(C  6-Port  ) 
!S23(C  6-Port  ) 
!S24(C  6-Port  ) 
!S25(C  6-Port  ) 
!S26(C  6-Port  ) 
!S31(C  6-Port  ) 
!S32(C  6-Port  ) 
!S33(C  6-Port  ) 
!S34(C  6-Port  ) 
!S35(C  6-Port  ) 
!S36(C  6-Port  ) 
!S41(C  6-Port  ) 
!S42(C  6-Port  ) 
!S43(C  6-Port  ) 
!S44(C  6-Port  ) 
!S45(C  6-Port  ) 
!S46(C  6-Port  ) 
!S51(C  6-Port  ) 
!S52(C  6-Port  ) 
!S53(C  6-Port  ) 
!S54(C  6-Port  ) 
!S55(C  6-Port  ) 
!S56(C  6-Port  ) 
!S61(C  6-Port  ) 
!S62(C  6-Port  ) 
!S63(C  6-Port  ) 
!S64(C  6-Port  ) 
!S65(C  6-Port  ) 
!S66(C  6-Port  ) 
!S6P File: Measurement: :
# Hz S  RI   R 50
500000000 -0.3281 -0.066504 -0.010041 -0.001241 -0.0083997 0.012605 -0.0051018 0.012077
0.013362 0.0058647 -0.005439 0.0087782
-0.0097613 -0.00093687 -0.40985 -0.076199 0.0085331 -0.010648 0.00045168 0.011724
0.0089176 0.0035343 0.0002863 0.013582
-0.0081989 0.012654 0.008702 -0.010811 -0.25968 0.18873 0.0066315 0.0038324
-0.0020138 0.0080137 0.00061674 0.012599
-0.004756 0.011949 0.00077452 0.011551 0.00663 0.0036594 -0.3277 0.038639
-0.019951 -0.0050413 0.015309 0.026898
0.013158 0.0058088 0.0086118 0.0033366 -0.0019422 0.008065 -0.019933 -0.004987
-0.2218 -0.22968 -0.028724 0.0045161
-0.0058942 0.0084974 0.00073936 0.013395 0.00068649 0.012459 0.015664 0.02684
-0.028156 0.004456 -0.26466 -0.14493
560000000 -0.31948 0.10229 -0.022463 -0.067661 0.00058871 0.013229 0.005551 0.011135
0.011184 0.0048358 0.011589 0.0096632
-0.022199 -0.068236 -0.37241 0.089354 -0.041039 -0.038996 0.013848 0.0027251
-0.013458 -0.0065577 0.0044713 -0.001084
0.0012736 0.013086 -0.041466 -0.039425 -0.18402 0.23999 -5.7335e-05 -0.0052122
0.018087 0.0072004 0.0077713 -0.0051452
0.0056063 0.011518 0.014092 0.0029763 -0.00016615 -0.0053526 -0.30583 0.12889
0.0072398 -0.022065 0.0060843 -0.022153
0.011218 0.0048666 -0.013459 -0.006814 0.017976 0.0070167 0.0070517 -0.022177
-0.30297 -0.04669 0.010925 -0.051604
0.010785 0.0093457 0.0042717 -0.0010004 0.0076778 -0.0056926 0.0060492 -0.021969
0.011114 -0.051794 -0.3305 0.0055073
620000000 -0.27743 0.080064 -0.023658 0.008801 0.0035345 0.0094047 0.0087304 -0.0042021
0.012528 -0.0015026 0.00063326 -0.0014999
-0.023474 0.0087634 -0.40086 0.035289 -0.018858 0.00018273 -0.0017453 -0.0020379
0.012531 -0.0055687 0.00051846 -0.0029274
0.0034415 0.0093596 -0.018874 0.00021539 -0.15668 0.2495 -0.0013258 -0.0055635
-0.0042184 -0.0024098 0.0088412 -0.0034464
0.0087171 -0.0037928 -0.0017035 -0.0020388 -0.0013663 -0.0056912 -0.26417 0.14008
-0.038355 -0.021018 0.012208 0.029572
0.012909 -0.0023848 0.012546 -0.0053759 -0.004105 -0.0022011 -0.038372 -0.021201
-0.21831 -0.082718 -0.042286 0.012133
0.0006109 -0.00098188 0.0006093 -0.0027825 0.0089831 -0.0032799 0.012134 0.029374
-0.042188 0.012178 -0.24693 -0.027015
680000000 -0.24277 0.17334 -0.026424 -0.015517 0.0046805 0.0057464 0.0013312 -0.0069612
-0.0019674 -0.011841 0.0055587 -0.0067756
-0.026478 -0.015563 -0.3909 0.13681 -0.032931 -0.0026943 -0.0017429 -0.00054922
-0.0016895 -0.0097182 -0.0011605 -0.0019127
0.0044924 0.005682 -0.032805 -0.002717 -0.10873 0.27202 -0.00082681 -0.00011383
-0.0015255 0.00078802 -0.0028747 -0.0091624
0.0016274 -0.0069533 -0.0015671 -0.00052365 -0.00081611 -0.00013762 -0.22014 0.19084
-0.022682 -0.0080027 -0.0096289 -0.011203
-0.0021693 -0.011486 -0.0017823 -0.0098042 -0.0014998 0.00065882 -0.022646 -0.0079279
-0.282 0.017797 -0.0050513 -0.0084568
0.0057803 -0.0069067 -0.0011224 -0.0016174 -0.0028964 -0.0094482 -0.0097027 -0.011205
-0.0048084 -0.0083207 -0.26267 0.074602
740000000 -0.19651 0.16717 -0.04088 0.026684 0.013849 -0.0036598 0.00014525 -0.0041257
-0.0042711 -0.0019406 -0.0067634 0.0027252
-0.040963 0.026705 -0.33705 0.15646 -0.037991 0.034751 0.00044883 -0.0059429
-0.013606 0.0066328 -0.00087064 -0.0059555
0.014152 -0.0037019 -0.037748 0.034797 -0.075883 0.27221 -0.0019373 0.0034239
-0.0016994 -0.0053227 -0.002199 0.00080314
3.266e-05 -0.0040404 0.00049657 -0.0058468 -0.0019717 0.0033593 -0.20424 0.199
-0.042788 -0.0094149 0.022824 0.016468
-0.0039406 -0.0022064 -0.013782 0.0067842 -0.0017345 -0.0053654 -0.04301 -0.0094478
-0.17904 0.051669 -0.044286 -0.00046403
-0.0067614 0.0026495 -0.001099 -0.0059779 -0.0017856 0.00091031 0.022822 0.016415
-0.044377 -0.00043813 -0.25288 0.079317
800000000 -0.16683 0.2126 -0.02271 0.015673 0.0058586 -0.010463 -0.0043767 -0.0023107
-0.0043267 0.0016298 0.0043205 0.00058529
-0.022784 0.015808 -0.34557 0.2277 -0.0092254 0.034508 -0.002123 0.002171
-0.00024483 0.002148 0.00064141 0.0053068
0.0058061 -0.01046 -0.0091423 0.034567 -0.037591 0.29821 0.0010877 0.001311
5.4676e-05 0.0031706 -0.0018768 0.00082747
-0.0044056 -0.0024101 -0.0021684 0.0021279 0.0010458 0.0012729 -0.17538 0.22658
-0.029113 0.013021 0.014773 -0.010383
-0.0045443 0.0015574 -0.00035317 0.00229 0.00014041 0.0032231 -0.02917 0.01305
-0.23138 0.074993 -0.018905 0.020406
0.0045974 0.00046276 0.00062277 0.0052245 -0.0018653 0.00067184 0.014914 -0.010356
-0.018793 0.020379 -0.24752 0.13185
860000000 -0.13334 0.23354 -0.018594 0.030319 -0.0029332 -0.010443 -0.0021182 0.00057548
0.0039096 0.0053738 -0.0034968 -0.0028845
-0.018549 0.03026 -0.29909 0.27226 0.0071187 0.034864 0.00019186 0.0021052
0.0039937 0.0005939 0.0039875 0.00031351
-0.0029613 -0.01037 0.0072341 0.03487 0.010151 0.30849 -0.00050596 -0.00048399
0.0024657 -0.0016639 0.0019471 0.0042127
-0.0019345 0.00062232 9.9657e-05 0.0020427 -0.00049894 -0.00047556 -0.13932 0.23823
-0.018838 0.01738 -0.0063288 -0.0098865
0.0039732 0.0052613 0.0039933 0.00053935 0.0024901 -0.0017447 -0.018728 0.017471
-0.17789 0.13484 -0.025555 0.016363
-0.0036901 -0.0023362 0.0039456 7.2901e-05 0.0019997 0.0041804 -0.0065506 -0.0097604
-0.025546 0.01627 -0.19938 0.17783
920000000 -0.11041 0.25805 0.0040905 0.039493 -0.0094063 -0.0048749 -0.001924 0.0018632
0.00034655 0.0016667 0.0030438 -0.0015239
0.004059 0.039533 -0.27228 0.29504 0.028087 0.023464 0.0012923 0.0013131
0.0073786 -0.00036309 0.0040523 -0.0029762
-0.0093773 -0.0048317 0.028197 0.023367 0.0565 0.31131 0.0016974 -7.4585e-05
0.00064403 -0.00047473 0.00086522 -0.0015089
-0.0019811 0.0017863 0.001336 0.0012764 0.0017084 -4.8636e-05 -0.1157 0.25612
-0.01237 0.030856 0.004055 -0.0067421
0.0003042 0.0015201 0.0074058 -0.00031066 0.00064085 -0.0004311 -0.012354 0.030774
-0.16959 0.13932 -0.0036145 0.0283
0.0030812 -0.0013388 0.0040635 -0.00316 0.00087915 -0.0014301 0.0040333 -0.0067765
-0.0037927 0.028353 -0.20778 0.19262
980000000 -0.064706 0.27942 0.016072 0.031139 -0.0097743 0.0046292 0.0016976 0.0036377
0.0041156 -0.0016149 -0.0036754 -0.0027745
0.016085 0.031049 -0.2204 0.33184 0.03348 0.0059032 0.0018605 -0.00015557
0.0018805 -0.0062295 -0.00051434 -0.0028383
-0.0097583 0.0046583 0.033544 0.0057723 0.10295 0.30609 0.00043854 -0.0011657
0.0003687 -0.0017621 0.0014384 -0.00034342
0.0017318 0.0036243 0.0018088 -0.00016897 0.00043917 -0.0011767 -0.07746 0.26714
0.006746 0.030414 -0.0096507 -0.0080484
0.0039957 -0.0015071 0.0017887 -0.006059 0.00032376 -0.0017608 0.0067847 0.030376
-0.13939 0.17494 0.0048498 0.021211
-0.0036719 -0.0026119 -0.00049855 -0.0026614 0.0014556 -0.00032676 -0.0097308 -0.008004
0.0047902 0.021253 -0.16611 0.23997
1040000000 -0.024088 0.28927 0.033296 0.020265 -0.0013533 0.007579 0.0025897 0.00075531
0.00030037 -0.0035482 2.7472e-05 -0.0016032
0.033276 0.020249 -0.18571 0.34657 0.030412 -0.014293 0.0014331 -0.001725
-0.0023502 -0.0025866 -0.0012503 -0.002989
-0.00131 0.0076312 0.030402 -0.01443 0.14922 0.29424 -0.00053711 -0.0014693
-0.0015333 -0.00086671 -0.00063421 -0.0011625
0.0025616 0.00074339 0.0013896 -0.0017238 -0.00053789 -0.0014584 -0.050391 0.27799
0.018836 0.019532 -0.0023381 0.0013598
0.0003633 -0.0035971 -0.0024425 -0.0026054 -0.0015598 -0.00089135 0.018897 0.019555
-0.10706 0.18387 0.013795 0.019577
0.00010912 -0.0016012 -0.0013397 -0.002945 -0.00066328 -0.0011591 -0.0023171 0.0013253
0.01376 0.019486 -0.14569 0.26113
1100000000 0.021031 0.30027 0.037123 -0.0025609 0.0034698 0.0043083 0.0024505 -0.0010235
-0.0021931 -0.0030651 -0.0042196 4.709e-05
0.037109 -0.0025056 -0.14197 0.36653 0.016074 -0.027984 -6.6805e-05 -0.0018133
-0.0036288 -0.00072375 -0.0037169 -0.00041686
0.0035143 0.0042898 0.016002 -0.028086 0.19639 0.27524 -0.0018021 0.0003237
-0.0017556 0.00072852 -0.0010675 -0.00045433
0.0024512 -0.0010877 -0.00011393 -0.0018381 -0.0018049 0.00029613 -0.0098311 0.28329
0.024918 0.0063224 -0.0027419 5.9479e-05
-0.0022204 -0.0031236 -0.0036554 -0.00076623 -0.0017512 0.00070162 0.024943 0.0063067
-0.088326 0.20035 0.019957 0.0099851
-0.0042137 7.2961e-05 -0.0037174 -0.00052302 -0.0010698 -0.00047577 -0.0027893 7.0121e-05
0.019994 0.00997 -0.10053 0.29319
1160000000 0.071868 0.29747 0.025722 -0.020137 0.0035121 -0.00058098 -0.00010509 -0.0024958
-0.0041225 -0.0010471 -0.0013127 0.0042594
0.025627 -0.020074 -0.098615 0.37205 -0.0033773 -0.029409 -0.0015952 -0.0015669
-0.0027399 0.0026137 -0.0017199 0.0020239
0.0035047 -0.00057961 -0.0034896 -0.029457 0.23991 0.24538 -0.00062882 0.0017149
-0.0004161 0.0018991 -0.001018 0.00035435
-0.00010558 -0.0024386 -0.0015706 -0.0016019 -0.00060498 0.001691 0.029087 0.28087
0.022006 -0.010039 -0.0036548 0.0053677
-0.0041588 -0.0010278 -0.0026805 0.002595 -0.00038133 0.0018543 0.021971 -0.01008
-0.053971 0.21092 0.019673 0.00039677
-0.0013819 0.0042882 -0.0016153 0.002118 -0.0010448 0.00034442 -0.0036545 0.005382
0.019644 0.00044038 -0.053161 0.29685
1220000000 0.11593 0.28927 0.012324 -0.030409 -0.0012072 -0.0014725 -4.4937e-05 -0.0009306
-0.0028077 0.0023216 0.0012753 0.0022167
0.012341 -0.030403 -0.053858 0.38705 -0.016931 -0.021636 -0.0025514 0.00053422
6.4363e-05 0.0031297 -0.00078467 0.0019545
-0.0012138 -0.0014605 -0.017047 -0.021592 0.27981 0.20738 0.00094763 0.0015242
0.00060742 0.0010861 0.00021948 0.00062912
-3.1018e-05 -0.00095324 -0.0025512 0.00054878 0.00096842 0.0015192 0.069131 0.27342
0.010893 -0.016928 0.002289 0.0016857
-0.0028291 0.0022897 5.8087e-05 0.00312 0.00062965 0.0011417 0.010907 -0.01694
-0.031749 0.22285 0.015141 -0.012707
0.0013054 0.0020529 -0.00074049 0.001963 0.00025014 0.00064074 0.0022492 0.0016983
0.015111 -0.012748 -0.022759 0.31538
1280000000 0.16689 0.26971 -0.0068615 -0.029679 -0.0019685 0.0017637 -0.00095628 -0.0020955
-0.00092312 0.0035053 0.0025623 0.0013631
-0.0068277 -0.029646 -0.006898 0.37886 -0.024219 -0.0083788 -0.00084561 0.0015059
0.0017656 0.0017654 0.00078587 0.0020862
-0.0019391 0.001771 -0.024311 -0.0082981 0.31116 0.16374 0.0015074 -0.00016922
0.0010308 0.00038449 0.00045531 0.0004463
-0.00098953 -0.0020679 -0.00078482 0.0014769 0.0015141 -0.00015605 0.10587 0.2572
0.0014068 -0.019381 -0.00014154 0.00020688
-0.00086943 0.0035663 0.0018183 0.0017762 0.0010863 0.00043647 0.0013548 -0.01943
0.0052372 0.22826 0.0038987 -0.015838
0.0026129 0.0012609 0.00073826 0.0020901 0.0004382 0.00045076 -0.00012924 0.00019769
0.003853 -0.01582 0.025435 0.31829
1340000000 0.20433 0.23836 -0.01713 -0.020216 0.00037346 0.0043249 -0.0018319 -0.00074087
0.001565 0.0029121 0.0019327 -0.0015528
-0.017133 -0.020216 0.032382 0.3721 -0.021435 0.0046438 -0.0001252 0.0018976
0.0019524 0.00084075 0.0012564 0.00080393
0.00037055 0.0043432 -0.021434 0.004731 0.33379 0.11674 0.0008307 -0.00095091
0.00064527 -0.00064081 8.3279e-05 0.00026652
-0.0018587 -0.00072199 -0.00011459 0.0019216 0.00084654 -0.00095181 0.13895 0.23787
-0.0083276 -0.016584 0.0011759 0.00052366
0.001491 0.0028986 0.0019526 0.00083666 0.00064436 -0.00061027 -0.0083767 -0.016625
0.034842 0.22668 -0.0030475 -0.014234
0.0018866 -0.0016673 0.0012541 0.00074332 9.5782e-05 0.000254 0.0011906 0.00051791
-0.0030371 -0.014235 0.063002 0.31529
1400000000 0.23964 0.20188 -0.023843 -0.0086224 0.0048065 0.0032927 -0.0022007 0.00072359
0.0026448 0.00093192 0.00036534 -0.0013671
-0.023813 -0.0086262 0.07126 0.35996 -0.014463 0.012801 0.00128 0.001294
0.0011192 -0.00070382 0.001225 0.00018768
0.004854 0.0032212 -0.014406 0.012879 0.34784 0.063329 -6.8251e-05 -0.0014177
0.00011589 -0.00015937 0.0004705 0.00023443
-0.0022174 0.00072682 0.0012825 0.0013036 -6.4829e-05 -0.0014318 0.16928 0.20938
-0.014462 -0.0096762 -0.00083144 -0.000317
0.0026908 0.00087049 0.0011138 -0.00074077 0.00011334 -0.00016757 -0.014501 -0.0096613
0.069237 0.225 -0.010052 -0.0093192
0.00043298 -0.0014221 0.0011983 0.00017671 0.00046551 0.00024291 -0.00083134 -0.00033544
-0.010022 -0.0093148 0.10882 0.30605
1460000000 0.26325 0.1586 -0.02097 0.0041806 0.0053383 -0.001614 -0.0015285 0.0018288
0.002251 -0.00049923 -0.00023491 -0.00096673
-0.02095 0.0041405 0.10545 0.33816 -0.0051984 0.015413 0.0015768 0.00026363
0.000982 -0.0012168 0.0012364 -0.00050467
0.0053377 -0.0016161 -0.0051449 0.015474 0.3545 0.0087583 -0.0011342 -0.0010528
0.00028141 -0.00026936 0.00069344 -0.00022754
-0.0014807 0.001781 0.0016131 0.00026316 -0.0011523 -0.0010508 0.19599 0.18055
-0.015346 -0.0029097 -0.00083748 0.0019408
0.0022647 -0.00049807 0.00096083 -0.0012348 0.00033072 -0.00027223 -0.015375 -0.0028927
0.098788 0.21277 -0.012136 -0.0030419
-0.00024184 -0.00089799 0.0012061 -0.00052822 0.00072439 -0.00026055 -0.00084691 0.0019667
-0.012145 -0.0030398 0.14184 0.28616
1520000000 0.27711 0.11819 -0.015491 0.010009 0.0033394 -0.0040035 0.00019606 0.0025892
0.0023422 -0.0020446 -0.001164 -0.00012174
-0.015484 0.0099769 0.13957 0.32504 0.0023689 0.012507 0.0016868 -0.00064984
0.00014875 -0.0009591 0.00033825 -0.00099528
0.0032789 -0.0040335 0.0024385 0.012512 0.3478 -0.047133 -0.0007736 -0.00022372
0.00066639 -0.00091243 0.00012428 -7.3618e-05
0.00022097 0.0025885 0.001669 -0.00065897 -0.00077619 -0.00024496 0.2202 0.14296
-0.014636 0.0027124 0.0014392 0.0020548
0.002331 -0.0020891 0.00014266 -0.00096765 0.00067026 -0.00090613 -0.014658 0.0027616
0.12771 0.20212 -0.012035 0.0015445
-0.001138 -2.3342e-05 0.00032706 -0.0010203 0.00010225 -9.5294e-05 0.0014167 0.0020384
-0.012024 0.0015418 0.17574 0.26788
1580000000 0.28769 0.07225 -0.008755 0.013588 -0.0010137 -0.0048327 0.0015084 0.0018434
-0.00032493 -0.0022969 -0.00022613 0.00036418
-0.0087537 0.013582 0.16752 0.30017 0.0057384 0.0071778 0.00058765 -0.0015448
-0.00045749 -0.0010953 -0.00025811 -0.00076413
-0.0010459 -0.0047944 0.0057782 0.0071523 0.32814 -0.1051 -0.0014249 0.00026178
-0.00042019 -0.0013769 0.00020851 -0.00063965
0.0014978 0.0018234 0.00057334 -0.0015401 -0.0014236 0.00024986 0.23485 0.10324
-0.010911 0.0076644 0.0021591 0.00077448
-0.00035344 -0.0022935 -0.00048003 -0.001119 -0.00043791 -0.0013756 -0.010946 0.0077171
0.15332 0.18609 -0.0094209 0.0076203
-0.00023999 0.00032999 -0.00024519 -0.00074109 0.00024119 -0.0006046 0.002184 0.00078176
-0.0094266 0.0076232 0.20905 0.24218
1640000000 0.29081 0.032035 -0.0016868 0.01254 -0.0029244 -0.0023862 0.0027285 0.0010615
-0.00074524 -0.0016636 -0.00032111 0.00047214
-0.0017098 0.012538 0.19675 0.27678 0.0056983 0.0021583 -0.00050672 -0.001856
-0.00090008 -0.00055555 -0.00051252 -0.00065354
-0.0029298 -0.0023569 0.0057226 0.0021226 0.29904 -0.15361 -0.00071808 0.0012157
-0.001115 -0.001073 -0.000137 -0.00047873
0.0027604 0.0010502 -0.00052617 -0.0018597 -0.00070026 0.0012047 0.24771 0.0548
-0.0066243 0.0084753 0.0025796 -0.00070969
-0.000764 -0.0016806 -0.00091474 -0.0005413 -0.0011166 -0.0010637 -0.0065983 0.0085209
0.17712 0.16488 -0.0045196 0.009668
-0.00034518 0.00047329 -0.00049093 -0.00064513 -0.00017361 -0.00047274 0.0026011 -0.00073431
-0.0045431 0.0096505 0.23503 0.21254
1700000000 0.28575 -0.012675 0.0018885 0.0096885 -0.0034958 0.00030142 0.0031261 -0.0012769
-0.0021337 -0.00057611 0.00054582 0.00047477
0.0018674 0.0096744 0.21617 0.24568 0.0029263 -0.00060881 -0.0014903 -0.0007035
-0.00081947 -0.00016427 -0.00084458 -0.00040066
-0.0034855 0.00033506 0.0029211 -0.00061645 0.25628 -0.19328 7.4851e-05 0.0016035
-0.0021243 -8.118e-05 -0.00034568 -0.00079675
0.0031387 -0.0012925 -0.0014992 -0.00072245 9.7594e-05 0.0015956 0.24555 0.0045595
-0.0040976 0.0087845 0.0017835 -0.0021075
-0.0021334 -0.00054565 -0.00082237 -0.00015784 -0.0021339 -9.5975e-05 -0.0040677 0.0088293
0.19691 0.14668 0.00047139 0.0099061
0.00059437 0.00047792 -0.00084615 -0.00038554 -0.00036981 -0.00077046 0.0017874 -0.0021396
0.00049044 0.0098966 0.25334 0.17911
1760000000 0.27495 -0.061384 0.0042914 0.0063926 -0.0021567 0.0013107 0.0013115 -0.0035012
-0.0012372 0.00067358 0.00025328 -0.0005305
0.0042696 0.006397 0.24211 0.20656 0.00014158 -0.0018673 -0.0012525 6.4616e-05
-0.0011917 0.00088083 -0.0005339 0.00033835
-0.0022356 0.001313 0.00011437 -0.0018811 0.2072 -0.22593 0.0010591 0.0014243
-0.0011513 0.0014669 -0.0012288 -0.00065235
0.0013076 -0.0035026 -0.0012406 9.5225e-05 0.0010989 0.0014593 0.2366 -0.047491
-0.0010301 0.0079464 -0.00016932 -0.0025292
-0.0012198 0.00070728 -0.0011609 0.00090517 -0.0011852 0.0015163 -0.00099399 0.007952
0.21306 0.1139 0.0043766 0.0070937
0.0002393 -0.00052457 -0.00050413 0.00033597 -0.0012481 -0.0006922 -0.00018535 -0.0025181
0.0043721 0.0071207 0.26678 0.1419
1820000000 0.25256 -0.098654 0.0044911 0.0028063 0.00017552 0.0023223 -0.00094735 -0.0031687
-0.00105 0.0008669 -0.00014649 -0.00013126
0.0044972 0.0028033 0.25362 0.17765 -0.0020276 -7.6904e-05 -0.0014605 0.00096783
-0.00017937 0.0013044 -0.00064494 0.00042555
0.00018443 0.0023593 -0.0020555 -4.6927e-05 0.15777 -0.24066 0.0017593 0.0006436
-0.00018017 0.0022995 -0.0016745 0.00035971
-0.00096495 -0.0031706 -0.0014682 0.00098742 0.0017052 0.00060686 0.20737 -0.095112
0.00030378 0.0064803 -0.0016994 -0.0017891
-0.0010831 0.00089367 -0.00018517 0.0012903 -0.00021815 0.0022905 0.00031614 0.0064502
0.2331 0.087079 0.0055346 0.0033349
-0.00016594 -0.00010839 -0.00061602 0.00041378 -0.0016294 0.00041151 -0.0017141 -0.0018161
0.0055213 0.0032808 0.27092 0.10698
1880000000 0.21883 -0.14028 0.0022677 0.00056424 -0.00025937 0.0023243 -0.002953 -0.0023206
-0.00023179 0.0016473 0.00040049 -0.00056073
0.0022606 0.0005985 0.25866 0.13103 -0.0038294 0.00271 -0.00025234 0.0018536
0.00053986 0.0015133 0.00010858 0.00096976
-0.00026154 0.0024062 -0.0038744 0.0027383 0.10641 -0.24938 0.0021827 -0.0010663
0.0016092 0.0021008 -0.0010289 0.001461
-0.0030076 -0.0023595 -0.00023948 0.0018611 0.0021751 -0.0010605 0.1668 -0.13607
0.00090897 0.0046749 -0.0024489 0.00019546
-0.00018033 0.0016418 0.00053991 0.0015053 0.0016557 0.0020874 0.00090663 0.0046465
0.23912 0.056457 0.0055807 0.0010494
0.00037926 -0.00052481 0.00010727 0.00097744 -0.0010036 0.0014413 -0.0024458 0.00024637
0.0055605 0.0010721 0.2722 0.072404
1940000000 0.18009 -0.16675 0.00015329 -0.0011029 0.0016673 0.0020667 -0.0039119 0.00022282
0.0010872 0.00082946 -0.00063894 -0.00070359
0.00017786 -0.0010741 0.26016 0.10026 -0.0020506 0.0055569 0.0011385 0.0014405
0.0020878 0.00056977 0.00087271 0.00034227
0.0016729 0.002063 -0.0020479 0.0055661 0.061581 -0.24161 0.00062378 -0.0025017
0.0023981 0.00039873 0.00011209 0.0017022
-0.0038468 0.00025964 0.0011757 0.0014602 0.00062129 -0.0024864 0.11421 -0.1668
2.9318e-05 0.0034288 -0.0015716 0.0014281
0.0011099 0.00084553 0.002092 0.0005554 0.0023643 0.0004341 6.2432e-05 0.0034016
0.24418 0.019943 0.0041537 -0.0028079
-0.00058282 -0.00066077 0.00085451 0.00034601 0.00013148 0.0017343 -0.0016091 0.0014172
0.0041593 -0.0027902 0.26168 0.036727
2000000000 0.13505 -0.18242 -0.0034727 0.00091194 0.0030474 0.0013745 -0.0025037 0.0037076
0.00081725 0.00044121 -0.00083623 0.00038706
-0.0034869 0.00092793 0.24764 0.064869 -0.00070076 0.007834 0.0017236 0.00028381
0.0014218 -0.0014307 0.00055295 0.00021548
0.003017 0.0014467 -0.00069594 0.0078396 0.020205 -0.22738 -0.0016819 -0.0016412
0.0020442 -0.00109 0.0017067 0.001538
-0.0024426 0.0036841 0.0017086 0.00028675 -0.0016092 -0.0016406 0.060967 -0.17742
-0.0016545 0.0033294 -0.00014972 0.0020669
0.00088863 0.00048087 0.0014155 -0.0014249 0.0020553 -0.001071 -0.0016706 0.0032756
0.24225 -0.01315 0.00070225 -0.0039359
