!Keysight Technologies,M9804A,MY58100912,A.14.10.03
!Date: Thursday, April 27, 2023 10:28:33
!Correction: S11(C  6-Port  ) 
!S12(C  6-Port  ) 
!S13(C  6-Port  ) 
!S14(C  6-Port  ) 
!S15(C  6-Port  ) 
!S16(C  6-Port  ) 
!S21(C  6-Port  ) 
!S22(C  6-Port  ) 
!S23(C  6-Port  ) 
!S24(C  6-Port  ) 
!S25(C  6-Port  ) 
!S26(C  6-Port  ) 
!S31(C  6-Port  ) 
!S32(C  6-Port  ) 
!S33(C  6-Port  ) 
!S34(C  6-Port  ) 
!S35(C  6-Port  ) 
!S36(C  6-Port  ) 
!S41(C  6-Port  ) 
!S42(C  6-Port  ) 
!S43(C  6-Port  ) 
!S44(C  6-Port  ) 
!S45(C  6-Port  ) 
!S46(C  6-Port  ) 
!S51(C  6-Port  ) 
!S52(C  6-Port  ) 
!S53(C  6-Port  ) 
!S54(C  6-Port  ) 
!S55(C  6-Port  ) 
!S56(C  6-Port  ) 
!S61(C  6-Port  ) 
!S62(C  6-Port  ) 
!S63(C  6-Port  ) 
!S64(C  6-Port  ) 
!S65(C  6-Port  ) 
!S66(C  6-Port  ) 
!S6P File: Measurement: :
# Hz S  RI   R 50
500000000 -0.329 -0.067185 -0.010301 -0.0014676 -0.0088825 0.012393 -0.0045542 0.012146
0.012826 0.0052508 -0.0053784 0.0092961
-0.010297 -0.0015095 -0.41028 -0.076375 0.0093666 -0.010323 0.0010689 0.011984
0.0090772 0.0036271 0.0011929 0.01519
-0.0090289 0.012266 0.0090399 -0.010624 -0.2586 0.18809 0.0072814 0.0033473
-0.0016545 0.0083012 0.0012454 0.013033
-0.0045242 0.012271 0.0014412 0.011791 0.0070766 0.0033709 -0.3272 0.036863
-0.019521 -0.003377 0.018289 0.024933
0.012973 0.0052056 0.0081776 0.0026085 -0.0022275 0.0079802 -0.019339 -0.0033653
-0.22467 -0.22885 -0.027784 0.0053763
-0.0052647 0.0091439 0.0012009 0.013543 0.0011624 0.012585 0.016647 0.024989
-0.027934 0.0052973 -0.25976 -0.14431
560000000 -0.31768 0.10166 -0.021234 -0.068289 0.00016919 0.013015 0.0055877 0.011368
0.012276 0.0051289 0.010455 0.0093204
-0.02144 -0.068082 -0.37235 0.08877 -0.040721 -0.039585 0.013092 0.0035928
-0.013144 -0.0056663 0.0044234 -0.00179
-1.8531e-05 0.012745 -0.04084 -0.039387 -0.18431 0.23856 -0.00029222 -0.0058567
0.018058 0.0063728 0.0086472 -0.0053967
0.005412 0.010988 0.013168 0.0034065 -0.00017437 -0.0056895 -0.30596 0.12925
0.006905 -0.023144 0.0058701 -0.020909
0.011012 0.0047611 -0.013169 -0.004989 0.018062 0.0061862 0.0076093 -0.023608
-0.3041 -0.044021 0.010471 -0.051162
0.012263 0.0092378 0.0031727 -0.0011737 0.0080756 -0.0058225 0.0060765 -0.021175
0.010559 -0.051003 -0.33081 0.0069842
620000000 -0.27663 0.080514 -0.022914 0.0089331 0.0032648 0.0090269 0.0087052 -0.0041772
0.012528 -0.0010304 0.0010865 -0.0016018
-0.022836 0.0088529 -0.40046 0.034925 -0.018736 -0.00042342 -0.0017767 -0.0023593
0.012444 -0.0056863 0.00062186 -0.0028994
0.0033316 0.0089668 -0.018833 -0.00036616 -0.15701 0.24898 -0.0012107 -0.0052984
-0.0044049 -0.0027719 0.0091202 -0.0030593
0.0086759 -0.0043002 -0.0019763 -0.0023079 -0.001411 -0.0054765 -0.26326 0.13937
-0.037968 -0.020622 0.014227 0.02881
0.012019 -0.00052367 0.012271 -0.005305 -0.0039761 -0.0027835 -0.038921 -0.020857
-0.22172 -0.080757 -0.044953 0.012239
0.0010947 -0.0012121 0.00065228 -0.0032522 0.0091084 -0.003471 0.013016 0.029404
-0.044693 0.013105 -0.24728 -0.027046
680000000 -0.24301 0.17304 -0.026146 -0.016143 0.004734 0.005444 0.0014434 -0.0077741
-0.0024223 -0.011287 0.0058631 -0.0074409
-0.02614 -0.016159 -0.39126 0.13637 -0.032975 -0.0029111 -0.0016942 -0.00029626
-0.0017583 -0.0098387 -0.00063741 -0.002443
0.0046752 0.0054737 -0.033043 -0.0028348 -0.10937 0.27157 -0.0010686 5.6417e-05
-0.0014685 0.000668 -0.0028844 -0.0091448
0.0016442 -0.0075452 -0.0017789 -0.00044587 -0.00097098 7.7586e-05 -0.22093 0.1912
-0.022775 -0.0088318 -0.010253 -0.012812
-0.0019182 -0.011662 -0.0016608 -0.0091646 -0.0015539 0.001009 -0.022188 -0.0083755
-0.28046 0.019582 -0.0042167 -0.0081519
0.0050541 -0.0065717 -0.0010535 -0.0019983 -0.0028173 -0.0093465 -0.0095258 -0.012404
-0.0048848 -0.008466 -0.26085 0.074454
740000000 -0.197 0.16542 -0.04125 0.026483 0.013428 -0.0038214 3.0286e-05 -0.0043416
-0.0040831 -0.0024106 -0.0064868 0.002948
-0.041171 0.026322 -0.33787 0.15622 -0.038008 0.033928 6.8142e-05 -0.0056982
-0.013213 0.007199 -0.00095778 -0.0054255
0.01333 -0.0038156 -0.037954 0.034046 -0.076253 0.27186 -0.0020061 0.0030308
-0.0015858 -0.0055383 -0.0022877 0.00074086
0.00019095 -0.0042459 0.00028866 -0.0057404 -0.0019484 0.0028585 -0.20387 0.1989
-0.042643 -0.010201 0.023067 0.016645
-0.0036664 -0.0020239 -0.012726 0.0063929 -0.0018681 -0.0051386 -0.042981 -0.0098783
-0.17875 0.054914 -0.045211 -0.00068482
-0.0067521 0.0033601 -0.0006485 -0.0055246 -0.002105 0.00082638 0.022499 0.016004
-0.044942 -0.0011586 -0.25106 0.081494
800000000 -0.16746 0.21215 -0.02326 0.015393 0.0057059 -0.010243 -0.0043823 -0.0024563
-0.0046557 0.0014172 0.0043749 0.00071822
-0.023262 0.015374 -0.34586 0.22761 -0.0095377 0.034379 -0.0019957 0.002054
-0.0006358 0.0023105 0.00098824 0.0055463
0.005643 -0.010356 -0.0094794 0.03444 -0.03769 0.29828 0.0011043 0.0012429
4.419e-05 0.0035343 -0.0018376 0.00097231
-0.0044735 -0.002625 -0.0021241 0.0021404 0.0011442 0.0012697 -0.17525 0.22639
-0.029096 0.01281 0.014476 -0.0098208
-0.0044122 0.001825 -0.00014841 0.0021283 0.00013005 0.0031779 -0.029233 0.012914
-0.23163 0.077342 -0.018478 0.020112
0.0046032 0.00057313 0.00077759 0.0053717 -0.0017414 0.00098161 0.0145 -0.010059
-0.018647 0.020148 -0.24877 0.1317
860000000 -0.13416 0.23413 -0.018955 0.030483 -0.0031154 -0.010069 -0.0021683 0.00051239
0.0041595 0.0055629 -0.0041177 -0.0033823
-0.019085 0.03048 -0.2992 0.27245 0.0067704 0.034834 0.00028621 0.0021494
0.0039665 3.5714e-05 0.003556 0.00034796
-0.0031415 -0.010122 0.0068813 0.034799 0.010026 0.30844 -0.0006549 -0.00041275
0.0024377 -0.0017821 0.0015147 0.0043163
-0.0018375 0.00064347 0.00033791 0.0020057 -0.00052604 -0.0005171 -0.13966 0.23831
-0.01878 0.017256 -0.0067882 -0.0095269
0.0041984 0.0053602 0.0040175 0.00017174 0.0026197 -0.0017812 -0.018767 0.017139
-0.17618 0.13517 -0.026378 0.016054
-0.0036911 -0.0032179 0.0032488 0.00032274 0.0014658 0.0043838 -0.0063977 -0.0097386
-0.026442 0.016146 -0.19869 0.17913
920000000 -0.11109 0.25803 0.0038109 0.039501 -0.0092813 -0.0045667 -0.0019328 0.0019411
0.00060467 0.001677 0.0030529 -0.0014189
0.0038214 0.03939 -0.27244 0.29523 0.027734 0.023672 0.0013256 0.0012192
0.0072695 6.9834e-06 0.0039313 -0.0029426
-0.009276 -0.0045519 0.027854 0.023597 0.056457 0.31099 0.0017536 -2.5205e-06
0.00046649 -0.00038948 0.0010598 -0.001345
-0.0021211 0.002017 0.0011453 0.0011202 0.0018094 7.0397e-06 -0.11583 0.25587
-0.0126 0.030496 0.0038309 -0.0063994
0.00057799 0.0014234 0.0073925 5.1461e-05 0.00044132 -0.00035057 -0.012407 0.030516
-0.16831 0.14116 -0.003153 0.028314
0.0030819 -0.0013803 0.0039718 -0.0027314 0.00085998 -0.0012024 0.0040391 -0.0064011
-0.0034521 0.028027 -0.20711 0.19221
980000000 -0.064446 0.27971 0.016001 0.031281 -0.0093913 0.0046598 0.0017923 0.0038816
0.0041143 -0.0016118 -0.0035037 -0.0028706
0.016073 0.031276 -0.22021 0.33196 0.033203 0.0060693 0.0018737 -0.00011906
0.001832 -0.0060232 -0.00053998 -0.0027225
-0.0094186 0.0046978 0.033223 0.0059527 0.10269 0.30542 0.00049738 -0.0011292
0.00031275 -0.0016592 0.0015909 -0.0003483
0.0019076 0.0035792 0.0018439 -0.00021729 0.00052188 -0.0011587 -0.077513 0.26684
0.0063787 0.030125 -0.0096399 -0.0079434
0.0039398 -0.0013542 0.0016208 -0.0059674 0.00033802 -0.0016416 0.0064311 0.030182
-0.13827 0.17654 0.0047074 0.020475
-0.0037416 -0.0026177 -0.00066086 -0.0024947 0.0015348 -0.00031454 -0.0097186 -0.0077992
0.0048412 0.020417 -0.16568 0.23919
1040000000 -0.024201 0.28987 0.032956 0.020548 -0.0011556 0.0076008 0.0026117 0.00079413
0.00028945 -0.0035521 -5.3679e-05 -0.0015228
0.032935 0.020554 -0.18556 0.34668 0.030258 -0.013831 0.0015442 -0.0016188
-0.002466 -0.0024057 -0.0010678 -0.0028406
-0.0010946 0.0075575 0.030229 -0.013989 0.14857 0.29366 -0.0004618 -0.0013848
-0.0016034 -0.00094805 -0.00052384 -0.0011825
0.0026385 0.00094503 0.0014621 -0.0016387 -0.00049903 -0.0013966 -0.050728 0.27775
0.018181 0.019551 -0.0024228 0.0015433
0.00024041 -0.0035525 -0.0023589 -0.0022901 -0.0016145 -0.00095444 0.018135 0.019557
-0.10628 0.18587 0.0131 0.019853
0.00014921 -0.0012485 -0.0011725 -0.0028887 -0.00051234 -0.0011077 -0.0022371 0.0015235
0.013235 0.020013 -0.14489 0.26171
1100000000 0.021126 0.30029 0.036981 -0.0022038 0.003634 0.0041671 0.0024564 -0.001115
-0.0022642 -0.003231 -0.0040744 -6.9771e-05
0.036999 -0.0022198 -0.14156 0.36627 0.016252 -0.027395 -1.7167e-05 -0.0017942
-0.003381 -0.00085477 -0.0035833 -0.00055468
0.0036176 0.0041952 0.016158 -0.027452 0.19535 0.27484 -0.0017521 0.00024309
-0.0015949 0.00055774 -0.001102 -0.0006035
0.0025308 -0.001149 1.0144e-05 -0.0017451 -0.001714 0.00027116 -0.010217 0.28305
0.024308 0.0066638 -0.0025339 0.00028029
-0.0023031 -0.003238 -0.0034069 -0.00086876 -0.0015614 0.00063746 0.024176 0.0066351
-0.087064 0.20184 0.019349 0.0099213
-0.0042502 -3.1522e-05 -0.0035178 -0.0005436 -0.0010613 -0.00060194 -0.0025988 0.000165
0.019277 0.0099796 -0.099675 0.29321
1160000000 0.071898 0.29727 0.025772 -0.019591 0.0035281 -0.00070832 -0.00011136 -0.0025183
-0.0040173 -0.00091794 -0.0012355 0.0042687
0.025807 -0.019596 -0.098451 0.37133 -0.002787 -0.029018 -0.0015109 -0.0015452
-0.0024019 0.0023632 -0.001626 0.0019951
0.0035481 -0.00072779 -0.00294 -0.029047 0.23848 0.24552 -0.00058812 0.001636
-0.00041431 0.0017527 -0.0010256 0.00036323
-0.00018952 -0.0025612 -0.001617 -0.0015371 -0.00062179 0.0016565 0.028598 0.28056
0.021552 -0.0092916 -0.0036135 0.005174
-0.0040541 -0.00087791 -0.0024688 0.0024872 -0.00045961 0.0017744 0.021576 -0.0092484
-0.052389 0.21186 0.0191 0.0014241
-0.0012071 0.0042487 -0.0015807 0.0019569 -0.0010192 0.00035317 -0.003516 0.0053308
0.019116 0.0013344 -0.052447 0.2965
1220000000 0.11591 0.28913 0.012771 -0.029942 -0.0010839 -0.001664 -0.00013872 -0.000962
-0.0027816 0.0023483 0.0012331 0.0020034
0.01276 -0.029863 -0.054107 0.38624 -0.016301 -0.021605 -0.002526 0.00047474
1.2544e-05 0.0030358 -0.00075075 0.001788
-0.0010999 -0.0016564 -0.016407 -0.021572 0.27877 0.20831 0.00084624 0.001436
0.00056153 0.0010861 0.00014971 0.00062336
-0.00011344 -0.00096475 -0.0025394 0.00047574 0.00084462 0.0014631 0.0685 0.27325
0.011116 -0.016069 0.0023753 0.0017621
-0.0027006 0.002266 5.2607e-05 0.0029578 0.00051741 0.0010687 0.011161 -0.016042
-0.029589 0.22348 0.014922 -0.012062
0.0012039 0.0020204 -0.00080563 0.0018414 0.00015436 0.00057643 0.0023539 0.0016893
0.014984 -0.01205 -0.022436 0.31553
1280000000 0.16655 0.26917 -0.0061926 -0.02943 -0.0020475 0.0015438 -0.00094505 -0.001995
-0.00085558 0.0034125 0.0024194 0.0013396
-0.0061692 -0.029431 -0.0076747 0.3781 -0.023552 -0.0087737 -0.00087601 0.0013369
0.0016934 0.0017121 0.00056339 0.0019964
-0.0020272 0.001534 -0.023657 -0.0086874 0.31078 0.16494 0.0013827 -7.0604e-05
0.00099405 0.00035393 0.00043685 0.00047931
-0.00097988 -0.0020109 -0.00081914 0.0013852 0.0013725 -0.00011489 0.10528 0.25729
0.0022511 -0.018704 3.5003e-05 1.0292e-05
-0.00086867 0.0033539 0.0015827 0.001718 0.0010122 0.00034032 0.0022084 -0.018687
0.0077853 0.22855 0.004147 -0.015127
0.0024719 0.001387 0.00057605 0.0020815 0.00038205 0.00037035 7.3365e-05 6.4129e-05
0.0040874 -0.015141 0.025429 0.31829
1340000000 0.20378 0.23819 -0.016363 -0.02054 0.00012616 0.0041295 -0.0017802 -0.00073404
0.0015132 0.0028503 0.0017825 -0.0015357
-0.016308 -0.020505 0.031257 0.37194 -0.021164 0.0039122 -0.00019183 0.0019272
0.0018167 0.00090411 0.001176 0.00080876
0.00015686 0.004147 -0.021176 0.0040082 0.33393 0.11815 0.00078737 -0.00083445
0.00055936 -0.00054537 0.00010598 0.00012313
-0.0017866 -0.00075101 -0.00020932 0.0019495 0.00075517 -0.0008486 0.13836 0.23826
-0.0071949 -0.016261 0.0011767 0.00031758
0.0015744 0.0027611 0.0017602 0.00090702 0.00057252 -0.00047552 -0.0072444 -0.016292
0.036762 0.22666 -0.0024401 -0.013905
0.0017371 -0.0014387 0.0012021 0.00077369 8.6828e-05 0.00012963 0.0011562 0.0002577
-0.0024088 -0.013945 0.063345 0.31527
1400000000 0.23894 0.20194 -0.023319 -0.0092801 0.004618 0.0031962 -0.0021345 0.00072813
0.0025084 0.00093284 0.00036988 -0.001298
-0.023298 -0.0092788 0.070261 0.36021 -0.014637 0.012129 0.0012115 0.0013792
0.001104 -0.00062555 0.0012012 0.00028761
0.004628 0.0032165 -0.014618 0.012242 0.34868 0.064098 -2.0847e-05 -0.0012804
0.00011192 -0.00018454 0.00045453 0.00023205
-0.0021279 0.00075213 0.0012226 0.0013806 -1.1836e-05 -0.0012848 0.16883 0.20994
-0.013353 -0.010108 -0.00085195 -0.00060069
0.0025168 0.00091046 0.0011004 -0.00059085 0.00014079 -0.00018857 -0.013323 -0.010072
0.070872 0.22431 -0.00928 -0.009365
0.00038937 -0.0013577 0.0012008 0.0002781 0.00044508 0.00026965 -0.0008224 -0.00061638
-0.0092812 -0.0093168 0.10879 0.30624
1460000000 0.26258 0.15911 -0.02094 0.0032903 0.0051601 -0.0014625 -0.001565 0.0016785
0.0021269 -0.00037262 -0.00029563 -0.00090912
-0.020932 0.003265 0.10464 0.33899 -0.0056963 0.014978 0.0015748 0.00031816
0.0010931 -0.0011722 0.0012327 -0.00051144
0.0051636 -0.0014753 -0.005639 0.014999 0.35535 0.0089161 -0.00096021 -0.0010405
0.00028565 -0.00011974 0.00064987 -0.00017325
-0.0015605 0.0017141 0.0015782 0.00032644 -0.00092578 -0.0010748 0.19576 0.18117
-0.014588 -0.0040339 -0.0011754 0.0018941
0.0021506 -0.00037476 0.0010788 -0.0011544 0.00035533 -0.00018715 -0.014621 -0.0040085
0.10021 0.21199 -0.011533 -0.0035283
-0.00030496 -0.0009807 0.0012179 -0.00053481 0.00061835 -0.00031283 -0.0011688 0.0018845
-0.011548 -0.003553 0.14198 0.2863
1520000000 0.27675 0.11919 -0.015924 0.0092386 0.0031716 -0.0038144 6.2609e-05 0.0025746
0.0022743 -0.0018383 -0.0010181 -0.00017084
-0.015906 0.0092191 0.13923 0.32602 0.0018243 0.012466 0.0017122 -0.00066834
0.00023725 -0.0010603 0.00034493 -0.0010174
0.0031499 -0.0038371 0.0018995 0.012475 0.34834 -0.047301 -0.00071135 -0.00038362
0.00067822 -0.00088088 0.00012355 -0.00014857
5.6426e-05 0.0025889 0.0016907 -0.00067071 -0.00073526 -0.00037499 0.22029 0.14372
-0.014705 0.0014306 0.0012195 0.001992
0.0022552 -0.0018148 0.00022745 -0.0010538 0.00071999 -0.00086119 -0.014689 0.0014737
0.12873 0.20134 -0.011548 0.00076092
-0.0010316 -0.00016941 0.00034116 -0.00095613 0.00010537 -0.00010727 0.0012247 0.0019724
-0.01152 0.00074042 0.17611 0.26809
1580000000 0.28789 0.073384 -0.0094872 0.01322 -0.0010231 -0.0045726 0.001436 0.0018689
-0.00025682 -0.0021527 -0.00031543 0.00034173
-0.0095094 0.013173 0.16772 0.3011 0.0053032 0.0074378 0.00060978 -0.0015053
-0.00048541 -0.0012235 -0.00021827 -0.000749
-0.0010644 -0.0045797 0.0053405 0.0074098 0.32844 -0.10568 -0.0015391 0.00011212
-0.00031487 -0.001404 0.00016853 -0.00056105
0.0014198 0.0018803 0.00059789 -0.0015228 -0.0014959 0.00011763 0.23525 0.10377
-0.011806 0.006679 0.0019772 0.00093518
-0.00019731 -0.0021608 -0.0004533 -0.0012241 -0.0003643 -0.0013891 -0.011786 0.0066951
0.15388 0.18542 -0.0094941 0.0068284
-0.00031014 0.00033262 -0.00021583 -0.00075567 0.0001693 -0.00058615 0.0019941 0.00096108
-0.0095289 0.0068229 0.20969 0.24205
1640000000 0.29141 0.032885 -0.0025335 0.012611 -0.0028323 -0.002207 0.0027675 0.0011098
-0.00056203 -0.0017074 -0.00049614 0.00047092
-0.0025402 0.012596 0.19727 0.2775 0.0055007 0.0025107 -0.00042593 -0.0018636
-0.00092129 -0.00058502 -0.00046947 -0.00069427
-0.0027835 -0.0021852 0.0055015 0.0024819 0.29907 -0.15409 -0.00076747 0.0012369
-0.00098717 -0.0010232 -0.00011318 -0.00040776
0.0027829 0.0011274 -0.00043889 -0.0018414 -0.00077106 0.0012265 0.24833 0.055056
-0.0079511 0.0081858 0.0024783 -0.00054935
-0.00057745 -0.001644 -0.00096324 -0.0005844 -0.001 -0.0011071 -0.0079411 0.0082229
0.1773 0.16439 -0.0048526 0.008956
-0.00044703 0.0004328 -0.00047602 -0.00068566 -0.00021573 -0.0004486 0.0024602 -0.00059064
-0.0048858 0.0089392 0.2354 0.21249
1700000000 0.28678 -0.012374 0.0012554 0.010223 -0.0032948 0.00039499 0.0031756 -0.0011903
-0.0020404 -0.00066837 0.00052949 0.00050695
0.0012538 0.010231 0.21702 0.24601 0.0029066 -0.00021332 -0.0014223 -0.00074733
-0.00088189 -0.00011525 -0.00080246 -0.00047942
-0.0032926 0.00043508 0.0028799 -0.00023865 0.25575 -0.19374 0.00012307 0.0016918
-0.002068 -0.0001758 -0.00033696 -0.00076639
0.00321 -0.0012248 -0.0014313 -0.00077148 0.00010629 0.001638 0.2462 0.0043645
-0.0052081 0.0091724 0.0017251 -0.0019253
-0.0020602 -0.00065151 -0.00090103 -0.00011862 -0.0020564 -0.00019344 -0.0052496 0.0092393
0.19734 0.14645 -0.00037458 0.009555
0.00051334 0.00046486 -0.00082601 -0.0004652 -0.00033674 -0.00078753 0.0017043 -0.0019002
-0.00034218 0.0095653 0.25369 0.17869
1760000000 0.27575 -0.061672 0.0040498 0.0071631 -0.0019183 0.0011668 0.0014363 -0.0034661
-0.0012374 0.0005518 0.00043022 -0.00053026
0.0040685 0.0071587 0.24291 0.20639 0.000343 -0.001533 -0.0012138 -3.2511e-05
-0.001169 0.00096472 -0.00053981 0.0003496
-0.0019043 0.0012128 0.00031743 -0.0015286 0.20654 -0.22593 0.0010762 0.0014692
-0.0012721 0.0014599 -0.0011612 -0.00071849
0.0013983 -0.0034881 -0.0012374 -2.2192e-05 0.0010837 0.0014574 0.23696 -0.04829
-0.0016215 0.0088034 -0.000118 -0.0024574
-0.0012083 0.00054533 -0.0011384 0.00098657 -0.0012217 0.0014323 -0.0015821 0.0088121
0.21371 0.11373 0.0035116 0.0069951
0.00031727 -0.00053777 -0.00054471 0.00034151 -0.0011775 -0.00072733 -0.00011977 -0.0024043
0.0035384 0.0070539 0.26686 0.1415
1820000000 0.25317 -0.09934 0.0047128 0.0034833 0.00023934 0.0022788 -0.00092674 -0.0031546
-0.0012086 0.00078503 -8.8687e-05 -0.00010036
0.0047074 0.0034658 0.25424 0.17722 -0.0017313 0.00013472 -0.001529 0.00094268
-7.2493e-05 0.0013247 -0.00068244 0.00042498
0.00027962 0.0022876 -0.0017232 0.00014886 0.15735 -0.24012 0.0017319 0.00073078
-0.00035656 0.0023553 -0.0016811 0.00015938
-0.00087229 -0.0031417 -0.0014984 0.00095899 0.0017658 0.00066544 0.20727 -0.095809
0.00023113 0.0074805 -0.0015171 -0.00163
-0.0012091 0.00077613 -6.6748e-05 0.0013399 -0.00029554 0.0023662 0.00023705 0.0074091
0.23391 0.087217 0.0047726 0.00372
-0.00010357 -0.00018024 -0.00069489 0.00044677 -0.0017414 0.00014656 -0.0015518 -0.0016278
0.0047822 0.0037049 0.27047 0.1066
1880000000 0.21877 -0.14136 0.002719 0.00097009 -0.00017186 0.0021351 -0.002918 -0.0023759
-0.00033179 0.0016259 0.00037437 -0.00064599
0.0027266 0.00096371 0.25894 0.13021 -0.0036166 0.0026999 -0.00032874 0.0018823
0.00065315 0.0013976 0.0001973 0.0010172
-0.00014969 0.0021259 -0.0036124 0.0027212 0.10572 -0.24926 0.0021518 -0.0011219
0.0016106 0.0021078 -0.0010112 0.0013982
-0.0029787 -0.0023739 -0.00034678 0.0018707 0.0021989 -0.0011245 0.16643 -0.13687
0.0012689 0.0053959 -0.0023094 0.0003014
-0.00035124 0.0016675 0.00062264 0.0014156 0.0016109 0.0020452 0.0012276 0.0054339
0.24022 0.056292 0.005089 0.0016354
0.00045216 -0.00062337 0.00015118 0.00097105 -0.00093126 0.0014545 -0.0023552 0.00032693
0.0051222 0.0016646 0.27219 0.072266
1940000000 0.17938 -0.16739 0.00060925 -0.0010268 0.001651 0.0018753 -0.0040016 0.0002903
0.0010445 0.0010051 -0.00060981 -0.00068037
0.00061745 -0.0010428 0.26001 0.099439 -0.0018537 0.0054926 0.0010147 0.0014974
0.0020143 0.00040616 0.00094783 0.00034566
0.0016613 0.0018642 -0.0018375 0.0055317 0.061179 -0.24077 0.00050194 -0.0024278
0.0023332 0.00041423 0.0002197 0.0016518
-0.003975 0.00029363 0.0010257 0.0015013 0.00050382 -0.0024764 0.11351 -0.16695
0.00067559 0.0038794 -0.0013448 0.0012751
0.0010592 0.00098519 0.0020394 0.00038018 0.0023975 0.00036764 0.00068591 0.0038622
0.24565 0.019418 0.0040524 -0.0021241
-0.00070229 -0.00068252 0.00096285 0.00031338 0.00026858 0.0016802 -0.001311 0.0011859
0.0040239 -0.002119 0.26162 0.036792
2000000000 0.13417 -0.18284 -0.0030948 0.0007252 0.0028434 0.0012275 -0.0025546 0.0036659
0.0009601 0.00055379 -0.00096798 0.00039838
-0.0030871 0.00072076 0.24716 0.064142 -0.00055998 0.0076893 0.0017545 0.00029286
0.0012144 -0.0013879 0.00054986 -2.6872e-06
0.0028779 0.0012526 -0.00048891 0.0077364 0.020376 -0.22681 -0.0015191 -0.0016568
0.0020466 -0.0010342 0.001563 0.0013304
-0.0025685 0.003664 0.0017262 0.00029599 -0.0015437 -0.0016308 0.059954 -0.1769
-0.0010679 0.0035539 -5.7732e-06 0.0020169
0.00097293 0.00056923 0.0012448 -0.0013901 0.0021011 -0.0010675 -0.0010695 0.0035105
0.24373 -0.014042 0.00080995 -0.0031068
