!Keysight Technologies,M9804A,MY58100912,A.14.10.03
!Date: Thursday, April 27, 2023 10:28:33
!Correction: S11(C  6-Port  ) 
!S12(C  6-Port  ) 
!S13(C  6-Port  ) 
!S14(C  6-Port  ) 
!S15(C  6-Port  ) 
!S16(C  6-Port  ) 
!S21(C  6-Port  ) 
!S22(C  6-Port  ) 
!S23(C  6-Port  ) 
!S24(C  6-Port  ) 
!S25(C  6-Port  ) 
!S26(C  6-Port  ) 
!S31(C  6-Port  ) 
!S32(C  6-Port  ) 
!S33(C  6-Port  ) 
!S34(C  6-Port  ) 
!S35(C  6-Port  ) 
!S36(C  6-Port  ) 
!S41(C  6-Port  ) 
!S42(C  6-Port  ) 
!S43(C  6-Port  ) 
!S44(C  6-Port  ) 
!S45(C  6-Port  ) 
!S46(C  6-Port  ) 
!S51(C  6-Port  ) 
!S52(C  6-Port  ) 
!S53(C  6-Port  ) 
!S54(C  6-Port  ) 
!S55(C  6-Port  ) 
!S56(C  6-Port  ) 
!S61(C  6-Port  ) 
!S62(C  6-Port  ) 
!S63(C  6-Port  ) 
!S64(C  6-Port  ) 
!S65(C  6-Port  ) 
!S66(C  6-Port  ) 
!S6P File: Measurement: :
# Hz S  RI   R 50
500000000 -0.32883 -0.066943 -0.010084 -0.0007827 -0.0082826 0.012502 -0.0041452 0.011845
0.011837 0.0047863 -0.0049514 0.0081099
-0.010071 -0.00079186 -0.40973 -0.075415 0.009305 -0.01073 0.0011722 0.011138
0.0080477 0.0037891 0.00065826 0.01302
-0.0082511 0.012516 0.0093004 -0.010767 -0.25892 0.1879 0.0065923 0.0034191
-0.0019298 0.0085499 0.00043001 0.012697
-0.004309 0.011784 0.00099634 0.011179 0.0065871 0.0034638 -0.32701 0.037852
-0.019097 -0.0046764 0.017024 0.02616
0.011949 0.0048238 0.0081323 0.0038219 -0.0019388 0.0085316 -0.019138 -0.0045923
-0.22382 -0.22886 -0.027735 0.0048765
-0.0052089 0.0081264 0.00048789 0.013269 0.00043045 0.012728 0.01697 0.026028
-0.027715 0.0049273 -0.26377 -0.14422
560000000 -0.31955 0.10104 -0.021391 -0.068458 0.0007216 0.012783 0.0053588 0.011709
0.012181 0.0047458 0.011137 0.0086644
-0.021378 -0.068396 -0.37203 0.089127 -0.040771 -0.039873 0.013613 0.0036971
-0.013517 -0.0069274 0.0046148 -0.00058641
0.00079114 0.012744 -0.04089 -0.039798 -0.1839 0.23925 -0.00048038 -0.0057795
0.018633 0.0068318 0.0082 -0.005964
0.005601 0.011783 0.013622 0.0037068 -0.0004538 -0.0058008 -0.30599 0.1299
0.0063852 -0.023327 0.0054282 -0.021225
0.012073 0.0044511 -0.013671 -0.0068528 0.018581 0.0069081 0.0063799 -0.023288
-0.3059 -0.041183 0.011302 -0.052024
0.011196 0.0086005 0.0045992 -0.00059489 0.0080433 -0.0059959 0.0055353 -0.02119
0.011377 -0.052187 -0.32942 0.0069771
620000000 -0.27694 0.0804 -0.02298 0.0086494 0.0032192 0.0090336 0.0080477 -0.0040539
0.013033 -0.0014494 0.00063725 -0.001382
-0.022972 0.0086168 -0.40061 0.035038 -0.018671 -0.00022981 -0.001984 -0.0021513
0.012219 -0.0055264 0.0006055 -0.0030738
0.0032953 0.0090547 -0.018706 -0.00016215 -0.15685 0.24879 -0.0014117 -0.0052355
-0.0038792 -0.0028785 0.0091034 -0.0033856
0.0081254 -0.0038634 -0.001961 -0.0020802 -0.0014016 -0.0051938 -0.26375 0.14006
-0.038441 -0.021466 0.012265 0.028704
0.012906 -0.0016877 0.012205 -0.0056892 -0.0037385 -0.0029703 -0.038439 -0.021528
-0.22036 -0.080849 -0.042762 0.012245
0.00083856 -0.001319 0.00058874 -0.0029886 0.0090903 -0.0032916 0.012185 0.028725
-0.042782 0.01212 -0.24735 -0.030539
680000000 -0.24303 0.17361 -0.026443 -0.01607 0.004581 0.0057028 0.0016635 -0.0070747
-0.0025766 -0.011316 0.0046999 -0.0065388
-0.026414 -0.016071 -0.39107 0.13648 -0.03301 -0.0028924 -0.0020695 -0.00013574
-0.0017642 -0.0096093 -0.0010087 -0.0018685
0.0046125 0.0056779 -0.03308 -0.0028038 -0.10932 0.27134 -0.00092607 -2.1332e-05
-0.0014703 0.00065627 -0.0027868 -0.0087614
0.0017289 -0.0072038 -0.0020695 -5.2281e-05 -0.00094226 1.4091e-05 -0.22027 0.19126
-0.023291 -0.0077353 -0.0086719 -0.011791
-0.0025622 -0.01136 -0.0018341 -0.0095644 -0.001459 0.00072964 -0.023292 -0.0077394
-0.28035 0.019734 -0.0054481 -0.0079926
0.0047188 -0.0064409 -0.001054 -0.0018282 -0.002823 -0.0087265 -0.0087612 -0.011804
-0.0053839 -0.0079599 -0.26129 0.075798
740000000 -0.19665 0.16611 -0.041416 0.026486 0.013633 -0.0039068 0.00014999 -0.0040941
-0.0035031 -0.0026429 -0.0068672 0.0030466
-0.041409 0.026461 -0.33778 0.15617 -0.038015 0.034005 0.00015335 -0.0056069
-0.012492 0.0060835 -0.0010388 -0.0056089
0.013628 -0.0039355 -0.038016 0.034148 -0.076094 0.27204 -0.0021598 0.0030986
-0.0010093 -0.0047692 -0.002331 0.00073803
0.0001677 -0.0041465 4.4905e-05 -0.0056119 -0.0021516 0.0031015 -0.20419 0.19943
-0.041979 -0.010822 0.02314 0.016602
-0.003417 -0.0026181 -0.01242 0.006081 -0.0010811 -0.0047032 -0.041962 -0.010805
-0.18052 0.055874 -0.044297 -0.0015698
-0.0069336 0.0030615 -0.0012296 -0.0057037 -0.0022642 0.00063333 0.023181 0.016653
-0.044369 -0.0015827 -0.251 0.08073
800000000 -0.1674 0.21222 -0.023363 0.015535 0.0056621 -0.010294 -0.0044496 -0.0025621
-0.0044662 0.0014167 0.0044214 0.00040525
-0.023336 0.015513 -0.34597 0.22774 -0.0095793 0.034381 -0.0019284 0.0021929
-0.00049438 0.0020904 0.00086537 0.0054906
0.005649 -0.010343 -0.0095093 0.034451 -0.037755 0.29824 0.0011876 0.0011384
7.8433e-05 0.003258 -0.0018301 0.00061394
-0.0044491 -0.0025991 -0.0018897 0.002115 0.0011743 0.0011265 -0.17552 0.22653
-0.029088 0.012585 0.014585 -0.0099886
-0.0044785 0.0014899 -0.00048431 0.0021145 0.000132 0.0033011 -0.029078 0.012655
-0.2314 0.077538 -0.018491 0.01975
0.0043785 0.0004402 0.00085699 0.0054977 -0.001838 0.00063121 0.014571 -0.010045
-0.018528 0.019736 -0.24861 0.13246
860000000 -0.13432 0.23358 -0.019005 0.030436 -0.0031469 -0.010141 -0.0022222 0.00046976
0.004263 0.0051393 -0.0038672 -0.0030992
-0.019056 0.03041 -0.29928 0.27248 0.0068227 0.034772 0.00012098 0.0019437
0.004118 0.0001564 0.0035731 0.00022895
-0.0031896 -0.010136 0.0069445 0.034784 0.010077 0.30843 -0.00050603 -0.00048245
0.0025947 -0.0016834 0.0015938 0.004262
-0.0021926 0.00057779 0.00014735 0.0019962 -0.00048972 -0.00048613 -0.13956 0.23816
-0.018642 0.017191 -0.0067167 -0.010077
0.0042918 0.0051443 0.0041357 0.00012461 0.0025857 -0.0016993 -0.018639 0.017237
-0.17722 0.13574 -0.026155 0.015734
-0.0039521 -0.0031744 0.0035305 0.00020503 0.0015758 0.0042789 -0.0066418 -0.01009
-0.026129 0.015698 -0.19875 0.17704
920000000 -0.11099 0.25807 0.003876 0.039523 -0.0092694 -0.0045949 -0.0019524 0.0019122
0.00036943 0.001303 0.0028906 -0.0013062
0.0038283 0.039488 -0.2722 0.29538 0.02783 0.023618 0.0011612 0.0010959
0.0074163 0.00037512 0.0040754 -0.0027283
-0.0092647 -0.0045532 0.027963 0.023558 0.056563 0.31104 0.0017548 -3.2566e-05
0.00049112 -0.00036858 0.0010403 -0.0012378
-0.001986 0.0019196 0.0011615 0.001101 0.001743 -1.6913e-05 -0.1158 0.25575
-0.012693 0.030675 0.003981 -0.0063846
0.00038317 0.0012853 0.0074029 0.00031158 0.00048856 -0.00039964 -0.012677 0.0307
-0.16883 0.14154 -0.0032359 0.028245
0.0029293 -0.0012569 0.0040343 -0.0027345 0.0010093 -0.0012421 0.004053 -0.0064165
-0.0033164 0.028223 -0.20722 0.19237
980000000 -0.06469 0.27961 0.015968 0.031176 -0.0094881 0.0046615 0.0017972 0.0036639
0.0039834 -0.0015172 -0.003717 -0.0024892
0.015913 0.031146 -0.22011 0.33205 0.033131 0.0060625 0.0017412 -0.00026365
0.0016883 -0.0060765 -0.00073639 -0.0026657
-0.0094871 0.0047086 0.033216 0.0059298 0.10276 0.30546 0.00045874 -0.0011192
0.00029304 -0.0017093 0.0015167 -0.00035521
0.0017711 0.0036156 0.0017512 -0.00023101 0.00046511 -0.001121 -0.077542 0.26684
0.0061331 0.030131 -0.0095342 -0.0080205
0.0039626 -0.0015551 0.0016737 -0.0061101 0.00030251 -0.0017034 0.0061936 0.030132
-0.13815 0.17633 0.0044711 0.02062
-0.0037525 -0.0025115 -0.00069917 -0.0026539 0.0015221 -0.000347 -0.0095815 -0.0079903
0.0044868 0.02062 -0.16582 0.23958
1040000000 -0.024049 0.28987 0.033038 0.02054 -0.0010792 0.007529 0.0026719 0.00083997
0.00021673 -0.0036223 -7.4178e-05 -0.0016418
0.032975 0.020575 -0.18545 0.34667 0.030238 -0.013833 0.0014366 -0.001615
-0.0024076 -0.0023806 -0.0012102 -0.0028827
-0.0010559 0.0075489 0.030221 -0.013989 0.14864 0.29361 -0.00048944 -0.0014085
-0.0015252 -0.00090814 -0.00061385 -0.001179
0.0026765 0.00082563 0.0014336 -0.001593 -0.00049282 -0.0014011 -0.050734 0.27778
0.018177 0.019504 -0.0023778 0.0016912
0.00026641 -0.0035849 -0.0024523 -0.0024097 -0.0015315 -0.00089288 0.018217 0.019487
-0.10591 0.18556 0.013093 0.019489
-8.0809e-05 -0.0015758 -0.0012266 -0.0028749 -0.00062085 -0.0011809 -0.0023346 0.0016635
0.013092 0.019449 -0.14557 0.26154
1100000000 0.021113 0.30035 0.036997 -0.0021848 0.0036267 0.0042142 0.0025166 -0.001029
-0.0023161 -0.0033486 -0.0040598 8.7445e-05
0.03695 -0.0021448 -0.14147 0.36633 0.016222 -0.02734 1.1022e-05 -0.0017675
-0.0033515 -0.0009712 -0.0034818 -0.00051635
0.0036346 0.0042188 0.016134 -0.027453 0.19537 0.27484 -0.0017509 0.00027949
-0.001582 0.00060934 -0.0010957 -0.00062037
0.0025263 -0.0010562 1.2152e-05 -0.0017728 -0.0017482 0.00027844 -0.010235 0.28303
0.024283 0.0066628 -0.0025118 0.00017879
-0.002346 -0.0033368 -0.0033803 -0.00097538 -0.0015799 0.00060698 0.024305 0.006635
-0.086944 0.20175 0.019756 0.010012
-0.0040929 0.00012238 -0.0035102 -0.00051278 -0.0010899 -0.0006236 -0.0025151 0.00016475
0.019764 0.010068 -0.10019 0.29323
1160000000 0.071962 0.29733 0.025727 -0.019563 0.0035513 -0.00070925 -0.0001667 -0.0025656
-0.0040628 -0.00092675 -0.0012841 0.0043276
0.025701 -0.019528 -0.098363 0.37141 -0.0028184 -0.029023 -0.0016164 -0.0016175
-0.0024555 0.0023315 -0.0016819 0.0020211
0.0035502 -0.00070645 -0.0029533 -0.029063 0.23859 0.24554 -0.00060949 0.0016443
-0.00048998 0.0016954 -0.00098751 0.00027908
-0.00016459 -0.002521 -0.001612 -0.0015881 -0.00062601 0.0016396 0.028542 0.28052
0.021583 -0.009282 -0.0034312 0.0052826
-0.0040558 -0.0008871 -0.0024747 0.0023139 -0.00050352 0.0016935 0.021589 -0.0092961
-0.052539 0.21167 0.019009 0.001359
-0.0012997 0.0043086 -0.0016242 0.0019451 -0.0010067 0.00027406 -0.0034373 0.0053257
0.018974 0.0013866 -0.052443 0.29629
1220000000 0.11597 0.28908 0.012734 -0.029929 -0.0010904 -0.0017126 -5.5004e-05 -0.00092792
-0.0028044 0.0022107 0.0013038 0.0020042
0.012736 -0.029886 -0.05401 0.38626 -0.016324 -0.021593 -0.0025212 0.00047592
3.183e-05 0.0029596 -0.00081964 0.0018032
-0.0010963 -0.0016924 -0.016435 -0.021544 0.27878 0.2083 0.00086264 0.0014839
0.00053649 0.0010908 0.00015056 0.00061415
-4.7978e-05 -0.00095572 -0.0025246 0.00050019 0.00085847 0.0014691 0.068617 0.27316
0.011073 -0.016046 0.0023047 0.0017904
-0.0027642 0.0022545 6.1712e-05 0.0029514 0.00054008 0.0010835 0.011086 -0.01606
-0.029827 0.22347 0.015053 -0.012048
0.0013049 0.0019889 -0.00079151 0.0018313 0.00015435 0.00059348 0.0023115 0.0017842
0.015042 -0.012057 -0.022535 0.31554
1280000000 0.16662 0.26917 -0.0061732 -0.02942 -0.0019533 0.0015363 -0.0010162 -0.002083
-0.00081218 0.0033676 0.0024612 0.0013813
-0.0061461 -0.029404 -0.0075294 0.37809 -0.023557 -0.0087522 -0.0008825 0.0013633
0.001603 0.0017852 0.00058583 0.0021125
-0.0019635 0.0015498 -0.02364 -0.0086602 0.31084 0.16492 0.0013672 -8.0973e-05
0.0010011 0.00033541 0.00032456 0.00042559
-0.0010287 -0.0020562 -0.00084164 0.0013685 0.0013629 -8.3816e-05 0.1053 0.25732
0.0021656 -0.018759 3.1557e-05 -1.8131e-05
-0.00082243 0.0033657 0.0015876 0.0018017 0.0010126 0.00033433 0.0021597 -0.018736
0.0074623 0.22866 0.0042257 -0.014967
0.0024875 0.0013702 0.00060466 0.0021166 0.00032601 0.0004502 2.2567e-05 -3.7539e-05
0.004215 -0.014972 0.025356 0.31814
1340000000 0.20379 0.23814 -0.01639 -0.020534 0.00010562 0.0041568 -0.0017478 -0.00073627
0.0014342 0.0027487 0.0017322 -0.0015079
-0.016349 -0.020524 0.031338 0.37193 -0.021162 0.003926 -0.00022696 0.0019455
0.0017883 0.00093003 0.001119 0.00075548
0.00012324 0.0041527 -0.021186 0.0040316 0.33399 0.11808 0.00075105 -0.00080334
0.00054896 -0.00050422 5.4072e-05 0.00019418
-0.0017668 -0.00075641 -0.0002164 0.0019748 0.00076083 -0.00080008 0.13848 0.23817
-0.0072252 -0.016273 0.0011932 0.00029301
0.0014515 0.0027567 0.0018016 0.00092203 0.00053516 -0.00051367 -0.0072397 -0.016264
0.036697 0.22638 -0.0024392 -0.013732
0.0016993 -0.0014642 0.0011167 0.00077502 6.3688e-05 0.00017181 0.0011916 0.00029548
-0.0024255 -0.013752 0.063213 0.31536
1400000000 0.23902 0.20189 -0.023302 -0.0093159 0.0045931 0.0032358 -0.0021492 0.00071569
0.0025589 0.00088091 0.00042951 -0.0012926
-0.02327 -0.0093165 0.07031 0.36014 -0.014609 0.012136 0.0012262 0.0013753
0.0011145 -0.00059831 0.0012588 0.000243
0.0045979 0.0032277 -0.014581 0.012216 0.34867 0.063984 -3.2104e-05 -0.0013411
0.00011267 -0.00016713 0.00044174 0.00029053
-0.0021491 0.00073073 0.0012221 0.0013647 -3.2037e-05 -0.0013423 0.16875 0.20991
-0.013304 -0.010135 -0.00087023 -0.0006317
0.0025424 0.00087764 0.0011307 -0.00060963 0.00010722 -0.00018304 -0.013323 -0.01012
0.070697 0.22444 -0.0091329 -0.0092842
0.00041362 -0.0013697 0.0012342 0.00023472 0.00044768 0.00029032 -0.00086038 -0.00063745
-0.0091318 -0.0092958 0.10858 0.30636
1460000000 0.26258 0.15907 -0.020992 0.0032975 0.005106 -0.0014922 -0.001506 0.001639
0.002083 -0.00033544 -0.00031267 -0.00095658
-0.020977 0.003275 0.10476 0.33891 -0.0057313 0.014952 0.0015679 0.00032944
0.0011314 -0.0011795 0.0012776 -0.00045092
0.005117 -0.0015107 -0.0056638 0.015019 0.35528 0.0087855 -0.00097644 -0.0010531
0.00027642 -0.00015064 0.00070286 -0.00027682
-0.0015262 0.0016427 0.0015875 0.00032517 -0.00097207 -0.0010608 0.1958 0.18115
-0.014597 -0.0040034 -0.0011677 0.001879
0.0020749 -0.00035425 0.0011063 -0.001184 0.00029078 -0.00014516 -0.014595 -0.0039813
0.10016 0.21193 -0.011447 -0.0034699
-0.00029677 -0.00091343 0.0012774 -0.00049897 0.00068794 -0.00028274 -0.0011915 0.0018573
-0.011438 -0.0034844 0.14204 0.28621
1520000000 0.27679 0.11908 -0.015938 0.0092307 0.0031897 -0.003847 3.7548e-05 0.0026038
0.0022202 -0.0018401 -0.0010082 -0.00015454
-0.015937 0.0092132 0.13933 0.32597 0.0018426 0.012433 0.0016956 -0.0006698
0.00024322 -0.0010606 0.00035906 -0.00099924
0.0031739 -0.0038597 0.0018934 0.012445 0.34835 -0.04742 -0.00073885 -0.0003676
0.00065288 -0.00087949 9.5561e-05 -5.8152e-05
5.9114e-05 0.0025877 0.0016817 -0.00067479 -0.00073317 -0.00037536 0.22025 0.1437
-0.014755 0.0014188 0.0011931 0.0019713
0.0022228 -0.0018582 0.00023023 -0.0010506 0.00065199 -0.00087974 -0.014743 0.0014515
0.1287 0.20137 -0.011545 0.00074414
-0.0010282 -0.0001717 0.00035055 -0.00097125 8.6777e-05 -9.3542e-05 0.0012103 0.0019763
-0.011541 0.00074506 0.17589 0.2681
1580000000 0.28786 0.073324 -0.0094749 0.013238 -0.0010414 -0.0045183 0.0014146 0.0018932
-0.00018945 -0.0021396 -0.00030635 0.00027226
-0.0094691 0.013223 0.16772 0.30106 0.0053036 0.0074303 0.00059369 -0.0015208
-0.0004287 -0.0012348 -0.00019687 -0.00078308
-0.0010659 -0.0045195 0.0053532 0.0074126 0.32845 -0.10563 -0.0015145 0.00013293
-0.00031553 -0.0013697 0.00028523 -0.00065171
0.0014188 0.0019123 0.00060849 -0.0015253 -0.0015228 0.00013892 0.23524 0.10379
-0.01176 0.0066128 0.0019347 0.00089829
-0.00021321 -0.0021367 -0.00046118 -0.0012459 -0.00032342 -0.0013865 -0.011759 0.0066449
0.15384 0.18539 -0.0095389 0.0068438
-0.00028076 0.00029618 -0.00020318 -0.00077205 0.00030893 -0.00064134 0.0019354 0.00090123
-0.0095547 0.0068464 0.2095 0.24223
1640000000 0.2915 0.032689 -0.0025272 0.012651 -0.0027574 -0.0021776 0.0028065 0.001154
-0.00057427 -0.0016219 -0.00038567 0.00044413
-0.0025324 0.012631 0.19733 0.27744 0.0054545 0.0025416 -0.00042048 -0.0018704
-0.00095354 -0.00057931 -0.00048123 -0.00067771
-0.0027762 -0.0021817 0.0054835 0.0025073 0.29898 -0.15406 -0.0008071 0.0011825
-0.0010661 -0.0011247 -0.00015888 -0.00044822
0.0028148 0.0011131 -0.00043844 -0.0018598 -0.00081107 0.0011857 0.24831 0.055058
-0.0079755 0.008284 0.0025025 -0.00054854
-0.00058954 -0.0016323 -0.00096609 -0.00057326 -0.0010714 -0.0011465 -0.0079611 0.0083028
0.17713 0.16447 -0.0048715 0.0089752
-0.00039105 0.00045428 -0.00048499 -0.00066248 -0.00016383 -0.00042912 0.0024882 -0.00051468
-0.004876 0.0089675 0.23535 0.21251
1700000000 0.28681 -0.012391 0.0012828 0.010224 -0.003261 0.00041423 0.0031574 -0.0012748
-0.0020087 -0.00067818 0.00054824 0.00046184
0.0012789 0.010218 0.21702 0.24597 0.0028566 -0.00019927 -0.0014062 -0.00077208
-0.00085277 -0.00011283 -0.0007964 -0.00047703
-0.0032468 0.00042033 0.0028815 -0.00020087 0.25574 -0.19375 9.0971e-05 0.0016563
-0.0020477 -0.00020282 -0.00026944 -0.00077717
0.0031538 -0.0012568 -0.0014128 -0.00079154 8.6447e-05 0.0016569 0.24622 0.0042966
-0.0051905 0.0091991 0.0016571 -0.0018711
-0.0020276 -0.00067132 -0.00085532 -0.00011145 -0.0020549 -0.00020625 -0.0051822 0.0091993
0.1973 0.14636 -0.00031342 0.0094576
0.0005596 0.00044768 -0.00080088 -0.00046928 -0.0002621 -0.00073899 0.0016784 -0.0018955
-0.00033093 0.0094598 0.25361 0.17875
1760000000 0.27582 -0.061742 0.0040938 0.0071605 -0.0019249 0.0011917 0.0014865 -0.0034509
-0.0011835 0.00055198 0.00032354 -0.00059283
0.0040788 0.0071549 0.24291 0.20634 0.00029491 -0.0015232 -0.0012641 -2.2884e-05
-0.001156 0.00099121 -0.00053431 0.00035043
-0.0019168 0.0011919 0.00028789 -0.0015229 0.20644 -0.22596 0.0010564 0.0014385
-0.0012148 0.0014645 -0.0012222 -0.00069802
0.001456 -0.0035085 -0.0012572 -6.1597e-06 0.0010584 0.0014487 0.23694 -0.048138
-0.0015518 0.0088206 -0.00010957 -0.0024622
-0.0012188 0.00054982 -0.001149 0.00099506 -0.0012167 0.0014587 -0.0015453 0.0088401
0.21367 0.11382 0.0036224 0.0071026
0.00028767 -0.00055533 -0.00053275 0.00035936 -0.0011902 -0.0006921 -0.00012201 -0.0024783
0.0036301 0.0071046 0.26659 0.14131
1820000000 0.2532 -0.099438 0.0046879 0.0034749 0.00017848 0.0022816 -0.00090689 -0.0031826
-0.0012025 0.00082072 -4.8507e-05 -0.00010641
0.0046729 0.0034713 0.25431 0.17712 -0.0017426 0.00011077 -0.0015106 0.00091295
-5.7585e-05 0.0013459 -0.00068049 0.00041492
0.00018726 0.0023104 -0.0017523 0.0001312 0.15726 -0.24026 0.0018118 0.0006983
-0.00032068 0.0024176 -0.0017601 0.00018622
-0.00089632 -0.003124 -0.0015089 0.00092869 0.0018219 0.00069197 0.20748 -0.095807
0.00028654 0.0074823 -0.0014868 -0.0016633
-0.001188 0.00083745 -4.5009e-05 0.0013518 -0.00031877 0.0024153 0.00031141 0.0074804
0.23381 0.087288 0.0048073 0.0037243
-5.2751e-05 -0.00015816 -0.0006823 0.00041844 -0.0017449 0.00020726 -0.0014869 -0.0016273
0.0048088 0.0037286 0.27062 0.10666
1880000000 0.21877 -0.14139 0.0027272 0.00095276 -0.00029259 0.0021061 -0.0028946 -0.0023831
-0.00035028 0.0016614 0.00032122 -0.00064008
0.0027171 0.00094579 0.25891 0.13015 -0.0036104 0.0026986 -0.00038692 0.0018472
0.0006364 0.0014029 0.00014416 0.00098698
-0.00028569 0.0021152 -0.0036058 0.002706 0.10577 -0.24899 0.0020431 -0.0011357
0.0015226 0.001988 -0.00097546 0.0014529
-0.0029337 -0.002398 -0.00036935 0.0018596 0.0020817 -0.0011163 0.16631 -0.13686
0.0012786 0.0053802 -0.0022544 0.00032226
-0.00034098 0.0016765 0.00063149 0.0014024 0.001524 0.0020035 0.0012551 0.0053706
0.24012 0.056382 0.0050854 0.0017494
0.00031539 -0.00061844 0.00013419 0.0009854 -0.00099697 0.0014331 -0.0022422 0.00031483
0.0050715 0.001746 0.27161 0.072399
1940000000 0.17934 -0.16743 0.0006361 -0.0010816 0.0016508 0.0018363 -0.0039927 0.00028451
0.0010538 0.0010482 -0.00061828 -0.00063987
0.00064552 -0.0010594 0.26001 0.099389 -0.0019214 0.0054801 0.0010129 0.0014996
0.0020019 0.00040267 0.00086067 0.00033913
0.0016616 0.0018153 -0.0018768 0.0055139 0.061141 -0.24098 0.00044757 -0.0024805
0.0023029 0.00038387 0.00018615 0.001598
-0.0039616 0.00029452 0.0010081 0.0015035 0.00043114 -0.0024878 0.11353 -0.16707
0.00067676 0.00372 -0.0014725 0.0013664
0.0010847 0.0010124 0.0020033 0.00038747 0.0022998 0.00033643 0.0007111 0.0037191
0.24564 0.01954 0.0040015 -0.0021213
-0.00064548 -0.00063464 0.00086332 0.0003356 0.00022959 0.0016144 -0.0014587 0.0013622
0.0040022 -0.0021286 0.26146 0.036969
2000000000 0.13411 -0.18274 -0.003105 0.00076786 0.0029124 0.0013434 -0.0024758 0.0036187
0.00096447 0.00053811 -0.0008786 0.00045974
-0.0031076 0.00076636 0.24713 0.064059 -0.00052832 0.0076745 0.0016969 0.00031783
0.0011885 -0.0014042 0.00053198 6.2656e-05
0.0029187 0.0013452 -0.00047171 0.0076718 0.020452 -0.22677 -0.0015292 -0.001594
0.0020657 -0.00098847 0.0015595 0.0014426
-0.002541 0.0036582 0.0017006 0.00029277 -0.0015296 -0.001603 0.06003 -0.17701
-0.001016 0.003556 -9.8447e-05 0.002136
0.00092593 0.00057065 0.00116 -0.0014188 0.0020692 -0.00099654 -0.0010148 0.0035522
0.24363 -0.013941 0.00075805 -0.0031909
