!Keysight Technologies,M9804A,MY58100912,A.14.10.03
!Date: Thursday, April 27, 2023 10:28:33
!Correction: S11(C  6-Port  ) 
!S12(C  6-Port  ) 
!S13(C  6-Port  ) 
!S14(C  6-Port  ) 
!S15(C  6-Port  ) 
!S16(C  6-Port  ) 
!S21(C  6-Port  ) 
!S22(C  6-Port  ) 
!S23(C  6-Port  ) 
!S24(C  6-Port  ) 
!S25(C  6-Port  ) 
!S26(C  6-Port  ) 
!S31(C  6-Port  ) 
!S32(C  6-Port  ) 
!S33(C  6-Port  ) 
!S34(C  6-Port  ) 
!S35(C  6-Port  ) 
!S36(C  6-Port  ) 
!S41(C  6-Port  ) 
!S42(C  6-Port  ) 
!S43(C  6-Port  ) 
!S44(C  6-Port  ) 
!S45(C  6-Port  ) 
!S46(C  6-Port  ) 
!S51(C  6-Port  ) 
!S52(C  6-Port  ) 
!S53(C  6-Port  ) 
!S54(C  6-Port  ) 
!S55(C  6-Port  ) 
!S56(C  6-Port  ) 
!S61(C  6-Port  ) 
!S62(C  6-Port  ) 
!S63(C  6-Port  ) 
!S64(C  6-Port  ) 
!S65(C  6-Port  ) 
!S66(C  6-Port  ) 
!S6P File: Measurement: :
# Hz S  RI   R 50
500000000 -0.32886 -0.066023 -0.0097902 -0.00096222 -0.008081 0.012097 -0.0032648 0.01155
0.012626 0.0055482 -0.0032194 0.0085097
-0.0098838 -0.0010028 -0.40939 -0.075652 0.0090137 -0.011306 0.0016704 0.01146
0.0080425 0.0032996 0.0016734 0.012925
-0.0080802 0.01211 0.008982 -0.011301 -0.2599 0.18809 0.0068735 0.0032499
-0.0016349 0.0082232 0.00069951 0.012249
-0.003235 0.011736 0.0018162 0.011462 0.0068919 0.0032272 -0.32705 0.038228
-0.019857 -0.0038728 0.016827 0.026549
0.01279 0.0057744 0.00833 0.0032504 -0.0015597 0.0082279 -0.019905 -0.0038609
-0.2252 -0.22547 -0.028574 0.0056897
-0.0037619 0.0083356 0.0019691 0.012872 0.00051739 0.012207 0.016689 0.02664
-0.028553 0.0052752 -0.26468 -0.14323
560000000 -0.31935 0.10063 -0.021279 -0.067547 0.00031081 0.013191 0.0047456 0.011869
0.012309 0.0052548 0.010207 0.008808
-0.021237 -0.067588 -0.37294 0.090259 -0.040958 -0.040098 0.014204 0.003417
-0.012268 -0.0058984 0.0038406 0.00010933
0.00036596 0.013234 -0.041065 -0.040095 -0.18445 0.23938 -0.00050889 -0.0056206
0.017148 0.0064859 0.0081233 -0.0061539
0.0049325 0.0118 0.014159 0.0034929 -0.00058169 -0.0056113 -0.30616 0.13027
0.007196 -0.023196 0.0048073 -0.021333
0.012286 0.0053748 -0.012176 -0.0051526 0.016837 0.006201 0.0072403 -0.023137
-0.30475 -0.04455 0.012985 -0.051727
0.010457 0.0092417 0.0031771 0.00021027 0.0081485 -0.0060658 0.0048793 -0.021569
0.012699 -0.051187 -0.33107 0.0081419
620000000 -0.27692 0.079707 -0.023319 0.0085167 0.0032701 0.0089844 0.0082209 -0.0046478
0.012541 -0.00070519 -0.00011718 -0.0026324
-0.023303 0.008483 -0.40082 0.035416 -0.018856 -0.00025824 -0.0018093 -0.0022276
0.012202 -0.0054546 0.00081177 -0.0037402
0.0033662 0.0089989 -0.01891 -0.00019529 -0.15708 0.24881 -0.0012827 -0.0054462
-0.0038713 -0.002293 0.0092149 -0.0036189
0.0083504 -0.004591 -0.0017168 -0.0021269 -0.0012118 -0.0055241 -0.26374 0.13848
-0.038354 -0.019723 0.011903 0.027505
0.012117 -0.0011451 0.011953 -0.0056746 -0.0040203 -0.0021797 -0.03832 -0.019498
-0.22188 -0.080147 -0.041058 0.012707
-0.00034771 -0.002306 0.00075117 -0.0031622 0.009465 -0.0037458 0.011433 0.027172
-0.04049 0.01297 -0.24779 -0.03072
680000000 -0.24239 0.17367 -0.026624 -0.015636 0.0044015 0.0059027 0.00085887 -0.006894
-0.0022506 -0.01146 0.0059758 -0.0061852
-0.026626 -0.015663 -0.39121 0.13683 -0.033058 -0.0028368 -0.0018361 -0.0002348
-0.0018467 -0.0095685 -0.00099482 -0.0011607
0.0043855 0.0058516 -0.033103 -0.0027486 -0.10912 0.2715 -0.00066929 0.00016006
-0.0013787 0.00067083 -0.0027647 -0.0088604
0.00073601 -0.0068077 -0.0019642 -0.00014067 -0.00066282 0.00013959 -0.22034 0.1909
-0.022933 -0.0082121 -0.0085285 -0.01179
-0.0018727 -0.011955 -0.001722 -0.0096093 -0.0012568 0.00082867 -0.022987 -0.0082316
-0.28095 0.02223 -0.0066279 -0.0075195
0.00594 -0.0058474 -0.0014012 -0.0013602 -0.0027506 -0.0089405 -0.008366 -0.011652
-0.0065776 -0.0075537 -0.25965 0.076923
740000000 -0.19703 0.16672 -0.040945 0.026958 0.013551 -0.0037955 -4.7796e-05 -0.0041323
-0.0036467 -0.0024003 -0.0068135 0.0025946
-0.040969 0.0269 -0.33895 0.15652 -0.038182 0.034329 0.00033275 -0.0060719
-0.013832 0.0074864 -0.00095173 -0.0060099
0.013568 -0.003865 -0.038048 0.034488 -0.076718 0.27184 -0.0018406 0.0034443
-0.0008134 -0.0058052 -0.0023396 0.00099806
6.921e-05 -0.0041934 0.00023803 -0.0060925 -0.0018427 0.0033565 -0.20476 0.1984
-0.042495 -0.0091956 0.022901 0.01591
-0.0033659 -0.0018933 -0.014058 0.0072067 -0.00073186 -0.0057995 -0.042515 -0.0092328
-0.1807 0.055305 -0.044692 -0.0007896
-0.0065787 0.0028327 -0.0011639 -0.0058877 -0.0023321 0.00071842 0.022751 0.015965
-0.044263 -0.0010783 -0.25173 0.081297
800000000 -0.16718 0.21297 -0.023072 0.015939 0.0061799 -0.010324 -0.0042355 -0.0022179
-0.0049795 0.0011865 0.0051463 0.00027971
-0.023114 0.015958 -0.34614 0.22838 -0.0094047 0.03484 -0.0020686 0.0021693
-0.00045322 0.0022398 0.0012827 0.0052626
0.0060916 -0.010282 -0.0093425 0.034901 -0.03784 0.29833 0.0012732 0.0011326
7.9676e-05 0.0031925 -0.0015418 0.00070642
-0.0042443 -0.0021362 -0.0020386 0.0021603 0.0012968 0.0011479 -0.17581 0.22648
-0.029433 0.012613 0.014781 -0.0094918
-0.0049832 0.0013223 -0.00050116 0.0022074 9.504e-05 0.0031987 -0.029376 0.01267
-0.23055 0.079399 -0.018141 0.019852
0.0051019 0.0004952 0.0014142 0.0052793 -0.0014631 0.0005792 0.014839 -0.0097826
-0.018567 0.020002 -0.24672 0.13415
860000000 -0.13378 0.23403 -0.018958 0.030595 -0.003073 -0.010318 -0.0023045 0.00068065
0.0043753 0.0049077 -0.004317 -0.0027115
-0.018972 0.03056 -0.2993 0.27298 0.0071059 0.035243 2.1354e-06 0.0021009
0.0041819 0.00023492 0.0040079 0.00030422
-0.0031184 -0.010321 0.0072206 0.035256 0.0098491 0.3088 -0.00054855 -0.00036273
0.0023323 -0.0018298 0.0017579 0.0043048
-0.0023336 0.0006103 -5.9593e-05 0.0021667 -0.00059152 -0.00031181 -0.14028 0.23863
-0.019167 0.017257 -0.0068436 -0.0099263
0.0043554 0.0049957 0.004049 0.00029044 0.0022804 -0.0018735 -0.019169 0.017326
-0.17691 0.13728 -0.026034 0.016428
-0.0041178 -0.0028551 0.0038957 0.00028269 0.0016169 0.0043592 -0.0067931 -0.0097804
-0.025627 0.016209 -0.1983 0.17915
920000000 -0.11071 0.25829 0.0038635 0.040024 -0.009667 -0.0047519 -0.0018298 0.0017592
0.00040693 0.0018131 0.0024121 -0.0015905
0.0038566 0.039986 -0.27252 0.29596 0.028262 0.02383 0.0012504 0.0011137
0.0071515 -0.00033431 0.003899 -0.0027021
-0.0096576 -0.0047488 0.028345 0.02377 0.056506 0.31155 0.0016695 -0.00013834
0.00050629 -0.0003646 0.0009016 -0.0014382
-0.0018105 0.0017459 0.001258 0.0011151 0.0016645 -0.0001635 -0.1163 0.25619
-0.012337 0.030902 0.0041171 -0.0064142
0.00038242 0.0016978 0.0072952 -0.00032463 0.00052311 -0.00036393 -0.012297 0.030945
-0.16794 0.14348 -0.0029129 0.028341
0.0025456 -0.0016562 0.0038287 -0.0027755 0.00086857 -0.0015214 0.0042161 -0.0064353
-0.0031811 0.0284 -0.20657 0.19329
980000000 -0.06448 0.27988 0.016149 0.031341 -0.0096351 0.0047313 0.0017349 0.0037619
0.0039618 -0.0014185 -0.0035016 -0.0025229
0.016159 0.03132 -0.22024 0.33273 0.033767 0.0059756 0.0018725 -0.00015047
0.0016787 -0.0062075 -0.00048729 -0.0028549
-0.0096132 0.004759 0.033808 0.0058929 0.10295 0.30608 0.00055082 -0.0010749
0.00029316 -0.0018136 0.0014541 -0.00041075
0.0018347 0.0037294 0.0018542 -0.00015212 0.00054794 -0.0010901 -0.078159 0.26763
0.0065266 0.030956 -0.0097218 -0.0080813
0.0039633 -0.0015086 0.0017092 -0.0061759 0.00030085 -0.0017973 0.0065604 0.030955
-0.13671 0.17762 0.004676 0.021412
-0.0034268 -0.0024552 -0.00042019 -0.0029804 0.0015245 -0.00040582 -0.0096807 -0.0080235
0.0048061 0.021187 -0.16526 0.24082
1040000000 -0.023745 0.29052 0.033397 0.020608 -0.0011518 0.0078285 0.0027739 0.00065411
0.00037102 -0.0034005 5.4481e-05 -0.0016841
0.033388 0.020592 -0.18536 0.34753 0.030651 -0.014227 0.001479 -0.0016922
-0.0025215 -0.0024627 -0.0012638 -0.0027875
-0.0011254 0.0078358 0.030612 -0.014322 0.14929 0.29423 -0.00050106 -0.0013687
-0.0016152 -0.00086757 -0.00049275 -0.0010753
0.0027879 0.00068934 0.001495 -0.0017075 -0.00050293 -0.0013721 -0.050643 0.27852
0.019166 0.019685 -0.0024373 0.0016447
0.00036921 -0.0034213 -0.0025321 -0.0024202 -0.0016074 -0.00086978 0.019234 0.019667
-0.10508 0.18734 0.013418 0.019369
4.0061e-05 -0.0016653 -0.0012753 -0.0027825 -0.00048504 -0.0011189 -0.002429 0.0016595
0.013252 0.019502 -0.14425 0.26274
1100000000 0.021365 0.3004 0.037332 -0.0023619 0.0036029 0.004285 0.0024546 -0.0012053
-0.0021856 -0.003177 -0.0040287 -2.1215e-05
0.037323 -0.0023611 -0.14143 0.36741 0.016163 -0.028118 -7.8209e-05 -0.001914
-0.0033359 -0.00079526 -0.0036848 -0.00046655
0.0036213 0.0042688 0.016082 -0.028196 0.19649 0.2751 -0.0017909 0.0002711
-0.0015587 0.00068142 -0.0011531 -0.00066963
0.0024773 -0.0011979 -4.8476e-05 -0.0018817 -0.0017983 0.00026981 -0.0098222 0.28397
0.025106 0.0063179 -0.0025325 0.00020753
-0.0021979 -0.0031194 -0.0033183 -0.00069733 -0.0015779 0.00067644 0.025101 0.0063048
-0.086137 0.20217 0.019969 0.010106
-0.0041289 6.7358e-05 -0.0037245 -0.00048642 -0.0011695 -0.00068192 -0.0025198 0.00021606
0.019993 0.010095 -0.099427 0.29388
1160000000 0.072748 0.29754 0.025899 -0.020116 0.0037185 -0.00070348 -0.00020371 -0.0026566
-0.0042294 -0.0010185 -0.0012192 0.0044403
0.02593 -0.020104 -0.097733 0.37253 -0.0031702 -0.029495 -0.0015854 -0.0016704
-0.0026563 0.0024761 -0.0016068 0.0020401
0.0037321 -0.00071913 -0.0032978 -0.029507 0.23992 0.24523 -0.00063972 0.0017088
-0.00043091 0.0018211 -0.0011215 0.00027599
-0.00023256 -0.0026542 -0.0015429 -0.0016481 -0.00062886 0.0017057 0.02946 0.28142
0.022079 -0.010104 -0.0036078 0.0052264
-0.0042396 -0.00098516 -0.0025862 0.0025512 -0.00041394 0.001818 0.022065 -0.010118
-0.051476 0.21284 0.019441 0.0006913
-0.0011 0.0044505 -0.0015667 0.0020898 -0.001097 0.00030198 -0.0035532 0.0052688
0.019343 0.0005944 -0.051866 0.29761
1220000000 0.11654 0.28934 0.012635 -0.030467 -0.0010953 -0.0017531 -0.0001692 -0.00089992
-0.0028539 0.0023447 0.0012088 0.0019195
0.012653 -0.030455 -0.052834 0.38732 -0.016934 -0.021736 -0.0025126 0.00058786
9.3919e-05 0.0030045 -0.00081966 0.001971
-0.0010959 -0.0017423 -0.017051 -0.021681 0.27996 0.20722 0.00091306 0.0015056
0.00059551 0.001106 0.0001792 0.00065176
-0.00016025 -0.00092766 -0.0025275 0.00059339 0.00091712 0.001502 0.069621 0.27357
0.011013 -0.017116 0.002448 0.0017702
-0.0028438 0.0023586 0.00012978 0.0030622 0.00059409 0.0011236 0.01098 -0.017109
-0.028695 0.22467 0.014849 -0.012475
0.00118 0.001939 -0.00079519 0.0019103 0.00023705 0.00067807 0.0024413 0.0017219
0.014944 -0.012476 -0.021005 0.31595
1280000000 0.16752 0.26934 -0.006727 -0.029891 -0.0020444 0.0016396 -0.0009253 -0.0019666
-0.00084058 0.0033764 0.0025159 0.0013794
-0.0066889 -0.029873 -0.0058356 0.37899 -0.024185 -0.0084538 -0.00079729 0.0014034
0.0016571 0.0016369 0.00064432 0.0020722
-0.002052 0.0016535 -0.02425 -0.0083735 0.3114 0.16348 0.0014261 -0.00013725
0.0010331 0.00033945 0.00033972 0.00041883
-0.00091876 -0.0019767 -0.00081856 0.0014056 0.0014271 -0.00014108 0.10657 0.25708
0.0014871 -0.019513 -8.4551e-07 7.7625e-05
-0.0007671 0.0033635 0.0017306 0.0015861 0.0010207 0.00035156 0.0014773 -0.019531
0.0092065 0.23013 0.0040853 -0.015811
0.0025986 0.0013458 0.00071509 0.0020841 0.00031296 0.0004028 -1.1196e-05 0.00010008
0.0039656 -0.015802 0.026757 0.31888
1340000000 0.20498 0.23793 -0.017096 -0.020565 5.5164e-05 0.0041663 -0.0017686 -0.00072098
0.0015518 0.002864 0.0016407 -0.0014818
-0.017063 -0.020552 0.033451 0.37187 -0.021431 0.004463 -0.0001189 0.0018934
0.001874 0.00073404 0.001169 0.00075398
7.2849e-05 0.0041714 -0.021427 0.0045635 0.33387 0.11647 0.00074545 -0.00095456
0.00054254 -0.00063884 -2.8952e-05 0.00021377
-0.0017622 -0.00070693 -0.00011579 0.0018932 0.00073424 -0.00095382 0.13935 0.23752
-0.0083559 -0.016661 0.0010648 0.00052024
0.0015968 0.0028331 0.0018786 0.00072019 0.00052446 -0.00063046 -0.0083764 -0.016633
0.03871 0.22784 -0.0030042 -0.014055
0.0016092 -0.0015105 0.0011887 0.00068885 1.0252e-05 0.00023271 0.0010842 0.00050454
-0.002994 -0.014003 0.064565 0.31535
1400000000 0.23999 0.20116 -0.023921 -0.0088938 0.0046987 0.0032685 -0.0020827 0.00068687
0.0026156 0.0010026 0.00035275 -0.0014275
-0.023897 -0.0089028 0.072126 0.3595 -0.014513 0.012642 0.0011786 0.0012714
0.0011057 -0.00066951 0.0011114 0.00014051
0.0047093 0.0032532 -0.014486 0.012733 0.34795 0.062792 -8.2505e-05 -0.0013032
0.00015844 -0.00023398 0.00053832 0.00032196
-0.0020777 0.00073965 0.0011919 0.0012959 -7.4022e-05 -0.0013043 0.1693 0.20882
-0.014518 -0.0097279 -0.00093639 -0.00053354
0.0025887 0.00098176 0.0011432 -0.00067935 0.00015572 -0.00024294 -0.014542 -0.0097142
0.073166 0.22528 -0.0097221 -0.009469
0.00033722 -0.0014496 0.0011176 0.00014886 0.00050549 0.00031567 -0.00091143 -0.00049985
-0.0097166 -0.009499 0.11011 0.30608
1460000000 0.26341 0.158 -0.021263 0.0039023 0.0052957 -0.0015346 -0.0015017 0.0016617
0.0022738 -0.00051796 -0.00021614 -0.00081447
-0.021234 0.0038859 0.1062 0.33768 -0.0053261 0.01534 0.0015953 0.00027195
0.0010526 -0.001202 0.0012572 -0.00057639
0.0052738 -0.0015512 -0.0052663 0.015379 0.35425 0.0082938 -0.0010792 -0.00104
0.00028012 -0.0001279 0.00065317 -0.00028505
-0.0015009 0.0016715 0.0015948 0.00027221 -0.0010856 -0.0010238 0.19583 0.18013
-0.015324 -0.0028628 -0.00098049 0.0019683
0.0022707 -0.00052977 0.0010709 -0.0012109 0.00026137 -0.000135 -0.015332 -0.0028405
0.10293 0.21226 -0.0121 -0.003202
-0.00024457 -0.00084762 0.0012023 -0.00056115 0.00065932 -0.00027787 -0.00097663 0.0019112
-0.012024 -0.0031042 0.14351 0.28594
1520000000 0.27707 0.11764 -0.015809 0.0099179 0.0032402 -0.0039333 0.00015167 0.0025927
0.0021731 -0.0019404 -0.0010861 -0.00012466
-0.015803 0.0099006 0.1401 0.32436 0.0022591 0.01246 0.0016949 -0.00058619
0.0001735 -0.00096036 0.00028152 -0.00096028
0.0032333 -0.0039559 0.0023412 0.012447 0.34758 -0.047607 -0.00069258 -0.00024326
0.00067016 -0.0008917 0.00016342 -5.6552e-05
0.00015854 0.002604 0.0017042 -0.00058864 -0.00070931 -0.00024595 0.2199 0.1426
-0.014631 0.0028058 0.0014124 0.0019876
0.0021506 -0.0019378 0.0001507 -0.00094461 0.00066398 -0.00087506 -0.014639 0.0028355
0.13153 0.20109 -0.011859 0.0013528
-0.0010351 -7.9847e-05 0.00026275 -0.00096663 0.00014123 -0.00015904 0.0013882 0.0019969
-0.011908 0.0013389 0.17725 0.26737
1580000000 0.28779 0.071928 -0.0089864 0.01377 -0.0010675 -0.0045997 0.0014655 0.0018507
-0.00026385 -0.0022251 -0.00029438 0.00023453
-0.0089902 0.013748 0.16786 0.29965 0.0055824 0.007245 0.00063205 -0.0015308
-0.00043541 -0.0011257 -0.00023544 -0.00072512
-0.0010917 -0.0045904 0.00563 0.0072224 0.32795 -0.10568 -0.0014397 0.00023309
-0.0003907 -0.0013421 0.0002259 -0.00066147
0.0014601 0.0018474 0.00061972 -0.001544 -0.0014432 0.00022025 0.23436 0.10309
-0.010878 0.0076982 0.0020187 0.0008142
-0.00027078 -0.0022246 -0.00043817 -0.0011114 -0.00041365 -0.001357 -0.010863 0.0077371
0.15669 0.18428 -0.0095398 0.0074372
-0.00025602 0.0002654 -0.00025641 -0.00068258 0.0002904 -0.00052378 0.0020874 0.00079311
-0.0095267 0.0073936 0.21048 0.24168
1640000000 0.29091 0.031675 -0.0018501 0.012732 -0.0027894 -0.0022449 0.0027822 0.001031
-0.00062579 -0.0016517 -0.00033656 0.00038853
-0.0018536 0.012727 0.19714 0.27613 0.005576 0.0023385 -0.00043258 -0.0018638
-0.0008885 -0.0005264 -0.00043643 -0.00066166
-0.0028074 -0.0022505 0.0056134 0.0022934 0.29842 -0.15396 -0.00067722 0.0011476
-0.0010005 -0.0010423 -0.00012247 -0.00042955
0.0028029 0.0010255 -0.00042208 -0.0018642 -0.00063882 0.0011632 0.24722 0.054768
-0.0067043 0.0085087 0.0025688 -0.00070843
-0.0006093 -0.0016363 -0.00087937 -0.00050329 -0.00095431 -0.0010466 -0.0066893 0.0085128
0.17986 0.16264 -0.0045512 0.0095711
-0.00034803 0.00043596 -0.00043121 -0.00066826 -0.00020873 -0.00043976 0.0025458 -0.00070445
-0.0045641 0.0095709 0.23629 0.2116
1700000000 0.28596 -0.013118 0.0018555 0.0099672 -0.0034236 0.00039739 0.0030523 -0.0012492
-0.0020964 -0.00058664 0.0005428 0.0004061
0.0018516 0.0099598 0.21624 0.24518 0.0029069 -0.00046142 -0.0014563 -0.00080146
-0.00080857 -0.0001387 -0.00078016 -0.00046494
-0.0034069 0.00042837 0.0029362 -0.00047014 0.2559 -0.19344 5.273e-05 0.0014893
-0.0021018 -0.00014353 -0.00025517 -0.0008799
0.0030614 -0.0012672 -0.0014581 -0.00080279 5.9946e-05 0.001503 0.24501 0.004724
-0.0041756 0.0087925 0.0016765 -0.0020651
-0.00211 -0.00060163 -0.00077743 -0.00015128 -0.0020978 -0.0001951 -0.0041511 0.0088034
0.1992 0.14414 0.00020532 0.0097052
0.00052337 0.00042491 -0.00082174 -0.00042897 -0.00036008 -0.00082077 0.0017024 -0.0020536
0.00029359 0.0097451 0.25474 0.17803
1760000000 0.2751 -0.061903 0.0043088 0.0066792 -0.0021794 0.0012133 0.0013741 -0.0034283
-0.0012203 0.00055982 0.00029483 -0.00044492
0.0042958 0.0066703 0.24228 0.20609 0.0001898 -0.0018609 -0.0012865 7.015e-06
-0.0011443 0.0008781 -0.00050019 0.00033253
-0.0021514 0.0012143 0.00016311 -0.0018406 0.20733 -0.22638 0.0010351 0.0013218
-0.0011586 0.001384 -0.0013124 -0.00060272
0.0013642 -0.0034738 -0.0012678 2.0987e-05 0.0010215 0.0013413 0.23623 -0.047155
-0.0010995 0.0079315 -0.00011445 -0.0024576
-0.0012037 0.00057183 -0.0011341 0.0008812 -0.0011517 0.0013544 -0.001085 0.0079332
0.21487 0.11106 0.0042209 0.0070817
0.00031434 -0.00049181 -0.0004917 0.00032737 -0.0013726 -0.00063041 -0.00014352 -0.0024222
0.0041211 0.0071376 0.26763 0.14048
1820000000 0.25253 -0.099262 0.0046377 0.0029527 0.00032504 0.002445 -0.00097165 -0.0030118
-0.0011591 0.00093446 -0.00012737 -0.00017355
0.0046369 0.002957 0.2537 0.17723 -0.001966 0.00026883 -0.0015418 0.00097392
-0.00014173 0.0012362 -0.00062667 0.00038983
0.0003121 0.0024263 -0.0019539 0.00028429 0.15682 -0.24078 0.0017382 0.00074012
-0.00035122 0.0023222 -0.001713 0.00020469
-0.0010166 -0.0030149 -0.0015516 0.0010042 0.001732 0.00069521 0.20726 -0.094378
4.3795e-05 0.0066937 -0.001741 -0.0017322
-0.0011657 0.00093882 -0.00011561 0.0012437 -0.00029276 0.0022702 6.5634e-05 0.0066917
0.23417 0.084468 0.005178 0.0032749
-7.0792e-05 -0.00026946 -0.00065963 0.00037466 -0.0017056 0.00024212 -0.0016994 -0.0017483
0.0052304 0.0032969 0.27167 0.10555
1880000000 0.21865 -0.14089 0.0024255 0.00074553 -0.00029217 0.0021907 -0.0028343 -0.0024191
-0.00020674 0.0016057 0.00024837 -0.00061117
0.0024326 0.00074468 0.25874 0.13071 -0.0036722 0.0028119 -0.00024076 0.0018813
0.00054364 0.0013877 0.00012595 0.0010131
-0.00025143 0.0021788 -0.0036738 0.0028363 0.1057 -0.24931 0.0022246 -0.00096999
0.0015964 0.0019521 -0.00099216 0.0015077
-0.0028362 -0.0024178 -0.00027675 0.0019163 0.0022116 -0.00090156 0.16683 -0.13568
0.00083531 0.0049991 -0.0023595 0.00041689
-0.00022479 0.0015757 0.00054513 0.0013544 0.0015498 0.0020074 0.00083265 0.0050039
0.23971 0.053924 0.005402 0.0012146
0.00026786 -0.00058052 0.00016413 0.00097071 -0.0010082 0.0015145 -0.0024035 0.00043105
0.0053262 0.0012114 0.27241 0.070778
1940000000 0.17983 -0.16713 0.0002859 -0.0010394 0.0015409 0.0017457 -0.0037848 0.00025775
0.0011994 0.00098988 -0.00065226 -0.00061343
0.00029038 -0.0010195 0.26029 0.099835 -0.0017522 0.0055038 0.0010663 0.0014739
0.0019673 0.00052819 0.00093359 0.00026263
0.0015226 0.001696 -0.0017307 0.0054687 0.06132 -0.24138 0.00050197 -0.0023374
0.0022254 0.00057473 0.00034332 0.0016205
-0.0037781 0.00026887 0.0010856 0.0014331 0.00050021 -0.0023891 0.11443 -0.16656
7.7392e-05 0.0037458 -0.0016002 0.0014985
0.0012427 0.0009561 0.0019941 0.0004886 0.0022289 0.00053277 6.6959e-05 0.0037749
0.24465 0.017578 0.0037831 -0.0024976
-0.00066391 -0.00059691 0.00095839 0.00028306 0.00034302 0.0016789 -0.0016127 0.0014851
0.003796 -0.0025083 0.262 0.035212
2000000000 0.13432 -0.18315 -0.0031567 0.00092028 0.0028315 0.0014722 -0.0024851 0.0036737
0.0010439 0.00042233 -0.00071299 0.00045256
-0.0031537 0.00092214 0.24771 0.064466 -0.00062344 0.0075946 0.0017937 0.00035461
0.0012432 -0.001311 0.00042392 8.4784e-05
0.0028807 0.001439 -0.00056032 0.0075965 0.019753 -0.22777 -0.0016637 -0.0016632
0.0020571 -0.0010244 0.001485 0.0016512
-0.0024638 0.0036815 0.0018051 0.00034396 -0.0016595 -0.0016825 0.061486 -0.17724
-0.0010113 0.0037787 1.6275e-05 0.0022272
0.0010225 0.00045998 0.0012431 -0.0012854 0.0020466 -0.0010604 -0.0009679 0.0037599
0.24282 -0.015115 0.00062674 -0.0035117
