!Keysight Technologies,M9804A,MY58100912,A.14.10.03
!Date: Thursday, April 27, 2023 10:28:33
!Correction: S11(C  6-Port  ) 
!S12(C  6-Port  ) 
!S13(C  6-Port  ) 
!S14(C  6-Port  ) 
!S15(C  6-Port  ) 
!S16(C  6-Port  ) 
!S21(C  6-Port  ) 
!S22(C  6-Port  ) 
!S23(C  6-Port  ) 
!S24(C  6-Port  ) 
!S25(C  6-Port  ) 
!S26(C  6-Port  ) 
!S31(C  6-Port  ) 
!S32(C  6-Port  ) 
!S33(C  6-Port  ) 
!S34(C  6-Port  ) 
!S35(C  6-Port  ) 
!S36(C  6-Port  ) 
!S41(C  6-Port  ) 
!S42(C  6-Port  ) 
!S43(C  6-Port  ) 
!S44(C  6-Port  ) 
!S45(C  6-Port  ) 
!S46(C  6-Port  ) 
!S51(C  6-Port  ) 
!S52(C  6-Port  ) 
!S53(C  6-Port  ) 
!S54(C  6-Port  ) 
!S55(C  6-Port  ) 
!S56(C  6-Port  ) 
!S61(C  6-Port  ) 
!S62(C  6-Port  ) 
!S63(C  6-Port  ) 
!S64(C  6-Port  ) 
!S65(C  6-Port  ) 
!S66(C  6-Port  ) 
!S6P File: Measurement: :
# Hz S  RI   R 50
500000000 -0.32838 -0.065428 -0.0096766 -0.0012888 -0.0084738 0.011665 -0.0049588 0.011552
0.012869 0.0065907 -0.0057313 0.0079478
-0.0099646 -0.0018046 -0.40953 -0.075495 0.0086315 -0.011285 0.0010175 0.011869
0.0088339 0.002968 0.0013956 0.014443
-0.0083963 0.011823 0.0087046 -0.011329 -0.2571 0.18962 0.0075737 0.0037186
-0.0025195 0.0077785 0.0022229 0.012945
-0.0046516 0.011702 0.0011589 0.011931 0.0075651 0.0038568 -0.3266 0.040964
-0.019565 -0.0065227 0.016489 0.027206
0.012547 0.0057712 0.0088117 0.0030703 -0.0022252 0.0079646 -0.019426 -0.006379
-0.22159 -0.23264 -0.028356 0.0018685
-0.005115 0.0079547 0.00167 0.014175 0.0020434 0.013576 0.016519 0.027856
-0.028065 0.0015604 -0.26002 -0.14378
560000000 -0.31659 0.10409 -0.022483 -0.067843 0.00028352 0.013569 0.0062833 0.011461
0.011491 0.0040683 0.011756 0.010606
-0.022074 -0.068038 -0.37169 0.091603 -0.041494 -0.0395 0.013589 0.001971
-0.014181 -0.0070118 0.0046402 -0.0030589
0.00012954 0.013435 -0.043011 -0.039267 -0.18211 0.23967 0.00018323 -0.0044791
0.018391 0.0072255 0.0082555 -0.0047454
0.0061677 0.011559 0.013179 0.002701 -1.6849e-05 -0.0047449 -0.30569 0.12955
0.0080136 -0.021149 0.0051525 -0.021991
0.01051 0.0043457 -0.014939 -0.0058371 0.017386 0.0067006 0.0079958 -0.021357
-0.30022 -0.049689 0.011176 -0.049848
0.012087 0.010355 0.0056947 -0.0020395 0.0073235 -0.0049148 0.0051592 -0.022039
0.011234 -0.050278 -0.3283 0.0049011
620000000 -0.27536 0.080758 -0.023333 0.0088243 0.0028724 0.0089332 0.0087615 -0.0043183
0.012705 -0.00018191 0.00198 -0.00026082
-0.023335 0.0089017 -0.39974 0.0355 -0.019578 7.3694e-05 -0.0019561 -0.0022695
0.012674 -0.0052713 0.00075258 -0.0030433
0.0030144 0.0088946 -0.019453 0.00020041 -0.15553 0.25063 -0.0014799 -0.004866
-0.003734 -0.0032961 0.0082627 -0.0033508
0.0089705 -0.0044437 -0.0019242 -0.0021403 -0.0015565 -0.0049794 -0.26234 0.13989
-0.040248 -0.020109 0.012967 0.028353
0.012315 0.00048128 0.012561 -0.0050883 -0.0035266 -0.0035721 -0.040092 -0.020065
-0.21498 -0.087178 -0.044494 0.01488
0.0012624 -0.00040542 0.00082723 -0.0030058 0.008127 -0.0034433 0.012477 0.028845
-0.044495 0.01405 -0.24545 -0.030631
680000000 -0.24177 0.17318 -0.026101 -0.015452 0.0048054 0.0054842 0.0014809 -0.0073684
-0.0021295 -0.012163 0.0054349 -0.006571
-0.026078 -0.015426 -0.39018 0.13661 -0.032936 -0.0023978 -0.0017575 -0.00037885
-0.0016156 -0.0094192 -0.00070061 -0.0019048
0.004859 0.0055804 -0.032906 -0.0023909 -0.10836 0.27219 -0.00056816 -8.9894e-05
-0.0013985 0.00079598 -0.0027551 -0.0094012
0.00158 -0.0073578 -0.0017623 -0.00050427 -0.00058578 8.6598e-06 -0.21924 0.19206
-0.02283 -0.0084529 -0.0083424 -0.011861
-0.0021306 -0.01186 -0.0016904 -0.0094232 -0.0016954 0.0010359 -0.022985 -0.0083223
-0.2818 0.015126 -0.0064697 -0.0079227
0.0054539 -0.0062686 -0.00093446 -0.0017384 -0.0028815 -0.0093729 -0.0084215 -0.01163
-0.0066205 -0.0081296 -0.26131 0.074456
740000000 -0.19547 0.16698 -0.040854 0.025928 0.013804 -0.0038885 0.00014178 -0.0040527
-0.0038896 -0.0026788 -0.0067516 0.0032763
-0.040969 0.026232 -0.33643 0.15667 -0.037409 0.034469 6.0423e-05 -0.0060893
-0.013305 0.0070702 -0.0011084 -0.0052448
0.013699 -0.0039514 -0.037093 0.035066 -0.075455 0.27325 -0.0019639 0.0033711
-0.0017973 -0.0053631 -0.0021394 0.0010437
0.0001438 -0.0038777 6.5135e-05 -0.006373 -0.0018921 0.0030299 -0.20336 0.19949
-0.042736 -0.0092422 0.022058 0.016614
-0.0039442 -0.0026795 -0.012744 0.0075698 -0.0016818 -0.005075 -0.042905 -0.0094385
-0.1788 0.048984 -0.044201 -0.0012084
-0.0063628 0.0032977 -0.0017235 -0.0056437 -0.0026792 0.0011243 0.022231 0.016265
-0.043578 -0.0016757 -0.25145 0.079084
800000000 -0.16674 0.21333 -0.023169 0.015515 0.0055007 -0.010431 -0.0044522 -0.0023199
-0.0042149 0.0015242 0.0037865 8.1419e-05
-0.023003 0.015926 -0.34523 0.22744 -0.0090711 0.034538 -0.0020547 0.002342
-7.2928e-05 0.002093 0.00054876 0.0052706
0.0055773 -0.010393 -0.0090026 0.034533 -0.037195 0.29902 0.0011476 0.0012394
-0.00013356 0.0031561 -0.0018039 0.0007687
-0.0045717 -0.0024537 -0.0021151 0.0020686 0.0011625 0.001156 -0.17469 0.22687
-0.029518 0.013161 0.01517 -0.010553
-0.0046908 0.0015146 -8.2836e-05 0.0021021 -0.00013317 0.0032181 -0.029483 0.013265
-0.23263 0.073065 -0.019031 0.019957
0.0041862 -8.886e-05 0.00072615 0.005458 -0.0015625 0.00092654 0.01534 -0.010589
-0.018943 0.019813 -0.24761 0.12989
860000000 -0.13292 0.23405 -0.018619 0.030666 -0.0029632 -0.010311 -0.0020395 0.00059855
0.0039031 0.0052279 -0.0031349 -0.0028999
-0.018613 0.030481 -0.29834 0.27288 0.0075942 0.035056 -0.00010127 0.0019924
0.0040078 0.00083613 0.0039146 0.00028999
-0.0030558 -0.010283 0.0074552 0.0352 0.010935 0.3098 -0.00053168 -0.00054263
0.0027778 -0.0016986 0.0019697 0.0040154
-0.0020332 0.0007391 1.9798e-05 0.0021125 -0.00054418 -0.00044567 -0.13872 0.23873
-0.018868 0.01787 -0.005945 -0.0093954
0.0039407 0.0053726 0.0039212 0.00067412 0.0027151 -0.001562 -0.019066 0.017959
-0.17763 0.13366 -0.025789 0.016941
-0.0031182 -0.0028805 0.0036296 0.00032565 0.0018815 0.0041991 -0.006306 -0.0092844
-0.025825 0.016644 -0.19925 0.17682
920000000 -0.11013 0.25794 0.0040627 0.039643 -0.009465 -0.0047066 -0.0019977 0.0017519
0.00022613 0.0019293 0.0027535 -0.0011818
0.0042045 0.03959 -0.27206 0.29501 0.028359 0.023474 0.0013785 0.0010947
0.0067796 3.6443e-05 0.0039208 -0.0024042
-0.0095499 -0.0046522 0.028423 0.023457 0.057449 0.31246 0.001693 -5.7583e-05
0.00044158 -0.00025291 0.00080924 -0.0014989
-0.0019138 0.0017864 0.001419 0.0012393 0.0017473 -6.5894e-05 -0.11522 0.25653
-0.012547 0.031259 0.0042121 -0.0066705
0.00035219 0.0018549 0.0069576 0.00019995 0.00050548 -0.00033492 -0.012474 0.031157
-0.17004 0.13846 -0.0030386 0.028816
0.0026866 -0.0011292 0.0039021 -0.0027023 0.0010025 -0.0016647 0.0040185 -0.0067718
-0.003008 0.029127 -0.2086 0.19206
980000000 -0.064082 0.28008 0.016524 0.031314 -0.0096428 0.0046267 0.0019487 0.0037798
0.0039031 -0.0014795 -0.0034427 -0.0026212
0.016527 0.031196 -0.22021 0.33233 0.033782 0.0054913 0.0019019 -0.00019115
0.0016842 -0.0061616 -0.00057413 -0.0028941
-0.0095769 0.0047124 0.033789 0.0053755 0.10425 0.30732 0.00048476 -0.0011233
0.00032198 -0.001841 0.0014771 -0.00030484
0.0019147 0.0036779 0.0019874 -0.00026738 0.00051624 -0.001142 -0.07669 0.26817
0.0072817 0.03115 -0.0097437 -0.0083488
0.0040006 -0.0016126 0.0015313 -0.0061734 0.00027252 -0.0018892 0.0072166 0.031139
-0.13965 0.17306 0.0055383 0.020524
-0.0034355 -0.0024992 -0.00048516 -0.0028773 0.0014196 -0.00037084 -0.0096452 -0.0081338
0.0054719 0.020575 -0.16691 0.2398
1040000000 -0.022989 0.28983 0.033429 0.020351 -0.0012122 0.007714 0.0024041 0.0005769
0.0004161 -0.0036945 -0.00027024 -0.0013329
0.033387 0.020408 -0.18535 0.34694 0.030322 -0.014596 0.0013499 -0.0018725
-0.0025547 -0.0026601 -0.0011385 -0.002971
-0.00118 0.0076779 0.030282 -0.014693 0.15097 0.29484 -0.0005802 -0.001505
-0.0015769 -0.0011503 -0.00057371 -0.0010165
0.0024184 0.00057884 0.0013536 -0.0018217 -0.00053232 -0.0015088 -0.049351 0.27874
0.019503 0.019881 -0.0023975 0.0011852
0.00047054 -0.0034301 -0.0025278 -0.0027111 -0.0014986 -0.00094324 0.019558 0.019983
-0.10739 0.18175 0.013377 0.020444
-0.00029789 -0.0014472 -0.0010118 -0.0027975 -0.00070507 -0.0010971 -0.0023635 0.0012539
0.01356 0.020351 -0.14618 0.26063
1100000000 0.021835 0.30036 0.037467 -0.0028395 0.0035688 0.0043939 0.0023422 -0.0010294
-0.0024155 -0.0033336 -0.004251 -9.473e-05
0.03736 -0.0028037 -0.14164 0.36735 0.015747 -0.028235 -0.00022819 -0.0017771
-0.003651 -0.00081199 -0.0037752 -0.00039437
0.0035907 0.0043416 0.015635 -0.028255 0.19802 0.27557 -0.0017942 0.00035687
-0.0016941 0.00077797 -0.00091834 -0.00065235
0.002439 -0.0010649 -0.00017322 -0.0017793 -0.0018099 0.00031659 -0.0087983 0.28425
0.025729 0.0061424 -0.0026223 7.431e-05
-0.0023746 -0.0033961 -0.0036209 -0.00075494 -0.0016358 0.00071895 0.025777 0.0060988
-0.089342 0.19844 0.020271 0.010022
-0.0041438 -0.00017964 -0.0037425 -0.00048419 -0.00093839 -0.00046897 -0.0026337 8.8743e-05
0.020133 0.0099676 -0.10113 0.29333
1160000000 0.072906 0.29746 0.02573 -0.020411 0.003532 -0.0007044 -0.00026496 -0.0023766
-0.0041733 -0.00098512 -0.0013111 0.0044084
0.025798 -0.020427 -0.097884 0.37281 -0.0036479 -0.029311 -0.0017053 -0.0015068
-0.0027275 0.0025946 -0.0017536 0.0019587
0.0035281 -0.00072278 -0.0037285 -0.029336 0.24198 0.24519 -0.00055119 0.0018298
-0.00046172 0.0019852 -0.0011065 0.00026942
-0.00031501 -0.0024409 -0.0016837 -0.0015272 -0.00062956 0.0018065 0.030934 0.28165
0.022682 -0.010404 -0.0036465 0.004989
-0.0041934 -0.00096942 -0.0027345 0.0024882 -0.00051233 0.001965 0.022636 -0.010482
-0.05472 0.20976 0.020151 0.00063556
-0.0013139 0.0043914 -0.0016235 0.0019736 -0.001093 0.00026039 -0.0036864 0.0050505
0.020153 0.00064274 -0.053968 0.29717
1220000000 0.11679 0.28922 0.012299 -0.030742 -0.0010238 -0.0015597 6.8634e-05 -0.00097111
-0.0028151 0.0022975 0.0011006 0.002022
0.012382 -0.030693 -0.052893 0.3876 -0.01719 -0.02138 -0.0025154 0.00056556
0.00011842 0.0031423 -0.00074453 0.0019566
-0.0010404 -0.0015534 -0.017294 -0.021331 0.28155 0.20655 0.0009496 0.0014439
0.00076862 0.0012004 2.9201e-05 0.00064445
2.0854e-05 -0.00091962 -0.0025831 0.00058177 0.00094679 0.0014986 0.071158 0.27336
0.011458 -0.017794 0.0021718 0.0015961
-0.0028803 0.0023783 0.00019849 0.0031702 0.00061515 0.0012514 0.011454 -0.01778
-0.032358 0.22134 0.015431 -0.013168
0.001115 0.0019845 -0.00080952 0.0020267 2.2521e-05 0.0005549 0.0021416 0.0016057
0.01547 -0.013154 -0.023146 0.3154
1280000000 0.16767 0.26974 -0.0071786 -0.029885 -0.0020736 0.0016439 -0.0010255 -0.0019783
-0.0011643 0.0034107 0.0025754 0.0013386
-0.0071561 -0.029872 -0.0055756 0.37949 -0.024246 -0.0080569 -0.0007586 0.0014401
0.0016854 0.0017341 0.00068994 0.0021525
-0.0020773 0.0016161 -0.024263 -0.0079367 0.31268 0.16294 0.0014587 -0.00016406
0.0011459 0.00031884 0.00016911 0.00040815
-0.0009804 -0.0019504 -0.0007426 0.0014543 0.0015104 -0.0001277 0.10807 0.25682
0.0012774 -0.020384 -0.00010901 8.2972e-05
-0.0011236 0.0034415 0.0016604 0.0016751 0.00109 0.0002974 0.001242 -0.020391
0.0046616 0.22743 0.0038905 -0.016018
0.0025734 0.0014048 0.00077937 0.0021748 9.3446e-05 0.00035897 -0.00021059 0.0001527
0.0039119 -0.01596 0.025065 0.31895
1340000000 0.20565 0.23774 -0.017494 -0.020331 0.00028542 0.0042071 -0.0018617 -0.00076469
0.0015399 0.0028929 0.0017585 -0.0014807
-0.017431 -0.020299 0.033953 0.37208 -0.021265 0.0049053 -0.00017256 0.0018638
0.0019028 0.00078391 0.0012266 0.00074237
0.00024335 0.0042794 -0.021265 0.0050179 0.33474 0.1156 0.00079096 -0.00096994
0.00061426 -0.00051665 0.00017961 0.00022219
-0.0018411 -0.00080699 -0.0001453 0.0018835 0.00079351 -0.00099287 0.14077 0.2366
-0.0089761 -0.017501 0.00089968 0.00064985
0.0016074 0.0028331 0.0019332 0.00072058 0.00071275 -0.0004605 -0.0089792 -0.017504
0.034456 0.22522 -0.0034847 -0.014477
0.0017463 -0.001527 0.0012333 0.0008137 9.311e-05 0.00021857 0.00091298 0.00062261
-0.0034727 -0.014474 0.062996 0.31562
1400000000 0.24058 0.20113 -0.024127 -0.0085788 0.0047832 0.0031802 -0.0021199 0.0008126
0.0027321 0.0010576 0.00034438 -0.0014158
-0.02409 -0.0085901 0.072538 0.35949 -0.0142 0.012922 0.0012961 0.0013009
0.0011443 -0.00069314 0.001182 0.00014604
0.0048214 0.0032007 -0.014143 0.012957 0.34865 0.062121 -0.00010219 -0.0013915
0.00015842 -0.00020718 0.00038512 0.00035175
-0.00215 0.00078712 0.0013097 0.0012767 -5.5722e-05 -0.0014164 0.17028 0.20786
-0.015463 -0.010001 -0.00085039 -0.00026268
0.0027167 0.0010745 0.0011059 -0.00068787 0.00024538 -0.00020983 -0.015496 -0.0099768
0.068248 0.22351 -0.010147 -0.0094097
0.00030737 -0.0014137 0.0012036 7.6351e-05 0.00042772 0.00047941 -0.0008213 -0.00024254
-0.01013 -0.0093986 0.10855 0.30599
1460000000 0.26416 0.15769 -0.021304 0.0044208 0.0051741 -0.0016996 -0.0014391 0.0016946
0.002366 -0.00046337 -0.00028108 -0.00092633
-0.021224 0.0044114 0.1066 0.33738 -0.0049052 0.015224 0.0015691 0.00027102
0.0010387 -0.0012575 0.0012235 -0.00058612
0.0052299 -0.0015622 -0.0047989 0.015294 0.35507 0.0077621 -0.0010824 -0.0010153
0.00031635 -0.00023551 0.00072262 -0.00042774
-0.0014641 0.0017151 0.0015584 0.00027077 -0.0011241 -0.001025 0.19656 0.17909
-0.016364 -0.0026077 -0.00085561 0.0020959
0.0024374 -0.00051411 0.0010256 -0.0013043 0.00036613 -0.00034542 -0.0164 -0.0025995
0.097946 0.21113 -0.012519 -0.0030012
-0.00031653 -0.00086149 0.0012319 -0.00055772 0.0007521 -0.00030356 -0.00082358 0.0020917
-0.012519 -0.0029883 0.14234 0.28588
1520000000 0.27754 0.11699 -0.015585 0.010347 0.003059 -0.0039588 0.00022436 0.0026661
0.0023374 -0.0019482 -0.0010762 -4.4566e-05
-0.015619 0.010298 0.14033 0.32403 0.0025122 0.012238 0.0016807 -0.00065483
0.00014716 -0.001033 0.0002756 -0.0009265
0.0032466 -0.0040122 0.0025561 0.012312 0.34825 -0.048491 -0.00078697 -0.00026417
0.00070367 -0.00098226 6.4747e-05 -0.00015744
0.00020276 0.0026481 0.0016675 -0.00065587 -0.00077421 -0.00029557 0.22015 0.1414
-0.015361 0.0034661 0.0016228 0.0021054
0.0023388 -0.0020411 0.00012265 -0.0010291 0.00063125 -0.0010628 -0.015365 0.0035187
0.12638 0.20033 -0.012127 0.0017268
-0.0010707 -9.8612e-05 0.00025249 -0.00094295 0.00018598 -0.00027068 0.0016257 0.0020808
-0.012142 0.0017241 0.1756 0.26776
1580000000 0.28789 0.071446 -0.0085723 0.013992 -0.0010976 -0.0045727 0.0014872 0.0017272
-0.00018482 -0.002436 -0.00029277 0.00038062
-0.0086483 0.013962 0.16779 0.29937 0.005665 0.0068777 0.00059774 -0.0015121
-0.0004945 -0.001095 -0.00021534 -0.00071303
-0.0012146 -0.0047965 0.0057687 0.0068947 0.32828 -0.10605 -0.0014877 0.00029659
-0.00052417 -0.0013237 0.00036034 -0.00053335
0.0015347 0.0017168 0.00059455 -0.0014994 -0.0014369 0.00029885 0.23431 0.10239
-0.011139 0.0086192 0.0022421 0.00074241
-0.00022602 -0.0023921 -0.00047985 -0.0010826 -0.00055906 -0.0013024 -0.011124 0.0086855
0.15173 0.18471 -0.0095407 0.0079804
-0.00029284 0.00034886 -0.00020052 -0.0007 0.00025647 -0.00060018 0.0022158 0.00069996
-0.0095621 0.0079883 0.20925 0.24217
1640000000 0.29091 0.031025 -0.0013939 0.012711 -0.0028815 -0.0020231 0.0027167 0.0010651
-0.00082927 -0.0017531 -0.00032365 0.00037185
-0.0014086 0.012732 0.19705 0.27595 0.0055441 0.0020363 -0.0004937 -0.0018101
-0.00093095 -0.0004818 -0.00045715 -0.0006298
-0.003005 -0.0022146 0.0056252 0.0020127 0.29936 -0.15528 -0.00064169 0.0012475
-0.0011453 -0.0010442 -8.0024e-05 -0.00032653
0.0027252 0.00099578 -0.00050901 -0.0018215 -0.0007157 0.0012615 0.24719 0.054099
-0.0063113 0.009201 0.0025544 -0.00071958
-0.0008067 -0.0017566 -0.00094681 -0.00048574 -0.0011426 -0.0010445 -0.0062948 0.0092203
0.17521 0.16333 -0.0044601 0.010011
-0.0003013 0.00039741 -0.00045753 -0.0006229 -0.00020838 -0.00034989 0.0025512 -0.00068799
-0.0045025 0.01002 0.23507 0.21231
1700000000 0.28536 -0.013438 0.0022199 0.0096618 -0.0032261 0.00035484 0.0031278 -0.0012697
-0.002249 -0.00057581 0.00042896 0.00042489
0.0021922 0.0096934 0.21592 0.24523 0.0027842 -0.00054234 -0.0014287 -0.0007079
-0.0007703 -0.00010729 -0.00085547 -0.00044332
-0.0034173 0.00054477 0.0028767 -0.00057671 0.25564 -0.19425 0.00023971 0.001454
-0.0019445 -0.00014821 -0.00056736 -0.0010172
0.0030669 -0.0013177 -0.0014296 -0.00069542 0.00023111 0.0015338 0.24484 0.0044398
-0.0035841 0.0093031 0.0017195 -0.002078
-0.002264 -0.00056624 -0.00077068 -8.7052e-05 -0.0019686 -8.0041e-05 -0.003553 0.0093131
0.19435 0.14558 0.00066976 0.010066
0.00047333 0.00040405 -0.00085892 -0.00041813 -0.00047164 -0.00097218 0.0017554 -0.0021098
0.00066264 0.010116 0.25325 0.17904
1760000000 0.27455 -0.061714 0.0044707 0.0061932 -0.0018418 0.0012215 0.001353 -0.003472
-0.0013487 0.00076043 0.00021821 -0.00055411
0.0044846 0.0061981 0.24217 0.2065 9.6173e-06 -0.0017237 -0.0012851 6.12e-05
-0.0011061 0.00084712 -0.0004669 0.00030962
-0.0019748 0.00128 9.9874e-05 -0.0018485 0.20638 -0.22668 0.0010693 0.0012546
-0.001056 0.0014835 -0.0012471 -0.0006594
0.0013111 -0.0035107 -0.0012628 5.6327e-05 0.001167 0.0013511 0.23638 -0.047142
-0.00051253 0.0080421 -5.4256e-05 -0.002505
-0.0012672 0.0007373 -0.0011063 0.00089796 -0.0011822 0.0014574 -0.00048302 0.0080302
0.21049 0.11331 0.0045983 0.007271
0.00016193 -0.00054985 -0.0004785 0.0002974 -0.0013051 -0.00073133 -4.1467e-05 -0.0025081
0.0046571 0.0072786 0.26682 0.14182
1820000000 0.25223 -0.098977 0.004478 0.0026441 3.5759e-05 0.0023459 -0.00094452 -0.0031074
-0.0010626 0.00095659 -0.00014391 -1.8606e-06
0.004477 0.0026515 0.25352 0.17762 -0.0021462 0.00012148 -0.0014712 0.00094147
-8.7309e-05 0.0011726 -0.00068694 0.00040948
0.00019887 0.0024219 -0.0022176 -5.5097e-05 0.15654 -0.24061 0.001771 0.00059451
-0.00015255 0.0022484 -0.0018715 0.000226
-0.0009545 -0.003066 -0.0014795 0.00094065 0.0017531 0.00049693 0.20777 -0.09461
0.0006661 0.0064891 -0.0016093 -0.0017727
-0.0010269 0.00096826 -5.6441e-05 0.0011619 -0.00015648 0.0022714 0.00068741 0.0064664
0.23004 0.086836 0.0056394 0.0034704
-7.5252e-05 4.1602e-05 -0.00067817 0.00042487 -0.0017911 0.0002551 -0.0016419 -0.0018272
0.0056714 0.0034118 0.27069 0.10682
1880000000 0.21853 -0.14022 0.0022394 0.000554 -4.2775e-05 0.0021816 -0.0028368 -0.0023141
-4.7908e-05 0.0016296 0.00037176 -0.00053762
0.0022052 0.00051885 0.25875 0.13154 -0.0037789 0.0028811 -0.00030858 0.0018277
0.00047835 0.0012911 0.0001195 0.00091939
-0.00012045 0.0023027 -0.0040502 0.0028952 0.10611 -0.24854 0.0020816 -0.0011881
0.0015917 0.0018627 -0.00090582 0.001558
-0.0027916 -0.0023213 -0.00028035 0.0018512 0.0021118 -0.0012044 0.16752 -0.13564
0.0011277 0.0047051 -0.0024096 8.1736e-05
-1.5826e-05 0.0016411 0.00048067 0.0013256 0.0017292 0.0018834 0.0011357 0.0047114
0.23614 0.057389 0.0059604 0.0010048
0.00034617 -0.00060392 0.00010155 0.00089052 -0.00091868 0.001606 -0.0024626 7.9317e-05
0.0059454 0.00093136 0.27232 0.072541
1940000000 0.18026 -0.16676 0.00028958 -0.0010549 0.0018253 0.0020067 -0.0038132 0.00029039
0.0013143 0.00074571 -0.00055648 -0.00070545
0.0001193 -0.0010978 0.26102 0.10064 -0.0016455 0.0057284 0.0010786 0.001395
0.001926 0.00053029 0.00099152 0.00024862
0.0017621 0.0018345 -0.0018449 0.0058704 0.063012 -0.24148 0.00061695 -0.0024599
0.0023299 0.00046386 0.00043164 0.0017343
-0.003862 0.00024624 0.0010821 0.0013655 0.00049538 -0.0024657 0.11538 -0.16691
0.00036702 0.0033015 -0.0018478 0.001528
0.0012889 0.00076328 0.0019423 0.00050624 0.0023234 0.00045719 0.00036895 0.0033087
0.24179 0.021192 0.0042951 -0.0029669
-0.00049444 -0.00073069 0.00096335 0.00028984 0.0004489 0.0017735 -0.0018958 0.0016237
0.0042288 -0.0029587 0.26221 0.036647
2000000000 0.13534 -0.18266 -0.0034259 0.00093892 0.0028142 0.0011202 -0.0023447 0.0036272
0.00090016 0.00026922 -0.00081208 0.00037754
-0.0033786 0.00098814 0.24845 0.065105 -0.00059506 0.0074407 0.0017384 0.00035676
0.0012893 -0.0011749 0.00040285 6.2408e-05
0.0029423 0.0012254 -0.00050279 0.007867 0.020931 -0.22888 -0.0014511 -0.0015403
0.0021262 -0.00097646 0.001751 0.0015104
-0.0023776 0.0037228 0.0017475 0.00031343 -0.0014709 -0.0015156 0.062114 -0.17805
-0.0011037 0.0032291 -0.00026342 0.0021104
0.00081684 0.00032904 0.0012975 -0.0012374 0.0020702 -0.0010694 -0.0010994 0.0032045
0.24021 -0.011137 0.00060027 -0.004004
