!Keysight Technologies,M9804A,MY58100912,A.14.10.03
!Date: Thursday, April 27, 2023 10:28:33
!Correction: S11(C  6-Port  ) 
!S12(C  6-Port  ) 
!S13(C  6-Port  ) 
!S14(C  6-Port  ) 
!S15(C  6-Port  ) 
!S16(C  6-Port  ) 
!S21(C  6-Port  ) 
!S22(C  6-Port  ) 
!S23(C  6-Port  ) 
!S24(C  6-Port  ) 
!S25(C  6-Port  ) 
!S26(C  6-Port  ) 
!S31(C  6-Port  ) 
!S32(C  6-Port  ) 
!S33(C  6-Port  ) 
!S34(C  6-Port  ) 
!S35(C  6-Port  ) 
!S36(C  6-Port  ) 
!S41(C  6-Port  ) 
!S42(C  6-Port  ) 
!S43(C  6-Port  ) 
!S44(C  6-Port  ) 
!S45(C  6-Port  ) 
!S46(C  6-Port  ) 
!S51(C  6-Port  ) 
!S52(C  6-Port  ) 
!S53(C  6-Port  ) 
!S54(C  6-Port  ) 
!S55(C  6-Port  ) 
!S56(C  6-Port  ) 
!S61(C  6-Port  ) 
!S62(C  6-Port  ) 
!S63(C  6-Port  ) 
!S64(C  6-Port  ) 
!S65(C  6-Port  ) 
!S66(C  6-Port  ) 
!S6P File: Measurement: :
# Hz S  RI   R 50
500000000 -0.32886 -0.065435 -0.0099416 -0.00062731 -0.0079103 0.012256 -0.0039098 0.012197
0.01278 0.005751 -0.0040471 0.0086398
-0.0098873 -0.00056124 -0.40927 -0.075597 0.0091751 -0.011319 0.0016707 0.011674
0.008256 0.0035606 0.0018483 0.012907
-0.0079245 0.012209 0.0091727 -0.011363 -0.2598 0.18787 0.0068669 0.0031805
-0.0015443 0.0082227 0.00039544 0.012064
-0.0038975 0.012222 0.0016892 0.011677 0.0068616 0.0031795 -0.32798 0.038046
-0.019331 -0.0040014 0.016355 0.026031
0.012899 0.0059324 0.0083243 0.0035213 -0.0015327 0.0082487 -0.019256 -0.0039833
-0.22622 -0.22513 -0.027966 0.0051609
-0.00406 0.008851 0.0020073 0.013135 0.00063309 0.012033 0.01603 0.026301
-0.027934 0.0050971 -0.264 -0.14424
560000000 -0.31909 0.1002 -0.021396 -0.06804 0.00037414 0.01317 0.004706 0.011462
0.011657 0.0050967 0.010169 0.0088927
-0.021344 -0.067898 -0.3732 0.090084 -0.041047 -0.040063 0.014131 0.0032323
-0.012478 -0.0050239 0.0033193 -0.00031764
0.00041109 0.013106 -0.041185 -0.040022 -0.18459 0.23919 -0.00086434 -0.0056306
0.016886 0.0061268 0.0082561 -0.006194
0.0046867 0.011418 0.014152 0.0032514 -0.00085841 -0.0056397 -0.30561 0.13009
0.0073495 -0.023108 0.0049818 -0.021453
0.01164 0.0052352 -0.012617 -0.0049143 0.016879 0.0060671 0.0073614 -0.02321
-0.30244 -0.045593 0.012402 -0.049301
0.01016 0.0090834 0.0033439 -0.00021334 0.0081409 -0.0061032 0.0052982 -0.021523
0.012587 -0.049704 -0.33167 0.0081629
620000000 -0.27707 0.080213 -0.023174 0.0086995 0.0032275 0.0090992 0.0084555 -0.0044231
0.012042 -0.00075811 -0.00016983 -0.0021142
-0.023172 0.0086951 -0.40074 0.035356 -0.018817 -0.0003115 -0.0017114 -0.002185
0.012116 -0.0055281 0.00086918 -0.003395
0.0032615 0.0091036 -0.018849 -0.00026792 -0.15696 0.24885 -0.00095827 -0.005658
-0.0041926 -0.0022418 0.0095628 -0.0039004
0.0084757 -0.0043902 -0.00175 -0.0021963 -0.00099369 -0.0056589 -0.26323 0.13834
-0.038293 -0.019431 0.012556 0.02556
0.01183 -0.0012474 0.012029 -0.0056344 -0.0042303 -0.0022383 -0.0384 -0.019102
-0.22224 -0.081379 -0.042132 0.015295
-0.00017895 -0.002021 0.00076616 -0.0034478 0.0094631 -0.0039985 0.012526 0.025837
-0.041305 0.014737 -0.24488 -0.033051
680000000 -0.24254 0.17322 -0.026646 -0.015604 0.0042206 0.0059896 0.0008964 -0.0070562
-0.0020142 -0.011785 0.0056919 -0.0062825
-0.026637 -0.015591 -0.39129 0.13687 -0.033226 -0.002764 -0.0018953 -0.00013348
-0.0018372 -0.009755 -0.0012681 -0.0013783
0.0042152 0.0060597 -0.033254 -0.0026855 -0.10925 0.27153 -0.00076491 0.00019659
-0.0013169 0.00068693 -0.0028319 -0.0089147
0.0008258 -0.0069688 -0.0018775 -0.0001433 -0.00075782 0.00019828 -0.22032 0.19082
-0.023351 -0.0080065 -0.0083586 -0.010328
-0.0018753 -0.012028 -0.0017938 -0.0097922 -0.0012866 0.00071774 -0.023403 -0.0080642
-0.28132 0.022362 -0.0067745 -0.009029
0.0057773 -0.0063131 -0.0012638 -0.0012719 -0.0027604 -0.0088881 -0.0083802 -0.010433
-0.0070336 -0.008361 -0.26184 0.077998
740000000 -0.19757 0.16597 -0.040902 0.026839 0.013446 -0.0038801 0.00015778 -0.0042571
-0.0034745 -0.0021086 -0.0067716 0.002705
-0.040923 0.026808 -0.3385 0.1567 -0.038139 0.034434 8.8089e-05 -0.0059084
-0.013268 0.0079156 -0.0010704 -0.0060699
0.013399 -0.0039046 -0.038073 0.034588 -0.076808 0.27189 -0.0018141 0.0032703
-0.0011728 -0.0053569 -0.002031 0.00060935
0.0001981 -0.0043012 8.7374e-05 -0.0059196 -0.0018169 0.0032785 -0.20501 0.19823
-0.042189 -0.0094321 0.022339 0.015785
-0.0033787 -0.0017738 -0.013365 0.0078864 -0.0012266 -0.0053862 -0.042204 -0.0093524
-0.18264 0.053937 -0.042817 -0.00053333
-0.0066578 0.002827 -0.0014053 -0.0060234 -0.0020461 0.00057629 0.022316 0.015734
-0.0433 -0.00092182 -0.25269 0.08067
800000000 -0.16706 0.21308 -0.02307 0.016012 0.0061879 -0.010215 -0.0044732 -0.0024029
-0.0048831 0.0016599 0.0053373 0.00038059
-0.023035 0.016008 -0.34622 0.2283 -0.009428 0.034889 -0.0021445 0.002075
-0.00074066 0.002315 0.0013833 0.0054294
0.0061941 -0.010244 -0.0093343 0.034949 -0.037876 0.29835 0.001229 0.0011979
9.8196e-05 0.0032465 -0.0013923 0.00071548
-0.0044705 -0.0022336 -0.0021185 0.0021065 0.001225 0.0011953 -0.17581 0.22642
-0.029308 0.012421 0.014552 -0.0099625
-0.004777 0.0017326 -0.00073337 0.0022888 9.1995e-05 0.0032497 -0.02924 0.012467
-0.23143 0.079509 -0.018453 0.020499
0.005278 0.00053199 0.0013344 0.0053054 -0.0014357 0.00072792 0.014713 -0.0099355
-0.018502 0.020259 -0.24688 0.13272
860000000 -0.13393 0.23379 -0.019077 0.030446 -0.0031748 -0.0104 -0.0021416 0.00045358
0.0045355 0.0050736 -0.0040945 -0.0029973
-0.019086 0.030443 -0.29955 0.27287 0.0069661 0.035242 1.1536e-05 0.0021361
0.0041511 8.5426e-05 0.0035336 0.00039435
-0.0032353 -0.010366 0.0070813 0.035273 0.0097175 0.30876 -0.00060806 -0.0004
0.0023146 -0.0018481 0.0014572 0.0042707
-0.0022006 0.00031341 -5.0509e-06 0.0021764 -0.00061091 -0.00040234 -0.14045 0.23839
-0.019143 0.017503 -0.0062626 -0.0097942
0.0045256 0.0051572 0.0041143 0.0001073 0.0022947 -0.0018491 -0.019143 0.017651
-0.17703 0.13658 -0.026025 0.016803
-0.0041482 -0.0030499 0.0035595 0.00038331 0.0014766 0.004277 -0.0063955 -0.0098925
-0.025547 0.016815 -0.1982 0.17965
920000000 -0.11076 0.25828 0.0038854 0.039937 -0.0095804 -0.004833 -0.0018914 0.001812
0.00041874 0.001846 0.0027646 -0.0016866
0.0038845 0.039917 -0.27255 0.29581 0.028228 0.023794 0.0012347 0.00099138
0.0073277 -0.00012218 0.0038873 -0.0028414
-0.0096188 -0.0048338 0.028338 0.023744 0.056426 0.31149 0.0017058 -0.00015057
0.00045526 -0.00040397 0.00091348 -0.001513
-0.0018419 0.0018513 0.0012373 0.00098365 0.0017051 -0.0001423 -0.1163 0.25618
-0.012653 0.030977 0.0041806 -0.0065374
0.00037817 0.0017769 0.0073336 -0.00016863 0.00046037 -0.00042828 -0.012631 0.030998
-0.16774 0.14356 -0.0035594 0.028306
0.0028395 -0.0017723 0.0038921 -0.0029809 0.00092711 -0.0015227 0.0041527 -0.0064895
-0.0035601 0.028392 -0.20629 0.19335
980000000 -0.064543 0.27969 0.016182 0.031272 -0.0096165 0.0047704 0.0017535 0.0037016
0.0038908 -0.0014294 -0.0033068 -0.0024638
0.016142 0.031266 -0.22031 0.33252 0.033753 0.0059881 0.0018692 -0.00025615
0.0016159 -0.0061781 -0.00044973 -0.0028403
-0.0096119 0.0047961 0.033805 0.0059073 0.10288 0.30605 0.00055204 -0.0010975
0.00032949 -0.0017761 0.001572 -0.00039142
0.0017509 0.0036565 0.0018629 -0.00025011 0.00054418 -0.0010968 -0.078141 0.26749
0.0063485 0.030981 -0.0095817 -0.0077592
0.0039422 -0.0014639 0.0016036 -0.0061973 0.00032324 -0.0017588 0.0063652 0.030951
-0.13681 0.17784 0.0049113 0.020743
-0.0033436 -0.0023724 -0.00040259 -0.0027707 0.0015479 -0.00040435 -0.009495 -0.00797
0.0050559 0.020975 -0.16571 0.24041
1040000000 -0.023907 0.29051 0.033427 0.020613 -0.0011514 0.0078016 0.0028224 0.00071373
0.00034551 -0.0034328 3.2982e-06 -0.0015087
0.033396 0.020626 -0.18537 0.34743 0.030627 -0.014234 0.0015038 -0.0016583
-0.0024258 -0.0025064 -0.0012855 -0.0027994
-0.0011769 0.0077982 0.030615 -0.01435 0.1492 0.29426 -0.00050425 -0.0014174
-0.0015927 -0.0009112 -0.00053037 -0.0011241
0.0029032 0.00069061 0.0014873 -0.0016483 -0.00050225 -0.0014146 -0.050722 0.27861
0.019175 0.019721 -0.0024758 0.0015526
0.00033334 -0.003416 -0.0024322 -0.002498 -0.0015742 -0.00090418 0.01924 0.019704
-0.10475 0.18686 0.013495 0.019034
-8.2718e-06 -0.0015748 -0.001311 -0.002781 -0.00054712 -0.0011433 -0.002443 0.0016822
0.013249 0.019079 -0.14458 0.26246
1100000000 0.021308 0.30038 0.037369 -0.0023001 0.003665 0.0043128 0.0024304 -0.0012058
-0.0022311 -0.0032233 -0.0040799 1.215e-05
0.037323 -0.0022788 -0.14152 0.3674 0.016185 -0.0281 -9.9425e-05 -0.0018571
-0.0033316 -0.00082808 -0.0037348 -0.00048018
0.0036697 0.0042975 0.016104 -0.028179 0.19641 0.27513 -0.0017604 0.00025501
-0.0015864 0.00071121 -0.0011976 -0.00075989
0.0024031 -0.0011827 -0.00011462 -0.0018464 -0.001773 0.00025309 -0.0098029 0.28389
0.025233 0.0063272 -0.0025346 0.00031323
-0.0022526 -0.0032061 -0.0033484 -0.0008022 -0.0015904 0.00071432 0.025225 0.0063019
-0.08629 0.20236 0.020206 0.010063
-0.0040166 0.00012241 -0.003687 -0.00044712 -0.0011762 -0.00074136 -0.0025069 0.00023473
0.020335 0.010109 -0.099376 0.29349
1160000000 0.072533 0.29754 0.025891 -0.020066 0.003705 -0.00069754 -0.00023128 -0.0026294
-0.0042484 -0.0009564 -0.0011718 0.0043502
0.025902 -0.020065 -0.097845 0.37246 -0.0031633 -0.029516 -0.0016067 -0.0017062
-0.0025175 0.0024364 -0.0015751 0.0019837
0.0036944 -0.00072225 -0.0032722 -0.029519 0.23983 0.24525 -0.00064748 0.0016926
-0.00043915 0.0017796 -0.0012383 0.00025442
-0.00016064 -0.0026566 -0.0016054 -0.0016919 -0.00064757 0.0016935 0.029368 0.28133
0.022012 -0.01013 -0.0035173 0.0052907
-0.0041998 -0.00090724 -0.0024971 0.002464 -0.00042305 0.0017793 0.021991 -0.010141
-0.051574 0.21281 0.019236 0.00077315
-0.00121 0.0043379 -0.0016216 0.0020934 -0.00119 0.00024797 -0.0035259 0.0053704
0.019139 0.00080251 -0.051803 0.29764
1220000000 0.11631 0.28936 0.012581 -0.030482 -0.0010819 -0.0017291 -0.0001539 -0.00091377
-0.0028953 0.0022799 0.0012047 0.0019941
0.012599 -0.030435 -0.052952 0.38735 -0.016936 -0.021738 -0.0025412 0.00059344
6.6737e-05 0.0030059 -0.00078331 0.0019294
-0.0010805 -0.0017293 -0.017037 -0.021687 0.27989 0.20729 0.00090888 0.0015145
0.00058846 0.0011034 0.00025483 0.00066902
-0.00016913 -0.00090614 -0.0025379 0.00060419 0.00091429 0.0015125 0.069554 0.27362
0.011031 -0.017221 0.0023667 0.001718
-0.002888 0.0022982 7.6587e-05 0.0030049 0.00059415 0.0011128 0.011014 -0.017234
-0.028669 0.22446 0.014991 -0.012465
0.0012721 0.0020242 -0.00074378 0.0019319 0.0002514 0.00067295 0.002368 0.0017241
0.014983 -0.012425 -0.021278 0.31571
1280000000 0.1675 0.26932 -0.0066812 -0.029958 -0.0020811 0.0016199 -0.00091823 -0.0019468
-0.00079175 0.0034135 0.0026055 0.0013045
-0.0066602 -0.029941 -0.0059281 0.37888 -0.024156 -0.0084666 -0.00076414 0.0013873
0.0017339 0.0016186 0.00072313 0.0021146
-0.002074 0.0016433 -0.024223 -0.008371 0.31138 0.16356 0.0013995 -0.00018905
0.0010534 0.00030726 0.00030131 0.00044613
-0.00091118 -0.0019569 -0.00076548 0.00138 0.0014009 -0.00018197 0.10647 0.25714
0.0015456 -0.019487 2.0761e-06 -2.2811e-05
-0.00075679 0.0034089 0.0017462 0.0016136 0.0010483 0.00029962 0.0015102 -0.019479
0.0093123 0.23038 0.0038617 -0.015968
0.0025516 0.0013174 0.00065097 0.0020907 0.00030403 0.00043399 -4.8271e-05 7.6143e-06
0.0038659 -0.016043 0.026608 0.31911
1340000000 0.20482 0.23796 -0.017067 -0.020578 7.5907e-05 0.0041421 -0.0017531 -0.00070412
0.001422 0.0028165 0.0016972 -0.0014948
-0.017038 -0.020574 0.033311 0.3719 -0.021456 0.0044609 -0.00013814 0.0019266
0.0018227 0.00078792 0.0011806 0.00074747
9.526e-05 0.0041323 -0.021461 0.0045694 0.33375 0.11657 0.00076872 -0.00092445
0.00055875 -0.00059494 4.3171e-05 0.00020108
-0.0017859 -0.00067869 -0.00013248 0.0019272 0.00076823 -0.0009267 0.13928 0.23753
-0.0083477 -0.016626 0.0011212 0.00045203
0.0014492 0.0028074 0.001818 0.0007736 0.00056217 -0.00058518 -0.0083845 -0.01661
0.038547 0.2277 -0.002926 -0.01412
0.001753 -0.001504 0.0011831 0.00072978 2.5655e-05 0.00020343 0.0011242 0.00045663
-0.002964 -0.014096 0.064518 0.31531
1400000000 0.24 0.20122 -0.023931 -0.0089372 0.0046619 0.0032863 -0.0020914 0.00071245
0.0026599 0.0009618 0.00038048 -0.0014223
-0.023914 -0.0089466 0.072047 0.35952 -0.014514 0.012647 0.0011899 0.0012808
0.0011111 -0.0006746 0.0011416 0.0001699
0.0046754 0.0032668 -0.014474 0.012729 0.34792 0.062872 -0.00010185 -0.0012839
0.00016544 -0.00023259 0.00045015 0.00031394
-0.0020922 0.00071598 0.0011707 0.0012897 -0.00010333 -0.0012803 0.16927 0.20884
-0.014522 -0.0096815 -0.00088713 -0.00039789
0.0026422 0.00096363 0.0011173 -0.00067445 0.00015525 -0.00023561 -0.014561 -0.0096667
0.073191 0.2252 -0.0097769 -0.009451
0.00034512 -0.0014049 0.0011514 0.00016691 0.00051928 0.00032477 -0.00091287 -0.00039407
-0.0098056 -0.0094719 0.11009 0.30607
1460000000 0.26334 0.15806 -0.021252 0.0039102 0.0053106 -0.0015438 -0.0014966 0.0016679
0.0022268 -0.0004889 -0.00027276 -0.00085869
-0.021242 0.0038912 0.10606 0.33766 -0.0053494 0.015331 0.001584 0.0003082
0.0010693 -0.0011818 0.0012662 -0.00058646
0.0053091 -0.001575 -0.0052789 0.015377 0.35425 0.0083348 -0.0010833 -0.0010148
0.00026642 -0.00012948 0.00069122 -0.00027372
-0.0014975 0.0016798 0.0015827 0.00030775 -0.0010844 -0.0010241 0.19578 0.18016
-0.015317 -0.0029097 -0.0010134 0.0018144
0.0022032 -0.00048637 0.0010606 -0.0011822 0.0002648 -0.00013676 -0.015314 -0.0028745
0.1028 0.21217 -0.012064 -0.0031867
-0.00021127 -0.00086713 0.0012735 -0.00060609 0.00070154 -0.00025542 -0.0010105 0.0018089
-0.011987 -0.0031336 0.14328 0.28586
1520000000 0.27697 0.11777 -0.01583 0.0099371 0.0032491 -0.0038922 0.00016284 0.0026199
0.0021766 -0.0019778 -0.0010381 -9.7775e-05
-0.015824 0.0099297 0.14001 0.32442 0.0022797 0.012469 0.0016906 -0.00058911
0.00014672 -0.00093901 0.00026861 -0.00097773
0.0032272 -0.0039167 0.0023431 0.012471 0.34759 -0.04747 -0.00071921 -0.00028528
0.00059819 -0.00088818 0.00015916 -0.0001564
0.00017216 0.0026073 0.0016928 -0.00059574 -0.00071961 -0.00028707 0.21979 0.14263
-0.014645 0.0028575 0.00139 0.0020561
0.0021724 -0.001965 0.00014212 -0.00092862 0.00059942 -0.00088167 -0.01465 0.0028889
0.13142 0.20103 -0.011907 0.0012704
-0.0010193 -6.8577e-05 0.00027558 -0.00099941 0.00016158 -0.0001585 0.0013788 0.0020206
-0.0119 0.0013496 0.17718 0.2674
1580000000 0.28771 0.072013 -0.008983 0.013766 -0.0010552 -0.0045844 0.0014688 0.0018594
-0.00030491 -0.0022166 -0.00022641 0.00025644
-0.0089915 0.013771 0.16776 0.29968 0.0055784 0.0072583 0.00063378 -0.0015202
-0.00042626 -0.0011242 -0.0002123 -0.00071035
-0.001067 -0.0045643 0.0056282 0.0072409 0.32791 -0.10556 -0.0014485 0.00025986
-0.00039104 -0.0013021 0.0002543 -0.00055814
0.0014859 0.0018533 0.0006418 -0.0015264 -0.0014449 0.00026281 0.23436 0.1031
-0.010881 0.0076522 0.0020943 0.00081435
-0.00031474 -0.0022404 -0.00043896 -0.0011232 -0.00040726 -0.0013089 -0.010859 0.0076845
0.15658 0.18425 -0.0094892 0.0074633
-0.00018514 0.00028104 -0.00021088 -0.00069598 0.00025674 -0.0005732 0.0021005 0.00082543
-0.0094607 0.0074105 0.21033 0.24161
1640000000 0.29084 0.031805 -0.001855 0.012728 -0.0028041 -0.0022562 0.0027493 0.0010801
-0.00066817 -0.0016244 -0.00032383 0.00042424
-0.001866 0.012726 0.19701 0.2762 0.0055814 0.0023231 -0.00043114 -0.0018726
-0.00085163 -0.00052185 -0.00044698 -0.00066161
-0.0028145 -0.0022452 0.0055915 0.0022921 0.29843 -0.15386 -0.00067997 0.0011694
-0.00092633 -0.0010698 -0.00018281 -0.00049953
0.0027644 0.0010793 -0.00045151 -0.0018618 -0.00067629 0.001168 0.24716 0.054806
-0.006714 0.0084653 0.002417 -0.00062233
-0.00066166 -0.0016248 -0.00085453 -0.00051029 -0.00092644 -0.0010665 -0.0066814 0.0084836
0.17979 0.16253 -0.0046292 0.0095736
-0.00033446 0.00039415 -0.00046196 -0.00065558 -0.00023579 -0.00049514 0.0023987 -0.00062264
-0.0046197 0.0096088 0.23632 0.21169
1700000000 0.286 -0.012977 0.0018385 0.0099831 -0.0033799 0.00041687 0.0030881 -0.0012594
-0.0021041 -0.00062561 0.00053407 0.00037422
0.0018376 0.0099842 0.2162 0.24524 0.0029323 -0.00044496 -0.0014692 -0.00079878
-0.00080891 -0.00015453 -0.00078194 -0.00044206
-0.0033748 0.00043529 0.0029357 -0.00046288 0.25602 -0.1933 2.4746e-05 0.0015273
-0.0021046 -0.00018295 -0.00032924 -0.00087317
0.0030649 -0.0012758 -0.0014677 -0.00079166 2.4225e-05 0.0015264 0.24504 0.0048555
-0.0041429 0.0088002 0.0017154 -0.0021433
-0.002085 -0.00061954 -0.00079588 -0.00014909 -0.0020848 -0.00020119 -0.0041347 0.0088143
0.19918 0.14419 0.00022984 0.0096766
0.00057606 0.00036919 -0.0007808 -0.00042596 -0.00029965 -0.00088517 0.0017562 -0.0021431
0.00022241 0.0096661 0.25443 0.17813
1760000000 0.27508 -0.061781 0.0043107 0.0066789 -0.0021718 0.0012118 0.001367 -0.0034116
-0.0012275 0.00061876 0.00033041 -0.00048187
0.0043024 0.0066835 0.24217 0.20616 0.00016378 -0.0018476 -0.0013133 1.8571e-05
-0.0011582 0.00086547 -0.00053009 0.00032569
-0.0021529 0.0012152 0.0001455 -0.0018531 0.20728 -0.22631 0.0010229 0.001368
-0.0011713 0.0013334 -0.0013921 -0.00066394
0.0013571 -0.0034137 -0.0013245 2.9773e-05 0.0010156 0.0013701 0.23628 -0.047179
-0.0010991 0.0079313 -0.00010064 -0.0023262
-0.0012415 0.00062015 -0.0011391 0.00086884 -0.001152 0.0013446 -0.0010843 0.0079331
0.21477 0.11106 0.0042292 0.0070939
0.0003375 -0.00049559 -0.00051627 0.00033418 -0.0013957 -0.00068547 -0.00017725 -0.0023619
0.0041473 0.007126 0.26754 0.14056
1820000000 0.25258 -0.099092 0.0046241 0.0029906 0.00029645 0.0024336 -0.00096654 -0.003065
-0.0011927 0.00090176 -0.00010266 -0.00016328
0.0046252 0.0029964 0.25363 0.17734 -0.0019888 0.00024489 -0.0015066 0.00098354
-0.00011573 0.0012215 -0.00065367 0.00039141
0.00032444 0.0024018 -0.001987 0.00025392 0.15682 -0.24076 0.0018067 0.00078178
-0.00030475 0.0023176 -0.0016506 0.00023116
-0.00097307 -0.0030769 -0.0014984 0.00099895 0.0018084 0.00076353 0.20723 -0.094271
9.3765e-05 0.0067933 -0.0017328 -0.0017518
-0.0011608 0.00091171 -9.0954e-05 0.0012493 -0.00028316 0.002341 0.00010992 0.0067941
0.23405 0.08459 0.0051682 0.0033156
-0.00014241 -0.00012943 -0.0006484 0.00040306 -0.0016535 0.00022818 -0.0016833 -0.0017386
0.0051988 0.0032924 0.27153 0.10569
1880000000 0.21876 -0.14082 0.0024415 0.00076903 -0.00028613 0.0021904 -0.0028042 -0.002335
-0.00021488 0.0016614 0.00024922 -0.00057782
0.0024274 0.00077721 0.25872 0.13079 -0.0036585 0.002782 -0.00027761 0.0018924
0.00055748 0.0013857 0.00011112 0.00098094
-0.00025285 0.0022018 -0.0036534 0.002812 0.10568 -0.24929 0.0021648 -0.00093836
0.0015288 0.0019741 -0.0010474 0.0014908
-0.002813 -0.0022954 -0.00027486 0.0018853 0.0021695 -0.0009449 0.16689 -0.13576
0.00077366 0.0047852 -0.0024159 0.00037152
-0.00018856 0.0016403 0.00056801 0.0013592 0.001528 0.0019483 0.0007931 0.0047916
0.23973 0.053757 0.0053249 0.0012529
0.00024857 -0.00062337 0.00011586 0.00097771 -0.0010165 0.0014463 -0.0024615 0.00035212
0.0053046 0.0013172 0.27247 0.070766
1940000000 0.17984 -0.16706 0.0003167 -0.0010158 0.001594 0.0016959 -0.0037908 0.00024283
0.0012372 0.00095973 -0.00064487 -0.00057262
0.00030679 -0.0010113 0.2602 0.099979 -0.0017616 0.0054592 0.0010783 0.0014597
0.0019646 0.00049344 0.00094257 0.00029549
0.0016059 0.0016654 -0.0017299 0.0054674 0.061372 -0.24138 0.000607 -0.0024697
0.0023067 0.00048404 0.00040689 0.0017534
-0.0037919 0.00026519 0.0010978 0.0014473 0.00060632 -0.0024731 0.11448 -0.16644
0.00011833 0.0038717 -0.0015121 0.0015111
0.0012361 0.0010076 0.0019855 0.00048136 0.0023068 0.00047909 0.00012176 0.0038677
0.24465 0.0177 0.0039075 -0.0025961
-0.00066554 -0.00055566 0.00094342 0.00027589 0.00037791 0.0017484 -0.0015885 0.0015397
0.0038747 -0.0026679 0.26203 0.035405
2000000000 0.13448 -0.183 -0.0031425 0.0009711 0.0028993 0.0014483 -0.0025115 0.0036718
0.00098584 0.00048517 -0.00069479 0.00053177
-0.0031389 0.00097459 0.24774 0.064589 -0.00060735 0.0075993 0.0018205 0.00034904
0.0013068 -0.0012523 0.00038446 0.00010561
0.002921 0.0014391 -0.00058024 0.0076139 0.019897 -0.22768 -0.0016246 -0.0016672
0.0020749 -0.0010676 0.001428 0.0016262
-0.0025051 0.0036488 0.0018254 0.00033982 -0.001618 -0.001675 0.061403 -0.17725
-0.0010552 0.003668 -6.1537e-05 0.0021064
0.00098847 0.00044053 0.001309 -0.0012454 0.002085 -0.0010796 -0.0010783 0.0036627
0.24274 -0.015136 0.00068257 -0.0034939
