!Keysight Technologies,M9804A,MY58100912,A.14.10.03
!Date: Thursday, April 27, 2023 10:28:33
!Correction: S11(C  6-Port  ) 
!S12(C  6-Port  ) 
!S13(C  6-Port  ) 
!S14(C  6-Port  ) 
!S15(C  6-Port  ) 
!S16(C  6-Port  ) 
!S21(C  6-Port  ) 
!S22(C  6-Port  ) 
!S23(C  6-Port  ) 
!S24(C  6-Port  ) 
!S25(C  6-Port  ) 
!S26(C  6-Port  ) 
!S31(C  6-Port  ) 
!S32(C  6-Port  ) 
!S33(C  6-Port  ) 
!S34(C  6-Port  ) 
!S35(C  6-Port  ) 
!S36(C  6-Port  ) 
!S41(C  6-Port  ) 
!S42(C  6-Port  ) 
!S43(C  6-Port  ) 
!S44(C  6-Port  ) 
!S45(C  6-Port  ) 
!S46(C  6-Port  ) 
!S51(C  6-Port  ) 
!S52(C  6-Port  ) 
!S53(C  6-Port  ) 
!S54(C  6-Port  ) 
!S55(C  6-Port  ) 
!S56(C  6-Port  ) 
!S61(C  6-Port  ) 
!S62(C  6-Port  ) 
!S63(C  6-Port  ) 
!S64(C  6-Port  ) 
!S65(C  6-Port  ) 
!S66(C  6-Port  ) 
!S6P File: Measurement: :
# Hz S  RI   R 50
500000000 -0.32769 -0.06647 -0.010373 -0.0017088 -0.0080492 0.011596 -0.0043416 0.012093
0.012945 0.0064464 -0.0048096 0.0092751
-0.0096139 -0.0019376 -0.40982 -0.075486 0.0089629 -0.01135 0.00055142 0.012275
0.0085331 0.003397 0.00012793 0.014276
-0.0079028 0.011618 0.0088711 -0.011452 -0.25755 0.18843 0.0067421 0.0032586
-0.0020211 0.0083332 0.0012476 0.012165
-0.0042422 0.011676 0.00070745 0.012358 0.0067005 0.0032151 -0.32752 0.040072
-0.020258 -0.0045455 0.014626 0.027657
0.012849 0.006459 0.0085584 0.0034156 -0.0020773 0.0083098 -0.019948 -0.0043812
-0.21584 -0.23858 -0.028878 0.0041563
-0.0045799 0.0090026 0.00044365 0.014564 0.0012475 0.01211 0.014607 0.02741
-0.028997 0.004063 -0.26569 -0.14283
560000000 -0.31793 0.10347 -0.021858 -0.067615 0.00060876 0.012716 0.0057055 0.010589
0.011899 0.0037973 0.01007 0.0093575
-0.021389 -0.067318 -0.37119 0.089116 -0.040721 -0.039571 0.013868 0.0034801
-0.012683 -0.0054106 0.0037264 -0.00094621
0.00033782 0.013035 -0.040956 -0.03991 -0.18277 0.23961 -0.00012614 -0.0057774
0.018829 0.0064473 0.0079212 -0.0061315
0.0060982 0.01095 0.013926 0.0035427 -9.906e-05 -0.0056603 -0.30502 0.13057
0.0071433 -0.023054 0.0061684 -0.021175
0.01292 0.0048125 -0.012974 -0.0060248 0.019033 0.0066498 0.0071226 -0.022995
-0.30328 -0.056541 0.014003 -0.052111
0.010053 0.0094826 0.0041035 -0.00061586 0.0080052 -0.0061325 0.0061869 -0.021209
0.013831 -0.052224 -0.33082 0.0071036
620000000 -0.27669 0.080809 -0.02297 0.00861 0.0029279 0.0089067 0.008795 -0.0047419
0.011697 -7.1752e-05 0.0011275 -0.002296
-0.022901 0.0085023 -0.39985 0.035287 -0.019142 -0.00034973 -0.0015759 -0.0024146
0.012375 -0.0048537 0.00064496 -0.0034556
0.0028601 0.0090688 -0.01921 -0.00020959 -0.15607 0.24928 -0.0011412 -0.005282
-0.0038559 -0.0025034 0.0087846 -0.0031693
0.0083005 -0.0045595 -0.0018055 -0.0024817 -0.0012237 -0.0051593 -0.26237 0.13895
-0.038192 -0.019822 0.013167 0.026345
0.012204 -0.00027961 0.012626 -0.0047006 -0.0038346 -0.0024147 -0.038383 -0.019789
-0.21441 -0.097796 -0.042741 0.014477
0.00035438 -0.0021938 0.00028163 -0.0036894 0.0087152 -0.0030091 0.013218 0.026398
-0.042231 0.014262 -0.24541 -0.032696
680000000 -0.24149 0.17344 -0.02612 -0.015465 0.0048218 0.0055201 0.0011273 -0.0074785
-0.0014616 -0.011239 0.0068205 -0.0073984
-0.026191 -0.015345 -0.39065 0.13651 -0.032973 -0.002648 -0.0018596 -0.00051605
-0.0015433 -0.0096017 -0.0009121 -0.0020334
0.0046328 0.0054263 -0.033052 -0.0025918 -0.10903 0.27168 -0.0010343 0.00043733
-0.0012 0.00074897 -0.0032133 -0.0093069
0.0013225 -0.0074952 -0.0017843 -0.00066539 -0.001048 0.00032467 -0.22008 0.19086
-0.023142 -0.0071353 -0.0095408 -0.011779
-0.0015722 -0.011362 -0.0017229 -0.0095011 -0.0011878 0.00076332 -0.023038 -0.0072309
-0.28088 0.0075985 -0.0054239 -0.00827
0.0067063 -0.0074885 -0.00078823 -0.0021798 -0.0031543 -0.0093288 -0.0095584 -0.0118
-0.0055563 -0.0082233 -0.25987 0.073636
740000000 -0.19636 0.16646 -0.04144 0.026489 0.013327 -0.0037776 0.00014832 -0.0037564
-0.0042786 -0.0016328 -0.0072135 0.0030148
-0.041468 0.026308 -0.33767 0.15699 -0.037916 0.034106 -0.00015527 -0.005865
-0.012902 0.006765 -0.0019943 -0.0056949
0.013522 -0.0038193 -0.037782 0.034216 -0.075961 0.27266 -0.0016683 0.0032862
-0.0014655 -0.0050944 -0.0015641 0.00028321
0.00018597 -0.0038965 -0.00010653 -0.0060192 -0.0016516 0.0033003 -0.20351 0.19889
-0.043873 -0.010045 0.02298 0.015893
-0.0042812 -0.0016206 -0.013138 0.0065958 -0.0014853 -0.0050963 -0.043613 -0.0098232
-0.18045 0.045354 -0.046539 -0.0025113
-0.0067792 0.0027781 -0.0016896 -0.0054159 -0.0015322 0.00029192 0.022778 0.015867
-0.046473 -0.0026695 -0.25044 0.079386
800000000 -0.16669 0.21302 -0.023159 0.015922 0.0056694 -0.010176 -0.004492 -0.0024243
-0.0040558 0.001681 0.0047052 0.00062637
-0.023197 0.016015 -0.34582 0.22791 -0.0094135 0.034604 -0.002189 0.0022198
6.6297e-05 0.0023113 0.00044193 0.0053817
0.005615 -0.010158 -0.0093198 0.03464 -0.03739 0.29907 0.0012474 0.001321
1.8583e-05 0.0032299 -0.0016106 0.0011054
-0.0044782 -0.0023672 -0.0021821 0.0021333 0.0012053 0.0013028 -0.17502 0.22691
-0.028949 0.012642 0.014449 -0.010062
-0.0042245 0.0019715 1.9253e-05 0.0022427 1.2412e-05 0.0032779 -0.029067 0.012731
-0.23453 0.066464 -0.018634 0.020022
0.0048246 0.00088727 0.00059644 0.0053135 -0.0015812 0.0010973 0.014594 -0.0099906
-0.018534 0.020101 -0.24853 0.13173
860000000 -0.13368 0.23391 -0.019095 0.03069 -0.0031428 -0.01006 -0.002 0.00080139
0.004236 0.005255 -0.0037414 -0.0032566
-0.019068 0.030562 -0.29921 0.273 0.0070962 0.034826 0.00030581 0.0018678
0.0037503 7.4683e-05 0.0040593 -1.1087e-05
-0.0031336 -0.010029 0.007203 0.034876 0.010686 0.30925 -0.00054746 -0.00052127
0.0025405 -0.0018837 0.0017042 0.0043309
-0.0019687 0.00078287 0.00034964 0.0020462 -0.00052119 -0.00050193 -0.13912 0.23888
-0.01902 0.017269 -0.0062225 -0.0094211
0.0043993 0.0051681 0.0039072 0.00013193 0.0025789 -0.0019168 -0.019064 0.017318
-0.18102 0.12857 -0.026938 0.015649
-0.003606 -0.0029933 0.0037768 0.00010278 0.001674 0.0043592 -0.0062427 -0.0096021
-0.027143 0.015458 -0.19712 0.17731
920000000 -0.11028 0.25821 0.0039104 0.039814 -0.0093219 -0.004511 -0.0017139 0.0019941
0.00033579 0.0017735 0.0032572 -0.0011018
0.0039392 0.039826 -0.2722 0.29577 0.027985 0.023566 0.0015195 0.0011491
0.0073143 7.9738e-05 0.0039846 -0.00265
-0.0093004 -0.0044494 0.02811 0.023491 0.057316 0.31172 0.0017453 2.7125e-05
0.00071826 -0.00040517 0.00096387 -0.0013606
-0.0017274 0.0020336 0.0015612 0.0012056 0.0017321 4.4726e-06 -0.11531 0.25663
-0.012576 0.030352 0.0036334 -0.0063742
0.00040014 0.0017747 0.0073315 -3.706e-05 0.00072258 -0.00039991 -0.012558 0.030374
-0.17369 0.13263 -0.0037214 0.028221
0.0030509 -0.0011212 0.0039977 -0.0026405 0.00098318 -0.0013744 0.0037191 -0.0061859
-0.0037696 0.028273 -0.20804 0.19238
980000000 -0.064317 0.27968 0.01638 0.031089 -0.0093574 0.0047308 0.0020148 0.0037243
0.0037779 -0.0017943 -0.0034869 -0.0024547
0.016379 0.031023 -0.22007 0.33245 0.033211 0.0057831 0.0018933 -0.00032993
0.0017522 -0.0061394 -0.00047649 -0.0027235
-0.0093411 0.0047409 0.033303 0.005683 0.10376 0.30623 0.00050472 -0.0011576
0.00023808 -0.0018154 0.0016035 -0.00033736
0.0020828 0.003687 0.001937 -0.00032034 0.00052475 -0.0011488 -0.076912 0.26786
0.0067087 0.030228 -0.0095082 -0.0075149
0.0037844 -0.0018331 0.0018028 -0.0062582 0.00024231 -0.0018159 0.0068187 0.030308
-0.14436 0.16969 0.0049901 0.021187
-0.0034596 -0.0023943 -0.00057169 -0.0027039 0.0015938 -0.00032163 -0.0094995 -0.0075911
0.0051474 0.020909 -0.16665 0.23972
1040000000 -0.023708 0.28993 0.03317 0.020403 -0.0010637 0.0075584 0.0026116 0.0005892
0.00019143 -0.003544 -0.00024126 -0.0014711
0.033058 0.02033 -0.18504 0.34712 0.030088 -0.014041 0.0014569 -0.0018183
-0.0024993 -0.0023833 -0.0011609 -0.0030372
-0.0010495 0.0075617 0.030104 -0.014181 0.14994 0.29403 -0.00050875 -0.0014585
-0.0015393 -0.00095766 -0.00056657 -0.001268
0.0025659 0.00055633 0.0015055 -0.0018174 -0.00051392 -0.001469 -0.049928 0.27811
0.018367 0.01958 -0.0024183 0.0016002
0.00012251 -0.0037038 -0.0024953 -0.0023973 -0.0015668 -0.00098151 0.018336 0.019605
-0.11263 0.1796 0.013462 0.020032
-0.00049615 -0.0014777 -0.001212 -0.0029609 -0.00056978 -0.0012681 -0.0023652 0.0015455
0.013662 0.020111 -0.14575 0.26158
1100000000 0.021661 0.30068 0.037045 -0.0023131 0.0036276 0.004173 0.0023904 -0.0010135
-0.0023328 -0.003209 -0.0042958 0.00021259
0.037044 -0.002303 -0.14128 0.36693 0.015908 -0.027587 -0.00020615 -0.001787
-0.0033652 -0.00095675 -0.0036213 -0.00056556
0.0036027 0.004175 0.015821 -0.027711 0.19671 0.27501 -0.0017322 0.00031666
-0.0017078 0.00058715 -0.0012205 -0.00064666
0.0023673 -0.0010185 -0.00021738 -0.0017983 -0.0017335 0.00033801 -0.0090902 0.2835
0.024472 0.0069352 -0.002712 0.00012239
-0.0023018 -0.0031993 -0.0033231 -0.0009392 -0.0016711 0.00058952 0.024485 0.00683
-0.09537 0.19654 0.020227 0.010754
-0.0042475 4.634e-05 -0.0035921 -0.00058703 -0.0012115 -0.00060992 -0.0026984 0.00027116
0.020233 0.010896 -0.10101 0.29242
1160000000 0.07266 0.29755 0.025601 -0.019735 0.0035419 -0.00078658 -0.00022729 -0.0025484
-0.0042298 -0.00091887 -0.0011409 0.0041192
0.025627 -0.019762 -0.097624 0.37193 -0.0032164 -0.028949 -0.0015562 -0.0015787
-0.0026345 0.0025386 -0.0015647 0.0019395
0.0035273 -0.00082615 -0.0033207 -0.028963 0.24005 0.24532 -0.00059972 0.0016151
-0.00050881 0.0017625 -0.00096225 0.00029533
-0.00021804 -0.0025593 -0.0015885 -0.0015435 -0.0005977 0.0015912 0.030016 0.28096
0.02175 -0.0093758 -0.0033463 0.0053996
-0.0042723 -0.0009021 -0.0025577 0.0025964 -0.00051253 0.0017674 0.021808 -0.0094099
-0.058996 0.20827 0.019318 0.001578
-0.0010832 0.004115 -0.0016767 0.0019295 -0.00097538 0.00029306 -0.0033589 0.0054015
0.019247 0.0014175 -0.052225 0.2971
1220000000 0.11667 0.289 0.012563 -0.030098 -0.0011273 -0.0016545 -6.3622e-05 -0.00090724
-0.0027866 0.0023596 0.0012395 0.0020532
0.012577 -0.030073 -0.05333 0.38647 -0.016526 -0.021342 -0.0024798 0.00057041
1.5746e-05 0.0029786 -0.00085429 0.0018606
-0.001137 -0.0016562 -0.016638 -0.021308 0.27996 0.20768 0.00084265 0.0014291
0.00050393 0.0011825 0.00010656 0.00063431
-6.0684e-05 -0.00095466 -0.0024623 0.00056574 0.00084555 0.0014441 0.06974 0.27304
0.011218 -0.016213 0.0022562 0.0015913
-0.0028086 0.0023658 5.8414e-05 0.0029792 0.00051803 0.0011817 0.011176 -0.016253
-0.037304 0.22084 0.015343 -0.01233
0.0012831 0.002018 -0.00077796 0.0018678 0.00010598 0.00064526 0.0022861 0.0016109
0.015348 -0.012248 -0.022838 0.31523
1280000000 0.16732 0.26933 -0.0064105 -0.029426 -0.0019975 0.0014914 -0.00096096 -0.0019643
-0.00093207 0.0032858 0.0024528 0.0014365
-0.0063691 -0.029409 -0.0066564 0.37841 -0.023659 -0.0084499 -0.00083847 0.0013553
0.0015659 0.0017634 0.00054939 0.0020771
-0.0019969 0.0015038 -0.023719 -0.0083576 0.31175 0.16428 0.0013326 -0.00011974
0.001045 0.00042305 0.00025381 0.00042984
-0.00098181 -0.0019091 -0.00085229 0.0014049 0.0013492 -8.5179e-05 0.10648 0.25694
0.0021132 -0.018835 1.8337e-05 -0.00017364
-0.00089711 0.0033316 0.001569 0.0018123 0.0010431 0.00043364 0.002076 -0.018862
0.00030574 0.22693 0.0041915 -0.015212
0.0025464 0.0013307 0.00052652 0.0020772 0.0002555 0.00044836 1.7772e-06 -4.6703e-05
0.0041711 -0.015203 0.025266 0.31844
1340000000 0.20464 0.23765 -0.016565 -0.020446 0.00015335 0.0041086 -0.0018013 -0.00070461
0.001607 0.0027576 0.0017174 -0.001371
-0.016529 -0.020415 0.032273 0.37175 -0.020994 0.0042793 -0.00022858 0.0019231
0.0018191 0.00088194 0.0011101 0.00082174
0.0001685 0.0041056 -0.021013 0.0043859 0.33482 0.11708 0.00084141 -0.00085051
0.00064508 -0.00049845 4.4303e-05 0.00014297
-0.0017924 -0.00067452 -0.00020545 0.0018987 0.00084901 -0.00083944 0.13938 0.23751
-0.0075065 -0.016319 0.0012199 0.00023341
0.0016676 0.0027848 0.0018049 0.00088685 0.00065943 -0.00050372 -0.0075154 -0.016305
0.029363 0.22507 -0.0026256 -0.01382
0.0017578 -0.0013711 0.0011583 0.00081822 4.608e-05 0.00015644 0.0011997 0.00017221
-0.0026334 -0.013762 0.063186 0.31556
1400000000 0.23962 0.2013 -0.023417 -0.0091404 0.0045759 0.0031502 -0.002037 0.00065163
0.0026927 0.00092326 0.00028931 -0.0013823
-0.023391 -0.0091787 0.070912 0.35987 -0.014347 0.012252 0.001232 0.0013626
0.0012396 -0.00053477 0.0011994 0.00023051
0.0046106 0.0031403 -0.014303 0.012343 0.34911 0.063116 -5.0138e-05 -0.0012889
0.00030603 -0.00023592 0.00043595 0.00027678
-0.0020276 0.00068199 0.0012253 0.0013549 -5.8738e-05 -0.0012918 0.16943 0.20921
-0.013499 -0.010041 -0.00089659 -0.00051491
0.0026673 0.00085985 0.0012177 -0.0005811 0.00029529 -0.0002326 -0.013578 -0.009996
0.063608 0.22453 -0.0093357 -0.0096311
0.00023356 -0.0013889 0.0011331 0.00021852 0.00042781 0.0002781 -0.00094505 -0.00045722
-0.0092787 -0.0095991 0.10863 0.30658
1460000000 0.2632 0.15838 -0.020957 0.0034785 0.0051206 -0.0015026 -0.0015181 0.0015866
0.0021344 -0.00044538 -0.00023872 -0.00094468
-0.020972 0.0034556 0.10538 0.33853 -0.0054239 0.014888 0.0015919 0.00025806
0.001143 -0.001217 0.0013008 -0.00053571
0.0051099 -0.0015273 -0.0053517 0.014929 0.35571 0.0080624 -0.0009635 -0.0011205
0.00032292 -0.00020256 0.00063669 -0.00039998
-0.0015035 0.0016024 0.0016222 0.00025438 -0.00092161 -0.0011146 0.19634 0.18059
-0.014586 -0.0038635 -0.0011609 0.0017419
0.002178 -0.00046557 0.0011105 -0.0012622 0.00033227 -0.00020441 -0.01462 -0.0038588
0.092953 0.21275 -0.011148 -0.0034194
-0.00020729 -0.0009887 0.0012383 -0.00051121 0.00062944 -0.00042877 -0.0010903 0.0018079
-0.011061 -0.0034657 0.14186 0.28608
1520000000 0.2769 0.11814 -0.015884 0.0094328 0.0031379 -0.0038488 7.3162e-05 0.0025677
0.0022688 -0.0019085 -0.0011062 -0.00013599
-0.01586 0.0094051 0.13963 0.32542 0.0019347 0.012268 0.0017557 -0.000646
0.00032323 -0.001006 0.00026371 -0.0010427
0.0031188 -0.0038564 0.0020015 0.012274 0.3487 -0.048392 -0.00065907 -0.00038873
0.00068444 -0.00096841 -4.2182e-05 -7.7682e-05
8.7516e-05 0.0025471 0.001746 -0.00066501 -0.00067504 -0.00037214 0.22046 0.14284
-0.014633 0.0016408 0.001347 0.0019857
0.0022797 -0.0019181 0.00032533 -0.0010074 0.0006815 -0.00096861 -0.014621 0.0016879
0.12181 0.20285 -0.011654 0.00075356
-0.0011559 -0.00012713 0.00031649 -0.0010654 -7.4381e-06 -7.0022e-05 0.0012964 0.0018987
-0.011666 0.00074775 0.1763 0.26816
1580000000 0.28788 0.07266 -0.0093583 0.013307 -0.0010717 -0.0045254 0.0013916 0.0018221
-0.00030052 -0.0022824 -0.00019293 0.00041569
-0.0093614 0.013293 0.16782 0.30074 0.0052612 0.0071601 0.00058266 -0.0015804
-0.00043857 -0.0012303 -0.00018529 -0.00077351
-0.0011039 -0.0045127 0.0052952 0.0071481 0.32839 -0.10652 -0.001549 0.00015172
-0.00042962 -0.0013385 0.00024758 -0.0006184
0.001399 0.0018745 0.00058459 -0.0015766 -0.001537 0.00015252 0.23531 0.10339
-0.011544 0.0067301 0.0018567 0.00077979
-0.00033836 -0.0022855 -0.00046017 -0.0012286 -0.00043905 -0.0013387 -0.011518 0.0067794
0.14735 0.18758 -0.0095984 0.0069413
-0.00022857 0.00049075 -0.00021526 -0.00078633 0.00020817 -0.00065105 0.0018032 0.0008499
-0.009551 0.0069989 0.2094 0.24198
1640000000 0.29137 0.032192 -0.0023927 0.012634 -0.0027704 -0.0020962 0.0026688 0.0011808
-0.00063534 -0.0015904 -0.00037862 0.0004614
-0.0024004 0.012634 0.19752 0.27716 0.0053659 0.002434 -0.00048658 -0.0018402
-0.00098498 -0.00064475 -0.00055466 -0.00064599
-0.0027711 -0.0021099 0.0053858 0.0024041 0.29893 -0.15524 -0.00089778 0.0012468
-0.0012091 -0.0011426 -0.00026546 -0.0003489
0.0027219 0.0011644 -0.0005013 -0.0018441 -0.00089245 0.0012486 0.24844 0.054689
-0.0076651 0.0081009 0.0024079 -0.00040751
-0.00066377 -0.0016146 -0.00098715 -0.00064083 -0.0011761 -0.0011305 -0.0076678 0.0081519
0.17152 0.16735 -0.0047559 0.008936
-0.00039521 0.00051597 -0.00055752 -0.00063294 -0.00028231 -0.00034773 0.0024782 -0.00045687
-0.00485 0.0089457 0.23516 0.2124
1700000000 0.28644 -0.012744 0.0013815 0.010133 -0.0031772 0.00029965 0.0031839 -0.0011336
-0.0021742 -0.00062247 0.00052769 0.00055708
0.0013756 0.010134 0.21702 0.24587 0.002833 -0.00017003 -0.0014625 -0.00069512
-0.00092267 -0.00012695 -0.00082726 -0.00040908
-0.0031663 0.00035803 0.0028327 -0.00019327 0.2555 -0.19403 8.6572e-05 0.0018466
-0.0021028 -0.00016047 -0.00028164 -0.00081591
0.0031675 -0.001172 -0.0014566 -0.00069364 5.5981e-05 0.0018404 0.24629 0.0040472
-0.0050938 0.0091711 0.0017794 -0.0018876
-0.0021191 -0.00065465 -0.00093131 -0.00011109 -0.0020944 -0.00015303 -0.0050552 0.0091606
0.19164 0.15017 -0.00017215 0.0096469
0.00053014 0.00051094 -0.00082323 -0.00037405 -0.00028618 -0.00079909 0.0017428 -0.0020015
-0.00015253 0.009672 0.25369 0.1787
1760000000 0.2757 -0.061866 0.004108 0.0070372 -0.0019851 0.0012048 0.0014164 -0.0034123
-0.001235 0.00060206 0.0003368 -0.00050331
0.0041107 0.0070468 0.24319 0.20641 0.00025921 -0.001563 -0.0012365 6.0857e-05
-0.001221 0.0010142 -0.00047084 0.00039658
-0.0019589 0.001225 0.00027911 -0.0015679 0.20644 -0.2264 0.0011481 0.0014424
-0.0012284 0.0014887 -0.0011703 -0.00069679
0.0014125 -0.003398 -0.0012522 7.3698e-05 0.0011498 0.001423 0.23728 -0.04839
-0.0016176 0.0085291 -0.00015649 -0.0024074
-0.0012262 0.00065419 -0.001234 0.0010359 -0.0012216 0.00151 -0.0015727 0.0085785
0.20852 0.11823 0.0038466 0.0069771
0.00033342 -0.00054557 -0.00047365 0.00038384 -0.001168 -0.00066431 -0.00017213 -0.0022783
0.0038142 0.006988 0.26638 0.1412
1820000000 0.25299 -0.099577 0.0046774 0.0033548 0.00026701 0.0021949 -0.00073956 -0.0031773
-0.0010632 0.00082818 1.5536e-05 -0.00016768
0.0046763 0.0033713 0.25441 0.17713 -0.0018407 0.00010607 -0.001472 0.00096319
-3.8071e-05 0.0013399 -0.00059459 0.00040672
0.00024795 0.0021984 -0.0018438 0.00012702 0.15709 -0.24106 0.001714 0.00053482
-0.00025362 0.0023622 -0.0016987 5.9315e-05
-0.00080223 -0.0031642 -0.0014605 0.00098246 0.0017342 0.00053061 0.20766 -0.096096
0.00017776 0.0072342 -0.0016226 -0.0017851
-0.0010361 0.00084483 -2.9262e-05 0.0013365 -0.00022164 0.0023206 0.00020157 0.0072459
0.22961 0.09173 0.0048572 0.0034095
6.0736e-05 -0.00011697 -0.0005695 0.00046268 -0.0017289 7.5709e-05 -0.0015888 -0.0017633
0.004791 0.0034548 0.27058 0.10648
1880000000 0.21865 -0.14142 0.0026776 0.00092407 -0.00018588 0.0021852 -0.0028796 -0.0025064
-0.00012387 0.0015745 0.00025583 -0.0006715
0.00269 0.0009189 0.25921 0.13038 -0.0037002 0.0027996 -0.00028176 0.0018315
0.00067564 0.0014356 9.1104e-05 0.00088741
-0.00017131 0.0021458 -0.0036732 0.0028029 0.10541 -0.24925 0.002035 -0.0012812
0.0017033 0.002046 -0.00096034 0.0012346
-0.0029306 -0.0024962 -0.00027979 0.0018473 0.0020579 -0.0012699 0.16665 -0.13711
0.0012966 0.0052233 -0.0021913 0.00032837
-0.00012054 0.0016163 0.00068249 0.0014352 0.0016925 0.0020585 0.001279 0.0052313
0.23655 0.061733 0.0053921 0.0016285
0.00019904 -0.00064215 0.00010628 0.00086119 -0.00097983 0.0011678 -0.0023024 0.00017227
0.0054037 0.0015041 0.27188 0.07198
1940000000 0.17951 -0.1676 0.00060775 -0.0010191 0.0017055 0.0019037 -0.0040101 0.00012132
0.0011612 0.00082489 -0.00054296 -0.00069067
0.00060266 -0.0010103 0.26061 0.099418 -0.0017995 0.0056078 0.0011384 0.0013832
0.0021262 0.00038805 0.00085406 0.00027798
0.0017 0.0019159 -0.0017563 0.0056359 0.061001 -0.24113 0.00061312 -0.0025086
0.0023693 0.00046697 -2.9451e-05 0.0017291
-0.0040367 0.00017164 0.0011543 0.0013787 0.00061954 -0.0024751 0.11376 -0.16736
0.00049775 0.0036162 -0.0017044 0.0014064
0.0010791 0.00076576 0.0021677 0.00035649 0.0023616 0.00046374 0.00055527 0.0036833
0.24282 0.025051 0.0038293 -0.0023622
-0.00064509 -0.0006784 0.00084373 0.00029233 1.5444e-05 0.0017833 -0.0015961 0.0015508
0.003795 -0.0022535 0.26174 0.036829
2000000000 0.13402 -0.18298 -0.0031407 0.0007694 0.0029076 0.0012428 -0.002676 0.0037463
0.00074143 0.00048077 -0.00082477 0.00043478
-0.0031382 0.00072674 0.24764 0.064117 -0.0005059 0.007755 0.0016034 0.00022633
0.0013072 -0.0014898 0.00046843 0.00014237
0.0028886 0.0012244 -0.00045379 0.0077898 0.020337 -0.22687 -0.0015763 -0.0015338
0.0020994 -0.00117 0.0015831 0.0016691
-0.002665 0.0037119 0.0016413 0.00023306 -0.0016446 -0.0015751 0.059945 -0.17726
-0.0013382 0.0034704 -2.4793e-05 0.0022393
0.00078146 0.0004145 0.001296 -0.0015006 0.0020975 -0.0011547 -0.0013721 0.0035453
0.24143 -0.0081465 0.00079427 -0.0030205
