!Keysight Technologies,M9804A,MY58100912,A.14.10.03
!Date: Thursday, April 27, 2023 10:28:33
!Correction: S11(C  6-Port  ) 
!S12(C  6-Port  ) 
!S13(C  6-Port  ) 
!S14(C  6-Port  ) 
!S15(C  6-Port  ) 
!S16(C  6-Port  ) 
!S21(C  6-Port  ) 
!S22(C  6-Port  ) 
!S23(C  6-Port  ) 
!S24(C  6-Port  ) 
!S25(C  6-Port  ) 
!S26(C  6-Port  ) 
!S31(C  6-Port  ) 
!S32(C  6-Port  ) 
!S33(C  6-Port  ) 
!S34(C  6-Port  ) 
!S35(C  6-Port  ) 
!S36(C  6-Port  ) 
!S41(C  6-Port  ) 
!S42(C  6-Port  ) 
!S43(C  6-Port  ) 
!S44(C  6-Port  ) 
!S45(C  6-Port  ) 
!S46(C  6-Port  ) 
!S51(C  6-Port  ) 
!S52(C  6-Port  ) 
!S53(C  6-Port  ) 
!S54(C  6-Port  ) 
!S55(C  6-Port  ) 
!S56(C  6-Port  ) 
!S61(C  6-Port  ) 
!S62(C  6-Port  ) 
!S63(C  6-Port  ) 
!S64(C  6-Port  ) 
!S65(C  6-Port  ) 
!S66(C  6-Port  ) 
!S6P File: Measurement: :
# Hz S  RI   R 50
500000000 -0.32995 -0.067376 -0.010134 -0.0013903 -0.0083037 0.012808 -0.0045484 0.012978
0.013086 0.0053587 -0.0049339 0.0099394
-0.010239 -0.0015649 -0.41012 -0.075762 0.0088101 -0.010972 0.00068004 0.012418
0.0081988 0.0035252 0.00082361 0.014436
-0.0084093 0.012836 0.008783 -0.010992 -0.25975 0.18838 0.0069554 0.0037442
-0.0018543 0.008459 0.0011163 0.012776
-0.0044132 0.012934 0.00072753 0.012427 0.0069432 0.0037251 -0.32879 0.038514
-0.019707 -0.0039412 0.015351 0.027201
0.013173 0.004886 0.0083459 0.003459 -0.0019723 0.0085276 -0.019334 -0.0038544
-0.22223 -0.23201 -0.028149 0.0047455
-0.0046748 0.010292 0.00068109 0.014156 0.0010929 0.012665 0.015157 0.026859
-0.028333 0.0043634 -0.26354 -0.1447
560000000 -0.31862 0.10199 -0.023093 -0.067671 0.00094783 0.012769 0.0049347 0.01134
0.011617 0.0058643 0.010732 0.0094179
-0.023016 -0.06768 -0.37224 0.090614 -0.041734 -0.039772 0.014294 0.0040582
-0.01399 -0.006636 0.0030837 -0.0011516
0.00085898 0.012857 -0.042206 -0.039719 -0.18371 0.24011 -0.00068969 -0.0050202
0.018877 0.0070104 0.0077931 -0.005696
0.0048798 0.011139 0.014214 0.0042809 -0.00070892 -0.0050374 -0.30497 0.12864
0.0064746 -0.02234 0.0060114 -0.021829
0.011532 0.0063931 -0.01346 -0.0067971 0.018383 0.0072721 0.0066518 -0.022199
-0.30171 -0.046923 0.010711 -0.05092
0.010363 0.0097793 0.0032106 -0.0011032 0.0079937 -0.0058208 0.0059637 -0.021934
0.011052 -0.050139 -0.33142 0.0050906
620000000 -0.27722 0.079877 -0.023539 0.0089187 0.0029475 0.0089141 0.0084603 -0.0046991
0.012311 0.00016486 0.00071911 -0.0012936
-0.023496 0.008914 -0.40091 0.035279 -0.01897 3.5631e-05 -0.0017867 -0.0021467
0.012228 -0.0052675 0.00029823 -0.0026327
0.0030075 0.0088752 -0.018948 9.8445e-05 -0.15653 0.24952 -0.00072914 -0.0053702
-0.0039239 -0.0021623 0.0088327 -0.0030173
0.0085872 -0.0048105 -0.001773 -0.0021037 -0.00070731 -0.0053786 -0.26296 0.13877
-0.039123 -0.019508 0.013368 0.027537
0.012212 -0.00014452 0.012303 -0.0053254 -0.0042266 -0.0019425 -0.039386 -0.019485
-0.2185 -0.086791 -0.043616 0.013684
0.0010432 -0.0010956 2.1582e-05 -0.0029412 0.0087149 -0.0030359 0.013283 0.027759
-0.043389 0.013211 -0.24484 -0.031478
680000000 -0.24287 0.17323 -0.026351 -0.015274 0.0046873 0.0057956 0.0012499 -0.0074
-0.001856 -0.011453 0.0062026 -0.0073791
-0.026313 -0.015302 -0.39111 0.13689 -0.033066 -0.0026741 -0.0018339 -0.00068428
-0.0014792 -0.0097303 -0.0006245 -0.0019235
0.0046277 0.0058028 -0.033097 -0.0025835 -0.10879 0.2719 -0.00090064 -0.00012159
-0.0015836 0.00063169 -0.0025908 -0.0093486
0.0012288 -0.0073106 -0.0018186 -0.00069699 -0.00089932 -0.0001337 -0.22007 0.19111
-0.02332 -0.0075674 -0.0092368 -0.011327
-0.0020226 -0.011691 -0.001581 -0.0096863 -0.0015827 0.00071927 -0.023272 -0.0074609
-0.28215 0.017701 -0.0055963 -0.0077525
0.0060355 -0.0072717 -0.00064584 -0.0018087 -0.0027199 -0.0091882 -0.0095261 -0.011151
-0.0054299 -0.0076398 -0.26297 0.074609
740000000 -0.19605 0.16732 -0.041159 0.027039 0.013678 -0.0037289 0.00034492 -0.004117
-0.0041921 -0.0023265 -0.0062633 0.0032487
-0.041104 0.026894 -0.33706 0.15651 -0.037712 0.034597 0.00059305 -0.0061767
-0.0132 0.0059202 -0.00090971 -0.0060835
0.013729 -0.0038466 -0.037602 0.034773 -0.075775 0.27247 -0.0018848 0.0034235
-0.0013804 -0.0053813 -0.0016858 0.00077604
0.00032285 -0.0040795 0.00056919 -0.0062422 -0.0019341 0.0034209 -0.20389 0.19915
-0.042688 -0.0098283 0.022595 0.016515
-0.0042013 -0.0023352 -0.013204 0.0062176 -0.0014518 -0.0053582 -0.042684 -0.0098158
-0.18047 0.051685 -0.042927 -0.00077244
-0.0063088 0.0029103 -0.0010078 -0.0061097 -0.0016888 0.00087752 0.0226 0.01653
-0.042932 -0.0011801 -0.25328 0.079841
800000000 -0.16683 0.21272 -0.022688 0.015797 0.0059102 -0.010555 -0.0042962 -0.0023208
-0.004638 0.0015768 0.004626 0.00029237
-0.022648 0.015827 -0.34541 0.22789 -0.0091865 0.034522 -0.0019735 0.0021292
-0.00038258 0.0024676 0.00097466 0.0051816
0.0058772 -0.010551 -0.0090901 0.034604 -0.037439 0.29817 0.0011251 0.0013474
-9.9e-05 0.003216 -0.0015767 0.00077945
-0.0042797 -0.0023549 -0.0019281 0.0021409 0.0011279 0.0013342 -0.17524 0.22691
-0.028836 0.012667 0.014948 -0.010139
-0.0045529 0.0016333 -0.00028085 0.0024072 -8.7471e-05 0.0032366 -0.02883 0.012722
-0.23291 0.075924 -0.018466 0.020047
0.0045446 0.00029465 0.00099548 0.0052451 -0.0015646 0.00086406 0.014964 -0.010115
-0.018582 0.020031 -0.24752 0.13145
860000000 -0.1334 0.23369 -0.018541 0.030532 -0.0029281 -0.010468 -0.0019014 0.00060915
0.0040527 0.0051989 -0.0036667 -0.0033366
-0.018538 0.030487 -0.2992 0.27239 0.0070992 0.034912 0.00013706 0.0018256
0.0041208 0.0005606 0.0035 0.00010286
-0.002932 -0.010443 0.0072149 0.034913 0.010154 0.30857 -0.00037082 -0.0004324
0.0024592 -0.0016772 0.0016174 0.0040663
-0.0019102 0.00054933 0.00015983 0.001821 -0.00040889 -0.00043214 -0.13979 0.23844
-0.018661 0.017168 -0.0059819 -0.0089808
0.0040175 0.0052864 0.0041415 0.00046854 0.0024207 -0.0016785 -0.018759 0.017183
-0.17771 0.135 -0.026119 0.01599
-0.0036927 -0.0032828 0.0033827 9.957e-05 0.0015711 0.0040337 -0.0059424 -0.0091295
-0.026404 0.016059 -0.19927 0.17749
920000000 -0.11048 0.25774 0.0041842 0.039488 -0.0094043 -0.0048741 -0.0019305 0.0017493
0.00038193 0.0016133 0.0033381 -0.0012656
0.0041719 0.039487 -0.27248 0.29501 0.028102 0.023441 0.0012811 0.0011519
0.0075081 -0.00030731 0.0040215 -0.0027466
-0.0094386 -0.0048963 0.028234 0.023394 0.056531 0.31132 0.0017538 -6.7728e-05
0.0007027 -0.00047497 0.00096245 -0.0013722
-0.0019578 0.001708 0.0013085 0.0011662 0.0017466 -4.921e-05 -0.11559 0.25605
-0.012273 0.030691 0.0040616 -0.006762
0.00037294 0.0016002 0.0074586 -0.00027997 0.00066113 -0.00046055 -0.01227 0.030799
-0.17021 0.14012 -0.0030814 0.02869
0.0030829 -0.0013456 0.0038784 -0.0028567 0.00090872 -0.0014889 0.0039691 -0.0068047
-0.0029293 0.028511 -0.20772 0.19204
980000000 -0.06454 0.27929 0.016236 0.031083 -0.0097379 0.0045734 0.0018253 0.0036254
0.0040125 -0.0015994 -0.0034302 -0.0027353
0.016179 0.031067 -0.22034 0.33192 0.033555 0.0058329 0.001921 -0.00026696
0.0018469 -0.0061088 -0.00044799 -0.002896
-0.0097499 0.0046226 0.033609 0.0057228 0.10298 0.30612 0.00050629 -0.0011722
0.0002738 -0.0017671 0.0015375 -0.00048236
0.0018043 0.0035717 0.0019316 -0.00028793 0.00050832 -0.0011741 -0.077381 0.26718
0.0068543 0.03021 -0.0096618 -0.0079666
0.0040439 -0.0017023 0.001857 -0.0061811 0.00026524 -0.0017597 0.0069636 0.030203
-0.13929 0.17517 0.0053142 0.021175
-0.0034331 -0.0027224 -0.00037905 -0.0029189 0.001531 -0.00043295 -0.0096402 -0.0078732
0.0053398 0.021048 -0.1665 0.23941
1040000000 -0.024156 0.28961 0.033218 0.020164 -0.0013447 0.0076363 0.0025253 0.0007429
6.7315e-05 -0.0034125 -0.0002857 -0.0013849
0.033164 0.020169 -0.18572 0.34668 0.030443 -0.014255 0.0014076 -0.0017128
-0.0025876 -0.0027525 -0.0014107 -0.0028221
-0.0013163 0.0076514 0.030407 -0.014411 0.14924 0.29427 -0.00051846 -0.0014891
-0.0016349 -0.00089424 -0.00073615 -0.0010907
0.0025283 0.00073921 0.0014233 -0.0017047 -0.00051787 -0.0014877 -0.050415 0.27787
0.018881 0.019596 -0.0023034 0.0011829
7.4905e-05 -0.0034444 -0.002604 -0.002683 -0.0016375 -0.00090004 0.018954 0.019552
-0.10692 0.18407 0.013751 0.020062
-0.00022603 -0.0013796 -0.0014277 -0.0028077 -0.00067803 -0.0010849 -0.0023588 0.0011501
0.013683 0.020027 -0.14562 0.26086
1100000000 0.020821 0.30011 0.03715 -0.0026719 0.0034743 0.0043215 0.0024386 -0.00098821
-0.0021999 -0.0032855 -0.0042271 0.0001357
0.03712 -0.0026685 -0.14191 0.36644 0.016078 -0.027975 -0.00013046 -0.0018011
-0.0035247 -0.00088488 -0.0037356 -0.00046939
0.0035129 0.0043298 0.015992 -0.028092 0.19643 0.27527 -0.0017878 0.00034699
-0.0016685 0.00071325 -0.0012028 -0.00057386
0.0024439 -0.00098496 -0.0001123 -0.0017835 -0.0017903 0.00033161 -0.0098673 0.28321
0.02501 0.0061522 -0.002684 -8.6428e-05
-0.002238 -0.0032797 -0.0035602 -0.00088162 -0.0016986 0.00072095 0.025033 0.0061281
-0.087738 0.20009 0.020113 0.009884
-0.0042719 8.7431e-05 -0.0037914 -0.00048233 -0.0011986 -0.00061652 -0.0027185 -5.3454e-05
0.02005 0.0099131 -0.10055 0.29306
1160000000 0.071894 0.29747 0.025694 -0.020109 0.0035047 -0.00053518 -0.00016912 -0.0025011
-0.0042252 -0.0010725 -0.0013223 0.0044644
0.025692 -0.020044 -0.098568 0.37202 -0.0033592 -0.029413 -0.0016498 -0.0015937
-0.0027811 0.0025033 -0.001802 0.0020681
0.0035053 -0.00053759 -0.0035216 -0.029434 0.23995 0.24533 -0.00057597 0.0017409
-0.00043631 0.0019182 -0.0010582 0.00033436
-0.00016943 -0.0025234 -0.0016215 -0.0015678 -0.0005706 0.0017484 0.029088 0.28083
0.021973 -0.010145 -0.0036622 0.005183
-0.0042605 -0.0010698 -0.0027956 0.0025368 -0.0004849 0.0018736 0.021986 -0.010134
-0.05388 0.21073 0.020098 0.00050342
-0.0012783 0.0044492 -0.0017492 0.0020997 -0.0010639 0.00036087 -0.0036603 0.0051852
0.020039 0.00051525 -0.053492 0.29661
1220000000 0.11594 0.28936 0.012334 -0.030469 -0.0012099 -0.0014813 4.1581e-05 -0.00097009
-0.002826 0.002345 0.0011967 0.0020852
0.012344 -0.030403 -0.053877 0.38699 -0.016956 -0.021621 -0.0025345 0.00052141
9.1718e-05 0.00314 -0.00084315 0.001906
-0.0012024 -0.0014756 -0.017081 -0.021572 0.27985 0.20739 0.00096814 0.0015199
0.00065684 0.0011222 0.00019285 0.00060745
3.1289e-05 -0.00097349 -0.002534 0.00054151 0.00098055 0.0015106 0.069103 0.27329
0.01099 -0.017137 0.002043 0.0016697
-0.0028032 0.0023385 9.3037e-05 0.0031696 0.0006591 0.0011117 0.010953 -0.017131
-0.03186 0.2226 0.015187 -0.012884
0.0011631 0.0021136 -0.00083824 0.0019138 0.00022017 0.00067016 0.0020599 0.0016739
0.015207 -0.012909 -0.022906 0.31535
1280000000 0.1668 0.26976 -0.006931 -0.029714 -0.0019384 0.0018011 -0.00088995 -0.0020819
-0.00090581 0.0034186 0.00261 0.0013864
-0.0069151 -0.029681 -0.0069503 0.37886 -0.024186 -0.0083797 -0.00081653 0.0014677
0.00177 0.0017281 0.00064092 0.0021298
-0.0019495 0.0017941 -0.024269 -0.0082722 0.31124 0.16378 0.001509 -0.00015454
0.0010439 0.00033133 0.00042322 0.00045411
-0.00090975 -0.002064 -0.00081602 0.0014776 0.0014961 -0.00016583 0.10585 0.25711
0.0013302 -0.019533 -0.00018677 9.6242e-05
-0.00090808 0.0034483 0.0017604 0.0017314 0.0010531 0.00033243 0.0012753 -0.019589
0.0054447 0.22805 0.003813 -0.016017
0.002601 0.0013706 0.00064053 0.0021374 0.0004207 0.00046217 -0.00014765 0.00014858
0.0037256 -0.015919 0.025268 0.31874
1340000000 0.20434 0.23838 -0.017166 -0.020224 0.00034737 0.0043063 -0.0018565 -0.00082841
0.001658 0.0028315 0.0018257 -0.0014605
-0.017129 -0.020239 0.032392 0.3721 -0.02139 0.0046809 -0.00015845 0.0019836
0.0019593 0.00077582 0.0012762 0.00082551
0.00036327 0.0043046 -0.021394 0.004784 0.33386 0.11678 0.00085221 -0.00094727
0.00060195 -0.00061495 0.00012096 0.00031345
-0.0018661 -0.00080487 -0.0001411 0.0019843 0.00083482 -0.00094545 0.13889 0.23783
-0.0084289 -0.016638 0.0010795 0.00055169
0.0016461 0.0028058 0.0019599 0.00077159 0.00059799 -0.00062551 -0.0084449 -0.01664
0.034691 0.22649 -0.0033542 -0.014403
0.0018282 -0.0014748 0.0012921 0.00084054 0.00014813 0.0002952 0.0011347 0.00056098
-0.0033146 -0.014407 0.063048 0.31537
1400000000 0.2397 0.20195 -0.023896 -0.0086153 0.004803 0.0032851 -0.0021833 0.00074079
0.0027132 0.00095107 0.0003154 -0.0014316
-0.023861 -0.0086279 0.07121 0.35989 -0.01447 0.012801 0.0012837 0.0013081
0.0011788 -0.00074008 0.001204 0.00025105
0.0048328 0.0032517 -0.014427 0.012894 0.34791 0.063347 -0.00012243 -0.0014315
0.00021643 -0.00017615 0.00038424 0.00024851
-0.0021746 0.00075604 0.0012922 0.0013119 -0.00011852 -0.0014333 0.16923 0.20941
-0.014593 -0.0096096 -0.00090947 -0.00022518
0.0027126 0.0009626 0.0011755 -0.00074658 0.00018619 -0.00020566 -0.014601 -0.0095963
0.068806 0.22465 -0.010201 -0.0095555
0.00031669 -0.0014238 0.0012248 0.00021885 0.00041708 0.00024666 -0.00091052 -0.00024376
-0.010189 -0.0096033 0.1085 0.30628
1460000000 0.26328 0.15856 -0.021021 0.0042193 0.0052792 -0.0016062 -0.0015274 0.001763
0.0023256 -0.00049662 -0.0003075 -0.00099302
-0.020984 0.0041971 0.10549 0.33815 -0.005192 0.015385 0.0015775 0.00023216
0.00098443 -0.0012455 0.0012433 -0.00060275
0.0052828 -0.0016452 -0.0051463 0.015425 0.35449 0.0087962 -0.0011381 -0.0010788
0.00030698 -0.00029221 0.0006811 -0.000236
-0.0015157 0.0017601 0.001577 0.00022327 -0.0011451 -0.0010834 0.19597 0.18057
-0.015454 -0.002822 -0.00093244 0.002082
0.0023312 -0.0005345 0.00097798 -0.0012624 0.00029211 -0.0003032 -0.01548 -0.0027712
0.098276 0.21276 -0.012244 -0.0031599
-0.00030852 -0.00096855 0.0012077 -0.00063846 0.00070084 -0.0002601 -0.00096047 0.0020657
-0.012224 -0.0031946 0.14181 0.28618
1520000000 0.27705 0.11813 -0.015502 0.010052 0.0033144 -0.0040395 0.00015016 0.0026618
0.0023432 -0.0020141 -0.001099 -0.00014309
-0.015484 0.010031 0.13956 0.32505 0.0023471 0.0125 0.0016728 -0.00067187
0.00013683 -0.00098749 0.00035633 -0.00097818
0.0033158 -0.0040562 0.0024266 0.012499 0.34795 -0.047153 -0.00080828 -0.00030566
0.00061308 -0.0010076 0.00012914 -7.6083e-05
0.00015622 0.0026549 0.001675 -0.00068056 -0.00081095 -0.00031548 0.22016 0.14298
-0.014707 0.0028762 0.001508 0.0021277
0.002356 -0.0020364 0.00012787 -0.00098193 0.00064923 -0.0010041 -0.014683 0.0029096
0.12731 0.20219 -0.012217 0.0015972
-0.0010948 -0.00012049 0.00032733 -0.00098251 9.5985e-05 -7.5969e-05 0.0014917 0.0021183
-0.012213 0.0015743 0.17566 0.26779
1580000000 0.28763 0.072335 -0.0087191 0.013634 -0.0010262 -0.0049029 0.0014641 0.0018181
-0.00030596 -0.0023214 -0.00024601 0.00039098
-0.0087081 0.013637 0.16746 0.30017 0.0057494 0.0071626 0.00059 -0.0015271
-0.00048203 -0.0010732 -0.00029853 -0.00076036
-0.0010259 -0.0048977 0.0057812 0.0071363 0.32812 -0.10523 -0.0014831 0.00024203
-0.00038764 -0.0014098 0.0001345 -0.00067962
0.0014855 0.001813 0.00057816 -0.0015277 -0.0014804 0.00023963 0.23487 0.10332
-0.010798 0.0077745 0.0022162 0.00077429
-0.00032672 -0.0023221 -0.00048589 -0.0010823 -0.00039119 -0.0013992 -0.010788 0.0077788
0.15296 0.18641 -0.0096218 0.0077016
-0.00026485 0.00038758 -0.00028396 -0.00076165 0.00016384 -0.00061667 0.0022088 0.00077752
-0.0096036 0.0077129 0.20894 0.24218
1640000000 0.29074 0.032081 -0.0016403 0.012559 -0.0029259 -0.0023483 0.0027361 0.0010619
-0.00078225 -0.0016372 -0.00026166 0.00045382
-0.0016475 0.012549 0.19674 0.27683 0.0057057 0.0021846 -0.00050061 -0.0018587
-0.00090443 -0.00054694 -0.0004674 -0.00065082
-0.0029104 -0.0023478 0.0057253 0.0021494 0.2991 -0.15361 -0.00073923 0.0012154
-0.0011306 -0.0010882 -0.00018215 -0.00047741
0.002756 0.0010534 -0.00051268 -0.001858 -0.00075161 0.0012142 0.24774 0.05478
-0.0066072 0.0085437 0.0026139 -0.00067696
-0.00078401 -0.0016414 -0.0008979 -0.00054037 -0.0011507 -0.0010745 -0.0065853 0.008564
0.17682 0.16509 -0.0045077 0.0099259
-0.00025158 0.00044445 -0.000492 -0.00064407 -0.00022623 -0.00048722 0.0026335 -0.00066217
-0.0045087 0.0099132 0.23488 0.21257
1700000000 0.28571 -0.012615 0.0019157 0.0096917 -0.0035474 0.0002613 0.0031712 -0.0012786
-0.0021251 -0.00057751 0.00059784 0.00047621
0.0019057 0.0096843 0.21616 0.24574 0.0029792 -0.00059074 -0.0014891 -0.0007026
-0.00080225 -0.00014583 -0.00083238 -0.00039735
-0.0035674 0.00030468 0.0029817 -0.00060998 0.25641 -0.19327 0.00011293 0.0016377
-0.0020936 -0.00010373 -0.00038688 -0.00078469
0.0031573 -0.0012941 -0.0014964 -0.00071001 0.00010467 0.0016524 0.24555 0.0045678
-0.0039982 0.0088397 0.0018107 -0.0022085
-0.0021469 -0.00057079 -0.00081496 -0.0001371 -0.002105 -0.00010943 -0.0039912 0.0088733
0.19681 0.14709 0.00043763 0.010005
0.00058831 0.00045381 -0.00083091 -0.00038578 -0.0003794 -0.00078086 0.001785 -0.0022074
0.00044294 0.010012 0.25315 0.17921
1760000000 0.2749 -0.06121 0.0043302 0.0063851 -0.0021662 0.0012824 0.0013876 -0.0035233
-0.001178 0.00068352 0.00017753 -0.0005738
0.0043138 0.0063822 0.24212 0.20663 0.00015258 -0.0018694 -0.0012464 5.5436e-05
-0.0011461 0.00084863 -0.00054085 0.00028871
-0.0021127 0.0012988 0.00014363 -0.0018641 0.2071 -0.22585 0.0010216 0.0014245
-0.0012174 0.0015014 -0.0012332 -0.00068579
0.0013764 -0.0035191 -0.0012364 5.7047e-05 0.001047 0.0014426 0.23662 -0.047613
-0.00091712 0.0078733 -8.9064e-05 -0.0025858
-0.001184 0.00071477 -0.0011539 0.00086831 -0.001215 0.0015129 -0.00088744 0.0078718
0.21308 0.11406 0.0045147 0.0073466
0.00019199 -0.00057524 -0.00053054 0.00031404 -0.001202 -0.00061368 -7.1462e-05 -0.0025501
0.0045005 0.0073419 0.26651 0.14197
1820000000 0.25251 -0.09853 0.0044902 0.0027757 0.00020793 0.0023152 -0.00095294 -0.0031482
-0.0010562 0.00084685 -0.00015274 -0.00014306
0.0044736 0.0027621 0.25367 0.17771 -0.0020005 -5.279e-05 -0.0014406 0.00095988
-0.00013678 0.0012642 -0.00067869 0.00042461
0.00021882 0.0023115 -0.0019949 -4.3857e-05 0.1578 -0.24057 0.0017603 0.00068005
-0.00022534 0.0022841 -0.0016606 0.00034859
-0.00098239 -0.0031468 -0.001439 0.00097333 0.0017575 0.00069275 0.20746 -0.095051
0.00037525 0.0064982 -0.0016511 -0.0018816
-0.0010455 0.00087277 -0.00012968 0.0012725 -0.00021071 0.0022841 0.0003663 0.0064994
0.23308 0.087383 0.0056234 0.003448
-9.4035e-05 -0.0001319 -0.00068536 0.00043662 -0.0016974 0.0003311 -0.0016703 -0.0019022
0.0056175 0.003446 0.27058 0.10703
1880000000 0.21889 -0.14014 0.0022846 0.00056545 -0.00020202 0.0022859 -0.0029552 -0.0024089
-0.00016947 0.0015747 0.00031024 -0.00058936
0.0022958 0.00055457 0.25865 0.13107 -0.0038675 0.0026754 -0.00026008 0.0018238
0.0005253 0.0014487 0.00011051 0.00095405
-0.00020053 0.0022851 -0.0038566 0.0027124 0.10635 -0.24947 0.0021593 -0.0011076
0.001638 0.0020262 -0.00097239 0.0014308
-0.0029626 -0.0023885 -0.00026257 0.0018282 0.0021425 -0.0011299 0.16695 -0.13615
0.00093215 0.0046138 -0.0024616 0.00015366
-0.00015374 0.0015858 0.00054362 0.001449 0.0016339 0.0020351 0.00092388 0.0046282
0.23909 0.056574 0.0057836 0.0011541
0.00031466 -0.00058754 0.0001231 0.00095923 -0.00096821 0.0014769 -0.0024822 0.00013836
0.0058067 0.0011483 0.27198 0.072467
1940000000 0.18005 -0.16667 0.00011918 -0.001157 0.0016771 0.0021279 -0.0039551 0.0003213
0.0010195 0.00083201 -0.0006331 -0.00056792
0.00011453 -0.0011385 0.26024 0.10023 -0.0020845 0.0055526 0.0011045 0.0013925
0.002053 0.0005465 0.00088295 0.00033511
0.0016737 0.0021168 -0.0020543 0.0055713 0.061521 -0.24155 0.0005734 -0.0025593
0.0024521 0.00040855 0.00014101 0.0016316
-0.0039478 0.00034756 0.0011236 0.0014032 0.00058985 -0.0025452 0.11417 -0.16676
5.7559e-05 0.0033003 -0.0017794 0.0013952
0.0010338 0.00079614 0.0020625 0.00052622 0.0024983 0.0004105 6.319e-05 0.0033035
0.2443 0.020065 0.0042735 -0.0027933
-0.00063046 -0.000611 0.00089981 0.00031804 0.00015316 0.0016519 -0.0017645 0.0013751
0.0042882 -0.0027681 0.26183 0.036973
2000000000 0.13513 -0.18254 -0.0034802 0.00083947 0.0030616 0.0013581 -0.0024827 0.0037917
0.00075461 0.00043955 -0.00075034 0.00044493
-0.0034688 0.00084388 0.24772 0.064819 -0.00074088 0.0078337 0.0017002 0.00032832
0.0013655 -0.001371 0.00053361 0.00014892
0.0030417 0.0013602 -0.00071132 0.0078329 0.020198 -0.22756 -0.0016208 -0.0016632
0.0020487 -0.0010627 0.0017202 0.0015925
-0.0024687 0.0038026 0.0017025 0.00030584 -0.0016136 -0.0016791 0.061094 -0.17723
-0.0016433 0.0033484 -0.00030002 0.0021363
0.0007926 0.00046542 0.0013669 -0.0013734 0.0020815 -0.0010842 -0.0016263 0.0033483
0.24216 -0.013069 0.00075592 -0.0039041
