!Keysight Technologies,M9804A,MY58100912,A.14.10.03
!Date: Thursday, April 27, 2023 10:28:33
!Correction: S11(C  6-Port  ) 
!S12(C  6-Port  ) 
!S13(C  6-Port  ) 
!S14(C  6-Port  ) 
!S15(C  6-Port  ) 
!S16(C  6-Port  ) 
!S21(C  6-Port  ) 
!S22(C  6-Port  ) 
!S23(C  6-Port  ) 
!S24(C  6-Port  ) 
!S25(C  6-Port  ) 
!S26(C  6-Port  ) 
!S31(C  6-Port  ) 
!S32(C  6-Port  ) 
!S33(C  6-Port  ) 
!S34(C  6-Port  ) 
!S35(C  6-Port  ) 
!S36(C  6-Port  ) 
!S41(C  6-Port  ) 
!S42(C  6-Port  ) 
!S43(C  6-Port  ) 
!S44(C  6-Port  ) 
!S45(C  6-Port  ) 
!S46(C  6-Port  ) 
!S51(C  6-Port  ) 
!S52(C  6-Port  ) 
!S53(C  6-Port  ) 
!S54(C  6-Port  ) 
!S55(C  6-Port  ) 
!S56(C  6-Port  ) 
!S61(C  6-Port  ) 
!S62(C  6-Port  ) 
!S63(C  6-Port  ) 
!S64(C  6-Port  ) 
!S65(C  6-Port  ) 
!S66(C  6-Port  ) 
!S6P File: Measurement: :
# Hz S  RI   R 50
500000000 -0.32949 -0.06681 -0.010187 -0.0012128 -0.0085216 0.012343 -0.0037313 0.012353
0.012287 0.0055809 -0.0043293 0.0088902
-0.010161 -0.0011828 -0.40932 -0.076412 0.009394 -0.010899 0.00143 0.012071
0.0081265 0.0036836 0.0010115 0.013728
-0.008599 0.012546 0.0093963 -0.010939 -0.2592 0.18743 0.0068449 0.0029957
-0.0021601 0.0088613 0.00033539 0.011489
-0.0037434 0.011963 0.00058359 0.01195 0.006777 0.0030804 -0.32617 0.037663
-0.020214 -0.0029755 0.018475 0.027207
0.012944 0.0056772 0.0089579 0.0034379 -0.0022786 0.0088861 -0.02014 -0.0028705
-0.22438 -0.22866 -0.028588 0.0062941
-0.0043035 0.0087958 0.00034316 0.013812 0.00059267 0.011683 0.018388 0.02706
-0.028703 0.0063018 -0.26125 -0.14128
560000000 -0.31871 0.10059 -0.020955 -0.067913 -2.7223e-05 0.012971 0.0051442 0.012191
0.011195 0.0043509 0.0096595 0.0087996
-0.021066 -0.067706 -0.37356 0.089811 -0.040441 -0.040384 0.013777 0.0031262
-0.012875 -0.0044892 0.0037543 -0.00042844
-8.8892e-05 0.013032 -0.040562 -0.040395 -0.18479 0.23898 -0.00015297 -0.0057032
0.017304 0.0060838 0.0080296 -0.0063965
0.0053566 0.011937 0.013997 0.0030936 -0.00037314 -0.005049 -0.30602 0.12932
0.0075808 -0.022584 0.0052872 -0.020448
0.01093 0.0045283 -0.01325 -0.0047451 0.018378 0.0053309 0.0076952 -0.022412
-0.30207 -0.043051 0.011382 -0.051697
0.010462 0.0084415 0.0041739 -0.0010453 0.008107 -0.0056893 0.0051368 -0.020338
0.011532 -0.051871 -0.33252 0.0087669
620000000 -0.27748 0.079982 -0.023273 0.0086412 0.0031401 0.0094331 0.0081583 -0.004173
0.012554 -0.00047584 0.00073433 -0.0019583
-0.023244 0.0085695 -0.40088 0.034643 -0.018759 -0.00050672 -0.0015068 -0.0020803
0.012585 -0.0053972 0.001128 -0.0032686
0.0032427 0.0094863 -0.018768 -0.00050242 -0.15727 0.24854 -0.0008582 -0.0049269
-0.0043831 -0.0031295 0.0096079 -0.0035762
0.0082964 -0.0036937 -0.0018691 -0.0019641 -0.001319 -0.0048074 -0.26253 0.13745
-0.039437 -0.018952 0.012844 0.028709
0.012097 -0.0011339 0.0129 -0.0059371 -0.0039065 -0.0030509 -0.03956 -0.018833
-0.22067 -0.08169 -0.043951 0.011594
7.0949e-05 -0.001738 0.00079124 -0.0032547 0.0093361 -0.003426 0.012815 0.028572
-0.043712 0.011408 -0.24844 -0.030849
680000000 -0.24306 0.1734 -0.026628 -0.015335 0.0043066 0.0058704 0.00099558 -0.0070997
-0.0013274 -0.011503 0.0060669 -0.0069204
-0.026606 -0.015239 -0.39141 0.13619 -0.033237 -0.0028675 -0.0021485 -0.00044478
-0.001679 -0.0096067 -0.0012163 -0.0019585
0.0045642 0.0058899 -0.033251 -0.0028539 -0.10949 0.27131 -0.00089404 4.9522e-05
-0.0013503 0.00092857 -0.0032639 -0.0098266
0.0011747 -0.0073879 -0.0018761 -0.00044374 -0.00087472 6.4512e-05 -0.22106 0.19039
-0.022281 -0.0085433 -0.0088062 -0.011346
-0.0013071 -0.011623 -0.0017918 -0.0094716 -0.0013907 0.00096592 -0.022379 -0.0085032
-0.2809 0.022668 -0.0056464 -0.0072208
0.0061016 -0.007881 -0.00098958 -0.0019039 -0.003231 -0.0095767 -0.0089296 -0.011295
-0.0057683 -0.0069079 -0.25942 0.075221
740000000 -0.19802 0.16594 -0.041318 0.026387 0.013784 -0.0038818 0.00022805 -0.0043542
-0.004495 -0.0017273 -0.0062805 0.0023996
-0.041375 0.026468 -0.3383 0.15635 -0.038011 0.034717 0.00017201 -0.0062016
-0.013026 0.0075785 -0.00097963 -0.0060905
0.013723 -0.0038236 -0.037866 0.034648 -0.07736 0.27153 -0.0014622 0.0035131
-0.0011156 -0.0055919 -0.0017496 0.00090487
0.00022082 -0.0046286 -4.4704e-05 -0.0058398 -0.0016029 0.003487 -0.20426 0.1982
-0.043509 -0.0096668 0.023312 0.016491
-0.0052553 -0.0018362 -0.012466 0.0068223 -0.00078023 -0.005692 -0.0435 -0.0096111
-0.17922 0.05446 -0.04464 -0.0013218
-0.0064083 0.0029257 -0.0015418 -0.0054178 -0.0020262 0.00086576 0.023374 0.016491
-0.044907 -0.0015418 -0.25258 0.082205
800000000 -0.16716 0.21289 -0.023039 0.016077 0.006147 -0.01019 -0.0046194 -0.0023103
-0.0048576 0.0020436 0.0050163 0.0006799
-0.023022 0.016058 -0.34633 0.22774 -0.0095029 0.034818 -0.0021459 0.0020358
-0.00059956 0.00228 0.0012466 0.0057517
0.0060186 -0.010435 -0.0094338 0.034812 -0.038198 0.29818 0.0010367 0.0011601
5.0238e-05 0.0031964 -0.0018645 0.00096403
-0.0048297 -0.0023954 -0.002064 0.0019017 0.0010297 0.0012057 -0.17586 0.22624
-0.029283 0.012266 0.014604 -0.0099001
-0.0044529 0.0026153 -0.00072298 0.0027018 0.00024399 0.0032014 -0.029335 0.012351
-0.23081 0.078389 -0.018925 0.020247
0.0042923 0.00023758 0.0012855 0.0054419 -0.0019157 0.00095943 0.014537 -0.0099464
-0.018927 0.020185 -0.24677 0.13218
860000000 -0.13377 0.23348 -0.019228 0.030638 -0.0031355 -0.010394 -0.002037 0.0003951
0.0045459 0.0052451 -0.0042869 -0.0032595
-0.019272 0.03065 -0.30004 0.27224 0.0068834 0.035223 9.5329e-05 0.00222
0.0044071 0.00020966 0.0033213 0.00010693
-0.0031108 -0.010355 0.0070376 0.035227 0.0093733 0.30867 -0.00068468 -0.00038764
0.0024407 -0.0018227 0.0017554 0.0041189
-0.0020609 0.0006628 0.00037795 0.0022976 -0.00071549 -0.00034569 -0.14085 0.23816
-0.019294 0.017549 -0.0063686 -0.0097973
0.0043476 0.0048985 0.0041141 6.6609e-05 0.0024487 -0.0017758 -0.019193 0.017629
-0.17632 0.13693 -0.026374 0.01667
-0.0034647 -0.0028717 0.003362 0.00013554 0.0017096 0.0040121 -0.0062004 -0.0096836
-0.02617 0.016772 -0.19859 0.17891
920000000 -0.11082 0.25779 0.0039247 0.039623 -0.0094703 -0.0048274 -0.0019495 0.0017492
0.00043178 0.0018195 0.0027746 -0.001722
0.0039025 0.039592 -0.27299 0.29521 0.028184 0.023826 0.0012849 0.00090577
0.0075424 7.4383e-05 0.0039208 -0.0030401
-0.0095619 -0.0048363 0.028306 0.023763 0.056012 0.31152 0.0016982 -0.0001326
0.0005747 -0.0003389 0.00093757 -0.0014534
-0.0018823 0.0018457 0.0012991 0.0010558 0.0016832 -0.0001084 -0.11658 0.25592
-0.012386 0.031119 0.0041513 -0.0066689
0.00070161 0.0019469 0.0074442 -0.00019169 0.00066635 -0.00031546 -0.012368 0.031205
-0.16906 0.14215 -0.002816 0.028219
0.0029767 -0.001562 0.0040176 -0.0030999 0.00094244 -0.0014687 0.0041036 -0.0066426
-0.0029121 0.02838 -0.2076 0.19346
980000000 -0.064864 0.27933 0.016356 0.031408 -0.0096628 0.0047234 0.0017728 0.0036735
0.0040357 -0.0012091 -0.0033402 -0.002591
0.016317 0.031415 -0.22052 0.33195 0.033708 0.0060208 0.0018899 -0.00022182
0.0015366 -0.0059579 -0.00052222 -0.0026407
-0.0096501 0.0046659 0.03378 0.0059187 0.10251 0.30606 0.00054475 -0.0011174
0.00030376 -0.0016341 0.0015276 -0.00022235
0.0017878 0.0038205 0.0018811 -0.00030784 0.00055618 -0.0011043 -0.078254 0.26757
0.0063907 0.030763 -0.009796 -0.0079862
0.0039665 -0.0014992 0.001615 -0.0060658 0.00029028 -0.0017169 0.0064503 0.030781
-0.13687 0.1769 0.004896 0.02154
-0.0033368 -0.0023457 -0.00065438 -0.0025734 0.0015613 -0.00020207 -0.0097672 -0.0080413
0.0049041 0.021439 -0.16495 0.24008
1040000000 -0.024153 0.28989 0.03346 0.020742 -0.0012063 0.0078329 0.0026785 0.00066766
0.00043468 -0.0033786 0.00016075 -0.0015016
0.03345 0.020757 -0.18579 0.34693 0.030688 -0.014215 0.0015352 -0.0015748
-0.0024257 -0.0025526 -0.0013319 -0.0029403
-0.0012829 0.0077816 0.030663 -0.014344 0.14878 0.29437 -0.00050233 -0.0014303
-0.0015191 -0.00095246 -0.00051931 -0.001166
0.0027354 0.0006086 0.0015945 -0.0016458 -0.00050052 -0.0014074 -0.051017 0.27849
0.019134 0.019766 -0.0021341 0.0014155
0.00043584 -0.0033934 -0.0025256 -0.0023677 -0.001495 -0.001011 0.019166 0.019757
-0.10543 0.18714 0.013568 0.019164
-9.6859e-05 -0.0013292 -0.0013722 -0.0028066 -0.0005265 -0.0011228 -0.0021822 0.0013913
0.01362 0.019198 -0.14528 0.26226
1100000000 0.020988 0.3003 0.037567 -0.0022937 0.0036242 0.0043195 0.0024691 -0.0012473
-0.0022922 -0.0032233 -0.0043462 -3.7366e-05
0.037531 -0.0022623 -0.14183 0.36697 0.016268 -0.028119 -0.00011745 -0.0018528
-0.0034303 -0.0010008 -0.0037606 -0.0004149
0.0036974 0.0043498 0.016227 -0.028198 0.19605 0.2753 -0.0017362 0.0002818
-0.0016238 0.00067133 -0.001082 -0.00069814
0.0024089 -0.0011792 -0.00011903 -0.0017898 -0.0017262 0.00028359 -0.010094 0.28389
0.025138 0.0063287 -0.0026031 0.0001738
-0.0022997 -0.0032391 -0.0035726 -0.0009315 -0.0016504 0.00075469 0.025155 0.0062904
-0.086198 0.20114 0.019729 0.010236
-0.0041561 -9.3146e-05 -0.0035657 -0.00050677 -0.0010607 -0.00076793 -0.0025997 0.00015817
0.019778 0.010222 -0.099024 0.2937
1160000000 0.071481 0.29733 0.025979 -0.020202 0.0037083 -0.00071818 -0.00029947 -0.002586
-0.0042199 -0.0009701 -0.0012338 0.0042342
0.025959 -0.020181 -0.098635 0.37225 -0.0031229 -0.029496 -0.0015478 -0.0015792
-0.0025994 0.0025019 -0.0014804 0.0019787
0.003662 -0.00072571 -0.0032295 -0.02954 0.23938 0.2455 -0.00060857 0.001681
-0.00041516 0.0017315 -0.0013237 0.00030297
-0.00021956 -0.0025759 -0.0015298 -0.0016361 -0.00065385 0.001691 0.029159 0.28133
0.02212 -0.009917 -0.0034739 0.0051961
-0.0041179 -0.00093691 -0.0026045 0.0025807 -0.00042188 0.0016755 0.022102 -0.009977
-0.052323 0.21273 0.019732 0.00071228
-0.0012749 0.0042481 -0.0014521 0.0019391 -0.0012483 0.00030567 -0.003472 0.0051875
0.019715 0.00064321 -0.052914 0.29746
1220000000 0.11588 0.28938 0.012736 -0.030643 -0.0010853 -0.0017673 -0.000112 -0.00090661
-0.0028285 0.002316 0.0012311 0.0020088
0.012739 -0.030614 -0.053592 0.38724 -0.016919 -0.02178 -0.0025536 0.00055392
0.00014984 0.003038 -0.00077496 0.001913
-0.0010826 -0.0017492 -0.01702 -0.021729 0.27955 0.20767 0.00086789 0.001469
0.00058458 0.0010488 0.00023937 0.00069761
-0.00019035 -0.00091121 -0.0025719 0.00054841 0.00086136 0.0014207 0.069331 0.27367
0.011061 -0.016984 0.0023912 0.0017329
-0.0027847 0.0023073 0.00020301 0.0029818 0.00059895 0.0011246 0.011058 -0.016975
-0.029171 0.22452 0.014704 -0.012655
0.0012758 0.0020208 -0.00083081 0.0018982 0.00017983 0.00068409 0.0023895 0.0017238
0.014644 -0.012586 -0.021445 0.31582
1280000000 0.16663 0.26964 -0.0067019 -0.030012 -0.0021051 0.0015748 -0.0010003 -0.002003
-0.00074405 0.0034174 0.0025036 0.0014249
-0.0066668 -0.029995 -0.0064499 0.37881 -0.024157 -0.0085393 -0.00075645 0.0013675
0.0017525 0.0016653 0.00066223 0.0020942
-0.0021041 0.0015557 -0.024226 -0.0084358 0.31106 0.16397 0.0014566 -0.00018374
0.0010487 0.00031909 0.00032913 0.00043212
-0.00097391 -0.0019815 -0.0008088 0.0013817 0.0014212 -0.00015467 0.10614 0.25711
0.0015371 -0.019482 -0.00014473 8.7906e-05
-0.00078802 0.003491 0.0016815 0.0016781 0.0010712 0.00026412 0.0015191 -0.019482
0.0080784 0.22996 0.0041103 -0.016112
0.0026109 0.0013293 0.00068551 0.0021339 0.00036661 0.00043577 -0.00016171 0.00011788
0.0041372 -0.016103 0.026432 0.31874
1340000000 0.20428 0.23842 -0.017169 -0.020643 6.1364e-05 0.0041818 -0.0017751 -0.00074081
0.00153 0.0028718 0.0017648 -0.0015088
-0.017124 -0.020627 0.032661 0.37189 -0.021481 0.004395 -0.00015331 0.0019015
0.0018289 0.00084406 0.0012748 0.00082309
0.0001026 0.0041913 -0.021468 0.0045118 0.3335 0.11701 0.00076585 -0.00093092
0.00052 -0.0005605 1.6167e-06 0.0002477
-0.0018277 -0.00072467 -0.00017465 0.0019205 0.00078165 -0.00093511 0.13904 0.23757
-0.0082848 -0.016591 0.0012183 0.00041953
0.0015444 0.0028778 0.0017825 0.00087414 0.00054209 -0.00052572 -0.0083091 -0.016585
0.038168 0.22788 -0.0031373 -0.014288
0.0017733 -0.0015111 0.0012475 0.00079687 -4.2465e-06 0.0002125 0.0012245 0.00040918
-0.003151 -0.014275 0.063999 0.31538
1400000000 0.23949 0.20182 -0.023995 -0.0088938 0.0046996 0.0033349 -0.0021042 0.00067705
0.0026815 0.0009735 0.00037811 -0.0013895
-0.023967 -0.0089142 0.071523 0.35949 -0.01457 0.012618 0.0011828 0.0012798
0.0011342 -0.0007341 0.0011761 0.00012234
0.004736 0.0033111 -0.014499 0.01272 0.34779 0.063373 -0.00010415 -0.0012936
0.00015177 -0.00024871 0.00050538 0.00027428
-0.0020778 0.00067666 0.0012052 0.001265 -0.00013279 -0.0013069 0.16901 0.20894
-0.014471 -0.0097377 -0.00093176 -0.00034355
0.0026962 0.0010152 0.0011371 -0.00071012 0.00017832 -0.00025452 -0.014482 -0.0096953
0.072649 0.2253 -0.0099399 -0.0095241
0.00029998 -0.0014248 0.0011169 0.00017145 0.00050354 0.00022844 -0.00096392 -0.00032303
-0.0099463 -0.0095414 0.1095 0.30592
1460000000 0.26293 0.15863 -0.021308 0.0040177 0.0052868 -0.0015314 -0.0015097 0.001673
0.0021973 -0.00049875 -0.00032898 -0.00093224
-0.021303 0.0039908 0.10542 0.33766 -0.0053497 0.015314 0.0015707 0.00032503
0.001046 -0.0012238 0.0012435 -0.00058958
0.0053076 -0.0015439 -0.005277 0.015347 0.35413 0.0089129 -0.001115 -0.00099427
0.00028073 -0.00013435 0.00076139 -0.00018724
-0.0015102 0.0016738 0.0015451 0.00029059 -0.0010889 -0.0010091 0.19547 0.18026
-0.015391 -0.0029204 -0.00086382 0.0018895
0.0022065 -0.00052991 0.0010059 -0.0012505 0.00027668 -0.00014272 -0.015415 -0.0029008
0.10234 0.21243 -0.012219 -0.0032545
-0.00028508 -0.00089165 0.0012715 -0.00057791 0.00073292 -0.00018376 -0.00084731 0.0018612
-0.012184 -0.0032386 0.14272 0.286
1520000000 0.27681 0.11835 -0.01583 0.010087 0.0032481 -0.0039128 0.00013703 0.0026147
0.0021818 -0.0019856 -0.0010474 -8.0874e-05
-0.015826 0.010083 0.13937 0.32461 0.0022172 0.012476 0.0017181 -0.00060063
0.00012622 -0.00094559 0.00028571 -0.00096505
0.0032482 -0.0039485 0.0022916 0.012473 0.34757 -0.046759 -0.00068002 -0.00031118
0.00056087 -0.00094732 6.3588e-05 -0.00012478
0.00017816 0.0025927 0.0017061 -0.00061676 -0.00067947 -0.00036371 0.21956 0.14287
-0.014705 0.0027474 0.0014343 0.0021005
0.0022882 -0.0020341 0.00013063 -0.00095752 0.0006063 -0.00096225 -0.014703 0.0027942
0.13083 0.20117 -0.011994 0.0014493
-0.0010742 -0.0001299 0.00028559 -0.00097789 8.6458e-05 -0.00010847 0.001432 0.0020874
-0.012002 0.001444 0.17653 0.26773
1580000000 0.28755 0.072543 -0.00888 0.013845 -0.0010094 -0.0046388 0.0014723 0.0018076
-0.00019689 -0.0023238 -0.0002661 0.00026571
-0.0089021 0.013818 0.16714 0.29975 0.005582 0.0072921 0.00065447 -0.0014984
-0.00042541 -0.0011298 -0.000223 -0.00074383
-0.0010522 -0.0046288 0.0056015 0.0072653 0.32797 -0.10499 -0.0014052 0.00019142
-0.00033479 -0.001379 0.00026914 -0.00055421
0.0014804 0.0018314 0.00062858 -0.0015152 -0.0014169 0.0002106 0.23416 0.10336
-0.010893 0.0076799 0.0020323 0.00074819
-0.00024358 -0.002282 -0.00045229 -0.0011058 -0.00034037 -0.0013266 -0.010905 0.0076886
0.15612 0.18452 -0.0096385 0.0076246
-0.00027504 0.0003064 -0.00028064 -0.00071729 0.00025235 -0.00053751 0.002022 0.00077676
-0.0096353 0.0076229 0.20981 0.24176
1640000000 0.29043 0.032365 -0.0017577 0.012758 -0.0027955 -0.0022776 0.0027693 0.0010632
-0.0006973 -0.0016197 -0.00033873 0.00040563
-0.0017723 0.012746 0.19627 0.27653 0.005597 0.0023315 -0.00044083 -0.0018907
-0.00085708 -0.00049341 -0.00050719 -0.00063752
-0.0028493 -0.0022427 0.0056316 0.002277 0.29876 -0.15332 -0.00072279 0.0011397
-0.00093505 -0.0010493 -0.00020217 -0.00042446
0.0027717 0.0010742 -0.00046836 -0.0019022 -0.00071121 0.0011123 0.24694 0.055186
-0.0068153 0.0084258 0.0025494 -0.00062411
-0.00068603 -0.001547 -0.00084871 -0.00050763 -0.00093263 -0.0010391 -0.0067913 0.0084496
0.17899 0.16298 -0.0044427 0.0098239
-0.00036726 0.00039247 -0.00050458 -0.0006499 -0.00018666 -0.000427 0.0025271 -0.00064004
-0.0044516 0.0098648 0.23534 0.21208
1700000000 0.28576 -0.01233 0.0019171 0.0099293 -0.0033757 0.00041307 0.0030836 -0.0012905
-0.0020901 -0.00065289 0.00055888 0.00047574
0.001905 0.0099062 0.21567 0.24559 0.0029284 -0.00040001 -0.0014762 -0.00079656
-0.00077395 -0.00014451 -0.00081875 -0.00044295
-0.003449 0.00039655 0.0029357 -0.00044438 0.25623 -0.19278 4.8628e-05 0.0015352
-0.002073 -0.00021679 -0.00030844 -0.00086549
0.0030535 -0.0012741 -0.0014597 -0.00075146 -3.1441e-05 0.0015118 0.24506 0.0051383
-0.0041338 0.008737 0.0016533 -0.002094
-0.0020979 -0.00056056 -0.00080275 -0.00010831 -0.0021405 -0.00020827 -0.0041065 0.0087653
0.1988 0.14454 0.00023162 0.00994
0.0005789 0.0004544 -0.00078707 -0.00043479 -0.00028861 -0.00079373 0.0016689 -0.0021164
0.00026013 0.0099054 0.25404 0.1786
1760000000 0.27482 -0.061027 0.0043723 0.006587 -0.0021549 0.0012354 0.0013786 -0.003375
-0.0011751 0.00060665 0.00026485 -0.00061706
0.0043551 0.0065735 0.24151 0.20661 0.00018406 -0.0018226 -0.0013238 3.5507e-05
-0.0011494 0.00086248 -0.00048874 0.00030035
-0.0021187 0.0012098 0.00017635 -0.0018339 0.20751 -0.22577 0.00097024 0.0013616
-0.001126 0.0014229 -0.0012956 -0.00068388
0.0013517 -0.003411 -0.0013324 4.0181e-05 0.0010019 0.0013701 0.23624 -0.04686
-0.0011146 0.0079054 -0.00019934 -0.0025395
-0.0012183 0.00063373 -0.0011152 0.00086711 -0.0010993 0.0014091 -0.0011211 0.0079074
0.21416 0.11162 0.0043266 0.0071916
0.00034381 -0.00062222 -0.00052033 0.00031079 -0.0013306 -0.00069368 -0.00022998 -0.0024779
0.0043194 0.0072285 0.26696 0.14125
1820000000 0.2526 -0.098313 0.0046552 0.0028729 0.00030855 0.0023977 -0.00096212 -0.0030103
-0.0011951 0.00093391 -0.00013025 -0.00013785
0.0046533 0.0028696 0.25321 0.178 -0.0019104 0.00025134 -0.0015492 0.00095342
-0.00016998 0.0012167 -0.00069191 0.00040432
0.00032789 0.002378 -0.0019465 0.00023166 0.15744 -0.24023 0.0017626 0.00072864
-0.00039885 0.0023396 -0.0017196 0.0002495
-0.00093935 -0.0030874 -0.001517 0.00095723 0.0017946 0.00067363 0.20746 -0.093981
0.00012138 0.0067302 -0.0016882 -0.0017163
-0.0011073 0.00086017 -0.00012064 0.0012327 -0.00038602 0.0023419 0.00011964 0.0067717
0.23367 0.085226 0.0054256 0.0033045
-0.00013339 -0.00017706 -0.00063791 0.00042204 -0.0016684 0.00026757 -0.0016573 -0.0017362
0.0054234 0.0033098 0.27124 0.10638
1880000000 0.21903 -0.13998 0.0024436 0.00070554 -0.00023159 0.0022435 -0.0027931 -0.0023924
-0.00019937 0.0016319 0.00040556 -0.00057215
0.0024403 0.00068407 0.25836 0.13134 -0.0036996 0.0028041 -0.00022076 0.0019187
0.0005308 0.001411 0.00019233 0.00099463
-0.00025149 0.0022483 -0.0037241 0.0028114 0.10613 -0.24889 0.0021909 -0.00084175
0.0015739 0.0020562 -0.00096801 0.0015561
-0.0027934 -0.0022779 -0.00027146 0.0018931 0.002211 -0.00083244 0.16713 -0.1355
0.00079557 0.0049779 -0.0024811 0.00030603
-0.00020216 0.0017178 0.00052471 0.0014111 0.0015465 0.0020117 0.00084835 0.004942
0.23928 0.054699 0.0055326 0.0012617
0.00035535 -0.00067579 0.00019894 0.00098531 -0.00091679 0.0016473 -0.0025303 0.0003127
0.005548 0.0012394 0.27237 0.071538
1940000000 0.18035 -0.16621 0.00026998 -0.0010176 0.0015418 0.0018081 -0.0037415 0.00027837
0.0011903 0.0010288 -0.00073298 -0.00050469
0.00028136 -0.0010214 0.25996 0.10064 -0.0018078 0.005493 0.0010414 0.001466
0.0019529 0.00051415 0.00085867 0.00036248
0.0015746 0.0017613 -0.0017766 0.0055229 0.061802 -0.2411 0.0005009 -0.0023771
0.0022655 0.00050253 0.00030673 0.0017838
-0.0037564 0.00030592 0.0011295 0.0015092 0.00054748 -0.0024323 0.11451 -0.1662
-8.9978e-06 0.0036914 -0.0015611 0.0014644
0.0012335 0.0010026 0.0019809 0.00051629 0.0022992 0.00048405 -7.1393e-05 0.0037437
0.24437 0.018415 0.0041015 -0.0027936
-0.00067236 -0.00049709 0.00096073 0.0002594 0.00031894 0.0017657 -0.0015257 0.0014566
0.0040618 -0.0027939 0.26188 0.036037
2000000000 0.13529 -0.1826 -0.0031838 0.0008768 0.0028636 0.0013391 -0.0024326 0.003634
0.0010183 0.00043216 -0.00072187 0.0005573
-0.0031687 0.00087752 0.24761 0.06516 -0.00067119 0.007559 0.0018469 0.00038639
0.0012582 -0.0012198 0.00038562 4.3103e-05
0.0029203 0.0013031 -0.00061372 0.0075579 0.020362 -0.22766 -0.0015729 -0.0016489
0.0019767 -0.00095427 0.0014071 0.0015836
-0.0024354 0.0036438 0.001761 0.00042356 -0.0015516 -0.0016867 0.061865 -0.17721
-0.0011052 0.0038351 -0.00010684 0.0021028
0.0010087 0.0003731 0.0012623 -0.001249 0.0020628 -0.00095506 -0.00097026 0.0038178
0.24265 -0.014242 0.00065054 -0.0036945
