!Keysight Technologies,M9804A,MY58100912,A.14.10.03
!Date: Thursday, April 27, 2023 10:28:33
!Correction: S11(C  6-Port  ) 
!S12(C  6-Port  ) 
!S13(C  6-Port  ) 
!S14(C  6-Port  ) 
!S15(C  6-Port  ) 
!S16(C  6-Port  ) 
!S21(C  6-Port  ) 
!S22(C  6-Port  ) 
!S23(C  6-Port  ) 
!S24(C  6-Port  ) 
!S25(C  6-Port  ) 
!S26(C  6-Port  ) 
!S31(C  6-Port  ) 
!S32(C  6-Port  ) 
!S33(C  6-Port  ) 
!S34(C  6-Port  ) 
!S35(C  6-Port  ) 
!S36(C  6-Port  ) 
!S41(C  6-Port  ) 
!S42(C  6-Port  ) 
!S43(C  6-Port  ) 
!S44(C  6-Port  ) 
!S45(C  6-Port  ) 
!S46(C  6-Port  ) 
!S51(C  6-Port  ) 
!S52(C  6-Port  ) 
!S53(C  6-Port  ) 
!S54(C  6-Port  ) 
!S55(C  6-Port  ) 
!S56(C  6-Port  ) 
!S61(C  6-Port  ) 
!S62(C  6-Port  ) 
!S63(C  6-Port  ) 
!S64(C  6-Port  ) 
!S65(C  6-Port  ) 
!S66(C  6-Port  ) 
!S6P File: Measurement: :
# Hz S  RI   R 50
500000000 -0.32869 -0.066177 -0.0099753 -0.001003 -0.0082521 0.012306 -0.0042167 0.012207
0.012229 0.0064775 -0.0036172 0.0093382
-0.010007 -0.00093645 -0.41029 -0.07618 0.0089413 -0.011115 0.001886 0.011955
0.0085062 0.0035987 0.0019689 0.014254
-0.008188 0.01223 0.0089424 -0.011224 -0.25983 0.1878 0.0069733 0.0030145
-0.0017807 0.008401 0.00057435 0.011973
-0.0041586 0.012476 0.0019109 0.012082 0.0069916 0.003063 -0.32698 0.037609
-0.019286 -0.0034236 0.017223 0.025533
0.012238 0.0062779 0.00841 0.00359 -0.0017733 0.008375 -0.019268 -0.0034454
-0.2265 -0.22684 -0.028348 0.0067556
-0.0045663 0.0097372 0.0017358 0.014466 0.00061944 0.012009 0.017696 0.02579
-0.027816 0.0063649 -0.26192 -0.14483
560000000 -0.31988 0.10211 -0.021076 -0.067504 0.00018694 0.012975 0.0057662 0.011644
0.011655 0.00484 0.0090643 0.0098493
-0.020983 -0.068 -0.37284 0.090268 -0.040771 -0.040446 0.013547 0.0036008
-0.013481 -0.0051458 0.0029369 -0.0009204
0.0003447 0.01322 -0.040784 -0.040392 -0.18486 0.23951 -0.00043875 -0.0062633
0.016894 0.0063478 0.0084444 -0.0068865
0.0058501 0.011674 0.013601 0.0032713 -0.00042024 -0.0061999 -0.30655 0.12973
0.0077836 -0.022344 0.0056514 -0.020316
0.011223 0.0046228 -0.013891 -0.0052435 0.016869 0.0063909 0.0077423 -0.0224
-0.30242 -0.041743 0.012194 -0.051108
0.0092365 0.009239 0.003402 -0.0013063 0.0084141 -0.0066127 0.0054479 -0.020827
0.011797 -0.051115 -0.33207 0.0085559
620000000 -0.27728 0.080075 -0.023334 0.0084754 0.0032263 0.0091861 0.0084893 -0.0041602
0.011965 -0.0013896 0.00053529 -0.0020844
-0.023304 0.0085176 -0.40095 0.035132 -0.018902 -0.00029289 -0.0016378 -0.0022487
0.012268 -0.0055582 0.00092973 -0.0032773
0.0033035 0.0092557 -0.01891 -0.00026248 -0.15735 0.24873 -0.00075889 -0.0051649
-0.0042313 -0.0025869 0.0098491 -0.0032276
0.0084256 -0.0039529 -0.0016461 -0.0022989 -0.00075915 -0.005198 -0.26263 0.13803
-0.039924 -0.01969 0.013898 0.028101
0.012312 -0.0012361 0.012394 -0.0055699 -0.0041401 -0.0026015 -0.040063 -0.019726
-0.21919 -0.080492 -0.044544 0.011981
0.00059882 -0.0021481 0.00093718 -0.0032922 0.0098471 -0.0029709 0.013791 0.027843
-0.044472 0.012289 -0.24677 -0.028434
680000000 -0.24268 0.17264 -0.026556 -0.015748 0.0044479 0.0058205 0.0010537 -0.0069623
-0.0014929 -0.011425 0.0055795 -0.0067928
-0.026551 -0.015755 -0.39136 0.13641 -0.03329 -0.0027778 -0.0020371 -0.00051507
-0.0017856 -0.0095016 -0.0010527 -0.0018211
0.0043581 0.0057274 -0.033352 -0.0026845 -0.10953 0.27151 -0.0007277 3.7214e-05
-0.0017971 0.00095491 -0.0029374 -0.0089706
0.00078704 -0.0071997 -0.0020538 -0.00052673 -0.00073926 4.8746e-05 -0.22123 0.19112
-0.022906 -0.0089764 -0.010047 -0.010519
-0.0013002 -0.011717 -0.0018502 -0.0094972 -0.0018314 0.00091185 -0.022847 -0.0090438
-0.28061 0.021756 -0.0050538 -0.0092284
0.0058149 -0.0073777 -0.0010131 -0.001899 -0.002903 -0.009212 -0.009868 -0.010921
-0.0048663 -0.0087745 -0.26153 0.074067
740000000 -0.19725 0.16634 -0.041747 0.026703 0.01369 -0.003938 6.7461e-05 -0.0042874
-0.0040402 -0.0015477 -0.0064388 0.0022433
-0.041702 0.026627 -0.33824 0.15612 -0.038271 0.034519 0.00046359 -0.0061883
-0.013178 0.0079335 -0.00044454 -0.0060061
0.013738 -0.0038865 -0.03818 0.034624 -0.077021 0.27163 -0.001707 0.0036552
-0.0013545 -0.0061002 -0.0020272 0.0012835
3.6397e-05 -0.0042286 0.0004498 -0.0061697 -0.001734 0.0036661 -0.20476 0.19801
-0.042806 -0.0096181 0.02318 0.015765
-0.0040198 -0.0017496 -0.013312 0.0080606 -0.0012352 -0.0061318 -0.042722 -0.0095093
-0.17921 0.053186 -0.043987 0.00069845
-0.0065298 0.0022823 -0.00036151 -0.0059983 -0.0021071 0.0013197 0.023111 0.015881
-0.044443 0.00064667 -0.25231 0.080064
800000000 -0.16711 0.21291 -0.023067 0.015983 0.0061979 -0.010196 -0.004478 -0.0021668
-0.0050074 0.0018175 0.0051042 0.0008466
-0.023076 0.016028 -0.34609 0.22794 -0.0094963 0.034847 -0.0021929 0.0021367
-0.00032604 0.0024159 0.0010769 0.0054262
0.0060954 -0.010088 -0.0094138 0.034922 -0.038155 0.29824 0.0010596 0.0011927
0.00018048 0.0032223 -0.0017314 0.00084756
-0.0045759 -0.0023408 -0.0022481 0.0021301 0.0010558 0.0011758 -0.17596 0.22604
-0.029281 0.012867 0.014832 -0.010122
-0.0051419 0.0017945 -0.00030085 0.0024513 0.00019755 0.0032148 -0.029286 0.012882
-0.23066 0.078689 -0.019134 0.02054
0.0048516 0.0006678 0.001131 0.0053568 -0.0017891 0.00073241 0.014863 -0.010162
-0.019247 0.020453 -0.24689 0.1341
860000000 -0.13396 0.23373 -0.01914 0.030515 -0.0031033 -0.010495 -0.0020126 0.00036452
0.004518 0.0051848 -0.0045185 -0.003313
-0.019171 0.030502 -0.29966 0.27269 0.0069581 0.035231 4.897e-05 0.0019608
0.0040493 0.00025719 0.0036375 1.2355e-05
-0.0031284 -0.010466 0.0070577 0.035263 0.0095765 0.30865 -0.00056725 -0.00048007
0.0023149 -0.00189 0.0017765 0.0041422
-0.0019695 0.00054839 0.00011695 0.0019434 -0.00056863 -0.00048457 -0.14053 0.23832
-0.019365 0.017316 -0.00645 -0.0096268
0.0046063 0.005088 0.0040648 0.0002303 0.0023035 -0.0018789 -0.019337 0.017302
-0.17647 0.13681 -0.026445 0.016539
-0.0042198 -0.0034685 0.0036433 -3.7994e-05 0.0018595 0.0042112 -0.0064944 -0.0096555
-0.026514 0.01654 -0.19774 0.1798
920000000 -0.11096 0.25813 0.0037977 0.039987 -0.0095042 -0.0047672 -0.0018833 0.0018732
0.00062893 0.0016475 0.002673 -0.0016083
0.0037807 0.039961 -0.27257 0.29564 0.028253 0.023867 0.001279 0.0010496
0.0073523 -0.00012728 0.0038187 -0.0028193
-0.0095307 -0.0047157 0.02836 0.023817 0.056247 0.31153 0.0017362 -7.5786e-05
0.00049738 -0.00036248 0.00090033 -0.0014195
-0.0018942 0.0017928 0.0012671 0.0010503 0.0017305 -8.8812e-05 -0.11661 0.25622
-0.012325 0.030922 0.0038618 -0.0065862
0.00057986 0.0016076 0.0073319 -0.0002074 0.00053254 -0.0003456 -0.012316 0.030919
-0.16865 0.14235 -0.0028353 0.028306
0.0025956 -0.0014578 0.0038253 -0.0029194 0.00083936 -0.0014352 0.0039584 -0.0066558
-0.0028493 0.028235 -0.20764 0.19293
980000000 -0.064891 0.27983 0.016232 0.031487 -0.0096843 0.00481 0.0017264 0.0036802
0.0040306 -0.0014032 -0.0037307 -0.0025369
0.016201 0.031443 -0.22043 0.33235 0.033749 0.0060677 0.0018788 -0.00021274
0.0016636 -0.0061095 -0.00065141 -0.002788
-0.0096656 0.0048058 0.033791 0.0059673 0.1027 0.30609 0.00056647 -0.0010711
0.00034582 -0.0017254 0.0015012 -0.00039186
0.0018172 0.0037628 0.0018704 -0.00021797 0.00057987 -0.0010763 -0.078323 0.26753
0.0065469 0.030714 -0.0095621 -0.0080852
0.0040119 -0.0014279 0.0016697 -0.0061767 0.00034705 -0.0017332 0.0065772 0.030719
-0.13678 0.1776 0.0051025 0.02154
-0.0035977 -0.0025552 -0.00054367 -0.00279 0.0015592 -0.00035021 -0.009685 -0.007985
0.0051238 0.021444 -0.16594 0.24031
1040000000 -0.024503 0.29005 0.033383 0.020615 -0.001163 0.0078535 0.0027114 0.00064696
0.00038823 -0.0033196 0.00014973 -0.0016479
0.033336 0.020621 -0.1856 0.34722 0.030687 -0.014199 0.001573 -0.001644
-0.0024733 -0.0023552 -0.0013011 -0.0028583
-0.0011054 0.0078642 0.030648 -0.014295 0.14897 0.29433 -0.00049348 -0.0013825
-0.0015243 -0.00095554 -0.00054887 -0.0011003
0.0026706 0.00066432 0.0015754 -0.0016239 -0.00049235 -0.0013827 -0.050842 0.27841
0.019087 0.019778 -0.0022442 0.0014879
0.00046639 -0.0032626 -0.0025409 -0.0023683 -0.0015398 -0.00091221 0.019155 0.019763
-0.10567 0.18739 0.014109 0.01947
0.00011462 -0.0014508 -0.0014332 -0.0028153 -0.00054388 -0.0011118 -0.0021754 0.0013971
0.013951 0.019474 -0.14497 0.26204
1100000000 0.021217 0.3002 0.037418 -0.0024242 0.0036036 0.0043037 0.0024672 -0.0011657
-0.0023204 -0.0031755 -0.0041951 -3.5007e-06
0.037412 -0.0023971 -0.14171 0.36704 0.016225 -0.028112 -5.6197e-05 -0.0018366
-0.0034283 -0.00085684 -0.0037536 -0.00037906
0.0036365 0.0043206 0.016138 -0.0282 0.19623 0.27521 -0.0017757 0.00027475
-0.001626 0.00067611 -0.0011142 -0.00071067
0.0024988 -0.0011781 -7.7461e-05 -0.0018244 -0.0017799 0.00027414 -0.010026 0.28394
0.025125 0.0062616 -0.0025639 0.00014002
-0.0023829 -0.0032045 -0.0034604 -0.00085719 -0.0016434 0.00066657 0.025137 0.0062592
-0.086249 0.20163 0.019706 0.010229
-0.0042506 -8.2721e-05 -0.0038269 -0.0004606 -0.0011419 -0.00067866 -0.0025821 0.00014065
0.019778 0.010202 -0.09868 0.29331
1160000000 0.071943 0.29758 0.025979 -0.020077 0.0037415 -0.00071436 -0.00021206 -0.0026133
-0.0041883 -0.001054 -0.0012766 0.0042682
0.025944 -0.020036 -0.098187 0.3724 -0.0031452 -0.029463 -0.0015993 -0.0016256
-0.0025338 0.0025296 -0.0015901 0.0020246
0.0037528 -0.00074989 -0.0032852 -0.029482 0.23956 0.24539 -0.00062749 0.0016518
-0.00040068 0.0018217 -0.0012637 0.0002845
-0.00026004 -0.0025802 -0.0016154 -0.0016302 -0.00062657 0.0016671 0.029367 0.28134
0.022107 -0.01004 -0.0035739 0.0053218
-0.0042003 -0.0010443 -0.0025589 0.002524 -0.00040895 0.0018437 0.022092 -0.010044
-0.052114 0.21296 0.019805 0.00075076
-0.0012126 0.0043559 -0.001461 0.0019875 -0.0012423 0.00029672 -0.0035843 0.0053034
0.019856 0.00074607 -0.052844 0.29732
1220000000 0.116 0.28947 0.012675 -0.030515 -0.0011044 -0.0017333 -0.00014587 -0.00086925
-0.0028265 0.0023862 0.0011794 0.0019367
0.012694 -0.030504 -0.053208 0.38727 -0.016914 -0.021757 -0.0025484 0.00062562
0.00011004 0.0030201 -0.00082584 0.0019655
-0.0010919 -0.0017252 -0.017023 -0.021725 0.27968 0.20749 0.00093559 0.0014756
0.00063074 0.0011034 0.0002266 0.00070578
-0.0001373 -0.00086504 -0.0025644 0.00063881 0.0009305 0.0014767 0.069404 0.27364
0.011003 -0.017049 0.0023718 0.001704
-0.0027886 0.0024028 0.0001193 0.0030387 0.00063114 0.0011121 0.010983 -0.017078
-0.028869 0.22455 0.014918 -0.012542
0.0011711 0.0018725 -0.00081779 0.0019838 0.00021918 0.00068885 0.0023708 0.001713
0.014878 -0.012566 -0.021292 0.31579
1280000000 0.16702 0.2695 -0.0066288 -0.029971 -0.0020753 0.0015855 -0.00097315 -0.0019703
-0.00075379 0.0033999 0.0024351 0.0013087
-0.0065916 -0.02995 -0.0062539 0.37877 -0.02419 -0.0085015 -0.00075428 0.0013776
0.001752 0.0016126 0.0006337 0.0020387
-0.0020887 0.001596 -0.024261 -0.0084109 0.31123 0.16374 0.0013999 -0.00017134
0.0010099 0.00035311 0.0002915 0.00041165
-0.0010095 -0.0019765 -0.00073599 0.0013938 0.0013976 -0.00016744 0.10623 0.25713
0.0015085 -0.019493 1.8212e-05 6.7541e-05
-0.00070431 0.0034113 0.0017543 0.0016328 0.0010069 0.00035098 0.0014881 -0.019485
0.0083166 0.22998 0.0040029 -0.016083
0.0024551 0.0013702 0.00066021 0.0019908 0.00031804 0.00041584 -2.5547e-05 0.00010364
0.0040568 -0.016034 0.026742 0.31876
1340000000 0.20449 0.23826 -0.017047 -0.020598 8.3965e-05 0.0042052 -0.0018149 -0.00075091
0.0014912 0.0028277 0.0016679 -0.0015024
-0.017049 -0.020576 0.032963 0.3718 -0.021464 0.0044194 -0.00015227 0.0019055
0.0018242 0.00078299 0.0012659 0.00077156
0.00010604 0.0041985 -0.021475 0.0045246 0.33364 0.11682 0.00075227 -0.00091814
0.00054862 -0.00059665 6.5368e-06 0.00020472
-0.0017647 -0.00074586 -0.00015651 0.0019112 0.00073679 -0.00092721 0.1392 0.23755
-0.0083083 -0.016588 0.001121 0.00047668
0.0015111 0.0028044 0.0018326 0.00076353 0.00053369 -0.00060755 -0.008339 -0.016588
0.038393 0.22787 -0.0032403 -0.014273
0.0017148 -0.0015304 0.0012667 0.00074011 1.9879e-05 0.00020841 0.0011098 0.00049497
-0.0032202 -0.014211 0.064094 0.31554
1400000000 0.23975 0.20159 -0.023932 -0.0089452 0.0046707 0.0033188 -0.0020976 0.0006925
0.0026459 0.00093436 0.00036928 -0.0013592
-0.023887 -0.0089576 0.071733 0.35955 -0.014548 0.012633 0.0011842 0.0012805
0.0011207 -0.00071351 0.0010937 0.00013195
0.0046946 0.0033159 -0.014508 0.012728 0.34782 0.063119 -9.0337e-05 -0.0012791
0.00015412 -0.00019493 0.00054925 0.00025109
-0.002108 0.00070762 0.0011985 0.0012842 -8.2456e-05 -0.0012803 0.16911 0.20892
-0.014486 -0.009741 -0.00095646 -0.0003366
0.0026918 0.00094053 0.0011108 -0.00072421 0.00014867 -0.00020484 -0.014524 -0.0097206
0.072905 0.22522 -0.0099363 -0.0095104
0.00032881 -0.001373 0.0011127 0.00014679 0.00055425 0.00026859 -0.0009222 -0.00035117
-0.0099611 -0.0095404 0.10992 0.30593
1460000000 0.26313 0.15846 -0.021278 0.0038857 0.0052671 -0.001509 -0.0015093 0.0017027
0.0021934 -0.00049994 -0.0002833 -0.00093443
-0.021279 0.00387 0.10567 0.33766 -0.0053754 0.01533 0.0015663 0.000336
0.00104 -0.0012152 0.0012321 -0.00061616
0.0052682 -0.0015241 -0.0053002 0.015384 0.35413 0.008636 -0.0011007 -0.00098961
0.00023779 -0.00018024 0.0007759 -0.00018462
-0.0015118 0.0017264 0.0015543 0.00031515 -0.0011163 -0.00099352 0.19562 0.18017
-0.015386 -0.0028835 -0.00083915 0.0018298
0.0021813 -0.00052514 0.0010493 -0.0012065 0.00026453 -0.00017578 -0.015388 -0.0028715
0.10255 0.21233 -0.012251 -0.0031452
-0.0002657 -0.00092572 0.0012455 -0.00062228 0.00072548 -0.00019219 -0.00087885 0.001869
-0.012201 -0.0031477 0.14308 0.28597
1520000000 0.27689 0.1181 -0.015864 0.0099455 0.0032727 -0.0039561 0.00014809 0.0025679
0.0021935 -0.0019395 -0.0010689 -7.7964e-05
-0.015862 0.0099204 0.13968 0.32454 0.0022115 0.012476 0.0016899 -0.00057982
0.00012619 -0.00095138 0.0002698 -0.00097628
0.0032472 -0.0039693 0.0022836 0.01248 0.34754 -0.047173 -0.00071157 -0.00030795
0.00064239 -0.00094715 0.00011829 -0.00014687
0.00014922 0.0025779 0.0016823 -0.00058883 -0.00071346 -0.0003035 0.21968 0.14278
-0.014693 0.0027689 0.0014267 0.0021124
0.0021582 -0.0019666 0.00010937 -0.00094949 0.00063749 -0.00095105 -0.014702 0.0027933
0.13121 0.20112 -0.01202 0.0014428
-0.0010626 -6.9451e-05 0.00025541 -0.00097291 0.00013227 -0.00016071 0.0014239 0.0020831
-0.012035 0.0014559 0.17664 0.26758
1580000000 0.2877 0.072277 -0.0089829 0.01377 -0.0010349 -0.0045949 0.0014484 0.0018294
-0.00025668 -0.0023036 -0.00024568 0.00029143
-0.0089824 0.013745 0.16742 0.29976 0.0055721 0.0072594 0.00065722 -0.0015024
-0.00043926 -0.0011329 -0.00024393 -0.00070463
-0.0010537 -0.0045888 0.0056078 0.007243 0.32798 -0.10532 -0.0013866 0.00021047
-0.00033923 -0.001362 0.00025476 -0.00060829
0.0014423 0.0018315 0.00065352 -0.0015033 -0.001387 0.0002043 0.23422 0.10325
-0.010871 0.0076718 0.0020874 0.00072461
-0.0002625 -0.0022991 -0.0004537 -0.0011321 -0.00032411 -0.0013619 -0.010849 0.0076978
0.1564 0.1843 -0.0096369 0.007667
-0.00027361 0.00026825 -0.00022499 -0.00070528 0.00023758 -0.00058713 0.002081 0.0007369
-0.009652 0.0076626 0.20994 0.24166
1640000000 0.29076 0.032101 -0.0018647 0.012729 -0.0027862 -0.0022626 0.0027784 0.0010255
-0.00068036 -0.001683 -0.00034348 0.00040168
-0.0018727 0.012723 0.19665 0.27639 0.0055799 0.0023358 -0.00044202 -0.0018918
-0.00083873 -0.00051669 -0.00046113 -0.00063983
-0.0028059 -0.0022615 0.0056129 0.0023022 0.29847 -0.15364 -0.00071781 0.0011671
-0.00096521 -0.001053 -0.00010252 -0.00042072
0.0027986 0.0010089 -0.00044656 -0.0018979 -0.00070935 0.0011611 0.24701 0.054985
-0.0067533 0.0084454 0.0025215 -0.0006931
-0.00067177 -0.0016715 -0.00084887 -0.000508 -0.0009534 -0.0010391 -0.0067377 0.0084503
0.17934 0.16282 -0.0044836 0.009741
-0.00034428 0.00040034 -0.00047274 -0.00063972 -0.00014596 -0.00046456 0.0025243 -0.00069515
-0.0044582 0.0097594 0.23562 0.21214
1700000000 0.28592 -0.012725 0.0018469 0.0099658 -0.0033699 0.00041255 0.00307 -0.001261
-0.0021328 -0.00063608 0.00056109 0.00045661
0.0018356 0.0099587 0.21596 0.24543 0.002926 -0.00042357 -0.0014629 -0.00079627
-0.0008062 -0.00012074 -0.00080365 -0.00043619
-0.0033837 0.00043908 0.0029217 -0.00043675 0.256 -0.19296 2.0848e-05 0.0015314
-0.0020709 -0.00021375 -0.00032571 -0.00082721
0.0030796 -0.0012845 -0.0014731 -0.00078713 2.8837e-05 0.0015288 0.24502 0.0050145
-0.0041744 0.0087402 0.0016734 -0.0020746
-0.002142 -0.00063521 -0.00080779 -0.00013249 -0.0020736 -0.00021457 -0.0041614 0.0087661
0.19893 0.14431 0.00028052 0.0099149
0.00053929 0.00045181 -0.00081218 -0.00044096 -0.00034353 -0.00083754 0.0016317 -0.0020996
0.00026157 0.0098886 0.25397 0.17829
1760000000 0.27494 -0.061464 0.0042945 0.0066943 -0.002152 0.001221 0.0013794 -0.0034433
-0.0011771 0.00056115 0.00030166 -0.00058747
0.004287 0.0066781 0.24185 0.20635 0.00016027 -0.0018704 -0.0013001 1.8167e-05
-0.001137 0.00084886 -0.00049862 0.00029616
-0.0021282 0.0011933 0.00016308 -0.0018566 0.20736 -0.22617 0.0010422 0.0013949
-0.0010969 0.0013679 -0.0012699 -0.00070582
0.0013959 -0.0034394 -0.0012953 1.6769e-05 0.0010339 0.0013885 0.23631 -0.047078
-0.001056 0.0078868 -0.00019983 -0.0024688
-0.0011465 0.00059481 -0.0011242 0.00087626 -0.0010854 0.0013693 -0.0010409 0.0079071
0.21446 0.11136 0.0043517 0.0072317
0.00028945 -0.00060696 -0.00049069 0.00030048 -0.0012764 -0.00070567 -0.00019928 -0.0024832
0.0043519 0.0072233 0.26719 0.14096
1820000000 0.25257 -0.098667 0.0046408 0.0030122 0.00032031 0.0024487 -0.00093577 -0.0030371
-0.00118 0.00090332 -7.5759e-05 -0.00017579
0.0046379 0.0030029 0.25345 0.17764 -0.0019506 0.00027833 -0.0015274 0.00094509
-0.00014066 0.0012324 -0.00068733 0.00039405
0.00029351 0.0024007 -0.0019514 0.00028394 0.15718 -0.24037 0.0016633 0.00071772
-0.00036261 0.0023667 -0.0016903 0.00022814
-0.00098903 -0.0030739 -0.0015248 0.00095305 0.0016899 0.00072431 0.20745 -0.094263
0.00013455 0.0067262 -0.0016858 -0.0017159
-0.0011722 0.00087101 -0.0001313 0.0012268 -0.00036232 0.0023517 0.00014602 0.0067065
0.23383 0.085002 0.005409 0.0033178
-7.8471e-05 -0.00013966 -0.00068475 0.00039597 -0.0016932 0.00024853 -0.0017131 -0.0016978
0.0054021 0.0033297 0.27135 0.10612
1880000000 0.21876 -0.14038 0.0024556 0.00075452 -0.00019356 0.0022046 -0.0028583 -0.0023661
-0.00019385 0.0016883 0.00031276 -0.000567
0.0024455 0.0007667 0.25852 0.13103 -0.0036454 0.0028058 -0.0001961 0.0018513
0.00054994 0.0013737 0.00013436 0.00098124
-0.00014385 0.0022281 -0.0036389 0.0028483 0.10591 -0.24905 0.002366 -0.0010102
0.0016083 0.002016 -0.0011159 0.001502
-0.0028274 -0.0023685 -0.00019479 0.0018576 0.0023428 -0.0010293 0.1669 -0.13545
0.00077784 0.0049374 -0.002452 0.00030638
-0.0001903 0.0016893 0.00057523 0.0013797 0.0016301 0.0020138 0.00077763 0.0049824
0.23951 0.05434 0.0056019 0.0012269
0.00032165 -0.00059899 0.00015155 0.00099652 -0.0010559 0.0014725 -0.002409 0.00031141
0.0055761 0.001217 0.27244 0.071337
1940000000 0.18004 -0.16664 0.00032654 -0.00098447 0.0015605 0.0018264 -0.0037224 0.00024379
0.0011629 0.00095 -0.0006856 -0.00054174
0.00033548 -0.00099265 0.26002 0.1003 -0.0017378 0.0055177 0.0011214 0.0014732
0.001964 0.00051719 0.00090185 0.0003161
0.001542 0.0017932 -0.0017082 0.0055103 0.06159 -0.24119 0.00049028 -0.0022798
0.0022544 0.00050434 0.00039475 0.0017055
-0.0037595 0.0002891 0.001118 0.0014908 0.0005203 -0.0022587 0.11448 -0.16668
6.418e-05 0.0037215 -0.0015069 0.0015505
0.0011616 0.00097218 0.0019594 0.00051116 0.0022401 0.00052459 6.587e-05 0.0036664
0.24448 0.01813 0.0041048 -0.0028377
-0.0007116 -0.00051567 0.00089378 0.00030474 0.00038143 0.0017206 -0.0015859 0.0015777
0.0041084 -0.00284 0.26198 0.035736
2000000000 0.13479 -0.18267 -0.0030933 0.00094806 0.0028361 0.0013643 -0.0024497 0.0036005
0.00099309 0.00043213 -0.00065556 0.00062905
-0.0031242 0.00095645 0.24763 0.064901 -0.00061747 0.0075691 0.0018119 0.00032815
0.0012665 -0.0012512 0.00037213 6.088e-05
0.0028747 0.0013198 -0.00057318 0.0076101 0.020184 -0.22771 -0.0017621 -0.0016879
0.0020603 -0.0010051 0.0014536 0.0017069
-0.0024377 0.0036736 0.0018195 0.00032756 -0.0017754 -0.001659 0.061525 -0.17714
-0.0011438 0.0037364 -0.00010489 0.0020731
0.0010132 0.00040741 0.0012546 -0.0012602 0.0020745 -0.0010095 -0.0011691 0.0037869
0.24272 -0.014613 0.00061665 -0.0036385
