!Keysight Technologies,M9804A,MY58100912,A.14.10.03
!Date: Thursday, April 27, 2023 10:28:33
!Correction: S11(C  6-Port  ) 
!S12(C  6-Port  ) 
!S13(C  6-Port  ) 
!S14(C  6-Port  ) 
!S15(C  6-Port  ) 
!S16(C  6-Port  ) 
!S21(C  6-Port  ) 
!S22(C  6-Port  ) 
!S23(C  6-Port  ) 
!S24(C  6-Port  ) 
!S25(C  6-Port  ) 
!S26(C  6-Port  ) 
!S31(C  6-Port  ) 
!S32(C  6-Port  ) 
!S33(C  6-Port  ) 
!S34(C  6-Port  ) 
!S35(C  6-Port  ) 
!S36(C  6-Port  ) 
!S41(C  6-Port  ) 
!S42(C  6-Port  ) 
!S43(C  6-Port  ) 
!S44(C  6-Port  ) 
!S45(C  6-Port  ) 
!S46(C  6-Port  ) 
!S51(C  6-Port  ) 
!S52(C  6-Port  ) 
!S53(C  6-Port  ) 
!S54(C  6-Port  ) 
!S55(C  6-Port  ) 
!S56(C  6-Port  ) 
!S61(C  6-Port  ) 
!S62(C  6-Port  ) 
!S63(C  6-Port  ) 
!S64(C  6-Port  ) 
!S65(C  6-Port  ) 
!S66(C  6-Port  ) 
!S6P File: Measurement: :
# Hz S  RI   R 50
500000000 -0.32868 -0.067125 -0.0099065 -0.0012935 -0.0082931 0.012923 -0.003795 0.011956
0.01201 0.0057792 -0.0048583 0.0097461
-0.0098251 -0.0012524 -0.40978 -0.076064 0.0086426 -0.010896 0.0008929 0.011672
0.0078749 0.0033557 0.0015831 0.014338
-0.0082277 0.01269 0.0086475 -0.010923 -0.25977 0.1886 0.0066924 0.0034627
-0.0018193 0.0083241 0.0013559 0.013325
-0.0043949 0.012571 0.0011147 0.011794 0.0067908 0.0037106 -0.32858 0.038894
-0.018759 -0.0032758 0.015328 0.027402
0.013273 0.0057218 0.0087642 0.0029608 -0.0020627 0.0080535 -0.019289 -0.0046805
-0.22282 -0.23324 -0.02812 0.0041303
-0.0049756 0.0093064 0.0016544 0.013443 0.0007238 0.012676 0.014701 0.026822
-0.027885 0.0058005 -0.2632 -0.14533
560000000 -0.31843 0.10181 -0.021939 -0.067775 0.00036321 0.013202 0.0057534 0.01083
0.010191 0.0044686 0.011158 0.0095521
-0.021971 -0.067744 -0.37267 0.089449 -0.041135 -0.03975 0.014484 0.0038218
-0.014929 -0.0057288 0.0025556 -0.0011874
0.00067425 0.013416 -0.041092 -0.03978 -0.18407 0.2405 -0.00057452 -0.0055931
0.019036 0.0071687 0.0076751 -0.0075318
0.005535 0.010212 0.014025 0.003911 -0.0003755 -0.00536 -0.30542 0.12912
0.0064708 -0.023624 0.0058113 -0.022042
0.011046 0.0053283 -0.013092 -0.0060893 0.018078 0.0074293 0.0059852 -0.02257
-0.30363 -0.04729 0.010153 -0.050671
0.011294 0.009372 0.0028071 -0.00055231 0.0078133 -0.0063534 0.0057174 -0.022138
0.010892 -0.052328 -0.33059 0.0037465
620000000 -0.27708 0.080506 -0.023652 0.0090444 0.003541 0.0090353 0.0091647 -0.0041009
0.011859 -0.0011642 0.0011577 -0.0011073
-0.02338 0.0090053 -0.40103 0.035353 -0.019003 2.3691e-05 -0.0014493 -0.0023627
0.012172 -0.0057387 -9.5547e-05 -0.0026101
0.0033672 0.0092318 -0.01903 0.00014173 -0.15686 0.24938 -0.0010196 -0.0055046
-0.0032932 -0.0022674 0.0098166 -0.0028882
0.0090177 -0.004217 -0.001752 -0.0022115 -0.001118 -0.0054258 -0.26261 0.13943
-0.038588 -0.019875 0.014512 0.027765
0.011095 -0.00077408 0.012185 -0.005174 -0.0036556 -0.002212 -0.040044 -0.020494
-0.21769 -0.086346 -0.044357 0.013792
0.0014196 -0.0013368 0.00071531 -0.0025698 0.0093019 -0.0031477 0.013962 0.027595
-0.042914 0.01577 -0.24221 -0.03018
680000000 -0.24269 0.17323 -0.026396 -0.015421 0.0047985 0.0054614 0.0011827 -0.0072479
-0.0015976 -0.011816 0.0075509 -0.0073938
-0.026283 -0.015515 -0.39109 0.13696 -0.032837 -0.0026743 -0.0018989 -0.00052225
-0.0015939 -0.010022 -0.0007217 -0.0018911
0.0048137 0.0055032 -0.032901 -0.0025817 -0.10859 0.27188 -0.001051 -4.5178e-05
-0.0012324 0.00060265 -0.0029417 -0.0095924
0.0010577 -0.0073021 -0.0017516 -0.00078024 -0.00092163 -0.00016186 -0.22065 0.19165
-0.022652 -0.0079381 -0.0084555 -0.011404
-0.0016569 -0.011763 -0.0016157 -0.0096753 -0.0013397 0.00093562 -0.022666 -0.0081435
-0.28246 0.01804 -0.0060465 -0.0084843
0.0057483 -0.0069629 -0.0014694 -0.0017891 -0.0025435 -0.0092533 -0.0094129 -0.01139
-0.0049321 -0.0084288 -0.26143 0.075397
740000000 -0.19659 0.16714 -0.041092 0.026842 0.014028 -0.0036023 0.00027986 -0.0039356
-0.0037949 -0.0023144 -0.0073181 0.0033888
-0.041221 0.026975 -0.33681 0.15638 -0.037784 0.034998 0.00037214 -0.0057429
-0.012605 0.0064112 -0.0022892 -0.0056538
0.013888 -0.0036177 -0.037712 0.035042 -0.075976 0.27224 -0.0018032 0.00343
-0.0022862 -0.0045235 -0.0013534 0.00061464
4.6099e-05 -0.0039376 0.00053235 -0.0056748 -0.0019552 0.0036481 -0.20465 0.19914
-0.04258 -0.0094446 0.022669 0.016859
-0.004451 -0.0022003 -0.013217 0.0057521 -0.00086274 -0.0054141 -0.042626 -0.0097533
-0.18092 0.05136 -0.043785 -0.0024568
-0.0063742 0.0030818 -0.00079282 -0.0053643 -0.0021288 0.0010158 0.022397 0.016735
-0.043972 -0.00081977 -0.25413 0.081086
800000000 -0.16663 0.21263 -0.022749 0.015811 0.0059878 -0.010468 -0.0044778 -0.0019484
-0.0042165 0.0023504 0.0048872 -2.6685e-05
-0.022744 0.015718 -0.3456 0.22781 -0.0092575 0.034564 -0.0022276 0.0021098
-0.00028376 0.0026487 0.0012726 0.0052134
0.0058844 -0.010437 -0.0092214 0.034617 -0.037409 0.29815 0.0010325 0.0013489
0.00011271 0.0033416 -0.001511 0.00079312
-0.0044021 -0.0022222 -0.0021225 0.0019954 0.001029 0.0013196 -0.17532 0.22638
-0.028733 0.012806 0.015348 -0.0098339
-0.0040927 0.0015202 -0.00049889 0.0021945 0.00016729 0.0034778 -0.028883 0.013212
-0.23319 0.075406 -0.0179 0.020484
0.0042918 0.00026915 0.00085926 0.0050176 -0.0016245 0.00065233 0.014756 -0.010794
-0.017615 0.020742 -0.24666 0.13117
860000000 -0.13329 0.23388 -0.018734 0.030453 -0.0030194 -0.010451 -0.0019137 0.00048053
0.0037692 0.0058541 -0.0033685 -0.0035415
-0.018678 0.030427 -0.2993 0.27211 0.0071163 0.034838 0.00022799 0.0016433
0.0037855 0.00054759 0.0034488 0.00030292
-0.0029849 -0.010518 0.007224 0.03486 0.010155 0.30862 -0.00044764 -0.00043068
0.0022155 -0.0016238 0.0015185 0.0039693
-0.0020901 0.00050489 0.00024197 0.001867 -0.0004769 -0.00046402 -0.13983 0.2387
-0.018737 0.017344 -0.0065781 -0.0098487
0.0043197 0.0055931 0.0040149 0.00038115 0.0024184 -0.0018938 -0.01861 0.017371
-0.17652 0.13541 -0.026601 0.014747
-0.0033695 -0.0031178 0.0032846 0.00051148 0.0015726 0.0043219 -0.0064612 -0.0094296
-0.027569 0.015455 -0.19861 0.1786
920000000 -0.11058 0.25779 0.0041761 0.039429 -0.0094149 -0.004838 -0.0019482 0.0016929
0.00034328 0.0015224 0.0032761 -0.0015802
0.0041435 0.039483 -0.2723 0.29498 0.028183 0.023465 0.0014079 0.0011116
0.0074605 -0.00021383 0.003995 -0.0029401
-0.0094236 -0.0047492 0.028296 0.023427 0.056505 0.31139 0.0017037 -0.00011776
0.00066731 -0.0003682 0.00099006 -0.0015813
-0.0019831 0.0016694 0.0013319 0.0011939 0.0016726 -0.00013215 -0.11549 0.25597
-0.012236 0.031043 0.0038483 -0.0070909
0.00035935 0.0017791 0.0074459 -0.00021282 0.00071978 -0.0002788 -0.012326 0.030801
-0.1699 0.14039 -0.0029634 0.028784
0.0029336 -0.0012652 0.0041457 -0.0030343 0.000872 -0.0015606 0.0041834 -0.0068283
-0.0029837 0.028283 -0.20836 0.19141
980000000 -0.064583 0.27929 0.016194 0.031051 -0.0097439 0.0045727 0.0018478 0.0037331
0.0043735 -0.001987 -0.0035064 -0.0027364
0.016251 0.031067 -0.22028 0.33188 0.033494 0.0057826 0.0018901 -0.00015944
0.0024285 -0.0063577 -0.00043427 -0.0025259
-0.0097694 0.0046207 0.033577 0.0056987 0.10298 0.30611 0.00051515 -0.0011986
0.00025489 -0.0017545 0.0014556 -0.00021856
0.0018144 0.0035803 0.0018541 -0.00018268 0.00049726 -0.0011829 -0.077553 0.26726
0.0070482 0.03035 -0.0096362 -0.0081552
0.004271 -0.0015662 0.0018158 -0.0061122 0.00028829 -0.0016861 0.0070407 0.030511
-0.1391 0.17438 0.0052401 0.021169
-0.0034507 -0.0028654 -0.0003806 -0.0028092 0.0015096 -0.00031156 -0.0096068 -0.0082415
0.0054235 0.020944 -0.16661 0.23941
1040000000 -0.024123 0.28953 0.033307 0.02023 -0.0012715 0.0076501 0.002424 0.00067823
0.00016567 -0.0033565 -0.00011526 -0.0015469
0.033264 0.020356 -0.18574 0.34649 0.030406 -0.014301 0.0014878 -0.001769
-0.0024963 -0.0024611 -0.0014775 -0.0027488
-0.0012411 0.0076599 0.030393 -0.014423 0.14931 0.29431 -0.00054079 -0.0014203
-0.0016501 -0.00092599 -0.00064547 -0.00095287
0.0025175 0.00086882 0.0015088 -0.0017427 -0.000529 -0.0014195 -0.050521 0.27795
0.018683 0.019516 -0.0021854 0.0013281
0.00021938 -0.0035647 -0.0024254 -0.0026114 -0.0016403 -0.0009588 0.018563 0.019583
-0.1076 0.18413 0.013634 0.020478
-1.5007e-07 -0.0013647 -0.0014591 -0.0029344 -0.00067578 -0.0010262 -0.0023517 0.001201
0.014101 0.020251 -0.14549 0.26117
1100000000 0.020891 0.30027 0.037216 -0.0025301 0.0034722 0.0042957 0.0024783 -0.00096145
-0.0021201 -0.0031546 -0.0041989 6.281e-05
0.037205 -0.0025222 -0.14177 0.36656 0.016059 -0.028007 -6.5053e-05 -0.0017735
-0.0034253 -0.00089414 -0.0035668 -0.00059582
0.0034713 0.0043381 0.015973 -0.028098 0.19646 0.27525 -0.0017961 0.00030866
-0.0017065 0.00062303 -0.0012172 -0.00056752
0.0024634 -0.0010984 -8.1772e-05 -0.0017848 -0.0018515 0.00033393 -0.010002 0.28333
0.024989 0.0063762 -0.003008 -0.00015019
-0.002277 -0.0032013 -0.0036951 -0.00094336 -0.0016686 0.00064806 0.025089 0.0061226
-0.088376 0.19964 0.020134 0.0095881
-0.0044033 -0.0002063 -0.0038124 -0.00058428 -0.001161 -0.00048504 -0.0028845 6.6491e-05
0.01978 0.010048 -0.1006 0.29252
1160000000 0.071761 0.29742 0.025606 -0.0202 0.0035101 -0.00051555 -0.00017449 -0.002494
-0.004151 -0.0010037 -0.0010446 0.004245
0.025639 -0.020081 -0.098716 0.37204 -0.0033863 -0.029406 -0.0015808 -0.0016661
-0.0027669 0.0026459 -0.0015458 0.0019976
0.0035259 -0.00056983 -0.0034864 -0.029419 0.23994 0.24537 -0.0006476 0.0017061
-0.00045258 0.00185 -0.0010789 0.00031351
-0.00027995 -0.0024023 -0.001606 -0.0015809 -0.00065305 0.001741 0.029194 0.28069
0.021961 -0.010218 -0.0036471 0.0053166
-0.0041945 -0.0010683 -0.002615 0.0025902 -0.00041671 0.0017992 0.021963 -0.010275
-0.054451 0.2102 0.020027 0.00061519
-0.0011989 0.0043809 -0.0017167 0.0019516 -0.0011151 0.00034198 -0.0036759 0.0052643
0.020098 0.00093413 -0.053719 0.29677
1220000000 0.11594 0.28945 0.012352 -0.030476 -0.001209 -0.0015071 6.791e-06 -0.00087877
-0.0028222 0.0023807 0.0013605 0.0020272
0.012345 -0.030449 -0.053854 0.387 -0.016959 -0.021648 -0.0025831 0.00055921
0.0001073 0.0031163 -0.0006952 0.0020365
-0.0011849 -0.0014795 -0.017063 -0.021583 0.27983 0.20738 0.00097421 0.0014761
0.00065174 0.0012247 0.00029207 0.00058772
1.4284e-05 -0.0010054 -0.002535 0.00053392 0.00091186 0.0014999 0.069172 0.27325
0.010933 -0.017093 0.0021992 0.0016531
-0.0027751 0.0024175 2.8836e-05 0.0032142 0.00065687 0.0011806 0.010928 -0.017006
-0.031858 0.22222 0.01528 -0.01276
0.0011181 0.002022 -0.00078987 0.0019607 0.00024998 0.00065709 0.0021372 0.0016651
0.014947 -0.013034 -0.02226 0.31502
1280000000 0.16677 0.2698 -0.0069243 -0.029697 -0.0019703 0.0017714 -0.00092333 -0.0020425
-0.0009605 0.0034393 0.0025218 0.0013359
-0.0068987 -0.029675 -0.0069142 0.37886 -0.024207 -0.0083919 -0.00077652 0.0014846
0.0018095 0.0017515 0.00052639 0.0020547
-0.0019409 0.0017733 -0.024287 -0.0082934 0.31128 0.1638 0.001471 -0.00014372
0.0010649 0.00035508 0.00032154 0.00034106
-0.0009593 -0.0020049 -0.00081805 0.0015397 0.0014424 -0.00012721 0.10574 0.25714
0.0012968 -0.019636 -0.00021943 -2.3317e-05
-0.00095992 0.0034528 0.0017779 0.0017727 0.0010002 0.00035055 0.0012434 -0.019594
0.005145 0.22805 0.0038841 -0.01617
0.0027327 0.0013496 0.00076087 0.0021421 0.0004406 0.00042547 -0.00014689 0.00034648
0.0039749 -0.016074 0.025402 0.31858
1340000000 0.20446 0.23831 -0.017186 -0.020286 0.00033164 0.0042699 -0.0018312 -0.00085181
0.0016309 0.002889 0.0018457 -0.001275
-0.017172 -0.020296 0.032378 0.37208 -0.021434 0.00465 -0.00013424 0.0019541
0.0019929 0.00077772 0.0012269 0.00075394
0.00036281 0.0043227 -0.021426 0.0047445 0.33388 0.11676 0.00084519 -0.00091064
0.00055305 -0.0005727 0.0002027 0.00036486
-0.0018297 -0.00087244 -0.00015907 0.0019703 0.00085532 -0.0009647 0.13897 0.23779
-0.0083444 -0.016719 0.00097066 0.00044327
0.0017018 0.0028621 0.0019762 0.00080121 0.00056843 -0.00063091 -0.0082344 -0.016641
0.034967 0.2265 -0.0032592 -0.014429
0.0017791 -0.0014493 0.001279 0.00079606 7.6839e-05 0.00026362 0.0010407 0.00054397
-0.0035839 -0.014472 0.062391 0.31526
1400000000 0.23966 0.20193 -0.023884 -0.0085879 0.0048249 0.0032796 -0.0022134 0.0007275
0.0027794 0.0010326 0.00027076 -0.0015076
-0.023841 -0.0086257 0.071222 0.35995 -0.014467 0.012782 0.0012336 0.0012739
0.0012761 -0.00072202 0.0012685 0.00016917
0.004823 0.0032451 -0.014445 0.012899 0.34785 0.063331 -0.00014897 -0.0013908
0.00016161 -0.00020394 0.00053522 0.00018529
-0.0022384 0.00078939 0.0012732 0.0013043 -0.00012826 -0.0013539 0.16921 0.20941
-0.014635 -0.0095574 -0.00081942 -0.00020636
0.0026852 0.00096753 0.0011888 -0.00074097 0.00019839 -0.00018939 -0.014664 -0.0095618
0.068504 0.22501 -0.010134 -0.0092001
0.00032209 -0.0014555 0.0011822 0.00018459 0.00051907 0.00018294 -0.00078528 -0.0002353
-0.0099533 -0.0093269 0.10867 0.3063
1460000000 0.26335 0.15853 -0.021064 0.004211 0.0053461 -0.0016198 -0.0015057 0.0017588
0.0022654 -0.00042977 -0.00050832 -0.0010291
-0.021044 0.0042023 0.10552 0.33809 -0.0052176 0.015429 0.0016082 0.00026719
0.00087305 -0.001219 0.0012189 -0.0005377
0.0053885 -0.0016122 -0.0051565 0.015435 0.35453 0.0087061 -0.0011044 -0.0011146
0.00029007 -0.00024854 0.00058619 -0.00031778
-0.0015069 0.0017367 0.0016087 0.00026195 -0.0010905 -0.0010925 0.19593 0.18061
-0.015435 -0.0028518 -0.00093677 0.0020847
0.0023617 -0.00042826 0.00097695 -0.0012252 0.00033626 -0.00025919 -0.015404 -0.0028346
0.098201 0.21258 -0.012264 -0.0034584
-0.00039171 -0.00088413 0.001277 -0.0005943 0.00071292 -0.00017918 -0.0009811 0.0021029
-0.012329 -0.0033173 0.14182 0.28645
1520000000 0.27712 0.11811 -0.015496 0.010082 0.00332 -0.0039956 0.00012088 0.0026015
0.0023334 -0.002022 -0.0010263 -9.7211e-05
-0.015481 0.010067 0.13955 0.32499 0.0023993 0.012516 0.0016352 -0.00069102
0.00013518 -0.00097061 0.00034371 -0.0010153
0.0033149 -0.0040285 0.0024588 0.012527 0.34793 -0.04717 -0.00080364 -0.0002482
0.00062374 -0.00097434 0.00013542 -0.00013328
0.00017864 0.002651 0.0016698 -0.00067535 -0.00082237 -0.00025191 0.22023 0.14308
-0.014664 0.0028215 0.0015524 0.0020358
0.0022685 -0.0020198 0.00011821 -0.00097724 0.00059087 -0.00095188 -0.014675 0.0028811
0.1272 0.20237 -0.012258 0.0015104
-0.0010812 -0.00021497 0.00029696 -0.0010434 0.00012977 -0.00017766 0.0015559 0.0020897
-0.012053 0.0015076 0.17565 0.26777
1580000000 0.28762 0.072277 -0.0086838 0.013665 -0.0010048 -0.004846 0.0014947 0.0018012
-0.00026264 -0.0023477 -0.0002554 0.00034526
-0.0086903 0.013645 0.16746 0.30014 0.0057442 0.0071987 0.00060555 -0.0015364
-0.00052159 -0.0011724 -0.00017573 -0.00073524
-0.0010294 -0.0048378 0.0057782 0.0071411 0.32817 -0.10511 -0.0014753 0.00027689
-0.00033519 -0.0013909 0.00017663 -0.00064496
0.0015122 0.0018286 0.0006083 -0.001527 -0.0013907 0.00025798 0.23487 0.10331
-0.010931 0.007847 0.0020415 0.00075975
-0.00030326 -0.0022898 -0.00050438 -0.0011358 -0.00035901 -0.0014529 -0.010872 0.0078294
0.15288 0.18644 -0.0097359 0.00767
-0.0002264 0.00041689 -0.00025978 -0.00073941 0.00013723 -0.00066225 0.0022343 0.00078101
-0.0096505 0.0077231 0.20867 0.24237
1640000000 0.29076 0.03204 -0.0016103 0.012576 -0.0028792 -0.0023861 0.0027777 0.0010804
-0.00074558 -0.0015662 -0.00039025 0.00062177
-0.0016277 0.012575 0.19673 0.27681 0.0056886 0.0021732 -0.00051371 -0.0018327
-0.00084123 -0.0005004 -0.00055226 -0.00064121
-0.0029281 -0.0023763 0.0057134 0.0021365 0.29905 -0.15372 -0.00070997 0.0012383
-0.0011195 -0.0010705 -0.00031479 -0.00046451
0.0028263 0.0010519 -0.0005152 -0.0018629 -0.00073966 0.0011805 0.24772 0.054791
-0.0065168 0.0085807 0.002757 -0.00059193
-0.00076355 -0.0016725 -0.00089495 -0.00052944 -0.0011179 -0.0010266 -0.0065851 0.008557
0.17679 0.16512 -0.0045036 0.0099877
-0.00033172 0.00042738 -0.00049112 -0.0006494 -0.00015804 -0.00058586 0.0025832 -0.00075178
-0.0044657 0.0099805 0.23494 0.21295
1700000000 0.28563 -0.0126 0.001941 0.0097031 -0.0034959 0.00030338 0.0031403 -0.0012517
-0.0022012 -0.00053327 0.00071608 0.00046164
0.0019281 0.0096876 0.2161 0.24571 0.0029494 -0.00057859 -0.0014719 -0.0007136
-0.00080447 -0.00016139 -0.00075873 -0.00037323
-0.0035535 0.00035825 0.0029318 -0.00060508 0.25635 -0.19326 2.4501e-05 0.0016432
-0.0020698 -6.4323e-05 -0.00030072 -0.00080657
0.0031109 -0.0012884 -0.0014591 -0.00070747 0.00010413 0.0015979 0.24549 0.0045146
-0.0040269 0.008969 0.0016933 -0.0022834
-0.0021896 -0.00054696 -0.00079743 -0.00015649 -0.0021701 -0.00012932 -0.0040055 0.0088096
0.19672 0.14715 0.00034389 0.0099453
0.00059032 0.00045684 -0.00084148 -0.0003999 -0.00042599 -0.00075258 0.0016807 -0.0022311
0.00045561 0.0099467 0.25306 0.17906
1760000000 0.27482 -0.061215 0.004337 0.0063581 -0.0021865 0.0013263 0.0013692 -0.0034883
-0.0011491 0.00073233 0.00014951 -0.00062345
0.0043237 0.0063599 0.24211 0.20662 0.00011664 -0.001863 -0.001258 6.6269e-05
-0.0011239 0.00089717 -0.00058492 0.00033831
-0.0021793 0.0013353 0.00012012 -0.0018882 0.20702 -0.22586 0.00099959 0.0014578
-0.0011937 0.0015035 -0.0011889 -0.00067883
0.0013689 -0.0035446 -0.0012786 8.584e-05 0.0010602 0.0014303 0.23665 -0.04757
-0.00094317 0.007842 -0.00016865 -0.0024419
-0.0011808 0.00066561 -0.0011623 0.00091613 -0.0011522 0.0015639 -0.00091063 0.0078398
0.21303 0.11414 0.0044143 0.0072526
0.00025418 -0.00057531 -0.00050716 0.00030979 -0.0012334 -0.00060828 -0.00013044 -0.0024666
0.0044 0.0072568 0.26617 0.14201
1820000000 0.25248 -0.098534 0.0044832 0.0027072 0.0001486 0.0023456 -0.0010113 -0.0032135
-0.0010299 0.00085962 -4.9391e-05 -0.0001354
0.0044785 0.0027233 0.25368 0.17771 -0.00198 -4.3216e-05 -0.0014738 0.00096612
-0.00015375 0.0012389 -0.00066939 0.00038397
0.00011356 0.0023522 -0.0020221 -2.3796e-05 0.15791 -0.24071 0.0017986 0.00060255
-0.00023488 0.0024567 -0.0016494 0.0002451
-0.0010228 -0.0031231 -0.0014608 0.00096167 0.0016705 0.00065967 0.20744 -0.094815
0.00027438 0.0065093 -0.0015291 -0.0018235
-0.0010297 0.00086718 -0.00012901 0.0012512 -0.00023294 0.0023427 0.00033851 0.0065785
0.23293 0.087381 0.0056096 0.0035513
-0.00014986 -7.6877e-05 -0.00069251 0.00044909 -0.0016422 0.0003617 -0.0015812 -0.0019814
0.0054611 0.0036117 0.27078 0.10723
1880000000 0.21886 -0.14009 0.0022807 0.00052169 -0.00017174 0.0023125 -0.0029039 -0.0023589
-0.00018622 0.0015506 0.00021896 -0.00058041
0.0022902 0.00057257 0.25865 0.13107 -0.0038324 0.0027147 -0.0001919 0.0017838
0.00050092 0.0015426 0.00012306 0.00091743
-0.00014439 0.0023538 -0.0038221 0.0027444 0.10638 -0.24923 0.0021203 -0.0010873
0.0016203 0.0021844 -0.00090372 0.0012945
-0.0029116 -0.0023157 -0.00025741 0.0018221 0.0021313 -0.0010921 0.1669 -0.13624
0.00094944 0.0048324 -0.0026339 0.00010288
-0.00013776 0.0015901 0.00056119 0.0014854 0.0016197 0.0020953 0.00094242 0.0045695
0.23901 0.056846 0.0056558 0.00095899
0.00035029 -0.00061922 0.00011175 0.00090081 -0.00090114 0.0014931 -0.0026202 0.00019797
0.0057612 0.0011657 0.27195 0.072389
1940000000 0.18015 -0.16664 0.00016791 -0.0011108 0.0016699 0.0020882 -0.003895 0.00029036
0.0010871 0.00082521 -0.0007577 -0.00063292
0.00015692 -0.0011216 0.26024 0.10028 -0.0021113 0.0055838 0.0010654 0.0014459
0.0020303 0.00056937 0.00085681 0.00028912
0.001686 0.0020782 -0.0021035 0.0056121 0.061553 -0.24166 0.00043194 -0.0023224
0.0024272 0.0004631 0.00011942 0.0016654
-0.0038845 0.00034116 0.0011078 0.0014431 0.00051054 -0.0023922 0.11413 -0.16674
0.00012796 0.003474 -0.0018136 0.0013834
0.0010676 0.00084389 0.0020537 0.00053553 0.0023431 0.00042 5.0261e-05 0.0032567
0.2443 0.020191 0.0042584 -0.002713
-0.00068237 -0.00058966 0.00092643 0.00033319 0.00014058 0.0016256 -0.001616 0.0016216
0.0043614 -0.0028774 0.26194 0.037111
2000000000 0.13513 -0.18248 -0.0035109 0.00088928 0.0030329 0.0014223 -0.0025608 0.0037138
0.00071368 0.00055891 -0.00074744 0.00038915
-0.0035043 0.00089552 0.24768 0.064825 -0.00073136 0.0078325 0.0016555 0.00027029
0.0014132 -0.0013567 0.00050893 0.00010499
0.0030687 0.0014031 -0.00068423 0.0078303 0.020244 -0.2275 -0.0016758 -0.0017625
0.002086 -0.0011674 0.0015698 0.0016788
-0.0024352 0.0036763 0.0016885 0.00030754 -0.0017204 -0.0016292 0.061059 -0.17685
-0.0015599 0.0031655 5.8495e-05 0.0022227
0.00072576 0.0003278 0.0013685 -0.0013977 0.0020195 -0.0010641 -0.0016525 0.0034693
0.2423 -0.013153 0.00079578 -0.0038753
