!Keysight Technologies,M9804A,MY58100912,A.14.10.03
!Date: Thursday, April 27, 2023 10:28:33
!Correction: S11(C  6-Port  ) 
!S12(C  6-Port  ) 
!S13(C  6-Port  ) 
!S14(C  6-Port  ) 
!S15(C  6-Port  ) 
!S16(C  6-Port  ) 
!S21(C  6-Port  ) 
!S22(C  6-Port  ) 
!S23(C  6-Port  ) 
!S24(C  6-Port  ) 
!S25(C  6-Port  ) 
!S26(C  6-Port  ) 
!S31(C  6-Port  ) 
!S32(C  6-Port  ) 
!S33(C  6-Port  ) 
!S34(C  6-Port  ) 
!S35(C  6-Port  ) 
!S36(C  6-Port  ) 
!S41(C  6-Port  ) 
!S42(C  6-Port  ) 
!S43(C  6-Port  ) 
!S44(C  6-Port  ) 
!S45(C  6-Port  ) 
!S46(C  6-Port  ) 
!S51(C  6-Port  ) 
!S52(C  6-Port  ) 
!S53(C  6-Port  ) 
!S54(C  6-Port  ) 
!S55(C  6-Port  ) 
!S56(C  6-Port  ) 
!S61(C  6-Port  ) 
!S62(C  6-Port  ) 
!S63(C  6-Port  ) 
!S64(C  6-Port  ) 
!S65(C  6-Port  ) 
!S66(C  6-Port  ) 
!S6P File: Measurement: :
# Hz S  RI   R 50
500000000 -0.32774 -0.066273 -0.0092755 -0.0014968 -0.0080107 0.012062 -0.0043671 0.012101
0.01334 0.0059483 -0.0047552 0.00908
-0.0093008 -0.0015814 -0.409 -0.075602 0.0093842 -0.010777 0.0011497 0.012061
0.0087774 0.002983 0.0015564 0.013652
-0.0080102 0.012157 0.0094119 -0.010797 -0.25913 0.18784 0.0071105 0.0035071
-0.0019795 0.0079139 0.0013123 0.012667
-0.00437 0.012059 0.0011942 0.012049 0.0071175 0.0034748 -0.32688 0.037286
-0.019887 -0.0039007 0.016541 0.025758
0.013323 0.0058426 0.0087874 0.0029745 -0.0019664 0.0078663 -0.019879 -0.0038429
-0.22311 -0.22828 -0.028672 0.0052201
-0.0048245 0.0089198 0.0016004 0.013726 0.0012943 0.012647 0.016583 0.025764
-0.028687 0.0052168 -0.2641 -0.146
560000000 -0.3179 0.10214 -0.020927 -0.067549 0.0002636 0.013023 0.0050412 0.011449
0.011977 0.0049017 0.011457 0.0097379
-0.020848 -0.067462 -0.37225 0.088755 -0.040628 -0.04016 0.014364 0.0041478
-0.012666 -0.0057601 0.0042563 4.5457e-06
0.00027662 0.013104 -0.040782 -0.040097 -0.18382 0.23941 -0.00095839 -0.00551
0.018259 0.0076774 0.007378 -0.0060464
0.0050615 0.011397 0.014373 0.0041538 -0.00096514 -0.0055063 -0.30581 0.12964
0.0070065 -0.023925 0.0055316 -0.021369
0.012119 0.0048653 -0.012734 -0.0055846 0.01822 0.0075783 0.0069643 -0.023902
-0.30449 -0.043928 0.012291 -0.051695
0.011624 0.0098653 0.0041766 -0.00012861 0.00746 -0.0060818 0.0055785 -0.021339
0.01224 -0.051753 -0.33099 0.006492
620000000 -0.27715 0.080484 -0.023343 0.0087629 0.0032138 0.0090091 0.0083393 -0.0045981
0.011777 -0.00067601 0.00045086 -0.0023118
-0.023316 0.0087548 -0.4003 0.035124 -0.018725 -0.00036411 -0.0018325 -0.0023097
0.012475 -0.0052248 0.0011246 -0.0034885
0.0031837 0.0090375 -0.018748 -0.00031007 -0.15702 0.24864 -0.0012055 -0.0054201
-0.00413 -0.0028614 0.0088935 -0.0036231
0.0082712 -0.0046395 -0.0018372 -0.0023112 -0.0012007 -0.005435 -0.26343 0.13904
-0.038344 -0.020502 0.012543 0.028069
0.011866 -0.00069241 0.012469 -0.0053177 -0.0042077 -0.0028369 -0.038392 -0.020464
-0.2196 -0.082235 -0.041256 0.01253
0.00051869 -0.0022186 0.0010972 -0.0034686 0.0089447 -0.0035277 0.01271 0.02814
-0.041357 0.012392 -0.24654 -0.031303
680000000 -0.24289 0.1726 -0.025985 -0.01603 0.0046787 0.0054406 0.0014787 -0.0072399
-0.0018564 -0.011708 0.0062987 -0.0071055
-0.025971 -0.016063 -0.39098 0.1367 -0.032786 -0.0028365 -0.0018763 -0.00039345
-0.0017482 -0.0097768 -0.0011858 -0.0019068
0.0046573 0.0054492 -0.032849 -0.0027149 -0.10913 0.27148 -0.00079235 8.1402e-05
-0.0013663 0.00075025 -0.0025791 -0.0095134
0.0014409 -0.0072548 -0.0018905 -0.00035061 -0.0007823 8.401e-05 -0.2204 0.19154
-0.023127 -0.0085284 -0.0084 -0.011876
-0.0019176 -0.011655 -0.0017971 -0.0098071 -0.0013689 0.00076009 -0.023091 -0.008509
-0.28066 0.019885 -0.0054378 -0.0074069
0.0062208 -0.007183 -0.0011771 -0.0018545 -0.0025892 -0.0095511 -0.0084392 -0.011965
-0.0053598 -0.0073867 -0.2603 0.076636
740000000 -0.19676 0.16617 -0.041405 0.026717 0.013644 -0.003802 0.00030237 -0.0039688
-0.0037073 -0.002329 -0.0065664 0.0033011
-0.041393 0.026632 -0.33766 0.15655 -0.037914 0.034286 -9.2318e-06 -0.005669
-0.012396 0.0066492 -0.0011991 -0.0057143
0.013628 -0.0038878 -0.037854 0.034443 -0.076493 0.27214 -0.0019542 0.0030585
-0.00134 -0.0052136 -0.0018436 0.0008247
0.00024811 -0.0039616 -3.6588e-05 -0.0056951 -0.0019467 0.0030901 -0.20422 0.19907
-0.042858 -0.010435 0.022496 0.016761
-0.0037926 -0.0022117 -0.012423 0.0066472 -0.0012935 -0.0052792 -0.042961 -0.010314
-0.1805 0.054279 -0.044161 -0.0017678
-0.0065009 0.0033623 -0.0012307 -0.0057052 -0.0019114 0.00085551 0.02257 0.016651
-0.044186 -0.0017406 -0.25303 0.081471
800000000 -0.16768 0.2126 -0.023414 0.015595 0.0056376 -0.010271 -0.0044481 -0.0026704
-0.0046314 0.0020441 0.0043322 0.00047966
-0.023405 0.015588 -0.34596 0.22788 -0.0094848 0.034507 -0.0022069 0.0022267
-0.00037314 0.0023263 0.00073493 0.0054071
0.0055904 -0.010296 -0.0094062 0.03458 -0.037737 0.29824 0.0011016 0.0012113
0.00014384 0.0035709 -0.0020072 0.00078057
-0.0044459 -0.002678 -0.0022071 0.0022325 0.0011126 0.0011988 -0.17543 0.22636
-0.029214 0.012679 0.014485 -0.010399
-0.0046031 0.0020609 -0.00036339 0.002336 0.00016591 0.0035646 -0.029213 0.012745
-0.23123 0.076954 -0.018788 0.02028
0.0042915 0.00039531 0.00074298 0.0054385 -0.0019808 0.00072785 0.014559 -0.010351
-0.018847 0.020285 -0.24803 0.13101
860000000 -0.13398 0.23373 -0.019072 0.030327 -0.0030411 -0.010163 -0.0020974 0.00059408
0.004399 0.0053546 -0.0039414 -0.0032942
-0.019107 0.030299 -0.29967 0.27273 0.0067365 0.034763 0.0001653 0.0019581
0.0039017 0.0001867 0.0034495 0.00021802
-0.0030713 -0.01017 0.0068624 0.034797 0.01009 0.30845 -0.00050663 -0.00049877
0.0024176 -0.0018071 0.0014671 0.0042801
-0.0021022 0.00060964 0.00016197 0.0019606 -0.00051289 -0.00049276 -0.13942 0.23814
-0.018639 0.017461 -0.0067215 -0.0099601
0.0044065 0.005319 0.0039237 0.00015221 0.0024272 -0.001818 -0.018624 0.017484
-0.17681 0.13477 -0.026241 0.016625
-0.0039586 -0.0032147 0.003497 0.00021826 0.0014705 0.0043283 -0.006923 -0.0099159
-0.026176 0.016549 -0.19832 0.178
920000000 -0.11071 0.25808 0.0038042 0.03955 -0.0092313 -0.0045312 -0.002043 0.0021381
0.00066257 0.0015638 0.0030716 -0.0013669
0.0037567 0.039524 -0.2724 0.29538 0.027873 0.02361 0.0012196 0.0012121
0.0071973 4.1403e-05 0.0039747 -0.0028257
-0.0092476 -0.0045222 0.027994 0.023552 0.056589 0.31106 0.0017168 2.6428e-06
0.00057375 -0.00034075 0.0010011 -0.0013574
-0.0020618 0.0021244 0.0011877 0.001194 0.0017249 5.1763e-06 -0.11591 0.25604
-0.012539 0.030733 0.0038577 -0.0062702
0.00069734 0.001512 0.0072022 -3.7175e-05 0.00059868 -0.00034292 -0.012477 0.03074
-0.16918 0.14105 -0.0035041 0.02829
0.0030186 -0.0013866 0.0039637 -0.0028164 0.00098634 -0.0013552 0.003866 -0.0062658
-0.0034933 0.028292 -0.2072 0.19306
980000000 -0.064735 0.27965 0.015988 0.031249 -0.0094669 0.0047144 0.0018154 0.0037013
0.0040094 -0.0014321 -0.0037065 -0.0029041
0.015953 0.031239 -0.22017 0.33199 0.033142 0.0060739 0.0018824 -0.00020384
0.0019023 -0.0058994 -0.00052424 -0.0027027
-0.0094476 0.0047425 0.033199 0.0059738 0.10279 0.30551 0.00048755 -0.0011418
0.00033494 -0.0016537 0.0015536 -0.00031752
0.0018166 0.0037448 0.0018794 -0.00022739 0.00048183 -0.0011311 -0.077638 0.26695
0.0064437 0.030142 -0.0095835 -0.0080673
0.0039822 -0.0014684 0.0018981 -0.0059461 0.00032826 -0.0016598 0.0064875 0.030148
-0.13828 0.17642 0.0049045 0.020471
-0.0036919 -0.0028534 -0.00056768 -0.0027068 0.001554 -0.00033981 -0.0095975 -0.0080716
0.0048667 0.02044 -0.16633 0.2395
1040000000 -0.024291 0.28976 0.033065 0.020568 -0.0010893 0.0075662 0.0026644 0.0007698
0.00028491 -0.0037127 1.8001e-06 -0.0015684
0.033008 0.020571 -0.18551 0.34671 0.03025 -0.013801 0.0015164 -0.0015881
-0.0024211 -0.0024152 -0.0011242 -0.0027563
-0.0010573 0.0075478 0.030231 -0.013932 0.14869 0.29366 -0.00047797 -0.0014008
-0.0015418 -0.00092396 -0.00050706 -0.0011609
0.0026499 0.00075812 0.0014836 -0.0016147 -0.00046817 -0.0014007 -0.050704 0.27774
0.018193 0.019495 -0.0023237 0.0016444
0.00024097 -0.003685 -0.0024171 -0.0024374 -0.0015585 -0.00090778 0.018235 0.019484
-0.10581 0.18548 0.013121 0.019577
-1.4011e-05 -0.0015633 -0.0011598 -0.0027282 -0.00050287 -0.0011577 -0.0022982 0.0016476
0.013125 0.01953 -0.14487 0.2616
1100000000 0.021179 0.30019 0.037029 -0.0022447 0.0036217 0.004186 0.0024371 -0.0010668
-0.0021977 -0.003056 -0.0041868 1.7418e-05
0.036993 -0.002214 -0.14144 0.36621 0.01622 -0.027402 -2.9947e-05 -0.0017049
-0.0034025 -0.00083785 -0.003644 -0.00044767
0.0036468 0.004167 0.016132 -0.027497 0.19539 0.27486 -0.0017405 0.00025152
-0.0015572 0.00060468 -0.0010897 -0.00058421
0.0024561 -0.0010682 -4.8295e-05 -0.0017167 -0.0017461 0.000259 -0.010259 0.28305
0.024311 0.0066689 -0.0026549 9.8283e-05
-0.0022274 -0.0030376 -0.0034057 -0.00082917 -0.0015575 0.00061473 0.02432 0.0066438
-0.087396 0.20152 0.019686 0.010238
-0.0041016 -2.1001e-06 -0.0036324 -0.00040982 -0.0010996 -0.00057684 -0.0026397 8.9459e-05
0.01966 0.010237 -0.099912 0.29284
1160000000 0.072026 0.29729 0.025823 -0.019565 0.0035615 -0.0007111 -0.00014285 -0.0025173
-0.0041511 -0.00089816 -0.0013232 0.0043166
0.02581 -0.019511 -0.098519 0.37152 -0.0028168 -0.028982 -0.0015446 -0.0016101
-0.0025776 0.0024275 -0.0016931 0.0020125
0.0035646 -0.00073564 -0.0029549 -0.029006 0.23859 0.24555 -0.00062667 0.0015936
-0.00044862 0.0017254 -0.0011558 0.00035733
-0.00014625 -0.0024899 -0.0015493 -0.0016147 -0.00061261 0.0015909 0.028635 0.2806
0.021613 -0.0092406 -0.0035208 0.0053271
-0.0041485 -0.00090049 -0.0025765 0.0024178 -0.00046364 0.0017174 0.021603 -0.0092671
-0.052374 0.21182 0.018964 0.0012899
-0.0012825 0.0043508 -0.0016871 0.0020271 -0.0011395 0.00035642 -0.0035314 0.0053497
0.018984 0.0012771 -0.052946 0.29708
1220000000 0.11592 0.2892 0.012759 -0.029909 -0.0010707 -0.0016664 -0.00013101 -0.00093421
-0.0027666 0.0022749 0.0011998 0.0019329
0.012763 -0.029861 -0.053996 0.38627 -0.016308 -0.021576 -0.0024885 0.00050934
-1.9285e-06 0.0029801 -0.00075698 0.0017955
-0.0010813 -0.0016532 -0.016437 -0.021541 0.2788 0.2083 0.00088607 0.0014691
0.00055722 0.0011261 0.00023153 0.00058242
-0.0001227 -0.00093595 -0.0024991 0.00051234 0.00087318 0.0014702 0.068525 0.27321
0.011174 -0.016105 0.0024185 0.0016631
-0.0027349 0.00232 2.0453e-05 0.0029841 0.000562 0.0011226 0.01115 -0.016127
-0.029705 0.2233 0.015066 -0.012197
0.0012362 0.00193 -0.00076715 0.0017986 0.0002135 0.00058772 0.0024218 0.0016723
0.015059 -0.012186 -0.022314 0.3152
1280000000 0.16663 0.26919 -0.0061344 -0.029463 -0.0020122 0.0015494 -0.00094321 -0.0020145
-0.0008049 0.0033115 0.0024331 0.0013052
-0.0061181 -0.02944 -0.007617 0.37813 -0.023568 -0.008752 -0.00085281 0.001341
0.0016492 0.0017174 0.0005731 0.0020831
-0.0020127 0.001554 -0.023638 -0.0086572 0.31088 0.16495 0.0013334 -8.3488e-05
0.00099386 0.00038536 0.00039475 0.00041187
-0.00096208 -0.0020155 -0.000848 0.001353 0.0013377 -8.4284e-05 0.10538 0.25734
0.0022553 -0.01871 9.2284e-05 -4.3448e-05
-0.0007985 0.0033171 0.001654 0.0016924 0.00099411 0.00038237 0.0022234 -0.018717
0.0076557 0.22856 0.0041912 -0.015098
0.0024182 0.0013254 0.00058749 0.0020888 0.00041589 0.00038837 5.241e-05 -5.8531e-05
0.0042117 -0.015103 0.025414 0.31817
1340000000 0.2039 0.23815 -0.016356 -0.020585 0.00010719 0.0041231 -0.0018036 -0.00070775
0.0015407 0.0028052 0.001764 -0.0014459
-0.016331 -0.020579 0.031324 0.37192 -0.021179 0.0039467 -0.00020387 0.0019226
0.0018243 0.00085674 0.0011957 0.00076869
0.00012232 0.0041256 -0.021192 0.0040562 0.334 0.11808 0.00082384 -0.00088006
0.00053991 -0.00054292 0.00010765 0.00019259
-0.0017988 -0.00069824 -0.00020721 0.0019344 0.0008143 -0.00088236 0.13842 0.23825
-0.007206 -0.016308 0.0011849 0.00032621
0.0015506 0.0028077 0.0018171 0.00084714 0.00054924 -0.00053299 -0.0072318 -0.016315
0.036577 0.22668 -0.0024118 -0.013893
0.0017532 -0.0014809 0.001191 0.00074736 9.6338e-05 0.00018766 0.001217 0.00034253
-0.0023974 -0.013854 0.063111 0.31538
1400000000 0.23899 0.2019 -0.02332 -0.0093026 0.0045715 0.0032386 -0.0021072 0.0006917
0.0025343 0.00096262 0.0003526 -0.0013349
-0.023283 -0.0093153 0.070292 0.36017 -0.014599 0.012104 0.0011727 0.0014055
0.0011629 -0.00058457 0.0011463 0.00028239
0.0045924 0.0032103 -0.014563 0.012194 0.34872 0.063981 -2.9366e-05 -0.0012375
9.6244e-05 -0.00015447 0.00046232 0.00020671
-0.0021123 0.00070501 0.0011849 0.0013877 -3.4164e-05 -0.0012508 0.16893 0.2099
-0.013386 -0.010126 -0.00079422 -0.00066129
0.0025484 0.00093708 0.0011634 -0.00059286 8.1651e-05 -0.00015677 -0.013415 -0.010085
0.070761 0.22426 -0.0092801 -0.0092885
0.00033559 -0.0013254 0.0011633 0.00027618 0.00047778 0.00020649 -0.0008242 -0.00069386
-0.0092495 -0.0092816 0.10877 0.30604
1460000000 0.26258 0.15912 -0.021028 0.0032623 0.0051366 -0.001484 -0.0015447 0.0017383
0.0020915 -0.00040531 -0.00021459 -0.00097876
-0.02101 0.0032526 0.1047 0.33895 -0.0057224 0.014945 0.0016012 0.00028836
0.001096 -0.0011714 0.0012687 -0.00057821
0.0051276 -0.0015027 -0.0056476 0.014998 0.35529 0.0088143 -0.00092339 -0.0010667
0.00031396 -0.00013713 0.00064447 -0.0002415
-0.0015321 0.0017341 0.0016006 0.00028119 -0.00092755 -0.0010571 0.19581 0.18113
-0.014575 -0.0040737 -0.001193 0.0018332
0.0021097 -0.00039821 0.0010909 -0.0011702 0.00032139 -0.0001511 -0.014599 -0.0040581
0.099958 0.21182 -0.011339 -0.0036631
-0.00021404 -0.001014 0.0012496 -0.00056126 0.00063545 -0.0002517 -0.0011888 0.0018593
-0.011347 -0.00366 0.14178 0.28646
1520000000 0.27676 0.11907 -0.015946 0.0092489 0.0032168 -0.0038089 8.3179e-05 0.0025519
0.0022981 -0.0018067 -0.0010612 -0.00018981
-0.015945 0.009225 0.1393 0.32598 0.0018325 0.012461 0.001709 -0.00064784
0.00022882 -0.0010598 0.00035773 -0.0010041
0.0031925 -0.0038357 0.0018989 0.012466 0.34834 -0.047444 -0.0007552 -0.00037811
0.00066456 -0.00088347 0.00010969 -0.00010577
9.7462e-05 0.0025624 0.0017039 -0.00066044 -0.00075607 -0.00038879 0.2203 0.14371
-0.014794 0.0015137 0.0012351 0.001977
0.0022943 -0.0018233 0.00021462 -0.0010669 0.00066409 -0.00087688 -0.014801 0.0015499
0.12848 0.20127 -0.011573 0.00083808
-0.0010637 -0.00017401 0.00035014 -0.0010099 0.00010556 -8.2988e-05 0.0012399 0.001948
-0.011559 0.00082529 0.17588 0.26806
1580000000 0.28789 0.073242 -0.009496 0.013242 -0.0010565 -0.0045508 0.0014662 0.001881
-0.00023335 -0.0022121 -0.00027064 0.00034941
-0.0094905 0.013223 0.16766 0.30108 0.0052513 0.0074141 0.00061687 -0.0015306
-0.0004774 -0.0012016 -0.00024619 -0.00077576
-0.0010743 -0.0045463 0.0053071 0.0073993 0.3284 -0.10578 -0.001481 0.00011711
-0.00027764 -0.0014139 0.00022451 -0.00061644
0.0014724 0.0018701 0.00061184 -0.0015419 -0.00148 0.00011872 0.23524 0.10373
-0.011709 0.0066456 0.0019094 0.00092921
-0.00023815 -0.0022227 -0.00048249 -0.0012033 -0.0002724 -0.0014212 -0.011709 0.0066603
0.15348 0.18527 -0.0095058 0.0068351
-0.00027997 0.00033204 -0.00025302 -0.00078059 0.00021468 -0.00062655 0.0018892 0.00095769
-0.0095098 0.0068069 0.20956 0.24221
1640000000 0.29149 0.032785 -0.0025302 0.012644 -0.0027867 -0.0022354 0.0027701 0.0010868
-0.0005767 -0.0017273 -0.00043538 0.00047905
-0.0025324 0.012629 0.19727 0.27748 0.0054668 0.0025138 -0.00040681 -0.0018501
-0.00095343 -0.00057661 -0.00047596 -0.00071436
-0.0027998 -0.0022088 0.0054815 0.0024835 0.29897 -0.15422 -0.00082938 0.0012045
-0.00099452 -0.0010829 -0.00013782 -0.00048395
0.0027845 0.0010754 -0.00041656 -0.0018476 -0.0008418 0.0012157 0.24828 0.05514
-0.008009 0.0082419 0.0025077 -0.00058063
-0.00057819 -0.00172 -0.00095042 -0.00056719 -0.00098296 -0.00108 -0.008012 0.0082724
0.17712 0.16434 -0.0049625 0.0090966
-0.00042055 0.00047155 -0.00048854 -0.00072247 -0.00015328 -0.00047232 0.0025299 -0.00059412
-0.0049435 0.0091022 0.23527 0.21244
1700000000 0.28678 -0.012487 0.001281 0.01025 -0.0032544 0.00041208 0.0031748 -0.0011906
-0.0020665 -0.00064106 0.00050866 0.00048623
0.0012792 0.010245 0.217 0.24602 0.0028753 -0.00018857 -0.0014279 -0.00075984
-0.00089718 -8.6794e-05 -0.00083067 -0.000433
-0.0032474 0.00043315 0.0028784 -0.0002029 0.25573 -0.19364 0.00012435 0.0016537
-0.0020755 -0.00018154 -0.00039121 -0.0006976
0.0031698 -0.0012073 -0.0014372 -0.00075311 0.00011732 0.0016583 0.24617 0.0042552
-0.0051464 0.0092488 0.0016608 -0.001889
-0.002074 -0.00064142 -0.00089701 -7.2902e-05 -0.0020623 -0.00015512 -0.0051253 0.0092538
0.19697 0.14661 -0.00037905 0.009483
0.00050427 0.00048975 -0.00083217 -0.00042768 -0.00036309 -0.0007099 0.0016509 -0.0018859
-0.00040163 0.0094806 0.25367 0.17877
1760000000 0.27585 -0.061727 0.0040899 0.0071613 -0.0019893 0.0011769 0.0013795 -0.0034899
-0.0012389 0.00054408 0.0003995 -0.00050692
0.0040825 0.0071555 0.24289 0.20639 0.00032147 -0.0015438 -0.0011893 -6.0396e-06
-0.0011407 0.00097338 -0.00058118 0.0002898
-0.0019992 0.0011894 0.00030112 -0.0015525 0.20647 -0.226 0.0011116 0.0014693
-0.0012442 0.0013837 -0.0011939 -0.00079279
0.0013697 -0.0035068 -0.0011926 2.7732e-06 0.0011027 0.001475 0.23695 -0.048146
-0.0016046 0.0088461 1.2902e-05 -0.0024247
-0.0012288 0.00057174 -0.0011324 0.00099976 -0.001234 0.0013785 -0.0015949 0.0088645
0.21341 0.11395 0.0035804 0.0071034
0.00039878 -0.00051781 -0.00059238 0.00030224 -0.0012289 -0.00077844 4.2785e-07 -0.0024193
0.0035847 0.0071126 0.26678 0.14136
1820000000 0.25316 -0.099446 0.0046999 0.0034788 0.00027254 0.0022239 -0.00081723 -0.0031133
-0.0012003 0.00082575 -0.00010814 -0.00015511
0.004692 0.0034767 0.2543 0.1772 -0.0016809 0.00010001 -0.0015419 0.00095087
-4.0809e-05 0.0013096 -0.00067284 0.0004472
0.00027679 0.0022494 -0.0016783 0.00011367 0.15738 -0.24032 0.0017534 0.00059958
-0.00026615 0.0023298 -0.0016619 0.00024024
-0.00082743 -0.0031196 -0.0015457 0.00095225 0.0017469 0.0006027 0.20739 -0.09596
0.00038002 0.0073599 -0.0015809 -0.0015801
-0.0011833 0.00083702 -2.2328e-05 0.0013166 -0.0002369 0.0023716 0.00038432 0.0073579
0.23375 0.087386 0.0047756 0.0037783
-0.00010323 -0.00014724 -0.00065991 0.00045613 -0.0016399 0.00019975 -0.0015755 -0.0015859
0.0047775 0.0037606 0.27062 0.10661
1880000000 0.21882 -0.1414 0.0027362 0.00094072 -0.00027172 0.0021663 -0.0030002 -0.0023792
-0.00031792 0.0016898 0.00038885 -0.000613
0.0027348 0.00093884 0.25889 0.13023 -0.0036219 0.0027541 -0.00031838 0.0018264
0.00064087 0.0013971 0.00015704 0.00097725
-0.00025536 0.0021757 -0.003613 0.0027921 0.10584 -0.24886 0.0021626 -0.0011688
0.0016049 0.0020705 -0.00099047 0.0015038
-0.003002 -0.0023628 -0.00032468 0.0018178 0.0021645 -0.0011659 0.16645 -0.1367
0.0013211 0.0054741 -0.0022567 0.00011507
-0.00030964 0.0017011 0.00065716 0.0013825 0.0015855 0.0020619 0.0013413 0.0054559
0.24023 0.056774 0.0052202 0.0015875
0.0003985 -0.00060593 0.00017058 0.00099246 -0.00097941 0.0015047 -0.0022906 0.00012724
0.0051894 0.0015756 0.272 0.072303
1940000000 0.17934 -0.16731 0.00060424 -0.0010568 0.0016193 0.0019019 -0.0039727 0.00021833
0.0010296 0.00098693 -0.0006459 -0.00067571
0.00061314 -0.0010544 0.26004 0.099429 -0.001884 0.0055302 0.0010815 0.0015052
0.0020152 0.00041246 0.00086237 0.00032936
0.0016362 0.0018889 -0.0018504 0.0055443 0.061157 -0.24087 0.00064344 -0.0022855
0.0023469 0.00046347 0.0002457 0.001661
-0.0040015 0.00025855 0.0010903 0.0014916 0.00064971 -0.0022717 0.11336 -0.16716
0.00066566 0.0036938 -0.0014384 0.0014678
0.0010181 0.00097911 0.00203 0.00039264 0.002346 0.00046398 0.00068369 0.0037018
0.24561 0.019645 0.0041065 -0.0020285
-0.00066685 -0.0006418 0.00086894 0.00031157 0.00025821 0.0016027 -0.0013658 0.0014613
0.0041331 -0.0020177 0.26147 0.036856
2000000000 0.13411 -0.18278 -0.0031178 0.00078469 0.0028923 0.0012701 -0.0025376 0.0036795
0.0010209 0.0005396 -0.00088845 0.00043062
-0.0031129 0.00078368 0.24714 0.06408 -0.00055338 0.0076733 0.0017064 0.00038179
0.0011681 -0.001404 0.00053036 8.459e-05
0.0029049 0.0012577 -0.00050581 0.0077014 0.020399 -0.22675 -0.0016387 -0.0015453
0.002074 -0.0010096 0.0016953 0.0014499
-0.0025044 0.0037032 0.0017092 0.00036804 -0.001668 -0.0015515 0.060052 -0.17699
-0.0010256 0.0036157 -5.8823e-05 0.0018826
0.0010192 0.00053928 0.0011635 -0.0014263 0.0020354 -0.0010445 -0.0010433 0.0036034
0.24383 -0.01372 0.00081857 -0.0033278
