!Keysight Technologies,M9804A,MY58100912,A.14.10.03
!Date: Thursday, April 27, 2023 10:28:33
!Correction: S11(C  6-Port  ) 
!S12(C  6-Port  ) 
!S13(C  6-Port  ) 
!S14(C  6-Port  ) 
!S15(C  6-Port  ) 
!S16(C  6-Port  ) 
!S21(C  6-Port  ) 
!S22(C  6-Port  ) 
!S23(C  6-Port  ) 
!S24(C  6-Port  ) 
!S25(C  6-Port  ) 
!S26(C  6-Port  ) 
!S31(C  6-Port  ) 
!S32(C  6-Port  ) 
!S33(C  6-Port  ) 
!S34(C  6-Port  ) 
!S35(C  6-Port  ) 
!S36(C  6-Port  ) 
!S41(C  6-Port  ) 
!S42(C  6-Port  ) 
!S43(C  6-Port  ) 
!S44(C  6-Port  ) 
!S45(C  6-Port  ) 
!S46(C  6-Port  ) 
!S51(C  6-Port  ) 
!S52(C  6-Port  ) 
!S53(C  6-Port  ) 
!S54(C  6-Port  ) 
!S55(C  6-Port  ) 
!S56(C  6-Port  ) 
!S61(C  6-Port  ) 
!S62(C  6-Port  ) 
!S63(C  6-Port  ) 
!S64(C  6-Port  ) 
!S65(C  6-Port  ) 
!S66(C  6-Port  ) 
!S6P File: Measurement: :
# Hz S  RI   R 50
500000000 -0.32652 -0.066427 -0.0096136 -0.0014029 -0.0083895 0.012442 -0.0042636 0.0118
0.013661 0.0063524 -0.0044776 0.0075731
-0.0094389 -0.0014501 -0.41028 -0.075362 0.0087356 -0.010936 0.00042486 0.011803
0.0092752 0.0035885 -0.00010192 0.013143
-0.0084532 0.012202 0.0086841 -0.011033 -0.2576 0.18848 0.0067447 0.0032873
-0.0018569 0.008341 0.00075969 0.011947
-0.0049694 0.011415 0.00059139 0.011687 0.0071065 0.0031655 -0.32732 0.039865
-0.02052 -0.0047933 0.013929 0.027126
0.01334 0.0068169 0.0098878 0.0035848 -0.0021039 0.0079289 -0.020178 -0.0047658
-0.21301 -0.23876 -0.028976 0.004542
-0.0054916 0.0075703 0.0013133 0.014104 0.0022199 0.01226 0.015284 0.027291
-0.029662 0.0045343 -0.26572 -0.14427
560000000 -0.31729 0.10323 -0.022241 -0.068541 0.0011076 0.01273 0.0057816 0.0096567
0.010546 0.0057084 0.010156 0.0090629
-0.021529 -0.068376 -0.37101 0.089471 -0.041323 -0.038584 0.013783 0.0033286
-0.01307 -0.0052497 0.0035341 -0.0010666
0.00042855 0.01308 -0.04185 -0.039069 -0.18332 0.23845 -0.00044615 -0.0053325
0.017699 0.0071587 0.0084212 -0.0061001
0.0065662 0.010725 0.014031 0.0024832 7.6047e-05 -0.0048067 -0.30496 0.13004
0.008351 -0.022297 0.0069749 -0.022005
0.010463 0.0044549 -0.014383 -0.0050748 0.018364 0.0069906 0.0079951 -0.022588
-0.30124 -0.056008 0.013823 -0.051284
0.010622 0.0095807 0.0039818 -0.0020597 0.0083998 -0.0053691 0.006174 -0.021646
0.013055 -0.051092 -0.33159 0.0056637
620000000 -0.27624 0.080605 -0.023334 0.0086381 0.0034064 0.0091742 0.0088366 -0.0044997
0.011727 -0.0012218 0.00094727 -0.0020658
-0.023087 0.0086507 -0.40004 0.035189 -0.018999 4.5751e-05 -0.0015126 -0.0024502
0.012339 -0.0052121 6.1945e-06 -0.0030097
0.0032984 0.0087273 -0.018945 4.1386e-05 -0.15573 0.24926 -0.0010864 -0.005528
-0.0036518 -0.0022923 0.0096102 -0.0032165
0.0086194 -0.0047678 -0.0020981 -0.0022007 -0.001118 -0.005621 -0.26196 0.13937
-0.038119 -0.021669 0.014182 0.027232
0.012501 -0.00027469 0.012904 -0.0054359 -0.003804 -0.0019342 -0.038599 -0.020236
-0.21762 -0.093112 -0.044752 0.013616
0.0011631 -0.00058533 0.00073272 -0.0032282 0.0087223 -0.0028643 0.012532 0.028301
-0.042499 0.012641 -0.24187 -0.029697
680000000 -0.24239 0.17306 -0.026375 -0.015823 0.0047323 0.0055464 0.001433 -0.0072711
-0.0014951 -0.011803 0.0059512 -0.0079375
-0.02631 -0.01597 -0.39077 0.13631 -0.033036 -0.0025784 -0.0016345 -0.00059293
-0.0017186 -0.0095475 -0.00073071 -0.0024607
0.0045944 0.0051896 -0.033109 -0.0026207 -0.10909 0.27177 -0.00099309 0.0002942
-0.0013961 0.0011085 -0.0029924 -0.0093121
0.0013411 -0.0078459 -0.001655 -0.00053866 -0.00088072 0.00012931 -0.2201 0.191
-0.022792 -0.0082242 -0.0098623 -0.01125
-0.0019469 -0.011561 -0.0018121 -0.0089879 -0.0016826 0.0010803 -0.022553 -0.0078061
-0.28184 0.0064629 -0.004799 -0.0084109
0.0057332 -0.0067616 -0.00084635 -0.0017808 -0.0026242 -0.0091759 -0.0091466 -0.01186
-0.0054188 -0.0081485 -0.26265 0.07279
740000000 -0.1965 0.16629 -0.041179 0.025982 0.013675 -0.0038294 2.3899e-05 -0.0040611
-0.0043665 -0.0022511 -0.0060556 0.0032164
-0.040965 0.026036 -0.33732 0.15682 -0.038004 0.03455 0.00024896 -0.0060357
-0.013098 0.0065802 -0.001401 -0.0052558
0.013643 -0.003596 -0.037949 0.034675 -0.076021 0.27291 -0.0017624 0.0036196
-0.00068808 -0.0056528 -0.0024715 0.00093676
-4.4279e-05 -0.0042943 0.00043444 -0.0059753 -0.0019631 0.0037409 -0.20373 0.19924
-0.042597 -0.010146 0.022662 0.016815
-0.0041578 -0.0021073 -0.012813 0.0066694 -0.00032761 -0.0055579 -0.042893 -0.010029
-0.18132 0.043465 -0.044376 -0.0021557
-0.0069316 0.0031538 -0.0010441 -0.0058742 -0.001862 0.0011539 0.022678 0.016746
-0.043036 -0.0024875 -0.25138 0.081133
800000000 -0.16653 0.21319 -0.023083 0.015919 0.0058076 -0.010219 -0.0046739 -0.0022848
-0.0039676 0.0019039 0.0040644 0.00090788
-0.023264 0.016029 -0.34567 0.22795 -0.0091276 0.034589 -0.00207 0.0020294
-0.00035467 0.0025524 0.00074865 0.0053056
0.005774 -0.010106 -0.0090837 0.0347 -0.037302 0.29885 0.0010556 0.0011476
8.0284e-05 0.0034669 -0.0017698 0.00066438
-0.0048538 -0.0024062 -0.0022443 0.0020662 0.0011086 0.001213 -0.17501 0.22686
-0.029138 0.012749 0.014158 -0.010498
-0.0045486 0.0020034 -0.00025635 0.0025128 -0.00021594 0.0033444 -0.029176 0.012751
-0.23573 0.066014 -0.018382 0.020738
0.0039403 0.00075247 0.00083385 0.0054665 -0.0019667 0.00076053 0.014278 -0.010901
-0.018719 0.021285 -0.24892 0.12945
860000000 -0.13381 0.23381 -0.019072 0.03075 -0.0033194 -0.010103 -0.0021211 0.00055771
0.0041157 0.0054445 -0.0036792 -0.0034014
-0.019278 0.030763 -0.29948 0.27254 0.0070055 0.034692 1.5461e-05 0.002224
0.0036898 0.00022839 0.0034454 9.1584e-05
-0.0032761 -0.010101 0.0072192 0.034781 0.010772 0.30922 -0.00067341 -0.00045532
0.002494 -0.0018664 0.0017602 0.0043455
-0.0020602 0.00073681 0.00022319 0.0020616 -0.00042167 -0.0004203 -0.13968 0.23863
-0.018752 0.017248 -0.0066559 -0.0092951
0.0039875 0.0052912 0.0036079 0.00012558 0.0026312 -0.0017684 -0.018679 0.017167
-0.18132 0.12769 -0.02676 0.016367
-0.0033215 -0.0032442 0.0034633 0.00037744 0.0015721 0.004274 -0.0065048 -0.008913
-0.026645 0.016054 -0.1976 0.17934
920000000 -0.11058 0.25819 0.0038489 0.039843 -0.0092 -0.0045722 -0.001835 0.0019266
0.00035629 0.0016512 0.0031889 -0.001037
0.0037632 0.039802 -0.27222 0.29556 0.027971 0.023537 0.0015421 0.0011675
0.0071208 0.00021693 0.004217 -0.002821
-0.009316 -0.0045302 0.028133 0.023393 0.057322 0.31164 0.0017859 -2.9018e-05
0.00062629 -0.00034545 0.001163 -0.0012367
-0.0018808 0.0019162 0.0014927 0.0010865 0.001753 -4.5334e-05 -0.11496 0.25633
-0.012942 0.030818 0.0042685 -0.0062042
0.00010571 0.0018136 0.0071632 0.00026073 0.0005365 -0.00031524 -0.012853 0.03076
-0.17434 0.13231 -0.0039539 0.028394
0.0031342 -0.0013994 0.003801 -0.0030633 0.0010055 -0.0011644 0.004072 -0.0065858
-0.0040475 0.028817 -0.20746 0.19203
980000000 -0.064311 0.27984 0.016267 0.031161 -0.0094285 0.0047659 0.0019058 0.0036397
0.0040092 -0.0016075 -0.0034403 -0.0025263
0.016204 0.03119 -0.22018 0.33241 0.03332 0.0057184 0.0019632 -0.00025944
0.0018961 -0.0060746 -0.00058395 -0.0026904
-0.009414 0.0047415 0.033373 0.0056405 0.10381 0.3063 0.00052611 -0.0011427
0.00022205 -0.0016622 0.0016239 -0.00040361
0.0020546 0.0037304 0.0018414 -0.00030057 0.00047651 -0.001101 -0.076936 0.2678
0.0066368 0.030348 -0.0093803 -0.0077488
0.0038884 -0.0015315 0.0017326 -0.0060943 0.00031899 -0.0017614 0.0067288 0.030275
-0.14465 0.16879 0.004529 0.0206
-0.0033757 -0.0027519 -0.00042146 -0.0025244 0.0015629 -0.00046034 -0.0095269 -0.0078927
0.0045398 0.020994 -0.16589 0.23942
1040000000 -0.023563 0.29 0.033208 0.020468 -0.0010779 0.0074794 0.002544 0.00065398
0.000355 -0.003667 -0.00014644 -0.001371
0.033172 0.02041 -0.18524 0.34701 0.030052 -0.014122 0.0014754 -0.0017026
-0.0024676 -0.0025562 -0.0012803 -0.0029617
-0.0011182 0.0075149 0.030061 -0.014297 0.14999 0.29406 -0.00051391 -0.0013978
-0.0014998 -0.0010113 -0.00052378 -0.0012236
0.0024928 0.00066683 0.0014335 -0.0017493 -0.00051359 -0.0014231 -0.049684 0.27817
0.018535 0.019657 -0.0022999 0.0014001
0.00042933 -0.0035923 -0.0023741 -0.0024871 -0.0015601 -0.0009959 0.018444 0.019614
-0.11282 0.17889 0.013196 0.020373
-8.2712e-05 -0.0011081 -0.0011729 -0.0029712 -0.00039422 -0.0012581 -0.0021143 0.0014616
0.013263 0.020314 -0.14525 0.26088
1100000000 0.021619 0.30045 0.037124 -0.0024563 0.0036244 0.0041259 0.0024296 -0.0011148
-0.0023354 -0.0030407 -0.004224 -3.7507e-06
0.037085 -0.0024732 -0.14124 0.36672 0.015849 -0.0276 -8.4598e-05 -0.0017835
-0.0033208 -0.00092969 -0.0037943 -0.00049762
0.0037039 0.0041756 0.015777 -0.027698 0.19665 0.27493 -0.0017463 0.00028703
-0.0016185 0.00059755 -0.001156 -0.00067749
0.0023902 -0.00099619 -0.0001375 -0.0017774 -0.0017868 0.00027358 -0.009135 0.28354
0.02441 0.006687 -0.0025673 0.00012338
-0.002345 -0.0029778 -0.0033195 -0.00075037 -0.001679 0.00062448 0.02446 0.0067121
-0.09527 0.19588 0.019624 0.010947
-0.0042894 -2.5335e-05 -0.0036202 -0.0005687 -0.0011466 -0.00062194 -0.0026562 2.3266e-05
0.01964 0.010719 -0.10046 0.29314
1160000000 0.072606 0.29754 0.025682 -0.019779 0.0035045 -0.00071807 -0.00014828 -0.0023907
-0.0042394 -0.00082968 -0.0010731 0.0041802
0.025606 -0.019799 -0.097676 0.37178 -0.003276 -0.028987 -0.0014905 -0.0015134
-0.0025071 0.0025688 -0.0017045 0.0019305
0.0035267 -0.00075388 -0.0033635 -0.028985 0.24 0.24538 -0.00063323 0.0015645
-0.00044425 0.0017327 -0.0010966 0.00027255
-9.7302e-05 -0.0024496 -0.001515 -0.001519 -0.00062207 0.0015657 0.030092 0.28085
0.021831 -0.0093509 -0.0034064 0.0052826
-0.0042173 -0.00085047 -0.0025893 0.0026327 -0.00043282 0.0017361 0.021917 -0.0093518
-0.059945 0.20839 0.019606 0.0014192
-0.0012103 0.0041595 -0.0017395 0.0020443 -0.001096 0.00041986 -0.0034177 0.0051796
0.019765 0.0014896 -0.052903 0.29685
1220000000 0.11668 0.28911 0.012589 -0.030046 -0.0010746 -0.0016515 -0.00010777 -0.00094816
-0.0027839 0.0023083 0.0011085 0.0020157
0.012654 -0.030046 -0.053412 0.38655 -0.016509 -0.02137 -0.0025473 0.00054318
-3.4001e-05 0.0029985 -0.00084489 0.0018578
-0.0011129 -0.001691 -0.016609 -0.021335 0.28003 0.20774 0.00084154 0.0014584
0.0005196 0.0011075 0.00017932 0.00070614
-0.00015459 -0.00096276 -0.0025813 0.00059293 0.00088394 0.0014324 0.069786 0.27298
0.011268 -0.016292 0.0023443 0.0016057
-0.0027685 0.0023685 1.9116e-05 0.0029076 0.00059221 0.0010783 0.011198 -0.016275
-0.037475 0.22036 0.015396 -0.012017
0.0011303 0.002084 -0.00082745 0.0018509 0.00022524 0.00072591 0.0023504 0.0016272
0.015062 -0.011801 -0.022612 0.315
1280000000 0.1673 0.2693 -0.0064546 -0.029476 -0.0020218 0.0014591 -0.00095484 -0.0019597
-0.00084637 0.0033984 0.0025486 0.0012956
-0.0063785 -0.02951 -0.0067293 0.37847 -0.023647 -0.0084443 -0.00076261 0.0013565
0.0016041 0.0017915 0.00058112 0.0020922
-0.0020252 0.0014865 -0.023643 -0.0083643 0.31172 0.16426 0.0012977 -8.1308e-05
0.0010295 0.00038389 0.00028118 0.00044613
-0.000931 -0.0019295 -0.00073843 0.0013296 0.0013295 -8.2949e-05 0.10636 0.25691
0.002105 -0.018826 0.00019001 -6.7757e-05
-0.00089598 0.0034279 0.0016061 0.0017224 0.0010816 0.00041253 0.002109 -0.018905
-8.2448e-05 0.22678 0.0042326 -0.015188
0.00242 0.0013256 0.00055274 0.0021092 0.00015815 0.000371 0.00011632 4.8075e-05
0.0042685 -0.015122 0.025674 0.3188
1340000000 0.20479 0.23772 -0.01657 -0.020491 0.00017724 0.004135 -0.0018124 -0.00073883
0.0016901 0.002857 0.0018752 -0.0014598
-0.01659 -0.020486 0.032267 0.37181 -0.020979 0.0042431 -0.0001844 0.0019788
0.0017753 0.00094027 0.0011806 0.00075261
0.00021493 0.0041329 -0.020996 0.0043829 0.33479 0.11702 0.00082956 -0.00084239
0.00058704 -0.00041119 4.4194e-05 0.00024593
-0.001765 -0.0006839 -0.00017666 0.0019707 0.00081376 -0.00085365 0.13937 0.23739
-0.0074127 -0.016454 0.0011067 0.00046532
0.0015828 0.0028049 0.0017437 0.00087178 0.00056896 -0.00041087 -0.0074693 -0.016417
0.029119 0.22514 -0.0024604 -0.013963
0.001781 -0.0014134 0.001257 0.00082612 9.0875e-05 0.00015598 0.0011508 0.00022487
-0.0025442 -0.013869 0.063005 0.31534
1400000000 0.23959 0.20132 -0.023443 -0.0091545 0.0045573 0.0031916 -0.0020812 0.00069443
0.0026554 0.00094278 0.00034473 -0.0014015
-0.023431 -0.0091491 0.070984 0.35991 -0.014348 0.012253 0.0012155 0.0013412
0.0012334 -0.00055733 0.001141 0.00025767
0.0046382 0.0031688 -0.014308 0.012353 0.34905 0.063112 -5.57e-05 -0.0012798
0.0001907 -0.00011729 0.00045551 0.00025504
-0.0020722 0.00061489 0.0012224 0.0013308 -2.8779e-05 -0.0012797 0.16938 0.20917
-0.013537 -0.0099935 -0.0008344 -0.00049228
0.0027242 0.00084874 0.001247 -0.00055456 0.00022971 -0.0001214 -0.013508 -0.0098853
0.062998 0.22441 -0.0090064 -0.0094781
0.00033865 -0.0013079 0.001158 0.00024029 0.00046295 0.00025922 -0.00081082 -0.0005222
-0.0089345 -0.009612 0.10842 0.30623
1460000000 0.26335 0.15844 -0.020968 0.0034957 0.0051865 -0.001541 -0.0015389 0.0016439
0.002071 -0.00044701 -0.00025715 -0.00087835
-0.02098 0.0034761 0.1054 0.33856 -0.00539 0.014868 0.0016096 0.00028709
0.0010829 -0.0011978 0.0013107 -0.00055324
0.0051154 -0.0015306 -0.0053103 0.014892 0.35573 0.0081935 -0.00089937 -0.0011008
0.00028294 -0.000249 0.00074184 -0.00024967
-0.001574 0.0016521 0.0016117 0.00030672 -0.0009727 -0.0011238 0.19628 0.18048
-0.014705 -0.0037578 -0.0009732 0.0017876
0.0021618 -0.00044888 0.0010838 -0.0012156 0.00029589 -0.00020228 -0.014753 -0.0037894
0.092362 0.21241 -0.01131 -0.003332
-0.00025636 -0.00095295 0.0012093 -0.00060914 0.00066613 -0.00032925 -0.0011152 0.0017905
-0.011375 -0.0034399 0.14202 0.28625
1520000000 0.27703 0.11811 -0.015857 0.0094846 0.0031076 -0.0037645 7.9859e-05 0.0025593
0.0023233 -0.0019494 -0.0011424 -0.00014319
-0.015873 0.0094818 0.13965 0.32539 0.0019462 0.012252 0.0017084 -0.0006784
0.00028187 -0.0010542 0.00031649 -0.0010613
0.0030094 -0.00382 0.0020233 0.012302 0.34886 -0.048445 -0.00071208 -0.00041878
0.00071226 -0.0009798 5.5225e-05 -0.00023994
9.2949e-05 0.0025432 0.0017037 -0.00070191 -0.00068755 -0.00041934 0.22049 0.14292
-0.014602 0.0016429 0.001213 0.0019861
0.002301 -0.0018983 0.00031256 -0.0010926 0.00081293 -0.0010318 -0.014626 0.0017084
0.12138 0.20282 -0.011641 0.0007624
-0.0011331 -5.2811e-05 0.00037292 -0.00099569 1.4201e-05 -8.1e-05 0.0012218 0.0020054
-0.01169 0.00071202 0.17594 0.2682
1580000000 0.28787 0.072539 -0.0093618 0.013327 -0.0010247 -0.0045933 0.0014087 0.001875
-0.00036915 -0.0022004 -0.00013173 0.00027681
-0.0093442 0.013349 0.16782 0.30072 0.005261 0.0071328 0.00057686 -0.0015761
-0.00046788 -0.0012534 -0.00022971 -0.00075388
-0.0010482 -0.0045276 0.0053267 0.0071238 0.32856 -0.10644 -0.0015322 0.00014187
-0.000426 -0.0013958 0.00017323 -0.00051926
0.0014616 0.0018713 0.00056846 -0.0015626 -0.0015984 0.00015745 0.23531 0.10337
-0.01151 0.006828 0.0019614 0.00087572
-0.00029355 -0.0022182 -0.00047198 -0.0012362 -0.00048153 -0.0013383 -0.011541 0.0068666
0.14689 0.18774 -0.0095394 0.0070094
-0.00029636 0.00027475 -0.00023371 -0.00076699 0.0002751 -0.00055664 0.0019412 0.00082089
-0.009383 0.0071126 0.20944 0.24217
1640000000 0.29128 0.031976 -0.00235 0.012645 -0.0027668 -0.0021137 0.0027169 0.0011771
-0.00060914 -0.0017057 -0.00041711 0.00053811
-0.002333 0.012635 0.1975 0.27713 0.0053415 0.0024454 -0.00050216 -0.0018381
-0.0010012 -0.00062544 -0.00055417 -0.00061822
-0.0027476 -0.0020148 0.0053684 0.0024229 0.29888 -0.1554 -0.00088054 0.0012258
-0.0012037 -0.001179 -0.0002288 -0.00031889
0.0026964 0.0011943 -0.00049499 -0.0018127 -0.00079496 0.001206 0.24848 0.054684
-0.0077294 0.0081237 0.0025386 -0.00046273
-0.0006981 -0.0016763 -0.00099777 -0.00063135 -0.00119 -0.0011553 -0.0076738 0.0081732
0.1708 0.16768 -0.0047304 0.0091277
-0.0003477 0.00048428 -0.00053733 -0.00066706 -0.00017992 -0.00026413 0.0024975 -0.00051
-0.0048151 0.0090699 0.23531 0.21254
1700000000 0.2863 -0.012893 0.0014176 0.010142 -0.0032109 0.0003596 0.0031447 -0.0011983
-0.0022131 -0.0006208 0.00061815 0.00054598
0.001435 0.010112 0.21694 0.24587 0.0028139 -0.0001118 -0.0014386 -0.00071833
-0.00091116 -0.00016183 -0.00082874 -0.00041237
-0.0032136 0.00036909 0.0028318 -0.00016032 0.2553 -0.19377 0.00013406 0.0017921
-0.0020985 -0.00017653 -0.00034697 -0.0007608
0.0031489 -0.0012126 -0.0014635 -0.00071874 9.5818e-05 0.001768 0.24625 0.004016
-0.0051003 0.0090879 0.0016878 -0.0020229
-0.0021893 -0.00062179 -0.00092683 -0.00014366 -0.0020799 -0.00021425 -0.0051016 0.0091336
0.19122 0.15032 -9.2203e-05 0.0095552
0.00052852 0.00053333 -0.00088928 -0.00037824 -0.00045142 -0.00078579 0.001761 -0.0019727
-4.429e-05 0.0096097 0.25365 0.17866
1760000000 0.27551 -0.061806 0.004163 0.0070259 -0.0020049 0.0011705 0.0014087 -0.0034769
-0.0012538 0.00048772 0.0003282 -0.00046978
0.0041658 0.0070129 0.24316 0.20647 0.00028029 -0.0015134 -0.0012331 4.8431e-05
-0.0011993 0.0010018 -0.00052973 0.00036432
-0.0019599 0.0011922 0.00023859 -0.0014991 0.20664 -0.22622 0.0011546 0.0014766
-0.0012064 0.0015189 -0.0012176 -0.00070865
0.0014282 -0.0034303 -0.0012211 5.7717e-05 0.001169 0.0014025 0.23735 -0.048423
-0.0014988 0.0086205 -8.2635e-05 -0.0023197
-0.001266 0.00057088 -0.0012064 0.00099463 -0.0012429 0.0014528 -0.0014571 0.008599
0.20832 0.11848 0.0037395 0.0070628
0.00038447 -0.00056497 -0.00042824 0.00037229 -0.001087 -0.00059015 2.9011e-05 -0.0023614
0.0037589 0.0070196 0.26678 0.14117
1820000000 0.25295 -0.099421 0.0046709 0.0033228 0.00023416 0.0022876 -0.00082247 -0.0031543
-0.0011575 0.00082418 -2.1428e-06 -0.00014275
0.0046856 0.0033395 0.25444 0.17717 -0.0017857 0.00011196 -0.0014585 0.00096779
-8.2493e-05 0.0013503 -0.00052303 0.00043096
0.00025373 0.0021332 -0.0018366 0.00012828 0.15733 -0.24104 0.0018 0.00052838
-0.00021293 0.0023891 -0.0015236 5.6939e-05
-0.00084197 -0.0031937 -0.0014533 0.00099405 0.0017497 0.00060697 0.20772 -0.096189
0.00017606 0.007267 -0.0014465 -0.0017436
-0.0011086 0.00091381 -5.6443e-05 0.0013353 -0.000253 0.0022968 0.00019729 0.0073323
0.22924 0.092233 0.0048659 0.0036139
-6.502e-05 -9.1561e-05 -0.00058917 0.00040785 -0.0016619 0.00016234 -0.0016006 -0.0017491
0.0048508 0.0034755 0.27035 0.10658
1880000000 0.21868 -0.1411 0.0026781 0.00090713 -0.00012075 0.0021358 -0.0028757 -0.0025609
-0.0001608 0.0016069 0.00032008 -0.00054261
0.0026937 0.00095457 0.25925 0.13044 -0.00365 0.0028167 -0.00022097 0.0017906
0.00065329 0.0014192 0.00013831 0.00088401
-8.469e-05 0.0021777 -0.0036361 0.0028231 0.10545 -0.24922 0.0020809 -0.0011983
0.0015651 0.0020883 -0.0010242 0.0013546
-0.0028821 -0.0024428 -0.00026866 0.0018185 0.002055 -0.0011552 0.1667 -0.137
0.0012776 0.005319 -0.0022532 0.00017417
-0.00017848 0.0015865 0.00063313 0.0014042 0.0016502 0.0020594 0.0013829 0.0053326
0.23646 0.062113 0.0052877 0.0014697
0.00032679 -0.00055451 0.00012479 0.00087203 -0.0009157 0.0014011 -0.0022732 0.00020923
0.0053641 0.0014486 0.27196 0.072347
1940000000 0.17965 -0.16741 0.00058669 -0.0010251 0.0017294 0.0019677 -0.0040021 0.00023089
0.0011319 0.00085776 -0.00053134 -0.00069962
0.00058644 -0.0010613 0.26071 0.099441 -0.0018602 0.0055971 0.0011522 0.0013873
0.0021222 0.00042442 0.00084525 0.00030045
0.0016688 0.0018808 -0.0017422 0.0056351 0.060965 -0.24107 0.00061897 -0.0024544
0.0024263 0.00047121 1.5572e-05 0.0017006
-0.0039526 0.00023601 0.0011488 0.0014086 0.00056885 -0.0025109 0.11373 -0.16765
0.00052489 0.0035471 -0.001481 0.0014364
0.0011331 0.00086688 0.0021289 0.00037793 0.0024163 0.00047041 0.00051553 0.0035423
0.24263 0.025457 0.0039535 -0.0023263
-0.00062748 -0.00065109 0.00086658 0.00023983 -2.97e-05 0.0017513 -0.0014364 0.0013653
0.0039017 -0.0022251 0.26186 0.036748
2000000000 0.13431 -0.1829 -0.00318 0.00077666 0.0027881 0.00122 -0.0024728 0.0039147
0.00070831 0.00047494 -0.00077181 0.0002775
-0.0031504 0.00069552 0.24765 0.063981 -0.00045823 0.0076719 0.0016084 0.00026011
0.0012406 -0.0015047 0.00052097 8.6791e-05
0.0028699 0.0011052 -0.00050048 0.0076565 0.020166 -0.22699 -0.0017161 -0.0016521
0.0021225 -0.001092 0.0016289 0.0015078
-0.0025587 0.0038033 0.0016677 0.00023317 -0.0017594 -0.0015432 0.059933 -0.17749
-0.0013032 0.0034597 -7.2322e-05 0.0020671
0.00071508 0.00040143 0.0012715 -0.0014945 0.0021304 -0.0011389 -0.0013618 0.0033985
0.24134 -0.0076852 0.00081446 -0.0032404
