!Keysight Technologies,M9804A,MY58100912,A.14.10.03
!Date: Thursday, April 27, 2023 10:28:33
!Correction: S11(C  6-Port  ) 
!S12(C  6-Port  ) 
!S13(C  6-Port  ) 
!S14(C  6-Port  ) 
!S15(C  6-Port  ) 
!S16(C  6-Port  ) 
!S21(C  6-Port  ) 
!S22(C  6-Port  ) 
!S23(C  6-Port  ) 
!S24(C  6-Port  ) 
!S25(C  6-Port  ) 
!S26(C  6-Port  ) 
!S31(C  6-Port  ) 
!S32(C  6-Port  ) 
!S33(C  6-Port  ) 
!S34(C  6-Port  ) 
!S35(C  6-Port  ) 
!S36(C  6-Port  ) 
!S41(C  6-Port  ) 
!S42(C  6-Port  ) 
!S43(C  6-Port  ) 
!S44(C  6-Port  ) 
!S45(C  6-Port  ) 
!S46(C  6-Port  ) 
!S51(C  6-Port  ) 
!S52(C  6-Port  ) 
!S53(C  6-Port  ) 
!S54(C  6-Port  ) 
!S55(C  6-Port  ) 
!S56(C  6-Port  ) 
!S61(C  6-Port  ) 
!S62(C  6-Port  ) 
!S63(C  6-Port  ) 
!S64(C  6-Port  ) 
!S65(C  6-Port  ) 
!S66(C  6-Port  ) 
!S6P File: Measurement: :
# Hz S  RI   R 50
500000000 -0.33039 -0.068509 -0.010692 -0.0025076 -0.0084739 0.01317 -0.0045876 0.012001
0.013599 0.0051617 -0.0059703 0.0092883
-0.01074 -0.0014237 -0.41035 -0.07653 0.0087671 -0.010909 0.0008275 0.011957
0.0084377 0.0032346 0.00050137 0.014318
-0.008744 0.012663 0.0085503 -0.010989 -0.25958 0.18856 0.0069914 0.0036325
-0.002161 0.0080491 0.00079585 0.01274
-0.0052952 0.013711 0.0010563 0.012269 0.0074079 0.0031624 -0.32775 0.038067
-0.020082 -0.0044287 0.015347 0.027142
0.012828 0.0050679 0.0078362 0.0035754 -0.0025887 0.0084933 -0.020274 -0.0042075
-0.22237 -0.23081 -0.028291 0.0045338
-0.0047705 0.01058 0.00099415 0.014254 0.0016591 0.012172 0.015548 0.026648
-0.028161 0.0042918 -0.26454 -0.14418
560000000 -0.31651 0.10307 -0.020861 -0.067714 0.00060878 0.013275 0.0047127 0.011209
0.010549 0.0045482 0.011254 0.0093836
-0.022405 -0.068374 -0.37158 0.089271 -0.041851 -0.039531 0.014438 0.0037529
-0.01414 -0.0064297 0.0037233 -0.0012909
0.0022192 0.012634 -0.041269 -0.039219 -0.18378 0.23977 -0.0003264 -0.0050088
0.018374 0.0068125 0.0078661 -0.0054784
0.0066027 0.010447 0.01456 0.0037858 -0.00039553 -0.0052424 -0.30618 0.12917
0.0072148 -0.02184 0.0055939 -0.0217
0.011671 0.003753 -0.014548 -0.0069063 0.018724 0.0069958 0.0074189 -0.021293
-0.30347 -0.046533 0.0106 -0.051629
0.012478 0.0083569 0.005472 -0.0017536 0.0074475 -0.0060608 0.0055103 -0.021502
0.010538 -0.051553 -0.33086 0.0048459
620000000 -0.27729 0.080034 -0.02346 0.0088802 0.0031179 0.0092838 0.008878 -0.0050554
0.012172 -0.0011599 0.001122 -0.00071433
-0.023529 0.0085755 -0.40096 0.035089 -0.01881 3.5652e-05 -0.0016712 -0.0020041
0.012741 -0.0057362 0.00037177 -0.0028631
0.0031435 0.0084894 -0.018871 0.0003413 -0.15658 0.24967 -0.00091036 -0.0056463
-0.0039499 -0.0024997 0.0086669 -0.0030427
0.0080639 -0.0045992 -0.001929 -0.0017815 -0.00085048 -0.0054407 -0.26335 0.13904
-0.03859 -0.021087 0.012666 0.029556
0.010703 0.00099522 0.012485 -0.0052739 -0.0039414 -0.0021996 -0.039258 -0.01926
-0.21882 -0.084357 -0.04256 0.011145
0.0014746 -0.0018343 0.00023305 -0.0025608 0.0088126 -0.0031398 0.01259 0.028649
-0.042943 0.011296 -0.24624 -0.028771
680000000 -0.24258 0.17365 -0.026216 -0.015329 0.0047907 0.0055905 0.0013599 -0.0068071
-0.001892 -0.01166 0.0057392 -0.0069964
-0.025907 -0.015196 -0.39093 0.13658 -0.033047 -0.0027398 -0.0016992 -0.00067407
-0.0014082 -0.0096295 -0.0010132 -0.0019595
0.0047998 0.0059948 -0.032934 -0.0026504 -0.10878 0.27188 -0.00082688 -0.00023034
-0.0015546 0.00069983 -0.0027492 -0.0091254
0.0017521 -0.0068787 -0.0016339 -0.00063037 -0.0011213 -0.00014326 -0.22017 0.19063
-0.022832 -0.0074653 -0.0094413 -0.011202
-0.0019152 -0.011611 -0.0017025 -0.010112 -0.0015045 0.0008411 -0.023098 -0.0073696
-0.28226 0.017638 -0.0051831 -0.0080238
0.0058053 -0.0074943 -0.000838 -0.0021046 -0.0026199 -0.0091747 -0.0092289 -0.011461
-0.0051538 -0.0080591 -0.26285 0.074542
740000000 -0.19583 0.16689 -0.041315 0.026605 0.013841 -0.0036208 0.00010599 -0.0039656
-0.0043831 -0.0020951 -0.0066266 0.0031469
-0.041593 0.026752 -0.33679 0.15656 -0.03759 0.034446 0.00071435 -0.0062462
-0.013588 0.0064406 -0.00083197 -0.0062571
0.013977 -0.0040276 -0.037824 0.034824 -0.075821 0.2723 -0.0018937 0.0036214
-0.0016475 -0.0049406 -0.00172 0.0007622
0.00019945 -0.0042111 0.00071138 -0.0063738 -0.0017927 0.0033975 -0.2042 0.19967
-0.043044 -0.010078 0.0229 0.01637
-0.0036346 -0.0034826 -0.013472 0.0060452 -0.0019834 -0.0053932 -0.042647 -0.010143
-0.17949 0.052645 -0.044453 -0.00025104
-0.0064479 0.0026784 -0.0010293 -0.0060665 -0.0016628 0.00057109 0.02271 0.017167
-0.044295 -0.00065145 -0.25202 0.07958
800000000 -0.16733 0.21266 -0.022658 0.015736 0.0057515 -0.010548 -0.0043654 -0.0023889
-0.004093 0.0016387 0.0043554 0.00061411
-0.022744 0.015542 -0.34549 0.22783 -0.0092968 0.034577 -0.0021301 0.0021491
-0.00035736 0.0022047 0.0005792 0.005308
0.0058289 -0.010486 -0.0090802 0.034487 -0.037552 0.29821 0.0010545 0.0012252
-1.5942e-05 0.0031955 -0.0018941 0.0009234
-0.0048465 -0.0024893 -0.0021017 0.0022102 0.0011097 0.0013235 -0.17547 0.22656
-0.028837 0.013315 0.014855 -0.010358
-0.0052604 0.0022149 -2.8958e-05 0.0026857 -2.2882e-05 0.0033029 -0.028806 0.013252
-0.2327 0.075297 -0.019035 0.020692
0.003756 0.0002572 0.00098649 0.0052117 -0.0018064 0.00094885 0.014561 -0.010694
-0.018478 0.020923 -0.24802 0.13187
860000000 -0.13313 0.23418 -0.018374 0.030356 -0.0030724 -0.01039 -0.0021554 0.00066758
0.0043336 0.0054883 -0.0037743 -0.0027682
-0.018424 0.030572 -0.29886 0.27247 0.0070876 0.03494 0.00024801 0.0020252
0.0041115 0.00053289 0.0036844 0.0003052
-0.0028191 -0.010258 0.0073629 0.035037 0.010171 0.30861 -0.00041606 -0.00035578
0.0026188 -0.0016224 0.0017846 0.0040538
-0.001916 0.0014068 -1.8295e-05 0.0019653 -0.00039342 -0.00049092 -0.13955 0.23828
-0.018927 0.017214 -0.0060789 -0.0097007
0.0053098 0.0049238 0.0039423 0.00029584 0.0025511 -0.0016642 -0.019083 0.017298
-0.17686 0.13537 -0.025504 0.016701
-0.0034325 -0.0023108 0.0036876 0.00064995 0.0015752 0.0040325 -0.0059156 -0.0091576
-0.026391 0.016316 -0.19924 0.17661
920000000 -0.11041 0.25781 0.0043301 0.039568 -0.0094465 -0.0048612 -0.0019924 0.0017161
0.00040314 0.001862 0.0032623 -0.0013646
0.0041465 0.039513 -0.27277 0.29504 0.028095 0.023544 0.0012922 0.0012731
0.007441 -0.00017394 0.0040628 -0.0026995
-0.0095089 -0.0048099 0.02817 0.023411 0.056498 0.31133 0.001704 -3.8169e-05
0.00052339 -0.00038605 0.00085303 -0.0013239
-0.001892 0.0016357 0.001393 0.0012874 0.0018134 -3.0224e-05 -0.1156 0.25592
-0.012158 0.030774 0.0039837 -0.0066959
0.00013774 0.0019336 0.0074739 -0.00023489 0.00062433 -0.00037475 -0.012407 0.030986
-0.16988 0.14018 -0.0031846 0.028674
0.0032012 -0.0014294 0.004166 -0.0027663 0.00098366 -0.0013409 0.0039585 -0.0067277
-0.0029765 0.028548 -0.2079 0.19209
980000000 -0.064388 0.27927 0.016169 0.031069 -0.0097178 0.0046283 0.0017753 0.0035918
0.0040094 -0.0016377 -0.0036703 -0.0025435
0.016236 0.031041 -0.22034 0.33175 0.033546 0.0058317 0.0018659 -0.00023026
0.0018132 -0.0060899 -0.00055852 -0.0026479
-0.0097184 0.0046869 0.033622 0.0056744 0.10297 0.30609 0.00048002 -0.0012076
0.00025199 -0.001785 0.0014908 -0.00036698
0.0018125 0.0036216 0.0018477 -0.0002383 0.00047142 -0.0011792 -0.077299 0.26725
0.0067635 0.030362 -0.0095705 -0.0080532
0.0041066 -0.0018636 0.0017018 -0.0062889 0.00027453 -0.0017858 0.0069015 0.03036
-0.13938 0.17523 0.0050521 0.021339
-0.0037908 -0.0025643 -0.00058941 -0.002612 0.001368 -0.00031643 -0.0095209 -0.0080226
0.0052734 0.021239 -0.16593 0.23967
1040000000 -0.024123 0.28941 0.033147 0.020121 -0.00136 0.0075839 0.0024931 0.00075522
0.00024521 -0.0035644 -3.8265e-05 -0.0015297
0.033177 0.020189 -0.18578 0.34651 0.030433 -0.014255 0.0013846 -0.0016396
-0.0024311 -0.0026843 -0.0012032 -0.0029025
-0.0013314 0.007577 0.030408 -0.014404 0.14923 0.29423 -0.00053414 -0.0014798
-0.0015171 -0.0009216 -0.00063033 -0.0011282
0.0025942 0.0006053 0.0015008 -0.0017992 -0.0005332 -0.001451 -0.05046 0.27783
0.018902 0.01963 -0.0023783 0.0013504
0.00016225 -0.0035086 -0.0024244 -0.0028066 -0.0015754 -0.0010027 0.019013 0.019518
-0.1073 0.18393 0.013979 0.019682
-0.00033865 -0.0017201 -0.001409 -0.0030082 -0.00063944 -0.0010571 -0.0024398 0.0013382
0.014036 0.019846 -0.14564 0.26131
1100000000 0.020952 0.30029 0.037074 -0.0025087 0.0035154 0.004327 0.0025049 -0.0010822
-0.0021241 -0.0031536 -0.0042245 2.2707e-05
0.037029 -0.0024662 -0.14203 0.36657 0.016082 -0.027939 -7.9083e-05 -0.0018397
-0.0036184 -0.00082692 -0.0037029 -0.00043987
0.0035237 0.0043618 0.016014 -0.028029 0.19638 0.27523 -0.0018402 0.00036007
-0.0016656 0.0007357 -0.0010911 -0.00051697
0.002445 -0.0010264 -0.00016293 -0.0017853 -0.001813 0.00036099 -0.0098272 0.28325
0.025008 0.0061046 -0.0026463 1.674e-05
-0.0022882 -0.0031027 -0.0034294 -0.00088392 -0.001732 0.00068092 0.024999 0.0061926
-0.088047 0.2 0.020188 0.010097
-0.0041834 0.00013964 -0.0037542 -0.00053985 -0.001081 -0.00049018 -0.0026036 -8.5954e-05
0.020043 0.0099705 -0.10054 0.29314
1160000000 0.071847 0.29746 0.025702 -0.020047 0.0035292 -0.00059533 -0.00012667 -0.0024624
-0.0041563 -0.00091835 -0.0013199 0.0042537
0.025686 -0.02002 -0.098714 0.37198 -0.0033607 -0.029443 -0.001569 -0.0015348
-0.0027776 0.0025927 -0.0017352 0.0020275
0.0034775 -0.00060966 -0.0035291 -0.029421 0.23994 0.24532 -0.00058267 0.0017101
-0.0003612 0.0018887 -0.001149 0.00039492
-0.00010779 -0.0024929 -0.0015206 -0.001555 -0.00063197 0.0017183 0.029087 0.28071
0.021951 -0.010123 -0.0036828 0.0053285
-0.0042534 -0.0010775 -0.0026635 0.0026104 -0.00036914 0.0018461 0.022043 -0.01019
-0.05419 0.2107 0.01987 0.00039403
-0.001103 0.0042621 -0.0016723 0.0019343 -0.0011182 0.00040814 -0.0037639 0.0051655
0.020255 0.00052011 -0.053091 0.29706
1220000000 0.11595 0.28927 0.012347 -0.030394 -0.001217 -0.0014777 -1.5871e-05 -0.00099875
-0.0028764 0.0023151 0.0012301 0.0022698
0.012386 -0.030365 -0.053958 0.387 -0.016941 -0.021601 -0.0025555 0.00054461
3.7391e-05 0.0031322 -0.00081608 0.0019832
-0.0011892 -0.0014387 -0.017077 -0.02155 0.27983 0.20742 0.00097141 0.0015345
0.00065527 0.001094 0.00025347 0.00061335
-9.2249e-05 -0.0010042 -0.0025659 0.00048975 0.00099962 0.0015234 0.069077 0.27336
0.010947 -0.017129 0.0021162 0.0017055
-0.0028358 0.0024348 0.00013874 0.0031709 0.00067173 0.0011428 0.010895 -0.017131
-0.031856 0.22225 0.015253 -0.012876
0.001216 0.0021315 -0.00084745 0.0019734 0.00024351 0.00056684 0.0021038 0.0017228
0.015096 -0.012901 -0.02297 0.31543
1280000000 0.16678 0.2698 -0.0068944 -0.029698 -0.0019924 0.001776 -0.00090074 -0.0020379
-0.00089674 0.003546 0.0026248 0.0013269
-0.0068634 -0.029647 -0.0070254 0.37885 -0.024222 -0.0083883 -0.00080244 0.0014882
0.0017885 0.0018559 0.00074608 0.002081
-0.0019507 0.0017988 -0.024269 -0.0083071 0.31125 0.16377 0.0014951 -0.00018146
0.0010926 0.00039664 0.00043395 0.00050902
-0.00087823 -0.0019541 -0.00074271 0.0014936 0.0014702 -0.00012757 0.1058 0.25712
0.0012612 -0.019449 -0.00023294 0.00014395
-0.00084172 0.0034615 0.0018024 0.0018219 0.0010097 0.00036342 0.0012885 -0.019491
0.0051459 0.22783 0.0038998 -0.016002
0.0026573 0.001298 0.00064101 0.0019958 0.00044374 0.00045013 -0.00015485 0.00013505
0.0039459 -0.015895 0.025472 0.31855
1340000000 0.20433 0.23827 -0.017114 -0.020187 0.00033096 0.0042818 -0.0018317 -0.00079077
0.0015243 0.0029045 0.0018738 -0.001554
-0.017115 -0.020219 0.032363 0.37214 -0.021426 0.0046382 -0.00016916 0.0019312
0.0019027 0.00086139 0.001226 0.00083451
0.00034086 0.0042995 -0.0214 0.0047637 0.33376 0.1168 0.00085385 -0.000965
0.00061992 -0.00063987 6.3387e-05 0.00028227
-0.0018758 -0.00070879 -0.00016902 0.0018996 0.0008882 -0.00099323 0.13898 0.23777
-0.0084245 -0.016601 0.0011202 0.0005498
0.0015815 0.0027646 0.0019526 0.00072689 0.00059933 -0.00063502 -0.0084321 -0.016669
0.034621 0.22646 -0.0032045 -0.014416
0.0019147 -0.0013048 0.0012663 0.00082264 5.0148e-05 0.00033629 0.0011187 0.00050773
-0.0032051 -0.014495 0.063042 0.31538
1400000000 0.23962 0.20185 -0.023851 -0.0086609 0.0047974 0.0032897 -0.0021588 0.00073648
0.0027 0.0009272 0.00039277 -0.0013877
-0.023824 -0.008666 0.071187 0.36001 -0.014441 0.01281 0.001285 0.0012674
0.0011754 -0.00072007 0.0012111 0.00014584
0.0048044 0.0032018 -0.014415 0.012871 0.34788 0.063358 -0.00010259 -0.0014095
0.00016192 -0.00017003 0.00048214 0.00033449
-0.0020945 0.000737 0.0013475 0.0013604 -7.7286e-05 -0.0013785 0.16919 0.20942
-0.014581 -0.0096909 -0.00086759 -0.00031895
0.0027556 0.00089803 0.0012078 -0.0007282 0.0001684 -0.00018108 -0.014598 -0.0095421
0.068719 0.22477 -0.010213 -0.0095531
0.00030786 -0.0015219 0.0011892 0.00013806 0.00052595 0.00025253 -0.00088665 -0.00022892
-0.010207 -0.0095109 0.10889 0.30602
1460000000 0.26324 0.15864 -0.020997 0.0041473 0.0053475 -0.0016297 -0.0015194 0.0017967
0.0022354 -0.00049469 -0.00032106 -0.00098882
-0.020987 0.0041301 0.10544 0.33821 -0.0052275 0.015385 0.0015794 0.00026321
0.00098831 -0.0012111 0.0011893 -0.00055312
0.0053123 -0.0016371 -0.00515 0.01546 0.35449 0.008828 -0.0011109 -0.0010516
0.00034224 -0.00027408 0.00065948 -0.00025451
-0.0015239 0.0017273 0.0015934 0.00025241 -0.0011007 -0.0010765 0.19593 0.1806
-0.015423 -0.002805 -0.00084021 0.0020426
0.0023305 -0.00045534 0.00094588 -0.0012468 0.00029027 -0.00024398 -0.015483 -0.0027527
0.098301 0.21271 -0.012358 -0.003083
-0.00040704 -0.00099313 0.0012844 -0.00061546 0.00067653 -0.00031191 -0.00086292 0.0020282
-0.01233 -0.003037 0.14188 0.28612
1520000000 0.27712 0.11819 -0.015491 0.010004 0.0033129 -0.0039911 0.00018202 0.0026551
0.002372 -0.0020309 -0.0011657 -0.00015098
-0.015474 0.0099899 0.13958 0.32507 0.0023667 0.012496 0.0016711 -0.00066354
0.00018046 -0.0010084 0.00034153 -0.00098754
0.0033366 -0.0040113 0.002421 0.012485 0.3479 -0.047162 -0.00081076 -0.00027494
0.00064799 -0.00097139 0.00016464 -0.00010952
0.00021233 0.0026813 0.0016437 -0.00068301 -0.00080311 -0.00025956 0.22013 0.14298
-0.014727 0.0029698 0.0014605 0.0021047
0.0022783 -0.0020193 0.0001497 -0.00099993 0.00067549 -0.00097586 -0.014705 0.0029236
0.12722 0.20231 -0.012223 0.0015831
-0.0010585 -0.00020665 0.00029654 -0.00098879 0.00014354 -0.00010862 0.0015065 0.0021023
-0.012218 0.001555 0.17568 0.2678
1580000000 0.28763 0.072413 -0.0087372 0.013621 -0.0010072 -0.004864 0.0014978 0.001832
-0.00032194 -0.0023611 -0.00024282 0.0003816
-0.0087468 0.01361 0.16751 0.30022 0.0057541 0.0071798 0.0006033 -0.0015343
-0.0004745 -0.0010751 -0.00026849 -0.00076405
-0.0010007 -0.0047842 0.0057882 0.0071591 0.32814 -0.1052 -0.0014675 0.00030447
-0.00041115 -0.0013678 0.00013996 -0.00064651
0.0016151 0.0017086 0.0005376 -0.0015852 -0.0014399 0.00028288 0.2349 0.10335
-0.010788 0.0077555 0.0022102 0.00079628
-0.00033452 -0.0023556 -0.00052957 -0.0011269 -0.00042424 -0.0013464 -0.010787 0.0078654
0.15303 0.18633 -0.0095935 0.0078155
-0.00030213 0.00028461 -0.00028504 -0.00070995 0.00010533 -0.00069992 0.0021919 0.00073292
-0.0097136 0.0078218 0.20901 0.24207
1640000000 0.29083 0.032147 -0.0016738 0.012542 -0.0028689 -0.0023526 0.0027087 0.0010514
-0.00079328 -0.0017021 -0.00031481 0.00042837
-0.0017 0.012549 0.19675 0.2768 0.0056778 0.0021887 -0.0004843 -0.0018556
-0.00089518 -0.00053945 -0.00049837 -0.00066702
-0.0029492 -0.0023274 0.0057344 0.0021638 0.29917 -0.15357 -0.00073091 0.001202
-0.0011177 -0.0010557 -0.00014289 -0.00046151
0.0026713 0.001077 -0.00048155 -0.0018182 -0.0007017 0.0012383 0.24764 0.054744
-0.0065544 0.0085742 0.0026665 -0.00069143
-0.00076409 -0.0015474 -0.00083671 -0.00054204 -0.0011473 -0.0010597 -0.0065719 0.0085769
0.17683 0.16509 -0.0045716 0.009871
-0.00024429 0.00052182 -0.00049965 -0.0006831 -0.00015316 -0.00048113 0.0026511 -0.00067083
-0.0045353 0.0099049 0.23492 0.21252
1700000000 0.28574 -0.012584 0.0018919 0.0097095 -0.0035051 0.00034134 0.0031383 -0.0012978
-0.0021431 -0.0005608 0.00058287 0.00049364
0.0019011 0.0096986 0.21621 0.24574 0.0029593 -0.0005575 -0.0014648 -0.00071503
-0.00081728 -0.0001441 -0.00084842 -0.00041845
-0.0035417 0.00032567 0.0029848 -0.00061489 0.25639 -0.19314 0.00013093 0.0016106
-0.0021481 -5.8784e-05 -0.00036418 -0.0007727
0.0031175 -0.0012621 -0.0014766 -0.00069423 8.0413e-05 0.0015868 0.24555 0.004549
-0.0039542 0.0087746 0.001786 -0.0021627
-0.0021289 -0.00050126 -0.00082792 -0.00012698 -0.0021543 -7.0535e-05 -0.00394 0.0088337
0.19688 0.14704 0.00048596 0.010115
0.00065601 0.00053711 -0.00083441 -0.00042657 -0.00033754 -0.00081129 0.0017701 -0.0022117
0.00039293 0.010061 0.25321 0.17922
1760000000 0.275 -0.061294 0.0043019 0.0064137 -0.0021572 0.0012639 0.0013511 -0.003527
-0.0012358 0.00070502 0.00024653 -0.00054684
0.0043105 0.00641 0.24212 0.2066 0.00012093 -0.0018603 -0.0012467 4.8712e-05
-0.00116 0.00086124 -0.00049955 0.00032967
-0.0021308 0.001244 0.00015553 -0.0018937 0.20711 -0.22579 0.0010749 0.0014099
-0.0011921 0.0014646 -0.0011832 -0.00063038
0.0013421 -0.0035066 -0.0012856 1.8037e-05 0.0010522 0.0013875 0.23657 -0.047528
-0.00089281 0.007907 -0.00013181 -0.0025813
-0.0011838 0.00066465 -0.001133 0.00085691 -0.0011604 0.0014957 -0.00094069 0.0078825
0.21311 0.11406 0.0044775 0.0072672
0.00018369 -0.00055195 -0.00052704 0.00032539 -0.0012559 -0.00063508 -0.00011496 -0.0026067
0.0045029 0.0073065 0.26655 0.14188
1820000000 0.25256 -0.098555 0.0044711 0.0028051 0.00023095 0.0023467 -0.00095031 -0.0031574
-0.0010767 0.00090242 -0.00014706 -0.00013574
0.0044614 0.0028211 0.25363 0.1777 -0.0019824 -8.2647e-05 -0.001478 0.00096561
-0.00017537 0.0012786 -0.00064955 0.00042818
0.00023487 0.0023487 -0.0019627 -3.9342e-05 0.15784 -0.24057 0.0017598 0.00068085
-0.00019154 0.0022781 -0.0017341 0.00033033
-0.0009362 -0.0030742 -0.001393 0.00099265 0.0018213 0.00067803 0.20753 -0.095094
0.00036055 0.0064085 -0.0016867 -0.001876
-0.0011007 0.00087929 -0.00013297 0.0012417 -0.00017973 0.002356 0.00045172 0.0064319
0.23311 0.087297 0.0056426 0.0034323
-9.174e-05 -7.7931e-06 -0.00063047 0.00044064 -0.0017491 0.00026349 -0.0018067 -0.0018091
0.0056126 0.0034803 0.27078 0.10693
1880000000 0.21888 -0.14024 0.0023453 0.00058742 -0.00022739 0.0022856 -0.0028902 -0.0022744
-0.00015256 0.0016083 0.00042318 -0.00056002
0.002325 0.00056765 0.25868 0.13111 -0.0038668 0.0026934 -0.00026462 0.0018376
0.00050035 0.0014524 0.00012205 0.00098698
-0.00024698 0.0022254 -0.0038403 0.0027076 0.1063 -0.24936 0.0021193 -0.0011094
0.0016085 0.0020083 -0.00095835 0.0014264
-0.0029064 -0.0024775 -0.0002695 0.0018425 0.0020703 -0.001041 0.1667 -0.13609
0.00085169 0.004634 -0.0024529 0.00014553
-3.6884e-05 0.0015554 0.00052156 0.0014932 0.0016009 0.0020472 0.00087224 0.0046649
0.23916 0.056694 0.0057544 0.0010398
0.00035757 -0.00049747 7.7756e-05 0.00099918 -0.00096884 0.0014391 -0.0023712 0.00013024
0.0057571 0.00097641 0.27221 0.072553
1940000000 0.18002 -0.16654 0.00015869 -0.0011125 0.0017097 0.0020853 -0.003972 0.00030216
0.0010918 0.00081833 -0.00063809 -0.00061267
6.4291e-05 -0.0011165 0.26017 0.10028 -0.0021024 0.0055641 0.0011069 0.0014628
0.0020321 0.00056306 0.00086297 0.00030232
0.0016269 0.0020969 -0.0020786 0.0056196 0.061657 -0.24159 0.00063272 -0.0024468
0.0024065 0.00047891 0.00013321 0.0017021
-0.0039079 0.0001188 0.0011326 0.0013878 0.00056641 -0.0024306 0.1143 -0.16669
0.00013488 0.0032206 -0.0015906 0.0014229
0.0011763 0.00069482 0.0020716 0.00054503 0.0024066 0.00045578 0.00014132 0.00331
0.24431 0.019941 0.004386 -0.0029162
-0.00088152 -0.00067029 0.00084944 0.00031212 0.00022837 0.0016805 -0.0016822 0.0014579
0.0043508 -0.0027869 0.26164 0.036688
2000000000 0.13511 -0.18251 -0.0034868 0.00093735 0.0030537 0.0013635 -0.0025459 0.0037105
0.00073952 0.00046495 -0.00090692 0.00034126
-0.0034892 0.00087995 0.2477 0.064912 -0.00073857 0.0078366 0.0016923 0.00023467
0.0013873 -0.001354 0.00052251 0.0001285
0.0030601 0.0013471 -0.00068673 0.0078129 0.020125 -0.22748 -0.0016831 -0.0017004
0.0020098 -0.0010798 0.0016244 0.0014988
-0.0024653 0.003902 0.0017502 0.0002925 -0.0017305 -0.0017801 0.060792 -0.17736
-0.0017048 0.0033097 -0.00017992 0.0021142
0.00067818 0.00051594 0.0013717 -0.0013528 0.0020321 -0.001085 -0.0017912 0.00333
0.2422 -0.012966 0.00083982 -0.0039586
