!Keysight Technologies,M9804A,MY58100912,A.14.10.03
!Date: Thursday, April 27, 2023 10:28:33
!Correction: S11(C  6-Port  ) 
!S12(C  6-Port  ) 
!S13(C  6-Port  ) 
!S14(C  6-Port  ) 
!S15(C  6-Port  ) 
!S16(C  6-Port  ) 
!S21(C  6-Port  ) 
!S22(C  6-Port  ) 
!S23(C  6-Port  ) 
!S24(C  6-Port  ) 
!S25(C  6-Port  ) 
!S26(C  6-Port  ) 
!S31(C  6-Port  ) 
!S32(C  6-Port  ) 
!S33(C  6-Port  ) 
!S34(C  6-Port  ) 
!S35(C  6-Port  ) 
!S36(C  6-Port  ) 
!S41(C  6-Port  ) 
!S42(C  6-Port  ) 
!S43(C  6-Port  ) 
!S44(C  6-Port  ) 
!S45(C  6-Port  ) 
!S46(C  6-Port  ) 
!S51(C  6-Port  ) 
!S52(C  6-Port  ) 
!S53(C  6-Port  ) 
!S54(C  6-Port  ) 
!S55(C  6-Port  ) 
!S56(C  6-Port  ) 
!S61(C  6-Port  ) 
!S62(C  6-Port  ) 
!S63(C  6-Port  ) 
!S64(C  6-Port  ) 
!S65(C  6-Port  ) 
!S66(C  6-Port  ) 
!S6P File: Measurement: :
# Hz S  RI   R 50
500000000 -0.32693 -0.066106 -0.0095943 -0.001718 -0.0082576 0.012162 -0.0044273 0.011453
0.013366 0.0064239 -0.0047175 0.0077176
-0.0095119 -0.0016608 -0.40961 -0.075787 0.0089561 -0.011102 0.00057253 0.011232
0.0089644 0.0034314 0.00053946 0.013227
-0.0082584 0.012167 0.0088473 -0.011128 -0.2576 0.18879 0.0066983 0.0024769
-0.0017055 0.0087319 0.0010674 0.01197
-0.0043396 0.011511 0.00053582 0.011468 0.0067108 0.0024765 -0.32755 0.039662
-0.020748 -0.0048074 0.015229 0.025877
0.01364 0.0063828 0.0093092 0.0033109 -0.0015664 0.0086867 -0.020278 -0.0052144
-0.21541 -0.23741 -0.028618 0.0042083
-0.0048456 0.0081101 0.00042833 0.012974 0.001253 0.011843 0.015119 0.026334
-0.028577 0.0041235 -0.26373 -0.14419
560000000 -0.31655 0.10178 -0.020787 -0.068237 0.00052029 0.013628 0.0063665 0.0098864
0.010931 0.0042666 0.011287 0.010058
-0.020846 -0.068137 -0.37153 0.088575 -0.040638 -0.039593 0.014129 0.0033167
-0.012848 -0.0058756 0.0048221 -0.0012807
0.00064039 0.013578 -0.040928 -0.039476 -0.18318 0.23947 -0.0003983 -0.0054203
0.018459 0.0072741 0.0075762 -0.005627
0.0062715 0.0097049 0.014202 0.0030618 -0.00033353 -0.0054284 -0.30469 0.12958
0.0068398 -0.022774 0.0073974 -0.021691
0.010914 0.0041463 -0.012455 -0.0058401 0.018262 0.0072057 0.0069705 -0.023111
-0.29757 -0.054422 0.011804 -0.05141
0.011951 0.0097986 0.0043608 -0.00099318 0.0076536 -0.0060166 0.0072976 -0.021544
0.011612 -0.050858 -0.32913 0.0075193
620000000 -0.2771 0.080474 -0.023566 0.0086036 0.002907 0.0091297 0.008251 -0.0045999
0.011927 -0.00073625 0.00062546 -0.0025807
-0.02351 0.0085904 -0.40024 0.035323 -0.019112 -0.00024337 -0.0017312 -0.0021193
0.012454 -0.0052261 0.00046787 -0.0026307
0.0029786 0.0090575 -0.019145 -0.00024927 -0.15625 0.24926 -0.001539 -0.0054908
-0.0037281 -0.0022518 0.0087856 -0.0032753
0.008261 -0.0045653 -0.0017033 -0.0021285 -0.0016084 -0.0054659 -0.26246 0.13884
-0.039524 -0.020421 0.012899 0.026937
0.011656 -0.00068437 0.012369 -0.0054238 -0.003966 -0.0020437 -0.039292 -0.019984
-0.21323 -0.091811 -0.043989 0.012171
-0.00041528 -0.0016654 0.00036162 -0.0028412 0.0087012 -0.003492 0.014189 0.026957
-0.044831 0.01161 -0.24517 -0.032159
680000000 -0.24103 0.17342 -0.026238 -0.015406 0.0042838 0.0057686 0.0015023 -0.0075718
-0.0017902 -0.01117 0.0069373 -0.0070186
-0.026283 -0.015411 -0.39075 0.13641 -0.033086 -0.0027839 -0.0018226 -0.00041861
-0.0015031 -0.0092523 -0.00092699 -0.0014535
0.0042828 0.0057403 -0.033144 -0.0026645 -0.10902 0.27154 -0.0010789 0.00038385
-0.0013461 0.0010738 -0.0031223 -0.0089283
0.0013688 -0.0075635 -0.0018173 -0.00052792 -0.0010778 0.00036169 -0.21991 0.19078
-0.023097 -0.0079568 -0.0087677 -0.011312
-0.0018166 -0.011789 -0.0014791 -0.0093482 -0.0012086 0.0011249 -0.023334 -0.0081719
-0.28167 0.0094727 -0.0061959 -0.0078815
0.0065974 -0.0070069 -0.0010824 -0.0019318 -0.0033179 -0.0092441 -0.0094128 -0.010861
-0.0051834 -0.0080347 -0.2609 0.075029
740000000 -0.1966 0.16638 -0.041254 0.026512 0.013571 -0.0036534 6.6163e-05 -0.0039606
-0.004223 -0.0018875 -0.0065822 0.0027389
-0.041283 0.02643 -0.33706 0.1567 -0.0378 0.034461 0.00027188 -0.0058761
-0.013573 0.0059857 -0.0012299 -0.0055985
0.013538 -0.0037048 -0.037803 0.034641 -0.076052 0.27274 -0.0018311 0.0035286
-0.0010256 -0.0054902 -0.0021079 0.0005207
8.8062e-05 -0.0040147 0.00038121 -0.0058375 -0.0018258 0.0035521 -0.20389 0.19862
-0.043284 -0.0097381 0.02224 0.016432
-0.0039483 -0.0016959 -0.013322 0.0062668 -0.0011857 -0.0055472 -0.043449 -0.0092117
-0.18176 0.044277 -0.044854 -0.0027029
-0.0067633 0.003134 -0.0010068 -0.0055968 -0.0018378 0.00071611 0.022457 0.015884
-0.044274 -0.001859 -0.25188 0.080421
800000000 -0.16674 0.2133 -0.023251 0.016002 0.0056445 -0.010055 -0.0045915 -0.0023458
-0.0042949 0.0015684 0.0043688 0.0010624
-0.023238 0.016047 -0.34596 0.22792 -0.0094096 0.034571 -0.0020854 0.0020275
-0.00033439 0.0023144 0.00047939 0.0052539
0.0056498 -0.010031 -0.0092769 0.034641 -0.037571 0.299 0.0010987 0.0012316
-5.5127e-05 0.0031408 -0.0018594 0.0007119
-0.0046009 -0.0023279 -0.0021361 0.0020341 0.0010957 0.0012204 -0.17498 0.22668
-0.02918 0.012739 0.014608 -0.010312
-0.0042449 0.001764 -0.00031273 0.002271 -0.0001119 0.0031481 -0.029389 0.012718
-0.23429 0.06687 -0.018601 0.020399
0.0043333 0.0011875 0.0006802 0.0055659 -0.0020008 0.00089278 0.01466 -0.010618
-0.018853 0.020922 -0.24812 0.13119
860000000 -0.13364 0.23401 -0.019011 0.030661 -0.0032157 -0.010125 -0.0020985 0.00058424
0.0042914 0.0054675 -0.0039836 -0.0035248
-0.019051 0.030576 -0.29954 0.27276 0.0069245 0.034759 0.00015757 0.0020695
0.003984 0.00041168 0.0040031 0.00011509
-0.0032724 -0.010097 0.0070539 0.034815 0.010582 0.30917 -0.00053805 -0.00044483
0.0025119 -0.0018489 0.0019404 0.0043743
-0.0021016 0.00055993 0.00016179 0.0020865 -0.00052334 -0.0004486 -0.13944 0.23873
-0.018698 0.01733 -0.006796 -0.009463
0.004531 0.0055701 0.0039017 0.00063841 0.0024588 -0.0018426 -0.01874 0.017465
-0.1805 0.12976 -0.026933 0.015952
-0.0042364 -0.0033154 0.0032374 0.00017743 0.0016841 0.0043059 -0.0065922 -0.0090803
-0.027015 0.016607 -0.1978 0.17953
920000000 -0.11046 0.25817 0.0039125 0.039757 -0.009277 -0.0045169 -0.0016836 0.0020046
8.9591e-05 0.001886 0.0034265 -0.00094107
0.003895 0.0397 -0.27223 0.29562 0.027964 0.023517 0.0014991 0.0011862
0.0073072 0.00023159 0.0037996 -0.0027207
-0.009295 -0.0044965 0.028082 0.02346 0.057237 0.31166 0.0016824 -3.5088e-05
0.0007348 -0.00030228 0.00098834 -0.0014074
-0.0016648 0.0020056 0.0014477 0.0011459 0.0016702 -3.1208e-05 -0.11514 0.25645
-0.012884 0.030544 0.0041788 -0.0065595
0.00037696 0.001748 0.0073305 0.00019315 0.00073827 -0.00030966 -0.012677 0.030413
-0.17276 0.13381 -0.0037131 0.029057
0.0035489 -0.0011215 0.0040179 -0.0030249 0.0010627 -0.0014386 0.0040278 -0.0062776
-0.0041238 0.028771 -0.20703 0.19195
980000000 -0.064488 0.27967 0.016268 0.031093 -0.0094331 0.0048099 0.0020506 0.0034993
0.0037581 -0.0015411 -0.0037388 -0.0026999
0.016225 0.031099 -0.21995 0.33236 0.033189 0.0057461 0.0019495 -0.00016076
0.0016972 -0.0061654 -0.00059932 -0.0026436
-0.0094211 0.0048274 0.03328 0.0056642 0.10366 0.30617 0.00051327 -0.0010982
0.00014166 -0.0018133 0.001626 -0.00033112
0.0020304 0.003491 0.0019539 -0.00023082 0.00052239 -0.001093 -0.076932 0.2675
0.0065968 0.030442 -0.0096006 -0.0075127
0.0037839 -0.0015966 0.0016733 -0.0061234 0.00022111 -0.0017636 0.0066631 0.030418
-0.14399 0.17047 0.004507 0.02081
-0.003562 -0.0024523 -0.00059416 -0.0023918 0.001576 -0.00021997 -0.0095319 -0.0075889
0.0048895 0.020806 -0.16576 0.24017
1040000000 -0.023424 0.28999 0.033278 0.02037 -0.0010495 0.0075116 0.0026955 0.00063196
0.00016876 -0.0038281 -0.00023657 -0.0014393
0.033238 0.020401 -0.18509 0.34685 0.030146 -0.014106 0.0013588 -0.0017839
-0.0023017 -0.0025018 -0.0013285 -0.0028742
-0.0010278 0.0074976 0.030157 -0.014225 0.14983 0.29402 -0.00052759 -0.0014282
-0.0015033 -0.00098165 -0.00061809 -0.0011329
0.0027228 0.00063308 0.0013149 -0.0018082 -0.00052016 -0.0014345 -0.049828 0.27833
0.018341 0.019527 -0.0022856 0.0014595
0.00010478 -0.003762 -0.0022565 -0.0024629 -0.0015206 -0.0010103 0.018385 0.019589
-0.11191 0.17998 0.013392 0.019932
-0.00023061 -0.0013006 -0.001332 -0.0030553 -0.00059 -0.0012072 -0.002371 0.0015158
0.01356 0.020177 -0.14534 0.26122
1100000000 0.021401 0.30045 0.037007 -0.0023884 0.0035988 0.004162 0.0023636 -0.0011046
-0.0023739 -0.0031448 -0.004142 0.00021453
0.036967 -0.0023788 -0.14135 0.36681 0.015884 -0.027587 -0.00014134 -0.0017652
-0.0033542 -0.00088435 -0.0037093 -0.00055228
0.0036263 0.0041356 0.015796 -0.027687 0.19659 0.275 -0.0017695 0.00031885
-0.0016456 0.0006169 -0.0011887 -0.00058816
0.0023528 -0.0010798 -0.00012882 -0.0018049 -0.0017732 0.00032944 -0.0091523 0.28341
0.024475 0.0066679 -0.0027075 0.00034205
-0.002373 -0.0031386 -0.003381 -0.00086273 -0.0016459 0.00063461 0.024394 0.0066425
-0.093941 0.1972 0.019875 0.010415
-0.0041805 9.2991e-05 -0.0035905 -0.00057061 -0.0012379 -0.00063732 -0.0025678 0.00040975
0.019614 0.010483 -0.10031 0.29289
1160000000 0.072666 0.2975 0.025599 -0.0198 0.0035082 -0.0007498 -0.0002027 -0.0025946
-0.0040703 -0.00080913 -0.001273 0.0041998
0.02561 -0.019811 -0.097702 0.37171 -0.0032073 -0.028946 -0.0014748 -0.0015802
-0.0025665 0.0025409 -0.0015376 0.0019382
0.0035191 -0.00075352 -0.0033236 -0.028947 0.23997 0.24535 -0.00064387 0.0015757
-0.00047916 0.0017138 -0.0010437 0.00034598
-0.00018667 -0.0025865 -0.0015114 -0.001554 -0.00063494 0.0015641 0.029827 0.28094
0.021649 -0.0093959 -0.0032227 0.005075
-0.0041714 -0.00080433 -0.0026061 0.002542 -0.00045969 0.0017111 0.021659 -0.0094881
-0.058685 0.2087 0.019581 0.0019436
-0.0011394 0.0040708 -0.0015073 0.0018917 -0.00097154 0.00031168 -0.0032189 0.0051121
0.019012 0.0017554 -0.052751 0.29613
1220000000 0.11656 0.28913 0.01253 -0.030044 -0.0011082 -0.0016703 -5.0038e-05 -0.0008876
-0.0027515 0.0022515 0.0011739 0.0020357
0.012541 -0.029998 -0.053383 0.38649 -0.016517 -0.021377 -0.002484 0.00059445
-6.5127e-06 0.0029977 -0.00077813 0.0018678
-0.0011367 -0.0016839 -0.016633 -0.021321 0.27985 0.20776 0.00083715 0.0014732
0.0004777 0.001114 0.00018821 0.00068896
-6.3168e-05 -0.00087698 -0.0024595 0.00057807 0.00085038 0.0014737 0.069707 0.27308
0.011157 -0.016217 0.0025061 0.0016416
-0.0028242 0.0022841 -1.3125e-05 0.0029811 0.00050058 0.0011112 0.011171 -0.016216
-0.036336 0.22125 0.015101 -0.011837
0.0012136 0.0020768 -0.00079701 0.0018849 0.00011783 0.00068233 0.0022853 0.0017774
0.015304 -0.012302 -0.022346 0.31557
1280000000 0.1673 0.2692 -0.0064572 -0.029463 -0.0020175 0.0014905 -0.00099104 -0.001952
-0.00097166 0.0033479 0.0027338 0.0013067
-0.0064324 -0.02944 -0.0066964 0.37833 -0.023593 -0.0084467 -0.00083783 0.0014022
0.0015197 0.0017519 0.00062054 0.0021141
-0.0020067 0.0015221 -0.023677 -0.008358 0.31174 0.16436 0.0013462 -6.5696e-05
0.0010577 0.00039234 0.0002758 0.00037915
-0.00099276 -0.0019533 -0.00081491 0.0014056 0.0013345 -7.1824e-05 0.10645 0.25689
0.0021042 -0.018702 0.00024789 7.202e-05
-0.00094723 0.0033235 0.0015264 0.0017236 0.0010177 0.00040895 0.0020917 -0.018734
0.0008685 0.22733 0.0041867 -0.014943
0.0027295 0.0012326 0.00063728 0.0021772 0.00033528 0.00043315 0.00033655 -2.1222e-06
0.0043879 -0.01472 0.024898 0.31861
1340000000 0.20461 0.23777 -0.016556 -0.020457 0.00016204 0.0041135 -0.0017474 -0.00063265
0.0015459 0.0028097 0.0016503 -0.0013613
-0.016534 -0.020442 0.032189 0.37172 -0.021037 0.0042627 -0.00021084 0.0018997
0.0018062 0.00085435 0.0011265 0.00076578
0.00016061 0.0041053 -0.021028 0.0043792 0.3347 0.11722 0.00083922 -0.0008451
0.00064347 -0.0005159 6.4052e-05 0.00013753
-0.0017522 -0.00062664 -0.00019995 0.0018958 0.00083583 -0.00084587 0.13933 0.23753
-0.0073917 -0.016409 0.0011393 0.00019067
0.0015765 0.002842 0.001841 0.00084974 0.00064009 -0.00051006 -0.007379 -0.016397
0.030319 0.22546 -0.0023432 -0.014092
0.0016751 -0.0014306 0.0010655 0.00082068 -1.1381e-05 6.4918e-05 0.0011392 0.00028477
-0.0025086 -0.014008 0.063055 0.31531
1400000000 0.23947 0.20139 -0.023387 -0.0091061 0.0045748 0.003182 -0.0020412 0.00071252
0.0025583 0.00091007 0.00031308 -0.0013482
-0.023359 -0.0091155 0.070875 0.35985 -0.014365 0.012249 0.0011912 0.0013421
0.0011626 -0.00052615 0.0011959 0.00018942
0.0045987 0.0031663 -0.014326 0.012333 0.34902 0.063232 -4.3545e-05 -0.0013085
0.00024399 -0.00016455 0.0004841 0.00021917
-0.0020404 0.00072495 0.0012002 0.0013506 -4.9454e-05 -0.0013244 0.16938 0.20915
-0.013465 -0.0099802 -0.00081507 -0.00068662
0.0025911 0.00090287 0.0011729 -0.00049113 0.00021344 -0.00016175 -0.0135 -0.0099269
0.064417 0.22447 -0.008998 -0.0091873
0.00029801 -0.0013688 0.0012547 0.00017005 0.00048419 0.00025586 -0.00088519 -0.0006335
-0.0090353 -0.0093395 0.10873 0.30625
1460000000 0.26307 0.15854 -0.020968 0.0035234 0.0051171 -0.0014741 -0.0015197 0.0016098
0.0021728 -0.00049849 -0.0002233 -0.00092636
-0.020931 0.0034992 0.10527 0.33845 -0.0054662 0.014895 0.0016098 0.00029382
0.0010933 -0.0011686 0.0012263 -0.00055859
0.0051156 -0.0015028 -0.0053821 0.014946 0.35568 0.0081929 -0.00093476 -0.0010642
0.00032064 -0.0001945 0.0006301 -0.00035542
-0.0015163 0.0016241 0.0016087 0.00028159 -0.00092478 -0.001073 0.19624 0.18046
-0.014608 -0.0038359 -0.0010497 0.0017611
0.0021503 -0.00053093 0.0011082 -0.0011972 0.00030598 -0.0002098 -0.014639 -0.0037856
0.093971 0.21262 -0.011366 -0.0035436
-0.00028503 -0.00092351 0.0012909 -0.00056989 0.00063452 -0.00031845 -0.0010654 0.0016908
-0.011242 -0.003538 0.14192 0.28645
1520000000 0.27694 0.11822 -0.015817 0.0094548 0.003136 -0.0037948 5.4161e-05 0.0025819
0.0022731 -0.0018412 -0.0010203 -0.0001113
-0.015819 0.0094434 0.13958 0.32546 0.0019455 0.012325 0.0017304 -0.00067131
0.00025178 -0.0010285 0.0003232 -0.0010247
0.0031247 -0.0038092 0.001998 0.012327 0.3487 -0.048202 -0.00068245 -0.00039583
0.00067304 -0.00097884 1.2847e-05 -0.00021009
7.2656e-05 0.0025801 0.0017328 -0.00069163 -0.00067227 -0.00040161 0.22043 0.14294
-0.014675 0.0015999 0.0011913 0.0019717
0.002269 -0.0018685 0.00024976 -0.0010631 0.0006898 -0.0010326 -0.014649 0.0016001
0.12275 0.20244 -0.011559 0.00081585
-0.0009962 -9.9676e-05 0.00031009 -0.00097417 -8.2119e-07 -0.00010252 0.0011875 0.0019949
-0.011604 0.00083809 0.17596 0.26785
1580000000 0.28781 0.072716 -0.0093221 0.013325 -0.0010509 -0.0045664 0.0013468 0.0018456
-0.00035408 -0.0022094 -0.00022931 0.00031362
-0.0093087 0.013323 0.16772 0.30075 0.0052651 0.0071663 0.00057377 -0.0015977
-0.00039877 -0.0012644 -0.00022581 -0.00078834
-0.0010631 -0.0045552 0.0053101 0.0071515 0.32837 -0.10639 -0.0015818 0.00012652
-0.00042363 -0.0013124 0.00021726 -0.00051221
0.0013617 0.0018335 0.00056827 -0.0016022 -0.0015744 0.00014251 0.23533 0.10347
-0.011544 0.0067704 0.0019093 0.00092593
-0.00035356 -0.0022121 -0.00039643 -0.0012519 -0.00040614 -0.0012903 -0.011575 0.006789
0.14828 0.1874 -0.0092697 0.0068617
-0.00019045 0.00032593 -0.00026971 -0.0008209 0.00021987 -0.00058796 0.0018661 0.0009073
-0.0093439 0.0068245 0.20956 0.24211
1640000000 0.2914 0.032157 -0.0023272 0.012614 -0.00277 -0.0021057 0.0026685 0.001235
-0.00066856 -0.0016236 -0.00037336 0.0005537
-0.002347 0.012611 0.19748 0.2772 0.0054006 0.0024355 -0.00051909 -0.0018553
-0.0009772 -0.0006426 -0.00054084 -0.00066353
-0.0027796 -0.0020804 0.0054298 0.0023968 0.29899 -0.15508 -0.00087935 0.0012835
-0.0012046 -0.0010817 -0.00016301 -0.00030711
0.0026704 0.0012425 -0.00051853 -0.0018606 -0.00087205 0.0012717 0.24846 0.054613
-0.0077002 0.0080564 0.002455 -0.0004931
-0.00068634 -0.0016245 -0.00098591 -0.00065798 -0.0011871 -0.0010437 -0.0076855 0.0081529
0.17205 0.16692 -0.0047738 0.0091068
-0.00045212 0.00053587 -0.00059007 -0.00068875 -0.0001541 -0.00039319 0.0024757 -0.00052647
-0.0047199 0.0091261 0.23561 0.21202
1700000000 0.28644 -0.012687 0.0014074 0.010076 -0.0032149 0.00030221 0.0031459 -0.0011549
-0.0021726 -0.00053618 0.00059503 0.00051124
0.0013835 0.010072 0.21696 0.24589 0.0028148 -0.00022518 -0.0014679 -0.00072029
-0.00092803 -0.00017049 -0.00085235 -0.00037692
-0.0032162 0.00031959 0.0028381 -0.0002419 0.25558 -0.19397 0.00010954 0.0017893
-0.0020778 -0.00019449 -0.00026386 -0.00078524
0.0031396 -0.0011563 -0.0014811 -0.00069792 0.00010771 0.0017779 0.24627 0.0041495
-0.0050412 0.0091737 0.001641 -0.0020369
-0.0021785 -0.00055256 -0.00093476 -0.00017258 -0.0020879 -0.00020743 -0.0050672 0.0091482
0.1924 0.14984 -0.00011347 0.0093471
0.00059819 0.00050875 -0.00084459 -0.00036988 -0.00028315 -0.00070672 0.0016089 -0.0020304
-8.3467e-05 0.0093934 0.25342 0.17864
1760000000 0.27571 -0.061829 0.0041051 0.0070023 -0.0020233 0.0011871 0.0014467 -0.0033651
-0.0012461 0.00054573 0.0003402 -0.00053629
0.0040953 0.0069845 0.24311 0.20643 0.00029092 -0.001572 -0.0012863 6.9071e-05
-0.0012151 0.00096943 -0.00049034 0.00034132
-0.0020118 0.0012078 0.0002805 -0.0015704 0.20659 -0.22627 0.0011575 0.0013638
-0.0011395 0.0014275 -0.0011829 -0.00070549
0.0014282 -0.0033703 -0.0012943 8.391e-05 0.0011651 0.001386 0.23718 -0.048481
-0.0016569 0.0085641 -5.3124e-05 -0.0022951
-0.0012378 0.00056592 -0.0012005 0.00096849 -0.0011247 0.0014681 -0.0016056 0.0085334
0.20907 0.11767 0.0039453 0.0070942
0.00033105 -0.00051363 -0.00053871 0.00035635 -0.0011402 -0.00072803 -0.00012262 -0.0022597
0.0038302 0.0070884 0.2667 0.14093
1820000000 0.253 -0.099712 0.0046516 0.0032609 0.00022098 0.0021905 -0.00078922 -0.003183
-0.0010442 0.00089581 -3.195e-06 -0.0001384
0.0046648 0.0032865 0.25439 0.17714 -0.0018321 7.742e-05 -0.001503 0.00099474
-7.3592e-05 0.0013994 -0.00054617 0.0004141
0.00023237 0.0021927 -0.0018584 0.00010245 0.15714 -0.24103 0.0018565 0.00060115
-0.00027034 0.0023883 -0.0015723 6.1382e-05
-0.00078754 -0.0031764 -0.0015106 0.001004 0.0018146 0.00056334 0.20757 -0.095958
0.00012448 0.0073439 -0.0015 -0.0017198
-0.001085 0.00091212 -6.4204e-05 0.0013856 -0.00024481 0.0023471 0.0001312 0.007403
0.23 0.09138 0.0047938 0.0034619
-3.1016e-05 -0.00011712 -0.00056195 0.00043438 -0.0015965 2.6882e-05 -0.0014748 -0.0017132
0.0048736 0.0034735 0.27081 0.10642
1880000000 0.2187 -0.14124 0.0026194 0.00093951 -0.00017439 0.0021286 -0.0028062 -0.0026059
-0.00015224 0.0015938 0.00034066 -0.00060737
0.0026194 0.0009536 0.25914 0.13041 -0.0037062 0.0028079 -0.00020586 0.0018575
0.00071006 0.0014739 0.00012624 0.00090467
-0.00016597 0.0021176 -0.0037156 0.0028153 0.10551 -0.24917 0.0020364 -0.0011648
0.0016551 0.0020427 -0.0010955 0.0013573
-0.0028309 -0.0025858 -0.00018791 0.0018452 0.0020256 -0.0011552 0.16641 -0.13688
0.0011241 0.0052472 -0.0022291 0.00039785
-0.00014262 0.0016377 0.00072537 0.0014773 0.0016325 0.0020516 0.0011296 0.0051956
0.23688 0.06105 0.0051899 0.0016342
0.00040671 -0.00064991 0.00017567 0.00087891 -0.0010254 0.001355 -0.0023489 0.00034232
0.0051732 0.0016127 0.27196 0.072089
1940000000 0.17957 -0.1675 0.00057719 -0.00097948 0.001765 0.0018353 -0.003894 0.00013765
0.0010978 0.00071129 -0.00054954 -0.00050837
0.00057316 -0.0009489 0.26054 0.099449 -0.0018542 0.0056095 0.0012437 0.0014182
0.0021679 0.00039393 0.00082228 0.00034577
0.001772 0.0018208 -0.00182 0.0056455 0.061142 -0.24121 0.00059201 -0.002413
0.0023441 0.00045598 6.6599e-05 0.0017058
-0.0038782 0.00015157 0.0012274 0.0014162 0.00059049 -0.0024128 0.11374 -0.16743
0.00035902 0.0038006 -0.0014427 0.0013828
0.001172 0.00073455 0.0021587 0.00039085 0.0023282 0.00050555 0.00047057 0.0036455
0.24292 0.024552 0.0039255 -0.0023274
-0.0006861 -0.00055299 0.00078444 0.00033341 -4.1129e-06 0.0017221 -0.0013452 0.0014356
0.0038323 -0.0023086 0.26172 0.036693
2000000000 0.13405 -0.18292 -0.0031736 0.00081223 0.0029484 0.0012398 -0.0026451 0.0037404
0.00082545 0.00037596 -0.0007873 0.00029136
-0.0031522 0.00077904 0.24752 0.064063 -0.00046562 0.0077601 0.001675 0.00027924
0.0013199 -0.0015232 0.0005126 8.2742e-05
0.0029677 0.00122 -0.00042445 0.0077337 0.020557 -0.22687 -0.0017001 -0.0016147
0.0020574 -0.0011651 0.0015848 0.001549
-0.0026221 0.003775 0.0016929 0.00023208 -0.0016617 -0.0016247 0.060266 -0.17753
-0.0012282 0.0034015 -0.00014295 0.002136
0.00066868 0.00039254 0.0012828 -0.001546 0.0020881 -0.0012213 -0.0011922 0.0035389
0.24174 -0.0088022 0.00062055 -0.00317
