!Keysight Technologies,M9804A,MY58100912,A.14.10.03
!Date: Thursday, April 27, 2023 10:28:33
!Correction: S11(C  6-Port  ) 
!S12(C  6-Port  ) 
!S13(C  6-Port  ) 
!S14(C  6-Port  ) 
!S15(C  6-Port  ) 
!S16(C  6-Port  ) 
!S21(C  6-Port  ) 
!S22(C  6-Port  ) 
!S23(C  6-Port  ) 
!S24(C  6-Port  ) 
!S25(C  6-Port  ) 
!S26(C  6-Port  ) 
!S31(C  6-Port  ) 
!S32(C  6-Port  ) 
!S33(C  6-Port  ) 
!S34(C  6-Port  ) 
!S35(C  6-Port  ) 
!S36(C  6-Port  ) 
!S41(C  6-Port  ) 
!S42(C  6-Port  ) 
!S43(C  6-Port  ) 
!S44(C  6-Port  ) 
!S45(C  6-Port  ) 
!S46(C  6-Port  ) 
!S51(C  6-Port  ) 
!S52(C  6-Port  ) 
!S53(C  6-Port  ) 
!S54(C  6-Port  ) 
!S55(C  6-Port  ) 
!S56(C  6-Port  ) 
!S61(C  6-Port  ) 
!S62(C  6-Port  ) 
!S63(C  6-Port  ) 
!S64(C  6-Port  ) 
!S65(C  6-Port  ) 
!S66(C  6-Port  ) 
!S6P File: Measurement: :
# Hz S  RI   R 50
500000000 -0.32752 -0.066557 -0.0094235 -0.0012754 -0.0084079 0.012052 -0.0043313 0.012124
0.013479 0.0056983 -0.0047536 0.0087238
-0.0093169 -0.0012243 -0.40944 -0.076146 0.0093838 -0.01097 0.0011313 0.012282
0.0090787 0.0031549 0.0012944 0.013952
-0.0083155 0.012269 0.0092736 -0.010882 -0.25892 0.18786 0.0072806 0.0035523
-0.0019781 0.0079129 0.0013949 0.012824
-0.0044516 0.011967 0.0010593 0.012255 0.0073278 0.0035254 -0.32727 0.037351
-0.019321 -0.0038352 0.016724 0.025471
0.013395 0.0058152 0.0092334 0.0028865 -0.0019395 0.0078806 -0.019391 -0.0038521
-0.22344 -0.22913 -0.027945 0.0052975
-0.0050216 0.0089172 0.00094219 0.014299 0.0013413 0.012887 0.01664 0.025509
-0.027701 0.005232 -0.26294 -0.14547
560000000 -0.31798 0.10235 -0.020761 -0.067812 0.00029062 0.012807 0.0055618 0.011647
0.011525 0.0051037 0.011123 0.010112
-0.021096 -0.067754 -0.37192 0.089019 -0.040761 -0.039619 0.013631 0.0040505
-0.012351 -0.0058479 0.0046783 -0.00044278
4.5306e-06 0.013044 -0.040914 -0.039889 -0.18391 0.23886 -0.00042145 -0.0055399
0.017885 0.0063208 0.0076302 -0.0057437
0.0053531 0.011305 0.013994 0.0039698 -0.00049075 -0.0054318 -0.30656 0.12964
0.0074686 -0.02257 0.0049934 -0.021253
0.011123 0.0045023 -0.012131 -0.0061614 0.017997 0.006766 0.0075555 -0.022507
-0.30291 -0.044948 0.011148 -0.050492
0.011582 0.010214 0.0045447 -0.00029093 0.0077362 -0.0057392 0.0048318 -0.021288
0.01119 -0.049809 -0.3318 0.0068437
620000000 -0.27731 0.080173 -0.023123 0.0086849 0.0032942 0.0089133 0.0083294 -0.0045952
0.012296 -0.00091373 0.00038352 -0.0018135
-0.022896 0.0086243 -0.40047 0.035002 -0.018645 -0.00032777 -0.0018313 -0.0020034
0.012374 -0.0054899 0.00061741 -0.0033522
0.0033611 0.0088286 -0.018702 -0.00017564 -0.15674 0.24868 -0.0011893 -0.0054222
-0.0041908 -0.0027646 0.0087569 -0.0034189
0.0082165 -0.0043933 -0.0017514 -0.0020631 -0.0012231 -0.0054479 -0.26371 0.13852
-0.038516 -0.02011 0.01242 0.027877
0.012332 -0.0012287 0.012267 -0.0055479 -0.0041972 -0.0027649 -0.038378 -0.02003
-0.21929 -0.082365 -0.042096 0.012296
0.00053613 -0.0020448 0.00063556 -0.0032984 0.0087113 -0.0034606 0.012468 0.027659
-0.042228 0.012563 -0.247 -0.030281
680000000 -0.2427 0.17287 -0.026152 -0.016041 0.0046518 0.0056335 0.001659 -0.0072562
-0.0019267 -0.011595 0.0057423 -0.0070587
-0.026124 -0.016021 -0.39108 0.13654 -0.032958 -0.0028765 -0.0016667 -0.00020265
-0.0018774 -0.0096574 -0.00076121 -0.0020364
0.0046369 0.0055767 -0.032987 -0.002784 -0.10923 0.27152 -0.00076819 0.0001134
-0.0016047 0.00089267 -0.0025248 -0.0093156
0.001693 -0.0072897 -0.0017275 -0.00022063 -0.00073629 0.00016478 -0.22067 0.19142
-0.022694 -0.0082538 -0.0089216 -0.011597
-0.0019839 -0.011656 -0.0018022 -0.0095478 -0.0016302 0.00082788 -0.022809 -0.0082926
-0.28155 0.019556 -0.0054559 -0.0074901
0.0054803 -0.0071789 -0.0011267 -0.0021442 -0.0026567 -0.0093428 -0.0088466 -0.011711
-0.0054696 -0.0077111 -0.26159 0.075457
740000000 -0.19665 0.16593 -0.041366 0.026474 0.013577 -0.0037151 0.00015748 -0.0040538
-0.0035372 -0.0018986 -0.0067931 0.0030642
-0.041307 0.026426 -0.33753 0.15665 -0.037975 0.034153 8.235e-05 -0.0057024
-0.012876 0.0068323 -0.0011202 -0.0054884
0.013599 -0.0038668 -0.037948 0.034249 -0.076245 0.27224 -0.0021068 0.0031928
-0.0014591 -0.0052564 -0.0021943 0.00086213
0.00015695 -0.004143 8.5546e-05 -0.0056928 -0.0020603 0.0031513 -0.2042 0.1991
-0.042801 -0.010111 0.022552 0.016709
-0.0035247 -0.0023694 -0.012724 0.006799 -0.0014992 -0.0051417 -0.042834 -0.010023
-0.18018 0.053087 -0.044325 -0.0013042
-0.0065605 0.0027754 -0.0010131 -0.0054128 -0.0021621 0.00090239 0.022574 0.016584
-0.044273 -0.0010588 -0.25272 0.080294
800000000 -0.16742 0.21253 -0.023373 0.015653 0.0055679 -0.010215 -0.0045911 -0.0027231
-0.0045671 0.001879 0.0041226 0.00024081
-0.023355 0.015556 -0.34605 0.22774 -0.0095514 0.034464 -0.0020663 0.002201
-0.00035447 0.002262 0.00069601 0.0054421
0.0055952 -0.010299 -0.0094672 0.034593 -0.037789 0.29825 0.0011549 0.0011019
1.0983e-05 0.0033739 -0.0019605 0.00056768
-0.00463 -0.0026636 -0.0020197 0.0021982 0.0011344 0.0011624 -0.17539 0.22639
-0.029066 0.012665 0.014726 -0.010435
-0.0046709 0.0018918 -0.00041404 0.0021684 3.7424e-05 0.0033728 -0.029039 0.012781
-0.23144 0.077039 -0.018768 0.020342
0.0040575 0.00036178 0.00069485 0.0055368 -0.0019981 0.00062688 0.014807 -0.010539
-0.018852 0.020375 -0.24764 0.13132
860000000 -0.13403 0.23367 -0.01921 0.030282 -0.0030272 -0.010139 -0.0022144 0.00058141
0.0042099 0.0050776 -0.0036874 -0.0029445
-0.019122 0.030305 -0.29957 0.27253 0.0067915 0.034756 0.00018046 0.0021189
0.0039526 0.00014325 0.0036341 0.00017185
-0.0030832 -0.010136 0.0069055 0.034769 0.010113 0.30849 -0.00058399 -0.0004496
0.0025215 -0.0018427 0.0015965 0.004427
-0.0022446 0.00066929 0.00019037 0.0021762 -0.00056336 -0.00045349 -0.13959 0.23787
-0.018714 0.017321 -0.0067443 -0.0095516
0.0042844 0.0050366 0.0038868 0.00021028 0.002487 -0.0018543 -0.018706 0.017375
-0.1772 0.1356 -0.025856 0.016071
-0.0038442 -0.0030965 0.0036554 1.4524e-05 0.0015791 0.0044248 -0.0068366 -0.0095656
-0.025928 0.015991 -0.19885 0.17829
920000000 -0.11066 0.25801 0.003766 0.039484 -0.009271 -0.0045383 -0.0021622 0.0019604
0.00074128 0.0014545 0.0027807 -0.0012421
0.0037936 0.039455 -0.27237 0.29531 0.027842 0.023592 0.0012626 0.0012971
0.0072928 0.00011768 0.0039536 -0.0027244
-0.0092516 -0.0045357 0.027946 0.02356 0.056584 0.31103 0.0016921 -2.7532e-05
0.00063148 -0.00042591 0.00094497 -0.0013232
-0.0020697 0.0020699 0.0012362 0.0012529 0.0016969 -2.5451e-05 -0.11575 0.25584
-0.012752 0.030646 0.0039491 -0.0063342
0.00071835 0.0015119 0.0072279 4.4459e-05 0.00056905 -0.00041901 -0.012633 0.030647
-0.16912 0.14134 -0.0033559 0.028423
0.0029876 -0.0013266 0.0040559 -0.0027789 0.00093738 -0.0013337 0.0040505 -0.0064082
-0.0034557 0.0285 -0.20769 0.19278
980000000 -0.064764 0.27968 0.016125 0.031263 -0.0094718 0.0046974 0.0019408 0.0037593
0.0038614 -0.0014191 -0.0036361 -0.0028859
0.016055 0.031262 -0.22012 0.33206 0.033161 0.0060684 0.0018767 -0.00019108
0.0018075 -0.0059881 -0.00060093 -0.0028854
-0.0094472 0.0047351 0.033242 0.0059572 0.10282 0.30553 0.00048576 -0.0011371
0.0003004 -0.0017498 0.0015386 -0.00037439
0.0019162 0.0037836 0.0018781 -0.00018366 0.00048412 -0.0011118 -0.077619 0.26691
0.0063309 0.030223 -0.0096802 -0.007807
0.0039412 -0.0013708 0.0017824 -0.0059975 0.00027261 -0.0017391 0.0064006 0.030202
-0.13855 0.17615 0.0048757 0.020573
-0.0036494 -0.0028151 -0.00060309 -0.002877 0.0015542 -0.00037848 -0.0096968 -0.0078101
0.0049512 0.020491 -0.16596 0.23972
1040000000 -0.024354 0.28988 0.033066 0.020579 -0.0011054 0.0075668 0.0025747 0.00083088
0.00032958 -0.0036314 -4.9814e-05 -0.0014059
0.033006 0.020552 -0.18552 0.34672 0.03025 -0.013824 0.0014524 -0.001599
-0.0023549 -0.0024185 -0.0011083 -0.0027604
-0.0010518 0.0075598 0.030242 -0.013949 0.14873 0.29362 -0.00047855 -0.0013746
-0.0015698 -0.00091925 -0.00049364 -0.0011357
0.0026469 0.00083052 0.0014334 -0.0016187 -0.00048482 -0.0013694 -0.050688 0.27775
0.018165 0.019605 -0.0022732 0.0016409
0.00031685 -0.0036737 -0.0023707 -0.0023987 -0.0015367 -0.00091188 0.018204 0.019572
-0.10612 0.18531 0.013018 0.01974
-1.1937e-05 -0.0014622 -0.0011263 -0.0027315 -0.00049449 -0.0011514 -0.002237 0.0016571
0.01304 0.019784 -0.14519 0.26163
1100000000 0.021053 0.30021 0.037099 -0.0022131 0.0036259 0.0041909 0.0025132 -0.0011304
-0.0021731 -0.003041 -0.0042012 -7.7572e-05
0.03701 -0.0021677 -0.14151 0.36631 0.016225 -0.027392 -2.7101e-05 -0.001778
-0.0033752 -0.00085259 -0.0036175 -0.00051846
0.0036761 0.0041764 0.016153 -0.027483 0.19541 0.27485 -0.0017518 0.00027331
-0.0015679 0.00059932 -0.0011169 -0.00059921
0.0024541 -0.0011058 -5.2601e-05 -0.0017854 -0.0017385 0.00026887 -0.010213 0.283
0.024308 0.0067227 -0.0026096 0.00012869
-0.0021991 -0.0030877 -0.0034211 -0.00086953 -0.0015768 0.0006174 0.024329 0.006709
-0.087665 0.20165 0.019777 0.010066
-0.0042068 6.3396e-05 -0.0035417 -0.00049133 -0.0011087 -0.0005964 -0.0026409 0.00013725
0.019767 0.010045 -0.10029 0.29291
1160000000 0.07197 0.29736 0.025905 -0.019551 0.0035532 -0.00072475 -0.00016344 -0.0025052
-0.0041235 -0.00098626 -0.0012283 0.0042799
0.025853 -0.019587 -0.098426 0.37141 -0.0028079 -0.029016 -0.0015628 -0.0015529
-0.0025874 0.0024189 -0.0017074 0.0018899
0.0035682 -0.00074306 -0.0029257 -0.029029 0.23865 0.24557 -0.00064032 0.0015817
-0.00045222 0.0017139 -0.0011154 0.00034546
-0.00012962 -0.0025302 -0.0015967 -0.0015571 -0.00063873 0.0015906 0.028701 0.2806
0.021584 -0.0092593 -0.0034758 0.0052965
-0.0040846 -0.00090502 -0.0025676 0.002426 -0.00045582 0.0017102 0.021584 -0.0093004
-0.052375 0.21176 0.019017 0.0013456
-0.0012616 0.0043066 -0.0017376 0.0019145 -0.0010902 0.00033572 -0.0034616 0.0053635
0.01905 0.0013721 -0.05301 0.29701
1220000000 0.11589 0.28932 0.012778 -0.02996 -0.0011082 -0.0016736 -9.0158e-05 -0.00099781
-0.0027538 0.0022768 0.0011628 0.0019959
0.012793 -0.029903 -0.054046 0.38623 -0.0163 -0.021574 -0.0025264 0.00046454
2.8808e-05 0.0029329 -0.0008049 0.0018159
-0.0010842 -0.001685 -0.016429 -0.021526 0.27881 0.20828 0.00086676 0.0014475
0.00054465 0.0011098 0.00017327 0.00056525
-0.00012981 -0.00092248 -0.00251 0.00049543 0.0008512 0.0014398 0.068537 0.27327
0.011207 -0.016025 0.0023883 0.0016811
-0.0027728 0.0022974 2.7447e-05 0.0029455 0.00053738 0.0011117 0.011202 -0.016029
-0.029919 0.22346 0.015132 -0.012123
0.0012643 0.0019907 -0.0008011 0.0018255 0.00016705 0.00056269 0.0024073 0.0016532
0.01513 -0.012101 -0.022792 0.31529
1280000000 0.16668 0.26937 -0.0061652 -0.029503 -0.0020202 0.0015348 -0.00093824 -0.0019885
-0.00084176 0.0033453 0.0024735 0.001298
-0.0061436 -0.029492 -0.0076036 0.37813 -0.023566 -0.008751 -0.00084175 0.0013862
0.0016121 0.0017116 0.00057322 0.0020812
-0.0020243 0.0015553 -0.023643 -0.008658 0.31087 0.16495 0.0013614 -8.1956e-05
0.0010169 0.00035915 0.00037449 0.00047182
-0.00093443 -0.0020137 -0.00082643 0.0013811 0.0013806 -8.002e-05 0.10532 0.2573
0.0022876 -0.018722 4.4127e-05 -0.00010117
-0.0008122 0.0033153 0.0015822 0.0017065 0.0010261 0.00035263 0.0022711 -0.018701
0.0075803 0.22856 0.0041851 -0.015108
0.0024199 0.0013268 0.00059746 0.0020823 0.00039412 0.00043008 -2.9941e-06 -7.4054e-05
0.0041529 -0.01513 0.025141 0.31831
1340000000 0.20404 0.23824 -0.016379 -0.02063 0.000139 0.0041272 -0.001816 -0.00072611
0.0015104 0.0027951 0.0017932 -0.0014285
-0.016351 -0.020625 0.031337 0.37195 -0.02114 0.0039425 -0.00022781 0.0019279
0.0018063 0.00088985 0.001167 0.00081914
0.00015946 0.0041276 -0.021159 0.0040342 0.33408 0.11804 0.00079206 -0.00087431
0.00058609 -0.00053715 7.1686e-05 0.00020571
-0.0017728 -0.00068322 -0.00021112 0.0019337 0.00077482 -0.00087708 0.13839 0.23823
-0.0072455 -0.016371 0.0012822 0.00029348
0.0015621 0.0027848 0.0018152 0.00089286 0.00057137 -0.00055683 -0.0072936 -0.016354
0.036408 0.2265 -0.0024061 -0.013923
0.0017867 -0.0014536 0.001152 0.00084926 7.0943e-05 0.00019958 0.0013127 0.0002639
-0.0023678 -0.013904 0.06299 0.31528
1400000000 0.23917 0.20191 -0.023371 -0.0093152 0.0045938 0.0032273 -0.0021449 0.00066526
0.0025736 0.00095012 0.00033076 -0.0013405
-0.023333 -0.0093198 0.070266 0.36022 -0.014601 0.012101 0.0011834 0.0013819
0.0011465 -0.00058298 0.0011639 0.00027106
0.0046103 0.0032407 -0.014572 0.012209 0.34872 0.063923 -4.7681e-05 -0.0012669
0.00013401 -0.0001651 0.00041429 0.00026893
-0.0021432 0.00069021 0.0012046 0.0013905 -3.862e-05 -0.0012594 0.16891 0.20986
-0.013318 -0.010127 -0.00083497 -0.0006193
0.0025441 0.00091383 0.0011613 -0.00058513 0.00013675 -0.00017016 -0.013329 -0.0101
0.070754 0.22424 -0.0092754 -0.009364
0.0003329 -0.0013585 0.0011984 0.00026306 0.00045155 0.00025871 -0.00087988 -0.00060368
-0.009236 -0.0093861 0.10865 0.30626
1460000000 0.2628 0.15908 -0.021008 0.0032822 0.0051257 -0.0014805 -0.0015662 0.0016848
0.0020995 -0.00039195 -0.00017895 -0.00096429
-0.021001 0.0032599 0.10469 0.33896 -0.0057365 0.014972 0.0015854 0.00030095
0.0010915 -0.001205 0.0012898 -0.00051343
0.0051122 -0.0015033 -0.0056589 0.014991 0.3553 0.0088021 -0.00095332 -0.0010749
0.00032294 -0.00012539 0.0006309 -0.0002691
-0.0015317 0.0017174 0.001568 0.00028809 -0.00094043 -0.0010922 0.1958 0.18113
-0.014612 -0.0041221 -0.0012227 0.0018187
0.0021204 -0.00041381 0.0010721 -0.0011863 0.00032201 -0.00013758 -0.014641 -0.0040944
0.099916 0.21188 -0.011445 -0.0035592
-0.00018076 -0.0009345 0.001295 -0.00051545 0.00061403 -0.00024171 -0.0011812 0.0018139
-0.011443 -0.0035631 0.14173 0.28631
1520000000 0.27685 0.11883 -0.015952 0.0092889 0.0032132 -0.0037989 0.000107 0.0026007
0.0022938 -0.0018308 -0.0010648 -0.00021041
-0.015949 0.0092543 0.13929 0.32597 0.0018312 0.012453 0.0017182 -0.00064442
0.00024099 -0.0010626 0.00038195 -0.00099445
0.003187 -0.0038136 0.0019124 0.012459 0.34833 -0.047464 -0.00076007 -0.00036835
0.00067452 -0.00088336 0.00014173 -7.4758e-05
0.00011189 0.0025834 0.0017153 -0.0006629 -0.00076508 -0.00036147 0.22026 0.14368
-0.014833 0.0014718 0.0011853 0.0019492
0.0022644 -0.0018489 0.00023866 -0.0010802 0.00066601 -0.00087427 -0.014816 0.001495
0.12829 0.20124 -0.011555 0.00071847
-0.0010736 -0.00017612 0.00034807 -0.0010158 0.00012659 -6.4355e-05 0.001183 0.0019553
-0.011546 0.00070157 0.17583 0.26813
1580000000 0.28783 0.072993 -0.0094957 0.01328 -0.0010334 -0.0045224 0.0014472 0.001909
-0.00022053 -0.0022172 -0.00029681 0.00032662
-0.0094969 0.013259 0.16767 0.30113 0.0052798 0.0074035 0.00061933 -0.0015264
-0.00048264 -0.0012154 -0.00023552 -0.00078672
-0.0010477 -0.0045139 0.0053286 0.0074001 0.32839 -0.10578 -0.0014759 0.00014033
-0.00032413 -0.0014015 0.00016642 -0.00065706
0.0014856 0.0019032 0.00060748 -0.0015291 -0.0014773 0.00012035 0.23521 0.10376
-0.011774 0.0066085 0.0019095 0.0009357
-0.0002379 -0.0021978 -0.00049011 -0.0012215 -0.00033221 -0.0014076 -0.011799 0.006617
0.15349 0.18531 -0.0095628 0.006848
-0.00032606 0.00034487 -0.00023223 -0.0007712 0.00015598 -0.00063489 0.0019312 0.00094431
-0.0095794 0.0068721 0.20948 0.24226
1640000000 0.29132 0.032583 -0.0025344 0.012669 -0.002792 -0.0021963 0.0027822 0.0011312
-0.00057983 -0.0016829 -0.00042479 0.00045323
-0.0025338 0.012659 0.19728 0.27747 0.0054268 0.0025383 -0.0004213 -0.0018517
-0.00096825 -0.00056915 -0.00047287 -0.00069662
-0.0028268 -0.0021698 0.0054659 0.0024833 0.29893 -0.15423 -0.00079676 0.0012395
-0.0010228 -0.0010872 -0.00015332 -0.00042257
0.0027875 0.0011094 -0.00042038 -0.0018574 -0.00079262 0.0012386 0.24824 0.055144
-0.0080717 0.0082372 0.0025213 -0.00052231
-0.00061464 -0.0016694 -0.00096969 -0.00057443 -0.00099989 -0.0010906 -0.0080303 0.0082821
0.17687 0.16444 -0.0049707 0.0090451
-0.0004326 0.00047287 -0.0005041 -0.00068602 -0.00014632 -0.00041886 0.0025066 -0.00055199
-0.0049263 0.0090444 0.23514 0.2125
1700000000 0.28652 -0.012565 0.0012866 0.010255 -0.0032658 0.00042424 0.0031641 -0.0012151
-0.0020828 -0.00066217 0.00054185 0.00049746
0.0012921 0.01025 0.21701 0.24603 0.0028939 -0.00019027 -0.0014375 -0.00075585
-0.00090082 -7.4996e-05 -0.00080798 -0.00041161
-0.0032824 0.00044781 0.0029067 -0.00020331 0.25582 -0.19376 9.7916e-05 0.0016607
-0.0020899 -0.00014001 -0.00029782 -0.00076132
0.0031636 -0.0012261 -0.0014421 -0.00074299 8.1977e-05 0.0016527 0.24623 0.0042919
-0.0051363 0.009263 0.001658 -0.0018862
-0.0020744 -0.00064358 -0.0008976 -5.6972e-05 -0.0020953 -0.00013994 -0.0051396 0.0092647
0.19694 0.14666 -0.000418 0.0095391
0.00052173 0.00048017 -0.00080259 -0.00041416 -0.00030104 -0.00077879 0.0016704 -0.0018454
-0.00044021 0.0095503 0.25371 0.17883
1760000000 0.27557 -0.061601 0.0041128 0.007167 -0.0019484 0.0011798 0.0014138 -0.0035267
-0.0011982 0.00054994 0.0003589 -0.00049737
0.0041154 0.0071571 0.24293 0.20642 0.00033731 -0.0015219 -0.0012305 -1.9552e-05
-0.0011405 0.00097411 -0.00056482 0.00030071
-0.0019521 0.0012004 0.00031861 -0.0015205 0.20647 -0.22599 0.0011038 0.0014347
-0.0012422 0.0013846 -0.0012463 -0.00071013
0.0013975 -0.0035213 -0.0012323 -2.1605e-05 0.0010913 0.0014349 0.23695 -0.048097
-0.0016376 0.0088788 -2.1535e-06 -0.0024449
-0.0012081 0.00053561 -0.0011408 0.00098292 -0.0012454 0.001387 -0.0015995 0.0088978
0.21322 0.1141 0.0036175 0.0071131
0.00037366 -0.00050497 -0.00056116 0.00034284 -0.0012255 -0.00068771 -1.323e-05 -0.0024851
0.003653 0.0070974 0.26657 0.14146
1820000000 0.253 -0.099271 0.0047444 0.0034364 0.0002305 0.0022366 -0.00089239 -0.003142
-0.0012085 0.00083087 -6.7127e-05 -0.0001611
0.0047451 0.0034346 0.2543 0.17715 -0.001734 9.7854e-05 -0.0015361 0.00092513
-5.7474e-05 0.001336 -0.00067493 0.00046295
0.00025069 0.0022428 -0.0017202 0.0001017 0.1573 -0.24038 0.0017921 0.00061009
-0.00025275 0.0024137 -0.0017482 0.00013305
-0.00086888 -0.003127 -0.0015301 0.00093607 0.0017752 0.00057692 0.20749 -0.095895
0.00041658 0.0074347 -0.0015773 -0.0016169
-0.0011835 0.00082287 -4.406e-05 0.0013314 -0.00024054 0.0023572 0.00040852 0.007418
0.23368 0.087541 0.0047669 0.0037483
-0.00011175 -0.00014854 -0.00068098 0.00044884 -0.0017705 0.00020067 -0.001568 -0.0016177
0.0047437 0.0037349 0.27063 0.10661
1880000000 0.21877 -0.14114 0.0027502 0.00094534 -0.00025556 0.0021439 -0.0029775 -0.0023763
-0.00033892 0.0016755 0.00043885 -0.00064113
0.0027525 0.00092778 0.25897 0.13021 -0.0035579 0.0026905 -0.00037612 0.0018486
0.00062948 0.0013769 0.00019984 0.0010014
-0.00025269 0.0021331 -0.0035509 0.0027274 0.10584 -0.24904 0.0020941 -0.0011135
0.0015268 0.0020276 -0.00092457 0.0014755
-0.0029903 -0.0023155 -0.00034265 0.0018577 0.0021242 -0.0011018 0.16635 -0.1368
0.0012494 0.0054138 -0.0022824 0.00014103
-0.0003167 0.0016678 0.00062471 0.0013796 0.0015384 0.0020724 0.0012852 0.0054398
0.24005 0.056858 0.0051816 0.0016385
0.00043345 -0.00065789 0.00022556 0.0010137 -0.00088393 0.0014721 -0.0022772 0.00015777
0.0052064 0.0016352 0.2718 0.07251
1940000000 0.17951 -0.16719 0.00063987 -0.0010937 0.0016042 0.001838 -0.0040338 0.00029038
0.0010412 0.0010091 -0.00070844 -0.00062621
0.00063025 -0.0010954 0.26003 0.099444 -0.0018514 0.0054741 0.0010181 0.0014869
0.0019784 0.0003635 0.00089559 0.0003649
0.0016052 0.0018042 -0.0018267 0.0054941 0.061204 -0.24091 0.00059864 -0.0024199
0.0023814 0.00039994 0.00021652 0.0016623
-0.0040325 0.00029097 0.0010422 0.0014954 0.00057322 -0.0024145 0.11349 -0.16695
0.00075655 0.0037995 -0.0013118 0.0012816
0.0010579 0.00099349 0.001996 0.00037113 0.0023694 0.00039586 0.00077056 0.0037451
0.24567 0.019841 0.0041714 -0.0020742
-0.00070115 -0.00064258 0.00088655 0.00032858 0.00021969 0.001693 -0.0013737 0.0012625
0.0041435 -0.0021131 0.26141 0.037007
2000000000 0.13439 -0.18275 -0.0030876 0.00075259 0.0029255 0.0012902 -0.0024825 0.00368
0.00099169 0.00052508 -0.00083616 0.00039859
-0.0030893 0.00073645 0.24717 0.064112 -0.00057041 0.0076688 0.0017471 0.0003533
0.0012114 -0.0013835 0.00048108 4.7991e-05
0.0029559 0.0012445 -0.00051192 0.0076967 0.020288 -0.22677 -0.0016308 -0.001623
0.0020015 -0.0010586 0.0016146 0.0014309
-0.002476 0.0036764 0.0017526 0.00033159 -0.0016355 -0.0015951 0.059868 -0.17714
-0.0010683 0.0034209 -0.00013661 0.0020847
0.00099941 0.00047622 0.0012016 -0.0014139 0.002014 -0.0010284 -0.0010908 0.0034499
