!Keysight Technologies,M9804A,MY58100912,A.14.10.03
!Date: Thursday, April 27, 2023 10:28:33
!Correction: S11(C  6-Port  ) 
!S12(C  6-Port  ) 
!S13(C  6-Port  ) 
!S14(C  6-Port  ) 
!S15(C  6-Port  ) 
!S16(C  6-Port  ) 
!S21(C  6-Port  ) 
!S22(C  6-Port  ) 
!S23(C  6-Port  ) 
!S24(C  6-Port  ) 
!S25(C  6-Port  ) 
!S26(C  6-Port  ) 
!S31(C  6-Port  ) 
!S32(C  6-Port  ) 
!S33(C  6-Port  ) 
!S34(C  6-Port  ) 
!S35(C  6-Port  ) 
!S36(C  6-Port  ) 
!S41(C  6-Port  ) 
!S42(C  6-Port  ) 
!S43(C  6-Port  ) 
!S44(C  6-Port  ) 
!S45(C  6-Port  ) 
!S46(C  6-Port  ) 
!S51(C  6-Port  ) 
!S52(C  6-Port  ) 
!S53(C  6-Port  ) 
!S54(C  6-Port  ) 
!S55(C  6-Port  ) 
!S56(C  6-Port  ) 
!S61(C  6-Port  ) 
!S62(C  6-Port  ) 
!S63(C  6-Port  ) 
!S64(C  6-Port  ) 
!S65(C  6-Port  ) 
!S66(C  6-Port  ) 
!S6P File: Measurement: :
# Hz S  RI   R 50
500000000 -0.32816 -0.0655 -0.010186 -0.0011725 -0.0082712 0.012183 -0.0044876 0.011911
0.013173 0.0067699 -0.0043173 0.0084549
-0.010156 -0.0011986 -0.40976 -0.074856 0.00823 -0.010913 0.00098126 0.012527
0.0081238 0.0034555 0.00076385 0.014487
-0.0082407 0.012161 0.0082062 -0.010959 -0.25765 0.18951 0.0068616 0.0035629
-0.0024233 0.0086177 0.001281 0.012123
-0.0044391 0.0119 0.0010124 0.012554 0.0068653 0.003577 -0.3271 0.039907
-0.02036 -0.0047915 0.015306 0.026992
0.013205 0.0067399 0.0081542 0.003437 -0.002416 0.0085965 -0.020361 -0.004743
-0.21996 -0.23222 -0.029037 0.0046867
-0.0043056 0.0083774 0.00079542 0.014511 0.0012781 0.012132 0.015342 0.026987
-0.029076 0.0046709 -0.26318 -0.14357
560000000 -0.31657 0.10282 -0.021996 -0.067437 0.00029451 0.012908 0.0054048 0.010585
0.010386 0.0038397 0.01089 0.0094967
-0.021995 -0.067364 -0.37147 0.089951 -0.041146 -0.039643 0.013829 0.0027114
-0.01402 -0.005335 0.0049211 -0.0011665
0.00035977 0.012924 -0.041337 -0.039574 -0.18246 0.24074 -0.00023453 -0.0054269
0.018055 0.0057342 0.0075856 -0.0054871
0.0054953 0.010529 0.013896 0.0027204 -0.00025586 -0.0054386 -0.30446 0.13012
0.0063862 -0.0221 0.0065811 -0.021152
0.010491 0.0038813 -0.014016 -0.0053526 0.018082 0.0058015 0.0064657 -0.022111
-0.30097 -0.051174 0.01247 -0.051914
0.010932 0.0095068 0.0049499 -0.0011462 0.0075915 -0.0055045 0.0065162 -0.021129
0.01252 -0.051947 -0.32917 0.0071406
620000000 -0.27601 0.081592 -0.023348 0.0087648 0.0030345 0.0092124 0.0086569 -0.0043191
0.012171 -0.00051145 0.001524 -0.0021863
-0.023364 0.0087798 -0.39971 0.035401 -0.019203 4.305e-05 -0.0017426 -0.002165
0.012552 -0.0054786 0.00066386 -0.0031348
0.0030737 0.0092043 -0.019242 9.7112e-05 -0.15568 0.24957 -0.00092117 -0.0053039
-0.0038385 -0.0026595 0.0093913 -0.0033369
0.0087023 -0.0042971 -0.0017708 -0.0021551 -0.00092417 -0.0052947 -0.26257 0.14012
-0.039677 -0.021037 0.013041 0.027713
0.012134 -0.000564 0.012566 -0.0055218 -0.003865 -0.0026344 -0.039726 -0.020939
-0.21554 -0.085447 -0.04332 0.012577
0.001537 -0.0021008 0.00068975 -0.0031795 0.0093927 -0.0033497 0.012941 0.027716
-0.043279 0.01246 -0.24522 -0.033343
680000000 -0.24187 0.17414 -0.026374 -0.014954 0.0045894 0.0057089 0.0013145 -0.0073066
-0.0020258 -0.011713 0.0061588 -0.0062868
-0.026333 -0.014975 -0.39056 0.13677 -0.033116 -0.0022889 -0.0019498 -0.00039865
-0.0013739 -0.0096436 -0.00059825 -0.0017294
0.0046358 0.0057071 -0.033165 -0.0022124 -0.10839 0.27232 -0.0010431 -2.6728e-05
-0.0014044 0.00069952 -0.00305 -0.0091886
0.0012838 -0.0073149 -0.0019524 -0.00039067 -0.0010331 -3.5148e-05 -0.21951 0.19174
-0.022768 -0.0081843 -0.0093037 -0.012025
-0.0020961 -0.011709 -0.0013967 -0.0096439 -0.0014131 0.00069764 -0.022732 -0.0082191
-0.28209 0.015801 -0.0052437 -0.0079984
0.0059487 -0.0063388 -0.00060929 -0.0017163 -0.0030824 -0.0091943 -0.0093706 -0.012053
-0.0052757 -0.0079493 -0.26069 0.073698
740000000 -0.19586 0.16722 -0.041513 0.026433 0.014027 -0.0039835 0.00015965 -0.0040086
-0.0043177 -0.0018417 -0.0066993 0.0029238
-0.041453 0.026319 -0.33743 0.15647 -0.037442 0.034341 0.00016742 -0.0060958
-0.013376 0.0068482 -0.0017953 -0.0059009
0.014058 -0.0040039 -0.037384 0.034509 -0.075747 0.27313 -0.001416 0.0032753
-0.0019808 -0.0055931 -0.0019573 0.00066839
0.00018446 -0.0040263 0.00015759 -0.0061039 -0.0013992 0.0032992 -0.20308 0.19915
-0.043216 -0.0096922 0.02313 0.016242
-0.0043126 -0.0019963 -0.01341 0.0069196 -0.0019613 -0.0056568 -0.043291 -0.0096475
-0.1797 0.048654 -0.045451 -0.0013612
-0.0066453 0.0029818 -0.0017782 -0.0058886 -0.0019622 0.00070503 0.023209 0.016211
-0.045411 -0.0013758 -0.25183 0.07868
800000000 -0.16656 0.2129 -0.022669 0.015808 0.0058596 -0.010264 -0.0045654 -0.0019496
-0.0036583 0.0016509 0.0043458 0.0006755
-0.022666 0.015784 -0.34529 0.22758 -0.009112 0.034657 -0.002218 0.0022628
3.5449e-07 0.0025854 0.00074731 0.0051079
0.005792 -0.010298 -0.0090222 0.034731 -0.037214 0.29925 0.0011085 0.0013874
0.00012588 0.0031287 -0.0017268 0.00097443
-0.0046101 -0.001963 -0.0022215 0.0022589 0.0011029 0.0013789 -0.1749 0.22712
-0.029648 0.01287 0.014808 -0.01014
-0.003647 0.0016925 1.3938e-05 0.0025878 0.00014777 0.0031246 -0.029629 0.012919
-0.23183 0.074002 -0.018338 0.019819
0.0043728 0.00062385 0.00078035 0.0051202 -0.0017289 0.00098969 0.014837 -0.010123
-0.018315 0.019828 -0.24798 0.13084
860000000 -0.13308 0.23404 -0.018809 0.030554 -0.0031715 -0.010354 -0.0019613 0.00052291
0.0033991 0.0052934 -0.0036137 -0.0031061
-0.018817 0.030508 -0.29891 0.2729 0.0072995 0.035036 -4.3178e-05 0.0019881
0.0034597 0.00078676 0.0038072 9.3755e-05
-0.0031966 -0.010358 0.0074161 0.035067 0.010786 0.30966 -0.00064453 -0.00055872
0.002359 -0.0016641 0.0017925 0.0042627
-0.0019322 0.00048625 -4.0608e-05 0.0019787 -0.00064537 -0.0005541 -0.13917 0.23915
-0.018887 0.01777 -0.0065886 -0.0095988
0.003381 0.0052395 0.0034591 0.0007786 0.0023522 -0.001666 -0.018907 0.017802
-0.17901 0.1341 -0.025943 0.015773
-0.0036061 -0.003076 0.0038099 9.3047e-05 0.0018117 0.0042637 -0.0065569 -0.0096346
-0.025907 0.015745 -0.19901 0.17821
920000000 -0.11025 0.25806 0.0041231 0.039623 -0.0094926 -0.0047831 -0.0017934 0.0017133
0.0001865 0.0017844 0.003202 -0.0013086
0.004102 0.039599 -0.27228 0.29515 0.028243 0.023418 0.0014458 0.0011836
0.0069363 -0.00038515 0.0039181 -0.0030651
-0.00952 -0.0047574 0.028379 0.023371 0.057423 0.31223 0.0016693 -2.9692e-05
0.00064701 -0.00052498 0.0008997 -0.0014342
-0.0017963 0.0017219 0.0014613 0.0011638 0.0016713 -2.4214e-05 -0.11535 0.25639
-0.012352 0.031152 0.0036651 -0.006861
0.00017708 0.0017801 0.0069072 -0.00039709 0.00065129 -0.00053915 -0.012293 0.031188
-0.17024 0.13796 -0.0028184 0.02808
0.0031907 -0.0013101 0.0039078 -0.003053 0.00089985 -0.0014264 0.0036919 -0.0068179
-0.0028372 0.028062 -0.20919 0.19129
980000000 -0.064086 0.27988 0.016446 0.031105 -0.0096342 0.004718 0.0019483 0.0035262
0.0038352 -0.0015601 -0.0035591 -0.0026814
0.016414 0.031104 -0.22039 0.33245 0.03364 0.0055158 0.0018551 -0.00024057
0.0016609 -0.0061907 -0.00045304 -0.0027828
-0.0096318 0.0047476 0.033714 0.0054253 0.10413 0.30714 0.00051521 -0.0011384
0.00020221 -0.0018117 0.0015452 -0.00030849
0.0019622 0.003547 0.0018729 -0.00025508 0.00052238 -0.0011326 -0.076587 0.26823
0.0070272 0.030958 -0.0094365 -0.0081207
0.0038189 -0.0015675 0.0016118 -0.0062354 0.00020127 -0.0018068 0.0070755 0.030968
-0.13943 0.173 0.0047794 0.020974
-0.003556 -0.002665 -0.00047946 -0.0027589 0.0015406 -0.0003197 -0.009412 -0.0081495
0.0047699 0.020937 -0.16639 0.23949
1040000000 -0.023357 0.28992 0.033485 0.020195 -0.0011808 0.0077371 0.0026164 0.00067823
0.00024533 -0.0033549 -0.0001007 -0.0016065
0.033461 0.020226 -0.18529 0.34707 0.030292 -0.014528 0.0013902 -0.0017413
-0.002478 -0.0027456 -0.0010417 -0.0029112
-0.0011631 0.0077279 0.030298 -0.014649 0.15087 0.29485 -0.0005485 -0.0014111
-0.0016544 -0.0010456 -0.00059911 -0.0011042
0.002582 0.00067735 0.0013986 -0.0017614 -0.00055094 -0.0014191 -0.049518 0.27877
0.019276 0.019856 -0.002498 0.001384
0.00024389 -0.0033487 -0.0025368 -0.0027372 -0.0016505 -0.0010292 0.019337 0.019812
-0.10737 0.1823 0.013728 0.020172
-0.00011886 -0.0016433 -0.0010576 -0.0028909 -0.00058896 -0.0011207 -0.002499 0.0013967
0.013704 0.020188 -0.14574 0.26094
1100000000 0.021775 0.30027 0.037381 -0.002768 0.003589 0.004336 0.0023988 -0.0011004
-0.0023296 -0.0030012 -0.004208 0.00012824
0.037357 -0.0027446 -0.14176 0.36737 0.015776 -0.028151 -0.00016944 -0.001832
-0.0036315 -0.00074353 -0.0037046 -0.00050103
0.0036069 0.0043339 0.015686 -0.028247 0.19793 0.27557 -0.0017471 0.00033841
-0.0016644 0.00066829 -0.0011584 -0.00058136
0.0023921 -0.0010879 -0.00016798 -0.0018356 -0.0017464 0.0003378 -0.0087284 0.28425
0.025512 0.0062854 -0.0027657 0.00047398
-0.0023478 -0.0029832 -0.0036464 -0.00072514 -0.0016553 0.00068339 0.025535 0.0062497
-0.0899 0.1986 0.01984 0.010223
-0.0042125 0.00015063 -0.0037274 -0.00045819 -0.001163 -0.00057582 -0.0027198 0.00043211
0.019801 0.010214 -0.10109 0.29338
1160000000 0.072897 0.29768 0.025687 -0.020306 0.00355 -0.00073728 -0.00019893 -0.0023517
-0.0041494 -0.000866 -0.00098576 0.0040778
0.025691 -0.020253 -0.097919 0.37281 -0.0037085 -0.029382 -0.0016072 -0.001506
-0.0025051 0.0025414 -0.0014622 0.001882
0.0035479 -0.00076504 -0.0038329 -0.029399 0.24183 0.24533 -0.00056908 0.0017038
-0.00046335 0.0018122 -0.0010586 0.00028791
-0.00021126 -0.0023431 -0.0015982 -0.0015112 -0.00056732 0.0017007 0.030928 0.28154
0.022595 -0.010333 -0.0036411 0.0051991
-0.0041521 -0.00084663 -0.002527 0.0025343 -0.00046335 0.0018169 0.022602 -0.010365
-0.055211 0.21 0.020011 0.00045647
-0.00094952 0.0040745 -0.001465 0.0019128 -0.0010558 0.00028677 -0.0036691 0.0051946
0.019994 0.00044682 -0.053745 0.29712
1220000000 0.11671 0.28919 0.012258 -0.03069 -0.0010796 -0.0015784 -0.00012984 -0.00097859
-0.002786 0.0021925 0.0011627 0.0020971
0.012273 -0.030648 -0.052925 0.38757 -0.017187 -0.021414 -0.0025402 0.00061784
8.2847e-05 0.0030637 -0.00079128 0.0020505
-0.0010872 -0.0015759 -0.017316 -0.021361 0.28134 0.20673 0.00093969 0.0015352
0.00061671 0.0011543 0.00015551 0.00060772
-0.00011361 -0.00097855 -0.0025384 0.00062303 0.00093478 0.0015277 0.070971 0.27344
0.011387 -0.017642 0.0023218 0.0016461
-0.0027693 0.0022218 9.1535e-05 0.0030694 0.00062489 0.001157 0.011382 -0.01766
-0.032553 0.22182 0.015122 -0.012696
0.0011613 0.0021014 -0.00079285 0.0020504 0.00015828 0.00059825 0.0022967 0.0016322
0.015125 -0.012696 -0.022989 0.31497
1280000000 0.16774 0.26973 -0.0071148 -0.029863 -0.0020458 0.0016443 -0.00093481 -0.0019916
-0.0010385 0.0034239 0.002538 0.0012472
-0.0070978 -0.029842 -0.0055549 0.37941 -0.024248 -0.0080407 -0.00073468 0.0014204
0.0016862 0.0016934 0.00057247 0.0019489
-0.0020281 0.0016621 -0.024325 -0.0079406 0.31245 0.16308 0.0014257 -0.00020446
0.0010955 0.00033053 0.00021746 0.00044874
-0.00093971 -0.0019898 -0.00072173 0.001431 0.0014162 -0.00020127 0.10792 0.25684
0.0013619 -0.020151 3.3541e-05 -6.2034e-06
-0.0010124 0.0034214 0.0016937 0.0016832 0.0011012 0.00033107 0.0013321 -0.020161
0.0047887 0.22789 0.0039871 -0.016041
0.0025522 0.0012508 0.00058268 0.0019487 0.00022284 0.00045024 -4.0948e-06 -2.7242e-06
0.0039748 -0.016053 0.025087 0.31909
1340000000 0.20544 0.23772 -0.017378 -0.020259 0.00027495 0.0042158 -0.0018771 -0.00072102
0.0015965 0.0028803 0.0018745 -0.0013396
-0.017347 -0.020257 0.033853 0.37201 -0.021255 0.0049108 -0.00012951 0.0019277
0.0019094 0.00080523 0.0012367 0.00074028
0.00029881 0.004218 -0.021266 0.0050151 0.335 0.1157 0.00083712 -0.00099353
0.00068602 -0.00052057 0.000155 0.00031054
-0.0018924 -0.00072943 -0.00012827 0.0019366 0.00083823 -0.00099448 0.14065 0.23664
-0.0088477 -0.017304 0.0008927 0.00045968
0.0016137 0.0028818 0.0019177 0.0008018 0.00069131 -0.00052519 -0.008873 -0.017283
0.034878 0.22581 -0.0034559 -0.014502
0.0018319 -0.0013704 0.0012436 0.00071981 0.00015528 0.00030581 0.00087035 0.00049425
-0.0034418 -0.01451 0.062838 0.31539
1400000000 0.24041 0.20108 -0.024048 -0.008602 0.0048224 0.0032119 -0.0020973 0.00078937
0.0027018 0.0010322 0.00027995 -0.0014491
-0.024016 -0.0086043 0.07241 0.35947 -0.014172 0.012843 0.0012291 0.0012216
0.0011068 -0.00071389 0.001082 0.00011958
0.0048353 0.0031929 -0.014134 0.012932 0.34865 0.062081 -0.00015058 -0.0013549
0.00015643 -0.00019352 0.00041227 0.00033246
-0.0020839 0.00079695 0.0012527 0.0012191 -0.00015275 -0.0013552 0.17031 0.20797
-0.015285 -0.0099481 -0.00079338 -0.00018612
0.0027072 0.0010216 0.0011042 -0.00071375 0.00016172 -0.00019482 -0.015321 -0.0099224
0.069034 0.22372 -0.010051 -0.0093672
0.00028851 -0.0014347 0.0010796 0.00011978 0.00041841 0.00033486 -0.00078759 -0.00017119
-0.010063 -0.0093903 0.10861 0.30637
1460000000 0.26398 0.15785 -0.021214 0.004371 0.0052095 -0.001676 -0.0014564 0.0016803
0.0023164 -0.00046051 -0.00027413 -0.000821
-0.021191 0.0043632 0.10654 0.33745 -0.0049146 0.015221 0.0015959 0.00024919
0.0010148 -0.0012195 0.0012384 -0.00065412
0.0051967 -0.0017184 -0.0048404 0.01528 0.35509 0.0075903 -0.0011034 -0.00098796
0.00033851 -0.00021336 0.00062276 -0.000491
-0.0014636 0.0016948 0.0015962 0.00024509 -0.0011063 -0.00099383 0.19664 0.17916
-0.016212 -0.0027332 -0.00094349 0.0019675
0.0023062 -0.00046363 0.0010123 -0.0012269 0.0003394 -0.00020466 -0.016223 -0.0026969
0.098528 0.21143 -0.012232 -0.0031242
-0.00030474 -0.00086933 0.0012454 -0.00067414 0.00060993 -0.00049337 -0.00091555 0.0019817
-0.012228 -0.0031209 0.14207 0.28618
1520000000 0.27736 0.11709 -0.01557 0.01027 0.0031645 -0.0039703 0.00024095 0.002656
0.0023937 -0.0019655 -0.0010729 -0.00010491
-0.015561 0.010251 0.14022 0.32407 0.0025115 0.012313 0.0016462 -0.00061029
0.00014503 -0.00097748 0.0002989 -0.0009798
0.0031426 -0.0039879 0.0025775 0.01231 0.34794 -0.048586 -0.00080305 -0.00025373
0.00069018 -0.00094919 0.0001293 -0.00013733
0.00024654 0.0026724 0.0016424 -0.00062445 -0.00080554 -0.0002528 0.2202 0.14136
-0.015175 0.0033076 0.0015887 0.0019724
0.0023834 -0.0019773 0.00013671 -0.00098447 0.00069534 -0.00094862 -0.015171 0.0033384
0.12712 0.20015 -0.012162 0.001707
-0.0010729 -8.6507e-05 0.00028519 -0.0009921 0.00013347 -0.00014288 0.0016213 0.0019635
-0.012174 0.0016997 0.17577 0.2677
1580000000 0.28792 0.071636 -0.0086325 0.013961 -0.0011103 -0.00456 0.0014536 0.0017602
-0.00028446 -0.0023649 -0.00010073 0.00042615
-0.0086354 0.013956 0.16769 0.29945 0.0056559 0.0069512 0.00061321 -0.0015114
-0.00042215 -0.0010858 -0.00023391 -0.00072188
-0.0011246 -0.0045566 0.0056981 0.0069239 0.32804 -0.10606 -0.0014257 0.00027861
-0.0005122 -0.0013396 0.00027603 -0.00060852
0.0014702 0.0017625 0.00060667 -0.001519 -0.0014192 0.00026969 0.23434 0.10242
-0.011011 0.0084552 0.0020877 0.0006946
-0.00029806 -0.0023686 -0.00043866 -0.001091 -0.00053054 -0.0013396 -0.011 0.0084782
0.15232 0.18432 -0.0094916 0.0078969
-8.2017e-05 0.00042701 -0.00022823 -0.00072001 0.0002854 -0.00059134 0.0020951 0.00069312
-0.0094925 0.007911 0.20912 0.24204
1640000000 0.29097 0.031244 -0.0014923 0.012705 -0.0029143 -0.0021867 0.0027406 0.0010413
-0.00078149 -0.0016777 -0.00044106 0.00036122
-0.0014976 0.012717 0.19702 0.27603 0.0055827 0.0020278 -0.00051746 -0.0018205
-0.00092446 -0.00051379 -0.00047988 -0.00064858
-0.002918 -0.0021683 0.0055941 0.0020053 0.29921 -0.1547 -0.00076437 0.0012202
-0.0010846 -0.0010407 -0.0001674 -0.00043691
0.002754 0.0010273 -0.00052316 -0.0018187 -0.00076655 0.0012144 0.2471 0.054107
-0.0064518 0.0090808 0.002554 -0.00063335
-0.00079105 -0.001681 -0.00091999 -0.00049922 -0.0010963 -0.0010405 -0.0064267 0.0091018
0.17547 0.16285 -0.0043355 0.0099819
-0.00044537 0.00037511 -0.00048232 -0.00064894 -0.0001787 -0.00043755 0.0025644 -0.00066632
-0.0043022 0.0099861 0.23517 0.2123
1700000000 0.28543 -0.013417 0.0021839 0.0096718 -0.0032982 0.00035611 0.0031093 -0.001249
-0.0021952 -0.00059206 0.00050283 0.00038704
0.0021608 0.009665 0.21592 0.24525 0.0028449 -0.00057494 -0.0014434 -0.00071789
-0.00076973 -0.00010547 -0.00079814 -0.00041483
-0.003291 0.00037925 0.0028413 -0.00059224 0.25597 -0.19384 8.9334e-05 0.0015741
-0.0020576 -2.6467e-05 -0.00038853 -0.00089116
0.0030964 -0.0012647 -0.0014514 -0.0006982 8.7587e-05 0.0015744 0.24476 0.0044028
-0.0036566 0.0091302 0.0016113 -0.0021899
-0.0021985 -0.00057212 -0.00077898 -9.8734e-05 -0.0020631 -2.4282e-05 -0.003645 0.0091314
0.19461 0.14526 0.00051342 0.0098325
0.00053105 0.00038377 -0.00080028 -0.00040841 -0.00040806 -0.00088874 0.001575 -0.0022034
0.00051967 0.0098239 0.25329 0.17913
1760000000 0.27471 -0.061789 0.0044211 0.0062183 -0.0020991 0.001242 0.0012952 -0.0035172
-0.001276 0.00068882 0.00012932 -0.00054493
0.0044096 0.0062144 0.24212 0.20646 2.9959e-05 -0.0018576 -0.0012566 3.0119e-06
-0.0011189 0.00088855 -0.0005763 0.00034479
-0.0020948 0.0012551 2.6305e-05 -0.0018661 0.20732 -0.22634 0.0011542 0.0013582
-0.0012019 0.0014528 -0.0013422 -0.00066878
0.0012804 -0.0035188 -0.0012541 1.3868e-05 0.0011519 0.0013491 0.23632 -0.047066
-0.00079265 0.007937 -3.6092e-05 -0.0023682
-0.0012682 0.00068602 -0.0011146 0.00089284 -0.0011965 0.0014535 -0.00077759 0.0079363
0.21025 0.11287 0.0047313 0.0072466
9.7546e-05 -0.00054697 -0.00057649 0.00035433 -0.0013495 -0.00066608 -4.7768e-05 -0.0023944
0.0047665 0.0072398 0.26687 0.14139
1820000000 0.25215 -0.09904 0.0044507 0.0026468 7.6498e-05 0.002436 -0.00092484 -0.0030964
-0.0010966 0.00093066 -0.00015819 -8.0224e-06
0.0044411 0.0026467 0.25352 0.17762 -0.002163 4.0346e-05 -0.0014835 0.00092209
-0.00011746 0.0011922 -0.00064948 0.00039039
9.5378e-05 0.002433 -0.0021662 5.0242e-05 0.15732 -0.24136 0.0017604 0.00051067
-0.00018092 0.0022379 -0.0019487 0.00025465
-0.00095825 -0.0031076 -0.0014829 0.00092681 0.0017604 0.00051357 0.20765 -0.094491
0.00045123 0.0064867 -0.0017189 -0.0018106
-0.0010895 0.00092491 -0.00010448 0.0011976 -0.00019147 0.0022473 0.00047548 0.0064835
0.22995 0.086613 0.0055237 0.0032049
-0.00016887 -8.8982e-06 -0.00065811 0.00040182 -0.0019451 0.0002983 -0.0017371 -0.0018028
0.0055177 0.0031825 0.27078 0.10673
1880000000 0.21868 -0.14032 0.0021788 0.00058595 -0.00020017 0.0024375 -0.0029153 -0.0024132
-0.00013005 0.0016084 0.00026619 -0.00059163
0.0021697 0.00058425 0.25868 0.1315 -0.0040003 0.0029411 -0.00033141 0.0018632
0.00051872 0.0013869 9.0621e-05 0.00095702
-0.00019295 0.0024273 -0.003989 0.0029814 0.10556 -0.24932 0.0019602 -0.0010144
0.0016868 0.0020473 -0.00097398 0.0014795
-0.0029532 -0.0023926 -0.00031475 0.0018796 0.001976 -0.0010129 0.16728 -0.13562
0.00095471 0.0047003 -0.0023708 0.00017599
-0.0001066 0.0015948 0.00053242 0.0013748 0.0017003 0.002043 0.00096712 0.0046951
0.23609 0.057017 0.0057476 0.0009395
0.00022399 -0.00060594 9.0655e-05 0.00094781 -0.00099495 0.0014551 -0.0023655 0.00014217
0.0057655 0.00093113 0.27225 0.07206
1940000000 0.18027 -0.16699 0.00020712 -0.0010706 0.001975 0.0017588 -0.0037845 0.00035717
0.0012505 0.00080139 -0.00055533 -0.000714
0.00020528 -0.0010603 0.26091 0.10053 -0.0016691 0.0058218 0.00098653 0.0014056
0.0019146 0.00051854 0.00089849 0.00017172
0.0019707 0.0017594 -0.0016393 0.0058454 0.062098 -0.24136 0.00050396 -0.0024832
0.0022022 0.00037202 0.00030414 0.0018234
-0.0037631 0.00036947 0.0010154 0.0013985 0.00050161 -0.0024764 0.11564 -0.16673
0.00017868 0.0035156 -0.0018688 0.0014367
0.0012653 0.00080582 0.0019236 0.00049242 0.0022051 0.00037782 0.0001899 0.0035338
0.2416 0.021142 0.0041718 -0.0029971
-0.00055031 -0.00067016 0.00090064 0.00017351 0.00033226 0.0018417 -0.0018473 0.0014778
0.0041581 -0.0030137 0.26204 0.036427
2000000000 0.13472 -0.18262 -0.003487 0.00099647 0.0028573 0.0010898 -0.0024431 0.0037049
0.00083299 0.00037648 -0.00072515 0.00048909
-0.003493 0.00098706 0.24826 0.065043 -0.00040937 0.0076152 0.0017101 0.00037512
0.0012255 -0.0012558 0.00039806 0.00014682
0.0028645 0.0010724 -0.00036094 0.0076212 0.020664 -0.22815 -0.0015365 -0.0015621
0.0020352 -0.0010328 0.0017297 0.0015095
-0.0024264 0.0037327 0.0017155 0.00036936 -0.0015381 -0.0015578 0.062066 -0.17811
-0.0011891 0.003525 0.00012779 0.0023358
0.00082633 0.00037438 0.0012124 -0.0012661 0.0020343 -0.0010379 -0.0011812 0.0035197
0.2401 -0.01111 0.00042299 -0.0037695
