!Keysight Technologies,M9804A,MY58100912,A.14.10.03
!Date: Thursday, April 27, 2023 10:28:33
!Correction: S11(C  6-Port  ) 
!S12(C  6-Port  ) 
!S13(C  6-Port  ) 
!S14(C  6-Port  ) 
!S15(C  6-Port  ) 
!S16(C  6-Port  ) 
!S21(C  6-Port  ) 
!S22(C  6-Port  ) 
!S23(C  6-Port  ) 
!S24(C  6-Port  ) 
!S25(C  6-Port  ) 
!S26(C  6-Port  ) 
!S31(C  6-Port  ) 
!S32(C  6-Port  ) 
!S33(C  6-Port  ) 
!S34(C  6-Port  ) 
!S35(C  6-Port  ) 
!S36(C  6-Port  ) 
!S41(C  6-Port  ) 
!S42(C  6-Port  ) 
!S43(C  6-Port  ) 
!S44(C  6-Port  ) 
!S45(C  6-Port  ) 
!S46(C  6-Port  ) 
!S51(C  6-Port  ) 
!S52(C  6-Port  ) 
!S53(C  6-Port  ) 
!S54(C  6-Port  ) 
!S55(C  6-Port  ) 
!S56(C  6-Port  ) 
!S61(C  6-Port  ) 
!S62(C  6-Port  ) 
!S63(C  6-Port  ) 
!S64(C  6-Port  ) 
!S65(C  6-Port  ) 
!S66(C  6-Port  ) 
!S6P File: Measurement: :
# Hz S  RI   R 50
500000000 -0.32888 -0.066521 -0.0099994 -0.0012193 -0.0081514 0.012341 -0.0047824 0.012268
0.013702 0.0057046 -0.0058131 0.008685
-0.010049 -0.0011986 -0.41031 -0.07673 0.0084014 -0.010815 0.00029269 0.011764
0.0092304 0.0033731 -3.1307e-05 0.013378
-0.008224 0.012382 0.0083334 -0.010812 -0.25986 0.18876 0.0063515 0.0035845
-0.0014883 0.0082797 0.00023702 0.012571
-0.0046858 0.012141 0.00041216 0.011734 0.006492 0.0036081 -0.32858 0.039512
-0.019575 -0.0051269 0.014882 0.028037
0.013499 0.005873 0.0091577 0.0035032 -0.0015438 0.0083779 -0.019522 -0.0051276
-0.22304 -0.23032 -0.02736 0.0040198
-0.0056414 0.0086113 -3.0233e-05 0.013293 0.00030245 0.012522 0.014787 0.02805
-0.027616 0.0039926 -0.26479 -0.14341
560000000 -0.31765 0.10173 -0.022353 -0.067564 0.00064872 0.012869 0.0056067 0.010887
0.011536 0.0049643 0.011648 0.010216
-0.022525 -0.067589 -0.37194 0.089479 -0.041588 -0.039238 0.013954 0.0033694
-0.013848 -0.0064765 0.0047484 -0.001287
0.00081496 0.012922 -0.041793 -0.039403 -0.18359 0.23993 -0.00021624 -0.0054135
0.018576 0.0068012 0.0077449 -0.0052807
0.0058569 0.010988 0.013753 0.0033714 -0.00015529 -0.0054604 -0.30616 0.12874
0.0064867 -0.022025 0.0062582 -0.021994
0.011353 0.0046735 -0.014088 -0.0066269 0.018762 0.0069412 0.0065842 -0.022071
-0.30304 -0.047861 0.010593 -0.051638
0.011828 0.0098981 0.0045066 -0.0013708 0.0077747 -0.0053015 0.006155 -0.022062
0.011401 -0.051854 -0.33148 0.0067389
620000000 -0.27705 0.080764 -0.023651 0.0088769 0.0033901 0.0093783 0.008297 -0.0043974
0.012779 -0.0011917 0.00029451 -0.0016974
-0.023538 0.0088105 -0.4008 0.035211 -0.018837 0.00014661 -0.0016428 -0.0019276
0.012521 -0.0056588 0.00053374 -0.0022868
0.0034372 0.0093403 -0.018904 0.00015775 -0.15673 0.24969 -0.001341 -0.0055635
-0.0036521 -0.0024728 0.0086343 -0.0032289
0.0084654 -0.0043148 -0.0016685 -0.0018515 -0.0013965 -0.0054813 -0.2641 0.13866
-0.038923 -0.019829 0.012262 0.028805
0.012678 -0.0013537 0.012395 -0.0058019 -0.0036452 -0.0024482 -0.039061 -0.019894
-0.21739 -0.084268 -0.043228 0.01256
0.00038332 -0.0018337 0.00055043 -0.0022777 0.0086952 -0.0032154 0.011935 0.028555
-0.04313 0.012468 -0.24728 -0.027556
680000000 -0.24256 0.17338 -0.026209 -0.01533 0.0045784 0.0059355 0.0015028 -0.0075524
-0.0022728 -0.011288 0.0067455 -0.0072668
-0.026255 -0.01528 -0.39104 0.13687 -0.032851 -0.0027507 -0.0016303 -0.00054205
-0.0016463 -0.0095904 -0.00093039 -0.0019787
0.0045642 0.0060122 -0.03291 -0.0026722 -0.10859 0.27184 -0.00079058 2.0275e-05
-0.001369 0.00088684 -0.0027135 -0.0092075
0.001502 -0.0074132 -0.0016872 -0.00057806 -0.00089944 -7.4248e-06 -0.22023 0.19057
-0.022953 -0.0076617 -0.0094297 -0.011475
-0.0021937 -0.011353 -0.001625 -0.0096044 -0.0013457 0.00087522 -0.022989 -0.0076363
-0.28212 0.017833 -0.0055825 -0.0080037
0.0063663 -0.0069676 -0.00098957 -0.0018882 -0.0027495 -0.0092469 -0.0092111 -0.011376
-0.0055476 -0.0078628 -0.26219 0.074396
740000000 -0.19662 0.16711 -0.040803 0.02675 0.014049 -0.0036262 0.00012128 -0.004174
-0.0041211 -0.0022694 -0.0067973 0.002908
-0.040962 0.026637 -0.33688 0.15681 -0.038052 0.034704 0.00038696 -0.0058334
-0.013969 0.0066041 -0.0014621 -0.0058866
0.014041 -0.0037509 -0.037985 0.034871 -0.076006 0.27219 -0.0017939 0.0035326
-0.0021385 -0.0052821 -0.0018942 0.00071071
0.00011014 -0.0041075 0.00036977 -0.0060091 -0.0017406 0.0034953 -0.20438 0.19872
-0.043237 -0.0087709 0.0231 0.015903
-0.0039914 -0.0020847 -0.014055 0.0068328 -0.0021875 -0.0052284 -0.043261 -0.0085367
-0.17965 0.051473 -0.045428 9.5169e-05
-0.007043 0.0027368 -0.001411 -0.0060183 -0.0017214 0.0006916 0.022902 0.01592
-0.04528 -0.0001205 -0.25154 0.078738
800000000 -0.16632 0.21298 -0.02262 0.01595 0.0059422 -0.010402 -0.0041398 -0.002513
-0.0044813 0.0016182 0.0047804 0.0004771
-0.022513 0.01587 -0.34551 0.22788 -0.0092213 0.034559 -0.001998 0.0021682
-0.00045169 0.0022695 0.00088051 0.0053869
0.0060369 -0.010457 -0.0090712 0.034642 -0.037655 0.29817 0.0011413 0.0011872
4.8611e-06 0.0033222 -0.0017821 0.00056654
-0.0041239 -0.0024572 -0.0020114 0.0021887 0.0011271 0.0011873 -0.17515 0.22641
-0.029029 0.012853 0.015327 -0.010604
-0.0042924 0.0016388 -0.00036526 0.0022699 -3.2636e-05 0.0033153 -0.029052 0.012961
-0.23168 0.075476 -0.019167 0.020377
0.0048287 0.00054736 0.00095495 0.0053993 -0.0017915 0.00058095 0.01531 -0.010756
-0.019086 0.020406 -0.24652 0.13183
860000000 -0.13316 0.23377 -0.01856 0.03042 -0.0029067 -0.010398 -0.0017779 0.00072188
0.0040679 0.005338 -0.0038052 -0.002315
-0.018442 0.030327 -0.29908 0.27245 0.0070707 0.034908 0.00025054 0.0020535
0.0039545 0.00069602 0.0036609 0.00052732
-0.0029253 -0.010382 0.0072066 0.034938 0.010099 0.30845 -0.00046188 -0.00048855
0.0023342 -0.0016876 0.0020553 0.0043717
-0.0018161 0.00071137 0.00021804 0.0020456 -0.00044502 -0.00047711 -0.13927 0.23853
-0.018597 0.017624 -0.006808 -0.0096199
0.0042619 0.0053838 0.0040011 0.00071093 0.002365 -0.0016913 -0.018593 0.017699
-0.17704 0.13504 -0.02673 0.016501
-0.0037709 -0.0021275 0.0037601 0.00063299 0.0020674 0.0043065 -0.0066693 -0.0096447
-0.026887 0.016417 -0.19779 0.17806
920000000 -0.11039 0.25811 0.0040354 0.039488 -0.0093514 -0.0048722 -0.0018897 0.0017939
0.00014322 0.0014624 0.0030832 -0.001273
0.0040326 0.039457 -0.27248 0.29519 0.028113 0.023438 0.0013543 0.0013603
0.0072366 -0.00031628 0.0039603 -0.0030375
-0.0093895 -0.0048493 0.028216 0.023375 0.056474 0.31126 0.0017235 -5.4595e-05
0.00063174 -0.00061565 0.00083092 -0.0013142
-0.0018801 0.0017361 0.0013878 0.0013113 0.0017379 -1.3401e-05 -0.11563 0.25596
-0.012615 0.030863 0.0041603 -0.0070213
0.00015268 0.0014693 0.0072608 -0.00038248 0.00063295 -0.00058781 -0.012561 0.030827
-0.16957 0.13973 -0.0036326 0.0279
0.0030256 -0.0013185 0.0038809 -0.0029207 0.00082433 -0.0012961 0.0042027 -0.0069653
-0.0038368 0.028019 -0.20777 0.19216
980000000 -0.064654 0.2793 0.016125 0.031028 -0.0097759 0.0046238 0.00176 0.0036198
0.004002 -0.0015641 -0.0035892 -0.00257
0.016076 0.03103 -0.22037 0.33186 0.033498 0.0058699 0.0017077 -0.00026137
0.001833 -0.006129 -0.00034029 -0.0027736
-0.0097702 0.0046546 0.033574 0.00574 0.1029 0.30604 0.00041689 -0.001148
0.00030289 -0.0017659 0.0014855 -0.00034214
0.0017245 0.0036293 0.0017217 -0.00025434 0.00042574 -0.0011482 -0.077497 0.26727
0.0067149 0.030394 -0.009761 -0.0078837
0.0040152 -0.0015769 0.0018103 -0.006193 0.00029779 -0.00177 0.0067472 0.030422
-0.13912 0.17536 0.0050679 0.020866
-0.0035282 -0.0025265 -0.00039657 -0.0028378 0.0014865 -0.00032544 -0.0097726 -0.0078139
0.0049511 0.020785 -0.16649 0.23962
1040000000 -0.02397 0.28929 0.033311 0.020195 -0.0013686 0.007557 0.0025435 0.00087301
0.00035669 -0.0034798 6.4416e-05 -0.0017252
0.033252 0.02021 -0.18571 0.34657 0.030422 -0.01428 0.0013288 -0.0017096
-0.0023972 -0.0025172 -0.0013433 -0.0030946
-0.001314 0.0075625 0.030424 -0.014454 0.14918 0.29425 -0.000526 -0.0014724
-0.0015938 -0.00085031 -0.00066105 -0.0011586
0.0025575 0.00080788 0.0013545 -0.0017047 -0.0005278 -0.0014579 -0.050501 0.27791
0.018809 0.019431 -0.0024523 0.0012859
0.00026124 -0.0034032 -0.0024212 -0.0025603 -0.0016131 -0.00087849 0.018847 0.019388
-0.10688 0.18433 0.01402 0.019351
-0.0001168 -0.0017189 -0.0013779 -0.0031162 -0.00067011 -0.0011671 -0.0023751 0.0012802
0.013992 0.019371 -0.14589 0.26088
1100000000 0.020973 0.30024 0.037119 -0.0025361 0.0034946 0.0043559 0.0024438 -0.0010644
-0.002131 -0.0031356 -0.0044114 0.00011635
0.037076 -0.0025197 -0.14198 0.36655 0.016078 -0.027965 -9.8083e-05 -0.0018485
-0.0035496 -0.00077904 -0.0036661 -0.00045834
0.0034908 0.0043504 0.015978 -0.028082 0.19631 0.27522 -0.0018013 0.00033672
-0.001723 0.00074914 -0.0011348 -0.00050573
0.0024775 -0.001017 -8.4146e-05 -0.0018288 -0.0018072 0.00033537 -0.0098382 0.28326
0.024838 0.0063327 -0.0027353 0.0002251
-0.0022066 -0.0031189 -0.0035678 -0.00072802 -0.0017237 0.00074734 0.024843 0.0063054
-0.08823 0.20028 0.019734 0.01002
-0.0043266 1.5158e-05 -0.003656 -0.00052152 -0.0011201 -0.00047571 -0.002718 0.00021955
0.019818 0.010117 -0.10015 0.29351
1160000000 0.071768 0.29735 0.025671 -0.020162 0.0035069 -0.00062425 -0.00017681 -0.0024463
-0.004117 -0.0010112 -0.0011739 0.0040889
0.025673 -0.020147 -0.098625 0.37202 -0.0033749 -0.029454 -0.0015651 -0.0016205
-0.0026782 0.0026067 -0.0016389 0.0019816
0.0034948 -0.00061946 -0.0035086 -0.029493 0.23983 0.24535 -0.00061316 0.0016878
-0.0004248 0.0018248 -0.00098567 0.00037302
-0.00018564 -0.0024817 -0.0015904 -0.0015863 -0.00061289 0.0016868 0.029005 0.28076
0.021872 -0.010086 -0.0036568 0.0053526
-0.0041581 -0.0010599 -0.0026719 0.0026086 -0.0004122 0.0018353 0.021922 -0.010122
-0.054005 0.21088 0.019483 0.00047581
-0.0012017 0.0041351 -0.0016398 0.0020215 -0.00098057 0.00032752 -0.0036674 0.005376
0.019455 0.0004732 -0.053041 0.29728
1220000000 0.11588 0.28918 0.012344 -0.030461 -0.0011939 -0.0014831 -5.4491e-05 -0.00092669
-0.0028818 0.0022413 0.0011491 0.0021951
0.01234 -0.030444 -0.053855 0.38699 -0.01695 -0.021625 -0.0025648 0.00055985
7.8757e-05 0.0031022 -0.00081683 0.0019295
-0.0012118 -0.0014685 -0.017065 -0.021572 0.27972 0.20742 0.00094728 0.0015615
0.00065521 0.0010816 0.00022268 0.00059188
-2.2504e-05 -0.00089602 -0.002557 0.00055445 0.00092449 0.0015566 0.069088 0.27337
0.010944 -0.016893 0.0022379 0.0017289
-0.0028385 0.0022682 0.00011459 0.0031282 0.00065649 0.0010845 0.010909 -0.016882
-0.031666 0.22289 0.015198 -0.012763
0.001203 0.0021417 -0.00084276 0.0019427 0.00021876 0.00061523 0.0022125 0.0017424
0.015149 -0.01281 -0.023075 0.31529
1280000000 0.16678 0.26973 -0.006918 -0.029646 -0.0019686 0.0017662 -0.00093123 -0.0021117
-0.00086451 0.0035324 0.0026578 0.0012244
-0.0068528 -0.029616 -0.0068582 0.37887 -0.024226 -0.0084052 -0.00081716 0.0014601
0.0017567 0.0017934 0.00073975 0.0020581
-0.0019429 0.0017776 -0.024295 -0.0083223 0.31114 0.16375 0.0014786 -0.00016861
0.0010532 0.00040858 0.00035185 0.00047746
-0.00096919 -0.0020934 -0.00082983 0.0014751 0.0014658 -0.00017967 0.10584 0.25723
0.0013303 -0.019338 -6.7035e-05 0.00022436
-0.00088955 0.003564 0.0017584 0.0017763 0.0010539 0.00039827 0.0013181 -0.019328
0.0053192 0.22837 0.0039531 -0.016011
0.0027089 0.0012983 0.00081333 0.0020608 0.00037044 0.00046935 -8.8409e-05 0.00025737
0.0039531 -0.015997 0.025271 0.31856
1340000000 0.20426 0.23825 -0.017167 -0.020256 0.00037301 0.0043096 -0.0018466 -0.00074887
0.0014765 0.0028869 0.0018071 -0.0015148
-0.017134 -0.020186 0.03234 0.37215 -0.021431 0.0046278 -0.00014938 0.0019179
0.0019189 0.00084074 0.0012394 0.00080729
0.00039808 0.0043297 -0.021435 0.0047501 0.33374 0.11684 0.00081571 -0.00094303
0.00062607 -0.00066228 5.1994e-05 0.00022591
-0.0018234 -0.00076546 -0.00013898 0.0018922 0.00081919 -0.00095304 0.13888 0.23785
-0.0083046 -0.016535 0.0011147 0.00045714
0.0015404 0.0028608 0.0019325 0.00080886 0.00063076 -0.00067091 -0.0083542 -0.016545
0.03494 0.22674 -0.0029957 -0.014195
0.001772 -0.0015498 0.001223 0.00078916 3.5439e-05 0.0002125 0.001115 0.00040286
-0.0029878 -0.014389 0.062957 0.31524
1400000000 0.23954 0.20194 -0.023836 -0.0085804 0.0048383 0.0032722 -0.0021637 0.00071819
0.0027031 0.00089694 0.00038424 -0.0013468
-0.023819 -0.0086007 0.071279 0.35991 -0.014453 0.012786 0.0012568 0.0012912
0.001112 -0.00068872 0.0011862 0.00017706
0.0048393 0.0032537 -0.014425 0.01289 0.34783 0.063379 -9.8044e-05 -0.0014447
0.00013066 -0.00018013 0.00040705 0.00031026
-0.0021926 0.00075535 0.0012736 0.0012865 -7.5495e-05 -0.0014458 0.16923 0.20938
-0.014458 -0.0096416 -0.00083327 -0.0003103
0.0027119 0.00090247 0.0011175 -0.00069653 0.00013572 -0.00015665 -0.014428 -0.0096184
0.069345 0.22503 -0.010173 -0.0092581
0.0004031 -0.0013418 0.0012072 0.00013775 0.00041109 0.00030176 -0.00078428 -0.00030916
-0.010127 -0.0091548 0.10912 0.3059
1460000000 0.2633 0.1587 -0.020968 0.0041904 0.0053402 -0.0015959 -0.0015296 0.0017951
0.0022628 -0.00049681 -0.00029034 -0.00090796
-0.020953 0.0041763 0.10552 0.33818 -0.0052239 0.015419 0.0015968 0.00027302
0.0009733 -0.0011768 0.0012535 -0.00055167
0.0053247 -0.0016178 -0.0051534 0.015462 0.35447 0.0087858 -0.0011404 -0.0010599
0.00033444 -0.00026164 0.0006871 -0.00030191
-0.0015138 0.0017859 0.0015766 0.00024517 -0.0011678 -0.0010558 0.19598 0.1806
-0.015258 -0.002879 -0.00087941 0.0019051
0.0022631 -0.00048632 0.00098609 -0.0012064 0.00030363 -0.00027695 -0.01531 -0.0028477
0.098935 0.21293 -0.012204 -0.0031045
-0.00025598 -0.00093343 0.0012416 -0.00052688 0.00068895 -0.00029925 -0.00082317 0.0019167
-0.01225 -0.0030943 0.1418 0.28643
1520000000 0.27714 0.11833 -0.015469 0.010033 0.0032896 -0.0039879 0.00017521 0.0025894
0.0023368 -0.0020273 -0.0011583 -0.00010203
-0.015457 0.010012 0.13958 0.32503 0.0023673 0.012525 0.0016765 -0.00066149
0.00013809 -0.00093582 0.00034009 -0.0010003
0.0032883 -0.0040138 0.0024378 0.012535 0.34781 -0.047057 -0.0007754 -0.00024824
0.00062965 -0.00089887 7.638e-05 -0.00013136
0.00019625 0.00261 0.0016718 -0.00067172 -0.00077824 -0.00025768 0.22011 0.14303
-0.014681 0.0027098 0.0014461 0.0019951
0.0022933 -0.0020553 0.00012618 -0.00095065 0.00063754 -0.00089443 -0.014647 0.002742
0.12786 0.20211 -0.012007 0.0015775
-0.0011595 -0.00010295 0.00031972 -0.00098495 5.6343e-05 -0.00010924 0.0014053 0.0020162
-0.011992 0.0015099 0.17569 0.26777
1580000000 0.28779 0.072358 -0.0086965 0.0136 -0.001023 -0.0048284 0.0014932 0.0018591
-0.00031383 -0.0022805 -0.00024232 0.00039987
-0.008709 0.013579 0.16753 0.30013 0.005752 0.0071639 0.00057719 -0.0015339
-0.0004571 -0.0011048 -0.00019678 -0.00080815
-0.0010325 -0.0048202 0.0058055 0.0071205 0.32821 -0.10506 -0.0014191 0.00027382
-0.00042941 -0.0013662 0.0002676 -0.00062022
0.001504 0.0018325 0.00055885 -0.0015457 -0.0014053 0.00026197 0.23491 0.10328
-0.010863 0.0076417 0.0020982 0.00084344
-0.00035757 -0.0022722 -0.00045959 -0.0010862 -0.00043053 -0.0013694 -0.010873 0.0076581
0.1535 0.18608 -0.0093727 0.0077392
-0.00018506 0.0004124 -0.00023483 -0.00080285 0.00028603 -0.00065901 0.0021398 0.00079933
-0.0093429 0.0076392 0.20898 0.24204
1640000000 0.29097 0.032026 -0.0016849 0.01251 -0.0029692 -0.0023812 0.0027877 0.0010903
-0.00074026 -0.0015969 -0.00036831 0.00048536
-0.0016896 0.0125 0.1968 0.27678 0.0057106 0.0021562 -0.00050046 -0.0018567
-0.00089942 -0.00055192 -0.00050913 -0.00066329
-0.002974 -0.0023842 0.0057273 0.0021173 0.29904 -0.15354 -0.00068147 0.0011996
-0.0010819 -0.0010472 -0.00018488 -0.00044813
0.002786 0.0010799 -0.00051913 -0.0018659 -0.00067225 0.0012104 0.24766 0.054849
-0.006653 0.0084182 0.0025716 -0.00069566
-0.00073817 -0.0016188 -0.0009184 -0.00054243 -0.0010883 -0.001027 -0.0066181 0.0084694
0.17727 0.16476 -0.0045707 0.0097291
-0.00037448 0.00050475 -0.00052972 -0.00067839 -0.00015852 -0.00047228 0.0026174 -0.00070173
-0.0045387 0.0097518 0.23506 0.21239
1700000000 0.28589 -0.012687 0.001886 0.0096423 -0.0034824 0.00027211 0.003174 -0.0012699
-0.0021526 -0.00055055 0.00057576 0.00047605
0.0018857 0.0096414 0.21615 0.24566 0.0029278 -0.00059196 -0.0014812 -0.00070183
-0.00084851 -0.00015753 -0.00083929 -0.00039387
-0.0034635 0.00028206 0.0029356 -0.0006128 0.25635 -0.19323 3.4572e-05 0.0016399
-0.0021973 -3.1799e-05 -0.00039559 -0.00076037
0.0031649 -0.0012701 -0.0014882 -0.00069195 4.1156e-05 0.001619 0.24556 0.0046583
-0.0040429 0.0087904 0.0017325 -0.0021106
-0.0021402 -0.00050676 -0.00082171 -0.00016422 -0.0021958 -4.2554e-05 -0.004048 0.0087823
0.19715 0.14669 0.00048315 0.0098649
0.00060309 0.00043979 -0.0008258 -0.00038992 -0.00039338 -0.00074987 0.0016903 -0.0021031
0.00041437 0.0097991 0.25334 0.17913
1760000000 0.27503 -0.061453 0.004269 0.0063929 -0.0022117 0.0013126 0.001279 -0.0034917
-0.0012474 0.00068705 0.00026986 -0.00055706
0.0042595 0.0063764 0.24212 0.20655 0.00013738 -0.0018715 -0.0012764 8.6572e-05
-0.0012192 0.00088155 -0.00050337 0.00032299
-0.0021945 0.0013289 0.00012511 -0.0018873 0.20722 -0.22595 0.0010652 0.0013808
-0.0012239 0.0014715 -0.0012118 -0.00073616
0.0012592 -0.0035262 -0.0012675 6.9395e-05 0.0011024 0.0014185 0.23656 -0.047494
-0.00106 0.0078792 -0.00015633 -0.0025326
-0.0012564 0.00067991 -0.0012101 0.00088515 -0.0011908 0.0014908 -0.0010314 0.0078949
0.2132 0.11371 0.0044312 0.0070874
0.00027109 -0.00053107 -0.00051605 0.00035975 -0.0012434 -0.00069691 -0.00017019 -0.0025741
0.0044616 0.0070863 0.26682 0.14163
1820000000 0.25254 -0.098821 0.004473 0.0027724 0.0001405 0.0023204 -0.0009859 -0.0031507
-0.0010743 0.00084114 -0.00017819 -0.00016909
0.0044704 0.0027714 0.25364 0.17762 -0.0020284 -4.7211e-05 -0.0014734 0.00097137
-0.0001826 0.0012923 -0.00063876 0.000378
0.00015828 0.0022923 -0.0020256 -4.1375e-05 0.15775 -0.24054 0.0017467 0.00065603
-0.00024745 0.0023434 -0.0016398 0.0003493
-0.0010096 -0.0031592 -0.0014804 0.00098137 0.001735 0.00066682 0.20737 -0.095059
0.0002796 0.0065498 -0.0017277 -0.0016957
-0.0010341 0.00086476 -0.0001692 0.0013142 -0.00021288 0.0023376 0.00030892 0.0065227
0.23316 0.087098 0.0055277 0.0033802
-0.000179 -9.6575e-05 -0.00065947 0.00039802 -0.0015897 0.00041022 -0.0016885 -0.0016916
0.0055437 0.0033696 0.27092 0.10687
1880000000 0.21867 -0.14052 0.0022364 0.00058408 -0.00031034 0.0023642 -0.0029276 -0.0023284
-0.000192 0.0016441 0.00029566 -0.00057563
0.0022243 0.00059891 0.25861 0.13099 -0.0038718 0.002725 -0.00029576 0.0018788
0.00056192 0.0015236 0.00012549 0.00092588
-0.00029227 0.002377 -0.0038509 0.0027385 0.10631 -0.24927 0.0021694 -0.0010054
0.0016413 0.0020991 -0.00097439 0.001426
-0.0029524 -0.0023333 -0.00026172 0.0018628 0.0021517 -0.0010332 0.16692 -0.136
0.00092156 0.0046541 -0.0023866 0.00019899
-0.00021768 0.0016325 0.00057047 0.0015141 0.0016412 0.0021025 0.00091157 0.0046745
0.23923 0.056225 0.0055973 0.0010419
0.00032415 -0.00058897 0.0001105 0.00091456 -0.0010112 0.0014552 -0.0024844 0.00021359
0.0055682 0.0010728 0.27228 0.072258
1940000000 0.17985 -0.16684 0.0001291 -0.0011321 0.0016355 0.0020453 -0.0038625 0.00025879
0.0010533 0.00084518 -0.00059572 -0.00067104
0.00011476 -0.001112 0.26018 0.1002 -0.0021088 0.0055178 0.0011735 0.0014501
0.0020965 0.0005756 0.00083282 0.0003671
0.001665 0.002038 -0.0020617 0.0055566 0.061562 -0.24181 0.00053806 -0.0025058
0.0023323 0.0003947 0.0001003 0.001667
-0.0038809 0.0002815 0.0011706 0.0014663 0.00053143 -0.0025014 0.1141 -0.16685
-5.4077e-05 0.0034 -0.0015998 0.0014978
0.0010589 0.00082364 0.0021029 0.00055665 0.0023507 0.00038282 2.1773e-06 0.0033328
0.24419 0.019902 0.0042021 -0.002876
-0.0006673 -0.00060473 0.00079869 0.0003465 6.6345e-05 0.0017091 -0.001553 0.0014936
0.0041888 -0.0028979 0.26178 0.036775
2000000000 0.13489 -0.18242 -0.0034122 0.00096693 0.0030941 0.0014027 -0.0025153 0.0037355
0.00087582 0.00046927 -0.00074979 0.00047853
-0.0034223 0.00093664 0.24766 0.064834 -0.0006779 0.0078119 0.0016644 0.00032792
0.0013876 -0.0013957 0.00056915 0.00017276
0.0030925 0.0014151 -0.00062783 0.0078143 0.020286 -0.22747 -0.0016216 -0.0015703
0.002048 -0.0010795 0.0016279 0.0015
-0.0024782 0.0037644 0.0016788 0.00030196 -0.0016287 -0.0016166 0.061135 -0.17739
-0.0015427 0.0033153 3.5201e-05 0.002121
0.0008438 0.00050986 0.0013605 -0.0014092 0.0020308 -0.001064 -0.0015917 0.003358
0.2424 -0.013274 0.000729 -0.0038669
