!Keysight Technologies,M9804A,MY58100912,A.14.10.03
!Date: Thursday, April 27, 2023 10:28:33
!Correction: S11(C  6-Port  ) 
!S12(C  6-Port  ) 
!S13(C  6-Port  ) 
!S14(C  6-Port  ) 
!S15(C  6-Port  ) 
!S16(C  6-Port  ) 
!S21(C  6-Port  ) 
!S22(C  6-Port  ) 
!S23(C  6-Port  ) 
!S24(C  6-Port  ) 
!S25(C  6-Port  ) 
!S26(C  6-Port  ) 
!S31(C  6-Port  ) 
!S32(C  6-Port  ) 
!S33(C  6-Port  ) 
!S34(C  6-Port  ) 
!S35(C  6-Port  ) 
!S36(C  6-Port  ) 
!S41(C  6-Port  ) 
!S42(C  6-Port  ) 
!S43(C  6-Port  ) 
!S44(C  6-Port  ) 
!S45(C  6-Port  ) 
!S46(C  6-Port  ) 
!S51(C  6-Port  ) 
!S52(C  6-Port  ) 
!S53(C  6-Port  ) 
!S54(C  6-Port  ) 
!S55(C  6-Port  ) 
!S56(C  6-Port  ) 
!S61(C  6-Port  ) 
!S62(C  6-Port  ) 
!S63(C  6-Port  ) 
!S64(C  6-Port  ) 
!S65(C  6-Port  ) 
!S66(C  6-Port  ) 
!S6P File: Measurement: :
# Hz S  RI   R 50
500000000 -0.32742 -0.066055 -0.0095395 -0.0017694 -0.0077765 0.011764 -0.0042311 0.011713
0.01334 0.0064052 -0.0046554 0.0090133
-0.0094949 -0.00177 -0.40953 -0.075517 0.0090972 -0.011145 0.00070413 0.011948
0.0088306 0.0032782 0.00083468 0.013856
-0.0077598 0.011799 0.0090757 -0.011167 -0.25737 0.18858 0.0069103 0.0032031
-0.0020759 0.0082623 0.0015389 0.012243
-0.0042386 0.011705 0.00075169 0.011967 0.0069337 0.0031872 -0.32791 0.039333
-0.019925 -0.0044835 0.015154 0.02572
0.013174 0.0063055 0.0087705 0.0032576 -0.0021299 0.0082182 -0.019918 -0.0044731
-0.21595 -0.23988 -0.028107 0.0045009
-0.004787 0.0090068 0.00072331 0.013748 0.0014954 0.012214 0.014781 0.025875
-0.028063 0.0043933 -0.26286 -0.14512
560000000 -0.3181 0.10357 -0.021519 -0.067303 0.00014265 0.012982 0.005869 0.011004
0.012961 0.0049136 0.0099262 0.0094459
-0.021437 -0.067208 -0.37086 0.089037 -0.041175 -0.039419 0.014149 0.0036915
-0.013182 -0.0047889 0.0041813 -0.00104
0.00018406 0.012977 -0.041348 -0.039374 -0.18299 0.23922 -0.00060574 -0.0053518
0.018539 0.0067936 0.0076307 -0.0061389
0.0058609 0.010996 0.014146 0.0037042 -0.0005977 -0.005362 -0.30468 0.13033
0.0070105 -0.023027 0.0063955 -0.020714
0.013054 0.0049264 -0.013052 -0.0050434 0.01877 0.0068564 0.0071708 -0.023041
-0.3004 -0.055658 0.012696 -0.051114
0.010081 0.0095226 0.0041012 -0.0010654 0.0076182 -0.0060929 0.0065631 -0.020754
0.01268 -0.051038 -0.33057 0.0065021
620000000 -0.27681 0.080823 -0.022942 0.0084114 0.0028356 0.009045 0.0081339 -0.0042403
0.012364 -0.00050905 9.6903e-05 -0.0020065
-0.022936 0.0083838 -0.39992 0.035167 -0.019083 -0.00025289 -0.0015684 -0.0024085
0.012545 -0.004978 0.00060543 -0.0034516
0.0028439 0.0090272 -0.019119 -0.00019614 -0.15618 0.24912 -0.0010024 -0.0055234
-0.0045311 -0.0020695 0.0094311 -0.0032388
0.008098 -0.004256 -0.0015745 -0.0024116 -0.00097454 -0.0055321 -0.26181 0.13881
-0.039906 -0.020326 0.014542 0.027116
0.012373 -0.00041788 0.012545 -0.0050724 -0.0045795 -0.0019435 -0.040124 -0.019999
-0.2123 -0.094381 -0.044631 0.012155
8.3931e-05 -0.001973 0.00056107 -0.0034972 0.0093383 -0.0034754 0.01472 0.026559
-0.045072 0.012502 -0.24281 -0.030697
680000000 -0.24141 0.1736 -0.026288 -0.015333 0.0046223 0.0054458 0.001334 -0.0073657
-0.0017747 -0.011508 0.0065071 -0.0074734
-0.026254 -0.015341 -0.39076 0.13663 -0.032984 -0.0026334 -0.0018171 -0.00080316
-0.0018066 -0.0094028 -0.00082414 -0.002045
0.0046365 0.0054287 -0.03304 -0.0025453 -0.10904 0.27166 -0.0010109 6.7426e-05
-0.0014091 0.0008492 -0.0028142 -0.0093856
0.0012931 -0.0073251 -0.0018317 -0.00077794 -0.0010027 5.6881e-05 -0.22028 0.19098
-0.023012 -0.0074416 -0.0094139 -0.012075
-0.0017139 -0.011434 -0.0018098 -0.0093817 -0.0014301 0.00087514 -0.022996 -0.007377
-0.28151 0.0071188 -0.0053791 -0.0081354
0.006644 -0.0073715 -0.00080962 -0.0019805 -0.0028738 -0.0094825 -0.0094995 -0.011793
-0.0052751 -0.0080886 -0.26044 0.074019
740000000 -0.19642 0.16631 -0.041565 0.026516 0.01351 -0.0038662 0.00016448 -0.0038633
-0.0042053 -0.0018335 -0.0066492 0.0029107
-0.041534 0.026477 -0.33786 0.15734 -0.037962 0.033981 -0.00026285 -0.005911
-0.012968 0.0067054 -0.0018773 -0.0054661
0.013524 -0.0038646 -0.037906 0.034129 -0.075829 0.2728 -0.0014926 0.0032502
-0.0012167 -0.0050475 -0.0017483 0.00044414
0.00015166 -0.0038479 -0.00028276 -0.005938 -0.0014883 0.0032648 -0.20365 0.19899
-0.04298 -0.010782 0.022592 0.016791
-0.0041997 -0.0018627 -0.012903 0.0066837 -0.0011442 -0.0051373 -0.043168 -0.010804
-0.18099 0.045078 -0.044614 -0.0032564
-0.0067221 0.0028807 -0.0018343 -0.0054357 -0.0016118 0.00054265 0.022907 0.016697
-0.044854 -0.0035787 -0.25231 0.08064
800000000 -0.16668 0.21312 -0.023221 0.016021 0.005641 -0.010115 -0.0044966 -0.0024771
-0.0043485 0.0020678 0.0048765 0.0007718
-0.023212 0.016004 -0.34592 0.22799 -0.0094465 0.034597 -0.0022106 0.0020393
-0.00020445 0.0025652 0.00084359 0.0053585
0.0056007 -0.010127 -0.0093534 0.034681 -0.037407 0.29901 0.0011704 0.0011506
-0.00026316 0.0034984 -0.0012818 0.00091806
-0.0045329 -0.0024811 -0.002193 0.0020467 0.0011581 0.0011527 -0.17523 0.22693
-0.029145 0.012588 0.014874 -0.010224
-0.0043077 0.0021421 -0.0002099 0.0026076 -0.00021517 0.003535 -0.029115 0.012708
-0.23553 0.06703 -0.018432 0.020007
0.0047001 0.000691 0.00068422 0.005237 -0.0014157 0.00083446 0.014585 -0.010458
-0.018612 0.019987 -0.2471 0.13201
860000000 -0.1336 0.23393 -0.019019 0.03063 -0.0030747 -0.0099924 -0.0020758 0.00079275
0.0043919 0.0053442 -0.0038593 -0.0029128
-0.019009 0.0306 -0.29906 0.27307 0.0071368 0.034881 0.00037922 0.0020895
0.0038669 0.00022934 0.0035981 0.00044357
-0.0031055 -0.0099829 0.0072684 0.03491 0.010705 0.3093 -0.00052437 -0.00041904
0.002629 -0.0017935 0.0014312 0.0043955
-0.0020451 0.00081469 0.00038207 0.0021006 -0.00052518 -0.00042025 -0.13947 0.23923
-0.018717 0.017504 -0.0068234 -0.0094509
0.0044894 0.0052924 0.0039091 0.00011277 0.002657 -0.0018254 -0.018658 0.017517
-0.18102 0.12772 -0.027303 0.016103
-0.0036479 -0.0029028 0.003801 0.00046946 0.0015558 0.0044806 -0.0066575 -0.0092388
-0.027208 0.016202 -0.1986 0.17713
920000000 -0.11018 0.25815 0.0040091 0.039801 -0.0092598 -0.0044944 -0.0016808 0.001952
0.00023402 0.0017347 0.0031241 -0.0012102
0.0039789 0.039777 -0.2722 0.29565 0.028029 0.0235 0.0015173 0.0012509
0.0075353 -8.1842e-05 0.0041038 -0.0025912
-0.0092896 -0.0044804 0.028149 0.023439 0.057346 0.31163 0.001747 -3.0135e-05
0.00077596 -0.00044052 0.0010584 -0.001378
-0.0016868 0.0019568 0.0015252 0.0012647 0.0017476 -3.3952e-05 -0.11501 0.25631
-0.012485 0.030482 0.004062 -0.0063229
0.00027862 0.0018167 0.0074617 -0.0001529 0.00072391 -0.00043616 -0.012503 0.030519
-0.17319 0.13235 -0.0034477 0.028677
0.003109 -0.0012338 0.0041006 -0.0026255 0.0010262 -0.0013886 0.004134 -0.0065607
-0.0034324 0.028449 -0.20737 0.19242
980000000 -0.064363 0.2796 0.016374 0.031029 -0.0093586 0.0047103 0.0020212 0.0036496
0.0037268 -0.0019004 -0.0035629 -0.0023139
0.01632 0.031016 -0.21996 0.33242 0.033226 0.0057528 0.0019085 -0.00029827
0.0016136 -0.0061687 -0.00050434 -0.0026272
-0.0093432 0.0047354 0.033294 0.0056582 0.10377 0.30624 0.00052607 -0.0011605
0.00018319 -0.0017818 0.0015616 -0.00027718
0.0020462 0.0036702 0.0019037 -0.000301 0.00053325 -0.00116 -0.076872 0.26774
0.0066097 0.030228 -0.0095637 -0.0076294
0.0037797 -0.0018828 0.0016686 -0.006168 0.00021209 -0.0017643 0.0066515 0.030237
-0.14484 0.16969 0.0047124 0.021027
-0.0034856 -0.0023096 -0.00056295 -0.0026317 0.0015943 -0.00027398 -0.0095886 -0.0075457
0.0047243 0.021079 -0.16666 0.23938
1040000000 -0.023759 0.28988 0.033077 0.020361 -0.0010933 0.0075619 0.0025773 0.00055229
0.00012306 -0.0037913 -0.00051424 -0.0015137
0.033005 0.02038 -0.18505 0.34705 0.030115 -0.014107 0.0015288 -0.0018535
-0.0025515 -0.0024857 -0.0010592 -0.00279
-0.0010714 0.0075647 0.030119 -0.014225 0.14998 0.294 -0.00046855 -0.0014455
-0.0015648 -0.00096657 -0.00051716 -0.0011573
0.0025805 0.00053073 0.0015374 -0.0018569 -0.00047143 -0.0014567 -0.049753 0.27809
0.018539 0.019555 -0.0025693 0.0014181
0.0001279 -0.0038082 -0.0026028 -0.0025289 -0.0015797 -0.00098685 0.018586 0.019423
-0.1122 0.17858 0.013122 0.020512
-0.00054205 -0.0014342 -0.0010123 -0.0028179 -0.00048311 -0.0011423 -0.0025792 0.0015966
0.01319 0.020696 -0.14584 0.26109
1100000000 0.021646 0.30072 0.037086 -0.0023199 0.003598 0.0041828 0.0023534 -0.001012
-0.0023169 -0.0032238 -0.0041595 9.3073e-05
0.037053 -0.0022955 -0.14128 0.36685 0.015885 -0.027595 -0.00017578 -0.0017648
-0.0034066 -0.0008451 -0.0035235 -0.00052251
0.0036204 0.0041677 0.015806 -0.027697 0.19669 0.27501 -0.0017399 0.000275
-0.0016817 0.00062089 -0.0011701 -0.00069457
0.002332 -0.0010244 -0.00018291 -0.0017561 -0.0017418 0.00027145 -0.009077 0.28338
0.02444 0.0068337 -0.0026747 0.00024491
-0.0023225 -0.0032303 -0.0034165 -0.0008291 -0.0016751 0.00064252 0.024424 0.0068347
-0.094911 0.19666 0.020258 0.010342
-0.004203 6.5776e-05 -0.0035674 -0.00056078 -0.0011934 -0.00069845 -0.0025452 0.00018927
0.020076 0.010318 -0.10092 0.29296
1160000000 0.072638 0.29751 0.025627 -0.019813 0.0035385 -0.00078255 -0.00020805 -0.002537
-0.00417 -0.00091868 -0.0012094 0.004107
0.025623 -0.019765 -0.097687 0.37188 -0.0032053 -0.028976 -0.0015554 -0.0015158
-0.0026286 0.0025395 -0.0015835 0.0020758
0.0035456 -0.00081154 -0.0033239 -0.028991 0.2401 0.24533 -0.00059844 0.0016261
-0.00053804 0.0017744 -0.0010255 0.0003493
-0.00020405 -0.0025426 -0.0015499 -0.0015035 -0.00059565 0.0016225 0.030065 0.28075
0.021907 -0.009457 -0.0033046 0.0054096
-0.0041824 -0.00094665 -0.0026674 0.0024941 -0.0005288 0.0017978 0.021904 -0.009462
-0.059209 0.20814 0.019091 0.0016958
-0.0011596 0.0041889 -0.0014539 0.002008 -0.00097333 0.00038653 -0.0033633 0.0053529
0.019291 0.0017516 -0.052239 0.29633
1220000000 0.11669 0.28905 0.012554 -0.030131 -0.0011439 -0.0016646 -2.8705e-05 -0.00089848
-0.0028045 0.0023419 0.0013037 0.0020523
0.012553 -0.030084 -0.053348 0.38649 -0.016536 -0.021357 -0.0024706 0.00057224
2.4562e-05 0.0030096 -0.00087727 0.0019157
-0.0011509 -0.001668 -0.016645 -0.021308 0.27994 0.20767 0.00086607 0.0014217
0.00050701 0.0011552 8.1582e-05 0.0006867
-3.7692e-05 -0.00089846 -0.0024748 0.00059043 0.00086461 0.0014279 0.069759 0.27297
0.011207 -0.016224 0.0023457 0.0016403
-0.0028312 0.0023233 4.1879e-05 0.0029932 0.0005042 0.0011513 0.011235 -0.016246
-0.037448 0.22051 0.015373 -0.012305
0.0013606 0.0020491 -0.00083 0.0019164 9.3284e-05 0.00065412 0.0023548 0.0016317
0.015322 -0.012188 -0.022793 0.31519
1280000000 0.1673 0.26937 -0.0064436 -0.029414 -0.0020025 0.0015172 -0.0009857 -0.0019688
-0.00095187 0.003303 0.0025432 0.0014233
-0.0064252 -0.029387 -0.0066793 0.37845 -0.023676 -0.0084331 -0.00088594 0.0013537
0.0016091 0.0018052 0.00057486 0.0020509
-0.0019951 0.001526 -0.023757 -0.0083377 0.31173 0.16431 0.0013152 -8.6953e-05
0.0010593 0.00038866 0.00021343 0.000434
-0.00098293 -0.0019616 -0.00087366 0.0013649 0.0013176 -8.4837e-05 0.10652 0.25683
0.0020811 -0.018963 1.8004e-05 7.9325e-07
-0.00093872 0.0033414 0.0016248 0.0018094 0.0010624 0.00039607 0.0020055 -0.018923
0.00017745 0.22684 0.0043509 -0.015243
0.0025238 0.0013277 0.00050974 0.0020028 0.00021681 0.00046711 0.00017317 -8.3863e-05
0.0043028 -0.015381 0.025216 0.3182
1340000000 0.20467 0.23767 -0.016608 -0.02042 0.00015364 0.0041138 -0.0017968 -0.00069591
0.0016543 0.0027879 0.001685 -0.0013544
-0.016574 -0.020409 0.032271 0.37177 -0.021031 0.0043042 -0.00023114 0.0019072
0.0018481 0.00091277 0.0011663 0.0007566
0.00017245 0.0041049 -0.021041 0.0044011 0.33478 0.11706 0.00085065 -0.00085947
0.00062576 -0.00045896 0.00012554 0.00021972
-0.0017961 -0.00069164 -0.00022169 0.0019113 0.00084918 -0.00085467 0.13924 0.2374
-0.0075176 -0.016384 0.0012134 0.00022438
0.0016698 0.0027545 0.0018577 0.00091573 0.00062583 -0.00043948 -0.0075775 -0.01636
0.029153 0.22505 -0.0024071 -0.013797
0.0017059 -0.0012862 0.0011437 0.00077087 0.00018675 0.00018817 0.0011046 0.00014055
-0.0023572 -0.013868 0.063072 0.31527
1400000000 0.23964 0.20133 -0.023442 -0.0091504 0.0046028 0.0031593 -0.0020136 0.00064109
0.0027029 0.00090533 0.00030062 -0.0013599
-0.023407 -0.0091427 0.070961 0.35988 -0.014353 0.012253 0.0012485 0.00135
0.0012174 -0.00056513 0.0012095 0.00028599
0.0046144 0.0031424 -0.014311 0.012348 0.3491 0.063122 -2.9044e-05 -0.00133
0.0002677 -0.00025507 0.00041272 0.00028691
-0.0020147 0.00065893 0.0012647 0.0013496 -3.1438e-05 -0.0013188 0.1694 0.20927
-0.013637 -0.010034 -0.0009246 -0.00047762
0.0026839 0.0008787 0.0012032 -0.00055861 0.00023622 -0.00025669 -0.013605 -0.0099717
0.063536 0.22446 -0.0093242 -0.0096344
0.00027417 -0.0014234 0.0012712 0.00022122 0.00042515 0.00026937 -0.00085692 -0.00036673
-0.0093425 -0.0095625 0.10863 0.30655
1460000000 0.26325 0.15838 -0.020989 0.0035175 0.0051293 -0.0015116 -0.0015638 0.0015965
0.0021487 -0.0004266 -0.00017087 -0.000932
-0.020968 0.0035016 0.10541 0.3385 -0.0054091 0.014886 0.0015919 0.00025571
0.0010891 -0.0012451 0.0012971 -0.00049322
0.0051227 -0.0015288 -0.0053438 0.014934 0.35571 0.0080532 -0.00096856 -0.0011031
0.00029863 -0.00014924 0.0006735 -0.0004245
-0.0015587 0.0015877 0.0015967 0.00024221 -0.00095965 -0.0011045 0.19633 0.18061
-0.014715 -0.0038694 -0.0011318 0.0018284
0.0021698 -0.00043233 0.0010827 -0.0012241 0.00035943 -0.00016189 -0.014801 -0.0038469
0.092739 0.21245 -0.011274 -0.0033593
-0.00022045 -0.00096018 0.0012894 -0.00051319 0.00063575 -0.00043341 -0.0010115 0.0017457
-0.011257 -0.0034439 0.1416 0.28623
1520000000 0.27695 0.1181 -0.015853 0.0094746 0.0031311 -0.0038237 9.4885e-05 0.0025663
0.0023087 -0.0019308 -0.0011873 -0.00012673
-0.015855 0.0094476 0.13968 0.32542 0.0019498 0.012289 0.0017413 -0.0006667
0.000338 -0.0010275 0.000285 -0.0010426
0.0031103 -0.0038404 0.0020206 0.012298 0.34872 -0.048424 -0.00066981 -0.00042247
0.00069963 -0.00096704 1.8828e-06 -0.00011116
0.00010112 0.0025767 0.0017319 -0.00067421 -0.00067894 -0.00042535 0.22041 0.14288
-0.014651 0.0017061 0.0013471 0.0019505
0.0022836 -0.001953 0.00030822 -0.0010316 0.00070039 -0.00096698 -0.014637 0.0017624
0.12155 0.2028 -0.011709 0.00070564
-0.0011322 -0.00012004 0.00030492 -0.0010757 5.1645e-07 -0.00013795 0.0012016 0.0019091
-0.011761 0.00070899 0.17626 0.26801
1580000000 0.28789 0.072577 -0.0093186 0.013346 -0.0010798 -0.0045213 0.0013914 0.0018668
-0.00033621 -0.002272 -0.00022878 0.00041954
-0.0093215 0.013336 0.16781 0.3007 0.0052567 0.0071616 0.00056564 -0.0015797
-0.00046709 -0.0012173 -0.00017797 -0.00073388
-0.0011041 -0.0045063 0.0052952 0.0071387 0.32833 -0.10653 -0.0015469 0.00016437
-0.00047064 -0.00131 0.00020823 -0.00056878
0.0013973 0.0018535 0.00055023 -0.001582 -0.0015433 0.00016414 0.23536 0.10351
-0.011528 0.0068423 0.001902 0.00078905
-0.00035406 -0.0022574 -0.00047139 -0.0012182 -0.00047108 -0.0013031 -0.011496 0.0068423
0.14732 0.1876 -0.0096075 0.0070624
-0.00024239 0.00044638 -0.00020847 -0.00076344 0.00020737 -0.00056776 0.0019183 0.00087281
-0.0095666 0.0070421 0.20949 0.24201
1640000000 0.29131 0.032143 -0.0023568 0.012644 -0.0027627 -0.0021096 0.0027137 0.0011701
-0.00065965 -0.0016693 -0.00043766 0.00051361
-0.0023745 0.012639 0.1975 0.27714 0.0053568 0.0024305 -0.0004925 -0.0018456
-0.00097059 -0.00063704 -0.00058686 -0.00066953
-0.0027786 -0.0020865 0.0053751 0.0024005 0.29889 -0.15528 -0.00090962 0.0012416
-0.001149 -0.0011456 -0.00028221 -0.00034696
0.0027174 0.0011617 -0.00050532 -0.0018459 -0.00090655 0.0012256 0.24847 0.054702
-0.0077008 0.0081699 0.0023586 -0.00040743
-0.00066224 -0.0016738 -0.00097758 -0.0006491 -0.0011692 -0.0011469 -0.0077204 0.0082311
0.17118 0.16752 -0.0047547 0.0089409
-0.00042399 0.00054028 -0.00057122 -0.00064389 -0.00026087 -0.00034678 0.0025008 -0.00041412
-0.0048141 0.0089106 0.23508 0.21247
1700000000 0.28638 -0.012779 0.0014133 0.010141 -0.0032016 0.00037808 0.0031742 -0.0011474
-0.0020923 -0.00066457 0.00053588 0.00049683
0.0014023 0.010131 0.21697 0.24588 0.0028335 -0.0001688 -0.0014414 -0.00069239
-0.00088803 -0.00013294 -0.00083219 -0.00043482
-0.003205 0.00041183 0.0028289 -0.00016877 0.2555 -0.19402 0.00013924 0.0017958
-0.0019994 -0.00012397 -0.00029396 -0.00081278
0.0031767 -0.001171 -0.001443 -0.00068758 0.00013764 0.0017928 0.2463 0.0040577
-0.0050813 0.0091648 0.0017117 -0.0018948
-0.0021013 -0.00063526 -0.00089664 -0.00013224 -0.001999 -0.00011545 -0.0050296 0.009177
0.19144 0.15028 -0.00019675 0.0096324
0.00055864 0.00051079 -0.00082341 -0.00037977 -0.00025842 -0.00087308 0.0016381 -0.0019433
-0.00017041 0.009637 0.25366 0.17861
1760000000 0.2756 -0.06183 0.0041358 0.0070249 -0.0019905 0.0012282 0.0013972 -0.003398
-0.0012664 0.00063346 0.00033675 -0.00052282
0.0041293 0.0070213 0.24315 0.20642 0.00027856 -0.0015453 -0.0012492 9.4302e-05
-0.0012363 0.0010245 -0.00050807 0.0003806
-0.0019751 0.0012414 0.00028023 -0.0015487 0.2065 -0.22637 0.001208 0.0014643
-0.001236 0.0014823 -0.0011729 -0.00069549
0.0013828 -0.0034118 -0.0012503 9.6862e-05 0.0011983 0.001474 0.23735 -0.048458
-0.0015133 0.0085945 -4.2717e-05 -0.0024592
-0.0012415 0.00066692 -0.0012158 0.0010332 -0.0012447 0.0014817 -0.0014929 0.0085942
0.20843 0.11835 0.0039498 0.0070698
0.00033042 -0.00054658 -0.00051824 0.00040038 -0.0011577 -0.00062236 1.6394e-06 -0.0023636
0.0039713 0.007027 0.26656 0.14114
1820000000 0.25293 -0.099522 0.0046889 0.0033522 0.00022817 0.0021898 -0.0007604 -0.0031587
-0.0010404 0.00084927 1.9694e-05 -0.00013788
0.0046758 0.0033416 0.25447 0.17719 -0.0018495 0.0001161 -0.0014486 0.0009916
-5.3088e-05 0.0013508 -0.00059985 0.0004177
0.00023066 0.0021799 -0.0018328 0.00012909 0.15711 -0.24099 0.0017095 0.00057556
-0.00020824 0.0022974 -0.0016851 7.4498e-05
-0.0007781 -0.0031515 -0.0014416 0.00099502 0.0017101 0.00057993 0.20781 -0.09602
0.00030263 0.0072868 -0.001588 -0.0016793
-0.0010509 0.00085662 -2.7861e-05 0.0013626 -0.00023185 0.0022801 0.00033261 0.0073414
0.22954 0.091977 0.0047871 0.003521
5.4683e-05 -0.00013686 -0.00054091 0.00047699 -0.0016374 9.6593e-05 -0.0013427 -0.0017404
0.0048095 0.0035467 0.2706 0.10667
1880000000 0.21866 -0.14125 0.0026964 0.00091561 -0.00019111 0.0021833 -0.0029476 -0.0024932
-0.00012692 0.0015767 0.00018593 -0.00064499
0.0026835 0.00093025 0.25927 0.13043 -0.0036819 0.0027825 -0.00029471 0.0018065
0.00064546 0.0014238 5.5224e-05 0.00086772
-0.00017695 0.0022044 -0.0036565 0.0028031 0.10537 -0.24934 0.0020146 -0.0012934
0.0016525 0.0020531 -0.0010447 0.001282
-0.0029276 -0.0024741 -0.00029983 0.0017906 0.0020256 -0.001278 0.1665 -0.13719
0.0012001 0.0051318 -0.0023799 0.00030361
-0.00013447 0.0015953 0.000646 0.0014026 0.0016333 0.0020621 0.0011973 0.0050751
0.23644 0.061772 0.0053327 0.0014775
0.00021174 -0.00062397 9.9644e-05 0.00088949 -0.0010837 0.0012836 -0.0025655 0.00025065
0.0052947 0.0014141 0.27158 0.071912
1940000000 0.1796 -0.16752 0.0005899 -0.0010535 0.0016507 0.0019283 -0.0041245 0.00011757
0.0010542 0.00076534 -0.00057133 -0.00066342
0.000581 -0.0010458 0.26067 0.099404 -0.0017949 0.0056178 0.0010941 0.0013482
0.0020984 0.0003776 0.00087679 0.00029049
0.0016298 0.0019021 -0.0017502 0.0056258 0.061132 -0.24114 0.00063171 -0.0024451
0.0023546 0.00046221 6.9778e-06 0.0017149
-0.0040978 0.00014298 0.0011042 0.0013358 0.00060587 -0.0024256 0.11384 -0.16757
0.00061146 0.003631 -0.001483 0.0012047
0.001074 0.0007501 0.002123 0.00034607 0.0023687 0.00043041 0.00064413 0.0036099
0.24279 0.025326 0.0041078 -0.0023016
-0.00063583 -0.00070289 0.00080885 0.00026842 -2.1388e-05 0.0017268 -0.0015319 0.0013647
0.0040845 -0.0023218 0.26218 0.036436
2000000000 0.13412 -0.18295 -0.0031559 0.00071374 0.0028589 0.0012808 -0.0025592 0.0036924
0.00080708 0.0004676 -0.00082328 0.00039422
-0.0031684 0.00073641 0.24775 0.064027 -0.00052055 0.007755 0.0016554 0.00021354
0.001317 -0.0015337 0.0004459 0.00011159
0.0028432 0.0012474 -0.00046766 0.0077598 0.02029 -0.22685 -0.0016374 -0.0016042
0.002122 -0.0012181 0.0015805 0.0015721
-0.0025129 0.0037203 0.0016316 0.00021657 -0.0016351 -0.0015948 0.060143 -0.17736
-0.0014351 0.0035706 -5.0615e-05 0.0024652
0.00080284 0.00045624 0.0012875 -0.0015248 0.0020926 -0.0012002 -0.0013517 0.003636
0.24123 -0.0080363 0.00074337 -0.0029348
