!Keysight Technologies,M9804A,MY58100912,A.14.10.03
!Date: Thursday, April 27, 2023 10:28:33
!Correction: S11(C  6-Port  ) 
!S12(C  6-Port  ) 
!S13(C  6-Port  ) 
!S14(C  6-Port  ) 
!S15(C  6-Port  ) 
!S16(C  6-Port  ) 
!S21(C  6-Port  ) 
!S22(C  6-Port  ) 
!S23(C  6-Port  ) 
!S24(C  6-Port  ) 
!S25(C  6-Port  ) 
!S26(C  6-Port  ) 
!S31(C  6-Port  ) 
!S32(C  6-Port  ) 
!S33(C  6-Port  ) 
!S34(C  6-Port  ) 
!S35(C  6-Port  ) 
!S36(C  6-Port  ) 
!S41(C  6-Port  ) 
!S42(C  6-Port  ) 
!S43(C  6-Port  ) 
!S44(C  6-Port  ) 
!S45(C  6-Port  ) 
!S46(C  6-Port  ) 
!S51(C  6-Port  ) 
!S52(C  6-Port  ) 
!S53(C  6-Port  ) 
!S54(C  6-Port  ) 
!S55(C  6-Port  ) 
!S56(C  6-Port  ) 
!S61(C  6-Port  ) 
!S62(C  6-Port  ) 
!S63(C  6-Port  ) 
!S64(C  6-Port  ) 
!S65(C  6-Port  ) 
!S66(C  6-Port  ) 
!S6P File: Measurement: :
# Hz S  RI   R 50
500000000 -0.32794 -0.0658 -0.0092519 -0.0013314 -0.0080354 0.012247 -0.0044402 0.012072
0.013443 0.0060229 -0.0047911 0.0089063
-0.0094859 -0.0013815 -0.40907 -0.075602 0.0094514 -0.010723 0.0011847 0.012005
0.0088038 0.0029025 0.0016453 0.013744
-0.0081366 0.012094 0.0094263 -0.010771 -0.25909 0.18785 0.0071499 0.0035012
-0.0019609 0.0078457 0.0012971 0.01268
-0.0041415 0.012032 0.0011939 0.012023 0.0071469 0.0034673 -0.32698 0.037382
-0.019865 -0.0039884 0.016418 0.025793
0.013558 0.0061013 0.0087976 0.0029164 -0.0019962 0.0078823 -0.019833 -0.0039631
-0.22329 -0.22789 -0.028741 0.0051063
-0.0046843 0.0090821 0.001629 0.013737 0.0013488 0.012651 0.016405 0.025705
-0.028785 0.0050434 -0.26405 -0.14613
560000000 -0.31839 0.10163 -0.021169 -0.067453 0.00016423 0.013057 0.005175 0.011179
0.012055 0.0048941 0.011806 0.010179
-0.021045 -0.067421 -0.37238 0.088576 -0.040585 -0.040244 0.014346 0.0043424
-0.012673 -0.0055326 0.0039063 -0.00010868
0.0003453 0.013126 -0.040635 -0.040133 -0.18375 0.23953 -0.00097605 -0.00561
0.01786 0.0076555 0.007573 -0.0062434
0.0050208 0.011317 0.014328 0.0043259 -0.00098596 -0.0056185 -0.30596 0.12979
0.0073978 -0.024093 0.0055686 -0.021562
0.012564 0.004826 -0.012695 -0.005439 0.018052 0.0077645 0.0072696 -0.023994
-0.30453 -0.044622 0.012262 -0.051507
0.011395 0.0095991 0.0039155 -0.00017039 0.0074595 -0.0062218 0.0055297 -0.02142
0.012532 -0.051235 -0.33091 0.0064875
620000000 -0.27695 0.080405 -0.023277 0.008664 0.0031486 0.0089949 0.0083665 -0.004579
0.011643 -0.00069914 0.00029055 -0.0022992
-0.023237 0.0087308 -0.4003 0.035041 -0.018666 -0.00035036 -0.0017592 -0.0023717
0.012396 -0.0051389 0.0010754 -0.003352
0.0031882 0.0089241 -0.018719 -0.00030174 -0.15701 0.24861 -0.0012743 -0.0054255
-0.0040145 -0.0028455 0.0089877 -0.003547
0.0083225 -0.0045408 -0.0018393 -0.0022979 -0.0013076 -0.0054095 -0.26344 0.13917
-0.038249 -0.0208 0.012412 0.027863
0.011766 -0.0005813 0.012449 -0.005232 -0.0039771 -0.0029072 -0.038379 -0.020692
-0.21949 -0.081636 -0.040725 0.012996
0.00071176 -0.0022241 0.001119 -0.0034443 0.0089168 -0.0036797 0.012505 0.027839
-0.040696 0.013096 -0.24574 -0.031471
680000000 -0.24276 0.17257 -0.026046 -0.016048 0.0046475 0.0054877 0.0014858 -0.007253
-0.0018892 -0.011731 0.0062273 -0.0071482
-0.025894 -0.016131 -0.39105 0.1366 -0.03281 -0.0028064 -0.001856 -0.00037422
-0.001736 -0.0097725 -0.0012526 -0.0019843
0.0046744 0.0054756 -0.032861 -0.0027157 -0.10914 0.2715 -0.00080951 6.4652e-05
-0.0013333 0.00085043 -0.0025152 -0.0095862
0.0014495 -0.0072875 -0.0019374 -0.00038397 -0.0008072 7.2785e-05 -0.22044 0.19158
-0.023069 -0.0084378 -0.0082338 -0.011742
-0.0019324 -0.011801 -0.0017531 -0.0097914 -0.0013536 0.00081585 -0.023104 -0.0085569
-0.28101 0.020017 -0.0057815 -0.0074269
0.0060895 -0.0071639 -0.0013101 -0.0018855 -0.0024846 -0.0095278 -0.0082753 -0.011678
-0.0058637 -0.0074538 -0.26086 0.076726
740000000 -0.19672 0.16632 -0.041456 0.026687 0.013613 -0.0038294 0.0002613 -0.0039584
-0.0036944 -0.0022788 -0.0064929 0.0033223
-0.041364 0.026618 -0.33772 0.15653 -0.037933 0.034269 -5.327e-05 -0.0057209
-0.01235 0.0064953 -0.0011503 -0.0057333
0.013621 -0.0038779 -0.037926 0.034424 -0.076428 0.27205 -0.0019117 0.0031816
-0.0013599 -0.0051132 -0.0018269 0.00095136
0.00016695 -0.0039397 -7.1055e-05 -0.0057942 -0.0019334 0.0031592 -0.20426 0.19903
-0.042851 -0.010473 0.022485 0.016684
-0.0035564 -0.002222 -0.012308 0.0066195 -0.0013198 -0.0051777 -0.042907 -0.010383
-0.18104 0.054223 -0.044027 -0.0017879
-0.0066194 0.0033186 -0.0012788 -0.0057679 -0.0018179 0.00090255 0.022424 0.016684
-0.043753 -0.0018636 -0.25323 0.081498
800000000 -0.1674 0.2127 -0.023337 0.015584 0.0056971 -0.010331 -0.0044762 -0.002647
-0.0046134 0.0021143 0.0042959 0.00039609
-0.023391 0.015613 -0.34603 0.22787 -0.0095012 0.034507 -0.0022243 0.00216
-0.00041222 0.0023257 0.00077164 0.0053814
0.0055997 -0.010263 -0.0094204 0.034597 -0.037714 0.29822 0.0010609 0.0012109
0.0001121 0.0035689 -0.0020087 0.0006833
-0.0045202 -0.0028044 -0.0022336 0.0021807 0.0010779 0.0011938 -0.17536 0.22632
-0.029214 0.012563 0.014525 -0.010354
-0.004556 0.0021133 -0.00038375 0.0023281 0.00013018 0.0035746 -0.029222 0.012636
-0.23113 0.077067 -0.018744 0.020266
0.0043494 0.00013448 0.00076675 0.0053448 -0.0019767 0.00070899 0.014459 -0.010373
-0.018678 0.020314 -0.24771 0.1308
860000000 -0.13399 0.23385 -0.019064 0.030372 -0.003035 -0.010153 -0.0021413 0.00062184
0.0043121 0.0053101 -0.0039109 -0.003189
-0.019128 0.030257 -0.29979 0.27257 0.0067354 0.034765 0.00024706 0.0019837
0.003986 0.00010757 0.0034336 0.00021773
-0.0030395 -0.010162 0.0068546 0.034786 0.010089 0.30846 -0.00052631 -0.00046437
0.0024343 -0.0018897 0.0014743 0.0042804
-0.0020429 0.00075488 0.00024945 0.0019759 -0.00051718 -0.00045514 -0.13958 0.2382
-0.018649 0.017404 -0.0068079 -0.010009
0.0043993 0.0053726 0.0039346 7.3873e-05 0.0024111 -0.0018802 -0.018667 0.017453
-0.17653 0.13494 -0.026259 0.01663
-0.0038941 -0.0032335 0.0034014 0.00023201 0.001487 0.0042315 -0.0066763 -0.010042
-0.026386 0.0166 -0.19842 0.17843
920000000 -0.11071 0.25805 0.003791 0.039544 -0.0092469 -0.0045521 -0.002084 0.0021087
0.00066287 0.0015475 0.0030405 -0.0013798
0.0037724 0.039499 -0.27248 0.29534 0.027871 0.023591 0.001236 0.0011754
0.0072399 5.5994e-05 0.004028 -0.0028532
-0.0092617 -0.0045125 0.027983 0.023563 0.056592 0.31103 0.0017035 -9.0666e-06
0.00055263 -0.00033077 0.0010104 -0.0013577
-0.0021719 0.0020378 0.0011966 0.0011793 0.0017183 -2.6511e-05 -0.11596 0.25595
-0.012626 0.030713 0.0039772 -0.0062479
0.00069323 0.0015192 0.0072328 6.8128e-06 0.0005673 -0.00032522 -0.012575 0.030776
-0.1691 0.14117 -0.0036037 0.028319
0.0030415 -0.0013179 0.0039676 -0.0028239 0.0010018 -0.0013621 0.0039335 -0.006263
-0.0036078 0.028254 -0.20721 0.19307
980000000 -0.064702 0.27957 0.015965 0.031227 -0.0094883 0.0047063 0.0018485 0.0036807
0.0040826 -0.0014105 -0.0036056 -0.0028753
0.015991 0.031276 -0.22015 0.332 0.033155 0.0060769 0.0019235 -0.00022508
0.001881 -0.0058548 -0.0005454 -0.0027149
-0.0094817 0.0047434 0.033201 0.005976 0.10279 0.30551 0.00048813 -0.0011313
0.00031332 -0.0016613 0.0015614 -0.00034959
0.0018624 0.0037108 0.0018968 -0.00024562 0.00049251 -0.0011308 -0.077655 0.26694
0.0064068 0.030205 -0.0096045 -0.0080313
0.0039166 -0.0013792 0.0018433 -0.0059014 0.00033375 -0.0016568 0.0064835 0.030207
-0.13836 0.17634 0.0048822 0.020405
-0.0036514 -0.003037 -0.00063393 -0.0027248 0.0015575 -0.00034676 -0.0096037 -0.0080307
0.0048669 0.020346 -0.1663 0.23938
1040000000 -0.02425 0.28965 0.03306 0.02058 -0.0010943 0.0075423 0.002655 0.00081086
0.00026776 -0.0036888 -6.554e-05 -0.0015351
0.033035 0.020635 -0.18555 0.34669 0.030261 -0.013812 0.0015315 -0.001599
-0.0024349 -0.002417 -0.0011622 -0.002754
-0.0010422 0.0075355 0.030228 -0.013936 0.14869 0.29364 -0.00047616 -0.0013954
-0.0015663 -0.00092177 -0.0005056 -0.0011666
0.0026085 0.00083012 0.0014813 -0.0016243 -0.00047417 -0.0013973 -0.050715 0.27778
0.018152 0.019538 -0.002331 0.0016147
0.00035244 -0.0037495 -0.0024149 -0.0024236 -0.0015532 -0.00092599 0.018199 0.019527
-0.10568 0.18558 0.013077 0.019545
4.8473e-05 -0.0014622 -0.0011559 -0.0026891 -0.00049702 -0.0011614 -0.002339 0.0016061
0.013122 0.019629 -0.14492 0.26157
1100000000 0.02121 0.30013 0.037054 -0.0022469 0.0036334 0.0042086 0.0024168 -0.0010976
-0.0021793 -0.0030776 -0.0040932 -3.8478e-05
0.037066 -0.0022145 -0.14146 0.3662 0.016233 -0.027395 -4.6244e-05 -0.001723
-0.0034025 -0.00085267 -0.0035995 -0.00046201
0.00366 0.0042058 0.016146 -0.027484 0.1954 0.27484 -0.0017481 0.00026199
-0.0015625 0.0005926 -0.001101 -0.00057507
0.0024594 -0.0011262 -4.841e-05 -0.0017347 -0.0017503 0.00025846 -0.010275 0.28302
0.024342 0.006703 -0.0026339 8.8947e-05
-0.0022126 -0.0030228 -0.0033883 -0.00083774 -0.001568 0.0006057 0.024356 0.0066628
-0.087397 0.20164 0.019658 0.010233
-0.0042754 -2.7113e-05 -0.0037036 -0.00041836 -0.0011059 -0.00057199 -0.0026218 9.6834e-05
0.019607 0.010187 -0.10004 0.29294
1160000000 0.071905 0.29731 0.025841 -0.01954 0.003565 -0.00070702 -0.00016043 -0.0024814
-0.0041477 -0.00091692 -0.0012953 0.0043186
0.025861 -0.019494 -0.098574 0.37144 -0.0028209 -0.028998 -0.0015057 -0.0016074
-0.0025875 0.0023962 -0.0017425 0.0020147
0.0035588 -0.00072569 -0.0029673 -0.029019 0.23862 0.24556 -0.00062364 0.0016011
-0.00043411 0.0017307 -0.0011486 0.00033568
-0.0001608 -0.0024512 -0.0015203 -0.001599 -0.00061784 0.0015983 0.028649 0.28061
0.021623 -0.0092297 -0.0035398 0.0053294
-0.0041704 -0.00088592 -0.0026063 0.0024219 -0.00046142 0.0017338 0.021607 -0.0092498
-0.05236 0.2118 0.018979 0.0012734
-0.0012549 0.0042933 -0.0017728 0.0019682 -0.0011582 0.0003306 -0.0035215 0.0052817
0.019018 0.0012248 -0.052982 0.29692
1220000000 0.11582 0.28922 0.012751 -0.029921 -0.0010577 -0.0016588 -0.00014676 -0.00094653
-0.0027623 0.0023073 0.0012506 0.001935
0.012758 -0.029887 -0.053996 0.38627 -0.016313 -0.021594 -0.0024935 0.00050547
-6.107e-06 0.0029567 -0.0007755 0.001789
-0.0010531 -0.0016558 -0.016436 -0.021552 0.2788 0.20828 0.00087084 0.0014884
0.00054617 0.001136 0.00019649 0.0005857
-0.00013282 -0.00098283 -0.0025212 0.00051799 0.00087352 0.0014765 0.068532 0.27318
0.01122 -0.016084 0.0024585 0.0016584
-0.0027068 0.0022662 1.1624e-05 0.0029535 0.00053983 0.00113 0.011194 -0.016112
-0.029579 0.22336 0.015083 -0.012151
0.0012657 0.001986 -0.00076734 0.0018238 0.00021339 0.00058945 0.0024645 0.0016845
0.015068 -0.012127 -0.022321 0.31532
1280000000 0.1666 0.26932 -0.0061405 -0.029474 -0.0020391 0.0015412 -0.00091725 -0.0019863
-0.00079497 0.0033381 0.0024265 0.0013417
-0.0061193 -0.029442 -0.0076182 0.37813 -0.023572 -0.0087607 -0.00086628 0.0013492
0.0016203 0.0017287 0.00060952 0.0020918
-0.0020187 0.0015297 -0.023645 -0.0086592 0.31089 0.16495 0.0013181 -8.9342e-05
0.00099623 0.00038618 0.00045867 0.00035655
-0.00092212 -0.0019832 -0.00084411 0.0013609 0.0013239 -9.3461e-05 0.10536 0.25739
0.0022623 -0.018674 -6.4583e-06 -3.9433e-05
-0.00076474 0.0033892 0.0016379 0.00171 0.001016 0.00037663 0.0022372 -0.018683
0.0076803 0.22858 0.0041854 -0.015099
0.0024786 0.0012318 0.00057007 0.0020494 0.00043087 0.00038185 3.7302e-05 -7.2743e-05
0.004168 -0.015113 0.025415 0.31834
1340000000 0.20388 0.2383 -0.016355 -0.0206 0.00012086 0.004099 -0.0018096 -0.00070623
0.001544 0.0028273 0.0017481 -0.0014892
-0.016333 -0.020578 0.03132 0.37191 -0.021191 0.0039197 -0.00019978 0.0019239
0.0018315 0.0008735 0.0011776 0.00076263
0.00014544 0.0041224 -0.021199 0.0040406 0.334 0.11805 0.00082676 -0.00087008
0.00054312 -0.00052866 7.1525e-05 0.00019517
-0.0018134 -0.00071195 -0.00020929 0.0019368 0.00082652 -0.00086571 0.13839 0.23819
-0.0071799 -0.016339 0.0012489 0.00031436
0.0015203 0.0028016 0.0018353 0.00086056 0.00054463 -0.00051966 -0.0072037 -0.016333
0.036584 0.22658 -0.0024206 -0.013883
0.0017447 -0.0014261 0.0012066 0.00075746 9.2258e-05 0.00018191 0.0012166 0.00032819
-0.0024318 -0.013896 0.063006 0.31536
1400000000 0.2391 0.20199 -0.023343 -0.0092952 0.0045542 0.0032367 -0.0021031 0.00069565
0.0025422 0.0009631 0.00033243 -0.0013238
-0.023295 -0.0093027 0.070284 0.3602 -0.014604 0.012102 0.0011825 0.0013925
0.001154 -0.00057667 0.0011832 0.00027138
0.0045681 0.0032149 -0.014571 0.0122 0.34869 0.063956 -5.436e-05 -0.0012494
9.4903e-05 -0.0001645 0.00048982 0.00018769
-0.0021009 0.0006901 0.0011916 0.0013741 -4.3673e-05 -0.0012475 0.16889 0.2099
-0.013382 -0.010111 -0.00083899 -0.00071297
0.0025561 0.00092679 0.0011519 -0.00058844 8.9166e-05 -0.00015909 -0.013403 -0.010097
0.070851 0.22421 -0.0092563 -0.0092812
0.0003123 -0.0013411 0.0011628 0.000284 0.0004723 0.00021732 -0.00078737 -0.00070123
-0.0092577 -0.009311 0.10868 0.30607
1460000000 0.26272 0.15917 -0.02102 0.0032617 0.0051355 -0.0015022 -0.0015518 0.0017336
0.0020987 -0.0003803 -0.00021496 -0.001018
-0.020992 0.0032694 0.10464 0.33895 -0.0057213 0.014965 0.0016128 0.00027375
0.0010804 -0.0011572 0.0012742 -0.000529
0.0051368 -0.0015019 -0.0056607 0.015012 0.35532 0.0088189 -0.00092465 -0.0010701
0.00029822 -0.00013129 0.0006509 -0.00023341
-0.0015491 0.001746 0.0016272 0.00028008 -0.00092798 -0.0010672 0.19583 0.18113
-0.014558 -0.0040918 -0.0011823 0.0018653
0.0021145 -0.00041992 0.0010813 -0.0011549 0.00030163 -0.00014075 -0.01457 -0.0040619
0.099984 0.2118 -0.011419 -0.0036295
-0.0002001 -0.00093975 0.0012602 -0.00056889 0.00065474 -0.00024354 -0.0011983 0.0018355
-0.011402 -0.0036693 0.14179 0.28647
1520000000 0.27687 0.11894 -0.015948 0.0092588 0.0031911 -0.003806 8.5719e-05 0.0025631
0.0022831 -0.0018117 -0.0010477 -0.00018493
-0.015944 0.0092291 0.13927 0.326 0.0018265 0.012461 0.0017047 -0.00064115
0.0002215 -0.0010706 0.00033915 -0.0010166
0.0031807 -0.0038412 0.001906 0.012466 0.34835 -0.047458 -0.00074219 -0.00037912
0.00067176 -0.00088553 0.00010756 -9.2933e-05
0.00011216 0.0025786 0.0017124 -0.0006389 -0.00074077 -0.00038855 0.22026 0.14369
-0.014824 0.0014978 0.0012148 0.0019499
0.0022918 -0.0018206 0.00021545 -0.0010767 0.00067734 -0.00088519 -0.014827 0.0015046
0.12846 0.20118 -0.011548 0.00077413
-0.001049 -0.00020585 0.0003475 -0.0010216 0.00010224 -0.00010241 0.001247 0.0019714
-0.011558 0.00080136 0.17581 0.26815
1580000000 0.28797 0.073064 -0.0094796 0.013241 -0.0010543 -0.004542 0.0014679 0.0018945
-0.00022125 -0.0022091 -0.00028179 0.00031739
-0.009506 0.013221 0.16765 0.30111 0.0052587 0.0074094 0.00062591 -0.0015379
-0.00048518 -0.0012197 -0.0002329 -0.00076898
-0.0010855 -0.0045548 0.0053077 0.0073874 0.32843 -0.10576 -0.001473 0.00012369
-0.00027733 -0.0014175 0.0002093 -0.0005945
0.0014501 0.0019014 0.00061295 -0.0015367 -0.0014864 0.00012859 0.23524 0.10375
-0.01171 0.0066287 0.0018926 0.00096117
-0.0002662 -0.0022333 -0.00049379 -0.0012022 -0.00028577 -0.0014141 -0.0117 0.0066782
0.15352 0.18519 -0.0095542 0.0068438
-0.00027792 0.00035235 -0.00023756 -0.00079314 0.00024489 -0.00062728 0.0018607 0.00090461
-0.0095451 0.0068122 0.20961 0.24223
1640000000 0.29144 0.032618 -0.0025237 0.012647 -0.0027856 -0.0022135 0.0027953 0.0011078
-0.00057453 -0.0017418 -0.00043584 0.00047368
-0.0025254 0.012647 0.19726 0.27752 0.0054573 0.002511 -0.00041193 -0.0018495
-0.00094969 -0.00057984 -0.00049085 -0.00070435
-0.0027717 -0.0022036 0.0054875 0.0024867 0.29898 -0.15421 -0.00083874 0.0011944
-0.00099464 -0.0010755 -0.00013055 -0.00045962
0.0027982 0.0010948 -0.00043403 -0.0018323 -0.00083447 0.0011968 0.24826 0.05516
-0.0080425 0.008248 0.0025218 -0.00060669
-0.00059784 -0.0017386 -0.00097772 -0.0005688 -0.0010059 -0.0010746 -0.0080297 0.008273
0.17708 0.1643 -0.0049154 0.0091219
-0.00041416 0.00047426 -0.0004599 -0.00070173 -0.00012925 -0.00045297 0.002547 -0.00059541
-0.0049416 0.0091269 0.2352 0.21254
1700000000 0.28666 -0.012591 0.0012743 0.010247 -0.0032224 0.0004283 0.0031703 -0.0011881
-0.0020764 -0.00064566 0.00049656 0.00049516
0.0012671 0.010243 0.21701 0.24605 0.0028766 -0.00018765 -0.0014346 -0.00077103
-0.00089357 -9.5038e-05 -0.0008143 -0.00043623
-0.0032372 0.00046219 0.0028757 -0.00019926 0.25568 -0.19366 9.9998e-05 0.0016814
-0.002098 -0.00017132 -0.00039904 -0.00071704
0.0031563 -0.001217 -0.0014366 -0.00076998 0.00010306 0.001663 0.24617 0.0042711
-0.0051538 0.0092564 0.0016471 -0.0018528
-0.0020874 -0.00064711 -0.00087892 -8.9826e-05 -0.0021039 -0.00017174 -0.0051562 0.009274
0.19699 0.14655 -0.00042457 0.0094973
0.00051118 0.0004537 -0.00085073 -0.00042727 -0.0003916 -0.00069519 0.0016399 -0.0018909
-0.00040699 0.0094741 0.25369 0.17879
1760000000 0.27568 -0.061715 0.0040888 0.0071498 -0.0019989 0.0011441 0.0013778 -0.0034858
-0.00123 0.00054389 0.0003794 -0.00051596
0.0040895 0.0071453 0.24291 0.20642 0.00031626 -0.0015542 -0.0011997 -3.4753e-06
-0.0011368 0.00098704 -0.00059569 0.00031386
-0.0019768 0.00121 0.00029559 -0.0015562 0.20644 -0.226 0.0010864 0.0014531
-0.0012214 0.001392 -0.0012153 -0.00077896
0.0013767 -0.003529 -0.0012026 1.7969e-05 0.0010854 0.0014622 0.23698 -0.048133
-0.001616 0.0088634 7.2038e-08 -0.0024176
-0.0012227 0.0005551 -0.0011355 0.0010075 -0.0012244 0.0013595 -0.0016086 0.0088654
0.21335 0.11396 0.0036381 0.0071058
0.00039678 -0.00050302 -0.00057098 0.00028027 -0.0012376 -0.00080139 -3.1155e-05 -0.0023932
0.0035849 0.0071388 0.2667 0.14138
1820000000 0.25302 -0.099378 0.0046902 0.003462 0.00024022 0.0022482 -0.00084361 -0.0031145
-0.0012017 0.00081538 -9.6596e-05 -0.00014495
0.0046927 0.0034594 0.25431 0.17719 -0.0016709 0.00010685 -0.0015378 0.00092123
-3.2204e-05 0.0013165 -0.0006544 0.00045769
0.00025627 0.00222 -0.0016538 0.00011527 0.1574 -0.24034 0.0017368 0.00057454
-0.00029186 0.0023537 -0.0016701 0.00022123
-0.00085413 -0.0030652 -0.001542 0.00093734 0.0017353 0.00059738 0.20743 -0.095939
0.00039429 0.0073749 -0.0015398 -0.001601
-0.0011823 0.00084582 -2.4246e-05 0.0013191 -0.00026192 0.0023504 0.00041625 0.0073688
0.23374 0.087381 0.0047794 0.0037703
-9.9967e-05 -0.00019443 -0.0006623 0.0004764 -0.0016269 0.00023223 -0.0015438 -0.0015755
0.0047864 0.0037513 0.27064 0.10666
1880000000 0.21873 -0.14124 0.002749 0.00095071 -0.00025115 0.0021625 -0.0030055 -0.0023877
-0.00031215 0.0016864 0.00039364 -0.00061398
0.0027192 0.00095129 0.25892 0.13023 -0.0036338 0.0027503 -0.0003313 0.0018361
0.00064939 0.0013911 0.00016669 0.00097734
-0.00021868 0.0021818 -0.0036188 0.0027959 0.10578 -0.24886 0.0021959 -0.0011391
0.001575 0.0020786 -0.00096889 0.0014695
-0.0030279 -0.0023677 -0.00033131 0.0018434 0.0021886 -0.0011571 0.16643 -0.13666
0.0013444 0.0054621 -0.002273 0.00012861
-0.00033549 0.0016507 0.00064777 0.0013894 0.0015833 0.0020787 0.0013517 0.0054786
0.24023 0.056782 0.0052311 0.0016434
0.00041919 -0.00057033 0.00018707 0.00098343 -0.00097086 0.0015054 -0.0022521 8.7779e-05
0.0052037 0.0016197 0.272 0.072406
1940000000 0.17937 -0.16722 0.00061488 -0.0010475 0.0016269 0.0019248 -0.0039077 0.00022797
0.0010404 0.00098736 -0.00067005 -0.00064461
0.00059984 -0.0010521 0.26003 0.09943 -0.0018884 0.0055212 0.001095 0.0015396
0.0020017 0.00040001 0.00087789 0.00029498
0.00163 0.0018951 -0.0018577 0.0055523 0.061158 -0.24091 0.00057171 -0.0022244
0.0023305 0.00044908 0.0002501 0.0016269
-0.003985 0.00029252 0.0010763 0.001499 0.0005903 -0.0022344 0.11346 -0.16713
0.00070029 0.0037561 -0.0013508 0.0014395
0.0010717 0.00099308 0.0020105 0.00038404 0.0023347 0.00045054 0.00070894 0.0037497
0.24557 0.019699 0.0041473 -0.0020824
-0.00075505 -0.00067161 0.00087249 0.0003007 0.0002293 0.0016538 -0.0014136 0.0015164
0.004145 -0.0020611 0.26146 0.036893
2000000000 0.13419 -0.18278 -0.0031499 0.00077982 0.0028847 0.0012884 -0.0025214 0.003658
0.0010085 0.00052788 -0.00085759 0.00037737
-0.0030973 0.00079484 0.24714 0.064064 -0.00055399 0.0076857 0.0017063 0.00031771
0.0011878 -0.001424 0.00052045 7.6881e-05
0.0029581 0.0012574 -0.00050389 0.0076765 0.020422 -0.22673 -0.0016609 -0.0015685
0.0020741 -0.0010136 0.001621 0.0014917
-0.0024666 0.0036981 0.001728 0.0003291 -0.0016547 -0.0015687 0.060001 -0.17693
-0.0010325 0.0035647 -0.00019067 0.0019133
0.0010166 0.00053467 0.0011802 -0.0014217 0.0020463 -0.0010109 -0.0010497 0.0035739
0.24387 -0.013767 0.00074814 -0.0032669
