!Keysight Technologies,M9804A,MY58100912,A.14.10.03
!Date: Thursday, April 27, 2023 10:28:33
!Correction: S11(C  6-Port  ) 
!S12(C  6-Port  ) 
!S13(C  6-Port  ) 
!S14(C  6-Port  ) 
!S15(C  6-Port  ) 
!S16(C  6-Port  ) 
!S21(C  6-Port  ) 
!S22(C  6-Port  ) 
!S23(C  6-Port  ) 
!S24(C  6-Port  ) 
!S25(C  6-Port  ) 
!S26(C  6-Port  ) 
!S31(C  6-Port  ) 
!S32(C  6-Port  ) 
!S33(C  6-Port  ) 
!S34(C  6-Port  ) 
!S35(C  6-Port  ) 
!S36(C  6-Port  ) 
!S41(C  6-Port  ) 
!S42(C  6-Port  ) 
!S43(C  6-Port  ) 
!S44(C  6-Port  ) 
!S45(C  6-Port  ) 
!S46(C  6-Port  ) 
!S51(C  6-Port  ) 
!S52(C  6-Port  ) 
!S53(C  6-Port  ) 
!S54(C  6-Port  ) 
!S55(C  6-Port  ) 
!S56(C  6-Port  ) 
!S61(C  6-Port  ) 
!S62(C  6-Port  ) 
!S63(C  6-Port  ) 
!S64(C  6-Port  ) 
!S65(C  6-Port  ) 
!S66(C  6-Port  ) 
!S6P File: Measurement: :
# Hz S  RI   R 50
500000000 -0.32786 -0.064198 -0.0098121 -0.0006402 -0.0079128 0.01245 -0.0042829 0.012287
0.013076 0.0066964 -0.0040267 0.0089831
-0.0099201 -0.0005625 -0.40905 -0.075086 0.0085276 -0.010888 0.00075697 0.011803
0.0088118 0.0035966 0.0012161 0.013817
-0.0079575 0.012456 0.0085945 -0.010941 -0.25742 0.18957 0.0069703 0.0035312
-0.002368 0.0084495 0.0012853 0.01233
-0.0038903 0.012415 0.0009761 0.011916 0.0069518 0.0035201 -0.32787 0.040155
-0.019497 -0.0049371 0.015284 0.02669
0.01308 0.0065749 0.0086125 0.0035991 -0.0024399 0.0084964 -0.019502 -0.004937
-0.21997 -0.23235 -0.02784 0.0054284
-0.0037259 0.0091154 0.0013703 0.013809 0.0012743 0.012264 0.015257 0.026666
-0.027795 0.005403 -0.26217 -0.14394
560000000 -0.31681 0.10352 -0.022106 -0.067312 0.00020393 0.013331 0.0055324 0.010367
0.011033 0.004103 0.010211 0.0098932
-0.022411 -0.067354 -0.37126 0.089931 -0.041633 -0.039317 0.014123 0.0024259
-0.013361 -0.0052401 0.0048144 -0.0011545
0.00029632 0.013357 -0.041818 -0.039452 -0.18254 0.23996 -0.00034865 -0.0048565
0.017678 0.0064675 0.0072174 -0.0060387
0.0057363 0.010586 0.01412 0.0025714 -0.00036703 -0.0048876 -0.30422 0.1296
0.0070585 -0.021969 0.0062273 -0.021179
0.011281 0.0042788 -0.013636 -0.0050731 0.017564 0.0064297 0.0070255 -0.022006
-0.29891 -0.048676 0.01027 -0.05122
0.010306 0.0098911 0.0047244 -0.0012045 0.0071515 -0.0061045 0.0062976 -0.021125
0.010169 -0.051012 -0.32898 0.0058258
620000000 -0.27592 0.080933 -0.023663 0.0086342 0.0030048 0.0091563 0.0085029 -0.003918
0.012273 -0.001161 0.00023062 -0.0017858
-0.023533 0.0087601 -0.39978 0.035414 -0.019208 -1.2654e-05 -0.0017479 -0.0020173
0.012148 -0.0057222 0.00052769 -0.0029483
0.0030645 0.008997 -0.019279 -2.3222e-05 -0.15574 0.24961 -0.0013258 -0.0053241
-0.0038636 -0.0025036 0.0086092 -0.0035041
0.0085697 -0.0045038 -0.0018362 -0.0021424 -0.0013033 -0.0053402 -0.26177 0.14046
-0.040285 -0.021367 0.013722 0.028658
0.011952 -0.00060911 0.012204 -0.005646 -0.0038201 -0.0024855 -0.040298 -0.021237
-0.21477 -0.084846 -0.04434 0.011759
0.00058966 -0.002724 0.00032145 -0.0032579 0.0086089 -0.0034391 0.013803 0.028592
-0.044457 0.01171 -0.24431 -0.031385
680000000 -0.24152 0.17362 -0.026236 -0.015091 0.0047264 0.0058426 0.00076693 -0.0073654
-0.0022486 -0.011309 0.0056627 -0.0072378
-0.026245 -0.015045 -0.3905 0.13687 -0.033105 -0.0021877 -0.0020438 -7.7473e-05
-0.0012454 -0.0099051 -0.00073168 -0.0016466
0.004552 0.0056749 -0.033131 -0.0020928 -0.10845 0.27237 -0.00096249 0.00024223
-0.0014737 0.00056462 -0.0027419 -0.0089805
0.00090728 -0.0073524 -0.0020474 -0.00010036 -0.00096205 0.00025794 -0.21964 0.19146
-0.022757 -0.0082462 -0.0095655 -0.011305
-0.0019706 -0.011286 -0.00121 -0.0099168 -0.0014824 0.00057747 -0.022818 -0.0081952
-0.28277 0.015428 -0.0056776 -0.0080479
0.0061386 -0.0068621 -0.0007034 -0.0015391 -0.0027556 -0.0089326 -0.0095261 -0.011312
-0.0056577 -0.0080695 -0.26296 0.074102
740000000 -0.19528 0.16769 -0.041209 0.0264 0.014075 -0.0039187 7.5562e-05 -0.0041412
-0.0038936 -0.0018496 -0.0068234 0.0029545
-0.041552 0.026579 -0.33707 0.15639 -0.037634 0.034626 0.00026686 -0.0060287
-0.013133 0.0067236 -0.0019222 -0.0059844
0.013929 -0.0041673 -0.037678 0.034727 -0.075923 0.27299 -0.0015403 0.0033335
-0.0019115 -0.0054538 -0.0019145 0.0005346
1.5058e-05 -0.0040214 8.1737e-05 -0.0059865 -0.001543 0.0033313 -0.20323 0.19936
-0.042973 -0.0093941 0.022448 0.016141
-0.004424 -0.0012465 -0.013147 0.0070015 -0.0019444 -0.005427 -0.043028 -0.0093493
-0.17974 0.048174 -0.04475 -0.00055433
-0.0069934 0.0025895 -0.0020949 -0.0063134 -0.0019388 0.00051083 0.022477 0.016201
-0.044697 -0.00054711 -0.25239 0.077264
800000000 -0.16636 0.21286 -0.022585 0.015805 0.0059333 -0.010381 -0.0045857 -0.0020898
-0.0036352 0.0016467 0.0046591 0.00047575
-0.022506 0.015885 -0.34524 0.22762 -0.0090141 0.034645 -0.0020645 0.0023097
1.1442e-05 0.002494 0.0009398 0.0053757
0.0060258 -0.010317 -0.0089204 0.034718 -0.037168 0.29912 0.0011843 0.0012883
8.1846e-05 0.0030899 -0.0014852 0.00088291
-0.0042974 -0.0021287 -0.0020881 0.0023095 0.0011931 0.001289 -0.17491 0.22664
-0.029269 0.013249 0.015142 -0.010636
-0.0035311 0.0016934 -1.6002e-05 0.0025452 8.3902e-05 0.0030807 -0.029306 0.013316
-0.23239 0.072882 -0.018298 0.020798
0.0051417 0.00069026 0.0010406 0.0054107 -0.001462 0.00088487 0.015059 -0.010751
-0.018244 0.02076 -0.24698 0.12984
860000000 -0.13289 0.23408 -0.018706 0.030377 -0.0031708 -0.01041 -0.0020578 0.00044593
0.0035299 0.0049865 -0.0037343 -0.0027208
-0.018727 0.030488 -0.29894 0.27295 0.0073439 0.034987 -0.00013459 0.0020513
0.0035119 0.00043107 0.0036606 0.00038025
-0.0032007 -0.010323 0.0074556 0.035038 0.010803 0.30972 -0.00057349 -0.00052426
0.0023046 -0.001746 0.0017351 0.00443
-0.0020139 0.00063983 -8.1502e-05 0.0020584 -0.00057292 -0.00052808 -0.13908 0.23904
-0.018908 0.017766 -0.0065027 -0.0095022
0.0037677 0.0052885 0.0034462 0.00043218 0.0023051 -0.0017515 -0.018839 0.017791
-0.1776 0.13389 -0.027178 0.016112
-0.0041276 -0.0029496 0.003676 0.00046051 0.0017383 0.0044067 -0.0064843 -0.009462
-0.02715 0.01608 -0.19835 0.17936
920000000 -0.11015 0.25806 0.004114 0.039609 -0.009566 -0.004744 -0.0017898 0.0017878
0.00044071 0.0014527 0.0029629 -0.0014545
0.0040591 0.039563 -0.27218 0.29513 0.028218 0.023458 0.0014103 0.0012496
0.0070196 -0.00016276 0.0038091 -0.0030854
-0.0095432 -0.0047531 0.028334 0.0234 0.05739 0.31225 0.0016624 2.627e-05
0.00062175 -0.00051912 0.00086711 -0.0015035
-0.0017814 0.001776 0.0014076 0.0012164 0.0016587 2.5587e-05 -0.11532 0.25655
-0.012268 0.03121 0.0038771 -0.0066462
0.0004358 0.001515 0.0070349 -0.00025883 0.00061821 -0.00049978 -0.012217 0.03122
-0.16934 0.13834 -0.0032283 0.028013
0.003022 -0.0013583 0.0037936 -0.0031645 0.0008546 -0.0014945 0.0038165 -0.006674
-0.0031819 0.028044 -0.20847 0.19159
980000000 -0.063965 0.27983 0.016494 0.031105 -0.0096184 0.0047103 0.0019698 0.0035121
0.0038976 -0.0015844 -0.0035914 -0.0025438
0.016417 0.031074 -0.22034 0.33245 0.033669 0.0055065 0.0019456 -0.00026382
0.00168 -0.0063227 -0.00040305 -0.0027129
-0.0096042 0.0047418 0.033724 0.0054035 0.10418 0.30716 0.00049735 -0.0011279
0.00029983 -0.0018743 0.0015087 -0.00024397
0.0018883 0.0035129 0.0019766 -0.00023573 0.00049587 -0.0011268 -0.076685 0.26817
0.007028 0.030916 -0.0096632 -0.0081461
0.0037568 -0.0015602 0.0017127 -0.0063073 0.00029276 -0.0018836 0.0070887 0.030928
-0.13951 0.17351 0.0052252 0.021003
-0.0036776 -0.0025837 -0.0004 -0.0026874 0.0015317 -0.00025755 -0.0096539 -0.0081259
0.0051745 0.020956 -0.1674 0.23948
1040000000 -0.023265 0.28999 0.033553 0.020238 -0.001234 0.0077348 0.0026529 0.00067267
0.00030175 -0.0034329 -7.2318e-05 -0.0015866
0.033437 0.020225 -0.18531 0.34705 0.03032 -0.014579 0.0013784 -0.0018245
-0.0024082 -0.002694 -0.0011124 -0.0030073
-0.0011724 0.0077341 0.030298 -0.014692 0.15091 0.29488 -0.00057786 -0.0014299
-0.0015456 -0.00098723 -0.00063233 -0.0012225
0.0026127 0.00063881 0.0014142 -0.001798 -0.00058158 -0.0014355 -0.049468 0.2788
0.019361 0.019944 -0.0023121 0.0012825
0.00017633 -0.0034713 -0.002384 -0.0026913 -0.0015471 -0.00097893 0.019403 0.019924
-0.10746 0.18227 0.01424 0.020186
3.6849e-05 -0.0017511 -0.0011839 -0.0028797 -0.00063625 -0.0011901 -0.0022983 0.0013038
0.014147 0.02016 -0.14586 0.26051
1100000000 0.021719 0.30033 0.03734 -0.0026917 0.0035885 0.0043043 0.0024049 -0.0010983
-0.002275 -0.0029747 -0.0041721 7.4793e-06
0.037321 -0.0027147 -0.14176 0.3674 0.01578 -0.028211 -0.00016364 -0.0018315
-0.0036483 -0.00076343 -0.003733 -0.00049992
0.003606 0.0042893 0.015682 -0.028295 0.19799 0.27557 -0.0017601 0.00031574
-0.0016686 0.00068095 -0.0011692 -0.00053012
0.0023608 -0.0010593 -0.00018078 -0.0018038 -0.0017669 0.00031886 -0.0087435 0.28428
0.025555 0.0062127 -0.002748 0.00036565
-0.0023084 -0.0030896 -0.0036199 -0.00074202 -0.0016695 0.00068149 0.025564 0.0061783
-0.089758 0.19836 0.019997 0.010089
-0.0042492 0.00012445 -0.0038308 -0.0005252 -0.0011754 -0.00053526 -0.0027249 0.00038714
0.019991 0.010063 -0.10144 0.29342
1160000000 0.072975 0.29764 0.02571 -0.020319 0.0035188 -0.00071371 -0.00015404 -0.0023656
-0.0040783 -0.00083313 -0.0011165 0.0040704
0.025655 -0.020291 -0.097916 0.37278 -0.0037161 -0.029387 -0.001644 -0.0015247
-0.0026395 0.0025562 -0.0014642 0.0019601
0.003517 -0.00073103 -0.0038432 -0.029402 0.24189 0.24531 -0.00058482 0.0017643
-0.00052778 0.0018799 -0.0010139 0.00038247
-0.00016238 -0.0024029 -0.00162 -0.0015086 -0.00059555 0.0017609 0.030941 0.28155
0.022602 -0.010406 -0.0036908 0.0052363
-0.0041061 -0.00078521 -0.0026106 0.0025504 -0.00053101 0.0018864 0.022601 -0.010416
-0.054924 0.20972 0.020038 0.00047898
-0.0010152 0.0040194 -0.001456 0.001976 -0.0010141 0.00040358 -0.0036613 0.0052418
0.020059 0.00048604 -0.05379 0.29662
1220000000 0.1167 0.28922 0.012287 -0.030654 -0.0010913 -0.0015922 -0.00011383 -0.00091397
-0.0027709 0.0022756 0.0011847 0.0020739
0.012281 -0.030619 -0.052878 0.38758 -0.017212 -0.021431 -0.0025203 0.00064537
5.2818e-05 0.0031003 -0.00078558 0.0020743
-0.0010856 -0.0015858 -0.017328 -0.021388 0.2814 0.20673 0.00092442 0.0015092
0.00060982 0.0011459 0.00014519 0.00060285
-0.00014703 -0.00091519 -0.0025159 0.00067874 0.00092617 0.001507 0.071038 0.27343
0.011402 -0.017706 0.002248 0.0015741
-0.0027922 0.0022813 9.6363e-05 0.0031143 0.00060736 0.0011349 0.011383 -0.01773
-0.032792 0.2217 0.015346 -0.012798
0.0011563 0.0020847 -0.0007784 0.0020633 0.00014833 0.00058864 0.002271 0.0015759
0.01536 -0.012801 -0.023159 0.31499
1280000000 0.16775 0.26977 -0.0071571 -0.029895 -0.0020353 0.0016658 -0.00093929 -0.0020396
-0.0010171 0.0033749 0.0024515 0.0013224
-0.0071168 -0.029886 -0.0055526 0.37946 -0.024251 -0.0080735 -0.00074963 0.0014191
0.0017151 0.0017389 0.00059063 0.0020846
-0.0020384 0.0016855 -0.024322 -0.0079691 0.31253 0.16301 0.0014427 -0.00013504
0.0010617 0.00036406 0.0002608 0.00043316
-0.00090666 -0.0020258 -0.00074487 0.0014034 0.0014399 -0.00013539 0.10795 0.25678
0.0013018 -0.020294 -0.00011305 -2.4061e-05
-0.0009853 0.0033516 0.0017299 0.0017333 0.0010589 0.00036519 0.0012824 -0.020304
0.0044162 0.22769 0.0039501 -0.016056
0.0024996 0.0013297 0.00060861 0.0020503 0.00024292 0.0004355 -0.00012069 -1.1401e-07
0.0039443 -0.016064 0.025079 0.31871
1340000000 0.20548 0.23781 -0.017405 -0.020287 0.00028529 0.0042273 -0.0018376 -0.0007069
0.0015583 0.0028467 0.0019031 -0.0014074
-0.017365 -0.020274 0.033887 0.372 -0.021277 0.0049131 -5.6303e-05 0.0019002
0.0019057 0.00073974 0.0012535 0.00071435
0.00031122 0.0042018 -0.021286 0.0050224 0.33504 0.11566 0.00083412 -0.0010141
0.0006652 -0.00054397 0.00014798 0.00026606
-0.0018755 -0.00070185 -4.929e-05 0.0019176 0.00084232 -0.0010116 0.14065 0.23663
-0.0088075 -0.017346 0.00093511 0.00051595
0.0016173 0.0028286 0.0019179 0.00073105 0.00065786 -0.00054947 -0.008848 -0.017342
0.034778 0.22568 -0.0032291 -0.014548
0.0018236 -0.0014232 0.0012824 0.00071293 0.00013203 0.00025211 0.0009166 0.00053576
-0.0032012 -0.014613 0.062816 0.31538
1400000000 0.2405 0.20113 -0.024054 -0.0086098 0.0048006 0.0032172 -0.0021017 0.00079352
0.002686 0.0010067 0.00024196 -0.0014319
-0.024018 -0.0086173 0.072461 0.35947 -0.014221 0.012866 0.0012471 0.0012576
0.0011274 -0.00072044 0.0011011 0.00016832
0.0048405 0.0032058 -0.01417 0.012969 0.34864 0.062021 -0.0001501 -0.0013609
0.00014521 -0.00020821 0.00047233 0.00033701
-0.0020702 0.00078842 0.0012549 0.0012468 -0.0001447 -0.0013591 0.17034 0.20786
-0.015362 -0.0099607 -0.00080538 -0.00023152
0.002687 0.0009907 0.0010992 -0.00075462 0.00014748 -0.00020672 -0.015372 -0.0099397
0.068712 0.22383 -0.010181 -0.0094432
0.0003116 -0.0014322 0.0011054 0.00020112 0.00046779 0.00034928 -0.00083896 -0.00026447
-0.010186 -0.0094463 0.10876 0.30625
1460000000 0.26409 0.1579 -0.021229 0.0043902 0.0052518 -0.0017019 -0.0014785 0.0016951
0.0022734 -0.00043254 -0.00021385 -0.00085149
-0.021193 0.0043805 0.10658 0.33743 -0.0049423 0.015268 0.001605 0.00021697
0.0010183 -0.0012549 0.0012038 -0.00060276
0.0052666 -0.0017163 -0.0048616 0.015296 0.3551 0.0075434 -0.0010848 -0.0010257
0.00033143 -0.0002323 0.00060201 -0.00044926
-0.0015122 0.0016776 0.0016185 0.00022533 -0.0010905 -0.0010209 0.19664 0.17909
-0.016317 -0.0026912 -0.00089431 0.0020675
0.0022655 -0.00044091 0.001032 -0.0012685 0.00033246 -0.00023424 -0.016325 -0.0026701
0.098409 0.21158 -0.012309 -0.0031533
-0.00026803 -0.00090054 0.0012117 -0.00066364 0.00059858 -0.00046798 -0.00087195 0.0020459
-0.012292 -0.0031381 0.14202 0.28621
1520000000 0.27749 0.11698 -0.015565 0.01027 0.0031816 -0.0039768 0.00020874 0.0026502
0.0023641 -0.001922 -0.0010997 -6.3175e-05
-0.015557 0.010236 0.14027 0.32405 0.0025265 0.012308 0.0016587 -0.0006256
0.00015493 -0.0010082 0.00026811 -0.00097792
0.0031561 -0.0040021 0.0025997 0.012314 0.34797 -0.048604 -0.00080467 -0.00023097
0.00068759 -0.00094669 8.202e-05 -0.00013105
0.000245 0.0026514 0.0016454 -0.00064265 -0.00080748 -0.00023049 0.22013 0.1414
-0.015303 0.0033734 0.0015908 0.0020055
0.0023888 -0.0019309 0.00013585 -0.0010021 0.00068646 -0.00094931 -0.015316 0.0034243
0.12695 0.20043 -0.012285 0.0015834
-0.0011028 -6.6349e-05 0.00027621 -0.0010103 0.00010022 -0.00011848 0.0016262 0.0020023
-0.012281 0.0015713 0.17569 0.26778
1580000000 0.28797 0.071543 -0.0086427 0.013976 -0.0010928 -0.0045571 0.0015252 0.0017145
-0.00026676 -0.002403 -9.6338e-05 0.00044059
-0.008647 0.013959 0.16774 0.29943 0.0056817 0.0069493 0.00060212 -0.0015445
-0.00044749 -0.0011072 -0.00020608 -0.00075471
-0.001119 -0.0045551 0.005732 0.00693 0.32802 -0.10608 -0.0014411 0.00028984
-0.00055626 -0.00134 0.00034949 -0.00059036
0.0015328 0.0017473 0.00059149 -0.0015397 -0.0014417 0.00030045 0.23429 0.10247
-0.011073 0.0085863 0.0021185 0.00067265
-0.000303 -0.0023695 -0.00045288 -0.0010969 -0.00055564 -0.001354 -0.01107 0.0085898
0.15216 0.1847 -0.0094593 0.0079722
-1.6778e-05 0.00046095 -0.00020458 -0.00075314 0.00033392 -0.0005928 0.0021461 0.0007092
-0.0094809 0.0080024 0.20903 0.24183
1640000000 0.29098 0.031137 -0.001483 0.012711 -0.0029364 -0.0021688 0.0027348 0.0010409
-0.0007698 -0.00172 -0.00042775 0.00039847
-0.0014987 0.012709 0.19705 0.27597 0.0055864 0.0020452 -0.00050996 -0.0018131
-0.00092438 -0.00051664 -0.00051061 -0.00066497
-0.0029347 -0.0021538 0.005601 0.0020191 0.2992 -0.15471 -0.00075534 0.0012117
-0.00113 -0.0010849 -0.00026863 -0.00044651
0.0027362 0.0010361 -0.00053954 -0.0018204 -0.00074916 0.0012132 0.24711 0.054134
-0.0064426 0.0091543 0.002617 -0.00062804
-0.00079895 -0.0016833 -0.00094316 -0.00050589 -0.001114 -0.0010766 -0.0064505 0.0091905
0.17559 0.16307 -0.0044019 0.010106
-0.0003722 0.00042207 -0.00050726 -0.00065637 -0.00025307 -0.00039742 0.0025948 -0.00064888
-0.0044129 0.01006 0.23513 0.21233
1700000000 0.28539 -0.013545 0.002157 0.0096671 -0.0033108 0.00035641 0.0031324 -0.0012626
-0.0022355 -0.0005989 0.00052438 0.00037902
0.0021395 0.0096727 0.21595 0.24522 0.002854 -0.00059007 -0.0014402 -0.00071108
-0.00076644 -9.637e-05 -0.00080038 -0.00040253
-0.003329 0.0004122 0.0028435 -0.00061022 0.25593 -0.19385 5.3674e-05 0.0015936
-0.0020579 -5.9626e-05 -0.00028588 -0.00086126
0.0031038 -0.00125 -0.0014546 -0.00070588 3.5589e-05 0.0015877 0.24491 0.0045623
-0.0036377 0.0093063 0.0016603 -0.0022244
-0.0022499 -0.00058147 -0.0007473 -0.00010224 -0.0020596 -5.4299e-05 -0.0036096 0.0093065
0.19464 0.14544 0.00056031 0.0099719
0.00050172 0.00036496 -0.00082057 -0.00040942 -0.00032228 -0.00086911 0.0016662 -0.002193
0.00055427 0.0099862 0.25316 0.17903
1760000000 0.27469 -0.061836 0.0044398 0.0062458 -0.0021061 0.0012493 0.0012323 -0.0034717
-0.0013456 0.00061333 0.0001639 -0.00049348
0.0044344 0.0062341 0.24213 0.20646 4.4361e-05 -0.001878 -0.001272 9.8634e-06
-0.0011372 0.00085671 -0.00053784 0.0003552
-0.0021184 0.001238 2.7102e-05 -0.0018673 0.20731 -0.22636 0.0011409 0.001362
-0.0011941 0.0014657 -0.0013786 -0.00063101
0.0012022 -0.0035143 -0.0012809 5.6546e-06 0.0011375 0.0013457 0.23643 -0.047125
-0.0006283 0.0079738 -0.00020852 -0.0023544
-0.0013274 0.00066512 -0.0011263 0.00088558 -0.0011767 0.001462 -0.0006311 0.0079877
0.21039 0.11296 0.0047289 0.0073269
0.00014892 -0.00047707 -0.0005207 0.00034084 -0.0013638 -0.00062907 -0.00020171 -0.0023713
0.0047246 0.007314 0.26671 0.14154
1820000000 0.2521 -0.099022 0.0044557 0.0026369 0.00010556 0.0024177 -0.00092029 -0.0031432
-0.0010661 0.00093713 -0.00021599 -7.6419e-05
0.0044411 0.0026523 0.25354 0.17759 -0.0021783 2.7647e-05 -0.0014386 0.0009081
-5.2702e-05 0.0011844 -0.0006483 0.00037859
9.5169e-05 0.0024354 -0.0021773 4.5049e-05 0.15732 -0.24137 0.001818 0.0005038
-0.00017031 0.00226 -0.0017749 0.00026923
-0.00091532 -0.0031099 -0.0014339 0.00091766 0.0018408 0.00050462 0.20761 -0.094568
0.00054494 0.0064816 -0.0015404 -0.0019382
-0.0010451 0.0009529 -4.8966e-05 0.0011851 -0.00016233 0.0022594 0.00057035 0.0064773
0.23013 0.086518 0.0057237 0.0032717
-0.00020048 -0.0001016 -0.00064098 0.00038578 -0.0017383 0.00029451 -0.0015694 -0.0019499
0.0057012 0.0032358 0.2707 0.10678
1880000000 0.21867 -0.14021 0.0022109 0.00058048 -0.00015702 0.0024619 -0.0029612 -0.0023804
-6.7145e-05 0.0015953 0.00030754 -0.00057219
0.0021921 0.00056552 0.25875 0.13149 -0.0040028 0.0029297 -0.00037361 0.001841
0.00049476 0.0013332 8.6963e-05 0.00089801
-0.00016351 0.0024482 -0.0039927 0.0029669 0.1056 -0.2494 0.0019456 -0.0010461
0.0016412 0.001928 -0.001059 0.0015144
-0.0029679 -0.0023791 -0.00037657 0.0018393 0.0019451 -0.0010553 0.16765 -0.13549
0.0011775 0.0047689 -0.0024602 0.00010773
-3.4e-05 0.0015969 0.00049316 0.0013193 0.0016492 0.0019255 0.0011875 0.0047692
0.23613 0.057073 0.0058854 0.00098148
0.00029727 -0.00057688 9.868e-05 0.00094855 -0.0010552 0.0014962 -0.0023488 5.3539e-05
0.0059202 0.00098407 0.27219 0.072535
1940000000 0.18037 -0.16689 0.0002082 -0.0010194 0.0019298 0.0018057 -0.0037726 0.00028129
0.0012561 0.00079718 -0.00062869 -0.00066497
0.0002256 -0.001045 0.26094 0.10052 -0.0016976 0.0057551 0.0010218 0.0014117
0.0019218 0.00050932 0.00091468 0.00018448
0.0019591 0.0018086 -0.001665 0.0057863 0.062084 -0.24143 0.00050333 -0.0024465
0.0022331 0.00038441 0.0003877 0.0017283
-0.0037955 0.00021183 0.0010612 0.0014036 0.0005107 -0.0024468 0.11532 -0.16696
0.00016839 0.0033534 -0.001702 0.0016014
0.0012955 0.000756 0.0019315 0.00049172 0.00223 0.00036008 0.00017065 0.0033564
0.24156 0.021009 0.0042455 -0.0030253
-0.00058003 -0.00070845 0.00091168 0.00022683 0.00039549 0.0017484 -0.0017156 0.0015961
0.0042241 -0.0030175 0.26202 0.036557
2000000000 0.1349 -0.18261 -0.0034972 0.00097765 0.002774 0.0011163 -0.0025285 0.0036929
0.00075142 0.00032245 -0.00073003 0.00043572
-0.0034659 0.00098023 0.2483 0.065004 -0.00043679 0.0076254 0.0016387 0.00038248
0.0011881 -0.0012423 0.00037774 9.3924e-05
0.0028083 0.0011538 -0.00038471 0.0076352 0.020729 -0.22817 -0.0015442 -0.0014807
0.0020312 -0.0010139 0.0016736 0.0015313
-0.0024175 0.0037224 0.0016556 0.00035338 -0.0015563 -0.0014693 0.062277 -0.17773
-0.0010975 0.0034897 -0.00014926 0.0020871
0.00077048 0.00039603 0.0011924 -0.0012664 0.0020304 -0.0010197 -0.001094 0.003478
0.24001 -0.011162 0.00054272 -0.0040261
