!Keysight Technologies,M9804A,MY58100912,A.14.10.03
!Date: Thursday, April 27, 2023 10:28:33
!Correction: S11(C  6-Port  ) 
!S12(C  6-Port  ) 
!S13(C  6-Port  ) 
!S14(C  6-Port  ) 
!S15(C  6-Port  ) 
!S16(C  6-Port  ) 
!S21(C  6-Port  ) 
!S22(C  6-Port  ) 
!S23(C  6-Port  ) 
!S24(C  6-Port  ) 
!S25(C  6-Port  ) 
!S26(C  6-Port  ) 
!S31(C  6-Port  ) 
!S32(C  6-Port  ) 
!S33(C  6-Port  ) 
!S34(C  6-Port  ) 
!S35(C  6-Port  ) 
!S36(C  6-Port  ) 
!S41(C  6-Port  ) 
!S42(C  6-Port  ) 
!S43(C  6-Port  ) 
!S44(C  6-Port  ) 
!S45(C  6-Port  ) 
!S46(C  6-Port  ) 
!S51(C  6-Port  ) 
!S52(C  6-Port  ) 
!S53(C  6-Port  ) 
!S54(C  6-Port  ) 
!S55(C  6-Port  ) 
!S56(C  6-Port  ) 
!S61(C  6-Port  ) 
!S62(C  6-Port  ) 
!S63(C  6-Port  ) 
!S64(C  6-Port  ) 
!S65(C  6-Port  ) 
!S66(C  6-Port  ) 
!S6P File: Measurement: :
# Hz S  RI   R 50
500000000 -0.32789 -0.065259 -0.010039 -0.001335 -0.0084174 0.012085 -0.0044339 0.012737
0.013066 0.0061996 -0.0049394 0.0096124
-0.010086 -0.001288 -0.40927 -0.074998 0.0085881 -0.010893 0.0012757 0.01198
0.0084202 0.003593 0.001251 0.013927
-0.008411 0.012171 0.0085628 -0.010907 -0.25752 0.18955 0.0072439 0.0034923
-0.0022014 0.0087174 0.0013816 0.012567
-0.0043907 0.0128 0.0014035 0.012081 0.0072714 0.0034945 -0.32681 0.040124
-0.019879 -0.0057398 0.015983 0.026877
0.012929 0.0061254 0.008369 0.003497 -0.0022009 0.0087149 -0.019835 -0.0057085
-0.22044 -0.23225 -0.027783 0.0037642
-0.0048109 0.0096222 0.0014217 0.014093 0.0015355 0.012581 0.016297 0.026996
-0.028014 0.003551 -0.26163 -0.14342
560000000 -0.3163 0.10259 -0.022418 -0.06743 0.00036029 0.012807 0.0050263 0.010925
0.010737 0.0047025 0.010878 0.0092965
-0.022476 -0.067416 -0.37114 0.089663 -0.041499 -0.039229 0.013288 0.0021468
-0.013115 -0.0052833 0.0047092 -0.0014973
0.00043821 0.012832 -0.041656 -0.039189 -0.18231 0.23973 -0.00053501 -0.0051797
0.017689 0.0068324 0.0075386 -0.0057921
0.0051601 0.010966 0.013283 0.002037 -0.00051418 -0.0051365 -0.30435 0.12985
0.0072185 -0.022666 0.0059629 -0.02199
0.010644 0.004721 -0.013072 -0.0051188 0.017676 0.0067553 0.0072109 -0.022655
-0.30026 -0.050772 0.011246 -0.050723
0.011038 0.0087588 0.0044872 -0.0019865 0.0074084 -0.0057719 0.0060211 -0.021563
0.011628 -0.050777 -0.32989 0.0067244
620000000 -0.27492 0.080219 -0.023536 0.0087621 0.0033454 0.0090735 0.0087637 -0.0041381
0.012046 -0.00082784 0.00063152 -0.0016651
-0.023507 0.0087154 -0.39991 0.035371 -0.019262 -1.7414e-05 -0.0015315 -0.0022562
0.011896 -0.0053134 0.00069611 -0.0029897
0.0034604 0.0090458 -0.019284 2.5216e-05 -0.15571 0.24965 -0.0013273 -0.0052052
-0.0044179 -0.0027933 0.0085286 -0.0030405
0.0088616 -0.0041264 -0.0015483 -0.0022481 -0.0013142 -0.0052231 -0.26281 0.14015
-0.039773 -0.019731 0.012257 0.028174
0.011793 -0.00092995 0.011866 -0.0053705 -0.0044717 -0.0027388 -0.039735 -0.019668
-0.21522 -0.087849 -0.043445 0.01386
0.00085695 -0.0015642 0.0007355 -0.0031338 0.0085298 -0.0028737 0.0124 0.028257
-0.043478 0.014236 -0.24511 -0.031813
680000000 -0.24153 0.17334 -0.026353 -0.015111 0.0044613 0.0056385 0.0014671 -0.0074459
-0.0026485 -0.011946 0.006007 -0.0062759
-0.026303 -0.015109 -0.39051 0.13678 -0.033101 -0.0023662 -0.0016865 -0.00039862
-0.0016604 -0.010058 -0.0005629 -0.0014255
0.0045147 0.0056712 -0.033159 -0.0022773 -0.10822 0.27216 -0.00081799 0.00012891
-0.0014401 0.00062807 -0.0029873 -0.0088856
0.001473 -0.0074537 -0.0016527 -0.00034475 -0.00081201 0.00017409 -0.21953 0.19246
-0.022837 -0.0087844 -0.0088888 -0.011446
-0.0026223 -0.012142 -0.0016249 -0.010086 -0.0014086 0.00060963 -0.022831 -0.0087714
-0.28248 0.016248 -0.0065115 -0.0076291
0.0059258 -0.0069449 -0.00071599 -0.0017378 -0.002988 -0.0090653 -0.0085311 -0.011165
-0.0064762 -0.007886 -0.26107 0.0744
740000000 -0.19576 0.1672 -0.041307 0.026376 0.014021 -0.0039303 -0.0001256 -0.0042372
-0.0038526 -0.0013029 -0.0067625 0.0030243
-0.041285 0.026383 -0.33714 0.15624 -0.037194 0.034537 0.00016262 -0.0061696
-0.013297 0.0067246 -0.0010989 -0.0058262
0.013996 -0.0039709 -0.037162 0.034707 -0.075841 0.27331 -0.0017788 0.0032929
-0.0016513 -0.0049365 -0.0021857 0.0004594
-0.00020653 -0.0042366 0.00011428 -0.0061621 -0.0018196 0.0032809 -0.20345 0.19923
-0.042619 -0.0089004 0.022791 0.016434
-0.0039096 -0.0013295 -0.013233 0.0068628 -0.0016684 -0.0048813 -0.042698 -0.0088591
-0.17993 0.050339 -0.044164 -0.00012992
-0.006834 0.0027796 -0.00085111 -0.0055941 -0.0023598 0.0007471 0.022533 0.016586
-0.044069 -3.8298e-05 -0.25235 0.077933
800000000 -0.16644 0.21272 -0.022668 0.015841 0.0058535 -0.010297 -0.0044931 -0.0022498
-0.0040221 0.0017849 0.0047669 0.00030012
-0.022675 0.015801 -0.34533 0.22768 -0.0090694 0.034756 -0.0019655 0.0023239
-0.00035659 0.0024823 0.0010183 0.0056919
0.0058341 -0.010363 -0.0089731 0.034833 -0.037179 0.29911 0.0011241 0.0012004
3.3268e-05 0.0033271 -0.0013849 0.00086794
-0.0045015 -0.0022757 -0.0019517 0.0023189 0.0011415 0.001192 -0.17488 0.22689
-0.029283 0.013292 0.015227 -0.010301
-0.0040576 0.0018 -0.00035564 0.0024787 1.677e-05 0.0033244 -0.029273 0.013334
-0.23291 0.073303 -0.018735 0.020542
0.0045828 0.00057875 0.0010492 0.0058162 -0.0015307 0.00080557 0.015312 -0.010537
-0.01854 0.020716 -0.24706 0.13123
860000000 -0.13289 0.23374 -0.018749 0.030434 -0.0030956 -0.010418 -0.0017479 0.00052059
0.0041173 0.0051567 -0.0036964 -0.0022877
-0.018745 0.030373 -0.2989 0.27285 0.007351 0.034928 0.00013995 0.0019342
0.003892 0.00078277 0.0039368 0.00029397
-0.0031101 -0.010417 0.0074723 0.034953 0.010876 0.30966 -0.00050734 -0.00044269
0.0024903 -0.0017324 0.0017053 0.004186
-0.0017933 0.00052414 0.0001329 0.0019253 -0.0005146 -0.00044984 -0.13881 0.23899
-0.018963 0.018098 -0.0060833 -0.0096818
0.0041781 0.0051869 0.0038915 0.00072618 0.0024857 -0.0017192 -0.018959 0.018123
-0.17745 0.13259 -0.026192 0.017306
-0.0036147 -0.0026216 0.0037338 0.00013479 0.0017967 0.0042435 -0.0062288 -0.0093858
-0.026096 0.01719 -0.19974 0.17731
920000000 -0.10999 0.25801 0.0040796 0.039585 -0.0095066 -0.0047163 -0.0018101 0.0017396
7.0675e-05 0.0017154 0.0029601 -0.0014261
0.0040624 0.039531 -0.27233 0.29516 0.028255 0.023456 0.0015741 0.0011881
0.0068244 3.7771e-05 0.0038575 -0.0026241
-0.009533 -0.0046859 0.028381 0.023407 0.057441 0.31223 0.0017629 -3.0917e-05
0.00044076 -0.00024273 0.0010998 -0.0014341
-0.0018049 0.0017049 0.001543 0.0012349 0.0017672 -2.9264e-05 -0.1151 0.25636
-0.01251 0.031075 0.0042715 -0.006701
0.00010106 0.0016889 0.0068546 -7.454e-06 0.00042977 -0.00024761 -0.01244 0.031098
-0.16961 0.13874 -0.0032191 0.028375
0.0029532 -0.0011668 0.0039148 -0.002694 0.0010691 -0.0014549 0.0043267 -0.006843
-0.0031771 0.028276 -0.20753 0.19199
980000000 -0.064141 0.27979 0.016457 0.031163 -0.0097003 0.0046738 0.0020286 0.0035402
0.0038312 -0.0014574 -0.0035339 -0.0027956
0.016406 0.031162 -0.2204 0.33232 0.033644 0.0055387 0.0019109 -0.00021161
0.0018188 -0.0061167 -0.00038027 -0.003076
-0.0096655 0.0046938 0.033691 0.0054283 0.10417 0.3072 0.00045283 -0.0011118
0.00027106 -0.0019384 0.0014201 -0.00027927
0.002049 0.0035711 0.0019031 -0.00023735 0.00045624 -0.0011175 -0.076603 0.26815
0.0072197 0.030897 -0.0095282 -0.0081923
0.0038203 -0.0015183 0.0017828 -0.0061575 0.00027017 -0.0019215 0.0072818 0.030882
-0.1398 0.17354 0.005406 0.020457
-0.0034798 -0.0029931 -0.00042875 -0.0030932 0.0014838 -0.00026901 -0.0096023 -0.0079796
0.0055416 0.020199 -0.16775 0.23957
1040000000 -0.023292 0.28952 0.033538 0.020173 -0.0012464 0.0077602 0.0025181 0.00058962
0.00035944 -0.0034896 -0.00014771 -0.0016897
0.033488 0.020177 -0.18536 0.34688 0.030327 -0.014557 0.0014311 -0.0017771
-0.0025169 -0.0025442 -0.0010507 -0.0028328
-0.0012129 0.0077499 0.03031 -0.014682 0.15092 0.29483 -0.00056442 -0.0014738
-0.0015629 -0.00095614 -0.00061911 -0.0012158
0.0025004 0.00054738 0.0014189 -0.0017964 -0.00056039 -0.0014734 -0.04953 0.27879
0.019285 0.019884 -0.0024444 0.0012952
0.0003379 -0.0034768 -0.0025363 -0.0025824 -0.001562 -0.00095019 0.01934 0.019867
-0.10732 0.18212 0.014003 0.019905
-0.00013739 -0.0014026 -0.0010328 -0.0029278 -0.00061739 -0.0012359 -0.0024115 0.0012041
0.014091 0.020034 -0.14623 0.2607
1100000000 0.021774 0.30043 0.037374 -0.0027153 0.0035843 0.0043136 0.0024017 -0.0010194
-0.0025246 -0.0031512 -0.0041991 0.00012577
0.037345 -0.0026837 -0.14177 0.36733 0.015818 -0.02818 -0.00017997 -0.0018168
-0.0035907 -0.00088927 -0.0037586 -0.00048204
0.0036042 0.0042919 0.015725 -0.028277 0.19797 0.27558 -0.0017956 0.00036248
-0.0016575 0.00071591 -0.0011343 -0.00053801
0.0023893 -0.00099457 -0.00019937 -0.0018204 -0.001803 0.00035908 -0.0088042 0.28424
0.025624 0.0061458 -0.0028168 8.5204e-05
-0.0025409 -0.0031811 -0.0035929 -0.00088386 -0.0016538 0.00071964 0.025625 0.0060957
-0.08921 0.19836 0.020033 0.009856
-0.0042238 -2.8252e-05 -0.0037828 -0.00048563 -0.00112 -0.00051816 -0.0028703 0.00010068
0.020126 0.0097273 -0.1013 0.29304
1160000000 0.072845 0.29769 0.025638 -0.020357 0.0035734 -0.00070106 -0.00033064 -0.0023245
-0.0042134 -0.0010798 -0.0013691 0.0042294
0.025642 -0.02032 -0.097996 0.37283 -0.0036875 -0.029373 -0.0016336 -0.0015028
-0.0026628 0.0024167 -0.0015926 0.0020515
0.003584 -0.00072189 -0.0038267 -0.029374 0.2419 0.24533 -0.00053378 0.0017356
-0.0005117 0.0018554 -0.001045 0.0003307
-0.00033052 -0.0023665 -0.0016689 -0.0015188 -0.00054555 0.0017327 0.030846 0.28162
0.022692 -0.010458 -0.0036924 0.0050753
-0.0042146 -0.0010797 -0.0026439 0.0024384 -0.00051459 0.0018566 0.022672 -0.010465
-0.054639 0.20991 0.020036 0.00053863
-0.0013413 0.0043398 -0.0015388 0.0020354 -0.001022 0.00024259 -0.0035584 0.0050478
0.020106 0.0006066 -0.052952 0.29703
1220000000 0.11672 0.28921 0.012283 -0.030734 -0.0010779 -0.0015961 1.5817e-05 -0.00098398
-0.0027892 0.0022811 0.001147 0.0021324
0.012284 -0.030694 -0.052919 0.38755 -0.017182 -0.02143 -0.0025341 0.00059443
0.00012062 0.0031146 -0.00081305 0.0019853
-0.0010868 -0.0015974 -0.017316 -0.02138 0.28138 0.20669 0.00090881 0.0014903
0.00069504 0.0011299 0.00015399 0.00057589
4.2726e-05 -0.00095697 -0.0025268 0.00058617 0.00090681 0.0014918 0.071138 0.27342
0.011469 -0.017779 0.0022714 0.0015985
-0.0027953 0.0023105 0.00015926 0.0031418 0.00070475 0.0011243 0.011461 -0.017811
-0.032617 0.22144 0.015334 -0.012803
0.0011486 0.0019416 -0.00088127 0.0019354 0.00013612 0.00061639 0.0022636 0.0015646
0.01535 -0.012874 -0.023098 0.31518
1280000000 0.16772 0.26974 -0.0071327 -0.029907 -0.0020206 0.0016409 -0.0010625 -0.0020109
-0.0010792 0.0033788 0.0025681 0.0012777
-0.0071066 -0.029874 -0.0055218 0.37947 -0.024274 -0.008062 -0.00072433 0.0014277
0.0016912 0.001768 0.00069182 0.0020792
-0.002007 0.0016495 -0.024337 -0.0079596 0.31255 0.16305 0.0014698 -0.0001804
0.0011321 0.00028233 0.00022671 0.00040849
-0.0010843 -0.0020352 -0.00073595 0.0014318 0.0014696 -0.00018086 0.10788 0.25682
0.0012312 -0.020386 -0.0001897 6.3261e-05
-0.0010501 0.003376 0.0017134 0.0017571 0.0011358 0.00027211 0.0011744 -0.020375
0.0046607 0.2276 0.0037416 -0.016216
0.0025913 0.0013619 0.00073449 0.0020402 0.00022766 0.00038106 -0.00011179 0.00018363
0.0036536 -0.016122 0.025383 0.31919
1340000000 0.20546 0.2378 -0.017428 -0.020295 0.0002149 0.0042245 -0.0018629 -0.00076095
0.0015289 0.0028741 0.0018649 -0.0013949
-0.017397 -0.020279 0.033891 0.372 -0.021258 0.0048605 -0.00012287 0.0018927
0.0018629 0.00074779 0.0012899 0.00078747
0.00023903 0.0042229 -0.021263 0.0049768 0.335 0.11564 0.00080477 -0.0010024
0.00060578 -0.00057289 0.00013523 0.00022682
-0.0018391 -0.00075509 -0.00012119 0.0018817 0.00080068 -0.0010013 0.14079 0.23659
-0.0089834 -0.017348 0.00094814 0.00051836
0.0015418 0.0028709 0.0018839 0.00074162 0.00061017 -0.00057351 -0.0090075 -0.017343
0.034425 0.22547 -0.0034014 -0.014527
0.0018026 -0.0015014 0.0012252 0.00080537 0.00011725 0.00026351 0.00090027 0.00042621
-0.0032725 -0.014663 0.063138 0.31548
1400000000 0.24051 0.20109 -0.024101 -0.0085499 0.0047947 0.003234 -0.0021332 0.00074429
0.0026724 0.0010551 0.0003023 -0.0014545
-0.024082 -0.0085648 0.072444 0.35953 -0.014184 0.012891 0.0012425 0.0012139
0.0011406 -0.00067299 0.0011397 0.00015461
0.0048228 0.0032127 -0.014147 0.012977 0.34867 0.062075 -0.00011936 -0.0013956
0.00011818 -0.00014403 0.00040463 0.00038054
-0.0021332 0.00075998 0.0012717 0.0012092 -0.00011413 -0.0014046 0.17031 0.20793
-0.015316 -0.010066 -0.00084188 -0.00016908
0.002681 0.001032 0.0011156 -0.0006909 0.00010948 -0.00015324 -0.015365 -0.010042
0.068502 0.22385 -0.01018 -0.009432
0.00032967 -0.0013911 0.0011625 9.9234e-05 0.000427 0.00031399 -0.00088302 -4.6901e-05
-0.010238 -0.0095162 0.10864 0.30618
1460000000 0.26401 0.15781 -0.021251 0.0043806 0.0051656 -0.0016699 -0.0014238 0.0016992
0.0023093 -0.00047765 -0.00020123 -0.00074128
-0.021239 0.004364 0.10658 0.33741 -0.0049316 0.015232 0.0016141 0.0002417
0.001007 -0.0012938 0.0012047 -0.0005914
0.0051635 -0.0016761 -0.004865 0.015284 0.3551 0.0074911 -0.0010937 -0.0010225
0.00042577 -0.00021188 0.00064661 -0.0004294
-0.0014049 0.0017024 0.001611 0.00025426 -0.0010969 -0.0010189 0.1966 0.17909
-0.016323 -0.0026061 -0.00092856 0.0020551
0.0023328 -0.00046789 0.0010049 -0.0013104 0.00043146 -0.00020823 -0.016303 -0.0025478
0.098038 0.21132 -0.012408 -0.0030377
-0.00020656 -0.00081404 0.0011687 -0.00059263 0.00070543 -0.00036191 -0.00090369 0.0019919
-0.012348 -0.0030106 0.14196 0.28589
1520000000 0.27746 0.11699 -0.015572 0.010285 0.0031385 -0.0039786 0.00020025 0.0026432
0.002377 -0.0019859 -0.0010944 -0.00010978
-0.015565 0.01027 0.14024 0.32405 0.0025193 0.01233 0.0016599 -0.00064598
0.00011674 -0.0010139 0.0003173 -0.0010211
0.0031185 -0.0039927 0.0026 0.012329 0.34795 -0.048536 -0.00074912 -0.00028179
0.00068134 -0.00095679 0.00017006 -0.000209
0.0002166 0.0026496 0.0016642 -0.00066637 -0.00074628 -0.00028262 0.22012 0.14128
-0.015311 0.0033769 0.0016426 0.0020161
0.0023544 -0.002002 0.00011607 -0.0010044 0.00069027 -0.00095551 -0.0153 0.0034117
0.12671 0.20043 -0.012144 0.0017675
-0.0010477 -9.9357e-05 0.0002961 -0.00099391 0.00016056 -0.00019926 0.0015953 0.002091
-0.012282 0.0017186 0.17542 0.26772
1580000000 0.288 0.071464 -0.0086011 0.013961 -0.0011206 -0.0046112 0.0015187 0.0017678
-0.00019411 -0.0024171 -0.00018741 0.00042466
-0.0086086 0.013946 0.16771 0.29943 0.0056742 0.0069495 0.00061346 -0.0015414
-0.00043455 -0.0011214 -0.00023683 -0.00070696
-0.0011175 -0.0046107 0.0057197 0.0069274 0.32808 -0.10597 -0.0014394 0.00030383
-0.00046034 -0.0013488 0.00029575 -0.00052439
0.0015082 0.0017491 0.00059805 -0.0015351 -0.0014245 0.00029878 0.23431 0.10244
-0.011115 0.0086014 0.0021718 0.00069596
-0.00020223 -0.0024136 -0.00045208 -0.001128 -0.00045719 -0.0013389 -0.011078 0.0086419
0.15195 0.18461 -0.009518 0.007968
-0.00019126 0.00039087 -0.00023926 -0.00071156 0.00032232 -0.00052089 0.0022862 0.00067281
-0.0094102 0.0080928 0.20915 0.24214
1640000000 0.29095 0.031107 -0.0014808 0.012736 -0.0029093 -0.0021928 0.0027507 0.0010196
-0.0008061 -0.0017616 -0.00039478 0.00048405
-0.0015061 0.012729 0.19702 0.27601 0.005598 0.0020846 -0.00049339 -0.0018225
-0.00089108 -0.00049585 -0.00049825 -0.00065451
-0.002913 -0.0021781 0.0056214 0.0020585 0.29914 -0.15466 -0.00071951 0.001192
-0.0010932 -0.0010492 -0.00014899 -0.00044409
0.0027699 0.0010137 -0.0005124 -0.0018243 -0.00071438 0.0011928 0.24714 0.054094
-0.0063582 0.0091355 0.0025373 -0.00072394
-0.00081551 -0.0017626 -0.00089532 -0.000491 -0.0011029 -0.0010273 -0.0063165 0.0091188
0.17552 0.16322 -0.0043724 0.010042
-0.00036463 0.00046443 -0.00049467 -0.00060968 -0.00015711 -0.00042012 0.0024963 -0.00068452
-0.0044598 0.0099234 0.23516 0.21231
1700000000 0.28538 -0.013474 0.0021963 0.0096667 -0.0032763 0.00030833 0.0030879 -0.00126
-0.0022268 -0.00055629 0.00044589 0.00034276
0.002179 0.0096607 0.21587 0.24525 0.0028607 -0.00058399 -0.0014325 -0.00069765
-0.00076356 -0.00012882 -0.00079262 -0.00043736
-0.0032591 0.0003219 0.0028598 -0.00060369 0.25589 -0.19384 0.00014406 0.0015863
-0.002042 -0.00012246 -0.00046168 -0.00089855
0.0030799 -0.0012867 -0.0014361 -0.00069361 0.00016278 0.0015872 0.24481 0.0045501
-0.0036163 0.0092457 0.0016853 -0.0020914
-0.0022198 -0.00054965 -0.00076676 -0.00010622 -0.0020252 -0.000106 -0.0036198 0.0092562
0.19459 0.14535 0.00066792 0.010045
0.00045742 0.00031085 -0.00080442 -0.00042143 -0.00049029 -0.00091442 0.0017801 -0.0020528
0.00073755 0.010138 0.25319 0.17902
1760000000 0.27456 -0.061737 0.0044271 0.0062307 -0.0020816 0.0012247 0.0012764 -0.0035341
-0.0012714 0.00064516 0.00021019 -0.00055659
0.004428 0.0062235 0.24215 0.2065 3.4136e-05 -0.0018978 -0.0012527 6.0063e-05
-0.001102 0.00089879 -0.00053804 0.00034085
-0.002065 0.0012383 2.9736e-05 -0.0018959 0.20731 -0.22638 0.0011373 0.0013716
-0.0010978 0.0014623 -0.0014194 -0.00073629
0.0012799 -0.0035454 -0.00127 6.5606e-05 0.0011242 0.0013681 0.2364 -0.047095
-0.00058362 0.0080026 -0.00014852 -0.0025633
-0.0012492 0.00066463 -0.0010939 0.00090012 -0.0010946 0.0014763 -0.00057437 0.0079823
0.21054 0.11305 0.0046312 0.0072517
0.00017974 -0.00051742 -0.00054315 0.0003221 -0.0013881 -0.00072353 -0.00018175 -0.0025516
0.0046576 0.0071987 0.26689 0.14173
1820000000 0.25202 -0.098906 0.0044579 0.0026171 7.6319e-05 0.0024137 -0.0009239 -0.0031189
-0.0010167 0.0010146 -0.00010638 -5.8598e-05
0.004448 0.0026222 0.25354 0.17765 -0.0021711 -7.9771e-06 -0.0014683 0.00092934
-9.0801e-05 0.0011798 -0.00061695 0.00039416
8.8089e-05 0.002405 -0.0021742 8.1602e-06 0.15726 -0.24133 0.0018388 0.00054925
-0.0001604 0.0022773 -0.0017915 0.00021579
-0.00096564 -0.0031328 -0.0014687 0.00094661 0.0018381 0.00054651 0.20763 -0.094553
0.00054934 0.0064742 -0.0015849 -0.001841
-0.0010267 0.0010161 -8.6767e-05 0.001184 -0.00014888 0.0022862 0.00056024 0.0064838
0.23009 0.086567 0.0056633 0.0033737
-9.0951e-05 -4.6879e-05 -0.00061526 0.00038921 -0.0018305 0.00018807 -0.0015299 -0.0018578
0.0056618 0.0033654 0.27063 0.10672
1880000000 0.2187 -0.14022 0.0022114 0.00054489 -0.00019009 0.002388 -0.0028786 -0.0024253
-5.124e-05 0.0015979 0.00042737 -0.00057951
0.0022158 0.00054744 0.25874 0.13156 -0.0040459 0.0029262 -0.00030409 0.0018134
0.00047678 0.0013235 0.0001301 0.00090166
-0.00016205 0.0023847 -0.0040336 0.0029527 0.10546 -0.24932 0.0019707 -0.0011581
0.0016151 0.0019663 -0.0010559 0.0015495
-0.0028143 -0.0023681 -0.00028048 0.0018442 0.0019783 -0.0011616 0.16752 -0.1355
0.0010863 0.004802 -0.0025032 0.00017345
-3.4144e-05 0.0016268 0.00050054 0.0013238 0.001632 0.0019398 0.0011293 0.0047736
0.23609 0.05717 0.0057804 0.00090277
0.0004372 -0.00058099 0.00012019 0.00092178 -0.0010988 0.0015514 -0.0025834 7.3729e-05
0.0058263 0.00079412 0.27222 0.072454
1940000000 0.18031 -0.16682 0.00020732 -0.0010737 0.0019907 0.0018178 -0.0037593 0.00030768
0.0013008 0.00084356 -0.00052304 -0.00065748
0.00020145 -0.0010869 0.26101 0.10056 -0.0017111 0.0058046 0.0010775 0.0014315
0.0018954 0.00052155 0.00087898 0.00020803
0.0020064 0.0017896 -0.0016769 0.005817 0.06209 -0.24144 0.00059671 -0.0024612
0.0022375 0.00041954 0.00044004 0.001782
-0.0037655 0.00032729 0.0010877 0.0014188 0.00059845 -0.0024801 0.11517 -0.16677
0.00017425 0.0034275 -0.0016885 0.0015468
0.0013121 0.00079656 0.0019031 0.00050572 0.0022567 0.00043504 0.00014967 0.003435
0.24159 0.021065 0.0043127 -0.0029476
-0.00059153 -0.00069935 0.00089247 0.00017657 0.00042529 0.0017424 -0.0016862 0.0015663
0.0042519 -0.0029179 0.26246 0.036785
2000000000 0.135 -0.1826 -0.0034188 0.00091647 0.0029507 0.001046 -0.002509 0.0036606
0.00084359 0.00029189 -0.00067557 0.00038345
-0.0034251 0.00091094 0.24838 0.065007 -0.00043271 0.0076166 0.0016569 0.00032604
0.001285 -0.0012207 0.00045758 4.78e-05
0.00295 0.0010527 -0.00039141 0.0076338 0.020753 -0.2282 -0.0014394 -0.0015481
0.0020891 -0.0010205 0.001766 0.0014843
-0.0024315 0.0036923 0.0016887 0.00031022 -0.0014394 -0.0015599 0.062232 -0.17793
-0.0011057 0.0034006 -0.00032702 0.0021736
0.00086961 0.00033605 0.001291 -0.0012178 0.002096 -0.0010488 -0.0010897 0.0033953
0.24005 -0.01114 0.00052346 -0.0039572
