!Keysight Technologies,M9804A,MY58100912,A.14.10.03
!Date: Thursday, April 27, 2023 10:28:33
!Correction: S11(C  6-Port  ) 
!S12(C  6-Port  ) 
!S13(C  6-Port  ) 
!S14(C  6-Port  ) 
!S15(C  6-Port  ) 
!S16(C  6-Port  ) 
!S21(C  6-Port  ) 
!S22(C  6-Port  ) 
!S23(C  6-Port  ) 
!S24(C  6-Port  ) 
!S25(C  6-Port  ) 
!S26(C  6-Port  ) 
!S31(C  6-Port  ) 
!S32(C  6-Port  ) 
!S33(C  6-Port  ) 
!S34(C  6-Port  ) 
!S35(C  6-Port  ) 
!S36(C  6-Port  ) 
!S41(C  6-Port  ) 
!S42(C  6-Port  ) 
!S43(C  6-Port  ) 
!S44(C  6-Port  ) 
!S45(C  6-Port  ) 
!S46(C  6-Port  ) 
!S51(C  6-Port  ) 
!S52(C  6-Port  ) 
!S53(C  6-Port  ) 
!S54(C  6-Port  ) 
!S55(C  6-Port  ) 
!S56(C  6-Port  ) 
!S61(C  6-Port  ) 
!S62(C  6-Port  ) 
!S63(C  6-Port  ) 
!S64(C  6-Port  ) 
!S65(C  6-Port  ) 
!S66(C  6-Port  ) 
!S6P File: Measurement: :
# Hz S  RI   R 50
500000000 -0.33435 -0.054385 -0.0099697 -0.0014387 -0.00816 0.012913 -0.0039445 0.011869
0.012778 0.0049518 -0.0034921 0.0077766
-0.0099907 -0.0014741 -0.41583 -0.064505 0.0080048 -0.010861 0.00091839 0.012131
0.0084918 0.0029501 0.00088775 0.013492
-0.0081876 0.012932 0.007971 -0.0109 -0.26738 0.19856 0.0068029 0.0037706
-0.0016442 0.0082032 0.00023271 0.012421
-0.0041762 0.012005 0.00083093 0.012168 0.0067226 0.0036732 -0.33152 0.043361
-0.01844 -0.0042402 0.015978 0.025645
0.012615 0.0049798 0.0083331 0.0027548 -0.0016759 0.0082238 -0.018551 -0.0041617
-0.2452 -0.19775 -0.026224 0.0058526
-0.0038366 0.0078093 0.00072617 0.013504 0.00017578 0.012348 0.016173 0.0257
-0.026245 0.0058648 -0.27288 -0.12415
560000000 -0.31913 0.112 -0.022939 -0.064576 0.00026664 0.012605 0.0048894 0.010563
0.010514 0.003867 0.010322 0.0081066
-0.022946 -0.064513 -0.37531 0.0986 -0.041534 -0.038264 0.013508 0.0033027
-0.012054 -0.0035943 0.0041628 -0.00082685
0.00025419 0.012555 -0.041706 -0.038189 -0.1851 0.25048 -0.00085246 -0.0046006
0.018441 0.0064612 0.0074048 -0.0063913
0.0048095 0.010604 0.013558 0.0033698 -0.00099672 -0.0047682 -0.3066 0.13457
0.0050662 -0.024541 0.0057248 -0.021867
0.010501 0.0040329 -0.012249 -0.0034361 0.018559 0.006102 0.0049669 -0.024494
-0.31004 -0.018209 0.0087547 -0.048482
0.010281 0.0078736 0.0040463 -0.00087641 0.0075959 -0.0061861 0.0058288 -0.021841
0.0087963 -0.048463 -0.33075 0.022089
620000000 -0.27688 0.092277 -0.022975 0.0087639 0.0036133 0.0091819 0.0075506 -0.0042982
0.012714 -0.0014831 -0.00032619 -0.0024082
-0.022933 0.0087314 -0.40342 0.047988 -0.018289 0.00087402 -0.0013831 -0.001858
0.012055 -0.0064763 0.00092975 -0.0026593
0.0036399 0.0092098 -0.018305 0.00090938 -0.15559 0.25963 -0.0012437 -0.0054671
-0.0027934 -0.0024137 0.0087774 -0.0030962
0.0075438 -0.0044744 -0.0014292 -0.0019059 -0.00098928 -0.0055492 -0.26641 0.14535
-0.03827 -0.019386 0.011701 0.026026
0.012565 -0.0013244 0.012077 -0.0064206 -0.0030537 -0.002446 -0.038145 -0.019251
-0.23136 -0.050295 -0.039739 0.014735
-0.00044955 -0.0026339 0.00089534 -0.0027398 0.0091099 -0.0032082 0.011544 0.025908
-0.039686 0.014815 -0.25102 -0.0098206
680000000 -0.23873 0.18293 -0.026049 -0.014345 0.0049362 0.0052208 0.0012679 -0.0078757
-0.0020222 -0.012361 0.0057489 -0.0070346
-0.026023 -0.014341 -0.3902 0.14936 -0.032352 -0.0020339 -0.0013727 -0.00066279
-0.0019213 -0.0094895 -0.0010383 -0.0018031
0.004951 0.0052035 -0.032398 -0.0019387 -0.10435 0.28045 -0.0009011 -0.0005974
-0.0015102 0.00028881 -0.0027223 -0.0090263
0.0012531 -0.0079784 -0.0013228 -0.00068507 -0.00093549 -0.00057533 -0.22075 0.19655
-0.02314 -0.0075117 -0.0078996 -0.011741
-0.0020604 -0.012364 -0.0019748 -0.0094651 -0.0015344 0.0004052 -0.023125 -0.0074877
-0.27942 0.051426 -0.0082085 -0.0073512
0.0059811 -0.0070969 -0.0009899 -0.0019094 -0.0027979 -0.0091882 -0.0080022 -0.011821
-0.0082529 -0.0073085 -0.26003 0.095524
740000000 -0.19333 0.17606 -0.039581 0.026691 0.013311 -0.0049231 -9.7283e-05 -0.0041658
-0.0041754 -0.002797 -0.0066405 0.0028713
-0.039552 0.026617 -0.33582 0.16777 -0.036813 0.034394 -0.0001989 -0.005835
-0.011945 0.0075664 -0.00060091 -0.0054768
0.013307 -0.0049572 -0.036751 0.034567 -0.069994 0.27775 -0.00202 0.0030869
-0.0030303 -0.005689 -0.0015922 0.0015372
-5.0903e-05 -0.0041577 -0.00016267 -0.0060057 -0.0019891 0.0031548 -0.20372 0.20439
-0.042662 -0.0080679 0.022041 0.015457
-0.0042895 -0.0027902 -0.01235 0.007838 -0.0029163 -0.005702 -0.0427 -0.0080345
-0.18051 0.079482 -0.041368 -3.6721e-05
-0.006401 0.0029725 -0.0004999 -0.005574 -0.0016523 0.0015694 0.022064 0.015463
-0.041432 -0.00012276 -0.24995 0.099853
800000000 -0.16268 0.22023 -0.022853 0.016137 0.0057386 -0.010471 -0.0042491 -0.0021398
-0.0048294 0.0025028 0.0048186 0.00075191
-0.02285 0.016112 -0.3419 0.23848 -0.0087508 0.034012 -0.0023108 0.0021022
-0.0013508 0.0030238 0.001125 0.0052889
0.0057365 -0.010499 -0.0086504 0.034068 -0.031545 0.30194 0.00091459 0.0015863
-0.00010673 0.0036731 -0.001779 0.00090161
-0.0042214 -0.0021223 -0.002284 0.0021004 0.00091201 0.0015675 -0.174 0.23198
-0.028834 0.013097 0.014036 -0.0099104
-0.0049687 0.0025269 -0.0014576 0.0030611 -0.00013138 0.0037014 -0.028851 0.013156
-0.22159 0.10872 -0.017807 0.019318
0.0048775 0.00085641 0.0011742 0.0053169 -0.0017471 0.00088096 0.014027 -0.009908
-0.017821 0.019271 -0.24005 0.14977
860000000 -0.12803 0.24046 -0.018169 0.030398 -0.002961 -0.010236 -0.001913 0.00057667
0.0039083 0.0049024 -0.0034046 -0.0030293
-0.018181 0.030391 -0.29339 0.28151 0.0072074 0.034419 -2.664e-05 0.0019787
0.0036713 0.0003804 0.0034143 0.00038831
-0.0029717 -0.010203 0.007334 0.034415 0.016098 0.3103 -0.00073556 -0.00019697
0.0024438 -0.001421 0.0016156 0.0042602
-0.0019167 0.00057666 4.0812e-06 0.001975 -0.00071298 -0.00021602 -0.13769 0.24225
-0.018103 0.017744 -0.006244 -0.0089324
0.0038943 0.0049873 0.0035678 0.00044846 0.0024967 -0.00143 -0.018067 0.017791
-0.1653 0.15967 -0.024496 0.016443
-0.0034785 -0.0030499 0.003357 0.00029867 0.0015696 0.0042995 -0.0062844 -0.0089445
-0.024499 0.016404 -0.18949 0.19369
920000000 -0.10417 0.26396 0.0046177 0.038338 -0.0091242 -0.0049982 -0.0017464 0.0017112
0.0013662 0.001992 0.0026866 -0.001643
0.0045953 0.038328 -0.26603 0.30271 0.028022 0.022811 0.0015158 0.0012823
0.0075392 -0.00018376 0.0040498 -0.0028435
-0.0091407 -0.0049694 0.02812 0.022731 0.061475 0.31151 0.0019607 -8.298e-05
0.0009844 -0.00034262 0.00095815 -0.0013474
-0.0017242 0.0017297 0.0015563 0.001308 0.0019598 -4.8655e-05 -0.11311 0.25876
-0.01136 0.03038 0.0035523 -0.0068656
0.0013263 0.001975 0.0075745 -0.00019602 0.0010159 -0.00038224 -0.011335 0.030391
-0.15493 0.16496 -0.0021543 0.026305
0.0027511 -0.0016421 0.0040068 -0.0028451 0.00090922 -0.0012821 0.0035689 -0.0068725
-0.0021892 0.026267 -0.19768 0.20747
980000000 -0.057849 0.28443 0.016767 0.030227 -0.0093281 0.0042043 0.0018018 0.0037973
0.0037145 -0.001712 -0.0029058 -0.0021886
0.016728 0.030208 -0.21298 0.33767 0.033252 0.0056005 0.0021368 -6.3583e-05
0.0015769 -0.0060345 -0.00019449 -0.0020793
-0.0093235 0.0042309 0.03331 0.0054753 0.10715 0.30596 0.00069801 -0.0011455
0.00048487 -0.001982 0.001615 -9.2216e-05
0.0018214 0.0037915 0.0021498 -6.4586e-05 0.00068018 -0.0011194 -0.07525 0.27032
0.0070193 0.03006 -0.0087668 -0.0071126
0.003737 -0.001783 0.0015569 -0.006045 0.00049201 -0.0020005 0.0070735 0.030063
-0.12157 0.1956 0.0062512 0.019353
-0.0029861 -0.0021712 -0.00020677 -0.0021096 0.0015721 -8.1966e-05 -0.008765 -0.0070992
0.0062311 0.019339 -0.15456 0.25125
1040000000 -0.016298 0.29348 0.032806 0.019322 -0.0015257 0.0070323 0.0027201 0.00086329
0.00045585 -0.0034006 -9.2694e-05 -0.0015519
0.032775 0.019328 -0.17804 0.35123 0.030042 -0.014255 0.0016127 -0.0016808
-0.0020076 -0.0026168 -0.00091664 -0.0028476
-0.0014956 0.0070594 0.030004 -0.014383 0.1529 0.29306 -0.00043679 -0.0015416
-0.0015615 -0.0008986 -0.00052702 -0.0011415
0.0027325 0.00082831 0.0016521 -0.0016792 -0.0004302 -0.0015351 -0.047616 0.27993
0.019155 0.019074 -0.0025253 0.0011137
0.00043867 -0.0034342 -0.0020166 -0.0025845 -0.0015698 -0.00088974 0.019207 0.019053
-0.088469 0.20138 0.013525 0.018238
-5.4517e-05 -0.0015662 -0.00089087 -0.0028237 -0.00052879 -0.0011337 -0.0024963 0.0011338
0.013513 0.018221 -0.1324 0.27199
1100000000 0.028627 0.30265 0.036425 -0.0032914 0.0028479 0.0041291 0.002464 -0.0011575
-0.0021984 -0.0031426 -0.003993 -0.00021317
0.036384 -0.0032671 -0.13495 0.36931 0.016085 -0.027705 5.2837e-05 -0.0019123
-0.0035712 -0.001055 -0.0036045 -0.00074011
0.0028732 0.0041326 0.015985 -0.027799 0.1988 0.27398 -0.0018464 2.383e-05
-0.0017061 0.00051843 -0.0010615 -0.00058662
0.0024532 -0.0011753 3.6789e-05 -0.0019052 -0.0018448 4.0049e-05 -0.0075163 0.28511
0.024779 0.0059386 -0.0022669 5.3641e-05
-0.0022101 -0.0031342 -0.0035942 -0.0010106 -0.001712 0.00052231 0.024798 0.0059379
-0.067368 0.21472 0.019014 0.0085731
-0.0040284 -0.00018443 -0.0036078 -0.00069389 -0.0010488 -0.00057238 -0.002298 7.8202e-05
0.019011 0.0085717 -0.086186 0.30068
1160000000 0.079854 0.29881 0.024685 -0.02033 0.0028086 -0.00045844 -7.9368e-05 -0.0024668
-0.0040017 -0.00081335 -0.00095487 0.004126
0.024674 -0.020286 -0.091605 0.37392 -0.0030134 -0.02951 -0.0016845 -0.0017778
-0.0028541 0.0024779 -0.0014896 0.0018848
0.0028094 -0.00047089 -0.0031395 -0.029534 0.24205 0.24421 -0.00082887 0.0017449
-0.00062319 0.0020202 -0.00087276 0.00020337
-0.00011048 -0.0024747 -0.0016859 -0.0017475 -0.00083049 0.0017343 0.031946 0.28255
0.021389 -0.0099796 -0.0032938 0.0053029
-0.0039969 -0.00080501 -0.0028593 0.0025073 -0.00059322 0.0020322 0.021389 -0.009994
-0.032742 0.2226 0.017955 -0.00052788
-0.0009935 0.0041631 -0.0014916 0.0018804 -0.00089725 0.00020737 -0.003298 0.0052916
0.017954 -0.00051213 -0.039862 0.30349
1220000000 0.12383 0.28898 0.011371 -0.030023 -0.0015757 -0.00096453 9.3212e-06 -0.00092465
-0.0026904 0.0022347 0.0010592 0.0019786
0.011373 -0.029986 -0.04789 0.38712 -0.016695 -0.021996 -0.0026544 0.00044663
-3.642e-05 0.0031735 -0.00087307 0.0019723
-0.0015874 -0.00095949 -0.016809 -0.021953 0.28142 0.20613 0.00070449 0.0017171
0.00058524 0.001274 0.00026274 0.00059075
8.7003e-06 -0.00093923 -0.0026536 0.00046486 0.00071535 0.0017059 0.071757 0.27399
0.011274 -0.01705 0.0021257 0.0013854
-0.0026871 0.0022669 -2.4051e-05 0.0031837 0.00062453 0.0012537 0.011251 -0.017054
-0.0092842 0.23108 0.013843 -0.012892
0.001119 0.0019677 -0.00085609 0.0019627 0.00027151 0.00057287 0.0021304 0.001379
0.013844 -0.012907 -0.0079604 0.31833
1280000000 0.17414 0.26844 -0.0072882 -0.028872 -0.0020424 0.0024109 -0.00087361 -0.0020606
-0.0007788 0.0031434 0.0023984 0.0012449
-0.0072828 -0.028846 -0.0019656 0.37918 -0.024038 -0.0092017 -0.0010396 0.0014622
0.0017004 0.0017082 0.00051036 0.0020205
-0.0020303 0.0024186 -0.024114 -0.0091134 0.31255 0.16293 0.0015898 6.9535e-05
0.0012182 0.00032635 0.0004123 0.00020528
-0.00086705 -0.0020249 -0.0010405 0.0014813 0.0015827 6.4495e-05 0.10885 0.25823
0.0015448 -0.019346 7.325e-05 0.00023311
-0.00076339 0.0031696 0.0017074 0.0017114 0.0012152 0.00030376 0.0015223 -0.019344
0.027292 0.23422 0.0031177 -0.014866
0.0024226 0.0012588 0.0005154 0.0020162 0.00042863 0.00020472 4.9474e-05 0.00021918
0.0031395 -0.014867 0.038994 0.32017
1340000000 0.21153 0.23569 -0.017282 -0.019525 0.00074323 0.0047475 -0.001755 -0.00078862
0.0013759 0.0026168 0.0017862 -0.0012834
-0.017251 -0.019525 0.037526 0.37189 -0.022049 0.0038422 -9.4499e-05 0.0020741
0.0019673 0.00087713 0.0012371 0.00083412
0.00076465 0.0047344 -0.022064 0.0039423 0.33506 0.11582 0.0012106 -0.00086583
0.00062754 -0.00058623 3.2953e-05 0.0003205
-0.0017574 -0.0007776 -8.7925e-05 0.0020789 0.001204 -0.00085659 0.14215 0.23754
-0.0080479 -0.016964 0.00085559 0.00047997
0.0014045 0.0026374 0.0019727 0.00086216 0.00060668 -0.00059815 -0.0080772 -0.016943
0.057371 0.22952 -0.0035585 -0.013883
0.0017718 -0.0012977 0.0012488 0.00084759 4.0258e-05 0.00031328 0.00086778 0.00049796
-0.0035512 -0.013867 0.076629 0.31489
1400000000 0.24538 0.1986 -0.023433 -0.0080063 0.0053224 0.0034279 -0.0022145 0.0006429
0.0023764 0.00093304 0.00029893 -0.001525
-0.023397 -0.0080117 0.0752 0.35987 -0.015501 0.012426 0.0013655 0.0013703
0.0013065 -0.00076201 0.0011711 0.0001363
0.0053406 0.0034022 -0.015459 0.012505 0.3488 0.062619 0.00013806 -0.0016298
0.00015466 -0.00041287 0.00033412 7.7039e-05
-0.0021976 0.00065934 0.0013672 0.0013642 0.00014078 -0.0016168 0.17185 0.20865
-0.014227 -0.01034 -0.00091035 -0.00028866
0.0023928 0.00090989 0.0013196 -0.00077823 0.00014343 -0.00041791 -0.014231 -0.010321
0.090271 0.22499 -0.010016 -0.0088215
0.00029142 -0.0015238 0.0011501 0.00012248 0.00035387 8.4669e-05 -0.00093007 -0.00029438
-0.01 -0.0088184 0.12105 0.30424
1460000000 0.26895 0.15508 -0.020565 0.0042873 0.005873 -0.0016578 -0.00158 0.0017483
0.002165 -0.00052357 -0.00035898 -0.0010458
-0.020539 0.004262 0.11009 0.33854 -0.0065499 0.0157 0.0017384 0.00017597
0.00095385 -0.0013871 0.0012167 -0.00055735
0.0058636 -0.0016775 -0.0064809 0.015755 0.35561 0.0084751 -0.0011814 -0.0013532
0.00011141 -0.00016023 0.00068962 -0.00024839
-0.0015587 0.0017433 0.0017386 0.00016497 -0.0011652 -0.0013389 0.19872 0.17927
-0.015788 -0.0037743 -0.00085789 0.0019432
0.0021731 -0.00054127 0.00096151 -0.0013921 0.00010499 -0.00014501 -0.015784 -0.0037497
0.11965 0.21081 -0.011849 -0.002991
-0.00036638 -0.0010476 0.0012024 -0.00058153 0.00071507 -0.00022982 -0.0008617 0.0019499
-0.011839 -0.0030018 0.1545 0.28362
1520000000 0.28168 0.11377 -0.015122 0.009947 0.003516 -0.0043376 7.7789e-05 0.0025871
0.0021398 -0.0018872 -0.0011799 -0.00024324
-0.015117 0.0099267 0.14409 0.32433 0.0014573 0.013545 0.0016593 -0.0007961
3.7714e-05 -0.0011722 0.00030243 -0.0010472
0.0034969 -0.0043567 0.0015306 0.013559 0.34918 -0.047527 -0.0010844 -0.00041994
0.0006514 -0.00084545 1.9506e-05 -0.00014436
6.5075e-05 0.0025733 0.0016624 -0.00080423 -0.0010796 -0.00041487 0.22208 0.14079
-0.015506 0.0021677 0.0014063 0.0021768
0.0021032 -0.0019234 3.626e-05 -0.0011683 0.00064609 -0.00083921 -0.015499 0.0021908
0.14783 0.19758 -0.011734 0.0014793
-0.0011879 -0.00022409 0.00031155 -0.0010388 2.7191e-06 -0.0001403 0.0014064 0.0021677
-0.011732 0.0014687 0.18727 0.26328
1580000000 0.29201 0.067931 -0.0084652 0.013377 -0.00091614 -0.0051421 0.0014532 0.0019504
-0.00016892 -0.002157 -0.00026421 0.00032426
-0.0084713 0.01337 0.172 0.29991 0.0053924 0.0085812 0.00052456 -0.0015643
-0.00060695 -0.0010883 -0.0001703 -0.00088022
-0.00094625 -0.0051274 0.0054442 0.0085634 0.32985 -0.1052 -0.0017169 0.00060576
-0.00032843 -0.0011714 0.00027562 -0.00058762
0.0014552 0.0019442 0.00051499 -0.001571 -0.001701 0.0006044 0.23604 0.10113
-0.012214 0.0074071 0.0021621 0.00085185
-0.00018741 -0.002172 -0.00059891 -0.0010988 -0.00030866 -0.0011719 -0.012213 0.0074226
0.1723 0.18017 -0.0093904 0.0070246
-0.0002838 0.00034308 -0.0001845 -0.00088142 0.00027666 -0.00059692 0.0021692 0.00085991
-0.0093949 0.0070211 0.21909 0.23653
1640000000 0.29484 0.026725 -0.0017079 0.012409 -0.0029423 -0.0026873 0.0027341 0.0011257
-0.00073529 -0.0016071 -0.00044686 0.00068015
-0.0017314 0.012403 0.20209 0.27504 0.006202 0.0035569 -0.00059118 -0.0017814
-0.0010745 -0.00041154 -0.00056309 -0.00070867
-0.0029569 -0.0026846 0.0062293 0.0035299 0.30171 -0.15464 -0.00067729 0.0015038
-0.0010893 -0.00091921 -0.00013133 -0.0002907
0.0027478 0.0011209 -0.00061324 -0.0017862 -0.00067576 0.0015022 0.24847 0.051937
-0.0079821 0.0092104 0.0026047 -0.00070749
-0.00074523 -0.0015953 -0.0010885 -0.0004118 -0.0010859 -0.0009486 -0.0079651 0.0092094
0.19572 0.15632 -0.0047356 0.0091588
-0.00044687 0.00069179 -0.00057059 -0.00070082 -0.00013734 -0.00028356 0.0025969 -0.00070831
-0.0047379 0.0091509 0.24489 0.20557
1700000000 0.28831 -0.018632 0.0018465 0.0097394 -0.0037202 5.6544e-05 0.0032148 -0.0012235
-0.0019413 -0.0006649 0.00059301 0.00051913
0.0018301 0.0097276 0.22058 0.24355 0.0040824 0.00047285 -0.0014854 -0.00059371
-0.00085208 9.8205e-05 -0.00089541 -0.00045651
-0.0037239 6.6069e-05 0.0040882 0.00044562 0.25826 -0.19468 0.00039965 0.0016999
-0.0020047 -0.00011495 -0.00032549 -0.000898
0.0032083 -0.0012251 -0.001492 -0.00058097 0.00038638 0.0016911 0.24504 0.0017914
-0.0048636 0.010078 0.0016844 -0.002205
-0.0019521 -0.0006659 -0.00086468 0.00010158 -0.0020046 -0.00014576 -0.0048504 0.010082
0.21338 0.13617 -0.00029265 0.00959
0.00059665 0.0005223 -0.0008966 -0.00044837 -0.00033662 -0.00091668 0.0016936 -0.0022113
-0.00027332 0.0095898 0.26097 0.17125
1760000000 0.27684 -0.067493 0.0043916 0.006485 -0.0022836 0.00094982 0.0014062 -0.0034355
-0.0013964 0.00066193 0.00048498 -0.00046225
0.0043895 0.0064779 0.24707 0.20375 0.0018204 -0.0014525 -0.0011871 0.00017154
-0.0010612 0.00099612 -0.00064153 0.00038835
-0.00228 0.00096003 0.0018132 -0.0014527 0.2103 -0.2277 0.0012365 0.0011236
-0.0013374 0.0014573 -0.0013008 -0.00072755
0.0013713 -0.0034391 -0.0011947 0.00018552 0.0012387 0.0011167 0.23583 -0.049796
-0.0010976 0.0093309 2.9626e-06 -0.0025719
-0.0013763 0.00066456 -0.0010708 0.0010155 -0.0013502 0.0014614 -0.0011055 0.0093439
0.22881 0.10177 0.0036586 0.007187
0.00047497 -0.0004591 -0.0006474 0.00039728 -0.0012717 -0.00070375 6.342e-06 -0.0025593
0.0036535 0.007184 0.27367 0.13385
1820000000 0.25249 -0.10529 0.004617 0.00282 -0.00024422 0.0024868 -0.00089739 -0.0031
-0.0011987 0.001016 -2.3434e-05 -8.9956e-05
0.0046155 0.0028232 0.25735 0.17341 -0.0006019 -0.00036728 -0.0013642 0.00095087
-1.8711e-05 0.0012713 -0.00060886 0.0005564
-0.00022808 0.0025018 -0.00060004 -0.0003587 0.15944 -0.24377 0.0016973 0.00028043
-0.00011986 0.0023707 -0.0014453 0.00026632
-0.00090921 -0.0030892 -0.0013559 0.00097076 0.0016734 0.00028995 0.2054 -0.09712
0.00064207 0.0077474 -0.0017232 -0.001605
-0.00119 0.0010275 -1.892e-05 0.0012894 -0.00016037 0.002359 0.00064532 0.0077594
0.24638 0.072708 0.004561 0.0037555
-2.9241e-05 -8.8683e-05 -0.00060397 0.00056827 -0.00144 0.0002854 -0.0017358 -0.0016041
0.0045559 0.0037594 0.27601 0.09762
1880000000 0.21732 -0.14591 0.0024732 0.0003042 -0.00060911 0.0021949 -0.0029263 -0.002288
-0.00032709 0.0018326 4.8383e-05 -0.00067378
0.0024697 0.00031282 0.26195 0.12681 -0.0025554 0.0015672 -0.00023135 0.0017698
0.00059235 0.0012967 3.2143e-05 0.00094266
-0.00057995 0.0022124 -0.0025499 0.0016024 0.10735 -0.25284 0.0017812 -0.00086206
0.0014725 0.0020422 -0.001108 0.0013053
-0.0029464 -0.0022776 -0.00021402 0.0017641 0.0017838 -0.00088583 0.16465 -0.13707
0.0017554 0.0055962 -0.0023141 0.00018688
-0.00032091 0.0018361 0.00062854 0.0013013 0.0014752 0.002031 0.0017423 0.0055932
0.2506 0.041282 0.0050445 0.0014707
4.5839e-05 -0.00067522 4.7699e-05 0.0009444 -0.0011259 0.0013163 -0.0023235 0.00020394
0.0050571 0.0014711 0.27622 0.063698
1940000000 0.17785 -0.17182 1.6808e-05 -0.001446 0.0014387 0.0021528 -0.0037864 0.00043471
0.0013477 0.0011674 -0.00049142 -0.00067595
1.907e-05 -0.0014444 0.26267 0.094829 -0.001444 0.0041263 0.0010974 0.001383
0.0019348 0.00052058 0.0010761 0.00043316
0.0014579 0.0021471 -0.0014016 0.0041378 0.062123 -0.24556 0.00046322 -0.0021525
0.0024606 0.00038563 0.00054398 0.0015435
-0.0037784 0.00044246 0.001124 0.0013637 0.00045375 -0.0021776 0.11218 -0.16747
0.0011556 0.0040513 -0.0014871 0.0014367
0.0013876 0.0011386 0.0019723 0.00047862 0.0024534 0.0003676 0.0011562 0.0040447
0.25389 0.0030122 0.0038792 -0.0016573
-0.00052573 -0.00068986 0.0010812 0.00042139 0.00054224 0.0015799 -0.0014813 0.0014331
0.0038803 -0.0016552 0.26549 0.027773
2000000000 0.13168 -0.18652 -0.0038246 0.00065679 0.0026866 0.0015172 -0.0022261 0.0038231
0.0013135 0.00045302 -0.00069683 0.00047636
-0.0038187 0.00066016 0.24836 0.059225 -0.00091922 0.0059199 0.0016767 0.00058655
0.0013187 -0.0011476 0.00056075 0.0001204
0.0026911 0.0014796 -0.00086204 0.005937 0.019219 -0.23184 -0.001366 -0.0013725
0.002155 -0.00117 0.0017412 0.0014579
-0.002234 0.0038004 0.0016587 0.00055217 -0.0013517 -0.0014004 0.058757 -0.17716
-0.0004444 0.0035153 -0.00035118 0.002218
0.0013105 0.00040861 0.001321 -0.0011985 0.0021424 -0.0012157 -0.00041186 0.0035118
0.24905 -0.030649 0.00060329 -0.0028466
