!Keysight Technologies,M9804A,MY58100912,A.14.10.03
!Date: Thursday, April 27, 2023 10:28:33
!Correction: S11(C  6-Port  ) 
!S12(C  6-Port  ) 
!S13(C  6-Port  ) 
!S14(C  6-Port  ) 
!S15(C  6-Port  ) 
!S16(C  6-Port  ) 
!S21(C  6-Port  ) 
!S22(C  6-Port  ) 
!S23(C  6-Port  ) 
!S24(C  6-Port  ) 
!S25(C  6-Port  ) 
!S26(C  6-Port  ) 
!S31(C  6-Port  ) 
!S32(C  6-Port  ) 
!S33(C  6-Port  ) 
!S34(C  6-Port  ) 
!S35(C  6-Port  ) 
!S36(C  6-Port  ) 
!S41(C  6-Port  ) 
!S42(C  6-Port  ) 
!S43(C  6-Port  ) 
!S44(C  6-Port  ) 
!S45(C  6-Port  ) 
!S46(C  6-Port  ) 
!S51(C  6-Port  ) 
!S52(C  6-Port  ) 
!S53(C  6-Port  ) 
!S54(C  6-Port  ) 
!S55(C  6-Port  ) 
!S56(C  6-Port  ) 
!S61(C  6-Port  ) 
!S62(C  6-Port  ) 
!S63(C  6-Port  ) 
!S64(C  6-Port  ) 
!S65(C  6-Port  ) 
!S66(C  6-Port  ) 
!S6P File: Measurement: :
# Hz S  RI   R 50
500000000 -0.33409 -0.053962 -0.0098429 -0.0013302 -0.0080629 0.012885 -0.0041704 0.011984
0.012662 0.0045482 -0.0035382 0.0083259
-0.0098328 -0.0013268 -0.41596 -0.064364 0.0080704 -0.010884 0.00080627 0.012225
0.0082199 0.0027312 0.00098376 0.014048
-0.0079981 0.012923 0.0080461 -0.01091 -0.26727 0.19849 0.0067877 0.0036842
-0.0018297 0.0081782 0.00040045 0.012301
-0.0039505 0.012116 0.00082959 0.012312 0.0067647 0.0037127 -0.33137 0.043713
-0.019112 -0.0042836 0.016138 0.02616
0.012215 0.0048503 0.0082834 0.0027484 -0.0016889 0.0082811 -0.01879 -0.0041998
-0.24474 -0.19735 -0.027304 0.0056499
-0.0035275 0.0078955 0.00065039 0.01382 0.00020181 0.012339 0.016295 0.026089
-0.027294 0.0057027 -0.27304 -0.12384
560000000 -0.31908 0.11199 -0.022861 -0.064814 0.00019001 0.012663 0.0048493 0.010806
0.01041 0.0041156 0.010726 0.0078212
-0.022793 -0.064797 -0.37511 0.098594 -0.041644 -0.038089 0.013572 0.0033916
-0.012634 -0.0030524 0.0040926 -0.0012083
0.0002338 0.012697 -0.041725 -0.038013 -0.18513 0.25022 -0.00091686 -0.0046804
0.018299 0.0060466 0.0079575 -0.0061989
0.0049066 0.010853 0.013575 0.0034018 -0.00096841 -0.0046608 -0.30671 0.13471
0.0053338 -0.024543 0.0050161 -0.021674
0.010421 0.0038078 -0.012335 -0.0035015 0.018653 0.0061181 0.0045469 -0.02419
-0.31057 -0.018791 0.0094186 -0.048323
0.010549 0.0078469 0.0040883 -0.00092042 0.0076305 -0.0061814 0.0055239 -0.021785
0.009527 -0.048143 -0.331 0.022124
620000000 -0.27698 0.092385 -0.023007 0.0087288 0.0036417 0.0091776 0.0076325 -0.0045119
0.012377 -0.0014352 -0.0002122 -0.0023276
-0.023 0.0087378 -0.40342 0.048053 -0.018293 0.00087382 -0.001447 -0.0019696
0.011997 -0.0064221 0.00098325 -0.0025834
0.0037021 0.0091745 -0.018304 0.00090765 -0.15561 0.25967 -0.0010063 -0.005425
-0.0031519 -0.0024661 0.0091341 -0.0031218
0.0076858 -0.004483 -0.0014567 -0.0019424 -0.0010313 -0.0054419 -0.26591 0.14564
-0.037958 -0.01942 0.011889 0.025647
0.012489 -0.0013417 0.012156 -0.0062965 -0.0030068 -0.00248 -0.038379 -0.019643
-0.23194 -0.050203 -0.03963 0.014894
-0.0002413 -0.002594 0.00088998 -0.0027576 0.0090061 -0.0030814 0.012226 0.026622
-0.039795 0.014988 -0.24974 -0.010332
680000000 -0.23878 0.1827 -0.026044 -0.014344 0.004937 0.0052118 0.0013804 -0.007993
-0.0019695 -0.012395 0.0060068 -0.0073045
-0.026005 -0.014383 -0.39017 0.14947 -0.032376 -0.0020068 -0.0013219 -0.0007471
-0.0019044 -0.0095483 -0.00090569 -0.0018387
0.0049371 0.0051874 -0.032419 -0.0019252 -0.10434 0.28046 -0.00092759 -0.00059588
-0.0016339 0.00037253 -0.002793 -0.0090107
0.0013242 -0.0080108 -0.0013475 -0.00070484 -0.00093758 -0.0005916 -0.22059 0.19663
-0.023225 -0.0074701 -0.0079857 -0.011651
-0.0022426 -0.012379 -0.0019533 -0.0095002 -0.001585 0.00034772 -0.023073 -0.0075377
-0.27959 0.051221 -0.008207 -0.0076471
0.0060533 -0.0073133 -0.00092784 -0.0019163 -0.0028482 -0.0092096 -0.0078898 -0.012071
-0.0082705 -0.0077389 -0.26064 0.095292
740000000 -0.19337 0.1761 -0.039538 0.026759 0.013274 -0.004879 2.89e-05 -0.0041524
-0.0042877 -0.0028109 -0.0062823 0.0029409
-0.0395 0.026711 -0.33568 0.16789 -0.03683 0.034409 -0.00011929 -0.005801
-0.012149 0.0074681 -0.0006706 -0.0055981
0.013275 -0.0049298 -0.036728 0.034579 -0.069931 0.27774 -0.0020467 0.0030832
-0.003072 -0.0057733 -0.0016817 0.0015363
-1.0428e-05 -0.0041636 -4.4156e-05 -0.0059132 -0.0020658 0.0031177 -0.20354 0.20437
-0.042798 -0.0078401 0.022363 0.015038
-0.0042649 -0.0028334 -0.012386 0.0075036 -0.0028455 -0.0056773 -0.042754 -0.0079562
-0.1795 0.07907 -0.041824 0.00064831
-0.0063432 0.0029866 -0.00050922 -0.005449 -0.001703 0.0014668 0.022168 0.015244
-0.04188 0.00056152 -0.24926 0.098639
800000000 -0.16263 0.22042 -0.022913 0.016182 0.00573 -0.010437 -0.0042641 -0.0020904
-0.004937 0.0025631 0.0049062 0.0010235
-0.022887 0.016165 -0.34191 0.23862 -0.0087492 0.034015 -0.0023532 0.0020903
-0.0015143 0.0030031 0.0011347 0.0055155
0.0057281 -0.010454 -0.0086496 0.034063 -0.031523 0.30194 0.00092147 0.001592
-0.00014844 0.0036696 -0.0018154 0.00097269
-0.0042469 -0.0020754 -0.0023177 0.0021102 0.00092455 0.0015989 -0.17399 0.23197
-0.028773 0.013127 0.014049 -0.0099486
-0.0048603 0.002527 -0.0014248 0.0030797 -0.00014427 0.0037089 -0.028894 0.013196
-0.22183 0.10853 -0.017893 0.019442
0.0048249 0.00091906 0.0011642 0.0053057 -0.0017489 0.0009334 0.014028 -0.0099401
-0.017873 0.019423 -0.23971 0.14993
860000000 -0.12791 0.24051 -0.018137 0.030406 -0.002931 -0.010233 -0.0019047 0.00059748
0.003929 0.00497 -0.0034085 -0.0031007
-0.018145 0.030356 -0.29337 0.28163 0.0072195 0.034397 -2.5856e-05 0.0019925
0.0036577 0.0003971 0.0032561 0.00025671
-0.0029638 -0.010244 0.0073447 0.034405 0.016168 0.31032 -0.00070692 -0.00017143
0.0025423 -0.0013663 0.0015668 0.0041845
-0.0018798 0.00059888 -2.1436e-05 0.0020014 -0.00070878 -0.00018743 -0.13759 0.24241
-0.018205 0.017798 -0.006275 -0.0089085
0.0038576 0.0048904 0.0036183 0.00036426 0.0024353 -0.0014691 -0.0181 0.017679
-0.16512 0.15941 -0.024541 0.016291
-0.0034381 -0.0030263 0.0033381 0.00029713 0.0016467 0.0042741 -0.006252 -0.0089776
-0.024435 0.016276 -0.18982 0.1935
920000000 -0.10403 0.26399 0.0046327 0.038341 -0.0091275 -0.0049885 -0.001709 0.0017103
0.0013173 0.0019589 0.0027433 -0.0015408
0.0045977 0.038318 -0.26592 0.30283 0.02802 0.022794 0.0015097 0.0013073
0.0076242 -0.00012922 0.0039415 -0.0027621
-0.0091306 -0.0049625 0.028108 0.022711 0.06154 0.31149 0.0019958 -5.8207e-05
0.00095687 -0.00035177 0.00098252 -0.0012914
-0.0017126 0.0017095 0.0015503 0.0013169 0.0019919 -4.9541e-05 -0.11309 0.2588
-0.011458 0.030411 0.0035442 -0.0067719
0.0013707 0.0019619 0.0076382 -0.00023489 0.00097574 -0.00034331 -0.011409 0.030378
-0.1549 0.16469 -0.0022562 0.026418
0.0027677 -0.0015802 0.0039371 -0.0028219 0.00094602 -0.0012943 0.0035319 -0.0068005
-0.0023358 0.026409 -0.19769 0.20747
980000000 -0.057775 0.28453 0.016767 0.030218 -0.0093322 0.0042017 0.0017979 0.0038044
0.0038056 -0.0017061 -0.0029353 -0.0022722
0.016728 0.030193 -0.21287 0.3378 0.033238 0.0055871 0.0021454 -8.9935e-05
0.0016052 -0.0059802 -0.00017172 -0.002105
-0.0093137 0.0042476 0.033294 0.0054591 0.10721 0.30596 0.00070042 -0.0011484
0.00050104 -0.0019862 0.0015759 -0.00010188
0.0018194 0.0037878 0.0021385 -8.4639e-05 0.00069731 -0.0011555 -0.075228 0.27042
0.0070087 0.030071 -0.0087093 -0.0071711
0.00379 -0.001735 0.0015856 -0.0060507 0.0005144 -0.0019896 0.0070658 0.03006
-0.12177 0.19544 0.0062779 0.019594
-0.0029897 -0.0021925 -0.00023034 -0.0021091 0.0015877 -0.00010694 -0.0088861 -0.0071349
0.006252 0.019547 -0.15414 0.25141
1040000000 -0.016147 0.29351 0.032836 0.019304 -0.0015166 0.0070331 0.0027453 0.00083239
0.00045594 -0.0034252 -1.0823e-05 -0.0016057
0.032787 0.019296 -0.17794 0.35135 0.030035 -0.014235 0.0016478 -0.001688
-0.0019575 -0.0025781 -0.00088538 -0.0028045
-0.0014852 0.007055 0.029998 -0.01438 0.15297 0.29302 -0.00042722 -0.001555
-0.0015631 -0.00090832 -0.00051881 -0.0011255
0.0027312 0.00083555 0.0016521 -0.0016708 -0.00042825 -0.001559 -0.047512 0.27996
0.019046 0.01917 -0.0024441 0.0011952
0.00041035 -0.0034141 -0.0020508 -0.0026245 -0.00156 -0.00092359 0.01918 0.019071
-0.08838 0.20132 0.013476 0.01826
-1.1212e-05 -0.0016095 -0.00091054 -0.0028243 -0.00052057 -0.001142 -0.002394 0.0011323
0.013449 0.018241 -0.13238 0.27211
1100000000 0.028731 0.30265 0.036408 -0.0033044 0.0028546 0.0041277 0.0024716 -0.0011559
-0.0021789 -0.0031331 -0.0040064 -0.00018807
0.036383 -0.0032905 -0.13488 0.36941 0.016092 -0.027698 4.7264e-05 -0.0019146
-0.0035862 -0.0010631 -0.0036518 -0.00069993
0.0028708 0.0041204 0.015993 -0.027806 0.19882 0.27393 -0.0018519 2.0461e-05
-0.0017186 0.00050549 -0.0010646 -0.00054608
0.0024622 -0.0011831 4.0415e-05 -0.0019357 -0.00186 3.5739e-05 -0.0074385 0.28515
0.024777 0.0059719 -0.0022729 3.0323e-05
-0.0021907 -0.0031238 -0.0035858 -0.0010426 -0.0017045 0.00050948 0.024767 0.0059416
-0.067446 0.21482 0.019134 0.0086213
-0.0039702 -0.00019689 -0.0036074 -0.00069145 -0.0010515 -0.00057414 -0.0022959 7.3069e-05
0.019096 0.0086206 -0.086357 0.30056
1160000000 0.080009 0.29882 0.024676 -0.020344 0.0028166 -0.00046472 -9.9653e-05 -0.0024511
-0.003986 -0.0008319 -0.0009964 0.0041415
0.024655 -0.020314 -0.091456 0.374 -0.0030114 -0.029489 -0.0017188 -0.0017498
-0.0028558 0.0024645 -0.0014845 0.0019169
0.0028186 -0.00046889 -0.0031365 -0.029522 0.24211 0.24417 -0.00084165 0.0017546
-0.00064484 0.0020131 -0.00088647 0.00019771
-9.9479e-05 -0.0024477 -0.0016897 -0.0017276 -0.00083934 0.0017441 0.031989 0.28256
0.021401 -0.0099505 -0.0032633 0.0052667
-0.0039886 -0.00078359 -0.0028857 0.0024988 -0.00062672 0.0020201 0.021378 -0.0099669
-0.032765 0.22274 0.01797 -0.000392
-0.0010138 0.0041894 -0.0015155 0.0019127 -0.00091154 0.0002306 -0.0032697 0.0052973
0.018025 -0.00043317 -0.03961 0.30344
1220000000 0.12396 0.28895 0.011362 -0.030043 -0.0015796 -0.00097882 2.4777e-05 -0.0009292
-0.0026978 0.0022177 0.0010754 0.0019707
0.01137 -0.030001 -0.047784 0.3872 -0.016702 -0.021988 -0.0026379 0.00044736
-5.1044e-05 0.0031818 -0.00089299 0.001957
-0.0015894 -0.00096705 -0.016813 -0.021941 0.28147 0.20607 0.00071633 0.0017148
0.00060169 0.0012634 0.00026336 0.00055178
7.6804e-06 -0.00092745 -0.0026488 0.00045923 0.00071586 0.0016921 0.071804 0.27402
0.011259 -0.016996 0.0021352 0.0014016
-0.0026643 0.0022409 -1.0741e-05 0.0031786 0.00060948 0.0012594 0.011203 -0.017028
-0.0092998 0.23109 0.013786 -0.012816
0.0010877 0.0019461 -0.00083929 0.0019436 0.00029093 0.00054143 0.0021405 0.0013885
0.013795 -0.012818 -0.0079146 0.31842
1280000000 0.17428 0.26842 -0.007306 -0.028869 -0.0020499 0.0024008 -0.00086934 -0.0020419
-0.00077749 0.0031571 0.0024212 0.001282
-0.0072899 -0.028851 -0.0018145 0.37921 -0.024029 -0.0092105 -0.0010469 0.0014711
0.0017061 0.001714 0.00050121 0.0020184
-0.0020416 0.0024072 -0.024109 -0.0091054 0.3126 0.16288 0.0015976 7.5154e-05
0.0012108 0.00032652 0.0003969 0.00023075
-0.00086814 -0.0020364 -0.0010597 0.0014639 0.0015925 7.5115e-05 0.10891 0.25823
0.0015505 -0.019319 1.1077e-05 0.00021056
-0.00076784 0.0031518 0.0017093 0.001719 0.0012292 0.00032891 0.00151 -0.019316
0.02743 0.23428 0.0030006 -0.014915
0.0024107 0.0012859 0.00052705 0.002024 0.00043119 0.00021789 2.2208e-06 0.00021896
0.0030005 -0.014911 0.039094 0.32034
1340000000 0.21166 0.23561 -0.017301 -0.019514 0.00073626 0.0047354 -0.0017537 -0.00079391
0.0013884 0.00263 0.001777 -0.0012939
-0.017269 -0.019513 0.037659 0.37191 -0.022045 0.0038393 -9.8791e-05 0.0020687
0.0019815 0.00087958 0.0012701 0.00084496
0.00075286 0.0047412 -0.022061 0.0039564 0.33511 0.11573 0.001215 -0.00086385
0.00062477 -0.0005691 4.2568e-05 0.00031392
-0.0017567 -0.00077265 -8.3309e-05 0.0020794 0.0012258 -0.00086105 0.14219 0.23755
-0.0080364 -0.016932 0.00083763 0.00049334
0.001404 0.0026289 0.001995 0.00086398 0.0006188 -0.0005842 -0.0080634 -0.016921
0.057498 0.22951 -0.0035511 -0.01383
0.0017587 -0.0012933 0.0012509 0.00084168 5.5475e-05 0.00031486 0.00082634 0.00050882
-0.0035542 -0.013834 0.076713 0.31498
1400000000 0.24549 0.19853 -0.023425 -0.0080082 0.00532 0.0034175 -0.0022082 0.00064849
0.0024028 0.0009237 0.00027505 -0.0015253
-0.023398 -0.0080234 0.075342 0.35987 -0.015489 0.012408 0.0013608 0.0013749
0.0013373 -0.00076266 0.0011488 0.00011955
0.0053387 0.0033938 -0.015451 0.012498 0.34883 0.062515 0.00014382 -0.0016297
0.00014569 -0.00041117 0.00036284 9.3953e-05
-0.0022137 0.00066331 0.0013737 0.0013638 0.00014294 -0.0016294 0.17188 0.20861
-0.014194 -0.010301 -0.00091956 -0.00030567
0.002419 0.00091229 0.0013256 -0.00077127 0.0001662 -0.00039911 -0.014214 -0.010261
0.09048 0.22504 -0.009996 -0.0087783
0.00029337 -0.0015447 0.0011633 0.00010776 0.00037832 7.1049e-05 -0.00091141 -0.00034371
-0.0099782 -0.0088337 0.12098 0.30417
1460000000 0.26906 0.15495 -0.020568 0.0043069 0.0058504 -0.0016464 -0.0015707 0.0017436
0.0021692 -0.0005153 -0.0003912 -0.0010338
-0.020551 0.0042838 0.11022 0.33852 -0.0065461 0.015695 0.0017399 0.00017581
0.00096665 -0.0013874 0.0012053 -0.0005742
0.0058553 -0.0016901 -0.0064671 0.015748 0.35564 0.0083606 -0.0011747 -0.0013516
0.00013283 -0.00017939 0.00067063 -0.00024052
-0.0015684 0.0017526 0.0017516 0.00016774 -0.001187 -0.0013457 0.19881 0.17924
-0.015764 -0.0037664 -0.00083748 0.0019751
0.0021694 -0.00053359 0.000947 -0.0013918 0.00011326 -0.00015779 -0.015782 -0.0037318
0.11987 0.21076 -0.011844 -0.0030184
-0.00040471 -0.0010232 0.0011993 -0.00056306 0.0006873 -0.00021088 -0.00081761 0.0019954
-0.011827 -0.002985 0.1546 0.28366
1520000000 0.28178 0.11366 -0.01512 0.0099562 0.0035188 -0.0043482 6.2665e-05 0.0025633
0.0021464 -0.0018989 -0.0011916 -0.00024376
-0.015123 0.0099365 0.14424 0.32433 0.0014477 0.013547 0.0016667 -0.00079224
6.2404e-05 -0.0011481 0.00031593 -0.0010409
0.0034971 -0.0043579 0.001533 0.013553 0.34918 -0.047715 -0.0010972 -0.00041421
0.00065588 -0.00083166 7.1029e-06 -0.00014249
6.8903e-05 0.0025632 0.0016625 -0.00080584 -0.0010896 -0.00041681 0.22211 0.14076
-0.015447 0.0021411 0.0014442 0.0021628
0.002124 -0.0019237 5.0607e-05 -0.001167 0.00065249 -0.00085575 -0.015443 0.0021809
0.14793 0.19745 -0.011693 0.0014671
-0.0012066 -0.00023374 0.00030028 -0.0010513 2.8159e-06 -0.00014225 0.0013998 0.0021658
-0.011731 0.0014422 0.18732 0.26317
1580000000 0.2921 0.067813 -0.0084768 0.013393 -0.00092466 -0.0051327 0.0014551 0.0019449
-0.00015509 -0.0022003 -0.00028173 0.00033506
-0.0084736 0.013374 0.17212 0.29985 0.0053905 0.0085835 0.00052928 -0.0015675
-0.00059743 -0.0011121 -0.00018317 -0.00085327
-0.0009621 -0.0051226 0.0054487 0.0085629 0.32982 -0.10523 -0.0017139 0.00062126
-0.00032468 -0.0011823 0.0002894 -0.00055835
0.00146 0.0019425 0.00051523 -0.0015705 -0.0017068 0.00060686 0.23608 0.10109
-0.012202 0.0073591 0.0021792 0.00085576
-0.00017409 -0.0021892 -0.00060193 -0.0011113 -0.00031977 -0.001188 -0.012181 0.007381
0.17236 0.17995 -0.0094394 0.0071105
-0.00029471 0.00033584 -0.00019315 -0.00086158 0.00026367 -0.0005894 0.0021687 0.00084821
-0.0094008 0.0070899 0.21922 0.23651
1640000000 0.2949 0.026559 -0.0017081 0.012415 -0.0029619 -0.0026939 0.0027247 0.0011288
-0.00071131 -0.0015695 -0.00045013 0.00068456
-0.0017265 0.012404 0.20222 0.275 0.006183 0.0035677 -0.00060047 -0.0017962
-0.0010874 -0.00040655 -0.00056619 -0.00071705
-0.0029843 -0.0026741 0.0062167 0.0035358 0.30168 -0.15479 -0.00067489 0.0015046
-0.0011316 -0.00094363 -0.00014204 -0.00031389
0.0027416 0.0011226 -0.00060483 -0.0017852 -0.00068278 0.0014993 0.24854 0.05187
-0.007947 0.0091412 0.0025669 -0.00072494
-0.00073738 -0.0015771 -0.0010823 -0.00040327 -0.001089 -0.00094603 -0.0079392 0.0091695
0.19581 0.15611 -0.0047679 0.009093
-0.00040714 0.00066045 -0.00056204 -0.00070193 -0.00014628 -0.00027642 0.0025621 -0.00072722
-0.0048007 0.0091213 0.24496 0.20565
1700000000 0.28837 -0.018818 0.0018517 0.0097436 -0.0037161 5.463e-05 0.0032123 -0.0012025
-0.001952 -0.00064168 0.00060021 0.00050118
0.0018364 0.0097306 0.22071 0.24348 0.0040606 0.00048865 -0.0015025 -0.00058933
-0.00085811 7.4804e-05 -0.00089123 -0.00047098
-0.0037185 7.4844e-05 0.0040693 0.00046059 0.25815 -0.19474 0.00036069 0.0016932
-0.0020126 -0.0001434 -0.00033299 -0.00092438
0.0032228 -0.0012327 -0.0014927 -0.00057765 0.00036287 0.0017213 0.24509 0.001716
-0.004844 0.010008 0.0016766 -0.0022114
-0.001949 -0.00064678 -0.00086419 8.9863e-05 -0.002027 -0.00014313 -0.0048326 0.010049
0.21332 0.136 -0.00028773 0.009554
0.00060331 0.00053492 -0.00090038 -0.00046866 -0.00035834 -0.00092134 0.0016742 -0.0022166
-0.00027684 0.0095084 0.26093 0.1712
1760000000 0.27679 -0.067694 0.0043967 0.0064815 -0.0022884 0.00093753 0.0013822 -0.00343
-0.0014031 0.00065269 0.00046892 -0.00044765
0.0043873 0.0064856 0.24718 0.20366 0.0018218 -0.0014486 -0.0012054 0.00017206
-0.0010741 0.00096621 -0.00064474 0.00040801
-0.0022831 0.00095331 0.001816 -0.0014592 0.21025 -0.22778 0.0012508 0.0011098
-0.0013326 0.0014234 -0.0012136 -0.00069866
0.0013705 -0.0034392 -0.00121 0.00018398 0.0012261 0.0011149 0.23584 -0.049897
-0.0011566 0.0093073 -7.2872e-06 -0.0025287
-0.0013832 0.00067342 -0.0010749 0.00099629 -0.0013557 0.0014656 -0.0011403 0.009307
0.22871 0.10167 0.0036339 0.007225
0.00045961 -0.0004625 -0.00064278 0.0004058 -0.0012745 -0.00069018 2.6109e-06 -0.0025419
0.00365 0.0072245 0.2738 0.13384
1820000000 0.25242 -0.10545 0.0046339 0.002811 -0.00021691 0.002484 -0.00088057 -0.0031035
-0.0011696 0.001001 -6.4676e-05 -9.393e-05
0.0046353 0.0028168 0.25745 0.17331 -0.0005952 -0.00033817 -0.0013794 0.00096632
-1.2445e-05 0.0012908 -0.00060853 0.00053794
-0.00020227 0.0024794 -0.00059351 -0.00034376 0.1593 -0.24385 0.0017222 0.00029235
-0.00013646 0.0023858 -0.0014254 0.00021974
-0.00090175 -0.0030902 -0.0013622 0.00097865 0.0017234 0.00030024 0.20536 -0.097234
0.00064737 0.0077532 -0.0017073 -0.001601
-0.0011677 0.0010545 -1.6461e-05 0.0012975 -0.00013205 0.0023646 0.00065261 0.0077731
0.24631 0.072713 0.0045709 0.0037494
-9.298e-06 -9.5556e-05 -0.00059933 0.00055744 -0.0014519 0.00026119 -0.0017226 -0.0015871
0.0045612 0.0037434 0.27601 0.097592
1880000000 0.21722 -0.14602 0.0024794 0.00030627 -0.00059176 0.0021947 -0.0029235 -0.0022899
-0.00031955 0.0018319 7.8387e-05 -0.00071358
0.0024792 0.00031255 0.26202 0.12671 -0.0025427 0.001571 -0.00022472 0.0017511
0.00062732 0.0013103 5.1516e-05 0.00096197
-0.00057109 0.0021917 -0.0025412 0.0015941 0.1073 -0.25283 0.0017694 -0.00090094
0.0015401 0.0020233 -0.0010896 0.0013551
-0.002941 -0.0022588 -0.00020583 0.0017762 0.001803 -0.00089846 0.16458 -0.13711
0.0016353 0.005592 -0.0022655 0.00023855
-0.0003061 0.0018408 0.00062609 0.0013108 0.0015387 0.0020442 0.0016595 0.0055651
0.2505 0.041223 0.0050701 0.0015487
4.0698e-05 -0.00067727 3.6349e-05 0.00095081 -0.0011408 0.0013509 -0.0023105 0.00023873
0.0050616 0.0015537 0.27644 0.06361
1940000000 0.17779 -0.17196 1.3232e-05 -0.0014625 0.0014381 0.0021859 -0.0037826 0.00045795
0.0013791 0.0011684 -0.00054167 -0.00070189
2.1738e-05 -0.0014592 0.26274 0.094728 -0.0014457 0.0041317 0.0011049 0.0013586
0.0019818 0.00048646 0.0010763 0.00043679
0.0014354 0.0021649 -0.0013907 0.0041259 0.062025 -0.24565 0.00045834 -0.002239
0.0024668 0.00029554 0.00055358 0.0015832
-0.0037643 0.00048089 0.0011095 0.0013621 0.00043251 -0.0022022 0.11212 -0.16748
0.00099067 0.0040835 -0.0014759 0.0014348
0.0013617 0.0011625 0.0019785 0.00046922 0.0024796 0.00031774 0.0010284 0.0040661
0.2538 0.0028681 0.0038325 -0.0015949
-0.00053563 -0.00071829 0.0010762 0.00040814 0.00054299 0.0015692 -0.0015081 0.0014205
0.0038146 -0.0016158 0.2655 0.027799
2000000000 0.13155 -0.18664 -0.0038343 0.00063616 0.0026537 0.0014906 -0.0022412 0.0037675
0.0012941 0.00039511 -0.00067444 0.00058446
-0.0038431 0.00062658 0.24842 0.059094 -0.00088368 0.0059129 0.0016757 0.00057966
0.0013494 -0.0011741 0.00053428 0.00016545
0.0026732 0.0014848 -0.00084514 0.0059386 0.019129 -0.2318 -0.0013341 -0.0013481
0.0021175 -0.0011644 0.0016208 0.0014828
-0.0022524 0.0037764 0.0016729 0.00054088 -0.0013629 -0.0013893 0.058757 -0.17717
-0.00044904 0.0036039 -0.0002683 0.0022772
0.0013447 0.00039205 0.0013237 -0.0012044 0.0020884 -0.0011929 -0.00043233 0.0036429
0.24903 -0.030605 0.00060208 -0.0028353
