!Keysight Technologies,M9804A,MY58100912,A.14.10.03
!Date: Thursday, April 27, 2023 10:28:33
!Correction: S11(C  6-Port  ) 
!S12(C  6-Port  ) 
!S13(C  6-Port  ) 
!S14(C  6-Port  ) 
!S15(C  6-Port  ) 
!S16(C  6-Port  ) 
!S21(C  6-Port  ) 
!S22(C  6-Port  ) 
!S23(C  6-Port  ) 
!S24(C  6-Port  ) 
!S25(C  6-Port  ) 
!S26(C  6-Port  ) 
!S31(C  6-Port  ) 
!S32(C  6-Port  ) 
!S33(C  6-Port  ) 
!S34(C  6-Port  ) 
!S35(C  6-Port  ) 
!S36(C  6-Port  ) 
!S41(C  6-Port  ) 
!S42(C  6-Port  ) 
!S43(C  6-Port  ) 
!S44(C  6-Port  ) 
!S45(C  6-Port  ) 
!S46(C  6-Port  ) 
!S51(C  6-Port  ) 
!S52(C  6-Port  ) 
!S53(C  6-Port  ) 
!S54(C  6-Port  ) 
!S55(C  6-Port  ) 
!S56(C  6-Port  ) 
!S61(C  6-Port  ) 
!S62(C  6-Port  ) 
!S63(C  6-Port  ) 
!S64(C  6-Port  ) 
!S65(C  6-Port  ) 
!S66(C  6-Port  ) 
!S6P File: Measurement: :
# Hz S  RI   R 50
500000000 -0.33532 -0.054616 -0.010449 -0.001655 -0.0085867 0.013493 -0.0044219 0.011357
0.01275 0.0051396 -0.0035954 0.0077026
-0.010462 -0.0016244 -0.4158 -0.064297 0.0082429 -0.010867 0.00092324 0.011419
0.0083334 0.0038312 0.0015159 0.013127
-0.0085935 0.013586 0.0082053 -0.010865 -0.26686 0.19817 0.0064927 0.0037561
-0.0015353 0.0083951 0.00028948 0.0122
-0.0044677 0.011433 0.00093488 0.011463 0.006524 0.0037479 -0.33179 0.043024
-0.018195 -0.0040755 0.016074 0.024847
0.012782 0.0049979 0.0083072 0.0037714 -0.0015257 0.0083872 -0.018209 -0.0040589
-0.24598 -0.19811 -0.025592 0.0065471
-0.0036283 0.0076698 0.0015372 0.013087 0.00030757 0.012181 0.016059 0.024838
-0.025568 0.0065536 -0.27205 -0.12506
560000000 -0.31942 0.11139 -0.022851 -0.065102 0.00049427 0.013014 0.0053363 0.010165
0.0099806 0.0040901 0.010799 0.0072926
-0.022821 -0.064982 -0.37523 0.098263 -0.041732 -0.037799 0.013822 0.0031149
-0.012161 -0.0035035 0.0035487 -0.00078131
0.00059655 0.012869 -0.041868 -0.037814 -0.18561 0.25008 -0.00034935 -0.0044573
0.018216 0.0058537 0.0076978 -0.0067789
0.0052382 0.010061 0.013817 0.0030878 -0.0003669 -0.0044316 -0.30631 0.13504
0.005697 -0.025078 0.0063522 -0.020922
0.0099106 0.0041087 -0.012253 -0.0035112 0.01819 0.0059271 0.0057442 -0.025018
-0.30962 -0.019446 0.0076446 -0.049069
0.010803 0.0071886 0.0034834 -0.00073741 0.0076674 -0.0068044 0.0063896 -0.020926
0.0076915 -0.048983 -0.32898 0.02176
620000000 -0.27714 0.092935 -0.022971 0.0085738 0.0036931 0.0091101 0.0077972 -0.0046092
0.012027 -0.00093594 0.00015783 -0.002943
-0.022929 0.0085617 -0.40334 0.048162 -0.018313 0.00079125 -0.0014372 -0.0019983
0.012016 -0.0062556 0.0006605 -0.0028315
0.0037493 0.0091293 -0.018324 0.00084899 -0.15539 0.25976 -0.00079658 -0.0053176
-0.0028615 -0.0026288 0.0096741 -0.0029102
0.0078904 -0.0045974 -0.001454 -0.0019806 -0.00076098 -0.0053574 -0.26586 0.1453
-0.038557 -0.018492 0.012663 0.026127
0.012057 -0.00098213 0.012001 -0.0063136 -0.0029866 -0.0025965 -0.038627 -0.018412
-0.23003 -0.052911 -0.040805 0.01497
0.00010902 -0.0029788 0.00067508 -0.002829 0.009682 -0.0029478 0.012593 0.026133
-0.040697 0.014905 -0.24935 -0.010175
680000000 -0.23903 0.1829 -0.026214 -0.014407 0.0049939 0.0050844 0.0012616 -0.0079124
-0.001499 -0.012195 0.0052433 -0.0071959
-0.026205 -0.014385 -0.39011 0.14927 -0.032382 -0.0020565 -0.0014661 -0.0004505
-0.0017014 -0.00958 -0.0011289 -0.0019907
0.0050005 0.0051298 -0.032422 -0.0019545 -0.10435 0.28043 -0.00093988 -0.00044621
-0.001581 0.00031821 -0.0029304 -0.0091248
0.0011511 -0.0079534 -0.0014892 -0.00047131 -0.00095929 -0.00050033 -0.22041 0.19634
-0.023386 -0.0072108 -0.0086785 -0.011625
-0.0015035 -0.012157 -0.0017321 -0.0096027 -0.0015613 0.00031419 -0.023389 -0.0072168
-0.27948 0.051226 -0.0080009 -0.0072361
0.0051199 -0.007144 -0.0011606 -0.0019677 -0.0028981 -0.0090788 -0.0086737 -0.011576
-0.0080045 -0.0072637 -0.26092 0.095097
740000000 -0.19324 0.17631 -0.039775 0.026757 0.013351 -0.0049336 -0.00020645 -0.0039924
-0.0035314 -0.0030962 -0.006928 0.0034752
-0.039751 0.026702 -0.33579 0.16748 -0.036707 0.034656 -0.0004511 -0.0060146
-0.012248 0.0073662 -0.0010278 -0.0057478
0.013346 -0.0049582 -0.036643 0.034807 -0.06992 0.27767 -0.0018251 0.0032221
-0.0029995 -0.0058983 -0.0011056 0.0016459
-0.00018199 -0.0040373 -0.00050046 -0.0060326 -0.0018083 0.0032183 -0.20358 0.20416
-0.042796 -0.008142 0.02246 0.015064
-0.0036133 -0.0031205 -0.012155 0.0073914 -0.0030143 -0.0058852 -0.042822 -0.0080758
-0.1804 0.081603 -0.041684 -0.00075113
-0.0068984 0.0034872 -0.0010832 -0.0056949 -0.0011168 0.0016206 0.022435 0.01497
-0.041603 -0.00065421 -0.24827 0.09972
800000000 -0.16223 0.22051 -0.022821 0.016268 0.0058083 -0.010448 -0.0043523 -0.0020906
-0.004524 0.0021667 0.0048133 0.00073719
-0.02279 0.016228 -0.34181 0.23861 -0.0087433 0.034029 -0.002319 0.0022176
-0.0011899 0.0026832 0.0010654 0.0056138
0.0057797 -0.010495 -0.0086524 0.03409 -0.031469 0.30206 0.00098245 0.0017009
0.00012456 0.0035279 -0.0018906 0.0012591
-0.004377 -0.00211 -0.0023101 0.0022154 0.00097792 0.0017223 -0.17405 0.23206
-0.028654 0.013139 0.01383 -0.0097937
-0.0045601 0.0021841 -0.0011611 0.002733 0.00013106 0.0035581 -0.028686 0.013223
-0.22185 0.1078 -0.017174 0.019356
0.0047749 0.00070987 0.0010867 0.0056339 -0.001889 0.0012407 0.013825 -0.0098738
-0.017252 0.019302 -0.24103 0.15025
860000000 -0.1278 0.24062 -0.018144 0.030422 -0.0029632 -0.010171 -0.0019769 0.00059716
0.0040022 0.0051602 -0.0035354 -0.0029926
-0.018125 0.030374 -0.29323 0.28181 0.0072879 0.034423 -9.292e-05 0.0020653
0.0036779 0.00029749 0.0032573 0.00035767
-0.0029832 -0.010177 0.0073994 0.03444 0.016212 0.31035 -0.00076749 -0.0001943
0.0023605 -0.0014083 0.0016815 0.0041195
-0.0019931 0.00061921 -8.6533e-05 0.0020727 -0.00077253 -0.00020423 -0.13758 0.24246
-0.018118 0.017712 -0.0060931 -0.0089052
0.0040678 0.0051282 0.0036963 0.00029186 0.0023607 -0.0014206 -0.01802 0.017696
-0.16517 0.15961 -0.024691 0.016417
-0.0035009 -0.0029635 0.0032493 0.00035008 0.0016823 0.0041243 -0.0061336 -0.0088218
-0.024659 0.016424 -0.18934 0.19301
920000000 -0.10387 0.26408 0.0046147 0.03827 -0.009161 -0.0049968 -0.0016987 0.0018739
0.0013415 0.0020386 0.0028583 -0.0016003
0.0045854 0.03824 -0.26592 0.30291 0.028041 0.022782 0.0016134 0.0012938
0.0075017 -0.00020713 0.0041614 -0.0027488
-0.0091801 -0.0049634 0.028117 0.022727 0.061597 0.31155 0.0020344 -6.6145e-05
0.0010716 -0.00031805 0.0010095 -0.0013209
-0.0016977 0.0018736 0.0016314 0.0012676 0.0020418 -5.3077e-05 -0.11302 0.25911
-0.011456 0.030032 0.0034221 -0.0065649
0.0013347 0.0020814 0.0075238 -0.00022956 0.0010998 -0.00029928 -0.011424 0.030153
-0.15521 0.16463 -0.0024345 0.02662
0.0028334 -0.0016148 0.0041212 -0.0028017 0.00099174 -0.0013183 0.0034017 -0.0066347
-0.002449 0.026543 -0.19763 0.20711
980000000 -0.057634 0.28434 0.01676 0.030131 -0.0093351 0.0042122 0.0017078 0.0036261
0.0037557 -0.0018638 -0.003202 -0.0022812
0.016732 0.030086 -0.21272 0.33769 0.033278 0.005544 0.0020465 -6.1078e-05
0.0015498 -0.0061935 -0.00035161 -0.0021509
-0.0093228 0.0042335 0.033318 0.0054386 0.10732 0.306 0.00065761 -0.0011672
0.00051414 -0.0019901 0.0015244 -0.0001633
0.0017217 0.0036321 0.0020609 -4.4999e-05 0.00064194 -0.001164 -0.075185 0.27019
0.0068753 0.030123 -0.008711 -0.0072688
0.0037517 -0.0018912 0.0015468 -0.0061989 0.00049996 -0.0019854 0.006933 0.030094
-0.12146 0.19496 0.0057557 0.019513
-0.0031835 -0.002252 -0.00035143 -0.0021515 0.0015328 -0.0001569 -0.008738 -0.0072236
0.0057646 0.019561 -0.15387 0.25142
1040000000 -0.016032 0.29349 0.032835 0.019363 -0.0015013 0.0070631 0.0028009 0.00088094
0.00045102 -0.0033984 -3.7232e-06 -0.0014636
0.032804 0.019326 -0.17782 0.35141 0.030011 -0.014297 0.001631 -0.0016421
-0.0020861 -0.0026534 -0.00084057 -0.0028357
-0.0014793 0.0070677 0.02998 -0.0144 0.15305 0.29297 -0.00044229 -0.0015646
-0.0016148 -0.00086396 -0.00050827 -0.0012388
0.0027894 0.00087619 0.0016398 -0.001625 -0.00043181 -0.0015756 -0.047359 0.27992
0.019125 0.019053 -0.0024059 0.0012672
0.00044988 -0.0033868 -0.0020896 -0.0026351 -0.0016298 -0.00085702 0.019183 0.019028
-0.087891 0.20117 0.013643 0.01785
-1.0481e-05 -0.0014493 -0.00084758 -0.0028289 -0.00049327 -0.0012324 -0.0024073 0.0012575
0.013655 0.017821 -0.13219 0.2719
1100000000 0.028917 0.30256 0.036412 -0.0032587 0.0028523 0.004177 0.002477 -0.0011557
-0.0021615 -0.003115 -0.0040385 -0.0003049
0.036383 -0.0032545 -0.13482 0.36956 0.016071 -0.027714 -2.0282e-05 -0.0019173
-0.0036311 -0.00095675 -0.0036454 -0.00080281
0.0028711 0.0041694 0.015973 -0.027802 0.19892 0.27389 -0.0018862 6.6592e-05
-0.0017092 0.00047113 -0.0010876 -0.00054236
0.002475 -0.0011671 -2.4631e-05 -0.0019155 -0.0018992 5.8056e-05 -0.0073742 0.28501
0.024805 0.0058892 -0.0023909 -2.6674e-05
-0.0021702 -0.0031187 -0.003627 -0.00095488 -0.0017081 0.00047415 0.024842 0.005874
-0.067433 0.21492 0.019372 0.0086356
-0.0040399 -0.00026441 -0.0036434 -0.00075595 -0.0010883 -0.0005462 -0.0023681 -3.2004e-05
0.019358 0.0086319 -0.086303 0.30057
1160000000 0.080162 0.29875 0.024767 -0.020264 0.0028139 -0.00046122 -7.7842e-05 -0.0024555
-0.0039521 -0.00083413 -0.00090708 0.0041055
0.024789 -0.020252 -0.09137 0.37402 -0.0030168 -0.029513 -0.0016117 -0.0017822
-0.0028712 0.0024459 -0.0015044 0.0019818
0.0028222 -0.00046759 -0.0031608 -0.029534 0.24221 0.24412 -0.00087489 0.0017573
-0.00062516 0.0019666 -0.00097986 0.00022273
-7.972e-05 -0.0024669 -0.0016165 -0.0017657 -0.00086965 0.0017538 0.032036 0.28246
0.021376 -0.0099421 -0.0032928 0.005247
-0.0039807 -0.00080972 -0.0028669 0.0024999 -0.00064245 0.0019799 0.021385 -0.0099414
-0.032743 0.22268 0.017937 -0.00054378
-0.00086939 0.0041068 -0.0014907 0.0019751 -0.00095596 0.00024478 -0.0032753 0.0052314
0.017934 -0.00049915 -0.039611 0.30347
1220000000 0.12402 0.28885 0.011385 -0.030003 -0.0015697 -0.00098294 4.5909e-05 -0.00094499
-0.0026846 0.0022357 0.0010828 0.0020089
0.011407 -0.029974 -0.047626 0.38717 -0.016668 -0.02199 -0.0026904 0.00043191
-5.2117e-05 0.0031595 -0.000852 0.001998
-0.0015711 -0.00097554 -0.01679 -0.021936 0.28154 0.206 0.00067824 0.0017367
0.00056706 0.0013022 0.00028569 0.00061098
5.1055e-05 -0.00093521 -0.0026964 0.00044751 0.00068414 0.0017309 0.071917 0.27394
0.011225 -0.017012 0.0020978 0.0014197
-0.0026766 0.0022409 -4.1759e-05 0.0031766 0.00056086 0.0013035 0.011204 -0.017014
-0.009219 0.23104 0.013817 -0.013213
0.0011145 0.0020298 -0.00083633 0.0019917 0.00028621 0.00061234 0.0020947 0.0014227
0.013804 -0.013226 -0.007916 0.31836
1280000000 0.17432 0.26841 -0.0073165 -0.028869 -0.0020445 0.0024275 -0.00086452 -0.0020342
-0.00070884 0.0032446 0.0024219 0.0013039
-0.0072857 -0.028833 -0.0016921 0.37927 -0.024024 -0.0091836 -0.001051 0.0014687
0.0016939 0.0017493 0.00052079 0.0020688
-0.0020378 0.0024291 -0.0241 -0.0090808 0.31273 0.16282 0.0015706 9.058e-05
0.0012493 0.00031552 0.00032142 0.00025327
-0.00085946 -0.0020499 -0.001035 0.001467 0.001567 8.6452e-05 0.10884 0.25813
0.0014737 -0.019321 -0.00011226 0.00024652
-0.00070162 0.0032505 0.001711 0.0017519 0.0012542 0.00030994 0.0014408 -0.019329
0.027541 0.23438 0.0032096 -0.015087
0.0024248 0.0012869 0.0005388 0.0020625 0.00032433 0.00025263 -9.8088e-05 0.00024102
0.0032164 -0.015104 0.038922 0.31997
1340000000 0.21176 0.23546 -0.017328 -0.019564 0.00073512 0.0047212 -0.0017512 -0.00081794
0.0014079 0.0026546 0.0017794 -0.0013486
-0.017288 -0.019559 0.037793 0.37189 -0.022029 0.0037993 -0.00013863 0.0020488
0.0019919 0.00087033 0.0012273 0.00082647
0.00076497 0.0047111 -0.022043 0.0039221 0.33524 0.11567 0.0011667 -0.00093856
0.00069478 -0.00057964 6.3348e-05 0.0002244
-0.0017616 -0.00081251 -0.00012367 0.0020514 0.0011653 -0.00093721 0.1422 0.23745
-0.008035 -0.016908 0.00085439 0.00054262
0.0014236 0.0026461 0.0019971 0.00086543 0.00069473 -0.0005764 -0.0080587 -0.016892
0.057523 0.22952 -0.0036504 -0.014014
0.0017662 -0.0013612 0.0012253 0.00081815 7.0038e-05 0.00022688 0.00080795 0.00056194
-0.0036446 -0.014034 0.076992 0.31485
1400000000 0.24544 0.19843 -0.023474 -0.0080333 0.005256 0.0034297 -0.00222 0.00060632
0.0024143 0.00090106 0.00037064 -0.0015094
-0.02344 -0.0080495 0.07546 0.35985 -0.015504 0.012376 0.0013676 0.0013713
0.0013341 -0.00077045 0.0012432 0.00012157
0.0052686 0.0034121 -0.015463 0.012475 0.34891 0.062409 0.0001506 -0.0016154
0.00010401 -0.00040952 0.00036563 0.00013253
-0.0022041 0.00061981 0.0013834 0.0013635 0.0001522 -0.0016162 0.17182 0.2086
-0.014192 -0.01034 -0.00095636 -0.00028295
0.0024064 0.00087905 0.0013234 -0.00078776 0.00010269 -0.00041631 -0.014226 -0.010295
0.090506 0.22498 -0.010123 -0.0089226
0.00037474 -0.0015116 0.0012449 0.00011388 0.00038327 0.00012959 -0.00093878 -0.00028315
-0.010146 -0.0089328 0.1211 0.30391
1460000000 0.26911 0.15494 -0.020617 0.0043225 0.0058705 -0.001659 -0.0015726 0.0017351
0.00216 -0.00047507 -0.00033158 -0.0010885
-0.020595 0.0043085 0.11039 0.33854 -0.0065598 0.015703 0.0017511 0.00018811
0.0009277 -0.0013723 0.0012521 -0.00054501
0.0058649 -0.0016862 -0.006493 0.015748 0.35577 0.008214 -0.0011583 -0.0013841
0.00012933 -0.00028766 0.00069413 -0.00024615
-0.0015845 0.0017309 0.001748 0.00017622 -0.0011563 -0.0013784 0.19876 0.17929
-0.01583 -0.0037222 -0.00078575 0.002057
0.0021611 -0.00049182 0.00091542 -0.001376 0.00013245 -0.0002717 -0.015854 -0.0036901
0.11983 0.21084 -0.012002 -0.0029657
-0.00034723 -0.0010766 0.0012472 -0.00055261 0.00069751 -0.00023463 -0.00076782 0.0020603
-0.011989 -0.0029383 0.15457 0.2833
1520000000 0.28181 0.11354 -0.015146 0.0099959 0.0035248 -0.0043279 4.1777e-05 0.002584
0.0021 -0.0019185 -0.0012273 -0.00025205
-0.01514 0.0099748 0.14441 0.32427 0.0014473 0.013544 0.0016736 -0.00078747
5.505e-05 -0.0011678 0.00030223 -0.0010612
0.0034906 -0.0043514 0.0015228 0.013556 0.34921 -0.047862 -0.001102 -0.00037853
0.0007033 -0.00083107 4.4728e-05 -0.00021195
6.3221e-05 0.0025974 0.00167 -0.00078989 -0.0011054 -0.0003793 0.22215 0.14074
-0.015406 0.0022146 0.0014819 0.002047
0.0020963 -0.0019339 5.3653e-05 -0.0011655 0.00070237 -0.00083832 -0.015407 0.0022352
0.148 0.19739 -0.01176 0.0015076
-0.0012219 -0.00023387 0.0003091 -0.0010632 4.7909e-05 -0.00022831 0.0014783 0.0020744
-0.011753 0.0014881 0.18724 0.26283
1580000000 0.29223 0.067745 -0.0084625 0.01345 -0.00089196 -0.0051008 0.0014935 0.0019501
-0.00014294 -0.0021794 -0.00026036 0.00031237
-0.0084645 0.013434 0.17229 0.29981 0.0053793 0.0086051 0.00053474 -0.0015729
-0.00060981 -0.0011062 -0.00016515 -0.00086566
-0.00091085 -0.0051042 0.0054362 0.008579 0.3299 -0.10542 -0.0016676 0.00057836
-0.00033135 -0.0012059 0.00028412 -0.00063083
0.0015039 0.0019354 0.00052486 -0.0015888 -0.0016707 0.00059169 0.23613 0.10114
-0.012246 0.0073902 0.0020863 0.00083011
-0.00015577 -0.0021829 -0.00062925 -0.0011009 -0.00033147 -0.0012041 -0.012228 0.0074252
0.17234 0.17996 -0.0094022 0.0072078
-0.00026608 0.00029917 -0.0001691 -0.00085274 0.00028917 -0.00060464 0.0020903 0.00080097
-0.0094085 0.0072199 0.21891 0.23633
1640000000 0.29501 0.026402 -0.0016576 0.01248 -0.002861 -0.0026996 0.0027386 0.0010983
-0.00070702 -0.0015793 -0.00042008 0.00063458
-0.0016564 0.012461 0.20239 0.27489 0.0062312 0.0035955 -0.00061399 -0.0018167
-0.0010765 -0.00042044 -0.00056651 -0.00070202
-0.0028783 -0.002687 0.006261 0.0035492 0.3017 -0.15497 -0.00070577 0.0014631
-0.0010565 -0.0010134 -0.00017699 -0.00020496
0.0027417 0.0010926 -0.00062476 -0.0018135 -0.00069726 0.0014562 0.24858 0.051948
-0.0079397 0.0092292 0.0025598 -0.00063629
-0.00073464 -0.0015656 -0.0010778 -0.0004083 -0.0010524 -0.0010143 -0.0079189 0.0092384
0.1957 0.15607 -0.0047835 0.009361
-0.00041246 0.00066017 -0.00057022 -0.00070655 -0.00017441 -0.00021506 0.0025601 -0.00064701
-0.0047486 0.009366 0.24483 0.20553
1700000000 0.28842 -0.018969 0.0018971 0.0097716 -0.0037361 1.552e-05 0.0032091 -0.0011811
-0.00197 -0.00068876 0.0005637 0.0004824
0.0018976 0.0097686 0.22085 0.24336 0.0040786 0.00049859 -0.0015034 -0.00059454
-0.00084016 9.3173e-05 -0.0009085 -0.00046567
-0.0037334 4.4503e-05 0.004085 0.00047911 0.25799 -0.19487 0.00043833 0.0016795
-0.0019157 -0.00010509 -0.00029498 -0.00093614
0.0032001 -0.0012139 -0.0015078 -0.00058776 0.00043242 0.0016775 0.24523 0.0017051
-0.004772 0.009958 0.0016801 -0.002215
-0.0019754 -0.00066901 -0.00084662 9.7424e-05 -0.0019325 -8.8284e-05 -0.0047684 0.009995
0.21333 0.1359 -0.00023855 0.0097007
0.00055841 0.0004802 -0.00091191 -0.00046262 -0.00031835 -0.00094919 0.0016849 -0.0022117
-0.00026098 0.0096803 0.26087 0.17122
1760000000 0.27683 -0.067908 0.0044483 0.006471 -0.0022961 0.0010594 0.001384 -0.0033794
-0.0014533 0.00067742 0.00040396 -0.00042913
0.0044452 0.0064596 0.24731 0.20353 0.0017936 -0.0014358 -0.0012138 0.00017693
-0.0010991 0.00096842 -0.00067444 0.00037579
-0.0023095 0.0010689 0.0017851 -0.0014447 0.21011 -0.22803 0.0011648 0.0011114
-0.0013684 0.0013968 -0.0012227 -0.00065057
0.0013682 -0.0033945 -0.0012149 0.00018342 0.0011657 0.0011209 0.23603 -0.049943
-0.0010889 0.0092799 -0.00010445 -0.0025367
-0.0014337 0.00069765 -0.0010935 0.0009846 -0.0013543 0.0014119 -0.0010752 0.0092781
0.22877 0.10161 0.0037303 0.007284
0.00040547 -0.00045383 -0.00066241 0.00040354 -0.0012184 -0.00063569 -0.00012913 -0.0025074
0.003741 0.0073032 0.2735 0.13399
1820000000 0.25239 -0.10564 0.0046402 0.0027851 -0.0002055 0.0024682 -0.00092066 -0.0031104
-0.0011943 0.0010392 5.8348e-05 -9.755e-05
0.0046276 0.0027897 0.25752 0.17318 -0.00055549 -0.00030476 -0.0013443 0.00095437
-7.7441e-06 0.0013071 -0.00053449 0.00058343
-0.00019654 0.0024662 -0.00055608 -0.00030137 0.15919 -0.2438 0.0018579 0.000379
-8.2957e-05 0.0024602 -0.0013667 0.00037742
-0.00092005 -0.0030949 -0.0013512 0.0009592 0.0018468 0.00037254 0.2055 -0.097254
0.00063508 0.0078333 -0.0015594 -0.0015658
-0.0011973 0.0010448 -5.693e-06 0.0013016 -7.9232e-05 0.0024655 0.00063143 0.0078144
0.24617 0.072702 0.0047725 0.0038496
8.1982e-05 -9.9286e-05 -0.00052446 0.00058597 -0.0013559 0.00038734 -0.0015514 -0.0016104
0.0048031 0.0038317 0.276 0.097631
1880000000 0.2171 -0.14631 0.0024854 0.0002368 -0.00058878 0.0021939 -0.002834 -0.0021948
-0.00030451 0.0018933 -1.8606e-05 -0.00063655
0.0024883 0.00022814 0.2621 0.12657 -0.0025856 0.0015638 -0.00019959 0.0017497
0.00057492 0.0012893 3.5961e-05 0.00090954
-0.00057453 0.0021912 -0.0025794 0.001599 0.10713 -0.25304 0.0016348 -0.00099374
0.0014967 0.0019179 -0.0010678 0.0012593
-0.0028629 -0.0021945 -0.00019375 0.0017558 0.0016186 -0.00096752 0.16473 -0.13742
0.0017588 0.0054527 -0.0023405 4.3357e-05
-0.00029879 0.0018734 0.00059229 0.001295 0.0015178 0.001926 0.0018013 0.0054792
0.25054 0.041209 0.0052466 0.0014287
-4.8973e-05 -0.00065033 4.286e-05 0.00091096 -0.0010622 0.0012505 -0.0023133 6.5913e-05
0.0052011 0.0014148 0.27631 0.063852
1940000000 0.17775 -0.17203 3.5343e-05 -0.0014656 0.0014881 0.0021894 -0.0038026 0.00034516
0.001387 0.0011102 -0.00057811 -0.00066132
4.3784e-05 -0.0014743 0.26287 0.094584 -0.0013754 0.0040974 0.0010998 0.0013697
0.001933 0.00049416 0.0010326 0.00040164
0.0014974 0.0021994 -0.0013505 0.0041083 0.061901 -0.24569 0.00041308 -0.0021855
0.0023658 0.00032709 0.00051628 0.0016751
-0.0037857 0.00037284 0.0010943 0.0013503 0.00041739 -0.0021992 0.11193 -0.16758
0.00088845 0.0039962 -0.0015807 0.0015441
0.0013803 0.0011073 0.001934 0.0004801 0.0023783 0.00032755 0.00090331 0.0040274
0.25379 0.0028588 0.0039109 -0.0017425
-0.00053693 -0.00066776 0.0010633 0.00040252 0.00054388 0.0016681 -0.0015092 0.0015687
0.0039401 -0.0017111 0.26568 0.027752
2000000000 0.13148 -0.18669 -0.0039153 0.00073328 0.0026128 0.0015761 -0.0023923 0.0038063
0.0012841 0.00042207 -0.00072724 0.00063535
-0.0039279 0.00073277 0.24843 0.058939 -0.00088675 0.0059028 0.0016458 0.00051172
0.0014048 -0.0010984 0.00051837 0.00017618
0.0026387 0.0015605 -0.00085374 0.0059156 0.018999 -0.23186 -0.0012155 -0.0013835
0.0021902 -0.0011542 0.0016766 0.0015567
-0.0023542 0.0038557 0.0016454 0.00051725 -0.0012381 -0.0013641 0.058637 -0.17709
-0.00031073 0.0036745 3.2609e-05 0.0021232
0.0012724 0.00041572 0.0013758 -0.0011291 0.0021684 -0.0011655 -0.00034801 0.003669
0.24918 -0.030435 0.00096257 -0.0029288
