!Keysight Technologies,M9804A,MY58100912,A.14.10.03
!Date: Thursday, April 27, 2023 10:28:33
!Correction: S11(C  6-Port  ) 
!S12(C  6-Port  ) 
!S13(C  6-Port  ) 
!S14(C  6-Port  ) 
!S15(C  6-Port  ) 
!S16(C  6-Port  ) 
!S21(C  6-Port  ) 
!S22(C  6-Port  ) 
!S23(C  6-Port  ) 
!S24(C  6-Port  ) 
!S25(C  6-Port  ) 
!S26(C  6-Port  ) 
!S31(C  6-Port  ) 
!S32(C  6-Port  ) 
!S33(C  6-Port  ) 
!S34(C  6-Port  ) 
!S35(C  6-Port  ) 
!S36(C  6-Port  ) 
!S41(C  6-Port  ) 
!S42(C  6-Port  ) 
!S43(C  6-Port  ) 
!S44(C  6-Port  ) 
!S45(C  6-Port  ) 
!S46(C  6-Port  ) 
!S51(C  6-Port  ) 
!S52(C  6-Port  ) 
!S53(C  6-Port  ) 
!S54(C  6-Port  ) 
!S55(C  6-Port  ) 
!S56(C  6-Port  ) 
!S61(C  6-Port  ) 
!S62(C  6-Port  ) 
!S63(C  6-Port  ) 
!S64(C  6-Port  ) 
!S65(C  6-Port  ) 
!S66(C  6-Port  ) 
!S6P File: Measurement: :
# Hz S  RI   R 50
500000000 -0.33441 -0.054177 -0.0097889 -0.0014438 -0.0081085 0.012996 -0.0041071 0.012222
0.012757 0.0046407 -0.0035905 0.0081519
-0.0097754 -0.0014486 -0.41551 -0.064452 0.0079506 -0.010833 0.0010311 0.012201
0.0082393 0.0029051 0.001058 0.014021
-0.0081267 0.013006 0.0079239 -0.010873 -0.26724 0.19856 0.0067835 0.0037142
-0.0017026 0.0081115 0.0003764 0.012322
-0.0040409 0.012134 0.0010687 0.012167 0.0067819 0.0037324 -0.33151 0.043558
-0.018931 -0.0042472 0.01592 0.025994
0.012938 0.0046578 0.0083598 0.0029724 -0.0016816 0.0081043 -0.0189 -0.0042377
-0.24481 -0.19736 -0.026963 0.0057468
-0.0034154 0.008115 0.0011256 0.01395 0.0003475 0.012358 0.015967 0.025919
-0.02695 0.0057598 -0.27341 -0.12378
560000000 -0.3192 0.11204 -0.022721 -0.064623 0.00020303 0.012704 0.0047997 0.010576
0.010451 0.0041263 0.010597 0.0078782
-0.022682 -0.064557 -0.37494 0.098463 -0.041557 -0.037924 0.013467 0.0031868
-0.012585 -0.003204 0.0043092 -0.0013164
0.00022391 0.012721 -0.04166 -0.037824 -0.18536 0.25022 -0.00082245 -0.0046941
0.018261 0.0061634 0.0079374 -0.0063093
0.0047973 0.01044 0.013379 0.0030544 -0.00076663 -0.0046595 -0.30673 0.13474
0.0055462 -0.024451 0.0051384 -0.021589
0.01048 0.0040795 -0.012582 -0.0032521 0.018219 0.0062755 0.0055615 -0.024474
-0.3108 -0.018571 0.0094985 -0.048135
0.010363 0.0078721 0.0042375 -0.0013095 0.0078742 -0.0063631 0.005131 -0.021622
0.0095181 -0.048158 -0.33118 0.022165
620000000 -0.27679 0.092219 -0.02305 0.0086569 0.0037346 0.0092312 0.0076438 -0.004292
0.012448 -0.0014078 -0.00029552 -0.0023456
-0.023041 0.0086449 -0.40341 0.047973 -0.018242 0.0008402 -0.0013247 -0.0018529
0.011963 -0.0064539 0.0011122 -0.0025588
0.003767 0.0091958 -0.018269 0.00088209 -0.15558 0.2597 -0.0011531 -0.0055257
-0.0029714 -0.002437 0.0090037 -0.0031769
0.0076827 -0.0042416 -0.0013128 -0.0018613 -0.0011966 -0.0054744 -0.26639 0.14528
-0.038034 -0.019377 0.011575 0.025545
0.012581 -0.0016359 0.011909 -0.006566 -0.0028733 -0.0024478 -0.038045 -0.019298
-0.23165 -0.05034 -0.039496 0.015085
-0.0002975 -0.0022191 0.0011547 -0.002587 0.0088974 -0.0031383 0.011544 0.025582
-0.039406 0.015034 -0.25054 -0.010781
680000000 -0.23858 0.18289 -0.026104 -0.014319 0.0049245 0.0052459 0.0013926 -0.0079093
-0.0020211 -0.012457 0.0059098 -0.0072507
-0.026056 -0.014325 -0.3902 0.14938 -0.032376 -0.0020101 -0.0013203 -0.00065878
-0.0019316 -0.0095643 -0.00096514 -0.0018071
0.0049507 0.0052303 -0.032421 -0.0019212 -0.10425 0.2804 -0.00080992 -0.00060113
-0.0015084 0.00030623 -0.0027911 -0.0089311
0.0014173 -0.0078442 -0.0013083 -0.00064527 -0.00080986 -0.00060423 -0.22054 0.19651
-0.02306 -0.0074743 -0.0079443 -0.011659
-0.0020312 -0.012504 -0.0019685 -0.0096041 -0.0015156 0.000272 -0.023079 -0.0074512
-0.27925 0.051383 -0.0083032 -0.0074087
0.0057576 -0.0071667 -0.00099637 -0.0017335 -0.0027649 -0.0089204 -0.0079316 -0.011631
-0.0082628 -0.0074088 -0.26046 0.095492
740000000 -0.19329 0.17616 -0.039632 0.026722 0.013351 -0.0048809 -8.6782e-05 -0.0042406
-0.0043501 -0.0027627 -0.0063494 0.0028164
-0.039604 0.026668 -0.33568 0.16764 -0.03682 0.034525 -0.00020645 -0.0059239
-0.012108 0.0075999 -0.00068462 -0.0054874
0.013355 -0.0049524 -0.036749 0.034662 -0.069891 0.27774 -0.002021 0.0030752
-0.0030998 -0.0057763 -0.0016989 0.0015456
-0.00012304 -0.0042236 -0.00022547 -0.005931 -0.0020107 0.0030667 -0.20363 0.20425
-0.042592 -0.0077382 0.022299 0.015086
-0.0041476 -0.0027646 -0.011976 0.0076542 -0.0031175 -0.0057667 -0.042588 -0.0077193
-0.18006 0.078726 -0.0415 0.00066073
-0.0066194 0.0028732 -0.00071881 -0.0056108 -0.0016395 0.0015451 0.022276 0.015123
-0.041461 0.00057177 -0.24934 0.098946
800000000 -0.16266 0.22035 -0.022838 0.016213 0.0057421 -0.010498 -0.0042374 -0.0021074
-0.0048983 0.002566 0.0048483 0.00096413
-0.02283 0.016203 -0.34182 0.2385 -0.0087023 0.034003 -0.0022429 0.0021511
-0.0014799 0.003014 0.0011476 0.005543
0.0057069 -0.010536 -0.008616 0.034054 -0.031545 0.30192 0.00094866 0.0016151
-0.00011385 0.0036861 -0.0017905 0.00094564
-0.004272 -0.0021068 -0.0022495 0.0021515 0.00094682 0.001609 -0.17405 0.23198
-0.028793 0.01314 0.014009 -0.010017
-0.0048406 0.0025356 -0.0013913 0.0029846 -8.2044e-05 0.0036665 -0.028783 0.013178
-0.2217 0.1085 -0.017843 0.019506
0.0048243 0.00083489 0.0011602 0.0054525 -0.0018294 0.00093221 0.013995 -0.010023
-0.017835 0.019478 -0.23964 0.14978
860000000 -0.12795 0.24043 -0.018139 0.03047 -0.0029479 -0.010232 -0.0019213 0.00054385
0.003902 0.0049674 -0.0033898 -0.0031044
-0.018124 0.030436 -0.29322 0.28157 0.0072508 0.034463 -4.995e-05 0.0020593
0.0036481 0.000363 0.0032444 0.00036389
-0.0029556 -0.010241 0.0073713 0.034466 0.0161 0.3103 -0.00078267 -0.00020303
0.0025161 -0.001418 0.0015942 0.0041568
-0.0018968 0.00056898 -5.2108e-06 0.0020791 -0.00079509 -0.00021175 -0.13764 0.24218
-0.018176 0.0178 -0.0062023 -0.0089082
0.00397 0.0049518 0.0037311 0.00032151 0.0025239 -0.0014078 -0.018159 0.017851
-0.16518 0.15953 -0.024567 0.016329
-0.0033843 -0.0030383 0.0033107 0.00044451 0.0015716 0.0041542 -0.0062324 -0.00892
-0.024561 0.016361 -0.18976 0.19356
920000000 -0.10409 0.26394 0.0046291 0.038325 -0.009153 -0.0049834 -0.0016812 0.0016976
0.0013568 0.0019612 0.0026998 -0.0015669
0.0046171 0.038297 -0.26597 0.30271 0.028002 0.022768 0.001603 0.0012804
0.0075572 -0.00014676 0.0039395 -0.0028031
-0.0091557 -0.0049621 0.028097 0.022692 0.061481 0.31144 0.0020069 -7.9054e-05
0.00099165 -0.0003577 0.00094862 -0.0012918
-0.0016725 0.0017369 0.0016202 0.0012918 0.0020084 -9.6526e-05 -0.11302 0.25883
-0.011398 0.03039 0.0035696 -0.0067627
0.0014005 0.0019798 0.0075733 -0.00020299 0.00097767 -0.00035836 -0.011334 0.030421
-0.15496 0.16487 -0.0021934 0.026287
0.002683 -0.0015347 0.0039884 -0.0028002 0.00097882 -0.0013065 0.003537 -0.0067722
-0.0022162 0.026307 -0.19772 0.20739
980000000 -0.057829 0.28442 0.016763 0.030234 -0.0093363 0.0042156 0.0018286 0.0037842
0.0038535 -0.0017143 -0.0029196 -0.0022109
0.016725 0.030248 -0.21296 0.33782 0.033228 0.0056121 0.0021226 -7.5412e-05
0.0015734 -0.0059868 -0.00015069 -0.0020856
-0.0093371 0.0042507 0.033276 0.0054798 0.10716 0.30596 0.00069964 -0.0011408
0.00048242 -0.0019798 0.0015909 -8.0121e-05
0.0018472 0.0037666 0.0021363 -5.2522e-05 0.00070323 -0.0011435 -0.075228 0.27032
0.0069973 0.030087 -0.0087404 -0.0071633
0.0038202 -0.0017168 0.0015353 -0.0060044 0.00046584 -0.0019971 0.0070678 0.030095
-0.12173 0.19567 0.0063987 0.019535
-0.0028771 -0.0022287 -0.00019032 -0.0020535 0.0016102 -6.405e-05 -0.0087303 -0.007155
0.0063719 0.019536 -0.15412 0.25129
1040000000 -0.016188 0.29342 0.032847 0.019315 -0.0015063 0.007035 0.0026981 0.00086331
0.00050042 -0.0034418 -9.3038e-05 -0.0016323
0.032818 0.019326 -0.17797 0.3513 0.030039 -0.014219 0.0016171 -0.0016956
-0.0020194 -0.0026327 -0.00091851 -0.0028814
-0.0014744 0.0070394 0.030002 -0.014374 0.15293 0.29304 -0.00044545 -0.0015609
-0.0015477 -0.0009023 -0.00051538 -0.0011359
0.0027193 0.00086818 0.0016321 -0.0016833 -0.00044623 -0.001563 -0.047588 0.27995
0.019089 0.019129 -0.0025035 0.0011511
0.0004663 -0.0034515 -0.0020226 -0.0026252 -0.0015657 -0.00090049 0.019131 0.019105
-0.088658 0.20145 0.013383 0.018302
-6.8135e-05 -0.0015716 -0.00099452 -0.0028451 -0.00052559 -0.0011396 -0.0024955 0.0011541
0.013377 0.018343 -0.1323 0.27207
1100000000 0.028666 0.30265 0.036394 -0.0033049 0.0028522 0.0041374 0.0024561 -0.0011702
-0.0021577 -0.0031394 -0.0040199 -0.00019
0.036369 -0.0032753 -0.13491 0.36938 0.016079 -0.027703 2.0799e-05 -0.0019391
-0.003589 -0.0010413 -0.003627 -0.000744
0.0028734 0.0041335 0.01598 -0.027807 0.19878 0.27395 -0.001845 3.4314e-05
-0.0017287 0.00049625 -0.0010752 -0.00056726
0.0024564 -0.0011867 6.4304e-06 -0.0019314 -0.0018508 4.0856e-05 -0.007454 0.28513
0.024774 0.0059497 -0.0022613 6.5705e-05
-0.0021906 -0.0031404 -0.0036016 -0.001015 -0.001727 0.00051645 0.024804 0.0059073
-0.067535 0.21476 0.019122 0.0086073
-0.0039954 -0.0001588 -0.003665 -0.00070353 -0.0010716 -0.00056449 -0.0022443 7.846e-05
0.019086 0.0085848 -0.086205 0.30067
1160000000 0.079916 0.29881 0.024678 -0.020359 0.0028073 -0.00046254 -0.00011979 -0.0024644
-0.0039791 -0.00079291 -0.00095615 0.004156
0.024687 -0.020302 -0.091556 0.37394 -0.0029925 -0.029486 -0.0016725 -0.0017845
-0.002873 0.0024631 -0.0014774 0.0018836
0.0028049 -0.0004679 -0.0031373 -0.02951 0.24209 0.24419 -0.0008387 0.0017526
-0.00064695 0.0020286 -0.00089343 0.00019097
-0.00011779 -0.0024767 -0.0016761 -0.0017722 -0.000834 0.0017442 0.031945 0.28255
0.02141 -0.0099588 -0.003268 0.0052802
-0.0039976 -0.00078219 -0.0028676 0.0024878 -0.00065805 0.0020208 0.021415 -0.0099895
-0.032768 0.22273 0.01798 -0.00043487
-0.00092215 0.0041354 -0.0014777 0.0019048 -0.00086638 0.00021746 -0.0032551 0.0052921
0.017986 -0.0004608 -0.039717 0.30353
1220000000 0.12386 0.28896 0.01137 -0.030014 -0.0015682 -0.00097069 2.8301e-06 -0.0009218
-0.0027062 0.0022438 0.0010621 0.0019942
0.011379 -0.029973 -0.047878 0.38715 -0.016679 -0.02199 -0.0026615 0.00044572
-5.0295e-05 0.0031795 -0.00086647 0.001952
-0.0015708 -0.00095976 -0.016793 -0.021946 0.28142 0.20607 0.00070347 0.0017162
0.00060402 0.0012467 0.00025115 0.00056024
-2.042e-06 -0.00092562 -0.0026651 0.00046094 0.0007076 0.0017146 0.071764 0.27402
0.011242 -0.016994 0.0021375 0.0013935
-0.0026935 0.0022447 -3.6563e-05 0.0031878 0.00060143 0.0012444 0.011214 -0.01701
-0.0093972 0.23115 0.01382 -0.012829
0.0010602 0.0019911 -0.00085394 0.0019738 0.00025779 0.00057013 0.0021398 0.0013959
0.013826 -0.01282 -0.0079053 0.31836
1280000000 0.17418 0.26846 -0.0073186 -0.028865 -0.0020528 0.0024153 -0.00085237 -0.0020538
-0.0007812 0.0031439 0.0024349 0.00125
-0.0072982 -0.028838 -0.0019102 0.37919 -0.024042 -0.0092142 -0.0010273 0.0014821
0.0017003 0.0017041 0.00050892 0.0020244
-0.0020371 0.0024256 -0.024116 -0.0091149 0.31256 0.16293 0.0015937 7.5095e-05
0.0012048 0.00032278 0.00039435 0.00020845
-0.00087417 -0.0020507 -0.0010361 0.0014716 0.0016011 8.0228e-05 0.10887 0.25826
0.0015584 -0.019309 1.1811e-05 0.00021363
-0.00075961 0.0031435 0.0017177 0.001694 0.0011954 0.00031618 0.0015204 -0.019323
0.02731 0.23427 0.0030447 -0.01489
0.0024059 0.0012393 0.00051863 0.0020217 0.00041193 0.00022579 2.2712e-05 0.00022672
0.0030396 -0.014876 0.0391 0.32023
1340000000 0.21159 0.23564 -0.017287 -0.019528 0.00073119 0.004738 -0.0017474 -0.00079107
0.0013979 0.00263 0.0017776 -0.0012861
-0.017263 -0.01952 0.037557 0.3719 -0.022044 0.0038432 -9.972e-05 0.0020733
0.0019693 0.00086268 0.0012402 0.00083727
0.0007585 0.0047385 -0.02205 0.0039579 0.33506 0.11578 0.001194 -0.00084555
0.00062756 -0.000597 7.833e-06 0.0003214
-0.0017568 -0.00077367 -9.2707e-05 0.0020753 0.0011947 -0.00084022 0.14216 0.23758
-0.0080225 -0.01691 0.00083806 0.0004677
0.0014049 0.0026323 0.0019807 0.00085711 0.00063201 -0.00059009 -0.0080504 -0.016907
0.057378 0.22957 -0.0035127 -0.013844
0.0017858 -0.0012968 0.0012601 0.00082946 1.227e-05 0.00032789 0.00083649 0.00046156
-0.0035083 -0.013857 0.076713 0.31488
1400000000 0.24542 0.19855 -0.023434 -0.0080077 0.0053012 0.0034185 -0.0022009 0.00064985
0.0023982 0.00091941 0.00030054 -0.001516
-0.023394 -0.0080162 0.075258 0.35987 -0.015511 0.012426 0.0013656 0.0013682
0.0013236 -0.00076552 0.001166 0.00013961
0.0053246 0.003401 -0.015462 0.012512 0.34875 0.062623 0.0001551 -0.0016332
0.00014785 -0.00042769 0.00034015 9.1899e-05
-0.0021919 0.00065458 0.0013725 0.0013611 0.00015114 -0.0016362 0.17185 0.20867
-0.014183 -0.010306 -0.00091068 -0.0002974
0.0023967 0.00091834 0.0013142 -0.00076737 0.00015452 -0.00043176 -0.01421 -0.010282
0.090356 0.225 -0.0099795 -0.0087907
0.00029877 -0.0015229 0.0011788 0.00012771 0.00033644 7.4105e-05 -0.00090872 -0.00029793
-0.0099811 -0.0087957 0.12099 0.30418
1460000000 0.26898 0.15503 -0.020557 0.0042813 0.0058582 -0.0016748 -0.0015699 0.001743
0.0021761 -0.00052612 -0.00040316 -0.0010284
-0.020547 0.0042679 0.11013 0.33855 -0.0065301 0.015707 0.0017318 0.0001747
0.00095447 -0.0013854 0.0012057 -0.00057835
0.0058499 -0.0016941 -0.0064594 0.015756 0.35565 0.0084035 -0.0011844 -0.0013539
0.00012184 -0.00016084 0.00069658 -0.00023026
-0.00156 0.0017525 0.0017425 0.000169 -0.0011853 -0.0013615 0.19877 0.17926
-0.01574 -0.0037611 -0.00084216 0.0019508
0.0021804 -0.00054482 0.00094322 -0.0013836 0.00012684 -0.00015604 -0.015751 -0.0037353
0.11981 0.21081 -0.011814 -0.0030354
-0.00039949 -0.0010328 0.0012002 -0.00060098 0.00068955 -0.00024939 -0.00084019 0.0019418
-0.011819 -0.0030376 0.15451 0.28369
1520000000 0.28169 0.11373 -0.015117 0.0099574 0.003503 -0.0043231 7.2925e-05 0.0025748
0.0021273 -0.0019021 -0.0011934 -0.00022842
-0.015111 0.0099399 0.14413 0.32434 0.0014411 0.013553 0.0016681 -0.00079013
6.9128e-05 -0.0011528 0.00031675 -0.0010534
0.0034597 -0.0043498 0.0015196 0.01356 0.34915 -0.047652 -0.0010947 -0.00039421
0.00064183 -0.00083229 1.514e-05 -0.00015108
8.2814e-05 0.0025663 0.0016629 -0.00079821 -0.0010901 -0.0003967 0.22211 0.14081
-0.015453 0.0021503 0.00142 0.0021784
0.0021364 -0.0019142 5.8619e-05 -0.0011653 0.00063805 -0.0008356 -0.015446 0.0021775
0.14793 0.19748 -0.011724 0.0014575
-0.0012005 -0.00024327 0.00029943 -0.0010434 2.1228e-06 -0.0001443 0.0014312 0.0021699
-0.011727 0.0014459 0.18726 0.26324
1580000000 0.29204 0.067903 -0.0084673 0.013404 -0.00093162 -0.0051186 0.0014467 0.0019442
-0.0001967 -0.0021586 -0.00026804 0.00034489
-0.0084701 0.013384 0.17205 0.2999 0.0054056 0.0085967 0.00052479 -0.0015771
-0.00060018 -0.0011047 -0.00018054 -0.0008617
-0.00094677 -0.0051246 0.0054641 0.0085685 0.32986 -0.10511 -0.0017038 0.00059462
-0.00034194 -0.0011643 0.00028174 -0.00054073
0.0014623 0.0019353 0.00051215 -0.0015802 -0.0016975 0.00060056 0.23608 0.10111
-0.01219 0.0073617 0.0021861 0.00086586
-0.00020359 -0.0021608 -0.00060977 -0.0010934 -0.00034626 -0.0011614 -0.012182 0.0073964
0.17228 0.18001 -0.0093944 0.0070614
-0.00026418 0.00032967 -0.00018554 -0.00087102 0.00029368 -0.00055919 0.0021913 0.0008441
-0.0093825 0.0070659 0.21916 0.23651
1640000000 0.29484 0.026627 -0.0017066 0.012412 -0.0029517 -0.0027109 0.0027367 0.0011288
-0.00074785 -0.0016079 -0.00045207 0.00069202
-0.001714 0.012413 0.20214 0.27506 0.0061874 0.0035635 -0.00060873 -0.0017821
-0.0010915 -0.00044159 -0.00059789 -0.00070735
-0.0029624 -0.0026845 0.0062124 0.0035307 0.30169 -0.15471 -0.0007104 0.0014995
-0.0011001 -0.00096038 -0.00015337 -0.00029947
0.0027412 0.0011264 -0.00061581 -0.0017852 -0.00070212 0.0014959 0.24853 0.051894
-0.0079674 0.0091458 0.0025669 -0.00070193
-0.00075386 -0.0016061 -0.0010823 -0.00042084 -0.0011002 -0.00095598 -0.0079407 0.0091679
0.19575 0.15615 -0.0047898 0.0091446
-0.00045125 0.0007029 -0.00059107 -0.00071003 -0.00014497 -0.0003072 0.002582 -0.00070026
-0.0047897 0.0091571 0.24498 0.20558
1700000000 0.28834 -0.018714 0.0018489 0.0097366 -0.0037028 6.8328e-05 0.0032137 -0.0012122
-0.0019579 -0.00065768 0.00058328 0.00050624
0.0018412 0.0097367 0.22065 0.24353 0.0040726 0.00049603 -0.0014952 -0.00060219
-0.00086545 8.3784e-05 -0.00089005 -0.00046332
-0.0037064 9.5308e-05 0.004084 0.00047094 0.25822 -0.19466 0.00041848 0.001707
-0.0020238 -0.00010489 -0.00034522 -0.000899
0.003209 -0.0012235 -0.0015007 -0.00059631 0.00041299 0.0016966 0.24503 0.0017392
-0.0048701 0.010014 0.0016983 -0.002232
-0.001957 -0.00064457 -0.00086105 8.4197e-05 -0.002012 -0.00011637 -0.0048459 0.010032
0.2133 0.13607 -0.00028035 0.0095597
0.00059026 0.00051414 -0.00089561 -0.00046209 -0.00034674 -0.00090274 0.0017021 -0.0022369
-0.00028707 0.0095591 0.26095 0.17122
1760000000 0.27681 -0.067552 0.0043804 0.0064925 -0.0023094 0.00095674 0.0014025 -0.0034245
-0.0013889 0.00064954 0.00046991 -0.00045301
0.0043787 0.0064923 0.24712 0.20372 0.0018109 -0.0014547 -0.0012108 0.00020161
-0.0010784 0.00098712 -0.00065483 0.00040067
-0.0023005 0.00097095 0.0018124 -0.0014752 0.2103 -0.22768 0.0012153 0.0011527
-0.0013462 0.0014644 -0.0012383 -0.00068845
0.001401 -0.0034452 -0.001198 0.00019808 0.0012256 0.0011365 0.23587 -0.049864
-0.0011518 0.0093017 -4.0989e-05 -0.0025263
-0.0013722 0.00066981 -0.0010648 0.001003 -0.0013365 0.0014723 -0.0011299 0.0093071
0.22868 0.10173 0.0036347 0.0071937
0.00044091 -0.00046362 -0.00065242 0.00039779 -0.0012472 -0.00071793 -2.9849e-05 -0.0025305
0.0036475 0.0072034 0.27373 0.13387
1820000000 0.25242 -0.10535 0.004624 0.0027994 -0.00021707 0.0024725 -0.00089469 -0.0031117
-0.0011716 0.0010033 -5.0413e-05 -9.1629e-05
0.0046146 0.0028052 0.25739 0.17338 -0.00059788 -0.0003478 -0.0013583 0.00096954
-2.2661e-05 0.0012988 -0.00061343 0.00054497
-0.00020094 0.0024776 -0.00061103 -0.00034565 0.15933 -0.24377 0.0017412 0.00030379
-0.00015114 0.0023977 -0.0014656 0.00024714
-0.00091398 -0.0031077 -0.0013513 0.00096765 0.001735 0.0003067 0.20537 -0.097235
0.00064118 0.0077353 -0.0017151 -0.0016074
-0.0011801 0.0010169 -5.3602e-06 0.0012993 -0.00014349 0.0023884 0.00065631 0.0077353
0.24631 0.072778 0.00458 0.0037391
-4.2583e-05 -7.7121e-05 -0.00061669 0.00055608 -0.0014941 0.00024326 -0.0017325 -0.0015805
0.0045637 0.0037401 0.27599 0.097602
1880000000 0.21724 -0.14593 0.002469 0.00030933 -0.00059361 0.0021764 -0.0029232 -0.0022706
-0.0003372 0.0018414 7.4616e-05 -0.00069906
0.0024549 0.00031526 0.26198 0.12676 -0.0025301 0.0015478 -0.00023005 0.0017633
0.00061703 0.0013008 4.957e-05 0.000933
-0.0005911 0.0021902 -0.0025304 0.0015677 0.10737 -0.25287 0.0017729 -0.00088994
0.0015516 0.0020268 -0.0010481 0.0013297
-0.0029442 -0.0022434 -0.00022263 0.0017669 0.0017785 -0.00090232 0.16459 -0.13705
0.0016196 0.0055846 -0.0022925 0.00019464
-0.00032789 0.0018489 0.00062334 0.0012947 0.0015629 0.002016 0.0016412 0.005592
0.25047 0.041285 0.0050607 0.0014925
6.0707e-05 -0.00070431 6.031e-05 0.00092994 -0.0010399 0.0013383 -0.0022772 0.00019555
0.0050581 0.0015018 0.27634 0.063614
1940000000 0.1778 -0.17191 2.6716e-05 -0.0014661 0.0014639 0.0021204 -0.0037884 0.00041403
0.0013633 0.0011835 -0.00050822 -0.00067207
2.1534e-05 -0.0014725 0.2627 0.09481 -0.001437 0.0041158 0.0011028 0.0013888
0.0019536 0.00050593 0.0010939 0.00043208
0.0014725 0.0021225 -0.001408 0.0041369 0.062133 -0.2456 0.0004126 -0.0021874
0.0024506 0.00033673 0.00055345 0.0015444
-0.0037762 0.00045924 0.0011255 0.001409 0.00040313 -0.0021652 0.11218 -0.16741
0.0010401 0.0041295 -0.001515 0.0014396
0.0013822 0.0011755 0.0019635 0.0004933 0.0024379 0.0003262 0.0010328 0.0041336
0.25377 0.0030446 0.0038488 -0.0016487
-0.00050857 -0.00066711 0.0011047 0.00043293 0.00055507 0.0015478 -0.0014996 0.001461
0.003852 -0.0016434 0.26543 0.027764
2000000000 0.13158 -0.18661 -0.0038347 0.00061956 0.0026561 0.0015301 -0.0023066 0.0038167
0.0012981 0.00040958 -0.00064424 0.0005268
-0.0038325 0.00062737 0.24841 0.059202 -0.00090031 0.0059244 0.0016546 0.00053048
0.0013583 -0.0011829 0.00055441 0.00017519
0.0026668 0.0015026 -0.00085576 0.0059307 0.019203 -0.23181 -0.0012711 -0.0013719
0.0021103 -0.0011528 0.0016155 0.0014969
-0.0022823 0.003828 0.0016623 0.00051812 -0.0012711 -0.0013603 0.058626 -0.17714
-0.00046117 0.0035662 -0.00023916 0.0022334
0.0012901 0.00041525 0.0013352 -0.0011972 0.0020953 -0.0011493 -0.00045093 0.003548
0.24906 -0.030515 0.00060703 -0.0027713
