!Keysight Technologies,M9804A,MY58100912,A.14.10.03
!Date: Thursday, April 27, 2023 10:28:33
!Correction: S11(C  6-Port  ) 
!S12(C  6-Port  ) 
!S13(C  6-Port  ) 
!S14(C  6-Port  ) 
!S15(C  6-Port  ) 
!S16(C  6-Port  ) 
!S21(C  6-Port  ) 
!S22(C  6-Port  ) 
!S23(C  6-Port  ) 
!S24(C  6-Port  ) 
!S25(C  6-Port  ) 
!S26(C  6-Port  ) 
!S31(C  6-Port  ) 
!S32(C  6-Port  ) 
!S33(C  6-Port  ) 
!S34(C  6-Port  ) 
!S35(C  6-Port  ) 
!S36(C  6-Port  ) 
!S41(C  6-Port  ) 
!S42(C  6-Port  ) 
!S43(C  6-Port  ) 
!S44(C  6-Port  ) 
!S45(C  6-Port  ) 
!S46(C  6-Port  ) 
!S51(C  6-Port  ) 
!S52(C  6-Port  ) 
!S53(C  6-Port  ) 
!S54(C  6-Port  ) 
!S55(C  6-Port  ) 
!S56(C  6-Port  ) 
!S61(C  6-Port  ) 
!S62(C  6-Port  ) 
!S63(C  6-Port  ) 
!S64(C  6-Port  ) 
!S65(C  6-Port  ) 
!S66(C  6-Port  ) 
!S6P File: Measurement: :
# Hz S  RI   R 50
500000000 -0.32775 -0.057056 -0.010588 -0.0011198 -0.0075611 0.012077 -0.003321 0.012354
0.011835 0.0048742 -0.0044585 0.00927
-0.01092 -0.0013252 -0.41005 -0.071039 0.0075493 -0.010712 0.0014057 0.012167
0.0070473 0.0016699 0.0015512 0.013315
-0.0081237 0.012079 0.0076274 -0.010748 -0.25395 0.19396 0.00623 0.0027149
-0.0011486 0.0077349 0.00070166 0.010124
-0.003919 0.012652 0.001123 0.011899 0.0060892 0.00275 -0.32843 0.044112
-0.020228 -0.0050936 0.015886 0.028191
0.012263 0.0052641 0.00749 0.0021298 -0.00074161 0.0074161 -0.020407 -0.0051624
-0.2556 -0.16147 -0.028157 0.0060817
-0.0052254 0.0097813 0.0013363 0.013204 0.00052715 0.010619 0.015802 0.028391
-0.027616 0.0053054 -0.25583 -0.1502
560000000 -0.31176 0.10713 -0.023319 -0.06595 3.1757e-05 0.012565 0.0044043 0.011719
0.0098256 0.0031388 0.011027 0.010451
-0.023595 -0.065599 -0.3705 0.091679 -0.041372 -0.038181 0.013217 0.0033566
-0.013389 -0.0033016 0.0035645 -0.0010981
0.00022931 0.011961 -0.041624 -0.038432 -0.1789 0.24166 -0.00035293 -0.0045719
0.019434 0.0033459 0.0071434 -0.0057028
0.0042424 0.011368 0.013095 0.0033195 -0.00049413 -0.0048296 -0.30504 0.13516
0.0018713 -0.024033 0.006171 -0.019888
0.0084091 0.0028403 -0.01294 -0.0031266 0.019277 0.0035404 0.0018873 -0.023937
-0.3036 0.012514 0.0063111 -0.047925
0.012002 0.0087461 0.0033751 -0.0012131 0.0071341 -0.0058709 0.0063411 -0.019808
0.0060736 -0.047955 -0.32723 -7.0802e-06
620000000 -0.2734 0.085784 -0.024167 0.0090194 0.0028546 0.0085183 0.0082923 -0.0039049
0.010721 -0.0016736 0.0013058 -0.00070358
-0.024258 0.0090471 -0.3997 0.038921 -0.019947 0.00078668 -0.0013054 -0.0014551
0.01104 -0.0071043 0.00064676 -0.0025884
0.0025804 0.0086308 -0.019854 0.00079776 -0.15364 0.25034 -0.00052874 -0.0046023
-0.0042197 -0.0034063 0.0085344 -0.0025264
0.0079841 -0.0038268 -0.0011252 -0.0014927 -0.0010147 -0.0048332 -0.26464 0.14397
-0.039429 -0.01796 0.012584 0.028101
0.011091 -0.001662 0.010663 -0.0070223 -0.0035843 -0.0026721 -0.03963 -0.017164
-0.23094 -0.021052 -0.042301 0.014365
-0.00030576 -0.0005445 0.00099815 -0.0025751 0.0082542 -0.0030127 0.012686 0.028099
-0.041763 0.014392 -0.24138 -0.040211
680000000 -0.23765 0.17713 -0.026153 -0.014632 0.0046818 0.0051976 0.0013765 -0.0070208
-0.0024355 -0.011457 0.0055365 -0.0062763
-0.026087 -0.014415 -0.38957 0.14157 -0.032604 -0.0012675 -0.0017279 -0.00037794
-0.0020418 -0.0088761 -0.00094031 -0.0017935
0.004866 0.0052305 -0.032587 -0.0011358 -0.10672 0.27382 -0.00091625 -5.8781e-05
-0.001249 0.00084628 -0.0034219 -0.0089544
0.0013732 -0.0071644 -0.0015099 -0.00044346 -0.0008606 -2.8909e-05 -0.2195 0.1991
-0.025209 -0.006513 -0.0085239 -0.012085
-0.0024537 -0.011081 -0.0020944 -0.0089902 -0.0013077 0.00078191 -0.025375 -0.0066243
-0.26948 0.080477 -0.0068143 -0.0059341
0.0059994 -0.0070179 -0.00078059 -0.0016023 -0.0031775 -0.0089127 -0.0084652 -0.011846
-0.0068396 -0.0058875 -0.26186 0.06866
740000000 -0.19109 0.17134 -0.040133 0.026945 0.01295 -0.0038479 0.00026806 -0.0041076
-0.003812 -0.0017825 -0.0065461 0.0021556
-0.04049 0.02693 -0.33524 0.16152 -0.036765 0.03421 -0.0002735 -0.0062403
-0.010415 0.0073722 -0.001424 -0.0066809
0.012899 -0.0037654 -0.036636 0.03428 -0.07324 0.2743 -0.0017472 0.0027034
-0.0027566 -0.004407 -0.00093526 0.0010266
0.00032295 -0.0044364 6.2205e-06 -0.0061304 -0.0015788 0.0027234 -0.20238 0.20482
-0.040754 -0.0044181 0.023458 0.016075
-0.0041869 -0.00058324 -0.0098209 0.0073412 -0.0032706 -0.0042042 -0.040985 -0.0045316
-0.17663 0.10112 -0.041469 0.0023467
-0.0067052 0.0018548 -0.0011888 -0.0064083 -0.00079013 0.00097494 0.023299 0.01601
-0.041225 0.0020709 -0.24949 0.071571
800000000 -0.16386 0.21556 -0.02233 0.016357 0.0053406 -0.010311 -0.0043116 -0.0026482
-0.0041278 0.0014537 0.0045074 1.4545e-05
-0.022119 0.016382 -0.34322 0.23209 -0.0082149 0.034497 -0.002368 0.0020586
-0.00044375 0.0019203 0.00050174 0.0052295
0.0054609 -0.010328 -0.0080843 0.034539 -0.035087 0.30074 0.00071224 0.0013506
0.00021833 0.0030351 -0.0019034 0.00073866
-0.0041126 -0.0025761 -0.0022533 0.002036 0.00073036 0.0013851 -0.17305 0.23403
-0.02787 0.015107 0.015276 -0.010057
-0.004028 0.0016249 -0.00052509 0.0020434 6.6185e-05 0.0030168 -0.027965 0.015178
-0.21175 0.12979 -0.018544 0.01974
0.0047362 0.0002862 0.00075683 0.0053139 -0.0019405 0.00080943 0.01529 -0.01014
-0.018515 0.019814 -0.25066 0.12602
860000000 -0.12817 0.23716 -0.017606 0.030539 -0.0034074 -0.0096807 -0.0019615 0.00074784
0.0043874 0.0048794 -0.0042618 -0.0035675
-0.017682 0.030632 -0.2946 0.27668 0.0080088 0.034115 0.00011208 0.0022665
0.0039614 0.00033842 0.0033144 -0.00028229
-0.0033516 -0.009701 0.0081769 0.034185 0.01432 0.31093 -0.00049277 -5.6607e-05
0.0023961 -0.0012339 0.0013071 0.0040704
-0.0017955 0.00077943 6.7449e-05 0.002131 -0.00056646 -5.9982e-05 -0.13467 0.2457
-0.016439 0.020461 -0.0073259 -0.0096689
0.0041691 0.0044131 0.0041861 0.00043592 0.0023541 -0.0012387 -0.016419 0.020569
-0.15577 0.17672 -0.022823 0.016702
-0.0038435 -0.0032999 0.003344 -0.00029674 0.0013206 0.0039419 -0.0074237 -0.0095586
-0.022691 0.017025 -0.20094 0.174
920000000 -0.1057 0.25982 0.0049158 0.039292 -0.0090886 -0.0041368 -0.0018488 0.0016585
0.00073856 0.0015748 0.0030368 -0.00078786
0.0050388 0.039292 -0.26801 0.29766 0.028314 0.022632 0.001349 0.0012822
0.0071108 -0.00051793 0.0039956 -0.0023956
-0.0090769 -0.0041417 0.028431 0.022576 0.060495 0.31232 0.0019398 0.00019976
0.00073616 -0.00018464 0.0011181 -0.0012225
-0.0018838 0.0015513 0.0013604 0.0012634 0.001935 0.00024912 -0.11031 0.26149
-0.0081693 0.031109 0.004462 -0.0059824
0.00094471 0.0014976 0.0070702 -0.00050975 0.00075138 -0.00018672 -0.0081105 0.031148
-0.14262 0.18269 -0.0014441 0.027718
0.0030332 -0.0010254 0.003765 -0.0022951 0.0009939 -0.0012392 0.0044197 -0.0058854
-0.0015162 0.027278 -0.2107 0.18759
980000000 -0.059051 0.2826 0.017297 0.029967 -0.0088552 0.0045799 0.0017083 0.0035862
0.0034393 -0.0016435 -0.0035808 -0.0022002
0.017252 0.030027 -0.21563 0.33538 0.033191 0.0048069 0.0018496 -0.00010754
0.0014905 -0.0058135 -0.0005601 -0.0025916
-0.0088428 0.0046591 0.033263 0.0047511 0.10725 0.30783 0.00062567 -0.0011053
0.00034994 -0.0017759 0.0015179 -0.00038394
0.0016838 0.0035896 0.0019492 -0.00020843 0.00064446 -0.001113 -0.070636 0.27303
0.010215 0.028375 -0.0094418 -0.0074851
0.0036154 -0.0017638 0.0014288 -0.0058733 0.00038232 -0.0017935 0.01035 0.028297
-0.10823 0.20929 0.0067805 0.018936
-0.0033415 -0.0021879 -0.00026189 -0.0025656 0.0015098 -0.0003327 -0.0096185 -0.0075251
0.0067618 0.018926 -0.17129 0.23655
1040000000 -0.016615 0.29022 0.033394 0.019052 -0.00085605 0.0073187 0.0023219 0.00053777
0.00056182 -0.0035878 -0.00043596 -0.0013473
0.033219 0.018993 -0.17975 0.34826 0.029525 -0.014696 0.0015509 -0.0017572
-0.002149 -0.0023391 -0.00094233 -0.0030612
-0.00083378 0.0073249 0.029513 -0.014784 0.15447 0.29381 -0.00042692 -0.0015258
-0.0014997 -0.00098969 -0.00047595 -0.0012981
0.0023407 0.00046552 0.001497 -0.0017402 -0.00043798 -0.0015279 -0.042387 0.28125
0.020975 0.016428 -0.0015756 0.0011594
0.00039001 -0.0037055 -0.0021746 -0.002367 -0.0014908 -0.0009638 0.021015 0.016369
-0.07503 0.21507 0.014575 0.017388
-0.0004542 -0.0012486 -0.0010934 -0.0029884 -0.0004624 -0.0012954 -0.001529 0.0011629
0.01464 0.017324 -0.14884 0.25788
1100000000 0.027093 0.30051 0.036476 -0.0037665 0.0035646 0.0039171 0.0022306 -0.00086396
-0.0021626 -0.0027576 -0.0040637 0.00019335
0.03642 -0.0036896 -0.13751 0.36799 0.015192 -0.027735 -0.00016593 -0.0017729
-0.003452 -0.00058744 -0.0035922 -0.00061246
0.0035738 0.0038963 0.015089 -0.027821 0.20005 0.27454 -0.0017841 0.00012871
-0.0016343 0.0005112 -0.001042 -0.00062466
0.0021484 -0.000936 -0.00015585 -0.0017708 -0.0017871 0.00015813 -0.0020465 0.28599
0.024996 0.0027954 -0.0024496 -0.00054234
-0.0021505 -0.0028002 -0.0033864 -0.00068518 -0.0016111 0.00050905 0.025053 0.0027298
-0.055297 0.22714 0.019402 0.0072807
-0.0041147 0.0002222 -0.003618 -0.00052647 -0.0010806 -0.00056387 -0.0024265 -0.00057108
0.019427 0.0072693 -0.10524 0.2919
1160000000 0.079438 0.29716 0.024334 -0.02061 0.0033048 -0.00089784 -0.00023087 -0.0022817
-0.0037942 -0.00072739 -0.0010594 0.0040883
0.024299 -0.02056 -0.09205 0.37221 -0.003652 -0.02872 -0.0015264 -0.0016598
-0.002578 0.002299 -0.0012486 0.0020546
0.003312 -0.00094261 -0.0037976 -0.028732 0.24462 0.24436 -0.00075895 0.0016151
-0.00064519 0.0015907 -0.00095793 0.00012321
-0.00014346 -0.0023308 -0.0014934 -0.0017019 -0.00073484 0.0016184 0.038908 0.28204
0.020758 -0.01222 -0.0039295 0.0044932
-0.0037751 -0.00071792 -0.0025446 0.0023554 -0.00057251 0.001592 0.020692 -0.012291
-0.018946 0.23459 0.018179 -0.0014527
-0.00098277 0.0042084 -0.0012635 0.0021361 -0.00096685 0.00012439 -0.0039504 0.004468
0.018096 -0.0014123 -0.054435 0.29538
1220000000 0.12259 0.28639 0.01129 -0.030121 -0.0013756 -0.0015705 0.0001396 -0.00077676
-0.0024625 0.0021573 0.0011332 0.0018929
0.011273 -0.030081 -0.049041 0.38559 -0.01676 -0.021029 -0.0025368 0.00047613
-0.0001398 0.002925 -0.00089182 0.0019467
-0.0013925 -0.0015517 -0.016852 -0.020982 0.2838 0.20534 0.00068631 0.0016203
0.00049429 0.0010982 -2.7254e-05 0.00059492
8.4171e-05 -0.00077184 -0.002528 0.00049491 0.00069435 0.0016382 0.078022 0.27162
0.0097636 -0.018523 0.0017911 0.0010595
-0.0024202 0.0021207 -0.0001221 0.0029664 0.00048673 0.0011278 0.0097422 -0.018569
0.0057394 0.2402 0.012914 -0.013023
0.0011267 0.0019741 -0.00092087 0.0019513 -2.7115e-05 0.00061331 0.0017564 0.001093
0.012909 -0.013007 -0.026329 0.31354
1280000000 0.17306 0.26753 -0.0075024 -0.028881 -0.002111 0.0018221 -0.00085021 -0.0020139
-0.00072841 0.0030245 0.0023095 0.0013948
-0.0074829 -0.028837 -0.0026198 0.37814 -0.023664 -0.0081873 -0.0010371 0.0013627
0.0015522 0.0016984 0.00045756 0.0021871
-0.0020893 0.0018144 -0.023742 -0.0080846 0.31526 0.16273 0.0014192 7.9267e-06
0.0010801 0.00027014 0.00015123 0.00034738
-0.00085294 -0.0020007 -0.0010068 0.0013481 0.0014331 1.1132e-05 0.1148 0.2544
-0.00029393 -0.020245 -0.00077188 0.00026827
-0.00074572 0.0030204 0.0015586 0.0017078 0.0010994 0.00026095 -0.00030985 -0.020267
0.042558 0.24257 0.0027184 -0.015167
0.002261 0.0013994 0.00052292 0.0021676 0.0001617 0.00037847 -0.00082163 0.00027519
0.0026765 -0.015173 0.021501 0.31872
1340000000 0.21084 0.2335 -0.017119 -0.019485 0.00014741 0.0041988 -0.0015732 -0.00085722
0.0013236 0.0025515 0.0018394 -0.0013798
-0.017072 -0.019466 0.036738 0.37035 -0.020984 0.004337 -0.00035677 0.0020515
0.0018204 0.00090622 0.0012169 0.00073264
0.00021752 0.0041789 -0.020976 0.0044314 0.33879 0.11381 0.0011072 -0.0007881
0.00065484 -0.00053234 0.00018371 0.00025238
-0.0016077 -0.00080623 -0.00036296 0.0020372 0.0010846 -0.00080594 0.14665 0.23171
-0.0097301 -0.017095 0.00060469 0.00080231
0.0013704 0.0025558 0.0018334 0.00092048 0.00066143 -0.00054111 -0.0097811 -0.017091
0.072867 0.23411 -0.0041825 -0.013427
0.0018105 -0.0012883 0.0012397 0.00072056 0.00024391 0.00021377 0.00058179 0.00076928
-0.0041453 -0.013457 0.061154 0.31544
1400000000 0.24393 0.19676 -0.02352 -0.0082185 0.0045763 0.0032541 -0.0021719 0.00042958
0.0023565 0.0009273 0.00037758 -0.0013685
-0.023485 -0.0082324 0.073624 0.35881 -0.014395 0.012184 0.0012883 0.0015382
0.0014046 -0.00056382 0.0011122 0.00021869
0.0045953 0.0032219 -0.014351 0.012292 0.35202 0.059631 0.00015894 -0.001583
0.00014339 -0.00030776 0.00027226 0.00020265
-0.0021414 0.00046822 0.0013039 0.0015466 0.00016824 -0.0015879 0.17386 0.20252
-0.015783 -0.010134 -0.0011216 0.00018056
0.0023477 0.00092747 0.0013616 -0.00059009 0.00013704 -0.00029379 -0.01578 -0.010133
0.1048 0.22808 -0.010051 -0.0085688
0.00039452 -0.0013504 0.0010621 0.00020387 0.00033101 0.00017743 -0.0011076 0.0002062
-0.010014 -0.0086002 0.10554 0.30709
1460000000 0.26822 0.15378 -0.020647 0.0043247 0.0051046 -0.0014151 -0.0017028 0.0017218
0.0020025 -0.00046505 -0.00012703 -0.00092283
-0.020623 0.0043437 0.10892 0.33783 -0.0056967 0.014932 0.0018635 0.00036283
0.0010363 -0.0014351 0.0012318 -0.00049298
0.0050759 -0.0014523 -0.0056291 0.014999 0.35881 0.0040793 -0.0010605 -0.0013778
0.00018829 -0.00020436 0.00061216 -0.00025006
-0.0016656 0.0017117 0.001857 0.00029492 -0.0010487 -0.0013666 0.19926 0.17363
-0.016936 -0.0030688 -0.000575 0.0024948
0.00201 -0.00040049 0.0010413 -0.0014623 0.00017075 -0.00022013 -0.016952 -0.0030046
0.13474 0.2123 -0.011478 -0.0025972
-0.00011304 -0.00092825 0.0012883 -0.00057851 0.00072037 -0.00018529 -0.00056889 0.002481
-0.011482 -0.0025893 0.14019 0.28748
1520000000 0.2804 0.1119 -0.01528 0.0099298 0.0032059 -0.0036658 2.4388e-05 0.0026864
0.0021003 -0.0016493 -0.0010079 -0.00036503
-0.015261 0.0099117 0.14258 0.32359 0.0017093 0.012514 0.0018984 -0.00078017
0.00010572 -0.00115 0.00046359 -0.00098353
0.0031759 -0.0036984 0.0017837 0.012504 0.35058 -0.054572 -0.0010687 -0.00049846
0.00052396 -0.00079451 0.00016852 -9.9728e-05
2.6381e-05 0.0027217 0.0018795 -0.00079162 -0.0010708 -0.00053446 0.22041 0.13544
-0.016297 0.0031058 0.0018795 0.0021788
0.0020807 -0.0017175 9.8341e-05 -0.0011646 0.0005552 -0.00084591 -0.016262 0.0031301
0.16155 0.19687 -0.011665 0.0015329
-0.0011454 -0.00027308 0.00041013 -0.00097314 0.00018617 -0.00014672 0.0018689 0.0021846
-0.011631 0.0015486 0.17404 0.26879
1580000000 0.29064 0.067332 -0.0087111 0.013616 -0.00093724 -0.0044016 0.001515 0.0020793
-4.227e-05 -0.0021542 -0.00033032 0.00043753
-0.0087108 0.013592 0.17032 0.30036 0.0050654 0.007672 0.00063074 -0.0017278
-0.00068789 -0.001153 -0.0001769 -0.00074331
-0.00094775 -0.0043817 0.0050973 0.0076434 0.3286 -0.11116 -0.0017006 0.0004987
-0.00033736 -0.0011237 0.00029131 -0.00053195
0.0015609 0.0020259 0.00062308 -0.0017493 -0.0017316 0.00049799 0.23295 0.098392
-0.012726 0.0084762 0.002378 0.00062388
-1.487e-05 -0.0020967 -0.00064687 -0.0011599 -0.00033437 -0.0011282 -0.012758 0.0085196
0.18513 0.1794 -0.0091917 0.0069715
-0.00021005 0.00039075 -0.00011602 -0.00083235 0.00023236 -0.0005484 0.0024221 0.0006315
-0.0091504 0.0070189 0.20822 0.24394
1640000000 0.29406 0.025533 -0.001787 0.012643 -0.0024807 -0.0022181 0.0029045 0.0011292
-0.00049003 -0.0016855 -0.00039434 0.00054318
-0.0017925 0.012639 0.20151 0.27533 0.0055127 0.0029524 -0.00070312 -0.0019814
-0.0011441 -0.00033556 -0.00042989 -0.00073203
-0.002507 -0.0022244 0.0055446 0.0029225 0.29899 -0.16098 -0.00080085 0.0016382
-0.00088081 -0.0008722 -0.00010074 -0.00044736
0.0028987 0.0010126 -0.00069946 -0.0019703 -0.00080328 0.0016132 0.24522 0.050609
-0.0082806 0.010385 0.0025222 -0.0009388
-0.00051449 -0.0016882 -0.0011342 -0.00035177 -0.00089931 -0.00091526 -0.0082172 0.010426
0.20764 0.15344 -0.0046356 0.0091456
-0.00040088 0.00044012 -0.00041031 -0.00066832 -8.6331e-05 -0.00042711 0.0025459 -0.00098079
-0.0046201 0.009114 0.23513 0.21286
1700000000 0.28659 -0.019515 0.0019268 0.010047 -0.0031207 0.00028518 0.0033262 -0.0014183
-0.0020378 -0.00083632 0.00055022 0.0004195
0.0019546 0.010055 0.21921 0.24461 0.0033287 0.00015788 -0.0016289 -0.0006536
-0.00083359 0.00022348 -0.000852 -0.00049728
-0.0030784 0.00032448 0.0033322 0.00014012 0.25355 -0.19938 0.00042167 0.0017148
-0.0019641 -0.00012932 -0.00040977 -0.00080024
0.0032935 -0.0014123 -0.0016313 -0.00065178 0.00046466 0.0017407 0.24163 0.0031823
-0.0047481 0.01133 0.0013207 -0.0020796
-0.0020544 -0.00085832 -0.00085005 0.00022998 -0.0019584 -9.3909e-05 -0.0047029 0.011328
0.22446 0.13256 -6.956e-05 0.0091543
0.00049556 0.0005081 -0.00083653 -0.00050476 -0.0003948 -0.00083682 0.0012937 -0.0021086
-7.8289e-05 0.0091805 0.25219 0.17987
1760000000 0.27611 -0.068049 0.004578 0.0066528 -0.0018109 0.00076888 0.0011597 -0.0037449
-0.0016071 0.00042569 0.00036873 -0.00051688
0.0045675 0.0066706 0.24717 0.20544 0.0008484 -0.0013986 -0.0014157 0.0001948
-0.00086725 0.001053 -0.00056439 0.00016629
-0.0018371 0.00079675 0.00083668 -0.0013798 0.20442 -0.23064 0.001277 0.001044
-0.0010998 0.0013628 -0.0011768 -0.00086455
0.00115 -0.0037338 -0.0014032 0.00020033 0.0012719 0.0010652 0.23551 -0.045959
-0.00066367 0.010687 8.8312e-05 -0.0024594
-0.0015682 0.00045982 -0.00087635 0.0010565 -0.0011168 0.0013516 -0.00066744 0.010681
0.23934 0.09887 0.0037089 0.0068342
0.0004119 -0.00063805 -0.00056027 0.00020584 -0.001256 -0.00077271 5.203e-05 -0.002435
0.0036939 0.0067921 0.26679 0.14299
1820000000 0.25115 -0.10632 0.0049988 0.0028721 0.00026009 0.0019489 -0.0011008 -0.0031544
-0.0014053 0.0012317 -6.8185e-05 -0.00012774
0.0049778 0.0028686 0.25751 0.17471 -0.0010945 0.00013549 -0.0012782 0.0010666
0.00018115 0.0012268 -0.00068383 0.0003989
0.00025326 0.0019645 -0.001143 0.00011552 0.15331 -0.24433 0.0017839 0.00021781
-0.00010482 0.0024731 -0.0016754 0.00027225
-0.0011823 -0.0032087 -0.0012861 0.0010907 0.0018027 0.0002418 0.20706 -0.093456
0.0016728 0.0089279 -0.0016201 -0.0014737
-0.0013743 0.0011914 0.00017494 0.0012214 -8.9781e-05 0.0024572 0.0016874 0.008939
0.25531 0.068822 0.0044509 0.0034885
-5.0616e-05 -0.00011596 -0.00066809 0.00039407 -0.001696 0.00027554 -0.0015839 -0.0014651
0.0044552 0.0034717 0.27018 0.10681
1880000000 0.21576 -0.14585 0.0026403 0.00033677 -0.00080994 0.0020301 -0.0031744 -0.0021803
-0.00025942 0.0019798 0.0002109 -0.00081566
0.0026632 0.00031168 0.2625 0.12917 -0.0031536 0.0023272 -0.00014351 0.0016268
0.00073857 0.0009596 5.6449e-05 0.00088587
-0.0008335 0.001963 -0.0030885 0.00237 0.10165 -0.25073 0.0014892 -0.0014016
0.001614 0.0017515 -0.0011635 0.0014425
-0.003288 -0.0021235 -0.00014976 0.0016259 0.0014835 -0.0013708 0.16935 -0.13369
0.0033041 0.006048 -0.0021133 0.00017959
-0.0002462 0.0019433 0.00072079 0.00099338 0.0015961 0.0017869 0.0033633 0.0060724
0.2592 0.03802 0.0046355 0.001424
5.5763e-05 -0.0006535 8.127e-05 0.00095446 -0.0011576 0.0015004 -0.0021504 0.00013034
0.0046142 0.0014083 0.2713 0.074026
1940000000 0.17732 -0.17253 0.00033731 -0.0015217 0.0012111 0.0019774 -0.0035678 0.00062067
0.0015991 0.0013675 -0.00065021 -0.00053502
0.00039638 -0.0015112 0.26489 0.096598 -0.001431 0.0049674 0.0010237 0.0013171
0.0016062 0.00026488 0.00081439 0.00033849
0.0012397 0.0019903 -0.0013855 0.005052 0.059201 -0.24237 0.00012583 -0.0019808
0.0023934 0.00028235 0.00021309 0.0018033
-0.0037327 0.00057329 0.00099898 0.0013159 0.00011931 -0.0020113 0.11894 -0.16763
0.0026918 0.0039335 -0.0013237 0.001121
0.0016259 0.0012541 0.0015977 0.00021887 0.0024018 0.00023282 0.002715 0.0039109
0.26266 -0.0012278 0.003546 -0.0017205
-0.00069534 -0.00066212 0.00081901 0.00031067 0.00014823 0.0017227 -0.0013244 0.0011711
0.0035483 -0.0017021 0.26273 0.038251
2000000000 0.12995 -0.18648 -0.0035007 0.00030826 0.002838 0.0015655 -0.0021474 0.0036169
0.0015301 0.00015671 -0.0007514 0.00062117
-0.0034659 0.00034221 0.25066 0.060667 -0.00041995 0.0067885 0.0015008 0.00051099
0.00094336 -0.0010705 0.00042788 0.00017821
0.0027583 0.0016196 -0.0004332 0.0068774 0.017413 -0.22773 -0.0013444 -0.00097977
0.0019321 -0.0013586 0.0017559 0.001628
-0.0022669 0.0035987 0.0014864 0.00046683 -0.0013536 -0.00098538 0.064704 -0.17974
0.001225 0.0028968 -0.00010148 0.0021205
0.0014707 0.00013219 0.0009556 -0.0011308 0.0018927 -0.0013612 0.001177 0.0028997
0.25714 -0.034745 0.00029623 -0.0025149
