!Keysight Technologies,M9804A,MY58100912,A.14.10.03
!Date: Thursday, April 27, 2023 10:28:33
!Correction: S11(C  6-Port  ) 
!S12(C  6-Port  ) 
!S13(C  6-Port  ) 
!S14(C  6-Port  ) 
!S15(C  6-Port  ) 
!S16(C  6-Port  ) 
!S21(C  6-Port  ) 
!S22(C  6-Port  ) 
!S23(C  6-Port  ) 
!S24(C  6-Port  ) 
!S25(C  6-Port  ) 
!S26(C  6-Port  ) 
!S31(C  6-Port  ) 
!S32(C  6-Port  ) 
!S33(C  6-Port  ) 
!S34(C  6-Port  ) 
!S35(C  6-Port  ) 
!S36(C  6-Port  ) 
!S41(C  6-Port  ) 
!S42(C  6-Port  ) 
!S43(C  6-Port  ) 
!S44(C  6-Port  ) 
!S45(C  6-Port  ) 
!S46(C  6-Port  ) 
!S51(C  6-Port  ) 
!S52(C  6-Port  ) 
!S53(C  6-Port  ) 
!S54(C  6-Port  ) 
!S55(C  6-Port  ) 
!S56(C  6-Port  ) 
!S61(C  6-Port  ) 
!S62(C  6-Port  ) 
!S63(C  6-Port  ) 
!S64(C  6-Port  ) 
!S65(C  6-Port  ) 
!S66(C  6-Port  ) 
!S6P File: Measurement: :
# Hz S  RI   R 50
500000000 -0.32761 -0.056992 -0.010832 -0.001204 -0.0078869 0.011934 -0.0035761 0.012641
0.011833 0.0054366 -0.0053556 0.0093075
-0.010839 -0.0011562 -0.41011 -0.071004 0.0074789 -0.01091 0.0010801 0.012298
0.0077357 0.0021407 0.00076691 0.013829
-0.0078516 0.011996 0.0074889 -0.010926 -0.25402 0.19378 0.006234 0.0027881
-0.00032207 0.0079518 0.00081307 0.011228
-0.0035596 0.012699 0.0010922 0.012324 0.006167 0.0027547 -0.32861 0.04441
-0.020014 -0.0059992 0.015228 0.028626
0.011983 0.0051648 0.0077969 0.0019815 -0.00043916 0.0080853 -0.019999 -0.0061162
-0.256 -0.16118 -0.026102 0.0038161
-0.0050926 0.0096639 0.0011457 0.013859 0.00077616 0.011102 0.015788 0.028556
-0.027068 0.0038832 -0.25579 -0.14975
560000000 -0.312 0.10803 -0.022886 -0.065554 -8.5218e-05 0.012569 0.0042054 0.011809
0.0091809 0.0035498 0.011709 0.0092329
-0.022643 -0.065487 -0.37025 0.090603 -0.041307 -0.038549 0.012871 0.0032022
-0.01419 -0.0023192 0.0039232 -0.001668
-0.0001373 0.012376 -0.041343 -0.038614 -0.17887 0.24126 -0.00043825 -0.0046869
0.017938 0.0032815 0.0076258 -0.0062799
0.0042124 0.011875 0.012843 0.003196 -0.00038396 -0.0045638 -0.30451 0.13512
0.0015879 -0.023202 0.0065012 -0.020524
0.0090224 0.0037734 -0.013797 -0.0024963 0.017897 0.0034196 0.0012874 -0.023564
-0.30395 0.016204 0.0050354 -0.048889
0.011355 0.0093122 0.0043824 -0.0015306 0.0073484 -0.0059651 0.006455 -0.0205
0.005231 -0.049001 -0.32529 -0.0011718
620000000 -0.27308 0.085656 -0.024291 0.0088825 0.0033173 0.0089724 0.0082835 -0.0039275
0.011475 -0.0019212 0.00011097 -0.0010437
-0.02417 0.0087392 -0.39956 0.038693 -0.019837 0.0006849 -0.0021126 -0.0013556
0.011578 -0.0068815 -0.0002435 -0.0030373
0.0033343 0.0089978 -0.019819 0.00067342 -0.15338 0.25008 -0.00090024 -0.0047968
-0.0043708 -0.0027213 0.0087306 -0.0029022
0.0081147 -0.0039158 -0.002027 -0.0014197 -0.0008444 -0.0048611 -0.2639 0.14475
-0.041031 -0.018754 0.012691 0.030262
0.010878 -0.0019669 0.011538 -0.0068896 -0.0036924 -0.0027889 -0.040595 -0.018163
-0.22946 -0.020305 -0.043252 0.012668
0.00026726 -0.00058772 -6.7019e-05 -0.0030126 0.0087255 -0.0029362 0.013257 0.02985
-0.043114 0.012704 -0.24349 -0.037197
680000000 -0.23712 0.17808 -0.026118 -0.013936 0.0046812 0.005437 0.0014131 -0.0070418
-0.002572 -0.011113 0.0064455 -0.005826
-0.02604 -0.013982 -0.38952 0.14178 -0.032557 -0.0011061 -0.0014162 -0.00056788
-0.0020302 -0.0087974 -0.0001925 -0.0011154
0.004722 0.0053818 -0.032606 -0.0010566 -0.10671 0.27389 -0.0007603 -0.0003465
-0.0014419 0.00074277 -0.0028002 -0.0088117
0.0013327 -0.0070255 -0.0014023 -0.0005611 -0.00073406 -0.00033865 -0.22042 0.199
-0.024831 -0.0065683 -0.0080041 -0.012362
-0.0024858 -0.010956 -0.0020426 -0.0088311 -0.0013504 0.00073353 -0.024854 -0.0064571
-0.26959 0.080083 -0.0061197 -0.0050459
0.0066741 -0.0059405 -0.00031882 -0.0011521 -0.0029341 -0.0088562 -0.0081031 -0.012437
-0.0056687 -0.005413 -0.25972 0.068131
740000000 -0.1913 0.17095 -0.04064 0.027252 0.013028 -0.003948 8.0074e-05 -0.0045292
-0.0041243 -0.0019332 -0.0067961 0.0016298
-0.040497 0.027069 -0.3356 0.16213 -0.037201 0.034251 -0.00029451 -0.0061276
-0.010967 0.0082481 -0.0014515 -0.0066993
0.013053 -0.0039233 -0.037119 0.034326 -0.073247 0.27413 -0.0017829 0.0027296
-0.0030305 -0.0046729 -0.0010989 0.00067639
6.1098e-05 -0.0045011 -0.00033808 -0.0061567 -0.001779 0.0027439 -0.20208 0.2048
-0.041463 -0.005167 0.023192 0.016922
-0.0040553 -0.0019209 -0.011274 0.0082835 -0.003274 -0.0046852 -0.041612 -0.0051109
-0.17808 0.10195 -0.040776 -0.00085965
-0.0069308 0.0016958 -0.0019585 -0.0066376 -0.0012141 0.00059245 0.023296 0.016785
-0.041526 9.0542e-05 -0.25109 0.073782
800000000 -0.16405 0.21574 -0.02227 0.016289 0.0053954 -0.010406 -0.0042916 -0.0027334
-0.0041478 0.0017205 0.0049077 -0.00028687
-0.022253 0.016335 -0.34311 0.23207 -0.008173 0.034486 -0.0022857 0.0019894
-0.00035933 0.0020781 0.00083317 0.0050265
0.005338 -0.01041 -0.0080755 0.034519 -0.035133 0.30066 0.00073323 0.0012371
0.00020615 0.0031317 -0.0016924 0.00047901
-0.0043707 -0.0027864 -0.002293 0.0019698 0.00074323 0.0012395 -0.17324 0.23381
-0.027479 0.015252 0.015105 -0.01062
-0.0040729 0.0017421 -0.00038348 0.0020543 0.00018771 0.0031121 -0.027495 0.015344
-0.21171 0.12981 -0.017136 0.020699
0.0046091 -0.00051411 0.00074604 0.0049509 -0.0018296 0.00040468 0.014926 -0.010535
-0.017172 0.02032 -0.25095 0.12442
860000000 -0.12819 0.23696 -0.017614 0.030537 -0.0033212 -0.0097424 -0.0018238 0.00058843
0.0040205 0.0042798 -0.0038018 -0.0031583
-0.017625 0.030491 -0.29477 0.27695 0.0079678 0.034251 1.7699e-05 0.0022104
0.0039869 0.00025498 0.0031076 -7.3925e-05
-0.0033693 -0.0097188 0.0080783 0.03424 0.014232 0.31093 -0.00048678 -0.00017416
0.0022875 -0.0012508 0.0013398 0.004207
-0.0018155 0.00054917 3.9819e-05 0.0021703 -0.0004892 -0.00020444 -0.13481 0.2455
-0.016731 0.020233 -0.0067321 -0.0096885
0.0040023 0.004327 0.0037666 0.0003778 0.0023137 -0.0012728 -0.016663 0.02041
-0.15618 0.17617 -0.022701 0.017421
-0.0038268 -0.003041 0.0031384 -0.00022618 0.0013709 0.004086 -0.0068506 -0.0099605
-0.022458 0.017309 -0.20029 0.17533
920000000 -0.10563 0.25998 0.0049342 0.03921 -0.0090933 -0.0041789 -0.0018941 0.0015437
0.00089363 0.001244 0.003041 -0.0010089
0.0048738 0.039201 -0.26809 0.29777 0.028275 0.022608 0.001345 0.0011622
0.0070526 -0.00048972 0.003976 -0.0026491
-0.0091124 -0.0041326 0.028372 0.022537 0.060498 0.31228 0.0019569 0.00025396
0.00077007 -0.00027347 0.00087478 -0.0011068
-0.0019267 0.0015752 0.0012779 0.0011777 0.0019143 0.00022827 -0.11027 0.26145
-0.0082814 0.031044 0.0043279 -0.0059369
0.00073944 0.0013068 0.0069614 -0.00057784 0.00074912 -0.00033519 -0.0081734 0.031066
-0.14292 0.18302 -0.0012967 0.027782
0.0030238 -0.0010562 0.0040073 -0.0025994 0.0009976 -0.0010161 0.0043922 -0.0059627
-0.0010771 0.027612 -0.21068 0.18683
980000000 -0.058859 0.28259 0.017405 0.029999 -0.0088643 0.004649 0.0016772 0.0036219
0.0035602 -0.0016573 -0.0035189 -0.0022559
0.017353 0.030015 -0.21558 0.33538 0.0332 0.0048784 0.0019619 -0.00016083
0.0016698 -0.0058842 -0.00037473 -0.0022487
-0.0088664 0.0046773 0.033273 0.0047768 0.10725 0.30785 0.00066523 -0.0011238
0.0004712 -0.0017277 0.0015987 -0.00015456
0.0016673 0.0035797 0.0019524 -0.00014436 0.00066391 -0.0011422 -0.07078 0.27297
0.010424 0.028507 -0.0095411 -0.0078028
0.003684 -0.0016944 0.0016122 -0.0059634 0.00046236 -0.0018179 0.010466 0.028509
-0.10855 0.20933 0.0066745 0.019257
-0.0035865 -0.0023642 -0.00031597 -0.0024303 0.0015572 -0.00029845 -0.0095326 -0.0077089
0.0068316 0.019007 -0.17046 0.23745
1040000000 -0.016541 0.29019 0.033318 0.019092 -0.00085368 0.0073672 0.0023955 0.00057034
0.00048912 -0.0035865 -0.00061393 -0.0014245
0.033287 0.019112 -0.17968 0.34827 0.02955 -0.014693 0.0015331 -0.0018084
-0.0023273 -0.0023462 -0.0012283 -0.0029228
-0.00083663 0.0073679 0.029558 -0.014828 0.1545 0.29381 -0.00046626 -0.0015255
-0.0014523 -0.001024 -0.00050573 -0.001325
0.002386 0.00057234 0.0015675 -0.001827 -0.00046582 -0.0015182 -0.042303 0.28132
0.02109 0.016496 -0.0016441 0.001217
0.00041834 -0.0036035 -0.0023894 -0.0023205 -0.0014723 -0.00098726 0.021105 0.016422
-0.075426 0.21475 0.014147 0.017238
-0.00060474 -0.0011827 -0.0011713 -0.0029832 -0.00057114 -0.0012841 -0.0016879 0.0013476
0.014115 0.017512 -0.14871 0.25771
1100000000 0.027167 0.30048 0.036527 -0.0038061 0.0035347 0.003907 0.0021925 -0.00089081
-0.0021989 -0.0028099 -0.0039268 0.00021981
0.036474 -0.0037694 -0.13742 0.36794 0.015209 -0.02771 -0.00012188 -0.001788
-0.0033928 -0.00067511 -0.0036621 -0.00049007
0.0035349 0.0038925 0.015123 -0.027789 0.20003 0.27454 -0.0017803 0.00013528
-0.0016019 0.00051749 -0.0011024 -0.00063045
0.002197 -0.00087779 -0.0001046 -0.0017662 -0.0017814 0.0001562 -0.0020718 0.286
0.024986 0.0027428 -0.0025825 -0.00055744
-0.0021902 -0.0027936 -0.0033987 -0.0006854 -0.0015861 0.0004922 0.024977 0.0027042
-0.055353 0.22695 0.01942 0.0073064
-0.0039138 7.088e-05 -0.0035394 -0.000457 -0.0010668 -0.00063502 -0.0024837 -0.00048108
0.019454 0.0073433 -0.10528 0.29147
1160000000 0.079442 0.29715 0.02435 -0.020531 0.0032944 -0.00094488 -0.0001691 -0.0023501
-0.0037884 -0.00082338 -0.0010068 0.0041198
0.024366 -0.02048 -0.092029 0.37234 -0.0036801 -0.028707 -0.0014783 -0.0016777
-0.0025971 0.0023566 -0.0013819 0.0020227
0.0032807 -0.00098021 -0.0037834 -0.02872 0.24465 0.24442 -0.0007338 0.0015949
-0.00059939 0.0016251 -0.0010335 0.00020229
-0.00016562 -0.0023637 -0.0014693 -0.0016722 -0.00075394 0.0016041 0.038973 0.28191
0.020784 -0.012434 -0.0038 0.0046944
-0.0037788 -0.00080843 -0.0026244 0.0023668 -0.00055685 0.00166 0.02076 -0.012447
-0.018849 0.23418 0.017916 -0.0016295
-0.0010016 0.004025 -0.0013831 0.0019635 -0.0010484 0.00017807 -0.0038217 0.0046637
0.018012 -0.0012789 -0.054717 0.296
1220000000 0.12253 0.28633 0.011268 -0.030125 -0.0013722 -0.0015962 0.00012956 -0.0006871
-0.0025252 0.002113 0.0010488 0.0019636
0.011283 -0.030084 -0.049047 0.38562 -0.016771 -0.021034 -0.0025344 0.00050102
-5.9147e-05 0.0028973 -0.00087879 0.0019043
-0.0013906 -0.0015898 -0.016879 -0.021003 0.28379 0.2053 0.00069062 0.0016138
0.00048877 0.001079 1.3099e-05 0.00054991
0.00015976 -0.00070765 -0.0025166 0.00051217 0.00070144 0.0016117 0.077966 0.27153
0.0097722 -0.01856 0.0019135 0.00096203
-0.0025021 0.0021894 -6.3683e-05 0.0029192 0.00049436 0.0011137 0.0097729 -0.01859
0.0057985 0.24018 0.013365 -0.012866
0.0011088 0.0020292 -0.00090201 0.0019399 -1.3377e-05 0.00060253 0.0017634 0.0009241
0.013183 -0.01322 -0.025976 0.31329
1280000000 0.17305 0.26754 -0.0075089 -0.028876 -0.0020934 0.0018118 -0.00084593 -0.0020286
-0.00075195 0.0030519 0.0022429 0.0014109
-0.007481 -0.028859 -0.0026797 0.37811 -0.023677 -0.0082098 -0.0010495 0.0013311
0.0015602 0.0017429 0.00037234 0.0020708
-0.0021004 0.0018334 -0.02373 -0.0081228 0.31519 0.16279 0.0014467 3.7803e-05
0.0010432 0.00027381 0.00013466 0.0003855
-0.00085049 -0.0020218 -0.0010501 0.0013402 0.0014612 3.9364e-05 0.11472 0.25448
-0.00027206 -0.020195 -0.00080468 4.6861e-05
-0.00075512 0.0030514 0.0015802 0.0017052 0.0010198 0.00026421 -0.00030522 -0.020192
0.042539 0.24241 0.0023738 -0.015288
0.0023536 0.0013398 0.00046908 0.0020631 0.0001233 0.00038938 -0.00091157 0.00013496
0.0024354 -0.015006 0.022209 0.31867
1340000000 0.21082 0.23348 -0.017113 -0.019492 0.00012971 0.0042118 -0.0015697 -0.00086393
0.0013202 0.0025039 0.0018387 -0.0011879
-0.017079 -0.019457 0.036725 0.37039 -0.020987 0.0043174 -0.00034083 0.0020628
0.0018351 0.00088914 0.0012099 0.00084366
0.0001463 0.0042068 -0.020988 0.0044296 0.3388 0.11381 0.0010811 -0.00076451
0.00060243 -0.00052803 0.00019822 0.00032525
-0.0015676 -0.00084767 -0.00033609 0.0020447 0.0010815 -0.00078446 0.14664 0.23175
-0.0096748 -0.01706 0.00043863 0.0008082
0.0013558 0.0025048 0.001849 0.00086405 0.00062511 -0.0005657 -0.009727 -0.017048
0.073038 0.23414 -0.0042733 -0.013489
0.0019032 -0.0012625 0.0012376 0.00077916 0.00024746 0.00029368 0.00052472 0.00079521
-0.0041962 -0.01353 0.060559 0.31504
1400000000 0.2439 0.19682 -0.02351 -0.0082202 0.0045701 0.0032902 -0.0021933 0.00046337
0.0023509 0.00097163 0.00043847 -0.0013377
-0.023482 -0.0082336 0.073582 0.35876 -0.014405 0.012172 0.0013085 0.0015456
0.0013795 -0.00058382 0.0011914 0.00015545
0.0045743 0.0032631 -0.014364 0.012258 0.35196 0.059552 0.00015197 -0.0015596
0.000197 -0.00032739 0.00036472 0.00023851
-0.0021839 0.00046084 0.0013005 0.0015257 0.00017823 -0.0015637 0.17374 0.20246
-0.015777 -0.010145 -0.0011374 0.00032391
0.0023867 0.00098282 0.0013718 -0.00058329 0.00017706 -0.00033317 -0.015807 -0.010113
0.10479 0.22823 -0.0099379 -0.0084755
0.00040598 -0.0013667 0.0011322 0.00012897 0.00034018 0.00017358 -0.0010091 0.00026201
-0.0099786 -0.0086268 0.1055 0.30702
1460000000 0.26824 0.15375 -0.020628 0.0043285 0.005128 -0.0014402 -0.0016878 0.0017138
0.0020295 -0.00038576 -0.00028378 -0.00096774
-0.020604 0.0043191 0.10891 0.33786 -0.0056653 0.014943 0.0018316 0.00033953
0.0010972 -0.0014326 0.0013219 -0.00059595
0.0051243 -0.0014661 -0.0055981 0.014996 0.35882 0.0040061 -0.0010816 -0.001381
0.00012802 -0.00027148 0.00056602 -0.00030086
-0.0016949 0.0017084 0.0018202 0.00032059 -0.0010632 -0.0013697 0.19928 0.1737
-0.017013 -0.0030499 -0.00043473 0.0024717
0.0020481 -0.00037891 0.0011037 -0.0014146 0.0001193 -0.00026777 -0.017023 -0.0030264
0.13454 0.21227 -0.011714 -0.0026005
-0.00015347 -0.00079572 0.001227 -0.00052738 0.00062882 -0.0002528 -0.00061447 0.0024844
-0.011672 -0.0025323 0.14092 0.28759
1520000000 0.28033 0.11186 -0.015274 0.0099342 0.003218 -0.0036835 4.2544e-05 0.002732
0.0021102 -0.0017045 -0.001034 -0.00036925
-0.015272 0.0099146 0.14257 0.32358 0.001738 0.012509 0.0019007 -0.00076305
0.00013142 -0.0011598 0.00037662 -0.00093856
0.0031996 -0.0036985 0.0017809 0.01252 0.35058 -0.05463 -0.0010445 -0.00051358
0.00053152 -0.00081859 0.00015959 -0.00014066
5.6744e-05 0.0027241 0.0018898 -0.00078048 -0.0010586 -0.00053012 0.22038 0.13546
-0.016218 0.0031178 0.0018565 0.0020883
0.0020946 -0.0017231 0.00010975 -0.0011645 0.00050968 -0.00079208 -0.01621 0.0031608
0.16162 0.19706 -0.011597 0.0015847
-0.0010499 -0.00033722 0.00045641 -0.00094904 0.00011064 -0.00012871 0.0018083 0.0021463
-0.011436 0.0015118 0.17435 0.2684
1580000000 0.29061 0.067346 -0.0087221 0.013613 -0.00095686 -0.0043988 0.0015359 0.0020555
-2.8799e-05 -0.0021192 -0.00023465 0.00051081
-0.0087176 0.013594 0.17031 0.30036 0.0050329 0.0076668 0.00061348 -0.0017281
-0.00064662 -0.001145 -2.7805e-05 -0.00073283
-0.00099507 -0.0043904 0.0050533 0.0076389 0.32856 -0.11118 -0.0017146 0.0005148
-0.00038324 -0.0010683 0.00035505 -0.00048925
0.0015514 0.0020456 0.00061303 -0.0017369 -0.0017326 0.00053002 0.2329 0.09841
-0.012769 0.0084805 0.0023801 0.00064194
-4.3931e-05 -0.0021131 -0.00066309 -0.0011519 -0.00036703 -0.0010713 -0.012733 0.0085259
0.18505 0.17939 -0.0092406 0.006936
-0.00026617 0.00041683 -0.00014644 -0.00078289 0.00034135 -0.00053227 0.0024557 0.00066214
-0.0092476 0.0070862 0.20785 0.244
1640000000 0.29408 0.025481 -0.0017896 0.012637 -0.0024691 -0.0022291 0.0029262 0.0010764
-0.00046395 -0.0017285 -0.00037941 0.00049475
-0.0018065 0.01262 0.20153 0.27531 0.0055015 0.0029372 -0.00069157 -0.0019791
-0.0011176 -0.00035999 -0.00041662 -0.00075979
-0.0025013 -0.0021967 0.0055234 0.0029079 0.29899 -0.16111 -0.00080931 0.0016007
-0.00089201 -0.00095928 -0.00016397 -0.00046066
0.0029317 0.001058 -0.00070554 -0.0019834 -0.00081043 0.0016003 0.24519 0.05064
-0.0082461 0.010412 0.0025721 -0.0008953
-0.00048252 -0.0017602 -0.0011175 -0.00035998 -0.00089858 -0.00095995 -0.0082378 0.010469
0.20758 0.15336 -0.004663 0.0091317
-0.00037062 0.00048691 -0.00047314 -0.00072217 -0.00020385 -0.00036212 0.0025188 -0.0010374
-0.00467 0.0091529 0.23512 0.21304
1700000000 0.28653 -0.0195 0.00194 0.01004 -0.003068 0.00032051 0.0033173 -0.0013957
-0.0020552 -0.0008039 0.00055793 0.00048467
0.0019311 0.010062 0.21917 0.2446 0.0033163 0.00019036 -0.0016145 -0.0006297
-0.00084037 0.00024148 -0.00082278 -0.00048547
-0.0031028 0.00032364 0.0033307 0.00017683 0.25359 -0.19939 0.00048226 0.0017413
-0.0019628 -0.00012095 -0.00037105 -0.00090088
0.003307 -0.001413 -0.0016253 -0.00062475 0.00049356 0.0017149 0.24176 0.003178
-0.0046721 0.011411 0.0013803 -0.0020857
-0.0020692 -0.00082311 -0.00083007 0.0002479 -0.0019468 -0.00012788 -0.0046505 0.011427
0.22445 0.13267 -0.00015158 0.0090894
0.00053391 0.00049642 -0.00085638 -0.00051286 -0.00045195 -0.00089577 0.0014679 -0.0020817
-3.1482e-05 0.0092601 0.25231 0.17992
1760000000 0.27605 -0.067952 0.0045786 0.0066799 -0.0018295 0.00074937 0.0011577 -0.0037009
-0.0015572 0.00044479 0.0004072 -0.00052833
0.0045704 0.0066797 0.24719 0.20545 0.00086025 -0.0013931 -0.0013588 0.00019429
-0.00086874 0.0010811 -0.00059149 0.00024479
-0.0018504 0.00079416 0.000852 -0.0014093 0.20446 -0.23068 0.001354 0.0010927
-0.0010886 0.0013832 -0.0012901 -0.00065423
0.0011365 -0.0036992 -0.0013689 0.00020184 0.0013763 0.0011033 0.23545 -0.045885
-0.0006767 0.010643 -9.2713e-05 -0.002398
-0.0015584 0.00045668 -0.00087057 0.0010766 -0.0011375 0.0013877 -0.00065321 0.010648
0.23939 0.098793 0.0036507 0.0068591
0.00033764 -0.00054189 -0.00051441 0.00026576 -0.0011889 -0.00071979 -0.00016628 -0.0024778
0.0036604 0.0066764 0.26664 0.14286
1820000000 0.25112 -0.10635 0.0049772 0.0028932 0.00025968 0.0019496 -0.0011254 -0.0031541
-0.0013888 0.0012085 -8.5333e-05 -0.00015579
0.0049607 0.0028934 0.25749 0.17472 -0.001148 0.00014936 -0.001271 0.0010733
0.00018935 0.0012219 -0.00072706 0.0003559
0.00024883 0.0019591 -0.0011374 0.000151 0.15323 -0.24422 0.0018309 0.0001664
-6.2129e-05 0.0023929 -0.0017584 0.00010542
-0.0011432 -0.0031466 -0.0012629 0.0010954 0.0018627 0.00019702 0.20713 -0.093492
0.0017163 0.0088467 -0.0015042 -0.0014728
-0.0013716 0.0012149 0.00020709 0.0012273 -7.0206e-05 0.0024 0.001753 0.0088744
0.25533 0.068763 0.0045285 0.0035698
-1.9603e-05 -0.00017571 -0.00064745 0.00041427 -0.0016468 0.00015504 -0.0015489 -0.001427
0.0044509 0.0035641 0.27023 0.10675
1880000000 0.21579 -0.1458 0.0026613 0.00030768 -0.00075607 0.0019237 -0.0032328 -0.0021315
-0.00022612 0.0019951 0.0002607 -0.00069398
0.0026571 0.0003218 0.26254 0.12916 -0.0030918 0.0023362 -0.00026268 0.0017447
0.00068889 0.0009756 7.3695e-06 0.00090904
-0.00075765 0.0019359 -0.0030885 0.0023532 0.10161 -0.25071 0.0014996 -0.0011772
0.001597 0.0018556 -0.0011847 0.0013857
-0.0032739 -0.0021334 -0.0002569 0.0017389 0.0015197 -0.0011919 0.16936 -0.13354
0.0031881 0.0061896 -0.0020311 0.00012825
-0.0002094 0.0019883 0.00068823 0.00096013 0.0015774 0.0018503 0.0032046 0.006179
0.25913 0.038054 0.0047575 0.0013693
0.00010685 -0.00073129 -3.535e-05 0.00094943 -0.0012179 0.0015651 -0.0020485 0.00031435
0.0045334 0.0014909 0.2711 0.07397
1940000000 0.17718 -0.17248 0.00033122 -0.0015167 0.001224 0.0020141 -0.0036685 0.00063137
0.0015387 0.001318 -0.00074341 -0.00067803
0.00033966 -0.0014962 0.2649 0.09659 -0.0013918 0.0050193 0.001045 0.0013068
0.0016156 0.00024183 0.00082844 0.00028469
0.0012287 0.0020466 -0.0013853 0.0050116 0.059162 -0.24237 0.00015149 -0.0020176
0.0023957 0.00022199 0.00024576 0.0018059
-0.0036935 0.00062455 0.0010528 0.0012905 0.0001514 -0.0020117 0.11898 -0.16773
0.0028438 0.0038151 -0.0014462 0.0010971
0.001542 0.0013239 0.001612 0.00021799 0.0023734 0.00021925 0.0028645 0.0037979
0.2628 -0.0012103 0.0035433 -0.0018127
-0.00072148 -0.00062149 0.0008122 0.00032319 0.00017376 0.0018874 -0.001452 0.0010033
0.0036441 -0.001817 0.26278 0.037772
2000000000 0.12993 -0.18649 -0.0034783 0.00030472 0.0028059 0.0015601 -0.0022143 0.0036183
0.0014914 0.00011639 -0.00079601 0.00055222
-0.0034686 0.00032279 0.2506 0.060678 -0.00046967 0.0068354 0.0014542 0.00046844
0.00096681 -0.001099 0.00036854 0.0001495
0.0028017 0.0015203 -0.00042361 0.006832 0.017345 -0.22771 -0.001342 -0.0010663
0.0019746 -0.0014257 0.0017924 0.0015557
-0.0021911 0.0036144 0.0014606 0.00046424 -0.0013554 -0.0011 0.064622 -0.17976
0.0011526 0.0029198 -2.6198e-05 0.0023115
0.0014986 9.9238e-05 0.00094156 -0.0011206 0.0019508 -0.0014422 0.0011625 0.0028986
0.2571 -0.03464 0.00022292 -0.0023539
