!Keysight Technologies,M9804A,MY58100912,A.14.10.03
!Date: Thursday, April 27, 2023 10:28:33
!Correction: S11(C  6-Port  ) 
!S12(C  6-Port  ) 
!S13(C  6-Port  ) 
!S14(C  6-Port  ) 
!S15(C  6-Port  ) 
!S16(C  6-Port  ) 
!S21(C  6-Port  ) 
!S22(C  6-Port  ) 
!S23(C  6-Port  ) 
!S24(C  6-Port  ) 
!S25(C  6-Port  ) 
!S26(C  6-Port  ) 
!S31(C  6-Port  ) 
!S32(C  6-Port  ) 
!S33(C  6-Port  ) 
!S34(C  6-Port  ) 
!S35(C  6-Port  ) 
!S36(C  6-Port  ) 
!S41(C  6-Port  ) 
!S42(C  6-Port  ) 
!S43(C  6-Port  ) 
!S44(C  6-Port  ) 
!S45(C  6-Port  ) 
!S46(C  6-Port  ) 
!S51(C  6-Port  ) 
!S52(C  6-Port  ) 
!S53(C  6-Port  ) 
!S54(C  6-Port  ) 
!S55(C  6-Port  ) 
!S56(C  6-Port  ) 
!S61(C  6-Port  ) 
!S62(C  6-Port  ) 
!S63(C  6-Port  ) 
!S64(C  6-Port  ) 
!S65(C  6-Port  ) 
!S66(C  6-Port  ) 
!S6P File: Measurement: :
# Hz S  RI   R 50
500000000 -0.32695 -0.05545 -0.010658 -0.00084009 -0.0078871 0.011801 -0.0040144 0.012888
0.012145 0.0057044 -0.0047133 0.010373
-0.010648 -0.00085754 -0.40947 -0.069667 0.0078264 -0.011236 0.00033557 0.012083
0.0079345 0.0031562 0.001405 0.014272
-0.0078209 0.011823 0.0078179 -0.011269 -0.25357 0.19369 0.0064275 0.0031843
-0.00087121 0.0085365 0.0022112 0.012004
-0.0040624 0.012774 0.00054905 0.011975 0.006409 0.0031245 -0.32998 0.044525
-0.018892 -0.005529 0.014407 0.027075
0.012096 0.0053657 0.0079336 0.0033018 -0.00086633 0.0086471 -0.018678 -0.0060505
-0.2574 -0.15892 -0.02709 0.0049554
-0.0049645 0.0099079 0.00068859 0.014089 0.0016308 0.012261 0.013511 0.027954
-0.027285 0.0047054 -0.2594 -0.1447
560000000 -0.31127 0.10848 -0.022475 -0.06646 0.00062252 0.012771 0.0057669 0.010356
0.010934 0.0029041 0.011464 0.0078884
-0.022391 -0.066416 -0.36919 0.093006 -0.041941 -0.038926 0.014159 0.0026862
-0.012984 -0.0038993 0.0043118 -0.00057772
0.00073127 0.012746 -0.042116 -0.038886 -0.17837 0.24231 -0.00060839 -0.0046714
0.018003 0.0044326 0.0076743 -0.0064554
0.0057514 0.010114 0.01442 0.0028041 -0.0005926 -0.0046464 -0.30403 0.13541
0.0029613 -0.023381 0.0068248 -0.020611
0.010483 0.0024508 -0.012483 -0.003963 0.017579 0.004905 0.0036494 -0.023137
-0.30438 0.015785 0.0076452 -0.047799
0.011987 0.0079586 0.0045483 -0.0007735 0.0071708 -0.0064961 0.0066488 -0.020269
0.0074394 -0.047016 -0.32621 0.0029427
620000000 -0.27149 0.086646 -0.024009 0.0088976 0.003097 0.0089969 0.0079205 -0.0038612
0.012518 -0.0021275 0.00031045 -0.0016399
-0.023991 0.00885 -0.39933 0.039449 -0.019924 0.00063597 -0.0011965 -0.0017623
0.011154 -0.0062723 0.00055421 -0.0034034
0.0031386 0.0089719 -0.019959 0.00066009 -0.15318 0.25103 -0.0010067 -0.0048383
-0.0039515 -0.0026841 0.0087909 -0.0028598
0.0077554 -0.0038598 -0.0013198 -0.0015991 -0.0010656 -0.0049511 -0.26466 0.14456
-0.038635 -0.01862 0.011716 0.029261
0.012489 -0.0016768 0.011126 -0.0065159 -0.0040636 -0.0023511 -0.03875 -0.018404
-0.23213 -0.01831 -0.040408 0.013097
0.00030069 -0.0026863 0.00065903 -0.0028911 0.0088908 -0.002732 0.012325 0.028906
-0.040659 0.012934 -0.24223 -0.034256
680000000 -0.23711 0.1782 -0.026503 -0.014067 0.0046838 0.0055546 0.00097214 -0.0080162
-0.0030738 -0.010552 0.0045415 -0.0060678
-0.026482 -0.014051 -0.38913 0.14202 -0.032992 -0.0011268 -0.001613 -0.00066629
-0.0025112 -0.0089644 -0.00085054 -0.0014414
0.0046641 0.0055342 -0.033012 -0.0010634 -0.10662 0.27424 -0.00079326 -0.00035638
-0.0017029 0.00077372 -0.0027751 -0.0087061
0.0011189 -0.0083413 -0.0017181 -0.00070815 -0.00083599 -0.00028683 -0.21907 0.19917
-0.025406 -0.0068285 -0.007385 -0.011431
-0.0031998 -0.010643 -0.0023034 -0.0090398 -0.0015318 0.00073131 -0.025783 -0.0064394
-0.26845 0.081166 -0.0074496 -0.005421
0.0046613 -0.0065569 -0.0010184 -0.0014309 -0.0028326 -0.0087314 -0.0070088 -0.011996
-0.0078282 -0.0051964 -0.2597 0.069149
740000000 -0.19118 0.17113 -0.040327 0.026949 0.013289 -0.0040217 0.00064859 -0.003671
-0.0055351 -0.0015937 -0.0058637 0.0025526
-0.040266 0.02692 -0.33472 0.16144 -0.036408 0.034857 6.8244e-05 -0.0061428
-0.01108 0.0068591 -0.0014831 -0.0062497
0.013281 -0.0039986 -0.036413 0.034949 -0.073293 0.27512 -0.0015637 0.0031656
-0.0026961 -0.0043059 -0.0014805 0.00096019
0.00060071 -0.003626 5.0812e-05 -0.0061178 -0.0015304 0.0032388 -0.20227 0.20457
-0.041447 -0.0043664 0.022339 0.017134
-0.0052395 -0.0018014 -0.01103 0.0067547 -0.0026283 -0.0041405 -0.041637 -0.0045459
-0.17899 0.10061 -0.039524 0.0024861
-0.0062129 0.0030628 -0.0018238 -0.0062196 -0.0013531 0.0010559 0.022462 0.017191
-0.040127 0.002824 -0.2515 0.075682
800000000 -0.16393 0.21596 -0.022344 0.016674 0.0055754 -0.010078 -0.004429 -0.0023685
-0.0036942 0.0026359 0.0042456 0.00072328
-0.022344 0.01669 -0.34298 0.23258 -0.0079662 0.034879 -0.0023086 0.0022188
-0.00043089 0.0028777 0.001088 0.0055251
0.0055376 -0.010104 -0.0078743 0.034916 -0.035047 0.30147 0.00075945 0.0013454
0.00048418 0.0034791 -0.0018942 0.00076472
-0.0044098 -0.0025988 -0.0022652 0.0021897 0.00074612 0.0013058 -0.17349 0.23331
-0.027448 0.015607 0.014459 -0.010873
-0.0041277 0.0027496 -0.00051542 0.0027887 0.00035317 0.003526 -0.027476 0.015933
-0.21059 0.13123 -0.016963 0.020641
0.0043958 0.00086832 0.0010787 0.0057089 -0.0017427 0.00088837 0.014455 -0.011008
-0.01666 0.020766 -0.2505 0.12706
860000000 -0.12826 0.23728 -0.017797 0.030706 -0.0034318 -0.0099811 -0.001825 0.00056752
0.004327 0.0046733 -0.003847 -0.0028066
-0.017824 0.030702 -0.2946 0.27727 0.0081738 0.034412 0.00021963 0.0018425
0.004194 0.00082053 0.0032057 0.00045754
-0.0034557 -0.0099531 0.0083075 0.034438 0.014546 0.31171 -0.00043131 -0.00039855
0.0025069 -0.0012228 0.0015837 0.0042931
-0.001616 0.0004926 0.00037192 0.0019624 -0.00038421 -0.00039544 -0.13486 0.24525
-0.016155 0.020667 -0.0068702 -0.0097627
0.0040531 0.0044982 0.0042292 0.00057208 0.0024438 -0.0013279 -0.016544 0.020627
-0.15489 0.17699 -0.022459 0.017036
-0.0038002 -0.0028218 0.0031361 0.00043352 0.0015989 0.0042139 -0.0066812 -0.0099815
-0.023505 0.017275 -0.1979 0.17679
920000000 -0.10497 0.26019 0.0050605 0.039224 -0.0091373 -0.0042662 -0.0017053 0.001629
0.00092909 0.0013711 0.0027789 -0.0010406
0.0050225 0.039188 -0.2679 0.29808 0.028612 0.022607 0.0013681 0.0012497
0.0067417 -0.00067006 0.0041176 -0.0027162
-0.0091519 -0.0042403 0.028727 0.022533 0.060956 0.3131 0.0017698 8.8238e-05
0.00081084 -0.00051405 0.00096642 -0.0012495
-0.0018388 0.0016433 0.0012981 0.0012522 0.0017679 7.5899e-05 -0.11082 0.26143
-0.0082698 0.031527 0.0043255 -0.006499
0.00088907 0.0014921 0.0067805 -0.00068838 0.00083963 -0.00052562 -0.0083334 0.031516
-0.14253 0.18352 -0.0010629 0.027195
0.0027668 -0.0010368 0.0039064 -0.0028276 0.0009396 -0.0012479 0.0042803 -0.00606
-0.0011898 0.027553 -0.20918 0.18828
980000000 -0.058811 0.28276 0.017548 0.030258 -0.0090189 0.0046991 0.0018536 0.003463
0.0036258 -0.001784 -0.0033883 -0.0026663
0.017501 0.030245 -0.21572 0.33575 0.033552 0.004688 0.0019299 -0.00025496
0.0015821 -0.0058606 -0.00053738 -0.0028404
-0.0090162 0.0047301 0.033605 0.004575 0.10798 0.30867 0.00048402 -0.001141
0.00035511 -0.001824 0.0015389 -0.00026658
0.0019059 0.0035365 0.0019139 -0.00026454 0.00047777 -0.001136 -0.071158 0.27341
0.010612 0.029013 -0.0095525 -0.007747
0.003664 -0.0017818 0.0014849 -0.0058945 0.00037576 -0.0018228 0.010795 0.029003
-0.10806 0.21004 0.0072406 0.019283
-0.0034061 -0.0025184 -0.00057357 -0.0028123 0.0015422 -0.00027057 -0.0095705 -0.0077342
0.0071405 0.019285 -0.16833 0.23915
1040000000 -0.016732 0.29043 0.033634 0.018917 -0.00077108 0.007432 0.0023866 0.00045215
0.00030302 -0.0033604 -0.00023494 -0.0012688
0.033561 0.018936 -0.17956 0.34863 0.029802 -0.015075 0.001535 -0.0019499
-0.002257 -0.0024923 -0.0010485 -0.0030464
-0.00076282 0.0074315 0.029795 -0.015212 0.15548 0.29452 -0.00052452 -0.0015151
-0.001597 -0.0010366 -0.00062204 -0.0012324
0.0023289 0.00045185 0.0015903 -0.0018993 -0.00052505 -0.0015223 -0.042456 0.28212
0.021389 0.016804 -0.0015279 0.0011216
0.00032528 -0.003387 -0.0022582 -0.0023911 -0.00157 -0.0010262 0.021598 0.016753
-0.075 0.21493 0.014741 0.018096
-0.0003326 -0.0015275 -0.00093907 -0.0030792 -0.00058703 -0.0012823 -0.0015231 0.0013066
0.014545 0.017681 -0.14547 0.25845
1100000000 0.027419 0.30095 0.036821 -0.0039538 0.0035756 0.0039225 0.002254 -0.00094014
-0.0024299 -0.0028958 -0.0039682 -1.1344e-05
0.036784 -0.0039214 -0.13732 0.36865 0.015143 -0.028169 -0.00018014 -0.0017932
-0.0035286 -0.00077238 -0.0036119 -0.00061682
0.0035846 0.0039137 0.015059 -0.028259 0.20144 0.27498 -0.0018127 0.00026279
-0.0017436 0.00058763 -0.0010784 -0.00053148
0.0022585 -0.00098288 -0.00016596 -0.0017537 -0.0018006 0.0002618 -0.0020634 0.28687
0.025889 0.0023748 -0.0024807 -0.000716
-0.0024084 -0.0029145 -0.0035245 -0.00074796 -0.0016953 0.00059913 0.025971 0.002383
-0.054483 0.22789 0.020066 0.0065762
-0.0039712 0.00014925 -0.0036741 -0.00058009 -0.0010595 -0.00054236 -0.0025129 -0.00049551
0.020074 0.006535 -0.10277 0.29258
1160000000 0.079657 0.29757 0.024539 -0.021016 0.0033246 -0.00094319 -0.0003125 -0.0022727
-0.0038518 -0.00056623 -0.001231 0.0040248
0.024514 -0.020967 -0.091537 0.37332 -0.0041681 -0.029065 -0.001547 -0.0015285
-0.0024769 0.0025165 -0.0015198 0.0019449
0.0033111 -0.000961 -0.0042733 -0.029091 0.24614 0.24423 -0.00070682 0.0016282
-0.00048287 0.0017324 -0.00098071 0.00025138
-0.00033154 -0.002274 -0.0015604 -0.0015301 -0.00070924 0.0016063 0.039418 0.28291
0.020927 -0.013107 -0.0036652 0.0048028
-0.0038971 -0.00060192 -0.0024368 0.002507 -0.00045947 0.0016963 0.020816 -0.013126
-0.019109 0.23463 0.017823 -0.0012676
-0.0010809 0.0039548 -0.0014771 0.001877 -0.0010159 0.000237 -0.0036475 0.0047474
0.01807 -0.0013099 -0.051619 0.29635
1220000000 0.12311 0.28687 0.011134 -0.030646 -0.0013924 -0.0015326 -7.1213e-06 -0.0007788
-0.0024677 0.0021614 0.0012489 0.0017932
0.011143 -0.030599 -0.048272 0.3864 -0.017214 -0.021038 -0.0025079 0.00050915
1.4075e-05 0.0029509 -0.00085392 0.0018989
-0.0013971 -0.0015231 -0.017313 -0.020985 0.28495 0.20451 0.00082664 0.0016063
0.00054521 0.0011416 0.00011497 0.00067915
3.8096e-05 -0.00079134 -0.0024989 0.00056185 0.0008334 0.0016394 0.079082 0.27214
0.0096477 -0.019326 0.0015808 0.0010253
-0.0024535 0.0021402 6.094e-05 0.0029191 0.00054571 0.0011576 0.0096187 -0.019383
0.00609 0.24083 0.013031 -0.013565
0.0013669 0.001835 -0.00083719 0.0019329 9.7273e-05 0.00061827 0.0015158 0.0010192
0.013097 -0.013511 -0.024262 0.31457
1280000000 0.17381 0.26792 -0.0079641 -0.029225 -0.0020788 0.001803 -0.00092795 -0.001877
-0.00075011 0.0030273 0.0024901 0.001294
-0.0079379 -0.029208 -0.0013503 0.37865 -0.024078 -0.0079337 -0.00093756 0.001441
0.0016599 0.0016646 0.00071748 0.0020791
-0.0020797 0.0018151 -0.024141 -0.0078322 0.31581 0.16163 0.0014715 3.433e-05
0.0010343 0.00018425 0.0002193 0.00055185
-0.00094906 -0.0019169 -0.00096286 0.0014582 0.001458 2.6442e-05 0.11579 0.25454
-0.00078717 -0.021135 -0.0011673 0.00034849
-0.00069994 0.003074 0.0016734 0.0016742 0.001041 0.0002276 -0.00083951 -0.021082
0.043645 0.24326 0.0018258 -0.015653
0.0024658 0.001209 0.0006637 0.0020457 0.00024573 0.00045712 -0.0011166 0.00028913
0.0018549 -0.015688 0.024834 0.31973
1340000000 0.21173 0.23358 -0.017717 -0.019427 0.00020375 0.0042832 -0.001631 -0.00078815
0.0014555 0.0024992 0.0017538 -0.0015235
-0.017678 -0.019424 0.038062 0.37029 -0.021048 0.0047357 -0.00029996 0.0020322
0.0018253 0.00081341 0.0012195 0.00076093
0.00022177 0.0042771 -0.021053 0.0048472 0.33882 0.11254 0.0010111 -0.00084879
0.00066136 -0.00062499 0.00015586 0.00031136
-0.0016034 -0.00078448 -0.00028748 0.0019982 0.0010181 -0.0008688 0.1478 0.23141
-0.010622 -0.017192 0.00068032 0.00089363
0.0014488 0.0024967 0.0018185 0.00082733 0.00064072 -0.00059258 -0.01062 -0.017182
0.073864 0.23536 -0.0042867 -0.013696
0.0017891 -0.0014905 0.0012109 0.00074911 0.00022239 0.0003511 0.00068191 0.0008309
-0.0043013 -0.013704 0.063228 0.31491
1400000000 0.24492 0.1965 -0.02398 -0.0077986 0.0046703 0.0032441 -0.0021135 0.00053751
0.0023992 0.00092779 0.00025757 -0.0011981
-0.023949 -0.0078047 0.074829 0.35821 -0.014274 0.012635 0.0013273 0.0014545
0.0012719 -0.00065514 0.0011386 0.00017682
0.0046841 0.0032252 -0.014232 0.012721 0.35143 0.058725 0.00013401 -0.0015661
0.00013495 -0.0003753 0.00043007 0.00037904
-0.0021019 0.00053887 0.0013301 0.0014533 0.00014438 -0.0015426 0.17455 0.20179
-0.016546 -0.0097032 -0.0011267 0.00038881
0.0024152 0.00089824 0.0012831 -0.00066346 0.00013728 -0.00038072 -0.016575 -0.0096212
0.10665 0.22882 -0.010803 -0.0085419
0.00026346 -0.0012018 0.001154 0.00017269 0.00039023 0.00036067 -0.0010348 0.00035522
-0.010743 -0.0085956 0.10821 0.30671
1460000000 0.26885 0.15298 -0.020747 0.0049518 0.0051778 -0.001442 -0.0016238 0.0016157
0.0021004 -0.00052128 -0.00013683 -0.00087594
-0.02074 0.0049375 0.10974 0.33672 -0.0053482 0.01512 0.0017546 0.00033362
0.00097164 -0.0014272 0.0011339 -0.00046799
0.0051625 -0.0014672 -0.0052701 0.015157 0.35823 0.0037117 -0.0011739 -0.0013773
0.00016128 -0.00025253 0.0007133 -0.00026134
-0.0016035 0.0016072 0.0017745 0.00032666 -0.0011903 -0.0013759 0.19978 0.17267
-0.017527 -0.0022334 -0.00048019 0.002639
0.0021213 -0.00053751 0.00096514 -0.0014088 0.00015179 -0.00028082 -0.017536 -0.0021518
0.13654 0.21245 -0.012172 -0.0020692
-0.00019536 -0.0008643 0.0011725 -0.00050534 0.00070606 -0.00035241 -0.00037325 0.0026196
-0.012048 -0.0021313 0.14243 0.28613
1520000000 0.28062 0.11083 -0.015117 0.010513 0.0032596 -0.0037537 5.9135e-05 0.0026548
0.00206 -0.0017143 -0.00098866 -0.00020866
-0.015118 0.01049 0.14295 0.32242 0.0020309 0.012508 0.0018423 -0.00082341
6.1647e-05 -0.0011148 0.00036989 -0.0010136
0.0032575 -0.0037681 0.002102 0.012515 0.35003 -0.054318 -0.00111 -0.00042078
0.00047079 -0.00080384 0.00017579 -0.00012456
3.6588e-05 0.0026642 0.0018343 -0.0008162 -0.0011148 -0.00041694 0.22041 0.13458
-0.016107 0.0041457 0.0019814 0.0020149
0.002014 -0.0017576 4.6227e-05 -0.001114 0.00044989 -0.00082951 -0.016133 0.0041873
0.16372 0.19683 -0.01171 0.0019154
-0.00103 -0.00021356 0.00035578 -0.0010352 0.00014744 -0.00018187 0.0019432 0.0020537
-0.011679 0.00189 0.17559 0.26738
1580000000 0.29021 0.066305 -0.0082892 0.013891 -0.00092309 -0.0045116 0.0015162 0.0020106
-0.00013963 -0.002229 -0.0002383 0.00038165
-0.0082949 0.013871 0.1701 0.2991 0.0052571 0.0074766 0.00062001 -0.0017247
-0.00067812 -0.001147 -0.00022315 -0.00070168
-0.00093515 -0.0045068 0.0052951 0.0074594 0.32847 -0.11055 -0.0017055 0.00058365
-0.00048017 -0.0010878 0.00030138 -0.00067314
0.001517 0.0019893 0.00060201 -0.0017218 -0.0017157 0.00058191 0.23264 0.097544
-0.012005 0.0092135 0.0025094 0.0006334
-0.00013874 -0.0022207 -0.00070107 -0.0011338 -0.00050804 -0.0011094 -0.011945 0.0092249
0.18687 0.17831 -0.0090445 0.0078184
-0.00024847 0.00043642 -0.00020797 -0.00070108 0.00030314 -0.00061704 0.002498 0.0005519
-0.0091363 0.0078548 0.20949 0.24273
1640000000 0.29322 0.024765 -0.0012778 0.012647 -0.0026309 -0.0022259 0.002867 0.0010372
-0.00063241 -0.001672 -0.00039663 0.00041696
-0.0012939 0.012634 0.20086 0.2744 0.0055679 0.0027171 -0.00072702 -0.001973
-0.0011218 -0.00027396 -0.00042377 -0.00070543
-0.0026567 -0.0022148 0.0055836 0.0026803 0.29932 -0.16051 -0.00064569 0.0015956
-0.00099474 -0.00076537 -0.00012824 -0.0004923
0.0028949 0.0010462 -0.00074139 -0.0019499 -0.00063851 0.0016203 0.24462 0.050085
-0.0072953 0.010598 0.0026122 -0.0010488
-0.00063277 -0.0016597 -0.0011252 -0.00026879 -0.00096803 -0.00081097 -0.0073017 0.010597
0.20895 0.15199 -0.0041145 0.0095197
-0.00038734 0.00046654 -0.00046894 -0.00069826 -0.00019307 -0.0005078 0.0026047 -0.0010569
-0.0041976 0.0094788 0.23635 0.21174
1700000000 0.28557 -0.019504 0.002291 0.0097368 -0.0031394 0.00018976 0.0032188 -0.001348
-0.0021797 -0.00073732 0.00052611 0.00041083
0.0022873 0.0097203 0.21823 0.24408 0.0032093 7.3287e-05 -0.0016266 -0.00058077
-0.00080355 0.00015692 -0.00077777 -0.00043468
-0.0031289 0.00020098 0.003209 5.7246e-05 0.2537 -0.19887 0.00049884 0.0017221
-0.0018957 -9.2874e-05 -0.00036673 -0.00075482
0.0032093 -0.0013849 -0.0016338 -0.00058532 0.00050534 0.0017396 0.24084 0.0030832
-0.0038928 0.010924 0.0013589 -0.0021634
-0.0021852 -0.00071772 -0.00079395 0.00016854 -0.0018829 -4.8187e-05 -0.003853 0.010936
0.2254 0.1308 0.0003801 0.00942
0.0005418 0.0004482 -0.00078601 -0.00039848 -0.0003904 -0.0007137 0.0014124 -0.0021695
0.00034868 0.0093947 0.25335 0.17836
1760000000 0.27542 -0.067596 0.0047351 0.0063032 -0.0019872 0.00095787 0.0010743 -0.0036383
-0.0015665 0.00061132 0.00022729 -0.00046127
0.0047229 0.0062954 0.24616 0.20544 0.00074616 -0.0013627 -0.0013558 0.00021811
-0.00087021 0.00094897 -0.00048462 0.00026629
-0.0019924 0.00096624 0.00074195 -0.0013641 0.20504 -0.23002 0.0013235 0.0011474
-0.0010086 0.0015051 -0.0011937 -0.00069903
0.0010858 -0.0036301 -0.0013673 0.00022235 0.0012932 0.0011183 0.23487 -0.045495
-0.0002712 0.0098288 -0.00011743 -0.0024696
-0.0015557 0.00059849 -0.00086986 0.00096958 -0.0010141 0.0015284 -0.00029217 0.0098809
0.23957 0.096887 0.0042404 0.0067126
0.00017532 -0.00051928 -0.00050874 0.00024616 -0.0011834 -0.00083031 -0.00019917 -0.0023844
0.004287 0.006757 0.26792 0.14147
1820000000 0.25089 -0.1056 0.004863 0.0025662 0.00014546 0.0020226 -0.0011224 -0.0031544
-0.0011613 0.0012964 -0.000136 -8.5115e-07
0.0048513 0.0025628 0.25659 0.17513 -0.0012793 6.5664e-06 -0.0012324 0.0010699
0.0001756 0.0011548 -0.00066449 0.00038525
0.00015051 0.0020034 -0.0012771 6.4038e-06 0.15434 -0.24494 0.001764 3.1426e-05
9.3513e-05 0.002189 -0.0016969 0.00031587
-0.0011041 -0.0031324 -0.0012218 0.0010715 0.0017456 8.6438e-06 0.20681 -0.093003
0.0016824 0.0081434 -0.0016966 -0.0017335
-0.0011381 0.0012901 0.00020067 0.001156 7.8438e-05 0.0021962 0.0016683 0.0081066
0.25502 0.067139 0.0048528 0.0030881
-0.00016743 -1.7689e-06 -0.00066508 0.00035804 -0.0016904 0.00032392 -0.0017524 -0.0017584
0.004877 0.0031026 0.27095 0.10546
1880000000 0.21596 -0.1451 0.0025526 0.00017543 -0.00053961 0.0021271 -0.0029155 -0.0021636
4.4749e-05 0.0019536 0.00048994 -0.00059795
0.0025532 0.00017276 0.26205 0.12995 -0.0030774 0.0023582 -0.00013006 0.0016989
0.00066822 0.0010513 0.00010064 0.00082657
-0.00052262 0.0021219 -0.0030719 0.0023794 0.10262 -0.25162 0.0014763 -0.0011451
0.0016511 0.0017794 -0.0010511 0.0012949
-0.0029455 -0.0020822 -0.00015587 0.0017415 0.0015002 -0.0011459 0.16923 -0.13288
0.0028139 0.0058765 -0.0022054 0.00032121
7.8621e-05 0.0019596 0.00064982 0.0010316 0.0016182 0.0017732 0.002782 0.0058402
0.25826 0.03686 0.0048397 0.0011609
0.00044612 -0.0006504 7.9232e-05 0.00079691 -0.0010484 0.0013612 -0.0021393 0.00025446
0.0048528 0.0011197 0.27196 0.07245
1940000000 0.17787 -0.17194 0.00022601 -0.0015488 0.0014053 0.002034 -0.0037183 0.00056526
0.0016477 0.0010638 -0.00049885 -0.00068131
0.00021789 -0.0015454 0.26476 0.097435 -0.0014916 0.0049434 0.0010045 0.0012883
0.0016191 0.00032409 0.00073327 0.00031918
0.0014273 0.002028 -0.001454 0.0049618 0.059498 -0.24356 0.00024185 -0.0019804
0.0022472 0.00029711 8.5777e-05 0.0017765
-0.003704 0.00056502 0.0010169 0.0012951 0.00024405 -0.0019562 0.11993 -0.16706
0.0024955 0.0038317 -0.001315 0.0013591
0.0015854 0.0010538 0.0015892 0.00028043 0.0022623 0.00026352 0.0024891 0.0038798
0.2617 -0.0019741 0.0035394 -0.0021757
-0.0005619 -0.00063431 0.00068624 0.00032941 2.6706e-06 0.0018004 -0.001276 0.0014382
0.0035645 -0.0021364 0.26271 0.036316
2000000000 0.1309 -0.18614 -0.0035601 0.000527 0.002769 0.0014965 -0.0023721 0.0035498
0.0011863 -0.00013101 -0.00090012 0.00045821
-0.0035379 0.00050806 0.25095 0.061622 -0.00051424 0.0068492 0.0014085 0.00020299
0.0010653 -0.0012535 0.0004654 0.00023781
0.002787 0.0014794 -0.00045953 0.0068737 0.017258 -0.2285 -0.0015727 -0.0011294
0.0018223 -0.001303 0.0018226 0.0015907
-0.0023616 0.003534 0.0013812 0.0001578 -0.0015953 -0.0011292 0.065641 -0.17982
0.00089438 0.0028592 2.8573e-05 0.0018919
0.0012058 -0.00014395 0.0010634 -0.0012661 0.0018366 -0.0012981 0.00090989 0.0028583
0.25613 -0.034969 0.00040881 -0.0031503
