!Keysight Technologies,M9804A,MY58100912,A.14.10.03
!Date: Thursday, April 27, 2023 10:28:33
!Correction: S11(C  6-Port  ) 
!S12(C  6-Port  ) 
!S13(C  6-Port  ) 
!S14(C  6-Port  ) 
!S15(C  6-Port  ) 
!S16(C  6-Port  ) 
!S21(C  6-Port  ) 
!S22(C  6-Port  ) 
!S23(C  6-Port  ) 
!S24(C  6-Port  ) 
!S25(C  6-Port  ) 
!S26(C  6-Port  ) 
!S31(C  6-Port  ) 
!S32(C  6-Port  ) 
!S33(C  6-Port  ) 
!S34(C  6-Port  ) 
!S35(C  6-Port  ) 
!S36(C  6-Port  ) 
!S41(C  6-Port  ) 
!S42(C  6-Port  ) 
!S43(C  6-Port  ) 
!S44(C  6-Port  ) 
!S45(C  6-Port  ) 
!S46(C  6-Port  ) 
!S51(C  6-Port  ) 
!S52(C  6-Port  ) 
!S53(C  6-Port  ) 
!S54(C  6-Port  ) 
!S55(C  6-Port  ) 
!S56(C  6-Port  ) 
!S61(C  6-Port  ) 
!S62(C  6-Port  ) 
!S63(C  6-Port  ) 
!S64(C  6-Port  ) 
!S65(C  6-Port  ) 
!S66(C  6-Port  ) 
!S6P File: Measurement: :
# Hz S  RI   R 50
500000000 -0.32747 -0.054359 -0.011446 -0.00083317 -0.0084113 0.012669 -0.0037966 0.012753
0.012017 0.0054857 -0.0047898 0.010084
-0.011391 -0.00077145 -0.4103 -0.06863 0.006981 -0.01058 0.00075656 0.012609
0.0087004 0.0028157 0.0013343 0.014815
-0.0082917 0.01268 0.0070017 -0.010595 -0.2556 0.19592 0.0066824 0.0032872
-0.00040172 0.0084857 0.0013056 0.011292
-0.0040017 0.012484 0.00063924 0.012308 0.0064174 0.002944 -0.32948 0.045096
-0.019579 -0.0059495 0.015311 0.028767
0.011889 0.0056065 0.0087728 0.0029121 -0.00027842 0.0085021 -0.018975 -0.0055985
-0.25828 -0.1587 -0.026863 0.0049488
-0.0049307 0.0093876 0.0011646 0.014226 0.0009703 0.010997 0.014915 0.028272
-0.027497 0.0044893 -0.25467 -0.14066
560000000 -0.3129 0.10942 -0.022781 -0.066208 0.00050019 0.013727 0.005478 0.010354
0.010463 0.0026582 0.011517 0.0081123
-0.022527 -0.066221 -0.37009 0.092842 -0.041782 -0.037633 0.014228 0.0027719
-0.013615 -0.003399 0.0042333 -0.0017537
0.00056127 0.013722 -0.041912 -0.037635 -0.17948 0.24384 -1.3572e-05 -0.0044994
0.018092 0.0039194 0.0074727 -0.0053858
0.0058901 0.010799 0.013921 0.0029888 0.00025694 -0.004709 -0.30351 0.13675
0.0024521 -0.023592 0.0063975 -0.020795
0.0097911 0.0019831 -0.013522 -0.0031643 0.018231 0.0039039 0.0026124 -0.023362
-0.3041 0.01454 0.0056013 -0.045954
0.012171 0.008056 0.0040987 -0.0016133 0.0075058 -0.005371 0.0068882 -0.020638
0.0064399 -0.045453 -0.32729 0.0044183
620000000 -0.27135 0.087353 -0.02411 0.0091338 0.0033259 0.0091131 0.0083277 -0.0038613
0.012619 -0.00096322 0.00031859 -0.0023171
-0.024034 0.0091572 -0.39923 0.04066 -0.019566 0.0010482 -0.001029 -0.0019556
0.011301 -0.0060761 0.0013369 -0.003105
0.0034269 0.0090037 -0.019602 0.0010475 -0.15239 0.25268 -0.0010194 -0.0047312
-0.0032162 -0.0028612 0.0088593 -0.0028381
0.0080642 -0.0045765 -0.0010411 -0.0019523 -0.00095338 -0.0046088 -0.26475 0.14627
-0.038637 -0.018947 0.01261 0.029779
0.012666 -0.0011156 0.011437 -0.0063491 -0.0030614 -0.0032008 -0.038594 -0.019023
-0.23319 -0.016638 -0.041123 0.013232
-3.6246e-05 -0.0023386 0.0012716 -0.0028888 0.0092017 -0.0026214 0.011969 0.029312
-0.040931 0.012909 -0.24082 -0.030485
680000000 -0.23786 0.1798 -0.026384 -0.013449 0.0053365 0.0052747 0.00095917 -0.0077817
-0.0029964 -0.011313 0.0044991 -0.0060225
-0.026444 -0.013425 -0.38865 0.14321 -0.032359 -0.00094551 -0.0016844 -0.00072773
-0.0023189 -0.009379 -0.0013533 -0.0013602
0.0053139 0.0053161 -0.032426 -0.0008405 -0.10519 0.27536 -0.00093852 -0.00039132
-0.0015689 0.00047725 -0.003031 -0.0089287
0.0012534 -0.0073564 -0.001794 -0.000585 -0.00088973 -0.00042944 -0.21826 0.19966
-0.025422 -0.0061616 -0.0076533 -0.011624
-0.0031208 -0.011325 -0.0023872 -0.0094657 -0.0015591 0.00047829 -0.025219 -0.0061786
-0.2691 0.082692 -0.0078536 -0.0052389
0.004857 -0.0058493 -0.0014936 -0.0010526 -0.0031229 -0.0088552 -0.0072172 -0.011392
-0.0079418 -0.0049776 -0.26092 0.074767
740000000 -0.19101 0.17215 -0.040313 0.027428 0.013279 -0.0042085 0.00039678 -0.0038989
-0.0051233 -0.0021129 -0.0060551 0.0028437
-0.040261 0.027387 -0.33466 0.1619 -0.035863 0.034564 0.00041488 -0.0061235
-0.011981 0.0074082 -0.0010802 -0.0063983
0.013276 -0.0042981 -0.035884 0.034695 -0.071997 0.27533 -0.0017619 0.0029495
-0.0026702 -0.0047763 -0.0012929 0.00099649
0.00014478 -0.0039261 9.5825e-05 -0.0062834 -0.0017311 0.0029249 -0.20205 0.20528
-0.040915 -0.0042205 0.022242 0.016875
-0.0047084 -0.0020522 -0.011824 0.0073309 -0.0027414 -0.0047855 -0.040701 -0.004136
-0.17868 0.10153 -0.039555 0.0029442
-0.0064555 0.0027915 -0.0014526 -0.006594 -0.0011739 0.00091687 0.022218 0.016827
-0.039772 0.0031937 -0.25048 0.077722
800000000 -0.16263 0.21631 -0.0219 0.01673 0.0056942 -0.01029 -0.0042858 -0.0025279
-0.0039657 0.0024544 0.0042675 0.00049958
-0.021846 0.016697 -0.34217 0.233 -0.0079259 0.034737 -0.0023964 0.0021942
-0.00065848 0.0030156 0.00078085 0.0055521
0.0056918 -0.010307 -0.007876 0.034759 -0.034236 0.30136 0.00076171 0.0013786
0.00049854 0.0035456 -0.0019585 0.0007016
-0.0041513 -0.0023606 -0.0023729 0.0022032 0.00086478 0.001404 -0.17301 0.23334
-0.027256 0.015692 0.01439 -0.010976
-0.0039844 0.0025875 -0.00059232 0.003042 0.00043849 0.0035389 -0.027324 0.015843
-0.21009 0.13241 -0.016034 0.021801
0.0046812 0.00039471 0.00082404 0.005516 -0.0017307 0.00067792 0.014434 -0.010819
-0.016023 0.021304 -0.24934 0.12923
860000000 -0.12709 0.23766 -0.0172 0.030743 -0.0032047 -0.010117 -0.0015034 0.00072601
0.0041297 0.0050763 -0.0039278 -0.0029899
-0.017247 0.0307 -0.29394 0.27714 0.0084718 0.034396 0.00042477 0.0019965
0.0040865 0.0011238 0.0033431 0.00012524
-0.0032988 -0.010092 0.0085491 0.034424 0.015047 0.31162 -0.00026322 -0.00021866
0.0025479 -0.0010916 0.0015842 0.0039767
-0.0016438 0.00041082 0.00039359 0.0020277 -0.0003223 -0.00021576 -0.13477 0.24515
-0.016483 0.020587 -0.0062323 -0.0097588
0.0042686 0.0050191 0.0040397 0.0011625 0.0025671 -0.0010899 -0.016225 0.020674
-0.15396 0.17734 -0.022926 0.018192
-0.0044833 -0.0029588 0.0033021 5.6929e-05 0.0015134 0.0040562 -0.0063919 -0.0097194
-0.022789 0.01858 -0.19406 0.17664
920000000 -0.10423 0.26006 0.0052319 0.038815 -0.0093041 -0.0046533 -0.0018589 0.0014763
0.00092775 0.0013878 0.002933 -0.0008708
0.0052063 0.038805 -0.26719 0.29788 0.028814 0.022494 0.0015455 0.0011129
0.0070403 -0.00048894 0.0042981 -0.0026642
-0.0092947 -0.0046644 0.028896 0.022401 0.061139 0.31315 0.0018103 -2.2632e-05
0.00094862 -0.00037881 0.0008299 -0.001543
-0.0016181 0.0015597 0.001587 0.0011271 0.0018348 -8.2808e-05 -0.11069 0.26107
-0.0079279 0.03157 0.0044891 -0.0064586
0.00080751 0.0015456 0.0070365 -0.00052461 0.00092276 -0.00036726 -0.0079992 0.031605
-0.14132 0.18385 -0.0010894 0.027558
0.0033132 -0.0010462 0.0043681 -0.0027976 0.0008135 -0.0015948 0.0045034 -0.0065316
-0.001019 0.02761 -0.20681 0.19095
980000000 -0.058225 0.28247 0.017656 0.029912 -0.0092827 0.0045487 0.0017613 0.0033723
0.0036562 -0.0016613 -0.0034915 -0.0027438
0.017608 0.029844 -0.21545 0.33538 0.033651 0.0045088 0.0020207 -0.0002139
0.0017124 -0.0058859 -0.00076148 -0.0027393
-0.0092871 0.0045832 0.0337 0.004383 0.10819 0.30878 0.00051203 -0.0011301
0.00032536 -0.0018651 0.0013439 -0.00035404
0.0016891 0.0033319 0.002014 -0.00017146 0.00053319 -0.0011165 -0.071191 0.27321
0.010828 0.029149 -0.0091597 -0.0075463
0.0036766 -0.0017058 0.0016725 -0.0059319 0.00034126 -0.0018484 0.010922 0.029156
-0.10601 0.21059 0.0067901 0.01927
-0.003678 -0.0027053 -0.0007135 -0.0026776 0.001402 -0.00033702 -0.0092203 -0.0074716
0.006595 0.01943 -0.16606 0.23963
1040000000 -0.016128 0.29009 0.033617 0.018638 -0.0011014 0.0074085 0.0022555 0.000563
0.00030668 -0.0035035 -0.00031877 -0.0012381
0.033543 0.018646 -0.17972 0.34841 0.029808 -0.015404 0.0014451 -0.0018851
-0.002214 -0.0026625 -0.001318 -0.003074
-0.0010829 0.0073877 0.029768 -0.015544 0.15588 0.29487 -0.00055181 -0.0015188
-0.0016749 -0.0011398 -0.00074914 -0.0010891
0.0022983 0.00058301 0.0014692 -0.001861 -0.00055128 -0.0014976 -0.04259 0.28181
0.021882 0.016749 -0.0017792 0.00090473
0.00021156 -0.003512 -0.0022783 -0.0026197 -0.0017096 -0.0010781 0.021954 0.016714
-0.073897 0.21525 0.015234 0.017005
-8.6267e-05 -0.001243 -0.0013997 -0.0030882 -0.00072961 -0.0010301 -0.0017696 0.0008109
0.015268 0.017137 -0.14496 0.25989
1100000000 0.027632 0.30074 0.036726 -0.0042566 0.003341 0.0040098 0.0023091 -0.00086608
-0.002428 -0.0026971 -0.0041732 -3.1682e-05
0.036702 -0.004263 -0.13749 0.36858 0.015033 -0.028569 -0.00019804 -0.0018667
-0.0037175 -0.0006196 -0.003731 -0.00077349
0.0033534 0.0039956 0.014946 -0.028658 0.20221 0.27514 -0.0018414 0.00028524
-0.001739 0.00070739 -0.0011028 -0.00041799
0.0022533 -0.0009175 -0.00021146 -0.0018678 -0.001861 0.00027951 -0.0022273 0.28697
0.026129 0.0020524 -0.0025988 -0.00065993
-0.002394 -0.0027702 -0.0037392 -0.00065818 -0.0017524 0.00067011 0.026158 0.0020487
-0.053189 0.22753 0.02014 0.0062579
-0.0042931 6.3931e-05 -0.0037408 -0.00072031 -0.0010829 -0.00043551 -0.0026048 -0.00060182
0.020092 0.0062056 -0.1001 0.29326
1160000000 0.079665 0.29742 0.024289 -0.021489 0.0031515 -0.00072517 -0.00027574 -0.0023044
-0.0037996 -0.00087514 -0.0011369 0.0043734
0.024295 -0.02143 -0.091878 0.37364 -0.0044775 -0.029282 -0.0015771 -0.00155
-0.0024917 0.0026469 -0.0014528 0.0021669
0.003162 -0.0007352 -0.0045986 -0.029305 0.24692 0.24401 -0.00072266 0.0017338
-0.00044524 0.0017547 -0.00097861 0.00025819
-0.00026568 -0.0022554 -0.001631 -0.0015498 -0.00072294 0.0017011 0.039288 0.28324
0.021117 -0.013317 -0.0036478 0.0042785
-0.0038758 -0.00077474 -0.0024956 0.0027024 -0.00041591 0.0017883 0.021154 -0.013418
-0.018708 0.2343 0.018847 -0.0017477
-0.0010125 0.0041928 -0.0013856 0.0021482 -0.0010259 0.00020533 -0.0036192 0.0042869
0.018908 -0.0018162 -0.051496 0.29694
1220000000 0.12312 0.28697 0.01066 -0.030883 -0.0014941 -0.0012913 0.00020305 -0.00078857
-0.0025092 0.0022688 0.0012062 0.0019058
0.010647 -0.03091 -0.048282 0.3869 -0.017674 -0.021098 -0.0025407 0.00052877
5.4461e-05 0.0031333 -0.00088723 0.0020548
-0.001496 -0.0012679 -0.017782 -0.021054 0.2856 0.20381 0.00084337 0.0017079
0.00066013 0.0012331 0.00015433 0.00073433
0.0001868 -0.00083461 -0.0025169 0.00054232 0.00083361 0.0017191 0.079035 0.27254
0.0096845 -0.019927 0.0012752 0.0011443
-0.0024255 0.0022389 8.4123e-05 0.0031112 0.00064198 0.0012186 0.0096108 -0.019975
0.0064371 0.24037 0.01279 -0.014184
0.0012212 0.00195 -0.00085352 0.0020465 0.0002188 0.00069353 0.0011908 0.0012208
0.012812 -0.014199 -0.021688 0.3152
1280000000 0.17388 0.26806 -0.0086475 -0.029267 -0.0020326 0.0022123 -0.0009416 -0.002063
-0.000753 0.0030925 0.0026051 0.0013924
-0.0086066 -0.029192 -0.0010338 0.37928 -0.024556 -0.0077609 -0.00096456 0.0015716
0.0018985 0.0017161 0.00089192 0.002083
-0.0020054 0.0022124 -0.024606 -0.0076561 0.316 0.16063 0.0016475 -1.2639e-05
0.0010342 0.0001552 0.00027414 0.00038939
-0.00095488 -0.0020335 -0.00099437 0.0015315 0.0016487 3.9936e-06 0.11602 0.25486
-0.0014877 -0.02165 -0.0010777 0.00042036
-0.0008173 0.0031312 0.001937 0.0017348 0.0010399 0.00017306 -0.001523 -0.021606
0.043568 0.24302 0.0017393 -0.015921
0.0026417 0.0013836 0.00081797 0.0021161 0.00027933 0.00042353 -0.0010691 0.00042228
0.0016064 -0.015959 0.026308 0.3193
1340000000 0.21212 0.23385 -0.018309 -0.018984 0.00047843 0.0044144 -0.0016891 -0.00082798
0.0015195 0.0026262 0.0016995 -0.0015386
-0.0183 -0.018975 0.03872 0.37061 -0.021248 0.0052672 -0.00018404 0.002025
0.0020048 0.00071333 0.0012253 0.00074154
0.00049391 0.0044274 -0.021254 0.0053557 0.33825 0.11185 0.0010608 -0.00096236
0.00065931 -0.00066283 0.00013293 0.00038596
-0.0016924 -0.00079966 -0.00015387 0.0020439 0.0010456 -0.00097497 0.14808 0.23187
-0.011281 -0.017298 0.00034318 0.0011687
0.0015818 0.0025803 0.001966 0.00069048 0.00064937 -0.00067772 -0.011348 -0.017373
0.074203 0.23549 -0.0052253 -0.014383
0.0017821 -0.001511 0.001307 0.00070272 0.0001455 0.00041976 0.0003077 0.0011573
-0.005119 -0.014308 0.065176 0.31468
1400000000 0.24547 0.19657 -0.024342 -0.0071204 0.0050069 0.0032351 -0.0022413 0.00062059
0.0024632 0.00098512 0.0003748 -0.0013487
-0.02432 -0.007108 0.075677 0.35822 -0.014198 0.013114 0.0014478 0.0014269
0.0013064 -0.00084884 0.001188 0.00015206
0.0050216 0.0032075 -0.014144 0.013193 0.35067 0.058584 8.3358e-05 -0.0016413
0.00015595 -0.00045354 0.00039823 0.00031618
-0.0022507 0.00060257 0.0014222 0.0014013 0.00010418 -0.0016252 0.17527 0.20201
-0.017398 -0.0094925 -0.00099141 0.00056586
0.0024287 0.00096066 0.001321 -0.00083512 0.0001576 -0.0004099 -0.017419 -0.0094294
0.10668 0.22894 -0.011436 -0.0082016
0.00036731 -0.0013141 0.0011457 0.00021834 0.00039105 0.00032562 -0.001026 0.00062733
-0.011552 -0.0083159 0.10981 0.30561
1460000000 0.26951 0.1529 -0.02064 0.005742 0.0054305 -0.0017027 -0.0016267 0.0017778
0.002108 -0.00052609 -0.00022947 -0.00080241
-0.02064 0.0057286 0.11049 0.33636 -0.0049809 0.015543 0.0017981 0.00018843
0.00085739 -0.0014843 0.0011877 -0.0004947
0.0054511 -0.0017168 -0.0049239 0.015578 0.35737 0.0040513 -0.0013416 -0.0014234
0.0001167 -0.00032344 0.00070517 -0.00034525
-0.0016112 0.0017788 0.0018366 0.00019537 -0.0013163 -0.0014427 0.20038 0.1727
-0.018037 -0.0013092 -0.00019985 0.0027212
0.0021627 -0.00052858 0.00081695 -0.0015251 0.0001442 -0.00030111 -0.018086 -0.0013118
0.13674 0.21278 -0.012912 -0.001797
-0.00023604 -0.00080574 0.0011789 -0.00054015 0.00074351 -0.0003323 -0.00023796 0.0027259
-0.012803 -0.0018395 0.14411 0.28552
1520000000 0.28123 0.11038 -0.01459 0.011111 0.00332 -0.0040087 0.00012123 0.0027607
0.0021111 -0.0018117 -0.0010569 -0.0001909
-0.014582 0.011105 0.14344 0.32187 0.0025009 0.012558 0.0017866 -0.0008569
-4.6432e-05 -0.0010893 0.00033812 -0.0010027
0.0032954 -0.0040108 0.0025624 0.012563 0.34954 -0.053589 -0.0011329 -0.00038377
0.00051835 -0.00094163 0.00020482 -0.0001851
0.00013361 0.0027586 0.0017757 -0.00087485 -0.001129 -0.00036684 0.22125 0.13416
-0.016122 0.0050632 0.0022354 0.0021379
0.0021113 -0.0018427 -5.5916e-05 -0.0010924 0.00047634 -0.00092053 -0.016091 0.0051446
0.1642 0.19698 -0.012143 0.002843
-0.0010891 -0.00014929 0.00031199 -0.00099335 0.00020713 -0.00018004 0.002232 0.0021308
-0.012147 0.0027452 0.17692 0.26613
1580000000 0.29059 0.065558 -0.007465 0.014192 -0.00092385 -0.0047663 0.0016809 0.0020413
-0.00016464 -0.0022718 -0.00021161 0.00043538
-0.0074648 0.014159 0.17036 0.29844 0.0056899 0.0073519 0.0005549 -0.0017542
-0.00069782 -0.0010381 -0.00024011 -0.00077733
-0.00094329 -0.004765 0.0057413 0.0073579 0.32846 -0.10965 -0.0016728 0.00064804
-0.00051108 -0.0011561 0.00030519 -0.00061716
0.0017013 0.0020198 0.00053133 -0.0017603 -0.0016766 0.00065781 0.23321 0.096655
-0.011478 0.01001 0.0027535 0.00058678
-0.00018697 -0.0022798 -0.00072353 -0.0010469 -0.00049572 -0.0011684 -0.011429 0.0099853
0.18756 0.1784 -0.0088562 0.0086645
-0.00022257 0.00046362 -0.00020108 -0.00078617 0.00026678 -0.00065817 0.0027415 0.00054784
-0.0088242 0.0086739 0.21023 0.24173
1640000000 0.29319 0.02403 -0.00046781 0.012452 -0.0027838 -0.0024757 0.0030057 0.00092818
-0.000699 -0.0016384 -0.00036937 0.0003627
-0.00046547 0.012431 0.20071 0.27382 0.005786 0.0024381 -0.00074173 -0.001916
-0.00099377 -0.0002624 -0.0004713 -0.00073763
-0.0027941 -0.0024725 0.0058077 0.0024005 0.29961 -0.15962 -0.00059945 0.0015734
-0.0011157 -0.00079464 -0.00013943 -0.00056335
0.0030006 0.00091899 -0.00077113 -0.0019332 -0.000619 0.0015834 0.24455 0.049232
-0.0064083 0.010846 0.002797 -0.0012284
-0.00072892 -0.0016573 -0.00099361 -0.00025785 -0.001108 -0.0008031 -0.0064189 0.010911
0.20984 0.15179 -0.0038466 0.010164
-0.00036759 0.00033029 -0.00050029 -0.00072905 -0.00019156 -0.00052821 0.0028098 -0.0012226
-0.0038056 0.010193 0.23707 0.21068
1700000000 0.28521 -0.020122 0.0028524 0.0091386 -0.0034356 8.8727e-05 0.0031315 -0.0015264
-0.0021299 -0.00070154 0.0006251 0.00034508
0.0028281 0.0091363 0.21789 0.24366 0.0032938 -0.00034691 -0.0016747 -0.00056332
-0.00071838 0.00014903 -0.00081862 -0.00042768
-0.0034499 0.00010933 0.003302 -0.0003698 0.2548 -0.19813 0.00046186 0.0016517
-0.0019956 0.00011496 -0.00039833 -0.00081121
0.0031547 -0.0015742 -0.0016714 -0.0005507 0.00044331 0.0016278 0.24049 0.0025324
-0.0029636 0.010635 0.0014777 -0.0023568
-0.0021541 -0.00066593 -0.00070797 0.00015152 -0.0019873 0.00010825 -0.0029482 0.010634
0.22624 0.1304 0.0011667 0.0099197
0.00062786 0.00038884 -0.00082386 -0.00044168 -0.00040942 -0.0008632 0.0014862 -0.0023767
0.0011412 0.0098892 0.25382 0.17757
1760000000 0.27485 -0.067928 0.0048682 0.0054939 -0.0021987 0.0011045 0.0011145 -0.0036437
-0.0015232 0.00070981 0.00023073 -0.00048085
0.0048609 0.0054898 0.24569 0.20525 0.00068255 -0.0018108 -0.0013177 0.00028503
-0.00084306 0.00087356 -0.00048095 0.00032901
-0.0021883 0.0011225 0.00065797 -0.0018207 0.20648 -0.23027 0.0012961 0.0010778
-0.00096332 0.0016273 -0.001376 -0.00050221
0.0010702 -0.0036289 -0.0013012 0.00026671 0.0013002 0.0010504 0.2342 -0.046093
0.00011126 0.0092012 -0.00023582 -0.0025734
-0.0015184 0.00068976 -0.00082945 0.00088886 -0.00093437 0.0016264 9.8209e-05 0.0091797
0.24031 0.096261 0.0048093 0.0068381
0.00020763 -0.00051217 -0.00045787 0.00036659 -0.0013256 -0.00045047 -0.00019289 -0.0025096
0.004812 0.0068506 0.26831 0.14109
1820000000 0.25041 -0.1055 0.0045861 0.0019111 4.408e-05 0.0023165 -0.0012529 -0.0030526
-0.0011213 0.0012904 -0.00016298 -5.0203e-05
0.0045711 0.001931 0.25622 0.17527 -0.0015655 -0.00013121 -0.001208 0.0010769
3.9482e-05 0.0011173 -0.0006207 0.00038196
4.5173e-05 0.0022988 -0.0015707 -0.00012378 0.15493 -0.24504 0.0018295 0.00031447
0.00015266 0.002417 -0.0015956 0.00029314
-0.0012419 -0.0030776 -0.0012338 0.0011008 0.0017844 0.00033365 0.20637 -0.092515
0.0017318 0.0076451 -0.0017026 -0.0018257
-0.0011255 0.0012886 2.2548e-05 0.001113 0.00012996 0.0023929 0.0017423 0.0076816
0.25559 0.066201 0.0057001 0.0029661
-0.00014743 -6.4372e-05 -0.00060081 0.00037864 -0.0016005 0.00029023 -0.0017156 -0.0018223
0.005706 0.0029764 0.27159 0.10485
1880000000 0.21588 -0.1447 0.0020634 -0.00020958 -0.00060955 0.0022807 -0.0030735 -0.0020436
-4.016e-05 0.0018293 0.00021699 -0.00068212
0.0020647 -0.00021455 0.26186 0.13019 -0.0034068 0.0023487 -0.0001479 0.0016709
0.00056957 0.0010503 7.5459e-05 0.00080137
-0.00060833 0.0022633 -0.0034243 0.0023566 0.10315 -0.25186 0.0014986 -0.0012509
0.0017443 0.0015839 -0.00095127 0.0015148
-0.0031593 -0.0020081 -0.00015824 0.0016796 0.0015162 -0.0012669 0.1693 -0.13262
0.0027557 0.0052715 -0.0023085 0.00013244
2.5642e-05 0.0018467 0.00059884 0.0010527 0.0017497 0.0015574 0.0027815 0.0052233
0.25857 0.035817 0.0055251 0.00049117
0.00027083 -0.00074641 4.2244e-05 0.00082696 -0.0009566 0.0015309 -0.0023523 0.00010806
0.0054798 0.00050597 0.27261 0.071685
1940000000 0.17795 -0.1714 -0.0004365 -0.0015619 0.0014297 0.0019823 -0.0037502 0.00057408
0.0015665 0.00097892 -0.00070594 -0.00065693
-0.00043265 -0.0015523 0.26468 0.097764 -0.0016639 0.0050124 0.00097247 0.0012053
0.0015731 0.00032706 0.00071248 0.00024317
0.0014631 0.0019555 -0.0016235 0.0050296 0.060277 -0.24401 3e-05 -0.0021962
0.0021231 -3.5009e-05 0.00026356 0.0016072
-0.0036751 0.00059083 0.00097475 0.0012179 2.3834e-05 -0.0021748 0.11946 -0.16649
0.0020378 0.0036532 -0.0014469 0.0011413
0.0015609 0.00096427 0.0015729 0.00030599 0.0021379 -1.433e-05 0.0020272 0.0036769
0.26157 -0.0029125 0.0037858 -0.0031174
-0.00071128 -0.00059945 0.00072089 0.00020762 0.00028283 0.0016042 -0.0014806 0.0012323
0.0037843 -0.0030652 0.26398 0.034872
2000000000 0.13121 -0.18599 -0.003994 0.00069871 0.0029232 0.0015177 -0.0022002 0.0036024
0.0010799 5.4227e-05 -0.00058076 0.00056394
-0.0040062 0.00066822 0.25119 0.061871 -0.00064846 0.0068691 0.0013924 0.00027695
0.0010668 -0.0010092 0.00041658 0.0002101
0.0029337 0.0015501 -0.00062205 0.006863 0.017465 -0.22974 -0.0014119 -0.0010328
0.0017597 -0.0012526 0.0014918 0.0014774
-0.0022373 0.0036874 0.0014118 0.00020698 -0.0014124 -0.0010038 0.065746 -0.17946
0.00050654 0.0026221 -0.00036628 0.0021323
0.001127 7.9084e-05 0.0010517 -0.0010268 0.0017659 -0.0011839 0.00053382 0.0026533
0.25553 -0.03609 2.1182e-05 -0.0038967
