!Keysight Technologies,M9804A,MY58100912,A.14.10.03
!Date: Thursday, April 27, 2023 10:28:33
!Correction: S11(C  6-Port  ) 
!S12(C  6-Port  ) 
!S13(C  6-Port  ) 
!S14(C  6-Port  ) 
!S15(C  6-Port  ) 
!S16(C  6-Port  ) 
!S21(C  6-Port  ) 
!S22(C  6-Port  ) 
!S23(C  6-Port  ) 
!S24(C  6-Port  ) 
!S25(C  6-Port  ) 
!S26(C  6-Port  ) 
!S31(C  6-Port  ) 
!S32(C  6-Port  ) 
!S33(C  6-Port  ) 
!S34(C  6-Port  ) 
!S35(C  6-Port  ) 
!S36(C  6-Port  ) 
!S41(C  6-Port  ) 
!S42(C  6-Port  ) 
!S43(C  6-Port  ) 
!S44(C  6-Port  ) 
!S45(C  6-Port  ) 
!S46(C  6-Port  ) 
!S51(C  6-Port  ) 
!S52(C  6-Port  ) 
!S53(C  6-Port  ) 
!S54(C  6-Port  ) 
!S55(C  6-Port  ) 
!S56(C  6-Port  ) 
!S61(C  6-Port  ) 
!S62(C  6-Port  ) 
!S63(C  6-Port  ) 
!S64(C  6-Port  ) 
!S65(C  6-Port  ) 
!S66(C  6-Port  ) 
!S6P File: Measurement: :
# Hz S  RI   R 50
500000000 -0.3275 -0.055033 -0.010692 -0.001072 -0.0074796 0.012286 -0.0037012 0.011981
0.012574 0.0059304 -0.0046506 0.010081
-0.010955 -0.0010857 -0.40965 -0.069438 0.0083633 -0.011167 0.0012145 0.011826
0.0075503 0.0035051 0.00097129 0.014291
-0.0074885 0.011921 0.0082665 -0.011213 -0.25339 0.19372 0.0068552 0.002899
-0.00072569 0.0091339 0.0017644 0.011936
-0.0041775 0.012237 0.0009424 0.012135 0.0068869 0.0028862 -0.32947 0.043773
-0.018437 -0.0059694 0.014781 0.028153
0.011973 0.00555 0.0076092 0.0030385 -0.00081043 0.0089544 -0.01844 -0.0057686
-0.2566 -0.15836 -0.026857 0.0048447
-0.0046382 0.0095133 0.0013666 0.014178 0.0021637 0.011777 0.014565 0.026995
-0.026329 0.0051693 -0.25875 -0.1441
560000000 -0.31207 0.10876 -0.022838 -0.065643 0.00030723 0.012874 0.005374 0.010861
0.010598 0.0037178 0.011156 0.0083844
-0.022934 -0.065668 -0.36987 0.093915 -0.042256 -0.039037 0.013951 0.0026647
-0.013317 -0.0022202 0.0033802 -0.0011988
0.00047681 0.012882 -0.04252 -0.038811 -0.1784 0.24166 9.7476e-05 -0.0040476
0.016555 0.0024107 0.0084054 -0.0061828
0.005046 0.010441 0.014074 0.0027149 7.6029e-05 -0.003996 -0.30376 0.1346
0.0049926 -0.021976 0.0054979 -0.021436
0.011032 0.0031317 -0.013095 -0.0023521 0.01661 0.0028623 0.0050849 -0.022172
-0.30393 0.016369 0.0080285 -0.047217
0.010843 0.008245 0.0033156 -0.00114 0.0082891 -0.0059804 0.0055874 -0.020975
0.0079993 -0.047981 -0.32732 0.002134
620000000 -0.27207 0.08672 -0.023574 0.0089091 0.0032946 0.0089594 0.0085878 -0.0044606
0.010816 -0.0013265 0.00046592 -0.0019617
-0.023657 0.0089068 -0.39892 0.039473 -0.019914 0.0006806 -0.0016664 -0.0022845
0.011606 -0.0057754 0.00045097 -0.0034285
0.003274 0.0090025 -0.019922 0.00073164 -0.15299 0.25085 -0.00062859 -0.0046305
-0.0043569 -0.0029119 0.008943 -0.002337
0.0083019 -0.0042579 -0.0015081 -0.0021198 -0.00063721 -0.0046211 -0.2623 0.14523
-0.041043 -0.019244 0.013194 0.029406
0.011321 -0.001214 0.011271 -0.006137 -0.0044107 -0.0028689 -0.041222 -0.018969
-0.22972 -0.016552 -0.041348 0.012877
-1.9186e-06 -0.0023704 0.0006823 -0.0035727 0.0090933 -0.0025517 0.013863 0.029163
-0.042415 0.012491 -0.24097 -0.033741
680000000 -0.2363 0.17765 -0.026415 -0.014121 0.0047256 0.0054053 0.001195 -0.006572
-0.0028038 -0.011356 0.0056211 -0.0070713
-0.02649 -0.014301 -0.38916 0.14215 -0.032865 -0.0010081 -0.0016956 -0.00046971
-0.0025043 -0.0091807 -0.00083979 -0.001597
0.004764 0.005491 -0.032922 -0.00088024 -0.10654 0.27437 -0.00088812 -0.00021776
-0.0019016 0.00053353 -0.0029233 -0.0089642
0.0011836 -0.0068671 -0.0015787 -0.00042419 -0.00085811 -0.00025699 -0.22036 0.19858
-0.024878 -0.0064519 -0.0081055 -0.011864
-0.0029089 -0.011245 -0.0025941 -0.0093818 -0.0018881 0.00049958 -0.02492 -0.0065713
-0.26827 0.080904 -0.0068661 -0.0061956
0.0057442 -0.0073158 -0.00055156 -0.0013861 -0.0029081 -0.0090555 -0.0085534 -0.011906
-0.0059237 -0.005809 -0.25983 0.069481
740000000 -0.19082 0.17073 -0.040982 0.02693 0.013562 -0.0041438 0.00019453 -0.0044458
-0.0050117 -0.00055961 -0.0059633 0.0015433
-0.040891 0.026815 -0.33541 0.1608 -0.036185 0.034403 -2.5018e-05 -0.0068044
-0.012213 0.006758 -0.0016139 -0.0057974
0.013486 -0.0040865 -0.036179 0.034663 -0.073114 0.2753 -0.00148 0.0030491
-0.0019191 -0.0045107 -0.0014607 0.00094934
0.00036854 -0.0043684 0.0001925 -0.0066802 -0.0015172 0.0031082 -0.20166 0.20396
-0.041924 -0.005003 0.022231 0.016847
-0.0046318 -0.00047149 -0.011962 0.0070069 -0.0019616 -0.004576 -0.041912 -0.0049774
-0.17709 0.10147 -0.039918 0.0017762
-0.0060723 0.0018668 -0.001766 -0.0060378 -0.0014166 0.00088465 0.022966 0.016483
-0.040712 0.0015678 -0.2514 0.076063
800000000 -0.16383 0.21606 -0.022317 0.016643 0.0055497 -0.0099214 -0.0043461 -0.0022089
-0.0038372 0.0023332 0.0043579 0.00092239
-0.022356 0.016598 -0.34313 0.23246 -0.0080776 0.034842 -0.0022538 0.0021944
-0.00019787 0.0027455 0.00098084 0.0056419
0.0055785 -0.010014 -0.0079868 0.034896 -0.035107 0.30141 0.00070839 0.0012947
0.00036584 0.0035631 -0.0017529 0.00085372
-0.0043638 -0.002371 -0.0022324 0.0021795 0.00068534 0.0012759 -0.17345 0.23349
-0.027479 0.015867 0.015246 -0.010863
-0.0039337 0.0021857 -0.0003557 0.0027847 0.00033434 0.0035357 -0.027471 0.015868
-0.21057 0.13123 -0.017183 0.020802
0.0043989 0.00097176 0.000858 0.0055441 -0.001687 0.00079733 0.01484 -0.010806
-0.017012 0.021162 -0.24833 0.12754
860000000 -0.12801 0.23751 -0.017712 0.030769 -0.0033563 -0.010057 -0.0017191 0.00029451
0.0037892 0.0047576 -0.0036481 -0.0027258
-0.01772 0.03087 -0.29469 0.2775 0.0081254 0.034461 0.00027727 0.001917
0.0040642 0.00083259 0.00327 0.00017503
-0.0033932 -0.0099577 0.0082933 0.03449 0.014525 0.3117 -0.00047261 -0.00034163
0.0025076 -0.0013651 0.0014477 0.0043502
-0.001758 0.00059123 0.00036501 0.001994 -0.00046504 -0.00032913 -0.13479 0.24496
-0.016908 0.020068 -0.0066994 -0.0096994
0.0041632 0.0050513 0.0042052 0.00084443 0.0025355 -0.0013302 -0.016904 0.020163
-0.15566 0.17671 -0.023061 0.017794
-0.0038469 -0.0031339 0.0031008 0.00023262 0.001358 0.0042626 -0.0064809 -0.0097005
-0.023135 0.017418 -0.19764 0.17698
920000000 -0.10515 0.26013 0.0050818 0.039393 -0.0091129 -0.0042176 -0.0017275 0.0018665
0.0011921 0.0014052 0.0028097 -0.0010965
0.0050027 0.039313 -0.26786 0.29825 0.028596 0.022719 0.0015217 0.001224
0.0069523 -0.00056809 0.0041235 -0.0030149
-0.0091334 -0.0042302 0.028704 0.022632 0.060941 0.31303 0.0018119 0.00012817
0.0010082 -0.0004511 0.001013 -0.0014072
-0.0017571 0.0017935 0.0015751 0.0012122 0.0018251 0.00012405 -0.11108 0.2614
-0.008153 0.031386 0.0043893 -0.0061347
0.0011359 0.001397 0.0069611 -0.00054227 0.0010235 -0.0004206 -0.0080583 0.031391
-0.14105 0.18281 -0.001232 0.026985
0.0028088 -0.0013098 0.0040658 -0.0031154 0.0010732 -0.0014293 0.0040776 -0.0062876
-0.0014774 0.026916 -0.20899 0.18846
980000000 -0.058803 0.28267 0.017562 0.030205 -0.0090925 0.0047488 0.0018192 0.0034925
0.0037318 -0.0015852 -0.0036301 -0.0027447
0.017455 0.030166 -0.21566 0.33576 0.033487 0.0047451 0.0019034 -0.00020572
0.0015662 -0.0058596 -0.00063216 -0.0026518
-0.0090787 0.0047804 0.033561 0.0046337 0.10793 0.30868 0.00048081 -0.0011461
0.00025287 -0.0017286 0.001636 -0.00026092
0.0017925 0.0033797 0.0018653 -0.00015537 0.00048185 -0.0011435 -0.071139 0.2735
0.010493 0.029159 -0.0091994 -0.0076096
0.0036872 -0.0017076 0.0014944 -0.0058489 0.00025778 -0.001735 0.010615 0.029091
-0.10747 0.21041 0.0068504 0.019125
-0.0036977 -0.0027068 -0.00064146 -0.0026227 0.001622 -0.00030086 -0.0092553 -0.0076921
0.0067995 0.019283 -0.16778 0.23941
1040000000 -0.016585 0.29055 0.033513 0.018989 -0.00085403 0.007378 0.0023276 0.00045929
0.00014201 -0.0036011 -0.00036134 -0.0012131
0.03346 0.018945 -0.17971 0.34876 0.02976 -0.015023 0.0015707 -0.0018409
-0.0021585 -0.0024043 -0.0012445 -0.0030054
-0.00083187 0.007387 0.029748 -0.015162 0.15545 0.29453 -0.00048817 -0.0014906
-0.0015424 -0.0010772 -0.00068547 -0.0012059
0.0023543 0.00048962 0.0015485 -0.0018511 -0.000478 -0.0014777 -0.042565 0.28189
0.02181 0.016683 -0.0018604 0.0011802
0.00018142 -0.0036166 -0.0023099 -0.0023449 -0.0015186 -0.0010496 0.0219 0.016698
-0.075434 0.21542 0.015052 0.018029
-0.00035138 -0.0013194 -0.0012543 -0.0028492 -0.0006789 -0.0011405 -0.0017716 0.0012409
0.0152 0.017933 -0.14665 0.25831
1100000000 0.027557 0.30105 0.036856 -0.0038791 0.0035634 0.003923 0.0022346 -0.0010596
-0.0020806 -0.0028198 -0.0040124 -4.2171e-06
0.036794 -0.0038187 -0.13734 0.36861 0.015167 -0.028209 -0.00021196 -0.0018352
-0.0033545 -0.00060339 -0.003735 -0.00068584
0.0035661 0.0039229 0.015077 -0.028296 0.20138 0.27499 -0.0018262 0.00022647
-0.0016605 0.00062764 -0.0010184 -0.00066913
0.0021911 -0.0011428 -0.00020811 -0.0018792 -0.0018386 0.00022603 -0.0021146 0.28698
0.025861 0.0023227 -0.0021769 -0.00048749
-0.0021391 -0.0027595 -0.0033828 -0.00056697 -0.0016752 0.00061867 0.025866 0.0023291
-0.054458 0.22723 0.01958 0.0070319
-0.0040165 -0.00019407 -0.0037007 -0.0007802 -0.0010572 -0.00072317 -0.0024262 -0.00048815
0.019491 0.007034 -0.10177 0.2932
1160000000 0.079698 0.29754 0.024636 -0.021035 0.0033189 -0.00091349 -0.00028383 -0.0022323
-0.0040289 -0.00070994 -0.00098694 0.0041555
0.024645 -0.021014 -0.091537 0.37332 -0.0041566 -0.029045 -0.0015499 -0.0015022
-0.0025379 0.0024944 -0.0015743 0.0020296
0.0033189 -0.00090382 -0.0042752 -0.029059 0.24615 0.24427 -0.00068888 0.0016313
-0.00052944 0.0016307 -0.0011517 0.00023651
-0.00029912 -0.0022375 -0.0015689 -0.0014532 -0.00069529 0.0016427 0.039621 0.28294
0.02099 -0.012895 -0.0037998 0.0044206
-0.0039534 -0.00067503 -0.0025855 0.0024883 -0.00051237 0.0016431 0.021024 -0.012919
-0.019399 0.23499 0.018284 -0.0018717
-0.00098445 0.0040664 -0.0015914 0.0020467 -0.0010992 0.00035437 -0.0036895 0.0044737
0.018537 -0.0020158 -0.053059 0.29633
1220000000 0.12307 0.28692 0.011096 -0.030653 -0.0013951 -0.0015194 -2.2608e-05 -0.00085637
-0.0024158 0.0022771 0.0012382 0.0018978
0.011106 -0.030609 -0.04829 0.38635 -0.017238 -0.021056 -0.002584 0.00051403
2.7617e-05 0.0029453 -0.00083995 0.0020329
-0.0014032 -0.0015115 -0.017343 -0.021001 0.28491 0.20455 0.00076071 0.0016071
0.00054166 0.0011348 0.00012897 0.00068853
-5.9914e-06 -0.00086564 -0.0025888 0.00055038 0.00077441 0.001604 0.079035 0.27214
0.0096514 -0.019353 0.0016042 0.00097014
-0.0024031 0.0022774 4.5342e-05 0.0029391 0.00054928 0.0011289 0.0095907 -0.019365
0.0062965 0.24109 0.013116 -0.013716
0.0012148 0.0019526 -0.00079819 0.0020831 9.5313e-05 0.00062756 0.0017706 0.00095974
0.013056 -0.013658 -0.024198 0.31407
1280000000 0.17378 0.26791 -0.0079662 -0.029246 -0.0020604 0.001803 -0.00083671 -0.0018254
-0.00074135 0.0030864 0.0024335 0.0012603
-0.0079509 -0.029226 -0.0014677 0.37869 -0.024091 -0.0079633 -0.00089476 0.0014332
0.0016628 0.0017072 0.00057232 0.0019978
-0.0020604 0.0018049 -0.02416 -0.0078483 0.3158 0.16168 0.0015015 3.0144e-05
0.0010226 0.00031338 0.00025499 0.00048343
-0.00083081 -0.0018426 -0.00091525 0.0013983 0.0014938 1.3914e-05 0.11569 0.25465
-0.00096887 -0.021139 -0.00086435 0.00028216
-0.0007511 0.0030913 0.0016353 0.0016962 0.0010281 0.00030824 -0.00096894 -0.021118
0.043154 0.24312 0.0021498 -0.015309
0.0024849 0.0013117 0.00058989 0.0020363 0.00018135 0.00041197 -0.00092514 0.00016891
0.0023258 -0.015289 0.024569 0.31849
1340000000 0.21175 0.23357 -0.017706 -0.019409 0.00020149 0.0042877 -0.0015984 -0.00077173
0.0015011 0.0025573 0.0017875 -0.0012477
-0.017673 -0.019404 0.038069 0.37028 -0.021038 0.0047732 -0.00027038 0.0020447
0.0018332 0.00086308 0.0012371 0.00075332
0.00022166 0.0042754 -0.021035 0.0048741 0.33885 0.11256 0.0011017 -0.00091737
0.00068339 -0.00053517 0.0001952 0.00038314
-0.0016487 -0.00074305 -0.00026314 0.0020516 0.0011085 -0.00090894 0.14767 0.23138
-0.010586 -0.017292 0.00033533 0.0008278
0.0015198 0.0025265 0.0018512 0.00083761 0.00068756 -0.00052302 -0.010651 -0.017252
0.074226 0.23535 -0.0046536 -0.013867
0.0017188 -0.0014415 0.0012638 0.0007635 0.0003307 0.00027824 0.00037388 0.0010663
-0.0046537 -0.013983 0.062875 0.31504
1400000000 0.24492 0.19649 -0.023985 -0.007823 0.0047016 0.0032459 -0.0021114 0.00059468
0.0023583 0.00092622 0.00031039 -0.0012417
-0.023958 -0.007825 0.074764 0.35814 -0.014275 0.012586 0.0013081 0.0014638
0.0013277 -0.00071817 0.0010773 0.00019361
0.0047068 0.0032196 -0.014235 0.01267 0.35142 0.058732 4.1141e-05 -0.0015069
0.00017922 -0.00035971 0.00042146 0.00033993
-0.0020887 0.00057622 0.0013329 0.0014512 5.2819e-05 -0.0014891 0.17462 0.20174
-0.016507 -0.0096127 -0.00097441 0.00042682
0.0023454 0.00092115 0.0013328 -0.00071869 0.00019454 -0.00035441 -0.016534 -0.0095533
0.10643 0.2289 -0.01048 -0.0083876
0.00034539 -0.0012547 0.0010662 0.00018593 0.00031999 0.00037098 -0.00083845 0.00020521
-0.010362 -0.0081823 0.10818 0.30635
1460000000 0.26891 0.15294 -0.020796 0.0049091 0.0051509 -0.0014646 -0.0015786 0.0016461
0.0021525 -0.00052818 -0.00029155 -0.0008857
-0.020776 0.0049326 0.1097 0.33673 -0.0053368 0.015155 0.0018464 0.00027615
0.00094464 -0.0013888 0.0012134 -0.00050765
0.0051715 -0.0014679 -0.0052723 0.015193 0.35821 0.0037059 -0.0010787 -0.0014196
6.498e-05 -0.0003862 0.00069552 -0.00026727
-0.0015948 0.0016235 0.001845 0.00027519 -0.0010852 -0.0014271 0.19959 0.17278
-0.01747 -0.0021599 -0.00046543 0.0025772
0.0021664 -0.00050976 0.00095438 -0.0014309 3.0956e-05 -0.00037758 -0.017478 -0.0021411
0.1366 0.21265 -0.012177 -0.0022853
-0.00031661 -0.00084009 0.0012324 -0.00050162 0.00079665 -0.00032019 -0.0005867 0.0025332
-0.01216 -0.0024171 0.14258 0.28668
1520000000 0.28067 0.11079 -0.015111 0.0105 0.0032654 -0.0037204 4.9219e-05 0.0026007
0.0021341 -0.0017177 -0.00097981 -0.00015076
-0.015096 0.010474 0.14294 0.32238 0.0020046 0.012481 0.0018329 -0.00081134
9.7263e-05 -0.0011221 0.00037052 -0.00094332
0.0032586 -0.0037428 0.0020879 0.012469 0.35 -0.05432 -0.001106 -0.00051987
0.00055683 -0.00080113 0.00021692 -0.00012489
3.6032e-05 0.0026434 0.0018355 -0.00079306 -0.0010969 -0.00049324 0.22051 0.13458
-0.01614 0.0041412 0.0019262 0.0020949
0.0021049 -0.0017691 7.8994e-05 -0.0011083 0.00055069 -0.00080556 -0.016123 0.0042265
0.16359 0.19667 -0.011656 0.0019882
-0.0010896 -0.00014262 0.00035408 -0.00096675 0.00020714 -0.00015448 0.0019781 0.0020783
-0.01171 0.0019551 0.17568 0.26715
1580000000 0.29024 0.066319 -0.0082734 0.013941 -0.00090407 -0.0044874 0.001545 0.0020092
-0.00011723 -0.0021881 -0.00023087 0.00037327
-0.0082787 0.013934 0.17009 0.29911 0.0052629 0.0074236 0.000612 -0.0017438
-0.00066194 -0.0010776 -0.00020815 -0.00077175
-0.00092676 -0.0045004 0.0053224 0.0074013 0.32849 -0.11059 -0.0017099 0.00058418
-0.00043476 -0.0011503 0.00027593 -0.00063485
0.0015692 0.0019561 0.0006268 -0.0017576 -0.0016859 0.00058931 0.23257 0.097503
-0.012 0.0092325 0.0025635 0.00046767
-0.00010317 -0.002134 -0.00068417 -0.0010773 -0.00047486 -0.0011455 -0.011964 0.0092436
0.18681 0.1785 -0.0088974 0.0075592
-0.00012847 0.00034234 -0.000138 -0.00075967 0.00028328 -0.00048257 0.0026021 0.00040792
-0.0089092 0.0077288 0.20915 0.24282
1640000000 0.29321 0.024785 -0.0012758 0.012698 -0.0026135 -0.002213 0.0029095 0.0010381
-0.00060636 -0.0016461 -0.00033275 0.00049208
-0.0012701 0.012664 0.20082 0.27442 0.0055566 0.0027411 -0.00066493 -0.0019701
-0.00109 -0.00028388 -0.00042649 -0.00067306
-0.0025977 -0.0022265 0.0055918 0.0027107 0.29928 -0.16052 -0.0006266 0.0015791
-0.0009836 -0.00076538 -0.00018546 -0.00048218
0.0028638 0.0010367 -0.00070706 -0.0019645 -0.00065175 0.0015987 0.24449 0.050116
-0.0072629 0.010559 0.0025366 -0.00099179
-0.00060942 -0.001652 -0.0010961 -0.00025962 -0.00098466 -0.00075788 -0.0072631 0.010551
0.20911 0.15191 -0.0042771 0.0094902
-0.00036871 0.00047764 -0.00047933 -0.00065186 -0.00017855 -0.00051139 0.0024383 -0.0011273
-0.0042427 0.0093184 0.23658 0.21206
1700000000 0.2855 -0.019597 0.002312 0.0097136 -0.0031412 0.00018112 0.0031645 -0.0013161
-0.0021628 -0.0006762 0.00056539 0.000382
0.0023138 0.0097117 0.21824 0.24408 0.0032297 5.3423e-05 -0.0016809 -0.00058597
-0.00077774 0.00018163 -0.00082449 -0.00041944
-0.0031539 0.00024084 0.0032342 4.1328e-05 0.25368 -0.19889 0.00045932 0.0017037
-0.0018409 -6.0304e-05 -0.00034797 -0.00075265
0.0031795 -0.0013074 -0.0016713 -0.0005819 0.00045781 0.0017116 0.24097 0.0032077
-0.0039099 0.010879 0.0015121 -0.0020956
-0.0021674 -0.00065642 -0.00079441 0.00019004 -0.0018617 -5.5526e-05 -0.0039226 0.010913
0.22517 0.13058 0.0004746 0.0095203
0.00062037 0.00038534 -0.00080495 -0.00040576 -0.00047124 -0.00069293 0.0014696 -0.0019237
0.0004044 0.0095759 0.25338 0.1783
1760000000 0.27534 -0.067588 0.0047265 0.0062694 -0.001934 0.00093396 0.0011796 -0.0035339
-0.0016245 0.00066544 0.00017029 -0.00042287
0.0047483 0.0062799 0.24618 0.20543 0.00078361 -0.001402 -0.0013049 0.00028041
-0.00089516 0.0010094 -0.00052653 0.00035009
-0.0019412 0.00093501 0.0007705 -0.0014092 0.20514 -0.23007 0.0013292 0.0011338
-0.0010414 0.0015607 -0.001187 -0.00065916
0.0011297 -0.0036192 -0.00134 0.00027912 0.0012998 0.0011242 0.23476 -0.045694
-0.00034206 0.010027 -0.00029804 -0.002445
-0.0015831 0.00064499 -0.00089091 0.00099616 -0.0010267 0.0015444 -0.00027213 0.0099972
0.23953 0.097033 0.0040964 0.0066267
0.00021853 -0.00046299 -0.00049819 0.00033709 -0.0011913 -0.00080154 -7.7058e-05 -0.0026666
0.004201 0.0065814 0.2677 0.14172
1820000000 0.2509 -0.10565 0.0048635 0.0025408 0.00016322 0.0019899 -0.0011367 -0.0031933
-0.0011947 0.0011968 -8.5306e-05 -7.6573e-05
0.004846 0.0025319 0.25661 0.17513 -0.0012517 -2.6165e-06 -0.0012727 0.0010368
0.00015696 0.0011392 -0.00062415 0.00037275
0.00012803 0.0020186 -0.0012686 -3.8838e-06 0.15432 -0.24494 0.0017571 7.764e-05
-3.6243e-06 0.0022825 -0.0016164 0.00026824
-0.0011626 -0.0031234 -0.0012801 0.0010562 0.001721 8.9406e-05 0.20685 -0.092849
0.0017312 0.0080469 -0.0015402 -0.0016972
-0.0011664 0.0012545 0.00016144 0.001128 -1.5474e-05 0.0022814 0.0017236 0.0080447
0.25519 0.066897 0.0047687 0.0031723
-6.8941e-05 1.7261e-07 -0.00065116 0.0004118 -0.0016104 0.00029706 -0.0018969 -0.0016591
0.0046433 0.0030762 0.27121 0.10531
1880000000 0.21594 -0.14503 0.0025339 0.0001698 -0.00055412 0.0020983 -0.0030941 -0.0021355
6.5852e-05 0.0018638 0.00032722 -0.00047324
0.0025157 0.00015354 0.26203 0.12997 -0.0031214 0.0024041 -0.00015877 0.0016999
0.00066564 0.0010236 4.4571e-05 0.00091993
-0.00052607 0.0020859 -0.0030978 0.0024312 0.10262 -0.2514 0.0014186 -0.0011322
0.0015522 0.0017127 -0.0010492 0.0014492
-0.0031363 -0.0021161 -0.00011502 0.0016908 0.001467 -0.0011494 0.16933 -0.13271
0.0026696 0.0058891 -0.0024025 0.00016067
1.343e-05 0.0018549 0.00069464 0.0010385 0.0015587 0.0017427 0.0026872 0.0059582
0.25807 0.0369 0.0048373 0.00099895
0.00034357 -0.00055544 7.1691e-05 0.00082765 -0.0010664 0.0015165 -0.00218 0.00035454
0.0048735 0.001131 0.27159 0.072631
1940000000 0.17788 -0.172 0.00020754 -0.0015442 0.0014046 0.0020535 -0.0036872 0.00048508
0.0015687 0.0010673 -0.00060016 -0.00076308
0.00021991 -0.0015435 0.26472 0.097472 -0.0015238 0.005023 0.0010686 0.0012597
0.0015965 0.00031626 0.00063834 0.00024433
0.0013927 0.0020133 -0.0015117 0.0050264 0.059358 -0.24355 0.00024605 -0.0019134
0.0022073 0.00027472 7.8038e-05 0.0017763
-0.0038246 0.00037664 0.0010418 0.0012577 0.00022771 -0.0019306 0.11978 -0.16705
0.0025811 0.0039508 -0.0013486 0.0012818
0.0015914 0.00091926 0.0015555 0.00027189 0.0021811 0.00025648 0.0025907 0.003892
0.26179 -0.0019235 0.0033621 -0.0023433
-0.00063464 -0.00066918 0.00068003 0.00032489 -1.2641e-05 0.0017542 -0.001329 0.001011
0.0034286 -0.0024597 0.26274 0.035777
2000000000 0.13086 -0.18621 -0.0035638 0.00035102 0.0027202 0.0014916 -0.0024379 0.0035912
0.0012505 -4.1599e-05 -0.00073936 0.00040317
-0.0036086 0.00041093 0.25093 0.061578 -0.00060542 0.0068977 0.0013715 0.00023264
0.001054 -0.0012609 0.00051917 0.0002448
0.0028119 0.0015237 -0.00055192 0.0069141 0.017203 -0.22835 -0.0014199 -0.0010857
0.0019379 -0.0013564 0.0017116 0.0017703
-0.0023484 0.0036782 0.0014188 0.0002398 -0.0013535 -0.0010454 0.065719 -0.17967
0.00097336 0.0027895 0.00010016 0.001958
0.0012345 8.0735e-05 0.0010543 -0.0012642 0.0018905 -0.0013378 0.0010043 0.0027603
0.25628 -0.035101 0.00046509 -0.0029664
