!Keysight Technologies,M9804A,MY58100912,A.14.10.03
!Date: Thursday, April 27, 2023 10:28:33
!Correction: S11(C  6-Port  ) 
!S12(C  6-Port  ) 
!S13(C  6-Port  ) 
!S14(C  6-Port  ) 
!S15(C  6-Port  ) 
!S16(C  6-Port  ) 
!S21(C  6-Port  ) 
!S22(C  6-Port  ) 
!S23(C  6-Port  ) 
!S24(C  6-Port  ) 
!S25(C  6-Port  ) 
!S26(C  6-Port  ) 
!S31(C  6-Port  ) 
!S32(C  6-Port  ) 
!S33(C  6-Port  ) 
!S34(C  6-Port  ) 
!S35(C  6-Port  ) 
!S36(C  6-Port  ) 
!S41(C  6-Port  ) 
!S42(C  6-Port  ) 
!S43(C  6-Port  ) 
!S44(C  6-Port  ) 
!S45(C  6-Port  ) 
!S46(C  6-Port  ) 
!S51(C  6-Port  ) 
!S52(C  6-Port  ) 
!S53(C  6-Port  ) 
!S54(C  6-Port  ) 
!S55(C  6-Port  ) 
!S56(C  6-Port  ) 
!S61(C  6-Port  ) 
!S62(C  6-Port  ) 
!S63(C  6-Port  ) 
!S64(C  6-Port  ) 
!S65(C  6-Port  ) 
!S66(C  6-Port  ) 
!S6P File: Measurement: :
# Hz S  RI   R 50
500000000 -0.32753 -0.056556 -0.010872 -0.0014178 -0.0085998 0.012628 -0.0035169 0.012296
0.012961 0.0050181 -0.0032502 0.0095503
-0.011146 -0.000875 -0.40967 -0.070732 0.0074869 -0.010912 0.00045438 0.011655
0.0088005 0.0027703 0.001168 0.013105
-0.008252 0.012654 0.0072633 -0.01085 -0.25551 0.19428 0.0062406 0.002523
-0.00080956 0.0086608 0.00092318 0.01007
-0.004039 0.012174 0.00041953 0.011778 0.0067137 0.0026042 -0.32936 0.044175
-0.019999 -0.0053475 0.014826 0.029824
0.012527 0.0057142 0.00843 0.0030752 -0.0012462 0.0087748 -0.019971 -0.0053217
-0.2553 -0.16079 -0.029099 0.0057146
-0.0045044 0.0097199 0.00081947 0.01284 0.0013616 0.010236 0.015597 0.028629
-0.028535 0.0060487 -0.257 -0.14623
560000000 -0.31267 0.10783 -0.022468 -0.064774 1.4162e-05 0.012385 0.0038887 0.011343
0.010398 0.0037257 0.011505 0.0090312
-0.02258 -0.065163 -0.37105 0.093588 -0.040516 -0.038796 0.013209 0.0028477
-0.012192 -0.0031894 0.0036817 -0.000219
0.00057937 0.013092 -0.041467 -0.038915 -0.17886 0.24335 -0.00053768 -0.0049043
0.016613 0.0040794 0.0080157 -0.0071336
0.0049128 0.010931 0.013833 0.0031339 -0.0005817 -0.0049266 -0.30516 0.13665
0.0052321 -0.02322 0.0052791 -0.020697
0.011366 0.0037173 -0.011765 -0.0033404 0.01747 0.0038663 0.0052377 -0.022567
-0.30623 0.012505 0.007514 -0.047565
0.011381 0.0086017 0.0039032 0.00033473 0.0078497 -0.0066005 0.005234 -0.020645
0.0073192 -0.048223 -0.32649 0.00032975
620000000 -0.27256 0.086659 -0.023397 0.0091344 0.0037172 0.0089919 0.0081929 -0.0037359
0.011807 -0.0022348 0.00032147 -0.0017675
-0.023751 0.0094005 -0.3996 0.039294 -0.019387 0.00096536 -0.00099411 -0.0016541
0.011252 -0.0066343 0.00092528 -0.0024397
0.0033925 0.0091272 -0.019349 0.0011104 -0.15277 0.25104 -0.00081496 -0.0050774
-0.0035277 -0.0027736 0.009893 -0.0030802
0.0078483 -0.0038942 -0.0011072 -0.0021153 -0.00077902 -0.0051738 -0.26378 0.14412
-0.037636 -0.01801 0.014639 0.028126
0.012751 -0.0014923 0.011552 -0.006081 -0.0035446 -0.0026101 -0.038108 -0.017671
-0.23603 -0.01943 -0.043023 0.016339
0.0014563 -0.0015021 0.0012963 -0.00296 0.009735 -0.0032778 0.015286 0.028385
-0.042109 0.016917 -0.23843 -0.034429
680000000 -0.23774 0.17675 -0.026671 -0.014015 0.0051026 0.0054284 0.0015366 -0.0068536
-0.0021365 -0.01087 0.0057911 -0.0071369
-0.026329 -0.014309 -0.38936 0.14199 -0.032365 -0.0010319 -0.0014549 -0.00064568
-0.0021653 -0.008959 -0.00027549 -0.0020405
0.0049954 0.0052011 -0.032492 -0.0010237 -0.10587 0.27441 -0.00059956 -0.00037884
-0.0021286 0.00068303 -0.003051 -0.0088007
0.0013869 -0.0071351 -0.0014611 -0.0003423 -0.0007539 -0.00015981 -0.21984 0.19956
-0.025381 -0.0063636 -0.0090179 -0.011646
-0.0024567 -0.010796 -0.0021508 -0.009395 -0.0018007 0.00057632 -0.025576 -0.0065849
-0.26984 0.079949 -0.005948 -0.0065436
0.0053108 -0.0071973 -0.00031026 -0.002185 -0.0029068 -0.0088002 -0.0089377 -0.011692
-0.0060748 -0.0064082 -0.26214 0.065621
740000000 -0.19137 0.17077 -0.040251 0.027202 0.013352 -0.0043479 0.00014092 -0.0039921
-0.0043669 -0.002099 -0.006812 0.0024776
-0.040144 0.02689 -0.33414 0.16139 -0.036748 0.03449 0.00036937 -0.005678
-0.012362 0.0068787 -0.00027337 -0.0053751
0.013272 -0.0041095 -0.036668 0.034769 -0.072273 0.27386 -0.002135 0.0030159
-0.0021213 -0.0051774 -0.0022111 0.0015637
0.00018307 -0.0040905 0.00040976 -0.0059639 -0.0020729 0.0030269 -0.20255 0.20487
-0.041341 -0.0044231 0.023291 0.017127
-0.0050333 -0.0021424 -0.011677 0.0074573 -0.0025153 -0.0049773 -0.040686 -0.0040406
-0.17802 0.10119 -0.041027 0.0021335
-0.0059867 0.002551 -0.0012474 -0.0060841 -0.0018939 0.0014151 0.022665 0.016678
-0.041268 0.0017813 -0.24981 0.075015
800000000 -0.16394 0.21612 -0.021963 0.016691 0.0056643 -0.0099969 -0.0040273 -0.0025892
-0.0040081 0.0022996 0.0047114 0.00011003
-0.02211 0.016738 -0.34299 0.23241 -0.0081717 0.034577 -0.0023057 0.0018482
-0.00072572 0.0029796 0.0013945 0.0051744
0.005411 -0.010063 -0.0080507 0.034594 -0.034727 0.30076 0.00069187 0.001305
0.00030325 0.0036172 -0.0016166 0.00043794
-0.0041206 -0.002582 -0.0023251 0.0019968 0.00073665 0.0013485 -0.17291 0.234
-0.027175 0.015059 0.014644 -0.01044
-0.004421 0.0021296 -0.0008203 0.0026732 0.00029137 0.0036379 -0.027342 0.01501
-0.21254 0.13108 -0.01621 0.020639
0.0048079 0.00043847 0.00085598 0.005419 -0.0015321 0.00083472 0.014472 -0.010236
-0.016287 0.020742 -0.25142 0.12421
860000000 -0.1278 0.23716 -0.017418 0.030736 -0.0033469 -0.0098426 -0.0018899 0.00030695
0.0040163 0.0049751 -0.0038527 -0.0032971
-0.017323 0.030619 -0.29451 0.2768 0.0080126 0.034434 0.00027903 0.00212
0.0035814 0.00081572 0.0031004 0.00022902
-0.0031063 -0.0098347 0.0081966 0.034329 0.014328 0.31094 -0.00042238 -0.00015923
0.002429 -0.0011692 0.0013295 0.0042148
-0.0018658 0.00052852 0.00018244 0.0021786 -0.00046663 -0.00017003 -0.13492 0.24448
-0.016569 0.020692 -0.0071597 -0.0094553
0.0042418 0.0049326 0.0038437 0.00079572 0.0024434 -0.0012599 -0.016498 0.020659
-0.15561 0.17577 -0.022324 0.016579
-0.0039823 -0.0030452 0.0033353 -5.4409e-05 0.0013875 0.0041566 -0.0065757 -0.0093548
-0.02223 0.016788 -0.20055 0.17539
920000000 -0.10516 0.26003 0.0051115 0.039295 -0.009098 -0.0044384 -0.0016842 0.0016124
0.00097236 0.0016471 0.0031 -0.0011615
0.0050749 0.039195 -0.26774 0.2975 0.02852 0.02249 0.0015381 0.0012255
0.0068438 -0.00091324 0.0040439 -0.0025483
-0.0091363 -0.0043785 0.028572 0.022484 0.060495 0.31239 0.0019723 5.7671e-05
0.00080536 -0.00043279 0.0010532 -0.0013913
-0.0017784 0.0015859 0.0015531 0.0011876 0.0019577 3.2967e-05 -0.11057 0.261
-0.0082257 0.031034 0.0044067 -0.0064622
0.0010571 0.001705 0.0067415 -0.00070666 0.0009971 -0.00034786 -0.0081967 0.031016
-0.14224 0.18241 -0.0012122 0.027244
0.0029802 -0.0013293 0.0040282 -0.0026164 0.001031 -0.001474 0.0044692 -0.0067662
-0.0010672 0.026893 -0.20968 0.18643
980000000 -0.058972 0.28224 0.017461 0.029842 -0.0091117 0.0045774 0.0016538 0.0036292
0.003283 -0.0017205 -0.0031712 -0.0025761
0.017375 0.030032 -0.21565 0.33508 0.033421 0.0048012 0.0019327 -0.00012992
0.0014799 -0.0058386 -0.00017128 -0.002727
-0.0090406 0.00464 0.033469 0.0046769 0.10737 0.30812 0.00058762 -0.0011183
0.00033961 -0.0018609 0.0015399 -0.00025705
0.0015447 0.0034566 0.0019933 -0.00025529 0.00058909 -0.0011186 -0.071543 0.2731
0.010369 0.029075 -0.009203 -0.0075453
0.0034411 -0.0015242 0.0015378 -0.0057266 0.00026216 -0.0018509 0.010425 0.029113
-0.10897 0.20885 0.0072526 0.019254
-0.0029638 -0.0028098 -0.00015231 -0.0027061 0.0016251 -0.00018471 -0.0092049 -0.0074696
0.007065 0.019347 -0.16995 0.23746
1040000000 -0.016865 0.2901 0.033469 0.019141 -0.0010672 0.0073558 0.0024067 0.00056008
0.00037871 -0.0033843 -3.4768e-05 -0.0013605
0.033309 0.019136 -0.17989 0.34817 0.029656 -0.014997 0.0015987 -0.0017112
-0.0023131 -0.0023817 -0.0010546 -0.0029974
-0.0010063 0.0073842 0.029659 -0.015082 0.15481 0.29421 -0.00050303 -0.0015128
-0.0015546 -0.00098997 -0.00061247 -0.0011779
0.002395 0.00069304 0.0015715 -0.0016671 -0.00052093 -0.0014987 -0.042323 0.28146
0.021397 0.016645 -0.001436 0.0014762
0.00048772 -0.0036519 -0.002388 -0.0023713 -0.0014957 -0.00099579 0.021419 0.016614
-0.075007 0.21464 0.014559 0.017295
-0.00023285 -0.001506 -0.0010507 -0.0029519 -0.00059806 -0.0012438 -0.0015298 0.0015296
0.014495 0.017306 -0.14832 0.25789
1100000000 0.026957 0.30044 0.036724 -0.0039491 0.0033892 0.0038944 0.0021916 -0.00092587
-0.0021407 -0.0028217 -0.0040119 -0.00012891
0.036658 -0.0039003 -0.13764 0.36806 0.015124 -0.028213 -0.00010591 -0.0017359
-0.0034324 -0.00072683 -0.0037485 -0.00081788
0.0034184 0.0039056 0.015036 -0.028267 0.20074 0.27482 -0.0017953 0.00014897
-0.0016108 0.00055764 -0.0010735 -0.00055253
0.0022588 -0.00091674 -4.7238e-05 -0.0018099 -0.001807 0.00013126 -0.0023392 0.28621
0.025812 0.0027389 -0.0021242 -0.00090051
-0.0022728 -0.0029082 -0.0034518 -0.00070547 -0.0016618 0.00057248 0.025762 0.0026578
-0.055492 0.22663 0.020183 0.0073043
-0.0039794 -9.5014e-05 -0.0037441 -0.00073135 -0.0010725 -0.00055201 -0.0021499 -0.00073235
0.020228 0.007463 -0.10393 0.29159
1160000000 0.079012 0.29728 0.024388 -0.020926 0.0032095 -0.00082991 -0.00010698 -0.0022201
-0.0037775 -0.00066471 -0.0011046 0.0042909
0.024382 -0.020932 -0.092259 0.37279 -0.0040542 -0.02904 -0.0015865 -0.0016947
-0.0026118 0.0025821 -0.0013819 0.0019756
0.0032046 -0.00083188 -0.004143 -0.028989 0.24531 0.24428 -0.00079839 0.0017453
-0.00053074 0.0017977 -0.00087938 0.00028563
-0.0001674 -0.0022533 -0.0015819 -0.0016771 -0.00075787 0.001765 0.039029 0.28257
0.021079 -0.012923 -0.0038882 0.0042551
-0.0038501 -0.00062078 -0.0025902 0.0024561 -0.00050743 0.0017734 0.021055 -0.012933
-0.01974 0.23404 0.018141 -0.0015357
-0.0012675 0.0045096 -0.0015918 0.0018566 -0.00095698 0.00030783 -0.0037885 0.0043519
0.018169 -0.0016173 -0.053713 0.29629
1220000000 0.12242 0.28675 0.011052 -0.03054 -0.0014442 -0.0013939 0.00013817 -0.00083094
-0.0026217 0.0021451 0.0012791 0.0019961
0.011042 -0.030482 -0.048957 0.38614 -0.017159 -0.021105 -0.0025988 0.00039451
-2.4004e-05 0.003037 -0.0007993 0.0019003
-0.0014347 -0.0014112 -0.017255 -0.021046 0.2843 0.20474 0.00076706 0.0016857
0.00067283 0.0011601 9.4034e-05 0.00057168
6.4234e-05 -0.0007365 -0.0026007 0.00042988 0.00076771 0.0017027 0.078254 0.27204
0.0096346 -0.019421 0.0014856 0.001185
-0.0026583 0.0022477 -6.4153e-06 0.0030901 0.00060816 0.001143 0.0096408 -0.019373
0.0051821 0.23996 0.012941 -0.013718
0.001335 0.0019705 -0.00077562 0.0019835 7.0545e-05 0.00064875 0.0016182 0.0010993
0.012869 -0.013534 -0.026076 0.31364
1280000000 0.17311 0.26783 -0.0080054 -0.029121 -0.0020296 0.0019898 -0.00075231 -0.0019695
-0.00075517 0.0031196 0.0026176 0.0013991
-0.0080147 -0.029092 -0.0021631 0.37868 -0.024133 -0.007982 -0.00097854 0.0014255
0.0017837 0.0018482 0.00059696 0.0021812
-0.0020144 0.0019683 -0.024207 -0.0078799 0.3153 0.16191 0.0015427 5.2151e-05
0.0010939 0.00017747 0.00016721 0.00027745
-0.00079925 -0.0019593 -0.00097478 0.0014491 0.0015162 2.6593e-05 0.11514 0.25474
-0.00072329 -0.020944 -0.00082246 0.00016685
-0.00072822 0.0032539 0.0018224 0.0018437 0.0010928 0.00021222 -0.00075339 -0.020982
0.042123 0.2431 0.0022265 -0.015508
0.0026404 0.0015376 0.0006795 0.0021219 0.00020589 0.00026559 -0.0010864 0.00027214
0.0021683 -0.015641 0.022334 0.3193
1340000000 0.21117 0.23404 -0.017665 -0.019291 0.00039467 0.0042835 -0.0016531 -0.00089049
0.0014516 0.0025797 0.0018316 -0.0014898
-0.017641 -0.019232 0.037445 0.37054 -0.021109 0.0047367 -0.00027129 0.0020839
0.0019072 0.00081148 0.0011085 0.00079128
0.0003628 0.0043109 -0.021111 0.0048419 0.33832 0.11301 0.0010903 -0.00090944
0.0005844 -0.00048368 0.00010104 0.00034076
-0.0016165 -0.00086693 -0.00025396 0.0021051 0.0011405 -0.00090577 0.14723 0.23187
-0.010513 -0.017231 0.00056802 0.001423
0.0015571 0.0026655 0.0018833 0.00084758 0.00061503 -0.00050643 -0.01055 -0.017207
0.072984 0.2351 -0.0046769 -0.013876
0.0017926 -0.0014859 0.0012249 0.00081782 0.00011074 0.00039413 0.00061515 0.0014049
-0.0047174 -0.013773 0.06134 0.31498
1400000000 0.24443 0.19693 -0.023885 -0.0077107 0.0048294 0.0031892 -0.0021242 0.00051201
0.0023562 0.0010085 0.000556 -0.0013095
-0.023874 -0.0077229 0.074356 0.35862 -0.014331 0.012636 0.0013921 0.0015465
0.0013675 -0.00065004 0.0012376 0.00020619
0.0048444 0.0032294 -0.014258 0.012699 0.3513 0.059309 0.00012526 -0.0015483
0.00018752 -0.000337 0.00029389 0.00021538
-0.0020864 0.00051749 0.0013943 0.001539 0.00012591 -0.001537 0.1745 0.20215
-0.016572 -0.0098516 -0.00097394 0.00034256
0.0024729 0.00099316 0.0013901 -0.0006681 0.00017524 -0.00035073 -0.016543 -0.0097907
0.10511 0.2289 -0.010554 -0.0083694
0.00048659 -0.0014308 0.0011938 0.00017769 0.00035368 0.00024885 -0.00095774 0.00038998
-0.010577 -0.0083839 0.10649 0.3068
1460000000 0.26872 0.15359 -0.020683 0.0050276 0.0052582 -0.0015654 -0.0016503 0.0017389
0.0020749 -0.00050001 -0.00027359 -0.00081396
-0.020691 0.0049949 0.10944 0.33729 -0.0053467 0.015217 0.0018538 0.00028596
0.00098713 -0.0015579 0.0011504 -0.00048794
0.0052654 -0.0016128 -0.0052673 0.015273 0.35814 0.0042686 -0.0011828 -0.0013972
0.00017165 -0.00020232 0.00074029 -0.00034143
-0.0016684 0.0017202 0.0018656 0.00029375 -0.0011997 -0.0013685 0.1998 0.173
-0.017501 -0.0021918 -0.00057321 0.002623
0.0021382 -0.00056623 0.00095767 -0.001506 0.0001538 -0.00020641 -0.017457 -0.0022159
0.13549 0.213 -0.012436 -0.0023809
-0.00020164 -0.00084744 0.0012176 -0.00051833 0.00078752 -0.00036376 -0.00051027 0.0025096
-0.012412 -0.002338 0.14088 0.28675
1520000000 0.28077 0.11125 -0.014962 0.010502 0.0032504 -0.003894 3.4068e-05 0.0027134
0.0020694 -0.0017752 -0.0010825 -0.00023274
-0.014969 0.010462 0.14287 0.32286 0.0021336 0.012563 0.0018821 -0.00083155
-5.8941e-06 -0.0011359 0.00038521 -0.00098736
0.0032585 -0.0038629 0.0021878 0.012559 0.35021 -0.053978 -0.0010768 -0.00049186
0.00051844 -0.00092218 0.00021747 -0.0001018
0.00010025 0.0026601 0.0019068 -0.00085755 -0.0011069 -0.00046541 0.22059 0.13464
-0.016231 0.0040933 0.0020349 0.0021321
0.0021187 -0.0018375 6.4427e-05 -0.0011502 0.0004967 -0.00088763 -0.016201 0.0041012
0.1625 0.19731 -0.011892 0.0022139
-0.0012264 -0.00029813 0.00033926 -0.0010369 0.0001998 -0.00012692 0.0019559 0.002086
-0.011812 0.0021112 0.17391 0.26829
1580000000 0.29049 0.066591 -0.0080909 0.013868 -0.00094608 -0.0044163 0.0016141 0.0020599
-0.00013343 -0.0022152 -0.00039633 0.00045738
-0.0081521 0.013875 0.17023 0.29963 0.0053838 0.0075128 0.00057231 -0.0018253
-0.00068628 -0.0011557 -0.00025701 -0.00074652
-0.00098054 -0.0044258 0.0054134 0.0074926 0.32871 -0.11042 -0.0017574 0.00055622
-0.00044365 -0.0011082 0.00026597 -0.00058322
0.0016232 0.0020438 0.00056065 -0.0018859 -0.0017253 0.00053081 0.23272 0.097502
-0.012144 0.0092625 0.0027213 0.00078005
-0.00018603 -0.0022017 -0.0006856 -0.0011974 -0.00042335 -0.001112 -0.012145 0.0092499
0.18613 0.17908 -0.0090906 0.0079458
-0.00039222 0.00041655 -0.00023481 -0.00072469 0.00030766 -0.00066689 0.0026539 0.00081716
-0.0091727 0.0079455 0.20776 0.24377
1640000000 0.29356 0.024883 -0.00116 0.012511 -0.0025677 -0.0022889 0.0029924 0.00093356
-0.00056244 -0.0017665 -0.00045951 0.0005145
-0.0011495 0.012507 0.20111 0.27476 0.0056147 0.0027665 -0.00072941 -0.001975
-0.0010805 -0.00028233 -0.00044366 -0.00072456
-0.0025641 -0.0023452 0.0056265 0.0027372 0.29898 -0.16037 -0.00069759 0.0016368
-0.0010537 -0.00085191 -8.9726e-05 -0.00049499
0.0029652 0.00092595 -0.00075347 -0.0019972 -0.00066877 0.001615 0.24446 0.049934
-0.0073198 0.010546 0.0026757 -0.0011156
-0.00058881 -0.001778 -0.0011127 -0.00032153 -0.0010683 -0.00081432 -0.0073672 0.010565
0.20837 0.1527 -0.0043368 0.0096635
-0.00039426 0.00059279 -0.00046299 -0.0006924 -0.00010624 -0.0004687 0.0026805 -0.0011155
-0.0042463 0.0096401 0.23511 0.21314
1700000000 0.28574 -0.01976 0.0023699 0.0095689 -0.0032362 0.00011788 0.0031627 -0.0014574
-0.0021119 -0.00078386 0.00066326 0.00048094
0.0023235 0.0095643 0.2186 0.24425 0.0032994 -9.6262e-05 -0.0017148 -0.00062978
-0.0008239 0.00014647 -0.00083134 -0.00043301
-0.0032689 0.00011219 0.0033396 -9.4427e-05 0.25396 -0.19889 0.00034305 0.0017429
-0.0020298 -8.8476e-05 -0.00037698 -0.00080935
0.0030959 -0.0014142 -0.0017623 -0.00059568 0.00034882 0.0017062 0.24073 0.0030728
-0.0038467 0.011 0.0015418 -0.0022864
-0.0021196 -0.00070871 -0.00087562 0.00015364 -0.0020226 -6.8847e-05 -0.0038574 0.011021
0.22499 0.13171 0.00060518 0.0097008
0.0005558 0.00046893 -0.00081317 -0.00046352 -0.00029941 -0.00081345 0.0015488 -0.002167
0.00056036 0.0096676 0.2524 0.18001
1760000000 0.27533 -0.067819 0.004618 0.0061115 -0.0021829 0.00082174 0.001081 -0.0036274
-0.0015623 0.0005523 0.00031366 -0.0006265
0.0046272 0.0061107 0.24649 0.20538 0.00086153 -0.0016873 -0.0014033 0.00027961
-0.00091829 0.00099501 -0.00056055 0.00035724
-0.0021555 0.00083188 0.00083023 -0.0017134 0.20571 -0.23018 0.0013933 0.0011093
-0.0011081 0.0015232 -0.0012796 -0.00066686
0.0011176 -0.0036152 -0.0014066 0.00031383 0.0014203 0.0010756 0.23471 -0.045542
-0.00024399 0.0099024 -0.00027134 -0.0025668
-0.0015566 0.00059231 -0.00095278 0.0010101 -0.0010197 0.0015336 -0.00022586 0.009895
0.23951 0.09777 0.0042088 0.0068275
0.00038737 -0.00066071 -0.00060217 0.00032881 -0.0013248 -0.00068726 -0.00021297 -0.0026074
0.0042438 0.0067207 0.26689 0.14304
1820000000 0.25067 -0.10567 0.0047678 0.0024678 0.00014006 0.0022259 -0.0012187 -0.0030894
-0.0012939 0.0011585 -0.00010225 -0.00025815
0.0047509 0.0024863 0.25689 0.17495 -0.0013231 -6.9053e-05 -0.0012442 0.0011236
0.0001828 0.0011911 -0.00064667 0.00038167
-2.2091e-05 0.0022131 -0.0013068 -0.00010182 0.15405 -0.24447 0.0017389 0.00024592
8.172e-05 0.0024807 -0.0017257 0.00029532
-0.0012441 -0.003059 -0.0011925 0.0011592 0.0016641 0.00033219 0.20668 -0.092609
0.0017352 0.0082803 -0.001749 -0.0017267
-0.001277 0.0011805 0.00020144 0.0012326 -1.6636e-05 0.0024749 0.001735 0.0082964
0.25496 0.067908 0.0051444 0.0032135
-0.00011553 -0.0002071 -0.00060507 0.00040449 -0.0015412 0.00038918 -0.0017621 -0.001689
0.005007 0.0032269 0.27066 0.10696
1880000000 0.21574 -0.145 0.0023654 0.00013893 -0.00067476 0.0021271 -0.0029994 -0.0020004
-0.00011896 0.0021034 0.00023415 -0.00063484
0.0023758 0.00012468 0.26212 0.12971 -0.0033643 0.0023105 -6.7235e-05 0.0017138
0.00067104 0.0010943 0.00013516 0.00095333
-0.0006199 0.002201 -0.0034034 0.0023669 0.10196 -0.25138 0.0016048 -0.0013013
0.0018006 0.0017629 -0.0010491 0.0014643
-0.0028822 -0.002031 -1.2581e-05 0.0017305 0.0016801 -0.001251 0.16961 -0.13247
0.0029614 0.0058252 -0.0024045 0.00028891
-2.5404e-06 0.0021124 0.00072234 0.0011336 0.001694 0.0017784 0.0030295 0.0058531
0.25842 0.037591 0.0048601 0.0010005
0.00017332 -0.00075033 0.00014725 0.0010107 -0.0011001 0.0015106 -0.0024178 0.00022587
0.0048581 0.0010295 0.27158 0.073956
1940000000 0.17772 -0.17175 0.00011033 -0.0016243 0.0015139 0.0019964 -0.0036074 0.00056207
0.0016144 0.0012585 -0.00061934 -0.00039723
9.3438e-05 -0.0015378 0.26485 0.0971 -0.001611 0.0050254 0.0010425 0.0012094
0.0016799 0.00032369 0.00088917 0.00027375
0.0015362 0.002021 -0.0015713 0.0050791 0.059579 -0.2429 0.00027636 -0.0021589
0.0024542 9.8457e-05 0.00036659 0.0015715
-0.0035845 0.00052426 0.0010487 0.0011753 0.00022695 -0.0022654 0.11997 -0.1671
0.0026006 0.0037824 -0.0014778 0.0010936
0.0017126 0.0011887 0.0017454 0.00025055 0.0024537 8.997e-05 0.002639 0.0038082
0.26189 -0.0014046 0.0035294 -0.0026445
-0.0006612 -0.00043209 0.00093421 0.00012509 0.00032456 0.0017044 -0.0014641 0.0013479
0.0035492 -0.0025076 0.26278 0.037481
2000000000 0.13034 -0.18615 -0.003812 0.00053853 0.0028117 0.0013572 -0.0022972 0.0036122
0.0014388 7.6015e-05 -0.00060866 0.00041068
-0.0037852 0.00050746 0.25073 0.061292 -0.00067813 0.0070004 0.0014055 0.00029136
0.0010726 -0.0011967 0.0003637 6.7806e-05
0.0028531 0.0013726 -0.00052326 0.0069803 0.017373 -0.22831 -0.0015069 -0.0010588
0.001748 -0.0014436 0.0016221 0.0014255
-0.0023522 0.0035646 0.0014779 0.0002283 -0.0014265 -0.0010294 0.065571 -0.17968
0.0010281 0.0027392 -6.8551e-05 0.0022082
0.0013967 -8.5862e-05 0.0011386 -0.0012717 0.0018947 -0.0014361 0.0010695 0.0028115
0.25653 -0.034517 0.00030318 -0.0030848
