!Keysight Technologies,M9804A,MY58100912,A.14.10.03
!Date: Thursday, April 27, 2023 10:28:33
!Correction: S11(C  6-Port  ) 
!S12(C  6-Port  ) 
!S13(C  6-Port  ) 
!S14(C  6-Port  ) 
!S15(C  6-Port  ) 
!S16(C  6-Port  ) 
!S21(C  6-Port  ) 
!S22(C  6-Port  ) 
!S23(C  6-Port  ) 
!S24(C  6-Port  ) 
!S25(C  6-Port  ) 
!S26(C  6-Port  ) 
!S31(C  6-Port  ) 
!S32(C  6-Port  ) 
!S33(C  6-Port  ) 
!S34(C  6-Port  ) 
!S35(C  6-Port  ) 
!S36(C  6-Port  ) 
!S41(C  6-Port  ) 
!S42(C  6-Port  ) 
!S43(C  6-Port  ) 
!S44(C  6-Port  ) 
!S45(C  6-Port  ) 
!S46(C  6-Port  ) 
!S51(C  6-Port  ) 
!S52(C  6-Port  ) 
!S53(C  6-Port  ) 
!S54(C  6-Port  ) 
!S55(C  6-Port  ) 
!S56(C  6-Port  ) 
!S61(C  6-Port  ) 
!S62(C  6-Port  ) 
!S63(C  6-Port  ) 
!S64(C  6-Port  ) 
!S65(C  6-Port  ) 
!S66(C  6-Port  ) 
!S6P File: Measurement: :
# Hz S  RI   R 50
500000000 -0.32787 -0.057455 -0.010461 -0.0015399 -0.0083733 0.012574 -0.0038864 0.012556
0.012243 0.0044266 -0.0045433 0.0095629
-0.01044 -0.0015654 -0.41033 -0.070002 0.0071609 -0.010683 0.00060636 0.012219
0.0081936 0.002842 0.0013791 0.013503
-0.008353 0.012573 0.0071469 -0.010712 -0.25552 0.19438 0.0066301 0.0028538
-0.00093668 0.0083877 0.0014233 0.010736
-0.0037446 0.012533 0.00065156 0.012361 0.0066233 0.0029647 -0.32991 0.045134
-0.019737 -0.005808 0.014434 0.029498
0.01215 0.0043237 0.0082658 0.0027372 -0.00091811 0.0082489 -0.019854 -0.0057687
-0.25558 -0.16157 -0.027743 0.0051445
-0.0043161 0.009332 0.0015139 0.01394 0.0015747 0.010876 0.014525 0.02966
-0.027882 0.0048419 -0.25632 -0.1451
560000000 -0.31133 0.10887 -0.023489 -0.065684 0.00096311 0.012962 0.0043658 0.011384
0.010945 0.003144 0.011161 0.009326
-0.023439 -0.065564 -0.37042 0.091396 -0.041011 -0.038174 0.013594 0.00283
-0.012669 -0.003683 0.0037903 -0.00081394
0.0010542 0.012918 -0.041187 -0.038157 -0.17971 0.24286 2.6706e-05 -0.0039694
0.017719 0.0039848 0.0075581 -0.0061712
0.0041888 0.011544 0.013476 0.0028351 0.00015116 -0.0041312 -0.30515 0.13359
0.0025836 -0.023071 0.0064731 -0.021822
0.011174 0.0028727 -0.012651 -0.0037557 0.017801 0.0041296 0.0026235 -0.022857
-0.3048 0.014288 0.0068167 -0.047845
0.011235 0.0092633 0.0035208 -0.0008808 0.0075367 -0.0062629 0.0063822 -0.021911
0.0069351 -0.047959 -0.32718 -0.001031
620000000 -0.27226 0.08718 -0.023967 0.0094913 0.003958 0.0087393 0.0083704 -0.0049355
0.011922 -0.00071406 0.00083005 -0.0018454
-0.023942 0.0094936 -0.39966 0.03919 -0.019522 0.0007394 -0.0015382 -0.0018835
0.01166 -0.006309 0.00082193 -0.0028955
0.003974 0.0087498 -0.019546 0.00077827 -0.15297 0.2513 -0.00086202 -0.0045462
-0.003777 -0.0031493 0.0089085 -0.0027114
0.0082712 -0.004872 -0.0015191 -0.0019969 -0.00098629 -0.0047482 -0.26331 0.14522
-0.040001 -0.019273 0.014004 0.030683
0.011983 -0.001043 0.011595 -0.0063842 -0.0037378 -0.0031001 -0.039944 -0.019083
-0.23125 -0.017532 -0.043416 0.012583
0.0010478 -0.0020383 0.00077831 -0.0030247 0.0087298 -0.0025726 0.014048 0.030709
-0.04344 0.012228 -0.2413 -0.03577
680000000 -0.23711 0.17794 -0.026008 -0.013931 0.0051414 0.0051353 0.0016115 -0.006898
-0.0026553 -0.011621 0.0053837 -0.0067175
-0.025976 -0.013928 -0.38922 0.14223 -0.032348 -0.001068 -0.0015801 -0.00052671
-0.0019322 -0.0092671 -0.00063694 -0.001828
0.0051587 0.0051289 -0.032382 -0.00097881 -0.10598 0.27464 -0.00077467 -0.00028834
-0.0019769 0.00044038 -0.0028373 -0.0091671
0.0015718 -0.0069563 -0.0015761 -0.00050504 -0.00075897 -0.00025383 -0.22016 0.19897
-0.02499 -0.0058657 -0.0084089 -0.011945
-0.0027182 -0.011658 -0.0020305 -0.0093584 -0.0019528 0.00040826 -0.024989 -0.0057355
-0.26987 0.080167 -0.0066461 -0.0051335
0.0053989 -0.0068463 -0.00070876 -0.0018456 -0.0028243 -0.009192 -0.0083421 -0.012097
-0.0068056 -0.0050605 -0.26136 0.070057
740000000 -0.19114 0.17107 -0.040137 0.027002 0.013355 -0.0042226 0.00014435 -0.0040382
-0.0044743 -0.001562 -0.0068269 0.0024254
-0.04006 0.026959 -0.33472 0.16116 -0.036365 0.034472 7.4813e-05 -0.0063375
-0.011678 0.0066162 -0.00077798 -0.0059234
0.013324 -0.004246 -0.036279 0.034624 -0.072539 0.27416 -0.0020169 0.0030608
-0.0022718 -0.004783 -0.0015661 0.00088513
0.00013687 -0.0040115 4.6671e-05 -0.0063972 -0.0019933 0.0030452 -0.20249 0.20447
-0.040843 -0.004583 0.021845 0.016752
-0.0045533 -0.0016365 -0.011682 0.0066137 -0.0022647 -0.0047621 -0.040854 -0.0045201
-0.17838 0.10079 -0.040397 0.0022384
-0.0067956 0.0024562 -0.00078104 -0.005904 -0.0016986 0.00095378 0.021893 0.016684
-0.040201 0.0020805 -0.25163 0.072911
800000000 -0.16355 0.21629 -0.021969 0.016563 0.0055525 -0.010114 -0.0041935 -0.002223
-0.0040633 0.0022649 0.0046042 0.00078747
-0.021963 0.016553 -0.34273 0.23238 -0.0080578 0.034554 -0.0024619 0.0021402
-0.00047539 0.0027518 0.00066258 0.0056988
0.0055375 -0.010128 -0.0079609 0.034607 -0.034619 0.30069 0.00063012 0.0015366
0.00034479 0.0035839 -0.001727 0.00092015
-0.0041209 -0.0022405 -0.0024384 0.0021726 0.0006705 0.0015095 -0.17333 0.23374
-0.027437 0.015914 0.014873 -0.010639
-0.0040937 0.0023226 -0.00048927 0.0027326 0.00033602 0.0035663 -0.027391 0.0159
-0.21159 0.13041 -0.017019 0.02133
0.0045935 0.00084954 0.00065816 0.0057133 -0.0017068 0.00090897 0.014847 -0.010658
-0.017102 0.021305 -0.25053 0.12647
860000000 -0.12765 0.23736 -0.01737 0.030708 -0.0032596 -0.0098373 -0.0019343 0.00036032
0.0043515 0.0050944 -0.0040883 -0.0037098
-0.017419 0.030659 -0.29421 0.27689 0.0081931 0.034272 0.00014872 0.0019855
0.0040678 0.0011324 0.0029186 2.8768e-05
-0.0032844 -0.0098405 0.0083082 0.034297 0.014526 0.31091 -0.00042209 -0.00019958
0.0026119 -0.0011473 0.0012801 0.00406
-0.0018032 0.00035136 0.00019112 0.0020496 -0.00040846 -0.00021365 -0.13476 0.24465
-0.016358 0.020367 -0.0063221 -0.0096918
0.0043674 0.0050133 0.0040596 0.0011101 0.0025237 -0.0011781 -0.016281 0.020255
-0.15578 0.17635 -0.022645 0.016952
-0.0042014 -0.0035817 0.0028704 6.8587e-05 0.001279 0.0040777 -0.0064284 -0.009673
-0.022577 0.016984 -0.19841 0.17417
920000000 -0.10523 0.26023 0.005228 0.039284 -0.0090917 -0.0044409 -0.0017452 0.0016149
0.00089071 0.0017336 0.0032998 -0.0014371
0.0051896 0.039244 -0.26752 0.29753 0.028581 0.022536 0.001532 0.0010542
0.0071531 -0.00067526 0.0040081 -0.0031315
-0.0091147 -0.004431 0.028677 0.022488 0.060609 0.31239 0.0019473 4.0797e-05
0.00086326 -0.00041693 0.0010458 -0.0013329
-0.0017614 0.0015909 0.0015224 0.0010228 0.0019477 3.0737e-05 -0.11054 0.26124
-0.0080535 0.030977 0.0043118 -0.0062512
0.00090432 0.0017547 0.0071844 -0.00073192 0.00086084 -0.00041494 -0.0079536 0.030968
-0.14226 0.183 -0.0013255 0.02685
0.0033684 -0.0014902 0.0040008 -0.0031192 0.0010377 -0.0013147 0.004275 -0.0062781
-0.0012926 0.026862 -0.21023 0.18739
980000000 -0.058774 0.28237 0.0174 0.029995 -0.0089804 0.0045844 0.0015483 0.0034679
0.0034621 -0.0015432 -0.0033745 -0.0025019
0.017358 0.029983 -0.2156 0.33519 0.03349 0.0046963 0.0020238 -2.9886e-05
0.0015163 -0.0057303 -0.00026942 -0.0026494
-0.0089838 0.004605 0.03354 0.0046091 0.10749 0.30812 0.00057991 -0.0011182
0.00037219 -0.0018157 0.0013568 -0.00032336
0.0015821 0.0034788 0.0019662 -7.4322e-05 0.00058201 -0.0011268 -0.071062 0.27314
0.010408 0.028771 -0.0092168 -0.0077116
0.0034986 -0.0015791 0.0015144 -0.0057311 0.00036703 -0.001825 0.010469 0.028754
-0.10864 0.20936 0.0073355 0.019201
-0.0033667 -0.0025422 -0.00021018 -0.0026636 0.0013966 -0.0003477 -0.0091603 -0.0077202
0.0072939 0.019293 -0.16886 0.23723
1040000000 -0.01658 0.29012 0.033344 0.018932 -0.0011239 0.0073861 0.0024085 0.00054818
0.00045008 -0.0033281 -0.000118 -0.0015835
0.03328 0.018944 -0.17987 0.34812 0.029611 -0.015001 0.0016367 -0.0016777
-0.0023316 -0.0024646 -0.0010135 -0.002936
-0.0011168 0.0073756 0.029605 -0.015102 0.1549 0.29419 -0.00051347 -0.0014713
-0.0015435 -0.001037 -0.000555 -0.0011233
0.0023722 0.00056024 0.0016156 -0.0016827 -0.00053119 -0.0014619 -0.042541 0.28152
0.021605 0.016629 -0.0015095 0.0012475
0.00044052 -0.0033226 -0.0023627 -0.0024188 -0.0015326 -0.0010152 0.021619 0.01662
-0.075768 0.21449 0.014615 0.017607
-7.4577e-05 -0.0015894 -0.0010357 -0.0028961 -0.00057926 -0.0011111 -0.0015192 0.0012486
0.014638 0.017611 -0.14715 0.25812
1100000000 0.026871 0.30037 0.036602 -0.0040742 0.0033867 0.0038981 0.0022122 -0.00093379
-0.0022294 -0.0029065 -0.0039788 5.9276e-05
0.03657 -0.0040327 -0.13759 0.36807 0.015145 -0.028225 -0.00012544 -0.0018214
-0.0034419 -0.00082412 -0.0037827 -0.00057312
0.0033974 0.0038881 0.01506 -0.028308 0.20082 0.2748 -0.0018692 0.00019177
-0.0016048 0.00054163 -0.0011237 -0.00049838
0.0021984 -0.00093828 -0.00014313 -0.0018348 -0.0018686 0.00018151 -0.0021611 0.28638
0.025659 0.0026551 -0.0021945 -0.00091511
-0.0022456 -0.0028986 -0.0034474 -0.00081013 -0.0016028 0.0005409 0.025678 0.002625
-0.055213 0.22664 0.020086 0.0076209
-0.0039799 5.0218e-05 -0.003766 -0.00052699 -0.0011104 -0.00052545 -0.0021981 -0.00090004
0.019993 0.0075962 -0.10381 0.29114
1160000000 0.07914 0.2972 0.024304 -0.02102 0.0031726 -0.00085077 -0.00015839 -0.0023164
-0.0038705 -0.00057243 -0.001277 0.0043499
0.024287 -0.020981 -0.092191 0.37279 -0.0040324 -0.029088 -0.001585 -0.001646
-0.0026538 0.002513 -0.00158 0.002239
0.003176 -0.00086685 -0.0041486 -0.029084 0.24542 0.24415 -0.00079353 0.001715
-0.00043496 0.0016999 -0.00092036 0.0003727
-0.00017169 -0.0023154 -0.0016198 -0.001628 -0.00080726 0.0017143 0.038884 0.28247
0.020947 -0.013 -0.004067 0.0047072
-0.0038738 -0.00061431 -0.002606 0.0025283 -0.00046861 0.0017251 0.020936 -0.013046
-0.019527 0.2336 0.018042 -0.0019411
-0.0012835 0.0044103 -0.0016543 0.0022513 -0.00094767 0.00038229 -0.0040627 0.0046653
0.018057 -0.0019751 -0.054193 0.29516
1220000000 0.12255 0.28674 0.01097 -0.030496 -0.0014155 -0.0014137 0.00011308 -0.00071212
-0.0025561 0.0022684 0.0012291 0.0020666
0.010982 -0.03046 -0.048967 0.38618 -0.017157 -0.021105 -0.0025443 0.00045019
-2.6712e-05 0.0030559 -0.0008996 0.0019446
-0.0014197 -0.0014161 -0.017267 -0.021058 0.28438 0.2047 0.00081303 0.0016831
0.00061744 0.00114 8.4231e-05 0.00070125
9.8301e-05 -0.00073565 -0.0025459 0.00045675 0.00081966 0.0016655 0.078311 0.27202
0.0095431 -0.019303 0.0014715 0.0011664
-0.0025236 0.0022665 3.8828e-06 0.0030495 0.00061658 0.0011286 0.0095273 -0.019337
0.0053575 0.23993 0.012924 -0.013563
0.001207 0.002056 -0.00091125 0.0019305 0.0001024 0.00072569 0.0014734 0.0011478
0.012945 -0.013578 -0.025804 0.31389
1280000000 0.1732 0.26793 -0.0081351 -0.029089 -0.0019937 0.0020474 -0.00077208 -0.0019753
-0.00078151 0.0030931 0.0024494 0.0015557
-0.0080982 -0.029061 -0.0022355 0.37868 -0.024151 -0.0079823 -0.00095227 0.00147
0.0017329 0.0018118 0.0006565 0.0022004
-0.0019772 0.0020517 -0.024205 -0.0078853 0.31542 0.16176 0.0015422 5.9779e-05
0.0010593 0.00025279 0.00026714 0.00036472
-0.00078545 -0.001964 -0.00092981 0.0014682 0.0015343 5.0428e-05 0.11508 0.25466
-0.00072106 -0.020958 -0.0011856 0.00030938
-0.00077674 0.0030952 0.0017305 0.0018144 0.0010677 0.0002307 -0.00076286 -0.020962
0.042181 0.24296 0.002177 -0.01574
0.0024661 0.0015276 0.0006655 0.0021899 0.00024708 0.00032555 -0.0011526 0.00034404
0.0021895 -0.015717 0.023057 0.31867
1340000000 0.21133 0.23392 -0.017653 -0.019225 0.00037728 0.0042978 -0.0016666 -0.00084517
0.0014755 0.0025699 0.001814 -0.0014882
-0.017617 -0.019208 0.037429 0.37054 -0.021115 0.004799 -0.00031413 0.0020994
0.0019094 0.00079801 0.0012154 0.00079768
0.00039529 0.0042988 -0.021106 0.0048949 0.33844 0.11292 0.0010521 -0.0008848
0.00054566 -0.00050562 0.00013148 0.0003422
-0.0016861 -0.00083339 -0.00030134 0.0021115 0.0010496 -0.00089609 0.1473 0.23194
-0.010487 -0.017044 0.00061766 0.0011441
0.0014908 0.0025394 0.0019247 0.00078275 0.00054839 -0.00050927 -0.010522 -0.017026
0.072717 0.23513 -0.004629 -0.013573
0.0018462 -0.0014876 0.0012493 0.00080441 0.00017215 0.00034697 0.0005936 0.0011413
-0.0046066 -0.013588 0.061725 0.31512
1400000000 0.24454 0.19695 -0.023852 -0.0076414 0.0048377 0.003199 -0.0021862 0.00053056
0.0024209 0.0009288 0.00039671 -0.00132
-0.023821 -0.007649 0.07436 0.35866 -0.014347 0.012632 0.0013857 0.0015426
0.0013829 -0.00066942 0.0011411 0.00021023
0.0048521 0.0031781 -0.014294 0.012713 0.35127 0.059202 0.0001889 -0.0015433
0.0002433 -0.00026915 0.00039211 0.00024897
-0.0021831 0.00053779 0.001405 0.0015371 0.00017995 -0.0015368 0.17447 0.20222
-0.016502 -0.0097158 -0.00095372 0.0004795
0.0024102 0.00093753 0.0013725 -0.00067046 0.00023077 -0.0002762 -0.016545 -0.0096721
0.10529 0.22891 -0.010814 -0.0086087
0.00037957 -0.0013547 0.0011507 0.00019326 0.00039185 0.00024961 -0.00095042 0.00048153
-0.010786 -0.0086331 0.10646 0.30668
1460000000 0.26876 0.15352 -0.020605 0.0050143 0.0052987 -0.0016373 -0.0016599 0.0017044
0.0021717 -0.00039643 -0.00022632 -0.0010539
-0.020584 0.0049883 0.10952 0.3373 -0.0052637 0.015234 0.0018481 0.00028892
0.0009538 -0.0014647 0.0012292 -0.0005439
0.0053017 -0.0016518 -0.0052026 0.015278 0.35816 0.0042911 -0.0011956 -0.0013624
0.00021821 -0.00024573 0.00071077 -0.00030587
-0.0016345 0.0017088 0.0018459 0.00027472 -0.0011843 -0.0013676 0.19979 0.1731
-0.017386 -0.0021751 -0.00037254 0.0025997
0.0021743 -0.00041734 0.00095037 -0.0014617 0.0002261 -0.00028142 -0.017385 -0.0021358
0.13544 0.21309 -0.012341 -0.0023057
-0.00023155 -0.0010379 0.0012154 -0.00058024 0.000712 -0.00029877 -0.00038377 0.0026102
-0.012337 -0.0023097 0.14097 0.2868
1520000000 0.28075 0.11124 -0.014911 0.010469 0.0032335 -0.0039084 7.2174e-05 0.0027241
0.0021023 -0.0017756 -0.0010826 -0.00022485
-0.014907 0.01045 0.14291 0.32288 0.0021564 0.012527 0.0018735 -0.00082949
2.0536e-05 -0.0011799 0.00038065 -0.00098596
0.003211 -0.0039314 0.0022221 0.012526 0.35021 -0.054019 -0.001097 -0.00044438
0.00050621 -0.00093261 0.00024827 -0.00015292
7.5844e-05 0.0027144 0.0018745 -0.00084327 -0.0011045 -0.00044918 0.22074 0.13473
-0.016079 0.0040454 0.0020053 0.0021721
0.0020852 -0.0017937 2.1183e-06 -0.001188 0.00049975 -0.000928 -0.016062 0.004079
0.16265 0.19747 -0.011767 0.0021679
-0.0011118 -0.00023438 0.00037795 -0.00098284 0.00022461 -0.00016525 0.0019925 0.0021682
-0.011765 0.002163 0.17421 0.26809
1580000000 0.29057 0.066496 -0.0081009 0.013845 -0.0010119 -0.0044977 0.0016315 0.0020261
-9.3109e-05 -0.0021457 -0.0004293 0.00035786
-0.0081012 0.013825 0.17027 0.29962 0.0053541 0.0074919 0.00059059 -0.0017786
-0.00064699 -0.0011058 -0.0002548 -0.00076354
-0.0010313 -0.0044949 0.0053986 0.0074698 0.32862 -0.11064 -0.0017662 0.00055941
-0.00040675 -0.0011279 0.00024806 -0.00061415
0.0016434 0.0020148 0.0005942 -0.0017834 -0.0017444 0.00054775 0.23281 0.097562
-0.012083 0.0091792 0.0028099 0.00070032
-0.00012114 -0.0021425 -0.00066381 -0.0011095 -0.00037628 -0.0011157 -0.012061 0.0092354
0.18628 0.17922 -0.0089473 0.0078915
-0.00043155 0.00038819 -0.00026096 -0.00076049 0.00025702 -0.00059855 0.0028016 0.00066665
-0.0089469 0.0078837 0.208 0.24379
1640000000 0.29358 0.024854 -0.0011344 0.01246 -0.0025713 -0.0022921 0.0029374 0.0010166
-0.0005633 -0.0017226 -0.00036949 0.00053844
-0.001143 0.012446 0.20113 0.27472 0.0056491 0.0026989 -0.00076025 -0.0019872
-0.0010695 -0.00031769 -0.00044943 -0.00072871
-0.0025878 -0.0022897 0.0056607 0.0026776 0.29901 -0.16054 -0.00073773 0.0015914
-0.0010035 -0.00092155 -0.00016873 -0.00052379
0.0029415 0.0010092 -0.00076725 -0.0019823 -0.00073384 0.0015845 0.24468 0.049991
-0.0073297 0.010522 0.0026571 -0.001146
-0.00058208 -0.0017123 -0.0010774 -0.00030933 -0.0010106 -0.00090044 -0.0072959 0.010548
0.20869 0.15278 -0.0042182 0.0096743
-0.00034702 0.00054343 -0.00045405 -0.00071765 -0.00016888 -0.00051389 0.0026464 -0.0011641
-0.0042339 0.0096786 0.23524 0.2127
1700000000 0.28587 -0.019765 0.0023384 0.0095547 -0.0032217 0.0001549 0.0031223 -0.001453
-0.0021352 -0.00075045 0.00066438 0.00048617
0.0023343 0.009551 0.21858 0.24423 0.0033089 -0.00010441 -0.0016954 -0.00063155
-0.00083752 0.0001515 -0.00085012 -0.00048938
-0.0032102 0.0001689 0.0033034 -0.00012263 0.25388 -0.19876 0.00043689 0.0017205
-0.0019621 -8.6952e-06 -0.00029058 -0.00089243
0.0031225 -0.0014712 -0.0017007 -0.0006127 0.00046495 0.0017117 0.24077 0.0029862
-0.0039621 0.010938 0.0015693 -0.0023413
-0.0021338 -0.00072484 -0.00083909 0.00016867 -0.001971 -1.8648e-05 -0.0039289 0.010961
0.22514 0.13172 0.00071828 0.0095263
0.000683 0.00050248 -0.00083918 -0.00047131 -0.00032492 -0.00084552 0.0015733 -0.0023847
0.00070206 0.00952 0.25252 0.17968
1760000000 0.27541 -0.067895 0.0046611 0.0061214 -0.0021098 0.00086028 0.0011075 -0.0036657
-0.0015503 0.00055003 0.00038002 -0.00055674
0.0046432 0.0061226 0.24651 0.20542 0.00083735 -0.0016796 -0.0013781 0.00028101
-0.00094349 0.00099787 -0.00053737 0.000354
-0.0021026 0.00086685 0.00082998 -0.0016856 0.20569 -0.23023 0.0014381 0.0011668
-0.0010767 0.001594 -0.0014066 -0.00059295
0.0010817 -0.0036578 -0.0013789 0.0002913 0.0014744 0.0011613 0.23485 -0.045819
-0.00026181 0.0098472 -0.00024609 -0.002617
-0.0015585 0.00055506 -0.0009503 0.0010058 -0.0010768 0.0015909 -0.00023885 0.0098577
0.23976 0.09763 0.0043075 0.0068293
0.0003756 -0.00056662 -0.0005274 0.00034429 -0.0013963 -0.00061416 -0.00023306 -0.0026097
0.0043047 0.0068452 0.26716 0.14273
1820000000 0.25074 -0.10581 0.0047565 0.0024506 2.5068e-05 0.0021478 -0.0012291 -0.0031112
-0.0013464 0.0011727 -0.00013447 -0.00016443
0.0047491 0.0024451 0.25689 0.17495 -0.001313 -0.00013146 -0.0012189 0.0011106
0.00011323 0.0011776 -0.00068569 0.00045361
1.635e-05 0.0021511 -0.0013172 -0.00012543 0.15431 -0.24484 0.0016469 0.00017395
-4.7236e-05 0.0023791 -0.0017004 0.00035029
-0.0012346 -0.0031189 -0.0012086 0.0011284 0.0016808 0.00019145 0.20652 -0.092696
0.0016697 0.0082498 -0.0017157 -0.0017357
-0.001333 0.0011871 0.00012859 0.0011691 -5.6002e-05 0.0023832 0.0017076 0.0082869
0.25532 0.067677 0.0050635 0.0030366
-0.00011491 -0.00015529 -0.00067588 0.00046323 -0.0017159 0.00029474 -0.0017222 -0.0017236
0.0050704 0.0030502 0.27052 0.10668
1880000000 0.21583 -0.14507 0.0023842 7.9129e-05 -0.00054351 0.0021664 -0.0030089 -0.0021096
-0.00010524 0.0019613 0.00015793 -0.00064819
0.0023801 7.4725e-05 0.26219 0.12964 -0.0033577 0.0023404 -0.00010818 0.0017535
0.0006772 0.0010941 0.00014728 0.00098427
-0.00053378 0.0021702 -0.0033469 0.0023578 0.10198 -0.25129 0.0016961 -0.0011756
0.0018256 0.0018373 -0.0011045 0.0015963
-0.0030195 -0.0020753 -0.0001146 0.001762 0.0016513 -0.001144 0.1694 -0.13263
0.0028289 0.0058136 -0.0024182 0.00026878
-9.2539e-05 0.0019613 0.0006881 0.0010768 0.0018508 0.0018105 0.0028493 0.0058219
0.25849 0.037055 0.0049076 0.00099792
0.00014068 -0.00068954 0.00017076 0.00095633 -0.0010942 0.00161 -0.0024194 0.00025129
0.0049207 0.00098731 0.27166 0.073622
1940000000 0.17759 -0.17198 2.9555e-05 -0.0016239 0.0014793 0.0019942 -0.0035565 0.00055272
0.0016687 0.0012194 -0.00066933 -0.00051478
4.7041e-05 -0.0016278 0.26483 0.097034 -0.0016287 0.0050472 0.0011087 0.0011491
0.0017539 0.00030661 0.00089066 0.0002436
0.0014901 0.0019882 -0.0016197 0.0050517 0.059468 -0.24311 0.00017127 -0.0021492
0.0023521 0.00014773 0.00034885 0.0016976
-0.0035875 0.00057512 0.0011101 0.0011414 0.00015988 -0.0021722 0.1197 -0.16709
0.0024933 0.0038345 -0.0014078 0.0012713
0.0016715 0.0011867 0.0017627 0.00029415 0.0023695 0.00013028 0.0024831 0.0038506
0.26182 -0.0016934 0.0036078 -0.0024863
-0.00065468 -0.00051454 0.00087549 0.00024328 0.00035979 0.0016913 -0.0014059 0.0012687
0.0035897 -0.002472 0.26281 0.037085
2000000000 0.13039 -0.18615 -0.0038902 0.00060656 0.0028263 0.0014286 -0.0022848 0.0035342
0.0013888 2.6616e-05 -0.00075721 0.00059066
-0.0038929 0.00059769 0.25073 0.061285 -0.00063056 0.0070761 0.0014068 0.00032768
0.0010335 -0.0011884 0.0003166 2.0341e-05
0.0028526 0.0013844 -0.0005755 0.0070914 0.017151 -0.22829 -0.0014569 -0.0010831
0.0018546 -0.0014228 0.0017072 0.0013875
-0.0022458 0.0035291 0.0013929 0.00032308 -0.0014654 -0.0010649 0.065416 -0.17957
0.00097734 0.0028597 -0.00018437 0.002025
0.001382 1.178e-05 0.0010339 -0.0012012 0.0018229 -0.0014329 0.0010007 0.0028377
0.25622 -0.0348 0.00026784 -0.0032116
