!Keysight Technologies,M9804A,MY58100912,A.14.10.03
!Date: Thursday, April 27, 2023 10:28:33
!Correction: S11(C  6-Port  ) 
!S12(C  6-Port  ) 
!S13(C  6-Port  ) 
!S14(C  6-Port  ) 
!S15(C  6-Port  ) 
!S16(C  6-Port  ) 
!S21(C  6-Port  ) 
!S22(C  6-Port  ) 
!S23(C  6-Port  ) 
!S24(C  6-Port  ) 
!S25(C  6-Port  ) 
!S26(C  6-Port  ) 
!S31(C  6-Port  ) 
!S32(C  6-Port  ) 
!S33(C  6-Port  ) 
!S34(C  6-Port  ) 
!S35(C  6-Port  ) 
!S36(C  6-Port  ) 
!S41(C  6-Port  ) 
!S42(C  6-Port  ) 
!S43(C  6-Port  ) 
!S44(C  6-Port  ) 
!S45(C  6-Port  ) 
!S46(C  6-Port  ) 
!S51(C  6-Port  ) 
!S52(C  6-Port  ) 
!S53(C  6-Port  ) 
!S54(C  6-Port  ) 
!S55(C  6-Port  ) 
!S56(C  6-Port  ) 
!S61(C  6-Port  ) 
!S62(C  6-Port  ) 
!S63(C  6-Port  ) 
!S64(C  6-Port  ) 
!S65(C  6-Port  ) 
!S66(C  6-Port  ) 
!S6P File: Measurement: :
# Hz S  RI   R 50
500000000 -0.32783 -0.054909 -0.011688 -0.0013198 -0.0088219 0.012795 -0.0042974 0.011688
0.012834 0.0051202 -0.0052308 0.0079386
-0.011682 -0.0012395 -0.41053 -0.069009 0.0069029 -0.010699 0.0010047 0.011537
0.0080494 0.0029874 0.0011412 0.013128
-0.0087951 0.012967 0.0068892 -0.01078 -0.2558 0.19577 0.0058449 0.0024686
-0.00016864 0.0082551 -8.0197e-05 0.010261
-0.0038778 0.012506 0.0011788 0.012203 0.00613 0.0028319 -0.32739 0.045156
-0.020133 -0.0055169 0.016727 0.027634
0.012108 0.0050762 0.0078004 0.0028549 -0.00043908 0.0084433 -0.019805 -0.0054148
-0.25607 -0.15963 -0.027976 0.0048
-0.005107 0.0094965 0.00095641 0.014245 9.2117e-05 0.010698 0.017269 0.027247
-0.028173 0.0056787 -0.2549 -0.14291
560000000 -0.31306 0.10887 -0.023258 -0.064919 -3.6106e-06 0.013459 0.0050976 0.011753
0.010783 0.002276 0.01121 0.0092911
-0.023171 -0.064938 -0.37125 0.093701 -0.041577 -0.03783 0.013377 0.0037554
-0.01287 -0.0025818 0.0034936 -0.00014049
4.7881e-05 0.013513 -0.041576 -0.037867 -0.17945 0.2438 0.00082667 -0.0045116
0.017336 0.0038405 0.0081526 -0.006186
0.0048841 0.011377 0.01305 0.0033769 0.00053946 -0.0044842 -0.30493 0.13526
0.002274 -0.022697 0.0048079 -0.020979
0.01099 0.0028305 -0.012431 -0.0022412 0.017992 0.0038065 0.002496 -0.022348
-0.30403 0.017232 0.0058892 -0.047129
0.010903 0.0081705 0.0035489 -0.00090043 0.0077126 -0.0064566 0.0044464 -0.020908
0.0059227 -0.047799 -0.32482 0.005874
620000000 -0.27156 0.087704 -0.02364 0.0097644 0.0036842 0.0093827 0.0078948 -0.0050213
0.011173 0.0002143 0.0012956 -0.0027341
-0.023703 0.0097245 -0.39937 0.040892 -0.019499 0.0012892 -0.0014405 -0.0018491
0.01157 -0.0059355 0.0011577 -0.0030026
0.0037378 0.0093846 -0.0195 0.0013075 -0.15258 0.25224 -0.0010115 -0.0045497
-0.0036268 -0.0028815 0.0092124 -0.0025294
0.0079735 -0.004512 -0.0016554 -0.0017049 -0.001411 -0.0043688 -0.26303 0.14518
-0.040361 -0.01828 0.012671 0.030706
0.011654 -6.5133e-05 0.011745 -0.0062609 -0.0032405 -0.0029855 -0.040455 -0.018125
-0.23055 -0.01654 -0.042253 0.010996
0.0015147 -0.0022704 0.0008984 -0.0029182 0.0087008 -0.0022936 0.01292 0.030257
-0.042184 0.011423 -0.24295 -0.029439
680000000 -0.23687 0.17908 -0.02668 -0.013767 0.0051658 0.0051598 0.0012001 -0.0067291
-0.0021188 -0.011884 0.0057446 -0.0060818
-0.026688 -0.0138 -0.38879 0.14295 -0.032429 -0.00091735 -0.0012428 -0.00028499
-0.0019248 -0.0096113 -0.00073029 -0.001995
0.0051816 0.0051535 -0.032483 -0.00079775 -0.10531 0.27541 -0.00048257 1.796e-05
-0.0017309 0.00032579 -0.002433 -0.0091225
0.0010008 -0.0072028 -0.0013155 -0.00087012 -0.00051979 -0.00027241 -0.21993 0.19908
-0.024013 -0.0060936 -0.0083156 -0.012219
-0.0025693 -0.01117 -0.0022509 -0.0091666 -0.0019509 0.00035676 -0.023975 -0.0060276
-0.27002 0.082177 -0.0073091 -0.0058733
0.0058552 -0.0056139 -0.00094219 -0.0018086 -0.0026983 -0.0090629 -0.0082296 -0.012339
-0.0071523 -0.0059633 -0.2612 0.074719
740000000 -0.19062 0.17189 -0.04018 0.027279 0.013839 -0.0040198 8.136e-05 -0.0041825
-0.0051097 -0.0017987 -0.0068868 0.0030688
-0.040127 0.027142 -0.33432 0.16112 -0.035793 0.035083 2.0374e-05 -0.0065266
-0.012369 0.0079806 -0.0011161 -0.0065134
0.013826 -0.004264 -0.035642 0.035264 -0.072207 0.27522 -0.001926 0.0030957
-0.0029657 -0.0052097 -0.0017578 0.0014421
0.00020686 -0.0040002 0.00049989 -0.0060956 -0.0021719 0.0033673 -0.20145 0.20517
-0.04152 -0.0044055 0.02283 0.016674
-0.005306 -0.0021329 -0.012902 0.0066395 -0.0022767 -0.0050519 -0.041633 -0.0044371
-0.17555 0.10142 -0.039502 0.0030202
-0.0059384 0.0028521 -0.00074162 -0.0057557 -0.0018858 0.0013741 0.023279 0.016963
-0.040526 0.0027676 -0.25072 0.077112
800000000 -0.16245 0.21614 -0.022032 0.016642 0.005679 -0.010216 -0.0043101 -0.0020825
-0.0038138 0.0018302 0.0047442 0.00077915
-0.021941 0.016663 -0.34249 0.23291 -0.0080446 0.034674 -0.002389 0.0022625
-0.00040618 0.0025461 0.0010055 0.0053706
0.0056361 -0.010252 -0.0080261 0.034743 -0.03436 0.30118 0.0008169 0.0016221
0.00055863 0.0032548 -0.0012278 0.00076772
-0.0042047 -0.0023226 -0.0024741 0.002109 0.00082052 0.0013331 -0.17332 0.23344
-0.02726 0.015819 0.015027 -0.01
-0.0041608 0.0019155 -0.00061309 0.0026233 0.00037091 0.0034834 -0.027256 0.015884
-0.21013 0.1328 -0.016699 0.020818
0.0041346 0.00070551 0.00069118 0.0053242 -0.0015742 0.00049531 0.014502 -0.010093
-0.016126 0.02086 -0.24798 0.131
860000000 -0.1273 0.23767 -0.017317 0.030605 -0.0030841 -0.010197 -0.0017068 0.00033709
0.0036497 0.0048101 -0.0044318 -0.0028758
-0.017331 0.030619 -0.29398 0.27712 0.008486 0.034293 0.00014793 0.0021347
0.0038105 0.00070288 0.0031667 0.00028976
-0.003154 -0.010191 0.0085599 0.034286 0.014985 0.31158 -0.00035644 -0.00033624
0.0024026 -0.0012285 0.0012609 0.0040366
-0.0016589 0.00043847 0.00028767 0.0022128 -0.00048044 -0.0001964 -0.13427 0.24519
-0.016949 0.020321 -0.0061256 -0.010629
0.0037427 0.0049424 0.0040021 0.00076975 0.0024194 -0.0013264 -0.016885 0.020378
-0.15464 0.17827 -0.021534 0.018566
-0.0037255 -0.0030734 0.0030846 -0.00010709 0.0016483 0.0042251 -0.005685 -0.010305
-0.022309 0.01877 -0.19684 0.17693
920000000 -0.10456 0.26018 0.0051815 0.038817 -0.0093526 -0.0046276 -0.0019788 0.0015949
0.0019972 0.0015627 0.0031123 -0.001621
0.0052143 0.038883 -0.26729 0.2978 0.028773 0.02244 0.0013346 0.00095736
0.0075749 -0.00031298 0.0039467 -0.0030795
-0.0092526 -0.0045887 0.028938 0.022297 0.061103 0.31312 0.0017544 1.8953e-05
0.0011989 -0.00044516 0.00094974 -0.0015605
-0.0019524 0.0017612 0.0013921 0.0010849 0.0017853 -1.5809e-05 -0.11097 0.26112
-0.0076444 0.031967 0.0040063 -0.0062001
0.0015548 0.0013036 0.0074075 -0.0003888 0.0011271 -0.00039166 -0.0076727 0.031973
-0.14131 0.18296 -0.00048927 0.027231
0.0028515 -0.0013297 0.004346 -0.0030687 0.00086505 -0.0016479 0.003945 -0.0064449
-0.00032897 0.027341 -0.20792 0.19055
980000000 -0.058235 0.2824 0.01755 0.029927 -0.009333 0.0044931 0.001851 0.0034943
0.0031887 -0.0015503 -0.0032463 -0.0028152
0.01748 0.029897 -0.2156 0.33529 0.033675 0.0044974 0.0019736 -7.2211e-05
0.0012867 -0.0060419 -0.00010246 -0.0026519
-0.0093712 0.0045441 0.033723 0.004451 0.1081 0.30884 0.00057463 -0.0011583
0.00028273 -0.0018645 0.0014164 -0.00041838
0.0017097 0.0033628 0.0019443 -0.00012375 0.00051609 -0.001193 -0.07113 0.27345
0.010804 0.028945 -0.0088652 -0.0077107
0.0035972 -0.0015333 0.0013986 -0.0060794 0.00029094 -0.0018473 0.010872 0.02899
-0.1065 0.21039 0.0066239 0.019696
-0.0033192 -0.0028849 -0.00035963 -0.0026737 0.0014416 -0.00036168 -0.0089836 -0.0075289
0.0065751 0.019181 -0.16582 0.24024
1040000000 -0.016278 0.29032 0.033621 0.018702 -0.0011533 0.0074206 0.0022892 0.00066689
0.00036413 -0.0031876 -2.8892e-05 -0.0014003
0.033512 0.018678 -0.17993 0.34839 0.029746 -0.015299 0.0015713 -0.0019127
-0.0022893 -0.0024693 -0.0013313 -0.0028945
-0.0011322 0.0074399 0.029743 -0.015477 0.15586 0.29485 -0.00055702 -0.0014795
-0.0016737 -0.0009683 -0.00059873 -0.0010603
0.002384 0.00064193 0.0016053 -0.0018795 -0.00054965 -0.0014656 -0.042446 0.2819
0.022063 0.016912 -0.0019115 0.00072859
0.00038572 -0.0033421 -0.002281 -0.0024709 -0.0016137 -0.0009634 0.022078 0.016859
-0.073842 0.2154 0.015587 0.016962
-0.0002365 -0.0013922 -0.0010491 -0.0031549 -0.00062575 -0.001119 -0.0016865 0.00074188
0.015633 0.017376 -0.14512 0.26081
1100000000 0.027566 0.3007 0.036853 -0.0042279 0.003344 0.0039778 0.0022308 -0.00080156
-0.0023786 -0.0027574 -0.0042181 -0.00015915
0.036797 -0.0042254 -0.13757 0.36854 0.015023 -0.028619 -0.00015953 -0.0017817
-0.0037242 -0.00061506 -0.0038415 -0.00055043
0.0033255 0.0039743 0.014934 -0.028715 0.20213 0.27513 -0.0018445 0.00022655
-0.001729 0.00078554 -0.00109 -0.00046742
0.0022509 -0.00090156 -0.00015069 -0.0017445 -0.0018284 0.00025189 -0.0021198 0.28679
0.026462 0.0022225 -0.0025107 -0.00080167
-0.0024081 -0.0026631 -0.0037176 -0.00056701 -0.0017322 0.00077498 0.02648 0.0021364
-0.053263 0.22704 0.01995 0.0066209
-0.0040918 -0.00017678 -0.0038192 -0.00054842 -0.001056 -0.00042012 -0.0025196 -0.00090055
0.020131 0.0063747 -0.10023 0.29313
1160000000 0.07948 0.29743 0.024371 -0.0214 0.0031312 -0.00072037 -0.00021697 -0.0022415
-0.0038944 -0.00074988 -0.0011879 0.0044454
0.024345 -0.021395 -0.09185 0.37365 -0.0044471 -0.029247 -0.0016045 -0.0015099
-0.0025173 0.0026585 -0.0016615 0.002017
0.0031153 -0.00073512 -0.0045693 -0.029269 0.24693 0.24399 -0.00076579 0.0017581
-0.00048957 0.0017828 -0.0010515 0.00034704
-0.00023215 -0.0022181 -0.0015789 -0.001513 -0.00077469 0.001735 0.039264 0.28326
0.021216 -0.013549 -0.0036593 0.0042329
-0.0038599 -0.00069035 -0.0025088 0.0027002 -0.00044854 0.001798 0.021174 -0.01355
-0.01825 0.23405 0.0189 -0.0018803
-0.0010498 0.0043585 -0.001572 0.0020798 -0.0011223 0.00033367 -0.0037123 0.0043781
0.018515 -0.0019777 -0.052134 0.29683
1220000000 0.12301 0.28699 0.010707 -0.030951 -0.0014392 -0.0013492 0.00017854 -0.00073653
-0.0026784 0.0022199 0.0013096 0.0019716
0.01071 -0.030919 -0.04834 0.3869 -0.01769 -0.021138 -0.0025284 0.00057346
3.6451e-05 0.0031731 -0.00079635 0.0020379
-0.0014788 -0.0013172 -0.01779 -0.021071 0.28557 0.20377 0.00083822 0.0017044
0.0006136 0.0011862 0.00012775 0.00066538
0.00019425 -0.00080958 -0.002534 0.00052905 0.00082742 0.0017185 0.079004 0.27251
0.0095211 -0.020096 0.0011314 0.0012623
-0.0026915 0.002254 6.5803e-05 0.0031474 0.00062211 0.0011697 0.0094937 -0.020147
0.0065564 0.24025 0.013031 -0.014645
0.0012522 0.0020282 -0.00088007 0.0020723 0.00010952 0.00068256 0.0011157 0.0012879
0.013139 -0.014621 -0.022368 0.31489
1280000000 0.17383 0.26805 -0.0085811 -0.029271 -0.0019991 0.0022444 -0.00081599 -0.002076
-0.00072618 0.0031894 0.0024332 0.0014742
-0.0085577 -0.029236 -0.0010555 0.37932 -0.02456 -0.0077492 -0.00098165 0.0015287
0.0018241 0.0017408 0.0007154 0.0021023
-0.0020048 0.0022471 -0.024621 -0.0076517 0.31592 0.16064 0.0015893 -2.2044e-05
0.0011614 0.00017529 0.00026396 0.00036178
-0.00087252 -0.0019892 -0.00095257 0.0015883 0.0016192 1.655e-06 0.11611 0.2549
-0.0012935 -0.021712 -0.0012897 0.00034194
-0.00065918 0.003159 0.0018968 0.0017547 0.0011154 0.0001639 -0.0013533 -0.021662
0.043352 0.24302 0.0016532 -0.016081
0.0025247 0.0013306 0.00080762 0.0020196 0.00020585 0.00030397 -0.0010773 0.00027291
0.0016612 -0.016152 0.02673 0.31896
1340000000 0.2121 0.23392 -0.018341 -0.019058 0.00044517 0.0044314 -0.0016408 -0.00071736
0.0015879 0.002552 0.0018445 -0.0015465
-0.0183 -0.019055 0.03868 0.37063 -0.021305 0.0052267 -0.00012883 0.0020738
0.0020133 0.00070789 0.0013008 0.00080786
0.00050121 0.0044121 -0.021304 0.0053178 0.33811 0.11182 0.001177 -0.00093676
0.00064036 -0.00051051 0.00014419 0.00035698
-0.001667 -0.00074874 -0.00013184 0.0020809 0.0011806 -0.00090828 0.14804 0.23172
-0.011471 -0.017387 0.00046153 0.001315
0.0015205 0.0025372 0.0019794 0.00071562 0.00065921 -0.00049107 -0.011527 -0.017357
0.07409 0.23523 -0.0052209 -0.01426
0.0017972 -0.0015144 0.00129 0.00087282 0.00021203 0.00040653 0.00035413 0.0013531
-0.0052885 -0.014261 0.065421 0.31486
1400000000 0.24539 0.19662 -0.024302 -0.0071221 0.005058 0.0032901 -0.002201 0.0005523
0.0024709 0.00094676 0.00032747 -0.0013372
-0.024284 -0.0071337 0.07562 0.35825 -0.014226 0.013103 0.0014415 0.0014301
0.0013032 -0.00081259 0.001174 0.00017336
0.0050682 0.003285 -0.014187 0.013197 0.35059 0.058641 6.8432e-05 -0.0016365
0.00014462 -0.00036685 0.00041579 0.00035909
-0.0022269 0.00054959 0.0014138 0.0014666 5.6966e-05 -0.0016303 0.17526 0.20204
-0.017543 -0.0094453 -0.00096603 0.00064083
0.0025317 0.0010124 0.0013477 -0.0008173 0.00016635 -0.00042391 -0.017551 -0.0094012
0.10653 0.22866 -0.011763 -0.0085738
0.00037468 -0.001336 0.0012102 0.00012608 0.00040516 0.00037055 -0.00090188 0.00071027
-0.011741 -0.0085226 0.10961 0.3057
1460000000 0.26953 0.15286 -0.02075 0.0057306 0.0054626 -0.0017222 -0.0016679 0.001734
0.0021828 -0.00054629 -0.00024407 -0.00085768
-0.020715 0.00571 0.11042 0.33641 -0.0049829 0.015553 0.0018678 0.00018653
0.000886 -0.0014876 0.0012226 -0.00052919
0.0054871 -0.0017305 -0.0048939 0.015602 0.35741 0.0041218 -0.0013156 -0.0014063
5.5246e-05 -0.00030265 0.00081024 -0.00035794
-0.0016287 0.0017862 0.0018505 0.00017155 -0.001331 -0.0013638 0.20026 0.17252
-0.018024 -0.0013529 -0.00038093 0.0028369
0.0021525 -0.00061753 0.00087139 -0.0015557 4.6147e-05 -0.00027925 -0.01805 -0.0013065
0.13669 0.21295 -0.013236 -0.0017644
-0.00025737 -0.00086884 0.0012134 -0.00043801 0.00081317 -0.00028708 -0.00038401 0.0027295
-0.013173 -0.0018804 0.14406 0.28529
1520000000 0.28115 0.11041 -0.014568 0.011089 0.0034117 -0.0040377 0.00014057 0.0027073
0.0021241 -0.001825 -0.0011342 -0.00025841
-0.014592 0.011074 0.14341 0.32184 0.0025673 0.012565 0.0017877 -0.00085012
-6.5589e-05 -0.0011427 0.00028829 -0.00099722
0.0033746 -0.0040773 0.0026361 0.01256 0.34953 -0.053458 -0.0011807 -0.00038004
0.00051052 -0.0009566 0.00022661 -0.00016634
0.00011276 0.0027067 0.0017975 -0.00087976 -0.0011654 -0.00040778 0.22102 0.13417
-0.016194 0.0051599 0.0022082 0.0022997
0.0020386 -0.0018147 -6.3184e-05 -0.0011328 0.00050681 -0.00093839 -0.016188 0.0052359
0.164 0.19697 -0.012302 0.0029589
-0.0010792 -0.00022081 0.00026691 -0.0010382 0.00021269 -0.00021443 0.0022073 0.0023242
-0.012344 0.0029195 0.17626 0.26629
1580000000 0.29062 0.065607 -0.007526 0.014235 -0.0010692 -0.0047197 0.0016642 0.0020553
-0.00018055 -0.0022423 -0.00014503 0.0004416
-0.007534 0.014218 0.17026 0.29848 0.0057023 0.0073387 0.00056993 -0.0017655
-0.0007102 -0.001041 -0.0002315 -0.00076346
-0.0010992 -0.0047263 0.005747 0.0073035 0.32859 -0.10977 -0.0015766 0.00064236
-0.00052428 -0.0011674 0.00029522 -0.00067139
0.0016861 0.0020561 0.00054291 -0.0017999 -0.0016452 0.00061372 0.23295 0.096755
-0.011437 0.010064 0.0028444 0.00053616
-0.00014912 -0.0022436 -0.00071653 -0.0010588 -0.00053356 -0.0012263 -0.011401 0.010089
0.18745 0.17838 -0.0089728 0.0086609
-0.00020464 0.00041844 -0.00026524 -0.00068932 0.00031306 -0.00062055 0.002837 0.00055369
-0.00899 0.0087438 0.20989 0.24159
1640000000 0.29324 0.024081 -0.00048811 0.012487 -0.0027523 -0.0024319 0.0030127 0.00096799
-0.0006813 -0.0016499 -0.00044977 0.00044631
-0.00051062 0.012475 0.20067 0.27386 0.0058067 0.0024764 -0.00077774 -0.0019143
-0.0010122 -0.0002199 -0.00044445 -0.00068733
-0.0028033 -0.0024119 0.0058484 0.0024621 0.2996 -0.15952 -0.0006078 0.0015184
-0.0010801 -0.00081998 -0.00013348 -0.0004977
0.0030261 0.00093408 -0.00076227 -0.001907 -0.0006201 0.0015098 0.24435 0.049341
-0.0063715 0.010824 0.0027301 -0.0011647
-0.00067334 -0.0016751 -0.0010161 -0.00022381 -0.0010584 -0.00080994 -0.0063504 0.010853
0.20967 0.15179 -0.003928 0.010413
-0.00038938 0.00044333 -0.00043577 -0.00068674 -0.00012933 -0.00049581 0.0027575 -0.0012176
-0.0039026 0.010432 0.23651 0.21089
1700000000 0.28519 -0.020176 0.0029116 0.0092206 -0.003438 0.00030687 0.0031833 -0.0015499
-0.0021647 -0.0006464 0.00055567 0.00044119
0.0029049 0.0091811 0.21783 0.24374 0.0032722 -0.00029637 -0.0016334 -0.00055302
-0.000743 0.00014761 -0.00083926 -0.0003986
-0.0034235 0.00033332 0.0032733 -0.00032298 0.25469 -0.19828 0.00042025 0.0016732
-0.0021713 1.9906e-05 -0.00040241 -0.00075751
0.0031806 -0.0015347 -0.0016451 -0.00059752 0.00042835 0.0016904 0.24029 0.0028199
-0.0030165 0.010727 0.001446 -0.0023514
-0.0021539 -0.00066388 -0.00070765 0.0001418 -0.0021453 -5.5484e-06 -0.0029561 0.01073
0.22605 0.13041 0.001021 0.010004
0.00059345 0.0004181 -0.00085699 -0.0003982 -0.00039409 -0.00081255 0.0014667 -0.0024305
0.0010633 0.0099518 0.25326 0.17801
1760000000 0.27482 -0.067775 0.0048785 0.0055285 -0.0021218 0.001009 0.0010421 -0.0036539
-0.0014973 0.00064374 0.00025909 -0.00049656
0.0048679 0.0055192 0.24568 0.20532 0.00067288 -0.0018296 -0.0013264 0.00031676
-0.00085438 0.00090523 -0.0005574 0.00029599
-0.0021607 0.00097037 0.0006518 -0.0018649 0.2065 -0.2303 0.0012853 0.0011471
-0.00096028 0.0015995 -0.0014564 -0.00062374
0.0010808 -0.0036744 -0.0013219 0.0003487 0.0012952 0.0011087 0.2342 -0.045674
0.00018937 0.0092611 -0.00015088 -0.0025136
-0.0014934 0.00070548 -0.00085606 0.00095105 -0.00096744 0.0015904 0.00018207 0.0092726
0.24009 0.096366 0.0048937 0.0070029
0.00027708 -0.00055537 -0.00052388 0.00030981 -0.0015037 -0.0005308 -0.00027142 -0.0024757
0.0049145 0.00703 0.26801 0.14136
1820000000 0.25039 -0.1054 0.0045943 0.0019221 6.9883e-06 0.0022158 -0.0012402 -0.0031792
-0.0011238 0.0012465 -4.5728e-05 -0.00011256
0.0046029 0.0019183 0.25621 0.17535 -0.0014553 -4.1769e-05 -0.0011843 0.0010577
7.8531e-05 0.001116 -0.00062342 0.00043744
0.0001457 0.0022931 -0.0014145 -9.4689e-06 0.15501 -0.24467 0.0017481 0.00023289
8.3825e-05 0.0024885 -0.0017128 0.00038335
-0.0013049 -0.0031258 -0.0011907 0.0010737 0.0017363 0.00024893 0.20644 -0.092317
0.001778 0.0075658 -0.0017947 -0.0019236
-0.0011365 0.001189 0.00010343 0.0010957 0.00011328 0.0025578 0.0018358 0.0075892
0.25529 0.066341 0.0056809 0.0030271
-2.5266e-05 -0.00011793 -0.00058436 0.00041421 -0.0016163 0.00034192 -0.0016794 -0.0017965
0.0057046 0.0030656 0.27129 0.10489
1880000000 0.21571 -0.14458 0.0019947 -0.00020566 -0.00065564 0.0022456 -0.0030551 -0.0020458
4.1607e-05 0.0018264 0.0002835 -0.00073093
0.0019601 -0.00019834 0.26183 0.13023 -0.0034236 0.002262 -0.00012641 0.0016429
0.00061101 0.0010353 9.1439e-05 0.00090767
-0.00072545 0.0022499 -0.0033867 0.0022811 0.10302 -0.25204 0.0015963 -0.001313
0.0016898 0.0015802 -0.0010737 0.0016466
-0.003054 -0.0020067 -0.0001348 0.0016392 0.0015664 -0.0012963 0.16941 -0.13232
0.0027052 0.0052765 -0.0023856 0.00022888
7.4523e-05 0.0018845 0.00060275 0.0010417 0.001768 0.0015508 0.0027196 0.0052087
0.25838 0.036185 0.00561 0.00079903
0.00025321 -0.0006954 0.0001417 0.00088951 -0.0010118 0.0016041 -0.0023006 -4.4069e-06
0.0055972 0.00072113 0.27225 0.072365
1940000000 0.17804 -0.17146 -0.00041887 -0.001514 0.0014371 0.0020162 -0.003675 0.00060609
0.0014611 0.0010119 -0.00088417 -0.00073849
-0.00037413 -0.0015643 0.26465 0.097819 -0.0017094 0.0049644 0.00098377 0.0011759
0.0016033 0.00028186 0.00076297 0.00015588
0.0015379 0.0020332 -0.0016811 0.0050326 0.060112 -0.24408 2.5759e-05 -0.0020509
0.0022541 3.462e-05 0.00040833 0.0016628
-0.0036877 0.00054125 0.001005 0.0011579 3.1752e-05 -0.0020688 0.11983 -0.16674
0.0021697 0.0035051 -0.0014549 0.0011113
0.0015154 0.00095245 0.0015683 0.00028317 0.0022028 -8.8741e-06 0.0021503 0.0035105
0.26167 -0.0026832 0.0040537 -0.003113
-0.00080089 -0.00060077 0.00075207 0.00027257 0.00039654 0.0016371 -0.0016307 0.0012748
0.0040262 -0.0030585 0.26368 0.0355
2000000000 0.13115 -0.18611 -0.0039435 0.00061782 0.0029494 0.0016413 -0.002305 0.0036355
0.0011143 0.00015786 -0.00068339 0.00075759
-0.0039538 0.00062625 0.25112 0.061931 -0.0007649 0.0069073 0.001399 0.00036443
0.001012 -0.00099154 0.00032339 0.00018495
0.0028904 0.0016514 -0.00071681 0.0069388 0.01756 -0.22954 -0.0014003 -0.00098866
0.0018418 -0.0012976 0.0017171 0.0014366
-0.0022082 0.0036874 0.0014508 0.00037336 -0.0013523 -0.00090115 0.066035 -0.17934
0.00058673 0.0025516 -0.0006312 0.0017378
0.0012159 0.00015716 0.0010063 -0.0010202 0.0018117 -0.0012162 0.00061818 0.0025837
0.25582 -0.035746 0.0003552 -0.0042353
