!Keysight Technologies,M9804A,MY58100912,A.14.10.03
!Date: Thursday, April 27, 2023 10:28:33
!Correction: S11(C  6-Port  ) 
!S12(C  6-Port  ) 
!S13(C  6-Port  ) 
!S14(C  6-Port  ) 
!S15(C  6-Port  ) 
!S16(C  6-Port  ) 
!S21(C  6-Port  ) 
!S22(C  6-Port  ) 
!S23(C  6-Port  ) 
!S24(C  6-Port  ) 
!S25(C  6-Port  ) 
!S26(C  6-Port  ) 
!S31(C  6-Port  ) 
!S32(C  6-Port  ) 
!S33(C  6-Port  ) 
!S34(C  6-Port  ) 
!S35(C  6-Port  ) 
!S36(C  6-Port  ) 
!S41(C  6-Port  ) 
!S42(C  6-Port  ) 
!S43(C  6-Port  ) 
!S44(C  6-Port  ) 
!S45(C  6-Port  ) 
!S46(C  6-Port  ) 
!S51(C  6-Port  ) 
!S52(C  6-Port  ) 
!S53(C  6-Port  ) 
!S54(C  6-Port  ) 
!S55(C  6-Port  ) 
!S56(C  6-Port  ) 
!S61(C  6-Port  ) 
!S62(C  6-Port  ) 
!S63(C  6-Port  ) 
!S64(C  6-Port  ) 
!S65(C  6-Port  ) 
!S66(C  6-Port  ) 
!S6P File: Measurement: :
# Hz S  RI   R 50
500000000 -0.32777 -0.055127 -0.012258 -0.0012415 -0.0086207 0.013386 -0.0039469 0.012568
0.011161 0.0051398 -0.005214 0.0089535
-0.012226 -0.0011878 -0.411 -0.069387 0.006499 -0.010453 0.0010537 0.012063
0.0073925 0.0030016 0.0010227 0.013343
-0.0089009 0.013279 0.0063512 -0.010345 -0.25743 0.19662 0.0063136 0.0035152
-0.001003 0.0087629 0.00038279 0.011417
-0.0040895 0.012639 0.001176 0.012346 0.0062777 0.0034894 -0.32851 0.045418
-0.021327 -0.006833 0.016479 0.028175
0.011222 0.0047747 0.0074954 0.0024896 -0.00082989 0.0088969 -0.021443 -0.0066882
-0.25706 -0.15985 -0.029449 0.0039631
-0.0051136 0.0088208 0.0009903 0.013755 0.00049153 0.011431 0.016432 0.028251
-0.029404 0.0039778 -0.25512 -0.14337
560000000 -0.31419 0.10927 -0.023562 -0.065007 0.0011268 0.013269 0.0045829 0.01115
0.010749 0.0038264 0.011096 0.0085672
-0.023371 -0.064963 -0.37165 0.094142 -0.041683 -0.037711 0.013334 0.0026235
-0.013832 -0.0024072 0.0038771 -0.0010479
0.00090564 0.013204 -0.042096 -0.0373 -0.17997 0.24562 0.00084178 -0.0041985
0.017585 0.0037551 0.0083539 -0.0058523
0.0045496 0.011439 0.013537 0.00286 0.00094084 -0.0043481 -0.30622 0.1357
0.0024665 -0.020817 0.0044135 -0.021879
0.011131 0.0035165 -0.01363 -0.0035888 0.01743 0.0038123 0.0025099 -0.020867
-0.30464 0.018087 0.0057004 -0.046029
0.010565 0.0085977 0.0039201 -0.00088074 0.0086059 -0.006007 0.0044598 -0.021719
0.0056646 -0.046089 -0.32623 0.00345
620000000 -0.27215 0.087551 -0.023911 0.010122 0.004418 0.0093264 0.0084717 -0.0046219
0.012307 -0.000704 0.0013753 -0.0021813
-0.023904 0.010111 -0.39994 0.041375 -0.019088 0.0017323 -0.0010883 -0.0019603
0.011511 -0.0056401 0.001529 -0.002739
0.0045466 0.0092481 -0.019054 0.0016897 -0.1521 0.25399 -0.00050876 -0.0045421
-0.0031332 -0.0030168 0.0092609 -0.0025758
0.0085613 -0.0044357 -0.0011709 -0.0019259 -0.00054656 -0.0044637 -0.26308 0.14626
-0.039965 -0.018707 0.013314 0.028994
0.012465 -0.00087538 0.011558 -0.0056433 -0.0030392 -0.0031909 -0.039964 -0.019034
-0.23417 -0.016027 -0.041918 0.014952
0.0011778 -0.0020412 0.0015942 -0.0028786 0.0092957 -0.0024674 0.013231 0.02898
-0.041971 0.014986 -0.24127 -0.033116
680000000 -0.2381 0.1801 -0.026625 -0.013332 0.0049691 0.0050883 0.0012851 -0.0069917
-0.0024931 -0.011508 0.0058 -0.0067523
-0.026607 -0.01339 -0.38903 0.14408 -0.031928 -0.00069907 -0.0014672 -0.00068768
-0.0019319 -0.0096514 -0.0007138 -0.0013536
0.0050821 0.0051863 -0.031864 -0.00058196 -0.10431 0.27647 -0.00076731 -0.0008447
-0.0014438 -3.6984e-05 -0.0026925 -0.0084477
0.0018417 -0.0067199 -0.0014389 -0.00034302 -0.00072153 -0.00083197 -0.21944 0.20002
-0.024966 -0.005014 -0.0083443 -0.011885
-0.0028011 -0.01154 -0.0021395 -0.0094738 -0.0015529 -4.0459e-05 -0.024861 -0.0050032
-0.27087 0.08336 -0.0069148 -0.0046885
0.0055606 -0.0069527 -0.00064567 -0.0016406 -0.0026101 -0.0084311 -0.0083929 -0.011897
-0.0068832 -0.0047035 -0.25869 0.075535
740000000 -0.19053 0.1729 -0.039783 0.027531 0.013852 -0.0044361 0.00051816 -0.0043566
-0.0048933 -0.0016571 -0.005787 0.0021296
-0.039749 0.027516 -0.33375 0.16228 -0.035634 0.034772 0.00039216 -0.0064809
-0.012882 0.0068458 -0.00085673 -0.0062425
0.013853 -0.0043581 -0.035542 0.034983 -0.070641 0.27536 -0.0025868 0.0029549
-0.0021477 -0.0050258 -0.0018888 0.00080776
0.00041299 -0.0042323 0.00033256 -0.0063307 -0.002497 0.0031405 -0.20125 0.20612
-0.041189 -0.0052374 0.023108 0.017385
-0.0048616 -0.0016788 -0.012601 0.0070352 -0.0023571 -0.0050031 -0.041261 -0.0051972
-0.17681 0.1047 -0.040814 0.0029027
-0.0058221 0.0021339 -0.00070752 -0.0062462 -0.0018435 0.0010631 0.023138 0.017258
-0.040773 0.0027851 -0.2502 0.079883
800000000 -0.16241 0.21724 -0.021417 0.016563 0.0054475 -0.01017 -0.0040384 -0.0024709
-0.0044669 0.0013163 0.0041577 0.00074136
-0.021422 0.016551 -0.34145 0.23341 -0.0076385 0.034135 -0.0023848 0.0019674
-0.00088702 0.0024634 0.00067907 0.0051953
0.0053711 -0.010157 -0.0075261 0.034231 -0.032985 0.30077 0.00056944 0.0013945
0.00023434 0.0035481 -0.0016791 0.00045217
-0.0040748 -0.0024917 -0.002381 0.0018175 0.0005699 0.0013472 -0.17207 0.23446
-0.027232 0.01617 0.015064 -0.010794
-0.0047121 0.0015391 -0.0010669 0.0024455 0.00017527 0.0035548 -0.027185 0.016302
-0.20915 0.13318 -0.016353 0.021343
0.0038018 0.00065691 0.00074551 0.005003 -0.0016337 0.00038617 0.01496 -0.010857
-0.016321 0.021337 -0.24875 0.13075
860000000 -0.12624 0.23744 -0.016698 0.030034 -0.0030091 -0.010233 -0.0015558 0.0003366
0.003814 0.0051067 -0.003685 -0.0027835
-0.016734 0.030021 -0.29281 0.27716 0.0084036 0.033563 0.00029473 0.0020247
0.0037225 0.0013511 0.0033083 -8.3678e-06
-0.0030688 -0.010229 0.0085072 0.033598 0.0159 0.31037 -0.00032655 -0.00013312
0.0026409 -0.0011888 0.0015125 0.0039734
-0.0015627 0.00012763 0.0003029 0.0019914 -0.0003266 -0.00013216 -0.13325 0.24541
-0.015738 0.019555 -0.0068284 -0.0094064
0.0037977 0.0051299 0.0037241 0.001212 0.0026726 -0.0012118 -0.01572 0.019661
-0.15274 0.17898 -0.021666 0.017491
-0.0034099 -0.0030451 0.0032931 9.0632e-05 0.0014018 0.0039069 -0.0067501 -0.0093935
-0.021743 0.0175 -0.19622 0.17819
920000000 -0.10327 0.25995 0.0056544 0.0381 -0.0089782 -0.0046831 -0.0019193 0.0012877
0.00082525 0.0014957 0.0029755 -0.0013442
0.0056041 0.038086 -0.26625 0.29735 0.028414 0.021876 0.0013374 0.0010732
0.0070611 -0.00018655 0.0040039 -0.0030758
-0.0089886 -0.0046927 0.028497 0.021788 0.061431 0.31195 0.001928 -6.7174e-05
0.0010643 -0.00023288 0.00077415 -0.0017492
-0.0018541 0.0012973 0.0014063 0.0010856 0.0019292 -0.0001063 -0.10934 0.26102
-0.0077937 0.031068 0.0046591 -0.0065828
0.00097659 0.0014811 0.0072117 -0.00018658 0.001108 -0.00019667 -0.007747 0.031135
-0.13962 0.18411 -0.00048842 0.026837
0.0032467 -0.0011929 0.0042171 -0.0031082 0.00092619 -0.0017665 0.0045772 -0.0065008
-0.00050847 0.026847 -0.20698 0.18996
980000000 -0.057478 0.2818 0.017463 0.029208 -0.0092936 0.0042723 0.0014591 0.0033141
0.0035995 -0.0016662 -0.0032243 -0.0028557
0.01739 0.029184 -0.21466 0.33471 0.033 0.0043819 0.0018998 -1.8646e-05
0.0017523 -0.0060366 -0.00042572 -0.0027405
-0.0092949 0.0043154 0.033037 0.0042964 0.10803 0.30774 0.00055241 -0.0011734
0.00031563 -0.001938 0.0012985 -0.00032405
0.001529 0.0032768 0.0020084 8.0657e-06 0.00055491 -0.0011893 -0.070098 0.27215
0.010921 0.02842 -0.0089784 -0.0081053
0.0036562 -0.0016496 0.001735 -0.006004 0.0003076 -0.0019196 0.010989 0.02838
-0.10523 0.21052 0.0074172 0.019308
-0.0033404 -0.0027445 -0.00040029 -0.0026936 0.0013162 -0.0003102 -0.0090102 -0.0080852
0.0074083 0.019294 -0.16555 0.24017
1040000000 -0.016119 0.28906 0.033003 0.018138 -0.001351 0.0071098 0.0021275 0.00067984
0.00024706 -0.003598 -8.7967e-05 -0.0015273
0.03292 0.018161 -0.1794 0.34752 0.029214 -0.015091 0.0016517 -0.0017755
-0.0022198 -0.0028315 -0.0012745 -0.0029145
-0.0012933 0.0071265 0.029205 -0.015182 0.15529 0.2939 -0.0005269 -0.0015305
-0.0016698 -0.00094941 -0.00095429 -0.00095007
0.0022312 0.00069752 0.0016123 -0.0017209 -0.00052623 -0.0015279 -0.042138 0.28061
0.021219 0.016279 -0.0012883 0.00078247
0.00017663 -0.0035346 -0.0022542 -0.0027953 -0.0016564 -0.00098921 0.021263 0.016259
-0.072655 0.21468 0.014626 0.016921
-0.00031485 -0.0014717 -0.0013025 -0.0029431 -0.0009089 -0.00095083 -0.0012955 0.00072074
0.014623 0.016929 -0.1438 0.25989
1100000000 0.027518 0.29995 0.035988 -0.0044085 0.0029744 0.0038794 0.0021475 -0.00062637
-0.0021626 -0.0027971 -0.0040348 -0.00017825
0.035957 -0.0043856 -0.13739 0.36719 0.01484 -0.028051 -8.6512e-05 -0.0018455
-0.0036826 -0.00081025 -0.0037186 -0.00065252
0.0029671 0.0038818 0.014751 -0.028123 0.20128 0.2745 -0.0018902 0.00018718
-0.0017777 0.00070226 -0.0011267 -0.00015876
0.0021348 -0.00063304 -9.9865e-05 -0.0017862 -0.0018844 0.00020033 -0.0023009 0.2854
0.025324 0.0022902 -0.0024414 -0.00098237
-0.0021674 -0.0027936 -0.0037162 -0.00083989 -0.0017616 0.00071275 0.025324 0.0022686
-0.052122 0.22598 0.020005 0.0067588
-0.0040813 -0.00018868 -0.0037904 -0.00069229 -0.0011444 -0.00018424 -0.0024569 -0.00092496
0.019991 0.0067429 -0.10027 0.29268
1160000000 0.079196 0.29651 0.023665 -0.021011 0.0027181 -0.00043596 1.4284e-05 -0.0020401
-0.0040005 -0.00075411 -0.0013515 0.0043845
0.023636 -0.020975 -0.092408 0.37253 -0.0043107 -0.028887 -0.0015364 -0.0015969
-0.0028673 0.0026382 -0.0017424 0.0019834
0.0027101 -0.00047327 -0.0044201 -0.028883 0.24589 0.24375 -0.00083148 0.001684
-0.00044363 0.0019349 -0.0006509 0.00055439
-9.3618e-06 -0.0020533 -0.0016543 -0.0016659 -0.00084292 0.001724 0.038214 0.28167
0.020779 -0.013007 -0.004254 0.0042948
-0.0039584 -0.00075411 -0.0028869 0.0026064 -0.0004465 0.0019265 0.020755 -0.013046
-0.017105 0.23298 0.018282 -0.0025388
-0.001287 0.0043318 -0.0017565 0.0019583 -0.00069989 0.00048715 -0.0042261 0.0042355
0.018308 -0.0025345 -0.050722 0.29671
1220000000 0.12251 0.28643 0.010257 -0.030249 -0.0016141 -0.00087764 0.00034476 -0.00086769
-0.0024987 0.0021717 0.0012725 0.0021111
0.010246 -0.030209 -0.049442 0.38585 -0.017315 -0.020888 -0.0026121 0.00037867
-4.4345e-05 0.0032153 -0.00082624 0.0021995
-0.0016122 -0.00087789 -0.01742 -0.020828 0.28452 0.2041 0.0008141 0.00178
0.00071501 0.0012006 0.00045079 0.00058018
0.0003552 -0.00085572 -0.0025983 0.00043355 0.00081046 0.0017643 0.077496 0.27194
0.0093973 -0.0193 0.001062 0.00099304
-0.0024689 0.0022447 -3.4912e-05 0.0032273 0.00071393 0.0012044 0.0093906 -0.019312
0.0071497 0.23823 0.012871 -0.014273
0.0012636 0.002121 -0.00085568 0.002169 0.00043137 0.00059663 0.0010493 0.0010165
0.012874 -0.014264 -0.021839 0.31385
1280000000 0.1729 0.26763 -0.00856 -0.028528 -0.0017681 0.0025246 -0.00076487 -0.0022659
-0.00074469 0.0030614 0.002492 0.0015331
-0.0085081 -0.028496 -0.0027778 0.3788 -0.024151 -0.0078674 -0.0011023 0.0015534
0.0018767 0.001923 0.00078953 0.0021091
-0.0017686 0.0025146 -0.024224 -0.0077675 0.31515 0.1613 0.0016241 0.00012449
0.0011492 0.00017836 0.00044588 0.0001952
-0.00079228 -0.0022086 -0.0011123 0.0015338 0.001627 0.00012145 0.11438 0.25523
-0.0010035 -0.020916 -0.0014357 0.00057064
-0.00078112 0.0030751 0.0019068 0.0019212 0.0011444 0.00017813 -0.0010499 -0.020927
0.042828 0.24082 0.00172 -0.016043
0.002502 0.0014309 0.00079272 0.0021441 0.00047461 0.00019826 -0.0013655 0.00057533
0.0017272 -0.016044 0.026352 0.31822
1340000000 0.21087 0.23405 -0.017947 -0.018442 0.00074415 0.0046374 -0.0017665 -0.00099225
0.0015487 0.0025976 0.0020135 -0.0015276
-0.017918 -0.018425 0.036982 0.371 -0.021156 0.0050298 -0.00029562 0.0021884
0.002137 0.00081879 0.0012275 0.00073817
0.00076319 0.0046386 -0.021161 0.0051149 0.33798 0.11269 0.0012469 -0.00095123
0.0006368 -0.00065007 7.2044e-05 0.00011688
-0.0017718 -0.00096413 -0.00024277 0.0021837 0.001275 -0.00094463 0.1469 0.233
-0.010733 -0.017211 0.00016328 0.0016287
0.0015588 0.0026131 0.0021535 0.00079456 0.00066398 -0.0006577 -0.010792 -0.017195
0.072863 0.23336 -0.0057251 -0.014042
0.0019659 -0.0015469 0.0012152 0.00073922 6.0477e-05 0.00011473 0.00014594 0.0016223
-0.0056974 -0.014043 0.06504 0.31421
1400000000 0.24443 0.19749 -0.023658 -0.0068492 0.0053327 0.0032195 -0.0023352 0.00054194
0.0024242 0.0010505 0.00048503 -0.0014867
-0.023626 -0.006854 0.074252 0.35935 -0.014337 0.012928 0.0015135 0.0016298
0.0014094 -0.00095907 0.0012595 0.00020549
0.0053561 0.0031876 -0.014285 0.013009 0.35066 0.059287 0.00012374 -0.0017196
0.00016541 -0.00036205 0.00043978 0.00026771
-0.0023428 0.00056287 0.0015136 0.0016111 0.0001123 -0.001696 0.17482 0.20342
-0.016808 -0.0096146 -0.00090057 0.00070174
0.0024498 0.001046 0.0014433 -0.00091915 0.00017798 -0.0003563 -0.016852 -0.009569
0.1045 0.22777 -0.011363 -0.0084024
0.00048671 -0.0015549 0.001254 0.00021205 0.00041702 0.00025197 -0.00089596 0.00073494
-0.011376 -0.0084031 0.10881 0.30489
1460000000 0.26911 0.15425 -0.020107 0.0056416 0.005662 -0.00185 -0.0016635 0.0018333
0.002226 -0.00038441 -0.00017853 -0.0010003
-0.020089 0.0056164 0.10974 0.33805 -0.00514 0.015565 0.0019418 0.0001464
0.00092426 -0.0015903 0.0012406 -0.00049669
0.005682 -0.0018512 -0.005083 0.015602 0.35774 0.004673 -0.001293 -0.0014427
0.00011337 -0.000297 0.00068511 -0.00019086
-0.0016625 0.0018195 0.0019625 0.00013982 -0.0012809 -0.0014693 0.2006 0.17408
-0.017684 -0.0019848 -0.00029039 0.0029407
0.0022187 -0.00041391 0.00089658 -0.0015903 8.6289e-05 -0.0002844 -0.017705 -0.0019557
0.1343 0.21263 -0.013054 -0.0016939
-0.00016659 -0.00090681 0.0012383 -0.00051835 0.0007628 -0.00024416 -0.00028045 0.0029065
-0.013042 -0.0017063 0.14343 0.28517
1520000000 0.28167 0.11172 -0.014098 0.010677 0.0034731 -0.004157 0.00011993 0.0028091
0.0022072 -0.001835 -0.0011267 -0.00021269
-0.0141 0.010655 0.14348 0.32353 0.0024643 0.012652 0.0018627 -0.00096125
-8.705e-05 -0.0011843 0.00040642 -0.00097537
0.0034301 -0.0041902 0.0025399 0.012635 0.35021 -0.053137 -0.0012824 -0.00043182
0.00056703 -0.00090875 0.00011924 -0.00011326
0.00011678 0.0027928 0.0018595 -0.00098228 -0.0012687 -0.00041456 0.22195 0.13532
-0.016334 0.0044277 0.0023222 0.0023156
0.0021523 -0.0018704 -8.9072e-05 -0.0011739 0.00057882 -0.00090038 -0.016332 0.004474
0.16174 0.19762 -0.011999 0.002871
-0.0011068 -0.00021266 0.00040763 -0.00094835 0.00016564 -0.00010446 0.002307 0.0023222
-0.012019 0.0028576 0.17595 0.26598
1580000000 0.29171 0.06641 -0.0073483 0.013629 -0.0010193 -0.0050292 0.0017311 0.0021214
-5.4107e-05 -0.0023078 -0.00027444 0.00041363
-0.007347 0.013596 0.17107 0.29996 0.0057368 0.0074153 0.00046991 -0.0018602
-0.00071288 -0.001058 -0.00021399 -0.0007821
-0.0010464 -0.004985 0.005783 0.0073903 0.32919 -0.10973 -0.0017238 0.00071522
-0.00044391 -0.0012204 0.0002905 -0.00060816
0.0017481 0.002114 0.0004656 -0.0018779 -0.0017304 0.00071616 0.23426 0.097448
-0.012034 0.0095751 0.0030079 0.0006103
-7.5762e-05 -0.0022839 -0.00073227 -0.0010582 -0.0004904 -0.0012007 -0.012012 0.0096119
0.18573 0.18004 -0.0090918 0.0084791
-0.00033395 0.0003817 -0.00023702 -0.00078714 0.00033071 -0.00060657 0.00302 0.00061071
-0.0091005 0.0084963 0.20947 0.24203
1640000000 0.29456 0.024155 -0.00064734 0.012015 -0.0029176 -0.0025191 0.0030127 0.00092347
-0.00071764 -0.001798 -0.00032457 0.00053451
-0.00065767 0.012 0.20192 0.27489 0.0059322 0.0024772 -0.00079611 -0.0019281
-0.0010487 -0.0002437 -0.00036786 -0.00076267
-0.0029356 -0.0025291 0.0059447 0.0024468 0.30027 -0.16017 -0.00065367 0.0016997
-0.0011657 -0.00085204 -0.00015259 -0.00050277
0.003032 0.00092342 -0.00081209 -0.0019224 -0.00066602 0.0016845 0.24601 0.049298
-0.007139 0.010968 0.0029663 -0.0011992
-0.00074411 -0.0017555 -0.0010485 -0.00023436 -0.0011425 -0.00086466 -0.0071077 0.010972
0.20864 0.15382 -0.003999 0.010451
-0.00029075 0.00056483 -0.00040269 -0.00073995 -0.00022379 -0.00053853 0.0029779 -0.0012434
-0.0039923 0.010431 0.23622 0.21107
1700000000 0.28621 -0.020791 0.0025985 0.0088786 -0.0034563 0.00019976 0.0031597 -0.0015564
-0.0021954 -0.00076092 0.0006623 0.00036707
0.0025854 0.0088725 0.21951 0.24411 0.0033768 -0.00033134 -0.0017226 -0.00054635
-0.0007497 0.00012116 -0.0008671 -0.00051239
-0.0034381 0.00021273 0.0033951 -0.00035145 0.25458 -0.19884 0.00053206 0.0016994
-0.0020943 7.6225e-06 -0.00028532 -0.00074641
0.0031925 -0.001597 -0.0017381 -0.00055788 0.00052188 0.0017153 0.24187 0.0018933
-0.0034861 0.011233 0.001703 -0.0025261
-0.0022092 -0.00078118 -0.00074883 0.00010462 -0.0021093 -1.8765e-06 -0.0034681 0.011251
0.226 0.1327 0.0010214 0.0099304
0.00057995 0.00039742 -0.00088211 -0.00053548 -0.00033924 -0.00076313 0.0017009 -0.0025234
0.001025 0.0099323 0.25303 0.17819
1760000000 0.27551 -0.068819 0.004611 0.0054454 -0.002253 0.00099351 0.0010863 -0.0038387
-0.0016125 0.00063848 0.00028734 -0.0004968
0.0045988 0.0054374 0.24735 0.20502 0.00075263 -0.0018791 -0.0012683 0.00033766
-0.0009207 0.00092173 -0.00059668 0.00035213
-0.0022579 0.0010108 0.00074629 -0.0018896 0.20595 -0.23052 0.0013244 0.0011898
-0.0010975 0.0017336 -0.0013746 -0.00061373
0.0010352 -0.0038088 -0.0012585 0.00033631 0.0013408 0.001128 0.23496 -0.047281
0.0001395 0.010001 -0.00022797 -0.0027998
-0.0016503 0.00068075 -0.00091429 0.0009327 -0.0010702 0.0017146 0.00017706 0.0099833
0.241 0.098604 0.004725 0.007155
0.00026939 -0.00052981 -0.00056801 0.00036869 -0.0013782 -0.00056331 -0.00023214 -0.0028039
0.0047404 0.0071405 0.26764 0.14133
1820000000 0.25057 -0.10658 0.0043828 0.0018585 -0.00011834 0.0022203 -0.0013302 -0.0031544
-0.001188 0.0012345 -0.0001922 -0.00011761
0.0043824 0.0018661 0.25772 0.17431 -0.001384 -0.00034235 -0.0012213 0.0010455
7.1045e-05 0.0011759 -0.00078092 0.00043441
-8.2111e-05 0.0021752 -0.0013405 -0.00033711 0.15505 -0.24525 0.0016879 5.4251e-05
0.00019817 0.0025258 -0.0017083 0.00043138
-0.001282 -0.0031623 -0.0011786 0.0010965 0.0016906 7.9597e-05 0.20656 -0.094454
0.0023492 0.0079693 -0.0018125 -0.0020196
-0.0011552 0.001254 5.4081e-05 0.0011917 0.00019903 0.0025155 0.0023676 0.0079629
0.25708 0.067907 0.0057868 0.0032986
-0.00018252 -0.00011682 -0.000782 0.00040734 -0.001678 0.0004405 -0.0018202 -0.0020076
0.0057771 0.0032902 0.27119 0.10528
1880000000 0.21525 -0.14569 0.0017797 -0.00021121 -0.0007719 0.0024311 -0.0031384 -0.0019723
-6.0937e-05 0.0019428 0.00023066 -0.00061412
0.0017733 -0.00020688 0.26266 0.12866 -0.0035138 0.0021706 -0.00013831 0.0016706
0.00059072 0.0011376 0.00016132 0.0010783
-0.00077698 0.0024674 -0.0035103 0.0021969 0.103 -0.25184 0.0015492 -0.0012738
0.0019094 0.0016253 -0.00081275 0.0015775
-0.003189 -0.0020139 -0.0001645 0.0016656 0.0015963 -0.0012777 0.1681 -0.13403
0.0031766 0.005386 -0.0023193 1.6623e-05
-8.4213e-05 0.0019045 0.00059682 0.0011096 0.0019303 0.0016322 0.0032001 0.0053924
0.26039 0.036815 0.0056396 0.00078006
0.00029164 -0.00065324 0.00014007 0.0010942 -0.0008977 0.001586 -0.0022757 1.2333e-05
0.0056521 0.00080464 0.27215 0.072945
1940000000 0.17704 -0.17213 -0.00066302 -0.0015779 0.001425 0.002375 -0.0037178 0.00063876
0.001529 0.0010292 -0.00068798 -0.00063701
-0.00067448 -0.0015843 0.26484 0.095988 -0.0019391 0.0049024 0.00097771 0.0011868
0.0016892 0.00037635 0.00086982 0.0002813
0.0014293 0.0023924 -0.0018851 0.0049158 0.05973 -0.24429 9.7746e-05 -0.001937
0.0021893 8.2827e-05 0.00041133 0.0014818
-0.0036793 0.00064869 0.00098663 0.0011833 4.7567e-05 -0.0019088 0.11803 -0.16766
0.0025099 0.0031029 -0.0018282 0.0010857
0.0015288 0.0010242 0.0016615 0.00038364 0.002178 5.4211e-05 0.0024823 0.0031004
0.26364 -0.0031273 0.0041385 -0.0028775
-0.00079219 -0.00059116 0.00081123 0.00028451 0.00035589 0.001471 -0.0018252 0.00111
0.004138 -0.0028959 0.26359 0.035881
2000000000 0.13034 -0.1861 -0.0042981 0.00089336 0.0031062 0.001769 -0.0022473 0.0037303
0.0011311 0.00018407 -0.00060999 0.00061709
-0.0042957 0.00088844 0.25039 0.060375 -0.00085959 0.0071531 0.0013538 0.00032183
0.0011902 -0.0011269 0.0005218 0.00033612
0.0031249 0.0017735 -0.00084543 0.0071633 0.01736 -0.22921 -0.0013139 -0.001024
0.0017031 -0.0013081 0.001753 0.0016037
-0.0022842 0.0037521 0.0013541 0.00026979 -0.0013978 -0.0010862 0.063711 -0.17937
0.00049354 0.0022361 -0.00052864 0.002032
0.0011361 0.00013854 0.0011741 -0.0011339 0.0016875 -0.0012911 0.00051356 0.0022326
0.25723 -0.036771 0.00052072 -0.0040989
