!Keysight Technologies,M9804A,MY58100912,A.14.10.03
!Date: Thursday, April 27, 2023 10:28:33
!Correction: S11(C  6-Port  ) 
!S12(C  6-Port  ) 
!S13(C  6-Port  ) 
!S14(C  6-Port  ) 
!S15(C  6-Port  ) 
!S16(C  6-Port  ) 
!S21(C  6-Port  ) 
!S22(C  6-Port  ) 
!S23(C  6-Port  ) 
!S24(C  6-Port  ) 
!S25(C  6-Port  ) 
!S26(C  6-Port  ) 
!S31(C  6-Port  ) 
!S32(C  6-Port  ) 
!S33(C  6-Port  ) 
!S34(C  6-Port  ) 
!S35(C  6-Port  ) 
!S36(C  6-Port  ) 
!S41(C  6-Port  ) 
!S42(C  6-Port  ) 
!S43(C  6-Port  ) 
!S44(C  6-Port  ) 
!S45(C  6-Port  ) 
!S46(C  6-Port  ) 
!S51(C  6-Port  ) 
!S52(C  6-Port  ) 
!S53(C  6-Port  ) 
!S54(C  6-Port  ) 
!S55(C  6-Port  ) 
!S56(C  6-Port  ) 
!S61(C  6-Port  ) 
!S62(C  6-Port  ) 
!S63(C  6-Port  ) 
!S64(C  6-Port  ) 
!S65(C  6-Port  ) 
!S66(C  6-Port  ) 
!S6P File: Measurement: :
# Hz S  RI   R 50
500000000 -0.3269 -0.056542 -0.010582 -0.0013929 -0.0083706 0.012455 -0.0024319 0.01196
0.012295 0.004489 -0.0041063 0.008666
-0.010468 -0.00092413 -0.40969 -0.071348 0.0073789 -0.011046 0.0014975 0.011362
0.0071381 0.0024601 0.0016416 0.012981
-0.008071 0.012645 0.0074844 -0.011001 -0.25433 0.19349 0.0062344 0.0028036
-0.0017504 0.007745 0.00043489 0.011671
-0.0028312 0.011902 0.0013785 0.011434 0.0062284 0.0028144 -0.32824 0.043897
-0.019742 -0.0057064 0.016648 0.02775
0.012259 0.0050865 0.0073547 0.0023366 -0.0016106 0.0079176 -0.019801 -0.0058027
-0.25575 -0.16133 -0.027255 0.0048072
-0.0043047 0.0090488 0.0014561 0.013002 0.00025732 0.011533 0.016443 0.027789
-0.02716 0.0050184 -0.25437 -0.1505
560000000 -0.31375 0.10814 -0.022722 -0.065289 4.0363e-05 0.013134 0.004714 0.011508
0.0098782 0.005104 0.011634 0.0086587
-0.022982 -0.06506 -0.36881 0.090471 -0.041759 -0.03816 0.013935 0.0036312
-0.013246 -0.0027349 0.005132 -0.0015394
-3.7898e-05 0.012976 -0.041982 -0.038103 -0.17888 0.24132 -0.00030151 -0.0042127
0.017417 0.0041957 0.0072328 -0.006812
0.0045293 0.011986 0.014015 0.0035827 -0.00018087 -0.0042074 -0.30428 0.13396
0.00231 -0.022959 0.0062621 -0.021284
0.010538 0.0043143 -0.013038 -0.0027216 0.017208 0.0041477 0.0022742 -0.02253
-0.30666 0.015469 0.0059106 -0.046417
0.01181 0.0083699 0.0049721 -0.0016792 0.007309 -0.0066083 0.0065048 -0.021288
0.0058986 -0.046352 -0.32442 -0.0010194
620000000 -0.27234 0.085406 -0.024256 0.0091057 0.0029978 0.0085812 0.0082585 -0.0046125
0.011808 -0.0015865 -0.00038355 -0.0016581
-0.024014 0.0090533 -0.39966 0.038142 -0.019869 0.00073821 -0.0015347 -0.0015039
0.011261 -0.0066673 0.00032789 -0.0029499
0.0028592 0.0086646 -0.019823 0.00069165 -0.15359 0.25024 -0.00070235 -0.004818
-0.0041355 -0.0026599 0.0089091 -0.0026637
0.0078772 -0.0048143 -0.0015684 -0.0015201 -0.00066068 -0.0048855 -0.26383 0.14505
-0.039902 -0.018381 0.013948 0.03023
0.012567 -0.00080318 0.011073 -0.0065926 -0.0042469 -0.0028855 -0.039639 -0.018669
-0.22993 -0.02056 -0.043902 0.0126
-0.00016431 -0.001481 0.00020765 -0.0030255 0.0086272 -0.0028165 0.013965 0.02972
-0.043873 0.013035 -0.24158 -0.035904
680000000 -0.23775 0.17782 -0.026086 -0.014063 0.0049604 0.0056262 0.0009112 -0.0067725
-0.0032562 -0.010715 0.0058279 -0.0052941
-0.026144 -0.014229 -0.38977 0.14175 -0.032567 -0.001149 -0.001855 -0.00038338
-0.0021787 -0.0090392 -0.00094356 -0.0013791
0.0049898 0.005572 -0.032582 -0.001039 -0.10674 0.27397 -0.00072081 -0.00017674
-0.0017501 0.00069779 -0.0029865 -0.0089947
0.0011972 -0.0065368 -0.0018623 -0.00036875 -0.00075195 -0.00017744 -0.22012 0.19896
-0.025087 -0.0058306 -0.0081956 -0.012398
-0.0029893 -0.010749 -0.0022542 -0.0090419 -0.0016904 0.000668 -0.025044 -0.00589
-0.26993 0.079713 -0.0065852 -0.0044031
0.0058095 -0.0054289 -0.00090085 -0.0014324 -0.0030019 -0.0091011 -0.0081305 -0.012451
-0.0064707 -0.0043963 -0.25902 0.068706
740000000 -0.19151 0.1715 -0.040597 0.026905 0.013371 -0.0037682 -7.8628e-05 -0.004297
-0.0050612 -0.0020644 -0.0062049 0.0026491
-0.040665 0.026808 -0.33524 0.16158 -0.037021 0.034371 -0.00016474 -0.0062771
-0.011599 0.0071175 -0.0014462 -0.0062841
0.013202 -0.0038277 -0.036908 0.034411 -0.073011 0.27396 -0.0017404 0.0029352
-0.0024031 -0.0048019 -0.0010698 0.00060878
-0.00017191 -0.0045961 -0.00020556 -0.0063563 -0.0017017 0.0029336 -0.20324 0.20482
-0.041396 -0.0047432 0.02229 0.017145
-0.0053737 -0.0014873 -0.011381 0.0072954 -0.0024583 -0.0045921 -0.041296 -0.0044892
-0.17647 0.10121 -0.040249 0.0013284
-0.0062614 0.0023639 -0.0016518 -0.0061531 -0.0011803 0.00060754 0.022276 0.017174
-0.040359 0.00097085 -0.25251 0.073526
800000000 -0.16447 0.21539 -0.022561 0.016339 0.0052985 -0.01 -0.0043384 -0.0024507
-0.004266 0.0018863 0.0040737 0.00089452
-0.022507 0.016253 -0.34339 0.2321 -0.0082906 0.034599 -0.0023815 0.0020582
-0.00045562 0.0021722 0.00049176 0.0054759
0.0052716 -0.0099912 -0.0081964 0.034651 -0.03523 0.30057 0.00070342 0.0012764
0.00012871 0.003378 -0.0018484 0.00071491
-0.0043575 -0.0023561 -0.002351 0.002117 0.00069828 0.0012819 -0.17305 0.23371
-0.02793 0.015566 0.01525 -0.011104
-0.0044539 0.0018674 -0.00054834 0.0021946 8.965e-05 0.0033889 -0.027884 0.015647
-0.21156 0.13024 -0.018297 0.021161
0.0041113 0.001049 0.00058373 0.0055188 -0.001853 0.00072423 0.015227 -0.011053
-0.018313 0.021184 -0.25088 0.12464
860000000 -0.12839 0.23732 -0.017717 0.030731 -0.003339 -0.0096177 -0.0019661 0.00038903
0.0036729 0.0044201 -0.0041975 -0.0033514
-0.017582 0.030756 -0.29461 0.27696 0.0080938 0.034306 0.0001938 0.0020823
0.0037247 0.00045721 0.0029685 0.00011091
-0.0033919 -0.0095773 0.0082351 0.034347 0.014297 0.31102 -0.00054774 -0.00026373
0.0024453 -0.001139 0.0011352 0.0043007
-0.0017819 0.00027984 0.00020657 0.0020325 -0.00055252 -0.00024284 -0.13457 0.2452
-0.016512 0.02007 -0.006843 -0.01016
0.00366 0.0043739 0.0037466 0.00055329 0.0024103 -0.0011679 -0.016435 0.020231
-0.15682 0.17662 -0.022035 0.016656
-0.0042915 -0.0034697 0.0030867 4.8506e-05 0.0011736 0.0043649 -0.0068711 -0.010206
-0.022121 0.016742 -0.20126 0.17519
920000000 -0.1057 0.25993 0.0049603 0.039324 -0.0090976 -0.0040532 -0.0018458 0.0016315
0.00066857 0.0014519 0.0025304 -0.0013985
0.0049948 0.039375 -0.26797 0.29782 0.028369 0.022737 0.0012573 0.0011559
0.0069556 -0.00060704 0.0039732 -0.0025813
-0.009083 -0.0040783 0.028432 0.022661 0.060426 0.31228 0.0018996 0.00018836
0.00069448 -0.00021233 0.00094876 -0.0012997
-0.0020732 0.0016493 0.0012597 0.0011571 0.0019416 0.00019353 -0.11039 0.26159
-0.0083698 0.031018 0.0044703 -0.0060107
0.00085529 0.0014923 0.0068673 -0.00067 0.00071742 -0.00026368 -0.0082953 0.031033
-0.14303 0.1829 -0.0013957 0.027578
0.0028092 -0.0011982 0.0040724 -0.0026242 0.00096603 -0.0012696 0.0044162 -0.0060631
-0.0014345 0.027487 -0.21126 0.18639
980000000 -0.058826 0.28265 0.017433 0.03003 -0.0087701 0.0046145 0.0017178 0.0035498
0.0035217 -0.0016742 -0.003324 -0.0025123
0.017402 0.030003 -0.21565 0.33544 0.033286 0.0048082 0.0019404 -7.7905e-05
0.0014577 -0.0056943 -0.00014138 -0.0025757
-0.0087791 0.0046313 0.03332 0.0047285 0.10722 0.30786 0.00064382 -0.0011502
0.00040671 -0.0018132 0.0014142 -0.00016518
0.0019285 0.0035314 0.001967 -6.291e-05 0.00065486 -0.001143 -0.07041 0.27293
0.010262 0.028649 -0.0094551 -0.0081159
0.0034264 -0.0016982 0.0014271 -0.0056604 0.00042082 -0.0017862 0.010357 0.02866
-0.1089 0.20955 0.006958 0.019262
-0.0033841 -0.002655 -0.00014553 -0.0025824 0.0014201 -0.00019578 -0.0094151 -0.0080976
0.0069108 0.019299 -0.17069 0.23767
1040000000 -0.016852 0.29019 0.033256 0.018968 -0.00086594 0.0073802 0.0023328 0.00069316
0.0003308 -0.0032615 -0.00027303 -0.0014508
0.033263 0.018929 -0.1797 0.34822 0.029585 -0.014694 0.0015786 -0.0018352
-0.0023398 -0.0025785 -0.0012413 -0.0029722
-0.00084536 0.0073093 0.029557 -0.014821 0.15443 0.29376 -0.0004682 -0.0015631
-0.0015696 -0.0010284 -0.00050477 -0.0012192
0.0021697 0.0006205 0.0015305 -0.0018262 -0.00048592 -0.0015758 -0.042459 0.28127
0.020916 0.016442 -0.0015638 0.0013006
0.00052379 -0.0032334 -0.0023809 -0.0025537 -0.0015786 -0.0010118 0.020954 0.016402
-0.07552 0.21507 0.014245 0.01779
-0.00027383 -0.0012079 -0.0011143 -0.002981 -0.00046612 -0.0012062 -0.001595 0.0013259
0.014208 0.017797 -0.1482 0.25794
1100000000 0.027192 0.30057 0.036543 -0.0037691 0.0035292 0.0037798 0.0023239 -0.00092538
-0.0022773 -0.0028121 -0.0040292 0.00011804
0.036422 -0.0037278 -0.13744 0.36794 0.015194 -0.027748 -9.7987e-05 -0.001722
-0.0034449 -0.00075928 -0.0037563 -0.00045482
0.0035228 0.0037782 0.015104 -0.027811 0.19997 0.27448 -0.0018269 0.00013069
-0.0016209 0.00053231 -0.0010913 -0.00066411
0.0023768 -0.00093541 -0.00010001 -0.001719 -0.0018236 0.00013503 -0.0020987 0.28601
0.025171 0.0028114 -0.0020937 -0.00079349
-0.0023719 -0.0027958 -0.0034453 -0.00072596 -0.0016258 0.0005484 0.025183 0.0027684
-0.055752 0.22704 0.019514 0.0077919
-0.0039502 1.6827e-06 -0.0037439 -0.00042457 -0.0011388 -0.00066068 -0.0020884 -0.00082608
0.019465 0.007843 -0.1044 0.29114
1160000000 0.079269 0.29716 0.024425 -0.020457 0.0032898 -0.00096015 -9.7559e-05 -0.0022524
-0.0037865 -0.00071831 -0.0013034 0.004021
0.024388 -0.020445 -0.091976 0.37241 -0.0036751 -0.028739 -0.0015122 -0.0015671
-0.0024451 0.0024068 -0.0016353 0.0018802
0.0032708 -0.00094972 -0.0037783 -0.028718 0.2446 0.24439 -0.00082375 0.0015697
-0.00060529 0.0015902 -0.0010719 0.00041001
-0.00015809 -0.0023649 -0.0015175 -0.0015222 -0.00083382 0.0015871 0.039106 0.28185
0.020749 -0.012302 -0.0041513 0.0046717
-0.0037457 -0.00072852 -0.0024833 0.0024196 -0.00057876 0.0015698 0.02074 -0.012286
-0.019264 0.23444 0.018003 -0.0013372
-0.0013101 0.0041738 -0.0015802 0.0018253 -0.0010402 0.00038877 -0.0041599 0.0046836
0.01801 -0.0013537 -0.054541 0.29593
1220000000 0.12251 0.2864 0.011362 -0.030148 -0.0014266 -0.0015855 6.6178e-05 -0.00078922
-0.0024859 0.0021066 0.0011196 0.0020751
0.011333 -0.03011 -0.049045 0.38557 -0.01676 -0.021057 -0.002529 0.00046538
-0.00011522 0.0029336 -0.00086157 0.0019382
-0.0014237 -0.0015505 -0.016859 -0.021008 0.28363 0.20528 0.00065297 0.0016297
0.00051121 0.0011435 0.00011676 0.00062682
6.8384e-05 -0.00073196 -0.0025057 0.00048502 0.00066597 0.0016218 0.078008 0.2716
0.0096995 -0.01853 0.0017469 0.001261
-0.0024786 0.0021794 -0.00010693 0.0029367 0.0005085 0.0011365 0.0096846 -0.018571
0.0058132 0.23995 0.012981 -0.012948
0.00115 0.0020495 -0.0008631 0.0019548 0.00011461 0.00060989 0.0017729 0.001258
0.012981 -0.012927 -0.026119 0.3138
1280000000 0.17308 0.26765 -0.007461 -0.028942 -0.0020878 0.0018002 -0.00076468 -0.0020443
-0.00071841 0.003089 0.0024375 0.0013196
-0.0074327 -0.028893 -0.0026445 0.37812 -0.023656 -0.0081727 -0.0010443 0.0013413
0.0016606 0.0017572 0.00056501 0.0020301
-0.0020716 0.0018205 -0.023711 -0.008096 0.31518 0.16276 0.0014349 2.623e-05
0.0010237 0.00026897 0.00010742 0.00037072
-0.0007551 -0.0020803 -0.001054 0.00135 0.0014498 2.8397e-05 0.1148 0.25437
-0.00030913 -0.020236 -0.00082695 0.00011148
-0.00072179 0.0031029 0.0016728 0.0017283 0.0010308 0.00027546 -0.00034215 -0.020224
0.04247 0.24254 0.0025657 -0.015004
0.0024331 0.0013862 0.00056426 0.0020515 0.00010216 0.00035504 -0.00086625 0.00010529
0.0025688 -0.015013 0.022026 0.31868
1340000000 0.21078 0.23344 -0.017132 -0.019496 0.00016467 0.0041958 -0.0016048 -0.00087191
0.0013708 0.0024898 0.0018132 -0.0013353
-0.01708 -0.019509 0.036725 0.37036 -0.02098 0.0043291 -0.00031276 0.0020389
0.001788 0.00085005 0.0011145 0.00087686
0.00018959 0.0041808 -0.020971 0.004438 0.33879 0.11377 0.0010429 -0.00085544
0.00065318 -0.00056225 0.00025909 0.00034119
-0.0016367 -0.00083419 -0.00030195 0.0020478 0.0010412 -0.00084435 0.1467 0.23169
-0.0097767 -0.017079 0.00052438 0.00084139
0.0013723 0.0024966 0.0018084 0.00082192 0.00066047 -0.00058008 -0.0098056 -0.017057
0.072849 0.23419 -0.0040919 -0.013543
0.0018196 -0.0013714 0.0011393 0.00086051 0.00025129 0.00033769 0.00051693 0.00086586
-0.0040784 -0.013533 0.060847 0.31526
1400000000 0.24389 0.19683 -0.023614 -0.0082399 0.0045981 0.0032676 -0.0022017 0.00045014
0.0023413 0.00095197 0.00038608 -0.0014155
-0.023583 -0.0082388 0.073526 0.35878 -0.014385 0.012154 0.0012692 0.0015179
0.001346 -0.0005711 0.0011506 0.00020641
0.0046056 0.0032421 -0.01435 0.012225 0.35193 0.059598 0.00018639 -0.0015256
0.00017927 -0.00032383 0.00031326 0.0002287
-0.0021993 0.00045593 0.0012666 0.0014987 0.00017869 -0.0015104 0.17382 0.20242
-0.015812 -0.010115 -0.0010538 0.00026004
0.0023684 0.00092896 0.001371 -0.00057817 0.0001685 -0.00034536 -0.015843 -0.010077
0.10479 0.22804 -0.0099977 -0.008516
0.00039624 -0.0013864 0.0011513 0.00019789 0.0003174 0.00021021 -0.0010572 0.00027149
-0.010001 -0.0084989 0.10527 0.30708
1460000000 0.26811 0.15379 -0.02063 0.0043656 0.0050984 -0.0014092 -0.0017803 0.0016753
0.0021 -0.00032466 -0.00012575 -0.0008592
-0.020605 0.0043248 0.10888 0.33785 -0.0057176 0.014959 0.001878 0.00034025
0.0010635 -0.0013711 0.0013239 -0.0005134
0.0050513 -0.0014247 -0.0056499 0.015004 0.35887 0.003986 -0.0010501 -0.0014247
0.00022216 -0.00025623 0.0006242 -0.0002937
-0.0017566 0.0017074 0.0018909 0.00035126 -0.0010489 -0.0014161 0.19916 0.17365
-0.017041 -0.0030516 -0.00046947 0.0025356
0.0020867 -0.00033588 0.0010373 -0.0013808 0.00023505 -0.00025933 -0.017047 -0.0030074
0.13463 0.2124 -0.011755 -0.0026693
-0.00011283 -0.00087817 0.0013308 -0.00054313 0.00063356 -0.00030086 -0.00047948 0.0025473
-0.011726 -0.0026351 0.14035 0.28731
1520000000 0.28031 0.1118 -0.015302 0.009974 0.0032474 -0.0036879 9.4612e-05 0.0026912
0.0021116 -0.0016504 -0.0010482 -0.00034638
-0.015282 0.0099337 0.14255 0.32356 0.0017297 0.012497 0.0018917 -0.00078066
0.00012189 -0.001186 0.00042938 -0.00091734
0.0032514 -0.0037119 0.0017816 0.012497 0.35045 -0.054695 -0.0010962 -0.00048799
0.00045764 -0.00081599 0.00014574 -0.00011065
9.9987e-05 0.0026765 0.0018868 -0.00079194 -0.0010955 -0.00049593 0.2204 0.13553
-0.016268 0.0031438 0.0017398 0.0021538
0.0020862 -0.0016669 0.00011212 -0.0011778 0.00043985 -0.00081502 -0.01627 0.0031734
0.16149 0.19702 -0.011362 0.0013854
-0.0010584 -0.00028681 0.000432 -0.00092737 0.00011743 -0.00010442 0.0017411 0.0021538
-0.011369 0.0013743 0.17376 0.26881
1580000000 0.2905 0.067295 -0.0087076 0.013627 -0.00089623 -0.0043439 0.0015534 0.0020923
6.9976e-06 -0.0020933 -0.00030023 0.00046129
-0.0087327 0.013601 0.17025 0.30034 0.0050785 0.0076543 0.00066892 -0.00176
-0.00068381 -0.0011801 -0.00018618 -0.00073593
-0.00091076 -0.0043413 0.0051208 0.0076638 0.32854 -0.11101 -0.0017221 0.0004874
-0.00037907 -0.0011633 0.00026389 -0.00062349
0.0015612 0.0021044 0.00066464 -0.0017679 -0.0017268 0.00050147 0.23297 0.098442
-0.01268 0.0084801 0.0024696 0.00066277
3.647e-07 -0.0021025 -0.00068083 -0.0011915 -0.00038189 -0.0011772 -0.012668 0.0085208
0.18503 0.17951 -0.0091699 0.0070908
-0.00028287 0.00046063 -0.0001754 -0.00072746 0.00023584 -0.00060553 0.0024525 0.00066341
-0.0091665 0.0071007 0.20796 0.24438
1640000000 0.29413 0.025431 -0.0017978 0.012659 -0.0024687 -0.0022696 0.0029423 0.0010927
-0.00047203 -0.0017786 -0.00036661 0.00042652
-0.0017906 0.012639 0.2015 0.27532 0.0055462 0.0029513 -0.0006625 -0.0019813
-0.0010966 -0.00033479 -0.00039042 -0.00074461
-0.0024676 -0.0022952 0.0055673 0.0029319 0.29913 -0.16095 -0.00075746 0.0015757
-0.00090827 -0.00093937 -9.7202e-05 -0.00046234
0.0029488 0.0010848 -0.00067917 -0.0019978 -0.00075 0.0015984 0.2453 0.050614
-0.0082704 0.010409 0.002567 -0.0010733
-0.00048009 -0.0017676 -0.0011028 -0.00033052 -0.00089989 -0.00091614 -0.0082612 0.010435
0.20744 0.15344 -0.0045382 0.0091274
-0.0003705 0.00044007 -0.00038953 -0.0007441 -0.00010826 -0.00047212 0.0025535 -0.0010716
-0.0045597 0.0091256 0.23495 0.21291
1700000000 0.28648 -0.019498 0.0019589 0.010073 -0.0031749 0.00028083 0.0032435 -0.0014844
-0.002071 -0.00089845 0.00046506 0.00046351
0.0019436 0.010076 0.21911 0.24461 0.0032733 0.00017179 -0.0016209 -0.00067109
-0.00088124 0.00019747 -0.0008088 -0.00051132
-0.0031644 0.00033749 0.0032722 0.00015679 0.25359 -0.19939 0.00046256 0.0016742
-0.0020084 -0.0001659 -0.00033354 -0.00083632
0.0032127 -0.001498 -0.0016171 -0.00066811 0.00046674 0.0016608 0.24168 0.0031409
-0.0046307 0.011337 0.001427 -0.0020617
-0.0020912 -0.0008905 -0.00086999 0.00020195 -0.0020013 -0.00016042 -0.0046165 0.011337
0.22444 0.13265 -0.00017561 0.0091562
0.0004826 0.0004966 -0.00082983 -0.00049909 -0.00037727 -0.00080122 0.0014237 -0.002068
-0.00017233 0.0091614 0.25226 0.18
1760000000 0.27603 -0.068083 0.0046095 0.0066613 -0.0018037 0.00081323 0.0012378 -0.0036762
-0.0015284 0.00044775 0.00027513 -0.00050586
0.0046058 0.0066486 0.24714 0.20548 0.00086487 -0.0014086 -0.0013698 0.00022328
-0.00084839 0.0010616 -0.00052585 0.00026048
-0.001799 0.00086358 0.00085777 -0.0014109 0.20464 -0.23059 0.0014263 0.001097
-0.0010775 0.0014008 -0.0012069 -0.00066532
0.0012281 -0.0036668 -0.0013788 0.00022782 0.0014333 0.0010994 0.23554 -0.045846
-0.00064781 0.01063 -7.3241e-05 -0.0023572
-0.0015375 0.00048347 -0.00084388 0.0010652 -0.0010805 0.0014135 -0.00062275 0.010629
0.23939 0.09894 0.0037372 0.0069129
0.00025517 -0.00051765 -0.00051762 0.0002731 -0.0012026 -0.00065655 -9.4578e-05 -0.0023492
0.0037299 0.0069114 0.26664 0.14305
1820000000 0.25119 -0.10633 0.0049852 0.0028646 0.00018555 0.0019558 -0.0011279 -0.0031334
-0.0013922 0.0012309 -4.8071e-05 -0.00021677
0.0049745 0.0028648 0.25747 0.17476 -0.0011526 0.00015501 -0.0013159 0.0011151
0.00016576 0.0011802 -0.00067134 0.00032108
0.00020595 0.0019959 -0.0011702 0.00015707 0.15332 -0.24439 0.001773 0.00025368
-0.00014229 0.002379 -0.001668 0.00016574
-0.0011523 -0.003111 -0.0013075 0.0011212 0.001804 0.00022696 0.20724 -0.093487
0.0017769 0.0088769 -0.0016485 -0.0015004
-0.0013483 0.0012464 0.00018172 0.0011893 -0.0001299 0.0023844 0.001813 0.0088699
0.25539 0.068805 0.0045168 0.0035186
-5.4985e-05 -0.0002018 -0.00067448 0.00033865 -0.0016397 0.00018352 -0.0016268 -0.0014953
0.0045005 0.0035052 0.27032 0.10692
1880000000 0.21575 -0.14585 0.0026795 0.00030159 -0.00069735 0.0019533 -0.0031396 -0.0021712
-0.00015818 0.0020198 0.00029112 -0.00067322
0.0026846 0.00028621 0.26252 0.12926 -0.0030947 0.0024312 -0.00018544 0.001707
0.00068596 0.00099144 -2.0786e-05 0.00098941
-0.00068093 0.0019606 -0.0030678 0.0024423 0.10128 -0.25065 0.0014475 -0.0012024
0.0015585 0.0018667 -0.0011425 0.0015041
-0.0031573 -0.0021348 -0.0001738 0.0016951 0.0014364 -0.0012036 0.16944 -0.13361
0.0032152 0.0060899 -0.0019724 0.00021637
-0.00015717 0.0019977 0.00071382 0.00098474 0.0015793 0.0018632 0.0032436 0.0060628
0.2591 0.038135 0.0046795 0.0015027
0.00030028 -0.0006606 2.8945e-06 0.00098728 -0.0011407 0.0015145 -0.0019488 0.00023468
0.0046879 0.0015109 0.27121 0.074335
1940000000 0.17733 -0.1724 0.00040025 -0.0015155 0.0012443 0.0019193 -0.0036638 0.00059079
0.001556 0.0012948 -0.00068848 -0.00067067
0.00040238 -0.0015307 0.26498 0.096639 -0.0012924 0.0050003 0.0010233 0.0012384
0.0016199 0.00021064 0.0008061 0.00031534
0.001201 0.0019167 -0.0012746 0.0050427 0.059509 -0.24227 8.3828e-05 -0.0020353
0.0023327 0.00022374 0.00024322 0.0018277
-0.0036715 0.00063204 0.0010411 0.0012334 8.8977e-05 -0.0020493 0.11918 -0.16755
0.0028673 0.0039867 -0.0013986 0.0011345
0.0015646 0.0012922 0.0016278 0.00019145 0.0023309 0.0002475 0.0028847 0.0039735
0.26284 -0.0010776 0.0035463 -0.0018046
-0.00070858 -0.00067226 0.00081867 0.00030998 0.00027171 0.0017933 -0.0014067 0.0011451
0.0035058 -0.0018002 0.26241 0.037894
2000000000 0.13005 -0.18646 -0.0034508 0.00039392 0.002766 0.0015754 -0.0021155 0.0036038
0.0014611 0.00019876 -0.0007608 0.00062638
-0.0034488 0.00039039 0.25066 0.060719 -0.0003837 0.0067717 0.0014753 0.00036976
0.00098838 -0.0011357 0.00042936 0.00015721
0.0028086 0.0015319 -0.00035293 0.0067724 0.017479 -0.22755 -0.0013034 -0.00097263
0.0019615 -0.0013014 0.0017683 0.0015805
-0.0021558 0.0035911 0.0014862 0.00036462 -0.0013059 -0.00097975 0.06454 -0.17991
0.0011188 0.0028152 -2.2199e-05 0.0019898
0.0014929 0.00016115 0.00097504 -0.0011561 0.0019692 -0.0013258 0.0011547 0.002834
0.25711 -0.034684 0.00048836 -0.0025208
