!Keysight Technologies,M9804A,MY58100912,A.14.10.03
!Date: Thursday, April 27, 2023 10:28:33
!Correction: S11(C  6-Port  ) 
!S12(C  6-Port  ) 
!S13(C  6-Port  ) 
!S14(C  6-Port  ) 
!S15(C  6-Port  ) 
!S16(C  6-Port  ) 
!S21(C  6-Port  ) 
!S22(C  6-Port  ) 
!S23(C  6-Port  ) 
!S24(C  6-Port  ) 
!S25(C  6-Port  ) 
!S26(C  6-Port  ) 
!S31(C  6-Port  ) 
!S32(C  6-Port  ) 
!S33(C  6-Port  ) 
!S34(C  6-Port  ) 
!S35(C  6-Port  ) 
!S36(C  6-Port  ) 
!S41(C  6-Port  ) 
!S42(C  6-Port  ) 
!S43(C  6-Port  ) 
!S44(C  6-Port  ) 
!S45(C  6-Port  ) 
!S46(C  6-Port  ) 
!S51(C  6-Port  ) 
!S52(C  6-Port  ) 
!S53(C  6-Port  ) 
!S54(C  6-Port  ) 
!S55(C  6-Port  ) 
!S56(C  6-Port  ) 
!S61(C  6-Port  ) 
!S62(C  6-Port  ) 
!S63(C  6-Port  ) 
!S64(C  6-Port  ) 
!S65(C  6-Port  ) 
!S66(C  6-Port  ) 
!S6P File: Measurement: :
# Hz S  RI   R 50
500000000 -0.32753 -0.055454 -0.010995 -0.0013837 -0.0078975 0.011987 -0.003521 0.011929
0.011725 0.0054962 -0.0034164 0.009666
-0.010953 -0.0014007 -0.41009 -0.07003 0.0077886 -0.01125 0.00039586 0.011643
0.008089 0.0029506 0.0012855 0.014262
-0.0078943 0.012004 0.0077602 -0.01127 -0.25387 0.19379 0.0061774 0.0028301
-0.0002434 0.0086092 0.0018309 0.012083
-0.0035038 0.011895 0.00054446 0.011547 0.0062588 0.0028099 -0.32942 0.045286
-0.0192 -0.005801 0.015259 0.027859
0.012036 0.0055181 0.0076908 0.0031898 -0.0004101 0.0090571 -0.0191 -0.0065064
-0.25627 -0.15955 -0.026912 0.0053701
-0.0035316 0.0093572 0.00093502 0.013578 0.0014392 0.011976 0.013951 0.028474
-0.026585 0.0051254 -0.25808 -0.14427
560000000 -0.31214 0.10794 -0.02246 -0.065541 0.00017123 0.0128 0.0051801 0.010788
0.010814 0.0025908 0.010944 0.0083262
-0.022365 -0.065494 -0.3699 0.092918 -0.041397 -0.038444 0.01328 0.0026924
-0.01287 -0.0037561 0.0037259 -0.00089357
0.0002158 0.012799 -0.041508 -0.038375 -0.1796 0.24264 0.00058865 -0.0048326
0.018073 0.0038874 0.0076451 -0.0057041
0.0053289 0.010722 0.01344 0.0025268 0.00059059 -0.0047293 -0.30546 0.13517
0.0041174 -0.022754 0.0064911 -0.02118
0.010772 0.0024159 -0.012851 -0.0035753 0.017621 0.0042243 0.0040562 -0.023068
-0.30277 0.015183 0.0073844 -0.04696
0.010261 0.0084232 0.0039344 -0.00038157 0.0071372 -0.0063773 0.0058642 -0.020746
0.0067744 -0.047232 -0.32688 0.0018974
620000000 -0.27176 0.08675 -0.023674 0.0088543 0.0032606 0.0091038 0.008566 -0.0046629
0.013032 -0.0012645 -5.2563e-05 -0.0029404
-0.023666 0.0088538 -0.39912 0.039421 -0.019741 0.00061906 -0.0014562 -0.001726
0.011354 -0.0063018 0.00091711 -0.0032031
0.0032738 0.0090462 -0.019761 0.00067084 -0.15321 0.25085 -0.0010052 -0.0046497
-0.0036644 -0.0029224 0.0081902 -0.0029085
0.0085756 -0.0045039 -0.0016145 -0.0017797 -0.0010037 -0.0046522 -0.26205 0.14517
-0.040089 -0.01809 0.013802 0.028722
0.012436 -0.0010603 0.011767 -0.0065368 -0.0036052 -0.0025801 -0.041267 -0.018556
-0.23111 -0.01887 -0.042411 0.014365
0.0006713 -0.0027211 0.00038161 -0.0029542 0.008582 -0.0028555 0.014577 0.02963
-0.042338 0.013506 -0.24008 -0.033972
680000000 -0.23691 0.17789 -0.026505 -0.01416 0.0048086 0.0054639 0.00055676 -0.0071257
-0.0032578 -0.010787 0.0056419 -0.0052676
-0.026471 -0.014151 -0.38914 0.14202 -0.032857 -0.0009919 -0.0019873 -0.00053911
-0.0024035 -0.0091475 -0.00061518 -0.00059766
0.0048023 0.0054525 -0.032895 -0.00090539 -0.10642 0.27431 -0.00094129 -0.00020402
-0.0017274 0.00067184 -0.0027953 -0.0081265
0.00056897 -0.0071912 -0.0019464 -0.00058664 -0.00095889 -0.00019994 -0.22004 0.19826
-0.025165 -0.006765 -0.0079924 -0.01191
-0.0029824 -0.010302 -0.0024457 -0.009002 -0.0017255 0.0007508 -0.025131 -0.0067239
-0.26814 0.080927 -0.0078703 -0.0051084
0.005818 -0.0058334 -0.00071113 -0.0014296 -0.0028972 -0.0086528 -0.0090253 -0.011974
-0.0075054 -0.0059107 -0.25944 0.070948
740000000 -0.19102 0.17059 -0.041026 0.026759 0.013426 -0.0041492 0.00060687 -0.0044188
-0.0054634 -0.001029 -0.0059813 0.0021788
-0.040979 0.026753 -0.33532 0.16075 -0.036392 0.034656 7.3074e-05 -0.006656
-0.01205 0.0071741 -0.0013139 -0.0061393
0.013387 -0.004162 -0.036325 0.03478 -0.07311 0.27504 -0.0015317 0.0030145
-0.0022696 -0.0041778 -0.0017048 0.0007844
0.00056833 -0.004396 0.00018947 -0.0066838 -0.0015622 0.0031129 -0.20197 0.20424
-0.041857 -0.0051078 0.022632 0.016661
-0.005752 -0.0011058 -0.01243 0.0068078 -0.0024205 -0.0043596 -0.041411 -0.0052509
-0.17757 0.10042 -0.040292 0.0024896
-0.0062221 0.0021582 -0.0013973 -0.0061726 -0.0012507 0.001037 0.022735 0.016462
-0.040984 0.0021486 -0.25033 0.075017
800000000 -0.16356 0.21591 -0.022281 0.016677 0.0056732 -0.010012 -0.0041941 -0.0022615
-0.0040515 0.0017387 0.0044048 0.00070763
-0.022273 0.016664 -0.34316 0.23257 -0.0080485 0.034923 -0.0021739 0.0022293
-0.00037001 0.0025051 0.00075137 0.0052954
0.0056664 -0.010037 -0.0079504 0.034986 -0.035048 0.30136 0.00078778 0.0014225
0.00030787 0.0033705 -0.0016041 0.00099518
-0.0041002 -0.0022705 -0.0022 0.0022525 0.00076906 0.0014025 -0.17344 0.23357
-0.027427 0.015766 0.014923 -0.010172
-0.0040483 0.0016865 -0.00031288 0.0025815 0.00036901 0.0033224 -0.027491 0.015844
-0.21032 0.13041 -0.017377 0.020463
0.0045634 0.00091629 0.00081634 0.0055664 -0.0017167 0.0011148 0.014907 -0.010189
-0.017187 0.020811 -0.24884 0.12911
860000000 -0.12812 0.23738 -0.017736 0.030999 -0.0033327 -0.0099258 -0.0018038 0.00021733
0.0040462 0.004732 -0.0041739 -0.003099
-0.017736 0.030961 -0.2944 0.27735 0.0082856 0.034487 0.00026128 0.001924
0.0042207 0.00082667 0.0038675 0.00024889
-0.0033647 -0.0099222 0.0084088 0.0345 0.014494 0.31166 -0.00049204 -0.00037831
0.0025398 -0.0012197 0.0015418 0.0042486
-0.0017323 0.00034812 0.00026272 0.0019199 -0.00047964 -0.00036972 -0.1347 0.24502
-0.016602 0.02041 -0.0067035 -0.010064
0.004036 0.00466 0.0041527 0.000673 0.0025187 -0.0013135 -0.016676 0.020372
-0.15531 0.1766 -0.023006 0.018299
-0.0038464 -0.0029639 0.0035397 0.00027531 0.0015314 0.0042292 -0.0064715 -0.010291
-0.023075 0.017955 -0.19692 0.17535
920000000 -0.10523 0.26044 0.0050073 0.039453 -0.0091715 -0.0042309 -0.0015992 0.0017436
0.00079162 0.0014535 0.0028372 -0.0010507
0.0049916 0.039419 -0.26805 0.29816 0.028542 0.02267 0.001516 0.0011239
0.0067438 -0.00034451 0.0039927 -0.0026885
-0.0091806 -0.0042113 0.028659 0.022616 0.060838 0.313 0.0018662 4.3487e-05
0.00089922 -0.00037344 0.0010197 -0.0015156
-0.0016003 0.0017361 0.0015384 0.0011181 0.0018771 9.3758e-05 -0.11111 0.26146
-0.0082394 0.031256 0.004312 -0.0059081
0.00079609 0.0014258 0.0068308 -0.00053441 0.00087838 -0.00037894 -0.0083141 0.031323
-0.14192 0.18327 -0.0016724 0.02703
0.0029689 -0.0012508 0.0039844 -0.0030503 0.0010542 -0.0014832 0.0043173 -0.0060939
-0.0018737 0.026875 -0.20903 0.1892
980000000 -0.058864 0.28268 0.017534 0.030242 -0.0090916 0.0047775 0.0018635 0.003504
0.0038117 -0.0018227 -0.0034477 -0.0024069
0.017509 0.03022 -0.21579 0.3358 0.033554 0.0047313 0.0019146 -9.9238e-05
0.0014982 -0.0058677 -0.00037755 -0.0024922
-0.0090716 0.004804 0.033607 0.0046407 0.10788 0.30868 0.0005375 -0.0010787
0.0003841 -0.0018091 0.0016128 -0.00022412
0.0017839 0.003566 0.0018989 -0.00010472 0.00052199 -0.0010848 -0.071019 0.27345
0.010714 0.029167 -0.0094361 -0.0079325
0.0038235 -0.0018313 0.0015157 -0.0059715 0.0003336 -0.0017962 0.010649 0.029077
-0.10794 0.20995 0.0070124 0.019645
-0.0035305 -0.0022364 -0.00059333 -0.0025082 0.0015896 -0.00025778 -0.0092533 -0.0076785
0.0069188 0.019936 -0.16863 0.23826
1040000000 -0.016807 0.29067 0.033497 0.019045 -0.00083202 0.0074053 0.0023004 0.00055464
0.00020006 -0.003453 -0.00012629 -0.0012741
0.033444 0.019044 -0.17975 0.34865 0.029811 -0.015058 0.001525 -0.0018255
-0.0022245 -0.0023829 -0.0013087 -0.0031551
-0.00080964 0.0074031 0.029804 -0.01517 0.1554 0.29451 -0.00049073 -0.0015133
-0.001534 -0.0010219 -0.00067354 -0.0011949
0.0022654 0.00054848 0.001516 -0.0018555 -0.00047721 -0.0015222 -0.042678 0.28192
0.0218 0.01679 -0.0017136 0.0012767
8.8147e-05 -0.0034031 -0.0022518 -0.0025191 -0.0015797 -0.0010642 0.021824 0.01669
-0.075371 0.21548 0.014853 0.017579
-0.00010444 -0.0014386 -0.0012833 -0.0029646 -0.00058915 -0.0012069 -0.0017653 0.0012544
0.014911 0.01779 -0.14648 0.25909
1100000000 0.02735 0.30099 0.036878 -0.0038487 0.0035488 0.0039221 0.0022329 -0.0009413
-0.0022734 -0.0028723 -0.0043426 -5.9074e-05
0.03684 -0.00383 -0.13735 0.36862 0.015181 -0.028216 -0.00018076 -0.0017709
-0.003391 -0.00073232 -0.0038281 -0.00061791
0.0035598 0.0039034 0.015092 -0.028296 0.20133 0.27502 -0.0018269 0.00027386
-0.0016361 0.00059825 -0.0011336 -0.00062339
0.0021751 -0.0010034 -0.00022074 -0.0017794 -0.0018288 0.00022847 -0.0020414 0.28702
0.025749 0.0023848 -0.0023478 -0.00056512
-0.0021358 -0.0028408 -0.0034111 -0.00065494 -0.001653 0.00061559 0.025835 0.0023292
-0.054244 0.22689 0.019488 0.0068536
-0.0042402 -5.9563e-05 -0.0037111 -0.00058925 -0.0010464 -0.00061986 -0.002421 -0.00033579
0.019477 0.0070425 -0.10237 0.29256
1160000000 0.079657 0.29765 0.024663 -0.021035 0.0033447 -0.00092274 -0.00029666 -0.0022532
-0.0039869 -0.00068786 -0.00099339 0.0040068
0.024641 -0.021001 -0.091543 0.37333 -0.0041544 -0.029087 -0.0015021 -0.0015012
-0.00258 0.0024839 -0.0014584 0.0018449
0.0033461 -0.0009463 -0.0042739 -0.029086 0.24609 0.24429 -0.00066675 0.0015819
-0.00047104 0.0016364 -0.0011741 0.00034981
-0.00026633 -0.0022538 -0.0015327 -0.0014822 -0.0006741 0.0016019 0.039541 0.28293
0.020904 -0.012884 -0.0037689 0.0045305
-0.0039458 -0.00056698 -0.002603 0.0025608 -0.00047072 0.0016823 0.020954 -0.012845
-0.019701 0.23502 0.018486 -0.001467
-0.00078844 0.0040779 -0.0015078 0.0019672 -0.0011642 0.000311 -0.003485 0.0044485
0.018534 -0.001504 -0.05242 0.29701
1220000000 0.12307 0.28695 0.011155 -0.03064 -0.0013982 -0.0015613 3.7205e-05 -0.00081503
-0.0025174 0.0022177 0.0011892 0.0019146
0.011163 -0.030603 -0.048335 0.38635 -0.017247 -0.021065 -0.0025552 0.00056722
-6.2036e-06 0.0028836 -0.00084497 0.0020937
-0.001401 -0.0015608 -0.017353 -0.021009 0.28487 0.20456 0.00078992 0.0016342
0.0005538 0.0011309 0.0001862 0.00067847
-2.9075e-06 -0.00080967 -0.0025659 0.00057002 0.0007879 0.0016191 0.079067 0.27225
0.0097062 -0.019316 0.0016067 0.0010723
-0.0024774 0.002201 2.6784e-05 0.0028674 0.00056221 0.0011349 0.0096144 -0.019312
0.0062499 0.2409 0.013054 -0.013754
0.0011234 0.0019177 -0.00085254 0.0020822 8.3259e-05 0.00058128 0.0015938 0.0010238
0.012986 -0.013726 -0.024344 0.31451
1280000000 0.17379 0.2679 -0.0079867 -0.029276 -0.002114 0.0018094 -0.00083355 -0.0019094
-0.00073263 0.0030129 0.002589 0.001276
-0.0079656 -0.029252 -0.0015429 0.37869 -0.024102 -0.0079551 -0.0009782 0.0014294
0.0016658 0.0016783 0.00080717 0.0021279
-0.0021035 0.0018223 -0.024174 -0.0078573 0.31577 0.16166 0.0014772 1.6034e-05
0.0010263 0.00022825 0.00019614 0.00053344
-0.00086775 -0.0018971 -0.00096541 0.0014451 0.0014515 2.654e-05 0.11584 0.25463
-0.00093617 -0.020958 -0.00079903 0.00024919
-0.00074646 0.0030342 0.0017279 0.001696 0.0010358 0.00027162 -0.00098708 -0.021032
0.043225 0.24315 0.0021143 -0.015102
0.0024584 0.0012819 0.00061513 0.0021115 0.0001905 0.00045038 -0.00086772 0.00034283
0.0020513 -0.015049 0.02443 0.3189
1340000000 0.21184 0.23361 -0.017707 -0.019453 0.000188 0.0042636 -0.0015781 -0.00067373
0.0014458 0.002558 0.0017301 -0.0014504
-0.017674 -0.019445 0.038033 0.37028 -0.021058 0.004768 -0.00025887 0.0020135
0.0018411 0.0008304 0.0012362 0.00074781
0.00020032 0.0042573 -0.021056 0.0048694 0.33885 0.11262 0.001067 -0.00089716
0.00072032 -0.00060363 0.00013968 0.0002357
-0.001625 -0.00068014 -0.00024939 0.0020125 0.0010518 -0.00089847 0.14761 0.23128
-0.010521 -0.017354 0.00039754 0.00098182
0.0015042 0.0025225 0.0018097 0.00083603 0.00069787 -0.00055425 -0.01056 -0.017271
0.074221 0.23525 -0.0044772 -0.013923
0.001798 -0.0014126 0.0012323 0.0007831 0.00022387 0.00021365 0.00034794 0.00084198
-0.0045681 -0.013856 0.063011 0.3152
1400000000 0.24495 0.19649 -0.024025 -0.0078293 0.0046778 0.0032324 -0.0020991 0.0005454
0.0023843 0.0009018 0.00039258 -0.0012643
-0.023986 -0.0078492 0.074756 0.35817 -0.014278 0.012598 0.0013159 0.0015108
0.0013091 -0.00065902 0.001149 0.00013977
0.0046945 0.0032065 -0.014234 0.012685 0.35142 0.058748 5.427e-05 -0.0014866
0.00017583 -0.00034841 0.00031556 0.0003953
-0.0020931 0.00053696 0.0013551 0.0015113 9.7323e-05 -0.0014677 0.17456 0.2018
-0.016628 -0.0096384 -0.00093037 0.00030211
0.0024034 0.00086352 0.0012698 -0.00070872 0.00014317 -0.00039076 -0.016644 -0.0095384
0.10648 0.22892 -0.010593 -0.0084456
0.00031919 -0.0013072 0.0010985 0.00019626 0.00036133 0.00042664 -0.0009116 0.00033979
-0.010489 -0.0084215 0.10806 0.30647
1460000000 0.26891 0.15289 -0.020806 0.0048999 0.0051285 -0.0014725 -0.0015919 0.0015997
0.0020704 -0.00046242 -0.0002134 -0.00080113
-0.020794 0.0048755 0.10971 0.33676 -0.0053517 0.015144 0.0017737 0.00025574
0.00097916 -0.0014211 0.0012821 -0.00049449
0.0051198 -0.0015051 -0.0052843 0.015179 0.35821 0.0037504 -0.0011587 -0.0014581
9.911e-05 -0.00027455 0.00078328 -0.00019199
-0.0015782 0.0016346 0.001791 0.0002278 -0.0011298 -0.0014402 0.19968 0.1727
-0.017484 -0.0021513 -0.00046582 0.0025495
0.0020461 -0.00046654 0.00097856 -0.0014281 7.0654e-05 -0.00034358 -0.017537 -0.0021295
0.13652 0.21265 -0.01222 -0.0021918
-0.00014584 -0.00073961 0.0012206 -0.00055126 0.00071234 -0.00027165 -0.00049201 0.0025916
-0.012123 -0.0023023 0.14255 0.28661
1520000000 0.28064 0.11068 -0.015122 0.010464 0.0033198 -0.0037415 6.5498e-05 0.0026658
0.0020911 -0.0017104 -0.00093433 -0.00022626
-0.015119 0.010453 0.14287 0.32236 0.002023 0.012487 0.0018542 -0.00079004
8.5441e-05 -0.0011307 0.00036169 -0.00093266
0.0032989 -0.0037521 0.0020913 0.012486 0.35 -0.054284 -0.0011021 -0.00046592
0.00047174 -0.00086304 0.00019948 -0.00011928
5.1465e-05 0.0026959 0.0018567 -0.00080025 -0.0011135 -0.00045283 0.22036 0.13454
-0.016197 0.0041306 0.0019479 0.0020914
0.0021229 -0.0017912 9.8249e-05 -0.0011219 0.00052215 -0.00084307 -0.016174 0.0041986
0.16361 0.19669 -0.011676 0.0019339
-0.0010073 -0.00019888 0.00035737 -0.00096174 0.00011041 -0.0001065 0.0019991 0.0020265
-0.011644 0.0019238 0.17549 0.26736
1580000000 0.29014 0.066221 -0.0083176 0.013924 -0.00091926 -0.0044858 0.0015514 0.0019776
-0.00011174 -0.0021558 -0.00020278 0.0004128
-0.0083204 0.013911 0.17001 0.29915 0.0052684 0.0074314 0.0006109 -0.0017724
-0.00068208 -0.0011126 -0.00021786 -0.00076599
-0.00093521 -0.0044794 0.0053091 0.0074101 0.3285 -0.11056 -0.0016595 0.00055047
-0.00048991 -0.0010952 0.00028045 -0.00061178
0.0015732 0.0019704 0.00060768 -0.0017713 -0.0016611 0.00055444 0.2326 0.097553
-0.011956 0.0092288 0.0025539 0.0006176
-0.00015983 -0.0021422 -0.00072058 -0.0011155 -0.00047656 -0.0010965 -0.011971 0.0092794
0.18695 0.17832 -0.0089926 0.0077343
-0.0001695 0.00051621 -0.00024885 -0.00072646 0.00029232 -0.00062001 0.0024963 0.00054376
-0.0090927 0.0077462 0.20938 0.24281
1640000000 0.29313 0.024815 -0.0012953 0.012681 -0.0026399 -0.0022488 0.0029035 0.0011089
-0.00054429 -0.001658 -0.00032768 0.00049616
-0.0013001 0.012679 0.20078 0.27442 0.00555 0.002734 -0.00068719 -0.0019697
-0.0010611 -0.00028327 -0.00043602 -0.00064812
-0.002635 -0.0022294 0.0055603 0.0027142 0.29922 -0.16049 -0.00060648 0.0016027
-0.00096124 -0.00082905 -0.00013125 -0.00050454
0.0028971 0.0010722 -0.000677 -0.0019748 -0.00062201 0.0015992 0.24449 0.050121
-0.0073748 0.010551 0.0025488 -0.0010949
-0.00058309 -0.0016463 -0.0010545 -0.00028918 -0.00095442 -0.0008077 -0.0073558 0.010524
0.20888 0.15178 -0.0041539 0.0095064
-0.0003873 0.00043278 -0.00046722 -0.00067784 -0.0001748 -0.00053221 0.0025801 -0.001022
-0.0042731 0.0095487 0.23652 0.21188
1700000000 0.28538 -0.019435 0.0023083 0.0097631 -0.0031506 0.00020443 0.0032398 -0.0013419
-0.00213 -0.00071611 0.00053037 0.00039049
0.0023022 0.0097589 0.21818 0.24411 0.0032257 6.7654e-05 -0.0016622 -0.00060583
-0.00081444 0.00018374 -0.00078718 -0.00041117
-0.0031482 0.00022232 0.00323 4.3305e-05 0.25372 -0.19885 0.000432 0.0017331
-0.0018946 -2.0482e-05 -0.0003292 -0.00066766
0.0032128 -0.0013371 -0.0016854 -0.00058734 0.00042458 0.0017466 0.24097 0.0031471
-0.0037748 0.010905 0.0013786 -0.0020532
-0.0021554 -0.00069776 -0.00082027 0.00019283 -0.0019096 -3.8313e-05 -0.0038289 0.010939
0.22542 0.13076 0.00037948 0.0094393
0.00055359 0.00041842 -0.0008072 -0.00038029 -0.00040785 -0.00064113 0.0013457 -0.002082
0.00042841 0.0093742 0.25326 0.17848
1760000000 0.27528 -0.06745 0.0047466 0.0063065 -0.0019774 0.00094145 0.0011633 -0.0035394
-0.0015716 0.0006258 0.00023739 -0.00040726
0.0047277 0.0062989 0.24612 0.2055 0.00076545 -0.0014052 -0.0013331 0.00024661
-0.0008549 0.00097233 -0.0004976 0.00031223
-0.001997 0.00095639 0.00075446 -0.0014064 0.2051 -0.23002 0.0013901 0.0011135
-0.00099801 0.0015432 -0.0012122 -0.00077413
0.0011105 -0.0035841 -0.0013368 0.00025762 0.0013859 0.001135 0.23487 -0.045621
-0.0003361 0.0098549 -0.00014345 -0.0025206
-0.0015776 0.00067277 -0.00086165 0.00099838 -0.0010433 0.0015226 -0.00025767 0.0098793
0.23954 0.096919 0.0041625 0.0066506
0.00023787 -0.00049 -0.00047223 0.0003339 -0.0012115 -0.00072351 -0.00011346 -0.0024919
0.0042018 0.0065878 0.26779 0.14177
1820000000 0.25097 -0.10555 0.0048701 0.0025503 0.00010704 0.0020118 -0.0012006 -0.0031834
-0.0011729 0.0012036 -0.0001312 -4.998e-06
0.004856 0.0025475 0.25656 0.17515 -0.001271 -2.1127e-05 -0.0012521 0.001049
0.00016183 0.0011464 -0.000618 0.00033723
0.00012809 0.0020043 -0.0012652 -1.1483e-05 0.15433 -0.24497 0.0016906 0.00012512
-3.9681e-05 0.0022931 -0.0015436 0.00026989
-0.0011805 -0.0031944 -0.0012489 0.0010564 0.0017058 0.00014184 0.20681 -0.09272
0.0016892 0.008134 -0.0017162 -0.0016414
-0.001161 0.0011887 0.00015677 0.0011326 -2.299e-05 0.0022757 0.0016504 0.0081751
0.25503 0.067009 0.0048116 0.0031977
-0.00013424 -4.4555e-05 -0.00064727 0.0003182 -0.0016036 0.00014857 -0.0017382 -0.0016329
0.0048295 0.0031678 0.27088 0.10549
1880000000 0.21608 -0.14495 0.0025939 0.00018849 -0.00046375 0.002106 -0.0029531 -0.0021057
5.3749e-05 0.0019846 0.00048463 -0.00058608
0.0025929 0.00019687 0.26199 0.13004 -0.0030813 0.0024245 -0.00016441 0.0017269
0.000662 0.0010348 0.00011693 0.00088865
-0.00046557 0.0021138 -0.0030709 0.0024453 0.10264 -0.25126 0.0014501 -0.0012638
0.0016087 0.0016477 -0.0010131 0.0013184
-0.0029979 -0.0020817 -0.0001795 0.0016843 0.0014065 -0.0012599 0.16945 -0.13281
0.0028899 0.0058477 -0.0020012 0.00019835
6.6789e-05 0.001963 0.00068132 0.0010436 0.0015824 0.001728 0.00284 0.0058293
0.2582 0.036936 0.0049128 0.0010652
0.00050631 -0.00061736 0.0001137 0.00091056 -0.0010486 0.0014314 -0.0021661 0.000246
0.0049266 0.0010939 0.27178 0.072555
1940000000 0.17799 -0.17193 0.00023942 -0.0015208 0.0014093 0.00201 -0.0037575 0.00043607
0.0016353 0.0010219 -0.00051518 -0.0006658
0.00025223 -0.0014859 0.26476 0.097529 -0.0015168 0.0049253 0.0010219 0.0012323
0.0015913 0.0002723 0.00076121 0.00028748
0.0013999 0.0020484 -0.0014903 0.0049495 0.059402 -0.24357 0.00017466 -0.0020254
0.0021902 0.0002634 2.6351e-05 0.0016649
-0.0037045 0.00045742 0.001047 0.0012453 0.00016536 -0.0019392 0.11958 -0.16682
0.0023141 0.0040045 -0.001418 0.0012666
0.0016603 0.0010161 0.0016094 0.00027846 0.0021388 0.00027249 0.0023163 0.0039516
0.26158 -0.001881 0.0034416 -0.0021954
-0.00060092 -0.0006249 0.00073748 0.00031926 -1.6226e-05 0.0017011 -0.0013919 0.0012368
0.0034177 -0.0021568 0.26277 0.035857
2000000000 0.13096 -0.18623 -0.003596 0.00045418 0.0027768 0.0015296 -0.0023575 0.0036347
0.0011603 -2.1227e-05 -0.00075937 0.0003242
-0.0036004 0.0004632 0.25089 0.061638 -0.00054497 0.0068816 0.001399 0.00026276
0.0010025 -0.0012332 0.00045859 0.00019855
0.0027894 0.0015291 -0.00049411 0.0069087 0.017148 -0.2284 -0.0012479 -0.0010037
0.0019614 -0.001212 0.0017402 0.0015799
-0.0023585 0.0036731 0.0013275 0.00024716 -0.0012947 -0.0010382 0.066048 -0.1798
0.0010473 0.0027669 5.7402e-05 0.001718
0.0011583 -1.9343e-05 0.00096768 -0.0012537 0.0019458 -0.0012395 0.0011161 0.0029335
0.25619 -0.035056 0.00047128 -0.003273
