!Keysight Technologies,M9804A,MY58100912,A.14.10.03
!Date: Thursday, April 27, 2023 10:28:33
!Correction: S11(C  6-Port  ) 
!S12(C  6-Port  ) 
!S13(C  6-Port  ) 
!S14(C  6-Port  ) 
!S15(C  6-Port  ) 
!S16(C  6-Port  ) 
!S21(C  6-Port  ) 
!S22(C  6-Port  ) 
!S23(C  6-Port  ) 
!S24(C  6-Port  ) 
!S25(C  6-Port  ) 
!S26(C  6-Port  ) 
!S31(C  6-Port  ) 
!S32(C  6-Port  ) 
!S33(C  6-Port  ) 
!S34(C  6-Port  ) 
!S35(C  6-Port  ) 
!S36(C  6-Port  ) 
!S41(C  6-Port  ) 
!S42(C  6-Port  ) 
!S43(C  6-Port  ) 
!S44(C  6-Port  ) 
!S45(C  6-Port  ) 
!S46(C  6-Port  ) 
!S51(C  6-Port  ) 
!S52(C  6-Port  ) 
!S53(C  6-Port  ) 
!S54(C  6-Port  ) 
!S55(C  6-Port  ) 
!S56(C  6-Port  ) 
!S61(C  6-Port  ) 
!S62(C  6-Port  ) 
!S63(C  6-Port  ) 
!S64(C  6-Port  ) 
!S65(C  6-Port  ) 
!S66(C  6-Port  ) 
!S6P File: Measurement: :
# Hz S  RI   R 50
500000000 -0.3282 -0.056453 -0.011107 -0.00098342 -0.0085092 0.012485 -0.0037197 0.012344
0.012849 0.0048728 -0.0035578 0.0088958
-0.011084 -0.00097871 -0.41017 -0.070755 0.00717 -0.010753 0.00034184 0.012502
0.0085219 0.0025634 0.0017267 0.013161
-0.0084636 0.012459 0.007148 -0.010775 -0.25543 0.19449 0.006203 0.0027209
-0.0009368 0.0085453 0.00071005 0.0098689
-0.0036886 0.012001 0.00020212 0.012359 0.0061757 0.0029808 -0.32832 0.045542
-0.020113 -0.0058024 0.015352 0.027546
0.012243 0.0047085 0.0081796 0.0024029 -0.00074682 0.008325 -0.020309 -0.0048807
-0.2545 -0.16034 -0.026377 0.0070055
-0.0033556 0.0091718 0.00038545 0.013431 0.00066702 0.010617 0.016259 0.031279
-0.028656 0.0049835 -0.25372 -0.14783
560000000 -0.31217 0.10735 -0.022191 -0.064917 0.00047821 0.012729 0.0040124 0.010583
0.010785 0.004098 0.012196 0.0085348
-0.022145 -0.064898 -0.37077 0.093295 -0.041033 -0.038875 0.013827 0.0028904
-0.011613 -0.0032054 0.0048087 -0.00051372
0.00060432 0.012754 -0.041144 -0.038785 -0.17865 0.24312 -0.00043553 -0.0046309
0.01694 0.0043986 0.0078191 -0.0061792
0.0042258 0.010519 0.013802 0.002852 -0.00054978 -0.0047401 -0.30571 0.1354
0.004796 -0.0232 0.00509 -0.019639
0.011365 0.0031284 -0.011826 -0.0036135 0.016832 0.004951 0.0039225 -0.02364
-0.30415 0.010959 0.0058935 -0.048279
0.012031 0.0086275 0.0038599 0.00034678 0.0073982 -0.0069772 0.0055813 -0.021039
0.0067608 -0.047262 -0.32582 0.0008823
620000000 -0.27262 0.086764 -0.023642 0.0091962 0.0034834 0.0093142 0.0078333 -0.00381
0.01116 -0.0026129 -0.00066572 -0.001379
-0.02362 0.009179 -0.39972 0.039402 -0.019326 0.0011496 -0.001004 -0.0016801
0.011157 -0.0066289 0.00054721 -0.0025646
0.0034826 0.0093454 -0.019347 0.0012208 -0.15262 0.25126 -0.00097315 -0.0049291
-0.0038085 -0.0029176 0.0084524 -0.0024389
0.0078992 -0.0037114 -0.00106 -0.0016776 -0.00096386 -0.0049169 -0.26521 0.14425
-0.037925 -0.018859 0.013344 0.029078
0.012145 -0.0016914 0.011193 -0.0062896 -0.0033568 -0.0028389 -0.038241 -0.017956
-0.23392 -0.016746 -0.043233 0.01556
7.3512e-05 -0.0019405 0.0011856 -0.0026018 0.009818 -0.0036105 0.012627 0.027725
-0.042733 0.016013 -0.23986 -0.033747
680000000 -0.23805 0.17855 -0.026823 -0.013914 0.0047725 0.0050713 0.0021691 -0.0065068
-0.0018947 -0.011021 0.0065307 -0.0068465
-0.026803 -0.013903 -0.38956 0.1421 -0.032476 -0.0010837 -0.0013465 -0.00023695
-0.0020254 -0.0091718 -0.00032034 -0.001577
0.0047771 0.0050016 -0.032525 -0.0010287 -0.10595 0.2744 -0.00054728 -0.0002545
-0.00191 0.00064145 -0.0029381 -0.0090452
0.0019786 -0.006781 -0.0014245 -0.00020885 -0.00062671 -0.00026438 -0.21945 0.19946
-0.025717 -0.00608 -0.0080848 -0.011945
-0.002279 -0.011074 -0.0019928 -0.0093098 -0.0018381 0.00071059 -0.025437 -0.0058561
-0.26988 0.079702 -0.0058597 -0.005811
0.005537 -0.0054897 -0.00088625 -0.0018151 -0.0029736 -0.0089691 -0.0080003 -0.010526
-0.0056546 -0.0064397 -0.26146 0.065921
740000000 -0.19102 0.17053 -0.040447 0.02716 0.013316 -0.0042951 0.00016143 -0.0040856
-0.0042513 -0.0021435 -0.0076005 0.0023735
-0.040423 0.027113 -0.33443 0.16094 -0.036583 0.034777 0.00035791 -0.0064066
-0.011915 0.0070658 -0.0013663 -0.005347
0.013332 -0.0043043 -0.036522 0.034903 -0.072456 0.27422 -0.0021427 0.0030602
-0.0022405 -0.0050452 -0.0021463 0.00096937
0.00017945 -0.0040344 0.00019358 -0.0064861 -0.0020871 0.003043 -0.20214 0.204
-0.040899 -0.0041647 0.022527 0.0171
-0.0042796 -0.0018827 -0.011934 0.0069826 -0.0022562 -0.0048907 -0.040768 -0.0039735
-0.17866 0.1018 -0.040884 0.0030587
-0.0067954 0.0025491 -0.0007018 -0.0060322 -0.0019863 0.0016083 0.023114 0.015829
-0.040925 0.002749 -0.25102 0.074037
800000000 -0.16391 0.21627 -0.022271 0.016704 0.0054741 -0.010029 -0.0044386 -0.0025837
-0.0041641 0.0021888 0.0048903 0.00086052
-0.022246 0.016679 -0.34305 0.23225 -0.0081882 0.034481 -0.0024936 0.0019459
-0.00072241 0.0028684 0.0010323 0.0057664
0.0054209 -0.010063 -0.0081032 0.034524 -0.034782 0.30065 0.00067688 0.0013341
0.00041011 0.0035466 -0.0013971 0.00087813
-0.0043212 -0.0026459 -0.0024398 0.0019872 0.00069536 0.0013191 -0.17322 0.23406
-0.027242 0.01494 0.014721 -0.010194
-0.0042662 0.0018781 -0.00064607 0.0024932 0.00035154 0.0034438 -0.027466 0.015003
-0.21246 0.13168 -0.016677 0.020476
0.0042324 -7.5989e-05 0.0008037 0.0048697 -0.0018207 0.00035464 0.014867 -0.010026
-0.01602 0.020516 -0.25141 0.12674
860000000 -0.12783 0.23746 -0.017329 0.030666 -0.0031188 -0.0098479 -0.0017161 0.00053058
0.0042121 0.005106 -0.0044417 -0.0033172
-0.017342 0.030644 -0.29432 0.27671 0.008123 0.034343 0.00032163 0.0020646
0.0037678 0.00080035 0.002993 0.00026794
-0.0031443 -0.009819 0.0082439 0.034343 0.014413 0.31097 -0.00034389 -0.00032071
0.0024044 -0.0011567 0.001266 0.0040964
-0.0016725 0.00061546 0.00033497 0.002051 -0.00035561 -0.00030072 -0.13458 0.24481
-0.016444 0.020771 -0.006637 -0.0099715
0.0042387 0.0048562 0.0038804 0.00078452 0.0025552 -0.0011177 -0.016121 0.02092
-0.15496 0.17583 -0.021836 0.017099
-0.003838 -0.0028179 0.0035344 0.00044065 0.0012615 0.0044031 -0.0072911 -0.010261
-0.022732 0.016934 -0.1999 0.17416
920000000 -0.10497 0.25999 0.0051644 0.039231 -0.0090708 -0.0043649 -0.0015583 0.001566
0.00095917 0.0016231 0.0032584 -0.0013662
0.0051442 0.039218 -0.26767 0.29761 0.028536 0.022577 0.0014977 0.0012493
0.0068604 -0.00062085 0.0038643 -0.0027299
-0.0090877 -0.0043401 0.028637 0.022502 0.060548 0.31244 0.0019539 6.3652e-05
0.00082719 -0.00036532 0.00093364 -0.0015839
-0.0016558 0.0016006 0.0015534 0.0012007 0.0018982 7.5021e-05 -0.11035 0.26117
-0.0080402 0.03097 0.0042021 -0.0063104
0.00086549 0.0015848 0.0068069 -0.00066963 0.00081411 -0.00034951 -0.0080405 0.030802
-0.14221 0.18264 -0.00089037 0.026789
0.0032184 -0.00084311 0.004236 -0.0027017 0.0011207 -0.0014887 0.0045155 -0.0057916
-0.0011258 0.027211 -0.21059 0.18675
980000000 -0.058907 0.28214 0.017419 0.030071 -0.0090746 0.0045733 0.0015495 0.00346
0.0033643 -0.0016022 -0.0035407 -0.0024164
0.017385 0.030062 -0.21573 0.33521 0.033421 0.0047767 0.001995 -3.354e-05
0.00139 -0.0058637 -8.7318e-05 -0.002689
-0.0090657 0.0046146 0.033496 0.0046674 0.1074 0.30814 0.00060535 -0.0010899
0.00025656 -0.0019085 0.001619 -0.00021105
0.0015378 0.0034535 0.002012 2.7732e-05 0.00058639 -0.0011361 -0.071488 0.27278
0.01051 0.029077 -0.0091322 -0.0074357
0.0033202 -0.0017414 0.0015134 -0.0059375 0.00035462 -0.0018538 0.010456 0.028969
-0.10877 0.20864 0.0068697 0.01929
-0.0032773 -0.0025555 -0.00049277 -0.0027352 0.00142 -0.00025826 -0.0091375 -0.0077926
0.0070315 0.019077 -0.16878 0.23838
1040000000 -0.016867 0.29 0.033348 0.019064 -0.0010493 0.0073515 0.002436 0.00066303
0.00036262 -0.0033678 -5.025e-05 -0.0015212
0.033306 0.019071 -0.18 0.34817 0.029664 -0.014971 0.0016143 -0.0016865
-0.0022987 -0.0023281 -0.0011235 -0.0029894
-0.0010298 0.0073579 0.029667 -0.015102 0.1548 0.29422 -0.00047694 -0.0015071
-0.0015408 -0.00092368 -0.00055455 -0.0011861
0.0023836 0.00067582 0.0015561 -0.001649 -0.00046463 -0.0015139 -0.042525 0.28152
0.021433 0.016754 -0.0016601 0.0013572
0.00053409 -0.0034777 -0.0022656 -0.00242 -0.0015611 -0.00096198 0.021602 0.016764
-0.074788 0.21436 0.014367 0.017421
-0.00017786 -0.0016546 -0.00098404 -0.0030298 -0.00052517 -0.0012026 -0.0014094 0.0011885
0.014401 0.017127 -0.148 0.25868
1100000000 0.026919 0.30049 0.036674 -0.0039089 0.0033922 0.0038692 0.0021967 -0.00093491
-0.0020224 -0.002816 -0.0040931 -6.255e-05
0.036642 -0.0038773 -0.13767 0.36811 0.01514 -0.028211 -8.3057e-05 -0.0017871
-0.0034235 -0.00077748 -0.0037574 -0.00064117
0.0033978 0.0038592 0.015061 -0.028285 0.20078 0.27481 -0.0017979 0.00016791
-0.00162 0.00053682 -0.0010909 -0.00052639
0.0022469 -0.0008707 -5.4362e-05 -0.0017635 -0.0018317 0.00018863 -0.0023677 0.28637
0.025837 0.0027032 -0.0022366 -0.00088398
-0.0021947 -0.002759 -0.0035026 -0.00071331 -0.0016227 0.00053795 0.025779 0.0025649
-0.055547 0.22659 0.020141 0.0075456
-0.0040071 -5.0509e-05 -0.0037993 -0.00064846 -0.0010457 -0.00048791 -0.002373 -0.00084233
0.020352 0.0074828 -0.10387 0.29137
1160000000 0.079032 0.29716 0.024325 -0.020976 0.0032387 -0.00083457 -0.00014146 -0.0022117
-0.0039187 -0.00063355 -0.001051 0.0042981
0.02432 -0.020943 -0.092248 0.37281 -0.0040408 -0.029002 -0.0016385 -0.0017128
-0.0026384 0.0025934 -0.0015855 0.0021259
0.0032272 -0.00084854 -0.0041533 -0.029005 0.24537 0.2443 -0.00078886 0.0017119
-0.00051854 0.0017811 -0.00099589 0.00032451
-0.00015119 -0.0022759 -0.0016354 -0.0016881 -0.00079111 0.0017015 0.039001 0.28259
0.021029 -0.012891 -0.003838 0.0043735
-0.0038787 -0.00066587 -0.0026138 0.0024723 -0.00040915 0.0017906 0.020975 -0.013014
-0.019727 0.23409 0.017893 -0.0020925
-0.0011036 0.004447 -0.0014296 0.0018807 -0.00096662 0.00023359 -0.0040054 0.0044344
0.01805 -0.0016473 -0.054832 0.29573
1220000000 0.12241 0.28674 0.01101 -0.030505 -0.0014179 -0.0014087 7.8561e-05 -0.00082019
-0.0025638 0.002172 0.0011659 0.0021025
0.011026 -0.030468 -0.048981 0.38614 -0.017189 -0.021097 -0.0025995 0.00043807
-1.881e-05 0.003058 -0.00081385 0.0019135
-0.0014317 -0.0013967 -0.017289 -0.021046 0.2843 0.20473 0.00075961 0.0017159
0.00064684 0.0011711 0.00011966 0.00061943
6.9146e-05 -0.00074791 -0.0025766 0.00044901 0.00078971 0.001709 0.078349 0.27196
0.0096543 -0.019468 0.0014657 0.0011245
-0.0026631 0.0021649 -2.0753e-05 0.0030856 0.00062399 0.0011895 0.0095564 -0.019331
0.0052523 0.23985 0.012799 -0.013527
0.0011782 0.0020479 -0.00079919 0.001884 0.00012241 0.00057104 0.0016654 0.0011518
0.012956 -0.013735 -0.025966 0.31396
1280000000 0.17315 0.26791 -0.0080822 -0.029113 -0.0020338 0.0020352 -0.00072122 -0.0019353
-0.00076952 0.0031434 0.0026883 0.0012319
-0.0080486 -0.029083 -0.0022217 0.37873 -0.024175 -0.0079989 -0.00096224 0.0013856
0.0017779 0.0018226 0.00054546 0.0019782
-0.0020251 0.0020371 -0.024229 -0.0078904 0.31532 0.16191 0.00152 3.9648e-05
0.0011213 0.00015114 0.00011031 0.00028393
-0.00074435 -0.0019586 -0.0009726 0.0014414 0.0015078 4.1951e-05 0.11507 0.25489
-0.00078905 -0.020862 -0.00080082 0.00038532
-0.00073498 0.0031217 0.0017791 0.0018105 0.0010361 0.00020035 -0.00080245 -0.021034
0.04199 0.24314 0.0022579 -0.015809
0.0025568 0.0015068 0.00064244 0.0021372 0.00013961 0.00027345 -0.0010209 0.00031608
0.0021117 -0.015463 0.022738 0.31905
1340000000 0.2112 0.23396 -0.017654 -0.019226 0.00038771 0.0043279 -0.001644 -0.00088054
0.0014528 0.0025751 0.0019674 -0.0014302
-0.017622 -0.019224 0.037477 0.37059 -0.021108 0.0047887 -0.0002368 0.0020683
0.0019327 0.00078711 0.0012902 0.00078735
0.00039995 0.0043175 -0.021104 0.0049 0.33836 0.11303 0.0010994 -0.00089046
0.00059293 -0.00045869 0.00023646 0.00049277
-0.0016428 -0.00088908 -0.0002499 0.002091 0.0010716 -0.00087489 0.14727 0.23178
-0.010518 -0.017209 0.00047453 0.001078
0.0014597 0.0025393 0.0018709 0.00082233 0.00055641 -0.0004978 -0.010426 -0.017173
0.073134 0.2351 -0.0046728 -0.013757
0.0017921 -0.0014455 0.0011754 0.00079346 0.00014594 0.0004143 0.00051325 0.0012165
-0.0046522 -0.013941 0.061414 0.31493
1400000000 0.24443 0.19693 -0.023926 -0.0076725 0.0048145 0.0032133 -0.0021093 0.0005421
0.0023655 0.0010072 0.00050402 -0.0013434
-0.023896 -0.0076799 0.074341 0.35865 -0.014297 0.012646 0.0013793 0.0015328
0.0014129 -0.00063168 0.0011728 0.00018984
0.0048277 0.0031892 -0.014259 0.012735 0.3513 0.059317 0.00010654 -0.0015809
0.00023764 -0.00030477 0.00033462 0.00021583
-0.0021137 0.00052443 0.0014012 0.0015299 9.231e-05 -0.0015664 0.17437 0.2022
-0.016571 -0.0098946 -0.0010195 0.00055537
0.0024083 0.00095621 0.0013788 -0.00066987 0.00020704 -0.00034359 -0.016654 -0.0099049
0.10505 0.22893 -0.010621 -0.008584
0.00052428 -0.0013321 0.0012196 0.00021662 0.00033312 0.00028098 -0.0010676 0.0005288
-0.010616 -0.008386 0.10614 0.30682
1460000000 0.26875 0.15356 -0.020665 0.0050179 0.0052982 -0.0016167 -0.0016715 0.0017107
0.002071 -0.00048642 -0.00019009 -0.00091253
-0.020647 0.0049898 0.10952 0.33732 -0.0053062 0.015286 0.0018692 0.00024131
0.00094424 -0.0015128 0.0012372 -0.00051313
0.00529 -0.0016222 -0.0052503 0.015323 0.35815 0.0042924 -0.0011934 -0.0014056
0.00017265 -0.00022027 0.00083359 -0.00029009
-0.00169 0.0017156 0.0018838 0.00025965 -0.0011664 -0.0013988 0.19987 0.17301
-0.017548 -0.0021882 -0.00047733 0.0025089
0.0021411 -0.00048047 0.000953 -0.0014979 0.00014385 -0.00019737 -0.01751 -0.0020594
0.13551 0.21298 -0.012302 -0.0022205
-0.00024062 -0.00088122 0.0013301 -0.00056398 0.0008048 -0.00040516 -0.0002559 0.0025608
-0.012337 -0.0024227 0.14099 0.2867
1520000000 0.28074 0.11124 -0.01494 0.010501 0.0032371 -0.0038855 2.2057e-05 0.0027517
0.0021432 -0.0017025 -0.001187 -0.00026986
-0.014932 0.01048 0.14291 0.32291 0.0021655 0.012547 0.0018654 -0.00081992
8.3898e-06 -0.0011569 0.00029736 -0.0010066
0.0032269 -0.0038965 0.002221 0.012549 0.35023 -0.053957 -0.0011323 -0.00045939
0.00048004 -0.00088999 0.00014772 -0.00015621
7.5137e-05 0.0027432 0.0018794 -0.00083015 -0.0011244 -0.00044762 0.22062 0.13465
-0.016193 0.004149 0.0019254 0.0022024
0.0020725 -0.0017964 -7.089e-06 -0.0011659 0.00049709 -0.00097379 -0.016171 0.0041591
0.16248 0.19726 -0.011822 0.0021368
-0.0011633 -0.00023149 0.00031102 -0.001034 0.00012283 -0.00014807 0.0019937 0.002094
-0.011932 0.002183 0.17382 0.26829
1580000000 0.29048 0.066584 -0.0081326 0.013871 -0.00098278 -0.0044267 0.0016067 0.0020925
-0.00012828 -0.0022133 -0.00031931 0.00040395
-0.0081314 0.013857 0.17026 0.29961 0.0053835 0.0074952 0.00059568 -0.0017974
-0.00066982 -0.00113 -0.00021776 -0.00079216
-0.0010057 -0.0044346 0.0054355 0.0074642 0.32863 -0.11054 -0.0017904 0.00049565
-0.00034078 -0.0010946 0.00027438 -0.00057833
0.0016287 0.0020717 0.00059645 -0.0018003 -0.0017948 0.00050404 0.23267 0.097491
-0.012136 0.0092503 0.0026327 0.00082407
-0.00014123 -0.0021774 -0.0007236 -0.001145 -0.00048394 -0.0011678 -0.012129 0.0092434
0.18622 0.17915 -0.0091815 0.007831
-0.0003632 0.00035845 -0.0002486 -0.00076415 0.00025989 -0.00056561 0.0027268 0.00071826
-0.0090764 0.0078591 0.20795 0.24367
1640000000 0.29356 0.024874 -0.0011248 0.012501 -0.0025518 -0.0023265 0.0030301 0.00096978
-0.00052755 -0.0017319 -0.00040411 0.00065463
-0.0011338 0.012496 0.20112 0.27475 0.0056013 0.0027574 -0.00070982 -0.001978
-0.0010803 -0.00032051 -0.00044156 -0.00070046
-0.0025726 -0.0023151 0.0056221 0.0027262 0.29896 -0.16038 -0.00067723 0.0016437
-0.001034 -0.00087211 -0.00013578 -0.00048758
0.003069 0.00093872 -0.00074753 -0.0019718 -0.00067994 0.0016159 0.24454 0.049953
-0.0073052 0.010604 0.0026895 -0.0011412
-0.00055393 -0.0017286 -0.0011086 -0.00028814 -0.0010951 -0.00083985 -0.0072904 0.010585
0.20832 0.1528 -0.0041879 0.0096082
-0.00042209 0.00070361 -0.00046233 -0.0006546 -0.0001496 -0.00052588 0.0025308 -0.0012329
-0.0040825 0.009663 0.23489 0.21313
1700000000 0.28581 -0.019732 0.0023626 0.0095619 -0.0032658 0.00010625 0.0031627 -0.0014584
-0.0021289 -0.00079752 0.00067647 0.00050607
0.0023497 0.0095512 0.21857 0.24426 0.0033001 -0.00010898 -0.0017305 -0.00062365
-0.00080276 0.00014937 -0.00082226 -0.00045279
-0.0032505 0.00014032 0.0033052 -0.00011991 0.254 -0.19879 0.00034116 0.0016568
-0.002016 -8.1039e-05 -0.00036999 -0.0007942
0.003153 -0.0014808 -0.0017226 -0.00063093 0.00036503 0.0016799 0.24068 0.0030951
-0.0037625 0.010962 0.0014956 -0.0021992
-0.0020814 -0.00079927 -0.00080946 0.00014459 -0.0020438 -4.8033e-05 -0.0038121 0.010984
0.22512 0.13162 0.00047278 0.0096391
0.00069516 0.0003573 -0.0007801 -0.00042261 -0.00029614 -0.00069451 0.0014898 -0.0021639
0.0004214 0.0095499 0.25236 0.17989
1760000000 0.27534 -0.067832 0.0046841 0.006121 -0.0021464 0.00087653 0.0011066 -0.003635
-0.0015785 0.00057716 0.00025118 -0.00055391
0.0046687 0.0061197 0.24651 0.20544 0.00078727 -0.0016783 -0.0013837 0.00027618
-0.00091113 0.0010217 -0.00064144 0.00033811
-0.0021711 0.00085223 0.00078496 -0.0016921 0.20561 -0.23033 0.0014072 0.0010656
-0.0010451 0.0015342 -0.0014281 -0.00065094
0.0010931 -0.0036304 -0.0013962 0.00029715 0.0014662 0.0010915 0.23466 -0.045563
-0.00026589 0.0099116 -9.0453e-05 -0.0026131
-0.0015675 0.00057078 -0.00090941 0.0010031 -0.0010282 0.001492 -0.00020995 0.009919
0.23945 0.097802 0.0043473 0.006791
0.00028663 -0.00057011 -0.00061625 0.00030525 -0.0013466 -0.00067014 -0.00017194 -0.0026774
0.0042702 0.0068288 0.26704 0.14297
1820000000 0.25074 -0.10568 0.0047533 0.0024437 2.1506e-05 0.0021181 -0.0012373 -0.0031332
-0.001383 0.0011938 -2.9663e-05 -0.00031817
0.0047429 0.0024532 0.25691 0.17497 -0.0012847 -0.00011984 -0.0012294 0.0011259
0.00014415 0.0011956 -0.00059925 0.00042217
9.0979e-06 0.0021268 -0.0012875 -0.00010833 0.15431 -0.2446 0.0017197 0.00023776
0.00013808 0.0025093 -0.0015557 0.00033871
-0.0012384 -0.0030836 -0.0012056 0.0011495 0.0017968 0.00024982 0.20667 -0.092623
0.0018656 0.0081861 -0.001808 -0.0017305
-0.0013102 0.0011591 0.00018612 0.001182 7.6223e-05 0.0024816 0.0017816 0.0082308
0.25511 0.067981 0.0049865 0.0030861
-0.00015711 -0.00019277 -0.00065843 0.00042398 -0.0017551 0.00021245 -0.0017868 -0.0016172
0.0049973 0.0030609 0.27037 0.10674
1880000000 0.21579 -0.14508 0.0024025 9.2927e-05 -0.00064589 0.0022198 -0.0029393 -0.0019889
-0.0001275 0.0021305 0.00013344 -0.00066189
0.0024027 9.6893e-05 0.26217 0.12966 -0.0033845 0.0022992 -0.00012281 0.0017002
0.00064139 0.0010875 0.00016526 0.00092908
-0.00060101 0.0021917 -0.0033749 0.0023304 0.1021 -0.25141 0.0016005 -0.0012109
0.001708 0.0017355 -0.00099373 0.0014691
-0.0029272 -0.0019941 -0.00013668 0.0017199 0.0015263 -0.0012007 0.16952 -0.13247
0.0027887 0.0057451 -0.0022478 0.00020383
-5.6808e-05 0.0020687 0.00070454 0.0010863 0.0017992 0.0017727 0.0030264 0.0058143
0.25832 0.037438 0.0049503 0.00098684
0.00023074 -0.00075471 0.00014904 0.00098874 -0.00099799 0.0015986 -0.0023295 0.00023233
0.0049048 0.0010275 0.27128 0.073897
1940000000 0.17764 -0.17179 -2.6711e-06 -0.0015937 0.0014885 0.001951 -0.0035609 0.00060221
0.0016521 0.0012715 -0.0008688 -0.00040082
-1.4481e-06 -0.0015967 0.26484 0.097083 -0.0016215 0.0050201 0.0010769 0.0012529
0.0017116 0.00036459 0.000837 0.00017412
0.0014855 0.0019432 -0.0015796 0.0050293 0.059537 -0.24301 0.00029686 -0.0020595
0.0023329 0.00019244 0.0003055 0.0014162
-0.0035736 0.00058529 0.0011112 0.0012074 0.00020118 -0.0021057 0.11987 -0.16703
0.0026667 0.0038151 -0.0016749 0.0011425
0.001614 0.0012181 0.0016776 0.00029299 0.0023819 0.00011195 0.0026008 0.003703
0.26188 -0.0014503 0.003557 -0.0026439
-0.00064486 -0.00041209 0.00096278 0.00020562 0.00048852 0.0015026 -0.0015306 0.0011333
0.0035662 -0.0025285 0.26298 0.037703
2000000000 0.1303 -0.18612 -0.0038355 0.00052322 0.0027623 0.0014389 -0.0022952 0.0035125
0.0014399 -9.3463e-05 -0.00074566 0.00052959
-0.0038237 0.00051885 0.25071 0.061246 -0.0006361 0.0069894 0.001424 0.00026939
0.0011336 -0.0012048 0.00029212 9.6888e-06
0.0027615 0.0014384 -0.00060457 0.0070016 0.017397 -0.22833 -0.0014949 -0.0011709
0.0018586 -0.001475 0.001607 0.0013287
-0.0023051 0.0035162 0.0014306 0.00028795 -0.0013845 -0.0011854 0.065558 -0.17963
0.0010369 0.0027677 5.6832e-05 0.001933
0.0013992 -1.3028e-05 0.0010636 -0.0011882 0.0018654 -0.001454 0.0010221 0.0028093
0.2565 -0.034497 0.00059323 -0.0031221
