!Keysight Technologies,M9804A,MY58100912,A.14.10.03
!Date: Thursday, April 27, 2023 10:28:33
!Correction: S11(C  6-Port  ) 
!S12(C  6-Port  ) 
!S13(C  6-Port  ) 
!S14(C  6-Port  ) 
!S15(C  6-Port  ) 
!S16(C  6-Port  ) 
!S21(C  6-Port  ) 
!S22(C  6-Port  ) 
!S23(C  6-Port  ) 
!S24(C  6-Port  ) 
!S25(C  6-Port  ) 
!S26(C  6-Port  ) 
!S31(C  6-Port  ) 
!S32(C  6-Port  ) 
!S33(C  6-Port  ) 
!S34(C  6-Port  ) 
!S35(C  6-Port  ) 
!S36(C  6-Port  ) 
!S41(C  6-Port  ) 
!S42(C  6-Port  ) 
!S43(C  6-Port  ) 
!S44(C  6-Port  ) 
!S45(C  6-Port  ) 
!S46(C  6-Port  ) 
!S51(C  6-Port  ) 
!S52(C  6-Port  ) 
!S53(C  6-Port  ) 
!S54(C  6-Port  ) 
!S55(C  6-Port  ) 
!S56(C  6-Port  ) 
!S61(C  6-Port  ) 
!S62(C  6-Port  ) 
!S63(C  6-Port  ) 
!S64(C  6-Port  ) 
!S65(C  6-Port  ) 
!S66(C  6-Port  ) 
!S6P File: Measurement: :
# Hz S  RI   R 50
500000000 -0.32771 -0.057339 -0.01048 -0.0015617 -0.00832 0.012607 -0.0038437 0.012517
0.01222 0.0044725 -0.0048138 0.0095018
-0.010544 -0.001608 -0.41032 -0.069947 0.0072206 -0.0107 0.00059323 0.012356
0.008156 0.0026982 0.001403 0.013569
-0.0083351 0.012625 0.0072136 -0.010725 -0.25546 0.19435 0.0065768 0.0029586
-0.00097434 0.0083263 0.0012794 0.010762
-0.0037864 0.012457 0.00060722 0.012312 0.0065629 0.0029661 -0.32999 0.045067
-0.019769 -0.0058749 0.014665 0.02944
0.012128 0.0043536 0.0081978 0.0026914 -0.00096367 0.0083109 -0.019742 -0.005812
-0.25538 -0.16173 -0.027897 0.0049278
-0.0044616 0.0092444 0.0014546 0.013691 0.0013801 0.010838 0.014526 0.029523
-0.02772 0.0048076 -0.25639 -0.14554
560000000 -0.31146 0.10909 -0.023452 -0.065784 0.0010196 0.013111 0.0042588 0.011452
0.010908 0.0028996 0.011333 0.0093468
-0.023424 -0.065782 -0.37056 0.091886 -0.040953 -0.038387 0.013584 0.0031088
-0.012395 -0.0039199 0.0033593 -0.00069462
0.0011809 0.013087 -0.041023 -0.038583 -0.1797 0.24299 -7.8074e-05 -0.0043088
0.017646 0.0042451 0.0075826 -0.0064391
0.0043236 0.011507 0.013589 0.002973 -7.5656e-05 -0.0043056 -0.30518 0.13361
0.0026389 -0.023068 0.0064824 -0.02186
0.011227 0.0028588 -0.012502 -0.0040401 0.017701 0.0044026 0.0024812 -0.023192
-0.30448 0.014579 0.0067237 -0.048109
0.011249 0.0093638 0.0033915 -0.00042757 0.0075894 -0.0064853 0.0064744 -0.021768
0.0067507 -0.048091 -0.32731 -0.00083296
620000000 -0.27238 0.087179 -0.023957 0.0094043 0.0039048 0.0086292 0.0083746 -0.0049278
0.01188 -0.0008329 0.00076829 -0.0019744
-0.023927 0.0094738 -0.39964 0.039189 -0.019518 0.00075003 -0.0015229 -0.0020222
0.011564 -0.0062897 0.00073252 -0.0029361
0.003981 0.0086622 -0.019578 0.00081341 -0.153 0.2514 -0.001036 -0.0047512
-0.0036362 -0.0030138 0.0088126 -0.0026736
0.0083205 -0.004794 -0.0015479 -0.0020498 -0.0010869 -0.0047748 -0.26314 0.14528
-0.040051 -0.019135 0.013908 0.030695
0.011953 -0.0011028 0.011661 -0.0062846 -0.003581 -0.0030777 -0.040047 -0.019163
-0.23133 -0.018016 -0.043306 0.012248
0.0010385 -0.0020986 0.00087388 -0.0029269 0.0089374 -0.00265 0.014037 0.030731
-0.043334 0.01222 -0.24087 -0.035634
680000000 -0.23707 0.17781 -0.02597 -0.013905 0.0051698 0.0051492 0.0015477 -0.0068642
-0.0027181 -0.011663 0.0054496 -0.0068102
-0.025955 -0.013907 -0.38926 0.14221 -0.032356 -0.0010694 -0.0015773 -0.00050665
-0.0020176 -0.0093928 -0.00077402 -0.0018318
0.0051861 0.0051141 -0.03238 -0.0010089 -0.10598 0.27462 -0.00076798 -0.00024689
-0.0019623 0.00036843 -0.0029138 -0.0091966
0.0016295 -0.0069226 -0.0015922 -0.00049736 -0.00077928 -0.00023952 -0.22028 0.19884
-0.024949 -0.0058733 -0.0084095 -0.012018
-0.0027664 -0.011711 -0.0020542 -0.0093822 -0.001983 0.0003792 -0.025018 -0.0058669
-0.26971 0.079846 -0.006919 -0.0050103
0.0052846 -0.0069211 -0.00073703 -0.0018354 -0.0028891 -0.0091753 -0.0083826 -0.012012
-0.006829 -0.0050584 -0.26147 0.070336
740000000 -0.19115 0.17106 -0.040047 0.027045 0.01337 -0.0041656 0.00010014 -0.004008
-0.0044017 -0.0015352 -0.0068965 0.002386
-0.039978 0.027034 -0.33512 0.16114 -0.036425 0.034382 3.9952e-05 -0.006408
-0.011633 0.0066168 -0.00064764 -0.0059821
0.01334 -0.0041759 -0.036335 0.034583 -0.07264 0.2741 -0.0019642 0.0030106
-0.0022947 -0.0047886 -0.0016827 0.00094206
0.00014001 -0.0039825 -4.7821e-05 -0.0063927 -0.0019747 0.0030015 -0.20249 0.20451
-0.040827 -0.0044303 0.021915 0.016596
-0.0044081 -0.0015942 -0.011709 0.0067459 -0.0023561 -0.0048227 -0.04086 -0.0044109
-0.17833 0.1005 -0.040164 0.0022018
-0.00685 0.0024367 -0.0006258 -0.0058548 -0.0016644 0.0010124 0.021893 0.016658
-0.040337 0.0021985 -0.2519 0.072871
800000000 -0.16354 0.2163 -0.021963 0.016532 0.0055952 -0.01012 -0.0041325 -0.0022518
-0.0040628 0.0023143 0.004542 0.00086956
-0.02199 0.016565 -0.34268 0.2324 -0.0080715 0.034576 -0.0024687 0.0021633
-0.00047526 0.0027358 0.00057969 0.0056549
0.0055261 -0.010097 -0.0079672 0.034629 -0.034614 0.3007 0.00065375 0.0015125
0.00028779 0.0036207 -0.0017231 0.00094222
-0.0041511 -0.0022579 -0.0024463 0.0021479 0.00065606 0.0015268 -0.17334 0.23375
-0.027393 0.015876 0.014857 -0.01054
-0.0041349 0.0023357 -0.00044201 0.0027812 0.00031114 0.0036108 -0.027393 0.015925
-0.21167 0.13035 -0.017191 0.021074
0.0044582 0.00084493 0.00065731 0.0056614 -0.001751 0.00092467 0.014892 -0.010587
-0.017247 0.021104 -0.25068 0.12633
860000000 -0.12771 0.23744 -0.017465 0.03071 -0.0032831 -0.0098587 -0.0018209 0.00031892
0.0042461 0.0050798 -0.0040936 -0.0035838
-0.017516 0.030675 -0.29445 0.27675 0.0081552 0.034215 0.00016704 0.0019992
0.0038829 0.0011101 0.002934 3.2627e-05
-0.003316 -0.0098516 0.0082528 0.034238 0.014523 0.31088 -0.00039288 -0.00021601
0.0025045 -0.0011684 0.0012946 0.0040033
-0.0018249 0.0003686 0.00027936 0.0019766 -0.00039596 -0.00021317 -0.13465 0.24472
-0.016359 0.02034 -0.0064828 -0.0097179
0.004299 0.0049766 0.003928 0.0010385 0.0024782 -0.0011622 -0.016327 0.020378
-0.15562 0.17606 -0.022489 0.017092
-0.0040805 -0.0035787 0.0029203 5.1819e-05 0.001304 0.0040611 -0.0064825 -0.0096387
-0.022428 0.017077 -0.19828 0.17412
920000000 -0.10525 0.26024 0.0052027 0.039274 -0.0090985 -0.0044318 -0.0017519 0.0015942
0.00092955 0.0017319 0.0033426 -0.00141
0.0051766 0.039226 -0.26751 0.29748 0.028577 0.022535 0.0014999 0.0010193
0.007157 -0.00073802 0.0040582 -0.0031039
-0.0091048 -0.0044245 0.028657 0.022464 0.060609 0.31239 0.0019648 2.7795e-05
0.00084068 -0.00043362 0.001045 -0.0012753
-0.0017582 0.0016075 0.0015115 0.00099585 0.0019689 3.0883e-05 -0.11058 0.26128
-0.0080934 0.030924 0.0043097 -0.0062977
0.00093068 0.0017616 0.0071283 -0.00074783 0.00085 -0.00043603 -0.008009 0.03098
-0.14241 0.18284 -0.0013512 0.027026
0.0033171 -0.0015048 0.0040558 -0.0030371 0.0010448 -0.0013099 0.004266 -0.0062802
-0.0013836 0.026984 -0.21005 0.18721
980000000 -0.058775 0.2824 0.017388 0.029992 -0.0089912 0.004609 0.0015644 0.0034872
0.0035037 -0.0015788 -0.0033654 -0.0026026
0.017371 0.029974 -0.2156 0.33522 0.033518 0.0047105 0.0019574 -5.3287e-05
0.0015656 -0.0057842 -0.0002446 -0.0027938
-0.0089875 0.0046207 0.033562 0.0046073 0.10749 0.30814 0.00057118 -0.0011095
0.00036583 -0.0018493 0.001339 -0.00041784
0.0015727 0.0034558 0.0019814 -5.0464e-05 0.00058799 -0.0011146 -0.071088 0.27314
0.010464 0.028786 -0.0090982 -0.0078599
0.0035212 -0.0015524 0.0015501 -0.0058143 0.00037781 -0.0018534 0.010524 0.02878
-0.10862 0.20927 0.0071376 0.019254
-0.0033759 -0.0025456 -0.00029741 -0.0027318 0.0013399 -0.00041466 -0.0091535 -0.0078176
0.0071691 0.01923 -0.16935 0.23739
1040000000 -0.016561 0.29015 0.033409 0.018925 -0.0011542 0.0073862 0.0023922 0.0005732
0.00049462 -0.0033371 -0.00010699 -0.0015068
0.033319 0.018905 -0.17984 0.34822 0.029611 -0.014994 0.0016083 -0.0016513
-0.0023355 -0.0024069 -0.0010228 -0.0028937
-0.0010963 0.0073714 0.02961 -0.015082 0.15487 0.29418 -0.00052221 -0.001458
-0.0015266 -0.0010238 -0.00060105 -0.0011189
0.0023998 0.00057885 0.0016111 -0.0016707 -0.00052686 -0.0014548 -0.042574 0.28154
0.021583 0.016635 -0.0014588 0.0012566
0.00043128 -0.0032958 -0.0023983 -0.0024217 -0.0015227 -0.0010084 0.021617 0.016592
-0.075806 0.21444 0.014753 0.01751
-5.0324e-05 -0.0015747 -0.0010418 -0.0028901 -0.00058394 -0.0011121 -0.001473 0.0012476
0.014676 0.017529 -0.14708 0.25815
1100000000 0.026862 0.30036 0.036619 -0.0040752 0.0033866 0.0038991 0.0022178 -0.000946
-0.0022193 -0.002907 -0.0039814 6.6501e-05
0.03657 -0.0040513 -0.13761 0.36808 0.015153 -0.028214 -0.00013723 -0.0018192
-0.0034478 -0.00082944 -0.0037836 -0.00053917
0.0033899 0.0038739 0.015069 -0.028289 0.20081 0.27481 -0.0018508 0.00017932
-0.0016203 0.00055542 -0.0010746 -0.00053201
0.0021851 -0.00094208 -0.00014528 -0.0018147 -0.0018543 0.0001827 -0.0021634 0.28638
0.025654 0.0026798 -0.0021984 -0.00095115
-0.0022361 -0.0028831 -0.0034506 -0.00080882 -0.0016163 0.00055314 0.025666 0.0026361
-0.055216 0.22669 0.020027 0.0076054
-0.0039843 0.00010224 -0.0037634 -0.00052966 -0.0010865 -0.0005311 -0.002222 -0.00095017
0.020035 0.0076165 -0.10389 0.29094
1160000000 0.07912 0.29721 0.024311 -0.021013 0.0031687 -0.00085997 -0.00016308 -0.0023406
-0.003877 -0.00060779 -0.0013319 0.004394
0.024302 -0.021022 -0.092249 0.37278 -0.0040316 -0.029096 -0.0016209 -0.001633
-0.0026775 0.0025195 -0.0016927 0.0022539
0.0031775 -0.00087079 -0.0041664 -0.029083 0.2454 0.24413 -0.00081041 0.0017007
-0.00048747 0.0017288 -0.00096476 0.00036505
-0.00016196 -0.0023218 -0.0016126 -0.0016583 -0.00080945 0.0017032 0.038881 0.28247
0.020964 -0.012986 -0.004079 0.0047022
-0.003905 -0.00059852 -0.0026647 0.0025143 -0.00048671 0.0017132 0.020956 -0.013015
-0.019464 0.23366 0.018065 -0.00187
-0.0013024 0.0043849 -0.0016811 0.0022878 -0.00095694 0.00037648 -0.0040562 0.0046729
0.018045 -0.0019116 -0.054174 0.29526
1220000000 0.12251 0.28675 0.010958 -0.030495 -0.0014182 -0.0014168 0.00011012 -0.0007237
-0.0025306 0.0022635 0.0012203 0.0020586
0.010982 -0.030459 -0.048959 0.3862 -0.01716 -0.021112 -0.002554 0.00045298
-1.3427e-05 0.0030463 -0.00090813 0.0019356
-0.0014345 -0.0014271 -0.017285 -0.021046 0.28437 0.20468 0.00082199 0.0016771
0.00060233 0.001149 0.0001052 0.00072359
9.0166e-05 -0.00072589 -0.0025477 0.00047373 0.00082183 0.0016771 0.078313 0.27204
0.009575 -0.01931 0.0014936 0.0011513
-0.0025095 0.0022716 7.6456e-07 0.0030445 0.00062163 0.0011619 0.0095537 -0.019321
0.0053501 0.23996 0.012928 -0.013567
0.0012242 0.0020625 -0.00088839 0.0019597 0.0001062 0.00070872 0.0014765 0.0011491
0.012933 -0.013567 -0.025814 0.31391
1280000000 0.17316 0.26792 -0.0081277 -0.029092 -0.0019984 0.0020452 -0.00077655 -0.0019822
-0.00079342 0.0030893 0.0024659 0.001528
-0.0081004 -0.029054 -0.002241 0.37868 -0.024147 -0.0079781 -0.00093231 0.0014747
0.0017372 0.0018093 0.00068227 0.0021764
-0.0019892 0.0020498 -0.024214 -0.0078887 0.31539 0.16176 0.0015411 4.8213e-05
0.0010421 0.00024874 0.00023722 0.00029274
-0.0007825 -0.0019822 -0.00091364 0.0014712 0.0015345 4.4666e-05 0.11507 0.25467
-0.00071681 -0.020963 -0.0011608 0.00029985
-0.00076792 0.0031039 0.0017545 0.0017936 0.0010602 0.00024131 -0.00075814 -0.020949
0.042146 0.243 0.0021958 -0.015685
0.0024429 0.0015103 0.00065708 0.0022035 0.00024463 0.00033634 -0.001173 0.00030166
0.0022138 -0.015685 0.022906 0.31865
1340000000 0.21133 0.23391 -0.017659 -0.019243 0.00036626 0.0042756 -0.0016719 -0.00085471
0.0014667 0.002542 0.0018218 -0.001472
-0.017621 -0.019216 0.03744 0.37055 -0.021114 0.0047766 -0.00031609 0.0020875
0.0019114 0.00078586 0.0012374 0.00080594
0.00039473 0.0042754 -0.021105 0.0048873 0.33844 0.11292 0.0010467 -0.00090096
0.00053372 -0.00052732 0.00016231 0.00036609
-0.0016815 -0.00083741 -0.00029938 0.0021033 0.0010434 -0.00089267 0.14729 0.23196
-0.010507 -0.017054 0.00057304 0.0011569
0.0014848 0.0025381 0.0019005 0.00077728 0.00053511 -0.00052619 -0.010539 -0.017032
0.072702 0.23512 -0.0046044 -0.013584
0.0018465 -0.0015009 0.0012231 0.00080359 0.00015372 0.00034934 0.00057727 0.0011547
-0.0045964 -0.01359 0.061732 0.31508
1400000000 0.24453 0.19692 -0.023856 -0.0076356 0.0048299 0.0032026 -0.0021779 0.00053133
0.0024184 0.00095534 0.00039046 -0.0013333
-0.02382 -0.0076439 0.074369 0.35867 -0.014339 0.012639 0.0013957 0.0015391
0.0013715 -0.00066098 0.0011612 0.00020201
0.0048583 0.0031841 -0.014298 0.012722 0.35127 0.059201 0.00018812 -0.0015384
0.00022305 -0.0002719 0.0004019 0.00023083
-0.0021869 0.0005261 0.0013964 0.0015198 0.00018181 -0.0015256 0.17448 0.20224
-0.016526 -0.0097299 -0.00092408 0.00048327
0.0024279 0.00093094 0.0013722 -0.00067219 0.00023473 -0.00026436 -0.01654 -0.0096909
0.10528 0.22894 -0.010817 -0.0086176
0.00038114 -0.0013376 0.001165 0.00019885 0.00039914 0.00023649 -0.00093302 0.000482
-0.010802 -0.0086221 0.1064 0.30673
1460000000 0.26875 0.15352 -0.020597 0.0050067 0.0053127 -0.0016251 -0.0016488 0.0016952
0.0021853 -0.00040779 -0.00024536 -0.0010401
-0.020583 0.0049819 0.10952 0.33729 -0.0052614 0.01522 0.0018589 0.00027247
0.00096418 -0.001464 0.0012206 -0.00056438
0.0052915 -0.0016471 -0.0051963 0.015278 0.35816 0.0042832 -0.0011902 -0.0013724
0.0002327 -0.00028062 0.00067497 -0.00029214
-0.0016328 0.001705 0.0018574 0.00026966 -0.0012037 -0.0013696 0.19978 0.1731
-0.017386 -0.0021615 -0.00037441 0.0025957
0.0021818 -0.00041801 0.00095353 -0.0014691 0.00021155 -0.0002663 -0.017384 -0.0021277
0.13542 0.2131 -0.012347 -0.0023114
-0.00025103 -0.0010451 0.0012303 -0.00057753 0.00071857 -0.00027918 -0.00036777 0.0025947
-0.012351 -0.0023279 0.14094 0.28689
1520000000 0.28074 0.11123 -0.014913 0.010469 0.0032204 -0.0039131 6.4448e-05 0.0027079
0.0020915 -0.0017647 -0.0010939 -0.00024222
-0.014914 0.010453 0.14291 0.32291 0.0021531 0.012527 0.0018782 -0.00082882
1.9487e-05 -0.0011862 0.00038144 -0.00099331
0.0032021 -0.003928 0.0022193 0.012526 0.35019 -0.054031 -0.0011035 -0.00044295
0.00049986 -0.0009183 0.00024474 -0.00016418
8.026e-05 0.002717 0.0018771 -0.00084286 -0.0010959 -0.00044937 0.22073 0.13472
-0.016072 0.0040582 0.0020003 0.0021809
0.0020919 -0.0017825 7.5169e-06 -0.0011777 0.00050802 -0.00093018 -0.016083 0.004086
0.16263 0.19748 -0.011769 0.0021655
-0.0011053 -0.00024146 0.00036885 -0.00097887 0.00024154 -0.00016242 0.0020101 0.002176
-0.011768 0.0021678 0.17426 0.26806
1580000000 0.29056 0.06647 -0.0080863 0.013833 -0.001001 -0.0045112 0.0016203 0.0020187
-9.6707e-05 -0.0021539 -0.00042565 0.00037161
-0.0081076 0.013811 0.17027 0.29961 0.0053601 0.0074961 0.00058631 -0.0017815
-0.00066369 -0.0011183 -0.00024589 -0.00074589
-0.0010192 -0.0045031 0.0054057 0.0074708 0.32863 -0.11068 -0.0017589 0.00055363
-0.00039277 -0.0011177 0.00024914 -0.0005994
0.0016433 0.0020232 0.00059266 -0.0017858 -0.0017473 0.00054012 0.2328 0.097583
-0.01208 0.0092042 0.0028054 0.0006686
-0.00012665 -0.0021482 -0.00066208 -0.001112 -0.00038563 -0.0010941 -0.012072 0.0092518
0.18629 0.17925 -0.0089511 0.0078759
-0.00042403 0.00038297 -0.00025243 -0.00075943 0.00024995 -0.00060813 0.0028155 0.00065802
-0.0089752 0.0078653 0.20803 0.24384
1640000000 0.29358 0.024866 -0.0011473 0.012456 -0.0025716 -0.0023072 0.0029518 0.0010121
-0.00056439 -0.0017069 -0.00036146 0.00054789
-0.0011457 0.012456 0.20113 0.27472 0.0056536 0.0026946 -0.00075686 -0.0019772
-0.0010811 -0.00031775 -0.00045458 -0.0007228
-0.0025947 -0.0022767 0.0056817 0.0026688 0.29905 -0.16051 -0.00073882 0.0015902
-0.00098478 -0.00089425 -0.00013811 -0.00052735
0.0029469 0.0010011 -0.00075646 -0.0019659 -0.00074564 0.0015934 0.24466 0.050003
-0.0073115 0.010516 0.0026476 -0.0011273
-0.00056756 -0.0017161 -0.0010703 -0.00031658 -0.00098639 -0.00090598 -0.0072998 0.010548
0.20867 0.15279 -0.0042351 0.0096868
-0.00035879 0.00055783 -0.00046872 -0.00072498 -0.00015359 -0.00052938 0.0026661 -0.0011494
-0.0042383 0.0096828 0.23522 0.21276
1700000000 0.28586 -0.019792 0.0023403 0.0095448 -0.003242 0.00015392 0.0031303 -0.0014623
-0.0021046 -0.00074538 0.00067755 0.00047743
0.0023326 0.0095401 0.21858 0.24422 0.0033086 -0.00010066 -0.0016941 -0.00061989
-0.00083788 0.00015781 -0.0008464 -0.00048801
-0.0032255 0.00016486 0.0033196 -0.0001328 0.25387 -0.19881 0.00047086 0.0017092
-0.0019568 -2.0267e-05 -0.00029078 -0.00085538
0.0031162 -0.0014691 -0.0016917 -0.00062093 0.00047024 0.0017019 0.24077 0.0030047
-0.0039358 0.010962 0.0015757 -0.0023484
-0.0021325 -0.00072778 -0.0008382 0.00016035 -0.0019696 -1.5427e-05 -0.0039326 0.010967
0.22514 0.13177 0.00071269 0.0095028
0.0006893 0.00050367 -0.00084173 -0.0004747 -0.00030973 -0.00085818 0.0015756 -0.002371
0.00071516 0.0094908 0.25242 0.17979
1760000000 0.2754 -0.067884 0.0046533 0.0061231 -0.0021188 0.00086091 0.001105 -0.0036509
-0.0015522 0.00054841 0.00037344 -0.00057131
0.0046376 0.0061166 0.2465 0.20542 0.0008347 -0.0016802 -0.0013777 0.00027331
-0.0009567 0.0010012 -0.00053091 0.00033808
-0.002118 0.00088588 0.00082858 -0.0016892 0.20569 -0.23023 0.0014739 0.0011604
-0.0010996 0.0015986 -0.0014196 -0.00061062
0.0010914 -0.0036641 -0.0013679 0.00025847 0.0014827 0.0011586 0.23483 -0.045804
-0.00026231 0.0098639 -0.00025254 -0.0025896
-0.0015472 0.00055378 -0.00093987 0.00099699 -0.0010854 0.0016043 -0.00023907 0.009869
0.23974 0.097634 0.0042851 0.0068714
0.00038307 -0.00056128 -0.00053101 0.00035296 -0.0014191 -0.00060486 -0.00024107 -0.0025852
0.0042857 0.0068849 0.26713 0.14273
1820000000 0.25073 -0.10581 0.0047523 0.0024406 8.2498e-06 0.0021655 -0.0012316 -0.0031154
-0.0013564 0.0011757 -0.000125 -0.00016245
0.0047468 0.0024401 0.25691 0.17496 -0.0013098 -0.00013449 -0.0012074 0.0011215
0.00011767 0.0011687 -0.00068464 0.00046411
2.2108e-05 0.0021712 -0.0013062 -0.00011699 0.15435 -0.24483 0.0016685 0.00022206
-4.8472e-05 0.0023721 -0.0017216 0.00031029
-0.001239 -0.0031112 -0.0011985 0.0011306 0.0016771 0.0002053 0.2065 -0.092713
0.0016365 0.0082714 -0.001698 -0.0017296
-0.0013361 0.0011782 0.0001161 0.0011823 -5.4418e-05 0.0023697 0.0016699 0.0082594
0.25527 0.06773 0.0050781 0.0030429
-0.00012313 -0.00014936 -0.00066847 0.00045246 -0.0017137 0.00031968 -0.001716 -0.0017182
0.0050862 0.0030322 0.27052 0.10672
1880000000 0.21582 -0.14511 0.002396 9.8402e-05 -0.00054911 0.0021472 -0.0030268 -0.0020747
-0.0001224 0.0019757 0.00016986 -0.00071046
0.0023951 8.6458e-05 0.2622 0.12967 -0.0033592 0.0023416 -0.00012419 0.0017585
0.00066303 0.0010907 0.00017825 0.00097251
-0.0005372 0.0021589 -0.0033484 0.002364 0.10195 -0.25129 0.0016476 -0.0011679
0.0018437 0.0018349 -0.0010529 0.0015214
-0.0030261 -0.002079 -0.00011688 0.0017633 0.0016419 -0.0011519 0.16944 -0.1326
0.0028659 0.0057823 -0.0024661 0.00023466
-8.9189e-05 0.0019844 0.00068989 0.0010789 0.0018347 0.0018364 0.002846 0.0058173
0.25849 0.037038 0.0048947 0.00099675
0.00015031 -0.00068453 0.00019791 0.00099317 -0.0010869 0.0015175 -0.0024426 0.00023122
0.0049049 0.0010128 0.27172 0.073666
1940000000 0.17761 -0.17197 4.3208e-05 -0.0016121 0.0014691 0.0020054 -0.0035466 0.00055144
0.001678 0.0012196 -0.00064319 -0.00051604
4.1786e-05 -0.0016266 0.26483 0.097069 -0.0016466 0.0050444 0.001115 0.0011589
0.0017671 0.00029063 0.00088406 0.00024062
0.0014801 0.0019931 -0.0016105 0.005078 0.059436 -0.24313 0.00017104 -0.0021535
0.0023514 0.0001427 0.00035619 0.0017379
-0.003594 0.00058668 0.001127 0.0011638 0.00017478 -0.0021743 0.11971 -0.16711
0.002478 0.0038592 -0.0013907 0.0012737
0.0016809 0.0012004 0.0017512 0.00030198 0.0023798 0.00013438 0.0024899 0.0038222
0.26182 -0.0016479 0.003585 -0.0024624
-0.00063966 -0.00051184 0.00087724 0.00022202 0.0003965 0.0017211 -0.0013865 0.0013038
0.0035794 -0.0024915 0.26275 0.037201
2000000000 0.13041 -0.18619 -0.0038851 0.00058551 0.00284 0.0014113 -0.0022757 0.0035287
0.0013638 7.9501e-06 -0.00075156 0.00055178
-0.0038797 0.00059699 0.25075 0.061245 -0.00062107 0.0070749 0.0013835 0.00032321
0.0010325 -0.0011798 0.00032242 1.3257e-05
0.002833 0.0014066 -0.00057464 0.0070885 0.017216 -0.22827 -0.0014789 -0.001087
0.0018485 -0.0014346 0.0017435 0.001413
-0.0022946 0.003492 0.0013847 0.00031476 -0.0014879 -0.0010868 0.065478 -0.17955
0.0010043 0.0028595 -0.00017455 0.0019916
0.0013611 -3.4703e-06 0.0010303 -0.0012021 0.0018265 -0.0014499 0.0010063 0.0028436
0.25623 -0.034817 0.0002892 -0.0031609
