!Keysight Technologies,M9804A,MY58100912,A.14.10.03
!Date: Thursday, April 27, 2023 10:28:33
!Correction: S11(C  6-Port  ) 
!S12(C  6-Port  ) 
!S13(C  6-Port  ) 
!S14(C  6-Port  ) 
!S15(C  6-Port  ) 
!S16(C  6-Port  ) 
!S21(C  6-Port  ) 
!S22(C  6-Port  ) 
!S23(C  6-Port  ) 
!S24(C  6-Port  ) 
!S25(C  6-Port  ) 
!S26(C  6-Port  ) 
!S31(C  6-Port  ) 
!S32(C  6-Port  ) 
!S33(C  6-Port  ) 
!S34(C  6-Port  ) 
!S35(C  6-Port  ) 
!S36(C  6-Port  ) 
!S41(C  6-Port  ) 
!S42(C  6-Port  ) 
!S43(C  6-Port  ) 
!S44(C  6-Port  ) 
!S45(C  6-Port  ) 
!S46(C  6-Port  ) 
!S51(C  6-Port  ) 
!S52(C  6-Port  ) 
!S53(C  6-Port  ) 
!S54(C  6-Port  ) 
!S55(C  6-Port  ) 
!S56(C  6-Port  ) 
!S61(C  6-Port  ) 
!S62(C  6-Port  ) 
!S63(C  6-Port  ) 
!S64(C  6-Port  ) 
!S65(C  6-Port  ) 
!S66(C  6-Port  ) 
!S6P File: Measurement: :
# Hz S  RI   R 50
500000000 -0.32826 -0.054284 -0.011336 -0.0008549 -0.0082847 0.012498 -0.0034274 0.012382
0.011837 0.0058006 -0.0038145 0.0085426
-0.011623 -0.00093703 -0.41032 -0.068897 0.0067059 -0.010841 0.0011722 0.012392
0.0085815 0.0030266 0.0012432 0.013807
-0.0081353 0.01269 0.0067259 -0.010862 -0.25614 0.19589 0.0064018 0.0031066
0.00011247 0.0085296 0.00062266 0.010856
-0.0037517 0.012445 0.0012214 0.012378 0.0063609 0.0029983 -0.3276 0.045869
-0.020036 -0.0054978 0.016376 0.028056
0.011611 0.0052471 0.0085936 0.0027932 9.5691e-05 0.00834 -0.019749 -0.0055389
-0.25778 -0.1589 -0.027135 0.0053877
-0.0045607 0.0093799 0.0017377 0.014062 0.00065154 0.01097 0.016797 0.028672
-0.027303 0.0055303 -0.25475 -0.14143
560000000 -0.31187 0.10862 -0.023133 -0.065866 0.00018655 0.013423 0.0051084 0.010307
0.0096531 0.0028947 0.010856 0.0092292
-0.022816 -0.065699 -0.37041 0.093201 -0.041768 -0.037853 0.013562 0.0028725
-0.013061 -0.0029974 0.0041649 -0.00087583
0.00048166 0.013413 -0.0419 -0.037841 -0.17978 0.24415 0.00066987 -0.0048409
0.017357 0.0037235 0.0076441 -0.005669
0.0055143 0.010436 0.013516 0.0028358 0.00082973 -0.0047498 -0.30523 0.1364
0.0039881 -0.022279 0.0061466 -0.02042
0.010167 0.00255 -0.012899 -0.0030835 0.017711 0.0038976 0.0034986 -0.022377
-0.30314 0.014575 0.0070436 -0.047852
0.011653 0.0084051 0.0042185 -0.0008714 0.0081061 -0.005879 0.0053228 -0.020466
0.0073123 -0.046388 -0.327 0.0060194
620000000 -0.27094 0.087725 -0.023954 0.0097037 0.0036463 0.0089186 0.0079384 -0.0042796
0.012808 -0.0014017 -0.00057225 -0.0037839
-0.023952 0.0096421 -0.3992 0.041003 -0.019531 0.0010069 -0.0010527 -0.0018
0.011367 -0.0061954 0.0012626 -0.0031715
0.0035768 0.0091001 -0.019521 0.0010519 -0.15247 0.25247 -0.00067561 -0.0045463
-0.0036987 -0.0033281 0.0084547 -0.0030005
0.0074529 -0.0041308 -0.0011473 -0.0018023 -0.00079358 -0.0045811 -0.26252 0.14543
-0.040827 -0.01805 0.013861 0.029259
0.013056 -0.0011235 0.011334 -0.006356 -0.0036413 -0.0031244 -0.03997 -0.018386
-0.23086 -0.017265 -0.04309 0.013333
-0.00027471 -0.0024198 0.0012526 -0.0028844 0.0086822 -0.0026023 0.013821 0.028981
-0.042772 0.013294 -0.24102 -0.03004
680000000 -0.2372 0.17894 -0.026616 -0.013616 0.0050777 0.0054684 0.0011771 -0.0072864
-0.0028411 -0.011032 0.0061743 -0.0056264
-0.026435 -0.013749 -0.38873 0.14328 -0.032385 -0.00076995 -0.0017721 -0.00068195
-0.0022998 -0.0094405 -0.0009155 -0.0012709
0.0051083 0.0052131 -0.032498 -0.00069789 -0.10517 0.27555 -0.00087348 -0.00029152
-0.0015223 0.0003114 -0.0029788 -0.0087578
0.0012769 -0.0075012 -0.001771 -0.00064032 -0.00075783 -0.0002755 -0.21953 0.19941
-0.024834 -0.0065095 -0.0086737 -0.010506
-0.0028649 -0.011035 -0.002283 -0.0093678 -0.0014802 0.0003019 -0.025082 -0.0063802
-0.26879 0.082909 -0.0071525 -0.0057064
0.0054649 -0.0065855 -0.0011284 -0.0012502 -0.0027103 -0.0089744 -0.0086456 -0.010536
-0.0071945 -0.0054943 -0.2596 0.075713
740000000 -0.1905 0.17193 -0.040073 0.027609 0.013209 -0.0043407 0.00014273 -0.0040348
-0.0048836 -0.0014824 -0.0062531 0.0023062
-0.040204 0.027408 -0.33485 0.16189 -0.035831 0.034735 -0.00014222 -0.0064161
-0.012314 0.0079105 -0.0011056 -0.0063766
0.013445 -0.0044485 -0.035746 0.034846 -0.072267 0.27544 -0.0017085 0.0029926
-0.0025185 -0.0048073 -0.0015745 0.00087981
-5.501e-05 -0.0039173 -0.00015973 -0.0064653 -0.001756 0.0029138 -0.20204 0.20479
-0.041498 -0.004058 0.022638 0.016312
-0.0046782 -0.0015924 -0.011913 0.0078079 -0.0025644 -0.0047454 -0.041073 -0.0040969
-0.17772 0.10112 -0.040632 0.0037398
-0.0067359 0.0026403 -0.0014665 -0.0065418 -0.001515 0.00085511 0.02208 0.016374
-0.040322 0.0036516 -0.25076 0.076186
800000000 -0.16303 0.21657 -0.021886 0.016867 0.0057574 -0.010207 -0.0042525 -0.0024173
-0.0041329 0.0020951 0.0049446 0.0010135
-0.022001 0.016784 -0.34216 0.23307 -0.0078953 0.034701 -0.00243 0.0021373
-0.00061901 0.0026817 0.0010556 0.0058035
0.0054908 -0.010205 -0.0077689 0.034824 -0.034201 0.3014 0.00069103 0.0014271
0.00057045 0.003478 -0.0013049 0.0010594
-0.0040796 -0.0025138 -0.0023957 0.0022119 0.00077923 0.001473 -0.17298 0.23333
-0.02721 0.015667 0.014522 -0.01022
-0.0042877 0.002239 -0.0006062 0.0027931 0.0005702 0.0034967 -0.027394 0.015955
-0.21 0.13214 -0.016082 0.021026
0.0044174 0.00054534 0.00082348 0.0055905 -0.0016619 0.00088269 0.014681 -0.011114
-0.01624 0.021576 -0.24765 0.13111
860000000 -0.12709 0.23746 -0.017221 0.030682 -0.0032439 -0.010097 -0.0017181 0.00039066
0.0041743 0.0048903 -0.0044128 -0.0028096
-0.017305 0.03052 -0.29375 0.27708 0.0084836 0.034337 0.00018721 0.0020125
0.004184 0.001022 0.0036136 0.00074336
-0.003228 -0.010196 0.0085702 0.034369 0.015017 0.31158 -0.00032183 -0.00021088
0.0024497 -0.0012295 0.0013908 0.0042673
-0.0017151 0.0004402 0.00014766 0.0019919 -0.00038162 -0.00022965 -0.13448 0.24508
-0.016516 0.020624 -0.0067285 -0.010395
0.0039037 0.00501 0.0040861 0.00090095 0.0023784 -0.0012068 -0.016396 0.020799
-0.15454 0.17732 -0.022131 0.01868
-0.0037639 -0.0031209 0.0034018 0.00018539 0.0015797 0.003912 -0.0064654 -0.010023
-0.022308 0.018334 -0.1964 0.17649
920000000 -0.10414 0.2605 0.0051668 0.038954 -0.009245 -0.0046631 -0.001737 0.0016365
0.00088666 0.0013321 0.0031526 -0.0010099
0.0051149 0.038867 -0.26727 0.29808 0.02878 0.02241 0.0015447 0.0010509
0.0070878 -0.00032655 0.0036545 -0.0027484
-0.0091832 -0.0045882 0.028875 0.022359 0.061231 0.31309 0.0018603 8.8491e-06
0.00097295 -0.00043733 0.00089416 -0.001663
-0.0017559 0.0016505 0.0015395 0.001055 0.0018575 1.1317e-05 -0.11075 0.26115
-0.0080151 0.031612 0.004601 -0.0063842
0.00099352 0.0013808 0.0071237 -0.00021237 0.00098163 -0.0004716 -0.0082145 0.031699
-0.14092 0.18333 -0.0011627 0.027588
0.003116 -0.00096445 0.0040882 -0.0028513 0.00097548 -0.0016563 0.0045011 -0.0063659
-0.0014606 0.027796 -0.20593 0.19089
980000000 -0.058362 0.28219 0.017607 0.029766 -0.0092874 0.0046265 0.0016753 0.0033301
0.0035636 -0.0016295 -0.0036312 -0.0028978
0.017535 0.02978 -0.21539 0.33526 0.03369 0.0044876 0.0018596 -0.00012817
0.0015594 -0.0059715 -0.00040352 -0.0028495
-0.0093046 0.0045957 0.033722 0.0043824 0.10822 0.30879 0.00050414 -0.0011322
0.00033159 -0.0018322 0.0013474 -0.00036368
0.0017071 0.0032982 0.0018595 -0.00011829 0.00050912 -0.0011278 -0.071058 0.2732
0.010822 0.029285 -0.0092682 -0.0076517
0.0036016 -0.0016324 0.0015871 -0.0060207 0.00036099 -0.0018345 0.0109 0.029305
-0.10638 0.2105 0.0068786 0.019347
-0.003504 -0.0028172 -0.00063099 -0.0027114 0.0013019 -0.00040649 -0.0091875 -0.0077894
0.0069546 0.019405 -0.16601 0.24018
1040000000 -0.016183 0.29016 0.033542 0.018658 -0.0012344 0.0073636 0.0023484 0.00060704
0.00017457 -0.0035429 -0.00026139 -0.0014365
0.033541 0.018644 -0.1797 0.34837 0.029743 -0.01541 0.0014066 -0.0018567
-0.0022756 -0.0026694 -0.001369 -0.0030114
-0.0011365 0.0073926 0.029721 -0.015532 0.15587 0.29486 -0.00053498 -0.001515
-0.0016337 -0.0010376 -0.00068898 -0.0011471
0.0024472 0.00057087 0.0014204 -0.001878 -0.00054595 -0.0015015 -0.04267 0.2819
0.021987 0.016666 -0.0017565 0.0010756
0.0002528 -0.0036153 -0.0023268 -0.0026662 -0.0016199 -0.0010784 0.02194 0.016521
-0.073819 0.21528 0.015234 0.016657
-0.0003159 -0.0013829 -0.0013769 -0.0030663 -0.0007353 -0.0010626 -0.0018359 0.0010456
0.015172 0.016761 -0.1441 0.26087
1100000000 0.027428 0.30072 0.036627 -0.0043485 0.0033433 0.0040037 0.0021681 -0.0009625
-0.0023006 -0.0027323 -0.0042835 0.00014374
0.036629 -0.004274 -0.13756 0.36852 0.015037 -0.028599 -0.00022449 -0.001908
-0.0036772 -0.0006076 -0.0037905 -0.00061828
0.0033609 0.0040209 0.014949 -0.028668 0.20219 0.27512 -0.0018332 0.00024
-0.0017168 0.0007411 -0.0010924 -0.00052469
0.0021239 -0.00093889 -0.00024798 -0.00192 -0.0018423 0.00024849 -0.0021849 0.28697
0.026186 0.0022017 -0.0026044 -0.00051179
-0.0021324 -0.0028399 -0.0036182 -0.0006816 -0.0016926 0.00069277 0.026129 0.0022804
-0.053847 0.22698 0.019862 0.0064006
-0.004455 7.3366e-05 -0.0038812 -0.00059569 -0.0010881 -0.00044549 -0.0023309 -0.00074491
0.02017 0.0066301 -0.0999 0.29313
1160000000 0.079784 0.29729 0.024387 -0.021426 0.0031137 -0.00069522 -0.00022359 -0.0021957
-0.0038993 -0.00070794 -0.0011284 0.00417
0.024296 -0.021443 -0.091707 0.3736 -0.0044668 -0.029242 -0.001557 -0.0015734
-0.0024557 0.0026239 -0.001685 0.0021036
0.0031159 -0.00069565 -0.0046315 -0.029267 0.24696 0.24396 -0.00074602 0.0017323
-0.00048548 0.0017945 -0.001091 0.00027929
-0.00019357 -0.0022356 -0.0015053 -0.0015987 -0.0007597 0.0017495 0.039345 0.28318
0.021182 -0.013404 -0.0038036 0.0043133
-0.0039654 -0.00068358 -0.002464 0.0027088 -0.00044123 0.0017981 0.021223 -0.013427
-0.018602 0.23454 0.018714 -0.0019451
-0.00085287 0.0041518 -0.001556 0.002003 -0.0010212 0.00018376 -0.0039404 0.0043636
0.018554 -0.0019817 -0.050773 0.29721
1220000000 0.12311 0.287 0.010584 -0.030903 -0.0014817 -0.0012823 8.8649e-05 -0.00086414
-0.0025491 0.002191 0.0012921 0.0019663
0.010645 -0.030867 -0.048248 0.38694 -0.017661 -0.021101 -0.0025892 0.00054146
2.3738e-05 0.0030928 -0.00076886 0.0020544
-0.0014831 -0.0012928 -0.017764 -0.021041 0.2856 0.20378 0.0008495 0.0017163
0.00064719 0.0011983 0.00018923 0.00067646
4.3578e-05 -0.00084964 -0.0026176 0.0005532 0.000845 0.0017175 0.079014 0.27254
0.0095977 -0.020062 0.0013729 0.0011871
-0.0024583 0.0022575 9.0624e-05 0.0030798 0.0006145 0.0011952 0.0095402 -0.020051
0.006641 0.24024 0.012666 -0.014209
0.0011972 0.0020476 -0.00082452 0.0020874 0.00020913 0.00067229 0.0014668 0.0012624
0.012527 -0.014149 -0.021575 0.31505
1280000000 0.17397 0.2681 -0.0085693 -0.029243 -0.0020041 0.0022344 -0.00088526 -0.0020126
-0.00075343 0.0031125 0.0026637 0.001233
-0.0085871 -0.029226 -0.0010436 0.37925 -0.024548 -0.0077313 -0.00095182 0.0015414
0.0019035 0.0017317 0.00073561 0.0020195
-0.0019734 0.0022366 -0.024601 -0.007619 0.316 0.16062 0.001598 -1.3346e-05
0.0010662 0.00021559 0.00030364 0.00038523
-0.00086988 -0.0020137 -0.00091503 0.0015218 0.0015953 3.6969e-06 0.11604 0.25498
-0.0013746 -0.021515 -0.00095886 0.00031616
-0.00074474 0.0031653 0.0019341 0.0017594 0.0011007 0.00021768 -0.001411 -0.021461
0.043383 0.24333 0.0018243 -0.015867
0.0025402 0.0011475 0.000802 0.0019828 0.00025542 0.00033416 -0.0010031 0.00027969
0.0019432 -0.016097 0.026313 0.319
1340000000 0.21206 0.23382 -0.018331 -0.018941 0.00050043 0.0044393 -0.0017538 -0.00085861
0.0015445 0.0025654 0.0018276 -0.0014303
-0.018326 -0.018968 0.038781 0.37055 -0.021262 0.005262 -0.00018703 0.0020501
0.0019877 0.00074614 0.0013121 0.00075767
0.00054531 0.0044303 -0.021258 0.0053488 0.33827 0.11182 0.0010792 -0.0010039
0.0007141 -0.00062497 0.00011644 0.00035524
-0.0017368 -0.00087855 -0.00015467 0.0020959 0.0010768 -0.0010133 0.14806 0.23194
-0.011445 -0.017388 0.00024632 0.0012568
0.00159 0.0025391 0.0019888 0.00070564 0.00069018 -0.0006161 -0.011492 -0.017448
0.074193 0.23523 -0.0054192 -0.01426
0.0017757 -0.001454 0.0013186 0.00073527 6.9088e-05 0.00033249 0.00032949 0.0013217
-0.0054083 -0.014173 0.065394 0.31494
1400000000 0.24551 0.19658 -0.024336 -0.0071355 0.0049987 0.0032372 -0.002178 0.00064573
0.002432 0.00096987 0.00035041 -0.0013184
-0.024286 -0.007134 0.075697 0.35821 -0.014183 0.013113 0.0014579 0.0014477
0.0012856 -0.00082241 0.0011532 0.00016653
0.0050167 0.0031863 -0.014126 0.013201 0.35063 0.058551 5.8579e-05 -0.0016219
0.00015773 -0.00036486 0.00036752 0.00031505
-0.0021705 0.00068946 0.0014531 0.0014135 8.4777e-05 -0.0015979 0.1753 0.20209
-0.017348 -0.0093991 -0.00089322 0.00050019
0.0024877 0.00099532 0.0013091 -0.00078335 0.00016002 -0.00036009 -0.017369 -0.0093538
0.10669 0.22893 -0.011423 -0.0082751
0.00041134 -0.0013436 0.0011719 0.00011093 0.00044648 0.00027281 -0.00098595 0.00049541
-0.011415 -0.0083256 0.11014 0.30564
1460000000 0.26946 0.15286 -0.020647 0.0057517 0.0054656 -0.0016848 -0.0016486 0.0017434
0.0021384 -0.00049388 -0.00025714 -0.00075493
-0.020618 0.0057148 0.1105 0.33637 -0.0050028 0.01555 0.0018321 0.00018175
0.00088076 -0.0014921 0.0012187 -0.00058385
0.0054704 -0.001695 -0.004952 0.015593 0.35738 0.0040281 -0.0012904 -0.0013809
0.00010139 -0.00028469 0.00072849 -0.00033081
-0.0016796 0.0016945 0.0018655 0.00018113 -0.0012953 -0.001376 0.20047 0.17271
-0.018023 -0.0013303 -0.00028842 0.0026928
0.0021536 -0.0005478 0.00085454 -0.0015029 8.8632e-05 -0.00034412 -0.017996 -0.0012893
0.13692 0.213 -0.012961 -0.0017941
-0.00028245 -0.00078244 0.0011931 -0.00053198 0.00079582 -0.000298 -0.00027878 0.0026443
-0.01299 -0.0018317 0.14428 0.28562
1520000000 0.28125 0.11039 -0.014559 0.011091 0.0033087 -0.0040258 0.00012879 0.0027835
0.0021368 -0.0018254 -0.0010773 -0.00022285
-0.014544 0.01107 0.14348 0.3218 0.0025119 0.012543 0.0017986 -0.00084
-6.0456e-05 -0.0010609 0.00033149 -0.00098971
0.003299 -0.0040708 0.0025881 0.012547 0.34957 -0.053636 -0.0011243 -0.00036661
0.00052521 -0.00092138 0.00025312 -0.00018102
0.00016771 0.0027861 0.0017886 -0.00086042 -0.0011122 -0.00036699 0.2213 0.13418
-0.016053 0.0051072 0.0021674 0.0021516
0.0020832 -0.0018392 -6.7358e-05 -0.0010579 0.00052895 -0.00087471 -0.016108 0.0051652
0.16419 0.19693 -0.012081 0.0027774
-0.0010866 -0.00023527 0.00037914 -0.0010141 0.00022397 -0.00020724 0.0022218 0.0021144
-0.012037 0.0027847 0.1769 0.26625
1580000000 0.29058 0.065488 -0.0074689 0.014148 -0.00090817 -0.0047276 0.001711 0.0020143
-0.00018101 -0.0022106 -0.00016569 0.00044226
-0.007458 0.014135 0.17035 0.29843 0.0056743 0.0073613 0.00054191 -0.0017694
-0.00068122 -0.0010124 -0.00021277 -0.00075211
-0.00092066 -0.0047244 0.00572 0.0073521 0.32844 -0.10966 -0.0016565 0.00060526
-0.00046443 -0.0011533 0.00031369 -0.00067318
0.0017332 0.0020212 0.00054911 -0.001782 -0.0016675 0.0006028 0.23329 0.096707
-0.011426 0.0099425 0.0027458 0.00064229
-0.0001597 -0.0022434 -0.00067447 -0.0010039 -0.00049228 -0.0011751 -0.01137 0.0099815
0.18768 0.17835 -0.0087985 0.0086203
-0.000202 0.00039967 -0.00027177 -0.00079746 0.00026879 -0.00059922 0.0027498 0.00055379
-0.0088309 0.0086059 0.21005 0.24141
1640000000 0.29322 0.024119 -0.00046986 0.012438 -0.0027649 -0.0024843 0.0029734 0.00087694
-0.00067779 -0.0016955 -0.00035661 0.00038731
-0.00047761 0.01244 0.20074 0.27377 0.0057837 0.0024282 -0.00075387 -0.0019281
-0.00097828 -0.00026544 -0.00046648 -0.00068618
-0.0027892 -0.0024722 0.0058008 0.0023998 0.29958 -0.15958 -0.00059615 0.0015315
-0.0010947 -0.00074636 -0.00019065 -0.00059411
0.002974 0.00085495 -0.000781 -0.0019207 -0.00060495 0.0015265 0.24463 0.049188
-0.006413 0.01083 0.0026701 -0.0012995
-0.0006877 -0.0016847 -0.0010071 -0.00024485 -0.001092 -0.00075047 -0.0064235 0.010843
0.20984 0.1518 -0.0037745 0.010188
-0.00032662 0.00045654 -0.00044133 -0.00069194 -0.0001859 -0.00058708 0.0028137 -0.0012761
-0.0037643 0.010201 0.23706 0.2107
1700000000 0.28525 -0.020105 0.0028537 0.0091486 -0.0034704 9.4096e-05 0.0031563 -0.0015093
-0.0021622 -0.00065383 0.00066954 0.00035142
0.0028532 0.0091513 0.21787 0.24363 0.003302 -0.00036298 -0.0016603 -0.00058453
-0.0006995 0.00011745 -0.00083223 -0.00044274
-0.003462 0.00011723 0.0033057 -0.00037783 0.2548 -0.19817 0.00049015 0.0015996
-0.0020187 8.6118e-05 -0.00038664 -0.00079471
0.0031439 -0.0015393 -0.0016607 -0.00056789 0.0004689 0.0016074 0.24057 0.0023523
-0.003019 0.010543 0.0014968 -0.0022537
-0.0021826 -0.00064798 -0.00068437 0.00013549 -0.0020043 7e-05 -0.0029526 0.010582
0.22626 0.13029 0.0011831 0.0099453
0.00065004 0.00036976 -0.0008441 -0.00040825 -0.00045858 -0.00083434 0.0014707 -0.0023378
0.0011447 0.0099432 0.25406 0.17743
1760000000 0.27488 -0.067925 0.0048562 0.0054991 -0.0021894 0.001093 0.0010692 -0.0036492
-0.0014757 0.00069663 0.0002292 -0.0005475
0.0048588 0.0054834 0.24574 0.20521 0.00068768 -0.0018234 -0.001295 0.00030916
-0.0008297 0.00086151 -0.00051922 0.00031073
-0.0022089 0.0010916 0.0006643 -0.0018377 0.2065 -0.23025 0.0012968 0.0010437
-0.00094799 0.0015792 -0.0013279 -0.00049785
0.0010386 -0.0036868 -0.0012878 0.00031004 0.001312 0.0010576 0.23415 -0.046065
0.00010317 0.009269 -0.00017143 -0.0026568
-0.0015297 0.00069429 -0.00085282 0.0008758 -0.00094543 0.0016086 4.6573e-05 0.0092606
0.24037 0.09629 0.0048325 0.0067022
0.00017395 -0.0005059 -0.00048914 0.00033946 -0.0013245 -0.00050017 -0.000218 -0.0025808
0.0048628 0.0067276 0.26824 0.14106
1820000000 0.25041 -0.10548 0.0045896 0.00191 2.8936e-05 0.0022801 -0.0012621 -0.0030639
-0.0011654 0.0012421 -5.1923e-05 -7.784e-05
0.0045819 0.0018981 0.25623 0.17521 -0.0015461 -0.00013062 -0.0011813 0.0010781
4.0401e-05 0.0011208 -0.00057263 0.0003763
5.8721e-05 0.0022511 -0.0015402 -0.00012739 0.15496 -0.24501 0.0017645 0.00025412
0.00010433 0.0024169 -0.0015592 0.00033712
-0.0012745 -0.0030458 -0.0011832 0.0010826 0.0017788 0.00026312 0.20633 -0.092702
0.0017319 0.0076289 -0.0017206 -0.001835
-0.0011601 0.0012482 4.3316e-05 0.001105 0.00011288 0.0023734 0.001766 0.0076319
0.25564 0.066168 0.0056877 0.0029598
-0.00015634 -7.958e-05 -0.00060258 0.00038189 -0.0016338 0.00035363 -0.0017518 -0.0018673
0.0056375 0.0029326 0.2716 0.10465
1880000000 0.2158 -0.14474 0.0020243 -0.00020269 -0.00066493 0.002261 -0.003179 -0.0020583
2.9407e-05 0.0018842 0.0001621 -0.00071208
0.0020265 -0.00020067 0.26183 0.13015 -0.0034401 0.0023247 -0.00018456 0.0016493
0.00057849 0.0010241 5.896e-05 0.00081256
-0.00064875 0.0022698 -0.0034252 0.002343 0.10313 -0.25193 0.0015105 -0.0012746
0.0017228 0.0015172 -0.00084623 0.0014847
-0.0031712 -0.0020354 -0.00015418 0.0016458 0.0015116 -0.0012319 0.16908 -0.13272
0.0026702 0.0052945 -0.0022734 6.5222e-05
-1.3271e-05 0.0018381 0.00056238 0.0010143 0.0017187 0.001533 0.0026721 0.0052772
0.25859 0.035783 0.0055359 0.0004666
0.00023781 -0.00073588 9.5022e-05 0.00078291 -0.00086479 0.0014767 -0.0023339 5.4001e-05
0.0055677 0.00049385 0.27282 0.071761
1940000000 0.17799 -0.17142 -0.00043317 -0.0015436 0.0014702 0.0020135 -0.0037336 0.00054408
0.0014463 0.0009761 -0.00067561 -0.00059033
-0.00043582 -0.0015489 0.26466 0.097739 -0.0016295 0.0050445 0.00094372 0.0011487
0.0015341 0.00034967 0.00075083 0.00020034
0.0014895 0.0020228 -0.0016001 0.0050659 0.060372 -0.24402 -3.8415e-05 -0.0020988
0.0021525 4.0478e-05 0.00021177 0.0016151
-0.0037425 0.00059055 0.00098112 0.0011656 -3.2049e-05 -0.0020981 0.11937 -0.16653
0.0021047 0.0037615 -0.0016182 0.0010889
0.0015404 0.0009532 0.0015808 0.00032594 0.0020808 5.0837e-05 0.0020702 0.0037429
0.26169 -0.0029458 0.0037009 -0.0032593
-0.00069491 -0.00056243 0.00074632 0.00022138 0.00024728 0.0015888 -0.0014403 0.00096926
0.003736 -0.0032785 0.26388 0.034193
2000000000 0.13122 -0.18609 -0.0040376 0.00063921 0.0029267 0.0015853 -0.0022364 0.0037476
0.0011958 9.8715e-05 -0.00059165 0.00054668
-0.0040033 0.00062796 0.25115 0.061826 -0.00066074 0.0069063 0.0013689 0.00034669
0.0010707 -0.0010203 0.00028342 0.00023974
0.0029509 0.0015627 -0.00062696 0.0069214 0.01743 -0.22974 -0.0014485 -0.00096497
0.001778 -0.001205 0.0015741 0.00154
-0.0021568 0.0038151 0.0013929 0.00030378 -0.0014217 -0.0010597 0.065683 -0.17948
0.00057762 0.0026564 -0.00059723 0.0020393
0.0011961 0.00011481 0.0010593 -0.00102 0.0017758 -0.0012418 0.00065377 0.0027499
0.25563 -0.03613 -8.125e-05 -0.0040185
