!Keysight Technologies,M9804A,MY58100912,A.14.10.03
!Date: Thursday, April 27, 2023 10:28:33
!Correction: S11(C  6-Port  ) 
!S12(C  6-Port  ) 
!S13(C  6-Port  ) 
!S14(C  6-Port  ) 
!S15(C  6-Port  ) 
!S16(C  6-Port  ) 
!S21(C  6-Port  ) 
!S22(C  6-Port  ) 
!S23(C  6-Port  ) 
!S24(C  6-Port  ) 
!S25(C  6-Port  ) 
!S26(C  6-Port  ) 
!S31(C  6-Port  ) 
!S32(C  6-Port  ) 
!S33(C  6-Port  ) 
!S34(C  6-Port  ) 
!S35(C  6-Port  ) 
!S36(C  6-Port  ) 
!S41(C  6-Port  ) 
!S42(C  6-Port  ) 
!S43(C  6-Port  ) 
!S44(C  6-Port  ) 
!S45(C  6-Port  ) 
!S46(C  6-Port  ) 
!S51(C  6-Port  ) 
!S52(C  6-Port  ) 
!S53(C  6-Port  ) 
!S54(C  6-Port  ) 
!S55(C  6-Port  ) 
!S56(C  6-Port  ) 
!S61(C  6-Port  ) 
!S62(C  6-Port  ) 
!S63(C  6-Port  ) 
!S64(C  6-Port  ) 
!S65(C  6-Port  ) 
!S66(C  6-Port  ) 
!S6P File: Measurement: :
# Hz S  RI   R 50
500000000 -0.32903 -0.053806 -0.011612 -0.0011772 -0.0084614 0.012974 -0.0034921 0.012513
0.011429 0.005079 -0.0042713 0.0085185
-0.011806 -0.0015891 -0.40994 -0.06992 0.0064661 -0.010472 0.0010127 0.012055
0.0080232 0.0029313 0.00099325 0.013465
-0.0085515 0.012662 0.0066966 -0.010472 -0.25754 0.19654 0.0063013 0.003418
-0.00065313 0.0084579 0.0002712 0.011244
-0.0034939 0.012011 0.00086334 0.012593 0.006359 0.0032314 -0.32881 0.045539
-0.020761 -0.0059614 0.016321 0.02854
0.011197 0.0050841 0.0081566 0.0029066 -0.00083407 0.008564 -0.021077 -0.0060228
-0.25688 -0.15926 -0.028644 0.0056244
-0.0039594 0.0080951 0.00055744 0.013821 0.00079411 0.011335 0.015727 0.02902
-0.02837 0.0056393 -0.25585 -0.14225
560000000 -0.31335 0.10898 -0.022568 -0.064921 0.00037681 0.013507 0.0040495 0.011318
0.010409 0.004444 0.010226 0.0091777
-0.02315 -0.064712 -0.3724 0.094994 -0.041534 -0.038127 0.014296 0.0028279
-0.013317 -0.0034873 0.004674 -0.00023238
-9.9591e-05 0.013235 -0.041513 -0.037749 -0.18001 0.24655 0.00062268 -0.0038764
0.017712 0.0042903 0.0080383 -0.0057813
0.0047938 0.01164 0.013251 0.0025263 0.00041716 -0.0045456 -0.30554 0.1364
0.0026078 -0.021529 0.0049411 -0.021313
0.0096246 0.0041643 -0.011714 -0.002226 0.017273 0.0051042 0.0021418 -0.021888
-0.30737 0.018371 0.0059436 -0.048104
0.010685 0.0092843 0.0048518 -0.00048064 0.0079324 -0.0064326 0.0052502 -0.021643
0.0054703 -0.048034 -0.32695 0.0049556
620000000 -0.27257 0.087754 -0.024219 0.010097 0.0040378 0.0089786 0.0079429 -0.0045713
0.012934 -0.0010693 0.00029038 -0.0027359
-0.02416 0.01018 -0.39999 0.041264 -0.019211 0.0015801 -0.001448 -0.0021248
0.011882 -0.0055338 0.000954 -0.003133
0.0041829 0.009178 -0.019245 0.0017053 -0.15234 0.25359 -0.00059882 -0.004678
-0.0031965 -0.0030399 0.0084899 -0.0026139
0.0083899 -0.0046268 -0.0010487 -0.0023116 -0.00049623 -0.0049127 -0.2632 0.14608
-0.040072 -0.018394 0.012599 0.029562
0.011681 -0.00037577 0.011736 -0.0050128 -0.0031187 -0.0027008 -0.040407 -0.01834
-0.23181 -0.016399 -0.040646 0.013955
0.00094343 -0.0019074 0.0016511 -0.0028917 0.0092711 -0.0026327 0.012253 0.029461
-0.041007 0.01386 -0.24255 -0.032468
680000000 -0.23782 0.17968 -0.026376 -0.012965 0.0051358 0.0051485 0.0012099 -0.0066253
-0.0024336 -0.011682 0.0061038 -0.0068874
-0.026373 -0.013171 -0.38906 0.14428 -0.0317 -0.0005 -0.0015112 -0.00063602
-0.0020215 -0.0098073 -0.00043574 -0.0018949
0.0051688 0.0051928 -0.031785 -0.00045881 -0.10409 0.27669 -0.00077739 -0.00067917
-0.0014801 -0.00022728 -0.002386 -0.0087679
0.0016709 -0.0068374 -0.0012913 -0.00058689 -0.00078826 -0.00061552 -0.21932 0.19998
-0.02546 -0.0056254 -0.0081751 -0.011208
-0.0023006 -0.011812 -0.0020945 -0.0098541 -0.0012941 -7.3131e-05 -0.025283 -0.0056481
-0.27044 0.083884 -0.0075454 -0.0047828
0.0054999 -0.006201 -0.00056393 -0.0014421 -0.002294 -0.0087625 -0.0076396 -0.012073
-0.007546 -0.0049844 -0.2589 0.073763
740000000 -0.19032 0.17249 -0.039361 0.027735 0.01348 -0.0041823 0.00041959 -0.0043035
-0.0048884 -0.0014988 -0.0060468 0.0022119
-0.03942 0.02761 -0.33413 0.16277 -0.035396 0.034852 -7.0296e-05 -0.0066497
-0.012363 0.0070926 -0.0013692 -0.0063086
0.013253 -0.00393 -0.035339 0.035022 -0.070819 0.27554 -0.0023614 0.0028513
-0.0022338 -0.0047561 -0.0017125 0.00075305
0.00017693 -0.0044266 -0.00024533 -0.0066269 -0.0021152 0.0030336 -0.20144 0.20579
-0.040677 -0.0044023 0.02271 0.016796
-0.0049717 -0.00081331 -0.012382 0.0071135 -0.0026918 -0.0046821 -0.04084 -0.0047049
-0.17685 0.10315 -0.039126 0.003996
-0.0064873 0.0017065 -0.0019316 -0.0063596 -0.0012436 0.00089728 0.022515 0.016974
-0.039205 0.0041612 -0.25063 0.078967
800000000 -0.16213 0.21749 -0.021295 0.016596 0.0056638 -0.010209 -0.0038388 -0.0023301
-0.0045084 0.0016398 0.0043123 0.00059441
-0.021256 0.016635 -0.34155 0.2333 -0.0074716 0.034155 -0.0023565 0.0020836
-0.0010027 0.0023798 0.00076273 0.0053356
0.0056655 -0.010213 -0.0074589 0.034125 -0.032855 0.30078 0.00068893 0.0015496
0.00016711 0.0035318 -0.0015342 0.00064641
-0.0039266 -0.0022917 -0.0022758 0.0018631 0.0006093 0.0016182 -0.17203 0.23464
-0.027071 0.016018 0.015299 -0.010376
-0.0043573 0.001976 -0.0011789 0.0025649 0.00020075 0.0037179 -0.027168 0.016148
-0.20908 0.1332 -0.017234 0.021417
0.0044161 0.00071983 0.0011498 0.0054952 -0.0015631 0.00063333 0.015295 -0.01041
-0.01717 0.021544 -0.24799 0.13091
860000000 -0.12597 0.23771 -0.016604 0.030403 -0.0030481 -0.010067 -0.0017378 0.0001062
0.003897 0.0049286 -0.0039128 -0.0023783
-0.016923 0.030213 -0.29287 0.2772 0.0083112 0.033687 -1.92e-05 0.0020325
0.0038553 0.0012571 0.0033066 -3.947e-05
-0.0031115 -0.010018 0.0084123 0.033768 0.015804 0.31041 -0.00040448 -0.00015668
0.0026024 -0.0012511 0.0015316 0.00378
-0.0019165 2.6346e-05 0.00011919 0.002147 -0.00036912 -0.00011962 -0.13312 0.24534
-0.015988 0.019912 -0.0066246 -0.0095812
0.003645 0.0050697 0.0038884 0.0010318 0.0025164 -0.001386 -0.015973 0.020047
-0.15297 0.1783 -0.021403 0.018088
-0.0033743 -0.0025884 0.003441 0.0003458 0.0014542 0.0038171 -0.0067653 -0.0097309
-0.021601 0.018222 -0.19612 0.17781
920000000 -0.10341 0.2598 0.0056498 0.03813 -0.0091024 -0.0048282 -0.0018733 0.0013424
0.00087179 0.001625 0.0030275 -0.0015478
0.0056346 0.038139 -0.26634 0.29735 0.028313 0.021878 0.0013548 0.0010077
0.0070659 -9.4912e-05 0.0042681 -0.003019
-0.0091241 -0.0048325 0.02844 0.021746 0.061383 0.31191 0.001916 -6.4854e-05
0.00097717 -0.00028661 0.00087489 -0.0017566
-0.0018447 0.0012791 0.001503 0.001035 0.0018851 -4.1049e-05 -0.10953 0.26114
-0.0077329 0.030867 0.004493 -0.0064292
0.0011531 0.0018522 0.0072535 -0.00010584 0.00099077 -0.00025317 -0.0075973 0.030956
-0.13923 0.18476 -0.00073838 0.026769
0.0032398 -0.0017062 0.0041381 -0.0031281 0.00086077 -0.0018201 0.0043632 -0.0063407
-0.00076544 0.026711 -0.20675 0.19035
980000000 -0.057471 0.28176 0.017379 0.029189 -0.0092306 0.0043109 0.0014221 0.0032865
0.0037106 -0.0015682 -0.0034655 -0.0029418
0.017377 0.029241 -0.21464 0.33471 0.032986 0.0043776 0.0018967 1.6783e-05
0.001868 -0.0059398 -0.00041214 -0.0028179
-0.0092279 0.0043188 0.033078 0.0042721 0.10797 0.30776 0.00054643 -0.0011944
0.00038898 -0.0018613 0.0013155 -0.0003784
0.0013356 0.00328 0.0019043 6.4504e-05 0.00057454 -0.001209 -0.070066 0.27205
0.010769 0.028561 -0.0088384 -0.0082219
0.0037224 -0.0013166 0.0017055 -0.0057078 0.00038366 -0.0018676 0.010947 0.028462
-0.10532 0.21011 0.0073554 0.019724
-0.0032665 -0.0027402 -0.00059918 -0.0025185 0.0012703 -0.00029217 -0.008692 -0.0083053
0.0073928 0.019748 -0.16519 0.23937
1040000000 -0.016102 0.28958 0.033021 0.018167 -0.0013685 0.007065 0.0021942 0.00065554
0.00030027 -0.003727 -0.00017733 -0.0016714
0.032841 0.018057 -0.1793 0.3474 0.029213 -0.015078 0.0016138 -0.001791
-0.0021979 -0.0028345 -0.0013684 -0.0029635
-0.001363 0.0070919 0.02922 -0.015204 0.15529 0.29386 -0.00053376 -0.0014986
-0.0016427 -0.00097463 -0.00090967 -0.00097111
0.0021499 0.0006584 0.001654 -0.0017627 -0.00053187 -0.0015097 -0.04214 0.28056
0.02142 0.016273 -0.0014981 0.00076968
0.00022695 -0.0036112 -0.0022686 -0.0028151 -0.0016992 -0.00097475 0.021502 0.01628
-0.072579 0.21488 0.015029 0.016751
-0.00015956 -0.0016159 -0.0012877 -0.0030829 -0.00088928 -0.00094135 -0.0014939 0.00076737
0.015049 0.016742 -0.14393 0.26005
1100000000 0.027324 0.29992 0.035917 -0.0043189 0.0029575 0.0038987 0.0021883 -0.00060638
-0.0023068 -0.0026336 -0.0040733 -0.00011995
0.035821 -0.0043408 -0.13748 0.36732 0.014844 -0.028036 -4.8841e-05 -0.0018361
-0.0036963 -0.00079869 -0.0037442 -0.00070734
0.0029696 0.0038971 0.0148 -0.028144 0.20123 0.27451 -0.0018702 0.00018469
-0.0017602 0.00068321 -0.0011499 -0.00021011
0.0021958 -0.0006425 -6.104e-05 -0.0018506 -0.0018783 0.00016659 -0.0022971 0.28533
0.025352 0.002204 -0.0024984 -0.0008712
-0.0022901 -0.0026151 -0.0037912 -0.00082373 -0.0017278 0.00065428 0.025303 0.002176
-0.052112 0.22584 0.019642 0.0066708
-0.0039798 -0.00012274 -0.0037242 -0.00064966 -0.0011618 -0.0001479 -0.0024087 -0.00086927
0.019603 0.0067078 -0.10004 0.29305
1160000000 0.079305 0.29664 0.023755 -0.021048 0.0027091 -0.00049047 8.627e-05 -0.0019551
-0.0039363 -0.00073396 -0.001192 0.0044101
0.023775 -0.021016 -0.092459 0.37238 -0.0043092 -0.028827 -0.0015888 -0.0016441
-0.0029072 0.002593 -0.0017215 0.0020413
0.0026654 -0.00052187 -0.0044084 -0.028846 0.24587 0.2438 -0.00084814 0.0016848
-0.00042074 0.0019233 -0.00063547 0.0004697
8.8184e-05 -0.001954 -0.001559 -0.0015493 -0.0008225 0.001714 0.038267 0.28177
0.020688 -0.012881 -0.0040866 0.0040759
-0.0039774 -0.00071125 -0.0029057 0.0026414 -0.00042779 0.0019013 0.020723 -0.012925
-0.017265 0.23302 0.018829 -0.0024594
-0.0011795 0.004345 -0.0016954 0.0021075 -0.00073374 0.00056559 -0.0041583 0.0040635
0.018892 -0.002558 -0.051347 0.29631
1220000000 0.1224 0.28655 0.010234 -0.03019 -0.0015743 -0.00087138 0.00033034 -0.0008527
-0.002526 0.0021683 0.0012725 0.0020272
0.010232 -0.030182 -0.04948 0.38596 -0.017285 -0.020904 -0.002572 0.0004135
-8.6008e-05 0.0032781 -0.00081238 0.0020967
-0.0016036 -0.00085147 -0.017377 -0.020819 0.28451 0.20411 0.00081212 0.001784
0.00068514 0.0011562 0.00038324 0.00060783
0.000343 -0.00087688 -0.0025948 0.00038952 0.00080516 0.001794 0.077374 0.27195
0.0093878 -0.019351 0.0010689 0.0011623
-0.002508 0.0022207 -2.5659e-05 0.0032714 0.00070506 0.0011685 0.0093269 -0.019369
0.0071274 0.23822 0.012523 -0.014322
0.0013355 0.0021142 -0.00077947 0.0021051 0.00043497 0.00061371 0.001121 0.0011673
0.012506 -0.014287 -0.02178 0.31421
1280000000 0.17289 0.26757 -0.0086046 -0.028554 -0.001815 0.0025043 -0.00078705 -0.0022156
-0.00081313 0.0030833 0.002539 0.0015756
-0.0085598 -0.028509 -0.0028137 0.37877 -0.024174 -0.0078644 -0.001159 0.0014746
0.0018652 0.0019475 0.00071159 0.002159
-0.0017869 0.0024981 -0.024252 -0.0077716 0.31519 0.16131 0.0016527 0.00013092
0.0011319 0.00021946 0.00045339 0.00021428
-0.00082435 -0.0021915 -0.0011563 0.0014917 0.0015971 0.00012452 0.11432 0.25531
-0.0010986 -0.020969 -0.0012292 0.00060495
-0.00090093 0.0030734 0.0018807 0.0019477 0.0011192 0.00025196 -0.0011255 -0.020987
0.042799 0.24077 0.0018096 -0.01589
0.0026325 0.0015623 0.00078433 0.002121 0.00047387 0.00013419 -0.0012837 0.00060435
0.0018653 -0.015888 0.026235 0.31781
1340000000 0.21089 0.23414 -0.017976 -0.018407 0.00074752 0.0046285 -0.0018021 -0.0010005
0.0015218 0.0026168 0.0019394 -0.0015675
-0.017915 -0.018426 0.037026 0.37096 -0.021171 0.0049956 -0.00024402 0.0021806
0.0021935 0.00078687 0.0012424 0.00074651
0.00074468 0.0046114 -0.02117 0.0051031 0.33798 0.11274 0.0012345 -0.00096193
0.00061135 -0.00067009 4.1106e-05 0.00019897
-0.00178 -0.00097761 -0.00023769 0.0022004 0.001257 -0.00098468 0.14696 0.23292
-0.010661 -0.01716 0.00017769 0.001452
0.0015297 0.0025776 0.002189 0.00081637 0.00060601 -0.00064493 -0.010663 -0.017177
0.072823 0.23334 -0.0054624 -0.014083
0.0019986 -0.0014649 0.0012245 0.00070945 7.7519e-05 0.00017274 0.00017515 0.0014717
-0.005508 -0.014095 0.064904 0.31395
1400000000 0.24443 0.1975 -0.023647 -0.0068559 0.0052989 0.00324 -0.0022997 0.00055342
0.0024399 0.00099316 0.00049927 -0.0014721
-0.023631 -0.0068474 0.074255 0.35939 -0.014312 0.012961 0.0014798 0.0016223
0.0014258 -0.00088179 0.0012046 0.00019021
0.0053215 0.0032584 -0.014282 0.013045 0.35069 0.059327 0.00014605 -0.0016789
0.00019102 -0.00036331 0.00036419 0.00022934
-0.0023047 0.00054019 0.0015153 0.0016277 0.0001718 -0.0016906 0.17474 0.20347
-0.016786 -0.0096233 -0.00096648 0.00074491
0.0024227 0.00099608 0.0014247 -0.0008959 0.00014847 -0.00033786 -0.016826 -0.009592
0.10444 0.22761 -0.011546 -0.0082325
0.00046855 -0.0014159 0.0012596 0.00017338 0.00041305 0.00022689 -0.00092648 0.00073938
-0.011513 -0.0082312 0.10919 0.30507
1460000000 0.26909 0.15427 -0.020181 0.0056746 0.0056477 -0.0017947 -0.0017073 0.0017988
0.002221 -0.00037633 -0.00018145 -0.00095498
-0.020098 0.0056397 0.10977 0.33799 -0.005166 0.015538 0.0019725 0.00015217
0.00091163 -0.0015955 0.0012496 -0.00051289
0.0056515 -0.0018878 -0.0050908 0.01556 0.35771 0.004703 -0.0012862 -0.0014946
0.00011272 -0.00029456 0.0007425 -0.00026459
-0.0017144 0.0018644 0.0019449 0.00021456 -0.0012795 -0.0014417 0.20063 0.17405
-0.017746 -0.0019246 -0.00023041 0.0028939
0.0022535 -0.00044319 0.00090039 -0.0016185 0.00012306 -0.00030183 -0.017738 -0.0018966
0.13435 0.21265 -0.01292 -0.0018273
-0.00022553 -0.00095952 0.0012103 -0.00057598 0.00064917 -0.00025896 -0.00026777 0.0029453
-0.012935 -0.0018449 0.1432 0.28536
1520000000 0.28173 0.11167 -0.014112 0.01069 0.0034867 -0.0041921 9.4949e-05 0.0028292
0.0021825 -0.0018529 -0.001168 -0.00020425
-0.014123 0.010678 0.14345 0.32357 0.0024821 0.012637 0.0018597 -0.00097583
-0.00011019 -0.0012092 0.00039291 -0.00097769
0.0034594 -0.0041924 0.0025319 0.012644 0.35025 -0.053219 -0.0012571 -0.00039891
0.00055391 -0.00089334 0.00015862 -0.00017807
0.00011404 0.0028145 0.0018492 -0.00098409 -0.0012548 -0.000438 0.22192 0.13532
-0.016257 0.004433 0.0022426 0.0022681
0.0021984 -0.0018458 -0.00011754 -0.0011947 0.00053917 -0.00092846 -0.01626 0.0044554
0.16173 0.19767 -0.012095 0.0028676
-0.0011299 -0.00024416 0.00042122 -0.000959 0.00013708 -0.00014643 0.0022496 0.0022693
-0.012101 0.0028546 0.17595 0.26613
1580000000 0.29178 0.066417 -0.0073411 0.013609 -0.0010055 -0.0050373 0.0017376 0.0020583
-4.8201e-05 -0.0022447 -0.00027652 0.0003443
-0.0073283 0.01363 0.17105 0.29991 0.0057001 0.0074119 0.00050606 -0.0018811
-0.0007188 -0.001041 -0.00020475 -0.00078765
-0.00099817 -0.0050336 0.00575 0.0073822 0.32914 -0.10974 -0.0017532 0.00069663
-0.00045577 -0.0012074 0.00024941 -0.00057486
0.001751 0.0020371 0.00049285 -0.0018463 -0.0017414 0.00069727 0.23424 0.097428
-0.012094 0.009575 0.0030307 0.00069941
-2.4768e-05 -0.0022728 -0.00073548 -0.0010241 -0.0004796 -0.0012671 -0.012055 0.0096115
0.18562 0.18002 -0.009009 0.0085095
-0.00034451 0.00033944 -0.00021755 -0.00078452 0.00018774 -0.00065314 0.0029614 0.0006683
-0.008996 0.008509 0.20951 0.24205
1640000000 0.29447 0.024101 -0.00064922 0.012018 -0.0029233 -0.0025254 0.0030675 0.0009471
-0.00073099 -0.0017905 -0.00035082 0.0005416
-0.00066333 0.011978 0.20192 0.27491 0.0059343 0.0024955 -0.0008097 -0.0019354
-0.0010744 -0.00026358 -0.00041892 -0.00074593
-0.0029566 -0.0025331 0.0059376 0.0024436 0.30027 -0.16019 -0.00065339 0.0016554
-0.00117 -0.00085813 -0.0001743 -0.00046975
0.0030493 0.00095642 -0.00081216 -0.0019443 -0.0006746 0.0016331 0.24594 0.049345
-0.007144 0.011001 0.0030042 -0.001281
-0.00077035 -0.0017943 -0.0010419 -0.00025675 -0.0011314 -0.00086692 -0.0071288 0.011013
0.20863 0.15388 -0.0039015 0.010312
-0.00032393 0.00052896 -0.00041297 -0.00073974 -0.00011735 -0.00045434 0.0030308 -0.001266
-0.0039386 0.010337 0.23621 0.21105
1700000000 0.28629 -0.020764 0.0026079 0.0089171 -0.0034835 0.00019861 0.0031446 -0.0015436
-0.0022373 -0.00075441 0.00068353 0.00039814
0.0026055 0.0088998 0.21952 0.24417 0.0033671 -0.00032351 -0.0017211 -0.00053829
-0.00075461 0.0001327 -0.00089064 -0.00053704
-0.003461 0.0002042 0.0033663 -0.00034262 0.25451 -0.19874 0.00051425 0.0017125
-0.0021119 1.0391e-05 -0.00040251 -0.00075163
0.0031511 -0.0015715 -0.0017282 -0.0004929 0.00051569 0.0017194 0.2419 0.0019082
-0.0034668 0.011269 0.0016515 -0.0024759
-0.0022623 -0.0007508 -0.00077519 0.0001329 -0.0020666 8.5402e-06 -0.0034535 0.011268
0.22586 0.13274 0.0010064 0.010009
0.00069619 0.00043408 -0.00089269 -0.00055254 -0.00042095 -0.00078763 0.0016243 -0.0025191
0.0010016 0.0099977 0.25316 0.17822
1760000000 0.27542 -0.068851 0.0046165 0.0054199 -0.002274 0.0010254 0.0011261 -0.0037778
-0.0016149 0.00062637 0.00023013 -0.00053804
0.004625 0.0054119 0.24735 0.20502 0.00070423 -0.0018789 -0.0012746 0.00032525
-0.00093195 0.00091813 -0.00060835 0.00036849
-0.0022732 0.001034 0.00070076 -0.0019118 0.20572 -0.23064 0.0014066 0.0011768
-0.001103 0.0017728 -0.001337 -0.00059664
0.0010901 -0.0038118 -0.001281 0.00033331 0.00138 0.0012145 0.23494 -0.047325
9.8322e-05 0.0099269 -0.00019411 -0.002774
-0.0016113 0.00062724 -0.00095239 0.0009239 -0.0011323 0.0017927 0.00011027 0.0099308
0.24091 0.098533 0.0047647 0.0072716
0.00020716 -0.0005823 -0.00059613 0.0003587 -0.0012962 -0.00065858 -0.0001621 -0.0027055
0.0047349 0.0072539 0.26764 0.14139
1820000000 0.25053 -0.10665 0.0043758 0.0018607 -0.00011774 0.0021531 -0.0013604 -0.0030738
-0.0012131 0.0012855 -0.00022513 -0.00012819
0.004372 0.0018715 0.25773 0.17435 -0.0013473 -0.00036307 -0.0012144 0.0010676
6.8023e-05 0.0011606 -0.00078225 0.00040842
-0.0001391 0.0021542 -0.0013522 -0.00034304 0.15528 -0.24529 0.0017535 3.8375e-05
0.00017908 0.002489 -0.0016835 0.00040982
-0.0013153 -0.0030396 -0.0012084 0.0010572 0.0017245 7.2317e-05 0.20656 -0.094265
0.0023459 0.0080485 -0.0017619 -0.0020278
-0.0012234 0.0013482 6.9875e-05 0.0011631 0.00019415 0.0024649 0.002346 0.0080207
0.25708 0.067924 0.0057096 0.0031828
-0.00022251 -5.2734e-05 -0.00077974 0.0004697 -0.001736 0.00036913 -0.0017996 -0.0020323
0.0056965 0.0031852 0.27099 0.10529
1880000000 0.21513 -0.14572 0.0017563 -0.00021583 -0.00073533 0.0024781 -0.0031498 -0.0019907
-8.3873e-05 0.0018932 0.00025455 -0.00051911
0.0017656 -0.00023679 0.26269 0.12866 -0.0035299 0.0022106 -0.00013374 0.0016589
0.00060167 0.0011141 5.0832e-05 0.0010643
-0.00068259 0.0024729 -0.0035314 0.0021893 0.1029 -0.25178 0.001468 -0.0012266
0.0018532 0.0016523 -0.00088935 0.0015467
-0.0031879 -0.001984 -9.762e-05 0.0016606 0.0014381 -0.0012355 0.1683 -0.13419
0.0032695 0.0052499 -0.0023354 2.96e-06
-0.0001089 0.0018787 0.00061021 0.0011072 0.0018719 0.0016797 0.003298 0.0052515
0.26047 0.036754 0.0056694 0.00085705
0.00029007 -0.00057449 0.000117 0.0010512 -0.00090721 0.0016283 -0.0023939 3.4466e-05
0.0056531 0.00086336 0.27237 0.072783
1940000000 0.17699 -0.17217 -0.00063503 -0.0016166 0.0014899 0.0023306 -0.0037275 0.000623
0.0014911 0.0010211 -0.00070815 -0.00059016
-0.00063846 -0.001584 0.26488 0.095999 -0.0019187 0.0048581 0.00099586 0.0012407
0.001653 0.00035509 0.00087047 0.00029099
0.0015213 0.0023989 -0.0018697 0.0049326 0.059711 -0.24419 0.00016559 -0.0020271
0.0022072 -3.8013e-05 0.00038168 0.0015241
-0.0038052 0.0006733 0.001011 0.0011894 0.00024528 -0.0020718 0.11792 -0.16734
0.0023675 0.0032056 -0.0016795 0.0010505
0.0014758 0.0010204 0.0016611 0.00036083 0.0022254 2.5713e-05 0.002344 0.003265
0.26353 -0.0030615 0.0042387 -0.0030295
-0.0007057 -0.00054923 0.0008565 0.00029756 0.0004275 0.0014661 -0.0016681 0.00092367
0.0042105 -0.0030443 0.26343 0.035687
2000000000 0.13028 -0.18606 -0.0043685 0.00092325 0.0030214 0.0017045 -0.0022324 0.0036939
0.0012294 0.00018626 -0.00054164 0.0007042
-0.004338 0.00091067 0.2504 0.060311 -0.00084859 0.0071272 0.0013753 0.00023176
0.0011821 -0.0011175 0.00044774 0.00033223
0.0030405 0.0016455 -0.00083965 0.0071498 0.017285 -0.22928 -0.0014408 -0.0010249
0.0017226 -0.001216 0.0017774 0.0016583
-0.0021678 0.0037155 0.001391 0.00024341 -0.0014319 -0.00092016 0.063878 -0.17939
0.00058171 0.0021741 -0.00065501 0.00204
0.0012366 0.00019398 0.0012051 -0.0011495 0.0017122 -0.0012653 0.0005235 0.0021379
0.25727 -0.03679 0.00036719 -0.0041206
