!Keysight Technologies,M9804A,MY58100912,A.14.10.03
!Date: Thursday, April 27, 2023 10:28:33
!Correction: S11(C  6-Port  ) 
!S12(C  6-Port  ) 
!S13(C  6-Port  ) 
!S14(C  6-Port  ) 
!S15(C  6-Port  ) 
!S16(C  6-Port  ) 
!S21(C  6-Port  ) 
!S22(C  6-Port  ) 
!S23(C  6-Port  ) 
!S24(C  6-Port  ) 
!S25(C  6-Port  ) 
!S26(C  6-Port  ) 
!S31(C  6-Port  ) 
!S32(C  6-Port  ) 
!S33(C  6-Port  ) 
!S34(C  6-Port  ) 
!S35(C  6-Port  ) 
!S36(C  6-Port  ) 
!S41(C  6-Port  ) 
!S42(C  6-Port  ) 
!S43(C  6-Port  ) 
!S44(C  6-Port  ) 
!S45(C  6-Port  ) 
!S46(C  6-Port  ) 
!S51(C  6-Port  ) 
!S52(C  6-Port  ) 
!S53(C  6-Port  ) 
!S54(C  6-Port  ) 
!S55(C  6-Port  ) 
!S56(C  6-Port  ) 
!S61(C  6-Port  ) 
!S62(C  6-Port  ) 
!S63(C  6-Port  ) 
!S64(C  6-Port  ) 
!S65(C  6-Port  ) 
!S66(C  6-Port  ) 
!S6P File: Measurement: :
# Hz S  RI   R 50
500000000 -0.32685 -0.056704 -0.010615 -0.001073 -0.007336 0.012121 -0.0035845 0.012234
0.01193 0.0051366 -0.0043886 0.010364
-0.010411 -0.0012081 -0.40922 -0.070982 0.0080004 -0.010865 0.0010192 0.011822
0.0074166 0.002233 0.0016331 0.012859
-0.0083198 0.012674 0.0076732 -0.011157 -0.25355 0.19363 0.0063713 0.0026978
-0.001466 0.0077764 0.00091952 0.01159
-0.0033229 0.012247 0.0015673 0.011751 0.0066694 0.00264 -0.32859 0.043368
-0.019623 -0.0063743 0.016675 0.028029
0.011621 0.0045048 0.0075203 0.003052 -0.0017523 0.0080428 -0.020182 -0.004829
-0.25458 -0.16009 -0.027515 0.0046556
-0.0050422 0.0097244 0.0021169 0.013645 0.00096576 0.010699 0.016656 0.027726
-0.026682 0.0043122 -0.25427 -0.14946
560000000 -0.31307 0.10866 -0.023065 -0.065792 0.00025439 0.012676 0.0039987 0.011446
0.0094428 0.0036416 0.010969 0.0093687
-0.023277 -0.065218 -0.36891 0.091736 -0.041779 -0.038719 0.012968 0.0035102
-0.012512 -0.0038536 0.0030315 -0.0014975
0.00061412 0.013066 -0.041712 -0.039372 -0.17854 0.24172 -0.00010109 -0.004448
0.017661 0.0049356 0.0084951 -0.0066248
0.0042466 0.011469 0.014147 0.0036622 4.4562e-05 -0.0047277 -0.30396 0.13434
0.0033096 -0.022119 0.0055575 -0.021064
0.011252 0.0039215 -0.013822 -0.0049417 0.018361 0.004603 0.0025984 -0.022929
-0.30472 0.016345 0.0074051 -0.04828
0.011118 0.0084386 0.0050969 -0.0010995 0.0076181 -0.0069907 0.0057506 -0.020345
0.0060284 -0.047905 -0.32749 -0.0013812
620000000 -0.2724 0.085566 -0.024309 0.0086424 0.0026379 0.0085961 0.0082272 -0.003758
0.010398 -0.0015134 0.00064875 -0.00086599
-0.024009 0.0090939 -0.3995 0.038617 -0.020109 0.00085305 -0.0014768 -0.0018092
0.010943 -0.0063872 0.00050131 -0.0027684
0.0024847 0.0086163 -0.01973 0.0010184 -0.15323 0.25039 -0.00056478 -0.004793
-0.0041016 -0.0028635 0.008746 -0.0021689
0.0074198 -0.0047209 -0.0016982 -0.0016659 -0.00079291 -0.0046479 -0.26445 0.14471
-0.039837 -0.017939 0.012971 0.030356
0.012651 -0.00022383 0.011473 -0.006291 -0.0040416 -0.0029515 -0.038782 -0.018464
-0.23179 -0.020622 -0.041389 0.0125
-0.0002176 -0.0016812 0.00056274 -0.0030025 0.0083287 -0.0025087 0.012275 0.029005
-0.041688 0.013463 -0.2407 -0.037474
680000000 -0.23759 0.1777 -0.026064 -0.014611 0.004556 0.005213 0.0015794 -0.0073979
-0.0025932 -0.011412 0.0053807 -0.005877
-0.025933 -0.014318 -0.38963 0.14138 -0.032642 -0.0011919 -0.0013821 -0.000424
-0.0019524 -0.0091129 -0.00073986 -0.0019692
0.0051084 0.0053245 -0.032628 -0.0012234 -0.10677 0.27394 -0.00057557 -0.00021319
-0.0016361 0.00076892 -0.0025775 -0.009085
0.0018081 -0.0067063 -0.0014005 -0.00022974 -0.00071025 -0.00025434 -0.22001 0.19863
-0.025629 -0.0057649 -0.0074955 -0.0121
-0.0029202 -0.010739 -0.002129 -0.009504 -0.0015815 0.00084736 -0.025377 -0.0058316
-0.26949 0.079571 -0.0071279 -0.0051598
0.0061356 -0.0057989 -0.00060981 -0.0018633 -0.0030674 -0.0092598 -0.0070358 -0.011774
-0.0073539 -0.0052893 -0.26086 0.068395
740000000 -0.19171 0.1717 -0.040711 0.026663 0.013232 -0.0037982 8.0863e-05 -0.0043124
-0.0045731 -0.0015821 -0.0063812 0.0024369
-0.040951 0.026921 -0.33536 0.16105 -0.037183 0.034223 1.2598e-05 -0.006402
-0.010195 0.0074203 -0.0012399 -0.006309
0.013196 -0.0036407 -0.036675 0.034541 -0.07315 0.27396 -0.0017716 0.0026848
-0.0028966 -0.0043426 -0.0010265 0.0006372
-0.00032533 -0.004307 0.0001091 -0.0065078 -0.0016943 0.0028914 -0.20265 0.20474
-0.041087 -0.0052507 0.022576 0.016934
-0.004683 -0.0017652 -0.01111 0.0069415 -0.0028929 -0.0046344 -0.040618 -0.0054688
-0.17679 0.10214 -0.040176 -0.0005421
-0.00634 0.0025238 -0.0016161 -0.0061843 -0.0011402 0.00034992 0.02243 0.016416
-0.040222 0.00064205 -0.25337 0.073362
800000000 -0.16415 0.21568 -0.022398 0.016382 0.0055557 -0.010206 -0.0041188 -0.0027305
-0.004633 0.0019811 0.0048337 0.0001431
-0.022253 0.016313 -0.34323 0.23211 -0.0081468 0.034497 -0.0022105 0.001981
-0.00052063 0.0021103 0.0008795 0.0052374
0.0052679 -0.010106 -0.0081711 0.03461 -0.035048 0.3007 0.00072159 0.0012498
-3.7214e-05 0.003296 -0.0015933 0.00069921
-0.0040855 -0.0024695 -0.0022987 0.0020697 0.00073351 0.0013798 -0.17327 0.23421
-0.02761 0.015387 0.01536 -0.010362
-0.0044131 0.0018439 -1.7734e-05 0.0022026 0.00021738 0.003107 -0.0276 0.015408
-0.21182 0.12964 -0.018014 0.020344
0.0042854 0.00031265 0.00052356 0.0050232 -0.0016648 0.0007301 0.015242 -0.010106
-0.018313 0.020336 -0.25016 0.12574
860000000 -0.12802 0.23742 -0.017518 0.030535 -0.0033306 -0.0097148 -0.0015877 0.00054246
0.0039928 0.004725 -0.0039935 -0.0035027
-0.017392 0.030689 -0.29434 0.27697 0.0080836 0.034288 0.00037402 0.0022153
0.0043136 0.00074425 0.0031502 -0.00033678
-0.0032567 -0.0095501 0.008307 0.034345 0.014272 0.3109 -0.00045139 -0.00012517
0.0026045 -0.0010609 0.0013874 0.0040887
-0.0022477 0.00021984 6.7448e-05 0.0020035 -0.00046506 -0.00013724 -0.13391 0.24548
-0.016469 0.020417 -0.0067476 -0.0096755
0.0040315 0.004459 0.0037361 0.00061845 0.0022602 -0.0011423 -0.01641 0.020131
-0.15632 0.17659 -0.022831 0.016616
-0.0041505 -0.0029316 0.0035942 0.0005148 0.0014804 0.0043653 -0.0071681 -0.0089583
-0.022776 0.01639 -0.19868 0.17574
920000000 -0.10563 0.25995 0.0051263 0.039315 -0.0090261 -0.0041564 -0.0019457 0.0014084
0.0010623 0.0016337 0.0029915 -0.0011735
0.0048643 0.03913 -0.26808 0.29752 0.028275 0.022643 0.0012868 0.0011727
0.0071205 -0.00045111 0.0039143 -0.0024656
-0.0091272 -0.0040934 0.028332 0.022628 0.060498 0.31227 0.0018591 0.00016743
0.00081683 -0.00028483 0.0010692 -0.00127
-0.0017497 0.0016676 0.0015411 0.0010754 0.0020581 0.00011752 -0.11027 0.2613
-0.0082321 0.030983 0.004412 -0.0061957
0.00089357 0.001458 0.0069796 -0.00036829 0.00084746 -0.00040163 -0.0082837 0.03092
-0.14324 0.1826 -0.0011814 0.027849
0.0028716 -0.0013141 0.0039969 -0.0028566 0.0011752 -0.0012051 0.0046677 -0.0061554
-0.0011153 0.027739 -0.21019 0.18646
980000000 -0.058805 0.28262 0.017389 0.030095 -0.0088836 0.0046334 0.001734 0.0036044
0.0036436 -0.001539 -0.0034403 -0.0024882
0.017383 0.029942 -0.21563 0.33545 0.033184 0.0048273 0.0020381 -4.6193e-05
0.0016356 -0.0057353 -0.00025277 -0.0025904
-0.0088335 0.0046203 0.033251 0.0047195 0.10724 0.30783 0.00066068 -0.0010455
0.00042145 -0.001777 0.0014632 -0.00036627
0.0017419 0.0035155 0.0019108 -0.00017172 0.00065561 -0.0011267 -0.070606 0.27294
0.010443 0.028624 -0.0093167 -0.0079081
0.0034259 -0.0015448 0.0016646 -0.0056991 0.00045507 -0.0017717 0.010321 0.028371
-0.10856 0.20927 0.0067173 0.019157
-0.0036546 -0.0024124 -0.00059862 -0.0024118 0.0014605 -0.00038091 -0.0093271 -0.0074735
0.006666 0.019088 -0.17028 0.23759
1040000000 -0.016859 0.29038 0.033326 0.018869 -0.00086096 0.0073613 0.0023746 0.00060572
0.00055036 -0.0035119 -6.9498e-05 -0.0013513
0.033387 0.018986 -0.17971 0.34806 0.029526 -0.014657 0.0015902 -0.0018462
-0.0022176 -0.0024776 -0.00096961 -0.0029825
-0.00079878 0.0072641 0.02955 -0.014865 0.15448 0.29377 -0.00046765 -0.0015911
-0.0013915 -0.0011007 -0.00043282 -0.0011148
0.0024286 0.00062843 0.0016696 -0.0018229 -0.00049371 -0.001576 -0.042432 0.28136
0.020936 0.016522 -0.0013722 0.0011856
0.00056831 -0.0035749 -0.0022171 -0.0023857 -0.0014807 -0.0011116 0.021 0.016514
-0.075673 0.21448 0.014223 0.017684
-0.00019308 -0.0012129 -0.0011661 -0.003108 -0.00053042 -0.0013131 -0.0016558 0.001022
0.01417 0.017896 -0.14786 0.25719
1100000000 0.027082 0.30061 0.036438 -0.0037499 0.0035371 0.0038864 0.0021382 -0.00093606
-0.0022872 -0.0027772 -0.0040609 3.2682e-05
0.036425 -0.0036985 -0.13742 0.36798 0.015141 -0.027703 -0.00018956 -0.0016979
-0.0034588 -0.00064527 -0.0036822 -0.00049161
0.0035556 0.0038219 0.015113 -0.027789 0.20002 0.27452 -0.0017911 0.00013317
-0.0015946 0.00056392 -0.0010004 -0.00070053
0.0021791 -0.00099165 -0.00017228 -0.001743 -0.0017455 0.00017916 -0.0019697 0.28594
0.025106 0.0028166 -0.0022128 -0.00087875
-0.002324 -0.0028627 -0.0033621 -0.0007536 -0.001614 0.00055985 0.025209 0.0027867
-0.055413 0.22706 0.019613 0.0075095
-0.0041386 7.9641e-05 -0.0036906 -0.00049649 -0.0010904 -0.00059016 -0.0022472 -0.00067358
0.019447 0.0075945 -0.10461 0.29166
1160000000 0.079347 0.29736 0.0244 -0.020481 0.0032934 -0.00097491 -0.00011636 -0.0022549
-0.0037897 -0.0007474 -0.0012674 0.0042393
0.024419 -0.020366 -0.091989 0.37244 -0.0036856 -0.028746 -0.0015478 -0.0015797
-0.0024684 0.0023579 -0.001627 0.0019118
0.003285 -0.0010125 -0.0038372 -0.028739 0.24461 0.24436 -0.00075281 0.0016357
-0.00063796 0.001553 -0.0010881 0.00030488
-0.0002457 -0.0021957 -0.0015418 -0.0016067 -0.00076263 0.0016325 0.038942 0.28203
0.020723 -0.012163 -0.0038686 0.0047574
-0.0037351 -0.00079758 -0.0024589 0.002367 -0.00063202 0.001589 0.020704 -0.012282
-0.019176 0.23449 0.018171 -0.0013063
-0.0010634 0.0042823 -0.0016909 0.0018786 -0.00095976 0.00032646 -0.0038597 0.0046413
0.018055 -0.0012841 -0.054834 0.2951
1220000000 0.12255 0.28633 0.011311 -0.03011 -0.0013912 -0.0015354 0.00010478 -0.00073121
-0.0024845 0.0022019 0.0011485 0.0019794
0.011307 -0.030113 -0.049056 0.38561 -0.016769 -0.021017 -0.002534 0.0004291
-5.3634e-05 0.0029456 -0.00088435 0.0018969
-0.0014006 -0.0015161 -0.016819 -0.020963 0.2837 0.20532 0.00073419 0.0015747
0.00052244 0.0011125 0.00010024 0.00067348
0.00013493 -0.0008666 -0.0025236 0.00044918 0.00068815 0.0015855 0.078012 0.27166
0.0096411 -0.01857 0.0017672 0.0012169
-0.0025103 0.0021667 -0.00010522 0.0029414 0.00050568 0.0010677 0.0095798 -0.018624
0.0056953 0.23984 0.012855 -0.012989
0.0010625 0.0019816 -0.00095847 0.001931 1.3965e-05 0.00059166 0.0018144 0.0012214
0.012806 -0.012997 -0.025741 0.31379
1280000000 0.17309 0.26763 -0.0075807 -0.028893 -0.0021016 0.0017978 -0.00079135 -0.0021066
-0.00076185 0.003014 0.0023993 0.0013652
-0.0074128 -0.028831 -0.0027159 0.37806 -0.023685 -0.0082155 -0.0010384 0.0013705
0.0015799 0.0017552 0.0005494 0.0021368
-0.0020701 0.0017744 -0.023741 -0.0081045 0.31516 0.16279 0.00146 4.4119e-05
0.001051 0.00026921 0.00012539 0.00039912
-0.00086354 -0.0019458 -0.0010285 0.0014057 0.0014361 3.6562e-05 0.11472 0.25442
-0.00017168 -0.020276 -0.00085349 0.00021451
-0.00069663 0.0030631 0.0015831 0.0018236 0.0009911 0.00031079 -0.00025476 -0.020246
0.042654 0.2425 0.0024739 -0.014936
0.002566 0.0013463 0.00055863 0.0020801 0.00020875 0.00038441 -0.00076268 0.0002962
0.0024519 -0.014959 0.022434 0.31871
1340000000 0.21086 0.23341 -0.017146 -0.01947 0.00016362 0.0041832 -0.0015566 -0.00082468
0.0013266 0.002574 0.0018481 -0.001328
-0.017116 -0.01952 0.036751 0.37035 -0.020963 0.0043379 -0.00032393 0.0020827
0.001766 0.00087851 0.0012018 0.00081961
0.00016246 0.0042274 -0.020966 0.0044358 0.33886 0.11379 0.0010595 -0.00075695
0.00060532 -0.00049977 0.00018985 0.00019651
-0.001552 -0.00089859 -0.0003014 0.0020444 0.0010869 -0.00077711 0.14673 0.23165
-0.0097488 -0.017108 0.00066584 0.00082104
0.0013491 0.0025312 0.0018001 0.00090016 0.00065665 -0.00054156 -0.0097029 -0.017116
0.072905 0.23426 -0.0040906 -0.013483
0.0017509 -0.0013861 0.0011771 0.00085593 0.00021033 0.00032598 0.00054599 0.00082272
-0.0041239 -0.013415 0.060881 0.31499
1400000000 0.24387 0.19685 -0.023546 -0.0081898 0.0045595 0.0032411 -0.0022135 0.00039723
0.002344 0.00094555 0.00043403 -0.0013265
-0.023534 -0.008205 0.073552 0.35878 -0.014375 0.012168 0.0012943 0.0015771
0.0013509 -0.00058002 0.0011362 0.00021153
0.0045619 0.0031833 -0.014353 0.012263 0.35199 0.059494 0.00018022 -0.00154
0.00015961 -0.00030112 0.00039239 0.00029223
-0.0022722 0.00048447 0.0013053 0.0015472 0.00019968 -0.0015365 0.1738 0.20244
-0.015789 -0.010111 -0.0010802 0.00028052
0.0023804 0.00095076 0.0013273 -0.0006353 0.00012879 -0.0003642 -0.015807 -0.010184
0.10486 0.22809 -0.01009 -0.0085857
0.00040224 -0.0013439 0.0011695 0.00023442 0.00034859 0.00030408 -0.0010513 0.00026481
-0.010046 -0.0085693 0.10579 0.3071
1460000000 0.26822 0.15375 -0.020655 0.0043346 0.0051215 -0.0014321 -0.0016971 0.0017552
0.0020421 -0.00027782 -7.8959e-05 -0.00098406
-0.020577 0.0043207 0.10892 0.33781 -0.0056981 0.014964 0.0018404 0.00037673
0.0010245 -0.0013546 0.001273 -0.00057702
0.0050935 -0.0014135 -0.0056221 0.015007 0.35888 0.0039836 -0.0010314 -0.001436
0.00016117 -0.00027373 0.00054527 -0.00024472
-0.0016967 0.0017334 0.001871 0.00032764 -0.0010198 -0.0014314 0.19924 0.17362
-0.017018 -0.0030266 -0.0005006 0.0025453
0.0020127 -0.00027336 0.0010627 -0.0013934 0.00015754 -0.00031116 -0.017051 -0.0029281
0.13463 0.21232 -0.01158 -0.0026722
-7.9483e-05 -0.001032 0.0012512 -0.00045139 0.00057811 -0.00033814 -0.00060753 0.002574
-0.01169 -0.0026453 0.14034 0.2873
1520000000 0.28027 0.11178 -0.01525 0.0099402 0.0032479 -0.0036806 6.1848e-05 0.002732
0.0020909 -0.0016717 -0.0009675 -0.00031466
-0.015245 0.0099493 0.14259 0.32355 0.0017068 0.012499 0.0019043 -0.00075333
0.00013563 -0.0011983 0.00039451 -0.00094652
0.0032496 -0.0036627 0.0017491 0.012535 0.35052 -0.054672 -0.0011175 -0.00045804
0.00049219 -0.0008447 0.00010755 -7.5274e-05
5.1413e-05 0.0027147 0.0018872 -0.0007237 -0.001116 -0.00053597 0.22038 0.13548
-0.016236 0.0031096 0.0018014 0.002175
0.0020885 -0.001677 0.00010126 -0.0011606 0.00053411 -0.00077039 -0.016239 0.0031317
0.16156 0.19709 -0.01147 0.0014977
-0.00099154 -0.00031371 0.00040217 -0.00091917 0.00018124 -0.00016572 0.0018761 0.0021757
-0.011485 0.0014467 0.17413 0.26857
1580000000 0.29057 0.067339 -0.0087065 0.013604 -0.00090946 -0.0043675 0.0015344 0.0020827
-6.0991e-06 -0.0021107 -0.00034561 0.00041175
-0.0087423 0.01355 0.17027 0.30033 0.0050426 0.0076725 0.00064599 -0.0017241
-0.00066166 -0.0011596 -0.0001962 -0.00072623
-0.00088655 -0.0043382 0.0051148 0.007678 0.32855 -0.11112 -0.0017355 0.00048094
-0.00028172 -0.0011084 0.00030649 -0.00053699
0.0015524 0.0020485 0.00063588 -0.0017667 -0.0017484 0.00049968 0.23295 0.098364
-0.012727 0.0085015 0.0025421 0.0007001
-4.5402e-05 -0.0021511 -0.00070568 -0.0011338 -0.00035355 -0.0011805 -0.012711 0.0085121
0.18505 0.17936 -0.0091577 0.0070605
-0.00035001 0.00042206 -0.0001649 -0.00076527 0.00023826 -0.00044964 0.0025222 0.00072466
-0.0091669 0.0071043 0.20808 0.24428
1640000000 0.29404 0.025507 -0.0017802 0.012651 -0.0025123 -0.0022463 0.0029229 0.0010637
-0.00049833 -0.0017339 -0.00038589 0.00046142
-0.0017923 0.012614 0.20151 0.27531 0.0055388 0.0029353 -0.00066756 -0.0019827
-0.0011192 -0.00033363 -0.00039146 -0.00072815
-0.0024165 -0.0022936 0.0055783 0.0029421 0.2991 -0.16099 -0.00075554 0.0015938
-0.00084972 -0.00088963 -0.00018405 -0.00040403
0.0028961 0.0010509 -0.00068796 -0.0019897 -0.0007585 0.0016146 0.24521 0.050584
-0.0082693 0.010369 0.0025669 -0.00098751
-0.00047674 -0.0017281 -0.0011386 -0.00035936 -0.00092425 -0.00088904 -0.0082567 0.010379
0.2075 0.1534 -0.0045852 0.0091049
-0.00035939 0.00048492 -0.00036774 -0.00069593 -0.00012192 -0.00039163 0.0025667 -0.0009843
-0.0046172 0.0091134 0.23528 0.21291
1700000000 0.28656 -0.019486 0.0019202 0.010058 -0.0031256 0.00029443 0.0032865 -0.001427
-0.002062 -0.00088998 0.00049425 0.00043802
0.0019372 0.010061 0.21913 0.2446 0.003309 0.00017673 -0.0016587 -0.00067963
-0.00085229 0.00023713 -0.00082234 -0.00052415
-0.0031421 0.0003222 0.0032637 0.00015416 0.2536 -0.19939 0.00049144 0.0016768
-0.0020132 -5.751e-05 -0.00031939 -0.00074516
0.0032228 -0.0014695 -0.0016264 -0.00066996 0.00043852 0.001673 0.24163 0.0031961
-0.004708 0.011328 0.0014474 -0.0021743
-0.0021251 -0.00091646 -0.00085334 0.00022522 -0.0020159 -0.00010499 -0.0047209 0.01136
0.22446 0.13264 -8.3886e-05 0.0091417
0.00044831 0.00053474 -0.0008251 -0.00047656 -0.00032555 -0.0008391 0.0014692 -0.0021817
-9.9509e-05 0.0091439 0.25231 0.17995
1760000000 0.27611 -0.068178 0.0046209 0.0066731 -0.0018904 0.00079389 0.00122 -0.0037428
-0.0015553 0.00046717 0.00031257 -0.00056265
0.0046132 0.0066544 0.24716 0.20547 0.00086088 -0.0014274 -0.0013743 0.00020086
-0.00087253 0.0010582 -0.00053175 0.00026001
-0.0018389 0.00080066 0.00086355 -0.001393 0.20461 -0.23065 0.0013139 0.0010561
-0.0011826 0.0014434 -0.0012572 -0.00056995
0.0012029 -0.0036804 -0.0013749 0.00020623 0.0013409 0.0011184 0.23546 -0.045868
-0.00068106 0.010669 -9.7817e-05 -0.0024062
-0.001604 0.00045594 -0.00086718 0.0010421 -0.0010615 0.0014298 -0.00065918 0.010692
0.23941 0.098893 0.0036846 0.0067548
0.00029008 -0.000609 -0.00058864 0.00026163 -0.0012578 -0.00069924 -0.00011731 -0.0024773
0.003646 0.0067954 0.26664 0.14308
1820000000 0.25119 -0.10634 0.0049738 0.0029194 0.00017913 0.0019713 -0.0010976 -0.0031848
-0.0013982 0.0012131 -9.0291e-05 -0.00013366
0.0049735 0.0028661 0.25746 0.17473 -0.0011932 0.00012536 -0.0012681 0.00108
0.00017121 0.0011784 -0.00070387 0.00035828
0.00020735 0.0019637 -0.0011759 0.00013303 0.15317 -0.24439 0.001711 0.00025041
-0.00015407 0.0023597 -0.001668 0.00015224
-0.0011747 -0.0031758 -0.001252 0.0010779 0.0017815 0.00020793 0.20712 -0.093433
0.0017354 0.0088835 -0.0015291 -0.0015693
-0.0013617 0.0011889 0.0001658 0.0012105 -9.2683e-05 0.0023528 0.0017617 0.0088805
0.25538 0.068859 0.0045449 0.0035467
-6.3371e-05 -6.9291e-05 -0.00065987 0.00034091 -0.001639 0.00018841 -0.0014885 -0.001517
0.0045547 0.0034678 0.27019 0.10677
1880000000 0.21579 -0.14577 0.0027001 0.00028853 -0.00072211 0.0019451 -0.0031226 -0.0021199
-0.00018165 0.0020239 0.0003173 -0.00070289
0.0026937 0.00027645 0.26254 0.12922 -0.0031217 0.0024354 -0.00019936 0.0017012
0.00065582 0.00098406 3.7411e-05 0.00090891
-0.00070479 0.001914 -0.0031683 0.0024812 0.10137 -0.25054 0.0014921 -0.0012082
0.0015464 0.0018165 -0.0011098 0.001548
-0.0030763 -0.0021076 -0.00023175 0.0017355 0.0014519 -0.0011842 0.16929 -0.13367
0.003239 0.0061311 -0.0020439 0.00022259
-0.00014679 0.0020411 0.00065787 0.00099108 0.001572 0.0018012 0.003285 0.0060554
0.2591 0.038073 0.0047104 0.0014886
0.00032699 -0.00072123 4.0573e-05 0.0010004 -0.0013049 0.0014979 -0.0019988 0.0001946
0.0047328 0.0014596 0.27123 0.074061
1940000000 0.17727 -0.17249 0.00034363 -0.0015282 0.0011976 0.002034 -0.0036687 0.00068798
0.0015433 0.0012747 -0.00065795 -0.0006219
0.000381 -0.0014832 0.26492 0.096573 -0.0013586 0.0050596 0.0010647 0.0012983
0.0016505 0.00024538 0.00083459 0.00026248
0.0011824 0.0020226 -0.0012421 0.00506 0.059403 -0.24223 0.00011166 -0.0020629
0.0023489 0.00030951 7.7744e-05 0.0017671
-0.003707 0.00067878 0.0010539 0.0012588 0.00024385 -0.0020183 0.11898 -0.16761
0.0027845 0.0039556 -0.0014607 0.0010046
0.0015532 0.0013352 0.0017047 0.0002141 0.002374 0.00035146 0.0027943 0.0039796
0.26273 -0.0011843 0.0035868 -0.0018615
-0.00078169 -0.0006785 0.00077149 0.00017492 0.00029401 0.0018149 -0.0013451 0.0010051
0.0035732 -0.0017958 0.26257 0.037529
2000000000 0.13005 -0.18655 -0.0034594 0.00038473 0.0027776 0.0015725 -0.0022549 0.0035579
0.0014733 0.00012752 -0.00073256 0.00059346
-0.0034786 0.00035695 0.25056 0.06068 -0.00043079 0.0068478 0.0014155 0.00045722
0.00098057 -0.0011446 0.00045729 0.00012114
0.0027221 0.0016019 -0.00036461 0.0068585 0.017304 -0.22749 -0.0013901 -0.0010958
0.0019725 -0.0014123 0.0016967 0.0016101
-0.0021855 0.0035825 0.0015304 0.00047754 -0.0013448 -0.0010402 0.064594 -0.17963
0.0011616 0.0028381 -8.2515e-05 0.0019964
0.0014719 0.00010881 0.00095793 -0.0011035 0.0020261 -0.0013754 0.0011105 0.0028954
0.25716 -0.034716 0.000379 -0.0024506
