!Keysight Technologies,M9804A,MY58100912,A.14.10.03
!Date: Thursday, April 27, 2023 10:28:33
!Correction: S11(C  6-Port  ) 
!S12(C  6-Port  ) 
!S13(C  6-Port  ) 
!S14(C  6-Port  ) 
!S15(C  6-Port  ) 
!S16(C  6-Port  ) 
!S21(C  6-Port  ) 
!S22(C  6-Port  ) 
!S23(C  6-Port  ) 
!S24(C  6-Port  ) 
!S25(C  6-Port  ) 
!S26(C  6-Port  ) 
!S31(C  6-Port  ) 
!S32(C  6-Port  ) 
!S33(C  6-Port  ) 
!S34(C  6-Port  ) 
!S35(C  6-Port  ) 
!S36(C  6-Port  ) 
!S41(C  6-Port  ) 
!S42(C  6-Port  ) 
!S43(C  6-Port  ) 
!S44(C  6-Port  ) 
!S45(C  6-Port  ) 
!S46(C  6-Port  ) 
!S51(C  6-Port  ) 
!S52(C  6-Port  ) 
!S53(C  6-Port  ) 
!S54(C  6-Port  ) 
!S55(C  6-Port  ) 
!S56(C  6-Port  ) 
!S61(C  6-Port  ) 
!S62(C  6-Port  ) 
!S63(C  6-Port  ) 
!S64(C  6-Port  ) 
!S65(C  6-Port  ) 
!S66(C  6-Port  ) 
!S6P File: Measurement: :
# Hz S  RI   R 50
500000000 -0.32721 -0.057507 -0.011094 -0.0011999 -0.0084497 0.01274 -0.0038419 0.012031
0.011788 0.0051892 -0.0052272 0.00946
-0.010918 -0.0013061 -0.41023 -0.070813 0.0071934 -0.010494 0.00074428 0.012132
0.0081212 0.0026703 0.0017477 0.01418
-0.0083844 0.012787 0.0072146 -0.010514 -0.25557 0.19457 0.0067132 0.0030786
-0.0011234 0.0084568 0.0014723 0.010928
-0.0039869 0.012466 0.00067936 0.012142 0.0066713 0.0030109 -0.33019 0.044391
-0.019365 -0.005785 0.01474 0.029055
0.011976 0.005007 0.0081223 0.0027707 -0.0011018 0.0083798 -0.019231 -0.0057421
-0.25551 -0.1618 -0.028027 0.0050842
-0.0053497 0.0095676 0.0014718 0.013993 0.0013881 0.01084 0.014968 0.028869
-0.02756 0.0049077 -0.25515 -0.14652
560000000 -0.31189 0.10868 -0.022907 -0.066496 0.0010232 0.013425 0.0052992 0.010934
0.010581 0.0037427 0.01124 0.0090326
-0.02279 -0.06612 -0.36948 0.092111 -0.042076 -0.038243 0.013159 0.0028162
-0.012396 -0.0034137 0.003688 -0.0014636
0.00087454 0.013329 -0.042194 -0.038106 -0.17873 0.24205 0.00010131 -0.0040297
0.017698 0.004374 0.0074428 -0.0062009
0.0049662 0.010628 0.013022 0.0034983 -0.00023127 -0.0042702 -0.30589 0.135
0.0038064 -0.02314 0.0059387 -0.021114
0.01054 0.0037262 -0.012159 -0.0032647 0.017556 0.0044495 0.0034996 -0.022753
-0.30572 0.014454 0.006804 -0.047822
0.011144 0.0088836 0.0037614 -0.0015375 0.007646 -0.0065587 0.0063304 -0.02208
0.0063206 -0.047919 -0.32731 -0.0013891
620000000 -0.27254 0.087243 -0.024123 0.0094873 0.0035292 0.0090674 0.0079561 -0.0047171
0.012099 -0.0016906 0.00034808 -0.0026537
-0.024075 0.009487 -0.39977 0.039332 -0.019302 0.0010093 -0.0015966 -0.0019191
0.011665 -0.0065129 0.00074081 -0.0036685
0.0036122 0.0090528 -0.019292 0.00101 -0.15232 0.25108 -0.001032 -0.0045351
-0.0034164 -0.002841 0.008085 -0.0030557
0.0079549 -0.0046922 -0.0016265 -0.0017551 -0.00098737 -0.0044317 -0.26312 0.14575
-0.04047 -0.019564 0.013624 0.030896
0.012237 -0.0015466 0.011781 -0.0065682 -0.0033904 -0.0031266 -0.040433 -0.019663
-0.23092 -0.017516 -0.042921 0.011726
0.00070582 -0.0027813 0.00080619 -0.003689 0.0083005 -0.003174 0.014534 0.030623
-0.042699 0.013225 -0.24065 -0.036414
680000000 -0.23754 0.17795 -0.026269 -0.01383 0.0050392 0.0052334 0.0014474 -0.0071549
-0.0023832 -0.011542 0.0054111 -0.0066973
-0.026293 -0.013831 -0.38936 0.14221 -0.03247 -0.0010777 -0.0016002 -0.00058016
-0.0019904 -0.0093019 -0.00074907 -0.0016103
0.0050623 0.0052097 -0.032502 -0.00097621 -0.10605 0.27458 -0.0009377 -0.00035638
-0.0019251 0.00041959 -0.0028334 -0.0089741
0.0015069 -0.0072092 -0.001621 -0.00062511 -0.00094705 -0.00037552 -0.22016 0.19875
-0.025345 -0.0055697 -0.008168 -0.012087
-0.0023449 -0.011595 -0.0018769 -0.0093104 -0.0018956 0.00046693 -0.025332 -0.0057176
-0.27079 0.079595 -0.0069392 -0.0052362
0.0054228 -0.0064925 -0.00077984 -0.0016342 -0.002934 -0.0089682 -0.0085346 -0.01193
-0.0071603 -0.0057577 -0.26218 0.069736
740000000 -0.19108 0.17076 -0.040118 0.027103 0.013187 -0.0043626 -0.000102 -0.0041005
-0.0045952 -0.0019486 -0.0068753 0.0026967
-0.040083 0.027048 -0.335 0.16117 -0.036272 0.03435 5.0768e-05 -0.0060729
-0.011058 0.006656 -0.0012095 -0.0067103
0.013054 -0.0043641 -0.036236 0.034437 -0.072565 0.27436 -0.0021599 0.002789
-0.0024849 -0.0041769 -0.0012279 0.00075747
-0.00012148 -0.0042508 0.00012042 -0.0060727 -0.0022137 0.0029048 -0.20212 0.20422
-0.041209 -0.0046206 0.022555 0.016444
-0.0043772 -0.0019201 -0.011058 0.0066141 -0.0025598 -0.0042589 -0.041115 -0.0045631
-0.17809 0.099799 -0.040336 0.0020771
-0.0072117 0.002672 -0.0013832 -0.0063964 -0.0012866 0.00096496 0.022288 0.01652
-0.040458 0.0030771 -0.25212 0.073408
800000000 -0.16366 0.21635 -0.021952 0.016628 0.0056157 -0.010177 -0.0041052 -0.0023259
-0.0042093 0.0024933 0.0047356 0.00081463
-0.021951 0.0166 -0.34264 0.23238 -0.0079941 0.034535 -0.0025252 0.0021912
-0.00032524 0.0026426 0.0006005 0.0054839
0.0055801 -0.010175 -0.007918 0.034567 -0.034618 0.30067 0.0007488 0.0015578
0.00029899 0.0034599 -0.0016439 0.00098522
-0.0040551 -0.0023414 -0.0024536 0.0022338 0.0007081 0.0015637 -0.17341 0.23375
-0.027419 0.01588 0.014819 -0.010336
-0.0043394 0.0024158 -0.00027267 0.0025956 0.00034295 0.003457 -0.027427 0.015995
-0.21132 0.13044 -0.016857 0.02087
0.0049147 0.00072526 0.00068267 0.0055266 -0.0015693 0.00099018 0.014935 -0.010339
-0.016885 0.021205 -0.25038 0.12632
860000000 -0.1277 0.23738 -0.017455 0.03085 -0.003279 -0.0097292 -0.00194 0.00026141
0.0044055 0.0048921 -0.0043312 -0.0031464
-0.017484 0.030808 -0.29448 0.2771 0.0081796 0.034444 0.00021519 0.0019887
0.0039069 0.001192 0.0029737 0.00039314
-0.0032966 -0.0097319 0.0082836 0.034442 0.014436 0.31101 -0.00042579 -0.0002488
0.0025486 -0.0010538 0.001225 0.0040394
-0.0019584 0.00029994 0.00020894 0.0020268 -0.00044455 -0.00022933 -0.13452 0.24472
-0.016294 0.020369 -0.0065815 -0.010038
0.0043549 0.0049019 0.0039167 0.0011347 0.0024691 -0.0010739 -0.016386 0.020435
-0.15611 0.17638 -0.022391 0.017488
-0.0042553 -0.0032667 0.0031103 0.00049095 0.0013479 0.0040695 -0.0064405 -0.0098145
-0.02254 0.017157 -0.1983 0.17438
920000000 -0.10525 0.26013 0.0051435 0.039227 -0.0091948 -0.00438 -0.0017354 0.0015186
0.00098252 0.0017348 0.0032732 -0.0013894
0.0051147 0.039201 -0.26765 0.29745 0.028528 0.022582 0.001455 0.0011351
0.0072353 -0.00061815 0.0038998 -0.0029251
-0.0091789 -0.0043465 0.02861 0.022515 0.060534 0.31242 0.0019336 1.1843e-05
0.00081786 -0.00028213 0.00097608 -0.0016089
-0.0017097 0.0015287 0.0014826 0.0011201 0.0019286 4.7589e-05 -0.11051 0.26128
-0.0079486 0.030873 0.0044506 -0.0063121
0.0010268 0.0017228 0.0072638 -0.00066741 0.00081326 -0.00032973 -0.0078563 0.030864
-0.14274 0.18263 -0.0016509 0.027045
0.0031531 -0.0014989 0.0039258 -0.0028764 0.0010697 -0.0014707 0.0042877 -0.0063299
-0.0015518 0.027049 -0.21053 0.18709
980000000 -0.058891 0.28225 0.017387 0.030029 -0.0089824 0.0045446 0.0015589 0.0036448
0.0034187 -0.001534 -0.0031371 -0.0022775
0.017346 0.030004 -0.21564 0.33524 0.033495 0.0047572 0.0020088 2.9902e-05
0.0014763 -0.0057455 -0.00016771 -0.002608
-0.0089936 0.0045815 0.033547 0.0046304 0.1074 0.30814 0.00059641 -0.0011015
0.00038266 -0.0018396 0.0015577 -0.00027234
0.0015901 0.0035964 0.0020808 1.2959e-05 0.00058677 -0.0011109 -0.071238 0.27311
0.010523 0.029 -0.009298 -0.0076545
0.0034453 -0.0015889 0.0014571 -0.0058024 0.00038057 -0.0018246 0.010611 0.028947
-0.10868 0.20914 0.0072932 0.019354
-0.0032587 -0.0022769 -0.00025636 -0.0026279 0.0014956 -0.00031309 -0.0091571 -0.0077862
0.0073317 0.019486 -0.169 0.23718
1040000000 -0.016768 0.28992 0.033413 0.018824 -0.0011058 0.0073792 0.0023233 0.00055292
0.00041024 -0.0032796 -0.00026601 -0.0013952
0.033355 0.018828 -0.17992 0.34815 0.029625 -0.014962 0.0015913 -0.001698
-0.0023703 -0.0024082 -0.0012428 -0.0030122
-0.0010771 0.0073918 0.02959 -0.0151 0.1548 0.29422 -0.0004956 -0.0015052
-0.0014912 -0.0010269 -0.00053061 -0.0011806
0.0023063 0.0005468 0.0016263 -0.0016955 -0.00050053 -0.0014824 -0.042536 0.28152
0.021572 0.016734 -0.0014748 0.0011728
0.00044385 -0.0033004 -0.0024068 -0.0023432 -0.0015486 -0.0010298 0.021624 0.016716
-0.075938 0.21447 0.014703 0.017374
-0.0002762 -0.0014573 -0.0011645 -0.0030056 -0.00057073 -0.0010808 -0.0014954 0.0011412
0.014624 0.017304 -0.14748 0.25821
1100000000 0.026946 0.30033 0.036678 -0.0040458 0.0034213 0.003871 0.0023388 -0.00091306
-0.0023627 -0.0028077 -0.0038282 -0.00016472
0.036639 -0.0040371 -0.13764 0.36807 0.015173 -0.028183 -8.273e-05 -0.0018018
-0.0035369 -0.00072919 -0.0036137 -0.00064844
0.0034234 0.003863 0.015082 -0.028275 0.20075 0.27483 -0.0018522 0.00016017
-0.00166 0.0005211 -0.0011051 -0.0004848
0.0023153 -0.00090696 -8.7992e-05 -0.0017818 -0.0018374 0.00014673 -0.0021999 0.28643
0.025635 0.0026613 -0.0022987 -0.00086335
-0.0023602 -0.0028068 -0.0035314 -0.00072246 -0.0016532 0.00050962 0.025659 0.0026396
-0.055044 0.22656 0.019739 0.0075093
-0.0038524 -7.9015e-05 -0.0036336 -0.00064867 -0.0011263 -0.00055124 -0.0022708 -0.00081
0.019776 0.0074334 -0.10373 0.29128
1160000000 0.079085 0.29715 0.024351 -0.021052 0.003217 -0.00083679 -0.00019963 -0.0022989
-0.0039592 -0.00067235 -0.0011009 0.0044375
0.024318 -0.021019 -0.092224 0.37278 -0.0040383 -0.029007 -0.0016071 -0.001628
-0.0026909 0.0024864 -0.0013648 0.0021334
0.0032192 -0.00083272 -0.0041544 -0.02903 0.24539 0.2442 -0.000775 0.0017058
-0.00047598 0.0016849 -0.00094014 0.00029218
-0.00023035 -0.0022915 -0.0016209 -0.0016295 -0.00079359 0.0017 0.03892 0.28249
0.021036 -0.013004 -0.0040201 0.0045814
-0.0039585 -0.00064224 -0.0026732 0.0024729 -0.00049292 0.0017176 0.021014 -0.013037
-0.019514 0.23385 0.018189 -0.0019515
-0.0011774 0.0044749 -0.0014051 0.0020844 -0.00095315 0.0003291 -0.0040353 0.0045214
0.018263 -0.0019186 -0.055059 0.29522
1220000000 0.1225 0.28682 0.010981 -0.03053 -0.0014372 -0.0014453 0.00014058 -0.00077386
-0.0025211 0.0022594 0.0012061 0.002014
0.010992 -0.030504 -0.048965 0.38616 -0.017176 -0.021079 -0.0025862 0.0004214
2.8449e-05 0.0029975 -0.00091773 0.0019728
-0.0014448 -0.0014349 -0.017274 -0.021032 0.28431 0.20472 0.00081838 0.0016594
0.00065247 0.0010862 0.00010385 0.00070548
0.00014773 -0.00077981 -0.0025734 0.0004585 0.00081132 0.0016757 0.078321 0.272
0.0096331 -0.019332 0.0015356 0.0011564
-0.0024944 0.0022844 2.6051e-05 0.002987 0.00066694 0.001081 0.0095889 -0.019357
0.0052887 0.24 0.012945 -0.01361
0.0012078 0.0019645 -0.00088634 0.0019593 0.00015017 0.00074737 0.0014896 0.0011733
0.01293 -0.013639 -0.025888 0.31388
1280000000 0.17309 0.26804 -0.0080343 -0.029092 -0.002002 0.0020154 -0.00080359 -0.0019303
-0.00081703 0.0031442 0.0024804 0.0014761
-0.0080064 -0.029067 -0.0022538 0.37863 -0.024161 -0.0079842 -0.00095526 0.0014566
0.0017071 0.001817 0.00064432 0.0021186
-0.0019865 0.0020144 -0.024238 -0.0078922 0.31532 0.16184 0.0015229 3.588e-05
0.0011232 0.00028646 0.00015376 0.00034017
-0.00080547 -0.0019288 -0.00092375 0.0014891 0.001532 3.0299e-05 0.11511 0.25467
-0.00076855 -0.021024 -0.0010932 0.00024659
-0.00079887 0.0031578 0.0017461 0.0018203 0.0011178 0.00025174 -0.00080142 -0.021019
0.042079 0.24298 0.0023226 -0.015539
0.0024888 0.0014551 0.00066708 0.00214 0.00019376 0.00027182 -0.0011143 0.00025217
0.0023198 -0.015504 0.022635 0.31872
1340000000 0.21124 0.23392 -0.017672 -0.019224 0.0003794 0.0042529 -0.0016765 -0.0009242
0.0015467 0.0025503 0.0017558 -0.0014394
-0.017645 -0.019217 0.037488 0.37058 -0.021096 0.0047797 -0.00031677 0.0020954
0.0019187 0.00081326 0.0012379 0.00082528
0.00040388 0.00427 -0.021097 0.0048686 0.33837 0.11294 0.0010797 -0.00088742
0.00060354 -0.00050529 0.00010245 0.00038946
-0.0016973 -0.00093272 -0.00033402 0.0021245 0.0010434 -0.0008989 0.14733 0.23194
-0.010601 -0.017169 0.0006516 0.0011386
0.0015684 0.0025162 0.0019315 0.00080313 0.00061962 -0.00049373 -0.010623 -0.017145
0.072932 0.23514 -0.0046391 -0.013631
0.0017961 -0.0014657 0.0012682 0.00076991 7.5236e-05 0.00033506 0.00062473 0.0011207
-0.0046823 -0.013578 0.061681 0.31504
1400000000 0.24457 0.19694 -0.023879 -0.0076527 0.0048056 0.0032172 -0.0021794 0.00054548
0.0024491 0.00097456 0.00041896 -0.0013807
-0.023841 -0.0076665 0.074347 0.35865 -0.014345 0.012673 0.0014285 0.0015252
0.0014115 -0.00067212 0.0011931 0.00021987
0.0048157 0.003203 -0.014295 0.012757 0.35127 0.05929 0.00018775 -0.0015536
0.00026116 -0.00028227 0.0004023 0.00024694
-0.0021801 0.0005637 0.0014252 0.0015237 0.00019278 -0.0015544 0.17448 0.20223
-0.016632 -0.0097718 -0.00097883 0.00053545
0.0024602 0.00095905 0.0014061 -0.00067714 0.00024744 -0.000277 -0.016674 -0.0097341
0.10519 0.22897 -0.010731 -0.0086489
0.00043536 -0.0013967 0.0011733 0.00018589 0.00040498 0.00024503 -0.0009598 0.00054869
-0.010752 -0.0086288 0.10638 0.30688
1460000000 0.26871 0.15361 -0.020623 0.0050492 0.005299 -0.0016052 -0.0016888 0.0016654
0.0021696 -0.00043945 -0.00023001 -0.00098209
-0.020605 0.0050199 0.10953 0.33732 -0.005275 0.015242 0.0018519 0.00030642
0.00094072 -0.0014793 0.0012645 -0.00052464
0.0052997 -0.0016637 -0.0052142 0.015279 0.35811 0.0043282 -0.0011736 -0.0013601
0.00022816 -0.00024316 0.00070104 -0.00030836
-0.001677 0.001667 0.0018787 0.00028452 -0.001159 -0.0013751 0.19982 0.17302
-0.017536 -0.0022094 -0.00045443 0.0026234
0.0021639 -0.00044878 0.00093192 -0.001489 0.00021198 -0.0002301 -0.017536 -0.0021615
0.13539 0.21294 -0.01245 -0.0021897
-0.0002416 -0.0010148 0.0012297 -0.00053353 0.00072059 -0.00026582 -0.0004484 0.0026588
-0.012436 -0.0022466 0.14088 0.2869
1520000000 0.28072 0.11121 -0.014923 0.01049 0.0032178 -0.0039278 8.3179e-05 0.002748
0.0021246 -0.0017664 -0.0010741 -0.00026493
-0.014918 0.010476 0.1429 0.32291 0.0021393 0.012546 0.0018673 -0.0008303
-4.74e-06 -0.0011921 0.00039508 -0.00097549
0.0031882 -0.0039128 0.0022174 0.012554 0.35021 -0.053933 -0.0010934 -0.00046848
0.00049418 -0.00093639 0.00019131 -0.00017124
8.6717e-05 0.0027318 0.001857 -0.00083618 -0.0010917 -0.00046896 0.2206 0.13466
-0.016202 0.0041396 0.0020136 0.0021767
0.0021225 -0.0017901 2.7039e-06 -0.001197 0.00049899 -0.00092666 -0.016193 0.0041741
0.16259 0.19738 -0.011796 0.0020873
-0.0010739 -0.00026757 0.0003737 -0.00095728 0.00017176 -0.00017238 0.0020017 0.0021344
-0.011802 0.0020915 0.17412 0.26815
1580000000 0.29054 0.066571 -0.0080917 0.01386 -0.0010054 -0.0045488 0.0016242 0.0020234
-0.00014231 -0.0021874 -0.00036995 0.00044543
-0.008094 0.013837 0.17026 0.29961 0.0053593 0.0074941 0.00060824 -0.0018092
-0.00066245 -0.0011175 -0.0002653 -0.00076199
-0.0010352 -0.0045295 0.0053989 0.0074824 0.3287 -0.11059 -0.0017606 0.00055924
-0.00037898 -0.0010977 0.00028105 -0.00065219
0.0016311 0.0020089 0.00059716 -0.0018026 -0.001773 0.00058759 0.23273 0.097533
-0.01212 0.009342 0.0027704 0.00069848
-0.00015964 -0.0021923 -0.00067872 -0.0011126 -0.00040768 -0.0010879 -0.012093 0.0093678
0.18612 0.17913 -0.0090503 0.0079287
-0.0003792 0.00045891 -0.00025176 -0.00076805 0.0003111 -0.00063798 0.0027889 0.00068408
-0.0090147 0.0078568 0.20806 0.24389
1640000000 0.29355 0.02491 -0.0011196 0.012479 -0.0025532 -0.0022536 0.0029731 0.0010063
-0.00056671 -0.0017174 -0.00036755 0.00053908
-0.0011177 0.012479 0.20113 0.27473 0.0056404 0.0027563 -0.00076798 -0.0019651
-0.0011057 -0.00029796 -0.00043792 -0.00071841
-0.0025626 -0.0022691 0.0056678 0.0027258 0.29886 -0.16044 -0.00074574 0.0015874
-0.0010272 -0.00085616 -0.00021332 -0.00049989
0.0029744 0.00098372 -0.00077353 -0.001973 -0.00073751 0.0015494 0.24452 0.050011
-0.0073265 0.010594 0.0026823 -0.0011245
-0.00057303 -0.001713 -0.0011048 -0.00029064 -0.0010607 -0.00087631 -0.0072853 0.010614
0.20844 0.15265 -0.0041866 0.009691
-0.0003874 0.00054901 -0.00045543 -0.00071758 -0.00020923 -0.00045509 0.0027001 -0.0011506
-0.0041868 0.0097058 0.23505 0.21295
1700000000 0.28582 -0.019796 0.0023715 0.0095545 -0.0031981 0.00010399 0.0031179 -0.0014766
-0.0021552 -0.00078962 0.00064924 0.00050261
0.0023611 0.0095477 0.21859 0.24423 0.0033211 -0.0001068 -0.0017176 -0.00062975
-0.00084003 0.00014015 -0.00085322 -0.00046511
-0.0032012 0.00011913 0.0033139 -0.0001285 0.25389 -0.19873 0.00041327 0.0017478
-0.0020841 -7.4032e-05 -0.00027591 -0.00082315
0.0031202 -0.0014751 -0.0017259 -0.00062906 0.00040831 0.0017523 0.24073 0.0031739
-0.0038473 0.011038 0.0015877 -0.00231
-0.0021498 -0.00076845 -0.00083516 0.00015329 -0.0020664 -8.7101e-05 -0.0038054 0.011062
0.225 0.13166 0.00058421 0.0096235
0.0006797 0.00048432 -0.00085726 -0.00043183 -0.0003426 -0.00081321 0.0015558 -0.0023209
0.00060987 0.009608 0.25249 0.17978
1760000000 0.27542 -0.067835 0.004678 0.0061462 -0.0020974 0.00088851 0.0011367 -0.0036428
-0.001559 0.00053992 0.00035023 -0.00057471
0.0046678 0.0061286 0.24651 0.20541 0.00079669 -0.0016666 -0.0013681 0.00030065
-0.00091131 0.0010069 -0.00056469 0.00029405
-0.0020494 0.00086832 0.00078754 -0.0016621 0.20567 -0.23016 0.0014638 0.0011883
-0.0010551 0.0015681 -0.0013514 -0.00057204
0.001102 -0.003679 -0.0013582 0.00029226 0.0014959 0.0011818 0.23469 -0.045648
-0.00019083 0.0098778 -0.00014218 -0.0026127
-0.0015494 0.00055489 -0.00089231 0.0010279 -0.0010649 0.0016097 -0.00015604 0.0098762
0.23951 0.097859 0.0043584 0.0068351
0.00035011 -0.00062766 -0.00057449 0.00027326 -0.0013099 -0.00056566 -0.00016956 -0.0026288
0.0043826 0.0068141 0.26695 0.14277
1820000000 0.25072 -0.10575 0.0047458 0.0024443 6.1352e-05 0.0021423 -0.0012061 -0.0030626
-0.0013041 0.0012055 -6.3817e-05 -0.00020192
0.0047486 0.0024497 0.25696 0.175 -0.0013058 -9.2634e-05 -0.0012752 0.0011359
0.00011052 0.0011932 -0.00062337 0.00046927
3.5837e-05 0.0021233 -0.0012886 -8.8021e-05 0.15417 -0.24477 0.0016687 0.00023658
-4.1743e-05 0.0024532 -0.0017351 0.00029162
-0.0012396 -0.0030772 -0.0012575 0.0011506 0.0016707 0.00020611 0.20662 -0.092541
0.0017472 0.0081955 -0.0017621 -0.0017788
-0.0013172 0.0012371 0.00011577 0.0011894 -1.4191e-05 0.0024366 0.0017567 0.0081928
0.25512 0.067855 0.0050704 0.0031433
-0.00010385 -0.0001651 -0.00062553 0.00048717 -0.0017049 0.0003518 -0.0017929 -0.0017413
0.0050559 0.0031275 0.27059 0.10681
1880000000 0.21583 -0.14501 0.0024475 0.00010149 -0.00059068 0.0022212 -0.0029724 -0.0021099
-0.00010976 0.0019945 0.00026603 -0.00062111
0.0024602 0.00010528 0.26226 0.12965 -0.0033652 0.0023064 -8.603e-05 0.001714
0.00066733 0.0010681 0.00011189 0.00099179
-0.00055148 0.0022045 -0.0033751 0.0023251 0.10191 -0.25129 0.0016503 -0.0012246
0.0018017 0.0017703 -0.0010966 0.0016362
-0.0029927 -0.0020783 -7.4517e-05 0.0016974 0.0016403 -0.0012273 0.16955 -0.13278
0.0029162 0.0056892 -0.0024031 0.00018232
-0.00010364 0.0019827 0.00068796 0.0010667 0.0017907 0.0017607 0.0029587 0.0056694
0.25843 0.037392 0.0049503 0.00091244
0.00022197 -0.00063811 0.00013823 0.00098705 -0.0010913 0.0016377 -0.0024086 0.00019954
0.0049811 0.00092326 0.27157 0.073953
1940000000 0.17759 -0.17185 2.8073e-05 -0.0016055 0.0015159 0.0019738 -0.0035736 0.00058138
0.001655 0.0012105 -0.0007621 -0.00047735
3.236e-05 -0.001619 0.26486 0.097083 -0.0016077 0.0050438 0.0010768 0.0011889
0.0017206 0.00028068 0.00086985 0.00021531
0.0015209 0.0019198 -0.0015709 0.0050424 0.059508 -0.24303 0.00022549 -0.0020841
0.0023747 0.00011593 0.00036073 0.0017212
-0.0035593 0.00058525 0.0011015 0.001181 0.00026828 -0.0020827 0.1199 -0.16699
0.0024784 0.003812 -0.0013855 0.001298
0.0016558 0.0011946 0.0017208 0.00027061 0.0023949 0.00012227 0.0024759 0.0038377
0.26177 -0.0014024 0.0036162 -0.0024263
-0.00077941 -0.00043565 0.00088353 0.00022976 0.00041463 0.0016963 -0.0014038 0.0013202
0.0036208 -0.0024373 0.26272 0.037313
2000000000 0.13037 -0.18611 -0.003826 0.00056679 0.0029439 0.0014448 -0.0022637 0.0035597
0.0013808 1.3769e-05 -0.00078293 0.00058974
-0.0038204 0.00055203 0.25077 0.061248 -0.00061566 0.0070489 0.001402 0.00029838
0.0010673 -0.0011995 0.00034339 8.3188e-05
0.0029473 0.0014313 -0.00057232 0.0070602 0.017205 -0.22832 -0.0014995 -0.0011689
0.0018151 -0.0014875 0.0017544 0.0013792
-0.0022799 0.003579 0.0014419 0.00031881 -0.0014742 -0.001168 0.065626 -0.17972
0.00096732 0.0027007 -0.00014069 0.0018419
0.0013506 -3.1889e-05 0.0010548 -0.001229 0.0018494 -0.0014743 0.0010089 0.0027053
0.25643 -0.034638 0.0003195 -0.0033073
