!Keysight Technologies,M9804A,MY58100912,A.14.10.03
!Date: Thursday, April 27, 2023 10:28:33
!Correction: S11(C  6-Port  ) 
!S12(C  6-Port  ) 
!S13(C  6-Port  ) 
!S14(C  6-Port  ) 
!S15(C  6-Port  ) 
!S16(C  6-Port  ) 
!S21(C  6-Port  ) 
!S22(C  6-Port  ) 
!S23(C  6-Port  ) 
!S24(C  6-Port  ) 
!S25(C  6-Port  ) 
!S26(C  6-Port  ) 
!S31(C  6-Port  ) 
!S32(C  6-Port  ) 
!S33(C  6-Port  ) 
!S34(C  6-Port  ) 
!S35(C  6-Port  ) 
!S36(C  6-Port  ) 
!S41(C  6-Port  ) 
!S42(C  6-Port  ) 
!S43(C  6-Port  ) 
!S44(C  6-Port  ) 
!S45(C  6-Port  ) 
!S46(C  6-Port  ) 
!S51(C  6-Port  ) 
!S52(C  6-Port  ) 
!S53(C  6-Port  ) 
!S54(C  6-Port  ) 
!S55(C  6-Port  ) 
!S56(C  6-Port  ) 
!S61(C  6-Port  ) 
!S62(C  6-Port  ) 
!S63(C  6-Port  ) 
!S64(C  6-Port  ) 
!S65(C  6-Port  ) 
!S66(C  6-Port  ) 
!S6P File: Measurement: :
# Hz S  RI   R 50
500000000 -0.32685 -0.056826 -0.010597 -0.0013876 -0.0082095 0.01241 -0.0028613 0.011641
0.012117 0.0045925 -0.0047611 0.0085654
-0.01063 -0.0013403 -0.4097 -0.071286 0.0074986 -0.010921 0.0012771 0.011376
0.0072117 0.0024386 0.0014418 0.012948
-0.0084368 0.01255 0.0074974 -0.010985 -0.25405 0.19358 0.0062579 0.0029393
-0.0015101 0.0076912 0.00063357 0.011852
-0.0029062 0.011656 0.0013301 0.011481 0.006248 0.0030441 -0.32844 0.04368
-0.019835 -0.0057675 0.016229 0.027831
0.012398 0.0044375 0.0072367 0.0023263 -0.0016858 0.0078386 -0.019777 -0.0057256
-0.25622 -0.16067 -0.027158 0.0047419
-0.004386 0.0083683 0.00135 0.013191 0.0004164 0.011893 0.016269 0.027744
-0.027266 0.0048623 -0.25487 -0.15004
560000000 -0.31243 0.10801 -0.022852 -0.065138 4.2808e-05 0.013345 0.0047294 0.011425
0.010662 0.0049985 0.011731 0.0081049
-0.02262 -0.065138 -0.36842 0.090796 -0.04173 -0.038078 0.013728 0.0034892
-0.012933 -0.0028414 0.0047329 -0.0017747
0.00016261 0.013231 -0.042221 -0.038117 -0.17914 0.24118 -0.00020899 -0.0041633
0.017246 0.0043485 0.0072442 -0.0066502
0.0045748 0.011567 0.014099 0.0034355 -0.00038714 -0.0043242 -0.30427 0.13386
0.0026869 -0.022803 0.0062461 -0.020905
0.0105 0.0050175 -0.013061 -0.0025352 0.017198 0.0042132 0.0022978 -0.022989
-0.30649 0.015267 0.0065185 -0.04679
0.012002 0.0083992 0.0049782 -0.0014717 0.0069631 -0.0066837 0.006353 -0.021016
0.0064896 -0.046761 -0.3245 -0.0019241
620000000 -0.2726 0.085535 -0.024364 0.009258 0.0025719 0.0087303 0.007587 -0.0048398
0.011932 -0.0007924 -0.00030152 -0.0015867
-0.024309 0.0091872 -0.39975 0.038354 -0.019786 0.00078756 -0.0017169 -0.0017469
0.011036 -0.0064056 0.00029045 -0.0030377
0.0027111 0.0087234 -0.01992 0.00067987 -0.15312 0.25008 -0.00066986 -0.0051952
-0.0043814 -0.0025779 0.008528 -0.0029382
0.007674 -0.0051841 -0.0017731 -0.0016697 -0.00085099 -0.0049967 -0.26343 0.14462
-0.040108 -0.018658 0.013143 0.030245
0.012035 -0.00076728 0.011054 -0.0065537 -0.0041069 -0.0027976 -0.040063 -0.018382
-0.23027 -0.019956 -0.043193 0.013202
-2.4046e-05 -0.0017147 0.0003244 -0.0030294 0.0084651 -0.0027127 0.013196 0.030008
-0.042906 0.013258 -0.24277 -0.036251
680000000 -0.23722 0.17754 -0.025952 -0.014296 0.005068 0.0055646 0.0011495 -0.006714
-0.0030473 -0.010845 0.0058655 -0.0054712
-0.025863 -0.014231 -0.38964 0.14183 -0.032539 -0.0011279 -0.0018113 -0.00023134
-0.0020259 -0.0089174 -0.00073671 -0.0012967
0.0051125 0.0056032 -0.032486 -0.00097793 -0.10669 0.27398 -0.000784 -6.6435e-05
-0.0016931 0.00072562 -0.0028992 -0.0088377
0.0010931 -0.0065882 -0.0017766 -0.00023415 -0.00079051 -2.9382e-05 -0.2207 0.19901
-0.025013 -0.0058902 -0.0078973 -0.012064
-0.0028859 -0.010717 -0.0021313 -0.0089709 -0.0016847 0.00074879 -0.025028 -0.00574
-0.27003 0.079875 -0.0065647 -0.0047541
0.0059214 -0.005437 -0.00063577 -0.0012594 -0.0028296 -0.0087725 -0.0079579 -0.011881
-0.0065675 -0.0047036 -0.25883 0.068811
740000000 -0.1915 0.17182 -0.040787 0.027016 0.013239 -0.0036071 -9.2039e-05 -0.0043041
-0.0056441 -0.0021071 -0.0062758 0.0024793
-0.040563 0.027097 -0.33543 0.16147 -0.037055 0.034285 -0.00018989 -0.0063094
-0.011409 0.0068504 -0.0016432 -0.006146
0.013308 -0.0035404 -0.03699 0.034542 -0.072975 0.27398 -0.0017742 0.0027974
-0.002327 -0.0045145 -0.0013352 0.00033102
-0.00011141 -0.0043744 -0.0001673 -0.0062722 -0.0018036 0.0027941 -0.20313 0.20491
-0.041347 -0.0049403 0.022246 0.017167
-0.005108 -0.0018686 -0.011431 0.0069143 -0.0023947 -0.0046787 -0.041581 -0.0049271
-0.17647 0.10151 -0.040651 0.0011378
-0.0062927 0.0025527 -0.0017757 -0.0060485 -0.001369 0.00042407 0.022291 0.017167
-0.040706 0.0011919 -0.25244 0.072799
800000000 -0.16454 0.21543 -0.0225 0.016324 0.0053582 -0.010076 -0.0042224 -0.0023215
-0.004325 0.0018139 0.004409 0.00074079
-0.022459 0.016338 -0.34331 0.23207 -0.0081973 0.034592 -0.0022912 0.0021369
-0.00048926 0.0021467 0.00060547 0.0053378
0.0052245 -0.010105 -0.0081457 0.034613 -0.035139 0.30063 0.00068869 0.0013282
0.00014008 0.0033208 -0.0018699 0.00078964
-0.0042652 -0.0023392 -0.0023177 0.0021251 0.00071617 0.001328 -0.17309 0.23379
-0.027725 0.015597 0.015149 -0.010997
-0.0043122 0.0018861 -0.00050412 0.0021187 0.00014959 0.0033893 -0.027734 0.015674
-0.21151 0.13013 -0.018089 0.021005
0.0044898 0.0007074 0.00061929 0.0054481 -0.0017726 0.00084483 0.015126 -0.010943
-0.018102 0.020964 -0.25083 0.12518
860000000 -0.12858 0.23743 -0.017705 0.030821 -0.0034215 -0.0095438 -0.0019515 0.0001885
0.0036957 0.0044383 -0.0044029 -0.0032236
-0.017682 0.030778 -0.29462 0.2769 0.0081365 0.034273 0.00025227 0.0019947
0.0038276 0.00061889 0.0029739 -1.8943e-05
-0.0034639 -0.0095278 0.0082099 0.034322 0.014361 0.31098 -0.0005394 -0.00015886
0.00239 -0.0010673 0.0013153 0.004221
-0.0019931 0.00021974 0.00025897 0.0020435 -0.00051877 -0.00018777 -0.13472 0.24529
-0.016498 0.019755 -0.0065776 -0.0096787
0.0038338 0.0043365 0.003795 0.00062227 0.0023319 -0.001058 -0.016404 0.01981
-0.1566 0.17701 -0.022774 0.01671
-0.0045722 -0.0033618 0.0030084 -1.7269e-05 0.0012706 0.0042879 -0.0067725 -0.0099239
-0.02273 0.01656 -0.2006 0.17482
920000000 -0.10584 0.25981 0.0049963 0.039313 -0.0091306 -0.004076 -0.0019672 0.0015241
0.00081858 0.0016866 0.0025938 -0.0011919
0.0050069 0.039308 -0.26794 0.29788 0.028345 0.02268 0.0013365 0.0012035
0.0068409 -0.00059986 0.0039478 -0.0027879
-0.0091567 -0.004051 0.028424 0.02265 0.060463 0.31227 0.0018608 0.00017674
0.0007393 -0.00021479 0.00096193 -0.0012679
-0.0019964 0.0015601 0.0013379 0.0011876 0.0018507 0.00014743 -0.1103 0.26156
-0.0083329 0.031165 0.0042935 -0.0061517
0.00078567 0.001582 0.0068811 -0.00059128 0.00076772 -0.00022833 -0.008286 0.031246
-0.14287 0.18285 -0.0013032 0.027591
0.0026646 -0.0013075 0.004064 -0.0026886 0.00094523 -0.0012149 0.004239 -0.0061069
-0.0014094 0.027628 -0.21133 0.18655
980000000 -0.058638 0.28267 0.017401 0.030013 -0.008791 0.0045733 0.0017779 0.0035999
0.0034663 -0.0016625 -0.0032169 -0.0026333
0.017381 0.029978 -0.21563 0.33537 0.033308 0.0048259 0.0019994 -0.00010243
0.0014371 -0.0056174 -7.1455e-05 -0.0024997
-0.0087852 0.0046108 0.033324 0.0047651 0.10725 0.30783 0.00064578 -0.0010983
0.00040112 -0.0017693 0.0015047 -0.00019556
0.0017917 0.0036098 0.001981 -0.00010849 0.00065589 -0.0011092 -0.070555 0.27288
0.01035 0.028546 -0.0095009 -0.0079319
0.0033853 -0.0016713 0.0013827 -0.0056973 0.00041531 -0.0017948 0.010393 0.02852
-0.10898 0.20951 0.0068346 0.019062
-0.0033217 -0.0026495 -0.0001636 -0.0025851 0.0015332 -0.00019778 -0.009544 -0.0079444
0.006857 0.019093 -0.17032 0.23794
1040000000 -0.016894 0.29041 0.033276 0.018959 -0.00083306 0.007357 0.0022205 0.00061386
0.00058976 -0.0033214 -0.00029006 -0.0013264
0.03325 0.019011 -0.17971 0.34811 0.029542 -0.014718 0.0015368 -0.0018451
-0.0023693 -0.0024831 -0.0011999 -0.0029
-0.00077537 0.0073566 0.029545 -0.014806 0.15443 0.2938 -0.00050174 -0.0015817
-0.0015179 -0.00099131 -0.0004792 -0.0011715
0.0022313 0.00065297 0.0015716 -0.0018689 -0.00050764 -0.0015655 -0.042425 0.2813
0.02094 0.016543 -0.0014254 0.0012855
0.00055486 -0.0032495 -0.0023607 -0.0024804 -0.0015359 -0.00096855 0.020939 0.016492
-0.07552 0.21503 0.014233 0.017938
-0.00036537 -0.0012207 -0.0012073 -0.0029008 -0.00052428 -0.0011536 -0.0014713 0.0012964
0.014159 0.017995 -0.14827 0.25757
1100000000 0.027176 0.30055 0.036488 -0.0037758 0.0035 0.0038123 0.0023835 -0.00092527
-0.0023745 -0.0028303 -0.0039392 -8.5243e-05
0.036467 -0.003763 -0.13739 0.36793 0.015189 -0.027734 -5.1628e-05 -0.0017452
-0.0034485 -0.00078347 -0.0036796 -0.0005122
0.0035217 0.003776 0.015088 -0.027827 0.20003 0.27448 -0.0018283 0.00014527
-0.0016595 0.00053395 -0.0010583 -0.00059156
0.0023612 -0.00091774 -6.0733e-05 -0.0017389 -0.0018436 0.0001469 -0.0020044 0.28593
0.025127 0.0028604 -0.0022659 -0.00093933
-0.0024018 -0.0028298 -0.0034642 -0.00073097 -0.0016306 0.00052128 0.025178 0.0028203
-0.055742 0.22707 0.019622 0.0077593
-0.0039703 -4.9855e-05 -0.0036951 -0.00050197 -0.0010771 -0.00062961 -0.0022125 -0.00093581
0.019648 0.0077811 -0.10467 0.2913
1160000000 0.079314 0.2972 0.024414 -0.020449 0.0033221 -0.00092793 -0.00013721 -0.0023797
-0.003739 -0.00073636 -0.0014042 0.0042583
0.024412 -0.020405 -0.091967 0.37229 -0.0036744 -0.028736 -0.0015536 -0.0015223
-0.0024614 0.0023967 -0.0016354 0.0020597
0.0033241 -0.00099683 -0.0037936 -0.028743 0.24458 0.24433 -0.00078771 0.0015945
-0.00058292 0.0015782 -0.0010406 0.0003883
-0.00018809 -0.002414 -0.0015318 -0.0015456 -0.00080809 0.0015951 0.038931 0.28184
0.020727 -0.012388 -0.0039753 0.0050258
-0.0037611 -0.00069805 -0.002442 0.0023984 -0.00060101 0.0016011 0.020739 -0.012428
-0.019189 0.23443 0.017894 -0.0013015
-0.0014027 0.0042292 -0.0016047 0.0020436 -0.0010509 0.00039272 -0.0040898 0.0050196
0.017861 -0.0012499 -0.054111 0.29545
1220000000 0.12253 0.28637 0.011357 -0.030154 -0.001446 -0.0015479 8.6092e-05 -0.00072698
-0.0025318 0.0021823 0.0012254 0.0019881
0.011341 -0.030111 -0.04904 0.38559 -0.016758 -0.021035 -0.002543 0.00048205
-0.00011037 0.0029398 -0.0008871 0.0019001
-0.0014735 -0.0015445 -0.016868 -0.020988 0.28367 0.20527 0.00068497 0.0016133
0.00048932 0.0011244 9.6296e-05 0.00062268
8.51e-05 -0.00072375 -0.0025295 0.00049293 0.00067646 0.0016157 0.078033 0.2717
0.0096574 -0.018498 0.0017686 0.0011012
-0.0024819 0.0021391 -8.9099e-05 0.0029454 0.00049015 0.0011416 0.0096439 -0.018484
0.005848 0.2399 0.013101 -0.01296
0.001222 0.0020129 -0.00084602 0.0018947 0.00010965 0.00066025 0.0017786 0.0010948
0.013112 -0.012934 -0.026214 0.31392
1280000000 0.17304 0.26764 -0.007483 -0.028893 -0.002084 0.0017999 -0.00079689 -0.0020726
-0.00070036 0.0030432 0.002413 0.0013482
-0.0074651 -0.028861 -0.002632 0.37814 -0.023679 -0.0081882 -0.0010538 0.0013698
0.0016108 0.0016907 0.00056082 0.0020747
-0.0020814 0.0018047 -0.023741 -0.0081046 0.3152 0.16271 0.0014582 4.9637e-05
0.0010189 0.00027246 0.00019423 0.00036752
-0.00080337 -0.002065 -0.0010529 0.0013733 0.0014454 4.2492e-05 0.11482 0.25437
-0.00029758 -0.020252 -0.00097923 0.0001585
-0.00068549 0.0030585 0.0016696 0.0017 0.001021 0.00024742 -0.00033676 -0.020268
0.042693 0.24252 0.0024523 -0.014964
0.0024053 0.0013231 0.0005605 0.0020692 0.0001622 0.00035423 -0.00097127 0.00014876
0.0024492 -0.014967 0.022432 0.31886
1340000000 0.21083 0.23349 -0.017121 -0.01951 0.00016194 0.0041854 -0.0015971 -0.00082822
0.0013406 0.0025131 0.0018468 -0.001342
-0.017094 -0.019492 0.036717 0.37036 -0.020982 0.0043438 -0.00032986 0.0020325
0.0018316 0.00087197 0.0011443 0.00087689
0.00016632 0.0041715 -0.020991 0.0044253 0.3388 0.11376 0.0010415 -0.00085041
0.00061886 -0.00058934 0.00025003 0.00032177
-0.0016022 -0.00084354 -0.00031693 0.0020406 0.0010587 -0.00083225 0.14667 0.23169
-0.0097597 -0.0171 0.00060472 0.00090258
0.0013652 0.002502 0.0018102 0.00086289 0.0006155 -0.00059124 -0.0097944 -0.017077
0.072873 0.23416 -0.0040984 -0.013449
0.0018062 -0.0013164 0.0011592 0.00087232 0.00026976 0.00028934 0.00059337 0.00090546
-0.0041078 -0.013409 0.060773 0.31505
1400000000 0.2439 0.19677 -0.02363 -0.008211 0.0046318 0.0032692 -0.0022158 0.00042053
0.0023695 0.00096448 0.00041928 -0.0013987
-0.023587 -0.0082157 0.073613 0.35878 -0.01441 0.012113 0.0012592 0.0015172
0.0013662 -0.00057269 0.0011364 0.00024178
0.0046301 0.0032284 -0.014371 0.012196 0.35198 0.059543 0.00015601 -0.0015322
0.00017703 -0.00033782 0.00033924 0.00032993
-0.0021988 0.00043358 0.001276 0.0015212 0.00015821 -0.0015276 0.17385 0.20246
-0.015809 -0.01009 -0.0010401 0.00024197
0.0023642 0.00095381 0.0013683 -0.00057968 0.00020778 -0.00034879 -0.015823 -0.010075
0.10478 0.22814 -0.010064 -0.0086302
0.00036869 -0.0014188 0.0011464 0.00023162 0.00034382 0.00029651 -0.0010342 0.00022928
-0.010044 -0.0086695 0.10547 0.30714
1460000000 0.26815 0.1538 -0.020619 0.0043367 0.0050526 -0.0014394 -0.0017769 0.0017294
0.0020514 -0.00029531 -0.00010784 -0.00092979
-0.020613 0.004318 0.1089 0.33784 -0.0057073 0.014967 0.0018705 0.00034259
0.0011097 -0.0013762 0.0012958 -0.00047924
0.0050419 -0.0014471 -0.0056488 0.015027 0.35886 0.0039961 -0.0010495 -0.0013981
0.00019953 -0.00027305 0.00057827 -0.00031172
-0.0017776 0.0017355 0.0018811 0.00034797 -0.0010421 -0.0013911 0.19926 0.17364
-0.017042 -0.0030136 -0.00052487 0.0024826
0.0020707 -0.00030924 0.0011054 -0.00139 0.00020912 -0.0002607 -0.017054 -0.0029795
0.13466 0.2124 -0.011648 -0.0026463
-7.2767e-05 -0.00087677 0.0012796 -0.00053394 0.00060078 -0.00033548 -0.00051817 0.0024708
-0.011675 -0.0026454 0.14035 0.2873
1520000000 0.28035 0.11184 -0.01528 0.0099562 0.003273 -0.0036898 4.5795e-05 0.002678
0.0020826 -0.0016444 -0.00101 -0.00031658
-0.015269 0.0099474 0.14259 0.32359 0.0017287 0.012508 0.0018927 -0.00076183
0.00011426 -0.001176 0.00042966 -0.00097767
0.0032461 -0.0037038 0.0017989 0.01251 0.35046 -0.054716 -0.0010926 -0.00046901
0.00049739 -0.000816 0.0001416 -0.00012172
5.8093e-05 0.0026846 0.0018996 -0.00077841 -0.0011025 -0.00048152 0.22041 0.13547
-0.016269 0.0030734 0.0017573 0.0022049
0.0020852 -0.0016672 9.9317e-05 -0.0011721 0.00046292 -0.00081748 -0.016258 0.0031217
0.16153 0.19702 -0.011424 0.0014556
-0.0010144 -0.00033633 0.00044333 -0.00094416 0.00015953 -0.00010229 0.0017698 0.0022015
-0.011445 0.0014669 0.17395 0.26862
1580000000 0.29053 0.067341 -0.0087132 0.013603 -0.0008879 -0.0043717 0.0015441 0.0020922
6.0523e-06 -0.0020764 -0.00030175 0.00045083
-0.0087242 0.013582 0.17026 0.30035 0.0050538 0.007697 0.00067033 -0.0017699
-0.00068408 -0.0011828 -0.00021641 -0.00070603
-0.00087509 -0.0043462 0.0050823 0.0076824 0.32846 -0.11098 -0.0017473 0.00048045
-0.00036762 -0.0011862 0.00026007 -0.00054006
0.0015531 0.0021097 0.0006586 -0.0017734 -0.0017596 0.00047514 0.23296 0.098405
-0.012705 0.0084596 0.0025133 0.00063121
2.2532e-06 -0.0020708 -0.00068272 -0.0011844 -0.00035648 -0.0011799 -0.012694 0.0085103
0.18501 0.17944 -0.0090544 0.007104
-0.00026676 0.00041604 -0.00020458 -0.0007368 0.00028624 -0.00055811 0.002514 0.00062848
-0.009078 0.0070985 0.20806 0.24431
1640000000 0.29408 0.025456 -0.0017918 0.012653 -0.0024404 -0.0022943 0.0029732 0.0010838
-0.0004755 -0.0017745 -0.00038103 0.00039777
-0.0017862 0.012651 0.20149 0.27531 0.0055632 0.0029415 -0.00069166 -0.0020041
-0.0011108 -0.00035652 -0.00037242 -0.00075254
-0.0024758 -0.0022812 0.0055755 0.002916 0.29902 -0.161 -0.00075773 0.0015856
-0.00087104 -0.00088187 -0.00013258 -0.00047427
0.0029762 0.0010631 -0.00070495 -0.0020029 -0.00076579 0.0015581 0.24533 0.050597
-0.0082452 0.010422 0.0024688 -0.0010421
-0.00047165 -0.0017864 -0.0011161 -0.00034185 -0.0009364 -0.00088469 -0.0082303 0.010454
0.20754 0.15342 -0.004603 0.0091039
-0.00033876 0.0004257 -0.00038042 -0.00074777 -0.00010252 -0.00049207 0.0024842 -0.0010735
-0.0046065 0.009116 0.23507 0.21289
1700000000 0.28654 -0.019505 0.0019578 0.010073 -0.0031586 0.00031543 0.0032183 -0.0014774
-0.002061 -0.00088684 0.00048824 0.00050955
0.0019506 0.010065 0.21912 0.24463 0.0032785 0.000204 -0.0016 -0.00068511
-0.00084275 0.00021563 -0.00086551 -0.00051818
-0.0031651 0.00032674 0.0032651 0.00017836 0.25358 -0.19943 0.00045073 0.001657
-0.0019953 -0.00013931 -0.00036293 -0.00078582
0.0032021 -0.0014975 -0.001609 -0.00067247 0.00045594 0.0016678 0.2417 0.0030594
-0.0046755 0.011277 0.001444 -0.0020466
-0.0020611 -0.00089204 -0.00085392 0.00020708 -0.0020107 -0.00014815 -0.0046488 0.011287
0.22438 0.1326 -0.00011452 0.0092287
0.00052357 0.00052736 -0.00086297 -0.0005118 -0.0003874 -0.00080467 0.0014117 -0.0020354
-0.00011439 0.0092396 0.25224 0.17991
1760000000 0.27608 -0.068107 0.004616 0.0066523 -0.0018261 0.0008099 0.001247 -0.0036917
-0.0015567 0.0004443 0.00024923 -0.00055137
0.004617 0.0066496 0.24718 0.20545 0.00087636 -0.0014233 -0.0013663 0.00021274
-0.00084388 0.0010317 -0.00050882 0.00027627
-0.0017718 0.00083299 0.00085629 -0.0014324 0.20461 -0.23064 0.0014096 0.0010935
-0.0011068 0.0014167 -0.001214 -0.00059706
0.0012299 -0.0036967 -0.0013612 0.00022436 0.0014137 0.0011002 0.2355 -0.045852
-0.00067339 0.010677 -0.00011382 -0.0023982
-0.0015245 0.00046626 -0.00084707 0.0010593 -0.0011319 0.001403 -0.0006342 0.010671
0.2394 0.098934 0.003702 0.0067861
0.00025519 -0.0005451 -0.00051449 0.00029131 -0.0011915 -0.00058918 -8.408e-05 -0.0024165
0.0037071 0.006798 0.26673 0.14298
1820000000 0.25117 -0.10634 0.00496 0.0028463 0.00016901 0.0019587 -0.0011246 -0.003171
-0.0013328 0.0012274 -7.1332e-05 -0.000185
0.0049633 0.0028408 0.25749 0.17478 -0.0011632 0.00015599 -0.0013064 0.0011232
0.00015978 0.0011968 -0.00069871 0.00032309
0.00017845 0.0019728 -0.0011875 0.00016221 0.15331 -0.24443 0.0017931 0.00020359
-0.00013523 0.0023713 -0.0016789 0.00019672
-0.001126 -0.0031568 -0.0013051 0.0011426 0.0017949 0.00020952 0.20725 -0.093523
0.0018216 0.0088391 -0.0016018 -0.0014853
-0.0013418 0.0012417 0.00017125 0.0012012 -0.00012084 0.0023775 0.001847 0.0088419
0.25544 0.068749 0.0045384 0.0035647
-6.8299e-05 -0.00018456 -0.0006841 0.00032541 -0.001673 0.0001892 -0.0016595 -0.0014635
0.0045322 0.0035428 0.27027 0.10677
1880000000 0.21575 -0.14589 0.0026654 0.00029164 -0.00066682 0.0019847 -0.003175 -0.0020992
-0.00021321 0.0020556 0.00030083 -0.00075819
0.0026769 0.00028944 0.26253 0.12921 -0.0031091 0.0024374 -0.000205 0.0016979
0.00069172 0.00098766 5.0378e-06 0.00099237
-0.00065065 0.0019737 -0.0030983 0.002454 0.10135 -0.25066 0.0014784 -0.0012333
0.0015797 0.0017688 -0.0011558 0.0015503
-0.0032085 -0.0020876 -0.00019568 0.0016863 0.0015085 -0.0012272 0.16938 -0.13371
0.0032055 0.0060854 -0.0020027 0.00023404
-0.00019237 0.0020402 0.00070374 0.00098618 0.0015822 0.0017957 0.0032306 0.0060917
0.25912 0.038085 0.0046851 0.0014975
0.00033859 -0.00073485 -9.2565e-06 0.0010112 -0.0011491 0.0015587 -0.0020064 0.00022235
0.0047231 0.0014961 0.2711 0.074246
1940000000 0.1773 -0.17248 0.00038724 -0.0015332 0.0012512 0.0019231 -0.0036948 0.00058457
0.0015561 0.0012888 -0.00068895 -0.00064012
0.00038421 -0.0015308 0.26498 0.096599 -0.0013002 0.0050124 0.00099765 0.001264
0.0016106 0.00021687 0.00081722 0.00029512
0.0012089 0.0019225 -0.0012668 0.0050434 0.059333 -0.24215 7.3395e-05 -0.0019818
0.0023543 0.00021489 0.0002288 0.0016777
-0.0037008 0.00062158 0.0010103 0.0012756 8.4238e-05 -0.0019985 0.11916 -0.16748
0.0028274 0.0039771 -0.0012732 0.0011517
0.0015647 0.0012694 0.0016254 0.00019642 0.0023135 0.0002062 0.0028491 0.0040062
0.26281 -0.0011298 0.0035985 -0.0018742
-0.0006999 -0.00061907 0.00082704 0.00029007 0.00018788 0.0017044 -0.0012749 0.0011827
0.0036123 -0.001868 0.26246 0.037647
2000000000 0.13006 -0.18649 -0.0034625 0.00039664 0.0027424 0.0016089 -0.0021558 0.0035402
0.0014861 0.00016907 -0.00067172 0.00050241
-0.003475 0.00037078 0.25066 0.060672 -0.00039831 0.006762 0.0015032 0.00038112
0.0010068 -0.0011342 0.00040137 0.0001183
0.0027012 0.0015833 -0.00034202 0.0067799 0.017524 -0.22759 -0.0012382 -0.0010149
0.0019838 -0.0013056 0.001701 0.0015725
-0.0021348 0.003557 0.0015152 0.00038089 -0.001241 -0.00098943 0.064568 -0.17995
0.0010974 0.0028244 -8.2139e-05 0.0019456
0.0014963 0.00017627 0.00098375 -0.0011387 0.0020109 -0.0012945 0.0011268 0.0028392
0.25711 -0.034636 0.00041399 -0.0025154
