!Keysight Technologies,M9804A,MY58100912,A.14.10.03
!Date: Thursday, April 27, 2023 10:28:33
!Correction: S11(C  6-Port  ) 
!S12(C  6-Port  ) 
!S13(C  6-Port  ) 
!S14(C  6-Port  ) 
!S15(C  6-Port  ) 
!S16(C  6-Port  ) 
!S21(C  6-Port  ) 
!S22(C  6-Port  ) 
!S23(C  6-Port  ) 
!S24(C  6-Port  ) 
!S25(C  6-Port  ) 
!S26(C  6-Port  ) 
!S31(C  6-Port  ) 
!S32(C  6-Port  ) 
!S33(C  6-Port  ) 
!S34(C  6-Port  ) 
!S35(C  6-Port  ) 
!S36(C  6-Port  ) 
!S41(C  6-Port  ) 
!S42(C  6-Port  ) 
!S43(C  6-Port  ) 
!S44(C  6-Port  ) 
!S45(C  6-Port  ) 
!S46(C  6-Port  ) 
!S51(C  6-Port  ) 
!S52(C  6-Port  ) 
!S53(C  6-Port  ) 
!S54(C  6-Port  ) 
!S55(C  6-Port  ) 
!S56(C  6-Port  ) 
!S61(C  6-Port  ) 
!S62(C  6-Port  ) 
!S63(C  6-Port  ) 
!S64(C  6-Port  ) 
!S65(C  6-Port  ) 
!S66(C  6-Port  ) 
!S6P File: Measurement: :
# Hz S  RI   R 50
500000000 -0.32785 -0.057152 -0.010711 -0.0015026 -0.0084602 0.012552 -0.0038775 0.01261
0.011817 0.0044743 -0.0044885 0.0093622
-0.010747 -0.0015527 -0.41012 -0.069947 0.0071536 -0.010693 0.00066557 0.012436
0.0081981 0.0027963 0.0015229 0.014102
-0.0083868 0.012608 0.0072068 -0.010731 -0.25562 0.1944 0.0066621 0.0029775
-0.00094184 0.0082514 0.0016492 0.010777
-0.0037488 0.012617 0.00071057 0.012495 0.006677 0.0029845 -0.33 0.044889
-0.019802 -0.0054034 0.014578 0.029502
0.011812 0.0044507 0.008141 0.0028518 -0.0009754 0.0082909 -0.01984 -0.0055126
-0.25546 -0.16219 -0.027867 0.0052724
-0.0046044 0.009533 0.0014441 0.014062 0.0015077 0.010769 0.014566 0.029402
-0.027737 0.0053027 -0.25583 -0.14521
560000000 -0.31159 0.10877 -0.023553 -0.065778 0.0010351 0.012905 0.0043334 0.01144
0.011021 0.0027689 0.011128 0.0093493
-0.023462 -0.065724 -0.37014 0.091852 -0.041207 -0.038269 0.013847 0.0030552
-0.012651 -0.003881 0.0035892 -0.00075466
0.00094708 0.012954 -0.041199 -0.03837 -0.17961 0.24261 -0.00032771 -0.0041522
0.017948 0.0044596 0.0073344 -0.0063577
0.0046705 0.01137 0.013908 0.0029768 -0.00039672 -0.004147 -0.30489 0.13392
0.0025431 -0.023206 0.0067938 -0.021497
0.011015 0.0028849 -0.012498 -0.0042384 0.017907 0.004657 0.0025492 -0.023477
-0.30495 0.014642 0.0070049 -0.048442
0.01115 0.0092341 0.0035522 -0.00045488 0.0073811 -0.0066043 0.0067397 -0.02128
0.0069605 -0.048442 -0.32723 -0.00079134
620000000 -0.27229 0.087326 -0.023931 0.0093955 0.0038731 0.0086934 0.0081803 -0.004735
0.012412 -0.0011587 0.0007781 -0.0024867
-0.023835 0.0093852 -0.39965 0.039177 -0.019513 0.0007163 -0.0014602 -0.0019585
0.011647 -0.0062295 0.00089144 -0.0031101
0.0038894 0.0085713 -0.019528 0.00079721 -0.1531 0.25134 -0.0010681 -0.0048422
-0.0033362 -0.0029309 0.0086799 -0.0027543
0.0080949 -0.0047119 -0.0015216 -0.0019919 -0.0011268 -0.0048555 -0.26312 0.14523
-0.039633 -0.019342 0.014177 0.030275
0.012572 -0.0010057 0.011692 -0.0063368 -0.0033283 -0.0029957 -0.039686 -0.01905
-0.23156 -0.017221 -0.043375 0.012934
0.0007591 -0.0023746 0.00096244 -0.0031358 0.0087081 -0.0028489 0.014368 0.030542
-0.043384 0.01306 -0.2412 -0.036359
680000000 -0.23734 0.17777 -0.02607 -0.013957 0.0051723 0.0050822 0.0014379 -0.0071584
-0.0026581 -0.011597 0.0051419 -0.0066136
-0.026053 -0.013987 -0.38929 0.14223 -0.032398 -0.001044 -0.001611 -0.00060744
-0.0020469 -0.0092994 -0.00076919 -0.0017678
0.0051426 0.0050853 -0.03243 -0.00094614 -0.10605 0.27464 -0.00079555 -0.00024006
-0.001957 0.00042074 -0.0028986 -0.0090539
0.0014244 -0.0071919 -0.0016037 -0.00059636 -0.00079702 -0.00025382 -0.21992 0.19874
-0.025003 -0.0056468 -0.0084403 -0.012222
-0.0027196 -0.011567 -0.0021004 -0.0093466 -0.0019329 0.00044849 -0.024976 -0.0055531
-0.2702 0.079832 -0.0069927 -0.0050484
0.0051132 -0.006573 -0.00080287 -0.0017938 -0.0029501 -0.0091104 -0.0084401 -0.012255
-0.0069928 -0.0050195 -0.2617 0.070034
740000000 -0.19137 0.17073 -0.040067 0.027006 0.0133 -0.0042073 9.5089e-05 -0.0039771
-0.0044611 -0.0019233 -0.0069774 0.0027699
-0.040124 0.027013 -0.33514 0.16108 -0.036506 0.034269 5.617e-05 -0.0064668
-0.011588 0.0067893 -0.0010525 -0.0062655
0.013336 -0.0042645 -0.036486 0.034459 -0.072497 0.2741 -0.001955 0.0029519
-0.0024464 -0.0045666 -0.0013914 0.00082105
7.4967e-05 -0.004005 -1.563e-05 -0.0064559 -0.0019286 0.0029435 -0.20225 0.20442
-0.041109 -0.0045126 0.022299 0.016553
-0.0044594 -0.0018427 -0.011527 0.0068132 -0.0024786 -0.0045946 -0.041086 -0.0044662
-0.17816 0.10037 -0.040888 0.00243
-0.0070459 0.0027104 -0.0009919 -0.0063158 -0.0012924 0.00094537 0.022294 0.016561
-0.040883 0.0024844 -0.25098 0.073226
800000000 -0.16348 0.21624 -0.02193 0.016659 0.0055849 -0.01016 -0.0040523 -0.002332
-0.0040956 0.0025022 0.0047891 0.0007977
-0.021926 0.016605 -0.34267 0.23248 -0.0080984 0.034542 -0.0025215 0.002094
-0.00026289 0.0028113 0.00066207 0.0056033
0.0055953 -0.010197 -0.0079659 0.034597 -0.03466 0.30067 0.00068605 0.0015321
0.00034108 0.0035049 -0.0016611 0.00094419
-0.0040907 -0.0022702 -0.0025618 0.0021622 0.0006866 0.0015107 -0.17333 0.23385
-0.02748 0.015822 0.014884 -0.010362
-0.0040767 0.0025674 -0.00021865 0.002852 0.00034104 0.0035333 -0.02745 0.015842
-0.21128 0.13039 -0.017051 0.020923
0.0048153 0.00077221 0.00068113 0.0056761 -0.0017324 0.00089469 0.014898 -0.010443
-0.016977 0.020944 -0.25046 0.12669
860000000 -0.1277 0.23756 -0.017526 0.030822 -0.0032814 -0.0098261 -0.0019185 0.00043662
0.0041955 0.0050144 -0.0041243 -0.0033404
-0.017527 0.030797 -0.2945 0.27682 0.0082059 0.034277 0.00014857 0.0020349
0.0040546 0.0010995 0.0030166 0.00030496
-0.0033207 -0.0097876 0.0082807 0.0343 0.014529 0.31092 -0.00041526 -0.00022794
0.0025956 -0.0011162 0.0012066 0.0041246
-0.0019225 0.00042242 0.00013264 0.0020806 -0.00042996 -0.00024043 -0.1347 0.24486
-0.016362 0.02022 -0.0063895 -0.009788
0.0042211 0.0049916 0.0039374 0.0010481 0.002576 -0.0011381 -0.016305 0.02024
-0.15574 0.17632 -0.02258 0.017259
-0.0041579 -0.0033019 0.0029929 0.00032415 0.0012073 0.0040858 -0.0063667 -0.009773
-0.022594 0.017136 -0.19813 0.1738
920000000 -0.10519 0.26017 0.0052034 0.039265 -0.0091244 -0.0044147 -0.0017478 0.0015277
0.00093793 0.0016989 0.0032317 -0.0014516
0.0051607 0.039221 -0.26763 0.29755 0.028584 0.022615 0.0014956 0.0010958
0.0072565 -0.00073503 0.0039027 -0.0029403
-0.0091508 -0.0043871 0.028659 0.022536 0.060571 0.31242 0.0019496 6.0948e-06
0.00089378 -0.00036992 0.00097884 -0.0013539
-0.0017133 0.0015333 0.0014683 0.0010574 0.0019592 1.0569e-05 -0.11054 0.26124
-0.0079563 0.030916 0.0043379 -0.0063225
0.00091497 0.0016955 0.0072248 -0.00076683 0.00088364 -0.00038217 -0.0078857 0.030909
-0.14251 0.18291 -0.0013242 0.026799
0.0032026 -0.0014508 0.0038506 -0.0029493 0.00099757 -0.0013399 0.0043155 -0.0062973
-0.0013366 0.026794 -0.21032 0.1873
980000000 -0.058816 0.28234 0.017363 0.03003 -0.0090027 0.0046076 0.0015643 0.0035521
0.0034553 -0.0015751 -0.0032767 -0.0023092
0.017325 0.03003 -0.21563 0.33518 0.03354 0.0047404 0.0019859 -5.6795e-05
0.0015154 -0.005754 -0.00017352 -0.0026271
-0.0089789 0.0046249 0.033559 0.0046345 0.10746 0.30815 0.00060257 -0.0011015
0.00033722 -0.0018184 0.0014339 -0.0003239
0.0015772 0.003556 0.001999 -6.0263e-05 0.00061062 -0.001103 -0.071109 0.27309
0.010445 0.028864 -0.0092103 -0.0076774
0.0034403 -0.0016228 0.0014702 -0.0058208 0.00033492 -0.0018265 0.010494 0.028822
-0.10871 0.20915 0.0072479 0.019442
-0.0032996 -0.0022993 -0.00025479 -0.0026893 0.0013692 -0.00038587 -0.0090894 -0.00775
0.0072008 0.019457 -0.16887 0.23722
1040000000 -0.016589 0.29001 0.033406 0.018932 -0.0011308 0.0073576 0.0023473 0.00052889
0.00034861 -0.0033682 -0.00015978 -0.0015988
0.033377 0.018943 -0.17988 0.3481 0.029651 -0.014994 0.0016012 -0.0016974
-0.0023486 -0.0024686 -0.0010653 -0.002946
-0.0010902 0.0073781 0.029609 -0.015098 0.15484 0.29418 -0.00049777 -0.0014962
-0.0015329 -0.0010091 -0.00057119 -0.0011798
0.002351 0.0005173 0.0016122 -0.0017172 -0.00050666 -0.0014983 -0.042581 0.28156
0.021565 0.016613 -0.0014642 0.0012081
0.00034212 -0.0033868 -0.0023839 -0.0024431 -0.0015458 -0.00099924 0.021617 0.016584
-0.075995 0.2142 0.014693 0.017393
-0.00021828 -0.0016025 -0.0011073 -0.0029997 -0.00060358 -0.0011772 -0.0014741 0.0012032
0.014651 0.017344 -0.14748 0.2582
1100000000 0.026971 0.30031 0.036646 -0.0040582 0.003386 0.0038978 0.0022652 -0.00095542
-0.0023321 -0.0028051 -0.0038271 -3.0697e-05
0.036609 -0.0040412 -0.13763 0.36808 0.015176 -0.02822 -0.00010426 -0.001828
-0.0034944 -0.00079764 -0.0037397 -0.00064784
0.0034112 0.0038828 0.015081 -0.02829 0.20078 0.2748 -0.0018471 0.00018129
-0.0016241 0.00056365 -0.0010787 -0.00049086
0.0022709 -0.00094094 -0.0001037 -0.0018234 -0.00184 0.00018282 -0.002196 0.28644
0.02561 0.0026483 -0.0022418 -0.00084141
-0.0023663 -0.0028318 -0.0035042 -0.00079106 -0.0016257 0.00056798 0.025622 0.0026148
-0.055114 0.2265 0.019856 0.0075409
-0.0038125 -9.7548e-06 -0.0037158 -0.0006196 -0.0010876 -0.0005075 -0.0022149 -0.00085718
0.019854 0.0075494 -0.10375 0.29122
1160000000 0.079159 0.29722 0.024289 -0.021035 0.0031722 -0.00083956 -0.00019492 -0.0022816
-0.0039461 -0.00066417 -0.0011867 0.0044971
0.024272 -0.020972 -0.092253 0.37273 -0.0040057 -0.029059 -0.0015816 -0.0016362
-0.0026253 0.0025107 -0.0015541 0.0021904
0.003182 -0.00084892 -0.0041444 -0.029066 0.24542 0.24415 -0.00079843 0.0016846
-0.00044664 0.0017037 -0.00099841 0.00033517
-0.00024256 -0.0022837 -0.0015838 -0.0016284 -0.0008135 0.0016781 0.038871 0.28255
0.021025 -0.012994 -0.0039849 0.004629
-0.0039252 -0.00065496 -0.0026479 0.0025305 -0.00047699 0.001705 0.021027 -0.013024
-0.019433 0.23377 0.018189 -0.0021047
-0.0011171 0.0044896 -0.0015467 0.0022635 -0.001027 0.00030929 -0.0040604 0.004642
0.018193 -0.0020909 -0.054658 0.29531
1220000000 0.12253 0.28675 0.010996 -0.030513 -0.0014195 -0.0014349 0.00011822 -0.00073536
-0.00255 0.0022774 0.0011981 0.0020026
0.010994 -0.030481 -0.048974 0.38616 -0.017164 -0.021094 -0.0025599 0.00042203
-1.1382e-05 0.0030287 -0.00090607 0.0019414
-0.0014341 -0.0014219 -0.017274 -0.021037 0.28431 0.2047 0.00080761 0.001684
0.00061324 0.0011305 7.8277e-05 0.00074343
0.00012244 -0.00074089 -0.0025453 0.00044044 0.00080686 0.0016813 0.078346 0.27204
0.0095873 -0.019342 0.0014723 0.0011222
-0.0025284 0.0022861 1.0477e-05 0.0030273 0.0006153 0.001144 0.0095713 -0.01936
0.0051988 0.23999 0.012929 -0.01363
0.0012288 0.0020048 -0.00090037 0.0019497 9.1459e-05 0.00073284 0.0015044 0.0011022
0.012913 -0.013607 -0.025956 0.31392
1280000000 0.17319 0.26795 -0.0080801 -0.029078 -0.0019767 0.0020404 -0.00080389 -0.0019781
-0.00078999 0.0030946 0.0024283 0.0015091
-0.0080432 -0.02906 -0.0022622 0.37866 -0.02414 -0.0079854 -0.00095221 0.0014662
0.0017434 0.0018423 0.00066471 0.0022017
-0.0019724 0.0020201 -0.024196 -0.0078769 0.3154 0.16179 0.001529 3.5571e-05
0.0010879 0.00023401 0.00022483 0.00033582
-0.00082749 -0.001973 -0.00093066 0.0014752 0.0015286 5.358e-05 0.11513 0.25466
-0.00079013 -0.020976 -0.0011321 0.00025011
-0.00077638 0.0031149 0.0017485 0.0017995 0.001078 0.00023129 -0.00083643 -0.020968
0.042026 0.24302 0.0022597 -0.015556
0.0024378 0.0014922 0.00067768 0.0021891 0.00019131 0.00034717 -0.0011069 0.00024156
0.0022879 -0.015561 0.022938 0.31859
1340000000 0.21127 0.23385 -0.017663 -0.019238 0.00037985 0.0042886 -0.0016869 -0.0008667
0.0015242 0.0025615 0.0018145 -0.0014607
-0.01764 -0.019223 0.037451 0.37055 -0.021122 0.0047673 -0.00032197 0.0021266
0.0019292 0.0007966 0.0012558 0.00083542
0.00038759 0.0042795 -0.021116 0.004882 0.33841 0.11295 0.0010345 -0.00089789
0.00056893 -0.00053748 0.00011366 0.00035595
-0.0016898 -0.00086738 -0.00031634 0.0021163 0.0010385 -0.0008949 0.14736 0.23198
-0.010556 -0.0171 0.00064681 0.0011549
0.0015248 0.0025602 0.0019326 0.00080068 0.00056118 -0.00054593 -0.010598 -0.017074
0.072846 0.23524 -0.0046611 -0.013593
0.0017636 -0.0014768 0.0012395 0.00080723 0.00011001 0.00036611 0.00064944 0.0011769
-0.0046433 -0.013573 0.061881 0.31507
1400000000 0.24453 0.19691 -0.023875 -0.0076585 0.004834 0.0031923 -0.0021719 0.00053489
0.0024622 0.0009803 0.00039767 -0.0013559
-0.023841 -0.0076795 0.074333 0.35862 -0.014341 0.01266 0.0014064 0.0015446
0.0014288 -0.0006437 0.0011601 0.0001814
0.0048459 0.0031628 -0.014298 0.012734 0.35128 0.059288 0.00018724 -0.0015618
0.0002524 -0.00025938 0.00034939 0.00022113
-0.0021851 0.00056142 0.0014175 0.0015369 0.00019597 -0.0015578 0.17454 0.20219
-0.016585 -0.0097635 -0.00093977 0.00051193
0.0024482 0.00097308 0.0013986 -0.0006407 0.00026323 -0.00026472 -0.016624 -0.0097358
0.10524 0.22902 -0.010723 -0.0086044
0.00039233 -0.0013638 0.001183 0.0001695 0.00035456 0.00019108 -0.00095758 0.00052733
-0.01072 -0.008612 0.10641 0.30678
1460000000 0.26866 0.15354 -0.020624 0.0050297 0.0053023 -0.0016245 -0.0016448 0.0016885
0.0021658 -0.00042162 -0.00022931 -0.0010007
-0.020588 0.0050086 0.10951 0.33731 -0.0052755 0.015251 0.0018344 0.00028508
0.0009287 -0.0014828 0.0012892 -0.00050803
0.0052875 -0.0016495 -0.0052183 0.01529 0.35816 0.0042828 -0.0011913 -0.001379
0.00016993 -0.00028083 0.00072581 -0.00028677
-0.001634 0.0016834 0.0018536 0.00026207 -0.0011944 -0.0013836 0.19983 0.17305
-0.017494 -0.002161 -0.00040562 0.0026745
0.002151 -0.00042843 0.00092768 -0.0014734 0.00016827 -0.00028229 -0.0175 -0.0021189
0.1355 0.21316 -0.012352 -0.0022465
-0.00024185 -0.00099407 0.0012655 -0.00052369 0.00073029 -0.00026952 -0.00039743 0.0026508
-0.012337 -0.0022546 0.141 0.28674
1520000000 0.28074 0.11128 -0.014927 0.010494 0.0032177 -0.0039194 5.9379e-05 0.0027263
0.0021047 -0.0017564 -0.0011117 -0.00026025
-0.014918 0.010476 0.1429 0.3229 0.0021412 0.012534 0.0018692 -0.00081749
1.1918e-05 -0.0011775 0.00039714 -0.00096328
0.0032219 -0.0039202 0.0022246 0.01253 0.35023 -0.053989 -0.0010971 -0.00045686
0.00051117 -0.0009153 0.00020696 -0.00014481
7.6527e-05 0.002746 0.0018609 -0.00082828 -0.0010906 -0.00044551 0.22066 0.13467
-0.016125 0.0041213 0.0019686 0.0021585
0.0020941 -0.0017759 -2.7022e-06 -0.0011778 0.00050176 -0.00091562 -0.016118 0.0041585
0.16269 0.19745 -0.011756 0.0020958
-0.0011033 -0.00024761 0.00038604 -0.00097672 0.0002203 -0.00013396 0.0019833 0.002166
-0.011766 0.0020789 0.1742 0.26811
1580000000 0.29053 0.066578 -0.008102 0.013849 -0.00098788 -0.0045231 0.0016243 0.0020101
-0.00014314 -0.0021677 -0.00036886 0.00043995
-0.0081111 0.013825 0.17024 0.2996 0.0053594 0.0075047 0.0005915 -0.0017878
-0.00064949 -0.0011129 -0.00025099 -0.00075949
-0.00099875 -0.0045249 0.0053996 0.00748 0.32861 -0.11059 -0.0017561 0.00053214
-0.00039859 -0.0011477 0.00024856 -0.00061099
0.001642 0.0020125 0.00059882 -0.0017926 -0.0017678 0.00053121 0.23273 0.097515
-0.012075 0.0093164 0.0028298 0.00063937
-0.00014582 -0.0021814 -0.00066707 -0.0011183 -0.00037597 -0.0011628 -0.012071 0.0093623
0.18629 0.17918 -0.0089944 0.0078652
-0.00035965 0.00044237 -0.00025224 -0.00076757 0.00023425 -0.00062841 0.0028157 0.00064307
-0.0089898 0.0078726 0.20806 0.24382
1640000000 0.29357 0.024924 -0.0011193 0.012475 -0.0026015 -0.0022653 0.0029669 0.0010272
-0.00058426 -0.0017197 -0.00032664 0.0005435
-0.0011301 0.012451 0.20112 0.27472 0.0056361 0.0027173 -0.00075921 -0.0019939
-0.0010831 -0.00032387 -0.00044407 -0.00071269
-0.0025924 -0.0022521 0.0056582 0.002684 0.29903 -0.16043 -0.00074755 0.0016041
-0.0010253 -0.00087651 -0.00018648 -0.0005167
0.0029594 0.0010192 -0.00076524 -0.0019852 -0.00074247 0.0015988 0.24451 0.050008
-0.0072784 0.010543 0.0026495 -0.0011051
-0.00058792 -0.001716 -0.001079 -0.00031151 -0.0010059 -0.00086765 -0.0072497 0.010573
0.20858 0.15265 -0.0042147 0.0096569
-0.00033332 0.00053369 -0.00046533 -0.0007109 -0.00019218 -0.00051539 0.0026606 -0.0011073
-0.0042378 0.0096456 0.23515 0.21286
1700000000 0.28591 -0.019735 0.0023505 0.0095553 -0.0031987 0.00013157 0.0031435 -0.0014766
-0.0021304 -0.00075133 0.00064233 0.00050043
0.0023504 0.0095431 0.21857 0.24424 0.0033092 -8.3427e-05 -0.0016993 -0.00061947
-0.00084258 0.00015322 -0.00085526 -0.0004679
-0.0032018 0.00013848 0.0033057 -0.00010231 0.25396 -0.19871 0.00044325 0.0017295
-0.0020029 -3.9876e-05 -0.00028856 -0.00081705
0.0031332 -0.0014866 -0.0017041 -0.00061399 0.00045138 0.0017229 0.24071 0.0031259
-0.0038425 0.011 0.0016251 -0.0023241
-0.0021398 -0.00072784 -0.00084318 0.00015646 -0.001994 -2.8929e-05 -0.0038294 0.011008
0.22508 0.13169 0.00064297 0.0095709
0.00065919 0.00048524 -0.00085864 -0.00046439 -0.0002677 -0.00086288 0.0016282 -0.0023277
0.00065653 0.0095657 0.25255 0.17966
1760000000 0.27538 -0.067898 0.0046683 0.0061267 -0.0020806 0.00083158 0.0011133 -0.0036481
-0.0015625 0.00053519 0.00038158 -0.00060024
0.0046507 0.0061184 0.24651 0.20542 0.00083933 -0.0016807 -0.0013847 0.00029081
-0.0009295 0.0010062 -0.00053943 0.0003216
-0.0020749 0.00083768 0.00083653 -0.0016823 0.2057 -0.23014 0.001466 0.001177
-0.0010645 0.0015802 -0.0013885 -0.00054936
0.0010908 -0.0036386 -0.0013892 0.00028442 0.0014693 0.0011662 0.23474 -0.045702
-0.00016914 0.0098175 -0.00021327 -0.0025636
-0.0015571 0.00054439 -0.00091162 0.0010124 -0.0010819 0.001596 -0.0001381 0.009827
0.23963 0.097679 0.0043453 0.0068404
0.00037935 -0.00060484 -0.00054617 0.00033793 -0.0013981 -0.0005969 -0.00021363 -0.0025621
0.0043505 0.0068277 0.26699 0.14274
1820000000 0.25078 -0.10582 0.0047642 0.0024495 5.0064e-05 0.0021622 -0.0012528 -0.0031057
-0.0013636 0.0012031 -0.00011186 -0.0001555
0.0047678 0.0024436 0.25691 0.17498 -0.001308 -0.00012201 -0.0012424 0.0011079
0.00010571 0.0011813 -0.00064448 0.00047662
3.843e-05 0.0021447 -0.0013012 -0.00012537 0.15433 -0.2448 0.0016553 0.00024761
-8.3125e-05 0.002418 -0.0016329 0.00027921
-0.0012653 -0.003103 -0.0012159 0.0011265 0.0016555 0.00023947 0.20654 -0.092532
0.0016863 0.0082284 -0.0017574 -0.0018031
-0.0013489 0.0012157 0.00011866 0.0011746 -6.4705e-05 0.002401 0.0017024 0.0082205
0.25517 0.067784 0.0050431 0.0030454
-9.7584e-05 -0.00015585 -0.00065147 0.00047407 -0.0016564 0.00028127 -0.0017252 -0.0017876
0.005044 0.0030553 0.27057 0.1068
1880000000 0.21589 -0.14513 0.0024214 0.00010806 -0.00051128 0.0021561 -0.0029126 -0.0020706
-7.2567e-05 0.0019929 0.00021497 -0.0006406
0.0024368 0.00010492 0.26221 0.12967 -0.0033442 0.0023242 -6.9519e-05 0.0017353
0.00068784 0.0011032 0.00013501 0.00099711
-0.00054784 0.0021395 -0.0033148 0.0023567 0.102 -0.25126 0.0016607 -0.0011732
0.001837 0.0018025 -0.0011465 0.0016841
-0.0029714 -0.0020698 -6.7553e-05 0.0017565 0.0016501 -0.0011486 0.16946 -0.13275
0.002856 0.0056022 -0.0023974 0.00027019
-7.7617e-05 0.0019882 0.00069551 0.0010844 0.0018277 0.0018199 0.0028807 0.0056208
0.25838 0.037184 0.0049691 0.0010048
0.0002417 -0.00066366 0.000157 0.0009883 -0.0011062 0.0016657 -0.0024084 0.00031571
0.0049645 0.00099268 0.2716 0.073769
1940000000 0.17754 -0.17193 3.493e-05 -0.0016264 0.0014594 0.0019866 -0.0035969 0.00058426
0.0016437 0.0011894 -0.00073045 -0.00050084
2.8368e-05 -0.0016288 0.26485 0.097063 -0.0016078 0.005041 0.0010874 0.0011351
0.0017236 0.00026616 0.0008945 0.00022832
0.0014886 0.00198 -0.0015887 0.0050448 0.059537 -0.24302 0.00015264 -0.0020984
0.0023559 0.00016116 0.00035512 0.0016344
-0.0035816 0.00061689 0.0010973 0.0011567 0.00016873 -0.0021027 0.11976 -0.1669
0.0024062 0.0038739 -0.0014216 0.0012448
0.0016592 0.0011699 0.0017413 0.00026571 0.0023539 0.00015264 0.0024076 0.0038572
0.26177 -0.0015465 0.0035773 -0.0025261
-0.00073258 -0.00049961 0.00091203 0.00021095 0.00038796 0.0016366 -0.0013654 0.0012438
0.0035795 -0.0025216 0.26285 0.037217
2000000000 0.13035 -0.18621 -0.0038521 0.00060079 0.0028737 0.0013958 -0.002296 0.0035053
0.0013682 9.5472e-06 -0.00073298 0.0005899
-0.0038221 0.00057893 0.25071 0.061267 -0.0006646 0.0070484 0.0014216 0.00031772
0.0010803 -0.0011885 0.00029883 2.6874e-05
0.0028632 0.0014013 -0.00061166 0.0070694 0.017223 -0.22829 -0.0014117 -0.0011454
0.0018558 -0.0014819 0.0016903 0.0014166
-0.002308 0.0035452 0.0014234 0.00030945 -0.0014164 -0.0011262 0.065704 -0.17964
0.00097776 0.0027395 -0.00012808 0.0019042
0.0013658 -3.2721e-07 0.0010415 -0.0012137 0.001853 -0.0014775 0.00099851 0.0027823
0.2563 -0.034708 0.00030894 -0.0032067
