!Keysight Technologies,M9804A,MY58100912,A.14.10.03
!Date: Thursday, April 27, 2023 10:28:33
!Correction: S11(C  6-Port  ) 
!S12(C  6-Port  ) 
!S13(C  6-Port  ) 
!S14(C  6-Port  ) 
!S15(C  6-Port  ) 
!S16(C  6-Port  ) 
!S21(C  6-Port  ) 
!S22(C  6-Port  ) 
!S23(C  6-Port  ) 
!S24(C  6-Port  ) 
!S25(C  6-Port  ) 
!S26(C  6-Port  ) 
!S31(C  6-Port  ) 
!S32(C  6-Port  ) 
!S33(C  6-Port  ) 
!S34(C  6-Port  ) 
!S35(C  6-Port  ) 
!S36(C  6-Port  ) 
!S41(C  6-Port  ) 
!S42(C  6-Port  ) 
!S43(C  6-Port  ) 
!S44(C  6-Port  ) 
!S45(C  6-Port  ) 
!S46(C  6-Port  ) 
!S51(C  6-Port  ) 
!S52(C  6-Port  ) 
!S53(C  6-Port  ) 
!S54(C  6-Port  ) 
!S55(C  6-Port  ) 
!S56(C  6-Port  ) 
!S61(C  6-Port  ) 
!S62(C  6-Port  ) 
!S63(C  6-Port  ) 
!S64(C  6-Port  ) 
!S65(C  6-Port  ) 
!S66(C  6-Port  ) 
!S6P File: Measurement: :
# Hz S  RI   R 50
500000000 -0.32794 -0.056159 -0.011241 -0.0015794 -0.008358 0.012592 -0.0034368 0.012328
0.011727 0.0054187 -0.0037906 0.0082901
-0.011625 -0.0019619 -0.4104 -0.068575 0.0070142 -0.010806 0.0016775 0.012078
0.0083783 0.0031096 0.0014866 0.01362
-0.0086975 0.012715 0.0067509 -0.010532 -0.25599 0.19588 0.0064507 0.0029769
-0.00037076 0.0082143 0.00045616 0.010727
-0.0044645 0.011892 0.0016153 0.012398 0.0065092 0.0027834 -0.32758 0.045348
-0.019745 -0.0053368 0.016306 0.028338
0.01243 0.0051151 0.0082812 0.0028074 -0.00057245 0.0085238 -0.020105 -0.0057558
-0.25648 -0.15872 -0.026974 0.0058056
-0.0053947 0.0082139 0.0025851 0.014519 0.00085547 0.010697 0.016962 0.027917
-0.026872 0.0064608 -0.25581 -0.14098
560000000 -0.31293 0.11 -0.022809 -0.065385 0.00053266 0.013485 0.0047847 0.01167
0.010109 0.0038269 0.010534 0.0085393
-0.023191 -0.06555 -0.37043 0.094391 -0.041941 -0.037796 0.013229 0.0029022
-0.012801 -0.002851 0.0046809 2.232e-05
0.00041664 0.013698 -0.041857 -0.038319 -0.17979 0.24375 0.00088789 -0.0046648
0.016777 0.0037273 0.0077224 -0.0059368
0.0056909 0.011118 0.013169 0.0032588 0.00060584 -0.0043926 -0.30514 0.13591
0.0031175 -0.022876 0.0056232 -0.020396
0.010607 0.003505 -0.012979 -0.002945 0.017673 0.0037565 0.0031289 -0.022023
-0.30569 0.017813 0.0059574 -0.049469
0.011644 0.008751 0.0041594 -0.0009692 0.0076462 -0.0056725 0.0044051 -0.021226
0.0062118 -0.048058 -0.32488 0.0061948
620000000 -0.27081 0.087582 -0.024005 0.009612 0.0036034 0.0089682 0.0079439 -0.0037514
0.012535 -0.0024121 0.00077661 -0.0029371
-0.023937 0.0096268 -0.39936 0.040871 -0.019436 0.0010395 -0.0014755 -0.0018087
0.011731 -0.0063812 0.0011076 -0.0035925
0.0036173 0.0090586 -0.019547 0.0012546 -0.15258 0.25241 -0.00064154 -0.0045876
-0.003866 -0.0029529 0.0088495 -0.0031935
0.0083194 -0.0050506 -0.0013672 -0.0020889 -0.00063305 -0.0046174 -0.2615 0.14482
-0.04097 -0.017975 0.013909 0.030326
0.011447 0.00069579 0.011461 -0.0056922 -0.0037022 -0.0029042 -0.041706 -0.018301
-0.2297 -0.018174 -0.042356 0.01214
0.00074894 -0.0014797 0.0013466 -0.0031233 0.0090127 -0.0027025 0.014698 0.028896
-0.042189 0.013735 -0.24239 -0.032671
680000000 -0.23643 0.17887 -0.026532 -0.013531 0.0049493 0.0051488 0.0011401 -0.0065455
-0.0022278 -0.011052 0.0059404 -0.0058604
-0.026289 -0.013822 -0.3888 0.14314 -0.03236 -0.00081082 -0.0019651 -0.0001026
-0.0021394 -0.0095857 -0.00093545 -0.0018659
0.0055324 0.0051346 -0.032467 -0.00059717 -0.10528 0.27552 -0.00082961 -0.00030368
-0.0016885 0.00022319 -0.003091 -0.0089274
0.0014026 -0.0072169 -0.0016008 -0.00045097 -0.00071684 -0.00039525 -0.21883 0.19907
-0.025745 -0.0059958 -0.0091159 -0.010924
-0.002645 -0.011096 -0.00226 -0.0095094 -0.0017336 0.00035141 -0.025426 -0.0056497
-0.2688 0.082032 -0.0060289 -0.0055729
0.0054972 -0.0060373 -0.0010673 -0.0016169 -0.002778 -0.0088321 -0.0086756 -0.010216
-0.0070916 -0.0055872 -0.25896 0.072718
740000000 -0.19048 0.17211 -0.040089 0.02734 0.013223 -0.004289 1.1684e-05 -0.0041369
-0.0045691 -0.0011566 -0.0063575 0.0020926
-0.039734 0.027151 -0.33458 0.16125 -0.035909 0.034772 -0.00011506 -0.0062794
-0.011842 0.0070198 -0.0015893 -0.0062428
0.013703 -0.0039671 -0.035916 0.035076 -0.072128 0.27506 -0.0020954 0.0029863
-0.0021264 -0.0048609 -0.0016372 0.00089108
7.5752e-05 -0.0040843 0.00056876 -0.0062219 -0.0022586 0.0031675 -0.20164 0.205
-0.041083 -0.0045658 0.022872 0.016563
-0.0048806 -0.0014431 -0.013238 0.0071582 -0.0021887 -0.0052234 -0.04171 -0.0046075
-0.17654 0.10161 -0.041263 0.0029604
-0.0065937 0.0027177 -0.00073467 -0.0062038 -0.0015919 0.0011673 0.022749 0.016912
-0.039973 0.0030039 -0.24941 0.077148
800000000 -0.16303 0.21617 -0.021729 0.016695 0.0057537 -0.010094 -0.0041916 -0.0021842
-0.0047798 0.0020704 0.0045727 0.0011193
-0.022032 0.016471 -0.34217 0.23298 -0.0079413 0.034829 -0.0022993 0.0020892
-0.00085886 0.0025557 0.0010165 0.0060737
0.005466 -0.010441 -0.0079001 0.034777 -0.03434 0.30145 0.00069847 0.0014867
0.00028965 0.0034873 -0.001648 0.001027
-0.0040198 -0.0024418 -0.0023411 0.0021037 0.00063962 0.0014342 -0.17272 0.23357
-0.027672 0.015776 0.01493 -0.0096105
-0.0048718 0.001869 -0.00083122 0.0024541 0.00044491 0.0033144 -0.027533 0.015805
-0.21059 0.13201 -0.01652 0.020605
0.0047538 0.00069701 0.0011983 0.0057143 -0.0016398 0.0010043 0.014973 -0.010219
-0.016651 0.021478 -0.24886 0.13238
860000000 -0.127 0.23767 -0.017269 0.030685 -0.0032169 -0.010197 -0.0017996 0.00020689
0.0040749 0.0048566 -0.004237 -0.0030816
-0.017202 0.030755 -0.29384 0.27724 0.0084326 0.034381 0.00014291 0.0019122
0.004357 0.0007044 0.0033869 0.00029838
-0.0031535 -0.010009 0.0085471 0.034415 0.015006 0.31158 -0.00038532 -0.00025004
0.0024658 -0.0013016 0.001479 0.0039771
-0.001737 0.00048811 0.00026008 0.0021029 -0.0003418 -0.00017808 -0.13448 0.24491
-0.016604 0.020605 -0.0065162 -0.0095943
0.0038157 0.0052484 0.003825 0.00078677 0.0024911 -0.0012378 -0.016651 0.020531
-0.15404 0.17724 -0.02214 0.017299
-0.0039549 -0.0032115 0.0032227 0.00031301 0.0014304 0.0040465 -0.0065228 -0.0098732
-0.022104 0.017932 -0.19796 0.17673
920000000 -0.10455 0.26037 0.0051625 0.038934 -0.0092141 -0.0046519 -0.0016343 0.0017042
0.0010083 0.0016911 0.003181 -0.001095
0.0051782 0.038752 -0.26722 0.29783 0.028759 0.022468 0.0015751 0.0010136
0.0072734 -4.5495e-05 0.0042298 -0.0031309
-0.0093508 -0.0046316 0.028888 0.022377 0.061093 0.31308 0.0018428 -2.0757e-05
0.001032 -0.00047479 0.0010818 -0.0017404
-0.0018533 0.0015303 0.0014551 0.001068 0.0018429 4.0311e-05 -0.11071 0.26129
-0.0080853 0.031433 0.0041266 -0.0064598
0.0013039 0.0017455 0.0072385 -0.00058509 0.00098742 -0.00040685 -0.0078517 0.031541
-0.14102 0.18392 9.5681e-05 0.026793
0.0031061 -0.0011825 0.0041 -0.0031317 0.00099447 -0.001711 0.0043667 -0.0063497
-0.0007188 0.026929 -0.207 0.18978
980000000 -0.058127 0.28239 0.017718 0.029868 -0.0093103 0.0046072 0.0016173 0.0033693
0.0036187 -0.0017028 -0.0037647 -0.0026438
0.017565 0.029916 -0.21544 0.33525 0.033632 0.0045178 0.0020334 -0.00011703
0.0016299 -0.006058 -0.00048705 -0.0027749
-0.0093014 0.0045766 0.033681 0.0044367 0.10813 0.3088 0.00054167 -0.0010846
0.00036916 -0.0018537 0.0013706 -0.00032955
0.0017014 0.0033866 0.0020001 -0.00013569 0.00052095 -0.001159 -0.071189 0.27308
0.010851 0.029174 -0.0090761 -0.0079255
0.0036622 -0.0015531 0.0014712 -0.006068 0.00033508 -0.0017998 0.010817 0.029103
-0.10679 0.21031 0.0069962 0.019615
-0.0034495 -0.0027782 -0.00043651 -0.0027703 0.0014741 -0.00043804 -0.0089969 -0.007833
0.0072736 0.019489 -0.16567 0.24
1040000000 -0.016015 0.29031 0.033568 0.018732 -0.0011202 0.0074 0.002382 0.00055977
0.00011867 -0.0035524 -0.00023094 -0.0014888
0.033564 0.018696 -0.17982 0.3485 0.029765 -0.015352 0.0014957 -0.0018813
-0.0022525 -0.0027241 -0.0012617 -0.002979
-0.0010648 0.0073983 0.029762 -0.01548 0.15582 0.29484 -0.00057116 -0.0015018
-0.001616 -0.0010578 -0.00064154 -0.0012455
0.0023995 0.00054763 0.0015718 -0.0018075 -0.00056633 -0.0014813 -0.042627 0.28198
0.022144 0.016882 -0.0016592 0.00098919
0.00021811 -0.0035427 -0.0024027 -0.0026124 -0.00164 -0.0010675 0.022207 0.016823
-0.074176 0.21498 0.01471 0.017306
-6.1004e-06 -0.0015852 -0.0013727 -0.00287 -0.00060881 -0.0010933 -0.0017748 0.0010222
0.015134 0.017024 -0.14407 0.26052
1100000000 0.027503 0.30063 0.036772 -0.0043438 0.003365 0.0039999 0.0021284 -0.00090733
-0.0020939 -0.0029415 -0.0044004 -1.3325e-05
0.036794 -0.0042959 -0.13759 0.36838 0.015037 -0.028586 -0.00020785 -0.00176
-0.0035217 -0.0007246 -0.0038844 -0.0006812
0.003323 0.0039858 0.014944 -0.028653 0.20209 0.27517 -0.0018424 0.00028092
-0.0017522 0.00071711 -0.0011063 -0.00049162
0.0021985 -0.00093138 -0.00012352 -0.0018313 -0.0018238 0.00024691 -0.0022164 0.2869
0.02617 0.0022818 -0.0024059 -0.00069596
-0.002227 -0.0026515 -0.0036626 -0.00054768 -0.001724 0.00079772 0.026174 0.0021759
-0.053736 0.22707 0.020113 0.0064697
-0.0042548 -0.00017242 -0.0038512 -0.00056151 -0.0010368 -0.00051897 -0.0023271 -0.00070123
0.020031 0.0070068 -0.10029 0.29294
1160000000 0.079608 0.29727 0.024377 -0.021371 0.0031391 -0.00075272 -0.00017828 -0.0021454
-0.0040515 -0.00066581 -0.0011388 0.0041794
0.024424 -0.021398 -0.091831 0.37358 -0.0044274 -0.029262 -0.0016229 -0.0016897
-0.0024549 0.0026481 -0.0014558 0.0020679
0.0030853 -0.00080473 -0.0045491 -0.029281 0.24689 0.24401 -0.00071402 0.001754
-0.00039117 0.0018123 -0.0010549 0.00026321
-0.00020549 -0.0021676 -0.0015007 -0.0014804 -0.0007809 0.001726 0.039356 0.28327
0.021238 -0.013386 -0.0040485 0.0041571
-0.0038235 -0.00065604 -0.0024826 0.0027345 -0.00049265 0.001801 0.021206 -0.013366
-0.018547 0.23433 0.018544 -0.0023043
-0.0011598 0.0043141 -0.0016383 0.0020346 -0.0010641 0.00039025 -0.0040924 0.0042829
0.018668 -0.0025243 -0.051117 0.29734
1220000000 0.12309 0.28699 0.010658 -0.030921 -0.0014376 -0.0012514 5.6246e-05 -0.00089961
-0.0025421 0.0021085 0.0013195 0.0020687
0.010673 -0.030867 -0.048324 0.38692 -0.017644 -0.021101 -0.0026252 0.00054217
6.7525e-05 0.0030695 -0.00086396 0.0021575
-0.0014682 -0.0012147 -0.017751 -0.021056 0.28551 0.20384 0.00084552 0.0017497
0.0006064 0.0011902 0.00016809 0.00070535
0.00017639 -0.00080989 -0.0026045 0.00054587 0.00083291 0.001721 0.079055 0.27259
0.0096102 -0.020298 0.0014671 0.0012539
-0.0025585 0.0023326 4.9631e-05 0.0031576 0.00063402 0.0012176 0.009519 -0.020195
0.0066665 0.24018 0.012945 -0.014136
0.0014121 0.0019965 -0.00082286 0.0021863 0.00023811 0.00065745 0.0014714 0.0011908
0.012922 -0.01419 -0.021923 0.31462
1280000000 0.1738 0.268 -0.0085419 -0.029281 -0.0019763 0.0021562 -0.00086661 -0.0019911
-0.0007043 0.0032601 0.002527 0.0011738
-0.0086034 -0.029282 -0.0011266 0.37921 -0.024584 -0.0077638 -0.0008798 0.0015282
0.0019406 0.0018425 0.0007504 0.0020494
-0.0019543 0.0021876 -0.024631 -0.0076443 0.31597 0.1607 0.0015889 -5.0505e-05
0.0011185 0.00022006 0.00024459 0.00037193
-0.00085892 -0.002016 -0.00088428 0.0015684 0.001603 -9.7467e-06 0.116 0.25496
-0.0013831 -0.021525 -0.0010481 0.00037344
-0.00073172 0.0030545 0.0019192 0.0017989 0.0010949 0.00016651 -0.0014268 -0.021588
0.043323 0.24326 0.0016291 -0.016223
0.0025242 0.0014135 0.0007226 0.0019389 0.00017193 0.00033641 -0.0011011 0.00032802
0.0020698 -0.016283 0.026659 0.31929
1340000000 0.21207 0.23384 -0.018334 -0.018962 0.00053215 0.0044492 -0.0017749 -0.00086879
0.001589 0.002529 0.0018843 -0.0015405
-0.018339 -0.019031 0.038732 0.37061 -0.021247 0.0052134 -0.00022104 0.002106
0.0019982 0.00072881 0.0012515 0.00075255
0.00049867 0.0044495 -0.021261 0.0053577 0.33821 0.1118 0.0010785 -0.0010368
0.00065093 -0.00057007 0.00017305 0.00026578
-0.0016776 -0.00074513 -0.00018965 0.002099 0.0010888 -0.00096523 0.14815 0.23191
-0.01147 -0.017544 0.00023254 0.0013574
0.0015578 0.0025866 0.0019912 0.00072783 0.00067892 -0.00058058 -0.011521 -0.017449
0.074214 0.23509 -0.0053269 -0.014202
0.0017046 -0.0016049 0.0012654 0.0008046 0.00017518 0.00029436 0.00034233 0.0013506
-0.0055235 -0.01412 0.065229 0.31457
1400000000 0.24543 0.19663 -0.024306 -0.0071667 0.0050038 0.0032407 -0.002233 0.00063885
0.002534 0.001025 0.00035041 -0.0014427
-0.024307 -0.0071342 0.075605 0.35822 -0.014203 0.013111 0.0014026 0.0014511
0.0013563 -0.00084257 0.001197 7.9061e-05
0.0050121 0.0032072 -0.014175 0.013171 0.35069 0.058613 8.4974e-05 -0.0015734
0.00019306 -0.00033513 0.00045561 0.00034212
-0.00223 0.00061951 0.0014377 0.0014469 4.0779e-05 -0.0016217 0.17513 0.20195
-0.017497 -0.0094688 -0.00087955 0.00063546
0.0025476 0.00096963 0.0013219 -0.00087567 0.00017988 -0.00035839 -0.017478 -0.0094143
0.10655 0.22879 -0.011614 -0.0085339
0.00033657 -0.0013203 0.0012147 5.2236e-05 0.00042194 0.00024751 -0.0010394 0.00069634
-0.01154 -0.0085192 0.10982 0.30551
1460000000 0.26946 0.15286 -0.020714 0.0057965 0.0054994 -0.0016583 -0.0016478 0.0016961
0.0021788 -0.00056892 -0.00015625 -0.00085066
-0.020698 0.0056913 0.1104 0.33637 -0.0050414 0.015534 0.0018339 0.00019442
0.00086634 -0.001509 0.0012428 -0.00062049
0.0054472 -0.001679 -0.0049592 0.015581 0.35731 0.0040887 -0.001287 -0.0014364
8.4902e-05 -0.00032564 0.00077714 -0.00032733
-0.0015626 0.001803 0.0018366 0.00019565 -0.001258 -0.0013903 0.2005 0.17263
-0.018127 -0.0013107 -0.00032427 0.0027533
0.0022481 -0.00051069 0.00086439 -0.0015258 9.6037e-05 -0.00035305 -0.018153 -0.0012718
0.13666 0.21288 -0.013128 -0.0018433
-0.00033855 -0.00099392 0.0012871 -0.00053844 0.00081423 -0.00025223 -0.00035998 0.0027925
-0.013217 -0.0018281 0.14414 0.28538
1520000000 0.28127 0.11044 -0.014597 0.011092 0.0033638 -0.0040653 0.00015498 0.0027957
0.0021228 -0.0018705 -0.001124 -0.00020998
-0.014581 0.011076 0.1434 0.32184 0.0025133 0.012567 0.001791 -0.00083967
-4.9442e-05 -0.0011155 0.00032141 -0.0010191
0.0033454 -0.0040744 0.0025694 0.012567 0.34954 -0.053551 -0.0011132 -0.00034473
0.00052971 -0.00090248 0.0002465 -0.00016896
0.00012437 0.0027181 0.0018043 -0.00087443 -0.0011446 -0.00041366 0.22106 0.13409
-0.016135 0.005134 0.0021556 0.0021748
0.0020745 -0.001876 -6.1434e-05 -0.0011188 0.0004702 -0.0008864 -0.016123 0.0051573
0.16398 0.19694 -0.012231 0.0028816
-0.0010134 -0.00022544 0.00032122 -0.0010347 0.0002172 -0.00018917 0.0022136 0.002138
-0.01217 0.0028747 0.17666 0.26619
1580000000 0.29056 0.065563 -0.0075142 0.014188 -0.00093562 -0.0047446 0.001619 0.0019977
-0.00018247 -0.0022611 -0.00024472 0.00040044
-0.0075453 0.014166 0.17027 0.29845 0.0056834 0.0073656 0.00053855 -0.0017688
-0.00069338 -0.0010376 -0.00021548 -0.00074171
-0.0010161 -0.004734 0.0057085 0.0073182 0.32843 -0.10963 -0.0016835 0.00060507
-0.00047278 -0.0011858 0.00029147 -0.00074923
0.001769 0.0019962 0.0005259 -0.0017833 -0.0016284 0.00064994 0.23298 0.096788
-0.011458 0.010093 0.0028052 0.00054227
-0.0001077 -0.0022543 -0.00070606 -0.0010478 -0.00047249 -0.0011636 -0.011485 0.010103
0.18733 0.17851 -0.0089758 0.0087522
-0.00024278 0.00036416 -0.0002785 -0.00068326 0.0002917 -0.00075068 0.0028924 0.00050367
-0.0089924 0.0086258 0.20998 0.24165
1640000000 0.29327 0.024115 -0.00047112 0.01247 -0.0027334 -0.0024874 0.0030247 0.0009072
-0.00063883 -0.001717 -0.00031927 0.00045323
-0.0004923 0.012465 0.20067 0.27383 0.0058049 0.0024548 -0.00077569 -0.0019648
-0.0010017 -0.00023173 -0.00047944 -0.00068049
-0.0027768 -0.0025024 0.0058205 0.0024208 0.29967 -0.15956 -0.00066166 0.0015437
-0.001131 -0.00078609 -0.00023742 -0.000524
0.0029435 0.00090127 -0.00073047 -0.0019387 -0.00063521 0.0015907 0.2444 0.049276
-0.0064339 0.010913 0.0028059 -0.0011719
-0.00073501 -0.0016714 -0.000985 -0.00020232 -0.0011822 -0.00077534 -0.0063828 0.010933
0.20957 0.15179 -0.0039479 0.010428
-0.00032913 0.00043702 -0.00047577 -0.00069404 -0.00010558 -0.00058068 0.0027468 -0.0012352
-0.0038683 0.010444 0.23672 0.21088
1700000000 0.28528 -0.02005 0.0028405 0.0091929 -0.0034667 0.00011037 0.0030957 -0.0015124
-0.0021991 -0.0007064 0.00061007 0.00036386
0.0028257 0.0091925 0.21786 0.24371 0.0033129 -0.00031928 -0.0016616 -0.00057612
-0.00068477 0.000124 -0.00077586 -0.00040906
-0.0034082 0.00012691 0.0032649 -0.0003312 0.25485 -0.19811 0.00048799 0.0016121
-0.0020159 1.1343e-05 -0.0005193 -0.00085584
0.0031869 -0.0014951 -0.0016692 -0.00055594 0.00050364 0.0016409 0.24041 0.0026419
-0.0029561 0.010594 0.0015776 -0.0024347
-0.0021176 -0.00062409 -0.00071389 0.00012743 -0.0019994 5.849e-05 -0.0029383 0.010588
0.22604 0.13041 0.001086 0.010132
0.00061184 0.00041921 -0.00079508 -0.0004136 -0.00043233 -0.0008144 0.0015099 -0.0023175
0.0011444 0.01007 0.25348 0.17783
1760000000 0.27482 -0.067814 0.0048809 0.0055355 -0.0021691 0.0010798 0.0010986 -0.0036791
-0.0015257 0.00069435 0.00032567 -0.00052983
0.0048465 0.0055492 0.24568 0.20529 0.00067747 -0.0018226 -0.0012905 0.00030568
-0.00083636 0.00090427 -0.00046087 0.00033285
-0.0022413 0.0010488 0.00065393 -0.0018619 0.20642 -0.23014 0.001391 0.0010946
-0.0009041 0.0016097 -0.0013997 -0.00053362
0.0010542 -0.0037476 -0.0012725 0.00029624 0.0013544 0.0011143 0.234 -0.045737
0.00014648 0.0092772 -0.00024721 -0.0025856
-0.0015238 0.00066267 -0.00078804 0.00089501 -0.00094542 0.0016187 0.00017888 0.0092853
0.24013 0.096459 0.0049126 0.0069544
0.00029003 -0.00057661 -0.00049726 0.00034936 -0.001332 -0.00040999 -0.00021942 -0.0025658
0.0048509 0.0070753 0.2679 0.14117
1820000000 0.25044 -0.10543 0.0045868 0.0019029 2.9802e-05 0.0023431 -0.001222 -0.0031422
-0.001164 0.0012005 -0.00019551 -9.0662e-05
0.0045473 0.0019359 0.25622 0.17534 -0.0015345 -0.00012444 -0.0011771 0.0010746
6.0496e-05 0.0010845 -0.00059734 0.00035197
2.5797e-05 0.002379 -0.0015089 -0.00010339 0.15488 -0.24497 0.0016714 0.00028373
0.00013094 0.0024148 -0.0015538 0.00036678
-0.0012205 -0.0030252 -0.0012054 0.0011221 0.0016545 0.00024943 0.20648 -0.092394
0.0018813 0.007668 -0.0016641 -0.0018674
-0.0011573 0.0012906 3.6653e-05 0.0010882 6.5797e-05 0.0023967 0.0018905 0.0075954
0.25538 0.066433 0.005775 0.003257
-0.00011412 -0.00017404 -0.00058847 0.00037485 -0.001645 0.00035468 -0.0016895 -0.0018565
0.0057436 0.0031499 0.27148 0.10515
1880000000 0.21577 -0.14471 0.0020696 -0.00017542 -0.00059169 0.0022391 -0.0030655 -0.0020319
0.00011218 0.0018648 0.00027996 -0.0006406
0.0020809 -0.00021716 0.26184 0.13022 -0.003439 0.0022866 -0.00014397 0.0016603
0.00057391 0.0010217 7.2168e-05 0.00085573
-0.00050793 0.0022444 -0.003422 0.0023013 0.10305 -0.2519 0.0015144 -0.001313
0.0016955 0.0015051 -0.00099774 0.001535
-0.003065 -0.0020277 -0.00012256 0.0016966 0.0016109 -0.0013381 0.16934 -0.13242
0.002776 0.0052003 -0.0024082 6.8281e-05
6.2302e-05 0.0018605 0.00057608 0.001055 0.0017621 0.0015367 0.0027842 0.0052564
0.25851 0.036084 0.0057084 0.00053768
0.00019591 -0.00064124 4.9766e-05 0.00080761 -0.00097934 0.0014812 -0.0023677 3.3539e-06
0.0055657 0.000405 0.27257 0.072293
1940000000 0.17797 -0.17148 -0.00033846 -0.0016177 0.0015329 0.0020595 -0.0037306 0.00057787
0.0015109 0.001006 -0.00072279 -0.00055906
-0.0003972 -0.0016246 0.26474 0.097819 -0.0016226 0.0051052 0.00098318 0.0012101
0.0015378 0.000371 0.00075347 0.00025517
0.0014788 0.0020945 -0.0015687 0.0050802 0.060309 -0.24403 0.00012992 -0.0021094
0.0020839 9.5917e-05 0.00025222 0.0015716
-0.0038035 0.00050409 0.00093993 0.0012086 2.1896e-05 -0.0019503 0.11966 -0.16644
0.0021281 0.0036098 -0.0015282 0.0012261
0.0015339 0.00093394 0.0015166 0.00032911 0.0021048 7.7795e-05 0.0020961 0.0035619
0.26162 -0.0027123 0.0039095 -0.0030544
-0.00073963 -0.00061967 0.00077271 0.00020946 0.00028377 0.0015997 -0.0015208 0.0011781
0.0040486 -0.0030509 0.2637 0.035127
2000000000 0.13137 -0.18616 -0.0040338 0.00069134 0.0028182 0.0016025 -0.0022185 0.003751
0.0011645 2.9055e-05 -0.00059475 0.00058991
-0.0039475 0.00059106 0.25116 0.061921 -0.00073493 0.0069245 0.0014005 0.0003649
0.0010813 -0.0010079 0.00026838 0.00021316
0.0028189 0.0015402 -0.0007036 0.0069211 0.017451 -0.22969 -0.0012726 -0.00092002
0.0018122 -0.0012727 0.0015597 0.001577
-0.0021902 0.0037855 0.0014246 0.00030519 -0.0012592 -0.00095621 0.065896 -0.17953
0.00061835 0.0027316 -0.00036864 0.0020434
0.001114 1.6797e-05 0.0011065 -0.0010164 0.0017958 -0.0011829 0.00061625 0.0026712
0.25582 -0.03552 0.00024903 -0.0040142
