!Keysight Technologies,M9804A,MY58100912,A.14.10.03
!Date: Thursday, April 27, 2023 10:28:33
!Correction: S11(C  6-Port  ) 
!S12(C  6-Port  ) 
!S13(C  6-Port  ) 
!S14(C  6-Port  ) 
!S15(C  6-Port  ) 
!S16(C  6-Port  ) 
!S21(C  6-Port  ) 
!S22(C  6-Port  ) 
!S23(C  6-Port  ) 
!S24(C  6-Port  ) 
!S25(C  6-Port  ) 
!S26(C  6-Port  ) 
!S31(C  6-Port  ) 
!S32(C  6-Port  ) 
!S33(C  6-Port  ) 
!S34(C  6-Port  ) 
!S35(C  6-Port  ) 
!S36(C  6-Port  ) 
!S41(C  6-Port  ) 
!S42(C  6-Port  ) 
!S43(C  6-Port  ) 
!S44(C  6-Port  ) 
!S45(C  6-Port  ) 
!S46(C  6-Port  ) 
!S51(C  6-Port  ) 
!S52(C  6-Port  ) 
!S53(C  6-Port  ) 
!S54(C  6-Port  ) 
!S55(C  6-Port  ) 
!S56(C  6-Port  ) 
!S61(C  6-Port  ) 
!S62(C  6-Port  ) 
!S63(C  6-Port  ) 
!S64(C  6-Port  ) 
!S65(C  6-Port  ) 
!S66(C  6-Port  ) 
!S6P File: Measurement: :
# Hz S  RI   R 50
500000000 -0.32726 -0.055506 -0.011494 -0.0014287 -0.0087011 0.01304 -0.003274 0.011989
0.012032 0.0056458 -0.0047792 0.0080524
-0.011482 -0.0014159 -0.4105 -0.069372 0.0065168 -0.010121 0.0012083 0.012034
0.0081792 0.0027474 0.00097084 0.013959
-0.008703 0.01303 0.0065046 -0.010128 -0.25711 0.19668 0.0061318 0.0032066
-0.00065887 0.0088428 0.00014803 0.011242
-0.0032671 0.012053 0.0012049 0.012118 0.0061568 0.0032077 -0.32912 0.045017
-0.020542 -0.0057579 0.016018 0.028628
0.012003 0.0056336 0.0082039 0.0026451 -0.0006253 0.0087905 -0.02045 -0.0058332
-0.25681 -0.16033 -0.028058 0.005622
-0.0045374 0.0079738 0.0010983 0.013881 0.00026139 0.011018 0.015936 0.02866
-0.028053 0.0055713 -0.25542 -0.14089
560000000 -0.31392 0.10886 -0.023007 -0.065129 0.00054058 0.013465 0.0051528 0.012029
0.010345 0.0039401 0.011324 0.0096639
-0.023011 -0.065107 -0.37068 0.093913 -0.042207 -0.037625 0.013657 0.0031413
-0.012786 -0.0039422 0.0050867 -0.00105
0.00055397 0.013457 -0.042333 -0.037557 -0.17992 0.24523 0.00067255 -0.0037311
0.017826 0.0036335 0.0079693 -0.0056719
0.0050582 0.012094 0.013717 0.0030665 0.00068033 -0.003694 -0.30482 0.13516
0.0035551 -0.021749 0.0053888 -0.020852
0.01043 0.0041114 -0.012966 -0.0039646 0.018042 0.003679 0.003633 -0.021773
-0.30555 0.015397 0.0057428 -0.048199
0.011225 0.0097877 0.0052589 -0.00081232 0.0079484 -0.0054699 0.0054753 -0.020708
0.0058272 -0.04822 -0.32728 0.0053895
620000000 -0.27151 0.088771 -0.023616 0.0099594 0.0041212 0.0092178 0.0078669 -0.0052287
0.012855 -0.00076316 0.00055623 -0.003023
-0.023604 0.0099615 -0.39966 0.041219 -0.019135 0.0016993 -0.0012315 -0.0017284
0.011741 -0.0060741 0.0011955 -0.0027089
0.0041563 0.009234 -0.01915 0.0017563 -0.15238 0.25377 -0.00050163 -0.0046764
-0.0032385 -0.0030009 0.0094462 -0.0022471
0.0077484 -0.0052206 -0.0012235 -0.0017141 -0.0004977 -0.0046796 -0.26294 0.14678
-0.040927 -0.018897 0.013791 0.031318
0.012847 -0.00064209 0.011669 -0.0059967 -0.0031828 -0.0029244 -0.040954 -0.018713
-0.23156 -0.016985 -0.043106 0.011514
0.00036616 -0.0032475 0.0012289 -0.0027901 0.0092432 -0.0021721 0.013603 0.031122
-0.043068 0.011621 -0.24209 -0.029931
680000000 -0.23763 0.18078 -0.026434 -0.012614 0.0049278 0.0054179 0.0019917 -0.0069661
-0.002289 -0.011285 0.0066931 -0.0058353
-0.026411 -0.012619 -0.38885 0.14421 -0.031737 -0.00054334 -0.0014687 -0.00071439
-0.0019715 -0.0094685 -0.00078209 -0.0018196
0.0049532 0.005377 -0.031755 -0.00048483 -0.10414 0.2766 -0.00092436 -0.00069071
-0.0016388 0.00012638 -0.0026881 -0.0090884
0.0020238 -0.0069646 -0.0015063 -0.00071516 -0.00091987 -0.00071087 -0.21872 0.19953
-0.025333 -0.0056516 -0.009093 -0.012021
-0.0022773 -0.011272 -0.0019798 -0.009507 -0.0016623 5.3994e-05 -0.025386 -0.0056702
-0.27016 0.08357 -0.0069909 -0.0048141
0.0068445 -0.0056178 -0.00070625 -0.0017753 -0.0025756 -0.0091478 -0.008848 -0.011802
-0.0069857 -0.0048347 -0.26096 0.07298
740000000 -0.19068 0.17298 -0.039723 0.027821 0.013405 -0.0043257 7.9157e-05 -0.0039683
-0.0037552 -0.0012501 -0.0068749 0.0023939
-0.039688 0.027792 -0.33405 0.16236 -0.035451 0.03466 0.00033307 -0.0064892
-0.013331 0.0072918 -0.0012692 -0.0067921
0.013432 -0.0043399 -0.035394 0.034792 -0.070597 0.27566 -0.0021423 0.0031941
-0.0027509 -0.0055288 -0.00093244 0.0010068
0.00012483 -0.0038919 0.00030827 -0.0064979 -0.0021395 0.0031492 -0.20137 0.20622
-0.041681 -0.0040188 0.023539 0.016677
-0.003895 -0.0010291 -0.013257 0.0072897 -0.0026569 -0.0054654 -0.041728 -0.0039096
-0.17658 0.10303 -0.041404 0.0035954
-0.0069997 0.0024622 -0.0012454 -0.0067689 -0.00096535 0.0011079 0.023212 0.01665
-0.041286 0.0036733 -0.24812 0.077451
800000000 -0.16212 0.21753 -0.021193 0.016726 0.0057164 -0.010162 -0.0038546 -0.0020278
-0.0043872 0.0015907 0.0039138 0.0014239
-0.021216 0.016711 -0.34143 0.23346 -0.0075024 0.034135 -0.0021661 0.0021488
-0.0010441 0.002394 0.00072385 0.0055805
0.0057009 -0.010181 -0.0074128 0.034184 -0.032906 0.30077 0.00068594 0.0016957
0.00014487 0.0034587 -0.0016325 0.001064
-0.0038396 -0.0020602 -0.002149 0.0021657 0.00068656 0.0016919 -0.17198 0.23445
-0.026992 0.015991 0.015271 -0.01044
-0.0043879 0.0015679 -0.0010352 0.0023947 0.00010527 0.0034201 -0.026986 0.015958
-0.2096 0.13322 -0.016781 0.02174
0.0039187 0.0013716 0.00071841 0.0056029 -0.0016616 0.00094162 0.015364 -0.010549
-0.016759 0.021716 -0.24798 0.13148
860000000 -0.12603 0.2378 -0.016543 0.030265 -0.0030495 -0.010058 -0.0018515 0.00013742
0.0038552 0.0048157 -0.0043458 -0.0025356
-0.01655 0.030234 -0.29271 0.27711 0.0083992 0.033659 0.00020692 0.0021867
0.0038727 0.0012481 0.0030705 0.00050861
-0.0030683 -0.010051 0.0085021 0.033663 0.015807 0.31038 -0.00029477 -8.1374e-05
0.0024802 -0.001281 0.0013367 0.0038008
-0.0018566 0.00014787 0.00020309 0.0021826 -0.00030732 -7.5517e-05 -0.13316 0.24526
-0.015622 0.019856 -0.0068273 -0.0091183
0.0039438 0.0048602 0.003931 0.0012078 0.0025432 -0.0012688 -0.015524 0.019951
-0.15293 0.1784 -0.022427 0.018132
-0.0044141 -0.002411 0.0031152 0.0004882 0.0014479 0.0038389 -0.0069279 -0.0091141
-0.022387 0.018151 -0.19626 0.17734
920000000 -0.10322 0.25994 0.0056416 0.038165 -0.0090694 -0.0047217 -0.0016006 0.0012234
0.0010714 0.0014381 0.0036233 -0.001231
0.0056302 0.038131 -0.26637 0.2973 0.028374 0.021913 0.0014486 0.0010384
0.0071524 -0.00028459 0.0041499 -0.002927
-0.0090718 -0.004703 0.02846 0.021861 0.061358 0.31191 0.0019192 1.9113e-05
0.00096853 -0.00026395 0.00071104 -0.0017652
-0.001637 0.0012021 0.0014396 0.0010291 0.0019206 1.5935e-05 -0.1093 0.26093
-0.0076885 0.030969 0.0047493 -0.0063911
0.0010923 0.0014861 0.00716 -0.00035574 0.00095494 -0.00025499 -0.0076445 0.031061
-0.13943 0.18411 -0.00028402 0.027165
0.0036103 -0.0012593 0.0041882 -0.0030142 0.00070563 -0.0017736 0.0048115 -0.0064543
-0.0002816 0.02715 -0.20664 0.18986
980000000 -0.057436 0.28174 0.017409 0.029179 -0.0092739 0.0042456 0.0013866 0.0033277
0.003639 -0.0015235 -0.0034533 -0.0028003
0.017392 0.029129 -0.21468 0.33472 0.033036 0.0043492 0.0020857 -3.3936e-05
0.0017945 -0.0058995 -0.00022809 -0.0027445
-0.009255 0.0042752 0.033059 0.0042445 0.10792 0.30774 0.00056036 -0.0012168
0.00037395 -0.0019281 0.001244 -0.00036026
0.001432 0.0033234 0.0021088 -3.1686e-05 0.00056049 -0.0011834 -0.070318 0.27216
0.010797 0.028413 -0.0092648 -0.0078945
0.0036065 -0.0015657 0.0018072 -0.0059605 0.00038825 -0.0019485 0.010866 0.028397
-0.10516 0.21094 0.0075912 0.018901
-0.003421 -0.0027888 -0.0001503 -0.0027088 0.0012892 -0.00034869 -0.0093264 -0.0077732
0.0075773 0.018919 -0.16589 0.23958
1040000000 -0.015954 0.28948 0.0331 0.018091 -0.001311 0.0070672 0.0020388 0.00073805
0.00013623 -0.0034796 -0.00011245 -0.001534
0.033022 0.018047 -0.17933 0.34742 0.029281 -0.015075 0.001554 -0.0017557
-0.0021501 -0.0027522 -0.0013431 -0.003196
-0.0012869 0.0070658 0.029242 -0.015191 0.15526 0.2939 -0.00052694 -0.0015125
-0.0016423 -0.00094514 -0.00094103 -0.00098706
0.0020332 0.00073653 0.0015319 -0.0017275 -0.00051628 -0.0015092 -0.042135 0.28037
0.021403 0.016159 -0.0016502 0.00076569
0.0001123 -0.0034705 -0.0021494 -0.0027782 -0.0016465 -0.00093397 0.021492 0.01614
-0.072838 0.21473 0.014957 0.01687
-0.00015707 -0.0015409 -0.0014607 -0.003112 -0.00093827 -0.0010118 -0.0016012 0.00069914
0.014946 0.016873 -0.14393 0.26012
1100000000 0.02739 0.30005 0.035899 -0.0043019 0.0029319 0.003951 0.0021627 -0.00062759
-0.0021767 -0.0027696 -0.004474 -0.00015106
0.035866 -0.0042784 -0.13748 0.36727 0.01484 -0.028027 -0.00010549 -0.0018139
-0.0036404 -0.00085997 -0.0038203 -0.00072852
0.002942 0.0039469 0.014748 -0.028111 0.20125 0.2745 -0.0018875 0.00021024
-0.0018118 0.00071131 -0.0011646 -0.0002029
0.0022181 -0.00063821 -0.00012231 -0.0018074 -0.0018846 0.00021383 -0.0024193 0.28532
0.025388 0.0022192 -0.00246 -0.00092191
-0.0022 -0.0027468 -0.0036523 -0.00085109 -0.0018117 0.00071179 0.0254 0.00219
-0.052004 0.22609 0.019841 0.006379
-0.0044358 -3.1356e-05 -0.0038231 -0.00072462 -0.0011389 -0.00019607 -0.0024833 -0.00087715
0.019833 0.0063413 -0.1 0.29264
1160000000 0.07932 0.29658 0.023738 -0.021054 0.0027356 -0.0005367 9.3406e-05 -0.0020478
-0.0038533 -0.0007859 -0.0010986 0.0041947
0.023722 -0.021038 -0.092467 0.37247 -0.0043027 -0.028872 -0.0016051 -0.0016411
-0.0028987 0.0025437 -0.0017706 0.0017205
0.0027448 -0.00052219 -0.0044386 -0.028876 0.24585 0.24382 -0.00085329 0.0016716
-0.00041895 0.0018695 -0.00085243 0.00051574
7.9148e-05 -0.0020072 -0.0016289 -0.0016306 -0.000864 0.0016652 0.038312 0.28179
0.020643 -0.012959 -0.0042053 0.0042887
-0.0038248 -0.00075985 -0.0028621 0.0025884 -0.00043429 0.0018796 0.020673 -0.013024
-0.017234 0.23293 0.018289 -0.0023033
-0.0011705 0.0041924 -0.0016793 0.0017877 -0.00086833 0.00050048 -0.0042167 0.0042345
0.018268 -0.0023012 -0.050631 0.29703
1220000000 0.12248 0.28645 0.010276 -0.030267 -0.0016232 -0.00087242 0.00036566 -0.00085454
-0.0025796 0.0022054 0.0011375 0.002279
0.01028 -0.030235 -0.049429 0.38585 -0.017319 -0.02086 -0.0026239 0.00037899
-7.1776e-05 0.0032316 -0.00083395 0.0021361
-0.0016127 -0.000852 -0.01742 -0.020808 0.28449 0.20417 0.0007611 0.0018045
0.00070473 0.0011912 0.00040851 0.0006018
0.00036239 -0.00088295 -0.0026085 0.00038653 0.00076508 0.001808 0.077405 0.27201
0.0094171 -0.01926 0.0011129 0.0010565
-0.0025653 0.0021886 -7.7734e-05 0.003229 0.00070498 0.001189 0.009373 -0.019277
0.0069254 0.23832 0.012766 -0.014188
0.0011847 0.0021918 -0.00082504 0.0021626 0.00040103 0.0005843 0.0011384 0.001111
0.012752 -0.0142 -0.021976 0.31386
1280000000 0.17292 0.2677 -0.0085356 -0.028522 -0.0017333 0.0025393 -0.00077994 -0.0022162
-0.00084264 0.0030889 0.0027469 0.0013459
-0.0085041 -0.028475 -0.0027696 0.37877 -0.024162 -0.0078978 -0.001133 0.0015152
0.0018233 0.0019493 0.00075802 0.0021081
-0.0017224 0.0025221 -0.024228 -0.0077998 0.31511 0.16141 0.001657 0.00011958
0.0011655 0.00013544 0.00038756 0.00020021
-0.00081927 -0.0021907 -0.0011133 0.0015414 0.0016569 0.00013915 0.1143 0.25529
-0.0011161 -0.02098 -0.0011662 0.00058377
-0.00083336 0.0031188 0.0018959 0.0019306 0.0011793 0.00012192 -0.0011553 -0.021004
0.042894 0.24069 0.0017571 -0.016037
0.0027248 0.001311 0.00078554 0.002144 0.00040716 0.00016037 -0.0011775 0.00052232
0.0017385 -0.016035 0.025808 0.3183
1340000000 0.21089 0.2341 -0.017952 -0.018425 0.00073884 0.0046295 -0.0017369 -0.00095438
0.001512 0.0025928 0.0019604 -0.0014415
-0.017919 -0.018419 0.037066 0.37103 -0.021147 0.0050276 -0.0002831 0.0021472
0.0021396 0.00080029 0.0013014 0.00075142
0.00075713 0.0046354 -0.02114 0.0051304 0.33797 0.11278 0.001239 -0.00097105
0.00063858 -0.0006655 3.4966e-05 0.00018769
-0.0017445 -0.00098215 -0.00026442 0.0021463 0.0012368 -0.00096923 0.14689 0.23292
-0.010763 -0.01721 0.00013952 0.0013255
0.001491 0.0025676 0.0021474 0.00082431 0.00063588 -0.00067562 -0.010752 -0.017177
0.072719 0.23342 -0.0054267 -0.014205
0.0019584 -0.0014812 0.0012784 0.00078536 4.6168e-05 0.00015083 0.00018643 0.0013784
-0.0053957 -0.014212 0.064689 0.31417
1400000000 0.24444 0.19748 -0.023716 -0.006857 0.0053508 0.0031903 -0.0023582 0.00059616
0.0024208 0.0010449 0.00050053 -0.0014775
-0.02367 -0.0068563 0.074212 0.35939 -0.014323 0.012956 0.0015122 0.0015676
0.0014564 -0.00084979 0.0011582 0.00015668
0.0053274 0.003159 -0.014288 0.01304 0.35067 0.059375 0.00013962 -0.0017429
0.00014628 -0.00030194 0.00034448 0.00024235
-0.0023585 0.00062488 0.0015299 0.0015699 0.00014997 -0.001735 0.17476 0.20341
-0.01681 -0.0096254 -0.00089526 0.00076351
0.0024373 0.0010312 0.0014348 -0.00087013 0.00014446 -0.00029207 -0.016848 -0.0095793
0.10438 0.22772 -0.011506 -0.0083181
0.00049066 -0.0014553 0.0011812 0.00013958 0.00033223 0.0002537 -0.00090835 0.00073575
-0.011491 -0.0083267 0.10925 0.30498
1460000000 0.2692 0.15424 -0.020111 0.0056566 0.0056633 -0.0018442 -0.0017201 0.0017661
0.0022358 -0.00042248 -0.00025677 -0.0010213
-0.020105 0.0056299 0.10977 0.33803 -0.0051515 0.015532 0.0019335 0.00020577
0.0008758 -0.0016383 0.0012982 -0.0005098
0.0056648 -0.0018847 -0.0050742 0.015567 0.35784 0.0047417 -0.0012789 -0.0014445
9.3786e-05 -0.00029735 0.00069615 -0.00025513
-0.001746 0.0017678 0.0019307 0.00020525 -0.0013005 -0.0014487 0.20066 0.17402
-0.01775 -0.0019355 -0.00011491 0.0029277
0.0022291 -0.00044063 0.00090123 -0.0016454 9.0637e-05 -0.00030738 -0.017716 -0.0019025
0.1343 0.21257 -0.013047 -0.0017882
-0.00028925 -0.0010202 0.001316 -0.00049576 0.00067438 -0.00028224 -0.00012905 0.0029444
-0.013055 -0.0017663 0.14303 0.28561
1520000000 0.28174 0.11169 -0.014113 0.010721 0.0034192 -0.0041385 8.9921e-05 0.0028373
0.0021584 -0.0018217 -0.0011439 -0.00029167
-0.014107 0.010695 0.14345 0.32352 0.0024664 0.012668 0.0018475 -0.00098257
-6.764e-05 -0.0011777 0.00037673 -0.00094636
0.0034132 -0.0041375 0.0025404 0.012668 0.35022 -0.053074 -0.0013074 -0.00040588
0.00053975 -0.00091985 0.00014082 -0.00018164
0.00011332 0.0028524 0.0018412 -0.00099229 -0.0013162 -0.00041137 0.22187 0.13527
-0.016287 0.0043536 0.0022186 0.0022952
0.0021474 -0.0018305 -0.00010162 -0.0011741 0.00054525 -0.00091246 -0.016304 0.0044229
0.16168 0.19758 -0.012152 0.0027709
-0.0011368 -0.00023387 0.00035822 -0.00096594 0.00014948 -0.00016881 0.0022308 0.0022647
-0.012155 0.0027469 0.17603 0.26612
1580000000 0.29165 0.066311 -0.0073228 0.013643 -0.00091214 -0.0049908 0.0017815 0.0020169
-7.5486e-05 -0.0023091 -0.00019227 0.00051865
-0.0073159 0.013628 0.17104 0.29997 0.0057323 0.0074075 0.00045253 -0.0018559
-0.00074415 -0.0010163 -0.00017602 -0.00088712
-0.00094597 -0.0050049 0.0057787 0.0073886 0.32921 -0.10965 -0.0017588 0.00066909
-0.00049258 -0.0012088 0.00032893 -0.00060868
0.0017605 0.0020089 0.0004417 -0.0018696 -0.0017726 0.00067901 0.23428 0.097522
-0.012072 0.0095995 0.0029996 0.00066068
-9.4506e-05 -0.0023217 -0.00074273 -0.0010419 -0.00049734 -0.0012389 -0.012035 0.0096337
0.18556 0.18001 -0.0088926 0.0085892
-0.00023452 0.00050642 -0.00016045 -0.00085332 0.00032048 -0.00062077 0.0029931 0.00066844
-0.008889 0.0085782 0.20928 0.24154
1640000000 0.29456 0.024137 -0.00065491 0.012046 -0.0029655 -0.0024928 0.0030892 0.0009936
-0.00069384 -0.001795 -0.00043793 0.00057177
-0.00065685 0.012034 0.20191 0.2749 0.0059049 0.0024617 -0.00080408 -0.0019426
-0.0010604 -0.00026968 -0.00041679 -0.00078938
-0.0029614 -0.002494 0.0059199 0.0024191 0.30023 -0.16022 -0.00063572 0.00167
-0.0011411 -0.00088355 -0.00015775 -0.00051025
0.0031032 0.00097265 -0.00081445 -0.0019481 -0.00062962 0.0016651 0.24593 0.049346
-0.0071116 0.011006 0.002936 -0.0013014
-0.00068663 -0.0017828 -0.0010535 -0.00025895 -0.0011383 -0.0008866 -0.0071068 0.011043
0.20865 0.15392 -0.0040205 0.0103
-0.0003929 0.00059104 -0.00043014 -0.00077756 -0.0001405 -0.0005161 0.0029459 -0.0013273
-0.0040126 0.010289 0.23622 0.21099
1700000000 0.28618 -0.020751 0.0026013 0.0088793 -0.0034838 0.00019817 0.0032284 -0.0015776
-0.0021891 -0.00076389 0.00069956 0.00043338
0.0025927 0.008876 0.21952 0.24415 0.0033855 -0.00033879 -0.0017068 -0.00052127
-0.000759 0.00013251 -0.00088051 -0.00048817
-0.0034943 0.00020832 0.0033794 -0.0003582 0.25459 -0.19877 0.00057785 0.0017589
-0.0021527 -3.4167e-06 -0.00035208 -0.00075022
0.0032017 -0.0016059 -0.0017195 -0.00050833 0.00056218 0.0017345 0.24181 0.0019138
-0.0035177 0.011257 0.0016493 -0.002431
-0.0022119 -0.00074494 -0.00077006 0.00014038 -0.0021526 -3.2752e-06 -0.00349 0.011258
0.2259 0.13271 0.00095826 0.010058
0.00066426 0.00045865 -0.00086411 -0.00050816 -0.00037263 -0.00079087 0.0016008 -0.0024122
0.00095673 0.010064 0.25305 0.17814
1760000000 0.27544 -0.068747 0.0046233 0.0054291 -0.0022185 0.00096376 0.0010145 -0.0037475
-0.0016398 0.00067044 0.00024026 -0.00050825
0.0046101 0.0054281 0.24737 0.20505 0.00074639 -0.0018613 -0.0013266 0.00030981
-0.0009657 0.0009283 -0.00060317 0.00032757
-0.0022299 0.00097828 0.00073645 -0.0018667 0.20589 -0.23048 0.0012803 0.0010924
-0.0011005 0.0016814 -0.0013951 -0.00068088
0.0010296 -0.0037272 -0.0013156 0.00032423 0.0013016 0.0010902 0.23499 -0.047152
0.00013463 0.010021 -0.0001901 -0.0027563
-0.0016701 0.0006879 -0.00095652 0.00091759 -0.0011074 0.0016528 0.00012717 0.01002
0.2409 0.09862 0.0048261 0.0071298
0.00027159 -0.00054373 -0.00059799 0.00035998 -0.0013919 -0.00068229 -0.00016919 -0.0027684
0.0048218 0.0071225 0.26748 0.14152
1820000000 0.25052 -0.10658 0.0044011 0.0018811 -6.4023e-05 0.0021286 -0.0013338 -0.0032236
-0.0011493 0.0012391 -0.00011853 -0.00012958
0.0044063 0.001889 0.25771 0.17435 -0.0013889 -0.00039083 -0.0011631 0.001051
5.8513e-05 0.0011718 -0.00073198 0.00044712
-6.2867e-05 0.0021164 -0.0013878 -0.00038211 0.15498 -0.24529 0.0017 0.00010311
8.4804e-05 0.0025597 -0.0016907 0.00042938
-0.0013605 -0.0032037 -0.001152 0.0010748 0.0016821 0.00011809 0.2065 -0.094309
0.0022507 0.0080164 -0.0018448 -0.0019313
-0.001173 0.0012382 6.7697e-05 0.0011718 0.00010516 0.0025676 0.0023042 0.008018
0.25702 0.067949 0.0056138 0.0033417
-0.0001493 -6.3741e-05 -0.00075555 0.00044584 -0.0017068 0.00044272 -0.0019441 -0.0019349
0.0056114 0.0033342 0.27102 0.10529
1880000000 0.21518 -0.14573 0.0017601 -0.00024656 -0.00075784 0.0024652 -0.0030974 -0.0019927
-6.9277e-05 0.0019027 0.0002409 -0.00056815
0.0017397 -0.00022569 0.26269 0.12869 -0.0034981 0.0021792 -0.00011337 0.0016507
0.00062061 0.0011172 5.3808e-05 0.0010184
-0.00072766 0.0024654 -0.0035004 0.0021991 0.10295 -0.25194 0.0016055 -0.0013194
0.0019173 0.0015496 -0.00089398 0.0015967
-0.0030697 -0.0019838 -0.00010365 0.0016524 0.0016205 -0.0013297 0.16831 -0.13429
0.0033531 0.0052251 -0.0023749 -1.607e-05
-5.041e-05 0.001902 0.00061922 0.0011018 0.0019042 0.0015706 0.0033398 0.0052487
0.26044 0.036731 0.0057262 0.00079625
0.00021954 -0.00065402 0.00011641 0.0010472 -0.00082912 0.0015661 -0.0022766 3.2785e-05
0.0057113 0.00082009 0.27223 0.072574
1940000000 0.17708 -0.17205 -0.00068462 -0.0015514 0.0014262 0.0023452 -0.0037312 0.0006871
0.001515 0.0011758 -0.00067215 -0.00056235
-0.00067627 -0.0015514 0.26484 0.095976 -0.0018883 0.0048778 0.00099454 0.0012111
0.0016648 0.00039637 0.00086232 0.00031519
0.0014535 0.0023682 -0.0018566 0.0048832 0.059858 -0.24426 0.00012646 -0.0019777
0.0021991 2.0996e-05 0.00042172 0.0015011
-0.0037594 0.00073604 0.0009983 0.0011836 0.00014146 -0.0019279 0.11818 -0.16745
0.002534 0.0031879 -0.0016441 0.0009839
0.0015066 0.0011439 0.0016751 0.00036903 0.0022025 9.3489e-06 0.002559 0.0032009
0.26372 -0.003 0.004276 -0.0029661
-0.00061407 -0.00057585 0.00082297 0.00030881 0.00033575 0.0015138 -0.0017606 0.00096868
0.0042853 -0.002967 0.26384 0.03597
2000000000 0.13029 -0.18605 -0.0043384 0.00085973 0.003109 0.0018379 -0.0023791 0.003743
0.001141 0.00012812 -0.00051276 0.00070018
-0.0043113 0.0008732 0.25044 0.060302 -0.00082119 0.0071624 0.0013486 0.00032636
0.0011803 -0.0010966 0.00051322 0.00024453
0.0031266 0.0018039 -0.00078225 0.007178 0.017408 -0.22917 -0.0013862 -0.00099099
0.0017848 -0.0012688 0.0018115 0.0014882
-0.0023563 0.0037512 0.0013606 0.00034034 -0.0013529 -0.0010051 0.063829 -0.17919
0.00052219 0.0023379 -0.0005125 0.0021107
0.0011568 0.00014798 0.0012041 -0.0011067 0.0017675 -0.0012541 0.0005274 0.0023296
0.25722 -0.03678 0.00040918 -0.004059
