!Keysight Technologies,M9804A,MY58100912,A.14.10.03
!Date: Thursday, April 27, 2023 10:28:33
!Correction: S11(C  6-Port  ) 
!S12(C  6-Port  ) 
!S13(C  6-Port  ) 
!S14(C  6-Port  ) 
!S15(C  6-Port  ) 
!S16(C  6-Port  ) 
!S21(C  6-Port  ) 
!S22(C  6-Port  ) 
!S23(C  6-Port  ) 
!S24(C  6-Port  ) 
!S25(C  6-Port  ) 
!S26(C  6-Port  ) 
!S31(C  6-Port  ) 
!S32(C  6-Port  ) 
!S33(C  6-Port  ) 
!S34(C  6-Port  ) 
!S35(C  6-Port  ) 
!S36(C  6-Port  ) 
!S41(C  6-Port  ) 
!S42(C  6-Port  ) 
!S43(C  6-Port  ) 
!S44(C  6-Port  ) 
!S45(C  6-Port  ) 
!S46(C  6-Port  ) 
!S51(C  6-Port  ) 
!S52(C  6-Port  ) 
!S53(C  6-Port  ) 
!S54(C  6-Port  ) 
!S55(C  6-Port  ) 
!S56(C  6-Port  ) 
!S61(C  6-Port  ) 
!S62(C  6-Port  ) 
!S63(C  6-Port  ) 
!S64(C  6-Port  ) 
!S65(C  6-Port  ) 
!S66(C  6-Port  ) 
!S6P File: Measurement: :
# Hz S  RI   R 50
500000000 -0.32661 -0.054451 -0.010706 -0.00068948 -0.0080485 0.011936 -0.0040506 0.013
0.012044 0.0053968 -0.0046886 0.0097201
-0.010317 -0.00047532 -0.40968 -0.06958 0.0077485 -0.011136 0.00037392 0.012517
0.0081623 0.0031337 0.00042395 0.013716
-0.0077552 0.011926 0.0076653 -0.011109 -0.25361 0.19364 0.0064217 0.003563
-0.00059567 0.008331 0.0013833 0.012217
-0.0036967 0.013001 0.00036375 0.012322 0.0063877 0.0034398 -0.32964 0.044653
-0.018735 -0.0059779 0.013866 0.02847
0.012142 0.0057749 0.0082951 0.003097 -0.00081445 0.0084809 -0.018942 -0.0056537
-0.25695 -0.15881 -0.026322 0.0034286
-0.0041714 0.010551 0.00057665 0.014364 0.0017909 0.01265 0.014087 0.028298
-0.026486 0.0045272 -0.2598 -0.14363
560000000 -0.31176 0.1075 -0.022562 -0.066581 0.00031016 0.012725 0.0053172 0.0099143
0.0097083 0.0028294 0.012191 0.0080537
-0.023031 -0.066815 -0.36972 0.092664 -0.041879 -0.038556 0.014185 0.0028447
-0.012636 -0.0042283 0.0047643 -0.00065615
0.00083365 0.012978 -0.041939 -0.038615 -0.17834 0.24222 -0.00039241 -0.004795
0.017917 0.0047542 0.0067608 -0.0059478
0.0050918 0.0099406 0.014196 0.0027636 -0.00066143 -0.0047294 -0.30442 0.13601
0.0040888 -0.023038 0.006693 -0.020588
0.0097335 0.0034287 -0.012592 -0.0036576 0.01837 0.0046243 0.0042149 -0.023141
-0.30285 0.015691 0.0054463 -0.046988
0.011095 0.0081602 0.0044223 -0.00070229 0.0068035 -0.0057814 0.0065866 -0.020563
0.00659 -0.046649 -0.326 0.0018675
620000000 -0.27141 0.086446 -0.023982 0.0088693 0.0030411 0.0090755 0.007785 -0.0040232
0.0125 -0.0017803 -0.00055531 -0.0030124
-0.023903 0.0089974 -0.39926 0.039367 -0.019896 0.00062208 -0.0013088 -0.0018336
0.011074 -0.0065372 0.00019758 -0.0026934
0.0032926 0.0088573 -0.019945 0.00068718 -0.15311 0.25109 -0.00087139 -0.0047717
-0.0039352 -0.0024923 0.0083436 -0.0029415
0.0077761 -0.0040573 -0.0012881 -0.0019517 -0.001051 -0.0048231 -0.26424 0.1447
-0.038839 -0.018047 0.012387 0.029062
0.01254 -0.0024607 0.011085 -0.0064796 -0.0037775 -0.0026396 -0.038572 -0.018172
-0.23183 -0.017938 -0.041402 0.012835
-0.00089413 -0.0021899 0.00072906 -0.0033834 0.0088611 -0.0026265 0.012844 0.029112
-0.041386 0.01394 -0.24232 -0.032117
680000000 -0.2367 0.17729 -0.026441 -0.014056 0.0048833 0.0053715 0.0010737 -0.0075601
-0.0030626 -0.010689 0.004991 -0.0065236
-0.026431 -0.014216 -0.3891 0.14201 -0.032925 -0.0011562 -0.0016563 -0.00069087
-0.002381 -0.0090879 -0.00082385 -0.0013649
0.0046956 0.0056247 -0.033008 -0.0010379 -0.10654 0.27419 -0.00083838 -0.00029415
-0.0015854 0.00065309 -0.0027053 -0.0088819
0.0011375 -0.0073588 -0.001671 -0.00065562 -0.00086182 -0.0003085 -0.21947 0.19895
-0.025685 -0.006603 -0.0073569 -0.011368
-0.0031954 -0.011216 -0.0024648 -0.0091196 -0.0016276 0.00061871 -0.025482 -0.0066925
-0.2683 0.080947 -0.0075374 -0.0051336
0.0052276 -0.0064297 -0.00088608 -0.0012236 -0.0028549 -0.0087223 -0.0074531 -0.011612
-0.0078916 -0.0054408 -0.25934 0.070633
740000000 -0.19091 0.17058 -0.040358 0.026789 0.013314 -0.0039685 0.00056001 -0.0039041
-0.0054314 -0.0019126 -0.00619 0.00326
-0.040465 0.026885 -0.33477 0.16135 -0.036239 0.034723 2.2977e-06 -0.00661
-0.01121 0.0064311 -0.0019442 -0.0054924
0.013186 -0.0040737 -0.036312 0.034855 -0.073173 0.27524 -0.0014318 0.0032356
-0.0024122 -0.0042583 -0.0017178 0.00070585
0.00045779 -0.0041485 3.6428e-05 -0.0062242 -0.0015501 0.0032197 -0.20246 0.20412
-0.040901 -0.0041582 0.021707 0.016371
-0.0051638 -0.001722 -0.011166 0.0063135 -0.0023444 -0.0042307 -0.040902 -0.00418
-0.17866 0.099444 -0.039824 0.0037229
-0.0061575 0.0021602 -0.0017013 -0.0059897 -0.0015013 0.0010973 0.022219 0.016415
-0.03957 0.002819 -0.25171 0.074146
800000000 -0.1636 0.21576 -0.022432 0.016761 0.0054452 -0.010061 -0.0042499 -0.0022627
-0.0039675 0.0027473 0.0041457 0.00017448
-0.022288 0.01659 -0.34305 0.23257 -0.0080429 0.034869 -0.0021993 0.0022674
-0.00054131 0.0028164 0.00087028 0.0054067
0.0056387 -0.0099916 -0.0079296 0.034959 -0.035105 0.30147 0.00070996 0.0013429
0.00049196 0.0035985 -0.0017314 0.0007241
-0.0042675 -0.0023573 -0.0023282 0.0022164 0.00081325 0.0012671 -0.17345 0.23342
-0.027541 0.015963 0.015164 -0.011084
-0.0041595 0.0023994 -0.00044515 0.0029083 0.00036432 0.0035548 -0.027558 0.015772
-0.21067 0.13073 -0.017654 0.021195
0.0049586 0.00084348 0.00097445 0.0057216 -0.0017365 0.00084543 0.014744 -0.010912
-0.017013 0.021593 -0.24866 0.12626
860000000 -0.12807 0.23725 -0.017919 0.030756 -0.003397 -0.0099254 -0.0017776 0.00033678
0.0040508 0.0047014 -0.0033778 -0.0028345
-0.017685 0.030718 -0.29472 0.27733 0.0081462 0.034445 0.00016717 0.0019741
0.0040945 0.00070336 0.0032483 0.0002266
-0.0034589 -0.009951 0.0082609 0.03447 0.014557 0.31173 -0.00041258 -0.00030642
0.0024485 -0.0012101 0.0016698 0.0041036
-0.0017408 0.00022443 0.00018363 0.0019371 -0.00049247 -0.00035023 -0.13493 0.24525
-0.016503 0.020676 -0.0067016 -0.01045
0.0041274 0.0047149 0.0040319 0.00079475 0.002518 -0.0012177 -0.016727 0.020775
-0.15536 0.17685 -0.02263 0.017519
-0.0039158 -0.0033782 0.0030988 0.00021231 0.0015008 0.00415 -0.0067908 -0.0099875
-0.023424 0.016912 -0.19762 0.17655
920000000 -0.10526 0.26037 0.0050464 0.03929 -0.009155 -0.0042377 -0.0017864 0.0017581
0.00069869 0.001463 0.002926 -0.00087705
0.005043 0.039367 -0.26791 0.29821 0.028614 0.022628 0.0014505 0.0012416
0.0065805 -0.00054033 0.0040003 -0.0026994
-0.0091227 -0.0042781 0.028707 0.022557 0.060909 0.3131 0.0017696 0.00010083
0.00083316 -0.00051288 0.0010273 -0.0012436
-0.0018331 0.0018023 0.0014161 0.0012854 0.0018042 6.0891e-05 -0.11083 0.26146
-0.0086074 0.031523 0.0043301 -0.0062352
0.00060723 0.0014071 0.0066471 -0.00068898 0.00085186 -0.0004297 -0.0084672 0.031329
-0.14222 0.18335 -0.001489 0.02723
0.0030532 -0.00089507 0.0041529 -0.0025741 0.00096873 -0.0012943 0.0042377 -0.0060819
-0.0015531 0.027202 -0.20907 0.18906
980000000 -0.058662 0.28273 0.017565 0.030269 -0.0090279 0.0046844 0.0018873 0.0033304
0.0037523 -0.0017869 -0.0033328 -0.0022742
0.017573 0.030151 -0.21569 0.3358 0.033591 0.0046964 0.0018864 -0.00024534
0.0015185 -0.0058506 -0.0005697 -0.0026975
-0.0090571 0.0047743 0.033649 0.0045867 0.10797 0.30868 0.00049648 -0.0011218
0.00038384 -0.0018156 0.0014616 -0.00041717
0.001959 0.0033505 0.0018961 -0.00024651 0.00047029 -0.00117 -0.071115 0.27343
0.010812 0.028994 -0.0093522 -0.0077588
0.0037803 -0.0016805 0.0015253 -0.0058295 0.00037883 -0.0018315 0.010805 0.029045
-0.10812 0.21012 0.0072854 0.019841
-0.0034848 -0.002793 -0.00068443 -0.0027518 0.0015271 -0.00027957 -0.0092873 -0.0076892
0.007066 0.019571 -0.16872 0.23835
1040000000 -0.016611 0.29088 0.033621 0.018909 -0.00077895 0.007461 0.0023367 0.00064823
0.00029354 -0.0035415 -0.00022836 -0.0014595
0.033504 0.018975 -0.1796 0.34859 0.029843 -0.015105 0.0015011 -0.0018382
-0.002278 -0.0024062 -0.0010643 -0.0030758
-0.00083708 0.0073815 0.029804 -0.015214 0.15547 0.29453 -0.00055251 -0.0014827
-0.0015678 -0.0010576 -0.00055228 -0.001312
0.002332 0.00069705 0.0015576 -0.0019577 -0.0004979 -0.0015178 -0.042584 0.28208
0.021462 0.016809 -0.0018342 0.001393
0.00037991 -0.0036373 -0.002245 -0.0023256 -0.0015837 -0.00107 0.02165 0.016657
-0.075205 0.21517 0.014646 0.017442
-1.6345e-05 -0.0012025 -0.00093935 -0.0030207 -0.00058582 -0.0012377 -0.0016797 0.0012876
0.014786 0.01825 -0.14563 0.25959
1100000000 0.027305 0.30093 0.036807 -0.0039869 0.0035408 0.0039002 0.002238 -0.0010851
-0.0023915 -0.002801 -0.0040664 6.2007e-06
0.036685 -0.003923 -0.1373 0.36857 0.015155 -0.028202 -0.00016703 -0.00184
-0.0034869 -0.00069661 -0.0037736 -0.00062263
0.0035816 0.0039064 0.015077 -0.028271 0.20142 0.27499 -0.0018108 0.00019683
-0.0016371 0.00058762 -0.0010714 -0.00055018
0.0022668 -0.0011121 -0.00019569 -0.0017785 -0.0018405 0.00024178 -0.0019516 0.28686
0.02596 0.0024233 -0.0022118 -0.000528
-0.0022097 -0.0026548 -0.0035549 -0.00069388 -0.0016971 0.00059954 0.025872 0.0024383
-0.054748 0.22791 0.019996 0.0073589
-0.0041234 -0.00020131 -0.00368 -0.00059584 -0.0010669 -0.00056956 -0.0023124 -0.00040623
0.020247 0.0068345 -0.10225 0.29233
1160000000 0.07979 0.29768 0.024571 -0.020978 0.00333 -0.00094126 -0.0003426 -0.0022101
-0.0038812 -0.00059683 -0.00094615 0.0041081
0.024674 -0.021016 -0.091509 0.37332 -0.0041083 -0.029068 -0.0015646 -0.0014188
-0.0025367 0.0024175 -0.0015055 0.0019068
0.0032975 -0.00094345 -0.0042668 -0.029065 0.24613 0.24425 -0.00070253 0.0016038
-0.00046552 0.0016827 -0.0010286 0.00026824
-0.00035056 -0.0021589 -0.0015351 -0.0014333 -0.00068115 0.0016236 0.039477 0.28301
0.020775 -0.013082 -0.003976 0.0044214
-0.0039571 -0.00068593 -0.0024944 0.0025122 -0.00044518 0.0016755 0.020813 -0.012958
-0.019214 0.23451 0.018159 -0.0019987
-0.00091561 0.0041755 -0.0015033 0.0019465 -0.0010534 0.00027729 -0.0035683 0.0044962
0.01807 -0.0011906 -0.052927 0.29687
1220000000 0.12302 0.28694 0.011111 -0.03064 -0.0014272 -0.0015137 4.8286e-05 -0.00089188
-0.0024741 0.0021538 0.0012032 0.0018697
0.011113 -0.030566 -0.048291 0.3864 -0.01721 -0.021037 -0.0025162 0.00050039
4.1059e-05 0.0029145 -0.00094039 0.0019258
-0.0013698 -0.001539 -0.017312 -0.020989 0.28494 0.20452 0.00080047 0.0016059
0.00055172 0.001124 9.457e-05 0.0006721
5.4157e-05 -0.00088544 -0.0025167 0.0005429 0.00082626 0.0016266 0.079099 0.27215
0.0097027 -0.019262 0.0016802 0.001055
-0.002414 0.0022479 7.0413e-05 0.0029282 0.00053554 0.0011671 0.0096367 -0.019329
0.0060301 0.24085 0.012945 -0.013303
0.001008 0.0018673 -0.00085635 0.0019661 0.00013551 0.00061915 0.001606 0.0010663
0.013165 -0.013513 -0.024172 0.31435
1280000000 0.17378 0.26793 -0.0079719 -0.029234 -0.0020749 0.0018024 -0.00091612 -0.001837
-0.00070525 0.0029884 0.0024752 0.0012162
-0.0079287 -0.029195 -0.0013755 0.37867 -0.024072 -0.0079451 -0.00094536 0.0014327
0.0016369 0.0016216 0.00072705 0.0020507
-0.0020482 0.0018761 -0.024153 -0.0078281 0.31582 0.16163 0.0015292 4.7178e-05
0.0010625 0.00026654 0.00016961 0.00039921
-0.00091979 -0.0018509 -0.00090759 0.001424 0.0015131 5.0652e-05 0.11584 0.25457
-0.00083578 -0.021116 -0.0010261 0.00016749
-0.00075395 0.0030328 0.0016989 0.0016787 0.0010497 0.00021787 -0.0009135 -0.020986
0.043594 0.24336 0.002234 -0.015655
0.0026449 0.0011677 0.00068829 0.0020346 0.00020065 0.00051619 -0.00088452 0.00027016
0.001895 -0.015665 0.0244 0.31947
1340000000 0.21173 0.23356 -0.017728 -0.019387 0.00020743 0.0043148 -0.0016299 -0.00084831
0.0014673 0.00254 0.0017209 -0.0013786
-0.017656 -0.019435 0.038037 0.37031 -0.021051 0.0047691 -0.0002637 0.0020322
0.0018652 0.00085752 0.0012038 0.00083516
0.0002085 0.0042767 -0.02105 0.0048531 0.33886 0.11255 0.0010177 -0.00087316
0.00064017 -0.00060888 0.00022682 0.00035569
-0.0016398 -0.00082749 -0.00030103 0.002027 0.00095947 -0.00084557 0.14772 0.23141
-0.010548 -0.017157 0.00056688 0.0010839
0.0015871 0.0025886 0.0018282 0.00078863 0.00063662 -0.00062849 -0.010595 -0.017234
0.073944 0.23531 -0.0047152 -0.013664
0.001662 -0.0014817 0.00119 0.00075519 0.00011736 0.00031289 0.00056676 0.00095939
-0.0043446 -0.013676 0.06332 0.31517
1400000000 0.24489 0.19652 -0.023992 -0.0078037 0.0046845 0.0032377 -0.0020901 0.00053665
0.0023807 0.00090338 0.00030761 -0.0012873
-0.02397 -0.0078198 0.074773 0.35821 -0.014283 0.012618 0.0013077 0.0014556
0.0012426 -0.00064191 0.0011725 0.00015663
0.0046813 0.0032607 -0.014232 0.012727 0.35139 0.058753 9.7311e-05 -0.0015117
0.00017656 -0.00036307 0.00041153 0.00028497
-0.0020991 0.00052681 0.0013356 0.0014746 0.00015002 -0.0015718 0.17464 0.20184
-0.016566 -0.0096805 -0.00096765 0.00031292
0.0023422 0.00087443 0.0012792 -0.00066502 0.00017282 -0.00039027 -0.016589 -0.0096408
0.10658 0.22891 -0.010383 -0.0085181
0.00041536 -0.0011601 0.0011485 0.00016451 0.00041902 0.00034247 -0.0010686 0.00036681
-0.010706 -0.0085548 0.10769 0.30626
1460000000 0.26888 0.15296 -0.020745 0.0049648 0.0051806 -0.0014836 -0.0016335 0.0015993
0.0020945 -0.00046869 -0.00013621 -0.00075785
-0.02074 0.0048845 0.10974 0.3367 -0.0053237 0.01516 0.0018328 0.00030943
0.0009874 -0.0014186 0.0011696 -0.00045795
0.0051526 -0.001478 -0.0052521 0.015188 0.35827 0.0037144 -0.0011567 -0.0013765
0.00017402 -0.00030173 0.00077876 -0.00029095
-0.0016191 0.001639 0.0017639 0.00033783 -0.0011908 -0.0013907 0.19975 0.17276
-0.017486 -0.0022019 -0.00052618 0.0025527
0.0020746 -0.00043097 0.00097976 -0.001425 0.00014769 -0.00026856 -0.017496 -0.0020826
0.13646 0.21239 -0.012241 -0.0022319
-0.00027658 -0.00083946 0.0012064 -0.00048281 0.00070313 -0.00032441 -0.00035327 0.0025229
-0.012184 -0.0021627 0.14266 0.2862
1520000000 0.28058 0.11078 -0.015092 0.0105 0.0032586 -0.0037436 5.0348e-05 0.002665
0.0020435 -0.0016999 -0.0010145 -0.00022583
-0.0151 0.010483 0.14295 0.32242 0.0020312 0.012509 0.0018235 -0.00080973
3.583e-05 -0.0011337 0.00034626 -0.0010416
0.0032288 -0.0037446 0.0021066 0.012507 0.35 -0.054333 -0.0011324 -0.00046815
0.00041199 -0.00086462 8.0573e-05 -0.00020999
7.2497e-05 0.002616 0.0018409 -0.00081183 -0.0011113 -0.00043571 0.22039 0.13458
-0.016176 0.004166 0.0019611 0.0019975
0.0020367 -0.001768 2.3487e-05 -0.0011079 0.00042166 -0.00083697 -0.016132 0.0041936
0.16358 0.19682 -0.011614 0.0020017
-0.00097578 -0.00020303 0.00033443 -0.0009755 0.00013413 -0.00011691 0.0019311 0.0019543
-0.01165 0.001917 0.17552 0.26746
1580000000 0.29026 0.066281 -0.0082811 0.013935 -0.00092694 -0.0045338 0.0015115 0.0020476
-7.9819e-05 -0.0021923 -0.00026735 0.00043215
-0.0082883 0.013901 0.1701 0.29913 0.0052414 0.0074689 0.00063692 -0.0017822
-0.00066537 -0.0011422 -0.00019844 -0.00072598
-0.00095906 -0.0044907 0.0052908 0.0074465 0.32847 -0.11055 -0.0016496 0.00056841
-0.0004742 -0.0011146 0.0003461 -0.00057598
0.0015499 0.0020476 0.00059867 -0.0017281 -0.0017109 0.00059399 0.2327 0.097475
-0.01194 0.0091955 0.0024532 0.00065521
-8.0941e-05 -0.0020938 -0.00069361 -0.0011489 -0.00049894 -0.001095 -0.011964 0.0091932
0.18697 0.17824 -0.0091926 0.0076935
-0.00016623 0.00034997 -0.00025898 -0.00071423 0.00032474 -0.00067377 0.0025435 0.00065507
-0.0091661 0.0078669 0.20968 0.2427
1640000000 0.2932 0.024827 -0.0013019 0.012657 -0.0026313 -0.0022363 0.0028982 0.0010617
-0.00060296 -0.001642 -0.00037236 0.00047903
-0.0012987 0.012654 0.20085 0.27442 0.0055432 0.0027259 -0.00069488 -0.0019308
-0.0011433 -0.00025301 -0.00044979 -0.00073503
-0.0026348 -0.0021932 0.0055744 0.0026827 0.29925 -0.16047 -0.00064764 0.0015876
-0.001028 -0.00080206 -0.00019096 -0.00054521
0.00291 0.0010367 -0.00072977 -0.0019618 -0.00065093 0.0016335 0.24455 0.050129
-0.0073712 0.010534 0.0026118 -0.0011227
-0.00061087 -0.0016624 -0.0011105 -0.00025863 -0.001008 -0.00077041 -0.0073252 0.010634
0.20887 0.15194 -0.0041376 0.0095623
-0.00025233 0.00044181 -0.00043886 -0.00068763 -8.3942e-05 -0.00047515 0.0025864 -0.0011209
-0.0042119 0.0095161 0.2361 0.2118
1700000000 0.2855 -0.019554 0.0023151 0.0097394 -0.0031415 0.00021023 0.0032033 -0.0013579
-0.0021783 -0.00072444 0.00056722 0.00037356
0.0023068 0.0096955 0.21824 0.24412 0.0032099 7.7223e-05 -0.0016313 -0.00064298
-0.00078437 0.00018966 -0.00076776 -0.00039703
-0.0031424 0.00020334 0.0032208 6.3637e-05 0.25367 -0.19885 0.0004919 0.0016909
-0.0018643 -2.5576e-05 -0.00031802 -0.00071377
0.0032234 -0.0013736 -0.0016438 -0.00059466 0.00051273 0.0017081 0.2409 0.0031234
-0.0037895 0.010996 0.0013434 -0.0021162
-0.0021925 -0.00067907 -0.00078828 0.00017276 -0.0018471 -6.0493e-05 -0.0037958 0.0109
0.22543 0.1309 0.0003871 0.0093842
0.00058444 0.00039295 -0.00077832 -0.00039551 -0.00034952 -0.0007139 0.0013866 -0.0020725
0.00039648 0.0094008 0.2533 0.17841
1760000000 0.27536 -0.067577 0.0047328 0.0062679 -0.0020384 0.00096947 0.0011746 -0.0036348
-0.001577 0.00060835 0.000164 -0.00040012
0.0047008 0.0062636 0.24618 0.20544 0.00073876 -0.0013819 -0.0013325 0.00029194
-0.00087244 0.0009839 -0.000533 0.00026205
-0.0020181 0.00096949 0.0007425 -0.0013758 0.20504 -0.23005 0.0013273 0.0011364
-0.0010265 0.0015269 -0.0012916 -0.00074707
0.0011414 -0.0036315 -0.0013378 0.00022311 0.0013228 0.0011274 0.23475 -0.045727
-0.00034426 0.0098002 -0.00012774 -0.0024974
-0.0015363 0.00058713 -0.00086379 0.00098445 -0.0010015 0.0015519 -0.00036989 0.0097952
0.23951 0.096841 0.0041961 0.0067566
0.00015465 -0.00044689 -0.00052676 0.00029052 -0.001211 -0.00069711 -0.00023098 -0.0025706
0.004279 0.0067166 0.26767 0.14167
1820000000 0.25086 -0.10559 0.0048853 0.0025166 0.00015818 0.0019766 -0.0011572 -0.0031166
-0.0011731 0.0012584 -0.00010983 -4.3304e-05
0.0048325 0.002527 0.25662 0.17515 -0.0012756 4.3651e-07 -0.0012657 0.0010349
0.00017909 0.0011434 -0.00064166 0.00030439
0.0001116 0.0019316 -0.0012767 2.8365e-06 0.15436 -0.24492 0.0016805 7.3581e-05
2.8193e-05 0.0022218 -0.0015581 0.00025774
-0.0012094 -0.0031314 -0.0012361 0.0010677 0.0017822 7.9194e-05 0.20674 -0.092801
0.0015676 0.0081855 -0.0018747 -0.0017132
-0.0011842 0.0012721 0.00018873 0.0011413 3.305e-05 0.0022445 0.0017274 0.0081939
0.25498 0.067119 0.0048059 0.0031403
-0.00011178 -1.5974e-05 -0.00063265 0.00036167 -0.0016514 0.00031412 -0.0016724 -0.0016288
0.0048553 0.003114 0.27088 0.10553
1880000000 0.21599 -0.14507 0.0025687 0.0001643 -0.00055113 0.0020801 -0.0029857 -0.0021278
5.2719e-05 0.0019499 0.00039326 -0.00061681
0.0025734 0.00015994 0.26204 0.12996 -0.003091 0.00236 -0.00011993 0.0017394
0.00065842 0.0010448 5.0116e-05 0.0009087
-0.00050524 0.0020897 -0.0030787 0.0023774 0.10258 -0.25153 0.0015085 -0.001215
0.0016393 0.0017425 -0.0010731 0.001537
-0.0029292 -0.00216 -0.00011106 0.0016837 0.0015194 -0.0011627 0.16931 -0.13297
0.0028978 0.0058337 -0.0020161 0.00045285
9.49e-05 0.0019006 0.00069201 0.0010271 0.0016271 0.0017873 0.0027862 0.0057318
0.25831 0.036828 0.0048791 0.0011624
0.00047699 -0.00059905 5.9737e-05 0.00084502 -0.0010212 0.0013726 -0.002015 0.00031292
0.0049106 0.0011515 0.27181 0.072668
1940000000 0.17788 -0.17182 0.00020976 -0.0015588 0.0014412 0.002003 -0.0037731 0.00055878
0.0016243 0.001053 -0.00043546 -0.00077217
0.00021465 -0.0015028 0.26476 0.097416 -0.0015021 0.0049427 0.0010752 0.001252
0.0016083 0.00031299 0.00070497 0.00031108
0.0014684 0.0020345 -0.0014636 0.0049549 0.059476 -0.24358 0.00016256 -0.0019755
0.0022085 0.00029233 4.7711e-05 0.0016991
-0.0036648 0.00056108 0.0010398 0.0012905 0.00019818 -0.0019692 0.11977 -0.16689
0.0023151 0.0038721 -0.001337 0.00099312
0.0016345 0.0011125 0.0016002 0.00027617 0.0022105 0.00029307 0.0024619 0.0039666
0.26157 -0.0019455 0.003448 -0.0022752
-0.00052541 -0.00074282 0.00071372 0.00027995 4.2805e-05 0.0018088 -0.001351 0.0012335
0.0034627 -0.002294 0.26269 0.036139
2000000000 0.13093 -0.18613 -0.0035553 0.00054527 0.0028277 0.0014912 -0.0024281 0.0034757
0.0012121 -2.6059e-05 -0.00081134 0.00048928
-0.0035508 0.00050561 0.25091 0.061643 -0.00054919 0.0068436 0.0013772 0.00024146
0.0010233 -0.0012438 0.00046315 0.00019922
0.0027533 0.0015077 -0.00052251 0.0068724 0.01723 -0.22854 -0.0014266 -0.001142
0.0018512 -0.001267 0.0016628 0.0016029
-0.0024416 0.0034918 0.0014019 0.00013641 -0.0015474 -0.0011287 0.06554 -0.1799
0.00099738 0.0028441 -0.00013895 0.0021215
0.001097 -9.9303e-05 0.001039 -0.001267 0.0018446 -0.0012988 0.00092658 0.0027418
0.25619 -0.034952 0.0004027 -0.0029643
