!Keysight Technologies,M9804A,MY58100912,A.14.10.03
!Date: Thursday, April 27, 2023 10:28:33
!Correction: S11(C  6-Port  ) 
!S12(C  6-Port  ) 
!S13(C  6-Port  ) 
!S14(C  6-Port  ) 
!S15(C  6-Port  ) 
!S16(C  6-Port  ) 
!S21(C  6-Port  ) 
!S22(C  6-Port  ) 
!S23(C  6-Port  ) 
!S24(C  6-Port  ) 
!S25(C  6-Port  ) 
!S26(C  6-Port  ) 
!S31(C  6-Port  ) 
!S32(C  6-Port  ) 
!S33(C  6-Port  ) 
!S34(C  6-Port  ) 
!S35(C  6-Port  ) 
!S36(C  6-Port  ) 
!S41(C  6-Port  ) 
!S42(C  6-Port  ) 
!S43(C  6-Port  ) 
!S44(C  6-Port  ) 
!S45(C  6-Port  ) 
!S46(C  6-Port  ) 
!S51(C  6-Port  ) 
!S52(C  6-Port  ) 
!S53(C  6-Port  ) 
!S54(C  6-Port  ) 
!S55(C  6-Port  ) 
!S56(C  6-Port  ) 
!S61(C  6-Port  ) 
!S62(C  6-Port  ) 
!S63(C  6-Port  ) 
!S64(C  6-Port  ) 
!S65(C  6-Port  ) 
!S66(C  6-Port  ) 
!S6P File: Measurement: :
# Hz S  RI   R 50
500000000 -0.3271 -0.054673 -0.010702 -0.000496 -0.0076801 0.012114 -0.0043152 0.01275
0.011922 0.0059106 -0.0051772 0.0097249
-0.010655 -0.00049587 -0.40995 -0.069507 0.0076957 -0.011179 0.00055396 0.012216
0.0076798 0.0031937 0.00046246 0.014091
-0.0076901 0.01218 0.0075101 -0.011183 -0.25377 0.1939 0.0065102 0.0032134
-0.0011246 0.0085876 0.0017453 0.01216
-0.0042628 0.012839 0.00050651 0.012336 0.0064388 0.0031182 -0.32995 0.043873
-0.018754 -0.0053884 0.013175 0.027362
0.012052 0.0059219 0.0077117 0.0033844 -0.0011278 0.008564 -0.018752 -0.0051381
-0.25631 -0.15841 -0.026551 0.0049036
-0.0046964 0.010123 0.00044024 0.014443 0.0015494 0.011697 0.013438 0.027448
-0.026622 0.0048701 -0.26086 -0.14473
560000000 -0.31171 0.10852 -0.022878 -0.066195 0.0001676 0.012941 0.0050362 0.010271
0.010634 0.0026756 0.011088 0.0079423
-0.022866 -0.066151 -0.36985 0.093545 -0.041887 -0.038756 0.014237 0.002811
-0.012754 -0.0037011 0.0044694 -0.00060609
0.00028269 0.012696 -0.041882 -0.038751 -0.1785 0.24235 -0.00056313 -0.0051276
0.01724 0.0043164 0.0073631 -0.0063195
0.0048401 0.010298 0.014137 0.0028976 -0.00045997 -0.0052147 -0.30388 0.13638
0.0037254 -0.023874 0.0064272 -0.020219
0.010292 0.0026963 -0.01312 -0.0030871 0.017019 0.0038134 0.0036277 -0.023529
-0.30427 0.013537 0.0089806 -0.046695
0.010964 0.0082572 0.0040729 -0.00097335 0.0076706 -0.0061311 0.0067465 -0.020378
0.0087975 -0.046824 -0.32711 0.0024872
620000000 -0.27202 0.087135 -0.023866 0.0089467 0.0031362 0.0087716 0.007988 -0.0040195
0.012496 -0.0019567 0.00015083 -0.0019438
-0.023862 0.008994 -0.39919 0.039469 -0.019882 0.00057665 -0.0013553 -0.0020076
0.011347 -0.0063514 0.00079001 -0.0031812
0.0031311 0.0089155 -0.019828 0.00065035 -0.15311 0.25097 -0.00083457 -0.0048087
-0.0038586 -0.002361 0.0087348 -0.0023963
0.0080697 -0.0039829 -0.0015406 -0.001805 -0.00064201 -0.0046591 -0.26412 0.14419
-0.039073 -0.017967 0.012549 0.028288
0.012175 -0.0021816 0.011382 -0.0067438 -0.0041254 -0.0026839 -0.03942 -0.017945
-0.23031 -0.018199 -0.040394 0.013979
0.00068389 -0.002227 0.00046197 -0.0031212 0.0089853 -0.0022946 0.013 0.028134
-0.040406 0.013971 -0.24117 -0.035144
680000000 -0.23747 0.17771 -0.026487 -0.014304 0.0048014 0.0054559 0.0014245 -0.007572
-0.003204 -0.010915 0.0054193 -0.0065196
-0.02645 -0.014308 -0.38914 0.14193 -0.032892 -0.0010612 -0.0016212 -0.00042434
-0.0023197 -0.0092358 -0.0010937 -0.0012986
0.0048158 0.0054255 -0.03296 -0.0010136 -0.10652 0.27431 -0.00090326 -0.00032901
-0.0016186 0.00064202 -0.0031077 -0.008928
0.0012979 -0.0077917 -0.0017641 -0.00069121 -0.00099388 -0.00034267 -0.21935 0.19874
-0.025651 -0.0065525 -0.006836 -0.011178
-0.0031519 -0.010602 -0.0023732 -0.0091395 -0.0016429 0.00063168 -0.025482 -0.0065246
-0.26811 0.081325 -0.0073761 -0.0067061
0.0051024 -0.0066213 -0.0011071 -0.0014981 -0.0032426 -0.0087093 -0.0073229 -0.011183
-0.007537 -0.0066389 -0.2587 0.071146
740000000 -0.19106 0.17094 -0.040371 0.02696 0.01324 -0.0040131 0.00041264 -0.0041189
-0.0051868 -0.0012548 -0.0062083 0.0023006
-0.040349 0.02695 -0.33453 0.16124 -0.036145 0.034584 -0.00016322 -0.0062972
-0.011162 0.0067481 -0.0021368 -0.0064452
0.01317 -0.0040552 -0.036145 0.034804 -0.073266 0.27528 -0.0014103 0.0032397
-0.0026278 -0.0043803 -0.0014143 0.00089176
0.00037909 -0.004023 0.00014219 -0.0064256 -0.001385 0.0033063 -0.20242 0.20401
-0.040854 -0.0047063 0.021723 0.016404
-0.005422 -0.00095568 -0.010753 0.0068826 -0.0024841 -0.0044334 -0.040871 -0.0046152
-0.1789 0.10055 -0.039319 0.0018396
-0.0061526 0.0020938 -0.0018681 -0.0062242 -0.0012379 0.0011288 0.021835 0.016175
-0.039294 0.0018911 -0.25233 0.074992
800000000 -0.16371 0.21606 -0.022351 0.016632 0.0056198 -0.0099536 -0.0041674 -0.0023729
-0.00463 0.0026575 0.0050099 0.00097896
-0.022352 0.016612 -0.34318 0.23251 -0.008017 0.034876 -0.002162 0.0021589
-0.00077042 0.002722 0.0012055 0.0058005
0.0055765 -0.0099614 -0.0079129 0.034906 -0.035108 0.30145 0.00068692 0.0013403
0.0003671 0.0035189 -0.0018608 0.00070844
-0.0041932 -0.0023512 -0.0021576 0.0022194 0.00066622 0.0013677 -0.17335 0.23342
-0.027573 0.015771 0.015065 -0.010901
-0.0045461 0.0027119 -0.00071361 0.0027591 0.00043751 0.0035397 -0.027594 0.01596
-0.21133 0.1307 -0.016941 0.021405
0.0048712 0.0010792 0.0011318 0.0058665 -0.0018977 0.00095894 0.014853 -0.010982
-0.017014 0.021302 -0.24874 0.12685
860000000 -0.12814 0.23748 -0.017768 0.030618 -0.0034141 -0.010074 -0.0017439 0.00037056
0.0043502 0.0048159 -0.0038318 -0.0032965
-0.017774 0.030599 -0.29465 0.27693 0.0082126 0.034371 0.00020476 0.0020451
0.0040684 0.00063525 0.0032108 1.9431e-05
-0.0034203 -0.010045 0.0083249 0.034359 0.014506 0.31169 -0.00039953 -0.00026222
0.0023493 -0.0013464 0.0016155 0.0043257
-0.0016946 0.00037709 0.00028713 0.0021173 -0.00035227 -0.000228 -0.13492 0.24515
-0.016921 0.020789 -0.0067974 -0.0098525
0.0044368 0.0046535 0.004162 0.00051831 0.002364 -0.0013677 -0.016959 0.020698
-0.15493 0.17672 -0.023058 0.016791
-0.0039374 -0.0033187 0.0031486 0.0001095 0.0016141 0.0043308 -0.0064261 -0.0097142
-0.023028 0.016915 -0.19899 0.17771
920000000 -0.10512 0.26035 0.0051219 0.039415 -0.0090646 -0.0042877 -0.0018158 0.001849
0.00064197 0.0013589 0.0029511 -0.00092841
0.0050868 0.039406 -0.26777 0.29816 0.028604 0.022618 0.001459 0.0011826
0.0067398 -0.0005293 0.0043921 -0.003094
-0.0090887 -0.0042542 0.028722 0.022541 0.060931 0.31309 0.0017288 8.5641e-05
0.00098338 -0.00045701 0.00092819 -0.00135
-0.0017921 0.0018256 0.0015152 0.0012478 0.0017252 8.0764e-05 -0.11083 0.26147
-0.0083586 0.031161 0.0044969 -0.006177
0.00061786 0.001514 0.0067551 -0.00060585 0.00094875 -0.00049142 -0.0083232 0.031279
-0.1423 0.18293 -0.0011212 0.027118
0.0030765 -0.00080776 0.004348 -0.0029859 0.00095532 -0.0012817 0.0043517 -0.0063336
-0.0012806 0.027043 -0.20888 0.18887
980000000 -0.058677 0.28278 0.01757 0.030182 -0.0090707 0.0047362 0.0019276 0.0035374
0.0037721 -0.0015819 -0.0034525 -0.0026992
0.01752 0.030177 -0.21575 0.33578 0.033525 0.0047454 0.0020235 -0.0002652
0.0017158 -0.0058542 -0.0006914 -0.0028276
-0.0090703 0.0047557 0.033585 0.0046408 0.10792 0.30866 0.00050902 -0.0011237
0.00035316 -0.0017441 0.0015931 -0.0003617
0.0020075 0.0035187 0.0019558 -0.0002861 0.00053355 -0.0010973 -0.071235 0.27354
0.010649 0.029118 -0.009337 -0.0075853
0.0038316 -0.0016641 0.0016777 -0.0058149 0.000409 -0.0017418 0.010818 0.029127
-0.10745 0.21026 0.006714 0.01917
-0.0035017 -0.0027205 -0.00072765 -0.0027771 0.0016076 -0.00031044 -0.0093643 -0.0075781
0.0067401 0.019183 -0.16822 0.23932
1040000000 -0.016736 0.29072 0.033588 0.019015 -0.00082697 0.0074022 0.0021898 0.00059678
0.00021389 -0.0037026 -0.00018941 -0.00096913
0.033536 0.019046 -0.1797 0.34872 0.029781 -0.015049 0.0015674 -0.0018013
-0.0022433 -0.0025093 -0.0010774 -0.0027101
-0.00081759 0.007395 0.02977 -0.0152 0.15543 0.29455 -0.00052647 -0.0015005
-0.0015263 -0.0011283 -0.00054358 -0.0010972
0.0022039 0.00059698 0.0015272 -0.0018156 -0.00053369 -0.0014971 -0.042608 0.28203
0.021583 0.016593 -0.001598 0.0013485
0.00012066 -0.0036282 -0.00228 -0.0025278 -0.0016005 -0.0011001 0.021527 0.016595
-0.074796 0.21488 0.014694 0.017917
-0.00024504 -0.00096138 -0.0010758 -0.0028233 -0.00051213 -0.0011599 -0.0015928 0.0013153
0.014679 0.017872 -0.14595 0.25974
1100000000 0.027453 0.30094 0.036852 -0.0038836 0.0035464 0.0039661 0.0022636 -0.0010467
-0.0021665 -0.0027698 -0.0041234 -0.00020187
0.036826 -0.0038564 -0.13733 0.36866 0.015154 -0.028177 -0.00017988 -0.0018441
-0.0033523 -0.00060761 -0.0037004 -0.00085111
0.0035667 0.0039508 0.015062 -0.028274 0.20143 0.27502 -0.0018179 0.00025651
-0.0016983 0.00059973 -0.0010674 -0.00053327
0.0022586 -0.0010579 -0.00018712 -0.0018444 -0.0018026 0.0002508 -0.0019993 0.28691
0.025763 0.0025021 -0.0026015 -0.00043935
-0.0021226 -0.0027466 -0.0033229 -0.00055392 -0.0016659 0.00059727 0.02578 0.0024643
-0.054875 0.22777 0.020056 0.0065851
-0.0042293 -0.00021071 -0.0036452 -0.00083013 -0.0010584 -0.00055038 -0.0027301 -0.00036771
0.020101 0.006624 -0.10292 0.29257
1160000000 0.079744 0.29754 0.024668 -0.021018 0.0033363 -0.00094212 -0.00038601 -0.0022467
-0.0039316 -0.00067253 -0.00093386 0.004223
0.024673 -0.02098 -0.091467 0.37329 -0.0041495 -0.029065 -0.0015397 -0.0014838
-0.0026008 0.0024502 -0.0013656 0.0020609
0.0033341 -0.00096611 -0.0042792 -0.029094 0.24612 0.24427 -0.00066861 0.0016178
-0.00042002 0.001696 -0.0010536 0.00022748
-0.00040223 -0.0022568 -0.0015877 -0.0014616 -0.00066818 0.001607 0.03948 0.283
0.020895 -0.013054 -0.0035114 0.0045749
-0.0040115 -0.00065458 -0.0026033 0.0024771 -0.00047351 0.0016803 0.020883 -0.013101
-0.018973 0.23468 0.018483 -0.0014371
-0.00074492 0.0041547 -0.0012941 0.0020204 -0.0010143 0.00018708 -0.0034348 0.0045978
0.018462 -0.0014485 -0.052352 0.29632
1220000000 0.12309 0.2869 0.011149 -0.030634 -0.0013589 -0.0015486 6.5612e-05 -0.00084476
-0.0024329 0.0022451 0.0011747 0.0017956
0.011158 -0.030584 -0.048298 0.3864 -0.017203 -0.021047 -0.0025002 0.00047685
3.4095e-05 0.002969 -0.00090223 0.001964
-0.0013662 -0.0015457 -0.017315 -0.020996 0.28495 0.20452 0.00079215 0.0015958
0.00052528 0.0011284 2.8387e-05 0.00067199
8.714e-05 -0.00083934 -0.002491 0.00050559 0.0007895 0.0016158 0.079008 0.2721
0.0096298 -0.01934 0.0015398 0.0010481
-0.0023996 0.0022106 7.3384e-05 0.0029538 0.00054238 0.001136 0.0096353 -0.019381
0.0058554 0.24087 0.013061 -0.013444
0.0010911 0.0018602 -0.00097315 0.0020529 3.1726e-05 0.00071372 0.0014737 0.00098056
0.013071 -0.013433 -0.023608 0.31427
1280000000 0.17377 0.26787 -0.0079941 -0.029224 -0.0020851 0.0018183 -0.00092758 -0.0019012
-0.00076268 0.0030199 0.0025189 0.0013845
-0.0079623 -0.029197 -0.0014485 0.37867 -0.024092 -0.0078943 -0.00094404 0.0014331
0.0016487 0.0016746 0.00069314 0.0020131
-0.0020702 0.0018161 -0.024155 -0.0078023 0.31581 0.16165 0.0015491 1.827e-05
0.0011227 0.00036877 0.00020256 0.00036094
-0.00092381 -0.0019022 -0.00096103 0.001444 0.0015319 5.8298e-06 0.11585 0.25451
-0.00078604 -0.021027 -0.0010154 0.0003176
-0.00073749 0.0030711 0.0016826 0.0016589 0.0011315 0.00037037 -0.00084537 -0.021002
0.043558 0.24338 0.0020845 -0.015672
0.0025524 0.0013096 0.00070881 0.0020191 0.00021185 0.00028754 -0.00096643 0.0003082
0.0020897 -0.015688 0.024115 0.31914
1340000000 0.21175 0.23356 -0.017698 -0.019436 0.00019124 0.0042768 -0.0016632 -0.00076406
0.001468 0.0025543 0.0016258 -0.0013684
-0.017659 -0.019422 0.038059 0.37025 -0.021048 0.0047629 -0.0002661 0.0020287
0.0018815 0.00081724 0.0011448 0.00073456
0.00020823 0.0042586 -0.021043 0.0048678 0.33887 0.11261 0.00099792 -0.00087232
0.00069065 -0.00065001 0.00011114 0.00030438
-0.0016208 -0.00077904 -0.00027658 0.0020382 0.00098831 -0.00086173 0.14779 0.23143
-0.010491 -0.0172 0.00055967 0.00091689
0.0015037 0.0025342 0.0018786 0.00083168 0.0006897 -0.00062472 -0.010549 -0.017194
0.074102 0.23539 -0.00445 -0.013717
0.0016492 -0.0014308 0.0011411 0.00075136 0.00013767 0.00033503 0.00061679 0.00091172
-0.0044496 -0.013736 0.063251 0.31496
1400000000 0.24493 0.19651 -0.023989 -0.0078173 0.0047007 0.0032546 -0.0020837 0.00054094
0.0023865 0.00093017 0.00028375 -0.0011847
-0.023958 -0.0078203 0.07476 0.35817 -0.014254 0.012601 0.0012998 0.0014491
0.0013303 -0.00067768 0.0011268 0.00014715
0.0047054 0.0032394 -0.014216 0.012693 0.3514 0.058744 9.5019e-05 -0.001505
0.00014778 -0.00031358 0.00052291 0.00034695
-0.0020542 0.00053083 0.0013036 0.0014332 9.6054e-05 -0.0015082 0.17459 0.20174
-0.016564 -0.0096413 -0.00099578 0.00030981
0.0023823 0.00089026 0.0012893 -0.00067925 0.00013199 -0.00032936 -0.016598 -0.0095967
0.10661 0.2289 -0.010678 -0.0082915
0.00030483 -0.0011938 0.0011755 0.00010064 0.00049495 0.00032998 -0.00099294 0.00034052
-0.010644 -0.0083066 0.10802 0.30622
1460000000 0.26894 0.15296 -0.020748 0.0049446 0.0051807 -0.0014497 -0.0016706 0.0016653
0.0021013 -0.00046085 -0.00019487 -0.00083516
-0.020735 0.004928 0.10973 0.33672 -0.0053601 0.015156 0.0018217 0.00027123
0.00098475 -0.0014093 0.0012115 -0.00055892
0.0051789 -0.0014818 -0.0052807 0.015195 0.35822 0.0037365 -0.0011206 -0.0013828
0.00014913 -0.00033681 0.00072167 -0.00020281
-0.0016632 0.0017007 0.0018261 0.00025752 -0.0011342 -0.0013752 0.19975 0.17264
-0.017494 -0.0021958 -0.00047754 0.0026083
0.0021028 -0.00046822 0.00099581 -0.001405 0.00016415 -0.00031857 -0.017503 -0.0021852
0.13664 0.21256 -0.012199 -0.0023666
-0.00026548 -0.00087727 0.0011683 -0.00050344 0.00070873 -0.00026872 -0.00047312 0.0026056
-0.012198 -0.002355 0.14265 0.28659
1520000000 0.2806 0.11079 -0.015107 0.010494 0.0032751 -0.0037153 6.7466e-05 0.0026204
0.0020936 -0.0017464 -0.0010419 -0.00015693
-0.015096 0.01048 0.14292 0.3224 0.0020532 0.012501 0.0018311 -0.00080688
5.2431e-05 -0.0011332 0.00033454 -0.0010144
0.0032536 -0.0037221 0.0021136 0.0125 0.34996 -0.054288 -0.0011155 -0.00045118
0.00050608 -0.00085921 0.0001605 -9.3039e-05
7.3357e-05 0.0026337 0.0018386 -0.00081311 -0.0011282 -0.0004575 0.22041 0.13457
-0.016141 0.0042168 0.0020357 0.0019507
0.0020673 -0.0017925 4.6831e-05 -0.0011294 0.0004938 -0.00087722 -0.016138 0.0042597
0.1637 0.19675 -0.011632 0.0020016
-0.001036 -0.000173 0.00029431 -0.0010266 0.00013193 -0.00013009 0.002075 0.0019235
-0.011632 0.0019864 0.17576 0.26709
1580000000 0.29023 0.066284 -0.0082839 0.013927 -0.00097644 -0.0045125 0.0015394 0.0020235
-8.1318e-05 -0.0021298 -0.0001942 0.00028983
-0.0082895 0.013916 0.17006 0.29912 0.0052742 0.0074761 0.00062626 -0.0017608
-0.00064941 -0.0011051 -0.00021265 -0.00074483
-0.00098621 -0.004506 0.0053259 0.0074491 0.32845 -0.11054 -0.0016592 0.00059017
-0.00043771 -0.0010709 0.00027769 -0.00060384
0.0015275 0.0020154 0.00060699 -0.0017602 -0.0016511 0.00058183 0.23265 0.097479
-0.01196 0.0092044 0.002397 0.00070393
-8.7359e-05 -0.0020949 -0.00065885 -0.0010966 -0.00043639 -0.0011038 -0.011916 0.0092234
0.18695 0.1783 -0.0090307 0.0076508
-0.00021239 0.0002966 -0.00023821 -0.00074911 0.00030029 -0.00059665 0.002379 0.00066732
-0.008993 0.0076453 0.20922 0.24299
1640000000 0.2932 0.024747 -0.0012645 0.012652 -0.0026024 -0.0022329 0.0029236 0.0010534
-0.00061219 -0.0016689 -0.00035111 0.00045042
-0.0012734 0.012642 0.20083 0.27443 0.0055437 0.0027213 -0.00070976 -0.0019531
-0.0011053 -0.00028537 -0.00042493 -0.00066901
-0.0026082 -0.0022024 0.0055688 0.0026934 0.29921 -0.1605 -0.00064739 0.0015651
-0.0010208 -0.00077542 -0.00014447 -0.00047893
0.0029329 0.0010501 -0.00071602 -0.0019542 -0.00066033 0.0015765 0.2445 0.050113
-0.0074002 0.010569 0.0026744 -0.0010767
-0.00061419 -0.001668 -0.0011215 -0.00027833 -0.0010338 -0.00077683 -0.0073721 0.010585
0.209 0.15185 -0.0041984 0.0095388
-0.00036044 0.00042887 -0.00045468 -0.00068749 -0.00015233 -0.00042394 0.0026855 -0.0010507
-0.0042199 0.009551 0.23636 0.21158
1700000000 0.28553 -0.01951 0.0023134 0.0097213 -0.0031515 0.00018571 0.0032193 -0.0013506
-0.0022104 -0.00071538 0.00057271 0.00042145
0.0023052 0.0097075 0.2182 0.24408 0.003232 6.2729e-05 -0.0016274 -0.0006246
-0.00079181 0.00016364 -0.00077785 -0.00036471
-0.0031557 0.0002163 0.0032462 4.0126e-05 0.25379 -0.19889 0.00048889 0.0017015
-0.0019106 -0.00010559 -0.00042172 -0.0006097
0.0031812 -0.0013773 -0.0016401 -0.0006063 0.00049399 0.0016898 0.24096 0.003161
-0.0038071 0.010993 0.0014079 -0.002118
-0.0022052 -0.00071939 -0.00079802 0.00016541 -0.0018802 -0.00010427 -0.0037636 0.011017
0.22539 0.13078 0.00044754 0.0093971
0.0005699 0.00039124 -0.00079071 -0.00035431 -0.0004473 -0.0006383 0.0013809 -0.0022141
0.00045836 0.0093794 0.25334 0.17839
1760000000 0.27535 -0.067585 0.004714 0.0062771 -0.0020099 0.00094158 0.0011343 -0.0036373
-0.0015504 0.00055091 0.0001371 -0.00051471
0.004695 0.0062692 0.24616 0.20545 0.00075329 -0.0014175 -0.0013457 0.000272
-0.00086007 0.0010147 -0.00052271 0.00023282
-0.002019 0.00097726 0.00072561 -0.0014166 0.20504 -0.23005 0.0013642 0.001111
-0.00098091 0.0015373 -0.0011763 -0.00081982
0.001135 -0.0036435 -0.001356 0.00029319 0.0013416 0.0011249 0.23478 -0.045661
-0.00040212 0.0097781 -0.00013714 -0.0024563
-0.0015405 0.00057484 -0.00086275 0.0010258 -0.00098014 0.0015267 -0.00035866 0.0097619
0.2395 0.096817 0.0041806 0.0066213
0.00020733 -0.00055685 -0.00051734 0.00023852 -0.0011554 -0.00081705 -0.00010172 -0.0023866
0.0041957 0.0066067 0.26746 0.14151
1820000000 0.25087 -0.10566 0.0048426 0.0025344 9.5376e-05 0.0019658 -0.0011589 -0.0031306
-0.0012145 0.0012448 -8.3175e-05 -5.0542e-05
0.0048392 0.002527 0.25656 0.17514 -0.0012662 2.7804e-05 -0.0012858 0.001041
0.00015308 0.0011249 -0.00063114 0.00036288
9.4006e-05 0.0019703 -0.0012762 3.1186e-05 0.15435 -0.24494 0.0016731 3.1567e-05
-2.5845e-05 0.0022321 -0.0015959 0.00023492
-0.0011886 -0.0031141 -0.0012905 0.0010444 0.001669 2.859e-05 0.20684 -0.092799
0.0016778 0.0081762 -0.0017048 -0.0017139
-0.0012273 0.0012684 0.00013 0.0011245 -2.6617e-05 0.0022605 0.0016981 0.0082256
0.25509 0.06705 0.0048303 0.0030479
-0.00010506 -1.0529e-05 -0.00061491 0.0004001 -0.0016357 0.00020665 -0.0016947 -0.0017407
0.0048429 0.0030529 0.27103 0.10513
1880000000 0.21602 -0.14509 0.0025825 0.00017545 -0.00051116 0.0021264 -0.0029209 -0.0021607
9.8667e-05 0.0019359 0.0004565 -0.00058684
0.0025795 0.00018205 0.26202 0.12995 -0.0031041 0.0023816 -0.00012882 0.0017214
0.00071199 0.001064 6.9881e-05 0.00083071
-0.00051294 0.0021109 -0.0030868 0.0023918 0.10262 -0.25136 0.0015166 -0.0011312
0.0016285 0.0017381 -0.0011452 0.0014006
-0.0029588 -0.0021297 -0.0001184 0.0017376 0.0015236 -0.0011479 0.16936 -0.13287
0.0028515 0.0058029 -0.0021624 0.00035549
0.00010872 0.0019614 0.00070423 0.0010753 0.0016305 0.0017443 0.0028685 0.0057525
0.25823 0.036846 0.0048541 0.0011922
0.00046933 -0.00066082 5.1734e-05 0.00083449 -0.0011376 0.001348 -0.0022481 0.00037331
0.004863 0.0012133 0.27189 0.072349
1940000000 0.17784 -0.17193 0.0002273 -0.0015889 0.0014389 0.0019516 -0.003798 0.00059936
0.0015619 0.0010223 -0.00065073 -0.00072193
0.000228 -0.0015801 0.26478 0.097438 -0.0014887 0.0049582 0.0010236 0.0012665
0.0015825 0.00027602 0.00069193 0.00033243
0.0014348 0.0019435 -0.0014557 0.0049705 0.059385 -0.24352 0.00013224 -0.0019767
0.0022028 0.00027097 3.0631e-05 0.0017635
-0.003753 0.0005975 0.0010384 0.0012587 0.0001345 -0.0019772 0.11975 -0.16693
0.0023706 0.0038935 -0.0013101 0.0011273
0.0015827 0.0010249 0.0015739 0.00025155 0.0021673 0.00029105 0.0023464 0.0038935
0.26163 -0.001994 0.0033631 -0.0023675
-0.00059578 -0.00078397 0.00070277 0.00027685 4.9939e-05 0.0017419 -0.0012602 0.0010733
0.0033825 -0.0023856 0.26265 0.036123
2000000000 0.13088 -0.18618 -0.0035867 0.00047195 0.0027592 0.0015503 -0.0023766 0.0036197
0.0011403 -5.4976e-05 -0.00068243 0.00041596
-0.0035736 0.00046438 0.25092 0.061561 -0.00056982 0.0068823 0.0014284 0.0002364
0.0010273 -0.0012404 0.0005029 0.00011559
0.0027529 0.0015518 -0.00051953 0.0069099 0.017264 -0.22844 -0.0014147 -0.0011244
0.0019329 -0.0013006 0.0016765 0.0016085
-0.0023955 0.003631 0.0014272 0.00022982 -0.0013891 -0.0011511 0.065871 -0.1798
0.0010484 0.0029422 4.3902e-05 0.0017719
0.0011148 -3.0182e-05 0.0010337 -0.0012005 0.001966 -0.0013248 0.0011081 0.0029633
0.25618 -0.034919 0.00053952 -0.003038
