!Keysight Technologies,M9804A,MY58100912,A.14.10.03
!Date: Thursday, April 27, 2023 10:28:33
!Correction: S11(C  6-Port  ) 
!S12(C  6-Port  ) 
!S13(C  6-Port  ) 
!S14(C  6-Port  ) 
!S15(C  6-Port  ) 
!S16(C  6-Port  ) 
!S21(C  6-Port  ) 
!S22(C  6-Port  ) 
!S23(C  6-Port  ) 
!S24(C  6-Port  ) 
!S25(C  6-Port  ) 
!S26(C  6-Port  ) 
!S31(C  6-Port  ) 
!S32(C  6-Port  ) 
!S33(C  6-Port  ) 
!S34(C  6-Port  ) 
!S35(C  6-Port  ) 
!S36(C  6-Port  ) 
!S41(C  6-Port  ) 
!S42(C  6-Port  ) 
!S43(C  6-Port  ) 
!S44(C  6-Port  ) 
!S45(C  6-Port  ) 
!S46(C  6-Port  ) 
!S51(C  6-Port  ) 
!S52(C  6-Port  ) 
!S53(C  6-Port  ) 
!S54(C  6-Port  ) 
!S55(C  6-Port  ) 
!S56(C  6-Port  ) 
!S61(C  6-Port  ) 
!S62(C  6-Port  ) 
!S63(C  6-Port  ) 
!S64(C  6-Port  ) 
!S65(C  6-Port  ) 
!S66(C  6-Port  ) 
!S6P File: Measurement: :
# Hz S  RI   R 50
500000000 -0.32694 -0.056579 -0.010453 -0.0012545 -0.0082639 0.012462 -0.0024065 0.011937
0.012135 0.0046265 -0.0040159 0.0089936
-0.010612 -0.0011813 -0.40981 -0.071307 0.0075056 -0.010945 0.0015318 0.01128
0.0074992 0.0023513 0.0015629 0.012769
-0.0083031 0.012624 0.0074969 -0.010939 -0.25413 0.19351 0.006393 0.0027275
-0.0015415 0.0075156 0.00039386 0.011343
-0.0027843 0.011778 0.0015077 0.011314 0.0063729 0.002776 -0.32813 0.044013
-0.019865 -0.0059508 0.016769 0.027909
0.012288 0.0049133 0.0075972 0.0024326 -0.0015272 0.0075254 -0.019855 -0.0059688
-0.25576 -0.16126 -0.02673 0.0047409
-0.0037538 0.0088479 0.0017018 0.012738 0.00033426 0.011391 0.016694 0.02786
-0.026819 0.0047089 -0.25381 -0.15061
560000000 -0.31385 0.10757 -0.022563 -0.065241 -9.4388e-05 0.013465 0.0043506 0.011736
0.010036 0.0047212 0.01137 0.0084694
-0.022542 -0.065284 -0.36895 0.090188 -0.041397 -0.038132 0.013843 0.0036651
-0.013165 -0.0031835 0.0050734 -0.0015781
-0.00022313 0.013155 -0.041559 -0.038096 -0.17923 0.24128 -2.0749e-05 -0.0040827
0.017036 0.0045402 0.007435 -0.0064145
0.004923 0.011891 0.01395 0.0034957 -1.5211e-05 -0.0041052 -0.30404 0.13391
0.002318 -0.022956 0.0063428 -0.021097
0.010086 0.0042859 -0.012958 -0.0030623 0.017028 0.0045693 0.0023194 -0.022984
-0.30686 0.015432 0.0054633 -0.046741
0.011578 0.0076832 0.0048611 -0.0019576 0.0075111 -0.0064334 0.0063115 -0.021074
0.0057317 -0.046566 -0.32488 -0.0011913
620000000 -0.27192 0.085247 -0.024139 0.0090672 0.0028868 0.0085576 0.0080938 -0.0046989
0.012077 -0.0014589 3.2816e-05 -0.0016436
-0.024208 0.009132 -0.39966 0.03822 -0.019832 0.00071256 -0.0015044 -0.0015632
0.011188 -0.0064857 0.00036591 -0.002923
0.0027979 0.0087887 -0.019839 0.00078067 -0.15329 0.25019 -0.00078032 -0.0048865
-0.0039619 -0.00271 0.0085309 -0.0025197
0.0076266 -0.0047555 -0.0016063 -0.001546 -0.00079796 -0.0049054 -0.26391 0.14503
-0.039604 -0.018679 0.013682 0.029901
0.012359 -0.00073333 0.011217 -0.0064646 -0.003984 -0.0026982 -0.039652 -0.018666
-0.23001 -0.019926 -0.042799 0.012835
0.00024385 -0.0014894 0.00033412 -0.0029358 0.008543 -0.0025811 0.01372 0.029728
-0.042878 0.012859 -0.24058 -0.036592
680000000 -0.23804 0.17797 -0.026176 -0.014143 0.0048907 0.0056321 0.000902 -0.0067321
-0.0032909 -0.010688 0.0057404 -0.0049803
-0.026271 -0.014118 -0.38977 0.14172 -0.032553 -0.0010863 -0.001767 -0.00031555
-0.0021701 -0.0090811 -0.00087511 -0.001468
0.0049378 0.0056449 -0.032554 -0.0010231 -0.10666 0.27401 -0.00068941 -0.00011753
-0.0017023 0.0006493 -0.0028184 -0.0090488
0.0013825 -0.0065949 -0.001721 -0.00032883 -0.00068571 -8.2005e-05 -0.22024 0.19898
-0.02502 -0.0058687 -0.0076558 -0.012251
-0.0032544 -0.01088 -0.002165 -0.0090671 -0.0016662 0.00063343 -0.025057 -0.0058337
-0.27 0.079718 -0.0069515 -0.0044431
0.0055178 -0.005542 -0.00094311 -0.0014952 -0.0028527 -0.0090157 -0.0078858 -0.01228
-0.0068998 -0.0043791 -0.25962 0.068658
740000000 -0.19145 0.17143 -0.040495 0.026803 0.013263 -0.0036581 2.5599e-05 -0.0045318
-0.0051914 -0.0019395 -0.0062995 0.0024219
-0.040567 0.026798 -0.33514 0.16169 -0.036969 0.034397 -0.00016915 -0.006329
-0.011399 0.0072508 -0.0015627 -0.0062577
0.013414 -0.0036803 -0.036911 0.034554 -0.073049 0.27409 -0.0017186 0.0029686
-0.0023475 -0.0045149 -0.0010747 0.00049779
-0.00034138 -0.0043327 -0.000207 -0.0063179 -0.0017418 0.0029629 -0.20318 0.20473
-0.041166 -0.004503 0.021994 0.017147
-0.0048176 -0.0016743 -0.011461 0.0074141 -0.0023709 -0.0044852 -0.041214 -0.0044834
-0.17671 0.10134 -0.040298 0.0012537
-0.0064288 0.0023926 -0.0015871 -0.0062249 -0.0010471 0.00048998 0.022099 0.017168
-0.040307 0.0011006 -0.25208 0.072783
800000000 -0.16452 0.21571 -0.022539 0.016337 0.0052687 -0.0099288 -0.0044785 -0.0024005
-0.0043824 0.0018531 0.0040007 0.00090434
-0.022523 0.016335 -0.34334 0.23211 -0.0082948 0.034629 -0.0023997 0.0021216
-0.00054218 0.0022549 0.00044708 0.0055298
0.0052715 -0.0099895 -0.0081966 0.034667 -0.035183 0.30064 0.00068174 0.0013451
7.1372e-05 0.0033872 -0.001759 0.00081649
-0.0043136 -0.0023679 -0.0023722 0.0021402 0.00069915 0.0013516 -0.17316 0.23378
-0.027841 0.015553 0.015212 -0.010904
-0.0044089 0.0018101 -0.00052826 0.0022346 9.9407e-05 0.0033774 -0.027839 0.01562
-0.2116 0.13015 -0.018168 0.020892
0.004123 0.00088414 0.00053796 0.0055341 -0.0017802 0.00081437 0.015227 -0.010947
-0.018205 0.020894 -0.25072 0.12485
860000000 -0.1284 0.23731 -0.017713 0.030781 -0.0033749 -0.0096041 -0.0019032 0.00035238
0.0037621 0.0044089 -0.0042645 -0.003565
-0.017695 0.030752 -0.29459 0.27688 0.0081656 0.034353 0.00012862 0.0020434
0.0037959 0.00068941 0.0029777 8.4096e-05
-0.0034091 -0.0096153 0.0082963 0.03435 0.014323 0.31101 -0.00053712 -0.00031828
0.0024366 -0.001151 0.0010113 0.0042954
-0.0018688 0.00034465 0.00013527 0.0020308 -0.00053823 -0.00032202 -0.13452 0.24533
-0.016467 0.02011 -0.0066821 -0.010408
0.00367 0.0043408 0.0037732 0.00071893 0.0024345 -0.0011545 -0.016446 0.020179
-0.15672 0.17663 -0.022211 0.016695
-0.0043086 -0.0034176 0.0029948 8.944e-05 0.0010202 0.0043393 -0.0067241 -0.010339
-0.022218 0.016609 -0.2014 0.1753
920000000 -0.1057 0.25991 0.0049794 0.039335 -0.0091147 -0.0041055 -0.0019533 0.0016475
0.00068121 0.0014258 0.0027087 -0.0011891
0.0049534 0.039307 -0.26794 0.29793 0.028264 0.022775 0.0012916 0.0011586
0.0069181 -0.00061181 0.004045 -0.0026303
-0.0091135 -0.0040662 0.02837 0.022717 0.060379 0.31227 0.0018828 0.00023927
0.00073009 -0.00027138 0.0010391 -0.0012262
-0.0019456 0.0016293 0.0012946 0.0011253 0.0018794 0.00023486 -0.11044 0.26151
-0.0082958 0.031005 0.0043517 -0.0060642
0.00081843 0.0014805 0.0068918 -0.00065961 0.00072358 -0.00028249 -0.0082416 0.030988
-0.14318 0.18281 -0.0014598 0.027518
0.0026757 -0.0011361 0.0040257 -0.0026469 0.0010438 -0.00125 0.0043484 -0.0060729
-0.0014877 0.027473 -0.21137 0.18643
980000000 -0.058735 0.28269 0.017439 0.030041 -0.0087831 0.0046128 0.0018118 0.0035396
0.0035387 -0.0016666 -0.0033236 -0.002695
0.01733 0.03002 -0.21566 0.33541 0.033249 0.0048246 0.00196 -6.4692e-05
0.0013592 -0.0056407 -0.00010593 -0.0025934
-0.0087776 0.0045967 0.033321 0.0047226 0.10722 0.30786 0.00067133 -0.0011671
0.00041231 -0.0018274 0.0014231 -0.00020336
0.001854 0.0035046 0.001986 -2.116e-05 0.00067683 -0.0011516 -0.070393 0.273
0.010328 0.028622 -0.0093042 -0.0080565
0.0034184 -0.0016677 0.0013819 -0.0056502 0.00041487 -0.0018402 0.010381 0.028611
-0.10879 0.20958 0.0068868 0.01928
-0.0033247 -0.0025923 -0.00010974 -0.0025728 0.0014055 -0.00019918 -0.009296 -0.0080887
0.0068991 0.019284 -0.17057 0.23745
1040000000 -0.016847 0.29028 0.033262 0.018922 -0.00084946 0.0072934 0.0023142 0.00058294
0.00039719 -0.0032863 -0.00027777 -0.0012942
0.033223 0.018938 -0.1796 0.34807 0.029597 -0.014681 0.0015613 -0.001807
-0.0023169 -0.002552 -0.001166 -0.003008
-0.00080624 0.0073473 0.029582 -0.014815 0.15443 0.29377 -0.00046434 -0.0015696
-0.0015469 -0.0010199 -0.00047266 -0.0011931
0.0022301 0.00065574 0.0015178 -0.0018314 -0.00047394 -0.0015658 -0.042474 0.2812
0.020947 0.016382 -0.0016445 0.0012772
0.00049518 -0.0032384 -0.0023718 -0.0025374 -0.0015588 -0.0010316 0.020998 0.016327
-0.075478 0.21506 0.014177 0.017738
-0.0002661 -0.0013697 -0.0012017 -0.0029514 -0.00048134 -0.0011985 -0.0016518 0.0012712
0.014144 0.017722 -0.14833 0.25806
1100000000 0.027188 0.30058 0.036504 -0.0037803 0.0035552 0.0038051 0.0023534 -0.0009138
-0.0022811 -0.002784 -0.0039847 -1.9077e-05
0.036458 -0.0037637 -0.13747 0.36792 0.015194 -0.027729 -9.2772e-05 -0.001708
-0.0034097 -0.00072724 -0.0037292 -0.00045962
0.0035237 0.0037603 0.015112 -0.027821 0.19998 0.27451 -0.0018122 0.00014082
-0.0016638 0.0005273 -0.0010726 -0.00067067
0.0023097 -0.00092747 -7.6369e-05 -0.0017164 -0.0018139 0.0001458 -0.0021058 0.28602
0.025182 0.0028518 -0.0021578 -0.00085633
-0.0023419 -0.0028341 -0.0034446 -0.00076047 -0.0016544 0.00052652 0.025205 0.0028122
-0.055802 0.22698 0.019623 0.007862
-0.0040034 6.3721e-05 -0.0037273 -0.00046279 -0.0010739 -0.00067852 -0.0021569 -0.00080428
0.019558 0.0077892 -0.10449 0.29133
1160000000 0.079311 0.29715 0.024432 -0.020479 0.0032683 -0.00098672 -8.3935e-05 -0.0022929
-0.0038093 -0.00073199 -0.0012405 0.0039919
0.02439 -0.020458 -0.091953 0.37233 -0.0037011 -0.0287 -0.0015404 -0.0015396
-0.0024603 0.0024644 -0.0016279 0.0018985
0.0032846 -0.00096165 -0.0037938 -0.028724 0.24458 0.24437 -0.00083622 0.0015907
-0.00058769 0.0015776 -0.0010589 0.00040095
-0.00013011 -0.0023323 -0.0015291 -0.0015582 -0.00083414 0.0015869 0.039146 0.28193
0.020748 -0.012288 -0.0040238 0.0046536
-0.0037692 -0.00064815 -0.0024545 0.0024669 -0.00058767 0.0015807 0.020742 -0.012313
-0.019206 0.23442 0.017974 -0.0013152
-0.0012478 0.0041217 -0.0016137 0.0019204 -0.0010531 0.0004008 -0.0040713 0.004569
0.017998 -0.0013241 -0.054948 0.29576
1220000000 0.12253 0.28637 0.01136 -0.030142 -0.0014089 -0.0016124 6.7714e-05 -0.00077019
-0.0024398 0.002142 0.0011555 0.0020759
0.011346 -0.030099 -0.049035 0.38556 -0.016773 -0.021054 -0.0025208 0.00046898
-0.00016423 0.0029133 -0.00086541 0.0019399
-0.00144 -0.0015838 -0.016868 -0.020998 0.28366 0.20528 0.00067305 0.0016092
0.00051201 0.0011355 0.00010817 0.0006323
8.5116e-05 -0.00073957 -0.002508 0.00048676 0.00066903 0.0016109 0.077974 0.27162
0.0096742 -0.018555 0.0017415 0.0012591
-0.002477 0.0021602 -0.00011793 0.0029311 0.00052284 0.0011464 0.0096572 -0.01857
0.0059615 0.23991 0.012987 -0.012888
0.0011542 0.0020112 -0.00085839 0.0019386 0.00011324 0.00063053 0.0017134 0.0012894
0.012966 -0.012888 -0.02609 0.31377
1280000000 0.17308 0.26763 -0.0074552 -0.02892 -0.0020913 0.0017962 -0.00074573 -0.0020458
-0.00076804 0.0030286 0.002418 0.0013075
-0.0074376 -0.028905 -0.0026619 0.37812 -0.023666 -0.0081921 -0.0010438 0.001328
0.0016525 0.0017453 0.00050679 0.0020507
-0.0020878 0.0018118 -0.023739 -0.0081037 0.31519 0.16276 0.0014498 3.6481e-05
0.0010374 0.0002633 0.00014551 0.00036843
-0.00077793 -0.0020518 -0.0010476 0.0013347 0.001457 3.9117e-05 0.11485 0.25442
-0.00028879 -0.020221 -0.00089705 8.785e-05
-0.0007314 0.0030708 0.0016585 0.0017273 0.001046 0.00025262 -0.00032558 -0.020232
0.042503 0.24245 0.0024969 -0.015043
0.002435 0.0013491 0.00053189 0.0020635 0.00013899 0.00036254 -0.00083241 9.1531e-05
0.0025016 -0.015042 0.022066 0.31868
1340000000 0.21082 0.23344 -0.017146 -0.019501 0.00019006 0.0042126 -0.0016409 -0.00086971
0.0014223 0.0024686 0.0018439 -0.0013202
-0.017102 -0.019501 0.036701 0.37035 -0.020963 0.0043168 -0.00031908 0.0020688
0.001786 0.0007905 0.0011249 0.00083326
0.00019718 0.0042039 -0.020966 0.0044345 0.33879 0.11376 0.0010628 -0.00082575
0.00064654 -0.00055406 0.0002302 0.00032419
-0.0016235 -0.00086322 -0.00031986 0.0020517 0.0010655 -0.00083392 0.14672 0.23167
-0.0097725 -0.017071 0.00058459 0.000834
0.0014083 0.0024871 0.0017993 0.00079713 0.00064478 -0.00055855 -0.0098087 -0.017048
0.072842 0.23426 -0.0040698 -0.013517
0.0018395 -0.0013589 0.0011436 0.00084823 0.00023342 0.00033647 0.00053954 0.00084291
-0.0040819 -0.013536 0.060842 0.31521
1400000000 0.2439 0.19682 -0.02362 -0.008229 0.0045699 0.003266 -0.0021853 0.00044043
0.0023609 0.00093021 0.00037998 -0.001411
-0.023583 -0.0082321 0.073522 0.35876 -0.01438 0.012164 0.0012829 0.0014848
0.0013645 -0.00056746 0.0011439 0.00023995
0.0046032 0.0032318 -0.014356 0.012232 0.35195 0.059571 0.00015917 -0.0015229
0.00018185 -0.00035023 0.00031448 0.0002481
-0.0021911 0.00045078 0.0012859 0.001495 0.00016321 -0.0015207 0.17383 0.20245
-0.015836 -0.010081 -0.0010575 0.00023769
0.0023699 0.00095352 0.0013685 -0.00058745 0.00018278 -0.00035616 -0.015867 -0.010036
0.10482 0.22806 -0.010049 -0.0085441
0.0003795 -0.0013889 0.0011412 0.00021653 0.00031735 0.00023232 -0.0010705 0.00024978
-0.010034 -0.0085305 0.1053 0.30706
1460000000 0.26809 0.15376 -0.020643 0.0043637 0.0051075 -0.0014218 -0.0017688 0.001631
0.0020945 -0.00030729 -0.00014525 -0.00084344
-0.020619 0.0043487 0.1089 0.33786 -0.0057291 0.014963 0.0018605 0.0003624
0.0010448 -0.0013814 0.0013321 -0.00054824
0.0050929 -0.0014305 -0.0056535 0.015001 0.3589 0.0039737 -0.0010515 -0.0013946
0.00022513 -0.00025061 0.00062911 -0.00030491
-0.0017459 0.0016871 0.0018662 0.0003376 -0.0010526 -0.0013943 0.19917 0.17363
-0.017017 -0.0030407 -0.00047782 0.0025406
0.0020545 -0.00033451 0.0010455 -0.001388 0.00021852 -0.00024918 -0.017021 -0.0030063
0.13462 0.21242 -0.011762 -0.0027315
-0.00012161 -0.00084827 0.0013244 -0.00054717 0.00064065 -0.00032028 -0.00045862 0.0025542
-0.011742 -0.0027239 0.14043 0.28728
1520000000 0.28034 0.11184 -0.015288 0.009962 0.0032366 -0.0036653 8.6023e-05 0.0027077
0.0020851 -0.0016784 -0.0010297 -0.00036019
-0.015281 0.0099505 0.14256 0.32355 0.0017371 0.012503 0.0018941 -0.00079561
0.00011973 -0.0011727 0.00041915 -0.00089795
0.0032058 -0.0037316 0.0017944 0.012508 0.35048 -0.054684 -0.0010948 -0.00047793
0.00046798 -0.00082357 0.00013422 -9.5925e-05
7.8226e-05 0.00268 0.0018873 -0.00078627 -0.0010963 -0.00047785 0.22039 0.13553
-0.01629 0.0031408 0.0017348 0.0021513
0.0020939 -0.0016896 0.00011378 -0.0011861 0.00046802 -0.00083448 -0.016302 0.0031904
0.16152 0.19707 -0.011378 0.0013858
-0.0010686 -0.00031502 0.00044559 -0.00093963 0.0001447 -9.7791e-05 0.0017451 0.0021396
-0.011365 0.0013853 0.17382 0.26877
1580000000 0.29053 0.067274 -0.008728 0.013618 -0.00089809 -0.0043371 0.0015519 0.0020801
1.2636e-05 -0.0020885 -0.00029152 0.00045379
-0.0087347 0.013599 0.17026 0.30036 0.0050679 0.0076954 0.0006535 -0.0017508
-0.000685 -0.0012043 -0.00014334 -0.00073693
-0.00090401 -0.0043506 0.0051008 0.0076738 0.32851 -0.11095 -0.0017272 0.00050716
-0.00038777 -0.0011701 0.00026399 -0.00058376
0.0015569 0.0020973 0.00065156 -0.0017723 -0.0017233 0.00050326 0.23298 0.098428
-0.012688 0.008478 0.0024734 0.00067065
8.1095e-07 -0.0020994 -0.00070881 -0.0011966 -0.00038149 -0.0011681 -0.012656 0.0085205
0.18507 0.17946 -0.0091578 0.0070742
-0.0002869 0.00045028 -0.000189 -0.00072964 0.00026061 -0.00059319 0.002455 0.00066608
-0.0091857 0.0070755 0.20797 0.24431
1640000000 0.29411 0.025432 -0.0017837 0.012652 -0.0024732 -0.0023091 0.0029242 0.001121
-0.00046386 -0.0017647 -0.00034112 0.0004007
-0.0018049 0.012639 0.2015 0.2753 0.0055557 0.0029599 -0.00067304 -0.0019898
-0.001094 -0.00032342 -0.00038777 -0.00074003
-0.002471 -0.0022821 0.0055873 0.0029271 0.29918 -0.1609 -0.00076237 0.0016122
-0.00088739 -0.0008949 -0.00010302 -0.00047077
0.0029542 0.0010659 -0.00068361 -0.0019834 -0.00076589 0.0016089 0.24526 0.050646
-0.0082745 0.010407 0.0025527 -0.0010947
-0.00049561 -0.0017502 -0.0010961 -0.00032438 -0.00087455 -0.00088504 -0.0082419 0.010432
0.20742 0.15344 -0.004578 0.0091376
-0.00038189 0.00039187 -0.00038 -0.00074856 -0.00010877 -0.00046848 0.0025629 -0.0010827
-0.0045484 0.0091494 0.23498 0.21293
1700000000 0.2865 -0.019483 0.0019627 0.01007 -0.0031337 0.00029343 0.0032913 -0.0015052
-0.002066 -0.00090419 0.00047762 0.00048184
0.0019431 0.01005 0.2191 0.24462 0.0032527 0.00017871 -0.0016261 -0.0006717
-0.00086629 0.00019908 -0.00082339 -0.00051515
-0.003173 0.00029715 0.00326 0.0001656 0.2535 -0.19942 0.00047883 0.0016934
-0.0020082 -0.00015323 -0.00037567 -0.00084306
0.0032099 -0.0014814 -0.0016153 -0.00066382 0.0004877 0.0017032 0.24175 0.0031399
-0.0046336 0.011307 0.0013931 -0.0020273
-0.0020557 -0.00087362 -0.00086573 0.00021136 -0.002009 -0.0001547 -0.0046086 0.011326
0.22444 0.13264 -0.00016577 0.0091761
0.00051775 0.00048611 -0.00083565 -0.00049967 -0.00036072 -0.00082351 0.001408 -0.0020687
-0.00017158 0.0091652 0.2523 0.17997
1760000000 0.27603 -0.068075 0.0046073 0.0066408 -0.0018068 0.00079902 0.0012341 -0.0036829
-0.0015399 0.00045365 0.00025228 -0.00050926
0.0045969 0.0066401 0.24716 0.20546 0.00087738 -0.0014249 -0.0013673 0.00021165
-0.00085643 0.0010528 -0.00052719 0.00026229
-0.0017863 0.0008089 0.00086635 -0.0014257 0.20467 -0.23063 0.0014288 0.0011063
-0.001068 0.0014262 -0.001183 -0.00065397
0.0012487 -0.0037173 -0.001369 0.00022366 0.0014298 0.0010915 0.23547 -0.045884
-0.00067565 0.01063 -6.3766e-05 -0.0023352
-0.0015424 0.00046174 -0.00084588 0.0010592 -0.0010618 0.0014274 -0.00064107 0.010629
0.23939 0.098934 0.0037005 0.0068867
0.00024983 -0.00054308 -0.00051459 0.00025109 -0.0012131 -0.0006564 -7.3331e-05 -0.0023168
0.0037312 0.0069139 0.26664 0.14305
1820000000 0.25116 -0.10634 0.0049787 0.0028627 0.00015163 0.0020037 -0.0011396 -0.003149
-0.0013827 0.0012159 -3.8032e-05 -0.00021125
0.0049813 0.0028591 0.25745 0.17474 -0.001162 0.00014713 -0.0013282 0.0011085
0.00017091 0.0011877 -0.00066099 0.00033299
0.00017145 0.0019853 -0.001159 0.00017114 0.15332 -0.24431 0.0017629 0.00027401
-0.0001515 0.002383 -0.0016908 0.0001743
-0.0011716 -0.0031129 -0.0013009 0.0011313 0.0017565 0.00028312 0.2072 -0.093407
0.0017782 0.0088929 -0.0016495 -0.0015516
-0.0013696 0.001261 0.00018137 0.0011899 -0.00013998 0.0023846 0.0018008 0.0088887
0.2554 0.068818 0.0045354 0.0034988
-3.3774e-05 -0.0002084 -0.00067152 0.00033874 -0.0016694 0.00018115 -0.0016482 -0.001541
0.004537 0.0034962 0.27031 0.10685
1880000000 0.21574 -0.14586 0.0026951 0.00029891 -0.00068824 0.0019135 -0.0031313 -0.0022039
-0.00017209 0.0020041 0.00025751 -0.00063674
0.0026798 0.00030425 0.26251 0.12927 -0.0030622 0.0024206 -0.00017081 0.0017125
0.00068991 0.00098126 -5.5499e-06 0.00098368
-0.00069851 0.0019828 -0.0030675 0.0024525 0.10133 -0.25068 0.0014866 -0.0012061
0.0015653 0.0018531 -0.0011379 0.0015297
-0.003137 -0.0021392 -0.00017229 0.001709 0.001502 -0.0011938 0.16946 -0.13359
0.0032282 0.0060845 -0.0019848 0.00024143
-0.00015039 0.0019946 0.00070911 0.00098543 0.0015662 0.0018561 0.003249 0.0060766
0.25911 0.03813 0.0046685 0.0015042
0.00031142 -0.0006799 2.4324e-05 0.0009858 -0.0011343 0.0015151 -0.0019999 0.00024792
0.0046665 0.0014983 0.27119 0.074241
1940000000 0.1773 -0.17244 0.00039032 -0.0015141 0.0012045 0.0019415 -0.0037 0.0006327
0.0015629 0.0013045 -0.00066921 -0.00070124
0.000387 -0.0015308 0.26498 0.096614 -0.0013055 0.0050314 0.0010183 0.0012496
0.0016188 0.00020992 0.00081238 0.00031426
0.0012288 0.0018887 -0.0012649 0.0050212 0.059346 -0.2421 3.5019e-05 -0.0020508
0.0023387 0.00025593 0.00022213 0.0017535
-0.0036875 0.00059712 0.0010229 0.0012487 2.4205e-05 -0.0020535 0.11913 -0.16761
0.0028525 0.0039855 -0.0013701 0.001179
0.0015718 0.0013111 0.0016282 0.00020503 0.0023362 0.00024309 0.0028662 0.0039868
0.26282 -0.0011164 0.0035776 -0.0018305
-0.00073128 -0.00066159 0.00078579 0.00031075 0.00023803 0.0017759 -0.0013592 0.0011425
0.0035847 -0.0018236 0.26241 0.037811
2000000000 0.13001 -0.18652 -0.0034286 0.00039982 0.0027961 0.0015572 -0.0020967 0.003621
0.0014774 0.00018812 -0.00078958 0.00056638
-0.0034414 0.00039353 0.25062 0.060703 -0.00037039 0.0067491 0.0015024 0.00038917
0.00096948 -0.001142 0.00043221 0.0001074
0.0027877 0.0015726 -0.00033814 0.0067628 0.017463 -0.22758 -0.0013264 -0.00097924
0.0019685 -0.0012738 0.0017315 0.0015814
-0.002112 0.0036089 0.0014786 0.00036835 -0.0013133 -0.00098789 0.064481 -0.17972
0.001128 0.0028443 -2.8318e-05 0.0018706
0.0015157 0.00016506 0.00097125 -0.0011586 0.001957 -0.0012883 0.0011534 0.0028462
0.25708 -0.034644 0.00047011 -0.0025689
