!Keysight Technologies,M9804A,MY58100912,A.14.10.03
!Date: Thursday, April 27, 2023 10:28:33
!Correction: S11(C  6-Port  ) 
!S12(C  6-Port  ) 
!S13(C  6-Port  ) 
!S14(C  6-Port  ) 
!S15(C  6-Port  ) 
!S16(C  6-Port  ) 
!S21(C  6-Port  ) 
!S22(C  6-Port  ) 
!S23(C  6-Port  ) 
!S24(C  6-Port  ) 
!S25(C  6-Port  ) 
!S26(C  6-Port  ) 
!S31(C  6-Port  ) 
!S32(C  6-Port  ) 
!S33(C  6-Port  ) 
!S34(C  6-Port  ) 
!S35(C  6-Port  ) 
!S36(C  6-Port  ) 
!S41(C  6-Port  ) 
!S42(C  6-Port  ) 
!S43(C  6-Port  ) 
!S44(C  6-Port  ) 
!S45(C  6-Port  ) 
!S46(C  6-Port  ) 
!S51(C  6-Port  ) 
!S52(C  6-Port  ) 
!S53(C  6-Port  ) 
!S54(C  6-Port  ) 
!S55(C  6-Port  ) 
!S56(C  6-Port  ) 
!S61(C  6-Port  ) 
!S62(C  6-Port  ) 
!S63(C  6-Port  ) 
!S64(C  6-Port  ) 
!S65(C  6-Port  ) 
!S66(C  6-Port  ) 
!S6P File: Measurement: :
# Hz S  RI   R 50
500000000 -0.33381 -0.053129 -0.010038 -0.0013093 -0.0082377 0.013356 -0.004339 0.011819
0.013109 0.0049123 -0.004485 0.0082557
-0.0098418 -0.0010045 -0.41597 -0.064329 0.0085057 -0.010852 0.0023339 0.012335
0.0073639 0.0028885 0.0026202 0.01473
-0.0082193 0.013227 0.0084625 -0.010822 -0.26662 0.19857 0.0072592 0.0035284
-0.0011598 0.0083343 0.0011135 0.01228
-0.0039063 0.011731 0.0023692 0.012433 0.0072369 0.0035333 -0.33165 0.043384
-0.018096 -0.0043034 0.01655 0.025384
0.013635 0.005367 0.0076085 0.0029012 -0.0011681 0.0084869 -0.018184 -0.0043578
-0.24889 -0.19612 -0.026977 0.0047639
-0.0041393 0.0081398 0.0021767 0.014899 0.00098665 0.01241 0.016495 0.025874
-0.027081 0.004368 -0.27133 -0.12289
560000000 -0.31971 0.11247 -0.023004 -0.064172 2.1824e-05 0.012295 0.0058728 0.010912
0.011542 0.0035844 0.01136 0.0080839
-0.023628 -0.064541 -0.37482 0.099096 -0.04223 -0.037829 0.014048 0.0028381
-0.01367 -0.0043911 0.0038843 -0.0019302
1.7441e-05 0.012184 -0.042555 -0.03748 -0.1848 0.24971 -0.00051519 -0.0045915
0.018941 0.0041464 0.0081932 -0.0056241
0.0055341 0.010643 0.014093 0.0028156 -0.00049733 -0.004632 -0.30659 0.13408
0.0048618 -0.023769 0.0057254 -0.021731
0.011401 0.0040427 -0.014188 -0.0043787 0.019153 0.0040687 0.0050687 -0.023527
-0.31024 -0.020084 0.0095805 -0.047474
0.010726 0.0079166 0.00455 -0.0022263 0.0083817 -0.0052904 0.0056068 -0.021804
0.0092498 -0.047563 -0.33123 0.024924
620000000 -0.2764 0.092592 -0.022901 0.0084079 0.0036912 0.0087896 0.0074085 -0.0051715
0.011983 0.00056992 0.0002062 -0.0030588
-0.022862 0.0082099 -0.40337 0.048366 -0.018454 0.00046827 -0.0015629 -0.002036
0.012428 -0.0061759 0.0010113 -0.0031229
0.0039432 0.0088284 -0.018465 0.00056782 -0.1557 0.25936 -0.0011661 -0.0052838
-0.003358 -0.0027052 0.0087327 -0.0027988
0.0079631 -0.0050202 -0.0016082 -0.0020732 -0.0011366 -0.005344 -0.26626 0.14508
-0.03826 -0.018717 0.012547 0.026646
0.01152 -0.0002293 0.012254 -0.0061019 -0.0033698 -0.0025549 -0.038379 -0.018907
-0.23012 -0.051136 -0.041429 0.013934
0.00024013 -0.0037146 0.00087261 -0.0031031 0.0087254 -0.0028917 0.012695 0.026719
-0.041627 0.013616 -0.24859 -0.0055213
680000000 -0.23955 0.18359 -0.026603 -0.014724 0.0051327 0.005687 0.00156 -0.0079424
-0.0027832 -0.011623 0.0049717 -0.0064348
-0.026724 -0.014821 -0.3901 0.1492 -0.032419 -0.0019641 -0.0014415 -0.00046694
-0.0019701 -0.0090664 -0.0014665 -0.0015467
0.0049219 0.0054503 -0.032469 -0.0018677 -0.1043 0.28027 -0.00071315 -0.00019488
-0.0021908 0.00043268 -0.0025367 -0.0089177
0.0013328 -0.0083257 -0.0014495 -0.00044735 -0.00072678 -0.00021427 -0.22111 0.19716
-0.02285 -0.0081674 -0.008252 -0.011764
-0.0028042 -0.011563 -0.0020861 -0.009096 -0.0022834 0.00033118 -0.022944 -0.0080897
-0.27867 0.05271 -0.0071304 -0.008452
0.0045208 -0.0065961 -0.0013484 -0.0015631 -0.0026789 -0.0086081 -0.0088613 -0.01178
-0.0067687 -0.0081014 -0.26001 0.094398
740000000 -0.1941 0.17606 -0.040206 0.025914 0.013283 -0.0045824 -0.00036625 -0.0043004
-0.0048039 -0.0028678 -0.0064767 0.0035783
-0.040293 0.025852 -0.33566 0.16778 -0.037286 0.034767 0.00022332 -0.0060429
-0.012446 0.0075978 -0.0017964 -0.0064835
0.013341 -0.0047696 -0.037241 0.034927 -0.070847 0.27776 -0.0020044 0.0036035
-0.0027318 -0.0058703 -0.0016789 0.0011126
-7.894e-05 -0.0042344 0.00019297 -0.0060447 -0.0019848 0.0035624 -0.20385 0.20347
-0.043218 -0.0062422 0.022568 0.01444
-0.005046 -0.0029426 -0.01237 0.0077935 -0.0027198 -0.0058702 -0.043214 -0.0061669
-0.17951 0.077986 -0.043215 0.00090252
-0.0061562 0.0034943 -0.0015213 -0.0064767 -0.0017293 0.0010116 0.022896 0.014546
-0.043744 0.0012017 -0.24802 0.10097
800000000 -0.16277 0.22055 -0.022709 0.016112 0.0057404 -0.010243 -0.0048929 -0.0019407
-0.0044521 0.0022608 0.0041334 0.00099807
-0.022743 0.016154 -0.34153 0.23884 -0.0087044 0.034131 -0.002375 0.0022885
-0.0010437 0.0029398 0.00093523 0.0053901
0.0055886 -0.010238 -0.0086182 0.034179 -0.031719 0.30211 0.00083865 0.0015032
-0.00011812 0.0035505 -0.0019202 0.00072266
-0.0049684 -0.0019954 -0.0023634 0.0022796 0.00082967 0.0015237 -0.17451 0.23192
-0.029106 0.013158 0.013846 -0.010125
-0.0044435 0.0020646 -0.00095556 0.0029224 -5.5721e-05 0.00356 -0.029144 0.013344
-0.22056 0.1078 -0.018353 0.019403
0.003898 0.0010073 0.00083161 0.0054824 -0.0019012 0.0009442 0.013723 -0.010117
-0.018229 0.019338 -0.23989 0.14991
860000000 -0.1285 0.24061 -0.018413 0.030408 -0.0030428 -0.010283 -0.0021562 0.00011527
0.0036719 0.0045409 -0.0033346 -0.0032374
-0.018301 0.030517 -0.29349 0.28191 0.0071508 0.034377 -4.5436e-06 0.0017455
0.003341 0.00041009 0.0033198 0.00043062
-0.0029918 -0.01024 0.00731 0.034435 0.016059 0.31046 -0.00078274 -0.00042262
0.0023327 -0.0016343 0.0015769 0.0043794
-0.0020635 0.00030511 1.2685e-05 0.0017665 -0.0007649 -0.00043597 -0.13758 0.24218
-0.018687 0.0177 -0.0062747 -0.0088921
0.0038327 0.0047224 0.003166 0.00043486 0.0023094 -0.0016481 -0.018588 0.017717
-0.16695 0.15943 -0.024643 0.016407
-0.0031899 -0.0033036 0.0035429 0.00040349 0.0015669 0.0044479 -0.0064988 -0.0087924
-0.024646 0.016357 -0.19091 0.19464
920000000 -0.10433 0.264 0.0042665 0.038459 -0.0092312 -0.0049072 -0.0018979 0.0019898
0.0012518 0.0020944 0.0029034 -0.0013986
0.0042099 0.038399 -0.26616 0.3029 0.027898 0.022812 0.0014869 0.0013121
0.0074132 9.7065e-05 0.0040992 -0.0029241
-0.0092565 -0.0048572 0.028022 0.022749 0.061439 0.31168 0.0019764 4.6415e-05
0.00096134 5.2725e-05 0.0010788 -0.0012877
-0.0019004 0.0019379 0.0015196 0.0012963 0.0019773 4.4626e-05 -0.11323 0.25948
-0.011181 0.030732 0.0032476 -0.0063813
0.0012058 0.0020657 0.0073688 4.7036e-05 0.00096739 6.2441e-05 -0.011181 0.03084
-0.15549 0.16632 -0.0015158 0.026768
0.0027786 -0.0013164 0.0041415 -0.0028548 0.0010788 -0.0012803 0.0032375 -0.00651
-0.0013918 0.026809 -0.19739 0.20849
980000000 -0.057935 0.28439 0.016777 0.030538 -0.0093352 0.0042413 0.0019752 0.0036626
0.0039948 -0.0015697 -0.0030512 -0.0025633
0.016652 0.030497 -0.21281 0.33794 0.033212 0.0056156 0.0019755 -0.00010175
0.0017067 -0.0058152 -0.000253 -0.0024176
-0.0093299 0.0042362 0.033273 0.0055134 0.1072 0.30602 0.00068919 -0.0011472
0.00050123 -0.001949 0.0016143 -0.00022952
0.001938 0.0036342 0.0019671 -8.9594e-05 0.00068512 -0.0011575 -0.074932 0.27061
0.0069616 0.030233 -0.0092926 -0.0071362
0.0038764 -0.0015772 0.0017029 -0.0058529 0.00052877 -0.0019595 0.0070845 0.030206
-0.12232 0.1955 0.005561 0.019631
-0.0028137 -0.0024968 -0.00030459 -0.002425 0.0016523 -0.00021049 -0.0092398 -0.0072245
0.0054758 0.019531 -0.15358 0.25268
1040000000 -0.016082 0.29369 0.032782 0.01935 -0.0013683 0.0070742 0.0027274 0.00076865
0.00051661 -0.0034016 6.2545e-05 -0.0015527
0.032769 0.019407 -0.17783 0.3513 0.030107 -0.014231 0.0017222 -0.0017804
-0.0019795 -0.0023381 -0.00073512 -0.0029337
-0.0013157 0.0071264 0.030072 -0.014334 0.1529 0.29308 -0.00037225 -0.0016246
-0.0014974 -0.000884 -0.00040772 -0.001124
0.0027922 0.00070265 0.0017325 -0.0017957 -0.00037021 -0.0016422 -0.047257 0.28013
0.019071 0.019083 -0.0023447 0.0010791
0.00058249 -0.0035379 -0.0020386 -0.0023464 -0.0014835 -0.00087443 0.019128 0.01906
-0.087917 0.20294 0.013418 0.0184
-0.00012036 -0.0015517 -0.00065925 -0.0029687 -0.00038889 -0.0011016 -0.0022884 0.0012054
0.013409 0.018337 -0.13145 0.27279
1100000000 0.028581 0.30279 0.036422 -0.0031647 0.0028499 0.0040655 0.0025821 -0.0011813
-0.0023125 -0.0032559 -0.0040159 -0.00039606
0.036316 -0.0030639 -0.13486 0.36947 0.016041 -0.027654 0.00014863 -0.0019014
-0.0036101 -0.0012038 -0.0034888 -0.0007162
0.0028771 0.0040628 0.015937 -0.027736 0.19875 0.27402 -0.001926 2.177e-06
-0.0017676 0.00035732 -0.00112 -0.00054729
0.0024961 -0.001186 0.0001559 -0.0019148 -0.0019322 -6.1237e-08 -0.0071059 0.28525
0.024962 0.0059089 -0.0023593 0.00014757
-0.0023285 -0.0031503 -0.0036327 -0.0011909 -0.0017365 0.00036634 0.024958 0.0058763
-0.067662 0.21541 0.019083 0.0084875
-0.0039076 -0.0002526 -0.003537 -0.00062155 -0.0010889 -0.0005628 -0.0023669 8.1506e-05
0.019058 0.0085866 -0.085404 0.30153
1160000000 0.079876 0.29892 0.024763 -0.020107 0.0029437 -0.00051011 -0.00013377 -0.0025495
-0.0039247 -0.00081266 -0.001015 0.0042194
0.024765 -0.020177 -0.091605 0.3741 -0.0028906 -0.029412 -0.0017023 -0.0017112
-0.0027033 0.0024374 -0.0014519 0.001906
0.0029445 -0.00050608 -0.0030411 -0.029431 0.24191 0.24434 -0.00080551 0.0017231
-0.00061174 0.0019487 -0.00083485 0.00029372
-8.7451e-05 -0.002521 -0.0017036 -0.0017068 -0.00081303 0.0017112 0.032134 0.28256
0.021493 -0.010029 -0.0031218 0.0050875
-0.003874 -0.00080974 -0.0027382 0.0024824 -0.00063343 0.0019217 0.021478 -0.010069
-0.032197 0.22332 0.017996 -0.00019967
-0.0011212 0.004141 -0.0014314 0.0020714 -0.00082565 0.00027079 -0.0031651 0.0051134
0.017911 -0.00026198 -0.038478 0.30351
1220000000 0.12366 0.28922 0.011562 -0.029959 -0.0014987 -0.0010762 -9.8327e-05 -0.00080403
-0.0027892 0.0022398 0.001093 0.0019097
0.011538 -0.02988 -0.047698 0.38717 -0.016535 -0.021985 -0.0026238 0.00042194
-0.00011442 0.0031389 -0.00085241 0.0018362
-0.001464 -0.0010783 -0.016665 -0.021943 0.28133 0.20636 0.00061946 0.0016677
0.00053388 0.0012405 0.00015673 0.00053663
-0.00018247 -0.00087372 -0.002628 0.00044695 0.00063223 0.0016708 0.072177 0.27403
0.011273 -0.016765 0.0021357 0.0014634
-0.0027907 0.0022224 -6.5442e-05 0.0031368 0.00055019 0.0012622 0.011252 -0.016759
-0.0081983 0.23158 0.013943 -0.012798
0.0010753 0.0019128 -0.00085744 0.0017995 0.00015424 0.00054571 0.0021923 0.0014371
0.013996 -0.012811 -0.0068735 0.31896
1280000000 0.1741 0.26849 -0.0071565 -0.029002 -0.0020587 0.0023237 -0.00085383 -0.0020186
-0.00074309 0.0031272 0.0024473 0.0014861
-0.0070775 -0.028995 -0.001819 0.37903 -0.023826 -0.0092135 -0.0010868 0.0014419
0.0016672 0.0017154 0.00052554 0.0020808
-0.0020261 0.0023481 -0.023901 -0.0091094 0.31265 0.16328 0.0014971 8.7046e-05
0.001223 0.00031214 0.00036311 0.00027798
-0.00083997 -0.0019519 -0.0010736 0.0014546 0.0014777 6.6536e-05 0.10917 0.25796
0.0016662 -0.019339 -5.619e-05 0.00020361
-0.00068596 0.0031202 0.0016612 0.001715 0.0012032 0.0003063 0.0016238 -0.019343
0.028304 0.23458 0.0032102 -0.01501
0.0024467 0.001382 0.00053787 0.0021089 0.0003486 0.0002415 -0.00014365 0.00021074
0.00319 -0.015023 0.039993 0.32018
1340000000 0.21136 0.23572 -0.017158 -0.019695 0.00065308 0.0046475 -0.0017352 -0.00081439
0.001388 0.0025978 0.0016964 -0.0012979
-0.017135 -0.01968 0.037537 0.37182 -0.021996 0.0036606 -0.00010645 0.0020162
0.001915 0.00087001 0.0011833 0.00081525
0.00067888 0.0046514 -0.022004 0.0037806 0.33521 0.11609 0.0011397 -0.00076442
0.00062347 -0.00048295 1.1301e-06 0.00026079
-0.001747 -0.00083737 -0.00010516 0.0020216 0.0011347 -0.00075566 0.14227 0.2373
-0.0077482 -0.016996 0.00083238 0.00035676
0.0013831 0.0025737 0.0019189 0.00086869 0.00062178 -0.00046228 -0.007792 -0.01698
0.058245 0.22951 -0.0031596 -0.013716
0.0016443 -0.0012719 0.0012081 0.00078417 9.1574e-06 0.00027956 0.00087589 0.00039021
-0.0031496 -0.013692 0.077386 0.31526
1400000000 0.24513 0.19863 -0.023484 -0.0082308 0.0051801 0.0034394 -0.0021453 0.00053904
0.0024195 0.00090048 0.00038115 -0.0015104
-0.023452 -0.0082573 0.075192 0.35975 -0.015499 0.012209 0.0013416 0.0012906
0.0013585 -0.00065022 0.0012111 0.00015878
0.0052075 0.003387 -0.015464 0.012298 0.34903 0.062793 0.00012868 -0.00158
0.00015966 -0.00045546 0.00029792 0.00028075
-0.0021633 0.00057601 0.001344 0.0013023 0.00011682 -0.0015822 0.17189 0.20843
-0.014102 -0.010447 -0.00095535 -0.00046122
0.0024603 0.00087209 0.0013365 -0.00065163 0.0001593 -0.000464 -0.014119 -0.010433
0.091142 0.22476 -0.0098091 -0.0088173
0.00041184 -0.0014699 0.0011738 0.0001782 0.00028771 0.00028212 -0.00096014 -0.00049634
-0.0097576 -0.0088485 0.1222 0.30414
1460000000 0.26857 0.15527 -0.020696 0.0041297 0.0058377 -0.0016408 -0.0016906 0.0017025
0.0020221 -0.0004288 -0.00025157 -0.0010555
-0.020692 0.0041051 0.10996 0.33849 -0.0066395 0.015588 0.0017454 0.00022711
0.00098203 -0.0013856 0.0012078 -0.00063371
0.0058078 -0.0016388 -0.0065705 0.01563 0.35595 0.008437 -0.0010947 -0.001322
0.00013267 -0.0001188 0.00061675 -0.00023
-0.0016469 0.0016999 0.0017657 0.00022477 -0.001094 -0.0013331 0.19867 0.17905
-0.015639 -0.0040387 -0.00098459 0.0019757
0.0020284 -0.00046021 0.00097648 -0.0013873 0.00010207 -8.7311e-05 -0.015677 -0.0040032
0.12039 0.21053 -0.011479 -0.0031908
-0.00031775 -0.0010769 0.0012091 -0.00068039 0.00062733 -0.00024083 -0.00099087 0.0019858
-0.011481 -0.0031652 0.15511 0.28355
1520000000 0.28152 0.11425 -0.015319 0.0099281 0.0033943 -0.0042425 4.1351e-05 0.0026138
0.0020825 -0.0017914 -0.0011948 -0.00024789
-0.015307 0.0099202 0.14395 0.32429 0.0012897 0.013498 0.001656 -0.00080522
8.6978e-05 -0.0011958 0.00033649 -0.0010342
0.0034036 -0.0042884 0.001367 0.013512 0.34948 -0.047633 -0.0010913 -0.00045455
0.00063286 -0.00085963 7.8291e-05 -0.00013951
2.7573e-05 0.0026071 0.0016577 -0.00081119 -0.00109 -0.00045302 0.22196 0.14074
-0.01563 0.0018841 0.0013052 0.0021759
0.0020806 -0.0018294 7.4794e-05 -0.0012095 0.00062378 -0.00086306 -0.015637 0.0019101
0.14812 0.19719 -0.011676 0.001188
-0.001192 -0.00019389 0.00031523 -0.0010087 5.4632e-05 -0.00014114 0.0013275 0.0021586
-0.011678 0.0011952 0.18792 0.26294
1580000000 0.29199 0.068408 -0.0086034 0.013465 -0.00084411 -0.0050022 0.0014901 0.0019963
-0.00012213 -0.0021048 -0.00029513 0.00045375
-0.0086434 0.013439 0.17187 0.29985 0.005242 0.0086335 0.00054431 -0.0016059
-0.0006322 -0.0011293 -0.00020318 -0.00084402
-0.00093019 -0.0050269 0.0053132 0.0086122 0.3299 -0.1052 -0.0017738 0.000558
-0.00035488 -0.0011498 0.00025642 -0.00064612
0.0014866 0.0020434 0.00052954 -0.001607 -0.0017531 0.00057295 0.23594 0.10124
-0.012431 0.0072452 0.0020539 0.00082863
-0.00018165 -0.0021071 -0.00065167 -0.0011288 -0.00032627 -0.0011457 -0.012421 0.0072859
0.17249 0.17958 -0.0093626 0.0068555
-0.00029091 0.00043612 -0.00020326 -0.00087388 0.00027405 -0.0006701 0.0020527 0.00082484
-0.0093921 0.0068607 0.21975 0.23615
1640000000 0.2949 0.027171 -0.0017907 0.012574 -0.0028743 -0.0026134 0.0027741 0.0011245
-0.00064701 -0.0015551 -0.00040357 0.00060454
-0.0017882 0.012557 0.20186 0.2751 0.0060789 0.0037289 -0.00061959 -0.0017896
-0.0011132 -0.00044768 -0.00054915 -0.00067793
-0.0028226 -0.0025865 0.0061046 0.0036864 0.30167 -0.1547 -0.00071441 0.0014712
-0.00098579 -0.0010381 -0.00019564 -0.0003241
0.0027838 0.0010596 -0.00063858 -0.0017865 -0.00073263 0.0014635 0.24839 0.052004
-0.0082808 0.009118 0.0024375 -0.00058477
-0.00067286 -0.0015837 -0.0011198 -0.00043067 -0.00096934 -0.0010197 -0.0082817 0.0091379
0.19571 0.15593 -0.0050415 0.009032
-0.0004424 0.00061374 -0.00056534 -0.00067895 -0.00022786 -0.00033009 0.0024374 -0.00057748
-0.0050363 0.009021 0.24542 0.205
1700000000 0.28846 -0.018381 0.0018127 0.00985 -0.0036072 9.947e-05 0.0031343 -0.0012465
-0.0019276 -0.00076823 0.00052081 0.000569
0.0017983 0.0098472 0.2204 0.24363 0.0040513 0.00064008 -0.0014261 -0.00055851
-0.00086567 0.00012313 -0.00097999 -0.00051672
-0.0036172 0.00012514 0.0040545 0.00062073 0.25835 -0.19466 0.00038731 0.0016806
-0.0020164 -0.00011193 -0.00039227 -0.00079847
0.0030914 -0.0012217 -0.0014282 -0.0005472 0.00038437 0.0017039 0.24499 0.0019361
-0.0051514 0.010211 0.0015865 -0.0021275
-0.0019284 -0.0007526 -0.00087521 0.00012493 -0.0020161 -0.00011391 -0.0051508 0.010221
0.21332 0.13603 -0.0004641 0.0093778
0.00058528 0.00052463 -0.00096334 -0.00050473 -0.00038923 -0.00080768 0.00161 -0.0021434
-0.00050719 0.0094175 0.26148 0.17069
1760000000 0.27687 -0.067336 0.0044326 0.0066254 -0.0022013 0.0009307 0.0013415 -0.0033482
-0.0014299 0.00056056 0.00039388 -0.00063234
0.0044141 0.0066251 0.24685 0.20385 0.001858 -0.0012952 -0.0012477 0.00015094
-0.0010593 0.00097352 -0.00059757 0.00045073
-0.0022548 0.0010045 0.0018588 -0.0013125 0.21028 -0.2277 0.0011027 0.0011637
-0.0013762 0.0013799 -0.0012107 -0.0006689
0.001386 -0.0033833 -0.0012411 0.00014197 0.0011224 0.0011362 0.23597 -0.049682
-0.0013075 0.0096075 -0.00012468 -0.0023585
-0.0013954 0.00056793 -0.0010391 0.00099206 -0.00136 0.0013871 -0.0012988 0.009633
0.22867 0.10171 0.0033265 0.0072233
0.00040148 -0.00062808 -0.00062769 0.00050157 -0.0012453 -0.00067038 -0.00016525 -0.0023679
0.003332 0.0071982 0.27433 0.1331
1820000000 0.25271 -0.10506 0.0047101 0.0028972 -0.00013474 0.0025611 -0.00093873 -0.003086
-0.0012849 0.0010056 2.115e-05 -0.00020287
0.0047219 0.0029049 0.25725 0.1736 -0.0005269 -0.00016274 -0.0013271 0.00096567
4.0757e-05 0.0012872 -0.00058537 0.00054506
-4.3741e-05 0.0025494 -0.00053285 -0.00015321 0.15938 -0.24347 0.0017116 0.00035351
-0.00020885 0.0024688 -0.0015396 0.0005375
-0.00096608 -0.0030879 -0.0013349 0.00096964 0.0017364 0.00035501 0.20569 -0.097008
0.00063114 0.0081646 -0.0016359 -0.0014902
-0.0012914 0.0010477 4.4575e-05 0.0013029 -0.00016253 0.0024978 0.00064386 0.0081504
0.24633 0.072814 0.0043548 0.0039938
-4.0089e-05 -0.00013015 -0.00058053 0.00053056 -0.0015501 0.00051773 -0.0016075 -0.0014452
0.0043433 0.0040074 0.27614 0.096921
1880000000 0.21773 -0.14593 0.0026723 0.00037172 -0.00052334 0.0020062 -0.0028496 -0.0023284
-0.00031092 0.0019561 1.3472e-05 -0.00058661
0.0026741 0.00035841 0.26188 0.12692 -0.0023746 0.0015625 -0.00025717 0.0017806
0.00064251 0.0012487 6.3993e-05 0.00089543
-0.00051218 0.0020905 -0.0023579 0.0015855 0.10769 -0.25271 0.0018207 -0.00093907
0.0015298 0.0020078 -0.0010441 0.0012111
-0.0028827 -0.0022699 -0.00026204 0.0017706 0.0018234 -0.00093079 0.16494 -0.13716
0.0019429 0.005856 -0.0024746 0.00031329
-0.00033625 0.0019011 0.00065374 0.0012456 0.0015004 0.0020018 0.001953 0.0058433
0.25085 0.041353 0.0048781 0.0015926
-2.1191e-05 -0.00069691 5.4e-05 0.00091413 -0.00094919 0.0012509 -0.0024153 0.00026504
0.0048382 0.0015874 0.2765 0.062782
1940000000 0.17804 -0.17159 0.00015379 -0.0015155 0.0013187 0.001984 -0.0038908 0.00030105
0.0013302 0.001162 -0.00055103 -0.00060437
0.00016147 -0.0014766 0.26266 0.094999 -0.001289 0.0040046 0.0011039 0.0012911
0.0018673 0.00040466 0.0010314 0.00042552
0.0013326 0.0020687 -0.0012622 0.0040257 0.062258 -0.24555 0.00041268 -0.0022504
0.0024375 0.00033554 0.00062789 0.0018012
-0.0038819 0.00029317 0.0011402 0.001283 0.00046635 -0.0022715 0.11242 -0.16774
0.0014511 0.0042444 -0.0011596 0.0015375
0.001336 0.0011767 0.0018859 0.00039385 0.0024864 0.00033282 0.0014709 0.0042472
0.25426 0.0030169 0.0038359 -0.0013458
-0.00064028 -0.00052901 0.0010684 0.00040974 0.00061858 0.0017751 -0.0012124 0.0015981
0.0038026 -0.001343 0.26538 0.026874
2000000000 0.13185 -0.18638 -0.0036927 0.00053038 0.0025904 0.0015551 -0.0023684 0.0036993
0.0012866 0.00035694 -0.00073083 0.00052651
-0.0037201 0.0005288 0.24836 0.059338 -0.00080624 0.0058191 0.0015918 0.00046682
0.001237 -0.001229 0.00043336 0.00012755
0.00257 0.0014608 -0.00075603 0.0058156 0.0194 -0.23161 -0.0014202 -0.001437
0.0020767 -0.0011284 0.0016184 0.0014
-0.0023946 0.0036549 0.0015981 0.00046086 -0.0014262 -0.0014268 0.058531 -0.17741
6.02e-05 0.0035498 -0.00013755 0.0020298
0.0013793 0.000346 0.001247 -0.0012368 0.0020627 -0.0011512 4.1553e-05 0.0035179
0.24977 -0.030457 0.00078868 -0.0025852
