!Keysight Technologies,M9804A,MY58100912,A.14.10.03
!Date: Thursday, April 27, 2023 10:28:33
!Correction: S11(C  6-Port  ) 
!S12(C  6-Port  ) 
!S13(C  6-Port  ) 
!S14(C  6-Port  ) 
!S15(C  6-Port  ) 
!S16(C  6-Port  ) 
!S21(C  6-Port  ) 
!S22(C  6-Port  ) 
!S23(C  6-Port  ) 
!S24(C  6-Port  ) 
!S25(C  6-Port  ) 
!S26(C  6-Port  ) 
!S31(C  6-Port  ) 
!S32(C  6-Port  ) 
!S33(C  6-Port  ) 
!S34(C  6-Port  ) 
!S35(C  6-Port  ) 
!S36(C  6-Port  ) 
!S41(C  6-Port  ) 
!S42(C  6-Port  ) 
!S43(C  6-Port  ) 
!S44(C  6-Port  ) 
!S45(C  6-Port  ) 
!S46(C  6-Port  ) 
!S51(C  6-Port  ) 
!S52(C  6-Port  ) 
!S53(C  6-Port  ) 
!S54(C  6-Port  ) 
!S55(C  6-Port  ) 
!S56(C  6-Port  ) 
!S61(C  6-Port  ) 
!S62(C  6-Port  ) 
!S63(C  6-Port  ) 
!S64(C  6-Port  ) 
!S65(C  6-Port  ) 
!S66(C  6-Port  ) 
!S6P File: Measurement: :
# Hz S  RI   R 50
500000000 -0.33261 -0.053087 -0.0098905 -0.00067722 -0.0080791 0.013458 -0.0045695 0.011798
0.013234 0.0056691 -0.0035101 0.0077141
-0.0098337 -0.00068806 -0.41633 -0.063247 0.0084168 -0.010354 0.0016352 0.011994
0.0079438 0.0028891 0.0029929 0.013644
-0.0080848 0.013448 0.0083777 -0.010375 -0.26649 0.19908 0.0066988 0.0036651
-0.0010309 0.0083217 0.00072636 0.012203
-0.0047783 0.011831 0.0014623 0.012033 0.0066464 0.0037814 -0.33158 0.042927
-0.017904 -0.0051378 0.016275 0.024578
0.013592 0.0051124 0.0080751 0.0025964 -0.0010266 0.0080137 -0.018548 -0.004615
-0.24846 -0.19479 -0.025676 0.0042089
-0.005084 0.0074908 0.0014631 0.014355 0.00036793 0.012862 0.016567 0.025317
-0.02635 0.0038653 -0.27149 -0.12303
560000000 -0.31933 0.11457 -0.023026 -0.064151 6.9064e-05 0.01234 0.0050815 0.0106
0.011131 0.0036732 0.010617 0.0082908
-0.022896 -0.063986 -0.37475 0.098447 -0.04134 -0.03761 0.014087 0.0031514
-0.012789 -0.0044248 0.0031471 -0.0015153
-2.9935e-05 0.012537 -0.041776 -0.037557 -0.18489 0.25006 -0.0010647 -0.0045853
0.018743 0.0047332 0.0086579 -0.0058621
0.0054734 0.010387 0.013883 0.0032941 -0.0011458 -0.0047292 -0.3063 0.13399
0.0054359 -0.023248 0.0053569 -0.021463
0.010979 0.0033576 -0.01266 -0.0042285 0.018585 0.0048269 0.0048408 -0.023778
-0.30897 -0.019663 0.0098208 -0.047319
0.010684 0.0092736 0.0039162 -0.001137 0.0077701 -0.0054552 0.0049861 -0.022196
0.0096096 -0.047686 -0.33186 0.02551
620000000 -0.27734 0.092696 -0.02306 0.0082991 0.0033198 0.0091275 0.007445 -0.0044922
0.012217 -0.0013014 0.00083146 -0.0031369
-0.023019 0.0083217 -0.40321 0.048566 -0.018283 0.00054859 -0.0016136 -0.0017544
0.012087 -0.0065236 0.00079894 -0.0032928
0.0033468 0.0091176 -0.018366 0.00055901 -0.15551 0.25966 -0.00091467 -0.0049969
-0.0035043 -0.0031017 0.0092605 -0.0028042
0.0076155 -0.0043693 -0.0014748 -0.0016416 -0.00087167 -0.0049443 -0.26606 0.14535
-0.038658 -0.019155 0.012819 0.026476
0.012817 -0.0012936 0.012381 -0.0066037 -0.003286 -0.0032531 -0.0384 -0.019315
-0.23039 -0.049358 -0.041712 0.01292
-0.00012086 -0.0029139 0.0010137 -0.0029859 0.0090363 -0.0027787 0.012283 0.026994
-0.042256 0.013701 -0.24943 -0.0050762
680000000 -0.23901 0.18345 -0.026326 -0.014981 0.0051757 0.0050531 0.0015226 -0.007575
-0.0023405 -0.0118 0.004279 -0.006173
-0.026296 -0.01499 -0.39009 0.1492 -0.032402 -0.0022838 -0.0014107 -0.0005686
-0.0018002 -0.0092985 -0.0014894 -0.0017627
0.0051354 0.0050551 -0.032494 -0.0022219 -0.10421 0.28018 -0.00080312 -0.00023475
-0.001955 0.00046279 -0.0025659 -0.0088124
0.0013972 -0.0076394 -0.0014791 -0.00059377 -0.00069859 -8.5253e-05 -0.22065 0.19674
-0.023085 -0.0079843 -0.009409 -0.011745
-0.0027386 -0.011447 -0.0018942 -0.0090686 -0.0019706 0.00048955 -0.023058 -0.0080561
-0.27889 0.052408 -0.0072802 -0.0082765
0.0054107 -0.0066987 -0.0012536 -0.0018447 -0.0026554 -0.0089566 -0.0089539 -0.012224
-0.0066328 -0.0079846 -0.26054 0.096095
740000000 -0.19399 0.17673 -0.039872 0.026158 0.013469 -0.0046922 -0.00027529 -0.0039028
-0.0049313 -0.0025744 -0.005728 0.0030049
-0.039829 0.026068 -0.33558 0.1683 -0.037115 0.034824 7.8022e-05 -0.006074
-0.011991 0.0070886 -0.0017416 -0.0063338
0.013474 -0.0046977 -0.037116 0.034854 -0.070506 0.2778 -0.0019948 0.0035194
-0.0025323 -0.005282 -0.0017445 0.0010114
-0.00029915 -0.0040948 0.00031219 -0.0060275 -0.0020952 0.0036728 -0.20377 0.20353
-0.043297 -0.0067009 0.022662 0.014144
-0.0049384 -0.0027847 -0.012624 0.0072401 -0.0026877 -0.0057745 -0.043426 -0.0067178
-0.17968 0.078502 -0.042904 0.0012702
-0.0062607 0.0038035 -0.0011585 -0.0060489 -0.0016781 0.001377 0.02246 0.01482
-0.043062 0.0015207 -0.24832 0.10044
800000000 -0.16273 0.22006 -0.022941 0.016116 0.0055365 -0.010331 -0.0046533 -0.0021778
-0.0045253 0.0022258 0.0039771 0.00078199
-0.022943 0.016121 -0.34164 0.23913 -0.0088191 0.034168 -0.0024266 0.0020663
-0.0011062 0.0028897 0.0010558 0.0051838
0.0055041 -0.010332 -0.0087578 0.034231 -0.03166 0.30229 0.00085231 0.0014282
-0.0001573 0.003552 -0.0019922 0.00078448
-0.0047042 -0.0023438 -0.0024842 0.0021004 0.00079014 0.0013334 -0.17407 0.23187
-0.02913 0.013167 0.013724 -0.01008
-0.0044666 0.0021654 -0.0010193 0.0029991 -0.00015879 0.0036254 -0.029278 0.013291
-0.22078 0.10829 -0.018913 0.019269
0.00388 0.0005215 0.00076414 0.0051046 -0.0021702 0.00083815 0.013703 -0.010081
-0.018569 0.019317 -0.23993 0.15043
860000000 -0.12829 0.24086 -0.018292 0.030447 -0.0029587 -0.010218 -0.0022351 0.00043063
0.003852 0.0045603 -0.0032975 -0.0029459
-0.018391 0.030376 -0.29342 0.28205 0.0071856 0.034326 0.0001326 0.0020426
0.003549 0.00033527 0.0032248 0.00072779
-0.0030301 -0.010218 0.0073072 0.034322 0.016278 0.31047 -0.00075623 -0.00022577
0.0024885 -0.0016458 0.0014835 0.0045633
-0.0020768 0.00030471 0.00027534 0.0019637 -0.00067911 -0.00025796 -0.13803 0.24236
-0.01869 0.017861 -0.0060417 -0.0088521
0.0038463 0.0046361 0.0034549 0.00031236 0.0023503 -0.0016846 -0.018855 0.017916
-0.16644 0.16006 -0.024038 0.016805
-0.0034199 -0.0031286 0.0031914 0.00024734 0.001622 0.0042979 -0.0060066 -0.0086573
-0.023963 0.016514 -0.19089 0.19507
920000000 -0.10439 0.26408 0.0041611 0.038509 -0.0092504 -0.0048245 -0.0021148 0.0017837
0.0013197 0.0021005 0.0028263 -0.0014045
0.0041166 0.038491 -0.26612 0.30326 0.027881 0.022835 0.0014207 0.0012477
0.0074129 -3.6964e-05 0.003876 -0.0029864
-0.0092688 -0.0047981 0.02799 0.022815 0.061625 0.31172 0.0018891 1.9557e-06
0.0010035 -5.7939e-05 0.0011118 -0.0012996
-0.0021128 0.0019153 0.0013715 0.0012389 0.0018868 2.0196e-05 -0.11333 0.25936
-0.01113 0.030762 0.0033209 -0.0065344
0.0013595 0.0019524 0.0074988 -6.1464e-05 0.00099211 -0.00010254 -0.011013 0.031005
-0.15542 0.16644 -0.0016053 0.026712
0.0028358 -0.0013479 0.0039823 -0.0030904 0.0011539 -0.001155 0.0032789 -0.0063987
-0.001809 0.027098 -0.19674 0.20848
980000000 -0.057681 0.28453 0.016715 0.030334 -0.0093071 0.0043169 0.001932 0.0036512
0.0039784 -0.0012891 -0.0029613 -0.0023462
0.016692 0.030341 -0.2127 0.33811 0.033218 0.0056438 0.0019997 -0.00010741
0.0016862 -0.0057633 -0.00011498 -0.0025362
-0.0092875 0.0043407 0.033268 0.0055222 0.10734 0.30604 0.00066243 -0.0011367
0.00061133 -0.001929 0.0015954 -0.00021639
0.0018709 0.0035847 0.0020333 -4.9248e-05 0.00061251 -0.0011664 -0.07488 0.27081
0.0070477 0.030346 -0.0091574 -0.0070345
0.004024 -0.0014192 0.0016587 -0.0058655 0.00060874 -0.0018863 0.0070638 0.030339
-0.12141 0.19588 0.0058581 0.01985
-0.0030465 -0.002402 -0.00025649 -0.0024513 0.0015687 -0.00024119 -0.0088284 -0.0071264
0.006061 0.019602 -0.1538 0.25309
1040000000 -0.015907 0.29348 0.032879 0.019277 -0.0013389 0.006994 0.0027608 0.0008198
0.00048566 -0.003396 0.00012687 -0.0016704
0.0328 0.019305 -0.1777 0.35161 0.030074 -0.01427 0.001796 -0.0017281
-0.002021 -0.0024324 -0.00064365 -0.0028536
-0.0012986 0.0070027 0.030049 -0.014372 0.15306 0.29305 -0.00035575 -0.0016252
-0.0014902 -0.00093439 -0.00031417 -0.0011664
0.0028556 0.00078734 0.0017432 -0.0017131 -0.00031424 -0.001596 -0.047359 0.28025
0.019097 0.01895 -0.0022427 0.0011546
0.00044801 -0.0033259 -0.002043 -0.0023432 -0.0015418 -0.00088413 0.019134 0.018887
-0.087697 0.20313 0.013493 0.018255
0.00028793 -0.001594 -0.00063476 -0.0028391 -0.00031762 -0.0011415 -0.0023525 0.0013121
0.01347 0.018111 -0.13102 0.27331
1100000000 0.029022 0.30284 0.036406 -0.0032031 0.0029253 0.0040843 0.0025178 -0.001246
-0.002286 -0.0031745 -0.0039359 -0.00015344
0.036351 -0.0031732 -0.13456 0.36956 0.016051 -0.027627 6.8132e-05 -0.0019222
-0.0035788 -0.0010832 -0.0034512 -0.00056618
0.0029328 0.0041008 0.015975 -0.027736 0.19893 0.27396 -0.0018933 1.2699e-05
-0.0017725 0.0003375 -0.0010963 -0.0005812
0.0024771 -0.001216 6.3397e-05 -0.0019286 -0.001928 -5.0098e-07 -0.0071034 0.28532
0.024919 0.00581 -0.0023697 0.00014934
-0.0021194 -0.0031634 -0.0035411 -0.0011418 -0.0017681 0.00035442 0.024927 0.0056963
-0.067357 0.21548 0.01904 0.0086691
-0.0039372 -7.4451e-05 -0.003452 -0.00057013 -0.0011269 -0.00060652 -0.0022531 5.3703e-05
0.019077 0.0086441 -0.085392 0.30111
1160000000 0.079962 0.2988 0.024646 -0.020155 0.0029522 -0.00051494 -0.00020888 -0.002449
-0.0039331 -0.00082593 -0.0010331 0.0041341
0.024617 -0.020112 -0.091349 0.37413 -0.0029152 -0.029407 -0.0016272 -0.0016759
-0.0028429 0.0024036 -0.0015596 0.0018239
0.0029467 -0.00053715 -0.0030527 -0.029429 0.24205 0.24421 -0.00079782 0.0017119
-0.00063252 0.0019788 -0.00090556 0.00038433
-0.00014375 -0.0024805 -0.0016196 -0.0016885 -0.00076528 0.0017054 0.032207 0.28257
0.021421 -0.010063 -0.0031291 0.0051364
-0.0039716 -0.00085627 -0.0027943 0.0024728 -0.00064808 0.0019269 0.021408 -0.010008
-0.032221 0.22326 0.018078 -0.00022389
-0.0011074 0.0041156 -0.0016117 0.0019987 -0.00088802 0.00032518 -0.0032154 0.0050106
0.018163 -0.00037331 -0.038273 0.30407
1220000000 0.12409 0.28883 0.011489 -0.029932 -0.0014759 -0.0010708 -8.7202e-05 -0.00090263
-0.0028264 0.0022435 0.001017 0.0019247
0.011489 -0.029875 -0.047428 0.38716 -0.016562 -0.02199 -0.0026752 0.000448
-5.5365e-05 0.0030652 -0.00088918 0.001847
-0.0014595 -0.0010576 -0.016672 -0.021952 0.28147 0.20625 0.00067382 0.0017166
0.00057615 0.0012205 0.00019421 0.00055175
-0.0001258 -0.00087095 -0.0026628 0.00047172 0.00067136 0.0017306 0.07229 0.27413
0.011213 -0.016864 0.002208 0.0015151
-0.002699 0.0022206 -4.1264e-05 0.0030918 0.00057854 0.001186 0.011211 -0.016918
-0.0082216 0.23168 0.013716 -0.012851
0.0010609 0.0019072 -0.00083583 0.001889 0.00021219 0.00056317 0.0022695 0.0014761
0.01377 -0.012823 -0.0066114 0.31895
1280000000 0.17435 0.26836 -0.0070929 -0.028853 -0.0020764 0.002346 -0.00082333 -0.0019168
-0.00073088 0.0031075 0.0024332 0.0014021
-0.0070549 -0.028824 -0.0016033 0.37895 -0.02393 -0.0091831 -0.00093954 0.0014972
0.0016667 0.0016801 0.00049424 0.002063
-0.0020591 0.0023224 -0.023991 -0.0091011 0.31275 0.16311 0.0015071 5.94e-06
0.0012674 0.00026601 0.00032171 0.00027112
-0.00081592 -0.0019367 -0.00095434 0.0014447 0.0014907 2.3344e-05 0.10928 0.25813
0.0016042 -0.01931 -0.00010308 0.00016255
-0.00076122 0.0031552 0.001722 0.0016976 0.0012293 0.00025335 0.0015578 -0.019276
0.028352 0.23457 0.0031551 -0.01517
0.0024625 0.0012508 0.00044144 0.0020001 0.00030478 0.00026377 1.3143e-05 0.00016372
0.0031432 -0.015127 0.03996 0.32029
1340000000 0.21151 0.23553 -0.017072 -0.019602 0.00064458 0.0046355 -0.0017352 -0.00083427
0.0013166 0.0025988 0.0017111 -0.0012372
-0.017042 -0.019578 0.037739 0.37172 -0.021973 0.0036917 -0.00018006 0.0020426
0.0019405 0.00090413 0.0011912 0.00085408
0.00067604 0.0046298 -0.021984 0.0038106 0.33529 0.11587 0.001117 -0.00080564
0.00062475 -0.00048703 -1.9878e-05 0.00029043
-0.0017541 -0.00080371 -0.0001397 0.0020478 0.0011269 -0.00079184 0.14242 0.23725
-0.0078102 -0.017016 0.00081857 0.00040656
0.0013757 0.0026025 0.0019323 0.00088418 0.00061277 -0.00050881 -0.0078703 -0.017065
0.058553 0.22964 -0.003375 -0.013815
0.0017493 -0.0012839 0.00123 0.00081518 -1.7748e-05 0.00025294 0.00079489 0.00038551
-0.0033541 -0.013707 0.077789 0.31536
1400000000 0.24526 0.19849 -0.023378 -0.0082207 0.0052018 0.0034239 -0.0021756 0.00057838
0.0023915 0.00088366 0.00047501 -0.0014705
-0.02334 -0.00823 0.075393 0.35966 -0.015455 0.012237 0.001339 0.0013347
0.0012936 -0.00067984 0.0012141 0.00012983
0.0052328 0.0034099 -0.015418 0.012331 0.34907 0.062611 0.000141 -0.0015922
0.00010253 -0.00044481 0.0002643 0.00024829
-0.00214 0.00055889 0.0013261 0.0013239 0.00017387 -0.0016229 0.17202 0.20829
-0.014077 -0.01042 -0.00090721 -0.0004912
0.0023992 0.00091321 0.0013031 -0.00068425 0.00011282 -0.0004564 -0.014141 -0.010379
0.091327 0.22469 -0.0097362 -0.008705
0.00041705 -0.0014878 0.0012196 0.00012342 0.00023588 0.00020228 -0.00094901 -0.00038853
-0.0097395 -0.0088153 0.12217 0.30399
1460000000 0.26871 0.15515 -0.020601 0.0040798 0.0057876 -0.0016855 -0.0016252 0.0017057
0.0020014 -0.00042069 -0.0003176 -0.00096112
-0.020613 0.0040692 0.11014 0.33839 -0.0066001 0.015615 0.001735 0.00020802
0.0010183 -0.0013714 0.0012197 -0.00059292
0.0057807 -0.0017055 -0.0065238 0.01568 0.35598 0.0082566 -0.0011265 -0.0013761
0.00014848 -0.00018619 0.00064458 -0.00021525
-0.0016233 0.0017479 0.0017369 0.00019052 -0.0011381 -0.0013692 0.19878 0.17889
-0.015682 -0.0040122 -0.0010031 0.0019195
0.002014 -0.0004774 0.0010179 -0.001349 0.00013861 -0.00021029 -0.015677 -0.0040025
0.1205 0.21058 -0.011662 -0.0032413
-0.00035218 -0.0010321 0.0012666 -0.0005915 0.00069801 -0.000245 -0.00097512 0.0018611
-0.011624 -0.0031637 0.15552 0.28343
1520000000 0.28165 0.11402 -0.015301 0.0098527 0.0033807 -0.0042231 8.1955e-05 0.002577
0.0021086 -0.0018119 -0.0011543 -0.00025495
-0.015285 0.009834 0.1442 0.32423 0.0013035 0.013464 0.0016607 -0.00079367
6.8166e-05 -0.0011941 0.00033276 -0.0010156
0.0033645 -0.0042615 0.0013713 0.01348 0.34948 -0.047866 -0.001134 -0.00045008
0.00062475 -0.00088318 8.1107e-05 -0.0001552
4.83e-05 0.0025689 0.0016633 -0.00077662 -0.0011079 -0.00045833 0.22202 0.14063
-0.015604 0.0019955 0.0013464 0.0021968
0.0021167 -0.0018008 5.359e-05 -0.0011793 0.00066203 -0.00089418 -0.015597 0.0020476
0.14848 0.1971 -0.011702 0.0012546
-0.0011929 -0.00023014 0.00031357 -0.0010425 7.2421e-05 -0.0001173 0.001356 0.002157
-0.011698 0.0012172 0.18827 0.26283
1580000000 0.29222 0.068143 -0.0086918 0.013368 -0.00087287 -0.0049718 0.0014675 0.0020481
-0.00012407 -0.0020353 -0.00033416 0.00033472
-0.0086978 0.013353 0.17207 0.29977 0.0052617 0.0086133 0.00055031 -0.001565
-0.00060147 -0.0011504 -0.00020193 -0.00084899
-0.00090038 -0.004978 0.0053153 0.0085799 0.32987 -0.10537 -0.0017094 0.00058706
-0.00030075 -0.0012237 0.00028596 -0.00061734
0.0014987 0.0020498 0.00051932 -0.0015962 -0.0017295 0.00056673 0.23589 0.10094
-0.012366 0.0072335 0.002108 0.00086174
-0.00014185 -0.0020276 -0.0005994 -0.0011543 -0.00031347 -0.0011634 -0.012366 0.0072541
0.17282 0.17947 -0.0093987 0.0068069
-0.00030831 0.00027553 -0.00020592 -0.00080116 0.00033937 -0.00063355 0.0020949 0.00090041
-0.0094833 0.0068739 0.22014 0.23606
1640000000 0.29506 0.026899 -0.0018567 0.012512 -0.0028774 -0.0026306 0.0027438 0.0011353
-0.00062701 -0.0015904 -0.00040702 0.00069082
-0.0018626 0.012495 0.20213 0.27493 0.0060837 0.0036762 -0.00062709 -0.0017561
-0.0010993 -0.00042015 -0.00052869 -0.00068241
-0.0028846 -0.0025929 0.0061018 0.0036556 0.30159 -0.15495 -0.00076425 0.001498
-0.0010593 -0.0010364 -0.00019853 -0.00032692
0.0027329 0.0011005 -0.00062092 -0.0017358 -0.00076267 0.0014468 0.24829 0.052004
-0.0082754 0.0091515 0.0024643 -0.000661
-0.00064549 -0.0015767 -0.00111 -0.00041534 -0.0010571 -0.0010473 -0.0082534 0.0091896
0.1959 0.15573 -0.0050069 0.0091653
-0.00042019 0.00074613 -0.0005533 -0.00066977 -0.00020418 -0.0002802 0.0025029 -0.00065979
-0.0048973 0.0090925 0.24569 0.20468
1700000000 0.28861 -0.018761 0.001737 0.0098716 -0.0036498 0.00013063 0.0031597 -0.0011639
-0.0019158 -0.00074068 0.00053007 0.00054484
0.0017373 0.0098669 0.22065 0.24343 0.0040143 0.00062868 -0.0014527 -0.00061619
-0.00086886 9.5113e-05 -0.00097223 -0.00048453
-0.0036298 0.00012891 0.00405 0.00061681 0.25814 -0.19492 0.0003384 0.0016937
-0.0020165 -3.5393e-05 -0.00036901 -0.00084019
0.0031467 -0.0012073 -0.0014803 -0.00062445 0.00031833 0.0017891 0.24501 0.0018063
-0.0050498 0.010167 0.0016034 -0.0020708
-0.0019438 -0.00076621 -0.00088971 8.7745e-05 -0.002063 -5.8588e-05 -0.0050245 0.010132
0.21362 0.13576 -0.00050524 0.0094976
0.000522 0.00054564 -0.00094744 -0.00045261 -0.00032109 -0.000868 0.001565 -0.0021205
-0.0005351 0.0095239 0.26193 0.17042
1760000000 0.27703 -0.067694 0.0043719 0.0066378 -0.002258 0.00086514 0.0013406 -0.0034575
-0.0014698 0.00053558 0.00041982 -0.00051811
0.0043708 0.0066346 0.24703 0.20359 0.0018587 -0.0013256 -0.0012011 0.0001393
-0.0010544 0.00099595 -0.00060262 0.00039664
-0.0022223 0.00089098 0.0018153 -0.0013153 0.2102 -0.22783 0.0011374 0.001141
-0.001376 0.0013753 -0.0012282 -0.00068548
0.0013346 -0.0034413 -0.0011892 0.00015478 0.0011992 0.0010769 0.2358 -0.049779
-0.0013621 0.0095452 -6.0991e-05 -0.0025215
-0.001435 0.0005524 -0.0010375 0.0010061 -0.0013243 0.0013823 -0.0012994 0.0095287
0.2288 0.10142 0.0033949 0.0071491
0.00041989 -0.0005395 -0.0006503 0.00041098 -0.0013157 -0.0006921 -0.00010124 -0.002446
0.00341 0.0071988 0.27438 0.13286
1820000000 0.25257 -0.10548 0.004737 0.0029177 -0.0001147 0.0025076 -0.00091661 -0.0031216
-0.0012551 0.0010284 -3.8364e-06 -0.00021018
0.0047251 0.0029351 0.25738 0.17331 -0.00052593 -0.00020357 -0.001345 0.0009112
7.3767e-06 0.0012996 -0.00059705 0.00053445
-8.9723e-05 0.0024978 -0.00051859 -0.00019901 0.15928 -0.24357 0.0016643 0.0003803
-0.00024396 0.002514 -0.0014492 0.00047185
-0.00093055 -0.0031248 -0.0013637 0.00091583 0.0015861 0.00047085 0.20568 -0.097026
0.00065508 0.008207 -0.0016889 -0.0014607
-0.0012491 0.0010539 1.741e-05 0.0012794 -0.0002056 0.0024656 0.00075579 0.0081342
0.24658 0.072596 0.0044391 0.0039211
3.472e-05 -0.00022189 -0.00053473 0.00052958 -0.0014021 0.00037605 -0.0016515 -0.0014716
0.0043477 0.0039105 0.27643 0.096546
1880000000 0.21755 -0.14635 0.0026584 0.0004245 -0.0005165 0.0020437 -0.0029173 -0.0023054
-0.00030589 0.0019418 1.8962e-05 -0.00051263
0.0026485 0.00042424 0.26192 0.12664 -0.0023858 0.0015684 -0.00027381 0.0017839
0.000658 0.001259 8.0077e-05 0.00094695
-0.00052119 0.0020818 -0.0023897 0.0015923 0.10749 -0.2528 0.0017342 -0.00090027
0.0015112 0.0019764 -0.0011151 0.0013255
-0.0029364 -0.0022835 -0.00024378 0.0017622 0.0018335 -0.00087026 0.16478 -0.13714
0.0019449 0.0057655 -0.0022541 0.00027791
-0.00030329 0.0019824 0.00067381 0.0012442 0.0015108 0.0020086 0.0019357 0.0058132
0.25091 0.041078 0.0048401 0.0015026
3.0445e-05 -0.00056388 7.8577e-05 0.00095008 -0.001031 0.0013698 -0.0024109 0.00017221
0.0048868 0.001493 0.27637 0.062394
1940000000 0.1776 -0.17204 0.00016317 -0.0014597 0.0012799 0.0019594 -0.0039048 0.0004213
0.00135 0.0011768 -0.00059938 -0.00063804
0.00017506 -0.0014627 0.26264 0.094703 -0.0012451 0.0039567 0.0010553 0.0013027
0.0018797 0.0004007 0.0010068 0.00042519
0.0013278 0.0019943 -0.0012291 0.0040055 0.062155 -0.24569 0.00051639 -0.0022333
0.0024712 0.00039032 0.00061132 0.0017708
-0.0038938 0.00037214 0.0010448 0.0012848 0.0004882 -0.0022107 0.11235 -0.16765
0.0013101 0.0042748 -0.0013631 0.0014871
0.0013351 0.0011048 0.0018968 0.000379 0.0025154 0.00038361 0.0013878 0.0041841
0.2543 0.0027069 0.0037312 -0.0014207
-0.00054574 -0.00052677 0.0010718 0.00044945 0.00062571 0.0017292 -0.0013037 0.0014737
0.0038069 -0.0014328 0.26538 0.02667
2000000000 0.13155 -0.18659 -0.0036338 0.00058069 0.0025957 0.0015663 -0.0023644 0.0037087
0.0013338 0.00031695 -0.00071788 0.00052595
-0.0036308 0.0005958 0.24838 0.059108 -0.00082867 0.0058399 0.0016627 0.00048504
0.0012703 -0.0011739 0.000445 8.1471e-05
0.0025489 0.0015499 -0.0007785 0.0058197 0.019149 -0.23168 -0.0012753 -0.0014464
0.002141 -0.0011691 0.0015592 0.0012489
-0.0024101 0.0038292 0.0016599 0.00041257 -0.0013669 -0.0014331 0.058607 -0.17752
0.00017777 0.0035656 -0.00017496 0.0020135
0.0013255 0.00034325 0.0012773 -0.0012051 0.002078 -0.0012389 -4.2212e-07 0.0034847
0.24972 -0.030818 0.00085247 -0.0026138
