!Keysight Technologies,M9804A,MY58100912,A.14.10.03
!Date: Thursday, April 27, 2023 10:28:33
!Correction: S11(C  6-Port  ) 
!S12(C  6-Port  ) 
!S13(C  6-Port  ) 
!S14(C  6-Port  ) 
!S15(C  6-Port  ) 
!S16(C  6-Port  ) 
!S21(C  6-Port  ) 
!S22(C  6-Port  ) 
!S23(C  6-Port  ) 
!S24(C  6-Port  ) 
!S25(C  6-Port  ) 
!S26(C  6-Port  ) 
!S31(C  6-Port  ) 
!S32(C  6-Port  ) 
!S33(C  6-Port  ) 
!S34(C  6-Port  ) 
!S35(C  6-Port  ) 
!S36(C  6-Port  ) 
!S41(C  6-Port  ) 
!S42(C  6-Port  ) 
!S43(C  6-Port  ) 
!S44(C  6-Port  ) 
!S45(C  6-Port  ) 
!S46(C  6-Port  ) 
!S51(C  6-Port  ) 
!S52(C  6-Port  ) 
!S53(C  6-Port  ) 
!S54(C  6-Port  ) 
!S55(C  6-Port  ) 
!S56(C  6-Port  ) 
!S61(C  6-Port  ) 
!S62(C  6-Port  ) 
!S63(C  6-Port  ) 
!S64(C  6-Port  ) 
!S65(C  6-Port  ) 
!S66(C  6-Port  ) 
!S6P File: Measurement: :
# Hz S  RI   R 50
500000000 -0.33293 -0.053271 -0.0099277 -0.00061493 -0.0081323 0.01346 -0.0045958 0.011787
0.013693 0.0051635 -0.0050121 0.007438
-0.0099991 -0.00070172 -0.41612 -0.063034 0.0084445 -0.010261 0.0015992 0.012041
0.0081044 0.0027053 0.0011963 0.014367
-0.0081182 0.013467 0.0085014 -0.010292 -0.26649 0.19901 0.0066569 0.0037187
-0.00098138 0.0081135 0.00021116 0.01289
-0.0046443 0.011708 0.0015579 0.011976 0.0066276 0.0037467 -0.33176 0.042733
-0.018428 -0.0048345 0.016225 0.025759
0.013919 0.0048109 0.0079516 0.0025195 -0.0010129 0.0081167 -0.018444 -0.0046624
-0.24831 -0.19568 -0.026444 0.0038516
-0.004541 0.0074428 0.0016828 0.014113 0.00036 0.012857 0.016261 0.025098
-0.026671 0.0039467 -0.27141 -0.12045
560000000 -0.31925 0.11444 -0.02283 -0.063782 -5.7736e-05 0.012409 0.005215 0.010586
0.01116 0.0037152 0.010572 0.0093043
-0.02272 -0.063819 -0.37521 0.098128 -0.041513 -0.037492 0.014006 0.003013
-0.012672 -0.0041703 0.0043694 -0.0011379
-6.2696e-05 0.012536 -0.041739 -0.037492 -0.18497 0.24975 -0.00090355 -0.0045586
0.01855 0.0044696 0.0081177 -0.005218
0.0052342 0.010562 0.014143 0.0030128 -0.00098038 -0.0045832 -0.30659 0.13417
0.0048982 -0.023259 0.0049647 -0.0223
0.011547 0.0035758 -0.01251 -0.0041983 0.018611 0.0047272 0.0050571 -0.023191
-0.30873 -0.019142 0.0080967 -0.047894
0.010635 0.0093495 0.0040569 -0.00086431 0.0080548 -0.0053999 0.0047674 -0.022055
0.0085183 -0.047819 -0.33117 0.025149
620000000 -0.27725 0.092654 -0.023114 0.0083255 0.0033033 0.0090918 0.0078013 -0.0043695
0.012727 -0.0011932 -0.000107 -0.0028782
-0.023074 0.0083004 -0.40322 0.048514 -0.01835 0.00053039 -0.0014927 -0.0016602
0.012443 -0.0064768 0.0010983 -0.0030398
0.0033631 0.0091457 -0.018337 0.00055407 -0.15553 0.25962 -0.00088335 -0.0048375
-0.003337 -0.0033424 0.0088043 -0.0026492
0.0077098 -0.0044336 -0.0014302 -0.0016602 -0.00090177 -0.0049073 -0.26613 0.14524
-0.038271 -0.019012 0.012652 0.027091
0.012532 -0.0011021 0.012237 -0.0066646 -0.0033297 -0.0033961 -0.038249 -0.019212
-0.22951 -0.049741 -0.041421 0.012221
0.00017672 -0.0026007 0.0011957 -0.0027579 0.0089989 -0.0025834 0.012686 0.026718
-0.041192 0.012398 -0.25007 -0.0043404
680000000 -0.2391 0.1835 -0.02625 -0.015024 0.0052233 0.0051021 0.001365 -0.0074943
-0.0026923 -0.011609 0.0053723 -0.0066302
-0.026268 -0.014979 -0.3901 0.14916 -0.032387 -0.0022772 -0.0013791 -0.00065613
-0.0018563 -0.0090876 -0.0013375 -0.0017966
0.00523 0.0050488 -0.032468 -0.002207 -0.10423 0.28013 -0.00074155 -0.00019705
-0.0019671 0.00048338 -0.0026614 -0.0089951
0.0015419 -0.0075937 -0.0013657 -0.00055142 -0.00071694 -0.00014655 -0.22088 0.19717
-0.023423 -0.0083615 -0.009462 -0.012612
-0.0026253 -0.011853 -0.001855 -0.0090841 -0.0019468 0.0005249 -0.023234 -0.0082557
-0.27851 0.052497 -0.0068187 -0.0081282
0.0050501 -0.0067399 -0.0012752 -0.0019674 -0.0024536 -0.0091191 -0.0092785 -0.012115
-0.0069058 -0.0080902 -0.25911 0.094408
740000000 -0.19397 0.17657 -0.039721 0.026253 0.013378 -0.0045622 -0.00031197 -0.0040599
-0.0048872 -0.0026338 -0.0062578 0.0038448
-0.039795 0.026158 -0.33581 0.16817 -0.037097 0.034858 0.0002763 -0.005957
-0.012509 0.0071934 -0.0013265 -0.006002
0.01343 -0.0047274 -0.037021 0.034982 -0.070637 0.27787 -0.0020557 0.0036655
-0.0026453 -0.0057115 -0.0018222 0.00118
-0.00013761 -0.0040579 0.00026446 -0.0058965 -0.0020147 0.0036754 -0.20367 0.20343
-0.043195 -0.0070187 0.022549 0.014904
-0.0049477 -0.0026528 -0.012592 0.0072802 -0.0026241 -0.005737 -0.043145 -0.0066739
-0.17908 0.078909 -0.043039 0.00016624
-0.0059812 0.0038421 -0.0015953 -0.0060186 -0.0016724 0.0013747 0.022696 0.014671
-0.042949 0.00018942 -0.24757 0.10179
800000000 -0.16283 0.21998 -0.02297 0.016084 0.005498 -0.0104 -0.0046877 -0.0024046
-0.004511 0.0021445 0.003922 0.0005691
-0.022925 0.016057 -0.34176 0.23912 -0.0088867 0.034128 -0.0024499 0.0020198
-0.0010544 0.0029573 0.0007099 0.0051252
0.0054602 -0.010441 -0.0087874 0.034193 -0.031736 0.3022 0.00081713 0.0013157
-0.00017612 0.0036162 -0.0021704 0.00086401
-0.0046616 -0.0022846 -0.0025053 0.0020257 0.00081686 0.0013134 -0.17407 0.23176
-0.029349 0.013311 0.013841 -0.010322
-0.0045128 0.0021567 -0.0011371 0.0030698 -0.00018737 0.0036816 -0.029485 0.013257
-0.22058 0.10833 -0.018838 0.019408
0.0037671 0.00042541 0.00086474 0.0050398 -0.0021777 0.00077273 0.0138 -0.010339
-0.018779 0.019423 -0.24115 0.15027
860000000 -0.12837 0.24076 -0.01825 0.030382 -0.002974 -0.010201 -0.0021201 0.00030106
0.0037933 0.0046542 -0.0034452 -0.0031081
-0.018261 0.030359 -0.29347 0.28202 0.0071928 0.034324 0.00020514 0.001983
0.0034791 0.00036344 0.0032005 0.00015506
-0.0029658 -0.010204 0.0073116 0.034347 0.016226 0.31048 -0.00068766 -0.00024634
0.0023256 -0.0016593 0.0015412 0.0043574
-0.0021616 0.0004145 0.00026199 0.0019728 -0.00067588 -0.0002426 -0.13797 0.24241
-0.018901 0.017733 -0.006392 -0.00848
0.003765 0.0046666 0.0034681 0.00027444 0.002372 -0.0016695 -0.018771 0.017798
-0.16683 0.15957 -0.024243 0.016742
-0.0031469 -0.0031334 0.0032528 0.00030829 0.0016399 0.0042877 -0.0061364 -0.0083231
-0.024263 0.016669 -0.18924 0.194
920000000 -0.10445 0.26409 0.0042115 0.038396 -0.009247 -0.0048147 -0.0021068 0.0018167
0.0013759 0.0018912 0.0027704 -0.0013257
0.0041772 0.038357 -0.26618 0.30321 0.027895 0.022854 0.0013712 0.0012857
0.0074654 -5.0042e-05 0.0040714 -0.0030291
-0.0092417 -0.0048037 0.027973 0.022785 0.061596 0.31172 0.0018838 -9.1146e-06
0.0010014 -0.00015142 0.0010932 -0.0011337
-0.0020865 0.0018714 0.0013803 0.0012601 0.0019026 1.0408e-05 -0.11331 0.2592
-0.011148 0.031015 0.0032369 -0.0065138
0.0012642 0.0020313 0.0074907 -0.00010198 0.00094945 -8.4249e-05 -0.011036 0.031055
-0.15498 0.16624 -0.0014278 0.026877
0.0029373 -0.0012393 0.0039251 -0.0030805 0.0011615 -0.0011168 0.0032707 -0.0065685
-0.0014284 0.026901 -0.19699 0.20884
980000000 -0.057777 0.28459 0.016725 0.030437 -0.0092877 0.0042932 0.0019172 0.0035945
0.0040557 -0.0013732 -0.0029899 -0.0024545
0.016692 0.030374 -0.21277 0.33814 0.03322 0.0056799 0.0020272 -7.0832e-05
0.0017111 -0.0057793 -0.0002059 -0.0025128
-0.0092845 0.0043474 0.033275 0.005537 0.10731 0.30602 0.00061954 -0.0011437
0.00058768 -0.0018885 0.001558 -0.00021923
0.0019038 0.0036215 0.002014 -8.2431e-05 0.00061106 -0.0011526 -0.074904 0.27078
0.0069677 0.030322 -0.008753 -0.0071729
0.004159 -0.001386 0.0017651 -0.0057655 0.00060563 -0.0018737 0.0069941 0.030266
-0.12138 0.1959 0.0058424 0.019843
-0.002936 -0.0024233 -0.00018195 -0.0025424 0.001552 -0.00030809 -0.0087996 -0.0071406
0.0058903 0.019785 -0.15402 0.25221
1040000000 -0.016022 0.29342 0.032871 0.019259 -0.0013397 0.006994 0.0028306 0.00079395
0.00042357 -0.0033149 0.0002689 -0.0014977
0.032796 0.019237 -0.17777 0.3516 0.030091 -0.014227 0.0017526 -0.0016585
-0.0020383 -0.0023764 -0.00059597 -0.0028603
-0.0013132 0.0069922 0.030062 -0.014378 0.15302 0.29306 -0.00034003 -0.0015976
-0.0015017 -0.00089591 -0.00029524 -0.0011651
0.0028514 0.00081166 0.0017542 -0.0017186 -0.00034758 -0.0016045 -0.047412 0.28021
0.019163 0.01898 -0.002298 0.00138
0.00040032 -0.0033063 -0.0020716 -0.0024076 -0.0015417 -0.00092789 0.019176 0.018907
-0.087689 0.20304 0.013535 0.018187
0.00021528 -0.0015529 -0.00059738 -0.002771 -0.00033441 -0.0011577 -0.0023334 0.0013579
0.013497 0.018253 -0.13109 0.27304
1100000000 0.028968 0.30287 0.036407 -0.0031527 0.0029387 0.0041047 0.0025174 -0.0012415
-0.0020992 -0.0031753 -0.0039514 -0.00013533
0.036353 -0.0031421 -0.13466 0.36954 0.016074 -0.027621 7.957e-05 -0.0019472
-0.0035259 -0.0011146 -0.0034648 -0.0005422
0.0029619 0.0040915 0.015976 -0.027728 0.19887 0.27398 -0.0019277 2.0035e-05
-0.0017204 0.0003585 -0.0010911 -0.00060937
0.0024686 -0.0012275 6.7682e-05 -0.0019108 -0.0019189 6.2756e-06 -0.0070938 0.28537
0.024889 0.0057606 -0.0022336 7.4322e-05
-0.0021682 -0.0032243 -0.0035423 -0.0011716 -0.0017497 0.00035192 0.024914 0.0057461
-0.067223 0.21534 0.019027 0.0085736
-0.0039548 -0.00019207 -0.0035512 -0.00061362 -0.0010899 -0.00061713 -0.0022479 0.00014112
0.019022 0.0085414 -0.085123 0.30118
1160000000 0.079842 0.29877 0.024664 -0.020154 0.0029661 -0.00053608 -0.0001642 -0.0024843
-0.0039477 -0.00086679 -0.0011291 0.0040651
0.024629 -0.020121 -0.091428 0.37415 -0.0029128 -0.029379 -0.0016218 -0.0016429
-0.0028284 0.002462 -0.0015597 0.0019668
0.0029694 -0.0005447 -0.0030515 -0.029411 0.242 0.24424 -0.0007673 0.0016838
-0.000626 0.0019145 -0.00090752 0.00029915
-0.0001901 -0.0024581 -0.0016533 -0.0016827 -0.00076843 0.0016946 0.032173 0.28255
0.021418 -0.0099998 -0.0032213 0.0050846
-0.0039668 -0.00084268 -0.0027759 0.0024306 -0.00062378 0.0019129 0.021415 -0.010056
-0.032096 0.22333 0.018079 -0.00036393
-0.0010461 0.0040656 -0.0015703 0.0019509 -0.00091336 0.00029268 -0.0032479 0.0050653
0.018063 -0.00037764 -0.038559 0.30403
1220000000 0.12398 0.28896 0.011478 -0.029953 -0.0014793 -0.0010724 -7.5161e-05 -0.00090028
-0.0027177 0.0022365 0.0010537 0.0019553
0.011493 -0.029921 -0.047531 0.38717 -0.016551 -0.022 -0.0026671 0.00045029
-5.384e-05 0.0030717 -0.0008462 0.0019218
-0.0014896 -0.0010718 -0.016675 -0.021965 0.28141 0.20627 0.0006394 0.0017335
0.00057683 0.0012437 0.00022129 0.00058438
-9.7591e-05 -0.00088997 -0.0026811 0.00048661 0.00064506 0.0017371 0.072265 0.27414
0.011262 -0.016913 0.0022547 0.0014354
-0.0027454 0.0022403 -4.8992e-05 0.0030894 0.00055847 0.0012173 0.01125 -0.016913
-0.008271 0.23172 0.013769 -0.012761
0.0010497 0.001981 -0.00089588 0.0019053 0.0002128 0.00059452 0.0022408 0.0014271
0.013766 -0.012763 -0.0067355 0.31895
1280000000 0.17424 0.2685 -0.0070964 -0.028833 -0.0020551 0.0023237 -0.00083784 -0.0019039
-0.00079529 0.0031356 0.0024753 0.0012671
-0.0070818 -0.028816 -0.0016294 0.37893 -0.023916 -0.0092006 -0.00098516 0.0014775
0.0016917 0.0017052 0.00046148 0.0019566
-0.0020609 0.0023469 -0.024 -0.0091002 0.31269 0.16317 0.0015077 2.3153e-05
0.0012314 0.00026401 0.00029435 0.00019931
-0.00080518 -0.0019195 -0.00095073 0.0014589 0.0015112 1.0437e-05 0.10926 0.25807
0.0015638 -0.019265 6.9797e-06 0.00018753
-0.00075694 0.003139 0.0016884 0.0017129 0.0012419 0.0002794 0.0015015 -0.019265
0.028415 0.23452 0.0032359 -0.015064
0.0024932 0.0012757 0.00046618 0.0020256 0.00034831 0.00018108 5.0043e-05 0.00018351
0.0032472 -0.01507 0.039852 0.32008
1340000000 0.21148 0.23566 -0.017091 -0.019624 0.00065461 0.0046604 -0.0017466 -0.00085513
0.0013691 0.0026042 0.0017286 -0.0012553
-0.017057 -0.019619 0.03767 0.37176 -0.021962 0.0036778 -0.00015332 0.002036
0.0019065 0.000901 0.001195 0.00081626
0.00067903 0.0046557 -0.021968 0.0037891 0.33525 0.11592 0.0011165 -0.00079558
0.00061684 -0.00049371 -1.6711e-05 0.00026843
-0.0017483 -0.00084938 -0.00014888 0.0020669 0.0011304 -0.00078949 0.14244 0.23729
-0.0077953 -0.017063 0.00084674 0.00041614
0.0014012 0.0025892 0.001925 0.00087512 0.00060588 -0.00051816 -0.0078331 -0.017059
0.05852 0.22955 -0.0034028 -0.013832
0.0016869 -0.0012927 0.0012103 0.00079027 -4.3125e-05 0.00029062 0.00082963 0.00040716
-0.0033669 -0.013809 0.077794 0.31539
1400000000 0.24528 0.1986 -0.023355 -0.0082317 0.0051918 0.0034305 -0.0021455 0.00056738
0.0023937 0.00093727 0.00044322 -0.0014819
-0.023334 -0.0082377 0.075383 0.3597 -0.015457 0.012242 0.0013325 0.001316
0.0013017 -0.000688 0.0012168 0.00015405
0.0052037 0.00342 -0.015424 0.012349 0.34908 0.062653 0.00016317 -0.0016049
8.7598e-05 -0.00043303 0.00025108 0.00019531
-0.0021495 0.00056657 0.0013352 0.0013091 0.00013877 -0.0016184 0.17199 0.20833
-0.01412 -0.010396 -0.00098219 -0.00043312
0.0023949 0.00090699 0.0013237 -0.00070333 9.0484e-05 -0.00045131 -0.014156 -0.010389
0.091342 0.22469 -0.0096806 -0.0087452
0.00044394 -0.0014673 0.0012262 0.00013893 0.00026598 0.00019683 -0.00097885 -0.00041476
-0.009704 -0.0087531 0.12218 0.304
1460000000 0.26869 0.15519 -0.020627 0.0040689 0.0058227 -0.0016831 -0.0016216 0.0017138
0.0020243 -0.00045524 -0.0003523 -0.0010371
-0.020602 0.0040645 0.11006 0.3384 -0.0066246 0.015621 0.0017403 0.00021202
0.0010234 -0.001349 0.0012636 -0.00059062
0.0058064 -0.0017124 -0.006535 0.01568 0.35594 0.0083965 -0.0011299 -0.0013657
0.00013715 -0.00021835 0.00074256 -0.00022704
-0.001619 0.0017405 0.001764 0.00019109 -0.0011353 -0.0013565 0.19877 0.17893
-0.015685 -0.0040291 -0.0010095 0.0018733
0.0020434 -0.00044929 0.0010237 -0.0013365 0.00014109 -0.0001896 -0.015693 -0.0039826
0.12059 0.21051 -0.011612 -0.0031855
-0.00033707 -0.0010375 0.0012571 -0.0006087 0.00071623 -0.00021059 -0.0010231 0.0018959
-0.011643 -0.0032103 0.15556 0.2835
1520000000 0.28173 0.11406 -0.015297 0.0098584 0.00337 -0.0042233 4.8319e-05 0.002575
0.0021379 -0.0017892 -0.0011759 -0.00024291
-0.015301 0.0098371 0.14413 0.32429 0.0012962 0.013469 0.0016462 -0.00078724
6.3245e-05 -0.0011725 0.00032662 -0.00102
0.003358 -0.0042302 0.0013612 0.013485 0.34946 -0.047776 -0.0010988 -0.00044334
0.00065352 -0.00086594 6.7434e-05 -9.8708e-05
8.4115e-05 0.0025796 0.0016548 -0.00079822 -0.0010954 -0.00044089 0.22198 0.14058
-0.015617 0.0019765 0.0013528 0.0021945
0.0021208 -0.0017966 4.0773e-05 -0.0011876 0.00067594 -0.00088838 -0.015598 0.002009
0.14842 0.19711 -0.011698 0.0012538
-0.0012036 -0.00024583 0.00029773 -0.0010238 9.0541e-05 -0.00012474 0.0013478 0.0021991
-0.011675 0.0012387 0.18818 0.26295
1580000000 0.29219 0.068123 -0.008689 0.013355 -0.00084578 -0.0049848 0.0014541 0.0020584
-0.00014815 -0.0020471 -0.00029605 0.00028961
-0.0086966 0.013345 0.17203 0.29976 0.0052561 0.0086241 0.0005301 -0.0015849
-0.00059829 -0.0011569 -0.00020194 -0.00081862
-0.00087435 -0.0050019 0.0053161 0.0085913 0.3299 -0.10536 -0.0017228 0.00058355
-0.00031783 -0.0011879 0.00035106 -0.00061083
0.0014667 0.0020539 0.00053048 -0.001579 -0.001748 0.00056875 0.23588 0.10104
-0.012345 0.0072563 0.0020788 0.00084746
-0.00015142 -0.0020706 -0.00060308 -0.0011414 -0.00034691 -0.0011805 -0.01234 0.0072963
0.17279 0.17945 -0.0094255 0.0068393
-0.00029968 0.0003021 -0.0001952 -0.0008218 0.00032579 -0.00062329 0.0020792 0.00084455
-0.0094425 0.0068123 0.22014 0.23606
1640000000 0.295 0.026876 -0.0018744 0.012522 -0.002876 -0.0026406 0.0027523 0.0011096
-0.00062854 -0.0015805 -0.00044884 0.00073001
-0.0018902 0.012506 0.20206 0.27499 0.0060952 0.0036779 -0.00063754 -0.0017349
-0.001119 -0.00040551 -0.00053983 -0.0006863
-0.0028794 -0.0026093 0.0060951 0.0036545 0.3016 -0.15488 -0.0007771 0.0014895
-0.0010785 -0.0010285 -0.00017852 -0.00031113
0.002745 0.001089 -0.00062507 -0.0017378 -0.00074998 0.0015082 0.24827 0.051985
-0.0082956 0.0091365 0.0024906 -0.00061972
-0.00063441 -0.001591 -0.0011144 -0.00039452 -0.0010921 -0.0010044 -0.0082648 0.00915
0.19592 0.15574 -0.0049697 0.0090922
-0.00042167 0.00070385 -0.0005302 -0.00067457 -0.00015662 -0.00028831 0.0024817 -0.00063347
-0.0049692 0.0090842 0.24575 0.20492
1700000000 0.2885 -0.018703 0.0017211 0.0098698 -0.0036673 0.00010694 0.0031245 -0.0011783
-0.0019359 -0.00078077 0.00052671 0.00053825
0.0017137 0.0098584 0.22064 0.24348 0.0040312 0.00063672 -0.0014648 -0.00064553
-0.00087778 7.8942e-05 -0.00095 -0.00046099
-0.0036461 0.00011337 0.0040427 0.00060406 0.25827 -0.19477 0.00032436 0.0017277
-0.0020099 -8.4266e-05 -0.00032198 -0.00079578
0.0031327 -0.0011957 -0.0014773 -0.00063026 0.00034893 0.0016967 0.24499 0.0019328
-0.005054 0.010175 0.0015924 -0.0021589
-0.0019422 -0.0007605 -0.0008846 9.3947e-05 -0.0019964 -9.0034e-05 -0.0050501 0.010197
0.21362 0.13577 -0.0005027 0.0095137
0.00055177 0.00054194 -0.00094158 -0.0004371 -0.00033558 -0.00083252 0.0015921 -0.0021788
-0.00051691 0.009517 0.26187 0.17051
1760000000 0.27692 -0.06759 0.0043657 0.0066739 -0.0022287 0.00090812 0.0013698 -0.0034401
-0.0014568 0.00056544 0.00041916 -0.00051281
0.0043524 0.0066648 0.24697 0.20362 0.0018197 -0.0013167 -0.0012042 0.00016679
-0.0010548 0.0010054 -0.00063995 0.00040121
-0.0022447 0.00095009 0.001818 -0.0013098 0.21003 -0.22787 0.0011437 0.0011193
-0.0013635 0.0013895 -0.0012621 -0.00068158
0.0013209 -0.0034544 -0.0012021 0.00015723 0.0011319 0.0011158 0.23586 -0.049756
-0.0013558 0.0095193 -0.00012213 -0.0024074
-0.0014424 0.00053988 -0.0010358 0.001017 -0.0013745 0.0013858 -0.001315 0.0095372
0.22879 0.10139 0.0034496 0.0071643
0.00040809 -0.00052024 -0.00063095 0.00040146 -0.0013007 -0.00067155 -0.00013356 -0.0024434
0.0034414 0.0071726 0.27447 0.13286
1820000000 0.25249 -0.10532 0.0047232 0.0029358 -0.00010973 0.002478 -0.0009128 -0.0031453
-0.0012693 0.0010402 5.162e-06 -0.00023682
0.0047348 0.0029436 0.25735 0.17339 -0.00050208 -0.00021402 -0.0013771 0.0008915
6.0317e-06 0.0012784 -0.00053693 0.00055914
-8.5261e-05 0.0024877 -0.00052426 -0.00020701 0.15934 -0.24351 0.00159 0.00044935
-0.0002392 0.0024751 -0.0014256 0.00040062
-0.00091708 -0.0031208 -0.0013659 0.00091324 0.0016299 0.0004622 0.2056 -0.096884
0.00067641 0.0082258 -0.001643 -0.001517
-0.0012713 0.001037 2.297e-05 0.001285 -0.00022632 0.0024855 0.00069475 0.008213
0.24658 0.072621 0.0044058 0.0039136
5.8898e-06 -0.000223 -0.00056318 0.00053552 -0.0014158 0.00041005 -0.0015825 -0.0014957
0.0044074 0.003905 0.27648 0.096537
1880000000 0.21759 -0.14616 0.0026645 0.00041263 -0.00052162 0.002033 -0.0029158 -0.0023276
-0.00030543 0.0019365 3.6338e-05 -0.00057226
0.002671 0.00041842 0.26192 0.12668 -0.0024041 0.0015829 -0.00023813 0.0017672
0.00066382 0.0012458 3.3077e-05 0.00095241
-0.00053837 0.0020843 -0.0023954 0.0015883 0.10758 -0.25276 0.0018099 -0.0009347
0.001522 0.0019703 -0.0010007 0.0013613
-0.0029361 -0.0022963 -0.00023504 0.0017757 0.0018125 -0.00093596 0.16483 -0.1372
0.0019107 0.0057398 -0.0023523 0.00022696
-0.00031014 0.0019231 0.00066319 0.0012315 0.0015715 0.0019958 0.001913 0.0057589
0.25089 0.04107 0.0048641 0.0015783
5.5674e-05 -0.0006067 5.4343e-05 0.00092518 -0.0010484 0.0014795 -0.0024094 0.0001616
0.0048661 0.0015885 0.27624 0.062594
1940000000 0.17774 -0.17185 0.00015282 -0.0014597 0.0012896 0.0019758 -0.0038485 0.00035871
0.0013476 0.0011191 -0.0005757 -0.00057149
0.00015929 -0.0014667 0.26258 0.09478 -0.0012891 0.0039801 0.0010382 0.0012954
0.0018892 0.00038727 0.0010797 0.0004522
0.0012916 0.0019913 -0.001255 0.0039973 0.062164 -0.24563 0.00049869 -0.0021831
0.0024973 0.00039974 0.00055991 0.0016964
-0.0038681 0.00043191 0.0010323 0.0012939 0.00042362 -0.0021478 0.11237 -0.1676
0.0014043 0.004292 -0.0013108 0.0013417
0.0013421 0.0011163 0.0018803 0.0003589 0.0024297 0.0003819 0.0014342 0.0043097
0.25431 0.0028239 0.0037544 -0.0014842
-0.00059731 -0.00057709 0.0010854 0.00041274 0.00055481 0.0016137 -0.001213 0.001388
0.0037678 -0.0014945 0.26526 0.026636
2000000000 0.13176 -0.18656 -0.0036268 0.00057385 0.0025596 0.0015331 -0.002407 0.003753
0.0013419 0.00033653 -0.0007274 0.00043561
-0.0036237 0.00055781 0.24834 0.059199 -0.00081049 0.0058229 0.001675 0.00043196
0.0013019 -0.0011789 0.00039696 0.00012209
0.0025684 0.0015137 -0.0007945 0.0058218 0.019344 -0.23166 -0.0013272 -0.0015088
0.0021586 -0.0012009 0.0015716 0.0014344
-0.0024119 0.00375 0.0016804 0.00041572 -0.001227 -0.0014279 0.058653 -0.17753
1.1255e-05 0.0034288 -6.8342e-05 0.0021538
0.0013774 0.00033348 0.0012696 -0.0011831 0.0021041 -0.0011718 3.8252e-05 0.0034094
0.24973 -0.030847 0.00091729 -0.0024998
