!Keysight Technologies,M9804A,MY58100912,A.14.10.03
!Date: Thursday, April 27, 2023 10:28:33
!Correction: S11(C  6-Port  ) 
!S12(C  6-Port  ) 
!S13(C  6-Port  ) 
!S14(C  6-Port  ) 
!S15(C  6-Port  ) 
!S16(C  6-Port  ) 
!S21(C  6-Port  ) 
!S22(C  6-Port  ) 
!S23(C  6-Port  ) 
!S24(C  6-Port  ) 
!S25(C  6-Port  ) 
!S26(C  6-Port  ) 
!S31(C  6-Port  ) 
!S32(C  6-Port  ) 
!S33(C  6-Port  ) 
!S34(C  6-Port  ) 
!S35(C  6-Port  ) 
!S36(C  6-Port  ) 
!S41(C  6-Port  ) 
!S42(C  6-Port  ) 
!S43(C  6-Port  ) 
!S44(C  6-Port  ) 
!S45(C  6-Port  ) 
!S46(C  6-Port  ) 
!S51(C  6-Port  ) 
!S52(C  6-Port  ) 
!S53(C  6-Port  ) 
!S54(C  6-Port  ) 
!S55(C  6-Port  ) 
!S56(C  6-Port  ) 
!S61(C  6-Port  ) 
!S62(C  6-Port  ) 
!S63(C  6-Port  ) 
!S64(C  6-Port  ) 
!S65(C  6-Port  ) 
!S66(C  6-Port  ) 
!S6P File: Measurement: :
# Hz S  RI   R 50
500000000 -0.33303 -0.052982 -0.0096896 -0.00070347 -0.0081543 0.013375 -0.0046751 0.011822
0.013787 0.004997 -0.0047614 0.0073915
-0.0096601 -0.00069721 -0.41618 -0.063251 0.0084933 -0.010491 0.0014893 0.011889
0.0081847 0.0026974 0.001644 0.014298
-0.0081313 0.013409 0.0084482 -0.010412 -0.26651 0.19891 0.0066998 0.0036372
-0.00092545 0.0081461 0.00046356 0.012874
-0.0044551 0.011714 0.0013197 0.011638 0.006679 0.0036583 -0.33189 0.043001
-0.018366 -0.0046509 0.016418 0.02541
0.013896 0.0050034 0.0081761 0.0026616 -0.0010023 0.00819 -0.018414 -0.0046759
-0.2479 -0.1955 -0.026984 0.0047523
-0.0044939 0.0072399 0.0013565 0.013853 0.00043343 0.01276 0.016147 0.025597
-0.026792 0.0044855 -0.27147 -0.12125
560000000 -0.31923 0.11415 -0.022965 -0.063548 -0.00029362 0.012361 0.0055248 0.010633
0.011249 0.0034598 0.010882 0.0092543
-0.022933 -0.063405 -0.37523 0.098396 -0.041604 -0.037587 0.013926 0.0027886
-0.012523 -0.0039776 0.0042755 -0.00079151
-0.00019847 0.012376 -0.041772 -0.037701 -0.18491 0.24978 -0.00072271 -0.0046609
0.018412 0.0046658 0.00791 -0.005504
0.00521 0.010488 0.014314 0.0029055 -0.00089281 -0.0045644 -0.30656 0.13417
0.0053386 -0.023392 0.0048598 -0.021991
0.011265 0.0032329 -0.012645 -0.004296 0.018531 0.0045304 0.0052245 -0.023243
-0.30987 -0.019394 0.0091096 -0.048227
0.010843 0.0091004 0.004525 -0.00053191 0.0079217 -0.0052525 0.0048229 -0.021982
0.0091135 -0.048108 -0.33196 0.025429
620000000 -0.27712 0.092387 -0.023026 0.0082628 0.0033036 0.0090537 0.0076953 -0.0043313
0.012201 -0.00097278 5.3838e-05 -0.0023936
-0.023026 0.0082653 -0.40319 0.048392 -0.018319 0.00052859 -0.0014047 -0.0017487
0.012242 -0.0062488 0.0012024 -0.0027469
0.0033635 0.0090371 -0.018397 0.00056604 -0.15559 0.25959 -0.0009081 -0.0048139
-0.0032931 -0.003243 0.0090353 -0.0025923
0.0076352 -0.0045898 -0.001425 -0.0017089 -0.0010665 -0.0049615 -0.26635 0.14573
-0.037816 -0.019545 0.012066 0.026692
0.012655 -0.00091741 0.012241 -0.006478 -0.0031169 -0.0033267 -0.037774 -0.019724
-0.23014 -0.048593 -0.040233 0.012988
-0.00022669 -0.0026432 0.00098323 -0.0028105 0.0088852 -0.0028046 0.012546 0.027118
-0.039994 0.012809 -0.24866 -0.0058953
680000000 -0.23893 0.18329 -0.026348 -0.014947 0.0051972 0.0050832 0.0014673 -0.0076084
-0.0025538 -0.011895 0.004961 -0.0067199
-0.026289 -0.01496 -0.39008 0.14906 -0.032405 -0.0023126 -0.0014044 -0.00058642
-0.001864 -0.0091279 -0.0013502 -0.0020047
0.0050594 0.0051022 -0.032466 -0.0022166 -0.1043 0.28011 -0.00069335 -0.00018358
-0.0019973 0.00060473 -0.0025096 -0.0091488
0.0013167 -0.0075898 -0.0013625 -0.00052441 -0.00065505 -0.0001442 -0.22071 0.19691
-0.023165 -0.0081537 -0.008899 -0.012183
-0.0027923 -0.01185 -0.0019625 -0.0091537 -0.0019199 0.00059345 -0.023213 -0.0081622
-0.27872 0.052184 -0.0073887 -0.0080766
0.0054544 -0.0065696 -0.0012487 -0.0018217 -0.0024692 -0.0091665 -0.0094417 -0.01208
-0.0073634 -0.0081712 -0.26045 0.09563
740000000 -0.19434 0.17656 -0.039711 0.026195 0.013309 -0.0045528 -0.00022124 -0.0040661
-0.0049728 -0.0025709 -0.0060137 0.0038317
-0.039679 0.026162 -0.33571 0.16803 -0.037136 0.034763 0.00041479 -0.0059214
-0.012457 0.0070896 -0.001444 -0.0060948
0.013217 -0.0046607 -0.037036 0.035045 -0.070603 0.27784 -0.0021329 0.0035984
-0.0027024 -0.0056917 -0.0015661 0.0013143
-0.00042153 -0.0042011 0.00024574 -0.0058994 -0.0021356 0.0036368 -0.2036 0.20349
-0.043109 -0.0069153 0.022539 0.014673
-0.004935 -0.0025155 -0.012677 0.0069527 -0.0027048 -0.0055815 -0.043192 -0.0068648
-0.17948 0.079154 -0.042651 6.2418e-05
-0.0062654 0.0036925 -0.0014653 -0.0058952 -0.0017698 0.001203 0.02271 0.014777
-0.042303 -2.1965e-05 -0.2487 0.10128
800000000 -0.16291 0.22017 -0.022934 0.016164 0.0055401 -0.010279 -0.0047464 -0.0024166
-0.0045243 0.002227 0.0037212 0.00036126
-0.022916 0.016133 -0.34169 0.23911 -0.0088569 0.034212 -0.0024171 0.0020618
-0.0010917 0.0029873 0.00072813 0.0049834
0.0054812 -0.01038 -0.0087673 0.034269 -0.03177 0.30228 0.00078045 0.0013587
-0.00016428 0.0036636 -0.0022588 0.00074228
-0.0045607 -0.0023197 -0.0024222 0.0020266 0.00077618 0.0013078 -0.17417 0.23176
-0.029517 0.013131 0.013744 -0.010323
-0.0044137 0.0021432 -0.0010805 0.0030193 -0.00017368 0.0036622 -0.029523 0.013315
-0.22065 0.10826 -0.01903 0.019316
0.0038736 0.00039936 0.0008818 0.004973 -0.0022075 0.00075764 0.013645 -0.010334
-0.018929 0.0192 -0.24082 0.15003
860000000 -0.12851 0.24088 -0.018398 0.030447 -0.0029828 -0.010203 -0.0020662 0.00033488
0.0036459 0.0045618 -0.0030389 -0.0032871
-0.018377 0.030398 -0.29358 0.28193 0.0071594 0.034271 0.00016465 0.0019643
0.0035263 0.00037485 0.0033994 0.00021728
-0.002926 -0.010185 0.0072872 0.034349 0.016191 0.31047 -0.00069226 -0.00026838
0.0023389 -0.0017212 0.0016376 0.0042507
-0.0022035 0.00056128 0.00017799 0.0020386 -0.00069271 -0.00023107 -0.13793 0.24233
-0.01881 0.017764 -0.0058742 -0.0084529
0.0037014 0.0047863 0.0034078 0.00028172 0.0023402 -0.0016928 -0.018665 0.017915
-0.16699 0.15955 -0.024265 0.016749
-0.0031518 -0.003246 0.0035583 0.00019593 0.0016005 0.0043306 -0.0059702 -0.0085159
-0.024289 0.016658 -0.18969 0.19417
920000000 -0.10445 0.26406 0.0042358 0.038415 -0.0092282 -0.0048345 -0.0020616 0.0018543
0.0014081 0.002016 0.0029059 -0.0012732
0.0042268 0.038361 -0.26608 0.30313 0.027896 0.022832 0.0014134 0.0013228
0.0074111 -2.5709e-06 0.0039761 -0.0029748
-0.0092349 -0.0047699 0.028002 0.022769 0.061574 0.31172 0.001893 -2.421e-07
0.0010444 -8.9068e-05 0.0011635 -0.0011485
-0.002115 0.0018322 0.0014396 0.0012628 0.0018547 -1.1824e-06 -0.11333 0.25922
-0.011185 0.031009 0.0032491 -0.0065072
0.001398 0.0020302 0.007408 2.6758e-05 0.0010443 -0.00010395 -0.011227 0.030965
-0.15493 0.16609 -0.0013097 0.026631
0.0029061 -0.0013034 0.0040084 -0.0029998 0.0011347 -0.0011981 0.0032113 -0.0065035
-0.0013091 0.026752 -0.19731 0.20868
980000000 -0.057687 0.28456 0.016736 0.030407 -0.0093271 0.004322 0.0018405 0.0036253
0.0039926 -0.0013603 -0.003029 -0.0023167
0.016699 0.030405 -0.21276 0.33807 0.033235 0.0056463 0.0019872 -0.00010229
0.0016864 -0.0057767 -0.00019644 -0.0024893
-0.0093265 0.0043296 0.03329 0.0055411 0.10728 0.30604 0.00061273 -0.0011377
0.00059511 -0.0019064 0.0015486 -0.00024062
0.0019104 0.0036017 0.0020143 -0.00012271 0.00060041 -0.0011431 -0.074877 0.27085
0.0068502 0.030225 -0.0089101 -0.0070778
0.0040585 -0.0014494 0.0016571 -0.0057902 0.00057539 -0.0018948 0.0069818 0.030261
-0.12168 0.19578 0.0058405 0.019789
-0.0029058 -0.0022784 -0.00027208 -0.0025006 0.0015469 -0.00022442 -0.0088327 -0.0071021
0.0057798 0.019842 -0.15372 0.25204
1040000000 -0.015993 0.2934 0.032878 0.019303 -0.0013149 0.0070239 0.0027998 0.00077661
0.00040342 -0.0033514 0.00023357 -0.001636
0.032847 0.019314 -0.1778 0.35153 0.03009 -0.014248 0.0018264 -0.0017058
-0.0020067 -0.0023711 -0.0005867 -0.0027865
-0.0012877 0.0070073 0.030068 -0.014341 0.15299 0.29308 -0.00035032 -0.0016051
-0.0015374 -0.00092553 -0.00032818 -0.001155
0.0028537 0.00077461 0.0018046 -0.0017689 -0.00033867 -0.0016043 -0.047446 0.28015
0.019164 0.018956 -0.0023557 0.0013319
0.00038855 -0.003341 -0.0020064 -0.0023628 -0.0015334 -0.00091092 0.019134 0.018961
-0.087819 0.20305 0.0134 0.018284
0.00015972 -0.0015309 -0.00067759 -0.0028078 -0.00035268 -0.0011774 -0.0023639 0.0013631
0.013416 0.0182 -0.13105 0.27315
1100000000 0.028877 0.30287 0.036417 -0.0031395 0.0029297 0.0041257 0.0025036 -0.0012423
-0.0021644 -0.0031716 -0.003953 -0.00012491
0.036388 -0.003115 -0.13465 0.36954 0.016069 -0.027612 9.9195e-05 -0.0019277
-0.0035257 -0.0011557 -0.0035131 -0.00057567
0.0029378 0.004106 0.015992 -0.027723 0.19886 0.27398 -0.0019411 1.7198e-05
-0.0017209 0.00035104 -0.0010984 -0.00059908
0.0025021 -0.001188 9.4824e-05 -0.0018991 -0.0019379 1.0295e-05 -0.007157 0.28536
0.024887 0.0057665 -0.0022711 0.00011196
-0.0021706 -0.0031502 -0.0035386 -0.0011067 -0.0017576 0.0003525 0.024909 0.005718
-0.06721 0.21541 0.018948 0.0085316
-0.0039211 -0.00018091 -0.0035079 -0.00061369 -0.0011139 -0.00061596 -0.0022733 0.00010684
0.01902 0.0085421 -0.085399 0.30124
1160000000 0.079787 0.29876 0.02467 -0.020151 0.0029447 -0.00052501 -0.00014363 -0.0024829
-0.003966 -0.00086251 -0.0010353 0.0041351
0.024681 -0.020116 -0.091421 0.37409 -0.0029176 -0.029412 -0.0016061 -0.0016538
-0.0027546 0.0024378 -0.001596 0.0019466
0.0029731 -0.0005468 -0.0030502 -0.029432 0.24197 0.24427 -0.00077421 0.0016794
-0.00059479 0.0019069 -0.00091704 0.00029949
-0.000206 -0.002504 -0.0016732 -0.001687 -0.00075652 0.0016832 0.032177 0.28252
0.021409 -0.010054 -0.0032474 0.0050366
-0.0040068 -0.00087068 -0.0027559 0.0024782 -0.00059112 0.0018902 0.021416 -0.010048
-0.032228 0.22336 0.0181 -0.00034857
-0.0010524 0.0040859 -0.0015661 0.0019835 -0.00094785 0.0002963 -0.0032351 0.0051212
0.018045 -0.00037752 -0.038411 0.30393
1220000000 0.12398 0.28895 0.011504 -0.029936 -0.0014809 -0.0010766 -9.9713e-05 -0.00089459
-0.0027699 0.0022609 0.0010235 0.0019638
0.011518 -0.029888 -0.047549 0.38718 -0.016544 -0.021993 -0.0026635 0.00049845
-3.5034e-05 0.0030684 -0.00087318 0.0019066
-0.0014965 -0.0010682 -0.016676 -0.021953 0.2814 0.20632 0.00066639 0.0017292
0.00055599 0.0012047 0.00019994 0.00056488
-6.1589e-05 -0.00085142 -0.0026678 0.00048868 0.00065017 0.0017277 0.072237 0.2741
0.011282 -0.016835 0.0022425 0.0014494
-0.0027295 0.0022665 -4.4521e-05 0.0030905 0.00055464 0.0011944 0.011243 -0.016924
-0.0082641 0.23159 0.013743 -0.012823
0.0010401 0.0019878 -0.00085767 0.0019146 0.00023062 0.0005888 0.0022376 0.0014374
0.013785 -0.012803 -0.0068949 0.31901
1280000000 0.17415 0.26854 -0.0070672 -0.028849 -0.0020541 0.0023167 -0.00078453 -0.0019236
-0.00074857 0.0031081 0.0025147 0.0012581
-0.0070567 -0.028799 -0.0016547 0.37893 -0.023907 -0.0092151 -0.00097513 0.0014268
0.0016453 0.0017333 0.00044493 0.0019952
-0.0020337 0.0023319 -0.023981 -0.0091166 0.31269 0.16321 0.0014733 3.7129e-05
0.0012691 0.00026724 0.00033187 0.0002124
-0.00085215 -0.0019364 -0.00095563 0.001476 0.0015031 4.0023e-05 0.10929 0.25802
0.0015378 -0.019323 5.6612e-05 0.00017033
-0.00075535 0.003128 0.0016813 0.0017378 0.0012595 0.00027122 0.001561 -0.019308
0.02836 0.23467 0.0032499 -0.015069
0.0025277 0.0013306 0.00051134 0.0020144 0.0003016 0.00019879 2.8592e-05 0.00016604
0.0032404 -0.015049 0.039748 0.32012
1340000000 0.21145 0.23566 -0.017084 -0.019632 0.0006592 0.0046579 -0.0017548 -0.00083213
0.0013481 0.0026328 0.0017193 -0.0012606
-0.017066 -0.019622 0.037625 0.37179 -0.021978 0.0037063 -0.00012134 0.0020412
0.0019345 0.00090217 0.0012126 0.00083622
0.00066825 0.0046708 -0.021988 0.0038181 0.33524 0.11596 0.0011253 -0.00080225
0.00060093 -0.00048967 -1.2839e-05 0.00027021
-0.0017169 -0.00084663 -0.00015894 0.0020258 0.0011325 -0.00079459 0.14239 0.23728
-0.0077492 -0.017046 0.00082791 0.0004032
0.0013887 0.0025941 0.0019314 0.00088248 0.00062215 -0.00050701 -0.0078543 -0.017053
0.058412 0.22955 -0.0033783 -0.013831
0.0016778 -0.0013038 0.0012295 0.00082974 -1.2909e-05 0.00027982 0.00082961 0.00039544
-0.0032889 -0.013844 0.077733 0.31543
1400000000 0.24525 0.1986 -0.023381 -0.008261 0.0051989 0.0034151 -0.0021618 0.00053473
0.0023819 0.00089947 0.0004201 -0.0015064
-0.023347 -0.0082644 0.07531 0.35969 -0.015462 0.012227 0.0013233 0.0013271
0.0013071 -0.00064608 0.0012204 0.00015404
0.0052212 0.0033861 -0.015438 0.012328 0.34905 0.062745 0.00017316 -0.0016272
0.00010975 -0.00047375 0.00025809 0.00020171
-0.0021595 0.00059002 0.0013447 0.0013326 0.00017707 -0.0016159 0.17192 0.20835
-0.01412 -0.010432 -0.00097097 -0.00042845
0.002397 0.00092093 0.0013288 -0.00069313 9.5469e-05 -0.00045785 -0.014143 -0.010412
0.091295 0.22472 -0.0097171 -0.0087532
0.00041434 -0.001498 0.0012112 0.00012189 0.00024083 0.00019964 -0.00095346 -0.00042887
-0.0097998 -0.0087523 0.12209 0.30406
1460000000 0.26871 0.15526 -0.020624 0.0040651 0.0057808 -0.0016853 -0.0016296 0.0017412
0.0020532 -0.00042935 -0.00033291 -0.0010248
-0.020607 0.0040553 0.11003 0.33842 -0.0066159 0.015596 0.0017626 0.00017366
0.00099458 -0.0013719 0.0012314 -0.00060672
0.0057979 -0.0017101 -0.0065278 0.015666 0.35596 0.0083587 -0.0011085 -0.0013504
0.00014452 -0.00018148 0.00067156 -0.00019357
-0.0016056 0.0017274 0.0017448 0.00019371 -0.001134 -0.0013273 0.19875 0.17893
-0.015666 -0.0040258 -0.0010054 0.0018914
0.0020446 -0.00044701 0.0010068 -0.0013422 0.00012425 -0.00019178 -0.015697 -0.0039897
0.12044 0.21057 -0.011645 -0.0031931
-0.00038621 -0.0010898 0.0012809 -0.00060277 0.00068436 -0.00023038 -0.0010296 0.0018841
-0.011599 -0.0032558 0.15546 0.28352
1520000000 0.28167 0.11411 -0.015305 0.0098607 0.0033825 -0.0042209 3.8105e-05 0.0025623
0.0020964 -0.0017712 -0.0011834 -0.00023794
-0.015299 0.0098413 0.1441 0.32429 0.0012868 0.013479 0.001652 -0.0007767
7.7661e-05 -0.0012043 0.00034204 -0.0010364
0.0033551 -0.0042316 0.0013604 0.013481 0.34944 -0.047802 -0.0011304 -0.00045482
0.0006452 -0.00087325 7.1364e-05 -0.00012412
3.4798e-05 0.0025826 0.0016448 -0.00077702 -0.0011148 -0.00045029 0.22197 0.14065
-0.015592 0.0019576 0.0013334 0.0021982
0.0021006 -0.0018122 6.1842e-05 -0.0012001 0.00063283 -0.00087177 -0.015618 0.0019966
0.14837 0.19713 -0.0117 0.0012132
-0.0011815 -0.00021599 0.00031956 -0.0010297 9.2001e-05 -0.0001179 0.0013417 0.0021608
-0.011735 0.0012198 0.18817 0.26289
1580000000 0.29215 0.068207 -0.0086976 0.013359 -0.00087523 -0.0050212 0.0015102 0.0020762
-0.00015447 -0.002075 -0.00029909 0.00028876
-0.0086998 0.013341 0.17198 0.29979 0.0052465 0.0085988 0.00052659 -0.0016032
-0.00060211 -0.0011468 -0.00020812 -0.00081977
-0.00087971 -0.005021 0.0053143 0.0085863 0.32987 -0.10525 -0.0017099 0.00054165
-0.00036045 -0.0011799 0.00029495 -0.000594
0.0014848 0.0020238 0.00051747 -0.0016002 -0.0017172 0.00058736 0.23589 0.10104
-0.012383 0.0072751 0.002064 0.00087096
-0.0001806 -0.0020887 -0.00061674 -0.0011474 -0.00034413 -0.0011769 -0.012358 0.0072607
0.17274 0.17949 -0.0094612 0.0068544
-0.00031122 0.00033597 -0.00018706 -0.00081227 0.00029728 -0.00056506 0.0020554 0.00086754
-0.0094058 0.0068556 0.22014 0.23608
1640000000 0.295 0.026915 -0.0018806 0.01252 -0.0028946 -0.002643 0.0027129 0.0011157
-0.00063133 -0.0015713 -0.00043008 0.00069073
-0.0018991 0.012516 0.20204 0.27499 0.0060741 0.0036643 -0.00061738 -0.001738
-0.0011296 -0.00044242 -0.00052692 -0.0007
-0.0029193 -0.0026064 0.0061011 0.0036188 0.30163 -0.15491 -0.00075717 0.0014649
-0.0010608 -0.0010445 -0.00015117 -0.00030472
0.002728 0.0010763 -0.00064431 -0.0017509 -0.00077042 0.0014667 0.24828 0.052015
-0.0082768 0.0091188 0.0024861 -0.00063574
-0.00065155 -0.0015893 -0.0011339 -0.00042343 -0.0010814 -0.00104 -0.0083033 0.0091417
0.19585 0.15583 -0.0049806 0.0090685
-0.0004646 0.00067954 -0.0005392 -0.00068136 -0.00015067 -0.00031246 0.002482 -0.00061319
-0.0049974 0.0090621 0.24567 0.20495
1700000000 0.2885 -0.018628 0.0017266 0.0098807 -0.0036454 0.0001073 0.0031576 -0.0011986
-0.0019099 -0.00075691 0.0005347 0.00055988
0.0017079 0.0098693 0.22059 0.24351 0.0040024 0.00065929 -0.0014686 -0.00061612
-0.00083511 0.00011138 -0.0009405 -0.00041897
-0.0036537 0.00012403 0.0040233 0.00063552 0.25818 -0.19479 0.00032709 0.0017701
-0.0020083 -9.3861e-05 -0.00035805 -0.00080355
0.0031508 -0.0012139 -0.0014323 -0.00061384 0.00034386 0.0017651 0.24505 0.001885
-0.0051002 0.010173 0.0015594 -0.00213
-0.0019238 -0.00075277 -0.00086426 0.00010752 -0.0020186 -6.0205e-05 -0.0050484 0.010179
0.21356 0.13584 -0.00056841 0.0095094
0.00054316 0.00057385 -0.00099684 -0.00045776 -0.00036227 -0.00082822 0.0015227 -0.0021529
-0.00051314 0.0095228 0.26185 0.1705
1760000000 0.27688 -0.067511 0.0043415 0.0066511 -0.0022396 0.00086372 0.0013339 -0.003426
-0.0014355 0.00052404 0.00042284 -0.00052744
0.0043495 0.0066527 0.24694 0.20366 0.001863 -0.0013119 -0.0011865 0.00014277
-0.0010528 0.0010082 -0.00066911 0.00039969
-0.0022294 0.00091989 0.0018291 -0.0013089 0.21027 -0.22762 0.0011426 0.0011171
-0.0013509 0.0014305 -0.0013099 -0.00069577
0.0013408 -0.0034049 -0.0012123 0.00018354 0.0011509 0.001128 0.23579 -0.049741
-0.0012958 0.0095414 -3.2867e-05 -0.0024251
-0.0014429 0.00055919 -0.0010444 0.0010284 -0.0013485 0.0014001 -0.0013076 0.0095659
0.22876 0.10148 0.003467 0.0072303
0.0003902 -0.00058371 -0.00063662 0.00040155 -0.0012364 -0.00066931 -1.3979e-05 -0.0024158
0.0034443 0.0072271 0.27449 0.13296
1820000000 0.25248 -0.10528 0.0047323 0.002952 -0.0001097 0.0024604 -0.00085926 -0.00313
-0.0012951 0.0010501 -3.9481e-05 -0.0002328
0.0047204 0.0029685 0.25731 0.17342 -0.00051701 -0.00019156 -0.0013671 0.00092579
3.3343e-05 0.0012658 -0.00051882 0.00050074
-9.1566e-05 0.0024575 -0.00051137 -0.00018906 0.15939 -0.2435 0.001676 0.00039803
-0.0001902 0.0024368 -0.0013808 0.00036655
-0.0008914 -0.0031359 -0.0013541 0.00090979 0.0016495 0.00036254 0.20572 -0.096875
0.00063579 0.0081716 -0.0016562 -0.0015276
-0.0012672 0.0010546 1.7761e-05 0.0012688 -0.00018958 0.0024853 0.00069482 0.0082467
0.24651 0.072723 0.0043757 0.0039127
-2.124e-05 -0.00015177 -0.00055125 0.00054578 -0.0013899 0.00043037 -0.0016687 -0.0015302
0.0044149 0.0039919 0.27647 0.096621
1880000000 0.2176 -0.14611 0.0026937 0.00042858 -0.00049214 0.0020647 -0.0028835 -0.0022851
-0.00028298 0.0019254 7.264e-05 -0.00055558
0.0026746 0.00042765 0.26188 0.12674 -0.0024023 0.0015866 -0.00023351 0.0017867
0.00067022 0.0012761 4.4308e-05 0.00093667
-0.00047553 0.0020542 -0.0023951 0.0016004 0.10743 -0.25276 0.0017652 -0.00086969
0.0015376 0.0020109 -0.0010457 0.0013383
-0.0029017 -0.0023481 -0.00021348 0.0017778 0.0018205 -0.00080884 0.16469 -0.13718
0.0019759 0.0058448 -0.0023299 0.00026054
-0.0002941 0.0019006 0.00067586 0.0012477 0.0015004 0.0020043 0.0019369 0.0058087
0.25089 0.041164 0.0048508 0.0015739
2.7539e-05 -0.00056495 5.6206e-05 0.00092376 -0.0011191 0.0013 -0.0022922 0.00028695
0.0047965 0.001491 0.27624 0.062495
1940000000 0.1778 -0.17178 0.0001512 -0.0014755 0.0012547 0.0019724 -0.0039267 0.00038294
0.0013852 0.0011663 -0.00048319 -0.00059945
0.00016277 -0.0014767 0.26264 0.094817 -0.0012435 0.0039587 0.001022 0.0012971
0.0019123 0.00042557 0.0011232 0.00047705
0.0012925 0.0019487 -0.0012235 0.0040075 0.062261 -0.2456 0.00057399 -0.0022064
0.0024289 0.00041614 0.00054058 0.0017425
-0.0037855 0.00041607 0.0010576 0.0012841 0.00054307 -0.0022243 0.11244 -0.16749
0.0013127 0.004172 -0.0012901 0.00123
0.0014002 0.0011208 0.001911 0.00037722 0.0024711 0.00044624 0.0014519 0.0043226
0.25423 0.002833 0.0037514 -0.0014965
-0.00060611 -0.00059869 0.0010966 0.00049534 0.00060464 0.001768 -0.0013616 0.001288
0.0038624 -0.0013172 0.26532 0.026727
2000000000 0.13177 -0.18646 -0.0036118 0.00056372 0.0025942 0.0015517 -0.0023402 0.0037736
0.0013707 0.0003286 -0.00075727 0.00054332
-0.0036126 0.00057661 0.24837 0.059238 -0.00081776 0.0058445 0.0016686 0.00044838
0.0012397 -0.0011603 0.00036755 0.00013163
0.0025498 0.0015423 -0.00077374 0.005835 0.019357 -0.23178 -0.0013975 -0.0015169
0.0022535 -0.0011723 0.0015788 0.0014869
-0.0023783 0.0037674 0.0017191 0.00044302 -0.0013607 -0.0015285 0.058493 -0.17755
8.0342e-05 0.0036077 1.4184e-06 0.0021804
0.0013244 0.00034143 0.0012643 -0.0011973 0.0021548 -0.0012836 -9.4116e-06 0.0034211
0.2498 -0.030715 0.00091599 -0.0025198
