!Keysight Technologies,M9804A,MY58100912,A.14.10.03
!Date: Thursday, April 27, 2023 10:28:33
!Correction: S11(C  6-Port  ) 
!S12(C  6-Port  ) 
!S13(C  6-Port  ) 
!S14(C  6-Port  ) 
!S15(C  6-Port  ) 
!S16(C  6-Port  ) 
!S21(C  6-Port  ) 
!S22(C  6-Port  ) 
!S23(C  6-Port  ) 
!S24(C  6-Port  ) 
!S25(C  6-Port  ) 
!S26(C  6-Port  ) 
!S31(C  6-Port  ) 
!S32(C  6-Port  ) 
!S33(C  6-Port  ) 
!S34(C  6-Port  ) 
!S35(C  6-Port  ) 
!S36(C  6-Port  ) 
!S41(C  6-Port  ) 
!S42(C  6-Port  ) 
!S43(C  6-Port  ) 
!S44(C  6-Port  ) 
!S45(C  6-Port  ) 
!S46(C  6-Port  ) 
!S51(C  6-Port  ) 
!S52(C  6-Port  ) 
!S53(C  6-Port  ) 
!S54(C  6-Port  ) 
!S55(C  6-Port  ) 
!S56(C  6-Port  ) 
!S61(C  6-Port  ) 
!S62(C  6-Port  ) 
!S63(C  6-Port  ) 
!S64(C  6-Port  ) 
!S65(C  6-Port  ) 
!S66(C  6-Port  ) 
!S6P File: Measurement: :
# Hz S  RI   R 50
500000000 -0.33354 -0.053119 -0.010118 -0.00071603 -0.0079643 0.013388 -0.004672 0.012431
0.013463 0.0045713 -0.0042705 0.0072368
-0.010364 -0.0006958 -0.41634 -0.063445 0.0085828 -0.010754 0.0016209 0.011968
0.0077169 0.003067 0.0020105 0.01435
-0.0083761 0.01355 0.0084134 -0.010586 -0.26671 0.19884 0.0068889 0.0034257
-0.0011746 0.0086613 0.0010525 0.011442
-0.003962 0.012004 0.0014578 0.012128 0.0068081 0.0033493 -0.33106 0.044121
-0.018614 -0.005262 0.015802 0.026905
0.012953 0.0058997 0.0076189 0.0026698 -0.001041 0.0086435 -0.019186 -0.0059039
-0.24743 -0.19552 -0.027086 0.005171
-0.0043217 0.0078101 0.0010106 0.014124 0.00073744 0.012449 0.016724 0.027042
-0.02574 0.0039496 -0.2756 -0.11913
560000000 -0.31941 0.1126 -0.022934 -0.064364 0.00039224 0.013123 0.0049594 0.01095
0.010697 0.0046899 0.010268 0.0085772
-0.023665 -0.065127 -0.37398 0.099432 -0.042046 -0.037261 0.014777 0.0034775
-0.013395 -0.004586 0.0035314 0.00027967
0.00035834 0.012622 -0.041956 -0.037348 -0.1853 0.24992 -0.0010216 -0.0048737
0.018061 0.0043886 0.0081148 -0.0057292
0.0052031 0.010655 0.014245 0.0030797 -0.0009195 -0.0048404 -0.30644 0.13475
0.0060097 -0.024027 0.0039607 -0.021697
0.011307 0.004533 -0.013521 -0.0041 0.018294 0.0042166 0.004598 -0.024435
-0.30853 -0.016854 0.013649 -0.051506
0.01009 0.0079476 0.0046791 -0.00077325 0.0079244 -0.0053052 0.0050419 -0.022003
0.0094618 -0.048749 -0.33205 0.02595
620000000 -0.27665 0.09321 -0.022832 0.0079889 0.0034872 0.0092012 0.0078754 -0.0038708
0.013915 -0.0027842 5.6141e-06 -0.00067716
-0.022646 0.0081831 -0.40319 0.048737 -0.018247 0.00050081 -0.00198 -0.0017505
0.012802 -0.0072654 0.0010774 -0.0029017
0.0037781 0.0089497 -0.018364 0.0006008 -0.15547 0.25954 -0.00088602 -0.00469
-0.0031286 -0.0035117 0.0082693 -0.0026084
0.008398 -0.0046696 -0.0017457 -0.0018025 -0.0010397 -0.0048875 -0.26489 0.14587
-0.039733 -0.019146 0.01061 0.026073
0.012126 -0.0017161 0.012531 -0.0067465 -0.0034915 -0.0032529 -0.039612 -0.020183
-0.22816 -0.051377 -0.036363 0.014519
0.00067834 -0.0027265 0.00083788 -0.0028116 0.0091168 -0.0028361 0.013383 0.027605
-0.042907 0.010161 -0.25194 -0.0085131
680000000 -0.23881 0.18336 -0.026232 -0.014864 0.0050669 0.0052711 0.0010587 -0.0076644
-0.0030433 -0.011345 0.005708 -0.0077125
-0.026279 -0.014625 -0.38998 0.14916 -0.032466 -0.0022413 -0.0017745 -0.00071972
-0.0017631 -0.0090268 -0.0012351 -0.0015779
0.0048215 0.0054315 -0.032564 -0.0022888 -0.10421 0.28012 -0.00092565 -0.00023502
-0.0019913 0.00053777 -0.0025617 -0.0087814
0.00076658 -0.0078984 -0.0015515 -0.00024929 -0.00077719 -0.00015305 -0.22049 0.19758
-0.023545 -0.0088098 -0.0080516 -0.011793
-0.002902 -0.011636 -0.0021379 -0.0091747 -0.0021101 0.000604 -0.023772 -0.0086849
-0.27735 0.053439 -0.0081502 -0.008878
0.0051242 -0.0066066 -0.0013028 -0.0018051 -0.0026042 -0.0084172 -0.0089172 -0.012361
-0.0064638 -0.0090137 -0.2614 0.095224
740000000 -0.19393 0.17626 -0.040058 0.026536 0.013441 -0.0044622 -0.00033448 -0.0036614
-0.0044893 -0.0034425 -0.0063844 0.0038153
-0.039945 0.026194 -0.33549 0.16827 -0.036844 0.034643 0.00017722 -0.0058867
-0.012438 0.0077821 -0.0023186 -0.0055064
0.013212 -0.0046384 -0.037029 0.034958 -0.070421 0.27797 -0.0019157 0.0033887
-0.0024065 -0.005511 -0.0018546 0.00059792
-0.00020662 -0.0043552 -3.4477e-05 -0.0056705 -0.0019416 0.003379 -0.20399 0.20427
-0.042668 -0.0078853 0.021762 0.01539
-0.0045558 -0.0032934 -0.013264 0.0076496 -0.0024416 -0.0058772 -0.042833 -0.0074001
-0.17771 0.082663 -0.041249 0.0009123
-0.0067049 0.0034422 -0.0011826 -0.0056071 -0.0016 0.0010593 0.022184 0.015263
-0.043416 -0.00054332 -0.24911 0.10065
800000000 -0.16245 0.22032 -0.022824 0.016172 0.005467 -0.010258 -0.0047049 -0.0024784
-0.0044441 0.0020584 0.0049643 0.0012311
-0.022952 0.016354 -0.34168 0.23924 -0.0088212 0.034102 -0.0023321 0.0020988
-0.00076488 0.0027278 0.001356 0.0053623
0.0056269 -0.010478 -0.008754 0.03415 -0.031614 0.30226 0.00089271 0.0013569
-8.102e-05 0.0036024 -0.0018624 0.00112
-0.004621 -0.0020067 -0.0024019 0.0018809 0.00088533 0.0013393 -0.17412 0.23185
-0.029114 0.012982 0.013762 -0.0098823
-0.0042867 0.0022696 -0.00096745 0.0030578 -0.00017849 0.0037739 -0.029323 0.012939
-0.22108 0.10948 -0.01747 0.019456
0.0045651 0.0002156 0.0010554 0.005086 -0.0019976 0.00087507 0.01338 -0.010149
-0.017807 0.018514 -0.24106 0.15075
860000000 -0.12818 0.24069 -0.01837 0.030469 -0.003019 -0.010215 -0.0018858 0.00064592
0.0038243 0.0049385 -0.00416 -0.0035088
-0.018277 0.03056 -0.29328 0.28212 0.0071502 0.034358 0.00018187 0.0021817
0.0033758 0.00064565 0.0024151 -0.00014429
-0.0030582 -0.010084 0.0073154 0.034354 0.016267 0.31051 -0.00065884 -3.978e-05
0.0021724 -0.0015093 0.0013615 0.0040148
-0.0022052 0.00051342 0.00020362 0.0020013 -0.00059293 -8.9383e-05 -0.13785 0.24267
-0.018664 0.018175 -0.0064999 -0.0083702
0.0037798 0.0044843 0.0034828 0.00027267 0.0022735 -0.0017323 -0.018453 0.018079
-0.1666 0.15983 -0.024736 0.016259
-0.0039104 -0.0025491 0.0034022 0.00018852 0.0014757 0.0044044 -0.0062089 -0.0082704
-0.024709 0.016776 -0.19062 0.19337
920000000 -0.10419 0.26404 0.0042229 0.038466 -0.0092135 -0.0048363 -0.0021982 0.0019262
0.001024 0.0019448 0.0032308 -0.00077386
0.004182 0.0384 -0.26595 0.30327 0.027869 0.022865 0.0013655 0.0012533
0.0075257 0.00021249 0.0043817 -0.0029648
-0.0092542 -0.0048047 0.027955 0.022825 0.06168 0.31169 0.0018226 1.2097e-05
0.0010802 -3.8528e-05 0.0011714 -0.0012454
-0.0019246 0.001893 0.0014021 0.0012789 0.0018447 3.666e-05 -0.1133 0.25932
-0.011287 0.031037 0.0034375 -0.0064973
0.0010515 0.0017906 0.0074151 -0.00011673 0.00094678 -0.00017139 -0.01129 0.031368
-0.15574 0.16648 -0.00084856 0.027627
0.0027524 -0.0015182 0.0036941 -0.0028433 0.00096244 -0.0011552 0.0033704 -0.0066779
-0.0015387 0.027181 -0.1954 0.20892
980000000 -0.057288 0.28477 0.016771 0.030378 -0.009276 0.0043511 0.0019366 0.0036012
0.0042039 -0.0013635 -0.0028775 -0.0021065
0.016868 0.030423 -0.21261 0.33816 0.033205 0.00563 0.0021601 -0.00014249
0.0017979 -0.005852 -0.00027731 -0.0022123
-0.0092262 0.0043849 0.033233 0.0055418 0.10738 0.30606 0.0006973 -0.0010954
0.00064113 -0.0019007 0.0014049 -1.2835e-05
0.0018676 0.0037638 0.0020313 -0.00012252 0.00070344 -0.0011217 -0.074965 0.27077
0.0072025 0.030408 -0.008874 -0.0072438
0.0041942 -0.0014475 0.0018678 -0.0056795 0.00062827 -0.0019661 0.0072502 0.030294
-0.12105 0.19612 0.00561 0.019678
-0.0030825 -0.0023523 -0.00026133 -0.0025674 0.0014892 -0.00022628 -0.0088612 -0.007008
0.0058012 0.019143 -0.15414 0.25159
1040000000 -0.015941 0.29402 0.032872 0.019303 -0.0013445 0.0069912 0.0028728 0.0008919
0.00051726 -0.0034502 -0.00022569 -0.0015935
0.032898 0.019414 -0.17749 0.35168 0.03006 -0.014271 0.0017548 -0.0016701
-0.0020395 -0.0025525 -0.0008563 -0.0028687
-0.0013215 0.0070063 0.030029 -0.014362 0.1531 0.29306 -0.00038274 -0.0015899
-0.0016847 -0.00099095 -0.00038664 -0.0012389
0.0028875 0.00088075 0.0016847 -0.0016254 -0.00040738 -0.0015854 -0.047276 0.28016
0.019215 0.019145 -0.0027546 0.0013124
0.00044053 -0.0035564 -0.0021136 -0.0026698 -0.0015967 -0.00090296 0.019158 0.019006
-0.088254 0.20376 0.01315 0.017727
-0.00015088 -0.0015093 -0.00082349 -0.002824 -0.0003659 -0.0011477 -0.0023292 0.0013833
0.013881 0.017965 -0.13145 0.27339
1100000000 0.028914 0.30283 0.036363 -0.0031644 0.0029166 0.0041328 0.0025023 -0.0013057
-0.0020662 -0.0031321 -0.0038145 -5.1687e-05
0.036279 -0.0031774 -0.13453 0.36964 0.016042 -0.027636 4.8743e-05 -0.0019952
-0.0033745 -0.00097575 -0.0035783 -0.00070064
0.0028808 0.0040907 0.015938 -0.027726 0.19892 0.27392 -0.001879 3.08e-05
-0.0017528 0.00039082 -0.0011565 -0.00052334
0.0024563 -0.0012744 2.2616e-05 -0.0018963 -0.0018913 3.6304e-05 -0.0071944 0.28536
0.024902 0.0057197 -0.0023549 0.00017604
-0.0022304 -0.0031226 -0.0034769 -0.0010751 -0.0017428 0.00037601 0.024893 0.0057175
-0.067244 0.21549 0.019144 0.0083062
-0.0039476 -0.00012187 -0.0035135 -0.00061536 -0.0010746 -0.00054997 -0.0022504 5.0476e-05
0.019235 0.0085535 -0.085286 0.30108
1160000000 0.080274 0.29893 0.024649 -0.020169 0.002879 -0.00053007 -0.00017481 -0.0024439
-0.003946 -0.00083299 -0.00082905 0.0038888
0.024755 -0.020108 -0.091174 0.37414 -0.0029689 -0.029448 -0.0015346 -0.001731
-0.0027067 0.0023544 -0.0015431 0.0019188
0.00285 -0.00048998 -0.003095 -0.029419 0.24214 0.2442 -0.00084696 0.0016687
-0.00061042 0.0017683 -0.0010608 0.00036338
-7.4215e-05 -0.0025144 -0.0015858 -0.0017234 -0.00088698 0.0016854 0.032289 0.2825
0.021333 -0.0099036 -0.002955 0.0051145
-0.0039276 -0.000795 -0.0027301 0.0023841 -0.00060757 0.0017695 0.021428 -0.0099795
-0.032406 0.22345 0.018251 -0.00018118
-0.00089002 0.0040596 -0.001544 0.001844 -0.0010038 0.00030561 -0.0031062 0.005086
0.017823 -0.0003644 -0.038445 0.3038
1220000000 0.12413 0.28896 0.011477 -0.029947 -0.0014832 -0.0010664 -0.00012664 -0.00093446
-0.0026315 0.0022214 0.00091614 0.0020191
0.011491 -0.029899 -0.047355 0.38722 -0.016597 -0.02199 -0.0026732 0.0005012
-2.3803e-05 0.0031646 -0.00092213 0.002015
-0.001513 -0.0011157 -0.016704 -0.021936 0.28148 0.20623 0.0006827 0.0016793
0.00065747 0.0012281 0.00019764 0.00047361
-0.00010989 -0.00090933 -0.0026486 0.00054724 0.00067766 0.0017037 0.072343 0.27416
0.011329 -0.0169 0.0022961 0.0014515
-0.0028005 0.0023218 -4.768e-05 0.0031101 0.00061128 0.0011863 0.011236 -0.016824
-0.0080075 0.23171 0.013702 -0.012501
0.0010618 0.0020423 -0.00081252 0.0020023 0.00024109 0.0005715 0.0023332 0.0014856
0.013689 -0.012627 -0.0065431 0.31887
1280000000 0.17442 0.26837 -0.0070932 -0.028844 -0.0020693 0.0023458 -0.00083256 -0.001923
-0.00072108 0.0030814 0.002489 0.0013062
-0.0071136 -0.028819 -0.0014948 0.37897 -0.023944 -0.0091744 -0.00092881 0.0014655
0.0017084 0.0017519 0.0005185 0.0018349
-0.0020102 0.0023955 -0.024013 -0.0090651 0.31277 0.16305 0.0015129 5.9276e-05
0.0012394 0.00028193 0.00022581 0.00036092
-0.00088072 -0.0019979 -0.0009295 0.0014076 0.0015107 3.0224e-05 0.10938 0.25812
0.0015543 -0.019425 4.8724e-06 0.00019652
-0.00072764 0.0030892 0.0017103 0.0017271 0.0012372 0.00029876 0.0015057 -0.019312
0.028533 0.23461 0.0030297 -0.015184
0.0025831 0.0012479 0.00054224 0.0019976 0.00036264 0.00022879 -6.7041e-05 0.00026486
0.003205 -0.014966 0.040259 0.31994
1340000000 0.21158 0.23552 -0.017111 -0.019588 0.00065088 0.0046206 -0.0017899 -0.00085311
0.0013753 0.0026375 0.0017554 -0.0013616
-0.017088 -0.019587 0.037879 0.37173 -0.021961 0.003702 -0.00017088 0.0020625
0.0019174 0.00087849 0.0012212 0.0007836
0.00062321 0.0046461 -0.021984 0.0038152 0.33535 0.11587 0.0011076 -0.00080117
0.00057468 -0.00053611 0.00010828 0.00022449
-0.001712 -0.00077412 -0.00014854 0.0020821 0.0011084 -0.0008013 0.14247 0.23725
-0.0077599 -0.017071 0.00073811 0.00029935
0.0013725 0.002638 0.0019177 0.0008757 0.00057095 -0.00054123 -0.0078814 -0.017073
0.05852 0.22955 -0.0033462 -0.013755
0.0017231 -0.0013498 0.0011646 0.00078711 -2.3519e-05 0.00021651 0.00078891 0.00037119
-0.0034282 -0.013828 0.078175 0.31501
1400000000 0.24544 0.19842 -0.023377 -0.0081972 0.0051932 0.003445 -0.0021119 0.00054592
0.0024612 0.00090516 0.00030781 -0.0014988
-0.023343 -0.0082157 0.07549 0.35969 -0.015419 0.012242 0.0013251 0.0012909
0.0013476 -0.00070785 0.0011901 0.00017879
0.0052388 0.0033918 -0.015412 0.012354 0.34912 0.06251 0.00016279 -0.0016066
0.0001087 -0.00044363 0.00014512 0.00020087
-0.0021547 0.0005934 0.0013075 0.0013058 0.00020897 -0.0016173 0.17207 0.20841
-0.014198 -0.010338 -0.00079576 -0.00035477
0.0024397 0.0008882 0.0012945 -0.00072228 0.00010796 -0.00044083 -0.014207 -0.010336
0.091367 0.22482 -0.0098763 -0.0087602
0.00042513 -0.0015164 0.0011787 0.00011839 0.00024192 0.00027853 -0.00086734 -0.00036877
-0.0098664 -0.0086734 0.12253 0.30433
1460000000 0.26882 0.15504 -0.020628 0.0041118 0.0057487 -0.0016581 -0.0016408 0.0016806
0.0020469 -0.00043525 -0.00046518 -0.0010722
-0.02061 0.0041106 0.11022 0.33836 -0.0066145 0.01562 0.0017737 0.00020695
0.001055 -0.0013537 0.0011272 -0.00062322
0.0057634 -0.0017131 -0.0065564 0.01566 0.35587 0.0082266 -0.0010761 -0.0013871
0.00017067 -0.00023979 0.00070754 -0.00022501
-0.0016195 0.0017314 0.0017963 0.00019763 -0.0010951 -0.0013857 0.19883 0.17889
-0.015698 -0.0040066 -0.00095785 0.0017974
0.0020242 -0.00044289 0.0010095 -0.001377 0.0001092 -0.000226 -0.015673 -0.0039141
0.12071 0.21042 -0.011561 -0.0033641
-0.00028336 -0.0010418 0.0012613 -0.00057339 0.00073136 -0.0002464 -0.0010936 0.0019268
-0.011523 -0.0031744 0.15568 0.28352
1520000000 0.2817 0.11383 -0.01529 0.0098521 0.0034162 -0.0042415 0.0001045 0.0025786
0.0021175 -0.0017823 -0.0011032 -0.00017096
-0.01527 0.009815 0.14428 0.3242 0.0013251 0.013476 0.0016554 -0.00078598
7.1977e-05 -0.0011735 0.00037085 -0.00099988
0.0034215 -0.0043201 0.0013801 0.013484 0.34942 -0.047938 -0.0010829 -0.00041324
0.00059511 -0.00079707 -1.1894e-05 -0.00011263
5.7298e-05 0.0025236 0.0016523 -0.00079755 -0.0010727 -0.00043471 0.22204 0.14059
-0.015516 0.002012 0.0012691 0.0020693
0.0020882 -0.0018443 6.7797e-05 -0.0011792 0.00063114 -0.00086582 -0.015555 0.0019965
0.14858 0.19713 -0.011793 0.0012952
-0.0011952 -0.00021324 0.00035738 -0.0010573 5.4281e-05 -0.00015302 0.0014338 0.0020229
-0.011705 0.0012475 0.18802 0.26279
1580000000 0.29223 0.068007 -0.0086508 0.013369 -0.00094779 -0.0049774 0.0014212 0.0020684
-0.00018381 -0.0020933 -0.00023021 0.00034814
-0.0086662 0.013374 0.17217 0.29974 0.0052433 0.0085998 0.00053555 -0.0016049
-0.00058264 -0.0011414 -0.00013185 -0.00081012
-0.00092628 -0.0049681 0.0053037 0.008571 0.32981 -0.10566 -0.0017163 0.00053112
-0.00036104 -0.001223 0.00039213 -0.00048985
0.0014611 0.0020027 0.0005122 -0.0016016 -0.0017464 0.00056512 0.23594 0.10091
-0.012378 0.0072961 0.0020167 0.00088999
-0.00017433 -0.0020833 -0.00060579 -0.0011336 -0.00038123 -0.0011863 -0.012366 0.0073512
0.17282 0.17945 -0.0095311 0.0069102
-0.00039733 0.00036089 -0.00021016 -0.00086732 0.00029837 -0.00063949 0.0020762 0.00090031
-0.0094998 0.0068953 0.22003 0.23592
1640000000 0.29508 0.026777 -0.001857 0.012491 -0.0027903 -0.0026438 0.0027669 0.0010713
-0.00066514 -0.0015228 -0.00061191 0.00072715
-0.0018736 0.012483 0.20222 0.27486 0.0060817 0.0036804 -0.00062411 -0.0017366
-0.0011567 -0.00041888 -0.00058948 -0.00070911
-0.0028479 -0.0026287 0.0061034 0.0036478 0.30149 -0.15494 -0.0007615 0.0015112
-0.0010562 -0.001038 -0.00029379 -0.00026926
0.0027371 0.0010932 -0.00063398 -0.0017363 -0.00076343 0.0014981 0.24834 0.051858
-0.0082632 0.0091342 0.0025668 -0.00059334
-0.00069115 -0.0015878 -0.0011441 -0.00038784 -0.0010672 -0.0010467 -0.0082227 0.0091667
0.19608 0.15568 -0.0050012 0.0091678
-0.00044522 0.00063163 -0.00052513 -0.00068778 -0.00017485 -0.00036494 0.0025816 -0.00070223
-0.0048835 0.0090788 0.24587 0.20492
1700000000 0.28859 -0.01882 0.001745 0.0098627 -0.0036371 7.777e-05 0.0031692 -0.001184
-0.0019325 -0.00072482 0.00059655 0.00069274
0.0017453 0.009835 0.22074 0.24338 0.004041 0.00062824 -0.0014726 -0.00060944
-0.00085485 8.3576e-05 -0.00094135 -0.00039317
-0.0036658 6.3797e-05 0.0040512 0.00059624 0.25806 -0.19478 0.00040564 0.0017257
-0.0019929 -6.0827e-05 -0.00038155 -0.00069792
0.0031369 -0.0012118 -0.0014781 -0.00062 0.00039491 0.0017026 0.24503 0.0017834
-0.0050302 0.01024 0.0015781 -0.0022339
-0.0019366 -0.0007565 -0.00088884 7.9429e-05 -0.0020302 -8.5e-05 -0.0049729 0.010197
0.21374 0.1358 -0.00047444 0.0094945
0.00055398 0.00054856 -0.00089721 -0.00035261 -0.00028328 -0.00080789 0.0014747 -0.0021316
-0.00049796 0.0095032 0.26207 0.17021
1760000000 0.27708 -0.067795 0.004362 0.0066486 -0.0022839 0.00093417 0.0013965 -0.0034623
-0.0015148 0.0004976 0.00051749 -0.0005084
0.0043666 0.0066689 0.24714 0.2035 0.0018141 -0.0013398 -0.0012255 0.00014903
-0.0010524 0.0010003 -0.00065004 0.00033904
-0.0023053 0.00096856 0.0018425 -0.0013486 0.21013 -0.2279 0.0011172 0.0011162
-0.0012836 0.0013904 -0.0012657 -0.00077155
0.0013656 -0.0034198 -0.0011936 0.00012518 0.0011971 0.0011505 0.23577 -0.049819
-0.0012927 0.009465 -0.00023069 -0.002471
-0.0014642 0.00055139 -0.0010133 0.00098105 -0.0013444 0.0013772 -0.0012898 0.0095109
0.229 0.10132 0.0034354 0.0071723
0.00045024 -0.00052369 -0.00066171 0.00036445 -0.001269 -0.00070004 -6.3883e-05 -0.002385
0.0034256 0.0072465 0.27462 0.13268
1820000000 0.25265 -0.10547 0.0046775 0.002929 -0.00023223 0.0025311 -0.00084636 -0.003128
-0.0012186 0.0010045 8.1882e-05 -0.00030421
0.0046998 0.0029553 0.25743 0.17318 -0.00047099 -0.0002034 -0.0013446 0.00091724
2.6905e-05 0.0012461 -0.00050793 0.00058432
-0.0001599 0.002527 -0.00047031 -0.00018832 0.15917 -0.24366 0.0016836 0.00040741
-0.00024926 0.0024412 -0.0013884 0.00040912
-0.00096138 -0.0032154 -0.0013472 0.0009277 0.0016226 0.00033176 0.20567 -0.097092
0.00077927 0.0081555 -0.0016227 -0.0014039
-0.0012132 0.00099494 3.4763e-05 0.0012785 -0.00021384 0.0024381 0.00077693 0.0081611
0.24659 0.072557 0.004356 0.0038933
0.00011184 -0.00013578 -0.00055915 0.00055781 -0.0013678 0.0004138 -0.0016366 -0.0015561
0.004421 0.0039489 0.27646 0.096208
1880000000 0.21749 -0.14639 0.0026762 0.00042191 -0.000505 0.0020216 -0.0029263 -0.0023185
-0.00031723 0.001982 8.6983e-05 -0.00067946
0.0026773 0.00038788 0.26202 0.12659 -0.0023395 0.0015738 -0.000247 0.0017724
0.0006814 0.0012755 7.7585e-05 0.00095855
-0.000433 0.0020201 -0.0023264 0.0016389 0.10754 -0.25287 0.0018428 -0.00093091
0.001611 0.0020842 -0.0010876 0.0015363
-0.0029107 -0.0023041 -0.00026851 0.001787 0.0018763 -0.00088254 0.16469 -0.13711
0.0019674 0.0057677 -0.0019917 6.04e-05
-0.00030432 0.0019134 0.0006891 0.0012402 0.0016072 0.0020384 0.0019908 0.005782
0.25096 0.040997 0.0049959 0.0017154
8.9771e-05 -0.00058931 7.021e-05 0.00096694 -0.0011244 0.001559 -0.0022942 0.00022673
0.0049106 0.0016734 0.27638 0.062668
1940000000 0.17773 -0.17212 0.00020683 -0.0014723 0.0013463 0.002021 -0.0037389 0.00031957
0.0013713 0.0011115 -0.0004195 -0.00060319
0.00024509 -0.0014233 0.2627 0.094587 -0.0012347 0.0040065 0.0010247 0.0013471
0.0018805 0.00033132 0.0010391 0.00047508
0.0013584 0.0019931 -0.0012287 0.0039963 0.062134 -0.24567 0.00038614 -0.002241
0.002499 0.00029723 0.00065571 0.0014347
-0.0037962 0.00036018 0.0010333 0.0013464 0.00035301 -0.0022969 0.11231 -0.16767
0.0013434 0.0042474 -0.0013853 0.0012867
0.0014298 0.0011679 0.0018385 0.00034565 0.0024741 0.00026621 0.0014288 0.0041843
0.25433 0.00264 0.0037694 -0.0016408
-0.00054832 -0.00070419 0.0010825 0.00037629 0.00074878 0.0016073 -0.0013228 0.0013216
0.0039145 -0.0015467 0.26577 0.026498
2000000000 0.13138 -0.18662 -0.0036937 0.00055133 0.0025231 0.0015135 -0.0024522 0.0037978
0.0013552 0.0003416 -0.00061821 0.00036327
-0.0037256 0.00053936 0.24843 0.059005 -0.00083927 0.005823 0.0016657 0.0004531
0.0012937 -0.0011502 0.00047723 0.00018487
0.0025413 0.0015347 -0.00081348 0.0058415 0.019058 -0.23182 -0.0012191 -0.0013598
0.00202 -0.0011062 0.0013579 0.0015474
-0.0023269 0.003809 0.0016787 0.00040179 -0.0012131 -0.0013576 0.058662 -0.17753
0.00011774 0.0035045 6.0605e-05 0.0023659
0.0013958 0.0003569 0.0013219 -0.0011891 0.0020329 -0.0011478 1.0292e-06 0.0034757
0.2497 -0.030976 0.0008136 -0.0022869
