!Keysight Technologies,M9804A,MY58100912,A.14.10.03
!Date: Thursday, April 27, 2023 10:28:33
!Correction: S11(C  6-Port  ) 
!S12(C  6-Port  ) 
!S13(C  6-Port  ) 
!S14(C  6-Port  ) 
!S15(C  6-Port  ) 
!S16(C  6-Port  ) 
!S21(C  6-Port  ) 
!S22(C  6-Port  ) 
!S23(C  6-Port  ) 
!S24(C  6-Port  ) 
!S25(C  6-Port  ) 
!S26(C  6-Port  ) 
!S31(C  6-Port  ) 
!S32(C  6-Port  ) 
!S33(C  6-Port  ) 
!S34(C  6-Port  ) 
!S35(C  6-Port  ) 
!S36(C  6-Port  ) 
!S41(C  6-Port  ) 
!S42(C  6-Port  ) 
!S43(C  6-Port  ) 
!S44(C  6-Port  ) 
!S45(C  6-Port  ) 
!S46(C  6-Port  ) 
!S51(C  6-Port  ) 
!S52(C  6-Port  ) 
!S53(C  6-Port  ) 
!S54(C  6-Port  ) 
!S55(C  6-Port  ) 
!S56(C  6-Port  ) 
!S61(C  6-Port  ) 
!S62(C  6-Port  ) 
!S63(C  6-Port  ) 
!S64(C  6-Port  ) 
!S65(C  6-Port  ) 
!S66(C  6-Port  ) 
!S6P File: Measurement: :
# Hz S  RI   R 50
500000000 -0.33441 -0.050506 -0.009809 -0.0010834 -0.0089036 0.01333 -0.003957 0.012475
0.01209 0.0055746 -0.0038734 0.0090632
-0.0097836 -0.0011044 -0.41681 -0.06172 0.0080459 -0.010246 0.0014154 0.012419
0.0079014 0.0032365 0.0016886 0.014685
-0.0089256 0.013302 0.0079913 -0.01028 -0.26644 0.20056 0.0071351 0.0035996
-0.0015332 0.0088318 0.0014023 0.012453
-0.0037373 0.012401 0.0015659 0.012452 0.0071487 0.0035812 -0.33145 0.044988
-0.018166 -0.0046103 0.016825 0.025665
0.012036 0.005755 0.0079834 0.0032386 -0.0015287 0.0088144 -0.018164 -0.0046151
-0.24993 -0.19142 -0.026594 0.0047986
-0.0036009 0.0090193 0.0018346 0.014623 0.0014405 0.012414 0.016811 0.025677
-0.026606 0.0047909 -0.27229 -0.11608
560000000 -0.3175 0.11419 -0.023162 -0.065039 0.00022797 0.012915 0.0055291 0.010699
0.010132 0.0055844 0.010782 0.0083962
-0.023135 -0.065051 -0.37515 0.10124 -0.042132 -0.037418 0.013514 0.0030634
-0.01363 -0.0041069 0.0042388 -0.0010107
7.6865e-05 0.012869 -0.04236 -0.037481 -0.18575 0.25119 0.00015796 -0.0043205
0.019006 0.0045047 0.0081982 -0.0048343
0.0055086 0.010687 0.01352 0.0031583 0.0001756 -0.0043142 -0.30652 0.13634
0.0067035 -0.023677 0.0043741 -0.021303
0.0099771 0.0056721 -0.013584 -0.0042457 0.019022 0.0045518 0.0067004 -0.023658
-0.31106 -0.013182 0.0089192 -0.048365
0.011181 0.0084788 0.0042838 -0.0010025 0.0082166 -0.004831 0.0043734 -0.021278
0.008906 -0.048381 -0.33287 0.028844
620000000 -0.27724 0.095085 -0.022918 0.0086235 0.0040229 0.009292 0.008689 -0.0048839
0.01238 -0.0016598 0.00068667 -0.0029735
-0.02293 0.0086463 -0.40334 0.050422 -0.018187 0.00067406 -0.0013578 -0.0022719
0.012032 -0.0061617 0.0012676 -0.0034373
0.0039975 0.0093457 -0.018273 0.00071333 -0.15501 0.26131 -0.00067733 -0.005089
-0.0032442 -0.0032374 0.0092687 -0.0030841
0.0087692 -0.0047375 -0.0013798 -0.0022103 -0.0006812 -0.0051248 -0.26442 0.14789
-0.037763 -0.021303 0.013034 0.026603
0.012107 -0.0019779 0.012104 -0.0062705 -0.0032769 -0.0032244 -0.0378 -0.021288
-0.2322 -0.042265 -0.03915 0.011126
0.00055242 -0.0028883 0.0011909 -0.0033843 0.0092129 -0.0031257 0.013065 0.026584
-0.039139 0.011125 -0.25364 -0.0028272
680000000 -0.23844 0.18504 -0.026454 -0.014224 0.0050442 0.005535 0.0011673 -0.0073396
-0.0023026 -0.012153 0.0044158 -0.0071516
-0.026434 -0.014218 -0.38975 0.15104 -0.032481 -0.0017067 -0.0012777 -0.00050435
-0.0020895 -0.0097058 -0.0013705 -0.0017767
0.0051079 0.0055822 -0.032503 -0.0016189 -0.10357 0.28162 -0.00094873 -0.00042189
-0.0018095 0.00033904 -0.0029849 -0.0092621
0.0010409 -0.007259 -0.0012391 -0.00050528 -0.00094136 -0.00039982 -0.22082 0.1968
-0.022814 -0.0074846 -0.0090828 -0.011263
-0.0022741 -0.011956 -0.0021079 -0.0096704 -0.001795 0.00032042 -0.022843 -0.0074624
-0.27795 0.05779 -0.0064131 -0.0070789
0.0044991 -0.0070053 -0.0013014 -0.0017995 -0.0029629 -0.0092457 -0.0091156 -0.011248
-0.0064131 -0.0070779 -0.25972 0.096157
740000000 -0.19287 0.17836 -0.039944 0.02693 0.013348 -0.0050118 -0.00026805 -0.0042915
-0.0048269 -0.0029065 -0.0061674 0.003171
-0.039876 0.026881 -0.33492 0.16939 -0.03657 0.035014 -0.00018558 -0.0056779
-0.012851 0.0069279 -0.001429 -0.0056225
0.013387 -0.0051342 -0.036503 0.035125 -0.069899 0.27886 -0.002144 0.0032597
-0.0022588 -0.0053587 -0.0015854 0.00077711
-0.00017524 -0.004362 -0.00018718 -0.0056849 -0.0021648 0.0032524 -0.20301 0.20488
-0.04296 -0.0080979 0.02212 0.014813
-0.0052252 -0.0028085 -0.012878 0.0067246 -0.0022615 -0.0053259 -0.043001 -0.0081132
-0.17842 0.083933 -0.041422 -0.00053509
-0.0061556 0.0031427 -0.0013964 -0.00562 -0.0016003 0.00073021 0.022139 0.014828
-0.041419 -0.00053726 -0.24765 0.1056
800000000 -0.16129 0.22201 -0.022655 0.016262 0.0058203 -0.010396 -0.0047316 -0.0021976
-0.0043618 0.002522 0.0041933 0.001116
-0.022675 0.016242 -0.34074 0.24015 -0.0084505 0.034066 -0.0022966 0.0020927
-0.00094277 0.0027688 0.00072032 0.0056271
0.0058159 -0.010485 -0.0083421 0.034086 -0.030599 0.30262 0.00078902 0.0014437
0.00022263 0.003653 -0.0019233 0.00089715
-0.0047354 -0.0021871 -0.0022567 0.0020769 0.00081208 0.001444 -0.17355 0.23212
-0.028517 0.012887 0.013565 -0.010176
-0.004396 0.0026328 -0.00098977 0.0028196 0.00022416 0.0036318 -0.028505 0.012952
-0.21882 0.11245 -0.01689 0.019664
0.004309 0.001008 0.00080943 0.0055457 -0.0018636 0.00092428 0.013543 -0.010196
-0.016919 0.019638 -0.23939 0.15426
860000000 -0.1266 0.24142 -0.017959 0.03032 -0.0031046 -0.010189 -0.0019374 0.0006138
0.0037245 0.0050147 -0.0034231 -0.0025309
-0.018005 0.030304 -0.29246 0.28262 0.0073583 0.034356 -6.8098e-05 0.0019406
0.0033565 0.00062242 0.0032517 0.00059553
-0.0031295 -0.010214 0.0074816 0.03434 0.016753 0.31085 -0.00075765 -0.00019207
0.0023093 -0.0015419 0.0016689 0.0042464
-0.0019761 0.00057577 -6.7831e-05 0.0019928 -0.00075584 -0.00019565 -0.13786 0.24294
-0.017928 0.017689 -0.0068135 -0.0087269
0.0037513 0.0050724 0.0033235 0.00059295 0.0022956 -0.001547 -0.017901 0.017724
-0.16498 0.16222 -0.023539 0.016959
-0.0035003 -0.0026954 0.0032967 0.00066453 0.001631 0.0042092 -0.0067836 -0.0087448
-0.023548 0.016953 -0.18881 0.19798
920000000 -0.103 0.26495 0.0045223 0.038289 -0.0093678 -0.0049599 -0.0020633 0.0018706
0.0012049 0.0020847 0.0029268 -0.0014059
0.0044896 0.038286 -0.26524 0.30405 0.027942 0.022679 0.0014514 0.0012479
0.0076428 -0.00032017 0.004146 -0.002767
-0.009396 -0.0049667 0.028049 0.022631 0.062232 0.31233 0.0018771 9.4681e-05
0.0010649 -0.00027002 0.00098202 -0.001198
-0.0019409 0.0019678 0.0014428 0.0012763 0.0018877 9.4568e-05 -0.11296 0.25936
-0.011093 0.03073 0.0031793 -0.0065705
0.0011421 0.0020793 0.0076592 -0.00029649 0.0010484 -0.00026586 -0.011023 0.030776
-0.15213 0.1691 -0.0014099 0.026553
0.0030695 -0.0014932 0.0041754 -0.0027844 0.0010009 -0.0012111 0.0031667 -0.0065666
-0.0014277 0.026541 -0.19431 0.21217
980000000 -0.056476 0.28499 0.016798 0.030255 -0.0094761 0.0042914 0.001873 0.0036194
0.0041066 -0.0015993 -0.0030822 -0.0025849
0.016759 0.030249 -0.21214 0.33879 0.033273 0.0054026 0.0020314 -0.00012365
0.0018643 -0.0059831 -0.00034605 -0.00231
-0.009426 0.0043414 0.033311 0.0053104 0.10809 0.30651 0.00064389 -0.001177
0.00049913 -0.0018685 0.0015049 -0.00029248
0.0018269 0.0036634 0.0020256 -7.1143e-05 0.00063398 -0.0011706 -0.074661 0.27075
0.0071148 0.029854 -0.0088885 -0.0068169
0.004058 -0.001701 0.00177 -0.0060626 0.00049273 -0.0018639 0.0071722 0.029847
-0.11926 0.19805 0.0060954 0.019746
-0.0031903 -0.0024768 -0.00033397 -0.0023146 0.0014925 -0.00027917 -0.0089023 -0.0068242
0.0060821 0.019754 -0.15092 0.2549
1040000000 -0.015149 0.29428 0.032815 0.019044 -0.0015203 0.0070196 0.0027592 0.00090267
0.00060113 -0.0034628 1.1483e-06 -0.0016105
0.032787 0.019051 -0.17717 0.35216 0.029987 -0.01451 0.0016593 -0.0017665
-0.0018208 -0.0027569 -0.0010496 -0.0029762
-0.00151 0.007034 0.029954 -0.014606 0.15388 0.29361 -0.00047525 -0.0016254
-0.0014735 -0.00098302 -0.00054519 -0.0010486
0.0027392 0.00083212 0.0016523 -0.001743 -0.00048587 -0.0016373 -0.047238 0.28031
0.019222 0.018655 -0.002586 0.0012986
0.0004815 -0.0035511 -0.0018534 -0.0027714 -0.001478 -0.00098516 0.019263 0.01863
-0.08575 0.20466 0.014205 0.017555
-5.0477e-05 -0.0017028 -0.001052 -0.0029537 -0.00056025 -0.001047 -0.0025885 0.0013005
0.014183 0.017543 -0.12849 0.27528
1100000000 0.029988 0.30282 0.036323 -0.0035043 0.0027961 0.0040818 0.0024496 -0.0012591
-0.0022111 -0.0030982 -0.0040631 -0.00027117
0.0363 -0.0034741 -0.13383 0.3702 0.015878 -0.027875 0.00015658 -0.001892
-0.0037461 -0.00091933 -0.0035852 -0.00064103
0.0028121 0.0040748 0.015787 -0.027954 0.20009 0.27421 -0.0019334 7.8342e-05
-0.0016951 0.00045413 -0.0010739 -0.00051897
0.0024285 -0.0012861 0.00015963 -0.0019125 -0.001936 7.6894e-05 -0.0068769 0.28544
0.024577 0.0053614 -0.0024124 0.0002906
-0.0021447 -0.0030906 -0.0037216 -0.00087818 -0.0016982 0.00045678 0.024605 0.005326
-0.06485 0.21724 0.019331 0.007681
-0.0040753 -0.00017199 -0.0035942 -0.00061043 -0.0010685 -0.00052142 -0.0024067 0.00030548
0.019324 0.0076938 -0.082079 0.30297
1160000000 0.080982 0.29899 0.024597 -0.020514 0.0027822 -0.00041786 -3.3855e-05 -0.0024335
-0.0039906 -0.00077541 -0.00090847 0.0039393
0.024605 -0.020475 -0.090514 0.3748 -0.0033223 -0.02959 -0.0016125 -0.0016462
-0.0027199 0.0026232 -0.0015243 0.0018079
0.0027762 -0.0004171 -0.0034471 -0.029568 0.24329 0.24411 -0.00081906 0.0017194
-0.00052423 0.0018598 -0.00092857 0.00029535
2.2209e-05 -0.002428 -0.0016019 -0.0016863 -0.00082398 0.0017049 0.032251 0.28276
0.020826 -0.010088 -0.0029712 0.0050942
-0.0039875 -0.00072181 -0.0026742 0.0026398 -0.00052816 0.0018628 0.02082 -0.010104
-0.030223 0.22478 0.018089 -0.00052566
-0.00090787 0.0038778 -0.00158 0.0017829 -0.00094281 0.0003195 -0.0029585 0.0050891
0.018101 -0.00053547 -0.035986 0.30513
1220000000 0.12508 0.28912 0.01112 -0.030123 -0.0016015 -0.00085792 -5.4056e-05 -0.00094214
-0.0026981 0.002199 0.0011425 0.0021179
0.011135 -0.03007 -0.046459 0.38788 -0.016886 -0.021882 -0.0027152 0.00047488
-4.3758e-05 0.003112 -0.0007897 0.0019281
-0.0015865 -0.00085029 -0.016993 -0.021837 0.28262 0.20568 0.00074748 0.0017354
0.00057111 0.0012005 0.00024798 0.00054005
-6.1561e-05 -0.00093528 -0.0027196 0.00051659 0.00075715 0.0017465 0.072357 0.27443
0.01076 -0.016866 0.002127 0.0016559
-0.0026939 0.0022042 -2.5743e-05 0.0031082 0.00056938 0.0011976 0.010753 -0.016877
-0.0058338 0.23316 0.013371 -0.013047
0.0011421 0.0020788 -0.00077618 0.0019199 0.0002564 0.00054212 0.0021391 0.0016568
0.01338 -0.013033 -0.0035626 0.31961
1280000000 0.17543 0.26841 -0.0076122 -0.028914 -0.0019971 0.0024329 -0.00093895 -0.0020263
-0.00073127 0.0030552 0.0024937 0.001262
-0.0075975 -0.028882 -0.00045893 0.37943 -0.024183 -0.0090016 -0.00093948 0.0014527
0.0018399 0.0016567 0.00061346 0.0019421
-0.0019967 0.0024509 -0.02424 -0.0088996 0.31337 0.16218 0.001535 -6.5469e-05
0.0011585 0.00024592 0.00038617 0.0002067
-0.00094039 -0.0020129 -0.0009425 0.0014455 0.0015352 -6.3923e-05 0.10932 0.25825
0.001041 -0.019098 -1.6355e-05 0.00025735
-0.0007671 0.0030503 0.0018599 0.0016353 0.0011712 0.00023959 0.00098942 -0.019119
0.030938 0.23557 0.0026252 -0.015242
0.0025318 0.0011908 0.00059611 0.0019623 0.00038623 0.00021593 -1.6889e-05 0.00025552
0.0026404 -0.015243 0.042948 0.3206
1340000000 0.21291 0.23547 -0.017534 -0.019319 0.00083138 0.0047543 -0.0018554 -0.000888
0.0014198 0.0026177 0.0017631 -0.0014205
-0.017518 -0.019316 0.039026 0.37192 -0.022034 0.0040533 -0.00010118 0.0020441
0.0019988 0.00075674 0.0012536 0.00084819
0.00084182 0.0047275 -0.022029 0.0041466 0.33565 0.11504 0.0010405 -0.00093764
0.00069925 -0.00058664 4.8629e-05 0.00024299
-0.0018703 -0.00089713 -8.2304e-05 0.0020656 0.0010413 -0.00093 0.14277 0.23779
-0.0082745 -0.0164 0.00089541 0.00039563
0.001471 0.0025896 0.0019838 0.00074512 0.00068649 -0.00058751 -0.0083046 -0.016393
0.060778 0.23054 -0.0037726 -0.01375
0.0017214 -0.0013182 0.0012846 0.0008278 5.7772e-05 0.00024697 0.00089236 0.00039159
-0.0037753 -0.013753 0.081036 0.31489
1400000000 0.2468 0.19804 -0.023596 -0.0076679 0.0052791 0.0033442 -0.0022241 0.00066959
0.0024228 0.0010199 0.00027556 -0.0015911
-0.02356 -0.0076794 0.076738 0.3596 -0.01538 0.012576 0.0013367 0.0012967
0.0012702 -0.00084706 0.0011199 9.877e-05
0.0052924 0.0033234 -0.01534 0.012651 0.34915 0.061776 3.0162e-05 -0.0015803
4.0411e-05 -0.00031509 0.00031717 0.00014489
-0.0022372 0.00066026 0.0013188 0.0012712 2.523e-05 -0.0015916 0.17254 0.20872
-0.014231 -0.009669 -0.00071217 -0.00037651
0.0024304 0.0010104 0.0012624 -0.00084737 3.9719e-05 -0.00031711 -0.01426 -0.0096521
0.094234 0.22547 -0.010177 -0.0085461
0.00027215 -0.0015988 0.0010925 0.00013451 0.00028934 0.00014479 -0.00071262 -0.00037398
-0.010165 -0.0085538 0.12502 0.30342
1460000000 0.27018 0.15421 -0.020494 0.0046963 0.0058669 -0.0017275 -0.0015149 0.0017808
0.0021499 -0.00035639 -0.00040362 -0.0010285
-0.020485 0.0046626 0.11124 0.33797 -0.0063668 0.015823 0.001664 0.00018104
0.00078858 -0.0013966 0.0012168 -0.00052167
0.0058786 -0.0017335 -0.0063074 0.015867 0.35566 0.0077423 -0.0011931 -0.0012533
8.3638e-05 -0.00021705 0.00062114 -0.00023926
-0.0015576 0.0017347 0.0016983 0.00017204 -0.0011871 -0.0012453 0.19926 0.17921
-0.015476 -0.00318 -0.00084881 0.0018289
0.0021604 -0.00043603 0.00077864 -0.0013902 7.5075e-05 -0.00021862 -0.015491 -0.0031468
0.12362 0.21064 -0.011843 -0.0026902
-0.00043369 -0.00094781 0.0012082 -0.00054776 0.00063422 -0.00024405 -0.00085952 0.0018334
-0.011857 -0.0026971 0.15786 0.28256
1520000000 0.28284 0.11268 -0.014885 0.010296 0.0035304 -0.0042464 0.0001269 0.0025417
0.0020688 -0.0019694 -0.0011079 -0.0001297
-0.014882 0.01027 0.14513 0.32379 0.0016012 0.013568 0.0016309 -0.00075157
2.2343e-05 -0.0010595 0.0003837 -0.0010293
0.0035054 -0.0042497 0.0016622 0.013579 0.34926 -0.047973 -0.0010505 -0.00032839
0.00062684 -0.00076496 0.00016004 -0.00016682
0.00013136 0.0025551 0.0016251 -0.00075419 -0.0010519 -0.00032417 0.22287 0.14071
-0.01475 0.0025995 0.0013779 0.0019445
0.0020942 -0.0019567 1.539e-05 -0.0010551 0.00062739 -0.0007699 -0.014755 0.0026319
0.15182 0.19699 -0.011705 0.0017042
-0.001117 -0.00015962 0.00039251 -0.0010407 0.00016119 -0.0001672 0.001386 0.001935
-0.011709 0.0017054 0.1906 0.26162
1580000000 0.29283 0.066305 -0.0081351 0.01348 -0.00088511 -0.0051492 0.001527 0.0019063
-0.0001634 -0.0021234 -0.00025534 0.00037917
-0.008139 0.013468 0.17282 0.29903 0.0055374 0.0085145 0.00053529 -0.0015479
-0.00056571 -0.0010315 -0.00019394 -0.00085399
-0.00087416 -0.005158 0.0055908 0.0084856 0.32993 -0.1055 -0.0016008 0.00053475
-0.00035746 -0.0012713 0.00021454 -0.00052132
0.0015108 0.0018981 0.0005434 -0.0015484 -0.0016038 0.00053916 0.23672 0.1006
-0.011429 0.00738 0.0021168 0.00072585
-0.00020371 -0.0021448 -0.00056138 -0.0010346 -0.00036515 -0.0012708 -0.011419 0.0074082
0.17597 0.17861 -0.0091899 0.0073592
-0.0002063 0.00038931 -0.00021219 -0.00087019 0.00021748 -0.0005189 0.0021178 0.00070913
-0.0091984 0.0073476 0.22194 0.23447
1640000000 0.29507 0.025132 -0.0013806 0.012322 -0.0029258 -0.0027501 0.0026745 0.0010242
-0.00075505 -0.0016101 -0.00027161 0.00055011
-0.0013981 0.012313 0.20263 0.27431 0.0061954 0.0034236 -0.00058225 -0.0017562
-0.00093358 -0.00038308 -0.00050159 -0.00070673
-0.0029626 -0.0027217 0.0062265 0.0034026 0.30171 -0.15524 -0.00066179 0.0014019
-0.00099029 -0.0009494 -0.00020088 -0.00032183
0.0026954 0.0010347 -0.00060387 -0.0017598 -0.0006604 0.0014082 0.24901 0.051297
-0.0072871 0.0087441 0.0024019 -0.00080406
-0.00076566 -0.0016014 -0.00093576 -0.00039977 -0.00098698 -0.00094233 -0.0072632 0.0087667
0.19897 0.15451 -0.004609 0.0092619
-0.00030222 0.00050907 -0.00050075 -0.00067925 -0.0002013 -0.00032374 0.0024025 -0.00081591
-0.0046113 0.0092643 0.24723 0.2034
1700000000 0.28809 -0.020081 0.0020099 0.0094794 -0.0036689 -1.1261e-05 0.0031001 -0.0012148
-0.0019848 -0.00063048 0.00062886 0.00036199
0.002011 0.0094688 0.22112 0.24286 0.0041086 0.0004181 -0.0014562 -0.00065586
-0.00083366 -2.0651e-05 -0.0008468 -0.00046043
-0.0036687 -3.789e-06 0.0041184 0.00041221 0.25866 -0.19496 0.0004137 0.0015188
-0.0019023 -0.00018127 -0.00041806 -0.00082788
0.003087 -0.0012204 -0.0014364 -0.00066788 0.00041943 0.0014967 0.24555 0.0009125
-0.004453 0.0093366 0.0015081 -0.0021929
-0.0020045 -0.00058489 -0.00081713 -1.171e-05 -0.0018924 -0.00019125 -0.0044385 0.0093571
0.2164 0.13381 -0.00010083 0.0095374
0.00069589 0.00034832 -0.00089208 -0.00045382 -0.00044748 -0.00082939 0.0014976 -0.002211
-9.084e-05 0.0095308 0.26334 0.16904
1760000000 0.2762 -0.068624 0.004373 0.0062315 -0.0024259 0.001072 0.0012877 -0.0033838
-0.001422 0.00061391 0.00027973 -0.00050666
0.004352 0.0062293 0.24733 0.20299 0.0017461 -0.0014111 -0.0011942 8.8625e-05
-0.001064 0.00083532 -0.00068066 0.00038384
-0.0024349 0.0011049 0.001737 -0.0014227 0.21016 -0.22798 0.001135 0.0011412
-0.0012873 0.0013998 -0.0011576 -0.00069902
0.0013104 -0.0033989 -0.0012019 0.00012941 0.0011411 0.001167 0.23582 -0.051001
-0.0012151 0.0085455 -0.00025323 -0.0024666
-0.0013913 0.00062606 -0.0010677 0.00086306 -0.0012884 0.0014249 -0.0012023 0.0085576
0.23121 0.098926 0.003775 0.0069354
0.00021741 -0.00050609 -0.00065683 0.00036889 -0.0011478 -0.00072181 -0.00024846 -0.0024675
0.0037771 0.0069446 0.27592 0.13154
1820000000 0.25195 -0.10598 0.0045233 0.0025695 -0.00034301 0.0024275 -0.0010526 -0.003176
-0.0011314 0.00094963 -0.0001559 -3.3058e-05
0.0045143 0.0025765 0.25764 0.17286 -0.00061192 -0.00039296 -0.0013774 0.0008972
-9.5816e-05 0.0012545 -0.00063014 0.00056036
-0.00034625 0.0024062 -0.00061571 -0.00039336 0.15995 -0.2441 0.0015262 0.00049763
-0.00028942 0.0023789 -0.0014843 0.00039517
-0.0010686 -0.0031371 -0.0013944 0.00090086 0.0015276 0.00047371 0.20525 -0.098096
0.00036339 0.0072 -0.0016743 -0.001457
-0.0011211 0.00092877 -8.879e-05 0.0012517 -0.00027004 0.0023562 0.00038262 0.0071861
0.24831 0.069984 0.0045918 0.0036394
-0.00020041 -3.1284e-06 -0.00062306 0.00056886 -0.0014953 0.00041578 -0.001685 -0.0014527
0.0046104 0.0036409 0.27767 0.094882
1880000000 0.2169 -0.1464 0.0023633 0.00024459 -0.00046536 0.0021094 -0.0028412 -0.0021673
-0.00021685 0.0018956 0.0002083 -0.00049644
0.0023539 0.00025677 0.26223 0.12613 -0.0024855 0.0015455 -0.00024889 0.0017787
0.00060163 0.0013378 4.597e-05 0.00097424
-0.00047764 0.00209 -0.0024793 0.001566 0.10806 -0.25373 0.0018641 -0.00086511
0.0015455 0.0020437 -0.0011024 0.0013352
-0.0028107 -0.0021483 -0.0002301 0.0017711 0.0018482 -0.00085595 0.16386 -0.13794
0.0011272 0.0053147 -0.0023072 0.00041932
-0.00017236 0.0019217 0.00062016 0.0013491 0.0015479 0.0020458 0.0011297 0.0053242
0.25197 0.038112 0.0048502 0.0013526
0.00019574 -0.00057158 7.22e-05 0.00096349 -0.0011016 0.0013169 -0.0023121 0.00041394
0.0048366 0.0013528 0.27729 0.061037
1940000000 0.17756 -0.1719 -9.6447e-05 -0.0014028 0.0014129 0.002249 -0.0037932 0.00040116
0.0013598 0.001154 -0.00044565 -0.00048357
-0.00010775 -0.0013981 0.26277 0.09434 -0.0014764 0.0041722 0.0010661 0.0014256
0.0019229 0.00059384 0.0010068 0.00043089
0.0013836 0.0022396 -0.0014546 0.0041887 0.061572 -0.24648 0.00055725 -0.0021523
0.0025386 0.00049813 0.00059833 0.0017914
-0.0037602 0.00053919 0.0010887 0.0014411 0.00056579 -0.0021542 0.11093 -0.16805
0.00033318 0.0041191 -0.0013295 0.0017803
0.0013796 0.0012031 0.0019358 0.00058896 0.0025379 0.0004957 0.00036615 0.0041071
0.25449 -0.00011085 0.0035797 -0.001664
-0.00039486 -0.00051069 0.0010058 0.00042969 0.00060478 0.0017889 -0.0013382 0.0017864
0.0036015 -0.0016705 0.26599 0.024424
2000000000 0.13176 -0.18667 -0.0038825 0.00068742 0.0025774 0.0015209 -0.002424 0.0037786
0.0012749 0.00043366 -0.00052865 0.00050391
-0.0038638 0.0007053 0.24876 0.058617 -0.00085302 0.0058967 0.0015717 0.00041586
0.001425 -0.0011316 0.00065427 0.0001654
0.0025762 0.0014873 -0.00083219 0.005899 0.018859 -0.23226 -0.0013888 -0.0014716
0.0021911 -0.001225 0.0018998 0.001249
-0.0025003 0.0037943 0.0015658 0.00041328 -0.0013987 -0.0014589 0.057729 -0.17719
-0.00095375 0.0038488 1.0496e-06 0.0018931
0.0012253 0.00041862 0.0014217 -0.0011451 0.0021913 -0.0012372 -0.00096549 0.0038668
0.24948 -0.033367 0.00072419 -0.0026403
