!Keysight Technologies,M9804A,MY58100912,A.14.10.03
!Date: Thursday, April 27, 2023 10:28:33
!Correction: S11(C  6-Port  ) 
!S12(C  6-Port  ) 
!S13(C  6-Port  ) 
!S14(C  6-Port  ) 
!S15(C  6-Port  ) 
!S16(C  6-Port  ) 
!S21(C  6-Port  ) 
!S22(C  6-Port  ) 
!S23(C  6-Port  ) 
!S24(C  6-Port  ) 
!S25(C  6-Port  ) 
!S26(C  6-Port  ) 
!S31(C  6-Port  ) 
!S32(C  6-Port  ) 
!S33(C  6-Port  ) 
!S34(C  6-Port  ) 
!S35(C  6-Port  ) 
!S36(C  6-Port  ) 
!S41(C  6-Port  ) 
!S42(C  6-Port  ) 
!S43(C  6-Port  ) 
!S44(C  6-Port  ) 
!S45(C  6-Port  ) 
!S46(C  6-Port  ) 
!S51(C  6-Port  ) 
!S52(C  6-Port  ) 
!S53(C  6-Port  ) 
!S54(C  6-Port  ) 
!S55(C  6-Port  ) 
!S56(C  6-Port  ) 
!S61(C  6-Port  ) 
!S62(C  6-Port  ) 
!S63(C  6-Port  ) 
!S64(C  6-Port  ) 
!S65(C  6-Port  ) 
!S66(C  6-Port  ) 
!S6P File: Measurement: :
# Hz S  RI   R 50
500000000 -0.33433 -0.050864 -0.010062 -0.0013107 -0.0088472 0.013421 -0.0039301 0.011707
0.012421 0.0055375 -0.0040069 0.0083017
-0.010076 -0.0012996 -0.41706 -0.061671 0.0079679 -0.010315 0.0012315 0.012166
0.0080985 0.0029078 0.001355 0.014361
-0.0088532 0.013466 0.0079379 -0.0103 -0.26666 0.20067 0.0070006 0.0035907
-0.0013962 0.0085963 0.0013129 0.012351
-0.0039006 0.011767 0.001266 0.012188 0.0069834 0.0036022 -0.3315 0.045205
-0.018611 -0.0050933 0.016691 0.025711
0.012369 0.0055694 0.0080918 0.0029496 -0.0013779 0.0085878 -0.018535 -0.0051041
-0.24939 -0.1909 -0.02698 0.0044367
-0.0039296 0.0083164 0.0014016 0.014401 0.0012753 0.012441 0.016617 0.02563
-0.026994 0.0044095 -0.27264 -0.1156
560000000 -0.31791 0.11435 -0.023221 -0.064501 -0.0001245 0.013377 0.0057064 0.011155
0.010245 0.0057005 0.010916 0.0082872
-0.023145 -0.064408 -0.37519 0.10118 -0.042072 -0.037174 0.013494 0.0026871
-0.014096 -0.0044977 0.0041933 -0.0011363
-0.00010884 0.013369 -0.042241 -0.037137 -0.18578 0.25168 0.00052423 -0.0042677
0.018648 0.0043621 0.0082427 -0.005046
0.0057161 0.011125 0.013535 0.0026816 0.00052302 -0.0042784 -0.30635 0.13607
0.0069769 -0.023474 0.0041893 -0.021244
0.010208 0.0056649 -0.014152 -0.0044812 0.018616 0.0043645 0.0069451 -0.023467
-0.31111 -0.013999 0.009364 -0.047991
0.010896 0.0082564 0.0041535 -0.0011514 0.0082662 -0.0050218 0.0041621 -0.021284
0.0093689 -0.047951 -0.33243 0.029635
620000000 -0.27676 0.095062 -0.02275 0.0085725 0.0038806 0.0091471 0.008449 -0.0051676
0.011911 -0.0014876 0.00033485 -0.0032126
-0.022711 0.0085491 -0.40329 0.050507 -0.018279 0.0008034 -0.0013671 -0.0023388
0.011837 -0.006122 0.0012819 -0.0033953
0.0038757 0.0091863 -0.018302 0.00084286 -0.15511 0.26143 -0.00070636 -0.0052532
-0.0034081 -0.0031599 0.0090458 -0.0030564
0.0085213 -0.0051137 -0.0013534 -0.0023563 -0.00071781 -0.005238 -0.26464 0.14739
-0.037893 -0.020731 0.012564 0.02612
0.01198 -0.0016085 0.011842 -0.0061649 -0.0034049 -0.0031715 -0.037889 -0.020668
-0.2314 -0.04264 -0.038819 0.011848
0.00039731 -0.0032453 0.0012761 -0.0034152 0.0090084 -0.0030233 0.012565 0.026086
-0.038809 0.011937 -0.25385 -0.0030754
680000000 -0.23826 0.18532 -0.026313 -0.014129 0.0053242 0.0054693 0.0011981 -0.0071927
-0.0020819 -0.011993 0.0049868 -0.0069473
-0.026305 -0.014154 -0.38956 0.15114 -0.032322 -0.0018279 -0.0011179 -0.00054002
-0.0020111 -0.0096589 -0.0012566 -0.0017677
0.0052861 0.0054695 -0.032378 -0.0017283 -0.10346 0.28145 -0.0007645 -0.00036978
-0.001645 0.00033419 -0.002729 -0.0093821
0.0011933 -0.0072269 -0.0011382 -0.00051333 -0.00077487 -0.00036657 -0.22074 0.19699
-0.022698 -0.0073298 -0.0090049 -0.011056
-0.0021489 -0.011974 -0.0020447 -0.0096728 -0.0016654 0.00032954 -0.022747 -0.0073246
-0.27803 0.0578 -0.0062052 -0.0073225
0.0049615 -0.0069125 -0.0012732 -0.0017421 -0.0027125 -0.0094213 -0.0090481 -0.011032
-0.0062398 -0.0072984 -0.25888 0.096743
740000000 -0.19315 0.17826 -0.039937 0.026846 0.013339 -0.0049143 -0.0006047 -0.004363
-0.0045708 -0.0023689 -0.0064472 0.0032755
-0.039889 0.026772 -0.33473 0.16923 -0.036474 0.035074 -0.00019908 -0.0058804
-0.013019 0.0072693 -0.0015161 -0.0055481
0.013315 -0.0049641 -0.036411 0.035205 -0.069884 0.27899 -0.0021126 0.0032293
-0.0023072 -0.0054661 -0.0016757 0.0009001
-0.00058647 -0.0044343 -0.00020803 -0.0058433 -0.0021122 0.0032121 -0.20297 0.20481
-0.043183 -0.0076969 0.022183 0.014654
-0.0046353 -0.0023858 -0.01297 0.0072562 -0.0023066 -0.0054667 -0.043198 -0.0076565
-0.17776 0.083638 -0.041658 -0.00045623
-0.0064101 0.0032712 -0.0015576 -0.0055457 -0.001638 0.00091733 0.022211 0.014678
-0.041664 -0.00042815 -0.24774 0.10571
800000000 -0.16136 0.22197 -0.022608 0.016258 0.0056396 -0.010496 -0.0045491 -0.0022457
-0.0043232 0.0023914 0.0044357 0.00065331
-0.022588 0.01622 -0.34063 0.24017 -0.0085244 0.034024 -0.0022953 0.0020498
-0.00092374 0.0027416 0.00071768 0.0053798
0.0056677 -0.010479 -0.0084218 0.034081 -0.030642 0.30256 0.00085921 0.0013191
0.00015795 0.0036484 -0.001821 0.00059734
-0.0046056 -0.0022148 -0.0023284 0.0020731 0.00085393 0.0013134 -0.17356 0.23226
-0.02832 0.012957 0.013547 -0.0102
-0.0043137 0.0024378 -0.00088837 0.0027588 0.00016739 0.0036534 -0.028303 0.013016
-0.21881 0.11245 -0.016845 0.019624
0.0044296 0.00067593 0.00072219 0.0054224 -0.0018554 0.00060776 0.013566 -0.010221
-0.016852 0.019601 -0.23905 0.15399
860000000 -0.12663 0.24156 -0.017999 0.030344 -0.003051 -0.010199 -0.0021953 0.00064848
0.0037676 0.0050248 -0.0035226 -0.0023334
-0.017992 0.030323 -0.29248 0.2827 0.007401 0.034297 -2.0982e-06 0.0021011
0.0032836 0.00073347 0.0034683 0.00045485
-0.0030949 -0.010188 0.007496 0.0343 0.016763 0.31091 -0.00079698 -0.00016342
0.0022151 -0.0015983 0.0016656 0.0043254
-0.0021618 0.0006386 7.5576e-06 0.0020843 -0.00079064 -0.00016244 -0.1376 0.24279
-0.018027 0.017713 -0.0068458 -0.0090105
0.003771 0.0049914 0.0033011 0.00070045 0.0022094 -0.0016162 -0.017985 0.017761
-0.16464 0.16249 -0.023985 0.017004
-0.0035436 -0.0023635 0.0034705 0.00045142 0.0016704 0.0043094 -0.0068419 -0.0090316
-0.023993 0.016979 -0.18905 0.1977
920000000 -0.10294 0.26492 0.0045421 0.038135 -0.0093625 -0.0049304 -0.0020349 0.0016584
0.0010085 0.0021191 0.0027959 -0.0015719
0.0045274 0.038089 -0.26523 0.3042 0.027967 0.022622 0.0015719 0.0013517
0.0074794 -0.0003425 0.0042403 -0.0028025
-0.009369 -0.0049237 0.028046 0.02257 0.062251 0.31234 0.001875 5.9469e-05
0.0011176 -0.00027957 0.00098611 -0.0012408
-0.00203 0.0016809 0.0015505 0.001349 0.0018878 4.8655e-05 -0.11269 0.25962
-0.011091 0.030602 0.0033899 -0.0063985
0.001006 0.0021121 0.0074973 -0.00036216 0.0011176 -0.00028099 -0.011045 0.030625
-0.15228 0.16903 -0.0013809 0.026468
0.0027966 -0.001572 0.004233 -0.0027955 0.00098471 -0.0012543 0.0033912 -0.0063887
-0.0013913 0.026449 -0.19392 0.21225
980000000 -0.056421 0.28502 0.016887 0.030278 -0.0094533 0.0042571 0.0019559 0.0036665
0.0041609 -0.0017602 -0.0030034 -0.002445
0.016862 0.030251 -0.21207 0.33887 0.033247 0.0053987 0.0020862 -0.00012221
0.0018826 -0.0059493 -0.00034972 -0.0024017
-0.0094327 0.0042778 0.033279 0.005292 0.10812 0.3065 0.0006538 -0.001177
0.00049884 -0.0018411 0.0015107 -0.00029979
0.0019717 0.0036622 0.0020783 -0.00014871 0.00065282 -0.0011787 -0.074672 0.27074
0.0070636 0.029838 -0.0089486 -0.0067719
0.0041568 -0.0017651 0.0018663 -0.0059593 0.00049645 -0.0018419 0.0071203 0.029839
-0.11877 0.19769 0.0059352 0.020062
-0.0029973 -0.0024375 -0.00037723 -0.0023974 0.0015154 -0.00029362 -0.0089652 -0.0067432
0.0059031 0.020058 -0.15084 0.25498
1040000000 -0.015029 0.29424 0.032832 0.019001 -0.0015131 0.0070458 0.0027034 0.00084462
0.00056994 -0.0033384 -9.2337e-05 -0.0015618
0.032805 0.01898 -0.17706 0.35228 0.030004 -0.014493 0.0016783 -0.0017298
-0.0019326 -0.0026529 -0.0010846 -0.0029361
-0.0014913 0.0070361 0.02997 -0.014601 0.15389 0.2936 -0.00046289 -0.0016257
-0.0014944 -0.00098049 -0.00054042 -0.0010345
0.0027125 0.00085109 0.0016562 -0.0017571 -0.000464 -0.0016197 -0.047196 0.28036
0.019263 0.018522 -0.0026148 0.0013082
0.0005281 -0.0033575 -0.0019253 -0.0026373 -0.0015028 -0.00095725 0.019288 0.01849
-0.085745 0.20479 0.014089 0.017575
-8.7397e-05 -0.0015437 -0.0011089 -0.0029114 -0.00053843 -0.001024 -0.0026064 0.0012986
0.014064 0.017557 -0.12835 0.2752
1100000000 0.030035 0.30303 0.036285 -0.0035348 0.0027905 0.004046 0.0024589 -0.0012452
-0.0022141 -0.0032242 -0.0039649 -0.00023922
0.036271 -0.003514 -0.1338 0.37017 0.015862 -0.027879 0.0001356 -0.0019031
-0.0037343 -0.00098522 -0.00362 -0.00063354
0.00281 0.0040431 0.015767 -0.027952 0.20013 0.27421 -0.0019455 9.6236e-05
-0.0017289 0.00046902 -0.0010794 -0.00047208
0.0024443 -0.0012646 0.00012463 -0.0019153 -0.0019601 9.7482e-05 -0.0068606 0.2854
0.024568 0.0053578 -0.0024764 0.00030788
-0.002236 -0.0032097 -0.0037458 -0.00096796 -0.0017267 0.00047001 0.024591 0.0053155
-0.064718 0.2172 0.019353 0.0076853
-0.0039749 -0.00022785 -0.0036352 -0.00062043 -0.0010767 -0.00047301 -0.0024946 0.00032254
0.019339 0.0076905 -0.082269 0.30309
1160000000 0.081062 0.29886 0.024548 -0.02056 0.0027976 -0.00039049 -8.5101e-05 -0.0025169
-0.0039188 -0.0007693 -0.00097965 0.0040395
0.024546 -0.020532 -0.090396 0.3748 -0.0032972 -0.029572 -0.0016052 -0.0016623
-0.0026929 0.0026613 -0.0016021 0.0018373
0.0027937 -0.0004067 -0.0034335 -0.029589 0.2433 0.24408 -0.00083879 0.0017282
-0.00053995 0.0018722 -0.00090955 0.00034254
-9.7046e-05 -0.0024933 -0.0016277 -0.0016581 -0.00084104 0.0017298 0.032318 0.2828
0.020815 -0.010019 -0.0029907 0.0050703
-0.0039548 -0.00073769 -0.0026801 0.0026803 -0.00054787 0.0018713 0.020817 -0.010055
-0.030191 0.22486 0.018253 -0.00056686
-0.00095287 0.004047 -0.0015911 0.0018544 -0.00088698 0.00033336 -0.002989 0.0050716
0.018236 -0.00058748 -0.035649 0.3053
1220000000 0.12534 0.28901 0.01111 -0.030159 -0.0015991 -0.00086153 -5.164e-05 -0.00094098
-0.0026702 0.0022373 0.0011462 0.0020945
0.011123 -0.030122 -0.046411 0.38785 -0.016887 -0.021852 -0.002697 0.00047208
3.0641e-06 0.0030969 -0.00080851 0.0018874
-0.0015956 -0.00084678 -0.016996 -0.021796 0.28262 0.20569 0.00074673 0.0017087
0.00058876 0.0011951 0.00023606 0.0005278
-6.3385e-05 -0.00093523 -0.0026971 0.00047315 0.00074084 0.0017058 0.072417 0.27442
0.010718 -0.016845 0.0021264 0.001661
-0.0026707 0.0022456 1.8124e-05 0.0030987 0.00058025 0.0011835 0.010699 -0.016855
-0.0057979 0.23318 0.01344 -0.013104
0.0011606 0.0020923 -0.00080122 0.0018865 0.00023599 0.00052305 0.0021296 0.0016691
0.013432 -0.013104 -0.0033778 0.31977
1280000000 0.17552 0.26832 -0.0076047 -0.028875 -0.0019631 0.0024397 -0.00095574 -0.002036
-0.00068891 0.0030656 0.0024635 0.0012656
-0.0075877 -0.028848 -0.00042202 0.37944 -0.024168 -0.0090004 -0.00095287 0.0014609
0.0018388 0.0016737 0.00064915 0.0019575
-0.0019645 0.0024446 -0.024231 -0.0089034 0.31338 0.16219 0.0015405 -6.9728e-05
0.0012005 0.00022671 0.00037525 0.00017233
-0.0009567 -0.0020228 -0.00094857 0.0014715 0.0015333 -5.871e-05 0.10938 0.25827
0.0009993 -0.019096 -4.4672e-05 0.00029822
-0.00068076 0.003072 0.0018483 0.0016712 0.001204 0.0002266 0.0009669 -0.019108
0.031076 0.23557 0.0026632 -0.015314
0.0024627 0.0012575 0.00065829 0.0019528 0.0003743 0.00017053 -3.7552e-05 0.00029209
0.0026617 -0.015315 0.043193 0.32062
1340000000 0.21295 0.23532 -0.017537 -0.019295 0.0008273 0.0047455 -0.0018571 -0.00086928
0.0014588 0.0026393 0.0017798 -0.0013766
-0.017501 -0.019278 0.039094 0.37194 -0.021986 0.0040482 -9.7801e-05 0.0020236
0.0020014 0.0007206 0.0012401 0.00085183
0.00084928 0.0047499 -0.021993 0.0041565 0.33567 0.11506 0.0010282 -0.00093612
0.0006805 -0.00060086 5.9365e-05 0.00024043
-0.0018602 -0.00086493 -8.794e-05 0.0020263 0.0010293 -0.00093624 0.14284 0.23777
-0.0082541 -0.016396 0.00083058 0.00038892
0.0014654 0.0026291 0.0020035 0.00071079 0.00067787 -0.00060548 -0.0082974 -0.016389
0.060872 0.2306 -0.0037851 -0.013821
0.001761 -0.0013871 0.001262 0.00084586 6.1772e-05 0.00024074 0.00082341 0.00039061
-0.0037886 -0.013824 0.081252 0.31494
1400000000 0.24671 0.19787 -0.023572 -0.0076657 0.0052921 0.0033368 -0.0022123 0.00066039
0.0023963 0.0010045 0.00027443 -0.0015951
-0.023539 -0.0076728 0.076752 0.35957 -0.015357 0.012552 0.0013143 0.0012836
0.0012889 -0.000803 0.0011062 0.00010925
0.0053007 0.0033148 -0.015319 0.012647 0.34921 0.06177 1.8264e-05 -0.0015746
6.585e-05 -0.00034415 0.00028491 0.0001591
-0.0022018 0.00067106 0.0013268 0.0012817 2.5936e-05 -0.0015784 0.17263 0.2087
-0.01426 -0.0097172 -0.00071779 -0.0003087
0.0024132 0.00099175 0.001285 -0.00081612 5.942e-05 -0.00033926 -0.014288 -0.0096854
0.094421 0.22544 -0.010292 -0.0086008
0.00026723 -0.0016044 0.0011071 0.00010551 0.00027439 0.00015955 -0.00071724 -0.00031018
-0.01029 -0.008611 0.12523 0.3035
1460000000 0.27006 0.15415 -0.020484 0.0046668 0.0058477 -0.0017477 -0.0015272 0.0017757
0.002166 -0.00038267 -0.00042184 -0.0009749
-0.020476 0.004664 0.1113 0.33797 -0.0063543 0.015794 0.0016815 0.00015626
0.00078395 -0.001379 0.0012027 -0.00051971
0.005849 -0.0017685 -0.0062923 0.015846 0.35567 0.0077303 -0.0011737 -0.0012296
3.9385e-05 -0.000216 0.00065081 -0.00023624
-0.0015063 0.0017818 0.0016875 0.00015299 -0.0011745 -0.0012333 0.19935 0.17915
-0.015433 -0.0031334 -0.00086742 0.001799
0.0021554 -0.00038964 0.00077735 -0.001393 4.5265e-05 -0.00021441 -0.015453 -0.0031111
0.12374 0.21067 -0.01195 -0.0027179
-0.00041905 -0.00098678 0.0011867 -0.00052335 0.00066147 -0.00023713 -0.0008756 0.0018132
-0.011942 -0.0027269 0.15808 0.28247
1520000000 0.28265 0.11268 -0.014866 0.010281 0.003554 -0.0042426 0.00014692 0.00256
0.0020627 -0.0019382 -0.0010732 -0.00016806
-0.014859 0.010259 0.14515 0.32376 0.0016002 0.013549 0.0016319 -0.00076402
2.1617e-05 -0.0010773 0.00039869 -0.0010037
0.0035319 -0.0042656 0.0016758 0.013553 0.34928 -0.048004 -0.0010596 -0.0003092
0.00062136 -0.00079639 0.0001629 -0.00014631
0.0001397 0.0025603 0.0016291 -0.00077061 -0.0010569 -0.00031157 0.22293 0.14066
-0.014761 0.0025968 0.0014027 0.0019729
0.0020572 -0.001956 2.1293e-05 -0.0010803 0.0006224 -0.00080185 -0.014763 0.0026391
0.1519 0.19696 -0.011767 0.0017124
-0.0010703 -0.00015426 0.00038566 -0.0010051 0.00016458 -0.00015197 0.0014041 0.0019641
-0.011763 0.0017077 0.19086 0.26158
1580000000 0.29274 0.066452 -0.008134 0.013461 -0.00086571 -0.0051541 0.0015026 0.001864
-0.00017699 -0.0021433 -0.00026162 0.00040473
-0.008136 0.013445 0.17283 0.29905 0.0055093 0.0084949 0.00052837 -0.0015515
-0.00055405 -0.0010333 -0.00022765 -0.00082148
-0.00089211 -0.0051594 0.0055496 0.0084808 0.32997 -0.10556 -0.0015904 0.00054664
-0.00034901 -0.0012658 0.00024032 -0.00052269
0.0015241 0.0018591 0.00052542 -0.0015477 -0.0015929 0.0005395 0.23678 0.10055
-0.011418 0.0074182 0.0021396 0.000662
-0.00018998 -0.0021432 -0.00055619 -0.0010268 -0.00034067 -0.0012715 -0.011417 0.0074464
0.176 0.17852 -0.0091595 0.0074168
-0.00025644 0.00039872 -0.00023259 -0.00082491 0.00023861 -0.00052565 0.0021402 0.00065067
-0.0091653 0.0074057 0.22217 0.23436
1640000000 0.29511 0.025325 -0.0013729 0.012326 -0.0029245 -0.0027435 0.0026968 0.00099985
-0.00072369 -0.0016047 -0.00031356 0.00052122
-0.0013891 0.012317 0.20266 0.27427 0.0061756 0.0034181 -0.0005883 -0.0017479
-0.00093006 -0.00039693 -0.00049563 -0.00069684
-0.0029407 -0.0027391 0.0062006 0.0033916 0.30171 -0.15529 -0.000677 0.0013788
-0.0010103 -0.00096832 -0.00018221 -0.00030742
0.0026858 0.0010046 -0.00060106 -0.0017478 -0.00067689 0.0013878 0.249 0.051231
-0.007247 0.0087214 0.0023843 -0.00078694
-0.00074296 -0.0015983 -0.00094009 -0.00038117 -0.0010114 -0.00095848 -0.0072142 0.0087466
0.19908 0.15446 -0.0046282 0.009279
-0.00029789 0.00054097 -0.00049773 -0.00069856 -0.00018304 -0.0003059 0.002378 -0.00078813
-0.0046372 0.0092885 0.24749 0.20335
1700000000 0.28817 -0.019915 0.0020167 0.009498 -0.0036775 -2.4475e-05 0.0031167 -0.0012344
-0.0019596 -0.00063577 0.00057848 0.00038143
0.0020163 0.0094936 0.22113 0.24283 0.0040718 0.00042497 -0.0014374 -0.00066901
-0.00082066 -2.5623e-05 -0.00088582 -0.00045418
-0.0036748 -3.3445e-06 0.0040823 0.00041273 0.2586 -0.195 0.00041762 0.0015209
-0.0019107 -0.00020051 -0.0004579 -0.00081867
0.0031097 -0.0012542 -0.0014475 -0.00065691 0.00041633 0.0015102 0.24549 0.00087256
-0.0044594 0.009363 0.0015691 -0.0022221
-0.0019625 -0.00062509 -0.00082631 -3.0512e-05 -0.0019095 -0.00018958 -0.0044481 0.0093778
0.21647 0.13376 -5.305e-05 0.0095781
0.00058417 0.00038189 -0.00088843 -0.00043844 -0.00046858 -0.00081653 0.0015615 -0.0022238
-5.2002e-05 0.0095836 0.26341 0.1688
1760000000 0.27645 -0.06866 0.0043897 0.0062275 -0.0024018 0.0010774 0.0013078 -0.0034027
-0.0014105 0.00059304 0.00031765 -0.00052154
0.0043845 0.0062242 0.24736 0.20296 0.0017287 -0.0014073 -0.0011977 9.561e-05
-0.0010739 0.00084395 -0.00065613 0.0003614
-0.0023981 0.0011073 0.0017254 -0.0014148 0.21008 -0.22796 0.0011156 0.0011996
-0.0013053 0.0014641 -0.0011527 -0.00073936
0.0012842 -0.0033898 -0.0012019 0.00010616 0.001117 0.0012007 0.23578 -0.051016
-0.0012133 0.0085314 -0.00027063 -0.0024502
-0.0014106 0.00060916 -0.0010656 0.00085427 -0.0012943 0.0014593 -0.0012003 0.0085347
0.23125 0.09887 0.003822 0.0069992
0.00030769 -0.00053852 -0.00065437 0.00036236 -0.0011564 -0.00073664 -0.00028065 -0.0024603
0.0038293 0.0069899 0.27605 0.13118
1820000000 0.25214 -0.10604 0.0045164 0.0025638 -0.00035473 0.0024519 -0.0010243 -0.0031778
-0.0011207 0.00094414 -0.0001576 -5.185e-05
0.0045172 0.0025739 0.25758 0.17282 -0.00062232 -0.00036696 -0.0013559 0.00089103
-8.2545e-05 0.0012515 -0.00061652 0.00056099
-0.00034747 0.0024466 -0.00062367 -0.0003597 0.15993 -0.24414 0.001544 0.00053507
-0.00026544 0.0023587 -0.0014987 0.00040522
-0.0010352 -0.0031786 -0.0013572 0.00091343 0.0015423 0.00052837 0.20524 -0.098147
0.00038924 0.0071633 -0.0017032 -0.001475
-0.0011116 0.00095181 -7.2563e-05 0.0012487 -0.00027192 0.0023672 0.00042087 0.0071659
0.24839 0.069857 0.004598 0.0036335
-0.00016232 -4.738e-05 -0.00062058 0.00056843 -0.0015172 0.00040609 -0.0017111 -0.0014409
0.0045936 0.0036327 0.27773 0.09467
1880000000 0.21696 -0.14665 0.0023707 0.0002381 -0.00046717 0.0021162 -0.0028222 -0.0022121
-0.00018227 0.0018638 0.00019631 -0.00046807
0.002369 0.00024168 0.26222 0.12611 -0.0024839 0.0015704 -0.00026918 0.0017712
0.00060505 0.0013505 3.5475e-05 0.00095701
-0.00045314 0.0021172 -0.0024856 0.0015911 0.10811 -0.25372 0.0018709 -0.00087068
0.0015667 0.0020529 -0.0011326 0.0013543
-0.0028327 -0.0021669 -0.00025886 0.0017806 0.0018669 -0.00087442 0.16385 -0.1379
0.0011635 0.0053519 -0.0023736 0.00039639
-0.00016663 0.0018723 0.00061647 0.0013531 0.0015858 0.0020516 0.0011761 0.0053446
0.25197 0.038081 0.0048627 0.0013738
0.00019027 -0.00048637 5.1677e-05 0.0009581 -0.0011055 0.0013844 -0.0023593 0.00039139
0.0048661 0.0013761 0.27717 0.060796
1940000000 0.17756 -0.17214 -9.8713e-05 -0.0013693 0.0014224 0.0022595 -0.0037649 0.00044463
0.0013609 0.0011776 -0.00040378 -0.00051468
-9.3823e-05 -0.0013621 0.26275 0.094323 -0.0014806 0.0041636 0.001072 0.001399
0.0019254 0.0005611 0.00098758 0.00044865
0.0014222 0.0022553 -0.0014541 0.0041803 0.061494 -0.24649 0.00055521 -0.0022073
0.0025354 0.00043953 0.00052302 0.001812
-0.0037617 0.00044944 0.001097 0.0014002 0.00056762 -0.0021975 0.11098 -0.16798
0.00033026 0.0040569 -0.0013404 0.0017785
0.00138 0.0011698 0.0019308 0.00054556 0.0025337 0.00043582 0.00032996 0.0040596
0.25455 -0.00023193 0.0035567 -0.0016615
-0.00042292 -0.00050269 0.00098677 0.00042916 0.00053479 0.0018105 -0.0013523 0.0017906
0.0035511 -0.0016763 0.26598 0.02426
2000000000 0.13172 -0.18686 -0.0038527 0.00068445 0.0025911 0.0015492 -0.0024682 0.0037428
0.001231 0.00044072 -0.00053066 0.00050417
-0.00385 0.00067973 0.24871 0.058642 -0.00084438 0.0059021 0.0015276 0.00043742
0.001378 -0.0011434 0.00063718 0.00013268
0.0025885 0.001542 -0.00080223 0.0059109 0.01896 -0.23228 -0.0013368 -0.0014318
0.0021845 -0.0012016 0.0018854 0.0012637
-0.0024313 0.0037919 0.0015209 0.00043443 -0.0013343 -0.0014488 0.057776 -0.17728
-0.00089743 0.0038528 -4.3632e-05 0.0019759
0.0012235 0.00043637 0.0013741 -0.0011584 0.0021853 -0.0012099 -0.00088453 0.00385
0.24948 -0.033462 0.00073943 -0.0026809
