!Keysight Technologies,M9804A,MY58100912,A.14.10.03
!Date: Thursday, April 27, 2023 10:28:33
!Correction: S11(C  6-Port  ) 
!S12(C  6-Port  ) 
!S13(C  6-Port  ) 
!S14(C  6-Port  ) 
!S15(C  6-Port  ) 
!S16(C  6-Port  ) 
!S21(C  6-Port  ) 
!S22(C  6-Port  ) 
!S23(C  6-Port  ) 
!S24(C  6-Port  ) 
!S25(C  6-Port  ) 
!S26(C  6-Port  ) 
!S31(C  6-Port  ) 
!S32(C  6-Port  ) 
!S33(C  6-Port  ) 
!S34(C  6-Port  ) 
!S35(C  6-Port  ) 
!S36(C  6-Port  ) 
!S41(C  6-Port  ) 
!S42(C  6-Port  ) 
!S43(C  6-Port  ) 
!S44(C  6-Port  ) 
!S45(C  6-Port  ) 
!S46(C  6-Port  ) 
!S51(C  6-Port  ) 
!S52(C  6-Port  ) 
!S53(C  6-Port  ) 
!S54(C  6-Port  ) 
!S55(C  6-Port  ) 
!S56(C  6-Port  ) 
!S61(C  6-Port  ) 
!S62(C  6-Port  ) 
!S63(C  6-Port  ) 
!S64(C  6-Port  ) 
!S65(C  6-Port  ) 
!S66(C  6-Port  ) 
!S6P File: Measurement: :
# Hz S  RI   R 50
500000000 -0.33457 -0.050735 -0.0099645 -0.0011357 -0.0089185 0.013343 -0.004003 0.012516
0.01208 0.0056609 -0.0037574 0.0090617
-0.0099424 -0.0011197 -0.41692 -0.061632 0.0080484 -0.010222 0.0013803 0.01242
0.0079629 0.0032724 0.0016462 0.014759
-0.0089066 0.01336 0.0080227 -0.010231 -0.26641 0.2006 0.0070962 0.0035557
-0.0014904 0.0088613 0.0013864 0.012446
-0.0040026 0.012443 0.0014213 0.012445 0.0071069 0.0035957 -0.33129 0.044984
-0.018187 -0.0044861 0.016768 0.025609
0.012061 0.0054647 0.0079142 0.0031946 -0.0015438 0.0088181 -0.018196 -0.0044242
-0.25004 -0.1916 -0.026582 0.0047334
-0.0039545 0.0090505 0.0016894 0.01466 0.0013874 0.012448 0.016977 0.025627
-0.026657 0.0047859 -0.27235 -0.11613
560000000 -0.31753 0.11446 -0.023114 -0.064873 0.00024891 0.012895 0.0056513 0.01072
0.010157 0.0056162 0.010818 0.0084821
-0.023053 -0.064769 -0.37494 0.10112 -0.042133 -0.037395 0.013425 0.0029953
-0.013584 -0.0040589 0.0041837 -0.0010444
0.00027221 0.012895 -0.042282 -0.03735 -0.18577 0.25119 0.00018854 -0.0043156
0.018945 0.004538 0.0082886 -0.0047949
0.0056052 0.010701 0.013519 0.0030154 0.00016156 -0.0043069 -0.30654 0.13622
0.0066873 -0.023638 0.0044677 -0.021353
0.010315 0.0055281 -0.013597 -0.004184 0.018974 0.0044933 0.0065769 -0.023651
-0.31114 -0.013183 0.0089529 -0.048315
0.010873 0.0083434 0.00427 -0.0010292 0.0082001 -0.0048942 0.0044287 -0.021374
0.0090734 -0.048469 -0.33281 0.029205
620000000 -0.27726 0.094855 -0.022893 0.0086079 0.0039251 0.0093204 0.0085272 -0.0048939
0.012399 -0.0016175 0.00062423 -0.0031918
-0.022867 0.0085959 -0.40324 0.050419 -0.018186 0.00071885 -0.0014165 -0.0022387
0.012092 -0.0061701 0.001209 -0.0034706
0.0039646 0.0093102 -0.018207 0.00075756 -0.15503 0.2614 -0.0007641 -0.0051006
-0.0032505 -0.0032181 0.0092416 -0.0030594
0.0085951 -0.0048926 -0.0013918 -0.0022503 -0.00073317 -0.0050693 -0.26443 0.14801
-0.037982 -0.021234 0.013148 0.026401
0.012443 -0.0016218 0.012067 -0.0062061 -0.0031487 -0.0032358 -0.037798 -0.021339
-0.23198 -0.042357 -0.039271 0.011429
0.00065122 -0.0027977 0.0012607 -0.0034476 0.0092988 -0.0030303 0.013048 0.026693
-0.039255 0.011174 -0.25341 -0.0025121
680000000 -0.23855 0.18494 -0.026514 -0.014382 0.0050529 0.0054922 0.0012102 -0.0073638
-0.0022961 -0.012126 0.0044551 -0.007121
-0.026516 -0.014379 -0.38976 0.15101 -0.032497 -0.0017545 -0.0012584 -0.00053763
-0.0020135 -0.0096991 -0.0012918 -0.0017455
0.0050393 0.0054785 -0.032521 -0.0016881 -0.10358 0.28156 -0.00089352 -0.00047457
-0.001798 0.00037297 -0.0029478 -0.009217
0.0012279 -0.0073635 -0.0012215 -0.00054412 -0.00091391 -0.00047688 -0.22071 0.19679
-0.02293 -0.0074592 -0.0091538 -0.011157
-0.0023449 -0.012133 -0.0021406 -0.0096521 -0.0018254 0.00038513 -0.022906 -0.0074928
-0.27792 0.057716 -0.0063841 -0.0071175
0.0043877 -0.0072332 -0.0013395 -0.001822 -0.0029994 -0.0093192 -0.0091179 -0.011352
-0.006351 -0.0071518 -0.25958 0.096105
740000000 -0.19306 0.17838 -0.040049 0.026847 0.013422 -0.0049812 -0.00037575 -0.0042921
-0.0048053 -0.0029479 -0.0061434 0.0032049
-0.040037 0.026806 -0.33487 0.16917 -0.036528 0.035032 -0.00015823 -0.0056738
-0.01287 0.0069808 -0.0014302 -0.0056906
0.013411 -0.0050034 -0.036459 0.035164 -0.06983 0.2789 -0.0021549 0.0032857
-0.0023368 -0.0053009 -0.0015902 0.0007751
-0.00034193 -0.0042534 -0.00018323 -0.005694 -0.0021529 0.0033016 -0.20308 0.20483
-0.042911 -0.0080183 0.022127 0.014758
-0.0047735 -0.0028412 -0.012883 0.0069851 -0.0022658 -0.0054061 -0.042873 -0.0078985
-0.17852 0.083926 -0.041448 -0.00043713
-0.0061497 0.0032411 -0.0013861 -0.0055526 -0.0015661 0.00087154 0.02211 0.014738
-0.041486 -0.00046335 -0.24749 0.10547
800000000 -0.16108 0.22214 -0.022544 0.016299 0.0058641 -0.010389 -0.0046963 -0.0021998
-0.0043513 0.0025854 0.004246 0.001051
-0.022534 0.016259 -0.3407 0.24014 -0.0084406 0.034057 -0.0022634 0.0020943
-0.00094916 0.0027879 0.00074798 0.0056506
0.0058462 -0.010401 -0.0083475 0.034113 -0.030609 0.30262 0.00081339 0.0014156
0.00022278 0.0036343 -0.0018886 0.00092259
-0.0046679 -0.0021664 -0.0022572 0.0021029 0.00081457 0.0014089 -0.17349 0.23216
-0.028482 0.012908 0.013537 -0.010122
-0.0043416 0.0025008 -0.00093808 0.002755 0.00023525 0.0036333 -0.028527 0.012951
-0.21882 0.11247 -0.016885 0.019618
0.0041896 0.0010492 0.00071394 0.0055921 -0.0019726 0.00082582 0.013612 -0.010299
-0.016919 0.019571 -0.23929 0.15434
860000000 -0.12663 0.24159 -0.017932 0.03042 -0.0030743 -0.010201 -0.0019618 0.00068359
0.0037351 0.0050026 -0.003449 -0.0025239
-0.017951 0.030374 -0.29246 0.2827 0.0073515 0.034324 -3.0448e-05 0.0019861
0.0033488 0.00059116 0.0032768 0.00061332
-0.0031004 -0.010194 0.0074506 0.034334 0.016783 0.31085 -0.00078384 -0.00016774
0.0023412 -0.0015339 0.0016762 0.0042384
-0.0019683 0.00066015 -8.3401e-06 0.0019873 -0.00075378 -0.0001621 -0.13792 0.24295
-0.017845 0.017714 -0.0067545 -0.0087473
0.0036908 0.0049948 0.0033444 0.00059994 0.0023258 -0.0015424 -0.017831 0.017708
-0.16504 0.16213 -0.023591 0.016965
-0.0033306 -0.002532 0.0033113 0.00047211 0.0017311 0.0042403 -0.0069617 -0.0085883
-0.023552 0.016956 -0.18886 0.19788
920000000 -0.10303 0.26496 0.0045301 0.038215 -0.0093417 -0.0049413 -0.0020564 0.0018527
0.0012226 0.0021274 0.0029015 -0.0014361
0.0045006 0.038185 -0.26522 0.30405 0.027933 0.022664 0.0015042 0.0012636
0.0076232 -0.00027653 0.0041035 -0.0027826
-0.0093553 -0.0049177 0.028021 0.022611 0.062261 0.31233 0.0018686 9.1734e-05
0.0010585 -0.00026466 0.00099733 -0.0012118
-0.0020682 0.0018591 0.0014954 0.0012561 0.0018685 0.00010549 -0.11276 0.25933
-0.011035 0.030736 0.0031415 -0.0065345
0.0011846 0.002051 0.0076461 -0.00035461 0.0010842 -0.00026485 -0.011072 0.030699
-0.15209 0.16902 -0.0014612 0.026576
0.0029134 -0.0014176 0.0041353 -0.0028117 0.00099261 -0.0011895 0.0032023 -0.0066455
-0.0014711 0.026548 -0.19431 0.21211
980000000 -0.056435 0.285 0.016847 0.030247 -0.0094821 0.0042722 0.0018842 0.003658
0.0041219 -0.0016057 -0.0030739 -0.0025469
0.016813 0.030199 -0.21211 0.33881 0.033253 0.0054091 0.0020178 -0.00012751
0.0017964 -0.0059845 -0.00032159 -0.0023104
-0.0094617 0.0042928 0.033285 0.0053081 0.1081 0.30649 0.00064858 -0.001183
0.00049385 -0.0018614 0.0015049 -0.00026664
0.0018958 0.0036438 0.00204 -0.00011749 0.00064729 -0.001177 -0.074678 0.27077
0.007084 0.029829 -0.0088647 -0.0068304
0.0041407 -0.0016025 0.001838 -0.0059979 0.00048343 -0.0018766 0.0072069 0.029844
-0.11926 0.198 0.0060373 0.019846
-0.0030391 -0.0025637 -0.00036835 -0.0023326 0.0015077 -0.00029666 -0.0089342 -0.0067091
0.0060548 0.019855 -0.15094 0.25492
1040000000 -0.015054 0.29426 0.032818 0.019049 -0.0015153 0.0070167 0.0027555 0.00087309
0.00062955 -0.0034854 4.2783e-05 -0.0016339
0.03274 0.019017 -0.17715 0.35216 0.029975 -0.014509 0.0016378 -0.0017702
-0.0018473 -0.0027561 -0.0010287 -0.0029477
-0.0014947 0.0070141 0.029934 -0.014606 0.1539 0.2936 -0.00048943 -0.0016208
-0.0014753 -0.00099283 -0.00054361 -0.0010444
0.002766 0.00086242 0.0016568 -0.0017659 -0.00049017 -0.0016251 -0.047193 0.28032
0.019226 0.018654 -0.002609 0.0013118
0.00060966 -0.0034898 -0.0018471 -0.0027133 -0.001476 -0.00097789 0.019262 0.018607
-0.08576 0.20459 0.014248 0.017556
-1.5158e-05 -0.0015674 -0.0010938 -0.0029672 -0.0005371 -0.0010329 -0.0025333 0.0012886
0.014249 0.017562 -0.12853 0.27536
1100000000 0.03011 0.30298 0.036337 -0.0034986 0.0028051 0.0040785 0.0024515 -0.0012575
-0.0022044 -0.0031167 -0.0040447 -0.00025412
0.03628 -0.0034847 -0.13383 0.37019 0.015863 -0.027861 0.00014435 -0.001897
-0.0037605 -0.00091809 -0.0035914 -0.00063873
0.002825 0.004068 0.015772 -0.027947 0.20012 0.27421 -0.0019267 7.0933e-05
-0.0016935 0.00046529 -0.001066 -0.00052833
0.0024555 -0.0012824 0.00015112 -0.0018901 -0.0019431 7.5722e-05 -0.0068819 0.28542
0.024562 0.0053308 -0.0023735 0.00030944
-0.002223 -0.0031057 -0.0037473 -0.00088315 -0.0017014 0.00045977 0.02458 0.0053095
-0.064857 0.21723 0.019381 0.00773
-0.0040658 -0.00027819 -0.0035971 -0.00064171 -0.0010764 -0.00052785 -0.0024149 0.00030941
0.019362 0.0077315 -0.082036 0.30298
1160000000 0.081016 0.29893 0.02455 -0.020516 0.002778 -0.00039764 -3.6817e-05 -0.0024584
-0.0039942 -0.0007544 -0.00092151 0.0039277
0.024516 -0.020501 -0.090468 0.3748 -0.0033249 -0.029567 -0.0016447 -0.0016652
-0.0027077 0.0026302 -0.0015512 0.0018092
0.0027829 -0.00039295 -0.0034516 -0.029569 0.2433 0.2441 -0.0008336 0.0017321
-0.00051612 0.0018507 -0.00093216 0.0003115
-4.2398e-05 -0.0024595 -0.0016353 -0.0016424 -0.0008338 0.0017307 0.032257 0.28275
0.02081 -0.010075 -0.0029715 0.0050898
-0.0039794 -0.00074026 -0.0027047 0.0026667 -0.00052923 0.0018625 0.020829 -0.010094
-0.030317 0.22477 0.018142 -0.00050169
-0.00088208 0.0039424 -0.0015412 0.0018286 -0.00092336 0.00031687 -0.0029223 0.0050857
0.018157 -0.00052853 -0.035957 0.30526
1220000000 0.12527 0.28906 0.011107 -0.030122 -0.0015963 -0.00086063 -7.5301e-05 -0.00093326
-0.0027019 0.0021868 0.001133 0.0021161
0.011103 -0.030101 -0.046447 0.38784 -0.016878 -0.02186 -0.002713 0.0004829
-4.1415e-05 0.0030933 -0.00077919 0.0019253
-0.0016041 -0.00086705 -0.016991 -0.021817 0.28263 0.2057 0.00075632 0.0017109
0.00057911 0.0012148 0.00025009 0.00052261
-7.5369e-05 -0.00094158 -0.0027123 0.00049477 0.00075751 0.0017114 0.072345 0.27443
0.010769 -0.016877 0.0021351 0.0016432
-0.0026879 0.0022174 -3.3239e-05 0.0031247 0.00057237 0.0011975 0.010736 -0.016881
-0.0058569 0.23316 0.013398 -0.013107
0.0011596 0.0021182 -0.00076307 0.0019211 0.00024088 0.00053123 0.0021258 0.0016446
0.013384 -0.013096 -0.00353 0.31973
1280000000 0.17552 0.26834 -0.0075792 -0.02888 -0.0019872 0.0024253 -0.00092536 -0.0020476
-0.000724 0.0030868 0.0024797 0.0012519
-0.0075665 -0.028852 -0.00045371 0.37943 -0.024169 -0.0089852 -0.00094085 0.0014557
0.0018461 0.0016426 0.00060826 0.0019331
-0.0019727 0.0024471 -0.024227 -0.0088944 0.31338 0.16218 0.0015316 -6.1549e-05
0.0011709 0.0002311 0.00037574 0.00020433
-0.00093211 -0.0020386 -0.00094393 0.0014481 0.0015278 -5.7415e-05 0.10935 0.25826
0.00101 -0.019091 -1.2807e-05 0.00024803
-0.00070897 0.0030702 0.0018541 0.0016405 0.0011589 0.00024141 0.0010022 -0.019092
0.030936 0.23562 0.002657 -0.015289
0.002478 0.0012494 0.00062194 0.0019644 0.00039368 0.00020149 -1.3431e-05 0.00024675
0.0026575 -0.015281 0.042938 0.32068
1340000000 0.21288 0.23537 -0.017518 -0.019298 0.00082488 0.0047412 -0.0018643 -0.00085736
0.001422 0.002588 0.0017513 -0.0014118
-0.0175 -0.019292 0.039059 0.37192 -0.022008 0.0040544 -8.654e-05 0.0020559
0.0019978 0.00075073 0.0012652 0.00086359
0.00084709 0.0047361 -0.022015 0.0041589 0.33567 0.11506 0.001053 -0.00094092
0.0006919 -0.00058377 5.1771e-05 0.0002406
-0.0018771 -0.00085277 -6.9025e-05 0.0020563 0.0010508 -0.00093481 0.14275 0.23778
-0.0082586 -0.016416 0.00086169 0.00038289
0.0014279 0.0026087 0.0020047 0.00074049 0.00070302 -0.00059757 -0.0083128 -0.016411
0.060762 0.23057 -0.0037951 -0.013798
0.0017726 -0.0014087 0.0012606 0.00082931 4.092e-05 0.00023134 0.00088045 0.00041781
-0.0037966 -0.013808 0.081078 0.31498
1400000000 0.24675 0.19791 -0.023573 -0.0077016 0.0052801 0.0033408 -0.0022083 0.00066314
0.0024203 0.0010029 0.00028763 -0.0015982
-0.023544 -0.0077018 0.076727 0.35958 -0.015367 0.012555 0.0013211 0.0013019
0.0012691 -0.00083959 0.0011031 8.8101e-05
0.0052936 0.0033232 -0.015327 0.01264 0.34923 0.061761 7.7273e-06 -0.0015741
4.6296e-05 -0.00032019 0.00030669 0.00014586
-0.0022167 0.00067766 0.0013315 0.0012918 9.8881e-06 -0.0015772 0.17259 0.20874
-0.014244 -0.0096809 -0.00071539 -0.00035219
0.0024222 0.00099466 0.0012573 -0.00084361 3.0502e-05 -0.00031294 -0.01428 -0.0096528
0.094275 0.2255 -0.010217 -0.0085738
0.0002674 -0.0016011 0.0011256 0.0001028 0.0003217 0.00016511 -0.00068804 -0.00037969
-0.01021 -0.0085774 0.12509 0.30349
1460000000 0.27005 0.15418 -0.020488 0.004666 0.0058617 -0.0017311 -0.0015331 0.0017881
0.0021583 -0.00037343 -0.00041547 -0.0010216
-0.020464 0.004649 0.11126 0.33797 -0.0063563 0.015812 0.0016791 0.00017812
0.00077685 -0.0013819 0.0012192 -0.00053108
0.0058511 -0.0017486 -0.0062868 0.015851 0.3557 0.0077078 -0.0011648 -0.0012493
7.1641e-05 -0.00021441 0.00062652 -0.00023926
-0.0015289 0.0017925 0.0016786 0.00016957 -0.0011707 -0.0012496 0.19928 0.17916
-0.015488 -0.003143 -0.00083903 0.0018338
0.002149 -0.00036386 0.00077562 -0.0013891 8.4603e-05 -0.00022014 -0.015488 -0.0031526
0.12359 0.21066 -0.011877 -0.0027028
-0.00040411 -0.00099668 0.0012216 -0.000542 0.00061891 -0.0002563 -0.000875 0.0018509
-0.011858 -0.0027123 0.15791 0.28262
1520000000 0.28267 0.11271 -0.01489 0.010287 0.0035385 -0.004244 0.00016505 0.0025331
0.0020619 -0.0019655 -0.0011158 -0.00014242
-0.014883 0.010267 0.14515 0.32375 0.0015873 0.013551 0.0016267 -0.00074259
1.8028e-05 -0.0010596 0.00038373 -0.0010195
0.0035223 -0.0042571 0.0016631 0.013552 0.34929 -0.048017 -0.0010599 -0.00033799
0.00062743 -0.00077149 0.0001612 -0.00016747
0.0001584 0.0025327 0.0016242 -0.00075453 -0.0010568 -0.00033896 0.22288 0.14073
-0.014756 0.0025862 0.0013696 0.0019633
0.0020511 -0.0019814 1.7358e-05 -0.001059 0.00062269 -0.00077094 -0.014767 0.0026605
0.15181 0.19699 -0.01176 0.0017331
-0.0011341 -0.00013942 0.00038862 -0.0010293 0.00015938 -0.00014997 0.0014278 0.001949
-0.011776 0.0017442 0.19074 0.26164
1580000000 0.29276 0.066449 -0.0081502 0.013476 -0.00088743 -0.0051363 0.0015068 0.0019088
-0.00017401 -0.0021162 -0.00025186 0.0003915
-0.0081554 0.013462 0.17282 0.29906 0.0055176 0.0084879 0.00054043 -0.0015549
-0.00054649 -0.0010374 -0.00019109 -0.0008529
-0.00091146 -0.0051425 0.0055699 0.0084721 0.32995 -0.10559 -0.0015842 0.00053532
-0.00035392 -0.0012649 0.00021113 -0.00052298
0.0015344 0.0018956 0.00053063 -0.0015538 -0.0015863 0.00053355 0.23676 0.10054
-0.01145 0.0074061 0.002151 0.00071756
-0.0001742 -0.002118 -0.00056106 -0.0010147 -0.00035246 -0.0012564 -0.011418 0.0074272
0.17594 0.17861 -0.0091935 0.0073978
-0.00024244 0.00036613 -0.00021527 -0.00086094 0.00019916 -0.0005421 0.0021068 0.00069569
-0.0091585 0.0073887 0.22206 0.23443
1640000000 0.2951 0.02536 -0.0013808 0.012332 -0.002923 -0.0027471 0.0026626 0.0010265
-0.00074345 -0.0016097 -0.00028589 0.00055231
-0.0013811 0.012312 0.20267 0.27428 0.0061724 0.0034209 -0.00058641 -0.001748
-0.0009303 -0.00039427 -0.00050614 -0.00069773
-0.0029422 -0.0027318 0.0062076 0.0033934 0.30168 -0.15531 -0.00066358 0.0013975
-0.00098068 -0.00095252 -0.0001902 -0.00032451
0.0026664 0.0010261 -0.00059451 -0.0017446 -0.0006673 0.0013987 0.249 0.051245
-0.0072491 0.0087496 0.0023893 -0.0008273
-0.00076305 -0.0016062 -0.00093237 -0.00038667 -0.0009816 -0.0009456 -0.0072639 0.0087605
0.19897 0.15455 -0.0046171 0.0092749
-0.0002579 0.00055719 -0.0005046 -0.00070581 -0.00021759 -0.00032607 0.0024122 -0.00078974
-0.0046231 0.0092542 0.24735 0.20335
1700000000 0.28819 -0.019925 0.0020255 0.0094985 -0.0036553 -1.7795e-05 0.0031023 -0.0012223
-0.0019792 -0.00062103 0.00063562 0.00037076
0.0020127 0.0094839 0.22112 0.24282 0.0040875 0.00044143 -0.0014566 -0.00067204
-0.00082383 -1.6318e-05 -0.000852 -0.00045708
-0.0036551 -3.787e-06 0.0040988 0.00041228 0.25862 -0.19499 0.00038992 0.0015243
-0.0018956 -0.0002034 -0.00043627 -0.00082947
0.0030994 -0.0012346 -0.0014619 -0.00066916 0.00039466 0.0015258 0.24552 0.0009173
-0.0044862 0.0093312 0.0015339 -0.0021961
-0.0019769 -0.00062933 -0.00082826 -1.6152e-05 -0.0019162 -0.00019245 -0.0044284 0.00936
0.21637 0.13381 -5.8451e-05 0.0095698
0.00061701 0.00036269 -0.00087358 -0.00043993 -0.00040905 -0.00080999 0.0015044 -0.0022529
-2.3153e-05 0.0095776 0.26343 0.16888
1760000000 0.27644 -0.068639 0.0043903 0.0062362 -0.0024234 0.0010774 0.0012953 -0.0033629
-0.0014261 0.00058726 0.00029142 -0.00049792
0.0043843 0.0062322 0.24733 0.20297 0.0017268 -0.0013873 -0.0011787 9.834e-05
-0.0010815 0.0008324 -0.00067218 0.00039146
-0.0024123 0.001095 0.0017192 -0.0014123 0.21013 -0.22799 0.0011552 0.0011323
-0.001295 0.0014157 -0.0011467 -0.00069186
0.0012808 -0.0033651 -0.0011884 0.00010449 0.0011538 0.0011436 0.23582 -0.051032
-0.0011891 0.0085461 -0.0002815 -0.0024932
-0.0014169 0.0006258 -0.0010667 0.00085888 -0.0012739 0.001415 -0.0011893 0.0085345
0.23125 0.098973 0.0038043 0.0069305
0.0002986 -0.00052451 -0.00066682 0.00036513 -0.0011739 -0.00070213 -0.00026551 -0.0024733
0.0037911 0.0069094 0.27601 0.13138
1820000000 0.25216 -0.10602 0.0045222 0.0025737 -0.00034152 0.0024175 -0.001048 -0.003202
-0.0011369 0.00095888 -0.00015037 -3.5059e-05
0.0045188 0.0025697 0.25762 0.17281 -0.00060765 -0.00038379 -0.0013837 0.00089053
-9.3694e-05 0.0012541 -0.0006362 0.00055171
-0.00033749 0.0024142 -0.00061173 -0.00038039 0.15992 -0.2441 0.0014944 0.00052322
-0.00028252 0.0023588 -0.0014921 0.00039154
-0.0010655 -0.0031826 -0.0013879 0.0009001 0.0014982 0.00053214 0.20519 -0.098094
0.00036962 0.0071664 -0.0016979 -0.0014602
-0.0011343 0.00093786 -8.3781e-05 0.0012492 -0.00029658 0.0023938 0.00036268 0.0071787
0.24832 0.069984 0.0046023 0.0036323
-0.00015662 -3.1254e-05 -0.00062517 0.00057454 -0.0014274 0.00040765 -0.0016807 -0.0014488
0.0046096 0.0036334 0.27769 0.094714
1880000000 0.217 -0.14662 0.0023729 0.000245 -0.00047124 0.0021081 -0.0028348 -0.0021689
-0.00020485 0.0018791 0.00023564 -0.0005052
0.002362 0.00025445 0.26219 0.12613 -0.0024818 0.00156 -0.00024574 0.0017653
0.00060712 0.0013396 5.9682e-05 0.00098776
-0.00044894 0.0021227 -0.0024777 0.0015788 0.10805 -0.25378 0.0018591 -0.00085933
0.0015471 0.0020599 -0.0011031 0.001342
-0.0028447 -0.0021744 -0.00023765 0.0017727 0.0018697 -0.00086605 0.16389 -0.13791
0.0011016 0.005335 -0.0022885 0.00041467
-0.000202 0.0018909 0.00062212 0.001343 0.0015473 0.0020399 0.0011532 0.0053277
0.25194 0.038161 0.0048709 0.001343
0.00020811 -0.00048845 5.7795e-05 0.0009681 -0.0011121 0.0013256 -0.002329 0.00039292
0.0048573 0.0013057 0.27722 0.060951
1940000000 0.17755 -0.17209 -9.3856e-05 -0.0013794 0.0013951 0.002218 -0.0037707 0.00039862
0.0013374 0.0011911 -0.0004587 -0.0004956
-0.00010103 -0.0013751 0.26277 0.094342 -0.0014546 0.0041844 0.0010606 0.0014261
0.0019212 0.00060672 0.0010133 0.00041538
0.0014145 0.0022094 -0.0014301 0.0041945 0.061574 -0.24647 0.00054195 -0.0021346
0.0025515 0.0004842 0.00059406 0.001773
-0.0037564 0.0004089 0.0010827 0.001422 0.00057438 -0.002139 0.11089 -0.16809
0.00037049 0.0040477 -0.0013641 0.0017673
0.0013876 0.0011513 0.0019426 0.0005807 0.0025518 0.00049809 0.00031469 0.0040966
0.25456 -0.00014721 0.0035774 -0.0016891
-0.00047564 -0.00049775 0.00099732 0.00044381 0.00063232 0.001784 -0.0013448 0.0018084
0.0035486 -0.0016601 0.26591 0.024351
2000000000 0.13166 -0.18687 -0.003879 0.0006723 0.0025966 0.0015309 -0.0024568 0.003794
0.0012942 0.00038212 -0.00052362 0.00051858
-0.003873 0.00066282 0.24872 0.058629 -0.00084631 0.0059082 0.0015655 0.00041573
0.0014311 -0.0011442 0.00064325 0.00017517
0.0026007 0.0015236 -0.00080794 0.0059236 0.018905 -0.23224 -0.0013752 -0.0014648
0.0021837 -0.0012328 0.0019077 0.00124
-0.0024309 0.0037963 0.0015814 0.0004205 -0.0013693 -0.0014566 0.057768 -0.17712
-0.0010303 0.0038552 2.4057e-05 0.0019375
0.0012726 0.00043192 0.0014124 -0.0011422 0.0021961 -0.0012273 -0.00095519 0.0038941
0.24942 -0.033343 0.00070039 -0.0026345
