!Keysight Technologies,M9804A,MY58100912,A.14.10.03
!Date: Thursday, April 27, 2023 10:28:33
!Correction: S11(C  6-Port  ) 
!S12(C  6-Port  ) 
!S13(C  6-Port  ) 
!S14(C  6-Port  ) 
!S15(C  6-Port  ) 
!S16(C  6-Port  ) 
!S21(C  6-Port  ) 
!S22(C  6-Port  ) 
!S23(C  6-Port  ) 
!S24(C  6-Port  ) 
!S25(C  6-Port  ) 
!S26(C  6-Port  ) 
!S31(C  6-Port  ) 
!S32(C  6-Port  ) 
!S33(C  6-Port  ) 
!S34(C  6-Port  ) 
!S35(C  6-Port  ) 
!S36(C  6-Port  ) 
!S41(C  6-Port  ) 
!S42(C  6-Port  ) 
!S43(C  6-Port  ) 
!S44(C  6-Port  ) 
!S45(C  6-Port  ) 
!S46(C  6-Port  ) 
!S51(C  6-Port  ) 
!S52(C  6-Port  ) 
!S53(C  6-Port  ) 
!S54(C  6-Port  ) 
!S55(C  6-Port  ) 
!S56(C  6-Port  ) 
!S61(C  6-Port  ) 
!S62(C  6-Port  ) 
!S63(C  6-Port  ) 
!S64(C  6-Port  ) 
!S65(C  6-Port  ) 
!S66(C  6-Port  ) 
!S6P File: Measurement: :
# Hz S  RI   R 50
500000000 -0.33462 -0.050621 -0.0099329 -0.0010685 -0.0089111 0.013341 -0.0039959 0.012464
0.012087 0.0054981 -0.0040402 0.0090729
-0.0099029 -0.0010419 -0.41691 -0.061626 0.0080546 -0.010223 0.0014278 0.012427
0.0078712 0.0032567 0.0016483 0.0147
-0.0088782 0.013358 0.008037 -0.010247 -0.26643 0.20057 0.0071238 0.003617
-0.0015396 0.0088341 0.0013881 0.012455
-0.0039555 0.01245 0.0014359 0.012442 0.007125 0.0036269 -0.3314 0.045046
-0.018188 -0.0045823 0.016962 0.025777
0.012086 0.005536 0.0078962 0.0032225 -0.001541 0.0088315 -0.018175 -0.0045749
-0.24991 -0.19153 -0.026597 0.0048704
-0.0038859 0.0090406 0.0016751 0.014692 0.0013907 0.012507 0.016875 0.025712
-0.02665 0.0047992 -0.27215 -0.11579
560000000 -0.31759 0.11429 -0.023134 -0.064889 0.00023396 0.012892 0.0055595 0.010683
0.010245 0.00559 0.010834 0.0083819
-0.023133 -0.064782 -0.37501 0.10109 -0.042177 -0.037386 0.013536 0.0030347
-0.01358 -0.0042292 0.0042344 -0.0010134
0.00028072 0.012892 -0.042316 -0.037349 -0.18579 0.25114 0.00015783 -0.0043046
0.019014 0.0044205 0.0081923 -0.0048919
0.0055485 0.0107 0.013528 0.0030423 0.0001693 -0.0043015 -0.30652 0.13631
0.0066243 -0.023709 0.0043331 -0.02132
0.010208 0.0055815 -0.013622 -0.0041639 0.019034 0.0043872 0.0066281 -0.023691
-0.31102 -0.013145 0.0089162 -0.04836
0.010831 0.0083863 0.0042309 -0.00099978 0.0082305 -0.0049063 0.0043334 -0.021369
0.0088955 -0.048325 -0.33288 0.029034
620000000 -0.27727 0.094846 -0.022859 0.0086102 0.0039747 0.0093024 0.0086173 -0.0048874
0.012384 -0.0016088 0.00064819 -0.0028164
-0.022851 0.0086033 -0.40325 0.050403 -0.018203 0.00067949 -0.0013729 -0.0022356
0.012065 -0.0061872 0.0012927 -0.0034135
0.004042 0.0092869 -0.01821 0.00073226 -0.15502 0.26134 -0.00071045 -0.005096
-0.0032024 -0.003223 0.0092906 -0.0030107
0.0086499 -0.004927 -0.0013901 -0.0022449 -0.00071479 -0.0051181 -0.26454 0.14787
-0.037727 -0.021227 0.013019 0.026645
0.01239 -0.0016378 0.012043 -0.0062188 -0.0032138 -0.0032223 -0.037708 -0.021236
-0.23222 -0.042475 -0.03905 0.010987
0.00065569 -0.0029667 0.0012471 -0.003438 0.0092437 -0.0030812 0.013039 0.026551
-0.039128 0.011153 -0.25355 -0.0027392
680000000 -0.23855 0.18503 -0.026538 -0.014338 0.0050527 0.0055415 0.0012212 -0.0073729
-0.0022728 -0.012149 0.0044213 -0.007212
-0.026462 -0.014305 -0.38975 0.15101 -0.032483 -0.0017507 -0.0012339 -0.00054787
-0.0020849 -0.0096703 -0.0013458 -0.0018396
0.0050578 0.0055124 -0.032537 -0.0016621 -0.10357 0.28158 -0.00091438 -0.00046097
-0.0018102 0.00038042 -0.0029746 -0.0093235
0.0011885 -0.007326 -0.0012438 -0.00053465 -0.0008924 -0.00045121 -0.22074 0.19679
-0.022829 -0.0074719 -0.0090713 -0.011326
-0.002304 -0.012156 -0.002111 -0.0096809 -0.0018314 0.00035411 -0.02286 -0.0074541
-0.278 0.05773 -0.0064339 -0.0070858
0.004429 -0.0071833 -0.001321 -0.0018023 -0.0029406 -0.0093037 -0.0091016 -0.011282
-0.0064541 -0.0070799 -0.25968 0.096224
740000000 -0.193 0.17845 -0.040063 0.026861 0.013411 -0.0049535 -0.00030818 -0.0042948
-0.0047914 -0.0028574 -0.0061681 0.0032099
-0.040005 0.026842 -0.33486 0.16916 -0.036532 0.035085 -0.00017335 -0.0057067
-0.012862 0.0069405 -0.0013607 -0.0055891
0.013349 -0.0050071 -0.036474 0.03519 -0.069865 0.27889 -0.0021443 0.003273
-0.0022791 -0.0053713 -0.0015783 0.00084695
-0.0003036 -0.004259 -0.00019525 -0.0056982 -0.0021496 0.0033035 -0.20306 0.20485
-0.042951 -0.0080087 0.02211 0.014806
-0.0048298 -0.0028884 -0.012833 0.006995 -0.0022487 -0.005422 -0.042976 -0.0080179
-0.17839 0.083808 -0.04146 -0.00057042
-0.0061406 0.0032145 -0.001398 -0.0055884 -0.0016318 0.00087146 0.022124 0.014804
-0.041454 -0.0005211 -0.24763 0.10577
800000000 -0.1611 0.22211 -0.02254 0.016257 0.005857 -0.010416 -0.0046409 -0.0021675
-0.0043357 0.0024899 0.0041683 0.0010677
-0.02255 0.016228 -0.34069 0.24014 -0.008432 0.03405 -0.0022587 0.0020946
-0.00092514 0.0027461 0.0006895 0.0056098
0.0058471 -0.010412 -0.008342 0.034115 -0.030632 0.30259 0.00083674 0.0014131
0.00023319 0.0036345 -0.0019591 0.00080514
-0.0046788 -0.0021924 -0.0022626 0.0021047 0.00080647 0.0014052 -0.17349 0.23217
-0.028509 0.012889 0.01366 -0.010229
-0.0043795 0.0025408 -0.00091803 0.0027582 0.00024037 0.0036476 -0.02852 0.012956
-0.21887 0.11243 -0.016968 0.019666
0.0042582 0.0010763 0.0007287 0.0055984 -0.0019438 0.00076625 0.013645 -0.010206
-0.01693 0.019653 -0.23928 0.15398
860000000 -0.12653 0.24158 -0.017944 0.030414 -0.003076 -0.010194 -0.0019836 0.00065667
0.0036753 0.0050018 -0.0033579 -0.0025188
-0.017966 0.030363 -0.29246 0.2827 0.0073583 0.034327 -3.8825e-05 0.0019676
0.0033372 0.00063167 0.0032761 0.00049967
-0.0031097 -0.010196 0.0074536 0.034345 0.016769 0.31085 -0.00077821 -0.00016976
0.0023086 -0.0015418 0.0017195 0.0042796
-0.0019526 0.00063961 -2.2083e-05 0.0019782 -0.00076501 -0.00018936 -0.13794 0.24291
-0.017915 0.017673 -0.0069396 -0.0086014
0.0037121 0.0049954 0.0033367 0.00062343 0.0023355 -0.0015636 -0.017913 0.017749
-0.16504 0.16224 -0.023604 0.016989
-0.0033655 -0.0025299 0.0033065 0.00048937 0.0017098 0.0042588 -0.0069086 -0.0086053
-0.023567 0.01697 -0.18871 0.19818
920000000 -0.10297 0.26493 0.0045243 0.038242 -0.0093527 -0.0049491 -0.0020685 0.0018651
0.0011669 0.0020589 0.0028997 -0.0014177
0.0044933 0.038213 -0.26522 0.30407 0.027952 0.022667 0.0014834 0.0012629
0.0076397 -0.00032773 0.0041594 -0.0027848
-0.0093638 -0.0049259 0.028028 0.022618 0.062247 0.31232 0.0018614 9.1853e-05
0.0010807 -0.00026944 0.00098465 -0.0011902
-0.0020789 0.0018681 0.0014877 0.001263 0.0018705 7.6711e-05 -0.11284 0.25932
-0.011112 0.030672 0.0032182 -0.0066355
0.0012024 0.0020758 0.0076319 -0.00035507 0.001081 -0.0002665 -0.011077 0.030732
-0.15222 0.16909 -0.0014708 0.026595
0.0029202 -0.0014256 0.0041392 -0.0027944 0.00099005 -0.0012207 0.0031947 -0.0066176
-0.0014655 0.026567 -0.19434 0.21208
980000000 -0.056383 0.28492 0.016856 0.030234 -0.0094725 0.004271 0.0018791 0.0036608
0.0041435 -0.0015751 -0.0030178 -0.0025766
0.01678 0.030237 -0.21212 0.33882 0.033268 0.005401 0.0020285 -0.00013361
0.0018776 -0.0059725 -0.00037171 -0.0023124
-0.0094686 0.0042919 0.033297 0.005303 0.10809 0.30651 0.0006468 -0.0011757
0.00049244 -0.0018691 0.0015155 -0.00030169
0.0018883 0.0036308 0.0020326 -0.00012475 0.00064181 -0.0011802 -0.074673 0.27076
0.0071198 0.02986 -0.0089128 -0.0067375
0.004138 -0.0016137 0.001839 -0.005987 0.00048919 -0.0018666 0.0071848 0.029855
-0.11932 0.19801 0.0061333 0.019781
-0.0030598 -0.0025908 -0.00036493 -0.002333 0.0015095 -0.00028457 -0.0088943 -0.0067662
0.006097 0.019752 -0.15096 0.25497
1040000000 -0.01509 0.29415 0.032802 0.019033 -0.0015313 0.0070068 0.0027717 0.00087308
0.00060553 -0.0034601 4.8243e-07 -0.001576
0.032754 0.019078 -0.17712 0.35218 0.029981 -0.014516 0.0016471 -0.0017692
-0.0018232 -0.0027499 -0.0010827 -0.002946
-0.0014913 0.0070084 0.029943 -0.01461 0.1539 0.2936 -0.00048261 -0.0016111
-0.0014616 -0.00099587 -0.00053868 -0.0010389
0.0027548 0.0008716 0.0016699 -0.0017662 -0.00046957 -0.0016177 -0.047221 0.28032
0.019216 0.018661 -0.0025458 0.0012714
0.00058526 -0.0034866 -0.0018557 -0.0027254 -0.00147 -0.00098207 0.019257 0.018636
-0.08578 0.20462 0.01417 0.017569
-1.0022e-05 -0.0015882 -0.0010885 -0.0029813 -0.00053287 -0.001052 -0.0025653 0.0012862
0.014138 0.01755 -0.12848 0.27518
1100000000 0.030053 0.30285 0.03632 -0.0035156 0.0027992 0.0040842 0.0024668 -0.0012721
-0.0022159 -0.0031041 -0.0040432 -0.00030249
0.036291 -0.0034597 -0.13383 0.37018 0.015873 -0.027877 0.00015642 -0.0018921
-0.0037517 -0.00091665 -0.0036053 -0.00065112
0.0028176 0.0040741 0.015784 -0.027952 0.20011 0.27421 -0.0019389 7.5112e-05
-0.0017009 0.00046036 -0.0010769 -0.00052552
0.0024519 -0.0012799 0.00015051 -0.0018895 -0.001942 7.8539e-05 -0.0068832 0.28543
0.024576 0.005348 -0.0024207 0.00030232
-0.0022171 -0.0030973 -0.0037659 -0.00090193 -0.0017025 0.00046282 0.024609 0.0053168
-0.064863 0.21724 0.019364 0.0076889
-0.0040677 -0.00027022 -0.0036087 -0.00063711 -0.0010712 -0.00051988 -0.0024083 0.00029286
0.019341 0.0076903 -0.082134 0.3031
1160000000 0.080915 0.29888 0.024546 -0.020535 0.0027749 -0.00038617 -3.7484e-05 -0.0024538
-0.0040063 -0.00075454 -0.00089692 0.0039429
0.024567 -0.020467 -0.090447 0.37481 -0.0033226 -0.029588 -0.0016247 -0.0016458
-0.0027209 0.0026275 -0.001554 0.0018386
0.0027995 -0.00040169 -0.0034551 -0.029595 0.24331 0.2441 -0.00082159 0.0017341
-0.00052114 0.0018525 -0.00091333 0.00031735
-5.5075e-05 -0.0024409 -0.0016216 -0.001636 -0.00082217 0.0017221 0.032256 0.28276
0.020829 -0.010061 -0.0029469 0.0050789
-0.0039916 -0.00074855 -0.0027122 0.0026518 -0.00052618 0.0018639 0.020832 -0.010099
-0.03027 0.22477 0.01816 -0.00055446
-0.00088557 0.0039686 -0.0015291 0.0018334 -0.00090591 0.00031122 -0.0029481 0.0050846
0.018135 -0.00053334 -0.035931 0.30511
1220000000 0.12514 0.28904 0.011093 -0.030135 -0.0016065 -0.0008635 -5.9053e-05 -0.00094597
-0.0027039 0.0021996 0.0011533 0.0021211
0.011119 -0.030103 -0.046449 0.38783 -0.01689 -0.021877 -0.0027171 0.00047509
-4.8206e-05 0.0031137 -0.00078575 0.0019152
-0.001608 -0.00086356 -0.017003 -0.021827 0.28264 0.20569 0.00075328 0.0017157
0.00058161 0.0011962 0.00023867 0.00052768
-5.537e-05 -0.00094349 -0.0027187 0.0004912 0.000752 0.0017169 0.072356 0.27445
0.010752 -0.016863 0.0021317 0.0016656
-0.0026885 0.0021997 -3.347e-05 0.0031105 0.00057092 0.0011984 0.010739 -0.016871
-0.0058508 0.23316 0.013404 -0.013071
0.001148 0.002113 -0.00078042 0.0019286 0.00024184 0.00053504 0.0021375 0.0016699
0.013374 -0.013051 -0.0034746 0.31968
1280000000 0.17543 0.26842 -0.0075829 -0.028877 -0.0019837 0.0024413 -0.00093102 -0.0020445
-0.00071804 0.0030663 0.002478 0.0012588
-0.0075603 -0.028866 -0.00045744 0.37943 -0.024184 -0.0089993 -0.00094154 0.001443
0.0018434 0.0016574 0.00061838 0.0019608
-0.0019756 0.0024447 -0.024249 -0.0089044 0.31338 0.16217 0.0015235 -6.7361e-05
0.0011533 0.00024256 0.00039741 0.00020958
-0.00093567 -0.0020315 -0.0009452 0.0014454 0.0015231 -6.2917e-05 0.10935 0.25827
0.0010373 -0.019101 -3.0619e-05 0.00023897
-0.00072038 0.0030631 0.0018537 0.0016404 0.0011521 0.00024329 0.00099745 -0.01911
0.030919 0.23557 0.0026347 -0.01529
0.0024914 0.0012475 0.00062873 0.0019531 0.0003871 0.00021049 -2.8442e-05 0.0002445
0.0026374 -0.015265 0.043041 0.32066
1340000000 0.21284 0.23549 -0.017526 -0.019304 0.00082014 0.0047556 -0.0018745 -0.0008591
0.00142 0.0026159 0.0017859 -0.0014019
-0.017507 -0.019296 0.039041 0.37194 -0.022034 0.0040605 -7.8708e-05 0.0020479
0.0019949 0.00075028 0.0012545 0.00083239
0.00083671 0.0047481 -0.022033 0.0041673 0.33566 0.11503 0.0010494 -0.0009466
0.00069442 -0.00058489 4.4553e-05 0.00022567
-0.0018622 -0.00086722 -7.7569e-05 0.0020394 0.0010477 -0.00094574 0.14274 0.2378
-0.0082846 -0.01641 0.00087563 0.00043084
0.0014248 0.0026039 0.0020029 0.00074154 0.00070572 -0.0005911 -0.0083264 -0.016396
0.060754 0.23057 -0.0037988 -0.013755
0.0017699 -0.0014247 0.0012647 0.00083028 4.6176e-05 0.00022655 0.00089061 0.00042278
-0.0037741 -0.013747 0.081143 0.31494
1400000000 0.24679 0.19804 -0.023574 -0.007692 0.0052854 0.0033433 -0.0022168 0.00066809
0.0024232 0.0010041 0.0002756 -0.0016045
-0.023549 -0.0076968 0.076723 0.35959 -0.015395 0.012569 0.0013267 0.0013039
0.0012654 -0.00083964 0.0011253 0.00011981
0.0053046 0.0033145 -0.015353 0.012657 0.34915 0.061761 1.3782e-05 -0.0015724
3.982e-05 -0.0003164 0.00033101 0.0001729
-0.0022216 0.00068087 0.001335 0.0012978 1.8337e-05 -0.0015756 0.17257 0.20872
-0.014247 -0.0096645 -0.00068447 -0.00038416
0.0024314 0.00099939 0.0012588 -0.00084467 3.3477e-05 -0.00031725 -0.014265 -0.0096379
0.094246 0.22551 -0.010196 -0.0085325
0.0002659 -0.0015939 0.0011382 9.8121e-05 0.00032868 0.00016213 -0.00069427 -0.0003952
-0.010158 -0.0085358 0.12503 0.3034
1460000000 0.27019 0.15425 -0.020478 0.0046695 0.0058602 -0.0017321 -0.0015251 0.001786
0.0021456 -0.00035418 -0.00040209 -0.0010091
-0.020456 0.0046673 0.11125 0.33798 -0.0063634 0.015829 0.0016714 0.00017893
0.00078555 -0.0013984 0.0012236 -0.00053621
0.0058562 -0.0017498 -0.0062973 0.015866 0.35565 0.0077311 -0.0011627 -0.0012522
9.0339e-05 -0.00020773 0.00061201 -0.00025715
-0.0015126 0.0017888 0.0016767 0.00016441 -0.0011661 -0.0012474 0.19927 0.17918
-0.015463 -0.0031825 -0.0008721 0.0018433
0.0021557 -0.00036447 0.00077572 -0.0014047 8.6371e-05 -0.00020714 -0.015484 -0.0031557
0.12361 0.21065 -0.011892 -0.0026916
-0.0004136 -0.0010334 0.0012154 -0.0005437 0.00061287 -0.00026676 -0.00086271 0.0018299
-0.011874 -0.0027135 0.15793 0.28262
1520000000 0.28282 0.11269 -0.014892 0.010286 0.0035362 -0.0042407 0.00015048 0.0025325
0.0020676 -0.0019643 -0.0011408 -0.00015825
-0.014872 0.010271 0.14514 0.32375 0.0015947 0.013571 0.0016279 -0.00074735
3.1158e-05 -0.0010526 0.00039101 -0.0010291
0.0035156 -0.0042571 0.001663 0.013579 0.34926 -0.048 -0.0010641 -0.00032809
0.00062366 -0.00076628 0.00015989 -0.00014687
0.00014551 0.0025354 0.0016332 -0.0007555 -0.0010647 -0.00034359 0.22289 0.14074
-0.014759 0.002616 0.0014249 0.0019442
0.0020752 -0.0019872 1.8592e-05 -0.0010579 0.00062266 -0.00077908 -0.014763 0.0026507
0.15181 0.197 -0.01168 0.0017338
-0.0011363 -0.00013305 0.00037925 -0.0010322 0.00015312 -0.00015752 0.0014156 0.0019397
-0.011675 0.0017135 0.19063 0.26158
1580000000 0.29288 0.066335 -0.0081522 0.013481 -0.00087948 -0.0051497 0.0015222 0.0018924
-0.00016333 -0.0021159 -0.00024128 0.00036877
-0.0081348 0.013454 0.17283 0.29905 0.0055388 0.0085057 0.00052942 -0.0015567
-0.00056812 -0.0010282 -0.00020628 -0.00085474
-0.00090316 -0.0051398 0.0055816 0.0084903 0.32994 -0.10553 -0.001585 0.00053188
-0.00035436 -0.0012574 0.00021555 -0.00053902
0.0015311 0.0018983 0.00052558 -0.0015562 -0.0015801 0.00053493 0.23675 0.10056
-0.01141 0.007389 0.0020936 0.0006975
-0.0001757 -0.0021191 -0.00056635 -0.0010275 -0.0003474 -0.0012606 -0.011404 0.0074145
0.17597 0.17863 -0.0091755 0.0073746
-0.00023949 0.0003662 -0.00020671 -0.00084915 0.00021318 -0.00054955 0.0021008 0.00070428
-0.0092008 0.0073446 0.22203 0.23447
1640000000 0.2951 0.02518 -0.0013798 0.012328 -0.0029257 -0.0027528 0.0026587 0.0010354
-0.00074575 -0.0016059 -0.00026427 0.00054975
-0.0013874 0.012291 0.20265 0.27428 0.0061945 0.0034186 -0.0005792 -0.0017497
-0.00092648 -0.00039022 -0.00049907 -0.00070646
-0.002947 -0.0027374 0.0062144 0.00339 0.30171 -0.15528 -0.00066488 0.0013942
-0.0010009 -0.00096339 -0.00021064 -0.00032948
0.0026704 0.0010241 -0.00058824 -0.0017561 -0.00066954 0.0013976 0.24899 0.051271
-0.0072954 0.0087344 0.0024117 -0.00078129
-0.00076676 -0.0016004 -0.00092745 -0.00037981 -0.0009948 -0.00096088 -0.0072793 0.0087589
0.19893 0.15452 -0.0045915 0.0092929
-0.000258 0.00055206 -0.00051345 -0.00071187 -0.00020625 -0.00032696 0.0024122 -0.00079278
-0.0046087 0.0093018 0.24732 0.20329
1700000000 0.28807 -0.020061 0.0020272 0.0095008 -0.0036591 -2.4547e-05 0.003098 -0.0012213
-0.0019707 -0.00064107 0.00061454 0.00036722
0.0020107 0.0094643 0.22111 0.24283 0.0041059 0.00043105 -0.0014572 -0.00067163
-0.00083012 -2.8576e-05 -0.00086805 -0.00043556
-0.0036604 -6.9257e-06 0.0041094 0.00040636 0.25863 -0.19495 0.00040573 0.0015374
-0.0019135 -0.00018483 -0.00039865 -0.00079699
0.003098 -0.0012392 -0.0014658 -0.00065451 0.00040809 0.001525 0.24554 0.00091823
-0.0044477 0.0093579 0.0015021 -0.0022561
-0.0019872 -0.00061631 -0.00082957 -1.8421e-05 -0.0019073 -0.00017835 -0.0044274 0.0093657
0.21641 0.13383 -6.6596e-05 0.0094948
0.0006275 0.00035763 -0.00086182 -0.0004385 -0.00041951 -0.00081009 0.0014951 -0.0022365
-9.4048e-05 0.0094854 0.26336 0.16903
1760000000 0.27626 -0.068681 0.0043904 0.006234 -0.0024171 0.0010792 0.0012891 -0.0033606
-0.0014238 0.0006155 0.00030174 -0.00051823
0.0043701 0.0062231 0.24734 0.20297 0.0017359 -0.0014065 -0.0011855 8.878e-05
-0.0010639 0.00084604 -0.00067285 0.0003522
-0.0024148 0.0010917 0.0017278 -0.0014085 0.21013 -0.22796 0.0011422 0.0011208
-0.0012641 0.0014048 -0.001182 -0.00071139
0.0012646 -0.0033816 -0.0011901 0.00010066 0.0011436 0.0011293 0.23582 -0.051048
-0.0012185 0.0085169 -0.00025477 -0.0024665
-0.0014143 0.00062823 -0.001065 0.00085401 -0.001278 0.0014109 -0.0012021 0.0085279
0.23119 0.098945 0.0037798 0.006939
0.00028227 -0.00052112 -0.00067695 0.00036952 -0.0011765 -0.0007029 -0.00026593 -0.0024638
0.0037898 0.0069705 0.27594 0.13137
1820000000 0.25199 -0.10596 0.0045327 0.002569 -0.00034189 0.0024123 -0.0010351 -0.0031986
-0.001136 0.0009353 -0.00015917 -3.419e-05
0.0045097 0.0025784 0.25761 0.17281 -0.00061275 -0.00040247 -0.001383 0.00088878
-9.8465e-05 0.0012484 -0.00063144 0.00057447
-0.00033338 0.0024283 -0.00061073 -0.00039844 0.15994 -0.24412 0.001517 0.00053718
-0.00030465 0.0023829 -0.0014421 0.00040523
-0.0010655 -0.0031901 -0.0013756 0.00090293 0.0015136 0.00052964 0.20521 -0.098055
0.00035572 0.0071973 -0.001662 -0.0014524
-0.0011234 0.00094541 -8.5268e-05 0.001254 -0.00029402 0.0023778 0.00037459 0.0072091
0.24828 0.069997 0.0046066 0.0036366
-0.00016067 -2.5919e-05 -0.00063009 0.00057454 -0.0014434 0.00039424 -0.0016673 -0.0014551
0.0046229 0.0036452 0.27769 0.094761
1880000000 0.21692 -0.14647 0.0023669 0.00023939 -0.00046709 0.0021183 -0.002846 -0.0021811
-0.00021928 0.0018926 0.00021023 -0.00049177
0.0023655 0.00025491 0.2622 0.12612 -0.002479 0.0015563 -0.00025463 0.0017727
0.00060086 0.0013377 5.6992e-05 0.00097148
-0.00045407 0.0021275 -0.0024719 0.0015745 0.10806 -0.25375 0.0018626 -0.00086641
0.0015533 0.00204 -0.0010998 0.0013362
-0.0028566 -0.002152 -0.00024187 0.0017702 0.0018654 -0.0008683 0.1639 -0.13795
0.0011448 0.0053224 -0.0023368 0.00037394
-0.00020338 0.0018906 0.00062107 0.0013437 0.0015631 0.0020468 0.001154 0.0053081
0.25198 0.038143 0.004824 0.0013268
0.00021376 -0.00049072 6.8324e-05 0.00096688 -0.001098 0.001343 -0.0023394 0.00039201
0.0048403 0.0013298 0.27729 0.060975
1940000000 0.1776 -0.17191 -9.7875e-05 -0.001388 0.001389 0.0022211 -0.003766 0.00038033
0.0013789 0.0011528 -0.00047155 -0.00050346
-9.3705e-05 -0.0013726 0.26277 0.09433 -0.0014655 0.0041602 0.0010592 0.001421
0.0019405 0.00059319 0.00099592 0.00044451
0.0014092 0.0022276 -0.0014388 0.0041814 0.061598 -0.24648 0.00053788 -0.0021549
0.0025315 0.00050715 0.00063072 0.0017825
-0.0037731 0.00039877 0.0010689 0.0014233 0.0005294 -0.0021652 0.11086 -0.168
0.00027763 0.004103 -0.00133 0.0018024
0.0013776 0.0011373 0.0019369 0.0005758 0.002531 0.00048924 0.00029661 0.0041127
0.25446 -7.7211e-05 0.0035804 -0.0016335
-0.00047593 -0.00048326 0.0010106 0.00042768 0.00063115 0.0017663 -0.0013035 0.0018064
0.0036166 -0.0016515 0.26592 0.024423
2000000000 0.13177 -0.18675 -0.0038815 0.00066488 0.0025987 0.0015298 -0.0024632 0.0037833
0.0012744 0.00044366 -0.00052836 0.00051574
-0.0038698 0.00066461 0.24873 0.058634 -0.00086224 0.005912 0.0015753 0.00041449
0.0014147 -0.001118 0.00066354 0.00015249
0.0026079 0.0015192 -0.00081539 0.0059193 0.018861 -0.23226 -0.0013598 -0.0014614
0.0021977 -0.0012192 0.0018742 0.0012308
-0.0024248 0.0037882 0.0015754 0.00041315 -0.0013475 -0.0014545 0.057813 -0.17718
-0.00093918 0.0039123 1.3443e-05 0.0018385
0.0012807 0.00042341 0.0014131 -0.0011342 0.002187 -0.001224 -0.00092842 0.0038943
0.24948 -0.03334 0.00073872 -0.0026878
