!Keysight Technologies,M9804A,MY58100912,A.14.10.03
!Date: Thursday, April 27, 2023 10:28:33
!Correction: S11(C  6-Port  ) 
!S12(C  6-Port  ) 
!S13(C  6-Port  ) 
!S14(C  6-Port  ) 
!S15(C  6-Port  ) 
!S16(C  6-Port  ) 
!S21(C  6-Port  ) 
!S22(C  6-Port  ) 
!S23(C  6-Port  ) 
!S24(C  6-Port  ) 
!S25(C  6-Port  ) 
!S26(C  6-Port  ) 
!S31(C  6-Port  ) 
!S32(C  6-Port  ) 
!S33(C  6-Port  ) 
!S34(C  6-Port  ) 
!S35(C  6-Port  ) 
!S36(C  6-Port  ) 
!S41(C  6-Port  ) 
!S42(C  6-Port  ) 
!S43(C  6-Port  ) 
!S44(C  6-Port  ) 
!S45(C  6-Port  ) 
!S46(C  6-Port  ) 
!S51(C  6-Port  ) 
!S52(C  6-Port  ) 
!S53(C  6-Port  ) 
!S54(C  6-Port  ) 
!S55(C  6-Port  ) 
!S56(C  6-Port  ) 
!S61(C  6-Port  ) 
!S62(C  6-Port  ) 
!S63(C  6-Port  ) 
!S64(C  6-Port  ) 
!S65(C  6-Port  ) 
!S66(C  6-Port  ) 
!S6P File: Measurement: :
# Hz S  RI   R 50
500000000 -0.3342 -0.050982 -0.010122 -0.0012654 -0.0088722 0.013404 -0.0038982 0.01181
0.012424 0.0056731 -0.0039587 0.0083152
-0.010138 -0.0013892 -0.41705 -0.061665 0.0079968 -0.010327 0.0012282 0.012253
0.0080942 0.0030067 0.0013686 0.014439
-0.0089835 0.013441 0.0079109 -0.010339 -0.26665 0.20062 0.0070155 0.0036162
-0.0013342 0.0085928 0.0013021 0.012429
-0.0037274 0.01175 0.001504 0.012122 0.0070326 0.0036449 -0.33164 0.045146
-0.018644 -0.0051133 0.016533 0.025694
0.01253 0.00553 0.0079605 0.0029424 -0.0013488 0.0086185 -0.018656 -0.0051026
-0.24956 -0.19089 -0.026978 0.0043888
-0.0036424 0.0082715 0.0016304 0.014394 0.0013582 0.012502 0.016424 0.025678
-0.027024 0.0043843 -0.27284 -0.11584
560000000 -0.31786 0.11447 -0.023297 -0.064561 -6.4213e-05 0.013323 0.0056631 0.011069
0.010107 0.005746 0.010891 0.008262
-0.023245 -0.064482 -0.37529 0.10128 -0.042181 -0.037239 0.013508 0.0027176
-0.014111 -0.0044844 0.0041693 -0.0011321
-0.00014113 0.013254 -0.042312 -0.037166 -0.18581 0.2515 0.00044319 -0.0042523
0.018627 0.0044044 0.0082273 -0.0050171
0.0056355 0.011026 0.013593 0.0028002 0.00037231 -0.0042585 -0.30637 0.1361
0.0070084 -0.023489 0.0042003 -0.021278
0.010452 0.0057031 -0.014099 -0.0045978 0.018622 0.0042889 0.0069891 -0.023493
-0.3112 -0.014251 0.0093189 -0.047947
0.01098 0.0084593 0.004077 -0.0010559 0.0082533 -0.0049572 0.0042282 -0.021321
0.0092669 -0.047999 -0.33248 0.029587
620000000 -0.27674 0.095246 -0.022728 0.0086149 0.0038806 0.0092615 0.0085236 -0.0050474
0.012008 -0.0015824 0.00037504 -0.0032492
-0.022708 0.0086773 -0.4033 0.05049 -0.018283 0.00079959 -0.0013213 -0.0023507
0.011862 -0.0061611 0.001273 -0.0033914
0.0039196 0.0092136 -0.018337 0.00080271 -0.15511 0.26139 -0.0006329 -0.0052759
-0.0034359 -0.00318 0.0090538 -0.0030855
0.0084604 -0.0052463 -0.0014179 -0.0023529 -0.00060233 -0.0052693 -0.26449 0.14732
-0.037939 -0.020744 0.012629 0.025977
0.011987 -0.0014921 0.011796 -0.0061666 -0.0034701 -0.0032251 -0.037942 -0.020721
-0.23147 -0.042625 -0.038845 0.012027
0.00024154 -0.0032846 0.0011387 -0.0033567 0.009082 -0.0030865 0.012721 0.025925
-0.038877 0.012065 -0.25368 -0.0031421
680000000 -0.2384 0.18526 -0.026351 -0.01416 0.005256 0.005435 0.0011457 -0.0073079
-0.0020917 -0.011966 0.0049792 -0.0068976
-0.026345 -0.014122 -0.3896 0.15105 -0.032368 -0.0018128 -0.0011432 -0.00052363
-0.0020096 -0.0096574 -0.0012608 -0.0017615
0.0052804 0.0054921 -0.032387 -0.0017574 -0.10351 0.2815 -0.00079864 -0.00033923
-0.0016588 0.00035946 -0.0027257 -0.009387
0.0012608 -0.0073196 -0.0010918 -0.00050865 -0.00081054 -0.00034045 -0.22075 0.19705
-0.022717 -0.0073423 -0.0090563 -0.011031
-0.0021742 -0.011951 -0.002023 -0.0096524 -0.0016752 0.00039705 -0.022765 -0.007329
-0.27805 0.057692 -0.0062666 -0.0072702
0.0050258 -0.0069449 -0.0011958 -0.0017521 -0.0027585 -0.0093398 -0.0090916 -0.011032
-0.0062798 -0.0072857 -0.25894 0.096737
740000000 -0.19304 0.17815 -0.039881 0.026793 0.013288 -0.0049802 -0.00054893 -0.0044991
-0.0047196 -0.0024316 -0.0063933 0.0032563
-0.039866 0.02677 -0.33477 0.16918 -0.036503 0.035065 -0.00014423 -0.0058216
-0.013013 0.0071461 -0.0014871 -0.0055821
0.013292 -0.0049961 -0.036446 0.035197 -0.069846 0.27893 -0.002088 0.0032098
-0.002307 -0.0054825 -0.0016214 0.00091258
-0.00053634 -0.0044893 -0.00026739 -0.0058928 -0.0020732 0.0032272 -0.20298 0.20474
-0.043195 -0.0077144 0.022245 0.014691
-0.0048255 -0.002336 -0.013056 0.007307 -0.0023566 -0.0054815 -0.043247 -0.0077182
-0.17775 0.083678 -0.04167 -0.0004728
-0.0063074 0.0032072 -0.0015566 -0.0056587 -0.0015886 0.000891 0.022245 0.014668
-0.041726 -0.00049496 -0.2477 0.10559
800000000 -0.16146 0.22196 -0.022589 0.016324 0.005645 -0.010424 -0.0046257 -0.002218
-0.0043034 0.0024313 0.0044156 0.00068358
-0.02259 0.016254 -0.34061 0.2402 -0.0085029 0.034033 -0.0023499 0.0020777
-0.00089456 0.0027389 0.00070612 0.0054102
0.0056754 -0.010472 -0.0083945 0.034082 -0.030626 0.30255 0.00086725 0.001348
0.00017786 0.003654 -0.0018227 0.00062365
-0.0045767 -0.0021344 -0.0022852 0.00207 0.00084713 0.001363 -0.1736 0.23224
-0.028336 0.012982 0.013539 -0.010198
-0.0043026 0.0024626 -0.0008638 0.002807 0.00019396 0.0036704 -0.028331 0.01305
-0.21883 0.11241 -0.016845 0.019674
0.0044547 0.00088939 0.00079595 0.005497 -0.001837 0.0006837 0.013511 -0.010195
-0.016848 0.019647 -0.23919 0.15376
860000000 -0.1266 0.24151 -0.018018 0.030402 -0.0030633 -0.010197 -0.0021672 0.00061218
0.0037463 0.0049774 -0.0035612 -0.002368
-0.017987 0.030339 -0.29246 0.28271 0.0073863 0.03429 2.4608e-06 0.0020671
0.0032942 0.0007378 0.0034905 0.00045686
-0.0030775 -0.010172 0.007498 0.034336 0.016746 0.31089 -0.00078432 -0.00016511
0.0022115 -0.0016014 0.0016714 0.0043177
-0.0022039 0.00057787 -2.0933e-05 0.0021128 -0.00078392 -0.00017678 -0.13762 0.24282
-0.018063 0.017703 -0.0068315 -0.0090149
0.0037445 0.005003 0.0033019 0.00070559 0.0022227 -0.0015989 -0.018036 0.017746
-0.1647 0.16248 -0.024033 0.016977
-0.0036388 -0.0023463 0.0035082 0.00051008 0.0016691 0.0043062 -0.0068005 -0.0090445
-0.024044 0.017 -0.18907 0.19754
920000000 -0.10286 0.26492 0.004503 0.038163 -0.0093448 -0.0049368 -0.0020037 0.0017008
0.0010566 0.0020772 0.002795 -0.0015659
0.0045024 0.038133 -0.26528 0.30417 0.02796 0.022615 0.0015352 0.0013486
0.0074787 -0.00032041 0.0042455 -0.0027674
-0.0093797 -0.0049267 0.02805 0.022593 0.062234 0.31233 0.0018907 5.2167e-05
0.0011245 -0.00027407 0.00097732 -0.0012366
-0.001925 0.0017144 0.0015648 0.0013675 0.0018799 4.7589e-05 -0.11273 0.25962
-0.011058 0.030601 0.0033743 -0.0063926
0.0010086 0.0020376 0.0075316 -0.00035198 0.0011314 -0.0002561 -0.010996 0.030639
-0.15224 0.16903 -0.0013774 0.026457
0.002846 -0.001572 0.0042386 -0.0027688 0.00097749 -0.0012521 0.003357 -0.0063741
-0.0013891 0.026433 -0.19404 0.21209
980000000 -0.056482 0.28505 0.016868 0.030318 -0.0094578 0.0042481 0.0019457 0.0036578
0.0041468 -0.0017476 -0.0029926 -0.0024451
0.01683 0.030289 -0.21205 0.33885 0.033258 0.0053954 0.0020725 -0.00016764
0.0018807 -0.0059481 -0.00036874 -0.0023888
-0.009423 0.0042928 0.03328 0.0053138 0.10811 0.3065 0.00065864 -0.0011908
0.00048965 -0.0018425 0.0015202 -0.00030762
0.0019099 0.003696 0.0020583 -0.00012603 0.00066324 -0.0011983 -0.074691 0.27072
0.0070645 0.029837 -0.0089299 -0.0067758
0.0041295 -0.0018025 0.0018658 -0.0059446 0.00047666 -0.0018386 0.0071276 0.029843
-0.11882 0.1977 0.0059068 0.020054
-0.0030415 -0.0023304 -0.00035873 -0.0023738 0.0015218 -0.0003034 -0.0089459 -0.0067733
0.0059027 0.02006 -0.15093 0.25488
1040000000 -0.015015 0.29418 0.032843 0.01902 -0.0015003 0.0070162 0.0027412 0.00089395
0.00056223 -0.0033588 -0.00011574 -0.0015481
0.032804 0.019045 -0.17706 0.35222 0.030009 -0.014498 0.0016444 -0.0017525
-0.0019137 -0.0026552 -0.0010595 -0.0029117
-0.0014973 0.0070263 0.029966 -0.014592 0.15389 0.2936 -0.00046971 -0.0016142
-0.0014911 -0.00098376 -0.00053772 -0.001032
0.0027762 0.00080896 0.0016662 -0.0017545 -0.00047228 -0.001622 -0.047212 0.28035
0.019271 0.018552 -0.0025984 0.001303
0.0005275 -0.0034149 -0.0019295 -0.0026239 -0.0014915 -0.00096276 0.019315 0.018536
-0.085686 0.20475 0.014089 0.017558
-0.00017005 -0.0016435 -0.0011014 -0.0029111 -0.00053341 -0.0010123 -0.0025822 0.0013134
0.014096 0.017556 -0.1284 0.27513
1100000000 0.030004 0.30299 0.036261 -0.003509 0.002789 0.0040578 0.0024456 -0.0012602
-0.0022208 -0.0032119 -0.0039825 -0.00026657
0.036248 -0.0035044 -0.13381 0.37017 0.01586 -0.02788 0.00012479 -0.001914
-0.0037413 -0.00098708 -0.0036226 -0.00064141
0.0028235 0.0040491 0.015775 -0.027965 0.20012 0.27421 -0.0019558 7.2021e-05
-0.0017381 0.00046956 -0.0010888 -0.00048608
0.0024205 -0.0012544 0.00011068 -0.0018958 -0.0019435 7.6507e-05 -0.0068938 0.28539
0.024574 0.0053345 -0.0024927 0.00031181
-0.0021909 -0.0032151 -0.0037409 -0.00096795 -0.0017423 0.0004646 0.024609 0.005287
-0.064744 0.21719 0.019359 0.0076652
-0.0039345 -0.00021525 -0.0036276 -0.00063915 -0.0010923 -0.00050635 -0.0024855 0.00031924
0.01933 0.0076884 -0.082309 0.30312
1160000000 0.081039 0.29888 0.024569 -0.020576 0.0027837 -0.00040706 -7.6714e-05 -0.0024688
-0.003943 -0.00075798 -0.00095159 0.0040328
0.024557 -0.020528 -0.090423 0.37476 -0.0033081 -0.029589 -0.00163 -0.0016789
-0.0026968 0.0026591 -0.0015792 0.0018594
0.002805 -0.00040368 -0.0034325 -0.029584 0.24329 0.2441 -0.00084819 0.001737
-0.00053728 0.0018773 -0.00089968 0.00034101
-7.8308e-05 -0.0025334 -0.0016505 -0.0016877 -0.00085045 0.0017209 0.032324 0.2828
0.020808 -0.010008 -0.0029949 0.0050637
-0.0039799 -0.00075612 -0.0026567 0.0026906 -0.00054513 0.0018817 0.0208 -0.010032
-0.030213 0.22484 0.018261 -0.00055003
-0.0010021 0.0040509 -0.001601 0.0018873 -0.00087901 0.00035418 -0.0029928 0.0050678
0.018255 -0.00059431 -0.035728 0.30532
1220000000 0.12528 0.28903 0.011103 -0.030128 -0.001588 -0.00086619 -6.5166e-05 -0.00093409
-0.0026659 0.0022319 0.0011398 0.0020873
0.011101 -0.030097 -0.046438 0.38785 -0.016884 -0.021855 -0.0026981 0.0004624
1.7976e-06 0.0030855 -0.00081171 0.0018937
-0.0016054 -0.00086195 -0.017007 -0.021809 0.28262 0.20572 0.00075156 0.0016995
0.00058529 0.0012004 0.00023141 0.00052419
-0.00010015 -0.00091828 -0.0026883 0.00049903 0.00074471 0.0017097 0.072374 0.27442
0.01071 -0.016844 0.0021219 0.0016608
-0.0026663 0.0022213 7.3322e-06 0.0031252 0.0005828 0.00119 0.010697 -0.016861
-0.0057969 0.23317 0.013423 -0.01311
0.0011587 0.0020838 -0.00078242 0.0018896 0.00023303 0.00051535 0.0021304 0.0016792
0.013426 -0.013094 -0.0034633 0.31975
1280000000 0.17549 0.26833 -0.0076247 -0.028899 -0.0019754 0.0024418 -0.00093605 -0.0020224
-0.00069083 0.0030723 0.0024628 0.0012722
-0.0075768 -0.028867 -0.00044721 0.37943 -0.024178 -0.0089987 -0.00092989 0.0014562
0.0018468 0.0016698 0.00064419 0.0019361
-0.0019693 0.0024385 -0.024243 -0.0089123 0.31338 0.16221 0.0015411 -6.1642e-05
0.0011948 0.00022643 0.00037611 0.00017071
-0.00093533 -0.002056 -0.00096678 0.0014341 0.0015379 -6.3508e-05 0.10937 0.25829
0.0010017 -0.019093 -3.3386e-05 0.00029571
-0.00068076 0.0030912 0.0018613 0.0016793 0.0011955 0.00022762 0.00096274 -0.019102
0.031056 0.23557 0.0026583 -0.0153
0.0024585 0.0012501 0.00066658 0.0019671 0.00038022 0.00016829 -3.9116e-05 0.00028574
0.0026602 -0.015329 0.043051 0.32067
1340000000 0.21292 0.23535 -0.017529 -0.019314 0.00083141 0.0047518 -0.0018787 -0.00088055
0.0014407 0.0026435 0.0017663 -0.0013696
-0.017483 -0.019291 0.039048 0.37194 -0.021995 0.0040487 -9.1617e-05 0.0020382
0.0020017 0.00073045 0.0012656 0.00085544
0.00083069 0.0047451 -0.022007 0.0041656 0.33566 0.11507 0.0010403 -0.00094315
0.00068018 -0.00059957 6.1345e-05 0.00023529
-0.0018838 -0.000854 -7.0416e-05 0.0020143 0.0010406 -0.00094673 0.14281 0.23776
-0.0082636 -0.016407 0.00082412 0.00037133
0.001473 0.0026023 0.0019923 0.00073329 0.00068496 -0.00059811 -0.0082996 -0.0164
0.060825 0.23059 -0.0037924 -0.01383
0.0017754 -0.0013922 0.0012638 0.0008453 6.3157e-05 0.00024021 0.0008183 0.00037472
-0.0037713 -0.01382 0.081091 0.31497
1400000000 0.24668 0.19788 -0.023579 -0.0076711 0.0052814 0.0033397 -0.0021884 0.0006781
0.002409 0.0010039 0.00028023 -0.0016039
-0.023551 -0.0076764 0.076729 0.35957 -0.015352 0.012555 0.0013217 0.0012774
0.0012804 -0.00080985 0.0011063 0.00011307
0.0053055 0.003335 -0.01531 0.012621 0.3492 0.061778 1.2381e-05 -0.0015734
6.4719e-05 -0.00034202 0.00028856 0.0001701
-0.0021864 0.00066236 0.0013107 0.0012866 1.4433e-05 -0.0015769 0.17259 0.20872
-0.014262 -0.0097084 -0.00071501 -0.00031746
0.0024294 0.00097952 0.0012825 -0.00082688 6.5134e-05 -0.00034196 -0.014283 -0.0096898
0.09441 0.22545 -0.010295 -0.0086114
0.00026641 -0.0016171 0.0010939 0.00012387 0.0002911 0.00018654 -0.00071067 -0.00032709
-0.010289 -0.0086143 0.12509 0.3035
1460000000 0.27001 0.15421 -0.020486 0.0046552 0.0058628 -0.0017499 -0.0015257 0.0017657
0.0021502 -0.00038395 -0.00041304 -0.00099351
-0.020465 0.0046383 0.11126 0.33798 -0.0063619 0.015796 0.00169 0.00015528
0.00078464 -0.001382 0.0011903 -0.00051126
0.0058494 -0.0017713 -0.0062754 0.015857 0.35566 0.0077365 -0.0011743 -0.0012446
4.0055e-05 -0.00022282 0.00064315 -0.00024859
-0.0015293 0.0018081 0.0016927 0.00013587 -0.0011687 -0.001237 0.19936 0.17917
-0.01545 -0.0031414 -0.00086417 0.001819
0.0021521 -0.00038399 0.00078498 -0.0013938 4.5147e-05 -0.00022871 -0.015472 -0.0031126
0.1237 0.21068 -0.011947 -0.0027206
-0.00040965 -0.00097586 0.0011801 -0.00053575 0.00065277 -0.00024825 -0.00088823 0.0018109
-0.011945 -0.002725 0.15792 0.28255
1520000000 0.28264 0.11269 -0.014876 0.010289 0.0035504 -0.0042626 0.00015334 0.0025583
0.0020695 -0.0019416 -0.0010775 -0.00016151
-0.014861 0.010275 0.14512 0.32375 0.0015998 0.013543 0.0016362 -0.00076597
3.3586e-05 -0.0010715 0.00038796 -0.001008
0.0035419 -0.0042794 0.0016591 0.013553 0.34929 -0.048003 -0.0010622 -0.00030831
0.00061511 -0.00079377 0.00016136 -0.00015838
0.00014596 0.0025433 0.0016335 -0.00075972 -0.0010614 -0.0003115 0.2229 0.14066
-0.014755 0.0026022 0.0013909 0.0019657
0.002064 -0.0019595 2.3452e-05 -0.0010644 0.00060695 -0.00080262 -0.014749 0.0026448
0.15189 0.19695 -0.011758 0.0016891
-0.001093 -0.00016353 0.00037772 -0.0010221 0.00015683 -0.00016067 0.0013904 0.0019634
-0.011761 0.0016863 0.19069 0.26168
1580000000 0.29276 0.066483 -0.0081569 0.013466 -0.00084442 -0.0051563 0.0015028 0.0018602
-0.00018081 -0.0021427 -0.00026121 0.00039911
-0.0081538 0.013448 0.17282 0.29905 0.0055061 0.0084996 0.00053305 -0.0015481
-0.00054807 -0.0010366 -0.00021873 -0.00082177
-0.00088686 -0.005135 0.0055647 0.0084692 0.32997 -0.10553 -0.0015866 0.00053463
-0.0003475 -0.0012669 0.00023314 -0.00051748
0.0015271 0.0018734 0.00052098 -0.0015648 -0.0015857 0.00053323 0.23675 0.1006
-0.011433 0.0074066 0.0021637 0.00067007
-0.00018528 -0.0021258 -0.00056413 -0.0010388 -0.00033552 -0.0012649 -0.011433 0.0074441
0.17599 0.17854 -0.0091612 0.0074351
-0.00026259 0.00038687 -0.00024854 -0.00080418 0.00023661 -0.00053989 0.0021608 0.00066551
-0.0091566 0.0074171 0.22211 0.23441
1640000000 0.29508 0.025354 -0.0013757 0.012324 -0.002935 -0.0027451 0.002699 0.0010052
-0.00073051 -0.0016093 -0.00030349 0.00053673
-0.0013978 0.012316 0.20264 0.27428 0.0061636 0.0034159 -0.00059255 -0.0017511
-0.00092925 -0.00039086 -0.00049046 -0.00070405
-0.002947 -0.0027516 0.0061911 0.0033865 0.30173 -0.15529 -0.00068204 0.001382
-0.00101 -0.00097642 -0.0001847 -0.00031348
0.0026745 0.00099201 -0.00059506 -0.0017553 -0.00067878 0.0013844 0.24902 0.051231
-0.0072354 0.0087164 0.0023689 -0.00078399
-0.00073187 -0.0016098 -0.00094034 -0.00038384 -0.0010094 -0.00096559 -0.0072137 0.0087465
0.19907 0.15448 -0.004647 0.0092802
-0.00030446 0.00055688 -0.00050146 -0.00071707 -0.00019093 -0.00032002 0.0023717 -0.00078317
-0.0046503 0.0092879 0.24744 0.20342
1700000000 0.28816 -0.019923 0.002019 0.0095065 -0.0036678 -1.5685e-05 0.0031072 -0.0012324
-0.0019529 -0.00064264 0.00058347 0.00038294
0.0020128 0.0094814 0.22111 0.24283 0.0040849 0.00043603 -0.0014439 -0.0006772
-0.00081999 -2.9897e-05 -0.00088246 -0.00043545
-0.0036794 4.4098e-06 0.0040833 0.0004139 0.25864 -0.19499 0.00042077 0.0015085
-0.0019116 -0.00020148 -0.00044906 -0.00080994
0.003125 -0.0012279 -0.0014525 -0.00067649 0.00041852 0.0015239 0.24546 0.00090595
-0.0044591 0.0093742 0.0015777 -0.0022331
-0.0019599 -0.00062834 -0.00082542 -2.8166e-05 -0.0019046 -0.0001759 -0.0044437 0.0093896
0.21646 0.13378 -5.2504e-05 0.0095823
0.00060802 0.00037885 -0.0008724 -0.00041304 -0.00045715 -0.00080225 0.0015661 -0.002241
-4.8132e-05 0.0095689 0.26337 0.16886
1760000000 0.27647 -0.068592 0.0043771 0.0062308 -0.0023986 0.0011082 0.0013047 -0.0033857
-0.0014066 0.00059907 0.00030907 -0.00053139
0.0043672 0.0062217 0.24733 0.20296 0.0017171 -0.0014012 -0.0011978 0.00010296
-0.0010783 0.00085491 -0.00065031 0.00036047
-0.0023978 0.0011055 0.0017201 -0.0014099 0.21005 -0.22796 0.0011093 0.0011928
-0.0012966 0.0014543 -0.0011531 -0.00073567
0.0012604 -0.0034052 -0.0011789 9.5929e-05 0.0011178 0.0011821 0.23578 -0.050997
-0.0012206 0.0085164 -0.00028942 -0.0024547
-0.0014122 0.00060892 -0.0010603 0.00085834 -0.0012928 0.0014606 -0.001205 0.0085231
0.23121 0.098885 0.0038197 0.0069916
0.00032647 -0.00051415 -0.00068173 0.00036651 -0.0011912 -0.00071876 -0.00027189 -0.0024474
0.0038361 0.0070026 0.27602 0.13125
1820000000 0.25212 -0.10605 0.0045375 0.0025549 -0.00035881 0.0024253 -0.0010147 -0.0031839
-0.0011154 0.00094242 -0.00016564 -4.636e-05
0.0045286 0.002569 0.25758 0.17283 -0.00062748 -0.00036985 -0.0013634 0.00089407
-8.1511e-05 0.001243 -0.00062826 0.00056463
-0.00031789 0.0024413 -0.00062559 -0.00036715 0.15994 -0.24413 0.0015356 0.00055414
-0.00028501 0.0023636 -0.0015098 0.00041349
-0.00098476 -0.0031662 -0.0013564 0.00092209 0.0015246 0.00056065 0.20524 -0.098144
0.00039629 0.0071647 -0.0016935 -0.0014514
-0.0011065 0.00095636 -7.429e-05 0.0012685 -0.00028104 0.0023679 0.00041664 0.0071654
0.24837 0.069898 0.0045828 0.0036419
-0.00019935 -5.5645e-05 -0.00061587 0.00055525 -0.0015093 0.00038888 -0.0017011 -0.0014476
0.0045838 0.0036254 0.27773 0.094706
1880000000 0.21705 -0.14665 0.0023731 0.00025486 -0.00045136 0.0021173 -0.0028231 -0.0022018
-0.00018659 0.0018579 0.00019773 -0.0004867
0.0023638 0.00023749 0.26221 0.12614 -0.002481 0.0015847 -0.00028131 0.0017769
0.00060274 0.0013547 5.1218e-05 0.0009595
-0.00048278 0.0021056 -0.0024602 0.0015907 0.10811 -0.2537 0.0018615 -0.00086057
0.0015822 0.0020446 -0.0011232 0.0013404
-0.0029207 -0.0021766 -0.00026212 0.0017852 0.0018599 -0.00086501 0.16383 -0.13787
0.0011363 0.0053469 -0.0023532 0.00039357
-0.00018621 0.001872 0.00061192 0.0013519 0.0015961 0.0020672 0.0011479 0.0053338
0.25195 0.038115 0.0048886 0.0013927
0.00027845 -0.00045159 7.801e-05 0.0009858 -0.0010981 0.0013893 -0.0023583 0.00040677
0.0048772 0.0013879 0.27715 0.060868
1940000000 0.17757 -0.17208 -0.00010303 -0.0013721 0.001415 0.0022596 -0.0037485 0.00044361
0.0013699 0.001192 -0.00042214 -0.00049942
-9.3764e-05 -0.0013602 0.26276 0.094344 -0.0014706 0.0041497 0.0010913 0.0014029
0.001932 0.00056583 0.0009934 0.00043338
0.0014249 0.0022333 -0.0014306 0.0041854 0.061519 -0.24648 0.00055263 -0.0022001
0.0025383 0.00043266 0.00053171 0.0017879
-0.003694 0.00044495 0.0010577 0.0014001 0.00055081 -0.0022113 0.11098 -0.16799
0.00032756 0.0040554 -0.0013441 0.0018019
0.0014114 0.0011784 0.0019378 0.00052779 0.0025357 0.0004247 0.00032262 0.004055
0.25455 -0.00021889 0.0035492 -0.0016783
-0.00046266 -0.00049688 0.0010326 0.00042259 0.0005385 0.0017822 -0.0013252 0.0018079
0.0035494 -0.0016805 0.266 0.024358
2000000000 0.1317 -0.18686 -0.003844 0.00066623 0.0025943 0.0015455 -0.0024619 0.0037303
0.0012342 0.00042845 -0.00052256 0.00049966
-0.0038426 0.00066738 0.24873 0.05867 -0.0008518 0.0059025 0.0015213 0.00042303
0.0013872 -0.0011388 0.0006479 0.00015187
0.002557 0.0015356 -0.00080983 0.0059052 0.018928 -0.23228 -0.0013402 -0.001444
0.0021818 -0.0012069 0.0018992 0.001264
-0.0024666 0.0038197 0.0015518 0.00042227 -0.0013398 -0.0014379 0.057769 -0.17725
-0.00088954 0.0038433 -2.6383e-05 0.0019342
0.0012469 0.00044063 0.0013824 -0.0011397 0.002172 -0.0012357 -0.00088027 0.0038395
0.24948 -0.033465 0.00076546 -0.0026579
