!Keysight Technologies,M9804A,MY58100912,A.14.10.03
!Date: Thursday, April 27, 2023 10:28:33
!Correction: S11(C  6-Port  ) 
!S12(C  6-Port  ) 
!S13(C  6-Port  ) 
!S14(C  6-Port  ) 
!S15(C  6-Port  ) 
!S16(C  6-Port  ) 
!S21(C  6-Port  ) 
!S22(C  6-Port  ) 
!S23(C  6-Port  ) 
!S24(C  6-Port  ) 
!S25(C  6-Port  ) 
!S26(C  6-Port  ) 
!S31(C  6-Port  ) 
!S32(C  6-Port  ) 
!S33(C  6-Port  ) 
!S34(C  6-Port  ) 
!S35(C  6-Port  ) 
!S36(C  6-Port  ) 
!S41(C  6-Port  ) 
!S42(C  6-Port  ) 
!S43(C  6-Port  ) 
!S44(C  6-Port  ) 
!S45(C  6-Port  ) 
!S46(C  6-Port  ) 
!S51(C  6-Port  ) 
!S52(C  6-Port  ) 
!S53(C  6-Port  ) 
!S54(C  6-Port  ) 
!S55(C  6-Port  ) 
!S56(C  6-Port  ) 
!S61(C  6-Port  ) 
!S62(C  6-Port  ) 
!S63(C  6-Port  ) 
!S64(C  6-Port  ) 
!S65(C  6-Port  ) 
!S66(C  6-Port  ) 
!S6P File: Measurement: :
# Hz S  RI   R 50
500000000 -0.33454 -0.050572 -0.0099073 -0.0010706 -0.0088922 0.01333 -0.0038937 0.012499
0.01205 0.0055608 -0.0037363 0.0091301
-0.0099035 -0.0010599 -0.41688 -0.061616 0.0080623 -0.010244 0.0014415 0.01245
0.0078901 0.0032284 0.0017167 0.014695
-0.0088782 0.013335 0.0080477 -0.010259 -0.26642 0.20057 0.0071334 0.0035943
-0.0015216 0.008812 0.0014496 0.012462
-0.0038929 0.01245 0.0014626 0.012451 0.0071321 0.0035858 -0.33151 0.044967
-0.018133 -0.0046044 0.016691 0.025594
0.012075 0.0055757 0.0079047 0.0032485 -0.0015166 0.0088188 -0.018125 -0.0045868
-0.25002 -0.19136 -0.026527 0.0048207
-0.0037706 0.0090866 0.0017169 0.014709 0.0014389 0.012436 0.016732 0.025585
-0.026525 0.0048276 -0.27252 -0.11597
560000000 -0.31759 0.11446 -0.023174 -0.064801 0.00021323 0.01292 0.0056031 0.01067
0.01007 0.0055157 0.010716 0.0083743
-0.023109 -0.064735 -0.37503 0.10108 -0.042147 -0.037372 0.013462 0.0030718
-0.013677 -0.0041357 0.0042395 -0.0010957
0.00025163 0.012897 -0.042289 -0.037319 -0.18575 0.25116 0.00011384 -0.0043384
0.019019 0.0045551 0.0081809 -0.004758
0.0056051 0.010703 0.013516 0.003018 0.00015215 -0.0043001 -0.30659 0.13633
0.0067167 -0.023639 0.0043874 -0.021247
0.010071 0.005503 -0.013711 -0.0040902 0.019007 0.0044945 0.0066894 -0.023614
-0.31102 -0.013078 0.0090004 -0.048366
0.010791 0.0084153 0.0042415 -0.0010615 0.0082089 -0.0048162 0.0043671 -0.021263
0.0090053 -0.048415 -0.33277 0.029135
620000000 -0.27726 0.094867 -0.022868 0.0086316 0.0040073 0.0093107 0.0086703 -0.0048532
0.012433 -0.0016571 0.0007468 -0.0030254
-0.022844 0.0086211 -0.40325 0.050414 -0.018175 0.00069064 -0.0013575 -0.002277
0.012039 -0.0061645 0.0012673 -0.0035009
0.0040457 0.0093019 -0.018193 0.00073423 -0.15499 0.26136 -0.00067283 -0.0050557
-0.0032863 -0.0032631 0.0092909 -0.0030683
0.0086368 -0.0049243 -0.0013561 -0.002289 -0.0006712 -0.0050973 -0.26445 0.14802
-0.037786 -0.021373 0.013059 0.02663
0.012437 -0.0016848 0.01204 -0.0062026 -0.0032724 -0.0032429 -0.03778 -0.021345
-0.23221 -0.042204 -0.039136 0.01111
0.00067681 -0.0030398 0.0012501 -0.0035036 0.0092751 -0.003105 0.013065 0.026654
-0.039093 0.011069 -0.25364 -0.0026271
680000000 -0.23839 0.18495 -0.026497 -0.014323 0.0050627 0.0055047 0.0011576 -0.0074032
-0.0023206 -0.012108 0.0043397 -0.0071655
-0.026469 -0.014323 -0.38976 0.15106 -0.032501 -0.0017185 -0.0012841 -0.0005066
-0.0020943 -0.0097163 -0.0013804 -0.0017651
0.0050574 0.0054876 -0.032546 -0.0016418 -0.10358 0.28162 -0.00096581 -0.00042216
-0.0017997 0.00032972 -0.0029898 -0.0092416
0.0011635 -0.0073435 -0.0012929 -0.0004823 -0.00094799 -0.00039391 -0.22076 0.19682
-0.022823 -0.0074952 -0.0091605 -0.011241
-0.0023501 -0.012076 -0.0021086 -0.0097072 -0.0017979 0.00035791 -0.022851 -0.0074711
-0.27793 0.057868 -0.0063311 -0.0071153
0.00438 -0.0071589 -0.0013685 -0.0017403 -0.0029681 -0.0092474 -0.0091637 -0.011275
-0.0063309 -0.0071175 -0.25957 0.096199
740000000 -0.19292 0.17835 -0.040058 0.026917 0.013365 -0.0050047 -0.00029584 -0.0042475
-0.004874 -0.002909 -0.0061863 0.0031545
-0.040054 0.026865 -0.33499 0.16923 -0.036546 0.035004 -0.00022242 -0.0056787
-0.012835 0.0069649 -0.0014297 -0.005661
0.013328 -0.0050406 -0.036474 0.035124 -0.06988 0.27887 -0.0021369 0.0032494
-0.0023031 -0.0053488 -0.0015417 0.00075247
-0.00030824 -0.0042735 -0.00024664 -0.0057109 -0.0021467 0.0032306 -0.203 0.20488
-0.042976 -0.0080654 0.02217 0.014751
-0.0048717 -0.0028723 -0.012798 0.0070466 -0.0023523 -0.0053371 -0.043004 -0.008055
-0.17834 0.083902 -0.041522 -0.00046095
-0.0061889 0.0031894 -0.0014849 -0.0056408 -0.0015625 0.00074813 0.022149 0.014778
-0.041472 -0.00047091 -0.24729 0.10566
800000000 -0.16134 0.22207 -0.02261 0.016306 0.005826 -0.010387 -0.0047721 -0.0022491
-0.0043728 0.0025452 0.0041249 0.0011017
-0.022603 0.016287 -0.34071 0.24019 -0.0084358 0.034071 -0.0023125 0.002097
-0.00095061 0.0027707 0.0006848 0.0056896
0.0058061 -0.010407 -0.0083442 0.03413 -0.030585 0.30265 0.00078005 0.0014278
0.00022691 0.0036725 -0.0019422 0.00096122
-0.004729 -0.0022025 -0.0022935 0.002113 0.00079882 0.0014486 -0.17353 0.23212
-0.028492 0.012913 0.013508 -0.010173
-0.0043623 0.0025684 -0.0009227 0.0027807 0.00023013 0.0036441 -0.028496 0.012966
-0.2188 0.1125 -0.016946 0.019641
0.0042135 0.0010591 0.00073134 0.0056523 -0.0019139 0.0009429 0.013518 -0.010234
-0.016942 0.019636 -0.23941 0.15436
860000000 -0.12658 0.24155 -0.017927 0.030419 -0.0030952 -0.010194 -0.0019305 0.00063558
0.0037601 0.0050061 -0.0034612 -0.0025325
-0.017943 0.030388 -0.29243 0.28272 0.0073483 0.034343 -4.9277e-05 0.0019309
0.0033553 0.00060865 0.0032052 0.00062434
-0.0031186 -0.010189 0.007445 0.03436 0.016758 0.31085 -0.00075732 -0.00019019
0.0023161 -0.0015618 0.0016412 0.004227
-0.0019437 0.00062531 -5.4219e-05 0.0019477 -0.00074991 -0.00019194 -0.13781 0.24295
-0.017871 0.017692 -0.0067723 -0.0087793
0.0037586 0.0049889 0.0033521 0.00059349 0.0023008 -0.0015449 -0.017874 0.017731
-0.16492 0.16228 -0.023596 0.016944
-0.0034742 -0.0025298 0.0032211 0.00059889 0.0016611 0.0042021 -0.0067879 -0.008762
-0.02359 0.016935 -0.18889 0.19784
920000000 -0.10302 0.26496 0.004557 0.038241 -0.0093616 -0.0049506 -0.0020743 0.0018718
0.0012213 0.0020716 0.0028859 -0.0014447
0.0045337 0.038212 -0.26522 0.30404 0.027939 0.022672 0.0014531 0.0012384
0.0076165 -0.00027749 0.0041022 -0.0027736
-0.0093718 -0.0049332 0.028027 0.022617 0.062249 0.31233 0.0018722 8.6797e-05
0.0010602 -0.00028314 0.0009829 -0.0012089
-0.0020559 0.001881 0.0014522 0.0012447 0.0018881 0.00010778 -0.11289 0.25933
-0.011091 0.030759 0.0031911 -0.006571
0.0012124 0.00209 0.0076735 -0.00032745 0.001062 -0.00027602 -0.011045 0.03079
-0.15207 0.16915 -0.0014512 0.026571
0.0028936 -0.0014526 0.0040832 -0.0028098 0.001001 -0.001202 0.003174 -0.0065861
-0.001471 0.026559 -0.19422 0.21215
980000000 -0.056507 0.28499 0.016832 0.030248 -0.0094775 0.004277 0.0018842 0.0036346
0.004098 -0.0016099 -0.0030422 -0.0025669
0.016792 0.030226 -0.21212 0.33881 0.033261 0.0054009 0.0020286 -0.00013218
0.001844 -0.0059876 -0.00036654 -0.0022999
-0.0094541 0.0043014 0.033301 0.0053063 0.10811 0.30651 0.00063632 -0.0011756
0.00049578 -0.0018764 0.0015143 -0.00028626
0.0018815 0.0036182 0.0020323 -0.00012716 0.00063561 -0.0011777 -0.074623 0.27076
0.0071277 0.029837 -0.0088954 -0.006798
0.0041096 -0.0016323 0.0018155 -0.0059805 0.0004967 -0.0018671 0.0071872 0.029839
-0.11922 0.19805 0.0060663 0.019816
-0.0030691 -0.0025416 -0.00034281 -0.002316 0.0015043 -0.00028399 -0.008903 -0.0067894
0.0060775 0.019781 -0.15087 0.25493
1040000000 -0.01513 0.29423 0.032822 0.019036 -0.0015121 0.0070055 0.0027547 0.0009016
0.00062326 -0.0034884 3.3015e-05 -0.0015951
0.032782 0.019035 -0.17714 0.35214 0.029971 -0.014516 0.0016509 -0.0017721
-0.0018669 -0.0027434 -0.001072 -0.0029564
-0.0014808 0.0070076 0.02993 -0.014616 0.15389 0.29361 -0.00047972 -0.0016314
-0.0014849 -0.00098256 -0.00054573 -0.0010495
0.0027707 0.00089271 0.0016538 -0.0017607 -0.00047761 -0.0016306 -0.047186 0.28029
0.019206 0.018644 -0.0025925 0.0013044
0.00057903 -0.0035037 -0.0018389 -0.0027312 -0.0014838 -0.00098614 0.019257 0.018617
-0.085716 0.20469 0.014242 0.017589
2.7685e-05 -0.0016127 -0.0010866 -0.0029611 -0.00054361 -0.0010397 -0.0025801 0.0013084
0.014243 0.017602 -0.12848 0.27535
1100000000 0.030088 0.30294 0.036319 -0.0035054 0.0027938 0.0040876 0.0024718 -0.0012654
-0.0021909 -0.0031222 -0.0040381 -0.00029572
0.036286 -0.0034831 -0.13384 0.37017 0.015866 -0.027863 0.00015236 -0.0018855
-0.0037413 -0.00090498 -0.0036062 -0.00063916
0.0028149 0.0040739 0.015774 -0.027949 0.2001 0.27421 -0.0019409 8.253e-05
-0.0016951 0.0004497 -0.0010691 -0.00052312
0.0024523 -0.0012859 0.0001495 -0.0018977 -0.001944 7.6459e-05 -0.0068751 0.28542
0.024583 0.0053471 -0.0023872 0.00032169
-0.0022319 -0.0031101 -0.0037593 -0.0008864 -0.0017036 0.000461 0.024605 0.0053207
-0.064811 0.21724 0.019386 0.0077068
-0.0040541 -0.00021837 -0.0036168 -0.00061712 -0.001073 -0.00052257 -0.0023963 0.00031824
0.019386 0.0076956 -0.081991 0.30301
1160000000 0.081037 0.29897 0.024556 -0.020501 0.0027726 -0.00041336 -5.2057e-05 -0.0024359
-0.0040216 -0.00076457 -0.00090482 0.0039317
0.024555 -0.02047 -0.090462 0.37481 -0.0033254 -0.029573 -0.0016267 -0.0016337
-0.0027455 0.0026307 -0.0015422 0.0018144
0.0027852 -0.00042464 -0.0034623 -0.029573 0.2433 0.24411 -0.00080661 0.0017147
-0.00052414 0.0018564 -0.00093965 0.00030505
-3.8138e-05 -0.0024343 -0.0016085 -0.0016319 -0.00081532 0.0017086 0.032242 0.28277
0.020812 -0.010105 -0.002968 0.0050786
-0.0040141 -0.00074987 -0.0027048 0.0026499 -0.00052839 0.0018603 0.020822 -0.010128
-0.030238 0.2248 0.018164 -0.00052631
-0.00091401 0.0039304 -0.0015502 0.0017945 -0.00093441 0.00031508 -0.0029425 0.0050931
0.018179 -0.00052033 -0.035962 0.30524
1220000000 0.12525 0.28902 0.011103 -0.030136 -0.0016004 -0.00085018 -4.0527e-05 -0.00094791
-0.0026847 0.0022028 0.0011472 0.0021094
0.01111 -0.03009 -0.046462 0.3878 -0.016882 -0.021861 -0.0027099 0.00046561
-3.9351e-05 0.0031028 -0.00078705 0.0019184
-0.0016031 -0.00085004 -0.016995 -0.021811 0.28263 0.2057 0.00074579 0.0017302
0.00057268 0.0012045 0.00024888 0.0005371
-6.2151e-05 -0.0009506 -0.0027166 0.00049208 0.00074753 0.0017293 0.072366 0.27444
0.010769 -0.016862 0.0021244 0.001629
-0.0026839 0.0022114 -2.9589e-05 0.0031156 0.00057226 0.0012025 0.010759 -0.016876
-0.0057892 0.23319 0.01341 -0.013097
0.0011468 0.002119 -0.0007663 0.0019195 0.00025049 0.00053263 0.0021354 0.0016281
0.013418 -0.013091 -0.0034906 0.31968
1280000000 0.17551 0.26834 -0.0075758 -0.028869 -0.001987 0.0024397 -0.00095523 -0.0020411
-0.00073326 0.003078 0.0024911 0.0012685
-0.0075701 -0.028838 -0.00042986 0.37941 -0.024173 -0.0089877 -0.00094448 0.0014707
0.0018428 0.0016426 0.00062362 0.0019418
-0.0019865 0.0024424 -0.024233 -0.0088943 0.31338 0.16219 0.0015358 -6.4637e-05
0.0011701 0.00024165 0.00037877 0.00020708
-0.00094993 -0.0020277 -0.00093121 0.0014577 0.0015377 -6.3154e-05 0.10931 0.25826
0.0010203 -0.019095 -2.6225e-05 0.00025441
-0.00071065 0.0030755 0.0018589 0.0016389 0.0011679 0.00024174 0.00098282 -0.019109
0.030966 0.2356 0.002647 -0.015276
0.0024849 0.0012384 0.00062492 0.0019332 0.00038033 0.00020971 -2.057e-05 0.0002578
0.0026578 -0.015274 0.04301 0.32064
1340000000 0.21289 0.23533 -0.017534 -0.019283 0.00082877 0.0047587 -0.0018515 -0.00086902
0.001415 0.002594 0.001757 -0.0014335
-0.017505 -0.019275 0.03906 0.37193 -0.022005 0.0040546 -0.00010349 0.0020373
0.0019956 0.00076105 0.0012328 0.00085505
0.00084298 0.0047583 -0.022013 0.0041598 0.33567 0.11506 0.0010407 -0.00094011
0.0006937 -0.00059129 4.8298e-05 0.00024701
-0.0018653 -0.00087356 -9.5211e-05 0.0020455 0.0010389 -0.00093692 0.14279 0.23779
-0.0082673 -0.016415 0.00087582 0.00038378
0.0014365 0.0025926 0.0019946 0.00073783 0.00069325 -0.00058901 -0.008305 -0.016408
0.060837 0.23056 -0.0038144 -0.013823
0.0017452 -0.0014345 0.0012603 0.00084697 4.9099e-05 0.00024678 0.00088225 0.0003875
-0.003818 -0.013822 0.081132 0.31497
1400000000 0.24669 0.19791 -0.023564 -0.0076971 0.0052819 0.0033393 -0.0022248 0.00066253
0.0024235 0.0010092 0.00028929 -0.0015858
-0.023535 -0.0077078 0.076713 0.35957 -0.015356 0.012567 0.0013451 0.0012987
0.0012694 -0.00085205 0.0011172 8.2084e-05
0.0052923 0.0033147 -0.015322 0.012659 0.3492 0.061786 3.8323e-05 -0.0015749
4.4525e-05 -0.00032537 0.00030453 0.00014011
-0.0022125 0.00069241 0.0013442 0.0012815 3.5121e-05 -0.0015903 0.17256 0.2087
-0.01425 -0.0096761 -0.00072493 -0.00035528
0.002433 0.00099552 0.0012594 -0.00086182 3.9625e-05 -0.00032166 -0.014278 -0.0096551
0.094329 0.22549 -0.010228 -0.0085663
0.00028083 -0.0015882 0.0010993 8.2834e-05 0.00029853 0.00014273 -0.00072639 -0.00035639
-0.010222 -0.0085751 0.12516 0.30346
1460000000 0.27005 0.15418 -0.020475 0.0046749 0.0058642 -0.0017242 -0.0014945 0.0017886
0.0021436 -0.0003666 -0.00040478 -0.001047
-0.020452 0.0046623 0.11125 0.33797 -0.0063667 0.015804 0.001657 0.00017162
0.00078817 -0.0013868 0.0012285 -0.00051909
0.0058545 -0.0017481 -0.0063029 0.015844 0.3557 0.0077153 -0.0011957 -0.0012549
7.8539e-05 -0.00020911 0.00062086 -0.00022857
-0.0015125 0.0017819 0.0016776 0.000176 -0.0011881 -0.0012444 0.19928 0.17921
-0.015473 -0.0031755 -0.00083926 0.0018311
0.0021524 -0.00038004 0.00078561 -0.001387 7.1795e-05 -0.00022568 -0.0155 -0.0031449
0.12366 0.21063 -0.011911 -0.0027025
-0.00042809 -0.0010264 0.0012219 -0.00053358 0.00063523 -0.00024012 -0.00084081 0.0018487
-0.011904 -0.0027198 0.15797 0.28262
1520000000 0.28264 0.11272 -0.014886 0.010286 0.0035346 -0.0042424 0.00013606 0.002533
0.0020642 -0.0019624 -0.0011114 -0.00013392
-0.014879 0.010265 0.14514 0.32376 0.0015962 0.013542 0.0016305 -0.00075347
2.0303e-05 -0.0010606 0.00037931 -0.0010309
0.0035053 -0.0042488 0.0016682 0.013555 0.34929 -0.04799 -0.0010413 -0.00032704
0.00062519 -0.00075792 0.00015725 -0.00016622
0.00014572 0.0025351 0.001614 -0.00076308 -0.0010487 -0.00032281 0.22292 0.14067
-0.014754 0.0026153 0.0013742 0.0019446
0.0020495 -0.0019791 1.3525e-05 -0.0010649 0.00062561 -0.00076697 -0.014754 0.00265
0.15187 0.19698 -0.011756 0.0017449
-0.0011207 -0.00013616 0.0003797 -0.0010289 0.00015834 -0.00016223 0.0013899 0.0019372
-0.011746 0.001738 0.19075 0.26163
1580000000 0.29275 0.066475 -0.0081564 0.013466 -0.00088044 -0.0051531 0.001526 0.0019001
-0.00014981 -0.0021088 -0.00025789 0.00037869
-0.0081523 0.013462 0.1728 0.29905 0.0055097 0.0084957 0.00053234 -0.0015471
-0.00054975 -0.0010366 -0.00020461 -0.00085741
-0.00090118 -0.0051462 0.0055655 0.0084671 0.32995 -0.10556 -0.0016056 0.00052502
-0.00035587 -0.0012699 0.0002131 -0.00050936
0.0015239 0.0018864 0.000529 -0.001549 -0.0016035 0.00052964 0.23671 0.10056
-0.011436 0.0073725 0.0021364 0.00072505
-0.00016734 -0.0021171 -0.0005595 -0.0010319 -0.00035432 -0.0012707 -0.011419 0.0074032
0.17598 0.17859 -0.0092032 0.007392
-0.00024533 0.00037958 -0.00021171 -0.00086243 0.00021066 -0.00052174 0.0021334 0.00073004
-0.0092297 0.0073816 0.2221 0.23441
1640000000 0.2951 0.025356 -0.0013782 0.012329 -0.0029239 -0.0027561 0.0026752 0.0010148
-0.00074293 -0.0016096 -0.00028544 0.00054733
-0.0013873 0.012322 0.20264 0.27428 0.0061749 0.0034125 -0.00058577 -0.0017513
-0.00092855 -0.00039067 -0.00052127 -0.00069769
-0.0029394 -0.0027375 0.0062019 0.0033844 0.30169 -0.15529 -0.00066594 0.0013946
-0.00099397 -0.00094916 -0.00019436 -0.00032258
0.0026709 0.00099921 -0.00060371 -0.0017523 -0.000661 0.0014032 0.24903 0.051268
-0.0072656 0.008746 0.0024025 -0.00083032
-0.00075273 -0.00161 -0.00093994 -0.00038319 -0.00098568 -0.00094905 -0.0072494 0.0087695
0.19899 0.15448 -0.0045945 0.0092889
-0.0002769 0.00055441 -0.00051527 -0.00069047 -0.0001963 -0.00032986 0.0024162 -0.00082674
-0.0045941 0.0093104 0.24737 0.2033
1700000000 0.28817 -0.019891 0.0020255 0.0094953 -0.0036599 -1.1941e-05 0.0030924 -0.0012059
-0.001977 -0.00063124 0.0006405 0.00037155
0.0020139 0.0094881 0.22113 0.24282 0.0040909 0.00042745 -0.0014592 -0.00065707
-0.00083848 -2.1564e-05 -0.00083918 -0.00045531
-0.0036604 4.859e-06 0.0041038 0.00041152 0.25862 -0.19498 0.00041627 0.0015178
-0.001914 -0.00018552 -0.00043793 -0.00083427
0.0030889 -0.0012259 -0.001452 -0.00065525 0.00041861 0.0015101 0.24552 0.00087642
-0.0044487 0.0093355 0.001506 -0.0021854
-0.0019882 -0.00061654 -0.00082799 -1.2614e-05 -0.0018982 -0.00018201 -0.0044318 0.0093463
0.21643 0.1338 -7.4489e-05 0.0095822
0.00064494 0.00036056 -0.00085611 -0.00046262 -0.00044069 -0.0008304 0.0014898 -0.0022118
-7.7575e-05 0.0095486 0.26348 0.16887
1760000000 0.27644 -0.068604 0.0043858 0.0062354 -0.0024216 0.001063 0.0013026 -0.0033922
-0.0014126 0.00061137 0.0002685 -0.00050729
0.0043796 0.0062303 0.24733 0.20299 0.0017335 -0.0013859 -0.0011827 8.3068e-05
-0.0010637 0.00084277 -0.00070105 0.00038466
-0.0024117 0.0010916 0.0017264 -0.0013943 0.21015 -0.22797 0.0011339 0.0011569
-0.0012944 0.0013989 -0.0011282 -0.00070192
0.0012713 -0.003381 -0.0011987 9.178e-05 0.0011304 0.001148 0.2358 -0.050975
-0.0012257 0.0085446 -0.0002428 -0.0025152
-0.0014081 0.00060899 -0.0010755 0.00084523 -0.0012936 0.0014121 -0.0012081 0.0085538
0.23121 0.098917 0.0038185 0.006913
0.00027426 -0.00049904 -0.00067338 0.00039899 -0.0011427 -0.00069822 -0.00022051 -0.0024987
0.0038342 0.0069328 0.27593 0.13139
1820000000 0.25215 -0.10606 0.0045271 0.0025631 -0.00033881 0.0024188 -0.0010508 -0.003173
-0.0011365 0.00094524 -0.00013133 -3.208e-05
0.0045253 0.0025686 0.25761 0.17282 -0.00061892 -0.00038017 -0.0013967 0.00091006
-9.5726e-05 0.0012608 -0.00061813 0.00055042
-0.0003382 0.00243 -0.00062551 -0.0003752 0.15991 -0.2441 0.0015476 0.00049681
-0.00028053 0.0023756 -0.0015182 0.00039007
-0.0010607 -0.003174 -0.0013785 0.00090064 0.0015457 0.00047394 0.20527 -0.098121
0.00038541 0.0071708 -0.0017032 -0.0014487
-0.0011369 0.00095459 -8.3003e-05 0.0012622 -0.0002733 0.0023675 0.00039263 0.0071733
0.24831 0.069955 0.0046008 0.0036475
-0.00012996 -3.0821e-05 -0.00062861 0.00056195 -0.0014924 0.00040763 -0.0017162 -0.001452
0.0046002 0.00364 0.27768 0.094698
1880000000 0.217 -0.14658 0.002373 0.00024054 -0.00045745 0.0021077 -0.002838 -0.0021874
-0.00021816 0.0018979 0.00021657 -0.00051958
0.0023625 0.00024491 0.26221 0.12613 -0.0024711 0.0015585 -0.0002377 0.0017807
0.00061033 0.0013543 3.7334e-05 0.00095911
-0.00044576 0.0021116 -0.0024654 0.0015846 0.10808 -0.25374 0.0018592 -0.00086605
0.0015529 0.002037 -0.0010767 0.001334
-0.0028349 -0.0021732 -0.00024517 0.0017632 0.0018491 -0.00085735 0.16383 -0.13794
0.0011158 0.0053139 -0.0022796 0.00043583
-0.00019367 0.00189 0.00061328 0.0013353 0.0015457 0.002044 0.0011227 0.0053074
0.25196 0.038111 0.0048818 0.0013436
0.00021077 -0.00051615 4.9675e-05 0.00097707 -0.0010838 0.0013179 -0.0022952 0.00044266
0.0048655 0.0013439 0.27726 0.060915
1940000000 0.17758 -0.17211 -9.1453e-05 -0.0013823 0.0013954 0.0022301 -0.0038044 0.00039532
0.001353 0.0011618 -0.00043217 -0.00047997
-8.871e-05 -0.001376 0.26278 0.094355 -0.0014637 0.0041793 0.0010438 0.0014285
0.0019131 0.00058486 0.0010324 0.00042679
0.0014072 0.0022171 -0.001442 0.0041945 0.061574 -0.24647 0.00056542 -0.0021597
0.0025224 0.0004942 0.00058525 0.001777
-0.0038122 0.00043852 0.0010531 0.0014392 0.00056303 -0.0021698 0.111 -0.16802
0.00035483 0.0041261 -0.0013995 0.0017385
0.0013468 0.0011709 0.0019084 0.00057653 0.0025342 0.00048694 0.00036294 0.0041339
0.25453 -0.00010649 0.0035627 -0.0016867
-0.00045204 -0.00048212 0.0010277 0.00041017 0.00058409 0.001779 -0.0013786 0.0017522
0.0035762 -0.001679 0.26592 0.024346
2000000000 0.13165 -0.18684 -0.0038714 0.00066862 0.0025904 0.001532 -0.0024185 0.0037878
0.0012632 0.0004345 -0.00053832 0.00048255
-0.0038629 0.00066619 0.24875 0.058657 -0.00084704 0.0059036 0.001604 0.00042726
0.0014153 -0.0011252 0.00062552 0.00017417
0.0025958 0.0015051 -0.0008043 0.0059196 0.018907 -0.23225 -0.0013845 -0.0014872
0.0021906 -0.0012234 0.0019216 0.0012786
-0.0023966 0.0037712 0.0015994 0.00039458 -0.0013937 -0.0014571 0.057733 -0.17731
-0.0009558 0.0038496 4.7354e-05 0.0019813
0.0012869 0.00039573 0.0014195 -0.0011493 0.0021908 -0.0012317 -0.00093664 0.0038541
0.24948 -0.033386 0.00068769 -0.002629
