!Keysight Technologies,M9804A,MY58100912,A.14.10.03
!Date: Thursday, April 27, 2023 10:28:33
!Correction: S11(C  6-Port  ) 
!S12(C  6-Port  ) 
!S13(C  6-Port  ) 
!S14(C  6-Port  ) 
!S15(C  6-Port  ) 
!S16(C  6-Port  ) 
!S21(C  6-Port  ) 
!S22(C  6-Port  ) 
!S23(C  6-Port  ) 
!S24(C  6-Port  ) 
!S25(C  6-Port  ) 
!S26(C  6-Port  ) 
!S31(C  6-Port  ) 
!S32(C  6-Port  ) 
!S33(C  6-Port  ) 
!S34(C  6-Port  ) 
!S35(C  6-Port  ) 
!S36(C  6-Port  ) 
!S41(C  6-Port  ) 
!S42(C  6-Port  ) 
!S43(C  6-Port  ) 
!S44(C  6-Port  ) 
!S45(C  6-Port  ) 
!S46(C  6-Port  ) 
!S51(C  6-Port  ) 
!S52(C  6-Port  ) 
!S53(C  6-Port  ) 
!S54(C  6-Port  ) 
!S55(C  6-Port  ) 
!S56(C  6-Port  ) 
!S61(C  6-Port  ) 
!S62(C  6-Port  ) 
!S63(C  6-Port  ) 
!S64(C  6-Port  ) 
!S65(C  6-Port  ) 
!S66(C  6-Port  ) 
!S6P File: Measurement: :
# Hz S  RI   R 50
500000000 -0.33695 -0.041612 -0.0094788 -0.0025937 -0.0081365 0.012243 -0.0043314 0.0123
0.0127 0.0046267 -0.0047661 0.0089768
-0.0094963 -0.0025879 -0.41877 -0.053642 0.0080078 -0.01065 0.0015851 0.012305
0.007907 0.0021458 0.0015588 0.013374
-0.0081291 0.012287 0.0080121 -0.010641 -0.2651 0.208 0.0077203 0.0035769
-0.0020921 0.007666 0.0012659 0.012062
-0.0043203 0.012304 0.0015948 0.012335 0.0077172 0.0036065 -0.3321 0.039112
-0.019032 -0.0061343 0.016677 0.026487
0.012658 0.0046386 0.0080007 0.0020704 -0.0020512 0.0075887 -0.019027 -0.0061209
-0.2175 -0.20554 -0.02567 0.0055458
-0.0047952 0.0090114 0.0015374 0.013382 0.0012182 0.012022 0.016658 0.026431
-0.025638 0.0055449 -0.25887 -0.15312
560000000 -0.31691 0.12004 -0.023433 -0.063074 -0.00050023 0.011821 0.0055455 0.010812
0.010602 0.0049908 0.01103 0.0077404
-0.023388 -0.062979 -0.37708 0.10625 -0.041114 -0.037717 0.013874 0.0038588
-0.012903 -0.0055657 0.0025415 -0.00019273
-0.00047189 0.011814 -0.041262 -0.037672 -0.18313 0.25604 -0.00072109 -0.0043405
0.019815 0.0054707 0.0068465 -0.0058236
0.005558 0.010748 0.013932 0.0037737 -0.00072093 -0.0043682 -0.30742 0.12965
0.0043588 -0.023906 0.0049958 -0.02215
0.01058 0.0049914 -0.012927 -0.0056015 0.019749 0.0054858 0.0043374 -0.023906
-0.28765 -0.029229 0.009783 -0.049356
0.011045 0.0077389 0.0026162 -0.00017933 0.0068534 -0.0058093 0.0049934 -0.022129
0.0098339 -0.049386 -0.32907 -0.00025077
620000000 -0.27607 0.10416 -0.023378 0.0077458 0.0029027 0.0083676 0.0082105 -0.0054119
0.01093 -0.00015015 0.0014937 -0.0024897
-0.023386 0.0077649 -0.40274 0.057838 -0.018671 5.6819e-05 -0.0013925 -0.0021098
0.011523 -0.0061623 0.0016446 -0.0030048
0.0029265 0.0083923 -0.018687 0.00010218 -0.15434 0.26576 -0.0015257 -0.0051109
-0.0026281 -0.0024055 0.0079427 -0.00327
0.0082558 -0.005384 -0.001411 -0.0021232 -0.0015233 -0.0051281 -0.2677 0.14111
-0.038126 -0.01946 0.012524 0.026544
0.010863 -0.00013634 0.011538 -0.0062271 -0.002581 -0.002376 -0.038139 -0.019435
-0.20515 -0.068623 -0.042463 0.014668
0.0013488 -0.0024776 0.0017239 -0.0029971 0.0079929 -0.0032313 0.012487 0.026596
-0.042505 0.014614 -0.24767 -0.039996
680000000 -0.23578 0.19039 -0.027315 -0.014676 0.0047391 0.0051556 0.001678 -0.0070223
-0.0034307 -0.011158 0.0054584 -0.0068329
-0.02729 -0.014652 -0.38824 0.15602 -0.032695 -0.0015924 -0.0016739 -0.00038965
-0.0022326 -0.0088675 -0.0012527 -0.0018235
0.0047478 0.0051369 -0.032733 -0.001506 -0.10302 0.2855 -0.00077818 -0.00025719
-0.0017703 0.00064019 -0.0026799 -0.0095341
0.0016925 -0.0070536 -0.0016901 -0.00038709 -0.0007932 -0.00025313 -0.22232 0.19278
-0.0233 -0.0075146 -0.0096878 -0.012648
-0.003483 -0.011142 -0.0022758 -0.0088575 -0.0017578 0.00062759 -0.023317 -0.0074955
-0.25943 0.031129 -0.0054624 -0.0088547
0.0054384 -0.0068827 -0.0012399 -0.0017995 -0.0026544 -0.0095518 -0.0097054 -0.012596
-0.0054458 -0.008792 -0.26247 0.070806
740000000 -0.19146 0.18509 -0.039029 0.0269 0.012379 -0.0050933 -8.945e-05 -0.0043482
-0.0036615 -0.0025851 -0.0060313 0.0024617
-0.039036 0.026864 -0.33531 0.17523 -0.035721 0.03497 -0.00092399 -0.0063229
-0.011029 0.0076889 -0.0025361 -0.0070638
0.01237 -0.005098 -0.035639 0.035136 -0.06914 0.28396 -0.0020988 0.0029392
-0.0019101 -0.0047516 -0.0013396 -0.00046363
-6.7765e-05 -0.0043581 -0.00093988 -0.0063022 -0.0021072 0.0029077 -0.20565 0.20107
-0.043807 -0.0077968 0.023498 0.01573
-0.0037409 -0.0025505 -0.011011 0.0077758 -0.0018876 -0.0047334 -0.043846 -0.0077697
-0.15867 0.058951 -0.045112 -0.00048394
-0.0061195 0.0025073 -0.0025974 -0.0070992 -0.0012696 -0.00043739 0.023538 0.015727
-0.045096 -0.00053276 -0.25328 0.075168
800000000 -0.15887 0.2262 -0.022716 0.016741 0.0052503 -0.010501 -0.0047173 -0.0022802
-0.0039813 0.0021312 0.0049692 2.7656e-05
-0.022673 0.016714 -0.33891 0.24555 -0.0080768 0.033974 -0.0023309 0.0021647
-0.00053912 0.0027133 0.0009543 0.0051949
0.0052178 -0.010515 -0.0079744 0.034041 -0.028541 0.30728 0.00094733 0.0014927
0.00028572 0.0034186 -0.001697 0.00057538
-0.0047134 -0.0022556 -0.0023256 0.0021736 0.00093511 0.0015064 -0.17691 0.22929
-0.028627 0.013437 0.014277 -0.010718
-0.0039542 0.0021747 -0.00053341 0.0027034 0.00029321 0.0034221 -0.028625 0.013501
-0.20819 0.082318 -0.018178 0.019335
0.0049828 2.0918e-05 0.00098097 0.0051942 -0.0016858 0.00057784 0.014278 -0.010745
-0.01818 0.019288 -0.25055 0.12693
860000000 -0.12437 0.2465 -0.017696 0.03062 -0.0033161 -0.0097887 -0.0023858 0.00081119
0.0038463 0.0046831 -0.0034676 -0.0031128
-0.017652 0.03056 -0.2913 0.28753 0.007592 0.034129 -4.1189e-05 0.0019657
0.0038801 -3.3495e-06 0.0031462 0.00073814
-0.0033332 -0.0097908 0.0077052 0.034138 0.019592 0.31514 -0.00057467 -0.00020804
0.0028222 -0.0014988 0.001339 0.0043406
-0.0023616 0.00082206 -6.3213e-05 0.0019519 -0.00057295 -0.00021144 -0.14017 0.24032
-0.018351 0.018019 -0.0063495 -0.0090863
0.0038947 0.0047035 0.0038534 -4.392e-05 0.0028199 -0.0015057 -0.018335 0.018057
-0.15754 0.13536 -0.027312 0.015093
-0.0034515 -0.0031195 0.0031682 0.00077177 0.0013306 0.0043207 -0.0063692 -0.0090845
-0.027296 0.015033 -0.19882 0.17593
920000000 -0.10006 0.26986 0.004901 0.037982 -0.0092933 -0.00429 -0.0019109 0.0018611
0.00096438 0.0018801 0.0026399 -0.0015251
0.0048912 0.037901 -0.2625 0.30889 0.027783 0.022022 0.0014084 0.0011465
0.0071658 -0.00029884 0.0038861 -0.0026943
-0.0093096 -0.0042667 0.027885 0.021967 0.065764 0.31563 0.0018577 4.8394e-05
0.0010908 -0.00028934 0.00083515 -0.0010194
-0.0018882 0.0018547 0.0014085 0.0011429 0.0018517 4.5349e-05 -0.11615 0.2572
-0.011359 0.030496 0.0040582 -0.0065848
0.00099614 0.0018744 0.0071317 -0.00033241 0.0010807 -0.00027858 -0.011313 0.030527
-0.14781 0.14161 -0.0029987 0.028005
0.0026387 -0.0015863 0.003891 -0.0027048 0.00085229 -0.0010316 0.0040369 -0.0066008
-0.0030248 0.02799 -0.21169 0.18964
980000000 -0.052422 0.28947 0.017385 0.030165 -0.0088753 0.0046486 0.0021092 0.0035144
0.0040554 -0.0013455 -0.0033713 -0.0022883
0.017382 0.030122 -0.20937 0.34288 0.032783 0.0050959 0.0019995 -1.613e-06
0.0015557 -0.0057489 -0.00032667 -0.0024324
-0.0088508 0.0046636 0.032826 0.004995 0.11184 0.30905 0.00052802 -0.0011453
0.00039913 -0.0019886 0.0014976 -0.0002032
0.0021111 0.0035358 0.0019926 -2.303e-05 0.0005325 -0.0011486 -0.077394 0.26837
0.0072404 0.03028 -0.0093846 -0.007524
0.0040642 -0.0013665 0.0015453 -0.0057821 0.00040637 -0.0019728 0.0073011 0.030284
-0.11725 0.17209 0.0044793 0.020313
-0.003388 -0.002316 -0.00035064 -0.0024384 0.0015145 -0.00021126 -0.0093999 -0.0075058
0.00445 0.0203 -0.16881 0.23813
1040000000 -0.010355 0.29803 0.033021 0.018517 -0.0011498 0.0068905 0.0025114 0.00063723
0.00012563 -0.0036581 -0.00010059 -0.0013759
0.03299 0.018464 -0.17385 0.35579 0.029318 -0.014499 0.0014881 -0.001661
-0.0023829 -0.002497 -0.0011514 -0.0025552
-0.0011331 0.0068796 0.029272 -0.014615 0.15756 0.29533 -0.00048727 -0.0015707
-0.0015622 -0.00089011 -0.00034505 -0.0010642
0.0025359 0.00063417 0.0014807 -0.0016899 -0.00048525 -0.0015733 -0.050363 0.27838
0.018882 0.0186 -0.0020094 0.0014831
0.00012198 -0.0036388 -0.0024231 -0.0024604 -0.0015685 -0.0008615 0.018922 0.018569
-0.084593 0.18015 0.013154 0.019823
-0.00012286 -0.001381 -0.0011964 -0.0025035 -0.00037785 -0.0010676 -0.0020076 0.0014982
0.013138 0.019825 -0.14963 0.25971
1100000000 0.035058 0.30595 0.035756 -0.0038702 0.002899 0.0038181 0.0023257 -0.0013156
-0.0019722 -0.0032306 -0.0038508 2.6124e-05
0.035705 -0.0038589 -0.13045 0.37299 0.015202 -0.027419 1.3469e-05 -0.001757
-0.0031551 -0.00084187 -0.0034137 -0.0005453
0.002908 0.0038068 0.015099 -0.027505 0.20353 0.2753 -0.0018767 0.00020582
-0.0017144 0.00041813 -0.0011415 -0.00043781
0.0023356 -0.0013094 9.0199e-06 -0.0017606 -0.001871 0.00020174 -0.010144 0.28328
0.024388 0.0057995 -0.0025777 -1.7571e-05
-0.0019931 -0.0032207 -0.0031773 -0.00083177 -0.0017183 0.00041606 0.024393 0.005763
-0.066735 0.19429 0.019133 0.0097766
-0.0038588 3.6268e-05 -0.0034245 -0.00052531 -0.001133 -0.00042584 -0.0025724 -9.1438e-06
0.019121 0.0097677 -0.10392 0.29277
1160000000 0.086465 0.30085 0.024038 -0.020325 0.0027827 -0.00058678 -0.00036652 -0.0023865
-0.004124 -0.0008743 -0.00093535 0.0041286
0.024027 -0.020305 -0.087159 0.37685 -0.0032666 -0.028845 -0.0015996 -0.0016831
-0.0027231 0.0023003 -0.0013296 0.0018702
0.0027735 -0.00058302 -0.0034173 -0.02885 0.24645 0.24501 -0.00069362 0.0017191
-0.00067598 0.0018737 -0.00097396 0.00022378
-0.00038124 -0.0023848 -0.001621 -0.0016903 -0.00069606 0.0017133 0.028833 0.2805
0.021353 -0.0095835 -0.0031347 0.0053841
-0.0041255 -0.00082553 -0.0027313 0.0023125 -0.00068702 0.0018791 0.021337 -0.0096242
-0.032618 0.20378 0.018525 0.001689
-0.00087045 0.0041407 -0.0013257 0.0018832 -0.0009683 0.00023289 -0.003108 0.0053994
0.018522 0.0016909 -0.056555 0.29612
1220000000 0.13073 0.28984 0.01079 -0.029674 -0.0015136 -0.00095688 5.3515e-06 -0.00077251
-0.0027094 0.0023974 0.0012449 0.0020498
0.010776 -0.029644 -0.043053 0.38898 -0.016382 -0.021123 -0.0024785 0.00038461
-0.00010177 0.0029535 -0.0008718 0.0018717
-0.0015092 -0.00094425 -0.016503 -0.02106 0.28579 0.20662 0.00075846 0.0016277
0.00054505 0.0012247 0.00028336 0.00067432
1.3479e-07 -0.0007775 -0.0024818 0.00038629 0.00075844 0.001625 0.068375 0.27237
0.010997 -0.016388 0.0023435 0.0014736
-0.0026998 0.0024172 -8.0997e-05 0.0029536 0.00053879 0.0012229 0.010975 -0.016406
-0.010826 0.21261 0.015098 -0.011933
0.0012676 0.0020426 -0.00084844 0.0018764 0.00028708 0.00067913 0.0023522 0.0014733
0.015107 -0.011928 -0.026513 0.31577
1280000000 0.18032 0.26782 -0.0073633 -0.028358 -0.0018857 0.0022654 -0.00081025 -0.0018882
-0.00083465 0.003041 0.0024114 0.0012143
-0.0073506 -0.028324 0.0024975 0.38017 -0.023249 -0.0087996 -0.0010116 0.0013657
0.0015458 0.0018694 0.00058269 0.0021157
-0.0018764 0.002281 -0.023308 -0.008693 0.31692 0.163 0.0015722 6.463e-05
0.0011102 0.00037772 0.00046185 0.00037785
-0.00080991 -0.0018772 -0.0010181 0.0013751 0.0015657 6.4783e-05 0.10498 0.25627
0.0020603 -0.018769 7.8555e-06 4.3556e-05
-0.00080574 0.0030556 0.0015624 0.0018614 0.0011123 0.000392 0.002027 -0.018771
0.025877 0.21646 0.004133 -0.01464
0.0024267 0.0011988 0.00060019 0.0021165 0.00046234 0.00038085 5.7424e-06 3.1326e-05
0.0041351 -0.014642 0.022341 0.32001
1340000000 0.21713 0.23417 -0.017067 -0.019243 0.00074998 0.0043767 -0.001538 -0.00083626
0.001417 0.0027659 0.0018041 -0.0013104
-0.017057 -0.019207 0.041775 0.37246 -0.021446 0.0037101 -0.00022202 0.0019625
0.0018233 0.00096837 0.0013215 0.00085956
0.00078691 0.0043656 -0.021439 0.0038277 0.33948 0.11499 0.0011421 -0.00086369
0.00077798 -0.00042511 0.00026723 0.00032901
-0.0015429 -0.0008183 -0.00021254 0.0019636 0.0011394 -0.00086294 0.13721 0.23656
-0.0073414 -0.016644 0.0010564 0.00036489
0.0014328 0.0027535 0.0018353 0.00095733 0.00077186 -0.00042018 -0.0073767 -0.016628
0.054737 0.21192 -0.0022739 -0.013674
0.0017945 -0.0013217 0.0013318 0.00086622 0.00027821 0.00032467 0.0010497 0.00036325
-0.0022731 -0.013691 0.060473 0.31779
1400000000 0.24996 0.19622 -0.023087 -0.0080025 0.0049235 0.0030911 -0.0020012 0.00044711
0.0023446 0.00087181 0.00042437 -0.0013168
-0.023055 -0.0079693 0.079062 0.35971 -0.014986 0.011879 0.0012257 0.0013916
0.0011904 -0.00067319 0.0013018 0.00032468
0.004949 0.0030651 -0.014948 0.01198 0.35299 0.060949 0.00023361 -0.0016075
-1.0309e-05 -0.000407 0.00043306 0.00019157
-0.0020027 0.00046354 0.0012454 0.0013908 0.0002351 -0.0016057 0.16673 0.20832
-0.013375 -0.01052 -0.00096836 -0.0007994
0.0023692 0.00085131 0.0011898 -0.0006893 -9.4269e-06 -0.00041214 -0.013394 -0.01049
0.087242 0.20839 -0.0088006 -0.0096359
0.000422 -0.0013211 0.0012905 0.00032942 0.00044432 0.00020106 -0.00098441 -0.00080104
-0.0087933 -0.0096469 0.10676 0.30834
1460000000 0.27266 0.15256 -0.020437 0.0040765 0.0054244 -0.0016921 -0.0016642 0.0015874
0.0020771 -0.00046341 -0.00027016 -0.00099541
-0.020411 0.0040877 0.11345 0.33827 -0.0065943 0.014979 0.0017632 0.00026515
0.0010302 -0.0012761 0.0012551 -0.00063684
0.0054312 -0.0017121 -0.006527 0.01503 0.35898 0.0061998 -0.0012118 -0.0013495
0.00020203 -0.00031129 0.00048277 -0.00042576
-0.0016586 0.0015957 0.0017705 0.00026326 -0.0012116 -0.0013505 0.19316 0.17981
-0.01522 -0.0042386 -0.0011134 0.0018357
0.0020687 -0.00048878 0.0010177 -0.0013019 0.00020221 -0.00031224 -0.015226 -0.004201
0.11558 0.19424 -0.01126 -0.0037664
-0.00027299 -0.0010305 0.0012491 -0.00063571 0.00048277 -0.00044321 -0.0011015 0.0018263
-0.011266 -0.0037663 0.14111 0.28867
1520000000 0.28492 0.11119 -0.015152 0.0097791 0.0032891 -0.0039732 -3.3586e-05 0.0025826
0.0021438 -0.0016195 -0.001107 -0.00021803
-0.015121 0.0097783 0.1473 0.32367 0.0010758 0.013082 0.0017394 -0.00073956
0.00010973 -0.0011182 0.00038717 -0.0010366
0.0032707 -0.0040042 0.0011472 0.013084 0.35203 -0.050382 -0.0011509 -0.00043981
0.00063164 -0.00079726 3.3679e-05 -9.2614e-05
-1.8672e-05 0.0025845 0.0017415 -0.00075163 -0.0011549 -0.00043338 0.2167 0.14261
-0.015363 0.0014715 0.0011933 0.0021085
0.0021368 -0.0016306 9.4308e-05 -0.0011206 0.00062839 -0.00079844 -0.01537 0.0015041
0.14269 0.1812 -0.011871 0.00041085
-0.001098 -0.00020992 0.00038473 -0.0010312 2.6673e-05 -9.3773e-05 0.0011903 0.0021064
-0.011867 0.00040891 0.17588 0.27023
1580000000 0.29451 0.065234 -0.0086816 0.013203 -0.00083917 -0.0047365 0.0013112 0.0019758
-0.00020696 -0.002043 -0.00040947 0.00043516
-0.0086459 0.013173 0.17486 0.29897 0.0047928 0.00848 0.00054945 -0.0016307
-0.00061651 -0.0011605 -0.00026972 -0.00079921
-0.00085953 -0.0047419 0.0048476 0.0084629 0.33132 -0.10808 -0.0017033 0.00070267
-0.0002039 -0.0011168 3.5827e-05 -0.00051419
0.0013184 0.0019746 0.00055105 -0.0016462 -0.0017095 0.00070823 0.23117 0.10394
-0.012422 0.006878 0.0021466 0.0010417
-0.00021744 -0.0020434 -0.00061934 -0.0011565 -0.00020257 -0.0011184 -0.01242 0.0069112
0.1669 0.16455 -0.009786 0.0065492
-0.00041063 0.00044557 -0.00027086 -0.00080207 4.6965e-05 -0.00050901 0.0021446 0.0010369
-0.0097948 0.0065512 0.20994 0.2438
1640000000 0.29692 0.023958 -0.0019345 0.01252 -0.0025293 -0.0024933 0.0027142 0.0011253
-0.00051611 -0.0015451 -0.00025518 0.00056901
-0.0019107 0.012488 0.20467 0.27388 0.0057817 0.0038217 -0.00062555 -0.001803
-0.0010953 -0.00042037 -0.00045697 -0.00073597
-0.0025573 -0.0024869 0.0058094 0.0037869 0.30277 -0.15718 -0.00062594 0.0015774
-0.00096621 -0.0011256 -7.6587e-05 -0.00044348
0.0027223 0.0011082 -0.00064063 -0.0018097 -0.00062492 0.0015749 0.24424 0.05566
-0.008371 0.0088703 0.0024492 -0.00063566
-0.00052861 -0.0015416 -0.0011075 -0.00041077 -0.00096054 -0.0011129 -0.0083577 0.0089068
0.18916 0.14132 -0.0053611 0.0088822
-0.00024562 0.00057359 -0.00045866 -0.00073904 -7.8459e-05 -0.00044446 0.0024426 -0.00064473
-0.0053732 0.0088911 0.23639 0.2132
1700000000 0.28991 -0.021542 0.0017117 0.0099442 -0.0032934 8.946e-05 0.003122 -0.0011259
-0.0019978 -0.00084355 0.00068883 0.00046215
0.0017193 0.0099044 0.22297 0.24209 0.0039337 0.0009623 -0.0014985 -0.00066461
-0.00081276 0.00012108 -0.00092128 -0.000484
-0.0032944 0.00010837 0.0039481 0.00094641 0.25904 -0.19686 0.00056079 0.0016055
-0.0019133 -0.00031586 -0.00043499 -0.00077528
0.0031133 -0.0011321 -0.0015057 -0.00065477 0.00055574 0.00161 0.24203 0.0062186
-0.0052574 0.010153 0.0015513 -0.0021074
-0.0020014 -0.00082756 -0.00081238 0.00012831 -0.0019152 -0.00030205 -0.0052432 0.010168
0.20674 0.12199 -0.00072528 0.0096401
0.00070035 0.00045766 -0.00093772 -0.00047408 -0.00044892 -0.00078562 0.0015541 -0.0020945
-0.00072792 0.0096288 0.25421 0.17884
1760000000 0.27775 -0.07031 0.0043522 0.006752 -0.0021358 0.00087211 0.0013679 -0.0034261
-0.0014024 0.0005459 0.00047571 -0.00060708
0.0043368 0.0067181 0.24892 0.20194 0.0018263 -0.00085899 -0.0012359 0.00016644
-0.00094961 0.000995 -0.00055588 0.00039994
-0.0021336 0.00088322 0.0018131 -0.00087049 0.20994 -0.22961 0.0012756 0.00096098
-0.0012759 0.0013969 -0.0012183 -0.00055545
0.0013603 -0.003433 -0.0012341 0.00017133 0.0012784 0.00096056 0.23396 -0.045166
-0.0012434 0.0096452 -0.00016132 -0.0024476
-0.0014004 0.00055811 -0.00095505 0.0009961 -0.0012716 0.0013995 -0.0012223 0.0096563
0.22178 0.087926 0.0034112 0.0073515
0.00044902 -0.00061255 -0.00055342 0.00040385 -0.0012198 -0.00055224 -0.00016664 -0.0024503
0.003406 0.0073509 0.26759 0.14133
1820000000 0.25311 -0.10786 0.0048334 0.0030394 -1.686e-05 0.002297 -0.00095364 -0.0031139
-0.0012679 0.00085338 -4.3982e-05 -0.00014374
0.0048223 0.0030205 0.2588 0.17158 -4.1603e-05 2.7086e-05 -0.0013618 0.00096737
9.6395e-05 0.0012821 -0.00056736 0.00051715
-1.8716e-05 0.0023073 -3.5364e-05 3.0885e-05 0.16017 -0.24498 0.0013795 0.00031666
-0.00032157 0.002422 -0.0013263 0.00020873
-0.00096836 -0.0031051 -0.001358 0.00098108 0.0013862 0.00032317 0.20499 -0.092736
0.00080027 0.0078033 -0.0014806 -0.0015465
-0.0012472 0.00086603 9.7864e-05 0.0012736 -0.00032714 0.0024284 0.00081809 0.0077966
0.23943 0.059543 0.0045618 0.0040815
-4.6252e-05 -0.00014893 -0.00056226 0.00052603 -0.0013385 0.00023173 -0.0014902 -0.0015292
0.0045617 0.0040709 0.27092 0.10588
1880000000 0.21784 -0.14835 0.00277 0.00047992 -0.00045308 0.001944 -0.0029266 -0.0023253
-0.00030814 0.0018151 0.00018348 -0.00056467
0.0027394 0.00046741 0.26295 0.12482 -0.0020552 0.0016074 -0.00019669 0.0017169
0.00060285 0.0011126 7.0109e-05 0.0009186
-0.00044753 0.001952 -0.0020474 0.001624 0.10804 -0.25455 0.0016665 -0.00084079
0.0014978 0.0021241 -0.0010857 0.001331
-0.0029397 -0.0023097 -0.00018103 0.0017207 0.0016636 -0.00084364 0.16513 -0.13375
0.0018347 0.0054411 -0.0022811 0.00038333
-0.00028832 0.0018222 0.00060963 0.0011152 0.0015012 0.0021293 0.0018512 0.0054385
0.24286 0.027557 0.0050275 0.0020671
0.00017541 -0.00055295 7.7796e-05 0.00092643 -0.0010925 0.0013396 -0.0022784 0.00038808
0.0050275 0.0020681 0.27142 0.071543
1940000000 0.17809 -0.17392 0.00049153 -0.0014299 0.0011894 0.0019397 -0.0037107 0.00045476
0.0013391 0.0011581 -0.00076118 -0.00050415
0.00047753 -0.0014358 0.26316 0.092992 -0.0010205 0.0037562 0.0010318 0.0013938
0.0017245 0.00036289 0.00074865 0.00027466
0.0012007 0.0019357 -0.00098561 0.0037576 0.062169 -0.24759 0.00043645 -0.0019369
0.002469 0.00047087 0.0002218 0.0016426
-0.0037149 0.0004726 0.0010412 0.0013762 0.00043036 -0.0019335 0.11289 -0.16525
0.00093939 0.0036728 -0.0013366 0.0014843
0.0013439 0.0011445 0.0017266 0.00033969 0.0024665 0.00045857 0.00095495 0.0036698
0.24528 -0.011203 0.0039896 -0.0015829
-0.00075708 -0.00048206 0.00073958 0.00027178 0.00022537 0.0016491 -0.001332 0.0014881
0.0039857 -0.0015778 0.26137 0.036465
2000000000 0.13154 -0.18856 -0.0035326 0.0003834 0.002271 0.0017071 -0.0024641 0.0034053
0.0012206 0.00018578 -0.00066302 0.00041785
-0.0035615 0.00039347 0.24859 0.057549 -0.00092434 0.0055769 0.0016542 0.00039669
0.0011851 -0.0013187 0.00047144 0.00018775
0.0022789 0.0016836 -0.00090641 0.0055703 0.018847 -0.23297 -0.0011438 -0.0012844
0.0020076 -0.0012027 0.0016208 0.0013312
-0.002452 0.003417 0.0016502 0.00038822 -0.0011508 -0.0012853 0.058863 -0.17592
-0.00086727 0.003299 3.7543e-05 0.0021706
0.001219 0.00017154 0.001178 -0.0013465 0.002006 -0.001207 -0.0008493 0.0033027
0.23958 -0.045076 0.00084219 -0.0024904
