!Keysight Technologies,M9804A,MY58100912,A.14.10.03
!Date: Thursday, April 27, 2023 10:28:33
!Correction: S11(C  6-Port  ) 
!S12(C  6-Port  ) 
!S13(C  6-Port  ) 
!S14(C  6-Port  ) 
!S15(C  6-Port  ) 
!S16(C  6-Port  ) 
!S21(C  6-Port  ) 
!S22(C  6-Port  ) 
!S23(C  6-Port  ) 
!S24(C  6-Port  ) 
!S25(C  6-Port  ) 
!S26(C  6-Port  ) 
!S31(C  6-Port  ) 
!S32(C  6-Port  ) 
!S33(C  6-Port  ) 
!S34(C  6-Port  ) 
!S35(C  6-Port  ) 
!S36(C  6-Port  ) 
!S41(C  6-Port  ) 
!S42(C  6-Port  ) 
!S43(C  6-Port  ) 
!S44(C  6-Port  ) 
!S45(C  6-Port  ) 
!S46(C  6-Port  ) 
!S51(C  6-Port  ) 
!S52(C  6-Port  ) 
!S53(C  6-Port  ) 
!S54(C  6-Port  ) 
!S55(C  6-Port  ) 
!S56(C  6-Port  ) 
!S61(C  6-Port  ) 
!S62(C  6-Port  ) 
!S63(C  6-Port  ) 
!S64(C  6-Port  ) 
!S65(C  6-Port  ) 
!S66(C  6-Port  ) 
!S6P File: Measurement: :
# Hz S  RI   R 50
500000000 -0.33693 -0.041624 -0.0095214 -0.0026097 -0.0081356 0.012256 -0.0043217 0.012283
0.012658 0.0046534 -0.0047806 0.0089702
-0.0094787 -0.00258 -0.41884 -0.053694 0.0080035 -0.010603 0.0015736 0.012313
0.0079172 0.002116 0.0015385 0.013377
-0.008104 0.012301 0.0079903 -0.010649 -0.26509 0.20802 0.0077344 0.0036003
-0.0020933 0.007655 0.0012345 0.012066
-0.0043193 0.012301 0.0015874 0.01229 0.0077266 0.0036156 -0.33215 0.039046
-0.019047 -0.0061382 0.016676 0.026477
0.012691 0.0045961 0.0078679 0.0020796 -0.0021091 0.0076702 -0.019048 -0.0061078
-0.21746 -0.20559 -0.025616 0.0055257
-0.0047115 0.0089867 0.0015043 0.013287 0.0012189 0.012095 0.016665 0.026464
-0.025625 0.0055111 -0.25878 -0.15329
560000000 -0.31693 0.12001 -0.023429 -0.06303 -0.00049586 0.011769 0.0055837 0.010849
0.010627 0.0049535 0.010986 0.0077418
-0.023401 -0.062957 -0.37711 0.10635 -0.041096 -0.037736 0.013896 0.0037879
-0.01292 -0.0056058 0.0026165 -0.00020241
-0.0005094 0.011759 -0.041213 -0.037693 -0.18324 0.25612 -0.00069378 -0.0043112
0.019821 0.0055238 0.0068415 -0.0057924
0.0055255 0.010804 0.013952 0.0037378 -0.00067441 -0.0042527 -0.30747 0.12962
0.0043388 -0.023867 0.0049796 -0.02211
0.010572 0.0049049 -0.013018 -0.0055219 0.019788 0.0054913 0.0043053 -0.023865
-0.28757 -0.029212 0.0098374 -0.049417
0.011077 0.0078267 0.0026472 -0.00026954 0.0068676 -0.0057399 0.0050124 -0.022123
0.0098581 -0.049402 -0.32917 -0.00040693
620000000 -0.2761 0.10429 -0.023409 0.00781 0.0028786 0.0083571 0.0082313 -0.0053996
0.010927 -0.00014868 0.0014253 -0.0024934
-0.023382 0.0077825 -0.40275 0.057829 -0.018677 5.2416e-05 -0.0013746 -0.0021358
0.011519 -0.0061571 0.0016768 -0.0029448
0.0029028 0.0083981 -0.018682 9.3373e-05 -0.15434 0.26572 -0.0015264 -0.0051162
-0.0025956 -0.0023922 0.0079787 -0.0032245
0.0082931 -0.0054002 -0.0013788 -0.0021534 -0.0015509 -0.0051366 -0.26778 0.14105
-0.038093 -0.019412 0.012471 0.026586
0.010867 -5.5022e-05 0.011501 -0.0061764 -0.0025996 -0.0023957 -0.038094 -0.019413
-0.20509 -0.068647 -0.042441 0.014689
0.0013685 -0.0024576 0.001695 -0.0029845 0.0080299 -0.0032577 0.012498 0.026588
-0.042464 0.014683 -0.24772 -0.040141
680000000 -0.23579 0.19041 -0.027344 -0.014627 0.0047382 0.0051562 0.0017083 -0.007018
-0.0034258 -0.011169 0.005407 -0.0068612
-0.027324 -0.01463 -0.38821 0.15603 -0.032709 -0.0016042 -0.0016781 -0.00039785
-0.0022329 -0.0088695 -0.0012423 -0.0018202
0.0047339 0.0051653 -0.032738 -0.0015259 -0.10301 0.2855 -0.00079213 -0.00027171
-0.0017654 0.00064171 -0.0026588 -0.0095462
0.0017106 -0.0070456 -0.001676 -0.00042272 -0.00078635 -0.00028505 -0.22241 0.1928
-0.023312 -0.0074945 -0.0096725 -0.012598
-0.0034266 -0.011145 -0.0023017 -0.0088719 -0.0017981 0.00064542 -0.023335 -0.007478
-0.25937 0.031013 -0.0054368 -0.0088124
0.0054149 -0.0068762 -0.00126 -0.0017943 -0.0026923 -0.0095372 -0.0096875 -0.012583
-0.0054092 -0.0088121 -0.2626 0.070568
740000000 -0.19141 0.18514 -0.039065 0.026928 0.012397 -0.00508 -7.0376e-05 -0.0043442
-0.0036947 -0.0025924 -0.0061109 0.0024302
-0.039036 0.026888 -0.3353 0.17523 -0.035726 0.035029 -0.0009064 -0.0063254
-0.011016 0.0077106 -0.0025531 -0.0071057
0.012357 -0.0051141 -0.035656 0.035165 -0.06916 0.28393 -0.0021076 0.0029405
-0.0019274 -0.0047379 -0.0013095 -0.00045687
-6.2342e-05 -0.0043388 -0.0009142 -0.0063451 -0.0020918 0.0029311 -0.20569 0.20112
-0.043763 -0.0078046 0.023482 0.015717
-0.0037491 -0.002583 -0.011002 0.0078341 -0.0019582 -0.0047279 -0.043785 -0.0077532
-0.15865 0.058939 -0.045131 -0.00059038
-0.0060944 0.0025097 -0.0026009 -0.0071076 -0.001285 -0.00043816 0.023517 0.015697
-0.045115 -0.00061998 -0.25335 0.075061
800000000 -0.15886 0.2262 -0.022655 0.016733 0.0052492 -0.010494 -0.0047077 -0.0022698
-0.0039815 0.0021639 0.0049573 4.491e-05
-0.022646 0.016716 -0.3389 0.24551 -0.0080844 0.033982 -0.0023327 0.0021637
-0.0005487 0.0027117 0.00096263 0.0052004
0.0052192 -0.01051 -0.0079867 0.034038 -0.028548 0.30728 0.00094304 0.0015027
0.00029109 0.0034372 -0.0016913 0.000581
-0.0047263 -0.0022523 -0.0023449 0.0021736 0.00093511 0.0015062 -0.17696 0.22935
-0.028605 0.01343 0.01427 -0.010721
-0.0039708 0.0021113 -0.00053501 0.0027336 0.00028681 0.0034359 -0.028607 0.013483
-0.20819 0.082219 -0.018177 0.019308
0.0049754 -1.7802e-06 0.00098424 0.0052136 -0.0016918 0.00059414 0.014265 -0.010757
-0.018204 0.019278 -0.25058 0.12687
860000000 -0.12434 0.24652 -0.017653 0.030626 -0.0033021 -0.0097899 -0.0023573 0.00081104
0.0038501 0.0046944 -0.0034606 -0.0030896
-0.017666 0.030579 -0.29131 0.28748 0.007599 0.034123 -5.086e-05 0.0019728
0.0038723 -1.1213e-05 0.0031696 0.00078882
-0.0033363 -0.0097913 0.0077238 0.03413 0.019584 0.31514 -0.00056902 -0.00020073
0.002815 -0.0015033 0.001322 0.0043306
-0.0023493 0.0008427 -5.9933e-05 0.0019784 -0.00056964 -0.0002017 -0.14015 0.24036
-0.01831 0.017965 -0.0063667 -0.0091125
0.0039004 0.0047114 0.0038901 -3.5428e-06 0.0028225 -0.0014957 -0.018297 0.017996
-0.15755 0.13527 -0.027316 0.015004
-0.0034848 -0.00312 0.0031707 0.0007529 0.0013224 0.0043209 -0.0063814 -0.0091104
-0.027316 0.014976 -0.19885 0.17594
920000000 -0.10003 0.26988 0.0049332 0.037937 -0.009288 -0.0042951 -0.0019088 0.0018481
0.00097804 0.0018951 0.0026362 -0.001567
0.0049107 0.037887 -0.26251 0.30888 0.027769 0.022017 0.0014051 0.0011453
0.0071388 -0.00029826 0.0039125 -0.0026717
-0.0093012 -0.0042876 0.027888 0.021957 0.065773 0.31564 0.0018628 4.8411e-05
0.0010827 -0.00027697 0.00083427 -0.0010343
-0.001875 0.0018454 0.0014099 0.0011238 0.001862 4.8769e-05 -0.11613 0.25724
-0.011349 0.030443 0.0040393 -0.0066136
0.00095575 0.0018768 0.0071519 -0.00033713 0.0010948 -0.000298 -0.011304 0.030477
-0.14787 0.14156 -0.0030526 0.028028
0.002637 -0.0015445 0.0038975 -0.0026852 0.00082032 -0.0010232 0.0040371 -0.0066226
-0.0030531 0.028019 -0.2117 0.18965
980000000 -0.0524 0.28945 0.017399 0.030122 -0.0088712 0.004635 0.0020976 0.0035212
0.0040829 -0.0013417 -0.0033663 -0.0023238
0.017391 0.030099 -0.20946 0.34289 0.032769 0.0050815 0.0019988 1.2624e-05
0.0015965 -0.0057516 -0.00032661 -0.0024167
-0.0088622 0.0046668 0.03282 0.0049805 0.11185 0.30903 0.00053793 -0.0011441
0.00039653 -0.0019852 0.0014962 -0.00021226
0.0021045 0.0035199 0.0020004 -1.1851e-05 0.00053303 -0.0011435 -0.077367 0.26843
0.0072262 0.030242 -0.0094011 -0.0075311
0.0040676 -0.0013824 0.0015425 -0.0057913 0.00039865 -0.0019777 0.0072786 0.030242
-0.11732 0.17199 0.004421 0.0203
-0.0034082 -0.0023064 -0.00036704 -0.0024231 0.0015054 -0.0002055 -0.0094123 -0.0075115
0.0044062 0.020302 -0.16886 0.23803
1040000000 -0.010377 0.29803 0.033035 0.018492 -0.0011607 0.0068933 0.0025056 0.00063781
0.00013599 -0.0036715 -0.0001111 -0.0013975
0.033 0.018481 -0.17393 0.35587 0.029278 -0.014497 0.0015011 -0.0016677
-0.0023787 -0.0024941 -0.0011611 -0.0025164
-0.0011546 0.0068904 0.029273 -0.014607 0.15755 0.29533 -0.00048336 -0.0015639
-0.0015649 -0.0008749 -0.00039129 -0.001059
0.0025102 0.00064652 0.0014734 -0.0016892 -0.00048394 -0.0015724 -0.050316 0.27839
0.018838 0.018578 -0.0020221 0.0014911
0.00011462 -0.0036753 -0.0024078 -0.0025123 -0.0015474 -0.00087314 0.018859 0.018536
-0.084623 0.18012 0.013134 0.019828
-0.00011594 -0.001386 -0.0011766 -0.0025276 -0.00037229 -0.0010523 -0.002025 0.0014893
0.013126 0.019827 -0.14973 0.25963
1100000000 0.035064 0.30595 0.035733 -0.0038972 0.0029017 0.0038253 0.0023284 -0.0013129
-0.0019738 -0.0032378 -0.0038595 2.6069e-05
0.035708 -0.0038721 -0.13047 0.37303 0.015192 -0.02741 1.8689e-05 -0.001753
-0.0031616 -0.00084381 -0.0034214 -0.00051741
0.0029037 0.0038102 0.01511 -0.027495 0.20351 0.2753 -0.0018854 0.00020675
-0.0017172 0.00040343 -0.0011344 -0.0004246
0.0023264 -0.0013098 5.4992e-06 -0.0017668 -0.0018789 0.0002118 -0.010103 0.28329
0.024336 0.0057961 -0.0025668 -2.1905e-05
-0.0019856 -0.0032355 -0.003171 -0.000843 -0.0017158 0.00042983 0.024346 0.0057663
-0.066805 0.19429 0.019116 0.0097992
-0.0038491 3.2381e-05 -0.0034345 -0.00051308 -0.0011297 -0.00041553 -0.00257 -6.9426e-06
0.019107 0.0098053 -0.10406 0.29266
1160000000 0.086485 0.30087 0.024035 -0.020352 0.0027722 -0.00056815 -0.00037532 -0.0023927
-0.0041111 -0.00087911 -0.00090563 0.0041194
0.02402 -0.020325 -0.087181 0.37689 -0.0032908 -0.028839 -0.001593 -0.0016981
-0.0027416 0.0022925 -0.0013302 0.0018837
0.0027751 -0.00058483 -0.0034071 -0.028845 0.24645 0.24502 -0.00069771 0.0017127
-0.00067363 0.0018695 -0.0009638 0.0002254
-0.00038924 -0.0023745 -0.0016028 -0.001685 -0.00070497 0.00172 0.028905 0.28049
0.021291 -0.0095683 -0.0031141 0.0054173
-0.0041274 -0.00083344 -0.0027411 0.0023039 -0.00067486 0.0018812 0.021266 -0.0095992
-0.032682 0.20377 0.018554 0.0017086
-0.00088011 0.0041475 -0.0013446 0.0018857 -0.00096964 0.00021634 -0.0031138 0.0054318
0.018558 0.0017138 -0.056756 0.29606
1220000000 0.13075 0.28984 0.010768 -0.029704 -0.0015209 -0.00094511 4.8227e-06 -0.00077225
-0.0027157 0.0023988 0.0012488 0.0020435
0.010771 -0.02967 -0.043051 0.389 -0.016399 -0.021124 -0.0024804 0.00038271
-9.9097e-05 0.0029599 -0.0008655 0.0018775
-0.0015277 -0.00093122 -0.016512 -0.021065 0.2858 0.20663 0.00075545 0.0016314
0.00054107 0.001222 0.0002996 0.00068205
2.1579e-06 -0.00077712 -0.0024859 0.00038891 0.00076599 0.0016373 0.068423 0.27232
0.010964 -0.016343 0.0023582 0.0014865
-0.0027065 0.002403 -7.1841e-05 0.0029505 0.00053407 0.0012298 0.010943 -0.01636
-0.010871 0.21262 0.01514 -0.011928
0.0012687 0.0020516 -0.00087092 0.001879 0.00029808 0.00067827 0.0023598 0.001491
0.015123 -0.011925 -0.026801 0.31574
1280000000 0.18037 0.26782 -0.0074025 -0.028362 -0.001879 0.0022568 -0.00080337 -0.0018893
-0.00082718 0.0030532 0.0024171 0.0012095
-0.0073739 -0.028342 0.0025342 0.38017 -0.023233 -0.0087956 -0.0010129 0.0013667
0.0015535 0.0018693 0.00059001 0.0021103
-0.0018822 0.0022764 -0.023316 -0.0087046 0.31691 0.163 0.0015704 7.0428e-05
0.0011097 0.00038252 0.00046167 0.00038179
-0.00080384 -0.0018745 -0.0010195 0.0013706 0.0015748 6.3089e-05 0.105 0.2562
0.0020588 -0.01872 5.5071e-06 4.0514e-05
-0.00081657 0.0030651 0.0015641 0.001862 0.0011205 0.00037706 0.0020191 -0.018714
0.025821 0.21646 0.0041498 -0.014648
0.0024254 0.0012102 0.00059266 0.0021159 0.00046937 0.00037518 1.2965e-05 4.3476e-05
0.0041574 -0.014646 0.022109 0.32003
1340000000 0.21718 0.23416 -0.017122 -0.019207 0.00076323 0.0043697 -0.0015272 -0.00083227
0.0014155 0.0027724 0.0017933 -0.0013089
-0.017081 -0.019196 0.041775 0.37245 -0.021439 0.0037249 -0.00022001 0.0019691
0.0018357 0.00096759 0.001323 0.00087735
0.00078394 0.0043775 -0.021442 0.0038215 0.33949 0.115 0.0011497 -0.00086712
0.00076964 -0.00042329 0.00027717 0.00032764
-0.001534 -0.00082663 -0.0002113 0.0019624 0.0011564 -0.00085655 0.13721 0.23647
-0.007318 -0.016608 0.001066 0.00036264
0.0014294 0.0027609 0.0018372 0.00094822 0.00076826 -0.00042772 -0.0073414 -0.01658
0.054695 0.21195 -0.0022598 -0.013694
0.0017973 -0.0013233 0.0013291 0.00086382 0.00028038 0.00032544 0.00107 0.00037064
-0.0022655 -0.013696 0.060326 0.31793
1400000000 0.25 0.19618 -0.023104 -0.0079537 0.0049378 0.0030804 -0.0020026 0.00044208
0.0023508 0.00086897 0.00042698 -0.0013138
-0.023075 -0.0079535 0.07906 0.35971 -0.014987 0.011879 0.0012288 0.0014033
0.001188 -0.00067631 0.0012962 0.00034016
0.0049498 0.0030634 -0.014941 0.011972 0.35297 0.060932 0.00023294 -0.0016143
-5.909e-06 -0.00041103 0.00044042 0.00019194
-0.0020059 0.00045603 0.0012425 0.0013977 0.00023421 -0.0016107 0.1667 0.20825
-0.013328 -0.010495 -0.00097598 -0.00080474
0.0023707 0.00085362 0.00118 -0.00069139 -5.3595e-06 -0.00040834 -0.013343 -0.010463
0.087228 0.20842 -0.0087936 -0.0096518
0.0004243 -0.0013238 0.0012962 0.00033424 0.00043799 0.00019304 -0.00097519 -0.0008085
-0.0087923 -0.0096552 0.10675 0.30847
1460000000 0.27269 0.15249 -0.020428 0.0041343 0.0054315 -0.0016899 -0.001665 0.0015744
0.002071 -0.00047703 -0.00027285 -0.0010184
-0.020418 0.004121 0.11343 0.33827 -0.006605 0.014968 0.0017648 0.00026494
0.0010248 -0.0012786 0.0012491 -0.00062935
0.005431 -0.0017123 -0.0065192 0.015014 0.359 0.0062167 -0.0012152 -0.001353
0.00020027 -0.00031023 0.00047784 -0.00043561
-0.0016674 0.0015742 0.0017755 0.00026575 -0.0012253 -0.0013534 0.19313 0.17975
-0.015174 -0.0042275 -0.0011077 0.0018241
0.0020703 -0.000493 0.001019 -0.0013006 0.00020647 -0.00031141 -0.015177 -0.0042047
0.11553 0.19427 -0.01126 -0.0037777
-0.00028929 -0.0010124 0.0012374 -0.00064665 0.00048177 -0.00044266 -0.0011118 0.0018175
-0.01127 -0.0037771 0.14109 0.2888
1520000000 0.28492 0.11113 -0.01512 0.0098252 0.0032802 -0.0039728 -3.0222e-05 0.0025847
0.0021445 -0.001623 -0.0011019 -0.00021379
-0.015118 0.0098059 0.14728 0.3237 0.0010792 0.013072 0.0017409 -0.00073867
0.00010144 -0.0011148 0.00038752 -0.0010289
0.0032693 -0.0039992 0.0011518 0.013083 0.352 -0.050399 -0.0011586 -0.00043986
0.00063029 -0.00079141 2.9952e-05 -9.5436e-05
-2.2786e-05 0.0025844 0.0017446 -0.00075678 -0.0011644 -0.00043689 0.21663 0.14255
-0.015331 0.0014492 0.0011796 0.0020914
0.0021303 -0.0016384 9.4719e-05 -0.0011206 0.00063114 -0.00079996 -0.015336 0.0014855
0.14268 0.18124 -0.011857 0.00039723
-0.0011194 -0.00021348 0.00038563 -0.0010392 2.9146e-05 -0.00010278 0.001191 0.0020884
-0.011858 0.00039538 0.17589 0.2703
1580000000 0.29448 0.065186 -0.0086237 0.013218 -0.00084858 -0.0047553 0.0012932 0.0019777
-0.00021153 -0.0020497 -0.00041517 0.00044131
-0.0086212 0.013208 0.17486 0.299 0.0047911 0.0084799 0.00055795 -0.00164
-0.00061666 -0.0011643 -0.00026207 -0.00080923
-0.00086383 -0.0047423 0.0048463 0.0084633 0.3313 -0.10805 -0.0017097 0.00071467
-0.00019511 -0.0011116 4.5729e-05 -0.00050802
0.0013094 0.001972 0.00054723 -0.0016579 -0.0017061 0.00070734 0.2311 0.10392
-0.012413 0.006858 0.0021358 0.0010373
-0.00022987 -0.0020475 -0.00062808 -0.001155 -0.00021122 -0.0011219 -0.012404 0.0068919
0.16689 0.1646 -0.009784 0.0065299
-0.0004097 0.00045105 -0.00027433 -0.00080213 5.0826e-05 -0.00051005 0.002134 0.0010301
-0.0097849 0.0065339 0.20999 0.24379
1640000000 0.29686 0.023907 -0.0018834 0.012497 -0.0025288 -0.0024891 0.0027147 0.0011254
-0.00051557 -0.0015399 -0.00025492 0.00056485
-0.0018804 0.012493 0.20468 0.27391 0.0057772 0.0038187 -0.0006343 -0.001813
-0.0010904 -0.00042371 -0.00044294 -0.00074537
-0.002541 -0.0024792 0.0058091 0.003794 0.30278 -0.1572 -0.00061301 0.0015789
-0.00095464 -0.001121 -7.7314e-05 -0.00043734
0.0027175 0.0011163 -0.00064036 -0.0018135 -0.00061853 0.0015744 0.24416 0.055647
-0.0083632 0.0088599 0.0024384 -0.00064367
-0.00053025 -0.0015388 -0.0011029 -0.00041124 -0.00095597 -0.0011226 -0.0083506 0.0088834
0.18915 0.14135 -0.0053724 0.0088682
-0.00024562 0.00057934 -0.00046125 -0.00073403 -6.9878e-05 -0.00043309 0.0024291 -0.00065215
-0.0053722 0.0088643 0.23637 0.2132
1700000000 0.28987 -0.021543 0.0017451 0.0098956 -0.0032965 7.9558e-05 0.003124 -0.0011184
-0.001998 -0.00084002 0.00069179 0.00046413
0.0017428 0.0098829 0.22299 0.2421 0.0039322 0.00096952 -0.0015104 -0.00066102
-0.00081056 0.00011829 -0.00092736 -0.00048305
-0.0033072 0.00010132 0.0039481 0.00093868 0.25901 -0.19683 0.00056978 0.0016155
-0.0019071 -0.00031879 -0.00045029 -0.00078995
0.0031257 -0.0011362 -0.0015095 -0.00065701 0.00057097 0.0016144 0.24194 0.0062576
-0.005259 0.010151 0.0015521 -0.0020911
-0.0020108 -0.00081614 -0.00081869 0.00012312 -0.0019098 -0.00030956 -0.0052341 0.010171
0.20676 0.12203 -0.00073724 0.0096081
0.00069892 0.00044947 -0.0009356 -0.00047286 -0.00045237 -0.00078512 0.0015327 -0.0020947
-0.00073894 0.0096138 0.25412 0.17883
1760000000 0.2777 -0.070296 0.0043571 0.0066952 -0.0021492 0.00088111 0.0013719 -0.0034226
-0.0014057 0.00055466 0.00045719 -0.00060143
0.0043508 0.0066959 0.24894 0.20193 0.0018154 -0.00085963 -0.0012399 0.00016007
-0.00095562 0.0009976 -0.00055623 0.00040166
-0.0021506 0.00088001 0.00181 -0.00087981 0.20995 -0.22959 0.0012818 0.0009484
-0.0012717 0.0013849 -0.001216 -0.00054767
0.0013573 -0.0034335 -0.0012462 0.00017949 0.0012864 0.00094579 0.23389 -0.045082
-0.0012304 0.0096309 -0.00016829 -0.0024438
-0.0013919 0.0005614 -0.0009534 0.00099774 -0.0012701 0.0013774 -0.0012071 0.0096382
0.2218 0.087949 0.0033827 0.0073447
0.00045762 -0.00061524 -0.00054466 0.00040958 -0.0012106 -0.00053994 -0.0001779 -0.0024443
0.0033885 0.0073462 0.26748 0.14139
1820000000 0.25309 -0.1078 0.0048262 0.0029946 -3.8702e-05 0.0022986 -0.00095073 -0.0031147
-0.0012672 0.00085793 -5.3601e-05 -0.00014818
0.0048255 0.0029971 0.25884 0.17157 -4.0366e-05 2.6755e-05 -0.0013642 0.0009692
8.5998e-05 0.0012842 -0.0005749 0.0005199
1.966e-06 0.0023023 -3.9331e-05 3.1648e-05 0.16019 -0.24502 0.001384 0.00030741
-0.00032977 0.0024347 -0.0013521 0.00021988
-0.0009724 -0.0031147 -0.001357 0.00098037 0.0013814 0.00031194 0.20498 -0.092601
0.00081912 0.0077843 -0.0014953 -0.0015363
-0.0012503 0.0008633 9.5911e-05 0.0012875 -0.00031569 0.0024196 0.00084153 0.0077791
0.23946 0.059554 0.0045425 0.004079
-5.5176e-05 -0.00014803 -0.00056399 0.00052715 -0.0013407 0.00022946 -0.0014946 -0.0015221
0.0045439 0.0040779 0.27081 0.10604
1880000000 0.21784 -0.14831 0.0027306 0.00044613 -0.00046367 0.0019454 -0.0029238 -0.0023273
-0.00030993 0.0018092 0.00018686 -0.00055354
0.0027276 0.00044215 0.26296 0.12478 -0.002042 0.0016115 -0.0001904 0.0017216
0.00060299 0.0011171 7.5267e-05 0.00092504
-0.00045452 0.0019405 -0.0020397 0.0016179 0.10806 -0.25455 0.0016504 -0.00083675
0.0014921 0.0021353 -0.001087 0.0013387
-0.0029358 -0.0023122 -0.00018083 0.0017228 0.0016472 -0.00084546 0.16519 -0.13361
0.0018376 0.0054095 -0.0022613 0.00038953
-0.00028656 0.0018084 0.00060716 0.0011147 0.0015064 0.0021271 0.0018518 0.0053999
0.2429 0.027521 0.0050102 0.0020834
0.00017655 -0.00055998 8.0445e-05 0.0009265 -0.0010851 0.0013417 -0.0022768 0.00039266
0.0050022 0.0020806 0.27136 0.071684
1940000000 0.17812 -0.17388 0.00045129 -0.001436 0.0011816 0.0019376 -0.003719 0.00043881
0.00134 0.0011519 -0.00076208 -0.00049642
0.00045286 -0.0014357 0.26316 0.092972 -0.0010105 0.0037588 0.0010361 0.0013881
0.0017331 0.0003585 0.00074098 0.00028319
0.0011903 0.0019339 -0.0009961 0.0037701 0.062169 -0.24763 0.00043466 -0.001924
0.0024629 0.000465 0.00020851 0.0016458
-0.0037108 0.00046172 0.0010466 0.0013766 0.00044812 -0.0019285 0.11299 -0.16516
0.00092906 0.0036407 -0.0013202 0.0014938
0.0013365 0.0011367 0.0017416 0.00034614 0.002484 0.00045146 0.00092951 0.00363
0.24525 -0.011223 0.0039776 -0.0015651
-0.00077389 -0.00048544 0.0007459 0.00026835 0.00021995 0.0016339 -0.0013221 0.0015
0.0039754 -0.0015661 0.26129 0.036611
2000000000 0.13161 -0.18856 -0.0035756 0.0003946 0.0022846 0.0016943 -0.0024752 0.0034023
0.0012121 0.00018148 -0.00064543 0.00039722
-0.0035685 0.00038768 0.24857 0.057537 -0.00093139 0.0055619 0.0016493 0.00038618
0.0011897 -0.0013291 0.00048383 0.00018572
0.0022821 0.0016844 -0.00088931 0.0055735 0.018847 -0.23294 -0.0011469 -0.0012713
0.0020119 -0.0012049 0.0016235 0.0013286
-0.0024625 0.0034138 0.0016511 0.00037812 -0.0011436 -0.0012801 0.058982 -0.1759
-0.00089861 0.003249 4.9134e-05 0.0021636
0.0012081 0.00017299 0.0011848 -0.0013377 0.0020141 -0.0012237 -0.00089769 0.0032514
0.23954 -0.045107 0.00084332 -0.0024871
