!Keysight Technologies,M9804A,MY58100912,A.14.10.03
!Date: Thursday, April 27, 2023 10:28:33
!Correction: S11(C  6-Port  ) 
!S12(C  6-Port  ) 
!S13(C  6-Port  ) 
!S14(C  6-Port  ) 
!S15(C  6-Port  ) 
!S16(C  6-Port  ) 
!S21(C  6-Port  ) 
!S22(C  6-Port  ) 
!S23(C  6-Port  ) 
!S24(C  6-Port  ) 
!S25(C  6-Port  ) 
!S26(C  6-Port  ) 
!S31(C  6-Port  ) 
!S32(C  6-Port  ) 
!S33(C  6-Port  ) 
!S34(C  6-Port  ) 
!S35(C  6-Port  ) 
!S36(C  6-Port  ) 
!S41(C  6-Port  ) 
!S42(C  6-Port  ) 
!S43(C  6-Port  ) 
!S44(C  6-Port  ) 
!S45(C  6-Port  ) 
!S46(C  6-Port  ) 
!S51(C  6-Port  ) 
!S52(C  6-Port  ) 
!S53(C  6-Port  ) 
!S54(C  6-Port  ) 
!S55(C  6-Port  ) 
!S56(C  6-Port  ) 
!S61(C  6-Port  ) 
!S62(C  6-Port  ) 
!S63(C  6-Port  ) 
!S64(C  6-Port  ) 
!S65(C  6-Port  ) 
!S66(C  6-Port  ) 
!S6P File: Measurement: :
# Hz S  RI   R 50
500000000 -0.3369 -0.041544 -0.0094819 -0.0025776 -0.0081692 0.012263 -0.0043233 0.012341
0.012743 0.0046 -0.0048031 0.0090555
-0.0094675 -0.0025696 -0.41878 -0.053753 0.0080122 -0.010676 0.0016058 0.012237
0.0079162 0.0021883 0.0015843 0.013324
-0.0081585 0.012299 0.0079778 -0.010709 -0.2651 0.20797 0.0076979 0.0035625
-0.0020433 0.0076829 0.0012515 0.012012
-0.004309 0.012372 0.0016256 0.012274 0.0077153 0.0035696 -0.33203 0.039142
-0.01904 -0.0060874 0.016719 0.026437
0.012739 0.0045778 0.0079082 0.0021722 -0.0020588 0.0076751 -0.019021 -0.0060794
-0.21759 -0.20572 -0.025688 0.0055742
-0.0047836 0.0090602 0.0016036 0.013334 0.0012525 0.011999 0.016736 0.026438
-0.025705 0.005573 -0.25884 -0.15302
560000000 -0.31679 0.11999 -0.023403 -0.063087 -0.00049127 0.011739 0.0055629 0.01079
0.01056 0.0049717 0.011059 0.0077431
-0.023344 -0.062967 -0.37715 0.10621 -0.041077 -0.037609 0.013835 0.0038063
-0.012956 -0.0054911 0.0026182 -0.00023363
-0.00048412 0.011764 -0.041228 -0.037556 -0.18312 0.25592 -0.00071846 -0.0043302
0.019826 0.0053428 0.0067919 -0.0057753
0.0055815 0.010791 0.013903 0.0037568 -0.00074015 -0.0043046 -0.30739 0.12971
0.0043657 -0.023926 0.0049883 -0.022121
0.010581 0.004967 -0.013009 -0.0054543 0.019835 0.0053929 0.0043493 -0.023892
-0.28775 -0.029219 0.0098139 -0.049396
0.011066 0.0077412 0.0026036 -0.00023437 0.0067821 -0.0057802 0.004999 -0.022146
0.0098349 -0.0494 -0.32907 -0.00022056
620000000 -0.27605 0.10419 -0.023382 0.0077931 0.0029065 0.0083448 0.0082473 -0.0054317
0.010791 -0.00014396 0.0014792 -0.0024772
-0.02336 0.0077673 -0.40272 0.05784 -0.018661 7.1594e-05 -0.0013836 -0.002145
0.011499 -0.0061207 0.0017144 -0.003003
0.0029399 0.0083393 -0.018695 0.00010382 -0.15429 0.26574 -0.0015309 -0.0051396
-0.0026246 -0.0023845 0.0080195 -0.0032954
0.0082309 -0.0054192 -0.0013961 -0.0021554 -0.0015412 -0.0051329 -0.26768 0.14109
-0.038062 -0.019494 0.012528 0.026581
0.010825 -0.00011374 0.011521 -0.0061603 -0.0026297 -0.0024043 -0.038097 -0.019447
-0.20522 -0.06857 -0.04253 0.014613
0.0014626 -0.0024629 0.0016994 -0.0030084 0.007987 -0.0032794 0.012531 0.026567
-0.042555 0.014585 -0.24774 -0.040036
680000000 -0.23572 0.19037 -0.027326 -0.014691 0.0047303 0.0051653 0.0016555 -0.0070201
-0.003415 -0.011123 0.0055049 -0.0068158
-0.027305 -0.014706 -0.38819 0.15601 -0.032694 -0.0015853 -0.0016512 -0.00039148
-0.0022105 -0.0089037 -0.0012453 -0.0017991
0.004731 0.0051465 -0.032732 -0.0014948 -0.103 0.28552 -0.00075737 -0.00023664
-0.0017753 0.00062148 -0.0026775 -0.0095145
0.0016401 -0.0070328 -0.0016801 -0.00039475 -0.00076703 -0.00023995 -0.22221 0.19278
-0.023355 -0.0075881 -0.0097016 -0.012643
-0.0034645 -0.011145 -0.0022504 -0.0088895 -0.0017731 0.00062504 -0.023382 -0.0075725
-0.2594 0.031157 -0.0054443 -0.008838
0.005437 -0.0068631 -0.0012369 -0.0017927 -0.0026855 -0.0095176 -0.0097128 -0.012644
-0.0054414 -0.0088361 -0.26247 0.070836
740000000 -0.19139 0.18507 -0.039069 0.026879 0.012427 -0.0050092 -7.6767e-05 -0.0043119
-0.0037039 -0.0026094 -0.0060235 0.0024961
-0.039065 0.026852 -0.33537 0.17527 -0.035738 0.035003 -0.00092708 -0.0063271
-0.011043 0.0077458 -0.0024691 -0.0070883
0.012406 -0.005048 -0.035668 0.035159 -0.069136 0.2839 -0.0020884 0.0029686
-0.0019829 -0.0047414 -0.0013581 -0.00044447
-7.1145e-05 -0.0042989 -0.00096667 -0.0063375 -0.0020853 0.0029625 -0.20561 0.20104
-0.043835 -0.0077921 0.023541 0.015754
-0.0037209 -0.0026066 -0.011014 0.0078385 -0.0019716 -0.0047295 -0.043883 -0.0077415
-0.15851 0.05908 -0.045103 -0.00053548
-0.00609 0.002535 -0.0024662 -0.0071126 -0.0013285 -0.00042391 0.023564 0.015725
-0.045088 -0.00054287 -0.2533 0.075225
800000000 -0.15888 0.22613 -0.022723 0.016686 0.0052458 -0.010502 -0.0047179 -0.0022853
-0.0039691 0.00213 0.0050044 1.4542e-05
-0.022716 0.016663 -0.33892 0.2455 -0.0080544 0.03396 -0.0023416 0.0021629
-0.00055314 0.002709 0.00094614 0.0051816
0.0052167 -0.010528 -0.0079695 0.034029 -0.028529 0.30729 0.00093231 0.0014986
0.00029219 0.0033998 -0.0016998 0.00057216
-0.0047188 -0.0022711 -0.0023342 0.0021759 0.00093 0.0015017 -0.17687 0.22928
-0.028631 0.013448 0.014278 -0.010711
-0.0039915 0.002139 -0.00053857 0.002689 0.00030185 0.0033949 -0.028636 0.013506
-0.20821 0.082376 -0.01815 0.019357
0.0049932 7.6397e-06 0.00097593 0.0051883 -0.0017094 0.00056957 0.014269 -0.010722
-0.01815 0.019343 -0.25053 0.12694
860000000 -0.12441 0.24649 -0.017738 0.030602 -0.0033077 -0.0097901 -0.0023991 0.00082488
0.0038324 0.0046925 -0.0034291 -0.0031356
-0.017734 0.030558 -0.29134 0.28751 0.0076059 0.034128 -5.8016e-05 0.0019592
0.0038751 -2.1735e-05 0.003185 0.00077206
-0.0033336 -0.0097804 0.0077178 0.034128 0.019609 0.31514 -0.00057631 -0.00020599
0.0028008 -0.0014909 0.0013353 0.0043333
-0.0023885 0.00083546 -6.3863e-05 0.0019531 -0.00057181 -0.00020977 -0.14017 0.2403
-0.018365 0.018053 -0.0063271 -0.0090748
0.0038709 0.0047018 0.0038666 -2.6887e-05 0.0028116 -0.0014894 -0.018339 0.018079
-0.15756 0.13544 -0.027223 0.015112
-0.0034717 -0.0031363 0.0031888 0.00075031 0.0013361 0.0043304 -0.0063517 -0.0090737
-0.027226 0.015091 -0.19886 0.17598
920000000 -0.10005 0.26985 0.0048735 0.037991 -0.0092971 -0.0042745 -0.001893 0.0018572
0.00096537 0.0018668 0.0026206 -0.001507
0.0048438 0.037936 -0.26252 0.30895 0.027794 0.022051 0.0014177 0.0011384
0.0071378 -0.00029684 0.0038954 -0.0026694
-0.0093124 -0.0042583 0.027883 0.021985 0.065767 0.31564 0.0018552 4.2929e-05
0.0010897 -0.00026988 0.00084176 -0.0010284
-0.0018769 0.0018707 0.0014087 0.0011291 0.0018601 5.6108e-05 -0.11611 0.25714
-0.011332 0.030534 0.0040656 -0.0065786
0.00099238 0.0018677 0.0071412 -0.00032095 0.0010899 -0.00026754 -0.011287 0.030564
-0.14774 0.14164 -0.0030185 0.028019
0.0026141 -0.0015299 0.0038961 -0.0026965 0.00084698 -0.0010415 0.0040509 -0.0065857
-0.0030421 0.028001 -0.21169 0.1897
980000000 -0.05246 0.28949 0.017361 0.030162 -0.0088667 0.004627 0.0020977 0.0035158
0.0040288 -0.0013578 -0.0033753 -0.0022857
0.017333 0.03012 -0.20937 0.34293 0.032802 0.0051173 0.0020092 -5.0015e-06
0.0015445 -0.0057585 -0.00032777 -0.0024363
-0.0088498 0.0046645 0.032843 0.0050004 0.11185 0.30903 0.00052859 -0.001137
0.00039196 -0.002006 0.0015052 -0.00019995
0.0021119 0.0035148 0.0020096 -3.4833e-05 0.0005383 -0.0011394 -0.077415 0.26835
0.0072553 0.030314 -0.0093725 -0.0075105
0.0040459 -0.0013705 0.0015084 -0.005793 0.00039285 -0.0019991 0.0073122 0.030308
-0.11719 0.17208 0.0044901 0.020302
-0.0033763 -0.0022728 -0.00036205 -0.0024263 0.0015006 -0.00021004 -0.0093963 -0.0074886
0.004478 0.020296 -0.16879 0.23822
1040000000 -0.010371 0.29803 0.032986 0.018542 -0.0011585 0.0068813 0.0025106 0.0006388
0.00014027 -0.0036658 -0.00010809 -0.0013911
0.032934 0.018514 -0.17385 0.35587 0.029333 -0.014462 0.0014883 -0.0016572
-0.0023956 -0.0024839 -0.0011439 -0.0025593
-0.0011286 0.0068959 0.029275 -0.014587 0.15757 0.2953 -0.00049366 -0.0015711
-0.0015417 -0.00090982 -0.00034826 -0.0010622
0.0025126 0.00064356 0.0014548 -0.0016902 -0.00048621 -0.0015734 -0.05039 0.27833
0.018917 0.018614 -0.0020017 0.001482
0.00013667 -0.0036511 -0.0024395 -0.002493 -0.0015568 -0.0008902 0.018957 0.018575
-0.084473 0.18019 0.013173 0.019796
-0.00010889 -0.0014031 -0.0011763 -0.0025334 -0.00035678 -0.0010525 -0.0020099 0.0014846
0.013161 0.01979 -0.14954 0.25979
1100000000 0.03501 0.30596 0.035729 -0.003838 0.0029047 0.003813 0.0023209 -0.0013178
-0.0019833 -0.0032253 -0.0038508 2.6666e-05
0.035691 -0.0038147 -0.13042 0.37305 0.01521 -0.027404 9.4705e-06 -0.0017594
-0.0031571 -0.00082645 -0.0034243 -0.00055552
0.002923 0.0038015 0.015109 -0.027501 0.20353 0.2753 -0.0018738 0.0002051
-0.0017146 0.00040992 -0.0011451 -0.00044303
0.0023204 -0.0013226 2.3705e-06 -0.0017662 -0.0018774 0.00021082 -0.010186 0.28327
0.024411 0.00582 -0.0025571 -2.9106e-05
-0.0019933 -0.0032094 -0.003173 -0.00081428 -0.0017308 0.00039749 0.024432 0.0057766
-0.066741 0.19427 0.019153 0.0097378
-0.0038508 4.6227e-05 -0.0034304 -0.00052212 -0.0011438 -0.00044035 -0.0025691 -3.0972e-05
0.019153 0.0097405 -0.10383 0.29284
1160000000 0.086457 0.30089 0.024033 -0.02028 0.002793 -0.00060685 -0.00036459 -0.0023948
-0.0041218 -0.00087255 -0.00094499 0.0041336
0.024026 -0.020259 -0.08708 0.37687 -0.0032582 -0.028854 -0.001599 -0.0016728
-0.0027181 0.0023175 -0.0013182 0.0018684
0.002793 -0.00060972 -0.0034015 -0.028872 0.24647 0.24499 -0.00067964 0.0017243
-0.00067256 0.0018686 -0.00098002 0.00021184
-0.00037702 -0.0023807 -0.0016186 -0.001677 -0.00068579 0.0017226 0.028788 0.2805
0.0214 -0.0095993 -0.0031332 0.0053717
-0.0041249 -0.00084311 -0.0027398 0.0023268 -0.00068879 0.001866 0.021386 -0.0096388
-0.03261 0.20377 0.01853 0.0016437
-0.00090956 0.004136 -0.0013285 0.0018834 -0.00096163 0.00022309 -0.0031345 0.0053829
0.018526 0.0016311 -0.056495 0.29619
1220000000 0.13071 0.28984 0.010804 -0.029649 -0.0015115 -0.00096637 3.4413e-06 -0.00077288
-0.0026914 0.0023991 0.0012556 0.002049
0.010813 -0.02962 -0.042992 0.38898 -0.016389 -0.021127 -0.0024917 0.00038765
-9.4332e-05 0.0029563 -0.00086088 0.0018735
-0.001515 -0.00095097 -0.016504 -0.021084 0.2858 0.20659 0.00076725 0.001622
0.00053436 0.0012215 0.00027996 0.00067092
1.2278e-06 -0.00076366 -0.0024953 0.00039188 0.00076422 0.0016236 0.068347 0.27238
0.011024 -0.016405 0.0023195 0.0014713
-0.0026913 0.0024266 -8.43e-05 0.0029574 0.00053194 0.0012075 0.011007 -0.016434
-0.010761 0.2126 0.015073 -0.01196
0.0012681 0.0020359 -0.00085434 0.0018743 0.00028978 0.00067636 0.0023308 0.0014684
0.015078 -0.011953 -0.02645 0.31579
1280000000 0.18032 0.26785 -0.00732 -0.028341 -0.0018923 0.0022382 -0.00080482 -0.0018852
-0.00081803 0.00303 0.0024084 0.0012107
-0.007302 -0.028307 0.0025649 0.38014 -0.023253 -0.0088131 -0.0010148 0.001369
0.0015379 0.0018646 0.00058473 0.0021156
-0.001885 0.0022556 -0.023322 -0.0087096 0.31692 0.16297 0.0015654 5.5272e-05
0.001118 0.00038281 0.00046029 0.00037282
-0.00080643 -0.0018863 -0.0010092 0.0013722 0.0015685 5.4553e-05 0.10496 0.2563
0.0020778 -0.018812 -5.5509e-06 3.5791e-05
-0.0008017 0.0030331 0.0015403 0.0018606 0.0011225 0.00038125 0.0020334 -0.018821
0.025895 0.21643 0.0041226 -0.014634
0.0024173 0.0012061 0.00058672 0.0021086 0.00046665 0.00036605 -2.2175e-06 3.904e-05
0.004137 -0.014628 0.022438 0.31999
1340000000 0.21718 0.23421 -0.017028 -0.019242 0.00075044 0.0043533 -0.0015475 -0.00082685
0.0014043 0.0027601 0.0017846 -0.0013009
-0.017002 -0.019238 0.041788 0.37242 -0.021435 0.0037107 -0.00022308 0.0019728
0.0018111 0.00096162 0.0013243 0.00085306
0.00077044 0.0043487 -0.021446 0.0038214 0.3395 0.11496 0.0011446 -0.00086391
0.00076967 -0.00042225 0.00026565 0.00032244
-0.0015414 -0.00082325 -0.00020549 0.0019669 0.0011438 -0.00086387 0.1372 0.23659
-0.0073624 -0.016681 0.0010397 0.00036881
0.0014203 0.0027542 0.0018193 0.00094478 0.0007652 -0.00042262 -0.0073982 -0.016672
0.054781 0.21191 -0.0022827 -0.013678
0.0017793 -0.0013172 0.0013316 0.00084749 0.00026778 0.00032253 0.0010475 0.00036494
-0.002277 -0.013677 0.060546 0.31777
1400000000 0.24998 0.19624 -0.023033 -0.0080237 0.004911 0.0030704 -0.0020075 0.00044987
0.0023357 0.00086932 0.0004344 -0.0013091
-0.023008 -0.0080318 0.079104 0.35969 -0.014984 0.01188 0.0012283 0.0013913
0.001181 -0.00066554 0.001293 0.00032776
0.0049393 0.0030522 -0.014947 0.011973 0.35299 0.060892 0.00021519 -0.0016071
-1.0821e-05 -0.00040905 0.00044148 0.00019219
-0.0020097 0.00045774 0.0012372 0.0013901 0.00020686 -0.0016094 0.16674 0.20836
-0.0134 -0.010541 -0.00098644 -0.00078762
0.0023487 0.00086411 0.0011872 -0.00068151 -1.0419e-05 -0.00040834 -0.013427 -0.010513
0.087275 0.20837 -0.0088006 -0.0096145
0.00042671 -0.0013078 0.0012994 0.00032058 0.00044138 0.00018558 -0.00098177 -0.00080115
-0.0087899 -0.0096328 0.10685 0.3083
1460000000 0.27271 0.15253 -0.02041 0.0040283 0.0054147 -0.0016912 -0.0016656 0.0015821
0.0020701 -0.00046726 -0.00027729 -0.0010057
-0.020394 0.0040145 0.11342 0.33823 -0.0065917 0.014981 0.0017567 0.00027048
0.0010381 -0.0012798 0.0012472 -0.00063818
0.0054129 -0.0017147 -0.0065215 0.015034 0.35897 0.0061996 -0.0012231 -0.001346
0.00020374 -0.0003116 0.00048276 -0.00043164
-0.0016622 0.0015817 0.0017625 0.00026234 -0.0012153 -0.0013495 0.19319 0.17984
-0.015252 -0.0042368 -0.0011177 0.0018472
0.0020695 -0.00047241 0.0010297 -0.00129 0.00020751 -0.00030815 -0.015266 -0.0042072
0.11557 0.19421 -0.011262 -0.0037526
-0.00028406 -0.0010055 0.0012548 -0.00064125 0.00048522 -0.00043776 -0.0011127 0.0018445
-0.011268 -0.0037614 0.14115 0.2886
1520000000 0.28498 0.11114 -0.015155 0.0097276 0.0032727 -0.0039768 -3.186e-05 0.002573
0.0021494 -0.0016211 -0.0011108 -0.00022644
-0.015153 0.0097101 0.14729 0.32369 0.0010742 0.01309 0.001733 -0.00073972
0.00011231 -0.0011264 0.00038518 -0.001025
0.0032553 -0.0039876 0.0011512 0.013095 0.35203 -0.050404 -0.0011484 -0.00043849
0.00063818 -0.00080659 3.5331e-05 -8.85e-05
-2.782e-05 0.0025762 0.0017393 -0.00074932 -0.0011529 -0.00044029 0.21673 0.14263
-0.015395 0.001472 0.0011922 0.0021267
0.0021325 -0.001629 0.00010423 -0.001127 0.00063701 -0.00080903 -0.015393 0.0015151
0.14275 0.18119 -0.011854 0.00041322
-0.0011098 -0.00022464 0.00038103 -0.0010378 3.6492e-05 -8.9294e-05 0.0011978 0.0021085
-0.011862 0.00040594 0.17593 0.27015
1580000000 0.2945 0.065187 -0.0087125 0.013154 -0.0008353 -0.0047278 0.0013072 0.0019785
-0.00020267 -0.0020421 -0.00040605 0.00043206
-0.0087136 0.013141 0.17485 0.29895 0.0047939 0.0084859 0.00055692 -0.0016281
-0.0006254 -0.001165 -0.00026412 -0.00079254
-0.00085741 -0.0047252 0.0048503 0.0084681 0.3313 -0.10809 -0.0016962 0.00069735
-0.00021473 -0.0011238 4.0067e-05 -0.00051449
0.0013123 0.001964 0.00054715 -0.0016352 -0.0017028 0.00070239 0.23122 0.10395
-0.012449 0.0068997 0.0021521 0.0010445
-0.00021306 -0.0020418 -0.00063298 -0.0011607 -0.00022185 -0.0011217 -0.012438 0.0069296
0.16693 0.16451 -0.0097854 0.006546
-0.0004022 0.0004403 -0.00026731 -0.0007924 3.5687e-05 -0.00051628 0.0021549 0.0010422
-0.0097893 0.0065481 0.20996 0.2437
1640000000 0.29689 0.023901 -0.0019818 0.012496 -0.0025388 -0.0024932 0.0027261 0.0011255
-0.00051827 -0.0015479 -0.00025765 0.00056455
-0.0019919 0.012485 0.20465 0.2739 0.0057903 0.0038136 -0.000619 -0.0018028
-0.0011004 -0.00042965 -0.00045819 -0.0007356
-0.0025489 -0.002476 0.0058198 0.0037833 0.30279 -0.1572 -0.00063366 0.0015761
-0.00097153 -0.0011182 -7.5194e-05 -0.00044048
0.0027281 0.0011211 -0.00064003 -0.0017992 -0.00062853 0.0015749 0.2443 0.055639
-0.008386 0.0088821 0.0024573 -0.00063957
-0.0005255 -0.0015461 -0.0011068 -0.00041647 -0.00097317 -0.0011228 -0.0083678 0.0089177
0.18918 0.14128 -0.0053551 0.0088786
-0.00025353 0.00056684 -0.00046161 -0.00073722 -7.6485e-05 -0.00044787 0.0024532 -0.00064655
-0.0053683 0.0088817 0.2364 0.21315
1700000000 0.28989 -0.021556 0.0016673 0.0099444 -0.0032884 8.4143e-05 0.0031262 -0.0011204
-0.0020044 -0.00083147 0.00068758 0.00046926
0.0016468 0.0099392 0.22299 0.24211 0.0039374 0.00096721 -0.0014951 -0.00066195
-0.0008171 0.00012778 -0.00092839 -0.00048245
-0.0032885 0.00010092 0.0039432 0.00094857 0.25902 -0.19687 0.00055129 0.0016103
-0.0019278 -0.00030729 -0.00043897 -0.0007866
0.0031211 -0.0011455 -0.0014986 -0.00066197 0.00054239 0.0016143 0.24209 0.0061816
-0.0052729 0.010159 0.0015654 -0.0021007
-0.0020011 -0.00083186 -0.00081664 0.00013116 -0.0019271 -0.00030284 -0.005259 0.01018
0.20674 0.12197 -0.00073351 0.0096308
0.00069381 0.00046362 -0.00092908 -0.00047896 -0.000448 -0.00078194 0.0015579 -0.0021112
-0.00072965 0.0096367 0.25418 0.1788
1760000000 0.27773 -0.070296 0.0043135 0.0067792 -0.0021334 0.00086203 0.0013763 -0.003432
-0.0013943 0.00055285 0.00048037 -0.00060443
0.0043078 0.0067845 0.24894 0.20193 0.0018283 -0.00086782 -0.001234 0.00016206
-0.00094669 0.00099916 -0.0005562 0.00040187
-0.0021279 0.00087652 0.0018131 -0.00088364 0.20994 -0.22959 0.0012702 0.00097307
-0.0012898 0.0014 -0.0012234 -0.00054226
0.0013481 -0.0034372 -0.0012364 0.00016736 0.0012668 0.00097836 0.234 -0.04524
-0.0012603 0.0096711 -0.00016657 -0.002448
-0.0013924 0.00055408 -0.00094149 0.00099894 -0.0012827 0.0014015 -0.0012313 0.0096687
0.22175 0.087919 0.0034017 0.0073599
0.00047175 -0.00061423 -0.00054751 0.00040773 -0.0012268 -0.0005354 -0.00017401 -0.0024565
0.0034042 0.0073592 0.26758 0.14131
1820000000 0.25308 -0.10788 0.0048333 0.00308 -1.2717e-05 0.0022775 -0.00096136 -0.0031208
-0.0012607 0.00086248 -3.6272e-05 -0.00015036
0.004824 0.0030822 0.25884 0.17158 -4.0625e-05 1.8292e-05 -0.0013749 0.00097087
9.6294e-05 0.001283 -0.00056472 0.00051594
2.613e-06 0.0022802 -3.6959e-05 2.4315e-05 0.16011 -0.24502 0.0013666 0.00031574
-0.00032 0.0024248 -0.0013355 0.00020899
-0.00097037 -0.0031229 -0.0013617 0.00097256 0.001363 0.00030443 0.20501 -0.092815
0.0007943 0.0078262 -0.0014896 -0.001544
-0.0012503 0.00087351 0.00010585 0.0012898 -0.00031374 0.0024132 0.00081035 0.0078263
0.2394 0.059555 0.0045602 0.0040871
-4.2206e-05 -0.00014709 -0.00055913 0.0005253 -0.001329 0.0002243 -0.0014826 -0.0015412
0.0045602 0.0040861 0.27093 0.10584
1880000000 0.21782 -0.14834 0.0027595 0.00051091 -0.00045807 0.0019222 -0.0029166 -0.002324
-0.00030782 0.0018157 0.000173 -0.00056478
0.0027521 0.00051831 0.26297 0.12477 -0.0020602 0.0016039 -0.00019947 0.00172
0.00060686 0.0011122 6.5639e-05 0.00091751
-0.00045076 0.0019279 -0.0020507 0.001623 0.108 -0.25454 0.0016574 -0.00085049
0.0015005 0.0021232 -0.0010942 0.0013308
-0.0029377 -0.0023058 -0.00018987 0.0017233 0.0016563 -0.00085284 0.16508 -0.13383
0.0018392 0.0054706 -0.0022798 0.00038517
-0.0002833 0.0018209 0.0006188 0.0011095 0.0015041 0.0021153 0.0018497 0.0054681
0.24286 0.027584 0.0050447 0.002065
0.00017283 -0.00056691 7.867e-05 0.00091855 -0.0010755 0.0013366 -0.0022743 0.00039149
0.0050325 0.0020639 0.27143 0.07154
1940000000 0.17809 -0.17395 0.00052895 -0.0013986 0.0011974 0.0019226 -0.0037063 0.0004491
0.0013472 0.0011743 -0.00076134 -0.00050537
0.00052536 -0.001397 0.26316 0.09297 -0.0010241 0.0037666 0.0010253 0.0013923
0.0017294 0.00035432 0.00074809 0.00027951
0.0012117 0.0019137 -0.00099266 0.003774 0.062169 -0.24761 0.00042712 -0.001958
0.0024652 0.00047019 0.00023567 0.0016299
-0.003718 0.00046621 0.0010395 0.0013822 0.00042987 -0.0019582 0.11279 -0.16532
0.00096062 0.0037116 -0.0013369 0.0014811
0.0013518 0.0011512 0.0017305 0.00033721 0.0024791 0.00045556 0.00096583 0.0037133
0.24528 -0.011153 0.0039932 -0.0015753
-0.00077205 -0.00049785 0.00075225 0.00027171 0.00023613 0.0016326 -0.0013372 0.0014793
0.0039936 -0.0015861 0.26139 0.036434
2000000000 0.13155 -0.18857 -0.003493 0.00041605 0.0022669 0.0017093 -0.0024587 0.0034079
0.0012199 0.00018682 -0.00066953 0.00043112
-0.0034927 0.00041408 0.24857 0.057515 -0.00093601 0.0055644 0.001664 0.00039591
0.0011759 -0.0013254 0.00047157 0.00018906
0.0022802 0.0016824 -0.00089397 0.0055796 0.018795 -0.23296 -0.0011429 -0.0012998
0.0020265 -0.0012017 0.0016131 0.0013406
-0.0024473 0.0034155 0.0016675 0.00038856 -0.0011484 -0.0013066 0.058768 -0.17594
-0.00082568 0.0033259 1.6047e-05 0.0021707
0.0012157 0.00017617 0.0011734 -0.0013349 0.0020262 -0.0012141 -0.00081747 0.0033307
0.23962 -0.045068 0.00084944 -0.0025185
