!Keysight Technologies,M9804A,MY58100912,A.14.10.03
!Date: Thursday, April 27, 2023 10:28:33
!Correction: S11(C  6-Port  ) 
!S12(C  6-Port  ) 
!S13(C  6-Port  ) 
!S14(C  6-Port  ) 
!S15(C  6-Port  ) 
!S16(C  6-Port  ) 
!S21(C  6-Port  ) 
!S22(C  6-Port  ) 
!S23(C  6-Port  ) 
!S24(C  6-Port  ) 
!S25(C  6-Port  ) 
!S26(C  6-Port  ) 
!S31(C  6-Port  ) 
!S32(C  6-Port  ) 
!S33(C  6-Port  ) 
!S34(C  6-Port  ) 
!S35(C  6-Port  ) 
!S36(C  6-Port  ) 
!S41(C  6-Port  ) 
!S42(C  6-Port  ) 
!S43(C  6-Port  ) 
!S44(C  6-Port  ) 
!S45(C  6-Port  ) 
!S46(C  6-Port  ) 
!S51(C  6-Port  ) 
!S52(C  6-Port  ) 
!S53(C  6-Port  ) 
!S54(C  6-Port  ) 
!S55(C  6-Port  ) 
!S56(C  6-Port  ) 
!S61(C  6-Port  ) 
!S62(C  6-Port  ) 
!S63(C  6-Port  ) 
!S64(C  6-Port  ) 
!S65(C  6-Port  ) 
!S66(C  6-Port  ) 
!S6P File: Measurement: :
# Hz S  RI   R 50
500000000 -0.33711 -0.041443 -0.0095739 -0.002573 -0.0081967 0.012247 -0.0042371 0.012331
0.012701 0.0045571 -0.0047676 0.009037
-0.0096242 -0.0025915 -0.41854 -0.053762 0.0079719 -0.010788 0.0016104 0.012248
0.0079675 0.0020808 0.0014759 0.013359
-0.0081491 0.012417 0.008098 -0.010756 -0.26503 0.20794 0.0077179 0.0035787
-0.0020549 0.0076493 0.0012409 0.012065
-0.0041725 0.012205 0.0016541 0.012282 0.0076964 0.0036013 -0.33212 0.039108
-0.019056 -0.0060722 0.016612 0.026465
0.012429 0.0042219 0.0077454 0.0022565 -0.0020803 0.0076885 -0.01911 -0.0060847
-0.21748 -0.20564 -0.02567 0.005582
-0.004166 0.0086889 0.0015716 0.013276 0.0013405 0.012115 0.016712 0.026689
-0.025587 0.0055219 -0.25898 -0.1534
560000000 -0.31598 0.12015 -0.02377 -0.063094 -0.00025414 0.011736 0.0053698 0.010748
0.010653 0.0050002 0.011029 0.0078478
-0.02393 -0.063038 -0.37653 0.10637 -0.041082 -0.03745 0.013992 0.003804
-0.012927 -0.0055292 0.0027014 -0.0002122
-0.00021812 0.011645 -0.041296 -0.037564 -0.18338 0.25607 -0.00068306 -0.0044176
0.019761 0.0054525 0.0068447 -0.0057321
0.0055699 0.010691 0.013927 0.0039117 -0.0006205 -0.0044713 -0.30743 0.12972
0.0043091 -0.023929 0.0049442 -0.022105
0.010826 0.0047078 -0.01306 -0.0053839 0.019767 0.005336 0.0045143 -0.024066
-0.2875 -0.029338 0.009865 -0.049377
0.011255 0.0082612 0.0026508 -0.00041449 0.006773 -0.0055284 0.0049288 -0.022184
0.0098927 -0.049468 -0.32919 -0.0005197
620000000 -0.276 0.10406 -0.023449 0.0077734 0.0029206 0.0083669 0.0082682 -0.0052596
0.010779 -4.5022e-05 0.0014014 -0.0025407
-0.023319 0.0077148 -0.40271 0.057797 -0.018641 6.2747e-05 -0.001436 -0.0021238
0.011521 -0.0061855 0.0017255 -0.002973
0.0030783 0.0083202 -0.018703 2.6979e-05 -0.15433 0.26575 -0.0015504 -0.0051244
-0.0025368 -0.0024565 0.0079763 -0.0032759
0.0081056 -0.005164 -0.0013471 -0.0021601 -0.0015714 -0.0052227 -0.26779 0.14106
-0.038038 -0.019353 0.012491 0.026685
0.011298 1.7789e-05 0.011546 -0.0061522 -0.0025645 -0.0023917 -0.038014 -0.019634
-0.20502 -0.068587 -0.042535 0.014561
0.0013618 -0.0028331 0.0017832 -0.0028208 0.0080342 -0.0033783 0.01253 0.026581
-0.042519 0.014658 -0.24777 -0.04035
680000000 -0.23595 0.19037 -0.027312 -0.014672 0.0046882 0.0051009 0.0016854 -0.0070094
-0.0034034 -0.011146 0.0053686 -0.0068269
-0.02727 -0.014692 -0.38821 0.15601 -0.03275 -0.0015804 -0.0016279 -0.00040003
-0.0021751 -0.0088826 -0.0012344 -0.0018138
0.0047638 0.0050511 -0.032814 -0.0015082 -0.10305 0.28555 -0.00074873 -0.00027925
-0.0017511 0.00062876 -0.0026472 -0.0095573
0.0017811 -0.007049 -0.0016016 -0.00053398 -0.00075079 -0.00028306 -0.22243 0.19274
-0.023222 -0.0075164 -0.0096862 -0.012614
-0.0033319 -0.011385 -0.0022815 -0.0090202 -0.0018426 0.00059915 -0.023341 -0.0077858
-0.25933 0.030842 -0.0053261 -0.0088271
0.0054051 -0.0068013 -0.0012259 -0.0017931 -0.0026862 -0.0095307 -0.0096892 -0.012599
-0.0053639 -0.0088581 -0.2625 0.07078
740000000 -0.19154 0.18508 -0.039047 0.026923 0.01238 -0.004988 -2.9792e-05 -0.0043662
-0.003627 -0.0026011 -0.0062117 0.0024685
-0.03892 0.026787 -0.33534 0.17519 -0.035737 0.034988 -0.00088542 -0.0063652
-0.011032 0.0077079 -0.002545 -0.0070121
0.012472 -0.0049903 -0.035617 0.035104 -0.069158 0.28404 -0.0021097 0.0029292
-0.0018891 -0.0047352 -0.0012884 -0.00041954
-0.00013671 -0.0042888 -0.00091931 -0.0064209 -0.0021764 0.0029635 -0.20573 0.2011
-0.043786 -0.0077901 0.023476 0.015813
-0.0039487 -0.0027047 -0.011238 0.0078093 -0.0018067 -0.0047382 -0.043948 -0.00793
-0.15856 0.058748 -0.044954 -0.0006636
-0.0065116 0.0027299 -0.0025715 -0.0071934 -0.0013656 -0.00042009 0.023483 0.015724
-0.045085 -0.00071347 -0.25342 0.07489
800000000 -0.15896 0.22623 -0.022677 0.016727 0.0052455 -0.0105 -0.0047194 -0.0022327
-0.0039806 0.0021529 0.0049726 -6.5605e-06
-0.022663 0.016717 -0.33896 0.24551 -0.0080712 0.033948 -0.0023179 0.0021539
-0.00057967 0.0026675 0.00096632 0.0051944
0.0052214 -0.010551 -0.0079569 0.033995 -0.02856 0.30727 0.00092757 0.0015257
0.00030315 0.003398 -0.0016947 0.00056101
-0.0047982 -0.0021592 -0.0023321 0.0021933 0.00092634 0.0015558 -0.17708 0.22935
-0.028588 0.013412 0.014286 -0.010729
-0.0040123 0.0021383 -0.00059187 0.0027045 0.00027686 0.0034059 -0.028794 0.013379
-0.20822 0.082108 -0.018186 0.019311
0.0048941 5.8404e-05 0.00092083 0.0052354 -0.0017269 0.00059954 0.014274 -0.010757
-0.018194 0.019294 -0.25055 0.12686
860000000 -0.12439 0.24662 -0.01776 0.030605 -0.0033004 -0.0098131 -0.002393 0.00085656
0.0038206 0.004756 -0.0034732 -0.0031348
-0.017738 0.030648 -0.29124 0.28739 0.0076287 0.034093 -0.00012518 0.0019432
0.0038106 -1.8797e-05 0.0031319 0.00075581
-0.0033539 -0.00979 0.0077207 0.034101 0.019618 0.31516 -0.00058047 -0.00018655
0.0028329 -0.0015052 0.0013195 0.004297
-0.0023242 0.00091064 -0.00011672 0.0019783 -0.00056042 -0.00018858 -0.14028 0.2405
-0.018297 0.017943 -0.0063698 -0.0091334
0.0038934 0.0048185 0.0038965 6.6914e-05 0.0028216 -0.0014503 -0.018539 0.018068
-0.15758 0.13522 -0.027257 0.015054
-0.0034262 -0.0031414 0.0031649 0.00083727 0.0013649 0.0042937 -0.0063189 -0.0091904
-0.027252 0.014955 -0.19889 0.17577
920000000 -0.10008 0.2698 0.0049702 0.037903 -0.0092684 -0.004299 -0.0018658 0.0018374
0.0009737 0.0018712 0.0026217 -0.0015533
0.0049147 0.037888 -0.26253 0.30883 0.027796 0.021985 0.0013906 0.0011027
0.0071505 -0.0002817 0.0039196 -0.0026292
-0.0093016 -0.0043007 0.027918 0.021916 0.065786 0.31563 0.0018783 5.0083e-05
0.0010937 -0.00027247 0.00087228 -0.0010003
-0.0018433 0.0018386 0.0014565 0.0011374 0.0019099 2.7276e-05 -0.1162 0.25737
-0.011328 0.030406 0.0041146 -0.0066035
0.0010649 0.0019653 0.0071806 -0.0002475 0.0011254 -0.00025433 -0.011411 0.030579
-0.14792 0.14145 -0.00301 0.027982
0.0025726 -0.0015843 0.0039354 -0.0026503 0.00085344 -0.0010605 0.0040544 -0.0066499
-0.003111 0.028041 -0.2119 0.18966
980000000 -0.052421 0.28952 0.017365 0.030114 -0.008908 0.0046513 0.0020775 0.0035345
0.0040671 -0.0013346 -0.0033643 -0.0023331
0.017293 0.030175 -0.20947 0.3429 0.032761 0.0050978 0.0019863 -4.8388e-05
0.0015638 -0.0057478 -0.00033979 -0.002427
-0.0088885 0.0046893 0.032794 0.0049836 0.11184 0.30905 0.00054766 -0.0011304
0.00039909 -0.0019969 0.0015319 -0.00018367
0.0021171 0.0035377 0.0020225 -2.1763e-05 0.00056066 -0.0011538 -0.077328 0.2686
0.0071995 0.030211 -0.0094379 -0.007526
0.0041516 -0.0013517 0.0016148 -0.0057646 0.00043561 -0.0019983 0.0071261 0.030356
-0.11738 0.17202 0.0044038 0.020331
-0.0033285 -0.0023808 -0.00030502 -0.0024202 0.0015057 -0.00020678 -0.0094467 -0.0075435
0.004416 0.02033 -0.16893 0.23795
1040000000 -0.010297 0.29806 0.033011 0.018524 -0.0011812 0.0069111 0.002499 0.00065559
0.00014692 -0.0036683 -0.0001116 -0.0014007
0.032962 0.018547 -0.17389 0.35588 0.029312 -0.014461 0.0014525 -0.0016664
-0.00238 -0.0024833 -0.0012244 -0.0025477
-0.0011493 0.0069285 0.029275 -0.014584 0.15756 0.29535 -0.00047815 -0.0015828
-0.0015571 -0.00088847 -0.00037538 -0.0010826
0.0025029 0.0006031 0.0014841 -0.001697 -0.00048002 -0.0016084 -0.050209 0.27844
0.018788 0.018524 -0.0020413 0.0014813
0.00015873 -0.003713 -0.0024472 -0.0024962 -0.0015493 -0.00092832 0.018812 0.018637
-0.084691 0.18008 0.013181 0.019829
-0.00010518 -0.0014216 -0.0012329 -0.0026069 -0.00040162 -0.0010895 -0.0020716 0.0015035
0.013112 0.019812 -0.14976 0.25961
1100000000 0.035062 0.30595 0.035762 -0.0038534 0.0029151 0.0038392 0.0023163 -0.0013034
-0.0019641 -0.003255 -0.003867 2.2483e-05
0.035723 -0.0038391 -0.13045 0.37305 0.015221 -0.0274 2.1729e-05 -0.0017749
-0.0031771 -0.00085827 -0.0034426 -0.00053844
0.0029333 0.0038459 0.015124 -0.027477 0.20354 0.27532 -0.0018654 0.00019287
-0.0017213 0.00040388 -0.0011367 -0.00042607
0.0022677 -0.0013207 -9.6097e-07 -0.001782 -0.0018999 0.00019205 -0.010027 0.28328
0.024263 0.0058108 -0.0025939 -6.8351e-06
-0.0020099 -0.0032756 -0.0032239 -0.00088431 -0.0017654 0.00038258 0.024263 0.005867
-0.066885 0.19429 0.019119 0.0098392
-0.0039348 -9.4822e-06 -0.0034585 -0.00053135 -0.0011647 -0.00045442 -0.0026243 4.3613e-05
0.019125 0.0098553 -0.10408 0.29268
1160000000 0.086532 0.30088 0.024059 -0.020337 0.0028068 -0.00059982 -0.00040335 -0.002378
-0.0041106 -0.00087216 -0.00090606 0.0041542
0.02405 -0.020277 -0.087086 0.37693 -0.0032549 -0.028856 -0.0016109 -0.0017083
-0.0027178 0.0023007 -0.0013586 0.001871
0.0028077 -0.00061749 -0.0033918 -0.02886 0.24646 0.24502 -0.0006858 0.0017146
-0.00067501 0.0018542 -0.00097529 0.00023255
-0.00042388 -0.002356 -0.001619 -0.0016812 -0.00071868 0.0017217 0.028953 0.28044
0.021237 -0.0095396 -0.0031262 0.0054493
-0.0042077 -0.00080317 -0.0027531 0.0023265 -0.00068713 0.0018723 0.021214 -0.0094337
-0.032663 0.20383 0.018577 0.0017197
-0.00093995 0.0041692 -0.0012854 0.0018713 -0.0010181 0.00022288 -0.0031449 0.0054699
0.018553 0.0017213 -0.056803 0.29603
1220000000 0.13079 0.28979 0.010816 -0.02969 -0.0015038 -0.00099291 -1.2441e-05 -0.00076135
-0.0027054 0.0023946 0.0012451 0.0020394
0.01081 -0.029665 -0.042994 0.38905 -0.016368 -0.021143 -0.0024907 0.00035861
-9.597e-05 0.0029683 -0.00085772 0.0018511
-0.0014903 -0.00096719 -0.01648 -0.021071 0.28582 0.20662 0.0007576 0.0016213
0.00053817 0.0012417 0.00028643 0.00069269
-2.685e-06 -0.00074872 -0.0024768 0.00037853 0.00075017 0.0016513 0.068413 0.27237
0.010907 -0.016289 0.0023606 0.0015093
-0.0027197 0.0024456 -7.4862e-05 0.0029751 0.00050798 0.0012522 0.010948 -0.016105
-0.010891 0.21258 0.015131 -0.011918
0.0012799 0.0020714 -0.00085851 0.0018672 0.00025827 0.00072058 0.0024193 0.0015221
0.015149 -0.011902 -0.026714 0.31582
1280000000 0.18035 0.26779 -0.0073557 -0.028391 -0.0018902 0.0022356 -0.0007912 -0.0018764
-0.00083624 0.0030513 0.0024272 0.0012166
-0.0073414 -0.02837 0.0025663 0.38016 -0.023246 -0.0088014 -0.0010239 0.0013625
0.0015444 0.0018636 0.00057916 0.002126
-0.001888 0.0022545 -0.023316 -0.0086922 0.31694 0.16301 0.0015538 6.2098e-05
0.0011116 0.00038886 0.00045845 0.00037863
-0.00078828 -0.0018634 -0.0010167 0.0013784 0.0015753 6.8503e-05 0.10509 0.25634
0.0020422 -0.018646 1.625e-05 5.7335e-05
-0.00082896 0.0030963 0.0015551 0.0018502 0.0011119 0.0004072 0.0021905 -0.018453
0.025781 0.21648 0.0041516 -0.014638
0.0024315 0.001212 0.00059403 0.0021519 0.00046547 0.00040284 6.977e-05 7.8508e-05
0.0041618 -0.014639 0.022175 0.32005
1340000000 0.21718 0.23414 -0.017126 -0.019242 0.00072985 0.0043494 -0.0015173 -0.00083192
0.0014118 0.0027682 0.0018044 -0.00132
-0.017083 -0.019245 0.041812 0.37244 -0.021449 0.0036839 -0.00024134 0.0019764
0.0018295 0.00096375 0.0013272 0.00087704
0.000759 0.0043431 -0.021431 0.0038099 0.33952 0.115 0.0011462 -0.00085196
0.00077239 -0.0004221 0.00027303 0.00032691
-0.0015082 -0.00080592 -0.00022089 0.0019817 0.0011751 -0.00084283 0.13742 0.23654
-0.0072736 -0.016529 0.0010876 0.0003691
0.001433 0.0027849 0.0018136 0.00097041 0.0007616 -0.0004104 -0.0070299 -0.016432
0.0547 0.21197 -0.0022654 -0.013693
0.0018013 -0.0013203 0.0013546 0.00086125 0.00027755 0.00032747 0.0011493 0.00031351
-0.0022414 -0.013682 0.060343 0.31793
1400000000 0.24996 0.19621 -0.023127 -0.007965 0.0049123 0.0030959 -0.002003 0.00043985
0.0023587 0.0008693 0.00043748 -0.0013166
-0.023076 -0.0079825 0.079101 0.35969 -0.014989 0.011858 0.0012186 0.0014272
0.0011845 -0.00068372 0.0012966 0.00034016
0.0049425 0.0030798 -0.014953 0.01195 0.353 0.060919 0.00022372 -0.0016116
-4.1393e-06 -0.00040501 0.00044562 0.00019362
-0.0019892 0.00045998 0.0012548 0.0014177 0.00024357 -0.0016189 0.16699 0.20814
-0.013275 -0.010454 -0.00095677 -0.00081358
0.0024109 0.00085723 0.00119 -0.00065976 1.3411e-05 -0.00038827 -0.012985 -0.010493
0.087187 0.20845 -0.0087879 -0.0096483
0.00041491 -0.0013693 0.0013091 0.0003283 0.00045972 0.00019083 -0.00092427 -0.00086668
-0.0087624 -0.0096473 0.10677 0.30846
1460000000 0.27273 0.15251 -0.020452 0.0041319 0.0054218 -0.0016823 -0.0016915 0.0015602
0.0020838 -0.00049542 -0.0002796 -0.0010286
-0.020453 0.0041079 0.11343 0.33825 -0.0066069 0.014971 0.001777 0.00028105
0.0010223 -0.0012901 0.0012447 -0.00063042
0.0054572 -0.0016859 -0.0065212 0.015019 0.35903 0.0062115 -0.0012018 -0.0013758
0.00021547 -0.00030544 0.00048909 -0.00043419
-0.0016687 0.0015496 0.0017903 0.00028343 -0.0011996 -0.0013883 0.19328 0.17947
-0.015117 -0.0042331 -0.0011076 0.001805
0.0021089 -0.00053356 0.0010374 -0.0012987 0.00022203 -0.00032776 -0.014855 -0.0044176
0.11555 0.1943 -0.011266 -0.0037827
-0.00031559 -0.0010382 0.001274 -0.00065945 0.00049235 -0.000464 -0.0011253 0.0017444
-0.011249 -0.0038123 0.14111 0.28879
1520000000 0.28498 0.11112 -0.015138 0.0098394 0.003303 -0.0039499 -5.069e-05 0.0025837
0.002138 -0.0016267 -0.0011143 -0.00021495
-0.015141 0.0098179 0.14728 0.32369 0.0010487 0.013099 0.001766 -0.00074771
9.8537e-05 -0.0011155 0.0003907 -0.0010308
0.0032615 -0.0039814 0.0011157 0.013111 0.352 -0.050391 -0.0011619 -0.00043909
0.00063653 -0.0007815 2.2018e-05 -0.00010199
-4.8314e-05 0.0025448 0.0017731 -0.00077114 -0.0011685 -0.00045092 0.21658 0.14221
-0.015293 0.0014223 0.0011924 0.0020863
0.0021449 -0.0016538 0.00011683 -0.0011312 0.00064122 -0.00079488 -0.015197 0.0011171
0.14267 0.18124 -0.01186 0.00038118
-0.0011533 -0.00019516 0.00037961 -0.001059 3.5144e-05 -0.00010674 0.0011376 0.0020166
-0.011858 0.00038226 0.17589 0.27028
1580000000 0.2945 0.065172 -0.0086316 0.013239 -0.000823 -0.0047279 0.0012973 0.0019914
-0.00022112 -0.0020368 -0.00040765 0.00044231
-0.0086487 0.013214 0.17486 0.29901 0.0047736 0.0085115 0.00055766 -0.0016468
-0.00061098 -0.0011596 -0.0002643 -0.00080161
-0.00084839 -0.0047389 0.0048214 0.0084923 0.33127 -0.10806 -0.00172 0.00071415
-0.00019462 -0.0011255 4.1538e-05 -0.00050918
0.0012698 0.0019661 0.00054892 -0.0016765 -0.0017422 0.00069204 0.23083 0.10368
-0.012394 0.0068229 0.0021264 0.0010201
-0.00024011 -0.0020639 -0.00059942 -0.0011816 -0.00021908 -0.001139 -0.012494 0.0065338
0.16686 0.1646 -0.0097867 0.0065086
-0.00042397 0.00048348 -0.00028282 -0.00080477 4.8832e-05 -0.00050314 0.0020429 0.00099666
-0.0097995 0.0064904 0.20996 0.2438
1640000000 0.29688 0.023898 -0.0018787 0.012498 -0.0025319 -0.0025219 0.0027286 0.0011431
-0.00052355 -0.0015347 -0.00023781 0.00057138
-0.0018972 0.012506 0.2047 0.27394 0.0058023 0.003842 -0.00063925 -0.001807
-0.0010932 -0.00042277 -0.00045139 -0.00074226
-0.0025339 -0.0025205 0.0058337 0.0038128 0.30281 -0.15723 -0.00062592 0.0015903
-0.00095884 -0.0011191 -7.9229e-05 -0.00044279
0.0027078 0.0011385 -0.00066881 -0.0018258 -0.0006498 0.0016033 0.24381 0.055593
-0.008375 0.0088322 0.0024283 -0.00064725
-0.00057293 -0.0015359 -0.0011269 -0.00044415 -0.00096445 -0.0011535 -0.0086152 0.0086613
0.18914 0.14138 -0.0053898 0.0088536
-0.00023201 0.00062581 -0.00048653 -0.0007176 -8.8498e-05 -0.00043144 0.0023666 -0.000621
-0.0053924 0.0088496 0.23638 0.2132
1700000000 0.28987 -0.021568 0.0017415 0.0098968 -0.0033255 5.1775e-05 0.0031379 -0.0011264
-0.0019892 -0.0008277 0.00069309 0.00046491
0.0017351 0.0098849 0.22304 0.24209 0.0039711 0.00094885 -0.0015137 -0.00064268
-0.00081474 0.00012329 -0.0009261 -0.0004829
-0.0032864 7.5901e-05 0.0039747 0.00094445 0.25905 -0.19688 0.00057186 0.0016315
-0.0019125 -0.00031798 -0.00044506 -0.00077673
0.0031409 -0.0010824 -0.0015394 -0.00063263 0.00055524 0.0016561 0.24166 0.0063958
-0.0052629 0.010151 0.0015361 -0.0020919
-0.0020457 -0.00076561 -0.00086027 0.00012174 -0.0019785 -0.00030862 -0.0055289 0.010148
0.20674 0.12206 -0.00074881 0.0096113
0.00070655 0.00047536 -0.00093449 -0.0004535 -0.0004446 -0.00081674 0.0014925 -0.002029
-0.00076397 0.0096174 0.25412 0.17882
1760000000 0.2777 -0.070298 0.0043461 0.0067105 -0.0021674 0.00087095 0.0013739 -0.003441
-0.0013907 0.00055299 0.00046141 -0.00061606
0.0043361 0.0066974 0.24895 0.20189 0.0018094 -0.00087582 -0.0012371 0.00017115
-0.00095689 0.00099502 -0.00055037 0.00039858
-0.0021725 0.00088576 0.0018219 -0.00087984 0.2099 -0.22958 0.0012985 0.00095498
-0.0012808 0.0014033 -0.0011951 -0.00055709
0.0013801 -0.0034009 -0.0012594 0.00021318 0.0013063 0.00098992 0.23374 -0.044867
-0.0012358 0.0096264 -0.0001752 -0.0024361
-0.0013911 0.00061257 -0.00099943 0.0010337 -0.001314 0.0014288 -0.0014058 0.0097611
0.22185 0.08797 0.0033658 0.0073492
0.000471 -0.0006372 -0.00053742 0.00042603 -0.0012066 -0.00054411 -0.0001727 -0.0023733
0.0033611 0.0073594 0.26748 0.14136
1820000000 0.25305 -0.10786 0.0048081 0.0029962 -4.6689e-05 0.0022904 -0.00095417 -0.0031281
-0.0012602 0.00084128 -4.7763e-05 -0.00016086
0.0048012 0.0030099 0.25883 0.17153 -6.0261e-05 1.4365e-05 -0.0013591 0.00097037
8.0396e-05 0.0012801 -0.00056068 0.00051458
-2.3881e-05 0.0023099 -6.1115e-05 4.3479e-06 0.1602 -0.24496 0.0013608 0.00030027
-0.00033528 0.0024214 -0.001314 0.00021915
-0.00095722 -0.003109 -0.0013235 0.0010168 0.0014033 0.00029233 0.20491 -0.092381
0.00082854 0.0077633 -0.001492 -0.0015209
-0.0012169 0.00088848 9.746e-05 0.0013355 -0.00029458 0.0024342 0.00078348 0.0079249
0.23948 0.059532 0.0045249 0.0040919
-2.8853e-05 -0.00016558 -0.0005379 0.00052513 -0.001326 0.00023432 -0.0014649 -0.0014819
0.0045079 0.0040839 0.27083 0.10596
1880000000 0.2178 -0.14831 0.0027224 0.00048436 -0.00044854 0.0019576 -0.00293 -0.0023254
-0.00030076 0.0018034 0.00018469 -0.0005475
0.0027257 0.00048661 0.26293 0.12479 -0.0020667 0.00165 -0.00019937 0.0017133
0.00060692 0.0011331 7.9518e-05 0.00092775
-0.0004505 0.0020107 -0.0020389 0.0016499 0.10804 -0.2545 0.0016279 -0.00083898
0.0014929 0.0021372 -0.0010915 0.0013312
-0.0029062 -0.0023177 -0.00012906 0.0017402 0.0016526 -0.00087461 0.1652 -0.1334
0.0018618 0.0053865 -0.002274 0.00041103
-0.00023422 0.0018039 0.00066472 0.0011749 0.0015865 0.0021524 0.0018756 0.0054889
0.24292 0.02748 0.0050025 0.0020847
0.00015431 -0.00061004 0.00011042 0.00089761 -0.0010725 0.0013508 -0.0022476 0.00042897
0.0050036 0.0020894 0.27132 0.071693
1940000000 0.17812 -0.17392 0.00048365 -0.0014232 0.0012161 0.0019454 -0.0037223 0.00042981
0.0013274 0.0011462 -0.00076778 -0.00048812
0.00048444 -0.0014288 0.26317 0.093008 -0.00099282 0.0037781 0.001029 0.001374
0.0017376 0.00035456 0.00073639 0.00027435
0.0012638 0.0019756 -0.00096308 0.003799 0.062227 -0.24748 0.00040337 -0.0019345
0.0024867 0.00045724 0.00020599 0.0016178
-0.0036764 0.00042359 0.0010813 0.0013428 0.00041953 -0.0019863 0.11307 -0.16503
0.00093123 0.0035781 -0.001321 0.0015039
0.0014104 0.0011043 0.0018236 0.00035719 0.002531 0.00039036 0.00095567 0.0036364
0.2453 -0.011346 0.003985 -0.0015607
-0.0008168 -0.00048652 0.00075679 0.00021929 0.00017052 0.0016166 -0.0012983 0.0014905
0.0039859 -0.0015383 0.26131 0.036634
2000000000 0.13159 -0.18862 -0.0034897 0.00038153 0.0023369 0.0016461 -0.0024855 0.0033861
0.0012115 0.00018475 -0.00065744 0.00040135
-0.0035068 0.00037791 0.24862 0.057568 -0.0008914 0.0055675 0.0016599 0.00038359
0.0012044 -0.0013192 0.0004781 0.00018375
0.0023157 0.0016191 -0.00085631 0.0055768 0.018853 -0.23294 -0.0011397 -0.0012887
0.0020338 -0.0012109 0.0015986 0.0013493
-0.0025017 0.0033624 0.0016596 0.00030333 -0.0011928 -0.0012919 0.05915 -0.1758
-0.00092429 0.0032172 5.3328e-05 0.0021672
0.001182 7.1826e-05 0.0012469 -0.0014134 0.0019996 -0.0013145 -0.00088802 0.0032559
0.23947 -0.045186 0.00086981 -0.0024705
