!Keysight Technologies,M9804A,MY58100912,A.14.10.03
!Date: Thursday, April 27, 2023 10:28:33
!Correction: S11(C  6-Port  ) 
!S12(C  6-Port  ) 
!S13(C  6-Port  ) 
!S14(C  6-Port  ) 
!S15(C  6-Port  ) 
!S16(C  6-Port  ) 
!S21(C  6-Port  ) 
!S22(C  6-Port  ) 
!S23(C  6-Port  ) 
!S24(C  6-Port  ) 
!S25(C  6-Port  ) 
!S26(C  6-Port  ) 
!S31(C  6-Port  ) 
!S32(C  6-Port  ) 
!S33(C  6-Port  ) 
!S34(C  6-Port  ) 
!S35(C  6-Port  ) 
!S36(C  6-Port  ) 
!S41(C  6-Port  ) 
!S42(C  6-Port  ) 
!S43(C  6-Port  ) 
!S44(C  6-Port  ) 
!S45(C  6-Port  ) 
!S46(C  6-Port  ) 
!S51(C  6-Port  ) 
!S52(C  6-Port  ) 
!S53(C  6-Port  ) 
!S54(C  6-Port  ) 
!S55(C  6-Port  ) 
!S56(C  6-Port  ) 
!S61(C  6-Port  ) 
!S62(C  6-Port  ) 
!S63(C  6-Port  ) 
!S64(C  6-Port  ) 
!S65(C  6-Port  ) 
!S66(C  6-Port  ) 
!S6P File: Measurement: :
# Hz S  RI   R 50
500000000 -0.33655 -0.040658 -0.009615 -0.0020913 -0.008179 0.01218 -0.0044349 0.011629
0.012157 0.0047531 -0.005018 0.0085723
-0.009309 -0.0025907 -0.41849 -0.053838 0.0079732 -0.01059 0.0015213 0.011828
0.0080528 0.0023495 0.0014663 0.013358
-0.008179 0.012227 0.0078757 -0.010925 -0.26499 0.20806 0.0074103 0.0035804
-0.0017843 0.0072656 0.0013112 0.011886
-0.0042239 0.012362 0.0024958 0.011893 0.0076068 0.0037238 -0.33269 0.0385
-0.019065 -0.0058782 0.017115 0.026329
0.012591 0.004961 0.0077897 0.002652 -0.0022922 0.0078032 -0.019207 -0.0052638
-0.21788 -0.20571 -0.026456 0.0058759
-0.0043774 0.0089249 0.0024947 0.013065 0.00099874 0.012186 0.016201 0.02615
-0.026096 0.0056798 -0.25815 -0.1534
560000000 -0.31735 0.12058 -0.023143 -0.063127 -8.4308e-05 0.012275 0.0058475 0.010815
0.010879 0.0053993 0.011469 0.0079636
-0.023536 -0.062792 -0.37571 0.10581 -0.041357 -0.037957 0.014144 0.0036509
-0.013153 -0.0052232 0.0025114 -0.00031247
-0.00030714 0.011781 -0.04128 -0.03753 -0.18294 0.25594 -0.00030588 -0.0041295
0.019541 0.0050824 0.006906 -0.0059613
0.0059596 0.010739 0.014186 0.0038207 -0.00045923 -0.0045349 -0.30768 0.12977
0.0047142 -0.023405 0.005159 -0.021978
0.011446 0.0040136 -0.013206 -0.0047564 0.019861 0.0055262 0.0049499 -0.023366
-0.28884 -0.030639 0.010168 -0.049809
0.010836 0.0078651 0.0025756 -0.00067656 0.0068012 -0.0061691 0.0053088 -0.021813
0.011117 -0.049462 -0.32814 -0.00012424
620000000 -0.27567 0.10415 -0.023043 0.0077181 0.003307 0.0083708 0.0084618 -0.0049783
0.011324 -0.00012163 0.0012875 -0.001982
-0.023072 0.0078621 -0.40261 0.057918 -0.01851 8.5407e-05 -0.0020076 -0.0023816
0.011741 -0.0059575 0.0016012 -0.0029641
0.0033569 0.0083163 -0.018518 2.6932e-05 -0.15434 0.26589 -0.0013206 -0.0052463
-0.002301 -0.0026725 0.0081523 -0.0031619
0.0085686 -0.0051028 -0.0012795 -0.0021403 -0.0015393 -0.0050932 -0.26796 0.14121
-0.037779 -0.019292 0.012705 0.0266
0.01142 0.00074472 0.011543 -0.0061658 -0.0028227 -0.0023685 -0.038312 -0.019484
-0.2055 -0.06842 -0.042956 0.01461
0.0015341 -0.0030438 0.0015826 -0.0029695 0.007915 -0.0028619 0.01189 0.027187
-0.042014 0.013868 -0.24764 -0.041274
680000000 -0.23553 0.19109 -0.027363 -0.014679 0.0048801 0.0051308 0.0017768 -0.0071851
-0.0032267 -0.011316 0.0059188 -0.0066971
-0.027307 -0.014401 -0.3883 0.15603 -0.032616 -0.0016969 -0.0015957 -0.0005927
-0.0019928 -0.0089661 -0.0011163 -0.0018403
0.0048658 0.005418 -0.032855 -0.0015724 -0.10309 0.28546 -0.00096068 -0.00040677
-0.0017899 0.00060965 -0.0027125 -0.0093082
0.0012013 -0.0069115 -0.0018253 -0.00062644 -0.00096639 -0.00025026 -0.22283 0.19275
-0.023289 -0.0079964 -0.0097357 -0.01211
-0.0038326 -0.011298 -0.0021373 -0.0090711 -0.0018107 0.0004341 -0.023311 -0.0073867
-0.25907 0.031458 -0.0049998 -0.0089082
0.0053853 -0.0060148 -0.0014364 -0.0018976 -0.0026867 -0.009527 -0.0099707 -0.01265
-0.0048622 -0.0088332 -0.26307 0.070332
740000000 -0.19151 0.18521 -0.039228 0.026782 0.012535 -0.0051536 -0.00016551 -0.0044191
-0.0035521 -0.0022869 -0.0061668 0.0025574
-0.038957 0.026744 -0.33542 0.17486 -0.035553 0.034803 -0.0010491 -0.0061833
-0.011758 0.0076967 -0.002382 -0.006821
0.012645 -0.0047749 -0.035536 0.035251 -0.069208 0.28402 -0.0019147 0.0029075
-0.0020884 -0.0050274 -0.0017552 -0.00030359
-6.8653e-05 -0.0042716 -0.00081778 -0.0061222 -0.0020954 0.0030746 -0.20588 0.20103
-0.043702 -0.0078146 0.023698 0.015885
-0.0039444 -0.0023568 -0.011586 0.0075259 -0.0018115 -0.0049405 -0.043602 -0.0083957
-0.15951 0.059664 -0.044828 -0.0005529
-0.0062702 0.00268 -0.002391 -0.0066163 -0.0012357 -0.00028996 0.023602 0.015813
-0.044634 -0.0010274 -0.25347 0.075154
800000000 -0.15875 0.22641 -0.022889 0.016583 0.0054617 -0.01046 -0.0046638 -0.00221
-0.0041017 0.0019544 0.0051238 0.00033862
-0.022739 0.016481 -0.33906 0.24549 -0.008038 0.033933 -0.0023303 0.0022076
-0.00069789 0.0027221 0.001103 0.0055245
0.0052297 -0.010354 -0.0081275 0.034131 -0.02842 0.30729 0.00089292 0.0015545
0.00013122 0.0034347 -0.0016397 0.00075819
-0.0051428 -0.0019554 -0.0025754 0.0021297 0.00087053 0.0016345 -0.17698 0.22961
-0.028658 0.013314 0.014533 -0.010747
-0.0042426 0.0021956 -0.00070264 0.0029313 0.00037257 0.0036069 -0.028252 0.013252
-0.20815 0.081807 -0.01794 0.019027
0.004677 0.00060803 0.00047392 0.0053598 -0.0017052 0.00097085 0.014259 -0.010373
-0.018483 0.019207 -0.25026 0.12725
860000000 -0.1247 0.24677 -0.017778 0.030615 -0.0033529 -0.0097335 -0.0023881 0.00088005
0.004052 0.0047941 -0.0034059 -0.0031027
-0.017678 0.030675 -0.29134 0.28755 0.0076153 0.034069 -6.6098e-05 0.0020644
0.0039847 -8.9445e-05 0.0033101 0.00068659
-0.003446 -0.0097955 0.0076621 0.034066 0.019613 0.31519 -0.00065272 -0.00014972
0.0028403 -0.0014743 0.0014806 0.0043105
-0.002209 0.00062939 0.00014352 0.0019035 -0.00060632 -8.7018e-05 -0.14032 0.24084
-0.018204 0.017903 -0.0064745 -0.0091231
0.0040729 0.0045838 0.0039499 -3.8713e-05 0.0028508 -0.0013589 -0.018249 0.018057
-0.15724 0.13479 -0.027392 0.014977
-0.0037846 -0.0032545 0.0029777 0.00060342 0.0013908 0.004401 -0.0066632 -0.0092741
-0.027317 0.015138 -0.1992 0.17579
920000000 -0.099904 0.26977 0.0049479 0.037915 -0.009241 -0.0042513 -0.0017517 0.0018463
0.00091887 0.0019096 0.0027625 -0.0014623
0.0049832 0.037925 -0.26244 0.30877 0.027805 0.021988 0.001472 0.0011349
0.0070422 -0.00014015 0.0038776 -0.0024188
-0.0092126 -0.0043176 0.02789 0.021898 0.065801 0.31561 0.0018883 1.0814e-05
0.0010506 -0.00025803 0.00085761 -0.00097926
-0.0019061 0.0020031 0.001452 0.00098664 0.0019917 1.7233e-05 -0.11632 0.2576
-0.01144 0.030156 0.0039651 -0.0066725
0.0010046 0.0020313 0.0068784 -3.7626e-05 0.0010127 -0.00011374 -0.011409 0.030333
-0.14801 0.14162 -0.0033152 0.028302
0.0027743 -0.0015745 0.0037503 -0.0028435 0.00097156 -0.0011474 0.0038941 -0.006437
-0.002861 0.027853 -0.21185 0.18951
980000000 -0.052483 0.28957 0.017347 0.030199 -0.0088924 0.0046452 0.0021828 0.0035323
0.0042189 -0.0012996 -0.003428 -0.0022807
0.017399 0.03021 -0.20938 0.34298 0.032751 0.0051217 0.0020541 -6.9344e-05
0.0016119 -0.0057087 -0.00038566 -0.0024061
-0.0088818 0.0047381 0.032833 0.0050018 0.11185 0.30908 0.00056276 -0.0011443
0.00040863 -0.0019837 0.0014794 -0.00016611
0.0022082 0.0033707 0.0019544 -5.6744e-05 0.00053474 -0.0011938 -0.077275 0.26882
0.0072727 0.030219 -0.0093782 -0.0075122
0.0043221 -0.0014682 0.0016882 -0.0057487 0.00040404 -0.0020099 0.0072803 0.030098
-0.11775 0.17195 0.0042745 0.020434
-0.0032726 -0.0024277 -0.00023845 -0.0024359 0.0014533 -0.00017832 -0.0094218 -0.0073126
0.0042931 0.020315 -0.16913 0.23837
1040000000 -0.010448 0.29786 0.033043 0.018494 -0.0011739 0.0069184 0.0024268 0.00059468
0.00030563 -0.0037262 -3.8914e-05 -0.0014421
0.032954 0.018487 -0.17383 0.35585 0.029278 -0.014455 0.0014922 -0.0017269
-0.0023556 -0.0024278 -0.0012707 -0.0024812
-0.0010861 0.0068575 0.02932 -0.014594 0.15761 0.29532 -0.00049333 -0.0016211
-0.0015828 -0.00091589 -0.00044715 -0.0010241
0.0024744 0.00083316 0.0014287 -0.001719 -0.00045989 -0.0015837 -0.050195 0.27861
0.018844 0.018459 -0.0018814 0.0015262
0.00032509 -0.0035578 -0.0023537 -0.00252 -0.0015038 -0.00092197 0.018773 0.018445
-0.084558 0.18017 0.013291 0.019778
0.00016745 -0.00138 -0.0012155 -0.0024271 -0.00040903 -0.0010793 -0.002109 0.0014597
0.013306 0.019513 -0.14984 0.25966
1100000000 0.035197 0.30605 0.035832 -0.0038201 0.0029242 0.0038251 0.0022566 -0.0013712
-0.0020599 -0.003336 -0.0039027 -3.7174e-05
0.035769 -0.0037959 -0.13041 0.37305 0.015238 -0.027394 -3.5387e-05 -0.0017815
-0.0031444 -0.00092195 -0.0034467 -0.00054898
0.0029392 0.0038232 0.015097 -0.027485 0.20353 0.27531 -0.0018682 0.00018703
-0.0017759 0.0003516 -0.0011621 -0.00046402
0.0023783 -0.0013751 3.0587e-05 -0.0017671 -0.0019166 0.00016544 -0.009716 0.28339
0.024239 0.0057731 -0.0026031 -2.5352e-05
-0.0020218 -0.0032779 -0.003257 -0.00087255 -0.0017239 0.00036541 0.02428 0.0058641
-0.06699 0.19435 0.01918 0.0097691
-0.0039972 -3.0781e-05 -0.0035363 -0.00058827 -0.0011316 -0.0004578 -0.0024694 8.3753e-05
0.019355 0.0097791 -0.10407 0.29267
1160000000 0.086455 0.30081 0.023988 -0.020314 0.0028101 -0.00060799 -0.00037076 -0.0023775
-0.0041925 -0.00088288 -0.00095156 0.0041333
0.024065 -0.020247 -0.087076 0.37698 -0.0032432 -0.028837 -0.0016453 -0.0017334
-0.0026996 0.0023095 -0.0013089 0.0019233
0.0028274 -0.00063273 -0.0034287 -0.028862 0.24645 0.24503 -0.00072481 0.0017314
-0.00070405 0.0017798 -0.00099817 0.00021696
-0.00041111 -0.0022922 -0.0016512 -0.0016835 -0.00073414 0.0017292 0.029198 0.28051
0.02116 -0.0095706 -0.0031825 0.0053959
-0.0041818 -0.00078742 -0.0027683 0.0023494 -0.00070042 0.0018709 0.021007 -0.0096944
-0.032895 0.20397 0.018599 0.0018036
-0.0007905 0.003991 -0.0013542 0.0019008 -0.0010051 0.00029413 -0.0031089 0.0056274
0.018645 0.0020046 -0.056435 0.296
1220000000 0.13083 0.28983 0.010896 -0.0297 -0.0015009 -0.00098516 -1.6544e-05 -0.00072697
-0.002766 0.0024169 0.001243 0.0020842
0.010882 -0.029688 -0.042915 0.38898 -0.016332 -0.021136 -0.0024618 0.00040907
-0.0001252 0.0029773 -0.00092193 0.0018592
-0.0015007 -0.00095651 -0.016493 -0.02108 0.28581 0.2066 0.00076677 0.0016862
0.00050329 0.0012314 0.00032 0.00071407
-3.3028e-05 -0.00076874 -0.0024868 0.00035966 0.00076627 0.0016658 0.06874 0.27232
0.01085 -0.016203 0.0023321 0.0015762
-0.002726 0.0024486 -9.0779e-05 0.0030385 0.00050435 0.0012605 0.010827 -0.016223
-0.010955 0.21272 0.015249 -0.011956
0.001123 0.0021502 -0.00091182 0.0018936 0.00029537 0.00069963 0.0023546 0.0014786
0.015131 -0.012063 -0.02691 0.31561
1280000000 0.18036 0.26787 -0.0073567 -0.028343 -0.0018872 0.0022396 -0.00080759 -0.0018402
-0.00084586 0.0031009 0.0024424 0.0011809
-0.0073378 -0.028336 0.0026582 0.38021 -0.02322 -0.0088171 -0.0010713 0.0013467
0.0015028 0.0018444 0.00060702 0.0021372
-0.0018967 0.0022827 -0.023292 -0.008736 0.31698 0.16305 0.0015399 9.3571e-05
0.0011036 0.00037986 0.00043944 0.00041903
-0.00079292 -0.0018259 -0.0010142 0.0013525 0.0015637 6.0289e-05 0.10519 0.25596
0.0019663 -0.018599 2.4057e-06 5.8057e-05
-0.00084841 0.0031318 0.0015273 0.0018661 0.0011105 0.00041632 0.0019394 -0.018663
0.025806 0.21664 0.0041079 -0.014589
0.0024981 0.0011846 0.00058835 0.0020333 0.00039039 0.00035521 2.449e-05 6.0993e-05
0.0040559 -0.014677 0.022193 0.32019
1340000000 0.21722 0.23405 -0.01717 -0.019291 0.00073263 0.0043355 -0.00154 -0.00078153
0.0013411 0.0028051 0.0017459 -0.0013463
-0.01712 -0.019299 0.041833 0.37245 -0.021423 0.0036594 -0.00024599 0.0019496
0.0017818 0.0009486 0.0013103 0.00082467
0.00072909 0.0043365 -0.021432 0.0038002 0.33955 0.115 0.0011314 -0.00085566
0.00071133 -0.0004599 0.00020683 0.00028969
-0.0014534 -0.00081323 -0.00024021 0.0019373 0.0011573 -0.00085915 0.13741 0.23611
-0.0073748 -0.016514 0.0010728 0.00039969
0.001463 0.002777 0.0018433 0.00095706 0.00078949 -0.00039427 -0.0073148 -0.016439
0.054752 0.21199 -0.002351 -0.013641
0.0018267 -0.0013314 0.0012977 0.00089104 0.00024244 0.00030268 0.001084 0.00026527
-0.0023575 -0.01384 0.060356 0.31776
1400000000 0.25002 0.19622 -0.023125 -0.0079774 0.0048917 0.0030971 -0.0019888 0.00044141
0.002383 0.0009166 0.00043474 -0.0013721
-0.023124 -0.0080051 0.07915 0.35966 -0.015005 0.011841 0.0012383 0.0014204
0.0011898 -0.00066221 0.0013007 0.00031873
0.0049603 0.0030645 -0.01498 0.011931 0.35299 0.06094 0.0002391 -0.0016536
1.1409e-05 -0.00039582 0.00043143 0.00016093
-0.00198 0.00045071 0.0012097 0.0014496 0.00027061 -0.0016283 0.16678 0.20797
-0.013255 -0.010456 -0.00090326 -0.00079398
0.0024367 0.00092079 0.0012122 -0.00066426 3.2662e-05 -0.0003409 -0.013363 -0.010328
0.0873 0.20851 -0.0087654 -0.0095247
0.00043171 -0.001366 0.0013008 0.00032385 0.00048458 0.00014232 -0.00097425 -0.00073192
-0.0087048 -0.0095206 0.10687 0.30856
1460000000 0.27273 0.15251 -0.020472 0.0040979 0.0054368 -0.0016557 -0.001687 0.0015128
0.0020639 -0.00049028 -0.00029892 -0.0010838
-0.020442 0.0040937 0.11347 0.33826 -0.0066181 0.014995 0.0017857 0.00026305
0.0010283 -0.0012847 0.0012869 -0.00069296
0.0054585 -0.0017076 -0.0065483 0.015021 0.35903 0.0061795 -0.0012201 -0.0014214
0.00028953 -0.00030901 0.00047682 -0.00042506
-0.0017029 0.0015748 0.0017614 0.00024549 -0.001211 -0.0014617 0.193 0.17944
-0.015146 -0.0041929 -0.001059 0.0018634
0.0020988 -0.00053372 0.00105 -0.0012867 0.0002435 -0.00030374 -0.015128 -0.0041939
0.11577 0.19435 -0.011256 -0.0037346
-0.00032381 -0.0010672 0.0012127 -0.00064604 0.00051901 -0.00051971 -0.00096805 0.0019216
-0.011197 -0.0038479 0.14105 0.28878
1520000000 0.28507 0.11107 -0.015171 0.0098616 0.0032988 -0.0039348 -6.0619e-05 0.0025375
0.0021224 -0.0016667 -0.0011423 -0.00019863
-0.015177 0.0098356 0.1473 0.32365 0.0010335 0.013118 0.001769 -0.00077073
0.0001171 -0.001126 0.00039254 -0.0010586
0.0032689 -0.0039902 0.0011185 0.013115 0.35197 -0.050404 -0.0011633 -0.00045641
0.00063875 -0.00080587 1.3407e-05 -0.00011708
-5.1892e-05 0.002546 0.0017819 -0.00077302 -0.0011958 -0.00044782 0.21637 0.14229
-0.015293 0.0015191 0.0012098 0.0020406
0.0021673 -0.0016615 0.00013924 -0.001128 0.00063654 -0.00079267 -0.015274 0.0015424
0.14289 0.18113 -0.011866 0.00037738
-0.0011894 -0.00024118 0.0003769 -0.001062 4.8783e-05 -8.8306e-05 0.0012576 0.0019811
-0.011877 0.000348 0.17584 0.27033
1580000000 0.2945 0.065123 -0.0086684 0.013265 -0.00080463 -0.0047118 0.0012608 0.0019854
-0.00021971 -0.002088 -0.00041829 0.00049044
-0.0086228 0.013251 0.1749 0.29902 0.0047716 0.008534 0.00058131 -0.0016865
-0.00057543 -0.001203 -0.00027675 -0.00080759
-0.00084411 -0.0047128 0.0048356 0.0084952 0.33129 -0.10807 -0.0017297 0.00073088
-0.00022597 -0.0011177 6.4379e-05 -0.00050534
0.0012967 0.0020256 0.00054091 -0.0017361 -0.001737 0.00073252 0.23075 0.10383
-0.012324 0.0069303 0.0021582 0.00098498
-0.00025459 -0.0020386 -0.0005902 -0.001214 -0.00025368 -0.0011629 -0.012321 0.0069754
0.16696 0.16439 -0.0097608 0.0064808
-0.00048778 0.00049015 -0.00031229 -0.00077824 5.2696e-05 -0.00052695 0.0020639 0.00091985
-0.0097612 0.0065693 0.20989 0.24384
1640000000 0.29685 0.023791 -0.0018791 0.012528 -0.0024812 -0.002513 0.0027205 0.0011819
-0.00058597 -0.0015031 -0.00023115 0.00062096
-0.0018951 0.012534 0.20475 0.27391 0.0057897 0.0038602 -0.0006672 -0.0018157
-0.0010999 -0.00045596 -0.00046426 -0.00074667
-0.0025546 -0.0024825 0.0058416 0.0038455 0.30277 -0.15727 -0.00063267 0.0016202
-0.00095877 -0.0011691 -8.2633e-05 -0.00043878
0.0026868 0.0011494 -0.00063962 -0.0017937 -0.00060657 0.001636 0.24378 0.055689
-0.0082533 0.0088737 0.0023953 -0.00073197
-0.00057653 -0.0014945 -0.0011166 -0.00045792 -0.00097433 -0.0011402 -0.0082584 0.0088922
0.18921 0.14121 -0.0053421 0.0088325
-0.00026518 0.00057785 -0.00049005 -0.00075574 -9.779e-05 -0.00042078 0.0024891 -0.00069931
-0.0054025 0.0088326 0.23639 0.21323
1700000000 0.28978 -0.021651 0.0017454 0.0099116 -0.0033269 6.3685e-05 0.0031547 -0.0011266
-0.0020122 -0.00080024 0.00068135 0.00046502
0.0017638 0.009906 0.22303 0.24208 0.0039702 0.00094187 -0.0015434 -0.00065632
-0.00083188 0.00011985 -0.00094168 -0.00044488
-0.0032954 9.8882e-05 0.0039692 0.0009438 0.25906 -0.19692 0.00061185 0.0016733
-0.0019414 -0.00027667 -0.00044515 -0.00076234
0.0031201 -0.0011349 -0.0015667 -0.00067871 0.00059367 0.0016645 0.24168 0.0064614
-0.0051198 0.010157 0.0014816 -0.0021387
-0.0020069 -0.00075869 -0.0008844 0.00010995 -0.0019519 -0.00029698 -0.0051085 0.010172
0.20675 0.12192 -0.00071572 0.009591
0.00067913 0.000512 -0.00095279 -0.00041896 -0.00042409 -0.00078436 0.0014208 -0.0020826
-0.00076729 0.0095977 0.25408 0.17883
1760000000 0.27764 -0.070427 0.0043571 0.006698 -0.0021339 0.0008665 0.0014223 -0.0034075
-0.0013833 0.00059606 0.00045891 -0.00064556
0.0043293 0.006711 0.24899 0.20189 0.001842 -0.00086724 -0.0012617 0.00019252
-0.00098598 0.0010429 -0.00053555 0.00042263
-0.002176 0.00087672 0.0018318 -0.00087113 0.20998 -0.22953 0.0013166 0.00095866
-0.0013028 0.0014389 -0.0012171 -0.0005504
0.0013831 -0.0034104 -0.0012435 0.00020642 0.0012447 0.00099311 0.23374 -0.044828
-0.0010876 0.0095162 -0.00020192 -0.0024529
-0.0014434 0.00058991 -0.00098153 0.0010166 -0.001361 0.0014336 -0.0010922 0.0095238
0.22184 0.087805 0.0034064 0.0073555
0.00046351 -0.00066448 -0.00055565 0.00040229 -0.0011943 -0.00052349 -0.00018962 -0.0024011
0.0033851 0.0073297 0.26745 0.14131
1820000000 0.25297 -0.10786 0.0047881 0.0030192 -7.061e-05 0.0022629 -0.0009307 -0.003118
-0.0012038 0.00090132 -7.1654e-05 -0.00015593
0.0047921 0.00298 0.25885 0.17151 -5.0286e-05 1.2631e-05 -0.0013198 0.0010137
7.1135e-05 0.0013343 -0.00054915 0.00051312
-3.7606e-05 0.0023131 -2.1601e-05 -8.9355e-07 0.16028 -0.24493 0.0014247 0.00023643
-0.00032818 0.0024734 -0.0012684 0.00022189
-0.00089818 -0.0030736 -0.0013548 0.0010334 0.0014585 0.00024629 0.20469 -0.092277
0.00091981 0.0076129 -0.0015537 -0.001488
-0.0011663 0.00090174 6.8279e-05 0.0013154 -0.00030478 0.0024227 0.00083309 0.0075404
0.23944 0.059492 0.0044941 0.0040705
-5.1445e-05 -0.00023051 -0.00052312 0.00053564 -0.0012609 0.0001517 -0.0016459 -0.001492
0.0045095 0.0040641 0.27078 0.10601
1880000000 0.21777 -0.14844 0.002731 0.00048792 -0.00040385 0.0019104 -0.0029183 -0.0024112
-0.00022368 0.0018035 0.00017882 -0.00058726
0.0027361 0.00047725 0.26295 0.1248 -0.0020583 0.0016428 -0.0001543 0.0017527
0.00066241 0.0011798 0.00010774 0.00088151
-0.00046461 0.0020214 -0.0020455 0.0016629 0.10801 -0.25447 0.0016472 -0.00086706
0.0015612 0.0021808 -0.0010965 0.0013477
-0.0028925 -0.0023557 -0.00011942 0.0017593 0.0016504 -0.00087692 0.16525 -0.13331
0.0018586 0.0051742 -0.0022483 0.00046937
-0.00025455 0.0018227 0.00066599 0.0011731 0.0015714 0.0021461 0.0018367 0.0051422
0.24288 0.027417 0.0049491 0.0021203
0.00019083 -0.00063447 0.00011976 0.00091336 -0.0010931 0.0012983 -0.0021601 0.00053919
0.0049319 0.0020781 0.27121 0.071829
1940000000 0.17809 -0.1739 0.00047702 -0.0013951 0.0012059 0.00195 -0.0037068 0.00030562
0.0014016 0.0011339 -0.00076875 -0.0005188
0.0004536 -0.0014177 0.26316 0.092995 -0.0010123 0.0037773 0.0010841 0.0013063
0.0017942 0.0003803 0.00073836 0.0002383
0.0012369 0.0019829 -0.0010153 0.0037872 0.062154 -0.24752 0.00048426 -0.00196
0.0025107 0.00043499 0.00017518 0.0015776
-0.0037172 0.00040968 0.0010882 0.0013358 0.00038266 -0.0017808 0.11308 -0.16486
0.00078892 0.0034183 -0.0013112 0.0015789
0.0013897 0.0010603 0.0018442 0.00037087 0.0024895 0.00053205 0.00081081 0.00336
0.24518 -0.011446 0.0039721 -0.0015069
-0.00082812 -0.00056816 0.00069753 0.0002478 0.00024962 0.0016835 -0.001329 0.0014378
0.0039705 -0.0014946 0.26135 0.036654
2000000000 0.13159 -0.18865 -0.0035049 0.00042054 0.0023488 0.0016802 -0.0024599 0.0033795
0.0011233 0.00013818 -0.00065957 0.00038385
-0.0034388 0.0003886 0.2486 0.05757 -0.00086451 0.0056262 0.001675 0.00028145
0.0012374 -0.0014122 0.00046461 0.00015314
0.0023517 0.0016397 -0.00087477 0.0056052 0.018802 -0.23293 -0.0011972 -0.0012904
0.0020173 -0.0013425 0.0016383 0.0013471
-0.0025109 0.003362 0.0016616 0.00026751 -0.0011496 -0.0013048 0.059544 -0.17559
-0.0012207 0.0031647 0.00012258 0.0022174
0.0011548 8.5236e-05 0.0012478 -0.0014635 0.002048 -0.0013046 -0.0011015 0.0032258
0.23924 -0.045312 0.00082739 -0.0024202
