!Keysight Technologies,M9804A,MY58100912,A.14.10.03
!Date: Thursday, April 27, 2023 10:28:33
!Correction: S11(C  6-Port  ) 
!S12(C  6-Port  ) 
!S13(C  6-Port  ) 
!S14(C  6-Port  ) 
!S15(C  6-Port  ) 
!S16(C  6-Port  ) 
!S21(C  6-Port  ) 
!S22(C  6-Port  ) 
!S23(C  6-Port  ) 
!S24(C  6-Port  ) 
!S25(C  6-Port  ) 
!S26(C  6-Port  ) 
!S31(C  6-Port  ) 
!S32(C  6-Port  ) 
!S33(C  6-Port  ) 
!S34(C  6-Port  ) 
!S35(C  6-Port  ) 
!S36(C  6-Port  ) 
!S41(C  6-Port  ) 
!S42(C  6-Port  ) 
!S43(C  6-Port  ) 
!S44(C  6-Port  ) 
!S45(C  6-Port  ) 
!S46(C  6-Port  ) 
!S51(C  6-Port  ) 
!S52(C  6-Port  ) 
!S53(C  6-Port  ) 
!S54(C  6-Port  ) 
!S55(C  6-Port  ) 
!S56(C  6-Port  ) 
!S61(C  6-Port  ) 
!S62(C  6-Port  ) 
!S63(C  6-Port  ) 
!S64(C  6-Port  ) 
!S65(C  6-Port  ) 
!S66(C  6-Port  ) 
!S6P File: Measurement: :
# Hz S  RI   R 50
500000000 -0.33688 -0.041576 -0.0094711 -0.0025363 -0.008185 0.012316 -0.0043358 0.012289
0.012696 0.0046321 -0.0047505 0.0089534
-0.0094603 -0.0025516 -0.41876 -0.05373 0.0080489 -0.010663 0.0016202 0.012295
0.0078343 0.0021411 0.0015741 0.013346
-0.0081438 0.012284 0.007994 -0.010695 -0.26507 0.20793 0.0077293 0.0035905
-0.0021181 0.0076623 0.00124 0.012061
-0.0043091 0.012385 0.0016304 0.012262 0.0077234 0.0035894 -0.33197 0.039223
-0.019079 -0.0061279 0.016677 0.026481
0.012709 0.0045855 0.0079684 0.0021432 -0.002169 0.0076749 -0.019027 -0.0060893
-0.21759 -0.20561 -0.025613 0.0055453
-0.0048106 0.0090797 0.0016199 0.013322 0.0012244 0.012042 0.016736 0.026485
-0.025688 0.005538 -0.25897 -0.15285
560000000 -0.31674 0.11999 -0.0234 -0.063072 -0.00044365 0.011837 0.005703 0.010881
0.010624 0.0050071 0.011087 0.0077456
-0.023411 -0.062977 -0.37712 0.1062 -0.0411 -0.037792 0.013991 0.0037139
-0.012951 -0.0056661 0.0025641 -0.00017649
-0.00045739 0.011751 -0.041284 -0.037599 -0.18312 0.25598 -0.00075768 -0.0042592
0.019818 0.0054585 0.0067916 -0.0058254
0.0055693 0.010715 0.013867 0.0038059 -0.00077962 -0.0042652 -0.30738 0.12984
0.0043786 -0.023921 0.0049473 -0.022222
0.010535 0.0049941 -0.012969 -0.0054747 0.019939 0.0054357 0.0042697 -0.023918
-0.28758 -0.0293 0.0097512 -0.04942
0.01114 0.007696 0.0026195 -0.00021023 0.0067831 -0.0058125 0.0049397 -0.02215
0.0098026 -0.049402 -0.32897 -0.00015889
620000000 -0.2762 0.10411 -0.023394 0.0077785 0.002912 0.0083742 0.0083211 -0.0053092
0.010593 -0.00024243 0.0013781 -0.0026831
-0.023394 0.007768 -0.40269 0.057817 -0.018634 3.3109e-05 -0.0014128 -0.0021457
0.011534 -0.0061232 0.0017318 -0.0029751
0.0029866 0.0083759 -0.018683 9.8099e-05 -0.15415 0.26571 -0.001658 -0.0051398
-0.0024346 -0.0024321 0.0080356 -0.003188
0.0082835 -0.0054099 -0.0014163 -0.0021446 -0.0016628 -0.0051479 -0.26748 0.14101
-0.038152 -0.019277 0.012498 0.026688
0.010724 -0.00011895 0.011531 -0.006187 -0.0024489 -0.0025432 -0.038127 -0.019287
-0.20536 -0.068835 -0.042615 0.014508
0.0014238 -0.0025209 0.0017485 -0.0030373 0.0080719 -0.0031647 0.012518 0.026717
-0.042581 0.014466 -0.24786 -0.040029
680000000 -0.23571 0.19035 -0.027335 -0.0147 0.004732 0.0051548 0.0016594 -0.0070415
-0.0034518 -0.011147 0.0055002 -0.0068066
-0.02731 -0.014703 -0.38817 0.15604 -0.032685 -0.0015868 -0.0016547 -0.00039252
-0.0022388 -0.0088845 -0.001222 -0.0017548
0.0047233 0.0051507 -0.032722 -0.0014946 -0.10298 0.28552 -0.00077091 -0.00023641
-0.0017828 0.00065163 -0.0026533 -0.0095088
0.0016507 -0.0070338 -0.0016586 -0.00039077 -0.00077121 -0.00022835 -0.22227 0.1928
-0.02336 -0.007583 -0.009616 -0.012656
-0.003458 -0.011102 -0.0022439 -0.0088967 -0.0017601 0.00064898 -0.023346 -0.007576
-0.25942 0.031172 -0.0055077 -0.0088542
0.0054811 -0.0068672 -0.0012477 -0.0017945 -0.0026622 -0.0095111 -0.0095819 -0.01264
-0.005512 -0.0088398 -0.26246 0.070887
740000000 -0.1914 0.18511 -0.039095 0.02686 0.012421 -0.0050523 -8.1266e-05 -0.0043324
-0.0038158 -0.0025985 -0.0060568 0.0025119
-0.039054 0.02683 -0.33531 0.17525 -0.0357 0.034993 -0.00096167 -0.0063253
-0.010997 0.0078072 -0.0024887 -0.007089
0.012387 -0.0050589 -0.035647 0.035145 -0.069112 0.28389 -0.0020879 0.0029674
-0.001964 -0.0047292 -0.0013698 -0.00051532
-4.4761e-05 -0.0043371 -0.00096118 -0.006322 -0.0020823 0.0029618 -0.20554 0.20096
-0.043866 -0.0077228 0.023487 0.015777
-0.003752 -0.0025719 -0.010998 0.0078043 -0.0019667 -0.0046746 -0.043879 -0.007671
-0.15842 0.059116 -0.04515 -0.00072708
-0.0060451 0.0026241 -0.0025062 -0.0070861 -0.0013549 -0.00047095 0.023497 0.01579
-0.045116 -0.00069827 -0.25321 0.075196
800000000 -0.15888 0.22614 -0.022694 0.016685 0.0052562 -0.010521 -0.0047268 -0.0023067
-0.0039606 0.0021299 0.0049916 5.0322e-05
-0.022708 0.01668 -0.33893 0.2455 -0.008051 0.03396 -0.0023421 0.0021567
-0.00056871 0.0026945 0.00095895 0.0051981
0.005217 -0.010533 -0.0079624 0.034026 -0.028529 0.30728 0.00093148 0.0014939
0.0002818 0.0033977 -0.001729 0.00058793
-0.0047176 -0.0022614 -0.0023284 0.0021696 0.00092329 0.0014982 -0.17684 0.22922
-0.028679 0.013479 0.014255 -0.01069
-0.0039597 0.0021827 -0.0005333 0.0027058 0.00028593 0.0034195 -0.028673 0.013531
-0.20822 0.082417 -0.018176 0.019316
0.005028 1.9928e-05 0.00099521 0.0051927 -0.0017235 0.00057747 0.014246 -0.010703
-0.018205 0.019317 -0.25048 0.1269
860000000 -0.12443 0.24651 -0.017704 0.03057 -0.0033057 -0.0097915 -0.0023909 0.00083473
0.0038418 0.0046773 -0.0034574 -0.0031655
-0.01773 0.030558 -0.2913 0.28752 0.0076034 0.034119 -0.00010581 0.0019738
0.0038694 -4.5707e-05 0.0032051 0.00074882
-0.0033424 -0.0097887 0.0077092 0.034124 0.019615 0.31513 -0.00055606 -0.00021826
0.0028115 -0.001466 0.0013196 0.0043228
-0.0023945 0.00085288 -7.5205e-05 0.0019458 -0.00056204 -0.00022125 -0.14017 0.24026
-0.018364 0.018084 -0.0063493 -0.0090983
0.0038793 0.0047018 0.0038687 -5.1546e-05 0.002831 -0.0014786 -0.018328 0.018118
-0.1576 0.13553 -0.027265 0.015069
-0.0034334 -0.0031403 0.0031751 0.00077241 0.0013103 0.0043203 -0.006345 -0.009098
-0.027218 0.015075 -0.19885 0.17599
920000000 -0.10004 0.26988 0.00487 0.037967 -0.0092709 -0.004283 -0.0018822 0.001861
0.00096868 0.001891 0.0025583 -0.0015587
0.0048565 0.037951 -0.26252 0.3089 0.027774 0.02207 0.0014245 0.0011515
0.0071271 -0.00027035 0.0039334 -0.0027388
-0.0093083 -0.0042567 0.027884 0.021972 0.065763 0.31562 0.0018504 5.7027e-05
0.0010909 -0.00025072 0.0008624 -0.0010426
-0.0018714 0.0018597 0.0014155 0.0011342 0.0018556 6.8213e-05 -0.11614 0.2571
-0.011318 0.030557 0.004072 -0.006607
0.00099705 0.001855 0.007153 -0.00034584 0.0010872 -0.00025058 -0.01125 0.030584
-0.14774 0.14154 -0.0030145 0.028053
0.0026216 -0.001523 0.0038566 -0.0026883 0.00085112 -0.0010599 0.0040691 -0.0066357
-0.0030389 0.028046 -0.21176 0.1899
980000000 -0.052411 0.28948 0.017378 0.030162 -0.0088566 0.0046392 0.0021167 0.0035272
0.0040537 -0.0013401 -0.0033828 -0.002294
0.017335 0.03016 -0.20942 0.34291 0.032785 0.0050903 0.0019807 -1.8698e-06
0.0015617 -0.0058006 -0.00032958 -0.0024184
-0.0088513 0.0046623 0.032839 0.0049984 0.11185 0.30904 0.00052098 -0.0011341
0.00040552 -0.0020016 0.0015012 -0.00019633
0.0021144 0.0035257 0.0020048 -2.2393e-05 0.00052076 -0.0011296 -0.077459 0.26829
0.0072809 0.030324 -0.0093756 -0.0074993
0.0040264 -0.0013885 0.0015026 -0.0057921 0.00039777 -0.002002 0.0073431 0.030309
-0.11717 0.172 0.0044712 0.020343
-0.0033776 -0.0022927 -0.00035194 -0.0024344 0.0014961 -0.00020647 -0.0093577 -0.0074858
0.0044608 0.020323 -0.16887 0.23822
1040000000 -0.010375 0.29801 0.033012 0.018514 -0.0011479 0.0068939 0.0025235 0.00065361
0.00014893 -0.0036506 -0.00011698 -0.001416
0.032971 0.018533 -0.17388 0.35586 0.029272 -0.01449 0.0014414 -0.0016761
-0.0024698 -0.00249 -0.0011439 -0.0025229
-0.001134 0.0068866 0.029281 -0.014591 0.15759 0.2953 -0.00047694 -0.0015653
-0.0015479 -0.00086424 -0.0003826 -0.0010797
0.0025229 0.00065156 0.0014666 -0.0016756 -0.0004887 -0.0015652 -0.050399 0.27834
0.018947 0.018634 -0.0019952 0.0014607
0.00012309 -0.0036634 -0.0024351 -0.0024746 -0.0015438 -0.00085609 0.018994 0.018602
-0.084519 0.18017 0.013225 0.019784
-0.00011866 -0.0013851 -0.0011805 -0.0025239 -0.00036541 -0.0010676 -0.0019949 0.0014977
0.013188 0.019818 -0.14957 0.25982
1100000000 0.035064 0.30595 0.035731 -0.0038361 0.0029182 0.0038286 0.0023359 -0.0013177
-0.0019842 -0.003217 -0.0038427 -2.2781e-05
0.035696 -0.0038034 -0.13042 0.37305 0.015213 -0.027413 5.4721e-06 -0.001753
-0.003174 -0.00084372 -0.0034105 -0.00058294
0.0029231 0.0037987 0.015119 -0.027504 0.20354 0.27529 -0.0018701 0.00021411
-0.001729 0.00041364 -0.0011132 -0.00043746
0.0023291 -0.0013242 5.441e-06 -0.0017721 -0.0018692 0.00021016 -0.010228 0.28326
0.024442 0.0058167 -0.0025276 -3.5665e-05
-0.002001 -0.0032174 -0.0031911 -0.00082482 -0.0017188 0.00042477 0.024457 0.0057794
-0.066749 0.19429 0.019171 0.0097292
-0.0038567 3.6056e-05 -0.00346 -0.00054069 -0.0011158 -0.00043194 -0.0025491 -3.745e-05
0.019173 0.0097289 -0.10394 0.29284
1160000000 0.08646 0.30084 0.024054 -0.020273 0.0027838 -0.00057464 -0.00036134 -0.0023935
-0.0041078 -0.00085045 -0.00093455 0.0041058
0.024041 -0.020228 -0.087098 0.37689 -0.0032933 -0.028861 -0.0016274 -0.0016714
-0.0027457 0.0022945 -0.0013337 0.0018636
0.0027911 -0.00060481 -0.0034 -0.028877 0.24647 0.24499 -0.00068249 0.0017228
-0.00069712 0.0018786 -0.00096264 0.00019514
-0.00037361 -0.0023874 -0.0016224 -0.0016767 -0.00068389 0.0017205 0.028773 0.28053
0.021426 -0.0095987 -0.0031148 0.00535
-0.0041281 -0.00084222 -0.0027031 0.0023186 -0.00067493 0.0018822 0.021411 -0.009638
-0.032566 0.20381 0.01858 0.0015991
-0.00089662 0.0041459 -0.0013184 0.0018879 -0.00096059 0.00018554 -0.0031321 0.0053649
0.018568 0.0016102 -0.056541 0.29627
1220000000 0.13071 0.28982 0.010811 -0.02964 -0.0015078 -0.00095117 1.9515e-06 -0.0007835
-0.0026989 0.0024191 0.0012348 0.0020386
0.010815 -0.029595 -0.043002 0.389 -0.016394 -0.021126 -0.0024937 0.00038539
-0.00010492 0.0029314 -0.00086919 0.0018544
-0.0015131 -0.00095088 -0.016502 -0.021084 0.28582 0.20658 0.00075113 0.001614
0.00053695 0.0012241 0.000299 0.00068181
6.9429e-07 -0.00077551 -0.0024893 0.0003926 0.00075313 0.0016219 0.068313 0.27239
0.011033 -0.016446 0.0023483 0.0014534
-0.0026749 0.0024062 -6.9135e-05 0.0029497 0.00053528 0.0012309 0.011018 -0.016465
-0.010786 0.21263 0.015067 -0.011966
0.0012674 0.0020363 -0.00085774 0.0018727 0.00028422 0.0006765 0.0023435 0.0014523
0.015073 -0.011965 -0.026445 0.31586
1280000000 0.18031 0.26782 -0.0073133 -0.02833 -0.0018898 0.0022406 -0.00080659 -0.0019005
-0.00082839 0.003041 0.0024033 0.0012209
-0.0072819 -0.028309 0.0025693 0.38014 -0.023248 -0.0088089 -0.0010189 0.0013603
0.0015253 0.0018696 0.00057866 0.0021087
-0.0018818 0.0022597 -0.023325 -0.0087069 0.31694 0.16295 0.0015695 4.6734e-05
0.0010998 0.0003804 0.00044805 0.00037008
-0.00081056 -0.0018811 -0.0010082 0.0013731 0.0015675 4.8423e-05 0.10494 0.25633
0.0020886 -0.01885 -3.0714e-05 1.8721e-05
-0.00079289 0.0030368 0.0015474 0.001859 0.001119 0.000386 0.0020433 -0.018858
0.025942 0.21644 0.0040679 -0.014668
0.0024189 0.0011999 0.00059389 0.0021176 0.00045815 0.00036178 -3.7749e-05 1.8814e-05
0.0040906 -0.014665 0.022458 0.32007
1340000000 0.21715 0.23419 -0.017016 -0.019244 0.00075654 0.0043572 -0.0015494 -0.00082449
0.0014171 0.0027634 0.0017865 -0.0012986
-0.016989 -0.019242 0.041795 0.37242 -0.021437 0.0037189 -0.0002143 0.0019616
0.0018268 0.00097449 0.0013286 0.00084674
0.00077272 0.0043561 -0.021444 0.0038158 0.33948 0.11496 0.0011402 -0.00086357
0.00076537 -0.00042276 0.00025729 0.00031821
-0.0015575 -0.0008141 -0.00020733 0.0019658 0.0011488 -0.00085905 0.13722 0.23664
-0.0073659 -0.016719 0.0010224 0.00036104
0.0014224 0.0027526 0.0018215 0.00095212 0.00076184 -0.00043481 -0.0074169 -0.016702
0.054823 0.21193 -0.0023421 -0.01368
0.0017791 -0.0013079 0.0013316 0.00084355 0.00025407 0.00032089 0.001028 0.00036411
-0.0023253 -0.013662 0.060587 0.31788
1400000000 0.24996 0.19627 -0.023027 -0.0080295 0.0049216 0.0030846 -0.0020098 0.00046124
0.0023359 0.0008649 0.00044461 -0.0013127
-0.022996 -0.0080355 0.079095 0.35969 -0.014993 0.011895 0.0012377 0.0013871
0.0011882 -0.00067505 0.0013035 0.00034596
0.0049294 0.0030584 -0.014948 0.011976 0.35298 0.060898 0.00021745 -0.0016039
-2.2142e-07 -0.00041202 0.00044869 0.00019477
-0.0020095 0.00045928 0.0012493 0.0013784 0.00022083 -0.0016059 0.16677 0.20839
-0.013407 -0.010568 -0.00097851 -0.00078193
0.0023471 0.00086523 0.0011855 -0.00068499 -1.1999e-06 -0.00041556 -0.013456 -0.010538
0.087266 0.20835 -0.0088439 -0.0096235
0.00042862 -0.0013144 0.001295 0.00031383 0.00044824 0.00019513 -0.00098785 -0.00077043
-0.0088251 -0.0096224 0.10701 0.30836
1460000000 0.27271 0.15257 -0.020406 0.0040197 0.0054252 -0.0016988 -0.0016717 0.0015876
0.0020755 -0.00045723 -0.00027884 -0.001012
-0.020392 0.0039993 0.11344 0.33823 -0.006595 0.014978 0.001769 0.00026406
0.0010411 -0.0012884 0.0012474 -0.00063133
0.0054085 -0.0017141 -0.0065165 0.015029 0.35898 0.0061957 -0.0012102 -0.0013392
0.00021202 -0.00030528 0.00047662 -0.00042435
-0.0016646 0.0015876 0.0017606 0.00025977 -0.0012133 -0.0013519 0.19322 0.17987
-0.015273 -0.0042509 -0.0011174 0.0018581
0.0020594 -0.00048147 0.0010307 -0.0012917 0.00019809 -0.00031251 -0.015289 -0.0042111
0.11559 0.19417 -0.011271 -0.0037175
-0.00026808 -0.0010048 0.0012511 -0.00065684 0.00048677 -0.00042141 -0.0011161 0.0018581
-0.011274 -0.0037262 0.14132 0.28859
1520000000 0.28498 0.11118 -0.015155 0.0097248 0.0032611 -0.0039808 -2.7972e-05 0.0025869
0.0021436 -0.0016198 -0.0011053 -0.00024275
-0.01515 0.0097015 0.14729 0.32365 0.001068 0.013092 0.0017439 -0.00074197
0.0001109 -0.0011234 0.00038808 -0.0010332
0.0032621 -0.0039988 0.0011532 0.013088 0.35203 -0.050396 -0.0011398 -0.00044473
0.00064608 -0.00079155 2.804e-05 -8.8384e-05
-2.1627e-05 0.0025795 0.0017399 -0.00075133 -0.0011449 -0.00044329 0.21679 0.14266
-0.015413 0.0014735 0.001197 0.0021351
0.0021415 -0.0016266 0.00010348 -0.0011342 0.00064686 -0.0007944 -0.015421 0.001522
0.14272 0.18114 -0.011839 0.00044586
-0.0011055 -0.00022675 0.00037305 -0.001028 2.2797e-05 -9.2255e-05 0.001203 0.0021272
-0.011842 0.00043112 0.17607 0.27015
1580000000 0.29455 0.065196 -0.0087157 0.01314 -0.00084645 -0.0047269 0.0013144 0.0019804
-0.00018946 -0.0020475 -0.00040534 0.00043077
-0.0087157 0.013132 0.17484 0.29895 0.0048042 0.0084849 0.0005505 -0.001631
-0.00061778 -0.0011721 -0.00026962 -0.00080051
-0.00085484 -0.004725 0.0048511 0.0084641 0.33129 -0.10809 -0.0016945 0.00069365
-0.00020766 -0.0011164 3.1012e-05 -0.00050699
0.0013191 0.0019695 0.00054749 -0.0016366 -0.0016994 0.00068897 0.23129 0.10394
-0.012469 0.0068959 0.0021488 0.0010466
-0.00021078 -0.0020435 -0.00063556 -0.0011599 -0.00020745 -0.0011244 -0.012446 0.0069402
0.16686 0.16448 -0.009746 0.0065624
-0.00040831 0.00043648 -0.0002785 -0.00079532 3.8336e-05 -0.00051198 0.0021642 0.001037
-0.0097468 0.0065606 0.21005 0.24363
1640000000 0.29693 0.023898 -0.0019995 0.012494 -0.002532 -0.0024995 0.0027261 0.001117
-0.00051727 -0.0015564 -0.0002559 0.00056644
-0.0020053 0.012479 0.20464 0.27388 0.0057927 0.0038216 -0.00063647 -0.0017944
-0.0011001 -0.00042353 -0.00045178 -0.00073405
-0.0025515 -0.0024713 0.0058147 0.0037906 0.30275 -0.15719 -0.00063294 0.0015616
-0.00096818 -0.0011104 -8.007e-05 -0.00044634
0.002729 0.0011132 -0.00063071 -0.0018011 -0.00063286 0.0015586 0.24435 0.055609
-0.0084006 0.0088947 0.0024624 -0.00064628
-0.00052545 -0.0015448 -0.0011113 -0.00041096 -0.00097547 -0.0011111 -0.0083731 0.0089249
0.18915 0.14126 -0.0053317 0.0088671
-0.0002527 0.00057083 -0.00045849 -0.0007329 -6.9968e-05 -0.00045315 0.0024711 -0.00064568
-0.0053218 0.0088656 0.23645 0.21305
1700000000 0.28993 -0.021574 0.0016579 0.0099449 -0.0032689 7.8465e-05 0.0031268 -0.0011186
-0.0020028 -0.00084149 0.00068759 0.00047195
0.0016321 0.0099424 0.22298 0.24209 0.0039356 0.00096951 -0.0015013 -0.00066572
-0.00081773 0.00013035 -0.0009116 -0.00047218
-0.0032845 0.00010257 0.00394 0.00094391 0.259 -0.19689 0.00053866 0.0016163
-0.0019131 -0.00031197 -0.00043067 -0.0007608
0.0031213 -0.0011396 -0.0014976 -0.00065571 0.00054126 0.0016202 0.24213 0.0061136
-0.0052891 0.010183 0.0015611 -0.0021166
-0.002001 -0.0008311 -0.00081955 0.00013436 -0.0019235 -0.00031501 -0.005265 0.010194
0.20669 0.12196 -0.00069674 0.0095935
0.00069264 0.00046962 -0.00093162 -0.00046897 -0.00045203 -0.00077199 0.001556 -0.0021184
-0.00069918 0.0095942 0.25424 0.17868
1760000000 0.27774 -0.070353 0.0043063 0.0067904 -0.0021248 0.0008654 0.001372 -0.0034351
-0.0013979 0.00055562 0.00048077 -0.00059292
0.0042858 0.0067831 0.24892 0.20193 0.0018294 -0.00086801 -0.0012309 0.00016635
-0.00095031 0.0010018 -0.00055291 0.00040117
-0.0021287 0.00086284 0.0018148 -0.00087987 0.20995 -0.22955 0.0012596 0.00099562
-0.0012746 0.0013854 -0.0011929 -0.00054887
0.0013495 -0.0034462 -0.0012337 0.00016684 0.0012579 0.00099213 0.23402 -0.045323
-0.0012762 0.0096714 -0.00015606 -0.0024664
-0.0013949 0.00056228 -0.00093838 0.0010064 -0.0012824 0.0013706 -0.0012513 0.0096774
0.2217 0.087928 0.0033972 0.0073192
0.00047209 -0.00061294 -0.00054768 0.00040846 -0.0011812 -0.00054282 -0.00017001 -0.0024646
0.0033978 0.0073106 0.26754 0.14118
1820000000 0.25308 -0.10789 0.0048291 0.0030932 -1.7975e-05 0.0023055 -0.00096211 -0.0031183
-0.0012675 0.00084757 -2.8874e-05 -0.00016063
0.004823 0.0030938 0.25882 0.17156 -5.2543e-05 3.3352e-05 -0.0013722 0.00095747
0.00010406 0.0012717 -0.00056017 0.00050994
1.8931e-05 0.0022854 -2.9107e-05 2.8618e-05 0.16008 -0.24505 0.0014048 0.00030447
-0.00031025 0.0024128 -0.0013388 0.00022842
-0.00097441 -0.0031181 -0.0013685 0.0009781 0.0013857 0.00029363 0.20499 -0.092907
0.00077813 0.0078544 -0.001484 -0.0015461
-0.0012544 0.000858 0.00011317 0.0012816 -0.00029659 0.0024107 0.0007974 0.0078564
0.23934 0.059591 0.004513 0.004046
-3.1481e-05 -0.00015849 -0.0005575 0.00052022 -0.0013484 0.00022829 -0.0014927 -0.0015532
0.0045224 0.0040462 0.27089 0.10582
1880000000 0.21781 -0.1484 0.0027622 0.00051705 -0.00046679 0.0019223 -0.0029166 -0.0023314
-0.00031335 0.00182 0.00018597 -0.00056622
0.0027572 0.000529 0.26297 0.12478 -0.0020516 0.001596 -0.00019898 0.0017108
0.00059688 0.0011028 5.8862e-05 0.00092227
-0.00045311 0.0019214 -0.0020584 0.0016237 0.10802 -0.25455 0.0016668 -0.00085546
0.0014915 0.0021191 -0.0010851 0.0013074
-0.0029331 -0.0023114 -0.00019244 0.0017231 0.0016696 -0.00084672 0.16504 -0.13392
0.0018297 0.0055189 -0.0022801 0.00038599
-0.00029115 0.0018161 0.00061571 0.001107 0.0014944 0.0021113 0.0018448 0.0055158
0.24279 0.027685 0.004978 0.0020638
0.00016715 -0.00057049 7.8208e-05 0.0009236 -0.0010873 0.0013086 -0.0022815 0.00038788
0.0049842 0.0020664 0.27132 0.071519
1940000000 0.17805 -0.17393 0.00052474 -0.0014023 0.0011993 0.0019218 -0.0037165 0.00044921
0.0013454 0.0011633 -0.0007617 -0.00051403
0.00052907 -0.0013943 0.26316 0.092956 -0.0010105 0.003782 0.0010337 0.0013795
0.001725 0.00035301 0.00074914 0.00028578
0.0012154 0.0019087 -0.00099082 0.0037681 0.06217 -0.2476 0.00042476 -0.0019855
0.0024633 0.00046344 0.00023883 0.0016231
-0.0037013 0.00047268 0.0010446 0.0013812 0.00041988 -0.0019736 0.11269 -0.16537
0.00098048 0.0037455 -0.0013283 0.0014715
0.0013613 0.0011636 0.0017304 0.00033825 0.0024518 0.00045061 0.00099045 0.0037447
0.24528 -0.011083 0.0039733 -0.0015734
-0.00076402 -0.00050858 0.00075064 0.00026921 0.00024466 0.001624 -0.001329 0.0014902
0.0039665 -0.0015595 0.26128 0.036417
2000000000 0.13156 -0.18856 -0.0034874 0.00041893 0.002239 0.001707 -0.0024705 0.0034135
0.0012135 0.0001801 -0.00068103 0.00042032
-0.0034829 0.00041266 0.24858 0.057518 -0.00094454 0.0055642 0.0016514 0.00039023
0.001187 -0.001326 0.00048284 0.00019805
0.0022838 0.0016829 -0.00089972 0.0055768 0.018824 -0.23296 -0.0011643 -0.0013036
0.0020055 -0.0012024 0.0016044 0.0013422
-0.0024401 0.0034141 0.0016634 0.00038635 -0.0011552 -0.0013064 0.05867 -0.17594
-0.00078506 0.0033449 1.9992e-05 0.0021593
0.0012224 0.00017903 0.0011737 -0.0013295 0.0019921 -0.0012104 -0.00077951 0.0033461
0.23965 -0.044997 0.00084298 -0.0024772
