!Keysight Technologies,M9804A,MY58100912,A.14.10.03
!Date: Thursday, April 27, 2023 10:28:33
!Correction: S11(C  6-Port  ) 
!S12(C  6-Port  ) 
!S13(C  6-Port  ) 
!S14(C  6-Port  ) 
!S15(C  6-Port  ) 
!S16(C  6-Port  ) 
!S21(C  6-Port  ) 
!S22(C  6-Port  ) 
!S23(C  6-Port  ) 
!S24(C  6-Port  ) 
!S25(C  6-Port  ) 
!S26(C  6-Port  ) 
!S31(C  6-Port  ) 
!S32(C  6-Port  ) 
!S33(C  6-Port  ) 
!S34(C  6-Port  ) 
!S35(C  6-Port  ) 
!S36(C  6-Port  ) 
!S41(C  6-Port  ) 
!S42(C  6-Port  ) 
!S43(C  6-Port  ) 
!S44(C  6-Port  ) 
!S45(C  6-Port  ) 
!S46(C  6-Port  ) 
!S51(C  6-Port  ) 
!S52(C  6-Port  ) 
!S53(C  6-Port  ) 
!S54(C  6-Port  ) 
!S55(C  6-Port  ) 
!S56(C  6-Port  ) 
!S61(C  6-Port  ) 
!S62(C  6-Port  ) 
!S63(C  6-Port  ) 
!S64(C  6-Port  ) 
!S65(C  6-Port  ) 
!S66(C  6-Port  ) 
!S6P File: Measurement: :
# Hz S  RI   R 50
500000000 -0.33671 -0.041666 -0.0093932 -0.0027663 -0.008097 0.012294 -0.0043301 0.012377
0.012703 0.0046497 -0.0047893 0.0091425
-0.0095197 -0.0025861 -0.41879 -0.053644 0.0080253 -0.010621 0.0016072 0.012307
0.0079713 0.0020692 0.0015667 0.013388
-0.0082378 0.012325 0.0080247 -0.010558 -0.26507 0.20795 0.0077339 0.0035859
-0.0020467 0.0075925 0.0012056 0.011999
-0.0043555 0.012387 0.0016733 0.012276 0.0077915 0.0035799 -0.33196 0.039276
-0.018997 -0.0061413 0.016682 0.026406
0.012843 0.004644 0.008065 0.0020872 -0.0021312 0.0076883 -0.019044 -0.0061287
-0.21779 -0.20573 -0.025722 0.005647
-0.0048556 0.0090914 0.0017298 0.013345 0.0013171 0.012051 0.016674 0.026444
-0.025561 0.0054805 -0.25898 -0.1528
560000000 -0.31659 0.11989 -0.023372 -0.063143 -0.00039232 0.011737 0.0056898 0.010726
0.010587 0.0049318 0.011012 0.007753
-0.023452 -0.063055 -0.37749 0.10632 -0.040883 -0.037732 0.013934 0.0036456
-0.013011 -0.0055329 0.0026649 -0.00022017
-0.00033962 0.011761 -0.040995 -0.037652 -0.18318 0.256 -0.00076921 -0.0042697
0.0198 0.0053823 0.0068149 -0.005801
0.0056618 0.010871 0.013915 0.0039203 -0.0007059 -0.0042341 -0.30722 0.12982
0.0044237 -0.023962 0.0049049 -0.02207
0.010672 0.0049861 -0.012821 -0.0053766 0.01993 0.0052912 0.0044204 -0.023867
-0.28777 -0.029383 0.0098233 -0.049409
0.011054 0.007699 0.0027613 -0.00041779 0.006726 -0.0056467 0.0048553 -0.022074
0.0098398 -0.049328 -0.32904 -1.061e-05
620000000 -0.27626 0.10402 -0.023404 0.0078288 0.0029478 0.0083732 0.0083156 -0.0053845
0.010747 -7.3718e-05 0.0013553 -0.0025104
-0.023459 0.0077941 -0.40272 0.057814 -0.018655 -1.2153e-06 -0.0014122 -0.0021019
0.011548 -0.0061489 0.0016746 -0.0029903
0.0028896 0.0083874 -0.018677 5.0765e-05 -0.15429 0.26556 -0.0016145 -0.0051102
-0.0024715 -0.00244 0.0079389 -0.0033084
0.0083245 -0.0052754 -0.001414 -0.0021545 -0.0016216 -0.0051161 -0.2676 0.14103
-0.038013 -0.019435 0.012484 0.026533
0.010556 -0.00018602 0.011436 -0.0061139 -0.0026078 -0.0025353 -0.037974 -0.019403
-0.20522 -0.068448 -0.04251 0.014679
0.0013201 -0.0025169 0.0015777 -0.0029774 0.0079284 -0.0031345 0.012561 0.026601
-0.042616 0.014724 -0.24771 -0.039922
680000000 -0.23576 0.19026 -0.027275 -0.014691 0.0048056 0.0051797 0.0017239 -0.0070353
-0.0034315 -0.011061 0.0053862 -0.0069138
-0.027271 -0.014691 -0.38825 0.15601 -0.032705 -0.0016118 -0.0016739 -0.00036881
-0.0021882 -0.0088791 -0.0011906 -0.001807
0.0047412 0.0051476 -0.032745 -0.0015214 -0.10301 0.2855 -0.00078605 -0.00021629
-0.0017555 0.00060756 -0.0026371 -0.0095523
0.0016855 -0.0070355 -0.0016532 -0.00038455 -0.0007771 -0.00021879 -0.22213 0.19278
-0.02336 -0.0075195 -0.0095643 -0.01259
-0.0034461 -0.011101 -0.0022592 -0.0088298 -0.0017495 0.00065861 -0.023376 -0.0075258
-0.25949 0.031041 -0.0054136 -0.008895
0.0054512 -0.0069224 -0.0011659 -0.0016917 -0.0026316 -0.0095361 -0.0095732 -0.012654
-0.0054403 -0.0087949 -0.26255 0.070805
740000000 -0.19159 0.18505 -0.038921 0.026805 0.012435 -0.0050505 -2.1993e-05 -0.0043699
-0.0036985 -0.0025107 -0.0061537 0.0024211
-0.039039 0.026756 -0.33522 0.17505 -0.035658 0.034926 -0.00095667 -0.0063192
-0.010969 0.007749 -0.0024247 -0.00702
0.01244 -0.0050423 -0.035563 0.035067 -0.06912 0.28391 -0.0020992 0.0029368
-0.0018749 -0.0047754 -0.0013717 -0.00042591
-0.00010097 -0.0043633 -0.0010249 -0.0063929 -0.0020706 0.0029097 -0.20551 0.20098
-0.043866 -0.0077202 0.023501 0.01576
-0.0037745 -0.0025978 -0.011155 0.0079529 -0.0019664 -0.0047722 -0.043893 -0.0076789
-0.15851 0.058944 -0.045116 -0.00060515
-0.006057 0.002535 -0.0023736 -0.0069966 -0.0012945 -0.00038189 0.023509 0.015786
-0.045204 -0.00076746 -0.25327 0.075305
800000000 -0.15892 0.22612 -0.022714 0.016677 0.0052543 -0.0105 -0.0046947 -0.0022817
-0.0039589 0.0021667 0.0050105 -3.6374e-05
-0.022666 0.01669 -0.33894 0.24545 -0.0080528 0.033954 -0.0023128 0.002173
-0.00056044 0.0026768 0.0010021 0.0051608
0.0052345 -0.010507 -0.0079573 0.034001 -0.028504 0.30725 0.00095872 0.0014902
0.00028858 0.0033832 -0.0017015 0.00054859
-0.0047069 -0.0022845 -0.0023236 0.0021813 0.00092923 0.0014785 -0.17683 0.22916
-0.028709 0.013466 0.014246 -0.010689
-0.0039976 0.0021878 -0.00059615 0.0026976 0.00029245 0.0033982 -0.0287 0.013535
-0.20813 0.082418 -0.018128 0.019274
0.0049762 -6.3307e-05 0.00096387 0.0052043 -0.0016959 0.00056379 0.014248 -0.010722
-0.018166 0.019262 -0.25043 0.12699
860000000 -0.12441 0.24656 -0.017713 0.030635 -0.0032951 -0.009769 -0.002381 0.0008822
0.0038371 0.0047348 -0.003462 -0.0031636
-0.01775 0.030575 -0.29136 0.28755 0.0075901 0.034112 -0.00011984 0.0019733
0.0038233 -3.0048e-05 0.0031981 0.00073603
-0.0033351 -0.0097807 0.0077036 0.03412 0.019613 0.31509 -0.00055931 -0.00021816
0.0028495 -0.0014925 0.0013302 0.0043285
-0.002396 0.00085762 -6.0941e-05 0.0019549 -0.00055156 -0.00018859 -0.14017 0.24026
-0.018342 0.018137 -0.0063519 -0.0090729
0.0038605 0.0047178 0.0039684 -1.7951e-05 0.0028424 -0.0014795 -0.018314 0.018186
-0.15748 0.13558 -0.02729 0.015069
-0.0034286 -0.0031639 0.0031676 0.00077788 0.0012952 0.0042993 -0.0063509 -0.0091382
-0.027203 0.014943 -0.19874 0.17609
920000000 -0.10001 0.26989 0.0048984 0.038004 -0.0092815 -0.0042651 -0.0018735 0.0018617
0.00099396 0.0018502 0.0025923 -0.0015179
0.0048721 0.037916 -0.26243 0.30896 0.027794 0.022016 0.0014193 0.0011488
0.0071594 -0.0003047 0.0039153 -0.002665
-0.0092772 -0.0042511 0.027912 0.022012 0.065782 0.31561 0.0018477 6.5311e-05
0.0011159 -0.00026893 0.00086542 -0.0010234
-0.001857 0.0018669 0.0014057 0.0011097 0.0018259 5.518e-05 -0.11615 0.25709
-0.011328 0.030571 0.0040851 -0.0065998
0.0009936 0.0018631 0.0071831 -0.00027163 0.0010926 -0.00025352 -0.011271 0.030603
-0.14778 0.14167 -0.0030318 0.028027
0.0025547 -0.001571 0.0038829 -0.0027098 0.0008695 -0.0010165 0.0040506 -0.0066657
-0.0030685 0.028064 -0.2117 0.18981
980000000 -0.052406 0.28954 0.017338 0.030149 -0.0088766 0.0046316 0.0021137 0.0035505
0.0040187 -0.0013598 -0.0033938 -0.0023171
0.017361 0.030079 -0.2094 0.34294 0.03277 0.0050756 0.0019853 -1.323e-05
0.0015364 -0.0057608 -0.00036357 -0.0024358
-0.0088335 0.0046522 0.032837 0.004987 0.11185 0.30903 0.00052152 -0.0011321
0.00039576 -0.0019965 0.0015005 -0.00020079
0.0021125 0.0035308 0.0019865 -8.872e-06 0.00051125 -0.0011409 -0.077517 0.26826
0.0072994 0.030358 -0.0093571 -0.0074821
0.0039999 -0.0013483 0.0015319 -0.0057354 0.00040383 -0.0019718 0.0073642 0.030361
-0.11716 0.17206 0.0044834 0.020318
-0.0033675 -0.0022237 -0.00035041 -0.0023849 0.0014993 -0.00017431 -0.0093505 -0.0074554
0.0044813 0.020335 -0.16876 0.23818
1040000000 -0.010355 0.29805 0.032992 0.018486 -0.0011706 0.0068838 0.002543 0.00065234
0.00012123 -0.0036615 -0.00011172 -0.0014069
0.032938 0.018482 -0.17382 0.35581 0.029284 -0.014499 0.0014425 -0.0016835
-0.0024201 -0.0025151 -0.0011799 -0.0025099
-0.0011456 0.0068849 0.029283 -0.014617 0.15757 0.2953 -0.00046419 -0.0015615
-0.0015472 -0.00086134 -0.00036416 -0.0010767
0.0025249 0.00063388 0.0014774 -0.0016971 -0.00048148 -0.0015611 -0.050477 0.27838
0.018932 0.018662 -0.0019776 0.0014818
0.00010311 -0.0036593 -0.0024987 -0.0024958 -0.0015587 -0.00085669 0.018995 0.018635
-0.084629 0.1802 0.013192 0.019802
-0.00011946 -0.0013947 -0.0012135 -0.0025142 -0.00040115 -0.0010698 -0.0019943 0.0014738
0.013167 0.019782 -0.14954 0.25984
1100000000 0.035107 0.30596 0.035714 -0.0038589 0.0029048 0.0038266 0.0023512 -0.0013048
-0.0019937 -0.0032142 -0.0038303 -9.3965e-06
0.035687 -0.0038212 -0.13043 0.37304 0.015204 -0.027404 -3.1117e-06 -0.00177
-0.0031765 -0.00083273 -0.003442 -0.00054153
0.0029435 0.0037961 0.01512 -0.0275 0.20351 0.27529 -0.0018694 0.00021188
-0.0017273 0.00042696 -0.0011343 -0.00043643
0.0023127 -0.0013183 4.8962e-06 -0.0017594 -0.0018733 0.00019867 -0.01027 0.28332
0.024462 0.005855 -0.0025279 -2.7874e-05
-0.0020094 -0.003203 -0.0031643 -0.00082264 -0.0017023 0.00042379 0.024473 0.0058233
-0.066782 0.1944 0.0192 0.0097465
-0.0038345 3.7028e-05 -0.0034386 -0.00054229 -0.0011035 -0.00044866 -0.0025218 3.9386e-06
0.019175 0.0097689 -0.1038 0.29291
1160000000 0.086508 0.30084 0.02401 -0.020256 0.0027781 -0.00057075 -0.00037559 -0.0023921
-0.004114 -0.00084468 -0.00090158 0.0041025
0.024003 -0.02024 -0.087134 0.37684 -0.0032898 -0.028855 -0.0016255 -0.0016993
-0.0027111 0.0022605 -0.0013398 0.0018744
0.0027815 -0.00058134 -0.0034331 -0.028849 0.24647 0.24498 -0.00067864 0.001718
-0.00068935 0.0018692 -0.00095962 0.00022584
-0.00037601 -0.0023896 -0.0016062 -0.0016707 -0.00068639 0.0017053 0.028731 0.2806
0.021439 -0.0095753 -0.003092 0.0053585
-0.0041092 -0.00083777 -0.0027151 0.0023147 -0.00068348 0.0018692 0.021439 -0.0096007
-0.032626 0.2039 0.018556 0.0016585
-0.0008943 0.0041029 -0.0012962 0.0018584 -0.00097381 0.00020558 -0.0030801 0.005362
0.018546 0.0016455 -0.05653 0.29628
1220000000 0.13074 0.28976 0.010789 -0.029637 -0.0015033 -0.00094752 2.2789e-06 -0.0007826
-0.0026727 0.0024025 0.001246 0.002055
0.010817 -0.029624 -0.043019 0.38897 -0.016396 -0.021123 -0.0024851 0.00037803
-7.2198e-05 0.0029296 -0.00087561 0.0018766
-0.0015062 -0.00095555 -0.016509 -0.021083 0.28581 0.2066 0.00075079 0.0016099
0.00054196 0.0012185 0.00029281 0.00069313
-1.8141e-05 -0.00079289 -0.0024878 0.00038966 0.00074529 0.0016145 0.068338 0.2725
0.011059 -0.016435 0.0023321 0.0014381
-0.0026722 0.002431 -7.8479e-05 0.002936 0.00053793 0.0012402 0.011036 -0.016445
-0.010721 0.21273 0.0151 -0.011963
0.0012487 0.002028 -0.00085715 0.0018786 0.00031312 0.00067452 0.0023406 0.0014485
0.015093 -0.01195 -0.026329 0.31589
1280000000 0.1803 0.26777 -0.0073193 -0.028332 -0.0018947 0.0022656 -0.00082067 -0.0018946
-0.00081531 0.0030167 0.0024064 0.0011888
-0.0072998 -0.028306 0.0025703 0.38014 -0.023257 -0.0088069 -0.0010125 0.0013714
0.0015104 0.0018665 0.00058241 0.0021085
-0.0018827 0.0022607 -0.023325 -0.0087192 0.31691 0.16293 0.0015686 4.2389e-05
0.001107 0.00039341 0.00044464 0.00038372
-0.00082183 -0.0018974 -0.00099651 0.0013607 0.0015598 4.6194e-05 0.10499 0.25639
0.0021107 -0.018841 -2.4894e-05 2.9633e-06
-0.00079827 0.0030233 0.0015468 0.0018744 0.0011009 0.00037483 0.0020867 -0.018848
0.025976 0.21649 0.0040879 -0.014684
0.002413 0.0011945 0.00059651 0.0021224 0.00045227 0.00036558 -3.0388e-05 2.2711e-05
0.0040933 -0.014679 0.022552 0.32008
1340000000 0.21711 0.23414 -0.017012 -0.019236 0.00075554 0.0043661 -0.0015529 -0.00082212
0.0014191 0.00275 0.0017865 -0.0012943
-0.016988 -0.019252 0.04179 0.3724 -0.021435 0.0037158 -0.0002183 0.0019721
0.001814 0.00097923 0.0013048 0.00085216
0.00077041 0.0043597 -0.02145 0.0038255 0.33947 0.11496 0.001139 -0.00085769
0.00077343 -0.0004299 0.00026775 0.0003232
-0.0015541 -0.00081521 -0.00020551 0.0019848 0.0011409 -0.00086963 0.13728 0.23668
-0.0073149 -0.016742 0.0010196 0.00037042
0.0014302 0.0027609 0.0018208 0.00096335 0.00077345 -0.0004575 -0.0073513 -0.016741
0.054932 0.21195 -0.0023144 -0.013671
0.0017792 -0.0012998 0.0013292 0.00083048 0.00026796 0.00032018 0.0010309 0.00036224
-0.0023051 -0.013674 0.060659 0.31786
1400000000 0.24989 0.19626 -0.023031 -0.0080189 0.0049093 0.0030801 -0.0020069 0.00046237
0.0023259 0.00087188 0.00042748 -0.0013008
-0.022996 -0.008029 0.079079 0.35969 -0.014986 0.011903 0.0012368 0.0013914
0.0011946 -0.00067171 0.001295 0.0003324
0.0049345 0.0030793 -0.014945 0.011986 0.35296 0.06089 0.00021888 -0.0015963
2.2487e-07 -0.00040713 0.00044465 0.00019248
-0.0020071 0.00046039 0.0012483 0.0013816 0.00021835 -0.0015973 0.16686 0.2084
-0.013382 -0.010605 -0.00098953 -0.00077992
0.0023421 0.0008677 0.0011809 -0.0006936 9.5763e-06 -0.00041459 -0.013412 -0.010586
0.087457 0.20834 -0.008833 -0.0096004
0.00043075 -0.0013102 0.0012894 0.00032757 0.00043098 0.00020025 -0.00098497 -0.00078533
-0.0088223 -0.0096243 0.10701 0.30835
1460000000 0.27261 0.1526 -0.020395 0.0040427 0.0054276 -0.0017133 -0.00166 0.0015856
0.0020557 -0.00045619 -0.00027218 -0.001005
-0.020397 0.0040084 0.11343 0.33824 -0.0065979 0.014972 0.0017675 0.0002562
0.0010426 -0.0012922 0.0012484 -0.00062165
0.005422 -0.0017399 -0.0065112 0.015035 0.35896 0.0062156 -0.0012051 -0.001355
0.00022283 -0.00030052 0.00048762 -0.0004256
-0.0016563 0.001598 0.0017732 0.00025353 -0.0012031 -0.0013343 0.19328 0.17985
-0.015272 -0.0043193 -0.0011203 0.0018542
0.0020749 -0.000465 0.001043 -0.0012926 0.00021752 -0.0002918 -0.015283 -0.004285
0.11569 0.19412 -0.011242 -0.0037261
-0.00028468 -0.00099527 0.0012402 -0.00064949 0.00048919 -0.00044068 -0.0011368 0.0018566
-0.011257 -0.0037326 0.14127 0.28859
1520000000 0.28494 0.11128 -0.015146 0.0097301 0.0032711 -0.0039943 -2.8177e-05 0.002582
0.0021505 -0.0015974 -0.0010966 -0.00022068
-0.015144 0.0097151 0.14729 0.32367 0.0010945 0.013095 0.0017341 -0.00074652
0.00011229 -0.0011238 0.00039161 -0.0010307
0.0032418 -0.0040121 0.0011535 0.013097 0.35201 -0.050415 -0.0011465 -0.00044732
0.00064994 -0.00078768 3.049e-05 -8.9331e-05
-2.2749e-05 0.0025884 0.0017364 -0.00075958 -0.0011466 -0.00044379 0.21682 0.14262
-0.015439 0.0014136 0.0011935 0.0021314
0.0021286 -0.0016308 0.00011386 -0.0011446 0.00064764 -0.00078297 -0.01544 0.0014491
0.14283 0.18105 -0.011843 0.00044307
-0.0011153 -0.0002257 0.00038241 -0.0010328 4.3073e-05 -0.00011213 0.0011933 0.0021142
-0.011843 0.00043252 0.17607 0.27014
1580000000 0.29457 0.06531 -0.0087144 0.013159 -0.0008488 -0.0047495 0.0013199 0.0019825
-0.00016609 -0.0020357 -0.00041317 0.00042847
-0.0087073 0.013146 0.17484 0.29895 0.0048108 0.0084761 0.00055376 -0.0016337
-0.00061907 -0.0011689 -0.00027131 -0.00079232
-0.00087021 -0.0047316 0.0048709 0.0084625 0.33128 -0.10808 -0.0016901 0.00068516
-0.00020381 -0.0011331 3.8157e-05 -0.00049077
0.001328 0.001964 0.00054239 -0.0016294 -0.0016947 0.00069627 0.23131 0.1039
-0.012519 0.0068467 0.0021505 0.0010622
-0.00018325 -0.0020382 -0.00063378 -0.0011619 -0.00022323 -0.0011356 -0.012512 0.006879
0.16695 0.16433 -0.0097638 0.0065448
-0.00041365 0.00044305 -0.00027649 -0.00080162 3.0581e-05 -0.00048144 0.0021577 0.001051
-0.0097563 0.0065381 0.21007 0.2436
1640000000 0.29704 0.02396 -0.0019775 0.0125 -0.0025467 -0.0024817 0.002725 0.0011182
-0.00049176 -0.0015526 -0.00024678 0.00055479
-0.0019907 0.012491 0.20464 0.27389 0.0057968 0.0038164 -0.00062609 -0.0017965
-0.0011105 -0.00042021 -0.00045444 -0.00072934
-0.002558 -0.0024854 0.0058215 0.0037849 0.30278 -0.15719 -0.00063031 0.0015488
-0.00097696 -0.001117 -9.4618e-05 -0.00044831
0.0027194 0.0011141 -0.00064608 -0.0017982 -0.00064232 0.0015405 0.24438 0.055581
-0.0084766 0.0088893 0.0024616 -0.00063283
-0.00052451 -0.0015486 -0.0011229 -0.00041177 -0.00097595 -0.0011158 -0.008464 0.0089047
0.1891 0.14113 -0.005331 0.008875
-0.00024507 0.00057285 -0.00045307 -0.0007201 -8.4667e-05 -0.00043722 0.002465 -0.00065337
-0.0053416 0.0088722 0.23648 0.21305
1700000000 0.29003 -0.021582 0.0016625 0.0099389 -0.0032777 8.5605e-05 0.0031282 -0.0011219
-0.0019776 -0.00085999 0.00068283 0.00046454
0.0016542 0.009932 0.22295 0.24208 0.0039301 0.0009648 -0.0014942 -0.00064851
-0.00082195 0.00013315 -0.00092795 -0.00048309
-0.0032761 0.00010927 0.0039425 0.00092745 0.25899 -0.19687 0.00052802 0.0016247
-0.001928 -0.00030947 -0.00043418 -0.00077949
0.0031208 -0.0011429 -0.0015023 -0.00065019 0.00053335 0.0016205 0.24218 0.0060697
-0.0053755 0.010206 0.0015644 -0.0020916
-0.0019961 -0.00082866 -0.00083184 0.00014085 -0.0019284 -0.00030824 -0.0053554 0.010216
0.20663 0.12182 -0.00071768 0.0095996
0.00068918 0.00047241 -0.00092913 -0.00046265 -0.0004598 -0.00080115 0.0015518 -0.0021057
-0.00071383 0.0096013 0.25427 0.17866
1760000000 0.27782 -0.070441 0.0043105 0.0067726 -0.0021283 0.0008868 0.0013763 -0.0034335
-0.0014127 0.0005394 0.00047232 -0.000605
0.0043006 0.0067832 0.24893 0.20193 0.0018218 -0.00085938 -0.001219 0.00016245
-0.00095485 0.0010043 -0.00055672 0.00039831
-0.0021217 0.00087269 0.0018156 -0.00086558 0.20996 -0.22953 0.0012783 0.0010116
-0.0012771 0.0014046 -0.0012145 -0.0005542
0.0013541 -0.0034446 -0.0012228 0.00016973 0.0012568 0.0010043 0.23403 -0.045384
-0.0013316 0.0097254 -0.0001512 -0.0024425
-0.0014063 0.00056008 -0.00093892 0.0010182 -0.0012739 0.0013996 -0.0013096 0.0097348
0.22154 0.087891 0.0033828 0.0073301
0.00047239 -0.00060461 -0.00055278 0.00040698 -0.001189 -0.00054705 -0.00015344 -0.0024518
0.0033909 0.0073321 0.26758 0.14114
1820000000 0.25308 -0.108 0.0048219 0.0030619 -1.1557e-05 0.0022672 -0.00095613 -0.0031234
-0.0012881 0.00084561 -3.3095e-05 -0.00016038
0.0048149 0.0030678 0.25882 0.17157 -4.5225e-05 3.8825e-05 -0.001364 0.00095776
9.9138e-05 0.0012806 -0.00057408 0.0005078
1.9898e-05 0.0022839 -3.6019e-05 2.4209e-05 0.16011 -0.24504 0.0013904 0.00032255
-0.00029347 0.002411 -0.0013544 0.00020352
-0.00096378 -0.0031151 -0.0013554 0.00096697 0.0014122 0.00029857 0.20498 -0.092948
0.00075311 0.007945 -0.0014722 -0.0015403
-0.0012634 0.00084249 0.00011707 0.0012867 -0.00029231 0.0024199 0.00076709 0.0079429
0.23921 0.059619 0.0045332 0.0040645
-3.3911e-05 -0.00016019 -0.00055985 0.00051244 -0.0013477 0.00022367 -0.0014733 -0.0015461
0.0045222 0.0040573 0.27095 0.10576
1880000000 0.21771 -0.14845 0.0027518 0.00051669 -0.00047002 0.0019228 -0.0029252 -0.0023305
-0.00029783 0.0018243 0.0001925 -0.00056542
0.0027455 0.0005179 0.26295 0.1248 -0.0020608 0.0015957 -0.0002046 0.001711
0.00061268 0.0011027 6.6033e-05 0.00091358
-0.00047085 0.0019127 -0.0020527 0.0016005 0.10804 -0.25456 0.0016916 -0.0008461
0.0014873 0.0021004 -0.0010827 0.0013333
-0.0029329 -0.0023184 -0.00019791 0.0017175 0.0016967 -0.0008555 0.16498 -0.13397
0.0018349 0.005604 -0.0022671 0.00036775
-0.00027745 0.0018245 0.00060499 0.0010948 0.0014811 0.0021074 0.0018649 0.0055988
0.2427 0.027732 0.0050093 0.0020628
0.00017638 -0.00058419 7.3147e-05 0.00092161 -0.0010783 0.001314 -0.0022515 0.00038224
0.0050107 0.0020621 0.27137 0.071431
1940000000 0.17795 -0.17394 0.00050292 -0.0013932 0.0012096 0.0018982 -0.0037214 0.00044626
0.001348 0.0011579 -0.00075561 -0.00050861
0.00051308 -0.001391 0.26315 0.092977 -0.0010134 0.0037551 0.0010286 0.0013888
0.0017184 0.00034403 0.0007446 0.00028617
0.0012313 0.0019012 -0.001005 0.0037824 0.062183 -0.24762 0.00040967 -0.0019953
0.0024287 0.00044308 0.00020677 0.0016312
-0.0037221 0.00045133 0.0010323 0.0013765 0.00042294 -0.0019623 0.11261 -0.1654
0.0010526 0.0038075 -0.0013469 0.0014616
0.0013681 0.0011508 0.0017351 0.00034007 0.0024366 0.00044736 0.0010549 0.0038024
0.24524 -0.01092 0.0039805 -0.0015625
-0.00078299 -0.00053259 0.00074665 0.00027396 0.00020986 0.0016223 -0.0013261 0.0014692
0.0039895 -0.0015726 0.26128 0.036391
2000000000 0.13148 -0.18849 -0.0035055 0.0004322 0.0022672 0.0016815 -0.0024737 0.0034345
0.0012128 0.00017216 -0.00067594 0.000404
-0.003496 0.0004314 0.2486 0.057527 -0.00093088 0.0055551 0.001648 0.00039787
0.0011852 -0.001327 0.00048229 0.00018706
0.0022952 0.0017209 -0.00090327 0.0055971 0.018852 -0.23293 -0.0011671 -0.0013009
0.0020182 -0.0011826 0.0015863 0.0013455
-0.0024498 0.0034453 0.001663 0.00039592 -0.0011563 -0.001292 0.058629 -0.17593
-0.00067035 0.0033613 4.2333e-05 0.0021585
0.0012123 0.00017193 0.0011825 -0.001338 0.0020077 -0.0012015 -0.00068476 0.0033889
0.23973 -0.044895 0.000866 -0.0024841
