!Keysight Technologies,M9804A,MY58100912,A.14.10.03
!Date: Thursday, April 27, 2023 10:28:33
!Correction: S11(C  6-Port  ) 
!S12(C  6-Port  ) 
!S13(C  6-Port  ) 
!S14(C  6-Port  ) 
!S15(C  6-Port  ) 
!S16(C  6-Port  ) 
!S21(C  6-Port  ) 
!S22(C  6-Port  ) 
!S23(C  6-Port  ) 
!S24(C  6-Port  ) 
!S25(C  6-Port  ) 
!S26(C  6-Port  ) 
!S31(C  6-Port  ) 
!S32(C  6-Port  ) 
!S33(C  6-Port  ) 
!S34(C  6-Port  ) 
!S35(C  6-Port  ) 
!S36(C  6-Port  ) 
!S41(C  6-Port  ) 
!S42(C  6-Port  ) 
!S43(C  6-Port  ) 
!S44(C  6-Port  ) 
!S45(C  6-Port  ) 
!S46(C  6-Port  ) 
!S51(C  6-Port  ) 
!S52(C  6-Port  ) 
!S53(C  6-Port  ) 
!S54(C  6-Port  ) 
!S55(C  6-Port  ) 
!S56(C  6-Port  ) 
!S61(C  6-Port  ) 
!S62(C  6-Port  ) 
!S63(C  6-Port  ) 
!S64(C  6-Port  ) 
!S65(C  6-Port  ) 
!S66(C  6-Port  ) 
!S6P File: Measurement: :
# Hz S  RI   R 50
500000000 -0.33837 -0.036827 -0.010285 -0.0030983 -0.0079272 0.012275 -0.0037243 0.01167
0.012191 0.004455 -0.0038208 0.0080856
-0.010289 -0.003092 -0.41939 -0.050003 0.0076952 -0.010932 0.0016525 0.012119
0.0071404 0.0023463 0.00090384 0.013281
-0.0078993 0.012289 0.0076788 -0.010955 -0.26537 0.21097 0.0070599 0.0033438
-0.00067662 0.008818 0.00054827 0.012223
-0.0037122 0.011658 0.0016804 0.012137 0.0070569 0.0033381 -0.3277 0.046046
-0.020641 -0.0044786 0.018104 0.025419
0.012193 0.0044511 0.0071463 0.0023242 -0.0006776 0.0088176 -0.020634 -0.0044637
-0.22683 -0.18615 -0.028252 0.004677
-0.0038238 0.0080804 0.00093156 0.0133 0.00056129 0.012234 0.018103 0.025424
-0.028252 0.0046747 -0.27197 -0.11674
560000000 -0.31751 0.1246 -0.023509 -0.06245 0.0002827 0.012199 0.0064306 0.010187
0.010279 0.0044407 0.010259 0.0078916
-0.023489 -0.062422 -0.37659 0.10826 -0.042162 -0.03618 0.013481 0.0038242
-0.013419 -0.0043204 0.0041171 -0.00037054
0.00035664 0.012197 -0.042336 -0.036184 -0.18302 0.25891 -0.00027881 -0.0046014
0.019246 0.0045401 0.0069477 -0.0061248
0.0064243 0.010143 0.013483 0.0038706 -0.00027938 -0.0046176 -0.30343 0.13545
0.0040296 -0.024467 0.0047567 -0.01965
0.010259 0.00447 -0.013426 -0.0043249 0.019251 0.0045396 0.0040142 -0.024473
-0.28716 -0.01028 0.0075465 -0.05018
0.010335 0.0078819 0.0040683 -0.00043679 0.0069443 -0.0061208 0.0047456 -0.019664
0.0075812 -0.050192 -0.33173 0.030393
620000000 -0.27467 0.10935 -0.022728 0.0077481 0.0037176 0.0082313 0.0068307 -0.0053739
0.011413 -0.00023212 0.00026473 -0.0020176
-0.022717 0.0077463 -0.40289 0.061811 -0.018631 8.7778e-05 -0.0011025 -0.0018557
0.010665 -0.0071184 0.0012111 -0.0026336
0.0037565 0.00822 -0.018649 0.00012166 -0.15293 0.26798 -0.0015229 -0.0050528
-0.0033733 -0.0032303 0.0081251 -0.0034747
0.0068303 -0.0053667 -0.0011071 -0.0018591 -0.0015164 -0.0050582 -0.26264 0.14615
-0.038993 -0.018748 0.014146 0.024591
0.011453 -0.00032716 0.010644 -0.0071574 -0.0033632 -0.0032468 -0.039006 -0.01873
-0.20577 -0.049305 -0.04074 0.014369
0.00029222 -0.0019881 0.0012286 -0.002641 0.0081279 -0.0034721 0.014148 0.024569
-0.040757 0.014352 -0.2503 -0.0056127
680000000 -0.2339 0.19456 -0.02735 -0.013881 0.0048964 0.0048079 0.0013111 -0.0074421
-0.002937 -0.011141 0.004682 -0.0067284
-0.027328 -0.013863 -0.38735 0.15923 -0.032491 -0.0013553 -0.0016371 -0.00032314
-0.0025918 -0.0090052 -0.001018 -0.0020612
0.0049008 0.0047821 -0.032526 -0.0012703 -0.10174 0.28749 -0.00077688 1.1102e-05
-0.0022526 0.00038467 -0.0028138 -0.0095369
0.0012925 -0.0074626 -0.0016201 -0.00031926 -0.00075809 1.7113e-05 -0.21983 0.19545
-0.023722 -0.0080392 -0.0089471 -0.010431
-0.0029655 -0.011161 -0.0026272 -0.0090039 -0.0022595 0.00037302 -0.023734 -0.008022
-0.25425 0.049135 -0.0056028 -0.0091623
0.0046774 -0.0067786 -0.0010071 -0.0020702 -0.0027865 -0.0095369 -0.008949 -0.010441
-0.0056004 -0.0091747 -0.25867 0.09685
740000000 -0.18946 0.1891 -0.038358 0.026539 0.012519 -0.0054207 -0.00075178 -0.0039537
-0.0043478 -0.0031512 -0.0065121 0.0032257
-0.038331 0.026538 -0.33464 0.17761 -0.034722 0.035043 -0.00068308 -0.0065504
-0.012084 0.0076606 -0.0025763 -0.0058678
0.012505 -0.005469 -0.034676 0.035194 -0.067987 0.28588 -0.001688 0.0033989
-0.0026833 -0.004322 -0.0014428 0.00012034
-0.00076114 -0.0039511 -0.00071557 -0.0065414 -0.0016915 0.0033953 -0.20259 0.2031
-0.04243 -0.0081024 0.022125 0.013757
-0.0043908 -0.0031309 -0.012062 0.007701 -0.002702 -0.0043189 -0.042449 -0.0080447
-0.15868 0.074689 -0.041181 0.00049024
-0.0064572 0.0032102 -0.002602 -0.005868 -0.0014271 0.00011304 0.022136 0.013749
-0.041157 0.00046253 -0.2473 0.10332
800000000 -0.15657 0.2289 -0.022303 0.016794 0.0050935 -0.010465 -0.0047802 -0.0019232
-0.0040935 0.0026026 0.0044235 0.0010175
-0.022293 0.016809 -0.3376 0.24812 -0.0077808 0.033845 -0.0021794 0.0022741
-0.00092895 0.0032229 0.0011187 0.0053463
0.0050908 -0.01047 -0.0076943 0.033896 -0.026999 0.30871 0.0010386 0.0016147
0.00056622 0.0036518 -0.0017963 0.00089018
-0.0048118 -0.0019138 -0.0021745 0.0022869 0.0010385 0.0016203 -0.17445 0.23057
-0.02801 0.012654 0.013008 -0.0098967
-0.0040969 0.0026363 -0.00092489 0.0032326 0.00057089 0.0036534 -0.028016 0.012723
-0.20157 0.097849 -0.016936 0.0176
0.0043947 0.0010315 0.0011368 0.0053472 -0.0017941 0.0008888 0.012991 -0.0099223
-0.016946 0.017582 -0.2388 0.15425
860000000 -0.12169 0.24903 -0.017165 0.030708 -0.0033399 -0.0097148 -0.0023467 0.0010578
0.0039837 0.0051051 -0.0029402 -0.0025299
-0.017161 0.0307 -0.28944 0.28997 0.0080348 0.033923 0.00010355 0.0022277
0.0041578 0.00073471 0.0034402 0.00047751
-0.0033478 -0.0097067 0.0081491 0.033926 0.021205 0.31637 -0.00045737 -0.00023633
0.00286 -0.00137 0.0016492 0.0043127
-0.0023562 0.0010658 0.00011935 0.0022254 -0.00045693 -0.00023569 -0.13837 0.2419
-0.017621 0.018349 -0.006262 -0.0087537
0.0039917 0.0051262 0.0041502 0.00072041 0.0028559 -0.0013827 -0.017603 0.018391
-0.15138 0.14609 -0.024223 0.01539
-0.0029403 -0.0025103 0.0034475 0.00046772 0.0016478 0.0043169 -0.0062745 -0.0087512
-0.024232 0.015368 -0.18879 0.19658
920000000 -0.096719 0.27169 0.0053095 0.037365 -0.0092281 -0.0042758 -0.0018913 0.0020232
0.0015422 0.0016132 0.002553 -0.0015931
0.0052908 0.037352 -0.26031 0.31061 0.027916 0.02158 0.001566 0.0010268
0.0070019 -0.00064683 0.0038297 -0.0029414
-0.0092463 -0.0042568 0.028004 0.021506 0.067442 0.31666 0.0018625 -0.00017919
0.0012918 -0.00035785 0.00081463 -0.0011493
-0.0018712 0.0020258 0.0015835 0.0010288 0.0018629 -0.00017092 -0.11444 0.25809
-0.010267 0.02989 0.0027515 -0.0066038
0.001576 0.0016116 0.0070017 -0.00065797 0.0012801 -0.00036098 -0.010212 0.029934
-0.14084 0.15174 -0.0021737 0.027142
0.002562 -0.0015897 0.003815 -0.0029692 0.00082543 -0.0011458 0.0027402 -0.0066072
-0.0021904 0.027128 -0.19412 0.21083
980000000 -0.049439 0.29085 0.017586 0.029632 -0.0087993 0.0045504 0.0022294 0.0036617
0.0040406 -0.0017666 -0.0030899 -0.0021814
0.017536 0.029615 -0.20752 0.34442 0.032655 0.0046113 0.0019726 1.1092e-05
0.0014333 -0.006213 -0.00059845 -0.0021596
-0.0087805 0.0045811 0.032705 0.0044899 0.1136 0.30985 0.0004887 -0.0011984
0.00020379 -0.0021328 0.0014327 -2.6579e-05
0.0022351 0.003648 0.0019801 2.543e-05 0.00048334 -0.0011934 -0.076218 0.26974
0.0072931 0.028734 -0.0090468 -0.0065112
0.0040387 -0.0017982 0.0013872 -0.0062301 0.00019413 -0.0021336 0.0073613 0.028741
-0.10903 0.17913 0.0048853 0.019026
-0.0031145 -0.0021652 -0.00058339 -0.0021832 0.0014301 -3.4243e-05 -0.0090579 -0.0064917
0.0048707 0.01902 -0.15081 0.25574
1040000000 -0.0071606 0.29897 0.032947 0.017732 -0.0011901 0.0067253 0.0026271 0.00079088
5.8943e-05 -0.0036 -0.00060516 -0.001644
0.032904 0.017759 -0.17199 0.35726 0.028906 -0.014724 0.0014931 -0.0017109
-0.0024364 -0.0024534 -0.0013696 -0.0027474
-0.0011648 0.0067384 0.028853 -0.014863 0.15953 0.29588 -0.00049377 -0.0014509
-0.0015344 -0.00087114 -0.00040145 -0.001103
0.0026296 0.00077541 0.0015098 -0.0016976 -0.00049897 -0.0014534 -0.048867 0.27964
0.018295 0.017282 -0.0028689 0.0018282
5.2783e-05 -0.0036228 -0.0024683 -0.002425 -0.00154 -0.00087264 0.018347 0.017243
-0.077551 0.18728 0.013227 0.017869
-0.00061724 -0.0016406 -0.0013741 -0.0027796 -0.0004028 -0.0011023 -0.0028653 0.0018315
0.013212 0.017877 -0.12922 0.2747
1100000000 0.038154 0.30628 0.035369 -0.0044869 0.0028049 0.0037248 0.0025265 -0.0013082
-0.0021485 -0.003058 -0.0039183 0.00014573
0.035346 -0.004462 -0.12851 0.37393 0.014849 -0.027443 5.1583e-05 -0.0018231
-0.003261 -0.00063325 -0.0033719 -0.00056039
0.002818 0.0037249 0.014756 -0.027536 0.20551 0.27542 -0.0017986 0.00020306
-0.0017846 0.00058381 -0.00094317 -0.00033256
0.0025255 -0.0013244 4.7415e-05 -0.0018209 -0.0017913 0.00020674 -0.0085284 0.28468
0.022771 0.0049907 -0.0023994 0.0007332
-0.0021576 -0.0030492 -0.0032775 -0.00061209 -0.001787 0.00058834 0.022806 0.0049512
-0.059181 0.20031 0.018446 0.0083856
-0.0039154 0.00016173 -0.0033715 -0.00054276 -0.0009434 -0.00032894 -0.0023997 0.00073465
0.018428 0.0083986 -0.082417 0.30267
1160000000 0.089463 0.30104 0.023476 -0.020597 0.0025929 -0.00041985 -0.00012538 -0.002435
-0.003995 -0.00051459 -0.00087524 0.0038061
0.023457 -0.020576 -0.08496 0.37792 -0.0037392 -0.028684 -0.0017201 -0.001706
-0.0025579 0.002582 -0.0012393 0.001638
0.0025953 -0.00041611 -0.0038744 -0.02871 0.24838 0.2447 -0.0006764 0.0016866
-0.0004523 0.0018529 -0.00096681 0.00010583
-0.00012592 -0.0024468 -0.0017208 -0.0016951 -0.00067501 0.0016913 0.030748 0.2819
0.019377 -0.0095874 -0.0026638 0.005543
-0.003977 -0.00049738 -0.0025701 0.0025986 -0.00046015 0.0018505 0.019376 -0.0096212
-0.026059 0.20916 0.017035 0.00065831
-0.00088223 0.0038111 -0.0012267 0.0016367 -0.00097504 0.00011797 -0.0026603 0.0055508
0.01702 0.00065853 -0.035597 0.30514
1220000000 0.1338 0.28949 0.010024 -0.029576 -0.0015471 -0.00068668 -3.2007e-05 -0.0011002
-0.0025597 0.0025441 0.0013283 0.0018651
0.010017 -0.02956 -0.041022 0.38959 -0.016639 -0.02081 -0.0024896 0.00037829
0.00014888 0.0029142 -0.00072877 0.00178
-0.0015481 -0.00066587 -0.016747 -0.020762 0.28745 0.20579 0.0008214 0.0016493
0.00055542 0.0011459 0.00022437 0.00072285
-3.2544e-05 -0.0010963 -0.002492 0.00039696 0.00082245 0.0016423 0.070368 0.27367
0.009484 -0.015439 0.00253 0.0017278
-0.0025266 0.0025559 0.00016521 0.0029204 0.00056064 0.0011383 0.0094708 -0.01546
-0.0030604 0.21812 0.013306 -0.012016
0.0013326 0.0018702 -0.00071997 0.0017903 0.00022477 0.00072602 0.002532 0.0017219
0.013302 -0.012013 -0.0038023 0.32064
1280000000 0.18317 0.26702 -0.0078525 -0.027901 -0.0017493 0.0025658 -0.0010142 -0.0019994
-0.00063528 0.0030578 0.0025347 0.0010409
-0.0078624 -0.027892 0.0045702 0.38059 -0.023318 -0.0084116 -0.00104 0.0014626
0.0016514 0.0017163 0.0005263 0.0019515
-0.0017355 0.0025909 -0.023403 -0.0083145 0.31808 0.16213 0.0014369 -0.00011103
0.0010768 9.0993e-05 0.00029216 0.00038212
-0.0010112 -0.0020036 -0.0010342 0.0014713 0.0014386 -0.00011653 0.10694 0.25775
0.0008128 -0.017278 0.00043211 0.00015602
-0.00062258 0.0030669 0.0016557 0.0017105 0.0010774 9.4085e-05 0.00077216 -0.017295
0.033567 0.22184 0.0029169 -0.014044
0.0025274 0.0010315 0.00053767 0.0019411 0.00029369 0.00038426 0.00043087 0.00015339
0.0029217 -0.014033 0.043605 0.3209
1340000000 0.21993 0.23301 -0.017352 -0.01854 0.00095454 0.0043843 -0.0018781 -0.00080787
0.0014456 0.0026286 0.0017465 -0.001518
-0.017354 -0.018532 0.043947 0.3725 -0.021331 0.0040869 -9.1009e-05 0.0020208
0.0017694 0.00068514 0.0013195 0.00090688
0.00097449 0.0043848 -0.021329 0.0041839 0.3404 0.114 0.0010082 -0.00085476
0.00066953 -0.0003889 0.00015938 0.00025515
-0.0018758 -0.00079956 -7.9467e-05 0.0020188 0.001011 -0.00085647 0.14002 0.23774
-0.0074942 -0.014655 0.001245 0.00011812
0.0014558 0.0026258 0.0017856 0.00067867 0.00067691 -0.0003956 -0.0075303 -0.014656
0.063633 0.2173 -0.0031235 -0.012833
0.00175 -0.0015366 0.0013307 0.00091208 0.00016073 0.00025443 0.0012393 0.00011521
-0.0031132 -0.012837 0.081878 0.31557
1400000000 0.25256 0.19457 -0.022904 -0.0073395 0.0051719 0.0029687 -0.0020195 0.0006725
0.0024856 0.00076939 0.00021414 -0.0014403
-0.0229 -0.0073243 0.080968 0.35957 -0.014686 0.012125 0.0013537 0.001317
0.0010807 -0.00080385 0.0012096 0.00022472
0.005184 0.0029566 -0.014645 0.012218 0.35356 0.060207 0.00011042 -0.001457
4.4913e-05 -0.0003171 0.00036489 0.00010977
-0.00203 0.00068288 0.001368 0.0013182 0.00011641 -0.0014498 0.16992 0.2093
-0.012678 -0.0086474 -0.00054734 -0.00071521
0.0024984 0.0007471 0.0010764 -0.00080068 4.9391e-05 -0.00031912 -0.012708 -0.0086138
0.096358 0.21272 -0.0092948 -0.0083259
0.00021768 -0.0014552 0.0012154 0.00021763 0.00037005 0.00010563 -0.00055126 -0.00071684
-0.0092775 -0.0083322 0.12596 0.30405
1460000000 0.27493 0.15047 -0.020017 0.0045203 0.0055199 -0.0017891 -0.0015143 0.0017357
0.002001 -0.0006979 -0.00035802 -0.00085884
-0.020009 0.0045361 0.11543 0.33792 -0.006241 0.015059 0.0017482 0.00017471
0.00090179 -0.0011702 0.0012258 -0.00065361
0.0055074 -0.0018044 -0.0061592 0.015105 0.35948 0.005459 -0.0010936 -0.0012499
0.00021457 -8.5091e-05 0.00071176 -0.00037318
-0.0015015 0.0017351 0.0017461 0.00016982 -0.0010956 -0.0012537 0.197 0.18022
-0.013527 -0.0029953 -0.0011147 0.0014608
0.0020098 -0.00071469 0.00089226 -0.0011783 0.00021638 -9.0122e-05 -0.013553 -0.0029691
0.12612 0.19814 -0.011028 -0.0029928
-0.00037031 -0.0008665 0.0012334 -0.00066079 0.00070668 -0.00037425 -0.001109 0.0014589
-0.011016 -0.0029939 0.15923 0.28252
1520000000 0.2868 0.1088 -0.014523 0.009983 0.0031055 -0.0042023 8.9089e-05 0.0025731
0.0018033 -0.0016824 -0.001178 -0.0001003
-0.014505 0.0099997 0.14912 0.32302 0.0013255 0.013017 0.0016211 -0.00083942
9.0766e-05 -0.00094795 0.00031852 -0.001061
0.0030915 -0.0042227 0.0014015 0.013021 0.35245 -0.050979 -0.00099804 -0.00039081
0.00057903 -0.00083597 -6.9289e-05 -7.4149e-05
9.449e-05 0.0025771 0.0016188 -0.00084949 -0.00099231 -0.00038265 0.22089 0.14197
-0.013157 0.001881 0.0010498 0.0017941
0.0017978 -0.0017058 8.0028e-05 -0.00094325 0.00057902 -0.00083932 -0.013167 0.0019226
0.15423 0.18376 -0.011127 0.0011712
-0.0011883 -9.5281e-05 0.00031351 -0.0010588 -6.8828e-05 -7.5367e-05 0.0010553 0.0017868
-0.011122 0.0011629 0.19201 0.26136
1580000000 0.29575 0.062584 -0.0081103 0.013035 -0.00097483 -0.0048139 0.0013848 0.0018328
-0.00039622 -0.0021136 -0.00040717 0.00043366
-0.0080893 0.013045 0.17655 0.29817 0.0050038 0.0083279 0.00044775 -0.0016128
-0.00042285 -0.0010554 -0.00025675 -0.0008829
-0.00099658 -0.0048077 0.0050502 0.0083062 0.33178 -0.10853 -0.0015611 0.00045583
-0.00024344 -0.0011731 0.00013165 -0.00053696
0.0014019 0.0018284 0.00043567 -0.0016113 -0.001564 0.00044939 0.23551 0.10212
-0.01043 0.0061857 0.0019089 0.0006903
-0.00041346 -0.0021219 -0.00043171 -0.0010583 -0.00024971 -0.0011781 -0.010424 0.0062251
0.17884 0.1655 -0.0089868 0.0065597
-0.0004084 0.00044159 -0.0002652 -0.00088511 0.00013191 -0.00054038 0.0019135 0.00068925
-0.0089928 0.006555 0.22354 0.23395
1640000000 0.29757 0.021239 -0.0016072 0.01209 -0.0027691 -0.0025047 0.0025785 0.0010228
-0.00082248 -0.0012699 -0.00025228 0.00067487
-0.0015815 0.012083 0.2062 0.2727 0.0057634 0.003586 -0.00074648 -0.0016724
-0.00098584 -0.00050496 -0.00056338 -0.000667
-0.0027842 -0.0025 0.0057912 0.0035562 0.30344 -0.15783 -0.00079267 0.0013652
-0.0010529 -0.00095627 -0.00014881 -0.00032572
0.0025843 0.0010116 -0.00075422 -0.0016711 -0.00078642 0.0013614 0.24827 0.052325
-0.006812 0.0074137 0.0022047 -0.00065042
-0.00083994 -0.0012638 -0.00099582 -0.0004935 -0.0010643 -0.0009508 -0.0067982 0.007439
0.20202 0.14035 -0.0046499 0.0086492
-0.00025041 0.00068543 -0.00056406 -0.00066515 -0.00014968 -0.00032662 0.0022052 -0.00065887
-0.004663 0.0086467 0.24883 0.20216
1700000000 0.29001 -0.024041 0.0018011 0.0094971 -0.0034564 0.0001716 0.00298 -0.0011212
-0.0019234 -0.00051719 0.00069616 0.00043051
0.0018247 0.0094776 0.22424 0.2408 0.0038734 0.00077387 -0.0014312 -0.00052401
-0.00084279 -7.5788e-06 -0.00095495 -0.00041084
-0.0034734 0.00018916 0.0038827 0.00075023 0.25949 -0.1976 0.00037225 0.0016334
-0.0018025 -0.00018637 -0.00055343 -0.0009251
0.0029752 -0.001144 -0.0014408 -0.0005177 0.00037285 0.0016259 0.2448 0.0013247
-0.004524 0.0081007 0.0013113 -0.0020609
-0.0019411 -0.00050183 -0.00084543 8.9319e-06 -0.0018053 -0.00018459 -0.0045062 0.0081167
0.21951 0.11901 -0.00032877 0.0091277
0.00070549 0.00042691 -0.00096448 -0.00040973 -0.00056029 -0.00092639 0.0013152 -0.0020567
-0.00032796 0.0091343 0.26456 0.16743
1760000000 0.2776 -0.072496 0.0042084 0.0063343 -0.0022181 0.00090315 0.0013151 -0.0033543
-0.0011252 0.00066498 0.00042452 -0.00053656
0.0042213 0.0063106 0.25005 0.20046 0.0017448 -0.0010318 -0.0011263 0.00024875
-0.0011721 0.00090521 -0.00061584 0.00054822
-0.0022136 0.00091304 0.0017282 -0.0010417 0.21039 -0.23036 0.0011454 0.001258
-0.0012098 0.001391 -0.0012877 -0.00039642
0.0013043 -0.0033652 -0.0011237 0.00024679 0.0011442 0.0012597 0.23472 -0.050932
-0.0016131 0.0075017 -0.00041231 -0.0022953
-0.0011229 0.00068639 -0.0011669 0.00092196 -0.0012105 0.0013839 -0.0015837 0.0075065
0.23447 0.082589 0.003463 0.006743
0.00041622 -0.00054911 -0.00060991 0.00056282 -0.0012985 -0.00038938 -0.00042059 -0.0022968
0.0034614 0.0067416 0.27657 0.1293
1820000000 0.2526 -0.10997 0.00452 0.0027866 -9.8417e-07 0.0023681 -0.00090319 -0.0031519
-0.00082176 0.00071805 -4.7725e-05 -0.00018414
0.0045224 0.0027665 0.25953 0.16995 -0.00024298 -2.1618e-05 -0.0013063 0.00087772
-0.00010813 0.0013987 -0.00051979 0.00056807
8.8202e-06 0.0023645 -0.00024212 -2.5212e-05 0.16015 -0.24598 0.0016303 0.00039674
-0.00033312 0.0022103 -0.0014075 0.00047999
-0.00092232 -0.0031503 -0.0012975 0.00089468 0.0016356 0.00039039 0.20337 -0.098388
-0.00032902 0.0060659 -0.0015756 -0.0013509
-0.00081811 0.0007278 -0.00010093 0.001395 -0.00033083 0.0022117 -0.00031325 0.0060806
0.25092 0.051715 0.0044197 0.0034978
-6.0375e-05 -0.00018682 -0.00052201 0.00056872 -0.0014028 0.0004771 -0.0015819 -0.0013464
0.0044161 0.0035018 0.2779 0.092763
1880000000 0.21704 -0.15001 0.002385 0.00044085 -0.00045218 0.0020444 -0.002877 -0.00229
-0.00017609 0.0014811 0.00024461 -0.00052228
0.0023753 0.00043067 0.26336 0.12326 -0.00218 0.0016041 -0.00010469 0.0016705
0.00070199 0.0014092 0.00023054 0.00095311
-0.0004305 0.0020508 -0.0021858 0.0016229 0.10816 -0.2553 0.0019884 -0.00098315
0.0015195 0.0020637 -0.00086434 0.0013506
-0.0028849 -0.0022703 -9.8833e-05 0.0016683 0.0019842 -0.00098547 0.16145 -0.13773
-3.1012e-06 0.0045047 -0.0022772 0.00061993
-0.00016843 0.0014876 0.00071408 0.0013944 0.0015231 0.0020478 1.1717e-05 0.004492
0.25255 0.017512 0.004292 0.0015561
0.000237 -0.00051639 0.00024228 0.00095494 -0.00086471 0.0013576 -0.0022743 0.00063074
0.0042888 0.0015596 0.27679 0.058631
1940000000 0.17727 -0.17574 0.00016211 -0.0013261 0.0013011 0.0019537 -0.0037279 0.0005477
0.0011718 0.0010566 -0.00065322 -0.00053038
0.00015087 -0.0013378 0.26333 0.091408 -0.0011473 0.0038505 0.00098379 0.0013063
0.0019918 0.00056218 0.00091403 0.0002549
0.0013108 0.0019464 -0.0011162 0.0038733 0.062196 -0.24866 0.00034172 -0.0023324
0.0024533 0.00050489 0.00044827 0.0016247
-0.0037195 0.00055883 0.00099171 0.0013015 0.00034467 -0.0023253 0.10836 -0.16704
-0.0011568 0.0035766 -0.0013254 0.0017453
0.0011746 0.001051 0.0020011 0.00054662 0.0024493 0.0004954 -0.0011475 0.0035663
0.2525 -0.02319 0.0031388 -0.0015982
-0.00065872 -0.00051423 0.000921 0.00025299 0.00045139 0.001628 -0.0013262 0.0017509
0.0031367 -0.0015935 0.26492 0.022445
2000000000 0.13047 -0.18984 -0.0037823 0.00071287 0.0024345 0.0015812 -0.0023821 0.0037153
0.00092559 0.00028045 -0.00064769 0.00042994
-0.0037779 0.0006923 0.24849 0.056174 -0.00085932 0.0057323 0.0016039 0.00035918
0.0014805 -0.0014787 0.00048842 9.3416e-05
0.0024344 0.0015727 -0.00083107 0.0057468 0.018841 -0.23403 -0.0014353 -0.0014026
0.0020367 -0.0012657 0.0016295 0.0012342
-0.0023753 0.0037332 0.0016111 0.0003394 -0.0014374 -0.0014016 0.054995 -0.17521
-0.0026137 0.0041643 0.00019803 0.0022001
0.00092687 0.0002682 0.0014674 -0.0014922 0.0020314 -0.0012629 -0.0026108 0.0041711
0.24393 -0.057827 0.00019046 -0.0022153
