!Keysight Technologies,M9804A,MY58100912,A.14.10.03
!Date: Thursday, April 27, 2023 10:28:33
!Correction: S11(C  6-Port  ) 
!S12(C  6-Port  ) 
!S13(C  6-Port  ) 
!S14(C  6-Port  ) 
!S15(C  6-Port  ) 
!S16(C  6-Port  ) 
!S21(C  6-Port  ) 
!S22(C  6-Port  ) 
!S23(C  6-Port  ) 
!S24(C  6-Port  ) 
!S25(C  6-Port  ) 
!S26(C  6-Port  ) 
!S31(C  6-Port  ) 
!S32(C  6-Port  ) 
!S33(C  6-Port  ) 
!S34(C  6-Port  ) 
!S35(C  6-Port  ) 
!S36(C  6-Port  ) 
!S41(C  6-Port  ) 
!S42(C  6-Port  ) 
!S43(C  6-Port  ) 
!S44(C  6-Port  ) 
!S45(C  6-Port  ) 
!S46(C  6-Port  ) 
!S51(C  6-Port  ) 
!S52(C  6-Port  ) 
!S53(C  6-Port  ) 
!S54(C  6-Port  ) 
!S55(C  6-Port  ) 
!S56(C  6-Port  ) 
!S61(C  6-Port  ) 
!S62(C  6-Port  ) 
!S63(C  6-Port  ) 
!S64(C  6-Port  ) 
!S65(C  6-Port  ) 
!S66(C  6-Port  ) 
!S6P File: Measurement: :
# Hz S  RI   R 50
500000000 -0.33829 -0.036775 -0.010268 -0.0030739 -0.0078779 0.012346 -0.003727 0.01171
0.012201 0.0043857 -0.0038356 0.0081043
-0.01026 -0.0030598 -0.41937 -0.049965 0.0076462 -0.01093 0.0016697 0.012096
0.0071212 0.002353 0.00090343 0.013265
-0.0078621 0.012345 0.0076416 -0.010958 -0.26545 0.21102 0.0070336 0.0033457
-0.0006474 0.0088286 0.00050976 0.012225
-0.0037033 0.011717 0.0016796 0.012126 0.007032 0.0033496 -0.32765 0.046075
-0.020638 -0.0044794 0.018131 0.02542
0.01221 0.0043492 0.0071413 0.0023389 -0.00063482 0.008823 -0.020633 -0.0044618
-0.22689 -0.18589 -0.028281 0.0046546
-0.0038228 0.008116 0.00091556 0.013276 0.00052521 0.012222 0.01813 0.025394
-0.028281 0.0046374 -0.27194 -0.11676
560000000 -0.31742 0.12465 -0.023436 -0.062415 0.00026012 0.012224 0.0064563 0.010171
0.010271 0.0044325 0.010278 0.0079057
-0.023412 -0.062349 -0.37667 0.10806 -0.04215 -0.036226 0.013435 0.0039029
-0.013464 -0.0042969 0.0041439 -0.00039319
0.0003056 0.012214 -0.042285 -0.036178 -0.183 0.25893 -0.00027806 -0.0045964
0.019236 0.0045325 0.0069218 -0.0061184
0.0064815 0.010154 0.013455 0.0038886 -0.00027345 -0.0046049 -0.30345 0.13544
0.0040037 -0.024557 0.0047855 -0.01966
0.010265 0.0043938 -0.013488 -0.0042431 0.019253 0.0045177 0.0039806 -0.024557
-0.28715 -0.010281 0.0076236 -0.0502
0.010275 0.0079083 0.004138 -0.00041978 0.0069247 -0.0061017 0.0047699 -0.019669
0.0076583 -0.050184 -0.33173 0.030487
620000000 -0.27454 0.10943 -0.022784 0.0077896 0.0036641 0.0082734 0.0068848 -0.0053969
0.011441 -0.00020531 0.0002482 -0.0020002
-0.022774 0.0077864 -0.40287 0.061859 -0.018629 0.00010319 -0.0010886 -0.001868
0.010682 -0.0071118 0.0011892 -0.0025971
0.0036943 0.0082736 -0.018648 0.00015766 -0.15288 0.26805 -0.0014997 -0.0050414
-0.0033735 -0.0032635 0.0080796 -0.0034832
0.0068793 -0.0054172 -0.0011079 -0.0018734 -0.0014958 -0.0050348 -0.26261 0.14619
-0.038956 -0.018751 0.014101 0.024556
0.011419 -0.00022573 0.010671 -0.0071388 -0.0033598 -0.0032615 -0.038965 -0.018738
-0.20576 -0.049267 -0.040659 0.014413
0.0002411 -0.0020007 0.0011681 -0.0026051 0.0080826 -0.0034896 0.014141 0.024555
-0.040655 0.014372 -0.25029 -0.0055112
680000000 -0.23385 0.19449 -0.027368 -0.013901 0.0048963 0.0047983 0.0013138 -0.0074504
-0.0029331 -0.011171 0.0046686 -0.00672
-0.027343 -0.01391 -0.38734 0.15926 -0.032483 -0.001345 -0.0016345 -0.00031841
-0.0026203 -0.0090174 -0.0010095 -0.0020866
0.0049015 0.0047838 -0.032514 -0.00126 -0.10171 0.28751 -0.00076118 1.8995e-05
-0.0022564 0.00038813 -0.0028245 -0.0095501
0.0012957 -0.0074517 -0.0016322 -0.00031433 -0.00076132 2.0308e-05 -0.21979 0.19544
-0.023681 -0.008039 -0.0089211 -0.010463
-0.002979 -0.011174 -0.0026551 -0.0090229 -0.002262 0.00038152 -0.02371 -0.008002
-0.25418 0.049205 -0.0056173 -0.0091942
0.0046464 -0.0067395 -0.0010188 -0.0020703 -0.0028284 -0.0095473 -0.008939 -0.01046
-0.0056054 -0.0092208 -0.25871 0.096847
740000000 -0.18948 0.18906 -0.038356 0.026546 0.012528 -0.0054413 -0.0007689 -0.0039581
-0.0044385 -0.0031332 -0.0064787 0.0032202
-0.038352 0.02648 -0.33461 0.17759 -0.034731 0.035036 -0.00067725 -0.0065464
-0.012049 0.0076636 -0.0025835 -0.0058706
0.012514 -0.0054559 -0.034649 0.035182 -0.067957 0.2859 -0.0016811 0.003396
-0.002713 -0.0043022 -0.001422 0.00012927
-0.00077731 -0.0039534 -0.00069725 -0.0065647 -0.0016912 0.0034051 -0.20259 0.20308
-0.0424 -0.0081179 0.022101 0.013751
-0.0044324 -0.0031232 -0.012053 0.0077259 -0.0027048 -0.0042944 -0.042442 -0.0080693
-0.15864 0.074706 -0.041049 0.00048229
-0.0064807 0.0032297 -0.0026107 -0.0058556 -0.0014168 0.00012528 0.022112 0.013718
-0.041037 0.00045971 -0.24738 0.10319
800000000 -0.15664 0.22888 -0.022329 0.016827 0.0050956 -0.010466 -0.0047842 -0.0019266
-0.0041276 0.0026135 0.0044107 0.0010426
-0.022312 0.016807 -0.33756 0.24814 -0.0077867 0.033835 -0.0021606 0.0022678
-0.0009469 0.0032316 0.0011658 0.0053277
0.0050713 -0.01048 -0.0076928 0.033888 -0.026975 0.30872 0.0010336 0.0016144
0.00056211 0.003676 -0.0018129 0.00088671
-0.0047993 -0.0019153 -0.0021623 0.0022774 0.0010242 0.0016109 -0.17446 0.23058
-0.027976 0.012646 0.013006 -0.009922
-0.0041274 0.0026378 -0.00093867 0.0032404 0.00056355 0.0036825 -0.027977 0.012713
-0.20154 0.097847 -0.016914 0.017559
0.004434 0.0010322 0.0011875 0.0053349 -0.0018037 0.00089047 0.013003 -0.0099325
-0.016929 0.017544 -0.23877 0.15425
860000000 -0.12176 0.24908 -0.017162 0.030759 -0.0033434 -0.0097249 -0.0023338 0.0010867
0.0040036 0.0050887 -0.002941 -0.0025421
-0.017161 0.030737 -0.28936 0.28996 0.0080521 0.033906 0.00013725 0.0022289
0.0041916 0.00073817 0.003442 0.00045022
-0.0033669 -0.0097143 0.0081505 0.033913 0.021223 0.31637 -0.00045975 -0.00024003
0.0028543 -0.0013589 0.0016444 0.0042996
-0.0023357 0.0010946 0.00014554 0.0022405 -0.00046164 -0.00024249 -0.13833 0.24191
-0.017555 0.018298 -0.0062828 -0.0087442
0.0040278 0.0050873 0.0042092 0.0007068 0.0028527 -0.001369 -0.01754 0.018341
-0.15143 0.14601 -0.024232 0.015379
-0.0029486 -0.0025499 0.0034445 0.00043877 0.0016561 0.004302 -0.0063022 -0.0087452
-0.024225 0.015358 -0.18879 0.19663
920000000 -0.096742 0.27178 0.0053308 0.037395 -0.0092276 -0.0042586 -0.0018956 0.0020646
0.0015455 0.0015944 0.002581 -0.0016227
0.005318 0.037361 -0.26029 0.31056 0.027909 0.021546 0.0015613 0.0010197
0.0070081 -0.00059658 0.0038584 -0.0029539
-0.0092415 -0.0042474 0.027997 0.021489 0.067447 0.31668 0.001857 -0.00018043
0.0013024 -0.00035591 0.00082574 -0.0011393
-0.001901 0.0020605 0.0015818 0.0010246 0.0018529 -0.00017769 -0.11445 0.2581
-0.010254 0.029883 0.0027423 -0.0065905
0.0015468 0.0016094 0.0070165 -0.00064671 0.0012994 -0.00035317 -0.010196 0.02991
-0.14087 0.15174 -0.00218 0.02715
0.002587 -0.0016431 0.0038397 -0.0029831 0.00082463 -0.0011476 0.0027361 -0.0066015
-0.0022059 0.027139 -0.1941 0.21089
980000000 -0.049444 0.29093 0.017619 0.029627 -0.0087983 0.0045643 0.0022449 0.0036807
0.0040601 -0.0017787 -0.0031023 -0.0021858
0.017599 0.029616 -0.20749 0.34441 0.032677 0.0045893 0.0019823 9.3194e-06
0.0014087 -0.0061946 -0.00056836 -0.0021613
-0.0087866 0.0045887 0.032704 0.0044864 0.11362 0.30985 0.00048255 -0.0012007
0.00020033 -0.0021432 0.0014249 -3.2519e-05
0.0022589 0.0036604 0.0019754 2.6111e-05 0.00048013 -0.0011982 -0.076217 0.26978
0.0072846 0.028719 -0.0090455 -0.0065177
0.0040447 -0.0017851 0.0013938 -0.0062225 0.0001966 -0.002135 0.0073513 0.028719
-0.10901 0.1791 0.0048638 0.018989
-0.0031062 -0.0021772 -0.00058441 -0.0021757 0.0014288 -3.3392e-05 -0.0090497 -0.0065033
0.0048452 0.018983 -0.15078 0.2557
1040000000 -0.0071161 0.29904 0.032963 0.017709 -0.0011933 0.0067324 0.0026488 0.00078402
5.9146e-05 -0.0036237 -0.00061961 -0.0016509
0.032939 0.017707 -0.17199 0.35721 0.0289 -0.014766 0.0014897 -0.0017078
-0.0024674 -0.0024092 -0.0013397 -0.0027762
-0.0011631 0.0067312 0.028853 -0.01487 0.15954 0.2959 -0.00049822 -0.001449
-0.0015387 -0.00087761 -0.00041479 -0.0011044
0.0026509 0.00076875 0.0015075 -0.0017052 -0.0004977 -0.0014563 -0.048844 0.27966
0.018257 0.017253 -0.0028631 0.0018186
3.4107e-05 -0.003602 -0.0024821 -0.00243 -0.0015403 -0.00086549 0.018311 0.017231
-0.077586 0.18725 0.013206 0.017878
-0.00061703 -0.0016351 -0.0013717 -0.0027788 -0.0004124 -0.0011086 -0.0028602 0.0018236
0.0132 0.017874 -0.12921 0.27474
1100000000 0.038222 0.30631 0.035367 -0.0045148 0.002804 0.0037279 0.0025359 -0.0013285
-0.0021511 -0.003057 -0.0039339 0.00014355
0.035354 -0.0044819 -0.12854 0.3739 0.014844 -0.027462 4.5267e-05 -0.0018211
-0.0032704 -0.00061378 -0.0033642 -0.00055387
0.0028227 0.0037197 0.01474 -0.02753 0.20557 0.27544 -0.0017966 0.00020784
-0.0017906 0.00059943 -0.0009444 -0.00033678
0.0025303 -0.0013377 5.2676e-05 -0.0018217 -0.0017938 0.00020843 -0.0084918 0.28471
0.022735 0.0049947 -0.0023905 0.00074076
-0.0021738 -0.0030352 -0.0032763 -0.00060506 -0.0017897 0.00060238 0.022758 0.0049579
-0.059165 0.20034 0.01843 0.0084104
-0.0039341 0.0001681 -0.0033811 -0.00053994 -0.00094414 -0.00033139 -0.0023949 0.00074962
0.018411 0.0084167 -0.082391 0.30271
1160000000 0.089555 0.30104 0.023455 -0.020634 0.0025737 -0.00041311 -0.00014031 -0.0024616
-0.0039732 -0.00051017 -0.00087214 0.0037961
0.02346 -0.020598 -0.084958 0.37791 -0.003756 -0.028702 -0.0017187 -0.0017046
-0.0025719 0.0025978 -0.0012191 0.0016361
0.0025781 -0.0004237 -0.0038907 -0.028705 0.24839 0.24469 -0.00068211 0.001699
-0.000457 0.0018643 -0.00096665 0.00010885
-0.00014319 -0.002463 -0.0017228 -0.0016849 -0.00068538 0.0017006 0.030788 0.28192
0.019346 -0.0095685 -0.002653 0.0055505
-0.0039895 -0.00047706 -0.0025599 0.0025998 -0.00046938 0.0018583 0.019346 -0.0095925
-0.026043 0.20919 0.017036 0.00067358
-0.00085095 0.0038107 -0.0012274 0.0016302 -0.00096774 0.00010922 -0.0026454 0.0055527
0.017031 0.00066936 -0.035594 0.30514
1220000000 0.13386 0.28946 0.010019 -0.029586 -0.0015658 -0.00067989 -4.3762e-05 -0.0011128
-0.0025399 0.0025506 0.0013344 0.001859
0.010036 -0.029553 -0.041031 0.38957 -0.016639 -0.02081 -0.0024887 0.00038682
0.00014504 0.0029205 -0.0007173 0.0017819
-0.0015629 -0.00067811 -0.016754 -0.02076 0.28747 0.20576 0.00082738 0.0016326
0.00056605 0.0011346 0.00023374 0.0007294
-4.9574e-05 -0.0011138 -0.0024875 0.00040272 0.00082391 0.0016399 0.070416 0.27368
0.0094791 -0.015406 0.002536 0.0017345
-0.0025432 0.0025613 0.00016237 0.0029164 0.00056303 0.001136 0.0094639 -0.015416
-0.0030529 0.21817 0.013307 -0.012018
0.0013428 0.0018613 -0.00071492 0.0017865 0.00023622 0.00073067 0.002536 0.0017298
0.013297 -0.012013 -0.0038042 0.32065
1280000000 0.18322 0.26698 -0.007875 -0.027903 -0.0017382 0.0025877 -0.0010179 -0.0019913
-0.00063301 0.0030539 0.0025356 0.0010399
-0.0078544 -0.027878 0.004577 0.3806 -0.023328 -0.0084084 -0.0010368 0.0014556
0.001644 0.0017061 0.00052287 0.0019502
-0.0017346 0.0025893 -0.023387 -0.0083141 0.31809 0.1621 0.0014448 -0.00012081
0.0010792 0.00010129 0.00029476 0.00038961
-0.001024 -0.0019886 -0.0010391 0.0014665 0.0014368 -0.00011629 0.10699 0.25773
0.00083128 -0.017243 0.0004451 0.00015795
-0.00062167 0.0030632 0.001662 0.0016911 0.0010805 0.0001007 0.00079742 -0.017246
0.033621 0.22192 0.0029201 -0.014035
0.0025386 0.0010262 0.00052924 0.0019488 0.00029638 0.0003902 0.00044659 0.00015999
0.0029253 -0.014032 0.043582 0.32089
1340000000 0.21993 0.23294 -0.017366 -0.018537 0.00095267 0.0043973 -0.0018794 -0.00079175
0.0014515 0.0026222 0.0017443 -0.0015238
-0.017345 -0.018533 0.043967 0.3725 -0.021321 0.0040886 -8.6982e-05 0.0020144
0.0017736 0.00069636 0.0013282 0.00091849
0.0009813 0.0043972 -0.021328 0.0041979 0.34038 0.11397 0.0010093 -0.0008521
0.00066535 -0.0003841 0.00015764 0.00025132
-0.0018812 -0.00078371 -7.9293e-05 0.0020141 0.0010111 -0.00084451 0.14004 0.23771
-0.0074551 -0.014639 0.0012505 0.00010714
0.0014697 0.0026039 0.0017801 0.0006861 0.00066367 -0.0003854 -0.0074862 -0.014626
0.063654 0.21738 -0.0031275 -0.012839
0.0017351 -0.0015242 0.0013355 0.00090482 0.00016156 0.0002522 0.0012463 0.00010242
-0.0031252 -0.012841 0.081899 0.31558
1400000000 0.25249 0.19454 -0.02291 -0.007332 0.0051689 0.0029775 -0.0020144 0.00067783
0.0024816 0.00076869 0.00020527 -0.0014496
-0.022884 -0.0073354 0.081013 0.35957 -0.014689 0.012137 0.0013564 0.0013175
0.0010764 -0.00080243 0.0012183 0.00022629
0.005187 0.002955 -0.014653 0.012224 0.35359 0.060167 0.00011734 -0.0014524
5.027e-05 -0.00031747 0.00037458 0.00010943
-0.0020113 0.00068494 0.0013666 0.0013076 0.00012 -0.0014515 0.16992 0.20928
-0.012639 -0.0086569 -0.00055168 -0.00072418
0.0024925 0.00074736 0.001072 -0.00080708 4.6255e-05 -0.00031965 -0.012658 -0.0086282
0.096453 0.21278 -0.0092872 -0.0083306
0.00019906 -0.001457 0.0012194 0.00021938 0.00037432 0.00010848 -0.00054895 -0.00072409
-0.009279 -0.0083273 0.12598 0.30404
1460000000 0.2749 0.15047 -0.020025 0.0045303 0.0055326 -0.0017861 -0.0015044 0.0017296
0.0020007 -0.00069378 -0.00036183 -0.00086763
-0.020007 0.0045171 0.11543 0.33791 -0.0062284 0.015059 0.0017582 0.00017345
0.00090351 -0.001169 0.0012264 -0.00064679
0.0055156 -0.0018134 -0.0061628 0.015103 0.35947 0.0054439 -0.0010881 -0.0012511
0.00021262 -8.277e-05 0.00071201 -0.00037626
-0.0015058 0.0017446 0.0017579 0.00016615 -0.0010873 -0.0012519 0.19701 0.1802
-0.013502 -0.0030349 -0.0011141 0.0014503
0.0019895 -0.00071014 0.00089457 -0.0011679 0.00021271 -8.2445e-05 -0.013514 -0.0030004
0.12623 0.19818 -0.011023 -0.0030018
-0.00035367 -0.00085657 0.0012212 -0.00064938 0.00071088 -0.00037071 -0.0011056 0.001462
-0.01101 -0.0029946 0.15925 0.28255
1520000000 0.28677 0.10886 -0.01452 0.010001 0.003109 -0.0042027 9.6224e-05 0.0025602
0.0018004 -0.001679 -0.0011813 -9.6188e-05
-0.014519 0.0099965 0.14912 0.32301 0.001345 0.013015 0.0016232 -0.00083642
8.5325e-05 -0.00093778 0.00031404 -0.0010612
0.0030916 -0.0042179 0.0014152 0.013014 0.35248 -0.050993 -0.00098735 -0.00038467
0.00057825 -0.00084157 -6.6775e-05 -7.3475e-05
0.0001005 0.0025619 0.001621 -0.00084355 -0.00098598 -0.00038285 0.22089 0.14196
-0.013155 0.0018456 0.0010497 0.0017851
0.0017894 -0.0016912 8.0793e-05 -0.00094187 0.0005752 -0.00084687 -0.013153 0.00188
0.1543 0.18376 -0.011125 0.0011507
-0.0011799 -8.9423e-05 0.00031076 -0.0010633 -6.7694e-05 -7.526e-05 0.0010635 0.0017826
-0.011127 0.0011464 0.19206 0.26138
1580000000 0.2958 0.062673 -0.0080946 0.013045 -0.00097603 -0.0047996 0.0013698 0.001831
-0.00039326 -0.0020966 -0.00040699 0.00043663
-0.0080905 0.013031 0.17655 0.29815 0.0050021 0.0083276 0.00044418 -0.0016026
-0.00041997 -0.0010593 -0.00025585 -0.00088947
-0.0010018 -0.0048085 0.0050573 0.0083106 0.33179 -0.10855 -0.0015601 0.00046307
-0.00026176 -0.0011791 0.00012125 -0.0005489
0.0013883 0.0018224 0.0004386 -0.001612 -0.0015662 0.00046125 0.23553 0.1021
-0.010446 0.006154 0.0019098 0.00068635
-0.00040941 -0.0020933 -0.00042232 -0.0010619 -0.00025668 -0.0011768 -0.010438 0.0061802
0.17896 0.16543 -0.0090021 0.0065531
-0.00040641 0.00044106 -0.00026321 -0.00088711 0.00011916 -0.0005488 0.0019129 0.00068368
-0.0089987 0.0065495 0.22359 0.23395
1640000000 0.29769 0.021252 -0.0015995 0.012085 -0.002767 -0.0025199 0.0025655 0.0010295
-0.00081697 -0.0012644 -0.00025465 0.00066913
-0.0015993 0.012082 0.20621 0.27271 0.0057607 0.0035827 -0.0007464 -0.0016785
-0.00098294 -0.00050251 -0.00055439 -0.00066559
-0.0027865 -0.0025141 0.0057897 0.0035495 0.30341 -0.1578 -0.00080057 0.0013684
-0.0010554 -0.00094388 -0.00014478 -0.00034069
0.0025838 0.0010224 -0.00075624 -0.0016733 -0.00080446 0.0013786 0.24827 0.052302
-0.0068351 0.0073996 0.0022013 -0.00065689
-0.00082786 -0.0012564 -0.00098797 -0.00050254 -0.0010567 -0.0009412 -0.00682 0.0074233
0.20209 0.14026 -0.0046652 0.0086411
-0.00024988 0.00067198 -0.0005633 -0.00066467 -0.00014724 -0.00034243 0.0021912 -0.00066011
-0.0046661 0.008645 0.24889 0.20216
1700000000 0.29016 -0.024075 0.0018125 0.0094811 -0.0034504 0.00015302 0.0029714 -0.0011092
-0.0019184 -0.00052761 0.00068421 0.00043375
0.0018037 0.009477 0.22425 0.2408 0.0038798 0.00076674 -0.0014363 -0.00052755
-0.00085779 -4.3928e-07 -0.00096021 -0.0004055
-0.0034477 0.00016575 0.003885 0.00074544 0.25946 -0.19764 0.000381 0.0016215
-0.0018157 -0.00020065 -0.00056223 -0.00091982
0.0029683 -0.0011231 -0.0014415 -0.00052372 0.00038084 0.0016239 0.24482 0.0012962
-0.0045534 0.0080819 0.0013113 -0.0020627
-0.0019297 -0.00051539 -0.0008537 4.4863e-06 -0.001812 -0.00020047 -0.0045251 0.0080998
0.21959 0.11891 -0.00033873 0.009124
0.00069199 0.00043051 -0.00096546 -0.00039879 -0.00057058 -0.00092573 0.0013081 -0.0020633
-0.00033149 0.0091299 0.26459 0.16742
1760000000 0.27769 -0.072661 0.0042119 0.0063293 -0.0022142 0.00087639 0.0013284 -0.0033522
-0.0011157 0.00065516 0.00043424 -0.00053514
0.0042037 0.0063272 0.25005 0.20047 0.0017359 -0.0010488 -0.0011217 0.00023475
-0.0011774 0.0009137 -0.00061639 0.00054917
-0.0022049 0.00089046 0.0017316 -0.0010556 0.21041 -0.23044 0.0011416 0.0012533
-0.0012184 0.0013769 -0.0012864 -0.00040567
0.0013191 -0.0033574 -0.0011275 0.00025006 0.0011484 0.0012576 0.23469 -0.050967
-0.0016333 0.0075017 -0.00040644 -0.0022927
-0.0011172 0.00066729 -0.0011761 0.00092027 -0.0012148 0.0013802 -0.0016151 0.0075053
0.23451 0.08245 0.0034558 0.0067454
0.00042912 -0.00054115 -0.00062015 0.00055887 -0.0012906 -0.00039093 -0.00041386 -0.0022945
0.0034567 0.0067437 0.27659 0.12929
1820000000 0.25259 -0.11016 0.0045068 0.0027795 -1.0592e-05 0.0023698 -0.00089354 -0.0031535
-0.00083855 0.00070986 -4.39e-05 -0.00018051
0.0045069 0.0027799 0.25953 0.16997 -0.00024956 -2.393e-05 -0.0013105 0.00087851
-0.00011503 0.0014014 -0.00051995 0.00057424
5.0036e-06 0.0023687 -0.00024683 -2.0999e-05 0.16016 -0.24597 0.0016212 0.0003701
-0.00033413 0.0022022 -0.0014 0.00048264
-0.00090985 -0.003147 -0.0013047 0.00089025 0.0016193 0.00037611 0.20335 -0.098395
-0.00035206 0.006086 -0.0015772 -0.0013283
-0.00083131 0.00071766 -9.9791e-05 0.0013917 -0.00033443 0.0022063 -0.00034068 0.0060919
0.2509 0.051624 0.0044088 0.0035152
-4.5591e-05 -0.00018236 -0.00051127 0.00058275 -0.0013946 0.00048919 -0.0015848 -0.0013193
0.0044149 0.0035107 0.27795 0.092711
1880000000 0.21695 -0.15015 0.0023739 0.00046318 -0.00045736 0.0020412 -0.0028748 -0.0022967
-0.00017928 0.0014794 0.00023754 -0.00051597
0.0023693 0.00045867 0.26338 0.12326 -0.0022017 0.0015979 -0.00011074 0.0016635
0.00069896 0.0013988 0.00023405 0.00095882
-0.0004497 0.0020448 -0.0021879 0.0016184 0.10818 -0.25531 0.001985 -0.00097571
0.0015331 0.0020659 -0.00087097 0.0013492
-0.0028867 -0.0022807 -0.00010285 0.0016646 0.0019854 -0.00098629 0.1614 -0.1377
-2.6372e-05 0.0045267 -0.0022668 0.00064515
-0.00016966 0.001486 0.00071733 0.0013961 0.0015345 0.0020672 -8.86e-06 0.0045209
0.2525 0.017423 0.004288 0.0015554
0.00023106 -0.00051757 0.0002354 0.00095525 -0.00086774 0.0013576 -0.0022634 0.00063713
0.0042842 0.0015632 0.2768 0.058603
1940000000 0.17708 -0.17579 0.0001661 -0.0013186 0.0012903 0.0019637 -0.0037273 0.000532
0.0011699 0.0010715 -0.00065345 -0.00052423
0.00016927 -0.0013214 0.26335 0.091392 -0.0011614 0.0038629 0.00098097 0.0013171
0.0020072 0.00055822 0.00091696 0.00026428
0.0012951 0.001949 -0.0011359 0.0038753 0.062183 -0.24866 0.00032622 -0.0023174
0.0024453 0.00051293 0.00044221 0.0016308
-0.0037264 0.00055581 0.00098632 0.001305 0.00033078 -0.0023202 0.10834 -0.16698
-0.0011661 0.0035992 -0.0013325 0.0017537
0.0011753 0.0010611 0.0020116 0.0005415 0.0024514 0.00050815 -0.0011623 0.0036045
0.25243 -0.023227 0.0031199 -0.0015788
-0.00066176 -0.00051743 0.0009212 0.00025339 0.00044328 0.0016312 -0.0013261 0.0017651
0.003125 -0.0015784 0.2649 0.022411
2000000000 0.13035 -0.18976 -0.0037728 0.00071891 0.002447 0.0015839 -0.0023866 0.0037047
0.00094174 0.00027241 -0.00064798 0.00042944
-0.0037682 0.00071409 0.24849 0.056177 -0.00086159 0.005746 0.0016084 0.00035408
0.0014852 -0.0014788 0.00048711 9.2882e-05
0.0024565 0.0015587 -0.00082065 0.0057652 0.018842 -0.23403 -0.0014474 -0.0013909
0.0020415 -0.0012734 0.0016181 0.0012347
-0.0023651 0.0037158 0.0016088 0.00034729 -0.001445 -0.0013992 0.055044 -0.17519
-0.0026098 0.0041833 0.00019894 0.0022012
0.00093274 0.00026558 0.0014751 -0.001499 0.002037 -0.0012809 -0.0025936 0.0041934
0.24386 -0.057817 0.00019603 -0.0021985
