!Keysight Technologies,M9804A,MY58100912,A.14.10.03
!Date: Thursday, April 27, 2023 10:28:33
!Correction: S11(C  6-Port  ) 
!S12(C  6-Port  ) 
!S13(C  6-Port  ) 
!S14(C  6-Port  ) 
!S15(C  6-Port  ) 
!S16(C  6-Port  ) 
!S21(C  6-Port  ) 
!S22(C  6-Port  ) 
!S23(C  6-Port  ) 
!S24(C  6-Port  ) 
!S25(C  6-Port  ) 
!S26(C  6-Port  ) 
!S31(C  6-Port  ) 
!S32(C  6-Port  ) 
!S33(C  6-Port  ) 
!S34(C  6-Port  ) 
!S35(C  6-Port  ) 
!S36(C  6-Port  ) 
!S41(C  6-Port  ) 
!S42(C  6-Port  ) 
!S43(C  6-Port  ) 
!S44(C  6-Port  ) 
!S45(C  6-Port  ) 
!S46(C  6-Port  ) 
!S51(C  6-Port  ) 
!S52(C  6-Port  ) 
!S53(C  6-Port  ) 
!S54(C  6-Port  ) 
!S55(C  6-Port  ) 
!S56(C  6-Port  ) 
!S61(C  6-Port  ) 
!S62(C  6-Port  ) 
!S63(C  6-Port  ) 
!S64(C  6-Port  ) 
!S65(C  6-Port  ) 
!S66(C  6-Port  ) 
!S6P File: Measurement: :
# Hz S  RI   R 50
500000000 -0.33841 -0.036879 -0.010279 -0.0031458 -0.0078605 0.012283 -0.0037308 0.011631
0.012033 0.0045273 -0.0039728 0.0080626
-0.010355 -0.0031447 -0.41946 -0.05013 0.0076296 -0.010853 0.0015734 0.012136
0.007218 0.0022272 0.00075365 0.013241
-0.0078955 0.012291 0.007618 -0.010857 -0.26536 0.21107 0.0069922 0.0034614
-0.00067694 0.0086472 0.00040769 0.012347
-0.0036938 0.011631 0.0015945 0.012191 0.0069902 0.0034586 -0.32784 0.045975
-0.020669 -0.0046231 0.017962 0.025482
0.012028 0.0045003 0.0071817 0.0022617 -0.00067064 0.0086657 -0.020633 -0.004593
-0.22686 -0.18642 -0.028158 0.0043657
-0.0039389 0.008034 0.00079128 0.013349 0.00042674 0.012362 0.017925 0.025482
-0.028243 0.0043369 -0.27209 -0.11726
560000000 -0.31757 0.12438 -0.023489 -0.062447 0.00027089 0.012291 0.0064955 0.010135
0.010134 0.0045693 0.010383 0.0080371
-0.023462 -0.062389 -0.37663 0.1084 -0.042084 -0.036411 0.013419 0.003703
-0.01322 -0.0043431 0.0040532 -0.00049372
0.00034527 0.012256 -0.042227 -0.036393 -0.18311 0.25899 -0.00024599 -0.0045257
0.019215 0.00475 0.0069852 -0.0061179
0.0064878 0.010097 0.013414 0.0037583 -0.00020395 -0.0045455 -0.30343 0.13531
0.0039781 -0.024509 0.0046042 -0.019616
0.010169 0.0045521 -0.013191 -0.0043222 0.019322 0.0047365 0.0039568 -0.024486
-0.28745 -0.010476 0.0074769 -0.050284
0.0104 0.0080514 0.0041074 -0.00055322 0.0069639 -0.0060955 0.0046247 -0.019682
0.0074546 -0.050318 -0.33184 0.029981
620000000 -0.27489 0.10933 -0.022708 0.0078133 0.0037893 0.0081976 0.0068104 -0.0053695
0.01155 -0.00025757 0.0002705 -0.0018562
-0.022711 0.0078017 -0.40289 0.061748 -0.018593 7.0494e-05 -0.0010622 -0.0019078
0.010662 -0.0070123 0.0012029 -0.0025645
0.0037926 0.0082314 -0.018572 0.00013033 -0.15281 0.26797 -0.0014067 -0.0051124
-0.003414 -0.0032275 0.0082196 -0.003379
0.0068176 -0.0053858 -0.0010944 -0.0018774 -0.00148 -0.0051324 -0.26274 0.14613
-0.039053 -0.018848 0.014184 0.024594
0.011524 -0.00028315 0.010691 -0.0071115 -0.0033632 -0.0032471 -0.039098 -0.018856
-0.2058 -0.049457 -0.040824 0.014517
0.0002094 -0.0019493 0.0012282 -0.0025224 0.0082219 -0.0032796 0.014169 0.02458
-0.040893 0.014508 -0.25068 -0.005994
680000000 -0.23396 0.19454 -0.027418 -0.013851 0.0049338 0.0047727 0.0013438 -0.007415
-0.0028597 -0.011147 0.004687 -0.0068394
-0.027368 -0.013836 -0.38742 0.15919 -0.032506 -0.0013757 -0.0015891 -0.00030808
-0.0025842 -0.0090607 -0.0010026 -0.0020742
0.0049773 0.0047707 -0.032542 -0.0013065 -0.10176 0.28743 -0.00073751 1.202e-05
-0.0022349 0.00038022 -0.0028613 -0.0095755
0.0013163 -0.0074503 -0.0016065 -0.00033511 -0.0007451 8.7703e-06 -0.2199 0.1954
-0.02369 -0.0079081 -0.0090082 -0.010413
-0.0029142 -0.011131 -0.0025949 -0.0090535 -0.0022104 0.00037493 -0.023701 -0.0078667
-0.25458 0.049235 -0.0056892 -0.0091719
0.0046481 -0.0068314 -0.0010463 -0.0020642 -0.0028606 -0.0095776 -0.0090375 -0.010365
-0.0056886 -0.0092071 -0.2587 0.096837
740000000 -0.18956 0.18914 -0.038341 0.026621 0.01245 -0.0053743 -0.00069072 -0.0040035
-0.0043988 -0.0031482 -0.0065105 0.0033186
-0.038274 0.026596 -0.33458 0.17761 -0.034769 0.03506 -0.00073947 -0.0065278
-0.012069 0.0076952 -0.0026637 -0.0059461
0.012439 -0.0054228 -0.034743 0.035215 -0.068051 0.28588 -0.0016951 0.0033652
-0.0027639 -0.0043243 -0.0014413 0.00013222
-0.00070451 -0.0039852 -0.00071423 -0.0065427 -0.0017171 0.0033874 -0.2027 0.20321
-0.042446 -0.0080938 0.022144 0.013891
-0.0043893 -0.0031035 -0.012086 0.0077537 -0.0027212 -0.0042887 -0.04251 -0.0080541
-0.15856 0.07484 -0.041283 0.00045899
-0.0065181 0.0033342 -0.0026229 -0.0059686 -0.0014173 0.00010777 0.022161 0.013815
-0.041389 0.0004891 -0.24727 0.10319
800000000 -0.15657 0.22896 -0.022258 0.016912 0.0050772 -0.010438 -0.0047728 -0.001924
-0.0041054 0.0026297 0.0044029 0.0010539
-0.022251 0.016878 -0.33752 0.24812 -0.0078018 0.033862 -0.0021836 0.0022745
-0.00097064 0.0032174 0.0010809 0.0053034
0.0050648 -0.010461 -0.0077144 0.033914 -0.02701 0.3087 0.0010209 0.0016254
0.0005434 0.0036673 -0.0017981 0.00092324
-0.0047972 -0.0019138 -0.0021681 0.0022835 0.0010365 0.001636 -0.17447 0.23067
-0.028001 0.01269 0.013049 -0.0098723
-0.0041079 0.0026564 -0.00094747 0.0032315 0.00056421 0.0036548 -0.027991 0.012736
-0.2017 0.097915 -0.016926 0.017705
0.0044078 0.0010476 0.0011353 0.0052887 -0.0017941 0.00094376 0.013034 -0.0098963
-0.016967 0.01772 -0.23891 0.15426
860000000 -0.12163 0.24903 -0.017104 0.030731 -0.0033272 -0.0097148 -0.0023104 0.0010057
0.003925 0.0051202 -0.0029833 -0.0025024
-0.017099 0.03071 -0.28938 0.28989 0.0080445 0.033946 0.00010354 0.0021608
0.0041072 0.0006639 0.0034787 0.00051714
-0.0033458 -0.0097046 0.0081407 0.033944 0.021227 0.31641 -0.00043921 -0.00022897
0.0028654 -0.0013807 0.0016585 0.0043049
-0.0023322 0.001021 0.00010709 0.0021609 -0.00045005 -0.0002304 -0.13832 0.24193
-0.017629 0.018286 -0.0062368 -0.008736
0.0039564 0.0050877 0.0040918 0.00064761 0.0028591 -0.0014031 -0.017614 0.018335
-0.1514 0.14621 -0.024148 0.015531
-0.0029773 -0.0024638 0.0034328 0.00053054 0.0016591 0.0042983 -0.0062483 -0.0087521
-0.024142 0.015519 -0.18881 0.19631
920000000 -0.096683 0.27166 0.0053495 0.037408 -0.0092158 -0.0042924 -0.0018469 0.0020514
0.0015239 0.0016634 0.0025091 -0.0016412
0.0053344 0.037382 -0.26036 0.31055 0.027908 0.021589 0.0015516 0.0010355
0.0070038 -0.00065983 0.0038696 -0.0029686
-0.0092347 -0.0042563 0.027996 0.02151 0.067464 0.31666 0.0018691 -0.00015354
0.0012619 -0.00036227 0.00082573 -0.0011561
-0.0018344 0.0020613 0.0015667 0.0010497 0.0018654 -0.00015518 -0.11437 0.25816
-0.010236 0.029843 0.0027602 -0.0067134
0.0015448 0.0016412 0.0070289 -0.0006714 0.0012647 -0.00036895 -0.010166 0.029889
-0.14084 0.1516 -0.0021031 0.027186
0.0025179 -0.0016888 0.0038549 -0.0029795 0.00082272 -0.0011622 0.002775 -0.0066764
-0.0021018 0.027175 -0.19418 0.21071
980000000 -0.04945 0.29086 0.017625 0.029637 -0.0087952 0.0045479 0.0022153 0.0036522
0.0040786 -0.0017616 -0.0031026 -0.0021712
0.017584 0.029638 -0.20752 0.34432 0.032673 0.0046023 0.0019648 5.0166e-06
0.0014635 -0.0062194 -0.00056988 -0.002168
-0.0087938 0.0045814 0.032724 0.0044806 0.11361 0.30983 0.00048127 -0.0012004
0.00017869 -0.0021215 0.0014129 -3.0566e-05
0.0022288 0.0036317 0.0019699 1.6898e-05 0.00048561 -0.0012004 -0.076158 0.26974
0.0073009 0.028688 -0.0090706 -0.0065333
0.0040692 -0.0017854 0.0014016 -0.0062233 0.00017038 -0.0021279 0.0073637 0.028691
-0.10894 0.17912 0.0049605 0.019069
-0.0030996 -0.0021774 -0.00058266 -0.002173 0.0014008 -2.7841e-05 -0.0090813 -0.006515
0.0049642 0.019068 -0.151 0.2556
1040000000 -0.0071393 0.29893 0.033006 0.017706 -0.001196 0.0067292 0.0026225 0.00080502
5.7648e-05 -0.0035981 -0.00063752 -0.0016679
0.032985 0.017738 -0.172 0.35717 0.028912 -0.014731 0.0015015 -0.0016932
-0.0024798 -0.0024876 -0.0013562 -0.0027831
-0.0011744 0.0067464 0.028861 -0.014863 0.15954 0.29583 -0.00048995 -0.0014651
-0.001556 -0.0008461 -0.00042742 -0.0011041
0.0026241 0.00079505 0.0015076 -0.0016817 -0.00050092 -0.0014864 -0.048788 0.27958
0.018276 0.017254 -0.0028586 0.0017658
3.3744e-05 -0.0036167 -0.0025146 -0.0024512 -0.0015619 -0.00085702 0.018318 0.017228
-0.077532 0.18716 0.013362 0.017873
-0.00063623 -0.0016655 -0.0013953 -0.0028155 -0.00042053 -0.001102 -0.0028536 0.0017703
0.013365 0.017888 -0.12938 0.27466
1100000000 0.038131 0.30622 0.035429 -0.0045225 0.002801 0.0037339 0.0025206 -0.0012954
-0.0021553 -0.0030555 -0.0039513 0.00015718
0.03541 -0.0044887 -0.1286 0.37389 0.014849 -0.027433 5.9679e-05 -0.0018185
-0.0032801 -0.00065355 -0.0033911 -0.00053223
0.0028154 0.0037415 0.01476 -0.027518 0.20549 0.27542 -0.0017842 0.0001928
-0.0017812 0.0006061 -0.00097033 -0.00030244
0.0025127 -0.001312 5.7383e-05 -0.0018192 -0.001782 0.00019866 -0.008468 0.28459
0.022751 0.0049664 -0.0024111 0.00068767
-0.0021747 -0.0030458 -0.0032874 -0.00064437 -0.0017763 0.0006082 0.022779 0.0049343
-0.05915 0.20014 0.018576 0.0083678
-0.0039713 0.00018184 -0.0034046 -0.00052567 -0.00096746 -0.00030599 -0.0024084 0.0006909
0.018561 0.0083655 -0.082505 0.30264
1160000000 0.089475 0.30101 0.023513 -0.020693 0.0025979 -0.0004153 -0.00011981 -0.0024207
-0.0039954 -0.00052713 -0.00093212 0.0037941
0.023511 -0.020633 -0.085074 0.37792 -0.0037276 -0.028654 -0.001707 -0.0017144
-0.0026135 0.0025866 -0.001235 0.0016402
0.0025918 -0.00041637 -0.0038635 -0.028678 0.24835 0.24471 -0.00069184 0.0016879
-0.00043645 0.0018542 -0.00093098 0.00011618
-0.00011601 -0.0024305 -0.0017008 -0.001707 -0.00067977 0.0016884 0.030729 0.28179
0.019346 -0.0095903 -0.0027174 0.0055049
-0.0039915 -0.00050662 -0.0026071 0.0026197 -0.00044416 0.0018485 0.019338 -0.009606
-0.026133 0.20905 0.017202 0.00053285
-0.00091538 0.0038147 -0.0012395 0.0016588 -0.00093452 0.00012516 -0.0027082 0.0055241
0.017204 0.00054475 -0.035713 0.30519
1220000000 0.13377 0.28945 0.010015 -0.029678 -0.0015622 -0.00067726 -9.1013e-06 -0.0010983
-0.0025598 0.0025332 0.001359 0.0018919
0.010026 -0.029631 -0.041109 0.38964 -0.016613 -0.020801 -0.0024987 0.00036282
0.00014696 0.0029394 -0.00071688 0.0018069
-0.0015689 -0.00067512 -0.016725 -0.020761 0.2874 0.20579 0.00081469 0.0016467
0.00054464 0.0011534 0.00027762 0.00073824
-1.2518e-05 -0.0010979 -0.0024961 0.00037769 0.00082619 0.0016509 0.070334 0.2736
0.0094666 -0.015423 0.0024814 0.0017271
-0.0025401 0.0025525 0.00015881 0.0029459 0.00054648 0.0011433 0.0094577 -0.015433
-0.0032063 0.218 0.013374 -0.012211
0.001357 0.0018909 -0.00072184 0.0018126 0.00027323 0.00073648 0.0024693 0.0017392
0.01337 -0.012207 -0.0038915 0.32069
1280000000 0.18318 0.267 -0.007938 -0.027973 -0.0017462 0.0025754 -0.001002 -0.0020182
-0.00064929 0.0030616 0.0025399 0.0010376
-0.0079267 -0.027945 0.0045464 0.38069 -0.023291 -0.0084219 -0.0010513 0.0014636
0.0016727 0.0017235 0.00053836 0.0019334
-0.0017426 0.0025838 -0.023362 -0.008329 0.31811 0.16213 0.0014352 -0.00011583
0.001069 9.576e-05 0.00032172 0.00036854
-0.0010141 -0.0020073 -0.001054 0.0014671 0.0014428 -0.00011415 0.10684 0.25767
0.00080013 -0.017275 0.0003877 0.00020179
-0.00063339 0.0030676 0.0016895 0.0017127 0.0010653 8.6381e-05 0.00076768 -0.017283
0.033445 0.2218 0.0028652 -0.014286
0.00254 0.0010371 0.00054791 0.0019549 0.00032112 0.00036454 0.00039465 0.00019572
0.0028837 -0.014277 0.043548 0.32096
1340000000 0.21992 0.23296 -0.017482 -0.018565 0.00095738 0.004385 -0.0018864 -0.00082989
0.0014483 0.0026555 0.001769 -0.0015185
-0.017448 -0.018562 0.043978 0.37254 -0.021297 0.004059 -9.7479e-05 0.002038
0.0018079 0.00069163 0.0013275 0.00091743
0.00097536 0.0043867 -0.0213 0.0041669 0.34044 0.11402 0.0010187 -0.00085156
0.00067119 -0.00039496 0.00015194 0.00023998
-0.0018874 -0.00082167 -9.7464e-05 0.0020348 0.0010288 -0.00085595 0.13987 0.23771
-0.0074963 -0.014678 0.0012124 0.00017267
0.0014699 0.0026486 0.0018172 0.00068136 0.00067405 -0.00039648 -0.0075233 -0.014672
0.063545 0.2173 -0.0033061 -0.013002
0.0017502 -0.0015249 0.0013305 0.00089876 0.00015285 0.00023482 0.0012204 0.00017512
-0.0032845 -0.012985 0.081896 0.31557
1400000000 0.25245 0.19454 -0.023029 -0.0072765 0.0051845 0.0029784 -0.0020411 0.00066566
0.0025063 0.00077909 0.00023679 -0.0014715
-0.022999 -0.0072938 0.081047 0.3596 -0.014689 0.01209 0.0013681 0.0013328
0.0010932 -0.00083072 0.0012217 0.00022868
0.0051987 0.0029548 -0.01465 0.01218 0.35357 0.060163 0.0001159 -0.0014601
6.5372e-05 -0.00031351 0.00038258 0.00013778
-0.002041 0.0006738 0.0013768 0.0013261 0.00012632 -0.0014594 0.1698 0.20933
-0.012722 -0.0086633 -0.00052251 -0.00065111
0.002508 0.00076394 0.0010878 -0.00082865 7.1888e-05 -0.00032391 -0.01273 -0.0086364
0.096221 0.21269 -0.0095485 -0.0083771
0.00023232 -0.0014674 0.0012239 0.00021094 0.00037336 0.00013304 -0.00052025 -0.00065559
-0.0095288 -0.0083902 0.12592 0.30394
1460000000 0.27488 0.15043 -0.020092 0.0046647 0.0055352 -0.0017945 -0.0015345 0.0017529
0.0020169 -0.00068916 -0.00036481 -0.00088409
-0.020075 0.0046443 0.11545 0.33786 -0.0062565 0.015034 0.0017609 0.00016857
0.00088996 -0.0011921 0.0012365 -0.00065829
0.0055293 -0.0018224 -0.0061976 0.015091 0.35953 0.0054336 -0.0011079 -0.0012686
0.0002022 -0.00011245 0.00071499 -0.00038062
-0.0015274 0.0017528 0.0017705 0.00016013 -0.0010937 -0.0012682 0.19687 0.1803
-0.013584 -0.0029725 -0.0010517 0.0014765
0.002007 -0.0006993 0.00088729 -0.0011973 0.00020713 -0.00010331 -0.013603 -0.0029468
0.12599 0.19809 -0.01125 -0.0029288
-0.00036456 -0.00087781 0.001234 -0.00065661 0.00072967 -0.0003766 -0.0010399 0.0014872
-0.01125 -0.002937 0.15915 0.28238
1520000000 0.28671 0.10883 -0.014516 0.01014 0.0031115 -0.004212 9.5244e-05 0.0025916
0.001816 -0.0016992 -0.0012021 -0.00010624
-0.01451 0.010119 0.14909 0.32293 0.0013041 0.012999 0.0016348 -0.0008514
6.9994e-05 -0.00094866 0.0003263 -0.00106
0.0030984 -0.0042264 0.0013709 0.013018 0.35246 -0.051042 -0.00099962 -0.00038965
0.00058182 -0.00083564 -7.7345e-05 -6.6575e-05
0.0001007 0.0025897 0.0016406 -0.00086149 -0.00099356 -0.00039276 0.22082 0.14209
-0.01319 0.0019355 0.0011033 0.0017709
0.0018139 -0.0017166 6.4237e-05 -0.00094645 0.00058402 -0.00083509 -0.013187 0.0019676
0.15405 0.18372 -0.011287 0.0013394
-0.0012103 -8.9638e-05 0.00031154 -0.0010647 -7.3426e-05 -6.2355e-05 0.0011053 0.0017687
-0.01129 0.0013286 0.19186 0.26123
1580000000 0.29569 0.062639 -0.0080076 0.01316 -0.00096239 -0.0048114 0.0014161 0.0018562
-0.00041117 -0.0021516 -0.00042422 0.00044445
-0.0080052 0.013136 0.17646 0.29809 0.004974 0.0083407 0.00043822 -0.0016172
-0.00044845 -0.0010387 -0.00025521 -0.00088562
-0.0009838 -0.0048024 0.0050221 0.0083244 0.33182 -0.10859 -0.0015615 0.00046443
-0.00026938 -0.001183 0.00012245 -0.0005241
0.0014236 0.0018453 0.00042247 -0.0016277 -0.0015583 0.00045607 0.23551 0.10222
-0.010414 0.0062466 0.0019434 0.00065282
-0.000425 -0.002147 -0.00045294 -0.0010385 -0.00027837 -0.0011758 -0.010417 0.0062765
0.17866 0.16552 -0.009053 0.0067735
-0.00041295 0.00044823 -0.00026569 -0.00088862 0.00012489 -0.00052286 0.0019454 0.00065807
-0.0090482 0.0067747 0.22327 0.23388
1640000000 0.29754 0.02129 -0.0014661 0.012121 -0.0027804 -0.0025456 0.0026004 0.0010177
-0.00085206 -0.0012649 -0.00025004 0.0006951
-0.0014758 0.012115 0.20608 0.2727 0.0057462 0.0036074 -0.00076669 -0.0016794
-0.00098048 -0.00048591 -0.00057057 -0.00068035
-0.0027882 -0.0025286 0.0057716 0.0035798 0.30337 -0.15789 -0.00077912 0.0013636
-0.0010649 -0.00094473 -0.00016119 -0.00034858
0.0026046 0.0010129 -0.00077713 -0.0016735 -0.00077535 0.0013563 0.24829 0.052434
-0.0067661 0.0074704 0.0021987 -0.00068035
-0.00085564 -0.0012628 -0.0009884 -0.00047865 -0.0010784 -0.00095119 -0.0067546 0.0074847
0.20183 0.1404 -0.0046257 0.0088733
-0.00023863 0.00069326 -0.00056529 -0.00067362 -0.0001709 -0.00035368 0.0022054 -0.00068551
-0.0046267 0.0088697 0.2485 0.20219
1700000000 0.29002 -0.023965 0.0019269 0.0094454 -0.0034687 0.00014643 0.0029923 -0.0011434
-0.0019408 -0.00049715 0.00070922 0.00042917
0.0019267 0.0094467 0.22413 0.24085 0.0038907 0.00078537 -0.0014445 -0.00051062
-0.00082726 5.3809e-06 -0.00097157 -0.00041458
-0.0034667 0.00017433 0.0039008 0.00076427 0.2594 -0.19762 0.00036435 0.0016055
-0.001804 -0.00018636 -0.00055918 -0.00091741
0.0029864 -0.0011499 -0.0014474 -0.00051459 0.00036434 0.0016133 0.2449 0.0014191
-0.0044583 0.0081124 0.0013072 -0.0020762
-0.0019529 -0.00048551 -0.00082789 1.8436e-05 -0.0018097 -0.00019167 -0.0044485 0.0081301
0.21932 0.11915 -0.00020158 0.009298
0.00071455 0.00041966 -0.00097642 -0.00039763 -0.00056953 -0.00092729 0.0013055 -0.0020762
-0.00019344 0.009299 0.26424 0.1676
1760000000 0.27762 -0.072447 0.0042905 0.006243 -0.0022289 0.000901 0.0013009 -0.0033755
-0.0011288 0.00068019 0.0004163 -0.00056453
0.0042764 0.0062429 0.24996 0.20057 0.0017622 -0.0010251 -0.0011193 0.00026148
-0.0011676 0.00089462 -0.00062382 0.00057597
-0.0022207 0.00091011 0.0017645 -0.001035 0.21033 -0.23039 0.0011278 0.0012288
-0.0012029 0.0013995 -0.001314 -0.00039468
0.0012828 -0.0033821 -0.0011237 0.00026686 0.0011337 0.0012445 0.23482 -0.050931
-0.0015374 0.0074839 -0.00042696 -0.0023191
-0.0011169 0.00069107 -0.0011547 0.00091465 -0.0012035 0.0013945 -0.0015303 0.0074923
0.23435 0.082787 0.0036289 0.0068332
0.00041992 -0.00056535 -0.00062434 0.00057353 -0.0013076 -0.00039466 -0.00043176 -0.0023163
0.0036384 0.006835 0.27632 0.12955
1820000000 0.25269 -0.10993 0.0045419 0.0026744 -1.2587e-05 0.0023682 -0.00092173 -0.0031533
-0.00080091 0.00071069 -7.7142e-05 -0.00020244
0.0045344 0.0026815 0.25952 0.17007 -0.00021278 -4.6235e-05 -0.0012812 0.00089129
-0.00011111 0.0013818 -0.00051196 0.00057844
-9.364e-06 0.0023589 -0.00022157 -4.1447e-05 0.16015 -0.24602 0.0016086 0.00039702
-0.00031375 0.0022156 -0.0013824 0.00048811
-0.00093221 -0.0031493 -0.0012889 0.00089182 0.0016157 0.00040184 0.20352 -0.098413
-0.00027749 0.0060045 -0.0015915 -0.0013612
-0.00079867 0.00072046 -0.00010065 0.0013783 -0.00031124 0.0022103 -0.00025836 0.0060161
0.25089 0.051968 0.0046249 0.0035208
-7.3585e-05 -0.00019538 -0.0005069 0.00058054 -0.0013881 0.00050153 -0.00159 -0.0013693
0.0046291 0.0035156 0.27777 0.093091
1880000000 0.21712 -0.14998 0.0023539 0.00036749 -0.00044424 0.0020576 -0.0028767 -0.0022981
-0.00017134 0.0014646 0.00022903 -0.00049503
0.0023531 0.00037397 0.26345 0.12336 -0.0021833 0.001612 -9.6922e-05 0.0016625
0.00066872 0.0013965 0.00023949 0.00096141
-0.00044315 0.0020598 -0.0021617 0.0016163 0.10813 -0.25534 0.0019756 -0.00095861
0.0015345 0.0020582 -0.00085706 0.0013601
-0.0028886 -0.0022821 -9.0088e-05 0.0016757 0.001977 -0.00094178 0.16152 -0.13781
-1.3514e-05 0.0044308 -0.0023062 0.00061992
-0.0001633 0.001467 0.00068901 0.0013937 0.0015359 0.0020497 3.552e-06 0.0044349
0.25261 0.017737 0.0044662 0.0014758
0.00021559 -0.00049765 0.00025135 0.00095429 -0.00083278 0.0013676 -0.0023021 0.00061621
0.0044669 0.0014925 0.27672 0.058998
1940000000 0.17734 -0.17573 0.00011384 -0.0013909 0.0013122 0.0019634 -0.0037234 0.00054247
0.0011584 0.0010529 -0.00063644 -0.00050441
0.00010534 -0.0013892 0.26343 0.091433 -0.0011381 0.0038509 0.00097878 0.0012812
0.0019921 0.00057375 0.00092685 0.00026832
0.0013128 0.0019605 -0.0011032 0.0038527 0.062212 -0.24869 0.00036853 -0.0023392
0.0024724 0.00049894 0.00046168 0.0016296
-0.0037189 0.00055343 0.00099206 0.0012751 0.0003866 -0.0023426 0.10837 -0.16712
-0.0011936 0.0034945 -0.0013767 0.0017662
0.0011697 0.0010468 0.0019954 0.00056612 0.0024769 0.00048976 -0.0011763 0.0035098
0.25262 -0.023001 0.0032705 -0.0017412
-0.00064304 -0.00050985 0.00092443 0.00025373 0.00047934 0.0016219 -0.0013489 0.0017578
0.0032709 -0.0017532 0.26502 0.022811
2000000000 0.13055 -0.18985 -0.0038588 0.00066473 0.0024276 0.0015904 -0.0024101 0.0036969
0.00091784 0.0002745 -0.00062159 0.00043188
-0.0038579 0.00066432 0.24861 0.056133 -0.00084283 0.0057306 0.0016039 0.00034259
0.0014985 -0.0014569 0.00049438 9.4e-05
0.0024269 0.0015784 -0.00080768 0.0057557 0.01884 -0.23408 -0.0014616 -0.0013879
0.0020054 -0.0012812 0.0016329 0.0012096
-0.0024042 0.003718 0.0016058 0.00033957 -0.0014535 -0.0013888 0.055003 -0.17531
-0.0026816 0.0041289 0.00018544 0.0022229
0.00091403 0.00026797 0.0014913 -0.0014718 0.0020085 -0.0012912 -0.0026653 0.0041362
