!Keysight Technologies,M9804A,MY58100912,A.14.10.03
!Date: Thursday, April 27, 2023 10:28:33
!Correction: S11(C  6-Port  ) 
!S12(C  6-Port  ) 
!S13(C  6-Port  ) 
!S14(C  6-Port  ) 
!S15(C  6-Port  ) 
!S16(C  6-Port  ) 
!S21(C  6-Port  ) 
!S22(C  6-Port  ) 
!S23(C  6-Port  ) 
!S24(C  6-Port  ) 
!S25(C  6-Port  ) 
!S26(C  6-Port  ) 
!S31(C  6-Port  ) 
!S32(C  6-Port  ) 
!S33(C  6-Port  ) 
!S34(C  6-Port  ) 
!S35(C  6-Port  ) 
!S36(C  6-Port  ) 
!S41(C  6-Port  ) 
!S42(C  6-Port  ) 
!S43(C  6-Port  ) 
!S44(C  6-Port  ) 
!S45(C  6-Port  ) 
!S46(C  6-Port  ) 
!S51(C  6-Port  ) 
!S52(C  6-Port  ) 
!S53(C  6-Port  ) 
!S54(C  6-Port  ) 
!S55(C  6-Port  ) 
!S56(C  6-Port  ) 
!S61(C  6-Port  ) 
!S62(C  6-Port  ) 
!S63(C  6-Port  ) 
!S64(C  6-Port  ) 
!S65(C  6-Port  ) 
!S66(C  6-Port  ) 
!S6P File: Measurement: :
# Hz S  RI   R 50
500000000 -0.3388 -0.037116 -0.010762 -0.0026226 -0.0077766 0.012616 -0.0043731 0.011592
0.011479 0.0045463 -0.0040086 0.0081187
-0.01061 -0.0027521 -0.41926 -0.050362 0.007286 -0.010831 0.0013834 0.011531
0.0074061 0.0025589 0.0010324 0.012715
-0.0079171 0.012885 0.0075027 -0.010958 -0.26586 0.21138 0.0070994 0.0029538
-0.00059592 0.0085912 0.00062485 0.012083
-0.0037216 0.012184 0.0020024 0.012069 0.0070643 0.0031742 -0.32881 0.046034
-0.020287 -0.0046934 0.018224 0.025127
0.010868 0.0042351 0.0072624 0.002387 -0.0010045 0.0090973 -0.02018 -0.0049413
-0.22661 -0.18631 -0.027753 0.0042513
-0.004154 0.0092949 0.0016122 0.013637 0.0010903 0.01205 0.017332 0.025198
-0.028129 0.0044692 -0.27124 -0.11736
560000000 -0.31781 0.12506 -0.023706 -0.062095 0.00021409 0.011665 0.0066866 0.0097634
0.009937 0.0042447 0.010559 0.0079683
-0.022772 -0.061843 -0.37684 0.1076 -0.0418 -0.03603 0.013272 0.0037122
-0.01295 -0.0043042 0.0035853 -0.0010951
5.4367e-05 0.012506 -0.041993 -0.036573 -0.18325 0.25842 8.8513e-05 -0.004334
0.018895 0.00465 0.0070423 -0.0059176
0.0072306 0.010087 0.013294 0.0039568 -0.00014281 -0.0045675 -0.30394 0.13536
0.0041736 -0.024703 0.0046476 -0.020195
0.010348 0.0025543 -0.013267 -0.0050241 0.019006 0.0045584 0.0038651 -0.024815
-0.28717 -0.012591 0.0077362 -0.050287
0.010812 0.0067604 0.0037567 -0.0015324 0.0066511 -0.0070139 0.0051227 -0.019642
0.008546 -0.050457 -0.33112 0.029877
620000000 -0.27574 0.1093 -0.022914 0.0079037 0.0036606 0.0084758 0.0069557 -0.0055249
0.011983 -0.00027006 0.00023899 -0.0023225
-0.022746 0.0081284 -0.40289 0.061788 -0.018496 0.0001939 -0.0009678 -0.0019714
0.010569 -0.0070636 0.0010576 -0.0025347
0.0035945 0.0087256 -0.018504 0.00033152 -0.15268 0.26809 -0.001342 -0.0051224
-0.0034669 -0.0032931 0.0084597 -0.0032892
0.006568 -0.0049604 -0.0012968 -0.0017158 -0.0010616 -0.0052306 -0.26285 0.14615
-0.03862 -0.019126 0.014169 0.024397
0.011685 0.00020657 0.011023 -0.0072163 -0.0037809 -0.0033429 -0.038672 -0.018895
-0.20622 -0.04904 -0.040733 0.014813
0.00075807 -0.0020613 0.0010062 -0.002438 0.0090597 -0.0031262 0.014246 0.024949
-0.040495 0.014082 -0.24986 -0.005586
680000000 -0.23457 0.19508 -0.027374 -0.013866 0.0048777 0.0048967 0.0015075 -0.0073075
-0.0028686 -0.010972 0.0044846 -0.0066393
-0.027353 -0.013895 -0.38745 0.15906 -0.032551 -0.0013095 -0.0014938 -0.00042161
-0.002616 -0.0090833 -0.0010336 -0.0022899
0.0051237 0.0049893 -0.032678 -0.0013208 -0.10184 0.28746 -0.00080524 2.017e-05
-0.0021764 0.00040723 -0.0027421 -0.0097534
0.00204 -0.0075939 -0.0013756 -0.00043174 -0.00084254 -6.6238e-05 -0.22003 0.19515
-0.023624 -0.0080227 -0.0093318 -0.010339
-0.0032365 -0.011293 -0.0027213 -0.0090983 -0.0023994 0.00037697 -0.023761 -0.0080667
-0.25432 0.049035 -0.0059037 -0.0091414
0.0044165 -0.0067119 -0.0011474 -0.0024115 -0.0028045 -0.0095972 -0.0091904 -0.010706
-0.0059655 -0.0089636 -0.25909 0.097249
740000000 -0.18923 0.18971 -0.038494 0.026382 0.012661 -0.0052496 -0.00083106 -0.0037751
-0.0044065 -0.0031707 -0.0065176 0.0033604
-0.03812 0.026277 -0.33412 0.17737 -0.034866 0.034826 -0.00084071 -0.0065784
-0.011981 0.0078628 -0.0024995 -0.0060872
0.012762 -0.0050263 -0.034754 0.035359 -0.06814 0.28572 -0.001777 0.0034861
-0.0028307 -0.0042843 -0.0016043 0.00045554
-0.00097191 -0.0037708 -0.00059344 -0.0063758 -0.0015076 0.0035134 -0.20267 0.20333
-0.042162 -0.0081027 0.022074 0.013716
-0.004625 -0.0030371 -0.012383 0.0072814 -0.0030901 -0.0046184 -0.042474 -0.0080858
-0.15912 0.074727 -0.041394 0.00010052
-0.0061043 0.0035991 -0.0026608 -0.0057365 -0.0013232 0.00011129 0.021878 0.014157
-0.041103 0.00078405 -0.24772 0.10242
800000000 -0.15656 0.22932 -0.022313 0.01685 0.0051436 -0.010335 -0.0047245 -0.0018797
-0.0041023 0.0025916 0.0044747 0.00092485
-0.022227 0.016871 -0.33755 0.24805 -0.0078313 0.033932 -0.0021628 0.0023332
-0.00098264 0.0032359 0.001179 0.005403
0.0047814 -0.010478 -0.0077998 0.033842 -0.02694 0.30872 0.00109 0.0016616
0.00055943 0.0037467 -0.0016962 0.00093802
-0.0048774 -0.0021176 -0.0021949 0.0022875 0.0011595 0.0016365 -0.17426 0.23076
-0.028074 0.012672 0.013065 -0.0099984
-0.0043326 0.002512 -0.0010189 0.0030862 0.00055727 0.0038292 -0.027922 0.012796
-0.20157 0.097844 -0.016962 0.018141
0.0039138 0.00072748 0.0010849 0.0052254 -0.0014775 0.0011717 0.013242 -0.0097016
-0.017014 0.017778 -0.23906 0.15389
860000000 -0.12164 0.24875 -0.017115 0.0308 -0.0032755 -0.0098011 -0.002306 0.0010846
0.0038672 0.0049711 -0.0030037 -0.0025492
-0.017037 0.030774 -0.28938 0.29004 0.0080468 0.033923 4.5809e-06 0.0021454
0.0041844 0.00057842 0.0033603 0.00057164
-0.0032402 -0.0096795 0.0081685 0.033977 0.0212 0.31641 -0.00055318 -0.00022897
0.0028734 -0.0014569 0.0016539 0.0044304
-0.0023232 0.0011444 0.00010552 0.0023342 -0.00043069 -0.00020713 -0.13841 0.24213
-0.017577 0.018246 -0.0063249 -0.0089021
0.0039383 0.0049966 0.0040039 0.0004318 0.0027894 -0.0014962 -0.017565 0.018558
-0.15147 0.14606 -0.02445 0.015388
-0.0027731 -0.0022051 0.0035934 0.00062936 0.0016881 0.0042654 -0.0064463 -0.0089262
-0.024118 0.015351 -0.18872 0.19595
920000000 -0.096698 0.27181 0.0053445 0.037416 -0.0092092 -0.0042491 -0.0018231 0.0020273
0.0014247 0.0016774 0.0023921 -0.0016584
0.0053363 0.037369 -0.26028 0.31047 0.027942 0.021565 0.0016415 0.00098698
0.0071327 -0.00057759 0.0036959 -0.0030141
-0.0092405 -0.0041733 0.028017 0.021506 0.067432 0.31666 0.0019061 -0.00016941
0.0012892 -0.00030565 0.00080463 -0.0011372
-0.0018537 0.0020301 0.0014805 0.000955 0.0019404 -0.0001275 -0.11422 0.25814
-0.010318 0.029867 0.0026647 -0.006683
0.0016694 0.0016505 0.007042 -0.00037989 0.0012543 -0.00026477 -0.010293 0.029937
-0.14047 0.15202 -0.0020395 0.027008
0.0024093 -0.0015483 0.003755 -0.0030263 0.00089133 -0.0011463 0.0030251 -0.0066327
-0.0021468 0.027135 -0.19458 0.21043
980000000 -0.049325 0.29054 0.01758 0.029621 -0.0087941 0.0045347 0.0022767 0.0036734
0.0040507 -0.0017429 -0.0030418 -0.0022333
0.017539 0.029648 -0.20752 0.34426 0.032686 0.004612 0.0019962 1.6039e-05
0.0015191 -0.0062434 -0.00058553 -0.0021647
-0.0087967 0.0045355 0.032698 0.0044711 0.11361 0.30984 0.00050856 -0.0012201
0.00020371 -0.0021241 0.001375 -5.3774e-05
0.0022592 0.0037076 0.0020795 6.8404e-05 0.00051599 -0.0012202 -0.0761 0.26972
0.007258 0.028794 -0.0090389 -0.0065907
0.0039451 -0.0017102 0.0014287 -0.0062317 0.00014024 -0.0021207 0.0072369 0.028812
-0.10915 0.17911 0.0050285 0.019029
-0.0029388 -0.0019943 -0.00053979 -0.0021408 0.0014238 -5.6706e-05 -0.0090717 -0.0066387
0.004915 0.01908 -0.15124 0.25535
1040000000 -0.0069437 0.29913 0.033028 0.017691 -0.0012108 0.0067771 0.002667 0.00078423
5.8878e-05 -0.00369 -0.00060814 -0.0016775
0.033034 0.01774 -0.17193 0.35712 0.028846 -0.014699 0.0014755 -0.0016754
-0.0023778 -0.0025168 -0.0013438 -0.0027872
-0.0011002 0.0067845 0.028898 -0.014878 0.15952 0.29585 -0.00047135 -0.0014732
-0.0015367 -0.00087277 -0.00044203 -0.0011066
0.0027063 0.00077882 0.0015258 -0.001636 -0.00050649 -0.0014836 -0.048722 0.27957
0.018307 0.01721 -0.0027857 0.0016867
0.00017077 -0.0037729 -0.0023487 -0.0023959 -0.0015391 -0.0009362 0.018201 0.017211
-0.077491 0.1874 0.013475 0.017883
-0.00067006 -0.0015953 -0.0013693 -0.0026587 -0.00052979 -0.0011014 -0.0026776 0.0019125
0.013434 0.017709 -0.12955 0.2745
1100000000 0.038043 0.30628 0.03549 -0.0045024 0.0027603 0.0037959 0.0025912 -0.001252
-0.0021631 -0.0030545 -0.0039598 0.00015271
0.035376 -0.0044214 -0.12861 0.37383 0.014827 -0.027437 0.00010266 -0.0018604
-0.0033064 -0.00066274 -0.0033488 -0.00056386
0.0027826 0.0037161 0.014725 -0.027517 0.20548 0.2754 -0.0018061 0.00018688
-0.0017838 0.00057818 -0.00092918 -0.00028987
0.0025649 -0.0012467 6.1817e-05 -0.001791 -0.0018308 0.0001876 -0.0084415 0.28466
0.022768 0.0049782 -0.0025073 0.00065122
-0.0023402 -0.0028714 -0.0033688 -0.0006654 -0.0017846 0.00047587 0.022727 0.0048648
-0.059259 0.20007 0.018495 0.0083959
-0.0038251 -5.9763e-05 -0.0033464 -0.000455 -0.0010008 -0.00032047 -0.0025371 0.00091475
0.018555 0.0083491 -0.083042 0.30249
1160000000 0.089482 0.30103 0.023496 -0.020692 0.0025468 -0.0004132 -0.00013065 -0.0024188
-0.0039994 -0.00051924 -0.00094659 0.0037783
0.023461 -0.020644 -0.085101 0.3779 -0.003744 -0.028689 -0.0017187 -0.0017446
-0.0026645 0.0025666 -0.0012444 0.0015634
0.0026001 -0.00038984 -0.003903 -0.028692 0.24833 0.24469 -0.00072464 0.0017056
-0.00047665 0.0018767 -0.00094243 0.00010845
-0.00010922 -0.0024664 -0.0017528 -0.0016672 -0.00068789 0.0017392 0.030711 0.28174
0.019369 -0.0095669 -0.0026781 0.0055255
-0.00393 -0.00055039 -0.0026279 0.0026441 -0.00051482 0.0018701 0.019327 -0.0096239
-0.026123 0.20915 0.017289 0.00061426
-0.00091506 0.0038329 -0.0012787 0.001615 -0.00093409 0.00014377 -0.0025633 0.0054241
0.017346 0.00060796 -0.036389 0.30498
1220000000 0.13362 0.2896 0.010028 -0.029711 -0.0015377 -0.00070292 -1.8406e-05 -0.0010862
-0.0025672 0.002505 0.0013436 0.0019231
0.010085 -0.02961 -0.041159 0.38958 -0.0166 -0.020832 -0.0025116 0.0003929
0.00014985 0.002961 -0.00073125 0.001818
-0.0015723 -0.00072473 -0.016721 -0.020764 0.28736 0.20579 0.00082914 0.0016622
0.00058872 0.0011478 0.00027875 0.00073556
-4.2182e-05 -0.0010218 -0.0025517 0.00037946 0.00082392 0.0016845 0.070286 0.27357
0.0094567 -0.015467 0.0024571 0.0017307
-0.0026717 0.0025981 0.00011621 0.0029096 0.00058099 0.0011217 0.0094501 -0.015487
-0.0032512 0.21795 0.013356 -0.012243
0.0012235 0.001889 -0.00072186 0.0018234 0.00024141 0.00073763 0.0024423 0.0017021
0.013361 -0.012227 -0.0042547 0.3206
1280000000 0.18323 0.26697 -0.0079273 -0.028011 -0.0017474 0.002555 -0.0010156 -0.0020049
-0.00067233 0.00309 0.0025403 0.0010127
-0.0079172 -0.028021 0.0045277 0.3807 -0.023314 -0.0084297 -0.0011005 0.001456
0.0016744 0.0017033 0.00055122 0.0019479
-0.0017084 0.0025816 -0.023366 -0.0083397 0.31806 0.16213 0.001419 -0.00013045
0.0010656 8.5017e-05 0.00028689 0.00033159
-0.0009869 -0.0019979 -0.0010527 0.0014629 0.0014083 -0.00013368 0.10677 0.25763
0.00080736 -0.017316 0.00035937 0.00022826
-0.00061619 0.0030152 0.0017039 0.0017308 0.0010335 0.00014561 0.00076306 -0.01731
0.033457 0.22177 0.0028585 -0.014249
0.0026983 0.0010589 0.00058429 0.0019085 0.00030213 0.00033259 0.00039152 0.00020797
0.0029007 -0.014338 0.0432 0.32089
1340000000 0.21995 0.23301 -0.017514 -0.01859 0.00094935 0.0043924 -0.0019058 -0.00081338
0.0014164 0.0026704 0.001779 -0.0015177
-0.017482 -0.018631 0.043952 0.37251 -0.0213 0.0040353 -9.4288e-05 0.0020269
0.0018154 0.00071045 0.0013173 0.00090493
0.00097048 0.0043959 -0.021301 0.0041317 0.34042 0.11405 0.0010229 -0.00089258
0.00064723 -0.00040542 0.00011283 0.00023017
-0.00188 -0.00079472 -0.00010805 0.0020154 0.0010097 -0.00084673 0.13987 0.23769
-0.0075359 -0.014653 0.0012364 0.00013334
0.0014463 0.0026902 0.0017771 0.00070108 0.0006317 -0.00035612 -0.0075636 -0.014734
0.063465 0.21724 -0.0032533 -0.012953
0.001717 -0.0015104 0.0013292 0.00094041 0.00015526 0.00021217 0.0012113 0.00014841
-0.0032844 -0.012952 0.081639 0.31564
1400000000 0.25244 0.19451 -0.023057 -0.007267 0.0051576 0.0029684 -0.0020462 0.00067597
0.0025142 0.0007703 0.00024355 -0.0014854
-0.023048 -0.007296 0.081 0.35959 -0.014706 0.012101 0.0013664 0.0013556
0.0011076 -0.00080897 0.001212 0.00021854
0.0052204 0.0029528 -0.014634 0.01217 0.35357 0.060186 9.9265e-05 -0.0014595
7.4673e-05 -0.00031396 0.00035376 0.00012044
-0.0020438 0.00068095 0.0013731 0.0013345 8.105e-05 -0.0014671 0.16977 0.20929
-0.012746 -0.0086365 -0.00051427 -0.00068116
0.0025197 0.00075078 0.0011118 -0.00081352 4.6808e-05 -0.00035247 -0.012787 -0.0086581
0.096249 0.21261 -0.009531 -0.0083746
0.00020987 -0.0015232 0.0011871 0.00020691 0.00037709 0.00015615 -0.00053045 -0.000619
-0.0095307 -0.0083701 0.12559 0.30401
1460000000 0.27483 0.15055 -0.020073 0.0046731 0.0055403 -0.0017877 -0.00153 0.0017243
0.0020284 -0.00070505 -0.00039092 -0.00088874
-0.020094 0.0046353 0.11542 0.33786 -0.0062533 0.015034 0.0017591 0.00013883
0.00089497 -0.0011875 0.001229 -0.00066077
0.0055046 -0.001835 -0.0062091 0.015084 0.35956 0.00543 -0.0010919 -0.0012569
0.00021223 -0.00010107 0.00071399 -0.00033399
-0.0015497 0.0018044 0.0017534 0.00014988 -0.0010963 -0.0012542 0.19688 0.18033
-0.013575 -0.0029601 -0.001055 0.0014834
0.0019927 -0.00061092 0.00083608 -0.0011849 0.00022105 -0.00019274 -0.013615 -0.0029729
0.12599 0.19804 -0.01126 -0.0029369
-0.00038606 -0.00090848 0.0012182 -0.00063168 0.00064154 -0.00033908 -0.0010247 0.0015351
-0.011311 -0.0029596 0.15892 0.28249
1520000000 0.28673 0.10882 -0.014548 0.010172 0.0031513 -0.0041765 0.00012839 0.0025781
0.0018286 -0.0017114 -0.0012042 -9.466e-05
-0.014537 0.010154 0.14907 0.32292 0.0013161 0.013042 0.0016344 -0.00084844
6.5643e-05 -0.0009476 0.00032564 -0.0010613
0.0031115 -0.0042114 0.0013839 0.013036 0.35247 -0.05103 -0.00099716 -0.00036715
0.00058393 -0.00083838 -5.4836e-05 -9.0549e-05
0.00010649 0.0025562 0.0016411 -0.00086987 -0.0010307 -0.0004012 0.22071 0.14208
-0.013173 0.0019827 0.0010979 0.0017631
0.0018416 -0.0017157 6.3801e-05 -0.00097339 0.00064643 -0.00077837 -0.013164 0.0019824
0.15399 0.18369 -0.011276 0.0013194
-0.0012671 -8.6898e-05 0.00031845 -0.0010597 -3.2014e-05 -0.00016604 0.0010776 0.0017009
-0.011304 0.0013003 0.19165 0.2614
1580000000 0.29572 0.062657 -0.0080093 0.013189 -0.00097793 -0.0047941 0.0014041 0.0018681
-0.00043605 -0.0021379 -0.00039193 0.0004662
-0.008032 0.013178 0.17643 0.2981 0.0049696 0.0083474 0.00043708 -0.0016313
-0.00044128 -0.0010457 -0.00025825 -0.00089253
-0.00095626 -0.0048117 0.00503 0.0083347 0.33184 -0.10858 -0.0015571 0.0004695
-0.00029547 -0.0011883 0.00010194 -0.00055081
0.0014778 0.0018946 0.0004308 -0.001634 -0.0015801 0.00047675 0.23546 0.10229
-0.010413 0.0062884 0.0019126 0.0006745
-0.00042494 -0.0020855 -0.00043997 -0.0010549 -0.0002515 -0.0012194 -0.010398 0.006296
0.17852 0.16553 -0.009087 0.00677
-0.00047126 0.00042936 -0.00024683 -0.00090467 5.3149e-05 -0.00056198 0.0019303 0.00065614
-0.0090677 0.0067554 0.22308 0.23406
1640000000 0.29748 0.02136 -0.0014733 0.012165 -0.0027533 -0.0025402 0.0026255 0.0010312
-0.00084886 -0.0012339 -0.00026417 0.00070997
-0.0014638 0.012165 0.20607 0.27273 0.0057606 0.0036297 -0.00075896 -0.0016759
-0.00098689 -0.00047854 -0.00055414 -0.00065657
-0.0027541 -0.0025568 0.0058041 0.0036158 0.30336 -0.15789 -0.00076985 0.0013824
-0.0010468 -0.00095879 -0.00016607 -0.00034093
0.0025752 0.0009847 -0.00078002 -0.0016842 -0.00080049 0.0014315 0.24828 0.052531
-0.0067639 0.0074728 0.00221 -0.00067913
-0.00086675 -0.0012939 -0.00098224 -0.00047249 -0.001123 -0.00093843 -0.0067748 0.007489
0.20172 0.14049 -0.0046335 0.0088825
-0.00022079 0.0007094 -0.00057536 -0.00067482 -0.00015468 -0.00026285 0.002223 -0.00066524
-0.0046169 0.0088449 0.24829 0.20238
1700000000 0.29003 -0.024001 0.0019313 0.0094801 -0.0034724 0.00016411 0.0029882 -0.0011576
-0.0019256 -0.00050538 0.00072916 0.00044925
0.0019381 0.0094765 0.22409 0.24086 0.00391 0.00077131 -0.0014514 -0.00051914
-0.00082231 1.488e-05 -0.00097577 -0.00040838
-0.0034662 0.00019894 0.0039123 0.00075955 0.25937 -0.19769 0.00041194 0.0016227
-0.0018106 -0.00016919 -0.0005526 -0.00093346
0.0029838 -0.0011913 -0.0014179 -0.0005132 0.00041135 0.0016192 0.24489 0.0015437
-0.0044456 0.008106 0.0012897 -0.0020713
-0.0019623 -0.00048093 -0.00081175 4.5327e-06 -0.0017829 -0.00011592 -0.0044575 0.00815
0.2193 0.11924 -0.00024635 0.0092835
0.0006443 0.00043736 -0.00097869 -0.00040266 -0.00049851 -0.00097506 0.001289 -0.0020311
-0.00021266 0.0092695 0.264 0.16785
1760000000 0.27756 -0.072503 0.0043322 0.0062214 -0.0022484 0.00092422 0.0012977 -0.0033946
-0.0011351 0.00068614 0.00043075 -0.00058671
0.0043296 0.0062205 0.24994 0.20062 0.0017698 -0.0010082 -0.0011263 0.00024266
-0.0011667 0.00088748 -0.00061473 0.00055748
-0.0022271 0.00088884 0.0017733 -0.0010385 0.21038 -0.2304 0.0011318 0.0012485
-0.001207 0.0014159 -0.0012925 -0.00032441
0.0012325 -0.0033382 -0.0011412 0.00026397 0.0011495 0.0012521 0.23491 -0.050805
-0.0015045 0.0074609 -0.00039309 -0.0022868
-0.0011213 0.00073521 -0.0011558 0.00088357 -0.0012484 0.0014055 -0.0015448 0.0074742
0.23425 0.082906 0.0036088 0.0068472
0.0004353 -0.00061931 -0.00064484 0.00061211 -0.0012635 -0.00035641 -0.00042757 -0.0022421
0.0036029 0.006856 0.27621 0.12976
1820000000 0.25265 -0.10996 0.0045694 0.0026356 1.5764e-06 0.0024204 -0.00091263 -0.0031442
-0.0007973 0.0007209 -7.0014e-05 -0.00019554
0.0045635 0.0026415 0.25951 0.1701 -0.00020555 -1.158e-05 -0.0013016 0.00087544
-0.00010796 0.0013626 -0.00049688 0.00059037
-1.9355e-06 0.002393 -0.00024189 -4.807e-05 0.16013 -0.246 0.0016082 0.00042038
-0.00029702 0.0022444 -0.0013435 0.00054529
-0.0008812 -0.0030613 -0.0013245 0.00091054 0.001685 0.00039326 0.20354 -0.098389
-0.0002505 0.0060162 -0.0015568 -0.0013245
-0.00076402 0.00072076 -0.00013778 0.001364 -0.00031081 0.0022978 -0.00024656 0.005992
0.2509 0.052108 0.004629 0.0035654
-5.1288e-05 -0.00028442 -0.0005103 0.00061411 -0.0012821 0.00049664 -0.0016979 -0.0013318
0.0046116 0.0034988 0.2777 0.093336
1880000000 0.21708 -0.1501 0.0024193 0.00034052 -0.00049447 0.0020157 -0.0029208 -0.0022911
-0.00017797 0.0014849 0.00024267 -0.00051523
0.0023817 0.00032454 0.26347 0.1234 -0.0021936 0.0015907 -0.00010373 0.0016733
0.00066155 0.0013649 0.00025662 0.00096985
-0.00045879 0.0020763 -0.0021511 0.0016012 0.10818 -0.2552 0.0020218 -0.00094952
0.0015416 0.0020393 -0.00080995 0.0014013
-0.00293 -0.0022678 -7.7582e-05 0.0016287 0.0019975 -0.00097588 0.16161 -0.13784
3.3474e-06 0.0044235 -0.0023299 0.00063691
-0.00016528 0.0015153 0.00071015 0.0013565 0.0015408 0.0019918 6.9782e-05 0.0044253
0.25264 0.017828 0.0044113 0.0014562
0.00023716 -0.00052932 0.00024384 0.00094704 -0.00083567 0.0013079 -0.0022638 0.00062445
0.0044665 0.0014444 0.2767 0.059207
1940000000 0.1773 -0.17573 0.00010518 -0.0014173 0.00133 0.001937 -0.003757 0.00051427
0.0011662 0.0010151 -0.00064183 -0.00052018
0.00010912 -0.0014272 0.26346 0.091515 -0.00113 0.0038025 0.00096823 0.0012948
0.0019975 0.00058358 0.00091094 0.00026332
0.0013168 0.0019367 -0.0010988 0.0038414 0.062133 -0.24859 0.0003612 -0.0023376
0.0024534 0.00051247 0.00050096 0.0016694
-0.0037297 0.00052175 0.0010134 0.0013342 0.00023992 -0.0023974 0.10838 -0.16713
-0.0011813 0.0034604 -0.0013834 0.0017791
0.001105 0.00095414 0.0020059 0.00058388 0.0024379 0.00039943 -0.0012443 0.0034958
0.25268 -0.022912 0.0032302 -0.0017434
-0.00062315 -0.00054202 0.00093691 0.00026902 0.00044255 0.001566 -0.0013161 0.0017926
0.0032393 -0.0016821 0.26499 0.022992
2000000000 0.13057 -0.18985 -0.0038789 0.00068047 0.002402 0.0016286 -0.0024182 0.0037104
0.00095052 0.00027894 -0.00063371 0.00045851
-0.0038779 0.00066744 0.24863 0.056166 -0.00091168 0.0057259 0.0015636 0.00035296
0.0015059 -0.0014468 0.00050504 9.2435e-05
0.0024369 0.0015988 -0.00081927 0.0056982 0.018721 -0.23399 -0.0014992 -0.0014134
0.0020022 -0.0012803 0.0016239 0.001202
-0.0024166 0.0036883 0.0016095 0.00032071 -0.0014278 -0.0013035 0.055054 -0.17542
-0.0026916 0.0041501 0.00013718 0.0022017
0.00092662 0.00032703 0.0014795 -0.0014724 0.0020017 -0.0011932 -0.0027191 0.0041143
0.24413 -0.057688 0.00029145 -0.0024494
