!Keysight Technologies,M9804A,MY58100912,A.14.10.03
!Date: Thursday, April 27, 2023 10:28:33
!Correction: S11(C  6-Port  ) 
!S12(C  6-Port  ) 
!S13(C  6-Port  ) 
!S14(C  6-Port  ) 
!S15(C  6-Port  ) 
!S16(C  6-Port  ) 
!S21(C  6-Port  ) 
!S22(C  6-Port  ) 
!S23(C  6-Port  ) 
!S24(C  6-Port  ) 
!S25(C  6-Port  ) 
!S26(C  6-Port  ) 
!S31(C  6-Port  ) 
!S32(C  6-Port  ) 
!S33(C  6-Port  ) 
!S34(C  6-Port  ) 
!S35(C  6-Port  ) 
!S36(C  6-Port  ) 
!S41(C  6-Port  ) 
!S42(C  6-Port  ) 
!S43(C  6-Port  ) 
!S44(C  6-Port  ) 
!S45(C  6-Port  ) 
!S46(C  6-Port  ) 
!S51(C  6-Port  ) 
!S52(C  6-Port  ) 
!S53(C  6-Port  ) 
!S54(C  6-Port  ) 
!S55(C  6-Port  ) 
!S56(C  6-Port  ) 
!S61(C  6-Port  ) 
!S62(C  6-Port  ) 
!S63(C  6-Port  ) 
!S64(C  6-Port  ) 
!S65(C  6-Port  ) 
!S66(C  6-Port  ) 
!S6P File: Measurement: :
# Hz S  RI   R 50
500000000 -0.33833 -0.036811 -0.010357 -0.0031386 -0.0078897 0.012301 -0.0037177 0.011634
0.012054 0.0044614 -0.0038944 0.0080424
-0.010323 -0.0031174 -0.41938 -0.050046 0.0076498 -0.010881 0.0016316 0.012179
0.0072062 0.0021916 0.00090547 0.013322
-0.0078643 0.012323 0.0076321 -0.010908 -0.26544 0.21108 0.0070272 0.003426
-0.00071103 0.0086386 0.00049228 0.012309
-0.0037044 0.011643 0.0016742 0.012186 0.0070218 0.0034227 -0.32781 0.046055
-0.020686 -0.0046181 0.018053 0.025527
0.012054 0.0044938 0.0072107 0.0021998 -0.00071344 0.0086495 -0.020656 -0.0046176
-0.22684 -0.18616 -0.028257 0.0043448
-0.0038862 0.0080635 0.0009412 0.013355 0.00050665 0.012303 0.018036 0.025548
-0.028242 0.0043464 -0.27198 -0.11687
560000000 -0.31758 0.12446 -0.023515 -0.062394 0.00032296 0.012243 0.0064977 0.010083
0.010169 0.0044905 0.01032 0.0080183
-0.023455 -0.062344 -0.37653 0.10851 -0.042207 -0.036419 0.013221 0.0037962
-0.013277 -0.0043328 0.0041509 -0.00050754
0.0003325 0.012223 -0.042331 -0.036376 -0.18297 0.25891 -0.0002299 -0.0045516
0.019183 0.0046828 0.0069377 -0.0061203
0.0064762 0.010078 0.013316 0.0038075 -0.00025025 -0.0045524 -0.30341 0.13548
0.004046 -0.024532 0.004625 -0.019634
0.010152 0.004472 -0.013338 -0.0043323 0.019204 0.0046523 0.0040385 -0.02453
-0.28735 -0.010392 0.0075475 -0.050288
0.010345 0.0080109 0.0041504 -0.00053137 0.0069399 -0.0060927 0.0046228 -0.019634
0.0075534 -0.050258 -0.33181 0.030066
620000000 -0.27482 0.1094 -0.022704 0.0077858 0.0037959 0.0082129 0.0068734 -0.0053184
0.011512 -0.00028854 0.00021925 -0.0018429
-0.022695 0.0077699 -0.40291 0.061763 -0.018621 5.1998e-05 -0.0010871 -0.0019015
0.010662 -0.0070379 0.0011892 -0.0025795
0.0038045 0.0082075 -0.01864 0.00011257 -0.15282 0.26795 -0.0014861 -0.0050977
-0.003346 -0.0032671 0.0082923 -0.0034013
0.0068845 -0.0053523 -0.0010869 -0.0019119 -0.0014826 -0.0050947 -0.26278 0.14615
-0.039019 -0.018826 0.014196 0.024531
0.011554 -0.00025252 0.010656 -0.0070821 -0.0033677 -0.0032654 -0.039065 -0.018778
-0.20583 -0.049399 -0.040779 0.014556
0.00019821 -0.0018234 0.0011993 -0.0025901 0.0082879 -0.0033963 0.014207 0.024582
-0.040788 0.014564 -0.25079 -0.0055256
680000000 -0.23398 0.19456 -0.027351 -0.013891 0.0049204 0.0047838 0.0013107 -0.0074591
-0.002873 -0.011113 0.0046631 -0.0067815
-0.027335 -0.013896 -0.38737 0.15917 -0.032489 -0.0013671 -0.0016143 -0.00036127
-0.0026006 -0.0090139 -0.0010245 -0.002046
0.0049219 0.0047575 -0.032526 -0.0012791 -0.10173 0.28746 -0.00076326 -2.9608e-06
-0.0022341 0.00039001 -0.0028532 -0.0095503
0.001312 -0.0074766 -0.0016201 -0.00035727 -0.00076612 -3.7238e-06 -0.21989 0.1955
-0.023677 -0.0079649 -0.0089913 -0.010425
-0.0028649 -0.011127 -0.0026287 -0.0090174 -0.002221 0.00038144 -0.023693 -0.0079414
-0.2545 0.04934 -0.0056956 -0.0091795
0.0046361 -0.0068264 -0.001016 -0.0020666 -0.0028422 -0.009558 -0.0089745 -0.010404
-0.0056715 -0.009183 -0.25865 0.09687
740000000 -0.18945 0.18914 -0.038324 0.026584 0.012486 -0.0053918 -0.00071006 -0.0039597
-0.0043677 -0.0031138 -0.00641 0.0032146
-0.038321 0.026547 -0.33459 0.17755 -0.034728 0.035077 -0.00069107 -0.0065773
-0.012089 0.0076913 -0.0026467 -0.0059066
0.012457 -0.0054281 -0.034667 0.035228 -0.068048 0.28588 -0.0016841 0.0033709
-0.0027409 -0.0042898 -0.0014388 0.00010277
-0.0007487 -0.0039937 -0.00071853 -0.0066029 -0.0016921 0.0033706 -0.20269 0.20321
-0.042409 -0.0081016 0.022106 0.013889
-0.0043711 -0.0030899 -0.012068 0.0077454 -0.0027634 -0.0042643 -0.042457 -0.0080451
-0.15871 0.074819 -0.041277 0.00060982
-0.0063755 0.00322 -0.0026712 -0.0059121 -0.0014301 0.00012167 0.022109 0.013851
-0.041264 0.00052999 -0.24715 0.10324
800000000 -0.15651 0.22901 -0.022276 0.016861 0.0050906 -0.010431 -0.0047822 -0.0019178
-0.0041333 0.0026137 0.0044011 0.001011
-0.022275 0.016831 -0.33759 0.24809 -0.0077932 0.033865 -0.0021793 0.0022889
-0.00096257 0.0032299 0.0010996 0.0053087
0.0050678 -0.010448 -0.0077095 0.033909 -0.027 0.30872 0.0010134 0.0016391
0.00055169 0.0036814 -0.0017952 0.0008916
-0.0047694 -0.0019137 -0.0021887 0.0023051 0.0010131 0.0016291 -0.17445 0.23068
-0.02798 0.012688 0.013044 -0.0098779
-0.0041109 0.0026234 -0.00094754 0.0032492 0.00055797 0.0036713 -0.027977 0.012749
-0.20158 0.098008 -0.016939 0.017716
0.0044028 0.00099249 0.0011214 0.0053317 -0.0017958 0.00089667 0.013042 -0.0099008
-0.01695 0.017704 -0.23877 0.15427
860000000 -0.12166 0.24905 -0.017142 0.030721 -0.0033252 -0.0097189 -0.0023444 0.001054
0.0039467 0.0051175 -0.0029684 -0.0024793
-0.01715 0.030681 -0.28942 0.28991 0.0080542 0.033956 7.6842e-05 0.002186
0.0040916 0.00067749 0.0034769 0.00051346
-0.0033504 -0.0096978 0.0081603 0.033944 0.021221 0.31638 -0.00044511 -0.00022871
0.002874 -0.0013851 0.0016481 0.0043116
-0.0023351 0.0010564 8.4591e-05 0.0021972 -0.00044245 -0.00023365 -0.13833 0.24193
-0.01761 0.018315 -0.0062191 -0.0087082
0.0039788 0.0051304 0.0040909 0.00069759 0.0028698 -0.0013937 -0.017573 0.018353
-0.15133 0.14629 -0.024149 0.015553
-0.0029972 -0.0024938 0.0034753 0.00048814 0.0016473 0.0043132 -0.0062177 -0.0087042
-0.024156 0.015538 -0.18887 0.19646
920000000 -0.096655 0.27165 0.0053577 0.03738 -0.0092091 -0.0042838 -0.0018393 0.0020184
0.0015644 0.0016478 0.0025197 -0.0016052
0.0053278 0.037345 -0.26035 0.31057 0.027917 0.021596 0.0016031 0.00106
0.0070027 -0.00065412 0.003833 -0.0029525
-0.0092206 -0.0042637 0.028013 0.021512 0.06745 0.31669 0.0018659 -0.00015683
0.0012736 -0.00037009 0.00083093 -0.0011299
-0.0018335 0.0020223 0.0015937 0.001039 0.0018719 -0.00015993 -0.11435 0.25817
-0.010212 0.029837 0.0027564 -0.0066728
0.001581 0.0016468 0.0070267 -0.00067085 0.0012734 -0.00037075 -0.010145 0.029874
-0.14078 0.15159 -0.0020933 0.027178
0.0025191 -0.0016111 0.0038147 -0.0029567 0.0008331 -0.0011348 0.0027567 -0.0066877
-0.0021088 0.027168 -0.19415 0.21078
980000000 -0.049411 0.29082 0.017581 0.029639 -0.0087971 0.0045484 0.0022194 0.0036176
0.0040733 -0.0017637 -0.0031016 -0.0021534
0.01756 0.029616 -0.20751 0.34433 0.03267 0.0046 0.0019657 3.733e-05
0.001444 -0.0061946 -0.00055699 -0.0021624
-0.0087842 0.0045859 0.032729 0.0044858 0.11362 0.30983 0.0004847 -0.0011974
0.00018111 -0.0021201 0.0014141 -2.1332e-05
0.0022307 0.003631 0.0019601 7.8781e-08 0.000488 -0.0011965 -0.076146 0.26973
0.0073021 0.028701 -0.0090425 -0.0065427
0.0040728 -0.0017808 0.0014061 -0.006213 0.00017394 -0.002132 0.007362 0.028703
-0.10891 0.17905 0.005008 0.019056
-0.0031025 -0.0021473 -0.0005881 -0.0021596 0.0014118 -2.2476e-05 -0.0090562 -0.0065319
0.0049959 0.019054 -0.15094 0.25566
1040000000 -0.0071492 0.29891 0.032955 0.017742 -0.0012025 0.0067287 0.0026083 0.00078659
5.0583e-05 -0.0035965 -0.00063619 -0.0016449
0.032925 0.01771 -0.17202 0.35716 0.028916 -0.014732 0.0015212 -0.0016544
-0.0024702 -0.0024332 -0.001351 -0.002817
-0.0011743 0.0067503 0.028871 -0.014873 0.15951 0.29586 -0.00051483 -0.0014692
-0.0015523 -0.00086073 -0.00040427 -0.0010961
0.0026183 0.00079079 0.0014982 -0.0016875 -0.00051262 -0.001467 -0.048825 0.27957
0.018272 0.017214 -0.0028566 0.0017637
4.2882e-05 -0.0036008 -0.0024734 -0.0024076 -0.0015641 -0.00085833 0.018321 0.017186
-0.077508 0.18711 0.013371 0.017869
-0.0006277 -0.0016534 -0.0013769 -0.0027948 -0.00041605 -0.0010932 -0.0028521 0.0017675
0.013356 0.017863 -0.12927 0.27469
1100000000 0.038117 0.30621 0.035394 -0.0044701 0.0028038 0.0037387 0.0025088 -0.0012998
-0.0021566 -0.0030372 -0.0039291 0.00015729
0.035363 -0.0044533 -0.12855 0.37391 0.014842 -0.02745 6.224e-05 -0.0018001
-0.0032617 -0.00064992 -0.0033688 -0.00054816
0.002805 0.0037327 0.014755 -0.027555 0.20553 0.27544 -0.0017961 0.00019824
-0.0017772 0.00060641 -0.00096472 -0.00030249
0.0025007 -0.0013017 4.6602e-05 -0.0018112 -0.0017964 0.00019846 -0.0085015 0.28459
0.022735 0.0049644 -0.00242 0.00067887
-0.0021829 -0.0030279 -0.0032758 -0.00064082 -0.0017729 0.00061258 0.02276 0.0049209
-0.059161 0.20017 0.018572 0.0083501
-0.0039299 0.0001598 -0.003373 -0.00053121 -0.00096826 -0.00030474 -0.0024162 0.00067637
0.018557 0.0083546 -0.082449 0.30265
1160000000 0.08941 0.30099 0.023491 -0.020586 0.0025943 -0.00041706 -0.00012666 -0.0024517
-0.0039876 -0.00051345 -0.00093398 0.0038177
0.023492 -0.020585 -0.085024 0.37788 -0.0037305 -0.028668 -0.0017148 -0.0016916
-0.0025886 0.002569 -0.0012532 0.0016305
0.0025862 -0.00041668 -0.0038701 -0.028693 0.24836 0.24471 -0.00066612 0.0016953
-0.0004478 0.0018579 -0.00095635 0.00010822
-0.00013179 -0.0024384 -0.0017254 -0.0016914 -0.00067175 0.0017004 0.030699 0.28179
0.019333 -0.0095897 -0.0027175 0.0055036
-0.0039929 -0.0004894 -0.0025891 0.0026109 -0.00044594 0.0018561 0.019326 -0.0096398
-0.026136 0.20906 0.017178 0.00052861
-0.00090671 0.0038243 -0.00126 0.001641 -0.00096035 0.00011749 -0.0027145 0.005515
0.017179 0.00053128 -0.035639 0.3052
1220000000 0.13371 0.28948 0.01004 -0.02959 -0.0015551 -0.00068368 -1.3669e-05 -0.0011022
-0.0025545 0.0025539 0.0013331 0.001879
0.010052 -0.029568 -0.041064 0.38959 -0.016627 -0.02081 -0.0024919 0.00039435
0.0001381 0.0029494 -0.00071507 0.0017941
-0.0015583 -0.00068069 -0.016741 -0.020768 0.28741 0.20578 0.0008369 0.0016413
0.00055328 0.0011515 0.00026152 0.00072823
-1.3029e-05 -0.0010955 -0.0024875 0.00038817 0.00082916 0.0016455 0.070331 0.2736
0.0094792 -0.015432 0.0024704 0.0017303
-0.0025465 0.002576 0.00015302 0.0029585 0.00055148 0.0011488 0.0094632 -0.015459
-0.0031954 0.21803 0.013337 -0.012211
0.0013464 0.0018876 -0.00070775 0.0018022 0.00026381 0.00073121 0.0024699 0.0017348
0.013347 -0.012209 -0.0038288 0.32063
1280000000 0.18309 0.26703 -0.0078599 -0.027936 -0.0017336 0.0025759 -0.0010046 -0.0020077
-0.00064676 0.0030601 0.0025238 0.0010412
-0.0078371 -0.027917 0.0045565 0.38062 -0.023305 -0.0084175 -0.0010512 0.0014593
0.0016479 0.0017194 0.00052887 0.0019525
-0.0017242 0.0025891 -0.023379 -0.0083142 0.31808 0.16212 0.0014406 -0.00013501
0.001085 8.0915e-05 0.00031841 0.0003828
-0.0010142 -0.0019997 -0.0010475 0.0014706 0.0014388 -0.00013583 0.10684 0.25767
0.00080869 -0.017294 0.00039245 0.00020533
-0.00063123 0.0030717 0.0016657 0.0017113 0.0010759 7.6538e-05 0.00075277 -0.017305
0.033487 0.22184 0.0028473 -0.014262
0.0025337 0.0010233 0.00054398 0.0019365 0.00032258 0.0003827 0.00038558 0.00020611
0.0028502 -0.01426 0.04364 0.32093
1340000000 0.21988 0.23308 -0.017375 -0.018565 0.00096243 0.0043837 -0.0018821 -0.00082027
0.0014671 0.00264 0.00177 -0.0015041
-0.017347 -0.018562 0.043946 0.37252 -0.021306 0.0040792 -9.2589e-05 0.002029
0.0017915 0.00069831 0.0013175 0.00090685
0.00097554 0.0043914 -0.021322 0.0041848 0.34041 0.114 0.0010169 -0.00086264
0.00067105 -0.00039189 0.00015737 0.00025399
-0.0018851 -0.00080773 -8.6388e-05 0.0020296 0.0010196 -0.00086672 0.13991 0.23773
-0.0075037 -0.01466 0.0012191 0.00017949
0.0014767 0.0026175 0.0018117 0.00068533 0.00067598 -0.00039746 -0.0075469 -0.014648
0.063587 0.21737 -0.0033198 -0.012967
0.001763 -0.0015273 0.0013249 0.00091434 0.00015805 0.00025464 0.001217 0.00017538
-0.0033128 -0.012969 0.081928 0.31551
1400000000 0.25255 0.19465 -0.022944 -0.0073313 0.0051721 0.0029754 -0.0020354 0.00066489
0.0024978 0.00076917 0.00023732 -0.0014617
-0.022919 -0.0073328 0.080999 0.35959 -0.014689 0.012111 0.0013573 0.0013244
0.0010939 -0.00082223 0.0012192 0.00022503
0.0051893 0.0029514 -0.014645 0.012196 0.35356 0.060194 0.00012009 -0.0014619
7.3806e-05 -0.0003262 0.00039063 0.00013716
-0.0020413 0.00067563 0.0013727 0.0013139 0.00011395 -0.0014568 0.16984 0.20934
-0.012733 -0.0086423 -0.00051919 -0.00064847
0.0025113 0.00074953 0.0010892 -0.00082399 7.6285e-05 -0.00032753 -0.012766 -0.0086152
0.096296 0.21271 -0.0095478 -0.008343
0.00022872 -0.0014692 0.0012326 0.00021226 0.00039504 0.00013784 -0.0005212 -0.00064104
-0.009535 -0.0083506 0.12594 0.30391
1460000000 0.27498 0.15053 -0.020054 0.0045528 0.0055183 -0.0017979 -0.0015287 0.0017423
0.0020147 -0.00068575 -0.00035931 -0.0008835
-0.020046 0.0045343 0.11542 0.3379 -0.0062361 0.015046 0.0017484 0.00016756
0.00089561 -0.0011932 0.001239 -0.00067141
0.0055089 -0.0018166 -0.0061603 0.0151 0.35952 0.0054527 -0.0011015 -0.0012579
0.0002142 -0.00010031 0.00073383 -0.00038303
-0.001533 0.0017612 0.0017642 0.00015539 -0.0011008 -0.001262 0.19689 0.1803
-0.013585 -0.0029567 -0.0010509 0.0014793
0.0020196 -0.00069718 0.00088254 -0.0011951 0.00021385 -9.8105e-05 -0.013597 -0.0029221
0.12607 0.19811 -0.011242 -0.0029022
-0.00034801 -0.00088654 0.0012248 -0.00068103 0.00073763 -0.00039528 -0.0010447 0.0014784
-0.011235 -0.0029059 0.1592 0.28235
1520000000 0.28683 0.10884 -0.014528 0.010026 0.0030956 -0.0042046 8.7366e-05 0.0025859
0.0018233 -0.0017104 -0.0011952 -0.00010336
-0.014529 0.010008 0.14911 0.323 0.0013254 0.013005 0.0016356 -0.0008405
8.0866e-05 -0.00095115 0.0003187 -0.0010607
0.0030736 -0.0042171 0.001395 0.01301 0.35243 -0.051025 -0.00099314 -0.00038318
0.00058601 -0.00083994 -7.0618e-05 -6.3386e-05
9.5704e-05 0.0025817 0.0016308 -0.00084967 -0.00099488 -0.00038698 0.22084 0.14208
-0.01317 0.0019431 0.0010998 0.001765
0.0018086 -0.0017251 6.8881e-05 -0.0009488 0.00058788 -0.00084157 -0.013175 0.0019842
0.15412 0.18371 -0.011272 0.0013584
-0.0012016 -9.9396e-05 0.00030456 -0.0010639 -7.0188e-05 -6.1216e-05 0.0011124 0.0017715
-0.011276 0.0013515 0.19183 0.2612
1580000000 0.2958 0.062567 -0.008073 0.013072 -0.00096315 -0.0047917 0.0013874 0.0018477
-0.00041605 -0.0021445 -0.00041864 0.00044469
-0.0080811 0.013059 0.17653 0.29815 0.0049934 0.0083302 0.00044123 -0.0016182
-0.00043843 -0.0010462 -0.00025931 -0.00087999
-0.00098703 -0.0047954 0.0050439 0.0083104 0.3318 -0.10858 -0.0015609 0.00045786
-0.00027249 -0.0011732 0.00012369 -0.00052856
0.0014048 0.0018396 0.00043549 -0.001619 -0.0015594 0.00045336 0.23552 0.1022
-0.010407 0.0062426 0.0019397 0.00065751
-0.00043116 -0.0021415 -0.00044931 -0.0010473 -0.00027299 -0.0011742 -0.010386 0.0062906
0.17871 0.16548 -0.0090298 0.0067836
-0.00042121 0.00045012 -0.00027189 -0.0008861 0.00011954 -0.00053131 0.0019558 0.00065505
-0.0090385 0.0067835 0.22329 0.2339
1640000000 0.2976 0.021201 -0.0015735 0.012108 -0.0027762 -0.0025266 0.0025926 0.0010287
-0.00084016 -0.0012625 -0.0002553 0.0006883
-0.0015773 0.012089 0.20615 0.2727 0.0057491 0.0036044 -0.00074672 -0.0016821
-0.00098645 -0.00048625 -0.0005631 -0.00067232
-0.0027867 -0.0025121 0.0057694 0.0035698 0.30335 -0.15784 -0.00077824 0.0013667
-0.0010642 -0.00092993 -0.00015778 -0.00033121
0.0025981 0.0010179 -0.00075983 -0.0016768 -0.00077228 0.0013623 0.24829 0.052443
-0.0067678 0.0074592 0.0021945 -0.00068999
-0.00085345 -0.0012619 -0.00098638 -0.00048049 -0.0010623 -0.00093265 -0.0067347 0.0074851
0.2019 0.14038 -0.0045787 0.0088744
-0.00024772 0.00069644 -0.00056791 -0.00066894 -0.00016263 -0.00033117 0.0022019 -0.00068865
-0.0045936 0.008873 0.24855 0.20216
1700000000 0.29002 -0.024084 0.0018408 0.0094805 -0.0034689 0.00016681 0.0029819 -0.0011365
-0.0019501 -0.00050701 0.00070024 0.00044344
0.0018386 0.0094824 0.2242 0.24083 0.0038829 0.00078231 -0.0014338 -0.00052808
-0.00082759 3.4234e-06 -0.00096261 -0.00040466
-0.0034695 0.0001896 0.0038944 0.00074998 0.25948 -0.19761 0.0003643 0.0016229
-0.0018185 -0.00018118 -0.00055872 -0.00092669
0.0029858 -0.0011453 -0.0014405 -0.00052434 0.00036861 0.0016185 0.2449 0.001401
-0.004451 0.0080988 0.0012957 -0.0020769
-0.0019569 -0.00048976 -0.00082448 8.839e-06 -0.0018224 -0.00018418 -0.0044239 0.0081126
0.21941 0.11912 -0.00017424 0.0092743
0.00070932 0.00043937 -0.00096802 -0.00039979 -0.0005661 -0.00092215 0.0012987 -0.0020852
-0.00017428 0.0092846 0.26432 0.16754
1760000000 0.27755 -0.072534 0.0042308 0.0063189 -0.002222 0.0009107 0.001318 -0.0033703
-0.001123 0.00067407 0.00041719 -0.00056423
0.0042306 0.006318 0.25002 0.20051 0.0017419 -0.0010275 -0.0011311 0.00025395
-0.0011658 0.00089954 -0.00062215 0.00054907
-0.0022182 0.00091009 0.0017432 -0.0010311 0.21036 -0.23036 0.001134 0.001259
-0.0012028 0.0013927 -0.001293 -0.00040401
0.0013023 -0.0033797 -0.0011272 0.00026194 0.0011323 0.0012558 0.2348 -0.050942
-0.0015498 0.007465 -0.00043704 -0.0023104
-0.0011229 0.00069433 -0.0011547 0.00091253 -0.0011937 0.0013869 -0.001516 0.0074753
0.23439 0.082728 0.0036603 0.0068103
0.000418 -0.00056653 -0.00061681 0.00056367 -0.0013006 -0.00040888 -0.00043336 -0.0023182
0.0036448 0.0068187 0.2764 0.12947
1820000000 0.25256 -0.10995 0.0045273 0.0027606 -5.3557e-06 0.0023681 -0.00091113 -0.0031711
-0.00080539 0.00071201 -6.9308e-05 -0.00020381
0.0045176 0.0027678 0.25952 0.17003 -0.0002382 -3.2859e-05 -0.0012969 0.00088064
-0.00011202 0.0013835 -0.00051543 0.00056869
8.7037e-07 0.0023677 -0.00023762 -3.492e-05 0.16013 -0.24597 0.0016231 0.00039612
-0.00030771 0.0021952 -0.0013916 0.0004747
-0.0009411 -0.003161 -0.0012947 0.00089054 0.0016226 0.00039063 0.2035 -0.09841
-0.0002934 0.0060062 -0.0015839 -0.0013442
-0.00080699 0.00072217 -0.0001 0.0013795 -0.00030764 0.0021966 -0.00026829 0.0060093
0.25092 0.05189 0.0046259 0.0034912
-6.9751e-05 -0.00020887 -0.00051269 0.00057169 -0.0013831 0.0004859 -0.0015846 -0.0013465
0.0046226 0.0034894 0.27781 0.092982
1880000000 0.21703 -0.14997 0.0023839 0.00044341 -0.00045832 0.0020325 -0.0028779 -0.0022883
-0.00017645 0.0014732 0.00022844 -0.00051091
0.0023846 0.00043219 0.26342 0.12329 -0.0021911 0.0016022 -0.00010991 0.0016733
0.00068176 0.0013948 0.00022613 0.00096172
-0.00045268 0.0020461 -0.002182 0.0016154 0.10813 -0.25529 0.0019852 -0.0009492
0.0015248 0.0020603 -0.00086597 0.0013655
-0.0028861 -0.0022699 -9.8307e-05 0.0016761 0.0019823 -0.00095122 0.16149 -0.13779
-3.5087e-05 0.0044224 -0.0023121 0.00061758
-0.00016721 0.0014747 0.00069264 0.0013871 0.0015357 0.0020616 -7.9153e-06 0.0044215
0.2526 0.017662 0.0044461 0.0014502
0.00022262 -0.00050594 0.00023311 0.00095755 -0.00086679 0.0013613 -0.0023048 0.00061483
0.0044395 0.0014529 0.27673 0.058887
1940000000 0.17726 -0.1757 0.00014342 -0.001349 0.0012862 0.0019345 -0.0037245 0.00053448
0.0011598 0.0010638 -0.0006483 -0.00050416
0.00014771 -0.0013521 0.26336 0.091431 -0.0011367 0.0038484 0.00098024 0.001303
0.0019878 0.00057229 0.00091838 0.00026985
0.0012998 0.001938 -0.0011111 0.0038646 0.062197 -0.24867 0.00035464 -0.0023378
0.0024551 0.00050225 0.00046931 0.0016439
-0.0037179 0.00055079 0.00099015 0.0012808 0.00035505 -0.0023273 0.10834 -0.1671
-0.0012173 0.003519 -0.0013687 0.001776
0.0011802 0.0010495 0.0019938 0.00056559 0.0024589 0.00049202 -0.001205 0.0035014
0.25259 -0.023059 0.0032314 -0.0017576
-0.00065709 -0.00049752 0.00091482 0.00025892 0.00046216 0.0016371 -0.0013755 0.0017608
0.0032287 -0.0017574 0.26497 0.022665
2000000000 0.13053 -0.18978 -0.0037985 0.00069749 0.0024188 0.0015673 -0.0023855 0.0037251
0.00091301 0.00027563 -0.00062957 0.00043934
-0.0037966 0.00069451 0.24856 0.056162 -0.00085508 0.0057151 0.0016117 0.00034788
0.0014991 -0.0014616 0.00049766 9.9844e-05
0.0024344 0.0015548 -0.00081095 0.0057312 0.018784 -0.23407 -0.0014464 -0.0014192
0.0020234 -0.001277 0.0016266 0.0012264
-0.0023735 0.0037303 0.0016181 0.00033288 -0.0014478 -0.001422 0.054983 -0.17527
-0.0026855 0.0041624 0.00019113 0.002235
0.00091645 0.00027788 0.0014905 -0.0014695 0.0020217 -0.0012847 -0.0026828 0.0041519
