!Keysight Technologies,M9804A,MY58100912,A.14.10.03
!Date: Thursday, April 27, 2023 10:28:33
!Correction: S11(C  6-Port  ) 
!S12(C  6-Port  ) 
!S13(C  6-Port  ) 
!S14(C  6-Port  ) 
!S15(C  6-Port  ) 
!S16(C  6-Port  ) 
!S21(C  6-Port  ) 
!S22(C  6-Port  ) 
!S23(C  6-Port  ) 
!S24(C  6-Port  ) 
!S25(C  6-Port  ) 
!S26(C  6-Port  ) 
!S31(C  6-Port  ) 
!S32(C  6-Port  ) 
!S33(C  6-Port  ) 
!S34(C  6-Port  ) 
!S35(C  6-Port  ) 
!S36(C  6-Port  ) 
!S41(C  6-Port  ) 
!S42(C  6-Port  ) 
!S43(C  6-Port  ) 
!S44(C  6-Port  ) 
!S45(C  6-Port  ) 
!S46(C  6-Port  ) 
!S51(C  6-Port  ) 
!S52(C  6-Port  ) 
!S53(C  6-Port  ) 
!S54(C  6-Port  ) 
!S55(C  6-Port  ) 
!S56(C  6-Port  ) 
!S61(C  6-Port  ) 
!S62(C  6-Port  ) 
!S63(C  6-Port  ) 
!S64(C  6-Port  ) 
!S65(C  6-Port  ) 
!S66(C  6-Port  ) 
!S6P File: Measurement: :
# Hz S  RI   R 50
500000000 -0.33839 -0.036898 -0.010329 -0.0030855 -0.0078517 0.012277 -0.0036983 0.011588
0.012005 0.0044599 -0.0039042 0.0080284
-0.010311 -0.0030947 -0.41937 -0.05008 0.0076708 -0.010898 0.0016212 0.01217
0.0072107 0.0022622 0.00087479 0.013355
-0.0078815 0.012274 0.0076641 -0.01095 -0.26539 0.21103 0.0070282 0.0034458
-0.00071371 0.0086571 0.00050955 0.012319
-0.003702 0.011655 0.0016798 0.012123 0.0070216 0.0034188 -0.32784 0.046031
-0.020649 -0.0045652 0.018027 0.025577
0.012174 0.0044847 0.0071465 0.0022762 -0.00069759 0.008709 -0.020648 -0.0045448
-0.22685 -0.18639 -0.028235 0.0043385
-0.003838 0.0080948 0.00095374 0.013296 0.00054846 0.012302 0.017977 0.025568
-0.028211 0.0043911 -0.27202 -0.11695
560000000 -0.31753 0.12458 -0.023595 -0.062514 0.0003312 0.012198 0.0064853 0.010085
0.010126 0.0045673 0.010315 0.0080382
-0.023522 -0.062466 -0.3766 0.10833 -0.042267 -0.036292 0.013346 0.003807
-0.013126 -0.0043136 0.0041635 -0.00051651
0.000382 0.012219 -0.042333 -0.036226 -0.18297 0.25883 -0.00024231 -0.0045783
0.019178 0.0046574 0.0069254 -0.0061002
0.0063849 0.010159 0.013418 0.0038828 -0.00027608 -0.0045733 -0.30345 0.13547
0.0039765 -0.024495 0.0046029 -0.019613
0.010201 0.0044867 -0.013485 -0.0043224 0.019228 0.0046048 0.0039693 -0.024479
-0.28753 -0.010399 0.0074822 -0.050301
0.01035 0.0079509 0.0040679 -0.00049641 0.0069583 -0.0060712 0.0045582 -0.019662
0.0074754 -0.050337 -0.33181 0.029962
620000000 -0.27479 0.10931 -0.022752 0.0077642 0.0036856 0.0081768 0.0069094 -0.0053295
0.011419 -0.00023929 0.00016265 -0.0018767
-0.022726 0.0077537 -0.40292 0.061774 -0.018624 8.2407e-05 -0.0010803 -0.0018921
0.01069 -0.0070353 0.0011611 -0.002549
0.003712 0.0081959 -0.018643 0.00014746 -0.15282 0.26802 -0.0014695 -0.0051011
-0.0033413 -0.0032223 0.0082694 -0.0033406
0.0068535 -0.0053442 -0.0010995 -0.0018576 -0.0014921 -0.0050624 -0.26276 0.14612
-0.039047 -0.018771 0.014195 0.024597
0.011485 -0.00036341 0.010633 -0.0071285 -0.0034222 -0.0032965 -0.03907 -0.018736
-0.20594 -0.049344 -0.040857 0.014557
0.00041377 -0.0019529 0.0012516 -0.0026539 0.0082966 -0.0034678 0.014163 0.024604
-0.040873 0.014466 -0.2508 -0.0056835
680000000 -0.23403 0.19458 -0.027364 -0.013832 0.0049202 0.0047794 0.0013547 -0.0074637
-0.0028742 -0.011116 0.004672 -0.0068049
-0.027339 -0.013842 -0.38738 0.1592 -0.032502 -0.001383 -0.0015865 -0.0003581
-0.0025778 -0.0090351 -0.0010318 -0.0020558
0.0049099 0.004785 -0.03252 -0.0012893 -0.10175 0.28747 -0.00074984 -5.5389e-06
-0.0022338 0.00038634 -0.0028584 -0.0095615
0.0012945 -0.0074695 -0.0016272 -0.00032609 -0.00077832 -7.2805e-06 -0.21988 0.19548
-0.023682 -0.0079283 -0.0090172 -0.010397
-0.0029553 -0.011193 -0.002614 -0.0089989 -0.0022277 0.00038601 -0.023696 -0.0079103
-0.25458 0.049307 -0.005704 -0.0091618
0.0046761 -0.0068154 -0.00099302 -0.0020898 -0.0028404 -0.0095619 -0.0090012 -0.010407
-0.0057114 -0.0091384 -0.25871 0.096803
740000000 -0.18947 0.18904 -0.038276 0.026623 0.012464 -0.0054094 -0.00070869 -0.0039802
-0.0044223 -0.0031033 -0.0064035 0.0032363
-0.0383 0.0266 -0.33467 0.17766 -0.034767 0.035087 -0.00069052 -0.0065748
-0.012051 0.0076652 -0.002661 -0.0059502
0.012474 -0.0054492 -0.034706 0.03517 -0.06803 0.28589 -0.0016874 0.0033846
-0.0027283 -0.0043061 -0.0014268 0.00010672
-0.00072845 -0.003968 -0.00073096 -0.0065607 -0.0016849 0.0033674 -0.20267 0.20319
-0.042399 -0.0080946 0.022107 0.013878
-0.0043706 -0.0031088 -0.012092 0.0077469 -0.0027605 -0.00428 -0.042438 -0.0080661
-0.15872 0.074864 -0.041264 0.00061415
-0.0064896 0.0031929 -0.0025363 -0.0059814 -0.0014299 7.8106e-05 0.022146 0.013871
-0.041253 0.00053345 -0.24727 0.10325
800000000 -0.15654 0.22899 -0.02226 0.01689 0.0050941 -0.010437 -0.0047857 -0.0019323
-0.0041212 0.0026154 0.0043873 0.00099886
-0.022264 0.016857 -0.33759 0.24812 -0.0078165 0.033843 -0.0021739 0.0022789
-0.00097394 0.003214 0.0011019 0.0052913
0.0050799 -0.010452 -0.0076976 0.033904 -0.027006 0.3087 0.0010248 0.0016333
0.00053944 0.0036645 -0.0017889 0.0008972
-0.0048082 -0.0019039 -0.0021727 0.0022818 0.0010143 0.0016336 -0.17445 0.23068
-0.027975 0.012692 0.013061 -0.0098896
-0.0041064 0.002624 -0.00093083 0.0032498 0.00059547 0.003679 -0.027978 0.01275
-0.20158 0.098005 -0.01693 0.017755
0.0043688 0.0010238 0.001125 0.0053493 -0.0018064 0.00092503 0.013071 -0.0099127
-0.016942 0.017739 -0.23884 0.15423
860000000 -0.12166 0.24906 -0.017113 0.030745 -0.0033082 -0.0097082 -0.0023476 0.0010327
0.0039427 0.0050963 -0.0029718 -0.0024723
-0.017131 0.030703 -0.28947 0.28992 0.0080379 0.033936 0.00012266 0.0021797
0.0041243 0.00067226 0.0034538 0.00053005
-0.0033325 -0.0097014 0.0081535 0.033935 0.021229 0.31639 -0.00043989 -0.00021913
0.0028724 -0.0013713 0.0016506 0.004303
-0.0023463 0.0010653 0.00011911 0.0022306 -0.0004547 -0.00022761 -0.13833 0.24195
-0.017623 0.018285 -0.0062141 -0.0087008
0.0040057 0.0051475 0.0041298 0.00075983 0.00286 -0.0013928 -0.017598 0.018323
-0.15137 0.14619 -0.024104 0.015586
-0.0029681 -0.0024829 0.0034455 0.00049573 0.0016759 0.0043058 -0.0062399 -0.0086969
-0.024104 0.015576 -0.18894 0.19628
920000000 -0.096676 0.27164 0.0053714 0.03737 -0.0092037 -0.0042858 -0.0018615 0.0020384
0.0015762 0.0016501 0.0025381 -0.0016371
0.0053345 0.037328 -0.26035 0.31055 0.027894 0.021572 0.0015804 0.0010515
0.0070114 -0.00063269 0.0038621 -0.0029437
-0.0092283 -0.004261 0.02801 0.021506 0.067465 0.31667 0.0018519 -0.00015786
0.0012741 -0.00036039 0.00083812 -0.0011279
-0.0018614 0.0020066 0.001576 0.0010378 0.0018816 -0.00015968 -0.11437 0.25814
-0.010213 0.029847 0.0027831 -0.0066988
0.0015623 0.0016605 0.0070042 -0.00065681 0.0012725 -0.00035695 -0.010169 0.029889
-0.14077 0.15166 -0.0020667 0.027186
0.0025648 -0.0015952 0.0038427 -0.0029251 0.00082118 -0.0011317 0.002788 -0.0066939
-0.002076 0.027156 -0.19433 0.21062
980000000 -0.049449 0.29084 0.017611 0.029624 -0.008796 0.004557 0.0022224 0.0036227
0.0040885 -0.0017591 -0.0031009 -0.0021692
0.01758 0.029587 -0.20754 0.34431 0.032656 0.0045721 0.0019771 3.218e-05
0.0014371 -0.0062056 -0.00056209 -0.0021645
-0.0087929 0.0045783 0.032712 0.0044763 0.11363 0.30983 0.00048285 -0.0011978
0.00017682 -0.0021298 0.0014173 -1.9594e-05
0.0022279 0.003635 0.0019647 3.5924e-05 0.00048775 -0.0011976 -0.076126 0.26974
0.0073152 0.02869 -0.0090422 -0.0065471
0.0040627 -0.0017989 0.001412 -0.0062355 0.00020464 -0.0021213 0.0073792 0.028695
-0.10887 0.17911 0.0050196 0.019038
-0.0031111 -0.0021629 -0.000585 -0.0021912 0.0014231 -3.7971e-05 -0.0090665 -0.0065265
0.0050141 0.019031 -0.15105 0.25554
1040000000 -0.0071381 0.29895 0.032979 0.017732 -0.0011853 0.0067454 0.0026031 0.00079005
5.4218e-05 -0.0036 -0.00063338 -0.0016523
0.032913 0.01771 -0.1721 0.35717 0.028876 -0.014762 0.001535 -0.0016624
-0.0025053 -0.0024688 -0.0013572 -0.0028224
-0.0011758 0.0067513 0.028861 -0.014849 0.15953 0.29587 -0.00049809 -0.0014616
-0.0015522 -0.00085244 -0.00041462 -0.0011048
0.0026219 0.00078587 0.001509 -0.001684 -0.00050925 -0.0014552 -0.048783 0.27958
0.018283 0.017249 -0.0028633 0.0017536
5.1583e-05 -0.0036174 -0.0024668 -0.002419 -0.0015524 -0.00085344 0.018321 0.017222
-0.077506 0.18718 0.013383 0.01786
-0.00062807 -0.0016572 -0.0013844 -0.0028034 -0.00041746 -0.0011024 -0.0028714 0.0017595
0.013357 0.017843 -0.12936 0.27467
1100000000 0.038111 0.30625 0.035404 -0.0045129 0.002793 0.0037668 0.0025176 -0.0013105
-0.002147 -0.0030339 -0.0039608 0.0001595
0.035364 -0.004495 -0.1286 0.37393 0.014832 -0.027442 6.9415e-05 -0.0018056
-0.0032727 -0.00064961 -0.0033824 -0.00055415
0.0028042 0.0037381 0.014743 -0.02752 0.20551 0.2754 -0.0017914 0.00020825
-0.0017821 0.00060797 -0.00097029 -0.0003278
0.0025233 -0.0013114 4.4944e-05 -0.001822 -0.0018063 0.00020274 -0.0084825 0.28459
0.022745 0.0049682 -0.0024298 0.00067385
-0.0021565 -0.0030231 -0.0032989 -0.00064679 -0.0017744 0.00060437 0.022758 0.0049208
-0.059122 0.20018 0.018561 0.0083461
-0.0039393 0.00015048 -0.0033717 -0.000552 -0.00094826 -0.00029621 -0.0024301 0.00068276
0.018551 0.0083405 -0.082456 0.3027
1160000000 0.089432 0.30104 0.023485 -0.02065 0.0025898 -0.00038247 -0.0001115 -0.0024288
-0.0039947 -0.00051594 -0.00094906 0.0038142
0.023466 -0.020637 -0.085046 0.37793 -0.0037392 -0.028687 -0.0017013 -0.0016926
-0.0026258 0.0025886 -0.0012492 0.0016296
0.0025919 -0.00040647 -0.0038636 -0.028679 0.24838 0.24469 -0.00069042 0.0016947
-0.0004507 0.0018717 -0.00096004 0.00010881
-0.00012897 -0.0024341 -0.0017226 -0.0016922 -0.00068873 0.0016927 0.030717 0.28179
0.019333 -0.0095997 -0.0027296 0.0055081
-0.0039855 -0.0004804 -0.0025872 0.0026203 -0.00044097 0.0018705 0.019325 -0.0096299
-0.026086 0.20905 0.017182 0.00051745
-0.00090397 0.0038221 -0.0012517 0.0016244 -0.00095803 9.9091e-05 -0.0027054 0.0055199
0.017174 0.00051122 -0.035667 0.30517
1220000000 0.13377 0.28949 0.010008 -0.029639 -0.0015565 -0.00066868 -8.4403e-06 -0.0011023
-0.002551 0.0025576 0.0013405 0.0018974
0.01001 -0.029618 -0.041068 0.38962 -0.016622 -0.020822 -0.0024897 0.00038067
0.00013603 0.0029433 -0.00073572 0.001802
-0.0015575 -0.00067778 -0.016733 -0.020757 0.28741 0.20578 0.00081347 0.0016456
0.00055404 0.0011473 0.00026188 0.000739
-1.4119e-05 -0.0011043 -0.0025017 0.00038071 0.00082978 0.0016468 0.070317 0.27359
0.0094658 -0.015436 0.0024614 0.0017463
-0.0025336 0.0025617 0.0001621 0.0029499 0.00054219 0.0011596 0.0094447 -0.015463
-0.0031824 0.21805 0.013356 -0.012224
0.0013425 0.001887 -0.00070606 0.0018 0.00025892 0.00073122 0.0024602 0.001742
0.013347 -0.012217 -0.0038501 0.32065
1280000000 0.18317 0.26705 -0.0079423 -0.027951 -0.0017267 0.0025792 -0.0010105 -0.0020061
-0.00065248 0.0030717 0.0025429 0.0010481
-0.007923 -0.027922 0.0045714 0.38064 -0.023297 -0.0084301 -0.0010502 0.001464
0.0016622 0.0017168 0.00052409 0.0019548
-0.0017275 0.002586 -0.023375 -0.0083332 0.31808 0.16214 0.0014406 -0.00012555
0.0010662 8.0699e-05 0.00031773 0.00037381
-0.00099874 -0.0020036 -0.0010552 0.0014669 0.001434 -0.00012074 0.10684 0.25767
0.00078886 -0.017287 0.00039028 0.000212
-0.00062234 0.0030708 0.0016816 0.0017155 0.0010752 8.4383e-05 0.00074606 -0.017296
0.033461 0.22181 0.0028523 -0.014279
0.0025393 0.0010349 0.000536 0.0019489 0.00034014 0.00037043 0.00038818 0.00020304
0.0028646 -0.014276 0.043599 0.32094
1340000000 0.21997 0.23301 -0.017455 -0.018549 0.00096686 0.004385 -0.0018746 -0.0008301
0.001447 0.0026422 0.0017721 -0.0015162
-0.017419 -0.018548 0.043989 0.37251 -0.021311 0.0040718 -0.00010248 0.0020381
0.0018042 0.00069301 0.0013238 0.00090694
0.00098599 0.0043819 -0.021315 0.0041676 0.34042 0.11399 0.0010127 -0.00085829
0.000671 -0.00039301 0.00015835 0.00025181
-0.0018783 -0.00082159 -8.6875e-05 0.0020336 0.0010126 -0.00085818 0.1399 0.23772
-0.0075175 -0.01466 0.0012308 0.00017724
0.0014682 0.0026393 0.0018168 0.00069553 0.00067612 -0.00040546 -0.0075486 -0.014656
0.063561 0.21731 -0.0033154 -0.012975
0.0017642 -0.0015392 0.0013322 0.00090677 0.00016378 0.00025274 0.0012182 0.00018131
-0.0033095 -0.012979 0.081872 0.31551
1400000000 0.25255 0.19457 -0.022997 -0.0072826 0.0051779 0.0029642 -0.0020436 0.00066375
0.0024952 0.00077144 0.00024437 -0.0014662
-0.022969 -0.0072939 0.081051 0.35956 -0.014707 0.012099 0.0013653 0.0013282
0.0010967 -0.00081924 0.0012294 0.00021419
0.0051961 0.0029557 -0.014657 0.012191 0.35357 0.06016 0.00012048 -0.0014593
8.1612e-05 -0.00031928 0.00038927 0.00013462
-0.0020482 0.00066999 0.0013781 0.0013237 0.00012011 -0.0014682 0.1698 0.20933
-0.012735 -0.008637 -0.00051371 -0.00063463
0.0024964 0.0007624 0.0010867 -0.00082753 7.3444e-05 -0.00031592 -0.012756 -0.0086175
0.096239 0.21268 -0.0095567 -0.008367
0.00022656 -0.0014658 0.0012362 0.00021868 0.0003875 0.00012498 -0.00051837 -0.00064255
-0.0095458 -0.0083901 0.12584 0.30392
1460000000 0.27493 0.15044 -0.020071 0.0046362 0.0055192 -0.0018053 -0.0015431 0.0017499
0.0020228 -0.00069104 -0.00035835 -0.00088374
-0.02004 0.0046165 0.11543 0.33784 -0.0062442 0.015044 0.0017591 0.00016614
0.00088809 -0.0011875 0.0012361 -0.00065773
0.0055121 -0.0018348 -0.0061839 0.015092 0.35954 0.0054304 -0.0011101 -0.0012692
0.00020785 -9.9697e-05 0.00073067 -0.00037764
-0.0015253 0.0017515 0.0017667 0.00016549 -0.0010998 -0.0012656 0.1969 0.18032
-0.013577 -0.0029471 -0.0010422 0.0014755
0.0020213 -0.00070064 0.00088193 -0.0012053 0.00021245 -9.8294e-05 -0.0136 -0.0029155
0.12602 0.1981 -0.011262 -0.0029184
-0.00036767 -0.00087593 0.0012304 -0.00068338 0.00072826 -0.00040918 -0.0010446 0.0014979
-0.011251 -0.0029242 0.15897 0.2824
1520000000 0.28677 0.10877 -0.014495 0.010107 0.003107 -0.0042129 8.7756e-05 0.0025947
0.0018274 -0.0017012 -0.0012071 -9.9482e-05
-0.014487 0.010087 0.14908 0.32297 0.0013149 0.013013 0.0016335 -0.00083908
7.3364e-05 -0.00094861 0.00031857 -0.0010578
0.003073 -0.0042275 0.0013942 0.013018 0.35243 -0.051055 -0.00099462 -0.00038136
0.00058282 -0.00083784 -7.2529e-05 -6.869e-05
9.8013e-05 0.0025968 0.0016344 -0.00085351 -0.00098978 -0.00038021 0.22083 0.14209
-0.013167 0.0019445 0.0011079 0.0017699
0.0018056 -0.001715 6.1303e-05 -0.00094494 0.00059406 -0.0008404 -0.013179 0.0019857
0.15405 0.18372 -0.011298 0.0013534
-0.0012106 -9.6209e-05 0.00031568 -0.0010626 -7.0715e-05 -5.6867e-05 0.0011017 0.0017576
-0.011308 0.0013397 0.19169 0.26131
1580000000 0.29572 0.062546 -0.0080155 0.013112 -0.00097056 -0.0047939 0.0014095 0.0018491
-0.00041414 -0.0021401 -0.00041987 0.00044532
-0.0080159 0.013107 0.17647 0.29812 0.0049853 0.0083306 0.00043898 -0.001623
-0.00044212 -0.0010526 -0.00026081 -0.00088354
-0.0010047 -0.0047932 0.0050304 0.0083181 0.33181 -0.10857 -0.0015518 0.00045741
-0.00027301 -0.0011847 0.00012209 -0.000529
0.0014097 0.0018368 0.0004332 -0.0016247 -0.0015766 0.00046294 0.2355 0.10223
-0.010405 0.0062474 0.0019481 0.00066661
-0.00042582 -0.0021441 -0.00044548 -0.0010463 -0.00027488 -0.0011745 -0.010405 0.0062867
0.17865 0.16551 -0.0090371 0.0067921
-0.0004133 0.00045727 -0.00026321 -0.00088082 0.00012135 -0.0005243 0.0019434 0.00065259
-0.0090386 0.0067768 0.22317 0.23397
1640000000 0.29752 0.021212 -0.001491 0.012094 -0.0027887 -0.0025126 0.0026017 0.0010184
-0.00084995 -0.001272 -0.000251 0.00068656
-0.0015035 0.012098 0.2061 0.27274 0.005745 0.0036048 -0.00076369 -0.0016808
-0.00098072 -0.00048078 -0.00056102 -0.00067197
-0.0027988 -0.0024923 0.0057695 0.0035744 0.30335 -0.15786 -0.00077546 0.0013622
-0.0010707 -0.0009361 -0.00016948 -0.00033925
0.0026103 0.0010173 -0.00077502 -0.0016798 -0.00077302 0.0013615 0.2483 0.052438
-0.0067491 0.0074517 0.0022029 -0.00068724
-0.00085126 -0.0012602 -0.00098117 -0.00047946 -0.0010639 -0.00094715 -0.0067294 0.007486
0.20185 0.1404 -0.0046046 0.0088859
-0.00024964 0.00068405 -0.00056597 -0.00067264 -0.00016723 -0.00034218 0.0022088 -0.00069212
-0.0046056 0.0088928 0.24848 0.20225
1700000000 0.28996 -0.024008 0.0018943 0.0094383 -0.0034707 0.00016704 0.0029841 -0.0011355
-0.0019487 -0.00049672 0.00070749 0.00043887
0.0018942 0.0094416 0.22417 0.24087 0.003886 0.00077314 -0.0014399 -0.0005156
-0.00082203 6.7833e-06 -0.00096854 -0.0004136
-0.0034719 0.00018682 0.0038914 0.00076164 0.25944 -0.19763 0.0003733 0.0016152
-0.001807 -0.00018748 -0.00055927 -0.00092502
0.0029808 -0.0011535 -0.0014515 -0.00050747 0.00036841 0.0016135 0.24488 0.0014127
-0.004448 0.0080916 0.0013152 -0.0020811
-0.0019521 -0.00049133 -0.00083277 1.2499e-05 -0.0018018 -0.00018296 -0.004429 0.0081142
0.21937 0.11916 -0.0001846 0.009301
0.00071939 0.00043496 -0.00097475 -0.00040151 -0.00057055 -0.00092568 0.0013146 -0.002085
-0.00018984 0.0093066 0.26429 0.16763
1760000000 0.27754 -0.072452 0.0042577 0.0062472 -0.0022192 0.00090443 0.0013064 -0.0033883
-0.0011189 0.0006861 0.00042079 -0.00057
0.0042535 0.0062415 0.25001 0.20056 0.0017491 -0.0010241 -0.0011261 0.0002554
-0.0011628 0.00089422 -0.0006195 0.00055804
-0.0022091 0.00092337 0.0017483 -0.0010393 0.21036 -0.23038 0.0011271 0.0012408
-0.001195 0.0013946 -0.0012879 -0.00039601
0.0012942 -0.0033822 -0.0011241 0.00026338 0.0011384 0.0012558 0.23483 -0.050908
-0.0015498 0.0074657 -0.00042602 -0.0023195
-0.0011119 0.00069294 -0.0011588 0.00091061 -0.001196 0.001397 -0.001524 0.0074741
0.23437 0.082773 0.003651 0.0068465
0.00040848 -0.00057382 -0.00061299 0.00056872 -0.0013015 -0.00039041 -0.00042523 -0.0023242
0.0036458 0.0068426 0.27638 0.12955
1820000000 0.25261 -0.10988 0.0045203 0.0026957 -2.2958e-05 0.0023625 -0.00091871 -0.0031541
-0.00081157 0.00071375 -7.0097e-05 -0.00021002
0.0045116 0.0026971 0.25957 0.17007 -0.00023715 -2.4535e-05 -0.0012902 0.00088554
-0.00011565 0.0013739 -0.00051692 0.00056336
2.3355e-06 0.0023624 -0.00022676 -3.0277e-05 0.16014 -0.24599 0.001618 0.00038935
-0.00031202 0.0022057 -0.0013939 0.00048122
-0.00094065 -0.0031526 -0.0012919 0.00090057 0.0016107 0.00040229 0.20349 -0.09841
-0.00028413 0.0060049 -0.0015913 -0.0013595
-0.00079251 0.00072557 -0.00010832 0.0013835 -0.00030787 0.0022122 -0.00026719 0.0060104
0.2509 0.051948 0.0046392 0.0035118
-6.958e-05 -0.00019625 -0.00050979 0.00057933 -0.0013981 0.0004949 -0.0015942 -0.0013534
0.0046352 0.0035114 0.27784 0.093088
1880000000 0.21708 -0.14992 0.0023428 0.00038621 -0.00044996 0.0020496 -0.0028722 -0.0022897
-0.00017719 0.0014681 0.00022745 -0.00050122
0.0023362 0.00038675 0.26346 0.12331 -0.0021918 0.0016019 -9.8551e-05 0.0016672
0.00068253 0.001394 0.00022464 0.00096556
-0.0004371 0.0020554 -0.0021816 0.0016267 0.10811 -0.25527 0.0019912 -0.00095128
0.0015389 0.0020541 -0.00086873 0.0013698
-0.0028885 -0.0022674 -9.6544e-05 0.0016641 0.0019814 -0.00095779 0.16153 -0.13778
-1.8678e-05 0.0044221 -0.002306 0.00061556
-0.00015838 0.0014682 0.00069547 0.0013924 0.0015434 0.0020496 -8.7087e-06 0.00442
0.2526 0.017698 0.0044802 0.0014644
0.00021146 -0.00050849 0.00024413 0.00095925 -0.00085743 0.0013671 -0.0023125 0.0006198
0.0044729 0.0014674 0.27678 0.058964
1940000000 0.17735 -0.17566 0.0001043 -0.0013671 0.0012931 0.0019456 -0.0037282 0.00054075
0.0011532 0.0010576 -0.00065223 -0.00050913
0.00010191 -0.0013606 0.26342 0.091406 -0.0011243 0.0038568 0.00097981 0.0012929
0.0019878 0.00058328 0.00090994 0.00026721
0.001313 0.001927 -0.0011133 0.0038607 0.06219 -0.24864 0.00035797 -0.0023207
0.0024515 0.00049407 0.00045076 0.0016228
-0.0037188 0.00056859 0.00098239 0.0012938 0.00035387 -0.0023098 0.10838 -0.16711
-0.0012144 0.0035096 -0.0013816 0.0017508
0.0011655 0.0010486 0.001992 0.00056434 0.0024525 0.00049967 -0.0011944 0.0035139
0.2526 -0.02303 0.0032642 -0.0017681
-0.00066258 -0.0004916 0.00091692 0.00025668 0.00048697 0.0016184 -0.001367 0.0017702
0.0032593 -0.00175 0.26501 0.022789
2000000000 0.1306 -0.18978 -0.0038532 0.00070995 0.0024266 0.0015847 -0.0024085 0.0037009
0.0009195 0.00027044 -0.00061771 0.00044905
-0.0038437 0.00070795 0.24855 0.056106 -0.00086065 0.0057332 0.0016047 0.00033736
0.0015085 -0.0014537 0.00049777 0.00010742
0.0024361 0.0015621 -0.00081181 0.0057367 0.018774 -0.23405 -0.0014524 -0.0014092
0.002018 -0.0012715 0.0016354 0.0012313
-0.0023771 0.0037395 0.0015986 0.00034804 -0.0014508 -0.0014051 0.05499 -0.1753
-0.0026797 0.0041399 0.00019625 0.0022343
0.00091535 0.00027763 0.0014933 -0.0014718 0.0020147 -0.0012793 -0.0026718 0.0041604
