!Keysight Technologies,M9804A,MY58100912,A.14.10.03
!Date: Thursday, April 27, 2023 10:28:33
!Correction: S11(C  6-Port  ) 
!S12(C  6-Port  ) 
!S13(C  6-Port  ) 
!S14(C  6-Port  ) 
!S15(C  6-Port  ) 
!S16(C  6-Port  ) 
!S21(C  6-Port  ) 
!S22(C  6-Port  ) 
!S23(C  6-Port  ) 
!S24(C  6-Port  ) 
!S25(C  6-Port  ) 
!S26(C  6-Port  ) 
!S31(C  6-Port  ) 
!S32(C  6-Port  ) 
!S33(C  6-Port  ) 
!S34(C  6-Port  ) 
!S35(C  6-Port  ) 
!S36(C  6-Port  ) 
!S41(C  6-Port  ) 
!S42(C  6-Port  ) 
!S43(C  6-Port  ) 
!S44(C  6-Port  ) 
!S45(C  6-Port  ) 
!S46(C  6-Port  ) 
!S51(C  6-Port  ) 
!S52(C  6-Port  ) 
!S53(C  6-Port  ) 
!S54(C  6-Port  ) 
!S55(C  6-Port  ) 
!S56(C  6-Port  ) 
!S61(C  6-Port  ) 
!S62(C  6-Port  ) 
!S63(C  6-Port  ) 
!S64(C  6-Port  ) 
!S65(C  6-Port  ) 
!S66(C  6-Port  ) 
!S6P File: Measurement: :
# Hz S  RI   R 50
500000000 -0.3383 -0.036856 -0.010265 -0.0030598 -0.0078856 0.012348 -0.003718 0.011677
0.012193 0.0044063 -0.0038347 0.008084
-0.010283 -0.0030768 -0.4194 -0.049975 0.0076426 -0.010929 0.0016565 0.01209
0.0071319 0.002356 0.00088553 0.013281
-0.0078696 0.012346 0.0076368 -0.010951 -0.26545 0.21104 0.0070277 0.0033546
-0.00064549 0.0088164 0.00051239 0.012247
-0.0037218 0.011714 0.0016842 0.012107 0.007042 0.0033601 -0.32767 0.046081
-0.020629 -0.0045075 0.018114 0.025416
0.012192 0.0043708 0.0071365 0.0023266 -0.00064949 0.0088328 -0.020645 -0.0044741
-0.2269 -0.18583 -0.028263 0.004644
-0.0038417 0.0080938 0.00093275 0.013259 0.00053587 0.012227 0.018125 0.025384
-0.028285 0.0046417 -0.27202 -0.11664
560000000 -0.3174 0.12467 -0.023468 -0.062427 0.00025573 0.012252 0.0064496 0.010178
0.01026 0.0044252 0.010274 0.0078924
-0.023405 -0.062329 -0.37665 0.10815 -0.042167 -0.036238 0.01343 0.0039011
-0.013494 -0.0042955 0.0041236 -0.0003727
0.00029488 0.012252 -0.042305 -0.036177 -0.18301 0.25893 -0.00028879 -0.0045872
0.019256 0.0045302 0.0069183 -0.0061258
0.0065065 0.010141 0.01346 0.0039008 -0.00028324 -0.0046015 -0.30348 0.13546
0.0039965 -0.024563 0.0047765 -0.019662
0.010293 0.0044205 -0.01352 -0.0042734 0.019232 0.0045361 0.003946 -0.024554
-0.28712 -0.010296 0.007638 -0.050215
0.010305 0.0079075 0.0041166 -0.00040211 0.0069009 -0.0060986 0.0047852 -0.019667
0.0076558 -0.05019 -0.33174 0.030522
620000000 -0.27456 0.10938 -0.022784 0.0077901 0.0036832 0.0082856 0.0068774 -0.0053957
0.011406 -0.0001948 0.00025086 -0.0020214
-0.022765 0.0077855 -0.4029 0.061882 -0.018629 0.00010836 -0.001101 -0.0018744
0.010691 -0.0071103 0.0011857 -0.0026061
0.0036946 0.0082563 -0.018651 0.0001577 -0.15288 0.26807 -0.001502 -0.0050402
-0.0033758 -0.003248 0.0080862 -0.003482
0.0068655 -0.0054078 -0.0011078 -0.0018683 -0.0015162 -0.0050476 -0.2626 0.14616
-0.038944 -0.018761 0.014118 0.02455
0.011416 -0.00026067 0.010675 -0.0071381 -0.0033636 -0.0032505 -0.038984 -0.018719
-0.20575 -0.04922 -0.040655 0.014401
0.00022099 -0.0020165 0.0011735 -0.002617 0.0080824 -0.0034924 0.014138 0.024532
-0.040686 0.014379 -0.2503 -0.0054497
680000000 -0.23386 0.19451 -0.02737 -0.013898 0.0048858 0.0047871 0.0013036 -0.007451
-0.0029584 -0.011175 0.0046507 -0.0067412
-0.027342 -0.013892 -0.38736 0.15927 -0.03248 -0.0013419 -0.0016284 -0.00031294
-0.002623 -0.009017 -0.0010133 -0.0020731
0.0048961 0.0047927 -0.032513 -0.0012501 -0.1017 0.28751 -0.00074925 2.2251e-05
-0.0022545 0.00037291 -0.0028283 -0.0095485
0.0012919 -0.007449 -0.0016171 -0.00031485 -0.00075184 2.3394e-05 -0.21979 0.19548
-0.023689 -0.0080385 -0.0089134 -0.010464
-0.0029626 -0.011166 -0.0026622 -0.0090194 -0.0022552 0.00038901 -0.023693 -0.008009
-0.25417 0.049218 -0.0056156 -0.0091988
0.0046355 -0.0067429 -0.0010039 -0.0020862 -0.0027949 -0.0095517 -0.0089097 -0.010469
-0.0056138 -0.0091885 -0.2587 0.096897
740000000 -0.18952 0.18909 -0.038342 0.02655 0.012523 -0.0054491 -0.00076746 -0.0039596
-0.0044319 -0.0031187 -0.0064946 0.0032095
-0.038325 0.02648 -0.33465 0.17762 -0.03472 0.035062 -0.00068368 -0.0065435
-0.012058 0.0076545 -0.0025842 -0.0058541
0.012523 -0.0054631 -0.034655 0.03519 -0.067953 0.28591 -0.0016777 0.0033955
-0.0027072 -0.0043007 -0.001425 0.00012646
-0.00077248 -0.0039618 -0.00069871 -0.0065632 -0.0016881 0.0034062 -0.2026 0.20311
-0.042397 -0.0081127 0.022102 0.013739
-0.0044225 -0.0031249 -0.012043 0.0077211 -0.0027012 -0.0042999 -0.042438 -0.0080645
-0.15863 0.074735 -0.041061 0.00050741
-0.0064554 0.0032145 -0.0025943 -0.0058723 -0.0014135 0.0001263 0.022106 0.013737
-0.041058 0.00048126 -0.24734 0.10331
800000000 -0.15666 0.22886 -0.022313 0.016839 0.0050954 -0.010477 -0.0047796 -0.0019268
-0.0041242 0.0026222 0.0044181 0.0010522
-0.022313 0.016799 -0.33755 0.24818 -0.0077868 0.033836 -0.0021585 0.0022658
-0.00095042 0.0032301 0.0011666 0.0053359
0.0050698 -0.01049 -0.0076895 0.033893 -0.026961 0.30872 0.0010282 0.0016111
0.00056546 0.0036864 -0.0018182 0.00089317
-0.0047891 -0.0019105 -0.0021528 0.0022798 0.0010285 0.00161 -0.17446 0.2306
-0.027977 0.012643 0.013011 -0.0099105
-0.0041143 0.0026289 -0.00093147 0.0032438 0.00056281 0.0036811 -0.027978 0.012707
-0.20153 0.097869 -0.01691 0.017566
0.0044166 0.0010577 0.0011918 0.0053274 -0.0018037 0.00088879 0.013004 -0.0099325
-0.01692 0.017527 -0.23873 0.15431
860000000 -0.12176 0.24909 -0.017167 0.030777 -0.0033408 -0.009725 -0.0023417 0.0010859
0.0040066 0.0050965 -0.0029423 -0.0025622
-0.017159 0.030745 -0.28938 0.28998 0.0080396 0.033901 0.00013139 0.0022346
0.0041966 0.00073655 0.0034287 0.00044748
-0.003372 -0.009713 0.0081579 0.033924 0.021231 0.31637 -0.00046107 -0.00024024
0.0028575 -0.001372 0.0016498 0.0042994
-0.0023394 0.0010939 0.0001386 0.0022283 -0.00046035 -0.00024238 -0.13833 0.24192
-0.017567 0.018303 -0.0062955 -0.0087463
0.0040274 0.0050752 0.0041969 0.00071465 0.0028625 -0.0013735 -0.01754 0.018337
-0.15141 0.14605 -0.024227 0.015376
-0.002951 -0.0025432 0.0034562 0.00042994 0.0016579 0.004295 -0.0063059 -0.0087382
-0.024232 0.015351 -0.18879 0.19661
920000000 -0.096734 0.27177 0.0053408 0.037396 -0.0092148 -0.0042668 -0.0018904 0.002059
0.0015498 0.0016001 0.0025964 -0.0016357
0.0053166 0.037376 -0.26029 0.31058 0.027893 0.02155 0.0015695 0.0010253
0.0070156 -0.00060068 0.0038454 -0.0029442
-0.0092438 -0.0042407 0.027999 0.021487 0.067456 0.31668 0.0018498 -0.00018093
0.001296 -0.00035552 0.000825 -0.0011451
-0.0018931 0.0020623 0.0015826 0.0010243 0.0018501 -0.00018501 -0.11442 0.25812
-0.010252 0.029867 0.0027385 -0.0065889
0.0015555 0.0016171 0.007007 -0.00064661 0.0013027 -0.00035532 -0.010194 0.029908
-0.14086 0.15175 -0.0021893 0.027134
0.0025777 -0.0016233 0.0038351 -0.0029793 0.00082889 -0.0011465 0.0027313 -0.0066008
-0.0022041 0.027126 -0.19406 0.21094
980000000 -0.049435 0.29091 0.017608 0.029631 -0.0087851 0.0045723 0.0022473 0.0036699
0.0040619 -0.0017773 -0.0030967 -0.0021914
0.017583 0.029636 -0.20746 0.34439 0.03265 0.0045677 0.0019786 5.5147e-06
0.001402 -0.0061979 -0.00059245 -0.0021693
-0.0087868 0.0045866 0.032705 0.0044776 0.11364 0.30986 0.000493 -0.0012032
0.00020348 -0.002141 0.0014258 -4.0537e-05
0.0022535 0.0036581 0.0019862 2.2647e-05 0.00048205 -0.0011938 -0.076217 0.26976
0.0072821 0.028718 -0.0090453 -0.0065196
0.0040514 -0.0017946 0.001394 -0.0062219 0.00020064 -0.0021451 0.0073487 0.028712
-0.10898 0.17913 0.0048659 0.018992
-0.0031069 -0.0021799 -0.00057729 -0.0021762 0.0014372 -4.3554e-05 -0.0090538 -0.0065064
0.0048442 0.01899 -0.15072 0.25576
1040000000 -0.0070964 0.299 0.032959 0.017725 -0.0011743 0.0067447 0.0026564 0.00078341
6.5092e-05 -0.003622 -0.00060504 -0.0016488
0.032947 0.017729 -0.17199 0.3572 0.028869 -0.014765 0.0014899 -0.0017111
-0.0024601 -0.0024088 -0.0013647 -0.0027592
-0.0011728 0.0067388 0.02886 -0.01487 0.15956 0.29591 -0.00050139 -0.0014508
-0.0015327 -0.00086977 -0.00040674 -0.0011078
0.0026495 0.00076632 0.0015081 -0.0017099 -0.00050484 -0.001451 -0.04883 0.27969
0.018262 0.017244 -0.0028688 0.0018213
1.9156e-05 -0.003609 -0.0024727 -0.002415 -0.0015252 -0.00086831 0.018307 0.017217
-0.077575 0.18729 0.013209 0.01786
-0.00061854 -0.0016384 -0.0013696 -0.0027744 -0.00041098 -0.0011031 -0.0028615 0.0018298
0.013201 0.017871 -0.12915 0.27478
1100000000 0.038238 0.30631 0.035373 -0.0045101 0.0028084 0.0037284 0.0025392 -0.0013296
-0.002155 -0.0030535 -0.0039253 0.00015203
0.035346 -0.0044796 -0.12853 0.37392 0.014832 -0.027462 4.7754e-05 -0.0018272
-0.0032678 -0.00061296 -0.0033703 -0.00054743
0.0028135 0.0037202 0.014744 -0.027538 0.20557 0.27545 -0.0017947 0.00020627
-0.0017893 0.0005961 -0.00094928 -0.00032799
0.0025347 -0.0013433 4.6042e-05 -0.0018237 -0.0017922 0.00020481 -0.0084589 0.28471
0.022738 0.0049868 -0.0023955 0.00075179
-0.0021704 -0.003051 -0.0032685 -0.00060151 -0.0017822 0.00060355 0.022759 0.0049516
-0.059157 0.20034 0.018433 0.0084073
-0.003926 0.00016096 -0.0033766 -0.00053801 -0.00094065 -0.00033016 -0.0023924 0.00075287
0.01841 0.0084173 -0.082328 0.30275
1160000000 0.089568 0.30103 0.023452 -0.020623 0.0025803 -0.00039864 -0.00013775 -0.0024629
-0.0039727 -0.00050286 -0.00086785 0.0038045
0.023464 -0.020579 -0.084959 0.37791 -0.0037763 -0.028704 -0.0017273 -0.0017052
-0.0025688 0.0025946 -0.001242 0.0016327
0.0025731 -0.00042741 -0.0038919 -0.028703 0.24842 0.24468 -0.00068711 0.0016969
-0.00045196 0.0018592 -0.000963 0.00010179
-0.00013975 -0.0024698 -0.0017231 -0.0016865 -0.00067943 0.0016998 0.030771 0.28192
0.019346 -0.0095687 -0.0026536 0.0055506
-0.0039922 -0.0004966 -0.0025588 0.0026082 -0.00045322 0.001866 0.019345 -0.0095897
-0.026009 0.20922 0.017051 0.00065861
-0.00085545 0.0038153 -0.0012137 0.0016316 -0.00096264 0.0001058 -0.0026452 0.0055597
0.017031 0.00066916 -0.035543 0.30515
1220000000 0.13388 0.28944 0.010016 -0.029585 -0.001559 -0.00067285 -4.599e-05 -0.001113
-0.0025444 0.0025509 0.0013332 0.0018723
0.010023 -0.029544 -0.04103 0.38961 -0.01665 -0.020815 -0.0024901 0.00038328
0.00014469 0.0029204 -0.0007297 0.0017793
-0.0015669 -0.0006697 -0.016755 -0.020756 0.28749 0.20576 0.00082821 0.0016419
0.00056558 0.0011437 0.00023184 0.00073445
-4.9631e-05 -0.0011101 -0.0024846 0.00040073 0.00083106 0.0016402 0.070438 0.27369
0.0094783 -0.015398 0.0025306 0.0017349
-0.0025367 0.0025562 0.00016043 0.0029242 0.00055862 0.001136 0.009463 -0.015413
-0.0030484 0.21817 0.01331 -0.012017
0.0013381 0.0018648 -0.00071159 0.001782 0.00023635 0.00072666 0.0025306 0.0017298
0.013295 -0.012013 -0.0037492 0.32066
1280000000 0.18323 0.26697 -0.0078881 -0.027901 -0.0017428 0.0025876 -0.0010209 -0.0019892
-0.00063691 0.0030571 0.0025334 0.0010368
-0.0078617 -0.027881 0.0045994 0.3806 -0.023321 -0.0084051 -0.00103 0.0014608
0.0016448 0.0017065 0.00051785 0.0019511
-0.0017302 0.0026011 -0.023401 -0.0083052 0.3181 0.16208 0.0014405 -0.00012064
0.0010743 0.00010048 0.0002962 0.00039016
-0.0010309 -0.0019832 -0.0010312 0.0014649 0.0014432 -0.00012255 0.10699 0.25772
0.00082902 -0.017242 0.00044761 0.00015918
-0.00061567 0.0030623 0.0016587 0.0016932 0.0010797 0.00010132 0.00079592 -0.017254
0.033619 0.22192 0.0029215 -0.014041
0.0025373 0.0010176 0.00053792 0.0019542 0.00029588 0.00038882 0.00044688 0.00015906
0.0029208 -0.01403 0.043667 0.32088
1340000000 0.21993 0.23292 -0.017374 -0.018545 0.00095789 0.0043982 -0.0018786 -0.0007925
0.0014518 0.0026231 0.0017411 -0.0015209
-0.01734 -0.018537 0.043975 0.37251 -0.021323 0.0040966 -7.9836e-05 0.0020166
0.0017641 0.00069224 0.001331 0.00091378
0.0009734 0.0043865 -0.021331 0.0042032 0.34039 0.11395 0.0010083 -0.00085569
0.00066419 -0.00037815 0.00015948 0.00025096
-0.0018808 -0.00078462 -6.7288e-05 0.0020161 0.001014 -0.00085099 0.14005 0.23771
-0.0074559 -0.014628 0.0012489 0.00010473
0.0014551 0.0026161 0.0017855 0.0006789 0.00066818 -0.00038811 -0.0074901 -0.014623
0.063698 0.21737 -0.0031248 -0.012833
0.001739 -0.0015325 0.0013305 0.00090385 0.00015709 0.00024853 0.0012432 0.00010407
-0.0031235 -0.012835 0.08192 0.31559
1400000000 0.25249 0.19453 -0.022916 -0.0073264 0.0051779 0.0029758 -0.0020091 0.00067814
0.0024827 0.00076609 0.00021528 -0.0014453
-0.022883 -0.0073409 0.081021 0.35958 -0.01469 0.012139 0.0013614 0.0013133
0.0010775 -0.00080086 0.0012215 0.00022203
0.0051931 0.0029563 -0.014641 0.012225 0.35358 0.06016 0.00012459 -0.0014556
5.2604e-05 -0.0003184 0.00037457 0.00010839
-0.002008 0.00068236 0.0013642 0.0013068 0.00011493 -0.0014519 0.16995 0.20927
-0.012631 -0.0086536 -0.00054889 -0.00072219
0.0024844 0.00075088 0.0010799 -0.00081143 5.6964e-05 -0.00031999 -0.012658 -0.0086266
0.096458 0.21276 -0.0092881 -0.0083184
0.00020037 -0.0014458 0.001222 0.00021319 0.00037869 0.00010779 -0.00054926 -0.00072512
-0.0092847 -0.0083315 0.126 0.30404
1460000000 0.2749 0.15049 -0.020016 0.0045222 0.0055284 -0.0017855 -0.0015057 0.0017334
0.0019904 -0.00070268 -0.00035836 -0.0008583
-0.020004 0.0045121 0.11543 0.3379 -0.0062283 0.015059 0.0017522 0.00017721
0.00090043 -0.00117 0.0012211 -0.00064685
0.0055199 -0.001809 -0.0061595 0.015098 0.35947 0.0054353 -0.0010877 -0.0012484
0.00021104 -8.3976e-05 0.00070576 -0.00037288
-0.0015066 0.0017365 0.0017495 0.00017246 -0.0010937 -0.0012521 0.197 0.1802
-0.013499 -0.0030298 -0.0011109 0.0014558
0.0019958 -0.00070923 0.00089694 -0.0011689 0.00021354 -8.4505e-05 -0.013507 -0.0030025
0.12627 0.19817 -0.011026 -0.0029926
-0.00035287 -0.00085353 0.001222 -0.00064734 0.00070712 -0.00037594 -0.0011105 0.0014564
-0.011012 -0.0029947 0.15928 0.28251
1520000000 0.28678 0.10883 -0.01451 0.010005 0.0031123 -0.0042021 9.5938e-05 0.0025671
0.0017926 -0.0016745 -0.0011822 -0.00010062
-0.014507 0.0099888 0.14913 0.323 0.0013373 0.013016 0.0016258 -0.0008255
9.0848e-05 -0.00093998 0.00031783 -0.0010608
0.0030907 -0.004218 0.0014192 0.013013 0.35247 -0.051 -0.00098402 -0.00037973
0.00057761 -0.00084199 -6.7003e-05 -7.6945e-05
9.6138e-05 0.0025631 0.0016182 -0.00084075 -0.00099012 -0.00038257 0.22091 0.14197
-0.013155 0.00184 0.0010611 0.0017789
0.0017894 -0.0016911 8.2348e-05 -0.00094174 0.00057732 -0.00084405 -0.013154 0.0018798
0.15436 0.18374 -0.011124 0.0011564
-0.0011854 -8.8751e-05 0.00031259 -0.0010682 -6.8457e-05 -7.6002e-05 0.0010507 0.0017808
-0.011123 0.0011503 0.1921 0.26136
1580000000 0.2958 0.062657 -0.0080899 0.013041 -0.00097617 -0.0048126 0.0013714 0.0018298
-0.00038921 -0.0020988 -0.00040853 0.00043485
-0.0080966 0.013033 0.17656 0.29815 0.0050115 0.0083237 0.00045129 -0.0016001
-0.00042041 -0.0010607 -0.00026026 -0.00088515
-0.001001 -0.0048042 0.0050594 0.0083016 0.3318 -0.10856 -0.0015638 0.00046617
-0.00025335 -0.0011823 0.00012121 -0.00054657
0.0013784 0.0018268 0.00043155 -0.0016102 -0.0015606 0.00045732 0.23554 0.10209
-0.010446 0.0061581 0.0019099 0.00068554
-0.00040338 -0.0020993 -0.00043258 -0.0010561 -0.00025834 -0.0011844 -0.010436 0.0061774
0.17896 0.16541 -0.008996 0.0065549
-0.00040535 0.00043967 -0.00027193 -0.00088611 0.00011976 -0.00055207 0.001908 0.00067678
-0.008994 0.0065462 0.22361 0.23392
1640000000 0.29768 0.021247 -0.0015968 0.012088 -0.0027656 -0.0025165 0.0025758 0.0010271
-0.0008224 -0.001259 -0.00025695 0.00066602
-0.001605 0.012085 0.2062 0.27271 0.0057612 0.0035793 -0.00073921 -0.0016737
-0.00098715 -0.00050667 -0.0005601 -0.00066827
-0.0027748 -0.0025029 0.0057894 0.0035521 0.3034 -0.15781 -0.00079894 0.0013652
-0.0010486 -0.00094717 -0.00014341 -0.00034174
0.0025831 0.00102 -0.0007521 -0.0016726 -0.00079305 0.0013672 0.24828 0.052304
-0.0068314 0.0074049 0.0022001 -0.0006592
-0.0008284 -0.0012603 -0.00099213 -0.00049436 -0.0010547 -0.00094994 -0.0068201 0.0074224
0.20214 0.14024 -0.0046586 0.0086468
-0.000251 0.00066815 -0.00055805 -0.000662 -0.00014422 -0.00034136 0.0021956 -0.00067689
-0.0046683 0.0086427 0.24891 0.20213
1700000000 0.29013 -0.024098 0.0018085 0.0094778 -0.0034494 0.00015258 0.0029769 -0.0011055
-0.0019146 -0.00052887 0.00068609 0.00043438
0.0017897 0.0094756 0.22426 0.24081 0.0038829 0.00076714 -0.0014342 -0.00053514
-0.00085313 -8.3536e-07 -0.00096242 -0.00040623
-0.0034521 0.00017704 0.0038877 0.00074623 0.25949 -0.19765 0.00036762 0.0016225
-0.0018086 -0.00020247 -0.00056109 -0.00092011
0.0029773 -0.0011198 -0.0014381 -0.00052423 0.00037232 0.0016331 0.2448 0.0012646
-0.0045519 0.0080814 0.0013153 -0.0020546
-0.0019192 -0.00051256 -0.00085087 7.8465e-06 -0.0018122 -0.00019893 -0.0045344 0.0081023
0.21961 0.1189 -0.00032506 0.0091309
0.00069217 0.00042915 -0.00096484 -0.00040193 -0.00056749 -0.00092514 0.0013079 -0.0020654
-0.0003253 0.0091275 0.26461 0.1674
1760000000 0.27768 -0.072665 0.0042144 0.0063283 -0.0022117 0.00088762 0.0013319 -0.0033472
-0.0011274 0.0006619 0.00043225 -0.00053502
0.0042023 0.0063225 0.25006 0.20045 0.0017339 -0.0010446 -0.0011294 0.00023939
-0.0011781 0.00091472 -0.00062217 0.00055157
-0.0022061 0.00089905 0.0017294 -0.0010597 0.21042 -0.23044 0.0011487 0.0012538
-0.0012124 0.0013766 -0.0012932 -0.0003961
0.0013251 -0.0033512 -0.0011267 0.00024955 0.0011415 0.0012568 0.23468 -0.050991
-0.0016307 0.0075015 -0.00040638 -0.0022955
-0.0011075 0.00065426 -0.0011739 0.00091826 -0.0012068 0.0013793 -0.0016214 0.0075069
0.23448 0.082439 0.0034643 0.0067479
0.00042925 -0.00054279 -0.00060894 0.00055956 -0.001286 -0.00039487 -0.00041069 -0.002289
0.0034603 0.0067432 0.27662 0.12924
1820000000 0.25258 -0.11015 0.0045129 0.0027797 -1.5486e-05 0.0023731 -0.00090002 -0.0031558
-0.0008378 0.00070896 -4.2596e-05 -0.00017956
0.0045019 0.0027826 0.25953 0.16996 -0.00024754 -2.0451e-05 -0.0013075 0.00088128
-0.0001051 0.0013944 -0.00052234 0.00057501
2.1345e-06 0.0023662 -0.00025031 -2.3062e-05 0.16014 -0.24598 0.00162 0.0003827
-0.00033049 0.002205 -0.0013971 0.00047891
-0.00091974 -0.0031586 -0.0013072 0.00088665 0.0016127 0.00037953 0.20336 -0.09839
-0.0003543 0.0060857 -0.001569 -0.0013326
-0.00082759 0.00071383 -9.5227e-05 0.0013961 -0.00033365 0.0022033 -0.00034187 0.0060945
0.25088 0.051603 0.0044134 0.0035116
-4.6015e-05 -0.00018149 -0.00051521 0.00057882 -0.0013975 0.00048067 -0.0015792 -0.0013191
0.0044111 0.0035038 0.27797 0.092686
1880000000 0.21695 -0.15015 0.002373 0.00046042 -0.00045922 0.0020494 -0.0028719 -0.002302
-0.00017181 0.001483 0.00024075 -0.00051783
0.0023673 0.00046395 0.26339 0.12325 -0.0021999 0.0016015 -0.00010999 0.001669
0.00070966 0.0014056 0.00023021 0.00095692
-0.00044523 0.002056 -0.0021949 0.0016151 0.10817 -0.25531 0.0019901 -0.00098294
0.0015317 0.0020661 -0.00086667 0.0013511
-0.0028858 -0.0022848 -9.6947e-05 0.0016621 0.0019882 -0.00098016 0.16138 -0.13773
-3.1612e-05 0.004531 -0.0022696 0.00064017
-0.0001654 0.0014818 0.00071125 0.0013961 0.0015353 0.0020541 -1.2564e-05 0.0045265
0.25249 0.017404 0.0042857 0.0015584
0.0002314 -0.00052161 0.00024086 0.00095835 -0.0008643 0.0013522 -0.0022669 0.000638
0.0042823 0.00156 0.27682 0.058562
1940000000 0.17707 -0.17579 0.00016546 -0.0013234 0.001283 0.0019593 -0.0037249 0.00053642
0.0011602 0.0010659 -0.00065357 -0.00052656
0.00016212 -0.0013157 0.26334 0.091393 -0.0011577 0.0038578 0.00097736 0.001315
0.0020021 0.00055804 0.00091671 0.00026241
0.0013 0.0019497 -0.0011322 0.0038755 0.062188 -0.24867 0.00032438 -0.0023171
0.0024452 0.00051178 0.00043331 0.0016325
-0.0037204 0.00055998 0.00098677 0.001306 0.00032567 -0.0023141 0.10834 -0.16698
-0.0011693 0.0036118 -0.0013283 0.0017563
0.0011712 0.0010589 0.0020142 0.00053897 0.0024555 0.00050191 -0.0011554 0.0036134
0.2524 -0.023243 0.0031174 -0.0015697
-0.00066063 -0.00051887 0.00091871 0.00025603 0.00044402 0.0016355 -0.0013305 0.0017661
0.0031127 -0.0015684 0.26489 0.022406
2000000000 0.13033 -0.18976 -0.0037687 0.00071722 0.0024469 0.0015823 -0.0023856 0.0037067
0.00093263 0.000277 -0.00064957 0.00042702
-0.0037601 0.00071345 0.24847 0.056151 -0.00085836 0.0057453 0.0016047 0.00036423
0.0014884 -0.0014859 0.00048886 9.3614e-05
0.002458 0.00158 -0.00082311 0.0057573 0.018838 -0.23402 -0.0014492 -0.0013897
0.0020385 -0.0012702 0.0016105 0.0012326
-0.0023668 0.0037211 0.0016065 0.00034924 -0.0014401 -0.0013871 0.055032 -0.1752
-0.0026064 0.0041908 0.00020092 0.0022043
0.00093529 0.00027256 0.0014733 -0.0015021 0.0020375 -0.0012809 -0.0025982 0.0042002
0.24389 -0.057853 0.00019327 -0.0021934
