!Keysight Technologies,M9804A,MY58100912,A.14.10.03
!Date: Thursday, April 27, 2023 10:28:33
!Correction: S11(C  6-Port  ) 
!S12(C  6-Port  ) 
!S13(C  6-Port  ) 
!S14(C  6-Port  ) 
!S15(C  6-Port  ) 
!S16(C  6-Port  ) 
!S21(C  6-Port  ) 
!S22(C  6-Port  ) 
!S23(C  6-Port  ) 
!S24(C  6-Port  ) 
!S25(C  6-Port  ) 
!S26(C  6-Port  ) 
!S31(C  6-Port  ) 
!S32(C  6-Port  ) 
!S33(C  6-Port  ) 
!S34(C  6-Port  ) 
!S35(C  6-Port  ) 
!S36(C  6-Port  ) 
!S41(C  6-Port  ) 
!S42(C  6-Port  ) 
!S43(C  6-Port  ) 
!S44(C  6-Port  ) 
!S45(C  6-Port  ) 
!S46(C  6-Port  ) 
!S51(C  6-Port  ) 
!S52(C  6-Port  ) 
!S53(C  6-Port  ) 
!S54(C  6-Port  ) 
!S55(C  6-Port  ) 
!S56(C  6-Port  ) 
!S61(C  6-Port  ) 
!S62(C  6-Port  ) 
!S63(C  6-Port  ) 
!S64(C  6-Port  ) 
!S65(C  6-Port  ) 
!S66(C  6-Port  ) 
!S6P File: Measurement: :
# Hz S  RI   R 50
500000000 -0.34037 -0.021117 -0.011246 -0.0034066 -0.0077776 0.012318 -0.0038285 0.011712
0.011847 0.0039642 -0.0034605 0.0080055
-0.011266 -0.0035988 -0.41984 -0.039836 0.0062232 -0.011558 0.0014709 0.012527
0.0074554 0.0022018 0.0021149 0.01339
-0.0075271 0.012269 0.0061907 -0.011522 -0.26354 0.22077 0.007139 0.0036943
-0.00070149 0.0078603 0.00208 0.011642
-0.0036224 0.01232 0.0016868 0.012098 0.0066249 0.00345 -0.3322 0.059256
-0.019919 -0.0060957 0.014467 0.024042
0.011604 0.0036274 0.0071321 0.0020619 -0.00044729 0.0082569 -0.020189 -0.0065048
-0.2348 -0.16934 -0.025598 0.0041782
-0.0030979 0.0082423 0.0025226 0.013337 0.0019315 0.011178 0.014197 0.024273
-0.025333 0.0047404 -0.28286 -0.089035
560000000 -0.31265 0.13525 -0.026234 -0.060441 0.00077525 0.012079 0.0058694 0.0093719
0.0098526 0.0045639 0.010796 0.0066061
-0.026286 -0.060502 -0.37516 0.11655 -0.041937 -0.035781 0.012347 0.0034604
-0.012223 -0.0038947 0.002961 -0.0015664
0.00094491 0.011498 -0.042355 -0.035391 -0.18078 0.26632 0.00033707 -0.0041827
0.018504 0.0045859 0.0073051 -0.0064582
0.0053807 0.0099623 0.012777 0.003959 0.00020692 -0.0046922 -0.30608 0.14635
0.0010944 -0.024016 0.0038041 -0.019215
0.0094424 0.0042128 -0.011872 -0.0031838 0.01893 0.0044169 0.00087988 -0.024123
-0.28748 0.0040036 0.003983 -0.046727
0.010685 0.0073218 0.0028927 -0.0012904 0.0069949 -0.0062373 0.0038881 -0.018646
0.004302 -0.046732 -0.32907 0.052022
620000000 -0.27165 0.12037 -0.023367 0.0075242 0.0037454 0.0080707 0.0074645 -0.0054835
0.010792 -0.0010377 0.00011989 -0.0029842
-0.023221 0.0074424 -0.40154 0.071453 -0.019551 0.0006826 -0.00102 -0.0021251
0.010256 -0.0062939 0.0013469 -0.0026404
0.0036586 0.0082119 -0.019515 0.00074841 -0.14997 0.27587 -0.00068098 -0.004715
-0.0038547 -0.0029317 0.0085856 -0.0027804
0.0071673 -0.0051332 -0.00099731 -0.002392 -0.00067146 -0.0047943 -0.26348 0.15846
-0.04031 -0.017803 0.012028 0.024487
0.011161 -0.0012279 0.010273 -0.0060378 -0.0041087 -0.0026897 -0.040117 -0.017382
-0.21041 -0.032738 -0.039125 0.014575
0.001522 -0.0029281 0.0012578 -0.0026201 0.0084715 -0.0032194 0.012002 0.024189
-0.039429 0.014833 -0.25527 0.023887
680000000 -0.2282 0.20307 -0.027554 -0.012193 0.0053164 0.0047431 0.001272 -0.0071014
-0.0026866 -0.010779 0.0040077 -0.0073372
-0.027482 -0.01224 -0.38484 0.16617 -0.032138 0.00053463 -0.0013842 -0.00051424
-0.0024467 -0.0089052 -0.0014208 -0.0023085
0.0054825 0.0046781 -0.032155 0.00049172 -0.098596 0.29353 -0.0011909 -0.00032504
-0.0014848 0.00023888 -0.0032455 -0.0090399
0.001265 -0.0072303 -0.001477 -0.00052421 -0.0011308 -0.00035142 -0.21743 0.20667
-0.026045 -0.0052323 -0.0093556 -0.0086988
-0.0028626 -0.010812 -0.0024187 -0.009024 -0.0012114 0.00016667 -0.026067 -0.0051796
-0.25109 0.064703 -0.0068875 -0.0070915
0.0040509 -0.0068914 -0.0012253 -0.0023224 -0.0033775 -0.0086502 -0.0092303 -0.0086312
-0.0069211 -0.0074337 -0.2553 0.11938
740000000 -0.18488 0.1978 -0.036761 0.026435 0.012149 -0.0058744 -0.00067977 -0.0043458
-0.0046759 -0.0029256 -0.0060019 0.0027757
-0.036893 0.026426 -0.33279 0.18565 -0.033306 0.034906 -0.0013703 -0.0062247
-0.011604 0.0076525 -0.0018969 -0.0052687
0.011987 -0.005798 -0.033082 0.035145 -0.064945 0.29265 -0.0017511 0.0029957
-0.0034046 -0.0045409 -0.0020372 0.0012432
-0.00068877 -0.0040303 -0.00086918 -0.0062947 -0.0018025 0.0028977 -0.19933 0.21499
-0.042887 -0.0032938 0.022666 0.012829
-0.004806 -0.0031734 -0.011432 0.0078611 -0.0035715 -0.0048457 -0.042872 -0.0030146
-0.15883 0.086667 -0.040268 0.0030514
-0.0058448 0.0031108 -0.0019 -0.005469 -0.001977 0.00081827 0.022467 0.012807
-0.039512 0.0035031 -0.24296 0.12947
800000000 -0.15087 0.23558 -0.021201 0.017318 0.0046323 -0.010441 -0.004514 -0.0019462
-0.0034332 0.0024333 0.0035887 0.00037169
-0.02131 0.017352 -0.33323 0.25408 -0.0066573 0.033522 -0.0022796 0.0022054
-0.0005797 0.003214 0.0010433 0.0051478
0.0045348 -0.010451 -0.00659 0.033472 -0.022418 0.31466 0.0008746 0.001617
0.0003567 0.0034643 -0.0017747 0.0010853
-0.0045116 -0.0018809 -0.0024191 0.0023205 0.00080988 0.0016708 -0.16911 0.2413
-0.026756 0.016588 0.013077 -0.010042
-0.0036685 0.0027388 -0.00047717 0.0032887 0.00032632 0.0035902 -0.026692 0.016511
-0.19553 0.11281 -0.015867 0.019102
0.0034038 0.00045909 0.00097917 0.0052457 -0.0018536 0.0010514 0.01299 -0.010118
-0.015674 0.019023 -0.23049 0.17541
860000000 -0.11603 0.25555 -0.015766 0.030914 -0.0037191 -0.0095465 -0.0022533 0.001336
0.0041353 0.0046707 -0.002884 -0.0025884
-0.0158 0.030838 -0.2864 0.29522 0.0090986 0.033055 0.00024836 0.0024923
0.0042342 0.00044142 0.0029481 0.00057596
-0.0037849 -0.0094882 0.0090611 0.033025 0.025821 0.3216 -0.00040693 2.1708e-05
0.0024374 -0.0011387 0.0015465 0.0041114
-0.0023605 0.0011261 8.2621e-05 0.0022944 -0.00040114 -4.4121e-05 -0.1323 0.25163
-0.01504 0.020745 -0.0054564 -0.0088975
0.0042044 0.0046588 0.0041294 0.00041969 0.002457 -0.0011464 -0.015026 0.021005
-0.14354 0.15997 -0.022421 0.016684
-0.002623 -0.0025007 0.0030925 0.00083393 0.0016878 0.0041904 -0.00544 -0.008886
-0.022193 0.016432 -0.18227 0.21488
920000000 -0.089479 0.2772 0.0063844 0.036712 -0.0092107 -0.0038404 -0.001347 0.0018539
0.0013752 0.0017315 0.0026694 -0.0015587
0.0062824 0.03669 -0.25553 0.3156 0.028063 0.020203 0.0017026 0.001017
0.0071624 -0.00038994 0.0038057 -0.0027972
-0.0093454 -0.0038209 0.028169 0.020217 0.073191 0.32156 0.0019395 -0.00015046
0.0016222 -0.00037776 0.00095811 -0.00106
-0.0014151 0.0017821 0.0018063 0.00098591 0.0019225 -0.00013865 -0.10629 0.26753
-0.0072402 0.031095 0.0026787 -0.0062682
0.0013608 0.0017688 0.0071609 -0.00038951 0.0016982 -0.0004257 -0.0072486 0.03114
-0.12835 0.16526 0.00037733 0.025585
0.0028563 -0.0016764 0.0039029 -0.0028706 0.00093135 -0.001026 0.0028837 -0.0062681
0.00047383 0.025446 -0.18235 0.23066
980000000 -0.042451 0.29485 0.018578 0.028427 -0.0084042 0.0047285 0.0021719 0.0030677
0.0039883 -0.00187 -0.0032439 -0.0021829
0.018509 0.028419 -0.20359 0.34779 0.032302 0.0033183 0.0021358 -0.00028307
0.0015827 -0.006308 -0.00059776 -0.0023501
-0.008392 0.0047322 0.032374 0.0032115 0.11961 0.31348 0.00049335 -0.0013586
0.00011161 -0.0024012 0.0013186 -0.00022402
0.002144 0.0030786 0.0022375 -0.00025142 0.00052079 -0.0013521 -0.067172 0.2769
0.011 0.02855 -0.0085503 -0.0063846
0.0039556 -0.0018043 0.0016866 -0.0063065 0.00015236 -0.0023029 0.010999 0.028627
-0.097704 0.18872 0.0062839 0.018343
-0.0032279 -0.0021118 -0.00065848 -0.0023896 0.0012954 -0.0002199 -0.0085992 -0.0063396
0.0062055 0.018501 -0.13808 0.26912
1040000000 0.00015435 0.30215 0.032878 0.0158 -0.0011225 0.0065526 0.0022828 0.00056347
4.445e-05 -0.0032169 -0.00069497 -0.0013887
0.032818 0.015768 -0.16796 0.36088 0.027663 -0.015542 0.0014078 -0.0018154
-0.0023023 -0.0025455 -0.0013991 -0.002822
-0.001051 0.0065572 0.027677 -0.015571 0.16608 0.29898 -0.00060968 -0.0014767
-0.0015348 -0.0009112 -0.00045635 -0.0010858
0.0022873 0.0005427 0.0014134 -0.0018783 -0.00060744 -0.0014738 -0.038962 0.28578
0.021129 0.015535 -0.0025648 0.0009436
0.00024186 -0.0032647 -0.0022709 -0.0026675 -0.0016553 -0.00092131 0.021111 0.015488
-0.065135 0.19493 0.013973 0.015688
-0.0006812 -0.0014319 -0.0012398 -0.0029474 -0.00043888 -0.0010674 -0.0025152 0.00098369
0.013947 0.015859 -0.11338 0.28886
1100000000 0.045801 0.30837 0.034368 -0.0056756 0.0027466 0.0035912 0.0021526 -0.00097489
-0.0021284 -0.0028499 -0.0035587 0.00050914
0.034306 -0.0056712 -0.12441 0.37723 0.013539 -0.027424 -0.00017674 -0.0018146
-0.0035185 -0.00059455 -0.0033654 -0.00025627
0.0027611 0.003595 0.013474 -0.027491 0.21282 0.27683 -0.0018012 0.00018896
-0.0018078 0.00059182 -0.00095163 -0.00022485
0.002124 -0.0010058 -0.00014656 -0.0017943 -0.0018113 0.00015863 0.0024097 0.28857
0.024874 0.0021966 -0.0026258 0.0001396
-0.0021216 -0.0028334 -0.0035566 -0.00056403 -0.0018105 0.00059502 0.024839 0.0021627
-0.046794 0.20607 0.018128 0.0060669
-0.003675 0.00050029 -0.0034081 -0.0002703 -0.00092096 -0.00024671 -0.0025921 0.00027657
0.018164 0.0060717 -0.066938 0.31363
1160000000 0.096664 0.30223 0.022054 -0.021281 0.0022999 -0.0004121 -9.6229e-05 -0.0020065
-0.0039085 -0.00049975 -0.00067373 0.0037694
0.022094 -0.021324 -0.080309 0.38092 -0.0047914 -0.027889 -0.001616 -0.0014179
-0.0025476 0.0024822 -0.0013587 0.0016997
0.0023226 -0.00040564 -0.0048974 -0.027893 0.25515 0.24449 -0.00079363 0.0017435
-0.00049901 0.0019049 -0.00082674 0.00010069
-8.1985e-05 -0.0020167 -0.0015959 -0.0014561 -0.00081269 0.0017567 0.041403 0.28378
0.020135 -0.012647 -0.003134 0.0043324
-0.0039185 -0.00043596 -0.0025368 0.0025394 -0.0005472 0.0018545 0.020105 -0.012744
-0.01344 0.21313 0.016944 -0.0017344
-0.0007454 0.0038198 -0.0013673 0.001723 -0.00083884 0.0001146 -0.0031196 0.0044287
0.01688 -0.0017723 -0.019885 0.31426
1220000000 0.14146 0.28942 0.0084571 -0.029374 -0.0015591 -0.00031282 0.0001371 -0.00094758
-0.0023707 0.0022886 0.0012666 0.0019331
0.008489 -0.029317 -0.035981 0.39186 -0.01704 -0.019665 -0.0024203 0.00047565
4.3053e-05 0.0029403 -0.00053011 0.0019906
-0.0015933 -0.00027767 -0.017096 -0.019667 0.29379 0.2044 0.00074344 0.0018607
0.00066841 0.0012646 0.00032078 0.00055298
0.00015113 -0.00091784 -0.0024342 0.00047965 0.00072927 0.0018404 0.081672 0.27341
0.0090816 -0.018739 0.0013077 0.0013922
-0.0023696 0.0023211 4.9134e-05 0.0029414 0.00072173 0.0012236 0.0091347 -0.018761
0.010091 0.21981 0.011599 -0.013381
0.0013121 0.0019127 -0.00049249 0.0019878 0.00032737 0.00050993 0.001357 0.0014535
0.01159 -0.013439 0.013202 0.32637
1280000000 0.19015 0.26582 -0.0089913 -0.026892 -0.0014491 0.0028584 -0.0009634 -0.0020075
-0.0006697 0.0028501 0.0023454 0.00094246
-0.0089623 -0.026897 0.0095916 0.38209 -0.023142 -0.0074655 -0.0009865 0.0013945
0.0017291 0.0017313 0.00064786 0.0018181
-0.0014658 0.0028707 -0.023176 -0.0073986 0.32322 0.15925 0.0016369 6.8018e-05
0.0010933 0.00027909 0.00020045 0.00016385
-0.0010012 -0.0019663 -0.0010143 0.0014062 0.0016034 9.2421e-05 0.11747 0.25447
-0.0007854 -0.020072 -0.00058696 0.00046777
-0.00063474 0.0029066 0.0017091 0.00167 0.0011319 0.00031245 -0.00083277 -0.020074
0.045983 0.22137 0.0012295 -0.014896
0.0023293 0.0009293 0.0007536 0.0019442 0.00024168 0.00010562 -0.00057256 0.00051079
0.0012255 -0.014889 0.059322 0.32455
1340000000 0.22663 0.231 -0.017867 -0.017079 0.0013428 0.0042594 -0.0017339 -0.00090322
0.0014307 0.0025354 0.0015232 -0.0014746
-0.017827 -0.017114 0.048878 0.37315 -0.020597 0.0047889 -0.0001377 0.0019855
0.0020018 0.00069606 0.0013267 0.00066224
0.0013997 0.004271 -0.020614 0.0048439 0.34428 0.1113 0.0013205 -0.0010063
0.00067398 -0.00053426 0.00011949 0.00026423
-0.0017098 -0.00090293 -0.00011347 0.0020171 0.0013285 -0.0010088 0.14889 0.23264
-0.010234 -0.016658 0.00043167 0.0012053
0.0014552 0.0024863 0.0020195 0.00067733 0.00064721 -0.00049978 -0.010267 -0.016629
0.07528 0.21519 -0.0053597 -0.012951
0.0014897 -0.001541 0.0012783 0.00065852 0.00012767 0.00013065 0.00045788 0.0012354
-0.0053239 -0.012975 0.097785 0.31709
1400000000 0.25882 0.19157 -0.022501 -0.0059483 0.0052783 0.00263 -0.0020964 0.00056344
0.0022696 0.00083759 0.00013627 -0.0014056
-0.022487 -0.0059311 0.085855 0.35948 -0.013861 0.012247 0.0013625 0.0013358
0.0012507 -0.00084134 0.00117 1.8568e-05
0.0052639 0.0026301 -0.013812 0.01232 0.35702 0.057229 0.00014931 -0.0018998
4.8636e-05 -0.00040157 0.00035313 0.00018074
-0.0021084 0.00057085 0.0013527 0.0013284 0.00016191 -0.001932 0.17712 0.20207
-0.015951 -0.0095284 -0.00047968 0.00058346
0.0023229 0.00078826 0.0012646 -0.00087046 9.1664e-05 -0.00041015 -0.015972 -0.0095154
0.10739 0.20896 -0.010995 -0.0075541
0.00013258 -0.0014237 0.0011537 7.1189e-06 0.00031323 0.00019451 -0.00046282 0.00054155
-0.010997 -0.0075801 0.14097 0.30295
1460000000 0.28025 0.14691 -0.019132 0.005409 0.0053371 -0.0022134 -0.0015438 0.0016822
0.0019388 -0.00050891 -0.00034534 -0.000904
-0.019141 0.0053734 0.11967 0.33721 -0.005584 0.014697 0.001792 0.00010635
0.00078698 -0.0013576 0.0010625 -0.00059549
0.0053921 -0.0022578 -0.0055318 0.014752 0.36175 0.002596 -0.001537 -0.001414
0.00013942 -0.00017094 0.00058222 -0.00030801
-0.0015578 0.001735 0.0017737 0.00016862 -0.0015058 -0.0013956 0.20106 0.172
-0.016933 -0.002387 -0.00024218 0.0023586
0.0019418 -0.00052792 0.00076755 -0.0013611 0.00020106 -0.00015732 -0.016966 -0.0023438
0.1353 0.19322 -0.011932 -0.0016838
-0.00035796 -0.00088362 0.0010753 -0.00057738 0.00056838 -0.0002876 -0.00025792 0.0023302
-0.0119 -0.0016686 0.17277 0.28032
1520000000 0.29154 0.10428 -0.013346 0.010242 0.002835 -0.0042176 0.0001315 0.0026038
0.002027 -0.0016189 -0.001125 -0.00011231
-0.013342 0.010233 0.15312 0.32193 0.0016105 0.012514 0.0016799 -0.00088716
-7.3776e-05 -0.0011368 0.00026186 -0.00088998
0.0028567 -0.0042216 0.0016557 0.012522 0.35439 -0.053741 -0.0014987 -0.00028565
0.00048572 -0.00094356 -2.6481e-05 -5.9328e-05
0.00016642 0.0026018 0.0016805 -0.00091496 -0.0015005 -0.00027308 0.22236 0.1339
-0.015778 0.0036896 0.0020938 0.0019049
0.0020514 -0.0016341 -7.0524e-05 -0.0011407 0.00051914 -0.00092463 -0.015779 0.0037092
0.16267 0.17783 -0.011378 0.0027505
-0.0011426 -7.6217e-05 0.00027478 -0.00094033 -7.8641e-05 -0.00012289 0.0020868 0.0019023
-0.011389 0.0027549 0.20491 0.25744
1580000000 0.2993 0.057652 -0.007114 0.012752 -0.0012047 -0.0046629 0.0015329 0.0018458
-0.00013344 -0.0021196 -0.00025758 0.00040821
-0.0071294 0.012732 0.18 0.29645 0.0049702 0.0078573 0.00042049 -0.0017347
-0.00061938 -0.0010291 -0.00018457 -0.0007702
-0.0011705 -0.0046627 0.0050191 0.0078392 0.33359 -0.11162 -0.0016375 0.001033
-0.00028767 -0.0011421 0.00021987 -0.00061052
0.0015696 0.0018362 0.00041613 -0.0017276 -0.0016529 0.0010114 0.23407 0.094768
-0.012068 0.0087996 0.0025739 0.00031962
-0.00013916 -0.0021453 -0.00063476 -0.0010323 -0.00028383 -0.0011243 -0.01205 0.0088411
0.1858 0.15834 -0.0088589 0.0078403
-0.00025198 0.00039954 -0.00019896 -0.00082506 0.00020352 -0.00059767 0.0025217 0.00035152
-0.0088707 0.0077832 0.23468 0.22906
1640000000 0.30012 0.01606 -0.00096224 0.011405 -0.0028528 -0.0024809 0.0027334 0.00090967
-0.00074194 -0.0015961 -0.00024047 0.00059509
-0.00096038 0.01139 0.20911 0.27101 0.0055512 0.0034589 -0.00089795 -0.0016423
-0.0010689 -0.00027294 -0.00048716 -0.00062428
-0.0028218 -0.0024799 0.0056026 0.0034503 0.30404 -0.15983 -0.00059418 0.0016676
-0.0012105 -0.00088418 -0.00011182 -0.00024119
0.0027234 0.00085291 -0.00090356 -0.0016566 -0.00058784 0.0017122 0.24453 0.04742
-0.0074527 0.010366 0.0025577 -0.0012163
-0.00075234 -0.0016035 -0.001071 -0.00027228 -0.0012327 -0.00083746 -0.0074199 0.010364
0.20703 0.13304 -0.0040649 0.0094637
-0.00023216 0.00063864 -0.00053649 -0.00057574 -0.00015997 -0.00024249 0.0025387 -0.0012607
-0.0041327 0.00946 0.25879 0.19679
1700000000 0.29145 -0.029477 0.0020644 0.0086471 -0.0033698 0.00033048 0.0029252 -0.0013732
-0.0020335 -0.00073503 0.00065565 0.0003854
0.002042 0.0086527 0.22695 0.23904 0.0037537 0.00067879 -0.0014977 -0.00046405
-0.00074326 0.00025488 -0.00089047 -0.00038756
-0.0034021 0.00031304 0.003779 0.00068125 0.26099 -0.19985 0.00085038 0.0015018
-0.0019258 -9.9366e-06 -0.00058851 -0.00069586
0.0029135 -0.0013705 -0.0015206 -0.00049875 0.00084081 0.0014411 0.24075 -0.0008188
-0.0039557 0.010927 0.0014227 -0.0023553
-0.0020395 -0.00070977 -0.00070805 0.00023173 -0.0019004 -2.5664e-05 -0.0039534 0.010946
0.22301 0.11154 0.00044816 0.0096308
0.0006934 0.00037089 -0.00088776 -0.00039211 -0.00061741 -0.00072869 0.0014357 -0.0024091
0.00043725 0.0096537 0.27364 0.16142
1760000000 0.27781 -0.077764 0.0039939 0.0055057 -0.0021477 0.00092852 0.00096886 -0.0034971
-0.0015166 0.00066418 0.00046314 -0.00044704
0.0039983 0.0055114 0.2521 0.19841 0.0016139 -0.0011805 -0.001184 0.00033396
-0.00090726 0.00093529 -0.00061195 0.00049502
-0.0020291 0.00093819 0.001638 -0.0012285 0.2116 -0.23345 0.0014283 0.00072264
-0.0010936 0.0016822 -0.0013701 -0.00021865
0.00098604 -0.0035068 -0.0012062 0.00035808 0.0013575 0.00068227 0.23127 -0.050344
-0.00022564 0.010037 -0.00035186 -0.0026371
-0.0014547 0.00070696 -0.00090498 0.000937 -0.0011158 0.0016816 -0.00019919 0.010082
0.23577 0.075895 0.0042276 0.0069389
0.00044817 -0.00040468 -0.00063206 0.0004848 -0.0013149 -0.00025953 -0.00026719 -0.0025903
0.0042258 0.0070081 0.28427 0.12292
1820000000 0.25201 -0.11429 0.0040208 0.0022281 6.1287e-05 0.0023548 -0.0012043 -0.0028464
-0.0010929 0.0011142 -2.7139e-05 -9.7723e-05
0.0039922 0.0022378 0.26151 0.16827 -0.00016349 -6.4025e-05 -0.0011416 0.0010631
0.00010458 0.0012395 -0.00050129 0.00059593
0.00011819 0.0023884 -9.0305e-05 -4.9971e-05 0.16119 -0.24816 0.0012962 7.3251e-05
3.6141e-05 0.002296 -0.0013566 0.00066453
-0.0012256 -0.0028082 -0.0011398 0.0010223 0.0013164 -2.8914e-05 0.20229 -0.095669
0.0018467 0.0079474 -0.0017827 -0.0014904
-0.0011143 0.0011375 0.00014 0.0012269 6.5907e-05 0.0022651 0.0018405 0.0080307
0.2515 0.046328 0.0050244 0.0033848
-2.3721e-05 -9.0216e-05 -0.00052622 0.00062669 -0.0013769 0.0006479 -0.0017129 -0.0014158
0.0050632 0.0034417 0.28523 0.085823
1880000000 0.21575 -0.15401 0.0017443 0.00018915 -0.00035716 0.0018418 -0.0029851 -0.0019566
-9.1925e-05 0.0017851 0.00023 -0.00054451
0.0017419 0.00021361 0.2652 0.12119 -0.0022572 0.0016018 -5.7868e-05 0.0015623
0.0006358 0.00099656 0.00021792 0.00095015
-0.00031825 0.0019612 -0.0022595 0.0016117 0.10826 -0.2582 0.001349 -0.0010116
0.0016894 0.0017359 -0.0006573 0.0014298
-0.0029786 -0.0018525 -1.5032e-05 0.0015962 0.0013849 -0.00095381 0.16318 -0.13587
0.0029198 0.0053997 -0.0023245 0.0001635
-0.00011266 0.0017798 0.00064982 0.0010005 0.0017559 0.0017165 0.0029796 0.0054017
0.25284 0.013056 0.0048527 0.0011978
0.00021535 -0.0005279 0.00023623 0.00099641 -0.0005811 0.001413 -0.0023116 0.00024878
0.0047861 0.0012324 0.28339 0.051429
1940000000 0.1756 -0.1789 -0.00042176 -0.001148 0.0013575 0.0019655 -0.0035746 0.00066033
0.001589 0.0010456 -0.00058761 -0.00069853
-0.00040424 -0.0011739 0.2646 0.089688 -0.001232 0.0039196 0.00094193 0.0010377
0.0016057 0.00030786 0.00090546 0.00029083
0.0014388 0.0019281 -0.0011513 0.0038948 0.0616 -0.25088 0.00021211 -0.0017059
0.002271 0.00017802 0.00046547 0.0014914
-0.0035841 0.00078021 0.00089265 0.0010694 0.00011355 -0.0016927 0.11163 -0.16612
0.0021544 0.003487 -0.0013236 0.0012371
0.0015937 0.0010369 0.0016053 0.00028463 0.0022469 0.00021166 0.0021421 0.0035193
0.25304 -0.026077 0.0038409 -0.0018018
-0.00057097 -0.00069724 0.00090911 0.00022569 0.00044265 0.0015474 -0.0013582 0.001249
0.0038051 -0.001821 0.27099 0.015016
2000000000 0.12904 -0.19272 -0.0041268 0.00098386 0.0025974 0.0015615 -0.0021717 0.0033473
0.0013314 -9.5455e-05 -0.00051696 0.00050881
-0.0041322 0.00099543 0.25009 0.054149 -0.00085303 0.0056632 0.0014062 0.00032222
0.0010849 -0.0012425 0.00044489 2.1379e-05
0.0026596 0.0014922 -0.00082255 0.0056904 0.018287 -0.23602 -0.0010469 -0.00085475
0.0016822 -0.0011972 0.0017192 0.00098178
-0.0021977 0.003322 0.0014421 0.00024081 -0.0010684 -0.00086941 0.059059 -0.1774
0.00026808 0.0025578 -0.00013678 0.0021654
0.0013645 -8.1029e-05 0.0010746 -0.0012044 0.0016554 -0.0011771 0.00035737 0.0026291
0.24576 -0.060353 0.00048418 -0.0028176
