!Keysight Technologies,M9804A,MY58100912,A.14.10.03
!Date: Thursday, April 27, 2023 10:28:33
!Correction: S11(C  6-Port  ) 
!S12(C  6-Port  ) 
!S13(C  6-Port  ) 
!S14(C  6-Port  ) 
!S15(C  6-Port  ) 
!S16(C  6-Port  ) 
!S21(C  6-Port  ) 
!S22(C  6-Port  ) 
!S23(C  6-Port  ) 
!S24(C  6-Port  ) 
!S25(C  6-Port  ) 
!S26(C  6-Port  ) 
!S31(C  6-Port  ) 
!S32(C  6-Port  ) 
!S33(C  6-Port  ) 
!S34(C  6-Port  ) 
!S35(C  6-Port  ) 
!S36(C  6-Port  ) 
!S41(C  6-Port  ) 
!S42(C  6-Port  ) 
!S43(C  6-Port  ) 
!S44(C  6-Port  ) 
!S45(C  6-Port  ) 
!S46(C  6-Port  ) 
!S51(C  6-Port  ) 
!S52(C  6-Port  ) 
!S53(C  6-Port  ) 
!S54(C  6-Port  ) 
!S55(C  6-Port  ) 
!S56(C  6-Port  ) 
!S61(C  6-Port  ) 
!S62(C  6-Port  ) 
!S63(C  6-Port  ) 
!S64(C  6-Port  ) 
!S65(C  6-Port  ) 
!S66(C  6-Port  ) 
!S6P File: Measurement: :
# Hz S  RI   R 50
500000000 -0.33961 -0.021988 -0.010841 -0.0036645 -0.0078014 0.012372 -0.00361 0.01203
0.011974 0.0039984 -0.0034034 0.0080571
-0.01068 -0.0037216 -0.41924 -0.039284 0.0062623 -0.011682 0.0014147 0.012168
0.0075625 0.002176 0.0020418 0.013286
-0.0077615 0.012348 0.0061846 -0.011587 -0.26364 0.2209 0.0067803 0.0036029
-0.00048572 0.0078464 0.0020109 0.011499
-0.0035918 0.012072 0.0014711 0.012236 0.0069074 0.0035444 -0.33193 0.059148
-0.020028 -0.0064209 0.014638 0.024027
0.011858 0.0038594 0.0075468 0.0022305 -0.00050482 0.0079646 -0.020036 -0.0064092
-0.23501 -0.1687 -0.025666 0.0043056
-0.0034623 0.0080449 0.00217 0.013363 0.0021714 0.011429 0.014643 0.024027
-0.025646 0.0042893 -0.28271 -0.089065
560000000 -0.31347 0.1349 -0.026346 -0.060488 0.0012816 0.01133 0.00554 0.0092761
0.0096099 0.0042018 0.011321 0.0066658
-0.026451 -0.060498 -0.37584 0.11657 -0.042418 -0.035475 0.012735 0.0034243
-0.012342 -0.0036487 0.0028274 -0.0015706
0.001082 0.011339 -0.042721 -0.035386 -0.1809 0.26605 0.00041167 -0.0044039
0.017993 0.0041725 0.0076688 -0.0065632
0.0054902 0.0091715 0.01289 0.0034457 0.00032149 -0.0044151 -0.30588 0.14638
0.0013516 -0.023809 0.0038877 -0.018884
0.0097247 0.0044071 -0.012663 -0.003626 0.018449 0.0040659 0.0012834 -0.023819
-0.28831 0.0042928 0.0042544 -0.047207
0.011057 0.0064128 0.0030978 -0.0017151 0.0075274 -0.0062615 0.0039081 -0.018925
0.0042305 -0.047195 -0.3285 0.052496
620000000 -0.2716 0.12091 -0.023285 0.0077533 0.0036598 0.0080062 0.0071497 -0.005634
0.011029 -0.00074952 4.0955e-05 -0.0031621
-0.023311 0.0075222 -0.40146 0.071601 -0.019402 0.00069385 -0.00097723 -0.0020469
0.010245 -0.006407 0.0015091 -0.0024353
0.0037632 0.0080346 -0.019394 0.00072759 -0.14993 0.27594 -0.00058009 -0.0046633
-0.0038443 -0.0029899 0.0084137 -0.0027527
0.0072632 -0.0053547 -0.001091 -0.0019431 -0.00060159 -0.0047158 -0.26321 0.15839
-0.040035 -0.01767 0.012394 0.024211
0.010984 -0.0011462 0.010356 -0.006378 -0.0038115 -0.0028688 -0.040063 -0.017631
-0.21038 -0.032482 -0.039079 0.014477
0.00028194 -0.0028852 0.0013213 -0.002391 0.0084996 -0.0028229 0.012376 0.024159
-0.039067 0.014478 -0.25512 0.023445
680000000 -0.22793 0.20314 -0.027436 -0.012144 0.0053615 0.0046054 0.0013211 -0.0070093
-0.0027753 -0.010664 0.0040438 -0.0071623
-0.027371 -0.011998 -0.38477 0.16624 -0.032146 0.0004054 -0.0014573 -0.00046689
-0.0025083 -0.0088079 -0.0014183 -0.0023895
0.0055615 0.0046461 -0.03219 0.00047493 -0.098615 0.29356 -0.0011733 -0.00033882
-0.0015274 0.0002499 -0.0032409 -0.0090277
0.0013749 -0.0069943 -0.0014434 -0.00050714 -0.0011577 -0.00037006 -0.2178 0.20684
-0.025904 -0.0050611 -0.0091768 -0.0086887
-0.0027854 -0.010792 -0.0025284 -0.0088648 -0.0014918 0.00025654 -0.025933 -0.0050613
-0.25073 0.064801 -0.0068139 -0.0073186
0.0043318 -0.0067275 -0.0013606 -0.0024792 -0.0032159 -0.0090071 -0.0091431 -0.0086846
-0.0068271 -0.0073467 -0.25481 0.11985
740000000 -0.18495 0.19792 -0.037084 0.026277 0.012182 -0.0058372 -0.00080048 -0.0041089
-0.0045032 -0.0029481 -0.0060278 0.0027944
-0.036959 0.026216 -0.33295 0.18552 -0.032908 0.034999 -0.0011014 -0.0064424
-0.011703 0.0078989 -0.0021429 -0.0053461
0.012196 -0.0057747 -0.032866 0.035068 -0.065063 0.29296 -0.0017733 0.0031105
-0.0033817 -0.0046143 -0.0019532 0.0011849
-0.00067987 -0.0043283 -0.0010752 -0.0064285 -0.0017466 0.0031347 -0.19909 0.21494
-0.043 -0.0035128 0.022673 0.012803
-0.0045741 -0.0028546 -0.011841 0.007816 -0.0032781 -0.0046662 -0.043033 -0.0034899
-0.15816 0.086334 -0.039627 0.0031752
-0.0057372 0.0026243 -0.0020985 -0.0053871 -0.0019796 0.0012358 0.022706 0.012808
-0.039599 0.0031415 -0.24317 0.1297
800000000 -0.15064 0.23553 -0.021194 0.017334 0.0046181 -0.01045 -0.0045688 -0.0018983
-0.0034734 0.0028595 0.0034359 0.00042297
-0.021145 0.017275 -0.33329 0.25416 -0.0066498 0.033446 -0.0023615 0.0021546
-0.00060547 0.0033284 0.0010317 0.0051165
0.0046381 -0.010457 -0.0065947 0.033449 -0.022349 0.31462 0.00084398 0.0016439
0.00029157 0.0034952 -0.0018111 0.0011014
-0.0044536 -0.0018071 -0.0023888 0.0021465 0.00085365 0.0016392 -0.16906 0.24133
-0.026895 0.01664 0.012993 -0.010167
-0.0034287 0.0025347 -0.00066912 0.0033262 0.00026133 0.0034608 -0.026903 0.016694
-0.19525 0.11304 -0.015971 0.018901
0.0035317 0.00051052 0.00097873 0.0050147 -0.0017897 0.0010804 0.012999 -0.010198
-0.015967 0.018881 -0.2304 0.17519
860000000 -0.11587 0.25572 -0.015871 0.030765 -0.003743 -0.0095045 -0.0022697 0.0012537
0.0043029 0.0048756 -0.0028834 -0.0026143
-0.015783 0.030855 -0.2861 0.29511 0.0090623 0.033002 0.00018401 0.0025323
0.0044585 0.00052603 0.0029447 0.00057326
-0.0038125 -0.0094526 0.0091462 0.033029 0.02582 0.32159 -0.0004417 2.4269e-05
0.0024412 -0.0010862 0.0015636 0.004089
-0.0022358 0.001373 9.4013e-05 0.0024293 -0.00045194 -5.9714e-06 -0.13246 0.25171
-0.015189 0.020809 -0.005552 -0.008895
0.0041959 0.0048732 0.0043272 0.00058139 0.0024181 -0.0011279 -0.015177 0.020848
-0.14344 0.15981 -0.022665 0.016486
-0.0030048 -0.002302 0.0029096 0.00038755 0.001611 0.0040769 -0.0055829 -0.0089148
-0.022668 0.016449 -0.18182 0.21534
920000000 -0.089521 0.27723 0.0062902 0.036627 -0.009259 -0.0038403 -0.0014318 0.0018338
0.0013861 0.0017913 0.0026502 -0.0015864
0.0063173 0.036593 -0.25564 0.31565 0.028078 0.020212 0.0016495 0.00097158
0.0071661 -0.00055345 0.0037031 -0.0029282
-0.0092455 -0.0038011 0.02812 0.020151 0.073178 0.32156 0.0019186 -0.00018121
0.0016315 -0.00040621 0.0009651 -0.0010764
-0.0013811 0.0018424 0.0016864 0.00095387 0.0019335 -0.00018801 -0.10639 0.26754
-0.0073321 0.031032 0.0026297 -0.0062166
0.0014027 0.0017305 0.0071928 -0.00052703 0.0016132 -0.00045458 -0.0072697 0.031041
-0.12874 0.16476 0.00024584 0.02535
0.0026404 -0.0013674 0.0038217 -0.0029541 0.00098438 -0.0010947 0.0026647 -0.0062279
0.00021945 0.025333 -0.18233 0.23066
980000000 -0.042354 0.29482 0.018532 0.028326 -0.0084046 0.0047161 0.0021422 0.0030507
0.0039894 -0.0019288 -0.0033117 -0.0023013
0.018498 0.028284 -0.2037 0.34777 0.032324 0.0032563 0.0021286 -0.00033043
0.0015323 -0.0062702 -0.00058107 -0.0024244
-0.0083911 0.0047285 0.032366 0.0031993 0.11961 0.31347 0.00050491 -0.0013438
0.00014057 -0.002378 0.0013428 -0.00026272
0.0021183 0.0030976 0.0021718 -0.00032068 0.00051469 -0.0013453 -0.067188 0.27675
0.010831 0.028383 -0.008577 -0.0064284
0.0039547 -0.0019768 0.0014706 -0.006341 0.00013358 -0.0023718 0.010909 0.028387
-0.09805 0.18861 0.0060599 0.018259
-0.003203 -0.0021795 -0.00062725 -0.0023629 0.0013446 -0.00024457 -0.0085682 -0.0064161
0.0060418 0.018254 -0.13789 0.26919
1040000000 0.00021518 0.3021 0.03283 0.015724 -0.0010843 0.0065787 0.0022688 0.00056168
9.8568e-05 -0.0031969 -0.00071375 -0.0014465
0.032827 0.015727 -0.16801 0.36088 0.027628 -0.015538 0.0014228 -0.0018267
-0.0022546 -0.0024822 -0.0012837 -0.0028516
-0.0010687 0.006577 0.02761 -0.015627 0.1661 0.29901 -0.00061115 -0.0014757
-0.0014996 -0.00088901 -0.00043907 -0.0011057
0.0022901 0.00055225 0.0014123 -0.001827 -0.00060987 -0.0014731 -0.039017 0.28574
0.021046 0.015544 -0.0025027 0.00099484
7.8719e-05 -0.0031855 -0.002352 -0.002461 -0.0015325 -0.00090168 0.021108 0.015523
-0.065288 0.19485 0.013824 0.015807
-0.00068183 -0.00145 -0.0013322 -0.0027818 -0.00045452 -0.0010868 -0.0024952 0.00099381
0.013805 0.01581 -0.1131 0.28887
1100000000 0.045755 0.30836 0.034247 -0.0057222 0.0027219 0.0036262 0.0021473 -0.00099503
-0.0021139 -0.0028066 -0.0035767 0.00053692
0.034224 -0.0057231 -0.12447 0.37725 0.013547 -0.027434 -0.00018502 -0.0017945
-0.0035315 -0.0005543 -0.0033111 -0.00022117
0.0027149 0.0036194 0.013476 -0.027483 0.21287 0.27687 -0.0018336 0.00017974
-0.0017916 0.00056837 -0.00093875 -0.00023596
0.0021373 -0.0010465 -0.00021912 -0.0018021 -0.0018448 0.00018785 0.0022855 0.28854
0.024692 0.0022632 -0.0025935 0.00017106
-0.0021004 -0.0028392 -0.0035248 -0.0005417 -0.0017763 0.00056082 0.024721 0.0022169
-0.047097 0.20619 0.017963 0.0061517
-0.0035976 0.00051643 -0.0033996 -0.00026549 -0.00095917 -0.00022911 -0.0025966 0.00019249
0.017956 0.006151 -0.066723 0.31355
1160000000 0.096647 0.30219 0.022012 -0.021338 0.0022696 -0.00038154 -4.936e-05 -0.0020053
-0.0038261 -0.00047746 -0.0007088 0.0038097
0.022063 -0.021292 -0.080331 0.38092 -0.0048408 -0.027888 -0.0016009 -0.0014629
-0.0025121 0.0024815 -0.0013025 0.0016822
0.0022698 -0.00041401 -0.0049083 -0.027893 0.25522 0.24449 -0.00077904 0.0017319
-0.00051282 0.0018627 -0.00081745 0.00011461
-7.487e-05 -0.0020422 -0.0016004 -0.0014612 -0.00078447 0.0017576 0.041339 0.28383
0.020026 -0.012514 -0.0031359 0.0044082
-0.0039016 -0.00047666 -0.0024972 0.0025365 -0.0004872 0.0018892 0.020046 -0.012529
-0.013632 0.21344 0.016808 -0.0016474
-0.00060059 0.0037673 -0.00134 0.0017071 -0.00080344 0.0001248 -0.003167 0.0044328
0.016789 -0.001654 -0.019765 0.31403
1220000000 0.14145 0.28938 0.0084103 -0.029329 -0.0015984 -0.00028668 0.00014965 -0.00095692
-0.0023658 0.0022656 0.0012862 0.0018827
0.0084223 -0.029303 -0.035984 0.39189 -0.017044 -0.019688 -0.0024217 0.00046083
0.00011555 0.0028892 -0.00052263 0.0019521
-0.0016154 -0.00029091 -0.017116 -0.019633 0.2938 0.20435 0.00073135 0.0018629
0.00064467 0.0012385 0.00032205 0.00055301
0.00014612 -0.0009301 -0.0024223 0.00049139 0.00073784 0.0018605 0.081631 0.27338
0.0090989 -0.018586 0.0013771 0.0014596
-0.0023624 0.0023104 0.00010488 0.0029469 0.00067283 0.0012528 0.0090828 -0.018598
0.010063 0.22019 0.0116 -0.013264
0.0013114 0.0019157 -0.00051242 0.0019768 0.00032885 0.00056009 0.0013927 0.0014578
0.011594 -0.013258 0.013206 0.32641
1280000000 0.19011 0.26576 -0.0090143 -0.026864 -0.0014626 0.0028836 -0.00097945 -0.0019942
-0.00068382 0.0028681 0.0023619 0.00092179
-0.0089839 -0.026866 0.0096548 0.38213 -0.023159 -0.0074855 -0.0010417 0.0013774
0.001725 0.0016906 0.00065291 0.001819
-0.00144 0.002895 -0.023206 -0.0073863 0.32324 0.15917 0.0016211 2.8801e-05
0.0010751 0.00026939 0.00021363 0.00016836
-0.000965 -0.0020146 -0.0010332 0.0014151 0.0016545 3.0052e-05 0.11744 0.25447
-0.00075268 -0.019887 -0.00052033 0.00046915
-0.00065254 0.0028603 0.0017051 0.0016721 0.0010862 0.00025987 -0.00078879 -0.01991
0.046085 0.22171 0.0012069 -0.014718
0.0023607 0.0009468 0.00068119 0.0018262 0.00024345 0.00016911 -0.00050765 0.00046025
0.0012084 -0.014719 0.059313 0.32439
1340000000 0.22655 0.23099 -0.017847 -0.017038 0.0013898 0.004293 -0.0017021 -0.0008842
0.0014397 0.0025067 0.0015284 -0.0014864
-0.017827 -0.017033 0.048953 0.3732 -0.020604 0.0048074 -0.00013386 0.0020255
0.0019847 0.00066993 0.0012976 0.00066343
0.0014159 0.0042772 -0.020608 0.0048739 0.34422 0.11129 0.0013092 -0.0010139
0.00064505 -0.00052736 9.4731e-05 0.00023445
-0.0017014 -0.00088042 -0.00014248 0.0020174 0.0012828 -0.0010174 0.14885 0.23266
-0.010042 -0.016512 0.00047236 0.0011548
0.0014404 0.0025327 0.001977 0.0006711 0.00064634 -0.00054682 -0.010081 -0.016513
0.075576 0.2155 -0.0051836 -0.01277
0.001479 -0.0014803 0.0013013 0.00062549 8.6232e-05 0.00020825 0.00048781 0.0011568
-0.0051783 -0.012778 0.097733 0.31717
1400000000 0.25873 0.1916 -0.022474 -0.0058748 0.0053013 0.0026484 -0.0021032 0.00056615
0.002297 0.00081397 0.0001163 -0.0013833
-0.022451 -0.005884 0.085907 0.35949 -0.013838 0.012286 0.0013978 0.0013546
0.0012328 -0.00082882 0.0011315 6.0512e-05
0.0052971 0.0026316 -0.013798 0.012334 0.35692 0.057199 0.00014589 -0.001909
7.1958e-05 -0.00040667 0.00030019 0.00017234
-0.0021027 0.00055959 0.0013988 0.0013361 0.00017236 -0.0019173 0.17715 0.20213
-0.015695 -0.0095044 -0.00043409 0.00050141
0.0022901 0.0008004 0.0012224 -0.00084149 7.9044e-05 -0.00043201 -0.015727 -0.009486
0.10771 0.20919 -0.010854 -0.0075545
0.00010065 -0.0014036 0.0011299 3.1358e-05 0.00032546 0.00015175 -0.0004183 0.00050157
-0.010832 -0.0075735 0.14099 0.30305
1460000000 0.28022 0.147 -0.019097 0.0054476 0.005402 -0.0022378 -0.0015573 0.0016852
0.001914 -0.0005416 -0.00034638 -0.00081594
-0.019076 0.0054171 0.11971 0.33722 -0.0055434 0.014748 0.0018178 0.00013473
0.00078933 -0.0013144 0.0011241 -0.00056194
0.0053786 -0.0022625 -0.0055009 0.01477 0.36169 0.0026613 -0.0015139 -0.0013708
0.00015358 -0.00016408 0.00057255 -0.00028546
-0.0015711 0.0016954 0.0018263 0.00012232 -0.0015273 -0.0013897 0.20115 0.17204
-0.016695 -0.0024951 -0.00030189 0.0022763
0.0019284 -0.0005262 0.00076736 -0.0013389 0.0001394 -0.00014654 -0.016708 -0.0024463
0.13575 0.19325 -0.011785 -0.0017012
-0.00038187 -0.00083814 0.0011134 -0.00059801 0.00056699 -0.00031911 -0.00029671 0.0022784
-0.01178 -0.0017018 0.17281 0.28041
1520000000 0.29157 0.10434 -0.013269 0.010254 0.0028817 -0.004202 0.00014811 0.0025939
0.0020128 -0.0016356 -0.0011229 -6.9448e-05
-0.013286 0.010236 0.15316 0.32192 0.0016106 0.012518 0.0016953 -0.00089594
-5.5264e-05 -0.0011196 0.00026439 -0.00090479
0.0028605 -0.0042135 0.0016722 0.01252 0.35431 -0.053721 -0.0014637 -0.00028919
0.00050724 -0.00096133 -1.3852e-05 -8.5485e-05
0.000178 0.0025976 0.0016885 -0.00091702 -0.0014782 -0.00027868 0.22242 0.13392
-0.015662 0.0034688 0.0020455 0.0018714
0.0020066 -0.0016117 -6.0817e-05 -0.0011224 0.00051364 -0.00096521 -0.01567 0.0035026
0.163 0.17775 -0.01124 0.0026614
-0.0011096 -4.5853e-05 0.00026341 -0.00090361 -5.6177e-05 -4.9498e-05 0.0020318 0.0018765
-0.011242 0.0026533 0.20503 0.2575
1580000000 0.29937 0.05766 -0.0070653 0.012709 -0.0011764 -0.0046592 0.001556 0.0018562
-0.00011108 -0.0020928 -0.00027411 0.00039501
-0.0070619 0.012681 0.18003 0.29642 0.0049807 0.0078327 0.00040921 -0.0017336
-0.00058526 -0.0010218 -0.00020741 -0.00076856
-0.0012176 -0.0046602 0.0050059 0.00782 0.33357 -0.11153 -0.0016494 0.0010385
-0.00024429 -0.001139 0.00018778 -0.00061541
0.0015589 0.001851 0.00040752 -0.0017324 -0.0016398 0.0010253 0.23412 0.094711
-0.012054 0.0085723 0.0025085 0.00029621
-0.00015321 -0.0020901 -0.00060278 -0.0010209 -0.00025694 -0.0011288 -0.012047 0.0086032
0.18606 0.15811 -0.0087775 0.0076485
-0.00025854 0.00042521 -0.00018565 -0.00076419 0.00022654 -0.00065324 0.002492 0.00030295
-0.0087829 0.0076515 0.23485 0.22911
1640000000 0.30011 0.016024 -0.0009506 0.011337 -0.0028316 -0.00244 0.0027159 0.00084776
-0.00072692 -0.0016086 -0.00027151 0.00058984
-0.00094018 0.011331 0.20911 0.271 0.005587 0.0034308 -0.00091608 -0.0016508
-0.0010576 -0.0002936 -0.0005191 -0.00061756
-0.002832 -0.0024237 0.005586 0.0034263 0.30406 -0.15985 -0.00060927 0.001657
-0.0011934 -0.00089881 -0.00016313 -0.00021619
0.0027103 0.00086312 -0.00089937 -0.001641 -0.00057486 0.001622 0.2446 0.047311
-0.0075544 0.010156 0.0025349 -0.0012124
-0.00073032 -0.0015822 -0.0010556 -0.00031522 -0.00121 -0.00088582 -0.0075387 0.010188
0.20714 0.13282 -0.0040463 0.0092686
-0.00024951 0.00062491 -0.00051919 -0.00058017 -9.8054e-05 -0.00022277 0.0025328 -0.0012369
-0.004051 0.009267 0.25899 0.19688
1700000000 0.2915 -0.029539 0.0020654 0.0085982 -0.0034649 0.00036919 0.0029141 -0.0013533
-0.0020138 -0.00074263 0.00063606 0.00035659
0.0020629 0.0085984 0.22697 0.23901 0.0037486 0.00067122 -0.0014973 -0.00044195
-0.00076267 0.00024012 -0.00089249 -0.00040191
-0.003413 0.00035527 0.003754 0.00065909 0.26108 -0.19978 0.00082462 0.0014962
-0.0018883 -4.5156e-05 -0.00058689 -0.00069982
0.0028893 -0.0013679 -0.0015111 -0.00043247 0.00083067 0.0014945 0.24081 -0.00085933
-0.004167 0.010861 0.0013798 -0.0023083
-0.0020203 -0.00072513 -0.00076155 0.00024776 -0.001887 7.0403e-06 -0.0041534 0.010871
0.22305 0.11138 0.00037625 0.0094938
0.00060478 0.00033975 -0.00090498 -0.00040313 -0.00059647 -0.00069905 0.0013796 -0.00234
0.00037813 0.0094935 0.27378 0.16143
1760000000 0.27786 -0.077815 0.0039925 0.0054692 -0.002089 0.00095585 0.00099902 -0.0035067
-0.0014912 0.00066211 0.00045019 -0.00046133
0.0039838 0.0054637 0.25212 0.1984 0.0016204 -0.0011492 -0.001135 0.00031019
-0.00090671 0.00093844 -0.00061171 0.00048979
-0.0020969 0.0009738 0.00162 -0.0011575 0.21168 -0.23335 0.0014225 0.00067036
-0.0010552 0.0016252 -0.0013864 -0.00022634
0.00096198 -0.0035307 -0.0011446 0.00033594 0.001435 0.00070238 0.23119 -0.050469
-0.00041564 0.0099811 -0.0004276 -0.0025843
-0.0014687 0.00067091 -0.00090728 0.00096534 -0.0010732 0.0016472 -0.00038541 0.0099939
0.23583 0.0757 0.0041272 0.0068151
0.00041447 -0.00047698 -0.00061226 0.0005023 -0.0013824 -0.00020268 -0.00039935 -0.0026046
0.0041371 0.0068163 0.28444 0.12284
1820000000 0.25201 -0.11436 0.0039458 0.0021944 0.00010038 0.0024039 -0.0012339 -0.0028375
-0.0011288 0.0010613 -2.3142e-05 -7.7628e-05
0.0039528 0.0021958 0.26149 0.16825 -0.00015607 -2.1935e-05 -0.001137 0.0010261
0.00010752 0.001263 -0.00050841 0.00059205
0.00010957 0.0023913 -0.00013891 -1.7532e-05 0.16131 -0.24814 0.0012745 2.9574e-05
5.1306e-05 0.0023342 -0.0013682 0.00061667
-0.0012504 -0.0028297 -0.0011353 0.0010454 0.0012676 2.1084e-05 0.20213 -0.095824
0.0016321 0.0080086 -0.0017122 -0.0014091
-0.0011156 0.0010738 0.00012173 0.0012753 6.0175e-05 0.0023149 0.001658 0.008021
0.25146 0.046223 0.0049153 0.0033339
-5.7931e-05 -8.659e-05 -0.00050529 0.00061808 -0.0013444 0.00062575 -0.0016917 -0.0014028
0.0049178 0.0033305 0.28544 0.085722
1880000000 0.2157 -0.15399 0.0016568 0.00017358 -0.00029958 0.0019152 -0.0029512 -0.0019214
-0.000128 0.0018015 0.00027375 -0.00052001
0.0016766 0.00019376 0.26515 0.12114 -0.0022575 0.0016103 -3.634e-05 0.0015848
0.0006626 0.0010412 0.00023777 0.00094739
-0.00028767 0.0018936 -0.0022562 0.0016022 0.10823 -0.2583 0.0013748 -0.00094732
0.0016877 0.0017296 -0.00065709 0.0014312
-0.0029649 -0.0018874 -3.1407e-05 0.0015824 0.0013566 -0.00098115 0.16305 -0.13593
0.0028395 0.0055322 -0.0023321 0.00025228
-0.00012681 0.0018043 0.00066815 0.0010276 0.0016918 0.0016906 0.0028583 0.0055433
0.25278 0.012963 0.0046617 0.0011684
0.00025269 -0.00050266 0.00021008 0.00095369 -0.00071507 0.0014212 -0.0022921 0.00030219
0.0046467 0.0011816 0.28345 0.051265
1940000000 0.17552 -0.1789 -0.00049276 -0.0011508 0.0014123 0.0019499 -0.0035867 0.00073978
0.0015706 0.0010787 -0.00052834 -0.00068889
-0.00048727 -0.0011686 0.26455 0.089675 -0.0011467 0.003925 0.00089779 0.0010933
0.0016316 0.00030177 0.00090367 0.0002744
0.0013898 0.0019081 -0.0011354 0.0039096 0.061699 -0.25085 0.00017889 -0.0017229
0.0022607 0.00015888 0.00040028 0.0015266
-0.0035351 0.00075663 0.00094645 0.0010735 0.00014848 -0.0016812 0.11159 -0.16619
0.0020987 0.0036369 -0.0012966 0.0012861
0.0015728 0.00107 0.0016546 0.00029509 0.0022627 0.00016922 0.0020931 0.0036491
0.25294 -0.026081 0.0036394 -0.0017789
-0.00054603 -0.00065948 0.00090255 0.00026611 0.00040324 0.001521 -0.0013323 0.0013325
0.0036243 -0.0017608 0.27093 0.014851
2000000000 0.12899 -0.19271 -0.0041658 0.0010447 0.0025989 0.0015144 -0.0022908 0.0033904
0.0013206 -6.2301e-05 -0.00050857 0.00044416
-0.0042029 0.001038 0.25004 0.054156 -0.00088779 0.0057265 0.0014007 0.00030597
0.001068 -0.001233 0.00045101 2.6214e-05
0.0025836 0.0015112 -0.00085558 0.0057327 0.018302 -0.23589 -0.0010453 -0.00091952
0.0016624 -0.001174 0.0017448 0.0010217
-0.0022453 0.0033639 0.0014268 0.00029415 -0.0010825 -0.00085764 0.058878 -0.1773
0.00032362 0.0027612 -2.3008e-05 0.0021531
0.0012899 -8.5582e-05 0.0010872 -0.0012432 0.0016611 -0.0012011 0.00030574 0.0027538
0.24576 -0.060376 0.00039611 -0.0027518
