!Keysight Technologies,M9804A,MY58100912,A.14.10.03
!Date: Thursday, April 27, 2023 10:28:33
!Correction: S11(C  6-Port  ) 
!S12(C  6-Port  ) 
!S13(C  6-Port  ) 
!S14(C  6-Port  ) 
!S15(C  6-Port  ) 
!S16(C  6-Port  ) 
!S21(C  6-Port  ) 
!S22(C  6-Port  ) 
!S23(C  6-Port  ) 
!S24(C  6-Port  ) 
!S25(C  6-Port  ) 
!S26(C  6-Port  ) 
!S31(C  6-Port  ) 
!S32(C  6-Port  ) 
!S33(C  6-Port  ) 
!S34(C  6-Port  ) 
!S35(C  6-Port  ) 
!S36(C  6-Port  ) 
!S41(C  6-Port  ) 
!S42(C  6-Port  ) 
!S43(C  6-Port  ) 
!S44(C  6-Port  ) 
!S45(C  6-Port  ) 
!S46(C  6-Port  ) 
!S51(C  6-Port  ) 
!S52(C  6-Port  ) 
!S53(C  6-Port  ) 
!S54(C  6-Port  ) 
!S55(C  6-Port  ) 
!S56(C  6-Port  ) 
!S61(C  6-Port  ) 
!S62(C  6-Port  ) 
!S63(C  6-Port  ) 
!S64(C  6-Port  ) 
!S65(C  6-Port  ) 
!S66(C  6-Port  ) 
!S6P File: Measurement: :
# Hz S  RI   R 50
500000000 -0.3394 -0.020601 -0.010244 -0.0026382 -0.0077002 0.012302 -0.0038895 0.01226
0.01159 0.0038499 -0.0034182 0.0086755
-0.01125 -0.0035924 -0.4188 -0.038861 0.0065264 -0.012115 0.0011133 0.012397
0.0072036 0.0020784 0.0021527 0.013622
-0.0086959 0.012503 0.0065464 -0.011146 -0.2633 0.22035 0.0067734 0.0037041
-0.0011245 0.0078049 0.0022248 0.011893
-0.0012791 0.011703 0.0018234 0.012102 0.0070289 0.003077 -0.33142 0.058652
-0.020632 -0.0065093 0.014877 0.024097
0.012241 0.00541 0.0079372 0.0022201 -0.00045725 0.0088291 -0.020195 -0.0062227
-0.23419 -0.16968 -0.025787 0.0043968
-0.0010921 0.0070812 0.0025771 0.013014 0.0022276 0.010966 0.015636 0.023941
-0.02629 0.004204 -0.2829 -0.089248
560000000 -0.31322 0.13519 -0.027769 -0.060534 0.0010075 0.011165 0.0056317 0.010186
0.0093484 0.0040736 0.010758 0.0074756
-0.026196 -0.061249 -0.37608 0.11779 -0.041824 -0.035239 0.012615 0.0031865
-0.01171 -0.0032784 0.0024662 -0.00086901
0.0017049 0.01086 -0.043194 -0.035647 -0.18116 0.26639 6.4692e-05 -0.0047185
0.017961 0.0046926 0.0066818 -0.0069137
0.0055336 0.0096543 0.012419 0.0030241 0.00058679 -0.0046492 -0.30594 0.14666
0.0018234 -0.023805 0.0037773 -0.018481
0.0080411 0.0041027 -0.013494 -0.0026169 0.018944 0.0041765 0.00068836 -0.024371
-0.2886 0.0036238 0.0039573 -0.047042
0.011413 0.0064417 0.0021893 -0.0013152 0.0075069 -0.0060306 0.0038298 -0.01841
0.00417 -0.046592 -0.32912 0.051672
620000000 -0.27122 0.12087 -0.023311 0.0077609 0.0037357 0.0081014 0.0074164 -0.0051949
0.011218 -0.00064421 0.00094667 -0.0021837
-0.022956 0.0074636 -0.40137 0.071546 -0.019395 0.00055298 -0.0011728 -0.0021514
0.010176 -0.0063287 0.0013444 -0.0024266
0.0046801 0.0087264 -0.019327 0.00076061 -0.14983 0.2759 -0.00094509 -0.0048666
-0.0035591 -0.0029679 0.0084415 -0.0031457
0.0082838 -0.0041777 -0.00111 -0.0020092 -0.00068189 -0.0047038 -0.26291 0.1589
-0.039836 -0.017639 0.012779 0.024458
0.01083 -0.0022589 0.010379 -0.0062276 -0.0038613 -0.0030861 -0.040556 -0.018652
-0.2116 -0.032548 -0.040229 0.014801
0.0017091 -0.0019483 0.0014556 -0.0027663 0.0083837 -0.0029732 0.012182 0.024343
-0.03974 0.01515 -0.2556 0.02235
680000000 -0.22802 0.20336 -0.027237 -0.012244 0.005376 0.0047897 0.0010703 -0.00732
-0.0027857 -0.010961 0.0042551 -0.006972
-0.027997 -0.01218 -0.38477 0.16621 -0.032249 0.00052476 -0.0014024 -0.00033215
-0.002186 -0.0087393 -0.0012537 -0.0024038
0.0050947 0.0047984 -0.032227 0.00057312 -0.098638 0.29355 -0.0011965 -0.00040395
-0.0014128 0.00026531 -0.003226 -0.0089423
0.0010159 -0.0069656 -0.0014076 -0.00043726 -0.0011625 -0.00018184 -0.21711 0.20637
-0.026048 -0.0047674 -0.0090715 -0.008854
-0.0031329 -0.011094 -0.0026606 -0.008998 -0.0012633 -3.0629e-05 -0.026049 -0.0052886
-0.25143 0.064749 -0.0070829 -0.0070357
0.0038392 -0.0071688 -0.0013062 -0.0021373 -0.003609 -0.009123 -0.0089821 -0.0085028
-0.0075501 -0.0074633 -0.25492 0.119
740000000 -0.18454 0.19687 -0.036839 0.026204 0.01225 -0.0059499 -0.00048324 -0.0042295
-0.0049816 -0.0028892 -0.0059302 0.003097
-0.036815 0.025761 -0.33283 0.18582 -0.0329 0.034887 -0.0011599 -0.0063321
-0.011416 0.0077481 -0.0020541 -0.0052769
0.012691 -0.0053911 -0.033058 0.034976 -0.064859 0.29299 -0.0019233 0.0030252
-0.0030707 -0.0046598 -0.0017671 0.0011657
-0.00058573 -0.0036126 -0.0011061 -0.0061123 -0.0015495 0.002751 -0.19919 0.21511
-0.042931 -0.0030159 0.022653 0.012836
-0.005128 -0.003528 -0.011756 0.0071731 -0.0034188 -0.0041623 -0.043344 -0.0031524
-0.15689 0.086516 -0.039829 0.0039956
-0.0058295 0.0035254 -0.0022057 -0.0047989 -0.0012561 0.00079427 0.022789 0.012978
-0.039682 0.0030648 -0.24267 0.12962
800000000 -0.15072 0.23524 -0.021269 0.017324 0.0046879 -0.01064 -0.0044881 -0.002032
-0.0034852 0.0028904 0.0034455 0.00047868
-0.021281 0.017047 -0.33332 0.25413 -0.0066592 0.033478 -0.0022519 0.0020837
-0.00072049 0.0033526 0.00092617 0.005202
0.0041992 -0.010469 -0.0065979 0.033449 -0.022326 0.31455 0.00089308 0.0016471
0.00017522 0.0036028 -0.0017901 0.0011101
-0.0047185 -0.0018782 -0.0025715 0.0021888 0.00090185 0.0015825 -0.16896 0.2415
-0.027008 0.01676 0.012935 -0.010049
-0.0035577 0.0028503 -0.00046113 0.0033672 7.2851e-05 0.0034947 -0.027121 0.016614
-0.19606 0.11296 -0.016129 0.019133
0.0028041 0.00025663 0.00094858 0.0051406 -0.0017493 0.0010417 0.012805 -0.010143
-0.016087 0.018972 -0.23075 0.17512
860000000 -0.11617 0.25504 -0.01575 0.030653 -0.0036675 -0.0094243 -0.0022459 0.0012399
0.0041313 0.0047971 -0.0027055 -0.0026613
-0.015876 0.030645 -0.28591 0.29508 0.0090686 0.033122 0.00018481 0.0026355
0.0046059 0.00050022 0.0030383 0.00060899
-0.0036096 -0.0095185 0.0091903 0.033033 0.025768 0.3217 -0.00045836 0.00010817
0.0024111 -0.0010935 0.0016595 0.0040454
-0.0021551 0.0013164 0.00025099 0.0024171 -0.00041285 8.2447e-05 -0.13246 0.25169
-0.015043 0.020834 -0.0053592 -0.0088776
0.0044425 0.0046026 0.003877 0.00051161 0.0025493 -0.0010765 -0.015001 0.020843
-0.14342 0.16029 -0.022159 0.01681
-0.0024672 -0.002754 0.0034105 0.00059568 0.0013274 0.0041439 -0.0054555 -0.0089683
-0.022325 0.016829 -0.18192 0.21471
920000000 -0.089485 0.27747 0.0061991 0.036726 -0.0092718 -0.0038091 -0.0014663 0.001812
0.0012959 0.0018373 0.0027684 -0.0017245
0.0063346 0.036791 -0.2558 0.31563 0.028067 0.020265 0.0017642 0.00092508
0.0071538 -0.00033175 0.0037491 -0.0028719
-0.0092949 -0.0036825 0.028136 0.020275 0.073185 0.3216 0.0019618 -0.00017775
0.0016452 -0.00038488 0.00079884 -0.0011403
-0.0014118 0.0019411 0.0015424 0.001023 0.0019289 -0.00014762 -0.10631 0.2676
-0.0071518 0.031155 0.0026132 -0.0063351
0.0016934 0.001891 0.007286 -0.00011591 0.001605 -0.00042152 -0.0071816 0.031239
-0.12867 0.16506 0.00054254 0.025629
0.0026575 -0.0015474 0.0037834 -0.0027586 0.00089114 -0.0011098 0.002651 -0.0061043
0.00046484 0.025509 -0.18253 0.23009
980000000 -0.042173 0.29464 0.018509 0.028397 -0.0084328 0.004716 0.0020687 0.0030979
0.0040379 -0.0018346 -0.0032479 -0.0021839
0.018502 0.028297 -0.2038 0.34767 0.03226 0.0032402 0.0021223 -0.00024527
0.0015125 -0.0062718 -0.00055604 -0.0023619
-0.0083592 0.0047969 0.032332 0.0031594 0.11963 0.31345 0.00050339 -0.0013102
0.0001324 -0.0022958 0.0012862 -0.000199
0.0022084 0.002917 0.0022463 -0.00036078 0.00053371 -0.0013483 -0.067228 0.27681
0.010941 0.028423 -0.0085291 -0.0064178
0.0039977 -0.0021448 0.0013405 -0.0064308 3.7241e-05 -0.0023778 0.011023 0.028436
-0.097834 0.18873 0.00612 0.018369
-0.0034307 -0.0022296 -0.00066543 -0.0026166 0.0014632 -0.00025805 -0.0086295 -0.0064059
0.0060679 0.018397 -0.13836 0.26948
1040000000 6.3021e-05 0.30232 0.032877 0.015742 -0.0011186 0.0066091 0.0023071 0.00051826
0.00014873 -0.0032996 -0.00071848 -0.0014643
0.032886 0.015826 -0.16801 0.36081 0.027632 -0.015551 0.001466 -0.0018267
-0.0021976 -0.0026409 -0.0012587 -0.0028069
-0.001072 0.006606 0.027629 -0.01566 0.16608 0.29899 -0.00066775 -0.0014599
-0.0015409 -0.00096806 -0.00044036 -0.0011051
0.0024792 0.0007101 0.0014317 -0.0017946 -0.00065504 -0.00144 -0.038956 0.28588
0.021193 0.015583 -0.0025187 0.00088717
-5.835e-05 -0.0032084 -0.0024818 -0.0026617 -0.0017085 -0.00089406 0.021128 0.01557
-0.065142 0.19532 0.013876 0.015657
-0.00054448 -0.0016041 -0.0012076 -0.0028434 -0.00059174 -0.0010803 -0.0025782 0.00076872
0.013899 0.015546 -0.11318 0.28889
1100000000 0.045984 0.30829 0.034357 -0.0056417 0.0027581 0.0036287 0.0021253 -0.0010172
-0.0020528 -0.0028997 -0.0036798 0.00048202
0.034331 -0.0056597 -0.12448 0.37722 0.013569 -0.027416 -0.00019892 -0.0017931
-0.0034518 -0.00063558 -0.0034379 -0.00026718
0.0027372 0.0035986 0.013494 -0.027463 0.21282 0.27685 -0.0018269 0.00016585
-0.0018273 0.00050705 -0.00089572 -0.00020321
0.0022592 -0.0011092 -0.00025816 -0.0017804 -0.0018413 0.00016001 0.0023797 0.28846
0.024908 0.0021818 -0.0025964 -1.5262e-06
-0.002082 -0.0028534 -0.0034978 -0.00057392 -0.0017445 0.00056354 0.024926 0.0021817
-0.046658 0.20609 0.018094 0.0060592
-0.0036623 0.00039853 -0.0035786 -0.00013859 -0.0010647 -0.0002805 -0.0025694 3.9471e-06
0.018035 0.0061396 -0.066933 0.31327
1160000000 0.096519 0.30225 0.02213 -0.021255 0.0022568 -0.00045872 -7.7014e-05 -0.002041
-0.0038246 -0.00043584 -0.00071139 0.0038171
0.022126 -0.021181 -0.080293 0.38089 -0.0048101 -0.027906 -0.0015227 -0.0014959
-0.0025541 0.0026249 -0.0013776 0.0016738
0.0022717 -0.00045838 -0.0049093 -0.027903 0.25516 0.2445 -0.00079659 0.0017234
-0.00054676 0.0018695 -0.00085664 0.00018054
-0.00012882 -0.0019249 -0.0015379 -0.0014324 -0.0007795 0.0016826 0.041298 0.28374
0.020154 -0.012673 -0.0031603 0.0044189
-0.0039418 -0.00042503 -0.002655 0.0024597 -0.00056334 0.0018174 0.020128 -0.01276
-0.013309 0.213 0.016924 -0.00163
-0.00071689 0.0037655 -0.0012695 0.0016272 -0.00072817 0.00019084 -0.0030855 0.0042645
0.01698 -0.0016015 -0.019958 0.31403
1220000000 0.14153 0.28943 0.0084648 -0.02939 -0.0015848 -0.00029361 0.00017274 -0.00090058
-0.0023813 0.0023673 0.0012972 0.0019274
0.0084817 -0.029345 -0.035997 0.39185 -0.017054 -0.019689 -0.002414 0.00049809
7.858e-05 0.0029841 -0.00053539 0.0020033
-0.0016058 -0.00029884 -0.017099 -0.019621 0.29379 0.20439 0.00074327 0.0018555
0.00070584 0.0012752 0.00031875 0.00058007
0.00020678 -0.00094678 -0.0024332 0.00045201 0.00076683 0.0018949 0.08167 0.27336
0.0091387 -0.018871 0.0013299 0.0014996
-0.002364 0.0023352 6.9194e-05 0.0030807 0.00069163 0.0012469 0.0090992 -0.018871
0.010363 0.21973 0.01166 -0.013479
0.0012391 0.0019147 -0.0005937 0.0019811 0.00028854 0.00049375 0.001286 0.0014494
0.011696 -0.013515 0.013219 0.3266
1280000000 0.19028 0.26588 -0.0089912 -0.026957 -0.0014381 0.00285 -0.00094939 -0.0019946
-0.00067636 0.0028755 0.0023334 0.00091017
-0.0089805 -0.026903 0.0095317 0.38205 -0.023146 -0.0074705 -0.0010043 0.0014183
0.0017367 0.0017413 0.0006567 0.0017804
-0.0014881 0.0028398 -0.02314 -0.0074081 0.32323 0.15921 0.0016499 7.9447e-05
0.0011529 0.00019462 0.00024721 0.00019809
-0.00098148 -0.0019756 -0.00098618 0.0013947 0.0016406 5.6604e-05 0.11744 0.25439
-0.00082882 -0.020104 -0.00054707 0.00046334
-0.00066285 0.0028154 0.0017401 0.0017166 0.0010942 0.00027874 -0.0008896 -0.020148
0.046036 0.22126 0.0013511 -0.014838
0.0023995 0.00092384 0.00065025 0.0017918 0.0002308 0.00022562 -0.00054632 0.00051775
0.0014002 -0.014845 0.059168 0.32446
1340000000 0.22663 0.23103 -0.017857 -0.017121 0.0013513 0.0042765 -0.0016954 -0.00090974
0.001486 0.0025019 0.0015263 -0.001487
-0.017841 -0.017142 0.048931 0.37318 -0.020614 0.004769 -0.00017196 0.0020001
0.0020476 0.00072539 0.0013629 0.00063125
0.001402 0.0042268 -0.020591 0.0048523 0.34432 0.11126 0.0012738 -0.0010143
0.00073997 -0.00049617 0.00012198 0.00024121
-0.0016878 -0.00088999 -0.00010056 0.0020087 0.0013283 -0.000995 0.1488 0.23267
-0.010268 -0.016674 0.0004116 0.0012318
0.0014492 0.0025062 0.0020393 0.00072864 0.00071821 -0.00055057 -0.010297 -0.016671
0.075333 0.21501 -0.0052376 -0.012864
0.0015138 -0.0014929 0.0013388 0.00065276 7.8149e-05 0.00022519 0.00047547 0.0011638
-0.0051908 -0.012923 0.097646 0.31685
1400000000 0.25876 0.19153 -0.022576 -0.0059281 0.0052846 0.0026619 -0.0021446 0.00058473
0.0022556 0.00080612 0.00011865 -0.0013962
-0.022528 -0.0059369 0.085848 0.3595 -0.013862 0.012241 0.0013566 0.0013846
0.0012706 -0.00085861 0.001114 5.4871e-05
0.0052891 0.0026311 -0.013803 0.012339 0.35707 0.0572 0.00016161 -0.0019195
5.9378e-05 -0.0004198 0.0003127 0.00020141
-0.0021279 0.00057673 0.0013843 0.0013637 0.00016643 -0.0019245 0.17709 0.20208
-0.015964 -0.0094878 -0.00044565 0.00056991
0.0022884 0.00081803 0.0012848 -0.00083389 0.00012803 -0.0004042 -0.016008 -0.0095041
0.10723 0.2089 -0.010865 -0.0075956
0.00010368 -0.0013965 0.0011726 7.5532e-05 0.00033413 0.00017092 -0.00045656 0.00056559
-0.010864 -0.0076504 0.14068 0.3028
1460000000 0.28023 0.14695 -0.019153 0.0054939 0.0053783 -0.0022343 -0.0015581 0.0017256
0.0019756 -0.00052084 -0.00037498 -0.0008853
-0.019161 0.0054208 0.11976 0.33723 -0.0055927 0.014703 0.0018178 0.00017213
0.00081147 -0.001326 0.0010759 -0.00057243
0.0053528 -0.0022844 -0.0055415 0.01475 0.36176 0.0025771 -0.0014675 -0.0013813
0.00014762 -0.00017436 0.00061936 -0.00024165
-0.0015734 0.0017011 0.0017805 0.00016853 -0.001479 -0.001376 0.20105 0.17202
-0.016978 -0.0023585 -0.0002483 0.0023424
0.0019271 -0.00054811 0.00082212 -0.0013772 0.0001989 -0.00016158 -0.016959 -0.0022997
0.13516 0.19317 -0.011857 -0.0017278
-0.00030169 -0.00087494 0.0010304 -0.00054883 0.00054655 -0.00025843 -0.00022328 0.0023943
-0.011825 -0.0017413 0.1725 0.28034
1520000000 0.29148 0.10438 -0.013344 0.010302 0.0028503 -0.0041996 0.00015899 0.0025927
0.0020128 -0.0016289 -0.0010828 -0.00010175
-0.013332 0.01026 0.15314 0.32192 0.0015958 0.012522 0.0016858 -0.00090317
-7.4046e-05 -0.0011589 0.00026135 -0.00090474
0.0029037 -0.0042067 0.001655 0.012516 0.35436 -0.053811 -0.0014848 -0.00029048
0.00050207 -0.00095149 -1.3448e-05 -7.5108e-05
0.00014635 0.0025802 0.0016671 -0.0009158 -0.0015634 -0.00031078 0.22232 0.13399
-0.015799 0.00376 0.0020357 0.0019721
0.001985 -0.0016007 -0.00010786 -0.001103 0.00048721 -0.00090662 -0.015797 0.0037568
0.16258 0.17787 -0.011392 0.0026139
-0.0011584 -0.00010852 0.00027317 -0.00093606 -8.9729e-05 -0.00010711 0.0020415 0.0020152
-0.011416 0.0026062 0.20465 0.25745
1580000000 0.29929 0.057574 -0.0070702 0.012772 -0.0011845 -0.0046967 0.0015784 0.0018721
-0.00010092 -0.0021027 -0.00026685 0.00042342
-0.0071018 0.012758 0.18003 0.29642 0.0049713 0.0078408 0.00042824 -0.0017176
-0.00060847 -0.0009824 -0.00019896 -0.00078641
-0.0011539 -0.0046099 0.0049826 0.0078773 0.3336 -0.11159 -0.0016585 0.0010433
-0.00028197 -0.0011196 0.00023814 -0.00061236
0.0015905 0.0019331 0.00042416 -0.0017652 -0.0016539 0.0010692 0.23407 0.094751
-0.01204 0.0088655 0.0025647 0.00036793
-1.0313e-05 -0.0021527 -0.00062483 -0.0010316 -0.00032977 -0.001137 -0.012028 0.0088697
0.18564 0.15831 -0.0088949 0.0076943
-0.00027036 0.00047484 -0.00018581 -0.00082384 0.00018937 -0.0005927 0.0026093 0.00034088
-0.0088677 0.0077044 0.23448 0.22917
1640000000 0.30006 0.016057 -0.00094642 0.011432 -0.0027567 -0.0024527 0.002734 0.00087551
-0.00074425 -0.0016387 -0.00027194 0.00061261
-0.00097158 0.011409 0.20914 0.27102 0.005581 0.0034609 -0.00090197 -0.0016581
-0.0010543 -0.00028669 -0.00050132 -0.00062035
-0.002797 -0.0024503 0.0056029 0.0034416 0.30406 -0.15997 -0.00060211 0.0016542
-0.001239 -0.00086791 -6.2043e-05 -0.00023859
0.0027271 0.00089027 -0.00088933 -0.0017044 -0.00060255 0.0016641 0.24457 0.047442
-0.0074209 0.010389 0.0025727 -0.0011596
-0.0007508 -0.0015891 -0.001069 -0.00027367 -0.001239 -0.00087239 -0.0074059 0.010423
0.20694 0.13305 -0.0041867 0.0094413
-0.00027686 0.00059759 -0.00055192 -0.00061418 -0.00016509 -0.00025776 0.0025571 -0.0012034
-0.0041919 0.0094597 0.25862 0.19689
1700000000 0.29152 -0.029471 0.0020521 0.0086626 -0.0033827 0.00033434 0.0029221 -0.0013916
-0.002013 -0.00070091 0.00072314 0.00036408
0.0020666 0.0086522 0.22692 0.239 0.0037447 0.00069843 -0.001503 -0.00048394
-0.0007275 0.0002618 -0.00088037 -0.00040233
-0.00342 0.00031622 0.0037412 0.0007055 0.26101 -0.19991 0.00086556 0.0014705
-0.0019267 -3.4792e-05 -0.00060044 -0.00074077
0.0028479 -0.0013698 -0.0015249 -0.00041909 0.00087604 0.0014741 0.2408 -0.00082263
-0.0039085 0.010923 0.0014623 -0.002353
-0.0020345 -0.00068781 -0.00072194 0.0002446 -0.0019004 -4.4878e-05 -0.0038915 0.010952
0.22301 0.11164 0.00038796 0.0096746
0.000737 0.00044474 -0.0008323 -0.00034183 -0.00068612 -0.00066997 0.0014352 -0.0023524
0.00038075 0.0096565 0.2734 0.16159
1760000000 0.27781 -0.077829 0.0040417 0.00553 -0.0021303 0.00084659 0.00096779 -0.0034822
-0.0014704 0.00069497 0.00044771 -0.00044603
0.0040304 0.0055138 0.25213 0.19845 0.0016454 -0.0011953 -0.0011662 0.00032232
-0.00087425 0.00095352 -0.00062939 0.00049137
-0.002069 0.00095199 0.0016631 -0.0011734 0.21156 -0.23345 0.0014318 0.00069483
-0.0010762 0.0016511 -0.0013863 -0.00017988
0.0010238 -0.0035279 -0.0011676 0.00030879 0.0014165 0.00068919 0.2313 -0.050378
-0.00014623 0.010002 -0.00034654 -0.0026473
-0.0014642 0.00066889 -0.00089471 0.00094704 -0.0011027 0.0016681 -0.00016295 0.010035
0.23583 0.075912 0.0041565 0.0070069
0.00044094 -0.00045102 -0.00062018 0.00049277 -0.0013131 -0.00022384 -0.00032493 -0.0026176
0.0041248 0.0070147 0.28425 0.12319
1820000000 0.25209 -0.11429 0.0040503 0.002273 0.00013149 0.0023913 -0.0011839 -0.0028341
-0.0011229 0.0010898 -3.9366e-05 -5.5462e-05
0.004016 0.0022421 0.26151 0.16829 -0.00012791 -4.6377e-05 -0.0011295 0.0010359
0.00011382 0.0012262 -0.00052601 0.00058576
9.1316e-05 0.0024064 -0.00014268 -1.4343e-05 0.16125 -0.24819 0.0012691 1.9287e-06
5.4534e-05 0.002328 -0.0014138 0.0006156
-0.0012841 -0.0028562 -0.0011358 0.0010243 0.0012394 -3.0628e-05 0.20231 -0.095725
0.0018609 0.0079069 -0.0017053 -0.0014917
-0.0011053 0.0011 0.00011722 0.0012108 5.44e-05 0.0022642 0.0018896 0.007932
0.25152 0.046319 0.0049821 0.0035029
-3.8325e-05 -0.00012429 -0.00049849 0.00063511 -0.0013499 0.00063244 -0.0016748 -0.0014823
0.0049955 0.0035101 0.28518 0.085938
1880000000 0.2157 -0.15394 0.0016795 0.00015941 -0.00034119 0.0019399 -0.002898 -0.0019077
-8.9764e-05 0.0018097 0.00030444 -0.00056
0.0017716 0.00020561 0.26518 0.1212 -0.0022864 0.0015772 -1.6998e-05 0.0016014
0.00062581 0.0009982 0.0002266 0.00094043
-0.00024993 0.0018513 -0.002235 0.0016008 0.10813 -0.25828 0.001315 -0.00096293
0.0017341 0.0017198 -0.00065605 0.0013829
-0.0028832 -0.0019674 -5.8951e-05 0.0016646 0.0014065 -0.00090311 0.16318 -0.13595
0.0029698 0.0053555 -0.0023639 0.00025788
-0.00014183 0.001806 0.00059721 0.0010475 0.0017079 0.0017976 0.0030349 0.0053241
0.25284 0.013123 0.0048183 0.0013569
0.00018855 -0.00054484 0.00027072 0.00098283 -0.00069952 0.0014769 -0.0022936 0.0002241
0.0048176 0.00136 0.28341 0.051692
1940000000 0.17564 -0.17881 -0.00041887 -0.0012057 0.0014414 0.0019618 -0.003514 0.00070894
0.0015768 0.001055 -0.0005995 -0.0006684
-0.00043698 -0.0011745 0.2646 0.089666 -0.0011683 0.0039443 0.00093912 0.0010704
0.0016283 0.00033585 0.00091353 0.00029313
0.0013217 0.0019321 -0.0011882 0.0039555 0.061647 -0.25088 0.00020298 -0.0017175
0.0023453 0.00015246 0.00054628 0.0015051
-0.0035609 0.00069598 0.00090256 0.0010934 0.00014626 -0.0016687 0.1116 -0.1663
0.0021796 0.0033806 -0.001431 0.0012182
0.0016018 0.0010433 0.001571 0.00031227 0.0022635 0.00018962 0.0021992 0.003328
0.25302 -0.025971 0.0038492 -0.0016687
-0.00052853 -0.00064542 0.0008471 0.00032306 0.0004853 0.0016033 -0.0013828 0.0013066
0.0038706 -0.0017094 0.27095 0.015222
2000000000 0.12903 -0.19265 -0.0041336 0.00098856 0.0025545 0.0015598 -0.0022479 0.0033215
0.0013156 -8.3503e-05 -0.00057279 0.0004333
-0.0041006 0.0010102 0.25003 0.054149 -0.00089148 0.0057344 0.0014419 0.00028359
0.0010593 -0.0012212 0.0003945 -4.6035e-05
0.0026208 0.0015558 -0.0009061 0.0057309 0.018255 -0.23585 -0.0010003 -0.00089591
0.0016546 -0.0011902 0.0017091 0.00099905
-0.0021435 0.003336 0.0014977 0.0003098 -0.0010359 -0.00089845 0.058919 -0.17746
0.0003 0.0024828 -0.00030339 0.0021387
0.0011754 -3.9173e-05 0.0011371 -0.0012461 0.0015891 -0.0011964 0.00029506 0.0025119
0.24586 -0.060352 0.00057362 -0.0028884
