!Keysight Technologies,M9804A,MY58100912,A.14.10.03
!Date: Thursday, April 27, 2023 10:28:33
!Correction: S11(C  6-Port  ) 
!S12(C  6-Port  ) 
!S13(C  6-Port  ) 
!S14(C  6-Port  ) 
!S15(C  6-Port  ) 
!S16(C  6-Port  ) 
!S21(C  6-Port  ) 
!S22(C  6-Port  ) 
!S23(C  6-Port  ) 
!S24(C  6-Port  ) 
!S25(C  6-Port  ) 
!S26(C  6-Port  ) 
!S31(C  6-Port  ) 
!S32(C  6-Port  ) 
!S33(C  6-Port  ) 
!S34(C  6-Port  ) 
!S35(C  6-Port  ) 
!S36(C  6-Port  ) 
!S41(C  6-Port  ) 
!S42(C  6-Port  ) 
!S43(C  6-Port  ) 
!S44(C  6-Port  ) 
!S45(C  6-Port  ) 
!S46(C  6-Port  ) 
!S51(C  6-Port  ) 
!S52(C  6-Port  ) 
!S53(C  6-Port  ) 
!S54(C  6-Port  ) 
!S55(C  6-Port  ) 
!S56(C  6-Port  ) 
!S61(C  6-Port  ) 
!S62(C  6-Port  ) 
!S63(C  6-Port  ) 
!S64(C  6-Port  ) 
!S65(C  6-Port  ) 
!S66(C  6-Port  ) 
!S6P File: Measurement: :
# Hz S  RI   R 50
500000000 -0.3398 -0.021015 -0.011085 -0.0034796 -0.0079937 0.012463 -0.0034133 0.01217
0.011976 0.0039554 -0.0029786 0.0083332
-0.01106 -0.0034703 -0.41935 -0.039251 0.0061636 -0.01146 0.0014519 0.012275
0.0073962 0.0020865 0.0021719 0.0133
-0.0079774 0.012439 0.0061437 -0.011475 -0.26365 0.22102 0.0070742 0.0036474
-0.00058922 0.0080627 0.0023356 0.011542
-0.0034019 0.012178 0.001466 0.012291 0.0070704 0.0036529 -0.33211 0.059283
-0.020094 -0.0066583 0.014561 0.024124
0.01196 0.0039567 0.0073929 0.0020798 -0.00059938 0.0080548 -0.020094 -0.0066279
-0.23475 -0.16888 -0.025553 0.0041749
-0.0030037 0.0083626 0.0021961 0.013322 0.0023299 0.011561 0.014581 0.024133
-0.025568 0.0041715 -0.28249 -0.088797
560000000 -0.31271 0.13469 -0.026311 -0.060865 0.0013742 0.011626 0.0054932 0.0092072
0.0095314 0.0043325 0.011451 0.0069169
-0.026264 -0.060822 -0.37594 0.11671 -0.042429 -0.035424 0.012941 0.0034934
-0.012561 -0.0037594 0.003433 -0.0015303
0.0013961 0.011617 -0.042509 -0.035369 -0.18108 0.2664 0.00023166 -0.0044995
0.018401 0.0045267 0.0073461 -0.0061557
0.0055298 0.0091722 0.012935 0.0035016 0.00023034 -0.0044993 -0.30571 0.1463
0.00080912 -0.023924 0.0042327 -0.019153
0.0095214 0.004311 -0.012587 -0.0037293 0.018383 0.00451 0.00079974 -0.023934
-0.28788 0.0048024 0.0037867 -0.04704
0.011449 0.0069362 0.0034241 -0.0014815 0.007313 -0.0061561 0.0042312 -0.019144
0.0038093 -0.047002 -0.32846 0.052743
620000000 -0.27162 0.12071 -0.023318 0.0076197 0.0037589 0.0080272 0.0072441 -0.0054124
0.011108 -0.00061677 0.00020558 -0.0029983
-0.023292 0.007602 -0.40147 0.071577 -0.019369 0.00065897 -0.0010788 -0.0020292
0.010293 -0.0063017 0.0014236 -0.0023628
0.0037865 0.0080353 -0.019375 0.00069725 -0.14997 0.27593 -0.00069063 -0.0047119
-0.0038149 -0.002811 0.0085283 -0.0028921
0.0072408 -0.0054662 -0.0010903 -0.002031 -0.00069111 -0.0047299 -0.2631 0.15834
-0.040398 -0.017584 0.012683 0.024088
0.011021 -0.00055453 0.010265 -0.0063398 -0.0038182 -0.0028048 -0.040429 -0.017595
-0.21024 -0.032257 -0.039662 0.014459
0.00020935 -0.0030326 0.0014055 -0.0023737 0.0085418 -0.0028834 0.01268 0.024119
-0.039635 0.014462 -0.25403 0.023759
680000000 -0.22798 0.2031 -0.027455 -0.012124 0.0054282 0.0046818 0.0011588 -0.0070591
-0.0026968 -0.010757 0.0040542 -0.0070825
-0.027431 -0.012122 -0.3848 0.1662 -0.032138 0.00044118 -0.0014339 -0.00039783
-0.0024447 -0.0089455 -0.0013764 -0.0023104
0.0054284 0.0046702 -0.032151 0.00049412 -0.098584 0.29357 -0.0011944 -0.00027534
-0.0014993 0.00017965 -0.0032348 -0.0088954
0.0011137 -0.0070751 -0.0014305 -0.00041681 -0.0011908 -0.00028866 -0.21762 0.20654
-0.026092 -0.0050068 -0.0093631 -0.0087395
-0.0027242 -0.010724 -0.0024793 -0.0089382 -0.001497 0.00017707 -0.026117 -0.0049923
-0.25071 0.064882 -0.0068716 -0.0073818
0.003998 -0.0070972 -0.0013921 -0.0023205 -0.0032323 -0.0088969 -0.0093405 -0.008726
-0.0068529 -0.0074014 -0.25541 0.1197
740000000 -0.18484 0.19777 -0.037105 0.026339 0.012167 -0.0058448 -0.0007132 -0.0041299
-0.0044946 -0.0032586 -0.0060395 0.002802
-0.037083 0.026326 -0.33297 0.1858 -0.033052 0.034988 -0.0011075 -0.0062946
-0.011591 0.0076528 -0.0019739 -0.0050711
0.012148 -0.0058405 -0.033002 0.035046 -0.06506 0.29288 -0.001749 0.0030439
-0.0033841 -0.0045105 -0.0020501 0.0011009
-0.00072166 -0.0041252 -0.001134 -0.0063343 -0.0017414 0.0030505 -0.19927 0.21487
-0.043024 -0.0033436 0.022634 0.012654
-0.0045422 -0.0032525 -0.011581 0.0077306 -0.0034062 -0.0045366 -0.043082 -0.0032978
-0.15816 0.086179 -0.040004 0.0034511
-0.0060429 0.0028361 -0.0020129 -0.0051079 -0.0020229 0.0011266 0.022669 0.012678
-0.04001 0.003391 -0.24291 0.12928
800000000 -0.15059 0.23573 -0.021132 0.017351 0.0046121 -0.010445 -0.004565 -0.0018421
-0.0035228 0.0027456 0.0034599 0.00023947
-0.021122 0.017347 -0.33327 0.25413 -0.0066722 0.033442 -0.0023409 0.0021865
-0.0006345 0.0033319 0.00099343 0.0050903
0.0045886 -0.010437 -0.0066125 0.033464 -0.022383 0.31464 0.00085315 0.0016641
0.00028082 0.0035358 -0.0017999 0.0010768
-0.00457 -0.0018552 -0.0023393 0.0022022 0.00083906 0.0016505 -0.16913 0.24132
-0.026775 0.016592 0.012928 -0.010272
-0.0035095 0.0027641 -0.0006362 0.0033314 0.00027978 0.0035309 -0.026783 0.016668
-0.19558 0.11274 -0.01588 0.019019
0.0034491 0.00024456 0.0010189 0.0051052 -0.0018129 0.0010659 0.012915 -0.010317
-0.015894 0.019014 -0.23056 0.1749
860000000 -0.11598 0.25549 -0.015883 0.030753 -0.0037856 -0.009507 -0.0022474 0.0012514
0.0040951 0.0047794 -0.0029337 -0.0026886
-0.015897 0.030738 -0.28617 0.295 0.0090727 0.033001 0.00017144 0.0024415
0.0043085 0.00056261 0.002845 0.00038824
-0.003806 -0.0094984 0.0091522 0.033001 0.025834 0.32162 -0.00044718 1.5286e-05
0.0024522 -0.0010763 0.0015186 0.0040565
-0.002258 0.0012384 0.00017973 0.0024504 -0.00045249 1.5819e-05 -0.13235 0.25166
-0.015139 0.02076 -0.0056097 -0.0089748
0.0041229 0.0047523 0.0043031 0.00053946 0.0024518 -0.001079 -0.015124 0.020813
-0.14357 0.15972 -0.022453 0.016343
-0.0029355 -0.0026736 0.0028837 0.00036439 0.0015226 0.0040513 -0.0056066 -0.0089766
-0.022436 0.01634 -0.18222 0.2151
920000000 -0.089504 0.27719 0.0062527 0.03666 -0.0092491 -0.0038301 -0.0014428 0.0018081
0.001334 0.0016745 0.0025911 -0.0015628
0.0062251 0.036647 -0.25563 0.31561 0.028074 0.020218 0.0016479 0.0009757
0.0071595 -0.00053412 0.0037765 -0.0027453
-0.0092605 -0.0038152 0.028149 0.020167 0.073173 0.32156 0.0019115 -0.00015729
0.0016498 -0.0004427 0.00093081 -0.00103
-0.0014519 0.0018154 0.0016658 0.00097857 0.0019081 -0.000167 -0.10647 0.26756
-0.0072484 0.031016 0.0025315 -0.0061576
0.0013514 0.0016601 0.007165 -0.00058632 0.0016556 -0.00043778 -0.0071874 0.03105
-0.12877 0.16466 0.00040347 0.025453
0.0025608 -0.0015494 0.00376 -0.0027671 0.000927 -0.0010381 0.0025489 -0.0061793
0.00041695 0.025433 -0.18241 0.23099
980000000 -0.042355 0.29482 0.018491 0.028345 -0.0083933 0.0047197 0.0021575 0.0030857
0.0040127 -0.0019929 -0.0032114 -0.002173
0.018455 0.028332 -0.20378 0.34777 0.032322 0.0032693 0.0021706 -0.00034529
0.0016315 -0.0062675 -0.00061703 -0.0023804
-0.0083873 0.0047285 0.03235 0.0032233 0.11962 0.31348 0.00050814 -0.0013446
0.00013609 -0.0024135 0.0013036 -0.00020476
0.0021634 0.0030801 0.0021756 -0.0003288 0.00050885 -0.0013436 -0.06727 0.27682
0.010886 0.028378 -0.00872 -0.0062738
0.0040264 -0.0020071 0.0016045 -0.0062957 0.00014224 -0.0024049 0.010951 0.028383
-0.098141 0.18854 0.0061512 0.018282
-0.0032418 -0.0021677 -0.00061576 -0.0023873 0.001302 -0.00021353 -0.0087179 -0.0062661
0.0061481 0.018262 -0.1383 0.26942
1040000000 0.0002221 0.3021 0.032847 0.015759 -0.0010756 0.0065911 0.0022864 0.00057113
3.713e-05 -0.003211 -0.00072251 -0.0013566
0.032816 0.015783 -0.16802 0.3609 0.027641 -0.015551 0.0013844 -0.0018085
-0.0022869 -0.0024614 -0.001374 -0.0027719
-0.0010649 0.0065724 0.027622 -0.015619 0.16608 0.29901 -0.00060493 -0.0014568
-0.0015815 -0.00089244 -0.00044746 -0.0010463
0.0022865 0.00056436 0.0013973 -0.0018007 -0.0006046 -0.0014571 -0.039078 0.28581
0.021039 0.015565 -0.0026307 0.0010151
2.3422e-05 -0.003203 -0.0023192 -0.0024866 -0.001584 -0.00089989 0.021086 0.015541
-0.065389 0.19511 0.013875 0.015611
-0.00074553 -0.0013623 -0.0013668 -0.002789 -0.00044937 -0.0010549 -0.0026279 0.0010124
0.013858 0.015604 -0.11326 0.28899
1100000000 0.045791 0.30837 0.034244 -0.0057288 0.0027117 0.0036147 0.0021262 -0.0010094
-0.0021375 -0.0028554 -0.003591 0.00053119
0.03421 -0.005694 -0.12451 0.3772 0.01354 -0.027432 -0.00019794 -0.0017991
-0.0035384 -0.00057623 -0.0033801 -0.00023747
0.002721 0.0035889 0.013478 -0.02749 0.21288 0.27686 -0.0018351 0.00017662
-0.0017747 0.00055605 -0.00093747 -0.00020856
0.0021311 -0.0010075 -0.00020661 -0.0017948 -0.0018425 0.0001735 0.0022782 0.28854
0.024696 0.0022698 -0.0026196 0.00014749
-0.0021433 -0.0028468 -0.0035408 -0.00056968 -0.0017772 0.00055851 0.024725 0.00224
-0.047067 0.20623 0.018073 0.0060685
-0.0036061 0.00054204 -0.0033864 -0.00023058 -0.00092711 -0.00020915 -0.0026189 0.00014204
0.018051 0.0060354 -0.066835 0.3135
1160000000 0.096636 0.30221 0.022049 -0.021298 0.0022718 -0.00039718 -7.8187e-05 -0.002023
-0.0039171 -0.00047196 -0.00063642 0.0038011
0.022045 -0.021252 -0.08035 0.38093 -0.0048364 -0.027907 -0.0015916 -0.0014532
-0.0024862 0.0025155 -0.0013621 0.0016879
0.0022758 -0.00041734 -0.0049208 -0.027889 0.2552 0.2445 -0.00077535 0.0017386
-0.00048086 0.0018649 -0.00084183 9.7371e-05
-7.6512e-05 -0.0020321 -0.001589 -0.0014337 -0.00077696 0.0017354 0.041311 0.28382
0.020018 -0.01253 -0.003106 0.0043978
-0.0039253 -0.00046724 -0.0024902 0.0025165 -0.00047555 0.0018786 0.020016 -0.012564
-0.013645 0.21345 0.016694 -0.0017451
-0.00063717 0.0038107 -0.0013558 0.0016838 -0.00084279 9.5517e-05 -0.00312 0.0043982
0.016629 -0.0017386 -0.019817 0.31416
1220000000 0.14146 0.28941 0.0084289 -0.029338 -0.0015984 -0.00028427 0.00015569 -0.00090129
-0.0023354 0.0022897 0.0012616 0.00193
0.0084361 -0.029286 -0.035996 0.39189 -0.017039 -0.019691 -0.0024195 0.00047336
8.891e-05 0.0029313 -0.0005315 0.0019555
-0.0015976 -0.00028469 -0.017107 -0.019633 0.2938 0.20435 0.00072295 0.0018555
0.00066157 0.0012289 0.00031996 0.00054879
0.00014577 -0.00091222 -0.0024171 0.0004847 0.00071871 0.0018536 0.081628 0.27344
0.0090855 -0.018599 0.0013707 0.0014661
-0.0023379 0.0022983 9.9603e-05 0.0029366 0.00065159 0.0012353 0.0090669 -0.018624
0.010109 0.22013 0.011581 -0.013318
0.0012739 0.0019356 -0.00052442 0.0019641 0.00033006 0.00055396 0.0013595 0.0014786
0.011537 -0.01332 0.013209 0.32647
1280000000 0.19012 0.26576 -0.0090187 -0.026864 -0.0014616 0.0028806 -0.00099788 -0.0020079
-0.00068851 0.0028679 0.0023447 0.00091416
-0.0089851 -0.026831 0.0096159 0.38213 -0.023147 -0.0074642 -0.0010403 0.0013736
0.0017218 0.0016988 0.00066585 0.0018172
-0.0014561 0.002887 -0.023205 -0.0073918 0.32324 0.15917 0.0016402 5.7158e-05
0.001086 0.00027876 0.00020095 0.00020555
-0.00099855 -0.0020025 -0.0010338 0.0013766 0.0016436 5.597e-05 0.11752 0.25447
-0.00072303 -0.019916 -0.00052965 0.0004888
-0.00067641 0.002869 0.0017218 0.0016951 0.0010889 0.00028093 -0.00075696 -0.019934
0.046135 0.22173 0.0011978 -0.014754
0.002349 0.00088735 0.00067671 0.0018078 0.00019886 0.00020622 -0.00053963 0.00050603
0.0011582 -0.014741 0.059277 0.32438
1340000000 0.22654 0.231 -0.017842 -0.017072 0.0013925 0.0042876 -0.0016993 -0.00089953
0.0014322 0.0025221 0.0014969 -0.0014875
-0.017799 -0.017063 0.048953 0.37321 -0.020606 0.0048107 -0.00014658 0.0020152
0.001989 0.00069456 0.0013285 0.00063605
0.0014014 0.0042887 -0.020601 0.0048836 0.34423 0.11129 0.0012964 -0.0010205
0.00063491 -0.00055489 0.00011875 0.00022082
-0.001711 -0.00088894 -0.0001336 0.0020136 0.0013074 -0.0010183 0.14884 0.2327
-0.010066 -0.016554 0.00046492 0.0012147
0.0014499 0.0025176 0.0019895 0.00067297 0.00064058 -0.0005568 -0.010102 -0.016553
0.0756 0.21546 -0.0051784 -0.01281
0.0015054 -0.0014967 0.0013227 0.00063146 0.00012733 0.00022248 0.00047052 0.0012191
-0.0052025 -0.01278 0.097767 0.31708
1400000000 0.25876 0.19162 -0.02248 -0.0058707 0.005297 0.0026489 -0.0021084 0.00055941
0.0022787 0.00081199 0.0001341 -0.0013925
-0.02243 -0.0059002 0.085895 0.35949 -0.013832 0.012278 0.001385 0.0013506
0.0012295 -0.00082827 0.0011298 5.4023e-05
0.0053061 0.0026383 -0.013787 0.012336 0.35696 0.057201 0.00015283 -0.001912
4.6573e-05 -0.0004098 0.00030113 0.00016493
-0.0021051 0.00057007 0.0013997 0.0013386 0.00015227 -0.0019066 0.17718 0.20216
-0.015722 -0.0095053 -0.00043997 0.00051513
0.0022872 0.00080807 0.0012251 -0.00084658 5.0836e-05 -0.00041037 -0.015743 -0.0094842
0.10771 0.20915 -0.010875 -0.0075395
0.00012807 -0.0013979 0.0011248 4.3857e-05 0.00030009 0.0001577 -0.00042844 0.00052589
-0.010873 -0.0075107 0.14098 0.30301
1460000000 0.28022 0.14698 -0.019082 0.0054222 0.0054088 -0.0022454 -0.001576 0.0017078
0.0019288 -0.0005433 -0.00041751 -0.00084302
-0.01906 0.0053997 0.11973 0.33721 -0.0055585 0.014732 0.0018075 0.00014235
0.00079169 -0.0013148 0.0011047 -0.00058185
0.0054042 -0.0022648 -0.0055054 0.014757 0.36171 0.0026422 -0.0015198 -0.0013993
0.00015233 -0.00016333 0.0005649 -0.00030643
-0.001573 0.00171 0.0018125 0.00014663 -0.0015093 -0.001399 0.20111 0.172
-0.016739 -0.002499 -0.00026472 0.002266
0.0019195 -0.00054788 0.00078513 -0.0013312 0.00015355 -0.00016949 -0.016757 -0.0024638
0.13576 0.19326 -0.011795 -0.001734
-0.00041272 -0.00084638 0.0010986 -0.00057642 0.00057232 -0.00030322 -0.0002604 0.0022685
-0.011785 -0.0017143 0.17287 0.28041
1520000000 0.29158 0.10437 -0.013274 0.010256 0.0028776 -0.004196 0.00013559 0.0026026
0.0019978 -0.0016362 -0.001127 -7.9152e-05
-0.013279 0.010217 0.15314 0.3219 0.0016137 0.012493 0.0016888 -0.00090138
-4.7433e-05 -0.0011187 0.00025985 -0.00089843
0.0028639 -0.0042055 0.0016698 0.012504 0.35433 -0.053717 -0.0014848 -0.00027977
0.00051657 -0.00093565 -2.2681e-05 -8.1778e-05
0.00015168 0.0025967 0.0016777 -0.00090933 -0.0014794 -0.00027867 0.22241 0.1339
-0.015681 0.0035039 0.0020506 0.0018924
0.0019935 -0.001649 -5.1071e-05 -0.0011121 0.00051499 -0.00093883 -0.015685 0.0035426
0.16302 0.17774 -0.01124 0.0026124
-0.0011286 -7.0252e-05 0.00026404 -0.00090121 -1.8471e-05 -7.6482e-05 0.0020529 0.0018813
-0.011223 0.0026348 0.20504 0.25754
1580000000 0.29934 0.057661 -0.0070555 0.0127 -0.0011904 -0.0046688 0.0015597 0.001863
-0.00014812 -0.0020897 -0.00023785 0.00041623
-0.0070787 0.012673 0.18005 0.2964 0.0049812 0.0078455 0.00039187 -0.0017236
-0.00060532 -0.0010238 -0.00020509 -0.00077685
-0.0011998 -0.0046598 0.0050072 0.0078218 0.33361 -0.11153 -0.0016543 0.0010507
-0.00029759 -0.0011359 0.00024351 -0.00059258
0.001554 0.0018538 0.00038107 -0.0017308 -0.0016539 0.0010498 0.23411 0.094688
-0.012045 0.0085992 0.0025427 0.00027335
-0.00015251 -0.002093 -0.00061382 -0.0010258 -0.00030186 -0.0011349 -0.012036 0.0086422
0.18604 0.15812 -0.0087586 0.0076502
-0.00024868 0.00042311 -0.00021271 -0.00076977 0.00023922 -0.00059138 0.0025264 0.00026674
-0.008726 0.0076506 0.23483 0.2291
1640000000 0.3001 0.016068 -0.00094722 0.011332 -0.0028378 -0.0024369 0.0027175 0.00086712
-0.00071619 -0.0015939 -0.00024115 0.00061483
-0.00098751 0.011323 0.20911 0.27097 0.0055702 0.0034521 -0.00089315 -0.0016444
-0.0010645 -0.00030541 -0.00049523 -0.00061023
-0.002837 -0.0024297 0.0055904 0.0034282 0.30403 -0.15981 -0.00059762 0.0016488
-0.0011895 -0.00089852 -0.00010493 -0.00020284
0.0027205 0.00085032 -0.00090994 -0.0016479 -0.00060061 0.0016457 0.24456 0.047339
-0.0075195 0.010176 0.0024959 -0.0012353
-0.00073501 -0.0015923 -0.0010737 -0.00029073 -0.0011933 -0.00089024 -0.0075013 0.010204
0.20708 0.13281 -0.0040543 0.009281
-0.00023448 0.00060417 -0.00049937 -0.00060511 -0.00010787 -0.00020312 0.0024985 -0.0012347
-0.0040214 0.0092618 0.25894 0.19679
1700000000 0.2915 -0.029515 0.0020507 0.0085774 -0.0034296 0.00035412 0.0029127 -0.0013901
-0.0020303 -0.00073701 0.00062362 0.00036822
0.0020233 0.008594 0.22698 0.239 0.0037543 0.00067033 -0.0015107 -0.00045522
-0.00076248 0.00023368 -0.00090398 -0.00039845
-0.0034258 0.00036391 0.0037576 0.00065374 0.2611 -0.19978 0.00080679 0.0014712
-0.0019115 -5.2612e-05 -0.0006404 -0.00070927
0.0029039 -0.0013964 -0.0015171 -0.00045195 0.00081296 0.0014699 0.24079 -0.00086659
-0.004124 0.010849 0.0013758 -0.0022953
-0.0020235 -0.00072747 -0.00076556 0.0002368 -0.0019092 -5.4204e-05 -0.0041119 0.010872
0.22304 0.11136 0.00036728 0.0095158
0.00062389 0.00034968 -0.00090711 -0.00038868 -0.0006452 -0.00070248 0.0013859 -0.0023167
0.00038573 0.0094955 0.27383 0.16141
1760000000 0.27784 -0.077766 0.0039551 0.0054615 -0.0020989 0.00095851 0.00098969 -0.0034928
-0.0014833 0.00067367 0.00044256 -0.00045156
0.0039593 0.005497 0.25211 0.19839 0.0016216 -0.0011552 -0.001147 0.00032457
-0.00091255 0.00094999 -0.00062136 0.00049092
-0.002089 0.00096498 0.001615 -0.0011709 0.21168 -0.23339 0.0014488 0.00071054
-0.0010715 0.0016406 -0.0014044 -0.00022079
0.00097013 -0.0034811 -0.0011422 0.00034103 0.0014516 0.00071102 0.2312 -0.050414
-0.00038321 0.010003 -0.00040314 -0.0025733
-0.0014865 0.00068328 -0.00091332 0.0009613 -0.0010654 0.0016412 -0.00036718 0.010008
0.23577 0.075655 0.0041416 0.006827
0.00043577 -0.0004521 -0.00061587 0.00049838 -0.0014082 -0.00022065 -0.00040992 -0.0025744
0.0041398 0.0068102 0.28441 0.12276
1820000000 0.25207 -0.11428 0.0039329 0.0022314 0.00010738 0.0024106 -0.0012222 -0.0028538
-0.0011129 0.001089 2.4085e-05 -8.2282e-05
0.0039507 0.0022436 0.26147 0.16825 -0.00015587 -2.2247e-05 -0.0011132 0.0010201
0.00011369 0.0012841 -0.00048257 0.00061365
0.00011528 0.002406 -0.00015339 -2.3517e-05 0.1613 -0.2481 0.0012828 4.458e-05
6.6846e-05 0.0023105 -0.0013697 0.00064326
-0.0012231 -0.0028385 -0.0011089 0.0010383 0.0012855 4.5967e-05 0.20217 -0.095797
0.0016548 0.0079941 -0.0017557 -0.0014148
-0.001113 0.0010922 0.00011658 0.0012774 7.356e-05 0.0023174 0.0016786 0.0079967
0.25138 0.046178 0.0048963 0.0033514
2.8835e-05 -7.3636e-05 -0.00048401 0.00062004 -0.0013589 0.00062524 -0.0017607 -0.00141
0.00488 0.0033386 0.28533 0.085639
1880000000 0.21573 -0.154 0.0016498 0.00021506 -0.0003132 0.0018994 -0.0029465 -0.0019001
-0.00013457 0.0018055 0.00026246 -0.00050559
0.0016669 0.00021216 0.26514 0.12117 -0.0022682 0.001614 -3.3465e-05 0.0015846
0.00067253 0.0010372 0.00024633 0.00096168
-0.00030966 0.0018983 -0.0022757 0.0016245 0.10823 -0.25834 0.001362 -0.00097013
0.0016789 0.0017023 -0.00066616 0.0014406
-0.0029318 -0.0018815 -2.9409e-05 0.0015856 0.0013603 -0.00095947 0.163 -0.13594
0.002797 0.0054959 -0.0022997 0.0002882
-0.00011931 0.0018095 0.00068033 0.0010326 0.0016873 0.0017089 0.0028066 0.0055024
0.25269 0.012958 0.0046727 0.0012328
0.000272 -0.00051035 0.00025054 0.00096934 -0.00066744 0.0014379 -0.0023119 0.00028146
0.0046426 0.0012245 0.28343 0.051182
1940000000 0.17559 -0.17888 -0.00046997 -0.0011165 0.001392 0.0019345 -0.0035675 0.00075094
0.0015913 0.0010558 -0.0005603 -0.00069904
-0.00045319 -0.0011393 0.26459 0.0897 -0.0011709 0.0039139 0.00090829 0.0010815
0.0016402 0.00028936 0.00087788 0.00026957
0.0014083 0.0019227 -0.0011543 0.0039162 0.061727 -0.25082 0.0001695 -0.001701
0.0022319 0.00017146 0.00043401 0.0015476
-0.0035748 0.00074861 0.00091828 0.0010804 0.00016832 -0.001717 0.11158 -0.16616
0.0021145 0.0036178 -0.0012952 0.0012753
0.0015949 0.0010402 0.0016373 0.00028309 0.0022504 0.00016275 0.0021133 0.0036245
0.25292 -0.026043 0.0036757 -0.0017519
-0.00058639 -0.00070729 0.00088123 0.0002511 0.00043028 0.0015346 -0.0013191 0.0012923
0.0036574 -0.0017708 0.2709 0.014816
2000000000 0.12906 -0.19276 -0.0041515 0.001052 0.0025975 0.0015246 -0.0022488 0.0033526
0.0012979 -5.5154e-05 -0.00060195 0.00045001
-0.0041653 0.0010367 0.25006 0.054144 -0.00087754 0.0057249 0.0014052 0.00028795
0.001069 -0.0012684 0.00041314 -8.2645e-06
0.0026004 0.0015134 -0.00085612 0.0057225 0.018288 -0.23592 -0.0010533 -0.00086407
0.0016363 -0.0011599 0.0017074 0.00097544
-0.0022462 0.0033463 0.0014044 0.00028156 -0.0010576 -0.00086428 0.058815 -0.17735
0.0002766 0.0027111 -0.00015984 0.0021015
0.001292 -8.0545e-05 0.0010771 -0.0012895 0.0016335 -0.0011617 0.00028476 0.0027126
0.24573 -0.060351 0.00036071 -0.0028305
