!Keysight Technologies,M9804A,MY58100912,A.14.10.03
!Date: Thursday, April 27, 2023 10:28:33
!Correction: S11(C  6-Port  ) 
!S12(C  6-Port  ) 
!S13(C  6-Port  ) 
!S14(C  6-Port  ) 
!S15(C  6-Port  ) 
!S16(C  6-Port  ) 
!S21(C  6-Port  ) 
!S22(C  6-Port  ) 
!S23(C  6-Port  ) 
!S24(C  6-Port  ) 
!S25(C  6-Port  ) 
!S26(C  6-Port  ) 
!S31(C  6-Port  ) 
!S32(C  6-Port  ) 
!S33(C  6-Port  ) 
!S34(C  6-Port  ) 
!S35(C  6-Port  ) 
!S36(C  6-Port  ) 
!S41(C  6-Port  ) 
!S42(C  6-Port  ) 
!S43(C  6-Port  ) 
!S44(C  6-Port  ) 
!S45(C  6-Port  ) 
!S46(C  6-Port  ) 
!S51(C  6-Port  ) 
!S52(C  6-Port  ) 
!S53(C  6-Port  ) 
!S54(C  6-Port  ) 
!S55(C  6-Port  ) 
!S56(C  6-Port  ) 
!S61(C  6-Port  ) 
!S62(C  6-Port  ) 
!S63(C  6-Port  ) 
!S64(C  6-Port  ) 
!S65(C  6-Port  ) 
!S66(C  6-Port  ) 
!S6P File: Measurement: :
# Hz S  RI   R 50
500000000 -0.33971 -0.021495 -0.010897 -0.0037973 -0.0078383 0.012295 -0.0036599 0.012054
0.011838 0.0040929 -0.0034705 0.008061
-0.010884 -0.0037874 -0.41923 -0.039393 0.0061474 -0.011592 0.0013753 0.012231
0.0074893 0.0021298 0.0020942 0.013338
-0.0078175 0.012329 0.0061461 -0.011634 -0.26358 0.22102 0.006749 0.0036566
-0.0006006 0.0077768 0.0020293 0.011561
-0.003661 0.011985 0.0013908 0.012188 0.0067588 0.0036147 -0.33188 0.059121
-0.020023 -0.0064479 0.014772 0.02406
0.011943 0.0040306 0.0075462 0.0022191 -0.00049923 0.0078239 -0.020053 -0.0064122
-0.23505 -0.16843 -0.025675 0.004277
-0.003419 0.0080592 0.0020587 0.013293 0.0020209 0.01151 0.014705 0.024054
-0.025683 0.0042633 -0.28267 -0.088778
560000000 -0.31289 0.13452 -0.026481 -0.060474 0.0012364 0.011291 0.0055198 0.0091865
0.0095078 0.0042077 0.011078 0.0064137
-0.026447 -0.060441 -0.37593 0.11655 -0.042542 -0.03516 0.012722 0.0034591
-0.012116 -0.0037734 0.0026846 -0.0014153
0.0013114 0.011259 -0.04261 -0.035192 -0.18118 0.26571 0.00047183 -0.0044454
0.017867 0.0046058 0.0074257 -0.006856
0.005568 0.0092695 0.012734 0.0034586 0.00041994 -0.0043861 -0.30594 0.14643
0.0012746 -0.024116 0.0040613 -0.018933
0.0096508 0.0041607 -0.012459 -0.0036123 0.017886 0.0041841 0.0013689 -0.024033
-0.28808 0.0047027 0.0037714 -0.047057
0.011375 0.0066442 0.0028297 -0.0016931 0.0077658 -0.0066462 0.0039492 -0.018872
0.0038316 -0.047165 -0.32844 0.052104
620000000 -0.27139 0.12085 -0.023342 0.0076525 0.0036814 0.0080254 0.007099 -0.0055314
0.011019 -0.00083739 0.0001204 -0.002946
-0.023345 0.0076681 -0.40151 0.071541 -0.019407 0.00065555 -0.00099158 -0.0020799
0.010148 -0.0063502 0.0014894 -0.0026441
0.0036733 0.0080199 -0.019403 0.00070325 -0.14993 0.27597 -0.000577 -0.0046081
-0.0037972 -0.0030182 0.0084852 -0.0026495
0.0071197 -0.0056769 -0.00098494 -0.0020144 -0.00061059 -0.0046317 -0.26323 0.15844
-0.039943 -0.017703 0.012269 0.024261
0.011043 -0.00062943 0.01026 -0.0064305 -0.0037841 -0.0029351 -0.039975 -0.017663
-0.21051 -0.03243 -0.039107 0.014515
6.5302e-05 -0.0031166 0.0014735 -0.0024105 0.008349 -0.002747 0.0123 0.024208
-0.039086 0.014533 -0.25526 0.023754
680000000 -0.22813 0.20309 -0.027465 -0.012128 0.0055023 0.0046434 0.0013476 -0.0069606
-0.0027527 -0.010724 0.0043842 -0.0070716
-0.02745 -0.012117 -0.38475 0.16624 -0.032125 0.00042197 -0.0014442 -0.00047058
-0.00247 -0.0088427 -0.0012929 -0.0023557
0.0054713 0.004648 -0.032135 0.00047991 -0.098559 0.29359 -0.001194 -0.00032952
-0.0015039 0.0002165 -0.0032592 -0.0091049
0.001324 -0.0070067 -0.0014797 -0.00044938 -0.0011925 -0.00033819 -0.21778 0.20681
-0.025867 -0.0051196 -0.0091655 -0.0088799
-0.0027977 -0.010726 -0.0025071 -0.0088301 -0.0015027 0.00021562 -0.0259 -0.0050682
-0.25069 0.064761 -0.0068441 -0.007471
0.0040166 -0.0072971 -0.0014229 -0.0024228 -0.0032597 -0.0090788 -0.0091264 -0.0088108
-0.0068353 -0.0074322 -0.25461 0.11967
740000000 -0.18499 0.19773 -0.037061 0.026421 0.012141 -0.0057708 -0.00073908 -0.0041642
-0.0045527 -0.0029827 -0.0059094 0.0026268
-0.037044 0.026377 -0.33308 0.18562 -0.033008 0.034964 -0.0010812 -0.0064366
-0.011567 0.0078576 -0.0022547 -0.0053417
0.01216 -0.0058088 -0.032932 0.035009 -0.065067 0.2929 -0.0017589 0.0031526
-0.0033835 -0.0045682 -0.0019202 0.0012059
-0.00080354 -0.0041247 -0.0011238 -0.0064339 -0.0017776 0.0031235 -0.19911 0.2149
-0.043066 -0.0035073 0.022723 0.012761
-0.0045205 -0.0029508 -0.011738 0.007949 -0.0034061 -0.0046193 -0.043102 -0.003453
-0.15812 0.086216 -0.039857 0.0032725
-0.0060793 0.0028305 -0.0021824 -0.0053897 -0.0019108 0.0011844 0.022699 0.012727
-0.039799 0.0032075 -0.24305 0.1296
800000000 -0.15066 0.2357 -0.02111 0.017412 0.0045949 -0.010448 -0.004547 -0.0018887
-0.0034441 0.0027488 0.0034741 0.00043057
-0.02112 0.017386 -0.33325 0.25418 -0.0066659 0.033429 -0.0023256 0.0021639
-0.00057964 0.0032897 0.0010894 0.0050956
0.0045802 -0.010435 -0.0065973 0.033456 -0.022358 0.31464 0.00085865 0.0016666
0.00030334 0.0034754 -0.0018179 0.0011148
-0.0045738 -0.0018893 -0.0023529 0.0021709 0.00084804 0.0016553 -0.16906 0.24135
-0.026874 0.016575 0.012968 -0.01016
-0.0034724 0.0028922 -0.00058046 0.0033502 0.00031121 0.0035049 -0.026879 0.016661
-0.19517 0.113 -0.015917 0.018855
0.0034061 0.00040535 0.0010621 0.0051153 -0.0018278 0.0011113 0.012954 -0.010156
-0.015913 0.018848 -0.23057 0.17519
860000000 -0.11591 0.25565 -0.015802 0.030853 -0.0037436 -0.0094848 -0.0021927 0.0013037
0.0043914 0.0047489 -0.0028893 -0.0024876
-0.015806 0.030814 -0.28596 0.295 0.0091159 0.033 0.00025778 0.002504
0.0044374 0.00043626 0.0030455 0.00062868
-0.0037707 -0.0094705 0.0091741 0.03299 0.025828 0.3216 -0.00042239 2.7243e-05
0.0024611 -0.0011086 0.0015764 0.0041067
-0.0022624 0.00127 0.00019296 0.0025473 -0.0004414 3.6433e-05 -0.13242 0.25173
-0.015114 0.020791 -0.0055538 -0.0088434
0.0042854 0.0048867 0.0044452 0.00051413 0.0024503 -0.0010963 -0.015115 0.020832
-0.14331 0.15963 -0.022643 0.016649
-0.0028709 -0.0026139 0.0029351 0.00059229 0.0015735 0.0040926 -0.0055549 -0.0088408
-0.022646 0.016613 -0.18185 0.21513
920000000 -0.08937 0.27724 0.0063228 0.036578 -0.0092514 -0.0038398 -0.001397 0.0018591
0.0014006 0.0017896 0.002694 -0.0015835
0.0062964 0.036544 -0.25562 0.31558 0.028072 0.020233 0.0016641 0.00094429
0.0071196 -0.00052012 0.0036884 -0.0029032
-0.0092436 -0.0038107 0.028131 0.020163 0.073185 0.3216 0.0019215 -0.00015704
0.0016345 -0.00040166 0.00097865 -0.0010625
-0.0014442 0.0018498 0.0016803 0.0009519 0.0019201 -0.00016419 -0.10644 0.26757
-0.007333 0.031021 0.0026014 -0.0061587
0.0013585 0.0017904 0.0071668 -0.00058202 0.0016172 -0.00040556 -0.0072785 0.031065
-0.12878 0.16484 0.00023274 0.025365
0.0026319 -0.001595 0.0037233 -0.0029289 0.00096797 -0.0010831 0.0025934 -0.0061836
0.00020582 0.02536 -0.18233 0.23083
980000000 -0.042365 0.29486 0.018501 0.028321 -0.0084086 0.0047176 0.0021193 0.003067
0.0039635 -0.0019126 -0.003368 -0.0022259
0.018477 0.028277 -0.2037 0.34773 0.032311 0.0032854 0.0021525 -0.00030823
0.0014812 -0.0062355 -0.00061658 -0.0024134
-0.0083951 0.0047345 0.03234 0.0032001 0.11962 0.31348 0.00049938 -0.0013325
0.00011369 -0.0023821 0.0013171 -0.00024372
0.0021583 0.003033 0.0021468 -0.00032046 0.00050656 -0.0013421 -0.067199 0.2768
0.010814 0.02841 -0.0086067 -0.0063755
0.003997 -0.0019527 0.0014967 -0.0062507 0.00012596 -0.0023776 0.010864 0.028407
-0.098032 0.18857 0.0060769 0.018252
-0.0032874 -0.0023085 -0.00060403 -0.0024254 0.0013278 -0.00026714 -0.0086163 -0.0063608
0.0060447 0.018241 -0.13793 0.26935
1040000000 0.00027548 0.30209 0.032812 0.015702 -0.0011043 0.0065477 0.00224 0.00059137
0.00011881 -0.003185 -0.00073806 -0.0014237
0.03275 0.015676 -0.16801 0.36083 0.027648 -0.015528 0.0014374 -0.0018358
-0.0022704 -0.0024445 -0.0012972 -0.0028827
-0.0010903 0.0065568 0.027618 -0.015632 0.16611 0.29904 -0.00061831 -0.0014739
-0.0015022 -0.0009179 -0.00045188 -0.0011109
0.0022538 0.00056854 0.0014344 -0.0018285 -0.00061775 -0.0014656 -0.039019 0.28574
0.020983 0.015507 -0.0024935 0.0009577
9.0115e-05 -0.003193 -0.0022551 -0.0024275 -0.0015033 -0.00088705 0.021062 0.015499
-0.065453 0.19482 0.013803 0.015762
-0.00072131 -0.0014589 -0.0013 -0.0028245 -0.00045338 -0.0010999 -0.0024885 0.0010011
0.013806 0.015773 -0.11299 0.28899
1100000000 0.045822 0.30839 0.034219 -0.0057263 0.0026895 0.0036236 0.0021351 -0.0010109
-0.0021117 -0.0028056 -0.0035883 0.00051732
0.034173 -0.0057134 -0.1245 0.37719 0.013529 -0.027434 -0.00017396 -0.0018
-0.0035268 -0.00052251 -0.0033361 -0.000264
0.0026932 0.0036041 0.013471 -0.027494 0.21289 0.27688 -0.0018447 0.00017671
-0.001788 0.0005766 -0.00092563 -0.00020853
0.002131 -0.0010038 -0.00018497 -0.0017945 -0.0018454 0.00017563 0.0022779 0.28854
0.024667 0.0022815 -0.0025878 0.00021145
-0.0021398 -0.0028133 -0.0035377 -0.00053858 -0.0017826 0.00056089 0.024685 0.0022365
-0.047077 0.20617 0.017944 0.0061365
-0.0035699 0.00054799 -0.0033093 -0.00019387 -0.0009473 -0.00022774 -0.0026046 0.00017163
0.017934 0.0061362 -0.066715 0.31369
1160000000 0.096694 0.30217 0.022032 -0.021342 0.00228 -0.00040187 -6.5782e-05 -0.0020411
-0.0038223 -0.0005276 -0.00065034 0.0038459
0.02202 -0.021313 -0.080304 0.38087 -0.0048294 -0.027884 -0.0015879 -0.0014775
-0.002538 0.0024913 -0.0013223 0.0016399
0.0022679 -0.000403 -0.0049192 -0.027891 0.25524 0.24448 -0.00078207 0.0017215
-0.00049478 0.0018543 -0.0008021 0.00012467
-5.8836e-05 -0.002022 -0.0015906 -0.0014642 -0.0007826 0.0017233 0.04133 0.28381
0.020001 -0.012503 -0.0030962 0.0044264
-0.0038289 -0.00044857 -0.0024975 0.0025097 -0.00050406 0.0018544 0.019987 -0.012535
-0.013628 0.21337 0.016743 -0.0016384
-0.00068296 0.0037902 -0.001292 0.001684 -0.0008225 0.00012707 -0.0031153 0.0044232
0.016731 -0.0016622 -0.019663 0.31418
1220000000 0.14147 0.28933 0.00841 -0.029323 -0.0016025 -0.00029985 0.00014873 -0.00095015
-0.0023491 0.0022866 0.0012751 0.0019017
0.008428 -0.029297 -0.036011 0.39185 -0.017056 -0.019685 -0.0024161 0.00046718
8.9321e-05 0.0029159 -0.00053362 0.001966
-0.00159 -0.00029483 -0.017113 -0.019637 0.29383 0.20434 0.00073017 0.0018481
0.0006581 0.0012532 0.00031082 0.00057081
0.0001529 -0.00095936 -0.0024179 0.00047439 0.00073867 0.0018539 0.081596 0.27338
0.0090929 -0.018548 0.0013533 0.0014627
-0.0023504 0.0022904 0.00012796 0.0029125 0.00065498 0.0012354 0.0090591 -0.018585
0.010064 0.22021 0.011567 -0.013229
0.0012839 0.0018761 -0.0005173 0.0019647 0.00031886 0.00054971 0.0013694 0.0014649
0.011571 -0.013229 0.013264 0.32634
1280000000 0.19014 0.26573 -0.009028 -0.026863 -0.0014659 0.0028975 -0.00097975 -0.0019783
-0.00066548 0.0028601 0.0023677 0.0009662
-0.009006 -0.026832 0.0096203 0.3821 -0.023164 -0.007477 -0.0010533 0.0013823
0.0017044 0.0016818 0.0006437 0.001808
-0.0014615 0.0029055 -0.023202 -0.0074027 0.32327 0.15916 0.0016274 3.3428e-05
0.0010754 0.00025981 0.00022624 0.00017611
-0.00099768 -0.001993 -0.001027 0.001384 0.0016228 2.9572e-05 0.11743 0.25449
-0.00073039 -0.019836 -0.00053766 0.00044158
-0.00066416 0.0028718 0.001723 0.0016762 0.0010776 0.00026144 -0.00077331 -0.019856
0.046046 0.2217 0.0011755 -0.014708
0.0023648 0.00092129 0.00065414 0.0018164 0.00022061 0.00017153 -0.0005103 0.00045026
0.0011897 -0.014704 0.05944 0.32433
1340000000 0.22653 0.23097 -0.017844 -0.017052 0.0013947 0.0042923 -0.0017109 -0.00089284
0.0014223 0.0025066 0.0014979 -0.0014731
-0.017818 -0.01705 0.048936 0.37319 -0.020614 0.0048116 -0.00013555 0.0020201
0.0019812 0.00066439 0.0012784 0.00064823
0.0014075 0.0042853 -0.020602 0.0048898 0.34424 0.11127 0.0013044 -0.0010247
0.00065225 -0.00052653 8.3074e-05 0.00020461
-0.0017078 -0.00088039 -0.00012852 0.0020268 0.0013112 -0.0010113 0.14881 0.23265
-0.010027 -0.016502 0.00049321 0.0011563
0.0014624 0.0025075 0.0019963 0.00064746 0.00064495 -0.00052422 -0.01007 -0.016484
0.075535 0.21549 -0.0051831 -0.012774
0.0015204 -0.0014693 0.0013016 0.00066265 0.00010462 0.00021623 0.00047877 0.0011856
-0.005163 -0.012778 0.097868 0.31691
1400000000 0.2587 0.19158 -0.022465 -0.0058825 0.0053109 0.0026445 -0.0021088 0.00056166
0.0022801 0.00081599 9.4614e-05 -0.0014058
-0.022439 -0.0058939 0.08589 0.35948 -0.013837 0.012281 0.0014056 0.00136
0.001228 -0.00084676 0.0011071 3.5439e-05
0.0053083 0.0026158 -0.013805 0.012346 0.35696 0.057199 0.00015759 -0.0019077
7.997e-05 -0.00041931 0.00029963 0.00014526
-0.0021117 0.00057094 0.0013935 0.0013538 0.00015788 -0.0019041 0.17713 0.20211
-0.01567 -0.0094873 -0.00040647 0.00048856
0.0022935 0.00080966 0.0012239 -0.00085109 7.988e-05 -0.00040187 -0.015706 -0.0094578
0.10768 0.20924 -0.010792 -0.0075298
0.00010136 -0.0013715 0.0011322 5.4523e-05 0.0003187 0.0001705 -0.00041875 0.00049882
-0.01078 -0.0075267 0.14107 0.30299
1460000000 0.28015 0.14702 -0.019086 0.005444 0.0053897 -0.0022587 -0.0015569 0.0016753
0.0019152 -0.00053624 -0.0003479 -0.00086654
-0.019072 0.0054284 0.11971 0.33722 -0.0055507 0.014732 0.0018356 0.0001303
0.00077344 -0.0013248 0.0010968 -0.00059577
0.0053921 -0.0022675 -0.0054919 0.014757 0.36169 0.0026346 -0.0015136 -0.0013787
0.00014101 -0.00016067 0.00056498 -0.00028554
-0.0015533 0.0016931 0.0018113 0.00013894 -0.0015088 -0.0013727 0.20115 0.172
-0.016679 -0.0025102 -0.00024498 0.0022914
0.0018948 -0.00057514 0.00077049 -0.0013199 0.00014958 -0.00016881 -0.016689 -0.0024647
0.13578 0.19329 -0.01175 -0.0017191
-0.00035288 -0.00081205 0.0011146 -0.00055491 0.00057546 -0.00027612 -0.00028159 0.0023113
-0.011753 -0.0017054 0.17296 0.28043
1520000000 0.29155 0.1044 -0.013272 0.010264 0.0028832 -0.0042079 0.00017053 0.0025777
0.0020006 -0.0016172 -0.0011051 -0.00011448
-0.01327 0.010244 0.15314 0.32192 0.0016232 0.012514 0.0017023 -0.00091606
-5.4387e-05 -0.0011075 0.00028153 -0.00093741
0.0028617 -0.0042163 0.001671 0.012509 0.35433 -0.053711 -0.0014784 -0.00029764
0.00050697 -0.00094498 -5.302e-05 -7.659e-05
0.00015083 0.0026046 0.001688 -0.00090163 -0.0014685 -0.00028672 0.2224 0.13392
-0.015621 0.0034572 0.0020368 0.0018839
0.0019986 -0.0016436 -5.5257e-05 -0.0011156 0.00050486 -0.00095797 -0.015634 0.003502
0.16304 0.17775 -0.011236 0.0026689
-0.0011362 -6.7783e-05 0.0002614 -0.0009041 -1.9947e-05 -8.3254e-05 0.0020232 0.0018756
-0.01122 0.0026673 0.20505 0.25752
1580000000 0.29941 0.0577 -0.0070474 0.012709 -0.0011982 -0.0046737 0.0015612 0.0018531
-0.00012715 -0.0020899 -0.00024387 0.00038691
-0.0070492 0.012699 0.18004 0.29642 0.0049744 0.0078247 0.0004208 -0.0017335
-0.00059589 -0.0010185 -0.0001738 -0.00077799
-0.0011939 -0.0046589 0.0050163 0.0078066 0.3336 -0.11156 -0.0016466 0.0010525
-0.00026223 -0.0011383 0.00024351 -0.00058807
0.0015469 0.0018598 0.00038987 -0.0017273 -0.0016582 0.0010446 0.23412 0.094714
-0.012053 0.0085455 0.0024775 0.00031004
-0.00013459 -0.0020771 -0.00059905 -0.0010234 -0.00024704 -0.0011468 -0.012042 0.0085928
0.18608 0.15817 -0.0087823 0.0076306
-0.00028282 0.00039165 -0.00021031 -0.00077527 0.00018691 -0.00059987 0.0024779 0.00029514
-0.0087788 0.0076318 0.23478 0.229
1640000000 0.30017 0.016091 -0.00092672 0.011346 -0.0028267 -0.0024525 0.0027199 0.00086488
-0.00072081 -0.0016018 -0.00023698 0.000644
-0.00093243 0.011342 0.20911 0.27098 0.0055671 0.0034351 -0.00090592 -0.0016494
-0.0010641 -0.00030675 -0.00049852 -0.00062433
-0.0028328 -0.0024324 0.005582 0.0034046 0.30406 -0.15983 -0.00058323 0.0016676
-0.0012295 -0.00090701 -0.00012925 -0.00023043
0.002721 0.00083199 -0.00091651 -0.0016531 -0.00060452 0.0016688 0.24459 0.04731
-0.0075434 0.010137 0.0024939 -0.0012419
-0.00073891 -0.0016171 -0.0010721 -0.0002934 -0.0011963 -0.00090486 -0.0075185 0.010165
0.20718 0.13287 -0.0040249 0.0092473
-0.00024434 0.00059161 -0.00051833 -0.00062269 -0.0001521 -0.00020175 0.0025239 -0.0012596
-0.0040239 0.0092392 0.25898 0.19679
1700000000 0.29159 -0.029543 0.0020707 0.0085941 -0.0034279 0.00037349 0.0029202 -0.001355
-0.002017 -0.00073836 0.00062742 0.00037516
0.0020726 0.0085955 0.22697 0.23901 0.0037502 0.00067199 -0.0015043 -0.00045279
-0.00075965 0.00022655 -0.00091917 -0.00039989
-0.0034268 0.00039054 0.0037612 0.00065154 0.26115 -0.19976 0.00081985 0.0014935
-0.0019199 -4.5958e-05 -0.00064042 -0.00068534
0.0029006 -0.0013728 -0.0015061 -0.00044368 0.00082759 0.0014929 0.24085 -0.00083904
-0.0041508 0.010823 0.0014359 -0.0022949
-0.0020101 -0.0007286 -0.00074593 0.00023581 -0.0018855 -3.8012e-05 -0.004142 0.010847
0.22312 0.1114 0.00042624 0.009514
0.00064852 0.00034688 -0.00088955 -0.00039883 -0.00059747 -0.00071546 0.0014081 -0.0022878
0.00041595 0.0095034 0.27389 0.16135
1760000000 0.27788 -0.077859 0.0039808 0.0054648 -0.0020724 0.00094078 0.00096121 -0.0034966
-0.0015023 0.00064954 0.00039443 -0.00046092
0.0039776 0.005468 0.25211 0.19841 0.0016397 -0.0011621 -0.0011674 0.00031447
-0.0009152 0.00092666 -0.00066154 0.00048724
-0.0020661 0.00097087 0.0016274 -0.00116 0.21166 -0.23342 0.0014255 0.00073038
-0.0010817 0.0016409 -0.0014207 -0.0001936
0.00097766 -0.0035243 -0.0011442 0.00031323 0.0014027 0.00070991 0.23122 -0.050414
-0.00044271 0.010006 -0.00037254 -0.0025581
-0.0014882 0.00066577 -0.00090324 0.00094264 -0.0010612 0.0016312 -0.00041934 0.010013
0.23589 0.075676 0.0041455 0.0068316
0.00045958 -0.00046805 -0.00060827 0.00050251 -0.0014095 -0.00020214 -0.00038345 -0.0025619
0.0041386 0.0068234 0.28449 0.12278
1820000000 0.25204 -0.1144 0.0039572 0.0022032 9.0479e-05 0.0024183 -0.0012428 -0.0028311
-0.0011248 0.0010507 -6.3157e-05 -7.4347e-05
0.0039537 0.0022151 0.26149 0.16827 -0.00016626 -1.5726e-05 -0.0011237 0.0010294
0.00010756 0.0012731 -0.00050494 0.0006064
0.00011105 0.0024143 -0.00017066 -1.5919e-05 0.16129 -0.24816 0.0013004 3.7258e-05
7.5197e-05 0.0023414 -0.0013306 0.00063785
-0.0012505 -0.0028421 -0.0011351 0.0010304 0.0012706 4.7661e-05 0.20211 -0.095776
0.0015929 0.0080314 -0.0017316 -0.0013575
-0.0011138 0.0010545 0.00011871 0.0012766 5.4788e-05 0.0023506 0.0016156 0.0080209
0.25151 0.046175 0.0048791 0.0033284
-2.7084e-05 -8.4565e-05 -0.00049667 0.00060277 -0.0013704 0.00064295 -0.0017121 -0.0013615
0.0048936 0.0033191 0.2854 0.085611
1880000000 0.21565 -0.15408 0.0016567 0.00017904 -0.00031818 0.0018966 -0.0029634 -0.0019028
-0.00013671 0.0018001 0.00024451 -0.00050066
0.001646 0.00019166 0.26515 0.12116 -0.0022688 0.0016118 -4.7408e-05 0.0015763
0.00065966 0.001044 0.00023267 0.0009287
-0.000301 0.0018918 -0.0022653 0.0016145 0.10823 -0.25835 0.0014129 -0.00096579
0.0017124 0.0017323 -0.00068379 0.0013685
-0.0029315 -0.0018865 -2.486e-05 0.0015963 0.0014228 -0.00096185 0.16308 -0.13594
0.0028155 0.005498 -0.0023156 0.00024327
-0.0001297 0.0018105 0.00065623 0.001038 0.0016876 0.0017366 0.0028287 0.0055361
0.25282 0.012905 0.0046686 0.0011794
0.00026255 -0.00051644 0.00023786 0.0009566 -0.0006586 0.0014082 -0.0022706 0.00031695
0.0046833 0.0011905 0.28352 0.051137
1940000000 0.17545 -0.1789 -0.00049123 -0.0011589 0.0014277 0.0019262 -0.003584 0.00071833
0.0015654 0.0011017 -0.00050226 -0.00069381
-0.00049252 -0.0011552 0.26457 0.089666 -0.0011531 0.0039108 0.00091699 0.0010886
0.0016373 0.00032527 0.00093269 0.00028038
0.0014401 0.0019309 -0.0011346 0.0039233 0.061691 -0.25087 0.00017679 -0.0017254
0.0022883 0.0001605 0.00043466 0.0015183
-0.0035757 0.00073107 0.00093562 0.0010898 0.00019394 -0.0017316 0.11158 -0.16615
0.0021383 0.0036414 -0.0012807 0.0012664
0.0015879 0.0010848 0.0016479 0.00029642 0.0022785 0.00015349 0.0021201 0.0036665
0.25299 -0.02613 0.0036711 -0.0017678
-0.0005426 -0.00068164 0.00091654 0.00027676 0.00043167 0.0015121 -0.0012768 0.0013474
0.0036707 -0.001751 0.27102 0.014779
2000000000 0.12897 -0.19271 -0.0041825 0.0010417 0.0025879 0.0015305 -0.0022264 0.003374
0.0013401 -5.4336e-05 -0.00046624 0.0004042
-0.0041809 0.0010442 0.25003 0.054167 -0.00086918 0.0057252 0.00141 0.00028993
0.0010903 -0.0012322 0.00047647 -9.9814e-06
0.0025965 0.0015296 -0.00085199 0.0057453 0.018334 -0.23596 -0.0010779 -0.00092465
0.0016643 -0.0011878 0.0017271 0.00098001
-0.0022139 0.0033707 0.0014215 0.00028778 -0.0010458 -0.00094178 0.058965 -0.17736
0.00036804 0.0027195 2.3975e-05 0.0019981
0.0013183 -6.4559e-05 0.0010534 -0.001257 0.0016648 -0.0011975 0.00035383 0.0027376
0.2458 -0.060434 0.00049025 -0.0027809
