!Keysight Technologies,M9804A,MY58100912,A.14.10.03
!Date: Thursday, April 27, 2023 10:28:33
!Correction: S11(C  6-Port  ) 
!S12(C  6-Port  ) 
!S13(C  6-Port  ) 
!S14(C  6-Port  ) 
!S15(C  6-Port  ) 
!S16(C  6-Port  ) 
!S21(C  6-Port  ) 
!S22(C  6-Port  ) 
!S23(C  6-Port  ) 
!S24(C  6-Port  ) 
!S25(C  6-Port  ) 
!S26(C  6-Port  ) 
!S31(C  6-Port  ) 
!S32(C  6-Port  ) 
!S33(C  6-Port  ) 
!S34(C  6-Port  ) 
!S35(C  6-Port  ) 
!S36(C  6-Port  ) 
!S41(C  6-Port  ) 
!S42(C  6-Port  ) 
!S43(C  6-Port  ) 
!S44(C  6-Port  ) 
!S45(C  6-Port  ) 
!S46(C  6-Port  ) 
!S51(C  6-Port  ) 
!S52(C  6-Port  ) 
!S53(C  6-Port  ) 
!S54(C  6-Port  ) 
!S55(C  6-Port  ) 
!S56(C  6-Port  ) 
!S61(C  6-Port  ) 
!S62(C  6-Port  ) 
!S63(C  6-Port  ) 
!S64(C  6-Port  ) 
!S65(C  6-Port  ) 
!S66(C  6-Port  ) 
!S6P File: Measurement: :
# Hz S  RI   R 50
500000000 -0.33958 -0.021061 -0.010935 -0.0034567 -0.0078829 0.012502 -0.0032632 0.012055
0.011992 0.0040639 -0.0028779 0.0082909
-0.010915 -0.003459 -0.41924 -0.039227 0.0062116 -0.011523 0.0015329 0.012293
0.0073451 0.0021214 0.002207 0.013341
-0.0078627 0.012478 0.0062074 -0.011537 -0.26359 0.22093 0.0071495 0.003549
-0.00062245 0.0080999 0.0024304 0.011464
-0.0032496 0.012062 0.0015389 0.0123 0.0071448 0.0035536 -0.33225 0.059242
-0.02013 -0.0067759 0.014281 0.024055
0.011948 0.0040288 0.0073549 0.0020792 -0.00061078 0.0080704 -0.020147 -0.0067775
-0.23455 -0.1688 -0.025597 0.0040283
-0.0028736 0.0081961 0.0022471 0.013322 0.0024201 0.011461 0.014349 0.023996
-0.025597 0.0040048 -0.2829 -0.08916
560000000 -0.31289 0.13455 -0.026294 -0.060933 0.0014267 0.011562 0.0053713 0.0091305
0.0095341 0.0043052 0.011457 0.0066114
-0.026233 -0.060832 -0.37594 0.11668 -0.042349 -0.035472 0.012962 0.0035974
-0.012371 -0.0038226 0.0033365 -0.0015004
0.0014447 0.011551 -0.042442 -0.035434 -0.18111 0.26638 0.00015349 -0.004468
0.018375 0.0046183 0.0073729 -0.0062388
0.0053825 0.0091053 0.012966 0.0035893 0.00015475 -0.0044808 -0.30561 0.14624
0.00086656 -0.023973 0.004212 -0.01923
0.009494 0.0043332 -0.012445 -0.0037575 0.018382 0.0045397 0.00078401 -0.02394
-0.28792 0.0048442 0.003695 -0.047094
0.011535 0.0065943 0.003367 -0.0015634 0.0074177 -0.0062226 0.0042023 -0.019218
0.003709 -0.047116 -0.32803 0.052343
620000000 -0.27166 0.12058 -0.023308 0.0076152 0.0037005 0.0079787 0.0073095 -0.0054763
0.011204 -0.00048633 0.00037595 -0.003012
-0.023297 0.0076071 -0.40155 0.071523 -0.019383 0.00067012 -0.0010607 -0.002043
0.010327 -0.0063011 0.0014682 -0.0024147
0.0037199 0.0079621 -0.0194 0.00069217 -0.14997 0.27585 -0.00061312 -0.004754
-0.0039438 -0.0027294 0.0085813 -0.0028891
0.0073081 -0.005465 -0.001071 -0.002051 -0.00061005 -0.0047608 -0.26313 0.15839
-0.040473 -0.017607 0.01255 0.024165
0.011139 -0.00052459 0.010324 -0.0063406 -0.0039579 -0.0027367 -0.040507 -0.017598
-0.21015 -0.032298 -0.039721 0.014414
0.00041276 -0.0030469 0.001433 -0.0024223 0.0085893 -0.0029627 0.012545 0.024133
-0.039762 0.014436 -0.25437 0.02347
680000000 -0.22776 0.20293 -0.027407 -0.012153 0.0055142 0.0046523 0.0011844 -0.0069796
-0.002691 -0.010727 0.0041521 -0.0070413
-0.027383 -0.012162 -0.38481 0.16619 -0.032121 0.00044012 -0.0014105 -0.0003945
-0.0024223 -0.0089561 -0.0013184 -0.0023026
0.0055119 0.0046375 -0.032136 0.00050073 -0.098599 0.29354 -0.0011662 -0.00024856
-0.0015211 0.00019612 -0.0032362 -0.0089762
0.0011544 -0.0069566 -0.0014158 -0.00039526 -0.0011607 -0.00025406 -0.21766 0.20639
-0.026155 -0.0049803 -0.0094663 -0.0088303
-0.0027131 -0.010735 -0.0024546 -0.0089299 -0.0015104 0.00021557 -0.026188 -0.0050115
-0.25097 0.064854 -0.0069945 -0.0074215
0.0042004 -0.0070273 -0.0013363 -0.0023277 -0.0032198 -0.0089787 -0.0094897 -0.0088316
-0.0070021 -0.0073932 -0.25512 0.11951
740000000 -0.18477 0.19769 -0.037015 0.026397 0.01219 -0.0057694 -0.00068411 -0.0041554
-0.0044618 -0.0032088 -0.0060256 0.0028201
-0.037016 0.02634 -0.33267 0.1859 -0.033158 0.035043 -0.0010354 -0.0061974
-0.011646 0.0075647 -0.0019695 -0.005052
0.012162 -0.0057785 -0.033091 0.03513 -0.065073 0.29285 -0.0018302 0.0030487
-0.0033097 -0.0044597 -0.0021323 0.0010588
-0.00068446 -0.0041681 -0.0010712 -0.0061972 -0.0018292 0.0030418 -0.19932 0.21498
-0.042844 -0.003405 0.022542 0.012757
-0.0045232 -0.0032436 -0.011589 0.0076051 -0.0033119 -0.0044814 -0.042888 -0.003377
-0.15818 0.086137 -0.039859 0.0035519
-0.0059622 0.0028348 -0.0019999 -0.0050466 -0.00211 0.00103 0.022543 0.012788
-0.039884 0.0035608 -0.24304 0.1291
800000000 -0.1506 0.23558 -0.021174 0.017344 0.004612 -0.010457 -0.0044908 -0.0018033
-0.0035384 0.0027008 0.003552 0.00038238
-0.021166 0.017321 -0.33335 0.25411 -0.0066738 0.033446 -0.0023313 0.0022243
-0.00069162 0.0033121 0.00097337 0.0051784
0.0046024 -0.010462 -0.0066191 0.03347 -0.022384 0.31465 0.00087158 0.001688
0.00029361 0.0035288 -0.0018283 0.0011446
-0.0044853 -0.0017996 -0.0023405 0.0022377 0.00086558 0.0016879 -0.16913 0.24143
-0.026729 0.016608 0.012883 -0.010066
-0.0035187 0.002678 -0.0006903 0.0033009 0.00029414 0.0035212 -0.026716 0.016652
-0.19576 0.11297 -0.015786 0.019075
0.003539 0.00038846 0.0009737 0.0051771 -0.0018267 0.0011406 0.012878 -0.010074
-0.015826 0.019098 -0.23087 0.17504
860000000 -0.11605 0.25551 -0.015924 0.030855 -0.0038039 -0.0094798 -0.0022466 0.0012593
0.0041186 0.0048082 -0.002989 -0.0025665
-0.015938 0.030821 -0.28613 0.29508 0.0091026 0.032996 0.0001893 0.0024567
0.0043102 0.00055704 0.0028416 0.00051006
-0.0038135 -0.0094707 0.0091703 0.032987 0.02582 0.32159 -0.00042046 2.4568e-05
0.0024695 -0.0011272 0.001556 0.0040952
-0.0022517 0.0012649 0.00018697 0.0024624 -0.00042237 2.7191e-05 -0.13235 0.25166
-0.01512 0.020846 -0.005584 -0.0089279
0.0041038 0.0047761 0.0043195 0.00054055 0.0024748 -0.00113 -0.015103 0.020892
-0.14363 0.15983 -0.022472 0.016373
-0.0029855 -0.0025722 0.0028655 0.00049655 0.0015603 0.0041066 -0.0055919 -0.0089038
-0.022476 0.016384 -0.18234 0.21532
920000000 -0.089544 0.27726 0.0062891 0.036734 -0.0092743 -0.0038317 -0.0014752 0.0018169
0.001371 0.001773 0.0025148 -0.0015161
0.0062688 0.036698 -0.25565 0.31559 0.028104 0.020221 0.0016796 0.00099288
0.0071477 -0.000482 0.0038126 -0.0027759
-0.0092682 -0.0037999 0.028151 0.020166 0.07318 0.32159 0.001924 -0.00015991
0.0016449 -0.00043571 0.00095823 -0.0010445
-0.0014728 0.0018111 0.0016691 0.00098463 0.0019309 -0.0001558 -0.10643 0.26758
-0.0072807 0.030993 0.0026433 -0.0060486
0.0013776 0.0017853 0.0071492 -0.00049598 0.0016532 -0.00042942 -0.0072403 0.031026
-0.12873 0.16494 0.0004942 0.025341
0.0025282 -0.0015068 0.0038343 -0.0028 0.00097073 -0.0010361 0.0026595 -0.0060729
0.00049185 0.025374 -0.18229 0.23116
980000000 -0.042397 0.29489 0.018521 0.028369 -0.0084137 0.0047266 0.0021319 0.0030934
0.0040311 -0.0019815 -0.0031884 -0.0021918
0.018507 0.028359 -0.20371 0.34776 0.032347 0.0033016 0.0021732 -0.00028175
0.0016315 -0.0063138 -0.00062221 -0.0023476
-0.0083917 0.004748 0.032357 0.0032205 0.11963 0.31349 0.00049732 -0.0013258
0.00014509 -0.002401 0.0013189 -0.0001929
0.002157 0.0030958 0.0021666 -0.00030304 0.00050441 -0.0013174 -0.067254 0.27682
0.010906 0.028396 -0.0086292 -0.0063051
0.0040316 -0.0019549 0.0016003 -0.0063295 0.00014285 -0.0024088 0.010955 0.028416
-0.097978 0.18858 0.0061527 0.018262
-0.0031938 -0.0021682 -0.00060274 -0.0023506 0.0013268 -0.00019029 -0.00862 -0.0062883
0.0061552 0.01828 -0.13814 0.26954
1040000000 0.00022803 0.30211 0.032849 0.015778 -0.0011059 0.006579 0.0022877 0.00056434
2.407e-05 -0.0031392 -0.00067335 -0.0013627
0.032822 0.015766 -0.16799 0.36087 0.027673 -0.015556 0.0014592 -0.0017948
-0.0022502 -0.0024902 -0.0013728 -0.0027271
-0.0010805 0.0065849 0.027622 -0.015626 0.16607 0.29901 -0.00059377 -0.0014647
-0.0015805 -0.00089315 -0.00041695 -0.0010677
0.0022965 0.00056435 0.0014352 -0.001799 -0.00058715 -0.0014667 -0.039 0.28579
0.02102 0.015562 -0.0025409 0.0010633
2.8729e-05 -0.0031523 -0.0022882 -0.0024646 -0.0015881 -0.000878 0.021048 0.015534
-0.065282 0.19513 0.013858 0.015552
-0.00068512 -0.0013755 -0.0013568 -0.0027409 -0.00041815 -0.0010586 -0.0025323 0.0010542
0.01389 0.01558 -0.11321 0.2891
1100000000 0.045748 0.30835 0.03425 -0.0057374 0.0027077 0.0036003 0.0021273 -0.0010029
-0.0021324 -0.0028499 -0.0036258 0.00053788
0.034228 -0.0057106 -0.1245 0.37717 0.013549 -0.027438 -0.00017616 -0.0017859
-0.0035298 -0.00058118 -0.0033641 -0.00024046
0.0027215 0.0035924 0.013463 -0.027482 0.21285 0.27686 -0.0018298 0.0001672
-0.0017836 0.00055498 -0.0009381 -0.00022651
0.0021308 -0.0009963 -0.00018829 -0.0017921 -0.0018301 0.00016468 0.0022649 0.28855
0.024711 0.0022633 -0.0026254 0.00014842
-0.002125 -0.002829 -0.0035402 -0.00056284 -0.0017931 0.00056001 0.024725 0.0022462
-0.047 0.2062 0.018014 0.0060779
-0.0036329 0.00055038 -0.0033685 -0.00022816 -0.00094065 -0.00022384 -0.0026255 0.00016011
0.018037 0.0060872 -0.066909 0.31349
1160000000 0.096629 0.30222 0.022059 -0.021315 0.0022816 -0.00040409 -8.856e-05 -0.0020498
-0.0038891 -0.0004551 -0.00067487 0.0037562
0.022072 -0.021288 -0.080299 0.38089 -0.0048094 -0.027889 -0.0015842 -0.0014405
-0.0025103 0.0025014 -0.0013759 0.0016731
0.0022794 -0.0004077 -0.0049028 -0.027887 0.25519 0.2445 -0.00077637 0.0017234
-0.00051164 0.0018856 -0.00084883 0.00010625
-8.0785e-05 -0.0020416 -0.0016066 -0.0014486 -0.00078332 0.0017296 0.041303 0.28379
0.019997 -0.01256 -0.0031171 0.0043779
-0.0038841 -0.00043559 -0.0025149 0.0025101 -0.00051598 0.0018973 0.020002 -0.012591
-0.013714 0.21341 0.01672 -0.0017381
-0.00066798 0.0037485 -0.001355 0.0016824 -0.00085324 0.00011517 -0.0031145 0.0043683
0.016775 -0.0017552 -0.01979 0.31411
1220000000 0.14143 0.28939 0.0084303 -0.029357 -0.001587 -0.00030793 0.00015954 -0.00092705
-0.002353 0.0022876 0.0012832 0.0019201
0.0084627 -0.029323 -0.035991 0.39182 -0.017028 -0.019684 -0.0024153 0.00048257
7.6812e-05 0.0029469 -0.00053407 0.0019411
-0.0015898 -0.00029659 -0.017095 -0.019643 0.29379 0.20437 0.00072305 0.0018685
0.00068177 0.0012396 0.00031713 0.0005431
0.00016203 -0.00091943 -0.0024219 0.00048768 0.00071845 0.0018644 0.081621 0.27341
0.0090821 -0.018612 0.0013833 0.0014571
-0.0023402 0.0023015 7.8039e-05 0.0029533 0.00067168 0.001238 0.0090588 -0.018623
0.010112 0.22007 0.011515 -0.013322
0.0012816 0.0019303 -0.00052185 0.0019528 0.00032054 0.00055439 0.0013794 0.001443
0.011549 -0.013361 0.013318 0.3265
1280000000 0.19012 0.26579 -0.0090058 -0.026888 -0.0014574 0.0028847 -0.00099024 -0.002004
-0.00069549 0.0028662 0.0023422 0.00090458
-0.0089732 -0.026867 0.0096232 0.3821 -0.02314 -0.0074819 -0.0010172 0.0013917
0.0016938 0.0016855 0.00067105 0.0018273
-0.0014509 0.0028765 -0.023183 -0.0073972 0.32322 0.1592 0.0016576 5.5893e-05
0.0010942 0.00028843 0.00023584 0.00021907
-0.00099467 -0.0020074 -0.0010164 0.0013931 0.001652 6.2941e-05 0.11749 0.25443
-0.00073025 -0.01993 -0.0005396 0.00047715
-0.00069798 0.002861 0.0017085 0.001691 0.0010971 0.00028216 -0.00077569 -0.019944
0.046072 0.22167 0.0011917 -0.014775
0.0023395 0.00091559 0.0006794 0.0018341 0.00024268 0.00022115 -0.00055346 0.00047719
0.0012252 -0.014831 0.059191 0.32441
1340000000 0.22658 0.23101 -0.017847 -0.017091 0.0013891 0.0042808 -0.0017005 -0.000887
0.0014422 0.0025272 0.0015219 -0.0014872
-0.017805 -0.017082 0.048955 0.37317 -0.020601 0.0047859 -0.00014016 0.0020208
0.0019859 0.00068882 0.0013335 0.00065459
0.0014047 0.0042808 -0.020595 0.0048624 0.34427 0.1113 0.001305 -0.0010118
0.00064362 -0.00055468 0.00012371 0.00021126
-0.0017005 -0.00088252 -0.00013416 0.0020291 0.0013036 -0.0010178 0.14883 0.23268
-0.010088 -0.016553 0.00048649 0.0012147
0.0014459 0.0025063 0.0019936 0.00067452 0.00064117 -0.00055086 -0.010126 -0.016555
0.075579 0.21544 -0.0052759 -0.012812
0.0015131 -0.0014864 0.0013389 0.0006574 0.00012326 0.00021694 0.00047347 0.0012228
-0.0052726 -0.012894 0.097848 0.31712
1400000000 0.25879 0.19159 -0.022505 -0.0059029 0.005283 0.002661 -0.0021219 0.00056039
0.0022696 0.00079913 0.00011861 -0.0014065
-0.02247 -0.0059152 0.085877 0.35946 -0.013834 0.012262 0.001398 0.0013656
0.0012503 -0.00082052 0.0011508 5.7208e-05
0.0052875 0.0026471 -0.013799 0.012319 0.35697 0.057202 0.00016828 -0.0019056
6.0044e-05 -0.00041327 0.0003187 0.00017773
-0.0021162 0.00057086 0.0014019 0.0013611 0.00016856 -0.0019081 0.17714 0.20215
-0.015755 -0.0095061 -0.00043858 0.00055079
0.0022773 0.0007934 0.0012515 -0.00083855 5.3855e-05 -0.00041487 -0.015786 -0.0094896
0.10765 0.20916 -0.010956 -0.0074744
0.00012729 -0.0014014 0.001158 4.8598e-05 0.00032264 0.00017749 -0.00044815 0.00057076
-0.01099 -0.0075392 0.14098 0.30305
1460000000 0.28027 0.14695 -0.019113 0.0054221 0.0054075 -0.0022485 -0.001561 0.001684
0.0019364 -0.00056255 -0.0003786 -0.0008315
-0.019092 0.0053984 0.11971 0.33721 -0.0055667 0.014723 0.0018058 0.00014023
0.00078897 -0.0013424 0.0010941 -0.00058367
0.0054043 -0.0022613 -0.0055115 0.014753 0.36174 0.002635 -0.0015181 -0.0013986
0.00018167 -0.00018191 0.00054936 -0.00028295
-0.0015548 0.0017055 0.0018148 0.00013358 -0.0015223 -0.0013796 0.20111 0.17206
-0.016714 -0.0024993 -0.00027265 0.002264
0.0019449 -0.00055667 0.00078157 -0.0013477 0.00017772 -0.00018535 -0.016743 -0.0024774
0.13573 0.19314 -0.01186 -0.0016704
-0.00038524 -0.00082928 0.0011021 -0.0005846 0.00055924 -0.0002897 -0.00028116 0.0022952
-0.011914 -0.0017228 0.17287 0.28036
1520000000 0.29155 0.10431 -0.013307 0.010261 0.002882 -0.0042007 0.00014236 0.0026037
0.001999 -0.001617 -0.0011306 -6.3836e-05
-0.013307 0.010242 0.15312 0.32189 0.0016074 0.012515 0.0016848 -0.00088911
-5.894e-05 -0.0011322 0.00026177 -0.00088509
0.0028648 -0.004205 0.0016638 0.012515 0.35433 -0.053734 -0.0014793 -0.00027707
0.00050741 -0.00093981 -3.4266e-05 -7.4917e-05
0.00014789 0.002604 0.0016822 -0.00089497 -0.0014743 -0.00027863 0.2224 0.13393
-0.015704 0.0034894 0.0020612 0.0018958
0.0019958 -0.0016328 -6.7617e-05 -0.0011267 0.00051235 -0.00094198 -0.015709 0.0035235
0.16296 0.17766 -0.011275 0.0027053
-0.0011433 -6.6974e-05 0.0002461 -0.00089534 -3.743e-05 -8.1857e-05 0.0020833 0.0019023
-0.011354 0.0027139 0.20511 0.25745
1580000000 0.29931 0.057648 -0.0070755 0.012736 -0.001181 -0.0046411 0.0015649 0.0018523
-0.00012603 -0.002102 -0.00023772 0.00042686
-0.0070852 0.012715 0.18001 0.29643 0.0049696 0.0078589 0.00040588 -0.0017376
-0.00061751 -0.0010152 -0.00018884 -0.00078914
-0.0011984 -0.0046392 0.0050058 0.0078419 0.33359 -0.11155 -0.0016593 0.0010328
-0.00027343 -0.0011204 0.00023381 -0.00063846
0.0015676 0.0018478 0.00039906 -0.0017402 -0.0016541 0.0010286 0.2341 0.094708
-0.012075 0.0086254 0.0025308 0.00025828
-0.00013387 -0.0021058 -0.0006253 -0.0010095 -0.00029036 -0.0011189 -0.012067 0.0086658
0.186 0.15803 -0.0087822 0.0077244
-0.00024708 0.00043066 -0.00019379 -0.00079947 0.00023896 -0.00064779 0.0025481 0.00025996
-0.0088662 0.0077695 0.23476 0.22907
1640000000 0.30011 0.016064 -0.00095366 0.011368 -0.0028287 -0.0024282 0.002721 0.00086555
-0.00073471 -0.0015882 -0.00020853 0.00061633
-0.00096238 0.011355 0.20908 0.27099 0.0055701 0.0034552 -0.00089508 -0.0016489
-0.0010844 -0.00028123 -0.00049874 -0.00060591
-0.0028359 -0.0024173 0.0055846 0.0034331 0.30404 -0.15987 -0.00059448 0.001669
-0.0012057 -0.00089401 -0.00012044 -0.00020997
0.0027163 0.00084527 -0.00090791 -0.0016431 -0.0005936 0.0016753 0.24455 0.04736
-0.0075249 0.010188 0.0024597 -0.0011982
-0.00076418 -0.0015921 -0.0010758 -0.00026488 -0.0012104 -0.00088303 -0.0075094 0.010222
0.20701 0.13273 -0.0040337 0.0093534
-0.00020714 0.00061925 -0.00050275 -0.00060196 -0.00012675 -0.0002084 0.0024818 -0.0012245
-0.004084 0.0094151 0.25889 0.19683
1700000000 0.29144 -0.029506 0.0020624 0.0086281 -0.0034215 0.00036471 0.0029104 -0.001361
-0.0020409 -0.00072506 0.00064986 0.00038177
0.0020586 0.0086182 0.22692 0.23902 0.0037618 0.00069022 -0.0015081 -0.00044629
-0.00076711 0.0002441 -0.00088955 -0.00038416
-0.0034098 0.00037693 0.0037594 0.00067003 0.26105 -0.19979 0.00081915 0.001505
-0.0019385 -1.835e-05 -0.0005809 -0.00068173
0.0029082 -0.0013732 -0.0015214 -0.00044576 0.00081969 0.0015005 0.24077 -0.00084391
-0.004124 0.010863 0.0014035 -0.0023215
-0.002052 -0.00072145 -0.0007631 0.00024859 -0.0019483 -8.4307e-06 -0.0041032 0.010882
0.22295 0.11133 0.00044078 0.0095285
0.00065551 0.00038401 -0.00089511 -0.00037839 -0.00059266 -0.00068201 0.0014062 -0.0023301
0.00043436 0.009598 0.27368 0.16138
1760000000 0.27785 -0.077755 0.0039965 0.0054829 -0.0020806 0.00093794 0.00097685 -0.0034839
-0.0015048 0.00068337 0.00044521 -0.00043164
0.0039966 0.0054933 0.25209 0.19845 0.001635 -0.0011567 -0.0011637 0.00033358
-0.00089884 0.00095008 -0.00061472 0.00050691
-0.0020757 0.00094426 0.0016314 -0.0011685 0.21165 -0.23338 0.0014442 0.00070761
-0.0010664 0.0016416 -0.0014047 -0.00021012
0.00096345 -0.0034806 -0.0011648 0.00033721 0.0014453 0.00070108 0.23129 -0.050394
-0.00033267 0.010043 -0.00036267 -0.0026035
-0.0015139 0.00069697 -0.00089715 0.0009531 -0.0010599 0.0016499 -0.00032668 0.010052
0.23564 0.075689 0.0041854 0.0068363
0.00043732 -0.0004349 -0.00061047 0.00051577 -0.001398 -0.00020212 -0.00036106 -0.0026175
0.0042174 0.0069106 0.28435 0.1228
1820000000 0.2521 -0.1143 0.0039912 0.0022321 0.00010768 0.0024307 -0.0012364 -0.0028628
-0.0011107 0.0010928 -6.4378e-06 -9.1363e-05
0.003991 0.0022272 0.26149 0.16829 -0.00015234 -1.938e-05 -0.0011169 0.0010239
0.00012121 0.0012715 -0.00047907 0.0006025
0.00010195 0.0024283 -0.00015558 -2.0581e-05 0.16129 -0.2481 0.001291 3.6363e-05
7.939e-05 0.0023064 -0.001358 0.0006312
-0.0012506 -0.0028635 -0.0011178 0.0010297 0.0012879 2.7833e-05 0.20219 -0.095825
0.0017062 0.0080314 -0.0017198 -0.0014477
-0.0010986 0.0010993 0.00013186 0.0012619 8.6063e-05 0.0023118 0.0017345 0.0080433
0.25128 0.046305 0.0049585 0.0033303
1.4541e-06 -0.00010266 -0.00047757 0.000604 -0.0013599 0.00064809 -0.0017331 -0.0014598
0.0050101 0.0033919 0.28527 0.085763
1880000000 0.21571 -0.15401 0.0016901 0.00017821 -0.00032131 0.0018689 -0.0029472 -0.0018892
-0.00012059 0.0018238 0.00021965 -0.00051543
0.0016945 0.00018574 0.26515 0.1212 -0.0022623 0.0015785 -5.6052e-05 0.0015919
0.00066328 0.0010191 0.00022509 0.00095545
-0.00031 0.0018609 -0.0022624 0.0015948 0.10819 -0.25834 0.0013355 -0.00093971
0.0016587 0.0017175 -0.00070395 0.0014822
-0.0029554 -0.0018709 -4.1399e-05 0.0015958 0.0013365 -0.0009457 0.16305 -0.13592
0.0028582 0.0055158 -0.0023122 0.00027048
-0.00010661 0.0018172 0.0006583 0.0010222 0.001662 0.0017101 0.0028692 0.0055024
0.25264 0.013134 0.0047147 0.0012065
0.00022668 -0.00052322 0.00022909 0.00095603 -0.00069664 0.0014837 -0.0023347 0.00026101
0.0047812 0.0012454 0.28338 0.051339
1940000000 0.17556 -0.17885 -0.00045892 -0.0011627 0.0014036 0.0019245 -0.0035333 0.00072534
0.0016127 0.0010613 -0.00051955 -0.00068142
-0.00045269 -0.0011614 0.26459 0.089684 -0.001166 0.0038875 0.00091727 0.0011098
0.0016083 0.00030174 0.00089661 0.00030681
0.0014035 0.001919 -0.0011464 0.0038891 0.061698 -0.25086 0.00016974 -0.0016644
0.002215 0.00019631 0.00044879 0.0015808
-0.0035255 0.00074453 0.00092592 0.0011051 0.00017118 -0.0016714 0.11162 -0.16624
0.0021695 0.0036109 -0.0013133 0.001281
0.0016088 0.0010412 0.0016058 0.00029616 0.0022218 0.00018681 0.0021614 0.0036001
0.25293 -0.025844 0.0037125 -0.0017724
-0.0005421 -0.00066931 0.00090331 0.00030059 0.00047165 0.001568 -0.0013167 0.0012819
0.0038046 -0.0017881 0.27093 0.014958
2000000000 0.12905 -0.19275 -0.004156 0.0010033 0.0025733 0.001485 -0.0022457 0.0033163
0.0013186 -2.6615e-05 -0.00055035 0.00040173
-0.0041539 0.0010024 0.25003 0.054142 -0.00089674 0.0057142 0.0014155 0.00031052
0.0010574 -0.0012118 0.00044474 -1.1824e-05
0.0025903 0.0014763 -0.00086569 0.0057153 0.018252 -0.23592 -0.00102 -0.00086131
0.001637 -0.0011314 0.0017472 0.00098422
-0.0022255 0.0033404 0.0014106 0.00030266 -0.0010184 -0.00085874 0.058841 -0.17734
0.00032395 0.0027083 -0.00013886 0.0021127
0.0013116 -4.0005e-05 0.0010476 -0.0012265 0.0016373 -0.0011444 0.00032901 0.0027091
0.24579 -0.06016 0.00041434 -0.002855
