!Keysight Technologies,M9804A,MY58100912,A.14.10.03
!Date: Thursday, April 27, 2023 10:28:33
!Correction: S11(C  6-Port  ) 
!S12(C  6-Port  ) 
!S13(C  6-Port  ) 
!S14(C  6-Port  ) 
!S15(C  6-Port  ) 
!S16(C  6-Port  ) 
!S21(C  6-Port  ) 
!S22(C  6-Port  ) 
!S23(C  6-Port  ) 
!S24(C  6-Port  ) 
!S25(C  6-Port  ) 
!S26(C  6-Port  ) 
!S31(C  6-Port  ) 
!S32(C  6-Port  ) 
!S33(C  6-Port  ) 
!S34(C  6-Port  ) 
!S35(C  6-Port  ) 
!S36(C  6-Port  ) 
!S41(C  6-Port  ) 
!S42(C  6-Port  ) 
!S43(C  6-Port  ) 
!S44(C  6-Port  ) 
!S45(C  6-Port  ) 
!S46(C  6-Port  ) 
!S51(C  6-Port  ) 
!S52(C  6-Port  ) 
!S53(C  6-Port  ) 
!S54(C  6-Port  ) 
!S55(C  6-Port  ) 
!S56(C  6-Port  ) 
!S61(C  6-Port  ) 
!S62(C  6-Port  ) 
!S63(C  6-Port  ) 
!S64(C  6-Port  ) 
!S65(C  6-Port  ) 
!S66(C  6-Port  ) 
!S6P File: Measurement: :
# Hz S  RI   R 50
500000000 -0.33719 -0.034326 -0.0099418 -0.0036245 -0.0078835 0.011916 -0.0037504 0.011708
0.011874 0.0045533 -0.0040659 0.008596
-0.0099368 -0.0036261 -0.41976 -0.04934 0.0070419 -0.011345 0.001268 0.011882
0.0072859 0.0026141 0.00055942 0.013242
-0.0078718 0.011925 0.0070274 -0.011361 -0.26564 0.21208 0.0067241 0.0034563
-0.00027937 0.0087432 0.00015245 0.012066
-0.0037308 0.011717 0.0012839 0.0119 0.0067301 0.0034582 -0.32799 0.048165
-0.020146 -0.0044393 0.01756 0.026627
0.011885 0.0045284 0.007294 0.0025951 -0.000277 0.0087439 -0.020141 -0.0044247
-0.22724 -0.1843 -0.028931 0.0053645
-0.0040457 0.0085876 0.0005873 0.013258 0.00015284 0.012063 0.017571 0.026609
-0.028936 0.0053554 -0.26694 -0.14558
560000000 -0.3161 0.12524 -0.024142 -0.063072 0.00056363 0.012446 0.0060746 0.0097905
0.010784 0.0046731 0.009894 0.0076562
-0.024117 -0.062981 -0.37785 0.10938 -0.041657 -0.036461 0.013579 0.0041716
-0.013261 -0.0046536 0.004207 -0.00047107
0.00059882 0.012431 -0.041798 -0.036385 -0.18292 0.26006 -0.00030957 -0.0047845
0.018958 0.0046461 0.0072039 -0.0058954
0.0060924 0.0097889 0.013601 0.0041543 -0.00030621 -0.0047878 -0.30327 0.13654
0.0034664 -0.024305 0.005418 -0.019737
0.010798 0.0046676 -0.013302 -0.0046294 0.018969 0.0046366 0.0034555 -0.02431
-0.28678 -0.0087838 0.0074776 -0.051319
0.0099265 0.0076193 0.0041965 -0.00045422 0.0072099 -0.0058983 0.0054123 -0.019744
0.0074989 -0.051336 -0.33501 0.0061138
620000000 -0.27296 0.10978 -0.023273 0.0076479 0.0034977 0.0083545 0.0067677 -0.0057054
0.011755 -0.00059127 0.00066708 -0.0018623
-0.023271 0.0076512 -0.40278 0.063388 -0.018708 0.00020361 -0.001141 -0.0020252
0.010439 -0.006829 0.001127 -0.002476
0.0035196 0.0083455 -0.018737 0.00025476 -0.15238 0.26904 -0.0013614 -0.0052271
-0.0036747 -0.0032267 0.0082861 -0.0033078
0.0067614 -0.0057243 -0.0011535 -0.0020251 -0.0013592 -0.0052225 -0.26163 0.14696
-0.038942 -0.018737 0.014248 0.024627
0.011764 -0.00061655 0.010436 -0.0068681 -0.0036778 -0.0032364 -0.038964 -0.018714
-0.20534 -0.047613 -0.041556 0.016051
0.00066982 -0.0018798 0.0011148 -0.0024751 0.008286 -0.0033111 0.014263 0.024611
-0.041576 0.016043 -0.24943 -0.035261
680000000 -0.23293 0.19409 -0.027935 -0.01352 0.0047387 0.0048963 0.0012372 -0.0074542
-0.0030146 -0.011157 0.0049637 -0.0070894
-0.027916 -0.013514 -0.38686 0.16037 -0.032544 -0.00117 -0.0015149 -0.00030591
-0.0026372 -0.0091928 -0.00086731 -0.0020322
0.0047625 0.0048915 -0.032581 -0.0010896 -0.1013 0.28808 -0.00072822 -3.8332e-05
-0.0022319 0.00045797 -0.0029012 -0.0097507
0.0012309 -0.0074482 -0.0015215 -0.00029825 -0.00073301 -4.1373e-05 -0.21793 0.19629
-0.0237 -0.0074371 -0.01068 -0.01053
-0.0030545 -0.011168 -0.0026634 -0.0091942 -0.002234 0.0004613 -0.023719 -0.0074187
-0.25313 0.05075 -0.0053157 -0.0093229
0.0049546 -0.0071102 -0.0008757 -0.0020361 -0.0029015 -0.0097584 -0.010696 -0.010541
-0.0053098 -0.0093274 -0.26456 0.075255
740000000 -0.18923 0.18881 -0.037943 0.026807 0.012579 -0.0051791 -0.00058893 -0.0039761
-0.0044442 -0.003036 -0.0063205 0.0031996
-0.037914 0.026771 -0.33439 0.17894 -0.034632 0.03514 -0.0010332 -0.0063344
-0.011709 0.0080733 -0.0030083 -0.006651
0.012565 -0.0052197 -0.034581 0.035248 -0.067608 0.28661 -0.0016621 0.0033364
-0.0027345 -0.0039908 -0.0010389 -0.00010265
-0.00058665 -0.0039676 -0.0010421 -0.0063546 -0.0016576 0.0033348 -0.20185 0.20389
-0.042223 -0.0073734 0.022767 0.013962
-0.0044525 -0.0030279 -0.011701 0.0081427 -0.0027631 -0.0040087 -0.042256 -0.0073223
-0.15596 0.07429 -0.042828 0.001533
-0.006316 0.0032402 -0.0030423 -0.0066786 -0.0010423 -8.7215e-05 0.022776 0.01395
-0.042824 0.0015117 -0.25781 0.08033
800000000 -0.15675 0.22892 -0.022179 0.01735 0.005205 -0.010552 -0.004702 -0.0020524
-0.0040089 0.0025697 0.0044511 0.00080449
-0.022168 0.017329 -0.33692 0.24895 -0.0076516 0.033909 -0.0021898 0.0022534
-0.00081366 0.0034439 0.0010439 0.0053598
0.0051812 -0.010558 -0.0075525 0.033967 -0.026523 0.30922 0.0011106 0.0016317
0.00058498 0.0036193 -0.0017392 0.00089873
-0.0047181 -0.0020414 -0.0021892 0.0022616 0.0011142 0.001629 -0.17343 0.23126
-0.027935 0.013004 0.013829 -0.010231
-0.0039895 0.0025799 -0.00079873 0.0034456 0.00059646 0.003619 -0.027953 0.013055
-0.19963 0.0985 -0.01774 0.018298
0.0044449 0.00078058 0.0010596 0.0053607 -0.0017268 0.00089309 0.013834 -0.010258
-0.017751 0.018286 -0.25148 0.13624
860000000 -0.12208 0.24978 -0.016878 0.031096 -0.0033063 -0.0098352 -0.0024888 0.0012914
0.0040892 0.0051798 -0.003138 -0.0029451
-0.01686 0.031078 -0.28898 0.29077 0.0082461 0.033942 0.00020801 0.002141
0.0044044 0.000479 0.0031747 0.00036412
-0.0033369 -0.009825 0.0083652 0.033949 0.021654 0.31683 -0.00026233 -0.00029878
0.0028363 -0.0016314 0.001704 0.0045063
-0.0024916 0.0012963 0.00022064 0.0021432 -0.00026326 -0.00029749 -0.13761 0.2428
-0.017332 0.01869 -0.0060888 -0.0093331
0.004114 0.0051627 0.0044082 0.00045187 0.002845 -0.0016363 -0.017318 0.018732
-0.14961 0.14652 -0.024671 0.016045
-0.0031529 -0.0029367 0.0031881 0.0003538 0.001704 0.0045093 -0.0060959 -0.0093269
-0.024683 0.016023 -0.19953 0.18144
920000000 -0.096578 0.2726 0.0055384 0.037485 -0.0093143 -0.0043468 -0.0017756 0.0021338
0.0013446 0.001661 0.0026608 -0.0015242
0.0055353 0.037443 -0.25977 0.31128 0.028011 0.021418 0.0016344 0.001106
0.0070067 -0.00050196 0.0040185 -0.0030624
-0.0093251 -0.0043177 0.02812 0.021347 0.067875 0.31721 0.0018287 -0.00014833
0.0012634 -0.00049659 0.0007015 -0.0012312
-0.0017852 0.0021349 0.00165 0.0011062 0.0018306 -0.00014832 -0.1133 0.25891
-0.0099711 0.0298 0.0030867 -0.0068167
0.0013518 0.0016547 0.007006 -0.00052433 0.0012751 -0.00050939 -0.009927 0.029833
-0.13968 0.15233 -0.0010834 0.027999
0.0026393 -0.0015375 0.0040152 -0.0030764 0.00069818 -0.0012315 0.0030812 -0.006825
-0.0010939 0.028006 -0.2104 0.19468
980000000 -0.049156 0.2917 0.01799 0.029467 -0.008808 0.004553 0.0023326 0.0035779
0.0039795 -0.0017355 -0.0030697 -0.0021052
0.017979 0.029452 -0.20701 0.34464 0.032721 0.0043851 0.0020217 -0.00011648
0.0012079 -0.0062014 -0.0004863 -0.0022231
-0.0088024 0.0045668 0.032784 0.0042765 0.11407 0.31032 0.00043912 -0.001259
7.3397e-05 -0.0021718 0.0014636 -5.3537e-05
0.0023351 0.0035684 0.002031 -0.00010423 0.00043642 -0.0012626 -0.075117 0.26975
0.0078939 0.02831 -0.0094392 -0.0070165
0.0039771 -0.0017563 0.0011672 -0.0062166 7.9034e-05 -0.0021809 0.0079556 0.028312
-0.10741 0.1793 0.0051326 0.018801
-0.0030855 -0.0020979 -0.00048516 -0.0022095 0.0014714 -5.3963e-05 -0.0094463 -0.0069999
0.005123 0.018815 -0.16697 0.24301
1040000000 -0.0064635 0.29983 0.033215 0.017378 -0.0012299 0.0066926 0.0026839 0.00073271
-6.8328e-06 -0.0037558 -0.00052868 -0.0016877
0.0332 0.017372 -0.17157 0.35759 0.02883 -0.014982 0.0014588 -0.001765
-0.0025627 -0.0025102 -0.001494 -0.0029091
-0.0012211 0.0066995 0.028822 -0.015127 0.16019 0.29645 -0.00053468 -0.0014193
-0.0016201 -0.00083542 -0.00057782 -0.0011795
0.0026816 0.00072204 0.0014727 -0.0017634 -0.00053688 -0.0014205 -0.047933 0.27992
0.018281 0.016675 -0.003038 0.0018619
-2.2546e-05 -0.0037436 -0.0026059 -0.002501 -0.0016227 -0.00083372 0.018325 0.016652
-0.076817 0.18728 0.013678 0.017774
-0.00054986 -0.0016916 -0.0014862 -0.0028901 -0.00058054 -0.0011772 -0.0030316 0.0018676
0.013667 0.017779 -0.14798 0.26536
1100000000 0.038905 0.30709 0.035354 -0.0048325 0.0027386 0.0037071 0.0025288 -0.0013099
-0.0020824 -0.0031292 -0.0041041 8.5513e-05
0.03533 -0.004828 -0.12818 0.37438 0.014653 -0.027651 -1.9536e-05 -0.0018444
-0.0032798 -0.00054866 -0.0035918 -0.00050466
0.002743 0.0036991 0.01457 -0.027743 0.20648 0.27582 -0.0018368 0.0002483
-0.0017296 0.00070661 -0.0010673 -0.00026852
0.002522 -0.001319 -2.8498e-05 -0.0018458 -0.0018408 0.0002458 -0.0076079 0.28474
0.022659 0.0046774 -0.0025844 0.00068502
-0.0021075 -0.003122 -0.0033009 -0.00053482 -0.001725 0.00070568 0.022682 0.0046488
-0.058744 0.19999 0.019254 0.0083758
-0.0041091 0.00010196 -0.0035888 -0.00048081 -0.0010729 -0.00026421 -0.0025781 0.00068087
0.019245 0.0083829 -0.10101 0.29649
1160000000 0.090416 0.3017 0.023349 -0.020981 0.0025024 -0.00041877 -2.0368e-05 -0.0024573
-0.004128 -0.0005129 -0.001154 0.0042298
0.023353 -0.020971 -0.084429 0.37842 -0.0040866 -0.02871 -0.0018017 -0.0016262
-0.0024959 0.0027183 -0.0014262 0.0016962
0.0024946 -0.00043301 -0.0041988 -0.028744 0.2494 0.24467 -0.00063669 0.0017964
-0.00034809 0.0018829 -0.00096783 0.00019088
-2.1021e-05 -0.0024653 -0.001795 -0.0016056 -0.00063109 0.0017893 0.031565 0.28201
0.019066 -0.010037 -0.003095 0.0054817
-0.0041451 -0.00049476 -0.0024907 0.002735 -0.00034913 0.0018823 0.019063 -0.010055
-0.026003 0.20874 0.01772 0.00041447
-0.0011337 0.004233 -0.0013964 0.0017158 -0.0009767 0.00018983 -0.0030811 0.0054792
0.017721 0.00041229 -0.053787 0.29991
1220000000 0.1349 0.28996 0.0096802 -0.029818 -0.0016118 -0.00059267 -4.9827e-05 -0.0011774
-0.0025888 0.0025562 0.0012941 0.0020032
0.009678 -0.029799 -0.04026 0.39001 -0.016887 -0.020697 -0.0025225 0.00044784
0.00028071 0.0030063 -0.00068676 0.0018021
-0.0016181 -0.00058217 -0.016986 -0.020646 0.2883 0.2054 0.00088283 0.0016413
0.0006308 0.0011587 0.0003769 0.00079603
-5.2608e-05 -0.0011873 -0.0025274 0.00046428 0.00088702 0.0016428 0.071165 0.27368
0.0089601 -0.015591 0.0024691 0.0018351
-0.0025741 0.0025682 0.000288 0.002997 0.00063115 0.0011671 0.0089435 -0.015596
-0.0030853 0.21823 0.013601 -0.012874
0.0013005 0.0019865 -0.00067287 0.0018101 0.00037909 0.00079187 0.0024716 0.001838
0.013606 -0.012884 -0.02281 0.31952
1280000000 0.18434 0.26735 -0.0083105 -0.027894 -0.0017393 0.002733 -0.0011035 -0.0020666
-0.0005806 0.0031596 0.0027289 0.0011547
-0.0083193 -0.027879 0.0054511 0.38088 -0.023546 -0.0081899 -0.001011 0.0015321
0.0017247 0.0016777 0.00059123 0.0020931
-0.0017294 0.0027388 -0.023611 -0.0080779 0.31863 0.16142 0.0014729 -0.00016868
0.0010518 5.1574e-05 0.00039711 0.00038571
-0.0011083 -0.0020627 -0.0010121 0.0015331 0.0014712 -0.00016009 0.10766 0.25775
8.6472e-05 -0.017175 0.00029571 0.00037884
-0.00056462 0.0031588 0.0017346 0.0016719 0.0010544 5.9347e-05 6.6771e-05 -0.017167
0.033326 0.22214 0.0026262 -0.014699
0.0027386 0.0011355 0.00061384 0.0020925 0.00039931 0.00038784 0.00029557 0.00037984
0.0026437 -0.014709 0.025713 0.32223
1340000000 0.22115 0.23312 -0.017775 -0.018342 0.0010593 0.0044394 -0.0020182 -0.00081604
0.0015449 0.002592 0.0018037 -0.0015799
-0.017782 -0.018332 0.044865 0.37238 -0.021292 0.0043818 -3.4071e-06 0.0019935
0.0018515 0.00059433 0.0014144 0.00091465
0.0010901 0.0044384 -0.021297 0.0044828 0.34051 0.1134 0.0010181 -0.00093985
0.00062825 -0.00038444 0.00025014 0.00025403
-0.0020286 -0.00081077 2.2767e-06 0.0019965 0.0010063 -0.00094473 0.14077 0.23779
-0.0080615 -0.014094 0.0013139 0.00030598
0.0015616 0.0025956 0.0018553 0.00057602 0.0006236 -0.00038465 -0.0080927 -0.014093
0.06368 0.21797 -0.0037554 -0.013157
0.0018083 -0.0015893 0.0014167 0.00090051 0.00025433 0.00025444 0.0013042 0.0003098
-0.0037473 -0.013168 0.065078 0.3193
1400000000 0.25378 0.19447 -0.023148 -0.0069295 0.0052101 0.0029784 -0.0020647 0.00081338
0.0024947 0.00069594 0.00025525 -0.0014198
-0.02314 -0.006922 0.081829 0.35921 -0.014569 0.012352 0.0014112 0.0012662
0.0010052 -0.00088983 0.0012661 0.00030454
0.0052345 0.0029532 -0.014531 0.012446 0.35338 0.05977 4.4093e-05 -0.0015062
3.9655e-05 -0.00037837 0.00035624 0.00020052
-0.002067 0.0008193 0.0014236 0.0012596 4.5732e-05 -0.001506 0.17086 0.20935
-0.012839 -0.0079074 -0.00048663 -0.00060943
0.0024968 0.0006891 0.00099555 -0.00090579 3.5303e-05 -0.00037984 -0.012859 -0.0078899
0.096841 0.21353 -0.010048 -0.008187
0.00025387 -0.0014189 0.0012641 0.00029413 0.00035478 0.00020231 -0.00048367 -0.00060681
-0.010055 -0.0082025 0.11103 0.30931
1460000000 0.27627 0.15013 -0.02 0.0049518 0.0055686 -0.0017818 -0.0014887 0.001803
0.0020244 -0.00078863 -0.00031554 -0.00091826
-0.019991 0.0049606 0.11601 0.33731 -0.0059821 0.015145 0.0017489 0.00010485
0.0007665 -0.0011966 0.0012195 -0.00064693
0.0055646 -0.0018051 -0.0059169 0.015192 0.35924 0.005273 -0.0011383 -0.0012862
0.00029573 -0.00015162 0.00072789 -0.00052722
-0.0014874 0.0018064 0.0017509 9.7108e-05 -0.0011419 -0.0012852 0.198 0.18015
-0.01335 -0.0021697 -0.00089486 0.0016265
0.002027 -0.0008018 0.0007535 -0.0012135 0.00029546 -0.00015473 -0.013355 -0.0021441
0.12691 0.19894 -0.01149 -0.0025037
-0.00031037 -0.00091459 0.0012136 -0.00065984 0.00072772 -0.00053636 -0.00088779 0.0016309
-0.011508 -0.0025119 0.14484 0.28888
1520000000 0.28814 0.10813 -0.014284 0.010339 0.0031164 -0.0042619 0.0002055 0.0025781
0.001752 -0.0017841 -0.0012683 -0.00019433
-0.014269 0.010353 0.14942 0.32238 0.0015435 0.012933 0.001603 -0.00088324
2.7651e-05 -0.00089327 0.00033813 -0.0010992
0.003108 -0.0042718 0.0016194 0.012934 0.35234 -0.050802 -0.001011 -0.00035568
0.00057148 -0.00084395 -2.6164e-05 -0.00015474
0.00021583 0.002579 0.0016 -0.00088641 -0.0010055 -0.00035889 0.22195 0.14171
-0.01245 0.0024636 0.0012736 0.0018016
0.0017366 -0.0017913 2.6704e-05 -0.00089435 0.00056883 -0.00084864 -0.012455 0.0024926
0.15555 0.18445 -0.011419 0.0017828
-0.0012759 -0.00019262 0.00033562 -0.0011057 -2.8443e-05 -0.00015612 0.0012819 0.0018034
-0.01144 0.0017763 0.179 0.27001
1580000000 0.29696 0.06141 -0.00773 0.013197 -0.0010231 -0.0048723 0.0014437 0.0017792
-0.00054767 -0.0021315 -0.00039637 0.00046352
-0.007717 0.013216 0.17661 0.2975 0.0051297 0.008183 0.0003974 -0.0016132
-0.00040589 -0.00099189 -0.00026815 -0.00091485
-0.0010452 -0.0048752 0.005179 0.0081698 0.3319 -0.10836 -0.0015182 0.00047842
-0.00031324 -0.0011874 0.00010024 -0.00058377
0.0014573 0.0017776 0.000395 -0.0016162 -0.0015207 0.00048389 0.23652 0.10153
-0.0095366 0.0063359 0.0020125 0.00050128
-0.00056972 -0.0021306 -0.00042504 -0.000986 -0.00030821 -0.0011858 -0.0095267 0.0063608
0.18035 0.16596 -0.0088869 0.0070784
-0.00039445 0.00046782 -0.00027933 -0.00090912 9.7854e-05 -0.00058714 0.0020193 0.0005024
-0.0089023 0.0070769 0.21226 0.24372
1640000000 0.29829 0.01967 -0.0012333 0.012022 -0.0028491 -0.0025491 0.0025232 0.00096176
-0.00091898 -0.0011557 -0.00031154 0.00070661
-0.0012122 0.012024 0.20599 0.27228 0.0057637 0.003459 -0.00080532 -0.0016452
-0.00091823 -0.00049886 -0.00057396 -0.00068199
-0.00286 -0.0025408 0.0057932 0.0034289 0.30379 -0.15765 -0.00084681 0.0013314
-0.0011477 -0.00085102 -0.00015062 -0.00030745
0.0025312 0.00094828 -0.00082122 -0.0016415 -0.00084647 0.0013265 0.24904 0.051552
-0.0059989 0.007023 0.0022936 -0.00084314
-0.00092572 -0.001142 -0.00092918 -0.00047591 -0.0011537 -0.00084668 -0.0059955 0.0070496
0.20364 0.14044 -0.0041381 0.0092868
-0.00030632 0.00071213 -0.00058384 -0.00067984 -0.00015228 -0.00030885 0.0022922 -0.00085342
-0.004152 0.0092959 0.2391 0.21304
1700000000 0.29015 -0.025809 0.0021109 0.0092316 -0.0034385 0.00014661 0.0028973 -0.0011188
-0.0018875 -0.00032585 0.00069734 0.00045184
0.0021235 0.0092157 0.22404 0.24058 0.0038399 0.00068564 -0.0014327 -0.00049199
-0.00079258 -5.5068e-05 -0.00096992 -0.00039907
-0.0034445 0.00015935 0.0038523 0.00066135 0.25979 -0.19736 0.00037792 0.0016477
-0.0017833 -0.00011608 -0.00060014 -0.00093071
0.0028986 -0.0011349 -0.0014308 -0.00049087 0.00037769 0.0016454 0.24534 0.00062966
-0.0041091 0.0072839 0.0013404 -0.0021949
-0.0018958 -0.00030931 -0.00080703 -5.3228e-05 -0.0017835 -0.00011456 -0.0040965 0.0073053
0.22136 0.11854 0.00036841 0.0095246
0.00070613 0.00044547 -0.00097571 -0.0003988 -0.00060854 -0.00092854 0.0013391 -0.0022027
0.00036745 0.0095382 0.25686 0.17883
1760000000 0.27686 -0.074173 0.0042818 0.005984 -0.0022637 0.00087316 0.0013418 -0.0033242
-0.00096255 0.00076572 0.00034591 -0.00055133
0.0042977 0.0059673 0.24984 0.20039 0.0017265 -0.0010693 -0.0011028 0.00027365
-0.0012068 0.00085352 -0.00061396 0.00054159
-0.0022595 0.00088579 0.0017143 -0.0010869 0.21092 -0.23047 0.0011948 0.0013005
-0.0011476 0.0014724 -0.0013511 -0.00030581
0.001325 -0.0033308 -0.0010991 0.00027524 0.0011866 0.0013024 0.23502 -0.051657
-0.0016798 0.0067227 -0.00047639 -0.0023331
-0.00095286 0.00077787 -0.0012111 0.0008626 -0.0011431 0.0014805 -0.0016559 0.0067334
0.23633 0.081851 0.0041973 0.0066414
0.00034215 -0.00055967 -0.00060615 0.00054713 -0.0013512 -0.00029699 -0.00048312 -0.0023339
0.004206 0.0066494 0.27015 0.14118
1820000000 0.25139 -0.11104 0.004433 0.0025049 -0.0001069 0.0024527 -0.00090649 -0.0030435
-0.00072403 0.00069029 3.0522e-05 -0.00017799
0.0044343 0.0024937 0.25946 0.17005 -0.00026663 -8.4468e-05 -0.0012186 0.00090986
-0.00018258 0.0014485 -0.00049517 0.00056369
-9.527e-05 0.0024575 -0.00026632 -8.3493e-05 0.16083 -0.24618 0.0016111 0.00048781
-0.00025633 0.002174 -0.0014083 0.00053448
-0.00093004 -0.0030425 -0.0012122 0.00091811 0.0016132 0.00049099 0.20366 -0.098989
-0.00066795 0.0053992 -0.0017877 -0.0015621
-0.00071408 0.00069159 -0.00016315 0.001442 -0.00025914 0.002179 -0.00064837 0.0054139
0.25248 0.050446 0.0051594 0.0030198
3.0302e-05 -0.00018294 -0.00049286 0.00056698 -0.0014096 0.0005411 -0.0017886 -0.0015542
0.0051657 0.0030345 0.27356 0.10507
1880000000 0.21553 -0.15044 0.0022103 0.00033015 -0.00039196 0.0022132 -0.0028072 -0.0022472
-0.00017204 0.001333 0.0002731 -0.00057592
0.0022065 0.00031267 0.26348 0.1233 -0.0022743 0.0015627 -0.00010107 0.0016798
0.0006428 0.0014935 0.00026355 0.00099986
-0.00037734 0.0022258 -0.0022591 0.0015786 0.10868 -0.25563 0.0019664 -0.0010218
0.0015165 0.0019989 -0.00080972 0.0014245
-0.0028228 -0.0022364 -9.2219e-05 0.0016832 0.0019702 -0.0010149 0.16179 -0.13833
-0.00055063 0.0040716 -0.0025024 0.00069814
-0.00016441 0.0013322 0.00064965 0.0014812 0.0015267 0.0020003 -0.00053618 0.0040817
0.25385 0.015598 0.0046483 0.00093524
0.00026758 -0.00058466 0.0002716 0.00099811 -0.00080335 0.0014292 -0.0025005 0.00070432
0.0046608 0.00095552 0.2742 0.070766
1940000000 0.17576 -0.17537 -7.6537e-05 -0.0014138 0.0014034 0.0020254 -0.0037577 0.00045059
0.0011455 0.00093287 -0.00069953 -0.00061894
-8.3548e-05 -0.0014282 0.26344 0.091387 -0.001257 0.0038277 0.00098436 0.0012402
0.0021109 0.0006255 0.00087592 0.00022793
0.0014189 0.0020174 -0.001237 0.0038426 0.06236 -0.2493 0.00029881 -0.0024813
0.0024742 0.00041301 0.00028273 0.0015936
-0.0037494 0.00047314 0.0010005 0.0012427 0.00029937 -0.002479 0.1085 -0.16727
-0.0018748 0.0035769 -0.0014067 0.0018236
0.0011511 0.00092587 0.0021215 0.00060842 0.0024694 0.00040966 -0.0018683 0.0035802
0.25314 -0.025088 0.0032707 -0.002351
-0.00070956 -0.00061156 0.00087527 0.00021884 0.00028435 0.0015967 -0.0014068 0.00183
0.0032869 -0.0023495 0.26387 0.034994
2000000000 0.12976 -0.18887 -0.0039422 0.00072126 0.002437 0.0015866 -0.0023587 0.003602
0.00085788 0.00026881 -0.00066506 0.00046652
-0.0039532 0.00071098 0.24869 0.056045 -0.0010334 0.0057602 0.0015802 0.00018152
0.0016898 -0.0015591 0.00054211 0.00015193
0.0024445 0.0015756 -0.0009969 0.0057702 0.018741 -0.23457 -0.0015685 -0.0015354
0.002054 -0.0012687 0.0016589 0.0013651
-0.0023386 0.0036066 0.0015809 0.0001699 -0.0015746 -0.0015257 0.055275 -0.17577
-0.0033899 0.0043194 5.9646e-05 0.002455
0.0008578 0.00025461 0.0016684 -0.0015788 0.0020471 -0.0012701 -0.003375 0.0043299
0.244 -0.060153 -0.00018061 -0.0029316
