!Keysight Technologies,M9804A,MY58100912,A.14.10.03
!Date: Thursday, April 27, 2023 10:28:33
!Correction: S11(C  6-Port  ) 
!S12(C  6-Port  ) 
!S13(C  6-Port  ) 
!S14(C  6-Port  ) 
!S15(C  6-Port  ) 
!S16(C  6-Port  ) 
!S21(C  6-Port  ) 
!S22(C  6-Port  ) 
!S23(C  6-Port  ) 
!S24(C  6-Port  ) 
!S25(C  6-Port  ) 
!S26(C  6-Port  ) 
!S31(C  6-Port  ) 
!S32(C  6-Port  ) 
!S33(C  6-Port  ) 
!S34(C  6-Port  ) 
!S35(C  6-Port  ) 
!S36(C  6-Port  ) 
!S41(C  6-Port  ) 
!S42(C  6-Port  ) 
!S43(C  6-Port  ) 
!S44(C  6-Port  ) 
!S45(C  6-Port  ) 
!S46(C  6-Port  ) 
!S51(C  6-Port  ) 
!S52(C  6-Port  ) 
!S53(C  6-Port  ) 
!S54(C  6-Port  ) 
!S55(C  6-Port  ) 
!S56(C  6-Port  ) 
!S61(C  6-Port  ) 
!S62(C  6-Port  ) 
!S63(C  6-Port  ) 
!S64(C  6-Port  ) 
!S65(C  6-Port  ) 
!S66(C  6-Port  ) 
!S6P File: Measurement: :
# Hz S  RI   R 50
500000000 -0.33718 -0.034273 -0.009975 -0.0036312 -0.0078838 0.011933 -0.0037544 0.011725
0.011854 0.00457 -0.0040912 0.008595
-0.0099541 -0.0036195 -0.4198 -0.049332 0.0070201 -0.011342 0.0012594 0.011888
0.0072769 0.0026208 0.00055661 0.01323
-0.0078648 0.011945 0.0070128 -0.011351 -0.26567 0.21209 0.0067178 0.0034629
-0.00026971 0.0087371 0.00014737 0.012065
-0.0037353 0.011727 0.0012809 0.011904 0.0067169 0.0034586 -0.32803 0.048148
-0.02012 -0.004455 0.017557 0.026618
0.011874 0.0045358 0.0072848 0.0025966 -0.00026168 0.0087499 -0.020128 -0.0044372
-0.22727 -0.18414 -0.028908 0.0054041
-0.0040675 0.0086032 0.00058089 0.013254 0.00014573 0.012065 0.017561 0.026604
-0.028906 0.0053598 -0.26699 -0.14539
560000000 -0.31614 0.12523 -0.024174 -0.06305 0.00057358 0.012471 0.0060862 0.0097697
0.010819 0.0046513 0.00989 0.0076347
-0.02411 -0.062969 -0.37785 0.10945 -0.041688 -0.036441 0.013568 0.0041841
-0.013268 -0.0046831 0.0042044 -0.00044482
0.00059115 0.012446 -0.041817 -0.036378 -0.18292 0.26008 -0.00030177 -0.0047926
0.018982 0.0046636 0.0071976 -0.0059111
0.0061074 0.0097671 0.013587 0.0041672 -0.00030119 -0.0047976 -0.30328 0.13653
0.0034926 -0.024337 0.0054314 -0.019716
0.010815 0.0046432 -0.013292 -0.0046577 0.018986 0.0046487 0.003464 -0.024343
-0.28667 -0.0086939 0.0074986 -0.051272
0.0099241 0.0076211 0.0041906 -0.00046973 0.0072055 -0.0059105 0.0054383 -0.019717
0.0075049 -0.051282 -0.33503 0.006287
620000000 -0.27296 0.10987 -0.023276 0.0076574 0.0035147 0.0083545 0.0067443 -0.0056938
0.011779 -0.00063346 0.00067702 -0.0018623
-0.023253 0.0076473 -0.40279 0.063427 -0.018722 0.00021364 -0.0011373 -0.0020274
0.010434 -0.0068331 0.0011237 -0.0024846
0.0035246 0.0083337 -0.018736 0.00026239 -0.15238 0.26904 -0.0013624 -0.0052366
-0.0036716 -0.0032291 0.0082776 -0.0033146
0.0067545 -0.0057164 -0.0011504 -0.0020223 -0.0013634 -0.0052379 -0.26164 0.14698
-0.03896 -0.018731 0.014264 0.024603
0.011781 -0.00063237 0.010429 -0.0068812 -0.0036741 -0.0032272 -0.038983 -0.018699
-0.20527 -0.047553 -0.041478 0.016098
0.00067816 -0.0018597 0.0011197 -0.0024869 0.0082735 -0.0033132 0.01426 0.024593
-0.041504 0.016076 -0.24944 -0.03501
680000000 -0.23291 0.19413 -0.027933 -0.013501 0.0047611 0.0048961 0.0012319 -0.0074537
-0.0030311 -0.011169 0.0049747 -0.0070848
-0.027903 -0.013505 -0.38685 0.16042 -0.032533 -0.0011753 -0.0015241 -0.00030617
-0.0026386 -0.0091897 -0.00087442 -0.002038
0.0047673 0.0048824 -0.032575 -0.0010871 -0.10129 0.2881 -0.00073635 -4.3091e-05
-0.0022439 0.00045716 -0.0028959 -0.0097414
0.0012214 -0.0074504 -0.0015212 -0.00030228 -0.00073317 -4.2272e-05 -0.21797 0.19631
-0.023709 -0.0074651 -0.01066 -0.010541
-0.0030707 -0.011161 -0.0026832 -0.0091859 -0.0022427 0.00045752 -0.02373 -0.0074485
-0.25299 0.050771 -0.0052565 -0.0093151
0.0049556 -0.0071005 -0.00088102 -0.0020399 -0.0029021 -0.0097454 -0.01069 -0.01053
-0.0052772 -0.0093164 -0.26453 0.075429
740000000 -0.18921 0.18887 -0.037918 0.026818 0.012606 -0.0051916 -0.00059524 -0.0039596
-0.0044608 -0.0030237 -0.0063019 0.0032157
-0.037908 0.026783 -0.33437 0.17898 -0.034619 0.035112 -0.0010304 -0.0063519
-0.011698 0.0080944 -0.0030429 -0.006624
0.012579 -0.0052207 -0.034571 0.03525 -0.067576 0.28662 -0.0016663 0.0033372
-0.0027488 -0.0039927 -0.0010347 -8.641e-05
-0.00058853 -0.0039554 -0.0010394 -0.0063663 -0.0016565 0.0033451 -0.20185 0.20395
-0.042225 -0.0073612 0.022779 0.013958
-0.0044561 -0.0030148 -0.01168 0.0081453 -0.0027468 -0.0039831 -0.042267 -0.0073006
-0.15591 0.074186 -0.042786 0.0014898
-0.0062944 0.003214 -0.0030403 -0.006642 -0.0010443 -8.546e-05 0.022781 0.013926
-0.04278 0.001487 -0.25775 0.08048
800000000 -0.15668 0.22895 -0.022166 0.017351 0.0051999 -0.010546 -0.0047041 -0.0020505
-0.0039902 0.0025701 0.0044545 0.00080853
-0.02215 0.017341 -0.33689 0.24898 -0.0076465 0.033909 -0.0021932 0.0022503
-0.00081268 0.003454 0.0010585 0.0053626
0.0051778 -0.010558 -0.0075467 0.033956 -0.026506 0.30923 0.0011115 0.0016389
0.00059914 0.0036223 -0.0017446 0.00090325
-0.0047111 -0.0020442 -0.0021853 0.0022567 0.0011079 0.0016392 -0.17342 0.2313
-0.027948 0.013008 0.01382 -0.010246
-0.0039815 0.0025962 -0.00079431 0.0034519 0.00060644 0.0036264 -0.027958 0.013069
-0.19959 0.098445 -0.017723 0.018232
0.0044525 0.00079185 0.0010717 0.0053698 -0.0017477 0.00089914 0.013819 -0.010278
-0.017732 0.018247 -0.25139 0.13635
860000000 -0.12206 0.24982 -0.016839 0.031099 -0.0033118 -0.0098292 -0.0024853 0.0012913
0.0041026 0.0051646 -0.0031277 -0.0029491
-0.01685 0.031072 -0.28897 0.29076 0.0082656 0.033936 0.00020538 0.0021353
0.0043991 0.00047516 0.0031901 0.00035185
-0.0033367 -0.0098277 0.0083758 0.033933 0.021656 0.31683 -0.00026374 -0.0002959
0.0028382 -0.001632 0.0017086 0.0045094
-0.0024843 0.0012914 0.00021699 0.0021398 -0.00026533 -0.00029834 -0.1376 0.24283
-0.017345 0.018713 -0.006102 -0.0093436
0.0041231 0.005157 0.0044119 0.00046252 0.0028437 -0.001637 -0.017329 0.018756
-0.14965 0.14643 -0.024669 0.015998
-0.0031349 -0.0029401 0.0031852 0.00033521 0.0017041 0.0045098 -0.0061045 -0.0093332
-0.024691 0.01599 -0.19941 0.18157
920000000 -0.096542 0.27262 0.0055683 0.037451 -0.0093147 -0.0043423 -0.0017827 0.0021277
0.0013681 0.0016475 0.0026563 -0.0015145
0.005538 0.037425 -0.25977 0.31127 0.028031 0.021409 0.0016328 0.001103
0.0069737 -0.00050555 0.0040232 -0.0030709
-0.0093298 -0.0043173 0.028124 0.021333 0.067875 0.31722 0.0018349 -0.00014894
0.0012751 -0.00051061 0.00070143 -0.001236
-0.0017846 0.0021241 0.0016428 0.0011057 0.0018299 -0.00014727 -0.11325 0.25895
-0.01 0.029806 0.0030609 -0.0068099
0.0013642 0.001644 0.0070033 -0.0005396 0.0012674 -0.00050356 -0.0099433 0.02985
-0.13979 0.15228 -0.0011007 0.027951
0.002644 -0.0015366 0.0040084 -0.0030776 0.00069937 -0.0012365 0.0030703 -0.0068141
-0.0011101 0.027955 -0.21026 0.19476
980000000 -0.049124 0.29171 0.01801 0.029451 -0.0088121 0.0045416 0.0023329 0.0035741
0.0039756 -0.0017333 -0.0030868 -0.0021143
0.017974 0.029438 -0.20701 0.34458 0.032733 0.0043837 0.0020161 -0.00011758
0.0011628 -0.0062108 -0.00046778 -0.0022207
-0.0088059 0.0045769 0.032784 0.0042609 0.11408 0.31033 0.00044522 -0.0012653
7.1058e-05 -0.0021784 0.0014572 -4.5765e-05
0.0023358 0.0035661 0.0020259 -0.00010408 0.00043512 -0.0012561 -0.075065 0.26975
0.0078854 0.02833 -0.0094534 -0.0070088
0.0039572 -0.0017548 0.0011631 -0.0062245 6.2608e-05 -0.0021804 0.0079552 0.028339
-0.1075 0.17927 0.0051065 0.018775
-0.0030972 -0.0021035 -0.00050438 -0.0022014 0.0014589 -5.6415e-05 -0.0094491 -0.0069874
0.0050893 0.018775 -0.16685 0.24306
1040000000 -0.0064553 0.29986 0.033225 0.017352 -0.0012424 0.006679 0.0026816 0.00073395
1.0294e-05 -0.0037391 -0.00055416 -0.0016811
0.033185 0.017359 -0.17162 0.35758 0.028851 -0.015 0.00146 -0.0017633
-0.0026111 -0.0024942 -0.0014762 -0.0029152
-0.0012196 0.0067029 0.028811 -0.015134 0.16019 0.29646 -0.00053608 -0.0014217
-0.0016257 -0.00082578 -0.00058436 -0.0011637
0.0026797 0.00071998 0.0014805 -0.0017578 -0.00053341 -0.0014151 -0.047888 0.27993
0.018264 0.016693 -0.0030399 0.0018701
-2.9764e-05 -0.00374 -0.0025924 -0.0025049 -0.0016316 -0.00082964 0.018329 0.016664
-0.076964 0.18728 0.013623 0.017752
-0.00056317 -0.0016894 -0.0014949 -0.0028914 -0.00059313 -0.0011716 -0.0030338 0.0018815
0.013613 0.017746 -0.14785 0.26539
1100000000 0.038926 0.3071 0.035347 -0.0048652 0.002726 0.0036952 0.0025264 -0.0013119
-0.0020846 -0.0031098 -0.0041149 8.9956e-05
0.035314 -0.0048315 -0.1282 0.3744 0.014655 -0.027655 -2.5689e-05 -0.0018513
-0.0032897 -0.00053918 -0.0035786 -0.00049946
0.0027402 0.0036941 0.01455 -0.027739 0.20648 0.27581 -0.0018355 0.00024299
-0.0017246 0.00070375 -0.0010662 -0.00025719
0.0025182 -0.0013209 -1.7146e-05 -0.0018476 -0.0018366 0.0002453 -0.0075411 0.28471
0.022657 0.0047188 -0.0025891 0.00068913
-0.0021029 -0.0031077 -0.0032948 -0.00053036 -0.0017256 0.00070729 0.022695 0.0046649
-0.058864 0.20007 0.019185 0.0083795
-0.00411 0.00010026 -0.0035896 -0.00047854 -0.0010727 -0.00025152 -0.002582 0.00069336
0.019185 0.0083843 -0.1009 0.29651
1160000000 0.090477 0.3017 0.023332 -0.020998 0.0024917 -0.00043218 -2.9663e-05 -0.0024612
-0.0041118 -0.00048895 -0.0011598 0.0042327
0.02333 -0.020966 -0.084482 0.37845 -0.0040785 -0.028713 -0.0018008 -0.0016166
-0.0024948 0.0027102 -0.0013939 0.0017004
0.0024854 -0.00043568 -0.0042076 -0.028729 0.24941 0.24467 -0.00063661 0.001793
-0.00035781 0.0018851 -0.0009608 0.0001855
-2.485e-05 -0.0024576 -0.0017956 -0.0016109 -0.00063604 0.001795 0.031571 0.28196
0.019095 -0.0099897 -0.0030857 0.0054987
-0.0041271 -0.0004929 -0.0024783 0.0027317 -0.00035768 0.0018787 0.019101 -0.010051
-0.026081 0.20893 0.017646 0.00043067
-0.0011227 0.0042345 -0.0013982 0.0017159 -0.00096128 0.00019246 -0.0030778 0.005494
0.017651 0.00042364 -0.053686 0.29992
1220000000 0.13493 0.28994 0.0096464 -0.029827 -0.0016163 -0.00058704 -6.1984e-05 -0.0011799
-0.0025662 0.0025627 0.0012992 0.0019919
0.0096524 -0.029784 -0.040283 0.39006 -0.016887 -0.020685 -0.0025197 0.00044358
0.00028049 0.0029798 -0.00067306 0.0017986
-0.0016186 -0.00058186 -0.016989 -0.020636 0.28832 0.20538 0.00089045 0.0016395
0.00062017 0.0011634 0.00037748 0.00079143
-5.4585e-05 -0.0011801 -0.0025269 0.00045815 0.00088917 0.0016426 0.071183 0.27366
0.0090132 -0.015573 0.0024891 0.0018518
-0.0025673 0.0025677 0.00029738 0.0029944 0.00062505 0.0011608 0.0089812 -0.015607
-0.0030863 0.21846 0.013552 -0.012826
0.0013113 0.0019878 -0.00066908 0.0018069 0.00037966 0.00079063 0.0024821 0.0018443
0.013559 -0.012831 -0.022705 0.31956
1280000000 0.18436 0.26733 -0.0083578 -0.027876 -0.0017462 0.0027401 -0.0011055 -0.0020618
-0.00057237 0.0031471 0.0027329 0.0011428
-0.0083322 -0.027848 0.0054607 0.38091 -0.023539 -0.0081813 -0.0010175 0.0015359
0.0017129 0.001666 0.00058652 0.0020944
-0.001738 0.0027522 -0.023609 -0.0080778 0.31862 0.16142 0.0014765 -0.00017049
0.0010515 6.045e-05 0.00040116 0.00038161
-0.0011108 -0.002061 -0.0010142 0.0015436 0.0014692 -0.00016498 0.10764 0.2577
0.00015531 -0.017185 0.00032204 0.00038586
-0.0005618 0.0031498 0.0017323 0.0016644 0.0010572 5.8538e-05 9.7555e-05 -0.017206
0.033445 0.22235 0.0026188 -0.014635
0.0027365 0.0011331 0.00059469 0.002084 0.00040314 0.00038598 0.00031453 0.00038063
0.0026219 -0.014631 0.025796 0.32224
1340000000 0.22117 0.23309 -0.0178 -0.018293 0.0010778 0.0044481 -0.0020175 -0.00080636
0.0015369 0.002587 0.0018054 -0.001592
-0.017768 -0.018293 0.044889 0.37239 -0.021284 0.0043992 -5.9258e-06 0.0020005
0.0018393 0.00059077 0.0014042 0.0009094
0.0010973 0.0044492 -0.021283 0.004502 0.34052 0.11339 0.0010107 -0.00093816
0.00062128 -0.00038571 0.00024924 0.00025279
-0.0020203 -0.00080684 4.7301e-06 0.0020066 0.0010158 -0.00094126 0.14071 0.23781
-0.00802 -0.014153 0.0013338 0.0002913
0.001551 0.0025891 0.0018504 0.00058979 0.00062506 -0.00038854 -0.0080835 -0.014138
0.063852 0.21815 -0.0037351 -0.01307
0.0018003 -0.0015915 0.0014172 0.00090807 0.00025116 0.00025151 0.0013243 0.00029499
-0.0037326 -0.013074 0.065175 0.31934
1400000000 0.25376 0.19446 -0.023145 -0.0068897 0.0052294 0.002982 -0.0020549 0.00080452
0.0024781 0.00069335 0.00025155 -0.0014179
-0.023111 -0.0069097 0.081897 0.35923 -0.014567 0.012358 0.0014073 0.0012644
0.00099197 -0.00089064 0.0012595 0.0002998
0.0052407 0.0029578 -0.014529 0.012443 0.35336 0.05976 4.4836e-05 -0.0015092
3.5897e-05 -0.0003803 0.00035316 0.00019848
-0.0020663 0.00081859 0.0014275 0.0012595 4.1522e-05 -0.0015139 0.17085 0.20938
-0.012841 -0.0079754 -0.00047341 -0.00063304
0.0024828 0.00068578 0.00098707 -0.00089799 3.9037e-05 -0.00037992 -0.012888 -0.0079312
0.097068 0.21364 -0.010005 -0.0081236
0.00024218 -0.0014137 0.001265 0.00029769 0.00035345 0.00019201 -0.0004853 -0.00062968
-0.009997 -0.0081285 0.11115 0.30934
1460000000 0.27628 0.1501 -0.019979 0.0049862 0.0055822 -0.0017845 -0.0014841 0.0017945
0.0020167 -0.00078026 -0.00031478 -0.00091337
-0.019953 0.0049649 0.11604 0.33728 -0.0059843 0.015143 0.0017508 9.9053e-05
0.00076754 -0.0011951 0.0012161 -0.00064736
0.0055733 -0.0018108 -0.005913 0.01519 0.35924 0.0052828 -0.001154 -0.0012836
0.00029388 -0.00015473 0.00072653 -0.00053787
-0.00148 0.0017943 0.0017488 9.3518e-05 -0.001151 -0.0012857 0.19797 0.18019
-0.013385 -0.002218 -0.0008979 0.0015991
0.0020212 -0.00079042 0.00075421 -0.0012061 0.00029722 -0.00015051 -0.013408 -0.0021672
0.1272 0.19895 -0.011415 -0.002479
-0.00032252 -0.00090835 0.0012292 -0.00065714 0.00073965 -0.00054096 -0.00091495 0.0016123
-0.011407 -0.0024759 0.14495 0.28885
1520000000 0.28813 0.10811 -0.014249 0.010358 0.0031384 -0.0042644 0.00020303 0.0025592
0.0017473 -0.0017604 -0.0012655 -0.00019411
-0.014245 0.010333 0.14946 0.32238 0.0015526 0.012922 0.0015976 -0.00087552
4.251e-05 -0.00088783 0.00034296 -0.0010972
0.0031128 -0.0042838 0.001617 0.012924 0.35232 -0.05081 -0.001006 -0.00035263
0.00057339 -0.00083845 -2.7596e-05 -0.00015182
0.00021727 0.0025739 0.0015939 -0.00089585 -0.0010079 -0.0003501 0.22195 0.14178
-0.012508 0.0024416 0.0012529 0.0017822
0.0017501 -0.001787 2.7315e-05 -0.00089131 0.00057383 -0.00084626 -0.012509 0.0025026
0.15576 0.18434 -0.011344 0.0017744
-0.0012769 -0.00018787 0.0003326 -0.0011052 -2.6363e-05 -0.00015284 0.0012593 0.0017897
-0.011332 0.0017759 0.17912 0.26999
1580000000 0.29697 0.0614 -0.0076957 0.013196 -0.0010229 -0.0048882 0.0014453 0.0017726
-0.0005424 -0.0021198 -0.00039011 0.00046201
-0.007696 0.013178 0.17662 0.29746 0.0051332 0.0081805 0.00039247 -0.0016177
-0.00040652 -0.00099708 -0.0002703 -0.00091492
-0.0010468 -0.0048826 0.0051756 0.0081645 0.33192 -0.10836 -0.0015102 0.00048261
-0.00030661 -0.0011778 0.00010346 -0.00058159
0.0014555 0.0017731 0.00038167 -0.0016187 -0.0015195 0.00047965 0.23657 0.10157
-0.009588 0.006344 0.0019836 0.00048828
-0.00055626 -0.0021349 -0.00040765 -0.00098758 -0.00031545 -0.0011886 -0.0095721 0.0064047
0.18051 0.16579 -0.0088227 0.0070342
-0.00038875 0.00046569 -0.00028264 -0.00091257 9.8968e-05 -0.000586 0.0019903 0.00049319
-0.0088132 0.0070228 0.21236 0.24365
1640000000 0.29829 0.019635 -0.0012035 0.012004 -0.0028592 -0.0025574 0.0025199 0.00095337
-0.00090113 -0.0011542 -0.00030639 0.00070193
-0.0012158 0.011995 0.20596 0.27226 0.0057624 0.0034495 -0.00080989 -0.0016452
-0.00092252 -0.00050118 -0.00057929 -0.00067909
-0.0028637 -0.0025484 0.0057854 0.0034217 0.3038 -0.15764 -0.00084282 0.0013321
-0.0011422 -0.00085406 -0.00015005 -0.0003057
0.0025316 0.00095225 -0.00082024 -0.0016366 -0.00084806 0.0013298 0.24906 0.051591
-0.0060416 0.0070517 0.0022519 -0.00083796
-0.00091823 -0.0011516 -0.00091669 -0.00048757 -0.0011563 -0.00085152 -0.0060064 0.0071019
0.20374 0.1402 -0.0040988 0.0092103
-0.00030506 0.0007061 -0.00058638 -0.00068086 -0.00015261 -0.00030455 0.0022683 -0.00083999
-0.0041029 0.0092029 0.2392 0.21294
1700000000 0.29017 -0.02584 0.0021183 0.0092053 -0.0034553 0.0001398 0.0029002 -0.0011051
-0.0018864 -0.00034368 0.00069512 0.00044477
0.0021082 0.0091927 0.22405 0.24057 0.0038377 0.00067956 -0.0014381 -0.00049018
-0.00080785 -6.0379e-05 -0.00097527 -0.00040852
-0.0034539 0.00015786 0.0038458 0.00066001 0.25979 -0.19736 0.00038264 0.001645
-0.0017853 -0.00012047 -0.00059582 -0.00093671
0.0029029 -0.0011276 -0.0014379 -0.0004826 0.00038166 0.0016456 0.24541 0.00061577
-0.0041224 0.0073257 0.0013091 -0.0021744
-0.001891 -0.00031786 -0.00080579 -5.3495e-05 -0.0017848 -0.00011952 -0.0040799 0.0073549
0.22131 0.11834 0.00037337 0.0094484
0.0007011 0.00043996 -0.00098323 -0.00040327 -0.00060927 -0.00093198 0.0013222 -0.0021843
0.00036914 0.0094401 0.25692 0.17873
1760000000 0.27686 -0.074219 0.0042809 0.0059602 -0.0022765 0.00087432 0.0013493 -0.0033197
-0.00097919 0.00075726 0.00034084 -0.00055411
0.0042835 0.005961 0.24981 0.20039 0.0017149 -0.0010665 -0.0010908 0.00026949
-0.0012189 0.00086276 -0.00062105 0.00054781
-0.0022669 0.0008853 0.0017114 -0.0010791 0.21092 -0.23049 0.0011824 0.0012903
-0.0011533 0.0014732 -0.0013579 -0.00029791
0.0013309 -0.0033313 -0.0010854 0.00027934 0.0011756 0.0013011 0.23505 -0.051711
-0.0016785 0.0067595 -0.00048867 -0.0023004
-0.00096318 0.00077513 -0.0012161 0.00087334 -0.0011461 0.0014834 -0.0016292 0.0067638
0.23626 0.081677 0.0041718 0.0065821
0.00033347 -0.00055929 -0.00061462 0.00054567 -0.0013521 -0.00029739 -0.00047542 -0.0023113
0.0041639 0.0065749 0.27018 0.14108
1820000000 0.2514 -0.11106 0.0044193 0.0024913 -0.00011043 0.002452 -0.00089833 -0.0030549
-0.00073377 0.00069658 2.8727e-05 -0.00017616
0.0044097 0.002494 0.25945 0.17006 -0.00027037 -8.3917e-05 -0.0012124 0.00090834
-0.00017367 0.0014489 -0.00049432 0.00056348
-0.000103 0.0024461 -0.00026628 -8.526e-05 0.16081 -0.24619 0.001613 0.0004883
-0.0002539 0.0021737 -0.0014009 0.00053713
-0.00092191 -0.0030413 -0.0012092 0.00091544 0.0016147 0.00049221 0.2037 -0.099025
-0.00066574 0.0054253 -0.0017754 -0.0015221
-0.00072145 0.00070137 -0.00016859 0.0014449 -0.00025574 0.0021757 -0.00061679 0.0054184
0.25236 0.05032 0.0051157 0.0029819
2.5542e-05 -0.00017508 -0.00048935 0.00056794 -0.0014063 0.00054208 -0.001777 -0.0015308
0.0051042 0.0029881 0.27361 0.10499
1880000000 0.21554 -0.15049 0.0021989 0.00032127 -0.00039038 0.0022258 -0.0028088 -0.0022586
-0.00017202 0.0013558 0.00028141 -0.00056947
0.002191 0.00031687 0.26347 0.1233 -0.0022715 0.0015724 -0.0001055 0.0016792
0.00064918 0.0014874 0.00026286 0.0010017
-0.00037193 0.0022285 -0.0022635 0.0015836 0.10869 -0.25563 0.0019684 -0.0010176
0.0015187 0.0020037 -0.00081 0.0014257
-0.0028172 -0.0022392 -9.5874e-05 0.0016738 0.0019654 -0.001012 0.16176 -0.13841
-0.00053479 0.0041054 -0.0024689 0.00071919
-0.00015564 0.0013433 0.0006583 0.0014855 0.0015289 0.0019951 -0.00050689 0.0040716
0.25371 0.01553 0.0045883 0.00092541
0.0002747 -0.00057696 0.00027603 0.00098861 -0.00081233 0.0014232 -0.0024796 0.00071252
0.0045911 0.00093361 0.27424 0.070684
1940000000 0.17573 -0.17539 -8.9586e-05 -0.0014084 0.0014038 0.0020294 -0.0037572 0.00045074
0.0011598 0.00094073 -0.0006926 -0.00061997
-9.3064e-05 -0.0014123 0.26341 0.091393 -0.0012577 0.0038424 0.00098333 0.0012436
0.0021221 0.00061076 0.00087889 0.00022646
0.001429 0.0020202 -0.0012325 0.0038443 0.062364 -0.24931 0.00029661 -0.0024846
0.0024665 0.00040382 0.00028196 0.0016086
-0.0037552 0.00047721 0.00099233 0.0012376 0.00029759 -0.002474 0.10846 -0.16731
-0.0018412 0.0036014 -0.0013707 0.0018188
0.0011579 0.00092051 0.0021286 0.00059845 0.00247 0.00040785 -0.0018394 0.0035708
0.25302 -0.025094 0.0032179 -0.0023377
-0.00070038 -0.00061475 0.0008746 0.00021595 0.0002832 0.0016011 -0.0013838 0.001814
0.0032175 -0.0023323 0.26389 0.034923
2000000000 0.12972 -0.18891 -0.0039584 0.00072153 0.0024333 0.001597 -0.0023732 0.0035991
0.00087655 0.00026059 -0.00066417 0.00045779
-0.0039601 0.00072203 0.24871 0.05604 -0.0010341 0.0057616 0.0015739 0.00018699
0.0016749 -0.0015724 0.00054038 0.00014958
0.0024476 0.0015795 -0.00099721 0.0057669 0.018749 -0.23457 -0.0015728 -0.0015341
0.0020468 -0.0012729 0.0016626 0.0013696
-0.0023468 0.0036162 0.0015777 0.00017191 -0.0015695 -0.0015357 0.055241 -0.17578
-0.0033505 0.0043214 9e-05 0.0024303
0.00087088 0.00024951 0.0016654 -0.001588 0.0020436 -0.0012636 -0.0033534 0.0043078
