!Keysight Technologies,M9804A,MY58100912,A.14.10.03
!Date: Thursday, April 27, 2023 10:28:33
!Correction: S11(C  6-Port  ) 
!S12(C  6-Port  ) 
!S13(C  6-Port  ) 
!S14(C  6-Port  ) 
!S15(C  6-Port  ) 
!S16(C  6-Port  ) 
!S21(C  6-Port  ) 
!S22(C  6-Port  ) 
!S23(C  6-Port  ) 
!S24(C  6-Port  ) 
!S25(C  6-Port  ) 
!S26(C  6-Port  ) 
!S31(C  6-Port  ) 
!S32(C  6-Port  ) 
!S33(C  6-Port  ) 
!S34(C  6-Port  ) 
!S35(C  6-Port  ) 
!S36(C  6-Port  ) 
!S41(C  6-Port  ) 
!S42(C  6-Port  ) 
!S43(C  6-Port  ) 
!S44(C  6-Port  ) 
!S45(C  6-Port  ) 
!S46(C  6-Port  ) 
!S51(C  6-Port  ) 
!S52(C  6-Port  ) 
!S53(C  6-Port  ) 
!S54(C  6-Port  ) 
!S55(C  6-Port  ) 
!S56(C  6-Port  ) 
!S61(C  6-Port  ) 
!S62(C  6-Port  ) 
!S63(C  6-Port  ) 
!S64(C  6-Port  ) 
!S65(C  6-Port  ) 
!S66(C  6-Port  ) 
!S6P File: Measurement: :
# Hz S  RI   R 50
500000000 -0.33715 -0.034449 -0.01032 -0.0036245 -0.0081095 0.012081 -0.0038442 0.01168
0.012244 0.004561 -0.0041148 0.0081553
-0.010274 -0.0036085 -0.41969 -0.049117 0.0071205 -0.011253 0.00135 0.012032
0.0071311 0.0024414 0.00046555 0.013447
-0.0080891 0.012056 0.0070866 -0.011282 -0.26552 0.21215 0.0069123 0.0034064
-0.00061001 0.008745 0.00032873 0.01211
-0.0038487 0.01168 0.001371 0.012036 0.0069059 0.0034196 -0.32784 0.04847
-0.020022 -0.0044625 0.017635 0.026928
0.012266 0.0045088 0.0071205 0.0024157 -0.00059775 0.0087181 -0.020014 -0.0044479
-0.22763 -0.18382 -0.028683 0.0051683
-0.0041072 0.0081198 0.00050864 0.013432 0.00033827 0.012112 0.017612 0.026918
-0.028699 0.0051599 -0.26686 -0.14485
560000000 -0.3161 0.12537 -0.024052 -0.06263 0.0004307 0.012332 0.0061715 0.0098217
0.010761 0.0045626 0.0099047 0.0079344
-0.023951 -0.062546 -0.37719 0.10941 -0.042009 -0.03629 0.013608 0.0038
-0.013421 -0.0039526 0.0043095 -0.00054683
0.00041321 0.012306 -0.042179 -0.036242 -0.18282 0.26018 -0.00024014 -0.0046682
0.018898 0.0043295 0.0070473 -0.0058332
0.0061636 0.0098005 0.013602 0.0038246 -0.00023297 -0.004674 -0.30296 0.13638
0.0035724 -0.023932 0.0053285 -0.019619
0.010726 0.0045581 -0.013456 -0.0039038 0.018918 0.0043371 0.0035438 -0.023938
-0.28696 -0.0086501 0.007581 -0.051089
0.0099125 0.0078885 0.0043012 -0.00057292 0.0070561 -0.0058316 0.005329 -0.019615
0.0076019 -0.051121 -0.33525 0.0065998
620000000 -0.27317 0.1102 -0.023208 0.0076424 0.003892 0.008375 0.0067506 -0.0055413
0.011843 -0.00085588 0.00042848 -0.001839
-0.023187 0.0076426 -0.40271 0.063556 -0.018672 0.00019486 -0.0011187 -0.0021462
0.010423 -0.0068982 0.0012871 -0.0025466
0.0039146 0.0083687 -0.018694 0.00022447 -0.15245 0.26893 -0.0013151 -0.0054425
-0.0038546 -0.0032324 0.0086458 -0.0035155
0.0067316 -0.0055624 -0.0011359 -0.0021347 -0.0013102 -0.0054449 -0.26161 0.14686
-0.038627 -0.018662 0.014228 0.024817
0.011891 -0.00088325 0.010425 -0.0069502 -0.0038516 -0.0032133 -0.038646 -0.018646
-0.20557 -0.047102 -0.041381 0.015879
0.00043154 -0.0018188 0.0013051 -0.002546 0.008653 -0.0035257 0.01423 0.024824
-0.041408 0.015889 -0.25008 -0.034329
680000000 -0.23271 0.19421 -0.02788 -0.013448 0.0048921 0.0048874 0.0012813 -0.0074744
-0.0030869 -0.01121 0.0048622 -0.0071412
-0.027846 -0.013469 -0.38681 0.16046 -0.032503 -0.0011618 -0.0015015 -0.0002717
-0.0026078 -0.0091391 -0.00086884 -0.0020843
0.0048931 0.0048721 -0.032529 -0.0010673 -0.10128 0.28822 -0.00068534 -6.9292e-05
-0.0023218 0.00039606 -0.0029271 -0.009725
0.0012845 -0.0074694 -0.0015019 -0.00025917 -0.00069391 -7.4229e-05 -0.21795 0.19618
-0.02363 -0.00762 -0.010626 -0.010616
-0.00311 -0.011199 -0.0026312 -0.009139 -0.0023187 0.00040065 -0.023637 -0.0075921
-0.253 0.050688 -0.0051177 -0.0090918
0.0048763 -0.0071524 -0.0008955 -0.0020706 -0.0029355 -0.0097367 -0.010634 -0.010612
-0.0051062 -0.009084 -0.26416 0.075851
740000000 -0.1891 0.1889 -0.037973 0.026832 0.012562 -0.0052441 -0.00070802 -0.0038784
-0.0045236 -0.0030259 -0.0063951 0.0033405
-0.03794 0.026797 -0.33435 0.17895 -0.034608 0.035095 -0.00097883 -0.0063349
-0.011576 0.0079743 -0.0029267 -0.0066259
0.012519 -0.0052741 -0.034531 0.035237 -0.067437 0.28649 -0.0017318 0.0033224
-0.0029332 -0.0039657 -0.00098811 -1.4635e-05
-0.0007082 -0.0038846 -0.0010085 -0.0063353 -0.0017222 0.0033233 -0.20184 0.20397
-0.042342 -0.0073313 0.022653 0.013777
-0.0045583 -0.0030063 -0.01156 0.0080491 -0.002953 -0.0039648 -0.04238 -0.0072924
-0.15646 0.074021 -0.042417 0.0013934
-0.0063894 0.0033338 -0.0029518 -0.0066251 -0.00098466 -1.0838e-05 0.022682 0.013786
-0.042388 0.0013831 -0.25779 0.080743
800000000 -0.15666 0.22899 -0.022124 0.017387 0.0051798 -0.010587 -0.0047223 -0.0021122
-0.0040871 0.0027611 0.0044231 0.00088267
-0.022106 0.017358 -0.33679 0.24902 -0.007612 0.033876 -0.0021872 0.0022048
-0.00084672 0.0034826 0.00098099 0.0054105
0.0051541 -0.010605 -0.0075241 0.033931 -0.026504 0.30923 0.0011219 0.001597
0.00060537 0.0036303 -0.001704 0.00085403
-0.004722 -0.0021029 -0.0021781 0.0022137 0.0011185 0.0015865 -0.17339 0.23117
-0.028035 0.013038 0.013767 -0.010252
-0.0040913 0.0027609 -0.00084264 0.0034864 0.00061117 0.0036264 -0.028043 0.013096
-0.19945 0.098397 -0.017779 0.018123
0.0044364 0.00085836 0.0010079 0.0054218 -0.001709 0.00085407 0.013779 -0.010267
-0.017762 0.018108 -0.25108 0.13674
860000000 -0.12189 0.24984 -0.016793 0.031054 -0.0033317 -0.0098539 -0.0025342 0.0012696
0.0041933 0.0051766 -0.0031401 -0.0029348
-0.016788 0.031024 -0.28888 0.29063 0.0082905 0.03391 0.00019884 0.0020968
0.0044148 0.00048023 0.0033006 0.00031694
-0.0033567 -0.0098499 0.0083934 0.033923 0.021714 0.3168 -0.00024349 -0.00028176
0.0028624 -0.0015815 0.0016966 0.0044151
-0.0025224 0.0012856 0.00021491 0.0020899 -0.0002468 -0.00028289 -0.13771 0.24284
-0.017457 0.018714 -0.0061442 -0.0093686
0.0041956 0.0051334 0.0044224 0.00046544 0.0028637 -0.0015836 -0.017431 0.018754
-0.1496 0.14637 -0.024725 0.015753
-0.0031521 -0.0029168 0.003298 0.00029935 0.0016978 0.0044198 -0.0061376 -0.0093656
-0.024722 0.015733 -0.19943 0.18199
920000000 -0.096534 0.27263 0.0055663 0.037427 -0.0093362 -0.0043494 -0.0017754 0.0021463
0.0013157 0.0016742 0.0026513 -0.0014918
0.0055558 0.037409 -0.25974 0.31127 0.028008 0.0214 0.00167 0.0011635
0.0069588 -0.0005121 0.0040259 -0.0030542
-0.0093425 -0.0043349 0.028098 0.021345 0.067865 0.31718 0.0018088 -0.00013176
0.0012881 -0.00044303 0.00074431 -0.0012145
-0.0017692 0.0021427 0.0016822 0.001152 0.0018126 -0.00013037 -0.11333 0.25889
-0.010009 0.029884 0.0029899 -0.0068496
0.001317 0.0016611 0.0069583 -0.00052366 0.0012842 -0.00044409 -0.0099553 0.029904
-0.13992 0.15204 -0.0012362 0.027949
0.0026397 -0.0015034 0.0040205 -0.0030926 0.00075043 -0.0012109 0.0030031 -0.0068513
-0.0012408 0.027944 -0.21 0.19506
980000000 -0.04913 0.29181 0.017998 0.029417 -0.0088187 0.0045397 0.0023546 0.0035947
0.0039691 -0.0017555 -0.0030825 -0.0021935
0.017953 0.029421 -0.20702 0.34462 0.032752 0.0043683 0.0019767 -0.00011706
0.0011787 -0.0062282 -0.00051454 -0.0022246
-0.0087954 0.0045602 0.032785 0.0042645 0.11408 0.31034 0.00042062 -0.0012556
4.7125e-05 -0.0021546 0.0014563 -3.479e-05
0.0023434 0.0035866 0.0020028 -0.00012729 0.00042621 -0.001256 -0.075204 0.26982
0.0078067 0.028368 -0.0094955 -0.0069577
0.00397 -0.0017629 0.0011352 -0.0062322 4.297e-05 -0.0021572 0.0078572 0.028367
-0.10778 0.17912 0.0050533 0.01869
-0.0030983 -0.0021807 -0.00049705 -0.0022241 0.0014558 -2.8285e-05 -0.0094969 -0.0069459
0.0050484 0.018687 -0.16661 0.24317
1040000000 -0.0064192 0.29988 0.033167 0.017319 -0.0012354 0.0067049 0.0027305 0.00071598
-1.0581e-05 -0.0037137 -0.0005946 -0.0016675
0.033156 0.017334 -0.17158 0.35752 0.028841 -0.015044 0.0014732 -0.0017017
-0.0026229 -0.0025417 -0.0015152 -0.0028662
-0.0012133 0.006698 0.028799 -0.015149 0.16019 0.29647 -0.00053195 -0.0014255
-0.0016216 -0.00083956 -0.0005904 -0.0011536
0.0027185 0.0007129 0.0014837 -0.0017372 -0.00053374 -0.0014399 -0.048003 0.28001
0.018248 0.016718 -0.0030692 0.0019437
-1.9109e-05 -0.0037259 -0.0026443 -0.0025077 -0.0016208 -0.0008357 0.018295 0.01668
-0.077194 0.18733 0.013456 0.017803
-0.00060071 -0.0016561 -0.0015253 -0.0028842 -0.00058694 -0.0011531 -0.0030556 0.0019284
0.013452 0.017798 -0.14772 0.26556
1100000000 0.039001 0.30715 0.035325 -0.0048778 0.0027234 0.0036965 0.0025661 -0.001316
-0.0020934 -0.0030615 -0.0040828 0.00012017
0.035293 -0.0048545 -0.12822 0.37437 0.014639 -0.027684 -1.6834e-05 -0.0017985
-0.0032713 -0.00051514 -0.0035783 -0.00044633
0.0027375 0.0036837 0.014549 -0.027758 0.20655 0.27585 -0.0018239 0.00026945
-0.0017083 0.00070605 -0.0010739 -0.00023602
0.0025531 -0.0013242 -2.2062e-05 -0.0018062 -0.0018298 0.00026868 -0.0076095 0.28488
0.02266 0.0046944 -0.0025469 0.00074544
-0.0021005 -0.003066 -0.0032923 -0.00049214 -0.0017143 0.00071752 0.022677 0.0046502
-0.058974 0.20016 0.019011 0.0084079
-0.0040844 0.00013 -0.0035798 -0.00043533 -0.0010684 -0.00023485 -0.0025418 0.00074077
0.018993 0.008403 -0.10066 0.29658
1160000000 0.090568 0.30173 0.023283 -0.021014 0.0024371 -0.00042723 -4.7673e-05 -0.0024806
-0.0041366 -0.00049188 -0.0011118 0.0041956
0.023288 -0.020966 -0.084516 0.37846 -0.0040856 -0.028741 -0.0018209 -0.001617
-0.0024839 0.0027181 -0.0013677 0.0016969
0.0024467 -0.00043419 -0.0042212 -0.028742 0.24942 0.24466 -0.00062352 0.0017702
-0.00031318 0.0018712 -0.00095413 0.00019573
-6.0982e-05 -0.0024863 -0.001821 -0.0016142 -0.00062489 0.0017618 0.031552 0.28217
0.0191 -0.0099865 -0.0029897 0.0055132
-0.004146 -0.0004789 -0.0024885 0.0027523 -0.00032063 0.0018788 0.019096 -0.010021
-0.02614 0.20911 0.017489 0.00061081
-0.001109 0.0042003 -0.0013512 0.0016942 -0.00094771 0.00020156 -0.0030087 0.0055084
0.017487 0.00061074 -0.053517 0.29999
1220000000 0.13504 0.28991 0.0096034 -0.029813 -0.0016193 -0.00056965 -6.0708e-05 -0.0011835
-0.0025637 0.002562 0.0013358 0.002002
0.0096239 -0.029763 -0.040318 0.39006 -0.016909 -0.02068 -0.0025325 0.00047647
0.00030766 0.0029937 -0.00069115 0.0018074
-0.0016245 -0.00056466 -0.017017 -0.020619 0.28834 0.20537 0.00087508 0.0016272
0.000632 0.001144 0.00039125 0.00077336
-7.4118e-05 -0.0011887 -0.0025237 0.0004834 0.00087517 0.0016314 0.071275 0.27382
0.0090034 -0.015576 0.0025904 0.0018149
-0.0025568 0.0025737 0.0003076 0.0030041 0.00062831 0.0011396 0.0089919 -0.01559
-0.0030056 0.21861 0.013593 -0.012622
0.0013348 0.0019984 -0.00067316 0.0018146 0.00038746 0.00077921 0.0025698 0.001808
0.013587 -0.012629 -0.022414 0.31958
1280000000 0.18444 0.26727 -0.0083572 -0.027845 -0.0017219 0.002754 -0.0011383 -0.0020326
-0.00061183 0.0031237 0.0026989 0.0010686
-0.0083369 -0.027811 0.0054739 0.38097 -0.023521 -0.0081416 -0.0010425 0.0015425
0.0017019 0.0016564 0.00058544 0.0020494
-0.0017146 0.002764 -0.023581 -0.0080481 0.31863 0.16139 0.0014413 -0.00017484
0.0010413 3.96e-05 0.00038723 0.0003457
-0.0011413 -0.002024 -0.0010295 0.0015481 0.0014437 -0.00017322 0.10782 0.25781
0.00016447 -0.017136 0.00039639 0.00032684
-0.00060411 0.003131 0.0017095 0.0016519 0.0010471 3.4931e-05 0.00013154 -0.017143
0.033591 0.22245 0.0026987 -0.0144
0.0027052 0.0010555 0.00060813 0.0020438 0.00038715 0.0003453 0.00037943 0.00033488
0.0026991 -0.014396 0.025991 0.32218
1340000000 0.22118 0.233 -0.017782 -0.01826 0.0010964 0.0044697 -0.0020347 -0.00078007
0.00155 0.0025985 0.0017739 -0.0016002
-0.017747 -0.018256 0.044887 0.37246 -0.02129 0.0044169 -6.8007e-06 0.0020093
0.001821 0.00058265 0.0013792 0.00091125
0.0011079 0.004459 -0.021291 0.004524 0.3405 0.11333 0.001 -0.00093283
0.00061771 -0.00040228 0.00022245 0.00024197
-0.00203 -0.00077113 1.2805e-05 0.0020085 0.0010099 -0.00092802 0.14093 0.23783
-0.007977 -0.01409 0.0013514 0.00023641
0.0015546 0.002597 0.0018338 0.0005848 0.00062078 -0.00040321 -0.0080193 -0.014095
0.064047 0.21823 -0.0035157 -0.012898
0.0017684 -0.0016095 0.0014012 0.0009004 0.0002236 0.00024352 0.001347 0.00024969
-0.0035161 -0.012904 0.06527 0.31931
1400000000 0.25376 0.1944 -0.02309 -0.0068637 0.0052076 0.0030216 -0.0020576 0.00082223
0.002494 0.00067163 0.0002177 -0.0013818
-0.023063 -0.0068774 0.081965 0.35932 -0.014552 0.012375 0.0014261 0.0012683
0.00097061 -0.00089238 0.0012537 0.00028326
0.0052199 0.002998 -0.014505 0.012464 0.35338 0.059777 6.92e-05 -0.0015131
4.4666e-05 -0.00037836 0.00032987 0.00022443
-0.0020569 0.00083374 0.0014373 0.0012574 7.048e-05 -0.0015196 0.17107 0.20931
-0.01275 -0.0079269 -0.00050294 -0.00069955
0.0024917 0.00066523 0.00098609 -0.00090572 4.0574e-05 -0.00037912 -0.012804 -0.0079143
0.097287 0.21366 -0.0097508 -0.0080679
0.00021616 -0.001385 0.0012592 0.00027724 0.00033152 0.00022725 -0.00049589 -0.00068106
-0.0097445 -0.0080818 0.11126 0.30937
1460000000 0.27626 0.15007 -0.019919 0.0049829 0.005592 -0.0018064 -0.0014821 0.0017934
0.0019879 -0.00079545 -0.0003129 -0.00087569
-0.019904 0.0049577 0.11611 0.33733 -0.0059462 0.015133 0.0017512 0.00010712
0.0007664 -0.0011652 0.0012417 -0.00062163
0.0055835 -0.0018359 -0.0058767 0.015176 0.35925 0.0052904 -0.0011332 -0.0012922
0.00032504 -0.0001485 0.00069339 -0.00051643
-0.0014778 0.0018059 0.0017405 9.8505e-05 -0.0011469 -0.0012937 0.19814 0.18007
-0.013248 -0.0022429 -0.00095413 0.0015678
0.001995 -0.00080572 0.00075993 -0.0011838 0.00032503 -0.00015439 -0.013302 -0.0022067
0.12741 0.19888 -0.011166 -0.0025375
-0.00032364 -0.00086604 0.001231 -0.00064041 0.00069006 -0.00051583 -0.00092516 0.0015697
-0.011163 -0.0025566 0.1451 0.28888
1520000000 0.2881 0.1081 -0.014216 0.010324 0.003138 -0.00427 0.00020865 0.0025703
0.0017436 -0.0017584 -0.0012419 -0.00018481
-0.014212 0.010306 0.14954 0.32239 0.0015672 0.012916 0.0016003 -0.00089335
5.8689e-05 -0.00087956 0.00032981 -0.0011112
0.0031166 -0.004283 0.0016402 0.012929 0.35234 -0.050775 -0.0010097 -0.00036554
0.00056919 -0.00085586 -1.6636e-05 -0.00016789
0.00021481 0.0025621 0.001596 -0.00089483 -0.0010103 -0.00036565 0.22202 0.14158
-0.012416 0.0023486 0.0011924 0.0017713
0.0017391 -0.0017729 5.2127e-05 -0.00089238 0.00056586 -0.00086066 -0.012442 0.0024064
0.15593 0.18424 -0.011185 0.0016076
-0.0012542 -0.00018185 0.00031993 -0.0011057 -1.8142e-05 -0.00016575 0.0012138 0.0017754
-0.011188 0.0016004 0.17934 0.27001
1580000000 0.29692 0.061481 -0.0076919 0.01316 -0.0010196 -0.0048975 0.0014495 0.0017649
-0.00054756 -0.0021145 -0.0003659 0.00046213
-0.0076982 0.013154 0.17672 0.29743 0.0051259 0.0081595 0.0003857 -0.0016138
-0.00037698 -0.00098668 -0.00028172 -0.00089661
-0.0010429 -0.0048925 0.0051776 0.0081349 0.33189 -0.10831 -0.0015228 0.00046626
-0.00032133 -0.0011857 8.7406e-05 -0.0005558
0.0014481 0.0017646 0.00037196 -0.0016191 -0.0015288 0.00046163 0.23655 0.10139
-0.0095659 0.0062308 0.001945 0.00051543
-0.00055089 -0.002123 -0.0003875 -0.00098614 -0.00032233 -0.0011795 -0.009568 0.0063006
0.18064 0.16569 -0.0087543 0.00683
-0.00036658 0.00046359 -0.0002957 -0.00089378 8.3688e-05 -0.00056122 0.0019588 0.00050698
-0.0087631 0.0068335 0.21263 0.24368
1640000000 0.29833 0.019696 -0.0012094 0.011967 -0.002871 -0.002574 0.0025159 0.00095274
-0.00089687 -0.0011264 -0.0003051 0.00071058
-0.0012236 0.011959 0.20604 0.27221 0.0057568 0.0034343 -0.00081121 -0.0016376
-0.00092894 -0.00051056 -0.00059166 -0.00067458
-0.0028868 -0.0025499 0.0057794 0.003414 0.30375 -0.1576 -0.00086449 0.0013402
-0.0011663 -0.00086351 -0.00017624 -0.00029898
0.0025194 0.00094173 -0.00082275 -0.0016323 -0.00086486 0.0013427 0.24896 0.051436
-0.0061087 0.0069337 0.0022252 -0.0007859
-0.00091056 -0.0011357 -0.00093272 -0.00049439 -0.0011651 -0.00085497 -0.0060757 0.0070125
0.20381 0.14005 -0.0041682 0.0090152
-0.00030294 0.00071672 -0.00059253 -0.00067122 -0.00017957 -0.00029938 0.0022338 -0.00080538
-0.004177 0.0090138 0.23947 0.21287
1700000000 0.29024 -0.025822 0.0021061 0.0091771 -0.0034633 0.00014671 0.0028779 -0.0010979
-0.0018792 -0.0003267 0.00066919 0.00043131
0.0020961 0.0091761 0.22406 0.24051 0.0038174 0.0006604 -0.0014443 -0.0004907
-0.00083226 -6.9264e-05 -0.0009814 -0.0004074
-0.0034604 0.00016882 0.0038268 0.00063309 0.25984 -0.19734 0.00036804 0.0016607
-0.0017981 -0.00014163 -0.00056249 -0.00090948
0.0028767 -0.0011096 -0.0014407 -0.0004729 0.00036311 0.0016591 0.24528 0.00052122
-0.0042232 0.0072657 0.0013101 -0.0021226
-0.0018941 -0.00032024 -0.00083497 -6.5006e-05 -0.0017966 -0.00014426 -0.0041739 0.0073199
0.22139 0.11814 0.00026694 0.0093181
0.00067219 0.00042915 -0.00097605 -0.00039608 -0.00057082 -0.00091107 0.0013105 -0.0021378
0.00025771 0.0093202 0.25715 0.17852
1760000000 0.277 -0.074239 0.0042545 0.0059585 -0.0022857 0.00088262 0.0013558 -0.0033228
-0.00095939 0.0007329 0.00033273 -0.00054819
0.0042512 0.0059593 0.24981 0.20031 0.0017003 -0.0010947 -0.0010861 0.00026592
-0.0012356 0.00087003 -0.00062656 0.00055788
-0.0022805 0.00090513 0.0016929 -0.0011052 0.21094 -0.23046 0.0011931 0.0012947
-0.0011419 0.0014506 -0.0013689 -0.00032508
0.0013402 -0.0033241 -0.0010786 0.0002666 0.0011897 0.00129 0.23492 -0.051737
-0.0017887 0.0067416 -0.0004724 -0.0022832
-0.00096312 0.00075789 -0.0012167 0.00087568 -0.0011393 0.0014488 -0.0017128 0.0067708
0.23626 0.081449 0.0040101 0.0064774
0.0003301 -0.0005508 -0.00062078 0.00056295 -0.0013679 -0.00032817 -0.00047042 -0.0022926
0.0040069 0.0064826 0.27038 0.14082
1820000000 0.25148 -0.11113 0.0043928 0.0024951 -0.00011192 0.0024481 -0.00090082 -0.0030281
-0.00075103 0.00067753 1.6792e-05 -0.00018003
0.0043776 0.0025026 0.25941 0.17002 -0.00028369 -9.9624e-05 -0.0012225 0.0009036
-0.00017666 0.0014713 -0.00050274 0.00055606
-9.8925e-05 0.0024581 -0.00028191 -9.6261e-05 0.16084 -0.24625 0.0015924 0.00046788
-0.00025122 0.0021689 -0.0013845 0.00056518
-0.00091205 -0.0030272 -0.001219 0.00091128 0.0015991 0.00046868 0.20355 -0.098957
-0.00077368 0.0054762 -0.0017579 -0.0015127
-0.00073307 0.00071001 -0.00016307 0.0014655 -0.00023672 0.0021784 -0.00069912 0.0054665
0.25232 0.050139 0.0049394 0.0029579
2.0894e-05 -0.00017971 -0.00049931 0.00056052 -0.0013909 0.00057248 -0.0017605 -0.0015166
0.0049391 0.0029671 0.27372 0.10475
1880000000 0.21556 -0.15056 0.0021695 0.000326 -0.00037597 0.0022369 -0.002792 -0.0022348
-0.00019064 0.0013464 0.00028739 -0.00058976
0.0021645 0.00032593 0.26342 0.12329 -0.0022615 0.0015885 -0.00010518 0.0016771
0.00066721 0.0014959 0.00027377 0.0010066
-0.00036926 0.002233 -0.0022534 0.0016075 0.10873 -0.25561 0.001975 -0.0010008
0.0015228 0.0020059 -0.00079418 0.0014051
-0.0027967 -0.0022173 -9.7123e-05 0.0016803 0.0019763 -0.0010046 0.16168 -0.13833
-0.00060464 0.0041926 -0.002446 0.00074983
-0.0001766 0.0013487 0.00066842 0.0014853 0.0015159 0.0020009 -0.00054909 0.0041574
0.2536 0.015349 0.0044097 0.0010032
0.00027918 -0.00059608 0.00027886 0.0010138 -0.00078036 0.0014094 -0.0024561 0.00075818
0.0044096 0.0010027 0.27432 0.070415
1940000000 0.17572 -0.1755 -9.383e-05 -0.0013926 0.0014115 0.0020141 -0.003757 0.00044701
0.0011445 0.00093438 -0.00067096 -0.00064422
-9.6735e-05 -0.0013943 0.26339 0.091418 -0.0012481 0.0038718 0.00098069 0.0012351
0.0021485 0.000593 0.00087968 0.00021915
0.0014185 0.0020113 -0.0012214 0.0038801 0.062353 -0.2493 0.00029399 -0.002457
0.0024987 0.00040856 0.00029785 0.0015961
-0.003751 0.00047163 0.00098476 0.0012338 0.00027961 -0.0024684 0.10847 -0.1672
-0.0018726 0.0037344 -0.0013782 0.0018196
0.0011594 0.00091655 0.0021416 0.00058094 0.0024919 0.00040743 -0.0018466 0.0036825
0.25283 -0.025205 0.0030833 -0.0022156
-0.00068049 -0.00064096 0.00088622 0.0002162 0.00031784 0.001602 -0.0013806 0.0018285
0.0030919 -0.0022202 0.26392 0.034681
2000000000 0.12963 -0.18906 -0.003947 0.00072845 0.0024846 0.0016268 -0.0023625 0.0035932
0.00087639 0.00025499 -0.00070082 0.00043456
-0.0039384 0.00072084 0.24871 0.056096 -0.0010107 0.005764 0.0015913 0.00017932
0.0016809 -0.0016067 0.00053004 0.0001364
0.0024923 0.0016136 -0.00097564 0.0057762 0.018745 -0.23463 -0.0015524 -0.0015071
0.0020608 -0.0012841 0.001645 0.0013899
-0.0023475 0.0036077 0.0015894 0.00016861 -0.0015537 -0.0015105 0.055342 -0.17563
-0.0033179 0.0044622 0.00013267 0.0024217
0.00086262 0.00023752 0.0016676 -0.0016164 0.0020588 -0.0012948 -0.0033037 0.0044011
0.24369 -0.060104 -0.0002546 -0.0027153
