!Keysight Technologies,M9804A,MY58100912,A.14.10.03
!Date: Thursday, April 27, 2023 10:28:33
!Correction: S11(C  6-Port  ) 
!S12(C  6-Port  ) 
!S13(C  6-Port  ) 
!S14(C  6-Port  ) 
!S15(C  6-Port  ) 
!S16(C  6-Port  ) 
!S21(C  6-Port  ) 
!S22(C  6-Port  ) 
!S23(C  6-Port  ) 
!S24(C  6-Port  ) 
!S25(C  6-Port  ) 
!S26(C  6-Port  ) 
!S31(C  6-Port  ) 
!S32(C  6-Port  ) 
!S33(C  6-Port  ) 
!S34(C  6-Port  ) 
!S35(C  6-Port  ) 
!S36(C  6-Port  ) 
!S41(C  6-Port  ) 
!S42(C  6-Port  ) 
!S43(C  6-Port  ) 
!S44(C  6-Port  ) 
!S45(C  6-Port  ) 
!S46(C  6-Port  ) 
!S51(C  6-Port  ) 
!S52(C  6-Port  ) 
!S53(C  6-Port  ) 
!S54(C  6-Port  ) 
!S55(C  6-Port  ) 
!S56(C  6-Port  ) 
!S61(C  6-Port  ) 
!S62(C  6-Port  ) 
!S63(C  6-Port  ) 
!S64(C  6-Port  ) 
!S65(C  6-Port  ) 
!S66(C  6-Port  ) 
!S6P File: Measurement: :
# Hz S  RI   R 50
500000000 -0.33746 -0.03426 -0.010056 -0.0035738 -0.008097 0.012041 -0.0038524 0.011671
0.012232 0.0045613 -0.0041211 0.0081289
-0.009939 -0.0036589 -0.41968 -0.049001 0.0070981 -0.011269 0.0013443 0.012033
0.0071332 0.0024215 0.00049548 0.013449
-0.0079621 0.011903 0.0070393 -0.0112 -0.26553 0.21212 0.0069083 0.0034149
-0.00061452 0.0087369 0.00033962 0.012111
-0.0036246 0.011664 0.0012974 0.011995 0.0069029 0.0034218 -0.32783 0.048466
-0.020039 -0.0044788 0.017634 0.026927
0.011876 0.0044272 0.0075327 0.002601 -0.00059761 0.0087423 -0.020046 -0.0044721
-0.22758 -0.18397 -0.028715 0.005138
-0.0038506 0.008195 0.00039672 0.013366 0.00031306 0.012109 0.017631 0.026928
-0.028698 0.0051285 -0.26682 -0.14497
560000000 -0.31601 0.12538 -0.024116 -0.06298 0.00042461 0.01232 0.0061563 0.0098201
0.010729 0.0045697 0.0099026 0.0079369
-0.024037 -0.062721 -0.37753 0.10993 -0.04198 -0.036344 0.013584 0.0038175
-0.013429 -0.0039541 0.0043221 -0.0005166
0.00050037 0.012409 -0.042037 -0.036359 -0.18287 0.26023 -0.00022732 -0.0046809
0.018907 0.0043481 0.0070483 -0.0058338
0.0062028 0.009741 0.013544 0.0038821 -0.00021099 -0.0046694 -0.303 0.13636
0.0035608 -0.023936 0.005308 -0.019618
0.010937 0.0046472 -0.013349 -0.004695 0.018941 0.0042843 0.0035273 -0.023941
-0.28705 -0.0087644 0.007575 -0.051115
0.0097587 0.0079117 0.004235 -6.6666e-05 0.0070516 -0.0058394 0.0053055 -0.01962
0.0076108 -0.051137 -0.33532 0.0065628
620000000 -0.27303 0.11026 -0.023226 0.0076125 0.0038406 0.0083528 0.0067422 -0.0055547
0.011835 -0.00081268 0.00037827 -0.001815
-0.023173 0.0077342 -0.40271 0.063497 -0.018674 0.00020073 -0.0011221 -0.0021309
0.010425 -0.0069073 0.0013011 -0.0025333
0.0036665 0.0084001 -0.018702 0.00024091 -0.15241 0.26899 -0.001312 -0.0054376
-0.0038563 -0.0032368 0.0086534 -0.0035098
0.0068524 -0.005741 -0.001132 -0.0021154 -0.0013419 -0.0054056 -0.26165 0.14685
-0.038664 -0.01866 0.014167 0.024824
0.011685 -0.00075172 0.010459 -0.0069376 -0.0037933 -0.0032418 -0.038661 -0.018633
-0.20557 -0.047231 -0.041401 0.01593
0.00070569 -0.0017533 0.0012172 -0.0026143 0.0085893 -0.0034861 0.014195 0.024846
-0.04144 0.015862 -0.25009 -0.034407
680000000 -0.23278 0.19409 -0.027913 -0.013476 0.0048855 0.0048977 0.0012881 -0.0074768
-0.0030916 -0.011194 0.0048818 -0.0071549
-0.027853 -0.013474 -0.38684 0.16042 -0.03251 -0.0011651 -0.0015214 -0.00026491
-0.0025828 -0.0091336 -0.00088162 -0.0021079
0.0048797 0.0048992 -0.03259 -0.0010524 -0.10128 0.2882 -0.00068861 -7.2911e-05
-0.0023071 0.00039115 -0.0029315 -0.0097296
0.0012356 -0.0074835 -0.0014839 -0.00026537 -0.00068124 -7.8054e-05 -0.21794 0.19616
-0.023638 -0.0076262 -0.010631 -0.010617
-0.0031898 -0.011179 -0.0026508 -0.009141 -0.0023202 0.00040129 -0.023667 -0.0075949
-0.25311 0.050639 -0.0051382 -0.0090898
0.0048743 -0.0072525 -0.00085817 -0.002098 -0.0029467 -0.0097347 -0.010642 -0.010616
-0.0051513 -0.0090826 -0.26415 0.075715
740000000 -0.18909 0.18892 -0.037949 0.026653 0.012541 -0.0052518 -0.00068322 -0.003894
-0.0045288 -0.0030154 -0.0063829 0.0033199
-0.037939 0.026671 -0.3343 0.17882 -0.034615 0.035076 -0.0010038 -0.0063313
-0.011567 0.0079944 -0.0029286 -0.0066567
0.012571 -0.0053172 -0.034532 0.035247 -0.067449 0.28649 -0.0017375 0.0033105
-0.0029345 -0.0039872 -0.00099577 -8.0684e-06
-0.00060086 -0.0038715 -0.001002 -0.0063927 -0.0017386 0.0033164 -0.20186 0.20397
-0.042366 -0.0073364 0.022675 0.013814
-0.0045005 -0.0027823 -0.011514 0.0081897 -0.0029432 -0.0040055 -0.042393 -0.0072633
-0.15655 0.074082 -0.042423 0.001423
-0.0063626 0.0033932 -0.0029492 -0.0065193 -0.0010135 1.8787e-06 0.022694 0.013803
-0.042454 0.0014024 -0.25782 0.080694
800000000 -0.15667 0.22894 -0.022133 0.01738 0.0051851 -0.010575 -0.0047198 -0.0021189
-0.004098 0.002735 0.0044192 0.00088166
-0.022088 0.017335 -0.33682 0.24903 -0.0076041 0.033883 -0.002197 0.0022001
-0.00086443 0.0034636 0.0009773 0.0054127
0.0051766 -0.010584 -0.0075446 0.033947 -0.026503 0.30923 0.0011209 0.0015948
0.0005999 0.003631 -0.0017049 0.0008609
-0.0047266 -0.0020898 -0.0021617 0.002224 0.00112 0.0015956 -0.17337 0.23116
-0.028052 0.013052 0.013797 -0.01025
-0.0040912 0.0027123 -0.00083644 0.0034342 0.0006136 0.0036351 -0.028053 0.013117
-0.19956 0.098378 -0.017766 0.018156
0.0044462 0.0008792 0.0010394 0.0053885 -0.0016961 0.0008549 0.013792 -0.01026
-0.017787 0.018136 -0.25112 0.13665
860000000 -0.12191 0.24981 -0.016796 0.031049 -0.0033313 -0.0098534 -0.0025267 0.0012696
0.0041869 0.0051544 -0.0031523 -0.002926
-0.016823 0.031035 -0.28888 0.29059 0.0082908 0.033918 0.00020989 0.0020789
0.0044068 0.00046639 0.0033073 0.00032965
-0.0033539 -0.0098344 0.0083714 0.033899 0.021702 0.3168 -0.00024326 -0.00028247
0.0028638 -0.0015831 0.0016902 0.0044163
-0.0025358 0.001311 0.00023994 0.0020874 -0.00024479 -0.0002821 -0.13772 0.24284
-0.01745 0.018732 -0.0061293 -0.0093541
0.0042033 0.005144 0.0044852 0.0003607 0.0028613 -0.0015743 -0.017436 0.018773
-0.14961 0.14649 -0.02472 0.015801
-0.0031104 -0.0029554 0.0032196 0.00033568 0.0016938 0.0044173 -0.0061445 -0.0093491
-0.024715 0.015781 -0.1995 0.1819
920000000 -0.09657 0.27258 0.0056068 0.037431 -0.0093283 -0.0043453 -0.0017731 0.0021451
0.0013183 0.0016553 0.0026375 -0.0014834
0.0055408 0.037441 -0.25977 0.31131 0.028011 0.021397 0.0016611 0.0011384
0.0069404 -0.00049902 0.0040368 -0.0030624
-0.0093402 -0.0043103 0.028087 0.021339 0.067863 0.31717 0.0018063 -0.00012873
0.0012836 -0.00043486 0.00074668 -0.0011992
-0.001791 0.0021617 0.0016716 0.0011576 0.0018079 -0.00012602 -0.11334 0.25888
-0.0099967 0.02991 0.0030172 -0.0068603
0.0013155 0.0016583 0.0069451 -0.00051499 0.0012794 -0.00044168 -0.0099365 0.029936
-0.13993 0.15212 -0.0012197 0.027972
0.0026688 -0.0015557 0.0040851 -0.0031109 0.00075605 -0.0012028 0.0030087 -0.0068641
-0.0012085 0.027969 -0.2101 0.19498
980000000 -0.049145 0.29181 0.01801 0.029429 -0.0088082 0.0045368 0.0023456 0.0036065
0.0039837 -0.001745 -0.0030953 -0.0021955
0.017942 0.029435 -0.20706 0.34461 0.032758 0.0043664 0.0019957 -0.00013951
0.001159 -0.006239 -0.00048589 -0.0022039
-0.0087968 0.004556 0.032781 0.004255 0.11409 0.31033 0.00042688 -0.0012515
4.9192e-05 -0.0021576 0.0014568 -2.6791e-05
0.0023565 0.0036051 0.0019998 -0.00013247 0.00042525 -0.001256 -0.075212 0.26981
0.0078261 0.028396 -0.0094765 -0.0069681
0.0039795 -0.0017743 0.0011569 -0.0062326 4.2924e-05 -0.0021571 0.0078843 0.028391
-0.10774 0.17919 0.0050835 0.018708
-0.0030576 -0.0021325 -0.0005106 -0.0022584 0.0014602 -3.0672e-05 -0.0094855 -0.0069575
0.0050802 0.018714 -0.16669 0.2431
1040000000 -0.0063894 0.29982 0.033192 0.017284 -0.0012304 0.0067061 0.0027272 0.00073491
1.185e-05 -0.0037218 -0.00060222 -0.0016745
0.033178 0.017317 -0.1716 0.35755 0.028839 -0.015048 0.0014661 -0.001741
-0.0026491 -0.0025242 -0.0014834 -0.0028803
-0.0012064 0.0066849 0.028792 -0.015171 0.16019 0.29645 -0.00053168 -0.001441
-0.0016181 -0.00084556 -0.00059004 -0.0011516
0.0027183 0.0007137 0.0014762 -0.0017498 -0.0005312 -0.0014395 -0.047995 0.27999
0.018283 0.016725 -0.0030535 0.0019142
-2.7226e-05 -0.003733 -0.0026598 -0.0025066 -0.0016145 -0.00084752 0.018337 0.016701
-0.077106 0.18741 0.013488 0.017823
-0.0006088 -0.0016483 -0.0015231 -0.002864 -0.00058889 -0.0011564 -0.0030547 0.0019149
0.013474 0.017817 -0.14778 0.26552
1100000000 0.038968 0.3071 0.035354 -0.0048861 0.0027191 0.0036964 0.0025601 -0.0013092
-0.0020793 -0.0030605 -0.0040848 0.00010618
0.035318 -0.0048569 -0.1282 0.37437 0.014644 -0.027678 -2.2623e-05 -0.0018116
-0.0032819 -0.00052361 -0.0035668 -0.00044445
0.0027267 0.0036882 0.014553 -0.027749 0.20654 0.27585 -0.0018293 0.00027501
-0.0017114 0.00070519 -0.0010748 -0.0002409
0.0025681 -0.0013203 -2.1392e-05 -0.0018126 -0.0018316 0.00027065 -0.0076111 0.28484
0.022703 0.0046821 -0.0025546 0.00072574
-0.0021063 -0.0030382 -0.0032832 -0.00048573 -0.0017142 0.00070795 0.022723 0.0046496
-0.058914 0.20018 0.019035 0.0083957
-0.0040927 0.00012988 -0.0035763 -0.00043367 -0.0010726 -0.00023945 -0.0025488 0.00073058
0.01902 0.0083998 -0.10072 0.29657
1160000000 0.090542 0.30169 0.023306 -0.021011 0.0024405 -0.0004272 -5.7614e-05 -0.0024747
-0.0041334 -0.00048244 -0.0011316 0.0041817
0.023281 -0.020978 -0.084501 0.37848 -0.004086 -0.028741 -0.0018207 -0.0016449
-0.002503 0.0027208 -0.0013552 0.0016998
0.0024451 -0.00043467 -0.004225 -0.028738 0.24941 0.24466 -0.00062533 0.0017645
-0.00031424 0.0018738 -0.00095085 0.00019376
-4.4202e-05 -0.0024819 -0.0018115 -0.0016203 -0.0006242 0.0017618 0.031533 0.28214
0.019128 -0.01001 -0.0030201 0.0054924
-0.0041202 -0.00048058 -0.0024839 0.0027062 -0.00032136 0.0018715 0.019126 -0.010044
-0.026029 0.2091 0.017518 0.00059094
-0.0011122 0.0042091 -0.0013937 0.0017184 -0.00094734 0.00019883 -0.0030113 0.0055058
0.017514 0.0005919 -0.05357 0.29999
1220000000 0.13503 0.28988 0.0096233 -0.0298 -0.0016261 -0.00057458 -6.7913e-05 -0.0011819
-0.0025647 0.0025718 0.0013257 0.001996
0.0096369 -0.029772 -0.040305 0.39009 -0.016902 -0.02068 -0.0025184 0.00046871
0.00029309 0.0029904 -0.00068135 0.0018172
-0.0016205 -0.00057523 -0.017005 -0.020637 0.28834 0.20537 0.00087908 0.001632
0.00062798 0.0011483 0.00038706 0.00077227
-8.2934e-05 -0.0011863 -0.0025094 0.00049248 0.00088161 0.0016355 0.071242 0.27381
0.0090128 -0.015613 0.0025626 0.0018046
-0.0025599 0.0025708 0.00031848 0.0029949 0.00062528 0.0011422 0.0089968 -0.015633
-0.0029084 0.2186 0.013609 -0.012672
0.0013302 0.0019825 -0.00066294 0.0018042 0.00038419 0.00077668 0.0025537 0.0018077
0.013603 -0.012663 -0.022479 0.31959
1280000000 0.1844 0.26726 -0.0083514 -0.027853 -0.0017167 0.0027499 -0.001141 -0.0020235
-0.00062096 0.0031253 0.0027024 0.0010812
-0.0083367 -0.027831 0.005474 0.38095 -0.023515 -0.0081496 -0.0010276 0.0015467
0.0017001 0.0016606 0.00059285 0.0020413
-0.0017052 0.0027652 -0.02357 -0.0080539 0.31864 0.1614 0.0014557 -0.00017687
0.0010402 3.7679e-05 0.00038583 0.00034736
-0.0011364 -0.0020274 -0.0010177 0.0015535 0.0014542 -0.00017208 0.10778 0.2578
0.00014962 -0.017188 0.00036597 0.00033713
-0.00058638 0.0031337 0.0017179 0.0016566 0.0010474 3.8627e-05 0.00011413 -0.017194
0.033627 0.22234 0.0027043 -0.014444
0.002695 0.0010715 0.00059818 0.0020203 0.0003802 0.00034311 0.0003707 0.00033705
0.0027094 -0.014443 0.025938 0.32219
1340000000 0.22118 0.23301 -0.017781 -0.018276 0.001092 0.0044647 -0.0020253 -0.00079046
0.0015347 0.0025952 0.0017727 -0.0016039
-0.017755 -0.018273 0.044895 0.37244 -0.02129 0.004408 -2.8762e-06 0.0020106
0.0018352 0.00059238 0.0014022 0.00090696
0.0011079 0.0044632 -0.021284 0.0045204 0.3405 0.11334 0.0010004 -0.00093228
0.00061908 -0.00040466 0.00022125 0.00024254
-0.0020179 -0.00077532 3.93e-06 0.0020078 0.0010117 -0.00092492 0.14091 0.23785
-0.0080184 -0.014137 0.0013403 0.00026076
0.0015579 0.002595 0.0018386 0.00058997 0.00061788 -0.00040324 -0.0080591 -0.014134
0.064042 0.2181 -0.0035528 -0.012945
0.0017622 -0.0016134 0.0013898 0.00090704 0.00021929 0.00024099 0.0013419 0.00026158
-0.0035425 -0.012943 0.065221 0.31928
1400000000 0.25376 0.1944 -0.023097 -0.0068726 0.0051944 0.0030162 -0.0020523 0.0008211
0.0024824 0.00067798 0.00021602 -0.0013972
-0.02307 -0.006879 0.081943 0.35928 -0.014555 0.012379 0.001416 0.0012692
0.00098421 -0.00089091 0.0012567 0.00028586
0.0052216 0.0029818 -0.014524 0.012458 0.35339 0.059785 6.7829e-05 -0.0015073
4.5548e-05 -0.00038164 0.00033319 0.00022285
-0.0020555 0.00082396 0.0014331 0.0012565 7.4111e-05 -0.001515 0.17105 0.20934
-0.012821 -0.0079531 -0.00050247 -0.00067152
0.0024767 0.00067713 0.00097881 -0.00089612 4.4977e-05 -0.00038294 -0.012847 -0.0079297
0.097198 0.2135 -0.0098065 -0.0081063
0.00020812 -0.0013876 0.0012679 0.00028312 0.00033254 0.00022673 -0.00050248 -0.00067686
-0.0097935 -0.0081102 0.1112 0.30938
1460000000 0.27625 0.15009 -0.019941 0.004976 0.005591 -0.0018036 -0.0014797 0.0018036
0.0020085 -0.00079055 -0.00031971 -0.00088337
-0.019917 0.0049463 0.11608 0.33731 -0.005944 0.015129 0.0017434 9.7512e-05
0.00076272 -0.0011749 0.0012329 -0.00061804
0.0055886 -0.0018242 -0.0058904 0.015174 0.35925 0.005293 -0.0011388 -0.0012823
0.00032876 -0.00015008 0.00069168 -0.00051202
-0.0014864 0.0018054 0.00175 9.8679e-05 -0.0011414 -0.0012811 0.19813 0.18008
-0.013344 -0.0022246 -0.00093975 0.0015924
0.0020056 -0.00080797 0.00075959 -0.0011873 0.0003251 -0.00015022 -0.013345 -0.0021907
0.12724 0.19877 -0.01122 -0.0025285
-0.00034277 -0.00088914 0.0012335 -0.00062502 0.00069911 -0.00051367 -0.00093508 0.0015916
-0.011212 -0.0025378 0.14506 0.28889
1520000000 0.2881 0.10811 -0.014227 0.010329 0.0031487 -0.0042644 0.00020462 0.0025665
0.0017457 -0.0017596 -0.0012363 -0.00019142
-0.014223 0.010316 0.14952 0.32236 0.0015646 0.012921 0.0015881 -0.00088594
5.0876e-05 -0.00088808 0.0003247 -0.0011019
0.0031246 -0.0042889 0.0016401 0.012922 0.35235 -0.050764 -0.0010074 -0.00036109
0.00056733 -0.00085709 -1.9419e-05 -0.00016582
0.00021672 0.002565 0.0015896 -0.00089469 -0.00099957 -0.00036174 0.22204 0.1416
-0.012477 0.0024151 0.0012225 0.0017936
0.0017469 -0.0017694 5.2104e-05 -0.00090299 0.00056723 -0.00085866 -0.012476 0.0024419
0.15581 0.1842 -0.011223 0.0016337
-0.0012536 -0.00017764 0.0003279 -0.0011105 -1.4173e-05 -0.00016512 0.0012228 0.0017893
-0.011225 0.0016261 0.17929 0.27003
1580000000 0.29696 0.061463 -0.0076968 0.013165 -0.0010214 -0.0048926 0.0014435 0.0017714
-0.00053243 -0.0021232 -0.00037106 0.00045966
-0.0077061 0.013151 0.17667 0.29743 0.0051264 0.0081566 0.00038844 -0.0016042
-0.00038599 -0.00098588 -0.00028585 -0.00089348
-0.001062 -0.0048951 0.0051867 0.008136 0.3319 -0.10833 -0.0015238 0.00046786
-0.00032252 -0.0011882 8.1843e-05 -0.0005587
0.0014354 0.0017636 0.00037573 -0.0016146 -0.001529 0.00046018 0.23656 0.10138
-0.0095996 0.0063156 0.0019722 0.00051413
-0.00055433 -0.0021042 -0.00039409 -0.00099092 -0.00032485 -0.0011879 -0.0095894 0.0063414
0.18049 0.16572 -0.0087806 0.0068819
-0.00036933 0.00046504 -0.00028811 -0.00089465 8.8648e-05 -0.0005603 0.0019737 0.00050698
-0.0087906 0.006878 0.21258 0.24371
1640000000 0.29834 0.019694 -0.0012158 0.011969 -0.002875 -0.0025691 0.0025142 0.00095398
-0.00090123 -0.0011315 -0.00030628 0.000716
-0.001222 0.011958 0.20602 0.27221 0.005755 0.0034427 -0.00080359 -0.0016364
-0.0009263 -0.00050968 -0.00058543 -0.0006773
-0.0028882 -0.002552 0.0057917 0.0034052 0.30376 -0.15761 -0.00085939 0.0013387
-0.0011689 -0.00086707 -0.00018001 -0.00029861
0.0025205 0.00094667 -0.00081474 -0.0016352 -0.00085739 0.0013354 0.24897 0.051427
-0.006087 0.0070267 0.0022405 -0.00080147
-0.00090461 -0.0011384 -0.00093369 -0.00049797 -0.0011612 -0.00085775 -0.0060738 0.0070522
0.2037 0.14014 -0.0041785 0.0090616
-0.00030488 0.00070751 -0.00059694 -0.0006776 -0.00017156 -0.00029699 0.0022452 -0.00080556
-0.0041723 0.0090696 0.23942 0.21288
1700000000 0.29022 -0.025839 0.0021011 0.0091782 -0.0034661 0.0001506 0.0028818 -0.0010991
-0.0018784 -0.00033758 0.00066674 0.00043608
0.0020878 0.0091859 0.22405 0.24052 0.003815 0.00066182 -0.0014392 -0.00049255
-0.00082577 -6.0415e-05 -0.00097454 -0.00040455
-0.0034708 0.00015592 0.0038272 0.00064208 0.25986 -0.19735 0.00036301 0.0016591
-0.0017953 -0.0001396 -0.00056938 -0.00091388
0.0028878 -0.0010992 -0.0014422 -0.00048341 0.00036656 0.0016645 0.24529 0.00051443
-0.0041458 0.0073539 0.0013323 -0.0021392
-0.0018856 -0.00032078 -0.00082544 -5.8082e-05 -0.001797 -0.00012236 -0.0041379 0.0073574
0.22135 0.11828 0.00027191 0.0093519
0.00068404 0.00043821 -0.00097579 -0.00040278 -0.00057073 -0.0009035 0.0013228 -0.0021479
0.00027622 0.0093621 0.2571 0.17856
1760000000 0.27701 -0.074233 0.00426 0.0059702 -0.002291 0.00089294 0.0013512 -0.0033216
-0.00096954 0.00074223 0.00033754 -0.00054703
0.0042514 0.0059744 0.2498 0.20033 0.0017087 -0.0010918 -0.0010853 0.00026144
-0.0012162 0.00086815 -0.00062484 0.00055934
-0.0022928 0.00091052 0.0016861 -0.0011138 0.21091 -0.23047 0.0011907 0.0012886
-0.0011372 0.0014451 -0.0013653 -0.00033543
0.0013361 -0.0033381 -0.0010858 0.00027014 0.0011907 0.0012904 0.23492 -0.051749
-0.0016901 0.0067898 -0.00046212 -0.0023042
-0.00096393 0.0007463 -0.0012085 0.0008748 -0.0011366 0.001457 -0.0016641 0.0067904
0.23621 0.081627 0.0040412 0.0065091
0.00032951 -0.0005547 -0.00061444 0.00057021 -0.001361 -0.00032784 -0.00047049 -0.0023053
0.0040448 0.0065086 0.27032 0.14088
1820000000 0.25145 -0.11116 0.0043849 0.0025066 -0.000116 0.002443 -0.00090003 -0.0030379
-0.00074029 0.00069481 2.0723e-05 -0.00018144
0.0043827 0.0025057 0.25944 0.17004 -0.00028472 -0.00010225 -0.0012204 0.00090544
-0.00017507 0.0014642 -0.00050245 0.00055669
-8.9761e-05 0.00245 -0.00028118 -8.3992e-05 0.16085 -0.24627 0.0015982 0.00046489
-0.00024508 0.0021708 -0.0013855 0.00056828
-0.00091752 -0.0030434 -0.001213 0.00090909 0.0015896 0.00046161 0.20355 -0.098962
-0.00066733 0.0054655 -0.001757 -0.0015297
-0.00074573 0.0007047 -0.00016119 0.0014593 -0.00023875 0.0021807 -0.0006516 0.0054666
0.25234 0.050289 0.0049751 0.0029799
1.4499e-05 -0.00018241 -0.00050047 0.00056194 -0.0013964 0.00056714 -0.0017509 -0.0015277
0.0049841 0.0029728 0.27367 0.10478
1880000000 0.21554 -0.15054 0.0021763 0.00031648 -0.00037069 0.0022398 -0.0027924 -0.0022306
-0.00017804 0.0013485 0.00028605 -0.0005943
0.0021756 0.0003294 0.26346 0.12328 -0.002253 0.0015873 -0.00011088 0.0016822
0.00065439 0.0014892 0.00027674 0.0010102
-0.00035737 0.002222 -0.0022448 0.0016051 0.10872 -0.2556 0.0019671 -0.0010003
0.0015135 0.001991 -0.00078973 0.001408
-0.0028079 -0.0022294 -9.5978e-05 0.0016785 0.001968 -0.0010014 0.16167 -0.13833
-0.00051119 0.0041262 -0.0024643 0.00073988
-0.00016067 0.0013423 0.00067104 0.0014862 0.0015096 0.0019962 -0.00049407 0.0041342
0.25368 0.01549 0.0044497 0.0010063
0.00029691 -0.00059423 0.00028921 0.0010065 -0.00078021 0.0014105 -0.0024662 0.00074507
0.0044492 0.0010039 0.27428 0.070488
1940000000 0.17571 -0.17549 -9.4375e-05 -0.0013832 0.0014179 0.0020131 -0.0037539 0.00045035
0.0011421 0.0009233 -0.00067433 -0.00064387
-9.449e-05 -0.0013785 0.26339 0.091432 -0.0012439 0.0038713 0.00098249 0.0012383
0.002131 0.00060834 0.00088316 0.00022276
0.0014177 0.0020069 -0.0012231 0.0038665 0.062365 -0.24927 0.00029697 -0.0024593
0.0024884 0.00041388 0.00031482 0.0015979
-0.0037566 0.00046957 0.0010003 0.0012327 0.00028354 -0.0024639 0.10846 -0.1672
-0.0018263 0.0036312 -0.0014027 0.0018212
0.0011628 0.0009162 0.0021516 0.00058742 0.0024826 0.00040547 -0.0018099 0.0036438
0.25293 -0.025065 0.0031267 -0.0022352
-0.00069592 -0.00061906 0.00088083 0.00021057 0.00031375 0.0015999 -0.0013874 0.001825
0.0031228 -0.0022383 0.26391 0.034724
2000000000 0.12956 -0.18903 -0.0039261 0.00073405 0.0024831 0.0016353 -0.0023685 0.0036014
0.00086847 0.00024027 -0.00069832 0.00044278
-0.0039207 0.00073483 0.24877 0.056077 -0.0010179 0.0057717 0.0015901 0.00017368
0.0016765 -0.0015898 0.0005333 0.0001381
0.0024799 0.0016166 -0.00096532 0.0057739 0.01877 -0.23462 -0.0015492 -0.0015006
0.0020678 -0.001286 0.0016451 0.0013829
-0.0023601 0.0036015 0.0015986 0.00016309 -0.0015428 -0.0015038 0.05532 -0.17565
-0.0033208 0.0043348 0.00010598 0.0024311
0.00086678 0.00022384 0.0016761 -0.0016104 0.0020631 -0.0012896 -0.0033067 0.0043524
