!Keysight Technologies,M9804A,MY58100912,A.14.10.03
!Date: Thursday, April 27, 2023 10:28:33
!Correction: S11(C  6-Port  ) 
!S12(C  6-Port  ) 
!S13(C  6-Port  ) 
!S14(C  6-Port  ) 
!S15(C  6-Port  ) 
!S16(C  6-Port  ) 
!S21(C  6-Port  ) 
!S22(C  6-Port  ) 
!S23(C  6-Port  ) 
!S24(C  6-Port  ) 
!S25(C  6-Port  ) 
!S26(C  6-Port  ) 
!S31(C  6-Port  ) 
!S32(C  6-Port  ) 
!S33(C  6-Port  ) 
!S34(C  6-Port  ) 
!S35(C  6-Port  ) 
!S36(C  6-Port  ) 
!S41(C  6-Port  ) 
!S42(C  6-Port  ) 
!S43(C  6-Port  ) 
!S44(C  6-Port  ) 
!S45(C  6-Port  ) 
!S46(C  6-Port  ) 
!S51(C  6-Port  ) 
!S52(C  6-Port  ) 
!S53(C  6-Port  ) 
!S54(C  6-Port  ) 
!S55(C  6-Port  ) 
!S56(C  6-Port  ) 
!S61(C  6-Port  ) 
!S62(C  6-Port  ) 
!S63(C  6-Port  ) 
!S64(C  6-Port  ) 
!S65(C  6-Port  ) 
!S66(C  6-Port  ) 
!S6P File: Measurement: :
# Hz S  RI   R 50
500000000 -0.3344 -0.052988 -0.010636 -0.0005285 -0.0083145 0.012945 -0.0056119 0.011767
0.01278 0.005867 -0.0050072 0.0069357
-0.010554 -0.0016657 -0.41637 -0.062434 0.0083688 -0.01068 0.0014865 0.012515
0.0076848 0.0030969 0.0019245 0.014131
-0.0085507 0.013437 0.0082163 -0.010481 -0.26618 0.1996 0.0069613 0.0036818
-0.001761 0.0089303 0.00082756 0.011875
-0.0049748 0.012802 0.0017527 0.011909 0.0069612 0.0037545 -0.33037 0.04473
-0.018865 -0.004844 0.017982 0.026934
0.012202 0.0055178 0.0076374 0.003193 -0.0019152 0.0085872 -0.018534 -0.0047447
-0.24726 -0.19081 -0.026424 0.0052743
-0.005413 0.0088151 0.0018628 0.013403 0.00068091 0.01238 0.018401 0.02693
-0.026858 0.0052023 -0.27059 -0.1159
560000000 -0.31789 0.11308 -0.022887 -0.064681 0.00069279 0.013258 0.0058448 0.010632
0.0106 0.0034621 0.010286 0.0085076
-0.022201 -0.064774 -0.37546 0.098476 -0.040478 -0.037598 0.014091 0.0036753
-0.012095 -0.0043767 0.0030817 0.00073482
0.00040788 0.01309 -0.041401 -0.037819 -0.18531 0.25068 0.00061638 -0.0050644
0.018732 0.0048151 0.0082089 -0.005731
0.0053659 0.011007 0.01429 0.003798 0.00014627 -0.0051794 -0.30658 0.13607
0.005793 -0.024993 0.0054746 -0.021059
0.010532 0.002693 -0.011738 -0.0041331 0.018841 0.0051474 0.0062518 -0.025625
-0.31132 -0.012415 0.0088299 -0.048556
0.012178 0.0073306 0.0030275 0.00043029 0.0089206 -0.0051159 0.0055382 -0.020261
0.0094229 -0.049034 -0.33112 0.027881
620000000 -0.27781 0.094177 -0.02246 0.0081044 0.0039487 0.0095345 0.0084767 -0.0052457
0.011698 -0.00053887 0.00097094 -0.0021606
-0.022725 0.0087623 -0.40289 0.049051 -0.018384 0.00045344 -0.0013072 -0.0027072
0.012018 -0.0058225 0.0011796 -0.0040135
0.0039364 0.0097908 -0.018499 0.00015028 -0.15575 0.26003 -0.0010189 -0.0051914
-0.0035559 -0.0035007 0.0085775 -0.0023757
0.0082173 -0.0049602 -0.001194 -0.0027462 -0.0012449 -0.0050702 -0.26553 0.14676
-0.038543 -0.02171 0.0119 0.027075
0.01214 -0.00087896 0.012268 -0.0058888 -0.0034501 -0.0031829 -0.038016 -0.021315
-0.22991 -0.042811 -0.038418 0.011738
0.0019457 -0.0023369 0.00095762 -0.0040956 0.0078433 -0.0025839 0.011368 0.027251
-0.038296 0.01097 -0.25178 -0.0047435
680000000 -0.23943 0.18467 -0.026678 -0.015011 0.0046977 0.0051308 0.0013908 -0.0077175
-0.0023122 -0.012413 0.0049003 -0.0069149
-0.026701 -0.015095 -0.38985 0.1498 -0.032502 -0.002489 -0.0015086 -0.0011664
-0.0016335 -0.0096017 -0.00090136 -0.0022913
0.004792 0.0051529 -0.032731 -0.0021637 -0.1044 0.28013 -0.0011412 -0.00046385
-0.001908 9.9361e-05 -0.0031846 -0.0096172
0.0021377 -0.0083227 -0.001555 -0.0011444 -0.0010332 -0.00053353 -0.2213 0.19758
-0.023393 -0.0087236 -0.0086428 -0.011771
-0.0027352 -0.011961 -0.0016951 -0.0098883 -0.0019835 0.00011699 -0.023135 -0.0087562
-0.2785 0.055423 -0.0080917 -0.0085006
0.005059 -0.0065884 -0.0010236 -0.0019269 -0.0028368 -0.0095926 -0.0089809 -0.011779
-0.0076432 -0.0083695 -0.25813 0.098295
740000000 -0.19396 0.17684 -0.040509 0.026197 0.013146 -0.0049607 -0.00074498 -0.0039882
-0.0046631 -0.0043872 -0.0077193 0.0032332
-0.040516 0.025863 -0.33505 0.16937 -0.037132 0.034372 -0.00057204 -0.0063488
-0.012663 0.0075465 -0.0014896 -0.006104
0.013364 -0.0043371 -0.037266 0.03474 -0.070157 0.27876 -0.002064 0.0034898
-0.0036343 -0.0064076 -0.0016845 0.0016718
-0.00090686 -0.0037906 -0.00036483 -0.0063418 -0.0022406 0.0034621 -0.20427 0.20379
-0.041674 -0.0076826 0.022038 0.014135
-0.0049572 -0.0042057 -0.012808 0.0073702 -0.0035585 -0.0061524 -0.042236 -0.0073788
-0.18161 0.081287 -0.04181 0.00035876
-0.0070814 0.0036882 -0.0013539 -0.005617 -0.0021228 0.0016599 0.022013 0.013858
-0.041802 0.00094984 -0.24828 0.10206
800000000 -0.16256 0.22083 -0.023203 0.016474 0.0055215 -0.010097 -0.0047102 -0.0018944
-0.0047992 0.0030592 0.0044785 0.00011156
-0.023118 0.01631 -0.34171 0.23958 -0.0088121 0.034287 -0.0026362 0.0023122
-0.001723 0.0032064 0.00083161 0.0050523
0.0052088 -0.010092 -0.0087667 0.034449 -0.031404 0.30264 0.0008851 0.0016731
-0.00014549 0.0038309 -0.0016934 0.0010651
-0.0047692 -0.002335 -0.0027632 0.002152 0.0007451 0.0015636 -0.17453 0.23201
-0.029 0.013416 0.013591 -0.010267
-0.0053819 0.0027497 -0.0017766 0.0033602 -1.3875e-05 0.0040857 -0.029122 0.01365
-0.22171 0.11154 -0.017574 0.019598
0.0038408 0.00039291 0.00080297 0.0054023 -0.0016578 0.00089331 0.013639 -0.010176
-0.017342 0.019566 -0.23958 0.15135
860000000 -0.12798 0.24155 -0.018028 0.030991 -0.002719 -0.0098881 -0.0016099 0.0010653
0.0041392 0.0060356 -0.003046 -0.0027346
-0.018085 0.031003 -0.29325 0.28233 0.0074465 0.034569 0.00025919 0.0021788
0.0035467 0.0012425 0.0036753 0.00036589
-0.0027214 -0.0097899 0.007522 0.034691 0.016568 0.3109 -0.00044938 7.4082e-05
0.002488 -0.00097042 0.0019202 0.0043276
-0.0020969 0.0012951 0.00027577 0.0024058 -0.00048579 0.0002444 -0.13739 0.24318
-0.01863 0.018487 -0.0058197 -0.0088111
0.0041105 0.0054934 0.0033679 0.00076974 0.0024838 -0.00088775 -0.01863 0.018368
-0.16355 0.16189 -0.024846 0.016601
-0.0029035 -0.0022991 0.0032902 0.00078278 0.0019296 0.0046518 -0.0060686 -0.0082574
-0.024758 0.016346 -0.18894 0.19655
920000000 -0.1037 0.26464 0.0046264 0.038672 -0.0088192 -0.0047978 -0.0014746 0.0020554
0.0022246 0.0019239 0.0030493 -0.0015291
0.0045383 0.038504 -0.26538 0.30356 0.028269 0.022818 0.001704 0.0013223
0.0080324 -5.8233e-05 0.0042544 -0.002608
-0.0089725 -0.0048247 0.028364 0.022789 0.061987 0.31198 0.0021703 7.3118e-05
0.0014815 -0.00037057 0.0011484 -0.0010524
-0.0016976 0.0019432 0.0016685 0.0013676 0.0021143 7.2091e-05 -0.1131 0.2598
-0.01083 0.030846 0.0034589 -0.0064747
0.0021193 0.001796 0.0080724 0.00012367 0.0015205 -0.00038753 -0.010906 0.030654
-0.15243 0.16797 -0.0021745 0.026293
0.0029001 -0.0013179 0.0042931 -0.0026394 0.0011912 -0.0012769 0.0034307 -0.0064751
-0.0025097 0.026399 -0.19602 0.20986
980000000 -0.056816 0.28425 0.017222 0.030234 -0.0090922 0.0040203 0.0020923 0.0035676
0.00429 -0.0018997 -0.0029254 -0.0022201
0.017236 0.030169 -0.21241 0.33821 0.033384 0.0054066 0.0022851 -0.00024516
0.0021169 -0.0061703 -0.00024733 -0.002528
-0.0090194 0.0040582 0.033448 0.0052615 0.10762 0.30611 0.00088907 -0.0012468
0.00086363 -0.0021437 0.0016112 -0.00023653
0.0021012 0.0035201 0.0023036 -0.00019839 0.00091745 -0.0012193 -0.075121 0.27092
0.0070197 0.030372 -0.0087844 -0.0066413
0.0041773 -0.0018413 0.0019231 -0.0059039 0.00082271 -0.0021337 0.0073081 0.030421
-0.11896 0.1977 0.0060397 0.019082
-0.0026639 -0.0024362 -0.00012363 -0.002811 0.0016596 -0.00042414 -0.0087826 -0.0068576
0.005756 0.01886 -0.15351 0.25369
1040000000 -0.016102 0.29372 0.03293 0.01916 -0.0016198 0.0068228 0.0028115 0.00070279
0.00035121 -0.0038966 3.953e-05 -0.0019867
0.032858 0.01914 -0.17745 0.3516 0.030014 -0.014524 0.001731 -0.0017937
-0.002099 -0.0028869 -0.0009773 -0.003088
-0.0015181 0.0069079 0.030053 -0.014659 0.15322 0.29326 -0.00038838 -0.0017613
-0.00142 -0.0012442 -0.0005459 -0.0014153
0.0028591 0.0005744 0.0018141 -0.0017414 -0.00037566 -0.0017537 -0.047131 0.28077
0.019394 0.018957 -0.0022702 0.0013171
0.00068451 -0.0041321 -0.0020411 -0.0030174 -0.0013696 -0.0012777 0.019456 0.018869
-0.085866 0.20386 0.013344 0.018118
7.0217e-05 -0.0017651 -0.00099861 -0.0030882 -0.00052492 -0.0013756 -0.0024075 0.0014131
0.013144 0.017939 -0.12991 0.27374
1100000000 0.028841 0.30255 0.036326 -0.0035544 0.002722 0.0040224 0.0024186 -0.0014077
-0.0022609 -0.0033697 -0.0042144 -0.00023349
0.036276 -0.0034545 -0.13441 0.36962 0.015974 -0.027861 8.8035e-05 -0.0020055
-0.0035015 -0.0011989 -0.0036811 -0.00084408
0.0027472 0.0039353 0.015829 -0.027956 0.19915 0.27408 -0.0019231 -5.1927e-05
-0.0018503 0.0002878 -0.0012112 -0.0006761
0.0024385 -0.001446 0.00014742 -0.0020687 -0.0019469 -6.7485e-05 -0.0067478 0.28564
0.025146 0.0057608 -0.0023069 0.00023546
-0.0023841 -0.0032797 -0.0034565 -0.0011756 -0.0017981 0.00023143 0.025133 0.0056717
-0.064494 0.21706 0.019515 0.0078134
-0.0040013 -0.00044398 -0.0034867 -0.00075954 -0.001172 -0.00060197 -0.0022974 5.722e-05
0.019616 0.0079307 -0.084993 0.30174
1160000000 0.079811 0.29925 0.024527 -0.020385 0.002692 -0.00050332 -0.00034423 -0.0024776
-0.0043336 -0.00096916 -0.0013453 0.0040774
0.024467 -0.020375 -0.091237 0.3742 -0.0031146 -0.029529 -0.0016217 -0.0018055
-0.0028258 0.0023236 -0.0017522 0.0019214
0.0026938 -0.00046019 -0.0033004 -0.02956 0.2423 0.24438 -0.00089701 0.0016677
-0.00079021 0.0017929 -0.00094367 0.00028432
-0.00023992 -0.002576 -0.0016292 -0.0017094 -0.00088041 0.0016216 0.032541 0.28274
0.021683 -0.010202 -0.0032456 0.0049262
-0.0043496 -0.00088922 -0.0028144 0.0023714 -0.00075771 0.0018583 0.02164 -0.010296
-0.030621 0.2244 0.018195 -0.0006972
-0.0012663 0.0041518 -0.0016858 0.0017517 -0.0010155 0.00025911 -0.0031507 0.0050521
0.018086 -0.00082983 -0.037606 0.30431
1220000000 0.12406 0.28948 0.011283 -0.030024 -0.0016018 -0.00096925 -0.00021361 -0.00082223
-0.0029321 0.0023063 0.0010116 0.0020642
0.011243 -0.029979 -0.047326 0.38738 -0.01676 -0.02196 -0.0027477 0.00044456
-0.00023033 0.0030437 -0.00098972 0.0019007
-0.0015918 -0.0010074 -0.016911 -0.021933 0.28171 0.20632 0.00061156 0.0017826
0.00046074 0.0012664 0.00015259 0.0006576
-0.00026357 -0.00077278 -0.0027468 0.00034845 0.00059727 0.0017327 0.072668 0.27396
0.011156 -0.017221 0.0021781 0.001439
-0.0029764 0.0022867 -0.00017352 0.0030436 0.00046654 0.0012406 0.011149 -0.01723
-0.006549 0.23218 0.013536 -0.012969
0.0010296 0.0021073 -0.0010549 0.0019283 5.8805e-05 0.00057795 0.0021118 0.0013995
0.013574 -0.013018 -0.0055642 0.31922
1280000000 0.17464 0.26875 -0.007354 -0.028782 -0.0020576 0.0025507 -0.0008282 -0.0018498
-0.00073912 0.0033879 0.0025306 0.0014545
-0.0072866 -0.028782 -0.0014292 0.37906 -0.024116 -0.0091162 -0.0011326 0.0014534
0.0015151 0.0018167 0.00043471 0.0020999
-0.0020593 0.0025678 -0.024217 -0.0090196 0.31295 0.16302 0.0014947 4.515e-05
0.0011426 0.00040181 0.00033927 0.00026732
-0.00085325 -0.0017978 -0.0010929 0.0015091 0.0015146 0.00010606 0.10941 0.25785
0.0014224 -0.019667 -0.00028068 0.00016406
-0.00071388 0.0033687 0.0014899 0.0017573 0.00113 0.00038318 0.0013495 -0.019671
0.030272 0.23477 0.0028904 -0.015002
0.0026663 0.0014707 0.00062627 0.0020577 0.00033781 0.00037362 -0.00026615 0.00019278
0.0029012 -0.015064 0.041248 0.32058
1340000000 0.212 0.23577 -0.017291 -0.01945 0.00073 0.0047727 -0.0016986 -0.00063836
0.0014744 0.0028797 0.0020186 -0.0012808
-0.017269 -0.019389 0.037846 0.37177 -0.022042 0.0039059 -0.00022585 0.0021291
0.0018257 0.00096154 0.0012621 0.00089103
0.00078681 0.0047736 -0.022054 0.0040423 0.33536 0.11592 0.0011258 -0.00080874
0.00060731 -0.00042401 0.00010105 0.00030795
-0.0017093 -0.00069887 -0.00022597 0.0021371 0.0011525 -0.00083573 0.14248 0.23701
-0.0082204 -0.017148 0.00079696 0.00051009
0.0014671 0.0028074 0.0018522 0.0009428 0.00061288 -0.00037434 -0.0082777 -0.017138
0.060086 0.22991 -0.0037759 -0.013602
0.0018843 -0.0012225 0.0011845 0.00097544 7.4807e-05 0.00026053 0.00076475 0.00052093
-0.003755 -0.013702 0.079362 0.31516
1400000000 0.24576 0.19843 -0.023352 -0.0079751 0.005285 0.0033846 -0.0020017 0.00057536
0.0025834 0.00099006 0.00050395 -0.001601
-0.023337 -0.0080165 0.075607 0.35968 -0.015449 0.012465 0.0013734 0.0015452
0.0012784 -0.00048085 0.0012929 0.00026988
0.0053535 0.0033907 -0.01542 0.012539 0.34923 0.062656 0.00019466 -0.0015335
0.00011193 -0.00033811 0.00039126 0.00018224
-0.0019575 0.00059679 0.0013621 0.0015498 0.00020875 -0.0015432 0.17201 0.20816
-0.014421 -0.010375 -0.00083453 -0.00026202
0.0026264 0.00093522 0.0012761 -0.00056508 6.3843e-05 -0.00038504 -0.014454 -0.010359
0.092921 0.22471 -0.0097896 -0.0086456
0.0005012 -0.0016015 0.0013023 0.00015654 0.00038079 0.0001842 -0.00085898 -0.00028767
-0.0097924 -0.0085978 0.12323 0.30403
1460000000 0.26901 0.15488 -0.02056 0.0042355 0.0059176 -0.0017244 -0.0014871 0.0016027
0.002255 -0.00062518 -0.00042308 -0.0011475
-0.020548 0.0042695 0.11027 0.3383 -0.0065081 0.015724 0.0018869 0.00032738
0.0011196 -0.0012126 0.0013123 -0.00057254
0.0059268 -0.0018378 -0.0064243 0.015792 0.3559 0.0083326 -0.0010542 -0.001346
0.00019616 -0.00020479 0.00073642 -0.00034456
-0.0015461 0.0015777 0.0018759 0.00034092 -0.0010479 -0.0013382 0.19867 0.17874
-0.015817 -0.0038405 -0.00087974 0.0019664
0.0022379 -0.00051116 0.0010987 -0.0012078 0.00027383 -0.00026564 -0.015858 -0.0038323
0.12207 0.2102 -0.011638 -0.0028875
-0.00039683 -0.0011334 0.0013135 -0.0005193 0.00062977 -0.00029554 -0.0008103 0.0019392
-0.011628 -0.0029225 0.15668 0.28334
1520000000 0.28178 0.11384 -0.015166 0.0099384 0.0034567 -0.0043164 1.7934e-05 0.0023847
0.0020771 -0.0020594 -0.0012687 -0.00022988
-0.015151 0.0099089 0.14425 0.32412 0.0015221 0.013542 0.0018612 -0.00080929
0.00027498 -0.0011474 0.00039977 -0.0011694
0.0034501 -0.0043728 0.0016024 0.013542 0.34947 -0.047677 -0.00097406 -0.00047257
0.00078674 -0.00085791 0.00010542 -0.00030454
4.7576e-05 0.0024537 0.0018603 -0.00082536 -0.00099749 -0.0004667 0.22197 0.14028
-0.015527 0.0021567 0.0013916 0.0019827
0.0021809 -0.0020646 0.00028639 -0.0011378 0.00081994 -0.00077684 -0.015492 0.0022376
0.15007 0.19668 -0.011605 0.0012769
-0.0012993 -0.00020985 0.00040315 -0.0011586 0.00017675 -0.0003305 0.0014356 0.0019298
-0.011585 0.0013065 0.18951 0.26253
1580000000 0.29196 0.067791 -0.0085479 0.013373 -0.00098957 -0.0050468 0.0012854 0.0018439
-0.00021771 -0.0023001 -0.00042017 0.0004039
-0.0085412 0.013374 0.17207 0.29952 0.0053941 0.0085181 0.00065059 -0.0017654
-0.0004333 -0.0012623 -0.00018684 -0.0010081
-0.0010391 -0.0050754 0.0054655 0.008488 0.32987 -0.1054 -0.0016924 0.00037142
-0.00020787 -0.0013334 9.284e-05 -0.00065358
0.0012917 0.0018224 0.00061438 -0.0018057 -0.0016836 0.00037727 0.23568 0.10063
-0.012405 0.0073163 0.0019395 0.00075683
-0.00023727 -0.0023334 -0.00043123 -0.0012598 -0.00023201 -0.0013203 -0.012435 0.0073371
0.17395 0.17881 -0.0094144 0.0069104
-0.00044448 0.00033016 -0.00022962 -0.00099679 4.6618e-05 -0.000642 0.0018343 0.00085226
-0.009443 0.0068781 0.2209 0.23548
1640000000 0.29469 0.026888 -0.0018025 0.012447 -0.0029397 -0.0026596 0.0025233 0.0011419
-0.00092894 -0.0016729 -0.00044297 0.00074634
-0.0018232 0.01244 0.20187 0.27478 0.0061792 0.0034807 -0.00071378 -0.002039
-0.0010718 -0.00064559 -0.00069368 -0.00076501
-0.003036 -0.0025969 0.006212 0.0034461 0.30169 -0.1547 -0.00087511 0.001329
-0.0011329 -0.0010984 -0.00024508 -0.00028622
0.0025496 0.0011756 -0.00070409 -0.0020085 -0.00088044 0.0013573 0.24775 0.051628
-0.0081896 0.0091014 0.0023577 -0.00060787
-0.00092309 -0.0016344 -0.0010936 -0.00063499 -0.0011457 -0.0010798 -0.0081303 0.0091301
0.19708 0.15525 -0.0048939 0.0089917
-0.0004858 0.00071656 -0.00068218 -0.00072879 -0.00032739 -0.00026403 0.0024489 -0.00063617
-0.0047505 0.0089448 0.24646 0.20431
1700000000 0.28829 -0.018288 0.0017697 0.0097563 -0.0037082 8.5903e-05 0.0030391 -0.0010931
-0.0021499 -0.00057027 0.00063274 0.0006575
0.0017975 0.0097403 0.22039 0.24336 0.0039839 0.00043144 -0.0017254 -0.00069251
-0.0010492 -0.00011369 -0.0010098 -0.00035618
-0.0036069 0.0001193 0.0039697 0.00043748 0.2584 -0.19456 0.00025225 0.0018688
-0.0022224 -0.0001518 -0.00053269 -0.00078083
0.0029663 -0.001171 -0.0017556 -0.00070324 0.00025655 0.0018416 0.24424 0.0019163
-0.0052506 0.010269 0.0015235 -0.0020102
-0.0021787 -0.00061682 -0.0010373 -0.00011309 -0.0021434 -0.00011556 -0.0052495 0.010276
0.21451 0.13494 -0.00048426 0.0094594
0.0006144 0.00067968 -0.0010701 -0.00036319 -0.00055673 -0.00079216 0.0015694 -0.0019994
-0.00039463 0.0094579 0.26256 0.17005
1760000000 0.27694 -0.067205 0.0043544 0.0066178 -0.0022662 0.0010835 0.0014389 -0.0031269
-0.001545 0.00089724 0.00050628 -0.00033422
0.0043376 0.0066079 0.24658 0.20359 0.001657 -0.0013919 -0.0015203 0.00030886
-0.0013628 0.00093597 -0.00072031 0.00056568
-0.0022872 0.0011198 0.0016475 -0.001421 0.21052 -0.22762 0.0011029 0.0013456
-0.0015099 0.0016301 -0.0011166 -0.00034336
0.0014275 -0.003062 -0.0014887 0.00032474 0.0011992 0.0013486 0.23521 -0.049436
-0.0014665 0.0097085 -0.0001146 -0.002367
-0.0014615 0.0008997 -0.0013404 0.00095708 -0.00147 0.0016434 -0.0014703 0.0097004
0.22967 0.10064 0.0032742 0.007085
0.00049531 -0.00041673 -0.00073292 0.00057162 -0.0012002 -0.00035428 -9.1588e-05 -0.0022795
0.0032487 0.0071124 0.27462 0.13218
1820000000 0.25274 -0.10488 0.0046692 0.0029234 -0.00023109 0.0024239 -0.00089832 -0.0029561
-0.0010597 0.0012582 0.00013179 -0.00011028
0.0046368 0.0029217 0.25695 0.17366 -0.000716 -0.00014118 -0.001399 0.0012587
-0.00023288 0.0015467 -0.00047769 0.00070362
-0.00014735 0.0025129 -0.00067177 -0.00015871 0.15966 -0.24327 0.0018128 0.0006194
-0.00021048 0.0027657 -0.0011004 0.00054336
-0.00082632 -0.0029654 -0.0014233 0.0012463 0.0018427 0.00067004 0.20535 -0.096416
0.00069711 0.0083809 -0.0014046 -0.0013783
-0.0011016 0.0013407 -0.0002583 0.001548 -0.00022261 0.0028223 0.00068439 0.0084008
0.24718 0.072087 0.0044461 0.004019
0.00012072 -7.5767e-05 -0.00046383 0.00073752 -0.0011003 0.0004151 -0.0013602 -0.0013244
0.0044559 0.0040254 0.27672 0.095935
1880000000 0.21795 -0.1458 0.0027063 0.00046234 -0.00026456 0.002117 -0.0025349 -0.0022664
0.00013447 0.0020896 0.00020759 -0.0005519
0.0026645 0.00045579 0.26171 0.1271 -0.0024553 0.0018857 7.1863e-05 0.002114
0.00064388 0.00175 0.0003055 0.0010496
-0.00029517 0.0022166 -0.0024271 0.0019199 0.10795 -0.25244 0.0022447 -0.00084978
0.0018146 0.0023629 -0.00094195 0.0012916
-0.0025438 -0.0022086 6.3804e-05 0.0021027 0.0021902 -0.00075903 0.16479 -0.13678
0.0020657 0.0061652 -0.0020507 0.00035395
0.00015097 0.002108 0.00067082 0.0017331 0.0017918 0.0023646 0.002107 0.0060779
0.25142 0.040528 0.0048808 0.0019821
0.000122 -0.00066681 0.00028275 0.00097935 -0.00095871 0.0012401 -0.0021715 0.00036462
0.0047574 0.0020081 0.27661 0.062054
1940000000 0.17843 -0.17142 0.00027481 -0.0012562 0.0014085 0.0019867 -0.0032958 0.00027142
0.0017662 0.001119 -0.00051075 -0.00074961
0.00022167 -0.0012836 0.26254 0.095383 -0.0011195 0.0042562 0.0015588 0.0014795
0.0022208 0.00078884 0.0011508 0.00021664
0.001471 0.0019449 -0.001049 0.0042339 0.062709 -0.24567 0.00076211 -0.002546
0.0029047 0.00035268 0.00069315 0.0013167
-0.0033733 0.00025794 0.0015084 0.0014084 0.0007468 -0.0024817 0.11225 -0.16717
0.001573 0.0043918 -0.0013006 0.0018267
0.0016546 0.0011561 0.0022054 0.00077039 0.0028743 0.00035339 0.0015504 0.004386
0.25485 0.0020148 0.0035719 -0.0012289
-0.00045318 -0.00069929 0.0012282 0.00031139 0.00070771 0.0013452 -0.0012264 0.0016459
0.0036338 -0.0013428 0.26565 0.025969
2000000000 0.13224 -0.18667 -0.0035154 0.00040528 0.002689 0.0011397 -0.0024101 0.0033707
0.0015382 2.0525e-05 -0.00071671 0.00042145
-0.0034929 0.0003941 0.24882 0.059558 -0.00034451 0.0056772 0.0020276 8.7016e-05
0.0018952 -0.0011716 0.00055723 1.2671e-07
0.0026926 0.0012868 -0.00029286 0.0057383 0.01964 -0.23219 -0.0010894 -0.001911
0.0025409 -0.0015601 0.0013747 0.0012651
-0.0023392 0.0033082 0.0020078 6.4526e-05 -0.00122 -0.0020219 0.059122 -0.17712
0.00041097 0.0036638 0.00031576 0.0020514
0.001456 5.8875e-05 0.0018314 -0.0012092 0.0025047 -0.0016528 0.00038514 0.0037013
0.25031 -0.031534 0.0011528 -0.0023169
