!Keysight Technologies,M9804A,MY58100912,A.14.10.03
!Date: Thursday, April 27, 2023 10:28:33
!Correction: S11(C  6-Port  ) 
!S12(C  6-Port  ) 
!S13(C  6-Port  ) 
!S14(C  6-Port  ) 
!S15(C  6-Port  ) 
!S16(C  6-Port  ) 
!S21(C  6-Port  ) 
!S22(C  6-Port  ) 
!S23(C  6-Port  ) 
!S24(C  6-Port  ) 
!S25(C  6-Port  ) 
!S26(C  6-Port  ) 
!S31(C  6-Port  ) 
!S32(C  6-Port  ) 
!S33(C  6-Port  ) 
!S34(C  6-Port  ) 
!S35(C  6-Port  ) 
!S36(C  6-Port  ) 
!S41(C  6-Port  ) 
!S42(C  6-Port  ) 
!S43(C  6-Port  ) 
!S44(C  6-Port  ) 
!S45(C  6-Port  ) 
!S46(C  6-Port  ) 
!S51(C  6-Port  ) 
!S52(C  6-Port  ) 
!S53(C  6-Port  ) 
!S54(C  6-Port  ) 
!S55(C  6-Port  ) 
!S56(C  6-Port  ) 
!S61(C  6-Port  ) 
!S62(C  6-Port  ) 
!S63(C  6-Port  ) 
!S64(C  6-Port  ) 
!S65(C  6-Port  ) 
!S66(C  6-Port  ) 
!S6P File: Measurement: :
# Hz S  RI   R 50
500000000 -0.33423 -0.053017 -0.010212 -0.0012546 -0.0082568 0.012912 -0.0046483 0.011966
0.012551 0.006064 -0.0046104 0.0084205
-0.010207 -0.0012918 -0.41642 -0.062825 0.0083666 -0.010504 0.0016869 0.012035
0.0074959 0.0028535 0.0019592 0.013665
-0.0082557 0.012938 0.0083644 -0.010507 -0.2662 0.19959 0.0070017 0.003797
-0.0015206 0.0088002 0.00071377 0.012716
-0.0046286 0.011788 0.001854 0.012103 0.0070257 0.0038239 -0.33188 0.044262
-0.017852 -0.0053479 0.015979 0.025099
0.012548 0.0062141 0.0075198 0.0028153 -0.0015068 0.00869 -0.017889 -0.0053678
-0.24872 -0.19176 -0.024495 0.0042492
-0.0046105 0.0082405 0.0020295 0.01378 0.00073691 0.012775 0.016057 0.025282
-0.024456 0.0042482 -0.27275 -0.12035
560000000 -0.31819 0.11408 -0.023441 -0.063575 0.00012403 0.012106 0.005174 0.011246
0.012081 0.0044593 0.0099046 0.009058
-0.023414 -0.06355 -0.37584 0.098595 -0.041184 -0.037227 0.013557 0.0036179
-0.012383 -0.004254 0.0030567 -0.00076472
0.00015398 0.012013 -0.04135 -0.037045 -0.18533 0.24986 -0.0003222 -0.0048942
0.018849 0.0051622 0.0081919 -0.0057179
0.0054724 0.011219 0.013522 0.0033214 -0.0003462 -0.0046565 -0.30599 0.13546
0.0057329 -0.024926 0.00554 -0.021246
0.012028 0.0040687 -0.012459 -0.0035768 0.018502 0.0048281 0.0058474 -0.025034
-0.30845 -0.013101 0.0080897 -0.046844
0.010145 0.0086436 0.0029145 -0.00089152 0.0083513 -0.0056616 0.0054299 -0.02123
0.0080465 -0.046837 -0.33128 0.026161
620000000 -0.27762 0.093968 -0.023059 0.0082407 0.003491 0.009052 0.008509 -0.0051461
0.011801 -0.0012099 0.00050605 -0.0031777
-0.023036 0.0082273 -0.40317 0.049187 -0.01837 0.00041461 -0.0013136 -0.0024204
0.012166 -0.0062864 0.0008844 -0.0034773
0.0035601 0.009029 -0.018412 0.00044543 -0.15539 0.25967 -0.0011118 -0.0054503
-0.0030998 -0.0031145 0.0089245 -0.0032019
0.008484 -0.0051648 -0.0013215 -0.0024442 -0.0011659 -0.0053992 -0.26636 0.14616
-0.037126 -0.020231 0.011426 0.026501
0.011862 -0.0012762 0.012102 -0.0062913 -0.0031341 -0.0030764 -0.037146 -0.020206
-0.23173 -0.04583 -0.038795 0.011929
0.00041849 -0.0030347 0.00091325 -0.0034821 0.0088902 -0.0032167 0.011401 0.02653
-0.038857 0.01186 -0.25349 -0.0051852
680000000 -0.23805 0.18289 -0.02653 -0.01482 0.0046848 0.0052935 0.0014813 -0.0080751
-0.002436 -0.011995 0.0055268 -0.0074706
-0.026486 -0.014839 -0.38978 0.14951 -0.032576 -0.0023647 -0.0013803 -0.00078912
-0.0017705 -0.0096855 -0.0013315 -0.0018888
0.0046966 0.0052582 -0.032618 -0.0022583 -0.10432 0.2803 -0.0009978 -0.00030162
-0.0020449 -7.3545e-05 -0.0034695 -0.0089695
0.0015079 -0.0080578 -0.0013567 -0.0007054 -0.00094446 -0.00031597 -0.22118 0.19654
-0.023354 -0.0080863 -0.0089358 -0.012181
-0.0024301 -0.012112 -0.0018734 -0.0097292 -0.0020627 -0.00010483 -0.023344 -0.0081156
-0.27909 0.055792 -0.0078342 -0.0077845
0.00547 -0.0074418 -0.0013996 -0.0019176 -0.0034241 -0.0089494 -0.0089502 -0.012151
-0.0077557 -0.007724 -0.25989 0.096353
740000000 -0.19418 0.17686 -0.04013 0.026183 0.012869 -0.0048116 -0.00078486 -0.0041674
-0.0049687 -0.0040873 -0.00718 0.0034526
-0.040107 0.026148 -0.33553 0.16888 -0.037294 0.034336 -0.0003489 -0.0056828
-0.012102 0.0079309 -0.0013691 -0.0061847
0.012922 -0.0048192 -0.037205 0.034491 -0.07042 0.27846 -0.0023697 0.003377
-0.0035137 -0.0055372 -0.0017379 0.0014235
-0.00071998 -0.0041927 -0.00037999 -0.0056733 -0.0023711 0.003385 -0.2033 0.20429
-0.042765 -0.0070709 0.022952 0.014495
-0.0049076 -0.0039568 -0.012186 0.0079076 -0.0036494 -0.0055438 -0.042744 -0.0070524
-0.18096 0.082214 -0.042285 0.0021
-0.0073632 0.0034633 -0.0013431 -0.0060904 -0.0017083 0.0013336 0.022924 0.014489
-0.042338 0.0020365 -0.24653 0.10254
800000000 -0.16244 0.22048 -0.023013 0.016231 0.0053951 -0.010304 -0.0045613 -0.002131
-0.005169 0.0023676 0.0044859 0.00028822
-0.023006 0.016225 -0.3417 0.23926 -0.008871 0.034169 -0.0024282 0.00222
-0.001699 0.0028958 0.00084615 0.0053994
0.0053807 -0.010299 -0.0087746 0.034235 -0.031364 0.30251 0.00089698 0.0016093
-0.00027822 0.0037125 -0.0017265 0.0011828
-0.0045523 -0.0020637 -0.0024077 0.0022601 0.00088634 0.0016222 -0.17429 0.23223
-0.029067 0.01283 0.01399 -0.010052
-0.0051186 0.0024691 -0.0017415 0.0029049 -0.00024121 0.0037484 -0.029079 0.012899
-0.22146 0.11247 -0.017351 0.019022
0.0044944 0.00035658 0.00090723 0.0054713 -0.0017469 0.0011863 0.013999 -0.010062
-0.017378 0.01903 -0.23907 0.15199
860000000 -0.12745 0.24151 -0.01805 0.031003 -0.0027472 -0.0098886 -0.0016105 0.0010234
0.0043335 0.0058712 -0.0029837 -0.0026807
-0.01805 0.030972 -0.29312 0.28254 0.0074451 0.03469 0.00036272 0.0022316
0.0039845 0.0014191 0.0034425 0.00037089
-0.0027675 -0.0098997 0.0075536 0.034692 0.016493 0.31079 -0.0004858 3.5989e-05
0.0026526 -0.0009189 0.0019558 0.0042142
-0.0016312 0.0010939 0.00034481 0.0022069 -0.00048998 3.3169e-05 -0.13724 0.24325
-0.018427 0.018382 -0.0059623 -0.0082897
0.0043356 0.0058545 0.0040041 0.0013031 0.0026554 -0.00093186 -0.0184 0.018409
-0.16536 0.16361 -0.023514 0.016238
-0.0030687 -0.0026731 0.0034313 0.00037434 0.0019398 0.0041893 -0.0059613 -0.0083512
-0.023496 0.016239 -0.19005 0.19549
920000000 -0.10373 0.26474 0.0045092 0.038517 -0.0088827 -0.0048656 -0.0016951 0.0019802
0.0020172 0.00221 0.0031588 -0.0015494
0.0045147 0.038495 -0.26559 0.30358 0.028167 0.022909 0.0016169 0.0014607
0.0080958 9.8278e-05 0.0042708 -0.0027074
-0.0088852 -0.0048395 0.028266 0.022833 0.061946 0.31199 0.0020827 2.0951e-05
0.0014564 -0.00020566 0.0012196 -0.0012049
-0.0016844 0.0019914 0.0016487 0.0014192 0.0021028 3.2723e-05 -0.11321 0.25983
-0.011156 0.030583 0.0032554 -0.0063157
0.0019129 0.0021749 0.0080055 6.8596e-05 0.001417 -0.00022328 -0.011105 0.03062
-0.15215 0.16831 -0.0020728 0.025865
0.0031542 -0.0015216 0.0042422 -0.002727 0.0012092 -0.0012257 0.0032418 -0.0063162
-0.0020606 0.025848 -0.19659 0.21053
980000000 -0.057108 0.28444 0.01708 0.030128 -0.0090233 0.0039796 0.0022011 0.003547
0.0041153 -0.0018548 -0.0029867 -0.0019797
0.017039 0.030117 -0.21252 0.33822 0.033409 0.0054756 0.0022578 -0.00028705
0.001955 -0.0061059 -0.00025946 -0.0024181
-0.0090211 0.0040129 0.033468 0.0053497 0.10763 0.30612 0.00089406 -0.0012799
0.00080198 -0.0021495 0.0016572 -0.00024697
0.0021831 0.0035763 0.0022922 -0.00026657 0.00089064 -0.0012659 -0.074945 0.27098
0.0072381 0.030254 -0.0088056 -0.006484
0.0041114 -0.0019127 0.001896 -0.0061565 0.00078694 -0.0021544 0.0072813 0.030228
-0.11944 0.19801 0.0061218 0.019653
-0.0030001 -0.002016 -0.0002042 -0.0025223 0.0016904 -0.00023919 -0.0088296 -0.0064649
0.0061239 0.01967 -0.15276 0.25342
1040000000 -0.016104 0.29355 0.032821 0.019155 -0.0016202 0.0068385 0.0028518 0.00063878
0.000399 -0.0038991 -0.00023355 -0.0019667
0.032796 0.019182 -0.17766 0.35182 0.030007 -0.014409 0.0016605 -0.0018202
-0.0018649 -0.0029337 -0.00086413 -0.0032626
-0.0015998 0.0068509 0.029952 -0.014555 0.15319 0.29326 -0.00037596 -0.0017998
-0.0013948 -0.0012406 -0.00048551 -0.0013717
0.0028497 0.00064006 0.0016816 -0.001842 -0.0003726 -0.0017889 -0.04721 0.28065
0.019405 0.018922 -0.0024061 0.0012418
0.00036395 -0.0038877 -0.0019215 -0.0029377 -0.0014296 -0.0012369 0.019427 0.018882
-0.085494 0.20412 0.013713 0.017492
-0.00021164 -0.0019576 -0.00088046 -0.0031927 -0.00048536 -0.0013482 -0.0024242 0.0012519
0.013712 0.017512 -0.13 0.27377
1100000000 0.028764 0.30252 0.036306 -0.0035089 0.0027453 0.0040649 0.0024556 -0.0013955
-0.0023067 -0.0033477 -0.0041522 -0.00029408
0.036285 -0.0034789 -0.13444 0.36963 0.015976 -0.027816 0.00014528 -0.0020048
-0.0035193 -0.0011307 -0.0036229 -0.00087645
0.0027642 0.0040559 0.01588 -0.027919 0.19912 0.27406 -0.0019233 -2.3713e-06
-0.0018118 0.00031923 -0.0012092 -0.00072879
0.0024471 -0.0013917 0.00015052 -0.0020001 -0.0019256 -9.9728e-06 -0.0067322 0.28557
0.025172 0.0056182 -0.0021629 0.00018559
-0.0023542 -0.0033405 -0.0035282 -0.0011319 -0.0018032 0.00034138 0.025188 0.0055824
-0.064655 0.21694 0.019609 0.0078945
-0.0041645 -0.00027136 -0.0036696 -0.00082863 -0.001223 -0.0007061 -0.0021559 0.00018434
0.019594 0.007891 -0.084346 0.30193
1160000000 0.079771 0.29906 0.024538 -0.020375 0.0027176 -0.00047988 -0.00028342 -0.0025389
-0.0043377 -0.00092505 -0.0012113 0.0040607
0.024539 -0.020317 -0.091119 0.37424 -0.0030386 -0.029494 -0.0016395 -0.0018295
-0.002822 0.0022608 -0.0016607 0.002028
0.0027239 -0.00049554 -0.00318 -0.029534 0.24226 0.24428 -0.00094849 0.0016861
-0.00082302 0.0017874 -0.00098113 0.00024661
-0.00030889 -0.0025604 -0.0016253 -0.0018171 -0.00094016 0.0016851 0.032424 0.28269
0.02164 -0.010272 -0.0032939 0.0048795
-0.0043492 -0.000941 -0.0028161 0.0022523 -0.0008288 0.0017961 0.021658 -0.010309
-0.030806 0.22406 0.01803 -0.00054473
-0.0012198 0.0040843 -0.0016898 0.0019491 -0.001031 0.00020843 -0.0033391 0.0048887
0.018014 -0.00054824 -0.036856 0.30483
1220000000 0.12411 0.28943 0.01131 -0.029973 -0.0016122 -0.001003 -0.00019796 -0.00083172
-0.0029392 0.0022268 0.00092422 0.0022013
0.011317 -0.029933 -0.047308 0.38731 -0.016742 -0.021986 -0.0026927 0.00042346
-0.00024111 0.0029605 -0.00097348 0.0019338
-0.0016222 -0.00099119 -0.016852 -0.021942 0.28165 0.20635 0.00059617 0.0017316
0.00042923 0.0012317 0.00011808 0.00059854
-0.00020947 -0.00082983 -0.0027093 0.00043643 0.00060362 0.0017319 0.072595 0.27398
0.011262 -0.017224 0.0021081 0.0013616
-0.0029354 0.0022463 -0.00022536 0.0029681 0.00044481 0.0012269 0.011249 -0.017247
-0.006616 0.23229 0.013592 -0.012839
0.00092411 0.0022107 -0.00094707 0.0019266 0.000122 0.00060807 0.0021332 0.0013458
0.013584 -0.012822 -0.0056387 0.31925
1280000000 0.1745 0.26861 -0.0073195 -0.02877 -0.0019851 0.0024288 -0.0009066 -0.0018372
-0.00083151 0.0035031 0.0024988 0.0015217
-0.0073025 -0.028744 -0.0015417 0.37905 -0.024057 -0.009149 -0.0010988 0.0014562
0.0014322 0.0017908 0.00052333 0.0021776
-0.0019801 0.0024525 -0.024124 -0.0090394 0.31284 0.163 0.0016035 0.00011959
0.0011656 0.00035781 0.00033557 0.0003318
-0.00093367 -0.0018508 -0.0010857 0.0014502 0.0015808 0.0001264 0.1094 0.25785
0.0013379 -0.019594 -0.00023646 0.00011256
-0.00082804 0.0035225 0.0014584 0.0017896 0.001164 0.00035934 0.0012961 -0.019589
0.030071 0.23473 0.0028157 -0.014915
0.002484 0.0014661 0.0005349 0.0021882 0.00036718 0.00032759 -0.00025118 0.00010656
0.0028125 -0.014912 0.041147 0.3207
1340000000 0.21189 0.23576 -0.017167 -0.019433 0.00079204 0.0047352 -0.0016887 -0.00068439
0.001483 0.0028438 0.0019198 -0.0013787
-0.017134 -0.019426 0.037843 0.37179 -0.022009 0.0039155 -0.00024302 0.0021211
0.0018817 0.0009658 0.0012242 0.00080933
0.00079752 0.0047467 -0.022006 0.0040207 0.33535 0.11596 0.0010825 -0.00079681
0.0006297 -0.00047901 0.00010595 0.00025288
-0.0016906 -0.00067355 -0.00022583 0.0021337 0.001089 -0.00079062 0.14245 0.23703
-0.008253 -0.01715 0.00090271 0.00048639
0.0014986 0.0028458 0.0018736 0.00095991 0.00062704 -0.00046237 -0.0082993 -0.017147
0.05993 0.22978 -0.0037309 -0.013399
0.0019365 -0.0013886 0.0012367 0.00081244 8.482e-05 0.00026419 0.00091527 0.00048373
-0.0037231 -0.013388 0.079692 0.31536
1400000000 0.24552 0.19849 -0.023305 -0.0080624 0.0053067 0.0033675 -0.0020142 0.00061123
0.0025876 0.00097529 0.00043279 -0.0016242
-0.023273 -0.0080645 0.075532 0.35969 -0.015448 0.012415 0.0013404 0.0015031
0.0012808 -0.00057819 0.0012934 0.0002568
0.0053224 0.0033487 -0.015396 0.012513 0.34926 0.062671 0.00011792 -0.0015455
0.00011475 -0.00037024 0.00034365 0.00015794
-0.0020139 0.00059887 0.0013485 0.001491 0.00012156 -0.0015462 0.17206 0.20819
-0.014423 -0.010356 -0.00078145 -0.00033707
0.0025922 0.0009649 0.0012735 -0.00057807 0.00011611 -0.00036677 -0.014456 -0.010314
0.093044 0.22474 -0.0099449 -0.0086053
0.00041145 -0.001619 0.0012942 0.00025638 0.00034235 0.00015158 -0.00078223 -0.00032792
-0.0099352 -0.0086283 0.12352 0.304
1460000000 0.2688 0.15507 -0.020539 0.0041343 0.0058795 -0.0018162 -0.0013992 0.0015634
0.0022951 -0.00060083 -0.00035372 -0.0011492
-0.020521 0.0041192 0.11026 0.33836 -0.0064784 0.01569 0.0018695 0.00030909
0.0010697 -0.0012063 0.0013553 -0.00057276
0.0058736 -0.0018512 -0.00641 0.015736 0.35591 0.0083938 -0.0010728 -0.0013678
0.00024489 -0.00022915 0.00073394 -0.00029123
-0.0013886 0.0015771 0.0018717 0.00029863 -0.0010533 -0.0013629 0.19869 0.17876
-0.015906 -0.00372 -0.00090883 0.0019934
0.0022817 -0.00059982 0.0010736 -0.0012168 0.00025687 -0.00022967 -0.015934 -0.0036788
0.12208 0.21033 -0.011717 -0.0029771
-0.00034486 -0.001142 0.0013532 -0.00057402 0.00077114 -0.00027938 -0.00090286 0.0019844
-0.011714 -0.0029654 0.15675 0.28326
1520000000 0.28165 0.11407 -0.015212 0.0098366 0.0033912 -0.0043478 7.5015e-05 0.002401
0.0021327 -0.0020347 -0.0012121 -0.00020617
-0.01521 0.0098128 0.14429 0.32418 0.0014827 0.013478 0.0018582 -0.00077962
0.00028854 -0.0011343 0.00039408 -0.001123
0.0033792 -0.0043636 0.0015528 0.013486 0.34954 -0.047762 -0.00099184 -0.00045073
0.00073436 -0.00084112 7.3606e-05 -0.0003301
7.3475e-05 0.0023954 0.0018515 -0.00079913 -0.0010137 -0.00045694 0.22187 0.14034
-0.015512 0.0022055 0.0014063 0.001972
0.0021169 -0.0020385 0.00028695 -0.0011499 0.00073332 -0.00086822 -0.015522 0.0022507
0.15002 0.19682 -0.011578 0.0012957
-0.0012214 -0.00019689 0.0003818 -0.0011465 5.8712e-05 -0.00032709 0.0013968 0.0019723
-0.011584 0.0012818 0.18944 0.26247
1580000000 0.29203 0.06818 -0.0086264 0.01329 -0.00099599 -0.0050827 0.0012944 0.0018388
-0.00024619 -0.0022549 -0.00037749 0.00033295
-0.008634 0.013279 0.17208 0.29952 0.0053713 0.0084588 0.0006519 -0.0017733
-0.00040978 -0.001262 -0.00020342 -0.0010244
-0.0010183 -0.0050901 0.0054213 0.0084415 0.32992 -0.10545 -0.0017782 0.00038855
-0.00025042 -0.0013211 0.00010549 -0.00059894
0.0013132 0.001827 0.00064746 -0.0017695 -0.0017704 0.00038222 0.23563 0.10065
-0.01234 0.0073488 0.0019399 0.000852
-0.00026363 -0.0022517 -0.00042574 -0.0012586 -0.00023837 -0.0013193 -0.012334 0.0073614
0.17409 0.17887 -0.0095048 0.0069224
-0.00037461 0.00035754 -0.00019888 -0.0010066 0.00012831 -0.00060578 0.001938 0.0008721
-0.0094907 0.0069152 0.22087 0.23544
1640000000 0.29489 0.027156 -0.0018954 0.012466 -0.0029904 -0.0025753 0.0025493 0.0011512
-0.00088808 -0.0016503 -0.00046398 0.00070651
-0.0019082 0.012451 0.20193 0.27479 0.0061403 0.0035172 -0.00067048 -0.0020357
-0.0010478 -0.00065645 -0.00064797 -0.00076167
-0.0030125 -0.0025546 0.0061577 0.0034873 0.30167 -0.15473 -0.00087423 0.0013642
-0.0010769 -0.0011167 -0.00025145 -0.00032882
0.0025447 0.0011338 -0.00069175 -0.0020266 -0.00088476 0.0013702 0.24775 0.051656
-0.0081862 0.0091597 0.0023588 -0.00066111
-0.00090701 -0.001655 -0.0010472 -0.00065584 -0.0010825 -0.0011187 -0.0081636 0.0091832
0.19717 0.15527 -0.0048661 0.0088659
-0.00047373 0.00071458 -0.00068911 -0.00073647 -0.00026378 -0.00031443 0.0023602 -0.00067627
-0.0048599 0.0088791 0.24657 0.20426
1700000000 0.2886 -0.018294 0.0017222 0.009822 -0.0036558 0.00016775 0.0030175 -0.0010312
-0.0021409 -0.00060093 0.00058453 0.00057752
0.0017106 0.0098128 0.22042 0.24328 0.0039855 0.00044423 -0.0017644 -0.0007217
-0.0010222 -0.00011011 -0.00098173 -0.00040102
-0.0036678 0.00018592 0.003984 0.00040806 0.25847 -0.19447 0.00014798 0.0017961
-0.0021163 -0.00010256 -0.00040742 -0.00080354
0.0030146 -0.0010317 -0.0017649 -0.00071893 0.00017701 0.0017811 0.24432 0.0019443
-0.0051482 0.010245 0.0015917 -0.0019709
-0.0021491 -0.00059143 -0.0010263 -9.5845e-05 -0.0021245 -0.00011457 -0.005118 0.010273
0.21467 0.13496 -0.00045437 0.0095214
0.00058949 0.00056507 -0.00098394 -0.00041644 -0.00042558 -0.00079677 0.0016016 -0.001964
-0.00045812 0.0095217 0.26253 0.1698
1760000000 0.27715 -0.067296 0.0043389 0.0066749 -0.0022736 0.0011182 0.0013869 -0.003108
-0.0015579 0.0008627 0.0004491 -0.00031029
0.0043214 0.006672 0.24656 0.20352 0.0016131 -0.0013745 -0.0015239 0.00029944
-0.0013443 0.00093107 -0.00072756 0.00052409
-0.0022645 0.0011139 0.001607 -0.0013817 0.21035 -0.22775 0.0011112 0.0013605
-0.0015292 0.001564 -0.0012235 -0.000426
0.0013427 -0.0031523 -0.0015141 0.00028928 0.0010949 0.0013505 0.23525 -0.049377
-0.0013615 0.0096915 -9.8011e-05 -0.0024245
-0.0015529 0.00086703 -0.0013433 0.00094609 -0.0015375 0.001564 -0.0013532 0.0097036
0.22978 0.10059 0.0033184 0.0070857
0.00041691 -0.00033279 -0.00074076 0.00053112 -0.0012173 -0.00042665 -9.1974e-05 -0.0024204
0.003319 0.0070816 0.27467 0.13212
1820000000 0.25293 -0.10495 0.0046706 0.0030221 -0.00018216 0.0025107 -0.00076589 -0.0030733
-0.0010468 0.0012048 0.00017886 -0.00012649
0.004663 0.0030225 0.2569 0.17358 -0.00071428 -6.2524e-05 -0.0014157 0.0012354
-0.00023713 0.0015264 -0.00052479 0.00068424
-0.00018043 0.0025123 -0.00071592 -5.8416e-05 0.15952 -0.24339 0.001762 0.00065182
-0.00023017 0.0026886 -0.0012208 0.00045963
-0.00074995 -0.0030507 -0.0013928 0.0012316 0.0018046 0.00063946 0.20522 -0.096441
0.00067155 0.0083282 -0.0013865 -0.0013194
-0.0010388 0.0012403 -0.00022408 0.0015341 -0.00021844 0.0027002 0.00068281 0.0083322
0.24713 0.072018 0.004435 0.0040976
0.0002448 -0.00013626 -0.00050855 0.00068603 -0.001248 0.00046531 -0.0013891 -0.0013068
0.0044439 0.0040833 0.27671 0.095889
1880000000 0.21783 -0.14588 0.0026407 0.00050177 -0.00029307 0.0021383 -0.0026558 -0.0022689
4.0231e-05 0.0020699 0.00026305 -0.00070095
0.0026345 0.0005008 0.26155 0.12705 -0.0024419 0.0019289 -2.2756e-05 0.0020625
0.00064058 0.0017029 0.00030023 0.00099921
-0.00026505 0.0021569 -0.0024424 0.0019473 0.10796 -0.25272 0.0021016 -0.00085086
0.0017858 0.0023608 -0.00086376 0.001232
-0.0026669 -0.0022191 -2.2343e-05 0.002086 0.0020706 -0.00082347 0.16455 -0.1368
0.0019798 0.0059716 -0.0022035 0.00040479
7.8431e-05 0.0020787 0.00064867 0.0016964 0.001788 0.0023474 0.0019905 0.005999
0.25151 0.040336 0.0048097 0.0019017
0.00027314 -0.00067029 0.0002935 0.0010129 -0.00086327 0.001247 -0.0021879 0.00041761
0.0047993 0.0019028 0.27678 0.062101
1940000000 0.1784 -0.17177 0.00032384 -0.0013184 0.0015351 0.0019732 -0.0034617 0.00012125
0.0018304 0.0011159 -0.00040697 -0.00067614
0.00032325 -0.0013182 0.26245 0.09535 -0.00097821 0.0042699 0.0015171 0.0013663
0.0022367 0.00077101 0.0011716 0.00030051
0.0015336 0.0019632 -0.00096008 0.0042813 0.062703 -0.24563 0.00081514 -0.00242
0.0028668 0.00041647 0.00070799 0.0015028
-0.0034706 0.00015614 0.0015335 0.0013691 0.00083695 -0.002474 0.11236 -0.16713
0.0015649 0.004364 -0.0013355 0.0016643
0.0018229 0.0011016 0.0022474 0.00075235 0.0028821 0.00039596 0.001541 0.0044107
0.25478 0.0020333 0.0037153 -0.0012302
-0.0004506 -0.0006711 0.0011653 0.00024624 0.00071341 0.0014474 -0.0013341 0.0016691
0.0037388 -0.0012396 0.26577 0.026091
2000000000 0.13211 -0.18655 -0.0034509 0.00045362 0.0026238 0.0012427 -0.0023463 0.0033877
0.0014954 5.9872e-05 -0.00062524 0.00048479
-0.0034568 0.00045226 0.24875 0.05958 -0.00036622 0.005626 0.0019593 9.7614e-05
0.0017655 -0.0011452 0.00057155 6.4785e-05
0.0026228 0.001238 -0.0003161 0.0056376 0.019597 -0.23241 -0.0011999 -0.0018902
0.0024338 -0.0015694 0.0014612 0.0013274
-0.0023667 0.003417 0.0019523 0.00011857 -0.0011581 -0.0018699 0.058816 -0.17721
0.00034582 0.0036343 0.00031801 0.0021977
0.0014774 2.1697e-05 0.0017494 -0.0011724 0.0024309 -0.001573 0.00033529 0.0036149
0.2503 -0.031549 0.0010243 -0.0022798
