!Keysight Technologies,M9804A,MY58100912,A.14.10.03
!Date: Thursday, April 27, 2023 10:28:33
!Correction: S11(C  6-Port  ) 
!S12(C  6-Port  ) 
!S13(C  6-Port  ) 
!S14(C  6-Port  ) 
!S15(C  6-Port  ) 
!S16(C  6-Port  ) 
!S21(C  6-Port  ) 
!S22(C  6-Port  ) 
!S23(C  6-Port  ) 
!S24(C  6-Port  ) 
!S25(C  6-Port  ) 
!S26(C  6-Port  ) 
!S31(C  6-Port  ) 
!S32(C  6-Port  ) 
!S33(C  6-Port  ) 
!S34(C  6-Port  ) 
!S35(C  6-Port  ) 
!S36(C  6-Port  ) 
!S41(C  6-Port  ) 
!S42(C  6-Port  ) 
!S43(C  6-Port  ) 
!S44(C  6-Port  ) 
!S45(C  6-Port  ) 
!S46(C  6-Port  ) 
!S51(C  6-Port  ) 
!S52(C  6-Port  ) 
!S53(C  6-Port  ) 
!S54(C  6-Port  ) 
!S55(C  6-Port  ) 
!S56(C  6-Port  ) 
!S61(C  6-Port  ) 
!S62(C  6-Port  ) 
!S63(C  6-Port  ) 
!S64(C  6-Port  ) 
!S65(C  6-Port  ) 
!S66(C  6-Port  ) 
!S6P File: Measurement: :
# Hz S  RI   R 50
500000000 -0.33448 -0.05271 -0.010225 -0.0011784 -0.0077702 0.013254 -0.0043692 0.012258
0.012091 0.0053293 -0.0040596 0.0086525
-0.010071 -0.0010771 -0.41628 -0.063286 0.0082157 -0.010405 0.0017488 0.012174
0.0075201 0.002512 0.0019585 0.013802
-0.0076734 0.013299 0.0082325 -0.010472 -0.26642 0.19995 0.0069595 0.0038497
-0.0014185 0.0085417 0.00082908 0.012389
-0.0044449 0.012315 0.0016459 0.012151 0.0069853 0.0038522 -0.33162 0.042944
-0.018626 -0.0043256 0.016823 0.024738
0.011998 0.0049836 0.0077701 0.0025766 -0.0012776 0.0083473 -0.018349 -0.0044373
-0.24804 -0.19236 -0.025952 0.005685
-0.0047188 0.0083041 0.001312 0.013493 0.00051276 0.012561 0.016623 0.024083
-0.026004 0.0054863 -0.27227 -0.11978
560000000 -0.31806 0.11306 -0.022579 -0.063992 -0.00019747 0.011986 0.0050559 0.011551
0.011393 0.0048404 0.010158 0.0087553
-0.022547 -0.06382 -0.37524 0.098444 -0.041146 -0.03729 0.01347 0.0033549
-0.013174 -0.0036574 0.0033778 -0.00057009
-0.0002008 0.012129 -0.041273 -0.03719 -0.18525 0.25002 -0.00033287 -0.0049599
0.01858 0.0050499 0.0080863 -0.0060053
0.005208 0.011452 0.01353 0.003341 -0.00030525 -0.0049587 -0.30608 0.13545
0.0059156 -0.02462 0.0050803 -0.020833
0.011528 0.0045341 -0.013097 -0.0038183 0.018437 0.004897 0.0057798 -0.024277
-0.30948 -0.013215 0.0084192 -0.048743
0.010305 0.008564 0.0035254 -0.00047816 0.0083879 -0.0061864 0.0045414 -0.021222
0.0087446 -0.047907 -0.3312 0.027025
620000000 -0.27782 0.093859 -0.023061 0.0080569 0.0034325 0.0093324 0.008469 -0.0051498
0.011708 -0.0013501 0.0010582 -0.0020605
-0.023067 0.0080561 -0.40321 0.04921 -0.018412 0.00041998 -0.0010222 -0.0022134
0.011491 -0.0064217 0.0014017 -0.0030953
0.0033431 0.0092788 -0.018461 0.00048611 -0.15549 0.25972 -0.00063917 -0.005492
-0.0035933 -0.0027744 0.009473 -0.003146
0.0083838 -0.0050784 -0.001064 -0.0021844 -0.00063974 -0.0054497 -0.26637 0.14543
-0.037298 -0.019771 0.01187 0.025511
0.012353 -0.0011562 0.011656 -0.0066889 -0.0035488 -0.0027673 -0.03758 -0.019458
-0.23222 -0.046166 -0.03966 0.012389
0.00077204 -0.002511 0.0011516 -0.0032189 0.0092346 -0.0033159 0.012183 0.025124
-0.039444 0.013155 -0.25159 -0.006527
680000000 -0.23832 0.18311 -0.026276 -0.014689 0.0046448 0.0052667 0.0011522 -0.0079679
-0.0024751 -0.012554 0.0046645 -0.0069452
-0.026222 -0.014685 -0.38964 0.1498 -0.032538 -0.0023533 -0.0015962 -0.0011552
-0.001637 -0.0098067 -0.0014511 -0.0022687
0.0046648 0.0052729 -0.032607 -0.0022678 -0.10439 0.28022 -0.0010235 -0.00066467
-0.0019559 3.6176e-05 -0.0031786 -0.0093319
0.0008957 -0.0079263 -0.0016369 -0.0011892 -0.0010202 -0.00071425 -0.21999 0.19771
-0.023866 -0.0082015 -0.0085858 -0.010661
-0.0025108 -0.012027 -0.0018721 -0.0095286 -0.0020039 8.7339e-05 -0.024027 -0.0082483
-0.27879 0.055561 -0.008428 -0.0084103
0.0051985 -0.0076311 -0.001016 -0.0022584 -0.0030601 -0.0093818 -0.0090498 -0.010497
-0.0087457 -0.008846 -0.26106 0.098375
740000000 -0.19401 0.17661 -0.040043 0.026324 0.012964 -0.0048815 -0.0003894 -0.0042047
-0.0046898 -0.0036672 -0.0068807 0.0035465
-0.040056 0.026225 -0.33555 0.16947 -0.037212 0.034488 -0.00033809 -0.0054212
-0.011915 0.0074538 -0.0013705 -0.0061558
0.012979 -0.0049112 -0.037164 0.034576 -0.070413 0.27849 -0.002198 0.0033095
-0.0036798 -0.0053519 -0.0014122 0.0015399
-0.00043297 -0.0041093 -0.00031921 -0.0055442 -0.0022218 0.0033615 -0.20361 0.20534
-0.042397 -0.0080227 0.022113 0.015319
-0.0046721 -0.0038817 -0.012302 0.0078127 -0.0035497 -0.0053639 -0.042623 -0.0083405
-0.18226 0.082556 -0.041689 -0.0004117
-0.0070801 0.0035642 -0.00085409 -0.0056582 -0.0016271 0.0015348 0.022058 0.01569
-0.041357 0.00025599 -0.24827 0.10336
800000000 -0.16257 0.22045 -0.023134 0.01613 0.0053645 -0.010364 -0.0045972 -0.0019822
-0.0052252 0.0024574 0.0042338 0.00032623
-0.023075 0.016127 -0.34159 0.23925 -0.0088247 0.034198 -0.0025564 0.0022439
-0.001597 0.0029886 0.00066076 0.0052005
0.0053358 -0.010362 -0.0087364 0.034229 -0.031328 0.30256 0.0007803 0.0016159
-0.00018779 0.0037403 -0.0017909 0.0010219
-0.0046848 -0.0019767 -0.0025561 0.0022297 0.00074913 0.0016341 -0.17438 0.23254
-0.029164 0.012959 0.013943 -0.0093363
-0.0050453 0.0024166 -0.001569 0.0030234 -0.00011916 0.003801 -0.02896 0.01283
-0.22179 0.1125 -0.017795 0.018767
0.0042478 0.00013153 0.0007436 0.0053686 -0.0017894 0.0010548 0.013581 -0.0097887
-0.017821 0.019382 -0.23973 0.1527
860000000 -0.12772 0.24148 -0.018098 0.030954 -0.0028136 -0.0098935 -0.0017751 0.0010956
0.0043399 0.0058046 -0.0029724 -0.0027385
-0.018087 0.030877 -0.29312 0.28239 0.0074068 0.034646 0.0002357 0.0020557
0.0040253 0.0010279 0.0033553 0.00022563
-0.0028421 -0.0098822 0.0075138 0.034653 0.016463 0.31082 -0.00050761 6.0503e-05
0.0027335 -0.0010778 0.0018124 0.004334
-0.0017525 0.0010631 0.00024756 0.0020702 -0.00051819 3.2191e-05 -0.13744 0.24331
-0.018591 0.018407 -0.0063306 -0.0085285
0.0042415 0.0057368 0.0037807 0.00097048 0.0026648 -0.001048 -0.018624 0.018663
-0.164 0.16281 -0.02383 0.0167
-0.0029107 -0.0028638 0.0036583 0.00038218 0.0018973 0.0043924 -0.0056639 -0.0087489
-0.024071 0.016129 -0.18867 0.19612
920000000 -0.10368 0.2646 0.0046327 0.038481 -0.0089068 -0.0048451 -0.001762 0.0018821
0.0019152 0.0019217 0.0028906 -0.0014331
0.004598 0.038428 -0.2656 0.30361 0.028208 0.02287 0.0016265 0.0013822
0.0076773 -0.00020425 0.0043581 -0.0024307
-0.0088958 -0.0048248 0.028335 0.022788 0.061985 0.312 0.002086 7.9023e-05
0.0014227 -0.00043186 0.0010353 -0.0010765
-0.0017516 0.0019217 0.001615 0.0014161 0.0020815 7.5924e-05 -0.11332 0.25975
-0.010916 0.030597 0.0032433 -0.0064604
0.0020194 0.0019868 0.0079671 -0.00023298 0.001464 -0.00024904 -0.010864 0.030742
-0.15199 0.16809 -0.0020561 0.02625
0.0031607 -0.001517 0.0042111 -0.0026272 0.0011933 -0.0011208 0.0032631 -0.0065141
-0.0020395 0.026099 -0.19661 0.21081
980000000 -0.057133 0.28449 0.017045 0.030238 -0.0090472 0.0039978 0.0021808 0.0035723
0.0040443 -0.0018834 -0.002869 -0.0020932
0.016997 0.030195 -0.21246 0.33829 0.033425 0.005454 0.0022523 -0.00021444
0.0018288 -0.0061605 -0.00016849 -0.0023428
-0.009034 0.004036 0.033498 0.0053419 0.1077 0.30609 0.00085438 -0.0012587
0.00072415 -0.0020844 0.0016102 -0.00020388
0.0021952 0.0035774 0.0022431 -0.00021803 0.00084227 -0.0012576 -0.074797 0.2708
0.0071854 0.030264 -0.0087547 -0.0067407
0.0042348 -0.0018957 0.0018915 -0.0061379 0.0007703 -0.0020992 0.0074419 0.030296
-0.119 0.19787 0.0059087 0.019378
-0.0029638 -0.0021076 -0.00019069 -0.0025755 0.0016418 -0.00025864 -0.0087403 -0.0067706
0.0061341 0.019326 -0.15306 0.25318
1040000000 -0.016014 0.29342 0.03296 0.019051 -0.0015444 0.0068025 0.0028481 0.00062338
0.00031422 -0.0037794 -0.0002537 -0.0019521
0.032942 0.019007 -0.17755 0.35174 0.029988 -0.014427 0.0016518 -0.0018451
-0.0020594 -0.0028606 -0.00082751 -0.0031995
-0.0015137 0.0068179 0.029988 -0.014557 0.15323 0.29323 -0.00038771 -0.0017574
-0.0014575 -0.0011695 -0.00052171 -0.0013334
0.0028448 0.00059968 0.0016894 -0.0018289 -0.00039121 -0.0017567 -0.047186 0.28064
0.01945 0.018984 -0.0024464 0.0011366
0.00046841 -0.00392 -0.001942 -0.0028305 -0.0014393 -0.0011801 0.019599 0.018912
-0.08541 0.20413 0.013732 0.017284
-0.00015866 -0.0020098 -0.00082997 -0.0030584 -0.0005193 -0.0013315 -0.0023667 0.0011225
0.013762 0.017599 -0.13033 0.27339
1100000000 0.028837 0.30257 0.036324 -0.0035075 0.0027354 0.0040093 0.0024287 -0.0013496
-0.0021966 -0.0033704 -0.004176 -0.00022453
0.036312 -0.0034922 -0.13438 0.36969 0.015954 -0.02783 0.00012363 -0.0020413
-0.0034513 -0.0011256 -0.0036968 -0.00081447
0.0027563 0.0040079 0.015868 -0.02793 0.19919 0.27403 -0.0019204 -5.2961e-05
-0.0017855 0.00029893 -0.0012233 -0.00068217
0.0024602 -0.0013461 0.00010642 -0.002045 -0.0019184 -5.5606e-05 -0.0067531 0.28556
0.025121 0.0057146 -0.002159 -1.4907e-05
-0.0022963 -0.0033862 -0.0034555 -0.0011245 -0.0017689 0.00032026 0.025172 0.0056726
-0.064709 0.21691 0.019625 0.0080757
-0.0042522 -0.00014953 -0.0037691 -0.00078641 -0.0011832 -0.00073217 -0.0021224 6.8746e-05
0.01944 0.0081254 -0.083857 0.30218
1160000000 0.079792 0.29913 0.024556 -0.020347 0.0027067 -0.00046466 -0.0002902 -0.0026838
-0.0042204 -0.00095213 -0.0012428 0.0040215
0.024568 -0.020329 -0.091148 0.37426 -0.0030779 -0.029502 -0.0015553 -0.0017864
-0.0028194 0.0023201 -0.0016174 0.0018927
0.0026994 -0.00048881 -0.0032079 -0.029542 0.24233 0.24423 -0.00092302 0.0017299
-0.00083054 0.0018073 -0.0010634 0.00016205
-0.00031764 -0.0026668 -0.001552 -0.00178 -0.00092407 0.0017252 0.032501 0.28259
0.021623 -0.010294 -0.0031562 0.0049217
-0.0042832 -0.00087344 -0.0028382 0.0024546 -0.00077549 0.0017765 0.021572 -0.01031
-0.030661 0.22411 0.01805 -0.0005667
-0.0011808 0.0041834 -0.0017031 0.0019352 -0.0010567 0.00018702 -0.0031867 0.0050525
0.017986 -0.00063652 -0.037239 0.30491
1220000000 0.12412 0.28943 0.011258 -0.029958 -0.0016108 -0.00094256 -0.00017914 -0.00089294
-0.0028782 0.0022084 0.00083435 0.0022021
0.011275 -0.029926 -0.047275 0.38729 -0.016771 -0.021983 -0.0027331 0.00042568
-0.00021297 0.0029896 -0.0009784 0.0019246
-0.0016177 -0.00092553 -0.016884 -0.021927 0.28168 0.20624 0.00063985 0.0017576
0.00042217 0.0012365 0.00016418 0.0006048
-0.00019971 -0.00090204 -0.0027261 0.00044135 0.00063555 0.0017447 0.072654 0.27402
0.01112 -0.017212 0.0021203 0.0014335
-0.0028578 0.0022462 -0.00018944 0.0029796 0.00047131 0.0012634 0.011126 -0.01722
-0.0066213 0.23239 0.013417 -0.012778
0.00088459 0.0021665 -0.00094953 0.001912 0.00016133 0.00058256 0.0021365 0.0013806
0.013497 -0.012815 -0.0054324 0.31935
1280000000 0.17455 0.26857 -0.0073352 -0.028713 -0.0019806 0.002531 -0.00089686 -0.0018875
-0.00080753 0.0034017 0.0025451 0.0014499
-0.0073053 -0.028685 -0.0014465 0.37909 -0.024043 -0.0091425 -0.0011121 0.0014556
0.001488 0.0018056 0.00050788 0.0021337
-0.0019885 0.002553 -0.024112 -0.0090418 0.31292 0.1629 0.0014995 0.00011521
0.001155 0.00033604 0.00029296 0.00035985
-0.00089634 -0.0019094 -0.0011047 0.0014537 0.0014992 0.00011281 0.10945 0.25788
0.0012715 -0.019568 -3.1664e-05 0.00017516
-0.00075715 0.0034422 0.0015003 0.001811 0.0011851 0.00038123 0.0012412 -0.019645
0.030285 0.23484 0.0026927 -0.01504
0.0025397 0.0014538 0.0004839 0.0020806 0.00034031 0.00033161 -7.4079e-05 0.0002087
0.0027428 -0.014982 0.041539 0.32107
1340000000 0.21193 0.23573 -0.017209 -0.019407 0.00075767 0.0047392 -0.0017019 -0.0006817
0.0014808 0.0027726 0.0019402 -0.0013656
-0.017166 -0.01939 0.03793 0.37176 -0.022013 0.0039101 -0.00021587 0.0020915
0.0018302 0.00097553 0.0012714 0.00087746
0.00078522 0.0047298 -0.022015 0.0040237 0.33534 0.11587 0.0010854 -0.00080608
0.00055793 -0.00046566 0.00015578 0.00024943
-0.001678 -0.00066067 -0.00018811 0.002098 0.0010949 -0.00081098 0.14249 0.23714
-0.008391 -0.017057 0.00089938 0.00051871
0.0015222 0.0027837 0.001808 0.00095275 0.00057646 -0.00048309 -0.0083865 -0.017046
0.060203 0.22987 -0.0037173 -0.013677
0.0019552 -0.0013646 0.0013328 0.00089941 0.00013065 0.00028243 0.00088248 0.00049289
-0.0037194 -0.013657 0.079523 0.31537
1400000000 0.24557 0.19847 -0.023302 -0.0080331 0.005335 0.0033645 -0.001992 0.00054962
0.002595 0.00097875 0.00046101 -0.0016789
-0.023267 -0.0080247 0.075599 0.35968 -0.015435 0.012428 0.001338 0.0014773
0.00128 -0.00055502 0.0013118 0.00022883
0.0053574 0.0033261 -0.015399 0.012542 0.34926 0.062606 0.00010347 -0.0015501
0.00014707 -0.00032629 0.00039151 0.00017409
-0.0020064 0.00057161 0.0013502 0.0014722 0.00010671 -0.0015558 0.17217 0.20819
-0.014495 -0.010288 -0.00077703 -0.00028851
0.0025861 0.00098423 0.0012524 -0.000581 0.00013014 -0.00034455 -0.014512 -0.010256
0.093318 0.2249 -0.0098383 -0.0086528
0.00045177 -0.0016739 0.0012762 0.00024536 0.0003738 0.00015237 -0.00078952 -0.00027608
-0.0098496 -0.0086823 0.12343 0.30394
1460000000 0.26885 0.15506 -0.020522 0.0041812 0.0059308 -0.0018277 -0.0014543 0.0015955
0.0021904 -0.00059088 -0.00034347 -0.001124
-0.020499 0.0041671 0.11034 0.33834 -0.0064402 0.015678 0.0018271 0.00031663
0.0010669 -0.0012316 0.0012792 -0.0005466
0.0059208 -0.0018462 -0.006388 0.015731 0.35597 0.0083188 -0.0010696 -0.0013105
0.00018426 -0.00021472 0.00077918 -0.00024787
-0.0014603 0.0015854 0.0018425 0.00031619 -0.0010741 -0.0013008 0.1988 0.1787
-0.015862 -0.0037302 -0.00090616 0.0019682
0.0022177 -0.00058924 0.0010518 -0.0012534 0.00020579 -0.00020215 -0.0159 -0.0036963
0.1224 0.21019 -0.01175 -0.0029863
-0.00029024 -0.0011198 0.0013075 -0.00054172 0.0007581 -0.00026186 -0.00091643 0.0019451
-0.011709 -0.0029951 0.15675 0.28301
1520000000 0.2816 0.11398 -0.015181 0.0098189 0.0034297 -0.0043376 8.4194e-05 0.0024238
0.0021157 -0.0020203 -0.0012147 -0.0002041
-0.015175 0.0098047 0.14437 0.32411 0.0015155 0.013496 0.00187 -0.00078558
0.00027272 -0.0011414 0.00039605 -0.0011419
0.0034038 -0.0043373 0.0016079 0.013496 0.34942 -0.047772 -0.00094404 -0.00045304
0.00076044 -0.00083123 8.5379e-05 -0.0002653
9.5208e-05 0.0024084 0.0018672 -0.00080249 -0.00096691 -0.00046334 0.22198 0.14017
-0.015437 0.0022377 0.0013659 0.0019751
0.0021049 -0.0020161 0.00026818 -0.0011144 0.00074657 -0.00083099 -0.015417 0.0022555
0.15035 0.19659 -0.011621 0.0012749
-0.0012418 -0.0001884 0.00040683 -0.0011411 0.00011542 -0.00025327 0.0013575 0.0019228
-0.011654 0.0012627 0.18949 0.26238
1580000000 0.29197 0.068147 -0.0086167 0.013287 -0.0010477 -0.0051306 0.0012952 0.0018688
-0.00026168 -0.002256 -0.00035161 0.00036404
-0.0086062 0.013271 0.17217 0.29946 0.0054155 0.008442 0.00065889 -0.0017453
-0.00043533 -0.0012396 -0.00019847 -0.00097271
-0.0010767 -0.0051112 0.0054494 0.0084193 0.32998 -0.10556 -0.0017779 0.00045703
-0.00032111 -0.0013001 0.00018793 -0.00051205
0.0013085 0.0018653 0.00064653 -0.0017557 -0.0017633 0.00044341 0.23565 0.10045
-0.01226 0.0073308 0.0018977 0.00075169
-0.0002752 -0.002252 -0.00043735 -0.0012368 -0.00031977 -0.001318 -0.012243 0.0073778
0.17423 0.17869 -0.0094351 0.0069738
-0.00034323 0.00036256 -0.00020412 -0.0009814 0.00014103 -0.00049191 0.001991 0.00075097
-0.0094154 0.0069196 0.22106 0.23523
1640000000 0.29487 0.027078 -0.0019082 0.012435 -0.0030094 -0.0026103 0.0025418 0.001153
-0.00092208 -0.001653 -0.00047275 0.00076869
-0.0019041 0.012421 0.20202 0.27469 0.0061248 0.0034659 -0.00066521 -0.002015
-0.0010651 -0.00063291 -0.00068843 -0.0007073
-0.0030374 -0.0025955 0.0061442 0.0034421 0.30157 -0.15484 -0.00087431 0.0013519
-0.0011236 -0.0011277 -0.00029054 -0.00029239
0.0025319 0.0011494 -0.00068159 -0.0020119 -0.00088817 0.0013747 0.2477 0.051576
-0.0081171 0.0091484 0.0023556 -0.00064044
-0.00090536 -0.0016501 -0.00106 -0.00062819 -0.0010997 -0.0011172 -0.0081271 0.009153
0.19725 0.15504 -0.0049263 0.0089712
-0.00047624 0.00072514 -0.00068993 -0.00074199 -0.00027698 -0.00033076 0.0023075 -0.00059533
-0.0049156 0.0089313 0.24659 0.20429
1700000000 0.28856 -0.018309 0.0017175 0.0098113 -0.0036515 0.00017572 0.0030564 -0.0010221
-0.0021042 -0.00057623 0.00059518 0.00055181
0.001718 0.0098092 0.22045 0.24323 0.0039498 0.0004352 -0.0017164 -0.00073349
-0.0009892 -6.6998e-05 -0.00096676 -0.00044619
-0.0036484 0.00018349 0.0039593 0.00042051 0.2584 -0.19458 0.00022912 0.0017724
-0.0020716 -9.9723e-05 -0.0004381 -0.00081429
0.0030584 -0.0010406 -0.0017309 -0.0007257 0.00023819 0.0017567 0.24419 0.0018883
-0.0051226 0.010157 0.0015472 -0.0019405
-0.0021072 -0.00058295 -0.00098629 -8.9599e-05 -0.0020773 -8.1763e-05 -0.0050829 0.010136
0.21461 0.13478 -0.00044202 0.0095417
0.00059045 0.00057906 -0.0010089 -0.0004149 -0.0004555 -0.00078773 0.0015497 -0.0020212
-0.00041366 0.0095556 0.26257 0.16965
1760000000 0.2771 -0.067357 0.0043092 0.0066605 -0.0022475 0.0011166 0.0013702 -0.0031751
-0.0015979 0.00086733 0.00043567 -0.00037153
0.0043014 0.0066638 0.24663 0.20344 0.0016098 -0.0013879 -0.0014813 0.00028638
-0.0013651 0.00095647 -0.00071084 0.00052516
-0.0022559 0.0011312 0.0016105 -0.0014012 0.21034 -0.22789 0.0011312 0.0013432
-0.0015356 0.0016146 -0.0011358 -0.00043444
0.0013749 -0.0031783 -0.0015068 0.00029811 0.0011274 0.0013232 0.23517 -0.049328
-0.0014096 0.009604 -3.7253e-05 -0.0024351
-0.0015691 0.00087773 -0.0013451 0.00094925 -0.0014733 0.0015804 -0.0014074 0.0096416
0.22969 0.10039 0.003348 0.0071403
0.00045243 -0.00035993 -0.00070269 0.00051498 -0.0011932 -0.00042227 -5.3698e-06 -0.0024292
0.0033274 0.0071409 0.27498 0.13202
1820000000 0.2529 -0.10512 0.0046648 0.0030143 -0.00012621 0.0025613 -0.00075787 -0.003063
-0.0010654 0.0011854 0.00023965 -8.1516e-05
0.0046712 0.0030061 0.25692 0.17349 -0.00068766 -3.9346e-05 -0.0014009 0.0012355
-0.00025772 0.0014796 -0.00054365 0.00071044
-0.00010789 0.0025474 -0.00068412 -4.1358e-05 0.15962 -0.24344 0.0017984 0.00063634
-0.0002299 0.0026208 -0.0012946 0.00045839
-0.0008101 -0.0030224 -0.0013719 0.001234 0.0018044 0.00062923 0.20518 -0.09641
0.00062895 0.0082457 -0.0014218 -0.001327
-0.0010836 0.0012122 -0.00021246 0.0015052 -0.00022063 0.0026826 0.00063512 0.0082717
0.24713 0.071903 0.0044429 0.0041207
0.00023686 -4.5882e-05 -0.00054801 0.0007012 -0.0013042 0.00044747 -0.0014064 -0.0012792
0.0044599 0.0041258 0.27679 0.095958
1880000000 0.21787 -0.14587 0.0026315 0.00048781 -0.00037022 0.0021353 -0.0026912 -0.0021766
3.372e-06 0.0020455 0.00014519 -0.00063212
0.0026334 0.00048726 0.26163 0.12696 -0.0024602 0.0018985 -4.4774e-05 0.0020786
0.00061756 0.0016512 0.00024155 0.00098713
-0.00035402 0.0021186 -0.0024467 0.0019024 0.10796 -0.25272 0.0020617 -0.00086227
0.0017576 0.0023075 -0.00089273 0.0012006
-0.0027204 -0.0021697 -6.4808e-05 0.0020841 0.0020017 -0.00086784 0.16462 -0.13681
0.0019062 0.0059959 -0.0022725 0.00044783
-2.9692e-05 0.0020656 0.00062749 0.0016445 0.0017446 0.0022313 0.0019186 0.0060523
0.25149 0.040298 0.0048385 0.0018914
0.00014737 -0.00067861 0.00024262 0.00098421 -0.00085123 0.0012853 -0.0022407 0.00046329
0.0047905 0.0018953 0.27676 0.061778
1940000000 0.17831 -0.17184 0.00034061 -0.0013648 0.001582 0.0018395 -0.0035033 0.00023362
0.0017478 0.0010893 -0.00043484 -0.00075932
0.00032889 -0.0013695 0.26252 0.095249 -0.00096714 0.004256 0.0014769 0.001401
0.0021711 0.00076325 0.001195 0.0003128
0.0015862 0.0018382 -0.00096692 0.0042621 0.062574 -0.24574 0.00086971 -0.0024357
0.0027867 0.00045601 0.0006563 0.0014269
-0.0035558 0.00021584 0.001478 0.0014159 0.0008219 -0.0024812 0.11236 -0.16723
0.0016707 0.0044445 -0.0012144 0.0015904
0.0017774 0.0010576 0.0022012 0.00075283 0.0028654 0.00040305 0.0016376 0.004386
0.2549 0.0020798 0.0038455 -0.0012493
-0.00037603 -0.00070158 0.0011835 0.00025739 0.00061035 0.0013773 -0.0012181 0.0016234
0.0038655 -0.0012723 0.26584 0.025716
2000000000 0.13217 -0.18662 -0.0034313 0.00045044 0.0026285 0.0012636 -0.0023912 0.0035647
0.0015083 0.00010621 -0.00061544 0.00042144
-0.0034187 0.00045931 0.24872 0.059476 -0.00041703 0.0056031 0.0019168 0.00020606
0.0017016 -0.0011367 0.00055252 5.2708e-05
0.0026525 0.0012534 -0.00037315 0.0056236 0.019578 -0.23247 -0.0011189 -0.0018358
0.0024067 -0.0015553 0.0015456 0.0013527
-0.0023685 0.0035246 0.0019351 0.00020775 -0.0011181 -0.0018426 0.059042 -0.17728
0.00036872 0.0036713 0.00025332 0.0022615
0.0014416 5.7063e-05 0.0017251 -0.0011782 0.0024388 -0.0015449 0.00044843 0.0036333
0.25041 -0.031701 0.0009459 -0.0023357
