!Keysight Technologies,M9804A,MY58100912,A.14.10.03
!Date: Thursday, April 27, 2023 10:28:33
!Correction: S11(C  6-Port  ) 
!S12(C  6-Port  ) 
!S13(C  6-Port  ) 
!S14(C  6-Port  ) 
!S15(C  6-Port  ) 
!S16(C  6-Port  ) 
!S21(C  6-Port  ) 
!S22(C  6-Port  ) 
!S23(C  6-Port  ) 
!S24(C  6-Port  ) 
!S25(C  6-Port  ) 
!S26(C  6-Port  ) 
!S31(C  6-Port  ) 
!S32(C  6-Port  ) 
!S33(C  6-Port  ) 
!S34(C  6-Port  ) 
!S35(C  6-Port  ) 
!S36(C  6-Port  ) 
!S41(C  6-Port  ) 
!S42(C  6-Port  ) 
!S43(C  6-Port  ) 
!S44(C  6-Port  ) 
!S45(C  6-Port  ) 
!S46(C  6-Port  ) 
!S51(C  6-Port  ) 
!S52(C  6-Port  ) 
!S53(C  6-Port  ) 
!S54(C  6-Port  ) 
!S55(C  6-Port  ) 
!S56(C  6-Port  ) 
!S61(C  6-Port  ) 
!S62(C  6-Port  ) 
!S63(C  6-Port  ) 
!S64(C  6-Port  ) 
!S65(C  6-Port  ) 
!S66(C  6-Port  ) 
!S6P File: Measurement: :
# Hz S  RI   R 50
500000000 -0.32584 -0.064805 -0.010333 -0.0012148 -0.008693 0.012487 -0.0041871 0.012151
0.013502 0.0070325 -0.0050264 0.0085047
-0.010252 -0.0015389 -0.40931 -0.075388 0.007065 -0.010255 0.00064563 0.011996
0.0096154 0.0034451 0.00057103 0.014488
-0.0084619 0.012362 0.0069854 -0.010453 -0.25577 0.19406 0.0070171 0.0032079
-0.00263 0.0079151 0.0015751 0.011202
-0.004207 0.012381 0.00084008 0.012151 0.0070258 0.0032218 -0.32744 0.04152
-0.022553 -0.0050986 0.016198 0.027882
0.013299 0.006447 0.0096344 0.0032056 -0.0025823 0.0080203 -0.02245 -0.0050863
-0.19676 -0.26964 -0.031698 0.0053144
-0.0051433 0.0093425 0.0014871 0.014048 0.0017083 0.011065 0.016414 0.027551
-0.032479 0.005197 -0.25095 -0.15421
560000000 -0.31432 0.10465 -0.02229 -0.066439 0.00047546 0.013846 0.005652 0.010849
0.010831 0.0044226 0.011593 0.01021
-0.022027 -0.066136 -0.36741 0.0902 -0.042021 -0.037618 0.014045 0.0026657
-0.016919 -0.0066217 0.0039018 0.00031303
0.00042065 0.013621 -0.042889 -0.037595 -0.1796 0.24221 0.00034334 -0.0037564
0.018708 0.0067851 0.0076571 -0.006296
0.005097 0.010798 0.014164 0.0027138 0.00031066 -0.0037034 -0.30463 0.13333
0.0086312 -0.021091 0.0046354 -0.021578
0.010585 0.0043533 -0.016408 -0.0059587 0.018389 0.006714 0.0083042 -0.021204
-0.29796 -0.083793 0.012966 -0.052764
0.012168 0.010501 0.0044759 -0.00055031 0.0077181 -0.0054374 0.0043257 -0.021898
0.013389 -0.051881 -0.3271 -0.0045952
620000000 -0.27438 0.079712 -0.024164 0.0095753 0.0032744 0.0088964 0.0078514 -0.0045787
0.012553 0.00046187 0.00062415 -0.0026174
-0.02415 0.0097365 -0.39919 0.034445 -0.018932 0.00097715 -0.0015932 -0.001994
0.013284 -0.0048711 0.0011921 -0.0032764
0.0034763 0.0088458 -0.019013 0.0010565 -0.15265 0.25135 -0.00099705 -0.0047937
-0.0035123 -0.002743 0.0089567 -0.0027427
0.0079943 -0.004423 -0.0016598 -0.0019831 -0.00096732 -0.004739 -0.26199 0.14229
-0.040909 -0.021015 0.013617 0.030161
0.012249 0.00020814 0.013337 -0.0049772 -0.0036966 -0.0027594 -0.040917 -0.021042
-0.20613 -0.12613 -0.047356 0.011866
0.00073162 -0.0033839 0.0011985 -0.0035882 0.0084965 -0.0020873 0.012416 0.029994
-0.046283 0.012059 -0.23957 -0.041496
680000000 -0.24083 0.17392 -0.025948 -0.014092 0.0049177 0.0052995 0.0014816 -0.0070684
-0.00093288 -0.011115 0.0062998 -0.0059702
-0.025946 -0.014118 -0.38988 0.13809 -0.032001 -0.0013642 -0.001808 -0.00075499
-0.00093534 -0.0091617 -0.00072257 -0.0016359
0.0050309 0.0053618 -0.032042 -0.0012715 -0.10563 0.27514 -0.00080877 -0.00048681
-0.0012109 0.00072373 -0.0025111 -0.0088998
0.0015227 -0.0068775 -0.0019749 -0.00060252 -0.00081331 -0.00047878 -0.21861 0.195
-0.02399 -0.0068229 -0.0091977 -0.011812
-0.00073334 -0.011116 -0.00099355 -0.0092836 -0.0013465 0.0007228 -0.024051 -0.0067587
-0.29008 -0.020365 -0.0043436 -0.0067671
0.0064955 -0.0060179 -0.00065867 -0.0016297 -0.0025489 -0.0092864 -0.0093123 -0.012292
-0.0043064 -0.0068928 -0.2622 0.063899
740000000 -0.19399 0.16699 -0.040196 0.026669 0.01355 -0.0038615 0.00053105 -0.0041594
-0.0039981 -0.0010012 -0.0061723 0.0031547
-0.040347 0.026922 -0.33516 0.15701 -0.036401 0.03429 0.00031626 -0.0065746
-0.013444 0.0066634 -0.00096342 -0.0065943
0.013522 -0.0039536 -0.03649 0.034198 -0.071683 0.27473 -0.0017498 0.0033699
-0.0011641 -0.00597 -0.0012209 0.00077809
0.00051088 -0.0042111 0.00024534 -0.0067172 -0.0016494 0.0034197 -0.20125 0.20177
-0.043734 -0.010866 0.023023 0.017614
-0.0035455 -0.0017535 -0.013659 0.0067339 -0.0012462 -0.0061481 -0.043795 -0.01072
-0.18095 0.023329 -0.046122 -0.0022831
-0.0065098 0.0030688 -0.0016363 -0.0063486 -0.00089758 0.00064968 0.023095 0.017602
-0.046029 -0.0029289 -0.25361 0.067267
800000000 -0.16638 0.21316 -0.021911 0.015928 0.0055276 -0.01034 -0.0041221 -0.0024555
-0.004341 0.00078332 0.0045008 0.00039945
-0.022 0.015923 -0.34423 0.22842 -0.0081306 0.034022 -0.0022556 0.0020188
4.9069e-05 0.0017296 0.00043592 0.0053949
0.0054731 -0.010456 -0.0080367 0.034029 -0.033979 0.30046 0.00092609 0.0014595
-0.00025226 0.0030118 -0.0015534 0.00066244
-0.0040485 -0.0023956 -0.0023097 0.0019457 0.00088779 0.0014517 -0.1731 0.23022
-0.029325 0.013082 0.015479 -0.010101
-0.0043835 0.00068582 5.9047e-06 0.0018078 -0.00035694 0.0029215 -0.029432 0.013013
-0.24476 0.042989 -0.019109 0.021596
0.0045502 0.00070101 0.00054719 0.0053183 -0.0017299 0.00078723 0.015273 -0.009983
-0.019371 0.021378 -0.2522 0.12168
860000000 -0.1304 0.23485 -0.017668 0.030764 -0.0032149 -0.0097403 -0.0021018 0.00023738
0.0036929 0.0051868 -0.0040309 -0.0032339
-0.017652 0.030658 -0.29664 0.27336 0.0078426 0.03389 0.00025105 0.0022175
0.0034104 -7.585e-05 0.0037467 0.00010524
-0.003149 -0.0097944 0.0079469 0.03394 0.015085 0.3105 -0.00048603 -0.00036103
0.0025202 -0.0017536 0.0014953 0.0041227
-0.0021395 0.0003416 0.00037309 0.002259 -0.00045922 -0.00030893 -0.13542 0.24099
-0.019286 0.017451 -0.0063916 -0.0096019
0.0038011 0.0053807 0.0034139 0.00011566 0.0025551 -0.0016258 -0.019002 0.01761
-0.18931 0.11134 -0.027038 0.015868
-0.004084 -0.0032127 0.0036651 0.00023577 0.0014424 0.0040995 -0.0064263 -0.009657
-0.026899 0.01578 -0.20131 0.17205
920000000 -0.10867 0.25744 0.0048435 0.039168 -0.0092713 -0.0044273 -0.002004 0.0014351
7.5794e-05 0.0016872 0.0032067 -0.0012886
0.0047693 0.039009 -0.27071 0.2942 0.027982 0.022469 0.0012505 0.0012359
0.0075417 0.00027547 0.0040883 -0.0026784
-0.0091675 -0.0044272 0.028141 0.022379 0.060805 0.31204 0.0017668 -1.0329e-05
0.0005887 -0.00026756 0.00088265 -0.0014444
-0.0021733 0.0013785 0.0013108 0.0012721 0.0017638 4.8217e-05 -0.11215 0.25755
-0.013108 0.031316 0.0047776 -0.0067006
0.00017705 0.0016825 0.0076108 7.7417e-05 0.0007045 -0.00018436 -0.013118 0.031372
-0.18546 0.11301 -0.0028279 0.029514
0.0033495 -0.001394 0.0038834 -0.0029514 0.00087391 -0.0016153 0.0048654 -0.0067843
-0.0028781 0.029341 -0.21342 0.18173
980000000 -0.062513 0.28043 0.016795 0.030245 -0.0091527 0.0046429 0.0016116 0.0036903
0.0037654 -0.00086929 -0.0033491 -0.0027151
0.016823 0.030207 -0.2189 0.33289 0.032913 0.0048725 0.0020756 -9.0688e-05
0.0015723 -0.0058507 -0.00036102 -0.0028681
-0.0091566 0.0046505 0.032943 0.0047662 0.10752 0.30768 0.00047509 -0.0011044
0.00031374 -0.0017334 0.0012964 -0.00030846
0.0015792 0.0037054 0.0020034 -0.0001828 0.00046718 -0.0010914 -0.073123 0.26948
0.0069712 0.031553 -0.0095834 -0.0085146
0.0037406 -0.000815 0.0015133 -0.0058963 0.00031447 -0.0017467 0.0071962 0.031517
-0.15683 0.15645 0.0047044 0.021448
-0.003234 -0.002664 -0.00037235 -0.0025235 0.0012895 -0.0003991 -0.009484 -0.0084396
0.0049401 0.021669 -0.17224 0.23484
1040000000 -0.020738 0.28864 0.033015 0.019374 -0.0010827 0.0073417 0.002194 0.00080641
0.00013461 -0.0029248 -0.00021062 -0.0013153
0.032981 0.019397 -0.18351 0.34652 0.029205 -0.014647 0.0015052 -0.0018548
-0.0024378 -0.0022578 -0.0011443 -0.0030094
-0.0010394 0.0073202 0.029193 -0.014746 0.15473 0.29378 -0.00051319 -0.0014142
-0.001636 -0.00086708 -0.00078699 -0.0010576
0.0022044 0.00092562 0.0015313 -0.001797 -0.00051476 -0.0013953 -0.045789 0.27818
0.018937 0.020827 -0.0019351 0.00082506
0.00025463 -0.0029394 -0.0024035 -0.0022339 -0.0015868 -0.00079626 0.018987 0.020787
-0.12497 0.16457 0.013288 0.021289
-0.00017946 -0.0015239 -0.0012074 -0.0030055 -0.00081433 -0.0011106 -0.0018515 0.00071687
0.01366 0.021545 -0.15111 0.25511
1100000000 0.022803 0.29999 0.036554 -0.0033206 0.0032717 0.0040558 0.0024414 -0.00078348
-0.0022473 -0.0030441 -0.0042085 -5.2401e-05
0.036504 -0.0033029 -0.14097 0.36716 0.014876 -0.02757 -0.0001048 -0.0018502
-0.0034759 -0.0011002 -0.0038978 -0.00057926
0.0033087 0.0040605 0.014815 -0.027615 0.2005 0.27438 -0.0018133 0.0002087
-0.0017586 0.00074551 -0.001043 -0.00037542
0.0023748 -0.00089732 -0.00013805 -0.0018856 -0.0018121 0.00021681 -0.006237 0.28358
0.025858 0.0076683 -0.0026154 -0.00063344
-0.0022219 -0.0031136 -0.0034441 -0.0011572 -0.0017479 0.00078407 0.025815 0.0076268
-0.10841 0.18444 0.019693 0.011125
-0.0042765 -0.0001349 -0.0038944 -0.00061206 -0.0010115 -0.00028387 -0.0026388 -0.00059809
0.019851 0.011227 -0.10806 0.28928
1160000000 0.075098 0.29686 0.024592 -0.020269 0.0031354 -0.0006205 -4.7974e-05 -0.002362
-0.0039902 -0.00095929 -0.001225 0.0044804
0.024593 -0.02023 -0.095769 0.37253 -0.0040181 -0.028443 -0.0015848 -0.0014817
-0.0029228 0.0027342 -0.0016663 0.0020056
0.0031579 -0.00065733 -0.0040877 -0.028448 0.24506 0.24394 -0.00063114 0.0017203
-0.00040559 0.001958 -0.00081802 0.0005262
-8.22e-05 -0.0023394 -0.0015566 -0.0015156 -0.00069535 0.00171 0.034049 0.2805
0.023602 -0.0095576 -0.0041394 0.0050677
-0.0039636 -0.00099276 -0.0028773 0.0027511 -0.00049808 0.0018757 0.023727 -0.0096394
-0.072973 0.19813 0.019778 0.0019849
-0.0011504 0.0045141 -0.0017234 0.002145 -0.0008613 0.00051385 -0.0041728 0.0050232
0.019768 0.0017428 -0.058686 0.2935
1220000000 0.11836 0.2874 0.011647 -0.030067 -0.0012481 -0.0010864 0.00024809 -0.00098457
-0.0028671 0.0021724 0.0011315 0.0021004
0.011625 -0.030031 -0.052245 0.38677 -0.016873 -0.020671 -0.0025701 0.00049865
-0.00011187 0.0031339 -0.00082525 0.0021138
-0.0012595 -0.0011082 -0.01698 -0.020632 0.28393 0.20462 0.00092439 0.0016158
0.00053736 0.0011564 0.00026373 0.00057392
0.00024999 -0.00095554 -0.0025345 0.0005295 0.00086805 0.0016052 0.072863 0.27173
0.012693 -0.017271 0.0018873 0.0015197
-0.0028446 0.0022382 -7.5521e-05 0.0031405 0.00051809 0.0012738 0.012674 -0.017344
-0.052487 0.21047 0.015783 -0.012312
0.0012096 0.0020256 -0.00086236 0.0020586 0.00026787 0.00051026 0.0019577 0.0014389
0.015817 -0.012254 -0.030349 0.31313
1280000000 0.16921 0.26914 -0.00729 -0.028923 -0.0017325 0.0019222 -0.00099577 -0.0022156
-0.00095283 0.0031859 0.002544 0.0014506
-0.0072438 -0.028915 -0.0049484 0.37998 -0.023755 -0.0077177 -0.0009305 0.0014749
0.0017896 0.0019109 0.00065848 0.0021047
-0.0017639 0.0019462 -0.023815 -0.007641 0.31496 0.162 0.0015737 -0.00011035
0.0012173 0.00043853 0.00026977 0.00011089
-0.00093017 -0.0021766 -0.00089935 0.0015042 0.0015954 -4.6926e-05 0.10958 0.25617
0.0028599 -0.020712 -0.00061598 0.00030804
-0.00089536 0.0031969 0.0017456 0.0018992 0.0011933 0.00039515 0.0028487 -0.020754
-0.016128 0.22036 0.0040075 -0.015374
0.0025409 0.0014908 0.00078074 0.0021526 0.00014033 0.00019272 -0.00065568 0.00035762
0.0039405 -0.01539 0.018844 0.31875
1340000000 0.20747 0.23565 -0.016978 -0.019497 0.00064725 0.0041803 -0.0018977 -0.0009234
0.0014069 0.0030917 0.0019 -0.0014629
-0.01688 -0.019503 0.035185 0.37238 -0.020689 0.0048832 -0.00021448 0.002019
0.0020313 0.0010294 0.0012649 0.00083685
0.00068903 0.004172 -0.02068 0.0049866 0.33803 0.1132 0.00090116 -0.00094982
0.00076931 -0.00053702 0.00016849 0.00031562
-0.0019464 -0.00088874 -0.00019695 0.0020363 0.00093969 -0.00097022 0.14274 0.23508
-0.007482 -0.018449 0.00090772 0.00066996
0.0014474 0.0030954 0.0020273 0.001027 0.00080978 -0.00051698 -0.0075802 -0.018471
0.012989 0.21974 -0.0024217 -0.01447
0.0018606 -0.0014894 0.0012168 0.00082736 0.00012812 0.00026347 0.00089098 0.00068649
-0.0024563 -0.01438 0.057336 0.31525
1400000000 0.24138 0.19957 -0.023405 -0.0082944 0.004868 0.0028815 -0.002292 0.00077384
0.0026325 0.0010709 0.00043123 -0.0014209
-0.023361 -0.0083091 0.073012 0.36098 -0.013796 0.012665 0.001391 0.0013889
0.0012581 -0.00058665 0.0011067 0.00016372
0.0048733 0.0029198 -0.013751 0.012733 0.35114 0.059495 -5.58e-06 -0.0014712
0.00020454 -0.00020159 0.00040596 0.00024194
-0.0023075 0.00079389 0.0014086 0.0013812 1.9022e-05 -0.0014859 0.17142 0.20676
-0.014756 -0.011804 -0.00097473 -8.518e-05
0.0026733 0.0011108 0.0012725 -0.00058084 0.00023508 -0.00024597 -0.014746 -0.011739
0.046104 0.22148 -0.0097433 -0.0094944
0.00036325 -0.00133 0.0011631 0.00010804 0.00041801 0.00029469 -0.0009935 -4.1848e-05
-0.0097241 -0.0095222 0.10263 0.30759
1460000000 0.26633 0.15652 -0.020436 0.0043002 0.0051999 -0.0017933 -0.0016168 0.0019161
0.0023334 -6.9366e-05 -0.00017303 -0.00099925
-0.020425 0.004232 0.10904 0.33954 -0.0048211 0.015042 0.0016819 0.00024048
0.0011827 -0.0014129 0.0013076 -0.00060205
0.005178 -0.0018019 -0.0047143 0.01506 0.35805 0.0043416 -0.0011512 -0.0011366
0.00026086 -0.00031667 0.00061819 -0.00027262
-0.0015842 0.0018663 0.0016697 0.00026109 -0.0011863 -0.001165 0.19858 0.17808
-0.016643 -0.0048904 -0.00094373 0.0024026
0.0023144 -0.00013741 0.001152 -0.001451 0.00030964 -0.00028794 -0.01664 -0.0048799
0.07706 0.2123 -0.011918 -0.003207
-0.00020104 -0.0010248 0.0013446 -0.00061227 0.00064424 -0.00027622 -0.00086486 0.0024052
-0.011922 -0.0032039 0.13717 0.28826
1520000000 0.27922 0.11451 -0.01512 0.0098039 0.0031023 -0.004112 0.00023611 0.0027487
0.0027561 -0.0017147 -0.0011479 -0.00028513
-0.015087 0.0097657 0.1431 0.32496 0.0025189 0.011959 0.0017026 -0.0007883
0.00024501 -0.0011032 0.00038649 -0.00097628
0.0030617 -0.0041124 0.0025593 0.011999 0.35011 -0.05408 -0.00083876 -0.00033736
0.00076531 -0.00099551 0.00017949 -4.4219e-05
0.00025055 0.0027632 0.0016995 -0.00077197 -0.00080918 -0.0003422 0.2215 0.13961
-0.016787 0.0016845 0.0015913 0.0023129
0.0027476 -0.001728 0.00022494 -0.0011273 0.00076897 -0.0010235 -0.016775 0.0017146
0.10495 0.20391 -0.011995 0.0012608
-0.0011468 -0.00025457 0.00033846 -0.00099337 0.00014073 -0.00012988 0.0016225 0.0023013
-0.011892 0.0012665 0.17083 0.26993
1580000000 0.28977 0.06957 -0.0085852 0.013313 -0.0012653 -0.0046699 0.0016924 0.0019295
5.1259e-05 -0.0023418 -0.00026247 0.00039243
-0.008598 0.013308 0.17114 0.30107 0.0055083 0.0068213 0.00063303 -0.0015927
-0.00045418 -0.0011858 -0.00020109 -0.00071265
-0.001237 -0.0046583 0.0055844 0.0068019 0.32817 -0.11033 -0.0014646 0.00040672
-0.00041376 -0.0014411 0.00022677 -0.00054651
0.0017467 0.0018874 0.00061963 -0.0016137 -0.001489 0.00038253 0.23554 0.10125
-0.013245 0.0076703 0.0025477 0.001015
2.4293e-06 -0.0023466 -0.00043094 -0.0012104 -0.00044264 -0.0013816 -0.013243 0.0077091
0.13195 0.19146 -0.0092518 0.0078353
-0.00034858 0.00037857 -0.00016502 -0.00071841 0.00030611 -0.00051705 0.0025628 0.0010432
-0.0092487 0.0078088 0.20532 0.24605
1640000000 0.29321 0.027589 -0.0017388 0.012255 -0.0028576 -0.002239 0.0028671 0.00081399
-0.00049532 -0.0020626 -0.00040013 0.00044338
-0.0017533 0.012255 0.20217 0.27568 0.0054277 0.0020338 -0.00059185 -0.0018978
-0.0010278 -0.00060251 -0.00038755 -0.00077138
-0.0028936 -0.0022793 0.0054655 0.0019654 0.29878 -0.16014 -0.00074603 0.0013158
-0.0011504 -0.0012287 -0.0001399 -0.00056184
0.0028781 0.00084704 -0.00059508 -0.0018657 -0.00072025 0.0013386 0.2487 0.051791
-0.0089439 0.0094244 0.0028308 -0.00072353
-0.00050548 -0.0020651 -0.0010344 -0.00058264 -0.0012223 -0.0011916 -0.00893 0.0094763
0.15701 0.17208 -0.0042624 0.010016
-0.00041248 0.00044421 -0.00039378 -0.00076904 -0.00024993 -0.00053548 0.0028265 -0.00069882
-0.0042869 0.0099939 0.23257 0.21531
1700000000 0.28602 -0.017243 0.0017596 0.0096616 -0.0033308 0.00037341 0.0030495 -0.0013942
-0.0023514 -0.00092134 0.00052489 0.00037763
0.001778 0.0096579 0.21988 0.24448 0.0028241 -0.00055552 -0.0015283 -0.00069606
-0.00090266 -0.00017633 -0.00085227 -0.0005202
-0.0034259 0.00043501 0.0027791 -0.00064954 0.25368 -0.19779 0.00018974 0.0015686
-0.0023929 -0.000156 -0.00032968 -0.00095203
0.0030023 -0.0014483 -0.0015519 -0.00069062 0.00017155 0.0015929 0.24499 0.0024587
-0.0057599 0.010963 0.0018943 -0.0021966
-0.0023387 -0.00096307 -0.00088026 -0.00013206 -0.0022923 -3.1413e-05 -0.0057498 0.010976
0.1774 0.15714 0.0005766 0.0098462
0.00054303 0.00042179 -0.00090351 -0.00055418 -0.00046745 -0.00097395 0.0019028 -0.0022634
0.00060895 0.009882 0.2505 0.18264
1760000000 0.27567 -0.06571 0.0042448 0.006343 -0.0020133 0.0012374 0.0011718 -0.0035279
-0.0013672 0.00048083 0.00018166 -0.00051245
0.0042242 0.0063354 0.2476 0.20501 0.00014188 -0.0019475 -0.0012769 8.8059e-05
-0.0011705 0.0010488 -0.00058699 0.00033108
-0.0020004 0.0012138 9.3188e-05 -0.0019438 0.20588 -0.22992 0.0011432 0.0012355
-0.0012352 0.0017172 -0.0012355 -0.00065291
0.0011834 -0.0035522 -0.0012638 0.00013124 0.0011921 0.0012763 0.23767 -0.048624
-0.0014057 0.010665 -9.5633e-06 -0.0026915
-0.0014411 0.00050565 -0.0011648 0.0010385 -0.0011981 0.0017043 -0.0013621 0.010672
0.19654 0.12736 0.0048401 0.0072379
0.00022773 -0.00061507 -0.00054498 0.00035593 -0.0012175 -0.00050356 -3.3322e-05 -0.0027117
0.004826 0.0071841 0.26538 0.14587
1820000000 0.25133 -0.10398 0.0045065 0.0027938 0.00022621 0.0024415 -0.00095049 -0.0031208
-0.0013844 0.0009481 -0.00020024 -0.00011022
0.0044868 0.0027907 0.25763 0.17418 -0.0023116 -7.8034e-06 -0.0013493 0.0010294
4.7591e-05 0.0012222 -0.00074261 0.00041819
0.00022802 0.0025171 -0.0022599 8.8843e-05 0.15413 -0.24485 0.0017178 0.00060433
-0.00016751 0.0024149 -0.0017447 0.00040478
-0.0010334 -0.0030849 -0.0013776 0.0010013 0.001678 0.00059137 0.20752 -0.096988
0.0011497 0.0091208 -0.0016667 -0.0020399
-0.0014121 0.0009084 7.8344e-05 0.0011904 -0.00012254 0.0023113 0.0011898 0.0091166
0.21836 0.10158 0.0059285 0.0031881
-0.00018206 -0.00014307 -0.00070774 0.00047067 -0.0016081 0.00042746 -0.0017246 -0.002
0.0059213 0.0032083 0.26934 0.10987
1880000000 0.21632 -0.14376 0.0022059 0.00045314 -0.00025584 0.0022956 -0.0029726 -0.0022678
-0.00029203 0.0019676 0.00041459 -0.00060048
0.0021844 0.00046427 0.26211 0.12846 -0.0040367 0.0029357 -0.00022407 0.0017939
0.00054984 0.0013398 0.00011458 0.0010636
-0.0002197 0.0021982 -0.0040039 0.0029178 0.10236 -0.25102 0.0020632 -0.0010486
0.0018894 0.0020531 -0.00093549 0.0015283
-0.0029397 -0.0022538 -0.00022215 0.0018117 0.0020407 -0.0010721 0.16738 -0.13677
0.0030068 0.0066188 -0.0025394 0.00010734
-0.00026205 0.0020107 0.00054648 0.0013202 0.0018034 0.0019107 0.0030463 0.0066335
0.22725 0.07477 0.0062365 0.0010576
0.00023799 -0.00062232 0.00012264 0.00096915 -0.000877 0.0015312 -0.0025304 6.005e-07
0.0061454 0.0010349 0.27134 0.077141
1940000000 0.17801 -0.17051 -8.0986e-05 -0.0010475 0.0017688 0.001954 -0.0037937 0.00037946
0.0011554 0.0010138 -0.00068703 -0.00057746
-5.7891e-05 -0.0010193 0.26405 0.096157 -0.0019459 0.0058609 0.0010547 0.0012955
0.0019014 0.00031331 0.00093757 0.00034131
0.0017062 0.0019155 -0.0019236 0.0058542 0.060012 -0.24298 0.00044046 -0.0023224
0.0022264 0.00018906 0.00032707 0.0017662
-0.0038221 0.00039488 0.0010256 0.0013163 0.00034335 -0.0022827 0.11554 -0.16913
0.0028783 0.0040972 -0.0016062 0.0012891
0.0012485 0.0010112 0.0019186 0.00032321 0.002204 0.00029511 0.0029038 0.004088
0.23725 0.037935 0.0048172 -0.0035564
-0.00073468 -0.0004828 0.00099067 0.00025773 0.00029909 0.0017172 -0.0015754 0.00134
0.0048754 -0.003554 0.26277 0.040252
2000000000 0.13088 -0.18496 -0.0035745 0.0010462 0.0030314 0.0012351 -0.002446 0.0037667
0.00093909 0.0005958 -0.00079723 0.00055152
-0.0035907 0.0010803 0.24947 0.06088 -0.0005438 0.007979 0.001529 0.00026241
0.0010812 -0.0012924 0.00054961 0.00013318
0.0030064 0.0013305 -0.00052273 0.0080451 0.017754 -0.22854 -0.0015246 -0.0015736
0.001982 -0.0010472 0.0017541 0.0014418
-0.0024345 0.0037689 0.001624 0.00029836 -0.0015196 -0.001475 0.060854 -0.17933
0.0010292 0.0028456 -0.00027128 0.0021893
0.0010037 0.00056379 0.0010292 -0.001231 0.002011 -0.0010242 0.0010329 0.0028116
0.23734 0.0054805 0.00073654 -0.0043363
