!Keysight Technologies,M9804A,MY58100912,A.14.10.03
!Date: Thursday, April 27, 2023 10:28:33
!Correction: S11(C  6-Port  ) 
!S12(C  6-Port  ) 
!S13(C  6-Port  ) 
!S14(C  6-Port  ) 
!S15(C  6-Port  ) 
!S16(C  6-Port  ) 
!S21(C  6-Port  ) 
!S22(C  6-Port  ) 
!S23(C  6-Port  ) 
!S24(C  6-Port  ) 
!S25(C  6-Port  ) 
!S26(C  6-Port  ) 
!S31(C  6-Port  ) 
!S32(C  6-Port  ) 
!S33(C  6-Port  ) 
!S34(C  6-Port  ) 
!S35(C  6-Port  ) 
!S36(C  6-Port  ) 
!S41(C  6-Port  ) 
!S42(C  6-Port  ) 
!S43(C  6-Port  ) 
!S44(C  6-Port  ) 
!S45(C  6-Port  ) 
!S46(C  6-Port  ) 
!S51(C  6-Port  ) 
!S52(C  6-Port  ) 
!S53(C  6-Port  ) 
!S54(C  6-Port  ) 
!S55(C  6-Port  ) 
!S56(C  6-Port  ) 
!S61(C  6-Port  ) 
!S62(C  6-Port  ) 
!S63(C  6-Port  ) 
!S64(C  6-Port  ) 
!S65(C  6-Port  ) 
!S66(C  6-Port  ) 
!S6P File: Measurement: :
# Hz S  RI   R 50
500000000 -0.32712 -0.065197 -0.011163 -0.0007537 -0.0087995 0.012355 -0.0041725 0.012019
0.013877 0.0068743 -0.0043369 0.0086236
-0.011239 -0.0011317 -0.40876 -0.075943 0.0071385 -0.010273 0.00063646 0.012283
0.0099976 0.0033396 0.0012896 0.0144
-0.0087662 0.012517 0.0071076 -0.010361 -0.25591 0.19434 0.0066947 0.0032012
-0.0025558 0.008191 0.00080162 0.010815
-0.0035805 0.012535 0.0007891 0.012196 0.0067318 0.0030993 -0.32865 0.041069
-0.021321 -0.0046146 0.015856 0.028666
0.013124 0.0055547 0.009341 0.0038631 -0.0022113 0.0083648 -0.02161 -0.0045586
-0.19465 -0.27428 -0.030691 0.0062095
-0.0033873 0.0096131 0.0011157 0.014156 0.0014541 0.01094 0.01544 0.028906
-0.030312 0.0065812 -0.25189 -0.15387
560000000 -0.31538 0.10214 -0.021581 -0.066348 9.6599e-05 0.013249 0.0048315 0.01188
0.010235 0.0035568 0.011815 0.0099945
-0.021182 -0.066046 -0.3696 0.088983 -0.041053 -0.038757 0.014268 0.0040225
-0.014883 -0.0064703 0.0047688 0.00036793
0.00044541 0.013722 -0.041069 -0.038283 -0.1796 0.24317 -0.00017418 -0.0043093
0.019632 0.0085146 0.0073824 -0.0054782
0.0045324 0.010882 0.013766 0.0036197 -0.00030329 -0.0046263 -0.30424 0.13241
0.0076831 -0.023653 0.0054257 -0.021562
0.010375 0.0054765 -0.015328 -0.0061997 0.019873 0.0085096 0.0072962 -0.023305
-0.29634 -0.089522 0.013924 -0.053449
0.010785 0.0087111 0.0039933 0.00044747 0.0067848 -0.0053421 0.0051674 -0.021226
0.011973 -0.052974 -0.32567 -0.0051049
620000000 -0.27419 0.078861 -0.024003 0.0098392 0.0036395 0.0090843 0.0077471 -0.0055082
0.01325 0.0015555 5.5092e-05 -0.002304
-0.023912 0.0096795 -0.39912 0.033611 -0.018975 0.00094486 -0.0017309 -0.002103
0.013769 -0.004956 0.0011349 -0.0033122
0.0035543 0.0090984 -0.019003 0.0010188 -0.15277 0.25144 -0.00088526 -0.0055134
-0.0029672 -0.0021964 0.0089963 -0.0027065
0.0084715 -0.0041387 -0.0016602 -0.0019634 -0.00081418 -0.0050415 -0.26312 0.14097
-0.040393 -0.020921 0.012955 0.030406
0.012895 -6.5877e-05 0.013267 -0.004975 -0.0034068 -0.00253 -0.040886 -0.020077
-0.20555 -0.13189 -0.047234 0.011269
0.00051242 -0.0025546 0.00092183 -0.0031627 0.009494 -0.003018 0.012782 0.029698
-0.04773 0.011815 -0.23999 -0.044969
680000000 -0.24115 0.17354 -0.026225 -0.014455 0.0047102 0.0050717 0.001752 -0.0068613
-0.00063367 -0.011473 0.0068752 -0.0058503
-0.026124 -0.014655 -0.3901 0.13713 -0.032046 -0.0015502 -0.0015043 -0.00059157
-0.0006432 -0.0096912 -0.00064603 -0.0015838
0.0047784 0.0050913 -0.032175 -0.0014551 -0.10569 0.27503 -0.00074597 -0.00017031
-0.00065713 0.00053315 -0.0030225 -0.008968
0.0011738 -0.0074645 -0.0016244 -0.00062557 -0.00090387 -0.00034201 -0.21915 0.19561
-0.024007 -0.0069162 -0.0088075 -0.012056
-0.00047715 -0.011084 -0.00079181 -0.0093809 -0.0006485 0.00082643 -0.02452 -0.0071494
-0.29101 -0.023862 -0.00487 -0.0061898
0.0060824 -0.0070798 -0.00087599 -0.0015261 -0.0027031 -0.0088872 -0.0090607 -0.012713
-0.0046977 -0.0066487 -0.26058 0.061736
740000000 -0.19435 0.1662 -0.040914 0.026914 0.013772 -0.0040125 0.00035199 -0.0039847
-0.0033834 -0.0017847 -0.0061562 0.0029023
-0.040746 0.02664 -0.33552 0.15628 -0.036684 0.033805 -0.00028823 -0.0062067
-0.013316 0.0063861 -0.0018443 -0.0059514
0.013648 -0.0040095 -0.036638 0.034088 -0.071694 0.27457 -0.0019946 0.0027633
-0.00097576 -0.0057078 -0.0013015 0.0002121
0.00055841 -0.0041899 -1.3582e-05 -0.0061222 -0.0017779 0.0027539 -0.20277 0.202
-0.0439 -0.010546 0.022694 0.018267
-0.0047362 -0.0027601 -0.014612 0.0051008 -0.001114 -0.0059507 -0.042822 -0.011142
-0.18129 0.020707 -0.045341 -0.0013935
-0.0060624 0.0025411 -0.0013179 -0.0053795 -0.0012035 0.00053659 0.022121 0.017952
-0.046041 -0.0017378 -0.25413 0.065918
800000000 -0.16692 0.21296 -0.022079 0.016559 0.0055568 -0.010016 -0.0040549 -0.0028025
-0.0041034 0.0014303 0.0042689 0.00033204
-0.022086 0.016448 -0.34493 0.22788 -0.0081489 0.03413 -0.0022985 0.0018211
-0.00012111 0.0018356 0.00071518 0.0053642
0.0054968 -0.010095 -0.0081534 0.034259 -0.034133 0.30051 0.00087472 0.00135
-0.00018727 0.0033423 -0.0015614 0.0007107
-0.0044199 -0.0026503 -0.0022545 0.0021575 0.00078807 0.0013183 -0.17363 0.23045
-0.029641 0.013477 0.015903 -0.010022
-0.0039661 0.0010942 -0.00020124 0.0017149 -5.4075e-05 0.0032932 -0.029554 0.013091
-0.2467 0.039226 -0.019583 0.022208
0.0040731 0.00058748 0.00055111 0.0056643 -0.0016895 0.00057032 0.01608 -0.010247
-0.02028 0.022678 -0.25232 0.12003
860000000 -0.1312 0.23413 -0.017791 0.030491 -0.0031362 -0.0098556 -0.0020436 0.00031992
0.0042198 0.004472 -0.0041192 -0.0031804
-0.017787 0.030494 -0.29685 0.27281 0.0077965 0.0339 0.0002875 0.0021399
0.00346 -7.5156e-05 0.0038109 0.00011623
-0.0032516 -0.0099031 0.0078289 0.033919 0.014966 0.31046 -0.0004727 -0.00018583
0.002519 -0.0016279 0.001506 0.0041197
-0.001869 0.00015896 0.00031405 0.0021336 -0.00045355 -0.00015892 -0.13608 0.24161
-0.019084 0.018308 -0.0070055 -0.0091993
0.0040728 0.0048501 0.0036094 0.00026822 0.0024099 -0.0016064 -0.019161 0.018548
-0.18999 0.1091 -0.028515 0.016202
-0.004138 -0.0033618 0.0032453 8.6927e-05 0.0016351 0.0041418 -0.0068635 -0.0095194
-0.028464 0.015516 -0.20072 0.16959
920000000 -0.10909 0.25698 0.0047155 0.039124 -0.0091412 -0.0044208 -0.0018128 0.0013042
-0.0004101 0.0014955 0.0036726 -0.00096807
0.0047502 0.039127 -0.27102 0.29379 0.028032 0.022515 0.0014123 0.0010299
0.0075874 0.00017377 0.004259 -0.0028756
-0.0091976 -0.0044216 0.028126 0.022417 0.060717 0.31182 0.0018973 1.3546e-05
0.00046623 -0.00032136 0.00080967 -0.0016452
-0.0020318 0.0013691 0.0014374 0.0010923 0.0018162 3.0274e-05 -0.11217 0.25782
-0.013596 0.031227 0.0052612 -0.0066411
-0.00040191 0.001458 0.0074338 0.00035412 0.00054465 -0.00025793 -0.013547 0.031293
-0.1876 0.1119 -0.0033549 0.029511
0.0028173 -0.0010538 0.0040956 -0.0027794 0.0007505 -0.0015665 0.0052102 -0.0067874
-0.0035779 0.029265 -0.21405 0.18168
980000000 -0.063094 0.27985 0.016836 0.030201 -0.0091971 0.0045031 0.0016116 0.0036388
0.0036162 -0.0011381 -0.0032898 -0.0027487
0.016794 0.030207 -0.2193 0.33258 0.032858 0.0049143 0.0020088 -0.000159
0.0020243 -0.0061803 -0.00017163 -0.0026597
-0.0092027 0.0045433 0.032872 0.0048353 0.10734 0.30745 0.0005423 -0.0011626
0.00039387 -0.0017785 0.0013067 -0.00030035
0.0015373 0.0035833 0.001993 -5.7389e-05 0.00058371 -0.0011435 -0.073156 0.26974
0.0071015 0.0322 -0.0097823 -0.0083139
0.0037868 -0.0010555 0.0020232 -0.0060724 0.0003293 -0.0017233 0.0068672 0.032279
-0.15972 0.15367 0.0049862 0.021248
-0.0031535 -0.0028319 -0.00030693 -0.0027147 0.00144 -0.00037968 -0.0093926 -0.0084926
0.0052095 0.02184 -0.17338 0.23303
1040000000 -0.02168 0.28843 0.033114 0.019597 -0.0010299 0.0073202 0.0022924 0.00082457
0.00041171 -0.0029019 -0.00023527 -0.0015156
0.032994 0.019692 -0.18379 0.34611 0.029382 -0.014533 0.001631 -0.0018235
-0.0023516 -0.0021368 -0.0011569 -0.0031005
-0.0010326 0.007399 0.029317 -0.014648 0.15457 0.29363 -0.000534 -0.0014841
-0.0016312 -0.00092005 -0.00085243 -0.0011801
0.0022049 0.00083548 0.0015783 -0.0017632 -0.00051093 -0.0014813 -0.045631 0.27854
0.019456 0.021084 -0.0017747 0.00067133
0.0004497 -0.0031845 -0.0022782 -0.0022111 -0.001577 -0.001008 0.019519 0.021021
-0.12643 0.16341 0.013213 0.021504
-4.3904e-06 -0.0013702 -0.0011667 -0.0030998 -0.00075638 -0.0010236 -0.0018352 0.00089667
0.013082 0.021917 -0.15276 0.25393
1100000000 0.022027 0.29972 0.036637 -0.0032356 0.003249 0.0040885 0.0023927 -0.00072918
-0.0021329 -0.0032264 -0.0041167 2.6529e-05
0.036635 -0.0031722 -0.14149 0.36686 0.015033 -0.027575 -0.00012495 -0.0018623
-0.0035146 -0.0013709 -0.0037919 -0.00047517
0.0032951 0.0040575 0.014929 -0.02766 0.20034 0.27431 -0.0018246 0.00019523
-0.0017686 0.0006946 -0.0011641 -0.00034053
0.0024159 -0.00077619 -7.6545e-05 -0.0018331 -0.0018006 0.00022055 -0.005958 0.28388
0.026397 0.0077874 -0.0025602 -0.00092446
-0.0022891 -0.0030459 -0.0036044 -0.0012692 -0.0018805 0.00069791 0.026338 0.0076371
-0.11126 0.18289 0.020252 0.011415
-0.0040849 -3.0826e-05 -0.0038966 -0.00055911 -0.0011385 -0.0003771 -0.0026369 -0.00067448
0.020082 0.011629 -0.10864 0.28924
1160000000 0.074648 0.297 0.024764 -0.020223 0.0031688 -0.00063814 1.5789e-05 -0.0022635
-0.004065 -0.00094615 -0.0012069 0.0043775
0.024798 -0.020145 -0.09611 0.37245 -0.0038655 -0.028453 -0.0015555 -0.0015757
-0.0029702 0.002603 -0.0015859 0.0020951
0.0031973 -0.00063871 -0.0039751 -0.028477 0.24483 0.2439 -0.00079695 0.00167
-0.00051898 0.0018222 -0.00085486 0.00046225
-1.3654e-05 -0.0022908 -0.0015828 -0.0015482 -0.0008031 0.0016758 0.034499 0.28064
0.024142 -0.0099948 -0.0041987 0.0048813
-0.0039056 -0.00090514 -0.0029631 0.0026591 -0.00052558 0.0018775 0.024217 -0.010046
-0.074872 0.19672 0.019494 0.0020705
-0.0010386 0.0044894 -0.0014664 0.0021009 -0.00085506 0.00049792 -0.0041196 0.0049264
0.019362 0.0020041 -0.059519 0.29331
1220000000 0.11775 0.28746 0.011799 -0.030113 -0.0012311 -0.0012613 0.00022217 -0.00090184
-0.0028908 0.0020868 0.0011574 0.0020727
0.011806 -0.030073 -0.052639 0.38663 -0.016831 -0.020756 -0.0025505 0.00055369
-0.00013459 0.0031327 -0.00078703 0.0020508
-0.0012253 -0.001242 -0.016941 -0.020708 0.28371 0.20464 0.0008394 0.0016467
0.00058345 0.0013592 0.00023987 0.00060772
0.000269 -0.00097009 -0.0025351 0.00053156 0.00082808 0.0016378 0.073426 0.27168
0.013128 -0.017657 0.0017844 0.0013825
-0.0028288 0.0021725 -0.00019267 0.0031908 0.00052691 0.0013515 0.013098 -0.01773
-0.055184 0.20992 0.016351 -0.012222
0.0010496 0.0018737 -0.00085221 0.0020779 0.00023974 0.00059681 0.0016685 0.0012393
0.016409 -0.012005 -0.031172 0.31295
1280000000 0.16871 0.26917 -0.0072176 -0.02904 -0.0017834 0.0020247 -0.00091168 -0.0023224
-0.0010432 0.0032467 0.0025411 0.001555
-0.0071542 -0.029046 -0.0054131 0.37986 -0.02374 -0.0078099 -0.0009798 0.0014715
0.0017292 0.0020574 0.00069654 0.0020814
-0.0017727 0.0020532 -0.023808 -0.0077182 0.31484 0.16197 0.0015608 -3.3702e-05
0.0011806 0.00029049 0.00026591 0.00025727
-0.00090703 -0.0022866 -0.00092974 0.0014581 0.0015353 -3.4252e-05 0.11024 0.25592
0.0029452 -0.021315 -0.00089197 0.0002783
-0.0010919 0.0031907 0.0017878 0.0020565 0.001219 0.00026796 0.0029298 -0.021289
-0.018298 0.21984 0.0039576 -0.015552
0.0025608 0.0016014 0.00074684 0.0020825 0.00017848 0.00025331 -0.0008096 0.00020143
0.0041701 -0.015631 0.017873 0.31931
1340000000 0.20701 0.23604 -0.016937 -0.019609 0.0006011 0.0041883 -0.0018759 -0.00091069
0.0014004 0.0030509 0.00191 -0.0013643
-0.016926 -0.01965 0.034769 0.3724 -0.020728 0.0048198 -0.00020361 0.0020332
0.0020265 0.0010572 0.0011373 0.00083541
0.00056364 0.0041835 -0.020721 0.0049164 0.33791 0.1132 0.0010085 -0.00092963
0.00072953 -0.00055773 0.0001568 0.00023568
-0.001903 -0.00085684 -0.00022906 0.0020868 0.001013 -0.00094083 0.14307 0.23457
-0.0078122 -0.019096 0.00078613 0.000759
0.0013147 0.0029538 0.0020017 0.0010348 0.00076747 -0.00060053 -0.0078207 -0.01918
0.010615 0.21906 -0.0023406 -0.014506
0.0018662 -0.0014412 0.0012018 0.0008104 0.00011839 0.00024406 0.00071223 0.0007886
-0.002551 -0.014604 0.056469 0.31551
1400000000 0.24105 0.19981 -0.023394 -0.008359 0.0048986 0.0028779 -0.0023151 0.00078189
0.0026165 0.0011395 0.00038931 -0.0014383
-0.02341 -0.0083777 0.072565 0.36101 -0.013875 0.012601 0.0014092 0.0014233
0.0013042 -0.00057871 0.0011301 0.00016549
0.0049272 0.0028613 -0.013837 0.012674 0.3509 0.059425 5.6597e-05 -0.0015389
0.00021885 -0.00017787 0.00031209 0.00019494
-0.0023794 0.00077406 0.0013892 0.001417 4.3033e-05 -0.0015454 0.17175 0.20581
-0.015212 -0.012268 -0.0010779 1.2399e-05
0.0026854 0.0011185 0.0013697 -0.00061277 0.00023921 -0.00024393 -0.015231 -0.012105
0.043632 0.22148 -0.0096438 -0.0097907
0.00038635 -0.0013855 0.0011621 0.00013612 0.00033598 0.00025694 -0.0010397 -8.4716e-05
-0.0094835 -0.0097027 0.10173 0.30787
1460000000 0.26607 0.15674 -0.020534 0.0042815 0.0051599 -0.0017939 -0.0016908 0.0018936
0.0022234 -2.4411e-05 -2.9078e-05 -0.001017
-0.020567 0.0042693 0.10873 0.3396 -0.0048873 0.015031 0.0017321 0.00026808
0.0012412 -0.0014513 0.0012731 -0.00047798
0.0051742 -0.0017906 -0.0048392 0.015061 0.35773 0.0043648 -0.001255 -0.0012835
0.00033448 -0.00025987 0.00074002 -0.00029159
-0.0016661 0.0018697 0.0017521 0.00021994 -0.0011977 -0.0012802 0.19848 0.17699
-0.017183 -0.0049436 -0.0010129 0.0025005
0.0022539 -3.5744e-05 0.0012988 -0.0014707 0.00028596 -0.00021406 -0.017186 -0.0049363
0.074782 0.21221 -0.012193 -0.0032775
-3.7645e-05 -0.0010163 0.0012698 -0.00055738 0.0007099 -0.00040108 -0.00096683 0.0026354
-0.012125 -0.0034449 0.13651 0.28841
1520000000 0.27894 0.11462 -0.01517 0.0098066 0.0031122 -0.0040792 0.00024317 0.0028624
0.0027927 -0.001746 -0.001142 -0.00024417
-0.015196 0.009786 0.14283 0.32508 0.0024582 0.012074 0.0017763 -0.00079023
0.0002208 -0.0010789 0.00038871 -0.00099842
0.0030574 -0.004099 0.0025246 0.012078 0.34973 -0.053811 -0.00097414 -0.00035324
0.00072617 -0.0010666 0.00012 -7.7127e-05
0.000248 0.0028767 0.0017684 -0.00076827 -0.00095569 -0.00033586 0.22074 0.13854
-0.017347 0.001858 0.0017455 0.00242
0.0028965 -0.0017815 0.00020778 -0.0011051 0.00071455 -0.0011219 -0.017416 0.0019288
0.10244 0.20404 -0.012081 0.0011566
-0.0011143 -0.00020301 0.00038038 -0.0010475 0.00012109 -1.3444e-05 0.0017606 0.002446
-0.012062 0.0011726 0.17003 0.27053
1580000000 0.28949 0.06962 -0.0086047 0.013347 -0.0012559 -0.0046376 0.0017388 0.001968
5.7857e-05 -0.0023579 -0.00031383 0.00035305
-0.0086245 0.013384 0.17094 0.30126 0.0055088 0.0069045 0.00057779 -0.0016374
-0.00047402 -0.0012672 -0.00017191 -0.00075065
-0.0012566 -0.0046055 0.0055436 0.0068971 0.32817 -0.10996 -0.0015375 0.00043131
-0.00037681 -0.0013858 0.00029073 -0.0005862
0.0017639 0.0020248 0.0005773 -0.0016673 -0.0015273 0.00042376 0.23438 0.1005
-0.013677 0.0080985 0.0026595 0.0010734
-5.5757e-05 -0.0023453 -0.00051061 -0.0012252 -0.00032286 -0.0014088 -0.013545 0.0081463
0.12966 0.19204 -0.0095155 0.0079229
-0.00023356 0.00033199 -0.00013582 -0.00074497 0.0003743 -0.0005676 0.0025595 0.001006
-0.0095987 0.007981 0.20447 0.24641
1640000000 0.29294 0.027755 -0.0017484 0.012266 -0.0029086 -0.0022896 0.0029172 0.00083925
-0.00045055 -0.0021572 -0.00037121 0.00050588
-0.0017207 0.01229 0.20204 0.27584 0.0054237 0.0019994 -0.00060409 -0.0019392
-0.0010284 -0.00055079 -0.00041102 -0.00076649
-0.0028776 -0.0022648 0.0054513 0.0019566 0.29889 -0.15992 -0.00073475 0.0013413
-0.0012287 -0.0011685 -0.00016383 -0.00054728
0.0029978 0.00084183 -0.00064248 -0.001954 -0.00074873 0.0013284 0.24709 0.051636
-0.0091745 0.010053 0.0029968 -0.00061756
-0.0004643 -0.0021438 -0.0010047 -0.00058235 -0.0011941 -0.0011742 -0.0092576 0.010062
0.15454 0.1731 -0.0042774 0.010092
-0.00042547 0.00054307 -0.00047226 -0.00076675 -0.00022864 -0.00056846 0.0030145 -0.00064358
-0.0042227 0.010053 0.23202 0.21579
1700000000 0.28552 -0.016885 0.0017685 0.0096285 -0.003514 0.00035902 0.0031255 -0.0014203
-0.0023752 -0.00099814 0.00061027 0.00042557
0.0017829 0.0096293 0.21978 0.24463 0.0027806 -0.00063697 -0.001604 -0.00067812
-0.00087483 -9.6715e-05 -0.00086909 -0.00047274
-0.0034753 0.00043488 0.0027632 -0.00064828 0.25387 -0.19794 0.00016989 0.0016942
-0.0023634 -6.1767e-05 -0.00052024 -0.00085644
0.0030737 -0.0014933 -0.0015917 -0.00066774 0.00015544 0.0016497 0.24342 0.0029371
-0.0057067 0.011544 0.0020029 -0.0022106
-0.0023646 -0.0010199 -0.00086839 -0.00012034 -0.0024431 -6.648e-05 -0.0056635 0.011604
0.17528 0.15839 0.00058181 0.010032
0.00059962 0.00035048 -0.00090044 -0.00047077 -0.00047199 -0.00067531 0.0020027 -0.0022469
0.00046175 0.009979 0.24994 0.18313
1760000000 0.27544 -0.065289 0.0042675 0.0063785 -0.0020649 0.0013263 0.0011258 -0.0036254
-0.0015797 0.00052071 0.00024369 -0.0005387
0.0042799 0.0063877 0.24751 0.20512 5.4985e-05 -0.0018777 -0.0013112 0.00011717
-0.0011903 0.0010393 -0.00058323 0.00034153
-0.0020422 0.0013324 6.7032e-05 -0.0019353 0.20571 -0.22978 0.0011418 0.0012665
-0.0012003 0.0016655 -0.001241 -0.00054758
0.0010859 -0.003683 -0.0013482 0.00013965 0.0012227 0.0012216 0.23644 -0.047397
-0.0011047 0.011039 0.00014153 -0.0028566
-0.0015277 0.00051406 -0.0011767 0.0010726 -0.001094 0.00165 -0.0011324 0.011073
0.1945 0.12899 0.0048806 0.0073766
0.00025804 -0.00047143 -0.00055078 0.00031299 -0.0013391 -0.00054965 7.1607e-05 -0.0028938
0.0050333 0.0072708 0.26481 0.1466
1820000000 0.25118 -0.10344 0.0044967 0.0027728 0.00029888 0.0024359 -0.0011136 -0.0031116
-0.001462 0.0010007 -0.00019775 -0.00015819
0.00448 0.0027488 0.25754 0.17427 -0.002236 7.7833e-05 -0.0014015 0.0010599
7.8682e-05 0.0011617 -0.00069472 0.00041326
0.00030208 0.0024124 -0.0022494 7.2691e-05 0.15395 -0.2444 0.0017841 0.00048585
-0.00021083 0.0024614 -0.0015999 0.00033859
-0.001063 -0.0031433 -0.0013968 0.0010865 0.0017875 0.00043564 0.20694 -0.095308
0.0015261 0.0095799 -0.0017309 -0.0020951
-0.0014937 0.00099908 0.00010372 0.0011734 -0.00018431 0.0024364 0.0015758 0.0096255
0.21674 0.10343 0.0060104 0.0032371
-0.00018869 -0.00013459 -0.0006818 0.00040721 -0.0016066 0.00036471 -0.001744 -0.0020974
0.0059887 0.0032942 0.26913 0.11067
1880000000 0.21651 -0.14321 0.0021805 0.00047691 -0.0002981 0.0022446 -0.0029876 -0.0022835
-0.000182 0.0020985 0.00026688 -0.00064628
0.0022066 0.00052979 0.26201 0.12852 -0.0039914 0.0028844 -0.00014893 0.0018146
0.00053594 0.0013828 0.00012515 0.0010138
-0.00027968 0.0022487 -0.0039838 0.0029215 0.10273 -0.25085 0.0019764 -0.0011785
0.0018131 0.0019302 -0.00090627 0.0015227
-0.0029621 -0.0022206 -0.00016216 0.0018642 0.0019373 -0.001134 0.1675 -0.13512
0.0036038 0.006719 -0.0024916 -0.00017603
-0.00015333 0.0021022 0.00055863 0.001367 0.0017847 0.0020005 0.0035884 0.0067572
0.22602 0.0767 0.0064558 0.0010307
0.00026371 -0.00074932 0.00012221 0.00095086 -0.00087101 0.0015673 -0.0026412 -9.1086e-05
0.006396 0.00094477 0.27094 0.07796
1940000000 0.1781 -0.17004 -6.5897e-05 -0.0010688 0.0017303 0.0018568 -0.0038095 0.0004397
0.001311 0.0010031 -0.00072137 -0.00054598
-6.1057e-05 -0.0010659 0.26392 0.096259 -0.0019277 0.0058504 0.0010589 0.0013566
0.001886 0.00031301 0.00092743 0.00025063
0.0017291 0.0018227 -0.0019193 0.0058338 0.060212 -0.24308 0.00026109 -0.0023416
0.0022432 0.00023215 0.00030489 0.0015373
-0.0037628 0.00051351 0.0010993 0.0013459 0.0002118 -0.0023431 0.11636 -0.16804
0.0032707 0.0041111 -0.0019488 0.0012655
0.0012578 0.0010267 0.0018994 0.00037947 0.0022238 0.00020418 0.0032787 0.0040037
0.23629 0.040037 0.0047818 -0.0035454
-0.00063146 -0.00056096 0.0010016 0.00020518 0.00033072 0.0015514 -0.0020031 0.0014399
0.0046857 -0.0036128 0.26307 0.041073
2000000000 0.13128 -0.18467 -0.0035576 0.0010353 0.0030994 0.001298 -0.0024036 0.0037075
0.0010237 0.00058322 -0.00065873 0.00057957
-0.0035749 0.001036 0.24939 0.061018 -0.00054124 0.0079841 0.0015776 0.00031888
0.00093722 -0.0011468 0.00045239 0.00013191
0.0030913 0.001341 -0.00042043 0.0079506 0.017644 -0.22884 -0.0016194 -0.0014096
0.0019988 -0.00094667 0.0016026 0.0014184
-0.0023209 0.0036313 0.0015653 0.00025005 -0.0017073 -0.001405 0.062023 -0.17863
0.001618 0.0026245 -0.00011543 0.0022822
0.0010137 0.00052501 0.00093211 -0.0012135 0.001917 -0.00096965 0.0016701 0.0026755
0.23675 0.0075731 0.00087986 -0.0044474
