!Keysight Technologies,M9804A,MY58100912,A.14.10.03
!Date: Thursday, April 27, 2023 10:28:33
!Correction: S11(C  6-Port  ) 
!S12(C  6-Port  ) 
!S13(C  6-Port  ) 
!S14(C  6-Port  ) 
!S15(C  6-Port  ) 
!S16(C  6-Port  ) 
!S21(C  6-Port  ) 
!S22(C  6-Port  ) 
!S23(C  6-Port  ) 
!S24(C  6-Port  ) 
!S25(C  6-Port  ) 
!S26(C  6-Port  ) 
!S31(C  6-Port  ) 
!S32(C  6-Port  ) 
!S33(C  6-Port  ) 
!S34(C  6-Port  ) 
!S35(C  6-Port  ) 
!S36(C  6-Port  ) 
!S41(C  6-Port  ) 
!S42(C  6-Port  ) 
!S43(C  6-Port  ) 
!S44(C  6-Port  ) 
!S45(C  6-Port  ) 
!S46(C  6-Port  ) 
!S51(C  6-Port  ) 
!S52(C  6-Port  ) 
!S53(C  6-Port  ) 
!S54(C  6-Port  ) 
!S55(C  6-Port  ) 
!S56(C  6-Port  ) 
!S61(C  6-Port  ) 
!S62(C  6-Port  ) 
!S63(C  6-Port  ) 
!S64(C  6-Port  ) 
!S65(C  6-Port  ) 
!S66(C  6-Port  ) 
!S6P File: Measurement: :
# Hz S  RI   R 50
500000000 -0.32677 -0.06553 -0.011 -0.00139 -0.0085769 0.012548 -0.0040643 0.012286
0.013095 0.0062444 -0.0044253 0.0092844
-0.010998 -0.0014055 -0.40835 -0.075723 0.0073882 -0.010323 0.00090715 0.012322
0.00944 0.0033988 0.0015097 0.014022
-0.0087114 0.012631 0.0073035 -0.010393 -0.25609 0.19409 0.0068078 0.0031123
-0.0021528 0.0081562 0.0012975 0.011298
-0.0036166 0.012305 0.0012136 0.012295 0.006824 0.0030933 -0.32786 0.040974
-0.022081 -0.0044294 0.015229 0.028116
0.013262 0.0060708 0.0097407 0.0032382 -0.0022565 0.0082849 -0.021904 -0.0045402
-0.1954 -0.2746 -0.03024 0.0057989
-0.0045083 0.0092637 0.0018302 0.014487 0.0013953 0.010976 0.016329 0.028174
-0.0315 0.0058848 -0.25198 -0.15437
560000000 -0.31383 0.10345 -0.022196 -0.066387 0.0004164 0.013636 0.0045941 0.01158
0.010631 0.0041477 0.012692 0.0096414
-0.021846 -0.065949 -0.36962 0.088955 -0.041291 -0.037929 0.014493 0.0035751
-0.015903 -0.0049181 0.0045852 -0.00052801
0.00019598 0.013799 -0.041411 -0.037961 -0.17972 0.24201 6.2331e-05 -0.0043197
0.017344 0.0065068 0.007776 -0.0062269
0.0044852 0.011866 0.01465 0.0037339 9.3789e-06 -0.0042978 -0.30542 0.13193
0.0082874 -0.02197 0.0047519 -0.021082
0.010421 0.0042451 -0.016016 -0.0061514 0.018652 0.0067944 0.0076026 -0.022022
-0.29939 -0.088392 0.013321 -0.051345
0.011867 0.0098868 0.0041082 4.5137e-05 0.0073967 -0.0058615 0.0046267 -0.021282
0.0136 -0.051539 -0.32665 -0.0057412
620000000 -0.27415 0.079288 -0.02386 0.0096579 0.0034352 0.0090968 0.0082034 -0.004864
0.012963 0.00083024 -3.4087e-05 -0.0020973
-0.023939 0.0098658 -0.3992 0.03369 -0.019028 0.00083035 -0.0015143 -0.0020091
0.013356 -0.0047005 0.00075971 -0.0035828
0.0034633 0.0086998 -0.019155 0.00085435 -0.15343 0.25136 -0.00088078 -0.0047915
-0.0037473 -0.0026096 0.0088835 -0.0028991
0.0086108 -0.0052659 -0.0014028 -0.0021608 -0.00085226 -0.0048216 -0.2625 0.14199
-0.041363 -0.020904 0.012885 0.030058
0.012026 0.0012031 0.013269 -0.0046761 -0.0035974 -0.0025248 -0.041129 -0.021608
-0.20596 -0.1308 -0.048078 0.012848
0.0013077 -0.0027738 0.0013029 -0.0034739 0.0086855 -0.0027096 0.013561 0.030777
-0.048488 0.012378 -0.24078 -0.04646
680000000 -0.24139 0.17379 -0.026122 -0.014477 0.0048566 0.0050862 0.0014884 -0.0070784
-0.0013333 -0.0111 0.0059609 -0.0067984
-0.026183 -0.014328 -0.38997 0.13725 -0.031902 -0.0015219 -0.0018528 -0.00066279
-0.00078742 -0.0097511 -0.00070181 -0.0016402
0.0049374 0.0052182 -0.031949 -0.001475 -0.10556 0.27509 -0.00080663 -0.00044036
-0.0010134 0.0004894 -0.0026518 -0.0091394
0.0014729 -0.0068741 -0.0017993 -0.00054607 -0.00080467 -0.00040042 -0.21902 0.19501
-0.023612 -0.0073805 -0.0081289 -0.01267
-0.0005782 -0.011381 -0.0005549 -0.0097238 -0.00097031 0.0004509 -0.023433 -0.0068652
-0.2903 -0.022852 -0.0051665 -0.0064893
0.0068259 -0.0063013 -0.00060944 -0.00165 -0.0026785 -0.009089 -0.009631 -0.012078
-0.0050548 -0.0066382 -0.26226 0.06084
740000000 -0.19449 0.16674 -0.040719 0.027069 0.013521 -0.0040035 0.00071028 -0.0044248
-0.0030955 -0.0021545 -0.0067085 0.0032574
-0.040721 0.027138 -0.33549 0.15647 -0.036751 0.033972 9.894e-05 -0.0062446
-0.01368 0.006915 -0.0016331 -0.0064009
0.013467 -0.0040386 -0.036572 0.034175 -0.071544 0.27453 -0.0019341 0.0028563
-0.0011918 -0.0061865 -0.0012275 0.00055254
0.00045723 -0.0042552 -5.5821e-05 -0.0061327 -0.0019367 0.0028414 -0.20203 0.20182
-0.043508 -0.010979 0.022757 0.018391
-0.0033669 -0.0017672 -0.013547 0.0064759 -0.00095614 -0.0060226 -0.043661 -0.010999
-0.18317 0.020576 -0.045316 -0.0023941
-0.0064912 0.0027893 -0.0014036 -0.0060168 -0.0014572 0.0004774 0.023005 0.017771
-0.046182 -0.002552 -0.2533 0.067528
800000000 -0.1666 0.21286 -0.021981 0.015948 0.0055622 -0.010312 -0.0040427 -0.0024357
-0.0043789 0.0009518 0.0044953 -0.00017914
-0.022058 0.015949 -0.34461 0.22783 -0.0082179 0.033972 -0.0022354 0.0020595
1.3426e-05 0.0014906 0.00046874 0.0052694
0.0054185 -0.010393 -0.0081527 0.034014 -0.03401 0.30043 0.00098099 0.0014553
-0.00014709 0.0029348 -0.0019477 0.00082715
-0.0040779 -0.0027161 -0.0022704 0.0020112 0.00096426 0.0014459 -0.1736 0.23044
-0.029316 0.013154 0.015161 -0.01037
-0.004315 0.00084373 -0.00016209 0.0015723 -0.0002482 0.0029895 -0.029466 0.013205
-0.24624 0.040227 -0.019149 0.022618
0.0042814 0.00024691 0.00050225 0.0054928 -0.0015909 0.0007111 0.015543 -0.0099276
-0.018921 0.02209 -0.254 0.11994
860000000 -0.131 0.23431 -0.01768 0.030424 -0.003112 -0.0098528 -0.002068 0.00023323
0.0039663 0.0051022 -0.0039923 -0.0028418
-0.017804 0.030306 -0.29675 0.27277 0.0078326 0.033865 0.00017009 0.0021543
0.003908 0.00043018 0.0031314 0.00043536
-0.003217 -0.00987 0.0079175 0.033835 0.015072 0.31045 -0.00046347 -0.00025043
0.0025955 -0.0016001 0.0013507 0.0039553
-0.0020717 0.00043027 0.00027125 0.00215 -0.00047087 -0.00024957 -0.13583 0.24103
-0.019352 0.01812 -0.0058952 -0.0099278
0.0041962 0.0049513 0.003822 0.00025196 0.0025783 -0.0015446 -0.019146 0.017883
-0.19071 0.11007 -0.02781 0.016035
-0.0039866 -0.0034985 0.0035793 0.00011317 0.0013534 0.0040767 -0.0064702 -0.0096992
-0.027513 0.01589 -0.20099 0.17048
920000000 -0.109 0.2569 0.0048579 0.039158 -0.0091345 -0.0044795 -0.0020189 0.0013783
-0.00010228 0.0017338 0.002916 -0.0014549
0.0047305 0.039106 -0.27093 0.29372 0.028038 0.022447 0.0013727 0.0011973
0.0075618 0.00056262 0.0037457 -0.0030122
-0.009165 -0.0044927 0.028127 0.022402 0.060774 0.31185 0.001849 5.3674e-05
0.00067767 -0.00019917 0.00059445 -0.0015096
-0.0020527 0.001342 0.0014389 0.0011949 0.0018695 2.8511e-05 -0.11215 0.25782
-0.013464 0.031544 0.0046447 -0.0067168
-0.00021523 0.0016075 0.0077461 -2.8671e-05 0.00057922 -0.00021509 -0.013109 0.03159
-0.18723 0.11146 -0.0034884 0.029681
0.003388 -0.0012829 0.0039587 -0.002829 0.00062676 -0.0014567 0.0048562 -0.0068363
-0.0036663 0.030201 -0.21419 0.18173
980000000 -0.062764 0.27999 0.016885 0.03016 -0.0091699 0.0045695 0.0014641 0.003734
0.003585 -0.001007 -0.00343 -0.002485
0.01678 0.030139 -0.2191 0.33255 0.032854 0.0049188 0.0020292 -0.00012021
0.0019369 -0.0060471 -0.00040619 -0.0026753
-0.0091698 0.0045966 0.03292 0.0048249 0.10741 0.30755 0.00051975 -0.0010997
0.00036815 -0.001639 0.0013366 -0.0003726
0.0016073 0.0037383 0.0020403 -0.00016427 0.00053512 -0.0010984 -0.073319 0.26965
0.0070682 0.032182 -0.0093575 -0.0087501
0.0037464 -0.0010487 0.0018563 -0.0059858 0.00035904 -0.0017266 0.0070312 0.032031
-0.15878 0.15486 0.0048393 0.022172
-0.0033506 -0.00255 -0.00033918 -0.0026944 0.0013252 -0.00032397 -0.0094961 -0.0083041
0.0053227 0.02152 -0.17337 0.23361
1040000000 -0.02128 0.28825 0.033178 0.019475 -0.001103 0.007264 0.0021632 0.00075507
0.00058676 -0.0031518 -6.5916e-05 -0.0014301
0.033044 0.019358 -0.18361 0.34623 0.029326 -0.014587 0.0015948 -0.0018631
-0.0023989 -0.0022697 -0.0011032 -0.0030488
-0.0011284 0.0072479 0.029317 -0.014695 0.15461 0.29362 -0.0005173 -0.0015172
-0.0016438 -0.001019 -0.00077566 -0.00093731
0.0022349 0.00092805 0.0016266 -0.0018006 -0.00051403 -0.0015299 -0.04566 0.27837
0.019231 0.020997 -0.001945 0.00080208
0.00033743 -0.002856 -0.0024942 -0.0020732 -0.0016636 -0.00098244 0.019387 0.020877
-0.12658 0.16358 0.013554 0.021503
-9.2006e-05 -0.0013841 -0.001128 -0.0030286 -0.00083004 -0.0011066 -0.0017977 0.00083772
0.013174 0.021652 -0.152 0.25435
1100000000 0.022356 0.29968 0.036619 -0.0032358 0.0032807 0.0040425 0.0023441 -0.00086734
-0.0020773 -0.0030917 -0.0041848 -2.291e-05
0.03655 -0.0032115 -0.1413 0.367 0.015031 -0.027551 -0.00013246 -0.0019072
-0.0033282 -0.0013758 -0.0039232 -0.0005314
0.0033015 0.00405 0.014956 -0.027631 0.20037 0.27429 -0.0018443 0.00024371
-0.0018277 0.00075589 -0.0010391 -0.00036198
0.0023125 -0.00082299 -0.00016589 -0.001865 -0.0018477 0.00025292 -0.006055 0.28373
0.026183 0.0078711 -0.0025584 -0.0007006
-0.0020669 -0.0032009 -0.0034316 -0.0012955 -0.0017703 0.00073751 0.026229 0.0076947
-0.1108 0.18333 0.019852 0.011243
-0.0042316 8.3094e-05 -0.0039797 -0.00048639 -0.0010414 -0.00037567 -0.0025603 -0.00082277
0.02018 0.011472 -0.10859 0.2897
1160000000 0.07466 0.29682 0.024707 -0.020218 0.003202 -0.00059421 -5.7605e-05 -0.0024129
-0.0040221 -0.001166 -0.0012219 0.0043188
0.024722 -0.020204 -0.096031 0.37242 -0.0038396 -0.028403 -0.0015829 -0.0015544
-0.0028695 0.0026686 -0.0016686 0.0021008
0.0031556 -0.00062061 -0.0039585 -0.028439 0.24491 0.24387 -0.00071861 0.0016971
-0.00051494 0.00196 -0.00087395 0.00045154
-1.5752e-05 -0.0022884 -0.0016002 -0.001606 -0.0007204 0.0016902 0.034259 0.28063
0.023989 -0.0098828 -0.0042415 0.0049477
-0.0040191 -0.00098209 -0.002951 0.0027252 -0.00061114 0.0019867 0.024011 -0.0098084
-0.073872 0.19716 0.020264 0.0020657
-0.0011176 0.0044516 -0.0017255 0.0020917 -0.0008802 0.00041801 -0.0040741 0.0050273
0.019728 0.001926 -0.059599 0.29323
1220000000 0.11783 0.2874 0.011691 -0.030039 -0.001217 -0.0012025 0.0003179 -0.0010159
-0.0027604 0.0021583 0.0012068 0.0020603
0.01171 -0.030009 -0.052499 0.38667 -0.0168 -0.020774 -0.0025444 0.00045227
-0.0001173 0.003133 -0.00083957 0.0020499
-0.0012445 -0.0011971 -0.016926 -0.020718 0.28378 0.20459 0.00086304 0.0016197
0.00052302 0.0013067 0.00028135 0.00060256
0.00027077 -0.0010164 -0.0025541 0.00050153 0.00086401 0.0016162 0.073186 0.27168
0.013075 -0.017689 0.0016395 0.0014597
-0.0027948 0.0021381 -0.00011185 0.0031187 0.00053679 0.0013 0.012917 -0.017681
-0.054325 0.20991 0.015972 -0.012294
0.0011648 0.0021 -0.00079839 0.0020866 0.00028551 0.00059634 0.0018106 0.0014768
0.016118 -0.012274 -0.031164 0.3134
1280000000 0.16887 0.26917 -0.0072475 -0.029023 -0.0017768 0.0019774 -0.0009011 -0.0021904
-0.0010812 0.0032199 0.002586 0.0014447
-0.0072165 -0.029016 -0.0053914 0.37985 -0.023681 -0.0078007 -0.00088355 0.0015123
0.0017386 0.0021669 0.00067488 0.0020876
-0.001775 0.0020008 -0.023729 -0.0077018 0.31488 0.16198 0.0015535 -4.131e-05
0.0011683 0.00032115 0.00029164 0.00027444
-0.0008327 -0.0022489 -0.00088639 0.001454 0.0015494 -2.2735e-05 0.10993 0.25596
0.0030276 -0.021094 -0.00077769 0.00024786
-0.0010311 0.0032325 0.0017462 0.0021002 0.0012091 0.00033503 0.0029288 -0.021263
-0.017757 0.22037 0.0043296 -0.015388
0.0024842 0.0014353 0.00063746 0.0020907 0.00026785 0.00016077 -0.0007673 0.00032439
0.0043697 -0.015792 0.018065 0.31853
1340000000 0.20708 0.23594 -0.016905 -0.01956 0.00065243 0.0041853 -0.0018972 -0.00098825
0.0014551 0.00299 0.0020558 -0.0015008
-0.01689 -0.019602 0.0349 0.37236 -0.020682 0.004839 -0.00024867 0.0020382
0.0020475 0.0010288 0.0012745 0.00076409
0.00063164 0.0041423 -0.020707 0.0049432 0.33793 0.11312 0.00098188 -0.00091777
0.00076225 -0.00064327 0.00011372 0.00035185
-0.0019012 -0.00094577 -0.00018883 0.0020504 0.0010006 -0.00092039 0.14297 0.23468
-0.0077957 -0.018877 0.00066439 0.00072101
0.0014815 0.0030274 0.0020093 0.0010414 0.00075064 -0.00061466 -0.0077339 -0.018868
0.011011 0.21875 -0.002582 -0.014781
0.001919 -0.0014417 0.0012505 0.00084502 0.00016364 0.00031506 0.00081653 0.00071728
-0.0024753 -0.014468 0.056676 0.31553
1400000000 0.24111 0.19981 -0.023412 -0.0083018 0.004887 0.0028925 -0.0023516 0.00083267
0.0026656 0.001128 0.00049423 -0.0013329
-0.023371 -0.0082862 0.072659 0.36104 -0.013859 0.012635 0.0014305 0.0013996
0.0013221 -0.00054886 0.0012136 0.00025723
0.0049126 0.0028778 -0.013822 0.012687 0.35094 0.059459 -2.7386e-06 -0.0015163
0.00020881 -0.00013643 0.00037066 0.00031712
-0.0023405 0.00075057 0.0013679 0.0013926 8.5661e-06 -0.0014911 0.17155 0.20616
-0.015018 -0.012178 -0.001085 6.8134e-05
0.0026398 0.0011816 0.0013315 -0.00059986 0.00020521 -0.00024153 -0.015099 -0.012124
0.044509 0.22149 -0.0096163 -0.0095694
0.00035842 -0.0013958 0.0011744 0.00016812 0.00035914 0.0002612 -0.001062 3.726e-05
-0.0097632 -0.0097253 0.10203 0.30774
1460000000 0.26619 0.15673 -0.020467 0.0042282 0.005217 -0.0018011 -0.001658 0.0018529
0.0022843 -8.9563e-05 -0.00014381 -0.0010038
-0.020504 0.0042208 0.10872 0.33965 -0.0048974 0.014991 0.0017293 0.0002689
0.00132 -0.0015286 0.001273 -0.00062623
0.0051969 -0.0018196 -0.004796 0.015036 0.35772 0.0043958 -0.0011799 -0.0012629
0.00026187 -0.00024544 0.00065528 -0.0002499
-0.001638 0.0019013 0.0017698 0.00018814 -0.0011657 -0.0012412 0.19842 0.17735
-0.016971 -0.0048871 -0.00091801 0.0025859
0.0022481 -8.7213e-05 0.0012463 -0.0014614 0.0002829 -0.00026026 -0.017034 -0.0049462
0.075355 0.21215 -0.012115 -0.0033274
-7.8825e-05 -0.0010306 0.0012309 -0.00057307 0.00068979 -0.00031805 -0.00094713 0.0025462
-0.012186 -0.0032639 0.13653 0.28815
1520000000 0.27901 0.11469 -0.015103 0.0098037 0.0031132 -0.0040804 0.00024979 0.0028383
0.0028229 -0.0017735 -0.0011068 -0.0002623
-0.015132 0.0097569 0.14292 0.32506 0.0024401 0.012038 0.0017619 -0.00079296
0.00023338 -0.0010759 0.00037007 -0.00090835
0.0030829 -0.0040876 0.0025123 0.012059 0.34973 -0.053828 -0.00091638 -0.00031861
0.00076866 -0.0010943 0.00017917 -6.9737e-05
0.00026123 0.002858 0.0017634 -0.00076363 -0.00093073 -0.00032763 0.22094 0.13896
-0.017285 0.0017439 0.0016238 0.0024205
0.0028455 -0.0017663 0.00021779 -0.0010919 0.00078396 -0.0010844 -0.017265 0.0018197
0.10301 0.204 -0.012088 0.0011034
-0.0011679 -0.0003408 0.00036559 -0.00098423 0.00020615 -7.0535e-05 0.0016966 0.0024309
-0.012127 0.0011609 0.17035 0.2703
1580000000 0.28956 0.069659 -0.0086234 0.013336 -0.0012117 -0.0046137 0.0017308 0.00195
0.0001236 -0.0024089 -0.0003264 0.0003581
-0.0085981 0.013316 0.17107 0.30125 0.0055129 0.0068948 0.00061409 -0.0016464
-0.00050994 -0.0012668 -0.00021037 -0.00076367
-0.0012209 -0.0046472 0.0055851 0.0068548 0.32816 -0.11008 -0.0015057 0.00038796
-0.00038293 -0.0013756 0.0002472 -0.00052658
0.0017473 0.0019424 0.00054431 -0.0016714 -0.0015045 0.00038312 0.23472 0.10076
-0.013571 0.0079608 0.0026591 0.0010478
6.8579e-06 -0.0023486 -0.00052736 -0.0012318 -0.00043026 -0.0013832 -0.013567 0.0079753
0.1303 0.19196 -0.0096019 0.0078404
-0.00030674 0.00038783 -0.00019388 -0.00070941 0.00024031 -0.00061375 0.0026091 0.0010446
-0.0096114 0.0079276 0.20477 0.24627
1640000000 0.29306 0.027759 -0.0017248 0.012248 -0.0028504 -0.0022979 0.0029519 0.00084968
-0.00043482 -0.0021073 -0.00042459 0.00044361
-0.0017342 0.012235 0.20208 0.27582 0.0054348 0.0019965 -0.0006066 -0.0019141
-0.0010129 -0.00055801 -0.00038989 -0.0007326
-0.002869 -0.0022866 0.0054677 0.0019812 0.29896 -0.15985 -0.00073522 0.0013252
-0.001226 -0.0011571 -0.00012654 -0.00052315
0.0029287 0.00082739 -0.00059446 -0.00193 -0.00074758 0.0013379 0.24759 0.051741
-0.0091816 0.0098602 0.0029549 -0.00070173
-0.00045984 -0.0021713 -0.0010292 -0.00055923 -0.0012232 -0.001192 -0.0091813 0.0098837
0.15525 0.17288 -0.004316 0.0099862
-0.00042291 0.00049911 -0.0004197 -0.00077368 -0.00015477 -0.00052873 0.0029553 -0.00071613
-0.0043315 0.010063 0.23215 0.21562
1700000000 0.28574 -0.01697 0.0017639 0.0096284 -0.0035361 0.00041127 0.0030389 -0.0014451
-0.002365 -0.00098653 0.00058727 0.00037332
0.0017476 0.0096255 0.21986 0.2446 0.0027444 -0.00063355 -0.0015383 -0.00069904
-0.0008936 -0.00013114 -0.00089135 -0.00052081
-0.0035041 0.00043575 0.0027608 -0.00065349 0.25383 -0.19799 0.000211 0.0016012
-0.0024098 -0.00010447 -0.0004086 -0.00091637
0.00306 -0.0014685 -0.0015603 -0.00066471 0.00019699 0.0016094 0.24393 0.0027956
-0.0057163 0.011399 0.0020267 -0.002176
-0.0023956 -0.00097171 -0.00088564 -8.9933e-05 -0.0023921 -4.5764e-05 -0.0057371 0.011442
0.17586 0.15817 0.00067477 0.010039
0.00060437 0.00044304 -0.00083422 -0.00050721 -0.00042594 -0.00089017 0.0019733 -0.0022557
0.00059482 0.010014 0.24989 0.18295
1760000000 0.27553 -0.065465 0.0042548 0.0063518 -0.0019803 0.0012639 0.0011765 -0.0036237
-0.0014885 0.00050656 0.00018785 -0.00063677
0.0042332 0.006367 0.24755 0.20506 5.9156e-05 -0.0019045 -0.0012935 0.00013903
-0.0011743 0.0010525 -0.00052955 0.00030901
-0.002011 0.0012917 5.2144e-05 -0.0019201 0.20566 -0.22972 0.0011532 0.001342
-0.0011534 0.0016256 -0.0012641 -0.00053665
0.0011287 -0.0035848 -0.0012947 0.00013898 0.0011507 0.0012841 0.23681 -0.047753
-0.001232 0.011021 9.6487e-05 -0.0027958
-0.0014948 0.00052836 -0.0011485 0.0010525 -0.0011869 0.0016605 -0.0011995 0.011043
0.19506 0.12865 0.0049584 0.0073618
0.00022176 -0.00056922 -0.00055942 0.00034571 -0.0012517 -0.00047916 0.00018321 -0.002745
0.0049924 0.0073286 0.26489 0.14627
1820000000 0.25123 -0.10367 0.0044832 0.0027721 0.00029925 0.0025241 -0.0010895 -0.0031111
-0.00154 0.0010006 -0.00015519 -0.00017505
0.0044763 0.0027997 0.25757 0.17423 -0.0022472 5.9233e-05 -0.0013965 0.0010455
4.7161e-05 0.0011804 -0.00069178 0.00039236
0.00029321 0.0024392 -0.0022673 8.1063e-05 0.15399 -0.24441 0.001814 0.00049319
-0.00015646 0.0024295 -0.0016719 0.00027397
-0.0011161 -0.003141 -0.0013798 0.0010796 0.001789 0.00048578 0.20728 -0.095915
0.0014694 0.0095325 -0.0017107 -0.0021097
-0.0015544 0.00096505 8.91e-05 0.00117 -0.00015538 0.0023451 0.0014801 0.0094897
0.21715 0.10294 0.0059791 0.0032463
-0.00017132 -0.00015021 -0.00068202 0.00040986 -0.0016983 0.00040452 -0.0017514 -0.002119
0.0060018 0.0032846 0.26923 0.11037
1880000000 0.21643 -0.14342 0.0022023 0.00050401 -0.00027555 0.0021869 -0.0030102 -0.0022386
-0.00022272 0.0020247 0.00022761 -0.00070262
0.0021892 0.00049625 0.26204 0.12843 -0.0039971 0.0028609 -0.00017329 0.0018307
0.00048264 0.001315 7.6605e-05 0.00099248
-0.0002453 0.0021971 -0.003995 0.0029253 0.1028 -0.25102 0.0020166 -0.0011362
0.0017193 0.0018944 -0.00097316 0.0015195
-0.002983 -0.0021985 -0.00015711 0.0018097 0.0019944 -0.0011245 0.16743 -0.13564
0.0033685 0.0065981 -0.0025517 -8.911e-05
-0.00017823 0.002033 0.00054494 0.0013407 0.0017591 0.0019368 0.0033845 0.0067264
0.22642 0.076053 0.0064256 0.0010376
0.0002493 -0.00069614 0.00014989 0.0010111 -0.00090749 0.0015352 -0.0025187 -5.5409e-05
0.0064043 0.0010884 0.27109 0.077686
1940000000 0.17808 -0.17024 -7.1887e-05 -0.0010478 0.0017096 0.0018831 -0.0037433 0.00041401
0.0012117 0.00097774 -0.00063324 -0.0005171
-7.9761e-05 -0.0010652 0.26392 0.096211 -0.001899 0.0058827 0.0010425 0.0012892
0.0018918 0.00031232 0.00095189 0.00029181
0.0017468 0.0018959 -0.0019011 0.0058903 0.060188 -0.24307 0.00018921 -0.0022552
0.0022428 0.00022498 0.00047526 0.0015871
-0.0037902 0.0005288 0.0011109 0.0013043 0.00024823 -0.0022546 0.11615 -0.16845
0.0033739 0.004088 -0.0017826 0.0013576
0.0012822 0.00098991 0.0019048 0.00028407 0.0022545 0.0002679 0.0033158 0.0040655
0.23677 0.039517 0.0049082 -0.0035343
-0.00071321 -0.00055132 0.00095065 0.00030446 0.00038487 0.0016535 -0.0017017 0.0013347
0.0048452 -0.0035661 0.26301 0.040834
2000000000 0.13107 -0.18477 -0.0036195 0.0010462 0.0030037 0.0013463 -0.0024438 0.0037488
0.00096911 0.00051389 -0.00076382 0.00053101
-0.003598 0.0010516 0.24933 0.060979 -0.00058546 0.0079841 0.0015579 0.00025879
0.0010064 -0.0012396 0.00036028 0.00011478
0.003037 0.0013195 -0.00053877 0.0079982 0.017575 -0.22876 -0.0015918 -0.001428
0.0020135 -0.00098685 0.0015972 0.0015218
-0.0023066 0.0036733 0.0015273 0.00029334 -0.0016583 -0.0013775 0.061523 -0.17894
0.0014208 0.0025952 -0.00028441 0.0023427
0.00098629 0.00053483 0.00092887 -0.0012039 0.001893 -0.00093587 0.0015531 0.0026533
0.23695 0.0070657 0.00081046 -0.0044222
-0.00069156 0.00062832 0.00040989 0.00014164 0.0016714 0.0014851 -0.00028975 0.0021861
