!Keysight Technologies,M9804A,MY58100912,A.14.10.03
!Date: Thursday, April 27, 2023 10:28:33
!Correction: S11(C  6-Port  ) 
!S12(C  6-Port  ) 
!S13(C  6-Port  ) 
!S14(C  6-Port  ) 
!S15(C  6-Port  ) 
!S16(C  6-Port  ) 
!S21(C  6-Port  ) 
!S22(C  6-Port  ) 
!S23(C  6-Port  ) 
!S24(C  6-Port  ) 
!S25(C  6-Port  ) 
!S26(C  6-Port  ) 
!S31(C  6-Port  ) 
!S32(C  6-Port  ) 
!S33(C  6-Port  ) 
!S34(C  6-Port  ) 
!S35(C  6-Port  ) 
!S36(C  6-Port  ) 
!S41(C  6-Port  ) 
!S42(C  6-Port  ) 
!S43(C  6-Port  ) 
!S44(C  6-Port  ) 
!S45(C  6-Port  ) 
!S46(C  6-Port  ) 
!S51(C  6-Port  ) 
!S52(C  6-Port  ) 
!S53(C  6-Port  ) 
!S54(C  6-Port  ) 
!S55(C  6-Port  ) 
!S56(C  6-Port  ) 
!S61(C  6-Port  ) 
!S62(C  6-Port  ) 
!S63(C  6-Port  ) 
!S64(C  6-Port  ) 
!S65(C  6-Port  ) 
!S66(C  6-Port  ) 
!S6P File: Measurement: :
# Hz S  RI   R 50
500000000 -0.32596 -0.063873 -0.011135 -0.0012438 -0.0091659 0.012737 -0.0038693 0.01259
0.01385 0.0063257 -0.0046168 0.0088959
-0.010813 -0.0012977 -0.40913 -0.074366 0.0074585 -0.01002 0.00085744 0.012325
0.0093956 0.0032032 0.0012917 0.014172
-0.009151 0.012703 0.007369 -0.010075 -0.25562 0.19422 0.0070066 0.0030552
-0.0026519 0.0080993 0.001478 0.01084
-0.0037255 0.012464 0.00094427 0.012109 0.0069999 0.0030803 -0.32744 0.042028
-0.022595 -0.0043771 0.016436 0.028595
0.013815 0.0065144 0.009425 0.0033052 -0.0026307 0.0081036 -0.022615 -0.0043885
-0.1961 -0.27029 -0.031989 0.0060922
-0.0045191 0.0086919 0.0014255 0.013825 0.0014468 0.010869 0.016384 0.028439
-0.031989 0.0061956 -0.25147 -0.15232
560000000 -0.31421 0.104 -0.022737 -0.066057 0.00031317 0.013506 0.0048591 0.011884
0.011263 0.0047238 0.011508 0.010005
-0.022379 -0.066024 -0.36957 0.08957 -0.041047 -0.037875 0.013649 0.00318
-0.015141 -0.0066692 0.0044419 0.00042644
0.00040039 0.013491 -0.041108 -0.037792 -0.18012 0.24321 0.00020091 -0.0045901
0.018101 0.0071706 0.0071728 -0.0061213
0.0049835 0.01179 0.013765 0.0030058 0.00020734 -0.0046126 -0.30507 0.13177
0.0075456 -0.022236 0.0050656 -0.021136
0.011164 0.0046961 -0.015583 -0.0068676 0.018085 0.0071255 0.0075685 -0.022305
-0.29757 -0.083711 0.012509 -0.052574
0.011421 0.010115 0.0040547 0.00038916 0.0072512 -0.0060999 0.0049698 -0.02115
0.012481 -0.05249 -0.32755 -0.0041173
620000000 -0.27437 0.079788 -0.023889 0.0096221 0.0037201 0.0088659 0.0082755 -0.0049826
0.012766 0.0015686 0.001031 -0.0025116
-0.023882 0.0096475 -0.39924 0.03443 -0.01914 0.00094171 -0.0013886 -0.0021713
0.012944 -0.0047508 0.0010051 -0.0031459
0.0037333 0.008786 -0.019195 0.00099695 -0.1531 0.25194 -0.00098002 -0.0051912
-0.0038483 -0.0021376 0.0086647 -0.0024496
0.008232 -0.0050483 -0.001435 -0.0022069 -0.0010239 -0.0052062 -0.26197 0.14177
-0.039974 -0.021237 0.014189 0.029598
0.012711 0.0016748 0.012906 -0.0047014 -0.003827 -0.0021561 -0.039985 -0.021101
-0.20837 -0.12396 -0.048398 0.01303
0.00079238 -0.0026149 0.00096376 -0.0030621 0.008748 -0.0024289 0.014209 0.02968
-0.048373 0.012938 -0.24098 -0.042102
680000000 -0.2409 0.17442 -0.025941 -0.014154 0.0050176 0.0052405 0.0015675 -0.0070919
-0.0012803 -0.011171 0.0064259 -0.0060171
-0.025963 -0.014216 -0.3899 0.13811 -0.031942 -0.0014012 -0.0018962 -0.00065402
-0.00073994 -0.0096341 -0.00070273 -0.0017338
0.004965 0.0052185 -0.031968 -0.0013217 -0.10553 0.27515 -0.00086124 -0.00036712
-0.0011221 0.00066529 -0.0025246 -0.0091306
0.0015547 -0.0071301 -0.0018096 -0.00071744 -0.00085661 -0.00040292 -0.21872 0.19507
-0.023146 -0.0067569 -0.0094099 -0.012139
-0.001361 -0.011117 -0.00092511 -0.0096556 -0.0011421 0.00068717 -0.023134 -0.0067038
-0.28965 -0.019683 -0.0045694 -0.0064689
0.0063763 -0.0058954 -0.0007588 -0.0017726 -0.0025425 -0.0091056 -0.0094663 -0.012186
-0.0045293 -0.0064829 -0.26142 0.064006
740000000 -0.19384 0.16728 -0.040422 0.026869 0.013707 -0.003685 0.00055214 -0.0041086
-0.0044578 -0.0014887 -0.0059254 0.0033613
-0.040495 0.026812 -0.33532 0.15687 -0.036627 0.034092 0.00013506 -0.0066931
-0.01378 0.0063411 -0.001401 -0.0064675
0.0137 -0.0037416 -0.036501 0.034202 -0.071656 0.27455 -0.0017451 0.003043
-0.00094795 -0.0059211 -0.0011752 0.0005497
0.00053761 -0.0041549 0.00018527 -0.0067766 -0.0017356 0.0030591 -0.20124 0.20158
-0.043891 -0.010968 0.022993 0.017694
-0.0045554 -0.0014957 -0.013852 0.0062448 -0.00096346 -0.0059655 -0.043879 -0.0109
-0.18202 0.023534 -0.046175 -0.0022683
-0.0058865 0.0033578 -0.0013846 -0.0064718 -0.0011461 0.00054955 0.023019 0.017623
-0.046104 -0.0023298 -0.25332 0.067125
800000000 -0.16641 0.21339 -0.022003 0.015912 0.0054414 -0.010261 -0.0040455 -0.0025478
-0.0044463 0.00087792 0.0045129 0.00043999
-0.022057 0.016026 -0.34437 0.22828 -0.0081993 0.034008 -0.0022886 0.0020941
6.3214e-05 0.001755 0.00050196 0.0054949
0.0055015 -0.01028 -0.0081219 0.03398 -0.034019 0.30062 0.00089773 0.0014563
-0.00021644 0.0028915 -0.0015164 0.0005986
-0.0039942 -0.0024718 -0.0023058 0.0021384 0.00089024 0.0014587 -0.17325 0.2303
-0.029231 0.012876 0.015547 -0.0099547
-0.0043439 0.0010018 0.00015097 0.0016984 -0.00022097 0.0029035 -0.029242 0.012947
-0.24486 0.043335 -0.019032 0.021456
0.0044991 0.00046065 0.00052517 0.0054341 -0.0015201 0.0006 0.015528 -0.010018
-0.019043 0.021414 -0.25193 0.12153
860000000 -0.1306 0.23487 -0.01781 0.030409 -0.0032567 -0.01 -0.0021913 0.00038032
0.0040383 0.0054052 -0.0038958 -0.0032654
-0.01784 0.030389 -0.29652 0.27321 0.0078091 0.033757 5.4645e-05 0.0021621
0.0038069 0.00021876 0.0037035 0.00015486
-0.0032842 -0.0099478 0.0079215 0.033749 0.015084 0.31054 -0.00062002 -0.00029439
0.0026516 -0.0018003 0.0015023 0.0042724
-0.0021817 0.00028419 7.8516e-05 0.0022402 -0.00062323 -0.00032247 -0.13555 0.24089
-0.018967 0.017598 -0.0066811 -0.0094584
0.004073 0.0053661 0.0038922 0.00022006 0.0026491 -0.00178 -0.018978 0.017634
-0.18864 0.11267 -0.027156 0.015695
-0.0039781 -0.0032725 0.0037171 3.7247e-05 0.0014855 0.004296 -0.006762 -0.0094355
-0.027161 0.015632 -0.20119 0.17225
920000000 -0.10852 0.25774 0.0048692 0.039254 -0.0091776 -0.0043851 -0.0019788 0.0013759
-0.00016522 0.0014585 0.0031487 -0.0013232
0.0048161 0.039158 -0.27056 0.29434 0.028094 0.022425 0.0012949 0.0010897
0.007646 -0.00025041 0.0038615 -0.0029457
-0.0092186 -0.0043679 0.028185 0.02237 0.060851 0.31203 0.0017788 -0.00010143
0.00060684 -0.00020766 0.00077435 -0.0015279
-0.0019248 0.0014023 0.001302 0.0011706 0.0017883 -8.7232e-05 -0.11222 0.25737
-0.0133 0.031314 0.0047637 -0.0067715
-0.00018066 0.0013924 0.007719 -0.00028024 0.00059418 -0.00021001 -0.013244 0.031345
-0.18551 0.11341 -0.002884 0.029537
0.0031403 -0.0013857 0.0038385 -0.0029287 0.00077747 -0.0015443 0.004733 -0.0067927
-0.0029351 0.029529 -0.21373 0.18196
980000000 -0.062278 0.28036 0.016876 0.030235 -0.0091947 0.0046749 0.0016851 0.0038016
0.0037903 -0.0010889 -0.0032768 -0.0027705
0.016801 0.030203 -0.21879 0.33302 0.032804 0.0048407 0.0020968 -9.2435e-05
0.0019017 -0.0058734 -0.00037156 -0.0027233
-0.0091655 0.0046926 0.032851 0.0047255 0.10753 0.30766 0.00049103 -0.0010774
0.00029539 -0.0016398 0.0012602 -0.00025195
0.0015945 0.003746 0.0021009 -4.4045e-05 0.00049519 -0.0010847 -0.073165 0.26955
0.0070353 0.031559 -0.0095312 -0.0083666
0.0038294 -0.0010958 0.0018267 -0.0059027 0.00029213 -0.0016448 0.0071127 0.031548
-0.15673 0.15619 0.0048339 0.021263
-0.0032686 -0.0027005 -0.00034395 -0.0027469 0.001274 -0.00024743 -0.0095079 -0.0083503
0.0048308 0.021225 -0.17216 0.23433
1040000000 -0.020616 0.28853 0.033076 0.019391 -0.0011319 0.0073484 0.0022181 0.00083973
0.00028527 -0.0030321 -0.0001497 -0.0014568
0.033016 0.019386 -0.18332 0.34647 0.029281 -0.0146 0.0015197 -0.0018057
-0.002493 -0.0022234 -0.0011167 -0.0031051
-0.0011017 0.0073286 0.029237 -0.014721 0.15468 0.29374 -0.00054661 -0.0014642
-0.0015862 -0.00096292 -0.00076554 -0.0010394
0.0022134 0.00074687 0.0015363 -0.0018345 -0.00054078 -0.0014744 -0.045756 0.27811
0.019076 0.020821 -0.0018763 0.00082553
0.00029559 -0.003056 -0.0025154 -0.0022225 -0.0015809 -0.00095852 0.01911 0.020824
-0.12468 0.16523 0.013212 0.021395
-0.00022152 -0.0014984 -0.0011714 -0.0031797 -0.00076871 -0.0010464 -0.0018764 0.00081053
0.013195 0.021406 -0.15131 0.25488
1100000000 0.022855 0.30002 0.036533 -0.0033247 0.003326 0.0040691 0.0024099 -0.00082827
-0.002205 -0.003091 -0.0042038 -7.6745e-05
0.036466 -0.0032945 -0.14095 0.36719 0.014973 -0.027604 -9.7324e-05 -0.0019036
-0.0034804 -0.0012244 -0.0039661 -0.00055404
0.0033128 0.0040469 0.01487 -0.02767 0.20052 0.27445 -0.0017818 0.00023714
-0.001753 0.00069337 -0.0011206 -0.00038085
0.002423 -0.00080307 -7.8854e-05 -0.0018846 -0.0017903 0.00023761 -0.0062491 0.28355
0.025819 0.0076028 -0.0026478 -0.00061749
-0.0022174 -0.0030831 -0.0034878 -0.0012084 -0.0017626 0.00069327 0.025854 0.0075647
-0.10828 0.18458 0.019706 0.011199
-0.0041683 -3.7238e-05 -0.0039212 -0.00056043 -0.0011116 -0.00038359 -0.0026564 -0.00059089
0.019696 0.011207 -0.1078 0.28942
1160000000 0.075249 0.2968 0.024655 -0.020279 0.0031081 -0.00065489 -6.5222e-05 -0.0022513
-0.0040952 -0.00095685 -0.0012174 0.0044797
0.024636 -0.02026 -0.095561 0.37269 -0.004006 -0.028505 -0.0016212 -0.0014397
-0.0029931 0.0027048 -0.0016268 0.0020903
0.003121 -0.0006631 -0.004156 -0.028498 0.24505 0.24394 -0.00064645 0.0016461
-0.0004254 0.0019411 -0.00088703 0.00052011
-5.9221e-05 -0.0023089 -0.0017195 -0.0014677 -0.00065298 0.0016354 0.034024 0.28058
0.023494 -0.0096349 -0.0040548 0.0050782
-0.0040806 -0.00093484 -0.0029683 0.0027503 -0.00042686 0.001952 0.02349 -0.0096564
-0.072382 0.1982 0.019842 0.0020202
-0.0012303 0.0044864 -0.0016082 0.0022336 -0.0008759 0.0005552 -0.0040544 0.0050483
0.019866 0.0020233 -0.058688 0.29333
1220000000 0.11846 0.28745 0.011592 -0.030005 -0.0012234 -0.0011387 0.00021872 -0.001029
-0.0027683 0.0022167 0.0011949 0.0020814
0.011604 -0.029976 -0.052136 0.38679 -0.016872 -0.020664 -0.0025521 0.00048435
-0.00011994 0.0031209 -0.00081769 0.0020744
-0.0012202 -0.0011273 -0.016989 -0.020606 0.28392 0.20468 0.00090755 0.0016376
0.00050886 0.0011943 0.0002891 0.00061283
0.00024501 -0.0010214 -0.0025066 0.00050589 0.00090631 0.0016331 0.07281 0.27175
0.012664 -0.017241 0.0018939 0.0015275
-0.002775 0.0022181 -8.8338e-05 0.0031611 0.00049756 0.0011823 0.012653 -0.017255
-0.05246 0.21075 0.015869 -0.0123
0.0012235 0.002063 -0.00084053 0.0020643 0.0002968 0.0006148 0.0018996 0.0015255
0.015871 -0.012298 -0.030356 0.31316
1280000000 0.16936 0.26905 -0.0072967 -0.028928 -0.0017017 0.0019306 -0.00095114 -0.0022204
-0.001032 0.0031955 0.0025266 0.0014823
-0.0072614 -0.028884 -0.0048691 0.37999 -0.023759 -0.0076932 -0.00087929 0.0014449
0.0017766 0.0019836 0.00065819 0.0020834
-0.0016744 0.0019607 -0.023796 -0.0076087 0.31494 0.16191 0.0014917 -6.4224e-05
0.0011954 0.00036827 0.00025347 0.000201
-0.00096498 -0.0022329 -0.00092029 0.0014863 0.0014938 -7.1202e-05 0.10956 0.25626
0.0028648 -0.020663 -0.00059831 0.0002896
-0.00099435 0.0032252 0.001815 0.0019666 0.0011986 0.00036223 0.0028254 -0.020665
-0.015843 0.22056 0.0040493 -0.015445
0.0025463 0.0014687 0.00071682 0.0020895 0.00024663 0.00019983 -0.00059878 0.00029172
0.0040792 -0.015468 0.018987 0.31896
1340000000 0.20748 0.23562 -0.016944 -0.019531 0.00061989 0.0042219 -0.0019336 -0.00089622
0.0014616 0.003044 0.0018735 -0.0014532
-0.016924 -0.019542 0.0353 0.37237 -0.020644 0.0048617 -0.00020473 0.0020543
0.0020074 0.0010285 0.0012671 0.00082485
0.00063485 0.0042314 -0.020635 0.004974 0.33813 0.11317 0.0009161 -0.0009475
0.00077379 -0.00057867 0.00016078 0.00028294
-0.001916 -0.00090442 -0.00020229 0.0020404 0.00092747 -0.00095224 0.14275 0.23512
-0.0075867 -0.018383 0.00088262 0.00069661
0.0014747 0.0030545 0.0020216 0.0010062 0.00076664 -0.00058221 -0.0076245 -0.018389
0.013302 0.21978 -0.0024438 -0.014404
0.0018613 -0.0014669 0.0012855 0.00083692 0.00016703 0.00027082 0.00086013 0.00068992
-0.0024373 -0.014399 0.057304 0.31528
1400000000 0.24132 0.19961 -0.023416 -0.0082351 0.0049206 0.0029262 -0.0023034 0.00077007
0.0025845 0.0011076 0.00037483 -0.0014609
-0.023341 -0.0082441 0.073039 0.36098 -0.013833 0.012642 0.0013786 0.0013621
0.0012959 -0.0005998 0.0011119 0.00018547
0.0049236 0.0028956 -0.013792 0.012728 0.35105 0.059364 1.6384e-05 -0.0014465
0.0001957 -0.00020503 0.00041289 0.00015547
-0.0022871 0.00078663 0.0013978 0.0013599 1.8035e-05 -0.0014565 0.17144 0.2068
-0.014729 -0.011727 -0.001014 -7.3023e-05
0.0025775 0.0010419 0.0012865 -0.00061399 0.00020116 -0.00019943 -0.014767 -0.011707
0.046467 0.22165 -0.0097357 -0.0094293
0.00040102 -0.0014503 0.0011199 0.00015204 0.00042961 0.00017188 -0.0010111 -7.6536e-05
-0.0097224 -0.0094383 0.10262 0.30761
1460000000 0.26642 0.15648 -0.020461 0.0042832 0.0051867 -0.0018302 -0.0016203 0.0018749
0.0022715 -8.9478e-05 -0.00014815 -0.0010154
-0.020459 0.0043059 0.10904 0.33949 -0.0047507 0.014998 0.0017443 0.00022142
0.0012153 -0.0014027 0.0013046 -0.00057293
0.0051783 -0.0018458 -0.0046762 0.015016 0.35794 0.0042839 -0.0011797 -0.0011395
0.00028328 -0.00032439 0.00066812 -0.00021661
-0.0015935 0.0018801 0.0017295 0.00024307 -0.0011616 -0.0011592 0.19868 0.17815
-0.016541 -0.0047927 -0.00090854 0.0023344
0.0022711 -8.0925e-05 0.0012024 -0.0014364 0.00027401 -0.0003126 -0.016556 -0.0047536
0.077294 0.21218 -0.01193 -0.0032396
-0.00012442 -0.00099481 0.0013394 -0.00058581 0.00066775 -0.0002247 -0.0009427 0.0023455
-0.011938 -0.0032323 0.13727 0.28828
1520000000 0.27923 0.11453 -0.015085 0.0098063 0.0031645 -0.0041213 0.00021993 0.0027633
0.0027273 -0.001761 -0.0011333 -0.0002457
-0.015091 0.0097899 0.14314 0.32493 0.0025235 0.012054 0.0017216 -0.00075413
0.00021858 -0.0010883 0.0003925 -0.00098734
0.0031618 -0.0041292 0.0025945 0.012056 0.35 -0.053833 -0.00090922 -0.0003396
0.00072506 -0.0010323 0.00014389 -2.8784e-05
0.0002476 0.0027502 0.0017137 -0.00077053 -0.00091344 -0.00033068 0.22152 0.13965
-0.016733 0.0016889 0.0015523 0.0023632
0.0027296 -0.0017592 0.00022192 -0.0010838 0.00072309 -0.0010462 -0.01674 0.0017326
0.10514 0.20385 -0.011951 0.0013075
-0.0011551 -0.00025413 0.00037562 -0.00096291 0.0001493 -2.1921e-05 0.00157 0.002362
-0.011952 0.0013015 0.17072 0.27004
1580000000 0.28984 0.069597 -0.0085903 0.013373 -0.0012971 -0.0046434 0.0016713 0.0018939
5.3993e-05 -0.0023396 -0.00030271 0.00038359
-0.0085804 0.013351 0.17113 0.30103 0.0055406 0.0067862 0.00059686 -0.0016085
-0.00049413 -0.0011929 -0.00018259 -0.00070817
-0.0013152 -0.0046612 0.0055496 0.0067726 0.32848 -0.1103 -0.0014498 0.00042051
-0.00044186 -0.0013637 0.00029704 -0.00059447
0.0016799 0.0019033 0.00057748 -0.0016065 -0.0014455 0.00040807 0.23572 0.10125
-0.013202 0.0076628 0.0025558 0.0010105
3.1903e-05 -0.0023257 -0.00051041 -0.0012042 -0.0004439 -0.001372 -0.013191 0.0077094
0.13225 0.19134 -0.0092677 0.0078483
-0.00026791 0.00038824 -0.00018918 -0.00072519 0.00029561 -0.00058771 0.002531 0.00099979
-0.0092667 0.0078478 0.20514 0.24606
1640000000 0.29335 0.027578 -0.0017467 0.012274 -0.0029144 -0.0022326 0.0028959 0.00086997
-0.00047609 -0.0020933 -0.00033938 0.0004142
-0.0017589 0.012271 0.20217 0.27571 0.0055044 0.001984 -0.00060965 -0.0018863
-0.0010143 -0.00056937 -0.00039882 -0.00077252
-0.0029277 -0.0022345 0.0055328 0.0019633 0.29913 -0.16023 -0.0007823 0.0012167
-0.0011854 -0.0011708 -0.00012022 -0.00053573
0.0028954 0.00084394 -0.00060345 -0.0018862 -0.00077465 0.0012254 0.24876 0.051734
-0.0089233 0.0094304 0.00281 -0.00069841
-0.00048832 -0.0020917 -0.0010052 -0.00056949 -0.0011731 -0.0011694 -0.008908 0.0094566
0.15726 0.17203 -0.0042674 0.010032
-0.0003677 0.00045715 -0.00040401 -0.00077901 -0.00013664 -0.00054241 0.0028244 -0.00070543
-0.004263 0.010044 0.23259 0.21537
1700000000 0.28601 -0.017272 0.0018349 0.0095984 -0.0033789 0.00043949 0.0030845 -0.0014189
-0.0023299 -0.00089741 0.00051577 0.00041745
0.001815 0.0095901 0.21993 0.24449 0.0027898 -0.00056005 -0.0015292 -0.00069758
-0.0009192 -0.00014135 -0.00084982 -0.0005461
-0.00337 0.0004502 0.0027786 -0.0005586 0.25368 -0.19809 0.00017047 0.0016169
-0.0024056 -0.0001463 -0.00033974 -0.00093361
0.0030875 -0.0014057 -0.0015097 -0.00068056 0.00018214 0.0015925 0.24512 0.0023826
-0.0057408 0.01094 0.0018981 -0.0022566
-0.0023508 -0.00089435 -0.00089507 -0.00013407 -0.0023898 -0.00014735 -0.0057214 0.010966
0.17763 0.157 0.00059752 0.0098713
0.00054345 0.00038141 -0.0008683 -0.00052814 -0.000338 -0.00092136 0.0018866 -0.0022672
0.00060477 0.0098711 0.25037 0.18268
1760000000 0.27578 -0.06576 0.0042467 0.0063539 -0.0020636 0.0012632 0.0011922 -0.0035499
-0.0013965 0.0004614 0.00019172 -0.00051299
0.0042385 0.0063555 0.24758 0.205 6.2239e-05 -0.0019075 -0.0012498 0.00012019
-0.0011632 0.0010211 -0.00055436 0.00035612
-0.0020459 0.0012617 5.5341e-05 -0.0019122 0.20562 -0.2298 0.001186 0.0013982
-0.0011664 0.0017276 -0.0012578 -0.00073614
0.0011721 -0.0035596 -0.0012656 0.00012943 0.001188 0.001407 0.2377 -0.048753
-0.0014137 0.01061 1.1049e-07 -0.002698
-0.0013849 0.0004778 -0.0011626 0.0010342 -0.0011562 0.0017441 -0.0013905 0.010624
0.1967 0.12722 0.0048856 0.0071728
0.00019987 -0.00050339 -0.00056448 0.00034158 -0.0012577 -0.00071377 -6.7226e-06 -0.0027004
0.0048874 0.0071756 0.26542 0.14586
1820000000 0.25142 -0.10412 0.0045253 0.0027824 0.00023648 0.0024125 -0.0010026 -0.0031194
-0.001421 0.00096174 -0.0002033 -7.0626e-05
0.0045059 0.0027701 0.25763 0.17418 -0.0022321 -1.9639e-05 -0.0013643 0.0010093
4.2354e-05 0.0012258 -0.0007595 0.00042652
0.00026288 0.002383 -0.0022355 -9.3202e-07 0.1543 -0.24483 0.0017381 0.00058603
-0.00016509 0.0024009 -0.0017207 0.0003795
-0.00098958 -0.0031282 -0.001382 0.0010206 0.0017539 0.00058564 0.20758 -0.097088
0.0011501 0.0091057 -0.0016761 -0.0020217
-0.0014072 0.0009705 3.7996e-05 0.0012246 -0.00013738 0.0024219 0.0011749 0.0091171
0.21851 0.10142 0.0059366 0.003212
-0.00020327 -9.5361e-05 -0.00072419 0.00043842 -0.0017499 0.00037805 -0.0016915 -0.0020289
0.0059463 0.0032102 0.26946 0.1099
1880000000 0.21628 -0.14383 0.0021476 0.00046319 -0.00026938 0.0022745 -0.0029615 -0.0022614
-0.00024635 0.0019358 0.0003895 -0.00061892
0.0021492 0.00046355 0.26206 0.12842 -0.0040708 0.0028724 -0.0002231 0.0018373
0.00054545 0.0013731 0.0001009 0.0010833
-0.00024563 0.0022777 -0.0040431 0.0029145 0.10254 -0.25102 0.001967 -0.001134
0.0018384 0.0020395 -0.00089823 0.0015487
-0.0029649 -0.0022711 -0.00020136 0.0018407 0.0019562 -0.0011321 0.16733 -0.13693
0.0030463 0.0066073 -0.002504 0.0001524
-0.00023351 0.0019275 0.00057296 0.0013818 0.0018339 0.002048 0.0030729 0.0066045
0.22743 0.074589 0.0062141 0.0010658
0.00041797 -0.00062121 0.0001031 0.001083 -0.00091141 0.0015476 -0.0025305 0.00017366
0.0062142 0.0010794 0.27136 0.077174
1940000000 0.17778 -0.17063 -5.8403e-05 -0.001132 0.0018182 0.0019409 -0.0038454 0.00039384
0.0011224 0.00097543 -0.00067097 -0.0006341
-6.3449e-05 -0.0011402 0.26404 0.09615 -0.0020457 0.005878 0.001079 0.0012501
0.0019513 0.00031203 0.00094509 0.00032708
0.0018243 0.0019217 -0.0020211 0.0059024 0.059493 -0.24319 0.00046043 -0.00244
0.002233 0.00022866 0.00030388 0.00183
-0.0038101 0.00044872 0.0010762 0.0012697 0.00045189 -0.0024436 0.11547 -0.16928
0.0028498 0.004106 -0.001687 0.0013487
0.0011379 0.0010087 0.0019353 0.00030102 0.0022397 0.00023364 0.0028499 0.0041187
0.23729 0.037747 0.004751 -0.003589
-0.00070315 -0.00059672 0.00096038 0.0002957 0.00031557 0.001811 -0.0017066 0.0013201
0.0047729 -0.0036022 0.26297 0.040154
2000000000 0.13092 -0.18503 -0.0036523 0.0010475 0.0030135 0.0013118 -0.0024051 0.0037437
0.00094864 0.00058445 -0.00079053 0.00065365
-0.0036547 0.0010436 0.24949 0.060844 -0.00050908 0.0081284 0.0015377 0.00025488
0.0010716 -0.0013073 0.00053337 0.00016199
0.0030195 0.0012891 -0.00047515 0.008119 0.017797 -0.22821 -0.001607 -0.001566
0.0019823 -0.0010437 0.0016708 0.001438
-0.0023772 0.0037698 0.0015224 0.00025034 -0.001606 -0.0015685 0.06063 -0.1793
0.0010316 0.002852 -0.00020888 0.0020838
0.00094594 0.00056309 0.0010547 -0.0013247 0.0019928 -0.0010597 0.0010519 0.0028479
0.23746 0.0052921 0.00078774 -0.0043476
