!Keysight Technologies,M9804A,MY58100912,A.14.10.03
!Date: Thursday, April 27, 2023 10:28:33
!Correction: S11(C  6-Port  ) 
!S12(C  6-Port  ) 
!S13(C  6-Port  ) 
!S14(C  6-Port  ) 
!S15(C  6-Port  ) 
!S16(C  6-Port  ) 
!S21(C  6-Port  ) 
!S22(C  6-Port  ) 
!S23(C  6-Port  ) 
!S24(C  6-Port  ) 
!S25(C  6-Port  ) 
!S26(C  6-Port  ) 
!S31(C  6-Port  ) 
!S32(C  6-Port  ) 
!S33(C  6-Port  ) 
!S34(C  6-Port  ) 
!S35(C  6-Port  ) 
!S36(C  6-Port  ) 
!S41(C  6-Port  ) 
!S42(C  6-Port  ) 
!S43(C  6-Port  ) 
!S44(C  6-Port  ) 
!S45(C  6-Port  ) 
!S46(C  6-Port  ) 
!S51(C  6-Port  ) 
!S52(C  6-Port  ) 
!S53(C  6-Port  ) 
!S54(C  6-Port  ) 
!S55(C  6-Port  ) 
!S56(C  6-Port  ) 
!S61(C  6-Port  ) 
!S62(C  6-Port  ) 
!S63(C  6-Port  ) 
!S64(C  6-Port  ) 
!S65(C  6-Port  ) 
!S66(C  6-Port  ) 
!S6P File: Measurement: :
# Hz S  RI   R 50
500000000 -0.32592 -0.064005 -0.010947 -0.0014343 -0.0092419 0.012447 -0.0036821 0.012238
0.01326 0.0068023 -0.0045517 0.0098609
-0.011017 -0.0015097 -0.40929 -0.074264 0.0074465 -0.010508 0.0012691 0.012239
0.0089118 0.0028936 0.0011578 0.01367
-0.0092433 0.012793 0.0073068 -0.010183 -0.25558 0.19409 0.0070952 0.0030317
-0.0029591 0.0080037 0.0014145 0.01068
-0.0038086 0.01273 0.0010126 0.012384 0.0071867 0.002916 -0.3271 0.041656
-0.02233 -0.0045184 0.016484 0.027328
0.013743 0.0063492 0.0093576 0.0032168 -0.0026496 0.007969 -0.022205 -0.0044945
-0.19671 -0.26862 -0.031246 0.0061437
-0.0046514 0.0094573 0.0017081 0.014431 0.0017166 0.010725 0.016885 0.027438
-0.031492 0.005825 -0.25122 -0.15294
560000000 -0.31393 0.10411 -0.02229 -0.066335 3.2386e-05 0.013875 0.0053615 0.011812
0.010233 0.0049293 0.011315 0.0098689
-0.022079 -0.066271 -0.36938 0.089075 -0.04127 -0.038503 0.013279 0.0033138
-0.015207 -0.0064101 0.00482 -9.0945e-05
0.00038083 0.013722 -0.041167 -0.037885 -0.17963 0.24364 0.00017699 -0.0046032
0.018332 0.0069258 0.0072188 -0.0062838
0.00529 0.011738 0.013293 0.0032979 0.0001703 -0.0048988 -0.30507 0.13203
0.0078729 -0.022355 0.0052244 -0.021476
0.011234 0.0048048 -0.014968 -0.0060938 0.017897 0.0066633 0.007846 -0.022162
-0.29738 -0.082889 0.01335 -0.052976
0.01155 0.010004 0.004417 0.00026121 0.0078202 -0.0059199 0.0052949 -0.021392
0.013408 -0.052671 -0.32697 -0.0039937
620000000 -0.27454 0.080264 -0.023882 0.0097386 0.0036069 0.0087646 0.0082917 -0.0050048
0.01223 0.0016059 0.00050605 -0.0025646
-0.023879 0.0096761 -0.3992 0.034659 -0.019172 0.0011374 -0.0014061 -0.0023013
0.013129 -0.0046128 0.0010679 -0.0034673
0.0038357 0.0087409 -0.019108 0.0010015 -0.15282 0.25219 -0.0011587 -0.0051827
-0.0036785 -0.0024437 0.0088773 -0.0025132
0.0081143 -0.0049604 -0.0014653 -0.0021133 -0.0011267 -0.0051621 -0.26164 0.14224
-0.040551 -0.021006 0.013354 0.031165
0.012774 0.0013514 0.012975 -0.0050276 -0.0036303 -0.0021041 -0.040569 -0.021066
-0.20778 -0.1238 -0.047107 0.010552
0.0010499 -0.0029184 0.0008521 -0.0033618 0.008828 -0.0021815 0.013232 0.031203
-0.0471 0.010636 -0.24156 -0.04287
680000000 -0.24062 0.17448 -0.026012 -0.014187 0.0049107 0.0052126 0.0015809 -0.006948
-0.00093115 -0.011641 0.0066474 -0.0064194
-0.026042 -0.01419 -0.38992 0.13839 -0.031977 -0.0013487 -0.0017968 -0.00060437
-0.00067663 -0.0095882 -0.00048429 -0.0017388
0.0049246 0.0053102 -0.032038 -0.001261 -0.10552 0.27514 -0.00076429 -0.00036701
-0.0011227 0.00057968 -0.0024908 -0.0092438
0.0015282 -0.0068031 -0.0019118 -0.00055288 -0.00079876 -0.00049505 -0.21862 0.19515
-0.0234 -0.0070043 -0.0089117 -0.011715
-0.0011801 -0.011423 -0.00064177 -0.0097413 -0.0011521 0.00054992 -0.023553 -0.0068802
-0.2893 -0.018092 -0.0042698 -0.0066274
0.0067297 -0.0061187 -0.00065137 -0.0016416 -0.0027065 -0.0091621 -0.0089102 -0.012101
-0.0043658 -0.0067264 -0.26178 0.064557
740000000 -0.1939 0.16745 -0.040396 0.027078 0.013489 -0.0038672 0.0001206 -0.0041186
-0.003927 -0.0012035 -0.0064727 0.002959
-0.040336 0.027 -0.33498 0.15687 -0.036403 0.034272 -4.4987e-05 -0.0064845
-0.012978 0.006738 -0.0011709 -0.0060616
0.013626 -0.0037875 -0.036432 0.03437 -0.071842 0.2747 -0.0017399 0.0030112
-0.00086679 -0.0056682 -0.0013259 0.00061809
0.00041294 -0.0041186 0.00016369 -0.0065186 -0.0019468 0.0029551 -0.20133 0.20194
-0.043784 -0.010659 0.022759 0.017358
-0.0044638 -0.0014619 -0.013514 0.0065744 -0.00092402 -0.0056225 -0.043814 -0.010624
-0.18128 0.025008 -0.045434 -0.0033009
-0.0056226 0.0032247 -0.0012789 -0.006139 -0.0015732 0.00047167 0.022724 0.017374
-0.045825 -0.0033242 -0.25361 0.069309
800000000 -0.16634 0.21345 -0.022124 0.016109 0.0055553 -0.010272 -0.004032 -0.0026377
-0.0044499 0.00093139 0.0045966 0.00088723
-0.022169 0.016099 -0.34439 0.22855 -0.008113 0.033958 -0.0022886 0.0019931
-0.00012864 0.0016945 0.00045511 0.0057373
0.0054882 -0.01025 -0.0080653 0.034038 -0.033955 0.30061 0.00083161 0.0013432
-0.00026994 0.0029581 -0.0014776 0.00074945
-0.0040781 -0.0026605 -0.0022593 0.0020202 0.00088206 0.0013562 -0.17288 0.23021
-0.029437 0.012875 0.015212 -0.009809
-0.0045157 0.0010416 2.0396e-05 0.0018668 -0.00026613 0.0029357 -0.029463 0.012929
-0.24459 0.044193 -0.019386 0.021249
0.004422 0.0004264 0.00048333 0.0055918 -0.0014235 0.00069381 0.015297 -0.0099132
-0.019459 0.021235 -0.25163 0.12131
860000000 -0.13051 0.23497 -0.017882 0.030438 -0.0032592 -0.0099492 -0.0020623 0.000356
0.0040557 0.0052443 -0.0038566 -0.0031997
-0.017816 0.03039 -0.29646 0.27334 0.0077631 0.033792 0.000213 0.0022627
0.0038939 -4.0277e-07 0.0036024 0.00013286
-0.0032629 -0.0099384 0.007906 0.033815 0.015105 0.31057 -0.00059311 -0.00030961
0.0027093 -0.0019642 0.0015054 0.0042011
-0.002021 0.00044401 0.00013369 0.0021056 -0.00054189 -0.00040368 -0.13556 0.24119
-0.018781 0.017492 -0.0064835 -0.0097894
0.0042396 0.005277 0.0037029 0.00018434 0.0025825 -0.0018139 -0.018816 0.017704
-0.18754 0.11275 -0.027747 0.016046
-0.0038173 -0.0034372 0.0037282 4.1889e-05 0.0014875 0.004238 -0.0065008 -0.0097993
-0.02749 0.01586 -0.20132 0.17252
920000000 -0.1084 0.2578 0.0048332 0.039196 -0.0091213 -0.0043861 -0.0021176 0.0014027
-8.8507e-06 0.0015639 0.0032225 -0.0011348
0.0047923 0.039136 -0.27045 0.29448 0.027985 0.022419 0.0012178 0.0011589
0.0076326 -5.8566e-06 0.0039964 -0.0028335
-0.0091666 -0.0043706 0.028161 0.022364 0.060871 0.31203 0.0017343 -3.5432e-05
0.00071054 -0.00029114 0.00062019 -0.0015599
-0.0020341 0.0014395 0.0012971 0.0011554 0.0017553 -7.1502e-05 -0.11217 0.25733
-0.013196 0.031317 0.0049053 -0.0067585
-0.00017134 0.0014829 0.0076154 -0.00016026 0.00057865 -0.00024887 -0.013175 0.031324
-0.18489 0.11424 -0.0028584 0.029422
0.0032401 -0.0011586 0.00388 -0.0029473 0.0006671 -0.0013721 0.0048493 -0.0068841
-0.0029961 0.029386 -0.21361 0.18292
980000000 -0.062124 0.28043 0.016912 0.03018 -0.0091776 0.0046548 0.0017286 0.003742
0.0038653 -0.00098591 -0.0033311 -0.0027099
0.01688 0.030162 -0.21877 0.33312 0.032831 0.0047674 0.0020426 -0.00013078
0.0018185 -0.0058433 -0.0002528 -0.0025672
-0.009177 0.0046669 0.032831 0.0047366 0.10755 0.30769 0.00048468 -0.0011349
0.00034404 -0.0016223 0.0013713 -0.00023875
0.0016779 0.0037089 0.0020237 -8.4721e-05 0.00046942 -0.0011232 -0.073116 0.26944
0.0069979 0.031402 -0.0097183 -0.0082548
0.0038886 -0.0011112 0.0019704 -0.0059105 0.00035999 -0.0016932 0.0070732 0.031419
-0.1562 0.15623 0.0047399 0.021157
-0.0033547 -0.0028164 -0.00035763 -0.0027216 0.001291 -0.00037272 -0.0096939 -0.0083141
0.0049484 0.020983 -0.17165 0.23406
1040000000 -0.02063 0.28876 0.033153 0.019345 -0.0011312 0.0072979 0.0022544 0.00089741
0.00011315 -0.002993 4.3259e-05 -0.0013568
0.033027 0.019271 -0.18322 0.34663 0.029204 -0.014624 0.0015559 -0.0018123
-0.0025815 -0.0021903 -0.0010802 -0.0029652
-0.0010488 0.0073363 0.029212 -0.014698 0.15475 0.29374 -0.00054545 -0.0014318
-0.0016441 -0.00099503 -0.0006802 -0.0010489
0.002255 0.00084797 0.0015473 -0.001763 -0.00053916 -0.0014411 -0.045668 0.27816
0.019026 0.020839 -0.0018292 0.00082917
0.00022263 -0.0029406 -0.0024963 -0.0020992 -0.0015802 -0.00089327 0.019094 0.020772
-0.124 0.16575 0.013178 0.021208
-0.00014546 -0.0014619 -0.0010778 -0.003077 -0.00078302 -0.0010932 -0.0018558 0.00086014
0.01309 0.021322 -0.15091 0.25524
1100000000 0.023034 0.29995 0.03651 -0.0033234 0.0033212 0.0040242 0.0023872 -0.00083016
-0.0021979 -0.0030679 -0.0042916 3.3775e-05
0.036485 -0.0033013 -0.14086 0.36733 0.014959 -0.027606 -0.00010602 -0.0018318
-0.0035278 -0.001192 -0.003872 -0.00052556
0.0033434 0.0040082 0.014883 -0.027678 0.20056 0.27443 -0.0017806 0.00023006
-0.0016801 0.00072999 -0.0011353 -0.00035612
0.0023627 -0.00081483 -0.00011589 -0.0018762 -0.0017902 0.00022177 -0.0061913 0.28368
0.025721 0.0074701 -0.0026322 -0.00064611
-0.0022083 -0.0030584 -0.0035204 -0.0012015 -0.0016716 0.00072498 0.025778 0.0074475
-0.10774 0.18483 0.019647 0.01111
-0.004295 -4.174e-05 -0.0039545 -0.00050224 -0.0011074 -0.0002978 -0.0026332 -0.00068147
0.019713 0.011076 -0.10748 0.28962
1160000000 0.075341 0.29687 0.024653 -0.020282 0.0031525 -0.00060398 9.3478e-06 -0.0022934
-0.0041153 -0.00091896 -0.0013141 0.0043589
0.024638 -0.020278 -0.095489 0.3727 -0.0040242 -0.028468 -0.0015676 -0.0014716
-0.0028732 0.0026087 -0.0016289 0.0021191
0.0031289 -0.00062419 -0.0041569 -0.028483 0.24518 0.24399 -0.0006614 0.001693
-0.00050147 0.0020247 -0.00080425 0.00061465
1.8439e-05 -0.0022441 -0.0015471 -0.0014812 -0.00065347 0.0016901 0.034022 0.28059
0.02349 -0.0095734 -0.0040082 0.0049209
-0.0040469 -0.00093399 -0.0030076 0.0026591 -0.0005181 0.0019597 0.023423 -0.0096224
-0.071907 0.19867 0.01988 0.0018375
-0.0011991 0.0043579 -0.0017399 0.0020315 -0.00078238 0.00049445 -0.0040054 0.0049993
0.019884 0.0018878 -0.058336 0.29343
1220000000 0.11859 0.28743 0.011575 -0.029987 -0.0012108 -0.0011574 0.00019607 -0.0010122
-0.0027926 0.002218 0.0012172 0.0020322
0.011607 -0.02994 -0.052058 0.38684 -0.016912 -0.020653 -0.0025591 0.00048735
-0.00010884 0.0031823 -0.00080352 0.0020218
-0.0011909 -0.0011533 -0.016992 -0.020608 0.28398 0.2046 0.00089094 0.0016178
0.00053695 0.0011649 0.00029539 0.00053914
0.00017923 -0.0010096 -0.002545 0.00052463 0.00087501 0.0015953 0.072812 0.27174
0.012635 -0.017194 0.0019954 0.0015913
-0.0027333 0.0022064 -0.0001255 0.0031194 0.00055224 0.0012111 0.01263 -0.017195
-0.051783 0.21095 0.015749 -0.012332
0.0012001 0.0020714 -0.00086859 0.0020212 0.00023214 0.00053066 0.0019375 0.0015604
0.015754 -0.012287 -0.029899 0.31318
1280000000 0.1695 0.26905 -0.0072655 -0.028949 -0.0017208 0.001918 -0.00092583 -0.0021957
-0.0010214 0.0031662 0.0024382 0.0014875
-0.0072505 -0.028928 -0.0048211 0.38 -0.023721 -0.0076923 -0.00086454 0.0014746
0.0017582 0.0019865 0.00060716 0.0020162
-0.001721 0.0019587 -0.023785 -0.0075954 0.31501 0.16197 0.0014758 -8.2258e-05
0.001231 0.00037104 0.00019062 0.00015222
-0.00093647 -0.0021855 -0.00089607 0.0014688 0.0014754 -9.9847e-05 0.10965 0.25629
0.0028085 -0.020603 -0.00068409 0.00031579
-0.00099801 0.0031846 0.0017627 0.0019566 0.001195 0.0003927 0.0027721 -0.02064
-0.015281 0.22075 0.0040095 -0.015436
0.0025352 0.0014479 0.00064182 0.0020514 0.00025748 0.00019328 -0.00064703 0.00034862
0.0039817 -0.015416 0.01895 0.31899
1340000000 0.20753 0.23566 -0.016956 -0.019511 0.00059609 0.0041854 -0.0019246 -0.00087661
0.0015002 0.0030353 0.0018349 -0.0014833
-0.016922 -0.019498 0.035315 0.37243 -0.02067 0.0048551 -0.00017919 0.0020376
0.0019965 0.0010563 0.0012163 0.00079301
0.00066813 0.0041762 -0.020643 0.0049792 0.33818 0.11309 0.00095061 -0.00093809
0.00076354 -0.00057281 0.00013021 0.00026171
-0.0019199 -0.00087525 -0.00017089 0.0020171 0.00093903 -0.0009114 0.14273 0.23522
-0.0074826 -0.018339 0.00090778 0.00066822
0.0014897 0.0030466 0.0019802 0.0010406 0.00074441 -0.00054412 -0.0075306 -0.018304
0.013862 0.21986 -0.0025434 -0.014391
0.0018849 -0.0014697 0.0012341 0.00083236 9.8909e-05 0.00025951 0.00090619 0.00061831
-0.0025556 -0.014456 0.057535 0.31527
1400000000 0.24152 0.19963 -0.023372 -0.0082113 0.0049051 0.0029544 -0.0023302 0.00076402
0.0025774 0.0010805 0.00041711 -0.001437
-0.023354 -0.0082382 0.073099 0.36097 -0.013815 0.012672 0.0013656 0.0013776
0.0012819 -0.00062461 0.0011476 0.00019197
0.0049293 0.0029512 -0.013798 0.012745 0.35105 0.059376 5.1534e-06 -0.0014328
0.00022158 -0.00013405 0.0003956 0.00018681
-0.0022673 0.00078303 0.0014094 0.0013532 3.7772e-06 -0.0014519 0.17153 0.20687
-0.014707 -0.011684 -0.00095287 -6.6136e-05
0.0025903 0.0010679 0.001297 -0.00059995 0.00022772 -0.0001644 -0.014724 -0.011653
0.047011 0.2217 -0.0097043 -0.0094308
0.00041061 -0.0014469 0.0011357 0.00017874 0.00039926 0.00017904 -0.00098031 -8.373e-05
-0.0097081 -0.0093882 0.10283 0.3077
1460000000 0.26648 0.15653 -0.020429 0.0042763 0.0051668 -0.0018407 -0.0016161 0.0018898
0.0022785 -0.00011967 -0.00012172 -0.0010358
-0.020441 0.0042391 0.10912 0.33949 -0.0047807 0.015006 0.0017277 0.00023799
0.0011785 -0.001369 0.0012715 -0.0005925
0.0051753 -0.0018674 -0.0046729 0.015056 0.35801 0.0042733 -0.0011574 -0.0011434
0.00035137 -0.00029345 0.00067903 -0.00027078
-0.0016124 0.0018865 0.0017427 0.00023529 -0.0011755 -0.0011301 0.19878 0.17824
-0.016506 -0.0048036 -0.00093245 0.0023919
0.0022431 -0.00011086 0.001213 -0.0013698 0.00031665 -0.00029359 -0.016502 -0.0047635
0.077774 0.21226 -0.01194 -0.0032131
-0.00017188 -0.00096888 0.0012973 -0.00058239 0.00066786 -0.00023161 -0.00088655 0.002339
-0.011967 -0.00323 0.13737 0.28815
1520000000 0.2793 0.11449 -0.015075 0.009801 0.0031499 -0.0040953 0.00021719 0.0027222
0.0027292 -0.001724 -0.0011652 -0.00024266
-0.015064 0.0097862 0.14321 0.32492 0.0025219 0.012047 0.0017312 -0.00076462
0.00018237 -0.0010666 0.00037823 -0.00094325
0.0031264 -0.0041226 0.002584 0.012036 0.34997 -0.053913 -0.00089129 -0.00032758
0.00072128 -0.001 0.00015468 -1.5035e-05
0.00026589 0.0027125 0.0017111 -0.00076799 -0.00088857 -0.00034704 0.22164 0.13969
-0.016651 0.0016672 0.001602 0.0023504
0.0027503 -0.0017707 0.00020945 -0.0010971 0.00072392 -0.0010593 -0.016668 0.0017156
0.10576 0.20372 -0.011922 0.001367
-0.0011238 -0.00028841 0.00036238 -0.00096907 0.00012995 3.7828e-08 0.0015842 0.0023013
-0.011909 0.001363 0.17107 0.26983
1580000000 0.28994 0.069526 -0.0085942 0.013335 -0.0012828 -0.004697 0.0017031 0.0018527
6.0336e-05 -0.0023787 -0.00029591 0.00040548
-0.0085861 0.013325 0.17118 0.30104 0.0055434 0.0068056 0.00058686 -0.00164
-0.00048171 -0.0012275 -0.00019211 -0.00070308
-0.0012884 -0.0046452 0.005577 0.0067597 0.32854 -0.11028 -0.0013679 0.00038114
-0.00032941 -0.0013958 0.00023846 -0.00054771
0.0016818 0.0018972 0.00059319 -0.0016382 -0.0013838 0.00037913 0.23584 0.10128
-0.013184 0.0076584 0.0025496 0.001016
2.3104e-05 -0.0023121 -0.00047205 -0.001191 -0.00035789 -0.0013782 -0.013182 0.0077085
0.13274 0.19131 -0.0092418 0.0078218
-0.00028054 0.00040823 -0.0002101 -0.00071553 0.00026046 -0.00055149 0.002539 0.00099012
-0.0092589 0.0078446 0.20544 0.2459
1640000000 0.29343 0.027515 -0.0017316 0.012261 -0.0029319 -0.0021922 0.0028681 0.00089513
-0.00048642 -0.0020225 -0.00041645 0.00039605
-0.0017452 0.012254 0.20222 0.27567 0.0055038 0.0019661 -0.00058591 -0.0018886
-0.00098325 -0.0005754 -0.00041344 -0.00078277
-0.0029133 -0.0022109 0.0055086 0.0019345 0.29917 -0.16029 -0.00073629 0.0012122
-0.0011228 -0.0011681 -0.00011873 -0.0005748
0.0028731 0.00081297 -0.00058457 -0.0018792 -0.00076338 0.0012209 0.24889 0.051696
-0.0089547 0.0093657 0.0028422 -0.00074788
-0.0005146 -0.0020897 -0.00098493 -0.00054513 -0.0011593 -0.001153 -0.0089345 0.0093881
0.15775 0.17172 -0.0041798 0.010032
-0.00037363 0.00041348 -0.00042231 -0.00078706 -0.00017065 -0.00053084 0.0028417 -0.00071118
-0.0041666 0.010055 0.23275 0.21513
1700000000 0.28606 -0.017369 0.0018122 0.0095915 -0.0033496 0.00041214 0.0030648 -0.0014105
-0.0023291 -0.00087831 0.00053995 0.00047057
0.0018053 0.0095741 0.21998 0.24446 0.00277 -0.00053214 -0.0015316 -0.00067398
-0.00090886 -0.00013882 -0.0008397 -0.00052798
-0.003325 0.00043704 0.0027688 -0.00058845 0.25362 -0.1981 0.00017763 0.0016104
-0.0024046 -0.00014252 -0.00037446 -0.00086699
0.0030492 -0.0014021 -0.0015543 -0.00068015 0.00021363 0.0016364 0.24529 0.0022722
-0.0057217 0.010881 0.0019177 -0.0022096
-0.0023402 -0.00089829 -0.00092973 -0.00016159 -0.0023741 -0.00013334 -0.0057006 0.010921
0.17813 0.15673 0.00062245 0.0098779
0.00053023 0.00042451 -0.00085732 -0.00052069 -0.00040882 -0.00087002 0.0018725 -0.0022377
0.00060612 0.0098858 0.25067 0.18247
1760000000 0.27588 -0.065866 0.004235 0.0063798 -0.0020836 0.0012872 0.001191 -0.0035415
-0.0013967 0.00044022 0.00022356 -0.00051707
0.0042151 0.0063628 0.2476 0.20497 6.6298e-05 -0.0019323 -0.0012582 9.6355e-05
-0.001171 0.0010351 -0.00059525 0.00034428
-0.0020556 0.0012953 6.4893e-05 -0.0019397 0.20567 -0.22983 0.0012218 0.001343
-0.0011618 0.0017564 -0.0012006 -0.00062096
0.0011673 -0.0035925 -0.0012308 9.5996e-05 0.0011475 0.0013804 0.23773 -0.048921
-0.0014379 0.010516 9.8102e-06 -0.0026773
-0.0013863 0.00046981 -0.0011685 0.0010426 -0.0011924 0.0017675 -0.0014205 0.010535
0.19717 0.12696 0.0048878 0.0072337
0.00018232 -0.00050461 -0.00061349 0.00036159 -0.0012341 -0.00065118 -6.5148e-06 -0.0026659
0.0048703 0.0072175 0.26539 0.14584
1820000000 0.2514 -0.10423 0.0045107 0.0027611 0.0003121 0.0023963 -0.00098389 -0.0031321
-0.0014006 0.00096796 -0.00020444 -5.936e-05
0.0045013 0.002756 0.25765 0.17414 -0.0021717 -3.7382e-06 -0.0013708 0.0010276
1.0444e-05 0.0012478 -0.00075215 0.00045059
0.00029186 0.0024138 -0.002187 1.3837e-05 0.15431 -0.24474 0.0017634 0.00055886
-0.00018782 0.0023983 -0.0017602 0.00035045
-0.0010303 -0.0031534 -0.0013614 0.0010071 0.001775 0.00052719 0.20769 -0.097291
0.0011419 0.0090875 -0.0016597 -0.0020328
-0.0014326 0.00091298 4.7779e-05 0.0012153 -0.00020606 0.0024181 0.0011608 0.0090908
0.21884 0.1011 0.0059554 0.0031795
-0.0001943 -8.5991e-05 -0.00075476 0.00041287 -0.0017665 0.00033504 -0.0017061 -0.0020507
0.0059206 0.0031714 0.26958 0.10975
1880000000 0.21629 -0.14395 0.0021337 0.00045864 -0.00029537 0.0022847 -0.0029195 -0.00229
-0.00022386 0.001918 0.0004134 -0.00055333
0.0021369 0.00045134 0.2621 0.12837 -0.0040976 0.0028271 -0.0001859 0.0018178
0.00056276 0.0013646 0.00011177 0.001111
-0.00025594 0.0023019 -0.0040299 0.0028788 0.10249 -0.25118 0.0019565 -0.001114
0.0018344 0.002044 -0.00094926 0.0015734
-0.0029727 -0.0022516 -0.00019765 0.0018339 0.0019879 -0.0011313 0.16715 -0.13711
0.0028892 0.0065858 -0.0024496 9.9795e-05
-0.00021556 0.0019083 0.00058069 0.0013799 0.0017898 0.0020222 0.0029219 0.0065605
0.22772 0.074128 0.0062745 0.0010112
0.00042786 -0.00060342 0.00013418 0.0010983 -0.00087306 0.0014746 -0.002444 0.00016631
0.0062614 0.0010196 0.27145 0.076949
1940000000 0.17786 -0.17074 -5.3392e-05 -0.0011032 0.0018645 0.0019222 -0.0038577 0.00038345
0.0010823 0.00093225 -0.00065499 -0.00067422
-6.4023e-05 -0.0010982 0.26404 0.096128 -0.0020258 0.0058798 0.0010516 0.001243
0.0019263 0.00028603 0.00096116 0.00034026
0.0018259 0.0019401 -0.0019847 0.0059303 0.059531 -0.24312 0.00042795 -0.0023924
0.0022269 0.00023626 0.00031889 0.0017366
-0.0038839 0.00037776 0.0010532 0.0012786 0.00045363 -0.0024494 0.1154 -0.16943
0.0027881 0.0041661 -0.0017182 0.0013582
0.0011292 0.00092902 0.0019288 0.00030736 0.0022169 0.00022112 0.0028297 0.0041374
0.23749 0.037305 0.0047321 -0.0035868
-0.0006807 -0.00058821 0.00095606 0.00031476 0.00034897 0.0018047 -0.001725 0.0013392
0.0046912 -0.0035721 0.26297 0.040168
2000000000 0.13092 -0.18502 -0.003655 0.0010397 0.0030245 0.0012438 -0.0023953 0.0037678
0.0009189 0.00055597 -0.00080432 0.00061914
-0.0036683 0.0010353 0.24949 0.060793 -0.00053447 0.0080499 0.001489 0.00029842
0.0010793 -0.0013467 0.0005711 0.00011454
0.0030635 0.0012617 -0.00042994 0.008071 0.01768 -0.22839 -0.0016152 -0.0015781
0.001964 -0.0010721 0.0017295 0.0013569
-0.0023579 0.0038379 0.0015417 0.00028877 -0.0015439 -0.0016141 0.060623 -0.17936
0.00099189 0.0028569 -0.00029257 0.0020796
0.00092434 0.00061071 0.0010453 -0.0013293 0.0019985 -0.0010995 0.0010018 0.0028805
0.23764 0.0047908 0.00078796 -0.0043722
