!Keysight Technologies,M9804A,MY58100912,A.14.10.03
!Date: Thursday, April 27, 2023 10:28:33
!Correction: S11(C  6-Port  ) 
!S12(C  6-Port  ) 
!S13(C  6-Port  ) 
!S14(C  6-Port  ) 
!S15(C  6-Port  ) 
!S16(C  6-Port  ) 
!S21(C  6-Port  ) 
!S22(C  6-Port  ) 
!S23(C  6-Port  ) 
!S24(C  6-Port  ) 
!S25(C  6-Port  ) 
!S26(C  6-Port  ) 
!S31(C  6-Port  ) 
!S32(C  6-Port  ) 
!S33(C  6-Port  ) 
!S34(C  6-Port  ) 
!S35(C  6-Port  ) 
!S36(C  6-Port  ) 
!S41(C  6-Port  ) 
!S42(C  6-Port  ) 
!S43(C  6-Port  ) 
!S44(C  6-Port  ) 
!S45(C  6-Port  ) 
!S46(C  6-Port  ) 
!S51(C  6-Port  ) 
!S52(C  6-Port  ) 
!S53(C  6-Port  ) 
!S54(C  6-Port  ) 
!S55(C  6-Port  ) 
!S56(C  6-Port  ) 
!S61(C  6-Port  ) 
!S62(C  6-Port  ) 
!S63(C  6-Port  ) 
!S64(C  6-Port  ) 
!S65(C  6-Port  ) 
!S66(C  6-Port  ) 
!S6P File: Measurement: :
# Hz S  RI   R 50
500000000 -0.32614 -0.06433 -0.010798 -0.001111 -0.0085237 0.012527 -0.0043623 0.012297
0.013313 0.0065549 -0.0057736 0.0087344
-0.010694 -0.0012237 -0.40827 -0.075066 0.0074106 -0.010417 0.00099437 0.012291
0.0092085 0.0029759 0.0014315 0.014364
-0.0085087 0.01272 0.0074714 -0.010292 -0.25603 0.19423 0.0070595 0.0030984
-0.00247 0.007996 0.0017439 0.01077
-0.0042267 0.011748 0.00093545 0.012172 0.0070837 0.0031126 -0.32749 0.041842
-0.022125 -0.004928 0.016276 0.028342
0.013178 0.0060946 0.0091867 0.0030197 -0.0023285 0.0080927 -0.022177 -0.0049345
-0.19622 -0.27047 -0.031627 0.0054043
-0.0055428 0.0079621 0.0012209 0.014285 0.0017625 0.01092 0.016163 0.028266
-0.031639 0.0053775 -0.25162 -0.15366
560000000 -0.31505 0.10358 -0.021876 -0.0662 0.000433 0.013958 0.0050184 0.011305
0.01095 0.0041561 0.011952 0.010349
-0.021945 -0.065993 -0.3688 0.089395 -0.041605 -0.037997 0.014459 0.0034662
-0.015888 -0.0061138 0.0042063 7.9093e-05
0.00024086 0.014085 -0.0418 -0.037959 -0.17943 0.24254 -4.7614e-05 -0.0041502
0.018385 0.0066585 0.0076784 -0.0061215
0.0053139 0.011705 0.0146 0.0037614 -0.00011562 -0.0041523 -0.30457 0.13292
0.0077487 -0.021547 0.0044378 -0.021358
0.011011 0.0045399 -0.015718 -0.0063612 0.018455 0.0067926 0.0077133 -0.021576
-0.29799 -0.085371 0.012951 -0.052163
0.012014 0.010115 0.0045623 0.00023842 0.0075528 -0.0059116 0.004461 -0.021307
0.012941 -0.052236 -0.32726 -0.0045727
620000000 -0.27429 0.079528 -0.024029 0.009586 0.0031306 0.0091735 0.0079466 -0.004462
0.012588 0.00035721 0.0001926 -0.0029948
-0.023952 0.0096352 -0.39914 0.034289 -0.01905 0.00099724 -0.0017572 -0.0020136
0.013649 -0.0047788 0.001295 -0.0032721
0.002976 0.009056 -0.019013 0.0010864 -0.1527 0.25159 -0.001254 -0.0047708
-0.0033236 -0.0028567 0.0088054 -0.0028014
0.0075082 -0.005001 -0.0018834 -0.0019311 -0.0012369 -0.0047815 -0.26159 0.14187
-0.041521 -0.020834 0.012872 0.030621
0.013548 0.0011248 0.013795 -0.0049279 -0.0033892 -0.0028464 -0.04158 -0.020738
-0.20508 -0.12819 -0.047347 0.011419
0.000506 -0.0027541 0.0010425 -0.0034298 0.0085677 -0.002691 0.012884 0.030661
-0.047244 0.011327 -0.23974 -0.043572
680000000 -0.24056 0.17392 -0.02593 -0.014343 0.0049617 0.005111 0.001452 -0.0070481
-0.0010698 -0.011289 0.0066434 -0.0059337
-0.025889 -0.014363 -0.38987 0.13789 -0.031924 -0.001388 -0.0019137 -0.00059878
-0.00072249 -0.0094201 -0.00090795 -0.0016867
0.0050558 0.0051183 -0.031928 -0.0013544 -0.10556 0.27518 -0.0007656 -0.00028393
-0.0010152 0.00068458 -0.002676 -0.0092062
0.0016093 -0.0071155 -0.0018023 -0.00065321 -0.00075773 -0.0003244 -0.21874 0.19516
-0.023535 -0.0066263 -0.0091763 -0.012247
-0.0011259 -0.01131 -0.00073029 -0.009524 -0.0010463 0.00065296 -0.023463 -0.0066387
-0.29007 -0.020596 -0.0045983 -0.0073086
0.0068025 -0.0063273 -0.0007842 -0.0019164 -0.0027268 -0.0092547 -0.0091883 -0.01228
-0.0045945 -0.0072771 -0.26143 0.063606
740000000 -0.1936 0.1674 -0.040764 0.026963 0.013486 -0.0040206 0.000546 -0.0040255
-0.0037784 -0.0016788 -0.0062475 0.0030319
-0.040714 0.026626 -0.33524 0.15707 -0.036495 0.034019 0.0001215 -0.0064778
-0.013533 0.0067245 -0.0013983 -0.006521
0.013674 -0.003966 -0.036455 0.034197 -0.071743 0.27481 -0.0018539 0.0029611
-0.0011447 -0.0059765 -0.0013991 0.00071938
0.00047079 -0.0041029 0.00019753 -0.0062701 -0.0018817 0.0029359 -0.20147 0.20196
-0.043911 -0.010918 0.02285 0.017665
-0.0037838 -0.0017836 -0.013519 0.0065404 -0.001093 -0.005939 -0.043957 -0.010901
-0.18107 0.022801 -0.046044 -0.0022674
-0.006345 0.0032173 -0.0015142 -0.006636 -0.0012863 0.00078527 0.022884 0.017618
-0.045975 -0.0022104 -0.25355 0.067616
800000000 -0.16668 0.21306 -0.022083 0.015973 0.0054997 -0.010258 -0.0041423 -0.0023916
-0.0043737 0.00078954 0.0044398 0.000682
-0.022098 0.015928 -0.34443 0.22834 -0.008167 0.034007 -0.00222 0.002139
-4.1704e-05 0.0016224 0.0006201 0.0053941
0.005434 -0.010376 -0.0081374 0.034082 -0.034014 0.3006 0.00091907 0.0014968
-0.00023288 0.0028771 -0.0017227 0.00073493
-0.0041775 -0.0025135 -0.0022686 0.0021253 0.00091034 0.0014959 -0.17333 0.23023
-0.029351 0.012955 0.015449 -0.0099732
-0.0042992 0.00068591 -3.7235e-05 0.0016511 -0.00020986 0.0029287 -0.029348 0.013027
-0.24512 0.042433 -0.019462 0.021707
0.0042141 0.00053128 0.00057314 0.005438 -0.0017625 0.00078818 0.015438 -0.010001
-0.019467 0.021669 -0.25252 0.1208
860000000 -0.13058 0.23487 -0.017636 0.030519 -0.0031293 -0.0098652 -0.0020592 0.00026153
0.0043775 0.0049947 -0.0044369 -0.0030597
-0.017614 0.030499 -0.29646 0.27325 0.0078728 0.033865 0.00034947 0.0020698
0.004243 0.00032656 0.0033454 0.00030325
-0.0031425 -0.0097911 0.007961 0.03386 0.015025 0.31057 -0.0004406 -0.00025246
0.002596 -0.0016775 0.0014235 0.004185
-0.0021395 0.00029823 0.00038798 0.0020936 -0.00042995 -0.00024646 -0.13558 0.24083
-0.018616 0.017702 -0.0066478 -0.0093938
0.0040224 0.0053342 0.0041284 0.00036019 0.0025888 -0.0016881 -0.018593 0.017722
-0.18897 0.1114 -0.027629 0.015543
-0.0039884 -0.0032938 0.0033006 3.7704e-05 0.001432 0.0042087 -0.006691 -0.0094268
-0.027745 0.015425 -0.20096 0.17113
920000000 -0.10858 0.25738 0.0047454 0.039062 -0.0091606 -0.0045111 -0.0020445 0.0013113
-0.00018898 0.0016484 0.0032892 -0.0012901
0.0047163 0.039088 -0.27057 0.29395 0.028054 0.02244 0.0012448 0.0010516
0.0076686 4.145e-06 0.0040214 -0.0028499
-0.0091564 -0.0044476 0.028175 0.022389 0.060778 0.312 0.0017716 -3.0935e-05
0.00061891 -0.00014037 0.00072886 -0.0017003
-0.002082 0.00138 0.0013645 0.001053 0.0017761 -9.8093e-06 -0.11221 0.25749
-0.013245 0.031523 0.0046295 -0.0068359
-0.0001466 0.0016792 0.0076642 -0.0001494 0.00060212 -0.00016715 -0.013197 0.031571
-0.18585 0.11251 -0.0030392 0.029838
0.0034289 -0.0012021 0.0039467 -0.0029457 0.00073293 -0.0017369 0.0046493 -0.0069103
-0.0030463 0.029761 -0.21354 0.18181
980000000 -0.062448 0.28028 0.016786 0.030176 -0.0091442 0.0045944 0.0016075 0.0037884
0.003682 -0.00087988 -0.0035136 -0.002722
0.016771 0.03016 -0.21888 0.33292 0.032858 0.0048692 0.0020929 -0.00013472
0.0017954 -0.0060304 -0.00027204 -0.0028462
-0.0091611 0.0046436 0.032884 0.0047895 0.10745 0.30762 0.00055388 -0.0011139
0.0003781 -0.0017229 0.001377 -0.00033418
0.0016306 0.0037627 0.0020633 -0.0001258 0.00055011 -0.0011192 -0.073201 0.26951
0.0070003 0.031667 -0.0094568 -0.0082775
0.0035723 -0.0010728 0.0018344 -0.005977 0.00041693 -0.0017042 0.0070893 0.031676
-0.1574 0.15599 0.004745 0.021412
-0.0034261 -0.002829 -0.00032497 -0.0027719 0.0014076 -0.00029921 -0.0094794 -0.0082445
0.0047557 0.021432 -0.17226 0.23431
1040000000 -0.02081 0.28846 0.033133 0.019456 -0.0010997 0.0073192 0.0022168 0.00080948
0.00022755 -0.0029777 -0.00030817 -0.0015296
0.033028 0.019482 -0.18348 0.34649 0.029254 -0.014579 0.0015755 -0.0018281
-0.002566 -0.0022475 -0.0012132 -0.0031049
-0.0010847 0.0072805 0.029207 -0.014692 0.15464 0.29378 -0.000552 -0.0014285
-0.0016573 -0.00098998 -0.00074308 -0.0011458
0.0022777 0.00079793 0.001571 -0.0018048 -0.00056507 -0.0014082 -0.04584 0.27818
0.019051 0.020829 -0.002015 0.0007649
0.00028989 -0.0030624 -0.0025503 -0.0022044 -0.0016672 -0.00098195 0.019095 0.020832
-0.12515 0.16429 0.013367 0.02136
-0.00026478 -0.0014771 -0.0012211 -0.003131 -0.00069105 -0.0011128 -0.0019826 0.0007966
0.01335 0.021411 -0.15142 0.25511
1100000000 0.022746 0.29995 0.036546 -0.0033572 0.0032561 0.0040701 0.0024077 -0.00084453
-0.0021471 -0.0031546 -0.0042687 -6.8838e-05
0.036526 -0.0032997 -0.14105 0.3671 0.014917 -0.027589 -0.00011074 -0.0018832
-0.0034306 -0.0012134 -0.0039385 -0.00059925
0.0033074 0.0040508 0.01484 -0.027666 0.20049 0.27436 -0.0018119 0.00021955
-0.00172 0.00080872 -0.0011176 -0.0003458
0.0023591 -0.00088635 -0.00013779 -0.0018868 -0.0018039 0.00022072 -0.006266 0.2836
0.025945 0.0076022 -0.0025386 -0.00061339
-0.0021103 -0.0030945 -0.0034566 -0.0011707 -0.0017542 0.00079469 0.025976 0.0075502
-0.10892 0.18425 0.019775 0.011156
-0.0043927 -2.1451e-05 -0.0039811 -0.00059215 -0.0011129 -0.00035471 -0.0025668 -0.00060804
0.019767 0.011153 -0.10799 0.28938
1160000000 0.075072 0.29683 0.024613 -0.02027 0.0031784 -0.00064776 -2.4803e-05 -0.002371
-0.0039941 -0.0010242 -0.0011961 0.0044432
0.024626 -0.020239 -0.095717 0.3725 -0.0039413 -0.028445 -0.0015781 -0.001499
-0.0028941 0.0026958 -0.0016379 0.002056
0.0031836 -0.00062648 -0.0040667 -0.02842 0.24493 0.24391 -0.00069658 0.0017374
-0.00052666 0.0018932 -0.00079733 0.00043608
2.3958e-05 -0.0023363 -0.0015239 -0.0015044 -0.00070483 0.0017244 0.034089 0.28051
0.023637 -0.0096071 -0.0041428 0.0050183
-0.004016 -0.0010258 -0.0028828 0.0027529 -0.0005087 0.0019048 0.023652 -0.0096353
-0.073181 0.19767 0.01992 0.0020367
-0.0011267 0.0044379 -0.0016008 0.0020237 -0.00081232 0.00043787 -0.0041181 0.0050227
0.019926 0.0020107 -0.058876 0.29351
1220000000 0.11828 0.28742 0.011642 -0.03005 -0.0012106 -0.0011474 0.00028491 -0.00098151
-0.002749 0.0022639 0.00115 0.0020336
0.011663 -0.029991 -0.052252 0.38671 -0.016853 -0.020676 -0.0025146 0.00047137
-9.6622e-05 0.0031643 -0.00081788 0.0020125
-0.001219 -0.0011594 -0.01695 -0.020633 0.28389 0.20465 0.00087829 0.0015703
0.00054798 0.0012713 0.0002181 0.0005523
0.00024894 -0.00098474 -0.0025357 0.00051852 0.0008924 0.0015752 0.07287 0.27172
0.012738 -0.017312 0.0018434 0.0015197
-0.0027395 0.0022226 -0.00010294 0.0031817 0.00055405 0.0013047 0.012726 -0.017332
-0.05307 0.2104 0.015878 -0.012341
0.0011721 0.0020251 -0.00080117 0.002067 0.00024747 0.00053746 0.0018406 0.001517
0.015887 -0.012341 -0.030479 0.31303
1280000000 0.16922 0.2691 -0.0072136 -0.028927 -0.0017085 0.0019719 -0.00094805 -0.002166
-0.00098285 0.0032529 0.0024808 0.0015396
-0.0072086 -0.028886 -0.0049643 0.37997 -0.023745 -0.007758 -0.00090538 0.0015048
0.0016926 0.0019602 0.00070209 0.0021096
-0.0017237 0.0019678 -0.023805 -0.007658 0.31499 0.16199 0.0015445 -7.9653e-05
0.0011614 0.00035663 0.00027087 0.00016894
-0.00094021 -0.002211 -0.00090545 0.0014767 0.0015451 -7.819e-05 0.10968 0.25613
0.002878 -0.020786 -0.00069902 0.000323
-0.0010076 0.0032222 0.0017195 0.0019903 0.0011501 0.00033538 0.0028354 -0.020809
-0.016658 0.22019 0.0041463 -0.015484
0.0024739 0.0014583 0.00063872 0.0020806 0.00025563 0.00018706 -0.00069229 0.00033012
0.0041448 -0.015466 0.01878 0.31893
1340000000 0.20734 0.23572 -0.016934 -0.019529 0.00060249 0.0042002 -0.0018915 -0.00092837
0.0014962 0.0030119 0.0019133 -0.001477
-0.016886 -0.019524 0.03516 0.37242 -0.020668 0.0049045 -0.00021463 0.0020377
0.002041 0.0010769 0.0012162 0.00083988
0.00063183 0.00419 -0.02067 0.0049996 0.33807 0.11314 0.00089479 -0.00093775
0.00078153 -0.00057804 0.00014754 0.00030563
-0.0019136 -0.00089763 -0.00018116 0.0020145 0.00090865 -0.00093117 0.14277 0.23507
-0.0075911 -0.018557 0.00091771 0.00068342
0.0015046 0.0030156 0.0020179 0.0010345 0.00080377 -0.0005871 -0.007635 -0.018549
0.012395 0.2195 -0.0025183 -0.014588
0.0019219 -0.0014419 0.0012334 0.00085214 0.00016367 0.00031227 0.00091812 0.0007021
-0.0025062 -0.014589 0.057245 0.31523
1400000000 0.24132 0.19966 -0.023398 -0.0082809 0.0049082 0.0028806 -0.0023125 0.00080535
0.0026112 0.0011374 0.00044807 -0.0013901
-0.023356 -0.0083043 0.072938 0.36097 -0.013828 0.012643 0.0013979 0.0013858
0.0013065 -0.00054885 0.001168 0.00016028
0.0049043 0.0028758 -0.013763 0.012712 0.35107 0.059511 1.8072e-05 -0.0014806
0.00021317 -0.00021296 0.00033623 0.00024493
-0.0022998 0.00080942 0.0013913 0.0013951 2.0193e-05 -0.0014897 0.17145 0.20663
-0.014741 -0.01184 -0.0010376 -2.9186e-05
0.0026004 0.0011093 0.0012729 -0.00057099 0.00020755 -0.00020859 -0.014775 -0.011821
0.045611 0.22161 -0.0097306 -0.0095202
0.00042906 -0.0014012 0.0011648 0.00015351 0.00036049 0.00022227 -0.0010244 -3.5451e-05
-0.0097096 -0.0095344 0.10253 0.30772
1460000000 0.26628 0.15657 -0.020456 0.0042685 0.0052087 -0.0018297 -0.001612 0.0018642
0.0022968 -0.00011962 -0.00016062 -0.0010335
-0.020412 0.0042326 0.10901 0.33949 -0.0048868 0.015 0.001706 0.00026759
0.0012116 -0.0014641 0.0013403 -0.00053441
0.0051891 -0.0018167 -0.004799 0.015042 0.35795 0.0043704 -0.0011825 -0.0012064
0.00031848 -0.00027901 0.00066608 -0.00025527
-0.0015999 0.0018715 0.0017027 0.00023257 -0.0011787 -0.0011918 0.19857 0.17801
-0.016629 -0.0048478 -0.00090207 0.0024179
0.0022437 -0.00016817 0.0012094 -0.00148 0.00031777 -0.00027839 -0.016647 -0.0048107
0.076654 0.21234 -0.012054 -0.0032934
-0.00013629 -0.00104 0.0012903 -0.0005661 0.00070646 -0.00026566 -0.00091266 0.0024352
-0.012045 -0.0033139 0.13712 0.28819
1520000000 0.27916 0.11457 -0.01511 0.0097922 0.0031159 -0.0040655 0.00025618 0.0027951
0.0027691 -0.0017203 -0.0011557 -0.0003005
-0.015088 0.0097732 0.14309 0.32493 0.0025109 0.01205 0.0017375 -0.00078295
0.00022733 -0.0011086 0.00035897 -0.00099023
0.003084 -0.00409 0.0025525 0.01206 0.34981 -0.053833 -0.00088414 -0.0003098
0.00078058 -0.0011051 0.00019104 -8.838e-05
0.00027115 0.0028097 0.001748 -0.00077986 -0.00089074 -0.00030397 0.22138 0.13949
-0.016849 0.0017257 0.0015932 0.0023459
0.0027669 -0.0017199 0.00022497 -0.0010939 0.00076194 -0.0011119 -0.016868 0.0017649
0.10449 0.20399 -0.011993 0.0012405
-0.0011594 -0.00027265 0.00039645 -0.00098342 0.00020516 -6.251e-05 0.0016069 0.0023426
-0.01198 0.0012434 0.17065 0.27
1580000000 0.28981 0.06957 -0.0085942 0.013335 -0.0012413 -0.0045885 0.0017275 0.0019154
3.597e-05 -0.0023628 -0.00030712 0.0003819
-0.0086073 0.013321 0.17113 0.30107 0.005544 0.006846 0.00063131 -0.0016133
-0.00046482 -0.0012077 -0.00020155 -0.0007439
-0.001271 -0.0046247 0.0055894 0.0068182 0.32831 -0.11016 -0.0014486 0.00038363
-0.00038746 -0.0014091 0.00029704 -0.00063038
0.0016905 0.0019015 0.00058831 -0.0016267 -0.0014496 0.00037754 0.23539 0.10121
-0.013297 0.0076964 0.0025683 0.001015
1.371e-05 -0.002378 -0.00048171 -0.0012 -0.00040717 -0.0014315 -0.013278 0.0077372
0.13161 0.19165 -0.0094757 0.0078658
-0.00036663 0.00038515 -0.0002135 -0.00073965 0.00029416 -0.0006227 0.0025644 0.0010155
-0.0094705 0.0078593 0.20515 0.24603
1640000000 0.29322 0.027612 -0.0017416 0.012277 -0.0028498 -0.0022777 0.0028664 0.00082858
-0.00044768 -0.0021093 -0.00038048 0.00047652
-0.0017511 0.012274 0.20215 0.2757 0.0054674 0.0019894 -0.00060133 -0.0018806
-0.0010219 -0.00057352 -0.00040177 -0.00075149
-0.0028611 -0.0022185 0.0054746 0.0019631 0.29907 -0.16013 -0.00071948 0.0012939
-0.0012272 -0.0011766 -0.00016524 -0.00052746
0.0028902 0.0007959 -0.0006146 -0.0018923 -0.00072009 0.0013024 0.24853 0.051782
-0.0089795 0.0095165 0.0028312 -0.00072599
-0.00047025 -0.0020765 -0.0010291 -0.00055952 -0.001238 -0.0011662 -0.0089705 0.0095563
0.15667 0.17234 -0.0043363 0.01005
-0.00038328 0.00043587 -0.00041224 -0.0007618 -0.0001908 -0.00054088 0.0028391 -0.00075915
-0.0043412 0.010056 0.23245 0.21544
1700000000 0.28598 -0.01716 0.0017804 0.0096458 -0.0034919 0.0003751 0.0030424 -0.0014287
-0.0023388 -0.00097183 0.00057911 0.0004127
0.0017864 0.0096358 0.21989 0.24451 0.0027861 -0.00066074 -0.0015342 -0.00069778
-0.00087672 -0.00013614 -0.00087508 -0.00051941
-0.0034639 0.00041015 0.0027767 -0.00067546 0.25391 -0.19809 0.00014206 0.001608
-0.0023959 -5.3404e-05 -0.00045484 -0.00095697
0.0030461 -0.0014422 -0.0015428 -0.00067951 0.0001414 0.0016018 0.24483 0.0025564
-0.005724 0.011015 0.0018904 -0.0021956
-0.0023364 -0.00095893 -0.00088242 -0.00012054 -0.0023868 -6.3754e-05 -0.0057038 0.011038
0.17715 0.15738 0.00054487 0.010004
0.00056046 0.00042473 -0.00087977 -0.0004999 -0.00047036 -0.00098227 0.0018897 -0.0021954
0.00054854 0.01001 0.25034 0.18276
1760000000 0.27569 -0.065684 0.0042471 0.0063528 -0.0019749 0.0011955 0.0011767 -0.003541
-0.0014662 0.00044016 0.00025137 -0.00055749
0.0042196 0.006348 0.24759 0.20503 0.00011144 -0.0019467 -0.001255 0.00011224
-0.0011387 0.0010022 -0.00056911 0.00036129
-0.0019979 0.0012015 0.00010003 -0.0019427 0.20565 -0.22999 0.0011442 0.0013059
-0.0011764 0.001664 -0.0012382 -0.00051994
0.0011621 -0.0035808 -0.001261 0.00012923 0.001143 0.0013029 0.23758 -0.048472
-0.0013357 0.010709 3.6659e-05 -0.002759
-0.0014586 0.00047041 -0.0011625 0.0010152 -0.0011675 0.0016484 -0.00131 0.010721
0.19624 0.12768 0.0048716 0.0073017
0.00020597 -0.00055412 -0.00055043 0.00035054 -0.0012566 -0.00054333 4.1346e-05 -0.0027556
0.0048702 0.0073035 0.26514 0.14596
1820000000 0.25141 -0.1039 0.0044907 0.0027818 0.00030083 0.0024315 -0.0010142 -0.0031291
-0.0014303 0.0009206 -0.00019557 -0.00019707
0.0044831 0.0027843 0.25761 0.17419 -0.0022139 3.7102e-05 -0.0013724 0.0010169
6.8965e-05 0.0012023 -0.00073381 0.00040634
0.00031787 0.0024473 -0.0022151 4.152e-05 0.15389 -0.24451 0.0017586 0.00057159
-9.4314e-05 0.0023684 -0.0016702 0.0003904
-0.001029 -0.0031033 -0.001379 0.0010415 0.0017551 0.00056795 0.2075 -0.096722
0.0011589 0.0091722 -0.001683 -0.0020127
-0.0014611 0.00094945 7.007e-05 0.0012064 -9.9383e-05 0.0023714 0.0011922 0.0091749
0.21799 0.10182 0.0060115 0.0032289
-0.0001856 -0.00020445 -0.00070771 0.00039388 -0.0017075 0.00037281 -0.0016792 -0.0020292
0.0060202 0.0032319 0.26936 0.11007
1880000000 0.21638 -0.14376 0.0021946 0.00044631 -0.0003191 0.0022274 -0.002978 -0.0022311
-0.00027051 0.0019999 0.00024879 -0.00063419
0.0022097 0.0004751 0.26214 0.12844 -0.0040449 0.0028798 -0.00022736 0.0018332
0.0005226 0.0013587 0.00014096 0.0009991
-0.00025194 0.0022189 -0.0040218 0.0028908 0.10272 -0.25097 0.0020356 -0.001149
0.0017804 0.0019542 -0.00080651 0.0016092
-0.0029568 -0.0022382 -0.00020544 0.0018124 0.00204 -0.0011588 0.16744 -0.13668
0.003075 0.006634 -0.0025155 5.3328e-05
-0.00020618 0.0020185 0.00052207 0.0013551 0.0017649 0.0019529 0.0030975 0.0066321
0.22702 0.075068 0.0063982 0.0010911
0.00026635 -0.00063579 0.00014478 0.0010296 -0.00081609 0.0015772 -0.0025214 5.7768e-05
0.006389 0.0010887 0.27119 0.077472
1940000000 0.17789 -0.1705 -6.494e-05 -0.0010689 0.0017086 0.0018727 -0.0038061 0.00034298
0.0012036 0.00098195 -0.00073803 -0.00054321
-5.711e-05 -0.0010625 0.26405 0.096209 -0.0019299 0.0058874 0.0010441 0.0012778
0.0019052 0.00032246 0.00096834 0.00031088
0.0018049 0.001897 -0.0018915 0.00594 0.060013 -0.24295 0.00023704 -0.002338
0.0022354 0.00023427 0.00036786 0.0017257
-0.0037999 0.000372 0.0010709 0.0012926 0.00024452 -0.0023703 0.1157 -0.16909
0.0029141 0.0041065 -0.0016816 0.0013849
0.0012151 0.00098466 0.0018988 0.0003143 0.0022393 0.00023595 0.0029328 0.0041005
0.23702 0.038293 0.0048798 -0.0035531
-0.00072998 -0.00052724 0.00092529 0.00027652 0.00035022 0.0017377 -0.0016735 0.00139
0.0048884 -0.003552 0.26296 0.040397
2000000000 0.13103 -0.18499 -0.0036152 0.0010176 0.0030075 0.0013533 -0.002355 0.003731
0.0010003 0.00060909 -0.00066828 0.00065978
-0.0036013 0.00097977 0.24948 0.060863 -0.00058877 0.0079973 0.0015596 0.00030303
0.0010045 -0.00126 0.00042312 0.00016502
0.0029982 0.0012673 -0.0005452 0.0079905 0.017638 -0.22851 -0.0015257 -0.0014738
0.00197 -0.0010101 0.0015798 0.0015088
-0.0023784 0.0037321 0.0015942 0.00026834 -0.0015656 -0.0014747 0.060994 -0.17934
0.0012005 0.0028048 -0.00020764 0.002151
0.0010058 0.00060273 0.0010008 -0.001269 0.0019433 -0.0010317 0.001209 0.0028145
0.23722 0.0059041 0.00074384 -0.0044247
-0.00066794 0.00071224 0.00041437 0.00015196 0.0016012 0.0014955 -0.00020243 0.0021626
