!Keysight Technologies,M9804A,MY58100912,A.14.10.03
!Date: Thursday, April 27, 2023 10:28:33
!Correction: S11(C  6-Port  ) 
!S12(C  6-Port  ) 
!S13(C  6-Port  ) 
!S14(C  6-Port  ) 
!S15(C  6-Port  ) 
!S16(C  6-Port  ) 
!S21(C  6-Port  ) 
!S22(C  6-Port  ) 
!S23(C  6-Port  ) 
!S24(C  6-Port  ) 
!S25(C  6-Port  ) 
!S26(C  6-Port  ) 
!S31(C  6-Port  ) 
!S32(C  6-Port  ) 
!S33(C  6-Port  ) 
!S34(C  6-Port  ) 
!S35(C  6-Port  ) 
!S36(C  6-Port  ) 
!S41(C  6-Port  ) 
!S42(C  6-Port  ) 
!S43(C  6-Port  ) 
!S44(C  6-Port  ) 
!S45(C  6-Port  ) 
!S46(C  6-Port  ) 
!S51(C  6-Port  ) 
!S52(C  6-Port  ) 
!S53(C  6-Port  ) 
!S54(C  6-Port  ) 
!S55(C  6-Port  ) 
!S56(C  6-Port  ) 
!S61(C  6-Port  ) 
!S62(C  6-Port  ) 
!S63(C  6-Port  ) 
!S64(C  6-Port  ) 
!S65(C  6-Port  ) 
!S66(C  6-Port  ) 
!S6P File: Measurement: :
# Hz S  RI   R 50
500000000 -0.32554 -0.063946 -0.010864 -0.0012305 -0.0087352 0.012733 -0.0047216 0.012078
0.013427 0.006387 -0.0057116 0.0083293
-0.010799 -0.0010658 -0.40826 -0.075236 0.0073726 -0.010322 0.00091827 0.012203
0.0092357 0.0029539 0.001585 0.014241
-0.0086262 0.012656 0.0074734 -0.010377 -0.25594 0.19413 0.0070782 0.0030846
-0.0024355 0.0081021 0.0018512 0.010845
-0.0045214 0.012294 0.0011447 0.012352 0.0070193 0.0030682 -0.32785 0.041324
-0.022207 -0.005011 0.01642 0.028245
0.0138 0.0064216 0.0091612 0.0028083 -0.0025335 0.0082144 -0.022299 -0.0047908
-0.19557 -0.27182 -0.031663 0.0049797
-0.0058726 0.0086875 0.0016375 0.014399 0.0017647 0.01095 0.015763 0.0281
-0.031697 0.0050839 -0.25139 -0.154
560000000 -0.3149 0.10406 -0.022016 -0.06637 0.00033223 0.014016 0.0051068 0.011724
0.010904 0.0042578 0.011958 0.010055
-0.021926 -0.066109 -0.36892 0.089461 -0.041551 -0.038002 0.014776 0.003747
-0.015791 -0.0061736 0.0040055 0.00015029
0.00057093 0.014063 -0.041778 -0.038122 -0.1794 0.24244 -1.4111e-05 -0.0042816
0.018271 0.0066273 0.0074646 -0.0062045
0.0050924 0.011396 0.014464 0.0038413 -6.4776e-05 -0.0041793 -0.30468 0.13234
0.0075037 -0.021574 0.0042989 -0.021205
0.010573 0.0039926 -0.015958 -0.0061866 0.018547 0.0067341 0.0078063 -0.021917
-0.29793 -0.086218 0.013314 -0.052398
0.011651 0.009994 0.0043509 0.00032899 0.0073152 -0.0059417 0.0045448 -0.021167
0.013361 -0.05236 -0.32737 -0.0050548
620000000 -0.27455 0.07969 -0.024052 0.0095774 0.0030243 0.0091141 0.0074626 -0.0045823
0.012578 0.00044831 0.00040536 -0.0031287
-0.023994 0.0096038 -0.39914 0.034107 -0.018976 0.00095797 -0.0018318 -0.0018709
0.01366 -0.0048385 0.0011973 -0.0034027
0.0031044 0.0092047 -0.018972 0.00099895 -0.15257 0.25137 -0.001241 -0.0045732
-0.0034533 -0.0029293 0.0086668 -0.0026703
0.0079207 -0.0045813 -0.0017211 -0.0019179 -0.0010763 -0.004558 -0.262 0.1418
-0.041687 -0.020847 0.012961 0.03071
0.012774 0.00067117 0.013623 -0.0049329 -0.0033566 -0.0029196 -0.041132 -0.020887
-0.20475 -0.12919 -0.047562 0.011405
8.8564e-05 -0.0027602 0.0011284 -0.0034021 0.0085319 -0.0025391 0.013092 0.030822
-0.047496 0.011274 -0.2402 -0.043785
680000000 -0.24072 0.17362 -0.026002 -0.014367 0.0050633 0.00506 0.0016783 -0.0074499
-0.0011009 -0.01135 0.0065182 -0.0060073
-0.025982 -0.014447 -0.38992 0.13772 -0.031858 -0.0014419 -0.0018291 -0.00084528
-0.00070051 -0.0094013 -0.00098014 -0.0017764
0.0049687 0.0050499 -0.031933 -0.0013351 -0.10554 0.27507 -0.00074677 -0.00045404
-0.0010398 0.00073232 -0.0027794 -0.0092544
0.001428 -0.0071963 -0.0019151 -0.00066322 -0.000718 -0.00040618 -0.21862 0.19534
-0.023579 -0.0064462 -0.0092351 -0.012432
-0.0011278 -0.011434 -0.00067926 -0.0094657 -0.0011214 0.00061796 -0.023342 -0.0064848
-0.29025 -0.021238 -0.004421 -0.0072009
0.0066164 -0.006274 -0.00091607 -0.0017498 -0.0027595 -0.0093129 -0.0090873 -0.012471
-0.004354 -0.0071889 -0.26158 0.063457
740000000 -0.19347 0.16704 -0.041035 0.026875 0.013391 -0.0039867 0.00077146 -0.0037822
-0.0038667 -0.0019649 -0.0063757 0.003061
-0.040945 0.026761 -0.33519 0.15692 -0.036555 0.033939 0.00030243 -0.0063809
-0.013672 0.006763 -0.001459 -0.00678
0.013464 -0.004091 -0.036538 0.034131 -0.071657 0.27477 -0.0017112 0.0029904
-0.0011598 -0.0060558 -0.0012559 0.0008052
0.00071472 -0.0041586 0.00019449 -0.0063202 -0.00174 0.0030358 -0.20158 0.20213
-0.043777 -0.011056 0.022911 0.017613
-0.0040944 -0.001723 -0.013277 0.0067768 -0.00087058 -0.0060917 -0.043999 -0.011046
-0.18094 0.022378 -0.046108 -0.0024543
-0.0063395 0.0031153 -0.0016739 -0.0066663 -0.0011051 0.00076602 0.022907 0.017787
-0.045908 -0.0025277 -0.25374 0.067717
800000000 -0.1665 0.21324 -0.021968 0.016021 0.0053831 -0.010273 -0.0043773 -0.0025276
-0.0044296 0.00077484 0.0043525 0.0006568
-0.021929 0.015994 -0.34437 0.22816 -0.0081881 0.034018 -0.0022829 0.0021409
-2.0809e-05 0.0015859 0.00055674 0.0053955
0.0054952 -0.010314 -0.0080811 0.034071 -0.034069 0.30061 0.0008305 0.001477
-0.0002795 0.0029144 -0.0017627 0.00080098
-0.0041143 -0.0023875 -0.0022491 0.00206 0.0008281 0.001488 -0.17349 0.23022
-0.02937 0.01299 0.01541 -0.0099004
-0.0044047 0.00084672 -2.8394e-05 0.0015716 -0.00020073 0.0030344 -0.029136 0.012896
-0.24559 0.041702 -0.019501 0.021744
0.0043595 0.00067267 0.00053418 0.0053913 -0.0018243 0.00080498 0.015323 -0.010082
-0.019491 0.021661 -0.25255 0.12089
860000000 -0.13059 0.2347 -0.017613 0.030402 -0.0031106 -0.0098826 -0.0018542 0.00031231
0.0042947 0.0049073 -0.004486 -0.0032382
-0.017651 0.030406 -0.2965 0.27305 0.0078432 0.033867 0.00037165 0.0020279
0.004275 0.00035116 0.0033079 0.00019151
-0.0031253 -0.0098001 0.0079754 0.033875 0.014994 0.31056 -0.0004636 -0.00026178
0.0026301 -0.0016458 0.0013042 0.0042417
-0.0021001 0.00025381 0.00042117 0.002058 -0.0004315 -0.00027338 -0.13558 0.24088
-0.018712 0.017773 -0.0066059 -0.0096824
0.0042905 0.0050288 0.0041223 0.00011326 0.0025252 -0.0016284 -0.018986 0.01789
-0.18938 0.11144 -0.027826 0.015462
-0.0043322 -0.003171 0.0032773 0.00015902 0.0013947 0.00417 -0.0065827 -0.0093632
-0.027804 0.015429 -0.20139 0.17104
920000000 -0.1087 0.2574 0.0047155 0.039067 -0.0091224 -0.0045106 -0.0020631 0.001554
-7.4668e-05 0.0015787 0.0032518 -0.0013598
0.0046695 0.039083 -0.2707 0.29383 0.028081 0.022449 0.0012842 0.0010648
0.0076573 1.4324e-05 0.0039715 -0.0028487
-0.0091476 -0.0044631 0.028168 0.022387 0.060766 0.31199 0.0018325 4.4301e-05
0.00060718 -0.0001402 0.00077029 -0.0016776
-0.0020338 0.0014277 0.0012751 0.0010939 0.0018011 3.0026e-05 -0.11217 0.2576
-0.013221 0.031597 0.0047262 -0.0069931
-4.4114e-05 0.001643 0.0077119 -0.00014612 0.0006268 -0.00018133 -0.013334 0.03132
-0.18627 0.11231 -0.0029413 0.029838
0.0033353 -0.0013893 0.0040326 -0.0029588 0.00072141 -0.0017384 0.00452 -0.0070229
-0.0030483 0.029862 -0.21403 0.18225
980000000 -0.062603 0.2802 0.016841 0.030226 -0.0091619 0.0045997 0.001555 0.0036339
0.0037046 -0.00083052 -0.0035379 -0.0026953
0.016743 0.030241 -0.21897 0.33284 0.032876 0.0048603 0.0020369 -0.00010599
0.0018437 -0.0060135 -0.00021562 -0.0028427
-0.0091503 0.0045887 0.032914 0.0047621 0.10742 0.30758 0.00050176 -0.0011399
0.00042676 -0.0016844 0.0013787 -0.00029703
0.001526 0.0037322 0.0020359 -0.00011779 0.00054066 -0.0011562 -0.073316 0.26948
0.0070529 0.031816 -0.0094826 -0.0082806
0.0035989 -0.00095728 0.0018476 -0.0059994 0.00039984 -0.0017058 0.00712 0.031906
-0.15791 0.15552 0.0046801 0.021453
-0.0034555 -0.0027819 -0.00024908 -0.0028033 0.0013678 -0.0003096 -0.0096366 -0.0082806
0.0047336 0.021435 -0.17243 0.23414
1040000000 -0.020757 0.28835 0.033188 0.019456 -0.0011078 0.0072798 0.0024014 0.00085735
0.00022597 -0.0030569 -0.00022943 -0.0015501
0.033111 0.019412 -0.18351 0.34655 0.029279 -0.01457 0.0016334 -0.0018271
-0.0025584 -0.0022233 -0.0011757 -0.0030824
-0.0010493 0.0073049 0.029255 -0.014677 0.15461 0.29376 -0.00050018 -0.0014331
-0.0016732 -0.0010225 -0.00069968 -0.0011211
0.0022483 0.00073065 0.0016256 -0.001789 -0.00053603 -0.0014243 -0.045686 0.27818
0.019106 0.020945 -0.0019305 0.00075568
0.00024087 -0.0030922 -0.0025337 -0.0022559 -0.0016852 -0.00093991 0.01904 0.020941
-0.12555 0.1641 0.013388 0.021483
-0.00029557 -0.0014518 -0.0011856 -0.0031132 -0.00074689 -0.0011611 -0.0019532 0.000647
0.01334 0.021557 -0.15167 0.25495
1100000000 0.022714 0.29996 0.036598 -0.0033313 0.0032939 0.0040493 0.0023008 -0.00080507
-0.0021634 -0.0031398 -0.0042154 -7.2449e-05
0.036587 -0.0032897 -0.14113 0.36708 0.014936 -0.027574 -0.00011584 -0.0018303
-0.0034634 -0.0011967 -0.0039385 -0.00065731
0.0032958 0.0040657 0.014859 -0.027634 0.20045 0.27436 -0.0018241 0.00022271
-0.0017346 0.00079131 -0.0010974 -0.00033589
0.0023985 -0.00086289 -0.00015375 -0.0018683 -0.0018133 0.00020793 -0.0062134 0.28363
0.026051 0.0076992 -0.0025711 -0.00066569
-0.0021226 -0.003162 -0.0034763 -0.0012275 -0.001757 0.00076363 0.026089 0.0076617
-0.10932 0.18405 0.019898 0.011178
-0.0042961 -8.0003e-05 -0.0040104 -0.00057481 -0.0010881 -0.0003278 -0.0026288 -0.00059771
0.019911 0.011201 -0.10807 0.2894
1160000000 0.07494 0.29684 0.024667 -0.020214 0.003149 -0.00060452 5.0182e-05 -0.0024106
-0.003966 -0.0010377 -0.0011922 0.004463
0.024615 -0.02018 -0.095807 0.37255 -0.0039353 -0.028418 -0.0016428 -0.0015377
-0.0028739 0.0027003 -0.0016086 0.002073
0.003171 -0.00062999 -0.0040723 -0.028418 0.2449 0.24392 -0.00069011 0.001704
-0.00051775 0.0018977 -0.00080362 0.00042733
-2.7587e-05 -0.0023402 -0.0015149 -0.0015541 -0.00070823 0.0017182 0.034278 0.28059
0.023835 -0.0097089 -0.0042102 0.0049743
-0.0040396 -0.00098173 -0.002854 0.0027 -0.00053266 0.0019221 0.023776 -0.0097302
-0.073502 0.19744 0.019914 0.0020322
-0.0011252 0.0044385 -0.0017348 0.0019871 -0.00085891 0.0004352 -0.0040334 0.0048687
0.019883 0.0020025 -0.059125 0.29358
1220000000 0.11825 0.28737 0.011654 -0.030063 -0.001221 -0.0011481 0.00025723 -0.00094005
-0.002781 0.0022619 0.0011301 0.0020024
0.011648 -0.030025 -0.052316 0.38673 -0.016856 -0.020691 -0.0025176 0.00047678
-0.00011607 0.0032028 -0.00085217 0.0020544
-0.0012139 -0.0011489 -0.016963 -0.020645 0.28386 0.20468 0.00090733 0.0015945
0.00056559 0.001301 0.00025091 0.00055095
0.000284 -0.0010145 -0.0025101 0.00050797 0.00089592 0.0015846 0.072907 0.27169
0.012858 -0.01742 0.0018523 0.0014638
-0.0027624 0.0022237 -0.00010615 0.0031901 0.00058336 0.0013049 0.012828 -0.017449
-0.053404 0.21025 0.015966 -0.012366
0.0011404 0.0020031 -0.00082702 0.0020024 0.00023962 0.00052512 0.0018454 0.0015515
0.016002 -0.012404 -0.030703 0.313
1280000000 0.16907 0.26914 -0.0071799 -0.028954 -0.0017293 0.002002 -0.00091993 -0.0022774
-0.00095995 0.0031989 0.0025368 0.001499
-0.0071495 -0.028906 -0.0050359 0.3799 -0.023739 -0.0077555 -0.00096976 0.0014865
0.0016908 0.0019891 0.00069297 0.0020884
-0.0017357 0.0019846 -0.023792 -0.0076555 0.31495 0.16202 0.0015382 -8.1707e-05
0.001169 0.00034079 0.00025839 0.00019481
-0.00097306 -0.0021593 -0.00089411 0.0014851 0.0015319 -4.6715e-05 0.10978 0.25605
0.0029548 -0.020915 -0.00070915 0.00035102
-0.0009156 0.0032634 0.0017211 0.0020508 0.0011836 0.00031551 0.0028877 -0.020995
-0.017063 0.22011 0.0041287 -0.015523
0.0025239 0.0014888 0.00065744 0.002082 0.00030628 0.00020185 -0.00073871 0.00027073
0.0041118 -0.015476 0.018642 0.31892
1340000000 0.20721 0.23575 -0.016941 -0.019529 0.000627 0.0041851 -0.0018169 -0.00092173
0.0014678 0.0030321 0.0019114 -0.0014919
-0.016906 -0.019528 0.035137 0.37238 -0.020671 0.0049259 -0.00019476 0.0019771
0.0020434 0.0010878 0.0012251 0.00086825
0.00064046 0.004198 -0.020689 0.0050055 0.338 0.1132 0.00093915 -0.00094416
0.00080005 -0.00059731 0.00014964 0.00033052
-0.0019135 -0.00098015 -0.00016912 0.0020394 0.00095044 -0.00095759 0.14276 0.23498
-0.0076003 -0.018685 0.00089106 0.00070101
0.00148 0.0030675 0.0019799 0.0010448 0.00075607 -0.00057234 -0.0076187 -0.018653
0.011986 0.2194 -0.0025361 -0.014672
0.0018934 -0.0014735 0.001248 0.00083163 0.00017405 0.0003041 0.00085718 0.00072243
-0.0025048 -0.014717 0.057149 0.31521
1400000000 0.24125 0.19966 -0.023416 -0.0083128 0.0049297 0.0028994 -0.0023563 0.00086959
0.002574 0.0011072 0.00046668 -0.0014028
-0.023349 -0.0083126 0.072844 0.36095 -0.013813 0.01265 0.0014177 0.0014133
0.0012998 -0.00055457 0.0011466 0.00014444
0.0049043 0.0028743 -0.013764 0.012709 0.35112 0.059518 4.6097e-06 -0.0014681
0.00021843 -0.00021677 0.00036546 0.00023906
-0.0023113 0.00087123 0.0013927 0.0013842 4.7125e-05 -0.0014536 0.17141 0.20652
-0.014834 -0.011941 -0.0010241 -1.8248e-05
0.0025807 0.0011048 0.0013064 -0.00057926 0.00024588 -0.00025332 -0.014905 -0.011922
0.045219 0.22152 -0.0097377 -0.0095963
0.00052496 -0.0013688 0.001176 0.0001498 0.0004346 0.00023795 -0.0010915 2.7878e-05
-0.0097006 -0.0095921 0.10247 0.30769
1460000000 0.26622 0.15661 -0.020461 0.0042569 0.0051821 -0.0017991 -0.001575 0.0018198
0.0022852 -0.00010619 -0.00013984 -0.0010091
-0.020465 0.0042661 0.10894 0.33952 -0.0048838 0.015014 0.0016697 0.00023845
0.0012176 -0.0014884 0.0013514 -0.00056944
0.0052014 -0.0018237 -0.004801 0.015058 0.35794 0.0043265 -0.0011756 -0.0012077
0.00030689 -0.00028438 0.00067357 -0.00027175
-0.00166 0.0018679 0.0017337 0.00021086 -0.0012023 -0.0012202 0.19851 0.17781
-0.016783 -0.0049244 -0.00090952 0.0024604
0.0023164 -0.00016132 0.0011917 -0.0014809 0.00035134 -0.00022829 -0.01677 -0.0048491
0.076161 0.21241 -0.012104 -0.0032553
-0.0001118 -0.00099128 0.0012942 -0.00058706 0.00070801 -0.00021593 -0.00093393 0.0024554
-0.012115 -0.003271 0.13704 0.28823
1520000000 0.27912 0.11461 -0.015124 0.0098143 0.003114 -0.0040838 0.00022073 0.0028427
0.0027601 -0.0017004 -0.0011617 -0.00032382
-0.015143 0.0097832 0.14304 0.32495 0.0025031 0.012015 0.0017617 -0.00079496
0.00024615 -0.0010954 0.00038623 -0.00097893
0.0031055 -0.0040948 0.0025564 0.012032 0.34978 -0.053752 -0.00090172 -0.00032525
0.00077463 -0.0011002 0.00017869 -7.1563e-05
0.00027651 0.0027639 0.0017374 -0.00077399 -0.00087022 -0.00035478 0.22122 0.13941
-0.017008 0.0017427 0.0016203 0.0023741
0.0027716 -0.001731 0.00021522 -0.0011023 0.00076759 -0.0010684 -0.017044 0.0017559
0.10402 0.204 -0.012058 0.0012367
-0.0012045 -0.00031449 0.00037719 -0.00099295 0.00018108 -6.2489e-05 0.0016538 0.0023832
-0.012068 0.0012296 0.17053 0.27005
1580000000 0.28973 0.069642 -0.0086187 0.013333 -0.0012554 -0.0046004 0.0017038 0.0018583
6.8077e-05 -0.0023592 -0.00030188 0.00037928
-0.008605 0.013313 0.1711 0.30115 0.0055479 0.0068551 0.00059799 -0.0015955
-0.00050017 -0.0011973 -0.00020266 -0.00075094
-0.0012757 -0.004619 0.0055776 0.0068172 0.32838 -0.11011 -0.0014508 0.00038655
-0.00036146 -0.0014079 0.00029915 -0.00062339
0.0017304 0.0019545 0.00059947 -0.0016422 -0.0014402 0.00041397 0.23525 0.10107
-0.013395 0.0077508 0.002596 0.0010456
5.5003e-05 -0.0023504 -0.00048263 -0.0012201 -0.00040598 -0.0014262 -0.01337 0.0078358
0.13119 0.19173 -0.0094941 0.0079349
-0.00030528 0.00038009 -0.00020604 -0.00072911 0.00029503 -0.00061761 0.002523 0.0010283
-0.0095103 0.0079234 0.20495 0.24611
1640000000 0.29319 0.02766 -0.0017303 0.01226 -0.0028436 -0.0022476 0.002911 0.00083898
-0.00044716 -0.0021207 -0.00039112 0.0004497
-0.0017343 0.012264 0.20211 0.27574 0.0054565 0.0019894 -0.00062543 -0.0019165
-0.0010344 -0.00057325 -0.00040163 -0.00074122
-0.0028468 -0.0022537 0.0054703 0.0019478 0.29891 -0.16006 -0.00076764 0.001299
-0.0012331 -0.0011772 -0.00018452 -0.00054166
0.0028936 0.00081746 -0.00059159 -0.0018754 -0.00074234 0.0012929 0.24828 0.051872
-0.0090554 0.0096836 0.0028509 -0.00073441
-0.00046183 -0.0021101 -0.0010166 -0.00055614 -0.0012208 -0.0012046 -0.0090729 0.0097319
0.15618 0.17255 -0.0043563 0.010059
-0.00040292 0.00049236 -0.00043566 -0.00077522 -0.00012668 -0.00050905 0.0029025 -0.0007344
-0.0043479 0.01007 0.23236 0.21551
1700000000 0.28591 -0.017097 0.001791 0.0096663 -0.0034851 0.00037504 0.0030093 -0.0014486
-0.0023489 -0.00096658 0.00056957 0.00040085
0.0017616 0.0096344 0.21985 0.24453 0.0028077 -0.00065833 -0.0015141 -0.00067509
-0.0008745 -0.00010915 -0.00088063 -0.00051246
-0.003485 0.00039898 0.0027902 -0.0006846 0.25396 -0.19808 0.00017823 0.0015743
-0.0023978 -6.9419e-05 -0.00044677 -0.00094775
0.0030259 -0.0014133 -0.0015493 -0.0006649 0.00016394 0.0015705 0.24463 0.0025347
-0.0057552 0.011135 0.0019912 -0.0021815
-0.0023612 -0.00096518 -0.00088799 -9.4097e-05 -0.0023576 -6.7236e-05 -0.0056719 0.011177
0.17675 0.15764 0.0005538 0.010062
0.00059201 0.00039095 -0.00087377 -0.00054055 -0.00048183 -0.00097331 0.0018572 -0.0021876
0.00053733 0.01005 0.25021 0.18274
1760000000 0.27568 -0.065622 0.0042581 0.0063759 -0.0020132 0.0012852 0.0011978 -0.003534
-0.0014622 0.00045918 0.00024472 -0.00053967
0.0042532 0.0063608 0.24757 0.20504 8.4086e-05 -0.0019321 -0.0012959 0.00012361
-0.0011499 0.0010205 -0.00056848 0.00034497
-0.0020078 0.0012626 6.5286e-05 -0.0019439 0.20565 -0.22992 0.0011604 0.0013378
-0.0011644 0.0016639 -0.0012498 -0.00053977
0.0011292 -0.0035435 -0.0012858 0.00012211 0.001158 0.0012769 0.23741 -0.048201
-0.001268 0.010871 4.5805e-05 -0.0027335
-0.0014574 0.00046977 -0.0011467 0.0010268 -0.0011303 0.0016168 -0.0012531 0.010859
0.19586 0.12801 0.0048672 0.0073345
0.00024475 -0.00054621 -0.00055101 0.00036605 -0.001285 -0.00050748 9.6948e-05 -0.0027906
0.0048876 0.0073115 0.26509 0.14601
1820000000 0.25131 -0.10393 0.0045008 0.0027534 0.00030022 0.0024507 -0.0010713 -0.0030817
-0.0014742 0.00095611 -0.00016299 -0.00021084
0.0044938 0.0027491 0.25762 0.17421 -0.0022395 2.5545e-05 -0.0013607 0.0010435
7.0616e-05 0.0011879 -0.00071336 0.00041617
0.00032872 0.0024478 -0.0022376 5.5118e-05 0.15384 -0.2445 0.0018198 0.00054263
-0.00011826 0.0023683 -0.0016806 0.00036977
-0.001059 -0.0031226 -0.0013544 0.0010364 0.0018149 0.00056395 0.20754 -0.096592
0.0012514 0.0092605 -0.0016873 -0.0020815
-0.0015035 0.00096362 9.0373e-05 0.0011918 -4.2019e-05 0.0024071 0.0013234 0.0093211
0.21767 0.1022 0.0060838 0.0032853
-0.00019732 -0.00020276 -0.00071577 0.0003958 -0.0017274 0.00036395 -0.0016991 -0.0020279
0.0060653 0.0032771 0.26928 0.11015
1880000000 0.21637 -0.1437 0.0021797 0.00045764 -0.00032924 0.0021828 -0.002919 -0.0022641
-0.00023707 0.0019945 0.00029869 -0.00066236
0.0021665 0.00046157 0.26209 0.12845 -0.0040395 0.0028812 -0.00024554 0.0018201
0.0005139 0.0013331 0.00014028 0.0010003
-0.00029097 0.0022135 -0.004025 0.002915 0.10266 -0.25091 0.0019865 -0.0011565
0.0017485 0.0019577 -0.00080784 0.0016033
-0.0030112 -0.0021774 -0.00022484 0.0018436 0.0019869 -0.0011804 0.16753 -0.13635
0.003235 0.0066857 -0.0025396 9.5896e-06
-0.00022398 0.0019938 0.00052826 0.001338 0.0017354 0.0019389 0.0032477 0.0066791
0.22681 0.075483 0.0063962 0.0010933
0.00027505 -0.00063063 0.00015088 0.00096501 -0.00079281 0.0016049 -0.0024962 2.3196e-06
0.0064273 0.0010947 0.27124 0.077591
1940000000 0.17795 -0.17045 -6.3941e-05 -0.0010773 0.0017562 0.0019199 -0.0037952 0.00041402
0.0012319 0.00099304 -0.00074457 -0.00054393
-5.5611e-05 -0.0010649 0.26402 0.096193 -0.0019424 0.0058818 0.0010549 0.0012783
0.0018816 0.00031599 0.00096004 0.00030787
0.0017166 0.0018939 -0.0019077 0.0059005 0.060031 -0.24285 0.00022583 -0.0023355
0.0022177 0.0002557 0.00033569 0.0016689
-0.0037887 0.00038377 0.0010591 0.0012712 0.00021802 -0.0023729 0.1158 -0.16892
0.0030498 0.0040485 -0.0016492 0.0013641
0.0012163 0.00097628 0.0018915 0.00028941 0.0022735 0.00020067 0.0031004 0.0040619
0.23683 0.038712 0.0049724 -0.003559
-0.00068334 -0.00054835 0.00096264 0.00028173 0.00032249 0.0017388 -0.0016797 0.001355
0.0049375 -0.0035597 0.26291 0.040472
2000000000 0.13091 -0.18493 -0.0036084 0.0010067 0.0030473 0.0013847 -0.00242 0.003688
0.00097813 0.00054329 -0.00064436 0.00064603
-0.0036069 0.00099803 0.24943 0.060868 -0.00060244 0.0080379 0.0015498 0.00029191
0.00099674 -0.0012542 0.00041796 0.00015791
0.0030569 0.0013268 -0.0005655 0.0080549 0.017635 -0.22856 -0.0015836 -0.0014941
0.0019508 -0.0010284 0.0015914 0.0015016
-0.0024093 0.0037159 0.0015665 0.00024912 -0.0016119 -0.0015422 0.061067 -0.17928
0.0013069 0.0027025 -0.000282 0.0021085
0.00095869 0.00054672 0.00095368 -0.0012392 0.0019059 -0.00102 0.0013433 0.0027139
0.23716 0.0063298 0.00083097 -0.0044491
