!Keysight Technologies,M9804A,MY58100912,A.14.10.03
!Date: Thursday, April 27, 2023 10:28:33
!Correction: S11(C  6-Port  ) 
!S12(C  6-Port  ) 
!S13(C  6-Port  ) 
!S14(C  6-Port  ) 
!S15(C  6-Port  ) 
!S16(C  6-Port  ) 
!S21(C  6-Port  ) 
!S22(C  6-Port  ) 
!S23(C  6-Port  ) 
!S24(C  6-Port  ) 
!S25(C  6-Port  ) 
!S26(C  6-Port  ) 
!S31(C  6-Port  ) 
!S32(C  6-Port  ) 
!S33(C  6-Port  ) 
!S34(C  6-Port  ) 
!S35(C  6-Port  ) 
!S36(C  6-Port  ) 
!S41(C  6-Port  ) 
!S42(C  6-Port  ) 
!S43(C  6-Port  ) 
!S44(C  6-Port  ) 
!S45(C  6-Port  ) 
!S46(C  6-Port  ) 
!S51(C  6-Port  ) 
!S52(C  6-Port  ) 
!S53(C  6-Port  ) 
!S54(C  6-Port  ) 
!S55(C  6-Port  ) 
!S56(C  6-Port  ) 
!S61(C  6-Port  ) 
!S62(C  6-Port  ) 
!S63(C  6-Port  ) 
!S64(C  6-Port  ) 
!S65(C  6-Port  ) 
!S66(C  6-Port  ) 
!S6P File: Measurement: :
# Hz S  RI   R 50
500000000 -0.3364 -0.039076 -0.0095394 -0.0019557 -0.0078049 0.01274 -0.0041989 0.012753
0.012015 0.0044256 -0.0049817 0.0094233
-0.0094927 -0.0019976 -0.41947 -0.052016 0.0077764 -0.010518 0.0017469 0.012058
0.0077668 0.002495 0.0016233 0.013475
-0.0077687 0.01269 0.0077433 -0.010488 -0.26514 0.20894 0.0077421 0.0033988
-0.0017901 0.0077774 0.0017674 0.01198
-0.00413 0.01277 0.0017414 0.012078 0.0077476 0.0034095 -0.33119 0.041454
-0.019619 -0.0065917 0.016336 0.026177
0.012038 0.0045232 0.0078115 0.0024737 -0.0018054 0.0077869 -0.019621 -0.0065848
-0.22024 -0.20319 -0.026039 0.004454
-0.0049345 0.009548 0.0016129 0.013597 0.0017481 0.011972 0.01637 0.026178
-0.026032 0.0045108 -0.26386 -0.13945
560000000 -0.31571 0.12221 -0.024174 -0.063217 0.00015963 0.011526 0.0058105 0.010833
0.010691 0.0046954 0.011606 0.0082666
-0.024081 -0.0631 -0.37777 0.10624 -0.040723 -0.037178 0.013982 0.00371
-0.012643 -0.0044975 0.0033796 -0.00018404
6.967e-05 0.011472 -0.040766 -0.037118 -0.18303 0.25706 -0.00058858 -0.0038956
0.019649 0.005169 0.0062264 -0.0055884
0.0058228 0.010784 0.013985 0.0036697 -0.000584 -0.0039198 -0.30769 0.13113
0.0043757 -0.023586 0.0044308 -0.022
0.010669 0.0046029 -0.012584 -0.0043976 0.019729 0.0050995 0.0042697 -0.023593
-0.28832 -0.027812 0.0089939 -0.048913
0.011601 0.0082689 0.0032917 -0.00015179 0.0062265 -0.0057027 0.0045369 -0.022051
0.0090322 -0.048872 -0.32928 0.010048
620000000 -0.27529 0.10616 -0.023076 0.0077155 0.002912 0.0084424 0.0082256 -0.0053658
0.011181 -0.0001251 0.0022398 -0.0026915
-0.023072 0.0076997 -0.40254 0.059171 -0.018414 -8.0686e-05 -0.0011613 -0.002042
0.011228 -0.0060931 0.0013365 -0.0030572
0.0029263 0.0085046 -0.018458 -3.4436e-05 -0.15383 0.26569 -0.0013075 -0.0051025
-0.0031034 -0.0025405 0.0082607 -0.0031479
0.0082133 -0.0053394 -0.0011759 -0.0020392 -0.0013101 -0.0051076 -0.26769 0.14299
-0.037582 -0.019784 0.011717 0.02623
0.011123 -0.00017834 0.011234 -0.0060983 -0.0030654 -0.0025504 -0.037513 -0.019809
-0.20752 -0.064119 -0.04154 0.014463
0.0021387 -0.0026527 0.0013531 -0.0030568 0.0082899 -0.0031233 0.011716 0.026125
-0.041454 0.014424 -0.24873 -0.027329
680000000 -0.23497 0.19134 -0.027115 -0.014575 0.0048944 0.0051224 0.0015378 -0.0073704
-0.0030775 -0.011248 0.005169 -0.0067501
-0.027088 -0.014578 -0.38767 0.15703 -0.032676 -0.001482 -0.0015308 -0.00061667
-0.0020851 -0.0087713 -0.0010368 -0.0015741
0.0049012 0.005139 -0.0327 -0.0014089 -0.10263 0.28597 -0.00067271 -0.0001235
-0.0016745 0.00062221 -0.0028283 -0.0090971
0.001517 -0.0073441 -0.0015233 -0.00061052 -0.00067487 -0.00011963 -0.22216 0.19391
-0.023911 -0.0073258 -0.010448 -0.011862
-0.0031446 -0.011272 -0.0021038 -0.0087531 -0.0016859 0.00060723 -0.023996 -0.0072999
-0.25936 0.035386 -0.00511 -0.0082097
0.0051247 -0.0068075 -0.0010314 -0.0015755 -0.0027924 -0.0090422 -0.010493 -0.011843
-0.0051567 -0.008172 -0.26079 0.080424
740000000 -0.19088 0.18645 -0.038897 0.026425 0.012584 -0.0050852 -0.00012664 -0.0043921
-0.0040363 -0.0026138 -0.0062445 0.0025067
-0.038853 0.026402 -0.33476 0.17587 -0.035566 0.034889 -0.00092505 -0.0062654
-0.011661 0.0079353 -0.0021317 -0.0063308
0.012567 -0.0051157 -0.035476 0.035027 -0.068924 0.28421 -0.0020928 0.0030149
-0.0018097 -0.004837 -0.0020153 -0.00027712
-0.00016679 -0.0044023 -0.00093999 -0.0062585 -0.0020931 0.003025 -0.20479 0.20185
-0.043943 -0.0068658 0.023248 0.015492
-0.0040672 -0.0025991 -0.01162 0.0079519 -0.0017979 -0.00482 -0.043968 -0.0067826
-0.1588 0.062604 -0.043696 -0.00041258
-0.0062567 0.0024603 -0.0021277 -0.0063214 -0.0019751 -0.00026816 0.023183 0.015429
-0.043761 -0.0004452 -0.25027 0.086504
800000000 -0.1582 0.22696 -0.022581 0.01657 0.0052017 -0.010559 -0.0047825 -0.0022516
-0.0039266 0.0021953 0.0047625 0.00018378
-0.022609 0.016564 -0.33838 0.2461 -0.0079833 0.033854 -0.0023213 0.0022465
-0.00058289 0.0029075 0.0011562 0.0053769
0.005179 -0.010557 -0.0079012 0.033912 -0.028164 0.30761 0.00093981 0.0014763
0.00029191 0.0035787 -0.0016857 0.0006802
-0.0048082 -0.0022589 -0.0023098 0.0022542 0.00092979 0.0014798 -0.17598 0.22989
-0.028939 0.014318 0.014104 -0.010357
-0.0039482 0.0021764 -0.00056647 0.0029135 0.00032731 0.003594 -0.028952 0.014369
-0.20707 0.086339 -0.017753 0.019372
0.0047795 0.00028229 0.001129 0.0053953 -0.0016684 0.00069841 0.014049 -0.010394
-0.017815 0.019383 -0.246 0.13616
860000000 -0.12362 0.24738 -0.017616 0.030655 -0.0033968 -0.0097392 -0.0023319 0.00094886
0.0039813 0.0049123 -0.0033872 -0.0031123
-0.01761 0.030606 -0.29081 0.28809 0.007657 0.03413 8.1751e-05 0.0019723
0.0040696 0.00025937 0.0032148 0.00073272
-0.0033949 -0.0097434 0.0077672 0.034135 0.019938 0.31558 -0.00057263 -0.0002472
0.0027309 -0.0015943 0.0014215 0.0044041
-0.0023276 0.000947 8.6678e-05 0.0019595 -0.00057471 -0.00024887 -0.1394 0.24097
-0.018001 0.018863 -0.0061165 -0.0091851
0.004025 0.0048654 0.0040901 0.000204 0.0027286 -0.0016204 -0.017975 0.018907
-0.15547 0.13847 -0.026493 0.014916
-0.0034164 -0.0030336 0.0031646 0.00075045 0.001413 0.0044143 -0.0060874 -0.0092071
-0.026494 0.014891 -0.19412 0.18371
920000000 -0.098758 0.27061 0.0048932 0.038023 -0.0093756 -0.0041655 -0.0018014 0.001897
0.00099423 0.0019229 0.0025925 -0.0015083
0.004868 0.038009 -0.26184 0.30965 0.027885 0.022051 0.0014325 0.0010993
0.0071856 -0.00055278 0.003748 -0.0026301
-0.0093964 -0.004132 0.027982 0.022011 0.066213 0.31611 0.0018449 -3.613e-05
0.001224 -0.00031475 0.00092976 -0.0010036
-0.0018063 0.0019099 0.0014362 0.0011064 0.0018463 -3.9397e-05 -0.11553 0.25792
-0.010858 0.031135 0.0038779 -0.0065836
0.0010003 0.0018977 0.0072232 -0.00062088 0.0012503 -0.00032344 -0.010821 0.031181
-0.14555 0.14461 -0.0032303 0.027514
0.0026637 -0.0015301 0.0037602 -0.0025941 0.0009114 -0.00098747 0.003906 -0.0065338
-0.0031848 0.027536 -0.20489 0.19764
980000000 -0.051244 0.29017 0.017467 0.030161 -0.00881 0.004713 0.0021605 0.0034496
0.0039409 -0.0012383 -0.0034677 -0.0021224
0.017418 0.030154 -0.20882 0.34356 0.03288 0.0049782 0.0021069 -4.6115e-05
0.0015355 -0.005819 -0.0004707 -0.0023224
-0.008787 0.0047348 0.032922 0.0048756 0.1124 0.3093 0.00054647 -0.0011356
0.0003739 -0.0020067 0.0014625 -0.00018719
0.0021537 0.0034271 0.0021194 -3.7486e-05 0.00054622 -0.0011397 -0.076839 0.26921
0.0080636 0.030654 -0.0091214 -0.0074409
0.0039494 -0.0012877 0.0015414 -0.0058013 0.00037074 -0.0019988 0.0081332 0.03067
-0.11463 0.17404 0.0046547 0.01975
-0.0034095 -0.0021122 -0.00047052 -0.0023409 0.0014704 -0.00016718 -0.0090957 -0.0073835
0.0046228 0.019759 -0.16271 0.24391
1040000000 -0.008909 0.29846 0.033089 0.018285 -0.0011094 0.0068974 0.0025694 0.00062672
0.00015857 -0.0037213 -0.00031259 -0.0013329
0.033059 0.018307 -0.17324 0.35632 0.029254 -0.014633 0.0014662 -0.0017032
-0.0024147 -0.0024847 -0.0013041 -0.0025138
-0.001074 0.006899 0.029217 -0.014737 0.15815 0.29559 -0.00048927 -0.0015777
-0.0014898 -0.0009413 -0.00037494 -0.0010938
0.0025616 0.00061049 0.0014894 -0.0016959 -0.00048882 -0.0015747 -0.049624 0.27931
0.019729 0.018597 -0.0021405 0.0013392
0.00011929 -0.0037367 -0.0023975 -0.0024829 -0.0014853 -0.0009313 0.019784 0.018556
-0.081804 0.18161 0.013165 0.019182
-0.00030109 -0.0013915 -0.0013192 -0.0025077 -0.00036355 -0.0011095 -0.0021358 0.0013008
0.01324 0.019198 -0.14209 0.26393
1100000000 0.03637 0.30616 0.035689 -0.0040873 0.0029561 0.0037557 0.0022879 -0.0013184
-0.0020188 -0.0030935 -0.003851 3.5768e-05
0.035659 -0.0040454 -0.12971 0.37351 0.015156 -0.02753 -5.8006e-05 -0.0018145
-0.0032663 -0.00086213 -0.0035101 -0.00057654
0.002979 0.0037354 0.015051 -0.027621 0.20427 0.27539 -0.0018825 0.00020064
-0.0018458 0.00041327 -0.0011402 -0.00044887
0.0022892 -0.0013326 -5.0492e-05 -0.0018034 -0.0018803 0.00019451 -0.009031 0.2842
0.025166 0.0054617 -0.0024982 -0.0001447
-0.0020258 -0.0030917 -0.0032609 -0.00083827 -0.0018501 0.00039347 0.025197 0.0054196
-0.063963 0.19536 0.018955 0.0091647
-0.003827 4.0731e-05 -0.0035402 -0.00053246 -0.0011626 -0.0004457 -0.0025099 -0.00011064
0.018943 0.0091822 -0.096375 0.29599
1160000000 0.087849 0.30094 0.023903 -0.020498 0.0027134 -0.00058977 -0.00035654 -0.0023798
-0.0040659 -0.00077149 -0.00088123 0.0039986
0.023903 -0.020451 -0.086207 0.37732 -0.0034425 -0.028854 -0.0017366 -0.0016969
-0.0027439 0.002324 -0.0013605 0.0017855
0.0027333 -0.00061137 -0.0035856 -0.028855 0.24714 0.24489 -0.0007057 0.0017104
-0.00072273 0.0018402 -0.00092454 0.0002331
-0.00035919 -0.002374 -0.0017483 -0.0016738 -0.00070458 0.0017075 0.030259 0.28136
0.021824 -0.010313 -0.0029579 0.0052088
-0.0040922 -0.00076164 -0.002743 0.0023408 -0.0007199 0.0018484 0.021815 -0.010342
-0.03018 0.20443 0.018244 0.0012616
-0.00090284 0.0039837 -0.001376 0.001812 -0.00091437 0.00023719 -0.0029748 0.0052113
0.018234 0.0012737 -0.049443 0.29898
1220000000 0.13213 0.28962 0.010561 -0.029735 -0.0015586 -0.00090909 -3.2818e-05 -0.00083665
-0.0026366 0.0023691 0.0013771 0.0019694
0.010565 -0.029704 -0.042065 0.38928 -0.016502 -0.021045 -0.0024892 0.00037332
-9.8886e-05 0.0029016 -0.00072516 0.0018544
-0.0015579 -0.00090858 -0.016618 -0.020991 0.28642 0.20629 0.00075195 0.0016158
0.00057395 0.0012391 0.00035157 0.00070491
-2.5496e-05 -0.00084156 -0.0024881 0.00038697 0.00074821 0.0016094 0.069954 0.27296
0.011199 -0.017231 0.0021047 0.0013772
-0.0026512 0.0023797 -8.2942e-05 0.0029081 0.00058139 0.0012409 0.011176 -0.017243
-0.0080018 0.21322 0.014678 -0.012293
0.0013598 0.0019817 -0.00073458 0.0018382 0.0003329 0.00071928 0.0021051 0.0013729
0.014664 -0.012298 -0.018833 0.31682
1280000000 0.18171 0.26754 -0.0075893 -0.028231 -0.0018942 0.0023312 -0.00089028 -0.0019214
-0.00083665 0.0029732 0.0023672 0.0011467
-0.0075757 -0.028209 0.0035096 0.3803 -0.023363 -0.0086453 -0.0010136 0.0013886
0.001556 0.0018265 0.00061604 0.0021204
-0.0018834 0.0023383 -0.02342 -0.0085579 0.31726 0.16249 0.0015939 8.0321e-05
0.0011318 0.00033829 0.0005029 0.00032443
-0.00089699 -0.0019111 -0.0010083 0.0013937 0.0016013 8.6363e-05 0.10681 0.25651
0.0018522 -0.019555 -0.00020719 3.8662e-05
-0.0008193 0.0029641 0.0015688 0.0018243 0.0011454 0.00033986 0.0018123 -0.019563
0.028383 0.21672 0.003657 -0.014531
0.0023845 0.0011344 0.00063263 0.0020971 0.00049209 0.00028487 -0.00017956 3.1957e-05
0.0036836 -0.014517 0.029657 0.31994
1340000000 0.21853 0.23359 -0.017184 -0.019013 0.00080718 0.0043884 -0.0016232 -0.00082356
0.0013971 0.0027156 0.0018093 -0.0013688
-0.01715 -0.019007 0.042706 0.37231 -0.02142 0.0038734 -0.00018726 0.002001
0.0018563 0.0009716 0.0013661 0.00085058
0.00081469 0.0043795 -0.021416 0.003986 0.33971 0.11454 0.0011436 -0.00084248
0.00076454 -0.00042653 0.00024027 0.00030354
-0.0016217 -0.0008182 -0.00017674 0.0020047 0.0011463 -0.00084285 0.13906 0.23623
-0.0078653 -0.017207 0.00074274 0.00041483
0.0014116 0.0027076 0.0018651 0.00095733 0.00077945 -0.00042258 -0.007917 -0.017195
0.057493 0.21196 -0.0026841 -0.013309
0.0017656 -0.0013775 0.0013823 0.00081778 0.00023872 0.00031384 0.00074981 0.00043401
-0.0026683 -0.013305 0.067972 0.31666
1400000000 0.25123 0.19537 -0.023033 -0.007755 0.0049376 0.0030635 -0.0020223 0.00055171
0.0023512 0.00090283 0.00037446 -0.0013244
-0.023006 -0.0077684 0.079905 0.3595 -0.014903 0.011984 0.0012957 0.001389
0.0012429 -0.000669 0.0012634 0.00027352
0.0049618 0.003044 -0.014854 0.012078 0.35311 0.060595 0.00025503 -0.0015919
-4.7409e-05 -0.00034266 0.00045152 0.00020292
-0.002034 0.00057065 0.0013033 0.0013852 0.00024857 -0.0015906 0.16841 0.20755
-0.014074 -0.010885 -0.00097534 -0.00055258
0.0023425 0.00088329 0.0012455 -0.00067877 -5.6337e-05 -0.00033254 -0.014107 -0.010853
0.089961 0.20785 -0.0091514 -0.0091794
0.00035688 -0.0013285 0.0012757 0.00025718 0.00043431 0.00020026 -0.00097955 -0.000548
-0.0091464 -0.0091838 0.1135 0.30642
1460000000 0.2738 0.15149 -0.020304 0.0042425 0.0054898 -0.0017331 -0.0016073 0.0016422
0.0020674 -0.00042151 -0.00034057 -0.0010025
-0.020288 0.0042201 0.11413 0.33792 -0.0064476 0.015032 0.0017971 0.00022315
0.0010403 -0.0012586 0.0011699 -0.00060965
0.0054734 -0.001763 -0.0063794 0.015097 0.35899 0.005978 -0.0012299 -0.0013658
0.0001495 -0.00033948 0.00050418 -0.00035923
-0.0015988 0.0016541 0.0017992 0.00021293 -0.0012233 -0.0013595 0.19452 0.1786
-0.015941 -0.0042976 -0.0010567 0.002081
0.0020688 -0.0004238 0.0010319 -0.0012703 0.00015944 -0.00033256 -0.015962 -0.0042665
0.11824 0.1934 -0.011314 -0.0034728
-0.00030351 -0.00099293 0.0012083 -0.000626 0.00052339 -0.00034967 -0.001081 0.0020668
-0.011324 -0.0034738 0.14717 0.28643
1520000000 0.28575 0.10983 -0.014926 0.0098478 0.003296 -0.0040114 1.2247e-05 0.0025976
0.002135 -0.0016281 -0.0010997 -0.00017472
-0.014917 0.0098268 0.14789 0.3233 0.0011888 0.013077 0.0017248 -0.00077905
0.00010639 -0.0011443 0.00036925 -0.001031
0.003287 -0.0040442 0.0012556 0.013085 0.35208 -0.050569 -0.0011495 -0.00043335
0.00062977 -0.0007691 5.5949e-05 -0.0001445
2.2965e-05 0.0026139 0.0017211 -0.00078691 -0.0011515 -0.00043681 0.2176 0.14128
-0.016011 0.0016827 0.0013022 0.0022364
0.0021114 -0.0016384 8.4934e-05 -0.001143 0.00062752 -0.00077252 -0.016011 0.001709
0.14512 0.17993 -0.011673 0.00076668
-0.0010885 -0.00016935 0.00036027 -0.0010304 3.4336e-05 -0.00012384 0.0013049 0.0022252
-0.011668 0.00076701 0.18143 0.26684
1580000000 0.29508 0.063848 -0.0084953 0.013132 -0.00085299 -0.0047859 0.0013668 0.0019573
-0.00012101 -0.002055 -0.00043283 0.00042697
-0.0084957 0.013108 0.1754 0.29855 0.0048738 0.0084236 0.00051324 -0.0016487
-0.00062245 -0.0011742 -0.00027653 -0.00080104
-0.00089115 -0.0047981 0.0049277 0.0083983 0.33138 -0.10825 -0.0017274 0.00062417
-0.00027171 -0.0011273 7.9942e-05 -0.00042938
0.0013816 0.0019415 0.00049689 -0.0016556 -0.0017265 0.00062332 0.23167 0.10251
-0.012922 0.0071996 0.0022834 0.0011522
-0.00013912 -0.0020497 -0.0006363 -0.0011779 -0.00026254 -0.001103 -0.012912 0.0072546
0.16898 0.16268 -0.0095934 0.0068245
-0.0004152 0.00044662 -0.00028131 -0.00079399 6.4879e-05 -0.00043641 0.0022808 0.0011371
-0.0095786 0.0068168 0.21459 0.24021
1640000000 0.29719 0.022556 -0.0018252 0.012364 -0.0025882 -0.0025449 0.0027713 0.0010171
-0.00051854 -0.0016134 -0.00025562 0.00062724
-0.0018406 0.012354 0.20514 0.2734 0.0058481 0.0037302 -0.00066911 -0.0017827
-0.0011466 -0.00043136 -0.00045969 -0.00070921
-0.002598 -0.0025228 0.005872 0.0036989 0.30295 -0.15737 -0.00071407 0.0015557
-0.0010499 -0.0011241 -0.0001038 -0.00038891
0.0027766 0.0010185 -0.0006833 -0.0017875 -0.00070958 0.001553 0.24425 0.054254
-0.0087096 0.0093064 0.0026233 -0.00066253
-0.00053366 -0.0016047 -0.0011597 -0.0004064 -0.0010533 -0.001117 -0.0086959 0.009342
0.19083 0.13936 -0.0051621 0.0089271
-0.00026738 0.00063136 -0.00047504 -0.00071235 -9.6634e-05 -0.00039696 0.002637 -0.00065846
-0.0051669 0.0089237 0.24052 0.2092
1700000000 0.28996 -0.02289 0.0016909 0.0097616 -0.0033196 3.6589e-05 0.0030882 -0.0011855
-0.0020168 -0.0008511 0.0006819 0.00051018
0.0016837 0.0097616 0.22341 0.24157 0.0039548 0.00089229 -0.0015255 -0.00060073
-0.00088173 0.00016738 -0.00088961 -0.00045394
-0.0033502 7.028e-05 0.0039694 0.00086902 0.25912 -0.19709 0.00050247 0.001719
-0.0020132 -0.00023632 -0.00038668 -0.00076906
0.0030846 -0.0012108 -0.00153 -0.00059935 0.00051031 0.0017227 0.24174 0.0050901
-0.0055257 0.010651 0.0016708 -0.002212
-0.0020179 -0.00084878 -0.00089604 0.00017536 -0.0020067 -0.00022463 -0.0055083 0.010665
0.20794 0.12001 -0.00056159 0.0095569
0.00068744 0.00049401 -0.00089332 -0.00045189 -0.00037357 -0.00078229 0.0016505 -0.0022158
-0.00056575 0.0095519 0.25756 0.1747
1760000000 0.27754 -0.071603 0.0042718 0.006601 -0.0022087 0.0008832 0.0013154 -0.0034528
-0.0015013 0.00056844 0.00049834 -0.00060033
0.0042449 0.0065894 0.24928 0.20136 0.0017871 -0.00097013 -0.0012294 0.00021312
-0.00094883 0.0010224 -0.0005797 0.00041635
-0.002171 0.00090941 0.0017694 -0.00097739 0.21021 -0.22987 0.0013272 0.0010961
-0.001231 0.0015157 -0.0012724 -0.00056201
0.0013118 -0.0034532 -0.0012312 0.00021512 0.0013243 0.0010879 0.23323 -0.045993
-0.0014858 0.010201 -0.00011215 -0.0025986
-0.0014969 0.00059308 -0.00094176 0.0010319 -0.0012316 0.0015096 -0.0014666 0.010208
0.22255 0.085957 0.0034781 0.0072339
0.00049132 -0.00060595 -0.00058232 0.00042132 -0.0012734 -0.00053825 -0.000112 -0.0025975
0.0034776 0.0072343 0.27043 0.137
1820000000 0.25258 -0.10893 0.0046312 0.0029771 -8.6285e-05 0.00231 -0.00096978 -0.0030786
-0.0012859 0.00098912 -5.0011e-07 -0.0001498
0.0046297 0.0029843 0.25902 0.17095 -0.00012378 -5.4883e-05 -0.0012778 0.0010248
0.00012075 0.0013662 -0.00054001 0.00052753
-8.2544e-05 0.0023258 -0.00011454 -6.7661e-05 0.16015 -0.24543 0.0015299 0.00031802
-0.00023185 0.0023956 -0.0012963 0.00024166
-0.0010053 -0.0030918 -0.0012776 0.0010333 0.0015384 0.00032052 0.20418 -0.093016
0.00081441 0.0085698 -0.0014841 -0.0016314
-0.0012702 0.0009943 0.00013137 0.0013624 -0.00022429 0.002375 0.00083104 0.0085783
0.23983 0.057921 0.0045893 0.0039687
-2.0196e-06 -0.00014948 -0.00053965 0.00053031 -0.0012817 0.00020135 -0.0015066 -0.0016257
0.0045915 0.0039585 0.27302 0.10118
1880000000 0.2172 -0.14908 0.0025872 0.00056365 -0.00044082 0.0020174 -0.0029432 -0.002192
-0.00026534 0.0018585 0.00020731 -0.00055347
0.0025824 0.00056256 0.26303 0.12422 -0.0021961 0.0015753 -0.00012889 0.0017245
0.00067837 0.0011023 0.00011801 0.00094021
-0.00045001 0.002005 -0.0022066 0.0015875 0.10796 -0.25499 0.001691 -0.0010462
0.0015763 0.0019467 -0.00096522 0.0012998
-0.002947 -0.0021883 -0.00011308 0.0017149 0.0016938 -0.0010334 0.16441 -0.13357
0.0022184 0.0062834 -0.0023487 0.00029964
-0.00024844 0.0018677 0.00068305 0.0010951 0.0016028 0.0019761 0.0022383 0.0062586
0.24323 0.026257 0.0049922 0.0018725
0.0002115 -0.00055217 0.00012338 0.00093251 -0.00098337 0.0013113 -0.0023309 0.00031377
0.0049856 0.0018685 0.27289 0.067
1940000000 0.17756 -0.17471 0.00038767 -0.0012822 0.0013701 0.0019173 -0.0036937 0.00050287
0.0014419 0.001145 -0.00071133 -0.00056318
0.00038991 -0.0012793 0.26316 0.092451 -0.0010643 0.003845 0.0010768 0.0012912
0.0017838 0.00031599 0.00083203 0.00029985
0.0013433 0.0018948 -0.0010463 0.0038589 0.061988 -0.24782 0.00032056 -0.0021351
0.0024118 0.00036247 0.00022683 0.0016706
-0.0037025 0.00048948 0.0010822 0.0012813 0.00032535 -0.0021364 0.1127 -0.16476
0.0018432 0.0043801 -0.0013519 0.0014125
0.0014626 0.0011122 0.0018015 0.00029362 0.0024126 0.00038731 0.001854 0.0043895
0.24584 -0.012115 0.0040771 -0.0016419
-0.00070102 -0.00054793 0.00084459 0.00029572 0.00021002 0.0016924 -0.001359 0.0014194
0.0040801 -0.0016498 0.26233 0.031425
2000000000 0.13102 -0.18907 -0.0034416 0.00062732 0.0024729 0.0016928 -0.0024007 0.0034118
0.0012211 2.9603e-05 -0.00071592 0.00034061
-0.0034372 0.00061309 0.24858 0.057221 -0.00088973 0.005718 0.0016339 0.00029837
0.0012194 -0.0014074 0.0004761 0.00014935
0.0024901 0.0016674 -0.00086649 0.0057436 0.018931 -0.23308 -0.0012626 -0.0012111
0.0019061 -0.0011824 0.001609 0.0012994
-0.0023478 0.0034129 0.0016392 0.00028036 -0.0012454 -0.0011938 0.059152 -0.17536
0.00022868 0.0033773 -0.00010106 0.0020664
0.0012378 3.1042e-05 0.0011998 -0.0014147 0.0018858 -0.001189 0.00024786 0.0033524
0.24062 -0.046168 0.00093892 -0.0025773
