!Keysight Technologies,M9804A,MY58100912,A.14.10.03
!Date: Thursday, April 27, 2023 10:28:33
!Correction: S11(C  6-Port  ) 
!S12(C  6-Port  ) 
!S13(C  6-Port  ) 
!S14(C  6-Port  ) 
!S15(C  6-Port  ) 
!S16(C  6-Port  ) 
!S21(C  6-Port  ) 
!S22(C  6-Port  ) 
!S23(C  6-Port  ) 
!S24(C  6-Port  ) 
!S25(C  6-Port  ) 
!S26(C  6-Port  ) 
!S31(C  6-Port  ) 
!S32(C  6-Port  ) 
!S33(C  6-Port  ) 
!S34(C  6-Port  ) 
!S35(C  6-Port  ) 
!S36(C  6-Port  ) 
!S41(C  6-Port  ) 
!S42(C  6-Port  ) 
!S43(C  6-Port  ) 
!S44(C  6-Port  ) 
!S45(C  6-Port  ) 
!S46(C  6-Port  ) 
!S51(C  6-Port  ) 
!S52(C  6-Port  ) 
!S53(C  6-Port  ) 
!S54(C  6-Port  ) 
!S55(C  6-Port  ) 
!S56(C  6-Port  ) 
!S61(C  6-Port  ) 
!S62(C  6-Port  ) 
!S63(C  6-Port  ) 
!S64(C  6-Port  ) 
!S65(C  6-Port  ) 
!S66(C  6-Port  ) 
!S6P File: Measurement: :
# Hz S  RI   R 50
500000000 -0.33732 -0.039353 -0.0096915 -0.0021645 -0.0079886 0.012805 -0.0043964 0.012416
0.012639 0.0041803 -0.0045976 0.0094973
-0.0095848 -0.0023232 -0.41931 -0.051826 0.0078905 -0.010836 0.0020169 0.011886
0.0075735 0.0024723 0.0018758 0.013213
-0.0079396 0.012562 0.0078771 -0.010768 -0.26503 0.20866 0.0077577 0.0033577
-0.001906 0.0078569 0.0019166 0.011945
-0.004034 0.012497 0.0019166 0.011922 0.0078095 0.0033482 -0.33086 0.041653
-0.019932 -0.0066397 0.016615 0.02634
0.012799 0.0041846 0.0074811 0.0026191 -0.0020856 0.0078353 -0.01978 -0.0068076
-0.21948 -0.20309 -0.02691 0.0046812
-0.0039695 0.009216 0.0022852 0.012708 0.0018034 0.011869 0.016997 0.026475
-0.026411 0.0049079 -0.26386 -0.13946
560000000 -0.31607 0.12251 -0.023877 -0.063533 4.7714e-05 0.011723 0.0058405 0.010869
0.01052 0.0048443 0.011373 0.0082161
-0.023746 -0.063307 -0.37839 0.1069 -0.041083 -0.037755 0.013764 0.0037358
-0.012907 -0.0049321 0.0031475 -0.00026103
-0.00010173 0.011821 -0.041011 -0.037985 -0.18263 0.25705 -0.00057636 -0.0040993
0.019941 0.0048581 0.0067328 -0.0061278
0.0058976 0.010979 0.013852 0.0033838 -0.0004464 -0.0038598 -0.30769 0.13148
0.0040523 -0.023681 0.0044921 -0.02163
0.010579 0.0049222 -0.012758 -0.0049604 0.020099 0.0045969 0.0039903 -0.02375
-0.28724 -0.028366 0.0092641 -0.048596
0.011069 0.0081306 0.0034846 -0.00031933 0.0061758 -0.0056128 0.0044226 -0.021928
0.008751 -0.048564 -0.33086 0.010454
620000000 -0.2752 0.10587 -0.02307 0.0077747 0.0029784 0.0083774 0.0083325 -0.0050138
0.011025 0.00038805 0.002499 -0.0022725
-0.023087 0.0077079 -0.40253 0.059118 -0.01845 0.00014773 -0.0013634 -0.0021243
0.011547 -0.0058963 0.0018381 -0.0030617
0.0031157 0.0084383 -0.018531 0.00017459 -0.1537 0.26607 -0.0015186 -0.0050941
-0.0030165 -0.0024425 0.0087643 -0.0030971
0.008361 -0.005244 -0.0013655 -0.0021297 -0.00143 -0.0050146 -0.26715 0.14254
-0.037989 -0.019208 0.011868 0.026342
0.011327 0.0001229 0.011415 -0.005905 -0.0029987 -0.0023554 -0.038206 -0.019531
-0.20766 -0.064288 -0.042 0.014927
0.0023331 -0.0022549 0.0013773 -0.0030958 0.0080875 -0.003082 0.011852 0.026066
-0.041717 0.014698 -0.24934 -0.02764
680000000 -0.23492 0.19131 -0.027232 -0.014575 0.0049362 0.0049949 0.0014989 -0.0073346
-0.0031347 -0.011193 0.0050733 -0.0068984
-0.027141 -0.014575 -0.38768 0.15719 -0.032692 -0.0014464 -0.0015613 -0.00064486
-0.0020515 -0.0088365 -0.0013753 -0.0016414
0.0049602 0.0050249 -0.032726 -0.0013637 -0.10267 0.28599 -0.00071456 -0.0001219
-0.001694 0.00064691 -0.0031167 -0.0092613
0.001463 -0.007322 -0.0015229 -0.0006571 -0.00067623 -0.00013784 -0.22199 0.19379
-0.023897 -0.0074633 -0.010702 -0.011745
-0.003197 -0.011137 -0.0020847 -0.0088848 -0.0017229 0.00062135 -0.02408 -0.0075707
-0.25893 0.035089 -0.0052624 -0.0079229
0.0051235 -0.0068821 -0.0010659 -0.0015529 -0.0027925 -0.0091495 -0.010312 -0.011843
-0.0052241 -0.0082054 -0.26089 0.08035
740000000 -0.19105 0.18623 -0.038873 0.026433 0.012561 -0.0050613 -0.00011362 -0.0042854
-0.0041081 -0.002845 -0.0066573 0.0028051
-0.038835 0.026401 -0.33466 0.17585 -0.035559 0.034964 -0.00077524 -0.0063432
-0.011866 0.0080442 -0.0016045 -0.0064653
0.012504 -0.0051313 -0.035442 0.035089 -0.068948 0.2843 -0.0021556 0.0030593
-0.0019018 -0.0047594 -0.0019254 -2.9614e-05
-0.00012592 -0.00438 -0.00082596 -0.006332 -0.0021724 0.0030693 -0.20466 0.20183
-0.044267 -0.0068427 0.02313 0.015455
-0.0042768 -0.0026885 -0.011907 0.0080467 -0.0018931 -0.0046029 -0.044405 -0.0069232
-0.15836 0.062188 -0.04418 0.00013625
-0.0062196 0.0024634 -0.001951 -0.0064535 -0.0017752 -0.00026832 0.023101 0.015574
-0.044103 0.00023691 -0.24992 0.085602
800000000 -0.15816 0.22679 -0.02273 0.016601 0.0051551 -0.010546 -0.004777 -0.0022536
-0.0039362 0.0022104 0.0050664 0.00032153
-0.022663 0.016552 -0.3383 0.2461 -0.0080309 0.033883 -0.0023656 0.0022187
-0.00051388 0.0029884 0.001227 0.0056485
0.0051729 -0.010643 -0.0078987 0.033952 -0.028201 0.30763 0.00093737 0.0014342
0.00032412 0.003674 -0.0016971 0.00081651
-0.0046769 -0.0022004 -0.0024277 0.0022702 0.00093518 0.0014374 -0.17595 0.22997
-0.028985 0.014249 0.013937 -0.010298
-0.0040637 0.0021523 -0.00041302 0.0028897 0.00029858 0.0035425 -0.028808 0.014234
-0.20711 0.086472 -0.017652 0.019693
0.0048265 0.00017523 0.0011392 0.005489 -0.0016452 0.00067922 0.014007 -0.010392
-0.0179 0.019581 -0.24632 0.13566
860000000 -0.12354 0.24749 -0.017735 0.030564 -0.0034079 -0.009781 -0.0023358 0.00085743
0.0040513 0.0048827 -0.0036681 -0.0033401
-0.017699 0.030582 -0.29087 0.28813 0.0076563 0.034075 2.2146e-05 0.0020501
0.0039915 0.00018984 0.003151 0.00027774
-0.0034446 -0.0098154 0.0077491 0.034109 0.019998 0.31555 -0.00060407 -0.00026929
0.0028551 -0.0015659 0.0016056 0.0042735
-0.0022579 0.00087672 2.8084e-05 0.0018891 -0.00063276 -0.00026269 -0.13943 0.24099
-0.017981 0.018968 -0.0063851 -0.0090048
0.0041393 0.0047907 0.0041382 0.00010234 0.002839 -0.0016203 -0.017945 0.01904
-0.15574 0.13882 -0.026794 0.01484
-0.0033935 -0.0031407 0.0032532 0.00086642 0.0014556 0.0043272 -0.0061717 -0.0091044
-0.026328 0.014874 -0.19377 0.1832
920000000 -0.09875 0.27071 0.0049695 0.038049 -0.0093388 -0.0041484 -0.0017975 0.0018713
0.00092593 0.0019336 0.0025033 -0.0014761
0.0048975 0.038054 -0.26175 0.30979 0.027933 0.022054 0.0014284 0.0010687
0.0071499 -0.00040413 0.0036758 -0.0025807
-0.0093781 -0.0041357 0.027998 0.022009 0.066299 0.31607 0.0018526 -6.3619e-05
0.0011913 -0.00029981 0.00088564 -0.0011637
-0.0017856 0.0018707 0.0014213 0.0010846 0.0018427 -8.8265e-05 -0.11556 0.25794
-0.010778 0.031133 0.0039036 -0.0068296
0.00088801 0.0019389 0.0071003 -0.00043702 0.0011773 -0.00025049 -0.010795 0.031221
-0.1455 0.14445 -0.0029086 0.027615
0.0026287 -0.0015305 0.0040272 -0.0026157 0.00095877 -0.0011071 0.0039021 -0.0067255
-0.0030017 0.027608 -0.20468 0.19716
980000000 -0.05118 0.29017 0.017458 0.030192 -0.0088366 0.004724 0.0021193 0.0034908
0.0038508 -0.0013657 -0.0034013 -0.00222
0.017405 0.030204 -0.20875 0.34367 0.032846 0.0049874 0.0021081 -4.7759e-05
0.0015856 -0.0058183 -0.00045879 -0.002275
-0.0087921 0.0047338 0.03289 0.0048873 0.11244 0.30932 0.00053788 -0.0011331
0.00038671 -0.0020251 0.0014058 -0.00015012
0.0021531 0.0034857 0.0020766 -4.7468e-05 0.00052784 -0.0011375 -0.076852 0.26932
0.0081543 0.0307 -0.0089444 -0.0075537
0.0038543 -0.001363 0.0015677 -0.0058292 0.00034461 -0.0020207 0.0082008 0.030728
-0.11439 0.17424 0.0047889 0.019773
-0.0034047 -0.0021156 -0.0004179 -0.0022999 0.0014428 -0.00013392 -0.0090833 -0.0074603
0.0046227 0.019768 -0.16297 0.24372
1040000000 -0.0089205 0.29854 0.033047 0.018264 -0.0011002 0.0068721 0.0025518 0.00067267
0.00015408 -0.0037434 -0.00030046 -0.0012616
0.03304 0.018257 -0.1731 0.35645 0.029256 -0.014651 0.0014855 -0.0017037
-0.0023875 -0.002509 -0.0013382 -0.0025858
-0.0010653 0.0069153 0.0292 -0.014764 0.15822 0.29555 -0.00047782 -0.0015289
-0.0015132 -0.00091201 -0.00044169 -0.001131
0.0025794 0.00066091 0.0014814 -0.0016799 -0.00048113 -0.0015417 -0.049504 0.27935
0.019743 0.018582 -0.0021685 0.0013689
0.00013084 -0.0036767 -0.0023931 -0.0025086 -0.0015255 -0.00089389 0.019807 0.018545
-0.081757 0.18152 0.013256 0.01913
-0.0002185 -0.0013837 -0.0013403 -0.0025398 -0.0003941 -0.0011417 -0.0020982 0.0013511
0.013233 0.019228 -0.1418 0.26436
1100000000 0.036431 0.30621 0.035717 -0.0040793 0.0029761 0.0037639 0.0022792 -0.0013319
-0.0020296 -0.0031391 -0.0039313 -3.5835e-05
0.035701 -0.0040181 -0.12962 0.37363 0.015143 -0.027507 -4.7421e-05 -0.0018197
-0.0032562 -0.00088516 -0.0033273 -0.00059137
0.0029811 0.0037636 0.015055 -0.02759 0.20431 0.27532 -0.0018834 0.00019973
-0.0018109 0.0003895 -0.0010232 -0.00041759
0.0022904 -0.0013372 -5.1231e-05 -0.0018019 -0.0018807 0.00018372 -0.0089956 0.28423
0.025263 0.0054621 -0.0024209 -6.9725e-05
-0.002044 -0.0031124 -0.0032817 -0.00090446 -0.0018169 0.00039097 0.025257 0.0054141
-0.063842 0.19543 0.018917 0.0090961
-0.0038148 9.2943e-05 -0.0034254 -0.00056806 -0.0010677 -0.00044707 -0.0024661 -9.1585e-05
0.018901 0.009181 -0.096554 0.2958
1160000000 0.087856 0.3009 0.023928 -0.020479 0.0027302 -0.00056954 -0.0003672 -0.0023862
-0.0041156 -0.00076261 -0.00092116 0.0041056
0.023925 -0.020469 -0.086102 0.37742 -0.0034456 -0.02885 -0.0017265 -0.0017157
-0.0028183 0.0022923 -0.0012415 0.0018851
0.0027085 -0.00059416 -0.0035814 -0.028841 0.24719 0.24486 -0.00073823 0.0016841
-0.00074649 0.0018553 -0.00094293 0.00016714
-0.00039441 -0.002382 -0.0017558 -0.0017049 -0.00073834 0.0016917 0.030341 0.28136
0.021857 -0.010362 -0.0029569 0.0052677
-0.0041143 -0.00077279 -0.0028069 0.0023355 -0.00074579 0.0018925 0.02186 -0.010392
-0.030126 0.20423 0.018376 0.0012496
-0.00088804 0.004037 -0.001377 0.0018231 -0.00089614 0.00023055 -0.0030255 0.0052335
0.018189 0.0013361 -0.049161 0.29882
1220000000 0.1322 0.28959 0.010575 -0.029734 -0.0015755 -0.00095594 -3.5321e-05 -0.00083027
-0.0026265 0.0024069 0.0014523 0.0020776
0.010588 -0.029698 -0.042 0.38931 -0.01649 -0.02106 -0.0024963 0.00038678
-8.462e-05 0.00293 -0.00075846 0.0019298
-0.0015561 -0.00094718 -0.016598 -0.021009 0.28648 0.20619 0.00074299 0.0016367
0.00056155 0.0012741 0.00029025 0.0007178
-2.3282e-05 -0.00082425 -0.0024906 0.00039617 0.00074471 0.0016401 0.070007 0.27288
0.011172 -0.017331 0.0021766 0.0013445
-0.0026593 0.0024256 -8.855e-05 0.0029288 0.00054094 0.0012514 0.011155 -0.017396
-0.0079478 0.21304 0.014627 -0.012233
0.0013705 0.0019965 -0.0007165 0.0018427 0.00030326 0.00072887 0.0021115 0.0013163
0.014623 -0.01221 -0.018729 0.31667
1280000000 0.18175 0.2675 -0.0075955 -0.028232 -0.0018887 0.0023397 -0.00085334 -0.0019191
-0.00083079 0.0029578 0.0023924 0.0011809
-0.0075789 -0.028199 0.0035647 0.38032 -0.023345 -0.0086576 -0.0010173 0.0014153
0.0015299 0.0018422 0.00057961 0.0021651
-0.0018772 0.0023511 -0.023406 -0.0085561 0.31732 0.16249 0.0015802 9.1403e-05
0.0011439 0.00034588 0.00040038 0.00026547
-0.00087563 -0.0019102 -0.00099925 0.0014109 0.0015741 9.8824e-05 0.10683 0.25642
0.0018226 -0.019654 -0.00022956 -2.1878e-05
-0.00082818 0.0029549 0.0015388 0.0018272 0.0011012 0.00034197 0.0017923 -0.019674
0.028451 0.21655 0.0036189 -0.014505
0.0024375 0.0011549 0.00065468 0.002143 0.00044982 0.00031915 -0.0002091 3.5954e-05
0.0036789 -0.014537 0.029591 0.32005
1340000000 0.21861 0.23356 -0.017182 -0.019009 0.00078731 0.004391 -0.0016384 -0.00083436
0.0013912 0.0027353 0.0018217 -0.0013538
-0.017156 -0.019012 0.042779 0.37229 -0.021415 0.0038658 -0.00017643 0.0019977
0.0018704 0.00098915 0.001325 0.00083693
0.00081113 0.0043845 -0.021407 0.0039839 0.33978 0.11445 0.0011797 -0.00085869
0.00075464 -0.00044525 0.00025497 0.00038453
-0.0016357 -0.0008386 -0.00017789 0.002004 0.0011647 -0.00084526 0.13908 0.23619
-0.0079624 -0.017259 0.00074338 0.00042637
0.00142 0.0027497 0.0018863 0.00097599 0.00077069 -0.00045309 -0.0079921 -0.017234
0.057397 0.21185 -0.0027389 -0.013364
0.0018027 -0.0013157 0.0013837 0.00081249 0.00026343 0.00031182 0.0007489 0.00041363
-0.0027286 -0.013331 0.067904 0.31665
1400000000 0.25127 0.19537 -0.023057 -0.0077611 0.0049405 0.0030888 -0.0020267 0.00052093
0.0023463 0.00092885 0.00034955 -0.0013051
-0.023015 -0.0077876 0.080001 0.35949 -0.014917 0.01198 0.0013013 0.0013852
0.0012731 -0.00068825 0.0012528 0.00024833
0.0049426 0.0030749 -0.01489 0.012084 0.35312 0.060514 0.00025571 -0.0016194
-3.6151e-05 -0.0003691 0.00042173 0.00019909
-0.0020213 0.00053842 0.0013048 0.0013862 0.00025297 -0.0016126 0.16841 0.20754
-0.014174 -0.010871 -0.00095911 -0.00054468
0.0023408 0.00089999 0.0012551 -0.00068456 -3.3231e-05 -0.00037906 -0.014204 -0.010815
0.089779 0.20779 -0.0091976 -0.0091404
0.00039637 -0.0012891 0.0012524 0.00028339 0.00042247 0.00023548 -0.00099648 -0.00054265
-0.0091889 -0.0091676 0.11346 0.3065
1460000000 0.27382 0.15142 -0.020325 0.0042278 0.0054994 -0.0017134 -0.001629 0.0016356
0.0020648 -0.00042551 -0.00031387 -0.001034
-0.020301 0.0042078 0.11425 0.33792 -0.0064275 0.014987 0.0018047 0.0002235
0.0010545 -0.0012668 0.0011647 -0.00066387
0.0054718 -0.001733 -0.0063771 0.015025 0.35906 0.0058294 -0.0012242 -0.0013603
0.00017133 -0.00032464 0.00052508 -0.00038735
-0.0016092 0.0016429 0.0017899 0.00020813 -0.0012149 -0.0013788 0.19445 0.17863
-0.016024 -0.0042307 -0.0010266 0.0021273
0.0020885 -0.00044476 0.0010434 -0.0012912 0.00015501 -0.00033396 -0.016067 -0.0041855
0.11803 0.19342 -0.01128 -0.0034148
-0.00029907 -0.0010226 0.0011735 -0.00064066 0.00047477 -0.00031727 -0.0010658 0.0021137
-0.011344 -0.0034035 0.14721 0.28653
1520000000 0.28581 0.10977 -0.014946 0.0098397 0.0032694 -0.0039628 1.3138e-05 0.0025919
0.0021189 -0.0016367 -0.0010776 -0.00016063
-0.01494 0.0098268 0.14799 0.32325 0.001188 0.013082 0.0017202 -0.00078018
0.00010645 -0.0011634 0.0003674 -0.0010148
0.0032925 -0.0039898 0.001263 0.013088 0.35206 -0.050757 -0.0011459 -0.00042838
0.00062367 -0.00075025 -3.4786e-05 -0.00014539
2.8393e-05 0.002602 0.0017113 -0.00078368 -0.0011481 -0.00044197 0.21761 0.14129
-0.016015 0.001769 0.0013234 0.0022688
0.0021192 -0.0016462 9.1488e-05 -0.0011493 0.00062096 -0.00076995 -0.016037 0.0018182
0.14499 0.18002 -0.011683 0.00085374
-0.0010986 -0.00016158 0.00034597 -0.0010282 4.8651e-05 -0.00015001 0.0013425 0.0022709
-0.011687 0.00084003 0.18146 0.2669
1580000000 0.29512 0.063763 -0.0085246 0.013141 -0.00090119 -0.0048212 0.001379 0.001939
-0.00013445 -0.0020633 -0.00042641 0.00039532
-0.0085307 0.01313 0.1755 0.2985 0.0048744 0.0084073 0.00050606 -0.0016585
-0.00063342 -0.0011801 -0.00027654 -0.00080766
-0.00095508 -0.004819 0.0049179 0.0083944 0.33139 -0.10829 -0.001741 0.00062247
-0.00026195 -0.0010829 -8.2736e-06 -0.00047153
0.0013677 0.0019313 0.00050386 -0.0016572 -0.001742 0.00062036 0.2317 0.10254
-0.012901 0.0073031 0.0023062 0.0011453
-0.00014708 -0.0020883 -0.00063686 -0.0011603 -0.00028473 -0.0010916 -0.012916 0.0073263
0.16897 0.16284 -0.0095649 0.0068496
-0.00040116 0.00044782 -0.00027702 -0.00077842 6.2031e-05 -0.00045256 0.0023163 0.0011248
-0.0095808 0.0068451 0.21464 0.24029
1640000000 0.2972 0.022499 -0.0018311 0.012381 -0.0025962 -0.0025292 0.0027877 0.0010404
-0.00052908 -0.001662 -0.00027011 0.00064427
-0.0018421 0.012383 0.20525 0.27337 0.0058398 0.0037716 -0.00067581 -0.0017867
-0.001135 -0.00042215 -0.00048613 -0.00070309
-0.0026081 -0.0025263 0.0058626 0.0037365 0.3029 -0.15745 -0.00069285 0.001543
-0.0010387 -0.0010915 -0.00020733 -0.00036182
0.002787 0.0010472 -0.00067993 -0.0017815 -0.0006973 0.0015316 0.24433 0.054234
-0.0086308 0.0093955 0.0026808 -0.00068396
-0.00054319 -0.0016348 -0.0011563 -0.00041774 -0.00098613 -0.0010901 -0.0086122 0.0094192
0.19088 0.13947 -0.0051311 0.0089747
-0.00027925 0.00064522 -0.00047501 -0.00068109 -9.8305e-05 -0.00038626 0.002688 -0.00066143
-0.0051091 0.0089628 0.24044 0.20919
1700000000 0.28992 -0.022968 0.0017018 0.0097871 -0.0033375 5.6828e-05 0.0030901 -0.0011463
-0.0020258 -0.00086728 0.00066392 0.00050379
0.001687 0.0097732 0.22348 0.24152 0.0039209 0.00088855 -0.0015415 -0.00060279
-0.00088191 0.00015792 -0.0009042 -0.00048365
-0.0033527 7.6422e-05 0.0039417 0.0008687 0.25908 -0.19727 0.00048713 0.0017498
-0.0020186 -0.00021245 -0.00038341 -0.00076969
0.0030855 -0.0011667 -0.0015392 -0.00059926 0.00049156 0.0017509 0.24176 0.0050501
-0.0054466 0.010665 0.0016233 -0.0022121
-0.0020402 -0.00085778 -0.00088406 0.00017303 -0.0020277 -0.00021723 -0.0054378 0.010685
0.208 0.12012 -0.00054892 0.0095635
0.00071057 0.00049775 -0.00090609 -0.0004405 -0.00042224 -0.00078187 0.0016556 -0.0022491
-0.00048731 0.0095444 0.25749 0.17465
1760000000 0.27751 -0.071673 0.0042627 0.006615 -0.0021947 0.00089559 0.0013193 -0.0034583
-0.0014863 0.00057747 0.00044899 -0.00054442
0.0042571 0.0066137 0.24937 0.20128 0.0017787 -0.00096206 -0.0012351 0.00021275
-0.00094141 0.001024 -0.00056564 0.00041401
-0.002213 0.0008871 0.0017763 -0.00099045 0.21006 -0.22992 0.0013386 0.0010951
-0.0012156 0.0014954 -0.0010775 -0.00039407
0.0012997 -0.0034622 -0.0012464 0.00022725 0.0013406 0.0010863 0.23329 -0.046066
-0.0013929 0.0102 -3.6245e-05 -0.0025792
-0.0014747 0.00061529 -0.00095286 0.0010426 -0.0012218 0.0014793 -0.0013773 0.010206
0.22272 0.086047 0.0035305 0.0073168
0.00047664 -0.00061566 -0.00058342 0.00042568 -0.0012638 -0.00057482 -0.00010126 -0.0025982
0.0035328 0.007267 0.27025 0.13702
1820000000 0.2526 -0.10897 0.0046658 0.0029918 -7.3822e-05 0.0023088 -0.00095532 -0.0030639
-0.0013039 0.00099936 -6.9289e-06 -0.0001392
0.0046564 0.0029978 0.25911 0.17089 -0.00012842 -4.7496e-05 -0.0013089 0.0010499
0.00010242 0.0013366 -0.0005502 0.00051139
-4.8632e-05 0.0023065 -0.00012564 -5.7409e-05 0.15991 -0.24556 0.0014612 0.00032058
-0.00025188 0.002366 -0.0011991 0.00015796
-0.00098219 -0.0030418 -0.0013007 0.0010517 0.0014544 0.00034902 0.20424 -0.093187
0.00085183 0.0085204 -0.0015199 -0.0015849
-0.0013082 0.0010227 0.00011009 0.001345 -0.00023221 0.0023636 0.00089181 0.0085151
0.23997 0.057903 0.0045627 0.0039383
-1.0999e-05 -0.00013548 -0.00052241 0.00055446 -0.0012344 0.00026832 -0.0015056 -0.0015904
0.0046112 0.0039292 0.27306 0.1011
1880000000 0.21717 -0.14921 0.0025968 0.00055483 -0.00043472 0.0019984 -0.0029326 -0.0021885
-0.00025692 0.0018475 0.00015949 -0.00056932
0.0025863 0.00056142 0.26311 0.12412 -0.0022301 0.001547 -0.00013079 0.0016962
0.0006786 0.0010817 0.0001038 0.00087807
-0.00041545 0.0020036 -0.0022048 0.0015854 0.10777 -0.25503 0.0017 -0.0010538
0.0015886 0.0020001 -0.0009205 0.0012247
-0.0029484 -0.002199 -0.00013242 0.0017061 0.0017041 -0.0010445 0.16446 -0.13367
0.0022617 0.0062507 -0.0024318 0.00031584
-0.00025792 0.0018377 0.00067541 0.0010823 0.0016066 0.0020172 0.0022717 0.0062583
0.2433 0.026234 0.005001 0.0018458
0.00021926 -0.00058862 0.00015237 0.00090966 -0.0009883 0.0012774 -0.0023989 0.00032208
0.0049881 0.0018246 0.27294 0.067005
1940000000 0.1775 -0.17472 0.00038256 -0.001307 0.001332 0.0018752 -0.0037149 0.00048599
0.0014359 0.0011091 -0.00078699 -0.00058584
0.00038185 -0.0013024 0.26322 0.092336 -0.0010343 0.0038302 0.0010929 0.0012869
0.0017776 0.00031525 0.00077271 0.00025428
0.0013585 0.001866 -0.0010403 0.0038589 0.061911 -0.24773 0.00030387 -0.002151
0.0024183 0.0003771 8.2238e-05 0.0015045
-0.0036824 0.00051767 0.0010994 0.0012748 0.00031135 -0.002123 0.11259 -0.16484
0.0018034 0.0042636 -0.0013742 0.001335
0.0014582 0.0010802 0.0018086 0.00029221 0.0024218 0.00038421 0.0018325 0.0042671
0.24598 -0.012264 0.0041139 -0.0016378
-0.00073016 -0.00057124 0.00085069 0.00025287 0.00026195 0.0016194 -0.0013736 0.0013325
0.0041078 -0.0016574 0.26238 0.031328
2000000000 0.131 -0.18909 -0.003461 0.00063055 0.0024279 0.0016775 -0.0023626 0.0033936
0.0012842 4.7262e-05 -0.00067565 0.00030787
-0.0034716 0.0006333 0.24861 0.057102 -0.00091031 0.0057381 0.0016409 0.00030625
0.001181 -0.0013939 0.00051003 0.00018661
0.0024344 0.0016449 -0.00089427 0.0057324 0.018737 -0.23307 -0.0012993 -0.0012195
0.0018823 -0.0011979 0.0015937 0.0013527
-0.0023329 0.0034094 0.0016534 0.00027242 -0.0012937 -0.0012278 0.059015 -0.17549
0.00026216 0.0032816 -4.6078e-05 0.0021283
0.0013028 5.4187e-05 0.0011609 -0.0014161 0.0018914 -0.00121 0.00025772 0.0032947
0.24069 -0.046222 0.00085842 -0.0025734
