!Keysight Technologies,M9804A,MY58100912,A.14.10.03
!Date: Thursday, April 27, 2023 10:28:33
!Correction: S11(C  6-Port  ) 
!S12(C  6-Port  ) 
!S13(C  6-Port  ) 
!S14(C  6-Port  ) 
!S15(C  6-Port  ) 
!S16(C  6-Port  ) 
!S21(C  6-Port  ) 
!S22(C  6-Port  ) 
!S23(C  6-Port  ) 
!S24(C  6-Port  ) 
!S25(C  6-Port  ) 
!S26(C  6-Port  ) 
!S31(C  6-Port  ) 
!S32(C  6-Port  ) 
!S33(C  6-Port  ) 
!S34(C  6-Port  ) 
!S35(C  6-Port  ) 
!S36(C  6-Port  ) 
!S41(C  6-Port  ) 
!S42(C  6-Port  ) 
!S43(C  6-Port  ) 
!S44(C  6-Port  ) 
!S45(C  6-Port  ) 
!S46(C  6-Port  ) 
!S51(C  6-Port  ) 
!S52(C  6-Port  ) 
!S53(C  6-Port  ) 
!S54(C  6-Port  ) 
!S55(C  6-Port  ) 
!S56(C  6-Port  ) 
!S61(C  6-Port  ) 
!S62(C  6-Port  ) 
!S63(C  6-Port  ) 
!S64(C  6-Port  ) 
!S65(C  6-Port  ) 
!S66(C  6-Port  ) 
!S6P File: Measurement: :
# Hz S  RI   R 50
500000000 -0.33623 -0.039247 -0.0096807 -0.0022262 -0.0078816 0.012724 -0.0041818 0.012724
0.012111 0.0047824 -0.0048691 0.0095008
-0.0097172 -0.0021286 -0.41944 -0.051823 0.0077726 -0.010497 0.0016733 0.012098
0.0077498 0.0025877 0.0015657 0.013426
-0.0079095 0.012707 0.0078047 -0.010417 -0.26489 0.2089 0.0076821 0.003479
-0.0020614 0.0078435 0.0015083 0.01197
-0.0041167 0.012625 0.001669 0.012132 0.0076823 0.0034787 -0.33117 0.041229
-0.019605 -0.0065689 0.01654 0.025777
0.012194 0.0044992 0.0079129 0.0023115 -0.0020044 0.0078056 -0.019599 -0.0065248
-0.22035 -0.20309 -0.026204 0.0047799
-0.0047405 0.0092649 0.0016965 0.013319 0.0015872 0.012004 0.016539 0.025838
-0.026114 0.0048348 -0.26331 -0.14045
560000000 -0.31588 0.1225 -0.02392 -0.063359 0.00012083 0.011546 0.0059945 0.010568
0.010628 0.0046861 0.011653 0.0081873
-0.023948 -0.063311 -0.37844 0.10666 -0.040846 -0.037255 0.013816 0.0036742
-0.012403 -0.0044343 0.0035398 -0.00021007
0.00011655 0.01158 -0.040854 -0.037522 -0.18306 0.25655 -0.00043035 -0.0040056
0.019625 0.0053136 0.0062403 -0.0058916
0.0059563 0.010587 0.013776 0.0037346 -0.00037983 -0.0040723 -0.30766 0.13143
0.0045098 -0.023749 0.0044805 -0.02188
0.01066 0.0047549 -0.012443 -0.0047213 0.019689 0.0052853 0.0044369 -0.023802
-0.28863 -0.027971 0.0083047 -0.048685
0.01155 0.0083131 0.003516 -0.00034506 0.0062391 -0.005831 0.0044319 -0.021967
0.008284 -0.048661 -0.32928 0.010272
620000000 -0.27549 0.10615 -0.023082 0.0076798 0.002928 0.008361 0.0084814 -0.00532
0.010826 -0.00014576 0.0020753 -0.0023983
-0.023046 0.0076583 -0.40255 0.05903 -0.018562 -6.5007e-05 -0.0011368 -0.0020576
0.011261 -0.0060735 0.0013506 -0.0029536
0.0029651 0.0083018 -0.018604 -4.5803e-05 -0.15414 0.26598 -0.0013786 -0.0051387
-0.0032482 -0.0024957 0.0082854 -0.0035169
0.0083826 -0.0053735 -0.0011776 -0.0020974 -0.0013843 -0.005164 -0.26719 0.14307
-0.037939 -0.019892 0.011845 0.026355
0.011002 -0.00032605 0.011238 -0.0060567 -0.0031025 -0.002424 -0.037994 -0.019919
-0.20747 -0.064131 -0.041453 0.014411
0.0021649 -0.0025487 0.001437 -0.0029745 0.0084019 -0.0035166 0.011782 0.026419
-0.041417 0.014319 -0.24844 -0.027011
680000000 -0.23478 0.1913 -0.027146 -0.014642 0.0048615 0.0050801 0.0014621 -0.0073772
-0.0031244 -0.011317 0.0051816 -0.0066818
-0.027146 -0.014649 -0.38765 0.15714 -0.032707 -0.0014559 -0.0015554 -0.00071272
-0.0019808 -0.0088741 -0.0011375 -0.0017733
0.0048477 0.0050764 -0.032702 -0.0013483 -0.10269 0.28595 -0.00073916 -0.00016983
-0.0016621 0.00049107 -0.0028859 -0.009212
0.0014983 -0.0074043 -0.0015742 -0.00072742 -0.0007311 -0.00017143 -0.22211 0.19399
-0.02384 -0.0076143 -0.010635 -0.011762
-0.0031083 -0.011125 -0.0020406 -0.008889 -0.0016667 0.0004947 -0.023873 -0.0075752
-0.25909 0.035374 -0.0049323 -0.0082346
0.0052285 -0.00675 -0.001026 -0.0017193 -0.0028837 -0.0092188 -0.010683 -0.011793
-0.0051062 -0.0082466 -0.26105 0.080267
740000000 -0.19101 0.18625 -0.03896 0.026446 0.01249 -0.0050835 -0.00028415 -0.0043641
-0.0040868 -0.0026769 -0.0062053 0.0023352
-0.038903 0.026363 -0.33455 0.17602 -0.035587 0.035115 -0.00082359 -0.0062545
-0.011927 0.007848 -0.0022014 -0.0061424
0.012513 -0.0051122 -0.035597 0.035247 -0.06905 0.28415 -0.0022179 0.0030192
-0.0018133 -0.0048954 -0.002014 -0.00053038
-0.00027574 -0.0044017 -0.00092624 -0.0062339 -0.0022115 0.0030254 -0.2047 0.20184
-0.044284 -0.0070824 0.023192 0.015414
-0.0040433 -0.0026901 -0.011903 0.0079862 -0.0017884 -0.0049064 -0.044321 -0.0070294
-0.15845 0.062524 -0.043983 -0.00038783
-0.0061936 0.0023966 -0.0020735 -0.0063632 -0.0019711 -0.00044285 0.023125 0.015377
-0.043878 -0.00044164 -0.25035 0.085402
800000000 -0.15813 0.22691 -0.022635 0.016679 0.0051917 -0.010563 -0.0047803 -0.002201
-0.0037432 0.0022321 0.0048019 0.00021118
-0.022648 0.016628 -0.33845 0.24607 -0.007978 0.033871 -0.0023873 0.0022537
-0.00066862 0.0030031 0.0011413 0.005326
0.0051889 -0.010547 -0.0078989 0.03393 -0.028163 0.30764 0.00096066 0.0015288
0.0003392 0.0034573 -0.0015842 0.00072749
-0.0048204 -0.0022579 -0.0023685 0.0022441 0.00097881 0.0015195 -0.17618 0.22972
-0.028908 0.014342 0.013972 -0.010541
-0.0039111 0.0023065 -0.00064796 0.0028828 0.0003329 0.0034599 -0.028922 0.014406
-0.20685 0.086398 -0.017677 0.019455
0.0047026 0.00021145 0.0011811 0.0052848 -0.0016151 0.00068775 0.013934 -0.010543
-0.017652 0.019464 -0.24591 0.1357
860000000 -0.12356 0.24737 -0.017656 0.030545 -0.0033246 -0.0097613 -0.002349 0.00094709
0.0040204 0.0049171 -0.0034758 -0.0029916
-0.017696 0.030529 -0.29074 0.28803 0.007751 0.034126 2.8766e-05 0.0019288
0.0040587 0.00028924 0.0033668 0.00067286
-0.0033774 -0.0097801 0.0078467 0.034102 0.020022 0.31561 -0.00053828 -0.00023472
0.0028085 -0.0015244 0.0014837 0.0043702
-0.002312 0.0009064 1.8406e-05 0.0020023 -0.00054967 -0.00023063 -0.13944 0.241
-0.018229 0.01899 -0.0060868 -0.0091894
0.0040856 0.0048439 0.0042286 0.0001508 0.0027933 -0.001497 -0.018246 0.019018
-0.15576 0.13862 -0.026541 0.015092
-0.0034818 -0.0029729 0.0032792 0.00065734 0.0015169 0.0043557 -0.0060237 -0.0091819
-0.026508 0.015059 -0.194 0.18385
920000000 -0.098665 0.27062 0.0049244 0.038031 -0.009336 -0.0041724 -0.0017686 0.0018774
0.00096099 0.0020046 0.0025426 -0.001564
0.0048903 0.038001 -0.26192 0.30972 0.027863 0.022092 0.0014239 0.0012078
0.0071367 -0.00039209 0.0040215 -0.0025755
-0.0093715 -0.0041556 0.027952 0.022002 0.066312 0.31607 0.0018372 -4.1077e-05
0.0011882 -0.00027359 0.00097942 -0.00096139
-0.0017524 0.0018709 0.0014386 0.0011678 0.00183 -3.855e-05 -0.11567 0.25801
-0.010939 0.031253 0.0040047 -0.0065619
0.00098304 0.0019766 0.0071955 -0.00044645 0.0011902 -0.00029026 -0.010884 0.031278
-0.14552 0.14442 -0.0032184 0.027656
0.0025618 -0.001494 0.003991 -0.0025619 0.00098382 -0.00095451 0.0040072 -0.0065343
-0.0032561 0.027553 -0.20459 0.19727
980000000 -0.051296 0.29009 0.01743 0.030133 -0.0088416 0.0047546 0.0021644 0.0034899
0.0040192 -0.0014161 -0.0034475 -0.0021566
0.0174 0.030144 -0.20881 0.34359 0.032873 0.0049972 0.0020557 -3.4959e-05
0.0016441 -0.0057945 -0.00045737 -0.0024525
-0.008864 0.0047344 0.032899 0.0048549 0.11244 0.30932 0.00054038 -0.0011483
0.00041895 -0.0020661 0.0014623 -0.00018739
0.0021785 0.0034303 0.0020722 -9.0848e-05 0.00052352 -0.0011498 -0.076887 0.26931
0.0081025 0.03078 -0.0089938 -0.0073762
0.0040426 -0.0013338 0.0015917 -0.0057368 0.00042425 -0.0020539 0.0081495 0.030775
-0.11472 0.17443 0.0046497 0.019941
-0.0033508 -0.0021189 -0.00035411 -0.0023425 0.001491 -0.00021648 -0.0089621 -0.0073419
0.0046873 0.019928 -0.16287 0.24384
1040000000 -0.0089295 0.29845 0.033084 0.018361 -0.0010878 0.0069264 0.0026105 0.00063451
0.00019042 -0.0037441 -0.00026234 -0.0013997
0.033069 0.018381 -0.1731 0.35638 0.029276 -0.014597 0.0014637 -0.0016799
-0.0023629 -0.0026068 -0.0013357 -0.0025809
-0.001066 0.0069239 0.029245 -0.014718 0.15823 0.29553 -0.00045571 -0.001551
-0.0014444 -0.00098646 -0.00040585 -0.0010968
0.0025704 0.00060503 0.0014731 -0.0017011 -0.00045365 -0.001556 -0.049499 0.27941
0.019797 0.018688 -0.002117 0.0012813
0.00015824 -0.0037227 -0.0023934 -0.0025461 -0.0014219 -0.00095581 0.019833 0.01865
-0.081764 0.18185 0.013228 0.019207
-0.00030243 -0.0014845 -0.0013276 -0.0026018 -0.00042276 -0.0011137 -0.0020801 0.0012628
0.01321 0.019203 -0.14205 0.26416
1100000000 0.036405 0.30619 0.035757 -0.0040179 0.0030005 0.003791 0.002338 -0.0013618
-0.002009 -0.0032002 -0.0038693 -4.4295e-05
0.035746 -0.0039863 -0.12964 0.37357 0.015162 -0.027499 -2.9618e-05 -0.0018137
-0.0032496 -0.00096033 -0.0034876 -0.00057575
0.0029969 0.003773 0.015054 -0.027576 0.20428 0.27534 -0.0019019 0.00019859
-0.0018701 0.00038028 -0.0011324 -0.00046052
0.0022952 -0.0013432 -4.8394e-05 -0.0018147 -0.001889 0.00019275 -0.009018 0.28424
0.025282 0.0054869 -0.0024308 -0.00013705
-0.0020436 -0.003172 -0.0032827 -0.00093581 -0.0018664 0.00036828 0.025305 0.0054345
-0.063777 0.19547 0.019075 0.0092205
-0.003857 -2.7109e-05 -0.0035392 -0.00054972 -0.0011196 -0.00045373 -0.0024289 -0.00011082
0.019098 0.0092191 -0.096583 0.2957
1160000000 0.087922 0.3009 0.023992 -0.020474 0.0027519 -0.00059918 -0.00035844 -0.0023682
-0.0041549 -0.0008015 -0.00094812 0.0040277
0.02399 -0.020429 -0.086119 0.37738 -0.0033994 -0.028861 -0.0017581 -0.0016722
-0.0027832 0.0023264 -0.0014234 0.0017725
0.002771 -0.00063835 -0.0035271 -0.028876 0.24718 0.24483 -0.00075776 0.0016999
-0.0007497 0.0018806 -0.00094702 0.00022399
-0.00036467 -0.0023663 -0.0017401 -0.0016488 -0.0007681 0.0016948 0.030269 0.28134
0.021904 -0.010345 -0.0029366 0.0051353
-0.004175 -0.0007715 -0.0027619 0.002319 -0.00074936 0.0018871 0.021912 -0.010376
-0.029805 0.20437 0.018362 0.0012338
-0.00093879 0.0039891 -0.0014077 0.0017808 -0.00097477 0.00021295 -0.0029459 0.0051579
0.018351 0.001239 -0.049364 0.29896
1220000000 0.13217 0.2896 0.010617 -0.029746 -0.0015476 -0.0009481 -3.6521e-05 -0.00082741
-0.0026472 0.0024375 0.0013195 0.0020395
0.010615 -0.029701 -0.042036 0.38928 -0.016481 -0.021054 -0.0025075 0.00037756
-0.00011189 0.0029805 -0.00078785 0.0018686
-0.0015335 -0.00094205 -0.016596 -0.020994 0.28648 0.20623 0.00074559 0.001643
0.00054458 0.0012939 0.00032554 0.00070594
-3.1023e-05 -0.000824 -0.0024975 0.00040033 0.00074108 0.0016403 0.069972 0.27291
0.011174 -0.017349 0.0021099 0.0013018
-0.0026599 0.0024403 -9.6873e-05 0.0029894 0.00052255 0.0012904 0.011163 -0.017357
-0.0076673 0.21287 0.014705 -0.012383
0.0013296 0.0020183 -0.00075938 0.0018735 0.00032763 0.00070585 0.0020997 0.0012971
0.014707 -0.012391 -0.01893 0.31671
1280000000 0.18173 0.26747 -0.0075588 -0.028304 -0.00191 0.0023021 -0.00087038 -0.0019013
-0.00088294 0.0030495 0.0023554 0.0011698
-0.0075402 -0.028276 0.0035606 0.38028 -0.02333 -0.0086853 -0.0010301 0.0013854
0.0015291 0.0018846 0.0006114 0.0021477
-0.0018896 0.0023083 -0.023403 -0.0085921 0.31729 0.16248 0.0015907 9.1475e-05
0.001111 0.00037767 0.00048277 0.00033546
-0.00090224 -0.0019064 -0.0010167 0.0013903 0.001587 9.1255e-05 0.10684 0.25646
0.001866 -0.019646 -0.00019543 2.0838e-05
-0.00085653 0.0030353 0.0015274 0.0018768 0.0011113 0.00036272 0.0018402 -0.01964
0.028597 0.21635 0.0037156 -0.014588
0.002433 0.0011563 0.00066339 0.0021353 0.00047073 0.00032894 -0.00019426 1.2006e-05
0.0037172 -0.014582 0.029473 0.32014
1340000000 0.21855 0.23355 -0.017189 -0.019075 0.00075463 0.0043727 -0.0016224 -0.00079994
0.0014333 0.0027504 0.0018075 -0.0013509
-0.017152 -0.019082 0.042782 0.37229 -0.021408 0.0038325 -0.00016719 0.0020105
0.0018591 0.0010077 0.0013706 0.00085925
0.00076862 0.0043585 -0.021413 0.0039682 0.33985 0.11447 0.0011692 -0.00084866
0.00080592 -0.00041903 0.00028929 0.00031222
-0.0016199 -0.00080793 -0.00016182 0.0020086 0.0011635 -0.00084745 0.13907 0.23617
-0.0078773 -0.01727 0.00073398 0.00040692
0.0014572 0.0027297 0.0018806 0.00097926 0.00080285 -0.00042615 -0.007906 -0.017246
0.057452 0.21152 -0.0027469 -0.013398
0.0018032 -0.0013655 0.0013869 0.00082927 0.00028933 0.00029665 0.00074851 0.00039699
-0.0027354 -0.013388 0.067793 0.31668
1400000000 0.25125 0.19539 -0.023097 -0.0078035 0.0049294 0.0030745 -0.0020162 0.00053754
0.0023558 0.00090637 0.00039393 -0.0013517
-0.023063 -0.0078133 0.079963 0.35946 -0.014907 0.01196 0.0013023 0.0014004
0.0012395 -0.00065374 0.0012854 0.00026023
0.004958 0.0030868 -0.014876 0.012051 0.35311 0.060488 0.00025637 -0.0015872
-2.0233e-05 -0.00037222 0.00044533 0.0002035
-0.0020161 0.00055423 0.0013124 0.0013992 0.0002516 -0.0015804 0.16838 0.20753
-0.014124 -0.010933 -0.0010122 -0.00052809
0.002365 0.00086782 0.0012689 -0.0006665 -1.9661e-05 -0.00037338 -0.014141 -0.010903
0.089625 0.20743 -0.0092434 -0.0091952
0.00040486 -0.0013504 0.0012895 0.0002685 0.00043726 0.00019602 -0.0010125 -0.00053134
-0.0092336 -0.0091946 0.11337 0.30652
1460000000 0.27387 0.15143 -0.020382 0.0042451 0.0054567 -0.0017021 -0.0016226 0.0016244
0.0021171 -0.00045221 -0.00033592 -0.0010383
-0.020368 0.0042201 0.11422 0.3379 -0.006474 0.015009 0.0018213 0.00024335
0.0010833 -0.0012718 0.0012071 -0.00065086
0.0054791 -0.0017099 -0.0063947 0.015064 0.35909 0.0058498 -0.0012244 -0.0013743
0.0001812 -0.00032904 0.00050114 -0.00037422
-0.0016162 0.001633 0.0018161 0.00022149 -0.0012116 -0.0013785 0.19446 0.17861
-0.01601 -0.0043401 -0.0010693 0.0021218
0.0020762 -0.00044225 0.0010637 -0.0012894 0.00018055 -0.0003306 -0.016025 -0.0043333
0.11779 0.19317 -0.011383 -0.0033937
-0.00030458 -0.0010603 0.0012017 -0.00067317 0.00051132 -0.00037006 -0.0010707 0.0021304
-0.011375 -0.0034094 0.14718 0.28644
1520000000 0.28577 0.10975 -0.014993 0.0098889 0.003294 -0.0039785 4.7883e-07 0.0025667
0.0021248 -0.001662 -0.0011195 -0.00018468
-0.014999 0.0098715 0.14795 0.32325 0.0011389 0.013097 0.0017445 -0.00079222
0.00012711 -0.0011641 0.00036742 -0.0010403
0.0032875 -0.004016 0.0012218 0.013098 0.35207 -0.050765 -0.0011534 -0.00047139
0.00063598 -0.00079931 2.9184e-05 -0.00012268
1.0765e-05 0.0025875 0.0017461 -0.0007992 -0.0011598 -0.00046015 0.21758 0.14131
-0.016099 0.0016845 0.0013313 0.0022851
0.0021163 -0.0016646 0.00010367 -0.0011619 0.00062976 -0.00079197 -0.016091 0.0017089
0.14467 0.17995 -0.011672 0.00084074
-0.0011296 -0.00017827 0.0003515 -0.001047 3.3593e-05 -0.00013344 0.0013328 0.0022741
-0.011667 0.00083324 0.18139 0.26679
1580000000 0.2951 0.063758 -0.0085082 0.013181 -0.00085129 -0.0048225 0.0013484 0.0019485
-0.00014486 -0.002081 -0.00044065 0.00044721
-0.0085071 0.013178 0.17545 0.29854 0.0048745 0.0084435 0.00050378 -0.0016767
-0.00061884 -0.0012065 -0.00030434 -0.00079791
-0.00086188 -0.0047929 0.0049194 0.00843 0.33139 -0.10832 -0.0017476 0.00063183
-0.00028076 -0.001148 6.1344e-05 -0.00041642
0.001347 0.0019465 0.00050359 -0.0016702 -0.0017608 0.00062884 0.23169 0.10259
-0.013006 0.0072664 0.0023082 0.0011588
-0.0001727 -0.0021073 -0.00063414 -0.001207 -0.00029058 -0.0011428 -0.012999 0.0072945
0.16861 0.16292 -0.0095756 0.0068906
-0.00044722 0.00043853 -0.00030543 -0.00079954 6.4399e-05 -0.00042264 0.0023018 0.0011469
-0.0095828 0.0068726 0.21456 0.24022
1640000000 0.29717 0.022482 -0.0017962 0.012411 -0.0025615 -0.0025381 0.0027366 0.0010443
-0.00055562 -0.001636 -0.00024395 0.00061835
-0.0018086 0.012391 0.20525 0.27338 0.0058592 0.0037583 -0.00069262 -0.0018037
-0.0011659 -0.00045499 -0.00048259 -0.00069932
-0.0025556 -0.0025329 0.005886 0.0037391 0.3029 -0.15765 -0.00072242 0.0015925
-0.0010671 -0.0011133 -9.9515e-05 -0.00040513
0.0027382 0.0010389 -0.00070377 -0.0018025 -0.00072733 0.0015887 0.24438 0.054273
-0.0087506 0.009416 0.0026765 -0.00067381
-0.00055579 -0.0016514 -0.0011724 -0.00044425 -0.0010818 -0.0011042 -0.0087258 0.0094373
0.19066 0.13975 -0.0051132 0.0089742
-0.00023234 0.00063873 -0.00048891 -0.00070735 -0.00010317 -0.00041602 0.0026844 -0.0006739
-0.005108 0.0089734 0.24041 0.20921
1700000000 0.28989 -0.022944 0.0017282 0.0097766 -0.0033369 2.8085e-05 0.003078 -0.001153
-0.0020436 -0.00083687 0.00071718 0.00050593
0.0017225 0.0097734 0.22345 0.24151 0.0039657 0.00087391 -0.001562 -0.00059389
-0.00092571 0.00016764 -0.00090576 -0.00042806
-0.0033428 5.5817e-05 0.0039771 0.00084426 0.25912 -0.19731 0.00047264 0.0017646
-0.0020684 -0.0001938 -0.00041291 -0.00080397
0.003064 -0.0011635 -0.0015699 -0.00058728 0.00047206 0.0017718 0.2418 0.0050215
-0.0055024 0.010753 0.0016967 -0.002262
-0.0020682 -0.00082072 -0.00092315 0.00017363 -0.0020749 -0.00019089 -0.0054918 0.010782
0.20791 0.12049 -0.00049503 0.0095735
0.00072346 0.00050157 -0.000908 -0.00042271 -0.00041013 -0.00079174 0.0017002 -0.0022623
-0.00048317 0.0095691 0.25741 0.17471
1760000000 0.2775 -0.071638 0.004274 0.0066051 -0.0021947 0.00085271 0.0013161 -0.0034357
-0.0014733 0.00063205 0.00053394 -0.00058083
0.0042651 0.0065952 0.24936 0.20128 0.0018056 -0.001001 -0.0012591 0.00023112
-0.0010087 0.0010374 -0.00057717 0.00044118
-0.0022181 0.00087489 0.0018065 -0.0010077 0.21005 -0.23003 0.0013021 0.0010862
-0.001267 0.0015108 -0.0012436 -0.000552
0.0013114 -0.0034435 -0.0012616 0.00024749 0.0012992 0.0010928 0.23335 -0.046097
-0.0013853 0.010292 -0.00010856 -0.0026251
-0.0014626 0.00065525 -0.00098914 0.0010488 -0.0012626 0.0015066 -0.0013616 0.010307
0.22283 0.086382 0.0035206 0.0072198
0.00052038 -0.00059448 -0.00058241 0.00045376 -0.0012556 -0.00053117 -0.00010968 -0.0026237
0.0035116 0.0072119 0.27032 0.13705
1820000000 0.25257 -0.10897 0.0046637 0.0029762 -6.5695e-05 0.0023346 -0.00095059 -0.0030314
-0.0012643 0.0010519 1.6211e-05 -0.00015899
0.0046613 0.0029658 0.25909 0.17089 -0.00014742 -3.7137e-05 -0.0012935 0.0010556
0.00010038 0.0013936 -0.00050702 0.00053428
-6.2552e-05 0.0023344 -0.00013883 -3.9663e-05 0.15996 -0.24549 0.0015398 0.00030561
-0.00021961 0.0023906 -0.00129 0.00022347
-0.00098949 -0.00303 -0.0012882 0.001073 0.0015483 0.00030521 0.20424 -0.093218
0.0009142 0.0085677 -0.0015541 -0.001664
-0.0012505 0.0010662 0.00010963 0.0013936 -0.00020833 0.0023759 0.00094365 0.0085754
0.24027 0.058105 0.0045877 0.0039297
8.3056e-06 -0.00017467 -0.00050267 0.00053797 -0.001289 0.00022473 -0.0015389 -0.0016616
0.0045958 0.0039232 0.27298 0.10128
1880000000 0.2172 -0.14914 0.0026084 0.00059209 -0.00044521 0.0020738 -0.0029248 -0.0021848
-0.00021386 0.0018496 0.0002322 -0.00057598
0.0026146 0.00055937 0.26306 0.12418 -0.0022462 0.0016115 -9.5731e-05 0.0017058
0.00070405 0.0011258 0.00015201 0.00092025
-0.00041984 0.0021019 -0.0022356 0.0016251 0.10768 -0.25501 0.0017464 -0.0010278
0.0016219 0.0019901 -0.0010498 0.0013231
-0.0029444 -0.0021914 -8.4577e-05 0.0017138 0.0017414 -0.0010142 0.16432 -0.13364
0.0022877 0.0062116 -0.0024361 0.0002911
-0.00017547 0.0018505 0.00071317 0.001112 0.0016164 0.0019841 0.0023029 0.0062088
0.24365 0.026226 0.0050044 0.0018271
0.00020015 -0.00058686 0.00014971 0.00091919 -0.0010382 0.0012991 -0.0024334 0.00029942
0.0049995 0.0018241 0.27286 0.06721
1940000000 0.17755 -0.17474 0.00041568 -0.0012572 0.0013009 0.0019562 -0.0036487 0.00045042
0.0014941 0.0011045 -0.00076559 -0.00056499
0.00040137 -0.0012591 0.26319 0.092392 -0.0010571 0.0038498 0.0011417 0.0012711
0.0018571 0.0003195 0.00082263 0.0002301
0.0013584 0.0019559 -0.0010376 0.0038793 0.061872 -0.24785 0.00032771 -0.0021683
0.0024583 0.00036285 0.00022816 0.0016507
-0.0036468 0.00045843 0.0011554 0.0012695 0.00031448 -0.0021714 0.11252 -0.1649
0.0018551 0.0042623 -0.0013543 0.0014468
0.0015003 0.0010699 0.0018554 0.00031753 0.0024502 0.00035713 0.0018746 0.0042615
0.24623 -0.012431 0.0040405 -0.0016027
-0.0007942 -0.0005391 0.00082147 0.0002308 0.00022649 0.001663 -0.0013588 0.0014545
0.0040379 -0.0015996 0.26241 0.03155
2000000000 0.13105 -0.18914 -0.0033863 0.00061481 0.0025437 0.0015999 -0.0024076 0.0033701
0.0012189 -3.2864e-05 -0.00073899 0.00035094
-0.0034033 0.00060993 0.24866 0.057142 -0.00083381 0.0057302 0.0016298 0.00025188
0.0012457 -0.0014719 0.00048705 0.00012891
0.0025561 0.0015818 -0.00079991 0.0057583 0.018808 -0.23317 -0.0013201 -0.0012316
0.0019026 -0.0012635 0.0015669 0.0012736
-0.002382 0.003383 0.0016278 0.00024527 -0.0013248 -0.001252 0.058912 -0.17537
0.00018623 0.0033238 -0.00011071 0.0021206
0.0012398 -5.2105e-05 0.0012309 -0.0014701 0.0018919 -0.0012598 0.00021353 0.0033228
0.24074 -0.04662 0.00090032 -0.0026027
