!Keysight Technologies,M9804A,MY58100912,A.14.10.03
!Date: Thursday, April 27, 2023 10:28:33
!Correction: S11(C  6-Port  ) 
!S12(C  6-Port  ) 
!S13(C  6-Port  ) 
!S14(C  6-Port  ) 
!S15(C  6-Port  ) 
!S16(C  6-Port  ) 
!S21(C  6-Port  ) 
!S22(C  6-Port  ) 
!S23(C  6-Port  ) 
!S24(C  6-Port  ) 
!S25(C  6-Port  ) 
!S26(C  6-Port  ) 
!S31(C  6-Port  ) 
!S32(C  6-Port  ) 
!S33(C  6-Port  ) 
!S34(C  6-Port  ) 
!S35(C  6-Port  ) 
!S36(C  6-Port  ) 
!S41(C  6-Port  ) 
!S42(C  6-Port  ) 
!S43(C  6-Port  ) 
!S44(C  6-Port  ) 
!S45(C  6-Port  ) 
!S46(C  6-Port  ) 
!S51(C  6-Port  ) 
!S52(C  6-Port  ) 
!S53(C  6-Port  ) 
!S54(C  6-Port  ) 
!S55(C  6-Port  ) 
!S56(C  6-Port  ) 
!S61(C  6-Port  ) 
!S62(C  6-Port  ) 
!S63(C  6-Port  ) 
!S64(C  6-Port  ) 
!S65(C  6-Port  ) 
!S66(C  6-Port  ) 
!S6P File: Measurement: :
# Hz S  RI   R 50
500000000 -0.3375 -0.038946 -0.0099233 -0.0026878 -0.007585 0.012389 -0.0040205 0.012282
0.012182 0.0045905 -0.004826 0.0092446
-0.010315 -0.0020367 -0.4193 -0.052252 0.008209 -0.010933 0.0018317 0.012631
0.0077886 0.0022884 0.0016673 0.013178
-0.0079906 0.012706 0.0078501 -0.010759 -0.26489 0.20863 0.0074678 0.0034524
-0.0018731 0.0077358 0.0015288 0.011897
-0.003831 0.012197 0.0018807 0.012442 0.0075017 0.003071 -0.33114 0.040781
-0.019328 -0.0065533 0.01678 0.025929
0.011583 0.0054067 0.0075656 0.002444 -0.0011869 0.0085964 -0.019447 -0.0053582
-0.22052 -0.20304 -0.025884 0.0049392
-0.004721 0.0096124 0.0016327 0.013732 0.0016424 0.011659 0.016877 0.025625
-0.025657 0.0049042 -0.26266 -0.14021
560000000 -0.31666 0.1238 -0.022546 -0.064179 -0.00014084 0.011515 0.0054023 0.010828
0.010664 0.0045573 0.011552 0.0083238
-0.022572 -0.063341 -0.3775 0.10676 -0.040759 -0.037615 0.013388 0.0034703
-0.012892 -0.00478 0.0036215 -0.00026675
-5.3613e-05 0.012325 -0.041018 -0.037586 -0.18339 0.25657 -0.00039161 -0.0042323
0.020022 0.0054891 0.0062677 -0.0058
0.0064949 0.011195 0.013862 0.0033388 -0.00038269 -0.0042253 -0.30611 0.13134
0.0044255 -0.02375 0.0045374 -0.021923
0.010715 0.0042677 -0.012878 -0.0050889 0.018776 0.0055172 0.0036154 -0.024581
-0.28841 -0.027724 0.0082838 -0.04891
0.011359 0.0075056 0.0040905 -0.0010223 0.0069773 -0.0066051 0.0052815 -0.020954
0.0084595 -0.048799 -0.32941 0.01037
620000000 -0.27547 0.10539 -0.022752 0.007715 0.0033233 0.0088 0.0081855 -0.0050959
0.011036 -0.00023228 0.0020768 -0.0026047
-0.02272 0.0077106 -0.40238 0.059099 -0.018476 -0.00010361 -0.0011792 -0.0020767
0.011285 -0.0060874 0.0013767 -0.0029933
0.0032525 0.0088696 -0.018387 9.05e-05 -0.15377 0.26606 -0.0014618 -0.0050331
-0.0029668 -0.0024864 0.0083778 -0.0033087
0.0076584 -0.004639 -0.0014016 -0.0019216 -0.0015289 -0.0049477 -0.26671 0.14236
-0.037917 -0.020064 0.012003 0.026334
0.011918 0.00035699 0.011534 -0.0062571 -0.0029575 -0.0028721 -0.038686 -0.01962
-0.20729 -0.063672 -0.041784 0.01477
0.0019925 -0.0023591 0.0013498 -0.002839 0.0081397 -0.0031466 0.0123 0.026205
-0.041969 0.014677 -0.2488 -0.027178
680000000 -0.23462 0.19252 -0.027131 -0.014607 0.0048079 0.0050225 0.0013167 -0.0075516
-0.0031966 -0.011134 0.0052615 -0.0067181
-0.027259 -0.014344 -0.38769 0.15718 -0.032721 -0.0014393 -0.0016097 -0.00082368
-0.0020405 -0.008951 -0.0010845 -0.0017254
0.0052013 0.0051099 -0.032694 -0.0014669 -0.10266 0.28589 -0.00080594 -0.00014935
-0.0017619 0.00041006 -0.0028181 -0.0091228
0.0018496 -0.0077231 -0.0015551 -0.00059112 -0.00082902 -0.00018235 -0.22165 0.19411
-0.02412 -0.0074809 -0.010632 -0.01173
-0.0035443 -0.011605 -0.0022229 -0.0091715 -0.0013997 0.00047619 -0.02403 -0.0075931
-0.25933 0.035154 -0.0049579 -0.0083192
0.004955 -0.0070693 -0.00087335 -0.0018052 -0.0032693 -0.0092178 -0.0103 -0.011916
-0.0050399 -0.0081062 -0.26118 0.080229
740000000 -0.19037 0.18662 -0.039483 0.02612 0.012598 -0.0052389 -0.00026348 -0.0044842
-0.0041261 -0.0027321 -0.0062281 0.0024001
-0.039263 0.026439 -0.33459 0.17606 -0.035971 0.034817 -0.0010923 -0.0063053
-0.011881 0.0079479 -0.0021732 -0.006198
0.01287 -0.0051731 -0.035329 0.035101 -0.068896 0.2841 -0.0020182 0.0030716
-0.0018906 -0.0048004 -0.0020539 -0.00036721
-0.0004468 -0.0040484 -0.00091013 -0.0061445 -0.0020615 0.0028183 -0.20498 0.20155
-0.044313 -0.0068482 0.02323 0.015449
-0.0047452 -0.0026944 -0.012072 0.0070441 -0.0022838 -0.0048533 -0.044226 -0.0069738
-0.15855 0.062193 -0.044271 -0.00039144
-0.0059571 0.0021571 -0.002119 -0.0058612 -0.0020232 -0.00070156 0.023104 0.015017
-0.044285 -0.00010243 -0.25049 0.085559
800000000 -0.1582 0.22702 -0.022701 0.016727 0.0052238 -0.010502 -0.0048439 -0.0022727
-0.0040407 0.0023057 0.0047181 0.00021827
-0.022811 0.016509 -0.33848 0.24617 -0.0080739 0.033892 -0.0024562 0.0021215
-0.00072701 0.0028179 0.0011001 0.0052765
0.0049949 -0.010478 -0.0079375 0.033999 -0.028199 0.30768 0.00094299 0.0014558
0.00031144 0.0035094 -0.0016919 0.00074313
-0.0049966 -0.0024498 -0.0024988 0.0023531 0.0009353 0.0014633 -0.17596 0.22984
-0.028968 0.014171 0.014031 -0.010565
-0.0041596 0.0022416 -0.00038451 0.002781 0.00030441 0.0037168 -0.029108 0.014163
-0.20704 0.086151 -0.01771 0.019378
0.0041406 0.00012655 0.0010545 0.0056391 -0.0016636 0.00069419 0.013888 -0.010473
-0.017921 0.019299 -0.24608 0.1357
860000000 -0.12358 0.24747 -0.017822 0.030628 -0.0033585 -0.0098516 -0.0022906 0.00095476
0.0040699 0.0048381 -0.0034316 -0.0029913
-0.017742 0.030657 -0.29081 0.2881 0.0076393 0.034078 6.4824e-05 0.0021946
0.0041998 -5.7157e-05 0.0032492 0.00077066
-0.0033862 -0.009864 0.0078281 0.034069 0.019973 0.31553 -0.00059523 -0.00018631
0.0028354 -0.0015894 0.0014785 0.0044257
-0.0023512 0.000988 -3.7346e-05 0.0019894 -0.00063147 -0.00021327 -0.13972 0.24116
-0.018112 0.018686 -0.0060724 -0.0091476
0.0037787 0.0046958 0.0041225 3.1427e-05 0.0026971 -0.001623 -0.017886 0.018806
-0.15537 0.1382 -0.026682 0.015193
-0.0035101 -0.0028533 0.0035119 0.00081541 0.0013963 0.0044925 -0.0059646 -0.009232
-0.026754 0.015159 -0.19405 0.18381
920000000 -0.098902 0.27095 0.0049936 0.037982 -0.0093781 -0.0042155 -0.0017855 0.0018881
0.00089556 0.0019861 0.0026004 -0.0014901
0.0049681 0.038048 -0.26206 0.30965 0.027888 0.02201 0.0016031 0.0011105
0.0071321 -0.00041584 0.0039703 -0.0024874
-0.0093623 -0.0040437 0.027993 0.021984 0.066309 0.31603 0.0018776 -7.6204e-05
0.0012176 -0.00031623 0.00093369 -0.00102
-0.0017081 0.0018988 0.0014618 0.0010878 0.0018518 -2.654e-06 -0.11554 0.258
-0.010949 0.031261 0.0040655 -0.0065106
0.0011481 0.0019576 0.0070087 1.6885e-05 0.0012907 -0.00031144 -0.010823 0.031264
-0.1457 0.14451 -0.0032092 0.027582
0.0025294 -0.0014975 0.0039259 -0.0026533 0.00087627 -0.00093872 0.0040007 -0.0065163
-0.0032354 0.027641 -0.20472 0.19734
980000000 -0.05133 0.2898 0.017581 0.030009 -0.0088816 0.0047123 0.0020542 0.0033685
0.0039756 -0.0013352 -0.0033103 -0.0021211
0.017337 0.030207 -0.20873 0.34348 0.03279 0.0050083 0.0020698 -0.0001534
0.0016172 -0.0057546 -0.00035214 -0.0023629
-0.0088694 0.0047465 0.032922 0.0048516 0.11239 0.30931 0.00059362 -0.00119
0.00046383 -0.0020814 0.0015223 -0.0002256
0.0021929 0.0034396 0.002049 -5.7974e-05 0.00054254 -0.0011354 -0.076957 0.26925
0.0081011 0.030797 -0.009003 -0.0072652
0.0040398 -0.0014035 0.0016273 -0.00601 0.00034105 -0.0021046 0.0080898 0.030876
-0.11463 0.17444 0.0048661 0.019911
-0.0031265 -0.0022064 -0.00023752 -0.002318 0.0014603 -2.9414e-05 -0.0091441 -0.0073368
0.0048673 0.019902 -0.16283 0.24353
1040000000 -0.0088115 0.29848 0.033047 0.018304 -0.0011329 0.0068909 0.0025794 0.00054592
0.00017537 -0.00377 -0.00029202 -0.0014746
0.033075 0.018266 -0.17318 0.35642 0.02927 -0.014573 0.001548 -0.0017421
-0.0023342 -0.0025689 -0.0013299 -0.0025705
-0.00099628 0.006919 0.029199 -0.014696 0.15822 0.29553 -0.00048013 -0.001593
-0.0015156 -0.00096255 -0.00040971 -0.001147
0.0025179 0.00057598 0.001468 -0.0017977 -0.00053356 -0.0015655 -0.049586 0.27941
0.019781 0.018676 -0.0021227 0.0012802
0.00025704 -0.0035065 -0.0022851 -0.0028347 -0.0015654 -0.0010235 0.019808 0.018626
-0.081758 0.18173 0.013374 0.019247
-0.00024084 -0.0013457 -0.0014781 -0.0026822 -0.00048046 -0.0010921 -0.0020232 0.0013078
0.013351 0.019236 -0.14228 0.26411
1100000000 0.036329 0.30621 0.03581 -0.003986 0.0029605 0.0037652 0.0022858 -0.0013361
-0.0020264 -0.0032063 -0.0038495 -3.4653e-05
0.035748 -0.0039785 -0.12966 0.37358 0.015112 -0.027497 -3.6228e-05 -0.0018122
-0.0032862 -0.00089732 -0.0035395 -0.00052667
0.0029519 0.0037078 0.015041 -0.027558 0.20428 0.27531 -0.001893 0.00015341
-0.0018665 0.00038623 -0.0011125 -0.00040798
0.0023913 -0.0013582 -9.4964e-05 -0.0018069 -0.0019081 0.00011604 -0.0090884 0.28427
0.025313 0.0054424 -0.0024449 -0.00013652
-0.0020667 -0.0031663 -0.0032336 -0.00091019 -0.0018612 0.00034439 0.025288 0.0054351
-0.063705 0.19538 0.01924 0.0091306
-0.0039138 -4.52e-05 -0.0036359 -0.00056269 -0.0011319 -0.00055966 -0.0025346 -0.00012378
0.019252 0.0090936 -0.096462 0.29556
1160000000 0.087939 0.3009 0.024014 -0.020487 0.0027708 -0.00066657 -0.00034394 -0.0023635
-0.004195 -0.00075949 -0.00095069 0.0040025
0.02398 -0.020523 -0.086229 0.37738 -0.0034303 -0.028834 -0.0016601 -0.0016767
-0.0028071 0.0023137 -0.001477 0.0017725
0.0027398 -0.00064458 -0.0035727 -0.028844 0.24715 0.24486 -0.00073256 0.0016978
-0.00076866 0.0018879 -0.00096669 0.00020825
-0.00030761 -0.0024057 -0.0017017 -0.001674 -0.00072001 0.0017226 0.030175 0.28138
0.021887 -0.010351 -0.0029615 0.0050989
-0.0041252 -0.00074167 -0.0027454 0.0022542 -0.00074951 0.001877 0.021775 -0.010419
-0.029809 0.20421 0.01845 0.0011653
-0.0010144 0.00399 -0.0014098 0.0018483 -0.0010347 0.00024862 -0.002911 0.0052051
0.01843 0.0011787 -0.049435 0.29907
1220000000 0.1321 0.28971 0.010597 -0.029763 -0.0015413 -0.00096868 -2.1737e-05 -0.00079671
-0.0026635 0.0024358 0.0013207 0.0020347
0.010642 -0.029687 -0.042029 0.38929 -0.016481 -0.021061 -0.002503 0.00044228
-0.00012523 0.0029586 -0.00078002 0.0018661
-0.0015586 -0.0009722 -0.016584 -0.021001 0.28645 0.20624 0.00073804 0.0016309
0.00052069 0.0012688 0.00033755 0.00072093
-9.1635e-05 -0.00080315 -0.0025399 0.00041129 0.00071346 0.0016492 0.070024 0.27298
0.01114 -0.017297 0.0020277 0.0013081
-0.002741 0.0024828 -7.9843e-05 0.0030207 0.00053525 0.001246 0.011178 -0.017311
-0.0079058 0.21289 0.014652 -0.012512
0.0012648 0.0020497 -0.00083223 0.0019503 0.00029357 0.00074102 0.002085 0.0013723
0.014624 -0.012448 -0.018899 0.31677
1280000000 0.18177 0.26747 -0.0075488 -0.028313 -0.0019224 0.0022881 -0.0008615 -0.0018406
-0.00085829 0.0030186 0.0024149 0.0011734
-0.0075559 -0.028316 0.0035605 0.38033 -0.023322 -0.008692 -0.0010475 0.0013842
0.0015382 0.0018542 0.0006377 0.0021415
-0.0019291 0.0023194 -0.023397 -0.008611 0.31733 0.16259 0.0016024 0.0001245
0.0011173 0.00037407 0.00050786 0.00030234
-0.00083591 -0.0018953 -0.0010436 0.0013934 0.0015599 6.3264e-05 0.10676 0.25653
0.0018535 -0.019571 -0.00024098 1.4827e-05
-0.00086501 0.0030167 0.0015413 0.0019049 0.0011252 0.00042811 0.0018183 -0.019585
0.028456 0.21645 0.0036587 -0.014779
0.0024924 0.0011997 0.00062483 0.002115 0.00042869 0.00031115 -0.00035679 2.3402e-05
0.0036584 -0.01478 0.029556 0.32017
1340000000 0.21859 0.23346 -0.017233 -0.019096 0.00075458 0.0043463 -0.0016126 -0.00079498
0.0014259 0.00273 0.0018204 -0.0013489
-0.017207 -0.019118 0.042784 0.37229 -0.021422 0.0038495 -0.00012977 0.0020344
0.0018728 0.0010084 0.0013991 0.00082737
0.00078577 0.0043585 -0.021414 0.0039409 0.3398 0.11456 0.0012016 -0.00081304
0.00081849 -0.00042273 0.00029173 0.00031232
-0.001619 -0.00075438 -0.00018952 0.001979 0.0011572 -0.00078984 0.13904 0.23617
-0.007848 -0.017241 0.00072559 0.0004489
0.0014112 0.0027527 0.0019116 0.0010029 0.00083826 -0.00046583 -0.0078439 -0.017299
0.057368 0.21166 -0.0029147 -0.01353
0.0018249 -0.0013675 0.0013368 0.00078067 0.00024628 0.00026568 0.00075077 0.00038405
-0.0029136 -0.013555 0.06779 0.31668
1400000000 0.25121 0.19536 -0.023128 -0.0078243 0.0049138 0.0031234 -0.0020303 0.00053365
0.0023557 0.00087632 0.0004097 -0.0013662
-0.023129 -0.0077879 0.079958 0.35944 -0.014923 0.011968 0.0012959 0.0014027
0.0012772 -0.00066082 0.0012732 0.00028005
0.0049236 0.0030733 -0.014898 0.012039 0.3532 0.060531 0.00023186 -0.0016136
6.1022e-06 -0.00038588 0.00044967 0.00020388
-0.0020043 0.00054247 0.0013226 0.0014183 0.00023131 -0.0016043 0.16843 0.20757
-0.014081 -0.010927 -0.00098804 -0.00048682
0.0023855 0.00089219 0.0013025 -0.00063857 6.6933e-05 -0.00041135 -0.01409 -0.010862
0.089591 0.20753 -0.0094564 -0.0092302
0.00034526 -0.0013383 0.0012914 0.00030673 0.00033915 0.00018366 -0.0010053 -0.00046943
-0.0094633 -0.0092422 0.11342 0.30644
1460000000 0.27376 0.15147 -0.020373 0.004306 0.0054681 -0.0016523 -0.0016219 0.0015957
0.002104 -0.00044783 -0.00030719 -0.0010647
-0.020349 0.004241 0.11422 0.33791 -0.0064561 0.015009 0.0017879 0.00021662
0.0010534 -0.0012674 0.001196 -0.00065571
0.0054612 -0.0017438 -0.0064167 0.015084 0.3591 0.0057633 -0.0012095 -0.0013293
0.00015719 -0.00033763 0.00051516 -0.00037748
-0.0016383 0.0016165 0.0018198 0.00020393 -0.0011862 -0.0013703 0.19452 0.17865
-0.015991 -0.0043793 -0.0010525 0.0021516
0.0020497 -0.00042299 0.0010594 -0.0013084 0.00024817 -0.00027025 -0.015991 -0.0043164
0.11785 0.19318 -0.011628 -0.0033119
-0.00036158 -0.00108 0.0012297 -0.00071514 0.0004941 -0.00044392 -0.0011083 0.0022
-0.011597 -0.0032854 0.14714 0.28631
1520000000 0.28574 0.10976 -0.01497 0.009925 0.0033209 -0.003961 1.6912e-05 0.0025731
0.0021297 -0.0016387 -0.001124 -0.00018717
-0.014996 0.0099223 0.14794 0.32324 0.0011301 0.01313 0.0017545 -0.00079215
0.0001158 -0.0011524 0.00036313 -0.0010367
0.0033293 -0.0039961 0.0011966 0.013143 0.35207 -0.050769 -0.0011673 -0.00047474
0.00063572 -0.0008037 1.3076e-05 -0.00013571
7.384e-05 0.0025706 0.0017499 -0.000783 -0.0011371 -0.00047088 0.2176 0.1413
-0.016063 0.0016444 0.0013691 0.0022813
0.0021462 -0.0016595 0.00012279 -0.0011472 0.00064413 -0.00083302 -0.016051 0.0016799
0.14465 0.17993 -0.011811 0.0010006
-0.0011852 -0.00021497 0.00035833 -0.001066 -6.7714e-06 -0.00011241 0.0013526 0.0022308
-0.011794 0.0010158 0.18129 0.26675
1580000000 0.29503 0.063791 -0.0084768 0.013226 -0.00088179 -0.0047733 0.0013569 0.001963
-0.00016335 -0.0021198 -0.00045784 0.00043473
-0.0085135 0.013192 0.17542 0.29852 0.0048564 0.0084538 0.00050645 -0.001652
-0.00061038 -0.0012198 -0.0003049 -0.00080521
-0.00088909 -0.0047843 0.0049182 0.0084701 0.33136 -0.10832 -0.0017778 0.00060822
-0.00028421 -0.0011466 7.029e-05 -0.00041788
0.0013619 0.002 0.00050395 -0.0016831 -0.0017325 0.0006344 0.23171 0.10253
-0.013002 0.0072359 0.0023394 0.0011357
-0.00018909 -0.002063 -0.00064197 -0.001217 -0.00033072 -0.001179 -0.012987 0.007294
0.16857 0.16291 -0.0096036 0.0070738
-0.00042892 0.00040578 -0.00026708 -0.00083525 8.1841e-05 -0.00041322 0.0023928 0.001172
-0.009624 0.0070611 0.21442 0.24021
1640000000 0.29715 0.02252 -0.0017698 0.012428 -0.0026009 -0.0025441 0.0027277 0.0010644
-0.00055579 -0.001641 -0.00024377 0.00064156
-0.0017776 0.012431 0.20525 0.27341 0.0058552 0.0037873 -0.00070765 -0.0018133
-0.0011647 -0.00045287 -0.0004868 -0.00071006
-0.0025856 -0.0025316 0.0059106 0.0037592 0.3029 -0.15751 -0.000712 0.0016082
-0.0011089 -0.0011136 -0.00011058 -0.00044165
0.0027606 0.0010203 -0.00072206 -0.0018463 -0.00067262 0.0016154 0.24434 0.054264
-0.0087569 0.0093773 0.0026957 -0.00071704
-0.00052809 -0.0016357 -0.0011519 -0.00043433 -0.0010876 -0.0010491 -0.0087491 0.009392
0.19061 0.13975 -0.0050373 0.0091585
-0.00030111 0.00065233 -0.00053715 -0.00073264 -6.6879e-05 -0.00040008 0.0026562 -0.00071769
-0.0050465 0.0091727 0.24023 0.20931
1700000000 0.28991 -0.022872 0.0017869 0.0097763 -0.0033774 7.1166e-05 0.0030471 -0.0011246
-0.0020519 -0.00085037 0.00071863 0.0005077
0.0017565 0.0097624 0.22347 0.24153 0.0039754 0.0008594 -0.0015877 -0.00059002
-0.00090678 0.00016283 -0.00090921 -0.00043768
-0.0033615 8.5835e-05 0.0039988 0.00085231 0.25915 -0.19727 0.00044645 0.0017391
-0.0020938 -0.00020046 -0.00041445 -0.00079513
0.00301 -0.0011701 -0.001586 -0.00055397 0.00047171 0.0017715 0.24179 0.0050585
-0.005526 0.010713 0.0016754 -0.0022968
-0.0021141 -0.00080878 -0.00093105 0.00015379 -0.0020805 -0.00018498 -0.0055287 0.010784
0.20781 0.1205 -0.00034954 0.0096676
0.00073468 0.00050379 -0.00091578 -0.00039322 -0.00042433 -0.00069766 0.0016324 -0.0023094
-0.00035729 0.0096563 0.25724 0.17492
1760000000 0.27752 -0.0716 0.004264 0.0066104 -0.0022243 0.00085924 0.0013101 -0.0034309
-0.0014672 0.00063936 0.00052609 -0.0005859
0.004269 0.0065961 0.24934 0.2013 0.0017967 -0.00099293 -0.0012588 0.00024803
-0.00099701 0.0010376 -0.00058657 0.0004489
-0.0022164 0.00092267 0.0018029 -0.0010135 0.21002 -0.22997 0.001302 0.0010809
-0.0012259 0.0015031 -0.0012598 -0.00056227
0.0012735 -0.0034287 -0.0012339 0.0002386 0.0013224 0.0010332 0.23331 -0.046053
-0.0014063 0.0103 -0.00011732 -0.0026523
-0.0014627 0.00064639 -0.00097341 0.0010567 -0.0011904 0.0014923 -0.0013523 0.010326
0.22275 0.086466 0.0036875 0.0072559
0.00056188 -0.00058175 -0.00057787 0.00043337 -0.0012153 -0.00058748 -6.7978e-05 -0.0026196
0.003694 0.0072562 0.27026 0.1372
1820000000 0.25262 -0.10893 0.0046964 0.0029359 -4.4135e-05 0.0023245 -0.001006 -0.0030302
-0.0012463 0.0010322 2.2706e-05 -0.00017481
0.0046468 0.0029365 0.25909 0.1709 -0.00014684 -6.8758e-05 -0.0012771 0.0010486
9.9688e-05 0.0013972 -0.00050313 0.00052134
-4.38e-05 0.0023569 -0.00013918 -6.8244e-05 0.15986 -0.2454 0.0015517 0.00036034
-0.00020462 0.0024297 -0.0012632 0.00023778
-0.0010052 -0.0029937 -0.0012763 0.0010796 0.0015036 0.00031026 0.20416 -0.093246
0.00092187 0.0085792 -0.00156 -0.0016673
-0.001283 0.0010428 0.00011229 0.0013967 -0.00021305 0.0024073 0.00091997 0.0085774
0.24022 0.058213 0.0047551 0.0038721
6.0768e-05 -0.00020671 -0.00049963 0.00056524 -0.0012799 0.00024336 -0.0015307 -0.0016382
0.0047655 0.0038688 0.273 0.10138
1880000000 0.21712 -0.14917 0.0026057 0.0005201 -0.00050006 0.0020872 -0.0028921 -0.0022365
-0.00018537 0.0018568 0.00020232 -0.00058375
0.0025984 0.0005296 0.26309 0.1242 -0.002247 0.0016239 -9.9072e-05 0.0017296
0.00070843 0.0011224 0.0001358 0.00093044
-0.00035426 0.0020294 -0.0022092 0.0016622 0.10773 -0.25498 0.0017183 -0.0010573
0.0016248 0.0019805 -0.0010333 0.0012989
-0.0029222 -0.0021947 -0.00010264 0.0017486 0.0016788 -0.0010626 0.16443 -0.13363
0.0023196 0.0062193 -0.0024473 0.00031109
-0.00018439 0.0018572 0.00068034 0.0011499 0.0016218 0.0019191 0.0023242 0.0062963
0.24362 0.026362 0.0051209 0.0017125
0.000194 -0.00060516 0.00019495 0.00092975 -0.0010738 0.0012746 -0.0024981 0.0003487
0.0050931 0.0017113 0.2729 0.067239
1940000000 0.17755 -0.1747 0.00040847 -0.0012524 0.0013635 0.0019391 -0.0036909 0.00040778
0.0014725 0.0010706 -0.00077839 -0.00053788
0.00037549 -0.0012861 0.26319 0.092441 -0.001116 0.0038686 0.0011571 0.0012521
0.0018517 0.00032639 0.00080885 0.00023667
0.0013513 0.001943 -0.0010786 0.0039046 0.061782 -0.24787 0.00032321 -0.0021484
0.0024737 0.00036628 0.0002529 0.001608
-0.0036932 0.00056668 0.0011541 0.0012186 0.00026214 -0.0021645 0.1125 -0.16485
0.0018394 0.0042516 -0.0013837 0.001454
0.0015022 0.001116 0.001899 0.00030828 0.0024352 0.00034561 0.0018512 0.0042101
0.24627 -0.012396 0.0040994 -0.0017617
-0.000729 -0.00062638 0.00075323 0.00019382 0.00014164 0.0016172 -0.0013109 0.0013382
0.0041126 -0.0017558 0.26243 0.031613
2000000000 0.13104 -0.18926 -0.0033828 0.00060959 0.0024231 0.0015646 -0.0023843 0.0033715
0.001244 -4.8621e-05 -0.00070691 0.00037748
-0.0034449 0.00059822 0.24866 0.057152 -0.0008188 0.0057065 0.0015851 0.00022523
0.0012488 -0.0014492 0.0004839 0.00013531
0.002496 0.0016737 -0.00081856 0.0057528 0.018877 -0.23316 -0.001345 -0.001245
0.0019029 -0.0012971 0.0015814 0.0012265
-0.0024547 0.0033256 0.0016234 0.00024592 -0.001289 -0.0011395 0.059002 -0.1753
0.000207 0.0033148 -0.00012338 0.0021549
0.0011737 -5.7365e-05 0.0012001 -0.0014002 0.0018135 -0.001236 0.00019414 0.0033555
0.24076 -0.046489 0.00086639 -0.002748
