!Keysight Technologies,M9804A,MY58100912,A.14.10.03
!Date: Thursday, April 27, 2023 10:28:33
!Correction: S11(C  6-Port  ) 
!S12(C  6-Port  ) 
!S13(C  6-Port  ) 
!S14(C  6-Port  ) 
!S15(C  6-Port  ) 
!S16(C  6-Port  ) 
!S21(C  6-Port  ) 
!S22(C  6-Port  ) 
!S23(C  6-Port  ) 
!S24(C  6-Port  ) 
!S25(C  6-Port  ) 
!S26(C  6-Port  ) 
!S31(C  6-Port  ) 
!S32(C  6-Port  ) 
!S33(C  6-Port  ) 
!S34(C  6-Port  ) 
!S35(C  6-Port  ) 
!S36(C  6-Port  ) 
!S41(C  6-Port  ) 
!S42(C  6-Port  ) 
!S43(C  6-Port  ) 
!S44(C  6-Port  ) 
!S45(C  6-Port  ) 
!S46(C  6-Port  ) 
!S51(C  6-Port  ) 
!S52(C  6-Port  ) 
!S53(C  6-Port  ) 
!S54(C  6-Port  ) 
!S55(C  6-Port  ) 
!S56(C  6-Port  ) 
!S61(C  6-Port  ) 
!S62(C  6-Port  ) 
!S63(C  6-Port  ) 
!S64(C  6-Port  ) 
!S65(C  6-Port  ) 
!S66(C  6-Port  ) 
!S6P File: Measurement: :
# Hz S  RI   R 50
500000000 -0.33661 -0.038963 -0.0096779 -0.0018252 -0.0078051 0.012705 -0.0043108 0.012685
0.012682 0.0040503 -0.0048737 0.0093585
-0.0096348 -0.0018317 -0.41894 -0.051921 0.0080449 -0.010744 0.0019521 0.012252
0.0075833 0.0024358 0.001529 0.013237
-0.0077994 0.012712 0.0079996 -0.010765 -0.26509 0.2088 0.0078933 0.003458
-0.0018799 0.0077847 0.0016916 0.01199
-0.0042513 0.012682 0.0020774 0.012208 0.0079315 0.0034306 -0.33123 0.04176
-0.019824 -0.0067345 0.016466 0.026137
0.012124 0.0042113 0.0073666 0.0025339 -0.0019597 0.0078609 -0.019788 -0.0069106
-0.21953 -0.2028 -0.026012 0.004569
-0.0048603 0.0092279 0.0019083 0.013768 0.0019478 0.012238 0.016286 0.026639
-0.026284 0.0047237 -0.26355 -0.13948
560000000 -0.31578 0.12221 -0.024253 -0.063449 0.00017941 0.011717 0.0056536 0.011033
0.010664 0.0052588 0.011284 0.0084022
-0.0242 -0.063373 -0.37719 0.1069 -0.041139 -0.037566 0.013952 0.0038484
-0.012532 -0.0053414 0.0032255 -0.00038122
0.00018073 0.011655 -0.041317 -0.037476 -0.18259 0.25719 -0.00077256 -0.0042339
0.019939 0.0051897 0.0063752 -0.0055739
0.0057305 0.010981 0.014017 0.003664 -0.00081577 -0.0041544 -0.30738 0.13105
0.0040206 -0.02408 0.0047513 -0.022004
0.010681 0.0047426 -0.013174 -0.0051381 0.020197 0.0052163 0.0038375 -0.024007
-0.2874 -0.027631 0.0090783 -0.048928
0.011305 0.0080529 0.003358 -0.00027853 0.006283 -0.0055806 0.0046425 -0.021804
0.0091606 -0.048798 -0.32943 0.010619
620000000 -0.27564 0.10599 -0.023064 0.0076896 0.0029986 0.0083297 0.0082674 -0.0053195
0.011526 0.00029728 0.0023958 -0.0026101
-0.023038 0.007668 -0.40255 0.059164 -0.018408 2.3566e-05 -0.0011731 -0.0020106
0.011284 -0.006026 0.0014584 -0.0029935
0.0030477 0.0082783 -0.018453 6.3475e-05 -0.15358 0.26566 -0.001375 -0.0049388
-0.0029842 -0.0022808 0.0084398 -0.0031089
0.008339 -0.0053272 -0.0011815 -0.0020045 -0.001295 -0.0050062 -0.26764 0.14251
-0.03793 -0.019146 0.011782 0.026254
0.011165 -0.00027171 0.011158 -0.0060832 -0.0031543 -0.0025296 -0.037659 -0.01926
-0.20753 -0.063626 -0.04157 0.014609
0.0023345 -0.0026393 0.0014542 -0.0028797 0.0084277 -0.003215 0.011699 0.026302
-0.041746 0.014859 -0.24864 -0.027246
680000000 -0.23494 0.19136 -0.027128 -0.014534 0.004867 0.0051353 0.0015368 -0.0072364
-0.0030784 -0.01119 0.0050648 -0.0067984
-0.027105 -0.014528 -0.38767 0.15705 -0.032672 -0.0015216 -0.0016172 -0.00062442
-0.0021572 -0.0088661 -0.0010049 -0.0015299
0.0048814 0.0051057 -0.0327 -0.0014221 -0.10261 0.28594 -0.00074637 -5.0762e-05
-0.0018155 0.00067735 -0.0028344 -0.0090939
0.0015708 -0.0072929 -0.0016099 -0.00059011 -0.00071022 -7.1859e-05 -0.22221 0.19394
-0.023969 -0.0075076 -0.010504 -0.011848
-0.0032805 -0.011221 -0.0021226 -0.0087845 -0.001737 0.00063974 -0.02401 -0.0073877
-0.25901 0.035007 -0.0052136 -0.0082975
0.0050553 -0.0067249 -0.00098067 -0.0016475 -0.0027966 -0.0090029 -0.010413 -0.011979
-0.0051757 -0.0082836 -0.26083 0.080527
740000000 -0.19085 0.18642 -0.038895 0.026426 0.012613 -0.0051513 -0.00016849 -0.0043139
-0.0040932 -0.0026749 -0.006381 0.0025608
-0.038916 0.026392 -0.33484 0.17581 -0.035653 0.03489 -0.00078306 -0.0063516
-0.011668 0.0079716 -0.0021083 -0.0063777
0.012596 -0.0052083 -0.035566 0.035039 -0.068847 0.28411 -0.0020977 0.0031267
-0.0018205 -0.0047804 -0.0018546 -0.00026119
-0.00019504 -0.0043514 -0.00083805 -0.0063541 -0.0020954 0.0031014 -0.20477 0.20185
-0.044158 -0.0068528 0.023114 0.015464
-0.0038437 -0.0028749 -0.01185 0.0081792 -0.0018299 -0.0049193 -0.044089 -0.0067557
-0.15849 0.062624 -0.043481 -0.00021309
-0.0066437 0.00256 -0.0018434 -0.0063135 -0.0018021 -0.00020511 0.023072 0.015395
-0.043638 -5.285e-05 -0.25047 0.08637
800000000 -0.15817 0.22677 -0.022622 0.016633 0.0052234 -0.010585 -0.0047977 -0.0022437
-0.0041008 0.0023676 0.0047909 0.00017554
-0.022616 0.016626 -0.33837 0.24604 -0.0079525 0.033871 -0.0023897 0.0022641
-0.00058328 0.0029241 0.0011722 0.0054458
0.0051998 -0.010611 -0.0078562 0.033929 -0.028167 0.30763 0.00093663 0.0014338
0.00018927 0.0036045 -0.0016543 0.00070682
-0.0048115 -0.002201 -0.0023813 0.0022245 0.00093019 0.0014216 -0.176 0.23001
-0.028898 0.014247 0.013998 -0.010272
-0.003959 0.0022505 -0.00048273 0.0028547 0.00026842 0.0035603 -0.028807 0.014329
-0.20682 0.086205 -0.017724 0.019408
0.0047744 0.00010496 0.00118 0.0053118 -0.0016332 0.00066685 0.013867 -0.010332
-0.017803 0.019403 -0.24617 0.13633
860000000 -0.12357 0.2474 -0.017709 0.030645 -0.0033745 -0.0097482 -0.0023266 0.00088669
0.0039445 0.0048061 -0.0033649 -0.0031323
-0.017683 0.030614 -0.29085 0.28814 0.00766 0.034164 2.4057e-05 0.0020382
0.0041617 9.4986e-05 0.0031886 0.00084606
-0.003405 -0.0097397 0.0077607 0.03418 0.01995 0.31561 -0.0005947 -0.00026559
0.0028273 -0.0017031 0.0013858 0.0044406
-0.002338 0.00088014 6.3016e-05 0.00204 -0.00056933 -0.00025435 -0.13941 0.24096
-0.017846 0.018918 -0.0061285 -0.009164
0.0040133 0.0048213 0.004201 9.9216e-05 0.0027921 -0.0016006 -0.017841 0.018898
-0.15531 0.13848 -0.026507 0.015078
-0.0033022 -0.0030891 0.0032151 0.00080188 0.0014489 0.0044317 -0.0061829 -0.0090897
-0.02666 0.014965 -0.19396 0.18372
920000000 -0.098735 0.27062 0.0048649 0.038008 -0.0094097 -0.0041858 -0.001773 0.0019092
0.0010105 0.0019177 0.0026503 -0.0015509
0.0048313 0.037979 -0.26188 0.30964 0.027912 0.021998 0.0014429 0.0011092
0.0071747 -0.00046918 0.0037426 -0.0026471
-0.0094111 -0.0041661 0.027997 0.021934 0.066263 0.31607 0.0018616 -5.606e-05
0.0012507 -0.00033695 0.00090022 -0.00098298
-0.0017936 0.0018784 0.001461 0.001103 0.0018512 -5.4517e-05 -0.1155 0.25792
-0.010859 0.031094 0.0038142 -0.0065406
0.0009847 0.0018936 0.0072233 -0.00053131 0.0012361 -0.0003586 -0.010833 0.031118
-0.1456 0.14453 -0.0030897 0.027573
0.0026334 -0.0016258 0.0037996 -0.0026421 0.0008681 -0.00099035 0.0038336 -0.0066157
-0.0031573 0.027684 -0.20481 0.19731
980000000 -0.051272 0.29011 0.017462 0.030144 -0.0088264 0.0047238 0.0021082 0.0035046
0.0039423 -0.0012601 -0.0034137 -0.0020959
0.017425 0.030124 -0.20884 0.34357 0.032888 0.0049565 0.0021174 -4.1155e-05
0.0015769 -0.0057227 -0.00047856 -0.0023868
-0.0088065 0.0047444 0.032918 0.0048503 0.11244 0.30934 0.00055455 -0.0011176
0.00037483 -0.0019994 0.0014325 -0.00017395
0.0021306 0.0034554 0.0021011 -8.2953e-05 0.00055378 -0.0011429 -0.076844 0.26923
0.0080814 0.030638 -0.0091086 -0.0074337
0.0039126 -0.001362 0.0015185 -0.005854 0.00031162 -0.0020869 0.008145 0.030686
-0.11461 0.17417 0.0047036 0.019677
-0.0033707 -0.0021088 -0.00051434 -0.0023143 0.0014147 -0.00019868 -0.0090544 -0.0074399
0.0047486 0.019793 -0.16273 0.24387
1040000000 -0.0088886 0.29848 0.033078 0.018293 -0.0011058 0.0068761 0.0025604 0.00064348
0.00017746 -0.0036702 -0.00026548 -0.0012817
0.033005 0.018283 -0.17324 0.35639 0.029253 -0.014622 0.0015039 -0.0017221
-0.0023412 -0.0024924 -0.001352 -0.0025754
-0.0010617 0.0068791 0.029219 -0.014739 0.15814 0.29557 -0.00048825 -0.0015456
-0.0014815 -0.00090563 -0.00037326 -0.0010552
0.0025656 0.00061955 0.0014671 -0.0017188 -0.00048163 -0.0015722 -0.049604 0.27931
0.019717 0.018578 -0.0021017 0.001283
0.00014226 -0.0037246 -0.0024088 -0.0025871 -0.0014475 -0.00096073 0.01973 0.018556
-0.081963 0.18159 0.01318 0.019202
-0.00021678 -0.0013311 -0.0012856 -0.0024744 -0.0003726 -0.0010289 -0.0020766 0.0013431
0.013222 0.019234 -0.142 0.2641
1100000000 0.036385 0.30619 0.035705 -0.0040722 0.0029454 0.0037606 0.0022698 -0.0013278
-0.0020526 -0.0031057 -0.0038518 6.6479e-05
0.035673 -0.0040583 -0.1297 0.37354 0.015127 -0.027498 -5.9031e-05 -0.001827
-0.0032772 -0.00090491 -0.0034352 -0.0005438
0.0029646 0.0037521 0.015027 -0.027587 0.20431 0.27536 -0.0019021 0.00020666
-0.0017945 0.00036097 -0.0011683 -0.00049693
0.0022976 -0.0013301 -5.9519e-05 -0.0017963 -0.0018767 0.00021463 -0.0090475 0.28416
0.025187 0.0054677 -0.0024821 -0.00015617
-0.0020396 -0.0031254 -0.003269 -0.00083785 -0.0018118 0.000394 0.02521 0.0054221
-0.063951 0.1955 0.018955 0.0091757
-0.0037982 3.561e-05 -0.0034584 -0.00053199 -0.001107 -0.00047639 -0.0024776 -3.8263e-05
0.018949 0.0091869 -0.096552 0.29597
1160000000 0.087856 0.30093 0.023918 -0.020505 0.0027024 -0.00063447 -0.00035927 -0.0023767
-0.0041072 -0.00075089 -0.00091907 0.003985
0.023895 -0.020468 -0.08618 0.37733 -0.0034495 -0.028885 -0.0017187 -0.0017024
-0.0027786 0.0023226 -0.001332 0.0017731
0.0027169 -0.00063254 -0.0035945 -0.028893 0.24715 0.24488 -0.00073625 0.0016971
-0.00071962 0.0018702 -0.00093525 0.00023273
-0.00036356 -0.0023765 -0.001741 -0.0016789 -0.00074448 0.0017151 0.03026 0.28136
0.021841 -0.010341 -0.0029523 0.005224
-0.0040435 -0.00071051 -0.0027596 0.0023659 -0.00072008 0.0019097 0.02183 -0.010346
-0.030133 0.20442 0.018255 0.0013012
-0.00089518 0.0040098 -0.0013946 0.00179 -0.00093435 0.00022899 -0.0029416 0.0052426
0.018192 0.0013251 -0.049454 0.29894
1220000000 0.13212 0.28963 0.010537 -0.029716 -0.0015606 -0.00091396 -8.0594e-06 -0.00083005
-0.0026824 0.0023666 0.0013815 0.0019814
0.010536 -0.029691 -0.042069 0.38929 -0.016504 -0.021038 -0.0024969 0.000401
-9.9779e-05 0.00289 -0.00072356 0.0018586
-0.0015582 -0.00090619 -0.016622 -0.02098 0.28643 0.20629 0.00075335 0.0016393
0.00055063 0.0012531 0.00032764 0.00069848
2.99e-07 -0.00084399 -0.0024987 0.00042178 0.00076129 0.0016274 0.069971 0.27291
0.011209 -0.017258 0.0020963 0.0013694
-0.0026385 0.0024334 -7.1303e-05 0.0029408 0.0005226 0.0012499 0.011164 -0.017292
-0.0080298 0.21326 0.014714 -0.012287
0.0013805 0.0020001 -0.00075288 0.0018714 0.00032113 0.00068751 0.0021383 0.0013755
0.014649 -0.012215 -0.018797 0.31679
1280000000 0.18171 0.26754 -0.0076108 -0.02822 -0.0018914 0.0023354 -0.000883 -0.0019006
-0.00085404 0.0029583 0.002385 0.0011418
-0.0075729 -0.028195 0.00354 0.3803 -0.023376 -0.0086632 -0.0010078 0.001407
0.0015292 0.0018207 0.00057177 0.0021291
-0.0018923 0.0023481 -0.023443 -0.0085557 0.31729 0.16251 0.001596 8.4785e-05
0.0011417 0.00037862 0.00051839 0.0003168
-0.00089537 -0.0019007 -0.00098708 0.0013969 0.0015797 8.6736e-05 0.1068 0.25651
0.001859 -0.019568 -0.00020935 2.9687e-05
-0.00083157 0.0029572 0.0015628 0.0018215 0.0011195 0.0003397 0.0018205 -0.019561
0.028448 0.21675 0.0036484 -0.014553
0.0023721 0.0011447 0.00060634 0.0021319 0.00045734 0.00034297 -0.00020541 1.0784e-05
0.0037199 -0.014493 0.029679 0.32003
1340000000 0.21859 0.23357 -0.01719 -0.019013 0.0008017 0.004411 -0.001631 -0.00081642
0.0014179 0.0027129 0.001816 -0.0013367
-0.017157 -0.019005 0.042736 0.37229 -0.02141 0.0038488 -0.00016104 0.0020082
0.0018551 0.00097501 0.0013299 0.00085732
0.00082459 0.0044058 -0.021426 0.0039568 0.33971 0.11447 0.0011621 -0.00082898
0.00079137 -0.00042488 0.00022243 0.0003344
-0.001644 -0.00081907 -0.00015812 0.0019957 0.0011676 -0.00084696 0.13906 0.23625
-0.0078722 -0.017199 0.00074478 0.00039596
0.0014046 0.002713 0.0018257 0.00096899 0.00073601 -0.00043062 -0.0078811 -0.01717
0.05759 0.21198 -0.0027036 -0.013275
0.0017681 -0.0013385 0.0013526 0.00081792 0.00021973 0.00030856 0.00078865 0.00039988
-0.0026667 -0.013335 0.068026 0.3167
1400000000 0.25126 0.19537 -0.023046 -0.0077552 0.0049309 0.0030649 -0.0020325 0.00053455
0.0023438 0.00090987 0.00037071 -0.0012947
-0.02302 -0.0077612 0.079942 0.35946 -0.014894 0.011989 0.0013001 0.0013861
0.0012414 -0.00065391 0.0012482 0.00027036
0.0049547 0.0030423 -0.014851 0.012086 0.35314 0.06058 0.0002554 -0.001594
-4.619e-05 -0.00035239 0.00042353 0.00019088
-0.0020264 0.00055624 0.0013051 0.0013916 0.00024664 -0.001606 0.16841 0.20756
-0.014082 -0.010865 -0.0009659 -0.00055364
0.0023106 0.00091144 0.0012418 -0.00067192 -3.3998e-05 -0.00037263 -0.014117 -0.01084
0.08989 0.20786 -0.0091732 -0.009151
0.00036338 -0.0013225 0.0012627 0.00024068 0.00040341 0.00018175 -0.0009773 -0.00054296
-0.0091183 -0.0091846 0.1135 0.30648
1460000000 0.27381 0.15141 -0.020305 0.0042272 0.0054667 -0.001711 -0.0016223 0.0016444
0.0020625 -0.00041969 -0.00034683 -0.0010081
-0.020295 0.0042072 0.11416 0.33792 -0.006428 0.015026 0.0018108 0.00021624
0.0010396 -0.0012566 0.001201 -0.00062571
0.0054597 -0.0017298 -0.0063643 0.015073 0.35906 0.0058814 -0.001241 -0.0013577
0.00015998 -0.00031917 0.0005048 -0.00035144
-0.0016239 0.0016396 0.0017959 0.00022063 -0.0012168 -0.0013437 0.19453 0.1786
-0.01594 -0.004305 -0.0010752 0.0020698
0.0020656 -0.00043523 0.0010202 -0.001276 0.00013471 -0.00030825 -0.015966 -0.0042959
0.11827 0.19338 -0.011333 -0.0034377
-0.00031829 -0.0010132 0.00118 -0.00065832 0.00049993 -0.00036443 -0.001078 0.0020823
-0.011326 -0.0034589 0.14724 0.28639
1520000000 0.28574 0.1098 -0.014932 0.0098449 0.0032962 -0.0040395 6.3588e-06 0.0025968
0.0021336 -0.0016145 -0.0011109 -0.00016702
-0.014922 0.0098221 0.14793 0.32331 0.0011787 0.013095 0.0017303 -0.0007744
0.0001049 -0.0011472 0.00037436 -0.0010367
0.0032723 -0.0040583 0.0012453 0.013102 0.35204 -0.050589 -0.001154 -0.00044061
0.00063244 -0.00076182 3.3255e-05 -0.00013416
4.2117e-05 0.0026115 0.0017163 -0.00078258 -0.0011765 -0.00045059 0.21761 0.14127
-0.015982 0.0016862 0.0012953 0.0022476
0.0021307 -0.0016226 0.00010159 -0.0011403 0.00062589 -0.00076614 -0.016017 0.0017152
0.14512 0.17995 -0.011663 0.00078877
-0.0010894 -0.00016564 0.0003554 -0.0010356 4.1304e-05 -0.00015679 0.0013044 0.0022282
-0.011676 0.00078436 0.18141 0.2668
1580000000 0.29507 0.063815 -0.0085015 0.013123 -0.00087396 -0.0048246 0.0013732 0.0019596
-0.00012705 -0.0020651 -0.00042246 0.00042826
-0.0084992 0.013108 0.17542 0.29852 0.0048735 0.0084187 0.00051159 -0.0016547
-0.00061039 -0.0011816 -0.00028227 -0.00078233
-0.00090027 -0.0048084 0.004926 0.0083962 0.33149 -0.10821 -0.0017243 0.00064404
-0.00024739 -0.001098 8.48e-05 -0.00043446
0.0013712 0.0019487 0.00051049 -0.0016506 -0.0016983 0.00064822 0.23168 0.1025
-0.012933 0.0072071 0.0022663 0.0011538
-0.0001223 -0.0020737 -0.00063129 -0.0011635 -0.00032241 -0.0011073 -0.012904 0.0072624
0.16899 0.16267 -0.0096013 0.0068073
-0.00042082 0.00043076 -0.00028359 -0.0007894 5.5499e-05 -0.00044215 0.0022711 0.0011403
-0.0095988 0.0068251 0.21464 0.24019
1640000000 0.29717 0.022524 -0.0018293 0.012357 -0.0025595 -0.0025244 0.0027822 0.0010343
-0.0005163 -0.0016328 -0.00025507 0.00063868
-0.0018396 0.012345 0.20519 0.27338 0.0058406 0.0037377 -0.00068176 -0.0017876
-0.0011351 -0.0004178 -0.0004742 -0.0007063
-0.0025771 -0.0025205 0.005869 0.0037045 0.30291 -0.15747 -0.00070467 0.0015639
-0.0010029 -0.0010789 -0.00010503 -0.00040943
0.0027917 0.0010407 -0.00068855 -0.0017861 -0.0006846 0.0015459 0.24426 0.054258
-0.0087007 0.0092998 0.0026509 -0.00065329
-0.00054097 -0.0016052 -0.0011656 -0.00042286 -0.0010436 -0.0011153 -0.0086925 0.0093355
0.19091 0.1393 -0.0051492 0.0089327
-0.00026963 0.00062899 -0.00047861 -0.00071232 -5.2653e-05 -0.00043267 0.0026294 -0.00066378
-0.0051623 0.0089348 0.24049 0.20917
1700000000 0.28991 -0.022921 0.0017109 0.0097683 -0.003325 6.2535e-05 0.0030914 -0.0011645
-0.0020243 -0.00085499 0.00068526 0.00048695
0.0016977 0.0097573 0.22343 0.24156 0.0039462 0.00086562 -0.0015318 -0.00060922
-0.00089608 0.00016927 -0.00089329 -0.00046432
-0.0033284 8.5861e-05 0.0039531 0.00084822 0.2591 -0.19713 0.00049382 0.001703
-0.0020173 -0.00024944 -0.00037154 -0.00076744
0.0030736 -0.0012007 -0.0015385 -0.00060469 0.00045509 0.0017225 0.24173 0.0050645
-0.0055297 0.010634 0.0016493 -0.0022154
-0.0020152 -0.00087609 -0.00088565 0.00017722 -0.0020474 -0.00026291 -0.0055243 0.010652
0.20791 0.12002 -0.00055243 0.0095364
0.00070842 0.0004908 -0.00089993 -0.00043661 -0.00040379 -0.00077834 0.0016404 -0.0022193
-0.00056331 0.0095376 0.2575 0.17478
1760000000 0.27752 -0.071587 0.0042535 0.0066195 -0.0021874 0.00089737 0.0013328 -0.0034714
-0.0014863 0.0005481 0.00049189 -0.00062476
0.004232 0.0066009 0.24931 0.20133 0.0017836 -0.00096651 -0.0012258 0.00021496
-0.00094625 0.0010243 -0.0005872 0.00041074
-0.0021771 0.00089319 0.001783 -0.00097628 0.21013 -0.22993 0.0013539 0.0010716
-0.0012367 0.0014815 -0.0012931 -0.00056697
0.0013338 -0.0034622 -0.0012327 0.00021938 0.0013472 0.0010852 0.23324 -0.045975
-0.0014771 0.010222 -0.00011784 -0.0025704
-0.0014787 0.00062868 -0.00096936 0.0010353 -0.0012207 0.0015091 -0.0014608 0.010214
0.22257 0.085942 0.0034832 0.0072569
0.0004945 -0.00061502 -0.00058423 0.00042499 -0.0012756 -0.00058622 -9.2311e-05 -0.002596
0.0034802 0.007244 0.27034 0.13704
1820000000 0.25257 -0.10895 0.0046403 0.0029895 -8.0346e-05 0.0023261 -0.00098453 -0.0030572
-0.0012961 0.0009984 -1.3589e-05 -0.0001817
0.004639 0.0029825 0.25906 0.17095 -0.0001233 -5.3285e-05 -0.001299 0.0010392
0.00012056 0.0013535 -0.00054198 0.00051494
-4.9723e-05 0.0023262 -0.00012401 -4.9054e-05 0.16014 -0.24544 0.0015291 0.00031957
-0.00022231 0.00239 -0.0012741 0.00022753
-0.0010112 -0.0030548 -0.0012856 0.0010416 0.0014912 0.00033374 0.20418 -0.093069
0.00077088 0.0085883 -0.0014861 -0.0016717
-0.0012986 0.0010151 0.0001198 0.001359 -0.00024696 0.0023581 0.00084066 0.0085704
0.23983 0.057902 0.0046051 0.0039678
-2.2793e-05 -0.00015157 -0.00053543 0.00052911 -0.0012781 0.00021125 -0.0014937 -0.0015871
0.0045813 0.0039641 0.27301 0.10124
1880000000 0.21719 -0.14912 0.0025906 0.00055095 -0.0004195 0.0020096 -0.0029567 -0.002202
-0.00024107 0.0018583 0.00023408 -0.00053326
0.002582 0.00055583 0.26305 0.12418 -0.0022194 0.0015954 -0.00014588 0.0017067
0.00067024 0.0010862 0.00010701 0.00092871
-0.00042873 0.0020217 -0.0022273 0.0016106 0.10796 -0.25497 0.0017047 -0.0010581
0.0015317 0.0019688 -0.0010051 0.001283
-0.0029555 -0.002173 -0.00012225 0.0017069 0.0017098 -0.0010222 0.16447 -0.13356
0.0022539 0.0062467 -0.0023298 0.00033259
-0.0002438 0.0018648 0.00068993 0.0010889 0.0016153 0.0019579 0.0022469 0.0063043
0.24323 0.026313 0.0049802 0.0018894
0.00022085 -0.00054395 0.0001122 0.00093608 -0.00098385 0.0013029 -0.0023735 0.00032207
0.0049518 0.0018739 0.27285 0.066931
1940000000 0.17755 -0.17477 0.0003892 -0.0012825 0.0013434 0.001947 -0.0037273 0.00048586
0.0014104 0.0011327 -0.00070809 -0.00058464
0.00038545 -0.0012799 0.26318 0.092417 -0.001067 0.0038622 0.0010909 0.0012743
0.0017973 0.00030152 0.00082675 0.00029375
0.0013543 0.0019213 -0.0010257 0.003869 0.062014 -0.2478 0.00036814 -0.0021198
0.0024326 0.00038444 0.00019928 0.001678
-0.0037095 0.00049752 0.0011013 0.0012957 0.00034724 -0.0020969 0.11269 -0.16473
0.0018077 0.0043647 -0.0013791 0.0013644
0.0014834 0.001087 0.0018128 0.00029869 0.0024064 0.00041193 0.0017953 0.0043904
0.24588 -0.012186 0.0041063 -0.0016432
-0.00068858 -0.00057182 0.0008356 0.00029397 0.00017771 0.0016801 -0.0013688 0.0013721
0.0041118 -0.0016769 0.26234 0.031387
2000000000 0.131 -0.18911 -0.0034547 0.00061 0.0024662 0.0016748 -0.0023518 0.0033825
0.001236 -3.9015e-06 -0.00068937 0.00034863
-0.0034522 0.00059598 0.24861 0.057178 -0.00088701 0.0057019 0.0016114 0.00032484
0.0011926 -0.0013675 0.00047965 0.00016181
0.0025022 0.0016542 -0.00087536 0.005733 0.018854 -0.23311 -0.0013316 -0.0011861
0.0019145 -0.0011848 0.0015966 0.0013128
-0.0023309 0.0034268 0.0016226 0.00029661 -0.0013243 -0.0012456 0.059112 -0.17543
0.00027163 0.0033391 -7.9073e-05 0.0020556
0.00126 9.555e-05 0.0011638 -0.0014316 0.0019059 -0.0011883 0.00032378 0.0033465
0.24066 -0.046148 0.00092928 -0.0025491
