!Keysight Technologies,M9804A,MY58100912,A.14.10.03
!Date: Thursday, April 27, 2023 10:28:33
!Correction: S11(C  6-Port  ) 
!S12(C  6-Port  ) 
!S13(C  6-Port  ) 
!S14(C  6-Port  ) 
!S15(C  6-Port  ) 
!S16(C  6-Port  ) 
!S21(C  6-Port  ) 
!S22(C  6-Port  ) 
!S23(C  6-Port  ) 
!S24(C  6-Port  ) 
!S25(C  6-Port  ) 
!S26(C  6-Port  ) 
!S31(C  6-Port  ) 
!S32(C  6-Port  ) 
!S33(C  6-Port  ) 
!S34(C  6-Port  ) 
!S35(C  6-Port  ) 
!S36(C  6-Port  ) 
!S41(C  6-Port  ) 
!S42(C  6-Port  ) 
!S43(C  6-Port  ) 
!S44(C  6-Port  ) 
!S45(C  6-Port  ) 
!S46(C  6-Port  ) 
!S51(C  6-Port  ) 
!S52(C  6-Port  ) 
!S53(C  6-Port  ) 
!S54(C  6-Port  ) 
!S55(C  6-Port  ) 
!S56(C  6-Port  ) 
!S61(C  6-Port  ) 
!S62(C  6-Port  ) 
!S63(C  6-Port  ) 
!S64(C  6-Port  ) 
!S65(C  6-Port  ) 
!S66(C  6-Port  ) 
!S6P File: Measurement: :
# Hz S  RI   R 50
500000000 -0.33666 -0.038933 -0.0096164 -0.0018078 -0.0077769 0.012722 -0.0042982 0.012683
0.012219 0.0041372 -0.004913 0.0092574
-0.0096576 -0.0017971 -0.41906 -0.051889 0.0079885 -0.010675 0.0020426 0.012166
0.007379 0.0025237 0.0019081 0.01371
-0.0077886 0.012776 0.0079517 -0.010702 -0.2651 0.20886 0.0078996 0.0034455
-0.001932 0.0079042 0.0019437 0.012163
-0.0042808 0.012659 0.0020518 0.012181 0.0078971 0.0034491 -0.33105 0.041751
-0.019828 -0.0067535 0.016629 0.026811
0.012205 0.0040775 0.0074018 0.0024834 -0.0019091 0.0078707 -0.01982 -0.0067749
-0.21954 -0.20327 -0.026277 0.0043017
-0.0048404 0.0091904 0.0019034 0.013669 0.001884 0.012225 0.016586 0.026781
-0.026234 0.0043382 -0.26384 -0.13798
560000000 -0.31583 0.12224 -0.024268 -0.063493 0.00020078 0.011698 0.0056456 0.010962
0.010724 0.0047987 0.011274 0.0080819
-0.024221 -0.063417 -0.37724 0.10681 -0.041062 -0.037481 0.014037 0.0036644
-0.013074 -0.0052209 0.0033207 -0.00026765
0.00022197 0.011701 -0.041206 -0.037426 -0.18275 0.25714 -0.00081883 -0.004093
0.020128 0.0052462 0.0063117 -0.0056282
0.0057238 0.010978 0.014021 0.0036414 -0.0008035 -0.0040904 -0.3075 0.13108
0.0038565 -0.023675 0.0047338 -0.021954
0.010764 0.0048224 -0.013152 -0.0051751 0.020128 0.0052477 0.0038528 -0.023713
-0.28777 -0.027534 0.0090754 -0.049023
0.011275 0.0080607 0.0033658 -0.00028693 0.0063131 -0.005656 0.0046176 -0.021959
0.0090719 -0.049034 -0.32915 0.010721
620000000 -0.2755 0.10602 -0.023084 0.0076737 0.0029829 0.0083201 0.0083035 -0.0053369
0.01118 -0.00023557 0.0023872 -0.0025875
-0.023075 0.0076386 -0.40254 0.059186 -0.018369 3.5069e-05 -0.0011806 -0.0019953
0.011197 -0.0060492 0.0014463 -0.0029074
0.0029975 0.0082768 -0.018382 7.336e-05 -0.15355 0.2657 -0.0012778 -0.0050478
-0.0031151 -0.002469 0.0084147 -0.0032688
0.0083538 -0.0053555 -0.0011868 -0.0019924 -0.0012772 -0.0050561 -0.26761 0.14287
-0.037669 -0.019642 0.011663 0.026381
0.011174 -0.00023098 0.011185 -0.0061048 -0.003082 -0.0024628 -0.037664 -0.019577
-0.20752 -0.064011 -0.041449 0.014513
0.0023566 -0.002671 0.0014754 -0.0029221 0.0084017 -0.0032092 0.011657 0.026498
-0.041474 0.014386 -0.24876 -0.026925
680000000 -0.23494 0.19134 -0.027114 -0.014491 0.0048886 0.0051443 0.0016234 -0.0073166
-0.003204 -0.011237 0.0050555 -0.00673
-0.027071 -0.014481 -0.38767 0.15705 -0.032666 -0.0015021 -0.0016111 -0.0006051
-0.0020795 -0.0087511 -0.00096728 -0.0016562
0.00489 0.0051261 -0.032706 -0.0014197 -0.1026 0.28595 -0.00072208 -8.1827e-05
-0.0017363 0.00066621 -0.0027966 -0.009005
0.0016177 -0.0072755 -0.001609 -0.00060628 -0.00072986 -8.2062e-05 -0.22204 0.1941
-0.024034 -0.0074153 -0.010539 -0.011733
-0.0032186 -0.011206 -0.0021079 -0.0087696 -0.00174 0.00067814 -0.024053 -0.0074056
-0.2592 0.035276 -0.0051291 -0.0082392
0.0050015 -0.0067914 -0.00095533 -0.0016195 -0.002804 -0.0089881 -0.010474 -0.011718
-0.0050934 -0.0082885 -0.261 0.080599
740000000 -0.19086 0.18636 -0.038853 0.02645 0.012605 -0.0051383 -0.00019848 -0.0043375
-0.0038639 -0.0028601 -0.0066406 0.0025765
-0.038823 0.026419 -0.33485 0.17583 -0.035628 0.034884 -0.00080461 -0.0063729
-0.011843 0.0080809 -0.0018637 -0.0063262
0.012572 -0.005117 -0.035551 0.035033 -0.06888 0.28412 -0.0021022 0.003116
-0.0018401 -0.0048789 -0.0018118 -0.00022466
-0.00019505 -0.0043415 -0.00082251 -0.0063966 -0.0021074 0.0031164 -0.20479 0.20185
-0.044083 -0.0068792 0.023101 0.015443
-0.0038506 -0.0028183 -0.0118 0.00817 -0.0018688 -0.0048894 -0.044114 -0.0068167
-0.15859 0.062555 -0.043597 -0.00028325
-0.0066008 0.0025032 -0.0019323 -0.0063157 -0.0018144 -0.00027834 0.023102 0.015473
-0.043468 -0.00039668 -0.25004 0.085901
800000000 -0.15816 0.2268 -0.022627 0.016647 0.0052147 -0.010575 -0.0048151 -0.0022012
-0.0039688 0.0021597 0.0047991 0.00011084
-0.022614 0.016655 -0.33839 0.24609 -0.0079516 0.033872 -0.0023932 0.0022245
-0.000495 0.0028564 0.0011409 0.0053398
0.0051872 -0.010587 -0.007862 0.033935 -0.028149 0.30766 0.00094588 0.0014153
0.00025738 0.0035752 -0.0016294 0.00066808
-0.0048148 -0.0021857 -0.0023817 0.0022381 0.00094041 0.0014243 -0.17608 0.22997
-0.028785 0.014265 0.013933 -0.01039
-0.0039844 0.0022082 -0.00050657 0.0028628 0.00025284 0.0035687 -0.028785 0.014331
-0.20705 0.086384 -0.017562 0.019499
0.0047866 0.00010599 0.0011622 0.0053452 -0.0016494 0.00067976 0.013894 -0.010396
-0.017548 0.019442 -0.2462 0.13574
860000000 -0.12358 0.24744 -0.017711 0.030673 -0.0033724 -0.0097382 -0.0023353 0.00089439
0.0039844 0.0048867 -0.0032797 -0.0031219
-0.017735 0.030646 -0.29084 0.28817 0.0076613 0.034168 4.8832e-05 0.0020382
0.0042043 0.00018569 0.0032196 0.0008168
-0.0034128 -0.0097518 0.0077722 0.034174 0.019963 0.3156 -0.00055973 -0.00025237
0.002802 -0.0015768 0.0014599 0.0044373
-0.0023554 0.00089169 6.8977e-05 0.0020451 -0.00056394 -0.00025222 -0.13933 0.24099
-0.018003 0.018862 -0.0061017 -0.0090534
0.0039941 0.0048715 0.0042135 0.00015401 0.0027991 -0.0015953 -0.017992 0.018908
-0.15555 0.13874 -0.026371 0.015278
-0.003292 -0.0030941 0.0032426 0.00076943 0.0014301 0.0044193 -0.0060898 -0.0091007
-0.026363 0.015127 -0.19378 0.18314
920000000 -0.098775 0.27062 0.004832 0.038004 -0.0094083 -0.0042013 -0.0018016 0.0018665
0.00098596 0.0019012 0.0026446 -0.0016533
0.0048197 0.037981 -0.26183 0.30969 0.027907 0.022006 0.0014646 0.0011005
0.0072353 -0.00047144 0.0038322 -0.0026008
-0.0094179 -0.0041689 0.027996 0.021956 0.066267 0.31607 0.001843 -4.6931e-05
0.001244 -0.00034964 0.00088375 -0.0009749
-0.0018025 0.0018739 0.0014738 0.001117 0.0018465 -5.5422e-05 -0.11551 0.25796
-0.01085 0.03107 0.0039069 -0.0065544
0.001011 0.0018844 0.0072398 -0.00052396 0.0012462 -0.00034219 -0.010802 0.031128
-0.14551 0.14458 -0.0030838 0.027541
0.0026355 -0.0016259 0.0037866 -0.0027067 0.00088073 -0.0010016 0.0038598 -0.0066539
-0.0031785 0.027565 -0.2046 0.19723
980000000 -0.051293 0.29015 0.017436 0.030146 -0.0088167 0.0047365 0.0021179 0.0034793
0.0038952 -0.0013749 -0.0033622 -0.0021553
0.017406 0.030142 -0.20879 0.3436 0.032894 0.0049646 0.0021099 -6.5549e-05
0.0015629 -0.0058467 -0.00051173 -0.0023109
-0.0087923 0.0047665 0.032924 0.0048656 0.11246 0.30933 0.0005558 -0.0011443
0.00031273 -0.0020756 0.0014131 -0.00019544
0.0021282 0.0034566 0.0021123 -5.0215e-05 0.00054812 -0.0011475 -0.076844 0.26922
0.0081013 0.030655 -0.0090937 -0.0074346
0.0038962 -0.0013912 0.0015396 -0.0058742 0.00031688 -0.0020756 0.0081834 0.030648
-0.11452 0.17419 0.0047877 0.019793
-0.0033987 -0.0021176 -0.00050185 -0.0023678 0.0014254 -0.00020342 -0.0090842 -0.0074459
0.0047325 0.019819 -0.16259 0.24387
1040000000 -0.0088707 0.29844 0.033093 0.018264 -0.0010927 0.0068695 0.0025843 0.00063185
0.00014559 -0.0037197 -0.00021198 -0.0013558
0.03306 0.018297 -0.17314 0.35642 0.029244 -0.014613 0.0014453 -0.0017196
-0.002382 -0.0025942 -0.0012666 -0.0024629
-0.0010651 0.0068664 0.029211 -0.014722 0.15816 0.29556 -0.00046741 -0.0015799
-0.0014332 -0.00096612 -0.00033913 -0.0010344
0.0025792 0.00061945 0.0014693 -0.0017162 -0.00047032 -0.0015752 -0.049563 0.27932
0.019749 0.018635 -0.0021118 0.0013117
0.00013214 -0.0037129 -0.0024178 -0.0025987 -0.0014343 -0.00095342 0.019806 0.018601
-0.081817 0.1819 0.013112 0.019084
-0.0002582 -0.001337 -0.0012996 -0.002493 -0.00038063 -0.0010352 -0.0021272 0.0012961
0.013103 0.019059 -0.14207 0.26406
1100000000 0.03641 0.30619 0.035695 -0.0040785 0.0029579 0.0037574 0.0022878 -0.0013325
-0.0020406 -0.0031282 -0.0037927 -1.8966e-06
0.035675 -0.0040561 -0.12967 0.37355 0.015136 -0.027507 -4.7579e-05 -0.0018051
-0.0032667 -0.00085116 -0.0034552 -0.00055647
0.0029833 0.0037508 0.015042 -0.027597 0.20433 0.27536 -0.0018728 0.00021699
-0.0018197 0.00039013 -0.0011287 -0.0004651
0.0022959 -0.0013365 -5.6252e-05 -0.0017961 -0.0018701 0.00021581 -0.0090209 0.28421
0.025175 0.0054437 -0.0024705 -8.7206e-05
-0.002049 -0.003116 -0.003287 -0.00083945 -0.0018167 0.00038907 0.025209 0.0054063
-0.063854 0.19547 0.018956 0.0091475
-0.003813 3.6943e-05 -0.0034741 -0.00054782 -0.0010964 -0.00048612 -0.0024837 -0.00013072
0.018926 0.0091521 -0.096423 0.2959
1160000000 0.087862 0.3009 0.023926 -0.020527 0.0027013 -0.00062633 -0.00035617 -0.0023611
-0.0040691 -0.0007459 -0.00091657 0.004009
0.023925 -0.020478 -0.086133 0.37735 -0.0034418 -0.02889 -0.0017496 -0.0016829
-0.0027771 0.0023725 -0.0014136 0.0017907
0.0027154 -0.00063539 -0.0035725 -0.028889 0.24715 0.24484 -0.00073444 0.0017173
-0.00069854 0.0018893 -0.00093299 0.00022991
-0.00036422 -0.0023808 -0.0017545 -0.0016647 -0.00073134 0.001708 0.03026 0.28138
0.021874 -0.010313 -0.0029406 0.0052113
-0.0040792 -0.00071507 -0.0027917 0.0023831 -0.00069677 0.0019101 0.021867 -0.010342
-0.030127 0.20436 0.018248 0.0012215
-0.00090474 0.0040338 -0.0013978 0.0018177 -0.00095665 0.00024235 -0.0029105 0.0052106
0.018261 0.0011895 -0.049373 0.29918
1220000000 0.13214 0.28963 0.010543 -0.029731 -0.0015651 -0.00091991 1.0077e-06 -0.00085452
-0.0026629 0.0024069 0.0013648 0.0020192
0.010559 -0.029681 -0.042011 0.38928 -0.016494 -0.021033 -0.0024972 0.00038966
-9.42e-05 0.002936 -0.00076415 0.001864
-0.0015528 -0.00090295 -0.016619 -0.020982 0.28644 0.20627 0.00076571 0.0016321
0.00052458 0.0012517 0.00032997 0.00069016
-8.4005e-06 -0.00085512 -0.0024999 0.00041223 0.00076599 0.0016328 0.069968 0.27291
0.011185 -0.017277 0.0021461 0.0013477
-0.002653 0.0024158 -8.417e-05 0.0029381 0.00051589 0.0012485 0.01117 -0.017288
-0.0078258 0.21316 0.014678 -0.012297
0.0013781 0.0019944 -0.00076443 0.0018843 0.00031933 0.00068749 0.0021318 0.0013286
0.01468 -0.012263 -0.018788 0.31674
1280000000 0.18172 0.26752 -0.0075947 -0.028221 -0.0018973 0.0023344 -0.00088549 -0.0019204
-0.0008486 0.0029556 0.0023726 0.0011455
-0.0075711 -0.0282 0.0035616 0.38029 -0.02338 -0.0086543 -0.00098197 0.001398
0.0015513 0.0018307 0.0005925 0.0021301
-0.0018849 0.0023366 -0.023451 -0.0085595 0.3173 0.16247 0.0015897 9.3239e-05
0.0011233 0.00034449 0.00045692 0.00035651
-0.00090233 -0.0019137 -0.00097856 0.0013952 0.0015771 9.3973e-05 0.10682 0.25647
0.0018868 -0.019576 -0.00019664 2.6791e-05
-0.00082962 0.0029575 0.0015767 0.0018358 0.001128 0.00034591 0.001851 -0.019589
0.028479 0.21671 0.0036631 -0.014529
0.0023754 0.0011314 0.00061087 0.0021173 0.00045948 0.00035585 -0.0001958 1.9236e-05
0.0036507 -0.014533 0.029687 0.32017
1340000000 0.21859 0.23356 -0.017181 -0.019012 0.00080524 0.0044103 -0.001636 -0.00083229
0.0013744 0.0027133 0.0017825 -0.0013174
-0.01715 -0.019012 0.042773 0.37229 -0.021411 0.0038375 -0.00015775 0.0020045
0.0018284 0.00096213 0.0013504 0.00083229
0.00082934 0.0044002 -0.021416 0.003963 0.33971 0.11445 0.0011796 -0.00085257
0.00073761 -0.00040796 0.00022538 0.00031447
-0.0016335 -0.00082163 -0.00014788 0.002003 0.0011739 -0.00085157 0.13907 0.23622
-0.0078973 -0.017234 0.00075718 0.00040617
0.0013934 0.0026977 0.0018294 0.00095419 0.00073813 -0.00041945 -0.0079221 -0.017227
0.057569 0.21194 -0.0027529 -0.013323
0.0017749 -0.0013281 0.0013482 0.00080594 0.00022026 0.00029967 0.00075805 0.00040031
-0.0027454 -0.01332 0.067842 0.31672
1400000000 0.25126 0.19536 -0.023048 -0.0077555 0.0049374 0.0030544 -0.0020234 0.00055418
0.0023156 0.00093108 0.00037142 -0.0013273
-0.023016 -0.0077668 0.079963 0.35945 -0.014889 0.011981 0.0012998 0.0013944
0.0012488 -0.000656 0.0012532 0.00025209
0.0049528 0.0030387 -0.014853 0.012072 0.35315 0.060536 0.00024263 -0.0016051
-3.84e-05 -0.00038198 0.00038869 0.00020106
-0.0020297 0.00055865 0.0013064 0.0013862 0.00024629 -0.0015996 0.16841 0.20755
-0.014088 -0.010899 -0.0010047 -0.00054343
0.0023181 0.00091996 0.0012426 -0.00066839 -4.6099e-05 -0.00038482 -0.014118 -0.01087
0.089845 0.20785 -0.0091672 -0.0091508
0.00036044 -0.0013134 0.0012661 0.00023648 0.00040463 0.00018272 -0.0010107 -0.00056098
-0.0091641 -0.0091549 0.11346 0.3065
1460000000 0.27382 0.15139 -0.02032 0.0042291 0.0054624 -0.0017233 -0.0016208 0.001641
0.0020764 -0.00043955 -0.0003319 -0.0010077
-0.020298 0.0042031 0.11421 0.3379 -0.0064367 0.015029 0.0017964 0.00022699
0.0010391 -0.0012626 0.0011881 -0.00065241
0.0054455 -0.001738 -0.0063723 0.015068 0.35907 0.0058605 -0.0012113 -0.0013344
0.0001403 -0.00030643 0.00050909 -0.00036013
-0.0016211 0.0016424 0.001797 0.00020891 -0.0012055 -0.001328 0.19448 0.17861
-0.016001 -0.0042972 -0.0010486 0.0020659
0.0020756 -0.0004391 0.001024 -0.0012808 0.00014798 -0.00029991 -0.016017 -0.0042705
0.11818 0.19335 -0.01133 -0.003441
-0.00032064 -0.0010149 0.0011777 -0.00066426 0.00050429 -0.00038769 -0.0010415 0.0020854
-0.01132 -0.0034175 0.14721 0.28641
1520000000 0.28575 0.10981 -0.014932 0.0098417 0.0032903 -0.0040369 2.576e-05 0.0026102
0.0021441 -0.0016032 -0.0010899 -0.00017201
-0.014936 0.0098219 0.14796 0.32329 0.001184 0.013106 0.0017215 -0.00077405
0.00010853 -0.0011387 0.00036162 -0.0010362
0.0032643 -0.0040569 0.0012535 0.013101 0.35206 -0.050627 -0.0011863 -0.00043133
0.00062162 -0.00077298 3.6834e-05 -0.00016136
2.9986e-05 0.002609 0.0017118 -0.00078366 -0.0011803 -0.00043512 0.21761 0.14128
-0.016014 0.0017127 0.0013312 0.0022519
0.0021323 -0.0016172 9.951e-05 -0.0011472 0.0006177 -0.00077953 -0.01602 0.0017524
0.14512 0.17995 -0.011659 0.0008037
-0.0010931 -0.00016396 0.00036059 -0.0010269 2.5609e-05 -0.00015564 0.0013331 0.0022432
-0.011655 0.00079369 0.18143 0.26683
1580000000 0.29509 0.063794 -0.008497 0.013123 -0.00087662 -0.0048095 0.0013714 0.0019553
-0.00010289 -0.0020705 -0.00042263 0.00042631
-0.0085083 0.013115 0.17545 0.29852 0.0048758 0.0084239 0.00051051 -0.0016449
-0.00061684 -0.0011801 -0.0002794 -0.00078547
-0.00089988 -0.0048144 0.0049272 0.0083962 0.3315 -0.10828 -0.0016888 0.0006465
-0.00030147 -0.0011074 5.8903e-05 -0.00042838
0.0013693 0.001946 0.00050805 -0.0016527 -0.0016946 0.00064771 0.2317 0.10253
-0.012933 0.0072364 0.0022889 0.0011634
-0.00012243 -0.0020796 -0.00063079 -0.0011674 -0.00030882 -0.0011076 -0.012935 0.0072857
0.16895 0.16271 -0.009564 0.0068088
-0.00041866 0.00042705 -0.00028215 -0.00079175 5.5826e-05 -0.00043962 0.002285 0.0011477
-0.0095736 0.006816 0.21463 0.24022
1640000000 0.29717 0.022516 -0.0018338 0.01236 -0.0025512 -0.0025184 0.0027806 0.0010563
-0.00053032 -0.0016078 -0.00027337 0.00062756
-0.0018398 0.012352 0.20522 0.27338 0.0058384 0.0037459 -0.00066849 -0.0017855
-0.0011491 -0.00042736 -0.00046817 -0.0007167
-0.0025571 -0.0025072 0.0058726 0.0037122 0.3029 -0.15752 -0.00068293 0.0015343
-0.0010581 -0.0011107 -7.2031e-05 -0.00044709
0.0027876 0.0010414 -0.00068479 -0.0017892 -0.00068164 0.0015375 0.24433 0.054255
-0.0086739 0.0093294 0.0026367 -0.00063864
-0.00054817 -0.0016229 -0.0011537 -0.00041953 -0.0010559 -0.0011081 -0.0086573 0.0093631
0.1909 0.13942 -0.0051572 0.0089569
-0.00026507 0.00063365 -0.00048063 -0.00071021 -8.7103e-05 -0.0004221 0.0026417 -0.00064759
-0.0051595 0.0089501 0.24044 0.20919
1700000000 0.28991 -0.022939 0.0017141 0.0097703 -0.0033302 8.4558e-05 0.0030752 -0.0011936
-0.0020083 -0.00086778 0.00070956 0.0005005
0.0016968 0.0097656 0.22347 0.24154 0.0039419 0.0008679 -0.0015249 -0.00060549
-0.00088058 0.00016863 -0.00089944 -0.00043806
-0.0033205 0.00011184 0.0039508 0.00084804 0.25919 -0.19715 0.00046988 0.0017393
-0.0020495 -0.0002473 -0.0004009 -0.00077965
0.0030792 -0.0012041 -0.0015285 -0.00060263 0.00047002 0.0017395 0.24175 0.0050601
-0.0055056 0.01064 0.0016601 -0.0022205
-0.0020178 -0.00085805 -0.00087888 0.00017581 -0.0020469 -0.00024399 -0.0054917 0.010662
0.20801 0.12005 -0.00053371 0.0095251
0.00070888 0.00049666 -0.00090261 -0.0004402 -0.00041078 -0.00078229 0.0016623 -0.0022412
-0.00052295 0.0095197 0.25752 0.17474
1760000000 0.27751 -0.071611 0.0042456 0.0066026 -0.0021896 0.0008896 0.0013514 -0.0034414
-0.0014863 0.00062825 0.00049573 -0.00060056
0.0042384 0.0066033 0.24934 0.2013 0.0017837 -0.00095779 -0.0012271 0.00022171
-0.0009704 0.0010243 -0.00058902 0.00042043
-0.0021822 0.00090309 0.0017816 -0.00096793 0.21002 -0.22992 0.0013498 0.0010647
-0.0012228 0.0014687 -0.0013073 -0.00058619
0.0013326 -0.0034456 -0.0012343 0.00022602 0.0013358 0.0010723 0.23327 -0.046043
-0.0014331 0.010224 -0.00012988 -0.0025877
-0.0014735 0.00063614 -0.00096214 0.0010304 -0.0012144 0.0014783 -0.0014111 0.010237
0.22265 0.086035 0.0034535 0.0072278
0.00049668 -0.00060768 -0.00058188 0.00042012 -0.0012852 -0.00059351 -0.0001154 -0.0025752
0.003457 0.0072206 0.27044 0.13693
1820000000 0.25254 -0.10898 0.0046513 0.0029811 -6.7713e-05 0.0023225 -0.0010039 -0.003062
-0.0012929 0.0010068 -2.2165e-05 -0.00015307
0.0046457 0.0029868 0.25909 0.17092 -0.00011948 -5.4667e-05 -0.0012875 0.0010385
0.00010916 0.0013529 -0.00054118 0.00052785
-5.9164e-05 0.0023232 -0.00011786 -5.5342e-05 0.16013 -0.24545 0.0015069 0.00035527
-0.00024858 0.0023583 -0.0012765 0.00021726
-0.0010081 -0.0030616 -0.0012827 0.0010405 0.0015078 0.00035207 0.20421 -0.093126
0.00082502 0.0085436 -0.0014915 -0.001637
-0.0012927 0.0010222 0.0001224 0.0013595 -0.00023956 0.0023573 0.0008448 0.0085558
0.23993 0.057902 0.0045855 0.0039656
-1.5502e-05 -0.00015781 -0.00053226 0.00053218 -0.0012647 0.0002241 -0.0014986 -0.0016335
0.0045834 0.0039577 0.27307 0.10116
1880000000 0.21717 -0.14913 0.0026005 0.00054905 -0.00042174 0.0020259 -0.0029349 -0.0022064
-0.00025773 0.0018715 0.00021402 -0.00054482
0.0025922 0.00055448 0.26309 0.12415 -0.0022165 0.0016059 -0.00012615 0.0017098
0.00068558 0.0010991 0.00010287 0.00093492
-0.00039922 0.0020294 -0.0022059 0.0016192 0.10793 -0.25504 0.001733 -0.0010089
0.0015869 0.0019707 -0.00098441 0.0012959
-0.0029452 -0.0021802 -0.00011173 0.0017067 0.0017243 -0.0010082 0.16446 -0.13361
0.0022575 0.0062624 -0.0023769 0.00030363
-0.00023598 0.0018724 0.00069037 0.0010941 0.0015909 0.0019761 0.0022744 0.0062507
0.2433 0.026226 0.0050285 0.0018844
0.00021647 -0.00054003 0.00011571 0.00093425 -0.0009934 0.0012964 -0.0023649 0.0003116
0.0050297 0.0018925 0.27293 0.066992
1940000000 0.17751 -0.17476 0.00038664 -0.0012814 0.0013545 0.0019481 -0.003707 0.00047241
0.0014709 0.0010963 -0.00068711 -0.00058276
0.00038232 -0.001278 0.26319 0.092383 -0.0010564 0.0038466 0.0011014 0.0013052
0.0018023 0.00031319 0.0008359 0.00030129
0.0013774 0.0019292 -0.0010292 0.0038668 0.061977 -0.24777 0.00035073 -0.0021005
0.0023797 0.00038846 0.00020592 0.0016507
-0.0037077 0.00049041 0.0011057 0.001297 0.00034382 -0.0021017 0.11256 -0.16479
0.0018103 0.0042915 -0.001342 0.0013728
0.0014856 0.0010718 0.0018159 0.00030715 0.0023916 0.00038801 0.0018291 0.0042778
0.24591 -0.012243 0.0040783 -0.0015806
-0.00070105 -0.00056658 0.00083443 0.0002884 0.00018996 0.0016607 -0.001343 0.0013931
0.004074 -0.0015891 0.26233 0.031431
2000000000 0.13099 -0.18911 -0.0034395 0.00060998 0.0024937 0.0016607 -0.0023536 0.0034163
0.0012503 9.6616e-05 -0.00071442 0.00033692
-0.0034436 0.00060478 0.24863 0.05714 -0.00088263 0.0057314 0.0016224 0.00029806
0.0011826 -0.0014106 0.00047659 0.00012743
0.0025073 0.0016369 -0.00084237 0.0057459 0.018867 -0.23309 -0.0013126 -0.001229
0.0019249 -0.0011906 0.0015922 0.0012919
-0.002338 0.003434 0.0016305 0.00028715 -0.0013129 -0.0012325 0.059088 -0.17543
0.00025575 0.0033368 -0.00011954 0.0020553
0.001262 8.2291e-05 0.001164 -0.0014273 0.0019219 -0.0011939 0.00027506 0.0033428
0.24063 -0.046245 0.00086542 -0.0025894
