!Keysight Technologies,M9804A,MY58100912,A.14.10.03
!Date: Thursday, April 27, 2023 10:28:33
!Correction: S11(C  6-Port  ) 
!S12(C  6-Port  ) 
!S13(C  6-Port  ) 
!S14(C  6-Port  ) 
!S15(C  6-Port  ) 
!S16(C  6-Port  ) 
!S21(C  6-Port  ) 
!S22(C  6-Port  ) 
!S23(C  6-Port  ) 
!S24(C  6-Port  ) 
!S25(C  6-Port  ) 
!S26(C  6-Port  ) 
!S31(C  6-Port  ) 
!S32(C  6-Port  ) 
!S33(C  6-Port  ) 
!S34(C  6-Port  ) 
!S35(C  6-Port  ) 
!S36(C  6-Port  ) 
!S41(C  6-Port  ) 
!S42(C  6-Port  ) 
!S43(C  6-Port  ) 
!S44(C  6-Port  ) 
!S45(C  6-Port  ) 
!S46(C  6-Port  ) 
!S51(C  6-Port  ) 
!S52(C  6-Port  ) 
!S53(C  6-Port  ) 
!S54(C  6-Port  ) 
!S55(C  6-Port  ) 
!S56(C  6-Port  ) 
!S61(C  6-Port  ) 
!S62(C  6-Port  ) 
!S63(C  6-Port  ) 
!S64(C  6-Port  ) 
!S65(C  6-Port  ) 
!S66(C  6-Port  ) 
!S6P File: Measurement: :
# Hz S  RI   R 50
500000000 -0.33725 -0.043833 -0.01017 -0.0023755 -0.0087812 0.013522 -0.0037116 0.01146
0.013198 0.0043798 -0.0044793 0.0074376
-0.010204 -0.0023727 -0.41926 -0.055405 0.007397 -0.0111 0.0020159 0.012144
0.0064577 0.0022241 0.0011054 0.013841
-0.0087346 0.013577 0.0073759 -0.011115 -0.26728 0.20758 0.0071891 0.0033626
-0.0032469 0.008496 0.00033976 0.012266
-0.0038316 0.011303 0.0020197 0.012097 0.0071922 0.0033521 -0.33356 0.035972
-0.02186 -0.0062354 0.017956 0.027831
0.013155 0.0043554 0.0064721 0.0022475 -0.0032558 0.0084745 -0.021836 -0.0062336
-0.21492 -0.21223 -0.029498 0.0059371
-0.0046655 0.00737 0.0011399 0.013832 0.0003579 0.012237 0.017964 0.027861
-0.02955 0.0059491 -0.24837 -0.18698
560000000 -0.319 0.1207 -0.023515 -0.063148 -1.5654e-05 0.01271 0.0055803 0.011405
0.010125 0.0058745 0.011424 0.010188
-0.023392 -0.063115 -0.37534 0.10585 -0.041776 -0.03722 0.01421 0.0039879
-0.013964 -0.0040883 0.0049843 -0.00070353
-1.565e-05 0.012778 -0.041891 -0.037149 -0.18387 0.25772 0.00052653 -0.0037702
0.019758 0.0060787 0.0069547 -0.0062061
0.0057875 0.011503 0.014293 0.0039306 0.0005349 -0.0037595 -0.31055 0.13053
0.0035041 -0.023284 0.0052945 -0.022878
0.010296 0.005868 -0.013934 -0.0040331 0.019761 0.0060828 0.0034739 -0.023306
-0.28802 -0.03622 0.0087384 -0.050151
0.011707 0.0099542 0.0049555 -0.00088002 0.0069829 -0.0061974 0.0052406 -0.02288
0.0087905 -0.050168 -0.32996 -0.024513
620000000 -0.27681 0.10276 -0.022987 0.0085244 0.0034052 0.0085633 0.0085767 -0.005652
0.010411 0.00017962 0.00090024 -0.0026245
-0.022966 0.0085472 -0.40321 0.057309 -0.01823 0.00023426 -0.0011346 -0.0021519
0.011456 -0.0056227 0.0010496 -0.003303
0.0033289 0.0086283 -0.018265 0.00029317 -0.15424 0.2662 -0.00061084 -0.0056686
-0.0031967 -0.0023479 0.0088901 -0.0034971
0.0083065 -0.0056113 -0.0011811 -0.0021382 -0.00058529 -0.0056472 -0.26938 0.14061
-0.040192 -0.019741 0.014043 0.028646
0.01044 0.00033142 0.011488 -0.0056523 -0.0031893 -0.0023836 -0.040113 -0.019717
-0.20528 -0.073336 -0.04618 0.015907
0.0008213 -0.0024878 0.001025 -0.0033059 0.0089135 -0.0035104 0.014038 0.028654
-0.046187 0.015949 -0.24539 -0.073936
680000000 -0.23635 0.19117 -0.026809 -0.013579 0.0053696 0.0054302 0.00172 -0.0067487
-0.0030882 -0.010917 0.0069521 -0.0064079
-0.026758 -0.013621 -0.38886 0.15709 -0.032438 -0.0011245 -0.0016054 -3.5391e-05
-0.001809 -0.0091592 -0.00089853 -0.0013597
0.0054419 0.0053926 -0.032455 -0.0010571 -0.10208 0.28653 -0.0009468 -0.00058866
-0.0014785 0.00051385 -0.0024317 -0.0093957
0.0019138 -0.006699 -0.0015815 -3.1994e-07 -0.00094644 -0.00060696 -0.22444 0.19322
-0.024298 -0.0060302 -0.011011 -0.012246
-0.0030358 -0.01091 -0.0018351 -0.0091642 -0.0014871 0.00051662 -0.024333 -0.0060549
-0.26267 0.028299 -0.0044323 -0.0068728
0.0070168 -0.0066564 -0.0008743 -0.0013717 -0.0024286 -0.0094094 -0.0111 -0.012212
-0.0044067 -0.0068619 -0.26784 0.045649
740000000 -0.19221 0.18544 -0.039017 0.027049 0.012952 -0.0051355 0.0003148 -0.0050287
-0.0049208 -0.0025319 -0.0062983 0.0023515
-0.038992 0.026986 -0.33437 0.1755 -0.03521 0.035044 -0.00071753 -0.0062169
-0.012121 0.0068867 -0.0023352 -0.0074496
0.012934 -0.0051432 -0.035128 0.035173 -0.067995 0.284 -0.0021722 0.0030486
-0.002307 -0.0052629 -0.00073234 -5.8691e-05
0.00021204 -0.0050352 -0.00073451 -0.0062037 -0.0021719 0.003072 -0.20707 0.20149
-0.044652 -0.0061762 0.025158 0.017203
-0.0049968 -0.0024566 -0.012133 0.0069209 -0.0022989 -0.0052953 -0.044647 -0.0061222
-0.15862 0.055201 -0.04717 0.00067759
-0.0063167 0.0023943 -0.0023777 -0.007416 -0.00074982 -5.3425e-05 0.025201 0.017184
-0.047182 0.00064473 -0.26155 0.047744
800000000 -0.15843 0.22665 -0.021979 0.016718 0.0054717 -0.010447 -0.0051708 -0.0019841
-0.0038559 0.0022615 0.0039351 0.0007766
-0.021997 0.016711 -0.33848 0.24561 -0.0078185 0.03383 -0.0026373 0.0021081
-0.00076421 0.0027136 0.00047422 0.0054059
0.0054419 -0.010476 -0.0077222 0.033895 -0.027885 0.30698 0.00046596 0.0015756
0.00010612 0.0036207 -0.0021385 0.00062689
-0.0051181 -0.0019167 -0.0026396 0.0021161 0.00044287 0.0015629 -0.17768 0.2305
-0.028448 0.015137 0.014829 -0.011352
-0.003802 0.002246 -0.00076437 0.0027173 0.00010264 0.0036376 -0.028477 0.015201
-0.20925 0.080033 -0.01769 0.020828
0.0040623 0.00072972 0.00050365 0.005426 -0.0021488 0.00061384 0.014832 -0.011337
-0.017691 0.020791 -0.26619 0.10399
860000000 -0.12402 0.24678 -0.017304 0.030397 -0.0033471 -0.0099911 -0.0017383 0.00058834
0.004002 0.004914 -0.0041956 -0.0039642
-0.017304 0.030374 -0.29042 0.28738 0.007733 0.033974 2.4982e-05 0.0020306
0.0040946 0.00011315 0.0027853 0.00075785
-0.0033908 -0.0099528 0.0078548 0.033988 0.019902 0.3146 -0.00072276 -8.0423e-05
0.0027851 -0.0016179 0.0014441 0.0043765
-0.0017721 0.00050878 4.1137e-05 0.0020367 -0.00071601 -7.4984e-05 -0.13966 0.24121
-0.017095 0.01856 -0.0069901 -0.0092196
0.0039993 0.0048654 0.0041028 8.776e-05 0.0027903 -0.0016336 -0.017057 0.018621
-0.15652 0.13378 -0.028694 0.016236
-0.0043715 -0.0039492 0.0027893 0.00074081 0.0014464 0.0043809 -0.0070015 -0.0092385
-0.028725 0.016218 -0.21095 0.15537
920000000 -0.099654 0.26875 0.0051141 0.037544 -0.0093474 -0.0046717 -0.0019717 0.0015889
0.00057915 0.0019454 0.0027548 -0.0015562
0.0051014 0.037513 -0.26212 0.30835 0.027782 0.021811 0.0014247 0.0011141
0.006984 0.00039216 0.0042154 -0.0030504
-0.0093845 -0.0046319 0.027893 0.021744 0.065586 0.31528 0.0019394 0.0001178
0.0011403 -0.00022175 0.0005168 -0.0013688
-0.0020019 0.0016203 0.0014576 0.001114 0.0019348 0.00011323 -0.11576 0.25792
-0.010599 0.031424 0.0049063 -0.007164
0.00061608 0.002019 0.0069995 0.00034857 0.0011523 -0.00021213 -0.010556 0.03143
-0.14883 0.13974 -0.0025006 0.028614
0.0027383 -0.0015855 0.0042056 -0.0030807 0.00051356 -0.0013745 0.0049148 -0.0071859
-0.0025123 0.028605 -0.22994 0.17047
980000000 -0.052281 0.28889 0.01724 0.029727 -0.0091594 0.0044254 0.0018636 0.0034859
0.0040375 -0.0015617 -0.0032106 -0.0025458
0.017207 0.029713 -0.20946 0.34249 0.032792 0.0049324 0.0020708 5.0055e-06
0.0016087 -0.0058253 -0.00031002 -0.0023482
-0.0091514 0.0044324 0.032837 0.0048435 0.11179 0.309 0.00062979 -0.0012701
0.00041155 -0.0021103 0.00121 -0.00017245
0.0019255 0.0034403 0.0020796 1.4164e-05 0.00063215 -0.0012787 -0.076808 0.26876
0.0083107 0.030689 -0.0096769 -0.0082203
0.0039794 -0.0016028 0.0015851 -0.0058426 0.00042234 -0.0021023 0.0083746 0.030699
-0.11816 0.16867 0.0040333 0.020573
-0.003271 -0.0025924 -0.00033483 -0.0023461 0.0012149 -0.00017917 -0.0096991 -0.0082133
0.0040065 0.020564 -0.18665 0.22344
1040000000 -0.010644 0.297 0.032953 0.018037 -0.001367 0.0068321 0.0022368 0.0006015
0.00013168 -0.0034558 -0.00028247 -0.0013827
0.032924 0.018031 -0.17396 0.3554 0.029316 -0.014614 0.00163 -0.0018425
-0.0019358 -0.0028442 -0.0014097 -0.0028916
-0.0013588 0.0068317 0.029302 -0.014726 0.15774 0.29539 -0.00048065 -0.0016903
-0.0015953 -0.00097405 -0.00074534 -0.0010534
0.0021541 0.0006462 0.0016358 -0.00185 -0.00047811 -0.0016877 -0.049862 0.27847
0.019968 0.018637 -0.0018415 0.00063093
0.00012295 -0.0034027 -0.0019607 -0.0028577 -0.0015894 -0.00098464 0.02002 0.018575
-0.086522 0.17669 0.013009 0.020896
-0.00026654 -0.0013075 -0.0014532 -0.0028939 -0.00074253 -0.001048 -0.0018474 0.00065899
0.012995 0.020915 -0.16975 0.24692
1100000000 0.034663 0.30534 0.035564 -0.0041302 0.0026928 0.003893 0.0023043 -0.00094939
-0.0017191 -0.0032058 -0.0041125 -0.00025077
0.03554 -0.0041142 -0.13086 0.37259 0.015187 -0.027673 0.00010064 -0.0017613
-0.0032908 -0.0010856 -0.0037272 -0.00068327
0.0027011 0.0038648 0.015102 -0.027759 0.20396 0.27534 -0.0019497 8.2042e-05
-0.0018339 0.00042335 -0.0011909 -0.00024123
0.002335 -0.00097421 9.8141e-05 -0.0017538 -0.001949 8.4885e-05 -0.0095943 0.28365
0.02574 0.0053766 -0.0030794 -0.00076757
-0.0017583 -0.003203 -0.0032959 -0.001074 -0.0018327 0.00043494 0.025768 0.0053381
-0.069135 0.19044 0.019879 0.0099835
-0.0040915 -0.00026381 -0.0037341 -0.00066706 -0.0011838 -0.00024007 -0.0030696 -0.00077766
0.019855 0.0099772 -0.12441 0.28579
1160000000 0.085771 0.30045 0.023685 -0.020618 0.002553 -0.00045128 -0.00013739 -0.0020926
-0.0040102 -0.00093075 -0.0010965 0.0040435
0.023711 -0.02059 -0.087362 0.37696 -0.0036026 -0.029091 -0.0016081 -0.0017792
-0.0028764 0.0024949 -0.0016308 0.0018185
0.0025483 -0.0004494 -0.0037279 -0.029093 0.24709 0.24466 -0.00096317 0.0018119
-0.00069394 0.0020651 -0.00087874 0.00040239
-0.00017029 -0.0021332 -0.001615 -0.0017715 -0.00095714 0.0017987 0.029963 0.28057
0.022378 -0.010985 -0.0039445 0.0051637
-0.0040178 -0.0009068 -0.002865 0.002507 -0.00067971 0.0020595 0.022368 -0.011009
-0.035793 0.20034 0.019276 0.0019423
-0.0011178 0.0041189 -0.0016342 0.0018271 -0.00088297 0.0004046 -0.0039423 0.0051819
0.019276 0.0019457 -0.076471 0.28956
1220000000 0.13007 0.28961 0.010331 -0.0298 -0.0016712 -0.00069196 0.00014077 -0.00068117
-0.0027042 0.002286 0.0011592 0.002226
0.01035 -0.029758 -0.043268 0.3892 -0.016824 -0.021251 -0.0025459 0.00036286
-0.00025619 0.0031727 -0.00099417 0.0019184
-0.0016857 -0.00068784 -0.016936 -0.021182 0.28618 0.20576 0.00073155 0.0018536
0.00067038 0.0014408 0.00042714 0.00065679
0.00016683 -0.00068159 -0.0025487 0.00037948 0.00073233 0.0018527 0.069308 0.27204
0.011412 -0.018015 0.0014344 0.0012575
-0.0027224 0.0022919 -0.00023422 0.0031791 0.00066248 0.0014463 0.011387 -0.018035
-0.014352 0.20998 0.015785 -0.01248
0.0011858 0.0021713 -0.00098516 0.0019102 0.00043811 0.00064945 0.0014404 0.0012517
0.015785 -0.01249 -0.047876 0.31422
1280000000 0.1799 0.26804 -0.007869 -0.028203 -0.0018216 0.0026296 -0.00076709 -0.0020332
-0.00088906 0.0029556 0.0025438 0.0014323
-0.0078504 -0.028187 0.0024599 0.38081 -0.023723 -0.0086484 -0.001111 0.0013549
0.0017274 0.0020769 0.00067973 0.0021995
-0.0018119 0.0026485 -0.02379 -0.008551 0.31671 0.16203 0.0017013 0.00015537
0.0012124 0.00029166 0.00047983 0.00025687
-0.0007768 -0.0020395 -0.0011042 0.0013582 0.0017034 0.00015035 0.10642 0.25571
0.0015203 -0.02047 -0.00054519 0.00038448
-0.00088301 0.0029706 0.0017434 0.0020587 0.0012218 0.0002817 0.0014714 -0.020491
0.021572 0.21441 0.0038979 -0.015091
0.0025525 0.0014382 0.000697 0.0021983 0.00048873 0.00026504 -0.00055753 0.00039655
0.0038916 -0.015082 0.0030301 0.32038
1340000000 0.21702 0.23432 -0.01755 -0.018703 0.0010434 0.0046262 -0.0016586 -0.00095878
0.0014347 0.0027906 0.0019434 -0.0013365
-0.017512 -0.018693 0.042156 0.37286 -0.021734 0.0041129 -0.00022299 0.0021209
0.0020669 0.00088112 0.0013881 0.00075744
0.0010834 0.0046054 -0.021745 0.004227 0.33894 0.11407 0.0014419 -0.00090248
0.00082805 -0.00055989 0.00026519 0.0003441
-0.0016654 -0.00094544 -0.00021442 0.0021218 0.0014367 -0.00091344 0.13849 0.23489
-0.0086036 -0.018062 0.00062678 0.00083337
0.0014599 0.0027659 0.0020793 0.00086983 0.00082629 -0.0005587 -0.0086357 -0.01804
0.050289 0.21091 -0.0025236 -0.014133
0.0019483 -0.0013732 0.0013807 0.00074815 0.00027102 0.00034069 0.00062711 0.00082718
-0.0025117 -0.014143 0.042089 0.32117
1400000000 0.25009 0.19659 -0.023151 -0.007271 0.0053257 0.0030696 -0.0021551 0.00048168
0.0023111 0.0010239 0.00048301 -0.001494
-0.023126 -0.0072837 0.079539 0.36017 -0.015006 0.012437 0.0013834 0.0014079
0.0013065 -0.00079234 0.0012802 0.00030945
0.0053304 0.0030668 -0.014954 0.012524 0.35198 0.060601 0.00020926 -0.001901
7.4786e-05 -0.00055273 0.0003155 0.00024003
-0.002154 0.00047985 0.0013872 0.0013923 0.00021013 -0.0019079 0.1672 0.20599
-0.015127 -0.011257 -0.0011611 -6.7316e-05
0.0023052 0.0010074 0.0013128 -0.00080268 8.2306e-05 -0.00054405 -0.015166 -0.011239
0.083157 0.20844 -0.0093344 -0.0095305
0.00045779 -0.0014584 0.001285 0.00030564 0.00031189 0.00024261 -0.001168 -6.0561e-05
-0.0093241 -0.0095411 0.090798 0.31379
1460000000 0.27312 0.15261 -0.020135 0.0048029 0.0057543 -0.0018696 -0.0017185 0.0017277
0.002057 -0.00024801 -0.00017651 -0.0011872
-0.020129 0.0047814 0.11418 0.33847 -0.0062765 0.015448 0.0018696 0.00027602
0.00092427 -0.0014599 0.0013606 -0.00072046
0.0057448 -0.0019142 -0.0062066 0.015504 0.35816 0.0062185 -0.0014054 -0.0015363
0.00012159 -0.00022056 0.00058535 -0.00049233
-0.001738 0.0017444 0.0018791 0.00027123 -0.0014068 -0.0015402 0.19265 0.17719
-0.017078 -0.0042118 -0.00082642 0.0027464
0.0020695 -0.00026245 0.00090599 -0.0014643 0.0001092 -0.00022424 -0.01709 -0.0041582
0.11164 0.19503 -0.01147 -0.0034364
-0.00015994 -0.0011813 0.0013499 -0.00073205 0.00058243 -0.0005117 -0.00082125 0.0027469
-0.011481 -0.0034295 0.12516 0.29524
1520000000 0.28541 0.11081 -0.014519 0.010172 0.0034177 -0.0042691 6.9949e-05 0.0027267
0.0022942 -0.0015935 -0.0011932 -0.00040231
-0.014522 0.010147 0.14796 0.32367 0.0015828 0.013297 0.0018227 -0.00084964
1.1304e-06 -0.0011239 0.0004074 -0.0009995
0.0034169 -0.0042768 0.0016535 0.013307 0.3515 -0.049977 -0.0014087 -0.00034849
0.00061931 -0.00076163 0.00016328 -0.00018023
8.591e-05 0.0027179 0.0018208 -0.00085809 -0.0014104 -0.00036067 0.21495 0.14012
-0.01687 0.0024137 0.0017534 0.0023594
0.002279 -0.0016059 3.1952e-06 -0.001116 0.0006199 -0.00076524 -0.016872 0.0024606
0.13961 0.18263 -0.012125 0.00080947
-0.0012059 -0.00037814 0.0003981 -0.0010028 0.0001685 -0.00018222 0.0017623 0.0023561
-0.012123 0.00078961 0.16178 0.27935
1580000000 0.29498 0.064512 -0.0079601 0.013227 -0.00093622 -0.0050401 0.0015537 0.0020938
1.3337e-05 -0.0021719 -0.00043905 0.00038925
-0.0079573 0.013211 0.17554 0.2988 0.0053079 0.0084443 0.00050617 -0.0017808
-0.00057461 -0.0011389 -0.00017253 -0.00085422
-0.00095534 -0.0050375 0.0053642 0.0084248 0.33124 -0.10739 -0.0018095 0.00090683
-0.00032489 -0.0011895 9.5402e-05 -0.00070457
0.0015498 0.0020805 0.00050384 -0.0017814 -0.0018136 0.00091097 0.2281 0.10231
-0.013347 0.0083118 0.0026317 0.0010488
-5.8384e-06 -0.0021711 -0.00058979 -0.0011395 -0.00032353 -0.0011931 -0.01334 0.0083493
0.16407 0.1661 -0.0096816 0.0073034
-0.00042365 0.0004037 -0.00018109 -0.00085679 9.6596e-05 -0.00069831 0.0026422 0.0010539
-0.0096871 0.0072915 0.1984 0.25373
1640000000 0.29712 0.023068 -0.0013161 0.012148 -0.0027774 -0.002656 0.002947 0.0010575
-0.00042654 -0.0017376 -0.00036417 0.00053161
-0.0013295 0.012141 0.20534 0.27355 0.0061129 0.0035571 -0.00073157 -0.0018952
-0.0010314 -0.0003793 -0.00046208 -0.00089431
-0.0027885 -0.002635 0.0061423 0.0035234 0.30344 -0.15701 -0.00053237 0.0017244
-0.001027 -0.001238 -0.00013621 -0.00044682
0.0029575 0.0010452 -0.00074565 -0.001894 -0.00053979 0.0017146 0.24044 0.055337
-0.0085358 0.010218 0.0030125 -0.00087393
-0.00045107 -0.0017408 -0.0010298 -0.000379 -0.0010418 -0.0012352 -0.008514 0.010255
0.18667 0.14297 -0.0048787 0.0094852
-0.00036364 0.00052419 -0.00048163 -0.00088036 -0.00014746 -0.00044887 0.0030127 -0.00088808
-0.0048766 0.0094905 0.2263 0.22437
1700000000 0.28962 -0.022437 0.0020451 0.009341 -0.0035771 8.5796e-05 0.0031158 -0.001496
-0.0020674 -0.0010117 0.00065674 0.00047252
0.002042 0.0093262 0.2234 0.24174 0.00402 0.00060802 -0.0016103 -0.0006183
-0.00075466 6.3795e-05 -0.00095084 -0.00054304
-0.0035961 0.00011095 0.0040263 0.00058666 0.2593 -0.19681 0.00080561 0.0016808
-0.0020446 -0.00033636 -0.00041132 -0.00083865
0.0031014 -0.0015175 -0.0016067 -0.00060737 0.00079298 0.001686 0.23831 0.0077195
-0.0049888 0.011477 0.0018018 -0.0025673
-0.0020771 -0.00099372 -0.00075605 7.367e-05 -0.0020484 -0.00033452 -0.0049627 0.011497
0.20433 0.12388 8.1827e-05 0.010009
0.00066 0.00047157 -0.00095602 -0.00053923 -0.00042081 -0.00083639 0.0017879 -0.0025658
7.9714e-05 0.010004 0.2463 0.19027
1760000000 0.27727 -0.071084 0.0042765 0.0060593 -0.0023965 0.0010069 0.001178 -0.00362
-0.001559 0.0005579 0.00042732 -0.00067206
0.0042563 0.006051 0.24939 0.20164 0.0017132 -0.0013034 -0.0013147 0.00025393
-0.00097324 0.00091883 -0.00066294 0.00035895
-0.0024024 0.0010175 0.0017073 -0.0013064 0.21042 -0.23009 0.0013562 0.00085352
-0.0012854 0.0013974 -0.0014854 -0.00054265
0.0011617 -0.0036363 -0.0013117 0.00025072 0.0013582 0.00085739 0.23129 -0.04206
-0.00059973 0.01066 -0.00024033 -0.0028284
-0.0015513 0.00058278 -0.00097666 0.00093111 -0.0012724 0.0013951 -0.00057787 0.01067
0.21961 0.090132 0.0042366 0.0073429
0.00042349 -0.00068655 -0.00066141 0.00036961 -0.00148 -0.00053575 -0.00023256 -0.0028245
0.0042371 0.0073439 0.26116 0.1535
1820000000 0.25234 -0.10832 0.0044176 0.002508 -0.00015266 0.0025201 -0.0012503 -0.0031245
-0.001391 0.00094639 -7.3776e-05 -6.775e-05
0.0044061 0.0025082 0.2592 0.17115 -0.00038482 -0.00022775 -0.0013729 0.001091
2.8051e-05 0.0012593 -0.0006929 0.00052921
-0.00012215 0.0025261 -0.00038711 -0.00022259 0.16006 -0.24572 0.0013287 0.00011588
-0.0002709 0.0025074 -0.0014279 0.00033649
-0.0012705 -0.0031116 -0.001374 0.0011128 0.0013319 0.00010881 0.20402 -0.088646
0.0017671 0.0086868 -0.0017478 -0.0018946
-0.0013945 0.00096178 4.117e-05 0.001259 -0.00027705 0.0025101 0.0017917 0.0086924
0.23741 0.062111 0.0052425 0.0036409
-8.757e-05 -7.1871e-05 -0.00069008 0.00053674 -0.0014321 0.00034999 -0.0017622 -0.0018943
0.0052405 0.0036331 0.26679 0.11811
1880000000 0.21709 -0.14841 0.0022294 0.00029543 -0.00035129 0.0021565 -0.0030349 -0.0021768
-0.00027663 0.001992 0.00016209 -0.00058524
0.0022277 0.00029651 0.26329 0.12453 -0.0024168 0.001629 -8.4007e-05 0.0016935
0.00052535 0.0010695 4.2891e-05 0.0010524
-0.00032455 0.0021497 -0.0024173 0.0016318 0.10791 -0.25475 0.0015019 -0.00082771
0.0015079 0.0020599 -0.00096204 0.0014534
-0.0030659 -0.0021747 -6.8216e-05 0.0016759 0.0015031 -0.00082159 0.16626 -0.12981
0.0031654 0.0060873 -0.0026663 0.00026625
-0.00026434 0.0019772 0.00053824 0.0010679 0.0015195 0.0020505 0.0031803 0.0060789
0.24117 0.030731 0.0056727 0.0012439
0.00018663 -0.00057311 4.7698e-05 0.001063 -0.00096125 0.00146 -0.0026604 0.00028454
0.005674 0.0012374 0.2689 0.083504
1940000000 0.17763 -0.17415 -8.4895e-05 -0.00136 0.0012427 0.0019822 -0.0036382 0.00068617
0.0014992 0.0012906 -0.00067267 -0.00057867
-8.4207e-05 -0.0013476 0.26355 0.092539 -0.0012012 0.0038568 0.00099456 0.0012855
0.0016746 0.00047518 0.0008074 0.00036101
0.0012537 0.0019963 -0.0011695 0.0038719 0.062197 -0.24812 0.00026818 -0.0018314
0.0024239 0.00051874 0.00034329 0.0018269
-0.0036409 0.00073703 0.0010044 0.0012808 0.00027605 -0.0018336 0.1154 -0.16274
0.0025636 0.0035474 -0.0016165 0.001692
0.0015211 0.0012862 0.0016864 0.00046774 0.0024297 0.00051792 0.0025632 0.0035279
0.24464 -0.0075957 0.0041902 -0.0024476
-0.00069242 -0.00061195 0.00081834 0.00035959 0.00033338 0.0018291 -0.001616 0.0016899
0.0041803 -0.0024437 0.25992 0.047933
2000000000 0.13108 -0.18846 -0.0039334 0.0008441 0.0025469 0.0018467 -0.0022109 0.0034861
0.0012665 0.00013387 -0.00082398 0.00047688
-0.0039402 0.00084031 0.24887 0.05712 -0.0010298 0.0056819 0.0015415 0.00038969
0.0011644 -0.0012502 0.00052426 0.00021089
0.002546 0.0018396 -0.00099705 0.0056897 0.018695 -0.23362 -0.0011987 -0.0012205
0.0019954 -0.0012066 0.0017139 0.0013979
-0.002158 0.0034557 0.001555 0.00038525 -0.0012199 -0.0012371 0.061723 -0.17493
0.00063655 0.0025508 0.00012336 0.002115
0.0012672 0.00011678 0.0011537 -0.0012636 0.0019818 -0.0012193 0.00065046 0.0025558
0.23981 -0.041523 0.00092995 -0.0034559
