!Keysight Technologies,M9804A,MY58100912,A.14.10.03
!Date: Thursday, April 27, 2023 10:28:33
!Correction: S11(C  6-Port  ) 
!S12(C  6-Port  ) 
!S13(C  6-Port  ) 
!S14(C  6-Port  ) 
!S15(C  6-Port  ) 
!S16(C  6-Port  ) 
!S21(C  6-Port  ) 
!S22(C  6-Port  ) 
!S23(C  6-Port  ) 
!S24(C  6-Port  ) 
!S25(C  6-Port  ) 
!S26(C  6-Port  ) 
!S31(C  6-Port  ) 
!S32(C  6-Port  ) 
!S33(C  6-Port  ) 
!S34(C  6-Port  ) 
!S35(C  6-Port  ) 
!S36(C  6-Port  ) 
!S41(C  6-Port  ) 
!S42(C  6-Port  ) 
!S43(C  6-Port  ) 
!S44(C  6-Port  ) 
!S45(C  6-Port  ) 
!S46(C  6-Port  ) 
!S51(C  6-Port  ) 
!S52(C  6-Port  ) 
!S53(C  6-Port  ) 
!S54(C  6-Port  ) 
!S55(C  6-Port  ) 
!S56(C  6-Port  ) 
!S61(C  6-Port  ) 
!S62(C  6-Port  ) 
!S63(C  6-Port  ) 
!S64(C  6-Port  ) 
!S65(C  6-Port  ) 
!S66(C  6-Port  ) 
!S6P File: Measurement: :
# Hz S  RI   R 50
500000000 -0.33673 -0.044346 -0.0098809 -0.0024019 -0.0090113 0.013531 -0.0037589 0.011558
0.013445 0.0042899 -0.0042676 0.0077641
-0.010212 -0.0026105 -0.41897 -0.055615 0.007288 -0.010978 0.0020185 0.01211
0.0065399 0.0020784 0.0012345 0.013989
-0.0090216 0.013411 0.0073724 -0.011107 -0.26715 0.20771 0.0070366 0.0032985
-0.0032416 0.0084578 0.00030686 0.012377
-0.0039458 0.011549 0.0021448 0.012306 0.0070125 0.0033631 -0.33331 0.035693
-0.02183 -0.0064137 0.018305 0.027679
0.013329 0.0047681 0.0067859 0.0021463 -0.0030994 0.0083533 -0.021799 -0.0063769
-0.21498 -0.21221 -0.029828 0.0058078
-0.0045955 0.0076498 0.0016009 0.01395 0.00024318 0.012412 0.018392 0.027582
-0.029793 0.0058602 -0.24753 -0.18895
560000000 -0.31821 0.12017 -0.024431 -0.062993 2.1044e-05 0.012369 0.0054674 0.011307
0.0098947 0.0059918 0.01117 0.010049
-0.023541 -0.06347 -0.37526 0.10607 -0.041602 -0.037212 0.014198 0.003992
-0.013971 -0.0040685 0.0047659 -0.00048782
-9.4529e-05 0.012483 -0.041692 -0.037003 -0.18416 0.25779 0.00071018 -0.0037979
0.01971 0.0059683 0.0070564 -0.0062682
0.0058111 0.011427 0.014022 0.0036588 0.00078907 -0.0037579 -0.31068 0.13066
0.0036276 -0.023044 0.0048735 -0.02281
0.0099518 0.0053185 -0.014345 -0.0035393 0.019668 0.0056257 0.0037099 -0.022972
-0.28746 -0.036296 0.0088838 -0.050082
0.011716 0.010078 0.0042386 -0.00018085 0.0070487 -0.0063005 0.0047591 -0.022914
0.0090798 -0.050088 -0.3302 -0.025891
620000000 -0.27683 0.10263 -0.023108 0.008424 0.0035596 0.0085827 0.0085917 -0.0053165
0.01048 8.7983e-05 0.00098208 -0.0024531
-0.023015 0.0083154 -0.40333 0.057157 -0.018235 0.00021687 -0.001077 -0.0021644
0.011446 -0.005677 0.0010492 -0.0033083
0.0036647 0.0084997 -0.018318 0.00027862 -0.15417 0.26618 -0.00054581 -0.0056837
-0.0032845 -0.0023805 0.0090252 -0.0035266
0.0087809 -0.0049628 -0.0011287 -0.0020683 -0.00042144 -0.0055623 -0.2693 0.14047
-0.040272 -0.019597 0.013729 0.028407
0.01084 -0.00034318 0.011514 -0.0056968 -0.0033588 -0.002443 -0.040427 -0.019543
-0.20529 -0.073426 -0.046466 0.016425
0.0013191 -0.0022435 0.0010448 -0.0031962 0.0091517 -0.0036375 0.013835 0.028442
-0.046551 0.016448 -0.24538 -0.075604
680000000 -0.23663 0.19182 -0.027009 -0.013545 0.0052165 0.0054504 0.0018895 -0.0068153
-0.0029768 -0.010887 0.0066602 -0.0067583
-0.027044 -0.013426 -0.38888 0.15697 -0.032515 -0.0011345 -0.0016741 2.2734e-06
-0.0017609 -0.0091647 -0.00081505 -0.0014635
0.0053182 0.0055305 -0.032499 -0.001075 -0.10228 0.28649 -0.00096474 -0.00059834
-0.0014695 0.00050806 -0.0024371 -0.0094278
0.0016577 -0.007031 -0.0013693 -7.009e-05 -0.00098035 -0.00060581 -0.2246 0.1935
-0.024399 -0.0059488 -0.010966 -0.012256
-0.0032618 -0.011138 -0.0018906 -0.0093605 -0.0014564 0.00054393 -0.024529 -0.0059275
-0.26284 0.028157 -0.004418 -0.0067184
0.0064346 -0.006292 -0.00090322 -0.0016315 -0.0024688 -0.0094561 -0.010912 -0.012452
-0.0044048 -0.006751 -0.26856 0.044054
740000000 -0.19239 0.18533 -0.039118 0.027153 0.013001 -0.0050884 0.00029014 -0.004801
-0.0046783 -0.0026764 -0.0060916 0.0024494
-0.039174 0.027039 -0.33433 0.17546 -0.035257 0.035017 -0.00071892 -0.0061314
-0.012339 0.0066765 -0.0022382 -0.0075095
0.013208 -0.0051498 -0.035179 0.035286 -0.068037 0.28399 -0.0022125 0.0030717
-0.0020715 -0.0053236 -0.00078424 -3.7488e-05
0.00039727 -0.0048829 -0.00075082 -0.0059738 -0.0021609 0.0031007 -0.20717 0.20148
-0.044737 -0.0062036 0.025245 0.017291
-0.0051727 -0.0024634 -0.011938 0.0066072 -0.002264 -0.0054128 -0.044756 -0.0061778
-0.15835 0.055688 -0.047374 0.00074054
-0.0058008 0.0026155 -0.0022347 -0.0075663 -0.00085518 8.3192e-05 0.025272 0.017234
-0.047353 0.00062665 -0.26193 0.046777
800000000 -0.15845 0.22731 -0.021727 0.016661 0.0054082 -0.010443 -0.005229 -0.0020781
-0.0038301 0.002205 0.0038662 0.00061078
-0.022056 0.016688 -0.33843 0.24555 -0.0077993 0.033813 -0.0026597 0.002027
-0.00075979 0.0026813 0.00052153 0.0052231
0.0054518 -0.010311 -0.0076629 0.033846 -0.027936 0.30698 0.0003913 0.0015014
0.00011274 0.0036102 -0.0021738 0.0005541
-0.0052041 -0.0021006 -0.0027027 0.0020819 0.00040329 0.0015128 -0.17766 0.23054
-0.028412 0.015074 0.015005 -0.011396
-0.0039354 0.0021823 -0.00078753 0.0027354 0.00014801 0.0036075 -0.028381 0.015107
-0.20936 0.080088 -0.017631 0.020651
0.0036103 0.00076585 0.00050691 0.0053081 -0.0022466 0.00052604 0.014952 -0.011419
-0.017683 0.020688 -0.26637 0.10286
860000000 -0.12445 0.2468 -0.017239 0.030414 -0.0033234 -0.0099922 -0.0017693 0.00070511
0.0039081 0.0049011 -0.0040839 -0.0038995
-0.017351 0.030411 -0.29055 0.28738 0.0076845 0.03397 6.812e-05 0.0020814
0.0041298 0.00019987 0.0027509 0.00056615
-0.0033614 -0.010011 0.0078229 0.033989 0.019884 0.31461 -0.00069285 6.6967e-06
0.0027849 -0.0015731 0.001475 0.0043849
-0.001676 0.00070257 2.8663e-05 0.0021007 -0.00069103 -1.1487e-05 -0.13983 0.24121
-0.017246 0.01857 -0.0069631 -0.0090985
0.0038019 0.0047856 0.0042189 0.0001299 0.0028092 -0.0016028 -0.017184 0.018642
-0.1565 0.13375 -0.028643 0.016377
-0.0039168 -0.0041926 0.0027948 0.00066769 0.0014516 0.0043795 -0.0068949 -0.0090993
-0.028648 0.016345 -0.21135 0.15441
920000000 -0.099193 0.26872 0.0051371 0.037562 -0.0093378 -0.0046534 -0.0020627 0.0015047
0.00056896 0.0019134 0.0026554 -0.0015268
0.0050364 0.03749 -0.26216 0.30836 0.027786 0.021849 0.0014102 0.0011296
0.0070518 0.00041602 0.0041585 -0.0031057
-0.0093253 -0.004634 0.027887 0.02179 0.065601 0.31525 0.0019379 0.00010081
0.0011502 -0.00019486 0.00050775 -0.0013772
-0.0020649 0.0016502 0.001413 0.0010979 0.001933 0.00011777 -0.1157 0.25801
-0.010576 0.03143 0.0050101 -0.0071817
0.00075145 0.0017794 0.0072092 0.00043513 0.0011562 -0.00020114 -0.010454 0.031423
-0.14879 0.13957 -0.0023904 0.028649
0.0027344 -0.0013247 0.0041134 -0.0029855 0.00050487 -0.0013686 0.0050205 -0.0071708
-0.0024068 0.028635 -0.23054 0.16965
980000000 -0.052258 0.28882 0.01725 0.029716 -0.0091368 0.0044146 0.001852 0.0034841
0.0040379 -0.0015694 -0.003152 -0.0024853
0.017259 0.029788 -0.2095 0.3425 0.032758 0.0049799 0.0020678 -1.2341e-05
0.001635 -0.0058005 -0.00028826 -0.0023904
-0.0091362 0.0044524 0.032843 0.0048477 0.11179 0.309 0.00064707 -0.0013021
0.000428 -0.0020891 0.0012119 -0.0001899
0.0019187 0.0033758 0.0020622 4.158e-05 0.00065165 -0.0013026 -0.076847 0.26878
0.0083054 0.030673 -0.0097328 -0.0081956
0.0040397 -0.0014881 0.0015913 -0.0058933 0.0003964 -0.0020671 0.0083299 0.03064
-0.118 0.16874 0.0040848 0.020624
-0.0032171 -0.0023985 -0.00031693 -0.0022931 0.0012162 -0.00016217 -0.0097271 -0.0081581
0.0040381 0.020607 -0.18741 0.22278
1040000000 -0.010331 0.2969 0.032933 0.01809 -0.0013657 0.0068387 0.0022025 0.00063284
8.6168e-05 -0.0034526 -0.00030682 -0.001307
0.032887 0.01817 -0.17401 0.35542 0.029324 -0.014581 0.0015967 -0.0018338
-0.0019359 -0.0027861 -0.0013971 -0.0028796
-0.0013704 0.0068472 0.029287 -0.014712 0.15777 0.29535 -0.00046016 -0.0016889
-0.0015874 -0.00097761 -0.00072583 -0.0010457
0.0022474 0.00064577 0.0016355 -0.0018145 -0.00047119 -0.0016831 -0.049828 0.2785
0.020062 0.018753 -0.0018358 0.00057246
0.00015086 -0.0035984 -0.001928 -0.0027924 -0.0015766 -0.00098189 0.02014 0.018722
-0.086676 0.17642 0.013337 0.021147
-0.00030672 -0.0012183 -0.0013844 -0.0029112 -0.00071653 -0.0010423 -0.0018158 0.00055598
0.013307 0.021155 -0.17073 0.24638
1100000000 0.034524 0.30536 0.035568 -0.0040641 0.0027078 0.0038833 0.0023105 -0.00092626
-0.0017002 -0.0031399 -0.0040829 -0.0002454
0.035491 -0.0040433 -0.13087 0.37264 0.015191 -0.027664 0.00011752 -0.0017748
-0.0033327 -0.0010628 -0.0037658 -0.00074993
0.0027298 0.0038774 0.01512 -0.027769 0.20395 0.27531 -0.0019599 7.0343e-05
-0.0018458 0.00040192 -0.0012355 -0.00023304
0.0023537 -0.00098611 8.2887e-05 -0.0017673 -0.0019642 7.2441e-05 -0.0096125 0.28368
0.025797 0.0053404 -0.0030536 -0.00077435
-0.0018247 -0.0030744 -0.0033149 -0.0010877 -0.0018682 0.00039776 0.025814 0.0052857
-0.069334 0.19032 0.019859 0.010034
-0.0039622 -0.00043195 -0.0038028 -0.00066707 -0.0012464 -0.00022941 -0.0030206 -0.00076481
0.01982 0.010026 -0.12505 0.28539
1160000000 0.085852 0.30025 0.023697 -0.020605 0.0025639 -0.00042447 -0.00017169 -0.0020836
-0.004045 -0.00093797 -0.0011171 0.0040714
0.023709 -0.020578 -0.087371 0.37696 -0.0036099 -0.029074 -0.0016495 -0.0017961
-0.0028984 0.002465 -0.0016118 0.0018085
0.0025417 -0.00045113 -0.003719 -0.029093 0.24709 0.24467 -0.00096596 0.0018198
-0.00070253 0.0020876 -0.00088088 0.00038749
-0.0002147 -0.0020301 -0.0015621 -0.0017837 -0.00095347 0.0018294 0.029938 0.28065
0.022395 -0.011113 -0.0039547 0.0051428
-0.0040558 -0.0009632 -0.0028846 0.0024904 -0.00068572 0.002104 0.022389 -0.011129
-0.035748 0.20027 0.019273 0.0020148
-0.0010549 0.0042256 -0.0016896 0.0017779 -0.00087502 0.00039356 -0.0039339 0.0051289
0.019257 0.0019962 -0.077199 0.28918
1220000000 0.12996 0.28953 0.01034 -0.029821 -0.001652 -0.00071156 0.00015112 -0.00071529
-0.0027126 0.0022985 0.0011569 0.0021858
0.01037 -0.029757 -0.043276 0.38923 -0.016806 -0.021238 -0.0025531 0.00036261
-0.00024908 0.003189 -0.0010108 0.0019013
-0.0016204 -0.00071772 -0.016925 -0.021194 0.28617 0.20571 0.0007151 0.0018431
0.00068219 0.0014565 0.00042196 0.00067575
0.0001463 -0.00075693 -0.002569 0.00038558 0.00071159 0.0018521 0.069358 0.27206
0.011426 -0.018076 0.0013799 0.0012407
-0.0027456 0.0022993 -0.00021938 0.0031665 0.00070895 0.0014594 0.011408 -0.0181
-0.014431 0.20997 0.015916 -0.012663
0.0011072 0.0021636 -0.00098489 0.001949 0.00045105 0.0006694 0.0013903 0.0012571
0.015917 -0.012672 -0.048735 0.3142
1280000000 0.17986 0.26793 -0.0078272 -0.028204 -0.001816 0.0026295 -0.00078485 -0.0020073
-0.00091383 0.0028893 0.0025883 0.0014739
-0.0078338 -0.028202 0.0024185 0.38076 -0.023703 -0.0086468 -0.001116 0.0013546
0.0017183 0.0020542 0.00071097 0.0022485
-0.0018093 0.0026288 -0.023781 -0.0085501 0.31675 0.16203 0.0016941 0.00017296
0.0011855 0.00028726 0.00052111 0.00023538
-0.00078554 -0.0020226 -0.0010852 0.0013699 0.0016918 0.00018142 0.10649 0.25571
0.0014924 -0.020587 -0.00062563 0.00043327
-0.00087347 0.0029703 0.0017572 0.0021281 0.0011892 0.00029574 0.0014632 -0.020584
0.02153 0.21453 0.0038375 -0.015161
0.0025473 0.0014902 0.00067733 0.0022345 0.00054487 0.00023674 -0.00061222 0.00044091
0.0038295 -0.015157 0.002424 0.32033
1340000000 0.21697 0.23441 -0.017564 -0.01877 0.0010335 0.0046152 -0.0016446 -0.00099744
0.001414 0.0027943 0.0019552 -0.0013615
-0.017493 -0.018741 0.042145 0.37285 -0.021734 0.0041012 -0.00025381 0.0021315
0.0020697 0.00087855 0.0013922 0.00077675
0.0010401 0.0045897 -0.021752 0.0042082 0.33895 0.11406 0.0014588 -0.00095356
0.00082516 -0.00055492 0.00027278 0.00031301
-0.0016553 -0.00094075 -0.00022926 0.0021223 0.001456 -0.00094292 0.13855 0.23482
-0.0087549 -0.018117 0.00056034 0.00085052
0.001381 0.0027621 0.0021045 0.00087691 0.00083946 -0.00054207 -0.0088082 -0.018106
0.050263 0.21087 -0.0026147 -0.014285
0.0019907 -0.0013681 0.0013837 0.00079496 0.0002626 0.00032829 0.00055566 0.0008473
-0.0026012 -0.014281 0.041454 0.32132
1400000000 0.25005 0.19665 -0.023153 -0.0072847 0.0052976 0.0030772 -0.0021573 0.00048001
0.0023035 0.0010154 0.00051694 -0.0014832
-0.023118 -0.0073035 0.079507 0.36018 -0.015009 0.012424 0.0013994 0.0014136
0.0013008 -0.00080274 0.0012925 0.0003107
0.005348 0.0030612 -0.014972 0.012519 0.35198 0.060595 0.00021348 -0.0019061
4.5475e-05 -0.00058295 0.00034518 0.00027388
-0.0021749 0.00045754 0.0014184 0.0014195 0.00022494 -0.0019007 0.16726 0.20593
-0.015245 -0.011232 -0.0011935 -4.1304e-05
0.002326 0.0010013 0.0012918 -0.00083443 4.2173e-05 -0.00058603 -0.015262 -0.011206
0.083137 0.20837 -0.0095039 -0.0096799
0.0005148 -0.0014575 0.0013097 0.00027026 0.00033525 0.00026277 -0.0011974 -3.245e-05
-0.0094941 -0.0097027 0.090253 0.31396
1460000000 0.27311 0.15269 -0.020177 0.004792 0.0057457 -0.0018903 -0.0017293 0.0017107
0.0020531 -0.00022516 -0.00019558 -0.0012146
-0.020155 0.0047543 0.11414 0.33846 -0.0062988 0.01545 0.0018677 0.00029282
0.00093882 -0.0014848 0.0013462 -0.00071358
0.0057293 -0.0018938 -0.0062299 0.015495 0.3582 0.0061989 -0.001409 -0.0015455
0.00014046 -0.00020647 0.00059489 -0.00051055
-0.0016878 0.0017436 0.0018507 0.00027108 -0.0014001 -0.0015354 0.19269 0.17707
-0.017246 -0.0041359 -0.00079622 0.0027595
0.0021109 -0.00025304 0.00094337 -0.0014858 0.00014697 -0.00022168 -0.017264 -0.0040855
0.11156 0.19494 -0.011584 -0.0033294
-0.00023102 -0.0012536 0.0013595 -0.00069069 0.00061045 -0.00049864 -0.00080863 0.0027366
-0.011584 -0.0033273 0.1245 0.29534
1520000000 0.2855 0.11089 -0.014548 0.010178 0.0033999 -0.0042723 5.9387e-05 0.0027369
0.0023264 -0.0016285 -0.0011773 -0.00037763
-0.014541 0.010167 0.14795 0.32367 0.0015516 0.013297 0.0018473 -0.00085602
-7.6257e-06 -0.0011226 0.00039165 -0.0010055
0.0033702 -0.0042969 0.0016379 0.013303 0.35148 -0.050046 -0.0014339 -0.00036243
0.00061816 -0.00073701 0.00015768 -0.00019509
5.2971e-05 0.002752 0.0018419 -0.00086337 -0.0014146 -0.00035671 0.21489 0.14001
-0.016925 0.0025835 0.0017822 0.0023848
0.0022905 -0.0016232 -1.4547e-05 -0.0011301 0.00061659 -0.00076312 -0.016944 0.0026202
0.13942 0.18257 -0.012205 0.00088548
-0.0011353 -0.00035247 0.00040853 -0.001012 0.00015541 -0.00021179 0.00176 0.002383
-0.012212 0.00087472 0.1613 0.27962
1580000000 0.29511 0.06456 -0.0079661 0.013239 -0.00095123 -0.005033 0.0015596 0.0020803
-4.8728e-07 -0.0021888 -0.00043294 0.00039544
-0.0079714 0.013219 0.1755 0.29882 0.0052914 0.0084592 0.00050303 -0.0017794
-0.00059949 -0.0011389 -0.00017651 -0.00084352
-0.00097167 -0.0050422 0.0053466 0.0084457 0.3312 -0.10743 -0.0018377 0.00091926
-0.0003413 -0.0011748 0.0001122 -0.00068138
0.0015904 0.0020772 0.000501 -0.001786 -0.0018346 0.00092318 0.228 0.10228
-0.013267 0.0084638 0.0027067 0.0010188
4.8056e-06 -0.0022104 -0.00060072 -0.0011224 -0.00035606 -0.0011782 -0.013247 0.0084923
0.16396 0.16615 -0.0097563 0.0074001
-0.00045326 0.00038044 -0.00018964 -0.00083613 0.00012618 -0.00065759 0.0027151 0.0010066
-0.0097802 0.007416 0.19787 0.25393
1640000000 0.29718 0.023051 -0.0013133 0.012144 -0.0027869 -0.0026471 0.0029379 0.0010498
-0.00044762 -0.0017612 -0.00035486 0.00053559
-0.0013182 0.012132 0.20531 0.27359 0.0060998 0.0035683 -0.00071894 -0.0019091
-0.0010389 -0.00036119 -0.00047042 -0.00089098
-0.0028079 -0.0026531 0.0061341 0.0035381 0.30347 -0.15708 -0.00050831 0.0017097
-0.0010169 -0.0012366 -0.00018196 -0.00045405
0.0029124 0.0010344 -0.00073828 -0.0018888 -0.00051705 0.0017142 0.24035 0.055362
-0.0084041 0.010338 0.0030263 -0.00091286
-0.00047509 -0.0017482 -0.0010553 -0.00036931 -0.001009 -0.0012429 -0.008392 0.010364
0.1865 0.14304 -0.0047974 0.0096069
-0.00033825 0.00052188 -0.00045134 -0.00089625 -0.00018386 -0.00044847 0.0030153 -0.00091645
-0.0047933 0.0096039 0.22585 0.22464
1700000000 0.28971 -0.022512 0.0020459 0.0093413 -0.0035616 9.712e-05 0.0031696 -0.001497
-0.002079 -0.00099745 0.00067246 0.00046159
0.0020403 0.0093322 0.2234 0.24178 0.0040029 0.00063541 -0.0016045 -0.00061612
-0.0007445 7.7164e-05 -0.000948 -0.00055733
-0.003581 0.00011925 0.0040249 0.00061671 0.25921 -0.19689 0.00080752 0.0016804
-0.002066 -0.00030993 -0.00041505 -0.00083615
0.0031829 -0.0014624 -0.0016279 -0.0006008 0.0008105 0.0016809 0.23815 0.0077471
-0.0048421 0.011454 0.0018177 -0.0025493
-0.0020743 -0.00097015 -0.00073789 0.00011159 -0.0020655 -0.00028949 -0.0048308 0.011472
0.20422 0.124 0.00012754 0.010107
0.00065946 0.00047021 -0.0009812 -0.00055558 -0.00041779 -0.00085108 0.0018146 -0.0025518
0.00012872 0.010114 0.24589 0.19054
1760000000 0.27725 -0.071134 0.0042724 0.0060618 -0.0023852 0.0010264 0.0011691 -0.0036282
-0.0015528 0.00058612 0.00040751 -0.00067087
0.0042523 0.006073 0.24938 0.20167 0.0017218 -0.0012884 -0.0012937 0.00025263
-0.00095212 0.00092425 -0.00067037 0.00037018
-0.0023806 0.0010129 0.0017052 -0.0013125 0.21038 -0.23018 0.0013509 0.00084298
-0.0012747 0.0014387 -0.0014684 -0.00056057
0.0011424 -0.0036785 -0.001297 0.00025425 0.0013464 0.00083972 0.2313 -0.041839
-0.00049175 0.01065 -0.00018655 -0.0029011
-0.0015893 0.00058485 -0.00095353 0.00093256 -0.0012837 0.0014192 -0.00047124 0.010677
0.21966 0.090321 0.0043396 0.0073407
0.00041461 -0.00066071 -0.00065767 0.00036565 -0.0014269 -0.00053908 -0.00020065 -0.0029035
0.0043271 0.0073414 0.26087 0.1539
1820000000 0.25232 -0.10839 0.004427 0.0025079 -0.00013417 0.0025138 -0.0012339 -0.003122
-0.0013953 0.00095161 -6.917e-05 -7.6251e-05
0.0044199 0.0024955 0.25925 0.17119 -0.00037212 -0.00023763 -0.0013861 0.0011028
2.5138e-05 0.0012407 -0.00069577 0.00052378
-0.00010824 0.0025406 -0.00035711 -0.00022631 0.16001 -0.24583 0.0013411 0.00014248
-0.00025078 0.0025246 -0.0014603 0.00032278
-0.0012557 -0.0031027 -0.0013784 0.0011115 0.0013705 0.00017795 0.20412 -0.088571
0.0018925 0.008581 -0.001837 -0.0018818
-0.0013504 0.00096542 4.4796e-05 0.0012324 -0.00024926 0.0025282 0.0019078 0.0085836
0.2375 0.062241 0.005272 0.0036556
-8.1471e-05 -3.9937e-05 -0.00068612 0.0005359 -0.0014726 0.00030171 -0.0018555 -0.0018699
0.0052621 0.0036585 0.26655 0.11854
1880000000 0.217 -0.14848 0.0022284 0.00030224 -0.00037324 0.0021499 -0.0030364 -0.0021813
-0.00027618 0.0020267 0.00016459 -0.00061015
0.0022352 0.00029638 0.26329 0.12455 -0.0024193 0.0016137 -5.2457e-05 0.0016629
0.0005174 0.0010428 1.6826e-05 0.0010572
-0.00036901 0.0021562 -0.0024036 0.0016463 0.10784 -0.25479 0.0015196 -0.00083921
0.001499 0.002009 -0.00096303 0.0015079
-0.0030193 -0.00213 -3.7625e-05 0.0016723 0.0015009 -0.00083634 0.16632 -0.12979
0.0031154 0.0059971 -0.0025545 0.00025326
-0.00029194 0.0020137 0.00053391 0.0010539 0.0015284 0.0020156 0.0031447 0.0060012
0.2413 0.030824 0.00585 0.0012054
0.00021184 -0.00065674 2.9777e-05 0.0010475 -0.00095673 0.0015125 -0.0025542 0.00026042
0.0058392 0.0012062 0.26861 0.083924
1940000000 0.17754 -0.17413 -0.00010687 -0.0013403 0.0012526 0.0020367 -0.0036606 0.00067607
0.0015014 0.0012605 -0.00070403 -0.00054066
-9.1611e-05 -0.001353 0.26361 0.092534 -0.0011958 0.0038601 0.0010077 0.0012882
0.0016624 0.00046623 0.00081708 0.00036736
0.0012753 0.0019796 -0.0011843 0.0038404 0.062095 -0.24813 0.00031177 -0.001756
0.0024454 0.00055907 0.00036174 0.0017713
-0.003605 0.0007008 0.0010347 0.0012976 0.00033626 -0.001742 0.11545 -0.16273
0.0025451 0.0035066 -0.0017122 0.0016896
0.0015671 0.001228 0.0016607 0.00044422 0.0024515 0.00055183 0.0025539 0.0035135
0.2448 -0.007627 0.0042355 -0.0024757
-0.0007592 -0.00052341 0.00081355 0.00034439 0.00037971 0.0017593 -0.0016899 0.001694
0.0042214 -0.0024729 0.25983 0.04845
2000000000 0.13098 -0.18849 -0.003928 0.00083235 0.0025227 0.0018241 -0.0022518 0.0034604
0.0012179 0.000136 -0.0007575 0.00042815
-0.0039236 0.00083589 0.24892 0.057099 -0.0010191 0.0056643 0.0015926 0.00039499
0.0011704 -0.0012083 0.00050891 0.00020582
0.0025614 0.0018287 -0.00098161 0.0056993 0.018614 -0.23359 -0.0011905 -0.0012492
0.0020141 -0.0012142 0.0017204 0.0014801
-0.0022457 0.0035643 0.0016012 0.00040243 -0.0011741 -0.0012636 0.061899 -0.17513
0.00064807 0.0024138 0.00010051 0.0021017
0.0011677 0.00015446 0.0011613 -0.0012195 0.002027 -0.0012394 0.00065877 0.0024081
0.23987 -0.041615 0.00096811 -0.0035546
