!Keysight Technologies,M9804A,MY58100912,A.14.10.03
!Date: Thursday, April 27, 2023 10:28:33
!Correction: S11(C  6-Port  ) 
!S12(C  6-Port  ) 
!S13(C  6-Port  ) 
!S14(C  6-Port  ) 
!S15(C  6-Port  ) 
!S16(C  6-Port  ) 
!S21(C  6-Port  ) 
!S22(C  6-Port  ) 
!S23(C  6-Port  ) 
!S24(C  6-Port  ) 
!S25(C  6-Port  ) 
!S26(C  6-Port  ) 
!S31(C  6-Port  ) 
!S32(C  6-Port  ) 
!S33(C  6-Port  ) 
!S34(C  6-Port  ) 
!S35(C  6-Port  ) 
!S36(C  6-Port  ) 
!S41(C  6-Port  ) 
!S42(C  6-Port  ) 
!S43(C  6-Port  ) 
!S44(C  6-Port  ) 
!S45(C  6-Port  ) 
!S46(C  6-Port  ) 
!S51(C  6-Port  ) 
!S52(C  6-Port  ) 
!S53(C  6-Port  ) 
!S54(C  6-Port  ) 
!S55(C  6-Port  ) 
!S56(C  6-Port  ) 
!S61(C  6-Port  ) 
!S62(C  6-Port  ) 
!S63(C  6-Port  ) 
!S64(C  6-Port  ) 
!S65(C  6-Port  ) 
!S66(C  6-Port  ) 
!S6P File: Measurement: :
# Hz S  RI   R 50
500000000 -0.33742 -0.044015 -0.010472 -0.0023144 -0.008489 0.013302 -0.005218 0.012472
0.012982 0.0043302 -0.0058992 0.0090071
-0.010496 -0.0023935 -0.41935 -0.054716 0.0075379 -0.010794 0.0015723 0.012671
0.0069577 0.0021599 0.0012983 0.014399
-0.0085773 0.013309 0.0076486 -0.010845 -0.26727 0.20776 0.0069684 0.0037073
-0.0029799 0.0082565 5.8821e-05 0.012498
-0.0050618 0.012567 0.0015713 0.012792 0.0071277 0.0040018 -0.33376 0.035619
-0.021756 -0.0055589 0.018387 0.028097
0.013295 0.0042508 0.0069363 0.0021263 -0.0029497 0.0081268 -0.021842 -0.005475
-0.21451 -0.21227 -0.029569 0.0062951
-0.0052118 0.0092301 0.0012584 0.014548 0.00038394 0.012853 0.018401 0.028004
-0.029483 0.0063193 -0.24824 -0.18379
560000000 -0.31707 0.12026 -0.024114 -0.063824 0.00021561 0.012663 0.0050808 0.011059
0.010791 0.0055364 0.010514 0.0089949
-0.024041 -0.063664 -0.37721 0.10588 -0.041357 -0.037397 0.013988 0.0039259
-0.013696 -0.0054796 0.0037524 -8.1552e-05
0.00022242 0.012903 -0.041633 -0.037466 -0.18455 0.25835 0.00015679 -0.0040032
0.019474 0.0057916 0.0070925 -0.0059908
0.0055264 0.011041 0.01384 0.0038692 0.00022259 -0.0043006 -0.31114 0.12984
0.0038391 -0.02343 0.0046728 -0.023372
0.01035 0.0050745 -0.01359 -0.005291 0.019502 0.0057556 0.0037724 -0.02331
-0.2879 -0.035547 0.0098397 -0.052217
0.011465 0.0092692 0.0039259 -0.00023214 0.0070676 -0.0057178 0.0046294 -0.023402
0.0097642 -0.052149 -0.33054 -0.024086
620000000 -0.27665 0.10297 -0.023199 0.0085063 0.0032838 0.0086607 0.007974 -0.0045269
0.011606 0.00044221 0.00067583 -0.0021145
-0.023126 0.0085507 -0.40333 0.057403 -0.018272 0.00032934 -0.001305 -0.0017809
0.011644 -0.0057941 0.0012202 -0.002967
0.0033803 0.0086535 -0.018298 0.00040276 -0.15413 0.26649 -0.00060304 -0.0054813
-0.0028714 -0.002342 0.0092539 -0.003459
0.0079286 -0.0045747 -0.0012909 -0.0018707 -0.00050831 -0.0054587 -0.27011 0.14038
-0.040121 -0.018823 0.01323 0.028364
0.011825 0.00038597 0.011663 -0.0057469 -0.0028664 -0.0024469 -0.040258 -0.018791
-0.205 -0.073819 -0.045925 0.016754
0.00029489 -0.001725 0.0011037 -0.002872 0.0091801 -0.0035075 0.013308 0.028338
-0.045961 0.016669 -0.24529 -0.072401
680000000 -0.23636 0.1907 -0.026931 -0.013774 0.005114 0.0050515 0.0021302 -0.0070563
-0.0027063 -0.01129 0.0067167 -0.0069138
-0.026852 -0.013821 -0.38876 0.15692 -0.032455 -0.001374 -0.0013372 -0.00035199
-0.0015123 -0.009333 -0.00080311 -0.001759
0.0051657 0.0050851 -0.0325 -0.0012632 -0.10219 0.28642 -0.00070429 -0.0005729
-0.0014235 0.000348 -0.0026181 -0.009494
0.0018794 -0.0071597 -0.0013682 -0.00035999 -0.000786 -0.00063796 -0.22367 0.1935
-0.024156 -0.0062178 -0.010851 -0.013337
-0.0027584 -0.010998 -0.0016312 -0.009379 -0.0014527 0.00032607 -0.024219 -0.006107
-0.26276 0.027919 -0.0046025 -0.0076606
0.0062587 -0.0073021 -0.00075983 -0.0017749 -0.0025532 -0.0094599 -0.010953 -0.013397
-0.0046259 -0.0076973 -0.2679 0.04692
740000000 -0.19213 0.1855 -0.039248 0.027103 0.013044 -0.0051779 7.1677e-05 -0.004586
-0.0039221 -0.0025222 -0.0063932 0.0020275
-0.039312 0.027062 -0.33476 0.17538 -0.035175 0.035082 -0.00051896 -0.0061879
-0.011963 0.0064586 -0.0017446 -0.00721
0.013003 -0.0052526 -0.035106 0.035255 -0.068117 0.28392 -0.0023747 0.0030433
-0.0020544 -0.0052839 -0.0011136 0.00017866
3.261e-05 -0.0045975 -0.00059282 -0.0063552 -0.0023658 0.0030387 -0.20665 0.20176
-0.044343 -0.0066985 0.025582 0.017322
-0.0043392 -0.0025436 -0.012165 0.0068518 -0.0021363 -0.0053479 -0.044329 -0.0066295
-0.15997 0.05583 -0.04658 -0.00081039
-0.0065143 0.0023036 -0.0018721 -0.0070709 -0.0011134 6.3107e-05 0.025626 0.01729
-0.046645 -0.00081516 -0.2612 0.050069
800000000 -0.15884 0.22706 -0.021905 0.016821 0.0054248 -0.010571 -0.004617 -0.0021838
-0.0039298 0.0019507 0.0044055 -4.0599e-05
-0.021917 0.016819 -0.33842 0.2456 -0.0077718 0.033776 -0.0024699 0.0020396
-0.0008804 0.0027367 0.0007969 0.0050086
0.0054352 -0.010593 -0.0076629 0.033842 -0.027843 0.30683 0.00066606 0.0016231
6.1975e-05 0.0034312 -0.0017693 0.00055535
-0.0046783 -0.0021371 -0.0025052 0.0020731 0.00069227 0.001625 -0.17756 0.23084
-0.028402 0.014551 0.015243 -0.011091
-0.0038884 0.0021122 -0.0008184 0.0028339 1.6607e-05 0.0034019 -0.028416 0.014632
-0.20911 0.080605 -0.017787 0.019665
0.0044324 -4.1217e-05 0.0007486 0.0051131 -0.0017003 0.00060916 0.015223 -0.011169
-0.017823 0.019647 -0.26401 0.10519
860000000 -0.12401 0.24666 -0.017218 0.0304 -0.0032474 -0.009909 -0.0020017 0.00057666
0.0035708 0.005051 -0.0040472 -0.0036757
-0.017199 0.030347 -0.29037 0.28717 0.0077802 0.033906 5.5329e-05 0.0020291
0.0038327 0.0003793 0.0031603 0.0004902
-0.0032458 -0.009952 0.0078941 0.033904 0.019812 0.31454 -0.00061018 6.6712e-06
0.0028421 -0.0016003 0.0013569 0.0041435
-0.001993 0.00056714 5.2587e-05 0.0019941 -0.00061254 -5.4085e-06 -0.13962 0.2413
-0.017188 0.018485 -0.0069367 -0.0091538
0.0038606 0.0050364 0.0040039 0.00026834 0.0027771 -0.0015532 -0.01716 0.018565
-0.15656 0.13421 -0.028703 0.015404
-0.0039513 -0.0037067 0.0032341 0.00058055 0.0014411 0.0041988 -0.0069442 -0.0091401
-0.028683 0.015375 -0.21005 0.15672
920000000 -0.099536 0.26898 0.0051212 0.037427 -0.0093289 -0.0046686 -0.0018907 0.0014513
0.00079883 0.0019322 0.0027476 -0.0016008
0.0050939 0.037422 -0.26221 0.30825 0.027773 0.021814 0.0013869 0.0011418
0.0070039 0.00034466 0.0040526 -0.0028861
-0.0093683 -0.0046776 0.027859 0.021737 0.065538 0.31526 0.0019203 7.7689e-05
0.0012287 -0.00017604 0.0005534 -0.0013953
-0.0018824 0.0014393 0.0013619 0.0011353 0.0019366 9.0659e-05 -0.11566 0.25805
-0.010582 0.031251 0.0048456 -0.0068834
0.00074468 0.0020877 0.0069991 0.00031429 0.0011631 -0.00018867 -0.010555 0.031401
-0.14837 0.13953 -0.0025835 0.028597
0.0026889 -0.0017627 0.004036 -0.0028914 0.00055223 -0.0013719 0.0048497 -0.0069341
-0.002583 0.028566 -0.22903 0.17174
980000000 -0.052301 0.28889 0.017234 0.029793 -0.0091767 0.0044259 0.001957 0.0032796
0.0037701 -0.0012544 -0.0033325 -0.0024173
0.017198 0.029756 -0.20958 0.34248 0.032807 0.0049663 0.0022081 0.00011039
0.0017657 -0.0058019 -0.00012278 -0.0023961
-0.0091569 0.0044385 0.032838 0.0048551 0.11174 0.30899 0.00066257 -0.0012171
0.00046666 -0.0020857 0.0013848 -0.00017517
0.0019353 0.0033092 0.0022111 7.3362e-05 0.00066682 -0.0012293 -0.076847 0.26885
0.0085003 0.030779 -0.0096528 -0.0080871
0.0038025 -0.0012093 0.0017324 -0.0057113 0.00045092 -0.0020623 0.0085927 0.030786
-0.11821 0.16892 0.0042817 0.020298
-0.0033447 -0.0024145 -4.2459e-05 -0.0024795 0.0013945 -0.00018656 -0.0096237 -0.0081037
0.0042705 0.020314 -0.18595 0.22441
1040000000 -0.010588 0.29717 0.032846 0.018077 -0.001472 0.0068523 0.0023177 0.00077579
8.0512e-05 -0.0033635 -8.6183e-05 -0.0013197
0.032798 0.018048 -0.17413 0.35541 0.02925 -0.01461 0.0015656 -0.0017032
-0.0021331 -0.0026155 -0.0013039 -0.0028708
-0.0014479 0.0068305 0.029229 -0.014717 0.15762 0.29544 -0.00049871 -0.0016802
-0.0015487 -0.00091386 -0.00073837 -0.0010417
0.0023353 0.00078808 0.0015803 -0.0017075 -0.00046476 -0.0016636 -0.049796 0.27868
0.020155 0.018677 -0.0018071 0.0008252
7.0649e-05 -0.0035154 -0.0020845 -0.002703 -0.0015386 -0.00091916 0.020161 0.018633
-0.086059 0.17679 0.013229 0.021231
-0.00010831 -0.0011906 -0.0013166 -0.0027888 -0.00070215 -0.001006 -0.0017728 0.00079963
0.013249 0.021262 -0.16849 0.24732
1100000000 0.034488 0.30532 0.035496 -0.004151 0.0026745 0.0039018 0.0022197 -0.0010339
-0.0018371 -0.0031793 -0.0042139 -0.0001084
0.035457 -0.0041271 -0.13098 0.37264 0.015199 -0.027658 5.5255e-05 -0.0018229
-0.0033792 -0.0010171 -0.0037694 -0.00066877
0.0026862 0.0038967 0.015113 -0.027749 0.20391 0.2754 -0.0019451 3.4554e-05
-0.0018326 0.00040113 -0.0012512 -0.00027181
0.0022378 -0.0010008 4.2306e-05 -0.0017804 -0.0019595 7.4602e-06 -0.0095076 0.28353
0.025564 0.0052994 -0.0029048 -0.00074312
-0.0018541 -0.0031386 -0.003349 -0.001022 -0.0018322 0.00039715 0.025619 0.005242
-0.069288 0.1906 0.019753 0.010142
-0.0041684 -5.2556e-05 -0.0037625 -0.00056345 -0.0012036 -0.00028383 -0.0028734 -0.00071303
0.019744 0.010149 -0.12327 0.28564
1160000000 0.085864 0.30051 0.023677 -0.020657 0.0025792 -0.00041191 -0.0002535 -0.002139
-0.0040264 -0.00088005 -0.00098802 0.0042012
0.023653 -0.020641 -0.087532 0.37695 -0.003593 -0.029087 -0.001588 -0.0017653
-0.0029329 0.0023118 -0.0014959 0.0018732
0.0025799 -0.00041312 -0.0037295 -0.029093 0.24699 0.2447 -0.00086113 0.001797
-0.00065881 0.002026 -0.00094287 0.00029899
-0.00028383 -0.0021212 -0.0015878 -0.0017703 -0.00087899 0.0017973 0.029705 0.28056
0.022327 -0.011029 -0.0038425 0.0052756
-0.0040613 -0.00086329 -0.0028982 0.0023098 -0.00069659 0.0020465 0.022326 -0.011056
-0.035454 0.20014 0.01928 0.0020025
-0.00096091 0.0042582 -0.0015134 0.0018918 -0.0009743 0.00024305 -0.0038619 0.0052858
0.019292 0.0019992 -0.075256 0.28989
1220000000 0.13002 0.2896 0.010314 -0.029811 -0.0016554 -0.00066124 0.00020727 -0.00077537
-0.0026735 0.0022773 0.0011562 0.0020738
0.010315 -0.029772 -0.043356 0.38931 -0.016767 -0.021213 -0.0025855 0.00036966
-0.00013472 0.0031453 -0.0010185 0.0019058
-0.0016763 -0.0006651 -0.016878 -0.02115 0.2861 0.2058 0.00072003 0.001896
0.00064729 0.0013896 0.00049881 0.00070147
0.00022714 -0.00076935 -0.0025606 0.00035657 0.00072413 0.0018899 0.069393 0.27215
0.011431 -0.017998 0.0016178 0.001197
-0.002643 0.0022978 -0.000123 0.0031491 0.00066139 0.0013766 0.011401 -0.018019
-0.014434 0.21001 0.015679 -0.012574
0.0012146 0.0020309 -0.00093216 0.0018677 0.0005194 0.00071662 0.0016137 0.0011801
0.01568 -0.012571 -0.046894 0.31401
1280000000 0.17979 0.26801 -0.0079109 -0.028204 -0.0018093 0.0026486 -0.00080607 -0.0020911
-0.00091689 0.0029772 0.0024971 0.0015327
-0.0078761 -0.028173 0.0023827 0.38077 -0.023724 -0.0086759 -0.0011436 0.0013672
0.0017392 0.0020269 0.00060146 0.0022357
-0.0017972 0.002652 -0.023792 -0.0085635 0.31668 0.1621 0.0017157 0.00014385
0.001216 0.00027038 0.00052786 0.00023611
-0.00080792 -0.0020652 -0.0011335 0.0013778 0.0017054 0.0001519 0.10629 0.25552
0.0016338 -0.02047 -0.00073742 0.00034184
-0.00091622 0.0030374 0.0017344 0.0020419 0.0012163 0.00027216 0.0015861 -0.020488
0.021706 0.2147 0.0039452 -0.015081
0.0025744 0.0015011 0.0006489 0.0022322 0.0005294 0.00023365 -0.00075078 0.0003375
0.0039779 -0.015084 0.0040943 0.32053
1340000000 0.21692 0.23443 -0.017514 -0.018695 0.0010008 0.0045935 -0.0016731 -0.00093048
0.0014044 0.0027365 0.0019917 -0.0012885
-0.017489 -0.018694 0.042073 0.37291 -0.021733 0.0041273 -0.00027086 0.0021077
0.002074 0.00094147 0.0013452 0.00084985
0.0010331 0.0045983 -0.021733 0.0042442 0.33887 0.11421 0.00144 -0.00094551
0.00085119 -0.00064409 0.00015318 0.00035112
-0.0016713 -0.0009363 -0.00026106 0.0020911 0.0014391 -0.00095645 0.13834 0.23495
-0.0085677 -0.017969 0.00067115 0.00083393
0.0014356 0.0027394 0.0021011 0.00094774 0.0008451 -0.00060792 -0.0086263 -0.017963
0.050477 0.21113 -0.0026514 -0.014142
0.0019598 -0.0013327 0.001358 0.00083185 0.00019608 0.00031319 0.00066791 0.00082089
-0.00261 -0.014156 0.043256 0.32086
1400000000 0.25003 0.19668 -0.02312 -0.007272 0.0053675 0.0031049 -0.00217 0.00048179
0.0023377 0.0010396 0.00058608 -0.0013801
-0.023103 -0.0072757 0.079487 0.3602 -0.014988 0.012434 0.0013852 0.001472
0.0013401 -0.00083655 0.0013668 0.00031064
0.0053699 0.0030924 -0.014946 0.012522 0.35201 0.060685 0.00023618 -0.0018793
2.8707e-05 -0.00049641 0.00034339 0.00019026
-0.00215 0.00049415 0.0014163 0.0014647 0.00023783 -0.0018952 0.16715 0.20607
-0.015108 -0.011261 -0.0010918 -0.00012991
0.0023167 0.0010309 0.0013183 -0.0008219 2.4773e-05 -0.0005059 -0.015144 -0.011235
0.083061 0.20849 -0.0093535 -0.0095608
0.00059621 -0.0014225 0.0014153 0.00029018 0.00036875 0.00018317 -0.001119 -0.00011133
-0.0093523 -0.0095571 0.091483 0.31362
1460000000 0.27309 0.1527 -0.020131 0.0047782 0.0057517 -0.0018634 -0.00172 0.0017764
0.0020847 -0.00029026 -0.000199 -0.0011649
-0.020111 0.0047632 0.11408 0.33847 -0.0062583 0.015434 0.0018397 0.00026137
0.00092385 -0.0014207 0.001265 -0.00070608
0.005747 -0.0018727 -0.0061795 0.015485 0.35811 0.0063661 -0.0013791 -0.0015148
0.00010704 -0.00027777 0.00059754 -0.00042341
-0.001703 0.0017855 0.0018536 0.00025797 -0.0013534 -0.0015338 0.19261 0.17708
-0.017125 -0.0042343 -0.00088422 0.0027885
0.0020821 -0.00027617 0.00093102 -0.0014285 9.0137e-05 -0.00028353 -0.017161 -0.0042131
0.11171 0.19506 -0.011651 -0.0033549
-0.00019237 -0.0011647 0.0012615 -0.00069251 0.00063203 -0.00046211 -0.00086068 0.0027908
-0.01163 -0.0033443 0.12623 0.29479
1520000000 0.28538 0.11094 -0.014495 0.010168 0.0034293 -0.0042671 4.625e-05 0.0027244
0.0023198 -0.0016199 -0.0011988 -0.00032612
-0.014491 0.010146 0.14794 0.32369 0.0015496 0.013282 0.0018252 -0.0008031
1.6627e-05 -0.0011263 0.00037856 -0.0010065
0.0034173 -0.0043071 0.0016264 0.013271 0.35146 -0.049798 -0.0014093 -0.0003882
0.00066016 -0.00068422 0.00011877 -0.00018885
6.6395e-05 0.0027008 0.0018129 -0.00079475 -0.001414 -0.0003963 0.21488 0.14012
-0.016846 0.0024426 0.001809 0.00246
0.0022911 -0.0016105 5.3661e-06 -0.0011267 0.00064825 -0.00069493 -0.01686 0.0024725
0.13949 0.18263 -0.012112 0.00089722
-0.0011807 -0.0003223 0.00037794 -0.0010128 0.00014564 -0.00016196 0.0018167 0.0024579
-0.012114 0.0008926 0.16275 0.2788
1580000000 0.29492 0.064687 -0.0079446 0.013199 -0.00094315 -0.0050438 0.0015053 0.0020686
-2.0662e-05 -0.0021614 -0.00036206 0.00038826
-0.0079559 0.013175 0.17547 0.29879 0.0052617 0.0084107 0.00051857 -0.0017604
-0.00061887 -0.0010815 -0.00020434 -0.00082733
-0.00096782 -0.0050536 0.0053264 0.0083917 0.33123 -0.10726 -0.0018612 0.00092192
-0.00030371 -0.0011179 0.00012641 -0.00063332
0.0015218 0.0020504 0.00049791 -0.0017661 -0.0018375 0.00090951 0.22815 0.10235
-0.013267 0.0082087 0.0027255 0.0010367
-1.9228e-05 -0.0021807 -0.00063185 -0.0010726 -0.00033207 -0.0011268 -0.013258 0.0082429
0.16414 0.16614 -0.0097156 0.0071554
-0.00038832 0.0004119 -0.00023268 -0.00083708 0.0001385 -0.00059215 0.002739 0.0010214
-0.0097186 0.0071649 0.19893 0.25337
1640000000 0.29713 0.023213 -0.0013226 0.012133 -0.0027923 -0.0026365 0.0028764 0.0010149
-0.00043616 -0.0017703 -0.00036654 0.00059598
-0.0013288 0.012114 0.20524 0.27361 0.0060952 0.0035528 -0.00072979 -0.0018993
-0.0010239 -0.00037909 -0.00043893 -0.00085287
-0.0028105 -0.0026429 0.0061271 0.003501 0.30344 -0.15683 -0.00053613 0.0017461
-0.0010205 -0.0012212 -0.0001107 -0.00046295
0.0028703 0.00098751 -0.00075711 -0.0019062 -0.00053745 0.0017483 0.24047 0.055344
-0.0085874 0.010233 0.0030601 -0.00090051
-0.00043272 -0.001752 -0.0010286 -0.00037843 -0.0010342 -0.0012484 -0.008576 0.010267
0.18682 0.1429 -0.0048767 0.0094774
-0.00038043 0.00052511 -0.00044292 -0.00086474 -0.00010731 -0.00045647 0.003052 -0.00089798
-0.0048921 0.0094828 0.22695 0.22401
1700000000 0.2897 -0.022331 0.0020282 0.0093275 -0.0035976 0.00012812 0.0031548 -0.0014192
-0.002052 -0.00097484 0.00063919 0.00042484
0.0020172 0.0093276 0.22336 0.24179 0.0040246 0.00061549 -0.0016016 -0.00062739
-0.0007764 0.00011225 -0.00093665 -0.00057472
-0.0036023 0.00014595 0.0040306 0.00060862 0.25935 -0.19667 0.00077015 0.0016722
-0.0021053 -0.00026003 -0.00038731 -0.00085081
0.0031238 -0.0014699 -0.0016147 -0.00062991 0.00075265 0.0016698 0.23829 0.0076771
-0.0050055 0.01146 0.001887 -0.0025003
-0.0020712 -0.00099171 -0.00077979 0.00010595 -0.0021132 -0.00027939 -0.0049936 0.011475
0.20437 0.12388 1.611e-05 0.0099742
0.00062663 0.00042524 -0.00094542 -0.00057067 -0.00040053 -0.00086526 0.001913 -0.0025015
2.5515e-05 0.0099693 0.24676 0.18972
1760000000 0.27736 -0.070959 0.0042669 0.0060689 -0.0023886 0.0010158 0.0011924 -0.0036358
-0.0015508 0.00058125 0.00041453 -0.00065795
0.0042765 0.0060646 0.24932 0.20168 0.0017212 -0.0013065 -0.0012799 0.00022865
-0.00094188 0.00093244 -0.00066108 0.00031936
-0.0023955 0.0010242 0.0017222 -0.0013076 0.21047 -0.23002 0.0013357 0.00083275
-0.0012879 0.0014237 -0.0014608 -0.00059339
0.0011694 -0.0036425 -0.0012848 0.00025231 0.0013507 0.00083933 0.23123 -0.04197
-0.00065782 0.010637 -0.00011173 -0.0028985
-0.0015309 0.00058409 -0.00093924 0.00095722 -0.001279 0.001407 -0.00063456 0.010627
0.21963 0.090015 0.0042924 0.00732
0.00042642 -0.0006619 -0.00065029 0.00032529 -0.0014313 -0.00054084 -0.00012385 -0.002908
0.0042893 0.0073349 0.26131 0.15292
1820000000 0.25247 -0.10822 0.0044125 0.002533 -0.00011367 0.0024757 -0.0012215 -0.003131
-0.0013896 0.00097618 -8.7523e-05 -2.1251e-05
0.0044162 0.0025205 0.25915 0.17126 -0.00038879 -0.00021802 -0.0013378 0.0010737
4.6534e-05 0.001244 -0.00069292 0.00055972
-0.00010987 0.0025027 -0.00038411 -0.00021492 0.16025 -0.2456 0.0013207 0.00015877
-0.00027989 0.0024998 -0.0014127 0.0003627
-0.0012467 -0.0031349 -0.0013321 0.0010937 0.0013366 0.00013122 0.20393 -0.088724
0.0017473 0.008734 -0.0018424 -0.0019214
-0.0013942 0.00098012 6.2255e-05 0.0012353 -0.00023072 0.002479 0.0017727 0.0087242
0.23751 0.062161 0.0052262 0.0035934
-4.7476e-05 2.4188e-08 -0.0006847 0.00057437 -0.0014045 0.00029142 -0.0018554 -0.0019018
0.0052164 0.0035945 0.2669 0.11774
1880000000 0.21715 -0.14837 0.002201 0.00032248 -0.00040962 0.0021361 -0.0031356 -0.0020686
-0.00029652 0.002004 0.00016165 -0.0005795
0.0022028 0.00031196 0.26321 0.12458 -0.0024501 0.0016479 -0.00014244 0.0016752
0.00050079 0.0010771 5.4031e-05 0.0010656
-0.00037021 0.0021822 -0.0024163 0.0016668 0.10797 -0.25462 0.0014847 -0.0007969
0.0014883 0.0020928 -0.0010755 0.0014357
-0.0031001 -0.0021089 -0.00012189 0.0016926 0.0015063 -0.00081256 0.16614 -0.12975
0.003159 0.005999 -0.0026304 0.00030048
-0.00029186 0.0020235 0.00050064 0.0010855 0.0014989 0.0020967 0.0031866 0.0059844
0.24125 0.030645 0.0056191 0.0012851
0.00013767 -0.00058512 2.8069e-05 0.0010679 -0.001063 0.0014342 -0.0026777 0.00031162
0.0055981 0.0012898 0.26891 0.082881
1940000000 0.17768 -0.17416 -0.00011432 -0.0013772 0.0012392 0.0020347 -0.0036537 0.00074745
0.0014956 0.001254 -0.00073185 -0.00054078
-0.00010113 -0.0013537 0.2635 0.092612 -0.0011962 0.0038044 0.00098795 0.001289
0.0016719 0.00046334 0.00084088 0.00036483
0.0012782 0.0020549 -0.0011554 0.0038395 0.062327 -0.24822 0.00030746 -0.0017943
0.0024158 0.00057597 0.00035334 0.0017168
-0.0036309 0.00079136 0.00099844 0.0013007 0.0003316 -0.0017692 0.11542 -0.1626
0.0025229 0.0036145 -0.001721 0.0015769
0.0014745 0.0012785 0.0016802 0.00045794 0.0024472 0.00053978 0.0025349 0.003608
0.24457 -0.0076447 0.0041883 -0.0024976
-0.00075849 -0.00053048 0.00085106 0.00035733 0.00035489 0.0017561 -0.001692 0.0016181
0.0041758 -0.0024844 0.26004 0.047548
2000000000 0.13109 -0.18853 -0.0039467 0.0008277 0.0025151 0.0017563 -0.0022483 0.0035508
0.0012391 0.00016888 -0.00057286 0.00046841
-0.0039475 0.00081243 0.24883 0.057211 -0.0010522 0.0056954 0.0015266 0.00047608
0.0011726 -0.0012457 0.00057558 0.00026586
0.0025284 0.00177 -0.0010181 0.0056996 0.018925 -0.23364 -0.0011089 -0.0012085
0.0020362 -0.0012151 0.0016761 0.0015769
-0.0022449 0.003567 0.0015409 0.00047872 -0.0010929 -0.0012377 0.06195 -0.17491
0.00066018 0.002456 -0.00017464 0.0020549
0.0012291 0.00015322 0.0011655 -0.0012196 0.0020507 -0.0012518 0.0006999 0.0024921
0.23992 -0.041574 0.00087013 -0.0035265
