!Keysight Technologies,M9804A,MY58100912,A.14.10.03
!Date: Thursday, April 27, 2023 10:28:33
!Correction: S11(C  6-Port  ) 
!S12(C  6-Port  ) 
!S13(C  6-Port  ) 
!S14(C  6-Port  ) 
!S15(C  6-Port  ) 
!S16(C  6-Port  ) 
!S21(C  6-Port  ) 
!S22(C  6-Port  ) 
!S23(C  6-Port  ) 
!S24(C  6-Port  ) 
!S25(C  6-Port  ) 
!S26(C  6-Port  ) 
!S31(C  6-Port  ) 
!S32(C  6-Port  ) 
!S33(C  6-Port  ) 
!S34(C  6-Port  ) 
!S35(C  6-Port  ) 
!S36(C  6-Port  ) 
!S41(C  6-Port  ) 
!S42(C  6-Port  ) 
!S43(C  6-Port  ) 
!S44(C  6-Port  ) 
!S45(C  6-Port  ) 
!S46(C  6-Port  ) 
!S51(C  6-Port  ) 
!S52(C  6-Port  ) 
!S53(C  6-Port  ) 
!S54(C  6-Port  ) 
!S55(C  6-Port  ) 
!S56(C  6-Port  ) 
!S61(C  6-Port  ) 
!S62(C  6-Port  ) 
!S63(C  6-Port  ) 
!S64(C  6-Port  ) 
!S65(C  6-Port  ) 
!S66(C  6-Port  ) 
!S6P File: Measurement: :
# Hz S  RI   R 50
500000000 -0.3374 -0.04395 -0.010401 -0.002146 -0.0084767 0.013397 -0.0050737 0.012517
0.01294 0.0038131 -0.0053954 0.0089972
-0.010395 -0.0021475 -0.41935 -0.054662 0.0076482 -0.010828 0.0016391 0.01279
0.0066422 0.0020598 0.0013274 0.014492
-0.0084676 0.013444 0.0076596 -0.01085 -0.26716 0.20772 0.0072102 0.0038627
-0.0030375 0.0081132 0.00033094 0.012375
-0.0049926 0.012536 0.0017175 0.012831 0.0072071 0.0038654 -0.33426 0.035303
-0.021776 -0.0054621 0.018736 0.028032
0.013033 0.003875 0.0066317 0.0021367 -0.0030102 0.0082047 -0.021622 -0.0053515
-0.21485 -0.2123 -0.029534 0.0067527
-0.0051547 0.0091525 0.0013498 0.01461 0.00054004 0.012665 0.017826 0.027447
-0.029462 0.0065032 -0.24776 -0.18455
560000000 -0.31806 0.12006 -0.023939 -0.063647 6.3634e-05 0.012578 0.0055729 0.011192
0.010619 0.0049356 0.010681 0.0091959
-0.023876 -0.063628 -0.37707 0.10583 -0.041538 -0.037388 0.013745 0.0038037
-0.014056 -0.0048336 0.0038327 -0.00075257
0.00014675 0.012471 -0.041736 -0.037372 -0.18414 0.25809 3.6086e-05 -0.0039567
0.019601 0.0060038 0.0069347 -0.0059007
0.0055687 0.011171 0.01378 0.0037596 3.4994e-05 -0.0039488 -0.31113 0.12982
0.0036715 -0.02335 0.004652 -0.023553
0.010306 0.0047067 -0.013937 -0.0049762 0.019727 0.0059331 0.003756 -0.023291
-0.28834 -0.03517 0.010137 -0.052127
0.011489 0.0092209 0.0035856 -0.00073903 0.007232 -0.00586 0.0047324 -0.023367
0.0097909 -0.052149 -0.33131 -0.023958
620000000 -0.27671 0.10325 -0.023134 0.0086024 0.0032458 0.0087519 0.0081407 -0.0044935
0.011717 0.00081596 0.00072822 -0.0020889
-0.023112 0.0085799 -0.40332 0.057492 -0.018293 0.0003652 -0.0012895 -0.0019516
0.011553 -0.0056867 0.0010392 -0.0028586
0.0032658 0.0087409 -0.01831 0.00042131 -0.15417 0.26643 -0.00050357 -0.0054385
-0.0028571 -0.0024798 0.0090673 -0.0034231
0.0080903 -0.0045198 -0.0013016 -0.001948 -0.00050405 -0.0054419 -0.27006 0.14041
-0.040095 -0.019379 0.013368 0.028562
0.011808 0.00056094 0.011529 -0.0056685 -0.0028981 -0.0025217 -0.040262 -0.019361
-0.20522 -0.073207 -0.045599 0.016652
0.00054253 -0.0016919 0.00107 -0.0030073 0.0091865 -0.0035345 0.013473 0.02829
-0.04582 0.016442 -0.24593 -0.07234
680000000 -0.23629 0.19086 -0.026814 -0.013776 0.0052381 0.0051654 0.0019392 -0.0071155
-0.0028366 -0.011002 0.0063535 -0.0071217
-0.026786 -0.013778 -0.38879 0.15687 -0.03249 -0.0013382 -0.0013615 -0.00028637
-0.0015708 -0.0093767 -0.00078777 -0.0019254
0.0052764 0.0051326 -0.032508 -0.001258 -0.10218 0.28642 -0.00081896 -0.00072695
-0.0013957 0.00031717 -0.0024996 -0.0095461
0.0019593 -0.0071156 -0.0013462 -0.00028106 -0.00082826 -0.00072759 -0.22395 0.19345
-0.024324 -0.0061917 -0.010701 -0.013392
-0.0027062 -0.011014 -0.0016625 -0.009337 -0.0013725 0.00038371 -0.024253 -0.0060728
-0.26269 0.028413 -0.0048424 -0.0076591
0.0063683 -0.0073272 -0.00076401 -0.0018895 -0.0023901 -0.0094895 -0.011005 -0.013366
-0.0049508 -0.0075071 -0.26829 0.04665
740000000 -0.19219 0.18543 -0.039367 0.027109 0.012984 -0.0052971 1.3509e-05 -0.0046623
-0.0041826 -0.0026447 -0.0061695 0.0021434
-0.039351 0.027071 -0.33491 0.17553 -0.035114 0.035075 -0.00062074 -0.0064042
-0.011874 0.0066007 -0.0017862 -0.0071774
0.012987 -0.0053411 -0.035066 0.0352 -0.068171 0.28402 -0.0022335 0.0030045
-0.0022998 -0.0052283 -0.0011006 0.00010763
2.3162e-05 -0.004693 -0.00067651 -0.0064064 -0.0022277 0.0029953 -0.20672 0.20172
-0.044428 -0.0066345 0.025548 0.017419
-0.0042309 -0.0026678 -0.011954 0.0067928 -0.0022517 -0.005243 -0.044596 -0.0066136
-0.16001 0.056377 -0.046316 -0.0010771
-0.0063358 0.0022059 -0.0018023 -0.0070664 -0.0011294 0.00011889 0.025819 0.017317
-0.04669 -0.00078768 -0.26132 0.049921
800000000 -0.15875 0.22701 -0.021932 0.016831 0.005446 -0.010592 -0.0046558 -0.0021373
-0.0039802 0.0022037 0.0045178 2.6142e-05
-0.021927 0.016795 -0.3384 0.24563 -0.0077735 0.033821 -0.0024893 0.0020685
-0.00092714 0.0028674 0.00085576 0.0052184
0.0054241 -0.01061 -0.0076704 0.033865 -0.02784 0.30688 0.0006641 0.0016089
2.9929e-05 0.003461 -0.0017814 0.00057685
-0.0046449 -0.0021499 -0.0024891 0.0020577 0.00066852 0.0016143 -0.17749 0.23089
-0.028459 0.014693 0.015421 -0.01084
-0.0039535 0.002055 -0.00080465 0.0028006 7.3242e-05 0.0034559 -0.028484 0.014694
-0.2091 0.080765 -0.017845 0.019632
0.0043806 6.7305e-06 0.00084826 0.0051235 -0.0017792 0.00057152 0.015226 -0.01101
-0.017905 0.019958 -0.26405 0.10558
860000000 -0.12404 0.24664 -0.017287 0.030394 -0.0032662 -0.0099919 -0.0020647 0.00058211
0.0038401 0.005137 -0.0041364 -0.0036927
-0.01729 0.030352 -0.29042 0.28729 0.0077769 0.033952 -5.0707e-06 0.0019962
0.0040824 0.00031858 0.0032697 0.00052116
-0.0033006 -0.0099822 0.007886 0.033965 0.019829 0.31456 -0.00067454 -1.9548e-05
0.0027678 -0.0016045 0.0014979 0.0041657
-0.0020627 0.0005952 -1.3592e-05 0.0019698 -0.00067321 -1.789e-05 -0.13963 0.24126
-0.017206 0.018468 -0.0069455 -0.0090394
0.0038471 0.004918 0.0040568 0.00025039 0.0027547 -0.0016329 -0.017154 0.018454
-0.15629 0.13421 -0.028638 0.01557
-0.0039515 -0.0034089 0.0032077 0.0006425 0.0014927 0.004241 -0.0068301 -0.0089705
-0.028504 0.015659 -0.21013 0.15653
920000000 -0.099602 0.26905 0.0051225 0.037521 -0.0093708 -0.0046619 -0.0019563 0.0014677
0.00076146 0.0019605 0.0026866 -0.0017301
0.0050777 0.037469 -0.26216 0.30836 0.027768 0.021849 0.0013724 0.0011448
0.0070222 0.00034603 0.0040999 -0.0028602
-0.0093791 -0.0046254 0.027872 0.021767 0.065546 0.31526 0.0019019 8.0344e-05
0.0011769 -0.00017626 0.00053982 -0.001396
-0.0019561 0.0014713 0.00137 0.0011318 0.0018989 9.2671e-05 -0.11567 0.25796
-0.010812 0.031269 0.004944 -0.0069823
0.0008307 0.0020093 0.0069548 0.00028162 0.0011523 -0.00016207 -0.010689 0.031359
-0.14818 0.14025 -0.0026517 0.028621
0.0026713 -0.001757 0.004121 -0.0029288 0.00055967 -0.0013672 0.0049542 -0.007025
-0.0029581 0.028483 -0.22922 0.17134
980000000 -0.052279 0.28886 0.0172 0.029757 -0.0091843 0.0043859 0.0019012 0.0033102
0.0037751 -0.0012687 -0.003402 -0.0024883
0.017164 0.029711 -0.20955 0.34244 0.032786 0.0049488 0.0021717 0.00011929
0.001778 -0.0057805 -0.00022228 -0.0024352
-0.0091646 0.0044173 0.032852 0.0048347 0.11172 0.30898 0.00064409 -0.0012108
0.00043423 -0.0020953 0.0013789 -0.00022262
0.0019016 0.0033103 0.0021748 9.0019e-05 0.00063997 -0.0012121 -0.076842 0.26883
0.0084199 0.03079 -0.0097073 -0.008055
0.0037585 -0.0012414 0.0017318 -0.0057556 0.00043733 -0.0020861 0.0084809 0.03078
-0.1182 0.16896 0.0042552 0.020403
-0.0033349 -0.0024382 -8.5866e-05 -0.0024157 0.0013658 -0.00022109 -0.0096787 -0.0080308
0.0043464 0.020457 -0.18596 0.22406
1040000000 -0.010581 0.29719 0.032809 0.018114 -0.0014466 0.00683 0.0023245 0.00079665
5.8826e-05 -0.0034429 -0.00012493 -0.001344
0.032746 0.018099 -0.17412 0.3554 0.029242 -0.014582 0.0016177 -0.0016897
-0.002046 -0.0026935 -0.001368 -0.0027911
-0.001427 0.0068487 0.029229 -0.01472 0.15766 0.29541 -0.00046168 -0.0016883
-0.0015378 -0.00090445 -0.00075318 -0.0010461
0.0023319 0.00080041 0.0016037 -0.0017201 -0.00046746 -0.001684 -0.049817 0.27862
0.020145 0.018621 -0.0018635 0.00075354
4.0929e-05 -0.0035068 -0.002141 -0.0027074 -0.0015551 -0.0009125 0.020132 0.018547
-0.085826 0.17671 0.013321 0.021325
-2.7377e-05 -0.0012592 -0.0013382 -0.0027075 -0.00071251 -0.0010036 -0.0018125 0.00078074
0.013392 0.021187 -0.16884 0.24711
1100000000 0.034534 0.30529 0.035505 -0.0041864 0.0026696 0.0039132 0.002251 -0.0010493
-0.0017946 -0.0031712 -0.0041444 -0.00010403
0.035456 -0.004168 -0.13096 0.37259 0.01519 -0.02766 6.1604e-05 -0.0018127
-0.0033417 -0.0010332 -0.0037333 -0.00064016
0.002678 0.0039009 0.0151 -0.027762 0.20391 0.27538 -0.0019569 5.6212e-05
-0.0018335 0.00039077 -0.0012222 -0.00024702
0.002249 -0.0010576 4.9674e-05 -0.0018152 -0.0019643 4.6745e-05 -0.009561 0.28356
0.025603 0.0053061 -0.0028755 -0.00085141
-0.0018147 -0.003157 -0.0033361 -0.00099485 -0.0018284 0.00038598 0.025594 0.0052794
-0.069252 0.1906 0.019878 0.01021
-0.0041564 -9.125e-05 -0.0037017 -0.00064047 -0.0012466 -0.00024596 -0.0029643 -0.00073221
0.019905 0.010117 -0.12344 0.28564
1160000000 0.085839 0.30053 0.023653 -0.020623 0.0025927 -0.00039728 -0.00026691 -0.0021382
-0.0040664 -0.00089539 -0.00094414 0.004285
0.02363 -0.020607 -0.087537 0.37694 -0.0036221 -0.029066 -0.0016063 -0.0017509
-0.002943 0.0023615 -0.0015858 0.0019049
0.0025801 -0.00041176 -0.0037261 -0.029086 0.24702 0.24471 -0.00087268 0.0018051
-0.00069524 0.0020478 -0.00093174 0.00031325
-0.00027487 -0.0021158 -0.0016201 -0.0017596 -0.00086702 0.0018036 0.029714 0.28059
0.022268 -0.010977 -0.0039006 0.0052367
-0.0040504 -0.00087258 -0.0029642 0.0023634 -0.00069481 0.0020159 0.022244 -0.011018
-0.035547 0.2001 0.019313 0.0020273
-0.0010234 0.0042552 -0.0015412 0.001936 -0.00098773 0.0003189 -0.0038914 0.0052955
0.019143 0.0019963 -0.075522 0.28974
1220000000 0.13004 0.28958 0.010309 -0.029818 -0.0016725 -0.00067187 0.00021969 -0.00075562
-0.0026561 0.0022987 0.0011522 0.002082
0.010306 -0.029793 -0.043331 0.38925 -0.016792 -0.021226 -0.0025694 0.00036903
-0.00014116 0.0031656 -0.0010166 0.0018957
-0.0016807 -0.00067114 -0.0169 -0.021177 0.28613 0.20579 0.00071909 0.0019035
0.00063842 0.0013921 0.000492 0.00073537
0.00022359 -0.00074528 -0.0025702 0.00037317 0.00071543 0.0019049 0.069416 0.27216
0.011382 -0.018011 0.0015459 0.0012107
-0.0026595 0.0023131 -0.00013716 0.0031631 0.00063922 0.0013879 0.011385 -0.018064
-0.014298 0.2099 0.015645 -0.012568
0.0011773 0.0020438 -0.00097828 0.0018511 0.00051581 0.00071677 0.0015866 0.0012401
0.015523 -0.012646 -0.047314 0.31415
1280000000 0.17979 0.268 -0.0079052 -0.028191 -0.0018165 0.0026412 -0.00083606 -0.0020712
-0.00091768 0.0029967 0.0025293 0.0015229
-0.0078873 -0.028164 0.0023661 0.38077 -0.023752 -0.008676 -0.0011472 0.0013895
0.0017844 0.0020363 0.00060281 0.002216
-0.0018061 0.0026492 -0.023817 -0.0085723 0.31665 0.1621 0.0017117 0.00016394
0.0012166 0.00028579 0.00050128 0.0002461
-0.00083646 -0.0020685 -0.0011317 0.0013953 0.0017138 0.00015977 0.10626 0.25553
0.0016002 -0.020479 -0.00080793 0.00036567
-0.00089373 0.0030292 0.0017759 0.0020191 0.0012371 0.00027222 0.001523 -0.020494
0.021724 0.21468 0.0039554 -0.015068
0.0025197 0.0014721 0.00059991 0.0022178 0.0004978 0.00022662 -0.00071147 0.00042456
0.0038634 -0.015082 0.0038831 0.32049
1340000000 0.21692 0.23442 -0.017509 -0.018701 0.0010069 0.0045984 -0.001678 -0.00095368
0.0013897 0.0027691 0.0019842 -0.0013338
-0.017484 -0.018694 0.042108 0.37286 -0.021736 0.0041293 -0.00026661 0.0021014
0.0020858 0.00096327 0.0013367 0.00084329
0.0010332 0.0045973 -0.021739 0.0042417 0.33888 0.11416 0.001425 -0.00094894
0.00083591 -0.00060809 0.00018724 0.00032003
-0.0016813 -0.00094875 -0.00026079 0.0021003 0.0014291 -0.00095088 0.13842 0.23497
-0.0085956 -0.018017 0.00069939 0.00086815
0.0014234 0.0027475 0.0021055 0.00093372 0.00085118 -0.00059746 -0.0086603 -0.018016
0.050434 0.21101 -0.0026711 -0.014195
0.0019331 -0.0013328 0.0013464 0.00086011 0.00020735 0.0002866 0.00077304 0.00095567
-0.0026048 -0.014138 0.042844 0.32096
1400000000 0.25002 0.19666 -0.02313 -0.0072584 0.005358 0.0031354 -0.002179 0.00046377
0.0023297 0.0010741 0.00057448 -0.0014339
-0.023096 -0.0072737 0.0795 0.36018 -0.014994 0.012451 0.0013986 0.001457
0.0013439 -0.00081612 0.0013756 0.00029357
0.0053806 0.0031005 -0.014949 0.012541 0.35196 0.060684 0.00025151 -0.0019066
4.7374e-05 -0.00051228 0.00036283 0.00016434
-0.0021831 0.0004703 0.0014097 0.0014589 0.00025041 -0.0019153 0.16719 0.20607
-0.0151 -0.011251 -0.001069 -0.0001421
0.0023345 0.0010265 0.0013443 -0.00081646 5.8594e-05 -0.00051409 -0.01517 -0.01122
0.083099 0.20843 -0.0094014 -0.0095497
0.00056104 -0.0014319 0.0013989 0.00026393 0.00035567 0.00013724 -0.0010348 -8.4161e-05
-0.0093666 -0.0096002 0.091211 0.31368
1460000000 0.27309 0.15266 -0.02012 0.0047886 0.0057738 -0.0018495 -0.001712 0.0017738
0.0020925 -0.00028289 -0.00021761 -0.0011835
-0.020098 0.0047759 0.11411 0.33848 -0.0062475 0.015438 0.001836 0.00024657
0.00091663 -0.0014118 0.0012763 -0.00072408
0.0057694 -0.0018818 -0.0061798 0.015485 0.3581 0.0063503 -0.0013768 -0.001531
9.524e-05 -0.00029342 0.00057419 -0.00043769
-0.0017031 0.0017843 0.0018346 0.00023869 -0.0013681 -0.0015391 0.19261 0.17711
-0.017125 -0.0042643 -0.00085567 0.0027929
0.0020841 -0.00026364 0.00090582 -0.0014115 9.4079e-05 -0.00028899 -0.017111 -0.0042082
0.11177 0.19514 -0.011615 -0.0033742
-0.00020462 -0.0012179 0.0012506 -0.00067929 0.0006051 -0.00047443 -0.00085373 0.0027879
-0.011623 -0.0034329 0.12603 0.29496
1520000000 0.28538 0.11093 -0.014488 0.01015 0.0034378 -0.0043032 3.1598e-05 0.0027128
0.0023112 -0.0016217 -0.0011675 -0.00030722
-0.014484 0.010139 0.14794 0.32367 0.0015417 0.013281 0.0018125 -0.00079471
3.3535e-06 -0.0011201 0.0004062 -0.00098934
0.003423 -0.0043198 0.0016185 0.013283 0.35148 -0.04983 -0.0014041 -0.00038018
0.00065021 -0.00071245 0.00010409 -0.00012108
4.4998e-05 0.0027047 0.0018158 -0.00080452 -0.0013975 -0.00038238 0.21491 0.1401
-0.016826 0.0024098 0.0018196 0.0024207
0.0022934 -0.0016354 -1.1705e-05 -0.0011399 0.00064196 -0.00073735 -0.01683 0.00246
0.13952 0.18256 -0.01211 0.00088702
-0.0011926 -0.0003077 0.00039876 -0.0010105 0.00012841 -0.00012608 0.001842 0.002441
-0.012144 0.00088626 0.16262 0.27883
1580000000 0.29491 0.064694 -0.0079465 0.013211 -0.0009261 -0.0050207 0.0015312 0.0020781
-2.9382e-05 -0.0021629 -0.00038814 0.00045364
-0.0079445 0.013199 0.17548 0.2988 0.0052761 0.0084435 0.00051844 -0.0017554
-0.00062735 -0.0010665 -0.00022743 -0.0008097
-0.00095531 -0.0050309 0.0053343 0.0084293 0.33125 -0.10728 -0.0018412 0.0009133
-0.00030999 -0.001113 0.00012527 -0.00059277
0.0015367 0.0020689 0.00050252 -0.0017586 -0.0018483 0.00090836 0.22815 0.10234
-0.013251 0.0082274 0.0027079 0.00097879
-1.4098e-05 -0.0021899 -0.00062914 -0.0010635 -0.0003118 -0.0010919 -0.013254 0.008276
0.16419 0.16612 -0.0096775 0.0072341
-0.00038684 0.00046505 -0.00024978 -0.00082895 0.0001181 -0.00062682 0.0027609 0.0010012
-0.0097126 0.0072527 0.19889 0.25332
1640000000 0.29713 0.023173 -0.0013227 0.012131 -0.0028117 -0.0026614 0.0028892 0.0010096
-0.00043916 -0.0017183 -0.00035869 0.00057589
-0.0013328 0.012128 0.20525 0.27359 0.0060854 0.0035428 -0.00074231 -0.0019102
-0.0010164 -0.00036502 -0.00043322 -0.00084332
-0.0028262 -0.0026449 0.0061287 0.0035113 0.30343 -0.15688 -0.00055322 0.0017334
-0.0010641 -0.0012362 -0.00014381 -0.00048751
0.0028909 0.00099507 -0.00075413 -0.0019079 -0.00054925 0.0017333 0.24044 0.055356
-0.0086026 0.010217 0.0030896 -0.00088236
-0.00043545 -0.0017452 -0.0010289 -0.00038153 -0.0010791 -0.0012385 -0.0086121 0.010265
0.18679 0.14287 -0.0048973 0.0095137
-0.0003826 0.00056259 -0.00045587 -0.00085795 -0.00012178 -0.00044041 0.003038 -0.00088366
-0.0049398 0.0094688 0.22692 0.22407
1700000000 0.28965 -0.022342 0.0020316 0.0093244 -0.0035778 0.00010278 0.0031349 -0.0014619
-0.0020726 -0.0010004 0.00066394 0.0004373
0.0020202 0.0093241 0.22336 0.24178 0.0040265 0.00060991 -0.001603 -0.00064067
-0.00075971 9.2289e-05 -0.00096768 -0.00059452
-0.0035799 0.00012758 0.0040379 0.00058941 0.25935 -0.19669 0.00079392 0.0016314
-0.0020883 -0.00026859 -0.00041099 -0.0009173
0.0031257 -0.0014724 -0.0016118 -0.00063941 0.00078805 0.0016386 0.23821 0.007711
-0.0050238 0.011451 0.001901 -0.0025336
-0.0020594 -0.00098076 -0.0007532 9.6762e-05 -0.0020574 -0.00028956 -0.0050363 0.011467
0.20445 0.12387 3.3508e-05 0.0099971
0.00067077 0.00042055 -0.00095204 -0.00056705 -0.00042088 -0.00085766 0.0018225 -0.0024886
-4.7656e-05 0.0099156 0.24662 0.18988
1760000000 0.27737 -0.070961 0.0042642 0.0060624 -0.002405 0.0010198 0.0011995 -0.0036426
-0.0015378 0.0005735 0.00040777 -0.0006778
0.0042556 0.0060666 0.24934 0.20166 0.0017307 -0.0013021 -0.0012868 0.00023033
-0.00095906 0.00094018 -0.00067306 0.0003308
-0.0023933 0.0010369 0.0017264 -0.0013031 0.21052 -0.23006 0.0013681 0.00083044
-0.0013086 0.0014069 -0.0014413 -0.00058498
0.0011832 -0.0036423 -0.0012864 0.00023692 0.0013721 0.00082436 0.23127 -0.041957
-0.00067446 0.010685 1.4293e-06 -0.002932
-0.0015062 0.00056753 -0.00093999 0.00093115 -0.0012954 0.001416 -0.00062696 0.010661
0.21959 0.090022 0.0042961 0.0073609
0.00037564 -0.0006893 -0.00067557 0.00032579 -0.0014713 -0.00058761 -2.6085e-05 -0.0029335
0.0043085 0.0073402 0.26141 0.15296
1820000000 0.25243 -0.10827 0.0044233 0.0025149 -0.00012519 0.0024888 -0.0012504 -0.0031395
-0.0013937 0.00098245 -8.8389e-05 -2.4926e-05
0.0044126 0.0025182 0.25916 0.17123 -0.00036659 -0.00022511 -0.0013432 0.0010604
5.2995e-05 0.0012271 -0.00068387 0.00056026
-0.00010867 0.0024958 -0.00037714 -0.00022182 0.16023 -0.24568 0.0013219 0.00011075
-0.00024581 0.0024736 -0.0013795 0.00034994
-0.0012701 -0.0031327 -0.0013364 0.001068 0.0013273 0.00010707 0.20396 -0.088713
0.0017224 0.0087154 -0.0018004 -0.0019295
-0.0013935 0.00098539 4.89e-05 0.0012328 -0.00024688 0.0024888 0.0017745 0.0087675
0.23746 0.062115 0.0052126 0.0036003
-8.3179e-05 -9.0616e-06 -0.00069013 0.00056568 -0.0014039 0.00036211 -0.0017882 -0.0019571
0.0052208 0.0036016 0.26689 0.11776
1880000000 0.21715 -0.14835 0.0022106 0.00030935 -0.0003543 0.0021603 -0.0031055 -0.0020984
-0.00027979 0.002007 0.00016403 -0.00058371
0.0022008 0.00031296 0.26324 0.12456 -0.0024309 0.0016327 -0.00012402 0.001682
0.00051863 0.0010795 1.4599e-05 0.0010457
-0.00034417 0.0021732 -0.0024126 0.0016507 0.10795 -0.25468 0.0015158 -0.00082846
0.0015318 0.0020657 -0.0011049 0.0014025
-0.0031167 -0.0020866 -0.00011827 0.0016895 0.0015212 -0.00082419 0.1662 -0.12986
0.0031612 0.0060119 -0.0026419 0.00029959
-0.00026055 0.0020141 0.00050193 0.0010871 0.001521 0.0021048 0.0031982 0.0059811
0.24122 0.030623 0.0055631 0.0013691
0.00012267 -0.00058255 1.9799e-05 0.0010615 -0.0010691 0.0014053 -0.0026461 0.00029776
0.0055793 0.0012891 0.26896 0.082955
1940000000 0.17764 -0.17418 -0.00011259 -0.0013617 0.0012685 0.0020203 -0.0036336 0.0007543
0.0014769 0.0012418 -0.00074001 -0.00050035
-0.00010816 -0.0013634 0.26353 0.092589 -0.0011736 0.003836 0.00098107 0.0012869
0.0016536 0.00045798 0.00083892 0.00037183
0.0012828 0.0020128 -0.0011426 0.003845 0.062307 -0.24818 0.00036978 -0.0018185
0.0024299 0.00051819 0.00033707 0.0016791
-0.003636 0.00076595 0.0009872 0.0012895 0.00037582 -0.0018221 0.11535 -0.16256
0.0025037 0.0036276 -0.0017324 0.0015682
0.0015123 0.0012678 0.0016719 0.00045074 0.002446 0.00055841 0.0024902 0.0036321
0.2446 -0.0076171 0.0041555 -0.0024902
-0.00073316 -0.00056498 0.00085454 0.00036115 0.00037263 0.0017267 -0.0017121 0.0016072
0.0041801 -0.0025258 0.26 0.047672
2000000000 0.13108 -0.18848 -0.0039698 0.00081372 0.0025225 0.0018154 -0.0022252 0.0035487
0.0012229 0.00013279 -0.00057945 0.00042463
-0.0039557 0.00080969 0.24884 0.057159 -0.0010504 0.0056759 0.0015232 0.00045382
0.001153 -0.0012408 0.00056292 0.00024807
0.0025331 0.0017886 -0.0010163 0.0056926 0.01884 -0.23366 -0.0010993 -0.0012488
0.0020491 -0.0012279 0.0017185 0.0015071
-0.0022116 0.0035609 0.0015229 0.00044568 -0.0011064 -0.0012466 0.061983 -0.17489
0.00064076 0.0025172 -8.3605e-05 0.0021419
0.0012591 0.0001698 0.0011845 -0.0012613 0.002067 -0.0012768 0.00062399 0.0025165
0.23991 -0.041544 0.0008437 -0.0034521
