!Keysight Technologies,M9804A,MY58100912,A.14.10.03
!Date: Thursday, April 27, 2023 10:28:33
!Correction: S11(C  6-Port  ) 
!S12(C  6-Port  ) 
!S13(C  6-Port  ) 
!S14(C  6-Port  ) 
!S15(C  6-Port  ) 
!S16(C  6-Port  ) 
!S21(C  6-Port  ) 
!S22(C  6-Port  ) 
!S23(C  6-Port  ) 
!S24(C  6-Port  ) 
!S25(C  6-Port  ) 
!S26(C  6-Port  ) 
!S31(C  6-Port  ) 
!S32(C  6-Port  ) 
!S33(C  6-Port  ) 
!S34(C  6-Port  ) 
!S35(C  6-Port  ) 
!S36(C  6-Port  ) 
!S41(C  6-Port  ) 
!S42(C  6-Port  ) 
!S43(C  6-Port  ) 
!S44(C  6-Port  ) 
!S45(C  6-Port  ) 
!S46(C  6-Port  ) 
!S51(C  6-Port  ) 
!S52(C  6-Port  ) 
!S53(C  6-Port  ) 
!S54(C  6-Port  ) 
!S55(C  6-Port  ) 
!S56(C  6-Port  ) 
!S61(C  6-Port  ) 
!S62(C  6-Port  ) 
!S63(C  6-Port  ) 
!S64(C  6-Port  ) 
!S65(C  6-Port  ) 
!S66(C  6-Port  ) 
!S6P File: Measurement: :
# Hz S  RI   R 50
500000000 -0.33714 -0.044116 -0.010192 -0.0024297 -0.0088611 0.013469 -0.0037454 0.011613
0.013304 0.004326 -0.0041547 0.0076279
-0.010171 -0.0024157 -0.41908 -0.05547 0.0074175 -0.011048 0.0020459 0.012131
0.0065385 0.0022582 0.001208 0.013841
-0.0088098 0.013501 0.0074242 -0.011062 -0.26717 0.20759 0.0070837 0.0034047
-0.0031386 0.008506 0.00034795 0.012353
-0.0037836 0.011677 0.0020646 0.012164 0.0071262 0.0033742 -0.33338 0.035846
-0.021889 -0.0064161 0.01817 0.027695
0.013484 0.0042815 0.0065881 0.0020151 -0.0032676 0.008427 -0.021862 -0.0064144
-0.21515 -0.21219 -0.029766 0.0058126
-0.0043122 0.0077673 0.001234 0.013979 0.00031533 0.01234 0.018286 0.027639
-0.029792 0.0058289 -0.24791 -0.18828
560000000 -0.31903 0.12074 -0.023687 -0.063107 4.2525e-05 0.012659 0.0055577 0.011394
0.0099889 0.0057516 0.011186 0.010174
-0.023657 -0.062993 -0.37549 0.10614 -0.041752 -0.037339 0.014208 0.0039154
-0.014112 -0.0038512 0.0045519 -0.00059194
5.2328e-05 0.012716 -0.04189 -0.037243 -0.18393 0.25779 0.00054811 -0.003755
0.019684 0.0058953 0.0071696 -0.0063146
0.0055594 0.01128 0.014203 0.0039465 0.00053116 -0.0037365 -0.3107 0.1306
0.0035822 -0.023037 0.0049849 -0.022739
0.0098672 0.0058782 -0.014146 -0.0041578 0.019726 0.0060086 0.003616 -0.023061
-0.28753 -0.036369 0.0091074 -0.050233
0.011122 0.010045 0.0047197 -0.00040308 0.007103 -0.0062265 0.0048985 -0.022738
0.0091038 -0.05012 -0.33032 -0.024926
620000000 -0.27683 0.10247 -0.023037 0.0084759 0.0035103 0.0085661 0.0086505 -0.0054918
0.010559 0.00011895 0.0011486 -0.0026436
-0.023039 0.0084742 -0.40319 0.057188 -0.01822 0.00019671 -0.0011012 -0.0021236
0.011422 -0.0056068 0.0010705 -0.003329
0.003458 0.0085662 -0.018249 0.00025679 -0.15415 0.26615 -0.00049751 -0.0056601
-0.0032648 -0.0024196 0.0090451 -0.0035291
0.0086991 -0.0055204 -0.0010908 -0.0021072 -0.00047653 -0.0056711 -0.26943 0.14051
-0.040292 -0.019731 0.013933 0.028531
0.010564 -2.245e-05 0.011409 -0.0057299 -0.0032446 -0.002388 -0.040236 -0.019617
-0.20533 -0.073336 -0.046454 0.016169
0.001005 -0.0024792 0.0010342 -0.0033054 0.0090752 -0.0035442 0.01385 0.028358
-0.046445 0.016392 -0.24555 -0.075014
680000000 -0.23632 0.1912 -0.026857 -0.013626 0.0052558 0.0054179 0.001757 -0.0068892
-0.0031353 -0.010907 0.0065098 -0.0065351
-0.026828 -0.013615 -0.38893 0.15701 -0.032521 -0.0011125 -0.0016682 -4.8011e-05
-0.0017466 -0.0091682 -0.0009104 -0.0014003
0.005295 0.0054103 -0.032537 -0.0010334 -0.1022 0.28652 -0.00095067 -0.00060685
-0.0014287 0.00050394 -0.0024426 -0.0094002
0.0016516 -0.0069021 -0.0016917 -4.0797e-05 -0.00095466 -0.00059599 -0.22446 0.19329
-0.024422 -0.0059832 -0.011154 -0.01228
-0.0030862 -0.010927 -0.0018216 -0.0091815 -0.0014955 0.00050525 -0.024507 -0.0059691
-0.26267 0.02819 -0.0045314 -0.0066768
0.0066649 -0.0066621 -0.00086798 -0.0014327 -0.0024673 -0.009397 -0.01106 -0.012255
-0.00444 -0.0067808 -0.26831 0.044846
740000000 -0.19243 0.18546 -0.039008 0.027092 0.012983 -0.0051283 0.0003157 -0.0048094
-0.0045537 -0.0026139 -0.0061802 0.0023372
-0.038998 0.027064 -0.33442 0.17551 -0.035203 0.034985 -0.00068612 -0.0061143
-0.012278 0.0067752 -0.0022196 -0.0074582
0.012973 -0.0051547 -0.035156 0.035128 -0.067976 0.284 -0.0022064 0.0030737
-0.002195 -0.0053549 -0.00074743 5.3861e-05
0.00029583 -0.0048221 -0.00072095 -0.0061396 -0.0022161 0.0030944 -0.20712 0.20157
-0.044596 -0.0062429 0.025254 0.017334
-0.0045593 -0.0026518 -0.012332 0.0067264 -0.0021045 -0.0053358 -0.044706 -0.0062014
-0.1586 0.055614 -0.04734 0.00051585
-0.0061394 0.0024659 -0.0022758 -0.007548 -0.00075121 2.9673e-05 0.025243 0.017266
-0.04732 0.0005612 -0.26183 0.047292
800000000 -0.15819 0.22681 -0.021917 0.016656 0.005451 -0.010456 -0.0052005 -0.0020804
-0.0038638 0.0021917 0.0037493 0.00059992
-0.021904 0.016634 -0.33847 0.24552 -0.0078191 0.033839 -0.0026433 0.002062
-0.00075432 0.0026641 0.00044715 0.0053397
0.0054255 -0.010484 -0.0077105 0.033883 -0.027926 0.30697 0.00040664 0.0015424
0.00010885 0.003632 -0.0022442 0.00056714
-0.005214 -0.0020536 -0.0026569 0.0020818 0.00039192 0.0015236 -0.17764 0.23051
-0.028454 0.015048 0.014933 -0.011425
-0.0038609 0.0022064 -0.00073861 0.0026942 0.00011839 0.0036348 -0.028446 0.015128
-0.20929 0.080084 -0.017812 0.020818
0.0038973 0.00065167 0.00054666 0.0052558 -0.0022023 0.00054421 0.014952 -0.011444
-0.017713 0.020712 -0.26647 0.10317
860000000 -0.12413 0.24681 -0.01728 0.030401 -0.0033421 -0.0099954 -0.0017421 0.0007144
0.0039076 0.0049503 -0.0039984 -0.0038741
-0.017278 0.03036 -0.29056 0.28741 0.0077082 0.033975 7.6682e-05 0.0020748
0.0041589 0.00020825 0.0028113 0.00054397
-0.0033717 -0.0099621 0.0078309 0.033979 0.019918 0.31462 -0.00069401 -5.9274e-06
0.002781 -0.0015966 0.0015151 0.0043777
-0.0017371 0.00070359 9.6743e-05 0.0020893 -0.00069198 -1.5542e-05 -0.1398 0.24122
-0.017186 0.018553 -0.0070251 -0.008967
0.0039579 0.0049416 0.0041429 0.00016273 0.0027982 -0.001588 -0.017227 0.018614
-0.15651 0.13373 -0.028575 0.016456
-0.0041133 -0.0038636 0.0027854 0.00056703 0.0014911 0.0043978 -0.0070031 -0.0090527
-0.02859 0.016365 -0.21117 0.15481
920000000 -0.099412 0.26875 0.0051026 0.037554 -0.009303 -0.004667 -0.0019939 0.0015086
0.00062113 0.0018601 0.0026574 -0.0015473
0.005087 0.037522 -0.26218 0.30839 0.027795 0.021846 0.0014059 0.0011199
0.0070825 0.00043701 0.0041982 -0.0030784
-0.0093424 -0.0046387 0.027899 0.021769 0.065611 0.31526 0.0019294 9.1756e-05
0.0011684 -0.00020364 0.00048033 -0.0013883
-0.0019828 0.0015113 0.001418 0.001121 0.0019357 8.9634e-05 -0.11564 0.25795
-0.010566 0.031412 0.0050479 -0.0072407
0.00058344 0.0018702 0.0070963 0.00039592 0.001149 -0.00020408 -0.010519 0.031418
-0.14878 0.13956 -0.0024321 0.028654
0.0026553 -0.001535 0.0041787 -0.0031235 0.00048813 -0.00137 0.0050077 -0.0072051
-0.002445 0.028638 -0.23043 0.16974
980000000 -0.052378 0.28886 0.017231 0.02976 -0.0091652 0.0044444 0.0018233 0.0035034
0.0040314 -0.0015517 -0.0031732 -0.0023969
0.017198 0.029746 -0.20949 0.34252 0.032775 0.0049599 0.0020956 3.1548e-06
0.0016457 -0.0058206 -0.00026823 -0.0024213
-0.0091493 0.0044701 0.032847 0.004848 0.11181 0.30902 0.00063409 -0.001276
0.00041749 -0.0020874 0.0012521 -0.00017799
0.0018161 0.0035054 0.0021028 5.2773e-06 0.00063996 -0.0012722 -0.076827 0.26874
0.0082863 0.030666 -0.0097738 -0.0081285
0.0040295 -0.0015593 0.0016128 -0.0058545 0.00044326 -0.0020851 0.0083611 0.030707
-0.118 0.16872 0.0040235 0.020543
-0.0031732 -0.0024812 -0.00028152 -0.0023978 0.0012281 -0.00019149 -0.0097583 -0.008156
0.0040021 0.020574 -0.18703 0.22317
1040000000 -0.010488 0.29689 0.032949 0.018074 -0.0013565 0.0068131 0.0022468 0.00060256
9.4494e-05 -0.003503 -0.00030611 -0.0013434
0.03292 0.018082 -0.17399 0.35541 0.029323 -0.014571 0.0016105 -0.0018041
-0.0018775 -0.0028296 -0.0013716 -0.0028957
-0.0013534 0.0068389 0.029307 -0.014722 0.15778 0.29537 -0.00047331 -0.001687
-0.001605 -0.0009941 -0.00072494 -0.0010318
0.0022526 0.00057879 0.0016407 -0.0017952 -0.00046145 -0.0016865 -0.049837 0.27847
0.020024 0.018691 -0.001809 0.00059416
6.1923e-05 -0.0035018 -0.0018971 -0.0027984 -0.001579 -0.0010141 0.020081 0.018666
-0.086767 0.17651 0.013292 0.021067
-0.00036051 -0.0013249 -0.0013923 -0.0028716 -0.00072994 -0.0010415 -0.0018218 0.00059932
0.013284 0.021106 -0.17033 0.24646
1100000000 0.034616 0.30532 0.035561 -0.0040952 0.0027064 0.003895 0.0023016 -0.00091842
-0.0016897 -0.0031079 -0.0040573 -0.00023176
0.035536 -0.004068 -0.13085 0.37264 0.015191 -0.027653 0.0001161 -0.0017721
-0.0033115 -0.0010491 -0.0037122 -0.00071854
0.0027117 0.0038815 0.015102 -0.027753 0.20397 0.27533 -0.0019667 8.3722e-05
-0.0018415 0.00041953 -0.0012108 -0.00022838
0.0022851 -0.00092051 0.00010726 -0.0017641 -0.001968 8.8734e-05 -0.0095788 0.28366
0.025795 0.0053662 -0.0030953 -0.00082242
-0.0017244 -0.0031333 -0.0033645 -0.0010596 -0.0018423 0.00042673 0.025819 0.0053333
-0.069187 0.19036 0.019877 0.010057
-0.0040797 -0.00020975 -0.003768 -0.00072562 -0.0012279 -0.0002102 -0.003062 -0.0007797
0.019844 0.010013 -0.12493 0.28554
1160000000 0.085831 0.30034 0.023721 -0.020603 0.0025652 -0.00046943 -0.00014336 -0.0020666
-0.004034 -0.00094569 -0.0010807 0.0040479
0.023738 -0.02056 -0.087309 0.37696 -0.0035929 -0.029082 -0.0016517 -0.0017798
-0.0028711 0.0024823 -0.0016206 0.0018612
0.0025484 -0.00046247 -0.0037113 -0.029105 0.24712 0.24465 -0.0009643 0.0018239
-0.00070264 0.0020772 -0.00087972 0.00038253
-0.00014998 -0.0020944 -0.0016598 -0.0017853 -0.00096017 0.0018179 0.02992 0.2806
0.022394 -0.011077 -0.0039305 0.0052215
-0.004049 -0.00093152 -0.0028738 0.0025036 -0.00068979 0.0020661 0.022403 -0.011101
-0.035781 0.20028 0.01918 0.0019808
-0.0011074 0.0040389 -0.0016032 0.0018441 -0.00088 0.00037752 -0.0039449 0.0052078
0.019178 0.0019973 -0.07676 0.2892
1220000000 0.13 0.28953 0.010327 -0.029793 -0.0016441 -0.00069695 0.0001236 -0.00069859
-0.0027067 0.0022955 0.0011503 0.0022225
0.010344 -0.029752 -0.043258 0.38919 -0.016823 -0.021249 -0.0025549 0.00036627
-0.00023405 0.0031883 -0.00098061 0.0019037
-0.0016632 -0.00070219 -0.016926 -0.021192 0.28618 0.20571 0.00071561 0.0018516
0.00066577 0.0014653 0.00043879 0.00065533
0.00012296 -0.0007034 -0.0025489 0.00038501 0.00072621 0.0018506 0.069366 0.27208
0.011425 -0.018052 0.0013837 0.0011918
-0.0026925 0.00231 -0.00023344 0.0031837 0.00067323 0.00146 0.0114 -0.018088
-0.014422 0.21004 0.015889 -0.01265
0.001185 0.0022061 -0.00098521 0.0019149 0.00043545 0.00066374 0.0014053 0.0012355
0.015908 -0.012646 -0.048531 0.31427
1280000000 0.17986 0.26799 -0.0078296 -0.028203 -0.0018014 0.0026133 -0.00077127 -0.0020213
-0.0008806 0.0029058 0.0025886 0.0014504
-0.0078084 -0.028175 0.0024473 0.38079 -0.023716 -0.0086576 -0.0011131 0.0013397
0.0017271 0.0020644 0.00070062 0.0022194
-0.0018024 0.0026353 -0.02378 -0.0085593 0.31674 0.16202 0.0017126 0.00017903
0.0011958 0.00028226 0.00053283 0.00025353
-0.00077917 -0.0020096 -0.0011106 0.0013517 0.0016988 0.00017484 0.10649 0.25569
0.0015117 -0.020564 -0.0006182 0.00043227
-0.00087662 0.0029067 0.0017343 0.0020525 0.0012088 0.00027165 0.001467 -0.020559
0.021536 0.21452 0.0038394 -0.015166
0.0025977 0.0014361 0.00070509 0.0022393 0.00052712 0.00024159 -0.00062342 0.00043182
0.0038449 -0.015157 0.0027288 0.32045
1340000000 0.21698 0.23431 -0.017546 -0.018733 0.0010283 0.0046206 -0.0016564 -0.00099793
0.0013973 0.0027933 0.0019536 -0.0013306
-0.017519 -0.018726 0.042174 0.37284 -0.021729 0.0040954 -0.00024402 0.0021426
0.0021001 0.0008847 0.001396 0.00077875
0.0010522 0.0046179 -0.021736 0.0042128 0.33896 0.11406 0.0014491 -0.00094087
0.00083302 -0.00055099 0.00026209 0.00032298
-0.001664 -0.00099514 -0.00023549 0.0021483 0.001447 -0.0009472 0.13852 0.23483
-0.0086937 -0.018127 0.00061326 0.00086373
0.0014089 0.0027915 0.0021019 0.00085642 0.00082333 -0.00055753 -0.0087258 -0.018119
0.050257 0.21091 -0.0026151 -0.014208
0.0019487 -0.0013528 0.0014024 0.00076743 0.00027167 0.00031968 0.00058449 0.00085715
-0.0026082 -0.01422 0.041648 0.32121
1400000000 0.25005 0.19664 -0.023147 -0.0073132 0.0053058 0.0030636 -0.0021548 0.00050236
0.0023129 0.0010177 0.00054381 -0.0015029
-0.023111 -0.0073128 0.079517 0.36017 -0.015017 0.012436 0.0014075 0.0014069
0.0013159 -0.00080941 0.0012891 0.00028256
0.0053178 0.003052 -0.014965 0.012528 0.35198 0.060591 0.00020212 -0.0018973
7.9118e-05 -0.00058835 0.00034048 0.00028228
-0.0021625 0.00050987 0.0014132 0.0014032 0.00019867 -0.0019086 0.16725 0.20595
-0.015222 -0.011277 -0.001203 -6.2458e-05
0.0023112 0.0010113 0.0012868 -0.00081679 7.1498e-05 -0.00057159 -0.015266 -0.011237
0.083225 0.20849 -0.0094704 -0.0095771
0.00050959 -0.0014972 0.0012816 0.00029818 0.000345 0.00027886 -0.0011895 -5.7414e-05
-0.0094724 -0.0095958 0.090406 0.31405
1460000000 0.27311 0.15261 -0.020165 0.00478 0.0057276 -0.001874 -0.0017354 0.0016978
0.0020492 -0.00023022 -0.00020869 -0.0012112
-0.020145 0.0047675 0.11416 0.33847 -0.0062913 0.015427 0.0018783 0.0002878
0.0009263 -0.0014755 0.0013569 -0.00070677
0.0057342 -0.0019051 -0.0062327 0.015487 0.35817 0.0062166 -0.0013994 -0.0015346
0.00011322 -0.00020486 0.00058849 -0.00052802
-0.0017185 0.0017061 0.0018755 0.00028981 -0.0013862 -0.0015392 0.19266 0.17707
-0.017203 -0.0041631 -0.00081985 0.0027661
0.0020381 -0.00025137 0.0009276 -0.001485 0.00011833 -0.00020659 -0.017236 -0.0041292
0.11167 0.19497 -0.011567 -0.0033137
-0.0002074 -0.0012073 0.0013483 -0.00072918 0.0005806 -0.00052623 -0.00080314 0.0027595
-0.01155 -0.003304 0.12467 0.29526
1520000000 0.28545 0.11087 -0.014543 0.010177 0.0033872 -0.0042826 4.6224e-05 0.0027482
0.0023098 -0.0016225 -0.0011586 -0.0003878
-0.014531 0.010166 0.14794 0.32366 0.0015702 0.013317 0.0018455 -0.00085466
-1.2147e-05 -0.0011352 0.00040294 -0.00102
0.0033773 -0.0042967 0.0016446 0.013319 0.3515 -0.050016 -0.0014272 -0.0003566
0.00060699 -0.00074091 0.00016034 -0.00019527
5.1053e-05 0.002741 0.0018463 -0.00085313 -0.0014301 -0.00035811 0.21487 0.14005
-0.01694 0.0025071 0.0018106 0.0023875
0.0023177 -0.0016313 -1.8396e-05 -0.0011286 0.0006226 -0.00074147 -0.016948 0.0025607
0.13956 0.18263 -0.012163 0.0009096
-0.0011804 -0.00037961 0.00039213 -0.0010119 0.00015149 -0.00019481 0.0017928 0.0023669
-0.012157 0.0008977 0.16147 0.27951
1580000000 0.29504 0.064552 -0.0079787 0.013234 -0.00093469 -0.0050329 0.0015586 0.0020817
1.1351e-05 -0.0021677 -0.00043616 0.00037593
-0.0079824 0.013227 0.17553 0.29882 0.0053033 0.0084491 0.00049133 -0.0017773
-0.00058771 -0.0011436 -0.00017191 -0.00082595
-0.00095716 -0.0050336 0.0053553 0.0084339 0.33122 -0.1074 -0.0018217 0.00092131
-0.00034812 -0.0011864 0.0001494 -0.00068351
0.0015714 0.0020816 0.00047192 -0.0017879 -0.0018315 0.0009207 0.22804 0.1023
-0.013336 0.0084181 0.002673 0.0010043
-1.2961e-05 -0.0021788 -0.00059993 -0.0011326 -0.00033377 -0.0011858 -0.013315 0.0084643
0.16408 0.16612 -0.0096934 0.0073896
-0.00043163 0.00040148 -0.00017664 -0.00083632 0.00011994 -0.00067989 0.0026895 0.00099916
-0.009682 0.0073927 0.1981 0.25381
1640000000 0.29714 0.023101 -0.0013263 0.012154 -0.0027864 -0.0026671 0.0029339 0.0010595
-0.00044337 -0.0017666 -0.00035969 0.00056771
-0.001338 0.01214 0.20535 0.27359 0.0061124 0.0035651 -0.00072483 -0.0018994
-0.0010268 -0.00037381 -0.00045888 -0.00088947
-0.0027984 -0.0026438 0.0061443 0.003527 0.30346 -0.15707 -0.00051832 0.0017015
-0.0010127 -0.0012232 -0.00018407 -0.00043331
0.0029354 0.0010307 -0.00073161 -0.0019022 -0.00051702 0.0017049 0.24035 0.055361
-0.0084557 0.010352 0.0029967 -0.00091016
-0.00046028 -0.0017568 -0.0010449 -0.00037178 -0.001027 -0.0012209 -0.0084326 0.010369
0.18661 0.14297 -0.0047559 0.0095644
-0.00034332 0.00054829 -0.00047899 -0.00088374 -0.0001882 -0.00045537 0.0030023 -0.00091323
-0.0047498 0.0095821 0.22593 0.22457
1700000000 0.2897 -0.022451 0.0020497 0.0093602 -0.0035719 0.00010582 0.0031616 -0.0014808
-0.0020649 -0.00099783 0.00068254 0.00044421
0.0020504 0.0093511 0.2234 0.24176 0.0040072 0.00062504 -0.0015963 -0.00061182
-0.00074361 8.6466e-05 -0.0009485 -0.00054451
-0.0035731 0.00011936 0.0040186 0.00060498 0.25921 -0.19684 0.00080273 0.0017077
-0.0020754 -0.00030634 -0.00041648 -0.00081822
0.0031577 -0.0014934 -0.0016051 -0.00060693 0.00078435 0.0017097 0.23819 0.0077687
-0.0048829 0.011485 0.0018132 -0.0025214
-0.0020823 -0.00098164 -0.00074686 7.8699e-05 -0.0020514 -0.00031227 -0.0048583 0.011513
0.20435 0.12385 0.0001461 0.010106
0.00067788 0.0004555 -0.00095477 -0.00054841 -0.00042566 -0.00082709 0.0018112 -0.0025364
0.00014771 0.010094 0.24605 0.19043
1760000000 0.27729 -0.07113 0.0042751 0.0060684 -0.0024077 0.0010119 0.0011643 -0.0036301
-0.0015427 0.00057093 0.00041485 -0.00065256
0.0042647 0.0060612 0.24941 0.20164 0.0017274 -0.0012984 -0.0013026 0.00024208
-0.00095214 0.00093 -0.00067128 0.00035646
-0.0023892 0.001026 0.0017183 -0.0013083 0.21039 -0.23017 0.0013583 0.00083904
-0.0012825 0.0014106 -0.0014633 -0.00054176
0.0011565 -0.0036303 -0.0012982 0.00025298 0.0013739 0.00083095 0.23131 -0.041881
-0.00054889 0.0107 -0.00017783 -0.0029305
-0.0015479 0.00059564 -0.00094888 0.00093103 -0.001264 0.0014226 -0.00049723 0.010705
0.2196 0.090159 0.0044051 0.0072804
0.00040235 -0.00067713 -0.00066686 0.00036833 -0.0014818 -0.00056585 -0.00020244 -0.0029081
0.0043855 0.0072657 0.26098 0.15381
1820000000 0.25236 -0.10835 0.0044346 0.0025044 -0.0001443 0.0025014 -0.0012408 -0.0031205
-0.0014093 0.00097019 -6.7336e-05 -9.0848e-05
0.0044198 0.0024993 0.25922 0.17115 -0.00036907 -0.00023521 -0.0013821 0.0011066
2.2888e-05 0.0012421 -0.00069146 0.00051507
-0.00013319 0.0024966 -0.00037137 -0.00023344 0.16001 -0.24584 0.0013352 0.00014369
-0.00025462 0.0025304 -0.001442 0.00032441
-0.001265 -0.0031163 -0.0013669 0.0011012 0.0013317 0.00011712 0.20409 -0.088617
0.0019409 0.0086422 -0.0018738 -0.0018457
-0.0013904 0.00096756 3.6479e-05 0.0012393 -0.00024125 0.0025306 0.0019433 0.0086381
0.2375 0.062142 0.0052288 0.0035737
-6.8654e-05 -8.3445e-05 -0.00069411 0.00052981 -0.0014493 0.00033846 -0.0018313 -0.0018574
0.0052343 0.0035794 0.2667 0.11845
1880000000 0.21708 -0.14845 0.0022365 0.00030476 -0.00037839 0.0021559 -0.0030167 -0.0021591
-0.00025768 0.0020263 0.00017644 -0.00062725
0.0022275 0.00029147 0.26329 0.12453 -0.0024182 0.0016351 -5.7425e-05 0.0016743
0.00053802 0.0010555 7.991e-06 0.0010535
-0.00036051 0.0021619 -0.0024081 0.0016504 0.10783 -0.25478 0.0015077 -0.00082945
0.0015167 0.0020028 -0.00098929 0.0015164
-0.003028 -0.0021473 -4.6769e-05 0.0016853 0.0015306 -0.00082074 0.16632 -0.1298
0.0031368 0.0059667 -0.0025191 0.00028969
-0.00024188 0.0020295 0.000539 0.0010478 0.0015091 0.0019974 0.0031721 0.0059927
0.24115 0.030728 0.0058281 0.0011853
0.00015292 -0.00059914 2.0474e-05 0.0010568 -0.00096998 0.0015047 -0.0025304 0.00027877
0.0058422 0.0011909 0.2687 0.0838
1940000000 0.17757 -0.17411 -8.3777e-05 -0.0013454 0.0012505 0.0019885 -0.0036519 0.00067575
0.0014958 0.001283 -0.00072421 -0.00049754
-9.2578e-05 -0.0013287 0.26358 0.092528 -0.0012036 0.0038519 0.00098576 0.0013079
0.0016534 0.00047421 0.00081423 0.00037191
0.0012563 0.0019901 -0.0011823 0.0038696 0.062101 -0.24814 0.000293 -0.001739
0.0024204 0.00058082 0.00035141 0.0017772
-0.0036506 0.00070503 0.00099408 0.0012936 0.00031691 -0.0017649 0.11549 -0.16275
0.0025316 0.0035319 -0.0017076 0.0016254
0.0014914 0.0012671 0.0016638 0.00045481 0.0024331 0.00056517 0.0025527 0.00352
0.24466 -0.0075834 0.0041673 -0.0025385
-0.00071164 -0.00054239 0.0008185 0.00036192 0.00036182 0.0017773 -0.001696 0.001674
0.0041589 -0.0025181 0.25988 0.048334
2000000000 0.131 -0.18856 -0.0039358 0.00082405 0.0025217 0.0018405 -0.0022514 0.0034927
0.0012393 0.00015323 -0.00071352 0.00039467
-0.0039384 0.00082962 0.24888 0.057089 -0.0010213 0.0056766 0.0015841 0.00040608
0.0011757 -0.0012246 0.00053363 0.00018274
0.0025369 0.0018193 -0.00098672 0.0056784 0.018609 -0.23362 -0.0011869 -0.0012573
0.0020271 -0.0012181 0.0017067 0.0014799
-0.0022322 0.0035014 0.0015774 0.00039159 -0.0011947 -0.0012764 0.061881 -0.17512
0.0007306 0.0024274 7.9069e-05 0.0021661
0.0012649 0.00012081 0.0011763 -0.0012424 0.0020024 -0.0012352 0.0007157 0.0024101
0.23987 -0.041596 0.00087344 -0.0035257
