!Keysight Technologies,M9804A,MY58100912,A.14.10.03
!Date: Thursday, April 27, 2023 10:28:33
!Correction: S11(C  6-Port  ) 
!S12(C  6-Port  ) 
!S13(C  6-Port  ) 
!S14(C  6-Port  ) 
!S15(C  6-Port  ) 
!S16(C  6-Port  ) 
!S21(C  6-Port  ) 
!S22(C  6-Port  ) 
!S23(C  6-Port  ) 
!S24(C  6-Port  ) 
!S25(C  6-Port  ) 
!S26(C  6-Port  ) 
!S31(C  6-Port  ) 
!S32(C  6-Port  ) 
!S33(C  6-Port  ) 
!S34(C  6-Port  ) 
!S35(C  6-Port  ) 
!S36(C  6-Port  ) 
!S41(C  6-Port  ) 
!S42(C  6-Port  ) 
!S43(C  6-Port  ) 
!S44(C  6-Port  ) 
!S45(C  6-Port  ) 
!S46(C  6-Port  ) 
!S51(C  6-Port  ) 
!S52(C  6-Port  ) 
!S53(C  6-Port  ) 
!S54(C  6-Port  ) 
!S55(C  6-Port  ) 
!S56(C  6-Port  ) 
!S61(C  6-Port  ) 
!S62(C  6-Port  ) 
!S63(C  6-Port  ) 
!S64(C  6-Port  ) 
!S65(C  6-Port  ) 
!S66(C  6-Port  ) 
!S6P File: Measurement: :
# Hz S  RI   R 50
500000000 -0.33802 -0.043513 -0.0098825 -0.0026109 -0.0085232 0.013245 -0.0052659 0.012255
0.013025 0.0039571 -0.00551 0.0090028
-0.010705 -0.0021109 -0.41858 -0.055069 0.0075302 -0.010909 0.0012763 0.012633
0.0067341 0.0020903 0.0012545 0.01453
-0.0084164 0.013207 0.0080622 -0.011053 -0.2671 0.20767 0.0070613 0.0037952
-0.0030613 0.0081782 0.00048067 0.012578
-0.0048753 0.012289 0.0017618 0.0124 0.0069194 0.0037556 -0.33362 0.03557
-0.021706 -0.005309 0.018355 0.027746
0.012798 0.0051354 0.006541 0.0020186 -0.0027511 0.0080265 -0.0222 -0.0057152
-0.21476 -0.21242 -0.029801 0.0064398
-0.0051031 0.0096106 0.0016047 0.014022 0.00034456 0.012325 0.018357 0.027894
-0.029579 0.0068216 -0.24793 -0.18638
560000000 -0.31732 0.12112 -0.023726 -0.063549 -9.2675e-05 0.012491 0.0052236 0.011068
0.010555 0.0048927 0.011228 0.0096117
-0.023028 -0.063747 -0.37738 0.10557 -0.041933 -0.0374 0.013522 0.0040439
-0.014165 -0.0052951 0.003754 -0.00095608
0.00029017 0.012694 -0.042021 -0.037437 -0.18416 0.2581 5.6944e-05 -0.0042937
0.020076 0.0062426 0.0070453 -0.0057382
0.0060541 0.011424 0.013375 0.0040295 -6.6744e-05 -0.0037806 -0.31128 0.12979
0.0038844 -0.023441 0.0048607 -0.023513
0.010149 0.003635 -0.014251 -0.0038668 0.019713 0.0061248 0.0037149 -0.023071
-0.28776 -0.036273 0.0097682 -0.052243
0.011628 0.0090117 0.0031908 -0.0016811 0.0072769 -0.00568 0.0042353 -0.023914
0.010436 -0.05138 -0.33088 -0.024298
620000000 -0.27703 0.10308 -0.023111 0.0084819 0.0034267 0.0086911 0.0082193 -0.0044796
0.011177 0.00066682 0.00056036 -0.002084
-0.023223 0.0082977 -0.40319 0.057572 -0.018255 0.00047142 -0.0011343 -0.0020441
0.01162 -0.0056306 0.0012218 -0.0030576
0.003384 0.0088523 -0.018379 0.00037602 -0.15417 0.26652 -0.00041928 -0.005178
-0.0030375 -0.0025687 0.0091427 -0.0034909
0.007899 -0.0044987 -0.0011797 -0.0019708 -0.00051941 -0.0053989 -0.27048 0.14072
-0.040336 -0.019614 0.013562 0.028475
0.011836 0.00056403 0.011356 -0.0056658 -0.0028178 -0.0027043 -0.039316 -0.019133
-0.20515 -0.073214 -0.045988 0.016606
0.00079753 -0.00095483 0.0011521 -0.0030723 0.0094243 -0.0034596 0.012956 0.028755
-0.046044 0.016034 -0.24533 -0.073523
680000000 -0.23607 0.19054 -0.026514 -0.013885 0.0050101 0.0051756 0.0020436 -0.0071446
-0.002852 -0.011092 0.0063831 -0.0072262
-0.026645 -0.013991 -0.38874 0.15676 -0.032461 -0.0013586 -0.0013266 -0.00032155
-0.001555 -0.0093176 -0.00080205 -0.0018653
0.0053599 0.0051089 -0.032494 -0.0012522 -0.10215 0.28638 -0.00068882 -0.00060226
-0.0013058 0.00028799 -0.0024491 -0.0095529
0.0023319 -0.0069506 -0.0012377 -0.00012534 -0.00086431 -0.00075317 -0.22379 0.19362
-0.024168 -0.0062818 -0.010786 -0.013715
-0.0027263 -0.011506 -0.0016924 -0.0092267 -0.0013032 0.00021016 -0.02399 -0.0064317
-0.26267 0.028295 -0.0050196 -0.0074563
0.0068578 -0.0079164 -0.00029401 -0.0020383 -0.0027184 -0.0093168 -0.011106 -0.013741
-0.0047069 -0.0072475 -0.26826 0.045874
740000000 -0.19246 0.18524 -0.038961 0.027256 0.012945 -0.0052885 8.0537e-05 -0.0048002
-0.0042748 -0.0025072 -0.006438 0.0020713
-0.039162 0.027007 -0.33479 0.17573 -0.035204 0.034885 -0.00095244 -0.0064212
-0.011761 0.0065454 -0.0020602 -0.0072677
0.012815 -0.005082 -0.0351 0.035262 -0.068097 0.284 -0.0022335 0.0028548
-0.002194 -0.0051024 -0.0010636 -6.3996e-05
-0.00055977 -0.0048378 -0.00070431 -0.0061792 -0.0022781 0.0028755 -0.20692 0.20188
-0.044335 -0.0068758 0.025702 0.01721
-0.0043892 -0.0012768 -0.01119 0.0067399 -0.0021409 -0.0054158 -0.044333 -0.0064308
-0.15968 0.056054 -0.047256 -0.00097273
-0.0067232 0.0020446 -0.0020588 -0.0070207 -0.0013125 0.00021986 0.025462 0.017552
-0.04672 -0.00098714 -0.26095 0.048512
800000000 -0.1588 0.22707 -0.021853 0.016888 0.0055378 -0.010468 -0.0044191 -0.0021664
-0.0039076 0.0019791 0.0043753 0.00019955
-0.022005 0.016867 -0.33843 0.24549 -0.0077585 0.033821 -0.0023724 0.0021006
-0.00084419 0.0027527 0.0007925 0.0052331
0.0056512 -0.010452 -0.0076942 0.03388 -0.027843 0.30693 0.00074405 0.0016068
6.3819e-05 0.0034258 -0.001748 0.000576
-0.0045678 -0.0020014 -0.0025654 0.0024825 0.0007419 0.0016937 -0.17731 0.23097
-0.028509 0.014561 0.015525 -0.01095
-0.0039246 0.001949 -0.0004704 0.0026141 -3.3725e-05 0.0034515 -0.02827 0.014485
-0.20891 0.080471 -0.017949 0.019993
0.0043831 0.00078918 0.00010707 0.0054634 -0.0017416 0.00069016 0.015509 -0.010673
-0.017658 0.019584 -0.26441 0.10487
860000000 -0.12422 0.24645 -0.017356 0.030531 -0.0032416 -0.0099498 -0.0019448 0.00055336
0.0038355 0.0050873 -0.0041752 -0.0036914
-0.017185 0.030278 -0.29027 0.28716 0.0077461 0.033872 -2.7408e-05 0.0019612
0.0040297 0.00016858 0.0031264 0.00055817
-0.0033692 -0.0099336 0.0079024 0.033875 0.019885 0.31454 -0.00062712 7.2779e-06
0.002808 -0.001615 0.0014431 0.0042044
-0.0020827 0.00047254 0.00027365 0.0021205 -0.00064459 9.0515e-05 -0.13956 0.24151
-0.017171 0.018443 -0.006904 -0.0090453
0.0035846 0.004909 0.0039284 0.0002283 0.0028009 -0.0015491 -0.01704 0.018592
-0.15647 0.13385 -0.028647 0.015665
-0.0044226 -0.0035016 0.0037486 0.0011189 0.0012802 0.004231 -0.0072529 -0.0090339
-0.028668 0.015846 -0.21076 0.15578
920000000 -0.099464 0.26912 0.0050067 0.03737 -0.009346 -0.0046572 -0.0018505 0.0015046
0.0007843 0.0019423 0.0026466 -0.0016617
0.005098 0.037476 -0.26235 0.30822 0.027735 0.021788 0.0013235 0.001088
0.0070056 0.00033965 0.0040763 -0.0029996
-0.0093304 -0.0045448 0.02787 0.021706 0.065587 0.31527 0.0019183 0.00012661
0.0011898 -0.00016214 0.00052946 -0.0013914
-0.0018759 0.0016594 0.0012424 0.0010497 0.0018984 9.158e-05 -0.1157 0.25803
-0.010713 0.031322 0.0049543 -0.0071677
0.00068543 0.0019247 0.0070552 0.0005362 0.0011147 -0.00023874 -0.010576 0.031271
-0.14829 0.13994 -0.0029489 0.028606
0.0028587 -0.0013916 0.0037078 -0.0031055 0.00050177 -0.0013363 0.0050544 -0.0071985
-0.0027445 0.028671 -0.22969 0.17039
980000000 -0.052351 0.28879 0.017132 0.029748 -0.0091723 0.0043759 0.0018524 0.0033023
0.0037034 -0.0012027 -0.0033509 -0.0025072
0.017227 0.029705 -0.20952 0.34238 0.032797 0.0049475 0.0021339 5.8786e-05
0.0017403 -0.0057886 -6.7248e-05 -0.0025145
-0.0091684 0.0044003 0.032826 0.0048121 0.11178 0.30897 0.00063107 -0.0012186
0.00042041 -0.00209 0.0013956 -0.00023352
0.0019077 0.0033565 0.0021439 9.1634e-05 0.00065298 -0.0012343 -0.076859 0.26886
0.0083804 0.03079 -0.0096858 -0.0081347
0.0040298 -0.0014244 0.0018195 -0.0059568 0.00037653 -0.0020914 0.0086732 0.030906
-0.11802 0.16894 0.0042712 0.020612
-0.0033733 -0.0025114 -7.6303e-05 -0.0024609 0.0014008 -0.00012617 -0.0097151 -0.0080958
0.0042007 0.020341 -0.18635 0.22371
1040000000 -0.010468 0.29723 0.032895 0.018178 -0.0014191 0.0068796 0.0023452 0.00077022
3.8657e-05 -0.0034904 -5.8932e-05 -0.0013443
0.032881 0.018125 -0.17415 0.35542 0.029265 -0.014616 0.0015672 -0.0017098
-0.0021296 -0.0026812 -0.0013118 -0.0027934
-0.0013721 0.0068537 0.029215 -0.014703 0.1577 0.29543 -0.00046055 -0.0016546
-0.0015116 -0.00088777 -0.00071198 -0.0010272
0.0023034 0.00077091 0.0015508 -0.0017136 -0.00043154 -0.0016779 -0.049779 0.27865
0.020082 0.018612 -0.001765 0.00072906
0.00028973 -0.0033344 -0.0022695 -0.0026203 -0.0015773 -0.00089122 0.020204 0.018601
-0.085821 0.1765 0.013552 0.021335
-0.0003031 -0.0014911 -0.0014306 -0.0027269 -0.00070371 -0.00097141 -0.0017908 0.00083813
0.013175 0.021403 -0.16939 0.24683
1100000000 0.034542 0.30531 0.035543 -0.0041423 0.0026684 0.0039218 0.0022375 -0.00097154
-0.0018278 -0.0031484 -0.0041394 -8.6221e-05
0.035486 -0.0041435 -0.13095 0.37258 0.0152 -0.027712 3.3087e-05 -0.0017897
-0.0033774 -0.0010072 -0.0037348 -0.00068369
0.0026947 0.0039254 0.015089 -0.027758 0.20392 0.27534 -0.0019637 6.3115e-05
-0.0018274 0.00039654 -0.0012332 -0.00022806
0.0022285 -0.0010324 8.4227e-05 -0.0018705 -0.0019541 8.3051e-05 -0.0095667 0.28355
0.025631 0.005271 -0.0028878 -0.00073634
-0.0017226 -0.003255 -0.003262 -0.0011289 -0.0018957 0.00038217 0.025748 0.0053008
-0.069286 0.19067 0.019893 0.010203
-0.0041789 -9.9149e-05 -0.0035949 -0.00075673 -0.0011654 -0.00024489 -0.0029902 -0.00076056
0.019973 0.010091 -0.12412 0.28544
1160000000 0.085909 0.3005 0.023661 -0.020598 0.0025568 -0.00039992 -0.00026052 -0.0020776
-0.0040214 -0.00087596 -0.0010187 0.0042355
0.02368 -0.020588 -0.087506 0.37691 -0.0035937 -0.029124 -0.0016398 -0.001741
-0.0029592 0.0023649 -0.0015572 0.0019079
0.0025908 -0.00042743 -0.003716 -0.029064 0.24705 0.24468 -0.00091082 0.0018012
-0.00067213 0.0020444 -0.00096658 0.00030173
-0.00027447 -0.0020623 -0.001646 -0.0016536 -0.00089628 0.0017788 0.029778 0.28058
0.022314 -0.010977 -0.0039176 0.0052407
-0.0040917 -0.000795 -0.0029305 0.0023875 -0.00068415 0.0020193 0.022277 -0.010922
-0.035531 0.20007 0.019117 0.0020534
-0.0009802 0.0041247 -0.001634 0.0019661 -0.00093364 0.00030754 -0.0037289 0.0051656
0.019117 0.0019468 -0.076204 0.28966
1220000000 0.13005 0.28958 0.010318 -0.029836 -0.0016713 -0.00068261 0.00019922 -0.00072361
-0.0026389 0.0022988 0.0011682 0.0020797
0.01029 -0.029809 -0.043275 0.38923 -0.016794 -0.021228 -0.0025886 0.00036807
-0.00014285 0.0031521 -0.00098393 0.0018539
-0.0017027 -0.00066994 -0.01691 -0.021189 0.28616 0.20574 0.00071293 0.0019065
0.0006349 0.0013952 0.00046937 0.00072208
0.00019777 -0.00073482 -0.0025495 0.00041692 0.00068606 0.0019306 0.069398 0.27214
0.01143 -0.018004 0.0015572 0.0012325
-0.0026579 0.0023816 -1.5565e-05 0.0031674 0.00063696 0.0014559 0.011432 -0.017964
-0.014451 0.20986 0.015593 -0.012647
0.0011862 0.0021192 -0.00097229 0.0019121 0.00046207 0.00070208 0.0016686 0.001165
0.01562 -0.012676 -0.047874 0.31403
1280000000 0.1799 0.26803 -0.0079322 -0.028204 -0.0018083 0.0026228 -0.00081158 -0.0020498
-0.00090177 0.0029857 0.0025349 0.0014821
-0.0078795 -0.02815 0.0024765 0.38079 -0.023745 -0.0086782 -0.0011348 0.0014113
0.0017701 0.0020254 0.00060642 0.0022335
-0.0018049 0.0026477 -0.023841 -0.0086071 0.31668 0.16207 0.0016966 0.00018851
0.0012184 0.0002943 0.00051335 0.00024689
-0.00074033 -0.0020114 -0.001125 0.0013861 0.001692 0.00017735 0.10629 0.25556
0.0015826 -0.020469 -0.00075493 0.00039126
-0.00084147 0.003109 0.0016841 0.0020634 0.00124 0.00029396 0.0015536 -0.020448
0.021681 0.21462 0.003963 -0.015128
0.0025626 0.0013101 0.00078274 0.0022721 0.0005581 0.00021112 -0.00071398 0.00039812
0.0038834 -0.015065 0.0033994 0.32066
1340000000 0.21697 0.23446 -0.017497 -0.018667 0.00099052 0.0046063 -0.0017173 -0.00095723
0.0014254 0.0027589 0.0019959 -0.0013641
-0.017491 -0.018682 0.04215 0.37286 -0.021736 0.0041708 -0.00029425 0.0020724
0.0020851 0.00094643 0.0013548 0.0008023
0.0010235 0.004573 -0.021742 0.0042744 0.33895 0.11411 0.0014095 -0.00099931
0.00085918 -0.00059677 0.00017606 0.00025056
-0.0016901 -0.00095744 -0.00025007 0.0020597 0.0014259 -0.00097477 0.13844 0.23492
-0.0085738 -0.017984 0.00069374 0.00093219
0.0014584 0.0026699 0.0021387 0.00096178 0.00082896 -0.00055956 -0.0087237 -0.018059
0.050348 0.21095 -0.0025878 -0.014121
0.0018916 -0.001304 0.0012826 0.00074449 0.00015592 0.0002774 0.00079106 0.00091589
-0.0026405 -0.01417 0.042402 0.32114
1400000000 0.25009 0.19656 -0.023135 -0.0072727 0.0053559 0.003075 -0.0021668 0.00046705
0.002339 0.0010366 0.00062719 -0.0014469
-0.0231 -0.007266 0.079497 0.36017 -0.015023 0.012443 0.0013974 0.0014659
0.0013243 -0.0008365 0.0013987 0.00026131
0.0053511 0.0030792 -0.014969 0.012507 0.352 0.060639 0.00024911 -0.0019112
5.2018e-05 -0.00050578 0.00037836 0.0001876
-0.0022172 0.0005169 0.0013808 0.001492 0.00027413 -0.0019176 0.16721 0.20607
-0.015094 -0.011214 -0.001105 -9.2461e-05
0.0023149 0.0010393 0.0013718 -0.00084686 1.9443e-05 -0.00052377 -0.015167 -0.011245
0.083067 0.20847 -0.0093486 -0.0095542
0.00050473 -0.0013969 0.0013443 0.00024467 0.00036749 0.00018754 -0.0011301 6.933e-05
-0.009341 -0.0095002 0.090719 0.31383
1460000000 0.27312 0.15264 -0.020135 0.0048031 0.0057575 -0.0018267 -0.0017422 0.0017298
0.0020721 -0.00026409 -0.00018905 -0.0012072
-0.020131 0.0047874 0.11415 0.33848 -0.0062477 0.01541 0.0018232 0.00025271
0.00091349 -0.0014262 0.0012764 -0.00070582
0.0057078 -0.0018756 -0.0061661 0.015499 0.35812 0.006266 -0.001374 -0.001543
0.00011464 -0.00030067 0.00060511 -0.00045142
-0.001686 0.0017683 0.0018423 0.00022542 -0.0013833 -0.0015237 0.19268 0.1771
-0.017111 -0.0042671 -0.00086635 0.0028033
0.0021151 -0.00021993 0.00092989 -0.0014181 0.00013967 -0.00031903 -0.01712 -0.0042229
0.11166 0.19514 -0.011548 -0.0033547
-0.00013643 -0.0012273 0.0013239 -0.00073742 0.00057103 -0.0004477 -0.00085665 0.0028501
-0.011575 -0.0033816 0.12555 0.29504
1520000000 0.28546 0.11088 -0.014492 0.010144 0.0034108 -0.0042526 3.4574e-05 0.0026966
0.0023162 -0.0016436 -0.001229 -0.00029173
-0.014481 0.010152 0.14795 0.32365 0.0015185 0.013291 0.0018199 -0.00080917
6.1525e-06 -0.0011356 0.00038464 -0.00099202
0.0034428 -0.0042845 0.0016103 0.01331 0.35149 -0.049907 -0.0014132 -0.00039514
0.00064547 -0.00071912 0.00012789 -0.00013101
2.6278e-05 0.0027057 0.0018173 -0.00081607 -0.0014029 -0.00039406 0.21483 0.14007
-0.016831 0.0024216 0.0018221 0.0024688
0.0022895 -0.001674 9.0558e-06 -0.0011256 0.0006695 -0.00072845 -0.016832 0.0024308
0.13942 0.18261 -0.012129 0.00090133
-0.0011948 -0.00037303 0.00039723 -0.0010022 0.00011887 -0.00021634 0.0017614 0.0024442
-0.012101 0.00088907 0.16224 0.27914
1580000000 0.29498 0.064601 -0.0079379 0.013226 -0.00095328 -0.0050402 0.0015215 0.0020677
-2.7124e-05 -0.0021789 -0.00038099 0.00040045
-0.0079593 0.013205 0.17551 0.29877 0.0052824 0.008419 0.00052765 -0.0017646
-0.00061132 -0.0010789 -0.00024598 -0.0008158
-0.00095667 -0.0050403 0.0053316 0.0083931 0.33122 -0.10734 -0.0018319 0.00090591
-0.00030416 -0.0011022 0.00010749 -0.00062411
0.0015902 0.0020721 0.00050175 -0.0017762 -0.0018455 0.00092761 0.22813 0.10234
-0.013282 0.0082527 0.0027212 0.0009957
2.1092e-05 -0.0021817 -0.00065182 -0.0011116 -0.00029743 -0.0011182 -0.013218 0.0082553
0.16418 0.1662 -0.0096444 0.0072651
-0.00036084 0.00038503 -0.0001846 -0.0008063 0.00015362 -0.00056572 0.0026741 0.0010117
-0.0096821 0.0072113 0.1985 0.25355
1640000000 0.29712 0.023132 -0.0013306 0.012145 -0.0027696 -0.0026895 0.0028935 0.0010229
-0.00044517 -0.0017375 -0.00035257 0.00056147
-0.0013465 0.012146 0.20528 0.27356 0.0061115 0.003527 -0.00072633 -0.001894
-0.0010463 -0.00038845 -0.00043532 -0.00085868
-0.0027843 -0.0026555 0.0061263 0.0034913 0.3034 -0.15699 -0.00053807 0.0017443
-0.001015 -0.0012238 -0.00016595 -0.0004573
0.0028848 0.00099965 -0.00072516 -0.0018935 -0.00054158 0.0017389 0.24045 0.055332
-0.0085991 0.010251 0.0030163 -0.00092747
-0.0005238 -0.0016975 -0.0010596 -0.00039879 -0.0011189 -0.0012178 -0.0085431 0.010243
0.18674 0.14291 -0.0048138 0.0094904
-0.00037309 0.00056808 -0.00047287 -0.00083047 -0.00017956 -0.00043503 0.0029845 -0.00091513
-0.0048897 0.0094821 0.22641 0.22428
1700000000 0.28964 -0.022418 0.0020256 0.0093207 -0.0035717 9.2928e-05 0.0031211 -0.0014576
-0.0020752 -0.0010136 0.00062631 0.00042449
0.0020283 0.0093184 0.22343 0.24175 0.0040318 0.00062388 -0.0016133 -0.00064163
-0.00077544 8.9199e-05 -0.00095058 -0.00056797
-0.0036053 0.00011176 0.0040528 0.00059801 0.25937 -0.19674 0.00077825 0.001634
-0.0020935 -0.0003161 -0.00040977 -0.00082579
0.0030887 -0.0014546 -0.0016006 -0.00061067 0.00077037 0.00165 0.23823 0.0076608
-0.0050114 0.011477 0.001811 -0.0025357
-0.0020551 -0.00099894 -0.00076415 0.00010054 -0.0020805 -0.00026653 -0.0049951 0.011479
0.2044 0.1239 2.217e-05 0.009947
0.00064093 0.00048179 -0.00095861 -0.0005037 -0.00039819 -0.00091044 0.0017951 -0.0025536
2.0119e-05 0.0099494 0.24629 0.19016
1760000000 0.2774 -0.071012 0.0042676 0.0060895 -0.0024236 0.00098942 0.0011889 -0.0036412
-0.0015097 0.00058037 0.00040683 -0.00068098
0.0042805 0.0060805 0.24936 0.20165 0.0017012 -0.0012931 -0.0012993 0.00023536
-0.00096104 0.00095515 -0.00065611 0.00033596
-0.0024122 0.0010276 0.0017266 -0.0013063 0.21039 -0.23009 0.0013344 0.00083058
-0.0012883 0.0014005 -0.0014228 -0.00056246
0.0011176 -0.0035386 -0.0012888 0.00021613 0.0012943 0.00082442 0.23127 -0.041953
-0.00064344 0.010668 -4.3359e-05 -0.0029593
-0.001542 0.00062949 -0.00093716 0.0009357 -0.0013294 0.001394 -0.00062199 0.010712
0.21962 0.090037 0.0043745 0.0073493
0.00049012 -0.00066601 -0.00067892 0.00026722 -0.0014518 -0.0005649 -7.2134e-05 -0.0029352
0.0043342 0.0073194 0.26111 0.15319
1820000000 0.25236 -0.10824 0.0044322 0.0025233 -0.00014462 0.0024524 -0.0012127 -0.0031155
-0.0014125 0.00095954 -7.8336e-05 -2.2435e-05
0.0044044 0.0025472 0.25919 0.17118 -0.00036187 -0.00021787 -0.001311 0.0010642
3.762e-05 0.0012302 -0.00068484 0.00057089
-7.267e-05 0.0025061 -0.00035338 -0.00022317 0.16015 -0.24571 0.0013807 0.0001242
-0.00028261 0.0024638 -0.0014086 0.00034962
-0.0011491 -0.0031449 -0.0013241 0.0010755 0.001374 0.00014192 0.20393 -0.088669
0.0017611 0.0087173 -0.0018205 -0.0019767
-0.0013473 0.00099699 8.4353e-05 0.0012592 -0.00028549 0.0024674 0.0017166 0.0087787
0.23744 0.062131 0.0052441 0.0035648
-9.8893e-05 2.0244e-06 -0.00066192 0.00057429 -0.0013777 0.00036558 -0.0018493 -0.0018776
0.005201 0.003606 0.26673 0.11804
1880000000 0.21715 -0.14839 0.0022174 0.000323 -0.0003928 0.0021607 -0.0031044 -0.0021462
-0.00028263 0.0019758 0.0001473 -0.00060705
0.0021829 0.00028093 0.26329 0.12452 -0.0024286 0.0016154 -0.00015485 0.0016685
0.00052093 0.0010655 1.2423e-06 0.0010556
-0.00042506 0.0021347 -0.0023928 0.0016551 0.10792 -0.25473 0.0014968 -0.00087612
0.0015359 0.0020717 -0.0011148 0.0014164
-0.0032971 -0.0021019 -0.00015331 0.0016486 0.0014525 -0.00083293 0.16619 -0.12979
0.0031557 0.0059779 -0.0026334 0.00033417
-0.00041331 0.0020657 0.00050977 0.0010673 0.0015023 0.0020597 0.0031209 0.0060311
0.24117 0.03061 0.0055544 0.001362
0.00012122 -0.00048349 5.922e-06 0.0010116 -0.0010802 0.001443 -0.002598 0.00034219
0.0055419 0.0013654 0.26888 0.083381
1940000000 0.17765 -0.1742 -0.00011482 -0.0013761 0.0013089 0.0020697 -0.0036581 0.00067665
0.0014883 0.001245 -0.00080668 -0.00051861
-0.00010793 -0.0013314 0.2635 0.092564 -0.0011692 0.003844 0.00098643 0.0012713
0.0016648 0.00045634 0.00082409 0.00036214
0.0012651 0.0020653 -0.0012313 0.003879 0.062244 -0.24823 0.00032343 -0.0018398
0.0024502 0.00058062 0.0003297 0.001723
-0.0035432 0.00073704 0.0010158 0.0012672 0.00036223 -0.0018513 0.11533 -0.16262
0.0024843 0.0036435 -0.0017381 0.0015931
0.0015854 0.0012734 0.0016718 0.00043927 0.0024592 0.00053608 0.0025122 0.0035878
0.24459 -0.0075912 0.0042178 -0.0025042
-0.0008331 -0.00059027 0.00083545 0.00037437 0.0003323 0.0017314 -0.0017184 0.0015128
0.004185 -0.0024945 0.25988 0.048056
2000000000 0.13102 -0.1884 -0.0039786 0.00072701 0.0025467 0.0018431 -0.0022047 0.003504
0.0012499 0.00016229 -0.00066394 0.0005124
-0.0039692 0.00085252 0.2488 0.057027 -0.0010361 0.0057232 0.0015308 0.00046128
0.0011568 -0.0012336 0.0005262 0.00026792
0.002509 0.0017427 -0.0010442 0.0057217 0.018879 -0.23366 -0.0011167 -0.0012175
0.0020526 -0.0012593 0.0016787 0.0015162
-0.0022571 0.0035837 0.0015035 0.00037237 -0.0010961 -0.001172 0.061999 -0.17489
0.00064124 0.0025312 -0.00018184 0.0021459
0.0011433 0.00019021 0.0012404 -0.0012732 0.0020164 -0.0012117 0.00069578 0.0025416
0.23986 -0.041532 0.0008128 -0.0034453
