!Keysight Technologies,M9804A,MY58100912,A.14.10.03
!Date: Thursday, April 27, 2023 10:28:33
!Correction: S11(C  6-Port  ) 
!S12(C  6-Port  ) 
!S13(C  6-Port  ) 
!S14(C  6-Port  ) 
!S15(C  6-Port  ) 
!S16(C  6-Port  ) 
!S21(C  6-Port  ) 
!S22(C  6-Port  ) 
!S23(C  6-Port  ) 
!S24(C  6-Port  ) 
!S25(C  6-Port  ) 
!S26(C  6-Port  ) 
!S31(C  6-Port  ) 
!S32(C  6-Port  ) 
!S33(C  6-Port  ) 
!S34(C  6-Port  ) 
!S35(C  6-Port  ) 
!S36(C  6-Port  ) 
!S41(C  6-Port  ) 
!S42(C  6-Port  ) 
!S43(C  6-Port  ) 
!S44(C  6-Port  ) 
!S45(C  6-Port  ) 
!S46(C  6-Port  ) 
!S51(C  6-Port  ) 
!S52(C  6-Port  ) 
!S53(C  6-Port  ) 
!S54(C  6-Port  ) 
!S55(C  6-Port  ) 
!S56(C  6-Port  ) 
!S61(C  6-Port  ) 
!S62(C  6-Port  ) 
!S63(C  6-Port  ) 
!S64(C  6-Port  ) 
!S65(C  6-Port  ) 
!S66(C  6-Port  ) 
!S6P File: Measurement: :
# Hz S  RI   R 50
500000000 -0.33474 -0.0528 -0.01035 -0.0011581 -0.0080936 0.013175 -0.0046797 0.012368
0.013002 0.0049743 -0.0051325 0.0088026
-0.010352 -0.0011412 -0.41634 -0.062887 0.0084334 -0.010709 0.0016419 0.012201
0.0077064 0.002538 0.0014259 0.013451
-0.0080556 0.013224 0.0084062 -0.010626 -0.26665 0.19966 0.0067909 0.0034752
-0.0016455 0.0084647 0.00025268 0.012089
-0.0048563 0.012417 0.00157 0.012353 0.0068206 0.0034679 -0.33105 0.043981
-0.018711 -0.004752 0.016917 0.025876
0.012608 0.0046892 0.0075954 0.0023411 -0.0016923 0.0085901 -0.018744 -0.0046694
-0.24902 -0.1919 -0.026391 0.0046198
-0.0053267 0.0086176 0.0017336 0.013414 0.00053753 0.01206 0.017283 0.025897
-0.026433 0.0046916 -0.27302 -0.11778
560000000 -0.3178 0.11379 -0.022863 -0.064615 0.00023976 0.013158 0.0046541 0.011225
0.011643 0.0045482 0.0097467 0.0090956
-0.022811 -0.064524 -0.37613 0.099714 -0.041976 -0.037342 0.013707 0.0028668
-0.012942 -0.0037354 0.0035856 -0.00023162
0.00039507 0.012987 -0.042078 -0.037437 -0.18566 0.25076 -0.00014506 -0.0052049
0.017991 0.0058986 0.0077962 -0.0063682
0.0046929 0.01125 0.01374 0.0028014 -0.00021331 -0.005196 -0.30626 0.13644
0.0054639 -0.025256 0.0050074 -0.020685
0.011476 0.0047934 -0.013168 -0.0037454 0.017646 0.0058353 0.0058087 -0.025559
-0.31089 -0.012082 0.0091394 -0.049455
0.010134 0.0089744 0.00347 -0.0006912 0.0081162 -0.0063191 0.0049876 -0.020673
0.0091194 -0.049398 -0.33171 0.028021
620000000 -0.27836 0.094444 -0.023333 0.0083624 0.0033214 0.0093325 0.0085082 -0.0043738
0.011918 -0.0017119 0.00081862 -0.0019904
-0.02332 0.0083432 -0.40344 0.049991 -0.018629 0.00068655 -0.001327 -0.0020393
0.011827 -0.0060053 0.0015163 -0.0027866
0.0033565 0.0093292 -0.018702 0.00072688 -0.15563 0.26019 -0.00062031 -0.005109
-0.0037499 -0.0027037 0.0096732 -0.002932
0.0085117 -0.0044447 -0.001358 -0.0020916 -0.00055619 -0.0051764 -0.26572 0.14644
-0.038986 -0.020092 0.012492 0.026343
0.012089 -0.0016861 0.012133 -0.0060365 -0.0037619 -0.002544 -0.038848 -0.020244
-0.2307 -0.045876 -0.040352 0.012025
0.00076084 -0.0017352 0.0012757 -0.0028798 0.0096537 -0.0031085 0.011856 0.026628
-0.04007 0.012201 -0.25169 -0.0052042
680000000 -0.23893 0.18439 -0.026876 -0.014472 0.0047716 0.0054855 0.0013563 -0.0074674
-0.0025033 -0.012014 0.0052416 -0.0073814
-0.026865 -0.014472 -0.38976 0.15013 -0.03276 -0.0020924 -0.0014698 -0.00073403
-0.0017383 -0.0096226 -0.001237 -0.0018862
0.004781 0.0054474 -0.032807 -0.0020582 -0.10402 0.28063 -0.00071424 -0.000453
-0.0016964 0.00057168 -0.0034646 -0.0092087
0.0014805 -0.0074451 -0.0014616 -0.0007155 -0.00068138 -0.00037148 -0.22072 0.19749
-0.024206 -0.0082937 -0.0083772 -0.011158
-0.002382 -0.012075 -0.0017734 -0.0094704 -0.0017728 0.00053491 -0.024247 -0.0081494
-0.27869 0.056949 -0.00827 -0.0077398
0.0049764 -0.0070484 -0.0013942 -0.0018315 -0.0033044 -0.0091282 -0.0085719 -0.011274
-0.0083707 -0.0076426 -0.25908 0.097674
740000000 -0.19349 0.17763 -0.039592 0.026732 0.013589 -0.0049039 -0.00016422 -0.0041867
-0.0052059 -0.0037144 -0.006085 0.003408
-0.039575 0.026701 -0.33583 0.16931 -0.036805 0.034726 -0.00047562 -0.0055678
-0.011623 0.0073976 -0.0016247 -0.0057175
0.013571 -0.00494 -0.036721 0.034792 -0.070366 0.27819 -0.0018309 0.0033499
-0.0033131 -0.0058863 -0.0015511 0.001289
-0.00018056 -0.0042433 -0.00042876 -0.0055659 -0.0018545 0.0033781 -0.20364 0.20464
-0.04258 -0.007526 0.022975 0.014849
-0.0048751 -0.0037181 -0.011654 0.0074773 -0.0032507 -0.005935 -0.042609 -0.0075512
-0.18032 0.081692 -0.041941 0.0013155
-0.0061571 0.0032562 -0.0018164 -0.0058265 -0.0015171 0.0014645 0.0228 0.015027
-0.04145 0.0010555 -0.24801 0.10381
800000000 -0.16155 0.22085 -0.022763 0.016488 0.0058956 -0.010592 -0.0043469 -0.0019416
-0.0046248 0.0022927 0.0045806 0.00028411
-0.022754 0.016443 -0.34141 0.2397 -0.0086562 0.034369 -0.0023415 0.0021429
-0.001269 0.0030719 0.00096062 0.0051702
0.0058374 -0.010628 -0.0085773 0.034428 -0.031498 0.30246 0.0009925 0.0014956
-8.4015e-05 0.003486 -0.0016402 0.0010562
-0.0044357 -0.0019897 -0.0023346 0.0021226 0.00098076 0.001501 -0.17428 0.23233
-0.028715 0.013265 0.014164 -0.0099046
-0.004568 0.0023783 -0.0013187 0.0030798 4.0948e-05 0.0035313 -0.028637 0.013321
-0.22153 0.11185 -0.017423 0.01964
0.0045221 0.00029471 0.00097972 0.0052845 -0.0016344 0.0010706 0.014204 -0.010032
-0.017225 0.019665 -0.2387 0.15271
860000000 -0.12711 0.24131 -0.017951 0.030606 -0.0028939 -0.010437 -0.0016091 0.00073614
0.0042185 0.0053058 -0.0031617 -0.0030535
-0.017933 0.030566 -0.29305 0.28242 0.0075777 0.034774 0.00017524 0.0021395
0.0035951 0.00058415 0.0035146 0.00029943
-0.0029107 -0.010458 0.0076753 0.034782 0.015953 0.311 -0.00065063 -0.0001342
0.0023288 -0.0014909 0.0017931 0.0040683
-0.0016403 0.00071411 0.00017181 0.0021269 -0.00063593 -0.00015749 -0.13749 0.24317
-0.018587 0.018376 -0.0059256 -0.0090898
0.0043225 0.0053166 0.0036177 0.00077602 0.0023267 -0.0014524 -0.018656 0.018428
-0.16445 0.16201 -0.024319 0.01613
-0.003306 -0.0030114 0.0032357 0.00030362 0.001745 0.0040788 -0.0060621 -0.0089463
-0.024271 0.016399 -0.18847 0.19688
920000000 -0.10356 0.26461 0.0046761 0.038234 -0.0093805 -0.0051514 -0.0019352 0.0018967
0.0014082 0.0018961 0.0027715 -0.0011452
0.0046467 0.038192 -0.26576 0.30381 0.028322 0.022888 0.0014863 0.001276
0.0075245 -0.00036279 0.0042051 -0.0024971
-0.0093946 -0.0050996 0.02843 0.022828 0.061636 0.31256 0.0019415 6.1296e-05
0.0011154 -0.00039472 0.00092173 -0.0011145
-0.0019079 0.0019195 0.0014668 0.001275 0.0019581 1.4848e-05 -0.11352 0.26016
-0.010946 0.030885 0.0032808 -0.0065669
0.0015098 0.0018474 0.0076331 -0.00045176 0.0010854 -0.00044032 -0.010877 0.030822
-0.1533 0.16905 -0.0016794 0.0266
0.002658 -0.0011164 0.0040419 -0.0025164 0.0010012 -0.0011671 0.003242 -0.0064684
-0.0017662 0.026559 -0.19589 0.21157
980000000 -0.057066 0.28468 0.016982 0.030382 -0.0095274 0.0041788 0.0018483 0.003505
0.0040301 -0.0018686 -0.0028773 -0.0023074
0.016953 0.030355 -0.21274 0.33843 0.03377 0.0053952 0.0020596 -0.00018936
0.0018009 -0.0061239 -9.6877e-05 -0.0026064
-0.0095372 0.0042182 0.033846 0.0052957 0.10771 0.30693 0.00071443 -0.0011781
0.00053321 -0.0020278 0.0016369 -0.00024865
0.0018868 0.0034997 0.0020358 -0.00015539 0.00072215 -0.0011686 -0.075031 0.27123
0.0075067 0.030567 -0.008941 -0.0068818
0.003997 -0.0018746 0.0017395 -0.0061552 0.00056158 -0.0020457 0.0075099 0.030576
-0.11865 0.19812 0.0064161 0.019495
-0.0029367 -0.0022118 -0.0001825 -0.0025493 0.0016417 -0.00017219 -0.0088929 -0.0068983
0.0063483 0.019431 -0.1528 0.25336
1040000000 -0.015655 0.29403 0.033177 0.019224 -0.0016678 0.0071652 0.0028095 0.000795
0.00029428 -0.0034937 -2.0288e-05 -0.0016176
0.033129 0.019195 -0.17781 0.35236 0.030255 -0.014793 0.0016585 -0.0017574
-0.0021566 -0.0027018 -0.0010014 -0.0028989
-0.0016668 0.0071793 0.030256 -0.014934 0.15375 0.2941 -0.00044175 -0.0016869
-0.0015688 -0.00096745 -0.00057892 -0.0011516
0.0028182 0.00076767 0.0016422 -0.0017311 -0.00044927 -0.0016944 -0.047187 0.28124
0.020145 0.019241 -0.0024991 0.0012836
0.00031673 -0.0035302 -0.0021775 -0.0026365 -0.0015825 -0.00097259 0.020184 0.019301
-0.085171 0.20475 0.014064 0.017826
-9.3287e-05 -0.0015868 -0.0010497 -0.0029453 -0.00057121 -0.0011645 -0.0024992 0.001281
0.01418 0.017599 -0.12997 0.2745
1100000000 0.029458 0.30291 0.036794 -0.0036088 0.002905 0.0043175 0.0023725 -0.0012546
-0.0021633 -0.0030256 -0.0040699 -9.056e-05
0.036753 -0.0035936 -0.13442 0.37054 0.015991 -0.028354 8.1732e-07 -0.0018887
-0.0037196 -0.00097837 -0.0037111 -0.00058509
0.002906 0.0042962 0.015902 -0.028454 0.20024 0.27461 -0.0019519 0.00013436
-0.0018505 0.00052958 -0.0010978 -0.00064464
0.0023773 -0.0012574 -1.4989e-05 -0.0018674 -0.001951 0.00013639 -0.006586 0.28621
0.025897 0.0053641 -0.0024659 0.0001747
-0.0022393 -0.0030139 -0.0037571 -0.00094846 -0.0018451 0.00053101 0.025827 0.0053312
-0.064311 0.21696 0.019969 0.0079503
-0.004065 -3.5727e-05 -0.0037234 -0.00059153 -0.0010953 -0.00062744 -0.0023968 0.00022879
0.020014 0.0079305 -0.083513 0.30228
1160000000 0.080513 0.29905 0.02475 -0.020909 0.0029122 -0.0004254 -0.00014338 -0.002444
-0.0040925 -0.00081966 -0.0011398 0.004171
0.024743 -0.020895 -0.090881 0.37536 -0.0035352 -0.029982 -0.0016251 -0.0017397
-0.002754 0.0025864 -0.0015959 0.0019151
0.0028951 -0.00043166 -0.0036594 -0.030013 0.24376 0.24419 -0.0008426 0.0018756
-0.00069361 0.0019809 -0.0010275 0.000266
-0.00014157 -0.0024396 -0.0016418 -0.0017157 -0.00084171 0.0018832 0.032957 0.28336
0.022024 -0.011086 -0.0033488 0.0050623
-0.0040682 -0.00083136 -0.0027189 0.0025802 -0.00069955 0.0019549 0.021942 -0.011128
-0.0305 0.22438 0.018618 -0.0010528
-0.0011237 0.0042461 -0.001588 0.0018867 -0.0010531 0.00028806 -0.0031624 0.0050708
0.018691 -0.0010735 -0.036766 0.30575
1220000000 0.12481 0.28927 0.011124 -0.030646 -0.0015365 -0.00099834 -7.9122e-05 -0.00086555
-0.0027057 0.0022088 0.0010378 0.0019183
0.011134 -0.03061 -0.046354 0.38845 -0.017344 -0.02207 -0.0026815 0.00054126
2.5928e-05 0.0032049 -0.00083266 0.0019736
-0.0015372 -0.00099709 -0.017455 -0.022014 0.28289 0.20536 0.00078185 0.0018005
0.0005838 0.0012582 0.00013177 0.00061176
-6.6461e-05 -0.00085156 -0.0026962 0.00056057 0.00077582 0.0018009 0.073504 0.2744
0.011048 -0.018153 0.002058 0.0015096
-0.0026922 0.0022387 5.8801e-05 0.0032268 0.00059997 0.0012492 0.011061 -0.018199
-0.0065309 0.23309 0.013838 -0.013658
0.0010623 0.0019311 -0.00082162 0.0019345 0.00011295 0.0005483 0.002029 0.0014504
0.013774 -0.01367 -0.004501 0.31954
1280000000 0.17517 0.26856 -0.0079632 -0.029262 -0.0019815 0.0024971 -0.00077427 -0.0020373
-0.00073295 0.0032522 0.0025522 0.0013465
-0.0079397 -0.029233 0.00012053 0.37992 -0.0246 -0.008872 -0.00091651 0.001518
0.0018037 0.0017558 0.0006412 0.0020748
-0.0019875 0.0024976 -0.024676 -0.008771 0.31346 0.16158 0.0016639 -1.4997e-05
0.0012939 0.0003367 0.00030852 0.0002884
-0.00081629 -0.0020481 -0.00092663 0.0015187 0.0016653 -1.1853e-05 0.11043 0.25786
0.00064848 -0.020429 -0.00014561 0.00022258
-0.0006989 0.0032665 0.0018239 0.0017677 0.0012794 0.00033802 0.00059107 -0.020412
0.030619 0.2358 0.0026569 -0.015994
0.0025679 0.0013099 0.00061145 0.0020565 0.00029645 0.00025793 -0.0001408 0.00022409
0.0026955 -0.015971 0.042186 0.3212
1340000000 0.21267 0.23548 -0.018062 -0.019416 0.00078086 0.0047548 -0.0017312 -0.00081434
0.0014664 0.0026793 0.0018274 -0.0015301
-0.018022 -0.019409 0.039759 0.37185 -0.0222 0.0044267 -5.2617e-05 0.0020539
0.0019837 0.00078973 0.0012766 0.00075057
0.00080203 0.0047407 -0.022218 0.0045399 0.33522 0.11442 0.0011166 -0.0009648
0.00061206 -0.00063309 9.8618e-05 0.00035144
-0.0017416 -0.0008309 -4.7928e-05 0.0020523 0.0011103 -0.00096164 0.14342 0.23649
-0.0093644 -0.017416 0.00086211 0.00068075
0.0014697 0.0026663 0.0019973 0.00078807 0.00060261 -0.00064451 -0.0093496 -0.017397
0.060734 0.23091 -0.0043113 -0.014333
0.0018416 -0.001532 0.0013096 0.0007267 0.0001043 0.00036111 0.00083599 0.00065521
-0.0042998 -0.014309 0.080565 0.31545
1400000000 0.24664 0.19794 -0.024071 -0.0075437 0.0053706 0.0034415 -0.0022262 0.00057907
0.0025087 0.00098329 0.00036648 -0.0016498
-0.024037 -0.0075437 0.077378 0.35893 -0.01529 0.012922 0.0013979 0.001256
0.0012986 -0.00084906 0.0012493 0.00010201
0.0053868 0.0034198 -0.015247 0.01303 0.34832 0.061621 2.4137e-05 -0.001651
0.00010645 -0.00042759 0.00039334 0.00019898
-0.0022333 0.00059584 0.001409 0.001262 3.5771e-05 -0.0016504 0.17266 0.20724
-0.015617 -0.010036 -0.00088774 -6.5694e-05
0.0025365 0.00096208 0.0012887 -0.00083471 9.5292e-05 -0.00041946 -0.015689 -0.010014
0.094199 0.22556 -0.010871 -0.0089164
0.00033598 -0.0016632 0.0012384 5.3427e-05 0.00043494 0.00018779 -0.00084728 -3.0731e-05
-0.010833 -0.0089153 0.12451 0.30381
1460000000 0.26968 0.15398 -0.020817 0.0050643 0.0059811 -0.0018101 -0.0015476 0.0017637
0.0022475 -0.00058749 -0.00039747 -0.0010015
-0.020801 0.0050418 0.11156 0.33689 -0.00606 0.016017 0.0017043 0.00012142
0.00085742 -0.0014408 0.0012242 -0.00067824
0.0059819 -0.0018289 -0.0059795 0.016063 0.35483 0.0080208 -0.0012234 -0.0012917
0.00010799 -0.00026694 0.00072057 -0.00019459
-0.001544 0.0017661 0.0017012 0.00011293 -0.0012274 -0.0012764 0.19873 0.1776
-0.016694 -0.0027095 -0.00082168 0.0021284
0.0022456 -0.00060782 0.00083815 -0.0014469 0.00011979 -0.00028989 -0.016707 -0.0027021
0.12366 0.21055 -0.012702 -0.002739
-0.00039603 -0.00097073 0.0012002 -0.00066586 0.00073713 -0.00015626 -0.00083846 0.0021354
-0.01273 -0.0026811 0.15762 0.28279
1520000000 0.28209 0.11271 -0.014977 0.010791 0.0035354 -0.0043992 0.00013011 0.0025309
0.0020967 -0.0020263 -0.0011898 -7.2597e-05
-0.014974 0.010767 0.14484 0.32257 0.0019032 0.013494 0.0016524 -0.0007893
5.6687e-05 -0.0011003 0.00029717 -0.0011107
0.0035117 -0.0044195 0.0019728 0.013503 0.34869 -0.047484 -0.001125 -0.00036753
0.00058402 -0.00092091 9.5981e-05 -0.00030386
0.0001469 0.0025512 0.0016529 -0.00078867 -0.0011365 -0.00038239 0.22149 0.13927
-0.015598 0.0035748 0.0016151 0.0020595
0.0020836 -0.0020524 5.5187e-05 -0.0011107 0.00064099 -0.00093585 -0.015564 0.003612
0.15166 0.19668 -0.012205 0.0021286
-0.0012064 -5.583e-05 0.00027739 -0.0010966 8.4102e-05 -0.00031662 0.0016533 0.0020426
-0.012197 0.0021357 0.19 0.26184
1580000000 0.292 0.066736 -0.007883 0.013962 -0.00097049 -0.0051185 0.0014468 0.0019198
-0.00033689 -0.0021985 -0.0002391 0.00039052
-0.0078867 0.013951 0.17196 0.29801 0.0056948 0.0083524 0.00051788 -0.0016074
-0.00060104 -0.0010311 -0.00027602 -0.00081211
-0.0009898 -0.0051149 0.0057411 0.0083272 0.32935 -0.10478 -0.0016236 0.00061202
-0.00039369 -0.0011757 0.00028338 -0.00050459
0.0014456 0.001916 0.00050283 -0.0016096 -0.0016273 0.00060619 0.23482 0.099931
-0.011531 0.0085266 0.0022175 0.00071705
-0.00034708 -0.0021939 -0.0006358 -0.0010187 -0.00038565 -0.0011804 -0.011498 0.008574
0.17582 0.17826 -0.0095337 0.0078634
-0.00021222 0.0003572 -0.00027558 -0.00083057 0.00025033 -0.00047844 0.0022209 0.0007217
-0.0095186 0.0078854 0.22143 0.23483
1640000000 0.29436 0.025946 -0.00090542 0.012547 -0.0029736 -0.0027263 0.0027253 0.0010647
-0.00089345 -0.0015731 -0.00030955 0.00065451
-0.00091484 0.012538 0.20136 0.27366 0.006276 0.0033017 -0.00067141 -0.0017829
-0.0010339 -0.00037202 -0.00061023 -0.00062638
-0.0029749 -0.0027052 0.006313 0.0032733 0.30163 -0.15409 -0.0006722 0.0014563
-0.0010816 -0.0009339 -0.00022885 -0.00035227
0.0027287 0.0010485 -0.00068306 -0.0017833 -0.00067172 0.001458 0.24667 0.051606
-0.0068979 0.00968 0.0025161 -0.00077478
-0.0008876 -0.0015684 -0.0010341 -0.00036382 -0.0010701 -0.00093106 -0.0068661 0.0097099
0.19857 0.15403 -0.0044921 0.0098369
-0.00030459 0.00065513 -0.00062994 -0.00059754 -0.00021374 -0.0003499 0.0025128 -0.00082956
-0.0045105 0.009834 0.24678 0.20372
1700000000 0.28772 -0.019126 0.0025587 0.0093647 -0.0036212 3.4203e-06 0.0032083 -0.0012924
-0.0020109 -0.00056556 0.00060471 0.00049194
0.0025595 0.0093527 0.21959 0.24272 0.0040979 0.00027583 -0.0015182 -0.00059747
-0.00079082 7.8363e-05 -0.00087227 -0.00038166
-0.0036196 1.2201e-05 0.0040996 0.00025608 0.25885 -0.1942 0.00045405 0.0016361
-0.002017 5.2829e-05 -0.00041722 -0.00095137
0.0031914 -0.0012944 -0.0015206 -0.0005862 0.00046264 0.0016432 0.24338 0.0022191
-0.0037251 0.0097327 0.0016558 -0.0022783
-0.0020031 -0.00056204 -0.00079331 7.9623e-05 -0.0019729 3.8192e-05 -0.0037154 0.0098117
0.21578 0.13341 0.00035264 0.0099586
0.0006116 0.00051975 -0.0008609 -0.00037773 -0.0004597 -0.00098286 0.0016641 -0.0022951
0.000358 0.0099659 0.26285 0.16958
1760000000 0.27618 -0.06757 0.0046514 0.0058639 -0.0024501 0.00095679 0.0013228 -0.0034266
-0.0013864 0.00080773 0.00035671 -0.0004622
0.0046529 0.0058622 0.24581 0.20346 0.0016587 -0.0016368 -0.0012048 0.00021999
-0.0010464 0.00092181 -0.00058537 0.00042883
-0.0024382 0.00096943 0.0016518 -0.0016408 0.21094 -0.2279 0.0011447 0.0010367
-0.0012433 0.0014718 -0.0012124 -0.00057032
0.0013226 -0.0034367 -0.0012156 0.00022828 0.0011328 0.0010363 0.23467 -0.048623
-0.0005009 0.0086501 -6.3983e-06 -0.0027498
-0.0013814 0.00078254 -0.0010229 0.00091912 -0.0012191 0.0015095 -0.00050932 0.0086241
0.23034 0.098748 0.004351 0.0072291
0.00036343 -0.00047122 -0.00059002 0.00043104 -0.0012241 -0.0005883 -8.3707e-05 -0.0027024
0.0043226 0.0072278 0.2752 0.1318
1820000000 0.25208 -0.10481 0.0045138 0.0022804 -0.00030348 0.0025394 -0.0010594 -0.0031634
-0.0010203 0.00098124 6.2259e-06 -0.00015288
0.0045093 0.0022887 0.25641 0.17389 -0.00080069 -0.00029569 -0.0012536 0.00098101
-6.2382e-05 0.0012578 -0.00055216 0.0005109
-0.00029666 0.0025311 -0.00080408 -0.00029991 0.15986 -0.24395 0.0015966 0.00038396
-0.000134 0.0023274 -0.0014045 0.00032986
-0.0010653 -0.0031287 -0.0012404 0.00099201 0.0015936 0.00040609 0.20519 -0.09538
0.00070418 0.0071232 -0.0016908 -0.0015893
-0.0010196 0.0010153 -4.551e-05 0.0012599 -0.00016089 0.0023287 0.00072113 0.0070809
0.24716 0.070001 0.0051832 0.0036413
3.9886e-05 -0.00012396 -0.0005412 0.00050622 -0.0013588 0.00035674 -0.0017097 -0.0015847
0.0051745 0.0036188 0.27733 0.095355
1880000000 0.21757 -0.1455 0.0021904 4.4511e-05 -0.000489 0.0022229 -0.0029299 -0.0021758
-0.00019576 0.0018255 -1.7543e-05 -0.00063622
0.0021926 4.5981e-05 0.26149 0.12752 -0.0025986 0.0016346 -0.00016783 0.0016954
0.00060026 0.0013072 0.00012389 0.00086726
-0.00048509 0.0022302 -0.0025985 0.0016542 0.10801 -0.25318 0.0017787 -0.001005
0.0015761 0.0019704 -0.0011407 0.001307
-0.0029329 -0.002151 -0.00014881 0.0017025 0.0017717 -0.0010247 0.16513 -0.13586
0.0013504 0.0051199 -0.0025146 0.00033723
-0.00016332 0.0018217 0.00061555 0.0013196 0.0015806 0.0020026 0.0014125 0.0051047
0.25067 0.038558 0.0052738 0.0011835
-1.4951e-05 -0.00062722 0.00011977 0.00085626 -0.0011307 0.0012453 -0.002561 0.00031033
0.0052984 0.0012266 0.27722 0.061127
1940000000 0.17856 -0.17131 -0.00024298 -0.0013864 0.0013726 0.002086 -0.0036849 0.00045884
0.0014514 0.0010707 -0.000503 -0.0004942
-0.00023584 -0.0013838 0.26261 0.095711 -0.0013917 0.0040627 0.001154 0.0013176
0.0018889 0.00057516 0.00099609 0.0003705
0.0013866 0.0020979 -0.0013647 0.004071 0.062501 -0.24612 0.00060107 -0.002214
0.0023698 0.00036554 0.00053288 0.0017755
-0.0037082 0.00051582 0.0011433 0.0012997 0.00059242 -0.00221 0.11333 -0.16642
0.00072904 0.0040841 -0.0017123 0.0016896
0.0014712 0.0010393 0.0019213 0.00053691 0.0023877 0.00037917 0.00065001 0.0041448
0.2535 0.0007891 0.0037319 -0.002123
-0.00054384 -0.00043667 0.00098594 0.00034014 0.0006082 0.0017679 -0.0015962 0.0016681
0.0037373 -0.002125 0.26597 0.025081
2000000000 0.13264 -0.18679 -0.0038044 0.00066339 0.0026228 0.0015811 -0.0022714 0.0037497
0.0012966 0.00033867 -0.00058718 0.00061416
-0.0037986 0.00066624 0.24901 0.059986 -0.000949 0.0058521 0.0015899 0.00042451
0.0013686 -0.0011514 0.00041252 0.00011843
0.0026339 0.0015524 -0.00090849 0.0058585 0.01927 -0.23271 -0.0011662 -0.0014035
0.0020444 -0.001231 0.0013757 0.0016189
-0.0022673 0.0037822 0.0015883 0.0004145 -0.0011583 -0.001403 0.060001 -0.17724
-0.0005287 0.0036666 -0.00011493 0.0024792
0.0012633 0.0003413 0.0013579 -0.0011531 0.002032 -0.0012072 -0.00057169 0.0036173
0.24873 -0.032193 0.00060599 -0.0029979
