!Keysight Technologies,M9804A,MY58100912,A.14.10.03
!Date: Thursday, April 27, 2023 10:28:33
!Correction: S11(C  6-Port  ) 
!S12(C  6-Port  ) 
!S13(C  6-Port  ) 
!S14(C  6-Port  ) 
!S15(C  6-Port  ) 
!S16(C  6-Port  ) 
!S21(C  6-Port  ) 
!S22(C  6-Port  ) 
!S23(C  6-Port  ) 
!S24(C  6-Port  ) 
!S25(C  6-Port  ) 
!S26(C  6-Port  ) 
!S31(C  6-Port  ) 
!S32(C  6-Port  ) 
!S33(C  6-Port  ) 
!S34(C  6-Port  ) 
!S35(C  6-Port  ) 
!S36(C  6-Port  ) 
!S41(C  6-Port  ) 
!S42(C  6-Port  ) 
!S43(C  6-Port  ) 
!S44(C  6-Port  ) 
!S45(C  6-Port  ) 
!S46(C  6-Port  ) 
!S51(C  6-Port  ) 
!S52(C  6-Port  ) 
!S53(C  6-Port  ) 
!S54(C  6-Port  ) 
!S55(C  6-Port  ) 
!S56(C  6-Port  ) 
!S61(C  6-Port  ) 
!S62(C  6-Port  ) 
!S63(C  6-Port  ) 
!S64(C  6-Port  ) 
!S65(C  6-Port  ) 
!S66(C  6-Port  ) 
!S6P File: Measurement: :
# Hz S  RI   R 50
500000000 -0.33386 -0.051643 -0.010212 -0.0013164 -0.0087381 0.013288 -0.0040781 0.011586
0.013094 0.006457 -0.0038404 0.007474
-0.010252 -0.00096546 -0.41643 -0.062685 0.0081361 -0.010044 0.0020106 0.011692
0.0080313 0.002735 0.0015318 0.013255
-0.0088203 0.013449 0.0082156 -0.010279 -0.26717 0.19997 0.0066587 0.003274
-0.0018012 0.0090181 0.00051305 0.01208
-0.0039688 0.01146 0.0017989 0.011889 0.006716 0.0032717 -0.33167 0.044014
-0.018966 -0.0055992 0.016035 0.026065
0.013185 0.0061665 0.0084043 0.0025032 -0.0018481 0.0090613 -0.019085 -0.0056184
-0.24986 -0.1936 -0.026946 0.002312
-0.0040205 0.0066048 0.0015187 0.013406 0.000606 0.012303 0.016483 0.026358
-0.026251 0.0022173 -0.27404 -0.1185
560000000 -0.32005 0.11433 -0.023563 -0.06464 -0.00028616 0.013111 0.0059457 0.010388
0.009993 0.0050091 0.010621 0.0092028
-0.023431 -0.064355 -0.37416 0.098522 -0.041668 -0.037576 0.013753 0.0039913
-0.012984 -0.0041605 0.0047505 -0.00066614
-0.00049188 0.013078 -0.042036 -0.037179 -0.18602 0.25096 -0.00040651 -0.0050086
0.017969 0.0038964 0.0088467 -0.0049079
0.0059608 0.01082 0.013886 0.0036756 -0.00036937 -0.005027 -0.30657 0.13636
0.0062404 -0.023547 0.0047429 -0.021747
0.010375 0.0053061 -0.013176 -0.0032516 0.017792 0.0038612 0.0064306 -0.023305
-0.30921 -0.016274 0.0091216 -0.045961
0.010093 0.0097754 0.0046123 -0.00097758 0.0089447 -0.0048804 0.0048379 -0.021521
0.008616 -0.046412 -0.332 0.026597
620000000 -0.27723 0.094796 -0.023052 0.0086774 0.0043782 0.0097876 0.00851 -0.0051279
0.012741 -0.00063626 0.00019933 -0.0035214
-0.023017 0.0087497 -0.4036 0.049593 -0.018522 0.0010245 -0.0013651 -0.0018275
0.012039 -0.0064987 0.00074691 -0.0026458
0.0043474 0.0097045 -0.018563 0.0010239 -0.15506 0.26098 -0.00049066 -0.0052284
-0.0034165 -0.0030903 0.0093304 -0.0024802
0.0083304 -0.005343 -0.0013257 -0.0019317 -0.00050808 -0.0051902 -0.26545 0.14581
-0.039122 -0.019424 0.013583 0.026297
0.012683 -0.00065551 0.01198 -0.0062315 -0.003474 -0.0031088 -0.039207 -0.019889
-0.23057 -0.044892 -0.04056 0.012245
0.00073301 -0.0034457 0.00070117 -0.0028974 0.0094663 -0.0024296 0.01333 0.027019
-0.041067 0.01131 -0.24885 -0.0026495
680000000 -0.23981 0.18506 -0.026751 -0.014048 0.0052325 0.0054371 0.0016568 -0.007392
-0.0016148 -0.011666 0.0057667 -0.0072245
-0.026797 -0.014055 -0.38979 0.15038 -0.032622 -0.0019644 -0.0016816 -0.00038414
-0.0014636 -0.0095113 -0.00086382 -0.0023376
0.0053834 0.0054519 -0.032658 -0.0018659 -0.10361 0.28097 -0.0008058 -0.00013021
-0.0019364 0.00059345 -0.0026037 -0.0093352
0.0018969 -0.007093 -0.0016055 -0.0005018 -0.00076348 -0.00014007 -0.21892 0.19732
-0.024076 -0.0077713 -0.0087203 -0.0097251
-0.0016249 -0.011335 -0.0014518 -0.0095054 -0.0018999 0.00053386 -0.024253 -0.0079589
-0.27892 0.055331 -0.0084795 -0.0089724
0.0057883 -0.0070148 -0.00073533 -0.0025421 -0.00261 -0.0093145 -0.0088183 -0.0096843
-0.0086267 -0.0087779 -0.262 0.097538
740000000 -0.1932 0.17785 -0.039107 0.027198 0.013834 -0.0049953 -0.00040613 -0.0041208
-0.0046998 -0.003441 -0.0061402 0.0034942
-0.039108 0.027083 -0.33519 0.16878 -0.037059 0.034993 3.1236e-05 -0.0056363
-0.012458 0.0067277 -0.0013127 -0.0061524
0.013719 -0.0050165 -0.03707 0.035318 -0.070162 0.27777 -0.0022366 0.0036548
-0.0033717 -0.0064152 -0.0017848 0.0018037
-0.00053935 -0.0041807 -3.6012e-05 -0.0057255 -0.0021794 0.0036731 -0.20414 0.20438
-0.042349 -0.0062158 0.022213 0.014621
-0.0050049 -0.0031402 -0.01266 0.0069879 -0.0034581 -0.0065451 -0.042623 -0.0060267
-0.18167 0.082059 -0.040962 0.0033834
-0.0062988 0.0034379 -0.0013265 -0.0057916 -0.0019141 0.0019841 0.022191 0.014704
-0.041435 0.0030022 -0.2483 0.10321
800000000 -0.16154 0.22099 -0.022474 0.015974 0.0058057 -0.010796 -0.0048645 -0.0019053
-0.0047336 0.0020603 0.0037342 0.00039734
-0.022512 0.016037 -0.34083 0.23911 -0.008662 0.034212 -0.0023863 0.0021283
-0.0014755 0.0025694 0.00095779 0.0054187
0.0058119 -0.010802 -0.0085319 0.034238 -0.031526 0.3022 0.00071784 0.0015867
-3.9701e-05 0.0033985 -0.0020929 0.00088747
-0.0047867 -0.0017718 -0.0023614 0.0021128 0.0007222 0.001595 -0.17431 0.23204
-0.028774 0.013874 0.013912 -0.0104
-0.0046546 0.0021324 -0.001471 0.0025533 -4.7506e-05 0.0034197 -0.028796 0.013973
-0.22118 0.11173 -0.017673 0.020279
0.0040206 0.00051545 0.0010242 0.0052821 -0.0020098 0.00089236 0.014122 -0.010463
-0.017701 0.020217 -0.23917 0.15294
860000000 -0.12678 0.24123 -0.017726 0.030584 -0.0028476 -0.010518 -0.0015848 0.00050605
0.0037292 0.0056909 -0.0032862 -0.0029648
-0.017781 0.030566 -0.29288 0.28239 0.0075384 0.034911 0.00029157 0.0022456
0.0037164 0.0015759 0.0032857 0.00057389
-0.0029496 -0.010549 0.0076422 0.034959 0.015856 0.31094 -0.00064692 -2.6857e-05
0.0021963 -0.00097218 0.0020219 0.004107
-0.0016013 0.00039571 0.00025827 0.0022285 -0.00066575 -2.5513e-05 -0.13747 0.24289
-0.018256 0.018546 -0.0057573 -0.0084602
0.0038689 0.0055994 0.0037364 0.0013963 0.0022203 -0.0010087 -0.018069 0.018504
-0.16448 0.16369 -0.023193 0.017697
-0.0038657 -0.0025801 0.0030538 0.00065611 0.0020615 0.0040952 -0.0058303 -0.0085267
-0.023415 0.017722 -0.19042 0.19734
920000000 -0.10313 0.26438 0.0046914 0.03825 -0.0094065 -0.0051588 -0.0018665 0.0019544
0.0020873 0.00203 0.002628 -0.001524
0.0046408 0.038172 -0.2658 0.30343 0.028522 0.022903 0.0016245 0.0013484
0.007919 -0.00019537 0.0041658 -0.002466
-0.0094115 -0.0051847 0.028579 0.022864 0.061469 0.31258 0.0020522 4.0877e-05
0.0014198 -0.00034147 0.00084228 -0.0013775
-0.0016808 0.0020116 0.0016407 0.0013377 0.0020699 3.4507e-05 -0.11346 0.26004
-0.010585 0.031009 0.0033847 -0.0070161
0.00205 0.0018951 0.0079653 -0.0002823 0.0014083 -0.00032994 -0.010545 0.03111
-0.15184 0.16772 -0.0012532 0.026018
0.002583 -0.0016743 0.00417 -0.0025189 0.00081311 -0.0013472 0.0034545 -0.0071522
-0.0012762 0.025999 -0.19563 0.21042
980000000 -0.056749 0.28433 0.017128 0.030126 -0.0096982 0.004016 0.0018195 0.0033529
0.0042091 -0.0019889 -0.0033531 -0.0022578
0.01704 0.030083 -0.21269 0.33806 0.033945 0.0053163 0.0020775 -0.00022797
0.001846 -0.0061659 -0.00031349 -0.0026975
-0.0096482 0.0040635 0.033986 0.0052291 0.1075 0.30712 0.00065352 -0.0012007
0.00051999 -0.0020005 0.0013862 -0.00020088
0.0017089 0.0033081 0.0020555 -0.00021185 0.00064542 -0.0011962 -0.074932 0.27064
0.0077057 0.030538 -0.0091353 -0.007009
0.0041018 -0.0018986 0.0018038 -0.0062135 0.00046002 -0.0020146 0.0077592 0.030591
-0.11905 0.19775 0.0063391 0.020064
-0.0033177 -0.0022242 -0.00037967 -0.0025156 0.0013508 -0.0002329 -0.0091601 -0.0069146
0.0063108 0.020087 -0.15281 0.25428
1040000000 -0.015718 0.29354 0.03308 0.018869 -0.0018183 0.0071333 0.0024761 0.0008538
0.00043487 -0.0036406 -0.00036645 -0.0018634
0.033033 0.018854 -0.1782 0.35169 0.030447 -0.015022 0.0015732 -0.001876
-0.0021054 -0.003036 -0.0012524 -0.0032653
-0.0017834 0.0071482 0.030403 -0.015137 0.15375 0.29436 -0.00052234 -0.0017176
-0.0016222 -0.001103 -0.00061623 -0.0011093
0.0025267 0.00075395 0.0015518 -0.0018696 -0.00052624 -0.0017171 -0.047489 0.28085
0.020246 0.01909 -0.0027448 0.00073989
0.00047397 -0.0038206 -0.0020302 -0.0030239 -0.0016149 -0.0010644 0.020212 0.019108
-0.085562 0.20348 0.013731 0.01781
-0.00030021 -0.0019811 -0.0012718 -0.0032965 -0.00060231 -0.0010897 -0.0026869 0.00075009
0.013699 0.017621 -0.12944 0.27401
1100000000 0.028918 0.3026 0.03671 -0.0037185 0.002742 0.0043023 0.0023901 -0.0011448
-0.0022109 -0.002916 -0.0040687 -5.4675e-05
0.036633 -0.0036883 -0.13498 0.37036 0.016027 -0.028597 2.5868e-05 -0.0018938
-0.0038727 -0.00084191 -0.0036024 -0.00053609
0.0027752 0.0042732 0.015927 -0.028692 0.20041 0.27484 -0.0020252 0.0001304
-0.0019573 0.00052644 -0.0010569 -0.00039108
0.0023688 -0.0011099 -1.6631e-05 -0.0018946 -0.0020404 0.00013245 -0.0067196 0.28617
0.02597 0.0052778 -0.0026657 0.00025193
-0.0021914 -0.0028111 -0.0039014 -0.00082465 -0.0019796 0.00053786 0.025981 0.0052833
-0.065034 0.21638 0.019934 0.0079068
-0.0040266 -2.6392e-05 -0.0036774 -0.0005058 -0.0010539 -0.00039278 -0.0026249 0.00027071
0.019953 0.007888 -0.083835 0.30238
1160000000 0.080036 0.29893 0.024638 -0.021115 0.0027527 -0.00038316 -5.9996e-05 -0.0023655
-0.0039623 -0.0008747 -0.00098459 0.0041812
0.024615 -0.021066 -0.091368 0.3754 -0.003774 -0.030211 -0.001512 -0.0016525
-0.0028817 0.0026797 -0.0019007 0.0020152
0.0027622 -0.00039969 -0.0039049 -0.030216 0.24413 0.2444 -0.00089568 0.0018103
-0.00065714 0.0021044 -0.00091036 0.00046231
2.4128e-06 -0.0023741 -0.0015287 -0.0017338 -0.00089633 0.0017882 0.032748 0.28335
0.022164 -0.011443 -0.0032435 0.0049754
-0.0039229 -0.00084589 -0.0028614 0.0026794 -0.00067133 0.002144 0.022166 -0.011486
-0.030625 0.22397 0.018855 -0.0013319
-0.0010014 0.0041425 -0.0018758 0.0020785 -0.00089528 0.00049572 -0.0032756 0.0050502
0.018851 -0.0012875 -0.037123 0.30582
1220000000 0.12419 0.2894 0.010911 -0.030766 -0.0015839 -0.00088432 5.0313e-05 -0.0008901
-0.002893 0.0022151 0.0010653 0.0020685
0.010927 -0.03074 -0.046778 0.38874 -0.017606 -0.022194 -0.0027311 0.0005644
2.2582e-05 0.0033213 -0.00081955 0.0020448
-0.0015597 -0.00090239 -0.017747 -0.022127 0.28327 0.20508 0.00079415 0.0018769
0.00071595 0.0013084 0.00032462 0.00054193
8.4819e-06 -0.00086155 -0.0027348 0.00060525 0.00076652 0.0018788 0.073235 0.27452
0.011081 -0.018667 0.0018273 0.0015822
-0.0028357 0.0021928 2.5633e-05 0.0033306 0.00070225 0.001315 0.011054 -0.018708
-0.0069972 0.23231 0.013819 -0.013976
0.0011733 0.0020508 -0.0008198 0.0020819 0.00027652 0.00052706 0.0018477 0.0015461
0.013789 -0.013987 -0.0047156 0.31968
1280000000 0.17469 0.26892 -0.0082651 -0.029316 -0.0020566 0.0026426 -0.00079458 -0.0019995
-0.00090629 0.0033218 0.0025972 0.0012129
-0.0082717 -0.029309 -0.00011456 0.38037 -0.024948 -0.0088084 -0.00092293 0.0015692
0.0018622 0.001814 0.00069557 0.0021118
-0.0020502 0.0026488 -0.025016 -0.0086956 0.31343 0.16113 0.0016817 4.5422e-05
0.0013135 0.00031972 0.00026456 0.00031631
-0.00074619 -0.002002 -0.00092772 0.0015485 0.0016908 2.8856e-05 0.11042 0.25797
0.00034017 -0.020874 -0.00011265 0.00033991
-0.00087137 0.0033058 0.0018704 0.0018282 0.0013097 0.00032171 0.00031682 -0.020899
0.029711 0.23541 0.0027988 -0.016127
0.002594 0.0013218 0.00066768 0.0020917 0.00025162 0.00029286 -0.00022147 0.00032294
0.0027141 -0.0161 0.042178 0.32115
1340000000 0.21245 0.236 -0.018405 -0.019239 0.00086163 0.0049265 -0.0017532 -0.00093926
0.0013977 0.0027872 0.0019211 -0.0014295
-0.018338 -0.019223 0.039802 0.37216 -0.022437 0.0047021 4.1758e-05 0.0020794
0.0021339 0.00071972 0.0013338 0.00080879
0.00089833 0.004909 -0.022469 0.0048316 0.33492 0.11398 0.0011933 -0.0010502
0.00067289 -0.00070305 1.941e-05 0.00030663
-0.0017773 -0.00090325 9.1037e-05 0.0020772 0.0011947 -0.0010428 0.14334 0.23653
-0.0098663 -0.017696 0.00058101 0.00067853
0.0014401 0.0028075 0.0021323 0.00070646 0.00067423 -0.00072529 -0.0098943 -0.017674
0.060006 0.2305 -0.0047142 -0.014616
0.001863 -0.0013404 0.001283 0.00078993 -8.6649e-05 0.00026629 0.00067584 0.00067118
-0.0046718 -0.014634 0.080439 0.31526
1400000000 0.24637 0.1985 -0.024219 -0.0071686 0.0055667 0.0034644 -0.0022667 0.00061389
0.0025926 0.0010408 0.00029205 -0.0015995
-0.02417 -0.0071794 0.077538 0.3591 -0.015359 0.013226 0.0014141 0.0012728
0.0012899 -0.00094029 0.0011927 7.1778e-05
0.0055783 0.0034557 -0.015302 0.013321 0.34775 0.061471 -6.1358e-05 -0.0017242
4.885e-05 -0.00048476 0.00039266 0.00028585
-0.0022619 0.00060345 0.0014088 0.0012743 -6.9093e-05 -0.0017313 0.17268 0.20734
-0.016277 -0.0097625 -0.00077582 5.1829e-05
0.0025937 0.0010332 0.001276 -0.00094634 3.3372e-05 -0.00049646 -0.016317 -0.009726
0.093284 0.2256 -0.011287 -0.0090133
0.00028757 -0.0016624 0.0012066 6.0015e-05 0.00039448 0.00025283 -0.00083761 3.2326e-05
-0.011282 -0.0090422 0.12443 0.30352
1460000000 0.2698 0.15461 -0.020804 0.0055783 0.0061162 -0.0018383 -0.0015696 0.0017675
0.0022893 -0.0005949 -0.00039503 -0.00095761
-0.020768 0.0055543 0.11173 0.33688 -0.005905 0.01633 0.0017119 8.6142e-05
0.00082035 -0.001477 0.0012392 -0.00060655
0.0061153 -0.0018582 -0.0058161 0.016367 0.35433 0.0083371 -0.001277 -0.0013978
0.0001744 -0.00017752 0.00075365 -0.00018637
-0.0016162 0.0018145 0.0017318 8.715e-05 -0.0012592 -0.0013925 0.19883 0.17767
-0.017192 -0.0022023 -0.00074962 0.0021756
0.0022973 -0.00056549 0.00081319 -0.0014775 0.00019307 -0.00019825 -0.017192 -0.0021651
0.12279 0.21095 -0.013096 -0.0025695
-0.00038795 -0.00092814 0.0012084 -0.00062063 0.00077138 -0.00017365 -0.00071788 0.0021687
-0.013105 -0.0025436 0.15736 0.28268
1520000000 0.28233 0.11292 -0.01466 0.011056 0.0037146 -0.0045622 0.00017182 0.0026878
0.0021489 -0.002062 -0.0012241 -0.00012624
-0.014653 0.011035 0.14489 0.3224 0.0022074 0.01367 0.0016269 -0.00086457
-4.0923e-05 -0.0010838 0.00034589 -0.0010681
0.0036793 -0.0046097 0.0022858 0.013658 0.34831 -0.046942 -0.0011782 -0.00036165
0.00071964 -0.0010225 0.00013346 -0.00023546
0.00019652 0.0026509 0.0016184 -0.00085609 -0.0011743 -0.00037922 0.22148 0.13924
-0.015683 0.0044337 0.0018461 0.0021298
0.0021704 -0.0020357 -4.5114e-05 -0.0010825 0.00070476 -0.001005 -0.015695 0.0044593
0.15104 0.19719 -0.01259 0.0025102
-0.0012386 -5.6233e-05 0.00033398 -0.0010612 0.00012301 -0.0002364 0.0018121 0.0021347
-0.012583 0.00249 0.18962 0.26179
1580000000 0.29216 0.066766 -0.0074131 0.014105 -0.001008 -0.0053325 0.0015555 0.0019112
-0.00024303 -0.0023006 -0.00016379 0.00037265
-0.0074231 0.014086 0.17181 0.29781 0.0058981 0.0082516 0.0004411 -0.001626
-0.00063607 -0.00097044 -0.00024746 -0.00086697
-0.0010292 -0.0053344 0.005955 0.0082304 0.32948 -0.10431 -0.0016833 0.00071557
-0.00047299 -0.001259 0.00037093 -0.00067721
0.0015437 0.0019373 0.00045112 -0.0016266 -0.0016677 0.00073694 0.23468 0.09997
-0.011205 0.0091297 0.0022732 0.00066023
-0.00026647 -0.0023085 -0.00064197 -0.00095599 -0.00047516 -0.0012513 -0.01116 0.0091795
0.17542 0.1789 -0.0096306 0.0082266
-0.00012609 0.00034804 -0.00028542 -0.00088053 0.00035572 -0.0006867 0.002276 0.00061621
-0.0096148 0.0082236 0.2211 0.23504
1640000000 0.29429 0.025841 -0.00049474 0.012381 -0.0031015 -0.0028869 0.0027779 0.0010378
-0.00093966 -0.0016559 -0.00028219 0.00055474
-0.00049435 0.012368 0.20104 0.27344 0.0064018 0.0031529 -0.00068388 -0.0017257
-0.00097885 -0.0003204 -0.0005899 -0.00066708
-0.003101 -0.0029137 0.0064466 0.0031016 0.3015 -0.15355 -0.00064777 0.0015527
-0.0011929 -0.00093034 -0.00024717 -0.00038006
0.0027588 0.0010099 -0.00069751 -0.0017339 -0.00063544 0.0015455 0.24659 0.051493
-0.0060614 0.010049 0.0026332 -0.00087574
-0.00094392 -0.0016955 -0.00098128 -0.00030971 -0.0011959 -0.00088296 -0.0060725 0.010086
0.1985 0.15455 -0.0042957 0.01031
-0.00032875 0.00059518 -0.00058118 -0.00066361 -0.00025046 -0.00034569 0.0026284 -0.00087321
-0.004324 0.010326 0.24631 0.20385
1700000000 0.28723 -0.018973 0.0028134 0.0090553 -0.0038543 -4.1291e-05 0.003154 -0.0012963
-0.0021327 -0.00055547 0.00050896 0.0003773
0.0028083 0.0090454 0.21903 0.24269 0.0041385 6.4113e-05 -0.0015357 -0.00054558
-0.00074473 2.509e-05 -0.00089488 -0.00039971
-0.0038205 -4.3242e-05 0.0041524 5.9865e-05 0.2593 -0.19369 0.00047993 0.0015566
-0.0019926 -1.3123e-06 -0.00044322 -0.00089676
0.0031169 -0.001317 -0.0015369 -0.00054095 0.00044641 0.0015351 0.24327 0.0024174
-0.0029911 0.0097073 0.0016405 -0.0023409
-0.0021159 -0.00051383 -0.00075006 2.4134e-05 -0.0019973 -4.0986e-05 -0.0029727 0.0097213
0.21558 0.13387 0.00048282 0.010389
0.00056151 0.00043446 -0.00093546 -0.00038504 -0.00048371 -0.00087575 0.0016168 -0.0022939
0.00049149 0.010428 0.26255 0.16993
1760000000 0.27592 -0.067255 0.0047419 0.0054667 -0.0025882 0.0010856 0.0012105 -0.0034945
-0.0013666 0.0008199 0.00031296 -0.00046492
0.0047146 0.0054557 0.2453 0.20369 0.0015804 -0.0017897 -0.0011857 0.00019994
-0.0010104 0.00083256 -0.0006584 0.00043999
-0.0025719 0.0010948 0.0015746 -0.0018084 0.21144 -0.22763 0.0011479 0.00098425
-0.0011838 0.0014601 -0.0014087 -0.00063063
0.0011833 -0.0035214 -0.0011808 0.00021103 0.0011773 0.001033 0.23447 -0.048396
-0.00013339 0.0081098 -0.00020657 -0.0026471
-0.0013799 0.00080005 -0.0010011 0.00086216 -0.0011693 0.0014961 -0.00010486 0.0080899
0.2304 0.099043 0.004663 0.0074454
0.00027405 -0.00045684 -0.00064985 0.00044956 -0.0013916 -0.00064472 -0.00020708 -0.0026985
0.0046904 0.0074015 0.27528 0.13209
1820000000 0.25185 -0.10436 0.00438 0.0018841 -0.00032868 0.0027317 -0.0010792 -0.0031477
-0.00094453 0.0011217 9.4769e-06 -7.4367e-05
0.0043702 0.0019013 0.25596 0.17424 -0.00087703 -0.00042057 -0.0012875 0.00095932
-0.00010415 0.0012177 -0.00048775 0.00060909
-0.00029516 0.002744 -0.00087427 -0.00043714 0.16037 -0.24387 0.0015803 0.00041058
-9.3063e-05 0.0024686 -0.0016 0.00042997
-0.0010494 -0.0031058 -0.0012873 0.00098915 0.0015927 0.00037187 0.20524 -0.095061
0.00095071 0.0065491 -0.0016749 -0.0017884
-0.0009651 0.0011268 -7.8736e-05 0.0012083 -0.00010432 0.0024686 0.00096131 0.0065463
0.24714 0.070244 0.0055087 0.0036737
-5.8342e-05 -9.5122e-05 -0.00048518 0.00059143 -0.0015293 0.00039814 -0.0017143 -0.0018188
0.0054981 0.0036297 0.27734 0.095752
1880000000 0.21749 -0.14478 0.0019229 -0.00012651 -0.00046538 0.0023431 -0.0029438 -0.0021528
-9.1843e-05 0.0018179 2.9135e-05 -0.00060131
0.0018802 -0.00013029 0.26117 0.12813 -0.0027449 0.0016334 -0.00020397 0.0016605
0.00049433 0.0012885 9.3927e-05 0.00088345
-0.00050787 0.0023796 -0.0027644 0.0016343 0.10862 -0.25308 0.0016121 -0.00097206
0.0016007 0.0018675 -0.00091416 0.0014121
-0.0029737 -0.0021132 -0.00023238 0.0016759 0.0015872 -0.0009796 0.16537 -0.13543
0.0012929 0.004541 -0.0025538 7.4664e-05
-5.9288e-05 0.0017827 0.00049601 0.0012914 0.0015827 0.0018625 0.0013297 0.0045422
0.2508 0.038798 0.005726 0.00082583
2.3969e-05 -0.00055843 0.0001336 0.00087935 -0.00086822 0.0014311 -0.0025225 0.00011331
0.0057442 0.00087841 0.27724 0.061779
1940000000 0.17873 -0.17066 -0.00063314 -0.0014895 0.0013414 0.0021758 -0.0037327 0.00045074
0.0014327 0.00098293 -0.00045877 -0.00045869
-0.00063197 -0.0014647 0.26262 0.096331 -0.0015506 0.0041253 0.0011031 0.0013228
0.0018598 0.00055445 0.0010105 0.00031452
0.001365 0.0022103 -0.0015033 0.0041638 0.062848 -0.2463 0.00057549 -0.0020974
0.002491 0.00022146 0.00067042 0.0016484
-0.0037968 0.00049236 0.0011098 0.0012922 0.00057981 -0.0020683 0.11349 -0.16634
0.0003994 0.0035746 -0.0017703 0.0015333
0.0014079 0.00095296 0.001842 0.00052787 0.002459 0.00027951 0.0003932 0.0035981
0.25347 0.00077367 0.0040851 -0.0025793
-0.00055901 -0.0004643 0.0010063 0.00033186 0.00068419 0.0017 -0.0017085 0.0015427
0.0041756 -0.002564 0.26622 0.0248
2000000000 0.13309 -0.18604 -0.004105 0.0007707 0.0027443 0.0016406 -0.0024105 0.0037861
0.0011985 0.00025812 -0.00060054 0.00050672
-0.0041643 0.0007686 0.24916 0.060584 -0.0010384 0.0058806 0.0016431 0.00037715
0.0014713 -0.0010155 0.00037802 0.0001571
0.0027333 0.0015926 -0.00096782 0.0058844 0.019498 -0.23314 -0.001251 -0.001523
0.0020398 -0.0012806 0.0015978 0.0015491
-0.0023512 0.0038591 0.0016522 0.0003875 -0.001239 -0.001542 0.060538 -0.17756
-0.00068811 0.0033666 -0.00022245 0.0024986
0.0011435 0.00028298 0.0014917 -0.0010028 0.0020568 -0.0013112 -0.00064313 0.0033307
0.24853 -0.032032 0.00072353 -0.0033976
