!Keysight Technologies,M9804A,MY58100912,A.14.10.03
!Date: Thursday, April 27, 2023 10:28:33
!Correction: S11(C  6-Port  ) 
!S12(C  6-Port  ) 
!S13(C  6-Port  ) 
!S14(C  6-Port  ) 
!S15(C  6-Port  ) 
!S16(C  6-Port  ) 
!S21(C  6-Port  ) 
!S22(C  6-Port  ) 
!S23(C  6-Port  ) 
!S24(C  6-Port  ) 
!S25(C  6-Port  ) 
!S26(C  6-Port  ) 
!S31(C  6-Port  ) 
!S32(C  6-Port  ) 
!S33(C  6-Port  ) 
!S34(C  6-Port  ) 
!S35(C  6-Port  ) 
!S36(C  6-Port  ) 
!S41(C  6-Port  ) 
!S42(C  6-Port  ) 
!S43(C  6-Port  ) 
!S44(C  6-Port  ) 
!S45(C  6-Port  ) 
!S46(C  6-Port  ) 
!S51(C  6-Port  ) 
!S52(C  6-Port  ) 
!S53(C  6-Port  ) 
!S54(C  6-Port  ) 
!S55(C  6-Port  ) 
!S56(C  6-Port  ) 
!S61(C  6-Port  ) 
!S62(C  6-Port  ) 
!S63(C  6-Port  ) 
!S64(C  6-Port  ) 
!S65(C  6-Port  ) 
!S66(C  6-Port  ) 
!S6P File: Measurement: :
# Hz S  RI   R 50
500000000 -0.33367 -0.05268 -0.010696 -0.0018234 -0.0089491 0.013533 -0.0040558 0.011589
0.012027 0.0066874 -0.004696 0.0087898
-0.010637 -0.0017776 -0.41662 -0.0635 0.0077566 -0.010538 0.0015094 0.011497
0.0077232 0.0028925 0.0020721 0.013843
-0.0091624 0.013378 0.0076738 -0.010586 -0.26761 0.20015 0.0070598 0.0042157
-0.0022583 0.0077702 0.0012709 0.013005
-0.003861 0.011367 0.0014404 0.011246 0.0068408 0.0039785 -0.33285 0.042717
-0.01842 -0.0048853 0.016782 0.02555
0.012019 0.005839 0.0074585 0.0028552 -0.0020654 0.0080451 -0.018835 -0.0047632
-0.25012 -0.19263 -0.025729 0.0053903
-0.0046608 0.0071477 0.0014187 0.013122 0.0010027 0.01311 0.016301 0.025071
-0.025453 0.004417 -0.27066 -0.11855
560000000 -0.31962 0.11376 -0.022725 -0.06403 -0.0003401 0.013417 0.0049551 0.010886
0.011241 0.0045191 0.0095461 0.009211
-0.022857 -0.063854 -0.37405 0.099472 -0.042513 -0.037404 0.014656 0.0037213
-0.012746 -0.0046682 0.0049486 -0.00070575
-0.00058222 0.01329 -0.042543 -0.037394 -0.18543 0.25157 -0.00076957 -0.0039671
0.01952 0.0051274 0.0077222 -0.0040111
0.0047607 0.011801 0.014573 0.003562 -0.00035971 -0.0041326 -0.3068 0.13507
0.0044735 -0.023078 0.0056245 -0.020985
0.011529 0.0050427 -0.013157 -0.0035268 0.01959 0.0052303 0.0044763 -0.023477
-0.30835 -0.012773 0.0064278 -0.047558
0.011263 0.0091182 0.0052972 -0.00078251 0.0069422 -0.0044888 0.0061143 -0.02173
0.0071899 -0.046795 -0.33115 0.026948
620000000 -0.27836 0.094755 -0.02305 0.0088202 0.0038664 0.0096191 0.0078435 -0.0039748
0.013171 -0.0016156 -0.00046007 -0.0019873
-0.023099 0.00881 -0.4038 0.050159 -0.01837 0.00093572 -0.0014664 -0.0019555
0.01231 -0.0061354 0.0014374 -0.0030507
0.0039999 0.0093876 -0.018475 0.00084749 -0.15546 0.26107 -0.00024518 -0.0051117
-0.0033011 -0.0032461 0.0090464 -0.0024962
0.0081932 -0.0048622 -0.0014141 -0.0020644 -0.00073776 -0.0050108 -0.26575 0.14644
-0.038878 -0.019736 0.01214 0.027793
0.011808 -0.00057284 0.012168 -0.0059658 -0.0029882 -0.0029182 -0.039741 -0.019937
-0.23138 -0.044634 -0.039823 0.011994
0.00092564 -0.0016272 0.0012446 -0.0028972 0.0093987 -0.002776 0.012548 0.027054
-0.039528 0.012359 -0.25248 -0.0048843
680000000 -0.23904 0.18558 -0.026685 -0.013678 0.0054289 0.0053673 0.00091175 -0.0073348
-0.0013167 -0.012317 0.0052667 -0.0070616
-0.026586 -0.013753 -0.38973 0.15135 -0.031974 -0.0019094 -0.0014111 -0.00012618
-0.0013633 -0.0097616 -0.0008268 -0.002196
0.0051397 0.0056235 -0.032061 -0.0015585 -0.10295 0.28142 -0.0009545 -0.00022587
-0.0016292 7.6686e-05 -0.0029528 -0.0095605
0.00097534 -0.0067225 -0.0014443 2.2761e-05 -0.00067915 -0.00044609 -0.22044 0.19766
-0.023525 -0.0075007 -0.0086809 -0.010624
-0.0018934 -0.011836 -0.0013777 -0.0094988 -0.0016521 0.0003935 -0.023374 -0.0073078
-0.27939 0.056268 -0.0079297 -0.0078954
0.0051075 -0.0059428 -0.00062544 -0.0017496 -0.0026031 -0.0091836 -0.0090695 -0.010339
-0.0081067 -0.0079687 -0.26129 0.097372
740000000 -0.19398 0.17832 -0.039107 0.026841 0.013582 -0.0043791 0.00011004 -0.0046853
-0.0044661 -0.0034237 -0.0063351 0.0030715
-0.038938 0.026858 -0.33504 0.16967 -0.036589 0.034364 -0.00024254 -0.0059417
-0.012583 0.0070378 -0.001429 -0.0064119
0.013446 -0.0043932 -0.036575 0.034546 -0.069062 0.2787 -0.0021928 0.0031515
-0.0028945 -0.006099 -0.0014187 0.0012764
0.0002215 -0.0045126 -0.00040011 -0.0059579 -0.0021493 0.0031679 -0.20362 0.20481
-0.04259 -0.0066686 0.022795 0.014979
-0.0051778 -0.0036165 -0.013135 0.0072278 -0.0029598 -0.0063748 -0.042631 -0.0069279
-0.18015 0.086501 -0.040648 0.0001704
-0.0062642 0.0033954 -0.0014977 -0.006864 -0.0015018 0.0012184 0.022792 0.014937
-0.040759 0.00083535 -0.24812 0.10389
800000000 -0.16061 0.22151 -0.022332 0.016147 0.0055234 -0.010559 -0.0046949 -0.0019414
-0.0050519 0.0021055 0.0038687 0.00048921
-0.022287 0.016129 -0.34066 0.2399 -0.0086605 0.033811 -0.0024341 0.002103
-0.0016665 0.0027734 0.00077438 0.0053686
0.0056119 -0.01037 -0.0085059 0.033983 -0.030782 0.30211 0.00086211 0.0016231
-0.00030069 0.0037704 -0.0017557 0.00096032
-0.0051362 -0.0019128 -0.002602 0.0021226 0.00085426 0.0014835 -0.17395 0.23291
-0.028112 0.013413 0.013633 -0.010265
-0.0048169 0.0021691 -0.0017081 0.0027432 -0.00029386 0.0036207 -0.028021 0.01352
-0.22233 0.11294 -0.016141 0.020534
0.0034385 0.0011734 0.00043737 0.005491 -0.0016303 0.0006893 0.013405 -0.010015
-0.016377 0.020649 -0.24073 0.1527
860000000 -0.12665 0.24168 -0.017584 0.030314 -0.002777 -0.010166 -0.0017695 0.00041837
0.0041161 0.0056131 -0.0034329 -0.0025311
-0.017572 0.030308 -0.29195 0.28263 0.0075552 0.034319 8.7496e-05 0.0022329
0.0037902 0.00087175 0.0033156 0.0011176
-0.0029569 -0.010206 0.0075265 0.034427 0.016588 0.3105 -0.00071456 0.0001014
0.0025541 -0.0013328 0.0015444 0.0042968
-0.0015404 0.00056933 0.00024776 0.0020496 -0.00084048 0.00010529 -0.13669 0.24281
-0.017647 0.018648 -0.0060599 -0.0087021
0.0043245 0.0053604 0.0038074 0.00079248 0.0024137 -0.0013198 -0.017512 0.01843
-0.1636 0.16359 -0.023059 0.017517
-0.0037452 -0.0031884 0.0031511 0.00098293 0.0015391 0.0045415 -0.0060273 -0.008826
-0.023325 0.017483 -0.19082 0.19719
920000000 -0.10269 0.2643 0.004555 0.037943 -0.0092987 -0.0050682 -0.0017238 0.0015777
0.0015411 0.0023927 0.0030437 -0.0012838
0.0045756 0.037902 -0.26514 0.30392 0.028112 0.022638 0.0013834 0.0012814
0.0077487 0.00027366 0.0043586 -0.002713
-0.0092189 -0.0051563 0.028204 0.022617 0.061888 0.31204 0.0021897 3.3958e-05
0.0013011 -6.0437e-05 0.0011216 -0.0013746
-0.001929 0.0017424 0.0015046 0.00124 0.0022096 -6.9821e-05 -0.11243 0.25983
-0.010387 0.030458 0.0036376 -0.0066794
0.0015856 0.0022483 0.0078249 0.00021293 0.0012838 -3.6693e-05 -0.010254 0.030787
-0.15217 0.16866 -0.0013466 0.026276
0.0032353 -0.0013479 0.0043723 -0.0029277 0.0010131 -0.0014234 0.0034209 -0.0065497
-0.0011252 0.026342 -0.19567 0.21039
980000000 -0.056365 0.28448 0.016936 0.029971 -0.0094891 0.0039943 0.001714 0.0034379
0.0039455 -0.0019101 -0.0029595 -0.0024693
0.016904 0.02996 -0.21204 0.33831 0.033411 0.0053853 0.0021792 -0.00013821
0.0018738 -0.0061611 -0.0001674 -0.0027277
-0.0094499 0.0040579 0.033471 0.0052958 0.10771 0.30636 0.00071753 -0.0011899
0.00048242 -0.0019906 0.0015209 -7.7329e-05
0.0017746 0.0034465 0.0020391 -0.00011739 0.00067236 -0.0012014 -0.074381 0.27022
0.0072579 0.029965 -0.0091551 -0.0064724
0.0039015 -0.0021332 0.001723 -0.0061331 0.00038464 -0.0020022 0.0074266 0.029784
-0.11821 0.19817 0.0064634 0.019233
-0.0028504 -0.0024577 -8.5355e-05 -0.0025649 0.0014638 -6.7447e-05 -0.0091614 -0.006446
0.0063777 0.019356 -0.15319 0.25392
1040000000 -0.015386 0.2932 0.032879 0.018695 -0.0017195 0.007023 0.0025984 0.0010658
0.00021351 -0.0033183 -0.00042633 -0.0015302
0.032863 0.018699 -0.17707 0.35174 0.030095 -0.014622 0.0016268 -0.0017494
-0.002155 -0.0029406 -0.0008981 -0.0029432
-0.0016742 0.0070034 0.030058 -0.014725 0.15355 0.29359 -0.00053604 -0.0016352
-0.0016175 -0.0010886 -0.00057729 -0.0010552
0.0024619 0.00090587 0.0015835 -0.0018394 -0.00050451 -0.0016651 -0.046976 0.28
0.019391 0.018875 -0.0025581 0.00076494
0.00018357 -0.0031873 -0.0022344 -0.002979 -0.0016412 -0.0010784 0.019558 0.018859
-0.085447 0.20375 0.01397 0.017909
-0.00012454 -0.001452 -0.00091975 -0.0029659 -0.00068311 -0.0010764 -0.0027047 0.00077356
0.014099 0.018051 -0.12936 0.27325
1100000000 0.029636 0.30269 0.036249 -0.003603 0.0026123 0.0041733 0.0024196 -0.00090776
-0.0021211 -0.0030161 -0.0039497 -0.00010355
0.036216 -0.0035779 -0.13413 0.36977 0.015909 -0.028078 0.00010038 -0.0018344
-0.0036851 -0.0010596 -0.0037603 -0.00061834
0.0026738 0.004136 0.015829 -0.028178 0.19995 0.27426 -0.0020017 4.5453e-05
-0.0018941 0.00041899 -0.0011433 -0.00038658
0.0025146 -0.00085802 0.00012263 -0.0018324 -0.0020356 2.8955e-05 -0.0068479 0.28501
0.025261 0.0053815 -0.0025995 3.0452e-05
-0.0021888 -0.0030702 -0.0037894 -0.0010534 -0.0018759 0.00043342 0.025279 0.005363
-0.064489 0.21686 0.020045 0.007954
-0.0039328 -0.00015469 -0.003696 -0.0005598 -0.001212 -0.00035491 -0.0024853 7.639e-06
0.019842 0.0079557 -0.084302 0.302
1160000000 0.080275 0.29845 0.024296 -0.020731 0.0026476 -0.00038962 6.3615e-05 -0.0022414
-0.0040505 -0.00090482 -0.001003 0.004217
0.024282 -0.020701 -0.090913 0.37454 -0.0033891 -0.029803 -0.0015459 -0.0018014
-0.0028289 0.0025497 -0.001547 0.002044
0.0026259 -0.00036929 -0.0035307 -0.029819 0.24321 0.24405 -0.00097788 0.0017843
-0.00063191 0.0020266 -0.00073086 0.00025051
3.8979e-05 -0.0022802 -0.0016404 -0.0017587 -0.00095023 0.0018064 0.032164 0.28239
0.021566 -0.010657 -0.0033173 0.0049243
-0.0040052 -0.00092545 -0.0028058 0.0025623 -0.00063091 0.0020593 0.021624 -0.010739
-0.029672 0.22343 0.018474 -0.0011428
-0.0010701 0.0041412 -0.0016605 0.0020505 -0.00072607 0.00029759 -0.0032999 0.004788
0.018567 -0.001121 -0.037711 0.30531
1220000000 0.12453 0.28907 0.01091 -0.030246 -0.0016745 -0.00079489 0.00010531 -0.00092799
-0.0028805 0.0021784 0.0010585 0.0020486
0.010929 -0.030208 -0.04684 0.38772 -0.017114 -0.022036 -0.0027145 0.00045811
-0.00013218 0.0033302 -0.0010093 0.0020328
-0.0016743 -0.00084125 -0.017268 -0.022012 0.28247 0.20549 0.00074432 0.0019237
0.00066906 0.0013166 0.00016001 0.00066144
8.4649e-05 -0.00091113 -0.0026687 0.00051275 0.00070512 0.0019239 0.072183 0.27398
0.010948 -0.017807 0.0018236 0.0015153
-0.0028181 0.0021334 -0.00016817 0.0033577 0.00063468 0.0013311 0.010969 -0.017813
-0.0065038 0.23132 0.013728 -0.013705
0.0010379 0.0021504 -0.00093659 0.0019868 0.0002381 0.00061266 0.0017031 0.0016725
0.013755 -0.013697 -0.0053076 0.31889
1280000000 0.17485 0.26838 -0.0079874 -0.02895 -0.0020406 0.0027553 -0.0007721 -0.0021092
-0.00088997 0.0031469 0.0026256 0.0013942
-0.0079449 -0.028921 -0.00086234 0.37955 -0.02447 -0.0090022 -0.00099902 0.0015129
0.001833 0.0018583 0.00071368 0.002163
-0.0020517 0.002736 -0.024513 -0.0089064 0.31313 0.16183 0.0016965 -4.2861e-05
0.0013835 0.00031937 0.00046523 0.00015525
-0.0007194 -0.0021463 -0.00099842 0.0015632 0.001731 -1.3933e-05 0.10916 0.25799
0.00082123 -0.020023 -0.00031763 0.00051742
-0.000835 0.0032182 0.001841 0.0018816 0.0013415 0.00032396 0.00084357 -0.020093
0.029882 0.23414 0.0026394 -0.015729
0.0026255 0.001401 0.00067231 0.0021915 0.0004125 0.00020607 -0.00017984 0.00036806
0.0028068 -0.01576 0.042025 0.32047
1340000000 0.21237 0.23581 -0.017941 -0.019106 0.00084344 0.0049281 -0.0018014 -0.0010075
0.0013841 0.0026576 0.0019557 -0.0013958
-0.017891 -0.019088 0.038772 0.37204 -0.022262 0.004231 -7.2838e-05 0.0021366
0.0021745 0.00075508 0.0013153 0.00080128
0.00087828 0.0049355 -0.022288 0.0043075 0.33506 0.11489 0.0012571 -0.00097202
0.00061972 -0.00065173 -2.2037e-05 0.000263
-0.0018249 -0.0010343 -3.2416e-05 0.0021662 0.0012472 -0.0010156 0.14238 0.23734
-0.0089874 -0.01731 0.00067974 0.00082378
0.0014342 0.0026649 0.0021362 0.00068728 0.00064228 -0.00064968 -0.0089814 -0.017254
0.059388 0.22954 -0.0044903 -0.014351
0.0019054 -0.00144 0.0012955 0.00075879 -4.0116e-05 0.00020177 0.00056694 0.00090825
-0.0045815 -0.014373 0.079662 0.315
1400000000 0.24639 0.19832 -0.023717 -0.0073236 0.0056115 0.0034399 -0.0023152 0.00062786
0.0024369 0.0010528 0.00043615 -0.0016418
-0.02369 -0.0073314 0.076594 0.35969 -0.015477 0.01286 0.0014534 0.0013578
0.0014256 -0.00088414 0.0012076 0.00011602
0.0055773 0.0034116 -0.015431 0.012924 0.34849 0.062085 5.0908e-05 -0.0018162
9.0483e-05 -0.00049153 0.00035326 0.00029219
-0.0023446 0.00060992 0.0014709 0.0013409 8.0647e-05 -0.0017587 0.17213 0.20826
-0.015351 -0.010027 -0.00067064 2.5378e-05
0.002378 0.0010638 0.0014164 -0.00088586 6.3912e-05 -0.00049152 -0.015401 -0.010043
0.092433 0.22463 -0.010948 -0.0087227
0.00034861 -0.001674 0.0011314 7.7666e-05 0.00029966 0.00033889 -0.00060657 5.6391e-05
-0.010909 -0.0086324 0.12367 0.3037
1460000000 0.26989 0.15457 -0.020455 0.0051298 0.0061101 -0.001852 -0.0016261 0.001874
0.0022366 -0.00043124 -0.00040645 -0.0010544
-0.020453 0.00511 0.11123 0.33805 -0.0062569 0.016085 0.001786 0.00013855
0.00088665 -0.00154 0.001187 -0.00052061
0.0061099 -0.0018546 -0.0061666 0.016138 0.35518 0.0083115 -0.00127 -0.0013656
0.00015926 -0.00016107 0.00069762 -0.0002836
-0.0016228 0.0018326 0.0017902 0.00016918 -0.0012845 -0.0013519 0.19879 0.17864
-0.016668 -0.002953 -0.00061588 0.0021512
0.0023118 -0.00048505 0.00081631 -0.0015225 0.00018366 -0.00015014 -0.016661 -0.0028745
0.12176 0.21047 -0.012681 -0.0026353
-0.00048913 -0.0010276 0.0012612 -0.00060133 0.00070086 -0.00025145 -0.00064556 0.0021603
-0.012774 -0.0026942 0.15661 0.28285
1520000000 0.28276 0.11306 -0.014591 0.010611 0.0036391 -0.0045105 0.00012652 0.0027386
0.0021636 -0.0019953 -0.0012636 -0.00011134
-0.014594 0.010585 0.14507 0.3237 0.0018932 0.013729 0.0016308 -0.00085314
-6.7631e-05 -0.0011778 0.00031425 -0.0011078
0.0036202 -0.0045439 0.0019579 0.013729 0.3491 -0.047349 -0.0012583 -0.00035344
0.00066141 -0.0009025 9.2352e-05 -0.00029456
0.00015121 0.0027679 0.0016536 -0.00087599 -0.0012756 -0.00035461 0.22198 0.1403
-0.015722 0.0034408 0.0017328 0.0021564
0.002152 -0.0019867 -4.398e-05 -0.0011722 0.00063482 -0.00088189 -0.015726 0.0034298
0.14981 0.19724 -0.012399 0.0022588
-0.0012545 -0.00014984 0.00035397 -0.0010529 6.1081e-05 -0.0003369 0.0018748 0.0021603
-0.012331 0.0022578 0.18903 0.26215
1580000000 0.29289 0.066724 -0.0077028 0.013635 -0.00087421 -0.0052883 0.001617 0.0019931
-0.00011992 -0.0022277 -0.00028863 0.00031486
-0.0077081 0.01362 0.17268 0.299 0.0057466 0.0085272 0.00045328 -0.0016485
-0.00060152 -0.00097378 -0.00014658 -0.00093666
-0.0009408 -0.0053075 0.0058272 0.0085127 0.32991 -0.10513 -0.0016699 0.00068556
-0.000375 -0.00119 0.00032857 -0.00054305
0.0016313 0.0020335 0.00046274 -0.0016354 -0.0016511 0.00071935 0.23563 0.10043
-0.011774 0.0083522 0.0024666 0.00067232
-8.9913e-05 -0.002255 -0.00063575 -0.00098124 -0.00040781 -0.0011423 -0.01174 0.0084378
0.17432 0.17956 -0.0093046 0.0079123
-0.00023313 0.00044978 -0.00015389 -0.00090059 0.00034148 -0.00056118 0.0023767 0.00063465
-0.0093766 0.0078588 0.22065 0.23494
1640000000 0.29509 0.025465 -0.00098739 0.012246 -0.0030329 -0.0027987 0.0027798 0.0011219
-0.00084248 -0.0017109 -0.00052532 0.00064431
-0.0010053 0.012233 0.20243 0.2743 0.006397 0.0034189 -0.00067862 -0.0017069
-0.0010307 -0.00031417 -0.00057455 -0.00070976
-0.0029995 -0.002784 0.0064341 0.0034035 0.30189 -0.15438 -0.00060772 0.0015551
-0.0011436 -0.00097254 -0.00023 -0.00025642
0.0028414 0.0010842 -0.00069975 -0.0017679 -0.00063513 0.001561 0.24771 0.051693
-0.0070021 0.0098773 0.0025976 -0.00088862
-0.00084807 -0.0016589 -0.0010475 -0.00032485 -0.0011492 -0.00097289 -0.0070238 0.0098781
0.19766 0.15559 -0.0045084 0.0099193
-0.00051702 0.00065117 -0.00055035 -0.00070579 -0.00020817 -0.00028328 0.0025963 -0.0008829
-0.0044373 0.0099856 0.24584 0.20428
1700000000 0.28821 -0.019847 0.0023869 0.0092062 -0.0037932 -0.00011401 0.0031493 -0.0014161
-0.0020796 -0.00068917 0.00057292 0.00050719
0.0023659 0.0091887 0.22085 0.24289 0.004251 0.00022622 -0.0014872 -0.00061982
-0.0007558 5.1989e-05 -0.00098038 -0.0005048
-0.0037672 -9.9963e-05 0.0042325 0.0002006 0.25893 -0.1945 0.00051079 0.0015714
-0.002005 -2.0124e-05 -0.00051578 -0.0009597
0.0031587 -0.0014394 -0.0015053 -0.00057155 0.00056735 0.001576 0.24441 0.0017686
-0.0038023 0.0099604 0.0015791 -0.0024303
-0.0020516 -0.0006925 -0.00074643 7.1942e-05 -0.0020188 -2.7086e-05 -0.0037869 0.01002
0.21547 0.13507 0.00029025 0.010114
0.00055377 0.00048244 -0.00093263 -0.00052457 -0.00051249 -0.00091865 0.0015078 -0.0024165
0.00014943 0.010075 0.26202 0.16996
1760000000 0.27634 -0.068542 0.0045301 0.005786 -0.0024986 0.0010507 0.0012364 -0.0035091
-0.0014975 0.00074929 0.00032601 -0.000548
0.0045205 0.0057872 0.24709 0.20315 0.0017725 -0.0017766 -0.0012226 0.00018309
-0.0010213 0.00082778 -0.00071367 0.00041029
-0.002504 0.0010283 0.0017887 -0.0017763 0.21075 -0.22819 0.0012035 0.0010411
-0.0012668 0.0015736 -0.0013454 -0.00048726
0.0012295 -0.0035342 -0.0012402 0.00018193 0.0011796 0.0010251 0.235 -0.049611
-0.00046828 0.0088408 -9.4374e-05 -0.0025886
-0.0015082 0.00074769 -0.0010428 0.0008719 -0.0012539 0.0015671 -0.00043174 0.008772
0.23066 0.10022 0.004217 0.007453
0.00037325 -0.00059889 -0.00066227 0.00044563 -0.001296 -0.00051663 -0.00010364 -0.0026298
0.0043249 0.007367 0.2748 0.13257
1820000000 0.25194 -0.10575 0.0044121 0.0022087 -0.0004066 0.0026258 -0.0011618 -0.0031423
-0.0011392 0.0010441 -6.3659e-05 4.1035e-05
0.0044082 0.002231 0.25749 0.17306 -0.00073234 -0.00052442 -0.0013436 0.00093397
-0.00012525 0.0011859 -0.00065987 0.000631
-0.00037527 0.0026364 -0.00074974 -0.00053946 0.15983 -0.24404 0.0015142 0.00036764
-0.00017972 0.0024382 -0.0015502 0.00048388
-0.0011508 -0.0031134 -0.0013663 0.00094731 0.0015829 0.00030089 0.20514 -0.096483
0.000921 0.0071893 -0.0019728 -0.0018192
-0.0010877 0.0010887 -0.00011777 0.0011854 -0.00018199 0.0024351 0.0009711 0.0072716
0.24789 0.071129 0.005183 0.0036865
-3.8593e-05 6.0218e-05 -0.00063448 0.00061973 -0.0015908 0.0004836 -0.0019191 -0.0017487
0.0052301 0.0037443 0.2767 0.096322
1880000000 0.21689 -0.1464 0.0020612 -6.4692e-05 -0.00061384 0.0023271 -0.0029614 -0.0020961
-0.00018245 0.0018544 8.2539e-05 -0.00075779
0.0020633 -7.8273e-05 0.26211 0.12635 -0.0028122 0.0014463 -0.00020235 0.0017753
0.00052415 0.0013067 0.00010821 0.00095895
-0.0006306 0.0022613 -0.0027846 0.001436 0.10779 -0.25333 0.0016908 -0.0009355
0.0016681 0.0019206 -0.0010161 0.0013664
-0.0029978 -0.0021407 -0.00023482 0.0017695 0.0016713 -0.00089715 0.16454 -0.1368
0.0017512 0.0050609 -0.0024457 0.00020969
-0.00015196 0.0017908 0.00055847 0.0013211 0.0016486 0.0019109 0.0018153 0.005065
0.25201 0.039421 0.0055306 0.0012841
1.1877e-05 -0.00073909 0.00013522 0.00096706 -0.00095189 0.0013249 -0.0023588 0.00029551
0.00544 0.0012897 0.27693 0.062644
1940000000 0.17777 -0.17183 -0.00046001 -0.0014567 0.0013806 0.0022974 -0.0036033 0.00046433
0.0015064 0.0011817 -0.00038224 -0.00033884
-0.0004729 -0.0014671 0.26277 0.094492 -0.0017227 0.0041015 0.0012283 0.0013863
0.0018916 0.00066713 0.0011411 0.00046739
0.0013892 0.0022429 -0.0016603 0.004106 0.062 -0.24621 0.00052395 -0.0020768
0.0024721 0.00034285 0.00084691 0.0016732
-0.003589 0.00054409 0.0011984 0.0013486 0.00041233 -0.0021098 0.11217 -0.16724
0.00092825 0.0036597 -0.0016721 0.0015704
0.0015131 0.0011773 0.0018851 0.00065989 0.0023928 0.00033564 0.00087522 0.0035671
0.25483 0.00093401 0.004062 -0.0021404
-0.00037484 -0.00036567 0.0011512 0.00048102 0.00090839 0.0017325 -0.001678 0.0016849
0.0041123 -0.0021275 0.26616 0.026102
2000000000 0.13181 -0.18658 -0.0041702 0.00075869 0.0028369 0.0017254 -0.0023669 0.0036964
0.0012372 0.00025299 -0.00066454 0.00070362
-0.0041519 0.0007627 0.24866 0.05888 -0.0010466 0.0060611 0.0016514 0.00033797
0.0014917 -0.0010612 0.00055141 0.00015037
0.0028673 0.0016616 -0.00099987 0.006049 0.019208 -0.23247 -0.0011405 -0.00147
0.0020804 -0.0012465 0.0015424 0.00137
-0.0023477 0.0036848 0.0016167 0.00036782 -0.0010936 -0.0015038 0.059066 -0.17707
-0.00042431 0.0034094 6.8432e-06 0.0023817
0.0011706 0.00026455 0.0014405 -0.0010843 0.0021084 -0.0012549 -0.00044381 0.0035959
0.24982 -0.032418 0.00087705 -0.0031669
