!Keysight Technologies,M9804A,MY58100912,A.14.10.03
!Date: Thursday, April 27, 2023 10:28:33
!Correction: S11(C  6-Port  ) 
!S12(C  6-Port  ) 
!S13(C  6-Port  ) 
!S14(C  6-Port  ) 
!S15(C  6-Port  ) 
!S16(C  6-Port  ) 
!S21(C  6-Port  ) 
!S22(C  6-Port  ) 
!S23(C  6-Port  ) 
!S24(C  6-Port  ) 
!S25(C  6-Port  ) 
!S26(C  6-Port  ) 
!S31(C  6-Port  ) 
!S32(C  6-Port  ) 
!S33(C  6-Port  ) 
!S34(C  6-Port  ) 
!S35(C  6-Port  ) 
!S36(C  6-Port  ) 
!S41(C  6-Port  ) 
!S42(C  6-Port  ) 
!S43(C  6-Port  ) 
!S44(C  6-Port  ) 
!S45(C  6-Port  ) 
!S46(C  6-Port  ) 
!S51(C  6-Port  ) 
!S52(C  6-Port  ) 
!S53(C  6-Port  ) 
!S54(C  6-Port  ) 
!S55(C  6-Port  ) 
!S56(C  6-Port  ) 
!S61(C  6-Port  ) 
!S62(C  6-Port  ) 
!S63(C  6-Port  ) 
!S64(C  6-Port  ) 
!S65(C  6-Port  ) 
!S66(C  6-Port  ) 
!S6P File: Measurement: :
# Hz S  RI   R 50
500000000 -0.33429 -0.053273 -0.009923 -0.0020668 -0.0080219 0.012941 -0.0052004 0.012359
0.01244 0.0046051 -0.0052527 0.0084017
-0.0098869 -0.0020411 -0.416 -0.0629 0.0082841 -0.010761 0.0017909 0.011581
0.0082842 0.0033 0.0019767 0.01322
-0.0080026 0.012972 0.0082469 -0.010792 -0.2669 0.19969 0.0067114 0.0033902
-0.0013986 0.0085316 0.00050532 0.012462
-0.0051301 0.012401 0.0017916 0.011527 0.0067624 0.0033929 -0.33153 0.043967
-0.018377 -0.0045415 0.01676 0.025754
0.01249 0.0046446 0.0084171 0.0033068 -0.0014219 0.0085068 -0.018422 -0.0046528
-0.24822 -0.19207 -0.025873 0.0049911
-0.0054993 0.0081825 0.002105 0.01321 0.00046238 0.012394 0.016836 0.024825
-0.025568 0.0059077 -0.27262 -0.11948
560000000 -0.31727 0.11377 -0.023224 -0.064791 0.00020896 0.012788 0.0046724 0.010721
0.010506 0.0050425 0.010764 0.0082148
-0.023141 -0.064715 -0.37598 0.099184 -0.041769 -0.037247 0.013576 0.0033917
-0.014655 -0.0044931 0.0046217 -0.0011501
0.00023088 0.012812 -0.04189 -0.037177 -0.18582 0.25101 -0.00054303 -0.0049379
0.019138 0.0051236 0.0081798 -0.0061191
0.0048051 0.01065 0.013553 0.0034563 -0.0004774 -0.0049297 -0.3064 0.13615
0.0052538 -0.024193 0.0049402 -0.02109
0.010581 0.0050882 -0.014771 -0.0041042 0.019 0.0050744 0.0052464 -0.024249
-0.30912 -0.012315 0.0083682 -0.048927
0.010828 0.0082191 0.0043191 -0.0012522 0.0082943 -0.0062739 0.0048505 -0.021135
0.0082619 -0.048897 -0.33116 0.026868
620000000 -0.27821 0.094786 -0.023344 0.0085875 0.0034059 0.0095535 0.0086455 -0.004574
0.011925 -0.0013046 0.00077677 -0.0021896
-0.023324 0.0085869 -0.40373 0.050269 -0.018493 0.00090452 -0.0012286 -0.002195
0.012002 -0.0062148 0.0015466 -0.0031177
0.003431 0.009563 -0.018529 0.00095461 -0.15534 0.26069 -0.00026922 -0.0052763
-0.0037879 -0.0025127 0.010084 -0.0031082
0.0086471 -0.0045331 -0.0012135 -0.0021884 -0.00026406 -0.0053317 -0.26542 0.147
-0.03896 -0.020323 0.01313 0.026866
0.012003 -0.0013419 0.011911 -0.0062642 -0.0037247 -0.0024803 -0.038961 -0.02029
-0.22981 -0.046046 -0.040753 0.011517
0.00090059 -0.0020869 0.0014793 -0.0031761 0.010127 -0.0031718 0.013013 0.027063
-0.040977 0.011403 -0.25088 -0.0041588
680000000 -0.23794 0.18483 -0.026397 -0.013937 0.005345 0.0053812 0.001829 -0.0079348
-0.0018256 -0.011547 0.0056934 -0.0078396
-0.026365 -0.013944 -0.38983 0.15081 -0.032335 -0.0018693 -0.0011402 -0.00079573
-0.0015891 -0.0092147 -0.0011303 -0.0022026
0.0053426 0.0053722 -0.032377 -0.0017823 -0.10367 0.2809 -0.00047111 -0.00060464
-0.0019498 0.00026823 -0.0029376 -0.0094257
0.0017875 -0.0079582 -0.001147 -0.00077702 -0.00047057 -0.00062222 -0.22019 0.19835
-0.024132 -0.0081106 -0.0091059 -0.011057
-0.0017974 -0.011544 -0.0016157 -0.0092051 -0.0019218 0.00030029 -0.024122 -0.0080734
-0.27797 0.055077 -0.008525 -0.0077099
0.0058012 -0.0078053 -0.0010753 -0.0021761 -0.0028944 -0.0093251 -0.0094115 -0.010951
-0.00858 -0.0077379 -0.26042 0.096347
740000000 -0.19292 0.17824 -0.039809 0.026739 0.013867 -0.0051475 -0.00061584 -0.003964
-0.0046318 -0.0038781 -0.0071701 0.0033125
-0.039791 0.026691 -0.33559 0.16966 -0.036627 0.034674 -0.0005754 -0.0058312
-0.012304 0.0072676 -0.0014428 -0.0060431
0.013839 -0.0051686 -0.03654 0.034825 -0.069792 0.2783 -0.0019076 0.003052
-0.0032238 -0.0063857 -0.0015303 0.0016495
-0.00064073 -0.0039748 -0.00057749 -0.0058734 -0.0019146 0.0030308 -0.20371 0.20555
-0.042932 -0.0083102 0.022701 0.015291
-0.0045627 -0.0038884 -0.012246 0.0074584 -0.0032366 -0.0063821 -0.04299 -0.0082272
-0.17962 0.082841 -0.041956 8.5917e-05
-0.0072046 0.0033642 -0.0015272 -0.0058826 -0.0014182 0.0015829 0.022374 0.015245
-0.041835 2.2211e-05 -0.24761 0.10374
800000000 -0.16163 0.22142 -0.022523 0.016109 0.0056933 -0.010571 -0.0045676 -0.0019243
-0.0048806 0.0021242 0.0044488 0.00030123
-0.022516 0.016078 -0.34089 0.23974 -0.0085446 0.034097 -0.0023711 0.0021015
-0.001696 0.0028699 0.0011506 0.0053784
0.005679 -0.010601 -0.0084516 0.034163 -0.031059 0.30247 0.00092303 0.0015715
-9.7953e-05 0.0034778 -0.0016789 0.001011
-0.004567 -0.0019143 -0.0024056 0.0020744 0.00091223 0.0015849 -0.17402 0.23256
-0.028634 0.013374 0.013837 -0.01022
-0.0048958 0.0021212 -0.0016782 0.0028744 -8.2335e-05 0.0034878 -0.028633 0.013411
-0.22031 0.11167 -0.017378 0.019734
0.0044701 0.00015969 0.0012265 0.0052844 -0.0016446 0.00097857 0.013997 -0.010321
-0.017502 0.019815 -0.23899 0.15181
860000000 -0.12712 0.2415 -0.017756 0.030685 -0.0030008 -0.010278 -0.0017807 0.00074977
0.0042408 0.0054421 -0.0035827 -0.0029276
-0.017756 0.030631 -0.29239 0.28275 0.0075209 0.034594 0.00035472 0.0021182
0.004047 0.0010008 0.003091 0.00029882
-0.0030253 -0.01027 0.007631 0.03461 0.016302 0.31087 -0.00063293 9.7726e-05
0.0022572 -0.0011842 0.0015792 0.0040703
-0.0018098 0.00082121 0.00032237 0.0021288 -0.00064667 0.00010896 -0.13745 0.24314
-0.018252 0.018197 -0.0058259 -0.0089685
0.004199 0.005473 0.0040044 0.00099819 0.0022474 -0.0011837 -0.018238 0.018242
-0.16367 0.16231 -0.024181 0.016601
-0.003543 -0.0029296 0.0030461 0.00023477 0.0015682 0.00407 -0.0058596 -0.008883
-0.024136 0.016572 -0.19042 0.19631
920000000 -0.10311 0.2647 0.0047132 0.038241 -0.009213 -0.0049673 -0.0018385 0.0018084
0.0020759 0.0015296 0.0027704 -0.0015322
0.0046939 0.038187 -0.26531 0.3039 0.028137 0.022807 0.0014646 0.0011715
0.0080234 -0.00028581 0.0041355 -0.002764
-0.0092211 -0.0049441 0.028238 0.022755 0.061914 0.31225 0.0019828 1.64e-05
0.001261 -0.00051421 0.0008984 -0.0011659
-0.0018269 0.0017935 0.001471 0.0011527 0.0019953 1.6413e-05 -0.11285 0.25976
-0.011124 0.030688 0.0034857 -0.0065229
0.0020346 0.0015016 0.0080053 -0.00030721 0.0012573 -0.00049947 -0.011049 0.030721
-0.15289 0.16679 -0.0025708 0.026058
0.0027884 -0.0015354 0.0040478 -0.0028336 0.00088842 -0.0011928 0.0034025 -0.0066147
-0.0024663 0.026043 -0.19664 0.21072
980000000 -0.056719 0.28476 0.016999 0.030221 -0.0094512 0.0041962 0.0018315 0.0033805
0.0038827 -0.0018179 -0.0028069 -0.002191
0.016954 0.030177 -0.21224 0.33853 0.033434 0.0053846 0.0020815 -0.0001256
0.0018457 -0.0061429 -0.00010974 -0.0023249
-0.0094324 0.0042171 0.033482 0.0052839 0.10779 0.30655 0.00075538 -0.0012025
0.00054463 -0.0019787 0.0015703 -0.00023033
0.0018358 0.0033752 0.0020714 -0.00016291 0.00075015 -0.0012079 -0.074873 0.27088
0.0072346 0.030211 -0.0087963 -0.0067416
0.0038758 -0.0018382 0.0018238 -0.006207 0.00055585 -0.0019894 0.0072842 0.030208
-0.1192 0.19769 0.0061722 0.01942
-0.0028642 -0.0022246 -0.0001195 -0.0023873 0.001609 -0.00021656 -0.0087853 -0.006854
0.0062892 0.019449 -0.15257 0.25349
1040000000 -0.015456 0.294 0.032874 0.019098 -0.0016734 0.007099 0.0026676 0.0009091
0.00032956 -0.0036423 -0.00022366 -0.0015735
0.032822 0.019089 -0.17736 0.35218 0.030053 -0.014596 0.0015771 -0.001621
-0.0020151 -0.0028084 -0.0010124 -0.0028611
-0.0016336 0.0071029 0.030011 -0.014694 0.1537 0.29366 -0.00046675 -0.0016499
-0.001479 -0.00099992 -0.00052482 -0.0011855
0.0026617 0.00091 0.0015792 -0.0016493 -0.00046432 -0.0016556 -0.047176 0.28085
0.019543 0.01872 -0.0026952 0.001265
0.0002978 -0.0036677 -0.0020489 -0.0027929 -0.0014786 -0.0009975 0.019575 0.018673
-0.085565 0.20375 0.013672 0.017578
-0.00018746 -0.0016092 -0.0010738 -0.0028273 -0.00053769 -0.0011852 -0.002748 0.0012842
0.013727 0.017516 -0.13006 0.27403
1100000000 0.029661 0.30267 0.036516 -0.0036061 0.0028309 0.0042379 0.0024039 -0.0010757
-0.002048 -0.0030008 -0.004054 -7.5512e-05
0.036474 -0.0035885 -0.13396 0.37013 0.015906 -0.028002 5.7508e-05 -0.0017936
-0.0035681 -0.00087719 -0.0037268 -0.00058074
0.0028524 0.0042283 0.01581 -0.028086 0.19986 0.27421 -0.0019016 0.00011242
-0.0018133 0.00048804 -0.0011297 -0.00048557
0.002398 -0.0010876 4.4509e-05 -0.0018001 -0.0018867 0.00010691 -0.0067139 0.28559
0.025245 0.0055499 -0.0022302 7.9227e-05
-0.0020651 -0.0029936 -0.003597 -0.00086614 -0.0018143 0.00049723 0.02526 0.0055242
-0.065222 0.21681 0.019743 0.0080261
-0.0040609 -9.4641e-05 -0.0037432 -0.00057979 -0.0011211 -0.00048094 -0.0022235 0.00014068
0.019665 0.0081376 -0.084017 0.30215
1160000000 0.080532 0.29882 0.024473 -0.020756 0.0028183 -0.00038963 -0.0001155 -0.0023957
-0.0040009 -0.00082119 -0.0010247 0.0041223
0.024461 -0.020715 -0.090708 0.37481 -0.0033301 -0.029649 -0.001628 -0.0018271
-0.0027534 0.002535 -0.0014812 0.0019146
0.0028254 -0.00039644 -0.0034657 -0.029662 0.2432 0.24405 -0.00091491 0.0017987
-0.00070133 0.0019651 -0.00090551 0.00028972
-0.00010868 -0.0024002 -0.0016281 -0.0018018 -0.00091496 0.0018105 0.032651 0.28306
0.021597 -0.010395 -0.0031339 0.0049845
-0.003977 -0.00079558 -0.0027809 0.0025738 -0.00070793 0.0019709 0.021582 -0.010441
-0.030829 0.22409 0.01838 -0.00080454
-0.0010151 0.0041112 -0.0015016 0.0018715 -0.00089831 0.00031791 -0.0031816 0.0050538
0.018231 -0.00093426 -0.037025 0.30463
1220000000 0.12476 0.28902 0.011061 -0.030331 -0.0015952 -0.00095883 5.5133e-05 -0.00092601
-0.0027098 0.0022293 0.0010195 0.0020733
0.011064 -0.030298 -0.046608 0.38785 -0.017054 -0.021967 -0.0026322 0.0004941
6.8638e-06 0.0031858 -0.00081692 0.0019198
-0.0015921 -0.00094817 -0.017177 -0.021912 0.28237 0.20561 0.00073444 0.001779
0.0006117 0.0013145 0.0002392 0.00058427
4.5969e-05 -0.00092769 -0.0026422 0.00049042 0.00072675 0.0017938 0.07282 0.27419
0.011022 -0.017555 0.0020631 0.0014565
-0.0026983 0.002246 1.2178e-05 0.0031762 0.00059865 0.0013082 0.01102 -0.017587
-0.0068002 0.23228 0.013536 -0.013279
0.0010505 0.002047 -0.0008021 0.0019058 0.00024403 0.00058282 0.0019797 0.0014358
0.013582 -0.013419 -0.0054066 0.31902
1280000000 0.17499 0.26838 -0.0078074 -0.028936 -0.0020692 0.002525 -0.00077781 -0.0020511
-0.00073781 0.0032776 0.0025435 0.0012701
-0.0077874 -0.028906 -0.00052602 0.3795 -0.024308 -0.008993 -0.0010154 0.0014885
0.0017432 0.0017689 0.00061399 0.0020136
-0.0020594 0.0025314 -0.024378 -0.0088846 0.31309 0.16203 0.001636 4.9555e-05
0.0012727 0.00028478 0.00027895 0.00025706
-0.00077983 -0.0020367 -0.0010161 0.001501 0.0016348 3.6438e-05 0.10985 0.25795
0.0011126 -0.019859 -0.00011292 0.00025311
-0.00070364 0.0032562 0.0017712 0.0017511 0.001277 0.00029154 0.0010803 -0.019859
0.02997 0.23497 0.0027447 -0.015508
0.002551 0.0012773 0.00061864 0.002047 0.00028756 0.00022001 -0.00011299 0.00019893
0.0027942 -0.015497 0.041397 0.32057
1340000000 0.21246 0.23558 -0.017754 -0.01925 0.00081544 0.0048062 -0.0018324 -0.00087727
0.0013931 0.0026226 0.0018143 -0.0013394
-0.017722 -0.019237 0.038947 0.37182 -0.022141 0.0041676 -6.7466e-05 0.002069
0.0019943 0.00078298 0.0012916 0.00077039
0.00084036 0.0047995 -0.022149 0.0042778 0.3351 0.11501 0.0011413 -0.00092176
0.0006327 -0.00061842 6.1173e-05 0.00026205
-0.0018355 -0.00087318 -6.2293e-05 0.00206 0.0011338 -0.00091063 0.14288 0.23702
-0.0086681 -0.017119 0.00075717 0.00059118
0.0014085 0.0026134 0.0019974 0.00077815 0.0006269 -0.00061114 -0.0087179 -0.017116
0.059911 0.23002 -0.0041196 -0.013957
0.0017996 -0.0013931 0.0012916 0.00075763 7.2411e-05 0.00027906 0.00075497 0.00059974
-0.0040864 -0.013924 0.079443 0.31498
1400000000 0.24631 0.19819 -0.02371 -0.0075304 0.0053778 0.0034871 -0.0022407 0.00061285
0.0024231 0.00098499 0.00030704 -0.0015754
-0.023674 -0.0075314 0.076574 0.3594 -0.015398 0.012701 0.0013806 0.001344
0.0012642 -0.0008208 0.0012087 0.00014392
0.0053907 0.0034685 -0.015358 0.0128 0.34863 0.06216 7.7954e-05 -0.0016777
0.00013871 -0.00043056 0.000397 0.00014887
-0.0022161 0.00062979 0.0014008 0.0013297 8.6254e-05 -0.001673 0.17244 0.20793
-0.014834 -0.010035 -0.00072467 -0.0001713
0.0024243 0.00097953 0.0012671 -0.00081684 0.00013213 -0.00042989 -0.014855 -0.0099757
0.093032 0.22513 -0.010467 -0.0085388
0.00029379 -0.0015741 0.0011808 0.00016404 0.00039145 0.00016521 -0.00066297 -0.0001443
-0.010459 -0.0085819 0.12359 0.3039
1460000000 0.26975 0.15446 -0.020566 0.0048839 0.006025 -0.0018027 -0.0015879 0.0017852
0.0021707 -0.00052384 -0.00037677 -0.00098909
-0.020539 0.0048659 0.11103 0.33776 -0.0062586 0.015894 0.0017099 0.00015884
0.00087509 -0.0014557 0.0012182 -0.00063496
0.0060229 -0.0018341 -0.0061839 0.015944 0.35527 0.0083935 -0.0012565 -0.0013229
0.00013755 -0.00021006 0.0007459 -0.000266
-0.0015891 0.0017766 0.0016954 0.00014359 -0.0012658 -0.0013161 0.19893 0.17837
-0.01613 -0.0032806 -0.00078215 0.0020412
0.002159 -0.00053609 0.00087053 -0.0014655 0.0001375 -0.00021745 -0.016147 -0.0032442
0.12247 0.21042 -0.012152 -0.00262
-0.00037385 -0.0010468 0.0012326 -0.00062377 0.00076671 -0.00024504 -0.00075738 0.0020613
-0.012148 -0.0026192 0.15667 0.28317
1520000000 0.28248 0.11305 -0.014779 0.010444 0.0036182 -0.0043892 0.00012989 0.0026004
0.0021186 -0.0019672 -0.0011554 -0.00016309
-0.014767 0.010427 0.14478 0.32355 0.0017228 0.013579 0.0016607 -0.00079002
5.1144e-05 -0.0011259 0.00032847 -0.0010681
0.0035975 -0.0044054 0.0017955 0.013578 0.34915 -0.047499 -0.0011037 -0.00042819
0.00072601 -0.00088684 7.0979e-05 -0.00025158
0.0001362 0.0025842 0.0016505 -0.00081232 -0.0011158 -0.00042747 0.22191 0.13986
-0.015449 0.0028447 0.0015558 0.0020542
0.002098 -0.0019839 4.1236e-05 -0.001129 0.00073016 -0.00089715 -0.01544 0.0028837
0.1504 0.19691 -0.0118 0.0019303
-0.0011303 -0.00012911 0.00032534 -0.0010672 8.1638e-05 -0.00023664 0.001567 0.0020571
-0.011792 0.001927 0.18929 0.2622
1580000000 0.29254 0.066941 -0.0079344 0.013602 -0.00098504 -0.0051763 0.0014765 0.0019368
-0.00017054 -0.002141 -0.00025397 0.00039171
-0.0079385 0.013586 0.17234 0.29901 0.0055778 0.0085015 0.00053193 -0.0015628
-0.0005511 -0.0010285 -0.00016386 -0.00087525
-0.0010037 -0.0051699 0.0056308 0.0084816 0.32982 -0.10511 -0.0017123 0.00062505
-0.00031859 -0.0011426 0.0002899 -0.00054521
0.0014891 0.0019307 0.00052876 -0.0015677 -0.0017016 0.00062571 0.23551 0.10043
-0.011804 0.007804 0.0021871 0.00067973
-0.00018782 -0.0021347 -0.00056021 -0.0010178 -0.00031069 -0.0011417 -0.011813 0.0078282
0.17466 0.17885 -0.0093003 0.0075157
-0.00025248 0.00039117 -0.00018083 -0.00087828 0.00028359 -0.00051321 0.0021735 0.0006917
-0.0092952 0.0075279 0.22117 0.2354
1640000000 0.29493 0.025872 -0.0011954 0.012299 -0.002945 -0.0027633 0.0027279 0.0010337
-0.00074949 -0.0016586 -0.00043146 0.00056876
-0.0012081 0.012288 0.20215 0.27434 0.0062982 0.0034335 -0.00063554 -0.00181
-0.001037 -0.00044846 -0.00057778 -0.00069312
-0.0029622 -0.0027539 0.0063264 0.0033978 0.30173 -0.15441 -0.00069309 0.0015053
-0.0011001 -0.0010206 -0.00021567 -0.00031181
0.0027271 0.0010076 -0.00065075 -0.0018163 -0.00070564 0.0015076 0.24769 0.051535
-0.0074279 0.0093438 0.0024183 -0.00081212
-0.00075685 -0.0016525 -0.001041 -0.00043608 -0.0010905 -0.0010172 -0.0073928 0.0093573
0.19781 0.15488 -0.0044702 0.0091608
-0.0004013 0.00053046 -0.00059031 -0.00070392 -0.00023631 -0.00035184 0.0024046 -0.00085697
-0.0044471 0.009162 0.2461 0.20428
1700000000 0.28827 -0.019375 0.002206 0.0093719 -0.0037436 -5.3396e-05 0.003172 -0.0012043
-0.0020108 -0.00062936 0.00058894 0.00048555
0.0022022 0.0093634 0.22056 0.243 0.0041775 0.00032552 -0.0014856 -0.00058233
-0.000838 3.6609e-05 -0.00094277 -0.00043648
-0.0037576 -2.8888e-05 0.004182 0.00030903 0.25889 -0.19445 0.00046403 0.0016864
-0.0019396 -8.3371e-05 -0.00045906 -0.00098881
0.0031872 -0.0012245 -0.0014905 -0.00058814 0.00049058 0.0016718 0.24426 0.0016892
-0.0043848 0.0098745 0.0015563 -0.0023022
-0.0020068 -0.0006147 -0.00084438 4.7187e-05 -0.0019456 -7.6535e-05 -0.0043737 0.0098955
0.21495 0.13446 0.00010228 0.0095825
0.00060643 0.00044376 -0.00092844 -0.00041485 -0.00042719 -0.00094202 0.0016147 -0.0022955
0.00011167 0.0096048 0.26251 0.16979
1760000000 0.27654 -0.068162 0.0044505 0.0060367 -0.0024605 0.0010269 0.0012623 -0.0034226
-0.0014702 0.00070381 0.00029167 -0.00047256
0.0044445 0.0060333 0.24682 0.20333 0.0017466 -0.0016448 -0.0012379 0.00017868
-0.0010897 0.0009044 -0.00066093 0.00039136
-0.0024533 0.0010424 0.0017308 -0.001651 0.2108 -0.22817 0.0011344 0.0010753
-0.0013091 0.0015053 -0.0012768 -0.00060743
0.0012471 -0.00342 -0.0012296 0.00017479 0.0011558 0.0010567 0.23504 -0.049406
-0.0010925 0.0089717 -0.00021285 -0.0025208
-0.0014644 0.00071128 -0.0010768 0.00091931 -0.0013203 0.0015138 -0.0010915 0.0089854
0.23 0.099722 0.0037211 0.006991
0.00030952 -0.00048628 -0.00067451 0.00041313 -0.0013219 -0.0005689 -0.00020108 -0.0025263
0.0037422 0.0069551 0.27467 0.13241
1820000000 0.25221 -0.10556 0.0044679 0.0024369 -0.00032033 0.0025239 -0.00099716 -0.0031591
-0.0010664 0.001047 6.4253e-05 -0.00010958
0.0044604 0.0024351 0.25725 0.17331 -0.0006892 -0.00043357 -0.0013323 0.00092365
-6.913e-05 0.0012828 -0.00053074 0.00057373
-0.00031492 0.0025273 -0.00069237 -0.00042427 0.15982 -0.24402 0.0016659 0.00033491
-0.00020869 0.0023619 -0.0014471 0.00035225
-0.0010046 -0.0031578 -0.0013172 0.00095472 0.0017012 0.00033802 0.20519 -0.096614
0.00061734 0.0075023 -0.0016501 -0.0015511
-0.0010647 0.0010377 -6.3041e-05 0.0012915 -0.0001995 0.0023759 0.00065516 0.0075053
0.24707 0.071057 0.0047626 0.0035967
6.5388e-05 -4.0361e-05 -0.00053555 0.00058963 -0.0014682 0.00033099 -0.0016836 -0.0015572
0.0047708 0.0036019 0.2767 0.095978
1880000000 0.21724 -0.14611 0.0021917 0.00020026 -0.0006124 0.0022531 -0.0028773 -0.0021547
-0.00019837 0.0018555 5.5891e-05 -0.00046894
0.0021923 0.00020049 0.26194 0.12672 -0.0026926 0.0015052 -0.00021608 0.0017945
0.00057748 0.0013696 9.9633e-05 0.00095315
-0.00060209 0.0022509 -0.0026847 0.0015284 0.10792 -0.25338 0.0016746 -0.00075051
0.0015899 0.0020905 -0.0010083 0.0013367
-0.0028908 -0.0021374 -0.00022662 0.0017976 0.0016939 -0.00076956 0.16465 -0.1364
0.0014588 0.005567 -0.0023713 0.00046215
-0.00018727 0.001866 0.00059181 0.0013716 0.0016108 0.0020901 0.0014748 0.0055935
0.25093 0.039628 0.0049103 0.001484
2.5623e-05 -0.00050384 0.00013009 0.00095839 -0.00097372 0.0013972 -0.0023599 0.00049351
0.0048893 0.0015264 0.27677 0.062166
1940000000 0.17792 -0.1717 -0.00028549 -0.0013519 0.0013729 0.002193 -0.0036022 0.00047782
0.0014778 0.0010883 -0.00051955 -0.00056252
-0.00028771 -0.0013487 0.26269 0.094887 -0.0015188 0.0041484 0.001172 0.0013533
0.0019588 0.00052176 0.0010021 0.00038415
0.001397 0.0021883 -0.0014953 0.0041618 0.062208 -0.24598 0.00053509 -0.0021981
0.0024507 0.00033802 0.00063132 0.0017662
-0.0036905 0.00045446 0.0011534 0.0012914 0.00054658 -0.002238 0.11259 -0.16688
0.00090051 0.0042879 -0.0014629 0.001805
0.0014888 0.0010771 0.0019565 0.00049503 0.0024344 0.00033576 0.00092678 0.0043027
0.25388 0.0014911 0.0035396 -0.0017225
-0.00048787 -0.00050806 0.0010176 0.00039938 0.00060855 0.0017708 -0.0014912 0.0017891
0.0035127 -0.0017297 0.26552 0.025953
2000000000 0.13214 -0.18684 -0.0038059 0.00074898 0.002665 0.0016848 -0.0022231 0.0038767
0.0012531 0.00042484 -0.00053832 0.0005506
-0.0037933 0.00074917 0.24879 0.05925 -0.00092665 0.0059359 0.0017224 0.00045354
0.001468 -0.0011277 0.00056558 0.00016327
0.0026736 0.0016555 -0.00088613 0.0059632 0.019408 -0.23244 -0.001005 -0.0014282
0.0021722 -0.0011515 0.0016251 0.0014858
-0.0021428 0.0038692 0.0016964 0.00041389 -0.00098149 -0.0014417 0.0592 -0.17715
-0.00014666 0.0038005 0.00016033 0.0023351
0.0012587 0.00040186 0.0014494 -0.001145 0.002162 -0.0011586 -0.00017268 0.0038304
0.24933 -0.031565 0.00069664 -0.0025048
