!Keysight Technologies,M9804A,MY58100912,A.14.10.03
!Date: Thursday, April 27, 2023 10:28:33
!Correction: S11(C  6-Port  ) 
!S12(C  6-Port  ) 
!S13(C  6-Port  ) 
!S14(C  6-Port  ) 
!S15(C  6-Port  ) 
!S16(C  6-Port  ) 
!S21(C  6-Port  ) 
!S22(C  6-Port  ) 
!S23(C  6-Port  ) 
!S24(C  6-Port  ) 
!S25(C  6-Port  ) 
!S26(C  6-Port  ) 
!S31(C  6-Port  ) 
!S32(C  6-Port  ) 
!S33(C  6-Port  ) 
!S34(C  6-Port  ) 
!S35(C  6-Port  ) 
!S36(C  6-Port  ) 
!S41(C  6-Port  ) 
!S42(C  6-Port  ) 
!S43(C  6-Port  ) 
!S44(C  6-Port  ) 
!S45(C  6-Port  ) 
!S46(C  6-Port  ) 
!S51(C  6-Port  ) 
!S52(C  6-Port  ) 
!S53(C  6-Port  ) 
!S54(C  6-Port  ) 
!S55(C  6-Port  ) 
!S56(C  6-Port  ) 
!S61(C  6-Port  ) 
!S62(C  6-Port  ) 
!S63(C  6-Port  ) 
!S64(C  6-Port  ) 
!S65(C  6-Port  ) 
!S66(C  6-Port  ) 
!S6P File: Measurement: :
# Hz S  RI   R 50
500000000 -0.33422 -0.051751 -0.010384 -0.0014762 -0.0088844 0.013126 -0.0046955 0.012238
0.012241 0.0057573 -0.0036639 0.0082979
-0.010563 -0.0012924 -0.41651 -0.062553 0.0081254 -0.01076 0.0013559 0.012208
0.0074052 0.0028878 0.0018603 0.014505
-0.008354 0.0132 0.0080569 -0.010597 -0.26647 0.19988 0.0073253 0.0036193
-0.0020328 0.0084539 0.0010924 0.012072
-0.0040019 0.011818 0.0016695 0.012568 0.0074819 0.0040764 -0.3337 0.044422
-0.015768 -0.0051484 0.017615 0.027209
0.011727 0.0059394 0.0068669 0.0016732 -0.0023851 0.0076828 -0.016221 -0.004503
-0.25113 -0.18984 -0.027695 0.00716
-0.0043063 0.0075717 0.0014739 0.01396 0.0012636 0.013077 0.013803 0.025456
-0.022392 0.0055027 -0.27284 -0.11418
560000000 -0.31912 0.1155 -0.023708 -0.064135 -0.00030872 0.013341 0.005606 0.010676
0.011879 0.0042296 0.010505 0.0083338
-0.022396 -0.064578 -0.3752 0.10117 -0.041194 -0.037937 0.013803 0.0038911
-0.013509 -0.0040653 0.0037318 4.5653e-05
-0.00063644 0.012373 -0.041799 -0.03768 -0.18538 0.25077 -0.00028879 -0.0049742
0.019183 0.0041795 0.0077374 -0.0049645
0.0057492 0.011995 0.012835 0.0034453 -0.00024748 -0.0047869 -0.30609 0.1354
0.0054373 -0.02442 0.0031748 -0.021736
0.01159 0.0030808 -0.011919 -0.0047482 0.018372 0.004126 0.0066235 -0.02523
-0.31168 -0.010991 0.011487 -0.044197
0.010526 0.008701 0.0039835 -0.00025999 0.0090347 -0.0059347 0.0051055 -0.020221
0.0091103 -0.049073 -0.33558 0.026411
620000000 -0.27755 0.095777 -0.023151 0.0083299 0.0036768 0.0093731 0.0077151 -0.0039711
0.012237 -0.0027968 -0.00023562 -0.0013277
-0.022835 0.008677 -0.40334 0.050257 -0.018593 0.00045429 -0.0015631 -0.0022971
0.012263 -0.0059074 0.00025479 -0.0023502
0.0038463 0.0095733 -0.018809 0.00039728 -0.15576 0.26014 -0.00026333 -0.0049633
-0.0033348 -0.003063 0.0090133 -0.0033632
0.008742 -0.0042848 -0.0016128 -0.0021253 -0.00073774 -0.0051493 -0.26478 0.14601
-0.038526 -0.019055 0.01543 0.024085
0.011411 -0.0017835 0.012364 -0.0062855 -0.0031269 -0.002895 -0.039792 -0.020354
-0.23081 -0.046473 -0.044975 0.017309
0.0010255 -0.0016467 0.00094204 -0.0031184 0.0089081 -0.003413 0.014233 0.026626
-0.039926 0.012932 -0.24792 -0.0015464
680000000 -0.23918 0.18503 -0.026611 -0.014092 0.005173 0.0054741 0.0017588 -0.0074288
-0.0024932 -0.011558 0.00587 -0.0057638
-0.026853 -0.014364 -0.38965 0.15097 -0.032623 -0.0020147 -0.0014437 -0.00070995
-0.0014958 -0.0093462 -0.00049642 -0.0019735
0.0051144 0.0056359 -0.032666 -0.0017638 -0.10378 0.28088 -0.00074962 -0.00034334
-0.001603 0.00029755 -0.0031291 -0.0092309
0.0022084 -0.0077882 -0.0016963 -5.4039e-05 -0.00070721 -0.0005734 -0.22005 0.19671
-0.023389 -0.0082549 -0.01037 -0.011173
-0.0029899 -0.011584 -0.001928 -0.0096378 -0.0019356 0.00023074 -0.023594 -0.0079335
-0.27825 0.058574 -0.0051442 -0.0070194
0.0053183 -0.0069045 -0.00085097 -0.0014072 -0.0026477 -0.0088923 -0.009766 -0.012204
-0.0074962 -0.006847 -0.2593 0.093831
740000000 -0.19333 0.17778 -0.03936 0.026606 0.013655 -0.0048465 -0.0012227 -0.004121
-0.0037822 -0.0031651 -0.0063409 0.0019428
-0.039549 0.026563 -0.33566 0.17017 -0.036926 0.034746 -0.00058613 -0.0056307
-0.011709 0.0081008 -0.0021361 -0.0050816
0.013328 -0.0043555 -0.037017 0.034722 -0.070443 0.27841 -0.0020885 0.0032953
-0.0033466 -0.0048111 -0.0020289 0.0017859
-0.00057053 -0.0040583 -0.00020454 -0.0055986 -0.0022641 0.0032257 -0.20397 0.20434
-0.042635 -0.0058454 0.023215 0.016009
-0.0043948 -0.0031923 -0.012145 0.0072421 -0.0024862 -0.0054113 -0.043413 -0.007122
-0.18068 0.080827 -0.044606 -0.0014114
-0.0065169 0.0040999 -0.0015961 -0.0063209 -0.0017713 0.0007841 0.02265 0.01526
-0.042282 0.001937 -0.24699 0.10779
800000000 -0.16173 0.2208 -0.022756 0.016213 0.0057134 -0.010525 -0.0044687 -0.001961
-0.0044892 0.0022533 0.0048109 0.00025882
-0.022632 0.016175 -0.34109 0.24035 -0.0086153 0.034307 -0.002388 0.0022524
-0.0011002 0.0025586 0.0012616 0.0048169
0.0056514 -0.010497 -0.0084519 0.03432 -0.031075 0.30262 0.0008536 0.0015852
-0.00010739 0.0033485 -0.0015557 0.00061523
-0.0049158 -0.0022654 -0.0022477 0.0022493 0.00082029 0.0015291 -0.17407 0.23279
-0.028776 0.013326 0.013997 -0.0099489
-0.0041628 0.0021088 -0.0010057 0.002929 0.00012789 0.0035226 -0.028495 0.013317
-0.22042 0.11189 -0.016213 0.020202
0.003758 0.00048715 0.0012499 0.0056676 -0.0015134 0.0011889 0.01397 -0.0096632
-0.017472 0.019095 -0.23869 0.15201
860000000 -0.12688 0.24127 -0.017878 0.030566 -0.0030952 -0.010279 -0.0017515 0.00059436
0.0039885 0.005258 -0.0037158 -0.0032198
-0.017862 0.030765 -0.29248 0.28271 0.0075886 0.034576 2.6701e-05 0.0022346
0.0037353 0.000678 0.0033886 0.00049026
-0.0029249 -0.01029 0.0076095 0.034613 0.016368 0.31105 -0.00079881 -5.4946e-05
0.0023162 -0.0014238 0.0017262 0.0041553
-0.0017506 0.00071143 5.3734e-05 0.0020095 -0.00093492 -3.2506e-05 -0.13741 0.24318
-0.018854 0.01852 -0.0059673 -0.0080963
0.0039854 0.0053034 0.0036543 0.0003166 0.0023269 -0.0014528 -0.018883 0.018348
-0.16507 0.16352 -0.025497 0.016553
-0.0035021 -0.0027687 0.0030822 0.00055327 0.0017148 0.0043589 -0.0055932 -0.0086613
-0.023992 0.016598 -0.19055 0.19789
920000000 -0.10344 0.26488 0.0044916 0.03837 -0.0093828 -0.0049218 -0.0018715 0.0017352
0.0013838 0.0020777 0.0030879 -0.0011181
0.00442 0.038085 -0.26542 0.30397 0.028078 0.022836 0.0013496 0.0010849
0.007604 -0.00021668 0.004579 -0.0029673
-0.0095396 -0.0049623 0.028263 0.022761 0.061945 0.31255 0.0018477 -2.2808e-05
0.00095103 -0.00035941 0.0011561 -0.001321
-0.0019501 0.001835 0.0015207 0.0011196 0.0019605 1.6545e-05 -0.11353 0.25974
-0.01108 0.030785 0.0032875 -0.0070043
0.0014035 0.0023431 0.0073748 -0.00010133 0.0010042 -0.00018174 -0.010655 0.030789
-0.1529 0.16973 -0.0010446 0.02727
0.0029308 -0.0016489 0.0040993 -0.0029912 0.0010931 -0.0012472 0.0031589 -0.0069418
-0.0016455 0.025701 -0.19273 0.21183
980000000 -0.056489 0.28476 0.016886 0.030414 -0.0095028 0.0042355 0.0019598 0.0037888
0.0041644 -0.0016924 -0.0032252 -0.0019729
0.016803 0.030346 -0.21218 0.33874 0.033523 0.005384 0.0020349 -7.0826e-05
0.0017613 -0.0059065 -0.00096596 -0.0026925
-0.0094896 0.0042521 0.033605 0.0052303 0.10795 0.3068 0.00070813 -0.0011183
0.000519 -0.0019173 0.0011648 -0.00025224
0.0018337 0.0035699 0.0020336 -0.00021025 0.00073581 -0.0011804 -0.075012 0.27141
0.0075174 0.030558 -0.0087448 -0.0067034
0.0036109 -0.001792 0.0014899 -0.0059536 0.00050995 -0.0020352 0.0074629 0.030486
-0.11855 0.19859 0.0055919 0.018561
-0.0028407 -0.0020367 -0.00020355 -0.0026608 0.0014842 -0.00023709 -0.0087639 -0.0069024
0.0064887 0.019929 -0.15402 0.25413
1040000000 -0.015088 0.29442 0.033093 0.019195 -0.0015281 0.0071425 0.0027318 0.00086573
0.00021575 -0.0036927 0.0005775 -0.0014897
0.033078 0.019177 -0.17712 0.35256 0.030177 -0.014647 0.0017163 -0.0017665
-0.0019976 -0.0024976 -0.0010072 -0.0026242
-0.0014395 0.0071925 0.030181 -0.014741 0.15394 0.29381 -0.00040956 -0.0016323
-0.0014782 -0.0010184 -0.00041473 -0.001045
0.0029079 0.00089933 0.0016608 -0.0016782 -0.00041143 -0.0016293 -0.047269 0.2812
0.019817 0.018993 -0.0026105 0.00097202
0.00070633 -0.0035258 -0.0018013 -0.0028208 -0.0014909 -0.00094158 0.019658 0.018955
-0.084978 0.20454 0.014874 0.017857
3.3035e-05 -0.0015399 -0.0012091 -0.0029436 -0.00034628 -0.0011257 -0.0026517 0.0014634
0.013821 0.017726 -0.12853 0.2742
1100000000 0.030018 0.30291 0.036662 -0.0034572 0.0028878 0.0042763 0.0024831 -0.00117
-0.0020145 -0.003082 -0.003888 -0.00018696
0.036672 -0.003517 -0.13383 0.37051 0.01589 -0.028121 4.1221e-05 -0.0018993
-0.0035228 -0.0008841 -0.003598 -0.00080261
0.0028675 0.0042115 0.015793 -0.028211 0.20022 0.27438 -0.0018925 5.1113e-05
-0.0017684 0.00038197 -0.0011517 -0.00058713
0.0025009 -0.0011961 0.00016186 -0.0018583 -0.0019372 9.8309e-05 -0.0063677 0.28606
0.025454 0.0054003 -0.0026536 0.0006071
-0.0022006 -0.0029716 -0.0035844 -0.00078975 -0.0017236 0.00044357 0.025592 0.0053577
-0.064406 0.21706 0.019182 0.0075782
-0.0039847 -7.2544e-05 -0.0035824 -0.00072063 -0.0011264 -0.00055116 -0.0024501 3.7687e-05
0.019885 0.0077535 -0.083903 0.30283
1160000000 0.080877 0.29913 0.024642 -0.020712 0.0030055 -0.0005697 -0.00010411 -0.0024477
-0.0042098 -0.00088282 -0.00096425 0.0037808
0.024761 -0.020694 -0.090328 0.37528 -0.0033847 -0.029778 -0.001673 -0.0017151
-0.0028365 0.0024292 -0.0013153 0.0022379
0.0029975 -0.00060676 -0.0034745 -0.029804 0.24349 0.24416 -0.00082697 0.0018238
-0.00078006 0.0019164 -0.00066415 0.00027418
-0.00012298 -0.0023625 -0.0017894 -0.0017027 -0.00085067 0.0018004 0.032895 0.28301
0.021837 -0.010835 -0.003014 0.0044015
-0.0040072 -0.00085653 -0.0026545 0.002435 -0.00065394 0.0019231 0.021915 -0.010915
-0.030266 0.22501 0.01871 -0.00040982
-0.00076598 0.0039325 -0.0013934 0.0019182 -0.0010069 0.00040938 -0.0031578 0.0050405
0.018642 -0.0010197 -0.034315 0.30634
1220000000 0.12506 0.28911 0.011244 -0.030474 -0.0015157 -0.0010656 -3.9694e-05 -0.00090556
-0.0026422 0.0022164 0.0010288 0.0022719
0.011208 -0.030452 -0.046042 0.38816 -0.017064 -0.021952 -0.0026731 0.00048271
1.9888e-05 0.0031244 -0.00090249 0.0019286
-0.0015551 -0.001084 -0.017219 -0.021918 0.28278 0.20554 0.00073829 0.0017857
0.00062026 0.0013066 0.00015707 0.00064201
-3.6559e-05 -0.00088944 -0.0026931 0.00051519 0.00075387 0.0017883 0.073363 0.27435
0.011079 -0.01791 0.0020454 0.0015076
-0.002653 0.002241 2.6142e-05 0.003093 0.00059946 0.0012403 0.01102 -0.017858
-0.0061035 0.23297 0.013849 -0.014028
0.00099078 0.0019961 -0.00089563 0.0018737 0.00017512 0.00054811 0.0020608 0.0013223
0.013348 -0.013469 -0.0052493 0.31929
1280000000 0.17558 0.26842 -0.0078115 -0.029211 -0.0020992 0.002401 -0.00083173 -0.0020366
-0.00078278 0.003149 0.0025431 0.0011508
-0.0077256 -0.029161 0.00011708 0.37966 -0.02435 -0.0089664 -0.00095992 0.0015038
0.0017676 0.0017048 0.0005678 0.0020847
-0.0020255 0.0024338 -0.024411 -0.0088382 0.31352 0.16192 0.0016085 -7.632e-05
0.001274 0.00025033 0.00020978 0.00017029
-0.00085506 -0.0019986 -0.00095925 0.0015074 0.001591 -7.2906e-05 0.11023 0.25783
0.00081881 -0.020181 -0.00017826 -7.7617e-05
-0.00079841 0.0032044 0.0018074 0.0017672 0.0012436 0.00033951 0.00078047 -0.020153
0.03073 0.2357 0.0022832 -0.015549
0.0026469 0.0011673 0.00064708 0.0020128 0.00037527 0.00028664 -0.00018284 7.2638e-05
0.0024656 -0.015712 0.043804 0.32258
1340000000 0.21303 0.2354 -0.017892 -0.019438 0.00067616 0.0047287 -0.0017597 -0.00087016
0.0013631 0.0025227 0.0018877 -0.0011475
-0.01782 -0.019457 0.039755 0.37182 -0.022123 0.0041941 -0.00011405 0.0020128
0.0019888 0.00071353 0.0010567 0.00075937
0.00063253 0.0047385 -0.022132 0.0043228 0.33546 0.11477 0.0011125 -0.00093044
0.00060287 -0.00057762 -0.00010477 0.0004439
-0.0017585 -0.00088469 -7.94e-05 0.0020137 0.001169 -0.00097068 0.14325 0.23669
-0.0090226 -0.017296 0.00078024 0.00053527
0.0013524 0.0027237 0.0019232 0.00071626 0.00065079 -0.00058214 -0.0089333 -0.017364
0.061271 0.23055 -0.0042549 -0.014493
0.0018211 -0.0013924 0.0011881 0.00075898 6.3236e-05 0.00031254 0.00059001 0.00054458
-0.0042044 -0.01401 0.08062 0.31448
1400000000 0.24689 0.19769 -0.023963 -0.0076771 0.0052762 0.0034442 -0.0022381 0.00055863
0.002412 0.00099845 0.0004115 -0.0015547
-0.023951 -0.007689 0.077294 0.35908 -0.015343 0.0127 0.0013721 0.0012694
0.0012664 -0.00079957 0.0013461 0.00018827
0.0053653 0.0034029 -0.015327 0.012779 0.34886 0.06176 3.5659e-05 -0.0016987
1.1831e-05 -0.00049526 0.00030908 0.00017653
-0.0022292 0.00055228 0.0013492 0.0012711 6.1731e-05 -0.0017149 0.17265 0.20743
-0.01537 -0.010168 -0.00085535 -0.00019606
0.0024287 0.00096274 0.0013183 -0.00075269 5.978e-05 -0.00037116 -0.015335 -0.010083
0.094358 0.22553 -0.01104 -0.0084746
0.00036592 -0.0014814 0.0011704 9.6145e-05 0.00038139 0.00020305 -0.00064754 -0.00016376
-0.010432 -0.0088671 0.12506 0.30379
1460000000 0.27002 0.15383 -0.020762 0.0048945 0.0058645 -0.0017374 -0.001622 0.0017936
0.0022153 -0.00048689 -0.00031928 -0.0010759
-0.020755 0.0048559 0.1116 0.33724 -0.0062329 0.015813 0.0016571 0.00016126
0.00086674 -0.001375 0.0011766 -0.00069578
0.0058971 -0.0018106 -0.0061971 0.015899 0.35547 0.0079452 -0.0012666 -0.0012708
0.00014374 -0.00022323 0.0008685 -0.00011523
-0.0016125 0.0018815 0.0016953 0.00015799 -0.0012576 -0.0012544 0.1988 0.17785
-0.016451 -0.0030446 -0.0008424 0.0024242
0.0021751 -0.000451 0.00086385 -0.0014201 0.00012925 -0.00017567 -0.016532 -0.0029809
0.1238 0.2104 -0.012248 -0.0025904
-0.00051068 -0.0010556 0.0011827 -0.00063302 0.00078017 -0.00028738 -0.000748 0.0019871
-0.012371 -0.002588 0.15719 0.28225
1520000000 0.28247 0.11243 -0.014997 0.010597 0.0035416 -0.0043109 0.00012681 0.0026239
0.0021236 -0.0019857 -0.001287 -0.0002812
-0.014987 0.01062 0.14512 0.32293 0.0017026 0.013525 0.0016556 -0.00076746
7.6028e-05 -0.0010797 0.00029572 -0.0011
0.0035212 -0.0043185 0.0017872 0.013518 0.34913 -0.047827 -0.0010638 -0.00037618
0.000565 -0.00082322 9.447e-05 -0.00023758
0.00010483 0.0026073 0.0016421 -0.00080247 -0.0010835 -0.00034486 0.22169 0.13956
-0.015528 0.0032458 0.0017315 0.0021918
0.0021641 -0.0019699 2.7395e-05 -0.0010986 0.00053628 -0.00090197 -0.015537 0.0033447
0.15166 0.19658 -0.012197 0.0022265
-0.0011335 -0.00024086 0.00035613 -0.001078 7.5618e-05 -0.00011056 0.0014929 0.0019857
-0.011994 0.0021063 0.1903 0.26211
1580000000 0.29235 0.066393 -0.0080412 0.013804 -0.00086784 -0.0050203 0.0015316 0.0019488
-0.00019623 -0.0022315 -0.00030847 0.00050027
-0.0080617 0.013776 0.17245 0.29834 0.005548 0.0084722 0.00056405 -0.0015626
-0.00059247 -0.00099339 -0.00023982 -0.0008546
-0.00095796 -0.0050313 0.0055662 0.0084475 0.32967 -0.1054 -0.0016616 0.00061311
-0.00026264 -0.001222 0.00043551 -0.00060885
0.0015553 0.0020297 0.00054098 -0.0015884 -0.001627 0.00060461 0.23516 0.10003
-0.01176 0.0081065 0.0023592 0.00069715
-0.00018297 -0.0021726 -0.00056339 -0.001015 -0.00030417 -0.0011728 -0.011764 0.0081244
0.17585 0.17808 -0.0090081 0.0077285
-0.0001639 0.00039383 -0.00017509 -0.00084276 0.00026262 -0.00063558 0.0021106 0.00080343
-0.0093778 0.0075915 0.22191 0.2345
1640000000 0.29469 0.025378 -0.0011446 0.012527 -0.0028371 -0.0025817 0.0027496 0.00099081
-0.00075378 -0.0015826 -0.00045149 0.00069089
-0.0011287 0.012539 0.20202 0.2738 0.0062032 0.0034787 -0.00062885 -0.001818
-0.0010204 -0.0003149 -0.00057906 -0.00063982
-0.0028106 -0.0026165 0.0062278 0.0034341 0.30154 -0.15465 -0.00061859 0.001431
-0.0010537 -0.00087369 -0.00023388 -0.00042294
0.0027757 0.00095194 -0.00067098 -0.0018113 -0.0005967 0.0014956 0.24717 0.05157
-0.0072463 0.009543 0.0025982 -0.00093009
-0.00078585 -0.0016284 -0.001018 -0.00035262 -0.001007 -0.00083068 -0.0072172 0.0096105
0.1987 0.15394 -0.0044593 0.0094717
-0.00051828 0.0006669 -0.00052051 -0.00064319 -0.00019059 -0.0003083 0.0025041 -0.00063654
-0.0044885 0.009571 0.24719 0.20389
1700000000 0.28794 -0.019621 0.00229 0.0094996 -0.0036018 -7.7906e-05 0.0031826 -0.0013075
-0.0019707 -0.00066023 0.00061171 0.00051746
0.0022756 0.0094685 0.22032 0.24264 0.0040764 0.00038315 -0.0014916 -0.00060514
-0.00080384 7.0236e-05 -0.00091224 -0.00045717
-0.0035804 -8.1864e-05 0.0040994 0.00033796 0.25863 -0.19466 0.00043352 0.0016016
-0.0019358 -7.793e-05 -0.00060097 -0.0010401
0.003086 -0.0012645 -0.0014653 -0.00063974 0.00041303 0.0015308 0.24386 0.0019816
-0.0041519 0.0099825 0.0013619 -0.0023986
-0.0020007 -0.00061371 -0.0007643 6.4794e-05 -0.0019168 -0.00012376 -0.0041183 0.0099561
0.21582 0.13343 0.00015796 0.0097564
0.0006389 0.00051921 -0.00092685 -0.00045797 -0.00033312 -0.00095833 0.0016334 -0.0023959
3.8789e-05 0.0096658 0.26319 0.16935
1760000000 0.27627 -0.06833 0.0045694 0.0060919 -0.0023428 0.00090468 0.001262 -0.0034845
-0.0014483 0.0006982 0.00045006 -0.00058091
0.0046028 0.0061039 0.24653 0.20314 0.0017232 -0.0015781 -0.001215 0.00010686
-0.0010218 0.00088147 -0.0005916 0.00046835
-0.0023827 0.00099092 0.0017127 -0.0015641 0.2104 -0.22817 0.0011085 0.00097945
-0.0012603 0.0014386 -0.0012598 -0.00061715
0.0012271 -0.0035108 -0.0012506 0.00018986 0.0010881 0.0010679 0.23484 -0.049044
-0.00082096 0.0089219 -0.00032968 -0.0026582
-0.001421 0.000653 -0.0010445 0.00085411 -0.0012287 0.0014723 -0.00073554 0.0089187
0.23038 0.098815 0.0040132 0.0068937
0.00023014 -0.00072999 -0.00058323 0.00042972 -0.0011558 -0.00062965 -0.00015015 -0.0026638
0.0039676 0.0071286 0.27573 0.13128
1820000000 0.25204 -0.10545 0.0045851 0.0024658 -0.00026277 0.0024832 -0.0011116 -0.0030422
-0.0011285 0.00099527 -6.6028e-06 -6.1935e-05
0.0045695 0.0024649 0.25698 0.17329 -0.00063643 -0.00031272 -0.0013544 0.0009749
-3.8966e-05 0.0012002 -0.00055661 0.00051338
-0.00029316 0.0025225 -0.00067257 -0.00033387 0.15979 -0.24368 0.0014917 0.00035264
-0.00021809 0.0022944 -0.0015334 0.0005509
-0.0011441 -0.0030688 -0.001366 0.0009616 0.0015202 0.00038242 0.2052 -0.096093
0.00068539 0.0073674 -0.0018601 -0.0014528
-0.0011695 0.0010526 -0.00011094 0.0011827 -0.00022781 0.0023311 0.00067158 0.0073145
0.24738 0.070088 0.0047698 0.0035433
-2.6124e-05 -0.00016707 -0.00058243 0.00050253 -0.0015458 0.00026303 -0.0017497 -0.001569
0.0050312 0.0037173 0.27716 0.094692
1880000000 0.2171 -0.14622 0.002371 0.00011685 -0.0005298 0.0021873 -0.0030243 -0.0021587
-0.00015119 0.0018386 6.3868e-05 -0.00070089
0.0023614 0.00011065 0.26186 0.12678 -0.0026004 0.0016249 -0.00026354 0.0017335
0.00058126 0.0012942 0.0001312 0.00082844
-0.00053785 0.0022478 -0.002584 0.0016061 0.10774 -0.25336 0.0017683 -0.00080961
0.0015238 0.0019526 -0.0008726 0.0014571
-0.0028863 -0.0022874 -0.00021426 0.0017764 0.0019313 -0.00096134 0.16472 -0.13624
0.0014916 0.0054031 -0.0026169 0.0006096
-0.00015425 0.0018296 0.00053994 0.0012897 0.0015331 0.0018941 0.0014152 0.0053625
0.25114 0.038692 0.0048082 0.0011234
-6.9902e-05 -0.00060841 5.2811e-05 0.00090045 -0.0010618 0.0012284 -0.0025047 0.0004494
0.0051581 0.0012052 0.27688 0.060724
1940000000 0.17786 -0.17188 -6.8853e-05 -0.0013689 0.0014327 0.0021753 -0.0037457 0.00048786
0.001396 0.0010027 -0.00070213 -0.00048387
-0.00022492 -0.0015177 0.26272 0.095034 -0.0014754 0.0040643 0.0010853 0.00137
0.0018133 0.00043955 0.00099441 0.00027079
0.0013052 0.0020964 -0.0014483 0.0040791 0.062268 -0.24625 0.00052581 -0.0021113
0.0023885 0.00036249 0.00074552 0.0014587
-0.0036883 0.00052237 0.0011336 0.001354 0.00052716 -0.0021305 0.11279 -0.1669
0.00078148 0.0039809 -0.0014089 0.001992
0.0013296 0.0012554 0.0018015 0.00053965 0.0023818 0.00038893 0.00089463 0.004202
0.25409 0.00059584 0.0034114 -0.0017437
-0.00086441 -0.00020278 0.0010041 0.0003945 0.00042386 0.0015173 -0.0015231 0.0017555
0.0036862 -0.0020251 0.26546 0.024941
2000000000 0.13166 -0.18694 -0.0038459 0.00052918 0.0026478 0.0014756 -0.002333 0.0036832
0.0015157 0.00041001 -0.00055424 0.00071432
-0.0039315 0.00043407 0.24904 0.059287 -0.00087071 0.005887 0.0016513 0.00033639
0.0014297 -0.00099775 0.00040319 0.00011741
0.0027385 0.001425 -0.00087502 0.0058924 0.019053 -0.23241 -0.0013351 -0.0015485
0.0021907 -0.0011326 0.0014099 0.0010945
-0.0024106 0.0036411 0.0016271 0.00037575 -0.0012288 -0.0014783 0.059808 -0.17742
-0.00037678 0.0037595 0.00029592 0.0021413
0.00128 0.0001392 0.0013886 -0.001062 0.002249 -0.0010528 -0.00012774 0.003719
0.24934 -0.032475 0.00076066 -0.0025862
