!Keysight Technologies,M9804A,MY58100912,A.14.10.03
!Date: Thursday, April 27, 2023 10:28:33
!Correction: S11(C  6-Port  ) 
!S12(C  6-Port  ) 
!S13(C  6-Port  ) 
!S14(C  6-Port  ) 
!S15(C  6-Port  ) 
!S16(C  6-Port  ) 
!S21(C  6-Port  ) 
!S22(C  6-Port  ) 
!S23(C  6-Port  ) 
!S24(C  6-Port  ) 
!S25(C  6-Port  ) 
!S26(C  6-Port  ) 
!S31(C  6-Port  ) 
!S32(C  6-Port  ) 
!S33(C  6-Port  ) 
!S34(C  6-Port  ) 
!S35(C  6-Port  ) 
!S36(C  6-Port  ) 
!S41(C  6-Port  ) 
!S42(C  6-Port  ) 
!S43(C  6-Port  ) 
!S44(C  6-Port  ) 
!S45(C  6-Port  ) 
!S46(C  6-Port  ) 
!S51(C  6-Port  ) 
!S52(C  6-Port  ) 
!S53(C  6-Port  ) 
!S54(C  6-Port  ) 
!S55(C  6-Port  ) 
!S56(C  6-Port  ) 
!S61(C  6-Port  ) 
!S62(C  6-Port  ) 
!S63(C  6-Port  ) 
!S64(C  6-Port  ) 
!S65(C  6-Port  ) 
!S66(C  6-Port  ) 
!S6P File: Measurement: :
# Hz S  RI   R 50
500000000 -0.33482 -0.051814 -0.010702 -0.0012716 -0.0086153 0.013303 -0.0041323 0.012068
0.012347 0.0061468 -0.004183 0.0090798
-0.010438 -0.0014145 -0.41638 -0.061714 0.0081845 -0.010477 0.0016112 0.012546
0.0071752 0.0023088 0.001212 0.013899
-0.0081753 0.01303 0.0082501 -0.010516 -0.26641 0.19994 0.0073271 0.00383
-0.0021986 0.007896 0.00084571 0.012411
-0.0043728 0.012139 0.0016916 0.012405 0.0073874 0.0037428 -0.33275 0.045456
-0.017233 -0.0052308 0.014888 0.027079
0.012319 0.0061604 0.0071535 0.0022272 -0.002157 0.0078331 -0.017213 -0.0053827
-0.25043 -0.19002 -0.024266 0.0043834
-0.0045171 0.0088522 0.0014512 0.014328 0.0010783 0.012754 0.014841 0.026997
-0.024223 0.0047549 -0.27585 -0.11601
560000000 -0.31797 0.11527 -0.023435 -0.065575 0.0002238 0.012661 0.004154 0.010963
0.011581 0.0054155 0.0095802 0.0091209
-0.023659 -0.065046 -0.37677 0.10077 -0.041767 -0.037684 0.013362 0.0038793
-0.012882 -0.0045376 0.0030987 -0.00089691
0.00011398 0.012479 -0.041922 -0.037771 -0.18522 0.25046 4.3087e-05 -0.0048042
0.018651 0.0045045 0.0087201 -0.0054005
0.0046758 0.010709 0.013641 0.0038278 1.5399e-05 -0.0044383 -0.30692 0.1352
0.0061745 -0.024662 0.004284 -0.021695
0.011148 0.0046558 -0.012535 -0.0049549 0.018838 0.0045761 0.0058452 -0.024378
-0.31258 -0.011526 0.010082 -0.048248
0.0098226 0.0093556 0.0030861 -0.00046309 0.0083834 -0.0054598 0.0040638 -0.021625
0.010082 -0.047536 -0.33212 0.028228
620000000 -0.2775 0.094839 -0.023342 0.0084673 0.0032095 0.0091783 0.0083858 -0.0039771
0.012124 -0.0019716 0.00091018 -0.0015718
-0.023282 0.008459 -0.40334 0.05035 -0.018786 0.00042622 -0.0014117 -0.0019397
0.012084 -0.0062913 0.0012246 -0.0031438
0.0034532 0.0093332 -0.018794 0.00053709 -0.15561 0.26045 -0.00073791 -0.0049056
-0.0032887 -0.0029476 0.0088801 -0.0032699
0.0081162 -0.0040375 -0.0015621 -0.0019404 -0.00060926 -0.004796 -0.26502 0.14614
-0.039539 -0.019838 0.014292 0.027267
0.012484 -0.0018198 0.012049 -0.0063942 -0.0034709 -0.0029083 -0.039402 -0.019729
-0.23005 -0.04469 -0.041656 0.010824
0.00083287 -0.0013303 0.0011405 -0.0032749 0.0086126 -0.0036716 0.014116 0.027448
-0.041632 0.010526 -0.25035 -0.0016773
680000000 -0.23854 0.18482 -0.026588 -0.014528 0.0049807 0.0054366 0.0013835 -0.0071287
-0.0026046 -0.011682 0.0051804 -0.0064109
-0.026457 -0.014549 -0.38953 0.15067 -0.032615 -0.0019882 -0.0014479 -0.00067437
-0.0016018 -0.0094295 -0.0012105 -0.0017214
0.005123 0.0054046 -0.032644 -0.0019194 -0.10383 0.28086 -0.00064548 -0.0004566
-0.00181 0.00035644 -0.0031293 -0.008826
0.0016347 -0.0071967 -0.0014718 -0.0006269 -0.00066819 -0.00049845 -0.22035 0.19713
-0.022883 -0.0078476 -0.0090693 -0.010764
-0.0024864 -0.011777 -0.0017788 -0.0095402 -0.0019212 0.00034716 -0.022995 -0.0078648
-0.27886 0.056999 -0.008117 -0.006905
0.0050254 -0.0069513 -0.0009298 -0.0018872 -0.0029178 -0.0088981 -0.0092568 -0.011104
-0.0083148 -0.0069495 -0.25949 0.099804
740000000 -0.19338 0.17832 -0.039599 0.026648 0.013377 -0.0046503 -0.00044913 -0.004375
-0.0043054 -0.0028463 -0.0068521 0.00304
-0.039515 0.02655 -0.33568 0.16994 -0.036818 0.034632 -0.00014674 -0.0059125
-0.011452 0.0076904 -0.00054681 -0.0065988
0.013428 -0.0046864 -0.036778 0.03474 -0.070129 0.27882 -0.0021031 0.0032052
-0.0028484 -0.0053876 -0.0016497 0.0014208
-0.00054753 -0.0043925 -0.00011218 -0.0059104 -0.0020952 0.0032784 -0.20347 0.20449
-0.043261 -0.0071948 0.02287 0.01493
-0.0042093 -0.002671 -0.011381 0.0074978 -0.0026438 -0.0052554 -0.043418 -0.0070635
-0.17852 0.083042 -0.04293 -0.00030957
-0.0070568 0.0028135 -0.0010012 -0.0068332 -0.0014176 0.0013801 0.022873 0.014938
-0.042735 -0.00059564 -0.24722 0.10557
800000000 -0.1617 0.2209 -0.022646 0.016139 0.0056716 -0.010525 -0.0043989 -0.0019214
-0.004342 0.0021368 0.0042504 0.00013988
-0.022679 0.01602 -0.34088 0.24013 -0.0085607 0.034254 -0.0022397 0.0022081
-0.0010164 0.0027355 0.0011588 0.0053513
0.0056572 -0.010613 -0.0084323 0.034297 -0.03118 0.3026 0.00086316 0.0014302
0.00015086 0.0035499 -0.0018668 0.00098683
-0.0043539 -0.0018567 -0.002217 0.0021821 0.00091204 0.001397 -0.17423 0.23254
-0.028602 0.013321 0.013729 -0.0099752
-0.0045423 0.0021575 -0.0010459 0.0027093 9.0742e-05 0.0035724 -0.028608 0.013292
-0.22078 0.11204 -0.016795 0.019547
0.0040984 0.00036134 0.001155 0.0053441 -0.0017907 0.0009859 0.01359 -0.0099453
-0.016822 0.019421 -0.2396 0.15279
860000000 -0.12668 0.24121 -0.017954 0.03059 -0.0029914 -0.010285 -0.0017517 0.00067257
0.0040765 0.0053694 -0.0030803 -0.0031462
-0.017983 0.030618 -0.29265 0.28293 0.0074866 0.034629 -7.183e-06 0.0021003
0.0039578 0.0006408 0.0033437 0.00035746
-0.0030479 -0.010289 0.0076205 0.034668 0.016334 0.31112 -0.00077388 -4.3853e-05
0.0024185 -0.0014344 0.0014485 0.0040731
-0.0017901 0.00058173 -3.4174e-07 0.0020749 -0.00077917 -6.104e-06 -0.13741 0.24307
-0.018966 0.018335 -0.0059152 -0.0087664
0.0041212 0.0052564 0.0038827 0.00046871 0.002361 -0.0014412 -0.019054 0.018418
-0.16456 0.16239 -0.023981 0.016508
-0.0034251 -0.0030989 0.0031832 0.00040536 0.0014761 0.0041227 -0.006154 -0.008622
-0.0242 0.016538 -0.18917 0.19715
920000000 -0.10341 0.26482 0.0043739 0.038433 -0.0095086 -0.0049312 -0.001961 0.0019633
0.0013229 0.0022297 0.0027643 -0.0013603
0.0044838 0.038337 -0.26558 0.30417 0.028094 0.022835 0.0014 0.0011875
0.0074535 -0.00024264 0.0040863 -0.0027673
-0.0094776 -0.0049663 0.028213 0.022779 0.061958 0.31258 0.0019058 3.7005e-05
0.0010996 -0.00024111 0.00092378 -0.0012171
-0.0019777 0.001882 0.001366 0.0012468 0.0018895 4.08e-05 -0.11321 0.26023
-0.011036 0.03075 0.0033354 -0.0065798
0.0012619 0.002043 0.0074554 -0.00030918 0.0010676 -0.00029088 -0.010901 0.030767
-0.15317 0.16919 -0.0018833 0.026459
0.0027499 -0.0014858 0.0041005 -0.0027507 0.0010198 -0.0012928 0.0032557 -0.0065065
-0.0020781 0.026341 -0.19511 0.21195
980000000 -0.056628 0.28494 0.016892 0.030439 -0.009511 0.0042339 0.0018814 0.0037326
0.0038685 -0.0016904 -0.0028027 -0.0019474
0.016821 0.030418 -0.21221 0.33899 0.033552 0.0053909 0.0021085 -0.00013059
0.001619 -0.0059825 -7.696e-05 -0.0025379
-0.0094643 0.0042651 0.033603 0.0053093 0.10794 0.30681 0.00068578 -0.0011572
0.00054936 -0.0020114 0.0016149 -0.0001329
0.0019347 0.0037422 0.0020704 -0.00010645 0.00065844 -0.0011655 -0.074769 0.27134
0.0074067 0.030532 -0.0086742 -0.006918
0.0038692 -0.0017401 0.0015839 -0.0060228 0.00049292 -0.0020366 0.007503 0.030522
-0.11878 0.199 0.006656 0.01934
-0.0028004 -0.0021867 -0.00016516 -0.0025529 0.0016142 -0.00016777 -0.0087397 -0.0068766
0.0065339 0.019233 -0.15276 0.25434
1040000000 -0.015044 0.29414 0.033071 0.019227 -0.0015221 0.007167 0.0027408 0.00076309
0.00033969 -0.0035369 -0.00017438 -0.001347
0.033066 0.019264 -0.17717 0.35258 0.030181 -0.014675 0.0015992 -0.0018128
-0.0019562 -0.0027341 -0.0012954 -0.0029362
-0.0014968 0.0071568 0.030167 -0.014777 0.15395 0.29384 -0.00044575 -0.00166
-0.0015088 -0.0010274 -0.00055793 -0.0011111
0.002745 0.00082099 0.0016326 -0.001843 -0.00042013 -0.0016582 -0.047189 0.281
0.01984 0.018937 -0.0026227 0.0012554
0.00019945 -0.0034677 -0.0019544 -0.0027624 -0.0014947 -0.0010255 0.019858 0.018941
-0.085093 0.2048 0.014138 0.017629
-0.00017911 -0.0014902 -0.0012029 -0.0028772 -0.00053829 -0.0011057 -0.002626 0.0012279
0.014151 0.017571 -0.1292 0.27467
1100000000 0.029866 0.30273 0.036625 -0.0036414 0.0029201 0.0042793 0.0025045 -0.0012447
-0.0021908 -0.0030455 -0.003996 -7.8662e-05
0.036607 -0.003658 -0.1338 0.37041 0.015883 -0.028066 0.00011152 -0.0018103
-0.0036481 -0.00085812 -0.0036173 -0.00057552
0.002953 0.0042401 0.015797 -0.02817 0.20022 0.27438 -0.0019554 8.9159e-05
-0.0017677 0.0004517 -0.0011125 -0.00065283
0.0024884 -0.0012543 0.00010313 -0.0018133 -0.0019772 8.6768e-05 -0.0065488 0.28608
0.025561 0.0052314 -0.0025519 3.7284e-05
-0.0022223 -0.0030136 -0.0036704 -0.00085675 -0.00175 0.00046278 0.025567 0.0051718
-0.064241 0.21751 0.019955 0.0076444
-0.0040844 -4.2203e-05 -0.0035735 -0.00050461 -0.0011067 -0.00056609 -0.00247 2.216e-05
0.019927 0.0076818 -0.083326 0.3025
1160000000 0.080928 0.2989 0.024794 -0.02069 0.0029342 -0.00053392 -0.0001395 -0.0024748
-0.0040103 -0.00092089 -0.0011434 0.0041386
0.024799 -0.020674 -0.090252 0.37518 -0.0033329 -0.029785 -0.0017393 -0.0017488
-0.0027912 0.0024541 -0.0017234 0.0019267
0.0029821 -0.00054407 -0.0034757 -0.029807 0.24356 0.24412 -0.00079784 0.0018408
-0.00063122 0.0019547 -0.001004 0.00041503
-0.00014996 -0.0024691 -0.0017539 -0.0017099 -0.00080472 0.0018626 0.032969 0.28311
0.021877 -0.010745 -0.0032972 0.0049911
-0.0039954 -0.00088361 -0.0027914 0.0024646 -0.00065097 0.0019486 0.021873 -0.010761
-0.030069 0.22488 0.018478 -0.00067307
-0.0010431 0.0041436 -0.0016317 0.002019 -0.00097195 0.00041964 -0.0032783 0.0049913
0.01861 -0.00073938 -0.035721 0.3054
1220000000 0.12525 0.28913 0.011191 -0.030449 -0.0015508 -0.0010987 -3.9049e-05 -0.00089173
-0.0026938 0.0022044 0.00099076 0.0019281
0.011232 -0.030423 -0.046062 0.38813 -0.017119 -0.021972 -0.00271 0.00047546
1.9261e-05 0.0030657 -0.00094695 0.0019587
-0.0015646 -0.0010729 -0.017219 -0.021913 0.28283 0.20558 0.00078172 0.001782
0.00063621 0.001235 0.00016892 0.00050713
-5.4317e-05 -0.00089328 -0.0027208 0.00050523 0.00075591 0.0017544 0.073362 0.27436
0.011149 -0.017916 0.002026 0.0014973
-0.0026929 0.0022306 4.2541e-05 0.0030529 0.00065769 0.0012533 0.011096 -0.017916
-0.0060472 0.23288 0.01353 -0.013268
0.001029 0.0019125 -0.00091328 0.0019516 0.00017459 0.0004866 0.002021 0.0014751
0.01343 -0.013352 -0.0039016 0.31988
1280000000 0.17551 0.26835 -0.0077489 -0.029168 -0.0020654 0.0023851 -0.00077919 -0.0020437
-0.00074307 0.0031935 0.0026018 0.0011775
-0.0077054 -0.029139 0.0002087 0.37961 -0.024352 -0.0089619 -0.00094195 0.0014872
0.0017772 0.0017475 0.00063037 0.0019975
-0.0020683 0.0024035 -0.02443 -0.0088724 0.31353 0.16187 0.0016335 -7.6996e-05
0.0012791 0.00025383 0.00030717 0.00026098
-0.00083152 -0.0020427 -0.00097086 0.0014835 0.0016421 -5.7913e-05 0.11027 0.25779
0.00083922 -0.020198 -0.00014079 0.00027965
-0.00072797 0.0031935 0.0017721 0.001755 0.001272 0.00025153 0.00081705 -0.020179
0.030892 0.23564 0.0024836 -0.015555
0.0025964 0.0011923 0.00064872 0.0020159 0.00030856 0.00026674 -0.0001576 0.00027927
0.0025693 -0.015586 0.042883 0.32094
1340000000 0.21297 0.23542 -0.017792 -0.01942 0.00068128 0.004708 -0.0017262 -0.00090776
0.0014558 0.0025813 0.0017491 -0.0013965
-0.017763 -0.019435 0.039781 0.37182 -0.022123 0.0042354 -0.00012856 0.0020012
0.0019736 0.00072807 0.0011642 0.00079508
0.00073067 0.0047104 -0.022128 0.004336 0.33546 0.11475 0.0011021 -0.00093299
0.00059459 -0.00059559 2.1972e-05 0.00038741
-0.0017395 -0.00087884 -0.00010958 0.002012 0.001095 -0.00092824 0.14325 0.2367
-0.009021 -0.017283 0.00079345 0.00053447
0.0014807 0.0026021 0.0019776 0.00069045 0.00059344 -0.00060634 -0.0090506 -0.017305
0.061204 0.23069 -0.0042607 -0.014045
0.0017315 -0.0013771 0.0011849 0.00081985 7.5551e-05 0.00038959 0.00079076 0.00049141
-0.0042813 -0.014062 0.081186 0.315
1400000000 0.24693 0.19782 -0.02388 -0.0076929 0.0052827 0.0034149 -0.0022442 0.0005345
0.0024586 0.0010109 0.00039077 -0.0015579
-0.023848 -0.0077068 0.077229 0.35908 -0.015332 0.012702 0.0013581 0.0012826
0.0013135 -0.00075317 0.0011706 8.5672e-05
0.0052971 0.0034314 -0.015288 0.012778 0.34884 0.061777 7.7286e-05 -0.001669
3.5808e-05 -0.00041056 0.00031348 0.00025972
-0.0022556 0.0005253 0.0013657 0.0012795 7.3725e-05 -0.0016477 0.17268 0.20746
-0.015324 -0.010085 -0.00078745 -0.00012762
0.0024367 0.00097849 0.0013232 -0.0007987 4.5434e-05 -0.00039577 -0.015329 -0.010053
0.094596 0.22542 -0.010573 -0.0086979
0.00037164 -0.0015819 0.0011863 0.00010717 0.0003082 0.00025354 -0.00084116 -0.00016147
-0.010601 -0.0087548 0.12495 0.30379
1460000000 0.27012 0.15391 -0.020741 0.0048022 0.0058822 -0.0017429 -0.0016242 0.0018048
0.0021523 -0.00044996 -0.0003596 -0.00098159
-0.020732 0.0047961 0.11158 0.33727 -0.0062288 0.015809 0.0016876 0.00017728
0.00085177 -0.0013958 0.0011828 -0.0005732
0.0058947 -0.0017637 -0.006164 0.015861 0.3554 0.0079434 -0.0012566 -0.0012424
0.00010038 -0.00025799 0.00077784 -0.00019713
-0.001609 0.0017941 0.0017072 0.00015832 -0.0012362 -0.0012595 0.19882 0.17783
-0.016513 -0.0030864 -0.00082465 0.0020921
0.0021832 -0.00047146 0.00087309 -0.0014017 0.00010339 -0.00025463 -0.016533 -0.0030382
0.1239 0.21041 -0.012392 -0.0026991
-0.00036609 -0.00098538 0.0011677 -0.00059145 0.00073255 -0.00020416 -0.00080837 0.0021203
-0.012381 -0.0027356 0.15785 0.28274
1520000000 0.28258 0.11246 -0.014985 0.01053 0.0035021 -0.0042817 0.00011079 0.0026135
0.0021417 -0.0019444 -0.0011096 -0.00017141
-0.014981 0.010501 0.14511 0.32294 0.0016828 0.013502 0.0016602 -0.00078315
5.5155e-05 -0.0011043 0.0003499 -0.0010722
0.0035071 -0.004288 0.0017509 0.013504 0.3492 -0.047851 -0.0010759 -0.00033555
0.00057002 -0.00092808 9.2655e-05 -0.00020262
0.00015138 0.0025977 0.0016526 -0.00078802 -0.0010716 -0.00034039 0.22179 0.13959
-0.015554 0.0032194 0.0015118 0.0020609
0.0021132 -0.0019405 4.9247e-05 -0.0011155 0.00056696 -0.00094867 -0.015552 0.0032505
0.15183 0.19653 -0.012077 0.0019685
-0.0011251 -0.00017135 0.00033251 -0.0010644 9.6766e-05 -0.00017315 0.0014945 0.002082
-0.012056 0.001972 0.1905 0.26167
1580000000 0.29248 0.0663 -0.008118 0.013747 -0.00089 -0.0050433 0.0014788 0.0019647
-0.00020061 -0.0022334 -0.00024769 0.00037914
-0.0081212 0.013706 0.17246 0.29836 0.005528 0.0084524 0.00053577 -0.001546
-0.00059783 -0.00097692 -0.00024212 -0.00083761
-0.00092938 -0.0050844 0.0055836 0.008432 0.32971 -0.10545 -0.0016327 0.00063947
-0.0003229 -0.0011597 0.00024616 -0.00057896
0.0014914 0.0019366 0.00054969 -0.0015417 -0.0016347 0.00062053 0.23522 0.10002
-0.011715 0.0082049 0.0022727 0.00073779
-0.00021588 -0.0022683 -0.00059427 -0.00096758 -0.00033831 -0.0011621 -0.01171 0.0082269
0.17586 0.17818 -0.0093199 0.0077456
-0.00024163 0.00039481 -0.0002451 -0.00082611 0.00021825 -0.00059993 0.0022704 0.00071351
-0.009329 0.0077403 0.22186 0.23464
1640000000 0.29471 0.025313 -0.0011922 0.01248 -0.0027936 -0.0026577 0.0027243 0.001001
-0.00077204 -0.0016484 -0.00037833 0.00056464
-0.0011991 0.012469 0.20207 0.27378 0.0062144 0.0034669 -0.00061496 -0.0018028
-0.00099188 -0.00035271 -0.00052471 -0.00066623
-0.0027967 -0.0025936 0.006232 0.0034429 0.30146 -0.15464 -0.00063589 0.0014706
-0.0010177 -0.0008344 -0.00016516 -0.00033352
0.002725 0.00098275 -0.00063374 -0.0018062 -0.00063382 0.0014673 0.24718 0.051497
-0.0071908 0.0094957 0.0024865 -0.00079162
-0.0007659 -0.0016641 -0.001004 -0.00034702 -0.0010558 -0.00085984 -0.0071716 0.0095176
0.19873 0.15393 -0.0044236 0.0095353
-0.00035931 0.00057864 -0.00054506 -0.00064552 -0.0001505 -0.00032684 0.0024619 -0.00077914
-0.004447 0.0095392 0.247 0.20356
1700000000 0.28794 -0.019835 0.0022462 0.00949 -0.0035958 -5.386e-05 0.003185 -0.0012508
-0.0020173 -0.00064083 0.00063139 0.00043441
0.0022245 0.0094852 0.22034 0.2426 0.0041301 0.0003341 -0.0015025 -0.00063129
-0.00078783 6.9497e-05 -0.00088436 -0.0004428
-0.0036223 -5.445e-05 0.0041344 0.00029588 0.25881 -0.19476 0.0004163 0.0015497
-0.0019225 -8.4218e-05 -0.00035572 -0.00096618
0.0031573 -0.001273 -0.0015029 -0.00062467 0.00040138 0.0015602 0.24393 0.0018575
-0.0040742 0.00983 0.0015716 -0.0023166
-0.0020157 -0.00065649 -0.00079323 6.9432e-05 -0.0019059 -8.4383e-05 -0.004068 0.0098424
0.21582 0.13342 0.0002229 0.0096417
0.00064526 0.00044915 -0.00086677 -0.00044066 -0.00035539 -0.00093619 0.0015694 -0.0023333
0.00024839 0.009677 0.26302 0.1691
1760000000 0.27619 -0.068267 0.0045162 0.0061478 -0.0023504 0.00095507 0.0012977 -0.0034469
-0.0014395 0.00065484 0.00034762 -0.00052052
0.0045115 0.0061433 0.24656 0.20308 0.0017291 -0.0015035 -0.0012493 0.00016595
-0.0010155 0.00087753 -0.00062057 0.00041061
-0.0023181 0.00091887 0.001722 -0.0015143 0.21028 -0.2281 0.0011385 0.0010349
-0.0012321 0.0014257 -0.0011476 -0.00060606
0.0012847 -0.0034488 -0.0012387 0.00017591 0.001114 0.0010272 0.23484 -0.049094
-0.00079706 0.0088991 -7.3699e-05 -0.0025924
-0.0014374 0.00067583 -0.0010169 0.00087966 -0.0012179 0.0014403 -0.00079628 0.0089118
0.23045 0.0988 0.0040841 0.0070775
0.00033234 -0.00052092 -0.00060236 0.00040467 -0.0011327 -0.00057071 -5.1746e-05 -0.0025959
0.0040965 0.0070764 0.27552 0.1315
1820000000 0.25201 -0.10551 0.0045973 0.002538 -0.00025707 0.0025128 -0.001064 -0.003078
-0.0011853 0.0010098 -0.00012279 -0.00015936
0.0045628 0.0025366 0.25697 0.17327 -0.00063837 -0.00031743 -0.0013558 0.00095638
-6.7422e-05 0.0011801 -0.00058491 0.00049877
-0.00023684 0.0025422 -0.00063399 -0.00030738 0.15992 -0.24367 0.001475 0.0003347
-0.00023422 0.0022715 -0.001511 0.00035887
-0.0010823 -0.0030299 -0.0013473 0.00096094 0.0014842 0.000337 0.20508 -0.096052
0.00064544 0.0073246 -0.0016776 -0.0015909
-0.0011752 0.0010118 -4.3377e-05 0.0011934 -0.00022636 0.002273 0.00065562 0.0073322
0.24739 0.070018 0.0048767 0.0035725
-0.00015299 -0.00016281 -0.00058267 0.00049756 -0.0015623 0.00035426 -0.0016837 -0.0016147
0.0048689 0.0035674 0.27735 0.095017
1880000000 0.21723 -0.14615 0.0023641 0.00016292 -0.00046165 0.0021828 -0.0028982 -0.0021906
-0.00020639 0.0018638 7.7977e-05 -0.00047958
0.0023752 0.00018726 0.2618 0.12674 -0.0026069 0.0015989 -0.00021507 0.001743
0.00055834 0.0012759 3.6381e-05 0.00092861
-0.00046609 0.0022207 -0.0026073 0.0016111 0.10773 -0.25353 0.0017696 -0.00082231
0.0014713 0.0019306 -0.0010639 0.0013336
-0.0029191 -0.0021453 -0.00020409 0.0017397 0.0017768 -0.00083605 0.16477 -0.13619
0.0014047 0.0054005 -0.0024143 0.00033305
-0.00022495 0.0018875 0.00055423 0.0012572 0.0014608 0.0019346 0.0014128 0.005409
0.25114 0.038677 0.0050576 0.0012773
6.3631e-05 -0.00051122 6.8446e-05 0.00090647 -0.0011057 0.0013221 -0.0024181 0.00033494
0.0050588 0.0012542 0.27715 0.060965
1940000000 0.17802 -0.17188 -5.3301e-05 -0.0013995 0.0012592 0.0021786 -0.003693 0.0004241
0.0014818 0.0011743 -0.00062227 -0.00040633
-5.3689e-05 -0.0013847 0.26267 0.094971 -0.0014292 0.0040123 0.0011018 0.0013489
0.0018387 0.00051218 0.001023 0.00038575
0.0013178 0.0021776 -0.0014061 0.0040179 0.06238 -0.24615 0.00050453 -0.0021913
0.0024151 0.00036948 0.00054032 0.0017122
-0.0037094 0.00043138 0.0011118 0.0013275 0.00049308 -0.0021447 0.1127 -0.16709
0.00096072 0.0041435 -0.001484 0.0017219
0.0014952 0.0011118 0.0018531 0.0004976 0.0023745 0.00033477 0.00096911 0.004104
0.25409 0.00080347 0.003711 -0.0018472
-0.00059267 -0.00040846 0.0010262 0.00038756 0.00052394 0.0015375 -0.0014837 0.0017264
0.003686 -0.0018353 0.26599 0.02476
2000000000 0.13182 -0.18682 -0.0038542 0.00053293 0.002678 0.0014353 -0.0022567 0.0035853
0.001442 0.00026015 -0.00037362 0.00052102
-0.0038219 0.00052439 0.24897 0.059234 -0.00093354 0.0058492 0.0017154 0.00040179
0.0014286 -0.0010418 0.00050772 0.00016743
0.0027671 0.0014352 -0.00088368 0.0058861 0.018867 -0.2326 -0.001296 -0.0014304
0.0021405 -0.0011014 0.0016765 0.0014333
-0.0022198 0.0036485 0.0016773 0.000389 -0.0012828 -0.0014445 0.059494 -0.17723
-0.0003832 0.0037224 -0.00016198 0.0022792
0.0013894 0.00029203 0.0014067 -0.0010747 0.0021763 -0.0011184 -0.00035495 0.0037088
0.24929 -0.032414 0.0006262 -0.0029127
