!Keysight Technologies,M9804A,MY58100912,A.14.10.03
!Date: Thursday, April 27, 2023 10:28:33
!Correction: S11(C  6-Port  ) 
!S12(C  6-Port  ) 
!S13(C  6-Port  ) 
!S14(C  6-Port  ) 
!S15(C  6-Port  ) 
!S16(C  6-Port  ) 
!S21(C  6-Port  ) 
!S22(C  6-Port  ) 
!S23(C  6-Port  ) 
!S24(C  6-Port  ) 
!S25(C  6-Port  ) 
!S26(C  6-Port  ) 
!S31(C  6-Port  ) 
!S32(C  6-Port  ) 
!S33(C  6-Port  ) 
!S34(C  6-Port  ) 
!S35(C  6-Port  ) 
!S36(C  6-Port  ) 
!S41(C  6-Port  ) 
!S42(C  6-Port  ) 
!S43(C  6-Port  ) 
!S44(C  6-Port  ) 
!S45(C  6-Port  ) 
!S46(C  6-Port  ) 
!S51(C  6-Port  ) 
!S52(C  6-Port  ) 
!S53(C  6-Port  ) 
!S54(C  6-Port  ) 
!S55(C  6-Port  ) 
!S56(C  6-Port  ) 
!S61(C  6-Port  ) 
!S62(C  6-Port  ) 
!S63(C  6-Port  ) 
!S64(C  6-Port  ) 
!S65(C  6-Port  ) 
!S66(C  6-Port  ) 
!S6P File: Measurement: :
# Hz S  RI   R 50
500000000 -0.33537 -0.052081 -0.011151 -0.0014438 -0.008673 0.013395 -0.0052643 0.012004
0.012553 0.0056811 -0.0048836 0.0089707
-0.011145 -0.001609 -0.41762 -0.062778 0.0075965 -0.010033 0.0020226 0.012193
0.006695 0.0030214 0.002017 0.014062
-0.0087373 0.013572 0.0073217 -0.01023 -0.26765 0.20063 0.0072804 0.0035777
-0.0019205 0.0086592 0.0012147 0.01225
-0.0052986 0.012144 0.0019861 0.012092 0.0074003 0.0036372 -0.33327 0.044729
-0.0184 -0.0047535 0.01565 0.027915
0.012934 0.0056403 0.0071036 0.0029509 -0.0022782 0.0085208 -0.018462 -0.0050366
-0.25072 -0.19249 -0.027105 0.0052933
-0.0056665 0.0084522 0.0021142 0.014516 0.0012111 0.012376 0.015789 0.026366
-0.026972 0.0056698 -0.2747 -0.11741
560000000 -0.31805 0.11444 -0.023823 -0.064259 -0.00010923 0.013211 0.0041723 0.011232
0.010742 0.0047704 0.009755 0.0093723
-0.024246 -0.064282 -0.37539 0.10039 -0.041789 -0.037201 0.013916 0.004054
-0.012644 -0.0037416 0.0032062 -0.0011271
0.00019112 0.013186 -0.04237 -0.036718 -0.18588 0.25145 -0.0001961 -0.0040901
0.017608 0.0045283 0.0080986 -0.0050803
0.0043858 0.01122 0.014063 0.003798 -0.00018994 -0.003969 -0.30742 0.13579
0.0060284 -0.023257 0.004301 -0.021784
0.010522 0.0048001 -0.0136 -0.0039405 0.019239 0.0043141 0.0055583 -0.023995
-0.31417 -0.014882 0.010138 -0.045586
0.0099778 0.0093338 0.0035929 -0.0012602 0.0080935 -0.0044771 0.0040999 -0.021342
0.010411 -0.046481 -0.33377 0.026256
620000000 -0.27855 0.095708 -0.023357 0.0086979 0.0040256 0.0094049 0.0087847 -0.0042758
0.012059 -0.0010754 0.0015833 -0.0019184
-0.023326 0.0086386 -0.40375 0.050469 -0.01846 0.0011724 -0.0011859 -0.0018849
0.011953 -0.0060855 0.0014464 -0.002345
0.003863 0.0094507 -0.018545 0.0011494 -0.15524 0.2618 -0.00075568 -0.0049961
-0.0026133 -0.0028121 0.0091438 -0.0025928
0.0088267 -0.0041654 -0.001164 -0.0017093 -0.00084581 -0.0049714 -0.26631 0.14607
-0.037397 -0.018555 0.012567 0.025083
0.011489 -0.0010146 0.011998 -0.0064493 -0.0024608 -0.0030138 -0.038342 -0.018941
-0.23253 -0.046904 -0.039361 0.014244
0.0021629 -0.0009844 0.0015625 -0.0027388 0.0091229 -0.0029115 0.012657 0.025655
-0.038548 0.014094 -0.25061 -0.0055748
680000000 -0.23854 0.1855 -0.026352 -0.013842 0.0051576 0.0051785 0.0018364 -0.0070668
-0.0016113 -0.011878 0.0051433 -0.00819
-0.026272 -0.013821 -0.38958 0.15147 -0.032012 -0.0018437 -0.0013149 -0.00063624
-0.0015746 -0.0096227 -0.00062892 -0.0025073
0.0051903 0.0051513 -0.032078 -0.0018036 -0.10303 0.28147 -0.00077434 -0.00053183
-0.0016265 0.00018611 -0.0030604 -0.0093393
0.0017121 -0.007037 -0.0013413 -0.00068024 -0.00070608 -0.00049508 -0.22153 0.19815
-0.023181 -0.0076131 -0.0099572 -0.010882
-0.0013897 -0.012007 -0.0013498 -0.0095181 -0.0014438 0.0002932 -0.02348 -0.0077079
-0.27917 0.057111 -0.0080256 -0.0080694
0.005383 -0.0085966 -0.00037986 -0.0024749 -0.0025237 -0.0096531 -0.0090322 -0.010805
-0.0083062 -0.0079801 -0.2594 0.096575
740000000 -0.19322 0.17843 -0.039372 0.026959 0.013662 -0.0051132 -0.00057555 -0.00452
-0.0045256 -0.0031091 -0.0067856 0.0028404
-0.039205 0.026968 -0.33472 0.17037 -0.036443 0.034628 -0.00049813 -0.0063839
-0.012226 0.0069585 -0.00099901 -0.0059426
0.013585 -0.005036 -0.036448 0.034722 -0.068889 0.27881 -0.0021946 0.0030621
-0.0028953 -0.0061432 -0.0013752 0.0014103
-0.00049087 -0.0045373 -0.00045826 -0.0063659 -0.0021895 0.0030893 -0.20363 0.20505
-0.042758 -0.0065954 0.023302 0.01491
-0.0045201 -0.0032069 -0.01198 0.0074388 -0.0031035 -0.0062242 -0.042629 -0.0065122
-0.18017 0.083049 -0.041486 0.0014217
-0.0065407 0.0027504 -0.0013502 -0.0065014 -0.0011015 0.0015599 0.023054 0.014661
-0.041047 0.00099666 -0.24623 0.10333
800000000 -0.16124 0.22161 -0.022316 0.016158 0.0056204 -0.010679 -0.0041516 -0.0021611
-0.0047862 0.0021041 0.0047867 0.00051624
-0.022307 0.016137 -0.3403 0.23997 -0.0084423 0.033748 -0.0021178 0.0021104
-0.001558 0.0026765 0.0013656 0.0051354
0.0055557 -0.010676 -0.0083262 0.0338 -0.030468 0.3021 0.00094555 0.0015413
-0.00022386 0.0036651 -0.0016181 0.00083927
-0.004203 -0.0021532 -0.0021412 0.0020848 0.00094518 0.0015173 -0.17382 0.23306
-0.028021 0.013306 0.013985 -0.010159
-0.0050476 0.002369 -0.00168 0.0026927 -0.00018342 0.0037087 -0.027647 0.013334
-0.22101 0.11289 -0.016178 0.019726
0.0044915 0.00071029 0.0012895 0.0053563 -0.0017548 0.00084204 0.013617 -0.010004
-0.016204 0.019792 -0.23958 0.15234
860000000 -0.12613 0.24162 -0.017588 0.030342 -0.0028957 -0.010292 -0.0016279 0.00073344
0.0039812 0.00549 -0.0033 -0.0030107
-0.017569 0.030408 -0.29227 0.28259 0.0073397 0.034335 0.00010316 0.002051
0.0039362 0.0010944 0.0034627 0.00051468
-0.0029247 -0.010314 0.0074168 0.034383 0.01655 0.31035 -0.00064928 -8.8154e-06
0.0024367 -0.0012446 0.0014833 0.0040088
-0.0016533 0.00069673 5.3428e-05 0.0019939 -0.00063797 -2.1922e-05 -0.13645 0.24307
-0.017674 0.018442 -0.0059785 -0.0091982
0.0038652 0.0055773 0.003866 0.0012784 0.0023593 -0.0011127 -0.018039 0.018746
-0.16404 0.16301 -0.023545 0.017504
-0.0031582 -0.0030156 0.00354 0.00032881 0.0017544 0.0041093 -0.0056882 -0.0090358
-0.023511 0.017317 -0.18912 0.19714
920000000 -0.10275 0.26468 0.0047455 0.038117 -0.009274 -0.0051186 -0.0020082 0.0015802
0.0020455 0.0021442 0.0030026 -0.0015868
0.0047181 0.038079 -0.26499 0.30387 0.02815 0.02273 0.0015237 0.0015487
0.0080201 -7.6449e-06 0.0041826 -0.0026861
-0.0092746 -0.0050857 0.028231 0.022639 0.062006 0.31207 0.0020943 0.00010619
0.001389 -0.00030669 0.0010186 -0.0014286
-0.002027 0.0016574 0.0015178 0.0015286 0.0020909 0.00011428 -0.11257 0.25968
-0.010428 0.030405 0.0037556 -0.0068186
0.0019397 0.0022376 0.0078785 -3.4092e-05 0.0014341 -0.00027555 -0.01023 0.030532
-0.15183 0.16772 -0.0019649 0.026188
0.0030503 -0.0015981 0.0042542 -0.0025062 0.00096089 -0.0014211 0.0035384 -0.0070176
-0.0018957 0.026181 -0.19516 0.21087
980000000 -0.056115 0.28432 0.016952 0.029742 -0.0094196 0.0039882 0.0017902 0.0034415
0.0039565 -0.0017219 -0.0028704 -0.0020005
0.016921 0.029735 -0.21191 0.3383 0.033424 0.0053553 0.0021701 -0.00024881
0.0018628 -0.0061029 -0.0001581 -0.0024836
-0.0093838 0.0040303 0.033478 0.0052699 0.10778 0.30635 0.00071419 -0.0012412
0.00056473 -0.0020356 0.0013988 -0.00020884
0.0018008 0.0034383 0.0021639 -0.00025729 0.00069749 -0.0012122 -0.074346 0.27036
0.0071462 0.029827 -0.0088522 -0.0066261
0.0037711 -0.0017081 0.0018876 -0.00612 0.00050876 -0.0020099 0.0070719 0.029803
-0.11878 0.19792 0.0059629 0.019081
-0.0028686 -0.0020061 3.7977e-05 -0.0026915 0.0015228 -0.00018458 -0.009131 -0.0064588
0.0060499 0.019231 -0.15297 0.2544
1040000000 -0.01491 0.29357 0.032703 0.018824 -0.0018245 0.0069969 0.0025917 0.0010154
0.00027834 -0.0036164 -0.00035184 -0.0015048
0.032688 0.018836 -0.17726 0.35181 0.029975 -0.014622 0.0016382 -0.0017602
-0.0020906 -0.0030892 -0.0012961 -0.0029812
-0.0018349 0.0069786 0.029971 -0.014739 0.1536 0.29359 -0.00048205 -0.0016517
-0.0016033 -0.0010863 -0.00068971 -0.0011821
0.0025996 0.0010037 0.0016057 -0.0017353 -0.00049642 -0.0016574 -0.047236 0.2802
0.019432 0.018691 -0.0028116 0.00095706
0.0002662 -0.0034463 -0.0020807 -0.0030528 -0.001579 -0.0010554 0.019548 0.018637
-0.084914 0.20385 0.014103 0.017259
-0.00043393 -0.0015185 -0.0011844 -0.0030365 -0.00065985 -0.0011994 -0.002736 0.00080027
0.013925 0.017389 -0.13003 0.27388
1100000000 0.029746 0.30232 0.036257 -0.0037844 0.0026264 0.0041972 0.00243 -0.00084382
-0.0022397 -0.0029648 -0.004026 -1.0777e-05
0.036217 -0.0037698 -0.13415 0.36978 0.015894 -0.028084 4.4219e-05 -0.0017714
-0.0038683 -0.0010233 -0.0036695 -0.00064822
0.0026491 0.0041973 0.015818 -0.028164 0.20002 0.27427 -0.0019991 6.4676e-05
-0.0018563 0.00046234 -0.0012223 -0.00039828
0.0024645 -0.00088273 8.8202e-05 -0.0017725 -0.0019798 7.4076e-05 -0.0068955 0.28508
0.025157 0.0051565 -0.0026566 0.00010344
-0.002161 -0.0028362 -0.0038001 -0.00095221 -0.0018716 0.00047483 0.025151 0.0051638
-0.064437 0.21682 0.019933 0.0079015
-0.0040309 -5.7921e-06 -0.0037191 -0.00064843 -0.0011984 -0.0004241 -0.0026629 1.839e-05
0.019942 0.0079137 -0.083843 0.30176
1160000000 0.080448 0.29855 0.024352 -0.020817 0.002647 -0.00033869 5.9845e-05 -0.0022833
-0.003989 -0.00092239 -0.0010468 0.0041712
0.024334 -0.020745 -0.090903 0.37461 -0.0034113 -0.029733 -0.001591 -0.0018127
-0.0029616 0.0026208 -0.0015959 0.0021335
0.0026488 -0.00035637 -0.0035362 -0.029785 0.24334 0.24399 -0.00092037 0.0018043
-0.00065476 0.0020663 -0.00078983 0.00044116
5.4503e-05 -0.0022602 -0.0016153 -0.0018033 -0.00091739 0.0018177 0.03198 0.28252
0.021593 -0.010597 -0.0033314 0.0049864
-0.0039328 -0.00087922 -0.0028895 0.0026687 -0.00067721 0.0020593 0.02161 -0.010643
-0.03021 0.22368 0.01878 -0.00075238
-0.0010733 0.0042312 -0.0015956 0.0021574 -0.00079603 0.00045058 -0.0032919 0.0050746
0.018711 -0.00082744 -0.03708 0.30446
1220000000 0.12456 0.28895 0.010752 -0.030234 -0.0016744 -0.00076375 0.00017402 -0.00095744
-0.0026537 0.0021553 0.00098468 0.0019824
0.010777 -0.030183 -0.04692 0.38792 -0.017137 -0.021983 -0.0027202 0.00042061
-1.4774e-05 0.0032738 -0.00088279 0.002002
-0.0016964 -0.00078746 -0.017251 -0.021925 0.28261 0.20547 0.00074696 0.0017953
0.00067448 0.0013312 0.00029844 0.00055821
0.00017533 -0.00095563 -0.0027258 0.00045664 0.00072689 0.0018268 0.072256 0.27415
0.010966 -0.017697 0.0017289 0.0015005
-0.0026619 0.0021418 1.0445e-05 0.0032855 0.00061954 0.0013239 0.010921 -0.017778
-0.0064036 0.23181 0.013516 -0.013484
0.00096559 0.0020512 -0.00089169 0.002032 0.00026069 0.0005999 0.0016808 0.0014208
0.013608 -0.01346 -0.004881 0.31934
1280000000 0.17482 0.26831 -0.0080186 -0.028811 -0.0019922 0.0027459 -0.00079621 -0.0021815
-0.0007755 0.0033082 0.0025845 0.0012241
-0.007999 -0.028806 -0.0007716 0.37969 -0.024458 -0.00901 -0.0010202 0.0015304
0.0019201 0.0019257 0.00063517 0.0020483
-0.0019923 0.0027637 -0.02454 -0.0089039 0.31311 0.1617 0.0016742 9.5346e-05
0.0012684 0.00026157 0.00030547 0.00014266
-0.00081337 -0.0022043 -0.0010149 0.0015452 0.0016916 7.8294e-05 0.10934 0.25797
0.00090728 -0.020005 -0.00015867 0.0002663
-0.00073091 0.0032703 0.0019245 0.0018861 0.0013072 0.00029182 0.00083702 -0.020013
0.03 0.23429 0.0025339 -0.015601
0.002653 0.0011941 0.00068462 0.0020327 0.00029709 0.00012342 -0.00013945 0.00041192
0.0025845 -0.015614 0.042054 0.32061
1340000000 0.2123 0.23569 -0.017899 -0.018912 0.00089509 0.0050044 -0.0018778 -0.0010341
0.0013768 0.0026751 0.0019304 -0.0014371
-0.017855 -0.018933 0.038896 0.37224 -0.022271 0.0043698 -9.891e-05 0.0020797
0.0021603 0.0007082 0.0011951 0.00075105
0.00092346 0.0049899 -0.022273 0.0044554 0.335 0.11476 0.00126 -0.0010487
0.00066468 -0.00068644 -1.6382e-05 0.00015564
-0.0018527 -0.0010087 -8.9125e-05 0.0020862 0.0012373 -0.0010466 0.14253 0.23744
-0.0090051 -0.017137 0.00069824 0.00080503
0.0014399 0.0026967 0.0021791 0.00070344 0.00063857 -0.00066824 -0.0090621 -0.017113
0.059602 0.22968 -0.0045351 -0.01395
0.0019052 -0.0013983 0.0012556 0.00071355 -4.2863e-06 0.00017774 0.00070381 0.00080695
-0.0043933 -0.014048 0.080094 0.31513
1400000000 0.24635 0.1984 -0.023692 -0.007242 0.0055924 0.0034754 -0.002352 0.00057748
0.0024669 0.0011216 0.00034364 -0.0017043
-0.023642 -0.0072517 0.07674 0.35976 -0.015429 0.012897 0.0014462 0.0013424
0.0013541 -0.00092482 0.0012094 9.9324e-05
0.0056143 0.0034313 -0.015402 0.012972 0.34835 0.061991 8.2007e-05 -0.0017916
4.7727e-05 -0.00038994 0.00038887 0.00018561
-0.0023528 0.00056551 0.0014644 0.0013212 7.9086e-05 -0.0018026 0.17244 0.20825
-0.01524 -0.010084 -0.00073285 1.3779e-05
0.0024525 0.0010699 0.0013354 -0.00093873 3.3963e-05 -0.00035965 -0.01527 -0.010056
0.092676 0.225 -0.010781 -0.0087258
0.00035111 -0.0017202 0.0012043 0.00010492 0.00040404 0.00020532 -0.00074454 1.8938e-05
-0.010727 -0.0086834 0.12365 0.30362
1460000000 0.26988 0.15464 -0.020367 0.0051193 0.0061625 -0.0018562 -0.0016319 0.0018667
0.0023036 -0.00046842 -0.00048675 -0.0010468
-0.020356 0.0050849 0.11137 0.33801 -0.006164 0.016116 0.0017744 0.0001013
0.00083622 -0.0014957 0.0011866 -0.00054398
0.0061339 -0.0018787 -0.006088 0.01615 0.35509 0.0083376 -0.00132 -0.0014108
0.00012425 -0.00024799 0.00068307 -0.00014268
-0.001643 0.0018731 0.00177 8.1771e-05 -0.0013033 -0.0014181 0.19894 0.17859
-0.016449 -0.0030049 -0.00065294 0.0021216
0.0022451 -0.00049002 0.00080459 -0.0015273 0.00012 -0.00027615 -0.016467 -0.0029588
0.1218 0.21075 -0.012408 -0.0025556
-0.00054668 -0.0010731 0.0011554 -0.00057848 0.00068241 -0.00016173 -0.00062096 0.002143
-0.012402 -0.0025859 0.15687 0.28292
1520000000 0.28285 0.11316 -0.014513 0.010578 0.003695 -0.0045476 0.00014248 0.0026951
0.0021816 -0.0019701 -0.0011588 -0.00012385
-0.014528 0.010549 0.14521 0.32368 0.0019141 0.013685 0.0016588 -0.00086021
-1.1096e-05 -0.0011355 0.00034953 -0.0010942
0.0036524 -0.004569 0.0019733 0.013699 0.34921 -0.0472 -0.0011821 -0.00033567
0.00068595 -0.00097813 3.0264e-05 -0.00030999
0.00016885 0.0027113 0.0016516 -0.00086954 -0.0011579 -0.00034598 0.22215 0.14005
-0.015506 0.0032005 0.0017086 0.0021395
0.00216 -0.001973 -3.3773e-05 -0.001147 0.00072447 -0.00097586 -0.015502 0.0032662
0.15009 0.19733 -0.012115 0.0022352
-0.0011715 -0.00015555 0.00032638 -0.0010934 5.5206e-05 -0.00027544 0.0017019 0.0021613
-0.012106 0.0022615 0.18934 0.26209
1580000000 0.29301 0.066742 -0.0076478 0.013583 -0.00095081 -0.0052815 0.0015702 0.00198
-0.00019942 -0.0022954 -0.00022001 0.00037489
-0.0076535 0.013556 0.17278 0.29894 0.0057601 0.0084628 0.00045802 -0.0015873
-0.00061397 -0.0009501 -0.00018054 -0.00090818
-0.00094057 -0.0052667 0.0058019 0.0084506 0.32988 -0.10514 -0.0017229 0.00069879
-0.00035502 -0.0011963 0.00026479 -0.00054578
0.0015716 0.0019651 0.00045143 -0.0015917 -0.0017482 0.00069248 0.23571 0.10035
-0.011768 0.0082253 0.0023409 0.00066599
-0.0001567 -0.0022923 -0.00060915 -0.00091519 -0.00047041 -0.001241 -0.011747 0.0082744
0.17464 0.17939 -0.0093756 0.0078707
-0.0001688 0.00041906 -0.00018259 -0.00087242 0.00022736 -0.00051161 0.002331 0.00068141
-0.0094234 0.007853 0.22094 0.2351
1640000000 0.29529 0.025455 -0.00093309 0.012163 -0.003036 -0.0028203 0.0027561 0.00097517
-0.00084353 -0.0017256 -0.00035337 0.00060371
-0.00095266 0.01215 0.20249 0.27422 0.0064297 0.0034146 -0.00068117 -0.0017835
-0.0010065 -0.00036804 -0.00054641 -0.00071576
-0.0030595 -0.0028147 0.0064744 0.0033827 0.30179 -0.15425 -0.00060374 0.001522
-0.0011722 -0.0010052 -0.00025277 -0.00036527
0.0027616 0.00096146 -0.00068288 -0.001778 -0.00060382 0.0015358 0.24772 0.051345
-0.0071473 0.009647 0.002596 -0.00088242
-0.00084849 -0.0017064 -0.00099467 -0.00035358 -0.0011236 -0.00093586 -0.0071373 0.0095892
0.19793 0.15558 -0.0043966 0.0097116
-0.00032826 0.00055521 -0.00058783 -0.0006811 -0.00030143 -0.00033874 0.0026373 -0.00082335
-0.0043974 0.0096652 0.24631 0.20423
1700000000 0.28841 -0.019959 0.0023899 0.0091028 -0.0038139 -5.556e-05 0.0032548 -0.0013293
-0.0020343 -0.00063289 0.00053459 0.0005062
0.002362 0.0090956 0.22093 0.2428 0.0042137 0.00018151 -0.0014915 -0.00056386
-0.00076136 4.8355e-05 -0.00096676 -0.00047804
-0.0038092 -8.1188e-05 0.0042136 0.00016872 0.2589 -0.19463 0.00051736 0.0016893
-0.0019992 -1.8915e-05 -0.00049997 -0.00090363
0.0032587 -0.0013362 -0.0015035 -0.00056392 0.00057734 0.0017232 0.24431 0.0015333
-0.0039934 0.0099367 0.0015504 -0.00229
-0.0020872 -0.00059991 -0.00075673 4.4931e-05 -0.0019951 7.4822e-06 -0.0039799 0.0099559
0.21557 0.13496 0.00022799 0.0098167
0.00049981 0.00044147 -0.0009506 -0.00049214 -0.00047137 -0.00089272 0.0015758 -0.0024574
0.00021668 0.0098442 0.26235 0.16984
1760000000 0.27647 -0.068734 0.0044854 0.0057234 -0.0025243 0.0009294 0.0013472 -0.00356
-0.0014587 0.00073022 0.00031994 -0.00057883
0.0044873 0.0057223 0.24711 0.20304 0.0017928 -0.0017652 -0.001193 0.0002206
-0.0010458 0.00088459 -0.00066724 0.00039368
-0.0025461 0.0010169 0.0017886 -0.0018126 0.21078 -0.2281 0.0010639 0.0010349
-0.0012722 0.0014618 -0.0012728 -0.00059272
0.0013106 -0.0035729 -0.0012002 0.00022281 0.0010723 0.0010314 0.23497 -0.049687
-0.00067629 0.0088539 -9.7464e-05 -0.002712
-0.0014349 0.0007564 -0.0010602 0.00089434 -0.0012873 0.0014826 -0.00064933 0.0088733
0.23077 0.099934 0.0042112 0.0071946
0.00028291 -0.00052606 -0.00071104 0.00039513 -0.0012718 -0.00065071 -0.00015801 -0.0027162
0.004204 0.0071499 0.27502 0.13223
1820000000 0.25209 -0.10597 0.0043119 0.002224 -0.00038289 0.0026107 -0.0010667 -0.0030952
-0.0010758 0.0010533 -0.00011767 -0.0001253
0.0043408 0.0022252 0.25746 0.17301 -0.00077279 -0.00054583 -0.001286 0.00094253
-6.4498e-05 0.0012363 -0.00062159 0.00059191
-0.00038734 0.002589 -0.00075784 -0.00053482 0.15996 -0.24387 0.001546 0.00032069
-6.3209e-05 0.0023452 -0.0014594 0.00045983
-0.001126 -0.0031178 -0.0013056 0.00094195 0.0015617 0.00029481 0.20485 -0.096648
0.00082442 0.0071617 -0.00174 -0.0016328
-0.0010716 0.0010721 -8.8292e-05 0.0012271 -0.00013157 0.0023169 0.00086751 0.0071803
0.24804 0.070935 0.0051214 0.0036321
-1.6801e-05 -3.4802e-05 -0.00061008 0.00060346 -0.0014534 0.00039287 -0.0017454 -0.0016535
0.0051335 0.0036653 0.27699 0.095959
1880000000 0.21681 -0.14661 0.0020029 -3.9923e-05 -0.00061932 0.002431 -0.0029751 -0.0021979
-0.00020094 0.0018696 7.9412e-05 -0.00050618
0.0019676 -5.9081e-05 0.2621 0.12628 -0.0028741 0.0015322 -0.00018407 0.0017145
0.00053747 0.0013706 0.00010866 0.00095846
-0.00058571 0.0023544 -0.002862 0.0015501 0.10765 -0.25353 0.0018445 -0.00092829
0.0016705 0.0020349 -0.0010354 0.0014473
-0.0029974 -0.0021766 -0.00016124 0.0017359 0.0017604 -0.00081328 0.16438 -0.1366
0.0015724 0.0051701 -0.0024218 0.00030878
-0.00013661 0.0018597 0.00055212 0.0013855 0.0015836 0.001996 0.0015866 0.005288
0.25183 0.039211 0.0053527 0.0013151
0.00010558 -0.0005633 0.0001247 0.00097857 -0.00097449 0.001321 -0.0024714 0.00038336
0.0053645 0.0013441 0.27698 0.062113
1940000000 0.17749 -0.17193 -0.00054018 -0.0014862 0.0013832 0.0021822 -0.0037161 0.00058685
0.0014116 0.0011744 -0.00051424 -0.00038131
-0.00058069 -0.0014413 0.26271 0.09443 -0.0015849 0.0041177 0.0010937 0.0013183
0.0018848 0.00065426 0.001059 0.0004276
0.0013461 0.0022112 -0.0015656 0.0041457 0.062348 -0.24612 0.00051232 -0.0022244
0.0024342 0.00041912 0.00062231 0.0016615
-0.003732 0.00056577 0.0011346 0.0012816 0.00058783 -0.0022121 0.112 -0.16703
0.00078343 0.0038617 -0.0017832 0.0016514
0.001381 0.0011368 0.0019325 0.00058865 0.0025109 0.00041481 0.00078876 0.0037917
0.25466 0.00074285 0.003888 -0.0021104
-0.00056245 -0.0004671 0.0010781 0.00043728 0.00076499 0.0017446 -0.0016739 0.0015898
0.0038727 -0.0020721 0.26593 0.025688
2000000000 0.13176 -0.18657 -0.004275 0.0008584 0.0028004 0.0016028 -0.0023572 0.003807
0.0012564 0.00023049 -0.00065318 0.00048062
-0.0042461 0.00088895 0.24863 0.058803 -0.00097412 0.0059986 0.0016227 0.00040504
0.0014899 -0.0011565 0.00054211 0.00010065
0.0027744 0.0016225 -0.00091437 0.0060045 0.019316 -0.23255 -0.0012446 -0.0015809
0.0021243 -0.0012892 0.0016189 0.0013763
-0.0023059 0.0038217 0.0016323 0.0003751 -0.0011687 -0.0016337 0.058845 -0.17709
-0.00050162 0.0034713 -0.00016938 0.002302
0.0012786 0.00025905 0.0014726 -0.0011308 0.0022125 -0.0012999 -0.00052271 0.0034519
0.24973 -0.03257 0.00065815 -0.0031479
