!Keysight Technologies,M9804A,MY58100912,A.14.10.03
!Date: Thursday, April 27, 2023 10:28:33
!Correction: S11(C  6-Port  ) 
!S12(C  6-Port  ) 
!S13(C  6-Port  ) 
!S14(C  6-Port  ) 
!S15(C  6-Port  ) 
!S16(C  6-Port  ) 
!S21(C  6-Port  ) 
!S22(C  6-Port  ) 
!S23(C  6-Port  ) 
!S24(C  6-Port  ) 
!S25(C  6-Port  ) 
!S26(C  6-Port  ) 
!S31(C  6-Port  ) 
!S32(C  6-Port  ) 
!S33(C  6-Port  ) 
!S34(C  6-Port  ) 
!S35(C  6-Port  ) 
!S36(C  6-Port  ) 
!S41(C  6-Port  ) 
!S42(C  6-Port  ) 
!S43(C  6-Port  ) 
!S44(C  6-Port  ) 
!S45(C  6-Port  ) 
!S46(C  6-Port  ) 
!S51(C  6-Port  ) 
!S52(C  6-Port  ) 
!S53(C  6-Port  ) 
!S54(C  6-Port  ) 
!S55(C  6-Port  ) 
!S56(C  6-Port  ) 
!S61(C  6-Port  ) 
!S62(C  6-Port  ) 
!S63(C  6-Port  ) 
!S64(C  6-Port  ) 
!S65(C  6-Port  ) 
!S66(C  6-Port  ) 
!S6P File: Measurement: :
# Hz S  RI   R 50
500000000 -0.33467 -0.052669 -0.010376 -0.0015562 -0.008545 0.013727 -0.0045827 0.011522
0.013052 0.0063293 -0.0043957 0.0078058
-0.010446 -0.0012341 -0.41664 -0.062515 0.0081851 -0.01 0.0015122 0.012079
0.0079389 0.00244 0.0011914 0.013807
-0.0086873 0.013607 0.0080655 -0.010215 -0.26733 0.19957 0.0067462 0.0040885
-0.0021422 0.0085438 0.00028047 0.012946
-0.00447 0.011815 0.0013973 0.012179 0.0068649 0.0039272 -0.33209 0.043264
-0.01922 -0.0046771 0.015981 0.024931
0.012968 0.0059042 0.0081961 0.0025296 -0.0019628 0.0087472 -0.018996 -0.0045275
-0.24905 -0.19368 -0.026505 0.0037592
-0.0041467 0.0081552 0.0011929 0.014019 0.00051349 0.012898 0.01628 0.025124
-0.026519 0.0035273 -0.27343 -0.12039
560000000 -0.31939 0.1141 -0.023911 -0.064776 1.4732e-05 0.01311 0.0059141 0.010697
0.010195 0.0053077 0.010631 0.0085296
-0.023895 -0.064642 -0.375 0.09851 -0.04127 -0.037168 0.013782 0.0035605
-0.013267 -0.0028345 0.0024964 -0.0015812
-0.000198 0.013024 -0.041669 -0.036888 -0.18602 0.25075 -0.00017197 -0.0047301
0.018277 0.0044057 0.0092647 -0.0058419
0.0060486 0.010685 0.013694 0.0035172 -0.00015815 -0.0048432 -0.30631 0.13552
0.0050279 -0.024186 0.0055532 -0.021489
0.0099909 0.0047107 -0.013026 -0.0028789 0.018433 0.0038768 0.0051703 -0.024255
-0.30952 -0.015957 0.0077146 -0.045791
0.010675 0.0082937 0.0027456 -0.0015156 0.0091025 -0.0052761 0.0055123 -0.021318
0.0083562 -0.045761 -0.33078 0.026576
620000000 -0.2777 0.095397 -0.023322 0.0085429 0.0039445 0.0098031 0.0082518 -0.0049579
0.012396 -0.00012096 0.00068897 -0.0032447
-0.023318 0.0087679 -0.40348 0.049663 -0.018463 0.00076489 -0.0014535 -0.0018356
0.012269 -0.0062657 0.00071113 -0.0030526
0.0037463 0.0098189 -0.018461 0.00079745 -0.15528 0.26092 -0.00058876 -0.0047506
-0.0034719 -0.0034257 0.0092141 -0.0020447
0.0086053 -0.0049562 -0.0014543 -0.0017288 -0.00053131 -0.0046606 -0.26578 0.14569
-0.038344 -0.020423 0.013324 0.026584
0.012178 -0.00038434 0.012204 -0.0064718 -0.0037414 -0.0032447 -0.038755 -0.020418
-0.23269 -0.043897 -0.040189 0.012438
0.0010142 -0.0026969 0.00077984 -0.0029093 0.0091451 -0.0018856 0.013519 0.026664
-0.040223 0.01215 -0.25054 -0.0035433
680000000 -0.23943 0.18532 -0.026501 -0.014098 0.0053635 0.005512 0.0018875 -0.0069704
-0.0014058 -0.012081 0.0051684 -0.0072443
-0.026481 -0.014184 -0.38968 0.15035 -0.032413 -0.0021018 -0.0013444 -0.00046275
-0.0013397 -0.0093277 -0.0010872 -0.0024817
0.0052565 0.0054516 -0.032475 -0.0019696 -0.10351 0.28083 -0.00052781 -0.0003026
-0.0018379 0.00018698 -0.0029638 -0.0092959
0.001409 -0.0067963 -0.0013845 -0.00047773 -0.00062476 -0.0002628 -0.21944 0.19791
-0.024278 -0.0078837 -0.008614 -0.009666
-0.0017537 -0.012172 -0.0013598 -0.0094171 -0.0018761 0.00026714 -0.024513 -0.007851
-0.27931 0.055808 -0.0088132 -0.0092131
0.0053885 -0.0069991 -0.00080395 -0.0022929 -0.0025837 -0.0092968 -0.0083834 -0.0092447
-0.0085589 -0.0094583 -0.26135 0.099034
740000000 -0.19347 0.17778 -0.039391 0.027369 0.013667 -0.0050251 -0.00091912 -0.0041164
-0.0044009 -0.003652 -0.0067074 0.0031005
-0.039339 0.027288 -0.33574 0.16846 -0.037098 0.034785 -0.00034888 -0.0057172
-0.012106 0.0068786 -0.001406 -0.0062099
0.013776 -0.0050239 -0.036668 0.03497 -0.069828 0.27768 -0.0022387 0.0032481
-0.0036961 -0.0061624 -0.001664 0.0016105
-0.00076491 -0.0041178 -0.00046192 -0.0057804 -0.0022899 0.0033314 -0.20431 0.20438
-0.0418 -0.0071287 0.022383 0.014659
-0.0048064 -0.0036277 -0.011994 0.0071112 -0.0037093 -0.0064993 -0.041838 -0.0069054
-0.18285 0.084107 -0.04025 0.002048
-0.0064649 0.003383 -0.0016414 -0.0061211 -0.0017566 0.0017822 0.022157 0.014635
-0.040298 0.0021823 -0.24921 0.10246
800000000 -0.16129 0.22114 -0.022368 0.016198 0.0059741 -0.01077 -0.004596 -0.001777
-0.0048185 0.0020226 0.0039838 0.00049049
-0.022383 0.016115 -0.34092 0.2392 -0.0085916 0.034141 -0.0023917 0.0020628
-0.0015354 0.002573 0.00093827 0.005394
0.005917 -0.010736 -0.0085389 0.034238 -0.031548 0.30217 0.00075791 0.001676
-0.00011062 0.0032816 -0.0018575 0.0010727
-0.0046356 -0.0018376 -0.0023647 0.0020321 0.00074337 0.0016887 -0.17424 0.23245
-0.028603 0.014039 0.014198 -0.0099346
-0.004665 0.0021785 -0.0017151 0.0026141 2.3059e-05 0.0032607 -0.028587 0.013907
-0.22204 0.11132 -0.017953 0.020392
0.0039779 0.00029844 0.0011439 0.0053738 -0.0019688 0.0010994 0.014199 -0.009952
-0.017794 0.020437 -0.23908 0.15413
860000000 -0.1267 0.24132 -0.017747 0.030625 -0.0027987 -0.010545 -0.0015362 0.00063114
0.0036032 0.0051873 -0.0030658 -0.003008
-0.017688 0.030598 -0.29282 0.28234 0.0077041 0.034966 0.00045876 0.0020134
0.0036681 0.001519 0.0030498 0.00054265
-0.002838 -0.010601 0.0077847 0.034923 0.015891 0.31103 -0.00054559 -2.1652e-05
0.0020536 -0.0011648 0.0019361 0.0042285
-0.0015433 0.00074467 0.00044141 0.0020835 -0.0005484 -2.3032e-05 -0.13722 0.243
-0.018185 0.01846 -0.0053094 -0.0085155
0.0038508 0.0053148 0.0036871 0.0015029 0.0019856 -0.0010911 -0.018131 0.018422
-0.16419 0.1633 -0.023769 0.01652
-0.00334 -0.0029713 0.0030085 0.00052908 0.0018569 0.0042721 -0.0053409 -0.0085266
-0.023917 0.016815 -0.18955 0.19702
920000000 -0.10324 0.26471 0.0047818 0.038272 -0.0093269 -0.0052436 -0.0018036 0.0018248
0.0019812 0.0019803 0.0026857 -0.0015375
0.0046736 0.038225 -0.26558 0.30364 0.028459 0.022936 0.001521 0.0014245
0.0081832 -0.00028005 0.0040579 -0.0028286
-0.0093837 -0.0051694 0.028578 0.02291 0.061423 0.3125 0.0019829 6.2356e-05
0.0015858 -0.0003553 0.00076883 -0.0013239
-0.0018466 0.0018422 0.0015934 0.0014373 0.0020498 -1.1117e-05 -0.11355 0.26003
-0.010672 0.031037 0.0032775 -0.006943
0.0019239 0.0020823 0.00814 -0.00030454 0.0013784 -0.00039439 -0.010734 0.030952
-0.15111 0.16754 -0.0015191 0.025901
0.0027118 -0.0015692 0.0042386 -0.0026305 0.000941 -0.0015209 0.0034787 -0.0069685
-0.0014901 0.025891 -0.19598 0.21073
980000000 -0.056805 0.28441 0.017149 0.030168 -0.0096656 0.0040954 0.0018966 0.0033746
0.0040309 -0.0019798 -0.003336 -0.0023641
0.017173 0.030113 -0.2127 0.3381 0.033923 0.0053631 0.0020476 -0.00013568
0.0017499 -0.0061879 -0.00023113 -0.0025717
-0.0096431 0.0041412 0.034021 0.0052667 0.10752 0.30716 0.00069743 -0.0011242
0.00042246 -0.0020784 0.0013538 -0.0003052
0.0019242 0.0033898 0.0020352 -8.7967e-05 0.00068393 -0.0011268 -0.07486 0.27082
0.0076969 0.030408 -0.0086978 -0.006971
0.0040348 -0.0019017 0.0016612 -0.0063212 0.0003789 -0.0020783 0.0077189 0.030433
-0.1188 0.19751 0.0061742 0.019691
-0.0033804 -0.0023334 -0.00044088 -0.0024104 0.001455 -0.00018828 -0.0087321 -0.0069248
0.0060286 0.019703 -0.1526 0.254
1040000000 -0.015716 0.29348 0.033024 0.018962 -0.0018579 0.0071796 0.0025346 0.0007993
0.00032734 -0.0035167 -0.00022299 -0.0020383
0.032989 0.0189 -0.17816 0.35186 0.030352 -0.014982 0.0015781 -0.0018113
-0.0021142 -0.0028967 -0.0011665 -0.0031135
-0.001837 0.0071747 0.030316 -0.015077 0.15374 0.29434 -0.00045029 -0.0017083
-0.0016256 -0.0010216 -0.00060902 -0.001095
0.0026311 0.00074977 0.0015322 -0.0018642 -0.00045399 -0.0017126 -0.047539 0.28096
0.020298 0.019051 -0.0027998 0.00080365
0.00029766 -0.0035543 -0.0021161 -0.0029678 -0.00166 -0.0010234 0.020384 0.018884
-0.085205 0.20412 0.014191 0.017106
-0.00030324 -0.0019455 -0.0011896 -0.0031609 -0.00062823 -0.0010859 -0.0027782 0.00085778
0.014138 0.017304 -0.12993 0.27397
1100000000 0.029146 0.30261 0.036776 -0.0037332 0.0027943 0.0043317 0.0023384 -0.0010138
-0.0021632 -0.0029398 -0.0040574 -0.00010969
0.036741 -0.0036771 -0.1349 0.37043 0.016001 -0.028622 -4.7365e-05 -0.001801
-0.0038755 -0.00082746 -0.0036606 -0.00063808
0.0028107 0.004321 0.015922 -0.028712 0.20037 0.27486 -0.001977 0.00012068
-0.001935 0.00055714 -0.0010937 -0.00051477
0.0023164 -0.00099483 -7.2095e-05 -0.0018332 -0.00199 0.00010469 -0.0068832 0.28619
0.025908 0.0052888 -0.002564 0.00037886
-0.002133 -0.002962 -0.0038719 -0.00077559 -0.001905 0.00056918 0.025927 0.0052431
-0.065366 0.21642 0.019779 0.0081373
-0.0040816 -7.2652e-05 -0.003647 -0.00052976 -0.0011166 -0.00046666 -0.0026673 0.00032967
0.019709 0.0080618 -0.084044 0.30221
1160000000 0.080089 0.2989 0.024704 -0.021154 0.0027479 -0.00035785 -5.9829e-05 -0.0023336
-0.0039621 -0.00087786 -0.00096582 0.0042044
0.024698 -0.021108 -0.091294 0.37547 -0.0037231 -0.030214 -0.0015742 -0.0017201
-0.0028655 0.0026937 -0.0014781 0.0020406
0.0027578 -0.00035816 -0.0038495 -0.030234 0.24417 0.24434 -0.0008663 0.001914
-0.00074313 0.002018 -0.0010071 0.00048031
-8.2225e-05 -0.0023647 -0.0015856 -0.0017485 -0.00088606 0.0019335 0.032742 0.28338
0.022287 -0.011283 -0.0031775 0.0049893
-0.0039686 -0.00092265 -0.0028397 0.002699 -0.00070018 0.0020631 0.022236 -0.011371
-0.030709 0.22406 0.018781 -0.0010958
-0.00092348 0.0041975 -0.0014696 0.0021018 -0.0010473 0.00041579 -0.0031834 0.004964
0.018735 -0.0010353 -0.037341 0.30552
1220000000 0.12424 0.28932 0.010928 -0.030743 -0.0015762 -0.00086418 -1.1314e-05 -0.00086347
-0.0028039 0.0021704 0.0010937 0.0020352
0.010942 -0.030709 -0.046747 0.3887 -0.017588 -0.022205 -0.0027254 0.00055602
5.3565e-05 0.0033778 -0.00081443 0.0019794
-0.001584 -0.00085587 -0.017713 -0.022134 0.28326 0.20503 0.00077099 0.0019146
0.0006474 0.001399 0.00031971 0.00060366
6.3621e-06 -0.00087704 -0.0027483 0.00057913 0.00078255 0.0019275 0.073279 0.27446
0.011131 -0.018699 0.001881 0.0013402
-0.0027536 0.0021314 6.6757e-05 0.0033156 0.00064709 0.001365 0.011098 -0.018748
-0.006991 0.23246 0.013816 -0.014011
0.0011055 0.0020752 -0.00083944 0.0019917 0.00034901 0.00067167 0.0018101 0.0014321
0.013784 -0.013944 -0.0047522 0.31934
1280000000 0.17486 0.26893 -0.008299 -0.029301 -0.0020508 0.0026688 -0.00072413 -0.0020807
-0.00076854 0.0034077 0.0025876 0.0013737
-0.0082557 -0.029291 -8.3472e-05 0.38046 -0.02489 -0.0087995 -0.00086273 0.0015426
0.0018803 0.0018325 0.00072999 0.0020885
-0.0020473 0.0026741 -0.02498 -0.0086911 0.31347 0.1612 0.0017195 3.5198e-05
0.0013166 0.00027443 0.00032159 0.0002569
-0.00070619 -0.0020293 -0.00087997 0.0015369 0.0017164 2.4214e-05 0.11027 0.25805
0.00044227 -0.020846 -0.00029116 0.00028534
-0.00077364 0.0033695 0.0018706 0.0018036 0.001358 0.00031288 0.00040809 -0.020884
0.029766 0.23552 0.0028318 -0.016073
0.0025944 0.0013568 0.00078022 0.0020905 0.000247 0.00028896 -0.00030734 0.00032218
0.0028416 -0.016102 0.042143 0.32085
1340000000 0.21252 0.23588 -0.018432 -0.019226 0.00087502 0.0048964 -0.0018366 -0.00088299
0.0014442 0.0027651 0.0018653 -0.0015088
-0.018413 -0.019226 0.03986 0.37214 -0.022474 0.0046765 6.7029e-06 0.0020885
0.0021367 0.000729 0.0013375 0.00075612
0.00089903 0.0048642 -0.022453 0.0047725 0.3349 0.11399 0.0012214 -0.0010046
0.00066918 -0.00064872 7.1116e-05 0.00026196
-0.0017672 -0.00090983 1.7346e-06 0.0020869 0.0011876 -0.0009852 0.14334 0.23648
-0.0098269 -0.01765 0.00061313 0.00062385
0.0014703 0.0027567 0.0021472 0.00071048 0.00062285 -0.0006615 -0.0098979 -0.01766
0.060171 0.23045 -0.0047105 -0.014604
0.0018853 -0.0014274 0.0013565 0.00074571 1.6637e-05 0.00027029 0.00060729 0.00059771
-0.004721 -0.014597 0.080493 0.31536
1400000000 0.24649 0.19835 -0.024248 -0.0072001 0.0055218 0.0035053 -0.0022603 0.00060297
0.0025307 0.0010425 0.00028816 -0.0016558
-0.024208 -0.0072027 0.077498 0.35913 -0.015359 0.013239 0.0014796 0.0012895
0.0012582 -0.00092426 0.0012673 9.9942e-05
0.0055354 0.003476 -0.015323 0.013343 0.34768 0.061497 4.0173e-05 -0.0017191
4.7441e-05 -0.00040368 0.00036658 0.00021712
-0.002286 0.00061481 0.0014611 0.0013033 1.7642e-05 -0.0017157 0.1726 0.20735
-0.016265 -0.0098024 -0.00082935 1.673e-05
0.0025284 0.0010185 0.0012501 -0.00092828 3.5249e-05 -0.00045582 -0.016268 -0.0097137
0.093297 0.2256 -0.011195 -0.0090243
0.00021069 -0.0017173 0.0012322 8.2993e-05 0.00042766 0.00023561 -0.00084631 8.5752e-05
-0.011198 -0.0090242 0.12422 0.30356
1460000000 0.26989 0.15441 -0.020772 0.0055511 0.0061383 -0.0017903 -0.0016035 0.0017303
0.0023249 -0.00059073 -0.00040622 -0.00096445
-0.020776 0.0055421 0.11174 0.33694 -0.0058547 0.016318 0.0017079 5.1073e-05
0.00082201 -0.0014932 0.0012067 -0.00070879
0.0061189 -0.001862 -0.0057806 0.016379 0.35434 0.0083397 -0.0013678 -0.0013357
0.00018089 -0.00028774 0.00079604 -0.00018506
-0.0015466 0.0017332 0.0017041 3.2318e-05 -0.0013282 -0.0014179 0.19881 0.17776
-0.017179 -0.0022095 -0.00078669 0.0022066
0.002344 -0.00064248 0.00077313 -0.0014849 0.00019305 -0.00027422 -0.017224 -0.0021597
0.12282 0.21095 -0.013104 -0.0026531
-0.00039567 -0.00092883 0.0012266 -0.00070249 0.00088454 -0.00022442 -0.00074457 0.0021414
-0.01306 -0.0026733 0.15732 0.28255
1520000000 0.28237 0.11266 -0.014658 0.011074 0.0036727 -0.0045822 0.00012905 0.0026469
0.0020836 -0.0021281 -0.0011897 -3.6505e-05
-0.014645 0.011061 0.1449 0.32235 0.0021497 0.013629 0.0016047 -0.00081986
-7.9325e-05 -0.0011377 0.00030711 -0.0010485
0.0036271 -0.0046012 0.0022371 0.013655 0.34824 -0.047045 -0.0011412 -0.00035772
0.00063806 -0.00099308 0.00013346 -0.00020729
0.00015199 0.002655 0.0016243 -0.00082652 -0.0011876 -0.00033559 0.2215 0.13926
-0.015697 0.004422 0.0018429 0.0021596
0.0020763 -0.0020508 -6.3617e-05 -0.0010994 0.00062578 -0.00099931 -0.015661 0.0044728
0.15113 0.19712 -0.012573 0.0024906
-0.0011444 -7.3132e-05 0.00033642 -0.001075 9.3973e-05 -0.00016996 0.0018651 0.0021732
-0.012571 0.0024829 0.18981 0.26173
1580000000 0.29217 0.066702 -0.007409 0.01413 -0.0010312 -0.0053061 0.0015505 0.0018886
-0.00026059 -0.0023176 -0.00014575 0.00036684
-0.0074029 0.014116 0.17186 0.29781 0.0059053 0.0082845 0.00046892 -0.0016205
-0.00060351 -0.0009526 -0.0002457 -0.00086976
-0.0010401 -0.0053028 0.0059415 0.0082674 0.32947 -0.10426 -0.0016821 0.00067785
-0.00040031 -0.0012833 0.00028208 -0.00056958
0.0015506 0.0019214 0.00045583 -0.0016214 -0.0016062 0.00065033 0.23462 0.099944
-0.011197 0.0091608 0.0023033 0.00065406
-0.0002769 -0.0023093 -0.00064603 -0.00095044 -0.00039895 -0.0012311 -0.011189 0.0091949
0.17542 0.17893 -0.009592 0.0081536
-0.00015573 0.00037572 -0.00026193 -0.00083906 0.00032798 -0.00058288 0.0023153 0.00060674
-0.009587 0.008181 0.22097 0.23506
1640000000 0.29431 0.025658 -0.00049366 0.012403 -0.0030963 -0.0029058 0.0027309 0.0010473
-0.00093609 -0.0016126 -0.00031041 0.00053588
-0.00050266 0.012379 0.20108 0.27341 0.0064143 0.00314 -0.00069569 -0.0017666
-0.00096641 -0.00029838 -0.00062297 -0.0006885
-0.0031087 -0.0029229 0.0064422 0.0030893 0.30155 -0.15362 -0.00058472 0.0015459
-0.0011079 -0.00094808 -0.00024948 -0.00045161
0.0027438 0.001018 -0.00071824 -0.0017808 -0.00064065 0.0015259 0.24671 0.051609
-0.0060973 0.010016 0.0025764 -0.00086238
-0.00097919 -0.0016178 -0.00097937 -0.00029192 -0.0011223 -0.00096661 -0.0060853 0.010045
0.19863 0.15461 -0.0044236 0.010137
-0.00023644 0.00054368 -0.00064465 -0.00068741 -0.00016897 -0.00048494 0.0025863 -0.00082095
-0.0043556 0.010103 0.24638 0.20397
1700000000 0.28734 -0.019072 0.0028152 0.0090708 -0.0038628 -3.4501e-06 0.0031886 -0.0012465
-0.0021413 -0.00050074 0.00055045 0.00037317
0.0028319 0.0090652 0.21906 0.24266 0.0041551 6.5949e-05 -0.0015471 -0.00052251
-0.0007645 1.2409e-05 -0.00090471 -0.00041508
-0.0038569 2.1555e-05 0.0041636 1.9616e-05 0.25922 -0.19368 0.00046981 0.0016423
-0.0020811 -4.4516e-05 -0.00046918 -0.0010261
0.0031698 -0.0012503 -0.0015619 -0.00051635 0.00050439 0.00165 0.24324 0.0024789
-0.003121 0.0098258 0.0017266 -0.0022135
-0.0021598 -0.00049233 -0.00075547 2.2392e-05 -0.0020508 -3.7208e-05 -0.0030623 0.0098651
0.21553 0.13378 0.0004475 0.010376
0.00052009 0.00045264 -0.00092319 -0.00039741 -0.00049107 -0.00093014 0.0017448 -0.0022386
0.00040558 0.010376 0.26235 0.17005
1760000000 0.27583 -0.067356 0.0047685 0.0054579 -0.002517 0.0010667 0.0012334 -0.0034655
-0.001355 0.00085738 0.00034288 -0.00048307
0.0047593 0.0054554 0.24537 0.20371 0.0015885 -0.0017637 -0.0012094 0.00021157
-0.0009874 0.00087084 -0.00061157 0.00044206
-0.002502 0.0010811 0.0015658 -0.0017835 0.21151 -0.22765 0.0011186 0.001008
-0.0011882 0.0016052 -0.0012629 -0.00063639
0.0012478 -0.0034536 -0.0011955 0.00023532 0.0011792 0.0010356 0.23457 -0.048409
-4.3734e-05 0.0081527 -0.0001534 -0.002837
-0.001381 0.00087878 -0.0010154 0.00085713 -0.0012006 0.0016289 -2.9265e-06 0.0080812
0.23044 0.099036 0.0045904 0.0073765
0.00039667 -0.00052215 -0.00062062 0.00041136 -0.0012786 -0.00070858 -0.00021825 -0.0027844
0.0046007 0.0073758 0.27505 0.13218
1820000000 0.25194 -0.10441 0.0043952 0.0019438 -0.00035934 0.0026909 -0.0010674 -0.0030883
-0.00097136 0.0010618 -0.00011222 -1.9756e-05
0.0043815 0.0019278 0.25596 0.17424 -0.00084687 -0.00041498 -0.0012604 0.00097699
-0.0001055 0.0011814 -0.00050358 0.00058249
-0.00038367 0.0027094 -0.00088445 -0.00039542 0.16043 -0.24383 0.0016307 0.00036788
-8.63e-05 0.0023616 -0.0015063 0.00046568
-0.0011138 -0.0031358 -0.0012333 0.00099438 0.0015774 0.00029483 0.20537 -0.095101
0.00090919 0.0065398 -0.0017154 -0.001801
-0.00096784 0.0010663 -8.0882e-05 0.0012302 -0.00010053 0.0023558 0.00096052 0.0066084
0.24715 0.070175 0.0055353 0.0035754
-0.0001112 -0.00010323 -0.0004902 0.00059135 -0.0014613 0.00044665 -0.0016432 -0.0018862
0.0055791 0.0036505 0.27711 0.095721
1880000000 0.21754 -0.14488 0.0019149 -0.00016075 -0.00048921 0.0023581 -0.0029659 -0.0021478
1.1374e-05 0.0017318 6.7802e-06 -0.00052926
0.0019398 -0.00016204 0.26122 0.12813 -0.0028043 0.0015916 -0.00023017 0.0017037
0.00049554 0.0012957 0.00017892 0.00083053
-0.00046958 0.0023669 -0.0027923 0.0016124 0.10842 -0.25323 0.0016993 -0.00099441
0.0016528 0.0018906 -0.00093744 0.0012168
-0.0029493 -0.0022226 -0.00023396 0.0017021 0.0016738 -0.00093904 0.16547 -0.13528
0.001336 0.0045192 -0.0026648 0.00013913
-1.0006e-05 0.0017204 0.00049025 0.001248 0.0016351 0.0019316 0.0013261 0.0046353
0.25072 0.038727 0.005557 0.00096603
-3.4039e-05 -0.00050378 0.00015234 0.00085869 -0.00090238 0.0013482 -0.0025933 0.00026544
0.0056066 0.0008257 0.27702 0.06184
1940000000 0.17868 -0.17077 -0.00061796 -0.0014927 0.001455 0.0021188 -0.003729 0.00044411
0.0014286 0.00097677 -0.00045857 -0.00048318
-0.00060942 -0.0014958 0.26262 0.096318 -0.0015779 0.0041134 0.0011521 0.0012935
0.0018742 0.00058522 0.0010092 0.00030883
0.0014749 0.0020834 -0.0015269 0.0041499 0.062878 -0.24649 0.00058693 -0.0021245
0.0025048 0.00018941 0.00067493 0.00176
-0.0037446 0.00037067 0.0011295 0.0013076 0.00045196 -0.0022216 0.11382 -0.1666
0.00036059 0.0035787 -0.0018369 0.0015645
0.0014347 0.00093882 0.0018214 0.0005893 0.0024198 0.00021094 0.00043135 0.0035328
0.25338 0.00080343 0.0041253 -0.0023846
-0.00049525 -0.00053622 0.0010173 0.00028888 0.00060751 0.0017928 -0.001866 0.0015459
0.0040251 -0.0023347 0.26642 0.025148
2000000000 0.13308 -0.18615 -0.0041726 0.00077469 0.0026884 0.0015684 -0.0023844 0.0037859
0.0011122 0.00030896 -0.00061607 0.00060246
-0.0041927 0.00078555 0.24916 0.060528 -0.001034 0.0058792 0.0016482 0.0004841
0.0014523 -0.0010209 0.00045281 0.0001811
0.0027316 0.0014778 -0.00099587 0.0058832 0.019422 -0.23303 -0.0012029 -0.0013501
0.0020734 -0.0012911 0.0017085 0.0016273
-0.002326 0.0039147 0.0016281 0.00047047 -0.0012096 -0.0014527 0.060364 -0.1771
-0.00073079 0.0034168 -8.8554e-05 0.0024892
0.0011356 0.000365 0.0014288 -0.00096939 0.0020585 -0.0012719 -0.0009387 0.003458
0.24847 -0.032021 0.00062325 -0.0034074
