!Keysight Technologies,M9804A,MY58100912,A.14.10.03
!Date: Thursday, April 27, 2023 10:28:33
!Correction: S11(C  6-Port  ) 
!S12(C  6-Port  ) 
!S13(C  6-Port  ) 
!S14(C  6-Port  ) 
!S15(C  6-Port  ) 
!S16(C  6-Port  ) 
!S21(C  6-Port  ) 
!S22(C  6-Port  ) 
!S23(C  6-Port  ) 
!S24(C  6-Port  ) 
!S25(C  6-Port  ) 
!S26(C  6-Port  ) 
!S31(C  6-Port  ) 
!S32(C  6-Port  ) 
!S33(C  6-Port  ) 
!S34(C  6-Port  ) 
!S35(C  6-Port  ) 
!S36(C  6-Port  ) 
!S41(C  6-Port  ) 
!S42(C  6-Port  ) 
!S43(C  6-Port  ) 
!S44(C  6-Port  ) 
!S45(C  6-Port  ) 
!S46(C  6-Port  ) 
!S51(C  6-Port  ) 
!S52(C  6-Port  ) 
!S53(C  6-Port  ) 
!S54(C  6-Port  ) 
!S55(C  6-Port  ) 
!S56(C  6-Port  ) 
!S61(C  6-Port  ) 
!S62(C  6-Port  ) 
!S63(C  6-Port  ) 
!S64(C  6-Port  ) 
!S65(C  6-Port  ) 
!S66(C  6-Port  ) 
!S6P File: Measurement: :
# Hz S  RI   R 50
500000000 -0.33527 -0.05324 -0.010852 -0.0018033 -0.0088944 0.013589 -0.0044913 0.012235
0.012692 0.0061606 -0.0060519 0.0084449
-0.010937 -0.0017673 -0.41687 -0.062451 0.0077533 -0.010058 0.0014054 0.012013
0.0079384 0.0027492 0.0020448 0.014113
-0.008928 0.013698 0.0077883 -0.010015 -0.26707 0.20008 0.0068199 0.0040218
-0.0023407 0.008334 0.00034622 0.012941
-0.0047597 0.012067 0.001475 0.012146 0.0068087 0.004048 -0.33121 0.044403
-0.019524 -0.005157 0.017453 0.025458
0.012526 0.0064106 0.0080581 0.002924 -0.002157 0.0082375 -0.018955 -0.0057355
-0.24961 -0.19228 -0.026669 0.0039727
-0.0052385 0.0086834 0.0018416 0.014442 0.00040538 0.013137 0.017855 0.026421
-0.028031 0.0044224 -0.27181 -0.11879
560000000 -0.31834 0.11418 -0.023556 -0.064849 -0.00010647 0.013342 0.005341 0.010515
0.011015 0.0054937 0.012112 0.0078483
-0.023475 -0.064938 -0.37529 0.098964 -0.041219 -0.03828 0.013596 0.0041379
-0.0131 -0.0034907 0.0044761 -0.00024506
-6.7066e-05 0.013059 -0.041544 -0.03829 -0.18572 0.25136 -0.0002833 -0.0051737
0.017711 0.0049523 0.0081081 -0.0050366
0.0060356 0.010227 0.013745 0.0039313 -0.00023158 -0.0052531 -0.30715 0.13599
0.0053424 -0.024532 0.0042809 -0.021169
0.011239 0.0052755 -0.012988 -0.0032021 0.017465 0.0050652 0.0055088 -0.024353
-0.31249 -0.01499 0.0083271 -0.047428
0.011016 0.0079396 0.0030996 -0.00074554 0.0084212 -0.0060056 0.0037781 -0.021089
0.0095703 -0.047719 -0.33023 0.028232
620000000 -0.27821 0.094026 -0.023793 0.0086086 0.0040747 0.0097234 0.0085531 -0.0044987
0.011343 -0.00078411 0.00091712 -0.0019869
-0.023706 0.0087227 -0.40376 0.049805 -0.018492 0.00081315 -0.0010514 -0.0021277
0.011729 -0.0057701 0.0014347 -0.0031019
0.0041043 0.0096054 -0.018542 0.00086579 -0.15504 0.26099 -0.0006545 -0.0049696
-0.0035149 -0.0028417 0.0096839 -0.0018832
0.008636 -0.0042783 -0.00097486 -0.0021314 -0.00062757 -0.0049317 -0.26628 0.14731
-0.038428 -0.020903 0.012779 0.026811
0.011666 -0.0011003 0.011697 -0.0058241 -0.0030959 -0.002877 -0.037957 -0.020761
-0.23164 -0.044741 -0.040431 0.01237
0.0012534 -0.0017461 0.0013823 -0.0028162 0.0095506 -0.0025735 0.01205 0.027331
-0.039813 0.012442 -0.25159 -0.0029106
680000000 -0.23884 0.18449 -0.026341 -0.01393 0.0050904 0.00536 0.0014987 -0.0080839
-0.00189 -0.011494 0.0056675 -0.0075169
-0.02634 -0.01393 -0.38963 0.15071 -0.03259 -0.0018349 -0.001589 -0.00066213
-0.0016261 -0.0094315 -0.00080949 -0.0023597
0.0052947 0.0054233 -0.03262 -0.0017315 -0.10367 0.28102 -0.00085673 -0.00095383
-0.0016342 0.00028896 -0.003081 -0.0097404
0.0018524 -0.0079382 -0.0016119 -0.00067189 -0.00083308 -0.00093894 -0.21962 0.19748
-0.023942 -0.0079274 -0.0096288 -0.010749
-0.0020179 -0.011508 -0.0016585 -0.0096077 -0.0015625 0.00036938 -0.024012 -0.0076939
-0.27887 0.056625 -0.0082682 -0.0088759
0.0060698 -0.0076658 -0.00096815 -0.0021446 -0.0034473 -0.0092121 -0.0089067 -0.01025
-0.0084424 -0.008135 -0.26109 0.097363
740000000 -0.19302 0.17792 -0.039605 0.0272 0.013854 -0.0053042 -0.00024607 -0.0040672
-0.0048688 -0.0039701 -0.0071147 0.0034718
-0.039563 0.027184 -0.33438 0.16928 -0.03713 0.035044 -0.00047432 -0.0056691
-0.012471 0.0071363 -0.00092532 -0.0060156
0.013776 -0.0051636 -0.037106 0.035261 -0.069865 0.27786 -0.0020297 0.0031525
-0.0030442 -0.0065753 -0.0014526 0.0020517
-0.00011221 -0.0040273 -0.00030526 -0.0056384 -0.0019286 0.0031934 -0.20379 0.20521
-0.043593 -0.0070677 0.022916 0.01463
-0.0046705 -0.0041425 -0.012712 0.0069904 -0.0029604 -0.0062556 -0.042943 -0.0079576
-0.18152 0.083363 -0.041661 0.0025846
-0.0066513 0.0032751 -0.0014732 -0.0061384 -0.0013833 0.0013255 0.022674 0.015672
-0.04254 0.0012477 -0.24667 0.10308
800000000 -0.16138 0.22149 -0.022113 0.016086 0.0058719 -0.010852 -0.0044392 -0.0018374
-0.004394 0.0020841 0.0041432 0.00024508
-0.022207 0.016108 -0.3408 0.23922 -0.0085396 0.034163 -0.002331 0.0020533
-0.0012931 0.0027506 0.00081715 0.0052396
0.0058686 -0.010771 -0.0084483 0.034293 -0.031284 0.30206 0.00092598 0.0015699
4.1256e-05 0.0034892 -0.0016748 0.0011881
-0.0046481 -0.0018248 -0.0024255 0.0020672 0.00085484 0.0016852 -0.17432 0.23238
-0.028996 0.013794 0.014033 -0.010469
-0.0043902 0.002434 -0.0014173 0.0028236 -9.533e-05 0.0035835 -0.028384 0.013755
-0.22079 0.11169 -0.017923 0.020328
0.0043218 0.00039885 0.0011591 0.0053235 -0.001538 0.0011788 0.013768 -0.0099847
-0.01784 0.019979 -0.23855 0.15285
860000000 -0.12681 0.24125 -0.017586 0.030794 -0.0027895 -0.010475 -0.0017987 0.00087972
0.0040927 0.005317 -0.0036799 -0.0030738
-0.017723 0.03071 -0.29294 0.28259 0.007597 0.034985 0.00037766 0.0022865
0.0034277 0.0017858 0.0028227 0.00048524
-0.0028575 -0.010545 0.0076766 0.035003 0.015941 0.31097 -0.00057383 5.2862e-05
0.0021166 -0.00096341 0.0017311 0.0040203
-0.0018089 0.00060633 0.00037367 0.0023531 -0.00059019 4.7885e-05 -0.13779 0.24268
-0.018059 0.018644 -0.0052152 -0.0088175
0.0042001 0.0053302 0.0035993 0.0017527 0.0021313 -0.001018 -0.017862 0.019061
-0.16395 0.163 -0.025043 0.017594
-0.0039217 -0.0029025 0.0028646 0.00060148 0.001773 0.0040876 -0.005285 -0.0092025
-0.023777 0.017642 -0.18873 0.19675
920000000 -0.1032 0.26468 0.0047862 0.03839 -0.0094134 -0.0052204 -0.0016174 0.0018439
0.0020937 0.002228 0.0031471 -0.0018221
0.0047317 0.038353 -0.26586 0.3036 0.028536 0.022871 0.0015725 0.0013005
0.0083046 -0.00029672 0.0040496 -0.0030361
-0.0094422 -0.0052443 0.028606 0.022785 0.061579 0.31256 0.0021092 8.4988e-05
0.0014817 -0.00023626 0.0010781 -0.0015138
-0.0016272 0.001837 0.0015057 0.0013305 0.0020813 0.00012814 -0.11314 0.26005
-0.010589 0.031165 0.0036234 -0.0071553
0.0020462 0.002263 0.0083478 -0.00011282 0.0014171 -0.00026814 -0.010595 0.03136
-0.15149 0.16704 -0.0018817 0.025596
0.0032308 -0.0016706 0.0042303 -0.0028414 0.0010005 -0.00133 0.0038118 -0.0068046
-0.0016854 0.026234 -0.19566 0.21071
980000000 -0.056854 0.2842 0.017058 0.030122 -0.0097246 0.0040664 0.0019284 0.003244
0.0040136 -0.0018955 -0.0032175 -0.0023465
0.017088 0.030122 -0.21285 0.33821 0.033903 0.0053198 0.0020799 -0.00032349
0.0017296 -0.0061805 -0.0002114 -0.0024543
-0.0096905 0.0041036 0.033969 0.0052268 0.10754 0.30707 0.00076829 -0.0012375
0.00042597 -0.0020635 0.0014845 -0.00023982
0.0018632 0.0031875 0.0020692 -0.00028738 0.00078666 -0.0012093 -0.074879 0.27085
0.0075983 0.03044 -0.009153 -0.0069991
0.0039924 -0.001942 0.0016518 -0.0063139 0.00043354 -0.0020711 0.0076756 0.030398
-0.11874 0.1979 0.0060584 0.01923
-0.0030488 -0.00226 -0.00038418 -0.0024545 0.0014829 -0.00026649 -0.0087581 -0.0071503
0.0058106 0.019643 -0.15216 0.2541
1040000000 -0.015594 0.29349 0.033085 0.018881 -0.0018527 0.007197 0.0025603 0.00075151
0.00026185 -0.0035939 -0.00026425 -0.0020348
0.033035 0.018905 -0.17804 0.35197 0.030416 -0.014973 0.0016079 -0.0018363
-0.002077 -0.0030003 -0.00095387 -0.0031219
-0.0018127 0.0072143 0.03037 -0.015105 0.15382 0.29433 -0.00046321 -0.0017182
-0.0015597 -0.0010743 -0.00061591 -0.0011974
0.0025881 0.00070629 0.001639 -0.001875 -0.00048712 -0.0017222 -0.047248 0.28098
0.020272 0.018894 -0.0026692 0.0008685
0.00026742 -0.0035787 -0.0022303 -0.0029539 -0.0016303 -0.001108 0.020357 0.019071
-0.08501 0.20383 0.014233 0.017781
-0.000326 -0.0015702 -0.0011947 -0.0031558 -0.00060934 -0.0011578 -0.0027621 0.0010284
0.013861 0.01734 -0.12926 0.27407
1100000000 0.029292 0.30263 0.03677 -0.0037326 0.0027463 0.0043061 0.0023426 -0.0010206
-0.0023322 -0.0029543 -0.0040235 4.3796e-05
0.036733 -0.0037076 -0.13492 0.37045 0.015988 -0.028651 -1.5896e-05 -0.001855
-0.00397 -0.00088825 -0.0036957 -0.00036438
0.0027603 0.0043157 0.015898 -0.028724 0.20049 0.27484 -0.0019798 9.2472e-05
-0.00186 0.00056689 -0.0011781 -0.00047073
0.0023478 -0.001038 1.8047e-05 -0.0018508 -0.0019794 0.00011629 -0.0067141 0.28599
0.026023 0.0051468 -0.0025923 0.00012516
-0.0022429 -0.0029727 -0.0040109 -0.00089344 -0.0018876 0.00056179 0.02607 0.0051926
-0.064977 0.21675 0.01989 0.008189
-0.0040141 6.0873e-05 -0.0037601 -0.00039374 -0.0011457 -0.00045755 -0.0023897 0.00015124
0.019917 0.0082064 -0.083856 0.30255
1160000000 0.07988 0.29888 0.024595 -0.021179 0.0027174 -0.00035682 -7.8806e-05 -0.002292
-0.0039774 -0.00082339 -0.00097321 0.0042678
0.02461 -0.021158 -0.091305 0.37553 -0.0037221 -0.030151 -0.0016156 -0.0018582
-0.0027886 0.0027124 -0.0015843 0.001969
0.0027272 -0.00037587 -0.0038683 -0.030175 0.24423 0.24422 -0.00082443 0.0018473
-0.00073998 0.0020769 -0.00084409 0.0003712
-0.00011465 -0.0023621 -0.0016337 -0.001857 -0.00084155 0.0018481 0.032801 0.28353
0.022302 -0.011349 -0.0033316 0.0050163
-0.0040439 -0.00078058 -0.0027063 0.0026555 -0.0007068 0.002077 0.022302 -0.01138
-0.030562 0.22444 0.018909 -0.0013258
-0.0010095 0.0042543 -0.0014894 0.0020516 -0.00084591 0.00042863 -0.0034824 0.0049578
0.019065 -0.0011061 -0.036793 0.30555
1220000000 0.12428 0.28925 0.010879 -0.030799 -0.001644 -0.00083864 0.00011815 -0.00080727
-0.002779 0.0022144 0.0011556 0.0020953
0.010878 -0.030748 -0.046685 0.38875 -0.017607 -0.022173 -0.0027153 0.00054724
2.1922e-05 0.0032809 -0.00075943 0.0020621
-0.0016545 -0.00085059 -0.017727 -0.022116 0.28332 0.205 0.00078264 0.0018728
0.00068778 0.0013156 0.00026951 0.00062518
0.00011234 -0.00082902 -0.0027113 0.00057417 0.00077295 0.0018689 0.073337 0.27448
0.011124 -0.018757 0.0017347 0.0015455
-0.0028239 0.0022168 3.8643e-05 0.0033377 0.00063671 0.0013353 0.011186 -0.018799
-0.0070209 0.2324 0.013863 -0.014113
0.001293 0.0020871 -0.00079825 0.0020505 0.0002852 0.00060651 0.0018815 0.0015124
0.01384 -0.014089 -0.0048232 0.3196
1280000000 0.1748 0.26889 -0.0083454 -0.029339 -0.0020483 0.0026725 -0.00076633 -0.0019874
-0.0008328 0.0033334 0.0025399 0.0012963
-0.0083036 -0.029314 8.5215e-05 0.38039 -0.024928 -0.0087999 -0.00093597 0.0015729
0.001896 0.001863 0.0006995 0.0021046
-0.0020086 0.0026723 -0.024969 -0.0087093 0.31356 0.16102 0.0017175 7.1153e-06
0.0013901 0.00030516 0.00037276 0.00046568
-0.0007554 -0.0020315 -0.00095595 0.0015809 0.0017286 1.3321e-06 0.11035 0.25789
0.00026839 -0.020907 -0.00029001 0.0003425
-0.00078746 0.0033672 0.0018686 0.001856 0.0013492 0.00028242 0.00023998 -0.020914
0.029812 0.23557 0.0029889 -0.016265
0.0026218 0.0013965 0.00083406 0.0021311 0.00038474 0.00035159 -0.00025255 0.00030291
0.0028291 -0.016204 0.042072 0.3209
1340000000 0.21255 0.23591 -0.018441 -0.019185 0.0008877 0.0049289 -0.0018217 -0.00089038
0.0014632 0.0027128 0.0019068 -0.0013132
-0.018388 -0.019173 0.039957 0.37209 -0.022427 0.0046578 1.4692e-05 0.0021461
0.0021159 0.0007277 0.0013625 0.00080335
0.0009031 0.0049421 -0.022445 0.0047758 0.33493 0.11385 0.0011581 -0.00095382
0.00064713 -0.00065425 5.5015e-05 0.00030496
-0.0018118 -0.00089982 -1.0772e-05 0.0021294 0.0011232 -0.00097288 0.14337 0.23644
-0.0098886 -0.017635 0.00054631 0.00062714
0.0014598 0.0027088 0.0020961 0.00070979 0.00060976 -0.00067905 -0.0099263 -0.017644
0.060201 0.2305 -0.0046658 -0.014607
0.0018577 -0.0013423 0.0013586 0.00073551 -2.1792e-06 0.00026708 0.00055283 0.00066004
-0.0045804 -0.014551 0.080344 0.31506
1400000000 0.24651 0.19839 -0.024239 -0.0071327 0.0055485 0.0035171 -0.0022507 0.00059115
0.0024853 0.00096484 0.00017925 -0.0016079
-0.0242 -0.0071467 0.077626 0.35911 -0.015346 0.013276 0.0014328 0.0012389
0.0012891 -0.00094909 0.0012427 8.8016e-05
0.0055937 0.0034868 -0.015319 0.013361 0.34774 0.06142 1.5264e-05 -0.0017883
0.00014857 -0.00047242 0.00042638 0.00019788
-0.0022811 0.00062236 0.0014394 0.001236 3.6496e-05 -0.0017648 0.17263 0.20726
-0.016262 -0.0097844 -0.00079526 7.4759e-05
0.0025376 0.00097341 0.001282 -0.00095078 0.00014439 -0.00048734 -0.016305 -0.0097546
0.093383 0.22537 -0.011377 -0.0089335
0.00026066 -0.0016183 0.0012531 3.2407e-05 0.00036598 0.00023221 -0.00077189 0.00012202
-0.011403 -0.0089239 0.12431 0.30357
1460000000 0.26994 0.15455 -0.02075 0.0055741 0.0061685 -0.0018765 -0.0015685 0.0017768
0.0023007 -0.00061534 -0.00043194 -0.0010816
-0.020728 0.0055516 0.11181 0.3369 -0.0058737 0.016306 0.0016848 6.7065e-05
0.00074713 -0.0014673 0.0012162 -0.00068633
0.0061885 -0.0018958 -0.0058179 0.016363 0.35432 0.0081782 -0.0013281 -0.001338
0.00020959 -0.00025786 0.00078524 -0.00023315
-0.0015775 0.0017857 0.001708 5.9431e-05 -0.0013444 -0.0013423 0.19883 0.1776
-0.017272 -0.0021332 -0.00062107 0.0022733
0.0023126 -0.00060816 0.00075708 -0.0014851 0.00018903 -0.00026364 -0.017258 -0.002086
0.12298 0.21078 -0.013146 -0.0024246
-0.00046006 -0.00096737 0.0012283 -0.00065226 0.00079493 -0.00032343 -0.00070509 0.0022352
-0.013137 -0.0025603 0.15761 0.28255
1520000000 0.28246 0.11276 -0.014614 0.011125 0.0037499 -0.0045717 0.00013444 0.0026354
0.0021769 -0.0021345 -0.0012429 -0.00013816
-0.01462 0.011094 0.14501 0.32234 0.0022113 0.013641 0.0016233 -0.00083115
-6.394e-05 -0.0010996 0.00027743 -0.001077
0.0037055 -0.0045739 0.0022871 0.01363 0.34826 -0.047104 -0.0011611 -0.0002757
0.00067999 -0.00099933 0.00011075 -0.00028134
0.00013316 0.0026379 0.0016143 -0.00083405 -0.0011797 -0.0002896 0.22154 0.13922
-0.015771 0.0044481 0.001828 0.0021993
0.0021401 -0.0021675 -8.7903e-05 -0.001098 0.00066534 -0.00099318 -0.015777 0.0044865
0.15097 0.19693 -0.012471 0.0025365
-0.0012407 -0.00016663 0.00022767 -0.0010541 9.3436e-05 -0.00026038 0.001848 0.0022034
-0.012554 0.002604 0.19002 0.26166
1580000000 0.29224 0.066684 -0.0074032 0.014077 -0.0010034 -0.0053631 0.0015805 0.001888
-0.00030825 -0.0023691 -0.00020367 0.00035389
-0.0073902 0.014074 0.17194 0.29774 0.005929 0.0082566 0.00046978 -0.0016104
-0.0006025 -0.00093461 -0.00028361 -0.00088604
-0.0010042 -0.0053799 0.0059602 0.0082348 0.32945 -0.10438 -0.0016458 0.00068455
-0.00039004 -0.0011728 0.00023298 -0.00057055
0.0015818 0.0019033 0.00046114 -0.0016019 -0.0016424 0.00068843 0.23469 0.099874
-0.01108 0.0093124 0.0023996 0.00067136
-0.00028633 -0.002361 -0.00059051 -0.00093141 -0.0003823 -0.0011909 -0.011087 0.0093201
0.17548 0.17877 -0.0097005 0.0083194
-0.00013611 0.00033655 -0.00022936 -0.00091913 0.00030079 -0.00062416 0.0023391 0.00055192
-0.0095728 0.0082725 0.2212 0.23501
1640000000 0.29432 0.025641 -0.00050723 0.012373 -0.0030871 -0.0029357 0.0027692 0.0010012
-0.00090558 -0.0016408 -0.00029076 0.00057425
-0.00051813 0.012353 0.20117 0.27336 0.0064264 0.0031032 -0.00069597 -0.0017486
-0.00097941 -0.00031584 -0.0006061 -0.00065842
-0.0031044 -0.002925 0.0064802 0.0030719 0.3016 -0.15372 -0.00064474 0.0015574
-0.0011741 -0.00097262 -0.00025228 -0.00041097
0.0027667 0.00098858 -0.00071215 -0.001747 -0.00065935 0.0015597 0.24668 0.051537
-0.0060765 0.010087 0.0026824 -0.00094743
-0.00090803 -0.0016065 -0.0010011 -0.00030878 -0.0011935 -0.00097551 -0.0060356 0.010139
0.19863 0.15444 -0.0042849 0.010287
-0.00032584 0.00054366 -0.00063804 -0.00061832 -0.00035483 -0.00040778 0.0027083 -0.00090512
-0.0043531 0.010259 0.24647 0.20398
1700000000 0.28737 -0.019175 0.0028224 0.0090337 -0.003908 -2.748e-05 0.0031491 -0.0012708
-0.0021307 -0.00054808 0.00049797 0.00033945
0.0028139 0.0090342 0.21918 0.2426 0.0041416 6.4329e-05 -0.0015305 -0.00056701
-0.00074023 3.8218e-05 -0.00093133 -0.00042242
-0.0039245 5.8448e-05 0.0041263 7.3977e-05 0.25919 -0.19389 0.00054487 0.0016509
-0.0020869 2.4791e-05 -0.00048687 -0.00091476
0.0031462 -0.0012665 -0.0015324 -0.00054769 0.00050808 0.001621 0.24319 0.0022959
-0.0029913 0.0097343 0.0016438 -0.0022983
-0.0021363 -0.00051842 -0.000728 4.9684e-05 -0.0020166 4.0675e-05 -0.0029988 0.0097189
0.21559 0.13379 0.00054971 0.010334
0.00059394 0.00033659 -0.00092583 -0.00040995 -0.0004573 -0.00091942 0.0015915 -0.0022397
0.00050943 0.010276 0.26276 0.16974
1760000000 0.27588 -0.067442 0.0047403 0.005447 -0.0025265 0.0010464 0.0012333 -0.0034701
-0.0013486 0.00086292 0.00030487 -0.00050714
0.0047261 0.005438 0.24544 0.20357 0.0016168 -0.001833 -0.0012319 0.00024039
-0.0010218 0.00085313 -0.00059438 0.00039429
-0.0025281 0.0010521 0.0015854 -0.0018252 0.21128 -0.22782 0.0011516 0.0009916
-0.0012638 0.0015529 -0.0013857 -0.0006815
0.0011674 -0.0034646 -0.0012398 0.00024634 0.0011276 0.0010231 0.2345 -0.048366
-9.6311e-05 0.0081297 -0.00014034 -0.0027501
-0.0014132 0.0008536 -0.0010177 0.00087849 -0.0012694 0.0015454 -4.1241e-05 0.0080846
0.23033 0.098958 0.0046631 0.0073436
0.00030874 -0.00054535 -0.00059876 0.00042243 -0.0013285 -0.00064427 -5.6845e-05 -0.0026951
0.0047661 0.0074511 0.27514 0.13182
1820000000 0.25191 -0.10452 0.0043966 0.0019257 -0.0003512 0.0027492 -0.0010578 -0.0031025
-0.00097191 0.0011283 -2.4154e-05 -6.3875e-05
0.0044086 0.0019201 0.25602 0.17412 -0.00092356 -0.00047421 -0.0012321 0.00097813
-9.7707e-05 0.001195 -0.0005316 0.00055344
-0.00036196 0.0027284 -0.00095751 -0.00047178 0.16037 -0.24392 0.0015591 0.00042177
-6.7699e-05 0.002349 -0.0014394 0.00043172
-0.0010837 -0.0031486 -0.0012519 0.00098569 0.0015741 0.00039252 0.2053 -0.095211
0.0010447 0.0064746 -0.001602 -0.0016756
-0.00099868 0.0011374 -9.8685e-05 0.001215 -9.4756e-05 0.0023532 0.0010544 0.0065568
0.2474 0.070098 0.0054932 0.0037211
-4.7872e-05 -4.1916e-05 -0.00050793 0.00051099 -0.0014714 0.00051423 -0.0017433 -0.0017611
0.0054741 0.0034921 0.2773 0.09578
1880000000 0.21744 -0.14492 0.0018944 -0.00018291 -0.00048741 0.0023378 -0.0029349 -0.0021491
6.2736e-05 0.0017363 1.7821e-05 -0.00051159
0.0018937 -0.00016825 0.26126 0.12795 -0.0028409 0.00157 -0.00012888 0.0017696
0.00054097 0.0013244 0.0001618 0.00086483
-0.00046411 0.0023042 -0.0028293 0.001631 0.10817 -0.25329 0.0018467 -0.00087537
0.0016612 0.0019267 -0.00090935 0.0013421
-0.0029369 -0.0021873 -0.00010628 0.0017771 0.0018101 -0.0008392 0.16538 -0.13528
0.0013662 0.0045587 -0.0025564 8.0791e-05
-1.288e-08 0.0017309 0.00052367 0.0013522 0.0016632 0.0019288 0.0013591 0.0045919
0.25086 0.038732 0.0056232 0.00089607
0.00010505 -0.00061071 0.00016722 0.00090265 -0.0010069 0.0013786 -0.0025374 0.00016196
0.0056636 0.0010488 0.27734 0.061622
1940000000 0.17863 -0.17069 -0.00068471 -0.0014486 0.0013242 0.002123 -0.0036745 0.0004433
0.0014474 0.0010027 -0.00041488 -0.00055724
-0.00067175 -0.0014463 0.2626 0.096093 -0.00155 0.0040789 0.0010958 0.0012852
0.001851 0.00059318 0.0010465 0.00035023
0.0013661 0.0020896 -0.0015068 0.0040396 0.062816 -0.24641 0.00060605 -0.0022094
0.0025034 0.00026846 0.00069466 0.0018137
-0.0037029 0.00044233 0.0010685 0.0012769 0.00068726 -0.0021482 0.11349 -0.16681
0.00042331 0.0035251 -0.0018749 0.0016765
0.0014185 0.00095401 0.0018678 0.00057773 0.0025601 0.00035437 0.00043717 0.0034264
0.25354 0.00066302 0.0039669 -0.0025122
-0.00035464 -0.00056995 0.0011572 0.00032195 0.00072135 0.0017891 -0.0019756 0.0015441
0.004064 -0.0025786 0.26619 0.024855
2000000000 0.13296 -0.18642 -0.0042128 0.00077236 0.0026017 0.0016202 -0.0023772 0.0036844
0.0012531 0.00027646 -0.00051233 0.00057516
-0.0042093 0.00076867 0.24911 0.060348 -0.0010982 0.0059064 0.0016239 0.00039135
0.0014577 -0.0010075 0.00050994 0.00011656
0.0026731 0.0016104 -0.0010648 0.0058721 0.019454 -0.2331 -0.0012365 -0.0013621
0.0019981 -0.0012304 0.001664 0.0014242
-0.0023403 0.0036909 0.0016509 0.00039558 -0.0013275 -0.0013733 0.060615 -0.1773
-0.0008049 0.0035724 -0.00014166 0.0023295
0.0012914 0.00028545 0.0014618 -0.00097821 0.0020096 -0.0012891 -0.00077119 0.0036697
0.24849 -0.03217 0.00067126 -0.0033788
