!Keysight Technologies,M9804A,MY58100912,A.14.10.03
!Date: Thursday, April 27, 2023 10:28:33
!Correction: S11(C  6-Port  ) 
!S12(C  6-Port  ) 
!S13(C  6-Port  ) 
!S14(C  6-Port  ) 
!S15(C  6-Port  ) 
!S16(C  6-Port  ) 
!S21(C  6-Port  ) 
!S22(C  6-Port  ) 
!S23(C  6-Port  ) 
!S24(C  6-Port  ) 
!S25(C  6-Port  ) 
!S26(C  6-Port  ) 
!S31(C  6-Port  ) 
!S32(C  6-Port  ) 
!S33(C  6-Port  ) 
!S34(C  6-Port  ) 
!S35(C  6-Port  ) 
!S36(C  6-Port  ) 
!S41(C  6-Port  ) 
!S42(C  6-Port  ) 
!S43(C  6-Port  ) 
!S44(C  6-Port  ) 
!S45(C  6-Port  ) 
!S46(C  6-Port  ) 
!S51(C  6-Port  ) 
!S52(C  6-Port  ) 
!S53(C  6-Port  ) 
!S54(C  6-Port  ) 
!S55(C  6-Port  ) 
!S56(C  6-Port  ) 
!S61(C  6-Port  ) 
!S62(C  6-Port  ) 
!S63(C  6-Port  ) 
!S64(C  6-Port  ) 
!S65(C  6-Port  ) 
!S66(C  6-Port  ) 
!S6P File: Measurement: :
# Hz S  RI   R 50
500000000 -0.33443 -0.052247 -0.010932 -0.0015485 -0.0083123 0.013402 -0.0040503 0.012482
0.011291 0.0055166 -0.0046824 0.0088616
-0.010816 -0.0014853 -0.41725 -0.062434 0.0076749 -0.010599 0.0021904 0.012055
0.0073233 0.0024698 0.002068 0.013719
-0.0080761 0.013043 0.0076374 -0.010611 -0.26693 0.2002 0.0074015 0.0034178
-0.0019088 0.008056 0.0011446 0.012232
-0.0040896 0.012761 0.0022004 0.011989 0.007389 0.0034346 -0.3305 0.044821
-0.01884 -0.0045436 0.017964 0.025518
0.010972 0.0057946 0.0072543 0.0025389 -0.001889 0.0080884 -0.018756 -0.0045111
-0.24963 -0.19159 -0.026305 0.0055363
-0.0043362 0.0096872 0.002257 0.013712 0.0011705 0.012179 0.017883 0.025562
-0.025978 0.0054963 -0.27108 -0.11625
560000000 -0.3167 0.11556 -0.023464 -0.064546 0.00022115 0.013232 0.0050608 0.010752
0.012445 0.005319 0.0096381 0.0079432
-0.022956 -0.064993 -0.37497 0.099021 -0.041626 -0.037286 0.0137 0.0027908
-0.012724 -0.003555 0.0039285 -0.0016499
0.00074596 0.013304 -0.041647 -0.037294 -0.18576 0.25109 -0.00026537 -0.0047765
0.01818 0.0047673 0.0078865 -0.0053328
0.0053371 0.010377 0.013689 0.0026874 -0.00024724 -0.0047732 -0.30683 0.13527
0.0053358 -0.024643 0.0048428 -0.021141
0.012304 0.0045702 -0.012601 -0.0037642 0.01821 0.0047486 0.0052739 -0.024531
-0.31273 -0.012001 0.011078 -0.047679
0.010427 0.0072352 0.004243 -0.0015933 0.0079032 -0.0052886 0.004959 -0.02111
0.0105 -0.047639 -0.33242 0.029029
620000000 -0.27736 0.094389 -0.022849 0.008414 0.0037388 0.0095167 0.0071708 -0.0041747
0.013683 -0.00094628 0.00050617 -0.0015517
-0.022687 0.0083834 -0.40335 0.050243 -0.018715 0.00057891 -0.0016087 -0.0018205
0.012196 -0.0066574 0.0011144 -0.0027727
0.003958 0.0097737 -0.018721 0.00061352 -0.15578 0.26052 -0.00080719 -0.0050508
-0.0036005 -0.0023891 0.0094397 -0.0032867
0.0072585 -0.003822 -0.0016104 -0.0017775 -0.00080357 -0.005081 -0.26456 0.14662
-0.039648 -0.019792 0.01434 0.026865
0.014113 -0.0011104 0.012165 -0.0067635 -0.0035541 -0.0023701 -0.039701 -0.019897
-0.23055 -0.044823 -0.04239 0.012804
0.00084954 -0.0014004 0.0013333 -0.0027689 0.0094902 -0.0029861 0.014261 0.027293
-0.042031 0.01298 -0.25116 -0.002005
680000000 -0.23743 0.1856 -0.026477 -0.014337 0.0054684 0.0054072 0.0015397 -0.0081621
-0.0029659 -0.011749 0.0042099 -0.0071464
-0.026419 -0.014531 -0.38959 0.15077 -0.032533 -0.0020652 -0.0012828 -0.00074915
-0.0019529 -0.0095208 -0.0008718 -0.0016923
0.0054189 0.0051995 -0.032582 -0.0019773 -0.10363 0.28087 -0.00080903 -0.00049876
-0.0020061 0.00078915 -0.0025461 -0.0088554
0.0021336 -0.0082792 -0.0013036 -0.0007282 -0.00081107 -0.00046763 -0.22024 0.1982
-0.02331 -0.0078726 -0.0085303 -0.011111
-0.0028581 -0.012045 -0.0019941 -0.0095304 -0.0020187 0.00081261 -0.023293 -0.0079075
-0.2782 0.057911 -0.0078784 -0.007533
0.0041687 -0.0076897 -0.00081589 -0.0017228 -0.0024971 -0.0090828 -0.0084451 -0.011158
-0.0076396 -0.0074088 -0.25855 0.098162
740000000 -0.19257 0.17772 -0.039954 0.026884 0.013828 -0.0043663 -0.00030875 -0.0041868
-0.0051845 -0.0031426 -0.0063058 0.0037007
-0.039808 0.02683 -0.3358 0.1693 -0.036752 0.034775 -0.00032316 -0.0055982
-0.012347 0.0069265 -0.0013558 -0.0058983
0.013963 -0.0045038 -0.036694 0.034907 -0.070162 0.27877 -0.0019799 0.0033213
-0.002675 -0.0055542 -0.0015613 0.0012298
-0.00038561 -0.0039199 -0.00030872 -0.0055774 -0.0020042 0.0033206 -0.20349 0.20489
-0.043499 -0.0075404 0.022016 0.015318
-0.0049425 -0.0029351 -0.012364 0.0070636 -0.0026943 -0.0055699 -0.043515 -0.0074607
-0.17841 0.083611 -0.041817 -0.00058455
-0.0063102 0.0035201 -0.0011959 -0.005841 -0.0015427 0.0011659 0.021923 0.015303
-0.041765 -0.00021932 -0.24888 0.10494
800000000 -0.16157 0.22149 -0.023013 0.016089 0.0055327 -0.010484 -0.0046609 -0.0017421
-0.0047554 0.0021217 0.0034293 0.00011033
-0.022933 0.016162 -0.34122 0.24011 -0.0087061 0.034216 -0.002358 0.0021879
-0.0012752 0.002746 0.00079676 0.0052857
0.0054708 -0.01043 -0.008629 0.034262 -0.031186 0.30257 0.00088358 0.0013279
-7.168e-05 0.0037059 -0.0020785 0.00084082
-0.0046345 -0.0020206 -0.0023389 0.0021928 0.00087362 0.0013245 -0.17388 0.23222
-0.029268 0.013193 0.013788 -0.01061
-0.0047526 0.0021861 -0.0013223 0.0028281 -8.9016e-05 0.0037102 -0.029283 0.013292
-0.21998 0.11216 -0.017698 0.019719
0.0034788 -6.654e-06 0.0008074 0.0052083 -0.0019143 0.00070244 0.014049 -0.010452
-0.01769 0.019506 -0.23953 0.15293
860000000 -0.12714 0.24142 -0.018095 0.030573 -0.0029875 -0.010228 -0.0023136 0.00066607
0.0039417 0.0049095 -0.0034522 -0.0029908
-0.018159 0.030613 -0.29276 0.28295 0.0075898 0.034616 -3.572e-05 0.00211
0.0038063 0.00066937 0.0032727 0.0002834
-0.0029518 -0.010286 0.0077037 0.034625 0.016427 0.3112 -0.00079043 -1.0624e-06
0.0023292 -0.0014461 0.0016388 0.0043598
-0.0024238 0.00089824 -2.5847e-05 0.002114 -0.00079 -9.0355e-06 -0.13773 0.24314
-0.018939 0.018135 -0.0063247 -0.0084515
0.0038701 0.005012 0.0038065 0.00066664 0.0023277 -0.001447 -0.018875 0.018162
-0.16479 0.16273 -0.02357 0.016134
-0.0034318 -0.0026001 0.0032385 0.00041371 0.0016166 0.0044439 -0.006631 -0.00852
-0.023883 0.016158 -0.18961 0.1975
920000000 -0.1031 0.26493 0.0043942 0.038219 -0.0094647 -0.0049554 -0.001856 0.0018089
0.0010933 0.0017998 0.0025403 -0.0013482
0.0043363 0.03824 -0.26556 0.30429 0.028155 0.022804 0.0013872 0.0012328
0.0072817 -0.00052553 0.0039463 -0.0028514
-0.0094547 -0.0048559 0.028245 0.022745 0.061982 0.31258 0.0018302 2.882e-05
0.0011905 -0.00025631 0.000849 -0.0012592
-0.0018561 0.0016871 0.0014008 0.0012287 0.0018377 2.5329e-05 -0.11316 0.25996
-0.011262 0.031063 0.0032241 -0.0068035
0.0010628 0.0017731 0.0072258 -0.00051177 0.0011766 -0.00027301 -0.011176 0.03115
-0.15308 0.16878 -0.0019073 0.026489
0.0024452 -0.0012712 0.0040251 -0.0028133 0.00083854 -0.0012704 0.0032607 -0.0067145
-0.0018866 0.026563 -0.19478 0.21148
980000000 -0.056597 0.285 0.016932 0.030419 -0.009493 0.0042975 0.001848 0.003557
0.0040224 -0.0017757 -0.0029157 -0.0025393
0.01679 0.030396 -0.21227 0.33891 0.033534 0.0054451 0.0020644 -0.00019758
0.0017342 -0.00589 -0.0003712 -0.0027831
-0.0094621 0.0042854 0.03358 0.0053355 0.10803 0.30685 0.00072548 -0.0011946
0.00045881 -0.0019617 0.0014146 -0.00023462
0.0018004 0.0036108 0.0020816 -0.00018366 0.00070431 -0.0011905 -0.074923 0.27128
0.0075108 0.030647 -0.0089662 -0.0067533
0.0040484 -0.0018757 0.0017329 -0.0059819 0.00047744 -0.0019401 0.0075625 0.030609
-0.11902 0.19872 0.0061646 0.019339
-0.0028958 -0.002274 -0.00037785 -0.0027078 0.0014238 -0.00023104 -0.0089407 -0.0068185
0.0060899 0.019195 -0.15204 0.2555
1040000000 -0.014857 0.29428 0.033054 0.019336 -0.0014905 0.0071589 0.0026432 0.00074342
0.00052648 -0.0034857 -0.00025793 -0.001429
0.032945 0.019302 -0.17708 0.35266 0.030238 -0.014603 0.0015773 -0.0018327
-0.0019775 -0.0026467 -0.0012028 -0.0029363
-0.0014635 0.0071979 0.030203 -0.014724 0.15398 0.29389 -0.00049064 -0.0016912
-0.0014905 -0.00098581 -0.00054303 -0.0011763
0.0026772 0.0006202 0.0016058 -0.0017865 -0.00048511 -0.0016941 -0.047037 0.28103
0.019801 0.018921 -0.0025229 0.0011465
0.00059427 -0.0035063 -0.0019466 -0.0026398 -0.00148 -0.00099811 0.019804 0.018914
-0.085309 0.20542 0.014093 0.017558
-0.00021866 -0.0016092 -0.0011626 -0.0029284 -0.0005093 -0.0011629 -0.0025245 0.0012392
0.014032 0.017616 -0.12891 0.27491
1100000000 0.029956 0.30293 0.036616 -0.0036327 0.0029187 0.0042541 0.002589 -0.001273
-0.0023316 -0.0029881 -0.0039246 -0.00025189
0.036563 -0.0035534 -0.13373 0.37048 0.015921 -0.028071 0.00016196 -0.0019021
-0.0036127 -0.00082873 -0.0035693 -0.00058972
0.0029498 0.0042311 0.015825 -0.028165 0.20037 0.27435 -0.0019571 0.00011493
-0.0018256 0.00043252 -0.0010365 -0.00045438
0.0024952 -0.0012358 0.00014411 -0.0019167 -0.0019556 0.00011702 -0.0064463 0.28613
0.025649 0.0052504 -0.0026649 7.5443e-05
-0.0022868 -0.0029944 -0.003641 -0.00079374 -0.0017975 0.00044203 0.025662 0.0052056
-0.064381 0.21778 0.020026 0.007827
-0.0038719 -8.5926e-05 -0.0036449 -0.0005239 -0.0010732 -0.00045634 -0.0026158 6.4254e-05
0.020048 0.007731 -0.082991 0.30272
1160000000 0.081143 0.29902 0.024692 -0.0206 0.0029176 -0.00056498 -0.00028223 -0.0024309
-0.0040089 -0.00082334 -0.0011301 0.0040196
0.02468 -0.020654 -0.090136 0.37536 -0.0033729 -0.02981 -0.0018012 -0.0016304
-0.0027224 0.0024622 -0.0015645 0.0018433
0.0029327 -0.00058051 -0.0034912 -0.02984 0.24358 0.2441 -0.00086041 0.0018367
-0.00060751 0.0019705 -0.00087998 0.00042823
-0.00025887 -0.0024653 -0.0017918 -0.0015935 -0.00085496 0.0018344 0.033166 0.2832
0.021821 -0.01084 -0.0029961 0.0050242
-0.0040441 -0.00082138 -0.002731 0.0024747 -0.00062302 0.0019532 0.021817 -0.010883
-0.029856 0.22502 0.018396 -0.00078062
-0.0011544 0.0040556 -0.0015145 0.001851 -0.00089696 0.00046245 -0.0030594 0.0051155
0.018308 -0.00076934 -0.035833 0.3053
1220000000 0.12533 0.28928 0.011197 -0.03038 -0.0015433 -0.0010868 -6.4542e-05 -0.00087598
-0.0026518 0.0022782 0.0011188 0.0019539
0.011185 -0.030301 -0.045935 0.3882 -0.017123 -0.021959 -0.0027074 0.00049168
3.0706e-05 0.0030947 -0.00091242 0.0018547
-0.0015424 -0.0010956 -0.017235 -0.02192 0.28288 0.20547 0.00072581 0.0018136
0.00061309 0.0012555 0.00014068 0.00053045
-0.00013321 -0.00086005 -0.0027024 0.00049584 0.00072005 0.001811 0.07352 0.27441
0.011041 -0.017721 0.0021284 0.0015001
-0.002669 0.002339 4.799e-05 0.0030819 0.00061446 0.0012364 0.011054 -0.017726
-0.0056472 0.23311 0.013611 -0.013215
0.0011036 0.0019349 -0.00093955 0.0018738 0.00016238 0.00054327 0.0020872 0.0015339
0.013599 -0.013166 -0.0034112 0.31997
1280000000 0.17578 0.26822 -0.0077512 -0.029119 -0.0020727 0.0024359 -0.00089784 -0.002013
-0.00074707 0.0031385 0.0025764 0.0012558
-0.0077591 -0.029153 0.00029415 0.37967 -0.024367 -0.0089708 -0.0010107 0.0015156
0.0017506 0.0017035 0.00059099 0.0019811
-0.0020826 0.0024383 -0.024428 -0.0088742 0.31357 0.16176 0.0015997 -6.1539e-05
0.0012248 0.00023362 0.00035892 0.00028176
-0.00079952 -0.0019886 -0.00099391 0.0015438 0.0016112 -6.2057e-05 0.11054 0.25779
0.00092041 -0.020067 -0.00019057 0.00038251
-0.00070726 0.0031519 0.0017591 0.0017046 0.0012228 0.00022814 0.0008533 -0.020073
0.031308 0.23574 0.0025109 -0.0155
0.0025632 0.0012567 0.00067856 0.0019247 0.0003242 0.00026317 -0.00017322 0.00046653
0.0024915 -0.015542 0.043032 0.32091
1340000000 0.21311 0.23527 -0.017785 -0.019406 0.00072548 0.004755 -0.0017499 -0.00083951
0.0014167 0.0026279 0.0017517 -0.0013791
-0.017752 -0.019399 0.039795 0.37181 -0.022136 0.0042372 -6.2286e-05 0.0020071
0.0019285 0.0007603 0.0012607 0.00077352
0.00075611 0.0047606 -0.022151 0.0043343 0.33549 0.11463 0.0010915 -0.0009023
0.00053909 -0.00064397 3.3071e-05 0.00036521
-0.0018127 -0.00084456 -5.2939e-05 0.0020018 0.001097 -0.00089014 0.14348 0.23661
-0.0088599 -0.017232 0.0008239 0.00051915
0.001432 0.0026491 0.0019731 0.00077176 0.00055755 -0.00064276 -0.0089012 -0.017229
0.061371 0.23065 -0.0040597 -0.013934
0.0016991 -0.001329 0.0012382 0.00082303 2.2516e-05 0.00037655 0.0008676 0.00051406
-0.003993 -0.013875 0.08114 0.3152
1400000000 0.24691 0.1976 -0.023832 -0.0076253 0.0053045 0.0034293 -0.0022411 0.00056951
0.0024141 0.00098778 0.00033743 -0.0015728
-0.023806 -0.007618 0.077385 0.3591 -0.015335 0.012717 0.0013541 0.0013058
0.0013045 -0.00077775 0.0011705 0.00020753
0.005323 0.0034019 -0.015294 0.012807 0.34875 0.061689 1.0798e-05 -0.001656
0.00010019 -0.00045518 0.00033509 0.00027397
-0.0022222 0.000587 0.0013444 0.0012944 7.8906e-06 -0.001656 0.17291 0.20733
-0.01513 -0.010023 -0.00082573 -0.00017315
0.0024339 0.00097282 0.0013013 -0.00077264 0.00010831 -0.00044304 -0.01514 -0.0099916
0.094928 0.22545 -0.010476 -0.0086955
0.00032843 -0.0016171 0.0011988 0.00018156 0.00036511 0.00026139 -0.00084193 -0.00017732
-0.010469 -0.0087188 0.12523 0.3036
1460000000 0.27002 0.15384 -0.020701 0.0047981 0.0059246 -0.0017827 -0.0016007 0.001776
0.0021683 -0.00046369 -0.00030461 -0.0010138
-0.020696 0.0047832 0.11166 0.33729 -0.0062622 0.01585 0.0016775 0.0001758
0.00086533 -0.0013802 0.0011865 -0.0005904
0.0059361 -0.0017917 -0.0061899 0.015916 0.35539 0.0078978 -0.0012006 -0.001278
0.00013352 -0.00014999 0.00079467 -0.00020528
-0.0016218 0.0017503 0.0016934 0.00016858 -0.001208 -0.0012896 0.19896 0.1777
-0.016339 -0.0031148 -0.00080361 0.0020209
0.0021637 -0.00047608 0.00084617 -0.0013897 0.00013409 -0.00015461 -0.016332 -0.0030796
0.12412 0.21024 -0.012189 -0.0027699
-0.00029168 -0.0009625 0.0011313 -0.00056571 0.00079409 -0.00018608 -0.00083256 0.0020811
-0.012198 -0.0027275 0.15807 0.28263
1520000000 0.28251 0.11249 -0.014996 0.010495 0.003517 -0.0043348 0.00015505 0.0026086
0.0021452 -0.0019065 -0.0011988 -0.00019444
-0.014992 0.010476 0.14522 0.32292 0.001765 0.013518 0.0016612 -0.00076614
5.5363e-05 -0.0010939 0.00030819 -0.0010266
0.0034859 -0.0043832 0.001835 0.013506 0.34913 -0.048 -0.0011054 -0.00033419
0.00049458 -0.00091342 3.8681e-05 -0.00020443
0.000153 0.0026256 0.0016498 -0.00077344 -0.0011255 -0.000327 0.22191 0.13942
-0.015508 0.0030353 0.0015148 0.0020415
0.0021483 -0.0019316 4.8036e-05 -0.001094 0.00051394 -0.00092468 -0.015516 0.0030794
0.15199 0.19643 -0.011919 0.0019196
-0.0011854 -0.00018016 0.00029884 -0.0010493 6.4712e-05 -0.0001799 0.0015345 0.0020438
-0.01194 0.0019392 0.1908 0.26167
1580000000 0.29248 0.066415 -0.0081066 0.013717 -0.00093814 -0.0050897 0.0014824 0.0019561
-0.0002214 -0.0021669 -0.00024356 0.00034347
-0.0080868 0.013704 0.17256 0.29836 0.0055576 0.0084586 0.00052685 -0.001589
-0.00056398 -0.0010024 -0.00022719 -0.00084219
-0.00094573 -0.0050662 0.0056086 0.0084358 0.32961 -0.10537 -0.001678 0.00062849
-0.00033253 -0.0011316 0.0003042 -0.00064235
0.0014911 0.0019596 0.00050865 -0.0015854 -0.0016694 0.00062828 0.23531 0.099935
-0.011731 0.008116 0.0021927 0.00066953
-0.00023455 -0.0021831 -0.00057608 -0.00099749 -0.00032652 -0.0011306 -0.01171 0.0081575
0.17611 0.17798 -0.0092569 0.0075615
-0.00026852 0.00036746 -0.00024274 -0.00085212 0.00028923 -0.0006797 0.002169 0.00066624
-0.0092316 0.0076229 0.2222 0.23449
1640000000 0.29473 0.025527 -0.0012039 0.012456 -0.0028438 -0.0026772 0.0027317 0.0010338
-0.00070277 -0.0016105 -0.00041163 0.00053911
-0.0012157 0.01245 0.20215 0.27371 0.0061995 0.0034448 -0.00062591 -0.001771
-0.00099769 -0.00038264 -0.00050744 -0.00068019
-0.0028626 -0.0026799 0.0062185 0.0034195 0.30156 -0.15478 -0.00062586 0.0014347
-0.0010247 -0.00095087 -8.0549e-05 -0.00032642
0.0027013 0.00098668 -0.00063664 -0.001773 -0.00062102 0.0014264 0.24722 0.051286
-0.0072873 0.0093809 0.0024511 -0.00089938
-0.00071915 -0.0016179 -0.0010099 -0.00036965 -0.0010325 -0.00095142 -0.0072723 0.0094161
0.19891 0.15376 -0.0044776 0.0093899
-0.00041914 0.00057335 -0.0004995 -0.00067967 -0.00010811 -0.00029624 0.002487 -0.00081832
-0.004485 0.0093941 0.24738 0.20325
1700000000 0.28815 -0.019736 0.0022353 0.0094771 -0.0035658 -4.7813e-05 0.0031252 -0.0012851
-0.0019898 -0.00066309 0.00060505 0.00052681
0.0022217 0.0094692 0.22038 0.24252 0.0040981 0.00035722 -0.0014858 -0.00063981
-0.00078076 4.9305e-05 -0.00087861 -0.00043657
-0.0035953 -2.1783e-05 0.0041075 0.00032661 0.25869 -0.19476 0.00037977 0.0015608
-0.0019051 -7.788e-05 -0.00043323 -0.00085541
0.0031263 -0.0012504 -0.0014908 -0.00063881 0.00040169 0.0015755 0.24377 0.0016944
-0.004244 0.0097663 0.0015573 -0.0021745
-0.0020058 -0.00065395 -0.00077791 4.8283e-05 -0.0019145 -9.5532e-05 -0.0042151 0.0097775
0.21596 0.13328 6.0695e-05 0.0096606
0.0006405 0.00051402 -0.00089653 -0.00041872 -0.00046671 -0.00083805 0.0015881 -0.002212
0.00013781 0.0096949 0.26339 0.1689
1760000000 0.27641 -0.06844 0.0045198 0.0061435 -0.0024509 0.00095437 0.0012873 -0.003412
-0.0014041 0.0006181 0.00032068 -0.00057911
0.0045186 0.0061386 0.24662 0.20301 0.0017169 -0.0015761 -0.001242 0.00016673
-0.0010483 0.00087975 -0.00055298 0.00039914
-0.0024605 0.00093614 0.0017073 -0.0015921 0.21043 -0.22822 0.0011415 0.0010379
-0.0012725 0.0014672 -0.0011199 -0.00061314
0.0012728 -0.0034539 -0.0012542 0.00017232 0.0011447 0.0010485 0.23487 -0.049256
-0.00092342 0.008941 -0.00010747 -0.002502
-0.0014333 0.00061219 -0.0010494 0.00087997 -0.0012577 0.001464 -0.00090377 0.0089427
0.23056 0.098605 0.0038709 0.0069963
0.00031004 -0.00057997 -0.00056168 0.00039898 -0.0011716 -0.00058761 -0.00012654 -0.0024858
0.0038461 0.0069883 0.27575 0.13108
1820000000 0.25222 -0.10572 0.0045834 0.0025199 -0.00028683 0.0025399 -0.0010351 -0.0030663
-0.0011867 0.00099955 -8.4451e-05 -0.00014855
0.004581 0.002509 0.257 0.17313 -0.00065801 -0.00029506 -0.0013403 0.00095284
-4.7065e-05 0.0011989 -0.00059504 0.00052643
-0.00026771 0.0025284 -0.00065694 -0.00029783 0.15973 -0.24378 0.0014995 0.00021586
-0.00012978 0.0022265 -0.001595 0.00040459
-0.0010669 -0.0031046 -0.001342 0.0009635 0.0014964 0.00023759 0.20508 -0.096166
0.00052095 0.007348 -0.0018241 -0.0015389
-0.0011797 0.00096685 -3.0162e-05 0.0011984 -0.00012173 0.0022193 0.00054642 0.0073659
0.24745 0.069697 0.0048003 0.0035808
-0.00010784 -0.00012417 -0.00061777 0.00051894 -0.001572 0.00034984 -0.0018047 -0.0015183
0.0048083 0.0036281 0.27765 0.094801
1880000000 0.21724 -0.14648 0.002363 0.00019145 -0.00056997 0.0022063 -0.0029162 -0.0021162
-0.00021566 0.0019359 5.3652e-05 -0.0005852
0.0023306 0.00016903 0.26182 0.12669 -0.0025839 0.0015371 -0.0002361 0.0017914
0.00054987 0.0012988 8.4711e-05 0.00094046
-0.0005562 0.0022008 -0.0025835 0.0015544 0.10769 -0.25371 0.0017076 -0.00083762
0.0014215 0.0019636 -0.0010038 0.001276
-0.0029079 -0.0021006 -0.00021866 0.0017756 0.0017022 -0.000837 0.16467 -0.13638
0.0014366 0.0055319 -0.0024024 0.00050674
-0.00019776 0.0019307 0.00056767 0.0013084 0.0014206 0.0019884 0.0014354 0.0055189
0.25119 0.038416 0.0048154 0.001325
4.936e-05 -0.00067138 0.00011057 0.00094662 -0.0010135 0.0012758 -0.0024277 0.00042353
0.004775 0.0011855 0.2773 0.060626
1940000000 0.17787 -0.17214 -3.2502e-05 -0.0013848 0.0013332 0.0021687 -0.0037499 0.00041492
0.0014032 0.0011483 -0.00055979 -0.00054193
-4.6756e-05 -0.0013821 0.26272 0.0949 -0.001455 0.0040388 0.0011243 0.0013181
0.0018368 0.00049617 0.0010428 0.00035622
0.0013554 0.00214 -0.0014324 0.0040525 0.062206 -0.24624 0.00051593 -0.00224
0.0024119 0.00036532 0.00052025 0.0016587
-0.0037585 0.00044284 0.0011174 0.001315 0.00051228 -0.0022039 0.11269 -0.16694
0.00096218 0.0042434 -0.00145 0.0016025
0.0014446 0.0011665 0.0018559 0.00049193 0.0024105 0.00038083 0.00096687 0.004241
0.25408 0.00048651 0.0036252 -0.0019952
-0.0005565 -0.00049073 0.0010035 0.00036244 0.0005145 0.001673 -0.0014201 0.0016714
0.0035963 -0.0018929 0.2659 0.024456
2000000000 0.13171 -0.18695 -0.003795 0.0005938 0.0026769 0.0014611 -0.0023439 0.0036217
0.0013759 0.00034446 -0.00050114 0.00065585
-0.0038167 0.00060396 0.24898 0.05923 -0.00087716 0.0058805 0.0017313 0.00041353
0.0013802 -0.0010864 0.00049746 0.00018522
0.0026807 0.0014671 -0.00085621 0.0058838 0.018932 -0.23261 -0.001266 -0.001461
0.0021171 -0.0011761 0.0016176 0.0015663
-0.0022602 0.0036826 0.0017236 0.00040612 -0.0012703 -0.0014667 0.059368 -0.17726
-0.00026195 0.0038559 -2.3505e-05 0.0024439
0.0014038 0.00031754 0.0013758 -0.0010783 0.0021066 -0.0011899 -0.00024375 0.0038562
0.24922 -0.032528 0.00055287 -0.0027348
