!Keysight Technologies,M9804A,MY58100912,A.14.10.03
!Date: Thursday, April 27, 2023 10:28:33
!Correction: S11(C  6-Port  ) 
!S12(C  6-Port  ) 
!S13(C  6-Port  ) 
!S14(C  6-Port  ) 
!S15(C  6-Port  ) 
!S16(C  6-Port  ) 
!S21(C  6-Port  ) 
!S22(C  6-Port  ) 
!S23(C  6-Port  ) 
!S24(C  6-Port  ) 
!S25(C  6-Port  ) 
!S26(C  6-Port  ) 
!S31(C  6-Port  ) 
!S32(C  6-Port  ) 
!S33(C  6-Port  ) 
!S34(C  6-Port  ) 
!S35(C  6-Port  ) 
!S36(C  6-Port  ) 
!S41(C  6-Port  ) 
!S42(C  6-Port  ) 
!S43(C  6-Port  ) 
!S44(C  6-Port  ) 
!S45(C  6-Port  ) 
!S46(C  6-Port  ) 
!S51(C  6-Port  ) 
!S52(C  6-Port  ) 
!S53(C  6-Port  ) 
!S54(C  6-Port  ) 
!S55(C  6-Port  ) 
!S56(C  6-Port  ) 
!S61(C  6-Port  ) 
!S62(C  6-Port  ) 
!S63(C  6-Port  ) 
!S64(C  6-Port  ) 
!S65(C  6-Port  ) 
!S66(C  6-Port  ) 
!S6P File: Measurement: :
# Hz S  RI   R 50
500000000 -0.33524 -0.053414 -0.011008 -0.0018725 -0.0090074 0.013639 -0.004735 0.011854
0.01239 0.0065408 -0.0052528 0.0085565
-0.010966 -0.0019285 -0.41698 -0.063046 0.007736 -0.010217 0.0015196 0.012088
0.0080854 0.002836 0.0021346 0.01435
-0.0090777 0.013565 0.0076548 -0.010282 -0.26703 0.19998 0.0069444 0.0039405
-0.0024235 0.008249 0.0008362 0.012862
-0.0046684 0.011886 0.0015941 0.012151 0.0069591 0.0039391 -0.331 0.04476
-0.019002 -0.0059034 0.017926 0.027035
0.012539 0.0066647 0.0080391 0.0028611 -0.0024066 0.008225 -0.018997 -0.0059047
-0.25002 -0.19181 -0.027264 0.0035273
-0.0050914 0.0085948 0.001953 0.014497 0.00085518 0.012906 0.017889 0.027093
-0.027118 0.0035517 -0.27134 -0.11612
560000000 -0.31886 0.11347 -0.023731 -0.064953 -5.0278e-05 0.012919 0.0061113 0.01044
0.011164 0.0051905 0.011051 0.0079705
-0.023637 -0.064936 -0.37503 0.098764 -0.041406 -0.038045 0.013567 0.0039981
-0.012966 -0.0028522 0.0032051 -0.00088927
3.912e-05 0.012662 -0.041735 -0.038102 -0.1859 0.25105 -0.00030391 -0.0050024
0.017664 0.0047909 0.0081041 -0.0060767
0.005981 0.010443 0.013683 0.0038974 -0.00028574 -0.004997 -0.30747 0.13574
0.0052457 -0.02409 0.0043743 -0.021407
0.011025 0.0050817 -0.013041 -0.0026565 0.017638 0.0047457 0.0052059 -0.024065
-0.3112 -0.014622 0.0086033 -0.04718
0.011004 0.0073918 0.0030655 -0.00086251 0.0082013 -0.0061159 0.0044614 -0.021501
0.0085585 -0.047502 -0.33168 0.026223
620000000 -0.27783 0.094177 -0.023593 0.0088278 0.0041132 0.0096819 0.0086479 -0.0044053
0.011636 -0.00080436 0.0014587 -0.0017572
-0.023564 0.0088085 -0.40369 0.04974 -0.018557 0.00081913 -0.00096417 -0.0020459
0.011535 -0.0058055 0.0014013 -0.0029106
0.0042079 0.0096159 -0.018599 0.00085627 -0.1551 0.261 -0.00061931 -0.0049664
-0.0033007 -0.0025774 0.0094796 -0.002151
0.0087878 -0.0043083 -0.0010109 -0.0020012 -0.00061452 -0.0049726 -0.26625 0.14697
-0.038049 -0.020961 0.012241 0.026651
0.011722 -0.0010273 0.011565 -0.0060142 -0.0033112 -0.002546 -0.037992 -0.021009
-0.23191 -0.043715 -0.03991 0.013457
0.0017422 -0.0019255 0.0012614 -0.0029437 0.0094488 -0.0021545 0.012327 0.027021
-0.040004 0.013204 -0.2519 -0.0040588
680000000 -0.23902 0.1846 -0.026335 -0.013968 0.0053263 0.0054222 0.0016879 -0.0079224
-0.0019834 -0.011385 0.0059792 -0.0079193
-0.026257 -0.013961 -0.38958 0.15073 -0.032528 -0.0018043 -0.0015845 -0.00075768
-0.0015056 -0.0095723 -0.0010622 -0.0022492
0.0053813 0.0055065 -0.032514 -0.001669 -0.10384 0.28105 -0.00083233 -0.00092834
-0.001804 0.00028083 -0.0031717 -0.009267
0.001412 -0.0079281 -0.00167 -0.00074585 -0.00081438 -0.00092949 -0.21968 0.19758
-0.024155 -0.0077725 -0.0089148 -0.01044
-0.0017986 -0.011396 -0.001497 -0.0095214 -0.0018271 0.00026144 -0.024161 -0.0077192
-0.27875 0.055827 -0.0089929 -0.0083449
0.0058658 -0.0075101 -0.00092399 -0.0020994 -0.0032794 -0.0091423 -0.0091505 -0.010587
-0.0087652 -0.0081398 -0.26183 0.096947
740000000 -0.19293 0.1779 -0.039697 0.027303 0.013807 -0.0051714 -7.8544e-05 -0.0038981
-0.0045829 -0.0041999 -0.0066421 0.0032115
-0.03964 0.027248 -0.33422 0.1694 -0.037253 0.035021 -0.00035346 -0.0055594
-0.012559 0.0070573 -0.0014932 -0.0062989
0.013773 -0.0051606 -0.037226 0.035193 -0.069794 0.27781 -0.0022387 0.0032466
-0.0030859 -0.0066581 -0.0017091 0.001606
-0.00016285 -0.0040217 -0.00034745 -0.0055528 -0.0022697 0.003262 -0.20347 0.20544
-0.043087 -0.0081682 0.022858 0.016068
-0.0046165 -0.0042432 -0.012675 0.0070605 -0.0030863 -0.0067445 -0.043114 -0.0080699
-0.18141 0.084274 -0.041315 0.00050142
-0.0067991 0.003358 -0.0013497 -0.0062187 -0.0017471 0.0016339 0.022872 0.016049
-0.04141 0.00058063 -0.2477 0.10498
800000000 -0.16139 0.22152 -0.022265 0.016151 0.0058615 -0.010757 -0.0046293 -0.0018113
-0.0044096 0.0025666 0.0042227 0.0003916
-0.022268 0.016116 -0.34079 0.23906 -0.0086387 0.034182 -0.0023755 0.0021832
-0.001244 0.0027717 0.0009322 0.0052001
0.0057971 -0.010793 -0.0085446 0.034258 -0.03138 0.30209 0.00082864 0.0016062
-5.3154e-05 0.0036138 -0.0016208 0.0012026
-0.0045854 -0.0017692 -0.0023274 0.0021814 0.00084638 0.0015916 -0.1745 0.23231
-0.028305 0.013692 0.01372 -0.010144
-0.0043643 0.0025947 -0.0012234 0.002791 -2.2873e-05 0.0036117 -0.028322 0.013732
-0.2216 0.11241 -0.016856 0.020473
0.0042123 0.00025299 0.00097173 0.0052236 -0.0016131 0.0011729 0.013746 -0.010193
-0.016928 0.020413 -0.23978 0.15326
860000000 -0.1268 0.24109 -0.017654 0.030663 -0.002786 -0.010554 -0.0017301 0.00056664
0.0041178 0.0053335 -0.0038239 -0.0029785
-0.017649 0.030628 -0.29273 0.28259 0.007628 0.035003 0.00026607 0.0023671
0.00348 0.0018602 0.0029757 0.00049341
-0.0027881 -0.010569 0.0077349 0.035016 0.015939 0.31094 -0.00057571 -3.8325e-05
0.0020612 -0.00099598 0.0017428 0.0041655
-0.0017695 0.00054571 0.00034253 0.0023535 -0.00057204 -4.2196e-05 -0.13769 0.24237
-0.01785 0.018722 -0.0053629 -0.0089102
0.004206 0.0052631 0.0035759 0.0018285 0.0021133 -0.00098717 -0.017802 0.018794
-0.16429 0.16245 -0.024463 0.018634
-0.0038833 -0.0028406 0.0030782 0.00034542 0.0017442 0.0041472 -0.0054347 -0.0089722
-0.024417 0.018643 -0.18874 0.19644
920000000 -0.10312 0.26454 0.0047039 0.038423 -0.0094271 -0.0052546 -0.0017093 0.001868
0.0020152 0.0022438 0.0032687 -0.0016152
0.0046852 0.038396 -0.26586 0.30367 0.028493 0.022871 0.0014418 0.0013384
0.0083355 -3.6361e-05 0.0042556 -0.0027893
-0.0094439 -0.0052279 0.028587 0.02284 0.061546 0.3125 0.0020336 5.4642e-05
0.0013983 -0.00024991 0.0010536 -0.0014158
-0.0016892 0.0018471 0.0014947 0.0013918 0.0020358 6.5395e-05 -0.11316 0.26018
-0.010708 0.031347 0.0037517 -0.0066603
0.0019959 0.0022573 0.0083291 8.9144e-06 0.0013814 -0.00021334 -0.010698 0.031399
-0.15169 0.16691 -0.002057 0.02638
0.0031115 -0.0017519 0.0042572 -0.0028496 0.00099884 -0.0014268 0.0036673 -0.0066879
-0.0020313 0.026432 -0.1955 0.21071
980000000 -0.056852 0.28419 0.017053 0.030093 -0.0097134 0.0040641 0.0018567 0.0031784
0.0039638 -0.0019453 -0.0031462 -0.0024034
0.017033 0.030071 -0.21294 0.33815 0.033905 0.0053324 0.0020432 -0.00026971
0.0016768 -0.0063314 -0.00047445 -0.0025016
-0.0097076 0.004066 0.033931 0.0052085 0.10751 0.30708 0.0007694 -0.0011893
0.00047276 -0.0020905 0.0014011 -0.00032521
0.0018745 0.0031999 0.0020396 -0.00030013 0.00077248 -0.0012032 -0.074976 0.27084
0.007606 0.030382 -0.0090373 -0.0072153
0.0039373 -0.0019785 0.0016107 -0.0063769 0.00046644 -0.0020958 0.0076802 0.030356
-0.11813 0.19792 0.0059346 0.019214
-0.0030191 -0.0023476 -0.00042972 -0.0026028 0.001431 -0.00033531 -0.0089268 -0.0071897
0.0058223 0.019141 -0.1529 0.25412
1040000000 -0.015614 0.29351 0.033105 0.018908 -0.0018473 0.0072119 0.0026236 0.00071292
0.00023179 -0.0036007 -0.0003913 -0.0016485
0.03307 0.018906 -0.17801 0.35197 0.030407 -0.014963 0.001617 -0.0018445
-0.0021544 -0.0029842 -0.0012085 -0.003199
-0.0018084 0.0072076 0.030387 -0.015083 0.1538 0.29432 -0.00049069 -0.0017159
-0.0015873 -0.0010741 -0.00058097 -0.0011126
0.0025788 0.000739 0.0016144 -0.0018419 -0.0004766 -0.0017182 -0.047342 0.28099
0.02031 0.019062 -0.0028555 0.00090903
0.00025868 -0.0035807 -0.0021928 -0.0029999 -0.001605 -0.0010638 0.020355 0.019035
-0.085149 0.20426 0.014195 0.017261
-0.0004225 -0.0016504 -0.0012152 -0.0032101 -0.00056871 -0.0011439 -0.0028504 0.00091091
0.014278 0.017302 -0.12989 0.27404
1100000000 0.029247 0.30258 0.036758 -0.0037428 0.0027414 0.0043059 0.0023581 -0.0010049
-0.0022734 -0.0029379 -0.0040306 2.2415e-05
0.036719 -0.0037198 -0.13496 0.37042 0.015996 -0.028634 1.8837e-05 -0.0018696
-0.0039667 -0.00086414 -0.0036816 -0.0004091
0.0027554 0.0043039 0.015883 -0.02872 0.20044 0.27481 -0.0019601 0.00010575
-0.0018558 0.00058374 -0.0011554 -0.00047373
0.0023487 -0.0010359 1.4113e-05 -0.0018785 -0.001968 0.00011024 -0.0067674 0.28603
0.026032 0.0052787 -0.002412 0.00018272
-0.0023188 -0.0028929 -0.0040216 -0.00082813 -0.0018689 0.00057643 0.026069 0.0052387
-0.065194 0.21672 0.019974 0.0083954
-0.0040066 4.7371e-05 -0.0036902 -0.00039231 -0.0011656 -0.0004712 -0.0024372 0.00021957
0.019906 0.0083935 -0.083597 0.3023
1160000000 0.079884 0.29886 0.024644 -0.021112 0.0027324 -0.00034083 -8.4233e-05 -0.0023737
-0.0040204 -0.00085151 -0.000976 0.0042628
0.024623 -0.021084 -0.091353 0.37551 -0.0037435 -0.030169 -0.0016318 -0.0018488
-0.0027731 0.0026365 -0.0015506 0.0021288
0.0027538 -0.00035618 -0.0038841 -0.030184 0.24423 0.24425 -0.00085652 0.0018498
-0.00071417 0.0020533 -0.00089956 0.0004251
-0.00011205 -0.0023694 -0.0016109 -0.0017908 -0.00085377 0.0018509 0.032771 0.28346
0.022181 -0.01136 -0.0034079 0.0050212
-0.0040271 -0.00080641 -0.0027614 0.0026925 -0.00071284 0.0020671 0.022159 -0.011379
-0.030513 0.22418 0.018804 -0.0013427
-0.00097045 0.0043146 -0.0015277 0.0021355 -0.00088841 0.00038785 -0.0034512 0.0049749
0.018749 -0.0013588 -0.037003 0.30617
1220000000 0.12423 0.28926 0.010861 -0.030781 -0.001648 -0.00084128 0.00013026 -0.00083299
-0.0028027 0.0021791 0.0012764 0.0021148
0.01088 -0.030739 -0.046672 0.38872 -0.0176 -0.022157 -0.0027161 0.00054547
1.4872e-05 0.0033016 -0.00082336 0.0020095
-0.0016411 -0.00084405 -0.017721 -0.02211 0.2833 0.20498 0.00079548 0.0018706
0.00066577 0.001318 0.00030443 0.00061625
0.00011897 -0.00085473 -0.0027255 0.00054717 0.00079737 0.0018621 0.073279 0.27453
0.011156 -0.018738 0.0018053 0.0015176
-0.0028061 0.0022037 2.3319e-05 0.0033135 0.00066095 0.0013222 0.011136 -0.018748
-0.0068684 0.23247 0.013938 -0.014068
0.0012521 0.0021258 -0.00078543 0.0020197 0.00033759 0.00062516 0.0018279 0.001488
0.013974 -0.014101 -0.0046469 0.31968
1280000000 0.17474 0.26892 -0.0083432 -0.029376 -0.0020214 0.0026678 -0.00074186 -0.0020347
-0.00081142 0.0033735 0.0025987 0.0013985
-0.0083025 -0.029333 2.7154e-05 0.38038 -0.024901 -0.0088211 -0.00097845 0.0015854
0.0018781 0.0018481 0.00082519 0.0021283
-0.0020057 0.0026702 -0.024968 -0.0087165 0.31351 0.16108 0.0016844 4.9848e-06
0.0013598 0.00025228 0.00033798 0.00032096
-0.00074697 -0.0019954 -0.00095078 0.0015925 0.0016979 7.3609e-06 0.11042 0.25789
0.00030517 -0.020902 -0.00030947 0.00031505
-0.0007991 0.0033736 0.001886 0.001869 0.0013522 0.0002544 0.00026361 -0.020922
0.029825 0.23552 0.0029198 -0.016211
0.0025841 0.0013788 0.00081922 0.0021065 0.00032879 0.00029155 -0.00029342 0.00030868
0.0029368 -0.016202 0.042331 0.32101
1340000000 0.21253 0.23588 -0.018429 -0.01921 0.00087822 0.0049366 -0.0018073 -0.00087312
0.001423 0.0027194 0.0018418 -0.001324
-0.018388 -0.019188 0.039943 0.37208 -0.022423 0.0046637 -1.631e-05 0.0021135
0.002079 0.00071416 0.0013669 0.00080803
0.00090461 0.004931 -0.022433 0.0047724 0.33495 0.11383 0.0011739 -0.0009802
0.00064596 -0.00065682 1.1436e-05 0.00029101
-0.0018047 -0.0008567 -5.0911e-07 0.0021141 0.0011604 -0.00098078 0.1434 0.23644
-0.0098405 -0.017648 0.000544 0.00062468
0.0014521 0.0027311 0.0020995 0.00071178 0.00063644 -0.00066269 -0.0098601 -0.01764
0.060141 0.2305 -0.0047002 -0.014547
0.0018427 -0.0013689 0.0014029 0.00080582 1.5371e-05 0.00028906 0.00055429 0.00065728
-0.0046806 -0.014538 0.080504 0.31507
1400000000 0.24647 0.1984 -0.024247 -0.0071207 0.0055681 0.0035164 -0.0022782 0.00060594
0.00253 0.00096236 0.0002924 -0.0016218
-0.024217 -0.007132 0.077583 0.3591 -0.015359 0.013279 0.0014485 0.0012455
0.0012945 -0.00096906 0.0012435 1.2872e-05
0.0055776 0.0035093 -0.015313 0.013383 0.34773 0.06138 1.3948e-05 -0.0017609
0.00014512 -0.0004739 0.00033447 0.00018126
-0.0022433 0.00062277 0.0014602 0.001231 3.5573e-06 -0.0017617 0.17261 0.20729
-0.016208 -0.0097485 -0.00078693 0.00012842
0.0025329 0.00095715 0.0012953 -0.00097808 0.00013936 -0.00046806 -0.016243 -0.0097231
0.093427 0.22544 -0.011322 -0.0089744
0.00029549 -0.00164 0.0012195 -8.5011e-06 0.00034812 0.00019023 -0.00082293 0.00013059
-0.011301 -0.0089897 0.12434 0.30354
1460000000 0.26983 0.15455 -0.020783 0.0055771 0.0061725 -0.0018636 -0.0015858 0.0017811
0.0023011 -0.00059896 -0.00042791 -0.0010154
-0.020763 0.0055514 0.11179 0.33688 -0.0058972 0.016301 0.0017184 7.9121e-05
0.00077393 -0.0014622 0.0012361 -0.00065091
0.0061804 -0.0018922 -0.0058071 0.01635 0.35426 0.0082569 -0.0013305 -0.0013293
0.00019519 -0.00026578 0.00078573 -0.00032785
-0.001579 0.0017849 0.0017154 7.8368e-05 -0.0013217 -0.0013222 0.19885 0.17759
-0.017248 -0.0021839 -0.00071335 0.00224
0.002313 -0.00061006 0.0007674 -0.0014897 0.00019024 -0.00029213 -0.017253 -0.0021453
0.12291 0.21088 -0.013196 -0.0025744
-0.00048637 -0.00098227 0.0012227 -0.00063922 0.00076908 -0.00030401 -0.00071466 0.0022154
-0.013166 -0.0025654 0.15754 0.28262
1520000000 0.28243 0.11277 -0.014627 0.011118 0.00372 -0.0045634 0.00013716 0.002628
0.0021403 -0.0021455 -0.0012409 -0.00019251
-0.014618 0.011088 0.14498 0.3223 0.0022149 0.013607 0.0016114 -0.00082437
-9.0417e-05 -0.0010983 0.00025925 -0.0010855
0.0036918 -0.004595 0.0022871 0.013616 0.34829 -0.047086 -0.001146 -0.00031773
0.00068534 -0.0009795 9.5196e-05 -0.00028263
0.00016326 0.0026416 0.0016037 -0.00082786 -0.0011426 -0.00031192 0.22153 0.13924
-0.015733 0.004453 0.0018206 0.0021931
0.0021311 -0.0021527 -9.7294e-05 -0.0011099 0.00068259 -0.00097523 -0.015741 0.0044892
0.15097 0.19698 -0.012575 0.0025778
-0.0012179 -0.00021031 0.00025223 -0.0011215 7.5494e-05 -0.00027761 0.0018301 0.0021732
-0.012572 0.0025653 0.18989 0.26162
1580000000 0.2922 0.066718 -0.0074059 0.014095 -0.00097929 -0.0053841 0.0015606 0.0019122
-0.00026242 -0.0023711 -0.00015102 0.00036894
-0.0074052 0.01408 0.17189 0.29778 0.0058991 0.0082725 0.00047108 -0.0016026
-0.00056958 -0.00093216 -0.00021912 -0.0009182
-0.00099817 -0.0053679 0.0059614 0.0082622 0.32934 -0.10444 -0.0016608 0.00069926
-0.00037268 -0.0012025 0.00031343 -0.00059016
0.0015729 0.0019067 0.00046512 -0.001609 -0.0016667 0.00069416 0.23472 0.099883
-0.011075 0.0092416 0.0023508 0.00055441
-0.00027001 -0.0023548 -0.00058038 -0.00091807 -0.00038219 -0.0011961 -0.011077 0.0092937
0.17555 0.1788 -0.0096692 0.0082294
-0.00017449 0.00036172 -0.00025478 -0.0009133 0.00033388 -0.00061051 0.0023806 0.00056156
-0.0096619 0.0082356 0.22108 0.23503
1640000000 0.29433 0.025649 -0.00051519 0.012365 -0.0030718 -0.0029426 0.0027698 0.0010072
-0.00090468 -0.0016092 -0.00033307 0.00054054
-0.00052078 0.012353 0.20114 0.27336 0.0064585 0.0031051 -0.00068825 -0.0017606
-0.00098357 -0.00033071 -0.00065134 -0.00059132
-0.0030935 -0.0029329 0.0064923 0.0030721 0.30166 -0.15365 -0.00063683 0.0015313
-0.001145 -0.00097906 -0.00035083 -0.00038105
0.0027661 0.00099422 -0.0007098 -0.0017555 -0.00063933 0.0015397 0.24663 0.051548
-0.0060761 0.010087 0.0026979 -0.00085801
-0.00093597 -0.0016021 -0.00099824 -0.00031012 -0.0011416 -0.00095923 -0.006055 0.010093
0.19862 0.1545 -0.0043222 0.010318
-0.00031786 0.0005342 -0.00064875 -0.00062179 -0.00036526 -0.00038455 0.0026866 -0.00086104
-0.0043524 0.010319 0.24654 0.20389
1700000000 0.2873 -0.019146 0.0028282 0.0090341 -0.0039388 -1.9738e-05 0.0031447 -0.0012415
-0.0021237 -0.00051254 0.00058365 0.00037829
0.0028108 0.0090243 0.21915 0.24259 0.0041237 4.5477e-05 -0.0015263 -0.0005586
-0.0007344 5.2412e-05 -0.00093286 -0.00039994
-0.0039413 -3.7855e-06 0.0041288 2.4298e-05 0.25908 -0.1938 0.00052598 0.0015832
-0.0020283 6.2621e-05 -0.00044762 -0.00091871
0.0031501 -0.0012822 -0.0015366 -0.00056156 0.0005368 0.0015947 0.24325 0.0022982
-0.0030212 0.0096862 0.0015643 -0.0022586
-0.0021361 -0.00050641 -0.00073305 4.8275e-05 -0.0020457 5.3463e-05 -0.0029942 0.0097002
0.21568 0.13377 0.0004692 0.010305
0.00058305 0.00035867 -0.00093857 -0.00039148 -0.00047028 -0.00093724 0.001558 -0.0022483
0.00047878 0.010321 0.26258 0.16993
1760000000 0.27585 -0.067402 0.0047417 0.0054374 -0.0025063 0.0010515 0.0011874 -0.0034785
-0.0014007 0.00083906 0.00030828 -0.00054493
0.0047321 0.0054327 0.24543 0.20359 0.0015962 -0.0018038 -0.0012455 0.00022663
-0.0010337 0.00086708 -0.00060412 0.00041811
-0.0024936 0.0010404 0.0015823 -0.0018257 0.21126 -0.22774 0.0011639 0.00098718
-0.0012815 0.0015184 -0.0014021 -0.00061622
0.0011838 -0.0034773 -0.0012307 0.00023298 0.0011561 0.00099772 0.23451 -0.048408
-3.9148e-05 0.0080977 -8.5717e-05 -0.0026598
-0.0013954 0.00082238 -0.0010192 0.00087664 -0.00126 0.0015385 -5.0214e-06 0.0081013
0.23041 0.099025 0.004768 0.007479
0.00029254 -0.00051403 -0.00060809 0.00042649 -0.0013544 -0.00057374 -0.00013654 -0.0027034
0.0047749 0.0074526 0.27522 0.13192
1820000000 0.25188 -0.10453 0.0043965 0.0019496 -0.00036784 0.0027561 -0.0010534 -0.003146
-0.00099781 0.0011333 -5.8907e-05 -5.7277e-05
0.0043928 0.0019483 0.25598 0.17411 -0.00094386 -0.00048281 -0.0012701 0.00098823
-0.00010469 0.0012018 -0.00049631 0.00053495
-0.00036249 0.0027557 -0.00094366 -0.00046917 0.16035 -0.24397 0.0015556 0.00041724
-7.8117e-05 0.0023739 -0.0014498 0.00046571
-0.0010694 -0.0031226 -0.0012544 0.0010031 0.0015504 0.00041531 0.20529 -0.095119
0.00096842 0.0065195 -0.00172 -0.0018018
-0.00098844 0.0011369 -0.00010513 0.0012089 -9.1043e-05 0.0023746 0.00097749 0.0065392
0.24737 0.070114 0.0055493 0.0035934
-2.445e-05 -9.3775e-05 -0.00048265 0.00054729 -0.0014899 0.00049566 -0.0016639 -0.001783
0.0055456 0.0035951 0.27731 0.095569
1880000000 0.21742 -0.14487 0.0018667 -0.0001742 -0.00048531 0.0023185 -0.0028843 -0.0021737
2.8004e-05 0.0017612 0.00012364 -0.00062377
0.001858 -0.00017272 0.26123 0.128 -0.0028271 0.0015607 -0.00011257 0.001762
0.00051662 0.0013566 0.00014422 0.00090114
-0.00048673 0.002292 -0.0028086 0.0015926 0.10822 -0.25329 0.0017898 -0.00085297
0.0016662 0.0019715 -0.0010322 0.0014006
-0.0029202 -0.0021594 -9.3964e-05 0.0017682 0.0017929 -0.00085915 0.16539 -0.13535
0.0013537 0.00461 -0.0026053 0.00016672
3.3899e-05 0.001786 0.00051193 0.0013652 0.0016903 0.0019817 0.0013476 0.0046173
0.2508 0.038671 0.0056231 0.0010298
0.00013478 -0.00058326 0.00016575 0.00091664 -0.0010007 0.0013954 -0.0025666 0.00017948
0.0056222 0.0010243 0.27729 0.061449
1940000000 0.17863 -0.17063 -0.0006949 -0.0014614 0.0013228 0.0020954 -0.003723 0.00042348
0.0014243 0.00095619 -0.00039368 -0.00056113
-0.00069333 -0.0014548 0.26258 0.096108 -0.0015161 0.0040113 0.0010776 0.0012523
0.0018811 0.00060206 0.0011411 0.00033703
0.0013488 0.0020859 -0.0015038 0.0040503 0.062879 -0.24637 0.00064336 -0.0021901
0.0025656 0.00028592 0.00081866 0.0017001
-0.0037214 0.00046208 0.0010989 0.0012492 0.00065485 -0.002207 0.11357 -0.16682
0.00046532 0.0033577 -0.0018502 0.0015256
0.0014542 0.00095554 0.0018899 0.00058727 0.0025499 0.00028412 0.00047785 0.0033346
0.25358 0.00058598 0.0040731 -0.0024585
-0.0003994 -0.00060459 0.0011121 0.00030346 0.00078418 0.0017037 -0.0019147 0.0015732
0.004042 -0.0024729 0.26618 0.024881
2000000000 0.133 -0.18634 -0.0041753 0.000765 0.002648 0.0016732 -0.0023481 0.0036908
0.0012433 0.00033314 -0.00069401 0.00065387
-0.0041836 0.00075916 0.24908 0.060375 -0.0011369 0.0058764 0.0016368 0.00041151
0.0014604 -0.00097999 0.00049171 0.00010197
0.002649 0.0016521 -0.0011021 0.0059008 0.019384 -0.23322 -0.0012574 -0.0013464
0.0020142 -0.0012724 0.0016816 0.0012823
-0.0023606 0.0037031 0.0016188 0.00039856 -0.0012758 -0.0013476 0.060683 -0.17722
-0.00078986 0.0037153 -0.00022706 0.0025075
0.0012141 0.00033435 0.0014454 -0.0010119 0.0019997 -0.0012772 -0.00077463 0.0037336
0.24841 -0.03212 0.00069486 -0.0033945
