!Keysight Technologies,M9804A,MY58100912,A.14.10.03
!Date: Thursday, April 27, 2023 10:28:33
!Correction: S11(C  6-Port  ) 
!S12(C  6-Port  ) 
!S13(C  6-Port  ) 
!S14(C  6-Port  ) 
!S15(C  6-Port  ) 
!S16(C  6-Port  ) 
!S21(C  6-Port  ) 
!S22(C  6-Port  ) 
!S23(C  6-Port  ) 
!S24(C  6-Port  ) 
!S25(C  6-Port  ) 
!S26(C  6-Port  ) 
!S31(C  6-Port  ) 
!S32(C  6-Port  ) 
!S33(C  6-Port  ) 
!S34(C  6-Port  ) 
!S35(C  6-Port  ) 
!S36(C  6-Port  ) 
!S41(C  6-Port  ) 
!S42(C  6-Port  ) 
!S43(C  6-Port  ) 
!S44(C  6-Port  ) 
!S45(C  6-Port  ) 
!S46(C  6-Port  ) 
!S51(C  6-Port  ) 
!S52(C  6-Port  ) 
!S53(C  6-Port  ) 
!S54(C  6-Port  ) 
!S55(C  6-Port  ) 
!S56(C  6-Port  ) 
!S61(C  6-Port  ) 
!S62(C  6-Port  ) 
!S63(C  6-Port  ) 
!S64(C  6-Port  ) 
!S65(C  6-Port  ) 
!S66(C  6-Port  ) 
!S6P File: Measurement: :
# Hz S  RI   R 50
500000000 -0.33493 -0.053852 -0.0107 -0.0018967 -0.0089581 0.013375 -0.0045486 0.011827
0.012537 0.006676 -0.0047691 0.008622
-0.010973 -0.0020472 -0.41671 -0.063087 0.0080246 -0.010406 0.0015245 0.012033
0.0080666 0.0028572 0.0019775 0.014488
-0.0088344 0.013643 0.0079062 -0.010166 -0.26664 0.1997 0.007073 0.0037833
-0.0026504 0.0082725 0.00094529 0.01285
-0.005286 0.011792 0.001408 0.012118 0.0071937 0.0036397 -0.33096 0.04465
-0.019368 -0.0059644 0.018134 0.026766
0.013065 0.0060958 0.0083407 0.0027254 -0.0029694 0.0083002 -0.019298 -0.0058125
-0.24962 -0.19171 -0.027647 0.0033327
-0.0052982 0.0079411 0.0019102 0.014218 0.0010449 0.012348 0.017786 0.026908
-0.027558 0.0035094 -0.27086 -0.11655
560000000 -0.31885 0.11526 -0.023536 -0.065099 -0.00012883 0.012392 0.0058199 0.010509
0.010878 0.0050605 0.011261 0.0083383
-0.023931 -0.064323 -0.37507 0.098639 -0.042056 -0.038255 0.013671 0.0042434
-0.012914 -0.0032717 0.0032177 -0.00086935
-6.1159e-05 0.012762 -0.041892 -0.038038 -0.18553 0.25085 -0.00050267 -0.0048967
0.01766 0.004856 0.0081611 -0.0060615
0.0059513 0.010691 0.013441 0.0041581 -0.0003438 -0.0046454 -0.30734 0.13608
0.0053946 -0.024041 0.0041665 -0.021448
0.011432 0.0045707 -0.012995 -0.0036174 0.017744 0.0046837 0.0052628 -0.024141
-0.31162 -0.014365 0.0088491 -0.046877
0.010233 0.008707 0.0035994 -0.00049117 0.0085633 -0.0056682 0.0045741 -0.021504
0.0087464 -0.04707 -0.33238 0.026047
620000000 -0.27801 0.094495 -0.023527 0.0088106 0.0041119 0.0094753 0.0088707 -0.004087
0.011267 -0.0010981 0.0012317 -0.0019817
-0.023567 0.0088568 -0.40373 0.049731 -0.018636 0.00087662 -0.00092743 -0.0020551
0.011506 -0.0058841 0.0015211 -0.002933
0.0038218 0.0097934 -0.018581 0.00092763 -0.15521 0.26091 -0.00043988 -0.0048698
-0.0030724 -0.0029761 0.0093994 -0.0021987
0.0082724 -0.0042349 -0.00088512 -0.0019927 -0.00023754 -0.0048821 -0.26601 0.14721
-0.038342 -0.021196 0.012342 0.026577
0.012329 -0.00097999 0.01143 -0.0060275 -0.0033866 -0.0028842 -0.038068 -0.021325
-0.23152 -0.043762 -0.039886 0.013277
0.00097278 -0.0017878 0.0015886 -0.0027528 0.0095628 -0.0020698 0.012633 0.026874
-0.039892 0.012995 -0.25166 -0.0045165
680000000 -0.23916 0.18502 -0.026222 -0.013871 0.0056054 0.0055145 0.001153 -0.0078607
-0.0017163 -0.01164 0.0062142 -0.0076311
-0.026274 -0.013881 -0.38955 0.15064 -0.032332 -0.0018373 -0.0017193 -0.00066033
-0.0014947 -0.0097302 -0.00082022 -0.0021413
0.0052669 0.005496 -0.03251 -0.001723 -0.10359 0.28105 -0.00094239 -0.00086147
-0.0017182 0.00036245 -0.003161 -0.0093729
0.0016627 -0.0077036 -0.0015203 -0.00060126 -0.00085695 -0.00070826 -0.2199 0.19743
-0.024043 -0.0076982 -0.008575 -0.010384
-0.0018932 -0.011477 -0.0015609 -0.009595 -0.0017043 0.00024152 -0.024037 -0.0076178
-0.2791 0.055752 -0.0089681 -0.0083389
0.0061973 -0.0078794 -0.00075421 -0.0023377 -0.0029876 -0.0091496 -0.0091144 -0.010808
-0.0088032 -0.0082105 -0.26102 0.097469
740000000 -0.19269 0.1784 -0.039537 0.027397 0.013854 -0.0049596 -0.00042663 -0.0041271
-0.0048436 -0.0042501 -0.0068979 0.0033098
-0.039641 0.027398 -0.33405 0.16924 -0.037263 0.035175 -0.00031422 -0.0055428
-0.012506 0.0068288 -0.0014582 -0.0060022
0.013674 -0.0050015 -0.037239 0.03532 -0.069916 0.27789 -0.0024303 0.0032222
-0.0029853 -0.0063673 -0.0017699 0.0016029
-0.00057048 -0.0038188 -0.00016077 -0.0054936 -0.0025701 0.0033382 -0.2033 0.20544
-0.043472 -0.0083234 0.022923 0.015859
-0.00435 -0.0042726 -0.012587 0.0070227 -0.002818 -0.0067739 -0.043351 -0.0082867
-0.18145 0.084033 -0.041551 0.00072016
-0.0070079 0.0036947 -0.0013999 -0.0060617 -0.0021522 0.0015751 0.023103 0.016242
-0.041375 0.0004206 -0.24784 0.10452
800000000 -0.16155 0.22138 -0.022391 0.01617 0.0058806 -0.010699 -0.0044613 -0.0019522
-0.0045694 0.0025778 0.0044246 0.00035697
-0.022349 0.016123 -0.34083 0.2391 -0.0086005 0.034197 -0.0023042 0.0020768
-0.0013908 0.0026992 0.00096158 0.0053736
0.0058197 -0.010749 -0.0085528 0.034291 -0.031483 0.30215 0.00088698 0.0014861
5.1351e-05 0.0036061 -0.001556 0.00096717
-0.0045951 -0.002002 -0.0023544 0.0021103 0.0008446 0.0015052 -0.17436 0.23236
-0.028215 0.01357 0.013793 -0.010212
-0.0046171 0.0027726 -0.0013082 0.0028309 7.9048e-05 0.0035533 -0.028375 0.013551
-0.22191 0.11272 -0.01648 0.020514
0.0040692 0.00022042 0.00081681 0.0053107 -0.0017568 0.00091477 0.013984 -0.01006
-0.016489 0.020613 -0.23937 0.15286
860000000 -0.12676 0.24109 -0.017721 0.030687 -0.0028016 -0.010606 -0.0017405 0.00074228
0.004035 0.005258 -0.0036849 -0.0027524
-0.017725 0.030623 -0.29277 0.2825 0.0075939 0.035018 0.00041696 0.0023519
0.003529 0.0017189 0.0028862 0.00054964
-0.0027976 -0.010601 0.0077234 0.03497 0.015905 0.31094 -0.00054997 -6.063e-05
0.0021829 -0.00097089 0.0016929 0.0042107
-0.0016577 0.00063539 0.00031729 0.0022039 -0.00059174 -7.9176e-05 -0.13771 0.24239
-0.017968 0.018796 -0.0055463 -0.0089556
0.004027 0.0053971 0.0033577 0.0018221 0.0020115 -0.00096912 -0.017803 0.018734
-0.1646 0.16312 -0.024731 0.018478
-0.0037635 -0.0025795 0.0029881 0.00041142 0.0017087 0.00412 -0.0055201 -0.0089064
-0.024601 0.018519 -0.18866 0.19647
920000000 -0.10313 0.26431 0.0047257 0.03833 -0.0094284 -0.0052668 -0.0017504 0.0017594
0.0019913 0.0022139 0.0030791 -0.0016733
0.0047254 0.038306 -0.26578 0.30354 0.02846 0.022906 0.0015586 0.0013324
0.0083079 -7.4089e-05 0.0042477 -0.002862
-0.0093486 -0.0052324 0.028577 0.022822 0.061522 0.31253 0.0020562 1.7129e-05
0.0014565 -0.00027224 0.00096993 -0.0014391
-0.00163 0.0017836 0.001547 0.001317 0.0020391 2.8571e-05 -0.11309 0.25995
-0.010695 0.031301 0.0038151 -0.0067879
0.0020356 0.0022698 0.0083001 -0.00014646 0.0014849 -0.00024438 -0.010822 0.03133
-0.15158 0.16688 -0.0020794 0.026376
0.0030959 -0.0015707 0.004329 -0.0028971 0.00093408 -0.0014231 0.0038257 -0.0069234
-0.0020592 0.026264 -0.19576 0.21079
980000000 -0.056791 0.28437 0.01704 0.03012 -0.0097298 0.0040207 0.0018316 0.0031967
0.0041072 -0.0019027 -0.0031 -0.0023496
0.01705 0.030183 -0.21289 0.33815 0.033856 0.0053338 0.0020713 -0.00025413
0.0016783 -0.0063103 -0.00042637 -0.0025812
-0.0097325 0.0041182 0.033944 0.0052253 0.1075 0.30707 0.00077454 -0.0012395
0.00047651 -0.0020557 0.001404 -0.00036932
0.0018647 0.0032571 0.0020016 -0.00023742 0.00075662 -0.0012365 -0.074895 0.27089
0.0075818 0.030362 -0.0090277 -0.0071811
0.0040625 -0.001879 0.0017133 -0.0064857 0.00050222 -0.0020928 0.0076557 0.030402
-0.1181 0.19795 0.0059822 0.019014
-0.002964 -0.0023915 -0.00055211 -0.0025252 0.0013485 -0.00036572 -0.0089186 -0.0072187
0.005967 0.019086 -0.15257 0.25385
1040000000 -0.015565 0.2935 0.033063 0.018863 -0.0018482 0.0071754 0.0025757 0.00075211
0.00037915 -0.0036671 -0.00031203 -0.0017087
0.033066 0.018877 -0.17805 0.3519 0.030417 -0.014955 0.0016386 -0.0018466
-0.0021209 -0.0029553 -0.0012204 -0.0031751
-0.0018509 0.0071857 0.030368 -0.015105 0.15375 0.29433 -0.00049639 -0.0017189
-0.0016283 -0.0011123 -0.00058004 -0.001122
0.0026232 0.00076843 0.0016115 -0.0018569 -0.00047257 -0.001715 -0.047364 0.28094
0.020387 0.01902 -0.0028656 0.00087914
0.00034554 -0.0035608 -0.0022267 -0.0030582 -0.0016143 -0.0010798 0.02038 0.018989
-0.085148 0.20442 0.014188 0.017296
-0.00047992 -0.0017845 -0.0011779 -0.003198 -0.00060927 -0.0011582 -0.0028344 0.00093111
0.014221 0.017203 -0.12998 0.27386
1100000000 0.029182 0.30264 0.036705 -0.003716 0.0027467 0.0043278 0.0023524 -0.0010266
-0.0022266 -0.0029591 -0.0040459 4.4239e-05
0.036705 -0.0036685 -0.13497 0.37039 0.016006 -0.028606 8.228e-06 -0.0018764
-0.0039494 -0.00088422 -0.0037052 -0.00046351
0.0027678 0.0043218 0.015915 -0.028711 0.20048 0.27484 -0.0019903 0.00010633
-0.0018297 0.00054635 -0.0011954 -0.00046776
0.0022988 -0.0010371 3.85e-05 -0.0018729 -0.0019896 9.9128e-05 -0.0067647 0.28603
0.026022 0.0053111 -0.0024481 0.00017713
-0.0022084 -0.0028968 -0.0040141 -0.00079635 -0.0018579 0.00056769 0.026004 0.0052708
-0.065466 0.2167 0.020047 0.0082931
-0.004096 6.8933e-06 -0.0036853 -0.00040149 -0.0011342 -0.0004663 -0.0024499 0.00013133
0.020021 0.0083188 -0.083662 0.3024
1160000000 0.079951 0.29881 0.02466 -0.021141 0.0027396 -0.00035503 -8.5942e-05 -0.0023472
-0.003974 -0.00080743 -0.0010192 0.0042909
0.024645 -0.021133 -0.091305 0.37545 -0.0037353 -0.030169 -0.0016452 -0.0018013
-0.0027934 0.0026772 -0.0013684 0.0020059
0.0027527 -0.00034876 -0.00387 -0.030194 0.24421 0.24425 -0.00084018 0.0018525
-0.0007064 0.0020531 -0.00082727 0.00040464
-9.9448e-05 -0.0023697 -0.0016356 -0.0017543 -0.00083557 0.0018693 0.032789 0.28348
0.022236 -0.011326 -0.0034745 0.0050222
-0.0040147 -0.00081926 -0.0028243 0.0027141 -0.00075035 0.0020456 0.022184 -0.011341
-0.030429 0.22407 0.018764 -0.0013586
-0.00086806 0.0041979 -0.0014827 0.0019451 -0.0008599 0.00035672 -0.0034116 0.0051431
0.018787 -0.0013561 -0.036772 0.30597
1220000000 0.12414 0.28927 0.010887 -0.03079 -0.0016294 -0.0008659 0.00010034 -0.00087101
-0.0028465 0.0022436 0.0012414 0.0020458
0.010882 -0.030717 -0.046694 0.3887 -0.017579 -0.022163 -0.002717 0.00052795
1.001e-05 0.0033097 -0.00080486 0.0020314
-0.0016144 -0.0008565 -0.017708 -0.022108 0.28332 0.20505 0.00079285 0.0018618
0.00062814 0.001318 0.0002889 0.00059095
9.119e-05 -0.00088813 -0.0027432 0.00057811 0.00077874 0.0018805 0.073316 0.27456
0.011161 -0.018721 0.0018686 0.0014877
-0.0027401 0.0022432 3.0213e-05 0.0033224 0.00066461 0.0013363 0.011102 -0.018759
-0.0068425 0.23247 0.013895 -0.014084
0.0012184 0.0020473 -0.00080107 0.0020469 0.00030642 0.00062432 0.0018573 0.0014611
0.013891 -0.014161 -0.0046656 0.31967
1280000000 0.1747 0.2689 -0.0083206 -0.029332 -0.0020218 0.0026708 -0.00072195 -0.0019991
-0.00084721 0.0033548 0.0026214 0.0013728
-0.0083031 -0.029301 3.7381e-05 0.38037 -0.024904 -0.0088231 -0.00098271 0.0015843
0.0018555 0.001856 0.00079002 0.0021453
-0.0020326 0.0027049 -0.024976 -0.0087161 0.31355 0.16107 0.0016633 3.3883e-05
0.001365 0.0002574 0.0004213 0.00037854
-0.00073802 -0.002056 -0.00097065 0.001588 0.0017084 2.7704e-05 0.11035 0.25787
0.00029418 -0.020911 -0.00029668 0.00033219
-0.00088221 0.0033674 0.0018654 0.0018712 0.0013487 0.00028621 0.00028121 -0.020927
0.029757 0.23561 0.0030483 -0.016234
0.0025601 0.001405 0.00082803 0.0020988 0.00037589 0.0002408 -0.00032749 0.00033317
0.0030493 -0.016197 0.042171 0.32115
1340000000 0.21251 0.23594 -0.018426 -0.019205 0.00088834 0.0049261 -0.0017981 -0.00085337
0.0014321 0.0027164 0.0019428 -0.0013332
-0.018405 -0.019173 0.039899 0.37212 -0.022427 0.0046698 -6.9875e-06 0.0021268
0.0021145 0.00074866 0.0013179 0.00076434
0.00088074 0.0049416 -0.022447 0.0047805 0.33495 0.11389 0.0011617 -0.00098551
0.00064575 -0.00065881 -1.4423e-05 0.00026212
-0.0018345 -0.0008557 2.6335e-05 0.0021143 0.0011436 -0.00098413 0.14338 0.23644
-0.0098717 -0.017674 0.00057171 0.00061524
0.0014513 0.0027542 0.0020956 0.00072036 0.00066664 -0.0006909 -0.0098644 -0.017628
0.060096 0.2305 -0.0046001 -0.014523
0.0018459 -0.0013751 0.0013346 0.0007518 -8.6808e-06 0.00029102 0.00060117 0.0006424
-0.0045736 -0.014533 0.080504 0.31498
1400000000 0.24647 0.19841 -0.024245 -0.0071772 0.0055885 0.0035226 -0.002258 0.00059066
0.0025139 0.00094998 0.00026858 -0.0016079
-0.024194 -0.0071428 0.077571 0.35908 -0.015338 0.013276 0.0014375 0.0012448
0.0012945 -0.00099019 0.0012445 2.9116e-05
0.0055648 0.0035426 -0.015292 0.013348 0.3478 0.061397 -1.5947e-05 -0.0017941
0.00014228 -0.0004722 0.00039692 0.00018686
-0.0022966 0.00058898 0.0014573 0.0012643 -9.3268e-06 -0.0017716 0.17262 0.20732
-0.016185 -0.0097308 -0.00088644 7.942e-05
0.0025775 0.00094885 0.0012982 -0.0010042 0.0001406 -0.00047439 -0.016237 -0.0096945
0.093402 0.22546 -0.011327 -0.008938
0.00021521 -0.0016842 0.0012543 4.4629e-05 0.00041084 0.00015119 -0.00080308 0.00010657
-0.011292 -0.0090085 0.12424 0.30365
1460000000 0.26983 0.15458 -0.020765 0.0055933 0.0061778 -0.0018477 -0.0016046 0.0017976
0.0022795 -0.00056536 -0.00042953 -0.0009742
-0.020752 0.0055615 0.11177 0.33688 -0.0059026 0.016304 0.0017183 9.3106e-05
0.0007671 -0.0014989 0.0012034 -0.00062958
0.0061508 -0.0018696 -0.0058313 0.016367 0.35425 0.0082613 -0.0013186 -0.0013247
0.00014697 -0.00026008 0.00080887 -0.00020142
-0.0015795 0.0018049 0.0017181 8.1078e-05 -0.0013476 -0.0013114 0.19882 0.17764
-0.017224 -0.0021528 -0.00058513 0.0022266
0.0022789 -0.0005771 0.00078232 -0.0015018 0.00018468 -0.00028229 -0.017259 -0.0021245
0.12289 0.2109 -0.013213 -0.0025715
-0.0003966 -0.00095109 0.0011558 -0.00066044 0.00076626 -0.00022548 -0.00068762 0.0022717
-0.013229 -0.0026002 0.15757 0.28265
1520000000 0.2824 0.11282 -0.014621 0.011109 0.0037144 -0.0045457 0.00012375 0.0026
0.0021165 -0.0021346 -0.0012246 -0.00018975
-0.014611 0.011079 0.14498 0.32234 0.0022072 0.01362 0.0016136 -0.0008222
-6.9688e-05 -0.0011026 0.0002481 -0.0010995
0.0037045 -0.004592 0.0022895 0.013625 0.34835 -0.047056 -0.0011326 -0.00028416
0.00069598 -0.00097047 0.00011356 -0.00030707
0.00012235 0.0026451 0.0016014 -0.00084881 -0.0011326 -0.0003267 0.22158 0.13921
-0.015708 0.0044436 0.0017554 0.0021535
0.0021113 -0.0021571 -9.3269e-05 -0.0010966 0.00068453 -0.00095951 -0.015696 0.0044871
0.15101 0.19701 -0.012518 0.0024857
-0.0011936 -0.00014439 0.00027298 -0.0011056 7.5527e-05 -0.00031469 0.0018407 0.0021277
-0.012497 0.0025058 0.18983 0.26171
1580000000 0.29217 0.066754 -0.0073965 0.014103 -0.00099293 -0.0053749 0.001584 0.0018975
-0.00026144 -0.0023406 -0.00011151 0.00034823
-0.0074219 0.014084 0.17189 0.29777 0.0059007 0.0082741 0.00047084 -0.0016128
-0.00057099 -0.00095431 -0.00025231 -0.00088582
-0.00096191 -0.0053525 0.0059474 0.0082737 0.32935 -0.10444 -0.0016805 0.00070122
-0.00036494 -0.001226 0.00029635 -0.00055559
0.0015912 0.0018965 0.00044236 -0.0016197 -0.0016617 0.00070785 0.23469 0.099907
-0.011097 0.0092439 0.0024328 0.00060832
-0.00024574 -0.002338 -0.00060771 -0.00094374 -0.0004101 -0.0012445 -0.011101 0.0092687
0.17549 0.17879 -0.0096935 0.0082736
-0.00010072 0.00035216 -0.00025412 -0.00085738 0.00031653 -0.00057014 0.0023705 0.00061678
-0.0097062 0.0082377 0.22126 0.23507
1640000000 0.29435 0.025682 -0.00051446 0.012371 -0.0030811 -0.0029423 0.0027605 0.0010086
-0.00091664 -0.0016231 -0.00033328 0.00055703
-0.00051954 0.012361 0.20113 0.27339 0.0064725 0.0031094 -0.00070337 -0.0017619
-0.0010173 -0.00033082 -0.00062847 -0.00059892
-0.0030883 -0.0029008 0.006494 0.0030724 0.30171 -0.15364 -0.00064808 0.0015427
-0.0011772 -0.00097446 -0.00034646 -0.00035437
0.0027386 0.0010604 -0.00070621 -0.0017518 -0.00065257 0.0015211 0.24665 0.051503
-0.0060843 0.010063 0.0026376 -0.00089911
-0.00095801 -0.001586 -0.001027 -0.00031016 -0.0011742 -0.00097245 -0.0060654 0.010109
0.19863 0.15452 -0.0043739 0.010262
-0.0002639 0.0005738 -0.00060741 -0.00060943 -0.00031484 -0.00037182 0.002677 -0.00093943
-0.0043909 0.010268 0.24641 0.20409
1700000000 0.2873 -0.019088 0.0028167 0.0090472 -0.0039102 2.7005e-05 0.0031569 -0.0012437
-0.0021207 -0.00053665 0.00059203 0.00037797
0.0027969 0.0090306 0.21914 0.24261 0.0041019 6.0507e-05 -0.0015325 -0.00057209
-0.00073698 1.8641e-05 -0.00095116 -0.00037114
-0.0039437 1.5931e-05 0.0041132 5.4447e-05 0.2591 -0.19377 0.00049085 0.0015918
-0.0020389 -3.9157e-05 -0.00048757 -0.0008357
0.0031347 -0.0012915 -0.0015383 -0.00053119 0.00048667 0.001591 0.24319 0.0023441
-0.0030407 0.0096688 0.0016348 -0.0021577
-0.0021181 -0.00054979 -0.00075323 5.3591e-05 -0.0020334 -9.4838e-06 -0.0030415 0.0096746
0.21565 0.13372 0.0004754 0.010392
0.00054621 0.00030345 -0.00090791 -0.00040463 -0.00044411 -0.0008709 0.0016223 -0.0021209
0.00047866 0.010376 0.26265 0.16983
1760000000 0.27585 -0.067362 0.0047297 0.0054489 -0.0025209 0.0010096 0.001202 -0.0034643
-0.0013978 0.00086952 0.00029379 -0.0004863
0.0047248 0.0054365 0.2454 0.20362 0.0016039 -0.0018046 -0.0012276 0.00023615
-0.0010153 0.00087743 -0.00061565 0.00042091
-0.0025158 0.001064 0.0015798 -0.001817 0.21131 -0.2277 0.0011393 0.0010224
-0.0012814 0.0015544 -0.0013423 -0.00066742
0.0012088 -0.003478 -0.0012419 0.00024225 0.0011414 0.0010441 0.23456 -0.048387
5.8655e-05 0.0080972 -0.0002667 -0.0028418
-0.0013684 0.00086923 -0.0010277 0.00089402 -0.0012744 0.0015804 5.5736e-05 0.0081346
0.2305 0.099069 0.0046569 0.0073197
0.00025627 -0.00051306 -0.00059166 0.00041306 -0.0013086 -0.00061104 -0.0001596 -0.0027793
0.0046908 0.0073561 0.27505 0.13212
1820000000 0.25191 -0.1045 0.0044053 0.0019397 -0.00038766 0.0027638 -0.0010442 -0.003105
-0.001013 0.0011266 1.466e-05 -0.0001047
0.0044042 0.0019504 0.25601 0.17417 -0.00094222 -0.00047353 -0.0012529 0.00096566
-0.00011992 0.0011891 -0.00051477 0.00055377
-0.00036442 0.0027832 -0.0009488 -0.00045061 0.16035 -0.24402 0.0015796 0.00037316
-8.2149e-05 0.0023631 -0.0014262 0.00053144
-0.0010903 -0.0031559 -0.0012627 0.00098594 0.0015955 0.00041375 0.20521 -0.095119
0.00092174 0.0065593 -0.0015574 -0.0016814
-0.00098695 0.0010746 -0.00012645 0.0012092 -0.00012197 0.0024161 0.00094122 0.0065449
0.24724 0.070091 0.0055496 0.0036819
-3.6119e-05 -3.2417e-05 -0.00048737 0.00053279 -0.0014227 0.00052087 -0.0016937 -0.0016698
0.005514 0.0036655 0.27736 0.095383
1880000000 0.21739 -0.14488 0.0018464 -0.00018063 -0.00052486 0.0023001 -0.0029579 -0.0021797
-9.3697e-06 0.0017987 0.00014689 -0.00055233
0.0018515 -0.00017187 0.26122 0.128 -0.0028131 0.0016335 -0.00014169 0.0017442
0.00050493 0.0013656 0.00018931 0.00088045
-0.0004807 0.0023089 -0.002833 0.0016394 0.10829 -0.2532 0.0017978 -0.00081523
0.0016177 0.0019937 -0.0010225 0.0013256
-0.0028986 -0.0021468 -0.00014706 0.0017518 0.0017548 -0.00081635 0.16547 -0.13541
0.0013726 0.0045064 -0.0026391 3.1815e-05
4.9255e-05 0.0017716 0.00050476 0.0013232 0.0016379 0.0019781 0.0014251 0.0045927
0.25083 0.038673 0.0056645 0.0009546
0.00016551 -0.00056127 0.00016861 0.00093901 -0.00097787 0.0013409 -0.0025245 9.2879e-05
0.0056414 0.001027 0.27722 0.061662
1940000000 0.17869 -0.17056 -0.00067582 -0.0014547 0.001333 0.002127 -0.0037212 0.00036266
0.0014477 0.00093516 -0.00044157 -0.00061486
-0.00069724 -0.0014355 0.2626 0.096136 -0.0015114 0.0040392 0.0010468 0.0012322
0.0018735 0.00058347 0.0010819 0.00036594
0.0013659 0.0021321 -0.0014989 0.004025 0.062976 -0.24634 0.00055251 -0.0021562
0.0024989 0.00024414 0.00086363 0.0017599
-0.0037735 0.00045807 0.0010518 0.001227 0.00056819 -0.0021619 0.11341 -0.16661
0.00030056 0.0033412 -0.0017441 0.001691
0.0014158 0.00092924 0.0018682 0.00055546 0.0024471 0.00025433 0.00032054 0.0033798
0.25351 0.00052101 0.0041286 -0.0023502
-0.00046798 -0.00050879 0.001067 0.00034018 0.00078774 0.0017839 -0.0019005 0.0015991
0.0040161 -0.0024126 0.26625 0.024719
2000000000 0.13301 -0.18634 -0.0041727 0.00077074 0.0026151 0.0017169 -0.00234 0.0037232
0.0012434 0.00028763 -0.00053394 0.00061881
-0.0041807 0.00074822 0.24913 0.06041 -0.001136 0.0059128 0.001625 0.0004181
0.001466 -0.001005 0.0005104 0.00011533
0.0027091 0.0015538 -0.0010996 0.0059174 0.019391 -0.2332 -0.001216 -0.0014184
0.0020549 -0.0013579 0.0017205 0.0014047
-0.002285 0.0037193 0.0016571 0.00036579 -0.0012605 -0.0013592 0.060769 -0.17746
-0.00061595 0.0035831 -0.00035641 0.002427
0.0012465 0.00037402 0.0015055 -0.0010164 0.0020109 -0.0013799 -0.00068387 0.0036436
0.24856 -0.032102 0.0005894 -0.0035676
