!Keysight Technologies,M9804A,MY58100912,A.14.10.03
!Date: Thursday, April 27, 2023 10:28:33
!Correction: S11(C  6-Port  ) 
!S12(C  6-Port  ) 
!S13(C  6-Port  ) 
!S14(C  6-Port  ) 
!S15(C  6-Port  ) 
!S16(C  6-Port  ) 
!S21(C  6-Port  ) 
!S22(C  6-Port  ) 
!S23(C  6-Port  ) 
!S24(C  6-Port  ) 
!S25(C  6-Port  ) 
!S26(C  6-Port  ) 
!S31(C  6-Port  ) 
!S32(C  6-Port  ) 
!S33(C  6-Port  ) 
!S34(C  6-Port  ) 
!S35(C  6-Port  ) 
!S36(C  6-Port  ) 
!S41(C  6-Port  ) 
!S42(C  6-Port  ) 
!S43(C  6-Port  ) 
!S44(C  6-Port  ) 
!S45(C  6-Port  ) 
!S46(C  6-Port  ) 
!S51(C  6-Port  ) 
!S52(C  6-Port  ) 
!S53(C  6-Port  ) 
!S54(C  6-Port  ) 
!S55(C  6-Port  ) 
!S56(C  6-Port  ) 
!S61(C  6-Port  ) 
!S62(C  6-Port  ) 
!S63(C  6-Port  ) 
!S64(C  6-Port  ) 
!S65(C  6-Port  ) 
!S66(C  6-Port  ) 
!S6P File: Measurement: :
# Hz S  RI   R 50
500000000 -0.33444 -0.052895 -0.0099016 -0.0013487 -0.0082141 0.013373 -0.0049401 0.012394
0.012918 0.0044469 -0.0054223 0.0083798
-0.0098496 -0.0014007 -0.41663 -0.062744 0.008145 -0.010283 0.00097759 0.011614
0.0088994 0.0033707 0.0010939 0.013044
-0.0082628 0.013293 0.0079423 -0.010351 -0.26689 0.1999 0.0068433 0.0039373
-0.0014001 0.008431 0.00029519 0.012783
-0.0049223 0.012299 0.0010496 0.012228 0.0065532 0.0036404 -0.33185 0.04458
-0.018341 -0.004876 0.016434 0.024807
0.013046 0.0045525 0.008223 0.0026106 -0.0013383 0.008536 -0.018642 -0.0052178
-0.24776 -0.19215 -0.025794 0.0052889
-0.0049073 0.0083589 0.00086917 0.014022 0.0002072 0.012402 0.016341 0.025652
-0.025834 0.0053119 -0.27233 -0.12045
560000000 -0.31719 0.11347 -0.022817 -0.064208 5.0554e-05 0.012514 0.0050715 0.010947
0.011122 0.0043382 0.010725 0.008674
-0.022759 -0.063993 -0.37647 0.10015 -0.041779 -0.037537 0.012934 0.0037522
-0.013146 -0.0041533 0.0042363 -0.00077647
1.0059e-05 0.012439 -0.042146 -0.038115 -0.18543 0.25086 -0.00013386 -0.0048675
0.018741 0.0050016 0.0081442 -0.0057495
0.0046618 0.010929 0.013241 0.0033246 -0.00019627 -0.0048998 -0.30729 0.13544
0.0054148 -0.023339 0.0050275 -0.021836
0.011392 0.0045551 -0.012982 -0.0046356 0.018999 0.0048271 0.0052859 -0.023361
-0.30963 -0.013997 0.0084217 -0.047876
0.010474 0.0087168 0.0041814 -0.00032027 0.008126 -0.0056418 0.0049712 -0.021969
0.008535 -0.047885 -0.33088 0.025907
620000000 -0.27774 0.09467 -0.023331 0.0085362 0.003581 0.0094426 0.0082618 -0.0042114
0.012106 -0.0013866 0.00069884 -0.002265
-0.023307 0.0085408 -0.40362 0.05019 -0.018416 0.00093086 -0.0012529 -0.0019222
0.011822 -0.006375 0.0016335 -0.0028494
0.0035522 0.009441 -0.018456 0.00085864 -0.15509 0.26049 -0.0003681 -0.0053805
-0.0036187 -0.0026398 0.01001 -0.0031866
0.0081872 -0.0043156 -0.0012863 -0.0019926 -0.00042102 -0.0052485 -0.26553 0.14612
-0.038594 -0.019537 0.013683 0.026482
0.012221 -0.0015283 0.011916 -0.0064366 -0.0037019 -0.0029721 -0.038497 -0.019331
-0.23071 -0.047251 -0.041861 0.012651
0.00092977 -0.0025004 0.001345 -0.0029166 0.0098205 -0.0029451 0.013804 0.025966
-0.041737 0.012511 -0.24907 -0.0048282
680000000 -0.23873 0.18456 -0.026262 -0.01406 0.0052969 0.0053857 0.0017145 -0.008142
-0.0015992 -0.011488 0.0056523 -0.0077824
-0.026296 -0.014052 -0.3897 0.15098 -0.032394 -0.0019033 -0.0011589 -0.00082034
-0.0016124 -0.0092767 -0.0008801 -0.0021435
0.0051924 0.0055392 -0.032463 -0.0017953 -0.10361 0.28093 -0.00041917 -0.00068138
-0.0018853 0.0001937 -0.0027232 -0.0093785
0.0016646 -0.0079772 -0.0013511 -0.0010522 -0.00043898 -0.00060847 -0.22025 0.19819
-0.023821 -0.0080733 -0.0096959 -0.010743
-0.0018966 -0.012257 -0.001752 -0.0093376 -0.0018701 0.00015801 -0.023641 -0.0080074
-0.27853 0.055296 -0.008029 -0.0082503
0.005281 -0.0073847 -0.00046634 -0.0019429 -0.0028369 -0.0093076 -0.0095247 -0.010935
-0.0080537 -0.0081111 -0.261 0.097699
740000000 -0.19315 0.17791 -0.039798 0.026506 0.013905 -0.0049712 -0.00056078 -0.0040069
-0.0046665 -0.0040642 -0.0072297 0.0032433
-0.039706 0.026424 -0.33508 0.16951 -0.036631 0.034471 -0.00052901 -0.0059887
-0.01241 0.0073723 -0.0014932 -0.0059908
0.013849 -0.0050274 -0.036693 0.03478 -0.069702 0.27842 -0.0019731 0.0031195
-0.0030682 -0.006525 -0.0014423 0.0016406
-0.00039945 -0.0040914 -0.0003784 -0.0057135 -0.0019324 0.0031656 -0.20397 0.20531
-0.042609 -0.0077172 0.022063 0.015029
-0.0049426 -0.0041549 -0.012109 0.0070651 -0.0030636 -0.0063057 -0.042421 -0.0077484
-0.18051 0.082089 -0.04086 0.00098744
-0.0066114 0.0035383 -0.0016809 -0.005549 -0.0015307 0.0014894 0.022167 0.014979
-0.041079 0.0011864 -0.24865 0.10293
800000000 -0.16145 0.22108 -0.022562 0.015914 0.0056631 -0.010497 -0.0042798 -0.0020172
-0.005065 0.0021707 0.004446 0.00041085
-0.022531 0.015896 -0.34087 0.23962 -0.0085734 0.034152 -0.0023912 0.0020339
-0.0015704 0.0028202 0.00093352 0.0052214
0.0056419 -0.010592 -0.0084151 0.034057 -0.031111 0.30251 0.00088297 0.001606
-3.2356e-05 0.0035025 -0.001825 0.0011112
-0.0042272 -0.0019523 -0.0024612 0.0020146 0.00083921 0.0015461 -0.17405 0.23272
-0.028581 0.013208 0.013617 -0.010404
-0.0048658 0.0021527 -0.0014437 0.0029367 -4.5676e-05 0.003514 -0.028502 0.01328
-0.22095 0.11205 -0.017173 0.0202
0.004436 0.00043506 0.00081602 0.0050796 -0.0017017 0.0011021 0.013534 -0.010351
-0.017258 0.019959 -0.23951 0.15137
860000000 -0.12681 0.24164 -0.017565 0.030665 -0.0029427 -0.01026 -0.0017325 0.00077448
0.0040099 0.0053103 -0.0034353 -0.002917
-0.017618 0.03066 -0.29229 0.28288 0.0074811 0.034594 0.00036313 0.0021327
0.0040016 0.00093094 0.0029357 0.00038063
-0.0029591 -0.010174 0.007627 0.034668 0.016334 0.31091 -0.0006802 0.00011764
0.0022906 -0.0010592 0.0016356 0.0039502
-0.0018054 0.0006826 0.00041511 0.002051 -0.00060282 3.3795e-05 -0.13716 0.24319
-0.018207 0.018296 -0.0056891 -0.0090123
0.0045022 0.0054308 0.0042613 0.00089215 0.0022726 -0.0010798 -0.018304 0.018566
-0.16359 0.16257 -0.024313 0.016427
-0.0033762 -0.003047 0.0030797 0.00018616 0.0016661 0.0039512 -0.0055667 -0.0090121
-0.024273 0.016436 -0.18981 0.19601
920000000 -0.10295 0.2647 0.0047176 0.038211 -0.009248 -0.0049759 -0.0017499 0.0017247
0.0018867 0.001518 0.0027796 -0.0014875
0.0047375 0.038136 -0.26532 0.30401 0.028128 0.022806 0.0015957 0.0012397
0.0077739 -0.00041329 0.0041746 -0.0025667
-0.0092368 -0.0050302 0.028244 0.022682 0.06196 0.31226 0.0019799 1.8546e-06
0.0013765 -0.00051301 0.00093937 -0.00118
-0.0017949 0.0016807 0.0015393 0.0012544 0.0019839 3.1996e-05 -0.11275 0.25979
-0.011172 0.030799 0.0033508 -0.0062461
0.0017488 0.0018125 0.0079464 -0.00025383 0.001268 -0.00060577 -0.01116 0.03088
-0.15226 0.1667 -0.0024029 0.025965
0.0028893 -0.0016218 0.0042417 -0.0026269 0.00088848 -0.0011582 0.0034665 -0.0063117
-0.0024072 0.026102 -0.1966 0.21093
980000000 -0.05666 0.28458 0.017039 0.030153 -0.0094297 0.0041596 0.0018123 0.0033529
0.0038552 -0.0017855 -0.0028284 -0.0021679
0.017075 0.030131 -0.21211 0.33861 0.033481 0.0053379 0.0020611 -0.00014417
0.0017882 -0.006149 -7.8975e-05 -0.0022639
-0.0093897 0.0041441 0.03357 0.005274 0.10785 0.30654 0.00072164 -0.0011817
0.00056773 -0.0019424 0.0016044 -0.00022917
0.0017771 0.0033284 0.0020567 -0.00020302 0.00071505 -0.0011839 -0.07484 0.27089
0.0073444 0.030231 -0.0088545 -0.0069045
0.0037935 -0.0018483 0.0016592 -0.0062686 0.00056918 -0.0019574 0.0073948 0.030277
-0.119 0.19799 0.0065473 0.019408
-0.0029446 -0.0022544 -9.5351e-05 -0.0024181 0.0016626 -0.00023578 -0.008773 -0.0068714
0.006534 0.019489 -0.15286 0.25289
1040000000 -0.015428 0.29385 0.032865 0.019114 -0.0016768 0.0071099 0.0026417 0.00086163
0.00041634 -0.0036025 -0.00028863 -0.0017268
0.032853 0.01911 -0.17734 0.35216 0.02999 -0.014573 0.0015266 -0.0017162
-0.0019393 -0.0027507 -0.001036 -0.0028695
-0.0016415 0.007121 0.029994 -0.014684 0.15376 0.29362 -0.0004449 -0.001664
-0.001452 -0.0010589 -0.0005216 -0.0011481
0.0026558 0.00081369 0.0015397 -0.00161 -0.00042873 -0.001657 -0.047051 0.28077
0.019674 0.018786 -0.0026938 0.0011924
0.00046575 -0.0036127 -0.0021436 -0.0027793 -0.001441 -0.0010038 0.019708 0.018782
-0.085431 0.20353 0.013894 0.017678
-0.00024671 -0.001716 -0.0010261 -0.0028289 -0.00048079 -0.0011408 -0.0026768 0.0011769
0.013893 0.017752 -0.12996 0.27409
1100000000 0.029744 0.30258 0.036539 -0.0036204 0.0028202 0.0042588 0.0024048 -0.0010461
-0.0020613 -0.0029512 -0.003991 -0.00012702
0.036509 -0.0036057 -0.13392 0.3701 0.015883 -0.028024 3.6522e-05 -0.0018127
-0.0035989 -0.0008568 -0.0036762 -0.00055539
0.002849 0.0042191 0.015815 -0.028123 0.1999 0.27416 -0.0018779 7.7697e-05
-0.001777 0.00047388 -0.0011521 -0.00046162
0.002392 -0.0010982 6.9411e-05 -0.0018118 -0.00193 0.0001122 -0.0067079 0.28562
0.0253 0.0055221 -0.0022543 0.00011162
-0.0021437 -0.0029304 -0.0036866 -0.00088184 -0.0018217 0.00042674 0.025294 0.0054433
-0.06485 0.2167 0.019779 0.0081437
-0.0039284 2.7449e-05 -0.0036572 -0.0005327 -0.0011716 -0.00044258 -0.0022563 0.00014598
0.019758 0.0081092 -0.084173 0.30201
1160000000 0.080555 0.29871 0.024496 -0.020739 0.0028152 -0.00040991 -9.5651e-05 -0.0024175
-0.0040415 -0.00085402 -0.0010138 0.0040854
0.024485 -0.020688 -0.09053 0.37481 -0.003352 -0.029675 -0.0016337 -0.0018321
-0.0028415 0.0025373 -0.0015048 0.0019881
0.0027942 -0.00044103 -0.0034724 -0.029722 0.2432 0.24407 -0.00087902 0.0018258
-0.00066172 0.0020177 -0.00091372 0.00025108
-1.371e-05 -0.0024761 -0.0016568 -0.0017653 -0.00085756 0.0018057 0.032686 0.28299
0.021723 -0.010574 -0.0031973 0.0050035
-0.0040206 -0.00078479 -0.0027482 0.0025443 -0.00069279 0.0020164 0.021717 -0.010573
-0.030382 0.22397 0.01827 -0.00098857
-0.00091681 0.0042372 -0.0015416 0.0019526 -0.00091586 0.00031014 -0.0031791 0.004994
0.018264 -0.00099919 -0.036884 0.30483
1220000000 0.1247 0.28898 0.011052 -0.030336 -0.0015855 -0.00092449 4.0403e-05 -0.00091668
-0.0027066 0.0021804 0.0010393 0.0020579
0.011069 -0.030298 -0.0465 0.38786 -0.01705 -0.021977 -0.0026857 0.00050229
-4.9962e-05 0.0031797 -0.00084927 0.0019449
-0.0015855 -0.00093022 -0.017158 -0.021915 0.2824 0.20559 0.00076021 0.001854
0.00058364 0.0013404 0.00027102 0.00060586
7.8854e-05 -0.00092312 -0.0026592 0.00052237 0.00075393 0.0017886 0.072874 0.27415
0.011025 -0.017606 0.0020852 0.0014241
-0.0027042 0.002202 -3.4715e-05 0.0031848 0.00059015 0.0013053 0.011011 -0.017622
-0.0065685 0.23218 0.01362 -0.013376
0.001074 0.0020906 -0.00081324 0.0019255 0.00030588 0.0005777 0.00207 0.0013972
0.013555 -0.013414 -0.0053404 0.31902
1280000000 0.17495 0.26841 -0.0077687 -0.028972 -0.0020392 0.0025136 -0.0007694 -0.0020823
-0.00073847 0.0032786 0.0025221 0.0013263
-0.0077403 -0.028942 -0.00040907 0.37948 -0.024304 -0.0089867 -0.00099848 0.0014775
0.0017585 0.0018062 0.00063231 0.0019985
-0.0020293 0.0025386 -0.024372 -0.0088917 0.31315 0.16207 0.0015876 4.3856e-06
0.0012746 0.00027926 0.00029555 0.00018944
-0.00077254 -0.0020655 -0.00095621 0.0015031 0.0016174 6.2463e-05 0.10987 0.25803
0.0010016 -0.019935 -0.00020125 0.00033874
-0.00072632 0.0032739 0.0017661 0.0017983 0.0012586 0.00028791 0.00099756 -0.019938
0.030104 0.23472 0.0026592 -0.015598
0.0025779 0.0013041 0.0006668 0.0020585 0.00034982 0.00024916 -0.00013487 0.00031677
0.0026355 -0.015628 0.041178 0.3205
1340000000 0.21249 0.23563 -0.017794 -0.019254 0.00078496 0.0047978 -0.0017797 -0.00087444
0.0014196 0.0026614 0.0018097 -0.0013228
-0.017728 -0.019254 0.039069 0.37184 -0.022144 0.0041803 -6.3177e-05 0.0020655
0.0020402 0.00078751 0.0013364 0.00074536
0.00080694 0.0048131 -0.022147 0.0042851 0.33515 0.11498 0.0011502 -0.00092046
0.0006662 -0.0006087 0.00011565 0.00026478
-0.0018153 -0.00087749 -7.3253e-05 0.002052 0.0011466 -0.00093263 0.14286 0.23695
-0.0088549 -0.017198 0.00070588 0.0005719
0.0014106 0.0026099 0.0020669 0.00075843 0.00068042 -0.00059597 -0.0089046 -0.017166
0.059994 0.22982 -0.0042137 -0.014116
0.0018611 -0.0013474 0.0012632 0.00076331 7.3263e-05 0.00030327 0.00071699 0.00059217
-0.0042033 -0.014109 0.079531 0.31493
1400000000 0.24643 0.19828 -0.023706 -0.0075682 0.0054198 0.0034446 -0.002242 0.00055151
0.0024287 0.0009968 0.0003075 -0.0015506
-0.023675 -0.0075739 0.076665 0.35937 -0.015387 0.01269 0.0014175 0.0013193
0.0012935 -0.0007856 0.0012379 0.00016161
0.005393 0.003434 -0.015342 0.012784 0.34868 0.06209 9.088e-05 -0.0016494
0.00014072 -0.00042494 0.00037484 0.00022746
-0.0022449 0.00055235 0.0014108 0.0012882 8.07e-05 -0.0016722 0.17247 0.20792
-0.014967 -0.010004 -0.00072262 -0.00019082
0.0024884 0.00096085 0.0013072 -0.00082839 0.00012581 -0.00046801 -0.014979 -0.009962
0.092874 0.22491 -0.010525 -0.0084793
0.00032366 -0.0016493 0.0012118 9.5345e-05 0.00038833 0.00021774 -0.00074952 -0.00022611
-0.010496 -0.0085308 0.12353 0.3038
1460000000 0.26985 0.15454 -0.020577 0.0048866 0.0059732 -0.0017771 -0.0016135 0.0017651
0.0021763 -0.00052193 -0.00038156 -0.00090708
-0.020563 0.0048682 0.11113 0.33774 -0.0062588 0.015869 0.0017012 0.00013151
0.00088631 -0.0014253 0.0012391 -0.00063926
0.0059655 -0.0018156 -0.0061977 0.015946 0.35531 0.0082466 -0.0012416 -0.0013081
0.00015294 -0.00021605 0.00076534 -0.00018347
-0.0015805 0.0017728 0.0017073 0.00013745 -0.0012409 -0.0013063 0.19894 0.17836
-0.016269 -0.0032284 -0.0008448 0.002024
0.0021847 -0.00051073 0.00087347 -0.0014248 0.00012439 -0.0002378 -0.016245 -0.0031634
0.12229 0.21034 -0.012249 -0.002599
-0.000381 -0.00089872 0.0012186 -0.00063811 0.00078446 -0.00019012 -0.00083004 0.0020536
-0.012207 -0.0026289 0.15663 0.28301
1520000000 0.28264 0.11296 -0.014815 0.010447 0.0035944 -0.0043678 0.00010812 0.0025992
0.0021264 -0.001992 -0.0011382 -0.00015037
-0.01479 0.01042 0.14489 0.32353 0.0017023 0.01358 0.0016598 -0.00078313
1.9849e-05 -0.001119 0.00031095 -0.0010478
0.0035137 -0.0044202 0.0017756 0.013579 0.34917 -0.047555 -0.0010871 -0.00037748
0.00068668 -0.00089415 4.1709e-05 -0.00021251
0.0001122 0.0025885 0.0016456 -0.00079722 -0.0010834 -0.00039734 0.22195 0.13989
-0.015473 0.0029697 0.0016701 0.0021023
0.0020944 -0.0019919 2.9916e-05 -0.0011324 0.00068952 -0.00089365 -0.015492 0.0030279
0.15024 0.19691 -0.011815 0.0019848
-0.00118 -0.00012667 0.00030835 -0.0010925 3.7126e-05 -0.00021941 0.0016358 0.0020859
-0.011816 0.0019728 0.18944 0.2622
1580000000 0.29266 0.066809 -0.0079289 0.013616 -0.00093779 -0.0051772 0.0014925 0.0019233
-0.00014884 -0.0021946 -0.00023846 0.00033535
-0.0079425 0.013604 0.17246 0.29895 0.0055534 0.0084807 0.00051847 -0.0015829
-0.00058722 -0.0010403 -0.00018821 -0.00086957
-0.00097771 -0.005128 0.0055818 0.0084748 0.32989 -0.10518 -0.0016892 0.00060203
-0.00036258 -0.0012114 0.00024504 -0.00052961
0.0014908 0.0019128 0.00051689 -0.0015895 -0.0016862 0.00060051 0.23551 0.10037
-0.011812 0.0079179 0.0021492 0.00069569
-0.0001565 -0.0021943 -0.00059835 -0.0010329 -0.00032525 -0.001227 -0.0118 0.0079218
0.17449 0.17886 -0.0093105 0.0075817
-0.00024051 0.0003288 -0.0001831 -0.00088453 0.00021906 -0.00051916 0.002144 0.00067928
-0.0093105 0.0075702 0.22093 0.23538
1640000000 0.29501 0.025669 -0.0011978 0.012311 -0.0029526 -0.002766 0.0027548 0.0010129
-0.00079508 -0.0016604 -0.00034772 0.00059016
-0.0011878 0.012295 0.20224 0.27428 0.0062869 0.0034604 -0.00062393 -0.001791
-0.0010342 -0.00041211 -0.00057978 -0.00066902
-0.0029345 -0.00271 0.0063222 0.0034289 0.30174 -0.15453 -0.00065459 0.0015332
-0.0010783 -0.0010224 -0.00016987 -0.00031454
0.0027521 0.0010089 -0.00064982 -0.001803 -0.00067511 0.0015454 0.24781 0.051497
-0.0073655 0.0094132 0.0025369 -0.00083457
-0.00079734 -0.0016332 -0.0010489 -0.00043897 -0.0010923 -0.00099651 -0.007373 0.0094428
0.19775 0.15498 -0.0044153 0.0093216
-0.00035697 0.00061065 -0.00058366 -0.00064549 -0.00018246 -0.00033546 0.0025526 -0.00080419
-0.0044231 0.0093077 0.24633 0.20415
1700000000 0.28816 -0.01954 0.0021901 0.0093496 -0.0037347 -1.1764e-05 0.0032137 -0.0012545
-0.0020713 -0.00063052 0.00051391 0.00047982
0.0021844 0.0093547 0.2207 0.24292 0.0041671 0.00037741 -0.0014992 -0.00059225
-0.00083601 4.0767e-05 -0.00095973 -0.00044902
-0.0037061 -3.0502e-05 0.004197 0.00034467 0.25874 -0.1944 0.00046327 0.0016487
-0.0019474 -0.00010753 -0.00049484 -0.00093533
0.00319 -0.0012722 -0.0015013 -0.00062705 0.00050548 0.0016225 0.24429 0.0016722
-0.0043619 0.0099369 0.0016315 -0.0022329
-0.0020561 -0.00064193 -0.00081381 5.6128e-05 -0.0019268 -9.3646e-05 -0.0043316 0.0099684
0.21492 0.13452 9.928e-05 0.0096424
0.00060599 0.00046823 -0.0009431 -0.00041838 -0.00049234 -0.00099731 0.0016061 -0.0022563
8.3795e-05 0.0096668 0.26243 0.16992
1760000000 0.27649 -0.068235 0.0044541 0.006042 -0.0024863 0.00098776 0.0013036 -0.003408
-0.00146 0.00075225 0.00036444 -0.00043797
0.0044305 0.0060212 0.24691 0.20325 0.001755 -0.0016382 -0.0012146 0.00017442
-0.001053 0.00091028 -0.00065409 0.0003682
-0.0024512 0.00097713 0.0017419 -0.0016468 0.21081 -0.22814 0.0011556 0.0010542
-0.0012893 0.0015118 -0.0012617 -0.00062963
0.0012602 -0.0034187 -0.0012469 0.00017989 0.0010877 0.0010385 0.2351 -0.049556
-0.00091888 0.0089774 -0.00019356 -0.0026139
-0.0014517 0.00074534 -0.0010572 0.00091544 -0.0012967 0.0015168 -0.00099201 0.0089605
0.23011 0.099862 0.0039638 0.0069471
0.00035274 -0.00045193 -0.00065227 0.00039152 -0.0012953 -0.00066159 -0.00017499 -0.002567
0.0039117 0.0069673 0.27474 0.132
1820000000 0.25217 -0.1056 0.0044452 0.0024355 -0.00034314 0.0025552 -0.0010139 -0.0031226
-0.0010887 0.0010815 3.1362e-05 -9.3949e-05
0.0044592 0.0024451 0.25731 0.17321 -0.00070885 -0.00043994 -0.001342 0.00094928
-7.1553e-05 0.0012803 -0.00058744 0.00058169
-0.00034868 0.0025547 -0.00070363 -0.00042583 0.1596 -0.24418 0.0016465 0.00033807
-0.00016702 0.0023867 -0.0014689 0.00040316
-0.00097925 -0.0031616 -0.0013483 0.00095248 0.001626 0.0003156 0.20518 -0.096673
0.00067474 0.007579 -0.0016511 -0.0015319
-0.0010526 0.001089 -7.1065e-05 0.001264 -0.00019293 0.0023724 0.00078339 0.0075578
0.24712 0.071104 0.0047592 0.0036835
-1.5825e-05 -7.3466e-05 -0.00057645 0.00055709 -0.0014879 0.00033078 -0.0016291 -0.0015805
0.0047786 0.003653 0.27673 0.096028
1880000000 0.21711 -0.14605 0.0021791 0.00018587 -0.00059661 0.0022412 -0.0029027 -0.0022121
-0.00017684 0.0018075 -4.1419e-06 -0.00054857
0.0021849 0.0001958 0.262 0.12663 -0.0026882 0.0015408 -0.0002167 0.0017802
0.00057937 0.0013264 0.00011759 0.00094026
-0.00058111 0.0022189 -0.0026939 0.0015527 0.10764 -0.25332 0.0017009 -0.00089692
0.0015884 0.0020205 -0.00097137 0.0013626
-0.0029006 -0.0021908 -0.00020482 0.0017851 0.0017686 -0.00082906 0.16458 -0.13655
0.0015417 0.0054439 -0.0024027 0.00038631
-0.00017806 0.0018322 0.00056637 0.0013654 0.0015381 0.0020939 0.0015525 0.005527
0.25101 0.039568 0.0049594 0.0014477
0.00010589 -0.00059312 0.00014184 0.00099656 -0.0010472 0.0013837 -0.0024184 0.00039281
0.0049801 0.0014823 0.27673 0.062091
1940000000 0.17793 -0.17157 -0.00021922 -0.0013149 0.0013154 0.0022399 -0.0036937 0.00056578
0.0015127 0.001126 -0.00041561 -0.00047119
-0.00027332 -0.001283 0.26276 0.094791 -0.001527 0.0041186 0.0011525 0.0013462
0.0019673 0.00054699 0.0010519 0.00043077
0.0013249 0.0022128 -0.001503 0.0041009 0.062206 -0.24612 0.00056182 -0.0022288
0.0024027 0.00038923 0.0005935 0.0017661
-0.0036473 0.00057186 0.0011506 0.0013587 0.00045625 -0.0022078 0.11237 -0.16707
0.00090261 0.0042462 -0.0015566 0.001894
0.0014874 0.0011249 0.0019568 0.00053301 0.0024464 0.00028973 0.00096988 0.0042153
0.25396 0.0014058 0.0035804 -0.0016919
-0.00052345 -0.00044265 0.00097817 0.00038072 0.00061537 0.0017567 -0.0015718 0.0018498
0.0035311 -0.0017358 0.26555 0.025959
2000000000 0.13211 -0.18663 -0.0038434 0.00079289 0.0027496 0.0015933 -0.0022596 0.0038689
0.0011852 0.00036142 -0.00061757 0.0005521
-0.0038545 0.00080807 0.24884 0.059153 -0.00091308 0.0059376 0.0017173 0.00044452
0.0014705 -0.0011311 0.00050106 0.00015187
0.0027241 0.001566 -0.00087822 0.0059801 0.019203 -0.23238 -0.0010908 -0.0014749
0.002163 -0.0012048 0.001523 0.001498
-0.0022364 0.0038595 0.0016844 0.00041317 -0.0010208 -0.0013852 0.059044 -0.17728
-0.00022163 0.0036303 8.5074e-05 0.0023378
0.0011322 0.00033069 0.0014244 -0.0011575 0.002151 -0.0012004 -0.00021013 0.0036886
0.24941 -0.031718 0.00065004 -0.0026587
