!Keysight Technologies,M9804A,MY58100912,A.14.10.03
!Date: Thursday, April 27, 2023 10:28:33
!Correction: S11(C  6-Port  ) 
!S12(C  6-Port  ) 
!S13(C  6-Port  ) 
!S14(C  6-Port  ) 
!S15(C  6-Port  ) 
!S16(C  6-Port  ) 
!S21(C  6-Port  ) 
!S22(C  6-Port  ) 
!S23(C  6-Port  ) 
!S24(C  6-Port  ) 
!S25(C  6-Port  ) 
!S26(C  6-Port  ) 
!S31(C  6-Port  ) 
!S32(C  6-Port  ) 
!S33(C  6-Port  ) 
!S34(C  6-Port  ) 
!S35(C  6-Port  ) 
!S36(C  6-Port  ) 
!S41(C  6-Port  ) 
!S42(C  6-Port  ) 
!S43(C  6-Port  ) 
!S44(C  6-Port  ) 
!S45(C  6-Port  ) 
!S46(C  6-Port  ) 
!S51(C  6-Port  ) 
!S52(C  6-Port  ) 
!S53(C  6-Port  ) 
!S54(C  6-Port  ) 
!S55(C  6-Port  ) 
!S56(C  6-Port  ) 
!S61(C  6-Port  ) 
!S62(C  6-Port  ) 
!S63(C  6-Port  ) 
!S64(C  6-Port  ) 
!S65(C  6-Port  ) 
!S66(C  6-Port  ) 
!S6P File: Measurement: :
# Hz S  RI   R 50
500000000 -0.33553 -0.05207 -0.010974 -0.0014774 -0.0083699 0.013445 -0.0049214 0.011987
0.012674 0.0056352 -0.0044878 0.0090457
-0.010774 -0.0013976 -0.41695 -0.062282 0.0072251 -0.010215 0.0018544 0.012248
0.0071923 0.0029553 0.0017216 0.014423
-0.0082389 0.013443 0.0073301 -0.010211 -0.26807 0.20073 0.0072188 0.0036113
-0.0018178 0.00866 0.0011437 0.012468
-0.0050361 0.012365 0.0015182 0.012778 0.0072038 0.0036658 -0.33271 0.045189
-0.018842 -0.0044906 0.015916 0.027464
0.012607 0.0053137 0.0072202 0.0025221 -0.0018739 0.0086754 -0.018676 -0.0044578
-0.25039 -0.19291 -0.027495 0.0052825
-0.0049898 0.0094568 0.00093683 0.014696 0.00099764 0.012394 0.015903 0.027322
-0.027533 0.0053244 -0.27419 -0.11754
560000000 -0.31818 0.1141 -0.023787 -0.064024 0.0001537 0.012915 0.004091 0.011053
0.010929 0.0053497 0.010185 0.0094635
-0.023743 -0.06409 -0.37715 0.10076 -0.041092 -0.037497 0.013922 0.0040341
-0.013054 -0.0034452 0.0033641 -0.000717
0.00019795 0.012989 -0.041453 -0.037482 -0.1862 0.2526 0.00020708 -0.0043722
0.017891 0.0040473 0.0079469 -0.0051438
0.0041042 0.011157 0.013826 0.0040366 0.00025903 -0.0043806 -0.30758 0.13554
0.0054401 -0.023804 0.0047089 -0.021037
0.010712 0.0052223 -0.012478 -0.0046136 0.017599 0.0042561 0.0056405 -0.023741
-0.31094 -0.014885 0.0096157 -0.045633
0.010122 0.00954 0.0037142 -0.0012451 0.0080706 -0.0050804 0.0048074 -0.021231
0.0095845 -0.04556 -0.33477 0.026865
620000000 -0.27881 0.09537 -0.023252 0.0088494 0.0039637 0.0095242 0.0083643 -0.0041603
0.011743 -0.0011157 0.0012107 -0.0012232
-0.023251 0.0087283 -0.40375 0.050742 -0.018432 0.0011694 -0.001096 -0.0019779
0.011874 -0.006164 0.0016048 -0.0025128
0.0040553 0.0095155 -0.018404 0.0012044 -0.15525 0.2616 -0.00049395 -0.005188
-0.0030848 -0.0026627 0.0094765 -0.0028244
0.0083262 -0.0042336 -0.0012516 -0.002093 -0.00047629 -0.0052028 -0.2668 0.14601
-0.037935 -0.018608 0.012772 0.025345
0.011895 -0.0011186 0.012135 -0.0059943 -0.00306 -0.0026069 -0.037899 -0.018596
-0.23121 -0.045927 -0.039559 0.014074
0.0012342 -0.001137 0.001629 -0.0027151 0.0095978 -0.0028516 0.012871 0.025086
-0.039534 0.014148 -0.2498 -0.0065306
680000000 -0.23807 0.18561 -0.026142 -0.013728 0.0050701 0.0053907 0.0019252 -0.0069068
-0.0017402 -0.011844 0.0056315 -0.0078935
-0.026199 -0.013681 -0.38958 0.15168 -0.032138 -0.0018361 -0.0014894 -0.00058018
-0.0014208 -0.0095711 -0.00062701 -0.0021957
0.0051036 0.0054202 -0.032119 -0.001665 -0.10297 0.28157 -0.00064308 -0.00030833
-0.0014863 0.00026483 -0.0029405 -0.0094394
0.0015505 -0.0069163 -0.0014746 -0.00087116 -0.00066223 -0.00033017 -0.22067 0.19853
-0.023318 -0.0075577 -0.0098645 -0.010828
-0.0019775 -0.011937 -0.0015534 -0.0095347 -0.0015045 0.00026693 -0.023309 -0.0076181
-0.27927 0.057518 -0.007665 -0.0078984
0.0057194 -0.0078145 -0.00067998 -0.0019519 -0.0029602 -0.0094297 -0.010039 -0.010716
-0.0076196 -0.007944 -0.25998 0.097048
740000000 -0.19301 0.1788 -0.039332 0.027231 0.013618 -0.0051712 -0.0004717 -0.0045522
-0.0039078 -0.0031937 -0.00678 0.0028538
-0.039335 0.027026 -0.33473 0.17031 -0.036345 0.034479 -0.00018735 -0.006174
-0.01241 0.0072769 -0.00086423 -0.0062325
0.013634 -0.0051376 -0.036183 0.034586 -0.068762 0.27884 -0.0020921 0.0030939
-0.003237 -0.0064375 -0.0012206 0.0017673
-0.00045614 -0.004448 -0.00035559 -0.0061713 -0.0021016 0.0030959 -0.20336 0.20487
-0.042685 -0.005939 0.023761 0.014502
-0.0038704 -0.003201 -0.012541 0.0077728 -0.0031973 -0.0064062 -0.042671 -0.005891
-0.17957 0.079797 -0.04288 0.0028767
-0.0067253 0.0030599 -0.0011176 -0.0065708 -0.0012862 0.0018261 0.023783 0.014432
-0.042931 0.0028829 -0.24504 0.10413
800000000 -0.16087 0.22158 -0.022067 0.016173 0.0055919 -0.010661 -0.0042155 -0.0021412
-0.0047821 0.002122 0.0047554 0.00051323
-0.022044 0.01621 -0.34032 0.24007 -0.0084217 0.033799 -0.0022201 0.0020901
-0.0016514 0.002813 0.0012903 0.0052827
0.0055725 -0.010672 -0.008383 0.033879 -0.030407 0.30213 0.00089925 0.001533
-0.00023633 0.0035997 -0.0017867 0.00093716
-0.0041829 -0.0021456 -0.0022142 0.0019453 0.00088388 0.0015346 -0.17367 0.23302
-0.028012 0.013181 0.01376 -0.010101
-0.0047534 0.0020798 -0.001564 0.0027718 -0.00024802 0.003616 -0.028034 0.013265
-0.22131 0.11325 -0.016034 0.019721
0.0048073 0.00056167 0.001298 0.0051802 -0.0017766 0.00091018 0.01379 -0.010134
-0.01607 0.019712 -0.23955 0.15232
860000000 -0.1261 0.24179 -0.017395 0.030444 -0.002905 -0.010265 -0.0016547 0.000697
0.0039416 0.0057695 -0.0032028 -0.0029617
-0.017413 0.030448 -0.29223 0.28278 0.0073615 0.034517 0.00020959 0.0022554
0.0038085 0.0013458 0.0035162 0.00051473
-0.0029031 -0.010246 0.0074739 0.034437 0.016591 0.31046 -0.00065482 0.00015653
0.0023809 -0.0011371 0.001581 0.0040215
-0.0016557 0.00070139 0.0001381 0.0021797 -0.0006598 0.00015967 -0.13684 0.24333
-0.017807 0.018547 -0.0061152 -0.0088097
0.0040647 0.0056557 0.0039815 0.0010661 0.002371 -0.0011455 -0.017767 0.018557
-0.16368 0.16357 -0.023705 0.01692
-0.0033938 -0.0028 0.0032115 0.00045098 0.0015962 0.0040385 -0.0061424 -0.0088326
-0.02371 0.016931 -0.18948 0.19663
920000000 -0.10267 0.26475 0.0047424 0.038134 -0.0092692 -0.0051668 -0.0018153 0.0015404
0.0017606 0.0023849 0.0030031 -0.001308
0.0047136 0.038079 -0.26499 0.30387 0.02803 0.022695 0.001586 0.0013763
0.0080298 0.00019147 0.0041913 -0.0025219
-0.0092237 -0.0050929 0.028173 0.022699 0.061988 0.31203 0.0021027 3.4027e-05
0.0014997 -0.00025375 0.0009668 -0.0014158
-0.0018548 0.0016522 0.001571 0.001376 0.0020966 4.7034e-05 -0.11238 0.25954
-0.010198 0.030621 0.0037842 -0.0070938
0.0018634 0.002364 0.0081755 0.00018412 0.0014921 -0.00027645 -0.010138 0.030667
-0.15242 0.16887 -0.0015141 0.026701
0.0030395 -0.0012153 0.0042342 -0.0027222 0.00093116 -0.0014098 0.0037664 -0.0070617
-0.0015193 0.026691 -0.19465 0.21068
980000000 -0.05615 0.28439 0.016897 0.02976 -0.0094439 0.0039998 0.0017713 0.0035101
0.00377 -0.0018812 -0.0031085 -0.0021445
0.016885 0.029734 -0.21191 0.33815 0.033431 0.0053091 0.0021043 -0.00014178
0.0018926 -0.0061831 -0.00024889 -0.0026428
-0.0094717 0.0039919 0.033486 0.0052348 0.10783 0.30636 0.00068651 -0.0012358
0.00054779 -0.0020212 0.0014477 -0.0002702
0.001811 0.0034984 0.0020956 -6.8938e-05 0.00068527 -0.0012385 -0.074291 0.27017
0.006968 0.029914 -0.0087663 -0.0065287
0.0038414 -0.001899 0.0018437 -0.0063969 0.00052261 -0.0020388 0.0070316 0.029919
-0.11812 0.198 0.0058696 0.018753
-0.0031296 -0.0022031 -0.00040489 -0.0026683 0.0014338 -0.00025706 -0.0087821 -0.0065054
0.0058652 0.01877 -0.15331 0.25476
1040000000 -0.01499 0.29345 0.032792 0.018767 -0.0017759 0.0069676 0.002561 0.0010225
0.00024173 -0.0036704 -0.00028958 -0.0015071
0.03278 0.01878 -0.17716 0.35184 0.030031 -0.014687 0.0015639 -0.0017512
-0.0020344 -0.0030948 -0.0012482 -0.002927
-0.0017369 0.0069609 0.030054 -0.014784 0.15366 0.2936 -0.00048811 -0.0016546
-0.0016004 -0.0011079 -0.00074508 -0.0011884
0.002529 0.00098174 0.0015537 -0.0017678 -0.00048755 -0.0016603 -0.04725 0.28037
0.019406 0.01872 -0.0028197 0.0009202
0.00036904 -0.0036881 -0.0019265 -0.0030334 -0.0015859 -0.0011187 0.019477 0.018683
-0.084261 0.20456 0.014738 0.017047
-0.00029723 -0.0015171 -0.0012165 -0.0031091 -0.00074466 -0.0011964 -0.0027966 0.00092845
0.014716 0.017076 -0.13018 0.27331
1100000000 0.029765 0.30231 0.036254 -0.0037619 0.0026429 0.0042279 0.0024785 -0.00086239
-0.002272 -0.0029146 -0.0041051 1.8099e-05
0.036226 -0.003746 -0.13422 0.3698 0.015859 -0.028073 0.00012877 -0.0018047
-0.003849 -0.0010136 -0.0037427 -0.00060306
0.0026487 0.0041989 0.015805 -0.028152 0.20003 0.27425 -0.0019271 6.9348e-05
-0.0018872 0.00052076 -0.0011655 -0.00035749
0.0024715 -0.00088407 0.00010853 -0.0017917 -0.0019259 6.2436e-05 -0.0069507 0.2852
0.025074 0.0051664 -0.0026437 6.1352e-05
-0.0022527 -0.0029093 -0.0038948 -0.0009854 -0.0018799 0.0005199 0.025097 0.005148
-0.064122 0.21692 0.01988 0.0079276
-0.0041375 4.1546e-05 -0.0037759 -0.00059192 -0.0011651 -0.00037974 -0.0026715 9.2669e-05
0.019859 0.0079193 -0.083702 0.30188
1160000000 0.080627 0.29865 0.024227 -0.020714 0.0025814 -0.00032742 9.2969e-05 -0.0022927
-0.0039769 -0.00092675 -0.0010201 0.0040841
0.024244 -0.020694 -0.090938 0.37453 -0.0034494 -0.029712 -0.0017094 -0.001826
-0.0028843 0.0026064 -0.0014892 0.0020635
0.0025842 -0.00033145 -0.0035581 -0.029739 0.2434 0.24398 -0.00093067 0.0018372
-0.00067257 0.0020714 -0.00079598 0.00040283
0.00011072 -0.0022333 -0.0017161 -0.0017917 -0.00093469 0.0018366 0.032094 0.28253
0.021543 -0.010635 -0.0033271 0.0050347
-0.0039534 -0.00083617 -0.0028144 0.0026121 -0.00066138 0.002077 0.021521 -0.010676
-0.030056 0.22365 0.018791 -0.00074225
-0.0010627 0.0040844 -0.0014298 0.002009 -0.00081427 0.00041088 -0.0033134 0.0050396
0.018788 -0.00072443 -0.036603 0.30446
1220000000 0.12463 0.28892 0.010763 -0.030247 -0.0017134 -0.00075428 0.00018906 -0.00090056
-0.0026423 0.0021669 0.0010148 0.0020251
0.010773 -0.030219 -0.046875 0.38791 -0.017171 -0.021995 -0.0027217 0.00048052
-2.5095e-05 0.0033019 -0.00094247 0.0020586
-0.0017131 -0.00073049 -0.017264 -0.021924 0.28265 0.20539 0.0007456 0.0018297
0.00068294 0.0013078 0.00026952 0.00061873
0.00016209 -0.00095331 -0.0027202 0.00047618 0.00074353 0.0018275 0.072304 0.27407
0.010975 -0.017675 0.0017967 0.0014755
-0.0026527 0.0021695 1.4934e-05 0.0032849 0.00070027 0.0013319 0.010956 -0.017679
-0.0063813 0.23179 0.013522 -0.013373
0.001043 0.0019682 -0.00094236 0.0020687 0.00027974 0.00061569 0.0018136 0.0014497
0.013497 -0.013366 -0.00452 0.31938
1280000000 0.17485 0.2684 -0.0080598 -0.028782 -0.0019682 0.0027739 -0.00078373 -0.0022301
-0.00074702 0.0032607 0.0026247 0.0012542
-0.0080245 -0.028762 -0.00073203 0.37969 -0.024446 -0.0089852 -0.0010058 0.0014964
0.0019525 0.001914 0.000669 0.0020259
-0.0019916 0.002754 -0.02453 -0.008925 0.31312 0.16168 0.001689 0.0001003
0.0012859 0.00029309 0.00034286 0.00013831
-0.00076784 -0.0021973 -0.0010094 0.0015417 0.0016916 9.4327e-05 0.10936 0.25805
0.00089954 -0.019931 -0.00017789 0.00043557
-0.00073943 0.0032515 0.0019469 0.0018754 0.0012915 0.00029936 0.00087613 -0.019942
0.030206 0.23421 0.0025169 -0.015689
0.0026359 0.0012672 0.00064676 0.0021015 0.00033334 9.2481e-05 -0.00017401 0.00043664
0.0025192 -0.015691 0.041941 0.32066
1340000000 0.21231 0.23564 -0.017909 -0.018935 0.00092763 0.0049837 -0.0018786 -0.0010108
0.001413 0.0027025 0.0018846 -0.0014551
-0.017873 -0.018927 0.038981 0.37219 -0.022216 0.0043213 -0.00011345 0.0020968
0.0021485 0.00071226 0.0012612 0.0007832
0.00093836 0.0050148 -0.022225 0.0044439 0.33507 0.11474 0.0012187 -0.0010196
0.00067319 -0.00066612 1.0319e-05 0.00019316
-0.0018899 -0.0010277 -0.00011772 0.0020723 0.001231 -0.0010143 0.14256 0.2374
-0.0089635 -0.01713 0.0006885 0.00070668
0.001446 0.0026754 0.0021495 0.00067847 0.0006618 -0.00064888 -0.0090047 -0.017126
0.059775 0.22965 -0.0045242 -0.014055
0.0018593 -0.0014606 0.0012464 0.00073609 2.4558e-05 0.00022185 0.00068199 0.00070423
-0.0045237 -0.014065 0.080359 0.31488
1400000000 0.24638 0.19843 -0.023683 -0.0072057 0.0056042 0.0035091 -0.0023572 0.0005967
0.0024762 0.0010889 0.00031949 -0.0017134
-0.023649 -0.0072072 0.076773 0.35976 -0.015419 0.012891 0.0014397 0.0013471
0.0013305 -0.00091065 0.0011811 8.8643e-05
0.0056396 0.0034686 -0.015378 0.012968 0.34834 0.061904 6.86e-05 -0.0017845
4.7787e-05 -0.00036589 0.0003154 0.00022816
-0.0023263 0.000584 0.0014632 0.001334 6.6908e-05 -0.0017978 0.17243 0.20828
-0.015217 -0.010091 -0.00071996 4.5099e-05
0.0025033 0.0010878 0.001332 -0.00092078 5.0407e-05 -0.00038725 -0.01524 -0.010055
0.092924 0.22488 -0.010785 -0.0087385
0.00035011 -0.0017101 0.0011754 7.6787e-05 0.00033758 0.0002233 -0.00070492 4.4705e-05
-0.010774 -0.0087383 0.12382 0.30356
1460000000 0.26994 0.15458 -0.020347 0.0051516 0.0061439 -0.0018901 -0.0016369 0.0018542
0.0022744 -0.00048677 -0.00048105 -0.0010527
-0.020325 0.0051302 0.11139 0.33803 -0.0061619 0.016101 0.0017671 0.00012435
0.00085254 -0.0015 0.0011923 -0.0005515
0.006128 -0.001892 -0.0061086 0.01616 0.35509 0.0082076 -0.0012835 -0.0013852
0.00011734 -0.00022273 0.00068738 -9.7711e-05
-0.0016196 0.0018717 0.0017733 0.00011764 -0.0012929 -0.0013864 0.19898 0.17861
-0.016427 -0.0030576 -0.00072043 0.0021525
0.0022772 -0.00044661 0.00083297 -0.0015069 0.00012878 -0.00023055 -0.016425 -0.0030098
0.12212 0.21061 -0.012436 -0.0025481
-0.00043269 -0.0010168 0.001211 -0.00054731 0.00070107 -0.00010074 -0.00072322 0.0021411
-0.012442 -0.002545 0.15706 0.28277
1520000000 0.28284 0.11316 -0.014521 0.010586 0.003651 -0.0045341 0.00014317 0.0026846
0.0021862 -0.0019634 -0.0011641 -0.00016634
-0.014525 0.010561 0.1452 0.32364 0.0019394 0.013656 0.0016523 -0.0008711
-1.0145e-05 -0.0011124 0.00038355 -0.0010584
0.0036049 -0.0045711 0.0019963 0.013674 0.34915 -0.047359 -0.0011587 -0.00039138
0.00068723 -0.00094445 7.2019e-05 -0.00027571
0.00013651 0.0026849 0.0016479 -0.0008894 -0.0011665 -0.0003986 0.22211 0.14007
-0.015511 0.003156 0.0017618 0.0021215
0.0021584 -0.0020049 4.6303e-07 -0.0011106 0.00066905 -0.00092428 -0.015519 0.0031832
0.15039 0.19723 -0.012078 0.002266
-0.0012117 -0.00014059 0.00037556 -0.0010498 9.9141e-05 -0.00028863 0.0017385 0.0021161
-0.01209 0.0022471 0.18944 0.26205
1580000000 0.29305 0.066713 -0.0076415 0.013574 -0.00091762 -0.0053366 0.0015797 0.0019779
-0.00019413 -0.0022832 -0.00025775 0.00039733
-0.007648 0.01356 0.17281 0.29893 0.0057621 0.0085043 0.00047487 -0.0015864
-0.00060415 -0.00093582 -0.00018495 -0.00087922
-0.00091449 -0.0053402 0.0058389 0.0084572 0.32976 -0.10507 -0.0017114 0.00068455
-0.00038306 -0.0012494 0.00017151 -0.0005051
0.0015879 0.0019612 0.0004345 -0.0015954 -0.0017155 0.0006882 0.23573 0.10032
-0.01182 0.0082141 0.0023571 0.00064195
-0.0002106 -0.0022744 -0.00062638 -0.00092892 -0.00040403 -0.0012389 -0.011799 0.0082476
0.17477 0.17926 -0.0093294 0.0079435
-0.00024288 0.00037368 -0.00018242 -0.00090748 0.00016168 -0.00048254 0.0023656 0.00063958
-0.0093306 0.0079485 0.22112 0.2351
1640000000 0.29531 0.025382 -0.00095061 0.012154 -0.0030097 -0.0028782 0.0027727 0.00099166
-0.00083502 -0.0016973 -0.00038566 0.00061368
-0.00095405 0.012144 0.20252 0.27417 0.0064479 0.0033461 -0.00067834 -0.0017606
-0.00097909 -0.00038844 -0.00058993 -0.00074376
-0.0030804 -0.0028411 0.0064437 0.0033485 0.30196 -0.15457 -0.00065418 0.0015313
-0.0011021 -0.00097657 -0.00026613 -0.00038894
0.0027808 0.0010023 -0.00069516 -0.0017492 -0.00065715 0.0015343 0.24781 0.051464
-0.0072169 0.0096042 0.002516 -0.00085577
-0.00086737 -0.0016924 -0.00099619 -0.00035901 -0.0011056 -0.00098208 -0.0072006 0.0096267
0.19818 0.1553 -0.0044689 0.0096627
-0.00038342 0.00062045 -0.00058737 -0.00069415 -0.00025799 -0.00043649 0.002527 -0.00086725
-0.0044708 0.0096511 0.2465 0.20413
1700000000 0.28842 -0.019984 0.0023611 0.0090953 -0.0038337 -6.268e-05 0.0032119 -0.0013715
-0.0020315 -0.00060031 0.00062714 0.00041313
0.0023544 0.0090723 0.22092 0.24275 0.004267 0.00016603 -0.0014928 -0.00056925
-0.00077959 5.3315e-05 -0.00092115 -0.0004723
-0.003844 -0.00012078 0.0042753 0.00011858 0.25895 -0.19463 0.00051176 0.0016974
-0.0020548 -1.3831e-05 -0.00045087 -0.00087997
0.0032051 -0.0013595 -0.0014997 -0.0005537 0.00050402 0.0017079 0.24439 0.001501
-0.0040179 0.0099893 0.0016126 -0.0023326
-0.0020466 -0.00059321 -0.00079609 6.9731e-05 -0.0020688 -7.3315e-06 -0.0040028 0.009999
0.21572 0.13479 0.00021498 0.0098639
0.00057578 0.00039038 -0.0009438 -0.00046627 -0.00044075 -0.00088543 0.0015859 -0.0023322
0.00022093 0.0098688 0.26219 0.16972
1760000000 0.2765 -0.068797 0.0044953 0.0057091 -0.0025185 0.00099732 0.0013573 -0.0035489
-0.00144 0.00073102 0.00028754 -0.00049052
0.0044738 0.00569 0.24714 0.20301 0.0017369 -0.0017796 -0.0012046 0.00021977
-0.0010668 0.00087571 -0.00069672 0.00041352
-0.0024602 0.00099461 0.0017333 -0.0017693 0.21089 -0.22831 0.0011293 0.0009592
-0.0012686 0.0014858 -0.001205 -0.00057589
0.0012808 -0.0035581 -0.0012097 0.00018933 0.00112 0.00095571 0.23495 -0.049815
-0.00064853 0.0088718 -5.5218e-05 -0.0027024
-0.001468 0.00072524 -0.0010503 0.00086266 -0.0012392 0.0014727 -0.00061267 0.0088782
0.23083 0.099787 0.0042088 0.0072081
0.00031101 -0.00050937 -0.0006905 0.00038402 -0.0012001 -0.00056135 -5.7791e-05 -0.0027147
0.0042092 0.0072061 0.27504 0.13227
1820000000 0.2521 -0.10603 0.004335 0.0021967 -0.00039856 0.0025293 -0.001065 -0.0030799
-0.0010629 0.0010402 -8.9635e-05 -4.9648e-05
0.0043315 0.0021946 0.25747 0.17295 -0.00074712 -0.00050937 -0.0013278 0.00092924
-8.6521e-05 0.0012049 -0.00061228 0.00057562
-0.00036695 0.0025566 -0.0006965 -0.00050668 0.1598 -0.24388 0.0014824 0.00037441
-0.00010574 0.0023442 -0.0015166 0.00028134
-0.0010543 -0.0031262 -0.0012922 0.00093345 0.0014688 0.00040793 0.20485 -0.09663
0.00080652 0.0072067 -0.0017518 -0.001713
-0.0010496 0.0010613 -7.962e-05 0.0012258 -0.00015707 0.0023343 0.00080733 0.0072162
0.24808 0.070768 0.0051493 0.0035105
-0.0001036 -4.8503e-06 -0.00063204 0.00058349 -0.0015117 0.00025608 -0.0017425 -0.0016906
0.0051535 0.0035072 0.277 0.095807
1880000000 0.21683 -0.14664 0.0019742 -2.1022e-05 -0.00064385 0.0022975 -0.0030028 -0.0021807
-0.00014275 0.0018175 0.00016126 -0.00054338
0.0019621 -2.8736e-05 0.26206 0.12625 -0.0028338 0.0015276 -0.00020164 0.0017349
0.0005597 0.001374 0.00011908 0.00099934
-0.00063087 0.0022918 -0.002881 0.0014927 0.10769 -0.25336 0.0018159 -0.00094966
0.001643 0.0020503 -0.00094332 0.0014299
-0.0029783 -0.0021606 -0.00019119 0.0017466 0.0018006 -0.00096742 0.16432 -0.13667
0.0016181 0.005234 -0.0024619 0.00027789
-0.00017036 0.0018025 0.0005513 0.0013556 0.0016876 0.0020515 0.0016223 0.005221
0.25187 0.039059 0.0054308 0.0012571
0.00012018 -0.00060577 0.00012515 0.00095956 -0.00093748 0.0014713 -0.0024657 0.00028
0.0054273 0.001264 0.27724 0.061796
1940000000 0.17743 -0.17205 -0.00055895 -0.001429 0.0014082 0.002227 -0.0036977 0.00058988
0.0013913 0.0011449 -0.00052604 -0.0004352
-0.00056662 -0.0014332 0.26269 0.094387 -0.0016289 0.004087 0.0011234 0.001361
0.0019039 0.00062757 0.0010636 0.00045161
0.0014065 0.0022318 -0.0016185 0.0041278 0.062356 -0.24615 0.00054567 -0.0022282
0.0024983 0.00043984 0.0006843 0.0017004
-0.0037179 0.0006215 0.0011643 0.0013619 0.00056663 -0.0022225 0.11198 -0.16714
0.00088331 0.0038129 -0.001594 0.0016691
0.0013808 0.0011276 0.0019074 0.00061775 0.0025096 0.00041608 0.00089393 0.003817
0.25468 0.00066667 0.0038977 -0.0020759
-0.00054609 -0.00042985 0.0010703 0.00044254 0.00073374 0.0016881 -0.0015713 0.0016687
0.0038979 -0.002073 0.26583 0.025644
2000000000 0.13169 -0.18665 -0.0042456 0.00091315 0.0028572 0.00165 -0.0023805 0.0038036
0.0012185 0.00027994 -0.00070834 0.00049576
-0.0042468 0.00090153 0.24857 0.058772 -0.0010459 0.0060616 0.0016317 0.00039673
0.001504 -0.0011452 0.00058607 4.0625e-05
0.0028289 0.0016916 -0.0010187 0.0060061 0.019148 -0.2326 -0.0011801 -0.0014592
0.002168 -0.0013116 0.0016249 0.0013048
-0.0022681 0.0038242 0.0016338 0.00041511 -0.0011869 -0.0014115 0.058911 -0.17708
-0.00046826 0.0035479 -0.00018247 0.0023432
0.0012389 0.00029303 0.0014677 -0.0011428 0.0021119 -0.0013132 -0.00045188 0.0035485
0.24973 -0.032662 0.00069451 -0.0031966
