!Keysight Technologies,M9804A,MY58100912,A.14.10.03
!Date: Thursday, April 27, 2023 10:28:33
!Correction: S11(C  6-Port  ) 
!S12(C  6-Port  ) 
!S13(C  6-Port  ) 
!S14(C  6-Port  ) 
!S15(C  6-Port  ) 
!S16(C  6-Port  ) 
!S21(C  6-Port  ) 
!S22(C  6-Port  ) 
!S23(C  6-Port  ) 
!S24(C  6-Port  ) 
!S25(C  6-Port  ) 
!S26(C  6-Port  ) 
!S31(C  6-Port  ) 
!S32(C  6-Port  ) 
!S33(C  6-Port  ) 
!S34(C  6-Port  ) 
!S35(C  6-Port  ) 
!S36(C  6-Port  ) 
!S41(C  6-Port  ) 
!S42(C  6-Port  ) 
!S43(C  6-Port  ) 
!S44(C  6-Port  ) 
!S45(C  6-Port  ) 
!S46(C  6-Port  ) 
!S51(C  6-Port  ) 
!S52(C  6-Port  ) 
!S53(C  6-Port  ) 
!S54(C  6-Port  ) 
!S55(C  6-Port  ) 
!S56(C  6-Port  ) 
!S61(C  6-Port  ) 
!S62(C  6-Port  ) 
!S63(C  6-Port  ) 
!S64(C  6-Port  ) 
!S65(C  6-Port  ) 
!S66(C  6-Port  ) 
!S6P File: Measurement: :
# Hz S  RI   R 50
500000000 -0.33342 -0.052057 -0.010481 -0.0011127 -0.0083857 0.013156 -0.0049346 0.012765
0.012232 0.0052322 -0.0050915 0.0082393
-0.010222 -0.0010923 -0.41651 -0.06255 0.0083072 -0.010675 0.0014655 0.012099
0.0077986 0.0026405 0.0014141 0.014346
-0.0083049 0.013176 0.0083083 -0.010716 -0.2668 0.19963 0.0065441 0.003659
-0.0013704 0.0081223 0.00045937 0.012851
-0.0043369 0.012298 0.0015925 0.012206 0.0066384 0.0038059 -0.3317 0.043933
-0.017841 -0.0042153 0.01816 0.025946
0.012212 0.0053214 0.0075399 0.0031313 -0.0012347 0.0084818 -0.017978 -0.0046082
-0.24935 -0.19178 -0.025807 0.0053905
-0.0048349 0.0084351 0.0014885 0.013851 0.0004033 0.012499 0.016978 0.024954
-0.02566 0.0062188 -0.27043 -0.11665
560000000 -0.31779 0.11332 -0.022949 -0.064021 -4.7242e-05 0.012478 0.0049624 0.011618
0.011456 0.0042785 0.0094184 0.0087429
-0.022967 -0.063899 -0.37718 0.099831 -0.041125 -0.037703 0.013449 0.0032016
-0.012779 -0.0029257 0.003668 -0.0011354
-0.00014894 0.012851 -0.041362 -0.037532 -0.18548 0.25128 -0.00056445 -0.0048541
0.018314 0.0051743 0.0082368 -0.0056856
0.0048857 0.011265 0.013502 0.0032445 -0.0004118 -0.0048493 -0.30627 0.13584
0.005025 -0.024689 0.0045473 -0.020666
0.010753 0.0041708 -0.011651 -0.0043153 0.018815 0.0052685 0.0049991 -0.024635
-0.31303 -0.010489 0.0082334 -0.04916
0.01009 0.0083809 0.0034234 -0.00014174 0.0081965 -0.0059127 0.0051277 -0.021121
0.0084303 -0.050681 -0.33195 0.027828
620000000 -0.27757 0.095115 -0.023332 0.0085503 0.0034236 0.00949 0.0086027 -0.0043293
0.012203 -0.0013568 0.00040202 -0.0019122
-0.023267 0.0086376 -0.40348 0.050106 -0.018634 0.00068068 -0.001339 -0.0018425
0.012537 -0.0059316 0.00096775 -0.0027163
0.003427 0.0098592 -0.018673 0.00072016 -0.15572 0.26032 -0.0006419 -0.0051263
-0.0033508 -0.002909 0.010022 -0.0026914
0.0084052 -0.0046614 -0.0013965 -0.0019084 -0.00046473 -0.0050119 -0.26462 0.14584
-0.039728 -0.020058 0.013766 0.025827
0.012164 -0.00086435 0.012291 -0.0062413 -0.0037182 -0.0029961 -0.039814 -0.018978
-0.22966 -0.046398 -0.042075 0.012987
0.00083935 -0.0014795 0.0010271 -0.0025353 0.0099938 -0.002628 0.014631 0.026115
-0.041009 0.011729 -0.25004 -0.0039516
680000000 -0.23845 0.18506 -0.026793 -0.014191 0.0048571 0.0055208 0.0013111 -0.0077687
-0.0022524 -0.011938 0.0046859 -0.0069484
-0.026741 -0.014165 -0.38959 0.15048 -0.03275 -0.0020647 -0.0014616 -0.0010047
-0.0016694 -0.0093759 -0.0012841 -0.0023909
0.0048188 0.0056125 -0.032805 -0.0019785 -0.10392 0.28069 -0.00061649 -0.00061988
-0.0017991 0.00038797 -0.0032269 -0.0094007
0.0013783 -0.007508 -0.0015652 -0.0011497 -0.0005346 -0.00053376 -0.21997 0.19806
-0.024108 -0.0085163 -0.0089665 -0.010553
-0.002168 -0.011601 -0.0017869 -0.0090349 -0.0016657 0.00044223 -0.023813 -0.0085835
-0.27765 0.057142 -0.0075817 -0.0078878
0.005105 -0.0073015 -0.00079936 -0.0023851 -0.0034183 -0.0094776 -0.0088045 -0.0094371
-0.00781 -0.0082486 -0.26059 0.096667
740000000 -0.19365 0.17754 -0.039598 0.026804 0.013574 -0.0049456 -0.00018975 -0.0041586
-0.004866 -0.0037208 -0.0062122 0.0035765
-0.039526 0.026831 -0.33524 0.16882 -0.036725 0.035036 -0.00024852 -0.005696
-0.01193 0.0069809 -0.00094271 -0.0058851
0.013565 -0.0049205 -0.036608 0.035195 -0.070441 0.27856 -0.001765 0.0032569
-0.0027226 -0.0054597 -0.0014235 0.0014194
-0.00020238 -0.0039964 -0.00026973 -0.0057863 -0.001864 0.0031921 -0.20356 0.20475
-0.042535 -0.0079742 0.022961 0.014855
-0.0046211 -0.0041778 -0.011944 0.0077483 -0.0029661 -0.005432 -0.042352 -0.0079105
-0.17984 0.083399 -0.042768 0.00031963
-0.0064549 0.0034676 -0.0010957 -0.0059111 -0.0015162 0.0013061 0.023104 0.015055
-0.040847 0.00073046 -0.24707 0.10425
800000000 -0.1619 0.22073 -0.022691 0.016284 0.0057405 -0.010741 -0.0045814 -0.0019704
-0.0045902 0.0020757 0.0042281 0.00054565
-0.022803 0.016262 -0.34129 0.2396 -0.0087015 0.034326 -0.0024411 0.0020929
-0.0013617 0.0029802 0.00097686 0.0055956
0.0056942 -0.010721 -0.0085533 0.034389 -0.031474 0.30243 0.00078047 0.0015001
4.052e-05 0.0034566 -0.0018707 0.0010749
-0.0045821 -0.0018433 -0.0024073 0.0021714 0.00084904 0.0015245 -0.17459 0.23253
-0.028309 0.013308 0.014304 -0.0093374
-0.004701 0.0021138 -0.0011151 0.0029735 0.00010743 0.0035399 -0.028596 0.013258
-0.2218 0.11176 -0.017818 0.019053
0.0039817 0.00031507 0.00079315 0.005026 -0.0019472 0.00086524 0.013488 -0.0098023
-0.016741 0.019944 -0.23869 0.15411
860000000 -0.12692 0.24124 -0.017884 0.030714 -0.0028753 -0.010456 -0.0015508 0.00052021
0.0044827 0.0052315 -0.0032415 -0.0031849
-0.017873 0.03066 -0.29294 0.28254 0.0075347 0.034733 0.00011618 0.0020136
0.0037475 0.00062065 0.0031259 0.00020252
-0.0028976 -0.01043 0.0076046 0.03476 0.016006 0.31102 -0.00064783 -0.0001831
0.0023151 -0.0013388 0.0017396 0.0039582
-0.0016456 0.00055991 0.00018768 0.0019889 -0.00064822 -0.00013579 -0.1376 0.24321
-0.018691 0.018667 -0.0063882 -0.0087132
0.0045544 0.0052074 0.003847 0.00083495 0.0023445 -0.0013139 -0.018391 0.018627
-0.16428 0.16195 -0.023515 0.016276
-0.0031563 -0.0031327 0.0032858 5.2253e-05 0.0019349 0.0039976 -0.0060503 -0.0093215
-0.024391 0.016539 -0.19007 0.19599
920000000 -0.10333 0.26463 0.0045724 0.038197 -0.009345 -0.0051489 -0.0019531 0.0017762
0.0015576 0.0016496 0.0025382 -0.0011624
0.0046361 0.03814 -0.26567 0.3038 0.028353 0.022869 0.0015234 0.0013667
0.0077084 -0.00069387 0.0041038 -0.002757
-0.0093437 -0.0051207 0.028445 0.022816 0.061757 0.31265 0.0019164 3.7292e-05
0.0012639 -0.00046049 0.00090343 -0.001232
-0.0019533 0.0017651 0.0015712 0.0012662 0.0018968 2.7768e-05 -0.11374 0.26011
-0.011135 0.030679 0.0032671 -0.0063603
0.0014627 0.0017678 0.0074305 -0.00044558 0.0012487 -0.00039018 -0.011005 0.030874
-0.15295 0.16858 -0.0018858 0.026163
0.002758 -0.0014169 0.0040734 -0.0026197 0.0009459 -0.0012027 0.003058 -0.006555
-0.0016002 0.026283 -0.19582 0.21132
980000000 -0.056823 0.28476 0.016993 0.030342 -0.0095642 0.0042224 0.0019903 0.0036148
0.0038745 -0.0019262 -0.0029067 -0.0021689
0.017033 0.030341 -0.21264 0.3387 0.033749 0.0054072 0.0020957 -0.00012616
0.0016336 -0.0062476 -8.2065e-05 -0.0025939
-0.0095598 0.004228 0.033774 0.0053228 0.1078 0.30697 0.00072575 -0.001182
0.00048789 -0.0020286 0.001615 -0.000157
0.0019776 0.0035526 0.0021124 -0.00019738 0.0006964 -0.0011852 -0.075011 0.27138
0.0075207 0.030534 -0.0088928 -0.0067553
0.0038817 -0.0019817 0.0015894 -0.0062539 0.00054569 -0.0020375 0.007632 0.030596
-0.11873 0.199 0.0065487 0.019579
-0.0030518 -0.0018313 -0.00012364 -0.0023375 0.00155 -0.0001975 -0.0090404 -0.0068597
0.0064682 0.019412 -0.15254 0.25345
1040000000 -0.015405 0.29401 0.033137 0.019192 -0.0017305 0.0071899 0.0027649 0.00078108
0.00041181 -0.0035337 -0.00022415 -0.0014916
0.033123 0.019194 -0.17758 0.35244 0.030289 -0.014811 0.0015933 -0.0017099
-0.0020935 -0.0028321 -0.0011933 -0.0029006
-0.0016725 0.0072057 0.030258 -0.014917 0.15385 0.29411 -0.00044081 -0.0017194
-0.0015972 -0.0010236 -0.0005747 -0.0011971
0.0027349 0.0008352 0.0016265 -0.0017269 -0.00045155 -0.0017278 -0.047188 0.28121
0.020379 0.019281 -0.0026085 0.0012044
0.00043431 -0.0034827 -0.0021548 -0.0027113 -0.0015298 -0.00099659 0.020207 0.019171
-0.085733 0.20476 0.013929 0.018125
-0.00047485 -0.0017408 -0.0010814 -0.0029519 -0.00053099 -0.0012318 -0.0024954 0.0011779
0.014389 0.018079 -0.12912 0.27442
1100000000 0.029623 0.30295 0.036744 -0.0036025 0.0028568 0.0043346 0.0024221 -0.0012457
-0.0021478 -0.0031645 -0.0040347 2.293e-05
0.036719 -0.0035836 -0.13426 0.37063 0.015956 -0.028366 1.0694e-05 -0.0018623
-0.0036971 -0.00090448 -0.0037428 -0.00056714
0.0028973 0.0043326 0.01585 -0.028458 0.20038 0.27458 -0.0019604 0.00014793
-0.0018428 0.0005024 -0.0011288 -0.00061042
0.0023744 -0.0012594 -2.9695e-05 -0.0019023 -0.0019656 0.00012763 -0.0065872 0.28629
0.025801 0.005364 -0.0024199 0.00025692
-0.0021139 -0.0031468 -0.0036619 -0.00095012 -0.0018332 0.00050855 0.025895 0.0053315
-0.064672 0.21688 0.019879 0.0078492
-0.0041836 -0.00011178 -0.0037123 -0.00059484 -0.0011404 -0.00058624 -0.0025262 9.2195e-05
0.019752 0.0080742 -0.083658 0.30284
1160000000 0.080639 0.299 0.024707 -0.020938 0.0028728 -0.00046281 -0.00014766 -0.0024692
-0.0040772 -0.00081555 -0.001139 0.0041617
0.024721 -0.020938 -0.090734 0.37546 -0.0034964 -0.029962 -0.0016843 -0.0017274
-0.0028262 0.0025921 -0.0015492 0.0017805
0.0028802 -0.00046554 -0.0036443 -0.029968 0.24388 0.24409 -0.00084749 0.0018654
-0.00072418 0.001983 -0.00099791 0.00027929
-0.00020695 -0.0024936 -0.0016753 -0.0017318 -0.00084105 0.0018722 0.033006 0.28337
0.021921 -0.011115 -0.0032203 0.0050312
-0.0040651 -0.00078925 -0.002808 0.0026519 -0.00067734 0.0020256 0.021943 -0.011057
-0.030784 0.22444 0.018742 -0.00086821
-0.00098816 0.0041409 -0.0014468 0.0020116 -0.00099152 0.00032736 -0.003221 0.0050979
0.018581 -0.0006305 -0.035956 0.30532
1220000000 0.12496 0.28923 0.011082 -0.030596 -0.0015591 -0.0009901 -4.2165e-06 -0.00087988
-0.0027031 0.0022097 0.001105 0.0019967
0.011126 -0.030564 -0.046244 0.3885 -0.017357 -0.022036 -0.0026788 0.00058255
3.9848e-06 0.0031384 -0.00082916 0.0019953
-0.0015569 -0.0009734 -0.017472 -0.021985 0.28305 0.20531 0.00076903 0.0017871
0.00061293 0.0012567 0.00015706 0.00059353
1.0608e-06 -0.00091326 -0.0026733 0.00055732 0.0007876 0.0017944 0.073547 0.27452
0.011072 -0.018211 0.0019543 0.0014863
-0.0027152 0.0022085 -1.492e-06 0.0031646 0.00060767 0.0012723 0.011144 -0.018243
-0.0063201 0.23304 0.013713 -0.013794
0.00105 0.0020542 -0.00085108 0.0020121 0.00014238 0.0005691 0.0019951 0.001394
0.013594 -0.013756 -0.004479 0.31997
1280000000 0.17531 0.26844 -0.0079583 -0.029213 -0.0020177 0.0024849 -0.00078896 -0.0020261
-0.00077836 0.003342 0.0025276 0.0012345
-0.0079132 -0.029191 0.00024122 0.37993 -0.024598 -0.0088607 -0.00092123 0.0015438
0.0017602 0.0018434 0.00063595 0.0020319
-0.0020255 0.0025014 -0.02465 -0.0087665 0.31354 0.16146 0.0016366 -1.3431e-05
0.0012708 0.00029536 0.00037036 0.00026349
-0.00080712 -0.0020363 -0.00091841 0.0015367 0.0016395 -5.5268e-06 0.11058 0.25776
0.00063432 -0.020428 -0.0001201 0.00021619
-0.00072496 0.0033193 0.001782 0.0017929 0.0013033 0.00029092 0.00057903 -0.020409
0.030535 0.23582 0.0027163 -0.015744
0.0026393 0.001231 0.0005962 0.0020537 0.00027613 0.00035302 -8.8587e-05 0.00021121
0.0026665 -0.015937 0.042685 0.32094
1340000000 0.21276 0.23544 -0.018019 -0.019354 0.00078988 0.004804 -0.0017701 -0.00090478
0.0014632 0.0026822 0.0018653 -0.0014189
-0.017987 -0.019339 0.039866 0.37188 -0.022229 0.0044661 -6.2956e-05 0.0020253
0.002024 0.00079473 0.0013027 0.00076007
0.00081657 0.0048187 -0.02223 0.0045668 0.33532 0.11435 0.0010703 -0.00095983
0.00064017 -0.00060065 0.00010671 0.0003464
-0.0017601 -0.00086438 -5.0672e-05 0.0020429 0.0010525 -0.00097614 0.14356 0.2365
-0.0093433 -0.017403 0.0007254 0.00054711
0.001459 0.0026433 0.002037 0.00078554 0.00060809 -0.00062153 -0.0093755 -0.017427
0.0609 0.23069 -0.0044923 -0.014294
0.0018862 -0.0014127 0.0013189 0.00070204 8.6947e-05 0.00028117 0.00070829 0.00063843
-0.0045086 -0.014308 0.080765 0.31532
1400000000 0.24669 0.19786 -0.024021 -0.0075212 0.0053795 0.0034263 -0.0022097 0.00056519
0.0024956 0.00098062 0.00029218 -0.0016515
-0.024006 -0.0075295 0.07751 0.35896 -0.015284 0.01294 0.0014021 0.0012569
0.0013282 -0.00081879 0.0012218 8.9813e-05
0.0053976 0.003406 -0.015238 0.013044 0.34839 0.061469 6.0256e-05 -0.0017004
0.00014484 -0.00045083 0.00043053 0.00021957
-0.0021983 0.00058294 0.0014132 0.0012221 6.2127e-05 -0.0016942 0.17277 0.20716
-0.015648 -0.010112 -0.00080911 -4.7855e-05
0.0025317 0.00095849 0.0013072 -0.00083054 0.0001196 -0.00042835 -0.015607 -0.010021
0.09435 0.22547 -0.010858 -0.0088535
0.00023163 -0.0016509 0.0012645 5.7417e-05 0.00039053 0.00025168 -0.00086084 -0.00013699
-0.010817 -0.0088176 0.12488 0.30363
1460000000 0.26982 0.15387 -0.020762 0.0050513 0.0059796 -0.0017475 -0.0015288 0.0017653
0.0022338 -0.00054806 -0.00036501 -0.00091764
-0.020758 0.0050521 0.11162 0.33693 -0.0060185 0.015976 0.0017315 0.00012937
0.00089317 -0.0013928 0.0011809 -0.00061178
0.005959 -0.0017798 -0.0059543 0.016033 0.35486 0.0078627 -0.0012353 -0.0012931
0.00019326 -0.00029947 0.00076351 -0.00025479
-0.0015541 0.0017513 0.0017394 0.00014959 -0.001264 -0.0013061 0.1988 0.17756
-0.016732 -0.0027529 -0.00077592 0.0021535
0.0022168 -0.00057764 0.00085861 -0.0014212 0.00014295 -0.00028914 -0.016735 -0.0026454
0.12372 0.21048 -0.012719 -0.0027087
-0.0004008 -0.00096391 0.0012131 -0.00061705 0.00075715 -0.00029028 -0.00079579 0.0020708
-0.012698 -0.0025499 0.1579 0.28284
1520000000 0.28227 0.11266 -0.014952 0.010746 0.0034946 -0.0044161 0.00013367 0.0025611
0.0020695 -0.0020405 -0.0011479 -7.7492e-05
-0.014936 0.010742 0.14499 0.32257 0.0019302 0.013515 0.0016649 -0.00079785
3.1517e-05 -0.001093 0.00029192 -0.0010923
0.0034746 -0.0044058 0.001999 0.013526 0.34873 -0.047634 -0.0010987 -0.00037789
0.00060105 -0.00087927 0.00012788 -0.00027937
0.00012211 0.002553 0.0016492 -0.00080504 -0.0010959 -0.00037624 0.22156 0.1392
-0.015547 0.0036313 0.0017115 0.0020838
0.0020676 -0.0020453 4.7573e-05 -0.0010945 0.00056922 -0.00087683 -0.015595 0.003693
0.15185 0.19656 -0.012199 0.0022457
-0.0011738 -7.2631e-05 0.00030087 -0.0011147 0.0001603 -0.00035506 0.0016715 0.0021273
-0.012334 0.0021335 0.19037 0.26162
1580000000 0.29215 0.066606 -0.0078664 0.013919 -0.00095423 -0.0051243 0.0014459 0.0019371
-0.00030706 -0.0022141 -0.00024532 0.00040158
-0.0078593 0.0139 0.17209 0.29797 0.0056721 0.0083153 0.00050911 -0.0015953
-0.00062025 -0.0010254 -0.00026181 -0.00084025
-0.00096552 -0.005124 0.0057248 0.0083108 0.32941 -0.10498 -0.0015841 0.00062922
-0.00038936 -0.0012222 0.00019103 -0.00052858
0.0014553 0.0019012 0.00049278 -0.0015981 -0.0015956 0.00062308 0.23482 0.099891
-0.011573 0.0085729 0.0022332 0.00066782
-0.00035516 -0.0021582 -0.00064756 -0.0010143 -0.00040814 -0.0011599 -0.011562 0.0085441
0.17578 0.17817 -0.0095797 0.0079628
-0.00012093 0.00044215 -0.00027964 -0.00080535 0.00029928 -0.00051814 0.0022525 0.0006848
-0.0095665 0.0078767 0.2217 0.23481
1640000000 0.29441 0.025771 -0.00091334 0.012504 -0.0029568 -0.0026902 0.002732 0.0010719
-0.00084671 -0.0015804 -0.00029102 0.00063973
-0.00094089 0.012487 0.20152 0.2736 0.0062799 0.0032771 -0.00068163 -0.0018061
-0.001023 -0.00036996 -0.00059372 -0.00060177
-0.002957 -0.0026776 0.0063014 0.0032434 0.30161 -0.15423 -0.00065043 0.001476
-0.0011173 -0.00092483 -0.0001965 -0.00033589
0.0027448 0.0010363 -0.00069477 -0.0018015 -0.00065497 0.0014435 0.24669 0.051484
-0.0068445 0.0096434 0.0025315 -0.00083962
-0.00084504 -0.0015727 -0.0010285 -0.00037797 -0.0010919 -0.00090399 -0.0068246 0.0097025
0.1987 0.15387 -0.0044415 0.0098285
-0.00033412 0.00067643 -0.00063659 -0.00059115 -0.00032177 -0.00035259 0.0025632 -0.00078266
-0.0045627 0.0098135 0.24679 0.2036
1700000000 0.28782 -0.019289 0.002534 0.0093554 -0.0035976 1.2469e-05 0.0031693 -0.0012584
-0.0020478 -0.00057299 0.00059657 0.00043581
0.0025292 0.0093459 0.21975 0.24262 0.0040916 0.00029765 -0.0015061 -0.00058889
-0.00085446 6.6428e-05 -0.00087596 -0.00040402
-0.0036207 2.3578e-05 0.0040838 0.00025104 0.25883 -0.19416 0.00044708 0.0016374
-0.0019704 5.3571e-06 -0.00046962 -0.0010104
0.0031736 -0.0012337 -0.0015121 -0.00057336 0.00047054 0.0016136 0.2434 0.0021218
-0.0036723 0.0098068 0.0017512 -0.0022547
-0.0020492 -0.00053617 -0.0008071 6.8525e-05 -0.0019347 3.2252e-05 -0.0037067 0.0097679
0.21587 0.13337 0.00030842 0.0099667
0.00065412 0.00052903 -0.00086584 -0.00037166 -0.00043925 -0.00092194 0.0016044 -0.002237
0.00038049 0.0099866 0.26304 0.16948
1760000000 0.27619 -0.067811 0.004619 0.0058664 -0.0024469 0.00099233 0.0013447 -0.0034436
-0.0013548 0.00077975 0.00035907 -0.00046236
0.0046118 0.0058471 0.24594 0.20334 0.0016101 -0.0016406 -0.0012017 0.00022899
-0.0010458 0.00090248 -0.00059298 0.00042656
-0.002415 0.00097009 0.0016177 -0.001674 0.21091 -0.22817 0.0011773 0.0010014
-0.0012528 0.001508 -0.0011908 -0.00058712
0.0013397 -0.0034471 -0.0012026 0.0002279 0.0011277 0.00099087 0.23463 -0.048664
-0.00054225 0.0086578 -0.00016637 -0.0026275
-0.0013361 0.00081669 -0.001035 0.00092336 -0.0012729 0.001456 -0.00052841 0.0086589
0.23042 0.098614 0.0042853 0.0071702
0.00038486 -0.00044355 -0.0005799 0.00042961 -0.0011997 -0.00061056 -8.8737e-05 -0.0026508
0.0042623 0.0072059 0.27517 0.1317
1820000000 0.2521 -0.10502 0.0044876 0.0022828 -0.00034338 0.0025469 -0.0010522 -0.0031693
-0.0010573 0.00098866 3.2304e-05 -0.00016734
0.0044731 0.0022992 0.25648 0.17372 -0.00081068 -0.00031727 -0.0012337 0.00092343
-4.2309e-05 0.001249 -0.0005017 0.00048481
-0.00029908 0.002588 -0.00080318 -0.00029728 0.15968 -0.24398 0.0016002 0.00033901
-0.0001166 0.0023046 -0.0013554 0.00031017
-0.0010568 -0.0031144 -0.0012485 0.00095412 0.0016952 0.00032839 0.20515 -0.095448
0.00072646 0.0071122 -0.0016721 -0.0016597
-0.0010618 0.0010095 -3.9724e-05 0.001248 -0.00010194 0.0023377 0.00073859 0.007136
0.24722 0.070025 0.0052268 0.0035947
1.4804e-05 -7.7991e-05 -0.00051636 0.00051339 -0.001333 0.00042142 -0.0016198 -0.0016671
0.0053332 0.003616 0.27737 0.095364
1880000000 0.2175 -0.14564 0.0021927 6.5753e-05 -0.00053712 0.0022262 -0.0028784 -0.0022277
-0.00012454 0.0017466 8.1954e-06 -0.00068369
0.0021703 4.8024e-05 0.26155 0.12736 -0.0026515 0.0016185 -0.00014087 0.0016753
0.00062242 0.0013136 0.00011501 0.00084697
-0.00050439 0.0021967 -0.002632 0.0016554 0.10794 -0.25347 0.0017911 -0.00096908
0.0015957 0.0020127 -0.0010152 0.0012681
-0.0028745 -0.0021957 -0.00016311 0.0017133 0.0017554 -0.00091262 0.16503 -0.13588
0.0013141 0.0051482 -0.0025918 0.00041676
-7.8098e-05 0.0018193 0.00062156 0.0013135 0.0015512 0.0019505 0.001312 0.0051545
0.25069 0.038386 0.0052773 0.0011552
3.3937e-05 -0.00062358 0.00011888 0.00087281 -0.0011062 0.0013524 -0.0024952 0.00036828
0.0051252 0.0012441 0.27726 0.061114
1940000000 0.17843 -0.17157 -0.000261 -0.0013944 0.0013226 0.0020666 -0.0035697 0.00044446
0.0014662 0.0010603 -0.00058572 -0.00049093
-0.00025975 -0.0013966 0.26262 0.095598 -0.0014137 0.0040411 0.0011596 0.0013327
0.0019058 0.0005602 0.00099134 0.00036764
0.001338 0.0020556 -0.0013784 0.0040537 0.062388 -0.24613 0.00050767 -0.0022105
0.0023754 0.00039234 0.00057465 0.001799
-0.003705 0.00044746 0.0011657 0.0012768 0.00046939 -0.0021658 0.11316 -0.16655
0.00070426 0.004015 -0.0016251 0.0016676
0.0014498 0.0010549 0.0019476 0.00054465 0.0023701 0.00042015 0.0007651 0.0040786
0.25358 0.00061604 0.0037891 -0.0020544
-0.00058484 -0.00043299 0.00098486 0.00037169 0.00049817 0.0017314 -0.0015456 0.0017187
0.0036728 -0.0021956 0.26587 0.024808
2000000000 0.13243 -0.187 -0.0037885 0.00064383 0.0026792 0.001515 -0.0023034 0.0037094
0.0013257 0.00036209 -0.00052626 0.00060714
-0.0038084 0.0006029 0.24908 0.059875 -0.00094516 0.0058549 0.0015693 0.0003814
0.001346 -0.0011128 0.00045487 0.00011972
0.0026936 0.0014673 -0.00090857 0.0058812 0.019088 -0.23285 -0.0012146 -0.0014326
0.0019913 -0.0011909 0.0014267 0.0015864
-0.0022499 0.0038308 0.0015607 0.0004028 -0.0012139 -0.0014654 0.060076 -0.17734
-0.00053288 0.0037258 -0.00014053 0.0025134
0.0012601 0.00035734 0.0013929 -0.0011403 0.0020788 -0.00123 -0.00046159 0.0037447
