!Keysight Technologies,M9804A,MY58100912,A.14.10.03
!Date: Thursday, April 27, 2023 10:28:33
!Correction: S11(C  6-Port  ) 
!S12(C  6-Port  ) 
!S13(C  6-Port  ) 
!S14(C  6-Port  ) 
!S15(C  6-Port  ) 
!S16(C  6-Port  ) 
!S21(C  6-Port  ) 
!S22(C  6-Port  ) 
!S23(C  6-Port  ) 
!S24(C  6-Port  ) 
!S25(C  6-Port  ) 
!S26(C  6-Port  ) 
!S31(C  6-Port  ) 
!S32(C  6-Port  ) 
!S33(C  6-Port  ) 
!S34(C  6-Port  ) 
!S35(C  6-Port  ) 
!S36(C  6-Port  ) 
!S41(C  6-Port  ) 
!S42(C  6-Port  ) 
!S43(C  6-Port  ) 
!S44(C  6-Port  ) 
!S45(C  6-Port  ) 
!S46(C  6-Port  ) 
!S51(C  6-Port  ) 
!S52(C  6-Port  ) 
!S53(C  6-Port  ) 
!S54(C  6-Port  ) 
!S55(C  6-Port  ) 
!S56(C  6-Port  ) 
!S61(C  6-Port  ) 
!S62(C  6-Port  ) 
!S63(C  6-Port  ) 
!S64(C  6-Port  ) 
!S65(C  6-Port  ) 
!S66(C  6-Port  ) 
!S6P File: Measurement: :
# Hz S  RI   R 50
500000000 -0.33471 -0.05181 -0.01009 -0.0010694 -0.0086341 0.013337 -0.0045577 0.011107
0.013434 0.006539 -0.004447 0.0063827
-0.010117 -0.0011184 -0.41615 -0.06233 0.0079336 -0.010163 0.0016522 0.011691
0.0084282 0.0027513 0.0015153 0.013308
-0.0087138 0.013294 0.0079339 -0.010277 -0.2674 0.20017 0.0066563 0.0035622
-0.0016782 0.0087397 0.00043692 0.012508
-0.0038672 0.01168 0.0018679 0.011672 0.0065869 0.003685 -0.3317 0.044092
-0.019892 -0.0057108 0.016379 0.026619
0.013061 0.0067478 0.00863 0.0030622 -0.0015145 0.008511 -0.019771 -0.0056223
-0.24924 -0.19343 -0.02726 0.0021755
-0.0034607 0.0074264 0.0018614 0.013418 0.00030456 0.012922 0.016268 0.026818
-0.02718 0.0021634 -0.27348 -0.11726
560000000 -0.31933 0.1125 -0.023964 -0.064223 -0.0006097 0.013223 0.0058379 0.010955
0.0096426 0.0052107 0.010319 0.0096283
-0.023826 -0.064542 -0.37467 0.098904 -0.041697 -0.036999 0.014056 0.0034674
-0.013438 -0.0035285 0.0041857 -0.0002117
-0.00025498 0.012919 -0.042092 -0.037061 -0.1862 0.25129 -0.00019147 -0.0048975
0.018106 0.0035941 0.0087543 -0.0049751
0.0060327 0.010488 0.014245 0.0034764 -0.00027213 -0.0050917 -0.3069 0.13599
0.0060148 -0.022894 0.0050978 -0.021826
0.010058 0.0045173 -0.013793 -0.0034264 0.017624 0.0037704 0.0058419 -0.023475
-0.31097 -0.0165 0.0090695 -0.047557
0.0099819 0.0079988 0.0042439 -0.00045948 0.0090972 -0.0052781 0.0045366 -0.022223
0.0083367 -0.047727 -0.33228 0.027699
620000000 -0.27705 0.093487 -0.023144 0.0085177 0.0041043 0.0094918 0.0080601 -0.0050058
0.013338 -0.00074288 0.00042015 -0.003522
-0.023072 0.0084684 -0.40355 0.049589 -0.018587 0.00087777 -0.0014168 -0.0016612
0.012286 -0.0065605 0.00059753 -0.0028018
0.0043422 0.00948 -0.018556 0.00077439 -0.15506 0.2608 -0.00069883 -0.0052235
-0.00368 -0.0029345 0.0092395 -0.002325
0.0085333 -0.0039916 -0.0013462 -0.0017531 -0.00043079 -0.0054031 -0.2658 0.14509
-0.038833 -0.019827 0.013209 0.027369
0.013581 -0.0018495 0.012055 -0.0065798 -0.0039121 -0.0027127 -0.038697 -0.01901
-0.23062 -0.043725 -0.04054 0.01033
0.00028161 -0.0030033 0.00040761 -0.0029203 0.0093042 -0.0026088 0.013826 0.026556
-0.041238 0.010488 -0.2506 -0.0025444
680000000 -0.23865 0.18517 -0.026707 -0.014088 0.0052822 0.0053842 0.0019601 -0.0070204
-0.0019247 -0.011575 0.0060821 -0.0068908
-0.026671 -0.014114 -0.38983 0.1502 -0.032466 -0.0020064 -0.0014383 -0.00050974
-0.0013127 -0.0094014 -0.00087636 -0.002592
0.0051428 0.0054221 -0.032564 -0.0018698 -0.10355 0.28103 -0.00060729 -0.00029574
-0.0019761 0.00047646 -0.0025629 -0.00986
0.0010509 -0.0077551 -0.001665 -0.0003392 -0.00061619 -0.00029051 -0.21959 0.19737
-0.024939 -0.0079873 -0.0082336 -0.0095889
-0.002234 -0.01175 -0.0014246 -0.0094721 -0.0019103 0.00057849 -0.02451 -0.0080356
-0.27854 0.055377 -0.0084519 -0.0086238
0.005412 -0.0064377 -0.00088258 -0.0022174 -0.0025972 -0.0093305 -0.0084722 -0.010231
-0.0083283 -0.008649 -0.26124 0.097731
740000000 -0.19393 0.17772 -0.039228 0.027267 0.013666 -0.0046704 -0.00069942 -0.004145
-0.0044661 -0.0032242 -0.0065812 0.0035959
-0.039196 0.027161 -0.33574 0.16854 -0.036986 0.035029 -4.2446e-05 -0.00592
-0.013134 0.0070891 -0.00092674 -0.0056398
0.013635 -0.0049078 -0.03688 0.035124 -0.070011 0.27798 -0.0021468 0.0035898
-0.0033312 -0.0069622 -0.0020227 0.0022206
-0.00046419 -0.0046474 -0.00037373 -0.0058543 -0.0022859 0.0034687 -0.20422 0.2043
-0.042313 -0.0063622 0.022251 0.01477
-0.0047618 -0.0028408 -0.012464 0.006929 -0.0032175 -0.0065865 -0.042195 -0.0062354
-0.18192 0.082104 -0.041452 0.0028121
-0.00616 0.002789 -0.0017741 -0.006405 -0.0021223 0.0017185 0.022174 0.015042
-0.041717 0.0029659 -0.24856 0.10378
800000000 -0.16186 0.22103 -0.02278 0.016034 0.0057845 -0.010652 -0.0045462 -0.0017661
-0.004776 0.0019005 0.0039618 5.0808e-05
-0.02281 0.015945 -0.34098 0.23917 -0.0086964 0.034264 -0.0022803 0.0021457
-0.0013923 0.0026101 0.00087108 0.0050983
0.0057165 -0.010662 -0.0086191 0.034428 -0.031555 0.30217 0.00082762 0.001517
-4.611e-05 0.0034048 -0.0021056 0.00060999
-0.0049807 -0.0016476 -0.0025234 0.002218 0.00086517 0.0016606 -0.17422 0.23211
-0.028853 0.014019 0.01411 -0.010527
-0.0050715 0.0019644 -0.0015697 0.0026987 -0.00013665 0.0034043 -0.028715 0.014081
-0.22125 0.11135 -0.017844 0.02051
0.0034965 0.0009026 0.00063231 0.0056337 -0.0019857 0.0010825 0.014308 -0.010588
-0.018226 0.020422 -0.23911 0.15265
860000000 -0.12686 0.24145 -0.017788 0.030573 -0.0029726 -0.010471 -0.0017131 0.00056981
0.0037352 0.0054737 -0.0032323 -0.0023881
-0.017798 0.030494 -0.29289 0.28249 0.0075464 0.03496 0.00017438 0.002371
0.0034752 0.0018656 0.0032543 0.00043725
-0.0030015 -0.010497 0.0075695 0.035001 0.015915 0.31103 -0.00065351 3.7978e-05
0.0020231 -0.00099267 0.0020828 0.0041862
-0.0015701 0.00046347 0.00011059 0.0020962 -0.00078132 1.9507e-05 -0.13765 0.24272
-0.018255 0.018483 -0.0055893 -0.008403
0.0041184 0.0054282 0.0036881 0.0013809 0.0021363 -0.00095971 -0.018262 0.018606
-0.16456 0.1632 -0.023237 0.017615
-0.0037328 -0.0029257 0.0028746 0.00069029 0.001977 0.0042775 -0.0060303 -0.0081534
-0.023399 0.017564 -0.18982 0.1979
920000000 -0.10324 0.26434 0.0046341 0.038192 -0.0095117 -0.0052575 -0.0017656 0.0019387
0.0020198 0.0019686 0.0024663 -0.0015436
0.0045911 0.038163 -0.26573 0.30339 0.028453 0.022932 0.001607 0.001453
0.0079732 -0.00027887 0.0042666 -0.0026632
-0.009506 -0.0052938 0.028554 0.022833 0.061426 0.31253 0.0020389 3.0717e-05
0.0014807 -0.00037999 0.00089624 -0.0013999
-0.0019015 0.0019717 0.0015544 0.0014858 0.0020356 4.8922e-05 -0.11337 0.2601
-0.010613 0.031315 0.0035242 -0.0069233
0.0019178 0.0021246 0.0079422 -0.00022295 0.0015349 -0.00032295 -0.010503 0.031235
-0.15137 0.16736 -0.0011818 0.025991
0.002667 -0.0017044 0.0038949 -0.0026573 0.0007925 -0.001382 0.0034895 -0.0069451
-0.001288 0.026229 -0.19538 0.21038
980000000 -0.05663 0.28434 0.01712 0.030039 -0.0096679 0.0040343 0.0017802 0.0033092
0.0042407 -0.0019475 -0.0032769 -0.0021378
0.017119 0.030053 -0.21278 0.33813 0.033894 0.0053258 0.0020388 -0.00026999
0.0018796 -0.0063399 -0.00042074 -0.0026141
-0.0096267 0.0040774 0.033985 0.0052098 0.10746 0.30716 0.00070087 -0.0011949
0.00057868 -0.0020537 0.0013408 -0.00026168
0.0018192 0.0031926 0.0020753 -0.0001659 0.00073243 -0.0011973 -0.075062 0.27068
0.0076506 0.030456 -0.0089563 -0.0070629
0.0040621 -0.0019982 0.0017271 -0.0062537 0.00048722 -0.0020553 0.0077702 0.030512
-0.11892 0.19786 0.0063867 0.019939
-0.0033929 -0.0021652 -0.00030917 -0.0026042 0.0013557 -0.00028539 -0.0087454 -0.0070171
0.0063105 0.019896 -0.15301 0.25455
1040000000 -0.015763 0.29376 0.033156 0.018866 -0.0017631 0.007153 0.0025239 0.00082139
0.00041083 -0.0037779 -0.0004285 -0.0020228
0.033104 0.018896 -0.17808 0.35174 0.030435 -0.015006 0.0015066 -0.0018868
-0.0019372 -0.0030264 -0.0011843 -0.0032668
-0.0017573 0.0071323 0.030412 -0.015111 0.15382 0.29432 -0.00048183 -0.0016655
-0.0016038 -0.0011097 -0.00060732 -0.0011158
0.0024735 0.00096168 0.0015828 -0.0017844 -0.00051727 -0.0016769 -0.04749 0.28085
0.020195 0.019028 -0.0026418 0.00079491
0.00031158 -0.0036173 -0.0020581 -0.0029258 -0.0015739 -0.0010866 0.020336 0.018989
-0.085856 0.20372 0.014177 0.017828
-0.00016175 -0.0018358 -0.0011629 -0.0031772 -0.00057006 -0.0011088 -0.0026181 0.00075351
0.014105 0.017694 -0.12925 0.27372
1100000000 0.029235 0.30248 0.036733 -0.0037877 0.0027826 0.0042774 0.0023709 -0.0010379
-0.0021712 -0.0029357 -0.0038969 -0.00011598
0.036716 -0.0037727 -0.13496 0.37031 0.016034 -0.028621 3.4773e-05 -0.00188
-0.0038762 -0.00089524 -0.0035529 -0.00054307
0.002825 0.0042499 0.015957 -0.028731 0.20037 0.27482 -0.0020166 0.00014423
-0.0019624 0.0005618 -0.0010675 -0.00042233
0.0024061 -0.0011208 -1.8008e-05 -0.0018917 -0.0020341 0.00016854 -0.0067414 0.28626
0.025956 0.0053524 -0.0027023 0.00025671
-0.0022912 -0.0030487 -0.0039543 -0.00084591 -0.0019051 0.00055814 0.02601 0.0052962
-0.064883 0.21638 0.019749 0.0079577
-0.0041435 8.0418e-05 -0.0036458 -0.00050186 -0.0011205 -0.00036101 -0.0026924 0.00029181
0.019808 0.007903 -0.083945 0.30272
1160000000 0.080021 0.29905 0.024674 -0.021026 0.0027832 -0.00032774 -5.5761e-05 -0.0024033
-0.0039834 -0.00081441 -0.0010206 0.0042207
0.024634 -0.020976 -0.091307 0.37543 -0.0037761 -0.030199 -0.0016314 -0.0017777
-0.0029008 0.0026971 -0.0017222 0.0021532
0.0027708 -0.00036952 -0.003881 -0.030205 0.24414 0.24437 -0.00084646 0.0018389
-0.00069491 0.00213 -0.00096205 0.00043697
-1.9952e-06 -0.0022775 -0.0015202 -0.001766 -0.00088833 0.0018544 0.032668 0.28338
0.022253 -0.011459 -0.003242 0.0049689
-0.0040568 -0.00076363 -0.0028609 0.0026327 -0.00073176 0.002153 0.022207 -0.011459
-0.03066 0.22411 0.018851 -0.0013864
-0.0010552 0.0041453 -0.001755 0.0020208 -0.000914 0.00046178 -0.0032247 0.0049909
0.018693 -0.0012592 -0.037119 0.30557
1220000000 0.12421 0.28933 0.010901 -0.030762 -0.0015831 -0.00091822 3.8507e-05 -0.00079795
-0.0028568 0.0022362 0.0011347 0.0020455
0.010916 -0.030733 -0.046711 0.3887 -0.017601 -0.022196 -0.0027102 0.00053265
7.9674e-06 0.0033525 -0.00082208 0.0021036
-0.0015954 -0.00090053 -0.017728 -0.022138 0.2833 0.20505 0.00076474 0.001884
0.0007058 0.00127 0.0003127 0.0005764
-2.8808e-05 -0.00087813 -0.0027463 0.00056733 0.00075239 0.0018667 0.073271 0.27457
0.011007 -0.018588 0.0017995 0.0015986
-0.00282 0.0021543 6.6627e-05 0.0033232 0.00069257 0.001309 0.011018 -0.018646
-0.0069137 0.23223 0.013897 -0.013924
0.0011657 0.0020104 -0.00078001 0.0020081 0.00030468 0.00060354 0.0018684 0.0015515
0.01392 -0.014019 -0.0045991 0.31977
1280000000 0.17478 0.26894 -0.0082487 -0.029354 -0.0020664 0.0026818 -0.0007337 -0.0020138
-0.00084951 0.0032473 0.0025583 0.0013287
-0.0082197 -0.02931 -7.7926e-05 0.38031 -0.02496 -0.0087938 -0.00094163 0.0015767
0.0018722 0.0018556 0.00070134 0.0021326
-0.0020708 0.0026907 -0.025031 -0.0086905 0.31342 0.16114 0.0017024 2.2283e-05
0.0013267 0.00031502 0.00030573 0.000297
-0.00076403 -0.0020105 -0.00087646 0.0015558 0.0017036 2.6872e-05 0.11036 0.25802
0.00038403 -0.020949 -7.7975e-05 0.00033366
-0.00077141 0.0033275 0.0018992 0.0017751 0.0013321 0.00030096 0.00035123 -0.020938
0.029732 0.23538 0.0027193 -0.016156
0.0026275 0.0012792 0.00072266 0.0020995 0.00033787 0.00019783 -9.2755e-05 0.00034732
0.0027091 -0.016085 0.042134 0.32114
1340000000 0.2124 0.23595 -0.018403 -0.019224 0.0008725 0.0048614 -0.0017198 -0.00090621
0.0014302 0.0028541 0.0017708 -0.0014222
-0.018372 -0.019194 0.039842 0.37213 -0.022452 0.004679 5.9569e-05 0.0020292
0.0020895 0.00074277 0.0013083 0.00083389
0.00091876 0.004885 -0.022448 0.0047703 0.33495 0.11399 0.0011718 -0.0010778
0.00067274 -0.00068952 -9.0495e-07 0.00031307
-0.0017926 -0.00091643 3.8963e-05 0.0021168 0.0012046 -0.0010805 0.14341 0.23661
-0.0098506 -0.017635 0.00060384 0.00066417
0.0013916 0.0027773 0.0021085 0.0006851 0.00067125 -0.00066519 -0.0099149 -0.017635
0.060011 0.23047 -0.0046377 -0.014706
0.0018685 -0.0014535 0.0013635 0.00075616 6.4454e-06 0.00033569 0.00060761 0.00068455
-0.0046792 -0.014659 0.080547 0.31527
1400000000 0.24645 0.19835 -0.02422 -0.0072189 0.0055493 0.0034887 -0.0022832 0.00062415
0.0025796 0.0010395 0.00032095 -0.0016055
-0.024183 -0.0072279 0.077477 0.3591 -0.015347 0.013207 0.0014072 0.0013113
0.0012875 -0.00091733 0.0012316 5.917e-05
0.0055692 0.003458 -0.015282 0.013328 0.34772 0.061449 2.3164e-06 -0.0016446
3.2359e-05 -0.00041459 0.00042479 0.00028556
-0.0022479 0.00065562 0.0014464 0.0012457 -2.4533e-05 -0.0016946 0.1727 0.20731
-0.016254 -0.009802 -0.00073577 -8.0968e-07
0.0025564 0.0010233 0.001277 -0.00094696 5.5869e-05 -0.0004109 -0.016262 -0.00977
0.093294 0.22566 -0.011259 -0.0089608
0.00029226 -0.0016379 0.0012011 5.4568e-05 0.00033692 0.0002412 -0.00079315 -1.3754e-05
-0.011195 -0.0089744 0.12444 0.30357
1460000000 0.26977 0.15455 -0.020743 0.0055524 0.006156 -0.0019005 -0.0015655 0.0017791
0.0022719 -0.00056418 -0.00047868 -0.0010341
-0.020722 0.0055349 0.1117 0.33691 -0.0059074 0.016326 0.0016885 8.452e-05
0.00085713 -0.0014608 0.0012408 -0.00061957
0.0061591 -0.0018838 -0.0058387 0.016379 0.35436 0.008332 -0.0012996 -0.0014271
0.00018978 -0.00023797 0.00075153 -0.00018308
-0.001589 0.0017563 0.0016941 8.6962e-05 -0.0013014 -0.0014027 0.19878 0.17772
-0.017131 -0.0021952 -0.00067708 0.0021685
0.0022906 -0.00062226 0.0007763 -0.0014698 0.00014863 -0.00021658 -0.017164 -0.0021376
0.12284 0.21095 -0.013136 -0.0026299
-0.0004697 -0.001036 0.0012229 -0.00063049 0.00077402 -0.00023369 -0.00068278 0.0021628
-0.013174 -0.0025429 0.15728 0.28253
1520000000 0.28238 0.11273 -0.014649 0.01106 0.0037042 -0.0045474 0.00013316 0.002626
0.0021316 -0.0020258 -0.0012153 -3.2723e-05
-0.014636 0.011044 0.14487 0.32231 0.0021977 0.013625 0.0016442 -0.00084636
-7.6705e-05 -0.0010813 0.00033107 -0.0010885
0.0036955 -0.0045762 0.002264 0.013629 0.34829 -0.046938 -0.001155 -0.00031847
0.00068681 -0.0010392 7.5535e-05 -0.00030143
0.00019077 0.0026231 0.0016108 -0.00085883 -0.0011777 -0.00031475 0.22153 0.13924
-0.015713 0.0043494 0.0017648 0.0020853
0.0021487 -0.0020572 -7.4711e-05 -0.0011142 0.00063615 -0.001004 -0.01571 0.0043913
0.1511 0.19712 -0.012572 0.0024415
-0.0011908 -8.1042e-05 0.00032412 -0.0010326 0.0001669 -0.00023081 0.0017573 0.0020427
-0.012599 0.0024141 0.18964 0.26171
1580000000 0.29219 0.066785 -0.0074373 0.014099 -0.00099096 -0.0053141 0.0015912 0.0019324
-0.00023026 -0.0022969 -0.00020453 0.00034653
-0.0074454 0.014077 0.17183 0.29782 0.0059046 0.0082813 0.00043786 -0.0016214
-0.00064682 -0.00098069 -0.00025303 -0.0008569
-0.0010285 -0.0053238 0.0059616 0.0082548 0.32944 -0.10438 -0.001694 0.00075509
-0.00048901 -0.0012931 0.00036348 -0.00056624
0.0015368 0.0019187 0.000442 -0.0016288 -0.0016652 0.00070677 0.23464 0.10006
-0.011204 0.0092091 0.0023297 0.00068465
-0.00027036 -0.0022998 -0.00062909 -0.00097607 -0.00045681 -0.0013113 -0.011214 0.0092515
0.17537 0.17893 -0.0095451 0.0081481
-0.00013004 0.00036412 -0.00025993 -0.0008624 0.00028113 -0.00063981 0.002322 0.00070675
-0.0095377 0.0082012 0.22095 0.23493
1640000000 0.29426 0.02571 -0.00049484 0.0124 -0.0030976 -0.0029414 0.00272 0.00099533
-0.00095036 -0.0016999 -0.0002758 0.00063717
-0.0004963 0.012379 0.20106 0.2734 0.0063993 0.0031575 -0.00068469 -0.0017433
-0.00097619 -0.00032097 -0.00059743 -0.00065223
-0.0030981 -0.0029094 0.0064161 0.0031073 0.30153 -0.15355 -0.00061545 0.001522
-0.0011843 -0.00089614 -0.00020185 -0.00039614
0.002752 0.0010005 -0.00072659 -0.0017259 -0.00062802 0.0015368 0.24667 0.051595
-0.0060528 0.010065 0.0026343 -0.00092987
-0.00094455 -0.0016896 -0.00098885 -0.00031914 -0.0011529 -0.00092318 -0.0060318 0.010083
0.19861 0.15459 -0.0043257 0.010243
-0.00039334 0.00064774 -0.00061664 -0.00064802 -0.00024552 -0.00036206 0.0026338 -0.00099938
-0.0043296 0.010269 0.2463 0.20404
1700000000 0.28728 -0.019006 0.0027803 0.0090713 -0.0038335 -1.8616e-05 0.0031582 -0.001279
-0.0021116 -0.00053456 0.00052656 0.00042322
0.0027691 0.0090649 0.21902 0.24265 0.004125 9.1309e-05 -0.0015426 -0.00053298
-0.00077852 3.9942e-05 -0.00088587 -0.00038902
-0.0038589 8.5628e-07 0.0041347 4.3448e-05 0.25929 -0.19367 0.00041173 0.0016054
-0.0020448 -2.8105e-05 -0.00048997 -0.0008768
0.0031243 -0.001266 -0.0015029 -0.00054472 0.00043694 0.00156 0.24315 0.0023849
-0.003072 0.0097266 0.0016537 -0.0022887
-0.0020945 -0.00049256 -0.00074435 2.6916e-05 -0.0020631 -6.2097e-05 -0.0030594 0.0097557
0.21559 0.1338 0.00048474 0.010443
0.00054132 0.00036032 -0.00099526 -0.00044864 -0.00057833 -0.00091526 0.0015846 -0.0022875
0.00047033 0.010377 0.26235 0.1699
1760000000 0.27592 -0.067269 0.0047621 0.0054383 -0.0025604 0.0010283 0.0012262 -0.0034928
-0.0013835 0.00083395 0.00030799 -0.00041747
0.0047569 0.0054325 0.24534 0.20368 0.0015597 -0.0017544 -0.0011966 0.00015623
-0.0010321 0.00083569 -0.00063911 0.00048021
-0.0025109 0.001007 0.0015578 -0.0017825 0.21141 -0.22758 0.0011914 0.00097958
-0.0012084 0.0014723 -0.0013571 -0.00060048
0.0012328 -0.0034964 -0.0011891 0.00022791 0.0012317 0.0010198 0.23457 -0.048306
-6.0432e-05 0.008155 -0.00021782 -0.0026929
-0.0013646 0.00082655 -0.001012 0.00085213 -0.001129 0.0015091 -4.1997e-05 0.0081846
0.23047 0.099004 0.0045402 0.0074134
0.00026694 -0.00051456 -0.00060474 0.00042289 -0.0014596 -0.00062967 -0.00021755 -0.0026718
0.0045501 0.0074466 0.2753 0.13231
1820000000 0.25198 -0.10444 0.0043978 0.0019579 -0.0003799 0.0027517 -0.0010516 -0.0031084
-0.00098434 0.0010677 -5.4216e-06 -6.5701e-05
0.004397 0.0019693 0.2559 0.17421 -0.00086329 -0.00044206 -0.0012639 0.00097525
-8.2876e-05 0.0012249 -0.00052897 0.00055545
-0.00034023 0.0027682 -0.00087379 -0.00041466 0.16039 -0.24377 0.0016111 0.00033551
-4.7302e-05 0.0024153 -0.0016227 0.0004209
-0.001106 -0.0031069 -0.001277 0.00096932 0.0015495 0.00042722 0.20526 -0.095084
0.00096314 0.0066181 -0.0016126 -0.0017328
-0.00098931 0.0010928 -9.082e-05 0.0012067 -8.4463e-05 0.0024338 0.0010135 0.0065877
0.24718 0.070239 0.0055256 0.003651
-1.951e-05 -5.908e-05 -0.00053232 0.000597 -0.001492 0.00041432 -0.001601 -0.0018293
0.0055192 0.0036887 0.2772 0.095737
1880000000 0.21753 -0.1448 0.0019009 -0.00014321 -0.00050054 0.002369 -0.0029532 -0.0021168
-4.4548e-05 0.0018339 9.4e-06 -0.00066139
0.0018909 -0.00014888 0.26114 0.12815 -0.0027738 0.0015972 -0.00022948 0.001753
0.00045833 0.0012897 0.00013001 0.00090771
-0.00041315 0.0023827 -0.0027669 0.0016186 0.10856 -0.25325 0.0016115 -0.00091206
0.0016202 0.0019146 -0.00092783 0.0014429
-0.0029389 -0.0021817 -0.00018771 0.0017341 0.0015603 -0.00088133 0.16544 -0.13533
0.0013096 0.004503 -0.0026142 2.5598e-05
-3.8319e-05 0.0017624 0.00050933 0.0012824 0.0015965 0.0018627 0.0013201 0.0045178
0.25083 0.038644 0.0056622 0.00086335
-6.9293e-05 -0.00056046 0.00010293 0.00084456 -0.0008911 0.0013741 -0.0026981 7.3152e-05
0.0056813 0.00084209 0.27735 0.061908
1940000000 0.17871 -0.17076 -0.0006372 -0.0015032 0.0013835 0.0021779 -0.0037477 0.00042947
0.001457 0.00098993 -0.00051911 -0.00047175
-0.0006381 -0.0014933 0.26258 0.096291 -0.0015498 0.004136 0.0010957 0.0012656
0.0018379 0.00056651 0.00098739 0.00023005
0.0013521 0.0021349 -0.0015415 0.0041437 0.062857 -0.24631 0.00060617 -0.0021939
0.0024279 0.00021815 0.0006507 0.001578
-0.0038179 0.00055832 0.0010816 0.0013345 0.00058455 -0.0021669 0.11369 -0.16636
0.000478 0.0035909 -0.0018695 0.0015052
0.0014754 0.0010207 0.0018518 0.00058281 0.0024426 0.00024093 0.00046867 0.0035772
0.25351 0.00080918 0.0040838 -0.0025678
-0.00047239 -0.00054768 0.0009948 0.00025931 0.0006129 0.0017669 -0.0018748 0.0016016
0.0040573 -0.0025389 0.2663 0.025007
2000000000 0.13305 -0.1862 -0.0041702 0.00073547 0.0027217 0.0016459 -0.0023682 0.0038839
0.00122 0.00020188 -0.00049078 0.00053362
-0.0041636 0.00072968 0.24915 0.060523 -0.0010231 0.0058881 0.0016272 0.00038875
0.0015127 -0.0010168 0.00044116 0.00017218
0.0027378 0.0015638 -0.0010258 0.0058851 0.019395 -0.23314 -0.001286 -0.0014909
0.0020271 -0.0012303 0.0016599 0.0015024
-0.0022916 0.0036715 0.0016218 0.00041281 -0.001127 -0.0014776 0.060469 -0.17759
-0.00081924 0.0034688 -8.2371e-05 0.0024943
0.0011894 0.0002876 0.0014029 -0.0010063 0.0020172 -0.0012672 -0.00070954 0.0034047
0.24834 -0.032092 0.00068264 -0.0034798
