!Keysight Technologies,M9804A,MY58100912,A.14.10.03
!Date: Thursday, April 27, 2023 10:28:33
!Correction: S11(C  6-Port  ) 
!S12(C  6-Port  ) 
!S13(C  6-Port  ) 
!S14(C  6-Port  ) 
!S15(C  6-Port  ) 
!S16(C  6-Port  ) 
!S21(C  6-Port  ) 
!S22(C  6-Port  ) 
!S23(C  6-Port  ) 
!S24(C  6-Port  ) 
!S25(C  6-Port  ) 
!S26(C  6-Port  ) 
!S31(C  6-Port  ) 
!S32(C  6-Port  ) 
!S33(C  6-Port  ) 
!S34(C  6-Port  ) 
!S35(C  6-Port  ) 
!S36(C  6-Port  ) 
!S41(C  6-Port  ) 
!S42(C  6-Port  ) 
!S43(C  6-Port  ) 
!S44(C  6-Port  ) 
!S45(C  6-Port  ) 
!S46(C  6-Port  ) 
!S51(C  6-Port  ) 
!S52(C  6-Port  ) 
!S53(C  6-Port  ) 
!S54(C  6-Port  ) 
!S55(C  6-Port  ) 
!S56(C  6-Port  ) 
!S61(C  6-Port  ) 
!S62(C  6-Port  ) 
!S63(C  6-Port  ) 
!S64(C  6-Port  ) 
!S65(C  6-Port  ) 
!S66(C  6-Port  ) 
!S6P File: Measurement: :
# Hz S  RI   R 50
500000000 -0.33438 -0.052498 -0.0099702 -0.0010099 -0.0080789 0.013226 -0.0044901 0.012294
0.012355 0.0049695 -0.0048754 0.008562
-0.0099939 -0.00098716 -0.41642 -0.062922 0.0081753 -0.010665 0.0017324 0.012478
0.0075602 0.0023937 0.0017048 0.013866
-0.0080031 0.013216 0.0081667 -0.010701 -0.26675 0.19979 0.0068895 0.0036009
-0.0016177 0.0084015 0.000571 0.012319
-0.0044217 0.012375 0.0018287 0.012554 0.0068795 0.0036198 -0.3304 0.043855
-0.019215 -0.0047569 0.018404 0.025837
0.012352 0.0048713 0.0075425 0.0023795 -0.0015737 0.0083927 -0.019255 -0.0046654
-0.24832 -0.19182 -0.027061 0.0046744
-0.0048043 0.0085411 0.001827 0.013853 0.00054078 0.012294 0.018287 0.025864
-0.026985 0.0046695 -0.27124 -0.11701
560000000 -0.31803 0.11409 -0.022756 -0.064872 0.00024936 0.013181 0.0047808 0.011357
0.011294 0.0048334 0.010014 0.0089048
-0.022678 -0.064827 -0.37582 0.099645 -0.041699 -0.037259 0.013255 0.0026902
-0.014236 -0.0040032 0.0039559 -0.00087942
0.00028376 0.013203 -0.041814 -0.037249 -0.18589 0.25079 -0.00014386 -0.0050853
0.018451 0.0055818 0.0079775 -0.0060652
0.0048205 0.011336 0.013191 0.002748 -0.00014553 -0.0050793 -0.30607 0.13627
0.0057055 -0.024916 0.0045844 -0.020942
0.011393 0.0050476 -0.014299 -0.0040657 0.018477 0.0055477 0.0056434 -0.024914
-0.3115 -0.010806 0.0087188 -0.049798
0.0099611 0.0088012 0.0039661 -0.00086896 0.0079875 -0.006027 0.0045953 -0.020908
0.0087406 -0.049807 -0.33114 0.027959
620000000 -0.27818 0.094513 -0.023237 0.0084414 0.0034097 0.0095103 0.0087213 -0.0045941
0.011636 -0.0015929 0.0016299 -0.0014504
-0.023196 0.0084152 -0.40341 0.050044 -0.018597 0.00063511 -0.0013885 -0.0021036
0.012231 -0.0060475 0.0014881 -0.0029646
0.0035302 0.0095047 -0.018629 0.00067918 -0.15566 0.26043 -0.00045015 -0.005022
-0.0036126 -0.002877 0.0096791 -0.0025715
0.0087482 -0.0047094 -0.0014393 -0.0020742 -0.00045261 -0.0050278 -0.26559 0.14608
-0.038983 -0.020259 0.012366 0.026606
0.011596 -0.0015432 0.012233 -0.0061726 -0.0036205 -0.0029056 -0.039036 -0.020176
-0.23093 -0.045504 -0.039892 0.011438
0.0017593 -0.0015802 0.0014824 -0.0030117 0.0097547 -0.002584 0.012395 0.026591
-0.039851 0.011256 -0.25237 -0.005033
680000000 -0.23883 0.18473 -0.026907 -0.014314 0.0048553 0.0053424 0.0016015 -0.0073148
-0.0022244 -0.011658 0.0047642 -0.0070022
-0.026852 -0.0143 -0.38972 0.15021 -0.032724 -0.0021234 -0.0015422 -0.00075912
-0.0018289 -0.0094804 -0.0012375 -0.0018881
0.0048631 0.0053447 -0.032753 -0.0020454 -0.10399 0.28064 -0.00074291 -0.00042857
-0.0018728 0.00046935 -0.0033119 -0.0092462
0.0015867 -0.007388 -0.0015366 -0.00075286 -0.0007426 -0.00043803 -0.22089 0.19807
-0.023981 -0.0079616 -0.0089952 -0.011103
-0.0022486 -0.011702 -0.001899 -0.0095244 -0.0018682 0.00046574 -0.023961 -0.0079454
-0.27857 0.056571 -0.0080042 -0.0079255
0.0048572 -0.0069855 -0.001252 -0.001934 -0.0032838 -0.0092633 -0.0089616 -0.011078
-0.0079658 -0.0079476 -0.2599 0.096857
740000000 -0.19319 0.17759 -0.039681 0.026961 0.013598 -0.005031 -0.00019419 -0.0039861
-0.0049452 -0.0033852 -0.0062618 0.0033482
-0.039654 0.026899 -0.33582 0.16945 -0.036744 0.034685 -0.00036866 -0.0056656
-0.011784 0.0071472 -0.0015201 -0.0057272
0.01358 -0.0050544 -0.036676 0.03484 -0.070394 0.27814 -0.0017105 0.0034343
-0.0031376 -0.0058877 -0.0013938 0.001608
-0.00010054 -0.0040457 -0.00041759 -0.0056567 -0.0017343 0.0034297 -0.20351 0.20453
-0.042775 -0.0075669 0.023066 0.014799
-0.0049564 -0.0033881 -0.01187 0.0072022 -0.003153 -0.0059112 -0.042821 -0.0075052
-0.18013 0.08192 -0.041833 0.00059085
-0.0062878 0.0033943 -0.0014613 -0.0057799 -0.0013696 0.0016689 0.02308 0.01481
-0.04186 0.00043091 -0.24808 0.10439
800000000 -0.16162 0.221 -0.022677 0.016506 0.0058504 -0.010568 -0.0044652 -0.001796
-0.0045431 0.0023147 0.0042671 0.00033583
-0.022687 0.016494 -0.3413 0.23978 -0.0086332 0.034394 -0.0022771 0.0022159
-0.0012324 0.0030684 0.00097962 0.0054731
0.0058044 -0.010572 -0.0085295 0.03445 -0.031468 0.30245 0.00095219 0.0015023
1.865e-05 0.0035166 -0.0016609 0.00099407
-0.0044873 -0.0017886 -0.0022733 0.002222 0.00095688 0.0015116 -0.17417 0.23245
-0.028679 0.013357 0.014325 -0.0098148
-0.0045352 0.0023615 -0.0012094 0.0030655 1.8844e-05 0.0035277 -0.028686 0.013397
-0.22118 0.11184 -0.017415 0.019828
0.0042506 0.00037523 0.0010608 0.0054689 -0.0016453 0.0010171 0.014313 -0.009843
-0.017429 0.019744 -0.23848 0.15351
860000000 -0.12718 0.24125 -0.017999 0.030524 -0.0029071 -0.010451 -0.0017214 0.00059318
0.0041365 0.005288 -0.0029693 -0.0031406
-0.018005 0.030504 -0.29299 0.28238 0.007533 0.034731 0.00019293 0.0019924
0.0035335 0.00074306 0.0035663 0.00049368
-0.0029459 -0.010448 0.0076585 0.034737 0.015969 0.31101 -0.00059464 -0.000113
0.0022542 -0.0014848 0.0018164 0.0040829
-0.0017226 0.00062288 0.00018742 0.0019928 -0.0005951 -0.00011596 -0.13751 0.24322
-0.018773 0.018358 -0.0059487 -0.0088981
0.0041344 0.005256 0.0035628 0.00069298 0.0022531 -0.0014911 -0.018745 0.018428
-0.16474 0.16247 -0.024256 0.016159
-0.0030461 -0.0031292 0.0035166 0.00051763 0.0017882 0.0040983 -0.0059921 -0.0089389
-0.024221 0.016197 -0.1893 0.19679
920000000 -0.1035 0.26461 0.004566 0.038239 -0.0094067 -0.0051146 -0.0018784 0.0017868
0.0014502 0.0018677 0.002762 -0.0011215
0.0045586 0.038215 -0.26583 0.30385 0.028313 0.022874 0.0014749 0.0012706
0.0075444 -0.00059541 0.0040907 -0.0025154
-0.0094183 -0.0050999 0.028427 0.022813 0.061684 0.31258 0.0019121 6.2113e-05
0.0010671 -0.00043933 0.00095071 -0.0010951
-0.001884 0.0017843 0.001477 0.0012875 0.0019037 5.5529e-05 -0.11353 0.26007
-0.010861 0.030817 0.0031738 -0.0065822
0.001451 0.0018841 0.0075259 -0.00068497 0.0010693 -0.00043626 -0.010798 0.030853
-0.15332 0.16908 -0.0015763 0.026347
0.0027952 -0.0011877 0.0040669 -0.0025492 0.00092697 -0.0011037 0.0031672 -0.0066231
-0.0016327 0.026408 -0.19608 0.21108
980000000 -0.056965 0.28469 0.01692 0.030325 -0.0095297 0.0042177 0.0019019 0.0035014
0.0039913 -0.0019412 -0.0029985 -0.0020276
0.016895 0.030321 -0.21279 0.33852 0.03376 0.0053743 0.0020807 -0.00026534
0.0017764 -0.0062221 -0.00016959 -0.0025659
-0.0095203 0.0042426 0.033811 0.0052899 0.10776 0.30695 0.00073552 -0.0011552
0.00062273 -0.0020447 0.0016183 -0.00016101
0.0019031 0.0034869 0.0020686 -0.00026924 0.00073217 -0.0011532 -0.075082 0.27129
0.0073992 0.030592 -0.0088755 -0.0068333
0.0039481 -0.0019392 0.0017372 -0.0062756 0.00062772 -0.0020432 0.0074633 0.030597
-0.11876 0.19831 0.0064955 0.019521
-0.0029626 -0.0020335 -0.00016659 -0.0025631 0.0016052 -0.00017422 -0.0088797 -0.0068117
0.0065018 0.019518 -0.15256 0.25341
1040000000 -0.015469 0.29403 0.033133 0.019197 -0.0016932 0.0072286 0.0028266 0.00078082
0.00038908 -0.0034968 -0.00024295 -0.0015621
0.033104 0.019208 -0.17772 0.35241 0.030236 -0.014823 0.0016451 -0.0017475
-0.0021247 -0.0026414 -0.00097721 -0.0030184
-0.0016794 0.0072222 0.030232 -0.014929 0.1538 0.29408 -0.00045908 -0.0016874
-0.0015754 -0.00099466 -0.00052129 -0.0012017
0.0028299 0.00076974 0.0016578 -0.0017382 -0.00046199 -0.0016936 -0.047125 0.28121
0.020224 0.019379 -0.0024978 0.0012185
0.00036888 -0.0034926 -0.0021458 -0.0026558 -0.0015732 -0.00098359 0.020265 0.019353
-0.085341 0.20461 0.014077 0.017962
-0.00020162 -0.0015774 -0.0010121 -0.0029781 -0.00053322 -0.0012125 -0.0024855 0.0012342
0.014061 0.017981 -0.12932 0.27434
1100000000 0.029461 0.30287 0.036728 -0.00362 0.0028877 0.0042987 0.0023845 -0.0012655
-0.0021754 -0.0030915 -0.004069 -1.2238e-05
0.036708 -0.0035988 -0.13438 0.37054 0.015991 -0.028373 1.7242e-06 -0.0018951
-0.0037152 -0.00093172 -0.0036629 -0.00058918
0.0029061 0.0042926 0.015909 -0.028462 0.20028 0.27459 -0.00195 0.00015213
-0.0018174 0.00052668 -0.0011123 -0.00060997
0.0023863 -0.0012664 -8.6005e-06 -0.0018909 -0.0019515 0.00015004 -0.0065466 0.28621
0.025775 0.0053167 -0.0023815 0.00020547
-0.0021819 -0.0030814 -0.0037178 -0.00092109 -0.001811 0.00053517 0.025792 0.005275
-0.064515 0.21697 0.019988 0.0078564
-0.0040705 -1.5185e-05 -0.0036744 -0.00053555 -0.0011079 -0.00060943 -0.0023845 0.00021356
0.019931 0.0078398 -0.083448 0.30272
1160000000 0.080577 0.29906 0.024691 -0.020871 0.002883 -0.00042801 -0.00012309 -0.0024009
-0.0040642 -0.00080789 -0.0011459 0.0041721
0.024707 -0.020833 -0.090761 0.37537 -0.0035226 -0.029998 -0.0017153 -0.0017458
-0.0027455 0.0025774 -0.0014834 0.0018728
0.0028933 -0.00044754 -0.0036473 -0.030007 0.24379 0.24417 -0.00087454 0.0018857
-0.00069458 0.0019738 -0.0010289 0.00021936
-0.00011726 -0.0024251 -0.0017119 -0.0017196 -0.00086699 0.001885 0.033023 0.28342
0.021934 -0.011027 -0.003278 0.0049837
-0.0040971 -0.00078704 -0.0027393 0.0025848 -0.00069233 0.0019851 0.021941 -0.011059
-0.030672 0.22453 0.018596 -0.00090714
-0.0011253 0.0042008 -0.0014719 0.0018782 -0.0010367 0.00022704 -0.0032666 0.0049928
0.01861 -0.00090603 -0.036068 0.3055
1220000000 0.12485 0.28923 0.011106 -0.030612 -0.0015294 -0.00096991 -7.7458e-05 -0.00085342
-0.0026748 0.0022222 0.0010113 0.0019167
0.011116 -0.03058 -0.046281 0.38847 -0.017331 -0.022077 -0.0026828 0.0005152
3.3921e-05 0.0031985 -0.0008692 0.0019441
-0.0015477 -0.00097402 -0.01745 -0.022022 0.28296 0.20534 0.00078169 0.0017741
0.0005876 0.0012337 0.00013641 0.00055478
-7.2645e-05 -0.00086047 -0.0026898 0.00053315 0.00077817 0.0017785 0.073485 0.27446
0.011067 -0.018193 0.0020574 0.0015101
-0.0026589 0.0022359 3.3656e-05 0.003196 0.00059439 0.0012375 0.011038 -0.018204
-0.006505 0.23318 0.013743 -0.013598
0.0010139 0.0019096 -0.00085597 0.001952 0.00013482 0.00055844 0.0020777 0.0014924
0.013736 -0.013595 -0.0042382 0.31992
1280000000 0.17519 0.26852 -0.0079541 -0.029245 -0.0019889 0.002476 -0.00080877 -0.0020504
-0.00072374 0.0032661 0.0025789 0.0013391
-0.0079352 -0.029215 0.00015055 0.37989 -0.024602 -0.0088647 -0.00091376 0.0015454
0.0018118 0.0017802 0.00060368 0.0020521
-0.0019798 0.0024917 -0.024675 -0.0087657 0.31348 0.16155 0.0016581 -2.6987e-05
0.00127 0.00032402 0.00030343 0.00030782
-0.00080995 -0.0020374 -0.00091521 0.0015513 0.0016556 -1.6096e-05 0.11047 0.25777
0.00061122 -0.020416 -0.00020183 0.00029088
-0.00069293 0.003262 0.0018124 0.0017686 0.0012602 0.00032795 0.00056805 -0.020427
0.030651 0.23578 0.0026817 -0.01594
0.0025882 0.0013377 0.00061002 0.0020515 0.00029915 0.00028425 -0.00020143 0.00030084
0.002691 -0.015942 0.042218 0.32101
1340000000 0.21268 0.23547 -0.018007 -0.019391 0.00081593 0.0047469 -0.0017276 -0.00085137
0.0014619 0.0026322 0.0018321 -0.0014257
-0.017973 -0.019393 0.039823 0.37185 -0.022209 0.0044545 -4.3745e-05 0.0020584
0.0019954 0.00079047 0.0012797 0.00073786
0.00083676 0.0047467 -0.022209 0.0045657 0.33528 0.11439 0.0010905 -0.0009573
0.00060545 -0.00061774 7.2301e-05 0.0002698
-0.0017411 -0.00084031 -3.4599e-05 0.0020519 0.0010893 -0.00094939 0.14343 0.2365
-0.0092898 -0.017402 0.0008188 0.00059936
0.0014636 0.0026333 0.0020132 0.00077125 0.00060753 -0.00062186 -0.009331 -0.017394
0.060811 0.23081 -0.0043206 -0.014257
0.0018459 -0.0014471 0.0012872 0.00072421 7.8193e-05 0.0002784 0.00083745 0.00060195
-0.0043208 -0.014279 0.080752 0.31524
1400000000 0.24665 0.19797 -0.024046 -0.0075217 0.0053718 0.00345 -0.0022146 0.00061252
0.0025268 0.00098137 0.00036003 -0.001664
-0.024011 -0.0075337 0.077402 0.35896 -0.01531 0.012956 0.0013927 0.0012687
0.0013098 -0.00082744 0.0012383 3.6448e-05
0.0053831 0.0034286 -0.015267 0.013052 0.34831 0.061584 1.1947e-05 -0.0016331
0.00014162 -0.00043119 0.00039423 0.00015605
-0.0022142 0.00059567 0.0014022 0.0012566 1.5664e-05 -0.0016347 0.1727 0.20725
-0.015639 -0.010073 -0.00090427 -4.8689e-05
0.0025288 0.00095565 0.0013013 -0.0008384 0.00014034 -0.00043462 -0.015663 -0.010037
0.094271 0.22555 -0.010869 -0.0088531
0.00035014 -0.0016492 0.0012484 4.0069e-05 0.00040809 0.00016818 -0.0009157 -4.6926e-05
-0.010857 -0.0088571 0.12463 0.30362
1460000000 0.2697 0.15395 -0.020782 0.0050407 0.00596 -0.0018084 -0.001551 0.0017278
0.002255 -0.00059575 -0.00036228 -0.00095867
-0.020771 0.0050187 0.11158 0.3369 -0.0060407 0.016016 0.0017083 0.00011336
0.00088189 -0.001434 0.0012164 -0.00062774
0.0059619 -0.0018369 -0.0059653 0.016053 0.35485 0.0079916 -0.0012485 -0.0013184
0.00012318 -0.00029691 0.00075218 -0.00017744
-0.0015456 0.0017274 0.0017137 0.00010295 -0.0012434 -0.0013221 0.19876 0.1776
-0.016692 -0.0027038 -0.00083051 0.0021524
0.0022397 -0.00062216 0.00086383 -0.0014452 0.00012009 -0.0003039 -0.016702 -0.0026716
0.12377 0.21054 -0.012775 -0.002658
-0.00034195 -0.0009506 0.0012192 -0.00064947 0.00076002 -0.00017677 -0.00081143 0.0021633
-0.012762 -0.0026754 0.15773 0.28262
1520000000 0.2822 0.11269 -0.014955 0.010742 0.0035202 -0.0043861 0.00013524 0.0025543
0.0021288 -0.0020485 -0.0012198 -9.3787e-05
-0.014948 0.010725 0.14492 0.3226 0.0019029 0.013517 0.0016645 -0.00078364
6.4037e-05 -0.0011159 0.00026655 -0.0010899
0.0034928 -0.0044069 0.0019811 0.013522 0.3487 -0.047535 -0.0011182 -0.00035159
0.00059392 -0.00091955 9.3721e-05 -0.00031983
0.00014577 0.0025561 0.0016658 -0.00079138 -0.0011233 -0.00035146 0.2215 0.13927
-0.015586 0.0036108 0.0016245 0.0020229
0.0021159 -0.002057 4.4774e-05 -0.0011198 0.00058416 -0.00092001 -0.015581 0.0036456
0.15176 0.19664 -0.012259 0.0021301
-0.0012205 -8.0078e-05 0.00026467 -0.0010934 9.5046e-05 -0.00033164 0.0016262 0.0020225
-0.012259 0.0021219 0.19014 0.26173
1580000000 0.29208 0.066686 -0.0078827 0.013931 -0.00097094 -0.0051114 0.0014494 0.001923
-0.00034023 -0.0021984 -0.00019982 0.00040704
-0.0078824 0.013906 0.17202 0.29801 0.0056945 0.0083452 0.00050543 -0.0016103
-0.00062388 -0.0010217 -0.00026648 -0.0008224
-0.0009941 -0.0051069 0.0057365 0.0083152 0.32934 -0.10482 -0.0016224 0.00062669
-0.00038535 -0.0011797 0.00028582 -0.00046637
0.0014539 0.001924 0.00049451 -0.001609 -0.0016142 0.00062479 0.23483 0.099871
-0.011541 0.008551 0.002259 0.00069776
-0.00036288 -0.0021924 -0.0006315 -0.0010098 -0.00040082 -0.0011777 -0.011523 0.0085744
0.17576 0.17822 -0.0094887 0.0078969
-0.00021446 0.0004155 -0.00026453 -0.00081343 0.00029207 -0.00044894 0.0022729 0.00067881
-0.0094927 0.007896 0.22153 0.23472
1640000000 0.29444 0.025866 -0.0009399 0.012516 -0.0029624 -0.002693 0.0027195 0.0010748
-0.0008539 -0.0015897 -0.0003079 0.00063678
-0.00094954 0.012518 0.20144 0.27365 0.006264 0.0032945 -0.00068224 -0.0017942
-0.001019 -0.00037636 -0.00060902 -0.00061243
-0.0029733 -0.0026843 0.006291 0.0032679 0.30159 -0.15411 -0.00071867 0.0014704
-0.0010776 -0.00095123 -0.00021252 -0.00033342
0.0027389 0.0010481 -0.0006853 -0.0017966 -0.00071574 0.0014718 0.24668 0.051577
-0.006871 0.0096965 0.0025016 -0.00081358
-0.0008674 -0.0015835 -0.0010166 -0.00037045 -0.0010873 -0.00095114 -0.0068519 0.009708
0.19858 0.15395 -0.0045236 0.0098503
-0.00029639 0.00062945 -0.00062208 -0.00060649 -0.00022432 -0.00033416 0.0025165 -0.00080142
-0.0045329 0.009865 0.24682 0.20375
1700000000 0.28777 -0.019243 0.0025189 0.0093461 -0.0036418 -1.2899e-05 0.0031803 -0.0012774
-0.002042 -0.00059592 0.00063193 0.00052556
0.0025079 0.0093352 0.21967 0.24264 0.004079 0.00025199 -0.0015223 -0.00060081
-0.00081907 6.4217e-05 -0.0008738 -0.00036972
-0.0036418 7.5605e-06 0.00408 0.00022478 0.25884 -0.19426 0.00048585 0.0016115
-0.0019805 2.6618e-05 -0.00047989 -0.0009581
0.0031682 -0.0012937 -0.0015287 -0.00059694 0.0004869 0.0016132 0.24342 0.0021497
-0.0036771 0.0097413 0.001631 -0.0022875
-0.0020516 -0.00057303 -0.00083023 6.2538e-05 -0.0019852 2.6819e-05 -0.0036604 0.0097477
0.21592 0.13336 0.00028104 0.0099312
0.00064671 0.00052814 -0.0008741 -0.00035674 -0.00047516 -0.00095663 0.0016206 -0.0022991
0.00029213 0.0099487 0.26292 0.16949
1760000000 0.27616 -0.067761 0.0046152 0.005865 -0.0024471 0.00101 0.0013373 -0.0034206
-0.0014048 0.00078263 0.00036684 -0.00047961
0.0046126 0.0058663 0.24587 0.20336 0.0016563 -0.0016239 -0.0012241 0.00022641
-0.0010612 0.00089561 -0.0005915 0.00041718
-0.002442 0.001028 0.0016325 -0.0016471 0.21091 -0.22796 0.0011386 0.0010121
-0.0012591 0.0014593 -0.0011667 -0.00050949
0.001314 -0.0034335 -0.0012132 0.00022833 0.0011404 0.0010109 0.23461 -0.048603
-0.00058781 0.0086718 3.6283e-05 -0.0026702
-0.0013874 0.00080156 -0.0010483 0.00091509 -0.0012621 0.0014566 -0.00057492 0.0086853
0.23032 0.098766 0.0043844 0.0072427
0.00037334 -0.00049464 -0.00058835 0.00042816 -0.0011626 -0.00050658 2.499e-05 -0.0026703
0.0043749 0.0072271 0.27528 0.13173
1820000000 0.25208 -0.10491 0.0044996 0.0023124 -0.00028702 0.0025768 -0.0010347 -0.003222
-0.00099426 0.00096577 6.0213e-05 -0.00012865
0.0044854 0.0023132 0.25643 0.17379 -0.00081879 -0.00026722 -0.0012244 0.0009331
-2.9527e-05 0.0012505 -0.00054149 0.00051565
-0.00028288 0.0025664 -0.00082311 -0.00026518 0.15979 -0.24395 0.0016553 0.00039239
-0.00012178 0.0023092 -0.0013868 0.00032267
-0.0010518 -0.0032133 -0.0012192 0.00093653 0.0016615 0.00039728 0.20512 -0.095514
0.00068225 0.0070309 -0.0017415 -0.0016635
-0.00099356 0.00097493 -1.7233e-05 0.0012545 -0.00012422 0.0023257 0.000693 0.0070349
0.24715 0.069908 0.0051586 0.003566
5.5716e-05 -0.00012523 -0.00053722 0.00050967 -0.0013936 0.00031937 -0.0017625 -0.0016404
0.0051455 0.0035753 0.27731 0.095286
1880000000 0.21747 -0.14559 0.0021756 7.4355e-05 -0.00047231 0.002217 -0.0028715 -0.0022255
-0.000143 0.0018737 -6.493e-06 -0.00065602
0.0021616 7.9459e-05 0.2615 0.12741 -0.0026252 0.0016236 -0.0001317 0.0017052
0.0005812 0.0013342 0.00012881 0.00086915
-0.00046079 0.0022289 -0.0026227 0.0016412 0.10801 -0.25325 0.0017485 -0.00098323
0.0015596 0.0019888 -0.0010956 0.0013455
-0.0029095 -0.0022004 -0.00013555 0.0017006 0.0017469 -0.00097825 0.16518 -0.13591
0.0014446 0.0051051 -0.0024918 0.00032668
-0.00014239 0.0018576 0.00059532 0.0013303 0.0015704 0.0019812 0.0014567 0.0050941
0.25079 0.038546 0.0052792 0.0012365
-1.8537e-05 -0.00066281 0.00014917 0.00086765 -0.0010866 0.0013305 -0.0024927 0.00029082
0.0052597 0.0012247 0.27722 0.061047
1940000000 0.17846 -0.17145 -0.00023235 -0.0013551 0.0013321 0.0020992 -0.0037041 0.00048354
0.0014405 0.0010547 -0.00055224 -0.00038698
-0.00023029 -0.0013628 0.26259 0.095668 -0.0013871 0.0040623 0.0011293 0.0012926
0.0019109 0.00055588 0.0009686 0.00037896
0.0013602 0.0020914 -0.0013699 0.0040733 0.062454 -0.24612 0.00051576 -0.0022023
0.0023647 0.00035325 0.00051836 0.0017477
-0.003712 0.0004993 0.0011509 0.0012765 0.00051943 -0.0021955 0.11327 -0.16638
0.00061697 0.0041114 -0.0017684 0.0016438
0.0014456 0.0010334 0.0019224 0.00053794 0.0023597 0.00035821 0.00063015 0.0041025
0.2534 0.00067217 0.0037274 -0.0020867
-0.00056624 -0.00037993 0.00097287 0.00036636 0.00054602 0.0017666 -0.0017823 0.0016881
0.0037123 -0.0020779 0.26596 0.025037
2000000000 0.13261 -0.18684 -0.0037404 0.00067799 0.0026385 0.0015323 -0.0022986 0.003824
0.0012168 0.00037117 -0.00056533 0.00070431
-0.0037399 0.00068051 0.24904 0.05994 -0.00095955 0.0058276 0.001564 0.00042339
0.0013434 -0.0011583 0.00038145 0.00018281
0.0026455 0.0015092 -0.00092568 0.0058344 0.019301 -0.23287 -0.0012283 -0.0013991
0.0019731 -0.0012216 0.0013568 0.0017025
-0.0022696 0.0038422 0.0015674 0.00041939 -0.0012303 -0.0013905 0.059976 -0.17727
-0.00052329 0.0036979 -2.7507e-05 0.0025656
0.0012218 0.00036581 0.0013359 -0.0011693 0.0019722 -0.0012101 -0.00051231 0.0037114
