!Keysight Technologies,M9804A,MY58100912,A.14.10.03
!Date: Thursday, April 27, 2023 10:28:33
!Correction: S11(C  6-Port  ) 
!S12(C  6-Port  ) 
!S13(C  6-Port  ) 
!S14(C  6-Port  ) 
!S15(C  6-Port  ) 
!S16(C  6-Port  ) 
!S21(C  6-Port  ) 
!S22(C  6-Port  ) 
!S23(C  6-Port  ) 
!S24(C  6-Port  ) 
!S25(C  6-Port  ) 
!S26(C  6-Port  ) 
!S31(C  6-Port  ) 
!S32(C  6-Port  ) 
!S33(C  6-Port  ) 
!S34(C  6-Port  ) 
!S35(C  6-Port  ) 
!S36(C  6-Port  ) 
!S41(C  6-Port  ) 
!S42(C  6-Port  ) 
!S43(C  6-Port  ) 
!S44(C  6-Port  ) 
!S45(C  6-Port  ) 
!S46(C  6-Port  ) 
!S51(C  6-Port  ) 
!S52(C  6-Port  ) 
!S53(C  6-Port  ) 
!S54(C  6-Port  ) 
!S55(C  6-Port  ) 
!S56(C  6-Port  ) 
!S61(C  6-Port  ) 
!S62(C  6-Port  ) 
!S63(C  6-Port  ) 
!S64(C  6-Port  ) 
!S65(C  6-Port  ) 
!S66(C  6-Port  ) 
!S6P File: Measurement: :
# Hz S  RI   R 50
500000000 -0.33405 -0.051922 -0.010593 -0.0011654 -0.0081292 0.013272 -0.0043613 0.012451
0.010903 0.0057008 -0.0048049 0.0092993
-0.010576 -0.001166 -0.41698 -0.061964 0.0078382 -0.010902 0.0019936 0.012129
0.0074094 0.002537 0.0022563 0.013835
-0.0080078 0.01316 0.0078127 -0.010794 -0.26685 0.19999 0.0072913 0.0033729
-0.0018419 0.0079007 0.0011654 0.011954
-0.0047045 0.012582 0.0018356 0.012124 0.0072464 0.003322 -0.33035 0.044677
-0.018722 -0.0043938 0.018188 0.025584
0.011267 0.0057116 0.0072373 0.0031148 -0.001899 0.0081042 -0.018995 -0.0044938
-0.2498 -0.19144 -0.026305 0.0059123
-0.0055588 0.0093391 0.0018828 0.014137 0.00097387 0.011851 0.018252 0.025652
-0.025987 0.0055206 -0.27107 -0.11636
560000000 -0.31704 0.11546 -0.022814 -0.064702 0.00075384 0.013457 0.0055006 0.01066
0.012223 0.0049301 0.010669 0.0076063
-0.022735 -0.06474 -0.37481 0.098363 -0.041385 -0.037505 0.01365 0.0027246
-0.012795 -0.0032908 0.0044676 -0.0023335
0.00058629 0.013389 -0.041402 -0.037279 -0.1857 0.25138 -0.00023845 -0.0048614
0.018363 0.0046658 0.008006 -0.0052333
0.0054497 0.010652 0.013846 0.0026235 -0.00040012 -0.0047423 -0.30695 0.1354
0.0051955 -0.024827 0.0046427 -0.021046
0.012073 0.0050104 -0.012974 -0.0037482 0.018677 0.0050135 0.0051739 -0.024645
-0.31293 -0.012155 0.010595 -0.047358
0.01055 0.0074772 0.0046946 -0.0021192 0.0078135 -0.0052155 0.0047782 -0.020969
0.010859 -0.047243 -0.3319 0.029003
620000000 -0.27717 0.094671 -0.02259 0.0084124 0.0039018 0.0097979 0.0070697 -0.0041095
0.014004 -0.00090904 0.00028575 -0.0013307
-0.022515 0.0084409 -0.40329 0.050305 -0.018561 0.00048189 -0.0015118 -0.001924
0.012033 -0.0066642 0.001244 -0.0027821
0.0038226 0.0097248 -0.01858 0.00059621 -0.15564 0.26063 -0.00090026 -0.0048503
-0.0036093 -0.0028976 0.009426 -0.002915
0.0068143 -0.003985 -0.0016588 -0.0019297 -0.00078823 -0.0047983 -0.26467 0.14673
-0.039635 -0.020075 0.014028 0.02727
0.014021 -0.00093915 0.012222 -0.0066177 -0.0034547 -0.0027763 -0.039296 -0.020158
-0.23105 -0.044844 -0.042021 0.012512
0.00034564 -0.0021643 0.0012963 -0.0030466 0.0091619 -0.0026981 0.013908 0.027486
-0.042467 0.012309 -0.2509 -0.0019108
680000000 -0.23776 0.18536 -0.026466 -0.014461 0.0054441 0.005191 0.0023663 -0.0076897
-0.0028384 -0.011931 0.0046833 -0.0077345
-0.026441 -0.014499 -0.3895 0.15074 -0.032547 -0.0021039 -0.0010185 -0.00064017
-0.0019072 -0.0095222 -0.00094223 -0.002021
0.0054568 0.0051662 -0.032579 -0.0019896 -0.1037 0.28074 -0.00049531 -0.00050433
-0.0019844 0.00066182 -0.0025588 -0.0092799
0.0023669 -0.0078839 -0.0010047 -0.00073413 -0.00050184 -0.00048978 -0.22038 0.19834
-0.023334 -0.0080904 -0.0081115 -0.011235
-0.0028776 -0.012028 -0.0021493 -0.0094719 -0.0021373 0.00058637 -0.023266 -0.0081273
-0.27856 0.057887 -0.0077352 -0.0076163
0.0045614 -0.0082844 -0.0007961 -0.0018255 -0.0026945 -0.0092093 -0.0081983 -0.010897
-0.0078267 -0.0075293 -0.25838 0.097558
740000000 -0.19248 0.17763 -0.03969 0.026629 0.013958 -0.0045307 -0.00061881 -0.004136
-0.0050723 -0.003119 -0.0064362 0.0036567
-0.039693 0.02656 -0.33548 0.16943 -0.036683 0.034818 -0.00036862 -0.0054792
-0.012158 0.0072576 -0.0013153 -0.0058287
0.013949 -0.0045931 -0.036577 0.034957 -0.070241 0.2788 -0.0021586 0.0032465
-0.0027001 -0.0053636 -0.0016028 0.0012054
-0.00044529 -0.0039194 -0.00025322 -0.0054451 -0.0021365 0.0032963 -0.20349 0.20482
-0.043569 -0.0072399 0.021843 0.015145
-0.0047949 -0.0032758 -0.012162 0.0074389 -0.0027076 -0.0053833 -0.04344 -0.0072851
-0.17804 0.083953 -0.042087 -0.00019764
-0.0063609 0.00369 -0.0012183 -0.0059493 -0.0014817 0.001275 0.021952 0.015042
-0.042223 -4.6522e-05 -0.24899 0.10474
800000000 -0.1618 0.22165 -0.02275 0.016318 0.0055151 -0.010481 -0.0044881 -0.0019209
-0.0046055 0.0022582 0.0036523 2.8013e-05
-0.02277 0.016318 -0.34109 0.24027 -0.0086943 0.034222 -0.0022446 0.0022072
-0.0012488 0.0028309 0.0007645 0.005213
0.0054541 -0.010462 -0.0085861 0.034293 -0.031239 0.30249 0.00098455 0.0012233
-0.00011692 0.0036743 -0.0018512 0.00057418
-0.0045611 -0.0020328 -0.00222 0.0021422 0.00098138 0.0011986 -0.17378 0.23231
-0.029279 0.013203 0.014385 -0.010292
-0.0045713 0.0024351 -0.0012859 0.0029294 -7.6095e-05 0.0037472 -0.029279 0.013451
-0.21979 0.11253 -0.017978 0.019415
0.0035792 2.0919e-05 0.00081015 0.0051667 -0.0018411 0.00043685 0.014301 -0.01023
-0.017852 0.019573 -0.23876 0.15274
860000000 -0.12711 0.24138 -0.018183 0.030498 -0.0028749 -0.010289 -0.0025034 0.00072491
0.0039027 0.0048577 -0.0036252 -0.0024933
-0.018184 0.030506 -0.29268 0.28277 0.0076205 0.034536 3.3984e-05 0.0021587
0.0038048 0.00046052 0.003604 0.00034331
-0.0029225 -0.010338 0.0077286 0.034524 0.016477 0.3112 -0.00085585 -3.0712e-05
0.0023185 -0.0014837 0.0016422 0.0046082
-0.0023763 0.00080503 0.00017885 0.0021568 -0.00084029 3.0606e-05 -0.13775 0.24288
-0.019195 0.01809 -0.0068017 -0.0085947
0.0039212 0.0048792 0.0038286 0.00062984 0.0023119 -0.001366 -0.019124 0.018187
-0.16507 0.16242 -0.023629 0.01629
-0.003461 -0.002607 0.0036208 0.00027592 0.0017214 0.004531 -0.0066883 -0.0087947
-0.023667 0.016368 -0.1898 0.19801
920000000 -0.10316 0.26504 0.0043391 0.038208 -0.0094464 -0.0048656 -0.0016624 0.0016626
0.0011849 0.0018651 0.0025028 -0.0015736
0.0043026 0.038163 -0.26563 0.30422 0.028109 0.022787 0.0013637 0.0012204
0.0073432 -0.00034131 0.0039903 -0.0028369
-0.0094826 -0.0048619 0.028231 0.02272 0.061963 0.31255 0.0018686 -4.2702e-05
0.0011183 -0.00020184 0.00081456 -0.0013461
-0.0017197 0.001662 0.0013978 0.0012325 0.0018727 -3.4404e-05 -0.11302 0.26024
-0.011071 0.030942 0.003496 -0.0066614
0.0011413 0.0018769 0.0073783 -0.00030415 0.0011045 -0.00015711 -0.01095 0.030919
-0.15266 0.16854 -0.0019595 0.026391
0.0026031 -0.0014956 0.0040601 -0.0028257 0.00082228 -0.001386 0.003454 -0.0065726
-0.0019636 0.026394 -0.19463 0.21144
980000000 -0.056573 0.28474 0.016886 0.030323 -0.0094577 0.0042505 0.0017022 0.0035157
0.0040452 -0.0019454 -0.003061 -0.002319
0.016891 0.030308 -0.21221 0.33887 0.033554 0.0053815 0.0021126 -0.00021096
0.0016732 -0.0059979 -0.0002886 -0.0027502
-0.0094488 0.004271 0.033622 0.0052972 0.10802 0.30681 0.00070943 -0.0011891
0.00043887 -0.001988 0.0014315 -0.00025405
0.0017747 0.0036036 0.0021026 -0.00012324 0.00070977 -0.0011864 -0.074948 0.27107
0.0073856 0.030562 -0.0091457 -0.0069355
0.0040186 -0.001884 0.0016136 -0.0060644 0.0004651 -0.0019558 0.0074388 0.030531
-0.11927 0.19876 0.0059814 0.019362
-0.0030127 -0.0022864 -0.00025922 -0.0027204 0.0015256 -0.00019112 -0.0091703 -0.0069456
0.0059561 0.019376 -0.15229 0.25545
1040000000 -0.014834 0.29432 0.032968 0.019222 -0.0014721 0.0072025 0.0027447 0.00070969
0.00062849 -0.0033684 -0.00013336 -0.0017474
0.032938 0.019223 -0.17703 0.35262 0.030219 -0.014614 0.0015275 -0.001833
-0.001999 -0.0026645 -0.0011523 -0.0029546
-0.0014448 0.0071923 0.030196 -0.014722 0.154 0.29388 -0.00046788 -0.0016865
-0.0014087 -0.00097909 -0.00051921 -0.0012073
0.0027504 0.00064529 0.0015567 -0.0017721 -0.00047979 -0.0017054 -0.047116 0.28111
0.019918 0.019022 -0.0025109 0.0011842
0.00058667 -0.0033352 -0.0020269 -0.0026796 -0.0014285 -0.00098069 0.019954 0.018976
-0.085109 0.20543 0.014091 0.017585
-0.00017149 -0.001708 -0.0012047 -0.002946 -0.00051484 -0.0011743 -0.0025214 0.0011925
0.014156 0.017525 -0.12887 0.27489
1100000000 0.029886 0.30285 0.036566 -0.0035803 0.002935 0.0042555 0.0024773 -0.0012629
-0.0023005 -0.0030571 -0.0039175 -0.00013391
0.036536 -0.0035556 -0.13375 0.37054 0.015904 -0.028078 9.3552e-05 -0.0018996
-0.0036352 -0.00085689 -0.0035329 -0.00052432
0.0029494 0.0042576 0.015827 -0.028169 0.20034 0.27435 -0.0019352 0.00010926
-0.0018144 0.00043318 -0.0010649 -0.00050491
0.0024621 -0.00124 8.9572e-05 -0.0018774 -0.0019657 0.00010578 -0.0064418 0.28612
0.025601 0.0051681 -0.0026023 1.4635e-05
-0.0022996 -0.0029904 -0.0036806 -0.0008307 -0.0018505 0.00046836 0.025586 0.0051412
-0.06449 0.21793 0.019912 0.0078126
-0.0039082 -6.8331e-05 -0.003569 -0.00049559 -0.0011084 -0.00048943 -0.0026029 3.6993e-05
0.019846 0.0077405 -0.083039 0.30236
1160000000 0.081239 0.29912 0.024811 -0.020691 0.0029284 -0.00051869 -0.00020394 -0.0023882
-0.004046 -0.00079139 -0.0012302 0.0039355
0.024804 -0.020667 -0.090213 0.37526 -0.003389 -0.02982 -0.0017378 -0.0017689
-0.0027799 0.0024979 -0.0017084 0.0018444
0.0029527 -0.00055064 -0.0035043 -0.029811 0.2436 0.24412 -0.0008527 0.0018192
-0.00061406 0.0019656 -0.00091769 0.00049466
-0.00020246 -0.0024184 -0.0017623 -0.0017563 -0.00086611 0.0018095 0.033112 0.28321
0.021777 -0.01082 -0.0030704 0.005077
-0.0040722 -0.00077724 -0.0027825 0.0025112 -0.00059281 0.0019832 0.021764 -0.010831
-0.029876 0.22512 0.018361 -0.00070216
-0.0011579 0.0039587 -0.0017056 0.0018659 -0.00091429 0.00045476 -0.0031172 0.0050588
0.018404 -0.00065923 -0.035663 0.30545
1220000000 0.12528 0.28922 0.01116 -0.030367 -0.0015351 -0.0010743 -0.00016601 -0.00092609
-0.0027462 0.00225 0.0010767 0.0019911
0.011188 -0.030315 -0.045946 0.38821 -0.01713 -0.021996 -0.0027344 0.00054374
1.3087e-05 0.0030882 -0.00087221 0.0019158
-0.0015181 -0.001077 -0.017239 -0.021953 0.28286 0.20549 0.00073422 0.0018193
0.00061159 0.0012728 0.00018081 0.00051545
-0.00014233 -0.00091639 -0.0027096 0.00057184 0.00076172 0.0017942 0.073526 0.27439
0.011089 -0.017791 0.0020884 0.001529
-0.0027594 0.002286 -1.3973e-05 0.0030738 0.00061464 0.0013141 0.011076 -0.017808
-0.0056926 0.23307 0.01355 -0.013233
0.0010903 0.001977 -0.00090318 0.0019118 0.00016239 0.00050143 0.0020804 0.0015089
0.013546 -0.013233 -0.0034583 0.32014
1280000000 0.17579 0.2683 -0.0077497 -0.029182 -0.0020812 0.0024196 -0.00082056 -0.0019091
-0.00069643 0.0031795 0.0025979 0.0012661
-0.0077388 -0.029167 0.00018884 0.37965 -0.024407 -0.0089589 -0.00095097 0.0014699
0.0017482 0.0017521 0.00055868 0.0019152
-0.0020658 0.0024501 -0.024451 -0.0088512 0.31358 0.16175 0.0015731 -5.7482e-05
0.0012212 0.00021387 0.00033615 0.000322
-0.0007988 -0.001938 -0.0009532 0.0014652 0.0015744 -6.7045e-05 0.1105 0.2578
0.00088124 -0.020017 -0.0001188 0.00036061
-0.00069246 0.0031959 0.0017787 0.0017291 0.0011939 0.00022224 0.0008403 -0.020031
0.031401 0.2357 0.0025479 -0.015423
0.0026003 0.0011812 0.00057473 0.0019088 0.00038399 0.00032671 -0.00011706 0.00041092
0.0025176 -0.015474 0.04287 0.32097
1340000000 0.21309 0.23522 -0.017785 -0.019382 0.00076123 0.0047631 -0.0017734 -0.00088276
0.0014216 0.0026202 0.0016842 -0.0013861
-0.017732 -0.019395 0.039812 0.37177 -0.02213 0.0042216 -8.0542e-05 0.0020424
0.0019576 0.0007532 0.0012928 0.000809
0.00078227 0.0047494 -0.022145 0.0043346 0.33551 0.11466 0.0010646 -0.00089865
0.00058492 -0.00062476 2.8245e-05 0.00036795
-0.0017916 -0.00084815 -5.2613e-05 0.0020565 0.0010683 -0.00089249 0.14351 0.23658
-0.0088403 -0.017211 0.00075972 0.00053487
0.0014386 0.0026433 0.0019999 0.0007481 0.00059398 -0.00060321 -0.0088853 -0.01723
0.061374 0.23072 -0.0040233 -0.013936
0.0016855 -0.001395 0.0012891 0.0008278 6.1921e-05 0.0003782 0.00077152 0.00052062
-0.0040098 -0.013966 0.081145 0.31522
1400000000 0.24683 0.19756 -0.023852 -0.0076265 0.0053251 0.0034389 -0.0022036 0.00058139
0.0024388 0.00096388 0.00034744 -0.0015907
-0.023835 -0.0076237 0.077357 0.35913 -0.015292 0.01276 0.00137 0.0012396
0.0013216 -0.00078116 0.0011127 0.00015614
0.0053463 0.0034175 -0.015256 0.012841 0.34881 0.061706 2.1875e-05 -0.0016969
0.00010218 -0.00040029 0.00030913 0.00022584
-0.0022151 0.00057966 0.0013649 0.0012114 1.6861e-05 -0.0016871 0.17287 0.2074
-0.015096 -0.010045 -0.00081007 -0.00017086
0.0024532 0.00094799 0.0013161 -0.00077856 0.00010443 -0.00040482 -0.015136 -0.010023
0.094936 0.22543 -0.010468 -0.0087012
0.00034066 -0.0016302 0.0011177 0.00016377 0.00031679 0.00019611 -0.0008205 -0.0001257
-0.010448 -0.0086627 0.12522 0.30363
1460000000 0.27006 0.15387 -0.0207 0.0048012 0.0059107 -0.0017842 -0.0016043 0.0017408
0.0021737 -0.00045518 -0.00029627 -0.00097319
-0.020686 0.004775 0.11163 0.33725 -0.0062739 0.01584 0.0016949 0.00023301
0.00084985 -0.0013535 0.001233 -0.00056522
0.0058901 -0.0018163 -0.0062058 0.015884 0.35536 0.0078478 -0.0012013 -0.0012491
0.00012466 -0.00013415 0.00077623 -0.00023519
-0.0016008 0.0017697 0.0017018 0.00021641 -0.0011953 -0.0012538 0.19898 0.1777
-0.016346 -0.0031057 -0.00086298 0.0020919
0.0021695 -0.00044673 0.00084846 -0.0013645 0.00012308 -0.0001585 -0.016356 -0.0030779
0.12409 0.21028 -0.0121 -0.002755
-0.00031047 -0.00093478 0.0012297 -0.00061722 0.00076524 -0.00021341 -0.0008515 0.0020714
-0.012129 -0.002762 0.15803 0.28273
1520000000 0.28249 0.11244 -0.014982 0.010491 0.0035299 -0.0043539 0.00014331 0.002632
0.0021567 -0.0019133 -0.0011469 -0.00018495
-0.01498 0.010473 0.1452 0.32294 0.0017474 0.013503 0.0016536 -0.00077418
5.5579e-05 -0.0011164 0.00032349 -0.0010242
0.0035119 -0.0043751 0.0018211 0.013523 0.3491 -0.047985 -0.001117 -0.00032948
0.00048338 -0.00090807 5.1927e-05 -0.00018877
0.00017892 0.0026345 0.0016499 -0.00079229 -0.0011165 -0.00033361 0.22192 0.13944
-0.015495 0.0030602 0.001542 0.0020667
0.0021523 -0.0018976 5.788e-05 -0.0011144 0.00048411 -0.00092251 -0.015481 0.0030907
0.15201 0.1964 -0.01198 0.0019099
-0.0011954 -0.00018961 0.00030312 -0.0010124 6.2024e-05 -0.0001756 0.0015537 0.0020638
-0.011972 0.0019483 0.19082 0.26157
1580000000 0.29236 0.066461 -0.0081011 0.013724 -0.00092494 -0.0050687 0.0014649 0.001927
-0.00020762 -0.002209 -0.00028585 0.00043376
-0.0081065 0.013706 0.17255 0.29835 0.0055596 0.0084321 0.0005139 -0.0015685
-0.00058653 -0.00099117 -0.00022344 -0.00086572
-0.00094992 -0.0050457 0.0055976 0.0084122 0.32958 -0.10539 -0.0016577 0.00059999
-0.00029845 -0.0011444 0.00025887 -0.0006468
0.0014356 0.0019435 0.00050814 -0.0015839 -0.0016475 0.00061438 0.23535 0.099947
-0.011725 0.0081396 0.0022061 0.00063169
-0.00023739 -0.0022021 -0.00058304 -0.0009763 -0.00028343 -0.0011248 -0.011745 0.0081694
0.17606 0.17804 -0.009204 0.0076664
-0.00026108 0.00040353 -0.00024261 -0.00087276 0.00022984 -0.0006212 0.0022135 0.000643
-0.0091934 0.0076533 0.22215 0.2345
1640000000 0.29474 0.02544 -0.0012062 0.012477 -0.002839 -0.0026544 0.0027513 0.0010357
-0.00069786 -0.0016088 -0.00043199 0.00050335
-0.0012132 0.012466 0.20214 0.27374 0.0062003 0.0034284 -0.00060909 -0.0018037
-0.0010038 -0.00039278 -0.0005116 -0.00067359
-0.0028496 -0.0026537 0.0062247 0.0034058 0.30152 -0.1548 -0.00061625 0.0014213
-0.0010106 -0.00095382 -8.918e-05 -0.00027369
0.0027628 0.00098791 -0.00063378 -0.0018091 -0.00062703 0.0013922 0.2472 0.051296
-0.0073116 0.0093686 0.0024605 -0.00085865
-0.00071692 -0.0016076 -0.0010167 -0.00038226 -0.0010271 -0.00092879 -0.0072809 0.0093948
0.19885 0.15378 -0.004467 0.009362
-0.00045574 0.00052099 -0.00052344 -0.0006602 -9.0006e-05 -0.00026932 0.0024702 -0.0008466
-0.0044762 0.0093769 0.2474 0.20323
1700000000 0.28809 -0.019704 0.0022417 0.0094581 -0.003616 -5.7134e-05 0.0030817 -0.0012503
-0.002005 -0.0006808 0.00063437 0.0005572
0.0022302 0.00946 0.22041 0.24253 0.0041271 0.00032317 -0.0014892 -0.00064648
-0.00078332 4.4169e-05 -0.00088143 -0.00044194
-0.0036238 -4.5225e-05 0.0041413 0.00029511 0.2588 -0.19479 0.00041806 0.0015803
-0.0019091 -6.9392e-05 -0.00045745 -0.00087142
0.0030589 -0.0012669 -0.0014763 -0.0006342 0.00046947 0.0015792 0.24383 0.0017065
-0.0042212 0.0097559 0.0015841 -0.0021512
-0.0020175 -0.0006651 -0.00077113 5.3265e-05 -0.0018998 -4.3896e-05 -0.0042196 0.0097487
0.216 0.13324 5.21e-05 0.0097171
0.0006403 0.00053333 -0.00091384 -0.0004479 -0.00049259 -0.00087509 0.0015864 -0.0021533
7.2966e-05 0.0097001 0.26344 0.16887
1760000000 0.27643 -0.068428 0.0045515 0.0061138 -0.0024119 0.00094418 0.0012989 -0.0034115
-0.001416 0.00061761 0.0003391 -0.00061986
0.0045512 0.0061066 0.2466 0.20304 0.0017282 -0.0015632 -0.0012393 0.0001642
-0.0010301 0.00085367 -0.00054157 0.00042053
-0.002377 0.00092585 0.0017214 -0.0015632 0.21041 -0.22816 0.0011145 0.0010346
-0.001261 0.0014602 -0.0011491 -0.00060091
0.001303 -0.0034498 -0.00126 0.00017307 0.0011138 0.0010766 0.23483 -0.049324
-0.00093401 0.0089289 -0.0001731 -0.00245
-0.0014078 0.00060859 -0.0010263 0.0008609 -0.0012643 0.0014715 -0.00091235 0.0089531
0.23057 0.098606 0.0039001 0.0069607
0.00033926 -0.00059529 -0.00053933 0.00042972 -0.0011523 -0.00058708 -0.00013669 -0.0024776
0.0038821 0.0069361 0.2758 0.1311
1820000000 0.25218 -0.10578 0.0045952 0.0025175 -0.00027546 0.0025896 -0.0010254 -0.0030791
-0.0011822 0.0009769 -8.9057e-05 -0.00015048
0.0045912 0.0025163 0.25701 0.17316 -0.00065359 -0.00032359 -0.0013432 0.00095326
-6.1135e-05 0.0011997 -0.00060009 0.00050092
-0.00025151 0.0025708 -0.00066979 -0.00030728 0.15971 -0.24379 0.0015329 0.00026239
-0.00013801 0.0022734 -0.0016319 0.00030019
-0.0010472 -0.003092 -0.0013401 0.0009596 0.0015078 0.00025335 0.20513 -0.096186
0.00052449 0.0073807 -0.0017839 -0.0015694
-0.0011743 0.00099475 -4.3523e-05 0.0012153 -0.00013689 0.0022883 0.00057156 0.00735
0.24749 0.069707 0.0047879 0.0036083
-8.7714e-05 -0.00012762 -0.0006052 0.00051754 -0.0016057 0.00032168 -0.0017829 -0.0015634
0.0047976 0.0036361 0.27762 0.094826
1880000000 0.2172 -0.14642 0.002349 0.00018496 -0.00055942 0.0022118 -0.0029297 -0.0021348
-0.00023366 0.001914 0.00011082 -0.0006409
0.0023422 0.00018762 0.26181 0.1267 -0.0026056 0.001556 -0.00022747 0.0017967
0.00054644 0.0013067 0.00013922 0.0009369
-0.00051903 0.0022296 -0.0026018 0.0015661 0.10773 -0.25366 0.0017187 -0.00085598
0.0014175 0.0019715 -0.00093239 0.0012761
-0.0028997 -0.0020926 -0.00022883 0.001819 0.0017102 -0.00082862 0.16477 -0.1364
0.001446 0.0055035 -0.0024431 0.00046121
-0.00018616 0.0019432 0.0005617 0.0013037 0.0013976 0.0019594 0.001473 0.0055152
0.25122 0.038396 0.0048061 0.00124
4.7567e-05 -0.00059233 0.00011118 0.00093047 -0.0010046 0.0012608 -0.0024253 0.00042446
0.0048099 0.0012221 0.27728 0.06076
1940000000 0.17791 -0.17213 -4.2665e-05 -0.0013636 0.0013599 0.0021894 -0.0036945 0.00038349
0.0014381 0.0011769 -0.00057899 -0.00049464
-3.7529e-05 -0.0013716 0.26274 0.094938 -0.0014361 0.004026 0.0011176 0.0012903
0.0018225 0.00050707 0.0010581 0.00034306
0.0013818 0.00217 -0.001416 0.0040467 0.062229 -0.24622 0.0005338 -0.0022753
0.0024068 0.0003445 0.00052813 0.0016476
-0.0037667 0.00045737 0.0010904 0.0012955 0.00047209 -0.0022667 0.11256 -0.16691
0.0010073 0.0042779 -0.0013793 0.0016866
0.0014251 0.0011893 0.0018227 0.00049241 0.0024175 0.0003427 0.00096964 0.0042574
0.2541 0.0005078 0.0036297 -0.0019144
-0.00058241 -0.00054735 0.0010555 0.00033129 0.00051588 0.0017065 -0.0013073 0.0017131
0.003611 -0.0019151 0.26583 0.024297
2000000000 0.13163 -0.18705 -0.0038246 0.00057691 0.0027366 0.0014328 -0.0023596 0.0036671
0.0013973 0.00038517 -0.00047285 0.00069603
-0.0038194 0.00056423 0.24902 0.059237 -0.00087605 0.0058793 0.001723 0.00042904
0.0013925 -0.0010805 0.00046153 0.00023954
0.0027349 0.0014489 -0.00081638 0.0058742 0.018852 -0.23263 -0.001259 -0.0014973
0.0021094 -0.0011525 0.0016645 0.0015481
-0.0022553 0.0036912 0.0017193 0.00042203 -0.0013048 -0.0015131 0.059449 -0.17729
-0.00023653 0.0039047 -0.0001413 0.0024638
0.0014542 0.00034126 0.0013786 -0.0010846 0.0020992 -0.0011293 -0.00021865 0.0039258
0.24927 -0.032536 0.00052195 -0.00276
