!Keysight Technologies,M9804A,MY58100912,A.14.10.03
!Date: Thursday, April 27, 2023 10:28:33
!Correction: S11(C  6-Port  ) 
!S12(C  6-Port  ) 
!S13(C  6-Port  ) 
!S14(C  6-Port  ) 
!S15(C  6-Port  ) 
!S16(C  6-Port  ) 
!S21(C  6-Port  ) 
!S22(C  6-Port  ) 
!S23(C  6-Port  ) 
!S24(C  6-Port  ) 
!S25(C  6-Port  ) 
!S26(C  6-Port  ) 
!S31(C  6-Port  ) 
!S32(C  6-Port  ) 
!S33(C  6-Port  ) 
!S34(C  6-Port  ) 
!S35(C  6-Port  ) 
!S36(C  6-Port  ) 
!S41(C  6-Port  ) 
!S42(C  6-Port  ) 
!S43(C  6-Port  ) 
!S44(C  6-Port  ) 
!S45(C  6-Port  ) 
!S46(C  6-Port  ) 
!S51(C  6-Port  ) 
!S52(C  6-Port  ) 
!S53(C  6-Port  ) 
!S54(C  6-Port  ) 
!S55(C  6-Port  ) 
!S56(C  6-Port  ) 
!S61(C  6-Port  ) 
!S62(C  6-Port  ) 
!S63(C  6-Port  ) 
!S64(C  6-Port  ) 
!S65(C  6-Port  ) 
!S66(C  6-Port  ) 
!S6P File: Measurement: :
# Hz S  RI   R 50
500000000 -0.33412 -0.053335 -0.010734 -0.0015298 -0.0085477 0.013528 -0.0041416 0.011617
0.011365 0.0054524 -0.0042743 0.0076391
-0.010649 -0.0016184 -0.41689 -0.063272 0.0079338 -0.010891 0.0017488 0.012038
0.0073926 0.0027933 0.0014837 0.013841
-0.0084451 0.01353 0.0079994 -0.010743 -0.26715 0.19961 0.0069319 0.003437
-0.0020152 0.0087944 0.00078909 0.012107
-0.0040575 0.011347 0.0016433 0.012169 0.0070086 0.0035807 -0.33138 0.042392
-0.019376 -0.0033897 0.017509 0.024096
0.011367 0.0051648 0.0070477 0.0027402 -0.0017182 0.0085745 -0.018996 -0.0032815
-0.2486 -0.19398 -0.027385 0.00748
-0.0041908 0.0073861 0.0011899 0.01368 0.0010013 0.012508 0.01691 0.02406
-0.027463 0.0071069 -0.27213 -0.11917
560000000 -0.31897 0.11419 -0.022178 -0.064319 -0.00026173 0.013509 0.0053877 0.012047
0.012986 0.0041367 0.010701 0.0080759
-0.022307 -0.064264 -0.37541 0.098388 -0.041509 -0.037397 0.014096 0.0031232
-0.013934 -0.0045064 0.0044733 -0.0017031
-0.00014039 0.013198 -0.041703 -0.037117 -0.1859 0.25064 -0.00016146 -0.004834
0.018917 0.0044077 0.0077859 -0.004525
0.0055902 0.011943 0.013573 0.0032461 9.705e-05 -0.0045798 -0.30556 0.13566
0.0046154 -0.024715 0.0057798 -0.02136
0.01295 0.0035111 -0.012142 -0.0036577 0.018643 0.0051713 0.004561 -0.024384
-0.3101 -0.01033 0.0077527 -0.050045
0.011083 0.0078298 0.0033699 -0.0017788 0.007338 -0.0052978 0.0059564 -0.021442
0.0082006 -0.04923 -0.32952 0.027282
620000000 -0.27713 0.09446 -0.022863 0.008768 0.0037059 0.009678 0.0073374 -0.0048668
0.013129 -0.0014949 0.0011643 -0.0022849
-0.022606 0.0086123 -0.40345 0.049874 -0.018433 0.00046349 -0.0018944 -0.002123
0.012126 -0.0061107 0.00097297 -0.0028525
0.0037894 0.0098602 -0.018432 0.00058169 -0.15592 0.25988 -0.00088737 -0.0051292
-0.0034245 -0.0032516 0.0091048 -0.0025087
0.0071769 -0.00447 -0.0013487 -0.0021852 -0.0011879 -0.0052067 -0.26431 0.14681
-0.039547 -0.020005 0.013188 0.027581
0.013464 -0.00060475 0.011752 -0.0059739 -0.003399 -0.0027683 -0.040198 -0.021342
-0.23111 -0.046528 -0.041612 0.010268
0.0011801 -0.0022384 0.00154 -0.0026568 0.0086026 -0.002982 0.012983 0.028127
-0.041007 0.01163 -0.25064 -0.0025
680000000 -0.23871 0.18567 -0.026712 -0.014552 0.0050554 0.0054546 0.0018776 -0.007676
-0.0021489 -0.01139 0.0053833 -0.0070791
-0.026512 -0.014527 -0.38954 0.14994 -0.032592 -0.0022648 -0.0014818 -0.00074806
-0.0018883 -0.0092896 -0.00055903 -0.0021469
0.0052449 0.0054473 -0.032687 -0.0022008 -0.10391 0.28053 -0.00078736 -0.00024273
-0.0019783 0.00064972 -0.0030587 -0.0091442
0.0017211 -0.0080508 -0.0012614 -0.00086085 -0.00061217 -0.00028825 -0.22019 0.19807
-0.023398 -0.0075205 -0.0084941 -0.0097628
-0.0024259 -0.011511 -0.0018535 -0.0093075 -0.0018788 0.00045724 -0.023557 -0.0080549
-0.27842 0.055804 -0.0070539 -0.007981
0.0046812 -0.0074359 -0.00065888 -0.0019055 -0.0029875 -0.0091947 -0.0085088 -0.0097532
-0.0077053 -0.0080961 -0.25748 0.095418
740000000 -0.19325 0.17729 -0.040145 0.026776 0.013743 -0.0046659 -0.00036393 -0.004007
-0.0057569 -0.0032793 -0.0059842 0.0036792
-0.039923 0.026907 -0.33572 0.16841 -0.036809 0.034972 -0.00023382 -0.0056352
-0.013225 0.0078956 -0.0012634 -0.0056057
0.013604 -0.0046762 -0.036832 0.035062 -0.070559 0.27834 -0.0020471 0.0033577
-0.003383 -0.0059634 -0.0016501 0.0011906
-0.00027814 -0.0039742 -0.00043566 -0.0058401 -0.0017624 0.0033415 -0.204 0.20458
-0.043634 -0.0074525 0.022662 0.015347
-0.0053819 -0.0034745 -0.012576 0.0079255 -0.0030089 -0.0054086 -0.043681 -0.0076552
-0.17733 0.08341 -0.042957 -0.00025307
-0.0060095 0.0036639 -0.0012877 -0.0057561 -0.0012768 0.0011438 0.02269 0.015264
-0.042844 -7.7158e-05 -0.24744 0.10463
800000000 -0.16236 0.22118 -0.022985 0.016229 0.0056795 -0.010435 -0.0046767 -0.0018681
-0.0044618 0.0020358 0.0036206 0.00046113
-0.022979 0.016458 -0.34159 0.23945 -0.0086962 0.034338 -0.0021262 0.0021961
-0.0013851 0.003022 0.0008055 0.0053828
0.0054354 -0.010381 -0.0087273 0.034368 -0.031627 0.30234 0.00086191 0.0014254
9.5887e-05 0.0036942 -0.0017626 0.00068897
-0.0047468 -0.0018919 -0.002343 0.0020991 0.00080242 0.0014865 -0.17462 0.23207
-0.028803 0.012916 0.013778 -0.010713
-0.0047487 0.002164 -0.0013653 0.0031346 9.8672e-05 0.0037375 -0.028636 0.013431
-0.2204 0.1124 -0.017004 0.019977
0.0035916 0.00044918 0.00065756 0.0052192 -0.0017299 0.00092915 0.013676 -0.010594
-0.017224 0.019505 -0.23975 0.1517
860000000 -0.12728 0.2409 -0.018022 0.030776 -0.0028209 -0.0103 -0.0020925 0.00057172
0.0038365 0.0050505 -0.0034926 -0.002678
-0.017991 0.030678 -0.29298 0.28229 0.0076237 0.034815 0.00020266 0.0020957
0.0034808 0.00082205 0.0032305 0.00032631
-0.002815 -0.010334 0.0077167 0.034818 0.015922 0.31104 -0.00072182 -6.8926e-05
0.0021552 -0.001292 0.001798 0.0043892
-0.0021344 0.00052054 0.00011864 0.0019969 -0.00077186 -0.00012155 -0.1376 0.24303
-0.018885 0.018043 -0.0060909 -0.008594
0.0041044 0.0050886 0.0036877 0.00084412 0.0022498 -0.0013308 -0.019145 0.018243
-0.1655 0.16164 -0.024572 0.017353
-0.0034803 -0.0028242 0.0035249 0.00020624 0.0018796 0.0042754 -0.0060631 -0.0086097
-0.023785 0.017793 -0.19 0.19675
920000000 -0.10369 0.26488 0.0043538 0.038508 -0.0093696 -0.0051238 -0.001762 0.0018297
0.0014918 0.0017346 0.0026141 -0.0013348
0.004438 0.038381 -0.26588 0.3039 0.028323 0.022873 0.0015771 0.0011809
0.0075331 -0.00041647 0.0044212 -0.0026854
-0.0094195 -0.0051404 0.028435 0.022851 0.061538 0.31257 0.0019634 -4.452e-05
0.0012795 -0.00038527 0.0010152 -0.0013006
-0.0018195 0.001834 0.0015261 0.0014124 0.0019457 -9.463e-06 -0.11348 0.26016
-0.010783 0.031351 0.0031583 -0.0066719
0.0014462 0.0016526 0.007455 3.5268e-05 0.0010794 -0.00023199 -0.010678 0.031091
-0.15288 0.16704 -0.00079168 0.026825
0.002658 -0.0014144 0.0043234 -0.0026838 0.00092048 -0.0013198 0.0031605 -0.0065787
-0.0015725 0.027056 -0.19596 0.21049
980000000 -0.05698 0.28451 0.016992 0.030433 -0.0095984 0.004118 0.0018422 0.0033429
0.0038377 -0.0017927 -0.0031093 -0.002327
0.016906 0.03054 -0.21274 0.33851 0.033774 0.0053982 0.0021812 -0.00012019
0.0017404 -0.0059416 -6.5059e-05 -0.0024439
-0.0096158 0.0042321 0.033846 0.0053239 0.10758 0.30693 0.00070963 -0.0011767
0.00035254 -0.001992 0.0014888 -0.00023553
0.0018994 0.0033085 0.0019657 -0.00018552 0.00066312 -0.0012113 -0.075355 0.27082
0.007137 0.030629 -0.0091192 -0.0070788
0.0040291 -0.0019 0.001694 -0.0061326 0.00043771 -0.0019838 0.0073724 0.030565
-0.11892 0.19849 0.0057225 0.019922
-0.0031152 -0.002285 -0.00019631 -0.0026044 0.0015258 -0.00017837 -0.0092056 -0.00711
0.0056976 0.019741 -0.15324 0.25396
1040000000 -0.01565 0.29405 0.033118 0.019218 -0.0016012 0.0071865 0.0028464 0.00081604
0.00042461 -0.0035997 1.9524e-05 -0.0013804
0.033089 0.019173 -0.17772 0.35214 0.030375 -0.014836 0.0015393 -0.0017391
-0.0020209 -0.0027699 -0.0010839 -0.002887
-0.0016496 0.0071831 0.030382 -0.014955 0.15372 0.29409 -0.00047618 -0.0017048
-0.0015597 -0.00096492 -0.0004924 -0.0010622
0.0028802 0.00078865 0.0015541 -0.0017726 -0.00048929 -0.0017306 -0.04724 0.28127
0.020156 0.019205 -0.0024853 0.0013389
0.0003513 -0.0034219 -0.0020011 -0.0027156 -0.0015694 -0.0010644 0.020074 0.019307
-0.085309 0.20472 0.013883 0.018381
2.4413e-05 -0.0014074 -0.001095 -0.002875 -0.00059376 -0.0011284 -0.0024623 0.0013929
0.013856 0.018104 -0.12982 0.27486
1100000000 0.029348 0.30295 0.036737 -0.0035862 0.0027996 0.0042784 0.0024311 -0.0013339
-0.002282 -0.0032471 -0.0041377 -0.00035019
0.036766 -0.0035673 -0.13462 0.37032 0.01594 -0.028388 2.8245e-05 -0.0019533
-0.0036767 -0.0010693 -0.0038044 -0.00071274
0.0028537 0.0042706 0.015861 -0.028458 0.20017 0.27463 -0.0019701 0.00018151
-0.0018351 0.00045815 -0.0011154 -0.00051487
0.002434 -0.0013212 5.2592e-05 -0.0019075 -0.0019811 0.00017383 -0.0066848 0.28625
0.025886 0.005275 -0.0025555 0.00024862
-0.0022633 -0.0031097 -0.0037794 -0.0009889 -0.001842 0.0004776 0.025881 0.0053097
-0.065189 0.21729 0.019688 0.0075837
-0.0041149 -0.00024677 -0.0038583 -0.00064105 -0.0011406 -0.00051517 -0.0025698 0.00026606
0.019699 0.0076757 -0.084205 0.3027
1160000000 0.080356 0.29929 0.024804 -0.020932 0.0029339 -0.00050069 -0.00027348 -0.0023797
-0.0039606 -0.00076439 -0.00095745 0.0041982
0.024782 -0.020893 -0.090952 0.3753 -0.0035162 -0.030032 -0.0017256 -0.0017755
-0.0027388 0.0025734 -0.0015279 0.0019381
0.0029328 -0.00047904 -0.0036376 -0.030027 0.24365 0.24428 -0.00090001 0.0018283
-0.00064022 0.0020057 -0.00097312 0.00022103
-0.00026436 -0.0023996 -0.0017099 -0.0016751 -0.00083684 0.0018186 0.032987 0.28348
0.021821 -0.011032 -0.0031867 0.0050632
-0.0041728 -0.00085091 -0.0027367 0.0026045 -0.00063087 0.002076 0.021934 -0.011139
-0.030883 0.22434 0.018469 -0.000723
-0.00086413 0.0041258 -0.0015332 0.0018991 -0.00090411 0.00028318 -0.0032397 0.0050725
0.018777 -0.0005881 -0.037176 0.30592
1220000000 0.12463 0.28934 0.011171 -0.030642 -0.0015953 -0.00099867 -4.5814e-05 -0.00092297
-0.0028418 0.0022723 0.0010131 0.0019973
0.011186 -0.030631 -0.046486 0.38841 -0.017351 -0.022084 -0.0026493 0.00055334
2.544e-05 0.0032114 -0.0008522 0.0020428
-0.0015586 -0.00099895 -0.017468 -0.022042 0.28283 0.20535 0.00077978 0.0017578
0.000596 0.0012732 0.00024228 0.00056463
-3.8445e-05 -0.00090234 -0.0026936 0.00053759 0.00074314 0.001771 0.073453 0.27444
0.011184 -0.018119 0.0019048 0.0014434
-0.0027653 0.0022998 2.1785e-05 0.0032157 0.00058232 0.0013165 0.01119 -0.018068
-0.006467 0.23305 0.014069 -0.013719
0.0010259 0.0020409 -0.00084981 0.0019731 0.00019964 0.00056287 0.0019392 0.0013919
0.014109 -0.013775 -0.0050064 0.31969
1280000000 0.1751 0.26871 -0.0079817 -0.029329 -0.0020913 0.0024299 -0.00081475 -0.0019746
-0.00076893 0.0033018 0.0027313 0.0013119
-0.0079558 -0.029278 -0.00010952 0.37991 -0.024565 -0.0088717 -0.00088826 0.0015051
0.0016899 0.0019204 0.00073994 0.0020601
-0.0020812 0.0024478 -0.024647 -0.0087851 0.31339 0.16163 0.0016889 -4.9612e-05
0.0012344 0.00037416 0.00038393 0.00035779
-0.00079573 -0.0019856 -0.00089799 0.0015493 0.0016797 -6.2655e-05 0.11043 0.25784
0.00064439 -0.020388 -0.00010883 0.00037247
-0.0007931 0.0032603 0.0017817 0.0018812 0.0012269 0.00025809 0.00061772 -0.020399
0.030332 0.23576 0.0027074 -0.01581
0.0027755 0.0012688 0.00082333 0.0020489 0.00033833 0.00041008 -0.00010093 0.00038601
0.0027954 -0.015648 0.041817 0.3212
1340000000 0.21267 0.23552 -0.018051 -0.019471 0.00078163 0.0047708 -0.0017054 -0.00089103
0.0014218 0.0027272 0.0017426 -0.0015264
-0.018064 -0.019466 0.039667 0.37188 -0.02228 0.0044336 -3.8207e-06 0.0020369
0.0020494 0.00077857 0.0012828 0.00082264
0.00075792 0.0048119 -0.022281 0.0045365 0.33522 0.1145 0.0011186 -0.00094251
0.00071946 -0.00060267 2.0396e-05 0.00035647
-0.0017285 -0.00085408 -6.5603e-05 0.0020207 0.001113 -0.00093957 0.14348 0.23654
-0.0092467 -0.017418 0.00072348 0.00061424
0.0015296 0.0027287 0.0020453 0.00072895 0.00070278 -0.0006318 -0.0093137 -0.01738
0.060719 0.23067 -0.0042314 -0.014385
0.0017194 -0.0015094 0.0012881 0.00076935 2.1513e-05 0.00028656 0.00077425 0.00057904
-0.0042518 -0.014369 0.080097 0.31531
1400000000 0.24651 0.19797 -0.024143 -0.0075402 0.0054 0.0034272 -0.0022324 0.00059005
0.0025025 0.00091637 0.00033231 -0.0016469
-0.024108 -0.0075769 0.077287 0.35901 -0.015341 0.012891 0.0013967 0.0012692
0.0013459 -0.00080407 0.0011972 7.2122e-05
0.005397 0.003395 -0.015284 0.012987 0.34828 0.061678 8.6241e-05 -0.0016341
7.0591e-05 -0.00046304 0.0004328 0.00023259
-0.0022184 0.00059967 0.0014143 0.001233 8.6977e-05 -0.0016496 0.17267 0.20722
-0.015579 -0.010031 -0.0008755 -0.00020182
0.0025271 0.0009241 0.0013299 -0.00079181 8.9131e-05 -0.00045273 -0.015534 -0.0099758
0.094211 0.22555 -0.010989 -0.0089068
0.00033615 -0.0016791 0.0012111 4.6217e-05 0.00041707 0.00030737 -0.000896 -0.00016774
-0.010963 -0.0088929 0.12443 0.30411
1460000000 0.26957 0.15412 -0.020869 0.0050622 0.0059893 -0.0017773 -0.0015287 0.0017652
0.0022247 -0.00053213 -0.00043708 -0.0010279
-0.020857 0.0050484 0.11145 0.33698 -0.0060875 0.016017 0.0016995 0.00018831
0.00087281 -0.001377 0.0012777 -0.00059528
0.0059541 -0.0018122 -0.0060208 0.016065 0.35486 0.0080628 -0.0012386 -0.0013413
0.00019002 -0.00028438 0.00069424 -0.00021608
-0.0015349 0.0017524 0.0017013 0.00016213 -0.0012664 -0.0013231 0.19882 0.17754
-0.016662 -0.0027579 -0.00070488 0.0020719
0.0021008 -0.00051941 0.00086405 -0.0014132 0.00014642 -0.00026301 -0.01666 -0.0027063
0.12355 0.21058 -0.012565 -0.0026541
-0.00044999 -0.0009846 0.0013006 -0.00065061 0.00069171 -0.00027145 -0.00067179 0.0020615
-0.012539 -0.0027513 0.15741 0.28294
1520000000 0.28203 0.11281 -0.015008 0.010839 0.0035751 -0.0043806 0.0001119 0.0025486
0.0021459 -0.0020536 -0.0013118 -8.6837e-05
-0.014991 0.010815 0.14476 0.32261 0.001917 0.013532 0.0016494 -0.00081137
5.8078e-05 -0.0011323 0.00032375 -0.0011022
0.0035371 -0.0044137 0.0019886 0.013548 0.34859 -0.047447 -0.0011525 -0.00036081
0.00062034 -0.00091232 0.00013347 -0.00033651
0.00015767 0.0025537 0.0016718 -0.00083768 -0.0010966 -0.00037816 0.22152 0.13932
-0.015653 0.0035772 0.0016517 0.0020207
0.0021052 -0.0021115 1.0066e-05 -0.0011323 0.00065299 -0.00096035 -0.015642 0.0036173
0.15141 0.19659 -0.012343 0.0021779
-0.0012853 -8.9998e-05 0.00026906 -0.0011156 4.9272e-05 -0.00036133 0.0016448 0.0020614
-0.012404 0.0022318 0.18982 0.26206
1580000000 0.29193 0.066892 -0.00789 0.013998 -0.00098189 -0.0050992 0.0014755 0.0019543
-0.00025008 -0.0021496 -0.00019533 0.00044431
-0.0079135 0.014013 0.17185 0.29806 0.0056409 0.0083556 0.00047319 -0.0016549
-0.00059664 -0.0010029 -0.0002895 -0.00087775
-0.0010288 -0.0051209 0.0056877 0.0083463 0.32943 -0.10473 -0.0016121 0.00062754
-0.00043684 -0.0011984 0.00026617 -0.00065693
0.0014748 0.001955 0.00046506 -0.0016523 -0.0016639 0.00067001 0.23477 0.099968
-0.01161 0.0085097 0.0021363 0.00070496
-0.00027446 -0.0021236 -0.00058437 -0.00103 -0.00046457 -0.0011663 -0.011602 0.0085047
0.17563 0.1783 -0.0094875 0.0078979
-0.00019134 0.00044416 -0.00030513 -0.00087829 0.00032318 -0.00063207 0.002131 0.00070428
-0.0095424 0.0079355 0.22142 0.23519
1640000000 0.29415 0.026118 -0.00088389 0.012589 -0.0029362 -0.0027071 0.0027667 0.001054
-0.00080567 -0.0015329 -0.00040241 0.0006118
-0.00090552 0.012571 0.20124 0.27369 0.0062704 0.0033245 -0.00066567 -0.001769
-0.0010515 -0.0003615 -0.00059248 -0.00065488
-0.0029969 -0.0026569 0.0062962 0.0033021 0.30169 -0.15392 -0.0006497 0.0015127
-0.001132 -0.00098715 -0.00025931 -0.00030125
0.0027443 0.0010424 -0.00070183 -0.0017833 -0.00064717 0.0014553 0.24662 0.05156
-0.0069208 0.0096117 0.0025351 -0.00081142
-0.00083006 -0.0015667 -0.0010554 -0.00034314 -0.0011328 -0.00098518 -0.006817 0.0096609
0.19848 0.1541 -0.0044918 0.0098601
-0.00038968 0.0006244 -0.00059717 -0.00066479 -0.00025416 -0.00033021 0.0025551 -0.00085224
-0.0044568 0.0097868 0.24656 0.20394
1700000000 0.28771 -0.018921 0.0025733 0.0093628 -0.003611 -3.095e-05 0.0031073 -0.0012815
-0.0020371 -0.00059096 0.00059807 0.00047482
0.0025796 0.0093682 0.21945 0.24278 0.0040698 0.0003039 -0.0015056 -0.00058034
-0.00078155 3.966e-05 -0.00090559 -0.00039753
-0.0035816 8.8141e-06 0.0040862 0.00029357 0.2587 -0.19405 0.00048533 0.0016697
-0.0018826 -8.2382e-06 -0.00051199 -0.00086226
0.0031298 -0.0013322 -0.0015038 -0.00058481 0.00044482 0.0016543 0.24334 0.0022439
-0.0037169 0.0097839 0.001534 -0.0022884
-0.0020332 -0.00059258 -0.0008033 8.1575e-05 -0.0019829 2.6933e-05 -0.0037651 0.0097712
0.21558 0.13347 0.00025699 0.0099752
0.00058965 0.00044947 -0.00089951 -0.0003614 -0.00046652 -0.00079607 0.0014805 -0.0022569
0.00023131 0.0099839 0.26265 0.16971
1760000000 0.27614 -0.067407 0.0047122 0.0058706 -0.0024006 0.0010412 0.0013262 -0.0034647
-0.0014253 0.0007521 0.00034044 -0.00056264
0.0046823 0.0058676 0.24568 0.2036 0.0016547 -0.0016165 -0.0012361 0.00024533
-0.0010569 0.00090769 -0.00054587 0.0004553
-0.0024394 0.0010501 0.0016465 -0.0016443 0.21098 -0.22782 0.0011398 0.0010799
-0.0012174 0.0015131 -0.0011246 -0.00045076
0.0013031 -0.0034606 -0.0012224 0.00023135 0.0011502 0.0011024 0.23456 -0.048679
-0.00056876 0.0085864 -0.00018473 -0.0024295
-0.0014066 0.0007864 -0.0010448 0.0009011 -0.0011807 0.0014886 -0.00053176 0.0086006
0.23025 0.098736 0.0041677 0.0073
0.00036158 -0.00054715 -0.00053408 0.00044232 -0.0011952 -0.00050601 -0.00021641 -0.0025171
0.0041741 0.007281 0.27535 0.13189
1820000000 0.25219 -0.10456 0.004517 0.0022671 -0.00034757 0.0025192 -0.0010612 -0.0031162
-0.0010347 0.00096101 -4.1103e-06 -0.00013683
0.0045112 0.0022718 0.25626 0.17395 -0.00075244 -0.00033415 -0.0012462 0.00093966
-4.1667e-05 0.0012081 -0.00055383 0.00051988
-0.00029511 0.0025711 -0.00077184 -0.00033465 0.15996 -0.24387 0.0016391 0.00029435
-9.1516e-05 0.0022883 -0.001442 0.00035754
-0.0010794 -0.0031907 -0.0012589 0.00094409 0.0015854 0.00027691 0.20527 -0.095317
0.00076564 0.0071146 -0.0018045 -0.0016732
-0.0010329 0.00095179 -6.847e-06 0.0011963 -0.0001074 0.0022335 0.00071208 0.0071559
0.24708 0.07014 0.0052194 0.003586
1.4962e-05 -0.00014288 -0.00054481 0.00051596 -0.0013843 0.00032719 -0.0018164 -0.0015802
0.0053088 0.0035083 0.2771 0.095517
1880000000 0.21782 -0.14542 0.0022185 -3.3047e-05 -0.00045823 0.0022475 -0.0028996 -0.0021449
-0.00017067 0.0018894 6.8426e-05 -0.00071457
0.0022585 2.1132e-05 0.26143 0.12765 -0.0025653 0.0016332 -0.00021175 0.0017581
0.0005876 0.0013404 0.0001816 0.00085531
-0.00046798 0.0022823 -0.0025303 0.0016526 0.10816 -0.25317 0.001692 -0.0008584
0.0015944 0.0019777 -0.0009576 0.0013341
-0.0028502 -0.0021037 -0.00018451 0.0017753 0.001715 -0.00087025 0.16526 -0.13593
0.001539 0.0051984 -0.0025562 0.00046824
-9.0841e-05 0.00191 0.00059014 0.0013368 0.0015723 0.0019709 0.0014709 0.0051389
0.25075 0.038787 0.0052003 0.001201
-3.5609e-05 -0.00068757 0.0001442 0.00082713 -0.0010699 0.0013095 -0.0025018 0.000432
0.0052003 0.0013015 0.27737 0.061346
1940000000 0.1787 -0.17117 -0.00025364 -0.001463 0.001161 0.0021311 -0.0036095 0.00042689
0.0013498 0.001046 -0.00058158 -0.00050392
-0.00029568 -0.0014101 0.26262 0.095887 -0.0014564 0.003988 0.0011504 0.0012255
0.0019074 0.00055942 0.0010092 0.0003744
0.0012654 0.0021476 -0.001463 0.0039854 0.06258 -0.24614 0.00033723 -0.0023281
0.0024216 0.00037593 0.00062387 0.001684
-0.0037072 0.00047369 0.0011516 0.0012105 0.00042886 -0.0023682 0.11328 -0.16655
0.00070025 0.0039025 -0.0015549 0.0017397
0.0014015 0.0011012 0.0019189 0.00051126 0.0024696 0.00036403 0.00077042 0.0039383
0.25353 0.00088087 0.0037698 -0.0021409
-0.00051809 -0.00049127 0.0010485 0.00035595 0.00066536 0.0017306 -0.0014808 0.0017301
0.0038231 -0.0021072 0.26591 0.025147
2000000000 0.13262 -0.18672 -0.0038421 0.00060932 0.0027706 0.0015694 -0.0023954 0.0037836
0.0012052 0.00037196 -0.00059288 0.00069103
-0.0038784 0.00055635 0.24909 0.060109 -0.00090718 0.0057788 0.0015569 0.00039904
0.0013749 -0.0011421 0.00046012 0.0001644
0.0027103 0.0014743 -0.00089497 0.0057913 0.019223 -0.23269 -0.0012013 -0.0014889
0.0020741 -0.0012474 0.0015286 0.0014515
-0.0023386 0.0036765 0.0016509 0.000399 -0.0012718 -0.0013885 0.060037 -0.1773
-0.0003933 0.0038096 -8.6126e-05 0.0022751
0.0011461 0.00036443 0.0013664 -0.0011297 0.0020632 -0.0011506 -0.00040025 0.0037285
0.24866 -0.031913 0.00056037 -0.0031671
