!Keysight Technologies,M9804A,MY58100912,A.14.10.03
!Date: Thursday, April 27, 2023 10:28:33
!Correction: S11(C  6-Port  ) 
!S12(C  6-Port  ) 
!S13(C  6-Port  ) 
!S14(C  6-Port  ) 
!S15(C  6-Port  ) 
!S16(C  6-Port  ) 
!S21(C  6-Port  ) 
!S22(C  6-Port  ) 
!S23(C  6-Port  ) 
!S24(C  6-Port  ) 
!S25(C  6-Port  ) 
!S26(C  6-Port  ) 
!S31(C  6-Port  ) 
!S32(C  6-Port  ) 
!S33(C  6-Port  ) 
!S34(C  6-Port  ) 
!S35(C  6-Port  ) 
!S36(C  6-Port  ) 
!S41(C  6-Port  ) 
!S42(C  6-Port  ) 
!S43(C  6-Port  ) 
!S44(C  6-Port  ) 
!S45(C  6-Port  ) 
!S46(C  6-Port  ) 
!S51(C  6-Port  ) 
!S52(C  6-Port  ) 
!S53(C  6-Port  ) 
!S54(C  6-Port  ) 
!S55(C  6-Port  ) 
!S56(C  6-Port  ) 
!S61(C  6-Port  ) 
!S62(C  6-Port  ) 
!S63(C  6-Port  ) 
!S64(C  6-Port  ) 
!S65(C  6-Port  ) 
!S66(C  6-Port  ) 
!S6P File: Measurement: :
# Hz S  RI   R 50
500000000 -0.33474 -0.052734 -0.010083 -0.0013771 -0.0082003 0.013379 -0.0054681 0.012129
0.013276 0.0048183 -0.0054238 0.0080472
-0.0099581 -0.0014544 -0.41699 -0.062688 0.0080906 -0.01018 0.0011895 0.012075
0.0079567 0.0027973 0.00090063 0.013393
-0.0082338 0.013347 0.00807 -0.010395 -0.26672 0.19975 0.006557 0.0035988
-0.0016744 0.0086758 0.00049842 0.012432
-0.0050728 0.012109 0.0011574 0.012565 0.0066826 0.003635 -0.33097 0.044291
-0.018387 -0.0050792 0.0171 0.026106
0.013354 0.0046403 0.0080906 0.0024299 -0.0018056 0.00883 -0.018362 -0.0048591
-0.24748 -0.19205 -0.026308 0.0054319
-0.0051599 0.0081864 0.00086688 0.014414 0.00033329 0.012384 0.017322 0.025495
-0.025171 0.0050307 -0.27234 -0.11821
560000000 -0.31705 0.11344 -0.022865 -0.064286 -5.024e-05 0.012618 0.0045147 0.010431
0.01103 0.0042429 0.010231 0.0087217
-0.022827 -0.064198 -0.37633 0.099082 -0.041521 -0.03803 0.013465 0.0036515
-0.01259 -0.0044822 0.0040791 -0.00050046
6.705e-05 0.012634 -0.04137 -0.03783 -0.18496 0.25104 -0.00041176 -0.0049892
0.01892 0.0056273 0.0074111 -0.0059989
0.0046338 0.010809 0.013226 0.0030309 -0.0001699 -0.0049366 -0.30723 0.13629
0.004949 -0.023801 0.0043856 -0.021539
0.011259 0.0046867 -0.013541 -0.0040415 0.018817 0.0056128 0.0051664 -0.02394
-0.31047 -0.013156 0.0092051 -0.048404
0.009836 0.0083944 0.0044166 -0.0010636 0.0079032 -0.0059842 0.0047748 -0.022257
0.0087809 -0.048196 -0.33257 0.025346
620000000 -0.27795 0.094562 -0.023291 0.0087633 0.0035677 0.0095231 0.0085979 -0.0048152
0.011748 -0.0017252 0.0011693 -0.0023327
-0.02334 0.0087528 -0.40357 0.050309 -0.018464 0.00088359 -0.0013866 -0.0022959
0.011975 -0.0062157 0.0013525 -0.0030576
0.0035987 0.0095199 -0.018388 0.00091471 -0.15521 0.26043 -0.00076511 -0.0050857
-0.0031522 -0.0031369 0.0091814 -0.0029488
0.0084971 -0.0041548 -0.0014241 -0.0022824 -0.00092075 -0.0052042 -0.266 0.14729
-0.038356 -0.020127 0.012079 0.026044
0.011681 -0.0020262 0.012028 -0.0059798 -0.0030567 -0.0028647 -0.038091 -0.020475
-0.23216 -0.046566 -0.039994 0.012802
0.00070347 -0.00087658 0.0016173 -0.0031597 0.0090315 -0.0031533 0.011779 0.026454
-0.039653 0.012591 -0.25276 -0.0063728
680000000 -0.23884 0.18421 -0.026249 -0.014221 0.0053851 0.0054107 0.0017417 -0.0078972
-0.0016145 -0.011707 0.0052087 -0.0073353
-0.026222 -0.014205 -0.38969 0.15086 -0.032397 -0.0019261 -0.0011238 -0.00084548
-0.001617 -0.0091763 -0.00079871 -0.0019406
0.0053351 0.0054549 -0.03242 -0.001835 -0.10366 0.28103 -0.00058917 -0.00040169
-0.0018066 9.1164e-05 -0.0032015 -0.009269
0.001411 -0.007836 -0.0012719 -0.00098572 -0.00070426 -0.00055569 -0.22096 0.19792
-0.023647 -0.008232 -0.0087755 -0.011447
-0.0015692 -0.011717 -0.0016198 -0.0091683 -0.0017166 8.5319e-05 -0.023712 -0.0083296
-0.27884 0.055739 -0.0085952 -0.0081548
0.0050256 -0.0080009 -0.00073733 -0.0019492 -0.0029293 -0.0094789 -0.0090234 -0.01109
-0.0077829 -0.0079238 -0.25972 0.097538
740000000 -0.19331 0.17812 -0.039549 0.026309 0.013654 -0.0048354 -0.00058226 -0.0039675
-0.0046785 -0.0037352 -0.0068676 0.0032721
-0.039448 0.026277 -0.3355 0.16902 -0.036414 0.034519 -0.00012216 -0.0061057
-0.012534 0.0073951 -0.0014864 -0.0056127
0.013762 -0.0047553 -0.036209 0.034668 -0.069723 0.27847 -0.0020605 0.003295
-0.0029556 -0.0066876 -0.0016273 0.0013692
-0.00031271 -0.0040159 -0.00041029 -0.0062455 -0.0019643 0.0032433 -0.20358 0.20473
-0.043059 -0.0076574 0.02232 0.015089
-0.004858 -0.004277 -0.012221 0.007846 -0.003096 -0.0061226 -0.042471 -0.0072833
-0.18068 0.083642 -0.040789 -9.3486e-05
-0.0065942 0.0039121 -0.0016442 -0.0062452 -0.0014131 0.0015438 0.022708 0.014586
-0.041722 0.00045137 -0.24863 0.10369
800000000 -0.16152 0.22117 -0.022571 0.016 0.005615 -0.010527 -0.0043472 -0.0019576
-0.0049164 0.0022228 0.0044226 0.00059599
-0.022506 0.015959 -0.34081 0.23988 -0.0085832 0.034106 -0.0026093 0.0021483
-0.0014623 0.002873 0.00086055 0.0051579
0.0056374 -0.010544 -0.0084469 0.03417 -0.031065 0.30252 0.00083831 0.0016101
3.5388e-06 0.0035556 -0.0017286 0.0010854
-0.0043344 -0.001927 -0.0025615 0.0020227 0.00081974 0.0015966 -0.17378 0.23272
-0.028993 0.012904 0.013509 -0.010181
-0.0049759 0.0021057 -0.001499 0.0030003 -3.3265e-05 0.0035644 -0.029275 0.013346
-0.22015 0.1124 -0.016959 0.019451
0.0044456 0.00022545 0.001018 0.0050019 -0.0018721 0.0010997 0.014178 -0.010012
-0.017472 0.019025 -0.24027 0.15136
860000000 -0.12689 0.24158 -0.017705 0.030769 -0.0029754 -0.010222 -0.0015962 0.00075305
0.004031 0.0054894 -0.0033731 -0.0030475
-0.017618 0.030744 -0.29234 0.28289 0.0074392 0.034562 0.00040291 0.0020083
0.0038002 0.0010201 0.0033167 0.00022639
-0.0029986 -0.010183 0.0075932 0.034578 0.016324 0.3109 -0.00060128 -7.3501e-06
0.0022084 -0.0010837 0.0016 0.0039694
-0.0015112 0.00082032 0.00045331 0.0020842 -0.00062743 6.3461e-06 -0.13689 0.24335
-0.018225 0.018061 -0.0057998 -0.0090817
0.00404 0.0056686 0.0038786 0.00099372 0.0022443 -0.0010998 -0.018436 0.018093
-0.16422 0.16303 -0.023859 0.016605
-0.0031888 -0.0026875 0.0029386 0.00022731 0.0016643 0.0040008 -0.0054361 -0.0086065
-0.02387 0.016486 -0.18935 0.19572
920000000 -0.10307 0.26482 0.0047276 0.038327 -0.0092535 -0.0050231 -0.001862 0.0018491
0.0017914 0.0017719 0.0028702 -0.0015975
0.0046876 0.038331 -0.26526 0.30411 0.028157 0.022797 0.001592 0.0014366
0.0078299 -0.00050877 0.0042026 -0.0025418
-0.0092847 -0.004975 0.028248 0.022767 0.061953 0.31229 0.0019721 5.2966e-05
0.0014 -0.00054723 0.00093554 -0.0011454
-0.0018589 0.0018568 0.0015169 0.0014582 0.0019391 6.7893e-05 -0.11302 0.2599
-0.010874 0.030682 0.0033836 -0.0066685
0.0018157 0.0016363 0.0078236 -0.00048654 0.0013261 -0.00052191 -0.010988 0.030495
-0.15246 0.1668 -0.0022067 0.026321
0.0026641 -0.0016694 0.0039748 -0.002503 0.00073264 -0.0011719 0.0032535 -0.0064248
-0.0020962 0.026359 -0.19627 0.21024
980000000 -0.056727 0.28473 0.016905 0.030158 -0.0094271 0.004153 0.0017119 0.0032907
0.0037253 -0.0018661 -0.0030477 -0.0021942
0.016946 0.030177 -0.2121 0.33859 0.033499 0.0053884 0.0019672 -0.00026565
0.0017208 -0.0061704 -0.00016551 -0.0024054
-0.009378 0.0041896 0.033536 0.005264 0.10784 0.30658 0.00072671 -0.001222
0.00054029 -0.0020045 0.0015761 -0.00022016
0.0017911 0.0033353 0.0019572 -0.00023328 0.00073864 -0.0012268 -0.074665 0.27094
0.0070986 0.030168 -0.0088579 -0.0066637
0.0037033 -0.0018695 0.0017796 -0.0061267 0.00055802 -0.0019298 0.0073037 0.03022
-0.11887 0.19736 0.006199 0.019365
-0.0028766 -0.0022121 -0.00012718 -0.0023913 0.0016992 -0.00018821 -0.0088401 -0.0067191
0.0060739 0.019566 -0.15297 0.25324
1040000000 -0.015307 0.29382 0.032853 0.019126 -0.0016901 0.0071342 0.0026232 0.00080218
0.00038353 -0.003472 -0.00028667 -0.0017053
0.032854 0.019114 -0.17723 0.35213 0.03001 -0.014589 0.0015342 -0.0017291
-0.0020035 -0.0027475 -0.0011042 -0.0028991
-0.0016643 0.0071318 0.029945 -0.01471 0.15374 0.29363 -0.00041964 -0.0016504
-0.0014498 -0.00098019 -0.00055876 -0.0010807
0.0027079 0.00086571 0.0015277 -0.0016566 -0.00041529 -0.0016416 -0.047134 0.28077
0.019673 0.018666 -0.0025332 0.0011355
0.0002803 -0.0034516 -0.0021671 -0.002798 -0.0014521 -0.0010399 0.019617 0.018673
-0.084931 0.20377 0.014251 0.017663
-0.00016005 -0.0017352 -0.0010067 -0.0028888 -0.00055857 -0.001107 -0.0026216 0.0012505
0.013872 0.017407 -0.13017 0.27369
1100000000 0.029724 0.30263 0.036487 -0.0035608 0.0027982 0.0042441 0.0024314 -0.0010907
-0.0021859 -0.0029323 -0.0039664 -9.828e-05
0.036419 -0.0035457 -0.13394 0.37016 0.015901 -0.028014 0.0001144 -0.0018624
-0.0036678 -0.00084083 -0.0036029 -0.00059244
0.0028286 0.0042549 0.015825 -0.028107 0.19994 0.2742 -0.0019457 6.1403e-05
-0.0018015 0.00043653 -0.0012293 -0.00054005
0.002457 -0.0010881 7.2114e-05 -0.0019166 -0.001942 6.6753e-05 -0.006631 0.28578
0.025385 0.0054727 -0.0023645 0.00019333
-0.0021093 -0.0029346 -0.0036655 -0.00083452 -0.0018374 0.00047923 0.02526 0.0055461
-0.064802 0.21671 0.019899 0.0083716
-0.004013 1.7945e-05 -0.003563 -0.00057998 -0.0012174 -0.00051528 -0.0024362 0.00024276
0.019897 0.0081486 -0.084197 0.30164
1160000000 0.080561 0.2988 0.024499 -0.020641 0.0028478 -0.00039171 -8.2533e-05 -0.0024416
-0.0039952 -0.00081583 -0.00092062 0.0042034
0.024448 -0.020633 -0.090656 0.37474 -0.0033523 -0.029676 -0.0015934 -0.0017324
-0.0027711 0.0025563 -0.0015735 0.0019664
0.0028429 -0.00040154 -0.0034991 -0.02969 0.24318 0.24404 -0.00087157 0.0018385
-0.00069137 0.0019587 -0.00084318 0.00029155
-8.4493e-05 -0.002424 -0.0015408 -0.0017225 -0.00086912 0.0018226 0.032647 0.28289
0.021725 -0.010566 -0.0031188 0.0051437
-0.0039858 -0.00081679 -0.0027981 0.0026737 -0.00070171 0.0019893 0.021708 -0.010659
-0.030421 0.22371 0.018346 -0.00098502
-0.00097695 0.0041557 -0.0015851 0.0020475 -0.00087453 0.00030574 -0.0032335 0.0050636
0.018411 -0.00093503 -0.037242 0.30509
1220000000 0.1247 0.28891 0.011037 -0.030304 -0.0015889 -0.00092196 5.2854e-05 -0.00097109
-0.0026978 0.0021811 0.0011344 0.0020617
0.011036 -0.03028 -0.046469 0.38781 -0.017046 -0.021958 -0.0026499 0.00048602
-1.7837e-05 0.0031945 -0.00078139 0.0019826
-0.0015875 -0.00092396 -0.017162 -0.021918 0.28241 0.20558 0.00076155 0.0017866
0.0006421 0.0012968 0.00031453 0.00057625
0.0001197 -0.00095768 -0.0026529 0.0005012 0.00073906 0.0017847 0.072881 0.27423
0.011037 -0.017645 0.0019561 0.0013971
-0.0026432 0.0022261 -3.9923e-05 0.0031792 0.00058658 0.0012387 0.010964 -0.017638
-0.0067265 0.23206 0.013735 -0.013578
0.0010755 0.0020595 -0.00078501 0.0019411 0.00020695 0.00059682 0.0020587 0.0013802
0.013699 -0.013403 -0.005626 0.319
1280000000 0.17496 0.2684 -0.0077811 -0.028963 -0.0020386 0.0025165 -0.00075726 -0.0020588
-0.00079067 0.0032987 0.0025392 0.0013997
-0.0077601 -0.028914 -0.00039705 0.37946 -0.024301 -0.0089921 -0.00098356 0.0015022
0.0017575 0.0018083 0.00062577 0.0020685
-0.0020637 0.0025146 -0.024381 -0.0088934 0.31313 0.16213 0.0015979 5.9108e-05
0.0012853 0.00034413 0.00029522 0.00024021
-0.00079131 -0.0020726 -0.00099566 0.00151 0.0016131 5.4485e-05 0.1099 0.25796
0.001024 -0.019936 -0.00018355 0.00021531
-0.00077919 0.003214 0.0017471 0.0018081 0.0012802 0.00029887 0.00097887 -0.019942
0.029892 0.23469 0.0028178 -0.015619
0.0025246 0.0013665 0.00062101 0.002054 0.00031842 0.00020998 -0.00016228 0.00028752
0.0027995 -0.015577 0.041513 0.32056
1340000000 0.21247 0.23559 -0.017785 -0.019268 0.00078107 0.0048047 -0.0017829 -0.00086494
0.0014119 0.0026553 0.0018404 -0.0013758
-0.017725 -0.019249 0.039125 0.3718 -0.022121 0.0041499 -5.4339e-05 0.002061
0.0020518 0.00080296 0.0012277 0.00076861
0.000811 0.0047967 -0.022121 0.0042491 0.33524 0.11496 0.0011238 -0.00091916
0.00060058 -0.00059283 -2.1985e-06 0.00021761
-0.0017916 -0.00090997 -6.5194e-05 0.0020049 0.0011168 -0.00093109 0.14289 0.237
-0.008808 -0.017154 0.00077862 0.00063866
0.0014019 0.0026298 0.0020679 0.00078433 0.00061122 -0.00059216 -0.0088422 -0.017164
0.059908 0.22997 -0.0042687 -0.014077
0.0018234 -0.0013651 0.0012822 0.00077842 0.00010237 0.00034492 0.00075333 0.00061317
-0.0041352 -0.014105 0.079595 0.31521
1400000000 0.24637 0.19819 -0.023724 -0.0075725 0.0053901 0.0034439 -0.002255 0.00061136
0.0024469 0.00096489 0.00034831 -0.0016458
-0.023682 -0.0075793 0.076668 0.35937 -0.015397 0.012699 0.0013885 0.0013276
0.0013049 -0.0008343 0.0012027 0.00010326
0.0054117 0.0034389 -0.015335 0.012801 0.34859 0.062044 4.7426e-05 -0.0016364
0.00011291 -0.0004782 0.00039575 0.00019334
-0.0022117 0.00060662 0.0014165 0.001308 5.6555e-05 -0.0016558 0.17251 0.20792
-0.014993 -0.010039 -0.00083264 -6.9363e-05
0.0024387 0.00097106 0.0012763 -0.00084425 0.00011444 -0.00041563 -0.015 -0.0099876
0.092866 0.22499 -0.010598 -0.0086306
0.00032965 -0.0016022 0.0012062 0.00010562 0.00039095 0.00017617 -0.00075295 -0.00013254
-0.010556 -0.008633 0.12349 0.30376
1460000000 0.26988 0.15453 -0.020575 0.0048968 0.0060011 -0.0017823 -0.001578 0.0017492
0.0021743 -0.00049912 -0.00030768 -0.00092254
-0.020559 0.0048628 0.11116 0.33775 -0.0062819 0.015868 0.0017267 0.00015262
0.00087152 -0.0014029 0.0012587 -0.00063587
0.00596 -0.0018051 -0.0061987 0.01589 0.35538 0.0082625 -0.001258 -0.0012871
0.00013924 -0.00028236 0.00074883 -0.00017883
-0.0016021 0.0017682 0.0017207 0.00013949 -0.0012697 -0.0013205 0.19899 0.1783
-0.016231 -0.003197 -0.00079127 0.0020547
0.0021294 -0.00049697 0.00089844 -0.0014146 0.00015391 -0.00025568 -0.016222 -0.0031429
0.12226 0.21044 -0.012344 -0.0026311
-0.00037665 -0.00095633 0.0012424 -0.00064667 0.00076932 -0.00019249 -0.00078743 0.0020807
-0.012312 -0.0026281 0.15683 0.28295
1520000000 0.28258 0.11301 -0.014819 0.010454 0.0035539 -0.0043637 0.00011704 0.0026184
0.0021191 -0.0019411 -0.0011714 -0.00014047
-0.014812 0.010446 0.14489 0.32348 0.0017007 0.013566 0.001625 -0.00078724
1.2685e-05 -0.0011356 0.00032775 -0.001104
0.0035555 -0.0043824 0.0017724 0.013589 0.34919 -0.047586 -0.0010987 -0.0004228
0.00069321 -0.00087364 -2.3486e-05 -0.0002649
9.3421e-05 0.0025728 0.0016456 -0.00078496 -0.0010944 -0.00040209 0.22192 0.13986
-0.015438 0.0029236 0.0016443 0.0021457
0.0021061 -0.0020006 3.9123e-06 -0.0011301 0.00066608 -0.00091975 -0.015453 0.0029754
0.15035 0.19702 -0.012044 0.0019583
-0.0011348 -7.8701e-05 0.00032919 -0.001071 1.6168e-05 -0.00025323 0.0016801 0.002102
-0.011958 0.0019686 0.18945 0.26226
1580000000 0.29264 0.06687 -0.007972 0.013623 -0.00093885 -0.005131 0.0015273 0.0019242
-0.0001747 -0.0022378 -0.00025506 0.00033836
-0.0079687 0.013585 0.17246 0.29896 0.0055487 0.0084981 0.00052129 -0.0015894
-0.00058084 -0.0010396 -0.00017427 -0.00086563
-0.00097146 -0.0051871 0.0056214 0.0084631 0.32973 -0.10515 -0.0016288 0.00057525
-0.00026508 -0.0011713 0.00027078 -0.00051845
0.0015412 0.0019324 0.00052239 -0.0015921 -0.0016365 0.00059939 0.23555 0.10034
-0.011862 0.0078698 0.0021577 0.00063491
-0.00017776 -0.0022263 -0.00061038 -0.0010465 -0.00027 -0.0012068 -0.011831 0.007885
0.17455 0.17888 -0.009348 0.0075618
-0.00025673 0.0003498 -0.00019306 -0.00086606 0.00027654 -0.00049367 0.0021942 0.00064758
-0.0093732 0.007652 0.22083 0.23515
1640000000 0.29509 0.025747 -0.0011914 0.01233 -0.0029169 -0.0027601 0.0027375 0.0010407
-0.00079752 -0.0016456 -0.00036982 0.0006299
-0.0012034 0.012332 0.20229 0.27424 0.0063206 0.003439 -0.00061904 -0.0017886
-0.0010327 -0.00039924 -0.00059265 -0.00067062
-0.0029595 -0.0026838 0.0063195 0.0033934 0.30183 -0.15456 -0.000689 0.0015212
-0.0011175 -0.00098022 -0.00021987 -0.00035015
0.0027352 0.0010783 -0.00065251 -0.0017798 -0.00072441 0.0015093 0.24778 0.051523
-0.0073805 0.0093889 0.002567 -0.00080674
-0.00085282 -0.0016058 -0.0010494 -0.00038429 -0.0011301 -0.0010075 -0.0073648 0.0094499
0.19777 0.15496 -0.0045319 0.0095331
-0.00034082 0.00060054 -0.00061069 -0.00068615 -0.00020088 -0.00029235 0.0024869 -0.00084585
-0.0044943 0.0094803 0.24638 0.20419
1700000000 0.28818 -0.019507 0.0021928 0.0093772 -0.003757 -1.0868e-05 0.0031552 -0.0012465
-0.0020484 -0.00064879 0.00058931 0.00046613
0.0021829 0.00936 0.22067 0.2429 0.0041394 0.00037499 -0.0014984 -0.00061846
-0.00082505 3.986e-05 -0.00097007 -0.00043897
-0.0037189 -4.8605e-05 0.0041728 0.00034261 0.25869 -0.19448 0.00051188 0.001614
-0.0019697 -0.00011557 -0.00047003 -0.00098696
0.0031585 -0.0013205 -0.0014938 -0.00062658 0.00050542 0.00165 0.24424 0.0015385
-0.0043853 0.0098673 0.0015979 -0.0023069
-0.0020534 -0.00064613 -0.00081777 4.4301e-05 -0.0019639 -8.4522e-05 -0.0043741 0.0098626
0.21507 0.13437 0.00013743 0.009726
0.00062053 0.00050684 -0.00093653 -0.00040472 -0.00052139 -0.00098644 0.0016535 -0.0022826
7.0331e-05 0.0097605 0.26227 0.16995
1760000000 0.27653 -0.068333 0.0044504 0.006026 -0.0024566 0.00094231 0.0012844 -0.0034276
-0.0014519 0.00070152 0.00034711 -0.00044832
0.0044574 0.0060262 0.24693 0.20322 0.0017729 -0.0016382 -0.0012185 0.00018382
-0.0010585 0.0009097 -0.000657 0.00036968
-0.0024575 0.0010232 0.001754 -0.0016732 0.21068 -0.2281 0.0011383 0.0010806
-0.0012964 0.0015214 -0.0012895 -0.00062733
0.0012873 -0.0034008 -0.0012347 0.00020607 0.0011406 0.0010473 0.23517 -0.049513
-0.0010018 0.0090137 -0.00024037 -0.0025861
-0.0014567 0.0007364 -0.0010574 0.00093334 -0.001369 0.0015768 -0.0010057 0.009014
0.23008 0.099809 0.0039695 0.0071494
0.00035931 -0.00053404 -0.00063215 0.00040219 -0.0012771 -0.00058259 -0.00023999 -0.0026283
0.0039826 0.0070801 0.27485 0.13204
1820000000 0.25213 -0.10566 0.0044737 0.0024172 -0.00033648 0.0025359 -0.0010013 -0.0031561
-0.0010933 0.0010604 -2.4086e-05 -0.00010921
0.0044571 0.0024402 0.25731 0.17315 -0.000652 -0.00044039 -0.0013411 0.00095178
-7.4796e-05 0.0012566 -0.00058358 0.00058403
-0.00033989 0.0025609 -0.00066589 -0.00042414 0.15978 -0.24421 0.0016531 0.00027359
-0.00019157 0.0023911 -0.0014678 0.00038132
-0.0010243 -0.0031354 -0.001339 0.00094232 0.0016175 0.00028666 0.20515 -0.096724
0.00060291 0.0074878 -0.0016878 -0.0014998
-0.0010606 0.0010785 -6.1319e-05 0.0012369 -0.00016354 0.0023396 0.00069208 0.0075138
0.24707 0.070948 0.004852 0.0037622
-9.0327e-06 -7.3455e-05 -0.00059889 0.00053981 -0.0013844 0.00039716 -0.0015987 -0.0015282
0.0048872 0.003716 0.27655 0.096085
1880000000 0.21708 -0.14615 0.0022134 0.00021975 -0.00063946 0.002266 -0.0029131 -0.0022436
-0.00015534 0.0018258 8.7387e-05 -0.0006238
0.0021744 0.00019669 0.26199 0.12664 -0.0027212 0.0015496 -0.00020541 0.0017898
0.00058275 0.0013641 0.00016148 0.00098533
-0.00062917 0.0023094 -0.0026928 0.0015862 0.10756 -0.25328 0.0017184 -0.000765
0.0015394 0.0020988 -0.00095935 0.0014851
-0.0028715 -0.0022149 -0.00020098 0.0017774 0.0017877 -0.00079416 0.16456 -0.1365
0.0016035 0.0054967 -0.0024535 0.00031103
-0.00014486 0.0018576 0.00061586 0.0013671 0.0015668 0.0020742 0.0015875 0.0054789
0.25101 0.039542 0.0050859 0.0014367
0.00013905 -0.00052501 0.00012752 0.00097894 -0.0010926 0.0014556 -0.0024413 0.00042606
0.0051248 0.0014597 0.27665 0.062121
1940000000 0.17791 -0.17167 -0.00027768 -0.0013017 0.0013731 0.0022622 -0.0036712 0.00054948
0.0015196 0.0011316 -0.00043072 -0.00043468
-0.00024898 -0.0012928 0.26275 0.094746 -0.0014885 0.0041098 0.0011159 0.0013635
0.001948 0.0005583 0.0010545 0.00043815
0.0013303 0.0022674 -0.0014841 0.0040924 0.062203 -0.24595 0.00057406 -0.0021446
0.0024327 0.00038687 0.0005001 0.0016771
-0.0036978 0.00055767 0.0011256 0.0013779 0.00055548 -0.0021868 0.1126 -0.16701
0.00096828 0.0042563 -0.0016775 0.0018444
0.0014331 0.0011158 0.0019119 0.00054119 0.0024371 0.00037505 0.0010148 0.0042887
0.25391 0.0014844 0.0036662 -0.0018408
-0.00059012 -0.00051633 0.0010521 0.00034921 0.0006823 0.0017344 -0.0016839 0.0018254
0.0037143 -0.0017491 0.26571 0.026005
2000000000 0.13213 -0.18655 -0.0038088 0.00080534 0.002727 0.0016506 -0.0022948 0.0038205
0.0011862 0.00036003 -0.00065297 0.00052158
-0.0038148 0.00076002 0.24878 0.059118 -0.00094594 0.0059518 0.0016572 0.00041927
0.0014081 -0.0011265 0.00048487 0.00014037
0.0026905 0.0015544 -0.00090688 0.0059368 0.01912 -0.2325 -0.0011788 -0.0014168
0.0021568 -0.0012144 0.0016314 0.0013788
-0.0023219 0.0037715 0.001658 0.00039004 -0.0011732 -0.0014481 0.058868 -0.17717
-0.00022658 0.0036953 7.3465e-05 0.0023202
0.0012314 0.0002732 0.0014355 -0.0011111 0.0021776 -0.0012558 -0.00029723 0.0036655
0.24931 -0.031716 0.00075917 -0.0027135
