!Keysight Technologies,M9804A,MY58100912,A.14.10.03
!Date: Thursday, April 27, 2023 10:28:33
!Correction: S11(C  6-Port  ) 
!S12(C  6-Port  ) 
!S13(C  6-Port  ) 
!S14(C  6-Port  ) 
!S15(C  6-Port  ) 
!S16(C  6-Port  ) 
!S21(C  6-Port  ) 
!S22(C  6-Port  ) 
!S23(C  6-Port  ) 
!S24(C  6-Port  ) 
!S25(C  6-Port  ) 
!S26(C  6-Port  ) 
!S31(C  6-Port  ) 
!S32(C  6-Port  ) 
!S33(C  6-Port  ) 
!S34(C  6-Port  ) 
!S35(C  6-Port  ) 
!S36(C  6-Port  ) 
!S41(C  6-Port  ) 
!S42(C  6-Port  ) 
!S43(C  6-Port  ) 
!S44(C  6-Port  ) 
!S45(C  6-Port  ) 
!S46(C  6-Port  ) 
!S51(C  6-Port  ) 
!S52(C  6-Port  ) 
!S53(C  6-Port  ) 
!S54(C  6-Port  ) 
!S55(C  6-Port  ) 
!S56(C  6-Port  ) 
!S61(C  6-Port  ) 
!S62(C  6-Port  ) 
!S63(C  6-Port  ) 
!S64(C  6-Port  ) 
!S65(C  6-Port  ) 
!S66(C  6-Port  ) 
!S6P File: Measurement: :
# Hz S  RI   R 50
500000000 -0.33458 -0.052715 -0.0095234 -0.001642 -0.007919 0.013015 -0.0047162 0.012412
0.01256 0.0045717 -0.0051616 0.0082669
-0.0095482 -0.0017054 -0.41618 -0.062859 0.0082631 -0.010609 0.0011935 0.011595
0.0084804 0.0031785 0.00099885 0.013948
-0.0079619 0.013075 0.0081716 -0.010596 -0.26674 0.19991 0.006741 0.0035434
-0.0013575 0.0083804 0.00033406 0.012395
-0.0049947 0.012058 0.0012355 0.012396 0.0064911 0.003315 -0.33156 0.044796
-0.018406 -0.0047402 0.017107 0.026047
0.012486 0.0046365 0.0081206 0.0024294 -0.0013023 0.008304 -0.01888 -0.0052482
-0.24878 -0.19108 -0.025334 0.0044106
-0.0053984 0.0078467 0.0010314 0.014153 0.00011531 0.01209 0.016812 0.025845
-0.025919 0.0054238 -0.27243 -0.11872
560000000 -0.31771 0.1132 -0.022817 -0.064453 4.9936e-05 0.012543 0.0052366 0.010804
0.0106 0.0046411 0.010514 0.0082351
-0.023007 -0.064436 -0.37581 0.099551 -0.041994 -0.036582 0.013142 0.0034217
-0.014037 -0.0038046 0.0039834 -0.0010474
-5.559e-05 0.01284 -0.042337 -0.037272 -0.18591 0.25039 -0.00015347 -0.0048047
0.018251 0.0045866 0.0078771 -0.0060269
0.0047165 0.010722 0.013289 0.0031624 -0.00026573 -0.0048598 -0.30714 0.13577
0.0057173 -0.023693 0.0040271 -0.021144
0.010377 0.0043904 -0.013407 -0.004494 0.018461 0.0044373 0.0057831 -0.023736
-0.31005 -0.013071 0.0093596 -0.048493
0.010007 0.0079612 0.0040503 -0.00076749 0.0086933 -0.0060529 0.004725 -0.021555
0.0082751 -0.048167 -0.33162 0.027045
620000000 -0.27816 0.094519 -0.023248 0.0085978 0.0033812 0.0095985 0.0084396 -0.0043649
0.012 -0.0010001 0.0010452 -0.0019249
-0.023264 0.0085991 -0.40366 0.050195 -0.018501 0.00099306 -0.0012095 -0.0019879
0.01197 -0.0061633 0.0011949 -0.0029779
0.0034737 0.009592 -0.01854 0.00092469 -0.1553 0.26053 -0.00051024 -0.0054865
-0.0035897 -0.0023294 0.0093331 -0.0029248
0.0086285 -0.0045572 -0.0012829 -0.0020408 -0.00047245 -0.0053687 -0.26537 0.14619
-0.038956 -0.019564 0.012906 0.026463
0.011722 -0.0012473 0.01201 -0.0062824 -0.0036644 -0.0024611 -0.038651 -0.019557
-0.23007 -0.047202 -0.040181 0.012511
0.001201 -0.0019476 0.0012749 -0.002965 0.0098807 -0.0032249 0.013639 0.025989
-0.041376 0.012914 -0.25182 -0.0055012
680000000 -0.2381 0.18453 -0.026133 -0.014085 0.0052992 0.0054285 0.0017966 -0.0077625
-0.0018101 -0.011724 0.0055543 -0.008141
-0.026181 -0.014192 -0.38957 0.15096 -0.032291 -0.0018761 -0.0012216 -0.00064575
-0.0016769 -0.0092456 -0.00056583 -0.0022673
0.0053853 0.0054448 -0.032348 -0.0017693 -0.10359 0.28096 -0.00047488 -0.0006167
-0.0020461 0.00021939 -0.0030122 -0.0092922
0.0015922 -0.0073736 -0.0014862 -0.00091362 -0.00049799 -0.00055085 -0.22014 0.19821
-0.024074 -0.0082564 -0.0091571 -0.011209
-0.0015126 -0.011699 -0.001803 -0.0091494 -0.0020228 0.00018394 -0.023865 -0.0080313
-0.27811 0.055575 -0.0082277 -0.0082208
0.0052622 -0.0082239 -0.00052744 -0.0021559 -0.0029211 -0.0093167 -0.0090657 -0.011142
-0.0087341 -0.0081437 -0.26104 0.0963
740000000 -0.19312 0.17798 -0.03968 0.026807 0.013825 -0.0050965 -0.00051552 -0.0039456
-0.0045173 -0.0037705 -0.0067664 0.0037384
-0.039588 0.026682 -0.33493 0.16973 -0.036641 0.034494 -0.00044893 -0.0060524
-0.012435 0.007148 -0.00089893 -0.0061727
0.013802 -0.0051098 -0.036686 0.034849 -0.069787 0.27843 -0.001903 0.0032041
-0.0033649 -0.0065269 -0.0017446 0.0017512
-0.00047465 -0.0038146 -0.00011786 -0.0059435 -0.0018379 0.003208 -0.20383 0.20522
-0.042338 -0.008052 0.022963 0.015266
-0.0048482 -0.0035384 -0.012215 0.0074423 -0.0033366 -0.0065644 -0.042497 -0.0077485
-0.1806 0.08302 -0.041442 0.0004412
-0.0070539 0.0034259 -0.0010364 -0.0059389 -0.0014106 0.0017842 0.022428 0.014871
-0.041198 0.00020991 -0.24713 0.10327
800000000 -0.16187 0.22114 -0.022645 0.016016 0.0057044 -0.0106 -0.0044182 -0.0019965
-0.0047983 0.0023634 0.0042935 0.00015923
-0.022637 0.016068 -0.34084 0.23968 -0.0085449 0.034087 -0.0023316 0.0020945
-0.0016958 0.0029053 0.00095799 0.0053071
0.005617 -0.010664 -0.0084478 0.033994 -0.031074 0.30247 0.00095765 0.0015846
-7.138e-05 0.0034441 -0.0016807 0.00095821
-0.0046322 -0.0019623 -0.0023828 0.0021352 0.00091731 0.0015529 -0.17403 0.23259
-0.028596 0.013336 0.013703 -0.010061
-0.0048734 0.0022884 -0.0014957 0.0028918 -7.7151e-05 0.003464 -0.028431 0.013319
-0.22056 0.1114 -0.017326 0.018767
0.0042572 0.00019307 0.00095015 0.0052173 -0.0016056 0.0010291 0.013725 -0.010309
-0.017342 0.019795 -0.24014 0.15218
860000000 -0.12682 0.24151 -0.017587 0.030686 -0.0029523 -0.010272 -0.0017649 0.00084972
0.0040183 0.0054365 -0.0033152 -0.0028227
-0.017632 0.030717 -0.29238 0.28272 0.0074698 0.034567 0.00025056 0.0020902
0.0040254 0.00091308 0.0028501 0.00029281
-0.0029699 -0.010204 0.0076037 0.034611 0.016297 0.31084 -0.0006516 0.0001327
0.002309 -0.0011419 0.0015171 0.004046
-0.0016293 0.0006443 0.00038943 0.002054 -0.00057518 4.506e-05 -0.13734 0.24323
-0.01822 0.018239 -0.0057395 -0.0085953
0.0040891 0.0053026 0.0042911 0.00082979 0.0023092 -0.0011548 -0.018333 0.018463
-0.16371 0.16234 -0.0237 0.016741
-0.0032509 -0.0027911 0.0029144 0.00012787 0.0016142 0.0040011 -0.0057654 -0.0090599
-0.02402 0.016319 -0.19054 0.19557
920000000 -0.10312 0.26471 0.0047274 0.038228 -0.0092169 -0.0049731 -0.0017882 0.0017415
0.0020418 0.0015616 0.0026643 -0.0014089
0.0047456 0.038213 -0.26526 0.30403 0.028139 0.022836 0.001534 0.0011986
0.0078782 -0.00030602 0.0039165 -0.0028363
-0.0092066 -0.004956 0.028239 0.022713 0.061939 0.31227 0.001981 1.8742e-05
0.0012658 -0.00055314 0.00094434 -0.0012577
-0.0018099 0.0018776 0.0014379 0.0012483 0.0019759 4.7212e-05 -0.11276 0.25971
-0.011039 0.030683 0.00338 -0.006711
0.001943 0.0016457 0.0081072 -0.00025097 0.0012659 -0.00057709 -0.011159 0.030892
-0.15233 0.16694 -0.0021903 0.02593
0.0026651 -0.0013344 0.0040356 -0.0028287 0.00087637 -0.0012129 0.0035018 -0.0064378
-0.0024174 0.025941 -0.19631 0.21002
980000000 -0.056765 0.28482 0.017018 0.030167 -0.0094369 0.0041713 0.0018089 0.0033983
0.003799 -0.0018224 -0.0028933 -0.0021986
0.016961 0.030183 -0.21222 0.3386 0.033434 0.0053903 0.0020928 -0.00016169
0.001755 -0.0061567 4.1036e-05 -0.0023872
-0.0094225 0.0041972 0.033515 0.0052758 0.10778 0.30655 0.000741 -0.001181
0.00054166 -0.0019902 0.0016175 -0.00015846
0.001768 0.003385 0.0020792 -0.00021104 0.00074382 -0.0011698 -0.074866 0.27089
0.0073238 0.030259 -0.0088348 -0.006738
0.0036941 -0.0018199 0.0016768 -0.006229 0.00055647 -0.0020055 0.007332 0.030233
-0.11936 0.198 0.0058972 0.019333
-0.0028452 -0.0021056 -7.7321e-05 -0.0024909 0.0015743 -0.00021 -0.0087615 -0.0068046
0.006482 0.019517 -0.15274 0.25342
1040000000 -0.015452 0.29393 0.03287 0.019065 -0.0016864 0.0070947 0.0026962 0.00087945
0.00052692 -0.0036414 -0.00023743 -0.0016407
0.032849 0.019067 -0.17734 0.35213 0.03003 -0.014579 0.0015776 -0.0016967
-0.0019707 -0.0027457 -0.0009424 -0.0028679
-0.0016734 0.0071111 0.02998 -0.014705 0.1537 0.29365 -0.00045992 -0.0016485
-0.0014207 -0.00096543 -0.00050519 -0.0011562
0.0027196 0.00085946 0.0015891 -0.0016183 -0.00044191 -0.0016527 -0.047132 0.28081
0.019637 0.01876 -0.0027095 0.001195
0.00042503 -0.0035154 -0.0021348 -0.0027438 -0.0014287 -0.00096144 0.019642 0.018777
-0.085468 0.20352 0.013612 0.017224
-0.0002676 -0.0015952 -0.0009738 -0.002874 -0.00054383 -0.001189 -0.0027063 0.0012445
0.013746 0.017682 -0.1303 0.27393
1100000000 0.029731 0.30266 0.036553 -0.0036489 0.0028179 0.0042342 0.0024524 -0.0010422
-0.002112 -0.0029759 -0.004008 -3.6539e-05
0.036523 -0.0036045 -0.13395 0.37004 0.015897 -0.028002 7.1583e-05 -0.0017972
-0.003626 -0.00083653 -0.0036413 -0.00059238
0.0028408 0.0041998 0.015809 -0.028112 0.19989 0.27418 -0.0018799 7.9732e-05
-0.0018151 0.00047438 -0.0011853 -0.00047416
0.0024456 -0.0010648 9.8401e-05 -0.0018165 -0.0019305 8.3725e-05 -0.0067416 0.28569
0.02519 0.0055369 -0.0023578 0.00011995
-0.0021845 -0.0029861 -0.003674 -0.00087963 -0.0018255 0.0004543 0.02522 0.0054628
-0.065118 0.21681 0.019895 0.0080996
-0.0040226 -1.1413e-05 -0.0036535 -0.00057691 -0.0011236 -0.00045798 -0.0022382 0.00014345
0.019683 0.0081045 -0.084256 0.30173
1160000000 0.080472 0.2988 0.024488 -0.020784 0.0028238 -0.00042768 -0.00011243 -0.0024412
-0.0039706 -0.000801 -0.0008989 0.0041119
0.024481 -0.02075 -0.09061 0.37483 -0.0033341 -0.029638 -0.0016535 -0.0018273
-0.0028005 0.0025425 -0.0015443 0.0019365
0.0028571 -0.0004356 -0.003463 -0.029715 0.24319 0.2441 -0.00090183 0.0018236
-0.0007065 0.0019792 -0.00093604 0.00031382
-0.00015412 -0.002405 -0.0016614 -0.0018177 -0.00086919 0.0017966 0.032709 0.28297
0.02169 -0.010463 -0.003112 0.0050125
-0.0039945 -0.00070351 -0.002697 0.0025435 -0.00071079 0.0019829 0.021709 -0.010497
-0.030595 0.22393 0.018363 -0.00060098
-0.00091123 0.0040255 -0.0014956 0.0019106 -0.00094896 0.00030285 -0.0031489 0.0050494
0.018253 -0.00093233 -0.036734 0.30471
1220000000 0.1247 0.28899 0.011057 -0.030317 -0.0015845 -0.00092988 3.1221e-05 -0.00093031
-0.002688 0.0022237 0.0010433 0.0020703
0.011058 -0.03028 -0.046565 0.38783 -0.01706 -0.021949 -0.0026757 0.00046969
-1.113e-05 0.0031694 -0.0008391 0.0018802
-0.0015912 -0.00091929 -0.017173 -0.021911 0.28236 0.20561 0.00075029 0.0018395
0.00057967 0.0013016 0.00024238 0.00059254
7.6615e-05 -0.00094992 -0.0026731 0.00050768 0.00073987 0.0017868 0.072909 0.27415
0.011081 -0.017537 0.0019788 0.001464
-0.0026622 0.0022228 -4.1487e-06 0.003175 0.00058172 0.0012934 0.01109 -0.017514
-0.0067833 0.23229 0.013575 -0.013314
0.0010821 0.0020555 -0.00080718 0.0018909 0.00026118 0.00056172 0.0020813 0.001403
0.013657 -0.013373 -0.0055582 0.31913
1280000000 0.17501 0.26839 -0.0078085 -0.028928 -0.0020757 0.002542 -0.00076949 -0.0020761
-0.0007559 0.0032949 0.0025749 0.00129
-0.0077868 -0.028888 -0.00049034 0.37951 -0.02432 -0.0089871 -0.0010067 0.0014885
0.00174 0.0017837 0.00063191 0.0020658
-0.0020557 0.0025301 -0.024389 -0.0088912 0.3131 0.16208 0.0016082 -4.7041e-06
0.0012506 0.00028392 0.00035064 0.00028148
-0.00078877 -0.0021151 -0.00096318 0.0014662 0.001618 5.3979e-05 0.1099 0.25801
0.0010938 -0.019866 -0.00015843 0.00019873
-0.00069237 0.0032793 0.001768 0.0017777 0.001259 0.00027648 0.0010673 -0.019815
0.02988 0.23492 0.0027662 -0.015456
0.0025891 0.0012684 0.00065705 0.0020771 0.00035803 0.0002226 -9.4382e-05 0.0003148
0.0028072 -0.015371 0.041509 0.32047
1340000000 0.21253 0.2356 -0.017778 -0.019231 0.00078273 0.0048275 -0.0018262 -0.00086853
0.0013616 0.0026516 0.0018086 -0.0013888
-0.017742 -0.019225 0.039 0.3718 -0.022161 0.0041938 -4.7788e-05 0.0020632
0.0020103 0.00079206 0.001325 0.00076961
0.0008129 0.0048458 -0.022155 0.0042869 0.33508 0.11501 0.0011534 -0.00092861
0.00062818 -0.00057308 8.638e-05 0.0002407
-0.0017911 -0.00084594 -6.3133e-05 0.0020617 0.0011716 -0.00092217 0.14283 0.23697
-0.0086986 -0.017184 0.00077958 0.0005484
0.0013667 0.0026232 0.0020173 0.0007784 0.00064226 -0.00057769 -0.0087501 -0.017181
0.059895 0.22997 -0.0040931 -0.013849
0.0018155 -0.0013844 0.0013144 0.00075561 7.5208e-05 0.0003265 0.00071884 0.00052062
-0.0041399 -0.013896 0.079611 0.315
1400000000 0.24635 0.19823 -0.023707 -0.0075535 0.0053947 0.003467 -0.0022111 0.00061262
0.0024693 0.0010117 0.00031149 -0.0016449
-0.023664 -0.0075544 0.076593 0.35936 -0.015403 0.012698 0.0014099 0.0013416
0.0012909 -0.00081145 0.0011961 0.00012741
0.0054199 0.0034214 -0.015345 0.01278 0.34861 0.062158 8.3027e-05 -0.0016508
0.00013586 -0.00044736 0.0003475 0.00021716
-0.0022386 0.0006277 0.0014002 0.0013115 6.645e-05 -0.0016855 0.17242 0.20791
-0.014892 -0.010069 -0.00068211 -0.00013204
0.0024609 0.00099033 0.0013084 -0.0008239 0.00014219 -0.00043834 -0.014905 -0.010043
0.093004 0.22509 -0.010505 -0.0085409
0.00031977 -0.0016291 0.001191 0.00012285 0.00036104 0.00017836 -0.00073468 -0.00017813
-0.010503 -0.0085492 0.12362 0.30388
1460000000 0.26978 0.15448 -0.020587 0.0048631 0.005992 -0.0017762 -0.0015991 0.0017867
0.002163 -0.00048776 -0.00035995 -0.0010325
-0.020555 0.0048477 0.11106 0.33775 -0.0062508 0.015901 0.001726 0.0001492
0.00088662 -0.0014277 0.0012019 -0.00061241
0.0059925 -0.0017915 -0.0061798 0.015966 0.35528 0.008335 -0.0012592 -0.0013317
0.00016187 -0.00022469 0.00072631 -0.0002902
-0.001572 0.0017704 0.0017225 0.00015275 -0.0012394 -0.0013348 0.1989 0.17831
-0.016178 -0.0032832 -0.00075201 0.0020881
0.002193 -0.00051959 0.00085739 -0.0014418 0.00015588 -0.00022122 -0.016219 -0.0032318
0.12239 0.21048 -0.01213 -0.0026215
-0.00039821 -0.00099498 0.0012115 -0.00061762 0.00074071 -0.00023352 -0.00078896 0.0020522
-0.012147 -0.0026632 0.15662 0.28312
1520000000 0.2825 0.11303 -0.014807 0.010442 0.0036052 -0.0043703 0.00011403 0.0026016
0.0021107 -0.00197 -0.001102 -7.8836e-05
-0.014795 0.010426 0.14481 0.32353 0.001712 0.013595 0.0016611 -0.00076317
3.1433e-05 -0.0011157 0.00033296 -0.001049
0.0035736 -0.004396 0.0017868 0.013591 0.34913 -0.04741 -0.0010997 -0.000388
0.00069161 -0.00086854 4.2975e-05 -0.00019754
0.00011822 0.0025781 0.0016525 -0.00077993 -0.0010798 -0.0004157 0.22192 0.1399
-0.015484 0.0028544 0.001583 0.0020218
0.00208 -0.0019718 2.4391e-05 -0.0011211 0.00068831 -0.00087067 -0.015476 0.0029273
0.15039 0.19693 -0.011814 0.0019746
-0.0011141 -7.5608e-05 0.00032899 -0.0010611 6.6627e-05 -0.00019308 0.0016085 0.0020284
-0.011786 0.0019787 0.18945 0.26227
1580000000 0.29259 0.06691 -0.007931 0.013599 -0.00093656 -0.0051987 0.0014675 0.0019015
-0.00013948 -0.0022048 -0.00023258 0.00031397
-0.0079474 0.013593 0.17239 0.29899 0.0055783 0.0084732 0.00052248 -0.0015737
-0.00057849 -0.001044 -0.00018688 -0.00090802
-0.00097261 -0.005188 0.0056251 0.0084622 0.32994 -0.10512 -0.0017033 0.00060824
-0.00029917 -0.0012224 0.00024082 -0.00048264
0.001476 0.0018867 0.00051759 -0.0015823 -0.0016883 0.00061031 0.23545 0.10041
-0.011874 0.0078279 0.0022137 0.00071101
-0.00018451 -0.0022003 -0.00057303 -0.0010344 -0.00031826 -0.0012165 -0.011855 0.0078509
0.17466 0.17892 -0.0093513 0.007481
-0.0002454 0.0003093 -0.00018623 -0.00090358 0.00021462 -0.00050258 0.0021731 0.00069656
-0.0093406 0.0074709 0.22105 0.2356
1640000000 0.29499 0.025834 -0.0011984 0.012324 -0.0029654 -0.0027655 0.0027403 0.0010263
-0.00076743 -0.0016091 -0.00033446 0.00061077
-0.0012067 0.012315 0.20219 0.2743 0.0063034 0.0034542 -0.00060976 -0.0017983
-0.0010222 -0.00041895 -0.00056804 -0.00069921
-0.002942 -0.0027417 0.0063286 0.0034203 0.30176 -0.15444 -0.000642 0.001511
-0.0010953 -0.00097534 -0.0001576 -0.00039614
0.0027498 0.00102 -0.00065106 -0.0018169 -0.00067821 0.0015242 0.24776 0.051524
-0.0073811 0.00941 0.0024064 -0.00087207
-0.00076987 -0.0016263 -0.0010477 -0.00042068 -0.0010889 -0.00097287 -0.0073977 0.0094267
0.19792 0.15498 -0.0044571 0.0091817
-0.00032949 0.00060351 -0.0005626 -0.00067705 -0.00014179 -0.00037589 0.0024548 -0.00084413
-0.0044396 0.0092009 0.24618 0.20439
1700000000 0.28819 -0.019381 0.0021674 0.0093613 -0.0037294 -4.8029e-05 0.0031846 -0.0012379
-0.0020153 -0.00067277 0.00064736 0.00045159
0.0021701 0.0093582 0.22061 0.24298 0.0041948 0.00035089 -0.0015046 -0.00058961
-0.00085515 2.9019e-05 -0.00091291 -0.00040004
-0.0036909 -9.3615e-06 0.0041884 0.00035529 0.25886 -0.19438 0.00046497 0.0016767
-0.0019435 -0.00013337 -0.00045325 -0.00091423
0.0031414 -0.0012793 -0.0015017 -0.00062197 0.00051907 0.0016614 0.24427 0.0017453
-0.004429 0.0099072 0.0016593 -0.002266
-0.0020325 -0.00066173 -0.00084534 4.1703e-05 -0.0019601 -0.00012737 -0.0043944 0.0099565
0.215 0.13445 0.00015513 0.0096635
0.00063115 0.00047315 -0.00093958 -0.00040683 -0.00050832 -0.00097622 0.0015926 -0.0022339
7.7764e-05 0.0096343 0.26245 0.16974
1760000000 0.27656 -0.068204 0.0044562 0.0060478 -0.0024782 0.00099563 0.0012958 -0.0033968
-0.0014515 0.00071608 0.00028984 -0.00048707
0.0044524 0.0060377 0.24686 0.20331 0.0017609 -0.0016742 -0.0012131 0.0001716
-0.0010688 0.00090625 -0.00065221 0.00038331
-0.0024245 0.0010156 0.0017387 -0.0016672 0.21089 -0.22813 0.0011541 0.0010647
-0.001305 0.0014722 -0.0012452 -0.00059734
0.0012825 -0.0034008 -0.0012366 0.00018596 0.0011222 0.0010354 0.23512 -0.049452
-0.00097729 0.0089505 -0.00019284 -0.0025693
-0.0014571 0.0007329 -0.0010547 0.00092532 -0.0012977 0.0014878 -0.00098797 0.0089619
0.2302 0.099734 0.00377 0.0069758
0.00027664 -0.00052414 -0.00065551 0.00040169 -0.0013154 -0.00063465 -0.00021599 -0.0025564
0.0038222 0.0068916 0.27476 0.13237
1820000000 0.2522 -0.10557 0.0044592 0.0024465 -0.00029979 0.0025722 -0.0010073 -0.0031146
-0.0010959 0.0010451 -1.179e-05 -1.3843e-05
0.0044596 0.0024428 0.25727 0.17327 -0.00070703 -0.0004108 -0.0013361 0.00094641
-8.8387e-05 0.0012711 -0.00059721 0.00059166
-0.00027565 0.0025876 -0.00069174 -0.00039979 0.15969 -0.24411 0.0016672 0.00034473
-0.00023571 0.0023562 -0.0014717 0.00026098
-0.0010261 -0.003148 -0.0013405 0.00095193 0.0016401 0.00035414 0.20523 -0.096556
0.00065458 0.0075505 -0.0016742 -0.0015629
-0.0011042 0.0010413 -7.6785e-05 0.0012745 -0.00025175 0.0023826 0.00070828 0.0076105
0.24715 0.071013 0.0047865 0.0035732
-2.7989e-05 -3.6006e-06 -0.00059698 0.0005942 -0.001478 0.00032361 -0.0015791 -0.0015473
0.0047638 0.0036486 0.27671 0.095932
1880000000 0.21712 -0.14608 0.0021419 0.00016464 -0.00059155 0.0022342 -0.0028878 -0.002227
-0.00016669 0.0018334 6.4476e-05 -0.00059067
0.0021436 0.00018006 0.26193 0.12669 -0.002709 0.0015261 -0.00023093 0.0017617
0.00058596 0.0013854 0.00013695 0.00095914
-0.00065137 0.0022568 -0.0027031 0.0015441 0.10773 -0.25334 0.0016762 -0.00084383
0.0015476 0.0021114 -0.0010051 0.0014828
-0.0029145 -0.0022058 -0.0002113 0.0017434 0.0017355 -0.00079615 0.16455 -0.13641
0.0014898 0.0055544 -0.0023728 0.00052713
-0.00017157 0.0018513 0.00060224 0.0013543 0.0015864 0.0021042 0.0014542 0.0055608
0.25092 0.039538 0.0049012 0.0015458
8.5728e-05 -0.00059011 0.0001464 0.00095463 -0.001104 0.0014025 -0.0024541 0.00049692
0.0048111 0.0015211 0.27666 0.062255
1940000000 0.17785 -0.17177 -0.0002809 -0.0013752 0.001364 0.0022484 -0.0037298 0.00056723
0.0014219 0.0011405 -0.00054012 -0.00041864
-0.00029563 -0.001349 0.26271 0.094834 -0.001504 0.0041291 0.001129 0.0013405
0.0019394 0.00052325 0.00098935 0.00034231
0.0013577 0.0021919 -0.0014978 0.0041202 0.062233 -0.24609 0.00058968 -0.0022246
0.0024748 0.00034783 0.00072953 0.0015998
-0.0036661 0.00054247 0.0011344 0.0013727 0.00053055 -0.0022 0.1125 -0.16704
0.00089054 0.0042583 -0.0015078 0.0017443
0.0015013 0.001134 0.0019603 0.0005209 0.0024625 0.0003592 0.00097393 0.0042703
0.2539 0.0013885 0.0036371 -0.0017125
-0.00058266 -0.00045071 0.00099879 0.00032101 0.00067134 0.0016991 -0.0014306 0.0017413
0.0036851 -0.0017512 0.2658 0.025955
2000000000 0.13206 -0.18674 -0.0038383 0.00075956 0.0027346 0.0016516 -0.0022478 0.0038549
0.0012443 0.00031947 -0.00056857 0.00046209
-0.0038315 0.00072687 0.24878 0.059238 -0.00092289 0.0059489 0.0016753 0.00047888
0.0014186 -0.0011563 0.00053659 0.00020489
0.0027641 0.0016168 -0.000899 0.0059923 0.019336 -0.23244 -0.0010725 -0.001421
0.002115 -0.0011678 0.0016203 0.0015485
-0.0023158 0.0038504 0.001635 0.00044904 -0.00098527 -0.0013551 0.059143 -0.17711
-0.0001868 0.0037486 2.6224e-05 0.0024207
0.0011862 0.00030438 0.0014368 -0.0012035 0.0021099 -0.0011917 -0.000262 0.0037635
0.24914 -0.031721 0.00053026 -0.0025916
