!Keysight Technologies,M9804A,MY58100912,A.14.10.03
!Date: Thursday, April 27, 2023 10:28:33
!Correction: S11(C  6-Port  ) 
!S12(C  6-Port  ) 
!S13(C  6-Port  ) 
!S14(C  6-Port  ) 
!S15(C  6-Port  ) 
!S16(C  6-Port  ) 
!S21(C  6-Port  ) 
!S22(C  6-Port  ) 
!S23(C  6-Port  ) 
!S24(C  6-Port  ) 
!S25(C  6-Port  ) 
!S26(C  6-Port  ) 
!S31(C  6-Port  ) 
!S32(C  6-Port  ) 
!S33(C  6-Port  ) 
!S34(C  6-Port  ) 
!S35(C  6-Port  ) 
!S36(C  6-Port  ) 
!S41(C  6-Port  ) 
!S42(C  6-Port  ) 
!S43(C  6-Port  ) 
!S44(C  6-Port  ) 
!S45(C  6-Port  ) 
!S46(C  6-Port  ) 
!S51(C  6-Port  ) 
!S52(C  6-Port  ) 
!S53(C  6-Port  ) 
!S54(C  6-Port  ) 
!S55(C  6-Port  ) 
!S56(C  6-Port  ) 
!S61(C  6-Port  ) 
!S62(C  6-Port  ) 
!S63(C  6-Port  ) 
!S64(C  6-Port  ) 
!S65(C  6-Port  ) 
!S66(C  6-Port  ) 
!S6P File: Measurement: :
# Hz S  RI   R 50
500000000 -0.33383 -0.052284 -0.010129 -0.0011153 -0.0082799 0.013264 -0.0042292 0.012225
0.012734 0.004906 -0.0056321 0.0084145
-0.01025 -0.0010148 -0.4165 -0.062861 0.0082219 -0.010738 0.0015661 0.012366
0.007861 0.0028634 0.0014441 0.013338
-0.0079815 0.01322 0.0080272 -0.01088 -0.26676 0.19975 0.0064126 0.0039443
-0.0012852 0.0082961 6.7887e-05 0.01262
-0.0048732 0.012406 0.0013288 0.012491 0.0063834 0.0038436 -0.33077 0.043644
-0.017935 -0.0043144 0.016782 0.025437
0.012208 0.0049468 0.0077942 0.0026212 -0.0013011 0.0080434 -0.018066 -0.004107
-0.24932 -0.19169 -0.02532 0.0054588
-0.0054143 0.0081628 0.00087265 0.014172 0.00012005 0.012254 0.018006 0.02578
-0.025521 0.0056339 -0.27239 -0.11761
560000000 -0.31848 0.11372 -0.022844 -0.06461 -0.00028836 0.013156 0.0048861 0.011503
0.01141 0.0045065 0.0096721 0.0087979
-0.022848 -0.064344 -0.37612 0.10004 -0.041902 -0.037768 0.013545 0.0031165
-0.013014 -0.0040985 0.0046813 -0.00075112
0.00019916 0.013037 -0.041832 -0.037557 -0.18579 0.25079 -0.0003488 -0.0049173
0.018544 0.0051534 0.008079 -0.0055733
0.0043449 0.011296 0.013489 0.0028047 -0.00033006 -0.0052107 -0.3058 0.13592
0.0052554 -0.024728 0.0047716 -0.021244
0.01107 0.0045968 -0.01287 -0.0035784 0.018058 0.0054967 0.0051809 -0.02451
-0.31137 -0.01059 0.0083206 -0.048951
0.0094711 0.0083139 0.0036571 -0.00092717 0.0081562 -0.0056293 0.0050214 -0.021265
0.0082788 -0.04937 -0.3306 0.027701
620000000 -0.27797 0.094478 -0.023049 0.0084055 0.003497 0.009568 0.0075202 -0.004464
0.012241 -0.0012365 0.00010977 -0.0023027
-0.023099 0.008421 -0.40337 0.050047 -0.018695 0.00062659 -0.0017359 -0.0021038
0.012481 -0.006363 0.0012976 -0.0027179
0.003372 0.0096378 -0.018751 0.00074164 -0.15559 0.26042 -0.00061271 -0.0050323
-0.0034409 -0.0029245 0.0097535 -0.0029979
0.0082937 -0.0042855 -0.0017244 -0.0018421 -0.00074259 -0.0051183 -0.26471 0.14624
-0.039218 -0.019238 0.013356 0.026697
0.012337 -0.0016756 0.012717 -0.0063868 -0.003297 -0.0028185 -0.039626 -0.019609
-0.22992 -0.047374 -0.041451 0.012305
0.00083794 -0.0018324 0.00070323 -0.0027438 0.0096369 -0.0027451 0.013814 0.027154
-0.041563 0.012043 -0.25016 -0.0036509
680000000 -0.23894 0.18439 -0.026689 -0.014448 0.0047936 0.0055655 0.0015406 -0.0073769
-0.002182 -0.011809 0.0051819 -0.0071663
-0.026691 -0.014578 -0.38962 0.15039 -0.032823 -0.0020926 -0.0016158 -0.0007187
-0.0016441 -0.0092672 -0.0011395 -0.0024864
0.00486 0.0054726 -0.032802 -0.0018955 -0.104 0.28064 -0.0007393 -0.00038625
-0.0016602 0.00057941 -0.0031203 -0.0095538
0.0013913 -0.0072596 -0.0016311 -0.00085102 -0.00083288 -0.00037756 -0.22024 0.19739
-0.024439 -0.0083767 -0.0089376 -0.010584
-0.0020345 -0.01153 -0.0019323 -0.009386 -0.001704 0.0003889 -0.024335 -0.0083098
-0.27828 0.056895 -0.0077259 -0.0080997
0.0045624 -0.0076377 -0.00077998 -0.0023022 -0.0035806 -0.0092485 -0.0087949 -0.010542
-0.007792 -0.0080718 -0.25955 0.096894
740000000 -0.19342 0.1776 -0.039523 0.026841 0.013381 -0.0049433 -0.0001618 -0.0041379
-0.0049292 -0.0036794 -0.0062883 0.003258
-0.039567 0.026721 -0.33497 0.16912 -0.036863 0.034848 -0.00036736 -0.0055594
-0.012413 0.0070493 -0.0010249 -0.0054918
0.013532 -0.0049945 -0.03694 0.03525 -0.070244 0.27828 -0.0020616 0.0033096
-0.0028569 -0.0058369 -0.0016068 0.0015057
-0.0001146 -0.0040219 -0.00028017 -0.0056295 -0.0019836 0.0031836 -0.20357 0.2047
-0.042574 -0.0076712 0.022612 0.01488
-0.0049347 -0.0040665 -0.012057 0.0070488 -0.0028269 -0.0053543 -0.043095 -0.0081788
-0.17911 0.082731 -0.041357 0.00095668
-0.0064222 0.0033446 -0.0013692 -0.0054875 -0.0013144 0.0010233 0.022667 0.015123
-0.041819 0.00067351 -0.24741 0.10414
800000000 -0.1614 0.22074 -0.02264 0.016514 0.0056844 -0.010712 -0.0044247 -0.0019285
-0.0046279 0.0022022 0.0046218 0.00053046
-0.022631 0.016416 -0.34132 0.23968 -0.0087046 0.034228 -0.0021678 0.0021052
-0.0013283 0.0028547 0.001071 0.0054394
0.0058353 -0.010646 -0.0085857 0.034422 -0.031554 0.30237 0.00093814 0.0015446
2.6798e-05 0.0034452 -0.001723 0.001139
-0.0044399 -0.0018626 -0.00224 0.0021744 0.00093195 0.001496 -0.17455 0.23257
-0.028768 0.013337 0.013799 -0.010015
-0.0044472 0.0022287 -0.0013226 0.0029625 4.539e-05 0.0034264 -0.028543 0.013252
-0.22103 0.11177 -0.017311 0.019734
0.0043371 0.00028293 0.0010207 0.0053942 -0.0017687 0.0010153 0.013655 -0.010023
-0.017486 0.019771 -0.23897 0.15299
860000000 -0.12693 0.24123 -0.017914 0.030736 -0.0028839 -0.010459 -0.001686 0.00063618
0.0043344 0.0050997 -0.0034832 -0.0031548
-0.017944 0.030726 -0.29299 0.28252 0.0075482 0.034691 0.00023489 0.001997
0.0036712 0.00057725 0.0031812 0.00031019
-0.0029312 -0.010428 0.0076078 0.034741 0.015983 0.31106 -0.0006845 -0.00015128
0.0022843 -0.001465 0.0016935 0.0041204
-0.0016256 0.0007383 0.00018935 0.0020271 -0.00068339 -0.00014191 -0.13769 0.24296
-0.018494 0.018356 -0.0057218 -0.0091188
0.0043353 0.0050915 0.003731 0.00080099 0.002458 -0.0013025 -0.018554 0.018593
-0.16471 0.16187 -0.02446 0.016527
-0.0033864 -0.0029508 0.0031422 0.00032863 0.0018167 0.0039637 -0.0058656 -0.0089755
-0.024567 0.016583 -0.18938 0.19656
920000000 -0.10343 0.26458 0.0046645 0.038289 -0.0092825 -0.0051748 -0.0019611 0.0017641
0.0015244 0.0018791 0.0026056 -0.0013099
0.0046536 0.03824 -0.26572 0.30377 0.028389 0.022886 0.0014443 0.0011338
0.0075727 -0.00065072 0.0039939 -0.0027653
-0.0093941 -0.0050625 0.028451 0.02283 0.061775 0.31265 0.0019077 -2.622e-05
0.0011689 -0.00040533 0.0010504 -0.0012947
-0.0020879 0.0018171 0.0014733 0.0011703 0.0019417 -2.0237e-06 -0.11342 0.26015
-0.010957 0.030807 0.0033072 -0.00664
0.0015281 0.0016425 0.0075888 -0.00066392 0.0012461 -0.00040828 -0.011082 0.030711
-0.15294 0.16914 -0.0019645 0.026297
0.0024514 -0.0012804 0.0041227 -0.0026394 0.0010943 -0.0012066 0.0032539 -0.0064054
-0.0020331 0.026112 -0.19578 0.21113
980000000 -0.056931 0.28476 0.017046 0.030336 -0.0095651 0.0042076 0.001848 0.0035845
0.003882 -0.0020196 -0.0032445 -0.0020722
0.016954 0.030317 -0.21269 0.3386 0.033748 0.0053624 0.0021459 -0.00023525
0.0017551 -0.0062839 -8.3124e-05 -0.0025517
-0.009551 0.0042368 0.033815 0.0052339 0.10778 0.30695 0.00072935 -0.0011427
0.00055504 -0.0020666 0.0015857 -0.00014505
0.0018821 0.003558 0.0021583 -0.00022098 0.00070947 -0.0011803 -0.075125 0.27133
0.0074003 0.030678 -0.0088721 -0.0067658
0.0038634 -0.0019642 0.0016055 -0.0061774 0.00053414 -0.0020888 0.0075398 0.030504
-0.1192 0.19853 0.0062763 0.019584
-0.0029368 -0.0019224 -2.8757e-05 -0.0023997 0.0015916 -0.00010925 -0.0090717 -0.0068732
0.0062377 0.019689 -0.15249 0.25413
1040000000 -0.015487 0.29401 0.033187 0.019176 -0.0016705 0.007187 0.002679 0.00075053
0.00051602 -0.0035147 -0.00030269 -0.0017075
0.033132 0.019152 -0.17759 0.35247 0.03025 -0.014859 0.0016219 -0.0016906
-0.0020569 -0.0026912 -0.0010437 -0.0028767
-0.0016858 0.0071841 0.03024 -0.014935 0.15385 0.2941 -0.000467 -0.0017188
-0.001528 -0.0009217 -0.00049061 -0.0011797
0.0027602 0.00079709 0.0016094 -0.0016772 -0.00047009 -0.0016984 -0.047211 0.28115
0.020305 0.019264 -0.0025369 0.0010943
0.00035276 -0.0036052 -0.0021805 -0.0027811 -0.0015857 -0.001004 0.020409 0.019153
-0.085421 0.20486 0.014383 0.018074
-0.00032342 -0.0016326 -0.001172 -0.0028624 -0.00056527 -0.0011674 -0.0025779 0.0010805
0.014407 0.018009 -0.12919 0.27447
1100000000 0.029508 0.30293 0.036678 -0.0035544 0.0028825 0.0043111 0.002382 -0.0012555
-0.0021933 -0.00314 -0.0041149 -7.518e-05
0.03667 -0.0035407 -0.13436 0.37064 0.015956 -0.028394 2.2634e-05 -0.0018912
-0.003648 -0.00093387 -0.0037428 -0.00066791
0.0028964 0.0043031 0.015862 -0.028485 0.20038 0.27459 -0.0019542 0.00015974
-0.0018528 0.0005033 -0.0011436 -0.00061208
0.0024179 -0.0012781 -6.7726e-06 -0.0018883 -0.0019661 0.00015575 -0.0064752 0.28624
0.025838 0.0052834 -0.0023145 0.00036327
-0.0022211 -0.0031742 -0.0036536 -0.00093254 -0.0018305 0.00048962 0.025827 0.0054283
-0.064725 0.21687 0.019887 0.0080016
-0.0041144 0.00010552 -0.0037099 -0.00065557 -0.0011137 -0.00062043 -0.0023628 0.00030311
0.019913 0.0080086 -0.083494 0.30288
1160000000 0.080552 0.299 0.024682 -0.020941 0.0029184 -0.00044367 -0.00017273 -0.0024788
-0.004098 -0.00085629 -0.0011268 0.0041935
0.024681 -0.020907 -0.090685 0.37546 -0.0035192 -0.029979 -0.0017057 -0.0017297
-0.0027806 0.0025205 -0.0015134 0.0018879
0.0028875 -0.00046567 -0.0036558 -0.029993 0.24382 0.24412 -0.00085432 0.0018386
-0.00070439 0.0019843 -0.0010429 0.00024377
-0.00016827 -0.0024945 -0.0017046 -0.0017618 -0.00084047 0.001844 0.033159 0.28331
0.021877 -0.011059 -0.0032134 0.0050911
-0.0040906 -0.00084815 -0.0027528 0.0026258 -0.00069576 0.0019769 0.021942 -0.011175
-0.030708 0.22433 0.018512 -0.00072526
-0.0010495 0.0042018 -0.0014722 0.0018595 -0.0010597 0.00021671 -0.0032482 0.0051983
0.018418 -0.00076676 -0.035823 0.30565
1220000000 0.12486 0.28918 0.011107 -0.030624 -0.0015557 -0.00096314 -1.1812e-05 -0.00087269
-0.0027315 0.0022306 0.0010688 0.0019822
0.011088 -0.030569 -0.046238 0.38847 -0.017347 -0.02203 -0.0026814 0.00053604
4.073e-05 0.0031546 -0.00087112 0.0019333
-0.0015335 -0.00097062 -0.01745 -0.021992 0.28299 0.20531 0.00075615 0.00176
0.0005891 0.0012613 0.00019312 0.00056518
-3.1844e-05 -0.00087623 -0.0026695 0.00053244 0.00079887 0.0017354 0.073469 0.27451
0.01098 -0.018235 0.0020399 0.001508
-0.002673 0.0022553 1.831e-05 0.0031853 0.00061183 0.0012808 0.011034 -0.018187
-0.0064404 0.23301 0.013558 -0.013765
0.0010628 0.0019589 -0.00081713 0.0019453 0.00022271 0.00054609 0.001904 0.0014361
0.013584 -0.013787 -0.0043806 0.32011
1280000000 0.17533 0.26851 -0.0079405 -0.029222 -0.0020302 0.0024896 -0.00080872 -0.0020847
-0.00070134 0.0033284 0.0026075 0.0012507
-0.0079242 -0.029189 0.00021916 0.3799 -0.024587 -0.0088572 -0.00091648 0.0015295
0.0017992 0.0017996 0.00063369 0.0020832
-0.0020359 0.0025268 -0.024648 -0.0087413 0.31351 0.16154 0.0016828 -2.8236e-05
0.0012767 0.00033407 0.00034803 0.0003251
-0.00080829 -0.0020757 -0.0009035 0.0015456 0.001648 1.2815e-05 0.11055 0.25771
0.00066154 -0.020371 -0.00016906 0.00022299
-0.00069956 0.003337 0.0018233 0.001776 0.0013048 0.00031154 0.00053453 -0.020433
0.030464 0.23582 0.0026637 -0.015911
0.0025822 0.0012521 0.00068263 0.0021029 0.00031029 0.00025973 -6.9523e-05 0.00026126
0.0026674 -0.015875 0.042435 0.3211
1340000000 0.21275 0.23544 -0.018028 -0.019367 0.00078287 0.0048019 -0.0017345 -0.00086024
0.0014636 0.0026926 0.0019176 -0.0014596
-0.017989 -0.01935 0.03985 0.37184 -0.022234 0.0044668 -4.0902e-05 0.002024
0.0020056 0.00075396 0.0012522 0.00072222
0.00080802 0.0047894 -0.022243 0.0045549 0.33522 0.11433 0.001112 -0.00096649
0.00060511 -0.00062446 6.2774e-05 0.00022173
-0.0017387 -0.00085724 -2.5607e-05 0.0020373 0.0011178 -0.0010162 0.14347 0.23648
-0.0093531 -0.017392 0.00079513 0.00074087
0.0014675 0.0027021 0.0020226 0.00079183 0.00063491 -0.00064387 -0.0093645 -0.017407
0.060871 0.23075 -0.0044916 -0.014229
0.0018797 -0.0014455 0.0013167 0.00076434 0.00014024 0.00031247 0.00077611 0.00059675
-0.0045003 -0.014244 0.080748 0.31532
1400000000 0.24668 0.19793 -0.024059 -0.0075149 0.0053818 0.0034212 -0.0022377 0.00057824
0.0025256 0.00096223 0.00032184 -0.0016619
-0.024005 -0.0075249 0.077453 0.35896 -0.015297 0.012954 0.0013935 0.0012875
0.001316 -0.0008422 0.0012487 6.5121e-05
0.0053731 0.0034241 -0.015262 0.013056 0.3484 0.061512 3.1275e-05 -0.0016989
0.00012936 -0.00042965 0.00046183 0.00020189
-0.0022194 0.00058472 0.0013985 0.0012602 9.1934e-06 -0.0016883 0.17279 0.20722
-0.01567 -0.010007 -0.00089574 -7.2247e-05
0.0025266 0.00094637 0.0013074 -0.00084919 0.00015041 -0.00045837 -0.015655 -0.010046
0.094176 0.22547 -0.010868 -0.0087909
0.00031451 -0.001656 0.0012108 4.9138e-05 0.0004387 0.00015913 -0.00090922 -2.9167e-06
-0.010884 -0.0088248 0.12476 0.30375
1460000000 0.26973 0.15389 -0.020759 0.0050679 0.0059776 -0.0017771 -0.001555 0.0017505
0.00225 -0.0006056 -0.00043132 -0.00089972
-0.020766 0.0050163 0.1116 0.33692 -0.0060322 0.016003 0.001711 0.00012985
0.00088189 -0.0014381 0.0012011 -0.00061091
0.0059711 -0.0018052 -0.0059739 0.016045 0.35484 0.0078521 -0.0012683 -0.0013277
0.00012167 -0.00027759 0.00077032 -0.00020374
-0.0015554 0.0017635 0.0017279 0.00012098 -0.0012429 -0.0013175 0.19878 0.17752
-0.016726 -0.0027345 -0.00079091 0.0021122
0.0023029 -0.00059516 0.0008744 -0.0014238 0.00018233 -0.00031238 -0.016793 -0.0027293
0.12381 0.21057 -0.012732 -0.0026857
-0.00040037 -0.00090041 0.0012272 -0.0006141 0.000759 -0.00022936 -0.00071728 0.0021437
-0.012708 -0.002684 0.15785 0.28263
1520000000 0.28223 0.1127 -0.014951 0.010743 0.0035199 -0.004409 0.00014366 0.0025455
0.0021014 -0.0020509 -0.0011995 -0.00013504
-0.014961 0.01072 0.14496 0.32258 0.001906 0.013522 0.0016723 -0.00077547
4.3792e-05 -0.0011191 0.00030217 -0.0010998
0.0035089 -0.0044259 0.0019884 0.013541 0.34866 -0.047539 -0.0011037 -0.00031613
0.00061279 -0.00094486 0.00010268 -0.00032078
0.00015177 0.0025499 0.0016556 -0.00078487 -0.0010956 -0.00036187 0.22156 0.13926
-0.015551 0.0036328 0.0016254 0.0020759
0.0020772 -0.0020472 3.3113e-05 -0.0010967 0.00060722 -0.00088671 -0.015517 0.0036801
0.1517 0.19668 -0.012205 0.0021938
-0.0011807 -7.9627e-05 0.0002654 -0.0011041 9.1081e-05 -0.00031121 0.0016243 0.0020769
-0.012199 0.0021889 0.19025 0.26172
1580000000 0.29211 0.066599 -0.0078836 0.013935 -0.0009384 -0.0051354 0.0014308 0.0018916
-0.00032469 -0.0022024 -0.00021652 0.0003781
-0.0078838 0.013919 0.17207 0.298 0.0056619 0.0083295 0.00049626 -0.0015923
-0.00062696 -0.0010249 -0.0002895 -0.00082574
-0.00099993 -0.0051 0.0057227 0.0083061 0.32939 -0.10501 -0.0016504 0.00060353
-0.00038951 -0.0012158 0.00027842 -0.00054631
0.0014521 0.0019285 0.00049 -0.0015954 -0.0016107 0.00061525 0.23483 0.099938
-0.011537 0.0085703 0.0022861 0.00067035
-0.00031515 -0.0022226 -0.00061437 -0.0010255 -0.00039715 -0.0012372 -0.011537 0.0086305
0.17576 0.17824 -0.0094967 0.007939
-0.0001768 0.00037348 -0.00023725 -0.00086027 0.00022428 -0.00048165 0.002245 0.00070308
-0.0095066 0.0079331 0.2216 0.23472
1640000000 0.29449 0.025794 -0.00093727 0.0125 -0.0029675 -0.002708 0.0027527 0.0010785
-0.00081484 -0.0015972 -0.00029063 0.00062698
-0.00092939 0.012506 0.2015 0.2736 0.0062656 0.003294 -0.00067621 -0.0017943
-0.0010244 -0.00038995 -0.00061772 -0.00060755
-0.0029467 -0.0026888 0.0062869 0.003245 0.30158 -0.15417 -0.00064312 0.0014853
-0.0011117 -0.00093612 -0.0002573 -0.00037174
0.0027262 0.0010519 -0.00068791 -0.0017863 -0.00064927 0.0014992 0.24669 0.051503
-0.0068836 0.0096565 0.0025163 -0.00079968
-0.00082505 -0.0015987 -0.0010282 -0.00037208 -0.0011201 -0.00093985 -0.0067948 0.0096923
0.19868 0.15391 -0.0045265 0.0098373
-0.00033057 0.00063804 -0.00061317 -0.00062017 -0.00030026 -0.00035555 0.0024891 -0.00085755
-0.0045382 0.0098434 0.24696 0.20373
1700000000 0.28782 -0.019241 0.0025206 0.0093255 -0.0036345 8.2441e-06 0.0031694 -0.0012725
-0.0020558 -0.00056972 0.00056805 0.00049184
0.0024916 0.0093619 0.21969 0.24261 0.0040904 0.00028991 -0.0015194 -0.00059
-0.00081867 5.3986e-05 -0.00087104 -0.00038837
-0.0036628 9.6999e-05 0.0040777 0.00027149 0.25883 -0.19403 0.00050533 0.0016152
-0.001958 1.6313e-05 -0.00045522 -0.00096959
0.0031648 -0.0012778 -0.0015181 -0.00058781 0.00050222 0.0015983 0.24343 0.0021519
-0.0036799 0.0098252 0.0016473 -0.0023191
-0.0020632 -0.0005635 -0.00083362 7.2476e-05 -0.0018127 2.47e-05 -0.0037079 0.0098224
0.21583 0.13341 0.00031288 0.0099575
0.00065564 0.00048518 -0.00083947 -0.00034902 -0.00055118 -0.00097319 0.0017068 -0.0022253
0.00029809 0.0099556 0.26285 0.16949
1760000000 0.27614 -0.067825 0.0046253 0.0058794 -0.002444 0.00099245 0.0013701 -0.003436
-0.0013531 0.00075899 0.00039239 -0.0004696
0.0046246 0.0058552 0.24592 0.20337 0.001619 -0.0016392 -0.0012201 0.00021111
-0.001032 0.00090268 -0.00059447 0.00043032
-0.0024114 0.0010555 0.0015871 -0.0016749 0.21087 -0.22813 0.001108 0.0010111
-0.0012265 0.0014776 -0.0011915 -0.00058881
0.00136 -0.0035049 -0.0011905 0.00020466 0.0010698 0.0010663 0.23464 -0.048633
-0.00056785 0.0086369 -3.558e-05 -0.0026527
-0.0013326 0.00077845 -0.0010289 0.00090457 -0.0013063 0.0015112 -0.0005098 0.0086263
0.2304 0.098722 0.0043189 0.0072261
0.00031137 -0.00046995 -0.00061726 0.00041507 -0.0011048 -0.00061611 -0.00014007 -0.0026476
0.004348 0.0072544 0.27531 0.1317
1820000000 0.25213 -0.10492 0.0044721 0.0023058 -0.00026095 0.0025585 -0.0010797 -0.0031254
-0.0010285 0.00099427 -3.3182e-05 -0.00020053
0.0044599 0.0023001 0.25645 0.17375 -0.00075197 -0.00030502 -0.0012635 0.00093155
-5.0082e-05 0.0012345 -0.00049449 0.00048273
-0.00029527 0.0025566 -0.00078834 -0.00028824 0.15975 -0.24394 0.0016114 0.00035406
-0.00013658 0.0023191 -0.0013893 0.00032334
-0.0010337 -0.0031261 -0.0012706 0.00094418 0.0016751 0.00030357 0.20514 -0.095507
0.00071606 0.0070965 -0.0016658 -0.0016559
-0.0010112 0.00098978 -2.7728e-05 0.0012393 -8.0511e-05 0.0023109 0.00075606 0.0070985
0.2472 0.069974 0.0052558 0.0036066
-7.3221e-05 -0.00019617 -0.00050827 0.00051825 -0.0013175 0.00039357 -0.001652 -0.0016938
0.005244 0.0035849 0.27721 0.095418
1880000000 0.21753 -0.14565 0.0022106 6.1042e-05 -0.00049692 0.0022911 -0.0029215 -0.0022085
-0.00016045 0.0018239 8.1802e-06 -0.00058993
0.0021761 5.2818e-05 0.26154 0.12738 -0.0026575 0.0016524 -0.00014767 0.001696
0.0005888 0.0013285 7.8247e-05 0.0008899
-0.00049666 0.0021812 -0.0026017 0.0016513 0.10794 -0.25341 0.0018322 -0.00088761
0.0015702 0.0019901 -0.0011562 0.0012446
-0.0029767 -0.0022008 -0.00014889 0.0016938 0.0017918 -0.00091506 0.16514 -0.13586
0.0013162 0.005143 -0.0025794 0.00032706
-0.0001618 0.0017703 0.00062549 0.001318 0.0015684 0.0020143 0.0013951 0.0051825
0.25066 0.038515 0.0052248 0.0011693
6.8697e-05 -0.00067479 0.00010233 0.00089204 -0.0010901 0.0013922 -0.0025065 0.00041106
0.0052363 0.001188 0.27729 0.060959
1940000000 0.17839 -0.17158 -0.00021654 -0.0013632 0.0013145 0.0020469 -0.0036872 0.00042542
0.0014386 0.00108 -0.00050128 -0.00054384
-0.00024341 -0.0013986 0.26261 0.095637 -0.0014097 0.004021 0.0011029 0.0013259
0.0019274 0.00054189 0.0010495 0.00038271
0.0014109 0.0020812 -0.0013958 0.0040778 0.062433 -0.24617 0.0003706 -0.0022618
0.0023699 0.00034391 0.00055311 0.0018043
-0.003686 0.00050644 0.0011271 0.0012822 0.00049637 -0.0022406 0.11319 -0.16655
0.00069508 0.0039883 -0.0017076 0.0017276
0.0014776 0.0011021 0.0019105 0.00056376 0.0023824 0.00032724 0.00072846 0.0040046
0.25351 0.00065927 0.0036453 -0.0021223
-0.00056932 -0.00047053 0.001032 0.00035866 0.00060777 0.0017463 -0.0016193 0.0016252
0.0036658 -0.0021327 0.26578 0.024759
2000000000 0.1325 -0.18691 -0.0038095 0.00062353 0.002735 0.0014466 -0.0022886 0.0037506
0.0012225 0.00042363 -0.00059874 0.00068262
-0.0038069 0.00064497 0.24905 0.059898 -0.00088941 0.0058837 0.0016017 0.00039412
0.0013487 -0.0011239 0.00045656 0.00015441
0.0026553 0.0014507 -0.00082457 0.0058955 0.019255 -0.23278 -0.0012333 -0.0014541
0.0020481 -0.0012058 0.0014535 0.0016117
-0.0023301 0.0038748 0.0016398 0.00041192 -0.0013249 -0.0014554 0.060184 -0.17732
-0.00046684 0.0037194 -4.8753e-05 0.0023542
0.0012063 0.00036784 0.0013175 -0.0011427 0.0020239 -0.0012573 -0.00048938 0.0038076
0.24873 -0.032167 0.00068684 -0.0029304
