!Keysight Technologies,M9804A,MY58100912,A.14.10.03
!Date: Thursday, April 27, 2023 10:28:33
!Correction: S11(C  6-Port  ) 
!S12(C  6-Port  ) 
!S13(C  6-Port  ) 
!S14(C  6-Port  ) 
!S15(C  6-Port  ) 
!S16(C  6-Port  ) 
!S21(C  6-Port  ) 
!S22(C  6-Port  ) 
!S23(C  6-Port  ) 
!S24(C  6-Port  ) 
!S25(C  6-Port  ) 
!S26(C  6-Port  ) 
!S31(C  6-Port  ) 
!S32(C  6-Port  ) 
!S33(C  6-Port  ) 
!S34(C  6-Port  ) 
!S35(C  6-Port  ) 
!S36(C  6-Port  ) 
!S41(C  6-Port  ) 
!S42(C  6-Port  ) 
!S43(C  6-Port  ) 
!S44(C  6-Port  ) 
!S45(C  6-Port  ) 
!S46(C  6-Port  ) 
!S51(C  6-Port  ) 
!S52(C  6-Port  ) 
!S53(C  6-Port  ) 
!S54(C  6-Port  ) 
!S55(C  6-Port  ) 
!S56(C  6-Port  ) 
!S61(C  6-Port  ) 
!S62(C  6-Port  ) 
!S63(C  6-Port  ) 
!S64(C  6-Port  ) 
!S65(C  6-Port  ) 
!S66(C  6-Port  ) 
!S6P File: Measurement: :
# Hz S  RI   R 50
500000000 -0.33515 -0.051976 -0.011151 -0.0013895 -0.008884 0.013528 -0.0048543 0.012157
0.012575 0.0062116 -0.0055222 0.0086369
-0.011255 -0.0011645 -0.41681 -0.062901 0.0074175 -0.010287 0.0011826 0.011932
0.0077727 0.002605 0.0010871 0.013717
-0.0087987 0.013645 0.0074932 -0.010208 -0.26781 0.20049 0.0067826 0.0043218
-0.0022972 0.0075086 0.00081876 0.012849
-0.0050236 0.012184 0.001229 0.012151 0.0067883 0.0043843 -0.33296 0.043451
-0.01775 -0.0044762 0.016413 0.025101
0.012577 0.0059575 0.007816 0.0027891 -0.0020992 0.0076621 -0.017426 -0.0040828
-0.2516 -0.19222 -0.025429 0.0052174
-0.0049893 0.0083592 0.0014047 0.013756 0.00069971 0.012904 0.016715 0.025336
-0.025643 0.0053448 -0.27157 -0.11984
560000000 -0.31816 0.11429 -0.024039 -0.063903 0.00018292 0.012976 0.0043692 0.01094
0.011219 0.0045136 0.0096189 0.0089864
-0.023859 -0.063834 -0.37641 0.10002 -0.04238 -0.03741 0.013495 0.0039525
-0.013199 -0.0041336 0.0040956 -0.00023109
-0.00014166 0.013045 -0.042241 -0.037374 -0.18547 0.25186 -0.00031315 -0.0041605
0.019647 0.0046154 0.0075938 -0.0047837
0.0043692 0.011197 0.013441 0.0036367 -0.00041988 -0.0038822 -0.30739 0.13513
0.004201 -0.023136 0.0048895 -0.021467
0.01163 0.0049159 -0.013204 -0.004227 0.019693 0.0051215 0.0037895 -0.023138
-0.30998 -0.013646 0.0068432 -0.046584
0.0097121 0.0091099 0.0041374 -0.00067184 0.0075982 -0.0049107 0.0052299 -0.021709
0.0069811 -0.046418 -0.33257 0.026961
620000000 -0.27872 0.095082 -0.023367 0.008797 0.0039623 0.0095319 0.0077546 -0.0043088
0.012821 -0.0010671 -4.4454e-05 -0.0018497
-0.023278 0.0087662 -0.40398 0.05047 -0.01852 0.001015 -0.0013233 -0.0017634
0.012268 -0.006477 0.0014839 -0.0027423
0.00399 0.0094318 -0.018501 0.00090575 -0.15534 0.26132 -0.00085709 -0.0047691
-0.0024115 -0.0030532 0.0090265 -0.0026917
0.0076474 -0.0042856 -0.0013035 -0.0017602 -0.00072379 -0.0048089 -0.26665 0.1462
-0.038622 -0.018763 0.012199 0.026882
0.012789 -0.0013626 0.012258 -0.0063333 -0.0025772 -0.0029761 -0.038607 -0.018618
-0.23109 -0.04672 -0.039696 0.013248
-0.00021892 -0.0019479 0.0012777 -0.0029342 0.009121 -0.0025565 0.012337 0.027105
-0.039493 0.012934 -0.25186 -0.0054314
680000000 -0.23879 0.18595 -0.0266 -0.013748 0.0052746 0.0052472 0.0019974 -0.0068992
-0.0016598 -0.012038 0.0053143 -0.0070289
-0.026646 -0.013744 -0.38985 0.1513 -0.032138 -0.001862 -0.0012567 -0.00038906
-0.0011729 -0.009377 -0.0009777 -0.0019328
0.00526 0.0052476 -0.032203 -0.0017674 -0.1031 0.28153 -0.00073055 -0.0004467
-0.0014933 0.00030855 -0.0028162 -0.0094955
0.0018862 -0.0070695 -0.0012352 -0.00044872 -0.00073031 -0.00041889 -0.22032 0.19827
-0.023304 -0.0077956 -0.0087468 -0.010276
-0.0017663 -0.012157 -0.0014029 -0.0093516 -0.0014251 0.00032254 -0.023633 -0.0077432
-0.27936 0.056957 -0.0079796 -0.0077627
0.005305 -0.0071701 -0.00097275 -0.0020048 -0.0028778 -0.0095869 -0.008635 -0.010096
-0.0081728 -0.0077454 -0.26114 0.098865
740000000 -0.19339 0.17847 -0.039077 0.027231 0.013497 -0.004805 -0.00019803 -0.0043285
-0.0043347 -0.0036166 -0.0066475 0.0030994
-0.039056 0.027162 -0.33537 0.17011 -0.036576 0.034355 -0.00057164 -0.0059258
-0.012013 0.0073864 -0.0012942 -0.0066992
0.01345 -0.0046906 -0.036583 0.034389 -0.068922 0.27875 -0.0021133 0.0031381
-0.003066 -0.0060977 -0.001404 0.0015059
-0.00031323 -0.0044325 -0.00052945 -0.0059558 -0.0020854 0.0031354 -0.2038 0.20502
-0.042105 -0.0068446 0.022682 0.01459
-0.0043824 -0.0038005 -0.012105 0.0078023 -0.0031282 -0.0063598 -0.04201 -0.0068302
-0.18177 0.084803 -0.041026 0.00067111
-0.0066697 0.003026 -0.0014227 -0.0069414 -0.0012094 0.0015049 0.022718 0.014412
-0.041045 0.0010004 -0.24765 0.10305
800000000 -0.16108 0.22137 -0.022121 0.016164 0.0056261 -0.010687 -0.0041634 -0.0019511
-0.0051133 0.0019337 0.0043126 0.00063758
-0.0221 0.016203 -0.3404 0.24001 -0.0084778 0.033801 -0.0022907 0.002153
-0.0016849 0.0026322 0.0011322 0.0053595
0.0055889 -0.010692 -0.0083942 0.033859 -0.030583 0.30218 0.00081264 0.00147
-0.00018823 0.0037993 -0.0016686 0.00070779
-0.0041881 -0.0019164 -0.0023028 0.0021902 0.00083026 0.0014464 -0.17385 0.23293
-0.027899 0.013406 0.013912 -0.010038
-0.0050703 0.0019686 -0.0016978 0.0026454 -0.00019227 0.0037778 -0.027873 0.013401
-0.22197 0.11311 -0.016089 0.020116
0.004409 0.00062234 0.0012208 0.005245 -0.001599 0.00071126 0.013878 -0.0099436
-0.015978 0.020054 -0.23982 0.15247
860000000 -0.12617 0.24163 -0.017501 0.030355 -0.0028967 -0.01031 -0.0016164 0.00067275
0.0039403 0.0057214 -0.0031219 -0.0029195
-0.017499 0.03033 -0.29217 0.28242 0.0073587 0.034212 0.00023628 0.0021014
0.0039395 0.0011124 0.0033037 0.00046889
-0.0029116 -0.010324 0.0074769 0.034246 0.016543 0.31033 -0.00054998 6.9738e-05
0.0023634 -0.0012561 0.0016313 0.0040706
-0.0016858 0.00067544 0.00026729 0.0021426 -0.00054451 6.8872e-05 -0.13676 0.24325
-0.017705 0.0186 -0.0058632 -0.0088706
0.0040605 0.0057969 0.0037635 0.0012637 0.0023338 -0.0012595 -0.017716 0.018715
-0.16324 0.16311 -0.023726 0.017091
-0.0031052 -0.0029627 0.0034105 0.00047462 0.0016525 0.0041472 -0.0060621 -0.0089387
-0.023776 0.017065 -0.18861 0.19647
920000000 -0.10271 0.26471 0.0046753 0.03798 -0.0091991 -0.0051158 -0.0017972 0.0016417
0.0016778 0.0024129 0.0032642 -0.001348
0.004692 0.037932 -0.265 0.30392 0.028148 0.022653 0.0013975 0.0013513
0.0080354 0.00011845 0.0043533 -0.0026703
-0.0092131 -0.0050846 0.028221 0.022622 0.062011 0.31202 0.0021657 -1.0374e-05
0.0013481 -0.00018015 0.0010693 -0.0014029
-0.0018135 0.0015944 0.0013657 0.0012898 0.0021281 -6.2199e-06 -0.11236 0.25986
-0.010479 0.030456 0.003626 -0.006637
0.0017956 0.0023691 0.0080267 8.2542e-05 0.0013645 -9.8922e-05 -0.010437 0.030443
-0.15145 0.16909 -0.0016322 0.025814
0.0031704 -0.0013144 0.0043417 -0.0026672 0.0011024 -0.0013477 0.0036314 -0.0066597
-0.001675 0.025897 -0.19542 0.2109
980000000 -0.056225 0.28441 0.016904 0.029837 -0.0095355 0.0040235 0.0017753 0.0035978
0.0040766 -0.0019848 -0.0031396 -0.0021567
0.016902 0.029814 -0.21192 0.33823 0.033401 0.0053346 0.0021308 -9.2566e-05
0.0019723 -0.0062265 -0.0003271 -0.0025965
-0.0094834 0.0040529 0.033439 0.0052536 0.10775 0.30636 0.00071546 -0.0011732
0.000575 -0.0020438 0.0014152 -9.8355e-05
0.0017718 0.0035641 0.0021485 -8.7028e-05 0.00071202 -0.0011777 -0.074399 0.2702
0.0072516 0.029861 -0.0089941 -0.0065151
0.0040881 -0.0020775 0.0019878 -0.0062706 0.00057821 -0.0019975 0.0072799 0.029786
-0.1188 0.19823 0.0062251 0.018984
-0.003075 -0.0021448 -0.00029855 -0.0025922 0.0014082 -9.8621e-05 -0.0090036 -0.0066204
0.0061173 0.01915 -0.1533 0.25395
1040000000 -0.015004 0.29349 0.032847 0.018804 -0.0017761 0.0069852 0.0026315 0.0010202
0.00023024 -0.0034661 -0.00020024 -0.001575
0.032818 0.018779 -0.1772 0.35183 0.030018 -0.014632 0.0015515 -0.0017252
-0.0022131 -0.0030364 -0.0010359 -0.0030292
-0.0017257 0.0069889 0.029995 -0.014744 0.15361 0.29358 -0.00044258 -0.0016513
-0.0016229 -0.0010609 -0.00053877 -0.001089
0.0026229 0.00095567 0.0015917 -0.0017283 -0.00043788 -0.0016653 -0.047033 0.28023
0.01953 0.018885 -0.0026533 0.00087806
0.00019705 -0.0034302 -0.0022428 -0.00301 -0.0016219 -0.0010382 0.01958 0.018859
-0.085255 0.20409 0.014473 0.017652
-0.00016651 -0.0014821 -0.00112 -0.0029096 -0.0005969 -0.001033 -0.0026012 0.00086726
0.014449 0.0176 -0.1297 0.27333
1100000000 0.029782 0.30236 0.036275 -0.0037006 0.0026696 0.0042237 0.0025007 -0.00087944
-0.0021373 -0.0028907 -0.0039699 -4.4838e-05
0.036252 -0.0036738 -0.13416 0.36975 0.01593 -0.028086 0.00015338 -0.0018045
-0.0037882 -0.001014 -0.0036364 -0.00061498
0.0026878 0.0042064 0.015837 -0.028178 0.20003 0.27425 -0.0019406 3.4743e-05
-0.0019225 0.00046168 -0.0011239 -0.0004432
0.0024763 -0.00092313 0.00016007 -0.0018022 -0.0019557 4.9635e-05 -0.0069868 0.28519
0.025151 0.0052898 -0.0026367 4.7364e-05
-0.0021728 -0.0028724 -0.0038144 -0.00095546 -0.0019302 0.00047465 0.025179 0.005302
-0.06446 0.21659 0.01985 0.007988
-0.0040064 1.6573e-05 -0.0036925 -0.00057265 -0.0011321 -0.00042802 -0.0026648 1.5045e-05
0.019832 0.0080132 -0.083777 0.30197
1160000000 0.080446 0.29856 0.02423 -0.020746 0.0026043 -0.00036459 5.1916e-05 -0.0022466
-0.004063 -0.00099119 -0.0010767 0.00426
0.024292 -0.020719 -0.090985 0.37455 -0.0033833 -0.029784 -0.0016248 -0.0017906
-0.0028626 0.0024558 -0.0017186 0.0021358
0.0026236 -0.00036821 -0.0035523 -0.0298 0.2433 0.244 -0.00095638 0.0018312
-0.0007292 0.0019627 -0.00081002 0.00047149
4.0925e-05 -0.0022521 -0.0016177 -0.0018083 -0.00096964 0.0018222 0.032026 0.28238
0.021711 -0.010767 -0.0033373 0.0049104
-0.0040652 -0.00093267 -0.002897 0.0025202 -0.00072765 0.0019905 0.021679 -0.010787
-0.029685 0.22342 0.018459 -0.0010239
-0.0011263 0.004293 -0.0016358 0.0021365 -0.00079705 0.00048374 -0.0033148 0.0049026
0.018401 -0.0010261 -0.03678 0.30483
1220000000 0.12454 0.28891 0.010771 -0.030235 -0.0016926 -0.00077388 0.00020417 -0.00096403
-0.0026731 0.0021425 0.0010661 0.002031
0.010803 -0.030196 -0.046925 0.38785 -0.017138 -0.022009 -0.0027151 0.0004561
-5.9466e-05 0.0033033 -0.00093836 0.0019939
-0.0016651 -0.00078599 -0.017259 -0.021961 0.28253 0.20545 0.00071919 0.0019302
0.00063043 0.0012464 0.00023237 0.00055911
0.00018675 -0.00098615 -0.0027229 0.00047714 0.00074046 0.0019198 0.072349 0.27402
0.011058 -0.017851 0.0017631 0.0015208
-0.0026573 0.0021564 -2.2766e-05 0.0033025 0.00063559 0.0013011 0.01102 -0.017868
-0.0064471 0.23158 0.013702 -0.013536
0.0010717 0.0020152 -0.00090741 0.0020111 0.00020987 0.00062138 0.0017488 0.0015138
0.013731 -0.013536 -0.005053 0.31901
1280000000 0.17484 0.26831 -0.0080055 -0.028873 -0.0020023 0.0027216 -0.00073645 -0.0021703
-0.00084321 0.0032364 0.0025401 0.0014226
-0.0079526 -0.028833 -0.00077562 0.37962 -0.024483 -0.0089672 -0.0010341 0.0015793
0.0018941 0.0018734 0.00058967 0.002058
-0.001977 0.0027291 -0.024551 -0.0088767 0.31314 0.16173 0.0017336 1.974e-05
0.0013846 0.0003173 0.00034734 0.00014886
-0.00072814 -0.0021477 -0.0010302 0.0016056 0.001733 3.8584e-05 0.10923 0.258
0.00085851 -0.020088 -0.00014689 0.00041785
-0.00082372 0.0032509 0.0018852 0.0018941 0.0013968 0.00031808 0.00080233 -0.020098
0.029975 0.23421 0.002435 -0.015629
0.0024964 0.0013948 0.00062582 0.0020744 0.000372 0.0001092 -0.00016138 0.00041886
0.0024267 -0.015604 0.042046 0.32087
1340000000 0.21223 0.23573 -0.017913 -0.018961 0.00089445 0.0049616 -0.0017927 -0.00099667
0.0014062 0.0026473 0.00193 -0.0013956
-0.017871 -0.018983 0.038881 0.37217 -0.022254 0.0043072 -6.6844e-05 0.0020976
0.0021591 0.00074253 0.0013003 0.00074878
0.00090154 0.0049405 -0.022268 0.0044044 0.33504 0.1148 0.0012293 -0.00094415
0.00062259 -0.00062136 -4.952e-05 0.00014749
-0.0018065 -0.0009915 -8.1786e-05 0.0021089 0.0012198 -0.0009643 0.14249 0.23741
-0.0090663 -0.017238 0.00061818 0.00082459
0.0014159 0.0026338 0.0021464 0.00072552 0.00061856 -0.00064638 -0.0091196 -0.01725
0.059569 0.22938 -0.0046701 -0.014102
0.001904 -0.0013879 0.0012741 0.00073192 -7.9091e-05 0.00016039 0.00065249 0.0008044
-0.0046693 -0.014089 0.079848 0.31499
1400000000 0.24643 0.19834 -0.023677 -0.007281 0.0055848 0.0034831 -0.0023551 0.00062786
0.0024444 0.0010803 0.00033367 -0.0016699
-0.023644 -0.0073111 0.076689 0.35974 -0.015443 0.012919 0.0014673 0.0013597
0.0013847 -0.00091399 0.0012232 0.00010205
0.0055898 0.003448 -0.015405 0.012984 0.34846 0.06207 8.17e-05 -0.0018157
2.8014e-05 -0.00044254 0.00037362 0.00022128
-0.0023595 0.00062569 0.0014658 0.0013442 8.4609e-05 -0.0018249 0.17234 0.20824
-0.015391 -0.010132 -0.00071905 -4.1891e-06
0.0024412 0.0010535 0.0013851 -0.00092244 4.1126e-05 -0.00042747 -0.015424 -0.01011
0.0926 0.22476 -0.010806 -0.0086417
0.00035031 -0.0016828 0.0012222 0.00010993 0.00038085 0.00022296 -0.00074273 -1.0869e-05
-0.010779 -0.0086854 0.12365 0.30363
1460000000 0.26993 0.15464 -0.020408 0.0051115 0.0061389 -0.0018546 -0.0016295 0.0018572
0.0023113 -0.0005008 -0.00043275 -0.0010186
-0.020398 0.0050858 0.11129 0.33802 -0.0061753 0.016087 0.0017521 0.0001111
0.0008449 -0.0015098 0.001203 -0.00058506
0.0061147 -0.0018719 -0.0061109 0.016145 0.35507 0.0082595 -0.0012853 -0.0013855
0.00015643 -0.00015308 0.00071732 -0.00015005
-0.0016086 0.0018616 0.0017657 0.00010046 -0.0012756 -0.0013617 0.1989 0.17857
-0.016654 -0.0029906 -0.00068364 0.0021306
0.0023143 -0.00051991 0.0008407 -0.0015261 0.00018804 -0.00016958 -0.016658 -0.0029576
0.12175 0.21064 -0.012424 -0.0025918
-0.00044956 -0.001018 0.0011958 -0.00060089 0.00075013 -0.00020105 -0.00067013 0.0021693
-0.012445 -0.0025885 0.1569 0.28295
1520000000 0.28278 0.11313 -0.014552 0.010591 0.0036203 -0.0045488 0.00011222 0.0027001
0.0021683 -0.0019696 -0.0011965 -0.00016527
-0.014571 0.010556 0.14516 0.32371 0.0019017 0.013696 0.0016349 -0.00087409
-5.3424e-05 -0.0011518 0.00031423 -0.0011078
0.0035861 -0.004565 0.0019783 0.013688 0.34914 -0.047315 -0.0011673 -0.00038198
0.00066559 -0.00092027 -6.1372e-06 -0.0002999
0.00011842 0.0027188 0.0016348 -0.00088505 -0.0011716 -0.00037541 0.22207 0.14012
-0.01567 0.0033721 0.0017222 0.0022075
0.0021544 -0.0019728 -6.2726e-05 -0.0011413 0.00068442 -0.00093121 -0.015676 0.0034115
0.14992 0.19719 -0.012248 0.0022564
-0.0012174 -0.00016874 0.00030766 -0.0011016 -5.5836e-06 -0.00027729 0.0017238 0.0022072
-0.01227 0.0022576 0.18942 0.26208
1580000000 0.29298 0.066703 -0.0076606 0.013577 -0.00089507 -0.0053287 0.00157 0.0019903
-0.00015297 -0.0022823 -0.00023622 0.00046436
-0.0076833 0.013571 0.17278 0.29896 0.0057594 0.0084505 0.00046256 -0.0015865
-0.00060424 -0.00094756 -0.00015875 -0.00092038
-0.00091884 -0.0053159 0.0058202 0.0084289 0.32983 -0.10507 -0.0017281 0.00065691
-0.00034975 -0.0011715 0.00036233 -0.00052448
0.0015806 0.0019747 0.00045787 -0.0015942 -0.0017192 0.00065515 0.23565 0.10032
-0.011785 0.0083893 0.0024466 0.00062731
-0.00017519 -0.0022769 -0.00061749 -0.00095259 -0.00035863 -0.0011827 -0.011765 0.0084228
0.17458 0.17948 -0.0093236 0.0078375
-0.00022895 0.00046519 -0.0001694 -0.00091692 0.00033119 -0.00052789 0.0024453 0.0006289
-0.009319 0.0078268 0.22088 0.235
1640000000 0.29527 0.025452 -0.00095741 0.012199 -0.0030249 -0.0028483 0.0027684 0.001086
-0.00086738 -0.001653 -0.00043933 0.0006759
-0.00099774 0.012181 0.20247 0.27425 0.0064395 0.0033839 -0.00067928 -0.0017311
-0.0010142 -0.00035638 -0.00060545 -0.00071327
-0.0030343 -0.0028205 0.0064548 0.003353 0.30195 -0.15436 -0.00062568 0.0015958
-0.0010498 -0.0009489 -0.00020408 -0.00032001
0.002764 0.0010674 -0.00069218 -0.0017472 -0.00061988 0.0015916 0.24774 0.051556
-0.0071144 0.0098374 0.0025884 -0.00082477
-0.0008861 -0.0016627 -0.0010142 -0.00033972 -0.0010803 -0.00094662 -0.0070895 0.0098613
0.19793 0.15557 -0.0044142 0.0097273
-0.00043473 0.00068234 -0.00060695 -0.00070823 -0.00021651 -0.00031284 0.0025689 -0.00084719
-0.0044139 0.0097296 0.24619 0.20423
1700000000 0.28836 -0.019954 0.0023521 0.0091479 -0.0038344 -0.00010466 0.0031896 -0.0013473
-0.0020451 -0.0006339 0.00058042 0.00046483
0.0023402 0.0091519 0.22091 0.24283 0.0042273 0.00016485 -0.0015308 -0.00057913
-0.0007747 4.6997e-05 -0.00093692 -0.00047964
-0.0037948 -7.6101e-05 0.0042273 0.00016208 0.25899 -0.19459 0.00050711 0.0016126
-0.0020294 -6.275e-05 -0.00048936 -0.00088838
0.0031885 -0.001365 -0.0015294 -0.00057087 0.00050194 0.0016209 0.24437 0.001567
-0.003836 0.010036 0.0015917 -0.002359
-0.0020708 -0.00063784 -0.00078423 4.576e-05 -0.0020265 -5.9982e-05 -0.0038194 0.010059
0.21563 0.13504 0.00023363 0.0098981
0.00057763 0.00045082 -0.0009378 -0.00048563 -0.00046534 -0.00087244 0.0015899 -0.0023765
0.00024405 0.0098935 0.26232 0.16983
1760000000 0.27645 -0.068676 0.0045 0.0057429 -0.0025141 0.00095257 0.0013237 -0.0035825
-0.0014255 0.00075873 0.00029423 -0.00050973
0.0044947 0.0057476 0.24709 0.20305 0.0017352 -0.0017619 -0.0012195 0.00019385
-0.0010685 0.00086837 -0.00073793 0.00038723
-0.0024783 0.00095058 0.0017122 -0.0017662 0.21078 -0.22813 0.0011283 0.0010156
-0.0013508 0.0015353 -0.0013496 -0.00060257
0.0013046 -0.0035633 -0.0012279 0.00020078 0.0011308 0.0010435 0.23489 -0.04963
-0.00046461 0.0088622 -3.6563e-05 -0.0026842
-0.0014667 0.00075259 -0.0010681 0.0008786 -0.0013 0.0015709 -0.00046934 0.0088488
0.23087 0.10007 0.004242 0.0072699
0.00029615 -0.00053814 -0.00072529 0.00039059 -0.001335 -0.00058998 -4.0341e-05 -0.0026948
0.0042457 0.007292 0.27484 0.13231
1820000000 0.25197 -0.106 0.0043662 0.0022146 -0.0004057 0.0026153 -0.0011148 -0.0031051
-0.0011198 0.0010763 -3.2529e-05 5.8693e-06
0.0043593 0.0022136 0.25747 0.173 -0.00076031 -0.00051876 -0.0013198 0.00090591
-0.00010397 0.0012228 -0.00061247 0.00064368
-0.00040616 0.0026021 -0.00078247 -0.00052947 0.15986 -0.24406 0.0015993 0.00029332
-0.00010725 0.0024257 -0.0015714 0.0004292
-0.0011198 -0.0030973 -0.0013053 0.00092693 0.0015758 0.00031532 0.20488 -0.09657
0.00089103 0.0071855 -0.0018783 -0.0017356
-0.0011146 0.0010641 -0.00010057 0.0012249 -9.52e-05 0.0024122 0.00087658 0.0071694
0.24807 0.070953 0.005101 0.0035666
-2.2444e-05 -2.3376e-06 -0.00063009 0.00064539 -0.0015173 0.0004866 -0.0019067 -0.0017033
0.005099 0.0035632 0.27682 0.096147
1880000000 0.21685 -0.14656 0.0020015 -3.3027e-05 -0.00066874 0.0023393 -0.0029443 -0.0021847
-0.00015393 0.0018176 8.3714e-05 -0.00072533
0.0020016 -2.9714e-05 0.26207 0.12628 -0.0028544 0.0014484 -0.00025538 0.0017559
0.00051585 0.0013127 0.00016184 0.00096881
-0.00067623 0.0022993 -0.002836 0.0014748 0.10781 -0.25349 0.0016538 -0.0010197
0.0016346 0.0019279 -0.0009418 0.0014165
-0.0029534 -0.0021513 -0.00023975 0.0017404 0.0016219 -0.00098258 0.16446 -0.13668
0.0017176 0.0051121 -0.0024506 0.00027786
-0.00013199 0.0018236 0.00054207 0.0013109 0.0016176 0.0019173 0.0017584 0.0051175
0.25202 0.039207 0.0054249 0.0012587
5.3293e-05 -0.00073761 0.00015397 0.00094841 -0.001004 0.0014072 -0.0024339 0.00031767
0.0054168 0.0012667 0.27706 0.062027
1940000000 0.17756 -0.172 -0.00050928 -0.0014273 0.0013639 0.0022337 -0.0036591 0.00052903
0.0014856 0.0011695 -0.00043491 -0.0003049
-0.00050907 -0.0014226 0.26268 0.094451 -0.0016558 0.0041271 0.0011907 0.0014227
0.0018879 0.00068436 0.0011221 0.00050491
0.0014082 0.0022034 -0.0016341 0.0041176 0.062141 -0.24618 0.00050385 -0.0020815
0.0024635 0.00041479 0.00078734 0.0016384
-0.0036521 0.00055944 0.0011952 0.0014259 0.00048432 -0.0021273 0.11208 -0.16715
0.00083757 0.0037239 -0.0016678 0.0016245
0.0014963 0.0011557 0.0018959 0.00067279 0.0024298 0.00037714 0.00084423 0.0037008
0.25464 0.00069866 0.0039641 -0.0020157
-0.00044242 -0.00028449 0.0011171 0.00048838 0.00080965 0.0016523 -0.0016831 0.0016165
0.0039552 -0.0019979 0.26606 0.02594
2000000000 0.13161 -0.18676 -0.0041767 0.00080429 0.0027881 0.0016376 -0.0024642 0.0037377
0.0012048 0.00011358 -0.00066787 0.00043051
-0.0041706 0.00078071 0.24864 0.058837 -0.0010468 0.0060564 0.0016288 0.00035905
0.0015211 -0.0011198 0.00055034 5.8046e-05
0.0027859 0.0016217 -0.0010002 0.0060844 0.019235 -0.23256 -0.0010971 -0.0015368
0.002233 -0.0012379 0.0015412 0.0013698
-0.0024394 0.0037367 0.0016376 0.00034869 -0.0010776 -0.0015467 0.058959 -0.17716
-0.00052202 0.0034359 -0.00022767 0.002427
0.0012234 0.0001024 0.001496 -0.001127 0.0021855 -0.0012354 -0.00052296 0.0034681
0.24971 -0.032622 0.00078475 -0.0031914
