!Keysight Technologies,M9804A,MY58100912,A.14.10.03
!Date: Thursday, April 27, 2023 10:28:33
!Correction: S11(C  6-Port  ) 
!S12(C  6-Port  ) 
!S13(C  6-Port  ) 
!S14(C  6-Port  ) 
!S15(C  6-Port  ) 
!S16(C  6-Port  ) 
!S21(C  6-Port  ) 
!S22(C  6-Port  ) 
!S23(C  6-Port  ) 
!S24(C  6-Port  ) 
!S25(C  6-Port  ) 
!S26(C  6-Port  ) 
!S31(C  6-Port  ) 
!S32(C  6-Port  ) 
!S33(C  6-Port  ) 
!S34(C  6-Port  ) 
!S35(C  6-Port  ) 
!S36(C  6-Port  ) 
!S41(C  6-Port  ) 
!S42(C  6-Port  ) 
!S43(C  6-Port  ) 
!S44(C  6-Port  ) 
!S45(C  6-Port  ) 
!S46(C  6-Port  ) 
!S51(C  6-Port  ) 
!S52(C  6-Port  ) 
!S53(C  6-Port  ) 
!S54(C  6-Port  ) 
!S55(C  6-Port  ) 
!S56(C  6-Port  ) 
!S61(C  6-Port  ) 
!S62(C  6-Port  ) 
!S63(C  6-Port  ) 
!S64(C  6-Port  ) 
!S65(C  6-Port  ) 
!S66(C  6-Port  ) 
!S6P File: Measurement: :
# Hz S  RI   R 50
500000000 -0.33517 -0.052276 -0.010798 -0.0014609 -0.0083974 0.013186 -0.005166 0.011991
0.01255 0.0063701 -0.0053647 0.0086257
-0.011226 -0.0012189 -0.41683 -0.06292 0.0077457 -0.010303 0.0011524 0.011763
0.0077942 0.0030436 0.0011416 0.013638
-0.0086619 0.013391 0.0079105 -0.010365 -0.26742 0.20067 0.0069251 0.0043215
-0.0022544 0.0076137 0.00062676 0.013057
-0.0048636 0.012265 0.001588 0.011777 0.0067053 0.004285 -0.33287 0.043435
-0.017804 -0.0043478 0.017063 0.025421
0.012864 0.0057293 0.0077754 0.0030884 -0.0019278 0.0077436 -0.017709 -0.0046867
-0.25138 -0.19239 -0.025579 0.005335
-0.0050146 0.0083079 0.0019421 0.013441 0.00053576 0.012876 0.016796 0.025239
-0.025242 0.0054019 -0.27074 -0.11922
560000000 -0.31976 0.11458 -0.023716 -0.064255 -5.8513e-05 0.01309 0.0044063 0.010987
0.011833 0.004793 0.0098955 0.0092853
-0.023532 -0.063754 -0.37635 0.099603 -0.04224 -0.03763 0.013358 0.0041687
-0.013157 -0.004562 0.0041902 -0.00032749
-0.00020078 0.012483 -0.042356 -0.037323 -0.18555 0.2517 -0.00033413 -0.0042698
0.019969 0.0049421 0.0076569 -0.004643
0.004882 0.010909 0.013807 0.0033683 -0.00016271 -0.0042018 -0.30688 0.13526
0.0037561 -0.023476 0.0051652 -0.02159
0.010824 0.0041011 -0.013504 -0.0033835 0.019437 0.0047483 0.0039613 -0.023157
-0.30892 -0.01239 0.0066764 -0.04689
0.010024 0.0087816 0.0039134 -0.001246 0.0080011 -0.0044475 0.0052584 -0.021465
0.0065803 -0.046694 -0.3324 0.027277
620000000 -0.27839 0.095506 -0.023221 0.0088467 0.0039507 0.0095628 0.0077467 -0.0040056
0.0125 -0.0012586 -0.00052651 -0.0016737
-0.023328 0.0090419 -0.40386 0.050586 -0.018568 0.0010118 -0.0013312 -0.0018427
0.012373 -0.0062917 0.0014781 -0.0029298
0.0038268 0.0096351 -0.018526 0.00095229 -0.15534 0.26126 -0.0007459 -0.0048224
-0.0025453 -0.00315 0.0091192 -0.0025843
0.0076492 -0.0044185 -0.0016858 -0.0019705 -0.00075392 -0.0049088 -0.26655 0.14613
-0.038469 -0.018583 0.011957 0.026847
0.012014 -0.00046516 0.012659 -0.0059411 -0.0026436 -0.0029919 -0.03878 -0.018456
-0.23139 -0.047888 -0.039644 0.013483
-0.00032387 -0.002026 0.0010489 -0.0031077 0.0090954 -0.0025792 0.012243 0.026864
-0.039581 0.013387 -0.25201 -0.0056404
680000000 -0.23866 0.18562 -0.026393 -0.013711 0.0051424 0.0053016 0.001755 -0.0069817
-0.0016388 -0.011991 0.0054235 -0.0072777
-0.02655 -0.013783 -0.38967 0.15119 -0.032154 -0.0018974 -0.0014137 -0.00043239
-0.0012665 -0.0093581 -0.00082779 -0.002082
0.0050236 0.0052359 -0.032221 -0.001837 -0.10307 0.28142 -0.00071883 -0.00046783
-0.0015251 0.00024797 -0.0027258 -0.0094346
0.0019824 -0.00696 -0.001261 -0.00053443 -0.00076522 -0.00048086 -0.22022 0.19789
-0.02347 -0.007802 -0.0084956 -0.01004
-0.0020407 -0.012421 -0.0015222 -0.0092877 -0.0015012 0.0002743 -0.023647 -0.0077385
-0.27966 0.056795 -0.008051 -0.0075831
0.0055327 -0.0067426 -0.00062343 -0.0022553 -0.002841 -0.00918 -0.0084283 -0.010135
-0.0081377 -0.0074742 -0.26105 0.09889
740000000 -0.19355 0.17845 -0.039297 0.027179 0.013526 -0.0048623 -0.00027636 -0.0043664
-0.0043094 -0.0036401 -0.0063751 0.0030108
-0.039243 0.02714 -0.33544 0.17074 -0.036623 0.034331 -0.00049957 -0.0058184
-0.012084 0.0076116 -0.0015951 -0.0068421
0.013472 -0.0047962 -0.03685 0.034512 -0.068885 0.27862 -0.0021806 0.003171
-0.0031617 -0.0062266 -0.0012746 0.0013656
-0.0002525 -0.0041626 -0.00051675 -0.0056162 -0.0019583 0.0030889 -0.20376 0.20507
-0.042077 -0.0069062 0.022845 0.014468
-0.0041254 -0.0036084 -0.012511 0.0075599 -0.0035001 -0.0061073 -0.04233 -0.0067755
-0.18172 0.085507 -0.040605 0.00089864
-0.0070253 0.0032716 -0.0018424 -0.0059713 -0.0010171 0.0012498 0.022901 0.01453
-0.040521 0.00083491 -0.24811 0.10327
800000000 -0.16093 0.22146 -0.022233 0.016227 0.0055829 -0.010615 -0.0042395 -0.002076
-0.0050794 0.00193 0.0045452 0.00059204
-0.022294 0.016182 -0.34054 0.24005 -0.0085456 0.033846 -0.0022778 0.0022208
-0.0017706 0.0026733 0.0012323 0.0053259
0.0056208 -0.010624 -0.0084342 0.033881 -0.030692 0.30221 0.00083378 0.0014757
-0.00018035 0.0037313 -0.0015434 0.00072859
-0.0043202 -0.0019731 -0.0023473 0.0021304 0.00083803 0.0015154 -0.1738 0.23288
-0.027921 0.013324 0.01373 -0.0099177
-0.0048218 0.0018116 -0.0017807 0.0026962 -0.00029403 0.0036361 -0.027842 0.013469
-0.22199 0.11308 -0.016079 0.020162
0.0041468 0.00049807 0.0010708 0.0052591 -0.0016181 0.00089795 0.013875 -0.010013
-0.016072 0.019908 -0.23998 0.15233
860000000 -0.12625 0.24153 -0.017425 0.030453 -0.0028418 -0.010314 -0.0015316 0.00062945
0.004014 0.0057503 -0.0032983 -0.0027814
-0.017432 0.030245 -0.29208 0.28267 0.0073508 0.034256 0.00031811 0.002136
0.0038572 0.0012398 0.0034059 0.00040461
-0.002878 -0.010341 0.0074871 0.034339 0.016532 0.31038 -0.0005342 0.00012559
0.002363 -0.0013039 0.0016209 0.0041658
-0.0015904 0.000661 0.00030187 0.0020966 -0.00058544 0.00011455 -0.1368 0.24322
-0.017529 0.018686 -0.0060128 -0.0088703
0.0040731 0.0056536 0.003769 0.0012269 0.0023113 -0.0013505 -0.017495 0.018682
-0.1634 0.1633 -0.024098 0.017138
-0.0034077 -0.0030322 0.0034841 0.0004997 0.0016513 0.0042272 -0.0059135 -0.0087335
-0.024216 0.017172 -0.18869 0.19672
920000000 -0.10275 0.26465 0.0047301 0.037881 -0.0092113 -0.00515 -0.0018287 0.0015265
0.001758 0.002334 0.0031149 -0.0014151
0.0047665 0.03784 -0.26494 0.30387 0.028101 0.02268 0.0014267 0.0012408
0.0080764 0.00012797 0.0043276 -0.0026154
-0.0092476 -0.0051178 0.02821 0.022597 0.061966 0.312 0.002126 -2.902e-05
0.0013699 -0.00017112 0.0010814 -0.0013309
-0.0017909 0.0015484 0.001466 0.001181 0.0020926 -5.0794e-05 -0.11235 0.25978
-0.010499 0.030426 0.0035725 -0.0065582
0.0016571 0.002364 0.0081461 0.0001164 0.0014001 -0.00015281 -0.010411 0.030413
-0.15168 0.16933 -0.0015016 0.026032
0.0032046 -0.0014614 0.0045442 -0.0027961 0.001092 -0.0013514 0.003606 -0.0067089
-0.0014845 0.025957 -0.19568 0.21101
980000000 -0.056411 0.2844 0.016912 0.029858 -0.0095388 0.0039985 0.0017874 0.0035502
0.004063 -0.0019761 -0.0031418 -0.002188
0.016859 0.029945 -0.21197 0.33819 0.033333 0.0053252 0.002096 -6.7259e-05
0.0019877 -0.0061705 -0.00031972 -0.0025895
-0.009528 0.0040545 0.033419 0.0052511 0.10771 0.30634 0.00069887 -0.0011989
0.00053708 -0.0020057 0.0014073 -0.00012325
0.0016958 0.0034281 0.0021099 -7.3491e-05 0.00069418 -0.001183 -0.074353 0.27021
0.0072232 0.029863 -0.0089845 -0.0066484
0.0040484 -0.0018996 0.0020964 -0.0062575 0.00051754 -0.0020279 0.0072622 0.029848
-0.11842 0.19838 0.0062458 0.01891
-0.0032131 -0.0023471 -0.00035324 -0.0026633 0.001461 -9.8485e-05 -0.0090585 -0.0065601
0.006315 0.019016 -0.15339 0.25374
1040000000 -0.015221 0.29348 0.032805 0.018696 -0.0017787 0.0069615 0.0026532 0.00093214
0.00017574 -0.0034263 -0.00018128 -0.0015201
0.032796 0.018741 -0.17717 0.35181 0.029978 -0.014646 0.0015212 -0.001699
-0.0022097 -0.0030226 -0.0010591 -0.0029448
-0.0017763 0.0069665 0.029991 -0.014747 0.15362 0.29358 -0.0004471 -0.0016437
-0.0016313 -0.0010194 -0.00059109 -0.0010105
0.002655 0.00090773 0.0015957 -0.0017335 -0.0004441 -0.0016626 -0.04705 0.28023
0.019507 0.018908 -0.0026032 0.00084489
0.0001637 -0.0033905 -0.0022638 -0.0029031 -0.0016177 -0.0010067 0.019574 0.018882
-0.085262 0.20415 0.014448 0.017667
-0.00014155 -0.001586 -0.00097214 -0.0029628 -0.00059115 -0.0010411 -0.0027021 0.00087007
0.014445 0.017785 -0.12965 0.27342
1100000000 0.029733 0.30241 0.036261 -0.003714 0.0026589 0.0042288 0.0024879 -0.00090694
-0.0021188 -0.002867 -0.0040172 -7.7064e-06
0.03625 -0.0036612 -0.13414 0.36976 0.015922 -0.02808 0.00012173 -0.0017788
-0.0037986 -0.00094645 -0.0036608 -0.00060799
0.0026513 0.0042317 0.015811 -0.02818 0.19998 0.27424 -0.0019396 5.5592e-05
-0.001909 0.00048224 -0.0011154 -0.00044033
0.0024591 -0.00093154 0.00013808 -0.0017846 -0.0019497 1.6609e-05 -0.0069298 0.28517
0.025218 0.0053214 -0.0026878 3.4934e-05
-0.0020706 -0.0028897 -0.0038354 -0.00096902 -0.001911 0.00046094 0.025198 0.0052549
-0.064394 0.21676 0.019834 0.0079449
-0.0040423 2.0516e-05 -0.0036363 -0.00056897 -0.0010605 -0.00049262 -0.0026993 5.4801e-05
0.019859 0.0080118 -0.083813 0.3021
1160000000 0.080415 0.29859 0.024331 -0.020755 0.0026346 -0.0003548 7.3318e-05 -0.0022213
-0.0040819 -0.00095322 -0.0011344 0.0042938
0.024316 -0.020784 -0.090939 0.3746 -0.0034155 -0.029789 -0.0016386 -0.0017551
-0.0028527 0.0024977 -0.0016769 0.0020581
0.0026433 -0.00037355 -0.0035333 -0.029796 0.24327 0.24402 -0.00096294 0.0018314
-0.00072669 0.0019941 -0.00079111 0.00049395
4.0694e-05 -0.0022611 -0.0015829 -0.0017814 -0.00093948 0.0018045 0.031999 0.2824
0.02175 -0.010793 -0.0033817 0.0049081
-0.0040751 -0.00085526 -0.0029139 0.0025301 -0.00074697 0.0020001 0.021699 -0.010823
-0.02954 0.22351 0.018375 -0.0010128
-0.0010449 0.0041354 -0.0015976 0.0020977 -0.00076635 0.00045263 -0.003419 0.0048602
0.018383 -0.00092947 -0.036803 0.30493
1220000000 0.1245 0.28892 0.010838 -0.030271 -0.0016673 -0.00079335 0.00020706 -0.00097021
-0.0026601 0.0021354 0.0011194 0.0019681
0.010829 -0.030227 -0.046882 0.38784 -0.01716 -0.022016 -0.0027127 0.0004556
-2.7145e-05 0.0032991 -0.000925 0.0020409
-0.0016738 -0.00079354 -0.017261 -0.021963 0.28251 0.20549 0.00072213 0.0019304
0.00062489 0.0012908 0.00021519 0.0006049
0.00014297 -0.00095826 -0.0026944 0.00047319 0.00072946 0.0019132 0.072297 0.27407
0.011001 -0.017864 0.0017838 0.0015274
-0.0027135 0.0021959 -2.6735e-05 0.0033393 0.00063901 0.0013294 0.011024 -0.017869
-0.0064647 0.23157 0.013728 -0.013598
0.001065 0.0020859 -0.00093874 0.0019853 0.00020049 0.00056732 0.0017211 0.0014811
0.013685 -0.013598 -0.005071 0.31897
1280000000 0.17482 0.26833 -0.0079649 -0.028858 -0.0020029 0.0027352 -0.00072435 -0.002144
-0.00085154 0.0032575 0.0025141 0.0014268
-0.0079731 -0.02884 -0.00075061 0.37963 -0.024464 -0.0089659 -0.0010185 0.0015554
0.0018879 0.0018613 0.00060285 0.0020623
-0.0020003 0.0027589 -0.024523 -0.0088881 0.31311 0.16176 0.001743 1.775e-05
0.0013722 0.00033509 0.00032857 0.00015028
-0.00077752 -0.0021583 -0.001047 0.00156 0.0017384 3.0048e-05 0.10919 0.25802
0.00084386 -0.02008 -0.00016402 0.0003802
-0.00084642 0.0032807 0.0019325 0.0019098 0.0013354 0.00033809 0.00077154 -0.020096
0.030107 0.2342 0.002509 -0.015621
0.0025866 0.0013263 0.00059584 0.0019859 0.00034039 0.00016893 -0.00016913 0.00031057
0.0025212 -0.015695 0.04198 0.32078
1340000000 0.21232 0.23568 -0.017916 -0.019002 0.00086886 0.0049167 -0.0018232 -0.0010053
0.0013948 0.0026449 0.0018795 -0.0013904
-0.017889 -0.018976 0.038882 0.37214 -0.02226 0.0042752 -6.7261e-05 0.00209
0.0021473 0.00073807 0.0012786 0.00075317
0.00089425 0.004943 -0.022255 0.0043797 0.33505 0.11483 0.0012092 -0.0009705
0.00059972 -0.00063484 -0.00011098 0.00016958
-0.0018594 -0.00097176 -4.9703e-05 0.0020944 0.0012215 -0.00095473 0.14249 0.23744
-0.0090935 -0.017305 0.00064587 0.00079756
0.0014572 0.0026112 0.0021586 0.00070461 0.00062205 -0.00064721 -0.0091359 -0.017248
0.059671 0.22929 -0.0046618 -0.014164
0.0018517 -0.0013676 0.0012372 0.00075586 -3.1585e-05 0.00015546 0.00059097 0.00080225
-0.0046222 -0.014155 0.079823 0.31501
1400000000 0.24643 0.19834 -0.023692 -0.0073021 0.0055843 0.0034911 -0.0023525 0.00061232
0.0024284 0.0010696 0.0003755 -0.0017019
-0.023652 -0.007296 0.076676 0.35974 -0.015441 0.012922 0.0014631 0.0013459
0.0013935 -0.00091255 0.0012336 0.00010945
0.0056015 0.0034742 -0.015391 0.012981 0.34848 0.062114 8.7954e-05 -0.001828
3.7657e-05 -0.00044046 0.00037417 0.00021904
-0.0023617 0.00061227 0.0014824 0.0013329 9.9426e-05 -0.0018217 0.17237 0.20823
-0.015387 -0.01014 -0.00072087 1.6601e-06
0.0024313 0.0010377 0.0013969 -0.00090645 5.1716e-05 -0.00043256 -0.015418 -0.010075
0.09261 0.22464 -0.010809 -0.0087262
0.00036876 -0.0016468 0.0012533 0.00011194 0.00035235 0.00025116 -0.00075964 2.5342e-05
-0.010821 -0.00874 0.12354 0.30367
1460000000 0.26987 0.1546 -0.020409 0.0051226 0.0061509 -0.0018295 -0.0016196 0.0018745
0.0023059 -0.00047943 -0.00049124 -0.0010113
-0.020407 0.0051042 0.11131 0.33805 -0.0061933 0.016097 0.0017729 0.00010754
0.00086711 -0.0015351 0.0012056 -0.00061238
0.0061319 -0.0018681 -0.0061069 0.01615 0.35511 0.0082721 -0.0012914 -0.0013844
0.00018162 -0.00017679 0.00072046 -0.00021073
-0.0016148 0.0018858 0.0017513 7.7199e-05 -0.001297 -0.0013513 0.19888 0.1786
-0.01667 -0.0029885 -0.00068107 0.0021612
0.0023339 -0.00050332 0.00087604 -0.0015667 0.00015398 -0.00016957 -0.016647 -0.0029418
0.1218 0.21053 -0.012496 -0.0026002
-0.00049273 -0.0011004 0.0012187 -0.00062375 0.00075298 -0.00018579 -0.0006802 0.0021109
-0.012484 -0.0026422 0.15681 0.2829
1520000000 0.2828 0.11311 -0.014568 0.010561 0.0036421 -0.0045497 0.00010822 0.0027075
0.0021762 -0.0019782 -0.0012116 -0.00017049
-0.014564 0.010546 0.14518 0.32369 0.0018973 0.013693 0.0016461 -0.00085263
-4.7285e-05 -0.0011445 0.0003248 -0.0010869
0.0036103 -0.004563 0.0019702 0.013702 0.34912 -0.047295 -0.0011859 -0.000384
0.00068007 -0.00093494 -1.8226e-05 -0.0002414
0.00012651 0.0027029 0.001639 -0.00086737 -0.0011932 -0.00037719 0.22208 0.14013
-0.015684 0.0033714 0.0016997 0.0022097
0.0021338 -0.0020147 -3.8521e-05 -0.0011559 0.00067142 -0.00091272 -0.015675 0.0034153
0.14989 0.19708 -0.012289 0.0022449
-0.0012203 -9.9752e-05 0.00030259 -0.0011208 1.9895e-05 -0.00030213 0.0017174 0.0022201
-0.012284 0.0022552 0.18936 0.26211
1580000000 0.29291 0.066746 -0.0076784 0.013606 -0.00089004 -0.0053273 0.0015598 0.0019852
-0.00018384 -0.0022639 -0.00022311 0.00047245
-0.0076733 0.013577 0.17277 0.29894 0.0057702 0.0084676 0.00046577 -0.0015959
-0.00061918 -0.0009645 -0.00017092 -0.00090761
-0.00090409 -0.0053 0.0058185 0.0084628 0.3299 -0.10505 -0.0017019 0.00067551
-0.00036152 -0.0011884 0.00033706 -0.00052477
0.001615 0.0019818 0.00044867 -0.0016078 -0.0016564 0.00065728 0.2357 0.10032
-0.011779 0.0083836 0.0024567 0.00064336
-0.00017241 -0.0022444 -0.00065805 -0.00095378 -0.00035985 -0.0011786 -0.011762 0.0084472
0.17448 0.17937 -0.0093492 0.007837
-0.00020022 0.00049968 -0.00015996 -0.00089042 0.00037266 -0.00048935 0.0024618 0.00063769
-0.0093641 0.0078226 0.22076 0.23505
1640000000 0.29525 0.025501 -0.00097433 0.012221 -0.0030093 -0.0028039 0.0027795 0.0010711
-0.00087391 -0.00167 -0.00045114 0.00067839
-0.00097092 0.012189 0.20249 0.27424 0.0064289 0.003383 -0.00067231 -0.0017444
-0.0010188 -0.00034322 -0.00062053 -0.00070577
-0.0030293 -0.0028042 0.0064472 0.0033557 0.3019 -0.1544 -0.00061231 0.001591
-0.0010844 -0.00092161 -0.00021382 -0.00033926
0.0027916 0.0010562 -0.00069763 -0.0017464 -0.00063572 0.0015776 0.24772 0.05156
-0.0071219 0.0098357 0.0025918 -0.000842
-0.00092925 -0.0016548 -0.0010315 -0.00031971 -0.0011014 -0.00091146 -0.007081 0.0098728
0.19785 0.15558 -0.0044453 0.0097598
-0.00049711 0.00074263 -0.00060336 -0.00073725 -0.00022359 -0.00037347 0.0026163 -0.00082987
-0.0044536 0.0097318 0.24623 0.20422
1700000000 0.28832 -0.019834 0.0023486 0.0091638 -0.0038281 -9.0551e-05 0.0031937 -0.0013532
-0.0020519 -0.00063973 0.0005658 0.00048824
0.0023412 0.0091559 0.22091 0.24283 0.0042399 0.00021099 -0.0015237 -0.00058559
-0.00077149 5.3957e-05 -0.00094648 -0.00047454
-0.0038601 -7.9839e-05 0.0042464 0.0001778 0.25897 -0.19457 0.00051695 0.0016448
-0.0020077 -2.9227e-05 -0.0005129 -0.0009038
0.0031891 -0.0013619 -0.0015184 -0.00057743 0.0005326 0.0016395 0.24438 0.0015927
-0.0038405 0.010065 0.0016001 -0.0023431
-0.0020991 -0.00065763 -0.00078196 4.0052e-05 -0.0020469 -1.7186e-05 -0.0038112 0.010056
0.21554 0.13505 0.00018691 0.0098965
0.00060243 0.00045978 -0.00096988 -0.00046721 -0.00047954 -0.00088565 0.0015674 -0.002346
0.00020202 0.0098914 0.26227 0.16988
1760000000 0.27646 -0.068615 0.0045076 0.0057541 -0.0025086 0.00096956 0.0013319 -0.0035669
-0.0014438 0.00074754 0.00031184 -0.00054541
0.0044906 0.0057483 0.24711 0.20305 0.00174 -0.0017747 -0.0012276 0.00018565
-0.001055 0.00086726 -0.00073409 0.00037995
-0.0025337 0.00099513 0.0017235 -0.0017861 0.21076 -0.22822 0.0011147 0.0010366
-0.0013156 0.0015548 -0.001311 -0.00055385
0.0012909 -0.0035216 -0.0012443 0.00019432 0.0011249 0.0010482 0.23491 -0.049662
-0.00048445 0.0088801 -8.4719e-06 -0.0026842
-0.0014556 0.00080591 -0.0010453 0.00087034 -0.0013628 0.0015714 -0.00043075 0.008873
0.23073 0.10008 0.0042506 0.0073245
0.00034452 -0.00054456 -0.00071271 0.00035867 -0.0013755 -0.00047291 -6.0228e-06 -0.0026974
0.0042535 0.0073092 0.27485 0.13231
1820000000 0.25201 -0.10592 0.004389 0.0022239 -0.00039903 0.0025853 -0.0011193 -0.0031157
-0.0011356 0.0010751 -2.562e-05 1.5032e-05
0.0043664 0.0022176 0.25748 0.17301 -0.00077423 -0.00052586 -0.0013251 0.00092175
-0.0001129 0.0012223 -0.00064328 0.00063795
-0.00040144 0.0026164 -0.00076747 -0.00052813 0.15983 -0.24407 0.001561 0.00032117
-0.00011452 0.0024223 -0.0015188 0.00044599
-0.0011 -0.0031086 -0.0013285 0.00093559 0.0015884 0.00031272 0.2049 -0.096498
0.00088622 0.0071977 -0.0018829 -0.0017483
-0.0011078 0.0011052 -8.669e-05 0.0012014 -7.5034e-05 0.0024403 0.00088675 0.007197
0.24797 0.071024 0.0051115 0.0036128
-4.1323e-05 3.9377e-05 -0.00066631 0.00063566 -0.0015668 0.00042408 -0.0018547 -0.0017131
0.0051082 0.0036453 0.27683 0.096093
1880000000 0.21695 -0.14652 0.0020239 -5.2655e-06 -0.00069669 0.0023549 -0.0029653 -0.0021762
-0.00014012 0.0017973 6.9855e-05 -0.00072332
0.0020107 -1.8454e-05 0.26208 0.1263 -0.0028635 0.0014669 -0.00025784 0.0017272
0.00054959 0.0013053 0.00014871 0.0009445
-0.00068988 0.0023374 -0.0028348 0.0015016 0.1078 -0.25349 0.0016706 -0.00096061
0.0016365 0.0019168 -0.00097469 0.0013556
-0.003001 -0.0021883 -0.00021689 0.0017079 0.0016433 -0.0010073 0.16447 -0.13674
0.0017609 0.0051228 -0.0024704 0.00028536
-0.00015054 0.0017713 0.00055301 0.0012875 0.0016124 0.001893 0.0017799 0.0050798
0.25194 0.039322 0.0054204 0.0012806
9.4515e-05 -0.00072164 0.0001726 0.00097495 -0.0009608 0.001383 -0.0024846 0.00022244
0.0054397 0.0013017 0.27696 0.062036
1940000000 0.1776 -0.17204 -0.00049782 -0.0014593 0.0013841 0.0022229 -0.0036465 0.00054262
0.0015003 0.0011571 -0.00043205 -0.0002676
-0.00047925 -0.0014574 0.26269 0.094399 -0.0016571 0.0041089 0.0011664 0.0014232
0.0018866 0.00068415 0.0010858 0.00052092
0.0013806 0.0022078 -0.0016597 0.0040959 0.062147 -0.24622 0.0004516 -0.0021363
0.002427 0.0003893 0.00079972 0.0016782
-0.0036213 0.00053095 0.0011843 0.001432 0.00045036 -0.0021465 0.11208 -0.16714
0.000875 0.0036797 -0.0016393 0.0016005
0.0015112 0.0011946 0.0018694 0.00066443 0.0024294 0.00033303 0.00085688 0.0037215
0.25467 0.0008078 0.0039808 -0.0019993
-0.00043719 -0.0002977 0.0011005 0.00054947 0.00082267 0.001691 -0.0016333 0.0016011
0.0039824 -0.0019767 0.26596 0.025976
2000000000 0.13167 -0.18666 -0.004236 0.00083023 0.0027623 0.0016774 -0.0024739 0.0037488
0.0012391 0.00012623 -0.00064167 0.00043324
-0.0042152 0.00081668 0.24859 0.058821 -0.0010562 0.0060655 0.0016374 0.00034923
0.0014967 -0.0010984 0.0005693 7.4017e-05
0.0027546 0.0016691 -0.001024 0.0060984 0.019154 -0.23256 -0.0010743 -0.0015082
0.00218 -0.0012525 0.0015616 0.0014028
-0.002379 0.003757 0.0015836 0.00039541 -0.0010925 -0.0015378 0.058982 -0.17713
-0.00045725 0.0034296 -0.00029665 0.0023846
0.0012247 0.00024268 0.0014288 -0.0010973 0.0021834 -0.0012289 -0.00052117 0.0034015
0.24979 -0.032459 0.00082062 -0.0031907
