!Keysight Technologies,M9804A,MY58100912,A.14.10.03
!Date: Thursday, April 27, 2023 10:28:33
!Correction: S11(C  6-Port  ) 
!S12(C  6-Port  ) 
!S13(C  6-Port  ) 
!S14(C  6-Port  ) 
!S15(C  6-Port  ) 
!S16(C  6-Port  ) 
!S21(C  6-Port  ) 
!S22(C  6-Port  ) 
!S23(C  6-Port  ) 
!S24(C  6-Port  ) 
!S25(C  6-Port  ) 
!S26(C  6-Port  ) 
!S31(C  6-Port  ) 
!S32(C  6-Port  ) 
!S33(C  6-Port  ) 
!S34(C  6-Port  ) 
!S35(C  6-Port  ) 
!S36(C  6-Port  ) 
!S41(C  6-Port  ) 
!S42(C  6-Port  ) 
!S43(C  6-Port  ) 
!S44(C  6-Port  ) 
!S45(C  6-Port  ) 
!S46(C  6-Port  ) 
!S51(C  6-Port  ) 
!S52(C  6-Port  ) 
!S53(C  6-Port  ) 
!S54(C  6-Port  ) 
!S55(C  6-Port  ) 
!S56(C  6-Port  ) 
!S61(C  6-Port  ) 
!S62(C  6-Port  ) 
!S63(C  6-Port  ) 
!S64(C  6-Port  ) 
!S65(C  6-Port  ) 
!S66(C  6-Port  ) 
!S6P File: Measurement: :
# Hz S  RI   R 50
500000000 -0.33426 -0.055827 -0.0096628 -0.00125 -0.0081111 0.013355 -0.0039975 0.011734
0.011828 0.0055435 -0.0048656 0.008086
-0.010242 -0.0016433 -0.41543 -0.065307 0.0084401 -0.011207 0.0016316 0.011983
0.0080348 0.0027826 0.0015715 0.012919
-0.0079552 0.013577 0.0083179 -0.011384 -0.26707 0.1972 0.0069681 0.0037522
-0.0018276 0.008563 0.00040268 0.011757
-0.0043066 0.011768 0.0010913 0.011914 0.007134 0.0036523 -0.33066 0.042431
-0.018743 -0.0040552 0.016897 0.025881
0.012978 0.0056681 0.007794 0.0032977 -0.0021401 0.0081506 -0.018775 -0.0036014
-0.2446 -0.201 -0.02722 0.0043565
-0.0048164 0.0075397 0.00085495 0.013629 0.00079739 0.012542 0.017188 0.025586
-0.027686 0.0043557 -0.2696 -0.12358
560000000 -0.31981 0.11105 -0.02256 -0.065719 0.00091253 0.013315 0.0053569 0.011479
0.011082 0.0042591 0.010286 0.0090966
-0.022471 -0.065115 -0.3764 0.098673 -0.041566 -0.037994 0.01291 0.003884
-0.013102 -0.0033865 0.0037606 -0.0017565
0.0005716 0.013378 -0.041737 -0.038537 -0.18594 0.24892 -0.00068265 -0.0052727
0.017831 0.0045484 0.0085686 -0.0058797
0.005378 0.010243 0.013731 0.0026836 -0.00030584 -0.0048531 -0.30473 0.13318
0.0052082 -0.024219 0.0055513 -0.020802
0.010446 0.0043483 -0.012905 -0.0028479 0.018046 0.0052582 0.0042707 -0.025052
-0.30758 -0.019144 0.0077035 -0.047827
0.011275 0.007468 0.0041527 -0.0018233 0.0075343 -0.0057106 0.0064305 -0.019996
0.0078065 -0.048088 -0.3309 0.020261
620000000 -0.27742 0.091481 -0.022821 0.0085093 0.0042171 0.00924 0.0074415 -0.0048846
0.011754 -0.0001221 0.00082358 -0.0015137
-0.022701 0.0086142 -0.403 0.046977 -0.018505 0.00014579 -0.0013894 -0.0016748
0.011937 -0.006745 0.0012865 -0.003353
0.0041089 0.009241 -0.018561 0.00021697 -0.15634 0.25806 -0.00094758 -0.0049993
-0.0032654 -0.0025033 0.0099431 -0.0038448
0.0070126 -0.0053755 -0.00161 -0.0020774 -0.00077405 -0.0050762 -0.26547 0.14413
-0.038378 -0.018366 0.013084 0.027804
0.012523 -0.00089348 0.012281 -0.0063046 -0.0038539 -0.0026857 -0.038513 -0.019054
-0.22946 -0.054845 -0.041962 0.011212
-0.00020419 -0.0024408 0.00094136 -0.0035901 0.0085391 -0.0030045 0.01236 0.027998
-0.042087 0.012565 -0.24951 -0.011874
680000000 -0.23945 0.18204 -0.026238 -0.014872 0.0049294 0.0051753 0.0014492 -0.0073665
-0.0024949 -0.012182 0.0057185 -0.0069361
-0.026291 -0.014699 -0.39014 0.14824 -0.032716 -0.0023996 -0.001483 -0.00028627
-0.0018049 -0.0092528 -0.00048465 -0.0020048
0.005156 0.0050878 -0.032717 -0.0022327 -0.10465 0.27951 -0.00097178 2.6624e-05
-0.0019335 0.00072748 -0.0027125 -0.0090121
0.001719 -0.0075594 -0.0015559 -0.00055328 -0.00098315 5.9532e-07 -0.22087 0.19644
-0.023641 -0.0082626 -0.0085281 -0.011747
-0.0022586 -0.012256 -0.0018819 -0.0093801 -0.0017853 0.00085076 -0.023424 -0.0083178
-0.27981 0.050917 -0.0075309 -0.0064908
0.0064466 -0.0063742 -0.00023841 -0.0011617 -0.0026239 -0.008826 -0.0088417 -0.011349
-0.006903 -0.0072612 -0.2592 0.09197
740000000 -0.19371 0.17641 -0.040106 0.026387 0.013925 -0.0046938 0.00028579 -0.0041833
-0.0051725 -0.0038484 -0.006854 0.0039848
-0.039807 0.026657 -0.33624 0.16683 -0.037053 0.034946 -6.766e-06 -0.0060693
-0.012258 0.008174 -0.0010195 -0.0052524
0.013838 -0.0044088 -0.03707 0.034943 -0.071427 0.27693 -0.0017626 0.0031949
-0.0033633 -0.0060197 -0.001213 0.0015056
0.0003159 -0.0040867 -0.00025998 -0.0060604 -0.0016528 0.0033194 -0.20349 0.20272
-0.042677 -0.0081361 0.02286 0.015768
-0.0057564 -0.002674 -0.011833 0.0079621 -0.0024314 -0.0061319 -0.043268 -0.0078922
-0.18137 0.076765 -0.043714 8.013e-05
-0.005306 0.0029243 -0.00095607 -0.0052746 -0.0015425 0.0012815 0.022963 0.014934
-0.042608 0.00092461 -0.2475 0.099942
800000000 -0.16313 0.21952 -0.022617 0.016242 0.0060085 -0.010633 -0.0043217 -0.0020923
-0.0043921 0.0021312 0.004907 0.00030044
-0.022837 0.016204 -0.34237 0.23796 -0.0087713 0.034498 -0.0023058 0.0022349
-0.0012259 0.0029746 0.0010639 0.0054
0.0058182 -0.010629 -0.0087001 0.034597 -0.032528 0.30176 0.00092925 0.0013456
7.4956e-05 0.0034069 -0.001546 0.0010479
-0.0043145 -0.0020676 -0.0023365 0.0021261 0.00082906 0.0014565 -0.17492 0.23077
-0.029006 0.013148 0.014543 -0.0099369
-0.0049719 0.0020585 -0.0013474 0.0029213 0.00022126 0.0034522 -0.029243 0.013084
-0.22399 0.10525 -0.017836 0.019253
0.0046173 0.0014589 0.0012276 0.0053724 -0.0019862 0.0010527 0.014296 -0.0097926
-0.017645 0.019586 -0.24087 0.14897
860000000 -0.12806 0.24006 -0.018273 0.03075 -0.0029905 -0.010504 -0.0018629 0.00073949
0.0039815 0.0049152 -0.0031988 -0.0033728
-0.01826 0.030667 -0.29438 0.28112 0.0074075 0.034911 -2.2274e-05 0.0018624
0.0032807 0.00060637 0.0030249 -7.8372e-05
-0.0028426 -0.010416 0.007501 0.034975 0.015178 0.3106 -0.00069935 -0.00023962
0.0021626 -0.0014446 0.0017908 0.004006
-0.0017887 0.00072324 -2.2252e-05 0.0020867 -0.00073257 -0.00025876 -0.13853 0.24218
-0.019245 0.018495 -0.0062648 -0.0090012
0.0038389 0.004771 0.0036888 0.00070544 0.0022496 -0.0014238 -0.019373 0.018336
-0.16721 0.15816 -0.024349 0.016179
-0.0031832 -0.0029431 0.0031964 0.0003722 0.0018872 0.0040641 -0.0059299 -0.009085
-0.024644 0.01569 -0.19017 0.1919
920000000 -0.10479 0.26343 0.0044181 0.038771 -0.0093908 -0.0051584 -0.0018591 0.0019458
0.0011584 0.0016968 0.0024852 -0.0014266
0.0043793 0.038669 -0.2669 0.30271 0.028502 0.023167 0.0016738 0.001376
0.0074867 -0.00048051 0.0044264 -0.0027774
-0.0094324 -0.005123 0.02854 0.023178 0.060869 0.31204 0.001951 8.942e-05
0.0010319 -9.5789e-05 0.0011173 -0.0012614
-0.0019692 0.0020959 0.0014742 0.0015472 0.001955 7.3486e-05 -0.11415 0.25945
-0.011579 0.031136 0.003841 -0.0067931
0.0012523 0.0020489 0.0074647 -0.00044207 0.0010451 -4.1219e-05 -0.011515 0.031059
-0.15682 0.16378 -0.0023053 0.026665
0.0026025 -0.0013482 0.0043236 -0.0028435 0.0012214 -0.0011581 0.0037791 -0.0071674
-0.0022899 0.027197 -0.198 0.20694
980000000 -0.0583 0.28403 0.016844 0.030754 -0.0097037 0.004277 0.0019435 0.0036315
0.004385 -0.0016341 -0.0030072 -0.0022088
0.016884 0.030705 -0.21407 0.33787 0.033963 0.0055945 0.0020113 -0.00026003
0.0019538 -0.0060317 -0.00044773 -0.0022134
-0.0096863 0.0043705 0.033975 0.0054995 0.10687 0.30675 0.00075164 -0.0012066
0.0005787 -0.001965 0.001592 -8.9995e-05
0.001942 0.0036603 0.0021035 -0.00021346 0.00077193 -0.0011622 -0.075657 0.27077
0.0076492 0.030511 -0.0093363 -0.0073251
0.0041396 -0.0018575 0.001897 -0.0061937 0.00052596 -0.0019977 0.0076426 0.030498
-0.12238 0.19363 0.006161 0.019943
-0.0030579 -0.0024075 -0.00021122 -0.0025055 0.0016445 -0.00021965 -0.0092832 -0.0073473
0.0057043 0.018959 -0.1565 0.25079
1040000000 -0.016947 0.29314 0.033308 0.019549 -0.001656 0.0073103 0.002896 0.00050856
0.00044032 -0.0035326 -0.00018509 -0.0017248
0.03321 0.019548 -0.1788 0.35146 0.03057 -0.014778 0.0017036 -0.0018658
-0.0022515 -0.0024416 -0.00099253 -0.0028013
-0.001618 0.0072979 0.030554 -0.014901 0.15308 0.29382 -0.00041001 -0.0017303
-0.0016517 -0.00095167 -0.00049324 -0.0012541
0.0029063 0.0006035 0.0016983 -0.0018278 -0.00043903 -0.0017157 -0.048182 0.28075
0.019807 0.019266 -0.0028001 0.0012113
0.00040977 -0.0035565 -0.0023809 -0.0025494 -0.0016452 -0.00095216 0.020049 0.019329
-0.090197 0.20197 0.014452 0.018808
-7.2238e-05 -0.0017242 -0.0012064 -0.0028643 -0.00064378 -0.0012842 -0.0026736 0.001332
0.014211 0.018705 -0.13303 0.27142
1100000000 0.028102 0.30265 0.037078 -0.0032863 0.0030638 0.0043525 0.0024312 -0.0011901
-0.0020926 -0.0031903 -0.0039081 -1.3298e-05
0.03708 -0.0033026 -0.13558 0.37026 0.016205 -0.028481 2.1356e-05 -0.0018383
-0.0036396 -0.00093349 -0.0034355 -0.0005959
0.0030245 0.0043444 0.016096 -0.028537 0.19948 0.27452 -0.0019582 0.00012802
-0.0018955 0.00051957 -0.001208 -0.00053823
0.0024323 -0.0012026 -1.5843e-05 -0.0018568 -0.0019482 0.00013185 -0.0075167 0.28624
0.025898 0.005758 -0.0022924 0.00044442
-0.0022291 -0.0033069 -0.0036708 -0.00090133 -0.0018939 0.00048617 0.025905 0.0056126
-0.069387 0.21443 0.020004 0.0088528
-0.0040303 -0.0002492 -0.0035822 -0.0004049 -0.0011894 -0.00046684 -0.0023942 0.0001293
0.019825 0.0087609 -0.087585 0.3003
1160000000 0.079294 0.29901 0.025164 -0.020747 0.0030386 -0.00048497 -0.00026108 -0.0025478
-0.0040596 -0.0007795 -0.00099451 0.0039984
0.025122 -0.020802 -0.091919 0.37537 -0.0033016 -0.030186 -0.0017179 -0.0017393
-0.0028413 0.0027402 -0.0013927 0.0020263
0.0030533 -0.00042203 -0.0034739 -0.030162 0.24318 0.24416 -0.00078535 0.0019139
-0.00069203 0.0020447 -0.0011042 0.00024928
-0.00022712 -0.0024825 -0.0017532 -0.0017476 -0.00080855 0.0019085 0.03261 0.28347
0.02217 -0.010718 -0.0032332 0.0051423
-0.004044 -0.00086661 -0.0027557 0.0026691 -0.00066519 0.0020187 0.022137 -0.010873
-0.034976 0.22313 0.018613 -0.0008544
-0.0010176 0.0041606 -0.0013668 0.0021437 -0.0010473 0.00030059 -0.0032484 0.0052229
0.018925 -0.00076336 -0.040575 0.30349
1220000000 0.1233 0.28916 0.011454 -0.030788 -0.0015703 -0.0011771 -7.7521e-05 -0.00082919
-0.0027784 0.0022357 0.001127 0.0020819
0.011468 -0.030754 -0.047318 0.38834 -0.017357 -0.022268 -0.0026713 0.00052887
8.5002e-05 0.0032159 -0.00076687 0.0020684
-0.0015049 -0.0010992 -0.017464 -0.022215 0.28235 0.20526 0.00076755 0.0017973
0.00055302 0.0013139 0.00021588 0.00064488
-8.8633e-05 -0.0008051 -0.0027242 0.00055268 0.00081739 0.0017918 0.073004 0.27466
0.01128 -0.018014 0.0022579 0.0014514
-0.0026424 0.0023661 0.00010084 0.0032893 0.00064322 0.0013107 0.011215 -0.018054
-0.011063 0.23213 0.014087 -0.013605
0.0012158 0.001987 -0.00089129 0.0019744 0.00023955 0.00061661 0.0023172 0.001426
0.014255 -0.013428 -0.0094227 0.31879
1280000000 0.17402 0.26906 -0.0077438 -0.029567 -0.002047 0.0023813 -0.00082305 -0.001992
-0.00073915 0.0032948 0.0026751 0.0012279
-0.0077425 -0.029542 -0.00065146 0.38006 -0.024713 -0.008953 -0.00095439 0.001512
0.0017208 0.0016786 0.0005771 0.0021103
-0.0019782 0.0022919 -0.02478 -0.0088438 0.31287 0.16174 0.0016007 -1.57e-05
0.0012004 0.00031936 0.000211 0.00032976
-0.0008606 -0.0020135 -0.00093821 0.0014963 0.0016262 -6.2471e-05 0.11022 0.25816
0.0007756 -0.020284 -9.6768e-05 0.00022229
-0.00075119 0.003269 0.0017792 0.0016193 0.0012121 0.00030377 0.00076809 -0.020302
0.026079 0.23586 0.0030967 -0.0157
0.0026751 0.0012327 0.00064331 0.0021414 0.0001843 0.00032188 -0.00011918 0.0003859
0.0030494 -0.015749 0.038109 0.32064
1340000000 0.21182 0.23591 -0.018001 -0.019816 0.00064145 0.0047079 -0.0017097 -0.00069656
0.0014488 0.0026857 0.0018426 -0.0012898
-0.018 -0.019781 0.039221 0.37185 -0.022342 0.0043747 -2.8502e-05 0.0020253
0.0019636 0.0007762 0.0013109 0.00083682
0.00065526 0.0046447 -0.022346 0.0044605 0.33484 0.11444 0.0011029 -0.00090937
0.00071384 -0.00063097 0.00016994 0.00034699
-0.0017027 -0.00072268 -3.3324e-05 0.0020178 0.0010684 -0.00092207 0.14321 0.23646
-0.0090892 -0.017402 0.00075629 0.0004165
0.0014442 0.0026202 0.001976 0.0007036 0.00064943 -0.00057244 -0.0091425 -0.017429
0.057174 0.23106 -0.004128 -0.014524
0.0018237 -0.0013614 0.0012734 0.00081826 0.00010526 0.00037846 0.00080635 0.00045945
-0.0039642 -0.014541 0.07645 0.31564
1400000000 0.24591 0.19854 -0.024229 -0.0078457 0.0052631 0.0034967 -0.0021181 0.00061506
0.0026462 0.00089872 0.00018698 -0.0016375
-0.02416 -0.0078051 0.076665 0.35904 -0.015415 0.012983 0.0013361 0.0012422
0.0013058 -0.00081577 0.0011844 0.00010407
0.005184 0.003451 -0.015382 0.013092 0.34769 0.061634 3.2581e-05 -0.00173
0.00018901 -0.00043579 0.00036474 0.00015791
-0.0021411 0.00062665 0.0013731 0.0012783 5.5527e-05 -0.001646 0.1722 0.20739
-0.015519 -0.010001 -0.00087731 -0.00013179
0.0025861 0.00090804 0.0012941 -0.00083004 0.00014204 -0.00047522 -0.01548 -0.0099422
0.090593 0.22612 -0.01063 -0.0090568
0.00023242 -0.001651 0.0011761 0.00010946 0.00037543 0.00018282 -0.00092243 -0.00023278
-0.010704 -0.0090653 0.12091 0.3042
1460000000 0.26925 0.15452 -0.021051 0.0049236 0.0058283 -0.0016623 -0.0015684 0.0017097
0.0022713 -0.00053263 -0.00032844 -0.0010712
-0.021009 0.0049001 0.11101 0.33703 -0.0060714 0.016079 0.0016566 0.00012706
0.00091902 -0.0013785 0.0012324 -0.00067822
0.0057821 -0.0015834 -0.0059764 0.016122 0.35443 0.0082498 -0.0013012 -0.0012979
0.00019588 -0.00030074 0.00078823 -0.00020196
-0.0016098 0.0017466 0.0016874 0.00014606 -0.0012018 -0.0013407 0.1986 0.17803
-0.016596 -0.0027568 -0.00086866 0.0021112
0.0021867 -0.00064435 0.00089087 -0.0013627 0.00021385 -0.00032264 -0.016593 -0.0027389
0.12063 0.21137 -0.012738 -0.0029394
-0.00041033 -0.0010774 0.0011893 -0.00068897 0.00078672 -0.00027501 -0.00086429 0.0021611
-0.012748 -0.0029202 0.15424 0.2838
1520000000 0.2816 0.11294 -0.015199 0.010741 0.003509 -0.0043228 4.0351e-05 0.002535
0.0019931 -0.0019242 -0.0012279 -4.9247e-05
-0.015186 0.010692 0.14421 0.32257 0.0018656 0.013568 0.0016081 -0.00074573
-3.0001e-05 -0.0010617 0.00022912 -0.001052
0.0035953 -0.0043257 0.0019319 0.013554 0.34794 -0.04741 -0.0010191 -0.00038898
0.00061946 -0.00083873 2.4513e-05 -0.00013763
0.00018207 0.0025505 0.0016222 -0.00074908 -0.0010172 -0.00036875 0.22135 0.13969
-0.015401 0.0035885 0.0016883 0.0020737
0.0020648 -0.0019366 -6.976e-06 -0.0010803 0.00068527 -0.000845 -0.015452 0.0036439
0.14875 0.19749 -0.012315 0.0019962
-0.0012514 -7.4563e-05 0.00023226 -0.001139 9.2499e-05 -0.00024648 0.0016734 0.0021248
-0.012232 0.001991 0.18678 0.26318
1580000000 0.29125 0.067262 -0.0081161 0.014077 -0.00099088 -0.005206 0.0015524 0.0018911
-0.00017728 -0.0023169 -0.00016064 0.00038337
-0.0081353 0.01403 0.17129 0.29826 0.0056437 0.0083318 0.00054221 -0.0015669
-0.00054028 -0.0010496 -0.00022136 -0.00085987
-0.00083335 -0.0051864 0.0057308 0.0083411 0.32877 -0.10473 -0.0016082 0.00054366
-0.00034684 -0.0012544 0.00039867 -0.00057568
0.0015431 0.0018247 0.00053737 -0.0015725 -0.0016152 0.00052945 0.23478 0.10045
-0.011352 0.0083758 0.0022138 0.00068762
-0.00022135 -0.0022854 -0.00057053 -0.0010956 -0.00036663 -0.0011981 -0.011387 0.0084502
0.17293 0.17924 -0.0095356 0.0078955
-0.00024028 0.00040055 -0.00028494 -0.00085478 0.00035807 -0.0005753 0.0022873 0.00070729
-0.0094664 0.0078854 0.21857 0.23663
1640000000 0.29375 0.026311 -0.0010606 0.012654 -0.003002 -0.0027205 0.0026789 0.0010971
-0.00089588 -0.0015748 -0.00034887 0.00071508
-0.0010961 0.012614 0.20084 0.27385 0.0062932 0.0032752 -0.00063166 -0.0018016
-0.0010221 -0.00038023 -0.00060914 -0.00061421
-0.0029334 -0.0029455 0.006299 0.0032376 0.30112 -0.15381 -0.00064361 0.0014701
-0.0011182 -0.00091575 -0.00010565 -0.00037732
0.0026707 0.0010093 -0.00062066 -0.0018031 -0.00066167 0.0014879 0.24699 0.051982
-0.0066594 0.0095671 0.0025369 -0.00082796
-0.00086513 -0.0015995 -0.0010583 -0.00037765 -0.001056 -0.00087995 -0.0066194 0.0095233
0.19589 0.15511 -0.0045533 0.0099336
-0.00027599 0.00078372 -0.00060186 -0.00064007 -0.00018151 -0.00044964 0.0025067 -0.00080633
-0.0044918 0.010029 0.24425 0.20589
1700000000 0.28707 -0.018468 0.0024471 0.0095409 -0.0037276 1.8574e-05 0.0031557 -0.0011929
-0.0021062 -0.00059707 0.00064958 0.00034662
0.0024017 0.0095819 0.21892 0.24305 0.0040348 0.00025352 -0.0015018 -0.00062992
-0.00079975 -4.4055e-06 -0.00094842 -0.00037189
-0.0038451 -5.2625e-05 0.0040426 0.00025459 0.25832 -0.19375 0.00052595 0.0015979
-0.0018686 -3.0902e-05 -0.00055786 -0.00095033
0.0031353 -0.0011452 -0.0015141 -0.00061139 0.00048194 0.0016415 0.24355 0.002688
-0.0037909 0.0095072 0.0015692 -0.0020552
-0.0021153 -0.00061537 -0.00077702 3.3664e-05 -0.0019842 -3.3535e-05 -0.0037659 0.0095771
0.21293 0.13475 0.00033788 0.010106
0.00068142 0.00033288 -0.00098571 -0.00036798 -0.00046205 -0.00098241 0.0016571 -0.002124
0.00029541 0.010006 0.26059 0.1717
1760000000 0.27575 -0.066895 0.0046993 0.0060547 -0.0023926 0.0010706 0.0013108 -0.0033715
-0.0013966 0.00084311 0.00037001 -0.00054281
0.0047012 0.0060702 0.24535 0.20406 0.0015477 -0.0016605 -0.0012864 0.00016052
-0.0010749 0.00094274 -0.00054425 0.00044704
-0.0025216 0.0012743 0.0015598 -0.0016095 0.21071 -0.22762 0.0011125 0.00093689
-0.0012253 0.0015235 -0.0012319 -0.00061773
0.0013388 -0.003365 -0.0012495 0.00019819 0.0011049 0.0011018 0.23509 -0.04824
-0.00064127 0.0083023 -8.1553e-05 -0.0024321
-0.001375 0.00073743 -0.0010436 0.0009606 -0.0012709 0.001536 -0.00064543 0.0082972
0.22763 0.1006 0.0044616 0.0073562
0.00035476 -0.00055682 -0.00050686 0.00042923 -0.0013385 -0.00061144 -0.00016311 -0.0025634
0.0044795 0.0072985 0.27371 0.13437
1820000000 0.25198 -0.10414 0.004717 0.0024595 -0.000102 0.0026316 -0.00080524 -0.0031367
-0.001058 0.0010946 -0.00015828 -0.00014354
0.0046989 0.0025181 0.25598 0.17444 -0.00074514 -0.00020897 -0.0012739 0.00098995
-6.6298e-05 0.0012859 -0.00044975 0.00052624
-2.9092e-05 0.0027781 -0.00072249 -0.00019566 0.15961 -0.24346 0.001686 0.00050111
-0.00016252 0.0023922 -0.0013875 0.00046142
-0.0008467 -0.003042 -0.001288 0.0010251 0.0016964 0.0003386 0.20567 -0.095242
0.00058482 0.0069061 -0.0016467 -0.0017188
-0.001141 0.0011888 -6.1885e-05 0.0012658 -0.00011776 0.0024219 0.00049271 0.006944
0.24474 0.07202 0.005344 0.0034665
-3.9056e-05 -0.00026264 -0.00048047 0.00048921 -0.0014247 0.00051906 -0.0016187 -0.0015843
0.0053669 0.0034279 0.2759 0.097909
1880000000 0.21726 -0.14472 0.0022453 0.00016804 -0.00059217 0.002139 -0.0029218 -0.0023044
-6.3029e-05 0.0017658 0.00011128 -0.00053854
0.0023416 0.00011367 0.2611 0.12835 -0.0026512 0.0016776 -0.00015351 0.001763
0.00056577 0.0012867 8.3249e-05 0.00082912
-0.00049349 0.002202 -0.0027145 0.0016411 0.10761 -0.25274 0.0017569 -0.0010434
0.0016045 0.0017827 -0.0011074 0.0013574
-0.0028518 -0.0022105 -0.00015431 0.0017492 0.0017491 -0.0010591 0.16593 -0.13573
0.001154 0.0049215 -0.0023924 -1.3928e-05
-7.0608e-05 0.0018496 0.00060387 0.0013252 0.0015591 0.0017961 0.0013875 0.0048708
0.24849 0.041204 0.0055676 0.00095007
-7.7939e-05 -0.00050481 6.4108e-05 0.00085369 -0.0010451 0.001196 -0.0022727 -9.3453e-06
0.0055384 0.00095799 0.27604 0.063803
1940000000 0.17851 -0.17055 -4.5668e-05 -0.0013919 0.0013888 0.0019326 -0.0039029 0.00038534
0.0013759 0.001013 -0.00057086 -0.00050519
-0.0001361 -0.0014516 0.26262 0.096562 -0.0013537 0.0040681 0.00099584 0.0013154
0.0018074 0.00053709 0.00081894 0.00022938
0.0014938 0.0017578 -0.0013777 0.0041137 0.062456 -0.24602 0.00043499 -0.0022868
0.0022558 0.00034569 0.00019339 0.0014721
-0.0038638 0.00030652 0.0010141 0.0014124 0.00039456 -0.0021408 0.11379 -0.1669
0.00052427 0.0037823 -0.0017233 0.0014499
0.001548 0.000944 0.0017879 0.00050527 0.0022726 0.00035016 0.00050557 0.0037585
0.25195 0.0034814 0.0038771 -0.0026204
-0.00048204 -0.00046701 0.00090215 0.00021887 0.0002165 0.0015501 -0.0017681 0.0013274
0.0038833 -0.002598 0.26542 0.027554
2000000000 0.13262 -0.18582 -0.0038288 0.00065717 0.0025612 0.0017969 -0.0022649 0.0037464
0.0012408 0.00033628 -0.00046705 0.00041589
-0.0039127 0.00069035 0.2491 0.060766 -0.0010128 0.0058817 0.0016723 0.00043973
0.0014082 -0.0010358 0.00050322 0.00032095
0.0025193 0.0016068 -0.00088866 0.0059446 0.018995 -0.23241 -0.0013172 -0.0015341
0.0020768 -0.0011038 0.0016869 0.0018073
-0.0023862 0.0036718 0.0017879 0.00039742 -0.0012587 -0.0015059 0.060622 -0.17705
-0.00086399 0.0037962 -0.00011456 0.0025543
0.0012766 7.3461e-05 0.0013952 -0.0010576 0.0021536 -0.0012049 -0.00088669 0.0037971
0.24726 -0.029363 0.00029142 -0.0031981
