!Keysight Technologies,M9804A,MY58100912,A.14.10.03
!Date: Thursday, April 27, 2023 10:28:33
!Correction: S11(C  6-Port  ) 
!S12(C  6-Port  ) 
!S13(C  6-Port  ) 
!S14(C  6-Port  ) 
!S15(C  6-Port  ) 
!S16(C  6-Port  ) 
!S21(C  6-Port  ) 
!S22(C  6-Port  ) 
!S23(C  6-Port  ) 
!S24(C  6-Port  ) 
!S25(C  6-Port  ) 
!S26(C  6-Port  ) 
!S31(C  6-Port  ) 
!S32(C  6-Port  ) 
!S33(C  6-Port  ) 
!S34(C  6-Port  ) 
!S35(C  6-Port  ) 
!S36(C  6-Port  ) 
!S41(C  6-Port  ) 
!S42(C  6-Port  ) 
!S43(C  6-Port  ) 
!S44(C  6-Port  ) 
!S45(C  6-Port  ) 
!S46(C  6-Port  ) 
!S51(C  6-Port  ) 
!S52(C  6-Port  ) 
!S53(C  6-Port  ) 
!S54(C  6-Port  ) 
!S55(C  6-Port  ) 
!S56(C  6-Port  ) 
!S61(C  6-Port  ) 
!S62(C  6-Port  ) 
!S63(C  6-Port  ) 
!S64(C  6-Port  ) 
!S65(C  6-Port  ) 
!S66(C  6-Port  ) 
!S6P File: Measurement: :
# Hz S  RI   R 50
500000000 -0.33488 -0.058398 -0.010449 -0.00085489 -0.0084129 0.013531 -0.0032129 0.012359
0.012347 0.0061259 -0.0028939 0.0094912
-0.0107 -0.00095001 -0.41625 -0.066117 0.0079716 -0.0103 0.0023863 0.011158
0.007661 0.004581 0.0023148 0.013602
-0.008415 0.013668 0.0079463 -0.010329 -0.26791 0.19737 0.0067697 0.0033415
-0.0010336 0.0087761 0.00035648 0.012139
-0.0036104 0.012144 0.002474 0.011389 0.0067592 0.0033933 -0.33132 0.041854
-0.019125 -0.0048464 0.017004 0.024492
0.01265 0.0056331 0.0076388 0.0042583 -0.0011118 0.0088009 -0.019205 -0.0049343
-0.24415 -0.2015 -0.027369 0.0052881
-0.0035789 0.0088466 0.0028458 0.013573 0.00031523 0.01208 0.016375 0.024664
-0.026964 0.0046593 -0.26825 -0.13081
560000000 -0.31945 0.10948 -0.022923 -0.065538 0.00070368 0.013159 0.0054418 0.011006
0.010863 0.0050631 0.010141 0.0072827
-0.022716 -0.065236 -0.37526 0.096409 -0.04208 -0.03835 0.014181 0.0038681
-0.013251 -0.0038459 0.0043567 -0.0017633
0.00065743 0.013619 -0.042135 -0.038355 -0.18628 0.24923 -0.00075705 -0.0048812
0.018909 0.0057029 0.0077064 -0.0055438
0.0058155 0.010713 0.013757 0.0040211 -0.00078713 -0.0050707 -0.30669 0.13459
0.0041924 -0.024664 0.0060431 -0.020688
0.010629 0.0045648 -0.013093 -0.0037949 0.018933 0.0060987 0.0045005 -0.025098
-0.30803 -0.021804 0.0097033 -0.048719
0.010706 0.0074857 0.003767 -0.0013889 0.0072282 -0.006185 0.0058292 -0.020654
0.010202 -0.049428 -0.33014 0.018192
620000000 -0.27885 0.090296 -0.022932 0.0088784 0.0042659 0.009799 0.0077878 -0.0034137
0.013213 -0.0012204 0.00062231 -0.0019724
-0.022788 0.0088539 -0.40365 0.045699 -0.018244 0.00083329 -0.0015083 -0.002042
0.012117 -0.0061202 0.0012735 -0.0031936
0.0044155 0.0096682 -0.018298 0.00090006 -0.15559 0.25837 -0.00072217 -0.0053234
-0.0037357 -0.0030461 0.010084 -0.0031676
0.0078946 -0.0030876 -0.0014626 -0.0019045 -0.00068236 -0.0050805 -0.26501 0.14452
-0.03895 -0.020121 0.012395 0.027326
0.012709 -0.0010984 0.012288 -0.0063832 -0.003605 -0.0031742 -0.039216 -0.020165
-0.23087 -0.05485 -0.040156 0.012946
0.00085275 -0.0023317 0.0011758 -0.0030159 0.0099305 -0.0032504 0.012864 0.027314
-0.040954 0.012874 -0.25081 -0.016519
680000000 -0.24039 0.18206 -0.026575 -0.014823 0.0047786 0.0049183 0.00059833 -0.0080604
-0.0019821 -0.011306 0.0048691 -0.0072246
-0.026457 -0.014979 -0.39087 0.14753 -0.032443 -0.0023509 -0.0021073 -0.00049978
-0.0014593 -0.0094018 -0.0011242 -0.0015117
0.0050834 0.0048789 -0.032493 -0.0021902 -0.10485 0.27959 -0.0012758 -0.00039719
-0.0014267 0.00012123 -0.0026136 -0.0095546
0.0009315 -0.0082274 -0.0019139 -0.00054084 -0.0012029 -0.00050113 -0.22079 0.19666
-0.023204 -0.0073723 -0.0081804 -0.012186
-0.0019504 -0.011817 -0.001629 -0.0093886 -0.0015117 0.00020964 -0.023181 -0.0073337
-0.27963 0.04746 -0.0067066 -0.0063331
0.0047754 -0.0074407 -0.0012006 -0.0012741 -0.0025885 -0.0094933 -0.008682 -0.012032
-0.0059944 -0.0066604 -0.26048 0.090662
740000000 -0.19378 0.17491 -0.040403 0.026901 0.014267 -0.0049221 -0.00043873 -0.003957
-0.0043809 -0.0034013 -0.0062083 0.0026289
-0.040296 0.026926 -0.33615 0.16631 -0.037488 0.034884 0.00031898 -0.0059167
-0.013501 0.0075185 -0.00077454 -0.0058581
0.014201 -0.0048623 -0.037428 0.035054 -0.070726 0.27613 -0.0018365 0.0034216
-0.0025161 -0.0063189 -0.001486 0.0011771
-0.000266 -0.0039185 0.00018275 -0.005999 -0.0017626 0.0034057 -0.20349 0.20338
-0.043627 -0.0079565 0.023784 0.016023
-0.0044974 -0.0032494 -0.01302 0.0076756 -0.0025771 -0.0062373 -0.043487 -0.0082201
-0.17973 0.075539 -0.044444 0.0012344
-0.0059293 0.0026284 -0.00115 -0.0056948 -0.0015385 0.0010793 0.023589 0.016416
-0.044456 0.00045668 -0.24781 0.097587
800000000 -0.16317 0.21931 -0.022679 0.016363 0.0058874 -0.010411 -0.0047528 -0.0025081
-0.0045173 0.0023293 0.0037988 5.7577e-05
-0.022642 0.016263 -0.34273 0.23728 -0.0088908 0.034314 -0.0023296 0.0020652
-0.0014116 0.0027959 0.00051557 0.0051245
0.005779 -0.010442 -0.0087838 0.034407 -0.032594 0.3013 0.00077676 0.0014869
-0.00019095 0.0035287 -0.0024134 0.00071847
-0.0047621 -0.0024695 -0.0023982 0.0021137 0.00072778 0.0014764 -0.17459 0.23034
-0.028833 0.013631 0.014429 -0.011018
-0.0045882 0.0022896 -0.0013125 0.0029602 -0.00012739 0.0036299 -0.028845 0.013682
-0.22401 0.10271 -0.018702 0.020409
0.0037447 0.00014082 0.00053836 0.0053581 -0.0024199 0.00086407 0.014046 -0.011114
-0.01813 0.020726 -0.24355 0.14423
860000000 -0.12849 0.23954 -0.018103 0.030301 -0.0028808 -0.010529 -0.0017984 0.00068261
0.0041609 0.0052749 -0.0035988 -0.0028768
-0.018148 0.030393 -0.29414 0.2805 0.0072014 0.034766 0.00016155 0.002007
0.0035934 0.00065753 0.0029984 5.9302e-06
-0.0028767 -0.010458 0.0073546 0.034788 0.015316 0.30989 -0.00064823 -3.3375e-05
0.002401 -0.0014881 0.0018182 0.0042919
-0.0017883 0.00081401 8.6771e-05 0.0019769 -0.00064409 -5.8297e-05 -0.13786 0.24202
-0.018665 0.018535 -0.0063046 -0.0084133
0.004108 0.0053103 0.0035903 0.00071639 0.0024779 -0.0015241 -0.018692 0.018608
-0.1679 0.15604 -0.024407 0.016716
-0.0036806 -0.0029891 0.0028496 0.00011714 0.0017434 0.0041835 -0.0060825 -0.0086926
-0.024829 0.017338 -0.19177 0.19134
920000000 -0.10533 0.26244 0.0043694 0.038572 -0.0093789 -0.0051703 -0.0022494 0.0017153
0.00086897 0.0018377 0.0026962 -0.0012038
0.0043767 0.038485 -0.26704 0.30167 0.02827 0.023191 0.0013816 0.001245
0.0077771 0.00016203 0.0046173 -0.0027166
-0.0093751 -0.00513 0.028386 0.023141 0.060581 0.31139 0.0018583 0.0001332
0.00094692 -2.8027e-05 0.0010468 -0.0012015
-0.002186 0.0016154 0.0014171 0.0012381 0.0018846 0.00015423 -0.11401 0.25868
-0.01146 0.031501 0.0037419 -0.0070498
0.00094907 0.0019197 0.00783 0.00025937 0.00090566 -4.5898e-05 -0.011473 0.031497
-0.15663 0.16101 -0.0011693 0.027363
0.0026979 -0.001234 0.0046371 -0.0028317 0.0011534 -0.0011849 0.0036629 -0.0068223
-0.0013067 0.027414 -0.19983 0.20324
980000000 -0.058948 0.28332 0.01674 0.03039 -0.0097083 0.0042005 0.0018204 0.0036051
0.0038678 -0.001411 -0.0029811 -0.0023839
0.016701 0.030435 -0.21428 0.33711 0.033745 0.0057046 0.0021246 -0.0001281
0.0018416 -0.0061481 -0.00025122 -0.0026326
-0.009657 0.0041815 0.033792 0.005599 0.10652 0.30623 0.00075163 -0.0011377
0.00057842 -0.0019729 0.0014942 -0.00024275
0.0018405 0.0035402 0.0021192 -0.00011689 0.0007226 -0.0011293 -0.075337 0.27018
0.0072675 0.030159 -0.0094429 -0.0071335
0.0038705 -0.0014496 0.0019348 -0.0062454 0.00061098 -0.001967 0.0074107 0.030146
-0.12367 0.19295 0.005239 0.019125
-0.0029015 -0.0023155 -0.00032457 -0.0028071 0.0014801 -0.00017573 -0.0094236 -0.0071776
0.005631 0.018629 -0.15883 0.24998
1040000000 -0.017726 0.29229 0.033239 0.019431 -0.0015929 0.0071046 0.002521 0.00068269
0.00016971 -0.0034777 -0.00025965 -0.0018024
0.033179 0.019457 -0.1792 0.35048 0.030529 -0.014674 0.001642 -0.0017473
-0.0022102 -0.0026367 -0.0011668 -0.0029811
-0.0015491 0.007112 0.030497 -0.014799 0.15265 0.2932 -0.00044665 -0.0017037
-0.0016897 -0.0010482 -0.00052972 -0.0011613
0.0025695 0.00059798 0.0016874 -0.0018013 -0.00040823 -0.0017196 -0.048047 0.27989
0.0195 0.01896 -0.0026043 0.00089112
0.00019077 -0.0035012 -0.0022446 -0.0026758 -0.0016721 -0.0010152 0.019519 0.018987
-0.091146 0.2003 0.014153 0.018516
-0.00021376 -0.0016274 -0.001157 -0.0029151 -0.00048689 -0.0010865 -0.0029258 0.00088935
0.014446 0.018369 -0.13571 0.26951
1100000000 0.027155 0.30222 0.036989 -0.0031652 0.0028551 0.0042156 0.0025355 -0.00096931
-0.0021811 -0.0027593 -0.0039271 -0.00031865
0.036885 -0.003112 -0.13619 0.36936 0.016251 -0.028332 5.2138e-05 -0.0018324
-0.0036256 -0.00076374 -0.0035544 -0.00071564
0.0028819 0.0041886 0.016159 -0.028431 0.19875 0.27413 -0.0019565 0.00013983
-0.0018789 0.00047827 -0.0012667 -0.00051034
0.0024912 -0.0009877 3.0918e-05 -0.0018342 -0.0019752 0.0001486 -0.0079125 0.28533
0.025171 0.0057421 -0.0025275 0.00027819
-0.0023304 -0.0028092 -0.0036378 -0.00083521 -0.0018818 0.0004547 0.025276 0.0056542
-0.070964 0.21289 0.019287 0.0092807
-0.003927 -0.0001986 -0.0035313 -0.00062327 -0.001231 -0.00041043 -0.0025579 0.00021865
0.019326 0.009106 -0.089414 0.29984
1160000000 0.078195 0.29855 0.024961 -0.020608 0.0028717 -0.00044729 -0.00025493 -0.0023977
-0.0039711 -0.00080535 -0.00090687 0.0042597
0.024913 -0.020601 -0.092598 0.37448 -0.0033046 -0.030061 -0.0017798 -0.0017124
-0.0029316 0.0026219 -0.0014793 0.0019173
0.0028735 -0.00045939 -0.0034464 -0.030042 0.24245 0.24401 -0.00085374 0.0017714
-0.00058224 0.0020365 -0.0010344 0.00036546
-0.00019482 -0.0024596 -0.0017422 -0.0016833 -0.00084064 0.001786 0.03192 0.28294
0.021637 -0.010375 -0.0032762 0.005123
-0.0039646 -0.00077391 -0.0028873 0.002638 -0.00062709 0.0020618 0.021631 -0.010392
-0.03617 0.22109 0.018739 -0.00035881
-0.00097916 0.0042764 -0.0014399 0.0019428 -0.0010476 0.0003973 -0.0033603 0.005277
0.018777 -0.00062205 -0.042084 0.30251
1220000000 0.12233 0.28911 0.011482 -0.030612 -0.0015528 -0.0010487 9.4804e-05 -0.00089555
-0.0027377 0.002239 0.0010506 0.0020208
0.011519 -0.030549 -0.048419 0.38768 -0.017246 -0.022327 -0.0026672 0.00049186
-3.6643e-05 0.0032339 -0.0009746 0.0020158
-0.0015525 -0.0010763 -0.017379 -0.022278 0.28156 0.20529 0.00067854 0.0018218
0.00057847 0.0012285 0.0002442 0.00071298
6.7138e-05 -0.00081583 -0.0026451 0.00051982 0.00066788 0.001809 0.071953 0.27435
0.011329 -0.017495 0.0022243 0.0015716
-0.0027818 0.0023137 -4.2346e-05 0.0032445 0.00057884 0.001223 0.011312 -0.01749
-0.012653 0.23056 0.014246 -0.013141
0.0010785 0.0020358 -0.00098198 0.0020271 0.00024561 0.00073494 0.0022291 0.0014575
0.014283 -0.013224 -0.010851 0.31809
1280000000 0.17295 0.26922 -0.0076753 -0.029316 -0.002135 0.002461 -0.00086632 -0.0020596
-0.00073231 0.0032174 0.0025866 0.0013344
-0.0076585 -0.02931 -0.0018608 0.37983 -0.024691 -0.0091284 -0.00098641 0.0015321
0.0018273 0.0018089 0.00067613 0.0020711
-0.0020991 0.0024873 -0.024766 -0.0090187 0.31223 0.162 0.0016433 2.3179e-05
0.0013505 0.00032124 0.000329 0.00021573
-0.00087673 -0.0020488 -0.00097778 0.0015346 0.0016421 4.4439e-05 0.10918 0.25815
0.0011259 -0.020043 -0.00010797 0.00022772
-0.00072447 0.0031544 0.0018085 0.0018097 0.0013441 0.0003145 0.0010904 -0.020032
0.023938 0.23427 0.0031635 -0.015656
0.0025332 0.0013587 0.00070114 0.002056 0.00037951 0.00021537 -9.1409e-05 0.00026425
0.0032408 -0.015669 0.03611 0.32044
1340000000 0.21079 0.23615 -0.017895 -0.019673 0.00072408 0.0048072 -0.0017873 -0.00083923
0.0013417 0.0027989 0.0018606 -0.0013009
-0.017852 -0.019659 0.037939 0.37207 -0.022361 0.0042589 -0.00010737 0.0020514
0.0020294 0.0007968 0.00123 0.00083622
0.00070706 0.004789 -0.022384 0.0043892 0.33443 0.11473 0.0010795 -0.00093048
0.00066117 -0.00061678 7.3743e-05 0.00029577
-0.0018176 -0.00080954 -0.00011111 0.0020463 0.0010803 -0.00094744 0.14262 0.2371
-0.0087354 -0.017242 0.00084785 0.00060863
0.0013971 0.0027396 0.0020694 0.00075684 0.00069106 -0.00060459 -0.0087666 -0.017203
0.05467 0.22961 -0.0040779 -0.01441
0.0017995 -0.0013494 0.0012469 0.00081359 9.0068e-05 0.00025863 0.00089021 0.00051837
-0.0039854 -0.014414 0.074001 0.3152
1400000000 0.24498 0.1991 -0.023957 -0.0077568 0.0054678 0.0035656 -0.0022529 0.00060411
0.0025237 0.0010573 0.00036851 -0.001615
-0.023936 -0.0077496 0.075524 0.35964 -0.015536 0.012918 0.0013696 0.001278
0.0013349 -0.00088777 0.0011881 0.00020616
0.0054698 0.0035233 -0.015504 0.013012 0.3475 0.062051 9.3521e-05 -0.0016671
0.00018416 -0.00042152 0.00038103 0.0002425
-0.0022513 0.00059716 0.0013807 0.0013 9.1621e-05 -0.0016448 0.17184 0.20816
-0.015092 -0.010086 -0.00091808 -0.00020963
0.0025433 0.0010121 0.0013358 -0.00086435 0.00016884 -0.00043203 -0.015102 -0.010073
0.087826 0.22571 -0.010527 -0.0090784
0.00033173 -0.0015986 0.0011983 0.00014875 0.00034204 0.00019886 -0.00093983 -8.8317e-05
-0.010534 -0.009148 0.11866 0.30454
1460000000 0.26868 0.15553 -0.020878 0.0049139 0.0060565 -0.0017526 -0.0015726 0.0017771
0.0021394 -0.00041363 -0.0001913 -0.0010911
-0.020867 0.0048969 0.11032 0.33797 -0.006183 0.016171 0.0016982 0.00016841
0.00093215 -0.001368 0.0012524 -0.00054328
0.0060393 -0.0017648 -0.0061073 0.016225 0.35449 0.0085496 -0.0012712 -0.0013924
0.00025023 -0.0002445 0.00064625 -0.00020619
-0.0015818 0.0018517 0.0017156 0.00014632 -0.0012552 -0.0014202 0.19857 0.17872
-0.01631 -0.0030949 -0.00084325 0.0019815
0.0021694 -0.0004551 0.00093487 -0.0013684 0.00021705 -0.00022116 -0.016315 -0.0030301
0.11788 0.2117 -0.012451 -0.0029223
-0.00023613 -0.0010963 0.0013018 -0.00051878 0.0008113 -0.00029948 -0.00083617 0.0019694
-0.012303 -0.0029555 0.15204 0.28413
1520000000 0.28144 0.11366 -0.015019 0.010575 0.0037015 -0.0044949 0.00010858 0.002592
0.0022432 -0.0019753 -0.0013196 -9.9131e-05
-0.015 0.010551 0.1439 0.32347 0.0019065 0.013662 0.0016445 -0.00078255
-1.5713e-05 -0.0010953 0.00031872 -0.001074
0.0036924 -0.0044819 0.0019738 0.013657 0.34827 -0.047441 -0.0011425 -0.00035723
0.00063973 -0.00093539 0.00015208 -0.00017245
0.00010874 0.0025728 0.0016456 -0.0007834 -0.0011259 -0.00035271 0.22161 0.14028
-0.015507 0.0032265 0.0016695 0.0020476
0.0022194 -0.0019854 7.5228e-06 -0.0011039 0.00066547 -0.00089186 -0.015472 0.0032736
0.14606 0.19813 -0.012236 0.001916
-0.0013177 -0.00012981 0.00031586 -0.0010604 0.00012388 -0.00019921 0.0016746 0.0020782
-0.012195 0.0020164 0.18465 0.2639
1580000000 0.29152 0.06788 -0.008066 0.013877 -0.00095769 -0.0052955 0.0015655 0.0019341
-0.00012428 -0.0022728 -0.00028698 0.00024767
-0.0080639 0.013867 0.17132 0.29923 0.0057265 0.0084771 0.00050853 -0.0016147
-0.00053857 -0.0010724 -0.00017723 -0.00090554
-0.00096441 -0.0052797 0.0057681 0.0084354 0.32892 -0.10471 -0.0016181 0.00057915
-0.00035097 -0.0012721 0.00034154 -0.00068742
0.0015863 0.001923 0.0004967 -0.0016185 -0.0016261 0.00056745 0.23528 0.10106
-0.011587 0.008224 0.0023389 0.00073155
-0.00012223 -0.0022668 -0.00057293 -0.0010508 -0.00037558 -0.0012853 -0.011564 0.0082528
0.17072 0.18068 -0.0093963 0.0076965
-0.00032859 0.00024746 -0.00016582 -0.00091776 0.0002856 -0.00070854 0.002314 0.00072031
-0.0094749 0.0077261 0.21669 0.23799
1640000000 0.294 0.026478 -0.0011144 0.01247 -0.003001 -0.0028469 0.0027084 0.0010036
-0.00083257 -0.0016762 -0.00038716 0.00066092
-0.0011348 0.012442 0.20123 0.27448 0.006379 0.0033367 -0.00060705 -0.0017889
-0.0010173 -0.00039712 -0.00052714 -0.00075978
-0.0030424 -0.0028357 0.0064226 0.003301 0.30103 -0.15421 -0.00066807 0.0014407
-0.0010973 -0.00098042 -0.00016249 -0.00046915
0.0027546 0.0010002 -0.00061267 -0.0017917 -0.00063363 0.0014387 0.24762 0.052018
-0.0069669 0.0094383 0.0024707 -0.00094868
-0.00086065 -0.0016742 -0.001017 -0.00038672 -0.0011081 -0.00099304 -0.0069217 0.0094585
0.19416 0.15666 -0.0044885 0.0098766
-0.00034692 0.00067684 -0.00055712 -0.00072782 -0.00020991 -0.00043176 0.002426 -0.00096307
-0.0043515 0.0098964 0.24246 0.20685
1700000000 0.28702 -0.018545 0.0023039 0.0094427 -0.0039102 -3.7512e-05 0.0031855 -0.0012704
-0.0020676 -0.00066542 0.00052603 0.00046517
0.0022857 0.0094445 0.21929 0.24346 0.0041736 0.00018922 -0.0014836 -0.00059661
-0.00079526 -2.4003e-05 -0.00097171 -0.00043095
-0.003911 -5.6404e-06 0.0041685 0.00016341 0.25804 -0.19386 0.00041631 0.0017419
-0.0020682 -7.1614e-05 -0.00055852 -0.00083472
0.0031229 -0.0012602 -0.0015199 -0.00057036 0.00040376 0.0017328 0.24418 0.0023212
-0.0038926 0.0096633 0.0015382 -0.002197
-0.0020738 -0.00064422 -0.00080414 8.7973e-06 -0.002084 -3.5232e-05 -0.0038483 0.0096814
0.2116 0.13656 0.00026181 0.0099281
0.00051518 0.00048152 -0.00092016 -0.00045733 -0.000512 -0.00096214 0.0015345 -0.0022052
0.00025332 0.010034 0.25906 0.17316
1760000000 0.27569 -0.066852 0.0045911 0.0060379 -0.0024515 0.0011136 0.0013104 -0.0034577
-0.001387 0.00073041 0.00030135 -0.00058137
0.0045806 0.0060292 0.24592 0.20426 0.0016417 -0.0017249 -0.0012224 0.00016822
-0.0010566 0.00089986 -0.00056719 0.00041684
-0.0024227 0.0011675 0.0016157 -0.0017521 0.21047 -0.22746 0.0011967 0.0010478
-0.0012205 0.0015261 -0.0012728 -0.00058338
0.0013446 -0.0034653 -0.0012266 0.00015859 0.001191 0.001045 0.23547 -0.048805
-0.00074009 0.008465 -0.00016111 -0.0024698
-0.0013694 0.00073433 -0.0010586 0.00090644 -0.0012141 0.0015665 -0.00069642 0.0085236
0.22689 0.10223 0.0042899 0.0073601
0.00033269 -0.00065971 -0.00059566 0.00038839 -0.0013174 -0.00059464 -0.0001631 -0.0024814
0.0043496 0.0073929 0.27242 0.13594
1820000000 0.25186 -0.10416 0.004624 0.0024093 -0.00010406 0.0026236 -0.0010203 -0.0031825
-0.0011281 0.0010508 -0.00013577 -0.00010125
0.0046089 0.0024401 0.25648 0.17428 -0.00079752 -0.00042485 -0.0013755 0.00092877
-0.00013764 0.0011994 -0.00061621 0.00058279
-9.1279e-05 0.002581 -0.00080683 -0.00042749 0.15925 -0.2439 0.0015517 0.00023601
-0.00018999 0.0024312 -0.001555 0.00053417
-0.0010207 -0.0031738 -0.0013881 0.00093022 0.0015676 0.00024658 0.2056 -0.09603
0.00079767 0.0071073 -0.0016855 -0.0016871
-0.0011224 0.0010527 -0.00013415 0.0011851 -0.00017761 0.0024048 0.00080425 0.0070969
0.24438 0.073566 0.0052942 0.0035473
-0.0001733 -4.3609e-05 -0.00055537 0.00057269 -0.0014887 0.0005101 -0.0016675 -0.0015154
0.0052798 0.0036279 0.27513 0.09948
1880000000 0.21703 -0.14441 0.0021697 0.00016984 -0.00063033 0.0023289 -0.0029652 -0.0022883
-0.00020332 0.0017638 0.0001311 -0.00068463
0.0021572 0.00016608 0.26137 0.12808 -0.002901 0.0015611 -0.000253 0.00166
0.00053161 0.0012586 0.00013488 0.00091023
-0.00060599 0.0023112 -0.0028944 0.0015858 0.10703 -0.25254 0.0017396 -0.0012173
0.0016605 0.0017649 -0.00075572 0.0013906
-0.0029405 -0.0022341 -0.00022448 0.001628 0.001803 -0.0012189 0.1654 -0.13604
0.0015452 0.0050611 -0.0021165 0.00029272
-0.00014335 0.0018034 0.00056991 0.0012639 0.0017009 0.0018233 0.0015219 0.0050903
0.24845 0.042673 0.0056797 0.0011348
6.1611e-05 -0.00056731 6.6372e-05 0.00095874 -0.00084583 0.0014125 -0.0022434 0.00017849
0.0056148 0.0010231 0.27542 0.065568
1940000000 0.1785 -0.17051 -0.00013321 -0.0014263 0.0014851 0.0020778 -0.0039181 0.00049673
0.0013566 0.0010986 -0.00083444 -0.00049457
-0.00011621 -0.0014115 0.26288 0.096144 -0.0014564 0.0042277 0.00096899 0.0013039
0.0018485 0.00055889 0.00089494 0.00029263
0.0014518 0.002092 -0.0014311 0.0042531 0.062196 -0.24568 0.00040108 -0.0022523
0.0023634 0.0003428 0.00043279 0.0015335
-0.0038876 0.00053575 0.0010259 0.0012929 0.00045456 -0.0022982 0.11312 -0.16737
0.00058645 0.0036193 -0.0016492 0.0014618
0.0013513 0.0010155 0.0018823 0.0005342 0.002414 0.00033135 0.00059825 0.0036498
0.25207 0.0045363 0.0040532 -0.0025239
-0.00078527 -0.00060796 0.000971 0.00034203 0.00045464 0.0015718 -0.0015749 0.0014544
0.0041396 -0.0024571 0.26538 0.028995
2000000000 0.13236 -0.18571 -0.0038814 0.00086988 0.0027801 0.0017961 -0.0023239 0.0036998
0.0012267 0.00029299 -0.00057062 0.00054532
-0.0038879 0.00084375 0.24885 0.060494 -0.0010372 0.006146 0.0017229 0.0004282
0.0013704 -0.0011128 0.00046813 0.00017786
0.0026997 0.0017957 -0.0010201 0.0061646 0.018615 -0.23191 -0.0011844 -0.0014074
0.0021092 -0.0011832 0.0015703 0.0014576
-0.0022709 0.0037646 0.0017006 0.00038281 -0.0012136 -0.0013694 0.059423 -0.17714
-0.00076924 0.0035844 -1.0426e-05 0.0022573
0.0012505 0.00025659 0.0014149 -0.0011182 0.0020761 -0.0011397 -0.00078398 0.0035458
0.24734 -0.028349 0.00065182 -0.0034011
