!Keysight Technologies,M9804A,MY58100912,A.14.10.03
!Date: Thursday, April 27, 2023 10:28:33
!Correction: S11(C  6-Port  ) 
!S12(C  6-Port  ) 
!S13(C  6-Port  ) 
!S14(C  6-Port  ) 
!S15(C  6-Port  ) 
!S16(C  6-Port  ) 
!S21(C  6-Port  ) 
!S22(C  6-Port  ) 
!S23(C  6-Port  ) 
!S24(C  6-Port  ) 
!S25(C  6-Port  ) 
!S26(C  6-Port  ) 
!S31(C  6-Port  ) 
!S32(C  6-Port  ) 
!S33(C  6-Port  ) 
!S34(C  6-Port  ) 
!S35(C  6-Port  ) 
!S36(C  6-Port  ) 
!S41(C  6-Port  ) 
!S42(C  6-Port  ) 
!S43(C  6-Port  ) 
!S44(C  6-Port  ) 
!S45(C  6-Port  ) 
!S46(C  6-Port  ) 
!S51(C  6-Port  ) 
!S52(C  6-Port  ) 
!S53(C  6-Port  ) 
!S54(C  6-Port  ) 
!S55(C  6-Port  ) 
!S56(C  6-Port  ) 
!S61(C  6-Port  ) 
!S62(C  6-Port  ) 
!S63(C  6-Port  ) 
!S64(C  6-Port  ) 
!S65(C  6-Port  ) 
!S66(C  6-Port  ) 
!S6P File: Measurement: :
# Hz S  RI   R 50
500000000 -0.33513 -0.057555 -0.010606 -0.0014361 -0.0086576 0.014049 -0.0042001 0.01166
0.013586 0.0056534 -0.0052891 0.0087533
-0.011184 -0.0013428 -0.41581 -0.066734 0.0082205 -0.010512 0.0014229 0.011875
0.0081268 0.003938 0.0010813 0.013586
-0.0084432 0.014106 0.0078144 -0.010529 -0.26812 0.19736 0.0068333 0.0038814
-0.0016684 0.0088003 0.00033028 0.012453
-0.0045057 0.011863 0.00093963 0.011454 0.0069284 0.0035392 -0.33175 0.041495
-0.019277 -0.0040479 0.016193 0.025136
0.012569 0.0049023 0.0086288 0.0032616 -0.0015266 0.0085977 -0.018799 -0.0035894
-0.24463 -0.20193 -0.027292 0.0055041
-0.0050267 0.0082466 0.00068746 0.013246 0.00082983 0.012185 0.016187 0.024949
-0.02752 0.0048033 -0.26999 -0.12967
560000000 -0.32085 0.11053 -0.023214 -0.064997 -0.00018366 0.014039 0.0057432 0.010868
0.01029 0.006531 0.010064 0.0080778
-0.022836 -0.065208 -0.37555 0.097443 -0.042523 -0.038195 0.01512 0.002882
-0.014707 -0.0045616 0.0053173 -0.0015181
0.00051274 0.014148 -0.042774 -0.038344 -0.18644 0.24963 -0.0005065 -0.0044805
0.01872 0.0053626 0.0077987 -0.0064946
0.005746 0.011468 0.014625 0.0030964 -0.0007363 -0.0044497 -0.30737 0.13397
0.004265 -0.023662 0.0051645 -0.020498
0.011355 0.0049144 -0.014335 -0.0042175 0.018937 0.0057362 0.0042789 -0.023574
-0.30861 -0.021476 0.0088651 -0.048621
0.010624 0.0075395 0.0054204 -0.0016536 0.0077676 -0.0060385 0.0051341 -0.021627
0.0077586 -0.047232 -0.33177 0.019442
620000000 -0.27838 0.089584 -0.023077 0.0088703 0.0040434 0.0096002 0.0081061 -0.0045142
0.012539 -0.00046485 -0.0001179 -0.0010009
-0.023054 0.0091341 -0.40373 0.046112 -0.018544 0.00078568 -0.0013822 -0.0022301
0.012278 -0.0060844 0.00061266 -0.0031614
0.0040445 0.009916 -0.018633 0.00091759 -0.15606 0.25882 -0.00037217 -0.0052297
-0.0035974 -0.0027913 0.010539 -0.0029247
0.0076913 -0.0042285 -0.0016752 -0.0020322 -0.00057035 -0.0050413 -0.26585 0.14429
-0.04003 -0.019526 0.013612 0.027039
0.0128 -0.00047712 0.012651 -0.0062263 -0.003319 -0.0033237 -0.039014 -0.019694
-0.22798 -0.055179 -0.043486 0.012612
0.00037072 -0.001744 0.0004561 -0.0029174 0.009721 -0.0029722 0.013451 0.026969
-0.04382 0.012478 -0.24777 -0.013806
680000000 -0.2416 0.18299 -0.026591 -0.014567 0.0051839 0.0053633 0.001439 -0.0076067
-0.0022277 -0.011781 0.005741 -0.0075467
-0.02662 -0.014658 -0.39062 0.1473 -0.032338 -0.0020666 -0.001423 -0.00048609
-0.0019189 -0.0091332 -0.00093597 -0.002098
0.0054165 0.0052468 -0.032413 -0.0021809 -0.1045 0.2799 -0.00075254 -0.00047541
-0.0018335 0.00035611 -0.0023264 -0.009641
0.0020025 -0.0081249 -0.0013709 -0.00055939 -0.00073639 -0.00023717 -0.22051 0.19609
-0.023145 -0.0081651 -0.0088979 -0.011235
-0.0019627 -0.011429 -0.0017228 -0.0091795 -0.0016029 0.00040142 -0.02306 -0.0076322
-0.28153 0.049603 -0.0059668 -0.0078727
0.0053104 -0.0071488 -0.0011103 -0.0022269 -0.0021925 -0.0093456 -0.0089775 -0.011973
-0.0056407 -0.0075137 -0.26134 0.090847
740000000 -0.19441 0.17591 -0.039761 0.02697 0.014067 -0.0044908 -0.00027146 -0.004019
-0.004684 -0.0030388 -0.0065118 0.0024996
-0.039963 0.026917 -0.33593 0.1655 -0.037042 0.035173 -0.00015847 -0.006117
-0.011703 0.0070901 -0.0014527 -0.0059949
0.014129 -0.0043787 -0.036759 0.035446 -0.070942 0.27673 -0.0017054 0.0032373
-0.0025687 -0.0057254 -0.0010396 0.0010225
-0.00023945 -0.0040038 0.00011436 -0.0062081 -0.0019422 0.0031827 -0.20407 0.2036
-0.042284 -0.0081737 0.022145 0.016002
-0.0044034 -0.0026656 -0.012615 0.0072598 -0.0023713 -0.0055613 -0.042436 -0.0079594
-0.181 0.076641 -0.04171 0.00037752
-0.0062421 0.0033461 -0.0014511 -0.0057286 -0.0015606 0.00067369 0.022133 0.015795
-0.041018 0.00086158 -0.25003 0.097666
800000000 -0.16339 0.21968 -0.022513 0.016193 0.0059775 -0.010656 -0.0044085 -0.0021748
-0.0046188 0.0019084 0.0045203 0.00059439
-0.022248 0.01621 -0.34248 0.23713 -0.0085831 0.03438 -0.0023523 0.0021865
-0.001178 0.0025377 0.00088862 0.0053344
0.0057865 -0.01065 -0.008634 0.034468 -0.032433 0.30121 0.00085941 0.0016528
3.246e-05 0.0032532 -0.0016888 0.0012268
-0.0047859 -0.0022971 -0.002324 0.0020429 0.00083503 0.0015513 -0.17482 0.23134
-0.028626 0.013567 0.01426 -0.010332
-0.0048401 0.0016267 -0.0012076 0.0023114 -8.0493e-05 0.0034987 -0.028388 0.013574
-0.2238 0.10379 -0.017675 0.020563
0.0036782 0.00052555 0.00052242 0.005246 -0.0016481 0.0010234 0.01391 -0.0099522
-0.017895 0.02065 -0.24224 0.14594
860000000 -0.12865 0.23947 -0.017801 0.030358 -0.0026568 -0.010659 -0.001744 0.00036074
0.0037954 0.0052007 -0.0033856 -0.0029763
-0.017768 0.030293 -0.29425 0.27992 0.0074598 0.034709 -1.9494e-06 0.0017923
0.0038075 0.00082124 0.0030653 9.9181e-05
-0.0027296 -0.01065 0.0075483 0.034728 0.015115 0.30992 -0.00060805 -0.00021492
0.0023893 -0.0015722 0.0018158 0.0039965
-0.0021177 0.00031318 -1.6756e-05 0.0020172 -0.00073842 -0.00019132 -0.13811 0.24197
-0.018533 0.01838 -0.0056911 -0.0090303
0.0037299 0.0051964 0.0037447 0.00061117 0.0025822 -0.0015204 -0.018635 0.018741
-0.1674 0.15676 -0.02489 0.016214
-0.0034243 -0.002674 0.002929 0.00025556 0.0017802 0.0042516 -0.0056316 -0.0091757
-0.024057 0.016445 -0.19091 0.19195
920000000 -0.10541 0.26276 0.0043942 0.038325 -0.0094808 -0.0053435 -0.0020126 0.0016809
0.0011853 0.0021625 0.0030462 -0.0013626
0.0043776 0.038273 -0.2673 0.30164 0.028464 0.023205 0.0015535 0.00147
0.0078094 -0.0004523 0.0042039 -0.0027636
-0.009559 -0.0052982 0.028547 0.023137 0.060349 0.31162 0.0019938 9.6037e-05
0.0011473 -4.2867e-05 0.0012539 -0.0013686
-0.001993 0.0016109 0.0015074 0.0015187 0.0019363 4.9228e-05 -0.11388 0.25902
-0.010992 0.031332 0.003903 -0.0071482
0.00078138 0.0020105 0.007566 -0.00041232 0.0011506 5.6741e-05 -0.010999 0.03129
-0.15741 0.16248 -0.0014968 0.027371
0.0027506 -0.0011562 0.0042096 -0.002768 0.0011132 -0.0015033 0.0039141 -0.0068753
-0.0015643 0.027638 -0.19969 0.20417
980000000 -0.05898 0.28302 0.01683 0.030315 -0.0098769 0.0041768 0.0017764 0.0034958
0.0041922 -0.0015321 -0.0026742 -0.0024136
0.016758 0.030371 -0.21446 0.33677 0.033832 0.0056307 0.001956 -9.9536e-05
0.0020689 -0.0061843 -0.00010826 -0.0025352
-0.0098465 0.0041825 0.03388 0.0055221 0.10629 0.30654 0.00072118 -0.0011382
0.00059245 -0.0018735 0.0017041 -0.00023085
0.0017399 0.0035642 0.0021154 -0.0001195 0.00074056 -0.0011098 -0.075415 0.26988
0.0079028 0.030348 -0.0093636 -0.0079027
0.0042749 -0.0015425 0.0019814 -0.0062415 0.00056402 -0.0018887 0.0078628 0.030222
-0.12299 0.19208 0.0055111 0.019732
-0.0028039 -0.0023457 -0.00020909 -0.0026149 0.0016272 -0.00025914 -0.009046 -0.0078938
0.0048885 0.019765 -0.15735 0.24895
1040000000 -0.017725 0.29237 0.033213 0.019171 -0.0018205 0.0071672 0.0026243 0.00062244
0.00024499 -0.0034212 -0.00016165 -0.0018352
0.033014 0.019318 -0.17957 0.35043 0.030597 -0.014858 0.0016445 -0.0018467
-0.0023893 -0.0027962 -0.0011475 -0.0027388
-0.0017272 0.0072268 0.030569 -0.014986 0.15261 0.29375 -0.00037733 -0.0017348
-0.0016484 -0.00095516 -0.00063021 -0.0011731
0.0025349 0.0006158 0.00166 -0.0018665 -0.00040997 -0.0017228 -0.048121 0.28001
0.019852 0.019209 -0.0025705 0.0011024
0.00025382 -0.0034991 -0.00248 -0.0027503 -0.001642 -0.00094575 0.019903 0.019092
-0.08974 0.20004 0.013765 0.018633
-0.00025287 -0.0016649 -0.0010954 -0.0028133 -0.00055133 -0.0011166 -0.0025644 0.0010743
0.013768 0.018346 -0.13442 0.27057
1100000000 0.026735 0.30205 0.036874 -0.003416 0.0027684 0.0042397 0.0024156 -0.00097245
-0.0020726 -0.0029892 -0.0039501 -0.00021748
0.036853 -0.003374 -0.13664 0.36926 0.016177 -0.028627 4.3151e-06 -0.0018593
-0.0038047 -0.00092474 -0.0036291 -0.00046554
0.0027658 0.0042836 0.01609 -0.028681 0.19912 0.27457 -0.0020036 0.00011443
-0.0019083 0.00051408 -0.0012192 -0.00044488
0.0024769 -0.00094304 7.3806e-05 -0.0018332 -0.0020112 8.3715e-05 -0.0077517 0.28538
0.025969 0.0054783 -0.0025739 3.1618e-05
-0.0020809 -0.0028156 -0.0037759 -0.00090953 -0.0018983 0.0004823 0.025953 0.0054634
-0.069862 0.21375 0.020344 0.008879
-0.0039128 -0.00032905 -0.0035289 -0.00051753 -0.0013146 -0.0004584 -0.0025244 -3.4078e-05
0.020258 0.0088374 -0.088936 0.29863
1160000000 0.077886 0.29854 0.024955 -0.020927 0.0028406 -0.00032905 -0.00015496 -0.0024111
-0.004083 -0.00093167 -0.0010455 0.0042304
0.024944 -0.020828 -0.093144 0.37463 -0.0035023 -0.030169 -0.0017244 -0.0016726
-0.0028735 0.0027448 -0.0014854 0.0020004
0.0028921 -0.00037112 -0.0036523 -0.030209 0.243 0.24416 -0.00084856 0.0018816
-0.00066942 0.0020686 -0.0009416 0.00041458
-0.0001861 -0.0024206 -0.0018518 -0.0016001 -0.00088783 0.0018507 0.031953 0.28304
0.022142 -0.011012 -0.0033538 0.0052133
-0.0041413 -0.00084858 -0.0030178 0.0027215 -0.00067898 0.0020961 0.022095 -0.011001
-0.035954 0.22188 0.019413 -0.00068162
-0.0010868 0.0043452 -0.0015452 0.0022654 -0.00087694 0.00050637 -0.0033476 0.0050987
0.019437 -0.00076803 -0.042143 0.30192
1220000000 0.12174 0.28945 0.011259 -0.030803 -0.0016305 -0.00099206 0.00010052 -0.00079569
-0.0028189 0.0021942 0.0010317 0.0022007
0.011255 -0.030736 -0.048598 0.3881 -0.017491 -0.022333 -0.0027433 0.00056918
1.8698e-06 0.0033258 -0.00089657 0.0020863
-0.0016044 -0.00093092 -0.01763 -0.022294 0.28208 0.20508 0.0007949 0.0018283
0.00065211 0.0013331 0.00034606 0.00069455
8.4744e-05 -0.00075365 -0.0026929 0.00056049 0.00084621 0.0017956 0.072187 0.27433
0.011129 -0.018144 0.0020163 0.0014334
-0.0028328 0.0023002 2.2116e-06 0.0033667 0.00065933 0.0013165 0.011123 -0.018214
-0.012376 0.23061 0.014217 -0.013722
0.0010763 0.0021046 -0.00091407 0.0021864 0.00036781 0.0006781 0.0020929 0.0014117
0.014336 -0.013748 -0.010886 0.31801
1280000000 0.1725 0.26936 -0.008064 -0.029423 -0.0020717 0.0025735 -0.00077414 -0.0021206
-0.0008771 0.0033005 0.0026349 0.0012723
-0.0080547 -0.029465 -0.0018687 0.38015 -0.024896 -0.0089622 -0.00099801 0.0015159
0.0018798 0.0017698 0.00067666 0.0021161
-0.0020898 0.0025841 -0.024955 -0.0088652 0.31239 0.16155 0.0016178 -2.0565e-05
0.0013238 0.00031063 0.00042241 0.00026876
-0.00082137 -0.0020734 -0.00095967 0.0015405 0.0016291 -5.4168e-06 0.10931 0.25803
0.00054978 -0.020574 -0.0001679 0.00032387
-0.00088933 0.0031993 0.0018426 0.0017345 0.0013054 0.00026631 0.0004937 -0.020578
0.024479 0.2343 0.0031356 -0.015939
0.0026976 0.0013262 0.0007889 0.0020907 0.00039662 0.00027654 -0.00019184 0.00034586
0.0029911 -0.01587 0.036505 0.32045
1340000000 0.21056 0.23658 -0.018189 -0.019517 0.00081276 0.0048883 -0.0018673 -0.00088774
0.0014052 0.0028382 0.0018841 -0.0014151
-0.01816 -0.019491 0.038082 0.3721 -0.022496 0.0045137 -8.1141e-05 0.002087
0.0021165 0.00072308 0.0012748 0.00078497
0.00085507 0.0048766 -0.022489 0.0046243 0.33416 0.11433 0.0010969 -0.0010097
0.00067251 -0.00069918 0.00011387 0.00018971
-0.0018647 -0.00087997 -7.7083e-05 0.0020466 0.0011105 -0.0010473 0.14254 0.23689
-0.0095491 -0.017536 0.00069323 0.00073593
0.0015002 0.002813 0.0021285 0.00067105 0.0007261 -0.00065994 -0.0095608 -0.01746
0.054953 0.22978 -0.0044594 -0.014473
0.0018254 -0.0014651 0.0012509 0.00082858 1.3636e-05 0.00027169 0.00063283 0.00074746
-0.0045232 -0.014468 0.074894 0.31515
1400000000 0.24465 0.19962 -0.024218 -0.0073838 0.0054736 0.0036448 -0.0023126 0.00063498
0.0026246 0.0010853 0.0002848 -0.001647
-0.024228 -0.0073809 0.075779 0.35936 -0.015468 0.013195 0.001417 0.0012651
0.0012969 -0.00095382 0.0012181 0.00010308
0.0055032 0.0036064 -0.015461 0.013283 0.34697 0.061908 6.6215e-05 -0.0017989
0.00012716 -0.00046054 0.0004231 0.00020777
-0.0023272 0.00065949 0.0013907 0.0012576 1.6968e-05 -0.001788 0.17172 0.20797
-0.015972 -0.0099861 -0.00097279 7.9601e-05
0.0026053 0.00108 0.0012526 -0.00091958 7.7882e-05 -0.0004157 -0.016055 -0.0099109
0.088271 0.22572 -0.010937 -0.0091315
0.00029498 -0.001683 0.0011973 0.00010822 0.00042445 0.00023937 -0.0008943 0.00011349
-0.010987 -0.0092259 0.11879 0.30452
1460000000 0.26829 0.15592 -0.020923 0.0053417 0.0061103 -0.0017456 -0.0015916 0.0017749
0.0023909 -0.00048771 -0.00034744 -0.0011044
-0.020879 0.0053172 0.11028 0.33743 -0.0059781 0.016333 0.0017045 0.00014028
0.00082468 -0.0014403 0.0011966 -0.00062874
0.0061351 -0.0017894 -0.0059046 0.016395 0.35385 0.0087327 -0.0013477 -0.0014381
8.3106e-05 -0.00030003 0.00072165 -0.00022192
-0.0016349 0.0017869 0.0017052 0.00013923 -0.0013468 -0.0014227 0.19825 0.17868
-0.016981 -0.0023445 -0.00074334 0.002313
0.00238 -0.00046632 0.00081268 -0.0014278 6.6663e-05 -0.00032385 -0.016986 -0.0023248
0.11797 0.21191 -0.01283 -0.0027141
-0.00033754 -0.0010883 0.0012619 -0.00061261 0.00070711 -0.00020249 -0.00083466 0.002225
-0.012793 -0.002751 0.15239 0.28406
1520000000 0.28118 0.11424 -0.014812 0.010932 0.0037271 -0.0045618 0.00013061 0.0026026
0.0022138 -0.0020515 -0.0012059 -0.00019076
-0.014781 0.010914 0.14355 0.32304 0.0020953 0.013688 0.0016246 -0.00079815
-5.53e-05 -0.0010641 0.00026988 -0.0010943
0.0037289 -0.004564 0.0021994 0.013702 0.34765 -0.046679 -0.0011058 -0.00022268
0.00065732 -0.00085663 0.00016535 -0.00019077
0.00016898 0.0026067 0.0016329 -0.00080939 -0.0011147 -0.00021837 0.22129 0.1402
-0.015522 0.0040319 0.0016736 0.0022433
0.0022246 -0.0020245 -5.0517e-05 -0.0010851 0.00063325 -0.00090574 -0.015545 0.0041112
0.14624 0.19841 -0.012494 0.0022682
-0.001259 -0.00014493 0.00029931 -0.0010515 0.00015872 -0.00012716 0.0016782 0.0022788
-0.01248 0.0022786 0.18502 0.26378
1580000000 0.29121 0.068433 -0.0076878 0.014105 -0.00094765 -0.0054502 0.0016039 0.0018874
-0.00023763 -0.0023486 -0.00019404 0.000317
-0.0076782 0.014059 0.17072 0.29865 0.0058933 0.0083476 0.00047705 -0.0016147
-0.00059795 -0.00096028 -0.00024882 -0.00083688
-0.00098949 -0.0054424 0.0059636 0.0083301 0.32893 -0.10389 -0.00155 0.00066669
-0.00038472 -0.0012374 0.00026439 -0.0006329
0.0016212 0.001973 0.00045253 -0.0015898 -0.0015735 0.00068958 0.23492 0.10094
-0.011169 0.0090557 0.002502 0.00063847
-0.0002421 -0.002328 -0.00059796 -0.00099471 -0.00037043 -0.001238 -0.011189 0.0091335
0.17106 0.18076 -0.0095824 0.0081446
-0.00021909 0.00029849 -0.00023441 -0.00083613 0.00027686 -0.00058973 0.002569 0.00064802
-0.0095703 0.0082215 0.21719 0.2378
1640000000 0.29376 0.027286 -0.00064309 0.012432 -0.003219 -0.0029001 0.0027415 0.001027
-0.0009745 -0.0017299 -0.00031504 0.00064373
-0.00065659 0.012417 0.20025 0.27431 0.0064549 0.0031667 -0.00059517 -0.0017796
-0.00091981 -0.00037192 -0.00058972 -0.00068828
-0.0032117 -0.0028635 0.0064974 0.0031195 0.30125 -0.15331 -0.00060442 0.0015179
-0.0011036 -0.00098424 -0.00019484 -0.00038305
0.0027475 0.00096728 -0.0006374 -0.0017832 -0.0005726 0.0015434 0.24712 0.052259
-0.0062415 0.0097802 0.0026159 -0.00089787
-0.00096577 -0.0017284 -0.00097162 -0.00035501 -0.0011056 -0.00096739 -0.0062535 0.0097677
0.19465 0.15675 -0.0043173 0.010157
-0.00033008 0.00057639 -0.0005804 -0.00069514 -0.00030363 -0.00036277 0.002528 -0.0008882
-0.0043937 0.010149 0.24293 0.20694
1700000000 0.28692 -0.01765 0.0027144 0.0091527 -0.0039448 -2.9493e-05 0.0032475 -0.0012771
-0.0020899 -0.00056874 0.00051063 0.00039614
0.0027054 0.0091846 0.21832 0.24355 0.0041322 4.7151e-05 -0.0014779 -0.00056695
-0.00071011 -2.5481e-05 -0.00096486 -0.00043588
-0.0039349 -7.8535e-06 0.004149 3.6204e-05 0.25855 -0.19323 0.00038315 0.0016446
-0.0020617 -9.0166e-05 -0.00054884 -0.0008988
0.0031531 -0.0013349 -0.0014459 -0.00055455 0.00044164 0.001716 0.24378 0.0028523
-0.0031851 0.0096422 0.0018132 -0.0022351
-0.0021428 -0.00053391 -0.00073551 -3.7393e-05 -0.0020633 -1.0635e-05 -0.0031424 0.0096124
0.21212 0.13669 0.00068925 0.010291
0.00056988 0.00046297 -0.00096278 -0.00045418 -0.00053548 -0.00095838 0.00174 -0.0022006
0.00058707 0.010271 0.25963 0.17303
1760000000 0.27566 -0.065882 0.0047052 0.0055616 -0.0024753 0.0011138 0.0012955 -0.0034782
-0.0013126 0.00080595 0.00021199 -0.00048946
0.0046836 0.0055552 0.24486 0.20462 0.0016009 -0.0018592 -0.0012027 0.00015434
-0.001032 0.0008587 -0.00055638 0.00035572
-0.0024783 0.0011392 0.0016087 -0.001869 0.21115 -0.22711 0.0010576 0.00099765
-0.0012558 0.0015627 -0.0011907 -0.00076928
0.0013291 -0.0035305 -0.0012238 0.00014394 0.0010839 0.0010264 0.2353 -0.048123
-0.00010335 0.008176 -0.0001685 -0.0027006
-0.0013213 0.00079612 -0.0010277 0.00087339 -0.0012424 0.00157 -0.00010576 0.0082547
0.22747 0.10217 0.0047571 0.0073077
0.00026648 -0.00047368 -0.00055234 0.00045569 -0.0012536 -0.00076467 -9.5463e-05 -0.0026918
0.0047192 0.0073487 0.27271 0.13574
1820000000 0.25202 -0.10314 0.0044511 0.0020671 -0.00017538 0.0026747 -0.0010038 -0.0031967
-0.0010948 0.0010221 -4.8009e-05 -0.00014577
0.0044483 0.0020655 0.25559 0.17506 -0.00094709 -0.00041201 -0.0013372 0.00088001
-0.00014086 0.0011632 -0.00060446 0.00054517
-0.00021599 0.002697 -0.00094769 -0.00038535 0.15965 -0.24357 0.0015869 0.00035118
-0.0002462 0.0023688 -0.0014829 0.00050325
-0.0010758 -0.0031327 -0.0013129 0.00095702 0.0015815 0.00035876 0.20571 -0.095452
0.00089995 0.0065119 -0.0016476 -0.001792
-0.0010602 0.0011 -0.00014132 0.0011712 -0.0001624 0.0024226 0.00088259 0.0064426
0.2446 0.073307 0.0056161 0.0033922
-9.0575e-05 -0.00011252 -0.00062388 0.00054794 -0.0015236 0.00057057 -0.0016979 -0.0016748
0.0056842 0.0034583 0.27551 0.09917
1880000000 0.2177 -0.14361 0.0018942 -5.5989e-05 -0.00061025 0.0024221 -0.002943 -0.0021475
-7.7831e-05 0.0018071 0.00011149 -0.00062339
0.0019172 -6.0341e-05 0.2608 0.12899 -0.0029073 0.0016283 -0.00021335 0.0017801
0.00043213 0.0013681 6.2843e-05 0.00095815
-0.00058478 0.0024327 -0.0028953 0.0016737 0.10789 -0.25255 0.0017561 -0.00090348
0.0015801 0.0018941 -0.0010625 0.0015369
-0.0029256 -0.0022327 -0.00018586 0.0017751 0.0017097 -0.00086833 0.16581 -0.13556
0.0013395 0.0045121 -0.0023623 -9.6072e-05
-0.00013204 0.0018018 0.0004647 0.0013758 0.001478 0.0019532 0.0012549 0.0044372
0.2486 0.042119 0.0058507 0.00085788
0.00022032 -0.00053524 6.5849e-05 0.00092972 -0.00098771 0.0013822 -0.0025214 6.1003e-05
0.0056943 0.00076652 0.27589 0.065244
1940000000 0.17926 -0.16973 -0.00052041 -0.001428 0.0014191 0.0020182 -0.0037405 0.00050719
0.0013385 0.00089319 -0.00085589 -0.00056578
-0.00056768 -0.0014401 0.26246 0.097124 -0.0014346 0.0041144 0.00093228 0.0014091
0.0018201 0.00063102 0.00074476 0.00033902
0.0013856 0.0020812 -0.0014364 0.0041412 0.062991 -0.24575 0.00037495 -0.0020801
0.0023882 0.00043121 0.00026686 0.0016434
-0.0038369 0.00058725 0.00097266 0.0014358 0.00038563 -0.002154 0.11373 -0.16695
0.00020377 0.0033042 -0.0019968 0.0016637
0.0013117 0.00095231 0.0017707 0.00060997 0.0023758 0.00040463 0.00043483 0.0032707
0.25184 0.0040977 0.0039038 -0.0026826
-0.00073157 -0.00064328 0.00089951 0.000296 0.00042218 0.0016813 -0.0018954 0.0013615
0.004001 -0.0026754 0.26573 0.028681
2000000000 0.13337 -0.18529 -0.0041149 0.00089162 0.0026463 0.0018033 -0.0022196 0.0037379
0.0012488 0.00036954 -0.00038917 0.00041648
-0.0040681 0.0009201 0.24888 0.061442 -0.0011243 0.0060462 0.0017281 0.00056421
0.0014665 -0.00094689 0.00065616 0.00016554
0.0026997 0.0017543 -0.0010828 0.0060503 0.019246 -0.23248 -0.0011014 -0.0014392
0.0022294 -0.0011061 0.0018675 0.0014951
-0.0021445 0.0036706 0.001771 0.0005527 -0.0011434 -0.0014801 0.060064 -0.17676
-0.0012232 0.0033542 -0.00048583 0.0023643
0.0011969 0.00034017 0.0014193 -0.00098809 0.0021351 -0.001112 -0.0013111 0.0035236
