!Keysight Technologies,M9804A,MY58100912,A.14.10.03
!Date: Thursday, April 27, 2023 10:28:33
!Correction: S11(C  6-Port  ) 
!S12(C  6-Port  ) 
!S13(C  6-Port  ) 
!S14(C  6-Port  ) 
!S15(C  6-Port  ) 
!S16(C  6-Port  ) 
!S21(C  6-Port  ) 
!S22(C  6-Port  ) 
!S23(C  6-Port  ) 
!S24(C  6-Port  ) 
!S25(C  6-Port  ) 
!S26(C  6-Port  ) 
!S31(C  6-Port  ) 
!S32(C  6-Port  ) 
!S33(C  6-Port  ) 
!S34(C  6-Port  ) 
!S35(C  6-Port  ) 
!S36(C  6-Port  ) 
!S41(C  6-Port  ) 
!S42(C  6-Port  ) 
!S43(C  6-Port  ) 
!S44(C  6-Port  ) 
!S45(C  6-Port  ) 
!S46(C  6-Port  ) 
!S51(C  6-Port  ) 
!S52(C  6-Port  ) 
!S53(C  6-Port  ) 
!S54(C  6-Port  ) 
!S55(C  6-Port  ) 
!S56(C  6-Port  ) 
!S61(C  6-Port  ) 
!S62(C  6-Port  ) 
!S63(C  6-Port  ) 
!S64(C  6-Port  ) 
!S65(C  6-Port  ) 
!S66(C  6-Port  ) 
!S6P File: Measurement: :
# Hz S  RI   R 50
500000000 -0.33406 -0.059452 -0.010652 -0.0014838 -0.0086613 0.013678 -0.0048332 0.01204
0.013755 0.0049003 -0.0046466 0.0081649
-0.010655 -0.0014975 -0.41697 -0.067051 0.007683 -0.009718 0.001257 0.01149
0.0078972 0.0030705 0.001238 0.012681
-0.0086505 0.013679 0.0076614 -0.009737 -0.26837 0.19696 0.0064885 0.0034332
-0.0024415 0.0087707 -0.0004369 0.01184
-0.0048074 0.01205 0.0012461 0.011494 0.0064871 0.0034336 -0.33215 0.042304
-0.019451 -0.0053516 0.016991 0.026921
0.013777 0.0048657 0.0079063 0.0030689 -0.0024481 0.0087732 -0.019448 -0.0053318
-0.24059 -0.20497 -0.027182 0.0040862
-0.0046484 0.0082385 0.0012009 0.01268 -0.00046517 0.011833 0.016918 0.026869
-0.027229 0.0040476 -0.26655 -0.12899
560000000 -0.32002 0.10839 -0.023278 -0.066 -0.0003093 0.013446 0.00461 0.011793
0.010735 0.0055664 0.008828 0.0088055
-0.023242 -0.06592 -0.37525 0.097393 -0.042189 -0.038643 0.013858 0.00378
-0.013125 -0.0045338 0.0046868 -0.0010123
-0.00024072 0.01344 -0.042353 -0.03857 -0.18654 0.24914 -0.00041797 -0.0042681
0.018644 0.0054584 0.0068729 -0.005302
0.0046393 0.011773 0.013863 0.0037854 -0.00040404 -0.0042844 -0.30821 0.13451
0.0059972 -0.022164 0.0042723 -0.021932
0.010736 0.005518 -0.013143 -0.0044931 0.018652 0.0054429 0.005994 -0.02215
-0.30706 -0.025033 0.0086832 -0.047843
0.0089274 0.0087285 0.0045533 -0.001016 0.0069326 -0.0053887 0.0042257 -0.021899
0.0086942 -0.047746 -0.3332 0.016352
620000000 -0.2792 0.088864 -0.023607 0.0092786 0.0041046 0.0097048 0.0082572 -0.0042063
0.01188 -0.0013761 0.00040113 -0.001783
-0.023592 0.0092781 -0.40409 0.044849 -0.018242 0.00084511 -0.0016322 -0.0019696
0.012563 -0.0060794 0.0012341 -0.002964
0.0041182 0.0096952 -0.018279 0.00089433 -0.15607 0.25869 -0.00060807 -0.0049038
-0.0034127 -0.0032512 0.010137 -0.0021715
0.0082592 -0.0042065 -0.0016522 -0.0019689 -0.00061365 -0.0049033 -0.26565 0.14515
-0.038982 -0.020045 0.012705 0.027907
0.011896 -0.0013967 0.012566 -0.0061146 -0.0034076 -0.0032341 -0.038992 -0.020027
-0.22894 -0.058661 -0.041545 0.011308
0.00041707 -0.0018332 0.0012159 -0.0029935 0.010091 -0.0021804 0.012645 0.027866
-0.041427 0.011341 -0.25071 -0.01713
680000000 -0.24187 0.18086 -0.026303 -0.014812 0.0052585 0.0051964 0.0015188 -0.0071185
-0.0011506 -0.012108 0.0049596 -0.0070878
-0.02628 -0.014803 -0.39108 0.14722 -0.032258 -0.0022266 -0.0016617 -0.00035482
-0.0014385 -0.0092057 -0.00088479 -0.0017726
0.0052738 0.0051867 -0.032304 -0.0021314 -0.10473 0.27995 -0.00085856 -0.00036047
-0.0013699 0.00038149 -0.0026888 -0.0094568
0.0015116 -0.0071343 -0.0016654 -0.00033926 -0.00086645 -0.00037026 -0.22069 0.19716
-0.023564 -0.0072118 -0.0086439 -0.011779
-0.0011913 -0.012112 -0.0014839 -0.0092123 -0.0013726 0.00039325 -0.023571 -0.0072183
-0.28178 0.045758 -0.006874 -0.006772
0.0049089 -0.0070722 -0.00094781 -0.0017322 -0.0027009 -0.0094574 -0.0086285 -0.011826
-0.0069026 -0.0068008 -0.2611 0.088035
740000000 -0.19436 0.17521 -0.040035 0.027018 0.014335 -0.0043691 2.6568e-05 -0.0042651
-0.0043251 -0.0025371 -0.006471 0.0026626
-0.040023 0.02695 -0.3357 0.16593 -0.03738 0.034554 0.00047674 -0.0062717
-0.013003 0.0072986 -0.00030355 -0.0058202
0.014314 -0.0044348 -0.037315 0.03472 -0.070351 0.27628 -0.0018757 0.0034112
-0.0022526 -0.005644 -0.0016773 0.00083472
2.1873e-05 -0.00427 0.00047887 -0.0062839 -0.001893 0.0034154 -0.20379 0.20382
-0.042617 -0.0086927 0.022629 0.016343
-0.004325 -0.0025401 -0.01299 0.007363 -0.0022644 -0.0056483 -0.042645 -0.0086487
-0.1804 0.074739 -0.042417 -0.00024465
-0.0065001 0.002637 -0.00024602 -0.0058368 -0.0016852 0.00084182 0.022678 0.016308
-0.042411 -0.00029037 -0.25053 0.09472
800000000 -0.16364 0.21884 -0.0221 0.016235 0.0059676 -0.010827 -0.0041973 -0.002418
-0.0044885 0.0018818 0.0044999 0.00022007
-0.022105 0.016221 -0.34245 0.23676 -0.0084448 0.034069 -0.0020737 0.0018987
-0.0013214 0.0026466 0.0011912 0.0053051
0.0059446 -0.010848 -0.0083485 0.034139 -0.032163 0.3007 0.00083776 0.0014839
5.1137e-05 0.003388 -0.001789 0.00088033
-0.0042139 -0.0024126 -0.002072 0.0019093 0.0008397 0.0014806 -0.1745 0.23115
-0.02809 0.013029 0.014158 -0.010199
-0.0044862 0.001902 -0.0013149 0.0026635 4.3964e-05 0.0033836 -0.02807 0.013084
-0.22524 0.10189 -0.017092 0.019832
0.0045277 0.00014497 0.0012375 0.005339 -0.0017644 0.00087874 0.014161 -0.010234
-0.017068 0.019847 -0.24409 0.14355
860000000 -0.12872 0.23927 -0.017837 0.030391 -0.0028134 -0.01052 -0.0018985 0.00062582
0.003658 0.005585 -0.0034888 -0.0031172
-0.017838 0.030348 -0.29416 0.27974 0.0072211 0.034557 8.2224e-06 0.002064
0.0034891 0.00083919 0.0033052 4.9431e-05
-0.0028364 -0.010518 0.0073394 0.034581 0.015291 0.30932 -0.00061312 -3.3878e-05
0.0022294 -0.0014849 0.0017148 0.0040451
-0.0018908 0.00063637 8.9709e-06 0.0020863 -0.00061811 -3.5175e-05 -0.13755 0.24231
-0.018317 0.01788 -0.0059195 -0.0091038
0.0036967 0.0055664 0.0034978 0.00080403 0.0022317 -0.0014922 -0.018305 0.017919
-0.1689 0.15644 -0.024588 0.016555
-0.0034839 -0.0031072 0.0033081 2.9931e-05 0.0017147 0.0040494 -0.0059479 -0.009134
-0.024572 0.016537 -0.19202 0.18928
920000000 -0.10582 0.26209 0.0046799 0.038478 -0.0093006 -0.005266 -0.0021305 0.001631
0.00075788 0.0024645 0.0028698 -0.0012063
0.004647 0.038437 -0.2672 0.30126 0.028257 0.02305 0.0013644 0.0013291
0.0075509 0.0003318 0.004652 -0.0027926
-0.0093272 -0.0052567 0.028369 0.022995 0.060296 0.31082 0.0018673 7.0547e-05
0.0010117 -0.0001903 0.0010467 -0.0012792
-0.0021235 0.0016357 0.0013644 0.0013502 0.0018572 7.1575e-05 -0.11364 0.25851
-0.011068 0.030594 0.0039457 -0.0067346
0.00077315 0.0024634 0.0075645 0.00030459 0.0010109 -0.00017985 -0.011024 0.030624
-0.15853 0.16158 -0.0011152 0.027054
0.0028445 -0.0012265 0.0046258 -0.0028236 0.0010809 -0.0012845 0.0039302 -0.0067294
-0.0011038 0.027029 -0.20041 0.20187
980000000 -0.059538 0.28289 0.016558 0.030209 -0.0096672 0.0041725 0.0017759 0.0037024
0.0037189 -0.0015559 -0.0031404 -0.0023139
0.016526 0.030196 -0.21465 0.33658 0.033536 0.0057271 0.0021317 -0.00011387
0.0016566 -0.00628 -0.00038844 -0.0025552
-0.0096475 0.0042002 0.033582 0.0056241 0.10611 0.30587 0.00083796 -0.0010984
0.00044458 -0.0019404 0.001474 -0.00017774
0.0017971 0.0036977 0.0021103 -0.00011337 0.00084288 -0.0011013 -0.075048 0.26968
0.0075964 0.029583 -0.0093735 -0.0076119
0.0037401 -0.0015842 0.0016363 -0.0063096 0.00044947 -0.001946 0.0076497 0.029582
-0.12422 0.19056 0.0053836 0.01933
-0.0031303 -0.0022954 -0.00038994 -0.0025674 0.0014707 -0.0001731 -0.0093942 -0.0076269
0.0053928 0.019274 -0.15955 0.24779
1040000000 -0.01831 0.29186 0.032887 0.019294 -0.0018025 0.0071218 0.0026469 0.00079976
0.00034704 -0.0034053 -0.00027483 -0.0014325
0.03285 0.019307 -0.17958 0.34997 0.030333 -0.014535 0.0017253 -0.0017309
-0.0022352 -0.0026113 -0.0011622 -0.0029211
-0.001764 0.0071167 0.030302 -0.014649 0.15222 0.29291 -0.00037251 -0.0016947
-0.001702 -0.00088453 -0.00061617 -0.0010112
0.0026508 0.00078604 0.001702 -0.0017225 -0.00036553 -0.0017029 -0.047974 0.27917
0.019215 0.019066 -0.0025926 0.0010542
0.00033753 -0.0033919 -0.0022613 -0.0025951 -0.0016943 -0.00087631 0.019262 0.019039
-0.091412 0.19884 0.014308 0.01866
-0.00027842 -0.0014313 -0.0011977 -0.0029269 -0.00061024 -0.0010082 -0.0025951 0.0010541
0.01431 0.018674 -0.1364 0.26799
1100000000 0.026295 0.30174 0.036662 -0.0032 0.0027327 0.0042968 0.002473 -0.00084923
-0.0022119 -0.0030378 -0.0039941 -8.3434e-05
0.036624 -0.0031754 -0.13686 0.3688 0.016228 -0.02816 9.3936e-05 -0.0017847
-0.0036585 -0.0010382 -0.0035607 -0.00054565
0.00276 0.0042918 0.016133 -0.028264 0.19821 0.27402 -0.0019706 0.00010515
-0.0019005 0.0003518 -0.0013508 -0.00042798
0.0024825 -0.00085324 7.8162e-05 -0.0017851 -0.0019764 0.00010059 -0.0081696 0.28457
0.025024 0.0056868 -0.0024983 -8.7507e-06
-0.0022278 -0.0030193 -0.0036804 -0.0010278 -0.0019034 0.00036469 0.025032 0.0056501
-0.071733 0.21224 0.019954 0.009281
-0.0040025 -6.7102e-05 -0.0035672 -0.00053388 -0.001348 -0.00042337 -0.0024829 1.781e-05
0.019955 0.0092713 -0.090633 0.29795
1160000000 0.077474 0.29832 0.02483 -0.020498 0.0027671 -0.00035157 -5.3319e-05 -0.0023825
-0.0039866 -0.00092482 -0.0010885 0.0041929
0.024821 -0.020454 -0.093411 0.37389 -0.0031574 -0.029888 -0.0016842 -0.0017848
-0.0029819 0.0025304 -0.0015164 0.0019845
0.0027788 -0.00036317 -0.0033027 -0.029899 0.24202 0.244 -0.00089649 0.0017898
-0.00060251 0.0020867 -0.00093431 0.00040143
-5.1744e-05 -0.0023765 -0.0017063 -0.0017688 -0.00089596 0.0017976 0.031203 0.28228
0.021444 -0.010266 -0.003284 0.0051569
-0.0039934 -0.00090203 -0.0029945 0.0025592 -0.00061706 0.0020953 0.021433 -0.010295
-0.037052 0.22019 0.018915 -0.00039225
-0.0010684 0.0042208 -0.0015131 0.0019853 -0.00093304 0.00041701 -0.0032777 0.0051677
0.018923 -0.0003673 -0.043971 0.30084
1220000000 0.12109 0.28886 0.011255 -0.030415 -0.0015994 -0.00091344 0.00017786 -0.00088853
-0.0027744 0.0021507 0.0010433 0.0020468
0.011265 -0.03037 -0.049355 0.38739 -0.017104 -0.022276 -0.0026667 0.0004769
-8.5412e-05 0.00324 -0.00084956 0.0019657
-0.0015922 -0.00090401 -0.01723 -0.022231 0.28111 0.20522 0.00072234 0.0018714
0.00057222 0.0013077 0.00039367 0.00066201
0.00018223 -0.00088844 -0.0026724 0.00049096 0.00071856 0.0018703 0.07115 0.27391
0.011094 -0.017228 0.0021464 0.0014747
-0.0027655 0.0021703 -6.627e-05 0.0032431 0.00057097 0.0013028 0.011072 -0.017244
-0.01382 0.2293 0.014251 -0.013306
0.0010552 0.0020475 -0.00084396 0.0019743 0.00039504 0.00066175 0.0021458 0.0014783
0.014238 -0.013296 -0.013118 0.317
1280000000 0.17191 0.26934 -0.0076934 -0.029183 -0.0020351 0.0025712 -0.00078561 -0.0021743
-0.00085785 0.0031987 0.0024641 0.0013955
-0.0076659 -0.029152 -0.0028559 0.37975 -0.024566 -0.0091748 -0.0010061 0.0015366
0.0018373 0.0017538 0.00057483 0.0020707
-0.002031 0.002582 -0.024645 -0.0090714 0.31182 0.16228 0.0017094 5.9538e-05
0.0013558 0.00029461 0.00039438 0.00019076
-0.00080133 -0.002173 -0.00099957 0.0015451 0.0017108 5.8046e-05 0.10821 0.2582
0.0010787 -0.019732 -8.9926e-05 0.00033279
-0.00084329 0.0032004 0.0018617 0.0017461 0.0013641 0.00028873 0.0010455 -0.019739
0.022568 0.23325 0.0030745 -0.015452
0.002475 0.0013898 0.00057928 0.0020672 0.00039003 0.00018459 -9.0211e-05 0.00033483
0.0030692 -0.015467 0.034422 0.32006
1340000000 0.20968 0.23657 -0.017762 -0.019475 0.00080318 0.0048548 -0.0018638 -0.00093364
0.0013967 0.0027889 0.0018987 -0.001354
-0.017728 -0.019466 0.037125 0.37224 -0.022386 0.004245 -0.00013025 0.0020598
0.0021512 0.00075971 0.0012507 0.00082443
0.00082376 0.0048433 -0.022395 0.0043646 0.33409 0.11486 0.0011346 -0.00098525
0.00074339 -0.00072145 5.1619e-05 0.00018829
-0.0018703 -0.00092425 -0.00012541 0.002057 0.0011382 -0.0009893 0.14172 0.23757
-0.0086597 -0.016983 0.0007107 0.00055471
0.0014115 0.0027882 0.00214 0.00075145 0.00073735 -0.0007231 -0.0086976 -0.016969
0.052687 0.22897 -0.0040709 -0.014444
0.0018973 -0.0013689 0.0012514 0.00082787 4.9591e-05 0.00020474 0.00071911 0.00056385
-0.0040484 -0.014438 0.072542 0.3149
1400000000 0.2439 0.19984 -0.023854 -0.0076408 0.0054853 0.0035671 -0.0023229 0.00058953
0.0025535 0.0010851 0.00038914 -0.0016572
-0.023822 -0.0076459 0.074732 0.36001 -0.01556 0.012848 0.0013992 0.0012904
0.0013087 -0.0008939 0.0012253 0.00014279
0.0055056 0.0035396 -0.015525 0.012947 0.34712 0.062237 0.00013348 -0.0017218
7.856e-05 -0.00041697 0.00033378 0.00018016
-0.0023162 0.00059785 0.0014094 0.0012792 0.00013748 -0.0017154 0.17128 0.20888
-0.014971 -0.0099507 -0.00079078 1.6373e-05
0.0025631 0.0010726 0.0012998 -0.00089525 7.4743e-05 -0.00041706 -0.015002 -0.0099226
0.085605 0.22528 -0.01054 -0.0090277
0.00038114 -0.0016676 0.0012228 0.00013119 0.00033537 0.00018339 -0.00079872 1.6896e-05
-0.010547 -0.0090422 0.11665 0.30459
1460000000 0.26798 0.15639 -0.020669 0.0049264 0.0061151 -0.0017108 -0.0015972 0.0019147
0.0023238 -0.00039301 -0.00030163 -0.0011158
-0.020653 0.0049092 0.10976 0.33845 -0.0062157 0.016142 0.001765 0.0001846
0.00090299 -0.0014335 0.0012795 -0.00053875
0.0061129 -0.0017371 -0.0061414 0.016183 0.35425 0.0089475 -0.001349 -0.0013248
0.00012839 -0.00024621 0.00069287 -0.00020683
-0.0015882 0.0019246 0.0017739 0.0001757 -0.0013491 -0.0013282 0.19839 0.17948
-0.016101 -0.0030042 -0.00079921 0.0020976
0.0023158 -0.00040635 0.00088945 -0.00145 0.00012838 -0.00023944 -0.016127 -0.0029722
0.11573 0.21185 -0.012471 -0.0029541
-0.00031207 -0.0011189 0.00129 -0.000568 0.0006919 -0.00021272 -0.00079818 0.0020767
-0.012476 -0.0029628 0.15023 0.28454
1520000000 0.28101 0.1146 -0.014863 0.010454 0.0037827 -0.0045563 0.00013215 0.0027474
0.0022196 -0.0019011 -0.0012458 -0.00016373
-0.014852 0.010442 0.14355 0.32403 0.0019193 0.013689 0.0016383 -0.00075484
-1.6045e-05 -0.0010663 0.00036358 -0.00105
0.0037616 -0.0045729 0.0019955 0.013694 0.34807 -0.047057 -0.0011376 -0.00034207
0.00074675 -0.00087662 0.00012512 -0.00020096
0.0001454 0.0027523 0.00164 -0.00076893 -0.0011367 -0.00034154 0.22168 0.14083
-0.015277 0.0030394 0.0016284 0.0021935
0.002205 -0.0019171 -2.1633e-05 -0.0010727 0.00073928 -0.00087518 -0.015276 0.0030818
0.14393 0.19879 -0.012186 0.0018569
-0.0012543 -0.00015849 0.00035866 -0.0010484 0.00013038 -0.00019602 0.0016345 0.0021954
-0.012193 0.0018463 0.18319 0.26441
1580000000 0.29147 0.068967 -0.00798 0.013743 -0.00092146 -0.0053796 0.00161 0.0019212
-9.165e-05 -0.0022705 -0.00026164 0.00031445
-0.007985 0.013731 0.17114 0.29979 0.0057528 0.0084788 0.000507 -0.0015623
-0.00052819 -0.0009565 -0.00019795 -0.00090388
-0.00094337 -0.0053805 0.0058255 0.008461 0.32899 -0.10428 -0.0015947 0.00068125
-0.00028638 -0.0011129 0.0002103 -0.00058252
0.0016207 0.0019099 0.00051119 -0.0015675 -0.0015971 0.00068235 0.23561 0.10148
-0.011455 0.0079949 0.0024182 0.00075668
-0.00010282 -0.0022661 -0.00053764 -0.00095672 -0.00028498 -0.0011072 -0.011437 0.008035
0.16902 0.18172 -0.0095498 0.0077585
-0.00026137 0.00032169 -0.00020138 -0.00091821 0.00020612 -0.00058051 0.0024155 0.00074447
-0.0095394 0.0077361 0.21549 0.23878
1640000000 0.29432 0.027195 -0.0011074 0.012305 -0.00314 -0.002827 0.0027242 0.0010349
-0.00081761 -0.0016998 -0.00033033 0.00057477
-0.0011148 0.012306 0.20123 0.27498 0.0063637 0.0032543 -0.00059467 -0.0017856
-0.00095587 -0.00038681 -0.00051493 -0.0007291
-0.003156 -0.0028147 0.0063926 0.0032118 0.30119 -0.1542 -0.00062676 0.0015295
-0.0011828 -0.0010316 -0.00029715 -0.00030801
0.0027341 0.0010266 -0.0006039 -0.0017889 -0.00062682 0.0015311 0.24818 0.052199
-0.0070065 0.00927 0.0025764 -0.00084951
-0.00082733 -0.0017101 -0.00096462 -0.00037913 -0.0011778 -0.0010205 -0.0069776 0.0092976
0.19279 0.15806 -0.0045444 0.0098765
-0.00032612 0.000584 -0.00052638 -0.00072546 -0.00030135 -0.00032002 0.0025869 -0.00085629
-0.0045402 0.0098619 0.24154 0.20781
1700000000 0.28731 -0.017984 0.0022688 0.0093249 -0.0039412 8.3256e-06 0.0031906 -0.0013044
-0.0021601 -0.00073117 0.00047047 0.00043002
0.0022582 0.0093208 0.21942 0.24384 0.0041768 0.00018583 -0.0014303 -0.00062156
-0.0007525 -5.78e-05 -0.00096216 -0.00052007
-0.0039435 3.4162e-05 0.0041767 0.00016123 0.2581 -0.19362 0.00052102 0.001597
-0.0019621 -0.00022757 -0.00055921 -0.00095775
0.0031881 -0.0013199 -0.0014364 -0.00061364 0.0005194 0.0016038 0.24452 0.0023435
-0.0041 0.0095896 0.0016272 -0.0022133
-0.0021558 -0.00072032 -0.00075456 -5.8083e-05 -0.0019698 -0.00022171 -0.004089 0.0096092
0.21053 0.1381 0.00032147 0.009989
0.00047642 0.00041869 -0.00096265 -0.00051755 -0.0005616 -0.00095373 0.0016258 -0.0022172
0.0003242 0.0099861 0.25807 0.17406
1760000000 0.27604 -0.066424 0.0044673 0.0059265 -0.0025091 0.0010232 0.0012905 -0.0035581
-0.0013853 0.00061318 0.00027208 -0.00062041
0.0044504 0.0059189 0.24615 0.20448 0.0016594 -0.0018261 -0.0012106 0.00010544
-0.0010491 0.00083767 -0.00062136 0.00031543
-0.0025118 0.0010311 0.0016461 -0.0018442 0.21063 -0.22744 0.001039 0.0010673
-0.0013324 0.0015085 -0.0011602 -0.00066395
0.0012702 -0.0035744 -0.0012042 0.00011508 0.0010351 0.0010657 0.23588 -0.04899
-0.00074522 0.008616 -0.00013752 -0.0025873
-0.0013817 0.00062185 -0.0010454 0.00084613 -0.0013326 0.0015048 -0.00072603 0.0086231
0.22634 0.1039 0.0044381 0.0074185
0.00026709 -0.00062845 -0.00061923 0.00031997 -0.0011547 -0.00067457 -0.00015145 -0.0025802
0.0044307 0.0074154 0.27202 0.13693
1820000000 0.25211 -0.10402 0.0045592 0.0024125 -0.00014526 0.0026824 -0.00098553 -0.003207
-0.0011841 0.00097591 -0.00020076 -0.00014634
0.004552 0.0024157 0.25667 0.17437 -0.00083824 -0.00030917 -0.0013372 0.00085352
-0.00015361 0.0011584 -0.00068956 0.00054237
-0.00015408 0.0026742 -0.00083225 -0.00030402 0.1592 -0.24359 0.0016589 0.00043439
-0.00029178 0.0023618 -0.0015064 0.00034099
-0.0010028 -0.0032023 -0.0013398 0.00086501 0.0016503 0.00043114 0.20574 -0.096426
0.00071575 0.0072101 -0.0015811 -0.0016468
-0.0011802 0.00098857 -0.00014673 0.0011573 -0.00029026 0.0023647 0.00074922 0.0072143
0.24402 0.075022 0.0054921 0.0036203
-0.0001965 -0.00014967 -0.00068393 0.00054837 -0.0015063 0.0003377 -0.0015829 -0.0016579
0.0054934 0.003616 0.27456 0.10056
1880000000 0.2171 -0.14431 0.0021223 0.00011418 -0.00060434 0.0024223 -0.0031302 -0.0022669
-0.00022795 0.00182 0.00023938 -0.00047838
0.002118 0.00012345 0.26149 0.12808 -0.0028327 0.0015985 -0.00031007 0.0017148
0.00044217 0.0013576 4.1384e-05 0.001081
-0.00060003 0.0024341 -0.0028264 0.0016208 0.10721 -0.25254 0.0017874 -0.00095029
0.0015272 0.0020445 -0.0011195 0.0015456
-0.0031371 -0.0022536 -0.00029386 0.0017214 0.0017937 -0.00095357 0.165 -0.1366
0.0014584 0.0049059 -0.0023999 0.00011429
-0.00021436 0.0018254 0.0004567 0.0013589 0.0015299 0.00205 0.0014623 0.0049038
0.24843 0.043994 0.0055893 0.0010838
0.00023488 -0.00048982 5.2347e-05 0.0010758 -0.0011111 0.0015446 -0.0023976 0.0001207
0.0055929 0.0010795 0.27474 0.066873
1940000000 0.17821 -0.17045 -0.00026126 -0.0015281 0.0014276 0.0020509 -0.0039752 0.00054453
0.0012253 0.0010847 -0.00051657 -0.00050324
-0.00026373 -0.0015258 0.26289 0.095939 -0.0013779 0.0040704 0.00090968 0.0014539
0.0017704 0.00065318 0.00093002 0.00052197
0.0014405 0.0020399 -0.0013611 0.0040869 0.062387 -0.24602 0.00040962 -0.0021941
0.0023572 0.00045189 0.00045657 0.0018478
-0.003981 0.00056106 0.00092041 0.0014482 0.0004108 -0.002196 0.11265 -0.16753
0.00053334 0.003586 -0.0016252 0.0012726
0.0012336 0.0010819 0.0017806 0.00064167 0.002363 0.00044517 0.00054171 0.00359
0.25201 0.0055651 0.0042107 -0.0024449
-0.00052496 -0.00049793 0.00093491 0.00051465 0.0004573 0.0018416 -0.0016175 0.0012627
0.0042 -0.002446 0.26471 0.030414
2000000000 0.13216 -0.18532 -0.0040892 0.00087223 0.0026606 0.0017575 -0.0021397 0.0038264
0.0013297 0.00044964 -0.00046815 0.00030139
-0.0040854 0.00087689 0.24869 0.06031 -0.0010408 0.0061053 0.0016937 0.00057955
0.0014 -0.00099609 0.00069728 0.00016504
0.0026694 0.0017378 -0.0010025 0.0061164 0.018421 -0.2318 -0.0010397 -0.0015015
0.0021722 -0.001081 0.0018575 0.0014748
-0.0021204 0.0038452 0.0017072 0.0005719 -0.0010398 -0.0014973 0.058605 -0.17713
-0.0011641 0.0033651 -0.00045983 0.0022258
0.0013336 0.00044704 0.0013944 -0.0010001 0.0021718 -0.0010797 -0.0011487 0.0033585
0.24715 -0.027724 0.00046698 -0.0034377
