!Keysight Technologies,M9804A,MY58100912,A.14.10.03
!Date: Thursday, April 27, 2023 10:28:33
!Correction: S11(C  6-Port  ) 
!S12(C  6-Port  ) 
!S13(C  6-Port  ) 
!S14(C  6-Port  ) 
!S15(C  6-Port  ) 
!S16(C  6-Port  ) 
!S21(C  6-Port  ) 
!S22(C  6-Port  ) 
!S23(C  6-Port  ) 
!S24(C  6-Port  ) 
!S25(C  6-Port  ) 
!S26(C  6-Port  ) 
!S31(C  6-Port  ) 
!S32(C  6-Port  ) 
!S33(C  6-Port  ) 
!S34(C  6-Port  ) 
!S35(C  6-Port  ) 
!S36(C  6-Port  ) 
!S41(C  6-Port  ) 
!S42(C  6-Port  ) 
!S43(C  6-Port  ) 
!S44(C  6-Port  ) 
!S45(C  6-Port  ) 
!S46(C  6-Port  ) 
!S51(C  6-Port  ) 
!S52(C  6-Port  ) 
!S53(C  6-Port  ) 
!S54(C  6-Port  ) 
!S55(C  6-Port  ) 
!S56(C  6-Port  ) 
!S61(C  6-Port  ) 
!S62(C  6-Port  ) 
!S63(C  6-Port  ) 
!S64(C  6-Port  ) 
!S65(C  6-Port  ) 
!S66(C  6-Port  ) 
!S6P File: Measurement: :
# Hz S  RI   R 50
500000000 -0.33503 -0.057876 -0.01043 -0.0013911 -0.0086397 0.013439 -0.0051193 0.01233
0.012865 0.0052706 -0.0049047 0.007407
-0.010945 -0.00165 -0.41569 -0.065456 0.0077419 -0.010604 0.00071969 0.011665
0.0086345 0.00368 0.0014651 0.012505
-0.0085741 0.014037 0.0079426 -0.010822 -0.26782 0.19777 0.0064233 0.0035805
-0.0011428 0.0085432 3.8149e-05 0.011194
-0.0050836 0.012051 0.0016813 0.011751 0.006306 0.0033798 -0.33225 0.042148
-0.019381 -0.0050608 0.016171 0.025721
0.01249 0.0048594 0.007664 0.0036264 -0.0014971 0.0083539 -0.019426 -0.0051406
-0.24529 -0.19909 -0.026723 0.005109
-0.0046777 0.0081801 0.0018045 0.013655 2.5681e-05 0.011521 0.015947 0.02504
-0.027476 0.0046551 -0.27091 -0.12695
560000000 -0.31983 0.11063 -0.023187 -0.064589 0.00012732 0.012561 0.0053739 0.011114
0.011123 0.0045935 0.010679 0.0086233
-0.02299 -0.064771 -0.37639 0.096542 -0.041245 -0.037377 0.013091 0.0032078
-0.014346 -0.0031748 0.004401 -0.0011446
0.00073313 0.012889 -0.041399 -0.037601 -0.18715 0.25027 0.00042379 -0.0047308
0.018548 0.0055694 0.0081517 -0.005414
0.0044231 0.01054 0.013795 0.002589 0.00025953 -0.0044984 -0.30717 0.13415
0.0058043 -0.023131 0.005091 -0.021633
0.010534 0.0045957 -0.014611 -0.0022601 0.018003 0.0053172 0.0052928 -0.023649
-0.31003 -0.02106 0.0084421 -0.048631
0.010447 0.0077633 0.0039685 -0.0021753 0.0084191 -0.0055438 0.0051847 -0.021265
0.0077821 -0.048371 -0.33242 0.021633
620000000 -0.27821 0.09137 -0.023348 0.008601 0.0038226 0.0093995 0.0087766 -0.0044718
0.01066 -0.0010053 0.00082111 -0.0017696
-0.023447 0.0088985 -0.40372 0.046831 -0.018388 0.0010015 -0.0015777 -0.0020897
0.012095 -0.0057823 0.00076755 -0.0032917
0.0039573 0.0096544 -0.018327 0.00087656 -0.15612 0.25906 -0.00036588 -0.0057263
-0.0034951 -0.0020269 0.010179 -0.0033096
0.0085121 -0.0045417 -0.0014008 -0.0023302 -0.00041969 -0.0056077 -0.2652 0.14481
-0.039086 -0.018283 0.013995 0.0271
0.011067 -0.0013203 0.012051 -0.0057632 -0.0035472 -0.0020693 -0.039403 -0.01866
-0.22986 -0.056619 -0.042859 0.014216
0.00076127 -0.0011148 0.00086056 -0.0033938 0.010109 -0.0032217 0.014074 0.026295
-0.04261 0.014803 -0.24908 -0.013684
680000000 -0.24099 0.18292 -0.02642 -0.014333 0.0050247 0.005298 0.0015853 -0.0075889
-0.0016494 -0.01092 0.0064246 -0.0079419
-0.026292 -0.014302 -0.39056 0.14885 -0.032159 -0.0021774 -0.0016265 -0.00054641
-0.0014244 -0.0092003 -0.00034816 -0.0022133
0.0049676 0.0053778 -0.032171 -0.0019999 -0.10422 0.28016 -0.0010509 -0.00054164
-0.0014217 0.00034928 -0.0022476 -0.009706
0.00076658 -0.0076297 -0.0015121 -0.00067297 -0.0010366 -0.00055052 -0.22051 0.19749
-0.023904 -0.0076751 -0.0085145 -0.012054
-0.0013527 -0.011967 -0.0015239 -0.0092714 -0.0013089 0.00043798 -0.02368 -0.0075474
-0.27986 0.050039 -0.0065635 -0.0077141
0.0051698 -0.0070793 -0.00062552 -0.002094 -0.0025152 -0.0098287 -0.0086139 -0.011765
-0.0070133 -0.0072812 -0.26039 0.092925
740000000 -0.19379 0.17648 -0.039979 0.026972 0.013821 -0.0048898 -4.1837e-05 -0.0039919
-0.004305 -0.003859 -0.0068195 0.0029148
-0.039934 0.026804 -0.33586 0.16744 -0.036795 0.034528 -0.00052165 -0.0063795
-0.011908 0.0080438 -0.0016772 -0.0067591
0.014038 -0.0049153 -0.036965 0.034638 -0.069906 0.27714 -0.0018357 0.0031157
-0.0036536 -0.0057787 -0.00081895 0.0009084
-0.00013862 -0.0042278 -0.00037221 -0.0063363 -0.0017721 0.0031882 -0.20358 0.20424
-0.041965 -0.0080372 0.021717 0.015526
-0.0039327 -0.0037528 -0.012088 0.0080077 -0.0037838 -0.0060645 -0.04216 -0.0081846
-0.1829 0.077104 -0.040979 0.0015876
-0.0067824 0.0025892 -0.0015321 -0.006293 -0.0012992 0.00089179 0.022214 0.016063
-0.041071 0.0011832 -0.25091 0.097793
800000000 -0.16265 0.21949 -0.022339 0.01614 0.0058283 -0.010641 -0.0043707 -0.0024539
-0.0052165 0.00206 0.0047679 0.00032495
-0.021871 0.015998 -0.34164 0.23788 -0.008637 0.033917 -0.0022679 0.0019575
-0.0017681 0.0024559 0.0011383 0.0052342
0.005875 -0.010826 -0.0084369 0.033944 -0.031607 0.30119 0.00084594 0.0014282
-0.00017856 0.0035886 -0.0015851 0.00073258
-0.0047051 -0.0021488 -0.0023823 0.002096 0.00089931 0.001471 -0.17399 0.23158
-0.028059 0.012993 0.014508 -0.010368
-0.0046693 0.0022961 -0.0015645 0.00267 -0.00010406 0.0035643 -0.028124 0.012985
-0.22398 0.10519 -0.017232 0.01991
0.0040022 0.00019236 0.0009413 0.0056361 -0.0016575 0.00083307 0.01399 -0.010179
-0.016797 0.019857 -0.24125 0.1468
860000000 -0.12792 0.23973 -0.017867 0.03017 -0.0028782 -0.010366 -0.00179 0.00069737
0.0037655 0.0054217 -0.0038587 -0.0031181
-0.017886 0.030361 -0.29392 0.28086 0.0071114 0.034314 0.00027144 0.0023738
0.0029484 0.0010317 0.0026299 0.00050098
-0.0028375 -0.010317 0.0072719 0.03438 0.01571 0.30953 -0.00055634 4.1826e-05
0.0019148 -0.0012295 0.001297 0.0044039
-0.0019309 0.00056519 0.00029214 0.0021902 -0.0005429 7.0368e-05 -0.1371 0.2423
-0.017739 0.018106 -0.0057195 -0.0087512
0.0039803 0.0056175 0.0032322 0.0011862 0.002113 -0.0012611 -0.01789 0.01812
-0.16731 0.15844 -0.025702 0.016685
-0.0035625 -0.0033334 0.0023975 0.00049964 0.0012914 0.0043016 -0.005864 -0.0088333
-0.025282 0.017203 -0.19149 0.19309
920000000 -0.10474 0.26276 0.0047976 0.038342 -0.0091499 -0.0051629 -0.0019132 0.0016486
0.0011591 0.0024575 0.0031445 -0.0012341
0.0045625 0.038351 -0.26591 0.30216 0.028155 0.022941 0.001398 0.0014002
0.0082207 0.00024874 0.0045001 -0.0025281
-0.0091711 -0.0051466 0.028321 0.022992 0.060986 0.31105 0.0019736 4.2333e-05
0.0012988 2.7033e-05 0.0012084 -0.0012368
-0.0020261 0.0016911 0.0014638 0.00147 0.0019909 0.00010829 -0.11312 0.25872
-0.011295 0.030618 0.003836 -0.0064267
0.0011515 0.002534 0.0084348 0.00029805 0.0014237 -6.1154e-05 -0.011286 0.030718
-0.15405 0.16316 -0.00090529 0.02574
0.0032347 -0.0014563 0.0045423 -0.0026408 0.0012289 -0.0012697 0.0037674 -0.0068518
-0.00093134 0.026316 -0.19906 0.20575
980000000 -0.058108 0.2834 0.016641 0.029965 -0.0095109 0.00406 0.00185 0.0035945
0.0041445 -0.0019422 -0.0028917 -0.0024744
0.016786 0.030089 -0.21358 0.33687 0.033294 0.0055828 0.0020737 -0.00021894
0.0018398 -0.0062691 -0.00039913 -0.0024639
-0.0094492 0.0041202 0.033348 0.0054564 0.10659 0.30564 0.00077027 -0.0012478
0.00054168 -0.0020451 0.0014968 -0.00026533
0.0018824 0.0036333 0.0020796 -0.00013409 0.00077164 -0.0012653 -0.074684 0.26969
0.0073161 0.02952 -0.0092465 -0.007286
0.0043795 -0.0017906 0.0018315 -0.00631 0.00063791 -0.0020406 0.0074071 0.029526
-0.12213 0.19444 0.0060538 0.019053
-0.002857 -0.0025972 -0.00041354 -0.002458 0.0014578 -0.00022351 -0.0091621 -0.0072189
0.0060043 0.019254 -0.15586 0.24986
1040000000 -0.017294 0.2923 0.032689 0.019134 -0.0018124 0.007017 0.0026661 0.00081688
0.00021938 -0.0034838 -0.00026536 -0.0018186
0.032649 0.019138 -0.17868 0.35023 0.030107 -0.014461 0.0017034 -0.001777
-0.0019002 -0.0027494 -0.00085719 -0.0033329
-0.0017748 0.0069779 0.030067 -0.014541 0.15239 0.29285 -0.00043591 -0.0016491
-0.0015874 -0.0010688 -0.00056537 -0.0012079
0.0027242 0.00078078 0.0017502 -0.0017685 -0.00046043 -0.0016501 -0.047743 0.27917
0.019069 0.01889 -0.0027169 0.0008615
0.00038979 -0.0033145 -0.0021027 -0.0025572 -0.0015174 -0.0010805 0.019149 0.018904
-0.089375 0.20069 0.014571 0.01816
-0.00010157 -0.0020805 -0.00086962 -0.0033866 -0.00060712 -0.0012626 -0.0025793 0.00079468
0.014314 0.018198 -0.13397 0.26901
1100000000 0.027543 0.30208 0.036321 -0.003186 0.0026934 0.0042805 0.0024088 -0.00091529
-0.002307 -0.0031402 -0.0042403 8.7928e-05
0.036363 -0.003156 -0.13576 0.36885 0.016137 -0.027906 3.5055e-05 -0.0018706
-0.0039073 -0.0010241 -0.0037029 -0.00030498
0.002778 0.0042649 0.016076 -0.028008 0.19841 0.27386 -0.0019491 1.9396e-05
-0.0018597 0.00043344 -0.0012222 -0.00043267
0.00234 -0.00087553 6.7822e-05 -0.0017702 -0.0019362 2.9523e-06 -0.0079006 0.28441
0.024675 0.0055945 -0.0025805 -7.4164e-05
-0.0022271 -0.0030169 -0.0038816 -0.00097245 -0.001841 0.00047537 0.024639 0.0055432
-0.06923 0.2135 0.019142 0.0087615
-0.0042144 4.6394e-05 -0.003587 -0.00037612 -0.0011928 -0.00047508 -0.0025263 4.6262e-05
0.019231 0.0087709 -0.087886 0.30011
1160000000 0.078492 0.29834 0.024678 -0.020408 0.0026771 -0.00036591 -8.5959e-05 -0.0023002
-0.0040753 -0.00069523 -0.0010366 0.0040075
0.024635 -0.020314 -0.092583 0.37363 -0.0030872 -0.029645 -0.0016746 -0.0016945
-0.0029819 0.0025674 -0.00144 0.0018576
0.0026728 -0.000371 -0.0032299 -0.02967 0.24185 0.24399 -0.00086766 0.0017801
-0.00072647 0.0019599 -0.0010266 0.0003723
-7.9617e-05 -0.0023514 -0.0016292 -0.0016685 -0.00086434 0.0017689 0.031167 0.28214
0.021296 -0.0099508 -0.0033716 0.0050136
-0.0041165 -0.00079667 -0.0028917 0.0025312 -0.00079794 0.0020041 0.021313 -0.010023
-0.034182 0.22127 0.018862 -0.00072139
-0.0010819 0.0042568 -0.0015014 0.0018345 -0.0010531 0.00034943 -0.0033034 0.005079
0.0189 -0.00051065 -0.041329 0.30261
1220000000 0.12245 0.28887 0.011277 -0.030084 -0.0016393 -0.00083105 0.00012509 -0.00093796
-0.0027291 0.0021981 0.0010786 0.0021543
0.011247 -0.030095 -0.04868 0.38713 -0.01689 -0.022164 -0.0026777 0.00045719
-8.5623e-05 0.0033118 -0.00089106 0.0020156
-0.0016047 -0.00081677 -0.017004 -0.02211 0.28107 0.2057 0.00069377 0.0018855
0.00054197 0.001332 0.00032416 0.00073859
0.00016932 -0.00087182 -0.0027361 0.00048148 0.00068578 0.0018794 0.071305 0.27403
0.011034 -0.016941 0.0020117 0.0013479
-0.0027726 0.0021927 -6.7977e-05 0.0033016 0.00056999 0.0013105 0.011032 -0.016979
-0.011038 0.23006 0.014062 -0.013455
0.0011145 0.0021076 -0.00087055 0.0021079 0.0003878 0.00071931 0.0020674 0.0013418
0.014072 -0.013282 -0.0098033 0.31736
1280000000 0.17285 0.26888 -0.0075331 -0.028889 -0.0019817 0.0025762 -0.00082027 -0.0021719
-0.00082468 0.0032537 0.0026776 0.0013221
-0.0074997 -0.028844 -0.0025559 0.37937 -0.024316 -0.0091803 -0.0010767 0.0014364
0.0017878 0.0018769 0.00060735 0.002089
-0.001982 0.0025943 -0.024395 -0.0090877 0.31198 0.16255 0.0016612 0.00012826
0.0012607 0.00030463 0.00039475 0.00021185
-0.00083849 -0.0021369 -0.0010748 0.0014802 0.0016595 0.00014964 0.10831 0.25845
0.0013091 -0.019381 -0.00011824 0.00033598
-0.00080203 0.0031817 0.0018121 0.0018561 0.0012212 0.0003436 0.0012459 -0.019379
0.025375 0.23352 0.0031375 -0.015567
0.0025473 0.0013522 0.00061806 0.0021303 0.00039087 0.00025345 -5.9384e-05 0.00037467
0.0030605 -0.015543 0.037633 0.31988
1340000000 0.21045 0.23615 -0.017465 -0.019385 0.00082523 0.0048538 -0.0018699 -0.00090405
0.0014074 0.0027688 0.0020026 -0.0013621
-0.017442 -0.019391 0.037102 0.37214 -0.022274 0.0040231 -0.00012944 0.0021057
0.0020907 0.00083065 0.0013161 0.00084188
0.00086056 0.00482 -0.022286 0.0041142 0.33454 0.11549 0.0012027 -0.00089759
0.00067624 -0.00057366 0.00017522 0.00022353
-0.0018637 -0.00084101 -0.00015544 0.0021039 0.0012014 -0.00088401 0.1418 0.23783
-0.0082523 -0.016939 0.00066628 0.00064978
0.0015428 0.0027348 0.002143 0.00083729 0.00060308 -0.00058261 -0.0083226 -0.016954
0.055412 0.2291 -0.0041614 -0.014494
0.0019148 -0.001375 0.0013122 0.00079339 0.00015318 0.00019875 0.00063854 0.00072035
-0.004179 -0.01445 0.075212 0.31496
1400000000 0.24475 0.19947 -0.023526 -0.007751 0.0055066 0.0035631 -0.0022873 0.00064037
0.002514 0.00097497 0.00031196 -0.0016802
-0.023502 -0.0077895 0.074922 0.36014 -0.015555 0.012687 0.0014564 0.001367
0.0013774 -0.00087983 0.0012225 0.00020248
0.0055091 0.0034881 -0.015519 0.012757 0.34783 0.062575 0.00015131 -0.0017291
0.00021718 -0.00039201 0.00033966 0.00018269
-0.0023589 0.00066803 0.0014585 0.001355 0.00014633 -0.0017325 0.17167 0.20903
-0.014433 -0.010096 -0.00083314 -4.8492e-05
0.0024596 0.00097128 0.0013711 -0.00085781 0.00016726 -0.00034296 -0.01449 -0.010068
0.08823 0.22521 -0.010417 -0.0090567
0.00034318 -0.0017234 0.0012836 0.00015209 0.00037387 0.00014975 -0.00080285 -6.262e-05
-0.010375 -0.0090697 0.11947 0.3043
1460000000 0.26855 0.15591 -0.020557 0.0046659 0.006091 -0.0017257 -0.0016128 0.00181
0.0021831 -0.00043166 -0.00038466 -0.0011809
-0.020564 0.0046286 0.10995 0.33876 -0.0063263 0.016006 0.0017632 0.0001516
0.00092651 -0.0014239 0.0013357 -0.00062228
0.0060236 -0.0017855 -0.0062697 0.016061 0.35495 0.0089335 -0.0012221 -0.0014107
0.00022099 -0.00017525 0.00074692 -0.00026798
-0.0015446 0.0017991 0.0017831 0.00014432 -0.0012387 -0.0014258 0.19878 0.17956
-0.015872 -0.0034894 -0.00083041 0.0021437
0.0022381 -0.00043447 0.00087785 -0.0014166 0.00023772 -0.0001993 -0.015898 -0.0034834
0.11795 0.21123 -0.01245 -0.0029939
-0.00026251 -0.0011732 0.0012972 -0.00060027 0.0007324 -0.0002077 -0.00081876 0.0021391
-0.01239 -0.0030314 0.1529 0.28368
1520000000 0.28163 0.11435 -0.014932 0.010196 0.0036003 -0.0045349 0.00013212 0.0026389
0.0021426 -0.0019261 -0.0013233 -0.00020046
-0.014897 0.01018 0.14394 0.32444 0.0016654 0.013672 0.0016854 -0.00084998
9.3359e-07 -0.001166 0.00033372 -0.0011087
0.0036266 -0.0044988 0.0017183 0.013684 0.34878 -0.047069 -0.0011944 -0.00039188
0.00068901 -0.00097169 9.6448e-05 -0.00019169
4.4153e-05 0.0025947 0.0016742 -0.00085166 -0.0011798 -0.00040075 0.22208 0.14092
-0.015293 0.0026224 0.0016445 0.0021888
0.0021011 -0.0019629 -1.2053e-05 -0.001152 0.00066266 -0.00093666 -0.015286 0.0026656
0.14609 0.19823 -0.012163 0.0018083
-0.0013912 -0.0001479 0.0003268 -0.0011429 0.0001525 -0.00024855 0.0016498 0.0021776
-0.012221 0.0017806 0.18567 0.26324
1580000000 0.2921 0.068361 -0.0081753 0.0135 -0.00096647 -0.0052911 0.0015139 0.0019575
-0.00013227 -0.0022727 -0.00032082 0.00041935
-0.0081668 0.013512 0.17181 0.29993 0.0056022 0.0085797 0.00047451 -0.0016333
-0.00057815 -0.0011106 -0.00023843 -0.00095303
-0.0010418 -0.0052247 0.0056502 0.0085536 0.32956 -0.10482 -0.001671 0.00062489
-0.00025011 -0.0012831 0.00019411 -0.00058841
0.0015622 0.0019903 0.00046031 -0.0016418 -0.0016659 0.00059963 0.23603 0.10122
-0.011934 0.0076265 0.0024935 0.00080643
-0.00014393 -0.0022921 -0.00057426 -0.0011094 -0.00027743 -0.0012877 -0.011903 0.007659
0.17082 0.18087 -0.0095634 0.0077026
-0.00023559 0.00035987 -0.00023577 -0.00095762 0.00016772 -0.00060316 0.0025093 0.00074924
-0.0095332 0.0076716 0.21766 0.23711
1640000000 0.29471 0.026838 -0.001395 0.012318 -0.0030671 -0.0028154 0.0027832 0.0010842
-0.00082369 -0.0016502 -0.00039634 0.00075277
-0.0013912 0.012286 0.20189 0.2751 0.0063362 0.0034714 -0.00067842 -0.0017855
-0.0010682 -0.00043332 -0.00062281 -0.00072647
-0.0030208 -0.0027857 0.0063935 0.0034438 0.30141 -0.1545 -0.00068109 0.001498
-0.0011531 -0.0010197 -0.00031697 -0.00040054
0.0026886 0.0010109 -0.00066946 -0.0017951 -0.0006908 0.0015102 0.24853 0.052057
-0.0075089 0.0093376 0.0026312 -0.00082117
-0.00084809 -0.0017136 -0.0010436 -0.00039921 -0.001132 -0.0010762 -0.0075051 0.0093364
0.19454 0.15735 -0.0046963 0.0097619
-0.00048528 0.0007735 -0.00060105 -0.00074407 -0.00024862 -0.00043542 0.0026141 -0.00090293
-0.0046766 0.0097545 0.24326 0.20636
1700000000 0.28793 -0.018664 0.0020565 0.0094727 -0.0037473 -8.9736e-06 0.0032142 -0.0011816
-0.0020612 -0.00066993 0.00063204 0.00042106
0.0020488 0.0094825 0.22037 0.2437 0.0042188 0.00043851 -0.0015132 -0.00053729
-0.00087817 3.1074e-05 -0.00097348 -0.00048283
-0.003765 1.6208e-05 0.0042215 0.00039225 0.25804 -0.19393 0.00042557 0.0017428
-0.002134 -8.3452e-05 -0.00050186 -0.00090503
0.0033158 -0.0011882 -0.0014978 -0.00052981 0.00048344 0.001702 0.24503 0.0018868
-0.0044954 0.0099015 0.0016172 -0.0022659
-0.0020651 -0.00061552 -0.00085739 2.8335e-05 -0.002106 -7.004e-05 -0.0044724 0.0099539
0.21238 0.13713 1.7531e-05 0.0099755
0.0006951 0.00042578 -0.0010259 -0.00042612 -0.00056429 -0.00086123 0.0016298 -0.0021862
-3.9855e-05 0.0099891 0.25982 0.17231
1760000000 0.27637 -0.067321 0.004444 0.006171 -0.0024797 0.00096806 0.0013756 -0.0034566
-0.0014179 0.00074763 0.00041161 -0.00046712
0.004481 0.0061782 0.24685 0.20392 0.0018438 -0.0016858 -0.0012155 0.00020514
-0.001113 0.00099839 -0.00067875 0.00047316
-0.0024052 0.0010644 0.0018111 -0.0016611 0.21058 -0.2276 0.0011235 0.0010307
-0.0013614 0.0016176 -0.0013338 -0.0006494
0.0013689 -0.0034427 -0.0011843 0.00023344 0.0011495 0.0010566 0.23578 -0.049795
-0.00097301 0.0089321 -9.6046e-05 -0.0025893
-0.0014135 0.00076937 -0.0010722 0.0010371 -0.0013778 0.001671 -0.00096975 0.0089586
0.22809 0.10289 0.0040842 0.0074756
0.00044231 -0.00050068 -0.00063783 0.00043098 -0.0013272 -0.00061259 -0.00014011 -0.0026382
0.0041577 0.0075023 0.27272 0.13508
1820000000 0.25223 -0.10474 0.0045969 0.0025474 -0.00015339 0.0026649 -0.0010197 -0.0031247
-0.0012107 0.0010347 -6.8271e-05 -0.00022118
0.0045739 0.002604 0.25722 0.17368 -0.00069469 -0.000423 -0.001315 0.00097517
-8.5055e-05 0.0012845 -0.00054062 0.00058614
-0.00022538 0.0026677 -0.00069128 -0.00046951 0.15924 -0.24397 0.0015573 0.0003582
-0.00015168 0.0024314 -0.0013944 0.00053705
-0.0010358 -0.0030831 -0.0013143 0.00093923 0.0016165 0.00041931 0.2055 -0.097155
0.00070715 0.0074264 -0.0017608 -0.0017545
-0.0012399 0.0010195 -5.5593e-05 0.001264 -0.0001869 0.0024834 0.00074646 0.0074531
0.24586 0.073812 0.0052382 0.0037135
-1.3209e-05 -0.00015581 -0.00056266 0.00062086 -0.0013269 0.00050461 -0.0018059 -0.0015813
0.0051387 0.0037091 0.27523 0.098626
1880000000 0.217 -0.14508 0.0022182 0.00010227 -0.00074035 0.0022639 -0.0029629 -0.0023525
-0.00011337 0.0018132 3.2123e-05 -0.00055925
0.0021922 0.00017008 0.26184 0.12705 -0.002718 0.0014946 -0.0001388 0.0016794
0.00064806 0.0013796 9.4369e-05 0.00099341
-0.0007827 0.002257 -0.0027259 0.0015517 0.10735 -0.2528 0.0019211 -0.0010324
0.0017264 0.002039 -0.00091329 0.0014224
-0.0028794 -0.0023161 -7.6079e-05 0.0017277 0.0019516 -0.0010255 0.16454 -0.13709
0.001646 0.0051552 -0.0024549 0.00019236
-6.6823e-05 0.0018986 0.00063068 0.0014143 0.0017911 0.0020509 0.0015933 0.0050917
0.25025 0.042282 0.0055516 0.0013499
1.4666e-05 -0.00059711 0.00013404 0.0010095 -0.00089963 0.0014251 -0.002414 0.00012253
0.0055521 0.0013832 0.27584 0.064959
1940000000 0.17797 -0.17114 -0.00023569 -0.0014195 0.0014527 0.0020987 -0.0039219 0.00044998
0.0013128 0.0010091 -0.00074507 -0.00063367
-0.00013252 -0.0014278 0.26265 0.095089 -0.0014604 0.0041302 0.0010044 0.0013116
0.0019503 0.00050659 0.0010091 0.00025376
0.0015044 0.0021955 -0.0014965 0.0041432 0.062046 -0.24543 0.00044093 -0.0024027
0.0025107 0.00026475 0.00053114 0.0014431
-0.0038688 0.00041724 0.00096575 0.0011956 0.00041918 -0.0023439 0.11226 -0.16735
0.0007733 0.0038259 -0.0015748 0.0015477
0.0014088 0.0010419 0.0019375 0.00045677 0.0024111 0.00027834 0.00080376 0.0038514
0.25353 0.0036463 0.0040479 -0.0021575
-0.00068245 -0.00060495 0.00098201 0.00032115 0.00050879 0.0014744 -0.001637 0.0015187
0.0040554 -0.0022156 0.26518 0.028924
2000000000 0.13179 -0.18565 -0.0041395 0.00086381 0.002603 0.0018866 -0.0024487 0.0037031
0.0012313 0.00026116 -0.00044054 0.00052241
-0.0041055 0.0008295 0.24833 0.059587 -0.0011099 0.0061063 0.001559 0.00037459
0.0014581 -0.0012605 0.0005563 0.00010544
0.00269 0.0019604 -0.0010603 0.0061165 0.018965 -0.23183 -0.0013179 -0.0013977
0.0020208 -0.0013434 0.0015307 0.0014996
-0.0022667 0.0037585 0.0016436 0.00040241 -0.0013174 -0.0014106 0.058416 -0.177
-0.00077556 0.0034733 -9.9346e-05 0.0024787
0.0012709 0.00034782 0.0014318 -0.0012278 0.0020285 -0.0013192 -0.00080597 0.0035226
0.24868 -0.029821 0.00070665 -0.003073
