!Keysight Technologies,M9804A,MY58100912,A.14.10.03
!Date: Thursday, April 27, 2023 10:28:33
!Correction: S11(C  6-Port  ) 
!S12(C  6-Port  ) 
!S13(C  6-Port  ) 
!S14(C  6-Port  ) 
!S15(C  6-Port  ) 
!S16(C  6-Port  ) 
!S21(C  6-Port  ) 
!S22(C  6-Port  ) 
!S23(C  6-Port  ) 
!S24(C  6-Port  ) 
!S25(C  6-Port  ) 
!S26(C  6-Port  ) 
!S31(C  6-Port  ) 
!S32(C  6-Port  ) 
!S33(C  6-Port  ) 
!S34(C  6-Port  ) 
!S35(C  6-Port  ) 
!S36(C  6-Port  ) 
!S41(C  6-Port  ) 
!S42(C  6-Port  ) 
!S43(C  6-Port  ) 
!S44(C  6-Port  ) 
!S45(C  6-Port  ) 
!S46(C  6-Port  ) 
!S51(C  6-Port  ) 
!S52(C  6-Port  ) 
!S53(C  6-Port  ) 
!S54(C  6-Port  ) 
!S55(C  6-Port  ) 
!S56(C  6-Port  ) 
!S61(C  6-Port  ) 
!S62(C  6-Port  ) 
!S63(C  6-Port  ) 
!S64(C  6-Port  ) 
!S65(C  6-Port  ) 
!S66(C  6-Port  ) 
!S6P File: Measurement: :
# Hz S  RI   R 50
500000000 -0.33361 -0.056821 -0.010417 -0.0017336 -0.0083647 0.013334 -0.005094 0.01154
0.01371 0.0056047 -0.005114 0.0065921
-0.010394 -0.0017346 -0.41622 -0.065829 0.0078207 -0.010515 0.001489 0.01168
0.007899 0.0032642 0.0014816 0.013256
-0.0082404 0.013277 0.0078402 -0.010539 -0.268 0.1978 0.0065556 0.0038345
-0.0016539 0.0086044 9.5697e-05 0.012371
-0.0052601 0.011741 0.0012662 0.011751 0.0065298 0.0038678 -0.3321 0.041606
-0.01846 -0.0047547 0.01678 0.024593
0.013692 0.005431 0.0079698 0.0030747 -0.0016242 0.008545 -0.018658 -0.0045056
-0.24675 -0.19987 -0.02647 0.0053429
-0.0057438 0.0069122 0.0012025 0.013185 8.9621e-05 0.012273 0.016561 0.024434
-0.026347 0.005327 -0.26872 -0.12826
560000000 -0.31991 0.11052 -0.022951 -0.065186 0.00079675 0.013176 0.0051483 0.0114
0.010761 0.0049545 0.0098159 0.008042
-0.022921 -0.06507 -0.37609 0.098253 -0.041749 -0.037787 0.013468 0.0029213
-0.012966 -0.0048005 0.0048219 -0.00084851
0.00083327 0.013143 -0.041955 -0.037733 -0.18673 0.24997 -9.9844e-05 -0.0041918
0.018748 0.0060431 0.0082023 -0.0047651
0.0052839 0.011424 0.013274 0.0030999 5.0083e-05 -0.0042323 -0.30664 0.13366
0.005196 -0.023587 0.0047418 -0.021308
0.0109 0.0047243 -0.013298 -0.0044861 0.018505 0.0057754 0.0048828 -0.023254
-0.30917 -0.019826 0.007548 -0.048044
0.0096187 0.008595 0.0045966 -0.0011935 0.0084027 -0.0046869 0.0050006 -0.021441
0.0072691 -0.048048 -0.33223 0.020267
620000000 -0.27893 0.091343 -0.023377 0.0088222 0.0036811 0.009517 0.0090846 -0.0045651
0.010678 -0.0010257 0.0016218 -0.0012354
-0.02336 0.0087952 -0.40371 0.0469 -0.01827 0.00089428 -0.0014239 -0.002034
0.011896 -0.0058976 0.0012004 -0.0033016
0.0037754 0.009504 -0.018331 0.00093713 -0.15594 0.25925 -0.0006733 -0.0054064
-0.0033015 -0.0023178 0.0096464 -0.0030407
0.0092467 -0.0044591 -0.0015134 -0.0020794 -0.00062034 -0.0054136 -0.26637 0.14471
-0.037838 -0.018817 0.012445 0.025785
0.010545 -0.00096717 0.011916 -0.0058361 -0.0033273 -0.0023312 -0.037959 -0.018716
-0.23025 -0.054475 -0.040261 0.014657
0.0016637 -0.001501 0.0010389 -0.0032278 0.0098171 -0.0030663 0.012368 0.025943
-0.040142 0.014757 -0.25102 -0.015375
680000000 -0.24075 0.18273 -0.026275 -0.014275 0.0048567 0.0050672 0.0016776 -0.0078274
-0.0020472 -0.011067 0.0058959 -0.0074832
-0.026223 -0.014285 -0.39043 0.1489 -0.032014 -0.0021127 -0.001773 -0.00044822
-0.0015747 -0.0093681 -0.00048732 -0.0019571
0.0048398 0.0050455 -0.032068 -0.0020433 -0.10416 0.28028 -0.001142 -0.00032566
-0.0014445 6.0946e-05 -0.0026109 -0.0093058
0.0017003 -0.0078271 -0.0017424 -0.00039421 -0.0012098 -0.00032635 -0.22022 0.19719
-0.0238 -0.0074917 -0.0088187 -0.012269
-0.0018852 -0.01123 -0.0015847 -0.0093192 -0.0014484 9.7978e-05 -0.023738 -0.0076411
-0.28029 0.049964 -0.0075987 -0.0070324
0.0060525 -0.0074173 -0.00047392 -0.0020332 -0.0025649 -0.0093604 -0.0089213 -0.01216
-0.0075721 -0.0069808 -0.25947 0.092283
740000000 -0.19345 0.17615 -0.039673 0.026708 0.014046 -0.0047992 -1.6171e-05 -0.0043761
-0.0040622 -0.0034393 -0.0065736 0.0022665
-0.039672 0.02665 -0.33535 0.16725 -0.036988 0.034612 -0.00017534 -0.0060034
-0.011806 0.0076001 -0.0020254 -0.0059754
0.014039 -0.0048866 -0.036907 0.034739 -0.06996 0.27694 -0.0019845 0.0034192
-0.0031476 -0.0061677 -0.0014083 0.00093216
2.9408e-05 -0.0043752 -0.00031308 -0.0060868 -0.001936 0.0034369 -0.20327 0.20364
-0.042371 -0.0069444 0.022727 0.015707
-0.0041056 -0.0032272 -0.011933 0.0075456 -0.0032132 -0.0062273 -0.04244 -0.0068953
-0.18115 0.074642 -0.043079 0.0022634
-0.0065473 0.0023508 -0.0020301 -0.0060497 -0.0013741 0.0011096 0.022977 0.015622
-0.043071 0.0024703 -0.24912 0.098627
800000000 -0.16251 0.21937 -0.022025 0.016237 0.0058525 -0.010695 -0.0043325 -0.0023258
-0.0049037 0.0020152 0.0048645 0.00033023
-0.021997 0.016205 -0.34145 0.238 -0.008564 0.033925 -0.002294 0.0020812
-0.0015519 0.002444 0.0012296 0.0052953
0.0058214 -0.010724 -0.008465 0.03396 -0.031595 0.30118 0.00087844 0.0014625
-0.00025203 0.0034931 -0.0015077 0.00075531
-0.0042444 -0.002313 -0.0022437 0.0020531 0.0008971 0.0014882 -0.17392 0.23161
-0.028242 0.012945 0.01448 -0.010255
-0.0048427 0.0020553 -0.001507 0.0024543 -0.00020094 0.0034851 -0.028226 0.013053
-0.22388 0.10602 -0.017047 0.019693
0.0049553 0.00023355 0.0012376 0.0051555 -0.0015726 0.00075716 0.014355 -0.010289
-0.017079 0.019681 -0.24085 0.14712
860000000 -0.128 0.23997 -0.017833 0.030386 -0.0028304 -0.010426 -0.0017465 0.00061335
0.0037749 0.0054424 -0.0037834 -0.0029016
-0.01782 0.030346 -0.2935 0.2809 0.0070974 0.034417 -5.8837e-05 0.002222
0.0031126 0.0010337 0.003065 0.00029408
-0.0028758 -0.010396 0.0072372 0.034426 0.015769 0.30957 -0.00056803 -4.7402e-05
0.0020997 -0.0012421 0.0016107 0.0043335
-0.0018268 0.00073982 1.5275e-05 0.0023244 -0.00057701 -5.2299e-05 -0.1371 0.24228
-0.018089 0.01814 -0.0058694 -0.009059
0.0037656 0.0054797 0.0030504 0.00097219 0.0020879 -0.001292 -0.0181 0.018169
-0.16692 0.15844 -0.025752 0.016661
-0.003884 -0.0028508 0.0032151 0.00033332 0.0016467 0.0043532 -0.0056671 -0.0091235
-0.025714 0.016601 -0.18986 0.19272
920000000 -0.10483 0.2628 0.0045797 0.03825 -0.0092269 -0.0051718 -0.0020402 0.0016341
0.0011112 0.0022821 0.003059 -0.0012651
0.0045741 0.038212 -0.26604 0.30205 0.028057 0.023001 0.0015166 0.0012871
0.0081884 0.0003468 0.004586 -0.0024493
-0.0092419 -0.0051383 0.028177 0.022932 0.060939 0.31103 0.0019523 0.000139
0.0012731 -3.4348e-05 0.0012231 -0.0012207
-0.0020124 0.0016461 0.0015179 0.0013089 0.0019898 0.00011195 -0.11341 0.25876
-0.0111 0.030584 0.0034403 -0.0066582
0.001039 0.0022343 0.0081338 0.00032567 0.0012362 -5.0087e-05 -0.010942 0.03074
-0.15425 0.16366 -0.00057748 0.026253
0.0031211 -0.0012567 0.0046471 -0.0024621 0.0012629 -0.0012219 0.0032886 -0.0067772
-0.00058966 0.026143 -0.19882 0.20519
980000000 -0.058255 0.28341 0.016696 0.029922 -0.0095403 0.0040376 0.0018702 0.0036413
0.0041262 -0.0020661 -0.0032014 -0.0022562
0.016693 0.029891 -0.21337 0.33678 0.033247 0.0055763 0.0021398 6.1896e-06
0.0018144 -0.0064066 -0.0005073 -0.0022938
-0.0095256 0.0040689 0.033322 0.0054838 0.10658 0.30564 0.0007379 -0.0012065
0.00057301 -0.0021733 0.0014095 -0.00011129
0.0018926 0.0036642 0.0021251 -9.4437e-06 0.00073938 -0.0012022 -0.074723 0.26953
0.0073694 0.029507 -0.0090318 -0.0073255
0.0041109 -0.0020472 0.0018159 -0.0064051 0.00059735 -0.0021722 0.0075375 0.029528
-0.12228 0.19414 0.005774 0.019538
-0.0032399 -0.0023275 -0.00043748 -0.0023975 0.0014241 -0.00013327 -0.0090492 -0.0073322
0.0057567 0.019379 -0.15527 0.25058
1040000000 -0.017228 0.29256 0.032633 0.019081 -0.0017737 0.0069598 0.0027019 0.00075786
7.7599e-05 -0.0036149 -0.00032163 -0.001793
0.032608 0.019063 -0.17861 0.35024 0.03006 -0.014404 0.0016212 -0.0017218
-0.0020883 -0.0028166 -0.0011387 -0.0033296
-0.0017565 0.0069831 0.030056 -0.014548 0.15245 0.29283 -0.00039604 -0.0016728
-0.001607 -0.0010181 -0.00059262 -0.0011237
0.0026522 0.00070729 0.0016265 -0.0017408 -0.00038855 -0.0016822 -0.047747 0.27921
0.019172 0.018897 -0.0025567 0.00086341
8.4292e-05 -0.003632 -0.0021461 -0.002805 -0.0016179 -0.0010316 0.019223 0.018934
-0.088946 0.20072 0.014183 0.018129
-0.00026278 -0.0017316 -0.0011382 -0.0033049 -0.0005886 -0.0011349 -0.0025964 0.00091166
0.014257 0.018117 -0.13454 0.26978
1100000000 0.027541 0.30208 0.036314 -0.0032378 0.00275 0.00423 0.0024118 -0.00089828
-0.0023614 -0.0031613 -0.0041522 0.00014888
0.036294 -0.0032332 -0.13564 0.36887 0.01616 -0.027884 1.0416e-05 -0.001827
-0.0038066 -0.0010234 -0.0036902 -0.00044989
0.0027556 0.0042239 0.016076 -0.027981 0.19843 0.27387 -0.0019515 4.2596e-05
-0.0019279 0.00046994 -0.0012229 -0.00042784
0.002435 -0.00091376 6.2286e-05 -0.0018191 -0.0019597 5.0731e-05 -0.0079016 0.28428
0.024702 0.005604 -0.0024614 1.037e-05
-0.0023757 -0.0030733 -0.0038303 -0.00099755 -0.0019289 0.00048276 0.024618 0.0055587
-0.068848 0.21356 0.019328 0.0084782
-0.0041937 9.6034e-05 -0.0036862 -0.00045301 -0.0012131 -0.00044799 -0.002343 7.5113e-05
0.01928 0.0084594 -0.087954 0.29979
1160000000 0.078632 0.2984 0.024688 -0.020356 0.002755 -0.0003231 -8.3962e-05 -0.0023459
-0.0040371 -0.00079674 -0.00089902 0.0040567
0.0247 -0.020335 -0.092494 0.37368 -0.0030946 -0.029641 -0.0016939 -0.0017844
-0.0030332 0.0024863 -0.0014802 0.0019869
0.0027321 -0.00035459 -0.0032156 -0.029674 0.24192 0.24397 -0.00087091 0.0017608
-0.00077632 0.0019932 -0.00099041 0.00039059
-7.8198e-05 -0.0023961 -0.0017047 -0.0017592 -0.00087378 0.0017544 0.031152 0.28229
0.021203 -0.0099893 -0.0033257 0.0050349
-0.0040254 -0.00074701 -0.0030526 0.0025106 -0.00076585 0.002026 0.021249 -0.010057
-0.034074 0.22126 0.01874 -0.00036068
-0.00098109 0.0040525 -0.0014033 0.0019858 -0.0010098 0.00036441 -0.003464 0.0051236
0.018756 -0.00041276 -0.040462 0.30267
1220000000 0.1225 0.28886 0.011215 -0.030119 -0.0016235 -0.00081534 0.00018598 -0.00091491
-0.0028016 0.0021688 0.0010241 0.0022245
0.011238 -0.03009 -0.048665 0.38715 -0.016911 -0.022156 -0.0026773 0.00048896
-0.0001471 0.003315 -0.00091273 0.0020801
-0.00164 -0.00079969 -0.017026 -0.022105 0.28112 0.20565 0.00069907 0.0018699
0.00055147 0.0013458 0.00035831 0.00072725
0.00015178 -0.0009049 -0.0026719 0.00048844 0.00069027 0.0018814 0.071158 0.27405
0.011054 -0.017039 0.002187 0.0013918
-0.00278 0.0021665 -0.00011996 0.003314 0.00056717 0.0013467 0.011044 -0.017058
-0.010922 0.23012 0.014172 -0.013183
0.001062 0.0021985 -0.00089779 0.0020812 0.00035789 0.00071069 0.002211 0.0013773
0.01419 -0.013221 -0.0095209 0.31787
1280000000 0.17298 0.26879 -0.007518 -0.02887 -0.0020053 0.0026068 -0.00077804 -0.0021935
-0.00086991 0.0032485 0.002638 0.0014274
-0.0074945 -0.028852 -0.002581 0.37938 -0.024331 -0.009155 -0.0010376 0.0014881
0.0017654 0.0018956 0.00058726 0.0020888
-0.0020063 0.0026117 -0.024388 -0.0090643 0.31202 0.16258 0.0016957 9.1652e-05
0.0012811 0.0003198 0.00036472 0.00030118
-0.00079257 -0.0022064 -0.001048 0.0014855 0.0016973 9.5899e-05 0.10833 0.25844
0.0013531 -0.019401 -8.9567e-05 0.00030808
-0.00083475 0.0032378 0.0017831 0.0019026 0.0012928 0.00030851 0.0013054 -0.019449
0.025466 0.23337 0.0030796 -0.015566
0.0026708 0.0014207 0.00060672 0.0021184 0.00038277 0.00026407 -8.7467e-05 0.00036177
0.0030536 -0.015579 0.037219 0.31977
1340000000 0.21042 0.23614 -0.017489 -0.019352 0.00083038 0.0048504 -0.0018045 -0.00093241
0.0014422 0.0027807 0.0019353 -0.0013666
-0.017446 -0.019336 0.037159 0.37215 -0.022268 0.0040128 -0.00011514 0.0021372
0.0021217 0.00084166 0.0012465 0.00084378
0.00085016 0.0048444 -0.022271 0.0041206 0.33453 0.11544 0.0011807 -0.000877
0.00063242 -0.00059599 5.9987e-05 0.00016711
-0.0018171 -0.00091174 -9.6977e-05 0.0021381 0.0011913 -0.00087697 0.14187 0.23793
-0.0081731 -0.016855 0.00068263 0.0006335
0.0014545 0.0027319 0.0021276 0.00081702 0.00061174 -0.00057094 -0.0081965 -0.016819
0.055264 0.22914 -0.003979 -0.014327
0.0019483 -0.001359 0.0012306 0.00083701 9.8331e-05 0.00018369 0.00070494 0.00063647
-0.0040122 -0.014285 0.075459 0.31488
1400000000 0.24476 0.19938 -0.023502 -0.0077211 0.0055609 0.0035324 -0.0022813 0.00064136
0.0024861 0.0009792 0.00032625 -0.0017136
-0.023476 -0.0077339 0.074937 0.36015 -0.015546 0.012677 0.0014375 0.0013651
0.0014028 -0.00085084 0.0012224 0.00015195
0.0055537 0.0035041 -0.015524 0.012775 0.34787 0.062559 0.00011571 -0.0016961
0.00014262 -0.00038825 0.0003203 0.00020522
-0.002296 0.00065464 0.0014604 0.0013662 0.00013218 -0.0016797 0.17173 0.20907
-0.014465 -0.010107 -0.00091004 -0.00010068
0.0024807 0.00095284 0.0013873 -0.00086622 0.00015786 -0.00040825 -0.014467 -0.010089
0.088139 0.22492 -0.010423 -0.0089838
0.00032105 -0.0017424 0.0012166 0.0001377 0.00027312 0.00018738 -0.00093848 -0.00011343
-0.010429 -0.0089553 0.11969 0.30406
1460000000 0.26848 0.15587 -0.020537 0.0046611 0.0060466 -0.001729 -0.0016039 0.0017937
0.0022295 -0.00044928 -0.00032532 -0.0012667
-0.020529 0.0046403 0.10998 0.3387 -0.006357 0.016041 0.0018031 0.00013382
0.0009347 -0.0014384 0.0013135 -0.00061917
0.006039 -0.0017435 -0.0062751 0.016097 0.35492 0.0088456 -0.0012094 -0.0014351
0.00019138 -0.00020597 0.00073708 -0.00026125
-0.001613 0.001802 0.0018114 0.00013134 -0.001224 -0.0014289 0.19871 0.17956
-0.015831 -0.0034465 -0.00080327 0.0021079
0.0022069 -0.00046213 0.00093612 -0.0014808 0.00020244 -0.00024453 -0.015843 -0.0033752
0.1179 0.21128 -0.01235 -0.0029298
-0.00032749 -0.0012168 0.0013122 -0.00061046 0.00073025 -0.00023926 -0.0008109 0.0020603
-0.012347 -0.0029714 0.15306 0.2838
1520000000 0.28168 0.11437 -0.014884 0.010202 0.0036207 -0.0045061 0.00010044 0.0026222
0.0021282 -0.0019718 -0.0012481 -0.00018301
-0.014879 0.010176 0.14402 0.32441 0.0016854 0.013691 0.001661 -0.00083769
2.6912e-06 -0.0011867 0.00031931 -0.0011087
0.0036011 -0.0045312 0.0017625 0.013695 0.34876 -0.047073 -0.0011133 -0.00041493
0.00075586 -0.00089659 0.0001187 -0.00024224
0.00010923 0.0026252 0.0016626 -0.00084841 -0.001122 -0.00042759 0.22216 0.1409
-0.015353 0.0025989 0.0016341 0.0022028
0.0021264 -0.0019802 -2.3366e-06 -0.001198 0.00073892 -0.00093735 -0.015379 0.0026064
0.14615 0.19818 -0.012248 0.0017725
-0.0012934 -0.0001718 0.00032392 -0.0011161 0.00011306 -0.00024179 0.0016572 0.002239
-0.012246 0.001775 0.18578 0.26318
1580000000 0.29212 0.06841 -0.0081407 0.013516 -0.00099695 -0.0052765 0.0015142 0.0019256
-0.00014327 -0.0022891 -0.00037086 0.00040966
-0.008146 0.013492 0.17186 0.29993 0.0056105 0.0085374 0.00046261 -0.0016237
-0.00056684 -0.0010653 -0.0002055 -0.00095801
-0.0010362 -0.0052872 0.0056479 0.0085185 0.32962 -0.10487 -0.0017293 0.00061099
-0.00039467 -0.0013299 0.00014939 -0.00062364
0.0015261 0.0019086 0.00045463 -0.0016384 -0.001731 0.00060125 0.23605 0.10122
-0.011906 0.0076639 0.0023906 0.00078814
-0.00014877 -0.0022855 -0.00057394 -0.0010515 -0.00036829 -0.0012994 -0.011872 0.0077017
0.17082 0.18096 -0.0095978 0.0075728
-0.0003574 0.00041013 -0.00019655 -0.00096924 0.00020746 -0.00064407 0.0023718 0.00072646
-0.0095844 0.0075778 0.21768 0.23724
1640000000 0.29482 0.026875 -0.001357 0.012289 -0.0030009 -0.00278 0.0027522 0.001037
-0.00080975 -0.0016647 -0.00033718 0.00074794
-0.0013774 0.012273 0.20193 0.27506 0.0063602 0.0034678 -0.00065823 -0.0017809
-0.001056 -0.00044242 -0.00060771 -0.00072045
-0.0030088 -0.0027667 0.0063853 0.0034267 0.30141 -0.15445 -0.00066697 0.0015546
-0.0010815 -0.0010386 -0.00031579 -0.00046629
0.0027282 0.0010299 -0.00068289 -0.0017932 -0.0006619 0.0015397 0.24857 0.05201
-0.0075279 0.0093467 0.0026534 -0.00084392
-0.00083509 -0.0016588 -0.0010632 -0.00043042 -0.0010991 -0.0010552 -0.0074995 0.0093328
0.19458 0.15732 -0.0046673 0.0097509
-0.00035899 0.00078036 -0.00061842 -0.00071058 -0.00031593 -0.0004523 0.0026417 -0.00085589
-0.0046548 0.0097544 0.24347 0.20624
1700000000 0.28797 -0.018674 0.002068 0.0094656 -0.0037701 3.5977e-05 0.0032116 -0.0012273
-0.0020983 -0.00070096 0.00053441 0.00043082
0.0020451 0.0094564 0.22038 0.24364 0.0042199 0.00038206 -0.0015141 -0.00055158
-0.00085276 5.9753e-06 -0.00099537 -0.00047901
-0.0037669 5.1533e-05 0.00423 0.00037209 0.25824 -0.19402 0.00043925 0.0017167
-0.0020997 -8.4443e-05 -0.00052379 -0.00091161
0.0031963 -0.0012431 -0.0015185 -0.00053846 0.00043493 0.0017222 0.24502 0.0017906
-0.0045173 0.0098574 0.0015982 -0.0022108
-0.0021092 -0.00065904 -0.00085496 1.292e-05 -0.0021267 -4.6335e-05 -0.0044821 0.0098936
0.21239 0.13714 -0.00010051 0.0099865
0.00057769 0.0004949 -0.00099501 -0.00047619 -0.00052071 -0.00089886 0.001642 -0.0022801
-9.1429e-05 0.010039 0.25973 0.17243
1760000000 0.2765 -0.067363 0.0044711 0.0061605 -0.0025039 0.0010266 0.0013762 -0.0034542
-0.0014162 0.00075675 0.00042718 -0.00051657
0.0044529 0.0061667 0.24686 0.20389 0.0018184 -0.0017069 -0.0012406 0.00023379
-0.001115 0.00097834 -0.000624 0.00042355
-0.0024688 0.0010358 0.0018282 -0.0016982 0.21082 -0.2275 0.0010956 0.0010899
-0.001346 0.0015529 -0.001334 -0.00065879
0.0013433 -0.0034281 -0.001255 0.00024041 0.0010704 0.0010966 0.23579 -0.04979
-0.00094619 0.0090018 -0.000117 -0.0026388
-0.0013869 0.00076245 -0.0011136 0.00099186 -0.0014144 0.0015819 -0.00095935 0.0089788
0.22811 0.10279 0.0040917 0.0074283
0.00041865 -0.00055577 -0.00062964 0.00042994 -0.0013273 -0.00058634 -0.0001342 -0.0025733
0.0040463 0.0074484 0.27282 0.13494
1820000000 0.25219 -0.10485 0.0045638 0.0025895 -0.00018652 0.0026456 -0.00090358 -0.0031596
-0.0011182 0.0010496 5.2137e-06 -0.00010647
0.0045583 0.0026008 0.25721 0.17366 -0.00073054 -0.00040778 -0.0013084 0.00098194
-9.2145e-05 0.0013067 -0.00059761 0.00061827
-0.00019351 0.0026529 -0.00074962 -0.00040169 0.15923 -0.24375 0.0016625 0.00040926
-0.00015014 0.0024806 -0.0014342 0.00045347
-0.00090726 -0.0031747 -0.0012845 0.00097841 0.0016636 0.00043783 0.20553 -0.097156
0.00079999 0.0074608 -0.001735 -0.001654
-0.0011258 0.0010441 -8.9983e-05 0.0013101 -0.00017501 0.0024626 0.00079466 0.0074688
0.24597 0.073794 0.0051524 0.0038062
-8.231e-06 -0.00012999 -0.00059387 0.00064519 -0.0014844 0.00055307 -0.0017441 -0.0016562
0.0051629 0.0037817 0.27533 0.098581
1880000000 0.21705 -0.14532 0.0022052 0.00015636 -0.0007572 0.0023406 -0.0030365 -0.0023194
-0.00019437 0.0018709 0.00010259 -0.00050011
0.0022262 0.00015667 0.26182 0.12704 -0.0028236 0.0014924 -0.00019782 0.0017526
0.00058268 0.0013563 5.3419e-05 0.00096714
-0.00071668 0.0023174 -0.0027916 0.0015307 0.10726 -0.2529 0.0018857 -0.0009307
0.001678 0.001997 -0.0010753 0.0013626
-0.0030322 -0.002308 -0.00018284 0.0017257 0.0018868 -0.00091834 0.16461 -0.13695
0.0015557 0.0051403 -0.0026196 0.00014668
-0.00016702 0.0018242 0.00059146 0.0013511 0.0016741 0.0020171 0.0016286 0.0051292
0.25018 0.042064 0.0053793 0.001306
9.9804e-05 -0.00051757 5.2896e-05 0.00098293 -0.0010768 0.001411 -0.0026296 6.5221e-05
0.0054042 0.0013383 0.27565 0.064883
1940000000 0.17781 -0.17116 -0.00020022 -0.0014581 0.0014703 0.0020827 -0.003933 0.00033685
0.001359 0.0010051 -0.00074607 -0.00068209
-0.00018642 -0.0014657 0.26274 0.095054 -0.0013905 0.0040966 0.00098692 0.00125
0.0019611 0.00055756 0.0010486 0.00031747
0.0014563 0.0020886 -0.00137 0.0041242 0.06225 -0.24547 0.00037478 -0.0023783
0.0025337 0.00027134 0.00060373 0.0015028
-0.0039383 0.00036141 0.0010289 0.001234 0.00038135 -0.0024195 0.11213 -0.16747
0.0008328 0.003762 -0.00153 0.0013736
0.0013874 0.00097535 0.001986 0.00052653 0.0025321 0.00020621 0.00082954 0.0037571
0.25358 0.0036252 0.0041379 -0.0020566
-0.00070885 -0.00065254 0.0010947 0.00028607 0.00055898 0.0014512 -0.0014792 0.0014312
0.0041532 -0.002016 0.26532 0.02878
2000000000 0.13161 -0.18571 -0.0041721 0.00093036 0.0026852 0.001925 -0.0023648 0.0036851
0.0012098 0.00025739 -0.00055384 0.00046945
-0.0041709 0.00092292 0.2483 0.059491 -0.0011123 0.0060544 0.0016156 0.00034052
0.0014828 -0.0012504 0.00051543 9.1145e-05
0.0027284 0.0019351 -0.0010719 0.0060897 0.018975 -0.23188 -0.0012358 -0.0014391
0.0020571 -0.0012399 0.0014746 0.0014675
-0.0024114 0.0037533 0.001597 0.00039961 -0.001226 -0.001424 0.058608 -0.17705
-0.0007106 0.0035764 -0.0001516 0.0024995
0.0011946 0.00021694 0.0014695 -0.0012534 0.0020708 -0.0012359 -0.00062579 0.0035633
0.24858 -0.029817 0.00073999 -0.0030669
