!Keysight Technologies,M9804A,MY58100912,A.14.10.03
!Date: Thursday, April 27, 2023 10:28:33
!Correction: S11(C  6-Port  ) 
!S12(C  6-Port  ) 
!S13(C  6-Port  ) 
!S14(C  6-Port  ) 
!S15(C  6-Port  ) 
!S16(C  6-Port  ) 
!S21(C  6-Port  ) 
!S22(C  6-Port  ) 
!S23(C  6-Port  ) 
!S24(C  6-Port  ) 
!S25(C  6-Port  ) 
!S26(C  6-Port  ) 
!S31(C  6-Port  ) 
!S32(C  6-Port  ) 
!S33(C  6-Port  ) 
!S34(C  6-Port  ) 
!S35(C  6-Port  ) 
!S36(C  6-Port  ) 
!S41(C  6-Port  ) 
!S42(C  6-Port  ) 
!S43(C  6-Port  ) 
!S44(C  6-Port  ) 
!S45(C  6-Port  ) 
!S46(C  6-Port  ) 
!S51(C  6-Port  ) 
!S52(C  6-Port  ) 
!S53(C  6-Port  ) 
!S54(C  6-Port  ) 
!S55(C  6-Port  ) 
!S56(C  6-Port  ) 
!S61(C  6-Port  ) 
!S62(C  6-Port  ) 
!S63(C  6-Port  ) 
!S64(C  6-Port  ) 
!S65(C  6-Port  ) 
!S66(C  6-Port  ) 
!S6P File: Measurement: :
# Hz S  RI   R 50
500000000 -0.33401 -0.056301 -0.010455 -0.0015743 -0.0084368 0.013449 -0.0046745 0.011442
0.013428 0.0057066 -0.0047138 0.0071266
-0.010476 -0.001514 -0.41608 -0.065815 0.0077665 -0.01056 0.0013187 0.011571
0.0078475 0.0028895 0.0014201 0.013191
-0.0084211 0.013449 0.0077858 -0.010628 -0.26799 0.19797 0.0062928 0.0037254
-0.0016739 0.0084149 -0.00020947 0.011987
-0.0044056 0.011562 0.0014614 0.011546 0.0063022 0.0037267 -0.33279 0.043211
-0.018522 -0.005881 0.015023 0.026471
0.013283 0.0055398 0.007791 0.0027993 -0.0016774 0.0083414 -0.018445 -0.0058893
-0.24602 -0.19878 -0.025522 0.0036732
-0.0044714 0.0072071 0.0015275 0.012965 -0.00016928 0.012014 0.015054 0.026572
-0.025574 0.0035908 -0.27239 -0.12549
560000000 -0.31989 0.1106 -0.022976 -0.065553 0.00038395 0.013372 0.0055583 0.011047
0.011313 0.0049726 0.0097243 0.008733
-0.02284 -0.065419 -0.37587 0.098181 -0.041465 -0.037671 0.013941 0.0030634
-0.013459 -0.0038022 0.0046049 -0.00096606
0.00030673 0.013209 -0.041538 -0.037724 -0.18687 0.25006 -0.00011424 -0.0039775
0.01832 0.0057605 0.0082625 -0.0051091
0.0056252 0.011234 0.013891 0.003182 -7.1651e-05 -0.0040111 -0.30647 0.13418
0.0053516 -0.023186 0.0048819 -0.021556
0.011422 0.0048947 -0.013579 -0.003975 0.018344 0.0056588 0.0053925 -0.023347
-0.30815 -0.021632 0.0076872 -0.047051
0.0096214 0.0089108 0.0047183 -0.0010667 0.0083594 -0.0050407 0.0048946 -0.021489
0.0077299 -0.046904 -0.33213 0.020319
620000000 -0.27832 0.091673 -0.023445 0.0087264 0.0039108 0.0095223 0.0087261 -0.0040138
0.011084 -0.0016845 0.000495 -0.0017537
-0.023382 0.0087292 -0.40376 0.047174 -0.018263 0.00089006 -0.0012232 -0.0019496
0.011676 -0.0063309 0.0012649 -0.0031347
0.0038941 0.0094845 -0.018317 0.00096811 -0.15586 0.25939 -0.00066266 -0.0053517
-0.0035474 -0.0024953 0.0094481 -0.0033948
0.0087268 -0.0042422 -0.0012744 -0.0020575 -0.00061141 -0.0053246 -0.26597 0.14364
-0.037945 -0.017464 0.013187 0.025142
0.010888 -0.0016124 0.011594 -0.006241 -0.0034768 -0.0026218 -0.037963 -0.01759
-0.23063 -0.055778 -0.041595 0.015521
0.00072094 -0.0021575 0.0012827 -0.003393 0.0095679 -0.0032857 0.013308 0.025351
-0.041494 0.015472 -0.25019 -0.016065
680000000 -0.24019 0.18328 -0.026388 -0.013867 0.0046811 0.0052506 0.0019346 -0.0076159
-0.002178 -0.011163 0.0067101 -0.0070047
-0.026362 -0.013859 -0.39063 0.14889 -0.032094 -0.0021671 -0.001734 -0.00020305
-0.0014987 -0.0093275 -0.00080565 -0.0017431
0.0046147 0.005239 -0.032178 -0.0021178 -0.10404 0.28027 -0.001231 -0.00014824
-0.001297 -4.2223e-05 -0.0031407 -0.0091864
0.0020724 -0.0076493 -0.0016774 -0.00016568 -0.0012428 -0.00014527 -0.21968 0.19698
-0.023635 -0.0081212 -0.0083711 -0.0115
-0.002058 -0.011204 -0.0015149 -0.0094094 -0.0012643 -1.7671e-05 -0.023613 -0.0080164
-0.27965 0.050512 -0.0074959 -0.0073712
0.0068192 -0.0066081 -0.00088277 -0.0014988 -0.0031767 -0.0092423 -0.0086136 -0.011619
-0.007441 -0.0073513 -0.25964 0.092831
740000000 -0.19336 0.17638 -0.03947 0.027265 0.013976 -0.0048027 0.00018477 -0.0042332
-0.0042333 -0.0031511 -0.0064178 0.0027618
-0.039416 0.027168 -0.33593 0.16743 -0.036795 0.034329 -0.00019562 -0.0061309
-0.012638 0.0081756 -0.0015313 -0.0067306
0.01397 -0.004894 -0.036892 0.034406 -0.069616 0.27704 -0.002074 0.003282
-0.0034101 -0.0061234 -0.00094512 0.00078561
0.00011205 -0.0042713 -0.00019982 -0.0059948 -0.0020208 0.0032936 -0.20324 0.20402
-0.042241 -0.00713 0.022196 0.015201
-0.0041947 -0.0033613 -0.012888 0.0080672 -0.0033715 -0.0061456 -0.042269 -0.0072347
-0.18135 0.078418 -0.04163 0.0016886
-0.0062949 0.0028534 -0.0015075 -0.0064667 -0.00082315 0.0009271 0.022496 0.015174
-0.04187 0.0016223 -0.24907 0.097687
800000000 -0.16248 0.21976 -0.022156 0.016274 0.0058133 -0.010781 -0.0040469 -0.002192
-0.0050763 0.001821 0.0050441 0.00068333
-0.022164 0.016278 -0.34168 0.23806 -0.0085551 0.03386 -0.0020414 0.002217
-0.0016964 0.0022371 0.0013026 0.0058525
0.0057769 -0.01076 -0.0085234 0.033918 -0.031513 0.30116 0.0010078 0.0015578
-0.00028779 0.0033716 -0.0014904 0.0008485
-0.0041255 -0.0020965 -0.0021253 0.0022655 0.00099366 0.0015774 -0.17359 0.23188
-0.028111 0.012898 0.014481 -0.0099337
-0.0050042 0.0018041 -0.001632 0.0022091 -0.00030757 0.0033532 -0.028178 0.012994
-0.2244 0.1061 -0.016483 0.019598
0.0046383 0.00082731 0.00093577 0.0057817 -0.0015868 0.00091222 0.014492 -0.0098405
-0.016476 0.019532 -0.24126 0.14798
860000000 -0.12796 0.24017 -0.0178 0.030345 -0.0028715 -0.01038 -0.0018769 0.00062866
0.0036205 0.0050128 -0.0040269 -0.0026505
-0.017809 0.030303 -0.2935 0.28101 0.0071091 0.034401 0.0001943 0.0022927
0.0032513 0.00095352 0.002677 0.00078584
-0.0029113 -0.010341 0.0071936 0.0344 0.015823 0.3096 -0.00055513 -4.2191e-05
0.0020542 -0.0013057 0.0014897 0.0044438
-0.0019095 0.00067839 0.00015118 0.0022863 -0.00054356 -4.0422e-05 -0.13721 0.24243
-0.017656 0.017919 -0.0065694 -0.0089169
0.0035536 0.0052803 0.0030144 0.0011454 0.0020666 -0.0013366 -0.017662 0.01796
-0.16702 0.1581 -0.025173 0.017598
-0.0039381 -0.0029818 0.0028994 0.00031331 0.0014654 0.0044284 -0.0065526 -0.0089127
-0.025224 0.01753 -0.19124 0.19162
920000000 -0.10465 0.263 0.0045956 0.038355 -0.0092126 -0.0051456 -0.0020414 0.0017009
0.0012472 0.002317 0.0029794 -0.0014064
0.0046014 0.038319 -0.26598 0.30211 0.028092 0.022973 0.0014166 0.0013966
0.0082477 0.00021005 0.0044973 -0.0025739
-0.0092591 -0.0050945 0.028173 0.022886 0.061009 0.31102 0.0019259 5.9748e-05
0.0013068 -2.7334e-05 0.0010867 -0.0014381
-0.0020436 0.0017148 0.001451 0.0014173 0.0019321 6.0417e-05 -0.11292 0.25879
-0.011165 0.030704 0.0040225 -0.0066928
0.0012263 0.0023338 0.0081488 0.00018346 0.0013046 -4.1903e-05 -0.011137 0.030725
-0.15368 0.16362 -0.00069874 0.026303
0.0029642 -0.0012489 0.0045525 -0.0025137 0.001118 -0.001413 0.0039984 -0.0066722
-0.00065229 0.026283 -0.19742 0.20538
980000000 -0.058154 0.28342 0.016733 0.0299 -0.0095106 0.004039 0.001873 0.0036107
0.0040573 -0.001928 -0.003192 -0.0022626
0.016732 0.029873 -0.21327 0.33692 0.033307 0.005556 0.0021129 -8.5197e-05
0.0017821 -0.0063334 -0.00044101 -0.0023689
-0.0095153 0.0040814 0.033391 0.0054405 0.10667 0.30563 0.0007678 -0.0011529
0.00055694 -0.002115 0.0013878 -0.00016502
0.0018969 0.0035653 0.0020682 -5.0662e-05 0.00076466 -0.0011577 -0.07461 0.26954
0.0074296 0.029479 -0.0091837 -0.0072679
0.004042 -0.0018534 0.0017034 -0.0064103 0.00056914 -0.0020984 0.0075135 0.029465
-0.12225 0.19447 0.0057763 0.019345
-0.0031051 -0.0023652 -0.00050577 -0.0024306 0.0014006 -0.00019595 -0.0091893 -0.0072807
0.0057564 0.019394 -0.15602 0.25084
1040000000 -0.017163 0.29257 0.032701 0.019057 -0.0017697 0.0069305 0.002592 0.00071809
0.00030928 -0.0034968 -0.00028166 -0.0019753
0.032677 0.019023 -0.17847 0.35033 0.030068 -0.014413 0.0016624 -0.0017773
-0.0019015 -0.0028602 -0.0010252 -0.0033788
-0.0017759 0.0069326 0.030064 -0.014553 0.15252 0.29285 -0.000429 -0.0016723
-0.0016403 -0.0010316 -0.00058794 -0.0011839
0.0025791 0.00070577 0.0016561 -0.0017767 -0.00042595 -0.001672 -0.047776 0.2792
0.019233 0.018799 -0.0026828 0.00059509
0.00021493 -0.0034656 -0.0019338 -0.0028445 -0.0016281 -0.0010262 0.019281 0.018801
-0.088995 0.20111 0.014262 0.018038
-0.00025616 -0.0019393 -0.0010179 -0.0034281 -0.00059496 -0.0011729 -0.0026815 0.00062006
0.014231 0.018064 -0.13354 0.26934
1100000000 0.027611 0.30206 0.036262 -0.0031963 0.0027195 0.0042346 0.0024196 -0.00092014
-0.0023255 -0.0031383 -0.0041647 0.00012902
0.036228 -0.0031929 -0.13562 0.36899 0.01615 -0.027903 2.7844e-05 -0.0018351
-0.0038185 -0.0010292 -0.0037245 -0.00041763
0.0027258 0.004232 0.016067 -0.028 0.19853 0.27384 -0.0019848 4.1518e-05
-0.0018807 0.00044383 -0.0012347 -0.00047088
0.0023853 -0.0009509 3.1078e-05 -0.001842 -0.0019861 3.9966e-05 -0.0078542 0.28444
0.024612 0.0056472 -0.0026035 0.0001391
-0.0022961 -0.0030926 -0.0038238 -0.00099073 -0.0018803 0.00044682 0.024675 0.0056203
-0.069074 0.21367 0.019 0.0086043
-0.0041568 0.0001038 -0.0037458 -0.00041198 -0.0012454 -0.00046961 -0.0025885 0.00010412
0.019005 0.0086031 -0.088003 0.30027
1160000000 0.078706 0.29833 0.024647 -0.020376 0.002706 -0.00032321 -3.8718e-05 -0.0024015
-0.0039674 -0.00087746 -0.00086477 0.0041892
0.024643 -0.020373 -0.092525 0.37371 -0.0031341 -0.029653 -0.0016523 -0.0017454
-0.0029924 0.002502 -0.0015156 0.0019949
0.0026962 -0.00034031 -0.0032491 -0.029675 0.24201 0.24393 -0.00086092 0.001778
-0.00074365 0.0020258 -0.00096799 0.00037878
-4.369e-05 -0.0023931 -0.0016306 -0.0017224 -0.00086096 0.0017848 0.031189 0.28218
0.021159 -0.0099453 -0.0033046 0.0051781
-0.0039876 -0.00081983 -0.0029675 0.0025296 -0.00072191 0.0020199 0.021153 -0.0099843
-0.034182 0.22124 0.018714 -0.00028017
-0.00088471 0.0042195 -0.0014936 0.0019751 -0.0010093 0.00038903 -0.0032671 0.0051984
0.018732 -0.00026977 -0.040416 0.30228
1220000000 0.12259 0.28878 0.011186 -0.030136 -0.0016414 -0.00079316 0.00016958 -0.00095846
-0.0027594 0.0021202 0.0010158 0.0022433
0.011205 -0.030106 -0.04861 0.38718 -0.016952 -0.022149 -0.0026785 0.00047369
-8.6875e-05 0.003293 -0.00089827 0.0020218
-0.0016399 -0.00078993 -0.017065 -0.022103 0.28116 0.2056 0.00066017 0.0019187
0.00058688 0.0013166 0.00028914 0.00063409
0.00015143 -0.0009624 -0.0026797 0.00049677 0.00065707 0.0019071 0.071282 0.27401
0.011012 -0.01702 0.0020518 0.0014
-0.0027216 0.0021327 -6.3364e-05 0.0032937 0.00059263 0.001322 0.01103 -0.017069
-0.010813 0.23017 0.014058 -0.013164
0.0010238 0.002178 -0.0008527 0.0020272 0.00027663 0.00063504 0.002038 0.0013801
0.014039 -0.013163 -0.0094714 0.31742
1280000000 0.17306 0.26879 -0.007597 -0.028821 -0.0020122 0.0026492 -0.00077082 -0.0022214
-0.00087499 0.0032229 0.0026451 0.0013385
-0.0075776 -0.028798 -0.0025424 0.37938 -0.024368 -0.0091302 -0.0010498 0.0014853
0.001805 0.0019055 0.00057107 0.002018
-0.0020142 0.0026622 -0.024446 -0.0090294 0.31205 0.16244 0.0017015 0.00014969
0.0012476 0.00035573 0.0003442 0.0003543
-0.00078092 -0.0021969 -0.0010423 0.0014976 0.0017001 0.00015497 0.10835 0.25837
0.0013527 -0.019435 -4.1679e-06 0.00029737
-0.00084929 0.0032152 0.0018203 0.0019302 0.0012497 0.00035486 0.0013084 -0.01946
0.025537 0.23366 0.0030743 -0.015357
0.0026535 0.0013031 0.00063153 0.0020171 0.00035917 0.00034052 -2.8942e-05 0.00031074
0.0030829 -0.015342 0.037707 0.3199
1340000000 0.21054 0.23609 -0.017521 -0.019277 0.00081324 0.0049209 -0.0018605 -0.00088215
0.0013726 0.0027883 0.0019572 -0.0013589
-0.017482 -0.019277 0.037222 0.37221 -0.022291 0.0040621 -0.00012059 0.0021054
0.0021229 0.00085288 0.001266 0.00080438
0.00083582 0.0049043 -0.022292 0.0041759 0.33457 0.11534 0.0011882 -0.00091812
0.00062085 -0.00057488 6.2572e-05 0.00013966
-0.0018732 -0.00088445 -0.00011253 0.0020952 0.0011756 -0.00091871 0.14186 0.23787
-0.0081543 -0.016876 0.00074717 0.00064647
0.0013864 0.0027948 0.0021074 0.00083381 0.00061956 -0.00058285 -0.0081854 -0.016887
0.055302 0.22916 -0.0040312 -0.014149
0.0019661 -0.0013689 0.0012658 0.00077 3.9883e-05 0.00013308 0.00074185 0.00062151
-0.0040331 -0.014162 0.075424 0.31508
1400000000 0.24478 0.19927 -0.023493 -0.0076755 0.0055678 0.0035217 -0.0022889 0.00061881
0.0024859 0.0009883 0.00029866 -0.0016997
-0.023464 -0.0076957 0.07505 0.36017 -0.01555 0.012729 0.0014474 0.0013346
0.0013817 -0.00087161 0.0012296 0.00016292
0.0055875 0.0034971 -0.015508 0.012828 0.3479 0.062499 0.0001529 -0.0017124
9.4025e-05 -0.00047878 0.00027866 0.00024451
-0.00228 0.0006426 0.0014647 0.0013255 0.000156 -0.0016996 0.17166 0.20899
-0.014443 -0.01007 -0.00085083 -8.8229e-05
0.002502 0.00096798 0.0013801 -0.00085929 0.00010838 -0.00047484 -0.014523 -0.010054
0.088245 0.22514 -0.010337 -0.0088305
0.00031205 -0.0016614 0.0012668 0.0001452 0.00026574 0.00023618 -0.00085395 -7.1672e-05
-0.010329 -0.0088206 0.11961 0.30415
1460000000 0.26851 0.15585 -0.020513 0.0046994 0.0060644 -0.0017636 -0.0015921 0.0018092
0.0021955 -0.00042051 -0.00029807 -0.0011501
-0.020493 0.0046835 0.1101 0.33873 -0.0063012 0.016068 0.0017753 0.00013584
0.00090955 -0.0014504 0.0013007 -0.00054577
0.006051 -0.0017852 -0.006227 0.016102 0.35492 0.0087895 -0.0012223 -0.0014064
0.0001926 -0.00017441 0.00076914 -0.00022588
-0.0015629 0.001814 0.0017885 0.00012387 -0.0012146 -0.001412 0.19875 0.1796
-0.015882 -0.0034724 -0.00085906 0.0021101
0.0021949 -0.00041444 0.00089847 -0.0014662 0.0001899 -0.00018653 -0.015908 -0.0034312
0.11814 0.21138 -0.012174 -0.0030091
-0.0002719 -0.0010913 0.0012882 -0.00057282 0.0007583 -0.00023059 -0.00083404 0.0021128
-0.012215 -0.0030195 0.15311 0.28351
1520000000 0.2817 0.11433 -0.014842 0.010222 0.0036036 -0.0045474 0.00016084 0.0026353
0.0021173 -0.0019364 -0.0013037 -0.00012047
-0.014853 0.010197 0.14412 0.32441 0.0017226 0.013667 0.0016486 -0.00085711
-1.0466e-05 -0.0011661 0.00033415 -0.0010889
0.0035907 -0.0045875 0.0018098 0.013667 0.34878 -0.047181 -0.0011132 -0.00046172
0.00073348 -0.00090105 8.9935e-05 -0.00018696
0.00016614 0.0026285 0.0016377 -0.00085951 -0.0011129 -0.00045335 0.22215 0.14091
-0.015293 0.0025442 0.0016652 0.0021293
0.0021363 -0.0019614 -6.7675e-06 -0.0011534 0.00073279 -0.00088739 -0.015336 0.0025928
0.14633 0.19834 -0.012001 0.0017966
-0.001296 -0.00014039 0.00033053 -0.0010886 0.00013287 -0.00020485 0.0016618 0.002133
-0.011982 0.0017859 0.18601 0.2633
1580000000 0.29222 0.068399 -0.0080819 0.013491 -0.0010089 -0.0053002 0.0015061 0.0019499
-0.00015146 -0.0022404 -0.00034817 0.00032541
-0.0080913 0.013473 0.17191 0.29985 0.0056154 0.0085202 0.00046961 -0.0016148
-0.00056927 -0.0010297 -0.00016921 -0.00093315
-0.0010475 -0.0052973 0.0056728 0.0084991 0.32949 -0.10492 -0.0017251 0.00062616
-0.00034928 -0.0012983 0.00014479 -0.00060766
0.001513 0.0019529 0.00046496 -0.0016199 -0.0017253 0.00062141 0.23612 0.10134
-0.011903 0.0076282 0.0023111 0.00083544
-0.00017224 -0.0022289 -0.00057552 -0.001029 -0.00033243 -0.001295 -0.011914 0.0076814
0.17098 0.18094 -0.0095767 0.0075154
-0.0003371 0.00035263 -0.00016583 -0.00093111 0.00012921 -0.00061577 0.0023023 0.00082556
-0.0095985 0.0075247 0.21778 0.2373
1640000000 0.29489 0.026775 -0.0013577 0.01226 -0.0030739 -0.0027659 0.0027208 0.0010443
-0.00081924 -0.0016355 -0.0003504 0.00069562
-0.0013605 0.01224 0.20196 0.27504 0.0063461 0.0034266 -0.00065605 -0.0017712
-0.0010517 -0.00043096 -0.00061915 -0.00072692
-0.0031026 -0.0027585 0.0063581 0.0034002 0.30144 -0.15454 -0.0006755 0.0015486
-0.0011099 -0.00096711 -0.00025407 -0.0004769
0.0027546 0.0010342 -0.00067886 -0.0017648 -0.00066958 0.0015564 0.24857 0.052058
-0.0075982 0.0093182 0.0025663 -0.00080872
-0.00083395 -0.001654 -0.0010446 -0.00041806 -0.0011058 -0.00098486 -0.0075888 0.0093796
0.19465 0.15737 -0.0045962 0.0096319
-0.00037638 0.00076677 -0.00064111 -0.00072517 -0.00028796 -0.00047235 0.0025872 -0.00081648
-0.0045835 0.0096559 0.24342 0.20602
1700000000 0.28811 -0.018855 0.0020904 0.0094145 -0.0037505 2.4408e-05 0.0032241 -0.0012368
-0.0020823 -0.00063647 0.00058529 0.00052843
0.002081 0.0094101 0.22043 0.2436 0.0041939 0.000346 -0.0015097 -0.00057297
-0.00083943 1.1952e-05 -0.00099164 -0.00048882
-0.0037712 5.2771e-05 0.0042032 0.00030614 0.25821 -0.19397 0.00047172 0.0016635
-0.0020857 -7.111e-05 -0.00054776 -0.00090638
0.0031986 -0.0012504 -0.001507 -0.00056498 0.00047135 0.0016527 0.24507 0.0017239
-0.0044692 0.0098518 0.0016689 -0.0022317
-0.002086 -0.00066657 -0.00082602 2.0706e-05 -0.002064 -4.3052e-05 -0.0044324 0.0098894
0.21262 0.13709 -2.2652e-05 0.0099884
0.00054337 0.00049593 -0.0010074 -0.00049676 -0.00054521 -0.00090487 0.0016612 -0.0022556
-1.8389e-05 0.0099972 0.26011 0.1724
1760000000 0.27658 -0.067501 0.004441 0.006099 -0.0025125 0.00099678 0.0013471 -0.0034587
-0.0014287 0.00072391 0.00040539 -0.00052618
0.0044345 0.0060934 0.24687 0.20384 0.0017591 -0.0017147 -0.0012257 0.00022224
-0.0011351 0.0009831 -0.00063938 0.00045053
-0.0025053 0.00099957 0.0017526 -0.001726 0.21059 -0.22756 0.0010983 0.0010437
-0.0013433 0.0015971 -0.0012915 -0.00068932
0.0013552 -0.0034542 -0.0012357 0.00022245 0.0010894 0.0010497 0.23592 -0.049835
-0.00089654 0.0090024 -0.00013755 -0.0026476
-0.0014117 0.00073485 -0.0011305 0.00099655 -0.0013363 0.0016042 -0.00086719 0.0090235
0.22822 0.10275 0.0040372 0.0072823
0.00040245 -0.00055948 -0.00061011 0.00044112 -0.0012524 -0.00067334 -0.00012812 -0.002649
0.0040621 0.0072952 0.27303 0.13487
1820000000 0.25223 -0.10513 0.0045611 0.0025092 -0.00019021 0.0025836 -0.0010179 -0.0031595
-0.001171 0.0010041 -2.4309e-05 -0.0001532
0.0045586 0.0025268 0.25729 0.17361 -0.00075516 -0.00047892 -0.001336 0.00092324
-7.7988e-05 0.0012759 -0.00056666 0.00060136
-0.00016687 0.0026052 -0.00074256 -0.00046877 0.15921 -0.24392 0.0016424 0.0003226
-0.00011736 0.0024624 -0.0014017 0.00044414
-0.001014 -0.0031654 -0.0013109 0.00091474 0.0016411 0.00031361 0.20553 -0.097134
0.00074101 0.0074827 -0.0017281 -0.0015618
-0.0011804 0.0010302 -8.129e-05 0.0012774 -9.8937e-05 0.0024647 0.00079446 0.0074925
0.24598 0.073588 0.0050501 0.0037038
3.7064e-05 -0.00012709 -0.00056904 0.00061968 -0.0013943 0.00043617 -0.0017071 -0.0015467
0.005029 0.0037068 0.27547 0.098435
1880000000 0.21697 -0.1456 0.0021831 0.00011099 -0.00073082 0.0022859 -0.0029155 -0.0023772
-0.00018806 0.0018099 0.00010142 -0.00052568
0.0021721 0.00011183 0.26188 0.12696 -0.0027467 0.0015174 -0.00018675 0.0016971
0.00060808 0.001378 0.00010272 0.00099597
-0.00070268 0.0023035 -0.0027443 0.0015377 0.10721 -0.25287 0.0018574 -0.00097003
0.001635 0.0020099 -0.00094942 0.001462
-0.0029481 -0.0023401 -0.00019838 0.0016972 0.001855 -0.00096316 0.16454 -0.13715
0.0016779 0.005112 -0.0023939 6.0039e-05
-0.00016796 0.0018222 0.00060981 0.0013728 0.0016207 0.0019938 0.0017255 0.0050879
0.25032 0.041955 0.0053796 0.0013239
7.4388e-05 -0.00050352 0.00010126 0.00097431 -0.00094714 0.0014715 -0.0024201 3.3933e-05
0.0053998 0.0013145 0.27572 0.06478
1940000000 0.17757 -0.17131 -0.00030564 -0.0014388 0.0014635 0.0021016 -0.0038485 0.00043277
0.0013687 0.0011175 -0.0005507 -0.0004883
-0.0002979 -0.0014483 0.26272 0.094976 -0.0014144 0.0040916 0.00097133 0.0013038
0.0019329 0.00058599 0.0010733 0.00045714
0.001472 0.0020664 -0.001397 0.0041017 0.062324 -0.24559 0.00046921 -0.0023581
0.0024799 0.0003387 0.00052665 0.0016857
-0.0038239 0.00045794 0.0010202 0.0012961 0.00049664 -0.0023695 0.1123 -0.16747
0.00083397 0.0038175 -0.0015803 0.0014788
0.00134 0.001094 0.0019268 0.00054814 0.0024912 0.00033232 0.00085863 0.0037842
0.25357 0.0034833 0.0039799 -0.0020928
-0.00066393 -0.00046796 0.0010222 0.00040264 0.00053235 0.0016478 -0.0016098 0.0015061
0.003976 -0.002121 0.26553 0.028589
2000000000 0.13153 -0.18589 -0.0041466 0.00083886 0.0026258 0.001781 -0.0022688 0.0036916
0.0013092 0.00035732 -0.00044297 0.00052199
-0.0041244 0.00082672 0.2484 0.059348 -0.0010931 0.0060437 0.0016679 0.00042839
0.0014589 -0.0012213 0.00050316 8.6887e-05
0.0026631 0.001745 -0.0010748 0.0060696 0.01896 -0.23189 -0.0012762 -0.001407
0.0020034 -0.0012912 0.0015722 0.001267
-0.0022608 0.0037098 0.0016485 0.00044681 -0.001298 -0.0014181 0.058672 -0.17718
-0.00067932 0.0035299 -5.6336e-05 0.0024642
0.0014082 0.00036747 0.0014586 -0.0012072 0.0020255 -0.0013077 -0.00063811 0.0034875
0.24868 -0.030027 0.00062116 -0.0031086
