!Keysight Technologies,M9804A,MY58100912,A.14.10.03
!Date: Thursday, April 27, 2023 10:28:33
!Correction: S11(C  6-Port  ) 
!S12(C  6-Port  ) 
!S13(C  6-Port  ) 
!S14(C  6-Port  ) 
!S15(C  6-Port  ) 
!S16(C  6-Port  ) 
!S21(C  6-Port  ) 
!S22(C  6-Port  ) 
!S23(C  6-Port  ) 
!S24(C  6-Port  ) 
!S25(C  6-Port  ) 
!S26(C  6-Port  ) 
!S31(C  6-Port  ) 
!S32(C  6-Port  ) 
!S33(C  6-Port  ) 
!S34(C  6-Port  ) 
!S35(C  6-Port  ) 
!S36(C  6-Port  ) 
!S41(C  6-Port  ) 
!S42(C  6-Port  ) 
!S43(C  6-Port  ) 
!S44(C  6-Port  ) 
!S45(C  6-Port  ) 
!S46(C  6-Port  ) 
!S51(C  6-Port  ) 
!S52(C  6-Port  ) 
!S53(C  6-Port  ) 
!S54(C  6-Port  ) 
!S55(C  6-Port  ) 
!S56(C  6-Port  ) 
!S61(C  6-Port  ) 
!S62(C  6-Port  ) 
!S63(C  6-Port  ) 
!S64(C  6-Port  ) 
!S65(C  6-Port  ) 
!S66(C  6-Port  ) 
!S6P File: Measurement: :
# Hz S  RI   R 50
500000000 -0.33434 -0.057544 -0.010807 -0.00096549 -0.0087829 0.013645 -0.0035622 0.012189
0.012239 0.0063537 -0.0036397 0.0092286
-0.010782 -0.00090178 -0.41605 -0.066318 0.0080321 -0.010649 0.0014235 0.011618
0.0078608 0.0040785 0.0015871 0.013724
-0.0087243 0.013676 0.0080052 -0.010663 -0.2679 0.19721 0.0067613 0.0038792
-0.0014551 0.0081569 0.0002506 0.012787
-0.0035612 0.012143 0.0014606 0.011634 0.0067697 0.0038778 -0.33173 0.041204
-0.018807 -0.0038732 0.016147 0.02396
0.012331 0.0063348 0.0078508 0.0040913 -0.0014758 0.0081565 -0.018765 -0.0038992
-0.24456 -0.20247 -0.026843 0.006354
-0.0035965 0.0091518 0.0016156 0.013744 0.00021758 0.012755 0.016161 0.023932
-0.026823 0.0063634 -0.26954 -0.13078
560000000 -0.31965 0.11 -0.022507 -0.065469 2.6298e-05 0.013339 0.0060922 0.01126
0.011181 0.0045491 0.0097872 0.0073056
-0.022529 -0.065456 -0.37436 0.096394 -0.042164 -0.037824 0.014373 0.0036876
-0.013545 -0.0038519 0.0053352 -0.0021354
0.0001243 0.013305 -0.042333 -0.037804 -0.18624 0.24863 -0.00074848 -0.0043742
0.018548 0.0053913 0.0073659 -0.0056833
0.0061512 0.011253 0.01443 0.0036508 -0.00074219 -0.0043806 -0.30684 0.13392
0.0044304 -0.023741 0.0058182 -0.021784
0.011134 0.004569 -0.013675 -0.0038499 0.01856 0.0053607 0.0044056 -0.023774
-0.30896 -0.021533 0.0091705 -0.04933
0.0097056 0.0073243 0.0055851 -0.0020475 0.0073636 -0.0057161 0.0058427 -0.021782
0.0091744 -0.049349 -0.3301 0.017303
620000000 -0.27887 0.089631 -0.022779 0.008903 0.0042877 0.010014 0.0079468 -0.0030887
0.012686 -0.0012689 0.00080435 -0.0013012
-0.022775 0.0088798 -0.40357 0.045894 -0.018218 0.00094122 -0.0014945 -0.0018617
0.012371 -0.006096 0.0010338 -0.0031465
0.0043412 0.010018 -0.018241 0.00097674 -0.1555 0.25857 -0.00088706 -0.0053315
-0.0034571 -0.0027436 0.010134 -0.0032378
0.0080011 -0.0030552 -0.0014847 -0.0018536 -0.00091647 -0.0053577 -0.26572 0.1448
-0.038606 -0.019766 0.013197 0.027403
0.012757 -0.0014285 0.012326 -0.0061487 -0.0034607 -0.0026736 -0.038556 -0.019738
-0.22966 -0.055042 -0.040872 0.012723
0.00072916 -0.0012943 0.0010411 -0.0031259 0.010199 -0.003223 0.013186 0.027431
-0.040861 0.012679 -0.24929 -0.014327
680000000 -0.24028 0.18177 -0.0264 -0.014852 0.0052341 0.0051072 0.0010029 -0.0078279
-0.0020634 -0.011382 0.0043263 -0.0074833
-0.026356 -0.014858 -0.39076 0.14749 -0.032379 -0.0023232 -0.0020847 -0.00066548
-0.0016321 -0.0089855 -0.0011229 -0.0019951
0.0052102 0.0051071 -0.032416 -0.0022315 -0.1047 0.27958 -0.0013417 -0.00034962
-0.0015758 0.0003921 -0.0026907 -0.0095651
0.00092502 -0.0077448 -0.0020941 -0.00064945 -0.0013093 -0.00035281 -0.2205 0.19651
-0.022819 -0.0074893 -0.0087196 -0.011924
-0.0020378 -0.011317 -0.0016525 -0.009009 -0.001544 0.00039494 -0.022825 -0.0074257
-0.28013 0.047751 -0.0056638 -0.0073034
0.0043699 -0.0075093 -0.0011469 -0.0019924 -0.0026763 -0.009589 -0.0086743 -0.011866
-0.0056523 -0.0073191 -0.26024 0.089078
740000000 -0.19408 0.1747 -0.040468 0.026825 0.014139 -0.0047316 -0.0004085 -0.0038028
-0.0046544 -0.0027566 -0.0063255 0.0025923
-0.040401 0.026801 -0.33604 0.16565 -0.037255 0.034919 0.00027511 -0.0060919
-0.012752 0.007729 -0.00053949 -0.0060074
0.0141 -0.0047492 -0.037195 0.035058 -0.070742 0.27661 -0.0017208 0.0035816
-0.0029597 -0.0056245 -0.0014827 0.0013114
-0.0004086 -0.0038098 0.00023986 -0.0060921 -0.0017353 0.0035959 -0.20401 0.20323
-0.042186 -0.007398 0.022813 0.015444
-0.0048287 -0.0027121 -0.012715 0.0078306 -0.0029811 -0.0056231 -0.042239 -0.0073495
-0.18196 0.075154 -0.041594 0.0016093
-0.0063775 0.00269 -0.00058916 -0.0059003 -0.0014412 0.0013119 0.0228 0.015421
-0.041622 0.0015713 -0.24922 0.096358
800000000 -0.16345 0.21938 -0.022767 0.016118 0.0057279 -0.010471 -0.0049106 -0.0025161
-0.0046891 0.0022392 0.0036525 -0.00018464
-0.022774 0.016107 -0.34281 0.23722 -0.0089298 0.034261 -0.0023749 0.0019836
-0.001581 0.0028858 0.00056993 0.0051782
0.0057296 -0.010493 -0.0088336 0.034334 -0.032603 0.30129 0.00069814 0.0013411
-0.0002986 0.0036765 -0.0023368 0.00078169
-0.0049189 -0.0024831 -0.0023903 0.0019921 0.00069529 0.0013398 -0.17465 0.23069
-0.02875 0.013278 0.013806 -0.011015
-0.0047025 0.0022785 -0.0016085 0.0028848 -0.00028958 0.0036715 -0.028747 0.013341
-0.22395 0.10296 -0.017927 0.020455
0.0036726 -9.9695e-05 0.00057393 0.0051904 -0.0022988 0.00075592 0.013818 -0.011027
-0.017935 0.020446 -0.24418 0.14406
860000000 -0.12883 0.23961 -0.01821 0.030498 -0.00291 -0.010483 -0.0020211 0.00071524
0.0038646 0.0053777 -0.0031976 -0.0030017
-0.018212 0.030465 -0.29418 0.28052 0.0072153 0.034819 0.00020304 0.0020465
0.003456 0.00072743 0.0031147 0.00053794
-0.0029614 -0.010476 0.0073168 0.034848 0.015366 0.30998 -0.00065963 1.7423e-05
0.0024258 -0.0015404 0.0019504 0.0045624
-0.0020169 0.00069199 0.00019701 0.0020591 -0.00065986 1.8842e-05 -0.13816 0.24198
-0.018505 0.018485 -0.0064392 -0.0087076
0.0039079 0.0053272 0.0034994 0.0007126 0.0024373 -0.001525 -0.018487 0.018518
-0.16808 0.15561 -0.024013 0.017771
-0.0032949 -0.0029648 0.003134 0.00057343 0.0019381 0.0046153 -0.0064464 -0.0087005
-0.024048 0.017768 -0.19125 0.19146
920000000 -0.10507 0.26251 0.0044172 0.03852 -0.0093038 -0.0051604 -0.002137 0.0017491
0.00068294 0.002056 0.0025996 -0.0011238
0.0043906 0.038495 -0.2671 0.30196 0.028286 0.023205 0.0014888 0.0013676
0.0077078 0.00010943 0.004467 -0.002655
-0.0093235 -0.0051454 0.028386 0.023155 0.060653 0.31142 0.0018748 0.00014755
0.0010394 3.2793e-05 0.0010565 -0.0012065
-0.0021329 0.0017687 0.0014977 0.0013854 0.0018702 0.00014067 -0.11388 0.25859
-0.011228 0.031441 0.003692 -0.006996
0.0007502 0.0020596 0.007719 6.6205e-05 0.0010375 4.4327e-05 -0.011169 0.031472
-0.15693 0.1609 -0.0010338 0.027322
0.0026053 -0.0011173 0.004473 -0.0026604 0.0010558 -0.0012038 0.0036929 -0.0069841
-0.0010313 0.027317 -0.19975 0.20353
980000000 -0.058748 0.28327 0.016908 0.030373 -0.0095963 0.0042215 0.0018392 0.0035132
0.0039928 -0.0013876 -0.0028949 -0.0025962
0.016874 0.030375 -0.21415 0.33718 0.033723 0.0057005 0.0020694 -0.00013462
0.0019272 -0.0062263 -0.00029409 -0.0028623
-0.0095869 0.0042459 0.033761 0.0055941 0.10654 0.30622 0.00075172 -0.0012024
0.00046723 -0.0019587 0.0015099 -0.00024441
0.0018646 0.0034945 0.0020459 -0.00014974 0.00076037 -0.0012215 -0.075426 0.27008
0.0072362 0.030338 -0.0093929 -0.0074138
0.0039827 -0.0014064 0.0018833 -0.0062487 0.00044987 -0.0019574 0.0072838 0.030324
-0.12338 0.19268 0.0052136 0.019096
-0.0029605 -0.0026269 -0.00033214 -0.0028178 0.0014906 -0.00025843 -0.0093996 -0.0074311
0.0051826 0.019094 -0.1578 0.24925
1040000000 -0.017514 0.29241 0.033179 0.01954 -0.0015533 0.0071562 0.0025927 0.00071363
0.00020896 -0.0035864 -0.00036358 -0.0015011
0.033181 0.019538 -0.17919 0.35069 0.030508 -0.014654 0.001619 -0.0017598
-0.0022519 -0.0025675 -0.001217 -0.0028982
-0.0015165 0.0071377 0.030478 -0.014772 0.15269 0.2932 -0.0004065 -0.0016775
-0.0016846 -0.0010865 -0.00055416 -0.0011028
0.0025954 0.00072574 0.0016005 -0.0017574 -0.00040406 -0.0016701 -0.047903 0.27991
0.019458 0.018991 -0.0026816 0.0010718
0.00020482 -0.0035504 -0.0023297 -0.0025739 -0.0016712 -0.001075 0.019512 0.018992
-0.090437 0.19974 0.013972 0.018286
-0.00034945 -0.0015134 -0.0012286 -0.0028955 -0.00057311 -0.0010999 -0.0026867 0.0010725
0.013959 0.018298 -0.13515 0.26982
1100000000 0.027317 0.30221 0.036883 -0.0032134 0.0028404 0.0042234 0.0024823 -0.00099084
-0.0021926 -0.0027381 -0.0040322 -0.00023575
0.036863 -0.0031845 -0.13616 0.36939 0.016237 -0.028309 8.7902e-05 -0.0018209
-0.0036563 -0.00078376 -0.0035073 -0.00056442
0.00286 0.004204 0.016148 -0.028397 0.1988 0.27413 -0.0020015 9.3505e-05
-0.0018704 0.0004945 -0.0012271 -0.00052414
0.0024778 -0.0010233 7.966e-05 -0.0018299 -0.0020021 8.8742e-05 -0.0079331 0.28526
0.02525 0.005658 -0.002653 0.00015686
-0.0022144 -0.0027568 -0.0036711 -0.00078756 -0.0018798 0.00048376 0.025269 0.0056156
-0.071016 0.21347 0.019538 0.0091607
-0.0040926 -0.00024521 -0.0035023 -0.00054962 -0.0012261 -0.00053872 -0.002656 0.0001518
0.019519 0.0091401 -0.08919 0.29966
1160000000 0.078355 0.29851 0.024857 -0.020631 0.0028902 -0.00043159 -0.00019927 -0.0023916
-0.0040501 -0.0008049 -0.0010594 0.004246
0.024858 -0.020564 -0.092557 0.37445 -0.0032544 -0.02999 -0.0017715 -0.0017335
-0.0029216 0.0025628 -0.0016014 0.0019045
0.0029052 -0.00044504 -0.003395 -0.030006 0.24253 0.24401 -0.00087471 0.0017873
-0.0006203 0.0020169 -0.0010016 0.00051942
-0.00020372 -0.0023783 -0.0017795 -0.0017245 -0.00087915 0.0017799 0.031913 0.28297
0.021667 -0.010336 -0.0032325 0.0052355
-0.0040596 -0.00074421 -0.0029318 0.002563 -0.0006172 0.0020374 0.021665 -0.01036
-0.036291 0.2216 0.019451 -0.00044928
-0.0010111 0.0042217 -0.0015877 0.0019176 -0.00099385 0.00052087 -0.0032282 0.0052574
0.019434 -0.00045124 -0.042612 0.30191
1220000000 0.12242 0.28913 0.011481 -0.030562 -0.001583 -0.0010856 2.304e-05 -0.00080049
-0.0028083 0.0022215 0.0010216 0.0021314
0.011487 -0.030525 -0.04832 0.38773 -0.017251 -0.022323 -0.002664 0.00053749
-5.728e-05 0.0032212 -0.00092294 0.0020184
-0.0015843 -0.0010809 -0.017367 -0.022277 0.28162 0.20526 0.00072674 0.0017985
0.00058348 0.0012863 0.00025412 0.00072874
2.7318e-05 -0.00081656 -0.0026818 0.00054559 0.0007323 0.00179 0.072076 0.27431
0.011296 -0.017459 0.0021913 0.0015373
-0.0028221 0.0022408 -4.8335e-05 0.0032166 0.00058068 0.0012818 0.011277 -0.017475
-0.012648 0.2307 0.014276 -0.013158
0.0010191 0.0021101 -0.00090626 0.0020259 0.00026181 0.00072698 0.0021892 0.001539
0.014267 -0.013162 -0.010761 0.31777
1280000000 0.17299 0.2692 -0.0077038 -0.029255 -0.00208 0.0024709 -0.00085813 -0.0020248
-0.00075204 0.0031821 0.0025214 0.0014063
-0.0076691 -0.029233 -0.0017535 0.37985 -0.024677 -0.0090812 -0.0010558 0.0015131
0.0018153 0.001727 0.00061663 0.0020973
-0.0020726 0.0024745 -0.024746 -0.0089768 0.31228 0.16203 0.0016252 7.2089e-05
0.0013543 0.00033321 0.00039983 0.00028964
-0.00087318 -0.002018 -0.0010435 0.0015206 0.0016207 6.8225e-05 0.10932 0.2582
0.001033 -0.019956 -9.3989e-05 0.0002994
-0.00073089 0.0031945 0.0018232 0.0017293 0.0013513 0.00033183 0.00099613 -0.019962
0.024106 0.23436 0.0030448 -0.015646
0.0025363 0.0014049 0.00062426 0.0020856 0.00040432 0.00030463 -8.91e-05 0.00029552
0.0030553 -0.015639 0.036397 0.32026
1340000000 0.21086 0.23607 -0.017849 -0.019657 0.00071283 0.0048189 -0.0017864 -0.00084347
0.0013812 0.0027955 0.0018585 -0.0013928
-0.017807 -0.019656 0.038029 0.37206 -0.022347 0.0042651 -0.000101 0.0020259
0.0020588 0.00080947 0.0012254 0.00081705
0.00073451 0.0048198 -0.022346 0.0043842 0.33448 0.1146 0.0010986 -0.00093071
0.00066004 -0.00061196 5.0253e-05 0.00025317
-0.0017822 -0.00084074 -8.7342e-05 0.0020335 0.0011027 -0.00092141 0.14253 0.23708
-0.0087318 -0.017256 0.00084399 0.00060957
0.0013839 0.0027677 0.0020646 0.00079371 0.0006637 -0.00061108 -0.0087597 -0.017234
0.05478 0.22981 -0.004057 -0.014376
0.0018492 -0.0014073 0.001229 0.00081571 5.8134e-05 0.00025701 0.00084224 0.00060587
-0.0040365 -0.014358 0.074364 0.31502
1400000000 0.24497 0.1991 -0.023897 -0.0077425 0.0054611 0.0035366 -0.0022945 0.0006211
0.0025399 0.00098902 0.00033304 -0.0016733
-0.023869 -0.007743 0.075593 0.35962 -0.015511 0.012886 0.0013387 0.001288
0.0013093 -0.00084712 0.001206 0.00019546
0.0054741 0.0035148 -0.015475 0.012984 0.34761 0.061969 5.3263e-05 -0.0016734
0.0001526 -0.00044034 0.00034883 0.00026267
-0.0022977 0.00062691 0.0013493 0.0012836 6.0978e-05 -0.0016799 0.17201 0.20815
-0.015133 -0.010052 -0.00088156 -0.00011007
0.002544 0.00098743 0.0013096 -0.0008631 0.00015439 -0.00043227 -0.015155 -0.010027
0.088127 0.22567 -0.010637 -0.0090072
0.00033083 -0.0016673 0.0012089 0.00018199 0.00034017 0.0002567 -0.00088022 -9.8888e-05
-0.01062 -0.0090086 0.11876 0.30448
1460000000 0.26875 0.15536 -0.020817 0.004907 0.006026 -0.0017511 -0.0015754 0.0017621
0.0022858 -0.00038956 -0.00026758 -0.0011682
-0.020803 0.0048882 0.1104 0.33794 -0.006176 0.016121 0.0016929 0.00015994
0.00090574 -0.0013611 0.0012579 -0.00057232
0.0060182 -0.0017653 -0.0061036 0.016163 0.35453 0.0084591 -0.0012167 -0.0013857
0.00014208 -0.00020483 0.00073106 -0.00023083
-0.0015681 0.0017762 0.0016945 0.00015526 -0.0012216 -0.0013899 0.19865 0.17873
-0.01623 -0.0030247 -0.00084533 0.0020334
0.0022724 -0.00040964 0.00090827 -0.0013642 0.00013978 -0.00021566 -0.016253 -0.002992
0.1183 0.21161 -0.012519 -0.0030581
-0.00026087 -0.0011844 0.0012533 -0.00057105 0.00072616 -0.0002232 -0.00084399 0.0020411
-0.012513 -0.0030631 0.152 0.28409
1520000000 0.28145 0.11362 -0.015007 0.010512 0.0036901 -0.0044686 8.0852e-05 0.0026041
0.0022543 -0.001942 -0.0012831 -0.00016884
-0.015014 0.010488 0.14394 0.32349 0.0019113 0.013626 0.0016511 -0.00076033
-3.8295e-06 -0.0011009 0.00032108 -0.00105
0.003664 -0.0044913 0.0019815 0.013637 0.34828 -0.047553 -0.0011383 -0.00033764
0.00057968 -0.00090038 7.5952e-05 -0.00016707
8.5746e-05 0.0025979 0.0016518 -0.00076981 -0.0011458 -0.00033482 0.22161 0.1402
-0.015424 0.0031642 0.001644 0.0020604
0.0022466 -0.0019575 -1.098e-05 -0.0011026 0.00058432 -0.00091194 -0.015423 0.003204
0.14624 0.19814 -0.012146 0.0019288
-0.0012922 -0.00015544 0.00030796 -0.0010566 7.4797e-05 -0.00017648 0.0016508 0.0020481
-0.012153 0.0019186 0.18476 0.26366
1580000000 0.29151 0.06784 -0.0080987 0.01386 -0.00095671 -0.0052505 0.0015975 0.0019423
-0.00015542 -0.0022453 -0.00031858 0.00025641
-0.0080848 0.01383 0.1714 0.2992 0.0056988 0.0084512 0.00048223 -0.0015767
-0.00057098 -0.0010693 -0.00016175 -0.00088795
-0.00097428 -0.0052498 0.0057547 0.0084268 0.32907 -0.10485 -0.0016519 0.00060042
-0.00032521 -0.0013116 0.00031314 -0.00071416
0.0016083 0.0019348 0.00047272 -0.0015953 -0.0016601 0.00058932 0.2354 0.10096
-0.011499 0.0082044 0.0023345 0.00068323
-0.00015163 -0.0022489 -0.00057949 -0.0010547 -0.00033812 -0.0013045 -0.011482 0.0082426
0.17093 0.18044 -0.0094873 0.0077934
-0.0003228 0.00025752 -0.00018601 -0.00087505 0.00030315 -0.00071045 0.0023326 0.00067847
-0.0094807 0.0077829 0.217 0.23783
1640000000 0.2941 0.026539 -0.0011351 0.012442 -0.0030042 -0.0028392 0.0026591 0.00099489
-0.00083354 -0.0017243 -0.00032427 0.00068142
-0.0011447 0.012436 0.2013 0.27451 0.006363 0.0033338 -0.00059393 -0.0017889
-0.00097503 -0.00039599 -0.00055436 -0.00075152
-0.0030301 -0.0028251 0.0063843 0.0032991 0.30104 -0.15425 -0.00063639 0.0015105
-0.0010526 -0.0010285 -0.00024849 -0.00045897
0.0026657 0.00097992 -0.0006003 -0.0017836 -0.00063698 0.0015095 0.24769 0.051906
-0.0069552 0.0093557 0.0024177 -0.00094493
-0.00083918 -0.0017264 -0.00098866 -0.00039136 -0.0010514 -0.0010285 -0.0069378 0.0093787
0.1943 0.15633 -0.0044573 0.009855
-0.00032114 0.00068679 -0.00056518 -0.00075039 -0.0002472 -0.00046091 0.002433 -0.00094676
-0.0044537 0.0098522 0.24263 0.20666
1700000000 0.28715 -0.01854 0.0022782 0.0094707 -0.0038994 -5.3478e-05 0.0032237 -0.0012358
-0.0020512 -0.00065555 0.0005288 0.0004897
0.0022651 0.0094582 0.21938 0.24344 0.004129 0.00016935 -0.0014599 -0.00060975
-0.00077526 -4.2717e-05 -0.00098263 -0.00046334
-0.0038954 -2.1441e-05 0.0041375 0.00014278 0.25792 -0.19408 0.00040635 0.001725
-0.0020672 -0.00011842 -0.00049587 -0.0009451
0.0032216 -0.0012543 -0.0014636 -0.00060534 0.0004042 0.0017145 0.2441 0.0021797
-0.0038679 0.0095908 0.0014908 -0.002185
-0.0020523 -0.00064623 -0.00077774 -3.6333e-05 -0.0020609 -0.00010566 -0.0038554 0.009613
0.2117 0.13641 0.00029861 0.0099909
0.00054766 0.00050906 -0.00098395 -0.0004524 -0.00050022 -0.00094654 0.0014798 -0.0021999
0.00030065 0.0099924 0.25922 0.17277
1760000000 0.27586 -0.066914 0.004598 0.0060305 -0.0024262 0.0010972 0.0013344 -0.0034496
-0.0013773 0.00070658 0.00035632 -0.00056919
0.0045885 0.0060294 0.24601 0.20417 0.0016322 -0.0017479 -0.0012109 0.00017738
-0.0010605 0.00089134 -0.0005547 0.00037536
-0.0024222 0.0011147 0.0016232 -0.0017519 0.21041 -0.22758 0.0011615 0.0011267
-0.0012817 0.0015625 -0.0012536 -0.0006569
0.0013329 -0.0034498 -0.0012239 0.00018001 0.0011495 0.0011196 0.23553 -0.048789
-0.00070245 0.0085435 -0.00018124 -0.0024622
-0.0013718 0.00071197 -0.0010567 0.00089826 -0.0012741 0.0015614 -0.00068613 0.008545
0.22695 0.1021 0.0043781 0.0073564
0.00031951 -0.00059513 -0.0005443 0.0003803 -0.00124 -0.00066492 -0.00015546 -0.0024587
0.00438 0.0073722 0.27257 0.13564
1820000000 0.25186 -0.10435 0.0046273 0.0024385 -0.00010252 0.0025799 -0.0010076 -0.003168
-0.0011318 0.0010334 -0.00016042 -0.00018066
0.0046238 0.0024368 0.2565 0.17418 -0.00078979 -0.00038998 -0.0013826 0.00092168
-0.00012069 0.0012136 -0.00060631 0.00059021
-9.0781e-05 0.0025858 -0.00078802 -0.00038132 0.15916 -0.24384 0.0015788 0.00022484
-0.00017043 0.0024199 -0.0015209 0.00064121
-0.0010258 -0.0031639 -0.001379 0.00094398 0.0015941 0.00022105 0.20561 -0.09612
0.00071352 0.0071513 -0.0016578 -0.001565
-0.0011336 0.0010419 -0.00011353 0.0012167 -0.0001639 0.0024254 0.00073387 0.0071517
0.24421 0.07346 0.0052836 0.0036236
-0.00016406 -0.00016656 -0.00060985 0.00059071 -0.0015451 0.00064486 -0.0016859 -0.001571
0.0052969 0.0036073 0.27515 0.09926
1880000000 0.21707 -0.14457 0.0021908 0.00018942 -0.00067862 0.0023518 -0.0029817 -0.0022915
-0.00022136 0.00177 4.627e-05 -0.00062087
0.002187 0.00018544 0.26138 0.12804 -0.0028864 0.0016055 -0.00019273 0.0016875
0.00051939 0.0012715 0.0001023 0.00094723
-0.0006851 0.0023542 -0.0028755 0.0016212 0.10711 -0.2525 0.0018266 -0.0010698
0.0016452 0.0018565 -0.00078598 0.0014405
-0.0029925 -0.0022819 -0.00017418 0.0017129 0.0018246 -0.0010682 0.16517 -0.13613
0.0013432 0.005016 -0.0022611 0.00027273
-0.00021073 0.0017676 0.00053534 0.0012722 0.0016514 0.0018628 0.0013622 0.0050169
0.24842 0.042515 0.0056267 0.0010399
4.6337e-05 -0.0006289 0.00012712 0.00093018 -0.00077159 0.0014427 -0.002251 0.00030832
0.0056166 0.0010481 0.27545 0.065523
1940000000 0.17841 -0.17067 -0.00019748 -0.0014222 0.0014007 0.0020224 -0.0038263 0.00054503
0.0013587 0.0011179 -0.0007403 -0.00057505
-0.00019288 -0.0014275 0.26283 0.096068 -0.0014484 0.0041798 0.00098467 0.0013499
0.0018409 0.00056404 0.00095683 0.00029552
0.0014257 0.0020123 -0.0014221 0.0042054 0.062217 -0.24577 0.00034079 -0.0022535
0.0023587 0.0003304 0.00048689 0.0016395
-0.0038236 0.00055113 0.0009868 0.0013386 0.00033985 -0.0022481 0.11315 -0.16747
0.00071535 0.003656 -0.0016309 0.0013862
0.0013591 0.0010999 0.0018369 0.00054855 0.0023567 0.00033128 0.00071466 0.0036586
0.25205 0.0045572 0.0041058 -0.0025036
-0.0007574 -0.0005497 0.00095702 0.00030143 0.000487 0.0016478 -0.0016267 0.001362
0.0041101 -0.0025019 0.2653 0.028983
2000000000 0.13225 -0.18579 -0.0039095 0.00083661 0.0028004 0.0017672 -0.0022213 0.0038185
0.0012799 0.00039836 -0.00047954 0.00044687
-0.0038907 0.00082418 0.24886 0.060412 -0.0010033 0.0061186 0.0017211 0.00044006
0.0014369 -0.0010552 0.00058458 0.00016512
0.0028114 0.0017496 -0.00096439 0.0061315 0.01852 -0.23179 -0.0011704 -0.0012963
0.0020556 -0.0010823 0.0017079 0.0014129
-0.0022 0.0038159 0.0017343 0.00044088 -0.0011816 -0.0013013 0.059407 -0.1772
-0.00083526 0.0035791 1.1275e-05 0.0023277
0.0013016 0.00039154 0.0014239 -0.0010684 0.0020544 -0.0010963 -0.00082677 0.0035813
0.24734 -0.028376 0.00069469 -0.003406
