!Keysight Technologies,M9804A,MY58100912,A.14.10.03
!Date: Thursday, April 27, 2023 10:28:33
!Correction: S11(C  6-Port  ) 
!S12(C  6-Port  ) 
!S13(C  6-Port  ) 
!S14(C  6-Port  ) 
!S15(C  6-Port  ) 
!S16(C  6-Port  ) 
!S21(C  6-Port  ) 
!S22(C  6-Port  ) 
!S23(C  6-Port  ) 
!S24(C  6-Port  ) 
!S25(C  6-Port  ) 
!S26(C  6-Port  ) 
!S31(C  6-Port  ) 
!S32(C  6-Port  ) 
!S33(C  6-Port  ) 
!S34(C  6-Port  ) 
!S35(C  6-Port  ) 
!S36(C  6-Port  ) 
!S41(C  6-Port  ) 
!S42(C  6-Port  ) 
!S43(C  6-Port  ) 
!S44(C  6-Port  ) 
!S45(C  6-Port  ) 
!S46(C  6-Port  ) 
!S51(C  6-Port  ) 
!S52(C  6-Port  ) 
!S53(C  6-Port  ) 
!S54(C  6-Port  ) 
!S55(C  6-Port  ) 
!S56(C  6-Port  ) 
!S61(C  6-Port  ) 
!S62(C  6-Port  ) 
!S63(C  6-Port  ) 
!S64(C  6-Port  ) 
!S65(C  6-Port  ) 
!S66(C  6-Port  ) 
!S6P File: Measurement: :
# Hz S  RI   R 50
500000000 -0.33312 -0.055808 -0.010265 -0.0019072 -0.008332 0.012715 -0.0042169 0.011294
0.012564 0.0060172 -0.0040134 0.0072312
-0.010263 -0.0018984 -0.41581 -0.0653 0.0085094 -0.010812 0.0010026 0.011875
0.0079267 0.0028703 0.0012184 0.01353
-0.0083037 0.012723 0.0084809 -0.010829 -0.26696 0.19753 0.0066802 0.0034769
-0.0013877 0.0086418 0.00033156 0.011893
-0.0042303 0.01133 0.0010208 0.011887 0.006698 0.0034799 -0.33131 0.041999
-0.018318 -0.0039355 0.016528 0.02451
0.012614 0.0060288 0.0079314 0.0028736 -0.0013909 0.0086253 -0.018308 -0.0039138
-0.24534 -0.1995 -0.026523 0.0059593
-0.0040324 0.0072574 0.0012731 0.013542 0.0003187 0.011885 0.016582 0.024499
-0.026531 0.0059562 -0.2703 -0.12588
560000000 -0.319 0.11054 -0.023569 -0.06531 0.00052345 0.012765 0.0053231 0.010811
0.011458 0.0039226 0.010134 0.0083148
-0.02355 -0.065223 -0.37559 0.098211 -0.041282 -0.038465 0.01296 0.0032614
-0.01206 -0.0041241 0.0032349 -0.0012546
0.00053736 0.012771 -0.041434 -0.03845 -0.18637 0.25018 -0.00015298 -0.0047901
0.018596 0.006337 0.0080714 -0.0059088
0.0052862 0.010772 0.013087 0.0032329 -0.00015 -0.004773 -0.30556 0.13373
0.0055797 -0.02485 0.005072 -0.021563
0.011488 0.0039776 -0.012071 -0.0040654 0.018574 0.0063227 0.0055204 -0.02484
-0.31055 -0.017293 0.0078713 -0.049392
0.010173 0.0082703 0.0031998 -0.0012392 0.0081036 -0.005899 0.0050098 -0.021578
0.0079576 -0.049348 -0.33126 0.021354
620000000 -0.27803 0.09162 -0.023015 0.0086374 0.0035153 0.0093142 0.0076914 -0.0043583
0.011454 -0.0014427 8.1152e-05 -0.0023984
-0.023009 0.0086255 -0.40302 0.046721 -0.018608 0.00022017 -0.0017117 -0.0016585
0.012224 -0.0068021 0.00039593 -0.0032097
0.0035312 0.0093064 -0.018628 0.00027388 -0.15637 0.25855 -0.00099593 -0.0050528
-0.0035375 -0.0032653 0.0086659 -0.0030202
0.0076822 -0.0043494 -0.0016999 -0.0016475 -0.00099054 -0.0050595 -0.26461 0.14393
-0.03907 -0.018271 0.014153 0.026925
0.01148 -0.0014692 0.012206 -0.0068493 -0.0035274 -0.0032697 -0.039104 -0.018329
-0.22919 -0.05515 -0.042029 0.013175
6.0926e-05 -0.0023854 0.0003737 -0.0031857 0.008652 -0.0030193 0.014138 0.027009
-0.042079 0.013178 -0.24928 -0.010194
680000000 -0.24005 0.18216 -0.026313 -0.014832 0.0048385 0.0054899 0.0011246 -0.0077966
-0.0025092 -0.011753 0.0059092 -0.0078807
-0.026264 -0.014844 -0.38999 0.14826 -0.032759 -0.002206 -0.0019982 -0.00077917
-0.0017972 -0.0093208 -0.00080147 -0.0021912
0.0048378 0.005489 -0.032788 -0.0021336 -0.10477 0.27961 -0.0011098 -0.00039522
-0.0016252 0.00070647 -0.0027191 -0.0092689
0.0010533 -0.0078229 -0.0019548 -0.00078205 -0.001103 -0.00040514 -0.21976 0.19629
-0.024438 -0.0082045 -0.0083689 -0.012102
-0.0025617 -0.01178 -0.0018275 -0.0093279 -0.001629 0.00071845 -0.024456 -0.0081832
-0.27861 0.0503 -0.007067 -0.0076902
0.0058984 -0.0079609 -0.00080439 -0.0021787 -0.002727 -0.0092655 -0.0084513 -0.012132
-0.0070634 -0.0077264 -0.2602 0.091566
740000000 -0.19419 0.17569 -0.040127 0.026525 0.013918 -0.0048636 -5.9477e-05 -0.0043766
-0.0046344 -0.0034686 -0.0060873 0.0031286
-0.040093 0.026482 -0.33575 0.16618 -0.037116 0.034983 -0.00011627 -0.0062981
-0.011377 0.0080757 -0.0016559 -0.0061129
0.0139 -0.004896 -0.037057 0.035132 -0.071286 0.27728 -0.0015939 0.0034728
-0.0032285 -0.0051998 -0.00096571 0.0010518
-6.9006e-05 -0.0044275 -0.00012959 -0.0062907 -0.001594 0.0034508 -0.20305 0.20292
-0.043204 -0.0081506 0.02267 0.015397
-0.0046407 -0.0034184 -0.011408 0.0081112 -0.0032401 -0.0051957 -0.043248 -0.0080847
-0.17852 0.075888 -0.042433 0.00065809
-0.0060407 0.003152 -0.0016987 -0.0061196 -0.00096428 0.0010498 0.022653 0.015383
-0.042379 0.00059344 -0.2488 0.099007
800000000 -0.16291 0.21962 -0.022589 0.016427 0.005918 -0.010628 -0.0042118 -0.0022074
-0.0047661 0.0022626 0.0047423 0.00059081
-0.022576 0.016402 -0.34249 0.23798 -0.0088198 0.034501 -0.0020536 0.0021322
-0.0011438 0.002863 0.0012187 0.0053684
0.0058898 -0.010633 -0.0087339 0.034568 -0.032589 0.30173 0.0010984 0.0013944
5.8252e-07 0.003571 -0.0016561 0.0011278
-0.0042069 -0.0022304 -0.0020625 0.0021239 0.0010983 0.0013972 -0.17473 0.23067
-0.028961 0.013088 0.014182 -0.01015
-0.0047544 0.0022697 -0.0011292 0.002886 -9.5957e-08 0.0035828 -0.028949 0.013152
-0.22371 0.1056 -0.017547 0.019602
0.0047373 0.00055626 0.0012475 0.0053492 -0.0016553 0.001134 0.014196 -0.010181
-0.017539 0.019587 -0.24147 0.14767
860000000 -0.1286 0.24019 -0.018313 0.030564 -0.0028782 -0.010602 -0.0017433 0.00081245
0.0038368 0.0051256 -0.0034182 -0.0030212
-0.018309 0.030541 -0.29405 0.28119 0.0073942 0.034923 0.00011212 0.0021253
0.0033442 0.00066831 0.003276 0.00013402
-0.002911 -0.010597 0.0075227 0.034943 0.015287 0.31058 -0.0006419 -0.00016408
0.0021843 -0.0016387 0.0015912 0.0042777
-0.0017012 0.00082206 0.00013657 0.0021222 -0.00064176 -0.00016061 -0.13832 0.24244
-0.018671 0.018729 -0.0061094 -0.0092266
0.0038322 0.0051167 0.0033497 0.00066217 0.0021954 -0.0016328 -0.018645 0.018784
-0.16752 0.15792 -0.024173 0.016029
-0.0034321 -0.0030134 0.0032843 0.00012503 0.0015982 0.0042689 -0.0061056 -0.0092257
-0.024182 0.016032 -0.19039 0.19295
920000000 -0.10474 0.26346 0.0043958 0.038777 -0.0094268 -0.0050838 -0.0018297 0.0019145
0.0012078 0.0021792 0.0027105 -0.0013421
0.0043827 0.038751 -0.26699 0.3027 0.028427 0.023292 0.0017347 0.0014712
0.007419 -0.00021944 0.0045136 -0.0024683
-0.0094411 -0.005072 0.028523 0.023239 0.06088 0.31212 0.0018771 9.9439e-05
0.0011569 -0.00018284 0.00113 -0.0011739
-0.0018208 0.0018879 0.0017082 0.0014551 0.001885 9.123e-05 -0.11398 0.2595
-0.011364 0.031609 0.0037778 -0.0069526
0.0012245 0.0021687 0.007428 -0.00024601 0.0011544 -0.00018936 -0.01131 0.031626
-0.15656 0.16338 -0.0015626 0.02724
0.0027091 -0.0013596 0.0044977 -0.0024687 0.0011291 -0.0011743 0.0037466 -0.0069262
-0.0015901 0.027233 -0.19836 0.20609
980000000 -0.058175 0.28433 0.017007 0.0307 -0.009616 0.0043067 0.0019654 0.003684
0.0040857 -0.001586 -0.0026881 -0.0023872
0.01697 0.030705 -0.21379 0.33796 0.033953 0.0055685 0.0021685 -0.00026021
0.0017348 -0.0061137 3.4201e-06 -0.0025434
-0.0096068 0.0043295 0.03401 0.0054815 0.10693 0.30674 0.00082336 -0.0011302
0.00055048 -0.0019151 0.0018419 -0.00023927
0.0019838 0.0036729 0.0021649 -0.00030208 0.00081837 -0.0011293 -0.07574 0.27077
0.0076878 0.030471 -0.0092088 -0.007525
0.0040867 -0.0016163 0.0016882 -0.0061239 0.00054717 -0.0019191 0.0077434 0.030472
-0.12241 0.19422 0.0056517 0.019528
-0.0026826 -0.0023877 -1.9559e-05 -0.0025411 0.0018492 -0.00023343 -0.0092307 -0.0075342
0.0056371 0.019529 -0.15571 0.25091
1040000000 -0.016739 0.29327 0.033268 0.01948 -0.0015877 0.0072849 0.0027703 0.00061948
0.00028737 -0.0035214 -0.00018691 -0.0015204
0.033245 0.019505 -0.1787 0.35169 0.030598 -0.014762 0.0016726 -0.0018065
-0.0022792 -0.0026306 -0.0011303 -0.0026866
-0.0015689 0.0072797 0.030592 -0.014869 0.15315 0.2938 -0.00046579 -0.0017175
-0.001681 -0.00096186 -0.00043854 -0.0012388
0.0027793 0.00062901 0.0016455 -0.0018278 -0.00046538 -0.0017072 -0.048178 0.28079
0.019809 0.019388 -0.0028286 0.0012062
0.00027977 -0.0035399 -0.0023109 -0.002605 -0.0016697 -0.00096539 0.019856 0.01936
-0.089851 0.20158 0.014303 0.018723
-0.00019471 -0.0015191 -0.0011447 -0.0026596 -0.00044763 -0.0012437 -0.0028164 0.0012099
0.01428 0.018729 -0.13288 0.27183
1100000000 0.027977 0.30254 0.03701 -0.0034046 0.002992 0.004332 0.0024432 -0.0011959
-0.0020451 -0.0030848 -0.003887 -0.00014589
0.036986 -0.0033856 -0.13557 0.37026 0.016134 -0.028502 -1.1056e-05 -0.0018442
-0.0036465 -0.0008327 -0.0035272 -0.00057066
0.0030029 0.0043156 0.016056 -0.028588 0.19953 0.27449 -0.0019208 8.0187e-05
-0.0018419 0.00050455 -0.0011301 -0.00063526
0.0024477 -0.0011903 -1.1799e-05 -0.0018566 -0.0019196 8.4559e-05 -0.0073467 0.28627
0.025791 0.0057108 -0.0022844 0.0004244
-0.0020591 -0.0030912 -0.0036689 -0.00081504 -0.0018283 0.00050431 0.025803 0.0056651
-0.069173 0.21473 0.019987 0.0087154
-0.0038832 -0.00013517 -0.0035304 -0.00054745 -0.0011255 -0.00063395 -0.0022801 0.00043096
0.019977 0.0087219 -0.087552 0.30077
1160000000 0.079403 0.299 0.025109 -0.020779 0.0030791 -0.00051058 -0.00027549 -0.0025107
-0.0040689 -0.00084536 -0.00095161 0.0041409
0.025113 -0.020728 -0.091798 0.37523 -0.0033515 -0.030133 -0.0017407 -0.0016742
-0.0028215 0.0025713 -0.0015341 0.0018934
0.0030756 -0.00053593 -0.0034688 -0.030147 0.24317 0.24416 -0.00077737 0.001864
-0.00064341 0.0019624 -0.0011148 0.00031426
-0.00028623 -0.0025008 -0.0017639 -0.0016633 -0.00078398 0.0018639 0.0327 0.2835
0.022067 -0.010866 -0.003142 0.0053165
-0.0040664 -0.00082973 -0.0028294 0.0026037 -0.00064685 0.0019681 0.022061 -0.010901
-0.034908 0.22289 0.018555 -0.0005196
-0.00091198 0.0041497 -0.0015303 0.0019195 -0.0011113 0.0003086 -0.0031448 0.0053281
0.018552 -0.00053703 -0.040328 0.30347
1220000000 0.12348 0.28924 0.011443 -0.030778 -0.0015749 -0.0011599 -5.7826e-05 -0.00082235
-0.0028022 0.0022471 0.0010432 0.0020484
0.011442 -0.030739 -0.047238 0.38839 -0.017361 -0.022243 -0.0026796 0.00055559
8.4747e-05 0.0031083 -0.00080984 0.001943
-0.0015792 -0.0011508 -0.01748 -0.022191 0.2823 0.20523 0.00085492 0.0018136
0.00065108 0.0013622 0.00028203 0.00058756
-5.9123e-05 -0.00082717 -0.0026707 0.00055701 0.00085687 0.0018032 0.073007 0.2746
0.011271 -0.018002 0.0022627 0.0013845
-0.0027918 0.0022512 9.371e-05 0.0031157 0.00065531 0.0013603 0.011255 -0.018025
-0.010979 0.23218 0.014156 -0.013543
0.0010629 0.0020525 -0.00081136 0.0019585 0.00028827 0.00058697 0.0022659 0.0013864
0.014162 -0.013546 -0.0089716 0.31862
1280000000 0.17416 0.26894 -0.0077464 -0.029542 -0.0020787 0.0023772 -0.00082696 -0.001967
-0.00069674 0.0033275 0.0026307 0.001212
-0.0077261 -0.029517 -0.00054199 0.38004 -0.024699 -0.0089154 -0.00095836 0.0014898
0.0017548 0.0017107 0.00059409 0.0021022
-0.0020732 0.0023881 -0.024779 -0.0088231 0.31288 0.16164 0.0015665 -5.5454e-05
0.0012105 0.00024845 0.00024687 0.00035075
-0.0008335 -0.0019657 -0.00096967 0.0014949 0.0015643 -5.8363e-05 0.11023 0.25798
0.00087512 -0.020293 -6.8879e-05 0.00020227
-0.00067844 0.0033324 0.0017784 0.0016969 0.0012132 0.00024997 0.00083867 -0.02031
0.026326 0.23573 0.0029421 -0.015748
0.0026364 0.0012043 0.00060915 0.002095 0.00025265 0.00034985 -7.247e-05 0.00020449
0.0029271 -0.015742 0.038658 0.32096
1340000000 0.21196 0.23582 -0.017975 -0.019729 0.00063168 0.0047277 -0.0017504 -0.00074881
0.0014391 0.0027646 0.0017636 -0.0013804
-0.017944 -0.019724 0.039233 0.37183 -0.022358 0.0043769 -3.2048e-05 0.0020158
0.0019595 0.00079975 0.0012583 0.0007957
0.00064543 0.0047225 -0.022362 0.0044852 0.33475 0.11442 0.0011157 -0.00094376
0.00071616 -0.00059801 0.00012761 0.00024135
-0.0017559 -0.00074017 -2.326e-05 0.0020128 0.0011116 -0.00093645 0.1432 0.23646
-0.0091284 -0.017339 0.00077265 0.00044988
0.0014511 0.0027622 0.0019679 0.00078863 0.00071493 -0.00060103 -0.0091698 -0.017335
0.057321 0.23096 -0.0042505 -0.014588
0.0017574 -0.0013878 0.0012714 0.0007902 0.00012715 0.00023999 0.00077948 0.00045338
-0.0042494 -0.014582 0.076494 0.31564
1400000000 0.24574 0.19847 -0.024196 -0.0077768 0.0053193 0.0035193 -0.0021107 0.00063926
0.0025869 0.00098498 0.00028158 -0.0016395
-0.024166 -0.00779 0.076737 0.35902 -0.015368 0.012978 0.0013376 0.0012576
0.0012194 -0.00082914 0.0011929 0.00010067
0.0053398 0.0035008 -0.015328 0.013067 0.34779 0.061554 2.5577e-05 -0.0016698
0.00016318 -0.00042811 0.00035308 0.00023503
-0.0021069 0.00064863 0.0013537 0.0012458 2.6747e-05 -0.001664 0.17229 0.20741
-0.015489 -0.0099566 -0.00089849 -6.0662e-05
0.0025878 0.00097836 0.0012128 -0.00083383 0.00016277 -0.00043094 -0.015519 -0.0099263
0.090821 0.22629 -0.010616 -0.0090714
0.00026805 -0.0016254 0.0012011 9.5707e-05 0.00035611 0.00022986 -0.00090283 -6.7879e-05
-0.010608 -0.0090787 0.12086 0.3043
1460000000 0.26922 0.15453 -0.021024 0.0050238 0.0058788 -0.0017364 -0.0015196 0.0016864
0.0022331 -0.0005302 -0.0004174 -0.0009815
-0.021016 0.0049972 0.11103 0.337 -0.0060868 0.016042 0.0016718 0.00012179
0.00090416 -0.0013699 0.0012303 -0.0006634
0.0058603 -0.0017492 -0.0060164 0.016099 0.35442 0.008107 -0.0012479 -0.0013448
0.00016969 -0.00034377 0.00070474 -0.00021084
-0.0015196 0.0016982 0.0016598 0.00011652 -0.0012385 -0.0013325 0.19863 0.17798
-0.016553 -0.0027802 -0.00085558 0.0020435
0.0022256 -0.00055908 0.00089627 -0.0013736 0.00016487 -0.0003419 -0.016563 -0.0027399
0.12067 0.21145 -0.012539 -0.0028447
-0.000416 -0.00098255 0.0012334 -0.0006773 0.00070719 -0.00020866 -0.00085541 0.0020584
-0.012531 -0.0028331 0.15448 0.2834
1520000000 0.28166 0.11286 -0.015184 0.010696 0.0035006 -0.0043222 0.00013232 0.0025453
0.0021819 -0.0020077 -0.001225 -0.00013446
-0.015177 0.010677 0.14425 0.32256 0.0018483 0.013521 0.0016433 -0.00073249
5.6795e-05 -0.0010801 0.0002277 -0.0010869
0.0034843 -0.0043436 0.00192 0.013526 0.34794 -0.047554 -0.0010653 -0.00034295
0.00066999 -0.00088704 4.7429e-05 -0.00023119
0.00013485 0.00254 0.0016358 -0.00073652 -0.0010647 -0.00033805 0.22133 0.13958
-0.015448 0.0035106 0.0016208 0.0021637
0.0021619 -0.0020272 4.8875e-05 -0.0010825 0.00067121 -0.00089015 -0.015449 0.0035438
0.1489 0.19736 -0.012395 0.0020795
-0.0012308 -0.00013354 0.00022351 -0.0010905 4.9302e-05 -0.00023127 0.0016249 0.0021555
-0.012395 0.0020693 0.18707 0.26309
1580000000 0.29145 0.067195 -0.0080592 0.014057 -0.00092109 -0.0051334 0.0014683 0.0019084
-0.0003206 -0.0022379 -0.00018629 0.00046591
-0.0080649 0.014041 0.17135 0.29825 0.0056744 0.0083628 0.00053699 -0.0015699
-0.00059816 -0.0010257 -0.00022078 -0.00083296
-0.00095137 -0.0051367 0.005713 0.0083462 0.32888 -0.10477 -0.0016745 0.00053963
-0.00040604 -0.0011795 0.00036315 -0.00057186
0.0014698 0.0018997 0.00053089 -0.00157 -0.0016764 0.00053372 0.23473 0.10044
-0.011348 0.008459 0.0022917 0.00066747
-0.000324 -0.0022357 -0.0006096 -0.0010298 -0.00040364 -0.0011801 -0.011335 0.0084961
0.17309 0.17908 -0.0096413 0.007828
-0.00018536 0.00046758 -0.00022615 -0.00083271 0.00036151 -0.00057756 0.0022951 0.00066594
-0.0096489 0.0078394 0.21864 0.23663
1640000000 0.29383 0.02625 -0.0010277 0.012621 -0.0029298 -0.0027151 0.0026875 0.0010317
-0.00088502 -0.0015963 -0.00034292 0.00068005
-0.001031 0.012628 0.20092 0.27382 0.0062518 0.003296 -0.00061442 -0.0017788
-0.0010353 -0.00038609 -0.00059695 -0.00062275
-0.0029367 -0.0027078 0.0062659 0.0032673 0.30093 -0.15388 -0.00069443 0.0014956
-0.0011172 -0.00079559 -0.00014084 -0.00040782
0.002687 0.0010242 -0.00062635 -0.0017797 -0.00069969 0.0014971 0.24706 0.051971
-0.0067169 0.0095535 0.0024884 -0.00076274
-0.00090765 -0.0015841 -0.0010319 -0.00038892 -0.0011223 -0.00079511 -0.0066995 0.0095774
0.196 0.15495 -0.004554 0.009945
-0.00033596 0.0006888 -0.0006027 -0.00061605 -0.00012776 -0.00040654 0.0024848 -0.00078815
-0.0045544 0.009945 0.24448 0.20569
1700000000 0.28699 -0.018656 0.0024579 0.0095304 -0.0037029 1.731e-05 0.003122 -0.0011308
-0.0020602 -0.00054423 0.00058819 0.00031427
0.0024402 0.0095243 0.21893 0.24302 0.0040597 0.00031173 -0.0015276 -0.00059981
-0.00080259 5.867e-05 -0.00087424 -0.00040082
-0.0036974 3.8059e-05 0.0040596 0.00028312 0.25841 -0.19376 0.0004335 0.0016161
-0.0020262 4.2268e-05 -0.00046686 -0.00089454
0.0031165 -0.0011469 -0.0015275 -0.00059557 0.00043649 0.0016137 0.24358 0.0025981
-0.003704 0.0095677 0.001607 -0.0021905
-0.0020632 -0.00054188 -0.00079683 6.6542e-05 -0.0020303 4.3628e-05 -0.0036924 0.0095823
0.21299 0.13476 0.00047739 0.010046
0.00059061 0.00030184 -0.00086901 -0.00040179 -0.00047438 -0.00089277 0.0015899 -0.0021894
0.00047164 0.010047 0.26061 0.17158
1760000000 0.27588 -0.066877 0.0046985 0.0060755 -0.0024269 0.0011115 0.0013401 -0.0034087
-0.0013352 0.00077368 0.0003318 -0.00056526
0.0046834 0.0060715 0.2454 0.20402 0.0015245 -0.001547 -0.0012532 0.00016539
-0.0010286 0.00091662 -0.00055139 0.00043014
-0.0024234 0.0011193 0.0015187 -0.0015473 0.21048 -0.2275 0.0010609 0.0011042
-0.0012726 0.0014885 -0.0012715 -0.00063652
0.0013177 -0.0034241 -0.0012506 0.00017783 0.0010633 0.0011062 0.23512 -0.048372
-0.0005907 0.0082867 -0.00022422 -0.0024907
-0.0013322 0.00078394 -0.0010248 0.00091864 -0.0012726 0.0014944 -0.0005701 0.0082872
0.22774 0.10044 0.0044054 0.0073189
0.00033313 -0.00056209 -0.00054933 0.00043696 -0.0012669 -0.00063687 -0.00022986 -0.0025002
0.0044124 0.0073243 0.27374 0.13403
1820000000 0.25205 -0.10429 0.0046424 0.0024232 -8.7931e-05 0.0025713 -0.00089314 -0.0031648
-0.0010236 0.0010569 -1.0852e-05 -0.00011645
0.0046399 0.0024261 0.25599 0.17433 -0.0007524 -0.00027009 -0.0013159 0.00096427
-5.7837e-05 0.0012271 -0.00047599 0.00056453
-7.033e-05 0.0025571 -0.00075242 -0.00026015 0.15965 -0.24351 0.0017292 0.00036069
-0.00010105 0.002397 -0.0014718 0.00044263
-0.00090144 -0.003159 -0.0013053 0.00096964 0.001729 0.00035902 0.20565 -0.095389
0.00067794 0.0069022 -0.0015489 -0.0016362
-0.0010081 0.0010627 -4.5247e-05 0.001234 -9.02e-05 0.0023993 0.00069312 0.0068969
0.24476 0.071885 0.0054275 0.0034947
-9.5324e-06 -0.00012868 -0.00047072 0.0005683 -0.0014709 0.00045498 -0.0015574 -0.0016337
0.0054301 0.0034899 0.27607 0.097627
1880000000 0.21745 -0.14479 0.002346 0.00012394 -0.00046036 0.0021833 -0.0028547 -0.0023092
-6.2688e-05 0.0017786 2.7525e-05 -0.00057331
0.0023511 0.0001224 0.26117 0.12832 -0.0025957 0.0016764 -0.00023966 0.0017343
0.00054937 0.0012883 7.2129e-05 0.00082722
-0.00043264 0.0021936 -0.0025867 0.001691 0.1077 -0.25286 0.0016908 -0.0010787
0.0016374 0.0018567 -0.001009 0.0012816
-0.0028727 -0.0022868 -0.00023571 0.0017357 0.0016964 -0.0010839 0.16557 -0.13568
0.0010796 0.0048594 -0.0024208 0.00011867
-5.8809e-05 0.0017799 0.00056326 0.0012814 0.001636 0.0018491 0.0010967 0.0048556
0.24858 0.041005 0.0054765 0.00094184
1.6459e-05 -0.00057089 8.0991e-05 0.00082043 -0.0010011 0.001288 -0.0024136 0.00011514
0.0054762 0.00093263 0.27618 0.06371
1940000000 0.17868 -0.17098 -8.2738e-05 -0.0014299 0.0014236 0.0019855 -0.0037856 0.00043495
0.0013869 0.00098298 -0.00048779 -0.00075681
-7.8571e-05 -0.0014286 0.26272 0.096461 -0.0013454 0.0041641 0.0010652 0.0013473
0.0018384 0.0005007 0.0010015 0.0002371
0.0014523 0.001981 -0.0013117 0.0041875 0.062409 -0.2458 0.00047938 -0.0023166
0.0023561 0.00025474 0.00049622 0.0016296
-0.0037779 0.00043986 0.0010831 0.0013466 0.00048103 -0.0023196 0.11389 -0.16685
0.0004882 0.003803 -0.0016788 0.0013829
0.0014027 0.00097615 0.0018524 0.0005001 0.002359 0.0002474 0.00050767 0.0038051
0.25199 0.0032712 0.0038813 -0.0026236
-0.0005034 -0.00074224 0.00099621 0.00023154 0.00049287 0.0016321 -0.0016745 0.0013901
0.0038858 -0.0026322 0.2654 0.027299
2000000000 0.13246 -0.18619 -0.0038289 0.00061609 0.0026635 0.001481 -0.0024095 0.0038235
0.001116 0.00022742 -0.00069863 0.00062575
-0.0038118 0.00061891 0.2491 0.060664 -0.00087833 0.0058143 0.0016391 0.00048686
0.0013682 -0.0010612 0.00035248 0.00024723
0.0026792 0.0014669 -0.00084265 0.005821 0.01888 -0.23251 -0.0012828 -0.0012223
0.0020204 -0.0010802 0.0015788 0.0016989
-0.002397 0.0038609 0.0016364 0.00046268 -0.001289 -0.0012101 0.060292 -0.1772
-0.0010153 0.0037658 -0.00022263 0.0025509
0.0011091 0.00021046 0.0013738 -0.0010781 0.0020047 -0.0010888 -0.0010055 0.0037586
0.24717 -0.029553 0.00029305 -0.0032185
