!Keysight Technologies,M9804A,MY58100912,A.14.10.03
!Date: Thursday, April 27, 2023 10:28:33
!Correction: S11(C  6-Port  ) 
!S12(C  6-Port  ) 
!S13(C  6-Port  ) 
!S14(C  6-Port  ) 
!S15(C  6-Port  ) 
!S16(C  6-Port  ) 
!S21(C  6-Port  ) 
!S22(C  6-Port  ) 
!S23(C  6-Port  ) 
!S24(C  6-Port  ) 
!S25(C  6-Port  ) 
!S26(C  6-Port  ) 
!S31(C  6-Port  ) 
!S32(C  6-Port  ) 
!S33(C  6-Port  ) 
!S34(C  6-Port  ) 
!S35(C  6-Port  ) 
!S36(C  6-Port  ) 
!S41(C  6-Port  ) 
!S42(C  6-Port  ) 
!S43(C  6-Port  ) 
!S44(C  6-Port  ) 
!S45(C  6-Port  ) 
!S46(C  6-Port  ) 
!S51(C  6-Port  ) 
!S52(C  6-Port  ) 
!S53(C  6-Port  ) 
!S54(C  6-Port  ) 
!S55(C  6-Port  ) 
!S56(C  6-Port  ) 
!S61(C  6-Port  ) 
!S62(C  6-Port  ) 
!S63(C  6-Port  ) 
!S64(C  6-Port  ) 
!S65(C  6-Port  ) 
!S66(C  6-Port  ) 
!S6P File: Measurement: :
# Hz S  RI   R 50
500000000 -0.33297 -0.055608 -0.010139 -0.001805 -0.0082607 0.012712 -0.0040079 0.01136
0.012415 0.0061102 -0.0038463 0.0073033
-0.010102 -0.0017972 -0.41576 -0.065184 0.0085317 -0.010805 0.0011203 0.011906
0.0078317 0.0029392 0.0012892 0.013587
-0.0082378 0.012719 0.0085174 -0.010821 -0.26689 0.19759 0.0066881 0.003528
-0.0014207 0.0085689 0.0003078 0.011908
-0.0039777 0.011388 0.0011728 0.011923 0.0066946 0.0035221 -0.33115 0.042015
-0.018291 -0.0038998 0.016772 0.024476
0.012432 0.0060753 0.007844 0.0029175 -0.001408 0.0085673 -0.018299 -0.0038963
-0.24554 -0.19923 -0.026524 0.0060817
-0.003826 0.0073623 0.0013369 0.013623 0.00031442 0.011916 0.016731 0.024496
-0.026525 0.0060944 -0.27017 -0.12549
560000000 -0.31898 0.11063 -0.023538 -0.065317 0.00048511 0.012922 0.0053784 0.010825
0.011538 0.0040004 0.010211 0.0083824
-0.023457 -0.065272 -0.3755 0.098305 -0.041304 -0.038377 0.013075 0.00323
-0.012101 -0.0040489 0.0033577 -0.0012946
0.00051473 0.012919 -0.041464 -0.038311 -0.18645 0.2501 -0.00022758 -0.0046787
0.01846 0.0063247 0.0080846 -0.0057479
0.0053999 0.01082 0.013104 0.0032011 -0.00023045 -0.0046775 -0.30551 0.13381
0.0056366 -0.024783 0.0050776 -0.021499
0.011518 0.0040051 -0.012148 -0.0040655 0.018469 0.0063377 0.0056307 -0.024811
-0.31064 -0.01664 0.0079477 -0.049281
0.010253 0.0083302 0.0033686 -0.0013436 0.0080864 -0.0057557 0.0050754 -0.021484
0.0079699 -0.049328 -0.3313 0.021554
620000000 -0.27805 0.091602 -0.023063 0.0086435 0.0035121 0.0092826 0.0075905 -0.0043285
0.011581 -0.0014638 -5.1355e-05 -0.0023007
-0.023033 0.0086405 -0.40306 0.046831 -0.018612 0.0002333 -0.0017256 -0.0017106
0.012204 -0.006726 0.00037227 -0.0032748
0.0035338 0.0092699 -0.018636 0.00027016 -0.15633 0.2586 -0.00094029 -0.0050956
-0.0035838 -0.0032338 0.0087405 -0.0030456
0.0076098 -0.0043346 -0.0017343 -0.0016881 -0.00094788 -0.0050795 -0.26454 0.14392
-0.039236 -0.018222 0.014336 0.027001
0.01158 -0.0015013 0.012202 -0.0067958 -0.0035913 -0.0032433 -0.039237 -0.018175
-0.22897 -0.054846 -0.04239 0.013068
-2.1702e-05 -0.0022904 0.00032777 -0.0032689 0.0087463 -0.0030382 0.014315 0.02698
-0.042356 0.013006 -0.24913 -0.0098244
680000000 -0.23995 0.18221 -0.02632 -0.014816 0.004819 0.0054602 0.0012107 -0.0077542
-0.0025415 -0.011749 0.0060843 -0.0077737
-0.026305 -0.014809 -0.38998 0.14837 -0.032752 -0.0022118 -0.0019494 -0.00075121
-0.0018138 -0.0093149 -0.00070732 -0.0021415
0.0048493 0.0054594 -0.032784 -0.0021268 -0.1048 0.27965 -0.0010976 -0.00043987
-0.0016741 0.00072171 -0.0026773 -0.0093611
0.0012079 -0.007774 -0.0019531 -0.00077201 -0.0011049 -0.00044662 -0.21978 0.19635
-0.024446 -0.0082845 -0.0083638 -0.011997
-0.002586 -0.01176 -0.0018385 -0.0093147 -0.0016741 0.00071196 -0.024466 -0.0082457
-0.27855 0.050426 -0.0070164 -0.0078322
0.0060701 -0.0077534 -0.0007209 -0.0021298 -0.0026868 -0.0093573 -0.0083851 -0.01199
-0.0070297 -0.0078257 -0.25987 0.091715
740000000 -0.19411 0.1757 -0.040089 0.026627 0.013861 -0.0048348 -0.00010276 -0.0043795
-0.0045884 -0.0033547 -0.006119 0.0031777
-0.040082 0.026576 -0.33573 0.16624 -0.037109 0.03501 -0.00014713 -0.0062013
-0.011574 0.0081669 -0.0016121 -0.0060582
0.013839 -0.0048748 -0.037047 0.03513 -0.071279 0.2773 -0.0016386 0.0034388
-0.0033052 -0.0052883 -0.00097037 0.0010852
-9.5782e-05 -0.0043561 -0.00014027 -0.0062226 -0.0016293 0.0034363 -0.20311 0.20303
-0.043294 -0.0081094 0.022637 0.015443
-0.00459 -0.003372 -0.011581 0.0082355 -0.0032837 -0.0052861 -0.043337 -0.0080662
-0.17848 0.076043 -0.042626 0.00058395
-0.0061186 0.0032014 -0.0015862 -0.0061173 -0.0009696 0.0010914 0.02268 0.01542
-0.042657 0.00059125 -0.24862 0.099313
800000000 -0.1628 0.21961 -0.022545 0.016472 0.0059511 -0.010628 -0.0041389 -0.0022394
-0.004805 0.0021967 0.0048263 0.00065518
-0.022529 0.016436 -0.34246 0.23804 -0.0087955 0.03451 -0.002052 0.0021392
-0.0011603 0.0028344 0.0012344 0.0054621
0.005919 -0.010656 -0.0087134 0.034571 -0.032558 0.30176 0.0011095 0.0013878
2.4635e-05 0.0035367 -0.0016419 0.0011613
-0.0041608 -0.0022251 -0.0020461 0.0021535 0.0011142 0.0013908 -0.17469 0.23074
-0.028927 0.013045 0.014224 -0.010113
-0.0047988 0.0022118 -0.0011577 0.0028436 2.5641e-05 0.0035506 -0.028923 0.013099
-0.22377 0.10568 -0.017437 0.019541
0.0048183 0.00061722 0.0012472 0.0054503 -0.0016407 0.0011304 0.014226 -0.010132
-0.017443 0.019521 -0.24138 0.14804
860000000 -0.12849 0.24021 -0.018264 0.030572 -0.002857 -0.010584 -0.0016954 0.00088941
0.0039941 0.0050674 -0.0034918 -0.0028899
-0.018271 0.030539 -0.294 0.28122 0.0074072 0.034922 0.00013563 0.0021221
0.0033972 0.00063078 0.0032494 0.00016103
-0.0028937 -0.01058 0.0075295 0.034937 0.015335 0.31062 -0.00063488 -0.00012923
0.0022376 -0.0016313 0.0015315 0.0042739
-0.0016961 0.00089441 0.00014078 0.0021388 -0.00064148 -0.00012842 -0.13838 0.24256
-0.018504 0.018824 -0.0062069 -0.0092387
0.0040309 0.0050612 0.0033928 0.00061924 0.002246 -0.0016372 -0.018485 0.018879
-0.16721 0.15797 -0.024168 0.016229
-0.0035123 -0.0028972 0.0032591 0.0001479 0.0015351 0.004266 -0.0061991 -0.0092337
-0.024178 0.016228 -0.19039 0.19291
920000000 -0.10466 0.26349 0.0044281 0.038769 -0.0094292 -0.0050973 -0.0018308 0.0018754
0.0012214 0.002185 0.0026864 -0.0013794
0.0043865 0.038736 -0.26687 0.30264 0.028429 0.023286 0.0016781 0.001474
0.0075225 -0.00017265 0.0044202 -0.0024445
-0.0094587 -0.0050796 0.028532 0.023237 0.06092 0.31212 0.0018593 7.9479e-05
0.0011631 -0.00014217 0.0011106 -0.0011678
-0.0018505 0.0018924 0.0016842 0.0014727 0.0018578 7.6005e-05 -0.11397 0.25948
-0.011355 0.031623 0.0038306 -0.0069972
0.0012422 0.0021779 0.0074991 -0.00021305 0.0011683 -0.00015702 -0.011288 0.031668
-0.15639 0.1636 -0.0016116 0.027241
0.0026954 -0.0013942 0.0044161 -0.002445 0.0011032 -0.0011798 0.0038243 -0.0069913
-0.0016311 0.02723 -0.1983 0.2063
980000000 -0.058119 0.2844 0.017006 0.030734 -0.0096117 0.0043108 0.0019879 0.0037099
0.0041086 -0.0016102 -0.0026896 -0.0023393
0.016959 0.03071 -0.21374 0.33799 0.033945 0.0055593 0.0021609 -0.00028046
0.0017266 -0.0061155 4.607e-06 -0.0025154
-0.0096055 0.0043245 0.034006 0.0054713 0.10698 0.30676 0.0008232 -0.0011263
0.00054275 -0.0019202 0.0018565 -0.00020676
0.0019936 0.0037032 0.0021738 -0.00028688 0.00081271 -0.0011249 -0.075672 0.27079
0.0077239 0.030447 -0.0091961 -0.007525
0.0040906 -0.001627 0.0016802 -0.0061397 0.00054273 -0.0019282 0.0077791 0.030451
-0.1223 0.19435 0.0056896 0.019522
-0.0027033 -0.0023409 -1.9238e-05 -0.0024914 0.0018512 -0.00021597 -0.0092253 -0.0075048
0.0056766 0.019529 -0.15558 0.25113
1040000000 -0.016682 0.29333 0.033252 0.019497 -0.0015879 0.0072837 0.0027601 0.0006445
0.00026713 -0.0035321 -0.00018564 -0.0015437
0.033199 0.019502 -0.17866 0.35169 0.030591 -0.014774 0.0016244 -0.0018375
-0.002284 -0.0026174 -0.001138 -0.0026798
-0.0015796 0.0072719 0.030583 -0.014878 0.15321 0.29379 -0.00046876 -0.0017
-0.0016971 -0.0010052 -0.00043908 -0.0012273
0.0027507 0.00062882 0.0016366 -0.0018331 -0.00046503 -0.0017102 -0.048165 0.28082
0.019801 0.019341 -0.0028215 0.0011708
0.00025498 -0.0035359 -0.0023281 -0.0026074 -0.0016821 -0.00099582 0.019845 0.019314
-0.08979 0.20175 0.014357 0.018673
-0.00018348 -0.0015496 -0.0011657 -0.0026651 -0.00043974 -0.0012348 -0.0028146 0.0011836
0.014326 0.018682 -0.13271 0.27189
1100000000 0.028017 0.30255 0.037002 -0.0034186 0.0029845 0.0043234 0.002453 -0.0011849
-0.002051 -0.0030916 -0.003877 -0.00012257
0.036966 -0.0033822 -0.13553 0.37026 0.016137 -0.028511 -2.0477e-05 -0.0018617
-0.0036275 -0.00082613 -0.0035336 -0.0005558
0.002992 0.0043082 0.016051 -0.028597 0.19958 0.27448 -0.0019238 8.4736e-05
-0.0018281 0.00051745 -0.0011349 -0.00065244
0.00245 -0.001191 -1.4618e-05 -0.0018622 -0.0019349 8.1714e-05 -0.007304 0.28632
0.025791 0.0056861 -0.0023268 0.00042307
-0.0020725 -0.00308 -0.0036428 -0.00080956 -0.0018246 0.00051373 0.025813 0.0056558
-0.069071 0.21475 0.02005 0.0086863
-0.0038693 -0.00011169 -0.003543 -0.00054568 -0.0011332 -0.0006465 -0.0023312 0.00042362
0.020039 0.0086856 -0.087426 0.3007
1160000000 0.079476 0.29902 0.0251 -0.020776 0.0030706 -0.0005086 -0.00026561 -0.0024765
-0.0040546 -0.00083486 -0.00098986 0.0040954
0.025088 -0.020731 -0.091762 0.37522 -0.0033561 -0.030127 -0.0017545 -0.0016813
-0.002807 0.0026127 -0.0015406 0.0019018
0.0030713 -0.00053813 -0.0034713 -0.030139 0.24322 0.24415 -0.00078301 0.0018714
-0.00064002 0.0019698 -0.0011224 0.00029508
-0.00027429 -0.002485 -0.0017552 -0.0016681 -0.00078242 0.0018757 0.032712 0.28351
0.022077 -0.010902 -0.0031804 0.0053032
-0.0040503 -0.00081851 -0.002815 0.0026282 -0.00063909 0.0019714 0.022078 -0.010926
-0.03472 0.22296 0.018546 -0.00055886
-0.00095994 0.0041036 -0.0015279 0.0019205 -0.0011134 0.00029778 -0.0031735 0.0053156
0.018534 -0.00056761 -0.039984 0.30353
1220000000 0.12354 0.28924 0.011412 -0.030779 -0.0015697 -0.0011456 -6.3931e-05 -0.00081046
-0.002792 0.0022392 0.0010666 0.0020572
0.011418 -0.030738 -0.047195 0.38836 -0.01737 -0.022237 -0.0026831 0.00054619
7.6552e-05 0.0031185 -0.00081655 0.0019542
-0.0015777 -0.001152 -0.017477 -0.022184 0.28236 0.20521 0.00083803 0.0018163
0.0006535 0.0013579 0.0002797 0.00061237
-6.3772e-05 -0.00081534 -0.0026789 0.00056566 0.00084107 0.0018177 0.073036 0.27459
0.01124 -0.018007 0.0022379 0.0013792
-0.0027791 0.0022538 7.7335e-05 0.0031197 0.00064997 0.0013553 0.011226 -0.018023
-0.010834 0.23217 0.014118 -0.013538
0.001078 0.0020541 -0.00080636 0.0019691 0.00028468 0.00061204 0.0022339 0.0013782
0.014128 -0.013535 -0.0089074 0.31867
1280000000 0.17422 0.26891 -0.0077631 -0.029528 -0.0020838 0.0023842 -0.00081749 -0.0019751
-0.00072479 0.003351 0.0026453 0.0012337
-0.007746 -0.029502 -0.0005075 0.38004 -0.024704 -0.0089077 -0.00095716 0.0014841
0.0017492 0.0017094 0.0006141 0.0021126
-0.0020701 0.0023891 -0.024782 -0.0088104 0.31292 0.16161 0.0015925 -6.864e-05
0.0012203 0.00024019 0.00023412 0.00033343
-0.00081848 -0.0019694 -0.00095114 0.0014871 0.0015837 -7.0328e-05 0.11025 0.25797
0.00084743 -0.020309 -6.1283e-05 0.0002118
-0.00070667 0.0033414 0.0017674 0.0017032 0.0012122 0.00023746 0.00080458 -0.020312
0.026422 0.23576 0.0029655 -0.015788
0.0026476 0.0012164 0.00061975 0.0021053 0.00023305 0.00032836 -6.1669e-05 0.00021626
0.0029617 -0.01579 0.038755 0.32092
1340000000 0.21199 0.23578 -0.017979 -0.019706 0.00062834 0.0047184 -0.0017457 -0.00075224
0.001414 0.0027552 0.0017957 -0.0013681
-0.017958 -0.019708 0.039273 0.37181 -0.02235 0.0043884 -3.3938e-05 0.0020053
0.0019478 0.000789 0.0012827 0.00079524
0.00064493 0.0047218 -0.02236 0.0044904 0.33481 0.11436 0.0011125 -0.00094235
0.00071602 -0.00060617 0.00014489 0.00026737
-0.0017471 -0.00073914 -1.5661e-05 0.0020111 0.001119 -0.00093851 0.14325 0.23649
-0.0091497 -0.01734 0.00074525 0.00047908
0.0014334 0.0027412 0.0019608 0.00077874 0.00071168 -0.000607 -0.0091813 -0.017334
0.057392 0.23093 -0.0042137 -0.014543
0.0017859 -0.0013761 0.0012968 0.00078857 0.00014589 0.00026498 0.00074847 0.00047487
-0.0042085 -0.014531 0.076534 0.31548
1400000000 0.24577 0.19842 -0.024188 -0.0077602 0.0053217 0.0035139 -0.0021125 0.00064267
0.0025638 0.00097045 0.00026068 -0.0016097
-0.024163 -0.0077765 0.076766 0.35902 -0.015366 0.012986 0.0013464 0.0012535
0.0012245 -0.00083292 0.0011771 8.9457e-05
0.0053338 0.0034929 -0.015323 0.013074 0.34782 0.061515 4.3189e-05 -0.0016705
0.00016665 -0.00044093 0.00035928 0.00022988
-0.0021148 0.00065697 0.0013515 0.0012453 3.4766e-05 -0.0016677 0.17231 0.2074
-0.015479 -0.0099437 -0.00091548 -7.6455e-05
0.0025666 0.00096061 0.0012205 -0.00083792 0.00016774 -0.00044048 -0.015507 -0.009912
0.090905 0.22623 -0.010623 -0.0090215
0.00026025 -0.001617 0.001174 8.2522e-05 0.00035887 0.00023028 -0.00091391 -7.6692e-05
-0.010612 -0.0090309 0.12111 0.30427
1460000000 0.26925 0.1545 -0.021023 0.0050235 0.005863 -0.0017355 -0.0015205 0.0016951
0.0022358 -0.00053779 -0.0004181 -0.00098255
-0.021001 0.0050082 0.11108 0.33699 -0.0060774 0.016041 0.0016683 0.0001191
0.00089464 -0.0013641 0.0012235 -0.00068128
0.0058563 -0.0017643 -0.0060135 0.016099 0.35443 0.0080333 -0.0012559 -0.0013194
0.00016739 -0.00033175 0.00071626 -0.00020629
-0.0015189 0.0016941 0.0016637 0.00011061 -0.001253 -0.0013246 0.19868 0.17795
-0.016552 -0.002755 -0.00083743 0.0020451
0.0022292 -0.00054892 0.00088562 -0.0013746 0.00016807 -0.0003338 -0.016567 -0.0027253
0.12074 0.21138 -0.012587 -0.0028059
-0.00043013 -0.00097138 0.0012311 -0.00068033 0.00070739 -0.00020484 -0.00084622 0.0020569
-0.012579 -0.0028036 0.15469 0.28338
1520000000 0.28167 0.11282 -0.015168 0.010701 0.0035138 -0.0043158 0.00012916 0.0025432
0.0021639 -0.0020171 -0.0012175 -0.00013536
-0.015158 0.010684 0.14432 0.32252 0.0018612 0.013519 0.0016417 -0.00074001
5.0937e-05 -0.0010814 0.00022285 -0.0011013
0.0034925 -0.0043365 0.0019338 0.013524 0.34798 -0.047613 -0.0010712 -0.00034732
0.00065722 -0.0008797 3.9555e-05 -0.00023179
0.00014749 0.0025459 0.0016341 -0.00074141 -0.0010716 -0.00033763 0.22135 0.13957
-0.015424 0.0035413 0.0016095 0.0021693
0.0021482 -0.0020314 4.2751e-05 -0.0010776 0.00065796 -0.00088243 -0.015431 0.0035787
0.149 0.1973 -0.01239 0.0020827
-0.0012131 -0.00012627 0.0002159 -0.0010992 3.9807e-05 -0.00023069 0.0016059 0.0021658
-0.012399 0.0020839 0.18718 0.26304
1580000000 0.29145 0.067159 -0.0080516 0.014044 -0.00092967 -0.0051445 0.0014523 0.001915
-0.00031257 -0.0022354 -0.00018493 0.00046438
-0.0080476 0.014034 0.17139 0.29824 0.0056832 0.0083574 0.0005311 -0.0015635
-0.00059448 -0.0010367 -0.00021783 -0.00081866
-0.00094802 -0.0051449 0.0057143 0.0083415 0.3289 -0.10482 -0.0016828 0.00053881
-0.00040406 -0.0011886 0.00035673 -0.00054701
0.0014657 0.0019066 0.00052304 -0.0015611 -0.0016867 0.0005419 0.23477 0.10043
-0.011342 0.0084881 0.0022943 0.00069386
-0.00033042 -0.0022403 -0.00060773 -0.00103 -0.00040592 -0.0011872 -0.011331 0.0085187
0.17318 0.17907 -0.0096286 0.0078284
-0.00018482 0.00047375 -0.00022529 -0.00081767 0.0003589 -0.00055058 0.0023044 0.00069593
-0.0096389 0.0078286 0.21871 0.23663
1640000000 0.29385 0.026217 -0.0010155 0.01261 -0.0029306 -0.0027265 0.00268 0.0010313
-0.00089639 -0.001594 -0.00033459 0.00067391
-0.0010332 0.012612 0.20093 0.27377 0.0062527 0.0032998 -0.00062564 -0.0017794
-0.0010221 -0.00038906 -0.0006022 -0.00062928
-0.0029461 -0.0027129 0.0062659 0.003262 0.30092 -0.15392 -0.00070611 0.0014882
-0.0011134 -0.00080091 -0.00016132 -0.00042246
0.0026965 0.0010199 -0.00063517 -0.0017698 -0.00069664 0.0014936 0.24706 0.051936
-0.0067045 0.0095721 0.0024478 -0.00077476
-0.00090432 -0.0015855 -0.0010286 -0.00038937 -0.0011071 -0.00080753 -0.0066865 0.0095873
0.19613 0.15488 -0.0045296 0.0099591
-0.00033354 0.00067989 -0.00061037 -0.00062688 -0.0001639 -0.00042684 0.0024504 -0.00078999
-0.004526 0.0099502 0.24448 0.20556
1700000000 0.28697 -0.018686 0.0024547 0.0095321 -0.0037016 3.1211e-05 0.0031128 -0.0011402
-0.0020657 -0.00054881 0.00056856 0.00032921
0.0024421 0.0095129 0.21893 0.24297 0.0040581 0.00030544 -0.0015199 -0.00058961
-0.00079388 6.0688e-05 -0.00087865 -0.00040528
-0.0036912 4.7389e-05 0.0040612 0.00028072 0.25842 -0.19381 0.00044206 0.0016126
-0.002015 4.5836e-05 -0.00046221 -0.00088649
0.0031156 -0.0011547 -0.0015252 -0.0005883 0.0004478 0.0016151 0.24362 0.0025847
-0.0036998 0.0095698 0.0016438 -0.0021847
-0.0020634 -0.00054268 -0.00079354 6.569e-05 -0.0020168 3.9278e-05 -0.0036748 0.0095826
0.21305 0.13467 0.00046676 0.010074
0.00057378 0.00032113 -0.00087699 -0.00039789 -0.00047277 -0.00089343 0.0016399 -0.0021788
0.00047651 0.010085 0.26081 0.17156
1760000000 0.27589 -0.066883 0.0046883 0.0060747 -0.00244 0.0011065 0.0013485 -0.0034293
-0.0013283 0.00079245 0.0003726 -0.00057735
0.0046671 0.0060742 0.2454 0.20399 0.0015156 -0.0015425 -0.001246 0.00016738
-0.0010277 0.00092044 -0.0005345 0.0004252
-0.0024354 0.0011167 0.0015087 -0.0015498 0.21045 -0.22756 0.0010628 0.0010897
-0.0012723 0.0014638 -0.0012881 -0.00065908
0.0013335 -0.003432 -0.0012442 0.00017609 0.001063 0.0011004 0.23511 -0.048394
-0.00057995 0.0082725 -0.00023122 -0.0025189
-0.0013161 0.0007921 -0.0010234 0.00092322 -0.00127 0.0014653 -0.00056686 0.008274
0.22782 0.10036 0.0044101 0.007292
0.0003646 -0.00058875 -0.0005323 0.00043494 -0.0012985 -0.00066393 -0.00024274 -0.0025185
0.0044107 0.007294 0.27384 0.13391
1820000000 0.25202 -0.10435 0.0046465 0.0024207 -8.3001e-05 0.0025755 -0.00089076 -0.0031558
-0.001024 0.0010716 -8.6067e-06 -7.9639e-05
0.0046444 0.0024272 0.25597 0.17426 -0.00075638 -0.0002623 -0.0013051 0.00098029
-4.7465e-05 0.001233 -0.00047214 0.00057653
-6.8598e-05 0.0025775 -0.00076676 -0.00026537 0.15962 -0.24356 0.0017271 0.00037731
-8.868e-05 0.0023925 -0.0014723 0.00043172
-0.00090904 -0.0031481 -0.0013017 0.00097666 0.0017206 0.00038021 0.20567 -0.09541
0.00065688 0.0069071 -0.0015057 -0.0016179
-0.0010202 0.0010817 -4.4978e-05 0.0012345 -8.4505e-05 0.0023974 0.00068203 0.0069121
0.24481 0.071766 0.0054351 0.0035159
-1.3661e-05 -7.1107e-05 -0.00047153 0.00058291 -0.0014652 0.00042918 -0.0015097 -0.001616
0.0054375 0.0035006 0.27623 0.097526
1880000000 0.21742 -0.14485 0.0023399 0.00011671 -0.0004654 0.0021886 -0.0028672 -0.0022801
-9.9199e-05 0.0017827 4.1708e-05 -0.00054892
0.0023295 0.00012469 0.26116 0.12827 -0.0026062 0.0016772 -0.00022731 0.0017196
0.00054349 0.0012927 8.4565e-05 0.00083834
-0.00045023 0.002191 -0.0025986 0.0016864 0.10763 -0.25291 0.0017303 -0.0010996
0.001664 0.0018641 -0.0010135 0.0012457
-0.0028791 -0.002264 -0.00022473 0.0017323 0.0017287 -0.0011 0.16554 -0.13573
0.0010928 0.0048298 -0.0024422 9.8027e-05
-7.6158e-05 0.0017833 0.00055025 0.0012922 0.0016693 0.001865 0.0011049 0.0048123
0.24863 0.040912 0.005456 0.0008914
3.728e-05 -0.00055254 9.2695e-05 0.00083078 -0.0010134 0.001261 -0.0024433 9.6786e-05
0.0054637 0.00089505 0.27615 0.063535
1940000000 0.17865 -0.17103 -8.4157e-05 -0.0014431 0.0014315 0.0020169 -0.0037897 0.00043971
0.0013406 0.00097758 -0.0005419 -0.00070399
-8.124e-05 -0.0014276 0.26268 0.096397 -0.0013519 0.0041863 0.0010403 0.0013871
0.001802 0.00049752 0.00097425 0.00026543
0.0014369 0.0020094 -0.0013225 0.0042046 0.062364 -0.24581 0.00049105 -0.002295
0.0023458 0.00026389 0.0004913 0.0016774
-0.0037971 0.00046982 0.0010534 0.0013605 0.00048429 -0.002284 0.11391 -0.1668
0.00046798 0.0038726 -0.0016613 0.0014216
0.001344 0.00096538 0.0018179 0.00048597 0.0023536 0.00026316 0.00047441 0.003872
0.25197 0.0031793 0.0038687 -0.00258
-0.00055339 -0.00070259 0.00097915 0.00026465 0.00049137 0.0016601 -0.0016714 0.0014285
0.0038712 -0.0025735 0.26539 0.027273
2000000000 0.13239 -0.18622 -0.0038269 0.00060879 0.0026718 0.001469 -0.0024467 0.0037916
0.0011482 0.00021696 -0.00069342 0.0006059
-0.0038122 0.00060647 0.2491 0.060605 -0.00088192 0.0058116 0.0016463 0.00042019
0.0014056 -0.0010721 0.00035991 0.00021832
0.0026858 0.0014394 -0.00083723 0.0058223 0.018824 -0.23253 -0.001281 -0.0012631
0.0020233 -0.0010731 0.0015796 0.0016795
-0.0024222 0.003803 0.0016518 0.00041203 -0.0012814 -0.0012586 0.060184 -0.1773
-0.00099039 0.0037185 -0.0002647 0.0024865
0.0011502 0.00020018 0.0013963 -0.0010873 0.0020252 -0.0010792 -0.00097464 0.0037165
0.24721 -0.029636 0.00032117 -0.0032378
