!Keysight Technologies,M9804A,MY58100912,A.14.10.03
!Date: Thursday, April 27, 2023 10:28:33
!Correction: S11(C  6-Port  ) 
!S12(C  6-Port  ) 
!S13(C  6-Port  ) 
!S14(C  6-Port  ) 
!S15(C  6-Port  ) 
!S16(C  6-Port  ) 
!S21(C  6-Port  ) 
!S22(C  6-Port  ) 
!S23(C  6-Port  ) 
!S24(C  6-Port  ) 
!S25(C  6-Port  ) 
!S26(C  6-Port  ) 
!S31(C  6-Port  ) 
!S32(C  6-Port  ) 
!S33(C  6-Port  ) 
!S34(C  6-Port  ) 
!S35(C  6-Port  ) 
!S36(C  6-Port  ) 
!S41(C  6-Port  ) 
!S42(C  6-Port  ) 
!S43(C  6-Port  ) 
!S44(C  6-Port  ) 
!S45(C  6-Port  ) 
!S46(C  6-Port  ) 
!S51(C  6-Port  ) 
!S52(C  6-Port  ) 
!S53(C  6-Port  ) 
!S54(C  6-Port  ) 
!S55(C  6-Port  ) 
!S56(C  6-Port  ) 
!S61(C  6-Port  ) 
!S62(C  6-Port  ) 
!S63(C  6-Port  ) 
!S64(C  6-Port  ) 
!S65(C  6-Port  ) 
!S66(C  6-Port  ) 
!S6P File: Measurement: :
# Hz S  RI   R 50
500000000 -0.3335 -0.059459 -0.010546 -0.0015676 -0.0086932 0.013725 -0.0048923 0.011948
0.013511 0.0051244 -0.0043441 0.0078014
-0.010523 -0.0015164 -0.41662 -0.0674 0.0077571 -0.0097468 0.0009273 0.011591
0.0079013 0.0027982 0.0013145 0.012865
-0.0088991 0.013649 0.0077241 -0.009776 -0.26827 0.19707 0.0061406 0.0031032
-0.0026766 0.0081402 -0.00028087 0.011521
-0.0047058 0.012059 0.0013372 0.011486 0.0067503 0.0033509 -0.33259 0.042804
-0.019587 -0.0053116 0.016539 0.026362
0.013618 0.0050753 0.007791 0.0029408 -0.0024021 0.008799 -0.019504 -0.005636
-0.2408 -0.20371 -0.027599 0.0047846
-0.0047424 0.008472 0.0012752 0.012867 -0.00012198 0.011616 0.015958 0.026978
-0.027947 0.0042727 -0.2676 -0.12949
560000000 -0.31986 0.10813 -0.023091 -0.065395 -0.00024445 0.013374 0.0046807 0.011408
0.010813 0.0055436 0.0092072 0.0096192
-0.022996 -0.065634 -0.37522 0.096637 -0.041984 -0.03851 0.013812 0.0038187
-0.01304 -0.0033321 0.0041987 -0.0016579
-0.00026722 0.013307 -0.042046 -0.038405 -0.18617 0.2493 -0.00019349 -0.0044832
0.018673 0.0045757 0.0077497 -0.0052902
0.004553 0.012041 0.014165 0.003794 -0.00017736 -0.0045429 -0.30823 0.1343
0.0069233 -0.023272 0.0052404 -0.020969
0.010246 0.0051949 -0.012869 -0.0043066 0.01893 0.0054365 0.0065771 -0.023375
-0.3096 -0.026474 0.0081799 -0.049893
0.00969 0.0088634 0.0044032 -0.00081502 0.0072013 -0.0053922 0.0052437 -0.021362
0.0091542 -0.049939 -0.3311 0.017897
620000000 -0.27946 0.088729 -0.02371 0.0093953 0.0041465 0.0096909 0.0081072 -0.0042912
0.01145 -0.0017063 0.00081128 -0.0022109
-0.023785 0.009288 -0.40416 0.044955 -0.018157 0.00092214 -0.0014384 -0.002201
0.012665 -0.005679 0.00097187 -0.0032753
0.0042055 0.0099388 -0.018271 0.001003 -0.15598 0.25871 -0.00077457 -0.0048789
-0.0036385 -0.0033271 0.010225 -0.0024119
0.0084506 -0.00407 -0.0014533 -0.0019433 -0.00070052 -0.0048493 -0.26603 0.14369
-0.038506 -0.019662 0.012115 0.028138
0.012006 -0.0018753 0.01242 -0.0061669 -0.0034783 -0.0032873 -0.038728 -0.018589
-0.23046 -0.05915 -0.040816 0.010582
0.00056399 -0.0014779 0.001371 -0.0027653 0.0097639 -0.0022594 0.012625 0.026572
-0.040252 0.010388 -0.25196 -0.016361
680000000 -0.24188 0.18093 -0.026236 -0.014757 0.0053219 0.0054021 0.0012158 -0.007375
-0.0010736 -0.011522 0.0055172 -0.0073449
-0.026247 -0.014785 -0.39111 0.14716 -0.032322 -0.0022339 -0.0016809 -0.00035329
-0.0011859 -0.0092131 -0.00063898 -0.001832
0.0051853 0.0053119 -0.032395 -0.0021879 -0.10467 0.2799 -0.00089276 -0.00044033
-0.0012082 0.0001091 -0.0025497 -0.0093169
0.0012996 -0.00716 -0.0016035 -0.00037961 -0.00099159 -0.00035887 -0.22114 0.1966
-0.023209 -0.0075819 -0.0085995 -0.012115
-0.0012822 -0.012045 -0.0014614 -0.0093792 -0.0013435 0.00017756 -0.023534 -0.0069587
-0.28197 0.045627 -0.0061826 -0.0074393
0.0049805 -0.0072363 -0.0010112 -0.0016092 -0.0025498 -0.0093063 -0.0084653 -0.012263
-0.0061255 -0.0068712 -0.26075 0.087577
740000000 -0.19476 0.17485 -0.04004 0.027076 0.014291 -0.004504 0.00037876 -0.0042998
-0.0046554 -0.002724 -0.0065873 0.0026165
-0.040031 0.027111 -0.33589 0.16586 -0.037347 0.034655 0.00066873 -0.0063726
-0.013394 0.0072729 -0.00063224 -0.0063296
0.014123 -0.0045572 -0.037246 0.034705 -0.070239 0.27618 -0.0017158 0.0035528
-0.0022611 -0.0061002 -0.0013622 0.0010297
4.043e-05 -0.0044922 0.00019399 -0.0062535 -0.0020127 0.0032847 -0.20373 0.20374
-0.04328 -0.0085163 0.022924 0.01561
-0.0045 -0.0024764 -0.013067 0.0070538 -0.0024835 -0.0058871 -0.042471 -0.0081977
-0.17927 0.075696 -0.044144 -7.5974e-06
-0.0062221 0.0024719 -0.00074643 -0.0058516 -0.0016924 0.00084954 0.022724 0.016161
-0.044572 -0.00017904 -0.24893 0.093718
800000000 -0.1637 0.21882 -0.022117 0.016217 0.005963 -0.01076 -0.0043295 -0.0024545
-0.0045191 0.0019275 0.0045776 0.00010321
-0.022136 0.016337 -0.34247 0.23671 -0.0085035 0.034105 -0.0020559 0.0020031
-0.0012184 0.0024563 0.00075767 0.0054787
0.005966 -0.010804 -0.0084128 0.034087 -0.032216 0.30076 0.00080204 0.0014502
4.2331e-05 0.0032502 -0.0017356 0.0010758
-0.0041761 -0.0024383 -0.0021014 0.0019733 0.00081599 0.0014579 -0.17471 0.23117
-0.028422 0.012797 0.014701 -0.0099464
-0.0046279 0.0020876 -0.0013638 0.0025039 4.8729e-06 0.0033435 -0.02783 0.013036
-0.22496 0.10161 -0.017679 0.019449
0.0046479 0.00015575 0.0010836 0.0052776 -0.0017169 0.00085844 0.013897 -0.010451
-0.017656 0.019366 -0.24333 0.14464
860000000 -0.12875 0.23915 -0.017827 0.030371 -0.0027615 -0.010462 -0.0018367 0.0004987
0.0037181 0.0054252 -0.0037556 -0.0030558
-0.017853 0.030267 -0.29426 0.27971 0.007252 0.034545 3.8157e-05 0.0021502
0.0033035 0.00085313 0.0028777 6.4e-05
-0.0028327 -0.010512 0.0073382 0.034605 0.015271 0.30933 -0.00066768 3.9061e-05
0.0023137 -0.0014735 0.0014528 0.0039301
-0.0017674 0.00065185 4.7874e-06 0.0021483 -0.00059162 1.2294e-05 -0.13763 0.24236
-0.018207 0.017807 -0.0062555 -0.0092967
0.0037506 0.0055333 0.0034483 0.00089569 0.0023377 -0.001385 -0.018266 0.018033
-0.16858 0.15731 -0.025282 0.01607
-0.0036665 -0.0031337 0.0032221 0.00010772 0.0016741 0.0040551 -0.0061091 -0.0093017
-0.025011 0.015795 -0.1924 0.1891
920000000 -0.10591 0.26199 0.0045726 0.038506 -0.009326 -0.0053112 -0.0020137 0.0016012
0.00084349 0.0023125 0.0028513 -0.0012486
0.0046333 0.038469 -0.26719 0.3012 0.028261 0.023076 0.0012973 0.0014225
0.0076306 0.00035259 0.0044841 -0.0027401
-0.0093813 -0.0052423 0.028337 0.023014 0.060282 0.31079 0.0018774 9.2026e-05
0.0011336 -0.00028538 0.00097893 -0.0012392
-0.0021604 0.0015689 0.0013157 0.0012829 0.00191 0.00010482 -0.1136 0.2587
-0.010965 0.030631 0.0040126 -0.0065161
0.00071168 0.0023452 0.007574 0.00040478 0.00103 -0.00023242 -0.011057 0.030803
-0.15745 0.16176 -0.00073488 0.026991
0.0028643 -0.0012892 0.0047332 -0.0028885 0.00099419 -0.0012595 0.0040188 -0.0066205
-0.00074258 0.027126 -0.2004 0.20236
980000000 -0.059604 0.28287 0.016522 0.030198 -0.0096698 0.0041646 0.0018373 0.0035855
0.0036313 -0.0016641 -0.0030124 -0.0023031
0.016549 0.030222 -0.21467 0.33649 0.033506 0.0057082 0.0020435 -0.00011712
0.0014908 -0.0063969 -0.00032091 -0.0025344
-0.0096581 0.0042165 0.033597 0.0056133 0.10603 0.30585 0.0008079 -0.001058
0.0004454 -0.0019981 0.0014249 -0.00017319
0.0017588 0.0036738 0.0020247 -9.7093e-05 0.00084331 -0.0010418 -0.07497 0.26958
0.0074656 0.029701 -0.0093806 -0.0074708
0.0037841 -0.0015995 0.0015966 -0.0061829 0.00045956 -0.0018705 0.0076104 0.029581
-0.12457 0.19049 0.0055615 0.019535
-0.0031019 -0.0023642 -0.00035176 -0.0026183 0.0014111 -0.00013003 -0.009341 -0.007435
0.0055169 0.019513 -0.15938 0.2472
1040000000 -0.018457 0.29172 0.03291 0.019284 -0.0017849 0.0071075 0.0026385 0.00078041
0.00038358 -0.0034564 -0.00042232 -0.0015413
0.032883 0.019266 -0.17966 0.34986 0.030322 -0.014532 0.0016982 -0.0017416
-0.0022846 -0.0026498 -0.001144 -0.0029221
-0.0017484 0.0071097 0.030291 -0.014677 0.15218 0.29292 -0.00041659 -0.0017287
-0.0016488 -0.00089039 -0.00066479 -0.00097564
0.0026668 0.00078523 0.0016839 -0.0016828 -0.00038585 -0.0017193 -0.047996 0.27916
0.019262 0.019149 -0.0025629 0.0011725
0.00035224 -0.0034042 -0.0023034 -0.0026864 -0.0016407 -0.00091502 0.019295 0.019005
-0.091312 0.19859 0.014174 0.019052
-0.00034072 -0.0014937 -0.0012904 -0.0029466 -0.00065519 -0.0010232 -0.0026702 0.0010404
0.013947 0.019079 -0.1366 0.26802
1100000000 0.026172 0.30169 0.036659 -0.0031887 0.0027281 0.0043169 0.0024945 -0.00083906
-0.0021983 -0.0030976 -0.0039513 0.00016956
0.036628 -0.0031842 -0.13692 0.36873 0.016249 -0.028171 0.00011943 -0.0017755
-0.0036487 -0.0011144 -0.0035289 -0.00048383
0.0027504 0.0042789 0.01616 -0.028244 0.1982 0.27405 -0.0019532 0.00011925
-0.001909 0.00034128 -0.0013885 -0.0003903
0.0024796 -0.00084392 7.6533e-05 -0.0017934 -0.0019978 0.00014282 -0.0082285 0.28457
0.024824 0.0057328 -0.002472 0.00015522
-0.0022471 -0.0029706 -0.0036851 -0.0010137 -0.0019494 0.00036249 0.025027 0.0057056
-0.071661 0.2121 0.019674 0.0092736
-0.0040183 -6.5615e-05 -0.0035914 -0.00050331 -0.0013672 -0.00043493 -0.0024791 7.6289e-05
0.019701 0.0091903 -0.090811 0.29822
1160000000 0.077301 0.29831 0.024816 -0.020459 0.0027825 -0.00032979 -8.6874e-05 -0.0023404
-0.0039825 -0.00098658 -0.0010974 0.0040797
0.024829 -0.020421 -0.093567 0.37388 -0.0031565 -0.029902 -0.0017522 -0.0017498
-0.0029835 0.0025255 -0.0014857 0.0019855
0.0027895 -0.00035339 -0.0033203 -0.029881 0.24199 0.24402 -0.00092342 0.0017928
-0.00065009 0.0020797 -0.001024 0.00033892
-4.9645e-05 -0.0023622 -0.0017081 -0.0017702 -0.00090311 0.0017892 0.031109 0.28219
0.021432 -0.010366 -0.0031929 0.0051481
-0.004034 -0.00092123 -0.0029589 0.0025583 -0.0006069 0.002071 0.021333 -0.010371
-0.037059 0.22 0.018944 -0.0002775
-0.001127 0.004259 -0.0014686 0.0019742 -0.00089278 0.00033772 -0.0031735 0.0050583
0.018848 -0.00030473 -0.043733 0.30061
1220000000 0.12097 0.2889 0.011279 -0.030417 -0.0015912 -0.00091511 0.00015456 -0.00087984
-0.0027542 0.0021333 0.00096262 0.0021655
0.01129 -0.030359 -0.049435 0.38738 -0.01711 -0.022276 -0.0026611 0.0004825
-4.4851e-05 0.003178 -0.00078204 0.001978
-0.0015968 -0.00089802 -0.017227 -0.022223 0.28107 0.20528 0.00076811 0.0018646
0.0005587 0.0012773 0.00043812 0.00064092
0.00017239 -0.00089776 -0.0026677 0.00049993 0.00070992 0.0018558 0.071157 0.27389
0.011089 -0.017346 0.0020627 0.0014773
-0.0027739 0.0021589 -3.8648e-05 0.0032275 0.00058633 0.0012705 0.011125 -0.017258
-0.013989 0.22926 0.014282 -0.013273
0.0010822 0.002049 -0.00083939 0.0019945 0.00036506 0.00065442 0.0021245 0.0013817
0.014358 -0.013293 -0.013094 0.31676
1280000000 0.17173 0.2694 -0.0077034 -0.029158 -0.0020405 0.0026033 -0.0008118 -0.0021718
-0.0008581 0.0031948 0.0023786 0.0013315
-0.0076678 -0.029136 -0.0029474 0.37973 -0.02456 -0.0091619 -0.0010187 0.0015192
0.0018561 0.0018523 0.0004792 0.0021256
-0.0020221 0.0025903 -0.024649 -0.0090338 0.3118 0.1623 0.0016745 9.1083e-05
0.0013566 0.0003118 0.00034485 0.00011566
-0.00081686 -0.0021767 -0.00097244 0.001532 0.0016877 8.4182e-05 0.10818 0.25822
0.0010595 -0.019731 -0.00019133 0.00020621
-0.00085407 0.0032189 0.001914 0.0017926 0.0013138 0.00027514 0.0010892 -0.019718
0.022456 0.23331 0.0031082 -0.015609
0.0024956 0.0013688 0.00063289 0.0020459 0.00041769 0.00012559 -0.00014699 0.00021648
0.0032159 -0.015638 0.034353 0.31976
1340000000 0.20949 0.23665 -0.017745 -0.019462 0.00076332 0.0048646 -0.0018657 -0.00095532
0.0013305 0.0028098 0.0019771 -0.0013251
-0.017722 -0.01943 0.036985 0.37225 -0.022391 0.0042333 -0.00012978 0.0020383
0.0021217 0.00072917 0.0012155 0.00079911
0.00080517 0.0048563 -0.022406 0.0043415 0.33407 0.11493 0.0011423 -0.0010046
0.00071412 -0.00066043 0.00015754 0.00015545
-0.0018554 -0.00093492 -0.00011393 0.0020634 0.0011434 -0.0010238 0.14168 0.23764
-0.0086114 -0.016959 0.00063648 0.00064653
0.0014196 0.0027955 0.0021257 0.00072704 0.00068917 -0.00070314 -0.0086756 -0.016986
0.052612 0.2289 -0.0040717 -0.01445
0.0019005 -0.001359 0.0012619 0.00078597 0.00010834 0.00020508 0.00064783 0.00054438
-0.0040954 -0.01439 0.072321 0.31496
1400000000 0.24376 0.19994 -0.023834 -0.0076138 0.0055018 0.0035928 -0.0023137 0.00061158
0.0025634 0.0010936 0.00036842 -0.00162
-0.023801 -0.0076357 0.074645 0.36002 -0.015562 0.012859 0.0014037 0.0012743
0.0012994 -0.0009168 0.0011955 0.0001735
0.005519 0.003582 -0.015537 0.012952 0.34712 0.062309 0.00011469 -0.0017228
6.6131e-05 -0.00040468 0.00028922 0.00028694
-0.0023046 0.00059836 0.0014005 0.0013073 0.00012078 -0.0017086 0.17124 0.20884
-0.014905 -0.010004 -0.00090017 -0.0001164
0.0025658 0.0010623 0.0012812 -0.00091351 0.00010292 -0.0004211 -0.014958 -0.0099151
0.085613 0.22534 -0.010504 -0.0090251
0.00037036 -0.001661 0.0012031 9.8852e-05 0.0003141 0.00020959 -0.00074813 -4.4559e-05
-0.010455 -0.009053 0.11672 0.30449
1460000000 0.26783 0.15657 -0.020647 0.0049302 0.0061337 -0.0017203 -0.0015804 0.0019161
0.0022672 -0.00037477 -0.00030109 -0.0011801
-0.02063 0.004923 0.10968 0.33846 -0.0062184 0.016162 0.0017614 0.0001531
0.0009035 -0.0014498 0.0012943 -0.00057345
0.0061364 -0.0017597 -0.0061425 0.016197 0.35421 0.0089867 -0.0013604 -0.0013048
0.00011773 -0.00025982 0.00061632 -0.00027541
-0.0015784 0.00192 0.0017587 0.00015533 -0.0013401 -0.0013282 0.19835 0.17952
-0.016142 -0.0030246 -0.00074743 0.0021556
0.0023181 -0.00042503 0.00089566 -0.001466 0.00016227 -0.0002526 -0.016148 -0.002985
0.11561 0.21198 -0.012402 -0.0029426
-0.00031117 -0.0011361 0.0012882 -0.00057977 0.00072951 -0.00026146 -0.00077011 0.0021213
-0.012354 -0.0029126 0.15024 0.28462
1520000000 0.28091 0.11481 -0.014843 0.010449 0.0037953 -0.004582 0.00012613 0.0027458
0.0022114 -0.0019719 -0.0013101 -9.2666e-05
-0.014844 0.010436 0.14346 0.32407 0.0019339 0.013699 0.0016268 -0.00075831
-1.5699e-05 -0.0010812 0.00035452 -0.0010589
0.0037606 -0.004582 0.0020053 0.013689 0.34808 -0.046949 -0.0011776 -0.00035232
0.00076692 -0.00084477 0.0001121 -0.00021594
0.0001392 0.0027494 0.001636 -0.00076055 -0.0011501 -0.00034949 0.22166 0.14083
-0.015291 0.0031102 0.0016867 0.0021509
0.0022152 -0.0019642 -3.9864e-05 -0.0010724 0.00071444 -0.00086031 -0.015243 0.0031247
0.14385 0.19884 -0.012231 0.001961
-0.0012259 -0.00015491 0.00033697 -0.0010889 0.00018594 -0.00020488 0.0016645 0.0021768
-0.012257 0.001885 0.18334 0.26433
1580000000 0.29139 0.069182 -0.0079656 0.013742 -0.00095261 -0.005354 0.0015959 0.0019266
-7.8837e-05 -0.002237 -0.00023354 0.00032647
-0.0079802 0.013714 0.17106 0.29982 0.005778 0.0084835 0.00051647 -0.0015626
-0.00054562 -0.0009305 -0.00014646 -0.00089661
-0.0009213 -0.0053646 0.005817 0.008478 0.329 -0.10415 -0.0015896 0.00067405
-0.00031483 -0.0010764 0.00030221 -0.00062705
0.0016167 0.0019198 0.00049422 -0.001561 -0.0015875 0.000702 0.23557 0.10154
-0.011454 0.0079822 0.0022902 0.00080544
-0.00010569 -0.0022616 -0.00055086 -0.00094358 -0.00032475 -0.0011009 -0.011464 0.0079992
0.16906 0.18177 -0.0095982 0.0077091
-0.00026071 0.00032621 -0.00020324 -0.0009251 0.00026975 -0.00054532 0.0023519 0.00074653
-0.0095641 0.0077294 0.21536 0.23859
1640000000 0.29426 0.027407 -0.0010976 0.012297 -0.0031284 -0.0027989 0.0027221 0.0010387
-0.00077777 -0.0016515 -0.00035068 0.00062865
-0.0011249 0.012291 0.20113 0.27504 0.0063742 0.0032466 -0.00061015 -0.0017822
-0.0009574 -0.00035202 -0.00055159 -0.00073931
-0.0031631 -0.0027945 0.0063813 0.0032231 0.30124 -0.15412 -0.00061462 0.0014904
-0.0011321 -0.0009829 -0.00032887 -0.00033757
0.0027338 0.0010185 -0.00062592 -0.0017997 -0.0006027 0.0015035 0.24814 0.052254
-0.0070329 0.0093045 0.0026237 -0.00075889
-0.00082287 -0.0016976 -0.00096106 -0.00036362 -0.0011621 -0.0010285 -0.0069747 0.0093204
0.19276 0.15803 -0.0045703 0.010045
-0.00032112 0.00057587 -0.00051075 -0.00071756 -0.0003247 -0.00030103 0.0025416 -0.00087403
-0.004649 0.0099738 0.2416 0.20775
1700000000 0.2873 -0.017747 0.002254 0.0093429 -0.0039299 -6.091e-06 0.0032495 -0.0013071
-0.0021035 -0.00067835 0.00055117 0.00041587
0.0022497 0.0093153 0.2193 0.24391 0.0041716 0.00017473 -0.0014151 -0.00061639
-0.0007501 -3.0899e-05 -0.00093335 -0.00050403
-0.0039608 1.7404e-05 0.0041719 0.00017282 0.2582 -0.19355 0.00051547 0.001625
-0.0019549 -0.00014118 -0.00057134 -0.00096654
0.0031729 -0.0013149 -0.0014423 -0.00060731 0.00052948 0.0016001 0.24449 0.0024182
-0.0041372 0.0096008 0.0016099 -0.0021712
-0.0021604 -0.00074465 -0.00074812 -5.3623e-05 -0.0019688 -0.00018293 -0.0041072 0.0096546
0.2105 0.1382 0.00027559 0.0099144
0.00049748 0.00043311 -0.00095998 -0.00051656 -0.00053565 -0.00093345 0.001634 -0.0022457
0.0003492 0.0099509 0.25811 0.1741
1760000000 0.27608 -0.066208 0.0044601 0.0059215 -0.0025279 0.0010079 0.001218 -0.0035243
-0.0013998 0.00061597 0.00018133 -0.00055044
0.0044581 0.0059167 0.24607 0.20454 0.0016662 -0.0018308 -0.0012226 0.00013416
-0.001047 0.00079934 -0.00067977 0.00033471
-0.0025175 0.0010277 0.0016584 -0.001868 0.21071 -0.22746 0.001032 0.0010942
-0.0013612 0.001519 -0.001152 -0.00066841
0.0012856 -0.0035611 -0.0012201 0.00013187 0.00099232 0.0010983 0.23587 -0.048853
-0.0007998 0.0086406 -0.00011344 -0.0024664
-0.0013692 0.00061807 -0.0010405 0.00083879 -0.0013346 0.0014744 -0.00080845 0.0086641
0.22629 0.10391 0.0043116 0.0075081
0.00025196 -0.00061993 -0.0006083 0.00032722 -0.0011967 -0.00069873 -0.00021347 -0.0025152
0.0043177 0.0073999 0.27197 0.13705
1820000000 0.25218 -0.10385 0.0045405 0.0024057 -0.00015953 0.0026457 -0.0010055 -0.0031972
-0.0012061 0.00095698 -0.00022515 -0.00018161
0.0045382 0.0024021 0.25658 0.17448 -0.00082229 -0.00031182 -0.0013416 0.00086839
-0.00019088 0.0011563 -0.00067121 0.00052784
-0.00013968 0.0026664 -0.00083404 -0.00031141 0.15934 -0.24352 0.0016321 0.00052841
-0.00031828 0.0023696 -0.0015112 0.00040434
-0.00099662 -0.003199 -0.0013576 0.00086492 0.0016535 0.00048276 0.20567 -0.096323
0.00071105 0.0071863 -0.0016411 -0.0017519
-0.0011637 0.0010053 -0.00015608 0.001146 -0.00028398 0.0023927 0.0007005 0.0071782
0.24401 0.075114 0.005478 0.0035215
-0.00020166 -0.00011503 -0.00067036 0.00052948 -0.0014907 0.00035534 -0.0016414 -0.0015864
0.0055033 0.0036377 0.27442 0.10042
1880000000 0.21721 -0.1441 0.0021087 0.00012639 -0.00064499 0.0024464 -0.0030752 -0.0023647
-0.00018963 0.0017538 0.00012376 -0.00051623
0.0021045 0.00012674 0.26143 0.12817 -0.0028692 0.0016103 -0.00026147 0.0017049
0.00048818 0.0013462 -3.3168e-05 0.0010163
-0.00063115 0.0023834 -0.0028448 0.0016044 0.1072 -0.25254 0.0018227 -0.0010172
0.001551 0.0020423 -0.0011827 0.001515
-0.003115 -0.0022406 -0.00029207 0.0017331 0.0017818 -0.00097905 0.16507 -0.13667
0.0014231 0.004819 -0.0024413 0.00026253
-0.00022341 0.0018064 0.00045248 0.0013287 0.0015041 0.0020084 0.0015955 0.0048782
0.24848 0.043963 0.0054432 0.001152
0.00022115 -0.00045072 1.1671e-05 0.0010828 -0.0010261 0.0014965 -0.002302 -1.9676e-05
0.005464 0.0010856 0.27491 0.067001
1940000000 0.17831 -0.17027 -0.00026712 -0.0015085 0.0014448 0.0020337 -0.0039528 0.00051858
0.0011602 0.0010986 -0.00051416 -0.00051863
-0.00026292 -0.0015308 0.26283 0.096058 -0.0013993 0.0040721 0.00086627 0.001442
0.0017119 0.0006814 0.0010024 0.00052583
0.0014551 0.0020386 -0.0013566 0.0040998 0.062438 -0.24605 0.0003648 -0.0022497
0.0022613 0.00049141 0.00051397 0.0019684
-0.0039696 0.00055797 0.00089884 0.0014386 0.0003798 -0.0022191 0.1127 -0.16752
0.00058752 0.0036242 -0.0016795 0.0011409
0.0012453 0.0010946 0.0017712 0.00063825 0.0023583 0.00043402 0.00049378 0.0035981
0.25203 0.0056456 0.0042364 -0.0024983
-0.00051953 -0.00049283 0.00095958 0.00050878 0.00048097 0.0018466 -0.001653 0.0013508
0.00419 -0.0024349 0.26477 0.030418
2000000000 0.13231 -0.1852 -0.0040883 0.00088915 0.0026913 0.0017831 -0.002154 0.0038503
0.0012441 0.00048155 -0.00046084 0.00045079
-0.004078 0.00087878 0.24866 0.060422 -0.0010088 0.0061038 0.0017119 0.00060121
0.0013641 -0.00098917 0.00064854 0.00025894
0.0027101 0.0017624 -0.0010005 0.0060918 0.018568 -0.23184 -0.00097715 -0.0014853
0.00214 -0.0010593 0.0018581 0.0015035
-0.0021164 0.0038275 0.0016875 0.00056925 -0.0010621 -0.0015178 0.058689 -0.17726
-0.0011535 0.0033784 -0.00034451 0.0024875
0.0013439 0.00044192 0.0013844 -0.00099718 0.0021541 -0.001064 -0.0010889 0.0033406
0.24723 -0.027619 0.00037067 -0.0033363
