!Keysight Technologies,M9804A,MY58100912,A.14.10.03
!Date: Thursday, April 27, 2023 10:28:33
!Correction: S11(C  6-Port  ) 
!S12(C  6-Port  ) 
!S13(C  6-Port  ) 
!S14(C  6-Port  ) 
!S15(C  6-Port  ) 
!S16(C  6-Port  ) 
!S21(C  6-Port  ) 
!S22(C  6-Port  ) 
!S23(C  6-Port  ) 
!S24(C  6-Port  ) 
!S25(C  6-Port  ) 
!S26(C  6-Port  ) 
!S31(C  6-Port  ) 
!S32(C  6-Port  ) 
!S33(C  6-Port  ) 
!S34(C  6-Port  ) 
!S35(C  6-Port  ) 
!S36(C  6-Port  ) 
!S41(C  6-Port  ) 
!S42(C  6-Port  ) 
!S43(C  6-Port  ) 
!S44(C  6-Port  ) 
!S45(C  6-Port  ) 
!S46(C  6-Port  ) 
!S51(C  6-Port  ) 
!S52(C  6-Port  ) 
!S53(C  6-Port  ) 
!S54(C  6-Port  ) 
!S55(C  6-Port  ) 
!S56(C  6-Port  ) 
!S61(C  6-Port  ) 
!S62(C  6-Port  ) 
!S63(C  6-Port  ) 
!S64(C  6-Port  ) 
!S65(C  6-Port  ) 
!S66(C  6-Port  ) 
!S6P File: Measurement: :
# Hz S  RI   R 50
500000000 -0.33479 -0.057391 -0.010313 -0.0010289 -0.009074 0.013095 -0.003438 0.012492
0.013931 0.0055445 -0.0032091 0.0094126
-0.010376 -0.00093548 -0.41584 -0.066451 0.0073641 -0.010311 0.0021506 0.011324
0.0076597 0.0033012 0.0024294 0.013206
-0.00902 0.013327 0.0074335 -0.010327 -0.26838 0.19758 0.0068276 0.0029047
-0.0023012 0.0091677 0.00081442 0.011432
-0.0032465 0.012515 0.0020457 0.011355 0.0067819 0.0028644 -0.33106 0.042561
-0.020011 -0.0057869 0.016313 0.026825
0.013913 0.0052256 0.0076188 0.0033473 -0.0023056 0.0091571 -0.020102 -0.0057739
-0.2417 -0.20178 -0.02864 0.0029875
-0.0025226 0.009331 0.0022638 0.012996 0.00075438 0.011285 0.01633 0.026855
-0.02869 0.0030555 -0.27104 -0.12705
560000000 -0.31923 0.10845 -0.023725 -0.064981 0.00062056 0.012747 0.0056445 0.010459
0.010419 0.0040915 0.010139 0.0095023
-0.023422 -0.065091 -0.37489 0.097259 -0.042547 -0.038165 0.013903 0.0035576
-0.012957 -0.0034212 0.0033865 -0.0012827
0.0005905 0.012919 -0.042488 -0.038045 -0.18601 0.24901 -0.00060708 -0.004903
0.01765 0.0053386 0.0068267 -0.0059201
0.0055667 0.010367 0.014018 0.0037887 -0.00067399 -0.0049069 -0.30768 0.13521
0.0067488 -0.023639 0.0054428 -0.022395
0.0099763 0.0044961 -0.01233 -0.0036278 0.017574 0.0055776 0.0067903 -0.023746
-0.30866 -0.025177 0.0099082 -0.048451
0.010118 0.0089451 0.0032605 -0.0011532 0.0069293 -0.006058 0.0053196 -0.022418
0.0098777 -0.048377 -0.33116 0.018407
620000000 -0.27791 0.089849 -0.022871 0.0088946 0.0041917 0.0094436 0.0086991 -0.004407
0.01237 -0.0018267 0.001156 -0.0035979
-0.022889 0.0088887 -0.40341 0.045616 -0.018341 0.00073689 -0.001614 -0.0019461
0.012457 -0.0062514 0.00064951 -0.003392
0.0041202 0.0093736 -0.01832 0.00078341 -0.15596 0.25831 -0.0005891 -0.0050901
-0.0034262 -0.003895 0.0095705 -0.0026512
0.0087305 -0.0043131 -0.0016363 -0.0019899 -0.00065505 -0.0050832 -0.26517 0.1447
-0.039549 -0.019956 0.014064 0.027658
0.01234 -0.0021038 0.012287 -0.0062582 -0.0033798 -0.0037715 -0.039366 -0.020116
-0.22829 -0.054509 -0.044085 0.012072
0.00066645 -0.0039225 0.00064499 -0.0032871 0.0096494 -0.0026156 0.013681 0.027508
-0.043992 0.012396 -0.24999 -0.011514
680000000 -0.24078 0.18186 -0.026549 -0.014636 0.0049801 0.0053348 0.00041087 -0.0073185
-0.00098403 -0.011588 0.0049225 -0.0062037
-0.026521 -0.014695 -0.39103 0.14743 -0.032544 -0.0021337 -0.0019966 -0.00037855
-0.0010947 -0.0090955 -0.00076951 -0.0018213
0.0049932 0.0052898 -0.032527 -0.0020238 -0.10474 0.27989 -0.0011322 -7.8421e-05
-0.0013996 0.00056726 -0.0024527 -0.0088548
0.00039831 -0.0073553 -0.0019907 -0.00036615 -0.0011726 -8.3885e-05 -0.22099 0.19605
-0.023358 -0.0083572 -0.0099373 -0.012231
-0.00093199 -0.011509 -0.0012407 -0.0090946 -0.0014011 0.00054068 -0.023299 -0.0082592
-0.27996 0.047661 -0.0053422 -0.0081804
0.0052681 -0.0060875 -0.000781 -0.001793 -0.0024669 -0.0088285 -0.0097897 -0.012165
-0.0055086 -0.0081957 -0.26186 0.087336
740000000 -0.19381 0.17457 -0.039988 0.026987 0.013898 -0.0050331 0.00014841 -0.0041621
-0.0051297 -0.003625 -0.0061641 0.0026437
-0.03999 0.026924 -0.33666 0.16568 -0.037093 0.0347 0.00010801 -0.00601
-0.012392 0.0070198 -0.0011642 -0.0062857
0.013845 -0.0051308 -0.037006 0.034823 -0.070915 0.2764 -0.0018048 0.0030869
-0.0028965 -0.0056482 -0.0016409 0.00063983
0.00023589 -0.0042504 4.4453e-05 -0.0060537 -0.0017433 0.00309 -0.20374 0.20414
-0.042274 -0.0092892 0.022779 0.016603
-0.0049253 -0.0039273 -0.01245 0.0071512 -0.0028074 -0.0056608 -0.042346 -0.009209
-0.18116 0.076038 -0.041563 -0.00023503
-0.00615 0.0028548 -0.00098777 -0.0063663 -0.001675 0.00077379 0.02281 0.016551
-0.04158 -0.00026859 -0.24989 0.097013
800000000 -0.16363 0.21908 -0.022765 0.016414 0.0060742 -0.010392 -0.0048313 -0.0021207
-0.0042186 0.0022389 0.0041228 0.0011441
-0.022828 0.016392 -0.3429 0.23735 -0.0087621 0.034474 -0.0022764 0.0020496
-0.0010508 0.0031691 0.00093779 0.0056998
0.006034 -0.010481 -0.0086601 0.034521 -0.032327 0.30133 0.00078371 0.0015083
0.00012536 0.0036896 -0.0019247 0.0012393
-0.0048242 -0.0021459 -0.0023146 0.0020463 0.00076838 0.0015122 -0.17476 0.2307
-0.028581 0.013425 0.013486 -0.010242
-0.0042909 0.0023406 -0.0010508 0.0031646 0.000162 0.0037252 -0.028582 0.013448
-0.22485 0.10308 -0.017188 0.021385
0.004206 0.0010387 0.0010187 0.0056092 -0.0018748 0.0012101 0.013463 -0.010269
-0.017256 0.021344 -0.24346 0.14595
860000000 -0.12854 0.23979 -0.018162 0.030642 -0.0029692 -0.010221 -0.001877 0.00029088
0.0040094 0.0050825 -0.0039567 -0.0023323
-0.01812 0.03062 -0.2943 0.28074 0.0071387 0.035012 -0.00024859 0.0020091
0.0037346 0.00062702 0.0027743 0.00076168
-0.0029967 -0.010228 0.0072955 0.035002 0.015195 0.31003 -0.00063573 -0.00020496
0.0022587 -0.0013414 0.0015177 0.0043701
-0.0018556 0.00044928 -0.00028146 0.0020503 -0.00062675 -0.00019424 -0.13787 0.24181
-0.018694 0.018074 -0.0054639 -0.0087706
0.0040766 0.0050752 0.0036187 0.00052095 0.0022575 -0.0013784 -0.018638 0.018145
-0.16809 0.15499 -0.024043 0.017148
-0.0041213 -0.0026934 0.0027695 0.00073136 0.0014979 0.0043108 -0.0054914 -0.0089224
-0.024068 0.017076 -0.19342 0.18993
920000000 -0.10563 0.26241 0.004474 0.038556 -0.0094472 -0.0052768 -0.0018793 0.0019621
0.0009278 0.0022127 0.003077 -0.0010569
0.0044514 0.038518 -0.26705 0.30181 0.028287 0.023264 0.0014706 0.0012916
0.0076156 0.00040676 0.004511 -0.0025419
-0.0094662 -0.0052617 0.028384 0.023192 0.060531 0.31136 0.0019638 9.1987e-05
0.00082512 -0.00012142 0.0011651 -0.0012192
-0.0019309 0.0019655 0.0015082 0.0012597 0.0019826 0.00010577 -0.11405 0.25888
-0.011342 0.03137 0.0040206 -0.0067328
0.00088459 0.0021726 0.0076186 0.00043749 0.00081801 -9.7684e-05 -0.011265 0.031418
-0.15732 0.16097 -0.001498 0.027559
0.0030484 -0.0010822 0.0045089 -0.0025245 0.0011449 -0.0012193 0.0040291 -0.0067279
-0.0015179 0.027539 -0.19819 0.20364
980000000 -0.058763 0.28359 0.0168 0.030498 -0.0095881 0.0041878 0.0017418 0.0035788
0.003961 -0.0014277 -0.003206 -0.0024807
0.016753 0.030505 -0.21434 0.33717 0.033762 0.0056434 0.0021543 -0.00011272
0.0019272 -0.0061005 -0.00011325 -0.0027816
-0.0095729 0.004227 0.033796 0.0055202 0.10648 0.30616 0.00083561 -0.0011613
0.0005698 -0.0018894 0.0016336 -0.00020591
0.0017363 0.0035743 0.0021451 -8.0412e-05 0.00083108 -0.0011638 -0.075587 0.27003
0.0074282 0.030054 -0.0094615 -0.0077808
0.0040112 -0.0013925 0.0017941 -0.0061182 0.00055781 -0.0018975 0.0074594 0.030042
-0.12373 0.19183 0.0051617 0.018616
-0.0032004 -0.0025214 -0.00015682 -0.0027515 0.0016165 -0.00017942 -0.0094178 -0.0077825
0.0051677 0.018653 -0.15921 0.24827
1040000000 -0.017789 0.29265 0.033251 0.019485 -0.0016123 0.0071713 0.0028438 0.00084305
0.00012266 -0.0037003 -6.3141e-05 -0.0015123
0.03321 0.019514 -0.17918 0.35051 0.030551 -0.014675 0.0017041 -0.0016729
-0.0023814 -0.0028061 -0.0011235 -0.0028901
-0.0015787 0.0071606 0.030536 -0.014786 0.15265 0.29321 -0.00049376 -0.0016224
-0.0016708 -0.00098063 -0.00061366 -0.0011692
0.0027856 0.00086169 0.0016975 -0.0017015 -0.00050256 -0.0016385 -0.04802 0.27987
0.019245 0.019132 -0.0027297 0.0013938
0.00017107 -0.0035488 -0.0023526 -0.0028117 -0.0016678 -0.00097453 0.019325 0.019108
-0.090737 0.19937 0.014007 0.018754
4.1907e-05 -0.0015253 -0.0011215 -0.0029665 -0.00059947 -0.0011662 -0.0026908 0.0014147
0.013946 0.018695 -0.13619 0.26907
1100000000 0.027115 0.30202 0.036878 -0.0032267 0.0028542 0.0042194 0.0024865 -0.0011064
-0.0021801 -0.0029212 -0.0039984 8.6344e-05
0.036835 -0.003233 -0.13634 0.36924 0.016292 -0.02836 -4.5012e-06 -0.0017995
-0.0035776 -0.00095621 -0.003544 -0.000447
0.0028832 0.0042208 0.016208 -0.028453 0.19874 0.2741 -0.0020037 0.00010016
-0.0019347 0.00041547 -0.0011798 -0.00043036
0.0024813 -0.0011365 -1.5311e-05 -0.0018166 -0.0020071 9.7913e-05 -0.0078748 0.28544
0.025191 0.0057974 -0.0025563 0.00015829
-0.0022644 -0.0029276 -0.0036266 -0.00093816 -0.0019158 0.00041145 0.025219 0.0057606
-0.071253 0.21312 0.019743 0.0088227
-0.0040027 0.00010619 -0.0035501 -0.00049971 -0.0011826 -0.00044693 -0.0025291 0.00015249
0.019727 0.0088487 -0.090033 0.29893
1160000000 0.078232 0.29874 0.025074 -0.020564 0.0028696 -0.00043315 -2.1442e-05 -0.0023821
-0.00408 -0.00079662 -0.0010849 0.0042352
0.025077 -0.020527 -0.09252 0.37432 -0.0032793 -0.03003 -0.0016596 -0.0016655
-0.0029655 0.0025692 -0.0016954 0.0017412
0.0028912 -0.00046929 -0.0034506 -0.030013 0.24241 0.24406 -0.00086813 0.0017747
-0.00062184 0.0021042 -0.00097011 0.00048635
-7.9179e-05 -0.0023642 -0.0016569 -0.0016699 -0.00085661 0.0017611 0.031845 0.28282
0.021791 -0.010425 -0.0034455 0.0052202
-0.0040635 -0.00078689 -0.0029158 0.0026333 -0.00062123 0.0021168 0.02178 -0.01047
-0.036529 0.22122 0.018811 -0.00067659
-0.00098691 0.0042291 -0.0017021 0.0017929 -0.00097433 0.00050325 -0.0034596 0.0052092
0.018803 -0.00067673 -0.042153 0.30242
1220000000 0.12205 0.28902 0.011402 -0.030599 -0.0015587 -0.0010071 2.795e-05 -0.00085248
-0.0027091 0.0022346 0.001192 0.0020826
0.011388 -0.030564 -0.048426 0.3877 -0.01722 -0.022332 -0.0027019 0.00056811
-6.9492e-05 0.0032065 -0.00078146 0.0020528
-0.0015676 -0.00098161 -0.017351 -0.022294 0.28157 0.20532 0.00071945 0.0017985
0.00061837 0.0012579 0.00024832 0.00067106
1.7859e-05 -0.0008992 -0.0026833 0.00057275 0.00072052 0.0018049 0.071991 0.2744
0.011177 -0.017525 0.0021571 0.0015376
-0.0027283 0.0022166 -3.3026e-05 0.0032007 0.00060677 0.0012646 0.011185 -0.017531
-0.012839 0.23045 0.014337 -0.013093
0.0011658 0.0021007 -0.00077319 0.0020677 0.00025308 0.00065882 0.002171 0.0015524
0.014329 -0.013076 -0.011652 0.31777
1280000000 0.17299 0.26931 -0.0075977 -0.029347 -0.002087 0.0024792 -0.00087826 -0.0020968
-0.00077885 0.0032486 0.0025504 0.0014434
-0.0075679 -0.029348 -0.0019501 0.37981 -0.024681 -0.0091162 -0.00096352 0.001413
0.0017509 0.0018029 0.000567 0.0021357
-0.0020903 0.0024718 -0.024753 -0.0090052 0.31223 0.16211 0.0016339 9.6507e-05
0.0012515 0.00029708 0.00032101 0.00033068
-0.0009087 -0.0020589 -0.00096904 0.001421 0.0016397 8.7626e-05 0.10932 0.25807
0.0012432 -0.020061 1.9282e-05 0.00035134
-0.00073803 0.0032451 0.0017752 0.0018089 0.0012664 0.00030454 0.0011946 -0.020085
0.023973 0.23431 0.0029916 -0.015749
0.0025933 0.0013829 0.00064077 0.0021391 0.00032487 0.0003236 4.4564e-05 0.00031199
0.0030094 -0.015761 0.035783 0.32034
1340000000 0.21063 0.23632 -0.017838 -0.019643 0.0006939 0.0047978 -0.0018211 -0.00083282
0.0013329 0.0027047 0.0017855 -0.0013102
-0.017819 -0.019621 0.037913 0.37201 -0.022343 0.0042367 -7.4751e-05 0.0020256
0.002047 0.00075676 0.0012654 0.00076309
0.00072253 0.0048078 -0.022372 0.0043579 0.33438 0.1148 0.0011017 -0.00092894
0.00069404 -0.00063462 9.7528e-05 0.00023505
-0.0018268 -0.00084482 -6.7711e-05 0.002054 0.0011017 -0.00092241 0.14243 0.23707
-0.0087344 -0.017204 0.00078899 0.00044806
0.0013666 0.0027235 0.0020322 0.00075524 0.00068652 -0.00062054 -0.0087504 -0.017192
0.054437 0.22985 -0.0038564 -0.014274
0.0017513 -0.0013288 0.001251 0.00075095 7.702e-05 0.00023854 0.00079508 0.00045941
-0.0038399 -0.014284 0.074214 0.31536
1400000000 0.24497 0.19913 -0.023985 -0.0077947 0.0054345 0.0035606 -0.002233 0.00058828
0.0025753 0.0010176 0.00047037 -0.0016075
-0.023957 -0.007799 0.075549 0.3597 -0.015494 0.012933 0.0013491 0.0012368
0.0013407 -0.00082457 0.0012712 0.0001862
0.0054246 0.0035406 -0.015448 0.013039 0.34761 0.062061 0.00011067 -0.0016938
0.00011323 -0.00050064 0.00032656 0.00025622
-0.0022398 0.00063059 0.0013576 0.0012419 0.00011959 -0.0017034 0.17184 0.2082
-0.015026 -0.010089 -0.00075119 -9.1232e-05
0.0025591 0.001036 0.0013388 -0.00082753 0.00010773 -0.00050979 -0.015048 -0.010062
0.087803 0.22574 -0.01055 -0.0091173
0.0004701 -0.0016429 0.001274 0.00019334 0.00032709 0.00026424 -0.00074636 -9.5967e-05
-0.010546 -0.0091341 0.11825 0.30477
1460000000 0.26853 0.15548 -0.020893 0.0048893 0.0059896 -0.0017474 -0.0016182 0.0017443
0.0022202 -0.0004253 -0.00043402 -0.0010677
-0.020865 0.0049047 0.11028 0.33792 -0.0062456 0.016156 0.0017119 0.00018635
0.0009177 -0.0013833 0.0012203 -0.00064151
0.0060105 -0.0017857 -0.0061571 0.016196 0.35453 0.0085032 -0.0012491 -0.0013453
0.00010571 -0.00025098 0.00073609 -0.00022465
-0.0016072 0.0017342 0.0017157 0.00017219 -0.0012468 -0.0013613 0.19858 0.17875
-0.016273 -0.0029854 -0.00084858 0.0020501
0.0021834 -0.00042898 0.00091507 -0.0014083 0.0001076 -0.00026486 -0.01627 -0.0029698
0.11781 0.21178 -0.012305 -0.0029416
-0.00046079 -0.0010079 0.0012086 -0.00062561 0.00072885 -0.0002327 -0.00085196 0.002059
-0.012301 -0.002968 0.15168 0.2841
1520000000 0.2815 0.11365 -0.015041 0.010591 0.0036932 -0.0044108 0.00016806 0.0026392
0.0021793 -0.0018678 -0.0012293 -0.00012163
-0.015034 0.010571 0.14384 0.32353 0.0018942 0.013721 0.0016414 -0.00075975
1.3095e-05 -0.0011072 0.00031898 -0.001025
0.0036877 -0.0044266 0.0019775 0.013726 0.34814 -0.047346 -0.0011139 -0.00040821
0.00065168 -0.00086732 0.00015555 -0.00016308
0.00017418 0.0026403 0.0016291 -0.00076844 -0.0011074 -0.00040402 0.22153 0.14024
-0.015466 0.0031434 0.0016308 0.0020777
0.0021787 -0.0018825 1.4746e-05 -0.0011061 0.00065092 -0.00086374 -0.015463 0.0031663
0.14617 0.19811 -0.012263 0.0019175
-0.0012453 -0.00011973 0.00032252 -0.0010253 0.00016348 -0.00017792 0.0016367 0.0020751
-0.012257 0.0019052 0.18449 0.26387
1580000000 0.29144 0.067853 -0.0081007 0.013877 -0.00094912 -0.0052858 0.0015804 0.0018936
-0.00018731 -0.002282 -0.00026223 0.00042497
-0.0080891 0.01385 0.1713 0.29924 0.0058201 0.0085036 0.00055349 -0.001599
-0.00058427 -0.0010375 -0.00018858 -0.00097307
-0.00099036 -0.0052589 0.0058818 0.0084752 0.32912 -0.1045 -0.0016214 0.00060312
-0.00038929 -0.0012446 0.00028784 -0.00068613
0.0016144 0.0018977 0.00055377 -0.0015964 -0.0016213 0.00059915 0.23526 0.10101
-0.011638 0.0082339 0.0023269 0.00070681
-0.00016009 -0.0022845 -0.00059458 -0.0010342 -0.00037662 -0.0012356 -0.011628 0.008269
0.1705 0.18072 -0.0093496 0.0077843
-0.00028429 0.00042967 -0.000204 -0.00096377 0.00027647 -0.00068143 0.0023324 0.00069261
-0.0093503 0.0077649 0.21661 0.23793
1640000000 0.29402 0.026511 -0.0011036 0.012491 -0.0030775 -0.0028211 0.0027195 0.0010193
-0.00079485 -0.0017353 -0.00041811 0.00055364
-0.0011097 0.01246 0.20115 0.27454 0.0063502 0.0033513 -0.00065384 -0.0017861
-0.0010157 -0.00041758 -0.00053626 -0.00071582
-0.0030721 -0.0028287 0.0063702 0.0033166 0.30103 -0.15423 -0.00070131 0.001472
-0.001148 -0.0010671 -0.00027803 -0.00049108
0.0027075 0.0009938 -0.0006703 -0.0017868 -0.0006934 0.0014672 0.24764 0.052053
-0.0070364 0.0094449 0.0024703 -0.00082904
-0.00081069 -0.0017283 -0.0010294 -0.00039885 -0.0011502 -0.0010674 -0.0070115 0.0094816
0.19409 0.15658 -0.0046406 0.0099211
-0.00038006 0.00062182 -0.00053878 -0.00069026 -0.00028444 -0.00046574 0.0024451 -0.00083401
-0.004638 0.0099068 0.2425 0.20699
1700000000 0.28707 -0.018554 0.0023073 0.0094752 -0.003833 -3.8029e-05 0.0031664 -0.0012781
-0.0020133 -0.0006613 0.00063833 0.00050078
0.0023101 0.0094613 0.21926 0.24353 0.0041631 0.00023765 -0.0014284 -0.00061027
-0.00074028 5.4317e-05 -0.0010136 -0.0004807
-0.0038459 -2.2238e-06 0.0041931 0.00023365 0.25799 -0.19399 0.00044117 0.0017489
-0.0020564 2.701e-05 -0.00059436 -0.00089131
0.0031689 -0.0012991 -0.0014304 -0.00059791 0.00045021 0.0017465 0.24418 0.0023954
-0.003811 0.009728 0.001602 -0.0021898
-0.0020212 -0.00062602 -0.00074752 5.5057e-05 -0.0020531 6.4398e-05 -0.0038008 0.0097258
0.2115 0.13672 0.00044936 0.0099787
0.00062086 0.00048385 -0.0010219 -0.00048563 -0.00060168 -0.00091577 0.0015902 -0.0022057
0.00044352 0.0099662 0.25892 0.17324
1760000000 0.27562 -0.066719 0.0045596 0.0060591 -0.0024812 0.0010641 0.0013809 -0.0034414
-0.0013994 0.00068442 0.00033002 -0.00065719
0.0045673 0.0060403 0.2459 0.20429 0.0016828 -0.0017366 -0.0012823 0.00020151
-0.0011138 0.0008752 -0.00055619 0.00037224
-0.0024586 0.0010899 0.0016443 -0.0017302 0.21037 -0.22724 0.0012134 0.0010609
-0.0012306 0.001524 -0.0013006 -0.00070132
0.001372 -0.0034234 -0.0012862 0.00020622 0.0012224 0.0010803 0.23545 -0.048666
-0.0007474 0.0085754 -0.00020185 -0.0023352
-0.0013819 0.00072306 -0.001115 0.00089718 -0.0012218 0.0015462 -0.00075064 0.0085955
0.22675 0.10238 0.0042017 0.0074496
0.00032481 -0.00064584 -0.00055884 0.00040362 -0.0013125 -0.00066808 -0.00020285 -0.0023356
0.0042043 0.0074469 0.27233 0.13597
1820000000 0.25182 -0.10409 0.0046155 0.0024669 -0.00014416 0.0026156 -0.00095437 -0.0031465
-0.0011362 0.0010966 -4.293e-05 -0.00011206
0.004583 0.0024784 0.25645 0.17432 -0.00070604 -0.00042926 -0.0013417 0.00096793
-0.00011261 0.0012128 -0.00059104 0.00059369
-0.00013416 0.0025926 -0.00071485 -0.00044469 0.15934 -0.24376 0.0015484 0.00034715
-0.00021127 0.0024278 -0.0013505 0.00053436
-0.0010069 -0.0031359 -0.0013317 0.00097054 0.0015596 0.0003187 0.20558 -0.095978
0.00071284 0.007148 -0.0016694 -0.0015949
-0.0011313 0.0010803 -9.5206e-05 0.0012163 -0.0002006 0.0024453 0.00074732 0.0071374
0.24423 0.073658 0.0053657 0.0035608
-3.9543e-05 -8.9071e-05 -0.00056966 0.00060966 -0.0013306 0.00056285 -0.001685 -0.0015775
0.0053706 0.0035602 0.27506 0.09968
1880000000 0.21709 -0.1443 0.0022223 0.00022343 -0.00066991 0.0023043 -0.0029191 -0.0022721
-0.00015413 0.0018537 -9.2746e-07 -0.0005045
0.0022355 0.00020652 0.26137 0.12822 -0.0028908 0.0016433 -0.00021408 0.0017417
0.00052819 0.0013431 7.354e-05 0.00085965
-0.00063698 0.0023315 -0.0028787 0.0016744 0.10692 -0.25238 0.0017996 -0.0011362
0.0017083 0.0018843 -0.00075961 0.0014414
-0.0028993 -0.0022862 -0.00019627 0.0017431 0.0017856 -0.0011295 0.16539 -0.13624
0.0015252 0.0049127 -0.0021677 0.00027046
-0.00016737 0.0018956 0.00053901 0.001317 0.0017228 0.0018967 0.0014984 0.0049491
0.24831 0.042772 0.005651 0.0012383
2.8833e-05 -0.00056934 8.4987e-05 0.00086345 -0.00078859 0.0014642 -0.0021618 0.00028784
0.0056206 0.0012512 0.27521 0.065771
1940000000 0.17846 -0.17048 -0.00013212 -0.0014266 0.0014429 0.0021071 -0.0038029 0.00044366
0.0013776 0.0010917 -0.00056066 -0.0004898
-0.00011951 -0.001439 0.26281 0.096154 -0.0015561 0.0040868 0.0010363 0.0013114
0.0018042 0.00056863 0.00081472 0.00036366
0.0015058 0.0021153 -0.0015269 0.0041062 0.062091 -0.24586 0.00043074 -0.0022082
0.0023462 0.00029904 0.00025207 0.0015431
-0.0038381 0.0004535 0.0010543 0.0013145 0.0004357 -0.0022221 0.11312 -0.16739
0.00061373 0.0036455 -0.0016416 0.0013944
0.0014026 0.0010927 0.0018152 0.00055369 0.0023418 0.0002844 0.00061699 0.0036238
0.252 0.0046374 0.0041458 -0.0025279
-0.00062624 -0.00045118 0.00080177 0.00034429 0.00025369 0.001535 -0.0016314 0.0014453
0.0041636 -0.0025177 0.26548 0.029493
2000000000 0.13251 -0.18559 -0.0038151 0.00080919 0.0029608 0.0018141 -0.0023465 0.0036761
0.0012855 0.00026597 -0.00060573 0.00038396
-0.003814 0.00080463 0.24899 0.060496 -0.00097751 0.0061161 0.0016542 0.00047119
0.0014009 -0.0011433 0.00060462 3.7101e-05
0.002902 0.0017522 -0.00095019 0.0061177 0.018658 -0.23182 -0.0012187 -0.0012565
0.0020967 -0.0011087 0.0017089 0.0014706
-0.0022735 0.0037206 0.0016576 0.00044601 -0.0012489 -0.0012563 0.059304 -0.17715
-0.00079686 0.0034294 -5.206e-05 0.0022194
0.0013187 0.00028869 0.0014047 -0.0011404 0.0020801 -0.0010933 -0.0008107 0.0034457
0.2473 -0.028273 0.00065356 -0.0033977
