!Keysight Technologies,M9804A,MY58100912,A.14.10.03
!Date: Thursday, April 27, 2023 10:28:33
!Correction: S11(C  6-Port  ) 
!S12(C  6-Port  ) 
!S13(C  6-Port  ) 
!S14(C  6-Port  ) 
!S15(C  6-Port  ) 
!S16(C  6-Port  ) 
!S21(C  6-Port  ) 
!S22(C  6-Port  ) 
!S23(C  6-Port  ) 
!S24(C  6-Port  ) 
!S25(C  6-Port  ) 
!S26(C  6-Port  ) 
!S31(C  6-Port  ) 
!S32(C  6-Port  ) 
!S33(C  6-Port  ) 
!S34(C  6-Port  ) 
!S35(C  6-Port  ) 
!S36(C  6-Port  ) 
!S41(C  6-Port  ) 
!S42(C  6-Port  ) 
!S43(C  6-Port  ) 
!S44(C  6-Port  ) 
!S45(C  6-Port  ) 
!S46(C  6-Port  ) 
!S51(C  6-Port  ) 
!S52(C  6-Port  ) 
!S53(C  6-Port  ) 
!S54(C  6-Port  ) 
!S55(C  6-Port  ) 
!S56(C  6-Port  ) 
!S61(C  6-Port  ) 
!S62(C  6-Port  ) 
!S63(C  6-Port  ) 
!S64(C  6-Port  ) 
!S65(C  6-Port  ) 
!S66(C  6-Port  ) 
!S6P File: Measurement: :
# Hz S  RI   R 50
500000000 -0.33415 -0.059517 -0.010629 -0.001442 -0.0085956 0.01371 -0.0048542 0.01205
0.013808 0.004919 -0.004682 0.0082537
-0.010612 -0.0014509 -0.41699 -0.06704 0.0076772 -0.009707 0.001257 0.011509
0.0079066 0.0031094 0.0011769 0.012748
-0.0086174 0.013683 0.0076684 -0.0097213 -0.26837 0.19699 0.0064883 0.0034558
-0.0024525 0.0088177 -0.00047291 0.011857
-0.0048182 0.012048 0.0012978 0.011514 0.0064627 0.0034215 -0.33209 0.042313
-0.019435 -0.0053338 0.016935 0.02684
0.013848 0.0048643 0.0079473 0.0030608 -0.0024918 0.0087996 -0.019385 -0.005318
-0.24055 -0.20505 -0.027271 0.0040396
-0.004608 0.0081903 0.0012245 0.012789 -0.0005234 0.011833 0.016958 0.026949
-0.027236 0.0040887 -0.26646 -0.12925
560000000 -0.3202 0.10851 -0.023153 -0.065969 -0.0003022 0.013432 0.0046447 0.01177
0.010709 0.0055794 0.0089247 0.0087482
-0.023137 -0.065931 -0.37517 0.097394 -0.042172 -0.038671 0.0138 0.003803
-0.013156 -0.0045694 0.0046461 -0.0010211
-0.0002751 0.013458 -0.042419 -0.038554 -0.18653 0.24914 -0.00038893 -0.0042378
0.018702 0.0054201 0.0069173 -0.005369
0.0046468 0.011802 0.013823 0.0037921 -0.00041932 -0.0042798 -0.30821 0.13449
0.006053 -0.022151 0.0042069 -0.021939
0.010741 0.0054616 -0.013277 -0.0045674 0.018752 0.005395 0.0060398 -0.022109
-0.307 -0.025231 0.0087221 -0.047717
0.0088968 0.0088378 0.004674 -0.0010985 0.0069553 -0.0053868 0.0042455 -0.021945
0.0087736 -0.047745 -0.33333 0.016352
620000000 -0.27926 0.088898 -0.023634 0.0092935 0.0041043 0.0097133 0.008256 -0.0042274
0.01191 -0.0013302 0.00049015 -0.0018466
-0.02358 0.0092799 -0.40408 0.044854 -0.018244 0.00085073 -0.0016435 -0.0019889
0.012567 -0.0060577 0.0012233 -0.0029575
0.0040782 0.0097083 -0.018283 0.00089129 -0.15606 0.25867 -0.00060316 -0.0049052
-0.0034189 -0.0032666 0.010103 -0.0021695
0.0082798 -0.0042488 -0.0016519 -0.0019677 -0.00061459 -0.0049197 -0.26568 0.14517
-0.038949 -0.02008 0.012677 0.027864
0.011866 -0.0013518 0.012546 -0.006124 -0.0034063 -0.003231 -0.038958 -0.020075
-0.22904 -0.058683 -0.041495 0.011394
0.00049308 -0.0018092 0.0011937 -0.0029585 0.010145 -0.0021638 0.012699 0.027805
-0.041472 0.011376 -0.25083 -0.017314
680000000 -0.24186 0.18089 -0.026283 -0.014792 0.0052629 0.0051859 0.0014634 -0.0071232
-0.0011779 -0.012111 0.0049281 -0.0070414
-0.026253 -0.014772 -0.39108 0.14725 -0.032259 -0.0022029 -0.0016709 -0.00037123
-0.0014492 -0.0092107 -0.00097681 -0.0017541
0.0053051 0.005191 -0.0323 -0.0021153 -0.10472 0.27996 -0.00087053 -0.00035378
-0.0013765 0.00038427 -0.0027053 -0.0094527
0.0014792 -0.0071224 -0.0016779 -0.00034099 -0.00086504 -0.00037464 -0.22069 0.19715
-0.023548 -0.0072228 -0.0086179 -0.011836
-0.001188 -0.01212 -0.0014711 -0.0092367 -0.0013662 0.00038487 -0.023555 -0.007193
-0.28179 0.045646 -0.0069013 -0.006834
0.0049129 -0.0071049 -0.00094755 -0.0017708 -0.0026944 -0.0094594 -0.008638 -0.011809
-0.0068718 -0.0068061 -0.26115 0.08798
740000000 -0.19437 0.17526 -0.039985 0.026981 0.014315 -0.0043666 3.4369e-05 -0.0042628
-0.0042614 -0.0025707 -0.006547 0.0026406
-0.040009 0.026917 -0.33574 0.1659 -0.037347 0.034568 0.00048556 -0.0062845
-0.012976 0.0073146 -0.00022639 -0.0058196
0.014301 -0.0044117 -0.03731 0.034749 -0.070322 0.27629 -0.0018748 0.0034307
-0.0022228 -0.005605 -0.0016906 0.00083958
4.6322e-05 -0.0042746 0.00047479 -0.0063123 -0.0019056 0.0034112 -0.20379 0.20378
-0.04261 -0.0087131 0.022666 0.016319
-0.0042906 -0.0026266 -0.012995 0.0074659 -0.0022591 -0.0056577 -0.042633 -0.0086703
-0.18046 0.074686 -0.042445 -0.00031452
-0.0065279 0.0027061 -0.00027274 -0.0057729 -0.0016607 0.00081621 0.022656 0.016313
-0.042453 -0.00033543 -0.2507 0.094792
800000000 -0.16367 0.21887 -0.022118 0.016228 0.0059727 -0.010828 -0.0041813 -0.0024371
-0.0044753 0.0018751 0.0045371 0.00020133
-0.022113 0.016222 -0.34247 0.23673 -0.0084465 0.034065 -0.0020689 0.0019014
-0.0013074 0.0026502 0.0012075 0.0053304
0.0059243 -0.01083 -0.0083622 0.034114 -0.032164 0.30069 0.00082967 0.0014738
5.6414e-05 0.0033842 -0.0017872 0.00088952
-0.0042205 -0.00242 -0.0020649 0.0018981 0.00083045 0.001473 -0.17451 0.23115
-0.028074 0.013046 0.014152 -0.010218
-0.0044999 0.0018875 -0.001291 0.0026243 5.3533e-05 0.003381 -0.02807 0.013102
-0.22527 0.1018 -0.017082 0.01987
0.0044989 0.00017872 0.0012249 0.0052911 -0.0017713 0.00087266 0.014155 -0.01024
-0.017056 0.019868 -0.24411 0.14352
860000000 -0.1287 0.23928 -0.017842 0.030366 -0.0028045 -0.010521 -0.0018742 0.0006027
0.0036822 0.0055824 -0.0035126 -0.0031376
-0.017844 0.030345 -0.29419 0.27973 0.0072182 0.034539 -6.4356e-06 0.0020686
0.0034704 0.000853 0.0033315 2.8425e-05
-0.0028346 -0.010529 0.0073316 0.03457 0.015305 0.30932 -0.0006085 -5.2125e-05
0.0022333 -0.0014764 0.0017027 0.00406
-0.0018769 0.00065192 3.4492e-06 0.0020644 -0.00060572 -4.8943e-05 -0.13749 0.2423
-0.018294 0.01788 -0.0059525 -0.0091381
0.0036971 0.005601 0.0034618 0.00088081 0.0022125 -0.0014794 -0.018262 0.017882
-0.16894 0.1564 -0.024582 0.016553
-0.0035024 -0.0031024 0.0033136 2.4781e-05 0.0017043 0.0040542 -0.0059531 -0.0091071
-0.024589 0.016526 -0.19203 0.1894
920000000 -0.10582 0.26208 0.0046742 0.038455 -0.0092927 -0.0052818 -0.0021408 0.0016088
0.00077986 0.0024745 0.0028219 -0.0012012
0.0046502 0.038427 -0.2672 0.30124 0.028244 0.023057 0.0013523 0.0013452
0.0075362 0.0003492 0.0046316 -0.0027992
-0.0093173 -0.00524 0.028372 0.023009 0.060303 0.31084 0.0018726 7.1438e-05
0.00099944 -0.00019109 0.0010888 -0.001284
-0.0021376 0.001618 0.0013603 0.0013403 0.0018597 7.1485e-05 -0.11367 0.25852
-0.011093 0.030593 0.0039291 -0.0067199
0.0007773 0.0024742 0.0075615 0.00033864 0.0010149 -0.00019157 -0.011028 0.030626
-0.15855 0.16148 -0.0011436 0.02706
0.0028589 -0.001223 0.0046468 -0.0028225 0.0010883 -0.0012885 0.0039307 -0.0067388
-0.0011463 0.027029 -0.20039 0.20186
980000000 -0.059528 0.2829 0.016592 0.030211 -0.0096415 0.0041873 0.001796 0.0037038
0.0037493 -0.0015555 -0.0031016 -0.0023172
0.016546 0.03019 -0.21465 0.33662 0.033512 0.0057238 0.0020893 -9.118e-05
0.0016505 -0.006272 -0.00035837 -0.0025325
-0.0096349 0.0041992 0.033581 0.0056259 0.10611 0.30587 0.00084383 -0.0011037
0.0004548 -0.0019463 0.0014666 -0.00016764
0.0018049 0.0037092 0.0021269 -0.0001132 0.00083992 -0.0011019 -0.075045 0.26969
0.0075854 0.029597 -0.009382 -0.0076172
0.0037388 -0.0015584 0.0016076 -0.0062972 0.0004709 -0.0019426 0.0076418 0.029601
-0.12427 0.19055 0.0054246 0.019259
-0.0031163 -0.0023318 -0.00038165 -0.0025533 0.0014709 -0.00017443 -0.0093917 -0.0076233
0.0054105 0.019235 -0.15947 0.24766
1040000000 -0.018304 0.29185 0.032881 0.019287 -0.0017817 0.0071221 0.0026652 0.00078196
0.00036942 -0.0034077 -0.00028433 -0.0014329
0.032828 0.019306 -0.17956 0.34998 0.0303 -0.014528 0.0016952 -0.0016967
-0.0022404 -0.002613 -0.0011743 -0.002942
-0.0017605 0.0071126 0.030313 -0.014647 0.15222 0.2929 -0.00037439 -0.0017072
-0.0016906 -0.00089541 -0.00061145 -0.0010102
0.0026605 0.0007919 0.0016943 -0.0017248 -0.00036779 -0.0017086 -0.047975 0.2792
0.019228 0.019059 -0.0025916 0.0010424
0.00033949 -0.0034071 -0.0022713 -0.0026218 -0.001678 -0.00089129 0.019267 0.019031
-0.091469 0.19876 0.014307 0.01869
-0.00028888 -0.0014304 -0.0012076 -0.0029137 -0.00061226 -0.0010095 -0.0025882 0.0010386
0.014305 0.018686 -0.13643 0.26805
1100000000 0.026318 0.30173 0.036664 -0.0032031 0.0027434 0.0043086 0.0024861 -0.00085311
-0.0022055 -0.0030287 -0.0039918 -8.5032e-05
0.036621 -0.003178 -0.13685 0.36879 0.016216 -0.028156 8.3937e-05 -0.001772
-0.0036776 -0.0010343 -0.0035506 -0.00053578
0.002756 0.0042912 0.016129 -0.028251 0.19821 0.27401 -0.0019721 0.0001034
-0.0019025 0.00035422 -0.0013482 -0.00042569
0.0024898 -0.0008511 8.9872e-05 -0.0017783 -0.0019689 0.00010997 -0.0081667 0.28456
0.02502 0.0056882 -0.0024797 2.3336e-06
-0.0022328 -0.0030133 -0.0036835 -0.0010277 -0.0018959 0.00036872 0.025036 0.0056534
-0.071805 0.21219 0.019973 0.0092867
-0.0039891 -5.8306e-05 -0.0035629 -0.00052143 -0.0013439 -0.00042173 -0.0024798 5.7914e-06
0.019954 0.009279 -0.090655 0.29798
1160000000 0.077489 0.29833 0.024824 -0.020492 0.002784 -0.00032976 -2.8995e-05 -0.0023763
-0.0039679 -0.00092789 -0.0010835 0.0041954
0.024823 -0.020452 -0.093389 0.37389 -0.0031785 -0.029886 -0.0016963 -0.0017581
-0.0030034 0.0025368 -0.0015309 0.0019799
0.0027766 -0.00035168 -0.0033057 -0.029906 0.24203 0.244 -0.00088792 0.0017962
-0.0006034 0.002089 -0.0009213 0.00041367
-5.7695e-05 -0.0023704 -0.0017068 -0.0017698 -0.00089046 0.0017945 0.031224 0.28228
0.021448 -0.010267 -0.0032913 0.0051575
-0.0039839 -0.00089448 -0.0030063 0.0025451 -0.00060623 0.0020959 0.02145 -0.010297
-0.037094 0.22017 0.01891 -0.00036582
-0.0010651 0.0042113 -0.0015259 0.0019746 -0.00093913 0.00039895 -0.0032906 0.0051586
0.018923 -0.00035838 -0.043915 0.30085
1220000000 0.12112 0.28885 0.011261 -0.030424 -0.0015841 -0.00091124 0.0001908 -0.00089432
-0.0027617 0.0021606 0.0010511 0.0020455
0.011269 -0.030385 -0.04934 0.38735 -0.017104 -0.022291 -0.0026829 0.00048875
-7.8758e-05 0.0032364 -0.00085513 0.0019693
-0.0015928 -0.0009215 -0.017223 -0.022238 0.2811 0.2052 0.00072472 0.0018722
0.00056718 0.0013145 0.00038964 0.0006511
0.00018705 -0.00088937 -0.0026735 0.00049371 0.00073025 0.0018704 0.071149 0.27391
0.011092 -0.017229 0.0021362 0.0014831
-0.0027575 0.0021847 -6.3715e-05 0.0032424 0.00056731 0.0013167 0.01108 -0.017246
-0.013886 0.22929 0.014251 -0.013279
0.0010523 0.0020523 -0.0008465 0.0019693 0.0003989 0.00065152 0.0021483 0.0014892
0.014255 -0.01328 -0.013162 0.31704
1280000000 0.17192 0.26935 -0.0077041 -0.029177 -0.0020494 0.002566 -0.00078647 -0.002178
-0.00085723 0.0031993 0.0024664 0.0014084
-0.0076766 -0.029151 -0.0028443 0.37977 -0.024551 -0.0091646 -0.0010109 0.0015373
0.0018414 0.0017632 0.00057326 0.0020761
-0.0020293 0.0025703 -0.024627 -0.0090639 0.3118 0.16227 0.001709 5.8234e-05
0.0013555 0.00028449 0.00038628 0.0001808
-0.00080525 -0.0021724 -0.00099478 0.0015497 0.0017073 6.0651e-05 0.10822 0.25821
0.0010768 -0.019739 -8.8768e-05 0.000332
-0.00083402 0.0032034 0.0018501 0.0017519 0.0013534 0.00029275 0.0010438 -0.01974
0.022494 0.23326 0.0030775 -0.015464
0.002472 0.0013689 0.00058256 0.0020839 0.00037848 0.00018904 -8.9371e-05 0.00033065
0.0030758 -0.015473 0.034367 0.32005
1340000000 0.2097 0.23656 -0.017754 -0.019472 0.00079771 0.0048422 -0.0018586 -0.00093714
0.0014016 0.0028051 0.001893 -0.0013548
-0.017729 -0.019477 0.037135 0.37225 -0.022389 0.0042476 -0.00013183 0.0020618
0.0021322 0.00077219 0.0012437 0.00083803
0.00081645 0.0048476 -0.022401 0.0043659 0.3341 0.11487 0.0011334 -0.00098884
0.00075278 -0.00071468 4.5826e-05 0.0002115
-0.0018647 -0.00091709 -0.00011657 0.0020758 0.0011278 -0.00098416 0.14174 0.23755
-0.0086554 -0.016984 0.00071391 0.0005527
0.0014193 0.0028061 0.0021428 0.00075032 0.00074557 -0.00071986 -0.0086905 -0.016973
0.052641 0.22893 -0.0040339 -0.014432
0.0018951 -0.0013608 0.0012557 0.00082332 5.5284e-05 0.00020875 0.00072199 0.00055765
-0.004032 -0.014439 0.072471 0.31492
1400000000 0.24391 0.19981 -0.023853 -0.0076443 0.0054924 0.0035669 -0.0023224 0.00059193
0.00255 0.0010815 0.00039641 -0.001664
-0.023817 -0.00765 0.074754 0.36002 -0.01557 0.01286 0.0014 0.0012901
0.0013008 -0.00088798 0.0012263 0.00015354
0.0055155 0.0035374 -0.015523 0.012953 0.34713 0.062238 0.000132 -0.0017217
8.01e-05 -0.00042054 0.00032665 0.00018997
-0.0023251 0.00060319 0.0014123 0.0012797 0.0001349 -0.0017215 0.17127 0.20887
-0.014972 -0.0099506 -0.00079856 1.1398e-05
0.0025525 0.0010614 0.001299 -0.00089645 7.924e-05 -0.00042326 -0.014997 -0.0099241
0.085554 0.22527 -0.010549 -0.0090455
0.00037597 -0.0016673 0.0012225 0.00013587 0.00033343 0.00018379 -0.0008004 1.8486e-05
-0.010537 -0.0090449 0.11668 0.30458
1460000000 0.26799 0.15637 -0.020672 0.0049234 0.0061209 -0.0017048 -0.0015976 0.0019155
0.0023137 -0.00038613 -0.00029601 -0.0011189
-0.020661 0.0049141 0.10979 0.33846 -0.0062113 0.016137 0.0017684 0.00019573
0.00089926 -0.0014436 0.0012935 -0.00053936
0.0061247 -0.0017402 -0.0061373 0.016185 0.35424 0.0089512 -0.0013492 -0.0013332
0.00013096 -0.00023469 0.00069549 -0.00021588
-0.0015921 0.0019233 0.001765 0.0001691 -0.0013531 -0.001323 0.1984 0.17946
-0.01611 -0.0030086 -0.00079749 0.0020924
0.0023268 -0.00040456 0.0008898 -0.0014275 0.00012641 -0.00023214 -0.016118 -0.0029736
0.11568 0.21189 -0.012477 -0.0029618
-0.00030398 -0.0011191 0.0012758 -0.00054885 0.00068762 -0.00021136 -0.00081283 0.0020844
-0.012458 -0.0029503 0.15027 0.28457
1520000000 0.28103 0.11458 -0.014858 0.010464 0.003789 -0.0045484 0.0001292 0.00275
0.0022124 -0.0018989 -0.0012517 -0.00017809
-0.014848 0.010438 0.14356 0.32402 0.0019202 0.013685 0.0016424 -0.00075768
-1.189e-05 -0.0010667 0.00036715 -0.0010461
0.0037697 -0.0045686 0.0020047 0.013696 0.34804 -0.047076 -0.0011394 -0.00034414
0.00074452 -0.00086841 0.00013899 -0.00019692
0.00013993 0.0027553 0.0016451 -0.00076888 -0.001142 -0.00034413 0.22169 0.14084
-0.01528 0.0030404 0.0016315 0.0021859
0.0022036 -0.0019288 -2.0663e-05 -0.0010658 0.00074428 -0.00086879 -0.015278 0.0030786
0.14389 0.19878 -0.012189 0.0018393
-0.0012529 -0.0001608 0.00036717 -0.0010462 0.00013887 -0.00019898 0.0016286 0.0021872
-0.012189 0.0018328 0.18319 0.26442
1580000000 0.2915 0.068924 -0.007985 0.013749 -0.00092184 -0.0053801 0.001608 0.00192
-9.4726e-05 -0.0022694 -0.00025656 0.00031081
-0.0079883 0.013734 0.17117 0.2998 0.0057587 0.0084741 0.0005145 -0.0015677
-0.00053384 -0.0009538 -0.00019479 -0.00091452
-0.00094552 -0.0053829 0.0058146 0.0084567 0.32898 -0.10424 -0.0015974 0.00068382
-0.00028779 -0.0011085 0.00021324 -0.00058347
0.0016192 0.0019208 0.000509 -0.0015704 -0.0016032 0.00068321 0.23562 0.10147
-0.011444 0.0080028 0.0024066 0.00075385
-0.0001062 -0.0022709 -0.00054156 -0.0009499 -0.00028486 -0.0011146 -0.011437 0.0080411
0.16898 0.18175 -0.009546 0.0077571
-0.00026092 0.00031415 -0.00020734 -0.00091892 0.00021282 -0.00058465 0.0024063 0.00074843
-0.0095436 0.0077498 0.2155 0.23877
1640000000 0.29433 0.027173 -0.0011093 0.012308 -0.0031397 -0.0028352 0.002732 0.0010365
-0.0008113 -0.0017137 -0.00032897 0.00057223
-0.001118 0.012302 0.20125 0.27498 0.0063595 0.0032532 -0.00059921 -0.0017895
-0.00096094 -0.00037676 -0.00051412 -0.00073039
-0.0031578 -0.0028086 0.0063862 0.0032175 0.3012 -0.15421 -0.00062764 0.0015288
-0.0011795 -0.001032 -0.00029999 -0.00031762
0.0027232 0.0010275 -0.00059897 -0.0017858 -0.00062585 0.0015213 0.24818 0.05218
-0.007002 0.0092666 0.0025889 -0.00084776
-0.00081934 -0.0017073 -0.00096437 -0.00038462 -0.0011784 -0.0010248 -0.0069734 0.0093004
0.19272 0.1581 -0.0045398 0.0098685
-0.00032488 0.00057501 -0.00052386 -0.00072721 -0.00029685 -0.00031164 0.0025884 -0.00084343
-0.0045468 0.0098594 0.24154 0.20782
1700000000 0.28728 -0.018024 0.0022643 0.0093304 -0.0039419 2.3571e-05 0.0031965 -0.0012921
-0.0021527 -0.00073978 0.00046025 0.00042546
0.0022567 0.009329 0.21942 0.24383 0.0041818 0.00019898 -0.0014362 -0.0006203
-0.00075578 -6.2494e-05 -0.0009581 -0.00052255
-0.0039489 3.8003e-05 0.0041799 0.00017858 0.25807 -0.19362 0.00051998 0.0016045
-0.0019664 -0.00022305 -0.0005719 -0.00095392
0.0031854 -0.0013207 -0.0014365 -0.00061159 0.00051336 0.0016043 0.24452 0.0023281
-0.0041089 0.0095926 0.0016155 -0.0022017
-0.0021514 -0.00071634 -0.00075568 -5.3862e-05 -0.0019633 -0.00021888 -0.0040919 0.0096073
0.21051 0.13813 0.00032556 0.0099824
0.00047219 0.00043254 -0.00096784 -0.00051555 -0.0005745 -0.00094638 0.0016176 -0.002217
0.00032344 0.0099838 0.2581 0.17409
1760000000 0.27606 -0.066459 0.0044643 0.0059292 -0.0025139 0.0010319 0.0012854 -0.0035649
-0.0013839 0.00060717 0.00027433 -0.0006152
0.0044571 0.0059283 0.24619 0.20447 0.001657 -0.001819 -0.0012133 0.00010277
-0.001048 0.00083243 -0.0006244 0.0003113
-0.0024965 0.0010428 0.0016515 -0.001833 0.21065 -0.22743 0.0010382 0.0010759
-0.0013258 0.0015015 -0.001173 -0.0006724
0.0012671 -0.0035618 -0.0012092 0.00011771 0.0010305 0.0010652 0.23588 -0.048988
-0.00074243 0.0086248 -0.00013817 -0.0025734
-0.0013874 0.00061113 -0.0010437 0.00083771 -0.001336 0.0015141 -0.00071661 0.0086267
0.22633 0.10393 0.0044204 0.0074146
0.00027338 -0.00062564 -0.00061969 0.00032126 -0.0011725 -0.00067009 -0.00014345 -0.0025827
0.0044365 0.007415 0.27201 0.13694
1820000000 0.25209 -0.10407 0.0045648 0.0024184 -0.00015299 0.0026668 -0.00098415 -0.0032079
-0.0011773 0.00098211 -0.00019716 -0.00013247
0.0045515 0.0024237 0.25667 0.17436 -0.0008281 -0.0003101 -0.0013469 0.00086469
-0.00014694 0.0011562 -0.0006839 0.00053871
-0.00014197 0.0026793 -0.00083681 -0.00029831 0.15917 -0.2436 0.0016633 0.00043025
-0.00029539 0.0023608 -0.0014979 0.00034
-0.0010037 -0.0031949 -0.0013382 0.00086711 0.0016535 0.00044014 0.20574 -0.096451
0.00070915 0.0072167 -0.0015712 -0.0016551
-0.0011873 0.00098262 -0.00014104 0.0011564 -0.00028433 0.002362 0.00073621 0.0072116
0.24397 0.07505 0.0054841 0.0036162
-0.00019696 -0.00014469 -0.00067716 0.00054577 -0.0014932 0.00032686 -0.0015759 -0.0016542
0.0054915 0.0036177 0.27454 0.10062
1880000000 0.21708 -0.14434 0.0021283 0.00012122 -0.0006071 0.0024279 -0.0031242 -0.0022729
-0.00022406 0.001821 0.00023602 -0.00049561
0.0021257 0.00012724 0.2615 0.12807 -0.0028364 0.0016136 -0.00030454 0.0017209
0.0004343 0.0013669 3.9951e-05 0.0010805
-0.0005907 0.0024208 -0.0028212 0.0016337 0.10717 -0.25252 0.0017969 -0.00094001
0.0015192 0.0020569 -0.0011076 0.0015468
-0.0031393 -0.0022471 -0.00030071 0.0017309 0.0017931 -0.00095597 0.16499 -0.13658
0.0014485 0.0049093 -0.0024065 0.00011609
-0.00021232 0.0018234 0.00045771 0.0013623 0.0015255 0.002038 0.0014607 0.0049016
0.24842 0.04404 0.005603 0.0010739
0.00023805 -0.0004952 4.37e-05 0.0010799 -0.0011025 0.0015539 -0.0024083 0.00012489
0.0056044 0.0010831 0.27473 0.066878
1940000000 0.17819 -0.17049 -0.00026366 -0.0015285 0.0014195 0.0020446 -0.0039749 0.00053919
0.0012375 0.0010899 -0.00051311 -0.00049065
-0.00026686 -0.001522 0.26292 0.095921 -0.0013865 0.0040775 0.00090769 0.0014476
0.001768 0.00065806 0.00093516 0.00052542
0.0014364 0.0020502 -0.0013564 0.0040896 0.062413 -0.24602 0.00040873 -0.0021958
0.0023611 0.00045854 0.00045771 0.0018484
-0.0039722 0.00055259 0.00092981 0.0014541 0.00040885 -0.002193 0.11262 -0.16755
0.00052866 0.003587 -0.0016226 0.0012623
0.001241 0.0010712 0.0017844 0.00063279 0.0023599 0.00045273 0.00054117 0.0035835
0.25201 0.0056123 0.0042042 -0.0024462
-0.00052358 -0.0004946 0.00094189 0.00051311 0.00046928 0.0018354 -0.0016097 0.0012602
0.0042086 -0.0024354 0.26471 0.030371
2000000000 0.1321 -0.18533 -0.0040856 0.00087696 0.0026506 0.0017535 -0.0021482 0.0038317
0.001333 0.00046332 -0.00046316 0.00029247
-0.0040906 0.00087281 0.24869 0.060298 -0.0010335 0.0061008 0.0016867 0.00057519
0.0013982 -0.00099407 0.00069641 0.00016802
0.0026634 0.0017419 -0.00099177 0.0061065 0.018407 -0.2318 -0.0010547 -0.0014934
0.002166 -0.0010687 0.0018448 0.001499
-0.0021287 0.0038466 0.0017001 0.00057121 -0.0010476 -0.0014882 0.058562 -0.17712
-0.0011582 0.0033615 -0.00046349 0.0022439
0.0013325 0.00045928 0.0013939 -0.00099692 0.0021696 -0.0010819 -0.0011579 0.0033626
0.24711 -0.027713 0.00048939 -0.0034477
