!Keysight Technologies,M9804A,MY58100912,A.14.10.03
!Date: Thursday, April 27, 2023 10:28:33
!Correction: S11(C  6-Port  ) 
!S12(C  6-Port  ) 
!S13(C  6-Port  ) 
!S14(C  6-Port  ) 
!S15(C  6-Port  ) 
!S16(C  6-Port  ) 
!S21(C  6-Port  ) 
!S22(C  6-Port  ) 
!S23(C  6-Port  ) 
!S24(C  6-Port  ) 
!S25(C  6-Port  ) 
!S26(C  6-Port  ) 
!S31(C  6-Port  ) 
!S32(C  6-Port  ) 
!S33(C  6-Port  ) 
!S34(C  6-Port  ) 
!S35(C  6-Port  ) 
!S36(C  6-Port  ) 
!S41(C  6-Port  ) 
!S42(C  6-Port  ) 
!S43(C  6-Port  ) 
!S44(C  6-Port  ) 
!S45(C  6-Port  ) 
!S46(C  6-Port  ) 
!S51(C  6-Port  ) 
!S52(C  6-Port  ) 
!S53(C  6-Port  ) 
!S54(C  6-Port  ) 
!S55(C  6-Port  ) 
!S56(C  6-Port  ) 
!S61(C  6-Port  ) 
!S62(C  6-Port  ) 
!S63(C  6-Port  ) 
!S64(C  6-Port  ) 
!S65(C  6-Port  ) 
!S66(C  6-Port  ) 
!S6P File: Measurement: :
# Hz S  RI   R 50
500000000 -0.3344 -0.059046 -0.010547 -0.0015684 -0.0083546 0.013883 -0.0046034 0.011925
0.013557 0.005242 -0.0044781 0.0075847
-0.010595 -0.001408 -0.41655 -0.067527 0.0080608 -0.01038 0.00087407 0.011807
0.0080179 0.0034799 0.00078165 0.013006
-0.0083686 0.013858 0.0080431 -0.010232 -0.26842 0.19641 0.0065468 0.0036571
-0.0021254 0.0093005 -0.00025126 0.012179
-0.0049093 0.011762 0.00080662 0.011725 0.0063637 0.0034564 -0.33204 0.041981
-0.019512 -0.005288 0.016924 0.026261
0.0133 0.0052708 0.0081043 0.0034346 -0.002074 0.0092304 -0.019543 -0.0052687
-0.24116 -0.20475 -0.027617 0.0042192
-0.0051076 0.0079761 0.00064629 0.013086 -0.00024531 0.011867 0.017022 0.026342
-0.027434 0.0041207 -0.26658 -0.13008
560000000 -0.32048 0.10829 -0.022918 -0.065188 -8.9775e-05 0.013341 0.0053649 0.012141
0.010041 0.0050276 0.0095476 0.0094133
-0.02248 -0.065181 -0.37412 0.09638 -0.042035 -0.038043 0.013907 0.0032343
-0.013472 -0.0038833 0.0049581 -0.00085828
-3.7471e-05 0.013514 -0.042385 -0.038143 -0.18655 0.24875 -0.00012285 -0.0040164
0.018674 0.0046588 0.0071894 -0.0051345
0.005502 0.01195 0.013942 0.0029999 -0.0002431 -0.0041112 -0.30793 0.13353
0.0057455 -0.022943 0.0048831 -0.021901
0.010352 0.0047033 -0.013935 -0.004316 0.0188 0.0043242 0.0054975 -0.02294
-0.30642 -0.025697 0.0085704 -0.048267
0.0097201 0.0094115 0.0050561 -0.0010291 0.007299 -0.0047607 0.0048455 -0.021866
0.0079573 -0.047129 -0.33223 0.016334
620000000 -0.27923 0.088836 -0.023463 0.0089679 0.0039843 0.0094818 0.0082009 -0.0043676
0.012083 -0.00072192 -0.00060958 -0.0024323
-0.023467 0.0089927 -0.40393 0.044572 -0.018106 0.00074603 -0.001566 -0.0021243
0.012722 -0.0060388 0.0012353 -0.0030119
0.0040362 0.0095246 -0.018128 0.0008185 -0.15635 0.25864 -0.00057146 -0.0048117
-0.0033665 -0.0035387 0.0095642 -0.0025359
0.0080349 -0.0039996 -0.0016157 -0.0019927 -0.00055714 -0.0048323 -0.26471 0.14483
-0.040974 -0.020233 0.013551 0.027913
0.012487 -0.00102 0.012507 -0.0060635 -0.0034535 -0.0033153 -0.04078 -0.02019
-0.22587 -0.057178 -0.042646 0.011068
-0.00055661 -0.0020325 0.0010964 -0.0030726 0.0095775 -0.002331 0.013385 0.027769
-0.042857 0.010768 -0.25029 -0.016783
680000000 -0.24191 0.18044 -0.026088 -0.014567 0.0051965 0.0052916 0.0017165 -0.0072677
-0.0015772 -0.012229 0.0058667 -0.0064531
-0.026058 -0.014661 -0.39103 0.14713 -0.032254 -0.0022413 -0.0017568 -0.00023538
-0.0013255 -0.0094314 -0.00081802 -0.0018937
0.0053227 0.0051938 -0.032251 -0.0021363 -0.10468 0.27983 -0.00094964 -0.00019291
-0.0012306 0.0003141 -0.0026389 -0.0092148
0.0015837 -0.0071459 -0.0016922 -0.00019707 -0.00087443 -0.00032895 -0.22116 0.19689
-0.023106 -0.0075517 -0.0088641 -0.011402
-0.0016395 -0.012262 -0.0014209 -0.0093032 -0.0014414 0.00040172 -0.023157 -0.0072766
-0.28141 0.045972 -0.0062258 -0.0077351
0.0054243 -0.0070001 -0.00050882 -0.001967 -0.0024137 -0.0093385 -0.0090944 -0.011743
-0.0065087 -0.0078163 -0.26074 0.089345
740000000 -0.19421 0.17478 -0.040355 0.027257 0.014257 -0.0050008 -0.00016846 -0.0042124
-0.0039449 -0.0025396 -0.00702 0.0023331
-0.040406 0.027438 -0.33601 0.1656 -0.037101 0.034844 -5.1204e-05 -0.0064443
-0.012624 0.0079722 -0.00061706 -0.0055796
0.014278 -0.0049424 -0.037045 0.034869 -0.070535 0.27621 -0.0017102 0.0033555
-0.0024996 -0.0062745 -0.001736 0.0011056
-0.00020308 -0.0043078 -2.344e-05 -0.0063653 -0.0017098 0.0033298 -0.20396 0.20362
-0.04264 -0.0081743 0.022539 0.015993
-0.0037679 -0.0024252 -0.01256 0.0079679 -0.0025639 -0.0063665 -0.042515 -0.0082001
-0.18044 0.073106 -0.042221 0.00077189
-0.0069447 0.0020787 -0.00094727 -0.0057851 -0.0014803 0.00095217 0.022641 0.015821
-0.041941 0.00076139 -0.25067 0.095096
800000000 -0.1636 0.2185 -0.022199 0.016258 0.0061413 -0.010837 -0.0043066 -0.0023871
-0.0045377 0.001894 0.0046073 0.000512
-0.022124 0.016207 -0.34252 0.23669 -0.008494 0.03412 -0.0021507 0.0020335
-0.0011478 0.002294 0.00098094 0.0058541
0.006173 -0.010865 -0.0083759 0.034192 -0.032038 0.30066 0.00091693 0.001564
3.2876e-05 0.0034226 -0.0014568 0.0011025
-0.004225 -0.0023488 -0.0020921 0.00212 0.00090718 0.0015848 -0.17445 0.23121
-0.02807 0.013433 0.014286 -0.010083
-0.0046132 0.0019309 -0.0011726 0.002419 3.4234e-07 0.003392 -0.028069 0.013491
-0.22555 0.10162 -0.01654 0.020331
0.0047129 0.00061295 0.0010846 0.0058365 -0.0015375 0.0010794 0.014119 -0.010011
-0.016698 0.020458 -0.24385 0.14462
860000000 -0.12887 0.23912 -0.017697 0.030157 -0.0028267 -0.01056 -0.0018393 0.00053892
0.0039395 0.0053507 -0.0041029 -0.0030549
-0.017741 0.030081 -0.2941 0.27968 0.007236 0.034529 2.5779e-05 0.0021262
0.0035071 0.00056307 0.0031955 3.0509e-06
-0.0028348 -0.01056 0.0073305 0.034566 0.015287 0.30927 -0.00063743 -8.2271e-05
0.0023475 -0.0014996 0.0015186 0.0040207
-0.0017936 0.00048662 0.00010794 0.0021556 -0.00060366 -9.536e-05 -0.13758 0.24232
-0.018184 0.017772 -0.0059001 -0.0090232
0.0038737 0.0053781 0.0035453 0.00064899 0.0024431 -0.0015696 -0.018184 0.0177
-0.1684 0.15613 -0.025566 0.01648
-0.0041197 -0.003295 0.0030117 -5.3008e-05 0.0016241 0.0040698 -0.0058183 -0.0091358
-0.025597 0.016296 -0.19174 0.18918
920000000 -0.10594 0.26219 0.0047047 0.038452 -0.0093357 -0.0052962 -0.0020527 0.0015858
0.00082716 0.0026151 0.002895 -0.0013783
0.0047116 0.038457 -0.26707 0.30103 0.02825 0.023051 0.0013186 0.001352
0.0078738 0.00016304 0.0046216 -0.0028038
-0.0093449 -0.0051948 0.028375 0.023033 0.060291 0.3108 0.001904 4.8387e-05
0.0010901 7.26e-05 0.0010545 -0.001317
-0.0020499 0.0016667 0.0013866 0.0013762 0.0019485 0.00010426 -0.1136 0.25849
-0.011176 0.030792 0.004154 -0.0068831
0.00096461 0.0024913 0.0077771 3.6946e-05 0.00099928 -0.0001109 -0.011121 0.030871
-0.15689 0.16144 -0.0012115 0.027075
0.0028701 -0.0012685 0.0044759 -0.0028973 0.0010249 -0.0013422 0.004177 -0.0069079
-0.0014502 0.027022 -0.2002 0.20166
980000000 -0.059745 0.28265 0.016487 0.030091 -0.0096379 0.004069 0.0017671 0.0036914
0.0037062 -0.0016667 -0.0030859 -0.0022488
0.016444 0.030081 -0.21471 0.33639 0.0335 0.0057032 0.0020054 -0.0001748
0.0018398 -0.0063271 -0.0005751 -0.0025518
-0.0096476 0.0041234 0.033567 0.005596 0.10608 0.30584 0.00081871 -0.0011464
0.00055428 -0.0020308 0.0013889 -0.0002759
0.0017263 0.0036622 0.0019547 -0.00017342 0.0008085 -0.0011715 -0.074986 0.26952
0.0074771 0.029613 -0.009377 -0.0074418
0.0038181 -0.0016543 0.0018503 -0.0063709 0.00058886 -0.002101 0.0075789 0.029587
-0.12376 0.19081 0.0053836 0.018916
-0.0032356 -0.0023647 -0.00061767 -0.0025441 0.0013899 -0.0002307 -0.0092402 -0.0074288
0.0053403 0.018835 -0.15929 0.24778
1040000000 -0.018476 0.29177 0.032879 0.019256 -0.0018027 0.0070794 0.0025661 0.00080322
0.00034049 -0.0033904 -0.00019879 -0.001596
0.032831 0.019253 -0.17971 0.34992 0.030291 -0.014474 0.0017243 -0.0017446
-0.0021899 -0.0026954 -0.0011783 -0.002848
-0.0017793 0.0070883 0.030292 -0.014629 0.15214 0.29289 -0.00040006 -0.0017223
-0.001691 -0.0010026 -0.00065021 -0.00099228
0.002604 0.00077225 0.0017562 -0.0017145 -0.00037486 -0.0017182 -0.048 0.27913
0.019268 0.0191 -0.002487 0.00086753
0.00023498 -0.0034188 -0.0021799 -0.0026348 -0.0016814 -0.0010027 0.019259 0.019067
-0.091718 0.1992 0.014477 0.018562
-0.00017723 -0.0015827 -0.0011652 -0.0028555 -0.00064169 -0.0010651 -0.0025559 0.00079004
0.014563 0.018631 -0.13664 0.26791
1100000000 0.026095 0.30169 0.036659 -0.0031939 0.002718 0.0043306 0.0023633 -0.00095802
-0.0019264 -0.0031084 -0.0040944 -0.00019677
0.036604 -0.0031536 -0.13694 0.36872 0.016216 -0.028165 7.0135e-05 -0.0017926
-0.0035346 -0.00098905 -0.0035337 -0.00062776
0.0027085 0.0043221 0.01613 -0.028286 0.19823 0.27402 -0.0019729 9.9285e-05
-0.0018576 0.00040676 -0.0012869 -0.00043254
0.0023726 -0.00097831 5.5542e-05 -0.0018108 -0.0019957 0.00010501 -0.0081873 0.28452
0.025033 0.0056453 -0.0027486 -6.154e-05
-0.0019176 -0.0030689 -0.0035448 -0.00090574 -0.0018483 0.00040916 0.02507 0.0056315
-0.071624 0.21211 0.019952 0.00895
-0.0041574 -0.00015348 -0.0035107 -0.00063719 -0.0012945 -0.0004413 -0.0026509 3.5234e-06
0.019974 0.0089824 -0.091051 0.29773
1160000000 0.077324 0.29829 0.024826 -0.020521 0.0028041 -0.00036007 2.8015e-05 -0.0023359
-0.0040318 -0.00082865 -0.0010458 0.0041916
0.024848 -0.020504 -0.093624 0.37385 -0.0032053 -0.029904 -0.0016619 -0.0017841
-0.0029285 0.0025866 -0.0015456 0.0018742
0.002783 -0.00040082 -0.0033148 -0.029922 0.242 0.24398 -0.00087522 0.0018113
-0.00063206 0.0020662 -0.00095597 0.00038455
6.4583e-06 -0.0023343 -0.0016313 -0.0017676 -0.00088215 0.0018147 0.031182 0.28227
0.02147 -0.010379 -0.003379 0.0052193
-0.0040755 -0.00083331 -0.0029572 0.0025869 -0.00065723 0.0020342 0.021473 -0.010448
-0.036751 0.22022 0.018529 -0.00041511
-0.00099011 0.0042448 -0.0015086 0.0019263 -0.00096453 0.00037841 -0.0033304 0.0051586
0.018621 -0.00043256 -0.043225 0.30143
1220000000 0.12091 0.2889 0.011292 -0.030431 -0.0015544 -0.0008946 0.00012777 -0.00087944
-0.0027438 0.0021505 0.0010706 0.0021624
0.011302 -0.030367 -0.049474 0.38726 -0.017115 -0.022256 -0.0026711 0.00047342
-4.4179e-05 0.0032349 -0.00081173 0.0020166
-0.0015702 -0.00088945 -0.017226 -0.022206 0.2811 0.2053 0.00073364 0.001857
0.00060525 0.0013226 0.00040891 0.00065363
0.00016112 -0.00088558 -0.0026809 0.00050202 0.00074464 0.0018674 0.071092 0.27396
0.01105 -0.01724 0.0021254 0.0014696
-0.0027667 0.0021423 -3.7591e-05 0.0032725 0.00063192 0.0013359 0.011026 -0.01726
-0.013764 0.2294 0.01438 -0.013363
0.0010364 0.0021788 -0.00078967 0.0020182 0.00042735 0.00061472 0.0021114 0.0014439
0.014377 -0.013346 -0.013226 0.31687
1280000000 0.17169 0.26939 -0.0077273 -0.029166 -0.0020478 0.0026061 -0.00079387 -0.0021963
-0.00091482 0.0032279 0.0025541 0.001325
-0.0076794 -0.029128 -0.0029937 0.37975 -0.02458 -0.0091503 -0.0010098 0.0015172
0.0018655 0.0017611 0.00059162 0.0021077
-0.0020341 0.002624 -0.024655 -0.0090636 0.31177 0.16227 0.0016606 6.1459e-05
0.0013493 0.00023946 0.00046726 0.00026791
-0.00080155 -0.0021761 -0.001029 0.0015122 0.0016772 6.161e-05 0.10818 0.25827
0.0010305 -0.01977 -0.00011769 0.00042496
-0.00089649 0.0032164 0.0018105 0.0017338 0.001326 0.00024505 0.001002 -0.019787
0.022486 0.23314 0.002942 -0.01543
0.0025358 0.0013444 0.00060614 0.0020768 0.00049061 0.00021834 -0.00013448 0.00046411
0.0029739 -0.015523 0.034447 0.32014
1340000000 0.20946 0.23661 -0.017758 -0.019455 0.0007219 0.004826 -0.0018693 -0.00090689
0.001359 0.0027934 0.0018875 -0.001258
-0.017718 -0.019429 0.036971 0.37225 -0.022391 0.0042079 -0.00010305 0.0020638
0.0021128 0.00075508 0.0012581 0.00081518
0.000768 0.0048291 -0.022395 0.0043249 0.33403 0.11498 0.0012019 -0.0010115
0.00066679 -0.00070746 7.8877e-05 0.000244
-0.0018677 -0.00090606 -0.00010731 0.0020569 0.0012065 -0.0010224 0.14168 0.2376
-0.0086736 -0.01693 0.00064356 0.00061385
0.001372 0.0027984 0.002104 0.00072706 0.00064927 -0.00068823 -0.0087043 -0.016957
0.052616 0.22894 -0.0040058 -0.014392
0.0019119 -0.0012851 0.0012741 0.00084167 0.00011267 0.00021769 0.00069918 0.00054987
-0.0039945 -0.014408 0.072315 0.31492
1400000000 0.24371 0.20001 -0.023834 -0.007628 0.0054841 0.0036146 -0.0022835 0.00062161
0.0025649 0.0010683 0.00033058 -0.001647
-0.023796 -0.0076149 0.074591 0.36002 -0.015588 0.01286 0.0014406 0.0013022
0.0013456 -0.00090463 0.0011812 0.00012033
0.0055304 0.0035938 -0.015543 0.012954 0.34709 0.062268 0.00011021 -0.00177
0.00012482 -0.0003829 0.00035639 0.00020442
-0.0022978 0.00062998 0.0014227 0.0013015 0.00012243 -0.0017667 0.17119 0.20884
-0.015008 -0.009995 -0.00081435 0.0001112
0.0025655 0.0010295 0.0013275 -0.00093321 0.00011469 -0.00039945 -0.015031 -0.0099558
0.085685 0.22539 -0.010557 -0.009112
0.00034834 -0.0016596 0.0011465 6.5718e-05 0.00032501 0.00016267 -0.00081487 0.0001144
-0.010568 -0.0090962 0.11679 0.30467
1460000000 0.26775 0.15659 -0.020682 0.0049438 0.0061063 -0.0017154 -0.0015508 0.0018729
0.0022849 -0.00045094 -0.00027391 -0.0010705
-0.020673 0.0049222 0.10967 0.33851 -0.0061912 0.016182 0.0017682 0.00016249
0.00083408 -0.0014289 0.0012898 -0.00055179
0.0061096 -0.0017324 -0.0061253 0.016216 0.35427 0.0089743 -0.001326 -0.0013119
0.00011981 -0.00025462 0.00073139 -0.00018664
-0.0015546 0.0018945 0.0017523 0.00013912 -0.0013142 -0.0013418 0.19834 0.17955
-0.016067 -0.0030111 -0.00082756 0.0020242
0.0022705 -0.00044175 0.00084808 -0.0014079 0.00012577 -0.00026437 -0.016103 -0.0029696
0.11567 0.21189 -0.012456 -0.0029736
-0.00027851 -0.0010372 0.0012345 -0.00057499 0.00071272 -0.00025262 -0.00079462 0.0020566
-0.012447 -0.0029677 0.15024 0.28459
1520000000 0.28086 0.11492 -0.014857 0.010483 0.0037776 -0.0045407 0.00016362 0.002703
0.0022667 -0.0019024 -0.0012542 -0.00022588
-0.014858 0.010458 0.14342 0.32407 0.0019141 0.013725 0.0016701 -0.00075771
-8.0929e-06 -0.0010723 0.00034948 -0.0010741
0.0037592 -0.0045874 0.0019818 0.013719 0.34805 -0.046951 -0.0011327 -0.00037054
0.00079099 -0.00086197 0.0001287 -0.00023901
0.0001601 0.0026978 0.0016477 -0.00076714 -0.0011463 -0.00036168 0.22172 0.14086
-0.015288 0.0030573 0.0016519 0.0022128
0.002232 -0.0019082 -2.004e-05 -0.0010687 0.00083035 -0.00085969 -0.015274 0.0030955
0.14394 0.19886 -0.012228 0.0018649
-0.0012583 -0.00018656 0.00032987 -0.0010662 0.00015313 -0.00020397 0.0016451 0.0022137
-0.012224 0.0018595 0.18342 0.26435
1580000000 0.29138 0.069182 -0.0079925 0.013721 -0.00092573 -0.0053807 0.0016189 0.0019229
-6.5564e-05 -0.0022749 -0.0002738 0.00032709
-0.0079646 0.013707 0.17099 0.29983 0.0057488 0.0084653 0.00052536 -0.0015904
-0.00053877 -0.00097024 -0.00015558 -0.00093902
-0.0009678 -0.0053728 0.0058186 0.0084413 0.32899 -0.10425 -0.0015846 0.00066309
-0.00030226 -0.0011973 0.00027071 -0.00063317
0.0016234 0.0019144 0.00051634 -0.0015909 -0.0016183 0.00063642 0.23562 0.10153
-0.011468 0.0080427 0.0024687 0.00075323
-9.7462e-05 -0.0022569 -0.00055449 -0.00095929 -0.00031961 -0.0011795 -0.011467 0.0080717
0.16892 0.18184 -0.0094264 0.0076686
-0.00022754 0.00032262 -0.00016297 -0.00092463 0.0002178 -0.00062061 0.00243 0.00074324
-0.0094082 0.0076292 0.21554 0.23884
1640000000 0.29428 0.02747 -0.0010851 0.012313 -0.0030874 -0.0028048 0.002722 0.0010354
-0.00078227 -0.0016833 -0.00025963 0.0005587
-0.001093 0.012303 0.20109 0.27506 0.0063817 0.0033021 -0.00057435 -0.0017704
-0.00093587 -0.00036702 -0.00050316 -0.00071793
-0.0030975 -0.0028038 0.0063882 0.003248 0.30116 -0.15407 -0.00058305 0.001501
-0.0011358 -0.0010235 -0.00031974 -0.00030041
0.0027029 0.0010289 -0.000607 -0.0017793 -0.00058444 0.0015078 0.24811 0.052261
-0.0069492 0.009243 0.0025409 -0.00078635
-0.0007999 -0.0016961 -0.00093846 -0.00037161 -0.0011278 -0.0010498 -0.0069194 0.0092719
0.19289 0.15809 -0.004624 0.0098927
-0.00028286 0.00058639 -0.00051492 -0.00069267 -0.00034838 -0.00030923 0.0025314 -0.00081533
-0.0046053 0.0098967 0.24163 0.20794
1700000000 0.28736 -0.017754 0.0022895 0.0093054 -0.0039016 -6.9075e-06 0.0032196 -0.0012537
-0.0021256 -0.00070548 0.00053496 0.00038101
0.0022884 0.0092923 0.21927 0.24391 0.004194 0.00016895 -0.0014456 -0.00062106
-0.00073159 -9.9356e-05 -0.00097277 -0.0004688
-0.0038969 4.7279e-05 0.0042068 0.00016686 0.25812 -0.1936 0.00051272 0.0015882
-0.0019501 -0.0002478 -0.00057311 -0.00085722
0.0031995 -0.0012684 -0.001427 -0.00064337 0.00054909 0.0015656 0.24452 0.0023858
-0.0041459 0.0096427 0.0016833 -0.0021632
-0.0021541 -0.00068704 -0.00072703 -7.6348e-05 -0.0019669 -0.00021987 -0.0041317 0.0096475
0.21049 0.13813 0.00037213 0.010066
0.0005303 0.00041431 -0.0009969 -0.00050294 -0.00060346 -0.00092073 0.0016671 -0.0021535
0.00037359 0.010081 0.25807 0.17402
1760000000 0.27606 -0.066108 0.0044759 0.0059204 -0.0024733 0.0010079 0.0012847 -0.0035149
-0.0013753 0.00065869 0.00028644 -0.00051652
0.0044598 0.0059323 0.24601 0.20459 0.0016507 -0.0018284 -0.0012234 0.00011835
-0.0010908 0.00082842 -0.000628 0.00033186
-0.0024588 0.0010265 0.0016405 -0.0018364 0.21066 -0.22747 0.0010551 0.0010641
-0.0013752 0.0015215 -0.0011123 -0.0007357
0.0012924 -0.0035224 -0.0012474 0.00011735 0.0010432 0.0010718 0.23589 -0.048965
-0.00074357 0.0085767 -0.00022744 -0.0025959
-0.00135 0.00066292 -0.001073 0.00084459 -0.0013363 0.0014861 -0.00072651 0.0086014
0.22636 0.10388 0.0043972 0.0073542
0.00027467 -0.00059946 -0.00061286 0.00032351 -0.0011137 -0.0006944 -0.00018932 -0.0025794
0.0044175 0.0073311 0.27175 0.13677
1820000000 0.25215 -0.10379 0.0045557 0.0023914 -0.00020409 0.0027187 -0.0010351 -0.003233
-0.0012351 0.00098726 -0.00017324 -0.00014716
0.0045329 0.0024009 0.25656 0.17444 -0.00082183 -0.00031975 -0.0013708 0.0008612
-0.00018511 0.0011753 -0.00070316 0.0005366
-0.00016277 0.0027148 -0.00084194 -0.00033365 0.15938 -0.24352 0.0015734 0.00050323
-0.00034603 0.0024063 -0.0015547 0.00043553
-0.0010663 -0.0032129 -0.0013691 0.00086067 0.001614 0.00045574 0.20576 -0.096439
0.00079118 0.0071442 -0.001554 -0.0017207
-0.0012302 0.0010045 -0.00016562 0.0011842 -0.00031865 0.0024352 0.0008407 0.0071536
0.24411 0.075106 0.0054927 0.0036078
-0.00012932 -0.00011638 -0.00071261 0.00054138 -0.0015998 0.00039216 -0.0015891 -0.0017526
0.0054812 0.0035717 0.27458 0.10056
1880000000 0.21723 -0.14411 0.0021033 9.438e-05 -0.00065656 0.0023798 -0.0030252 -0.002186
-0.00021115 0.0018299 0.0002977 -0.00040725
0.0021054 9.5427e-05 0.26137 0.12823 -0.0028929 0.0015891 -0.00026309 0.0017348
0.0004672 0.001355 1.1161e-05 0.001065
-0.000643 0.0023923 -0.0028675 0.0016308 0.10723 -0.25251 0.0017603 -0.00093829
0.001538 0.0020337 -0.0011048 0.0015213
-0.0030476 -0.0022309 -0.00024223 0.0017372 0.0018259 -0.00093582 0.1652 -0.13661
0.0014818 0.0049216 -0.0023267 6.8214e-05
-0.00018969 0.0018354 0.00046725 0.0013515 0.00152 0.0019511 0.0014585 0.0048988
0.24836 0.04395 0.0056431 0.0010651
0.00021876 -0.0004763 3.2961e-05 0.0010634 -0.0011137 0.001536 -0.0023362 6.3446e-05
0.0055943 0.0010763 0.27485 0.066625
1940000000 0.1783 -0.17018 -0.00029515 -0.0015159 0.0014349 0.0020957 -0.0040195 0.00053595
0.0012246 0.0010824 -0.00055434 -0.00049
-0.0003033 -0.0015026 0.26282 0.096092 -0.0014166 0.0040828 0.00088967 0.0014007
0.0017786 0.00063525 0.00093787 0.00047632
0.0014494 0.0020708 -0.0013621 0.0041212 0.062408 -0.24602 0.00046957 -0.0022845
0.0024806 0.00042878 0.00043172 0.0017493
-0.0039887 0.0005659 0.00087009 0.0013693 0.00040826 -0.0022741 0.11275 -0.16765
0.00054645 0.0034895 -0.0017031 0.0013567
0.0012051 0.0010679 0.0018 0.00058398 0.002447 0.00040673 0.00056107 0.0035395
0.25207 0.0056045 0.0040584 -0.0024937
-0.00049892 -0.00048544 0.00095219 0.00043922 0.00045457 0.0017561 -0.0016654 0.0013383
0.004083 -0.0024921 0.26477 0.030448
2000000000 0.13231 -0.18512 -0.0040843 0.00090265 0.0027009 0.0018528 -0.0022716 0.003667
0.0012415 0.00032007 -0.00049835 0.00034555
-0.0040783 0.00089018 0.24864 0.060482 -0.00099733 0.0061029 0.0016684 0.00050424
0.0014025 -0.0010295 0.00063108 0.00021177
0.0027176 0.0018305 -0.0009785 0.0061426 0.018661 -0.23184 -0.0010906 -0.0013872
0.0021003 -0.00099154 0.0017857 0.0015819
-0.0022742 0.0037108 0.0016841 0.00049633 -0.0010605 -0.001401 0.058899 -0.17708
-0.0010163 0.0034081 -0.00024497 0.0021608
0.0012657 0.00032558 0.0014084 -0.0010424 0.00213 -0.0010059 -0.00098652 0.0033514
0.24735 -0.02761 0.00063636 -0.0034999
