!Keysight Technologies,M9804A,MY58100912,A.14.10.03
!Date: Thursday, April 27, 2023 10:28:33
!Correction: S11(C  6-Port  ) 
!S12(C  6-Port  ) 
!S13(C  6-Port  ) 
!S14(C  6-Port  ) 
!S15(C  6-Port  ) 
!S16(C  6-Port  ) 
!S21(C  6-Port  ) 
!S22(C  6-Port  ) 
!S23(C  6-Port  ) 
!S24(C  6-Port  ) 
!S25(C  6-Port  ) 
!S26(C  6-Port  ) 
!S31(C  6-Port  ) 
!S32(C  6-Port  ) 
!S33(C  6-Port  ) 
!S34(C  6-Port  ) 
!S35(C  6-Port  ) 
!S36(C  6-Port  ) 
!S41(C  6-Port  ) 
!S42(C  6-Port  ) 
!S43(C  6-Port  ) 
!S44(C  6-Port  ) 
!S45(C  6-Port  ) 
!S46(C  6-Port  ) 
!S51(C  6-Port  ) 
!S52(C  6-Port  ) 
!S53(C  6-Port  ) 
!S54(C  6-Port  ) 
!S55(C  6-Port  ) 
!S56(C  6-Port  ) 
!S61(C  6-Port  ) 
!S62(C  6-Port  ) 
!S63(C  6-Port  ) 
!S64(C  6-Port  ) 
!S65(C  6-Port  ) 
!S66(C  6-Port  ) 
!S6P File: Measurement: :
# Hz S  RI   R 50
500000000 -0.33389 -0.05548 -0.01063 -0.0014864 -0.0082064 0.013049 -0.0041668 0.012505
0.012357 0.0054065 -0.0042428 0.0087154
-0.010652 -0.0014747 -0.41623 -0.064981 0.0083764 -0.010826 0.00061638 0.012671
0.0081651 0.002366 0.00074067 0.0142
-0.0082641 0.013062 0.0083293 -0.010851 -0.26696 0.19774 0.006585 0.0038866
-0.0012416 0.0081749 0.00039361 0.012268
-0.004124 0.012544 0.0006689 0.012762 0.0065916 0.0038812 -0.3309 0.043771
-0.018881 -0.0051565 0.016253 0.026273
0.012482 0.0052459 0.008198 0.0024068 -0.0012413 0.0081692 -0.018875 -0.0051493
-0.24489 -0.19818 -0.026572 0.0040934
-0.0041742 0.0087429 0.0007424 0.014315 0.00041533 0.012271 0.016214 0.026264
-0.026613 0.0040745 -0.27122 -0.12429
560000000 -0.31867 0.11105 -0.022972 -0.064818 8.4582e-05 0.012841 0.0047208 0.010572
0.011238 0.0041362 0.0099204 0.0082523
-0.022834 -0.064754 -0.37558 0.098444 -0.041888 -0.038542 0.013553 0.0037733
-0.012392 -0.0046849 0.003491 -0.0012198
0.0001248 0.012867 -0.041945 -0.038413 -0.18573 0.25003 -0.00075003 -0.0048469
0.019052 0.0054987 0.0076693 -0.0057782
0.004719 0.010562 0.013554 0.0037356 -0.00076581 -0.0048534 -0.30615 0.13425
0.0051085 -0.023771 0.0048696 -0.021299
0.01121 0.0043442 -0.012397 -0.0044824 0.019016 0.0054718 0.00509 -0.023763
-0.31021 -0.019972 0.0094051 -0.047714
0.0097626 0.0081007 0.0033531 -0.0012912 0.0076524 -0.005787 0.0048884 -0.021312
0.0094439 -0.047785 -0.33236 0.021944
620000000 -0.27766 0.091253 -0.023123 0.0086144 0.0036466 0.0092603 0.0082379 -0.004791
0.010836 -0.00060709 0.00059732 -0.003083
-0.023096 0.0085836 -0.40287 0.047002 -0.018596 0.00032143 -0.0016852 -0.0017615
0.012147 -0.0067106 0.00080297 -0.0031464
0.0036905 0.0092396 -0.018634 0.00036425 -0.1561 0.25873 -0.00096675 -0.0051303
-0.0037249 -0.0032917 0.0091173 -0.0029864
0.008269 -0.0048367 -0.0016634 -0.0017338 -0.00097205 -0.0051413 -0.26556 0.14452
-0.037728 -0.018762 0.01282 0.02646
0.010941 -0.00048514 0.012097 -0.0068333 -0.0037229 -0.0032776 -0.037742 -0.018746
-0.23214 -0.05407 -0.040146 0.013515
0.00084077 -0.0030769 0.00073411 -0.0032141 0.0091429 -0.0030416 0.012807 0.026529
-0.04013 0.013436 -0.25042 -0.01109
680000000 -0.23982 0.18211 -0.02636 -0.01484 0.0048141 0.0053698 0.0011926 -0.0076858
-0.0024306 -0.011823 0.0057104 -0.0070335
-0.026332 -0.014886 -0.39004 0.14849 -0.032745 -0.0022669 -0.0017559 -0.00073877
-0.0019766 -0.0093225 -0.0010284 -0.0017849
0.0048074 0.0053765 -0.032769 -0.0021681 -0.10467 0.27959 -0.00091165 -0.00043524
-0.0017184 0.00046814 -0.0026512 -0.0089773
0.0011889 -0.0075958 -0.0018004 -0.00072344 -0.00092247 -0.00042971 -0.22065 0.19619
-0.023724 -0.0079443 -0.0084015 -0.011872
-0.0024589 -0.011823 -0.0020107 -0.0093384 -0.0017301 0.00047141 -0.023728 -0.0079381
-0.27882 0.049735 -0.0071987 -0.007125
0.005683 -0.0071039 -0.00098795 -0.001829 -0.0026356 -0.0090045 -0.0084252 -0.011968
-0.0071741 -0.0071072 -0.26051 0.09416
740000000 -0.19374 0.17585 -0.040178 0.026875 0.013718 -0.0048568 -0.00023179 -0.0043013
-0.0045016 -0.0028543 -0.0065018 0.0029937
-0.040186 0.026883 -0.33607 0.16661 -0.037288 0.035018 -0.00019102 -0.005958
-0.01214 0.008191 -0.0016365 -0.0058229
0.013677 -0.0049303 -0.037203 0.035098 -0.07123 0.27713 -0.0018636 0.0033505
-0.0030278 -0.0054834 -0.0012849 0.0010656
-0.00024271 -0.0043065 -0.00016669 -0.0059625 -0.0018714 0.0033654 -0.20339 0.20328
-0.04353 -0.0079382 0.022277 0.015504
-0.0044846 -0.002853 -0.01218 0.0083342 -0.0030227 -0.0054815 -0.043553 -0.0079002
-0.17957 0.076362 -0.042397 0.00072639
-0.0064539 0.0029952 -0.0015882 -0.0058666 -0.0012269 0.0010472 0.022288 0.015509
-0.042431 0.00070068 -0.24928 0.099006
800000000 -0.16287 0.21965 -0.02254 0.016584 0.0060147 -0.01066 -0.0043293 -0.0022376
-0.0045199 0.001917 0.0048421 0.00053511
-0.022557 0.016561 -0.34238 0.23825 -0.0087074 0.034562 -0.0022446 0.0021334
-0.00092687 0.0028604 0.0011116 0.0053573
0.0059811 -0.010665 -0.008628 0.034605 -0.032458 0.3018 0.0010327 0.001398
0.00011615 0.003555 -0.0017274 0.0010383
-0.0043285 -0.0022543 -0.002196 0.0021212 0.0010384 0.0013925 -0.1746 0.23105
-0.029281 0.012899 0.014233 -0.0097593
-0.0045187 0.0020063 -0.00093868 0.0028701 0.00012238 0.0035582 -0.02928 0.012959
-0.2226 0.10578 -0.01772 0.019428
0.0048532 0.00049602 0.0011844 0.0053483 -0.0017336 0.0010341 0.014251 -0.0098
-0.017732 0.019423 -0.24145 0.14844
860000000 -0.12834 0.24021 -0.018264 0.030557 -0.0028902 -0.010583 -0.0015614 0.00082949
0.0038857 0.0050834 -0.0036974 -0.0027736
-0.018301 0.030537 -0.294 0.28125 0.0074579 0.034935 0.00022272 0.0020021
0.0035093 0.00060334 0.0030499 0.00018794
-0.0028938 -0.010582 0.0075605 0.034942 0.01541 0.31069 -0.00054905 -0.0001079
0.0021574 -0.0015417 0.0015485 0.0043351
-0.0015432 0.00088275 0.00024136 0.0020164 -0.00054672 -0.00010629 -0.13819 0.24279
-0.018674 0.018675 -0.0062256 -0.008803
0.0039991 0.0051228 0.0035068 0.0005773 0.0021663 -0.0015537 -0.01866 0.01872
-0.16681 0.15856 -0.024771 0.016335
-0.0036655 -0.0028275 0.0030588 0.00018471 0.0015533 0.0043283 -0.0062348 -0.0087794
-0.024778 0.016288 -0.18983 0.19321
920000000 -0.10467 0.26351 0.0044922 0.038717 -0.0094886 -0.0051347 -0.0019064 0.0019363
0.0011823 0.0020208 0.0026877 -0.0016274
0.0044852 0.038701 -0.26689 0.30288 0.028356 0.023248 0.001479 0.0014094
0.0076277 -6.4395e-05 0.0042073 -0.0028887
-0.0094948 -0.0051297 0.028437 0.023211 0.060962 0.31215 0.0018775 7.4682e-05
0.0010738 -0.00019147 0.0010644 -0.0012337
-0.0019062 0.0019257 0.0014851 0.0014049 0.0018754 7.4803e-05 -0.11398 0.25956
-0.011515 0.03136 0.003876 -0.0070916
0.0011959 0.0020305 0.007616 -0.00010331 0.0010746 -0.00019114 -0.011451 0.031385
-0.15608 0.1642 -0.0020175 0.026963
0.0026689 -0.0016495 0.0042484 -0.0028745 0.0010539 -0.0012275 0.003861 -0.0071064
-0.002011 0.026941 -0.19764 0.2063
980000000 -0.05812 0.28438 0.017 0.030684 -0.0096627 0.0042739 0.0018555 0.003607
0.0043458 -0.0016207 -0.0028546 -0.0024677
0.016975 0.030694 -0.21361 0.33805 0.033952 0.0055534 0.0020565 -0.00034919
0.0018214 -0.0060239 5.0785e-06 -0.0024778
-0.0096428 0.004317 0.03399 0.005453 0.10705 0.30675 0.00079939 -0.0011135
0.00055782 -0.0019034 0.0017825 -0.00019013
0.0018887 0.0036156 0.0020773 -0.00032602 0.00081065 -0.0011171 -0.075566 0.27078
0.0078029 0.030403 -0.0092764 -0.007476
0.0043436 -0.0015963 0.0017878 -0.0060727 0.00054954 -0.0019007 0.0078696 0.030387
-0.12214 0.1941 0.0055305 0.019395
-0.0028169 -0.0024211 -2.3419e-05 -0.0024573 0.0017863 -0.00019253 -0.0092842 -0.0074853
0.0055244 0.019392 -0.15608 0.25148
1040000000 -0.01656 0.29323 0.033341 0.019442 -0.0015981 0.0072701 0.002834 0.00056102
0.0003144 -0.0033654 -0.00014041 -0.0016491
0.033313 0.019452 -0.1786 0.35172 0.030624 -0.014787 0.0016557 -0.001811
-0.0022595 -0.0024627 -0.00097546 -0.0027191
-0.0015592 0.0072652 0.030586 -0.014899 0.15331 0.29376 -0.00045065 -0.0017006
-0.0016818 -0.00095119 -0.00039544 -0.0012342
0.0028286 0.00056715 0.001641 -0.0018257 -0.00045183 -0.0016993 -0.047937 0.2808
0.019823 0.01948 -0.0025979 0.0011079
0.00024832 -0.0033179 -0.00232 -0.0024504 -0.0016851 -0.00094136 0.019873 0.019461
-0.089858 0.20151 0.014469 0.019027
-0.00014756 -0.0016102 -0.0010267 -0.0026469 -0.00040003 -0.0012292 -0.0025889 0.0011141
0.014459 0.019016 -0.13184 0.27173
1100000000 0.028174 0.3026 0.037046 -0.0034282 0.0029766 0.004329 0.002501 -0.0011338
-0.0022243 -0.0031338 -0.0038707 -6.0241e-06
0.036994 -0.0033867 -0.13549 0.37033 0.016108 -0.028486 1.0927e-05 -0.001852
-0.0037122 -0.0008756 -0.0035762 -0.00055724
0.0029991 0.0043314 0.016004 -0.028555 0.19968 0.27446 -0.0019243 9.1652e-05
-0.0018695 0.00049031 -0.0011544 -0.00063862
0.0024823 -0.0011524 1.1226e-05 -0.0018248 -0.0019296 9.5615e-05 -0.0072798 0.2864
0.025708 0.0056189 -0.0023623 0.00056588
-0.0022417 -0.0031612 -0.003725 -0.00088702 -0.0018662 0.00049923 0.025728 0.0055839
-0.068928 0.21462 0.019537 0.0087202
-0.0038595 5.3529e-06 -0.0035874 -0.00056736 -0.0011592 -0.00063909 -0.0023543 0.00057691
0.019532 0.0087347 -0.086914 0.30123
1160000000 0.079519 0.29899 0.025044 -0.020785 0.0030475 -0.00051291 -0.00027839 -0.0024661
-0.0040453 -0.00083004 -0.0010086 0.0041944
0.025044 -0.020763 -0.091643 0.37528 -0.0033432 -0.030128 -0.0017283 -0.0017036
-0.0027726 0.0026324 -0.0015207 0.0020031
0.0030556 -0.00052619 -0.0034739 -0.030143 0.24329 0.24413 -0.00077794 0.0018696
-0.00065564 0.001991 -0.0010537 0.00029957
-0.00030015 -0.0024877 -0.0017227 -0.0016798 -0.00076899 0.0018757 0.032805 0.28342
0.022039 -0.010843 -0.0030967 0.0052237
-0.0040616 -0.00080894 -0.0027794 0.0026477 -0.00065289 0.0019931 0.022043 -0.010867
-0.034832 0.22316 0.018812 -0.00074914
-0.00098462 0.0041885 -0.0015282 0.0019867 -0.0010439 0.00030364 -0.0030864 0.0052209
0.018817 -0.00076027 -0.040519 0.30361
1220000000 0.12362 0.28918 0.011424 -0.030778 -0.0015786 -0.0011575 -5.9175e-05 -0.00083728
-0.0028134 0.0022507 0.0010754 0.0020171
0.011433 -0.030735 -0.047113 0.38836 -0.017361 -0.022223 -0.0026669 0.00056349
6.7288e-05 0.0031709 -0.00079273 0.002007
-0.0015638 -0.0011578 -0.017479 -0.022176 0.28248 0.20515 0.00081502 0.0018123
0.00064794 0.0013456 0.00023916 0.00062347
-7.637e-05 -0.00083985 -0.0026567 0.000594 0.00081585 0.0018183 0.073159 0.27457
0.011265 -0.018118 0.0021499 0.0014197
-0.0028252 0.0022935 9.7193e-05 0.0031865 0.00064036 0.0013434 0.011242 -0.018128
-0.010701 0.23219 0.014201 -0.013747
0.0011215 0.0020355 -0.00077663 0.0020094 0.00023693 0.00062169 0.0021473 0.0014175
0.014199 -0.013749 -0.0088809 0.31851
1280000000 0.1743 0.26892 -0.0078041 -0.029506 -0.0020541 0.002368 -0.00083547 -0.0019847
-0.00071553 0.0032881 0.002631 0.0012489
-0.0077802 -0.029484 -0.00037463 0.3801 -0.024713 -0.0089095 -0.00095177 0.0015041
0.0017798 0.0017083 0.00068191 0.0020625
-0.00204 0.002379 -0.024773 -0.0088155 0.31304 0.16155 0.0015759 -4.0313e-05
0.0011987 0.000273 0.00031276 0.00033496
-0.00084763 -0.0019893 -0.0009692 0.0015022 0.001582 -3.5899e-05 0.11037 0.25807
0.00082849 -0.020248 -4.0351e-05 0.00023095
-0.00070255 0.0033004 0.0017882 0.0017174 0.0011957 0.00027215 0.00079285 -0.020253
0.026445 0.23571 0.0029836 -0.015659
0.0026323 0.0012408 0.00069185 0.0020303 0.00031441 0.00034001 -3.9875e-05 0.00023091
0.0030003 -0.015653 0.038975 0.32069
1340000000 0.21206 0.23572 -0.018016 -0.019672 0.0006476 0.0047609 -0.0017465 -0.00077545
0.0014629 0.0027711 0.0017832 -0.001391
-0.017971 -0.019669 0.03936 0.37183 -0.022333 0.0043837 -6.2252e-05 0.0019904
0.0019702 0.00076679 0.0012764 0.00072775
0.00066614 0.0047499 -0.02234 0.0044981 0.33487 0.11431 0.0010832 -0.0009884
0.0007213 -0.0006029 6.2743e-05 0.00023966
-0.0017536 -0.00076299 -6.0488e-05 0.0019837 0.0010796 -0.00098937 0.14325 0.23651
-0.009217 -0.017365 0.00069456 0.00043094
0.0014833 0.0027782 0.0019667 0.00076108 0.00072306 -0.00061226 -0.0092471 -0.017347
0.057535 0.23089 -0.0042911 -0.014598
0.0017647 -0.0013978 0.0012834 0.00072001 6.251e-05 0.00023169 0.00070161 0.00043776
-0.004272 -0.014611 0.076982 0.31546
1400000000 0.24579 0.19836 -0.024199 -0.0077397 0.0053227 0.0034895 -0.0021389 0.00062677
0.0025489 0.00098425 0.00025299 -0.0015986
-0.024156 -0.0077517 0.07684 0.35903 -0.01537 0.012978 0.0013346 0.0012162
0.0012472 -0.00083246 0.0011717 0.00010651
0.0053688 0.0034792 -0.015331 0.013064 0.34784 0.061377 6.5768e-05 -0.0016461
0.00016714 -0.00043699 0.0003372 0.00029563
-0.0021431 0.00063202 0.0013423 0.0012136 7.0344e-05 -0.0016502 0.17237 0.20737
-0.015553 -0.0099363 -0.00082866 -7.1354e-05
0.0025692 0.00097874 0.0012444 -0.00083509 0.00016692 -0.00043689 -0.015577 -0.0099004
0.090846 0.2261 -0.010768 -0.0089607
0.0002671 -0.0016286 0.0011786 9.5873e-05 0.00034864 0.00029151 -0.00083679 -7.1921e-05
-0.010761 -0.0089748 0.12128 0.30451
1460000000 0.26927 0.15441 -0.021024 0.0050443 0.0058621 -0.0017198 -0.0015326 0.0016713
0.0021914 -0.00054225 -0.00038684 -0.00099836
-0.021001 0.0050286 0.11115 0.33699 -0.0060594 0.016045 0.0016476 0.00012135
0.00086528 -0.0013625 0.0012914 -0.00072422
0.0058741 -0.001739 -0.0059901 0.016093 0.35446 0.0079732 -0.0012825 -0.0013261
0.00022746 -0.0002966 0.0007302 -0.00027107
-0.0015319 0.0016684 0.0016669 0.0001113 -0.0012853 -0.0013317 0.19874 0.17794
-0.016613 -0.002705 -0.00082916 0.0021307
0.0021831 -0.00054435 0.00086946 -0.00136 0.00023057 -0.00029793 -0.016625 -0.0026581
0.12083 0.21155 -0.01248 -0.0028907
-0.00041876 -0.0010232 0.0012861 -0.00074883 0.0007271 -0.00027692 -0.00083889 0.0021462
-0.012494 -0.0028995 0.15446 0.28332
1520000000 0.28168 0.11278 -0.01515 0.010702 0.0034878 -0.0042943 0.00014949 0.002551
0.0021674 -0.0020487 -0.0011857 -8.925e-05
-0.015144 0.010687 0.14437 0.32249 0.0018537 0.013512 0.001641 -0.00074122
1.9647e-05 -0.001091 0.00026995 -0.0011031
0.0034813 -0.0043096 0.0019243 0.013514 0.348 -0.047749 -0.0010614 -0.00035083
0.00064884 -0.0008773 0.0001004 -0.00027259
0.0001595 0.002558 0.001637 -0.00074765 -0.0010549 -0.0003708 0.22137 0.1395
-0.015475 0.0035634 0.0015517 0.0021001
0.0021556 -0.0020472 1.9648e-05 -0.0010823 0.00064935 -0.00088661 -0.015473 0.0036012
0.14896 0.19734 -0.012344 0.0021047
-0.0011899 -8.8739e-05 0.00026167 -0.0011089 9.672e-05 -0.00027606 0.0015633 0.0020938
-0.012345 0.0020997 0.1874 0.26277
1580000000 0.29152 0.067114 -0.0080338 0.014038 -0.00097831 -0.0051581 0.0014613 0.0018853
-0.00028884 -0.0022268 -0.00020271 0.00042763
-0.0080368 0.014019 0.17146 0.2982 0.0056637 0.0083435 0.0005418 -0.0015613
-0.00059534 -0.0010355 -0.00023291 -0.00084056
-0.00098537 -0.0051419 0.0057132 0.008329 0.32886 -0.10487 -0.0016618 0.00061384
-0.00041259 -0.0011833 0.0004192 -0.00059786
0.0014514 0.0018736 0.00052593 -0.0015618 -0.0016641 0.00061289 0.23485 0.1004
-0.01129 0.0085197 0.0022603 0.0007088
-0.00032518 -0.0022354 -0.00061259 -0.0010372 -0.0004181 -0.0011832 -0.011285 0.0085497
0.17318 0.17924 -0.0095809 0.0079218
-0.0001869 0.00046088 -0.00024231 -0.00084246 0.00042211 -0.00061261 0.0022616 0.00071267
-0.009596 0.0079278 0.21887 0.2365
1640000000 0.29394 0.026138 -0.0010197 0.012612 -0.0029586 -0.002807 0.0027125 0.0010577
-0.00088697 -0.0015496 -0.00028939 0.00071025
-0.0010308 0.012601 0.20102 0.27371 0.0062556 0.0032942 -0.00062947 -0.0017773
-0.0010383 -0.00035626 -0.0005638 -0.0005848
-0.0029766 -0.002775 0.006282 0.0032418 0.30101 -0.154 -0.00067639 0.0014698
-0.0010661 -0.00085836 -0.00018861 -0.00032156
0.0027193 0.0010571 -0.00065093 -0.0017808 -0.00067675 0.0014753 0.24707 0.051823
-0.0066197 0.0095278 0.0025577 -0.00079402
-0.00089016 -0.0015351 -0.001047 -0.00036153 -0.0010702 -0.00085552 -0.0065908 0.0095483
0.1963 0.15485 -0.0045633 0.010066
-0.00027883 0.00070699 -0.00055741 -0.00058543 -0.00018187 -0.00030954 0.0025503 -0.00079964
-0.0045673 0.010072 0.2448 0.20554
1700000000 0.28699 -0.018728 0.002449 0.0095153 -0.0036978 3.4172e-05 0.0031398 -0.0011553
-0.0020693 -0.00058171 0.00060681 0.00037468
0.0024289 0.0094987 0.21901 0.24294 0.004051 0.00030339 -0.0015135 -0.00059824
-0.00080068 2.376e-05 -0.00091354 -0.00041357
-0.0037075 4.4425e-05 0.0040424 0.00027873 0.25835 -0.19391 0.00044733 0.0015909
-0.0019825 -7.1754e-06 -0.00046961 -0.0010301
0.0031324 -0.0011513 -0.0015244 -0.0005928 0.00043671 0.0015867 0.24363 0.0024602
-0.0037041 0.0095508 0.0015764 -0.0022401
-0.0020668 -0.00056852 -0.00080736 3.4429e-05 -0.0019825 6.2237e-06 -0.0036851 0.0095648
0.21316 0.13465 0.00042384 0.0099483
0.00062305 0.00037645 -0.00091733 -0.0003993 -0.00048626 -0.0010333 0.001571 -0.0022421
0.00043358 0.0099458 0.26092 0.17135
1760000000 0.27594 -0.066971 0.004693 0.0060676 -0.0024287 0.0010983 0.0013669 -0.0034014
-0.0013519 0.00078234 0.00036757 -0.00048478
0.0046783 0.0060535 0.2455 0.20393 0.001538 -0.0016022 -0.0012328 0.00015936
-0.00103 0.00090172 -0.00056801 0.00044382
-0.0024453 0.0011301 0.0015171 -0.0016019 0.21037 -0.22775 0.0011181 0.0011192
-0.0012693 0.001589 -0.0012754 -0.00062606
0.001358 -0.0034251 -0.001228 0.00017909 0.0011193 0.0011293 0.23519 -0.048404
-0.00054349 0.0082869 -0.00010806 -0.0024764
-0.0013437 0.00080033 -0.0010355 0.00092646 -0.00127 0.0015947 -0.00053482 0.0082922
0.22792 0.10032 0.0044023 0.0073281
0.00036244 -0.00050891 -0.00055413 0.00045309 -0.0012842 -0.00063426 -0.00012778 -0.0024782
0.004407 0.0073351 0.27386 0.13396
1820000000 0.25204 -0.10443 0.0046428 0.0023895 -7.2716e-05 0.002586 -0.00089612 -0.0031541
-0.00099084 0.0010608 -6.9513e-05 -0.00017292
0.0046303 0.0023867 0.25603 0.17419 -0.00075451 -0.00026769 -0.0012977 0.00098776
-5.8307e-05 0.0012426 -0.00047109 0.00051849
-6.4158e-05 0.0025818 -0.00074987 -0.00025879 0.15952 -0.24369 0.001689 0.00039086
-0.00012802 0.0023861 -0.0014122 0.00046097
-0.00091903 -0.0031658 -0.0012988 0.0010026 0.0016851 0.00039067 0.20564 -0.095553
0.0006722 0.0068461 -0.0015462 -0.0015788
-0.0009916 0.0010455 -4.4027e-05 0.0012492 -0.00011988 0.002387 0.00068536 0.0068451
0.24498 0.071688 0.0053748 0.0035602
-5.3163e-05 -0.00016103 -0.00046071 0.00052178 -0.0013952 0.00045703 -0.0015468 -0.0015657
0.0053719 0.0035531 0.27614 0.097446
1880000000 0.21739 -0.14481 0.0023064 0.00014834 -0.00044837 0.0022292 -0.0029076 -0.0023307
-0.0001257 0.0017439 8.5676e-05 -0.00055936
0.0023009 0.00016145 0.26126 0.12821 -0.0025951 0.0016621 -0.00020856 0.0016973
0.00056562 0.0012849 9.1955e-05 0.00085225
-0.00043955 0.0022286 -0.0025866 0.0016845 0.10762 -0.25294 0.0018016 -0.0010517
0.0016316 0.0019317 -0.0009417 0.0013202
-0.0029092 -0.0023195 -0.00019413 0.0016975 0.0018175 -0.0010547 0.16565 -0.13573
0.001187 0.0048804 -0.0024471 2.0077e-05
-0.00010478 0.0017568 0.00057694 0.0012915 0.0016355 0.0019259 0.0011864 0.0048774
0.24874 0.040831 0.0055199 0.0008057
8.4846e-05 -0.00057097 0.00010906 0.00084856 -0.00094854 0.0013343 -0.0024367 1.4839e-05
0.0055198 0.00080883 0.27635 0.063284
1940000000 0.17849 -0.17108 -0.00012639 -0.001443 0.0014018 0.0020183 -0.003825 0.00043149
0.0013029 0.00095572 -0.00067255 -0.00061676
-0.00012777 -0.0014381 0.26273 0.096319 -0.0013775 0.0041457 0.0010434 0.0013569
0.0018031 0.00050253 0.00094124 0.0003095
0.0014233 0.0020005 -0.0013243 0.0041745 0.062277 -0.2459 0.00054551 -0.0023178
0.0023686 0.00032637 0.00048068 0.0017089
-0.0038234 0.00043195 0.0010672 0.0013457 0.00053207 -0.0023158 0.11376 -0.16683
0.00037954 0.0038362 -0.0016691 0.0014767
0.0013251 0.00094781 0.0018162 0.00048421 0.0023578 0.00031707 0.00039439 0.003833
0.25194 0.002986 0.0038444 -0.0024706
-0.00068076 -0.00059085 0.00092333 0.00029392 0.00047749 0.0017019 -0.001661 0.0014989
0.0038281 -0.0024725 0.26553 0.026962
2000000000 0.13226 -0.18627 -0.0038193 0.00061165 0.0027234 0.0014915 -0.002429 0.0037813
0.0011359 0.00019019 -0.00063534 0.00058542
-0.0038094 0.00061461 0.24913 0.060566 -0.00085447 0.0058583 0.0016277 0.00049034
0.0013611 -0.0010755 0.00041379 0.00024122
0.0027328 0.0014609 -0.0008137 0.0058583 0.018881 -0.2324 -0.0012735 -0.0012969
0.0020702 -0.001081 0.0015942 0.0016779
-0.0024003 0.0037967 0.0016144 0.00047441 -0.0012739 -0.001297 0.060345 -0.17732
-0.00087918 0.0036625 -0.00037934 0.0023449
0.0011263 0.00017706 0.0013702 -0.0011163 0.0020584 -0.0010873 -0.00087627 0.0036688
0.2473 -0.029784 0.00031784 -0.0034423
