!Keysight Technologies,M9804A,MY58100912,A.14.10.03
!Date: Thursday, April 27, 2023 10:28:33
!Correction: S11(C  6-Port  ) 
!S12(C  6-Port  ) 
!S13(C  6-Port  ) 
!S14(C  6-Port  ) 
!S15(C  6-Port  ) 
!S16(C  6-Port  ) 
!S21(C  6-Port  ) 
!S22(C  6-Port  ) 
!S23(C  6-Port  ) 
!S24(C  6-Port  ) 
!S25(C  6-Port  ) 
!S26(C  6-Port  ) 
!S31(C  6-Port  ) 
!S32(C  6-Port  ) 
!S33(C  6-Port  ) 
!S34(C  6-Port  ) 
!S35(C  6-Port  ) 
!S36(C  6-Port  ) 
!S41(C  6-Port  ) 
!S42(C  6-Port  ) 
!S43(C  6-Port  ) 
!S44(C  6-Port  ) 
!S45(C  6-Port  ) 
!S46(C  6-Port  ) 
!S51(C  6-Port  ) 
!S52(C  6-Port  ) 
!S53(C  6-Port  ) 
!S54(C  6-Port  ) 
!S55(C  6-Port  ) 
!S56(C  6-Port  ) 
!S61(C  6-Port  ) 
!S62(C  6-Port  ) 
!S63(C  6-Port  ) 
!S64(C  6-Port  ) 
!S65(C  6-Port  ) 
!S66(C  6-Port  ) 
!S6P File: Measurement: :
# Hz S  RI   R 50
500000000 -0.33305 -0.055721 -0.010164 -0.0018303 -0.0082729 0.012713 -0.0039943 0.011343
0.012466 0.0060767 -0.003784 0.007338
-0.010158 -0.0018386 -0.4158 -0.065207 0.0085355 -0.01082 0.0011254 0.011908
0.0078378 0.0029225 0.0012908 0.013625
-0.0082479 0.012724 0.0085566 -0.010848 -0.2669 0.19762 0.0066932 0.0035221
-0.0014491 0.008557 0.00028407 0.011905
-0.0040147 0.011333 0.0011564 0.011894 0.0066894 0.0035289 -0.33116 0.042052
-0.018294 -0.0039284 0.016727 0.024552
0.012479 0.0060353 0.0078555 0.0028658 -0.001421 0.0085819 -0.018286 -0.0038965
-0.24543 -0.19934 -0.026502 0.0060981
-0.0037971 0.0072894 0.0013569 0.013546 0.00028517 0.011932 0.01674 0.024539
-0.026517 0.0061227 -0.27018 -0.12532
560000000 -0.31907 0.11063 -0.023547 -0.065387 0.00054707 0.012909 0.0054203 0.010834
0.01156 0.0039318 0.01025 0.0083304
-0.023501 -0.065241 -0.37556 0.098318 -0.041258 -0.03837 0.013004 0.0032348
-0.012082 -0.0040258 0.0033072 -0.0012844
0.00055471 0.012901 -0.041394 -0.038335 -0.18645 0.25019 -0.00016245 -0.0046895
0.01848 0.0063544 0.0081085 -0.0057829
0.0054358 0.010807 0.013039 0.0032773 -0.00018786 -0.0047283 -0.30557 0.13383
0.0056048 -0.024745 0.0050281 -0.021527
0.011613 0.0039639 -0.01205 -0.0040944 0.018523 0.0063242 0.0056187 -0.024722
-0.31063 -0.016671 0.0078707 -0.049248
0.010235 0.008359 0.0032973 -0.0011991 0.0081077 -0.0057627 0.0050193 -0.021517
0.0078897 -0.04934 -0.3313 0.021486
620000000 -0.27807 0.091631 -0.023055 0.0086446 0.0034981 0.0092645 0.0075998 -0.0043238
0.011591 -0.0014469 -2.806e-05 -0.0023224
-0.023037 0.0086557 -0.40303 0.046853 -0.018613 0.000245 -0.0017494 -0.0016883
0.012227 -0.0066945 0.00034531 -0.0032756
0.0035185 0.0092729 -0.018634 0.00028452 -0.15631 0.25864 -0.0009371 -0.0050612
-0.0035796 -0.0032409 0.0087635 -0.0030198
0.007562 -0.0043324 -0.0017611 -0.0017063 -0.00093534 -0.0050739 -0.26449 0.14394
-0.03928 -0.018245 0.014367 0.026975
0.011632 -0.0015241 0.012234 -0.0067488 -0.0035981 -0.0032428 -0.039245 -0.018209
-0.22888 -0.054903 -0.042334 0.013036
-7.9797e-05 -0.0023126 0.00031152 -0.0033106 0.0087637 -0.0030354 0.014352 0.027025
-0.042381 0.013011 -0.24903 -0.0098025
680000000 -0.23996 0.18224 -0.026336 -0.014806 0.0048307 0.0054693 0.0012053 -0.0077764
-0.0025578 -0.011756 0.0060922 -0.0077771
-0.026315 -0.014792 -0.38999 0.14834 -0.032764 -0.0022113 -0.0019707 -0.00076131
-0.0017755 -0.0093061 -0.00069848 -0.0021784
0.0048473 0.0054683 -0.032789 -0.002139 -0.10478 0.27967 -0.001096 -0.00043227
-0.0016544 0.00068636 -0.002699 -0.0093723
0.0012074 -0.0077741 -0.0019866 -0.00076959 -0.0011107 -0.00042344 -0.21974 0.19644
-0.02448 -0.0083048 -0.0084254 -0.011978
-0.0025705 -0.01176 -0.0018136 -0.0093121 -0.0016493 0.00067762 -0.024496 -0.008266
-0.27858 0.050367 -0.0070141 -0.0078225
0.0060796 -0.0078298 -0.00071309 -0.0021557 -0.0027016 -0.0093754 -0.0084069 -0.012011
-0.0070141 -0.0078438 -0.25981 0.091721
740000000 -0.19416 0.1758 -0.040048 0.026595 0.013864 -0.0048386 -0.00010553 -0.0043569
-0.0045698 -0.0033917 -0.0061586 0.0031555
-0.040048 0.026545 -0.33578 0.1663 -0.037094 0.034991 -0.00012302 -0.0062171
-0.01153 0.0082367 -0.0016024 -0.0060636
0.013854 -0.0048521 -0.037016 0.035146 -0.071261 0.27732 -0.0016369 0.0034566
-0.003269 -0.0053035 -0.00097087 0.0010594
-0.00011326 -0.0043557 -0.00015673 -0.0061849 -0.0016269 0.0034622 -0.20308 0.20304
-0.043298 -0.0081042 0.022637 0.015448
-0.0045873 -0.0033958 -0.011544 0.0083035 -0.0032358 -0.0053303 -0.04332 -0.0080572
-0.17852 0.076057 -0.042561 0.00059165
-0.0061189 0.0032066 -0.0016429 -0.0059648 -0.00097895 0.0010647 0.022668 0.015431
-0.042561 0.00060305 -0.24856 0.099393
800000000 -0.16279 0.21968 -0.022526 0.016494 0.0059403 -0.010644 -0.0041737 -0.0022109
-0.0048075 0.0022034 0.004803 0.00064279
-0.022538 0.016449 -0.34246 0.23807 -0.0087939 0.034519 -0.002043 0.0021596
-0.0011394 0.0028519 0.0012356 0.0054739
0.0059106 -0.010645 -0.0087035 0.034578 -0.032544 0.30178 0.0011173 0.001393
2.3669e-05 0.0035372 -0.0016384 0.0011556
-0.004165 -0.0022008 -0.0020463 0.002161 0.0011178 0.0013887 -0.17469 0.23075
-0.028922 0.013062 0.014216 -0.010122
-0.0047878 0.0022402 -0.0011451 0.0028526 3.0633e-05 0.00354 -0.028926 0.013124
-0.22378 0.10561 -0.017435 0.01956
0.0047969 0.00064271 0.0012511 0.0054567 -0.0016464 0.001154 0.014225 -0.010135
-0.017453 0.019522 -0.24129 0.14809
860000000 -0.12851 0.24023 -0.018269 0.03057 -0.0028675 -0.010592 -0.0017063 0.00086977
0.0040071 0.0050552 -0.0034923 -0.0028912
-0.018257 0.030538 -0.29399 0.28123 0.0074256 0.03491 0.00013324 0.0021258
0.0033956 0.00064285 0.0032598 0.00017799
-0.0028946 -0.010586 0.0075323 0.034931 0.015366 0.31063 -0.00063583 -0.00014517
0.0022361 -0.0016134 0.0015378 0.0042917
-0.0016972 0.00087662 0.0001367 0.0021067 -0.00063326 -0.00014168 -0.13833 0.24254
-0.018514 0.018858 -0.0061676 -0.0092336
0.0040133 0.005042 0.0034378 0.00062536 0.002238 -0.0016342 -0.018495 0.018894
-0.16729 0.15787 -0.024222 0.016285
-0.0034986 -0.002895 0.0032278 0.00012795 0.001539 0.0042853 -0.0061873 -0.0092397
-0.024226 0.016298 -0.1903 0.19303
920000000 -0.10468 0.26352 0.0044288 0.038786 -0.009439 -0.0050819 -0.001853 0.001883
0.0012415 0.0021529 0.0026615 -0.0014176
0.004413 0.038743 -0.26687 0.30264 0.02845 0.023286 0.001716 0.0014948
0.0074896 -0.00016499 0.0044357 -0.0024076
-0.0094547 -0.0050683 0.028548 0.023235 0.060941 0.31213 0.0018587 9.2209e-05
0.0011548 -0.00015681 0.0010921 -0.0011665
-0.001816 0.0018931 0.0017102 0.0014818 0.0018501 0.00010104 -0.11393 0.25951
-0.011368 0.031636 0.0038043 -0.0069605
0.001227 0.0021873 0.0074989 -0.00020654 0.0011532 -0.0001516 -0.011319 0.031666
-0.15645 0.16351 -0.001651 0.027259
0.0026933 -0.0013913 0.0044387 -0.0024357 0.0011025 -0.0011619 0.0037908 -0.0069533
-0.001637 0.027243 -0.19826 0.20634
980000000 -0.058116 0.2844 0.016988 0.030717 -0.0096205 0.0042952 0.0019793 0.0036912
0.0041055 -0.0016097 -0.0027053 -0.0023565
0.016972 0.030706 -0.21375 0.33801 0.033978 0.0055634 0.0021648 -0.00024707
0.001691 -0.0060975 -1.8083e-05 -0.0024769
-0.0096083 0.0043335 0.034007 0.0054635 0.107 0.30676 0.00081576 -0.0011242
0.00054222 -0.0019047 0.0018571 -0.00020382
0.0020031 0.0036983 0.0021496 -0.00028434 0.0008259 -0.0011249 -0.075664 0.27079
0.0077205 0.03044 -0.009214 -0.0075242
0.0040898 -0.0016263 0.0016761 -0.0061338 0.00054161 -0.0018961 0.0077787 0.030441
-0.12235 0.19432 0.0056698 0.01952
-0.0027064 -0.0023205 -2.7626e-05 -0.0025068 0.0018681 -0.00020727 -0.0092196 -0.0075181
0.0056531 0.0195 -0.15558 0.25117
1040000000 -0.016701 0.29333 0.033261 0.019478 -0.0016046 0.0072739 0.0027405 0.00062841
0.00028145 -0.0035307 -0.00018142 -0.0015654
0.033235 0.019495 -0.17864 0.35167 0.030613 -0.01478 0.0016519 -0.0018062
-0.0023147 -0.0025768 -0.0011134 -0.0026575
-0.0015746 0.0072749 0.030589 -0.014888 0.15324 0.29377 -0.00046846 -0.0017094
-0.0016895 -0.00099894 -0.00043642 -0.0012327
0.0027604 0.00062226 0.0016362 -0.0018266 -0.00046555 -0.0017086 -0.048125 0.28081
0.019798 0.019332 -0.0028251 0.001179
0.000264 -0.0035175 -0.0023201 -0.0025663 -0.0016931 -0.00098664 0.019835 0.019304
-0.089841 0.20172 0.014357 0.018674
-0.00017936 -0.0015464 -0.0011354 -0.0026356 -0.00042672 -0.0012357 -0.0028258 0.0011849
0.014349 0.018682 -0.1327 0.27184
1100000000 0.028037 0.30256 0.036996 -0.0034227 0.0029759 0.0043163 0.0024447 -0.0011951
-0.0020522 -0.0030868 -0.0038718 -0.00013206
0.036972 -0.0033984 -0.13555 0.3703 0.016138 -0.028509 -1.1514e-05 -0.0018534
-0.0036433 -0.00081777 -0.0035276 -0.00054784
0.0029883 0.0043064 0.016046 -0.0286 0.19961 0.27448 -0.0019269 8.7036e-05
-0.0018203 0.00051103 -0.0011346 -0.0006542
0.0024493 -0.0012027 -1.8626e-05 -0.0018703 -0.0019232 8.3007e-05 -0.0072847 0.28631
0.025787 0.0056884 -0.0023222 0.00042396
-0.0020734 -0.0030851 -0.0036532 -0.00081062 -0.0018318 0.00050809 0.025801 0.0056497
-0.069158 0.21473 0.020034 0.0086935
-0.0038695 -0.00011147 -0.0035426 -0.0005354 -0.0011364 -0.00064465 -0.0023166 0.00042858
0.020033 0.0086911 -0.08737 0.3007
1160000000 0.079475 0.299 0.025097 -0.020774 0.0030598 -0.00052085 -0.00026075 -0.0025009
-0.0040355 -0.00082323 -0.00097596 0.0040936
0.025102 -0.020736 -0.091746 0.37522 -0.0033324 -0.030134 -0.0017279 -0.0016641
-0.002829 0.0026337 -0.0015208 0.0019319
0.0030729 -0.00053671 -0.0034753 -0.030131 0.24324 0.24415 -0.00077609 0.00186
-0.00063305 0.0019665 -0.0011081 0.00029111
-0.00027273 -0.0024825 -0.0017358 -0.0016695 -0.0007799 0.0018665 0.032729 0.28352
0.022064 -0.010911 -0.0031915 0.0053012
-0.0040708 -0.00081044 -0.0028091 0.0026436 -0.00064057 0.0019755 0.022058 -0.010938
-0.034757 0.22296 0.018527 -0.00057332
-0.00096181 0.0041001 -0.0015282 0.0019361 -0.0011048 0.00029336 -0.0031947 0.0053144
0.018528 -0.00056815 -0.039995 0.3035
1220000000 0.12354 0.28924 0.011403 -0.030778 -0.0015812 -0.0011461 -6.0171e-05 -0.00082057
-0.0027936 0.0022416 0.0010735 0.002058
0.011424 -0.030735 -0.0472 0.38839 -0.01736 -0.022225 -0.0026735 0.00056529
6.8868e-05 0.0031119 -0.00081839 0.0019561
-0.001576 -0.0011455 -0.017474 -0.022177 0.28239 0.20517 0.00084952 0.0018142
0.00064149 0.00136 0.00027912 0.00060973
-6.1198e-05 -0.00082009 -0.0026805 0.00056587 0.00084837 0.0018093 0.073064 0.27459
0.011245 -0.018013 0.0022289 0.0013709
-0.0027887 0.0022626 7.9822e-05 0.0031218 0.00064204 0.0013616 0.011226 -0.018033
-0.010863 0.23217 0.014134 -0.013557
0.0010775 0.0020563 -0.00080538 0.001959 0.00028111 0.00061314 0.0022366 0.0013676
0.01412 -0.01356 -0.0088635 0.31866
1280000000 0.17421 0.2689 -0.0077791 -0.029524 -0.0020732 0.0023852 -0.0008171 -0.0019792
-0.0007211 0.0033295 0.002649 0.0012474
-0.0077428 -0.0295 -0.00049895 0.38006 -0.024716 -0.0089101 -0.00095015 0.0014864
0.0017377 0.0017149 0.0006117 0.0021133
-0.0020704 0.002394 -0.024783 -0.0088083 0.31294 0.16159 0.0015869 -6.4384e-05
0.0012227 0.00024549 0.00023684 0.00032992
-0.00081623 -0.0019745 -0.00094988 0.0014877 0.0015835 -6.4991e-05 0.11026 0.25797
0.0008469 -0.020307 -6.6935e-05 0.00022224
-0.00070461 0.0033424 0.0017564 0.0017066 0.0012238 0.00024364 0.00081056 -0.020316
0.026376 0.23577 0.0029637 -0.015789
0.0026469 0.0012243 0.00061306 0.0021154 0.00023837 0.00032618 -6.3857e-05 0.00021918
0.0029638 -0.015774 0.038786 0.32092
1340000000 0.21201 0.23576 -0.01798 -0.01971 0.00063366 0.0047313 -0.0017422 -0.00074527
0.0014359 0.0027413 0.0017898 -0.0013619
-0.01795 -0.019696 0.039297 0.37183 -0.02234 0.0043863 -2.7541e-05 0.002015
0.0019529 0.00078743 0.0012922 0.00079397
0.00064944 0.0047203 -0.022353 0.0045018 0.3348 0.11434 0.0011215 -0.00095175
0.00071623 -0.00060646 0.00014803 0.00026655
-0.0017458 -0.0007352 -1.6321e-05 0.0020087 0.0011111 -0.00094977 0.14326 0.23648
-0.0091529 -0.017345 0.00074813 0.0004718
0.0014405 0.0027389 0.001961 0.00077422 0.00071085 -0.00059858 -0.0091879 -0.017331
0.057396 0.23096 -0.0042053 -0.014537
0.0017837 -0.0013752 0.0012961 0.00079127 0.00014359 0.00026832 0.00075288 0.00047683
-0.0041923 -0.014544 0.076565 0.3155
1400000000 0.24577 0.19841 -0.024189 -0.0077587 0.0053185 0.0035185 -0.0021116 0.00064303
0.0025674 0.00097524 0.00026092 -0.0016166
-0.024162 -0.0077662 0.076784 0.35907 -0.015362 0.012988 0.0013457 0.00125
0.0012179 -0.00083308 0.0011782 9.7473e-05
0.0053345 0.0034982 -0.015316 0.013074 0.34783 0.061467 4.045e-05 -0.0016686
0.00016704 -0.00043385 0.00036136 0.00022654
-0.0021129 0.00065436 0.001353 0.0012431 3.6475e-05 -0.0016679 0.17234 0.2074
-0.015488 -0.0099507 -0.00090504 -7.2269e-05
0.0025719 0.00095736 0.0012203 -0.00084583 0.00016644 -0.00043294 -0.015509 -0.0099102
0.090843 0.22625 -0.010624 -0.0090197
0.00025004 -0.0016131 0.0011831 8.2033e-05 0.00035626 0.0002208 -0.00091787 -7.9713e-05
-0.010609 -0.009031 0.12118 0.30425
1460000000 0.26926 0.1545 -0.02102 0.0050319 0.0058687 -0.0017456 -0.0015178 0.0016927
0.0022343 -0.00053838 -0.0004198 -0.0010036
-0.021001 0.0050185 0.11108 0.337 -0.0060809 0.016055 0.001662 0.00011453
0.00089751 -0.0013656 0.0012252 -0.00067846
0.0058583 -0.0017695 -0.0060098 0.016105 0.35442 0.0080052 -0.001247 -0.001318
0.00016791 -0.00033664 0.0007105 -0.00019728
-0.0015163 0.001701 0.0016623 0.00011123 -0.0012417 -0.0013273 0.19868 0.17795
-0.016552 -0.0027597 -0.00084467 0.002043
0.002232 -0.00054613 0.00088882 -0.0013711 0.00016926 -0.00033276 -0.016564 -0.0027228
0.12074 0.21142 -0.012573 -0.0028143
-0.00042629 -0.00099238 0.0012224 -0.00068547 0.0007138 -0.00020227 -0.00083644 0.0020493
-0.012565 -0.0028172 0.15472 0.28335
1520000000 0.28169 0.11283 -0.015159 0.010703 0.0035116 -0.0043197 0.00013557 0.0025458
0.0021586 -0.0020171 -0.0012101 -0.00013293
-0.01515 0.010678 0.14432 0.32253 0.0018613 0.013519 0.001649 -0.00074439
5.5719e-05 -0.0010777 0.00022176 -0.0010966
0.0034929 -0.0043373 0.0019318 0.013525 0.34799 -0.047628 -0.0010685 -0.00035251
0.00066113 -0.00088786 3.6521e-05 -0.00023784
0.0001411 0.0025496 0.0016336 -0.00074667 -0.0010662 -0.00034408 0.22135 0.13955
-0.015433 0.0035339 0.0016061 0.002175
0.0021475 -0.002033 4.9804e-05 -0.0010773 0.00066726 -0.00089288 -0.015433 0.0035661
0.14897 0.1973 -0.012388 0.0021018
-0.0012174 -0.00011825 0.00020655 -0.0011023 3.2396e-05 -0.00023953 0.0016005 0.002166
-0.012403 0.0020954 0.18718 0.26299
1580000000 0.29148 0.067142 -0.0080442 0.014047 -0.00092904 -0.0051496 0.0014598 0.0019116
-0.00031258 -0.0022265 -0.0001834 0.00046826
-0.0080445 0.014023 0.17141 0.29826 0.005673 0.0083583 0.00053053 -0.0015632
-0.00059583 -0.0010295 -0.00022412 -0.00081997
-0.00095775 -0.0051483 0.0057232 0.008338 0.32889 -0.10484 -0.0016855 0.00054868
-0.00041846 -0.0011895 0.00034959 -0.00054869
0.0014724 0.001911 0.00051711 -0.0015708 -0.0016862 0.00055594 0.23479 0.10041
-0.01133 0.0084922 0.0023056 0.00069789
-0.00032485 -0.0022315 -0.00060192 -0.0010166 -0.00042247 -0.0011888 -0.011316 0.0085218
0.17316 0.1791 -0.0096335 0.0078367
-0.00018672 0.0004687 -0.00023201 -0.0008138 0.00035326 -0.00055158 0.0023169 0.00069021
-0.0096282 0.0078301 0.21872 0.2366
1640000000 0.29386 0.026224 -0.0010187 0.012611 -0.0029203 -0.0027165 0.002689 0.001025
-0.00090153 -0.00159 -0.00033523 0.00067967
-0.0010185 0.012601 0.20096 0.27377 0.0062438 0.0033053 -0.0006176 -0.0017776
-0.0010285 -0.00038882 -0.00059467 -0.00062667
-0.0029472 -0.0027017 0.0062703 0.0032701 0.30092 -0.15392 -0.00069498 0.0014765
-0.0010975 -0.00079058 -0.000163 -0.00042001
0.002693 0.001013 -0.00063121 -0.001786 -0.00069065 0.001479 0.24706 0.051921
-0.0066952 0.0095592 0.0024415 -0.00078567
-0.00090874 -0.0015816 -0.0010252 -0.00038119 -0.001091 -0.0007925 -0.0066749 0.0095884
0.19612 0.15489 -0.004538 0.0099596
-0.00033445 0.00068127 -0.00060064 -0.00062676 -0.00016458 -0.00041726 0.0024523 -0.00079632
-0.004536 0.009957 0.24448 0.20556
1700000000 0.28702 -0.01869 0.0024618 0.0095208 -0.0037009 2.9173e-05 0.0031198 -0.001137
-0.0020593 -0.00055446 0.0005616 0.00032746
0.0024531 0.009515 0.21897 0.24298 0.0040506 0.00030034 -0.0015159 -0.00059376
-0.00079139 6.2792e-05 -0.00087413 -0.00040248
-0.0037013 3.8075e-05 0.0040537 0.00027991 0.2584 -0.19383 0.00043326 0.0016041
-0.0020227 2.847e-05 -0.00046063 -0.00089415
0.0031122 -0.0011437 -0.0015206 -0.00058542 0.00042846 0.001613 0.24363 0.002575
-0.0037007 0.0095759 0.0016301 -0.0021769
-0.0020718 -0.0005412 -0.00079568 6.9103e-05 -0.0020177 4.024e-05 -0.0036803 0.0095935
0.21303 0.13471 0.00045319 0.010065
0.00057454 0.00032533 -0.00088196 -0.00040061 -0.00046413 -0.00089583 0.0016325 -0.0021831
0.00046928 0.010059 0.2608 0.17158
1760000000 0.2759 -0.066913 0.0046829 0.0060721 -0.0024386 0.0011054 0.001344 -0.0034289
-0.0013304 0.00077575 0.00037019 -0.000579
0.0046819 0.0060666 0.24543 0.20399 0.001521 -0.0015385 -0.0012388 0.00016105
-0.0010292 0.00091657 -0.00052998 0.00042246
-0.0024403 0.0011265 0.0015147 -0.0015519 0.21043 -0.22756 0.0010723 0.0010997
-0.0012691 0.0014699 -0.0012893 -0.00065812
0.0013301 -0.003438 -0.0012461 0.00016418 0.0010746 0.0010987 0.23511 -0.048411
-0.00057056 0.0082653 -0.00024007 -0.0025187
-0.0013199 0.00079541 -0.0010253 0.00092918 -0.0012749 0.0014702 -0.00055386 0.0082698
0.22783 0.10038 0.004409 0.0072941
0.0003579 -0.00058558 -0.00052862 0.00043203 -0.0012994 -0.00066165 -0.00024145 -0.0025237
0.0044152 0.0072878 0.27382 0.13389
1820000000 0.25204 -0.10434 0.0046385 0.0024311 -8.7471e-05 0.0025647 -0.00089756 -0.0031425
-0.0010255 0.0010681 -1.3056e-05 -8.4129e-05
0.0046327 0.0024235 0.256 0.17427 -0.00076367 -0.00026518 -0.0013115 0.00097115
-5.8379e-05 0.0012384 -0.00046452 0.00057131
-7.1775e-05 0.0025666 -0.00075253 -0.00026789 0.15959 -0.24359 0.0017158 0.00035335
-8.1257e-05 0.0023995 -0.0014519 0.00042932
-0.00091249 -0.0031456 -0.0013069 0.0009766 0.0017126 0.00036087 0.20565 -0.095425
0.00064972 0.0069017 -0.0015202 -0.0016405
-0.0010197 0.0010813 -4.2389e-05 0.0012344 -8.2525e-05 0.0024034 0.0006658 0.0068989
0.24483 0.071786 0.0054369 0.0035082
-7.7897e-06 -8.1725e-05 -0.00045788 0.00057318 -0.0014569 0.00042891 -0.0015168 -0.0016287
0.0054422 0.0035061 0.27625 0.097525
1880000000 0.21743 -0.14487 0.0023291 0.00011326 -0.00044627 0.0021959 -0.0028623 -0.002293
-9.0166e-05 0.0017798 4.5744e-05 -0.00054959
0.0023301 0.00010655 0.2612 0.12827 -0.0026104 0.0016734 -0.00022781 0.0017243
0.00053943 0.0012873 8.9381e-05 0.0008387
-0.00044954 0.0021972 -0.0026005 0.0016901 0.10761 -0.25292 0.0017219 -0.0010917
0.0016499 0.0018707 -0.0010101 0.0012549
-0.0028704 -0.0022709 -0.00021701 0.0017357 0.0017279 -0.0010829 0.16554 -0.13574
0.0010884 0.0048235 -0.002438 0.00010174
-8.6302e-05 0.0017912 0.00054772 0.0012969 0.0016554 0.0018651 0.0011023 0.00483
0.24862 0.040924 0.0054598 0.00087925
2.9265e-05 -0.00056046 9.3095e-05 0.00083307 -0.0010064 0.001245 -0.0024455 0.00011515
0.0054589 0.00087756 0.27616 0.06354
1940000000 0.17865 -0.17106 -9.5628e-05 -0.0014353 0.0014369 0.0020263 -0.0038042 0.00045118
0.0013429 0.00097921 -0.00053361 -0.00070459
-8.9402e-05 -0.0014264 0.26269 0.096388 -0.0013449 0.0041836 0.0010462 0.0013789
0.0018085 0.00050356 0.00097653 0.00027332
0.00145 0.0020131 -0.0013191 0.0042007 0.062341 -0.24581 0.00049307 -0.0022856
0.0023604 0.00026839 0.0004863 0.0016758
-0.0037934 0.00047009 0.0010564 0.0013646 0.00049525 -0.0022999 0.11391 -0.16683
0.00046222 0.0038454 -0.0016494 0.0014187
0.0013364 0.00097158 0.0018178 0.00049322 0.0023526 0.00026847 0.00048637 0.0038565
0.252 0.0031804 0.0038824 -0.0025809
-0.00054142 -0.00069894 0.00098413 0.00026061 0.00049715 0.0016819 -0.0016397 0.0014347
0.0038737 -0.0025834 0.26538 0.027193
2000000000 0.13242 -0.18624 -0.0038287 0.00062011 0.0026671 0.0014738 -0.0024367 0.0037985
0.0011304 0.00020719 -0.00070335 0.00060546
-0.0038249 0.00061284 0.2491 0.060596 -0.00088983 0.0058126 0.0016403 0.0004357
0.0014053 -0.0010801 0.00035586 0.0002152
0.0026753 0.0014494 -0.00084685 0.0058172 0.018803 -0.23254 -0.0012938 -0.0012549
0.002033 -0.001079 0.0015745 0.0016724
-0.0024246 0.0038053 0.001636 0.00043356 -0.0012964 -0.0012589 0.060215 -0.17726
-0.001012 0.003705 -0.00026979 0.0024875
0.0011378 0.00021413 0.0013899 -0.0011022 0.0020259 -0.0010811 -0.0010081 0.0037112
0.24724 -0.029633 0.00031997 -0.0032504
