!Keysight Technologies,M9804A,MY58100912,A.14.10.03
!Date: Thursday, April 27, 2023 10:28:33
!Correction: S11(C  6-Port  ) 
!S12(C  6-Port  ) 
!S13(C  6-Port  ) 
!S14(C  6-Port  ) 
!S15(C  6-Port  ) 
!S16(C  6-Port  ) 
!S21(C  6-Port  ) 
!S22(C  6-Port  ) 
!S23(C  6-Port  ) 
!S24(C  6-Port  ) 
!S25(C  6-Port  ) 
!S26(C  6-Port  ) 
!S31(C  6-Port  ) 
!S32(C  6-Port  ) 
!S33(C  6-Port  ) 
!S34(C  6-Port  ) 
!S35(C  6-Port  ) 
!S36(C  6-Port  ) 
!S41(C  6-Port  ) 
!S42(C  6-Port  ) 
!S43(C  6-Port  ) 
!S44(C  6-Port  ) 
!S45(C  6-Port  ) 
!S46(C  6-Port  ) 
!S51(C  6-Port  ) 
!S52(C  6-Port  ) 
!S53(C  6-Port  ) 
!S54(C  6-Port  ) 
!S55(C  6-Port  ) 
!S56(C  6-Port  ) 
!S61(C  6-Port  ) 
!S62(C  6-Port  ) 
!S63(C  6-Port  ) 
!S64(C  6-Port  ) 
!S65(C  6-Port  ) 
!S66(C  6-Port  ) 
!S6P File: Measurement: :
# Hz S  RI   R 50
500000000 -0.33425 -0.058006 -0.011165 -0.0015035 -0.0085624 0.013619 -0.0044567 0.012279
0.01319 0.0045675 -0.0040326 0.0080266
-0.011153 -0.0018171 -0.41599 -0.066697 0.0080096 -0.010708 0.00086475 0.012082
0.0081189 0.0027403 0.00063912 0.012711
-0.0085673 0.013773 0.007965 -0.010715 -0.26847 0.19722 0.006652 0.0039438
-0.0017199 0.0083442 1.1731e-05 0.012019
-0.0043311 0.012048 0.00093628 0.011951 0.0067778 0.0039484 -0.33155 0.041296
-0.018863 -0.0031608 0.015391 0.02411
0.013347 0.0044633 0.0078434 0.0029838 -0.0016839 0.0083343 -0.018863 -0.0031211
-0.24384 -0.20105 -0.02716 0.0070181
-0.0038515 0.0080425 0.0009691 0.013083 0.00017645 0.012107 0.016196 0.024543
-0.027153 0.0071055 -0.27144 -0.13091
560000000 -0.31999 0.10979 -0.023188 -0.065536 0.0004427 0.013783 0.0049139 0.010633
0.011121 0.005781 0.010939 0.0086285
-0.023047 -0.065423 -0.37628 0.09807 -0.042254 -0.03871 0.014359 0.0027168
-0.014824 -0.0039049 0.0054874 -0.0014017
0.00016573 0.013832 -0.042442 -0.038633 -0.18572 0.25016 -0.00063763 -0.0045611
0.018944 0.0068519 0.0077782 -0.0065617
0.0045626 0.010896 0.013768 0.0030101 -0.00036993 -0.0049819 -0.30634 0.13365
0.0042813 -0.024226 0.0055591 -0.02044
0.01165 0.0059186 -0.0145 -0.0038916 0.01907 0.007047 0.0043751 -0.024251
-0.30883 -0.020901 0.0088727 -0.049262
0.010243 0.0086837 0.0049935 -0.0015386 0.0075639 -0.0061062 0.0056547 -0.021173
0.0081648 -0.049975 -0.33266 0.020423
620000000 -0.27841 0.090151 -0.023384 0.0089612 0.0040166 0.0095542 0.0079268 -0.0044879
0.012218 -0.0012082 7.7413e-05 -0.0018774
-0.023393 0.0090196 -0.40366 0.046212 -0.018562 0.00090001 -0.0018757 -0.0019613
0.012745 -0.0062683 0.0005234 -0.0029206
0.0039639 0.0096971 -0.018567 0.00096479 -0.15612 0.25859 -0.0008545 -0.0051446
-0.0031888 -0.0027596 0.0097716 -0.0035531
0.0081709 -0.0046303 -0.0017268 -0.0019722 -0.00076941 -0.005017 -0.26564 0.14508
-0.040096 -0.019945 0.014096 0.028516
0.011815 -0.0011755 0.0127 -0.0062355 -0.0030765 -0.0028997 -0.03973 -0.020002
-0.22768 -0.054904 -0.044538 0.011144
0.00036332 -0.0022442 0.00066652 -0.0030517 0.009737 -0.0031792 0.013367 0.028066
-0.045007 0.011458 -0.24786 -0.011803
680000000 -0.24111 0.18171 -0.026474 -0.014379 0.0048437 0.0053517 0.0013441 -0.0079336
-0.0017677 -0.011923 0.0052416 -0.0070986
-0.026436 -0.01444 -0.39071 0.14769 -0.032518 -0.0021602 -0.0013645 -0.00082842
-0.0017181 -0.0089675 -0.0010453 -0.0016898
0.0049897 0.0054065 -0.032516 -0.0019874 -0.10461 0.27984 -0.0007508 -0.00056283
-0.0016767 0.00064479 -0.0023648 -0.0093798
0.0013106 -0.0079613 -0.001498 -0.00072692 -0.00080301 -0.00049867 -0.22076 0.19619
-0.023429 -0.0082327 -0.0086526 -0.011372
-0.0014454 -0.011739 -0.0016211 -0.0090334 -0.0016268 0.00061443 -0.023434 -0.0083877
-0.2802 0.049537 -0.0056277 -0.0078698
0.0056467 -0.0076915 -0.00087278 -0.0018955 -0.0024478 -0.0092191 -0.0086843 -0.011263
-0.0061306 -0.0078275 -0.26164 0.092623
740000000 -0.19427 0.17627 -0.039919 0.0272 0.014394 -0.0047998 -7.4265e-05 -0.0040472
-0.0043374 -0.0029296 -0.0063884 0.0028578
-0.039962 0.027225 -0.33546 0.16594 -0.037108 0.035179 -0.00052893 -0.0062367
-0.011276 0.0071543 -0.0024373 -0.0060903
0.014235 -0.004833 -0.037107 0.035483 -0.0708 0.2768 -0.0017305 0.0031473
-0.0026466 -0.0053624 -0.0012943 0.00066848
-0.00012907 -0.004062 2.048e-06 -0.0060941 -0.001827 0.0031876 -0.20425 0.20304
-0.042536 -0.0074294 0.022091 0.015148
-0.0045281 -0.0027855 -0.011367 0.0073199 -0.0025409 -0.0050751 -0.042557 -0.0072747
-0.1798 0.07443 -0.042144 0.0011976
-0.005963 0.0030341 -0.0016057 -0.0059525 -0.0013343 0.00066945 0.022345 0.015286
-0.041806 0.0010648 -0.2507 0.096744
800000000 -0.16298 0.2194 -0.022152 0.016253 0.0060945 -0.010868 -0.004229 -0.0023334
-0.0049107 0.0019958 0.0047124 6.0463e-05
-0.022132 0.016293 -0.34227 0.23714 -0.0085351 0.034292 -0.0021206 0.002034
-0.0014704 0.0025845 0.0010417 0.0050782
0.0060589 -0.010911 -0.0084291 0.03437 -0.032384 0.30119 0.00093539 0.0014542
-5.5418e-05 0.0034515 -0.0016148 0.00084295
-0.0042228 -0.0023025 -0.0021703 0.0020404 0.00087918 0.0015084 -0.17456 0.23087
-0.028859 0.013493 0.01439 -0.010488
-0.0047146 0.0021059 -0.0013128 0.0026417 -2.4462e-05 0.0034613 -0.028551 0.013486
-0.22409 0.10433 -0.017562 0.020286
0.0047727 0.00032821 0.0010576 0.0051203 -0.0017612 0.00089889 0.014302 -0.010531
-0.017713 0.020432 -0.24182 0.14557
860000000 -0.12849 0.23959 -0.017819 0.030343 -0.0026363 -0.010728 -0.0016054 0.00064388
0.0037769 0.0053408 -0.0032494 -0.0028935
-0.017887 0.030266 -0.29407 0.27985 0.0074604 0.034807 1.7773e-05 0.0020839
0.0038211 0.00051536 0.0030394 0.00030323
-0.0027042 -0.010764 0.0075543 0.034793 0.015037 0.30985 -0.00063544 -8.0789e-05
0.0023995 -0.0016195 0.0017658 0.0042749
-0.0016083 0.0005191 -5.0127e-05 0.001977 -0.00055238 -0.00010928 -0.13798 0.24244
-0.018483 0.018486 -0.0059499 -0.0090655
0.0039274 0.0052744 0.0038176 0.00052643 0.0025057 -0.0016406 -0.018412 0.018677
-0.16713 0.15658 -0.024362 0.016907
-0.0034618 -0.0029538 0.0031182 0.00029654 0.0017014 0.004328 -0.0061835 -0.0091668
-0.024461 0.016731 -0.19131 0.19242
920000000 -0.10536 0.26269 0.0045597 0.038402 -0.0094138 -0.0054296 -0.0019434 0.0016703
0.00094453 0.0022056 0.002871 -0.0012969
0.0045213 0.038327 -0.26723 0.30177 0.02845 0.023185 0.0014159 0.0015169
0.0076787 -0.00034043 0.0040764 -0.0025191
-0.0094436 -0.0053872 0.028536 0.023105 0.060383 0.31154 0.0019273 0.00010306
0.0011182 -0.00021971 0.0010125 -0.0012392
-0.0019553 0.001636 0.0014113 0.0015545 0.0019383 9.4998e-05 -0.11385 0.259
-0.011047 0.031516 0.0040077 -0.006828
0.00095544 0.0020837 0.0076636 -0.00036407 0.0011064 -0.00016245 -0.011011 0.031462
-0.15737 0.16208 -0.0015589 0.027303
0.0030186 -0.0014043 0.0040203 -0.0025555 0.0010654 -0.0013485 0.0039253 -0.007056
-0.0016545 0.027421 -0.20012 0.20463
980000000 -0.059051 0.28329 0.016774 0.030371 -0.0098037 0.004195 0.0017166 0.0036265
0.0040705 -0.0014986 -0.0029537 -0.0023729
0.016747 0.030294 -0.21459 0.33676 0.033806 0.0056048 0.0020547 -9.0601e-05
0.0019893 -0.0062176 -0.00040594 -0.0026354
-0.0097989 0.0042053 0.033868 0.0055347 0.10627 0.30644 0.00076286 -0.0011215
0.00047672 -0.0019001 0.0015891 -0.00027965
0.0017722 0.0036158 0.0020924 -8.9425e-05 0.00077724 -0.0011086 -0.075384 0.27008
0.0078604 0.030341 -0.009296 -0.0076437
0.0040785 -0.0015137 0.0019547 -0.006168 0.00050256 -0.0019101 0.007963 0.03037
-0.12288 0.19252 0.0053738 0.019774
-0.0028728 -0.0023512 -0.00027659 -0.0025642 0.0016048 -0.00022406 -0.0093163 -0.0076677
0.00527 0.019727 -0.15719 0.24993
1040000000 -0.017857 0.29232 0.03308 0.019391 -0.00178 0.0072495 0.0026448 0.00069136
0.00033627 -0.0033409 -0.00010961 -0.0016625
0.033024 0.019331 -0.17971 0.35051 0.030514 -0.014798 0.0015867 -0.001826
-0.0022752 -0.0027916 -0.001053 -0.0028149
-0.0017713 0.0072627 0.030523 -0.014908 0.15255 0.29376 -0.00042787 -0.0016962
-0.0015999 -0.00093923 -0.00059131 -0.0011
0.002686 0.00065849 0.0016342 -0.0018088 -0.00044663 -0.001697 -0.048174 0.27996
0.019938 0.019196 -0.0026515 0.0011637
0.00030599 -0.0033333 -0.0023238 -0.0026719 -0.0016535 -0.00095702 0.019941 0.019198
-0.089615 0.20012 0.014327 0.018635
-6.4935e-05 -0.0017573 -0.0010944 -0.0028921 -0.00064552 -0.0010643 -0.0025576 0.0010892
0.014311 0.018685 -0.13422 0.27039
1100000000 0.026781 0.30197 0.036892 -0.0034214 0.0028058 0.0043458 0.0024399 -0.00094375
-0.0020742 -0.0030121 -0.0040055 -0.00023516
0.036861 -0.0034135 -0.13659 0.3693 0.016195 -0.028587 2.3341e-05 -0.0018208
-0.0037004 -0.00091746 -0.0035935 -0.00054154
0.0028135 0.0043234 0.016128 -0.028688 0.19908 0.27455 -0.0019707 0.00011253
-0.0019285 0.00052711 -0.0012583 -0.0004828
0.0024167 -0.00091897 3.1582e-05 -0.0017758 -0.0019518 0.00013961 -0.0077074 0.28545
0.025857 0.0055047 -0.0025671 0.00011384
-0.002084 -0.0029751 -0.003739 -0.00092546 -0.0018964 0.00053622 0.025874 0.0054697
-0.069781 0.21384 0.020372 0.00892
-0.0040033 -0.00021854 -0.0036032 -0.00057415 -0.0012518 -0.00050989 -0.0024381 0.0002509
0.020404 0.0089992 -0.088977 0.29908
1160000000 0.077725 0.29865 0.024977 -0.020907 0.0028338 -0.00028869 -0.00020952 -0.0023667
-0.0041324 -0.00089214 -0.0010417 0.0041454
0.024945 -0.020867 -0.093095 0.37469 -0.0034778 -0.030214 -0.001743 -0.0016702
-0.0028226 0.0026839 -0.0015033 0.0019517
0.0028417 -0.0002972 -0.0035946 -0.030204 0.2429 0.24412 -0.00082022 0.0018717
-0.00065361 0.0020952 -0.00094627 0.00034158
-0.00023773 -0.0023743 -0.0017273 -0.0016871 -0.00083427 0.0019068 0.031956 0.28292
0.021939 -0.011006 -0.0032999 0.0050828
-0.0041065 -0.00087762 -0.0028087 0.0026994 -0.00063662 0.0020763 0.021981 -0.011045
-0.036046 0.2219 0.01942 -0.00068054
-0.0010519 0.0041542 -0.0015991 0.0020796 -0.00097077 0.00040219 -0.0032939 0.0050799
0.019475 -0.00063166 -0.041928 0.30156
1220000000 0.12171 0.28924 0.011213 -0.030829 -0.0016638 -0.00095483 9.3559e-05 -0.00079505
-0.0027973 0.002237 0.0010261 0.002081
0.011218 -0.030783 -0.048652 0.38813 -0.017502 -0.022343 -0.0026698 0.00055048
4.9906e-05 0.003311 -0.00079777 0.0021446
-0.0016612 -0.00096183 -0.017622 -0.022296 0.28196 0.20509 0.0008419 0.001835
0.00066155 0.0013009 0.00035637 0.00064983
0.00010664 -0.00080628 -0.0026755 0.00055916 0.00084452 0.0018272 0.072102 0.27432
0.0111 -0.018147 0.001999 0.0013703
-0.0027735 0.0022605 3.8119e-05 0.0033371 0.0006578 0.0013366 0.011073 -0.018148
-0.012344 0.2308 0.014297 -0.013756
0.0010956 0.0020467 -0.00079168 0.0021547 0.00042141 0.00064038 0.0019857 0.0013845
0.014283 -0.01373 -0.01076 0.31789
1280000000 0.17244 0.26943 -0.008049 -0.029485 -0.0020649 0.002557 -0.00083669 -0.0020633
-0.0008901 0.0032695 0.0026824 0.0013179
-0.0080429 -0.029453 -0.0018472 0.3801 -0.024874 -0.0089643 -0.0009821 0.0015341
0.0018799 0.0017484 0.00073777 0.0021747
-0.0020483 0.0025513 -0.024956 -0.0088425 0.31237 0.16158 0.00168 -3.2066e-05
0.0013417 0.00027579 0.00039264 0.00018524
-0.0008413 -0.0020894 -0.00099011 0.0015397 0.0016819 -5.1069e-07 0.10931 0.2581
0.00061112 -0.020402 -0.00019812 0.00030917
-0.00086634 0.0032794 0.001877 0.001765 0.0013495 0.00025662 0.00056738 -0.02041
0.024536 0.23459 0.0030891 -0.015758
0.0027271 0.0012568 0.0007576 0.0021503 0.00039074 0.00019333 -0.00016405 0.00030307
0.0030284 -0.015787 0.036762 0.32029
1340000000 0.21033 0.23669 -0.018217 -0.019433 0.0008302 0.0048958 -0.0018293 -0.00089691
0.0014545 0.002866 0.0018624 -0.0013637
-0.018177 -0.01942 0.038116 0.37209 -0.022477 0.004483 -5.1627e-05 0.0020573
0.0020985 0.00069161 0.0012061 0.00080558
0.00084098 0.0049139 -0.022497 0.0045857 0.33413 0.11434 0.0011156 -0.0010054
0.00066451 -0.00064857 -1.4917e-05 0.00027636
-0.0018534 -0.00088743 -5.2652e-05 0.0020877 0.0011313 -0.00097481 0.14242 0.23684
-0.0095029 -0.01741 0.0007319 0.00062875
0.0014722 0.0028734 0.0021219 0.00068887 0.00069309 -0.00064897 -0.0095145 -0.017394
0.055002 0.23 -0.0044868 -0.014548
0.0017932 -0.0013995 0.0012181 0.00080607 2.2903e-05 0.00029304 0.00076351 0.00059727
-0.0044517 -0.014479 0.074896 0.31532
1400000000 0.24462 0.19975 -0.024245 -0.0074047 0.0054947 0.003644 -0.0022929 0.00065406
0.0026245 0.0011034 0.00032508 -0.001686
-0.024207 -0.0074052 0.075772 0.35939 -0.015473 0.013179 0.0013931 0.0012772
0.0012722 -0.00093111 0.0011968 5.0328e-05
0.0055008 0.0035964 -0.015442 0.013273 0.34695 0.061939 2.6531e-05 -0.0017987
0.00018756 -0.00039734 0.00044153 0.00021802
-0.0023056 0.00066477 0.0014063 0.0012625 2.642e-05 -0.0017819 0.17186 0.20796
-0.01584 -0.0098062 -0.00089753 6.202e-05
0.0026268 0.0010854 0.0012702 -0.00094099 0.00019111 -0.00040122 -0.015876 -0.0097791
0.08854 0.2258 -0.010977 -0.0091092
0.00029381 -0.0017158 0.0012241 7.3383e-05 0.00042703 0.00022308 -0.00082314 0.0001071
-0.010976 -0.0091365 0.11916 0.30445
1460000000 0.26829 0.15589 -0.02086 0.0053189 0.0061399 -0.0016967 -0.0015867 0.0018336
0.0024017 -0.00048657 -0.00037262 -0.0011275
-0.020827 0.0053014 0.11026 0.33743 -0.0059756 0.016301 0.0016831 0.00015242
0.00079031 -0.001397 0.0012045 -0.00062288
0.0061327 -0.0017123 -0.0058824 0.01637 0.35378 0.0086812 -0.0013728 -0.001339
6.6316e-05 -0.00028796 0.00073661 -0.0002275
-0.0015819 0.0018111 0.0016971 0.000154 -0.0013636 -0.0013424 0.19834 0.17856
-0.016783 -0.0024224 -0.00071417 0.0022187
0.0023884 -0.00050474 0.00078375 -0.0014018 7.2705e-05 -0.00029421 -0.01683 -0.0023347
0.11844 0.21186 -0.012842 -0.0028382
-0.00027611 -0.0010741 0.0012702 -0.00060275 0.000759 -0.00024154 -0.00072912 0.002247
-0.012854 -0.002882 0.15269 0.28408
1520000000 0.28114 0.11437 -0.014782 0.010934 0.0037246 -0.0045648 0.00016452 0.0026704
0.0022056 -0.0020024 -0.0012236 -9.8643e-05
-0.014775 0.010918 0.14357 0.323 0.00211 0.013684 0.0016205 -0.00079816
-4.3857e-05 -0.001046 0.00026976 -0.0010894
0.0037077 -0.0045789 0.0021956 0.01369 0.34759 -0.046606 -0.0011374 -0.00026682
0.00063805 -0.00084855 8.1583e-05 -0.00015478
0.0001543 0.0026522 0.0016191 -0.00082213 -0.0011344 -0.00026595 0.22127 0.14006
-0.015385 0.0039933 0.0017032 0.0021559
0.0021911 -0.0020415 -4.9992e-05 -0.0010407 0.00063442 -0.00086972 -0.015368 0.0040357
0.14669 0.19842 -0.012508 0.0023356
-0.0012075 -0.00010323 0.00029966 -0.0011037 0.00010235 -0.00014317 0.0017351 0.0021473
-0.0125 0.0022693 0.18545 0.26359
1580000000 0.29122 0.068516 -0.007681 0.01407 -0.0010089 -0.005426 0.0015582 0.0019126
-0.00028375 -0.0023716 -0.0001754 0.00036022
-0.0076817 0.014066 0.17072 0.29867 0.0058919 0.0083371 0.00048685 -0.0015735
-0.00058826 -0.00095561 -0.00021173 -0.00084955
-0.0010315 -0.0054282 0.0059273 0.0083219 0.32886 -0.10382 -0.0015599 0.00070039
-0.00038672 -0.0012245 0.00030708 -0.00054802
0.001571 0.0019063 0.00046257 -0.0015806 -0.0015673 0.00066998 0.23483 0.1009
-0.011106 0.0088908 0.0024153 0.0006885
-0.00025883 -0.0023737 -0.00059199 -0.00095494 -0.00040784 -0.0012206 -0.011101 0.0089137
0.17141 0.18051 -0.0096494 0.0081639
-0.00018662 0.00036079 -0.00022143 -0.00085047 0.00030376 -0.00056777 0.0024366 0.00066378
-0.0096498 0.0081782 0.21728 0.23769
1640000000 0.29376 0.027307 -0.00064281 0.012413 -0.0031774 -0.0029073 0.0027368 0.00097485
-0.00094386 -0.0016449 -0.00023518 0.00057805
-0.00063841 0.012402 0.20024 0.27432 0.006456 0.0031451 -0.00063092 -0.0017885
-0.00093516 -0.00034574 -0.00055073 -0.0006678
-0.0031968 -0.0028925 0.006468 0.0031161 0.30112 -0.1532 -0.00055566 0.0015297
-0.0011045 -0.00095992 -0.00026649 -0.00042872
0.0027511 0.00095824 -0.00063216 -0.0017955 -0.00056326 0.0015189 0.24704 0.052217
-0.0062331 0.0096662 0.0025731 -0.00087235
-0.00094461 -0.0016565 -0.0009394 -0.00034118 -0.0011179 -0.00098917 -0.0062401 0.0096919
0.19488 0.15657 -0.0043769 0.010205
-0.00028163 0.00056811 -0.00058084 -0.00067826 -0.00033577 -0.00040095 0.0025658 -0.00089379
-0.0044038 0.010129 0.243 0.20672
1700000000 0.28698 -0.017663 0.002686 0.0091595 -0.0039174 -2.8624e-05 0.0032187 -0.0013169
-0.0020828 -0.00060522 0.0005772 0.00040389
0.0026817 0.009154 0.21837 0.24357 0.0041767 9.4352e-05 -0.0014664 -0.00055439
-0.00071597 -4.2781e-05 -0.00092689 -0.00044396
-0.0039214 -1.1832e-05 0.0041729 7.0656e-05 0.25861 -0.1931 0.00048308 0.0016685
-0.0019909 1.4314e-05 -0.00052626 -0.00092018
0.003195 -0.0013497 -0.0014747 -0.00057485 0.00045411 0.0016615 0.24373 0.0028225
-0.0032306 0.0094707 0.0017609 -0.0023527
-0.0020778 -0.00062196 -0.00069616 -5.2154e-05 -0.0019679 -7.4699e-08 -0.0032127 0.0094647
0.21222 0.13628 0.00064766 0.010268
0.00059943 0.00035902 -0.00092522 -0.00045852 -0.00052432 -0.00095449 0.0017219 -0.0023764
0.00061139 0.010265 0.2597 0.17293
1760000000 0.27565 -0.065829 0.0046837 0.0055485 -0.0024958 0.0011101 0.0012951 -0.0034971
-0.0013135 0.00079385 0.00024456 -0.00049822
0.0046725 0.0055432 0.24485 0.20456 0.0015263 -0.0018711 -0.0012104 0.0001554
-0.0010246 0.00085037 -0.0006141 0.00039075
-0.0024794 0.0011286 0.0015198 -0.0018942 0.21109 -0.22719 0.001087 0.0010133
-0.0012379 0.0015866 -0.0012803 -0.00065385
0.0012747 -0.00348 -0.0012113 0.0001656 0.0010171 0.0010071 0.23519 -0.048058
-0.00027522 0.0081458 -0.00014428 -0.0025635
-0.0013297 0.00080565 -0.0010374 0.00085577 -0.0012492 0.0015735 -0.00028991 0.0081444
0.22741 0.1019 0.0046652 0.0074068
0.00025566 -0.00048833 -0.00059581 0.00040094 -0.0013106 -0.00069451 -0.00014091 -0.0025631
0.0047076 0.0073611 0.273 0.13556
1820000000 0.25207 -0.10303 0.004407 0.0021024 -0.00029122 0.0027032 -0.0010658 -0.0031698
-0.0010723 0.0010478 -0.00013863 -6.7619e-05
0.0044035 0.0020922 0.25558 0.175 -0.00090239 -0.00045796 -0.0012935 0.00089585
-0.00014766 0.0011761 -0.00064374 0.00055339
-0.00026205 0.0027081 -0.0009122 -0.00044289 0.15986 -0.24356 0.0015944 0.00044451
-0.00021201 0.0023606 -0.0015223 0.00042698
-0.0010806 -0.0031491 -0.0013011 0.00089692 0.0015769 0.00044822 0.2057 -0.095327
0.00077986 0.0065019 -0.0016292 -0.0017461
-0.001063 0.0010623 -0.0001283 0.0011642 -0.00022931 0.0023748 0.00079813 0.0064738
0.24447 0.073072 0.0055792 0.0035095
-6.984e-05 -7.371e-05 -0.00060475 0.00054966 -0.0015454 0.00046471 -0.00159 -0.0017235
0.0056184 0.0034973 0.27537 0.099053
1880000000 0.21768 -0.14357 0.0019097 -4.5032e-05 -0.00065714 0.0024159 -0.0029967 -0.0022356
-0.00012532 0.0017955 0.00014232 -0.00061537
0.001899 -5.4615e-05 0.26082 0.12896 -0.002869 0.0017042 -0.00021793 0.001696
0.00043043 0.0013427 6.4571e-05 0.0009388
-0.0006326 0.0024292 -0.0028615 0.0017147 0.10791 -0.25237 0.0017317 -0.0010023
0.0015598 0.0019211 -0.00097605 0.0015325
-0.0029438 -0.0021641 -0.00020482 0.0017348 0.00172 -0.0009565 0.16565 -0.13553
0.0011373 0.0044627 -0.0025992 -7.6263e-05
-0.00011455 0.0018315 0.00045957 0.0013558 0.0015304 0.001914 0.0011266 0.0044782
0.24847 0.041942 0.0056868 0.00070944
0.00016467 -0.00054652 8.4208e-05 0.00096968 -0.000929 0.0015207 -0.0025758 -6.9965e-05
0.0057253 0.00075588 0.2757 0.065096
1940000000 0.179 -0.16979 -0.00050209 -0.0015119 0.0015266 0.002116 -0.0039205 0.00048739
0.0012464 0.00094232 -0.00065199 -0.00052917
-0.00048132 -0.0014957 0.26244 0.097088 -0.0014233 0.0041829 0.00092196 0.0013334
0.0017885 0.00060042 0.0008993 0.00037726
0.0015439 0.0020761 -0.0013889 0.0041883 0.063114 -0.24581 0.00046998 -0.0022481
0.0023884 0.00039883 0.00026402 0.0017981
-0.0038602 0.00051473 0.00095087 0.0013417 0.00046531 -0.0022439 0.11358 -0.16676
0.00021658 0.003411 -0.0018856 0.0013305
0.0012214 0.00093909 0.0017742 0.00058797 0.0023902 0.00035652 0.00015679 0.0034105
0.25178 0.0040912 0.0041289 -0.0028765
-0.00068861 -0.00052104 0.00087577 0.00037876 0.0002544 0.0017757 -0.0018535 0.0013069
0.0040847 -0.0028912 0.26532 0.028445
2000000000 0.13329 -0.18515 -0.0041256 0.00092452 0.0026518 0.0017586 -0.002169 0.0037592
0.0012719 0.00033182 -0.00033729 0.00047135
-0.0041261 0.0008923 0.24887 0.061411 -0.0010465 0.0060074 0.0017832 0.00056022
0.0014561 -0.0009639 0.00057122 0.00017174
0.0026076 0.0017792 -0.0010371 0.0060266 0.019216 -0.23239 -0.0011254 -0.0013779
0.0021162 -0.0011046 0.0018055 0.001666
-0.0021373 0.0037607 0.0017644 0.00054248 -0.0011884 -0.001345 0.060271 -0.17729
-0.001322 0.0035439 -0.00030637 0.0024159
0.0013091 0.00031482 0.0014763 -0.00098082 0.0021599 -0.0011251 -0.0012072 0.0035463
0.24695 -0.028737 0.00049513 -0.0035137
