!Keysight Technologies,M9804A,MY58100912,A.14.10.03
!Date: Thursday, April 27, 2023 10:28:33
!Correction: S11(C  6-Port  ) 
!S12(C  6-Port  ) 
!S13(C  6-Port  ) 
!S14(C  6-Port  ) 
!S15(C  6-Port  ) 
!S16(C  6-Port  ) 
!S21(C  6-Port  ) 
!S22(C  6-Port  ) 
!S23(C  6-Port  ) 
!S24(C  6-Port  ) 
!S25(C  6-Port  ) 
!S26(C  6-Port  ) 
!S31(C  6-Port  ) 
!S32(C  6-Port  ) 
!S33(C  6-Port  ) 
!S34(C  6-Port  ) 
!S35(C  6-Port  ) 
!S36(C  6-Port  ) 
!S41(C  6-Port  ) 
!S42(C  6-Port  ) 
!S43(C  6-Port  ) 
!S44(C  6-Port  ) 
!S45(C  6-Port  ) 
!S46(C  6-Port  ) 
!S51(C  6-Port  ) 
!S52(C  6-Port  ) 
!S53(C  6-Port  ) 
!S54(C  6-Port  ) 
!S55(C  6-Port  ) 
!S56(C  6-Port  ) 
!S61(C  6-Port  ) 
!S62(C  6-Port  ) 
!S63(C  6-Port  ) 
!S64(C  6-Port  ) 
!S65(C  6-Port  ) 
!S66(C  6-Port  ) 
!S6P File: Measurement: :
# Hz S  RI   R 50
500000000 -0.33481 -0.057557 -0.010701 -0.00095127 -0.0086943 0.013781 -0.0035099 0.012127
0.012692 0.0059777 -0.0029659 0.0086682
-0.010724 -0.00092347 -0.41603 -0.066126 0.0081484 -0.010344 0.0019179 0.011725
0.007363 0.0036824 0.0021083 0.013446
-0.0086751 0.013806 0.0081151 -0.010384 -0.26777 0.19738 0.006846 0.0036109
-0.0015276 0.0082705 0.00039014 0.01241
-0.0033644 0.01212 0.0019576 0.011744 0.0068118 0.0035999 -0.33146 0.041842
-0.01896 -0.004307 0.015999 0.024542
0.012571 0.005961 0.0072857 0.0036524 -0.00154 0.0082858 -0.01898 -0.0042532
-0.24438 -0.20187 -0.026881 0.0053735
-0.0028292 0.0088341 0.0021433 0.013593 0.00039353 0.012387 0.01617 0.02458
-0.026928 0.0053875 -0.26995 -0.13053
560000000 -0.31882 0.10923 -0.023214 -0.065218 0.00066646 0.013121 0.0052506 0.011394
0.011331 0.0043865 0.0093627 0.00778
-0.023321 -0.065143 -0.37512 0.096128 -0.04255 -0.037797 0.014683 0.0038885
-0.013024 -0.0038812 0.0041031 -0.0011852
0.00066935 0.013123 -0.042662 -0.037755 -0.18605 0.24856 -0.001456 -0.0047722
0.019046 0.0056121 0.0074427 -0.0062131
0.0053231 0.0113 0.014677 0.0038516 -0.0014757 -0.004759 -0.30669 0.13472
0.004224 -0.024556 0.0057275 -0.021401
0.011243 0.0042244 -0.013029 -0.0039332 0.019108 0.0056076 0.004203 -0.024579
-0.30896 -0.022408 0.0095953 -0.048999
0.0095668 0.0077244 0.0041057 -0.0013441 0.0074311 -0.0062109 0.0056106 -0.02135
0.0095981 -0.048958 -0.33075 0.017829
620000000 -0.27855 0.089866 -0.022756 0.0088227 0.0041767 0.0097811 0.0082185 -0.0029882
0.012569 -0.0016094 0.00068185 -0.0016013
-0.022745 0.0088239 -0.40353 0.045894 -0.018247 0.0008579 -0.0015608 -0.0017822
0.012602 -0.0062835 0.00061113 -0.0032393
0.0042296 0.0097711 -0.018237 0.00092369 -0.1553 0.25831 -0.00065892 -0.0051037
-0.00374 -0.0033006 0.010033 -0.0032072
0.0083258 -0.0030694 -0.0015512 -0.0017627 -0.00059941 -0.0051325 -0.2653 0.14454
-0.039248 -0.019615 0.013613 0.027366
0.012726 -0.001532 0.012614 -0.0063255 -0.0037302 -0.0033305 -0.039107 -0.019596
-0.22974 -0.054568 -0.041631 0.012494
0.00074986 -0.0018025 0.00068676 -0.0031987 0.010022 -0.0031597 0.013573 0.027427
-0.041635 0.012478 -0.24935 -0.014224
680000000 -0.24024 0.1819 -0.026533 -0.014895 0.0049686 0.0050864 0.00063231 -0.0079165
-0.0022915 -0.011225 0.0044855 -0.0064123
-0.026514 -0.014847 -0.39071 0.1475 -0.032433 -0.0022607 -0.0021475 -0.00065155
-0.0014676 -0.0091237 -0.0012068 -0.0019815
0.0049282 0.0050794 -0.032481 -0.0022145 -0.10475 0.27974 -0.0012675 -0.00031463
-0.0015084 0.00025094 -0.002827 -0.0094433
0.00047173 -0.0079007 -0.0021801 -0.00065761 -0.0013033 -0.00026721 -0.22076 0.1966
-0.022936 -0.0075521 -0.0089103 -0.011599
-0.0023918 -0.011231 -0.0015238 -0.0091441 -0.001511 0.0002745 -0.02297 -0.007524
-0.27992 0.04776 -0.0055612 -0.0074097
0.0046395 -0.0064012 -0.0012667 -0.0021084 -0.0028585 -0.0094345 -0.0088469 -0.011689
-0.0055632 -0.0073675 -0.26117 0.090281
740000000 -0.19376 0.17481 -0.040361 0.026738 0.014118 -0.0048861 -0.00012012 -0.0039372
-0.0045366 -0.0031727 -0.0063365 0.0024407
-0.040342 0.02673 -0.33661 0.16603 -0.037464 0.03458 2.5592e-05 -0.0061038
-0.012679 0.0073816 -0.0011793 -0.0058244
0.014096 -0.0049598 -0.037358 0.03473 -0.070573 0.27638 -0.0016875 0.0032925
-0.0026501 -0.0057363 -0.0013933 0.00074841
-0.00011075 -0.0040142 6.2014e-06 -0.0061182 -0.0016953 0.0032665 -0.20389 0.20316
-0.042012 -0.0074154 0.022676 0.015129
-0.0044626 -0.0033405 -0.012695 0.0074674 -0.0026554 -0.0057449 -0.041989 -0.0073679
-0.18127 0.075328 -0.042096 0.0016728
-0.0063935 0.002427 -0.0011005 -0.0058367 -0.0013786 0.00077705 0.022649 0.015187
-0.042078 0.0016278 -0.2489 0.095934
800000000 -0.16311 0.21929 -0.02269 0.016169 0.0058685 -0.010445 -0.0047872 -0.0023884
-0.0048029 0.0021949 0.0039491 0.00060852
-0.022728 0.016178 -0.34279 0.23739 -0.0089173 0.034292 -0.0024454 0.0020188
-0.0012582 0.0028993 0.00049599 0.0053442
0.0058132 -0.010465 -0.0088546 0.034341 -0.032435 0.30135 0.00072034 0.0013108
-0.00015224 0.0037728 -0.0022041 0.0009828
-0.0048293 -0.0023405 -0.0024444 0.0020122 0.00072091 0.0013521 -0.17452 0.23048
-0.028814 0.013811 0.014025 -0.010875
-0.0047939 0.0022661 -0.0012594 0.0029025 -0.00015048 0.0037864 -0.028832 0.013848
-0.22411 0.10249 -0.018328 0.020884
0.0039021 0.00055484 0.00048253 0.0053064 -0.0022249 0.00096701 0.014106 -0.010959
-0.018361 0.020864 -0.24336 0.14533
860000000 -0.12858 0.23957 -0.018111 0.030473 -0.0028739 -0.010497 -0.0018333 0.00056373
0.0040786 0.0053456 -0.0036036 -0.0031111
-0.018076 0.030437 -0.29421 0.28063 0.0071853 0.034843 6.8979e-05 0.002051
0.0035597 0.00076322 0.0028814 0.00037233
-0.0028915 -0.010499 0.0072906 0.034838 0.01538 0.30998 -0.00063144 -8.7058e-05
0.0024569 -0.0015183 0.0017368 0.0042986
-0.0018587 0.00056767 0.00010215 0.0020585 -0.00063084 -0.00010481 -0.13778 0.24188
-0.018569 0.018539 -0.0059315 -0.0087803
0.0041026 0.0053674 0.0035501 0.00077156 0.0024478 -0.0015137 -0.018601 0.018599
-0.1675 0.15634 -0.024431 0.016839
-0.0036052 -0.0031001 0.0028765 0.00027712 0.0017284 0.0042986 -0.005967 -0.008681
-0.024456 0.016819 -0.1918 0.19162
920000000 -0.10518 0.26258 0.0043872 0.03859 -0.0093322 -0.0051635 -0.0021575 0.0018051
0.0006655 0.0021025 0.0029282 -0.0010967
0.0043632 0.03861 -0.26692 0.30201 0.028295 0.023221 0.0014763 0.001349
0.007639 0.00020454 0.0043908 -0.0026436
-0.0093594 -0.0051273 0.028415 0.023159 0.060728 0.31144 0.0018586 0.00018553
0.00094481 6.1208e-05 0.0011024 -0.0011603
-0.0021105 0.0018234 0.0014883 0.001357 0.001873 0.00019258 -0.11391 0.25859
-0.011343 0.031546 0.003511 -0.0068093
0.00070805 0.00212 0.0076339 0.00015881 0.00093953 5.5852e-05 -0.011301 0.031567
-0.15687 0.16126 -0.0010619 0.0274
0.002951 -0.0010846 0.0044224 -0.0026734 0.0010983 -0.0011646 0.0035339 -0.006855
-0.0010666 0.027421 -0.19989 0.20357
980000000 -0.058636 0.28335 0.016908 0.030322 -0.0096077 0.0042124 0.0018988 0.0035435
0.0040236 -0.0012263 -0.0029598 -0.0025831
0.016881 0.030312 -0.21407 0.33721 0.03374 0.0056567 0.0020789 -0.0001353
0.0019921 -0.0061841 -0.00019389 -0.0028766
-0.0096104 0.0042266 0.033794 0.0055712 0.10662 0.30627 0.00073291 -0.0011671
0.00054922 -0.0019607 0.0015092 -0.00020078
0.0019065 0.0035532 0.0020773 -0.00012926 0.0007389 -0.0011561 -0.075302 0.27033
0.0073748 0.030346 -0.0093583 -0.0073865
0.0040528 -0.0012764 0.0019486 -0.0061688 0.00056198 -0.0019608 0.0074193 0.030333
-0.12371 0.19266 0.0056914 0.01938
-0.0029909 -0.0026671 -0.00022219 -0.002843 0.0014988 -0.00019617 -0.009383 -0.0073866
0.0056734 0.019386 -0.1577 0.24891
1040000000 -0.017592 0.29238 0.033241 0.019457 -0.0015534 0.0071162 0.002553 0.00070123
0.00021456 -0.0035465 -0.00022878 -0.0015278
0.033216 0.019438 -0.17905 0.35073 0.030469 -0.014641 0.0015562 -0.0017931
-0.0022436 -0.0026962 -0.0012171 -0.0027811
-0.0015335 0.0071137 0.030465 -0.01476 0.15275 0.29324 -0.00041416 -0.0017165
-0.0016235 -0.0010458 -0.0005505 -0.0011186
0.0025502 0.00067933 0.0015817 -0.0017755 -0.00041844 -0.0017345 -0.047885 0.2799
0.019449 0.019196 -0.0027528 0.00092913
0.00023931 -0.0035487 -0.0022799 -0.0026764 -0.0016146 -0.001042 0.019523 0.01917
-0.090861 0.19968 0.013926 0.018704
-0.00024324 -0.0015048 -0.001249 -0.002802 -0.00056524 -0.0011108 -0.0027205 0.00092515
0.013891 0.018715 -0.13483 0.26965
1100000000 0.027488 0.30211 0.036932 -0.0032286 0.0028474 0.0042181 0.0025033 -0.0010371
-0.0021471 -0.0027234 -0.0040581 -0.00026693
0.03694 -0.0032487 -0.13606 0.36942 0.016218 -0.028335 3.9416e-05 -0.0018288
-0.0035998 -0.00079182 -0.0035874 -0.00058034
0.0028549 0.0041912 0.016139 -0.028425 0.19889 0.27414 -0.0020153 0.00014649
-0.0018466 0.0005046 -0.0012308 -0.00050625
0.0025004 -0.0010264 4.7886e-05 -0.0018325 -0.0020121 0.00014919 -0.0077836 0.28524
0.025209 0.0057238 -0.0024679 0.00019972
-0.0021579 -0.002717 -0.0036144 -0.00076129 -0.001845 0.00050699 0.025229 0.005671
-0.070748 0.21328 0.019458 0.0092237
-0.0040533 -0.00026274 -0.0035522 -0.00059517 -0.0012364 -0.00049589 -0.0025055 0.00019651
0.019435 0.0092027 -0.088779 0.29948
1160000000 0.078357 0.29862 0.024891 -0.020596 0.0028612 -0.00042737 -0.00018843 -0.002371
-0.0040145 -0.00076579 -0.00096668 0.0041593
0.024916 -0.020516 -0.0925 0.37445 -0.0033284 -0.030009 -0.0017223 -0.0016728
-0.0029222 0.0025715 -0.0016111 0.001796
0.0028546 -0.00045067 -0.0034461 -0.030024 0.24258 0.24401 -0.00085983 0.0017612
-0.00064568 0.002061 -0.00099333 0.00041998
-0.00018049 -0.002369 -0.0017243 -0.0016669 -0.00084935 0.0017458 0.031903 0.2829
0.021643 -0.01042 -0.003234 0.0053398
-0.004028 -0.00074165 -0.0029247 0.002557 -0.00064735 0.0020688 0.021637 -0.010443
-0.036095 0.22167 0.019321 -0.00056663
-0.00093464 0.0042214 -0.0015772 0.0018325 -0.00097746 0.00040921 -0.003203 0.0053367
0.019323 -0.00056334 -0.042463 0.30191
1220000000 0.12242 0.28899 0.011449 -0.030573 -0.0016081 -0.0010683 8.2293e-05 -0.00082797
-0.0028108 0.0022707 0.0010359 0.0021003
0.011449 -0.030529 -0.048266 0.38781 -0.017245 -0.022331 -0.002691 0.00051909
-4.7603e-05 0.0032005 -0.00091799 0.0020252
-0.001607 -0.0010641 -0.017365 -0.022277 0.28173 0.20522 0.00072467 0.0018019
0.00054265 0.0012749 0.00030676 0.00079962
6.9391e-05 -0.000838 -0.00269 0.00054285 0.00072033 0.0018117 0.072083 0.2744
0.01119 -0.017501 0.002231 0.0014673
-0.002808 0.0022841 -2.7571e-05 0.003227 0.00053828 0.0012818 0.011172 -0.017506
-0.012472 0.2307 0.014434 -0.013149
0.0010391 0.0020903 -0.00089687 0.0020176 0.00030961 0.00079029 0.0022386 0.0014805
0.014431 -0.013164 -0.010817 0.31767
1280000000 0.17303 0.2692 -0.0077267 -0.029273 -0.0020728 0.0024584 -0.00086382 -0.0020105
-0.00074401 0.0031869 0.0025922 0.0013897
-0.0076776 -0.029256 -0.0017324 0.3798 -0.024649 -0.0090772 -0.00099979 0.0015498
0.0018327 0.001707 0.0006522 0.0020647
-0.002061 0.0024568 -0.02472 -0.0089843 0.31235 0.16198 0.0016301 6.62e-05
0.0013287 0.00030959 0.00035096 0.00025584
-0.00086771 -0.0020058 -0.0010001 0.0015591 0.0016495 6.3933e-05 0.10926 0.25811
0.0010435 -0.019954 6.7612e-05 0.00033828
-0.00074583 0.0031806 0.0018464 0.0016966 0.0013321 0.00030339 0.0010024 -0.019957
0.024335 0.23441 0.0031991 -0.015385
0.0026053 0.0013729 0.00065874 0.002101 0.000363 0.00025158 4.4755e-05 0.0003237
0.0031917 -0.01539 0.036667 0.3201
1340000000 0.21087 0.23604 -0.017849 -0.019582 0.00075234 0.0048533 -0.0017736 -0.00086395
0.0013859 0.002813 0.0018587 -0.0013943
-0.017804 -0.019562 0.038047 0.37208 -0.022358 0.0042843 -0.00011562 0.0020318
0.0020631 0.0007775 0.001259 0.00088634
0.00076797 0.0048475 -0.022374 0.0044059 0.33454 0.11456 0.001084 -0.00092776
0.00063853 -0.00059769 2.7997e-05 0.00025978
-0.001776 -0.00084696 -9.9212e-05 0.0020239 0.0010781 -0.00093376 0.14259 0.23716
-0.0087729 -0.017235 0.00083595 0.00051969
0.0014181 0.0027968 0.0020548 0.00077204 0.00063633 -0.00059694 -0.0088077 -0.017217
0.054819 0.22967 -0.004084 -0.01418
0.0018408 -0.001418 0.0012568 0.00084991 2.8496e-05 0.00025769 0.00084851 0.00054439
-0.0040503 -0.014186 0.074483 0.31523
1400000000 0.24504 0.19903 -0.023899 -0.007717 0.0054839 0.0035741 -0.002319 0.00062863
0.002598 0.00098652 0.00030193 -0.0016412
-0.023879 -0.0077285 0.075695 0.35968 -0.01551 0.012948 0.0013726 0.0013114
0.0012823 -0.00083944 0.0011685 0.00016136
0.0055067 0.0035557 -0.015469 0.01303 0.34754 0.061909 7.2874e-05 -0.0016798
0.0001425 -0.0004249 0.00038435 0.0002342
-0.0023206 0.00064359 0.0013756 0.0013026 9.1879e-05 -0.0016724 0.17203 0.20807
-0.015104 -0.010028 -0.00089135 -0.00010799
0.002596 0.00098085 0.0012878 -0.00086249 0.0001412 -0.00042481 -0.01513 -0.0099885
0.088139 0.22564 -0.010441 -0.0090042
0.00029071 -0.0016179 0.0011767 0.00016848 0.00038791 0.00023066 -0.00087873 -0.00011075
-0.010444 -0.009012 0.11863 0.30453
1460000000 0.26875 0.15539 -0.020794 0.0049447 0.0060239 -0.0017496 -0.0015538 0.0017723
0.002183 -0.0004229 -0.00026169 -0.0011985
-0.020775 0.0049246 0.11041 0.3379 -0.0061869 0.016124 0.0016807 0.00017061
0.00091355 -0.0013761 0.0012943 -0.00052257
0.0060178 -0.0017734 -0.0061069 0.016182 0.35458 0.0084241 -0.0012251 -0.0014007
0.00016574 -0.00022142 0.000772 -0.00023279
-0.001545 0.0017767 0.0016889 0.00016724 -0.0012286 -0.0013996 0.19867 0.17872
-0.016256 -0.0029753 -0.00089966 0.0020091
0.0022043 -0.00043765 0.00091314 -0.0013627 0.00016717 -0.00021791 -0.016259 -0.0029362
0.1183 0.21155 -0.012418 -0.0030969
-0.00025653 -0.0012254 0.0012779 -0.00053216 0.0007671 -0.0002386 -0.00090724 0.0020189
-0.012404 -0.0031031 0.15223 0.28411
1520000000 0.28152 0.11359 -0.014993 0.010528 0.0036476 -0.0044642 9.2217e-05 0.002584
0.0022006 -0.0019481 -0.0012577 -0.00011663
-0.014995 0.01051 0.14402 0.32349 0.0019038 0.013623 0.0016393 -0.00079201
2.6938e-06 -0.001079 0.00029089 -0.0010577
0.0036354 -0.0044853 0.0019863 0.013618 0.34834 -0.047581 -0.0011505 -0.00038552
0.00060047 -0.00094148 0.00010293 -0.00014864
0.00010657 0.0025859 0.0016393 -0.00080066 -0.0011488 -0.00037623 0.22166 0.14022
-0.015394 0.0031945 0.0015748 0.0020285
0.0022075 -0.0019701 -1.4382e-05 -0.0010784 0.00059811 -0.00094087 -0.01539 0.0032288
0.14629 0.19811 -0.012032 0.0018032
-0.0012684 -0.00011609 0.00030366 -0.0010678 0.00010857 -0.00014865 0.0016086 0.0020292
-0.01204 0.0018051 0.18486 0.26393
1580000000 0.29159 0.067806 -0.0080682 0.013832 -0.00096426 -0.0052806 0.0015843 0.0019489
-0.00013453 -0.0022439 -0.00032165 0.0002422
-0.0080605 0.013813 0.17144 0.29916 0.0057319 0.0084717 0.00049546 -0.0015938
-0.00054879 -0.0010515 -0.00014281 -0.00088941
-0.00099092 -0.005263 0.0057673 0.0084472 0.32899 -0.10475 -0.0016159 0.00060395
-0.00036612 -0.001259 0.00028881 -0.00070672
0.0015757 0.0019313 0.00049163 -0.0015968 -0.0016217 0.00059208 0.2354 0.1009
-0.01149 0.0082104 0.0022896 0.00074721
-0.00015349 -0.0022459 -0.00054236 -0.0010495 -0.00036282 -0.0012554 -0.011463 0.008246
0.17098 0.18045 -0.0094892 0.0076771
-0.00029739 0.00023982 -0.00016723 -0.00088693 0.0002889 -0.00071346 0.0022732 0.00071947
-0.0094937 0.0076748 0.21708 0.23786
1640000000 0.29415 0.026476 -0.0011197 0.012452 -0.0030419 -0.0028243 0.0027216 0.0010272
-0.0008057 -0.0016824 -0.00033842 0.00068427
-0.0011261 0.01244 0.20132 0.27446 0.0063816 0.0033271 -0.00059048 -0.0017831
-0.00097505 -0.00040071 -0.00056483 -0.00075127
-0.0030548 -0.0028037 0.0064091 0.0032882 0.30108 -0.15434 -0.00066146 0.0014982
-0.0010716 -0.0010376 -0.00023326 -0.00036416
0.002727 0.0010103 -0.00060653 -0.0017874 -0.00065691 0.0015013 0.24767 0.051892
-0.0069246 0.0093854 0.0025066 -0.00089986
-0.00084432 -0.0016664 -0.00099068 -0.00037931 -0.0010764 -0.001027 -0.0069163 0.0093985
0.19434 0.1564 -0.0044634 0.009778
-0.00035584 0.00069628 -0.00054874 -0.0007475 -0.00024008 -0.00036361 0.0024964 -0.00090941
-0.004463 0.0097901 0.24291 0.20666
1700000000 0.28716 -0.018616 0.0022744 0.0094488 -0.0038991 -2.2234e-05 0.0032169 -0.0012838
-0.0020336 -0.0007236 0.00047731 0.00049042
0.0022724 0.0094468 0.21943 0.24341 0.0041155 0.00018766 -0.0014652 -0.0006101
-0.00077481 -5.281e-05 -0.00095021 -0.00046753
-0.0039045 -1.889e-05 0.0041163 0.00015655 0.25793 -0.19407 0.00038881 0.0017476
-0.002073 -0.00013502 -0.00056897 -0.00099185
0.0032137 -0.0012861 -0.001473 -0.00060798 0.00039734 0.0017381 0.24416 0.0021731
-0.003858 0.0095462 0.001498 -0.0021787
-0.0020535 -0.00070918 -0.00077373 -5.4093e-05 -0.0020897 -0.00012952 -0.0038463 0.0095663
0.2118 0.13639 0.00017122 0.0099539
0.00050566 0.00049388 -0.00096777 -0.00044475 -0.00059239 -0.00097237 0.0015128 -0.0021967
0.00016459 0.0099384 0.25967 0.17283
1760000000 0.27588 -0.067033 0.0046102 0.0060194 -0.002438 0.0010966 0.0013544 -0.003445
-0.001362 0.00070462 0.00031125 -0.00056
0.0046023 0.0060147 0.24604 0.20413 0.0016518 -0.0017435 -0.0011905 0.00014844
-0.0010605 0.00088228 -0.00059582 0.00041722
-0.0024197 0.0011058 0.0016373 -0.0017546 0.21043 -0.22765 0.0011553 0.0010276
-0.0012965 0.0015456 -0.0012938 -0.00055468
0.0013417 -0.0034671 -0.0011911 0.00016263 0.0011314 0.0010258 0.23546 -0.04892
-0.00075379 0.0084898 -0.00017637 -0.0023691
-0.0013688 0.00072248 -0.0010558 0.00088981 -0.0013006 0.0015416 -0.00072 0.0084743
0.22699 0.10209 0.0042247 0.007312
0.00028554 -0.00056417 -0.00057669 0.00040036 -0.001309 -0.00056883 -0.00019082 -0.0023821
0.0042324 0.0073197 0.27267 0.13562
1820000000 0.25187 -0.10433 0.0046165 0.002455 -0.00011701 0.0025816 -0.001002 -0.003194
-0.0011237 0.0010255 -0.00017174 -0.00018687
0.0045949 0.0024464 0.25654 0.17417 -0.00079078 -0.00040842 -0.0013645 0.00092418
-0.00012479 0.0012187 -0.00060605 0.00056199
-0.00011483 0.0025883 -0.00078593 -0.00040835 0.15912 -0.24385 0.0015705 0.00029031
-0.00022763 0.0024567 -0.0014931 0.00046704
-0.0010319 -0.0031891 -0.0013599 0.00092871 0.0016029 0.00031085 0.20566 -0.096043
0.00071626 0.0071187 -0.0017315 -0.0016143
-0.0011133 0.0010495 -0.00010372 0.0012232 -0.00021663 0.0024501 0.0007169 0.0071269
0.24444 0.07337 0.0052414 0.0035616
-0.00014155 -0.0001822 -0.00061171 0.00058546 -0.0014947 0.00049106 -0.001732 -0.0016028
0.0052463 0.0035516 0.27528 0.098921
1880000000 0.21706 -0.14458 0.0021915 0.00017198 -0.00068782 0.0024152 -0.0030243 -0.002322
-0.00024554 0.0017793 0.00022116 -0.00061804
0.0021928 0.00016727 0.26143 0.12795 -0.0028818 0.001605 -0.00022027 0.0016761
0.00053228 0.0012995 0.00013671 0.00097025
-0.00068806 0.002406 -0.0028827 0.0016226 0.10709 -0.25264 0.0017949 -0.0011032
0.0016255 0.0018759 -0.00078769 0.0015177
-0.0030191 -0.0022965 -0.00021035 0.0016769 0.0017763 -0.0011103 0.16525 -0.13615
0.0014124 0.0050189 -0.002363 0.00016003
-0.00024172 0.0017752 0.00055316 0.0012836 0.0016253 0.0018647 0.0014168 0.0050107
0.24854 0.04248 0.0054794 0.0010679
0.00016401 -0.00061516 0.00015258 0.00096132 -0.00080241 0.0015185 -0.0023289 0.00019281
0.0054823 0.001078 0.27559 0.06537
1940000000 0.17843 -0.17075 -0.00017834 -0.0014256 0.0014074 0.0020682 -0.003833 0.00048564
0.0013505 0.0010719 -0.00071433 -0.00054714
-0.00017959 -0.0014041 0.26282 0.096043 -0.001459 0.0041601 0.00099865 0.0013507
0.0018215 0.00055502 0.00092766 0.00029376
0.0014204 0.0020462 -0.0014417 0.0041875 0.06224 -0.2458 0.00037272 -0.002169
0.0023265 0.00035139 0.00046239 0.0015375
-0.0038455 0.00051012 0.0010096 0.0013468 0.00039304 -0.0021612 0.11301 -0.16752
0.00058822 0.0036741 -0.0015229 0.0014434
0.0013614 0.0010524 0.0018495 0.00054157 0.0023257 0.00033969 0.00059938 0.0036419
0.25213 0.0044181 0.0040779 -0.0024194
-0.00069818 -0.00055956 0.00091474 0.00031954 0.00046646 0.001547 -0.0016005 0.0014348
0.0040669 -0.0024217 0.26541 0.028766
2000000000 0.13222 -0.1859 -0.0039145 0.00083587 0.002797 0.0017371 -0.0022769 0.0038162
0.0012361 0.00035236 -0.00046845 0.0004737
-0.0038942 0.0008394 0.24889 0.060368 -0.00096483 0.0061363 0.0017648 0.00043091
0.0014287 -0.001074 0.00052203 0.00013406
0.0028117 0.0017323 -0.00091516 0.00615 0.018549 -0.23171 -0.001109 -0.0013888
0.0020753 -0.0010701 0.0016697 0.0014889
-0.0022125 0.0038235 0.0017647 0.00042016 -0.0011468 -0.0013856 0.059456 -0.17711
-0.00071877 0.0036837 -0.00012357 0.002176
0.0012548 0.00035684 0.0014214 -0.0010896 0.0020758 -0.0010651 -0.0007351 0.0037099
0.24741 -0.028386 0.00054134 -0.0033934
