!Keysight Technologies,M9804A,MY58100912,A.14.10.03
!Date: Thursday, April 27, 2023 10:28:33
!Correction: S11(C  6-Port  ) 
!S12(C  6-Port  ) 
!S13(C  6-Port  ) 
!S14(C  6-Port  ) 
!S15(C  6-Port  ) 
!S16(C  6-Port  ) 
!S21(C  6-Port  ) 
!S22(C  6-Port  ) 
!S23(C  6-Port  ) 
!S24(C  6-Port  ) 
!S25(C  6-Port  ) 
!S26(C  6-Port  ) 
!S31(C  6-Port  ) 
!S32(C  6-Port  ) 
!S33(C  6-Port  ) 
!S34(C  6-Port  ) 
!S35(C  6-Port  ) 
!S36(C  6-Port  ) 
!S41(C  6-Port  ) 
!S42(C  6-Port  ) 
!S43(C  6-Port  ) 
!S44(C  6-Port  ) 
!S45(C  6-Port  ) 
!S46(C  6-Port  ) 
!S51(C  6-Port  ) 
!S52(C  6-Port  ) 
!S53(C  6-Port  ) 
!S54(C  6-Port  ) 
!S55(C  6-Port  ) 
!S56(C  6-Port  ) 
!S61(C  6-Port  ) 
!S62(C  6-Port  ) 
!S63(C  6-Port  ) 
!S64(C  6-Port  ) 
!S65(C  6-Port  ) 
!S66(C  6-Port  ) 
!S6P File: Measurement: :
# Hz S  RI   R 50
500000000 -0.33312 -0.055848 -0.010283 -0.0019025 -0.0083296 0.012722 -0.0042588 0.011345
0.012629 0.0060471 -0.00398 0.0072234
-0.010257 -0.0019038 -0.41584 -0.065351 0.0084977 -0.01081 0.00097658 0.011882
0.0079438 0.0029048 0.0012414 0.013566
-0.0083178 0.012734 0.0084681 -0.01083 -0.26698 0.19751 0.0066922 0.0034827
-0.0013944 0.0086249 0.00031094 0.011909
-0.0042058 0.011315 0.0010142 0.011892 0.0066932 0.0034884 -0.33133 0.042031
-0.018323 -0.003945 0.016592 0.024519
0.012548 0.0059976 0.0079515 0.0028902 -0.0013776 0.0086342 -0.018332 -0.0039528
-0.24544 -0.19938 -0.026552 0.0059559
-0.0040019 0.0071933 0.0012259 0.013568 0.00032153 0.011893 0.016532 0.024529
-0.02657 0.0059645 -0.27016 -0.12587
560000000 -0.31912 0.11056 -0.023551 -0.065347 0.00050714 0.012773 0.0052789 0.010807
0.011524 0.0039434 0.010109 0.0083554
-0.023486 -0.065283 -0.37544 0.098259 -0.041329 -0.038471 0.013019 0.0032781
-0.012027 -0.0039954 0.0031934 -0.001308
0.00055362 0.01279 -0.041479 -0.03841 -0.18634 0.25014 -0.00022574 -0.004782
0.018525 0.0063702 0.0081274 -0.0059121
0.0053442 0.010832 0.013003 0.0032378 -0.00020662 -0.0047792 -0.30552 0.13369
0.0055399 -0.024886 0.0050375 -0.021538
0.011536 0.0039412 -0.012159 -0.004013 0.018562 0.0063201 0.0054833 -0.024921
-0.31059 -0.017149 0.0079776 -0.049293
0.010104 0.0083575 0.0032221 -0.0013072 0.0080812 -0.0059187 0.0050614 -0.021605
0.0078863 -0.04929 -0.3314 0.021397
620000000 -0.27804 0.091561 -0.023016 0.008656 0.0035076 0.009323 0.0076912 -0.0043079
0.011478 -0.0014608 7.9738e-05 -0.0023372
-0.022998 0.0086484 -0.40306 0.046729 -0.018603 0.00022117 -0.0016788 -0.0016578
0.012209 -0.0067894 0.00039424 -0.0031937
0.0035284 0.0093188 -0.018631 0.00027038 -0.15639 0.25852 -0.00097515 -0.0050719
-0.0035405 -0.0032295 0.0086457 -0.0030203
0.0076805 -0.0043155 -0.0016865 -0.0016514 -0.00098938 -0.0050692 -0.26463 0.14383
-0.039041 -0.018315 0.014071 0.026912
0.011499 -0.0014813 0.012201 -0.0068439 -0.0035441 -0.0032537 -0.039022 -0.018232
-0.22928 -0.055022 -0.041967 0.013216
6.1143e-05 -0.0023614 0.00039654 -0.0031923 0.0086625 -0.003021 0.014176 0.0269
-0.04203 0.013167 -0.24924 -0.010284
680000000 -0.24005 0.18215 -0.026321 -0.014861 0.0048357 0.005495 0.0011046 -0.007823
-0.0025442 -0.011736 0.0059068 -0.0079101
-0.026285 -0.014853 -0.39 0.14827 -0.032763 -0.0022087 -0.0019515 -0.00074803
-0.001797 -0.0093211 -0.00079971 -0.0021977
0.0048496 0.0054899 -0.032796 -0.0021276 -0.1048 0.27961 -0.0010847 -0.00041823
-0.0016324 0.0007057 -0.0027265 -0.0092612
0.0011167 -0.0078102 -0.0019731 -0.00074802 -0.0010948 -0.00041791 -0.21984 0.19621
-0.024418 -0.0082031 -0.0083805 -0.012122
-0.0026078 -0.011733 -0.0018369 -0.0093262 -0.0016295 0.00071375 -0.024434 -0.0081756
-0.2786 0.050412 -0.0071385 -0.0076697
0.0058695 -0.0078987 -0.00082251 -0.0022129 -0.0027181 -0.009272 -0.0084085 -0.012105
-0.0070671 -0.0076916 -0.26024 0.091565
740000000 -0.19413 0.17563 -0.040127 0.026495 0.013934 -0.0048527 -5.1263e-05 -0.0044262
-0.004643 -0.0034303 -0.0061037 0.0031605
-0.040116 0.026456 -0.33575 0.16619 -0.037126 0.034982 -0.00013176 -0.0062824
-0.011383 0.0080764 -0.0016376 -0.0061297
0.013906 -0.0048736 -0.037072 0.035126 -0.071298 0.27728 -0.0015823 0.0034404
-0.0032163 -0.0051815 -0.00097186 0.0010332
-6.6963e-05 -0.0044145 -0.00013376 -0.00631 -0.0015941 0.0034475 -0.20302 0.20289
-0.0432 -0.008133 0.02267 0.015379
-0.0046547 -0.0034219 -0.011419 0.0081207 -0.0032183 -0.0051778 -0.04326 -0.0081139
-0.17859 0.075888 -0.042373 0.00061998
-0.0060582 0.0031542 -0.001664 -0.0061311 -0.00094653 0.0010383 0.022707 0.015361
-0.042391 0.00066698 -0.24888 0.098931
800000000 -0.16291 0.21958 -0.022575 0.016429 0.0059164 -0.01061 -0.0041851 -0.0022476
-0.0047661 0.0022648 0.0047198 0.00059828
-0.022566 0.016409 -0.34249 0.23797 -0.0088186 0.034501 -0.0020762 0.0021137
-0.0011354 0.0028936 0.001226 0.0053733
0.0058957 -0.010639 -0.0087318 0.034571 -0.032623 0.30173 0.0011063 0.001391
-5.5342e-06 0.0035878 -0.0016574 0.0011306
-0.0041946 -0.0022321 -0.0020635 0.0021294 0.0010995 0.0013883 -0.17473 0.23067
-0.028971 0.013079 0.014207 -0.010148
-0.0047762 0.0022654 -0.0011211 0.002889 9.3138e-06 0.0035889 -0.028996 0.013124
-0.22363 0.10569 -0.017536 0.01957
0.0047717 0.00060902 0.0012371 0.0053894 -0.0016741 0.0011283 0.014195 -0.010162
-0.017548 0.019567 -0.24145 0.14767
860000000 -0.12861 0.24015 -0.018303 0.030565 -0.002881 -0.010592 -0.0017128 0.00081941
0.003823 0.0051325 -0.0034265 -0.0030319
-0.018298 0.030529 -0.29407 0.28117 0.0074109 0.034934 0.00012409 0.0021005
0.0033472 0.00069238 0.0032823 0.00015713
-0.0029058 -0.010586 0.0075154 0.034946 0.015273 0.31058 -0.00063099 -0.00015041
0.0022016 -0.0016348 0.0015947 0.0042896
-0.0017277 0.00082647 0.00013067 0.002117 -0.00063457 -0.00014889 -0.13837 0.24246
-0.018645 0.018713 -0.0061112 -0.0092111
0.0038728 0.0051149 0.0033785 0.00067385 0.0021957 -0.0016394 -0.018637 0.018726
-0.16749 0.15807 -0.024152 0.016055
-0.0034291 -0.0030042 0.0032732 0.00013891 0.0015852 0.0042821 -0.0061066 -0.0092216
-0.024142 0.016027 -0.1904 0.19289
920000000 -0.10478 0.26344 0.0044062 0.038768 -0.0094293 -0.005087 -0.0018152 0.0018807
0.0012088 0.0021681 0.0026872 -0.0013405
0.0043856 0.038738 -0.26699 0.30267 0.02843 0.023285 0.0017056 0.0014447
0.00743 -0.00020579 0.0044926 -0.0024206
-0.0094438 -0.0050715 0.028526 0.023239 0.060845 0.31211 0.0018765 8.3926e-05
0.0011558 -0.00019309 0.0011281 -0.0011717
-0.001815 0.0018943 0.0017283 0.0014649 0.0018728 8.9415e-05 -0.11404 0.25947
-0.011351 0.031588 0.0037581 -0.006935
0.0012171 0.0021637 0.0074399 -0.00025177 0.0011564 -0.00018589 -0.011272 0.031617
-0.1565 0.16338 -0.0015555 0.027247
0.0027094 -0.0013447 0.0045174 -0.0024851 0.0011334 -0.0011828 0.0037649 -0.0069577
-0.0015943 0.027241 -0.19834 0.20604
980000000 -0.058242 0.28431 0.017007 0.030714 -0.0096238 0.0043003 0.0019796 0.0036979
0.0041077 -0.0016039 -0.0026978 -0.0024069
0.016975 0.0307 -0.21383 0.33791 0.03397 0.0055803 0.0021577 -0.00029799
0.0017075 -0.0060977 -3.1647e-05 -0.0025303
-0.0096098 0.0043233 0.034018 0.0054871 0.10691 0.30675 0.00082025 -0.0011313
0.00055333 -0.0019233 0.0018474 -0.00022846
0.0019878 0.0036882 0.0021589 -0.00028622 0.00081616 -0.0011316 -0.075738 0.27078
0.0076898 0.030483 -0.009215 -0.0075448
0.0040893 -0.0016136 0.0016973 -0.0061277 0.00054431 -0.001915 0.0077557 0.030469
-0.12233 0.19424 0.0056458 0.019509
-0.0026975 -0.0023596 -2.0858e-05 -0.002531 0.0018461 -0.00022259 -0.0092136 -0.0075013
0.0056335 0.019498 -0.15576 0.25088
1040000000 -0.016796 0.29327 0.03329 0.019495 -0.0015983 0.0072771 0.0027805 0.00064665
0.00030864 -0.0035469 -0.00017431 -0.001533
0.033243 0.019489 -0.17874 0.3517 0.03063 -0.014759 0.001628 -0.0018336
-0.0022849 -0.0025794 -0.0011489 -0.0026378
-0.0015707 0.0072781 0.0306 -0.01487 0.15314 0.29381 -0.00046342 -0.0017082
-0.0016699 -0.0009761 -0.00043877 -0.0012465
0.0027788 0.00063193 0.0016461 -0.0018207 -0.00046914 -0.0017208 -0.04821 0.28079
0.019804 0.019396 -0.0028307 0.0012167
0.00027242 -0.0035266 -0.0022972 -0.0026077 -0.0016702 -0.00096273 0.019849 0.019362
-0.089799 0.20156 0.014293 0.018716
-0.00019188 -0.001524 -0.0011518 -0.0026554 -0.00044372 -0.0012431 -0.002827 0.001212
0.014276 0.018718 -0.13293 0.27174
1100000000 0.027941 0.30253 0.037028 -0.0034038 0.0029823 0.0043319 0.0024545 -0.0011832
-0.0020386 -0.0030921 -0.0038791 -0.00016702
0.03699 -0.0033804 -0.1356 0.37027 0.016154 -0.028501 -1.1152e-05 -0.0018566
-0.003654 -0.00081824 -0.0035371 -0.0005756
0.0030014 0.0043179 0.016062 -0.028586 0.1995 0.2745 -0.0019226 8.2823e-05
-0.0018382 0.0005117 -0.0011347 -0.00064249
0.0024414 -0.0011945 -1.9926e-05 -0.0018546 -0.0019266 8.4925e-05 -0.0073715 0.28628
0.025791 0.0057158 -0.0022848 0.00042909
-0.0020653 -0.0030892 -0.0036581 -0.0008132 -0.0018369 0.00051284 0.025814 0.0056751
-0.069171 0.2147 0.019994 0.0087117
-0.0038828 -0.00014266 -0.0035434 -0.00056616 -0.0011388 -0.00063113 -0.0022942 0.00043555
0.019974 0.0087278 -0.087574 0.30077
1160000000 0.079341 0.299 0.025129 -0.020766 0.0030783 -0.0005273 -0.00028009 -0.0024878
-0.0040448 -0.0008502 -0.00093712 0.0041443
0.025122 -0.020748 -0.091848 0.37525 -0.003324 -0.030139 -0.0017569 -0.0016805
-0.0028287 0.0026091 -0.0015432 0.0019253
0.0030789 -0.00053617 -0.0034532 -0.030148 0.24316 0.24419 -0.00078739 0.0018679
-0.00064159 0.0019582 -0.0011166 0.00030612
-0.00027979 -0.0024975 -0.0017559 -0.0016759 -0.00078278 0.0018672 0.032675 0.28351
0.022076 -0.01087 -0.0031532 0.0053081
-0.0040644 -0.000815 -0.0028145 0.0026007 -0.00065994 0.0019622 0.022069 -0.010902
-0.03484 0.22287 0.018557 -0.00054909
-0.00092338 0.0041434 -0.0015348 0.0019135 -0.0011084 0.00031694 -0.0031245 0.0053283
0.018534 -0.00053122 -0.040348 0.30345
1220000000 0.12343 0.28925 0.01145 -0.03078 -0.0015801 -0.0011614 -6.1091e-05 -0.00082292
-0.0027987 0.0022464 0.0010607 0.0020497
0.011462 -0.030738 -0.047244 0.38836 -0.017357 -0.022242 -0.0026766 0.00054421
6.389e-05 0.0031177 -0.00082487 0.0019505
-0.0015741 -0.0011548 -0.017474 -0.022192 0.28228 0.20522 0.00084998 0.0018133
0.00064139 0.0013587 0.00028567 0.00058857
-6.3736e-05 -0.00081529 -0.002678 0.00056447 0.00085359 0.0018112 0.072994 0.27463
0.011269 -0.017997 0.002262 0.0013896
-0.0027972 0.0022616 8.9953e-05 0.0031188 0.00064722 0.0013617 0.011251 -0.017999
-0.010973 0.23214 0.014169 -0.013544
0.0010574 0.0020446 -0.0008148 0.0019509 0.00028562 0.00059308 0.0022651 0.0013789
0.014172 -0.013539 -0.0090007 0.31863
1280000000 0.1741 0.26896 -0.0077452 -0.029545 -0.002086 0.0023709 -0.00082584 -0.0019754
-0.00068775 0.0033271 0.0026332 0.001214
-0.0077163 -0.029518 -0.0005758 0.38004 -0.024709 -0.0089205 -0.00096484 0.0014912
0.0017533 0.0017182 0.00059716 0.0021101
-0.0020721 0.0023802 -0.024777 -0.0088196 0.31286 0.16167 0.0015754 -6.2119e-05
0.0012153 0.00024551 0.00025582 0.0003484
-0.00082931 -0.0019664 -0.00095961 0.0014979 0.0015688 -5.6933e-05 0.11021 0.25799
0.00087799 -0.020293 -7.8646e-05 0.00019763
-0.00068574 0.0033317 0.0017603 0.0017033 0.0012146 0.00024266 0.00083663 -0.020301
0.02633 0.23572 0.002923 -0.015757
0.0026411 0.0012102 0.00060738 0.0021064 0.00024988 0.00035198 -6.6068e-05 0.00020237
0.0029505 -0.015753 0.038637 0.32098
1340000000 0.21193 0.23583 -0.017977 -0.019741 0.00062216 0.0047273 -0.0017536 -0.00074733
0.0014362 0.0027641 0.001765 -0.0013921
-0.01794 -0.019732 0.039236 0.37183 -0.022354 0.0043701 -3.5639e-05 0.0020146
0.0019578 0.00080169 0.0012516 0.00079497
0.0006391 0.0047222 -0.022362 0.0044877 0.33475 0.11443 0.0011097 -0.00093699
0.00071683 -0.00059693 0.00012701 0.00024542
-0.0017574 -0.00073806 -1.8252e-05 0.0020098 0.0011041 -0.00093673 0.14319 0.2365
-0.0091174 -0.017349 0.00077949 0.00045015
0.0014492 0.0027572 0.0019664 0.00079023 0.00071552 -0.0005998 -0.0091594 -0.017335
0.057361 0.23095 -0.0042559 -0.014583
0.0017506 -0.0013968 0.0012752 0.00079153 0.00013364 0.0002442 0.00077241 0.00044091
-0.0042468 -0.014585 0.07645 0.31566
1400000000 0.2457 0.19847 -0.024203 -0.0077925 0.0053186 0.0035214 -0.002104 0.00064086
0.0025769 0.00099056 0.00028521 -0.0016445
-0.024168 -0.0077988 0.076707 0.35902 -0.015364 0.012982 0.0013435 0.0012527
0.0012179 -0.00082893 0.001195 9.7981e-05
0.005328 0.0035074 -0.01533 0.01307 0.34776 0.061582 4.0839e-05 -0.0016722
0.0001652 -0.00043399 0.00035285 0.00023262
-0.0021062 0.00064828 0.0013499 0.0012522 3.5837e-05 -0.0016709 0.1723 0.20742
-0.015485 -0.009959 -0.00090506 -6.1795e-05
0.0025889 0.00096715 0.0012153 -0.00084016 0.00016243 -0.00043682 -0.015513 -0.009929
0.090816 0.22625 -0.010618 -0.0090729
0.00026917 -0.0016317 0.001198 9.0443e-05 0.00035644 0.00023437 -0.00088933 -6.1855e-05
-0.010597 -0.0090787 0.12087 0.30429
1460000000 0.26918 0.15458 -0.02104 0.0050072 0.0058675 -0.0017369 -0.0015223 0.0016929
0.002223 -0.00054791 -0.00040687 -0.00097017
-0.021016 0.0049882 0.11102 0.33701 -0.0060825 0.01605 0.0016659 0.00012919
0.00090031 -0.0013597 0.00123 -0.0006622
0.0058629 -0.0017502 -0.0060149 0.016099 0.35443 0.0081283 -0.0012506 -0.0013332
0.00016339 -0.00033478 0.00070104 -0.00020925
-0.0015149 0.0017046 0.0016701 0.00011248 -0.0012404 -0.0013279 0.19863 0.17798
-0.016545 -0.0027895 -0.00085588 0.0020457
0.002227 -0.00054854 0.0008899 -0.0013714 0.00016291 -0.00033887 -0.016551 -0.0027545
0.12069 0.21144 -0.012535 -0.0028402
-0.00041088 -0.00098014 0.0012247 -0.00069058 0.00070556 -0.00021595 -0.00086725 0.0020421
-0.012532 -0.0028524 0.1545 0.28339
1520000000 0.28163 0.11288 -0.015184 0.010695 0.0034989 -0.00432 0.00012264 0.002544
0.0021801 -0.0020222 -0.0012321 -0.00014012
-0.015186 0.010682 0.14424 0.32255 0.001852 0.013531 0.0016436 -0.00073031
6.1578e-05 -0.00108 0.00022806 -0.0010895
0.0034809 -0.0043437 0.0019242 0.013532 0.34795 -0.04752 -0.0010568 -0.00033041
0.00067057 -0.00088686 4.9906e-05 -0.00022707
0.00013817 0.0025405 0.0016433 -0.00073997 -0.0010577 -0.00033287 0.22132 0.13958
-0.015456 0.0035043 0.0016141 0.0021564
0.0021699 -0.0020269 4.4876e-05 -0.0010795 0.00067184 -0.00089475 -0.015467 0.0035412
0.14888 0.19732 -0.012391 0.0020773
-0.0012284 -0.0001256 0.00022116 -0.0010906 3.521e-05 -0.00023243 0.0016266 0.0021645
-0.012389 0.002081 0.18705 0.26311
1580000000 0.29143 0.067219 -0.0080674 0.014056 -0.00092019 -0.0051398 0.0014516 0.001905
-0.00031153 -0.0022378 -0.0001837 0.00047456
-0.00807 0.014039 0.17135 0.29826 0.0056739 0.0083674 0.00053135 -0.0015721
-0.00059825 -0.0010254 -0.00021797 -0.00082567
-0.00094167 -0.0051407 0.0057258 0.0083426 0.32888 -0.10475 -0.0016827 0.00053305
-0.00040173 -0.0011792 0.00036123 -0.00057245
0.001468 0.0018978 0.00052398 -0.001575 -0.0016845 0.00053791 0.23471 0.10046
-0.011345 0.0084673 0.0022945 0.00066996
-0.00032731 -0.0022319 -0.00060549 -0.0010253 -0.00040418 -0.0011839 -0.01133 0.008497
0.1731 0.17907 -0.0096459 0.0078281
-0.00018057 0.00047226 -0.00022305 -0.00082919 0.00036828 -0.00058436 0.0022845 0.00065827
-0.0096576 0.0078149 0.21863 0.23663
1640000000 0.2938 0.026294 -0.0010284 0.012634 -0.0029146 -0.0027248 0.0026817 0.001035
-0.00088782 -0.0015933 -0.00034859 0.00068519
-0.0010437 0.01262 0.20089 0.27382 0.0062442 0.0032969 -0.00061533 -0.0017864
-0.0010294 -0.00038826 -0.00060019 -0.00062605
-0.0029328 -0.0026948 0.0062681 0.0032591 0.30092 -0.15383 -0.00068853 0.0015115
-0.0011109 -0.00078995 -0.00013941 -0.00040767
0.0026864 0.0010238 -0.00063203 -0.0017801 -0.00068661 0.0015006 0.24704 0.051981
-0.0067291 0.0095565 0.0024797 -0.00076783
-0.00090701 -0.00159 -0.0010364 -0.00038327 -0.0011095 -0.00079441 -0.0067058 0.0095782
0.19602 0.15493 -0.0045539 0.0099489
-0.00033662 0.00069016 -0.00059969 -0.00061903 -0.00014722 -0.00040564 0.0024938 -0.00075846
-0.0045587 0.0099499 0.24443 0.20571
1700000000 0.28695 -0.018609 0.00246 0.0095361 -0.0036891 2.1641e-05 0.0031231 -0.0011319
-0.0020515 -0.00055297 0.00058412 0.00031347
0.0024535 0.0095289 0.21893 0.24303 0.0040617 0.0002985 -0.0015229 -0.00060556
-0.00079442 6.402e-05 -0.0008766 -0.0004012
-0.0036987 1.8957e-05 0.0040658 0.00027874 0.25842 -0.19374 0.00042522 0.0016176
-0.0020305 3.9118e-05 -0.00045968 -0.00089314
0.0031119 -0.0011513 -0.0015298 -0.0005969 0.00042813 0.0016172 0.24356 0.0026245
-0.0037054 0.0095829 0.0015947 -0.0021904
-0.0020703 -0.00053918 -0.00079779 6.1486e-05 -0.0020303 4.5621e-05 -0.0036911 0.0095878
0.21296 0.13475 0.00046586 0.010053
0.00059457 0.00031335 -0.00086962 -0.0003952 -0.00046434 -0.00089925 0.0015942 -0.0022004
0.00046036 0.01005 0.26061 0.17161
1760000000 0.27586 -0.066829 0.0046992 0.0060784 -0.0024218 0.0011064 0.0013346 -0.0034066
-0.001341 0.00078105 0.00033442 -0.00056567
0.0046865 0.0060784 0.24536 0.20403 0.0015259 -0.0015549 -0.0012522 0.00016128
-0.0010277 0.00091677 -0.0005477 0.00043314
-0.0024267 0.0011157 0.0015156 -0.0015607 0.21049 -0.22746 0.0010767 0.0011151
-0.001277 0.0014864 -0.0012638 -0.00062937
0.0013202 -0.00342 -0.0012572 0.00017299 0.0010759 0.0011076 0.23511 -0.048339
-0.00058368 0.0082882 -0.00021761 -0.0024894
-0.0013362 0.00078338 -0.0010249 0.00092288 -0.0012761 0.0014862 -0.00057703 0.0082939
0.22773 0.10044 0.0044128 0.0073299
0.00032967 -0.00057382 -0.00054532 0.00044098 -0.0012839 -0.00064155 -0.00022975 -0.0024872
0.0044106 0.0073137 0.27372 0.13406
1820000000 0.25201 -0.10423 0.0046445 0.0024284 -8.7187e-05 0.0025559 -0.0008844 -0.0031608
-0.0010114 0.0010552 -5.5749e-06 -0.00011594
0.0046367 0.0024248 0.25597 0.17434 -0.00075525 -0.0002651 -0.0013141 0.00097554
-5.1662e-05 0.0012302 -0.00047849 0.00056649
-6.4742e-05 0.0025614 -0.00075139 -0.00026169 0.15968 -0.24349 0.0017242 0.00036636
-9.6242e-05 0.0023979 -0.0014673 0.00044936
-0.00090919 -0.0031541 -0.0013086 0.00097868 0.0017256 0.00035993 0.20566 -0.095372
0.00067078 0.006906 -0.0015514 -0.0016316
-0.0010146 0.0010646 -4.0924e-05 0.0012366 -8.648e-05 0.0024089 0.00068884 0.0068982
0.24474 0.071883 0.0054305 0.0035039
-2.094e-05 -0.000107 -0.00047004 0.00056372 -0.001472 0.00044743 -0.001562 -0.0016328
0.0054203 0.0035061 0.27606 0.097663
1880000000 0.21743 -0.14475 0.0023442 0.00012853 -0.00045453 0.002191 -0.0028485 -0.0022936
-6.6768e-05 0.0017716 2.4711e-05 -0.00055878
0.0023408 0.00012744 0.26116 0.12834 -0.0026009 0.0016603 -0.00024581 0.0017372
0.00054991 0.0012876 7.0626e-05 0.00083116
-0.00043771 0.0021918 -0.0025969 0.0016908 0.1077 -0.25286 0.0016944 -0.00109
0.0016456 0.0018547 -0.0010051 0.0012817
-0.002868 -0.0022863 -0.00023284 0.0017379 0.0016905 -0.0010819 0.16557 -0.13563
0.0010878 0.0048596 -0.002414 0.00011211
-6.4206e-05 0.0017787 0.00055751 0.0012881 0.0016435 0.0018572 0.0011061 0.0048598
0.24858 0.041025 0.0054846 0.00093694
1.0781e-05 -0.00057646 8.0151e-05 0.00083386 -0.00099682 0.0012924 -0.0024089 0.00011691
0.0054996 0.00093315 0.27615 0.063751
1940000000 0.17869 -0.17093 -7.8055e-05 -0.0014323 0.0014365 0.0019844 -0.0037625 0.00041414
0.0013963 0.00098671 -0.0004875 -0.00075471
-7.8123e-05 -0.0014277 0.26269 0.096479 -0.0013345 0.0041722 0.0010695 0.0013589
0.0018453 0.00050414 0.0010031 0.00023143
0.0014404 0.0019852 -0.0013158 0.004177 0.062433 -0.24579 0.00048192 -0.0023051
0.0023622 0.00026046 0.00049209 0.0016354
-0.0037731 0.00044193 0.0010751 0.0013504 0.00048178 -0.0023116 0.11389 -0.16683
0.00049126 0.0038117 -0.0016742 0.0013758
0.0013995 0.000976 0.0018458 0.00048855 0.0023551 0.00026225 0.00049399 0.0037999
0.25199 0.0032731 0.0038998 -0.0026298
-0.00050384 -0.00073981 0.00099418 0.00022415 0.00047294 0.0016296 -0.0016768 0.0014011
0.0038956 -0.0026188 0.26541 0.027352
2000000000 0.13249 -0.18614 -0.003813 0.00063295 0.0026745 0.0014882 -0.0024167 0.0038454
0.0011109 0.00022778 -0.0007126 0.00061937
-0.0038118 0.00061584 0.2491 0.060697 -0.00088674 0.0058163 0.0016267 0.00047285
0.0013864 -0.0010669 0.00035486 0.0002374
0.002673 0.0014718 -0.00085237 0.0058253 0.018882 -0.2325 -0.0012853 -0.001232
0.0020195 -0.0010714 0.001593 0.0016864
-0.0024065 0.0038436 0.001645 0.00046696 -0.0012949 -0.0012273 0.06029 -0.17721
-0.00099072 0.0037521 -0.00024299 0.0025399
0.0011242 0.00020684 0.0013781 -0.0010829 0.0020287 -0.001094 -0.00098583 0.0037473
0.24718 -0.029528 0.00029835 -0.0032253
