!Keysight Technologies,M9804A,MY58100912,A.14.10.03
!Date: Thursday, April 27, 2023 10:28:33
!Correction: S11(C  6-Port  ) 
!S12(C  6-Port  ) 
!S13(C  6-Port  ) 
!S14(C  6-Port  ) 
!S15(C  6-Port  ) 
!S16(C  6-Port  ) 
!S21(C  6-Port  ) 
!S22(C  6-Port  ) 
!S23(C  6-Port  ) 
!S24(C  6-Port  ) 
!S25(C  6-Port  ) 
!S26(C  6-Port  ) 
!S31(C  6-Port  ) 
!S32(C  6-Port  ) 
!S33(C  6-Port  ) 
!S34(C  6-Port  ) 
!S35(C  6-Port  ) 
!S36(C  6-Port  ) 
!S41(C  6-Port  ) 
!S42(C  6-Port  ) 
!S43(C  6-Port  ) 
!S44(C  6-Port  ) 
!S45(C  6-Port  ) 
!S46(C  6-Port  ) 
!S51(C  6-Port  ) 
!S52(C  6-Port  ) 
!S53(C  6-Port  ) 
!S54(C  6-Port  ) 
!S55(C  6-Port  ) 
!S56(C  6-Port  ) 
!S61(C  6-Port  ) 
!S62(C  6-Port  ) 
!S63(C  6-Port  ) 
!S64(C  6-Port  ) 
!S65(C  6-Port  ) 
!S66(C  6-Port  ) 
!S6P File: Measurement: :
# Hz S  RI   R 50
500000000 -0.33478 -0.05629 -0.01099 -0.0013634 -0.0085373 0.013762 -0.004501 0.012352
0.012446 0.0054518 -0.0055663 0.0080284
-0.010908 -0.0011822 -0.41553 -0.065094 0.0081644 -0.010347 0.00095885 0.011657
0.0080968 0.0028732 0.0011661 0.012471
-0.0082633 0.013908 0.0082025 -0.010458 -0.26785 0.1977 0.0060253 0.0036179
-0.0016012 0.0083837 -7.3412e-05 0.011527
-0.0050172 0.012666 0.0011478 0.012152 0.0061136 0.0037207 -0.3316 0.042135
-0.018345 -0.0039621 0.015964 0.023981
0.011782 0.0051742 0.0074615 0.003557 -0.0016071 0.0081404 -0.018978 -0.0035509
-0.2455 -0.20047 -0.027281 0.0061246
-0.0059777 0.0079502 0.0010368 0.013787 -0.00019337 0.01177 0.016758 0.025533
-0.026062 0.0055707 -0.27013 -0.13024
560000000 -0.31852 0.10992 -0.022737 -0.065471 0.00041537 0.013198 0.0052143 0.011131
0.010694 0.0046178 0.010215 0.0076532
-0.022782 -0.065733 -0.3758 0.096365 -0.0414 -0.037982 0.013876 0.0034641
-0.013984 -0.0033831 0.0042395 -0.0013936
0.0013708 0.013968 -0.041635 -0.037906 -0.18623 0.25016 -0.00050156 -0.0049743
0.018873 0.0062343 0.0074112 -0.0060821
0.0040107 0.010061 0.013683 0.0033067 -0.00052204 -0.0050095 -0.30693 0.13471
0.0043741 -0.023138 0.0060984 -0.02097
0.01097 0.0043156 -0.013762 -0.004054 0.018893 0.0053683 0.0048125 -0.023892
-0.30916 -0.019273 0.0075595 -0.049509
0.012091 0.0076706 0.0045098 -0.0015188 0.0072219 -0.0057753 0.0056838 -0.021068
0.0063277 -0.048861 -0.33252 0.020853
620000000 -0.27829 0.09092 -0.023074 0.0087166 0.0041495 0.0095519 0.0080005 -0.0043693
0.011461 -0.00077057 0.00082023 -0.0018968
-0.023167 0.0083694 -0.40383 0.046812 -0.018275 0.00084439 -0.0013319 -0.0019064
0.012536 -0.0064595 0.0010448 -0.0027265
0.0042479 0.0095637 -0.018393 0.00081734 -0.15588 0.25941 -2.6564e-05 -0.0051651
-0.0037907 -0.0024533 0.010444 -0.0033006
0.0080187 -0.0036466 -0.0012027 -0.0019116 -4.4508e-05 -0.0052988 -0.26504 0.14478
-0.040037 -0.018588 0.01467 0.027596
0.01169 -0.001217 0.011781 -0.0062411 -0.0039519 -0.0026045 -0.039161 -0.018743
-0.22967 -0.054436 -0.044862 0.013251
0.0001756 -0.00063491 0.0012929 -0.0029992 0.010404 -0.0028676 0.01441 0.027454
-0.044576 0.01247 -0.24774 -0.012121
680000000 -0.24047 0.18188 -0.02645 -0.014502 0.004987 0.0051738 0.0010693 -0.0079706
-0.0018257 -0.011786 0.0064324 -0.0073571
-0.025991 -0.014477 -0.39073 0.14881 -0.032181 -0.0019741 -0.0017389 -0.00062164
-0.001614 -0.0092957 -0.00038555 -0.0021491
0.0048475 0.0051712 -0.032214 -0.0018517 -0.10439 0.28026 -0.0012569 -0.00054212
-0.0015556 3.6194e-05 -0.0022452 -0.0095737
0.0012976 -0.0083573 -0.0013945 -0.00059284 -0.0011539 -0.00033499 -0.22049 0.19688
-0.02318 -0.0080824 -0.0088081 -0.011128
-0.0016046 -0.012231 -0.0015938 -0.0089812 -0.0017208 0.0002239 -0.023587 -0.0078484
-0.28078 0.049716 -0.0066476 -0.0086163
0.0051854 -0.0075253 -0.00111 -0.0022472 -0.0026928 -0.009831 -0.0087532 -0.011936
-0.0063878 -0.0082824 -0.26125 0.093371
740000000 -0.19385 0.17585 -0.039809 0.026629 0.013676 -0.0049027 -4.0651e-05 -0.0039606
-0.0046093 -0.0032404 -0.0062727 0.0024807
-0.039869 0.026724 -0.33595 0.16692 -0.03695 0.034596 -9.021e-05 -0.0064102
-0.012066 0.0071806 -0.0011093 -0.0061338
0.01384 -0.0048704 -0.03695 0.034785 -0.069826 0.27682 -0.0018238 0.0033367
-0.0031617 -0.0062495 -0.0011783 0.00099505
0.00029575 -0.004307 9.5068e-05 -0.0066307 -0.0019376 0.0032861 -0.20403 0.20423
-0.041587 -0.0079851 0.021223 0.015368
-0.0045753 -0.0025242 -0.012389 0.007559 -0.0032094 -0.0061177 -0.042244 -0.007793
-0.18342 0.07604 -0.040989 0.0013618
-0.0066798 0.0023874 -0.0015645 -0.0068457 -0.00090792 0.00075486 0.021821 0.0156
-0.041374 0.0015344 -0.25063 0.097498
800000000 -0.16289 0.22023 -0.022113 0.016092 0.0058401 -0.010614 -0.0046024 -0.0019104
-0.0046172 0.0020218 0.0041256 0.00082049
-0.021978 0.016283 -0.34158 0.23786 -0.0085749 0.033813 -0.0023177 0.0021393
-0.0011647 0.0026338 0.00077548 0.0053515
0.0057741 -0.010651 -0.0084372 0.03387 -0.031547 0.3011 0.00082832 0.0016993
-8.8015e-05 0.0035121 -0.0018663 0.00087525
-0.0047253 -0.002043 -0.0022239 0.0022805 0.00082597 0.0016332 -0.17425 0.23131
-0.028332 0.013137 0.013906 -0.010312
-0.0049635 0.0026218 -0.0014903 0.0025976 -0.00021922 0.0034536 -0.028112 0.013229
-0.22297 0.10558 -0.017064 0.020331
0.0045931 0.00076434 0.0009686 0.0056377 -0.0015295 0.0011604 0.013711 -0.010342
-0.017017 0.019806 -0.24228 0.14666
860000000 -0.12759 0.23964 -0.018018 0.030102 -0.0027584 -0.010291 -0.0020214 0.00059236
0.0034794 0.0053323 -0.0034115 -0.0031249
-0.017612 0.0303 -0.29396 0.28081 0.0071505 0.034387 0.00022189 0.0026018
0.0032861 0.0012831 0.0025229 0.00055278
-0.0027058 -0.010252 0.0071484 0.034327 0.015696 0.30958 -0.00052484 0.00015192
0.0021941 -0.001289 0.0013199 0.0043728
-0.0017156 0.00051502 0.00012661 0.0022393 -0.00056383 0.00014476 -0.13724 0.24224
-0.018103 0.017922 -0.0057879 -0.0086488
0.0040169 0.0048483 0.0030682 0.00097039 0.0023292 -0.0014243 -0.01817 0.018017
-0.16688 0.15847 -0.025786 0.017021
-0.0038249 -0.0018508 0.002784 0.00060743 0.0012739 0.0044727 -0.0061669 -0.0088177
-0.025466 0.017006 -0.19092 0.19284
920000000 -0.10483 0.26278 0.004444 0.038355 -0.0091949 -0.0051499 -0.0019356 0.0018205
0.0011458 0.0024572 0.0032255 -0.0010739
0.004434 0.038038 -0.26624 0.30237 0.028103 0.022978 0.001481 0.0014827
0.0081514 0.00038703 0.0044919 -0.0026319
-0.0092016 -0.0051385 0.02817 0.022893 0.060909 0.31101 0.0020308 0.00015305
0.0011932 9.9035e-05 0.0012656 -0.0011376
-0.0019437 0.0016727 0.0014504 0.0015099 0.0019568 0.00012171 -0.1129 0.25878
-0.01121 0.030883 0.0038904 -0.0066588
0.0015155 0.0024614 0.0081415 0.0003714 0.0012011 0.00020743 -0.011141 0.030874
-0.15463 0.16318 -0.00096543 0.026536
0.0031627 -0.0011097 0.0046406 -0.002444 0.001144 -0.0012668 0.0040057 -0.0066146
-0.00094722 0.02675 -0.19837 0.20539
980000000 -0.058436 0.28321 0.016703 0.029897 -0.0095237 0.004008 0.0018622 0.0035836
0.0042702 -0.0019221 -0.0030485 -0.0027178
0.016659 0.02999 -0.21345 0.33685 0.033323 0.0055947 0.0020439 -6.6625e-05
0.0019754 -0.0065141 -0.0004484 -0.0022301
-0.0095276 0.0040415 0.033375 0.0054897 0.10658 0.30561 0.000793 -0.0012069
0.00059674 -0.0020581 0.0014086 -0.00028771
0.0017438 0.0035682 0.0020428 -0.00011928 0.00078984 -0.0011933 -0.074758 0.26947
0.0074286 0.029757 -0.0091109 -0.0072778
0.0041034 -0.0018192 0.0018971 -0.006367 0.00053737 -0.0020819 0.0074509 0.029653
-0.12234 0.1931 0.0058742 0.019573
-0.0033663 -0.0028401 -0.0005263 -0.0025796 0.0015421 -0.00032158 -0.0088381 -0.0073827
0.005662 0.019451 -0.1559 0.24963
1040000000 -0.017382 0.29214 0.032744 0.01916 -0.0017708 0.0069645 0.0026426 0.00075983
0.00048803 -0.003561 -0.000171 -0.0019466
0.03268 0.019213 -0.17862 0.35036 0.030161 -0.014436 0.0017623 -0.0018072
-0.0020418 -0.0028432 -0.00091721 -0.0031636
-0.0017327 0.0069394 0.030098 -0.014529 0.15238 0.29282 -0.00036288 -0.0016832
-0.0014835 -0.0010502 -0.0006306 -0.0012325
0.0026204 0.00059929 0.0017024 -0.0018499 -0.00040316 -0.0017052 -0.047747 0.27926
0.019049 0.018728 -0.0023931 0.00078419
0.00041124 -0.0035344 -0.0020146 -0.0027603 -0.0014956 -0.0010517 0.019171 0.018716
-0.088693 0.20058 0.014044 0.018145
8.7011e-05 -0.0021234 -0.00089778 -0.0032873 -0.00055534 -0.0012273 -0.0023902 0.0010172
0.014121 0.018088 -0.13366 0.26941
1100000000 0.027537 0.30216 0.036365 -0.0032308 0.0027091 0.0042465 0.0023838 -0.00085945
-0.0023532 -0.0030026 -0.004077 -5.0986e-05
0.03631 -0.0030445 -0.13572 0.36887 0.016163 -0.027908 6.7436e-05 -0.0018132
-0.0039025 -0.0010095 -0.003622 -0.00033963
0.0026834 0.004216 0.016092 -0.028009 0.19835 0.27386 -0.0019881 4.84e-05
-0.0018623 0.0004488 -0.0012218 -0.00045342
0.002488 -0.00091671 8.8531e-05 -0.0018143 -0.0019968 2.8005e-05 -0.0080934 0.28444
0.024672 0.005666 -0.0026464 -6.1901e-05
-0.0023205 -0.0027758 -0.0039457 -0.00098687 -0.0018783 0.00050069 0.024684 0.005586
-0.069264 0.21352 0.019467 0.0088401
-0.004152 -9.3257e-05 -0.0036776 -0.00041772 -0.0011856 -0.0004979 -0.0027112 -0.0001009
0.019397 0.0087989 -0.088464 0.29952
1160000000 0.078438 0.29845 0.024648 -0.020355 0.0026891 -0.0003733 -7.4026e-05 -0.0023186
-0.004034 -0.00081654 -0.0010781 0.004275
0.024628 -0.020303 -0.092692 0.37361 -0.0031024 -0.029663 -0.0016258 -0.0017755
-0.0029216 0.0025119 -0.0014099 0.0018902
0.0026921 -0.00036271 -0.0032489 -0.029642 0.24185 0.24397 -0.00089304 0.0017486
-0.00078274 0.0019869 -0.00091157 0.00047506
-1.9114e-05 -0.002346 -0.0016277 -0.0018041 -0.00089864 0.0017563 0.031042 0.28221
0.021358 -0.0098836 -0.0032811 0.005079
-0.0040569 -0.00071272 -0.0028224 0.0025298 -0.00073752 0.002016 0.021329 -0.0099427
-0.034322 0.22196 0.01911 -0.00053107
-0.0011557 0.0041864 -0.001503 0.001812 -0.00086969 0.00037369 -0.0034073 0.0049958
0.01916 -0.00055379 -0.04118 0.30243
1220000000 0.12244 0.28893 0.011296 -0.030144 -0.0016027 -0.00081915 0.00011906 -0.00088011
-0.00281 0.0022928 0.0010359 0.0020858
0.011294 -0.030101 -0.048669 0.38709 -0.016877 -0.022168 -0.0027408 0.00045025
-0.00010846 0.0033295 -0.00086598 0.0020325
-0.0016307 -0.00085332 -0.016991 -0.022123 0.28107 0.20567 0.00065392 0.0018643
0.00054688 0.0012968 0.0002324 0.00074869
0.00016385 -0.00088716 -0.0027453 0.00047289 0.00065485 0.0018211 0.071298 0.27406
0.011036 -0.016949 0.0019876 0.0014033
-0.0027073 0.0022421 -0.00012278 0.0033161 0.00052515 0.0012956 0.011071 -0.016956
-0.011183 0.23019 0.014134 -0.013372
0.0010789 0.0020747 -0.00088388 0.0020541 0.00029071 0.0007247 0.0020755 0.0014078
0.014035 -0.013352 -0.0095113 0.31759
1280000000 0.17288 0.26886 -0.0075348 -0.028949 -0.0020107 0.0025625 -0.00081268 -0.0021736
-0.00079836 0.0032381 0.0025971 0.0013544
-0.0075042 -0.028881 -0.0026695 0.37938 -0.024338 -0.0091703 -0.0010619 0.0014978
0.0017416 0.0018228 0.00058886 0.0021416
-0.002046 0.0026252 -0.024414 -0.0090784 0.31201 0.16258 0.001653 0.00015167
0.0012899 0.00034354 0.0003378 0.00023057
-0.00076578 -0.0021769 -0.0010304 0.0014967 0.0016494 0.00017199 0.10828 0.25848
0.0013427 -0.019369 -4.2209e-05 0.00039387
-0.00068474 0.0031585 0.0017691 0.0018197 0.0012399 0.00030579 0.0012953 -0.019336
0.025222 0.23357 0.0032264 -0.015403
0.0027439 0.0014238 0.00063327 0.0021545 0.00041208 0.00026753 -5.1307e-06 0.00039771
0.0032539 -0.015466 0.037525 0.31991
1340000000 0.21042 0.23624 -0.01747 -0.019384 0.00080178 0.0048247 -0.0017965 -0.00086306
0.0014727 0.0027095 0.0019974 -0.0014389
-0.017472 -0.019362 0.037115 0.37213 -0.022272 0.0039846 -0.00018516 0.0021131
0.0021144 0.0008589 0.0012878 0.00081962
0.00081117 0.0048541 -0.022289 0.0041168 0.33448 0.11545 0.0011849 -0.00092437
0.00062749 -0.00053663 0.00024825 0.00015817
-0.0018332 -0.00084559 -0.00016007 0.0021093 0.0011604 -0.00091169 0.14191 0.23782
-0.0082503 -0.016917 0.0007671 0.00073084
0.0014687 0.0026604 0.0021656 0.00084531 0.00068625 -0.00054431 -0.0082834 -0.016906
0.055296 0.22913 -0.0040312 -0.014333
0.001851 -0.0014201 0.0013568 0.00083094 0.00012283 0.00019252 0.00061573 0.00067022
-0.0039404 -0.014287 0.075263 0.31471
1400000000 0.24472 0.19956 -0.023586 -0.0077421 0.0054589 0.0035251 -0.0023026 0.00067701
0.0024678 0.0010281 0.0004025 -0.0017437
-0.023521 -0.0077788 0.07482 0.36016 -0.0156 0.012681 0.0014454 0.0014054
0.0013994 -0.00082067 0.0012791 0.00018984
0.0054742 0.0035295 -0.015571 0.012793 0.34778 0.062642 0.00017699 -0.0017212
0.00015843 -0.00041675 0.00036484 0.00016339
-0.002311 0.00061671 0.0014519 0.0013515 0.0001621 -0.0017219 0.17176 0.20891
-0.014451 -0.010154 -0.00086843 9.1226e-06
0.0025499 0.00092582 0.0013908 -0.00082288 0.00015982 -0.00039347 -0.014435 -0.010137
0.088178 0.22511 -0.010479 -0.0088876
0.00042107 -0.0016963 0.0012574 0.00013312 0.00041715 0.00014624 -0.00077672 3.2706e-05
-0.010439 -0.0089247 0.11947 0.30403
1460000000 0.26845 0.15603 -0.020575 0.0046383 0.0060478 -0.0017367 -0.0016252 0.0017543
0.0022611 -0.00043419 -0.00034276 -0.0012186
-0.020556 0.0046052 0.10994 0.33878 -0.0063628 0.016021 0.0017602 0.0001577
0.00093068 -0.0014381 0.0012822 -0.00061287
0.0060035 -0.0017803 -0.0062809 0.016052 0.35483 0.0089396 -0.0012109 -0.0014585
0.00012772 -0.00020483 0.00082813 -0.00015403
-0.0016404 0.0017485 0.0017711 0.00014221 -0.0011399 -0.0014423 0.19871 0.17954
-0.015798 -0.0034924 -0.00076619 0.0021802
0.0022395 -0.00047356 0.00085116 -0.0014932 0.00017143 -0.00010156 -0.015863 -0.0035268
0.11795 0.21133 -0.01229 -0.0029343
-0.00040035 -0.0012425 0.0012722 -0.00057184 0.00079076 -0.00022185 -0.0008801 0.0022033
-0.012313 -0.0029797 0.15276 0.2838
1520000000 0.28175 0.11443 -0.014912 0.010211 0.0035809 -0.0044804 0.00014537 0.0026098
0.002138 -0.0019218 -0.001301 -0.00018814
-0.014898 0.01018 0.14395 0.32444 0.0016771 0.013679 0.0016532 -0.00086951
7.1431e-06 -0.0011594 0.00034385 -0.0011143
0.0036182 -0.0045464 0.0017476 0.013701 0.34879 -0.047076 -0.0011554 -0.00042366
0.0006398 -0.0009195 0.00013991 -0.00015209
8.5836e-05 0.0025851 0.0016474 -0.00087432 -0.0011909 -0.00042469 0.22212 0.14089
-0.015236 0.0025497 0.0016146 0.0021905
0.0020634 -0.0020131 -1.265e-05 -0.001146 0.00068998 -0.00097707 -0.01529 0.0026403
0.14609 0.19823 -0.012131 0.0018416
-0.0013128 -0.00022824 0.00032989 -0.001112 6.7654e-05 -0.00017403 0.0016575 0.0021518
-0.01214 0.0018677 0.18559 0.26329
1580000000 0.29216 0.068279 -0.0081728 0.013523 -0.0010144 -0.0052796 0.0015105 0.0019598
-0.00012041 -0.002271 -0.00032969 0.00040095
-0.0081798 0.013479 0.17178 0.29998 0.0055528 0.0085692 0.00046725 -0.0016417
-0.00059823 -0.0010736 -0.00018951 -0.00089551
-0.00099617 -0.0052656 0.0056006 0.0085517 0.32957 -0.10488 -0.0017086 0.00064018
-0.00033678 -0.0013082 0.00022428 -0.00063257
0.0015462 0.0020115 0.00046636 -0.0016689 -0.0016737 0.00064558 0.23603 0.10126
-0.011866 0.0076614 0.0025051 0.00069554
-0.00010983 -0.0022565 -0.00060372 -0.001095 -0.00030279 -0.0012505 -0.011901 0.0076621
0.17079 0.18085 -0.0094963 0.0076254
-0.00039576 0.00039899 -0.00022542 -0.00091885 0.00015507 -0.0006621 0.0024127 0.00074152
-0.0095007 0.0075654 0.2175 0.23721
1640000000 0.29472 0.02681 -0.0013958 0.012289 -0.003 -0.0028353 0.0026789 0.0010633
-0.00086114 -0.0016926 -0.00037031 0.00065816
-0.0014102 0.012279 0.20188 0.27509 0.0063549 0.003478 -0.00068413 -0.0017772
-0.0010799 -0.00045868 -0.00062409 -0.00076404
-0.0030124 -0.0028197 0.0063882 0.0034304 0.30133 -0.15455 -0.00075469 0.001554
-0.001142 -0.0010709 -0.00027536 -0.00036611
0.0027343 0.0010859 -0.00069268 -0.0017814 -0.00072481 0.0015438 0.24845 0.052037
-0.0075561 0.0091797 0.0025402 -0.00078515
-0.00083239 -0.0016278 -0.0010433 -0.00043893 -0.0011692 -0.0010477 -0.0075215 0.0092132
0.19458 0.15723 -0.0047269 0.009642
-0.00039024 0.0008059 -0.00062787 -0.00070952 -0.00029505 -0.00029916 0.0025218 -0.0009391
-0.0046843 0.0096764 0.24335 0.20629
1700000000 0.28794 -0.018628 0.0020503 0.009467 -0.0037789 -6.0618e-05 0.0032745 -0.0012089
-0.0020722 -0.00070593 0.00060293 0.00048336
0.0020368 0.0094935 0.22032 0.24366 0.0042504 0.00034799 -0.0014992 -0.00054573
-0.00088013 1.8426e-05 -0.00099261 -0.00044381
-0.0037698 6.9737e-05 0.0042599 0.00036106 0.25818 -0.19404 0.00040016 0.0017454
-0.0021441 -3.2725e-05 -0.00052626 -0.00088151
0.0032302 -0.0012206 -0.0015138 -0.00052882 0.00040328 0.0017574 0.24499 0.0018096
-0.0044933 0.0098291 0.001599 -0.0022652
-0.0020735 -0.00071427 -0.00085924 4.6831e-05 -0.0021175 -0.00012002 -0.0044587 0.0098311
0.21245 0.13716 7.5605e-05 0.010025
0.00064452 0.00042829 -0.0010031 -0.00044547 -0.00056726 -0.00091411 0.0017021 -0.0021885
7.7051e-05 0.010008 0.25971 0.17237
1760000000 0.27638 -0.067275 0.0044942 0.0061804 -0.0024489 0.0010498 0.0014071 -0.0034681
-0.0013897 0.00073132 0.00041178 -0.00054507
0.0044651 0.0061565 0.24681 0.20395 0.0017985 -0.001669 -0.0011819 0.00023252
-0.0011292 0.0010032 -0.00064217 0.00045524
-0.0024283 0.0010267 0.0017915 -0.0016861 0.2105 -0.22748 0.0011316 0.001101
-0.0013479 0.0016165 -0.0012436 -0.00059909
0.001417 -0.0034687 -0.0012055 0.00022938 0.0011217 0.0010749 0.2358 -0.049776
-0.00094564 0.0089297 -0.00020886 -0.002648
-0.0013764 0.00071991 -0.0011116 0.0010047 -0.0014396 0.0016922 -0.00095206 0.0089593
0.22813 0.10278 0.0041919 0.0073421
0.00039169 -0.00056926 -0.00064382 0.00045893 -0.001377 -0.00058609 -0.00030778 -0.0026471
0.0041374 0.0073308 0.27276 0.13514
1820000000 0.2522 -0.10475 0.004561 0.0025742 -0.00024523 0.0025886 -0.00093019 -0.0031515
-0.0010962 0.0010538 2.1734e-05 -0.0002449
0.0045973 0.0025858 0.25717 0.1737 -0.00067666 -0.00045666 -0.0012934 0.00098377
-8.6257e-05 0.001337 -0.00052954 0.00060621
-0.00032883 0.0026753 -0.00068276 -0.00044999 0.1594 -0.24384 0.0016481 0.00033909
-0.00017999 0.0025845 -0.0012871 0.00054571
-0.0010396 -0.0031772 -0.0013199 0.00095188 0.0016671 0.00029391 0.20553 -0.097063
0.00075705 0.0074849 -0.0017271 -0.0017272
-0.0011864 0.0010606 -8.3255e-05 0.0012975 -0.00011562 0.0025404 0.00072306 0.0074517
0.24585 0.07381 0.0052145 0.0037822
2.3595e-05 -0.00020829 -0.00058901 0.00059818 -0.0013222 0.00050734 -0.0017391 -0.0015885
0.0051233 0.0037503 0.27532 0.098752
1880000000 0.21699 -0.14523 0.0022048 0.00011216 -0.00076546 0.0022647 -0.0029947 -0.0023044
-0.00018201 0.0018441 5.9583e-05 -0.00047893
0.0022151 0.00012917 0.26179 0.1271 -0.0027334 0.0014888 -0.00010525 0.0017281
0.00063546 0.0013899 0.00010754 0.001036
-0.0007063 0.002179 -0.0027216 0.001546 0.10732 -0.25276 0.0019455 -0.00091347
0.0017205 0.0020534 -0.00087635 0.0014751
-0.002919 -0.0022881 -8.807e-05 0.0017446 0.0018563 -0.00094137 0.16454 -0.13699
0.0015276 0.0052074 -0.0024064 0.00016116
-9.2355e-05 0.0018425 0.00065008 0.0014016 0.0016762 0.0021083 0.0015418 0.0052008
0.25014 0.042127 0.0055259 0.0013382
3.226e-05 -0.00056627 0.0001712 0.0010033 -0.00081901 0.0015515 -0.002382 9.8612e-05
0.0055342 0.0013524 0.27568 0.065061
1940000000 0.17791 -0.17123 -0.0001559 -0.0014799 0.0013832 0.0021495 -0.0038647 0.00038253
0.00139 0.0010991 -0.0006369 -0.00066589
-0.00020862 -0.0015159 0.2627 0.095158 -0.0015331 0.0040779 0.0010147 0.001263
0.0019697 0.00051772 0.0010207 0.00028041
0.001467 0.002134 -0.0014771 0.004081 0.062073 -0.24557 0.00036897 -0.002247
0.0024804 0.00023463 0.00056486 0.0014985
-0.0038012 0.00045937 0.0010264 0.001259 0.00037871 -0.00227 0.11195 -0.16747
0.00079964 0.0038029 -0.0016372 0.001516
0.0013976 0.0010408 0.0019743 0.00054992 0.0025228 0.00028148 0.00067177 0.0037369
0.25347 0.0037019 0.004076 -0.0021005
-0.00057898 -0.00063082 0.0010036 0.00023571 0.00054285 0.0014564 -0.0017016 0.0016474
0.0041133 -0.0021448 0.26511 0.028793
2000000000 0.13186 -0.18587 -0.0040858 0.00078143 0.0025422 0.0018227 -0.0023296 0.0037645
0.0012967 0.0004001 -0.00046517 0.00059256
-0.0039986 0.00078338 0.24843 0.059577 -0.0010843 0.005972 0.0016223 0.00041386
0.0015103 -0.0011689 0.00062461 4.7341e-05
0.0026903 0.0018203 -0.0010306 0.0060653 0.019128 -0.23179 -0.0011196 -0.0013847
0.0020366 -0.0012857 0.0015899 0.001426
-0.0023406 0.0037005 0.0016265 0.00031673 -0.0013937 -0.0014374 0.058884 -0.1771
-0.00070157 0.0036092 -0.00024025 0.0021964
0.0012881 0.00025182 0.0015279 -0.0012823 0.0020458 -0.0013337 -0.00047062 0.0036579
0.24858 -0.029687 0.00096546 -0.0031936
