!Keysight Technologies,M9804A,MY58100912,A.14.10.03
!Date: Thursday, April 27, 2023 10:28:33
!Correction: S11(C  6-Port  ) 
!S12(C  6-Port  ) 
!S13(C  6-Port  ) 
!S14(C  6-Port  ) 
!S15(C  6-Port  ) 
!S16(C  6-Port  ) 
!S21(C  6-Port  ) 
!S22(C  6-Port  ) 
!S23(C  6-Port  ) 
!S24(C  6-Port  ) 
!S25(C  6-Port  ) 
!S26(C  6-Port  ) 
!S31(C  6-Port  ) 
!S32(C  6-Port  ) 
!S33(C  6-Port  ) 
!S34(C  6-Port  ) 
!S35(C  6-Port  ) 
!S36(C  6-Port  ) 
!S41(C  6-Port  ) 
!S42(C  6-Port  ) 
!S43(C  6-Port  ) 
!S44(C  6-Port  ) 
!S45(C  6-Port  ) 
!S46(C  6-Port  ) 
!S51(C  6-Port  ) 
!S52(C  6-Port  ) 
!S53(C  6-Port  ) 
!S54(C  6-Port  ) 
!S55(C  6-Port  ) 
!S56(C  6-Port  ) 
!S61(C  6-Port  ) 
!S62(C  6-Port  ) 
!S63(C  6-Port  ) 
!S64(C  6-Port  ) 
!S65(C  6-Port  ) 
!S66(C  6-Port  ) 
!S6P File: Measurement: :
# Hz S  RI   R 50
500000000 -0.33302 -0.055849 -0.010245 -0.0018148 -0.0084657 0.012715 -0.0042092 0.011229
0.012458 0.0059892 -0.0040532 0.0071642
-0.010326 -0.001847 -0.41581 -0.065245 0.0084172 -0.010819 0.0010421 0.011928
0.0079796 0.002927 0.0011966 0.0136
-0.0083745 0.012755 0.008478 -0.010871 -0.26698 0.19751 0.0067001 0.0035049
-0.0013662 0.0086323 0.00028269 0.011898
-0.0043009 0.01131 0.0011476 0.012148 0.006704 0.0035532 -0.33132 0.041938
-0.0183 -0.0039351 0.016606 0.024545
0.012484 0.0060324 0.0077321 0.0027594 -0.0013089 0.0085512 -0.018305 -0.0038634
-0.24519 -0.19963 -0.026445 0.0059723
-0.0043074 0.0071289 0.0011426 0.013876 0.0003838 0.011983 0.016603 0.024618
-0.026371 0.0059521 -0.27011 -0.12597
560000000 -0.31914 0.11099 -0.023477 -0.065465 0.00045507 0.012693 0.0055656 0.010929
0.011575 0.0038755 0.010035 0.0084279
-0.023594 -0.065362 -0.37495 0.09761 -0.041235 -0.038078 0.01283 0.0032087
-0.012397 -0.0039434 0.0033066 -0.0014196
0.00055003 0.012699 -0.04132 -0.0379 -0.1865 0.24986 -0.00016993 -0.0047137
0.018612 0.0060573 0.0081319 -0.0058079
0.0056999 0.010884 0.012652 0.0032449 -0.0002308 -0.0047475 -0.30564 0.13363
0.0057203 -0.024687 0.0050607 -0.021587
0.012191 0.0039216 -0.012885 -0.0031351 0.018721 0.0058221 0.0056168 -0.024551
-0.31019 -0.017149 0.0077263 -0.049341
0.010112 0.0090701 0.0030553 -0.0021108 0.0083087 -0.0056213 0.0049965 -0.021735
0.0077727 -0.049244 -0.33128 0.021159
620000000 -0.27813 0.091649 -0.023031 0.0086682 0.0034718 0.0093942 0.0078464 -0.0042203
0.011453 -0.0014904 7.2618e-05 -0.0023352
-0.023045 0.0086808 -0.40299 0.046765 -0.018568 0.00019619 -0.0016619 -0.0017247
0.012215 -0.0067581 0.00039806 -0.003186
0.0035422 0.0094078 -0.018605 0.00025677 -0.15638 0.25855 -0.00092468 -0.0050739
-0.0035769 -0.003302 0.0086452 -0.0029675
0.0078616 -0.004194 -0.0018025 -0.0018531 -0.00092114 -0.0050627 -0.26489 0.14365
-0.038996 -0.018173 0.014239 0.026889
0.011303 -0.0016097 0.012199 -0.0065278 -0.0036058 -0.0032595 -0.038744 -0.018076
-0.22922 -0.055374 -0.042253 0.013184
0.00030144 -0.0019718 0.00048791 -0.0035958 0.0088013 -0.0029715 0.01423 0.026439
-0.042294 0.01317 -0.24929 -0.010341
680000000 -0.24012 0.18229 -0.0264 -0.01478 0.0048884 0.0054904 0.0012439 -0.0078122
-0.002572 -0.011662 0.0058922 -0.0078986
-0.026361 -0.014778 -0.39007 0.1482 -0.032745 -0.0022104 -0.0019443 -0.00070308
-0.0017911 -0.0093417 -0.00083694 -0.0022237
0.0048479 0.0055421 -0.032821 -0.0021686 -0.10482 0.27965 -0.0010206 -0.00040375
-0.0016769 0.00069336 -0.0027493 -0.0092338
0.0013113 -0.0077407 -0.0020048 -0.00069768 -0.0010478 -0.00037056 -0.21971 0.19616
-0.024493 -0.0082046 -0.0084424 -0.012072
-0.0024861 -0.011609 -0.0018973 -0.0092506 -0.0017279 0.00070664 -0.02445 -0.0080734
-0.27861 0.050119 -0.0070791 -0.0077923
0.0057992 -0.0076391 -0.00078061 -0.0020509 -0.0028124 -0.009175 -0.0083861 -0.011889
-0.0071647 -0.0077833 -0.26031 0.091203
740000000 -0.19397 0.1755 -0.040152 0.026627 0.013897 -0.0048814 -4.8958e-06 -0.0043938
-0.0046552 -0.0034628 -0.0060772 0.003162
-0.040129 0.026541 -0.33567 0.16613 -0.037123 0.035037 -0.00010745 -0.0063549
-0.011413 0.0080886 -0.0016176 -0.0061349
0.013853 -0.0049635 -0.037048 0.03519 -0.071255 0.27723 -0.0015986 0.0034687
-0.0032391 -0.0052636 -0.00098114 0.0010726
5.6073e-05 -0.004296 -0.00014104 -0.0064158 -0.0015937 0.0034651 -0.20307 0.20289
-0.043259 -0.0081959 0.022692 0.015412
-0.0045749 -0.0035211 -0.011601 0.0083364 -0.0032366 -0.0053421 -0.043391 -0.0080663
-0.17836 0.075658 -0.042563 0.0006822
-0.0060547 0.0032812 -0.0014469 -0.0062355 -0.00089246 0.0012101 0.022687 0.015314
-0.042507 0.00060039 -0.2488 0.098768
800000000 -0.16267 0.21951 -0.022506 0.016489 0.0059396 -0.010616 -0.004208 -0.0022527
-0.0047571 0.0022632 0.0047683 0.00064885
-0.022484 0.016415 -0.34238 0.23802 -0.0087886 0.034534 -0.0020516 0.0020962
-0.0011539 0.0028934 0.0012622 0.005418
0.0059636 -0.010603 -0.0086717 0.034577 -0.032611 0.30176 0.0010896 0.0013869
-9.108e-08 0.0035774 -0.0016393 0.0011368
-0.0041572 -0.0022625 -0.0019912 0.0021655 0.0010853 0.0013828 -0.17473 0.23068
-0.028958 0.013046 0.014218 -0.010136
-0.0046403 0.0023567 -0.0011324 0.0029547 2.5575e-05 0.0036183 -0.028901 0.013089
-0.22378 0.10557 -0.017532 0.019595
0.0048774 0.0005073 0.0013785 0.0055563 -0.0016133 0.0011294 0.014248 -0.010197
-0.017528 0.019595 -0.24145 0.14769
860000000 -0.12863 0.24019 -0.01834 0.030579 -0.002906 -0.010583 -0.0017808 0.00081984
0.003877 0.0051075 -0.0034264 -0.0030017
-0.018327 0.030553 -0.29404 0.28114 0.0073928 0.034947 0.00010497 0.002102
0.0033864 0.00066619 0.0032854 0.00017533
-0.0028957 -0.010549 0.0075132 0.034981 0.015231 0.31057 -0.00065427 -0.00015672
0.0021989 -0.0016334 0.0015783 0.0042845
-0.0018476 0.00092888 7.2906e-05 0.0021176 -0.00066536 -0.00014219 -0.13849 0.24236
-0.018643 0.018744 -0.0061335 -0.0091958
0.0038191 0.0050669 0.0034714 0.00055164 0.0022417 -0.0016817 -0.018555 0.018733
-0.16764 0.15789 -0.024154 0.016025
-0.0033609 -0.0031556 0.0033433 0.0001898 0.0016225 0.0042539 -0.0061175 -0.0092193
-0.024165 0.016091 -0.1905 0.19275
920000000 -0.10487 0.26349 0.0044037 0.038788 -0.0094566 -0.0050847 -0.0018524 0.001873
0.0012029 0.0021468 0.0027067 -0.0013252
0.004369 0.038748 -0.26703 0.30262 0.028418 0.023297 0.0017152 0.0014403
0.0074152 -0.00024285 0.0045173 -0.002451
-0.0094584 -0.0050451 0.02851 0.023235 0.060815 0.31215 0.0018492 7.2049e-05
0.0011397 -0.00019237 0.0011327 -0.0011766
-0.0018874 0.0018816 0.0016894 0.0014368 0.0018481 8.9615e-05 -0.11398 0.25946
-0.0114 0.031587 0.0037596 -0.0069481
0.0011328 0.0022477 0.0075242 -0.00029287 0.0011284 -0.00017484 -0.011311 0.031606
-0.15655 0.16328 -0.0015763 0.027223
0.002773 -0.0013114 0.0044049 -0.0024463 0.0010926 -0.0011716 0.0037239 -0.0068716
-0.0015837 0.027245 -0.19849 0.20598
980000000 -0.058268 0.2843 0.01697 0.030735 -0.009634 0.0042833 0.0019992 0.003667
0.0041119 -0.001607 -0.0026831 -0.0023587
0.016979 0.030709 -0.21379 0.3379 0.033972 0.0055728 0.0021743 -0.00026403
0.0017452 -0.0060854 3.6808e-06 -0.0024866
-0.0096066 0.0043209 0.034022 0.0054624 0.1069 0.30672 0.00081391 -0.0011196
0.00054426 -0.0019055 0.0018393 -0.00022181
0.0019421 0.0036634 0.0021591 -0.00027492 0.00080101 -0.0011375 -0.075766 0.27076
0.0076907 0.030469 -0.0092107 -0.0075305
0.0040844 -0.0016505 0.0017004 -0.0061103 0.0005554 -0.0018906 0.0077056 0.030479
-0.12248 0.1942 0.0056466 0.019554
-0.0026396 -0.0023745 -4.4306e-05 -0.0025244 0.0018226 -0.0002428 -0.0092452 -0.0074945
0.0056459 0.019566 -0.15578 0.25085
1040000000 -0.016776 0.29323 0.033257 0.019521 -0.0016296 0.0072829 0.0027834 0.0006494
0.00029149 -0.0035238 -0.00019081 -0.0015513
0.033246 0.019488 -0.17874 0.35164 0.030642 -0.014753 0.0016921 -0.0018159
-0.0022538 -0.0025994 -0.0011133 -0.0026408
-0.0015689 0.0072859 0.030592 -0.014854 0.15313 0.29381 -0.00046517 -0.0017302
-0.0016764 -0.00098223 -0.00044234 -0.0012368
0.0027862 0.0005817 0.001657 -0.0018452 -0.00047326 -0.0017375 -0.048217 0.2808
0.019809 0.019407 -0.0028154 0.0011984
0.00024921 -0.0035162 -0.0023515 -0.0025443 -0.0016755 -0.00097556 0.019817 0.019368
-0.089908 0.20158 0.014242 0.018772
-0.00010515 -0.0014517 -0.0011041 -0.0025756 -0.00041151 -0.0012477 -0.0028686 0.0011954
0.014241 0.018785 -0.13298 0.27176
1100000000 0.027912 0.30256 0.037023 -0.00339 0.0029727 0.0043291 0.0024398 -0.0011978
-0.0020533 -0.0031122 -0.0038908 -0.00016827
0.036991 -0.0033619 -0.13562 0.37021 0.016141 -0.028507 7.432e-07 -0.0018434
-0.0036588 -0.00083121 -0.0035283 -0.00057196
0.0029965 0.0043032 0.016056 -0.028609 0.1995 0.2745 -0.0019209 8.3858e-05
-0.0018382 0.00050558 -0.0011373 -0.00063678
0.0024409 -0.0011881 -2.5433e-05 -0.001838 -0.0019236 7.8167e-05 -0.0073944 0.28625
0.025792 0.0057216 -0.0022937 0.00043066
-0.0020971 -0.0030882 -0.0036799 -0.00084408 -0.0018685 0.00051828 0.025787 0.0056984
-0.069253 0.21468 0.019994 0.0086924
-0.0039269 -0.0001064 -0.0036092 -0.00052234 -0.0011403 -0.00063551 -0.0022456 0.00042346
0.020007 0.0087269 -0.087733 0.30069
1160000000 0.079263 0.29902 0.025104 -0.020765 0.0030762 -0.00052012 -0.00027082 -0.0025012
-0.0040554 -0.00086228 -0.00095474 0.0041291
0.025123 -0.020744 -0.091809 0.37519 -0.0033393 -0.030157 -0.0017559 -0.0016965
-0.0027855 0.0025992 -0.0015341 0.0019252
0.0030843 -0.00053424 -0.003473 -0.030164 0.24315 0.2442 -0.0007853 0.0018636
-0.00064733 0.0019625 -0.0011126 0.00031207
-0.00027509 -0.0025063 -0.0018092 -0.001665 -0.00078752 0.0018684 0.032673 0.28354
0.022059 -0.010853 -0.0031464 0.0053146
-0.0040748 -0.00079077 -0.0027927 0.0026159 -0.00066055 0.0019708 0.022031 -0.01087
-0.034941 0.22284 0.018565 -0.00049754
-0.00095884 0.004218 -0.00147 0.0019038 -0.0011463 0.00031259 -0.0031796 0.0053273
0.018567 -0.00050557 -0.040426 0.30345
1220000000 0.1234 0.28928 0.011451 -0.030784 -0.0015597 -0.0011785 -6.1564e-05 -0.0008163
-0.0028045 0.0022415 0.0010503 0.0020411
0.011475 -0.030753 -0.047249 0.38836 -0.017345 -0.022232 -0.0026781 0.0005548
7.0485e-05 0.0031321 -0.00081847 0.001956
-0.0015539 -0.0011616 -0.017461 -0.022196 0.2823 0.20524 0.00084851 0.0018173
0.00065089 0.0013538 0.00028726 0.00058877
-7.4904e-05 -0.00082464 -0.0026666 0.00054961 0.0008337 0.0018068 0.072957 0.27462
0.01129 -0.018006 0.0022763 0.001388
-0.0028061 0.0022531 9.5119e-05 0.0031281 0.00064212 0.0013442 0.011254 -0.01801
-0.011053 0.2321 0.014178 -0.013531
0.0010835 0.0020339 -0.00080373 0.001962 0.00031759 0.00058209 0.0022904 0.0013838
0.014172 -0.013524 -0.0091359 0.31855
1280000000 0.17405 0.26902 -0.0077555 -0.029562 -0.002095 0.0023643 -0.00083729 -0.0019861
-0.00071854 0.0033321 0.0026299 0.0012427
-0.0077371 -0.029528 -0.00058129 0.38004 -0.024709 -0.0089319 -0.0009654 0.0014853
0.0017473 0.0016976 0.00059012 0.0021041
-0.0020898 0.0023922 -0.024776 -0.0088282 0.31285 0.16166 0.0015707 -6.4759e-05
0.0012082 0.00025252 0.00024906 0.00035983
-0.00079837 -0.0019969 -0.00097268 0.0015086 0.0015797 -7.9366e-05 0.11021 0.25799
0.00088796 -0.020306 -6.3699e-05 0.00019859
-0.00069265 0.0033226 0.0017458 0.0016956 0.0012088 0.00025181 0.00083908 -0.020295
0.026226 0.23572 0.0029539 -0.015752
0.0026722 0.0012311 0.00064215 0.0021123 0.00027856 0.00036994 -5.1711e-05 0.0001959
0.0029477 -0.015744 0.038488 0.32095
1340000000 0.21189 0.23588 -0.017975 -0.019733 0.00063036 0.0047184 -0.0017503 -0.00075727
0.0014258 0.0027615 0.0017567 -0.0013911
-0.017926 -0.019729 0.039231 0.37184 -0.022358 0.0043791 -2.6039e-05 0.0020121
0.0019743 0.00079705 0.001275 0.0007976
0.00065101 0.0047105 -0.022363 0.0045073 0.33476 0.11446 0.0011117 -0.00093666
0.00072069 -0.00059671 0.00013746 0.00024085
-0.0017538 -0.00075085 -2.1485e-05 0.0020155 0.0010879 -0.00094648 0.14318 0.23647
-0.0091104 -0.017362 0.00076738 0.00044766
0.0014553 0.0027175 0.0019705 0.00076855 0.00072222 -0.00061013 -0.0091631 -0.017351
0.05727 0.23096 -0.0042143 -0.014608
0.001737 -0.0013897 0.0012802 0.00075812 0.00012876 0.00021756 0.0007892 0.00048299
-0.0041944 -0.014606 0.076337 0.31562
1400000000 0.24569 0.19851 -0.024212 -0.0078117 0.0053024 0.0035121 -0.0021094 0.00064738
0.0025927 0.00098551 0.00027529 -0.001641
-0.024191 -0.0078145 0.076688 0.359 -0.015381 0.012979 0.0013484 0.001247
0.0012403 -0.00082226 0.0011919 9.838e-05
0.0053024 0.0034804 -0.015336 0.013053 0.34778 0.061603 4.6316e-05 -0.0016762
0.00015981 -0.00041824 0.00035042 0.00022729
-0.0021052 0.00066377 0.0013555 0.0012558 4.4739e-05 -0.0016675 0.17225 0.20742
-0.015468 -0.0099799 -0.00089866 -7.5112e-05
0.0025887 0.00098369 0.0012377 -0.00084957 0.00016293 -0.00043022 -0.015509 -0.0099681
0.090741 0.22628 -0.010595 -0.0090605
0.00025602 -0.0016452 0.0011826 5.9661e-05 0.00033257 0.00022504 -0.00090765 -8.5109e-05
-0.010589 -0.0090644 0.12077 0.30431
1460000000 0.26919 0.15455 -0.021037 0.0050106 0.0058712 -0.0017427 -0.0015185 0.0016948
0.00222 -0.0005372 -0.00042131 -0.00097966
-0.021022 0.0049791 0.11102 0.33701 -0.0060875 0.016058 0.0016605 0.00012861
0.00089451 -0.0013486 0.0012318 -0.00067785
0.0058407 -0.0017729 -0.0060026 0.016105 0.35441 0.0081441 -0.001255 -0.0013422
0.00017478 -0.00033423 0.00070368 -0.00021696
-0.0015188 0.0016973 0.0016481 0.00012847 -0.001243 -0.0013451 0.1986 0.17799
-0.016549 -0.0027899 -0.00085811 0.0020387
0.002226 -0.00056259 0.00090073 -0.0013648 0.0001753 -0.00032198 -0.016564 -0.0027597
0.12061 0.21147 -0.012549 -0.002853
-0.00039054 -0.00098748 0.0012413 -0.00066768 0.00070744 -0.00022294 -0.00085673 0.0020482
-0.012536 -0.0028514 0.15441 0.28344
1520000000 0.28165 0.1129 -0.015208 0.010699 0.0034973 -0.0043153 0.0001374 0.0025336
0.0021828 -0.0020035 -0.0012315 -0.00012712
-0.015196 0.010686 0.14422 0.32255 0.0018569 0.013523 0.0016437 -0.0007269
5.6653e-05 -0.0010705 0.00021949 -0.0010932
0.0034588 -0.0043436 0.0019364 0.013529 0.348 -0.047497 -0.0010584 -0.00033564
0.00067161 -0.00088458 2.5505e-05 -0.00023841
0.00013858 0.0025272 0.0016404 -0.00074569 -0.0010541 -0.00034214 0.22131 0.1396
-0.015461 0.0035044 0.0016127 0.0021742
0.0021587 -0.0020212 5.1179e-05 -0.0010866 0.00065407 -0.0008938 -0.015446 0.0035423
0.1488 0.19734 -0.012396 0.0020594
-0.0012075 -0.00011837 0.00023073 -0.0010912 -3.5181e-06 -0.00018287 0.0016182 0.0021554
-0.012397 0.0020598 0.18691 0.26315
1580000000 0.29143 0.067211 -0.0080651 0.014062 -0.00092892 -0.0051437 0.001466 0.0019067
-0.00032322 -0.0022537 -0.00018668 0.00046903
-0.0080666 0.01403 0.17132 0.29827 0.0056659 0.0083609 0.00053934 -0.0015682
-0.0005974 -0.0010395 -0.00021217 -0.00083148
-0.00094185 -0.0051337 0.0056955 0.0083292 0.32887 -0.10474 -0.0016666 0.00054042
-0.00041045 -0.0011863 0.00037047 -0.00058241
0.0014628 0.0018983 0.00052115 -0.0015724 -0.0016788 0.00054717 0.2347 0.10047
-0.011372 0.0084431 0.0022802 0.00067255
-0.00033262 -0.0022492 -0.00062202 -0.0010371 -0.00039895 -0.0011845 -0.011369 0.008487
0.17305 0.1791 -0.009655 0.0078237
-0.00019033 0.00047437 -0.00024619 -0.00082586 0.00036415 -0.00060942 0.0022887 0.00067876
-0.0096707 0.007824 0.21851 0.23673
1640000000 0.29381 0.026293 -0.001036 0.012633 -0.0029092 -0.0027287 0.0026952 0.0010383
-0.00088809 -0.0015869 -0.00034243 0.00068485
-0.0010492 0.012612 0.20087 0.27381 0.0062438 0.0033031 -0.00062038 -0.0017785
-0.0010291 -0.00039085 -0.00059363 -0.00062371
-0.0029375 -0.0027184 0.0062835 0.0032916 0.30097 -0.15379 -0.00069863 0.0015028
-0.0011151 -0.00079734 -0.00013838 -0.00041459
0.0026825 0.0010244 -0.00063476 -0.0017933 -0.00071338 0.0014944 0.24703 0.052007
-0.0067281 0.0095513 0.0024901 -0.00075997
-0.00089907 -0.0015915 -0.0010274 -0.00037836 -0.0011051 -0.00080211 -0.006696 0.009582
0.19596 0.15498 -0.0045678 0.0099574
-0.00033621 0.00068261 -0.00059663 -0.00061258 -0.00015943 -0.00041833 0.0024684 -0.00076792
-0.004554 0.0099512 0.24436 0.20581
1700000000 0.28692 -0.018595 0.0024618 0.0095471 -0.0036863 3.0109e-05 0.0031157 -0.0011375
-0.0020656 -0.00055067 0.00060134 0.00031381
0.0024439 0.0095369 0.2189 0.24305 0.0040549 0.00029976 -0.0015237 -0.00061769
-0.00080054 5.8608e-05 -0.00086782 -0.00039076
-0.0037354 4.3917e-05 0.0040585 0.00026417 0.25847 -0.19372 0.00045127 0.0016253
-0.0020219 5.2442e-05 -0.00045177 -0.00087633
0.003122 -0.0011516 -0.0015209 -0.0005956 0.00043502 0.001639 0.24357 0.0026346
-0.0037305 0.0095915 0.0016177 -0.0021868
-0.0020734 -0.00054018 -0.00079791 5.5862e-05 -0.002006 4.9655e-05 -0.0037014 0.0095908
0.21291 0.1348 0.00045867 0.010043
0.00057187 0.0003193 -0.00088306 -0.0003965 -0.00045561 -0.00091288 0.0016179 -0.00219
0.00046002 0.010053 0.26052 0.17168
1760000000 0.27586 -0.066796 0.0047028 0.0060831 -0.0024187 0.0011207 0.0013477 -0.0034003
-0.0013503 0.00078314 0.00032136 -0.00056488
0.0047006 0.0060776 0.24537 0.20404 0.001522 -0.0015539 -0.0012537 0.00016753
-0.0010364 0.00091303 -0.00055853 0.00043009
-0.0023956 0.0010895 0.0015139 -0.0015627 0.21052 -0.22751 0.0010774 0.0010809
-0.001287 0.0014945 -0.0012985 -0.00063845
0.0013117 -0.0034178 -0.0012344 0.00015361 0.0010718 0.0011066 0.23511 -0.048304
-0.00058859 0.008276 -0.00023138 -0.0024914
-0.0013486 0.00079632 -0.0010241 0.00093221 -0.0012782 0.001492 -0.00056852 0.0082992
0.22771 0.1005 0.0044042 0.0073174
0.00032953 -0.00053308 -0.0005566 0.00043397 -0.0012973 -0.00061636 -0.00022703 -0.0024972
0.004428 0.0073156 0.27367 0.13417
1820000000 0.25199 -0.10423 0.0046497 0.0024325 -9.3401e-05 0.0025613 -0.00090065 -0.0031661
-0.0010457 0.0010634 -1.5746e-05 -9.7367e-05
0.0046534 0.0024189 0.25595 0.17435 -0.00075038 -0.00026631 -0.0013055 0.00096321
-5.6014e-05 0.0012357 -0.00047016 0.00056266
-0.00010208 0.0025716 -0.00075895 -0.0002856 0.15969 -0.2435 0.0017275 0.00036634
-8.901e-05 0.0024098 -0.0014848 0.00043044
-0.0008828 -0.0031589 -0.0012976 0.00098323 0.001744 0.00038999 0.20566 -0.095369
0.00066764 0.0069041 -0.0015424 -0.00163
-0.0010171 0.0010582 -3.6596e-05 0.0012322 -8.0992e-05 0.0023932 0.00069004 0.006908
0.2447 0.071964 0.0054249 0.0035132
-2.0848e-05 -0.00012273 -0.00045446 0.00057195 -0.0015223 0.00041515 -0.0015366 -0.0016128
0.0054376 0.0035082 0.27603 0.097761
1880000000 0.21744 -0.14466 0.0023415 0.00013334 -0.0004517 0.0021731 -0.0028441 -0.002306
-7.2311e-05 0.0017874 -1.664e-06 -0.00057569
0.002343 0.00014069 0.26116 0.12835 -0.0026036 0.0016614 -0.00023892 0.0017281
0.00055123 0.0012978 7.6701e-05 0.0008331
-0.00043216 0.0021903 -0.0026034 0.0016862 0.10771 -0.25291 0.0016808 -0.0011015
0.001635 0.0018467 -0.00099065 0.0012742
-0.0028704 -0.0022905 -0.00022615 0.0017475 0.0016902 -0.0010787 0.16558 -0.13562
0.0010992 0.0048773 -0.0024094 0.00011211
-5.106e-05 0.0017801 0.00054719 0.0013057 0.0016359 0.0018604 0.0010998 0.0048667
0.24853 0.041106 0.0054727 0.00093201
1.5897e-05 -0.00053605 8.7817e-05 0.00083902 -0.00099449 0.0012798 -0.002412 9.0171e-05
0.0054757 0.00092708 0.27615 0.063835
1940000000 0.1787 -0.17089 -8.3899e-05 -0.0014402 0.0014105 0.0019903 -0.0037996 0.0004172
0.0013783 0.00096962 -0.00049138 -0.00073038
-7.6467e-05 -0.0014316 0.26268 0.096483 -0.0013321 0.0041702 0.0010833 0.0013502
0.0018368 0.00050381 0.00098423 0.00023792
0.0014248 0.0019618 -0.0013224 0.0041751 0.062468 -0.24579 0.00051649 -0.0023025
0.0023541 0.00025908 0.00045283 0.0016335
-0.0038204 0.00040518 0.0010541 0.0013461 0.00047766 -0.0023124 0.11396 -0.16684
0.00050753 0.003808 -0.0016654 0.0014015
0.0013912 0.00093825 0.001853 0.00047944 0.0023562 0.000262 0.00051716 0.003816
0.25198 0.0033529 0.0039041 -0.0026339
-0.00049306 -0.00076082 0.0010114 0.00024335 0.00042481 0.0016373 -0.0016762 0.0013864
0.0038944 -0.0026322 0.26544 0.027383
2000000000 0.13254 -0.18614 -0.0038133 0.00061078 0.0026264 0.001491 -0.0024063 0.0038279
0.0011321 0.00021462 -0.00069136 0.00059974
-0.0038051 0.00061471 0.24911 0.060715 -0.00089003 0.0058228 0.0016382 0.00049517
0.001379 -0.0010783 0.00037273 0.00023329
0.0026651 0.0014697 -0.00084689 0.0058135 0.018879 -0.23251 -0.001324 -0.0012213
0.0020372 -0.0010938 0.0015982 0.0016882
-0.0023885 0.0038454 0.0016364 0.00046596 -0.00128 -0.0012663 0.060297 -0.17719
-0.0010241 0.0037456 -0.000236 0.0025104
0.0011592 0.00022935 0.0013561 -0.0010961 0.0020287 -0.0011099 -0.0010114 0.0037554
0.24718 -0.029472 0.00029382 -0.0032067
