!Keysight Technologies,M9804A,MY58100912,A.14.10.03
!Date: Thursday, April 27, 2023 10:28:33
!Correction: S11(C  6-Port  ) 
!S12(C  6-Port  ) 
!S13(C  6-Port  ) 
!S14(C  6-Port  ) 
!S15(C  6-Port  ) 
!S16(C  6-Port  ) 
!S21(C  6-Port  ) 
!S22(C  6-Port  ) 
!S23(C  6-Port  ) 
!S24(C  6-Port  ) 
!S25(C  6-Port  ) 
!S26(C  6-Port  ) 
!S31(C  6-Port  ) 
!S32(C  6-Port  ) 
!S33(C  6-Port  ) 
!S34(C  6-Port  ) 
!S35(C  6-Port  ) 
!S36(C  6-Port  ) 
!S41(C  6-Port  ) 
!S42(C  6-Port  ) 
!S43(C  6-Port  ) 
!S44(C  6-Port  ) 
!S45(C  6-Port  ) 
!S46(C  6-Port  ) 
!S51(C  6-Port  ) 
!S52(C  6-Port  ) 
!S53(C  6-Port  ) 
!S54(C  6-Port  ) 
!S55(C  6-Port  ) 
!S56(C  6-Port  ) 
!S61(C  6-Port  ) 
!S62(C  6-Port  ) 
!S63(C  6-Port  ) 
!S64(C  6-Port  ) 
!S65(C  6-Port  ) 
!S66(C  6-Port  ) 
!S6P File: Measurement: :
# Hz S  RI   R 50
500000000 -0.33488 -0.058808 -0.010929 -0.0016476 -0.0083785 0.013383 -0.0045466 0.011764
0.01376 0.0045161 -0.0036341 0.0081975
-0.010841 -0.0017341 -0.41548 -0.066573 0.0079334 -0.010716 0.00071229 0.011597
0.0081274 0.0030086 0.0009731 0.012293
-0.0082574 0.013485 0.0080423 -0.010817 -0.26831 0.19719 0.0065843 0.0038074
-0.0015796 0.008441 -0.00018121 0.011799
-0.0042783 0.012107 0.00083674 0.011972 0.0065442 0.0039371 -0.33211 0.040924
-0.018996 -0.0032143 0.015299 0.024008
0.013281 0.0043087 0.0079929 0.0029477 -0.0014683 0.0084353 -0.018559 -0.0034908
-0.24295 -0.2008 -0.026719 0.0064649
-0.0040651 0.0082575 0.00097816 0.012963 -8.2576e-05 0.011941 0.015798 0.023743
-0.027136 0.0071656 -0.27072 -0.13113
560000000 -0.31956 0.10944 -0.023018 -0.06529 0.00052008 0.014239 0.0045655 0.010677
0.01139 0.0053672 0.0094582 0.0077254
-0.022921 -0.065661 -0.37629 0.097845 -0.041775 -0.038685 0.014021 0.0028116
-0.014278 -0.0035733 0.0048436 -0.001615
0.00039968 0.013982 -0.042484 -0.038536 -0.18654 0.25016 -0.00032197 -0.0047815
0.018693 0.007291 0.0076222 -0.0065598
0.0046883 0.01053 0.014138 0.0028769 -9.1904e-05 -0.0044433 -0.30661 0.13336
0.004312 -0.024446 0.0062176 -0.021159
0.011636 0.0054109 -0.014329 -0.0036671 0.019281 0.006698 0.0041895 -0.023957
-0.30911 -0.020331 0.0077808 -0.049948
0.010544 0.008255 0.0050037 -0.0014183 0.0073765 -0.006035 0.0055019 -0.020879
0.0082514 -0.050653 -0.33194 0.019163
620000000 -0.27873 0.089648 -0.023673 0.0089842 0.0039357 0.009605 0.0083633 -0.0045188
0.012337 -0.0013982 0.00022474 -0.002207
-0.023658 0.0087692 -0.40373 0.046213 -0.018503 0.00086257 -0.0018427 -0.0019319
0.012843 -0.0060606 0.00093677 -0.0031493
0.0039482 0.0097482 -0.018462 0.00092393 -0.1561 0.25845 -0.00083122 -0.0049837
-0.0033523 -0.0032061 0.010189 -0.0034169
0.0082139 -0.0043952 -0.0018227 -0.0018849 -0.00088875 -0.0050517 -0.26509 0.14527
-0.040317 -0.020372 0.013549 0.027658
0.011865 -0.0014601 0.012847 -0.0062581 -0.0030851 -0.002901 -0.040149 -0.020541
-0.22738 -0.054365 -0.044528 0.012089
0.00013293 -0.0019268 0.00068863 -0.0031267 0.0098883 -0.0036258 0.014087 0.02897
-0.044707 0.010916 -0.24834 -0.01288
680000000 -0.24121 0.18187 -0.026501 -0.014324 0.0049217 0.0053832 0.0015284 -0.0077159
-0.0017649 -0.011789 0.0057184 -0.0075579
-0.026506 -0.014242 -0.39069 0.14777 -0.032481 -0.0021137 -0.0014688 -0.00085756
-0.0017366 -0.0088994 -0.0008984 -0.002029
0.0050039 0.0053632 -0.032474 -0.0020054 -0.10464 0.27998 -0.00077653 -0.00058858
-0.0016849 0.00055433 -0.0023226 -0.0093679
0.001546 -0.0079407 -0.0014495 -0.00082108 -0.00083714 -0.00058442 -0.22066 0.19654
-0.023249 -0.0084578 -0.0087764 -0.011073
-0.0015443 -0.01182 -0.0017429 -0.0089695 -0.0016528 0.00056648 -0.023447 -0.0084184
-0.28016 0.049161 -0.0057622 -0.0079475
0.0057784 -0.0070623 -0.00089946 -0.0018287 -0.002498 -0.0094408 -0.0089201 -0.011084
-0.0054885 -0.0078378 -0.26172 0.092711
740000000 -0.19454 0.17612 -0.040266 0.027175 0.014273 -0.0048901 -0.00021919 -0.0041935
-0.0044484 -0.0028146 -0.0064271 0.0025964
-0.040031 0.027269 -0.33602 0.16618 -0.037105 0.035044 -0.00052708 -0.0061497
-0.011124 0.0070774 -0.001703 -0.0061634
0.01419 -0.0048315 -0.037085 0.035104 -0.070822 0.27689 -0.0017998 0.0031763
-0.0024351 -0.0054135 -0.0013963 0.00087645
-0.00016816 -0.0042222 -0.00053712 -0.0060699 -0.0017419 0.0031326 -0.20432 0.20311
-0.042322 -0.007463 0.022323 0.015202
-0.0043954 -0.0025289 -0.010982 0.0075108 -0.0025792 -0.0051144 -0.042246 -0.0072644
-0.17953 0.074792 -0.042045 0.0011555
-0.0059333 0.0028041 -0.0021674 -0.0060475 -0.0012744 0.00070866 0.02199 0.015084
-0.04178 0.0013462 -0.25001 0.096926
800000000 -0.16294 0.21944 -0.022258 0.016264 0.0060274 -0.010951 -0.0043168 -0.0023768
-0.0048637 0.00212 0.0044568 0.00066026
-0.022141 0.016279 -0.34226 0.23716 -0.0085647 0.034284 -0.0022079 0.002028
-0.001285 0.0026797 0.00086187 0.0053523
0.0059709 -0.010908 -0.0084853 0.034358 -0.032358 0.30118 0.0008766 0.0014259
-0.00016872 0.0034425 -0.001737 0.0011676
-0.0042961 -0.0023136 -0.0022149 0.0020883 0.00087429 0.0014723 -0.17457 0.2308
-0.029007 0.013537 0.014323 -0.010136
-0.0044967 0.0019966 -0.0013633 0.0026286 2.3242e-05 0.0033935 -0.028779 0.013483
-0.22354 0.10441 -0.017865 0.020243
0.0046894 0.00018194 0.0009711 0.0051924 -0.0016916 0.00088893 0.014176 -0.010557
-0.017837 0.020216 -0.24178 0.14678
860000000 -0.12854 0.23973 -0.017862 0.030367 -0.0027025 -0.010727 -0.0016194 0.00051891
0.0036264 0.0052368 -0.0033582 -0.0031125
-0.017749 0.030302 -0.29404 0.28008 0.0074071 0.034807 6.9168e-05 0.0019166
0.0036715 0.00068594 0.0030836 6.4933e-05
-0.0027233 -0.010722 0.0075118 0.034844 0.015051 0.30984 -0.00055932 -0.00011932
0.0022825 -0.0016084 0.001732 0.0041851
-0.0016213 0.0006044 3.8973e-06 0.0018977 -0.00059229 -7.7608e-05 -0.13772 0.24234
-0.018522 0.01842 -0.005758 -0.0089102
0.0040588 0.0054502 0.0036841 0.00060161 0.0024208 -0.0015845 -0.018576 0.018516
-0.16701 0.15686 -0.024626 0.016771
-0.0034003 -0.0029026 0.003083 0.00032899 0.0017053 0.0042797 -0.0058768 -0.0091144
-0.024617 0.016378 -0.19093 0.1925
920000000 -0.10525 0.26268 0.00462 0.038451 -0.0093932 -0.00541 -0.0019856 0.0016688
0.0010247 0.0022556 0.0029663 -0.001273
0.0045791 0.0384 -0.26712 0.30183 0.028479 0.023195 0.0014339 0.001547
0.0076904 -0.00044128 0.0041321 -0.0027212
-0.0094341 -0.0054145 0.028591 0.02312 0.060425 0.31158 0.001949 0.00011515
0.0011188 -0.00021696 0.0011223 -0.0013435
-0.0019458 0.0016981 0.0014004 0.0015925 0.0019175 0.00015442 -0.11376 0.2591
-0.011075 0.031419 0.0039681 -0.0069132
0.0010075 0.0020577 0.0075997 -0.00038819 0.0011027 -0.00017403 -0.011041 0.031469
-0.15724 0.16232 -0.001617 0.02724
0.002877 -0.0012079 0.0040741 -0.0025303 0.00098499 -0.0012478 0.0039566 -0.0067902
-0.0015417 0.027287 -0.19998 0.20472
980000000 -0.058973 0.28329 0.016737 0.030313 -0.0098248 0.0041711 0.0017769 0.0036645
0.0039833 -0.0014825 -0.0030867 -0.0024752
0.016719 0.030308 -0.2146 0.33682 0.033818 0.0056283 0.0020348 -0.00010134
0.0018483 -0.0062023 -0.00027647 -0.0026054
-0.009812 0.0041873 0.033905 0.0055241 0.10632 0.30646 0.00078549 -0.0011322
0.0004524 -0.0019278 0.001679 -0.00028204
0.0017721 0.0036379 0.0020452 -9.1658e-05 0.00077125 -0.0011464 -0.075277 0.2701
0.0079462 0.03026 -0.0093517 -0.0076801
0.0040302 -0.0014677 0.0019056 -0.006239 0.00051477 -0.0019574 0.0080221 0.030312
-0.12302 0.19259 0.0055111 0.019589
-0.0030037 -0.0023919 -0.00038527 -0.0027291 0.0016347 -0.00037061 -0.0092416 -0.0076256
0.0052551 0.019514 -0.15721 0.25019
1040000000 -0.017796 0.29237 0.033046 0.019339 -0.0018151 0.0072578 0.0026506 0.00073735
0.00037924 -0.0034121 -7.2185e-05 -0.0018023
0.033032 0.019366 -0.17963 0.35053 0.030519 -0.014804 0.0015904 -0.0017866
-0.00229 -0.0027331 -0.0010093 -0.0028593
-0.001772 0.0072621 0.030522 -0.014937 0.15257 0.29374 -0.00043894 -0.0016817
-0.0016141 -0.00098693 -0.00063373 -0.0011049
0.0026797 0.00067695 0.0016401 -0.0017996 -0.00041927 -0.001705 -0.0481 0.27996
0.019899 0.019147 -0.0026058 0.0010546
0.00033845 -0.0033873 -0.0023082 -0.0027349 -0.001591 -0.00092485 0.019972 0.019174
-0.089776 0.20008 0.014338 0.01848
-4.1576e-05 -0.0017568 -0.0010733 -0.0028402 -0.00060584 -0.0010599 -0.0025771 0.0011333
0.014171 0.018589 -0.13411 0.27032
1100000000 0.026847 0.30197 0.036873 -0.0034489 0.0027907 0.0043344 0.0024261 -0.00094527
-0.0021 -0.0029797 -0.0040531 -0.00021283
0.036811 -0.0033934 -0.13661 0.36935 0.016207 -0.028619 3.5685e-05 -0.0018037
-0.0037987 -0.00091821 -0.0036071 -0.00051114
0.0028175 0.0043244 0.016119 -0.028692 0.19914 0.27454 -0.0019633 0.00011542
-0.001896 0.00056501 -0.0012284 -0.00046858
0.002431 -0.00094448 3.1459e-05 -0.0017822 -0.0019685 0.00013582 -0.007718 0.28543
0.025839 0.0054756 -0.0025661 0.00013248
-0.002114 -0.0029558 -0.0037883 -0.00088484 -0.0019303 0.0005456 0.025867 0.0054284
-0.069815 0.21372 0.020418 0.0089699
-0.0039844 -0.0001836 -0.0036225 -0.00052754 -0.0012521 -0.00045429 -0.0024527 0.00012566
0.020391 0.0090225 -0.088808 0.299
1160000000 0.077762 0.2985 0.024967 -0.020891 0.0028309 -0.00029141 -0.00019793 -0.0023674
-0.0040944 -0.00086554 -0.0010443 0.0041446
0.024956 -0.020872 -0.09306 0.3747 -0.0034741 -0.030196 -0.0017138 -0.0016592
-0.0028242 0.0027575 -0.0014616 0.0019828
0.0028427 -0.00031344 -0.0036018 -0.030204 0.24294 0.24411 -0.00082167 0.0018813
-0.00066341 0.0020951 -0.00088524 0.00044748
-0.00021319 -0.0024035 -0.00171 -0.0016628 -0.00081915 0.0018888 0.03196 0.28291
0.021969 -0.01099 -0.0032904 0.0051789
-0.004159 -0.00089999 -0.0028553 0.0027268 -0.00067362 0.0020996 0.021937 -0.011021
-0.036033 0.22175 0.019474 -0.00066772
-0.00096905 0.0042542 -0.001498 0.0019815 -0.00095334 0.00040592 -0.0032567 0.0051563
0.019481 -0.00063816 -0.04195 0.30203
1220000000 0.12174 0.28921 0.0112 -0.030814 -0.001654 -0.00095807 8.1442e-05 -0.00082146
-0.0027849 0.0022294 0.0011549 0.0020925
0.011205 -0.030759 -0.048598 0.38818 -0.017504 -0.022356 -0.0026784 0.0005463
2.2029e-05 0.0033117 -0.00080242 0.0021047
-0.0016614 -0.00093994 -0.017611 -0.022303 0.28202 0.20507 0.00083588 0.0018301
0.00066206 0.0012976 0.00032382 0.00066083
0.00011517 -0.00080002 -0.0026738 0.00056056 0.00083557 0.001835 0.072161 0.27429
0.011078 -0.018127 0.0020885 0.0014374
-0.0028214 0.0022424 5.4211e-05 0.0033015 0.00063673 0.0013057 0.01104 -0.018195
-0.012319 0.23076 0.014247 -0.013745
0.0011091 0.0021222 -0.00075647 0.0021341 0.00035388 0.00066365 0.0019668 0.00135
0.014203 -0.013718 -0.01044 0.31797
1280000000 0.17246 0.26937 -0.0080588 -0.029482 -0.0020641 0.0025694 -0.00086036 -0.0020897
-0.00087817 0.0032962 0.0027499 0.0012787
-0.0080287 -0.029453 -0.0018075 0.3801 -0.024888 -0.0089432 -0.0010043 0.0015335
0.0018879 0.0017586 0.00074375 0.0021684
-0.002052 0.0025587 -0.024976 -0.0088502 0.31236 0.16157 0.0016616 -3.5033e-05
0.0013092 0.00027713 0.00046217 0.00021903
-0.00083505 -0.0020738 -0.0010007 0.0015384 0.0016691 -2.0506e-05 0.10933 0.25807
0.00056663 -0.020436 -0.00015847 0.0003986
-0.00087586 0.0032679 0.0018868 0.0017422 0.0013453 0.00025295 0.00057226 -0.020427
0.024438 0.23457 0.0031091 -0.015867
0.0026821 0.0013558 0.00070586 0.0021619 0.00036453 0.0001525 -0.00014639 0.00029981
0.0029823 -0.015774 0.036937 0.32039
1340000000 0.21032 0.23664 -0.018223 -0.019427 0.00081772 0.0048896 -0.0018231 -0.00091189
0.0014745 0.0028447 0.0018919 -0.0013998
-0.018186 -0.019423 0.038129 0.37211 -0.022481 0.0044806 -5.1457e-05 0.002071
0.002112 0.00068544 0.0012329 0.00080997
0.00084261 0.0048888 -0.022499 0.0045878 0.33415 0.11428 0.001129 -0.0010086
0.00066801 -0.00066417 5.1773e-05 0.00030176
-0.0018052 -0.00090835 -5.4016e-05 0.00207 0.0011077 -0.00099859 0.14245 0.23686
-0.0095207 -0.017406 0.0007398 0.00072231
0.0015006 0.0028535 0.0021039 0.00069986 0.0006904 -0.00066346 -0.0095268 -0.01738
0.054891 0.23009 -0.0045031 -0.014542
0.001853 -0.0014129 0.001263 0.0007808 6.0684e-06 0.00028295 0.00073309 0.00062587
-0.0043743 -0.014492 0.075091 0.31544
1400000000 0.24462 0.19971 -0.024255 -0.0073738 0.0054857 0.003642 -0.0022669 0.00068305
0.0025968 0.0011061 0.00029365 -0.001665
-0.02422 -0.0073908 0.075831 0.35942 -0.01547 0.0132 0.0014009 0.0012634
0.0012733 -0.00094804 0.0011833 0.00010564
0.0055058 0.0036044 -0.015439 0.013296 0.34695 0.061928 1.5194e-05 -0.0018055
0.00017182 -0.00036866 0.00049753 0.00020695
-0.002302 0.00067504 0.0014202 0.0012551 3.4983e-05 -0.0017973 0.17181 0.20792
-0.015862 -0.0098133 -0.00088126 5.4281e-05
0.0026316 0.0010848 0.0012591 -0.00096163 0.0001653 -0.0004072 -0.015878 -0.0097636
0.088526 0.22583 -0.010968 -0.0091642
0.00027628 -0.0017068 0.0012109 6.876e-05 0.00048124 0.00023086 -0.00089067 3.8124e-05
-0.010989 -0.0091709 0.11918 0.30441
1460000000 0.26828 0.15588 -0.020856 0.0053342 0.0061544 -0.0016969 -0.001587 0.0018263
0.00242 -0.00048585 -0.00034877 -0.0011118
-0.020841 0.0053196 0.11027 0.33741 -0.0059635 0.016306 0.0016783 0.0001515
0.00079514 -0.0013824 0.0012524 -0.00063374
0.0061347 -0.0017242 -0.00588 0.016374 0.35381 0.0086298 -0.0013648 -0.0013242
7.2356e-05 -0.00030765 0.00076884 -0.00030319
-0.0015746 0.0018292 0.0016849 0.00014049 -0.0013687 -0.0013464 0.19836 0.17857
-0.016789 -0.0023782 -0.00076758 0.0022625
0.0023984 -0.00049715 0.00076188 -0.0014081 6.0555e-05 -0.00032553 -0.016827 -0.0023478
0.11837 0.2119 -0.012865 -0.0027593
-0.00032986 -0.001103 0.0012597 -0.00062272 0.00073434 -0.00020911 -0.00072448 0.0022293
-0.012841 -0.0028155 0.15257 0.28404
1520000000 0.28118 0.11435 -0.014759 0.01095 0.0037225 -0.0045492 0.00015799 0.0026558
0.0022023 -0.0020123 -0.0012067 -0.00015672
-0.014762 0.010931 0.14362 0.32303 0.0021024 0.013689 0.0016169 -0.00079352
-5.8162e-05 -0.0010597 0.00028033 -0.0011067
0.0037189 -0.0045682 0.0021782 0.013698 0.34759 -0.046641 -0.0011339 -0.00026265
0.00063626 -0.00086952 0.00013976 -0.000186
0.0001778 0.0026549 0.0016258 -0.00080674 -0.0011427 -0.00027454 0.2213 0.14007
-0.015372 0.0039765 0.001731 0.0021863
0.0021922 -0.0020478 -5.5328e-05 -0.0010572 0.00063153 -0.00087716 -0.015348 0.0040176
0.14672 0.19841 -0.012511 0.0022725
-0.0012209 -6.1846e-05 0.00026081 -0.0010814 9.4187e-05 -0.00014417 0.0016993 0.0021898
-0.012495 0.0022904 0.1854 0.26365
1580000000 0.29127 0.06852 -0.0076797 0.014082 -0.0010137 -0.0054246 0.0015526 0.001915
-0.000271 -0.0023691 -0.00023037 0.0003308
-0.0076776 0.014068 0.17075 0.29865 0.0058968 0.0083393 0.00049906 -0.0015824
-0.0005772 -0.00095788 -0.00022694 -0.0008497
-0.0010334 -0.0054263 0.0059416 0.0083212 0.32889 -0.10382 -0.0015514 0.00067465
-0.00037353 -0.001203 0.00025715 -0.00059416
0.0015544 0.0019074 0.00049016 -0.0015857 -0.0015526 0.00067373 0.23484 0.10092
-0.011102 0.0088712 0.0024427 0.00070592
-0.00026918 -0.0023579 -0.00059652 -0.0009618 -0.00038945 -0.0012188 -0.011079 0.0089164
0.1714 0.18049 -0.0095784 0.0082177
-0.00020961 0.00035563 -0.00021026 -0.0008476 0.00028343 -0.00057726 0.0024251 0.00067277
-0.0096443 0.0082345 0.21734 0.23767
1640000000 0.29379 0.027323 -0.00062757 0.012418 -0.0031858 -0.0028691 0.0027396 0.00097811
-0.00094216 -0.0015836 -0.00028441 0.00053677
-0.00063331 0.012409 0.20025 0.27431 0.006455 0.0031393 -0.00063147 -0.0017915
-0.00094327 -0.00033539 -0.00055748 -0.00070558
-0.0031824 -0.0028636 0.0064666 0.0031081 0.30115 -0.15329 -0.00057524 0.0015194
-0.0011011 -0.00096038 -0.00030813 -0.00040525
0.0027238 0.00096721 -0.00063843 -0.0017756 -0.0005756 0.0015388 0.24704 0.052205
-0.0062065 0.0096457 0.0025683 -0.00087241
-0.00098132 -0.0016562 -0.00095139 -0.0003389 -0.0011239 -0.00094616 -0.0062245 0.0096987
0.19492 0.15658 -0.0043386 0.010202
-0.00024407 0.00059362 -0.00057198 -0.00069316 -0.00029285 -0.00040246 0.0025495 -0.00088719
-0.0044073 0.010142 0.24317 0.20659
1700000000 0.28704 -0.017726 0.0027088 0.0091539 -0.0039211 -5.6185e-06 0.0032106 -0.0013305
-0.0020471 -0.00059545 0.00059038 0.00038808
0.002698 0.0091508 0.21843 0.24353 0.0041618 0.00010645 -0.0014819 -0.00057771
-0.00069972 -5.5925e-05 -0.00093934 -0.00046017
-0.0039223 4.0092e-06 0.0041813 6.0793e-05 0.25854 -0.19317 0.00047828 0.0016474
-0.0019664 -4.3018e-05 -0.00056083 -0.00094211
0.0032248 -0.0013347 -0.001469 -0.000564 0.00050385 0.0016544 0.24367 0.0027725
-0.0032283 0.0094263 0.0016886 -0.0023026
-0.0020768 -0.00059239 -0.00070743 -4.2561e-05 -0.0019618 2.4003e-05 -0.0032166 0.0094358
0.21231 0.13629 0.00055716 0.010311
0.00061825 0.00037632 -0.00092695 -0.00044108 -0.0005289 -0.00092955 0.0017233 -0.0023532
0.00067199 0.010284 0.25977 0.17291
1760000000 0.27571 -0.065974 0.0046911 0.0055323 -0.0025116 0.0011458 0.0012965 -0.0034725
-0.0013308 0.00080508 0.00026229 -0.0004263
0.0046956 0.0055456 0.24488 0.20452 0.0015397 -0.0018605 -0.0012189 0.00016624
-0.0010523 0.00085111 -0.00059679 0.0004087
-0.0024728 0.001118 0.0015326 -0.001868 0.2111 -0.22723 0.001062 0.0010087
-0.001233 0.0015547 -0.0012632 -0.00067803
0.0012995 -0.0035035 -0.0012108 0.00017252 0.0010793 0.0010158 0.23518 -0.048083
-0.00029503 0.0081211 -0.00016181 -0.0027087
-0.0013168 0.00080496 -0.0010228 0.00086152 -0.0012397 0.0015876 -0.00029444 0.0081365
0.22743 0.10183 0.0047308 0.0072861
0.00025581 -0.00051631 -0.00060884 0.00037382 -0.0012827 -0.00064851 -0.00013682 -0.0026047
0.0046472 0.0073458 0.27289 0.13551
1820000000 0.2521 -0.10309 0.0044192 0.0020763 -0.00023582 0.0027219 -0.0010726 -0.0031669
-0.0010275 0.0010514 -8.0887e-05 -0.00011991
0.0044111 0.0020874 0.2556 0.17497 -0.00090689 -0.00043637 -0.0012948 0.00090566
-0.0001249 0.001174 -0.00063276 0.00053546
-0.00023166 0.0027386 -0.00090982 -0.00043322 0.15979 -0.2436 0.001605 0.00041423
-0.00019547 0.0023615 -0.0015419 0.00041258
-0.00107 -0.0031881 -0.0012967 0.00090781 0.0015862 0.00042795 0.20571 -0.095362
0.00081595 0.0064738 -0.0015803 -0.0017673
-0.0010428 0.001043 -0.00012594 0.001176 -0.00022266 0.0023803 0.0007738 0.0064499
0.24458 0.07311 0.0056315 0.0034965
-0.00010225 -4.9574e-05 -0.00063467 0.00057116 -0.0015118 0.00041014 -0.0016293 -0.0017554
0.0056566 0.0034416 0.27556 0.098917
1880000000 0.21765 -0.14363 0.0018903 -5.1794e-05 -0.00062804 0.0024358 -0.0029866 -0.0021947
-0.00012627 0.0018042 0.00012971 -0.00053196
0.0018799 -4.7913e-05 0.26084 0.12891 -0.0028492 0.0017192 -0.00022131 0.0016924
0.00043043 0.0013653 7.7521e-05 0.00096025
-0.00063524 0.0023988 -0.0028319 0.0017329 0.10791 -0.25237 0.0017084 -0.0010058
0.0015465 0.0019454 -0.00093343 0.001571
-0.0029627 -0.0022034 -0.0001981 0.0017111 0.0017205 -0.00101 0.16554 -0.13557
0.00114 0.0044906 -0.0024944 -0.00011012
-0.00010665 0.0018255 0.00046326 0.0013626 0.0015654 0.0019222 0.0010984 0.0044734
0.24849 0.041877 0.0057694 0.00069283
0.00012437 -0.00056485 9.1692e-05 0.00095264 -0.00094994 0.0015286 -0.002555 -6.4877e-05
0.0057778 0.00080467 0.27583 0.065056
1940000000 0.17897 -0.16995 -0.00051149 -0.0015054 0.0015374 0.0021231 -0.0039119 0.00050337
0.0012374 0.00097141 -0.00068585 -0.00061331
-0.00047594 -0.0015008 0.26242 0.097057 -0.0014311 0.0041843 0.00093112 0.0013425
0.0017769 0.00059827 0.00088819 0.00035841
0.0015637 0.0021134 -0.00138 0.0042218 0.063038 -0.24581 0.00046879 -0.0022564
0.0023579 0.00037288 0.00033608 0.0017636
-0.0038961 0.00049458 0.00094525 0.0013518 0.00044114 -0.0022113 0.11365 -0.16681
0.00018879 0.0034429 -0.001865 0.0013617
0.0012117 0.00092598 0.0017732 0.00060353 0.0023697 0.00035807 0.00020276 0.0033953
0.25175 0.0040135 0.0041397 -0.0028334
-0.00070477 -0.00052377 0.00087382 0.00035642 0.00023745 0.0017988 -0.0018535 0.0013333
0.0040921 -0.0028617 0.26536 0.028401
2000000000 0.13316 -0.18515 -0.004134 0.00092681 0.0025746 0.0017518 -0.0021783 0.0037789
0.0012653 0.00031995 -0.00038666 0.00053032
-0.0041695 0.00093562 0.24885 0.061368 -0.0010829 0.0060241 0.0017713 0.00056929
0.0015063 -0.0009741 0.00056928 0.00016228
0.0025858 0.001739 -0.0010459 0.0060414 0.019223 -0.2323 -0.0011437 -0.0013616
0.0021496 -0.0010911 0.0017617 0.0016304
-0.0021621 0.0037922 0.0017464 0.00057183 -0.0011635 -0.001354 0.06022 -0.17716
-0.0013084 0.0035275 -0.00033911 0.0024358
0.0012462 0.00033055 0.0014498 -0.0010211 0.0021239 -0.0011066 -0.0012614 0.0035454
0.24695 -0.028751 0.00046223 -0.0035519
