!Keysight Technologies,M9804A,MY58100912,A.14.10.03
!Date: Thursday, April 27, 2023 10:28:33
!Correction: S11(C  6-Port  ) 
!S12(C  6-Port  ) 
!S13(C  6-Port  ) 
!S14(C  6-Port  ) 
!S15(C  6-Port  ) 
!S16(C  6-Port  ) 
!S21(C  6-Port  ) 
!S22(C  6-Port  ) 
!S23(C  6-Port  ) 
!S24(C  6-Port  ) 
!S25(C  6-Port  ) 
!S26(C  6-Port  ) 
!S31(C  6-Port  ) 
!S32(C  6-Port  ) 
!S33(C  6-Port  ) 
!S34(C  6-Port  ) 
!S35(C  6-Port  ) 
!S36(C  6-Port  ) 
!S41(C  6-Port  ) 
!S42(C  6-Port  ) 
!S43(C  6-Port  ) 
!S44(C  6-Port  ) 
!S45(C  6-Port  ) 
!S46(C  6-Port  ) 
!S51(C  6-Port  ) 
!S52(C  6-Port  ) 
!S53(C  6-Port  ) 
!S54(C  6-Port  ) 
!S55(C  6-Port  ) 
!S56(C  6-Port  ) 
!S61(C  6-Port  ) 
!S62(C  6-Port  ) 
!S63(C  6-Port  ) 
!S64(C  6-Port  ) 
!S65(C  6-Port  ) 
!S66(C  6-Port  ) 
!S6P File: Measurement: :
# Hz S  RI   R 50
500000000 -0.33408 -0.056424 -0.010574 -0.0013045 -0.0083465 0.013543 -0.0045654 0.011308
0.013053 0.0054923 -0.0045672 0.0072647
-0.010538 -0.0013499 -0.41651 -0.065826 0.0079625 -0.010418 0.0015756 0.011918
0.0074545 0.0030943 0.00094351 0.013832
-0.0082357 0.013543 0.0076018 -0.010491 -0.26794 0.19799 0.006495 0.0039382
-0.0017012 0.0081517 -0.00013215 0.012564
-0.0047377 0.011669 0.0012638 0.012136 0.0065813 0.0037832 -0.33215 0.042308
-0.018911 -0.0054941 0.016239 0.026452
0.013394 0.005222 0.0075248 0.0029585 -0.0017699 0.0083825 -0.018747 -0.005503
-0.2459 -0.19888 -0.026618 0.0041142
-0.0049044 0.0070186 0.00091968 0.013667 0.00039116 0.012196 0.016205 0.025405
-0.026654 0.0041449 -0.27027 -0.12559
560000000 -0.31942 0.11047 -0.022843 -0.06573 0.00047716 0.013395 0.0054704 0.011095
0.010422 0.0041269 0.010659 0.0086139
-0.022703 -0.065398 -0.37594 0.098066 -0.041723 -0.038165 0.013897 0.0032976
-0.013285 -0.0038376 0.0044195 -0.0010731
0.00051613 0.01343 -0.042039 -0.037821 -0.18649 0.24997 -0.00050656 -0.0042126
0.018401 0.0056054 0.0079079 -0.0047685
0.0050843 0.011348 0.013963 0.003548 -0.00052752 -0.004179 -0.30603 0.1341
0.0047363 -0.023835 0.0053097 -0.021612
0.010858 0.0046006 -0.012746 -0.0040229 0.017906 0.0059953 0.005571 -0.023625
-0.31093 -0.019181 0.0066347 -0.049145
0.010176 0.0083436 0.0042202 -0.00094215 0.0079046 -0.0052067 0.0048389 -0.021587
0.006725 -0.049175 -0.33163 0.020087
620000000 -0.27853 0.091905 -0.023526 0.0088959 0.0039011 0.0094638 0.0090785 -0.0042925
0.011711 -0.0015918 9.0496e-05 -0.0011606
-0.023197 0.0089802 -0.40363 0.047035 -0.018204 0.00084441 -0.0014446 -0.0019478
0.012195 -0.0060987 0.00056674 -0.0031693
0.0038385 0.0096391 -0.018312 0.00085006 -0.15584 0.2593 -0.00048507 -0.0054324
-0.0031639 -0.0024339 0.0089618 -0.003052
0.00865 -0.0045165 -0.0013147 -0.0020468 -0.0006373 -0.0054216 -0.2657 0.14365
-0.039354 -0.018268 0.014443 0.026182
0.011532 -0.0010971 0.012098 -0.0059866 -0.0032203 -0.0023155 -0.038363 -0.017816
-0.22927 -0.054223 -0.042579 0.012809
0.0014431 -0.0017947 0.0011196 -0.0031508 0.0096197 -0.0033623 0.014021 0.025341
-0.042769 0.013014 -0.24914 -0.012446
680000000 -0.24076 0.18306 -0.026196 -0.014367 0.0049028 0.0052808 0.0015631 -0.0076003
-0.0017902 -0.011022 0.0060351 -0.0079118
-0.0263 -0.01421 -0.39047 0.14897 -0.032034 -0.0020462 -0.0017978 -0.0002279
-0.0014469 -0.0093379 -0.00051208 -0.0018601
0.0046769 0.0051501 -0.032123 -0.0020338 -0.10409 0.28024 -0.0010302 -0.00038748
-0.0015234 -2.3131e-05 -0.0027829 -0.0090952
0.0018833 -0.0074662 -0.0017354 -0.00032932 -0.0010268 -0.00030265 -0.21982 0.19666
-0.023761 -0.0082816 -0.0092798 -0.01145
-0.0018294 -0.011234 -0.0014928 -0.0090868 -0.0014217 5.0726e-05 -0.023715 -0.0079462
-0.2802 0.050556 -0.0067445 -0.0069785
0.0062583 -0.0067521 -0.000554 -0.0021546 -0.0025344 -0.0089973 -0.0086238 -0.01104
-0.006664 -0.0071636 -0.26022 0.091284
740000000 -0.19347 0.17601 -0.039596 0.02701 0.014079 -0.0048266 -7.1037e-05 -0.0040426
-0.0042353 -0.0036005 -0.0066878 0.0030262
-0.039482 0.027088 -0.33532 0.16739 -0.036929 0.034378 -0.00023199 -0.0060631
-0.012246 0.0080204 -0.0013109 -0.0064415
0.014002 -0.0048058 -0.036904 0.034522 -0.069813 0.27699 -0.0019854 0.0033044
-0.0030671 -0.0059905 -0.0012874 0.0010441
0.00020154 -0.0042847 -0.00018949 -0.006276 -0.0019478 0.0034099 -0.20333 0.20395
-0.042426 -0.007226 0.022908 0.015492
-0.0040991 -0.0032629 -0.011986 0.0081182 -0.0033678 -0.0059902 -0.042493 -0.0068074
-0.18097 0.075495 -0.042361 0.0029736
-0.0063748 0.0029448 -0.0017951 -0.0066179 -0.0011894 0.00082809 0.022529 0.015177
-0.04218 0.0031413 -0.24811 0.097935
800000000 -0.16255 0.21962 -0.022066 0.016205 0.0059388 -0.0107 -0.0041123 -0.0022309
-0.0048839 0.0018431 0.0048835 0.0002179
-0.022107 0.016264 -0.34155 0.23803 -0.0084905 0.033871 -0.0020897 0.0022112
-0.0015275 0.0022562 0.0011955 0.005616
0.0058205 -0.010689 -0.0084606 0.033892 -0.031505 0.30118 0.0010341 0.0014936
-0.00017169 0.003389 -0.0015037 0.00079534
-0.0040901 -0.0021839 -0.0021104 0.0021963 0.00099195 0.0015418 -0.17378 0.2317
-0.028131 0.013091 0.0145 -0.010176
-0.0048383 0.0018492 -0.0014618 0.0023237 -0.00014235 0.0033929 -0.028111 0.012891
-0.22343 0.10588 -0.017142 0.019407
0.0047002 0.00067225 0.0011082 0.0055818 -0.0015303 0.00086667 0.01444 -0.0099716
-0.017123 0.019565 -0.24062 0.14767
860000000 -0.128 0.24015 -0.017885 0.030394 -0.0028798 -0.010351 -0.0018349 0.00064418
0.0035501 0.0053851 -0.0039835 -0.0026778
-0.017907 0.030408 -0.29357 0.28093 0.0070808 0.034378 0.00013602 0.0022557
0.0033095 0.0011478 0.0025853 0.00047324
-0.0029063 -0.010345 0.0071578 0.034419 0.015764 0.30957 -0.00052768 -5.2643e-05
0.0020873 -0.0012551 0.0013324 0.0042408
-0.0019172 0.00074442 3.904e-05 0.0024036 -0.00058996 -5.8344e-05 -0.137 0.2425
-0.017797 0.018201 -0.0061853 -0.0084881
0.0036715 0.005468 0.0033541 0.0011331 0.002102 -0.0013245 -0.017754 0.018091
-0.16676 0.15866 -0.025768 0.017002
-0.0040206 -0.0030191 0.0025659 0.00047848 0.001512 0.0043153 -0.0062299 -0.008966
-0.025895 0.016975 -0.19204 0.19306
920000000 -0.1047 0.26287 0.0046015 0.038203 -0.0092345 -0.0051658 -0.0019994 0.0015438
0.0010072 0.0022124 0.0031241 -0.0014197
0.0046404 0.038243 -0.26603 0.30211 0.028087 0.022934 0.0013179 0.0013733
0.0082152 0.00026117 0.004411 -0.0026411
-0.0092682 -0.0051386 0.028198 0.022861 0.060973 0.31105 0.0019663 8.2355e-05
0.0013348 -7.0585e-06 0.0011757 -0.0012764
-0.0020518 0.0016515 0.0013895 0.0013568 0.0019406 0.00011585 -0.11312 0.25872
-0.011266 0.030504 0.0038326 -0.0068391
0.0011268 0.0022893 0.0081174 0.00027432 0.0012981 -7.1641e-05 -0.01116 0.030581
-0.15418 0.16407 -0.00072508 0.026246
0.0031427 -0.0013906 0.0044379 -0.0028123 0.0012583 -0.0012298 0.0039229 -0.0065635
-0.00068212 0.026142 -0.19798 0.20561
980000000 -0.058231 0.28343 0.016725 0.029863 -0.0095576 0.0040307 0.0018511 0.0036109
0.0040697 -0.0018831 -0.0030712 -0.002422
0.016663 0.029879 -0.21334 0.33679 0.03331 0.0055294 0.0021038 -2.0259e-05
0.0017736 -0.006411 -0.00035047 -0.0024032
-0.0095143 0.0040859 0.033356 0.0054672 0.10662 0.30564 0.00075745 -0.0012146
0.00055166 -0.0021699 0.0014119 -0.00013319
0.0018721 0.0036655 0.0020973 -5.1212e-05 0.00073683 -0.0011611 -0.07455 0.26958
0.0074459 0.029437 -0.009031 -0.0071074
0.0040672 -0.0019982 0.0018065 -0.0064151 0.00052448 -0.00216 0.0075489 0.029445
-0.12242 0.19414 0.0059687 0.019254
-0.0030937 -0.0023687 -0.00037702 -0.002478 0.00142 -0.00010128 -0.0091912 -0.0072133
0.0059839 0.019356 -0.15643 0.25065
1040000000 -0.017232 0.29251 0.032654 0.01911 -0.0017997 0.0069662 0.0026478 0.0006817
0.00020593 -0.0034036 -0.00025432 -0.001891
0.032684 0.019079 -0.17852 0.35025 0.030101 -0.014449 0.0016679 -0.0017653
-0.0020147 -0.0028927 -0.00097643 -0.003223
-0.0017409 0.0069618 0.030074 -0.014557 0.15244 0.29286 -0.00040472 -0.0016594
-0.0016286 -0.0010658 -0.00065189 -0.0011051
0.0026243 0.00073053 0.0016083 -0.0017496 -0.00040982 -0.0016635 -0.047706 0.2791
0.019201 0.018934 -0.0024979 0.00058405
0.0001316 -0.0035633 -0.0020597 -0.0028481 -0.001639 -0.0010206 0.019234 0.018866
-0.088656 0.20113 0.01452 0.018195
-0.00035213 -0.0017218 -0.0010497 -0.0032735 -0.00062678 -0.0011173 -0.002462 0.0008234
0.014537 0.018192 -0.13379 0.26924
1100000000 0.027598 0.30205 0.036298 -0.0031689 0.0027231 0.0042449 0.0024657 -0.00096596
-0.0023165 -0.0031084 -0.0042161 0.00012184
0.036304 -0.0031973 -0.13565 0.36893 0.016154 -0.027908 4.4219e-05 -0.0018288
-0.0037866 -0.0010316 -0.003738 -0.00045042
0.0027466 0.0042297 0.016052 -0.027993 0.19847 0.27385 -0.0019548 6.2767e-05
-0.0018917 0.00046175 -0.0012195 -0.00047785
0.0024142 -0.00095398 3.2173e-05 -0.0018036 -0.0019589 4.3549e-05 -0.00782 0.28435
0.024617 0.0056149 -0.0025464 -5.2977e-06
-0.0023423 -0.0031363 -0.003779 -0.00098816 -0.0019097 0.00048937 0.024726 0.0055947
-0.068903 0.21363 0.019108 0.008721
-0.0041035 7.6973e-05 -0.0038162 -0.00044492 -0.0012437 -0.00044577 -0.0026004 8.6289e-06
0.019099 0.008678 -0.087638 0.3
1160000000 0.078653 0.29833 0.024685 -0.020376 0.0026827 -0.00032897 -1.7531e-05 -0.0024154
-0.0040401 -0.00087636 -0.0010012 0.0041592
0.024661 -0.02031 -0.092564 0.37372 -0.003092 -0.029681 -0.0016232 -0.0017397
-0.0029457 0.0024303 -0.0015715 0.0019995
0.0027317 -0.00034349 -0.0032294 -0.029691 0.24193 0.24395 -0.00086934 0.0017817
-0.00073527 0.0020048 -0.0010441 0.00032553
-4.1928e-05 -0.0024269 -0.0016371 -0.0017638 -0.00087226 0.0017735 0.031182 0.28218
0.021227 -0.010061 -0.0032741 0.0051821
-0.0039968 -0.00082492 -0.0028652 0.0024571 -0.00075518 0.0020286 0.02123 -0.010054
-0.033801 0.2211 0.018348 -0.00021665
-0.00085935 0.0041435 -0.0015582 0.0018631 -0.0010155 0.00034715 -0.0032915 0.0051942
0.01841 -0.00026401 -0.040567 0.30297
1220000000 0.1225 0.28882 0.011181 -0.030117 -0.0016458 -0.00080221 0.00013037 -0.0009869
-0.0027473 0.0021001 0.0009543 0.0021116
0.011198 -0.030061 -0.048639 0.38714 -0.016918 -0.022164 -0.0027172 0.00047669
-9.778e-05 0.0032672 -0.00093051 0.0019803
-0.0016597 -0.00078663 -0.017034 -0.022112 0.28112 0.20564 0.00066876 0.0019138
0.00060099 0.0013136 0.00026871 0.00064719
0.0001471 -0.00094265 -0.0026769 0.0004932 0.0007051 0.0019098 0.07131 0.27397
0.011039 -0.017091 0.002087 0.0014423
-0.0027754 0.0021424 -0.00011432 0.0032986 0.0005522 0.0013488 0.01102 -0.017094
-0.010491 0.23002 0.013957 -0.013309
0.0010393 0.0021922 -0.00087386 0.0020176 0.00033151 0.00069892 0.0021329 0.0014256
0.013974 -0.013334 -0.0096808 0.31757
1280000000 0.17295 0.2688 -0.0075402 -0.028869 -0.0019908 0.0026485 -0.00078962 -0.0022198
-0.00085306 0.003279 0.0026802 0.0013395
-0.0075527 -0.028839 -0.0025422 0.37939 -0.024339 -0.0091365 -0.0010638 0.0014858
0.0017905 0.0019604 0.00062278 0.0020605
-0.0020113 0.0026177 -0.024408 -0.0090408 0.31201 0.1625 0.0016786 0.00011767
0.0012823 0.00037969 0.00041081 0.00024475
-0.00077175 -0.0021983 -0.0010642 0.0015037 0.001676 0.00012757 0.10831 0.25841
0.0013565 -0.0195 -8.9039e-05 0.00033015
-0.00085883 0.0032268 0.0017997 0.0019317 0.0012552 0.00034678 0.0013042 -0.019539
0.02558 0.23345 0.0031585 -0.01549
0.0026755 0.0013914 0.00063752 0.0020185 0.00037946 0.00029479 -0.0001075 0.00030916
0.0031642 -0.015459 0.037506 0.31979
1340000000 0.21043 0.23615 -0.017488 -0.019286 0.00081141 0.0048984 -0.0018445 -0.00089322
0.0014486 0.0027612 0.0019643 -0.0014157
-0.017459 -0.019345 0.037175 0.37218 -0.022274 0.0040403 -0.00012627 0.0021146
0.0021241 0.00085319 0.0012362 0.0007454
0.0008411 0.0048642 -0.022287 0.0041335 0.3345 0.11546 0.0011803 -0.00091843
0.00059605 -0.00060001 4.7501e-05 0.00016397
-0.0018554 -0.00090263 -0.00011456 0.002119 0.0011755 -0.00089489 0.14182 0.2379
-0.0082077 -0.016864 0.00066446 0.00062559
0.0014113 0.0027934 0.0021046 0.00084658 0.00061027 -0.00061054 -0.0082468 -0.016875
0.055334 0.22901 -0.0039651 -0.014174
0.0019539 -0.0013909 0.0012418 0.00081405 2.4617e-05 0.00013399 0.00070872 0.00064163
-0.0039561 -0.014168 0.075441 0.31478
1400000000 0.2447 0.19939 -0.023509 -0.0077049 0.0055384 0.0035405 -0.002313 0.00063756
0.0024636 0.0010113 0.00034123 -0.0016364
-0.023489 -0.0077141 0.074995 0.36016 -0.015567 0.012693 0.0014209 0.0013334
0.001368 -0.00083715 0.0012678 0.00015219
0.0055831 0.0035067 -0.015519 0.012792 0.3478 0.062533 0.00014988 -0.0017017
0.00010365 -0.00041972 0.00029612 0.00026705
-0.0022945 0.00064584 0.0014377 0.0013194 0.00012782 -0.0016921 0.17165 0.20902
-0.014536 -0.010104 -0.00083098 -6.3885e-05
0.0024756 0.00098019 0.0013648 -0.00086794 0.00016005 -0.00044102 -0.014553 -0.010092
0.088219 0.22483 -0.010377 -0.0089655
0.00033137 -0.0016858 0.0012188 0.00011682 0.00026841 0.00020693 -0.00087023 -9.4037e-05
-0.010419 -0.008946 0.11952 0.30424
1460000000 0.26847 0.15591 -0.020517 0.0046811 0.0060343 -0.0017502 -0.0015874 0.0018341
0.0021487 -0.00040645 -0.00033299 -0.0010909
-0.020493 0.0046542 0.11007 0.3387 -0.0063364 0.016035 0.0017839 0.0001605
0.00089602 -0.0014799 0.0012906 -0.00060067
0.0060494 -0.0017642 -0.0062668 0.0161 0.35492 0.0088086 -0.0012094 -0.0014118
0.00020624 -0.00020969 0.00074738 -0.00015851
-0.0015792 0.0018201 0.0017797 0.00011791 -0.0012016 -0.0014362 0.19874 0.17963
-0.015933 -0.0034134 -0.00088377 0.0020832
0.0021792 -0.00042979 0.00091533 -0.0014854 0.00017283 -0.00020802 -0.015926 -0.0033921
0.11801 0.21105 -0.012367 -0.0030538
-0.0003083 -0.0011553 0.0013225 -0.00063257 0.00080892 -0.00021274 -0.00087101 0.002097
-0.012264 -0.003137 0.15295 0.28362
1520000000 0.28169 0.11443 -0.014865 0.010217 0.0036079 -0.0045293 0.0001106 0.002617
0.0021073 -0.0019664 -0.0012883 -0.00014162
-0.014861 0.010199 0.14405 0.3244 0.0017058 0.013684 0.0016417 -0.00085116
-1.1774e-05 -0.0011937 0.00033919 -0.0010945
0.0035823 -0.0045485 0.0017637 0.013691 0.3488 -0.047084 -0.0011201 -0.00043964
0.00076081 -0.00091493 0.00012559 -0.00023117
0.00011704 0.0026253 0.0016413 -0.00085886 -0.0011148 -0.00043094 0.22216 0.1409
-0.015391 0.0026279 0.0016969 0.0021833
0.0021139 -0.0019654 -1.4999e-05 -0.001168 0.00076521 -0.00093139 -0.015375 0.002661
0.1462 0.1982 -0.012205 0.0017095
-0.0012741 -0.00016384 0.00032473 -0.0010966 0.00014367 -0.00024941 0.001695 0.0022036
-0.012192 0.0016934 0.18578 0.26334
1580000000 0.29216 0.068483 -0.0081205 0.01354 -0.00099234 -0.0052746 0.0015304 0.001945
-0.00010226 -0.0022488 -0.00040076 0.00032427
-0.0081112 0.013508 0.17189 0.29989 0.0056373 0.0085284 0.00046929 -0.0016192
-0.00058308 -0.0010463 -0.00018155 -0.00096355
-0.0010334 -0.0052912 0.0056886 0.0085018 0.3296 -0.1048 -0.0017284 0.00061673
-0.00032988 -0.0012581 0.00018346 -0.00066721
0.0015748 0.0019123 0.00046111 -0.0016257 -0.0016961 0.00064081 0.23607 0.10129
-0.01195 0.0076874 0.0023376 0.00082138
-0.00017013 -0.0022822 -0.00060614 -0.001045 -0.00032443 -0.001276 -0.011906 0.007729
0.1707 0.1809 -0.0096259 0.0074913
-0.0003445 0.00041176 -0.00016236 -0.00096754 0.00021917 -0.00065719 0.0023238 0.00080469
-0.0095997 0.007511 0.21751 0.23719
1640000000 0.2949 0.026879 -0.001361 0.012276 -0.0030333 -0.0027801 0.0027401 0.0010331
-0.00079435 -0.0016502 -0.00036326 0.00069229
-0.0013624 0.012268 0.20194 0.27503 0.0063343 0.0034426 -0.00064405 -0.0017755
-0.0010716 -0.00040834 -0.00060071 -0.00067554
-0.0030585 -0.0027471 0.0063514 0.0034177 0.30139 -0.1545 -0.00066715 0.00158
-0.0011689 -0.0010186 -0.00028062 -0.00034409
0.0027583 0.0010605 -0.00066536 -0.0017566 -0.00067473 0.0015991 0.24855 0.052053
-0.0075892 0.0093763 0.002602 -0.00079018
-0.00080613 -0.0016764 -0.0010663 -0.00039809 -0.0011586 -0.00096152 -0.0075853 0.0093791
0.19452 0.15725 -0.0047613 0.0096854
-0.0003978 0.00071336 -0.00059637 -0.00069987 -0.00026413 -0.00039589 0.0026162 -0.00077185
-0.0047767 0.009674 0.24342 0.20615
1700000000 0.2881 -0.018701 0.0020794 0.0094426 -0.0037396 4.85e-05 0.0032412 -0.0012504
-0.0020671 -0.00071897 0.00058016 0.00047421
0.0020773 0.0094489 0.22039 0.24361 0.0042203 0.00037562 -0.0014954 -0.00055715
-0.00082533 -6.909e-06 -0.0010028 -0.00048351
-0.0037395 8.5927e-05 0.0042165 0.00036967 0.25824 -0.19398 0.00047302 0.0016788
-0.0020303 -4.1316e-05 -0.00054927 -0.00092152
0.00322 -0.0012914 -0.0015069 -0.00054365 0.00050009 0.0016867 0.24502 0.0017375
-0.0044077 0.009873 0.0016292 -0.0022521
-0.0020957 -0.00068705 -0.00083761 2.1935e-05 -0.0020608 -2.611e-05 -0.0043867 0.0098909
0.21245 0.13719 -5.3708e-05 0.0099584
0.00057429 0.00044247 -0.00099421 -0.0004794 -0.0005179 -0.00090835 0.0016638 -0.0022906
-3.6581e-05 0.0099802 0.2597 0.1724
1760000000 0.27659 -0.06742 0.0044493 0.0061261 -0.0025285 0.00105 0.0013286 -0.0034295
-0.001413 0.00073184 0.00038044 -0.00052373
0.0044463 0.0061427 0.24686 0.20386 0.001785 -0.0017071 -0.0012568 0.00022315
-0.0011009 0.00097822 -0.00063782 0.00046161
-0.0025019 0.0010353 0.0017856 -0.0017169 0.21067 -0.22757 0.0011338 0.0010494
-0.0013616 0.0016071 -0.0013361 -0.00057765
0.0013283 -0.003459 -0.0012684 0.00019808 0.0010823 0.0010313 0.23587 -0.049767
-0.00091366 0.0090751 -8.4237e-05 -0.0026692
-0.0014055 0.0007326 -0.0010901 0.00096323 -0.0013347 0.0016164 -0.00090119 0.0090737
0.22804 0.1029 0.0040648 0.0074584
0.00037108 -0.00053544 -0.00063787 0.00042747 -0.0012513 -0.00059614 -0.00010818 -0.002584
0.0040811 0.0074429 0.27298 0.13496
1820000000 0.25224 -0.105 0.00457 0.0025521 -0.00017407 0.0026554 -0.00098291 -0.0031716
-0.0011697 0.0010055 -4.8866e-05 -0.00014157
0.0045558 0.0025459 0.25723 0.17365 -0.00072155 -0.00042275 -0.0012987 0.00095217
-7.2907e-05 0.0012811 -0.00061235 0.00059007
-0.00014144 0.0026508 -0.00073421 -0.00042966 0.15934 -0.24388 0.001667 0.00042003
-0.00014019 0.0024799 -0.0014455 0.0004523
-0.00092226 -0.0031662 -0.0012915 0.00097224 0.0016427 0.00039266 0.2055 -0.097175
0.00082912 0.0075011 -0.0017076 -0.0017011
-0.0011422 0.001058 -8.1476e-05 0.0012797 -0.00014096 0.0024688 0.000866 0.0075071
0.24591 0.073794 0.0051417 0.0037004
-9.0208e-06 -9.2279e-05 -0.0006044 0.00060907 -0.0013973 0.00051633 -0.0017311 -0.0017285
0.0051576 0.0037123 0.27538 0.098481
1880000000 0.21704 -0.14556 0.0022077 0.00015169 -0.00070757 0.0022918 -0.0029985 -0.0023283
-0.00022428 0.0018309 9.6216e-05 -0.00056679
0.0022164 0.00013133 0.26186 0.12698 -0.0027787 0.0015054 -0.00019193 0.0016944
0.00059249 0.0013513 0.00011577 0.0010146
-0.00074462 0.0023554 -0.0027718 0.001511 0.10724 -0.25286 0.0018174 -0.0010006
0.0016705 0.0020073 -0.00088618 0.0015066
-0.0030057 -0.0022636 -0.00022478 0.0017007 0.0018389 -0.00099938 0.16455 -0.13705
0.0017278 0.0051274 -0.0023973 5.8692e-05
-0.00018588 0.0018545 0.00060501 0.001349 0.0016608 0.0019818 0.0017374 0.0051286
0.25026 0.042195 0.0054223 0.0014587
5.5015e-05 -0.00052175 0.00010352 0.00097138 -0.0010211 0.0015419 -0.0023977 7.4146e-05
0.0054231 0.0014592 0.27571 0.065121
1940000000 0.17774 -0.17135 -0.00025251 -0.001495 0.0014809 0.0020611 -0.0038272 0.00037004
0.0013581 0.001015 -0.0007213 -0.00061766
-0.0002431 -0.0014957 0.26273 0.094992 -0.0014103 0.0041024 0.00099483 0.0013029
0.0019116 0.00052336 0.0010293 0.00032412
0.0014005 0.0020765 -0.0014001 0.0041079 0.062287 -0.24556 0.00040342 -0.0023279
0.002441 0.0002682 0.00051349 0.0016045
-0.0039039 0.00045185 0.00098364 0.0012914 0.00034058 -0.0023176 0.11221 -0.1675
0.00085476 0.0037088 -0.0017232 0.0014309
0.0013645 0.0010135 0.0018738 0.00047816 0.0024258 0.00024137 0.00085209 0.0037673
0.2536 0.0036321 0.004067 -0.0021892
-0.00068161 -0.0006185 0.001031 0.00033501 0.00054118 0.0015107 -0.0016142 0.0014404
0.0040846 -0.0021778 0.26536 0.028547
2000000000 0.13155 -0.18574 -0.0041922 0.00084052 0.0026351 0.001838 -0.0022711 0.0036835
0.0013157 0.00035937 -0.00057498 0.00053535
-0.0042085 0.00085252 0.24836 0.05943 -0.0011185 0.0060422 0.0016497 0.00041215
0.001435 -0.0012039 0.0004577 7.8481e-05
0.0026165 0.0018329 -0.0010642 0.0060686 0.01897 -0.23181 -0.0012426 -0.0013892
0.0019921 -0.0012473 0.0015249 0.0013564
-0.0023015 0.0037084 0.0016399 0.00037857 -0.0012405 -0.0015258 0.058594 -0.17718
-0.00060936 0.0034369 -0.00017014 0.0023535
0.001299 0.00032168 0.0014674 -0.0012069 0.0020948 -0.0011581 -0.00055792 0.0033868
0.24882 -0.029808 0.00081326 -0.003162
