!Keysight Technologies,M9804A,MY58100912,A.14.10.03
!Date: Thursday, April 27, 2023 10:28:33
!Correction: S11(C  6-Port  ) 
!S12(C  6-Port  ) 
!S13(C  6-Port  ) 
!S14(C  6-Port  ) 
!S15(C  6-Port  ) 
!S16(C  6-Port  ) 
!S21(C  6-Port  ) 
!S22(C  6-Port  ) 
!S23(C  6-Port  ) 
!S24(C  6-Port  ) 
!S25(C  6-Port  ) 
!S26(C  6-Port  ) 
!S31(C  6-Port  ) 
!S32(C  6-Port  ) 
!S33(C  6-Port  ) 
!S34(C  6-Port  ) 
!S35(C  6-Port  ) 
!S36(C  6-Port  ) 
!S41(C  6-Port  ) 
!S42(C  6-Port  ) 
!S43(C  6-Port  ) 
!S44(C  6-Port  ) 
!S45(C  6-Port  ) 
!S46(C  6-Port  ) 
!S51(C  6-Port  ) 
!S52(C  6-Port  ) 
!S53(C  6-Port  ) 
!S54(C  6-Port  ) 
!S55(C  6-Port  ) 
!S56(C  6-Port  ) 
!S61(C  6-Port  ) 
!S62(C  6-Port  ) 
!S63(C  6-Port  ) 
!S64(C  6-Port  ) 
!S65(C  6-Port  ) 
!S66(C  6-Port  ) 
!S6P File: Measurement: :
# Hz S  RI   R 50
500000000 -0.33454 -0.059711 -0.010626 -0.0020423 -0.0094656 0.013973 -0.0029573 0.011876
0.013919 0.0046625 -0.003666 0.0075991
-0.01106 -0.0026171 -0.41622 -0.066649 0.0078488 -0.010409 0.001792 0.011941
0.0078288 0.0035518 0.0020172 0.013826
-0.009367 0.013767 0.0079373 -0.010446 -0.26815 0.19706 0.0068538 0.0036091
-0.0018616 0.0087729 0.00081909 0.012434
-0.0028191 0.011757 0.0019511 0.012485 0.0069151 0.0036157 -0.33195 0.042537
-0.019564 -0.0043348 0.015814 0.02527
0.014164 0.0046135 0.0070758 0.0037758 -0.0019267 0.0087504 -0.019383 -0.0043034
-0.24463 -0.20168 -0.028059 0.0050526
-0.0025483 0.0076389 0.0011069 0.014703 0.00082363 0.01236 0.015876 0.02539
-0.028141 0.0052465 -0.27033 -0.13
560000000 -0.31938 0.10893 -0.023066 -0.065124 0.00013466 0.013516 0.0048704 0.010862
0.01069 0.0066002 0.011348 0.0087392
-0.023395 -0.064822 -0.37488 0.098273 -0.042936 -0.038872 0.01438 0.0032961
-0.015229 -0.0026757 0.0058009 -0.0011268
0.00020294 0.013205 -0.043347 -0.039015 -0.18576 0.24961 -0.00011488 -0.0046729
0.018104 0.0053619 0.0075719 -0.0070416
0.0053125 0.010646 0.013652 0.0033138 -0.00011189 -0.0047238 -0.30639 0.13404
0.0041712 -0.024683 0.0049232 -0.021433
0.010343 0.0050392 -0.014733 -0.0039343 0.018097 0.0053937 0.0039853 -0.024719
-0.30804 -0.023532 0.0061462 -0.047439
0.011635 0.010221 0.0059714 -0.0014512 0.0077257 -0.0071311 0.0050421 -0.021287
0.0064339 -0.047554 -0.32995 0.01944
620000000 -0.27743 0.089834 -0.023128 0.0089802 0.0045768 0.0094665 0.0082743 -0.0048254
0.011995 -0.0011565 -6.4265e-05 -0.0027011
-0.023135 0.0089635 -0.40366 0.046004 -0.018503 0.00074429 -0.0013788 -0.0022885
0.012397 -0.0060673 0.00037736 -0.0028324
0.0042256 0.0094712 -0.018553 0.00067182 -0.15558 0.25857 -0.00063367 -0.005597
-0.0035967 -0.0029323 0.010127 -0.0038623
0.0088201 -0.0050102 -0.0016828 -0.0023697 -0.00060332 -0.0056066 -0.26639 0.14454
-0.03813 -0.020166 0.012708 0.027054
0.011657 -0.0010652 0.01279 -0.0056513 -0.0035757 -0.0029959 -0.038273 -0.020145
-0.22916 -0.055058 -0.042819 0.011666
0.0007961 -0.002836 0.00059714 -0.0032557 0.010113 -0.0038379 0.012495 0.026999
-0.042588 0.011795 -0.24794 -0.013429
680000000 -0.24134 0.18229 -0.026504 -0.014609 0.0049227 0.0055281 0.0011139 -0.0076332
-0.0022087 -0.011346 0.0056697 -0.0067109
-0.026457 -0.01456 -0.39063 0.14767 -0.03245 -0.0018618 -0.001738 -0.00032072
-0.0018753 -0.0091158 -0.0010862 -0.0019941
0.0051303 0.0057229 -0.032598 -0.0017756 -0.10455 0.28011 -0.00083245 -0.00043456
-0.0017644 0.00058304 -0.002361 -0.0093369
0.00087582 -0.0072239 -0.0020856 -0.00058325 -0.00085658 -0.00045593 -0.22084 0.19589
-0.023406 -0.0078251 -0.0087675 -0.011041
-0.0023995 -0.011119 -0.0018013 -0.0090516 -0.0017947 0.00057056 -0.023427 -0.007803
-0.28119 0.048296 -0.0065941 -0.0073353
0.0053399 -0.0068143 -0.0006369 -0.0019377 -0.0023378 -0.0093232 -0.0084884 -0.011027
-0.0067333 -0.0073813 -0.26276 0.091035
740000000 -0.1947 0.17543 -0.03993 0.02697 0.014222 -0.0043429 0.00029793 -0.0042775
-0.004294 -0.0031086 -0.0059719 0.0030797
-0.039782 0.026939 -0.33569 0.16609 -0.037066 0.03504 -0.00015067 -0.0062682
-0.012529 0.0072349 -0.0020967 -0.0067391
0.014308 -0.0048254 -0.037133 0.034995 -0.070877 0.27685 -0.0017464 0.0033467
-0.0022842 -0.0057658 -0.0012754 0.00087437
0.00035616 -0.0039509 9.5051e-06 -0.0065761 -0.0017332 0.0033805 -0.20405 0.20353
-0.042794 -0.0077898 0.022182 0.01624
-0.0040019 -0.003465 -0.012382 0.0074411 -0.0023131 -0.0058379 -0.04285 -0.0077307
-0.1809 0.076028 -0.040528 0.0012731
-0.0069414 0.0033871 -0.0012868 -0.0065274 -0.0012555 0.0008965 0.022448 0.016126
-0.040567 0.0013579 -0.25095 0.096722
800000000 -0.16267 0.21965 -0.022233 0.016217 0.0059347 -0.010437 -0.0051525 -0.0022865
-0.0047896 0.0020188 0.0036745 0.00099071
-0.022252 0.016307 -0.3424 0.23708 -0.0087322 0.034384 -0.0024616 0.0019449
-0.001478 0.0024973 0.00057778 0.0056666
0.0060336 -0.010492 -0.0085226 0.034477 -0.032484 0.30137 0.00066138 0.0014813
-5.6813e-05 0.0036055 -0.0019784 0.0013317
-0.0050939 -0.0024152 -0.0027247 0.002077 0.00064612 0.0014948 -0.17463 0.23078
-0.02851 0.013593 0.013848 -0.010775
-0.0046376 0.002267 -0.0012113 0.002708 -7.5275e-05 0.0035979 -0.028577 0.013641
-0.22466 0.10306 -0.017758 0.021273
0.0038823 0.0006399 0.0002126 0.0051871 -0.0019874 0.0012995 0.013956 -0.010723
-0.017897 0.021253 -0.24219 0.14566
860000000 -0.12894 0.23974 -0.017973 0.030348 -0.0027884 -0.010688 -0.0015832 0.00063819
0.0042845 0.0054556 -0.0033897 -0.0034856
-0.017896 0.030381 -0.29425 0.28014 0.0074508 0.0348 0.00012111 0.00196
0.0037906 0.00044821 0.00262 0.00029631
-0.002861 -0.010661 0.0074512 0.034835 0.015096 0.30995 -0.00066208 -0.00019929
0.0024268 -0.0016692 0.0016937 0.0040047
-0.0016507 0.00075938 8.223e-05 0.0018076 -0.00066916 -0.00020402 -0.13828 0.24191
-0.018033 0.018293 -0.0056207 -0.0092942
0.0042088 0.005161 0.0035567 0.00048147 0.0024005 -0.0016765 -0.018031 0.018316
-0.16652 0.15671 -0.024371 0.01673
-0.0032066 -0.0032012 0.0030378 0.00015443 0.0016582 0.0040438 -0.0056976 -0.0093652
-0.024256 0.016696 -0.19294 0.19017
920000000 -0.10513 0.26235 0.0045697 0.03834 -0.0094252 -0.0054849 -0.0019698 0.0017361
0.00067026 0.0022016 0.0030803 -0.0011328
0.0044761 0.038224 -0.26736 0.30179 0.028362 0.023156 0.0013825 0.0014354
0.0075483 -9.8507e-05 0.0042493 -0.0028728
-0.0094859 -0.0055255 0.028485 0.023094 0.060321 0.31158 0.0019136 8.5489e-05
0.00096922 -3.4919e-06 0.0010854 -0.0014352
-0.0020402 0.0018791 0.0013503 0.001554 0.001919 7.8873e-05 -0.1137 0.25872
-0.011305 0.031319 0.0039226 -0.0073006
0.00072959 0.0024031 0.0076258 4.5846e-05 0.00098137 -3.7899e-05 -0.011233 0.031319
-0.15737 0.16294 -0.00134 0.027408
0.0032162 -0.0011111 0.0041642 -0.0030522 0.0010673 -0.001493 0.0039886 -0.00728
-0.0013376 0.027242 -0.19967 0.20368
980000000 -0.058901 0.28322 0.016851 0.030296 -0.0098603 0.0042237 0.0017491 0.0035526
0.0042718 -0.0014969 -0.0028327 -0.0025899
0.016842 0.030441 -0.21447 0.33675 0.033875 0.0056205 0.0020054 -0.00014978
0.0019629 -0.0064314 -0.00028128 -0.0025936
-0.0097873 0.0042706 0.033967 0.0054717 0.10636 0.30654 0.00073734 -0.0011554
0.00056461 -0.0019737 0.0016173 -0.00028801
0.0018006 0.0034828 0.0020084 -0.00026832 0.00075152 -0.0011384 -0.075408 0.27
0.0079192 0.030261 -0.0094229 -0.0079195
0.0043266 -0.0015276 0.0019088 -0.0061628 0.00055729 -0.0019792 0.0079153 0.030292
-0.12308 0.19267 0.0054852 0.019512
-0.0029376 -0.0026177 -0.00032523 -0.0026002 0.0016201 -0.0002898 -0.0094795 -0.0080145
0.0054831 0.019615 -0.15792 0.24936
1040000000 -0.017765 0.29214 0.033189 0.019313 -0.0017534 0.0071197 0.0026237 0.00054742
0.00011105 -0.0035164 -0.00014826 -0.0015977
0.033065 0.019347 -0.17966 0.35062 0.030605 -0.014826 0.0018169 -0.0018938
-0.0020981 -0.0029036 -0.0012128 -0.0028876
-0.0017843 0.0071715 0.030576 -0.014928 0.15261 0.29374 -0.000404 -0.0017546
-0.0016725 -0.0010109 -0.00060752 -0.0011964
0.0027065 0.00062061 0.0017886 -0.0018865 -0.00040096 -0.0017786 -0.047977 0.2799
0.019855 0.018981 -0.0025134 0.0010227
0.0002622 -0.0034619 -0.0021639 -0.0029264 -0.0016784 -0.0010086 0.019929 0.019002
-0.0903 0.20046 0.013887 0.018787
-0.00016311 -0.0017645 -0.0010627 -0.0028026 -0.00058359 -0.0011744 -0.0024949 0.0010594
0.013869 0.018828 -0.13484 0.27066
1100000000 0.026842 0.30219 0.036898 -0.0034001 0.0028064 0.0042924 0.0024988 -0.00089169
-0.0019638 -0.0028078 -0.0039403 -0.00038654
0.036875 -0.0033622 -0.13671 0.36922 0.016194 -0.02857 0.00010438 -0.0018305
-0.0038479 -0.0008557 -0.0036912 -0.00063602
0.002853 0.0042765 0.016116 -0.028704 0.19914 0.27455 -0.0019658 0.0001223
-0.0018955 0.00055676 -0.0011863 -0.00041217
0.0024224 -0.00093295 0.00010021 -0.0017848 -0.00199 0.00012245 -0.0077875 0.28542
0.026042 0.0055487 -0.0026089 6.7659e-06
-0.0019233 -0.0029087 -0.0037685 -0.00095475 -0.0019092 0.00054999 0.026075 0.0055316
-0.069811 0.21364 0.020147 0.0088559
-0.0040546 -0.00030515 -0.003638 -0.00062991 -0.001185 -0.00042202 -0.0026225 1.9547e-05
0.020194 0.0088483 -0.088824 0.29903
1160000000 0.077878 0.29847 0.024893 -0.020798 0.0028013 -0.00038196 -0.0001417 -0.0023572
-0.0041614 -0.00097913 -0.00091491 0.0041874
0.024886 -0.02082 -0.093093 0.3746 -0.003562 -0.030234 -0.0017706 -0.0016503
-0.0029231 0.0027676 -0.001524 0.0020998
0.0027959 -0.00038606 -0.003733 -0.030278 0.24303 0.24417 -0.00086856 0.0018551
-0.0006315 0.0020781 -0.00098946 0.00042746
-0.00012429 -0.0023654 -0.001787 -0.0015953 -0.00085919 0.0018645 0.032133 0.28302
0.022048 -0.011097 -0.0033429 0.0050952
-0.0041298 -0.00099722 -0.0028548 0.0028315 -0.00063519 0.0020818 0.022031 -0.011111
-0.036101 0.22162 0.019393 -0.00060544
-0.00085379 0.0041781 -0.0014921 0.0020134 -0.00094842 0.00045356 -0.0033145 0.0051468
0.019366 -0.00056592 -0.042505 0.30166
1220000000 0.12165 0.2893 0.011259 -0.030786 -0.001576 -0.00097411 -1.5804e-06 -0.00073219
-0.0029122 0.0022733 0.0011068 0.0022063
0.011258 -0.030758 -0.048641 0.38818 -0.017485 -0.02234 -0.0026864 0.00056905
-6.1875e-05 0.0033205 -0.00088791 0.0020559
-0.0016116 -0.00097512 -0.017641 -0.02231 0.28204 0.20502 0.00083907 0.0018183
0.0006137 0.0013808 0.00034551 0.00064696
3.8484e-05 -0.00078651 -0.0026672 0.0005235 0.00083184 0.0018024 0.072136 0.27415
0.011161 -0.018223 0.0018909 0.0016069
-0.0029125 0.002279 -6.1308e-05 0.0033704 0.00061768 0.0013749 0.011121 -0.018228
-0.012142 0.23053 0.01437 -0.013759
0.0011179 0.0023469 -0.00083212 0.0021223 0.00034532 0.00062678 0.0018672 0.0015385
0.014393 -0.013768 -0.01067 0.31845
1280000000 0.17258 0.26932 -0.0080466 -0.029504 -0.0020994 0.0025884 -0.00082533 -0.002064
-0.00084952 0.0031569 0.0027298 0.0014497
-0.0079998 -0.029448 -0.0018495 0.3801 -0.024884 -0.0089428 -0.00096188 0.0015092
0.0019513 0.0017797 0.00076381 0.0020312
-0.0020931 0.0025715 -0.024948 -0.0088351 0.31239 0.16157 0.0016588 -4.8211e-05
0.0012862 0.00027156 0.00028695 0.00026952
-0.00088286 -0.0020229 -0.00094934 0.0015488 0.0016508 -3.5351e-05 0.1094 0.2581
0.00057517 -0.020527 -0.00016661 0.00032026
-0.00088668 0.0031619 0.0019144 0.0017938 0.0012843 0.00025584 0.00057068 -0.02054
0.02451 0.2345 0.0031679 -0.015777
0.0026729 0.0013553 0.00063367 0.0020529 0.00028778 0.00026779 -0.00020472 0.0003767
0.0031311 -0.015825 0.036722 0.32012
1340000000 0.21053 0.23661 -0.018201 -0.019455 0.00080507 0.004896 -0.0018745 -0.00091375
0.0014149 0.0028921 0.0018674 -0.0014322
-0.018173 -0.019482 0.038085 0.37212 -0.022516 0.0045085 -6.7613e-05 0.0020813
0.002099 0.00069461 0.0012441 0.00074498
0.00083163 0.0049073 -0.022519 0.0046085 0.33418 0.11432 0.0011213 -0.00099493
0.00070493 -0.0006761 2.3883e-05 0.00029996
-0.0018215 -0.00091697 -3.3126e-05 0.0020673 0.0011263 -0.00098829 0.14257 0.23687
-0.0095064 -0.017426 0.00067326 0.0007423
0.0014317 0.0028816 0.0021184 0.00070645 0.00072129 -0.00065379 -0.0095632 -0.017421
0.054687 0.22982 -0.0044162 -0.014508
0.0018033 -0.0014664 0.0012526 0.00077946 6.3256e-05 0.00033139 0.00071638 0.00073506
-0.0043512 -0.014479 0.07473 0.31522
1400000000 0.24467 0.19956 -0.024256 -0.0074024 0.0054521 0.0035688 -0.0022955 0.00064608
0.0026378 0.0010928 0.00028956 -0.0017046
-0.024195 -0.007396 0.07582 0.35942 -0.015489 0.013184 0.0014307 0.0012244
0.0012514 -0.00086721 0.0011527 0.00011669
0.0054533 0.0036189 -0.01546 0.013293 0.34699 0.061882 1.7194e-05 -0.0017592
0.00011328 -0.00042166 0.00040798 0.00025022
-0.0023253 0.00066675 0.0014017 0.0012092 6.1203e-06 -0.0017601 0.17178 0.20788
-0.016001 -0.010004 -0.00091302 6.914e-05
0.0026727 0.0010535 0.0012347 -0.0008539 0.0001031 -0.00042409 -0.01603 -0.0099507
0.08836 0.22559 -0.010965 -0.0091159
0.00020965 -0.0017056 0.0011596 6.2068e-05 0.00042493 0.0002428 -0.00095348 4.4705e-05
-0.010997 -0.0091184 0.11896 0.30446
1460000000 0.26829 0.15583 -0.020915 0.005378 0.0061389 -0.0016903 -0.001591 0.0016907
0.0023761 -0.00042337 -0.0004075 -0.0010964
-0.020871 0.0053171 0.11027 0.33745 -0.0060078 0.016322 0.0017047 0.00018135
0.00079294 -0.0014152 0.0012715 -0.00066105
0.0061232 -0.0017293 -0.0059266 0.016395 0.35375 0.0086519 -0.0013349 -0.0013992
-6.2958e-06 -0.00024963 0.00068917 -0.0003168
-0.001557 0.0017638 0.0017029 0.00016434 -0.0013497 -0.001408 0.19833 0.17859
-0.016918 -0.0023215 -0.0008546 0.0022938
0.0023563 -0.00038375 0.00078394 -0.0014519 6.2718e-06 -0.00025607 -0.016914 -0.0023095
0.11813 0.21177 -0.012805 -0.0029523
-0.00032146 -0.00094745 0.0012892 -0.00060008 0.00073116 -0.00028812 -0.00086875 0.0022832
-0.012779 -0.0029618 0.15218 0.28416
1520000000 0.28121 0.11411 -0.014824 0.010955 0.0037486 -0.0045744 0.00016033 0.0026791
0.0022499 -0.0019979 -0.0012289 -0.00018006
-0.014809 0.010923 0.14359 0.32305 0.0021424 0.013703 0.0016333 -0.00081315
-5.7595e-05 -0.0010877 0.00027693 -0.0010308
0.0037078 -0.004625 0.0022711 0.013706 0.34766 -0.046686 -0.0011475 -0.00025221
0.00063305 -0.00087893 0.00012091 -0.00016647
0.00018214 0.0026727 0.0016371 -0.00083768 -0.001158 -0.00024462 0.22129 0.14018
-0.015572 0.0039721 0.0017516 0.0021902
0.0022488 -0.0019949 -6.6641e-05 -0.0010965 0.00062054 -0.00088873 -0.015571 0.0040114
0.14626 0.19844 -0.012472 0.0023737
-0.0012195 -0.00013326 0.00028057 -0.0010572 0.00012965 -0.00016389 0.0017415 0.0021635
-0.012478 0.0023729 0.18508 0.2637
1580000000 0.29121 0.06844 -0.0076935 0.014092 -0.00091335 -0.0054323 0.0016327 0.0019055
-0.00013892 -0.002378 -0.00019674 0.00042649
-0.0077206 0.014079 0.17072 0.2987 0.005913 0.0083867 0.00047663 -0.0015931
-0.00056767 -0.00098436 -0.00020737 -0.0008699
-0.00097735 -0.0053362 0.0059584 0.0083276 0.32889 -0.10386 -0.0015655 0.00069453
-0.00041107 -0.0012769 0.00025953 -0.00065886
0.0016186 0.0018829 0.00047147 -0.0015887 -0.0015543 0.00068144 0.2349 0.10094
-0.011234 0.0090739 0.0024837 0.00062132
-0.00016322 -0.0023884 -0.00057219 -0.00097727 -0.00042446 -0.0012721 -0.011215 0.0091022
0.171 0.18081 -0.0095756 0.0082674
-0.00020977 0.00041989 -0.00020301 -0.00086442 0.00028771 -0.00065886 0.0024502 0.0006405
-0.0095946 0.0082557 0.21717 0.23777
1640000000 0.29366 0.027108 -0.00064396 0.01242 -0.0032157 -0.0029039 0.0027606 0.0010075
-0.0009325 -0.0016649 -0.0003825 0.00057131
-0.00065945 0.012406 0.20023 0.27435 0.0064403 0.0031538 -0.00063175 -0.001796
-0.00096422 -0.00037589 -0.00054757 -0.0006881
-0.0032019 -0.002895 0.0064872 0.0031527 0.30126 -0.15327 -0.00056678 0.0015234
-0.0011111 -0.00093732 -0.00026929 -0.00036594
0.0028126 0.00098402 -0.00063724 -0.0018027 -0.00057573 0.0015057 0.24708 0.052242
-0.0062667 0.0098332 0.0025476 -0.00087518
-0.00094722 -0.0016869 -0.00095993 -0.00039065 -0.0011079 -0.00096423 -0.0062693 0.0098453
0.1946 0.1568 -0.0043945 0.010216
-0.00038801 0.00057267 -0.00057226 -0.00068211 -0.00028362 -0.00037346 0.002608 -0.00087509
-0.0043869 0.010232 0.24278 0.20701
1700000000 0.28692 -0.01775 0.0027078 0.0091806 -0.0039172 8.8507e-06 0.0031915 -0.0013281
-0.0021054 -0.0005786 0.00056463 0.00042757
0.0027165 0.0091982 0.21837 0.24358 0.0041371 0.00010028 -0.0014599 -0.00056703
-0.00071345 -8.1582e-06 -0.00093036 -0.00046003
-0.0039588 -5.9023e-06 0.0041586 8.7215e-05 0.25843 -0.19322 0.00047426 0.0016929
-0.0020394 -3.5198e-07 -0.00051781 -0.00098223
0.0031541 -0.0013987 -0.001462 -0.00057476 0.00046628 0.0016989 0.24388 0.0027357
-0.0031055 0.0095669 0.0016687 -0.0022611
-0.0021095 -0.00058626 -0.00071588 -7.9256e-06 -0.0020362 3.0798e-05 -0.0030624 0.0096027
0.21208 0.13667 0.0006371 0.010307
0.00059392 0.00040839 -0.00092801 -0.00050558 -0.00050837 -0.0010092 0.0016395 -0.0023519
0.00065098 0.010295 0.25948 0.17299
1760000000 0.27564 -0.065991 0.0047242 0.0055517 -0.0024482 0.0011106 0.0012608 -0.0034689
-0.001318 0.00075859 0.00031431 -0.00051841
0.0047196 0.0055318 0.24486 0.20465 0.0016224 -0.0018521 -0.0012001 0.00014852
-0.0010011 0.00081242 -0.00052616 0.00041961
-0.0025099 0.0012484 0.001557 -0.001838 0.21124 -0.22708 0.0011089 0.00087623
-0.0012437 0.00151 -0.0011612 -0.00057667
0.0012715 -0.0034289 -0.0012015 0.00018176 0.0011015 0.0008672 0.23532 -0.048295
-0.0001748 0.0081272 -0.00018055 -0.0025023
-0.0013717 0.00080117 -0.0010199 0.00084217 -0.0012242 0.0015048 -0.00015123 0.0081075
0.22732 0.1022 0.0047513 0.0074825
0.00032936 -0.00059838 -0.00055674 0.00044139 -0.0012095 -0.00059391 -0.00025475 -0.0025019
0.0047091 0.007486 0.27301 0.13573
1820000000 0.25205 -0.10313 0.0044378 0.0020332 -0.00020016 0.0027371 -0.0010285 -0.0032175
-0.0010305 0.0010538 -0.00010088 -5.3592e-05
0.0044401 0.0020294 0.25563 0.17508 -0.00097061 -0.0004061 -0.0013426 0.00093044
-0.00014939 0.0011666 -0.00062011 0.00055634
-0.00014599 0.0026955 -0.00090199 -0.00044051 0.15964 -0.24359 0.0015646 0.0003935
-0.00021663 0.0024337 -0.0015173 0.00057207
-0.0010795 -0.0032236 -0.0013391 0.00091738 0.0015754 0.00036011 0.20578 -0.095248
0.00099899 0.0065527 -0.0017394 -0.0017392
-0.00099602 0.0010402 -0.00014452 0.0011511 -0.00021903 0.0024212 0.00099495 0.0065057
0.24461 0.073257 0.005637 0.0033999
-0.00010683 -9.019e-05 -0.00060773 0.00050389 -0.0014803 0.00057425 -0.0017117 -0.0016917
0.005646 0.0034243 0.27553 0.099276
1880000000 0.21771 -0.1436 0.0019473 -7.1291e-05 -0.0005699 0.0023912 -0.0029318 -0.0021818
-6.6319e-05 0.0018567 0.00026038 -0.00057141
0.0019819 -2.8026e-05 0.26086 0.12901 -0.0028776 0.0016031 -0.00017962 0.0017502
0.00046852 0.0013614 1.1055e-05 0.00095822
-0.00064129 0.0024446 -0.0028296 0.0016836 0.10781 -0.25269 0.0018369 -0.00096993
0.0015492 0.0019032 -0.0010842 0.0014203
-0.0029347 -0.002201 -0.00021696 0.0017658 0.0018382 -0.0009545 0.16581 -0.13557
0.001315 0.0044993 -0.0026165 -6.8874e-05
-5.3789e-05 0.00184 0.00048074 0.0013264 0.0015354 0.0018929 0.0012898 0.0045513
0.24863 0.042258 0.0056744 0.0006742
0.00025615 -0.00053906 6.9579e-05 0.00096087 -0.001047 0.001424 -0.0025145 -9.385e-05
0.0057419 0.00064855 0.27572 0.06521
1940000000 0.17926 -0.16972 -0.00044083 -0.0014801 0.0013481 0.0019906 -0.0037074 0.00061466
0.0012706 0.0010037 -0.00073442 -0.00056392
-0.00047834 -0.0014869 0.26251 0.097145 -0.0014643 0.0041042 0.00093558 0.0014226
0.0017531 0.00060067 0.00095406 0.00031352
0.0015081 0.0020556 -0.0014826 0.0042332 0.062967 -0.2457 0.00024663 -0.0022174
0.0023689 0.00033185 0.00051982 0.0016405
-0.0037536 0.00053332 0.00096935 0.0013538 0.0002866 -0.0022265 0.11381 -0.16695
0.00032924 0.003236 -0.0016943 0.0015418
0.0013242 0.00098797 0.0017696 0.00061642 0.0023907 0.00035959 0.00039345 0.0033012
0.25193 0.0041569 0.0041517 -0.0026855
-0.00066139 -0.00058175 0.00089366 0.00037664 0.00050558 0.0016302 -0.0018157 0.0015793
0.0041172 -0.0026717 0.26541 0.028878
2000000000 0.13323 -0.18532 -0.0041691 0.00084968 0.0026376 0.0018018 -0.0022147 0.0037419
0.0012139 0.00038948 -0.00051384 0.00056437
-0.0041037 0.00089194 0.24893 0.061395 -0.0010821 0.0060019 0.001794 0.00058846
0.0013986 -0.0010031 0.00049602 0.00014361
0.0027012 0.0017244 -0.00099386 0.005967 0.019202 -0.23249 -0.0011765 -0.0014006
0.0020835 -0.0011063 0.0017759 0.0015238
-0.0021269 0.0037245 0.0017838 0.00054853 -0.0012069 -0.001396 0.059956 -0.17709
-0.0013643 0.0035129 -0.00036814 0.0022483
0.0012441 0.00044714 0.001422 -0.0010065 0.0020716 -0.0011224 -0.0013499 0.0034104
