!Keysight Technologies,M9804A,MY58100912,A.14.10.03
!Date: Thursday, April 27, 2023 10:28:33
!Correction: S11(C  6-Port  ) 
!S12(C  6-Port  ) 
!S13(C  6-Port  ) 
!S14(C  6-Port  ) 
!S15(C  6-Port  ) 
!S16(C  6-Port  ) 
!S21(C  6-Port  ) 
!S22(C  6-Port  ) 
!S23(C  6-Port  ) 
!S24(C  6-Port  ) 
!S25(C  6-Port  ) 
!S26(C  6-Port  ) 
!S31(C  6-Port  ) 
!S32(C  6-Port  ) 
!S33(C  6-Port  ) 
!S34(C  6-Port  ) 
!S35(C  6-Port  ) 
!S36(C  6-Port  ) 
!S41(C  6-Port  ) 
!S42(C  6-Port  ) 
!S43(C  6-Port  ) 
!S44(C  6-Port  ) 
!S45(C  6-Port  ) 
!S46(C  6-Port  ) 
!S51(C  6-Port  ) 
!S52(C  6-Port  ) 
!S53(C  6-Port  ) 
!S54(C  6-Port  ) 
!S55(C  6-Port  ) 
!S56(C  6-Port  ) 
!S61(C  6-Port  ) 
!S62(C  6-Port  ) 
!S63(C  6-Port  ) 
!S64(C  6-Port  ) 
!S65(C  6-Port  ) 
!S66(C  6-Port  ) 
!S6P File: Measurement: :
# Hz S  RI   R 50
500000000 -0.33493 -0.057215 -0.010531 -0.0013038 -0.0085091 0.013942 -0.0042105 0.011713
0.013473 0.0052243 -0.0036288 0.0074941
-0.010563 -0.0012044 -0.4155 -0.066582 0.0080576 -0.010645 0.00097936 0.011452
0.0077705 0.0030522 0.0012448 0.012993
-0.0083671 0.013869 0.0079831 -0.010768 -0.2682 0.19732 0.0064135 0.0032942
-0.0016765 0.0085876 0.00020129 0.011865
-0.0041333 0.011694 0.0007062 0.011584 0.0064674 0.0034663 -0.33257 0.041391
-0.018621 -0.003006 0.014891 0.024444
0.013805 0.0052958 0.008086 0.0031823 -0.0013078 0.0085996 -0.018491 -0.0031654
-0.24468 -0.20107 -0.027031 0.0071483
-0.0036385 0.0081439 0.0010602 0.012718 0.00011343 0.011659 0.015046 0.02426
-0.02703 0.0072703 -0.27164 -0.1303
560000000 -0.32023 0.11096 -0.022985 -0.065682 -0.00036219 0.014121 0.0055119 0.010726
0.012271 0.0059722 0.010939 0.0076121
-0.022982 -0.065767 -0.37575 0.097378 -0.042657 -0.038162 0.014354 0.0030276
-0.014363 -0.0039315 0.0055198 -0.0021938
0.00084554 0.014171 -0.042519 -0.038411 -0.18618 0.2495 -0.00074676 -0.0050812
0.018605 0.0066977 0.0074415 -0.0065984
0.004408 0.010496 0.014302 0.0026323 -0.00072435 -0.0047232 -0.30679 0.13339
0.0042404 -0.024878 0.0060811 -0.020522
0.011637 0.0065186 -0.014578 -0.0035643 0.018797 0.0068719 0.0042287 -0.024102
-0.31074 -0.020805 0.0085592 -0.049746
0.0095818 0.0075071 0.0048178 -0.0013275 0.0070979 -0.0070392 0.005718 -0.020985
0.0084442 -0.04978 -0.33132 0.020317
620000000 -0.27872 0.089556 -0.023522 0.0091164 0.0041558 0.009566 0.0079662 -0.0042466
0.011485 -0.00039015 0.00014125 -0.0017345
-0.023707 0.0089859 -0.40378 0.046312 -0.01842 0.00076496 -0.0018917 -0.001877
0.012937 -0.0057729 0.00090948 -0.0030817
0.0042665 0.0096404 -0.018453 0.0009231 -0.15605 0.2586 -0.00094708 -0.0052569
-0.0033707 -0.0024099 0.010087 -0.0035663
0.0083789 -0.0045603 -0.0016943 -0.0019935 -0.00037124 -0.0053859 -0.26572 0.14499
-0.040025 -0.019591 0.013465 0.028702
0.011698 -0.0012307 0.012663 -0.006179 -0.0035403 -0.002933 -0.039204 -0.019584
-0.22732 -0.055948 -0.043657 0.011579
0.0003088 -0.0019807 0.00079686 -0.0030231 0.010048 -0.0035054 0.013697 0.028582
-0.043737 0.011554 -0.24741 -0.01192
680000000 -0.2409 0.18168 -0.02639 -0.014394 0.0052858 0.0052954 0.0013388 -0.0079053
-0.0021086 -0.011909 0.0056982 -0.0064439
-0.026359 -0.014523 -0.39061 0.14776 -0.032292 -0.0021035 -0.0015057 -0.00076827
-0.0017569 -0.0089199 -0.00075876 -0.0015177
0.0050501 0.0052439 -0.032415 -0.0020119 -0.10455 0.27991 -0.00081416 -0.00045621
-0.0017942 0.00054247 -0.0020143 -0.0092407
0.0013803 -0.0071719 -0.0013795 -0.00058076 -0.00085094 -0.00050903 -0.22095 0.19639
-0.022824 -0.0081738 -0.0083689 -0.011049
-0.0018137 -0.012285 -0.001788 -0.0092076 -0.0016266 0.00068823 -0.022979 -0.0084306
-0.28031 0.049483 -0.0054218 -0.0084232
0.0059346 -0.0071107 -0.00063501 -0.0017194 -0.0023172 -0.0094436 -0.0087795 -0.011194
-0.0053838 -0.008391 -0.2612 0.091702
740000000 -0.19368 0.17636 -0.040074 0.027198 0.014091 -0.0048877 -0.00030629 -0.0040643
-0.0049463 -0.0023441 -0.0064901 0.0025598
-0.040075 0.027218 -0.33573 0.16559 -0.03723 0.035147 -0.00019966 -0.0061896
-0.012261 0.0073913 -0.0017103 -0.0062212
0.014241 -0.0049589 -0.036878 0.035216 -0.070647 0.27663 -0.0018323 0.0032269
-0.0023154 -0.0055496 -0.0015544 0.00071347
-0.00027902 -0.0041526 -8.6763e-06 -0.0060311 -0.0017698 0.003058 -0.20451 0.20333
-0.042399 -0.0070202 0.022086 0.015387
-0.0041935 -0.0025859 -0.01154 0.0070333 -0.0027527 -0.0051711 -0.042221 -0.0071419
-0.17778 0.075175 -0.041822 0.0011316
-0.0063667 0.002614 -0.0015419 -0.0057189 -0.0010586 0.00046294 0.022023 0.015257
-0.041846 0.0011721 -0.25023 0.096238
800000000 -0.16279 0.21995 -0.022221 0.016267 0.005899 -0.010766 -0.0045588 -0.0022524
-0.0045203 0.0020622 0.0044012 0.00088288
-0.022067 0.016261 -0.34238 0.2372 -0.0086052 0.034414 -0.0023657 0.002059
-0.0012626 0.0027721 0.00073819 0.0052528
0.0060592 -0.010849 -0.0084282 0.034403 -0.03233 0.30121 0.00082935 0.0015397
1.7217e-05 0.003593 -0.0017927 0.00094347
-0.0043322 -0.0020579 -0.0023186 0.0022387 0.00084274 0.0016871 -0.1746 0.23066
-0.028815 0.013757 0.01408 -0.01087
-0.0045923 0.0022518 -0.0011871 0.0026838 -5.1968e-06 0.0035175 -0.028793 0.013769
-0.22347 0.10396 -0.017664 0.021171
0.0047036 0.00054115 0.000735 0.0054393 -0.0017076 0.0013366 0.014069 -0.010715
-0.017706 0.021122 -0.24218 0.14544
860000000 -0.12858 0.23979 -0.017762 0.030333 -0.002614 -0.010687 -0.001923 0.00033073
0.003801 0.0051534 -0.0036657 -0.0029238
-0.017799 0.030269 -0.29408 0.28006 0.0074848 0.034763 -6.9276e-05 0.0019483
0.0035409 0.00059643 0.0031213 0.00040515
-0.0026977 -0.010801 0.0075503 0.0348 0.015066 0.30981 -0.00062997 -0.00018998
0.0023444 -0.0016323 0.0017302 0.0044216
-0.0017425 0.00053066 2.8138e-05 0.0018162 -0.00057794 -0.00014654 -0.13797 0.24214
-0.018314 0.018193 -0.0061274 -0.0090872
0.0037024 0.0051673 0.003756 0.00064106 0.0025143 -0.0016248 -0.018575 0.018335
-0.16655 0.15647 -0.024769 0.016749
-0.0032197 -0.0028973 0.0030923 8.5732e-05 0.0017976 0.0041643 -0.0059997 -0.0091259
-0.024851 0.016738 -0.19205 0.19342
920000000 -0.10514 0.26277 0.0046741 0.038419 -0.0094174 -0.0053644 -0.001849 0.0016698
0.00083749 0.0018806 0.00307 -0.0013618
0.0045812 0.038341 -0.26714 0.30172 0.028428 0.023192 0.0014023 0.0015549
0.0073696 -0.00029336 0.0041999 -0.002612
-0.0094424 -0.0053711 0.028567 0.023109 0.060449 0.31158 0.0019681 0.00012302
0.0010413 -8.366e-05 0.0010163 -0.0014204
-0.0019739 0.0017541 0.0015101 0.0015214 0.001972 0.00011633 -0.11381 0.25913
-0.011081 0.031664 0.0037742 -0.0070119
0.0012722 0.0020332 0.0074287 -0.00041759 0.001021 -0.000117 -0.010965 0.031461
-0.15694 0.16177 -0.0017114 0.027656
0.0028925 -0.0013375 0.0041477 -0.002706 0.0011125 -0.0013746 0.0037521 -0.0068727
-0.0017587 0.027653 -0.20003 0.20447
980000000 -0.058829 0.28325 0.016754 0.030294 -0.0098131 0.0041351 0.001654 0.003501
0.0038505 -0.0015016 -0.0029573 -0.0025672
0.016707 0.030277 -0.21455 0.33696 0.033875 0.0056667 0.0020114 -0.00012175
0.0018989 -0.0060937 -0.00021919 -0.0026862
-0.009841 0.0041638 0.033854 0.0055909 0.10633 0.30645 0.00075065 -0.0012115
0.00042704 -0.0019297 0.0016457 -0.00030522
0.0017842 0.0036021 0.0019259 -0.00013725 0.00078587 -0.0011566 -0.075326 0.27005
0.0079946 0.030299 -0.0094742 -0.0077192
0.0039883 -0.0014317 0.0019111 -0.0061734 0.00050405 -0.0019813 0.0079317 0.030212
-0.12294 0.19282 0.0051502 0.019335
-0.002858 -0.0025631 -0.00041829 -0.0026961 0.0017285 -0.00033531 -0.0092344 -0.0079003
0.0051877 0.019296 -0.15714 0.2505
1040000000 -0.01786 0.29231 0.033122 0.019345 -0.001777 0.0071714 0.0027099 0.00077476
0.00058332 -0.0032756 -0.00012298 -0.0016361
0.033058 0.019323 -0.17966 0.35059 0.030584 -0.014713 0.0016405 -0.0017792
-0.0024852 -0.0026162 -0.00099973 -0.0028201
-0.0017682 0.0072268 0.030489 -0.014904 0.15258 0.29375 -0.00049573 -0.0016733
-0.0016525 -0.00092471 -0.00063715 -0.0010531
0.0026711 0.00072225 0.001684 -0.0018293 -0.00042295 -0.0017133 -0.048134 0.27988
0.01983 0.019161 -0.0026451 0.001012
0.00034504 -0.0034056 -0.0024114 -0.0026955 -0.001659 -0.00093049 0.019905 0.019142
-0.089877 0.20042 0.014198 0.018875
-7.6535e-05 -0.0017893 -0.00098888 -0.0028558 -0.00062564 -0.0010774 -0.0027069 0.0011139
0.014183 0.018886 -0.13392 0.27073
1100000000 0.026883 0.30204 0.036866 -0.0033957 0.0028065 0.0043239 0.0023678 -0.00099347
-0.0022662 -0.0028927 -0.0040643 -0.00046205
0.036866 -0.0033849 -0.13663 0.36936 0.016213 -0.028605 4.4254e-05 -0.0018338
-0.0038861 -0.00091996 -0.0035884 -0.00054584
0.0028431 0.0043115 0.016114 -0.028682 0.19918 0.27454 -0.0019911 0.00013771
-0.0019234 0.00055183 -0.0012425 -0.00036537
0.0023883 -0.00095605 6.5164e-05 -0.0017689 -0.0020025 0.00014649 -0.0077017 0.28549
0.026005 0.0055054 -0.0026515 4.8541e-05
-0.0021667 -0.0029662 -0.0038026 -0.00090349 -0.0018919 0.00053114 0.025903 0.0053426
-0.070103 0.21384 0.020514 0.0088752
-0.0040202 -0.0002339 -0.003643 -0.00050664 -0.0012307 -0.00039041 -0.0024475 0.0002122
0.020568 0.0088719 -0.08895 0.29923
1160000000 0.077838 0.29866 0.024939 -0.020905 0.0028253 -0.00033534 -0.00013732 -0.0022718
-0.0040947 -0.00083975 -0.00095863 0.0041411
0.024968 -0.020898 -0.093115 0.37466 -0.0034953 -0.030168 -0.0016516 -0.001655
-0.0028247 0.0027368 -0.001553 0.0020139
0.0028373 -0.00031089 -0.0036181 -0.030179 0.24293 0.2441 -0.00086195 0.0018402
-0.00060757 0.0020726 -0.00085736 0.00043942
-0.00015601 -0.0023485 -0.0016617 -0.0016535 -0.00081318 0.0018603 0.032084 0.28287
0.021968 -0.011112 -0.0033017 0.0052277
-0.0041224 -0.00078817 -0.0028199 0.0026953 -0.00065251 0.0020815 0.02198 -0.010989
-0.035876 0.22194 0.019413 -0.00072354
-0.0010251 0.0041659 -0.0015058 0.0020672 -0.00093625 0.00050096 -0.0034794 0.0050742
0.019377 -0.00071281 -0.041575 0.30193
1220000000 0.1218 0.28916 0.0112 -0.0308 -0.0016454 -0.00097278 8.5346e-05 -0.00084318
-0.0029383 0.0023254 0.0011136 0.0020676
0.011209 -0.030801 -0.04858 0.38816 -0.017499 -0.022341 -0.002733 0.00053251
7.3118e-06 0.0033814 -0.00081111 0.0020653
-0.0016582 -0.0009499 -0.017588 -0.022288 0.282 0.20503 0.00079174 0.0018549
0.00070782 0.0013024 0.00034633 0.00063701
9.4327e-05 -0.00082537 -0.002711 0.00054545 0.00083581 0.0018019 0.072095 0.27433
0.01106 -0.01801 0.0019689 0.001381
-0.0028106 0.0022988 5.4764e-05 0.0033326 0.00068865 0.0012551 0.011084 -0.018135
-0.012175 0.23067 0.014465 -0.013671
0.0011635 0.002127 -0.00076504 0.0021146 0.00033836 0.00066561 0.001953 0.0014453
0.014487 -0.013695 -0.010494 0.31818
1280000000 0.17255 0.26935 -0.0080778 -0.029474 -0.0020714 0.0025759 -0.00088379 -0.0020311
-0.00076658 0.0032935 0.0027217 0.0013122
-0.0080242 -0.029454 -0.0017514 0.38013 -0.024892 -0.0089603 -0.00093892 0.0015291
0.0019115 0.0017164 0.00072533 0.0021322
-0.0020346 0.0025821 -0.024953 -0.0088594 0.31239 0.16151 0.0016438 -5.4198e-05
0.0012949 0.00019362 0.00042185 0.00019861
-0.00083206 -0.0021055 -0.00099438 0.0015223 0.0016973 5.3815e-06 0.10939 0.25806
0.00057956 -0.020334 -0.00020628 0.00036909
-0.00090399 0.0032597 0.0018635 0.0017257 0.0013521 0.00026379 0.00051936 -0.020339
0.024686 0.23455 0.0030828 -0.015788
0.002715 0.0012409 0.00074221 0.0021268 0.00038408 0.0002138 -0.00013701 0.00036624
0.0030744 -0.015791 0.037009 0.32055
1340000000 0.2104 0.23659 -0.018228 -0.019455 0.00082108 0.0048911 -0.0018072 -0.00095901
0.0014213 0.0028435 0.0017719 -0.0014466
-0.018203 -0.019444 0.038132 0.3721 -0.022479 0.0044725 -5.8937e-05 0.0020623
0.0020696 0.00071357 0.0012471 0.00081074
0.00083521 0.0048692 -0.022503 0.004584 0.33415 0.11428 0.0010977 -0.00097381
0.00066862 -0.00065675 3.8463e-05 0.00030999
-0.0018053 -0.00089089 -4.1832e-05 0.0020861 0.0011123 -0.0010028 0.14259 0.23686
-0.0095566 -0.017424 0.00078637 0.00074675
0.0014523 0.0028114 0.0021137 0.00068942 0.00068449 -0.00064316 -0.0095783 -0.017374
0.054861 0.22995 -0.0043719 -0.014419
0.0018822 -0.0013796 0.0012632 0.00077633 5.6601e-05 0.00026715 0.00077516 0.00063564
-0.0043674 -0.014434 0.075089 0.31542
1400000000 0.24466 0.19966 -0.024272 -0.0073701 0.0054608 0.0036312 -0.0023344 0.00069226
0.0026708 0.0011182 0.00029665 -0.0017048
-0.024238 -0.0073844 0.075875 0.35942 -0.01548 0.013203 0.0014075 0.0012575
0.0012779 -0.00094343 0.0011469 9.3313e-05
0.0054732 0.0036137 -0.015438 0.013295 0.34696 0.061881 6.2795e-05 -0.001782
0.00018327 -0.00043095 0.00048653 0.00032715
-0.0023022 0.00067215 0.0014312 0.0012518 3.8063e-05 -0.0018135 0.17187 0.20786
-0.015828 -0.0098355 -0.00095325 7.207e-05
0.0026082 0.0010676 0.0012692 -0.00099662 0.0001925 -0.00040102 -0.015855 -0.0097853
0.08855 0.22586 -0.011057 -0.0092735
0.00033952 -0.0017081 0.0011843 6.9869e-05 0.00047486 0.00018936 -0.00094431 0.00011077
-0.01104 -0.0092632 0.11928 0.30448
1460000000 0.26835 0.15585 -0.020858 0.0053378 0.0061325 -0.0016976 -0.0015742 0.001805
0.002376 -0.00049036 -0.00030606 -0.0011138
-0.020851 0.0053068 0.11032 0.33744 -0.005966 0.01632 0.0016631 0.0001638
0.00080119 -0.0013611 0.0012334 -0.00060864
0.0061307 -0.0017314 -0.0058875 0.016375 0.35379 0.0085892 -0.0013909 -0.0013636
5.3276e-05 -0.00026547 0.00069571 -0.0002641
-0.0015831 0.0018028 0.0016839 0.00011164 -0.0013497 -0.0013948 0.1984 0.17859
-0.016734 -0.0023142 -0.00077309 0.0022307
0.0024106 -0.00051471 0.00078984 -0.0013875 6.4954e-05 -0.00029624 -0.01681 -0.0023243
0.11846 0.2119 -0.012743 -0.0028025
-0.00036667 -0.0011048 0.0012384 -0.00064918 0.00076343 -0.00022412 -0.00065772 0.0021731
-0.012769 -0.0027992 0.15255 0.28394
1520000000 0.28126 0.11435 -0.014761 0.010967 0.0037391 -0.0045582 0.00014597 0.0026043
0.0022358 -0.0020164 -0.0012343 -0.00016971
-0.014763 0.010945 0.14364 0.32303 0.0021058 0.013688 0.001617 -0.00084387
-6.5081e-05 -0.0010725 0.00031974 -0.0011029
0.0037188 -0.0045874 0.0021667 0.013711 0.34757 -0.046629 -0.0011276 -0.00024249
0.00058961 -0.00086106 0.00014116 -0.00016113
0.00015868 0.0026403 0.0016116 -0.00081293 -0.0011273 -0.00023803 0.22144 0.14003
-0.015364 0.0039717 0.0017258 0.0021281
0.0021964 -0.0020193 -7.9092e-05 -0.0010327 0.0006016 -0.00087452 -0.015339 0.0040379
0.14671 0.19841 -0.012501 0.0022687
-0.0012199 -0.00014599 0.00030192 -0.0011018 0.00014244 -0.00013505 0.0016766 0.0020601
-0.012498 0.0022718 0.18536 0.26362
1580000000 0.29129 0.068424 -0.0076646 0.014075 -0.00099435 -0.0054608 0.001583 0.0019342
-0.00021295 -0.0023926 -0.00018458 0.0003753
-0.0076765 0.014062 0.17077 0.29864 0.0058929 0.0083383 0.00045361 -0.0015916
-0.00058184 -0.00099156 -0.00023374 -0.00082914
-0.0010315 -0.0054427 0.0059403 0.0083159 0.32892 -0.10386 -0.0015404 0.00068372
-0.00044459 -0.0012188 0.00026755 -0.00063156
0.0015397 0.0019166 0.0004683 -0.0015956 -0.001564 0.00065583 0.23489 0.1008
-0.011088 0.0089479 0.0024669 0.00066766
-0.00027291 -0.002389 -0.00059998 -0.00097268 -0.00043635 -0.0012482 -0.011034 0.0088908
0.17141 0.18053 -0.0095668 0.008187
-0.00022931 0.00032588 -0.00023823 -0.0008294 0.00026743 -0.00059278 0.0024822 0.00069977
-0.0095689 0.0081855 0.21745 0.23773
1640000000 0.29382 0.027225 -0.00064318 0.01242 -0.0031749 -0.0028708 0.0027701 0.00096565
-0.00092328 -0.0016496 -0.0003094 0.00053266
-0.00064736 0.012414 0.20029 0.27429 0.0064619 0.0031257 -0.00064528 -0.0017658
-0.00095843 -0.00036076 -0.00055173 -0.00070195
-0.003199 -0.0028757 0.006479 0.0030877 0.30114 -0.15337 -0.00060701 0.0014984
-0.0011519 -0.00095289 -0.000342 -0.00042576
0.0027665 0.0009677 -0.00063184 -0.0017913 -0.00058789 0.0015404 0.24714 0.052185
-0.0062256 0.0096781 0.0025693 -0.00087956
-0.00095756 -0.0016161 -0.0009483 -0.00036322 -0.0011538 -0.00095294 -0.0062089 0.0097549
0.19485 0.15655 -0.0043359 0.01018
-0.00022536 0.00052537 -0.00058035 -0.00070568 -0.00028528 -0.00040397 0.0025891 -0.0010035
-0.0043455 0.010183 0.24304 0.20657
1700000000 0.28706 -0.017789 0.0027015 0.0091768 -0.0039347 -2.4947e-06 0.0031308 -0.0013524
-0.0020825 -0.00062667 0.00057873 0.00043218
0.0026987 0.0091582 0.21846 0.2435 0.0041768 9.1689e-05 -0.0014623 -0.00060211
-0.00070136 -5.3197e-05 -0.00094398 -0.00046946
-0.0039257 -9.5652e-06 0.004174 5.7308e-05 0.25856 -0.19317 0.00049969 0.0016383
-0.0019577 -2.1737e-05 -0.00055083 -0.00093369
0.0032139 -0.0013317 -0.0014882 -0.00057659 0.00050597 0.0016348 0.2437 0.0026706
-0.003224 0.0094118 0.0016605 -0.0023645
-0.0021055 -0.00060773 -0.00071893 -5.9028e-05 -0.0020226 -1.918e-05 -0.0031673 0.0093966
0.21226 0.13632 0.00066527 0.010336
0.00059327 0.00038628 -0.00092922 -0.00042586 -0.00051073 -0.00096379 0.0016166 -0.0023365
0.0006704 0.010336 0.25976 0.17286
1760000000 0.27568 -0.066013 0.0046948 0.0055381 -0.0025262 0.0010742 0.0013585 -0.0034713
-0.0013179 0.00078168 0.00023769 -0.00053661
0.0046776 0.0055451 0.24493 0.20451 0.0015454 -0.0018826 -0.0012161 0.00018832
-0.0010233 0.00081303 -0.00055855 0.00041451
-0.0024939 0.0011257 0.0015539 -0.0018927 0.21111 -0.22729 0.0011085 0.0010593
-0.0012465 0.0015704 -0.0012388 -0.0006166
0.0012829 -0.0034479 -0.0012249 0.00016599 0.0010875 0.0010042 0.23513 -0.048145
-0.00025729 0.0081032 -0.00018677 -0.0025315
-0.0013233 0.00082322 -0.0010449 0.00083108 -0.0012379 0.0015554 -0.00029997 0.0080786
0.22747 0.10179 0.0046897 0.0073558
0.00027296 -0.00047313 -0.00060638 0.0003692 -0.0012943 -0.00068997 -9.4956e-05 -0.0025846
0.0047104 0.0073499 0.27304 0.1355
1820000000 0.25207 -0.10325 0.0044211 0.002058 -0.0002632 0.0027168 -0.0011181 -0.0031913
-0.0010207 0.0010418 -9.1081e-05 -6.8766e-05
0.004415 0.0020636 0.25563 0.17495 -0.00090663 -0.00045369 -0.001314 0.00091751
-0.00015697 0.0011854 -0.00062163 0.00053653
-0.00023397 0.0027249 -0.00092604 -0.00042966 0.15971 -0.24358 0.0015946 0.00038879
-0.00022851 0.0023732 -0.0015637 0.00045939
-0.0010652 -0.0031837 -0.0013117 0.00091491 0.001493 0.00040735 0.20586 -0.095434
0.00082084 0.0064432 -0.0016736 -0.0017028
-0.0010306 0.0010426 -0.00013787 0.0011705 -0.00025384 0.0023914 0.00086639 0.0064864
0.24456 0.072959 0.0056594 0.0035036
-9.1417e-05 -9.6532e-05 -0.00062305 0.00053491 -0.0015255 0.00038766 -0.0016936 -0.0017005
0.0056879 0.0035132 0.27554 0.098936
1880000000 0.21762 -0.14373 0.0018792 -7.1313e-05 -0.00060111 0.0024074 -0.0028957 -0.0021597
-0.00014765 0.0018587 0.00017571 -0.00054944
0.0018799 -6.592e-05 0.26087 0.12887 -0.0028228 0.0017186 -0.00023191 0.0017547
0.00045513 0.0013774 7.1943e-05 0.0009788
-0.00061528 0.0024 -0.0028392 0.0017143 0.10792 -0.25235 0.0016719 -0.00096008
0.0015781 0.0019636 -0.00090167 0.0016387
-0.0028982 -0.0021742 -0.00020118 0.0017538 0.0017345 -0.0009729 0.1654 -0.1357
0.0011543 0.0044739 -0.0026099 -2.6219e-05
-2.807e-05 0.0017861 0.00045789 0.0013837 0.0016116 0.0019456 0.0010603 0.0044739
0.24855 0.041907 0.0057139 0.00066811
8.2313e-05 -0.00058091 0.00010914 0.00096246 -0.00090978 0.0015669 -0.0024033 2.6715e-05
0.0057053 0.00067157 0.27598 0.065076
1940000000 0.17892 -0.17001 -0.00050881 -0.0014994 0.0015589 0.0020787 -0.0038248 0.00055144
0.0012131 0.00099334 -0.00073424 -0.00055907
-0.00047947 -0.0015063 0.26246 0.097022 -0.0014266 0.0041847 0.00096545 0.0013818
0.0017613 0.00061002 0.00090792 0.0003945
0.0015379 0.0021279 -0.0013982 0.0042114 0.063002 -0.24584 0.00038594 -0.0022133
0.0023778 0.0003659 0.00037942 0.0017949
-0.0038059 0.00050138 0.00093612 0.0013356 0.00042941 -0.0022203 0.11372 -0.16699
0.00019202 0.0033865 -0.0017573 0.0014625
0.0012708 0.00096326 0.0017624 0.0006027 0.0023535 0.00034685 0.00024301 0.0033106
0.25181 0.0039539 0.004174 -0.0028814
-0.00065424 -0.00058395 0.00086224 0.00039384 0.00027555 0.0017816 -0.0017296 0.0014299
0.0041656 -0.0028879 0.26536 0.028424
2000000000 0.13317 -0.18527 -0.0041053 0.00093335 0.002674 0.0017827 -0.0022081 0.0037801
0.0012446 0.00033317 -0.00038265 0.00046332
-0.0041052 0.00092166 0.24889 0.061327 -0.0010742 0.0060318 0.0017466 0.0005722
0.0014807 -0.0010206 0.00053633 0.00013387
0.00263 0.0017282 -0.0010234 0.0060166 0.019131 -0.23221 -0.001161 -0.0013959
0.0021242 -0.0010993 0.001726 0.0015239
-0.0021384 0.0038035 0.0017725 0.00052313 -0.0011499 -0.001428 0.059988 -0.17711
-0.0012859 0.0035647 -0.00030819 0.0022989
0.0013165 0.00034113 0.0015057 -0.0010093 0.0022036 -0.0011335 -0.0012764 0.0036057
