!Keysight Technologies,M9804A,MY58100912,A.14.10.03
!Date: Thursday, April 27, 2023 10:28:33
!Correction: S11(C  6-Port  ) 
!S12(C  6-Port  ) 
!S13(C  6-Port  ) 
!S14(C  6-Port  ) 
!S15(C  6-Port  ) 
!S16(C  6-Port  ) 
!S21(C  6-Port  ) 
!S22(C  6-Port  ) 
!S23(C  6-Port  ) 
!S24(C  6-Port  ) 
!S25(C  6-Port  ) 
!S26(C  6-Port  ) 
!S31(C  6-Port  ) 
!S32(C  6-Port  ) 
!S33(C  6-Port  ) 
!S34(C  6-Port  ) 
!S35(C  6-Port  ) 
!S36(C  6-Port  ) 
!S41(C  6-Port  ) 
!S42(C  6-Port  ) 
!S43(C  6-Port  ) 
!S44(C  6-Port  ) 
!S45(C  6-Port  ) 
!S46(C  6-Port  ) 
!S51(C  6-Port  ) 
!S52(C  6-Port  ) 
!S53(C  6-Port  ) 
!S54(C  6-Port  ) 
!S55(C  6-Port  ) 
!S56(C  6-Port  ) 
!S61(C  6-Port  ) 
!S62(C  6-Port  ) 
!S63(C  6-Port  ) 
!S64(C  6-Port  ) 
!S65(C  6-Port  ) 
!S66(C  6-Port  ) 
!S6P File: Measurement: :
# Hz S  RI   R 50
500000000 -0.33445 -0.057754 -0.011224 -0.0016435 -0.0087456 0.01373 -0.0043291 0.012402
0.013379 0.0046975 -0.0040242 0.00874
-0.011245 -0.0015259 -0.41566 -0.066585 0.0079801 -0.010569 0.00090756 0.012018
0.0081041 0.0029014 0.001212 0.013225
-0.0087606 0.013706 0.0080064 -0.0106 -0.26836 0.19713 0.0067389 0.0039324
-0.0015654 0.0082981 9.3952e-05 0.012098
-0.0043416 0.012259 0.00090131 0.012026 0.0067372 0.0039393 -0.33208 0.040881
-0.018927 -0.0031106 0.015861 0.023812
0.013495 0.0045896 0.0081444 0.0029445 -0.0015555 0.0082966 -0.018942 -0.003128
-0.24379 -0.20108 -0.027353 0.0071115
-0.0039962 0.0084365 0.0012568 0.013246 8.4694e-05 0.012153 0.01582 0.023738
-0.027375 0.0070483 -0.27016 -0.13139
560000000 -0.31982 0.10947 -0.022951 -0.065424 9.4577e-05 0.013845 0.0045285 0.010911
0.010849 0.0062119 0.010124 0.0084342
-0.023002 -0.06538 -0.37612 0.097623 -0.042232 -0.038532 0.0139 0.0030799
-0.013954 -0.0037156 0.0052596 -0.0017504
0.00028918 0.013746 -0.042388 -0.038382 -0.18623 0.24982 -0.0005254 -0.004885
0.018244 0.0067086 0.0080248 -0.006062
0.0044929 0.010969 0.013994 0.0030547 -0.00053652 -0.0048816 -0.30676 0.13363
0.0045795 -0.023728 0.0052519 -0.021222
0.011275 0.0061513 -0.014092 -0.0036166 0.018255 0.0066396 0.0045799 -0.023739
-0.3093 -0.020932 0.0081112 -0.049159
0.010102 0.0085078 0.0052986 -0.0018032 0.0080998 -0.0060464 0.0051848 -0.021229
0.0081177 -0.0491 -0.33307 0.019792
620000000 -0.27868 0.089902 -0.023586 0.0088908 0.0040365 0.0097928 0.0083609 -0.0044988
0.011708 -0.0012191 0.00044397 -0.001959
-0.023585 0.0088943 -0.40386 0.046192 -0.018499 0.00090387 -0.0016142 -0.0018843
0.01252 -0.006282 0.00086115 -0.0028343
0.004018 0.009754 -0.018541 0.00093125 -0.15606 0.25859 -0.00075912 -0.0051137
-0.003152 -0.0027058 0.0099435 -0.0034514
0.008346 -0.0045485 -0.0016204 -0.0019311 -0.00074353 -0.0051276 -0.26545 0.14497
-0.039719 -0.019817 0.01361 0.028275
0.011705 -0.0012348 0.012552 -0.0062902 -0.0031585 -0.002703 -0.039735 -0.019748
-0.22811 -0.056339 -0.044153 0.011843
0.00056194 -0.0019705 0.00090994 -0.0028482 0.010027 -0.0034497 0.013625 0.028189
-0.044154 0.011876 -0.24872 -0.012953
680000000 -0.2415 0.18171 -0.026587 -0.014539 0.0049474 0.0052997 0.0013467 -0.0078137
-0.0016966 -0.011817 0.0055196 -0.007231
-0.026586 -0.014531 -0.39076 0.14754 -0.032489 -0.002105 -0.0014721 -0.00058281
-0.0016418 -0.0089994 -0.0011132 -0.0020245
0.0049504 0.0053225 -0.032523 -0.002028 -0.10462 0.27995 -0.00067364 -0.0004669
-0.0016397 0.00054683 -0.0024372 -0.0094949
0.0013813 -0.0077005 -0.0014475 -0.00060034 -0.00068736 -0.00047061 -0.22052 0.19624
-0.023516 -0.0082321 -0.0088064 -0.010841
-0.0018133 -0.011783 -0.0016727 -0.0089984 -0.001634 0.00056098 -0.02354 -0.008166
-0.28072 0.049078 -0.0057462 -0.0075895
0.005496 -0.0072881 -0.0010792 -0.0019892 -0.0024109 -0.0095155 -0.008737 -0.010782
-0.005763 -0.0075883 -0.26201 0.092208
740000000 -0.19436 0.17594 -0.040056 0.027134 0.014195 -0.0047498 -4.0499e-05 -0.0041269
-0.0043405 -0.0029813 -0.0062621 0.0028235
-0.039923 0.027168 -0.33582 0.16577 -0.037059 0.035109 -0.00030157 -0.0062139
-0.011107 0.0073017 -0.0019421 -0.0060029
0.014235 -0.0047267 -0.037026 0.035264 -0.070855 0.27684 -0.0017939 0.0031339
-0.0025615 -0.0052746 -0.001395 0.00066846
-0.00010809 -0.0041625 -0.00026226 -0.0062454 -0.0017879 0.0031258 -0.2042 0.20328
-0.042122 -0.007515 0.022176 0.015413
-0.0043032 -0.00269 -0.011189 0.0073409 -0.0025497 -0.0052624 -0.042147 -0.0074704
-0.17947 0.074265 -0.04137 0.001249
-0.0062619 0.0028955 -0.0019473 -0.0060869 -0.0013726 0.00066296 0.022167 0.015425
-0.041387 0.001258 -0.25053 0.096598
800000000 -0.16304 0.21939 -0.022195 0.01622 0.0060101 -0.010881 -0.0042345 -0.0023695
-0.0047411 0.0018928 0.0048128 0.0002476
-0.022165 0.016243 -0.34225 0.23714 -0.0085902 0.034304 -0.0021913 0.0020133
-0.0012797 0.0026492 0.0010152 0.0052286
0.0059487 -0.010907 -0.0084841 0.034352 -0.032426 0.30117 0.00086987 0.0014204
-7.9724e-05 0.0034567 -0.0017058 0.00083487
-0.004292 -0.0022942 -0.0021888 0.0020399 0.0008686 0.0014227 -0.17461 0.23082
-0.028729 0.013486 0.01437 -0.010503
-0.004766 0.0018927 -0.0012976 0.0026566 -8.4297e-05 0.0034717 -0.028719 0.013539
-0.22413 0.10405 -0.017572 0.020451
0.0047253 0.00023897 0.0010498 0.0052506 -0.0017017 0.00085497 0.014355 -0.010516
-0.017546 0.020436 -0.24187 0.14514
860000000 -0.12862 0.23953 -0.017862 0.030356 -0.0026814 -0.010769 -0.0016753 0.00047419
0.0039994 0.00539 -0.0033761 -0.0032246
-0.017914 0.030348 -0.29415 0.27997 0.0074327 0.034802 7.4474e-05 0.0019237
0.0038208 0.00045287 0.003089 0.00017855
-0.0027243 -0.010776 0.0075522 0.034795 0.015069 0.30983 -0.00050233 -0.00010539
0.0024277 -0.0017461 0.0017481 0.004227
-0.0016858 0.0005033 7.7145e-05 0.0019375 -0.00050243 -9.5097e-05 -0.1379 0.24226
-0.018433 0.018246 -0.0056963 -0.0091888
0.003946 0.0054212 0.0038355 0.00043667 0.002429 -0.0017494 -0.018421 0.018286
-0.16671 0.15666 -0.024595 0.016723
-0.0034412 -0.0031725 0.003052 0.00019592 0.0017478 0.0042081 -0.0056557 -0.0091842
-0.02461 0.016695 -0.19146 0.19267
920000000 -0.10534 0.26272 0.0045558 0.038434 -0.0094528 -0.0054317 -0.0020595 0.0016321
0.00099725 0.0021414 0.0028508 -0.0014953
0.0045279 0.038392 -0.2672 0.30184 0.028423 0.023237 0.0013896 0.0015773
0.0076823 -0.00036021 0.0040325 -0.0026275
-0.009482 -0.0054122 0.028548 0.023152 0.060364 0.31158 0.0018643 0.00011237
0.0011074 -0.00021487 0.0010101 -0.0013858
-0.0020618 0.0016279 0.0014186 0.0015897 0.0018616 0.00011832 -0.11391 0.25903
-0.011089 0.031311 0.0037845 -0.0070611
0.0010108 0.0021213 0.0077026 -0.00040524 0.0011156 -0.00021317 -0.011026 0.031337
-0.15742 0.16224 -0.0016072 0.027113
0.0028575 -0.001478 0.0040353 -0.0026413 0.0010198 -0.0013893 0.0037935 -0.0070396
-0.0016252 0.027102 -0.20012 0.20429
980000000 -0.058979 0.28318 0.016802 0.030329 -0.0097904 0.0041315 0.0016989 0.0035986
0.004093 -0.001444 -0.0027644 -0.0024802
0.016788 0.030305 -0.21461 0.33681 0.033824 0.0056329 0.0020411 -0.00014802
0.0019705 -0.0061397 -0.00019115 -0.0027289
-0.0097833 0.0041827 0.033909 0.00552 0.10631 0.30647 0.00080228 -0.0011377
0.00048465 -0.0019048 0.0016447 -0.00027203
0.0017659 0.003578 0.0020397 -0.0001333 0.00079496 -0.0011391 -0.075396 0.27001
0.0079783 0.030356 -0.0091634 -0.0077074
0.0040783 -0.0014828 0.0019449 -0.006182 0.00048343 -0.0019004 0.0080356 0.030356
-0.12305 0.19262 0.005397 0.019544
-0.0027984 -0.0025337 -0.00022643 -0.0027226 0.0016325 -0.00027777 -0.0091876 -0.0076904
0.0053834 0.019526 -0.15723 0.24987
1040000000 -0.017862 0.29244 0.033094 0.019399 -0.0018032 0.0072511 0.0026808 0.00068519
0.00034309 -0.0033321 -3.307e-05 -0.0016972
0.033064 0.019403 -0.17966 0.35053 0.030559 -0.014774 0.0016662 -0.0018262
-0.0023436 -0.0027193 -0.001004 -0.002819
-0.0017936 0.0072609 0.030554 -0.014932 0.15258 0.29374 -0.00042171 -0.0016914
-0.0016509 -0.00092983 -0.00057496 -0.0010821
0.0026744 0.00070138 0.0016817 -0.0018214 -0.00041962 -0.0016863 -0.048144 0.27994
0.019933 0.019239 -0.0025574 0.0010586
0.00033637 -0.0033277 -0.0023621 -0.0027337 -0.0016501 -0.00093521 0.019995 0.019219
-0.08991 0.20027 0.014169 0.018688
-7.0751e-05 -0.0016996 -0.0010254 -0.0027969 -0.000575 -0.0010877 -0.0025635 0.0010637
0.014144 0.018711 -0.13423 0.27058
1100000000 0.026812 0.30201 0.036914 -0.0034337 0.0028148 0.0043432 0.0023987 -0.00095368
-0.0020537 -0.0029512 -0.0039732 -0.00026854
0.036856 -0.0033863 -0.1366 0.36928 0.016229 -0.028561 3.7534e-05 -0.001808
-0.003737 -0.00092285 -0.0036003 -0.00050108
0.0028209 0.0043401 0.01614 -0.02867 0.19911 0.27455 -0.0019714 0.00010223
-0.001933 0.00051981 -0.0012295 -0.00051402
0.0023867 -0.00096221 3.6267e-05 -0.0018078 -0.0019777 0.00010632 -0.0077721 0.28544
0.02587 0.0055243 -0.0025604 6.5785e-05
-0.0020652 -0.0029429 -0.0037618 -0.00089842 -0.0019141 0.00052952 0.025902 0.0054855
-0.069869 0.21383 0.020361 0.0089447
-0.0039915 -0.00026774 -0.0036158 -0.00049269 -0.001219 -0.00051582 -0.0025529 6.6786e-05
0.020346 0.0089414 -0.088875 0.29878
1160000000 0.077773 0.29857 0.024993 -0.020942 0.00285 -0.00029399 -0.00019074 -0.002353
-0.004113 -0.00090711 -0.0011308 0.0042787
0.024993 -0.02086 -0.093085 0.37466 -0.0034771 -0.03018 -0.0017476 -0.0016452
-0.0028854 0.0027029 -0.0015901 0.0020842
0.0028442 -0.00031713 -0.0035959 -0.030201 0.24296 0.24413 -0.0008305 0.0018993
-0.00066981 0.0020773 -0.00095835 0.00042417
-0.00022139 -0.0023695 -0.0017425 -0.0016337 -0.0008309 0.0018943 0.031944 0.2829
0.022067 -0.011037 -0.0033683 0.0051261
-0.0041139 -0.00090238 -0.0028953 0.0027175 -0.00066805 0.0020759 0.022078 -0.011071
-0.03587 0.22185 0.019463 -0.00060306
-0.0010689 0.0042504 -0.001574 0.0021113 -0.00095758 0.00041485 -0.003378 0.0051246
0.019463 -0.00060959 -0.042291 0.3017
1220000000 0.12173 0.28926 0.011227 -0.030832 -0.001655 -0.00096168 0.00011245 -0.00080818
-0.0028019 0.0022244 0.0010659 0.0021215
0.011229 -0.030761 -0.048666 0.38811 -0.017502 -0.022339 -0.0026695 0.00054568
3.476e-05 0.0033263 -0.00079125 0.0021302
-0.0016536 -0.00094608 -0.01762 -0.022286 0.28198 0.20508 0.00083945 0.0018175
0.00064839 0.0013045 0.00039374 0.00064125
0.00010831 -0.00080701 -0.002677 0.00055856 0.00083433 0.0018169 0.072059 0.27424
0.011142 -0.018174 0.002036 0.0013295
-0.0028031 0.0022429 4.7674e-05 0.0033243 0.0006509 0.0012991 0.011127 -0.018209
-0.012265 0.2308 0.014379 -0.013782
0.0010946 0.0021213 -0.00080455 0.0021402 0.00038997 0.00063871 0.0020543 0.0013373
0.01439 -0.013781 -0.01085 0.31795
1280000000 0.17246 0.2694 -0.0080414 -0.029499 -0.0020345 0.00254 -0.00084775 -0.0020779
-0.00089486 0.0032582 0.0026252 0.0012895
-0.0080246 -0.029451 -0.0018713 0.38008 -0.024899 -0.0089585 -0.00098116 0.0015452
0.0018658 0.0017496 0.00066754 0.002135
-0.0020294 0.0025449 -0.02497 -0.0088473 0.31234 0.16158 0.001697 -3.7026e-06
0.0013423 0.00028836 0.00042108 0.00020025
-0.00084789 -0.002088 -0.00097199 0.0015457 0.0016927 -1.9129e-06 0.10927 0.25809
0.00059096 -0.020471 -0.00017921 0.00034078
-0.00088282 0.0032648 0.0018829 0.0017378 0.001352 0.0002873 0.00054679 -0.020501
0.024531 0.23447 0.0029659 -0.015867
0.0026748 0.0012626 0.0006857 0.0021183 0.00042572 0.00019931 -0.000179 0.00033294
0.0029772 -0.015873 0.036741 0.32046
1340000000 0.21029 0.23665 -0.018203 -0.019436 0.00080811 0.0049114 -0.0018058 -0.00091663
0.0014689 0.0028509 0.0018764 -0.0013958
-0.018174 -0.019433 0.038104 0.3721 -0.02247 0.0044987 -5.8498e-05 0.0020932
0.0020889 0.00073739 0.0012325 0.00083151
0.00084686 0.0048818 -0.022473 0.004619 0.33421 0.11434 0.0011158 -0.0010072
0.00065484 -0.00061228 1.8295e-05 0.00031727
-0.0018141 -0.00089955 -4.6804e-05 0.0020858 0.0011104 -0.00099784 0.14239 0.23688
-0.0095212 -0.017467 0.00073148 0.00067487
0.0014754 0.0028455 0.0020971 0.00073007 0.00065214 -0.00061116 -0.009585 -0.017473
0.054985 0.22994 -0.0044462 -0.014544
0.0018768 -0.0014124 0.0012506 0.00082511 9.9305e-06 0.00031798 0.00073222 0.00068698
-0.0044468 -0.014554 0.074951 0.31536
1400000000 0.2446 0.19971 -0.024258 -0.0074068 0.0054721 0.0036139 -0.0023237 0.00064372
0.002603 0.0011185 0.00030382 -0.0017072
-0.024224 -0.0074154 0.075744 0.35939 -0.015485 0.013186 0.00138 0.0012587
0.0012504 -0.00092284 0.0012289 7.6859e-05
0.0054986 0.0035872 -0.01544 0.013287 0.34693 0.061894 2.4069e-05 -0.0018112
0.0001929 -0.00038163 0.00045835 0.00017941
-0.0023051 0.00065463 0.0013867 0.0012509 3.2569e-05 -0.00182 0.17176 0.20799
-0.015875 -0.0098567 -0.00090897 5.4916e-05
0.0026179 0.0010991 0.0012517 -0.00093248 0.00018817 -0.00039186 -0.015929 -0.0098151
0.088432 0.22563 -0.010992 -0.0091916
0.00030736 -0.00171 0.0012402 6.5227e-05 0.0004647 0.00018151 -0.00089465 5.2803e-05
-0.010985 -0.0092185 0.11891 0.30446
1460000000 0.26822 0.15594 -0.020868 0.0053519 0.0061706 -0.0017093 -0.0015583 0.0018215
0.0023701 -0.00047412 -0.00029488 -0.0010393
-0.020849 0.0053254 0.11023 0.33742 -0.0059505 0.01631 0.0016944 0.0001373
0.00079595 -0.001432 0.001237 -0.00059676
0.0061347 -0.0017291 -0.0058771 0.016372 0.35379 0.0087216 -0.0013835 -0.0013748
4.5988e-05 -0.00028558 0.00072986 -0.0001747
-0.0015514 0.0018293 0.0016936 0.00013686 -0.0013794 -0.0013761 0.19829 0.17863
-0.016869 -0.0024087 -0.00078246 0.0022471
0.0023979 -0.00048653 0.00078633 -0.0014465 4.6062e-05 -0.00029011 -0.016908 -0.0023486
0.11824 0.21171 -0.012871 -0.0028332
-0.00030292 -0.0010654 0.0012417 -0.00061442 0.00072617 -0.00017359 -0.00077807 0.0022378
-0.012875 -0.0028292 0.15241 0.28404
1520000000 0.28112 0.11435 -0.014785 0.010946 0.0037184 -0.0045038 0.0001559 0.0026519
0.0022194 -0.0020175 -0.0011928 -0.00013344
-0.014784 0.01092 0.14355 0.323 0.0021107 0.013684 0.0016173 -0.00080957
-5.4865e-05 -0.0010482 0.00030014 -0.0010925
0.0037047 -0.0045729 0.0021904 0.013684 0.34766 -0.046665 -0.0011507 -0.00029546
0.00061244 -0.00087996 0.00011006 -0.0001371
0.00015662 0.0026579 0.0016203 -0.00082178 -0.001146 -0.00029049 0.22126 0.14012
-0.015437 0.0039963 0.0016973 0.0022152
0.0022052 -0.0020421 -6.1321e-05 -0.0010457 0.00061499 -0.00089151 -0.015445 0.0040683
0.14643 0.19834 -0.012493 0.002301
-0.0012015 -0.00014119 0.00029347 -0.0010934 0.00010834 -0.00014163 0.0016972 0.002213
-0.012493 0.0022979 0.18528 0.26368
1580000000 0.29119 0.068553 -0.007662 0.014084 -0.0010005 -0.005428 0.001558 0.0019303
-0.00025988 -0.0023803 -0.00020218 0.00036099
-0.0076664 0.014078 0.17071 0.29867 0.00589 0.0083812 0.00049653 -0.001588
-0.00059944 -0.00096111 -0.00023176 -0.00084258
-0.0010048 -0.0054441 0.005956 0.0083489 0.32882 -0.10382 -0.0015658 0.00069435
-0.00037355 -0.0012105 0.00025521 -0.00058904
0.0015618 0.0019089 0.00047619 -0.0015892 -0.0015659 0.0006958 0.23486 0.10093
-0.011133 0.0089253 0.002482 0.00069317
-0.00028506 -0.0023882 -0.00060761 -0.00095424 -0.00037294 -0.0012142 -0.011119 0.0089891
0.17111 0.18056 -0.0096775 0.0082153
-0.00019931 0.00036693 -0.00023763 -0.00084 0.00025925 -0.00059311 0.0024914 0.00069512
-0.0096712 0.008215 0.21719 0.2378
1640000000 0.29375 0.027372 -0.00064063 0.012403 -0.0031898 -0.0029214 0.0027151 0.00097781
-0.00092229 -0.0016754 -0.0002355 0.00052826
-0.00063986 0.012419 0.2002 0.27431 0.0064655 0.0031309 -0.00062453 -0.0017986
-0.00095142 -0.00035867 -0.00054989 -0.00067804
-0.0032101 -0.0028782 0.006477 0.0030865 0.30129 -0.15318 -0.00056578 0.0014816
-0.0010968 -0.0010037 -0.00029946 -0.00032998
0.0027516 0.00096594 -0.00063967 -0.0017905 -0.00056398 0.0014791 0.24705 0.052244
-0.0062881 0.0097099 0.0026223 -0.00094135
-0.00093613 -0.0016739 -0.00095979 -0.00034025 -0.0010945 -0.0010069 -0.0062466 0.0097416
0.19457 0.15663 -0.0043653 0.010258
-0.00024682 0.00053755 -0.00056324 -0.00066894 -0.00031415 -0.00033851 0.0026264 -0.00094066
-0.0043747 0.010253 0.243 0.20684
1700000000 0.28696 -0.017621 0.0026897 0.0091419 -0.003915 -2.6042e-06 0.0032147 -0.0013039
-0.0020946 -0.00062556 0.00053121 0.00039193
0.0026944 0.0091558 0.21836 0.24358 0.0041675 7.9576e-05 -0.0014524 -0.00057828
-0.00069031 -4.0621e-05 -0.00095215 -0.00048314
-0.0039017 4.2452e-05 0.0041772 6.3388e-05 0.25857 -0.19332 0.00046884 0.0016607
-0.0019918 7.5265e-06 -0.00049653 -0.0010111
0.0031986 -0.0013383 -0.0014576 -0.00057729 0.00047254 0.0016611 0.24376 0.0027942
-0.0031871 0.0095033 0.0016591 -0.0023719
-0.002109 -0.00062771 -0.00069329 -3.5836e-05 -0.0019966 1.7613e-05 -0.0031422 0.0095276
0.21204 0.13659 0.0006473 0.010215
0.00055905 0.00040381 -0.00093948 -0.00047689 -0.00048224 -0.0010107 0.0016578 -0.0023888
0.00063524 0.01021 0.25957 0.17304
1760000000 0.27573 -0.06576 0.0046757 0.0055536 -0.0024854 0.0010734 0.0013287 -0.0034858
-0.0013465 0.00082367 0.00029602 -0.00049727
0.0046747 0.0055524 0.24483 0.20459 0.0015759 -0.0018657 -0.0012029 0.000161
-0.0010282 0.0008521 -0.00059407 0.00040003
-0.0024845 0.0011481 0.00157 -0.0018689 0.21113 -0.22709 0.0010789 0.0010011
-0.0012228 0.0015593 -0.0013544 -0.00067901
0.0013208 -0.0034851 -0.0012052 0.00015693 0.0010801 0.00099367 0.23523 -0.0481
-0.00025489 0.0081301 -9.7956e-05 -0.0025642
-0.0013445 0.0008252 -0.001022 0.00085874 -0.0012235 0.001571 -0.00021483 0.0081297
0.22726 0.10212 0.0047149 0.007424
0.00027888 -0.00047197 -0.00058961 0.00040345 -0.0013574 -0.00069147 -9.5074e-05 -0.0025632
0.004712 0.0074175 0.2729 0.13568
1820000000 0.25213 -0.10303 0.0044399 0.0020764 -0.00026936 0.0027206 -0.0010863 -0.0031267
-0.0010812 0.0010553 -6.4631e-05 -0.00013713
0.0044367 0.0020724 0.25561 0.1751 -0.00094014 -0.00045409 -0.0013075 0.00091119
-0.00014563 0.0011731 -0.00061713 0.00051148
-0.00024409 0.0027292 -0.00094404 -0.00044241 0.15984 -0.24355 0.0015496 0.00037219
-0.00026481 0.0023711 -0.0014879 0.00046738
-0.0010736 -0.0031616 -0.0013059 0.00091977 0.0015483 0.00037043 0.20576 -0.095317
0.00082248 0.0065206 -0.0016208 -0.0017814
-0.0010537 0.0010519 -0.0001349 0.0011677 -0.00026082 0.0023623 0.00085536 0.0065048
0.24442 0.073323 0.005733 0.0035147
-5.7036e-05 -8.8667e-05 -0.00060858 0.0005211 -0.0014877 0.00047883 -0.0016343 -0.0017833
0.0057154 0.0035145 0.27552 0.09916
1880000000 0.21776 -0.14345 0.0018931 -3.6935e-05 -0.00061954 0.0024033 -0.0029408 -0.0022012
-9.8531e-05 0.0018294 0.00023823 -0.00051348
0.0018945 -5.9369e-05 0.26083 0.12901 -0.0028715 0.0017037 -0.00020848 0.0017231
0.00044737 0.0013469 5.5237e-05 0.00098739
-0.00060461 0.0023581 -0.0028606 0.0017336 0.10771 -0.25231 0.0017903 -0.00093467
0.0015258 0.0019461 -0.00104 0.0014487
-0.0029646 -0.0021694 -0.00020403 0.0017204 0.0017861 -0.00092615 0.16565 -0.13558
0.0012225 0.0044693 -0.0025789 -3.9929e-05
-8.6692e-05 0.0018264 0.00045368 0.0013466 0.001526 0.0019535 0.0012351 0.004449
0.24848 0.042237 0.005694 0.00070125
0.00021193 -0.00052811 6.0497e-05 0.00098861 -0.0010517 0.0014402 -0.0025881 -2.5169e-05
0.0056707 0.00070027 0.27576 0.065199
1940000000 0.17913 -0.16988 -0.00046824 -0.0014779 0.0015191 0.0020845 -0.0038833 0.00053069
0.0012268 0.00093353 -0.00076501 -0.00064483
-0.00045757 -0.0014779 0.26245 0.097121 -0.0014231 0.0041678 0.00092675 0.0013579
0.0017663 0.00060524 0.00088939 0.00032792
0.0015254 0.0021219 -0.0013958 0.0041826 0.063038 -0.24577 0.00043239 -0.0022294
0.0023765 0.00035695 0.00033883 0.0017678
-0.0038565 0.00056043 0.00094087 0.0013575 0.00044468 -0.0022413 0.11356 -0.16678
0.00023293 0.0033265 -0.0017647 0.0013058
0.0012421 0.00093678 0.0017675 0.00058072 0.002391 0.0003562 0.00023206 0.003306
0.25185 0.0043147 0.0041373 -0.0028061
-0.00077725 -0.00058803 0.00089445 0.00033321 0.00033826 0.001772 -0.0017666 0.0013128
0.0041381 -0.0028004 0.26525 0.028615
2000000000 0.13329 -0.18517 -0.0041362 0.00088567 0.0026382 0.0017994 -0.0022281 0.0037145
0.0013222 0.0003015 -0.00039537 0.0005016
-0.0041464 0.00091862 0.24886 0.061421 -0.0011241 0.0059957 0.0017621 0.00052692
0.0014735 -0.00096497 0.00051348 0.00014279
0.0026093 0.0017613 -0.0010846 0.0060131 0.019178 -0.23242 -0.0011528 -0.0013932
0.0021162 -0.0010928 0.0017351 0.0015505
-0.0021543 0.0037292 0.0017652 0.00052287 -0.0011574 -0.0013866 0.060168 -0.1772
-0.0012959 0.003455 -0.00050229 0.0023478
0.0013169 0.00027143 0.0014554 -0.00097536 0.0021115 -0.0010901 -0.001303 0.0034526
0.24706 -0.028667 0.00060324 -0.0036536
