!Keysight Technologies,M9804A,MY58100912,A.14.10.03
!Date: Thursday, April 27, 2023 10:28:33
!Correction: S11(C  6-Port  ) 
!S12(C  6-Port  ) 
!S13(C  6-Port  ) 
!S14(C  6-Port  ) 
!S15(C  6-Port  ) 
!S16(C  6-Port  ) 
!S21(C  6-Port  ) 
!S22(C  6-Port  ) 
!S23(C  6-Port  ) 
!S24(C  6-Port  ) 
!S25(C  6-Port  ) 
!S26(C  6-Port  ) 
!S31(C  6-Port  ) 
!S32(C  6-Port  ) 
!S33(C  6-Port  ) 
!S34(C  6-Port  ) 
!S35(C  6-Port  ) 
!S36(C  6-Port  ) 
!S41(C  6-Port  ) 
!S42(C  6-Port  ) 
!S43(C  6-Port  ) 
!S44(C  6-Port  ) 
!S45(C  6-Port  ) 
!S46(C  6-Port  ) 
!S51(C  6-Port  ) 
!S52(C  6-Port  ) 
!S53(C  6-Port  ) 
!S54(C  6-Port  ) 
!S55(C  6-Port  ) 
!S56(C  6-Port  ) 
!S61(C  6-Port  ) 
!S62(C  6-Port  ) 
!S63(C  6-Port  ) 
!S64(C  6-Port  ) 
!S65(C  6-Port  ) 
!S66(C  6-Port  ) 
!S6P File: Measurement: :
# Hz S  RI   R 50
500000000 -0.33448 -0.058949 -0.010516 -0.0018504 -0.0088289 0.013565 -0.0044653 0.011884
0.013404 0.0047305 -0.0042918 0.0081162
-0.010516 -0.0018653 -0.4164 -0.067044 0.0078303 -0.0097496 0.0013676 0.011727
0.0080102 0.0029107 0.0012552 0.013078
-0.0087979 0.013535 0.0078182 -0.009768 -0.26826 0.19694 0.0065228 0.0034741
-0.0024677 0.008553 -0.00034742 0.011769
-0.0044834 0.011908 0.0013887 0.011762 0.0065241 0.0034782 -0.33216 0.042105
-0.019331 -0.0050089 0.016863 0.026605
0.013418 0.0047081 0.0079961 0.0028637 -0.0025332 0.0085638 -0.019322 -0.0049999
-0.24109 -0.20528 -0.027393 0.0041738
-0.0043776 0.0080269 0.001268 0.01308 -0.00039543 0.011738 0.016865 0.026678
-0.027345 0.0042061 -0.26623 -0.12954
560000000 -0.31949 0.10837 -0.023534 -0.065511 -0.00013289 0.013182 0.0045122 0.011751
0.010219 0.0050462 0.0093699 0.0088925
-0.02344 -0.065444 -0.37503 0.096441 -0.042082 -0.038397 0.014083 0.003598
-0.013083 -0.0042372 0.0044393 -0.00086588
-0.00015829 0.01317 -0.042222 -0.038328 -0.18656 0.24926 -0.00042884 -0.0042178
0.018797 0.0054402 0.0070254 -0.0054266
0.0045456 0.011779 0.014159 0.0035508 -0.00040604 -0.0042021 -0.30823 0.13429
0.0061666 -0.022194 0.0041891 -0.021804
0.010191 0.0050137 -0.013009 -0.0041679 0.018747 0.0053406 0.0061745 -0.022218
-0.30609 -0.026269 0.0087949 -0.047429
0.0094654 0.0088095 0.0043711 -0.00089806 0.0071126 -0.0054274 0.0041656 -0.021837
0.0088164 -0.047439 -0.33368 0.016669
620000000 -0.27897 0.089031 -0.023581 0.009333 0.0041305 0.0098546 0.0083734 -0.0040382
0.011888 -0.0016433 0.00054061 -0.0016279
-0.023559 0.009363 -0.40401 0.044844 -0.018243 0.00089218 -0.0015682 -0.0019819
0.012353 -0.0060218 0.0011462 -0.0028196
0.0041198 0.0098715 -0.018271 0.00093966 -0.1561 0.25872 -0.00059662 -0.004922
-0.0035111 -0.0030055 0.010094 -0.0020978
0.0083993 -0.0040608 -0.0015698 -0.0019923 -0.00059522 -0.0049557 -0.26538 0.14476
-0.039244 -0.019626 0.012892 0.027959
0.011886 -0.0016406 0.012381 -0.0060538 -0.0035217 -0.0029427 -0.039248 -0.019594
-0.22831 -0.058853 -0.041537 0.01161
0.00057249 -0.0015281 0.001147 -0.0028421 0.01011 -0.0021467 0.012941 0.027934
-0.041639 0.0116 -0.2508 -0.016205
680000000 -0.24185 0.18089 -0.026275 -0.014802 0.0053551 0.0052097 0.00149 -0.0070925
-0.001163 -0.012042 0.0048134 -0.0070485
-0.026233 -0.014789 -0.39101 0.14718 -0.032173 -0.0022437 -0.0016593 -0.00035864
-0.0014087 -0.0092806 -0.00089479 -0.001771
0.0053708 0.0051952 -0.032217 -0.0021623 -0.1046 0.27992 -0.00087006 -0.00033173
-0.001401 0.0003527 -0.0026282 -0.0094481
0.0014227 -0.0070996 -0.0016645 -0.00035282 -0.00088457 -0.00035102 -0.22066 0.19712
-0.023373 -0.0071139 -0.0084686 -0.011961
-0.0012139 -0.012049 -0.0014492 -0.0092747 -0.0014142 0.0003505 -0.023379 -0.0070832
-0.28133 0.045677 -0.0067589 -0.0070611
0.0048399 -0.0070843 -0.00091615 -0.0017655 -0.0026542 -0.0094569 -0.0084785 -0.01197
-0.0067836 -0.0070887 -0.26055 0.087701
740000000 -0.19445 0.17491 -0.040056 0.027103 0.014321 -0.0045151 0.00016654 -0.0043095
-0.0044651 -0.0025715 -0.0061845 0.0025761
-0.040015 0.027024 -0.33579 0.16583 -0.037316 0.03466 0.00030469 -0.0062959
-0.012965 0.0074115 -0.00020947 -0.0057627
0.014322 -0.0045649 -0.037277 0.03479 -0.070393 0.27629 -0.0018804 0.0034094
-0.0022557 -0.0057368 -0.001724 0.00097283
0.00019652 -0.0043403 0.00031708 -0.006309 -0.0018734 0.0033928 -0.20382 0.20375
-0.042641 -0.008803 0.022672 0.016381
-0.0043581 -0.0025829 -0.012949 0.0075142 -0.0022938 -0.0057609 -0.042648 -0.0087645
-0.18012 0.074642 -0.042777 -0.00028592
-0.0062413 0.0025898 -0.00023508 -0.0057476 -0.0017386 0.0009136 0.022701 0.016338
-0.042748 -0.00038293 -0.25044 0.094255
800000000 -0.16359 0.21891 -0.022203 0.016309 0.0059604 -0.010796 -0.0042098 -0.0023741
-0.0046633 0.0019678 0.0044818 5.6647e-05
-0.022182 0.016271 -0.34248 0.23672 -0.0085338 0.034055 -0.0021309 0.0019525
-0.0013574 0.0025396 0.001128 0.0052929
0.0059262 -0.010809 -0.0084321 0.034121 -0.032197 0.30069 0.00079524 0.0014684
-9.7611e-06 0.0033717 -0.0018092 0.00081975
-0.0042251 -0.0023699 -0.0021371 0.0019713 0.00079525 0.0014781 -0.17451 0.23114
-0.028031 0.013039 0.014148 -0.0103
-0.0046845 0.0019841 -0.0013522 0.0025606 -5.7134e-06 0.0033605 -0.028041 0.013097
-0.22547 0.10163 -0.017103 0.019864
0.0045284 7.8348e-05 0.0011258 0.0053159 -0.00178 0.00084331 0.014143 -0.010328
-0.017103 0.01988 -0.2442 0.14351
860000000 -0.1288 0.23937 -0.017932 0.030371 -0.0028086 -0.010517 -0.0018278 0.00060831
0.0035546 0.0055812 -0.0033214 -0.00308
-0.01793 0.030324 -0.29407 0.27963 0.0072588 0.034599 -6.9774e-05 0.002024
0.0033641 0.00085189 0.0032566 0.00014091
-0.0028432 -0.010508 0.0073901 0.03462 0.015306 0.30933 -0.00062004 -6.4965e-05
0.002203 -0.0014905 0.0016411 0.0040078
-0.0018088 0.00060655 -6.8452e-05 0.0020628 -0.0006295 -5.4379e-05 -0.13751 0.24223
-0.018385 0.017916 -0.0060065 -0.0092094
0.0035767 0.0055516 0.0033487 0.00079525 0.0022218 -0.0015158 -0.01835 0.01794
-0.16872 0.1564 -0.024528 0.016598
-0.0033537 -0.0030721 0.0032603 0.00010679 0.0016578 0.0040164 -0.0060083 -0.0092005
-0.024517 0.016555 -0.19189 0.18938
920000000 -0.10582 0.26203 0.0045985 0.03842 -0.0093225 -0.0052904 -0.0021146 0.0015835
0.00075751 0.0024736 0.0028937 -0.0013514
0.0046044 0.038377 -0.2672 0.3012 0.0282 0.023094 0.001392 0.0013223
0.0075537 0.00035572 0.0046221 -0.0026572
-0.0093573 -0.0052557 0.028314 0.023021 0.060286 0.3108 0.0018911 0.00010023
0.0010003 -0.00015532 0.00097071 -0.0013075
-0.0021201 0.0015905 0.0013787 0.0013269 0.0018846 0.00010255 -0.11371 0.25847
-0.011014 0.030706 0.0039916 -0.0068013
0.0007896 0.0024512 0.0075435 0.00031187 0.00099734 -0.00016154 -0.010974 0.030751
-0.1584 0.16158 -0.0012076 0.027024
0.0028828 -0.0013641 0.0046211 -0.0027094 0.00099204 -0.0012903 0.003981 -0.0068147
-0.0012085 0.027062 -0.20037 0.2021
980000000 -0.059521 0.28296 0.016537 0.030229 -0.0096426 0.0041723 0.0017434 0.0036695
0.0037543 -0.0015158 -0.0030593 -0.002338
0.016524 0.030217 -0.21469 0.33653 0.033494 0.0057615 0.0021045 -9.9652e-05
0.0016061 -0.006234 -0.00037844 -0.0024632
-0.0096466 0.0042132 0.033572 0.005648 0.10609 0.30585 0.00084342 -0.0010901
0.00046831 -0.0019202 0.0014494 -0.00017252
0.0017662 0.0036799 0.002093 -0.00010347 0.00084613 -0.001092 -0.075033 0.26957
0.0076315 0.029613 -0.0093913 -0.0076195
0.0037555 -0.0015398 0.0015766 -0.0062839 0.00047453 -0.0019321 0.007678 0.029608
-0.12438 0.19067 0.0055338 0.019381
-0.0030973 -0.0022942 -0.00040965 -0.0024847 0.0014672 -0.00017023 -0.0093758 -0.0075927
0.0055138 0.019363 -0.15911 0.24755
1040000000 -0.018452 0.29176 0.032907 0.019275 -0.0017923 0.0070814 0.0026148 0.0008495
0.00034149 -0.0033937 -0.00031055 -0.0015041
0.032896 0.019252 -0.17961 0.34993 0.030313 -0.014503 0.0017077 -0.0017453
-0.0022646 -0.0025874 -0.0011202 -0.0029499
-0.001769 0.0070949 0.030298 -0.014658 0.15222 0.29289 -0.00037312 -0.0016959
-0.0016706 -0.00090736 -0.00063824 -0.0010309
0.002623 0.00082865 0.0016945 -0.0017326 -0.00037446 -0.0017022 -0.047965 0.27917
0.01925 0.019063 -0.0025995 0.0010405
0.00032467 -0.0033604 -0.0022687 -0.0025917 -0.0016443 -0.00089719 0.019291 0.01904
-0.091443 0.19891 0.0143 0.01866
-0.00033278 -0.0014991 -0.0011449 -0.0029521 -0.00064368 -0.0010298 -0.0025893 0.0010377
0.014303 0.018659 -0.13651 0.26815
1100000000 0.026283 0.30171 0.036672 -0.0032091 0.0027725 0.0043033 0.0024588 -0.00086386
-0.002175 -0.0030116 -0.0039961 -0.00010068
0.036649 -0.0031874 -0.13686 0.36872 0.016232 -0.028149 7.1891e-05 -0.0017925
-0.0036691 -0.0010131 -0.0035841 -0.00053551
0.0027854 0.0042854 0.016147 -0.028258 0.19823 0.27401 -0.0019559 0.00012559
-0.0019416 0.0004015 -0.0013875 -0.00036667
0.0024567 -0.00087148 6.4846e-05 -0.0017908 -0.0019561 0.00013016 -0.0081994 0.28459
0.024973 0.0057069 -0.0025072 -3.6005e-05
-0.0021897 -0.002997 -0.0037015 -0.0009972 -0.001949 0.00040471 0.024996 0.0056755
-0.071791 0.21221 0.019982 0.0092611
-0.0040048 -0.0001073 -0.0035933 -0.00052861 -0.0013747 -0.00037439 -0.002496 -2.4041e-05
0.020005 0.0092781 -0.090521 0.29812
1160000000 0.077378 0.29831 0.02481 -0.020477 0.0028153 -0.00034056 -5.5496e-05 -0.002372
-0.0039907 -0.00094142 -0.0010634 0.0042452
0.024807 -0.020464 -0.093446 0.37387 -0.003174 -0.02986 -0.0016842 -0.0017967
-0.0030034 0.0024941 -0.0015173 0.0020173
0.0027924 -0.00035229 -0.003307 -0.029885 0.24203 0.24403 -0.00090472 0.0017899
-0.00061053 0.0020478 -0.00089417 0.00037985
-5.425e-05 -0.0023778 -0.0017021 -0.0017845 -0.00089846 0.001786 0.031242 0.28227
0.021491 -0.010264 -0.0033161 0.0051304
-0.0040117 -0.00091792 -0.0030101 0.0025225 -0.00061086 0.0020371 0.021479 -0.010289
-0.037114 0.22023 0.018874 -0.00028794
-0.0010405 0.004274 -0.0015227 0.0020206 -0.00091729 0.0003853 -0.0033094 0.0051502
0.018882 -0.00030479 -0.043853 0.30098
1220000000 0.12102 0.2889 0.011273 -0.0304 -0.001573 -0.00092329 0.00016727 -0.00090293
-0.0027533 0.0021632 0.0010606 0.002064
0.011292 -0.030366 -0.049374 0.38734 -0.017124 -0.022285 -0.0026658 0.00047268
-4.8984e-05 0.0032423 -0.00086079 0.0019831
-0.0015856 -0.00091199 -0.017245 -0.022237 0.28109 0.20524 0.00071839 0.0018623
0.00060444 0.0012696 0.00040243 0.00063632
0.00017161 -0.00089541 -0.0026719 0.00048104 0.00072125 0.0018673 0.071131 0.27392
0.011088 -0.017255 0.0021079 0.001437
-0.0027629 0.0022009 -3.6477e-05 0.0032538 0.00061629 0.0012708 0.011058 -0.017273
-0.01391 0.2293 0.014247 -0.013245
0.0010715 0.0020724 -0.00085176 0.0019961 0.00041177 0.00063793 0.0021031 0.0014486
0.014226 -0.013236 -0.01305 0.31708
1280000000 0.17184 0.26933 -0.0076962 -0.029174 -0.002052 0.0025919 -0.00080127 -0.0021662
-0.00086015 0.003198 0.002443 0.0013953
-0.0076792 -0.029144 -0.0029027 0.37974 -0.024569 -0.0091752 -0.00099892 0.00153
0.0018445 0.0017737 0.00056612 0.0020757
-0.0020305 0.0025987 -0.024643 -0.0090646 0.31183 0.16228 0.0017128 7.7237e-05
0.0013848 0.00030669 0.00038978 0.00021118
-0.00081018 -0.0021643 -0.00098386 0.0015357 0.0017082 7.9789e-05 0.10817 0.2582
0.0010903 -0.019715 -4.5916e-05 0.00033182
-0.00084885 0.0032023 0.0018582 0.0017686 0.0013955 0.0003103 0.0010637 -0.019718
0.022533 0.23325 0.003114 -0.01553
0.0024489 0.001398 0.00057509 0.0020767 0.00038363 0.00021537 -5.0946e-05 0.00032682
0.0031152 -0.015527 0.034498 0.32009
1340000000 0.20956 0.23661 -0.017777 -0.019471 0.00079557 0.0048422 -0.0018454 -0.00094493
0.0013872 0.0027943 0.0019046 -0.0013647
-0.017726 -0.019462 0.037061 0.37221 -0.02239 0.00424 -0.00012464 0.0020645
0.0021381 0.00076199 0.0012814 0.00082877
0.00081747 0.004829 -0.022389 0.0043603 0.33406 0.11488 0.0011522 -0.00098434
0.00074302 -0.00070791 3.7893e-05 0.00021804
-0.0018571 -0.00092835 -0.0001133 0.0020681 0.0011545 -0.00098523 0.1417 0.2376
-0.0086719 -0.016968 0.00072871 0.00056043
0.0014093 0.0028014 0.0021402 0.00075147 0.00072637 -0.00069909 -0.0087064 -0.016957
0.052623 0.22898 -0.0040489 -0.014436
0.0018872 -0.0013803 0.001277 0.00083545 3.6832e-05 0.00022158 0.00072152 0.00055669
-0.004039 -0.014439 0.072519 0.31496
1400000000 0.24386 0.19986 -0.023837 -0.007632 0.0054982 0.0036068 -0.0023162 0.00059256
0.0025268 0.0010793 0.00037137 -0.0016628
-0.023799 -0.0076523 0.074694 0.36 -0.015577 0.012859 0.001423 0.0012828
0.0013124 -0.00090891 0.0012316 0.00011567
0.0055173 0.0035803 -0.015537 0.012961 0.3471 0.062243 0.00014178 -0.0017095
8.5675e-05 -0.00040604 0.00034091 0.0002002
-0.0023147 0.00061045 0.0014312 0.0012827 0.00014414 -0.0017025 0.17124 0.20887
-0.014967 -0.0099473 -0.00078898 5.186e-06
0.0025326 0.0010641 0.001298 -0.00091579 8.0641e-05 -0.00040988 -0.014992 -0.0099176
0.085548 0.22526 -0.010541 -0.0090274
0.00037223 -0.0016664 0.0012314 0.00010891 0.00034903 0.00020508 -0.00079215 2.9835e-06
-0.01053 -0.0090327 0.11674 0.30463
1460000000 0.26791 0.1564 -0.020652 0.0049278 0.0061473 -0.0017272 -0.001599 0.001925
0.0022834 -0.00040457 -0.00033302 -0.001129
-0.020631 0.0049127 0.10974 0.33848 -0.0062078 0.016153 0.0017574 0.00017331
0.00090005 -0.0014411 0.0012757 -0.00054636
0.0061418 -0.0017547 -0.006129 0.016192 0.35424 0.0089665 -0.001345 -0.0013185
0.00014377 -0.00021563 0.0006898 -0.00019253
-0.0015981 0.001927 0.0017619 0.00015882 -0.0013521 -0.0013215 0.19839 0.17947
-0.016105 -0.0030073 -0.000795 0.0021005
0.0022848 -0.00042045 0.00089724 -0.0014512 0.00014747 -0.00022386 -0.016116 -0.0029666
0.11566 0.21184 -0.01247 -0.0029293
-0.00033263 -0.0011062 0.001287 -0.00053991 0.00069149 -0.00018869 -0.00079035 0.0021105
-0.01245 -0.0029296 0.15029 0.28452
1520000000 0.28099 0.11471 -0.014836 0.010465 0.003794 -0.004551 0.00012173 0.0027465
0.0022172 -0.0019169 -0.0012272 -0.00018285
-0.014828 0.010444 0.14351 0.32402 0.0019225 0.013676 0.0016493 -0.00075686
-2.9341e-05 -0.0010656 0.00035804 -0.0010547
0.0037711 -0.004562 0.0019989 0.013691 0.34806 -0.047047 -0.0011393 -0.00034592
0.00070411 -0.00087277 0.00012583 -0.00021985
0.00014557 0.0027538 0.0016446 -0.00076008 -0.001149 -0.00034882 0.22168 0.14086
-0.015269 0.0030464 0.0016274 0.0021679
0.0022001 -0.001938 -3.3473e-05 -0.0010681 0.00070462 -0.00086912 -0.015272 0.0030779
0.14392 0.19883 -0.012181 0.0018588
-0.0012309 -0.0001858 0.00035262 -0.0010674 0.000127 -0.00021272 0.0016279 0.0021711
-0.012183 0.0018437 0.18325 0.26436
1580000000 0.29145 0.069009 -0.0079665 0.01374 -0.00093441 -0.0053679 0.0015996 0.0019185
-9.4617e-05 -0.0022647 -0.0002405 0.00031699
-0.0079694 0.013727 0.17111 0.2998 0.0057608 0.0084729 0.0005155 -0.0015569
-0.00053308 -0.00094922 -0.00020143 -0.00092328
-0.00095682 -0.0053796 0.0058166 0.0084514 0.32901 -0.10428 -0.0015923 0.00068714
-0.00029588 -0.0011069 0.00024215 -0.00059007
0.0016173 0.001909 0.00050483 -0.0015589 -0.0015898 0.00067969 0.23562 0.1015
-0.011446 0.0080026 0.0024007 0.00075849
-0.00011092 -0.0022629 -0.00055107 -0.00095122 -0.00029977 -0.0011094 -0.011433 0.008041
0.16899 0.18177 -0.0095413 0.007725
-0.00024132 0.00031945 -0.00021216 -0.00092658 0.00023967 -0.00058692 0.0024101 0.00075072
-0.0095368 0.0077264 0.21555 0.23873
1640000000 0.29431 0.027292 -0.0010997 0.012301 -0.0031504 -0.002824 0.0027302 0.001023
-0.00080264 -0.001694 -0.00031542 0.00057469
-0.0011186 0.012297 0.20119 0.27499 0.0063388 0.0032704 -0.00059742 -0.0017935
-0.00094855 -0.00037988 -0.00051331 -0.00072322
-0.0031621 -0.0028014 0.006371 0.0032326 0.30116 -0.15416 -0.00062585 0.0015115
-0.0011576 -0.0010066 -0.00024329 -0.00029228
0.0027389 0.0010165 -0.0005996 -0.001792 -0.00061713 0.001497 0.24819 0.052219
-0.0069868 0.0092797 0.0025656 -0.00084517
-0.00081247 -0.0017038 -0.00095892 -0.00037171 -0.0011613 -0.00099631 -0.0069632 0.0093037
0.19276 0.15812 -0.0045406 0.0098668
-0.00031901 0.00057593 -0.00050624 -0.00071925 -0.00024292 -0.0002823 0.0025727 -0.00085433
-0.0045401 0.0098712 0.24154 0.20779
1700000000 0.28733 -0.01788 0.0022616 0.009323 -0.0039175 -2.067e-07 0.0031964 -0.0013194
-0.0021516 -0.00074898 0.00046004 0.00042676
0.0022469 0.0093139 0.21935 0.24386 0.0041679 0.00018823 -0.0014298 -0.00061792
-0.00074649 -6.622e-05 -0.00094357 -0.00051453
-0.0039389 2.095e-05 0.0041765 0.00017392 0.25818 -0.19359 0.00052353 0.0015949
-0.0019644 -0.00019993 -0.00056273 -0.00090239
0.0031871 -0.0013321 -0.0014278 -0.00060916 0.00051938 0.0015894 0.24453 0.0023611
-0.0040922 0.0096054 0.0016076 -0.0022038
-0.002154 -0.00074622 -0.0007509 -6.5686e-05 -0.0019661 -0.00020348 -0.0040744 0.0096292
0.21052 0.13816 0.00031778 0.0099645
0.00046996 0.00042662 -0.0009554 -0.0005146 -0.0005862 -0.00089914 0.0016016 -0.0022098
0.00032246 0.0099661 0.25811 0.17405
1760000000 0.27607 -0.066338 0.0044562 0.005926 -0.0025264 0.0010318 0.0012779 -0.0035547
-0.0013931 0.00060815 0.00028777 -0.00061152
0.0044459 0.0059268 0.24612 0.2045 0.0016744 -0.0018369 -0.0011971 0.00010006
-0.0010351 0.00084063 -0.00063016 0.00032494
-0.0025069 0.0010504 0.0016743 -0.0018487 0.21069 -0.22745 0.0010646 0.0010923
-0.0013486 0.0015292 -0.0011843 -0.00068739
0.001269 -0.003561 -0.0012013 0.00010711 0.0010623 0.0010961 0.23589 -0.048958
-0.00075347 0.0086263 -0.00017188 -0.0025821
-0.0013894 0.00061386 -0.0010327 0.00084632 -0.0013504 0.0015343 -0.00073157 0.0086341
0.22632 0.10396 0.0044149 0.0073998
0.00026983 -0.00061944 -0.00062797 0.00032898 -0.0011753 -0.00070432 -0.00017222 -0.0025794
0.004424 0.0073966 0.27199 0.13696
1820000000 0.2521 -0.10395 0.0045519 0.0024089 -0.00014237 0.0026673 -0.00098908 -0.0032053
-0.0012008 0.00097434 -0.00019183 -0.00014627
0.0045365 0.0024087 0.25663 0.17441 -0.00084296 -0.00031915 -0.001331 0.00086536
-0.00015256 0.0011477 -0.00068288 0.00052186
-0.00013582 0.0026628 -0.00084432 -0.00031504 0.15921 -0.24362 0.001648 0.00047675
-0.00031573 0.0023416 -0.0015208 0.00028284
-0.0010141 -0.0031917 -0.0013348 0.00087828 0.0016318 0.00048222 0.20573 -0.096402
0.00072377 0.0072213 -0.0015728 -0.0016483
-0.0011936 0.00098905 -0.00014211 0.0011554 -0.00031287 0.0023468 0.00073495 0.0072186
0.244 0.075091 0.0055031 0.003625
-0.00020506 -0.00013041 -0.0006871 0.00052274 -0.0015013 0.00028897 -0.0015761 -0.0016325
0.0054973 0.0036177 0.27457 0.10067
1880000000 0.21717 -0.14423 0.0021294 0.00012614 -0.00061945 0.0023939 -0.003104 -0.0022724
-0.00023236 0.0018187 0.00025442 -0.00048796
0.0021195 0.00013079 0.26146 0.12813 -0.0028323 0.0015913 -0.00030191 0.0017107
0.00044045 0.0013453 4.4149e-05 0.0010756
-0.00059598 0.0024152 -0.0028259 0.0016076 0.10715 -0.25263 0.0017922 -0.00098684
0.0015408 0.0020235 -0.0010808 0.0014891
-0.003114 -0.0022798 -0.00028502 0.0017047 0.0018118 -0.00098489 0.16504 -0.13658
0.001473 0.0049232 -0.0024019 0.00014846
-0.00021052 0.0018196 0.00045898 0.0013394 0.0015471 0.0020191 0.0014905 0.0049233
0.24842 0.044055 0.0056109 0.0010811
0.00025391 -0.00048533 5.6697e-05 0.001082 -0.0010763 0.0014854 -0.0023895 0.00014922
0.0056106 0.0010713 0.27478 0.066831
1940000000 0.17825 -0.17038 -0.00026579 -0.0015262 0.0014005 0.0020451 -0.0039686 0.00054087
0.0012191 0.001086 -0.00052966 -0.00052526
-0.00025931 -0.0015224 0.26288 0.095975 -0.0013905 0.004062 0.00090937 0.0014532
0.0017699 0.00065103 0.00094563 0.00049583
0.0014154 0.0020372 -0.0013597 0.0040769 0.062427 -0.24604 0.00038127 -0.0021854
0.0023479 0.00043552 0.00046008 0.0018343
-0.0039641 0.00055629 0.00092113 0.0014523 0.00038608 -0.0021889 0.11267 -0.16753
0.00054672 0.0035851 -0.0016069 0.001258
0.0012317 0.0010847 0.0017813 0.00064044 0.002357 0.00043591 0.00055749 0.0035889
0.25203 0.0056633 0.0041963 -0.0024199
-0.00054154 -0.00051313 0.0009502 0.00049875 0.00047847 0.0018468 -0.0016153 0.0012571
0.0041983 -0.0024183 0.26466 0.030349
2000000000 0.13226 -0.18529 -0.0040759 0.00086228 0.0026942 0.0017432 -0.0021326 0.003842
0.001334 0.0004778 -0.0004463 0.0003559
-0.0040759 0.00084801 0.24867 0.060366 -0.0010049 0.0061112 0.0016889 0.00057575
0.0014024 -0.00097901 0.00068443 0.0001822
0.0026991 0.001732 -0.00096096 0.0061239 0.01848 -0.23179 -0.0010412 -0.0014472
0.0021309 -0.001054 0.0018019 0.0014677
-0.0021069 0.0038536 0.0017102 0.00056759 -0.0010415 -0.0014496 0.058579 -0.17712
-0.0011651 0.0033465 -0.00047361 0.0022439
0.0013338 0.00047043 0.0013905 -0.00098222 0.0021215 -0.0010482 -0.001149 0.0033421
0.24715 -0.027663 0.00047334 -0.0034272
