!Keysight Technologies,M9804A,MY58100912,A.14.10.03
!Date: Thursday, April 27, 2023 10:28:33
!Correction: S11(C  6-Port  ) 
!S12(C  6-Port  ) 
!S13(C  6-Port  ) 
!S14(C  6-Port  ) 
!S15(C  6-Port  ) 
!S16(C  6-Port  ) 
!S21(C  6-Port  ) 
!S22(C  6-Port  ) 
!S23(C  6-Port  ) 
!S24(C  6-Port  ) 
!S25(C  6-Port  ) 
!S26(C  6-Port  ) 
!S31(C  6-Port  ) 
!S32(C  6-Port  ) 
!S33(C  6-Port  ) 
!S34(C  6-Port  ) 
!S35(C  6-Port  ) 
!S36(C  6-Port  ) 
!S41(C  6-Port  ) 
!S42(C  6-Port  ) 
!S43(C  6-Port  ) 
!S44(C  6-Port  ) 
!S45(C  6-Port  ) 
!S46(C  6-Port  ) 
!S51(C  6-Port  ) 
!S52(C  6-Port  ) 
!S53(C  6-Port  ) 
!S54(C  6-Port  ) 
!S55(C  6-Port  ) 
!S56(C  6-Port  ) 
!S61(C  6-Port  ) 
!S62(C  6-Port  ) 
!S63(C  6-Port  ) 
!S64(C  6-Port  ) 
!S65(C  6-Port  ) 
!S66(C  6-Port  ) 
!S6P File: Measurement: :
# Hz S  RI   R 50
500000000 -0.33413 -0.057896 -0.010905 -0.0017461 -0.0084095 0.013683 -0.0042697 0.012058
0.013094 0.0047265 -0.0037143 0.0082076
-0.010947 -0.0017315 -0.41575 -0.067064 0.0080472 -0.01084 0.0010539 0.011732
0.0076897 0.0029628 0.0011663 0.012906
-0.0084269 0.013738 0.0080187 -0.010873 -0.26857 0.19716 0.0068305 0.0039089
-0.0017012 0.0084577 0.00027059 0.012142
-0.0042262 0.012189 0.0011278 0.011834 0.0068186 0.0039217 -0.33141 0.040935
-0.01909 -0.0029547 0.016635 0.024191
0.012971 0.0045443 0.0077704 0.0028569 -0.0017706 0.0084285 -0.019015 -0.0030202
-0.24367 -0.20155 -0.0274 0.0073385
-0.0039212 0.0083674 0.0014147 0.013147 0.00047977 0.012266 0.01654 0.024614
-0.02764 0.0069361 -0.2697 -0.13046
560000000 -0.31991 0.10972 -0.023273 -0.065392 0.00023907 0.013806 0.0044887 0.01093
0.011838 0.0061133 0.010073 0.0087964
-0.023214 -0.065319 -0.37609 0.097893 -0.042146 -0.038392 0.014373 0.0032199
-0.014439 -0.0039556 0.0050577 -0.0011504
0.00031025 0.013771 -0.042401 -0.038342 -0.18597 0.24993 -0.0010405 -0.0047239
0.018907 0.0066209 0.0077276 -0.0063107
0.0045327 0.010919 0.014229 0.0031431 -0.00086706 -0.0047729 -0.30643 0.13398
0.0041318 -0.024127 0.0055898 -0.020812
0.011525 0.0060488 -0.014584 -0.0037442 0.018967 0.0065192 0.0039956 -0.023928
-0.30856 -0.021076 0.0081547 -0.050089
0.010111 0.0089082 0.0047928 -0.0013226 0.0076899 -0.0065264 0.0053814 -0.020969
0.0083712 -0.050463 -0.33229 0.020703
620000000 -0.27845 0.089991 -0.023409 0.0089382 0.0039185 0.0096788 0.008142 -0.0044497
0.011735 -0.001421 0.00039311 -0.0019754
-0.023378 0.0089371 -0.40362 0.046209 -0.01861 0.00086954 -0.0016804 -0.0020907
0.012746 -0.0060394 0.00086121 -0.0031629
0.0039937 0.0096778 -0.018644 0.00090379 -0.15618 0.25877 -0.00049311 -0.004911
-0.0033049 -0.0031032 0.0099043 -0.0030203
0.0080607 -0.0044518 -0.0016949 -0.0020864 -0.00048839 -0.0049371 -0.26597 0.14488
-0.039213 -0.019471 0.013566 0.027856
0.01183 -0.0014915 0.012669 -0.0060556 -0.0033535 -0.0030705 -0.039161 -0.019462
-0.22881 -0.056491 -0.044042 0.012167
0.00029108 -0.0020173 0.00079622 -0.0031863 0.0099824 -0.0030919 0.013413 0.027881
-0.043951 0.012443 -0.24806 -0.012901
680000000 -0.2412 0.18208 -0.026512 -0.014457 0.0049189 0.0053892 0.0014094 -0.008099
-0.0013821 -0.011655 0.0060088 -0.0077592
-0.026469 -0.014449 -0.39066 0.14771 -0.032438 -0.0020628 -0.0013728 -0.0010041
-0.0016357 -0.0089086 -0.00064838 -0.0019986
0.0049174 0.005423 -0.032493 -0.001977 -0.10463 0.27989 -0.00071499 -0.00055745
-0.0017039 0.00053096 -0.0023114 -0.009367
0.0013383 -0.0080277 -0.0013998 -0.0010066 -0.00074026 -0.00060007 -0.22114 0.1964
-0.023582 -0.0084306 -0.0090793 -0.011359
-0.0015012 -0.011623 -0.0016991 -0.0089208 -0.0016753 0.00053202 -0.023575 -0.0083802
-0.27974 0.048706 -0.0056694 -0.0080531
0.0061442 -0.0075536 -0.00071643 -0.0019343 -0.002271 -0.0093681 -0.0090256 -0.011531
-0.0056122 -0.0079817 -0.26188 0.091427
740000000 -0.19422 0.17622 -0.040014 0.027127 0.01425 -0.0047799 -0.00018451 -0.0040142
-0.0042955 -0.0027841 -0.006036 0.0028509
-0.040043 0.027063 -0.33586 0.1661 -0.037281 0.035104 -1.0474e-05 -0.0061875
-0.011475 0.0073459 -0.0019287 -0.0059613
0.014308 -0.0048301 -0.037256 0.035309 -0.070693 0.27658 -0.0018237 0.0031721
-0.0025327 -0.0052913 -0.0013267 0.00065435
-0.00021484 -0.0040567 3.4327e-05 -0.0061389 -0.0018516 0.0031808 -0.20445 0.20341
-0.042438 -0.007677 0.022076 0.015564
-0.0042987 -0.0028642 -0.011567 0.0074141 -0.0026056 -0.0052322 -0.042442 -0.0076289
-0.17943 0.074753 -0.041759 0.00097581
-0.0061781 0.0029249 -0.0017955 -0.006062 -0.0012884 0.00063569 0.022101 0.015725
-0.042177 0.0011167 -0.25052 0.096469
800000000 -0.16309 0.21938 -0.022194 0.016337 0.0060423 -0.010845 -0.0042679 -0.0022614
-0.0047671 0.0020953 0.0047431 0.00037051
-0.022201 0.016294 -0.34232 0.23706 -0.0085158 0.034319 -0.0021365 0.002121
-0.0013722 0.0025686 0.00098989 0.0053318
0.0059921 -0.010908 -0.0084441 0.034371 -0.032364 0.3012 0.00085061 0.0015421
-9.7093e-05 0.0034335 -0.0017485 0.00084431
-0.004232 -0.0022598 -0.0021361 0.0021215 0.0008773 0.0015427 -0.17453 0.2309
-0.028663 0.013677 0.01452 -0.010369
-0.0047532 0.0021033 -0.0013971 0.0025704 -3.2951e-05 0.0034333 -0.028617 0.013709
-0.22425 0.10385 -0.017787 0.020635
0.0047194 0.000362 0.00099832 0.0054138 -0.0017493 0.00086988 0.014512 -0.010403
-0.017801 0.020676 -0.24158 0.14608
860000000 -0.12844 0.23966 -0.017834 0.03028 -0.0026563 -0.010789 -0.0015794 0.00048999
0.0039342 0.0051533 -0.0033506 -0.0028454
-0.017835 0.030255 -0.29409 0.27979 0.0074916 0.034787 -2.2542e-05 0.0019404
0.0037194 0.00048199 0.0032563 0.00022702
-0.0026931 -0.01076 0.0076091 0.034786 0.015054 0.30985 -0.00061769 -0.00016157
0.0023789 -0.0016376 0.0017749 0.0042674
-0.0015958 0.00046911 1.142e-05 0.0019606 -0.00060605 -0.00015394 -0.13799 0.24229
-0.018374 0.018458 -0.0060563 -0.009118
0.0039708 0.0051474 0.0037579 0.00047643 0.00239 -0.0016452 -0.01834 0.018522
-0.16659 0.15632 -0.024809 0.016779
-0.003391 -0.0027608 0.0031789 0.00011977 0.0017801 0.0042686 -0.0062198 -0.0091275
-0.024854 0.016546 -0.19084 0.19222
920000000 -0.10539 0.26286 0.0045709 0.038429 -0.0094078 -0.0054071 -0.001934 0.0016695
0.00080385 0.0020833 0.0030446 -0.0014045
0.0045657 0.038382 -0.26716 0.30176 0.028452 0.023194 0.0014307 0.0015368
0.0076159 -0.00033326 0.0041745 -0.0025954
-0.0094181 -0.0053745 0.028537 0.023125 0.060379 0.31154 0.001898 0.00012946
0.0010633 -0.00017997 0.0010011 -0.001368
-0.0019487 0.0016873 0.001425 0.0015346 0.0018843 0.00014041 -0.11386 0.25895
-0.011134 0.031458 0.0040899 -0.0073309
0.0008005 0.0020767 0.0076577 -0.00036521 0.0010701 -0.00017852 -0.011085 0.03149
-0.15792 0.162 -0.0017484 0.027276
0.0030801 -0.0014087 0.0042553 -0.0026379 0.00097531 -0.0013364 0.0040649 -0.0073051
-0.001636 0.027387 -0.19921 0.20444
980000000 -0.058969 0.28337 0.016737 0.030387 -0.0098411 0.0041869 0.0018355 0.0036264
0.00416 -0.001542 -0.0029071 -0.0022745
0.016729 0.030389 -0.21456 0.33674 0.033835 0.0056661 0.0021111 -0.00011169
0.0018819 -0.0063159 -0.00031272 -0.0025637
-0.0098447 0.0042183 0.033911 0.005537 0.1063 0.30647 0.00078901 -0.001113
0.00050932 -0.0019665 0.0016238 -0.00026736
0.0018394 0.0036262 0.0021102 -0.0001033 0.00078179 -0.0011007 -0.075351 0.27004
0.0079513 0.030354 -0.009262 -0.0076176
0.0041523 -0.0015375 0.0018791 -0.0063228 0.00050773 -0.001956 0.0080386 0.030348
-0.12355 0.19269 0.0052778 0.019898
-0.0029066 -0.0022738 -0.00030558 -0.0025404 0.0016197 -0.00024851 -0.0093006 -0.0076706
0.0051992 0.019887 -0.15723 0.24998
1040000000 -0.018043 0.29239 0.033066 0.01935 -0.0018306 0.0072268 0.0026689 0.00068166
0.00028275 -0.0034324 -0.00013326 -0.0017719
0.033043 0.019326 -0.1797 0.35052 0.030562 -0.014778 0.001621 -0.0017887
-0.0022201 -0.0028237 -0.0010344 -0.0029419
-0.001802 0.0072366 0.030515 -0.014927 0.15256 0.29376 -0.00042514 -0.0017061
-0.0015818 -0.00097609 -0.00060119 -0.0010831
0.0026883 0.00066956 0.0016428 -0.0017938 -0.00043143 -0.001705 -0.048241 0.27999
0.019845 0.019209 -0.0026204 0.0010889
0.00022058 -0.0034373 -0.0022425 -0.002815 -0.0015962 -0.00098107 0.0199 0.019179
-0.089629 0.19988 0.014115 0.018441
-0.0001841 -0.0017888 -0.0011279 -0.0029745 -0.00060296 -0.0011033 -0.0026563 0.0011209
0.014016 0.018387 -0.13427 0.27063
1100000000 0.026806 0.302 0.036857 -0.0034355 0.0028022 0.0043488 0.0024622 -0.00090797
-0.0020543 -0.003005 -0.0039864 -0.00020078
0.036834 -0.0034027 -0.13669 0.36923 0.016245 -0.028571 4.0959e-05 -0.0017764
-0.0037239 -0.00089017 -0.0035265 -0.00057696
0.002822 0.004347 0.016148 -0.028668 0.19907 0.27455 -0.0019736 0.0001421
-0.0019011 0.00056811 -0.0012353 -0.00049635
0.0024549 -0.00091052 3.4206e-05 -0.0017711 -0.0019782 0.00014085 -0.0077242 0.28545
0.025872 0.0055359 -0.002581 0.00022657
-0.0020667 -0.0029986 -0.003728 -0.00087292 -0.0019128 0.00056719 0.025864 0.0055109
-0.069926 0.21399 0.020364 0.0090055
-0.0039807 -0.00018524 -0.0035497 -0.00055502 -0.0012308 -0.00047342 -0.0025873 0.00015291
0.020386 0.0089484 -0.088871 0.2993
1160000000 0.077754 0.29861 0.02497 -0.020863 0.0028448 -0.00030593 -0.0002092 -0.0023455
-0.0041039 -0.00089567 -0.0010746 0.0042152
0.024976 -0.020834 -0.093167 0.37468 -0.0034776 -0.030154 -0.0017396 -0.0016637
-0.0029059 0.0026825 -0.0016296 0.0020198
0.0028478 -0.00031361 -0.0036162 -0.030187 0.24292 0.24415 -0.00082746 0.0019066
-0.00065103 0.0020929 -0.00099 0.00038717
-0.0002002 -0.0023595 -0.0017476 -0.0016349 -0.0008298 0.0019006 0.031875 0.28294
0.022001 -0.010954 -0.0032517 0.0051243
-0.0041063 -0.00088793 -0.0028735 0.0027276 -0.00065222 0.0020847 0.022003 -0.010995
-0.036096 0.22177 0.019437 -0.00062942
-0.0010518 0.0041748 -0.0016396 0.0020687 -0.00096942 0.00036373 -0.0032389 0.0051241
0.019378 -0.00065005 -0.042152 0.30186
1220000000 0.12169 0.28929 0.011224 -0.030828 -0.0016353 -0.00094149 0.00010934 -0.00080017
-0.0028233 0.002241 0.001113 0.0021106
0.011241 -0.030792 -0.048641 0.38813 -0.017473 -0.022347 -0.0027078 0.00055307
-2.4765e-05 0.0033036 -0.00076357 0.0021467
-0.0016354 -0.00092373 -0.017598 -0.0223 0.28198 0.20509 0.00082149 0.0018158
0.00061794 0.0012992 0.00038637 0.00066629
9.5383e-05 -0.0008162 -0.002702 0.00057442 0.00081759 0.0018216 0.072116 0.27437
0.011104 -0.018083 0.001993 0.0014195
-0.0028223 0.0022278 5.5454e-06 0.0033086 0.00062121 0.0012916 0.01109 -0.01809
-0.0124 0.23089 0.01427 -0.013676
0.0011124 0.002144 -0.00081127 0.002163 0.00034405 0.00068181 0.0020001 0.0014042
0.014267 -0.013697 -0.01079 0.31804
1280000000 0.17243 0.26943 -0.0080588 -0.02946 -0.0020452 0.0025606 -0.0008483 -0.0020988
-0.00088127 0.003274 0.0027209 0.0012296
-0.0080215 -0.029438 -0.0018884 0.38009 -0.02487 -0.0089648 -0.001002 0.001553
0.0018612 0.0017788 0.00073353 0.0021583
-0.0020331 0.0025714 -0.024956 -0.0088725 0.31237 0.16159 0.0016877 3.4692e-05
0.0013233 0.00032103 0.00040158 0.00018063
-0.00084906 -0.0020984 -0.00098501 0.0015597 0.0016896 3.4896e-05 0.1093 0.25807
0.00065133 -0.020414 -9.369e-05 0.00031403
-0.00086792 0.0032766 0.001858 0.001767 0.0013311 0.00030836 0.00062137 -0.020417
0.02455 0.23471 0.0030619 -0.015943
0.0026891 0.0011855 0.00075323 0.0021316 0.00042261 0.00019894 -7.742e-05 0.00031661
0.0030645 -0.015968 0.036886 0.32052
1340000000 0.2103 0.2367 -0.018201 -0.019437 0.00079847 0.0049202 -0.0018201 -0.00090497
0.0014324 0.002901 0.0018465 -0.0013926
-0.018172 -0.019429 0.038076 0.37211 -0.022495 0.0044958 -8.8855e-05 0.0020685
0.0020899 0.00073739 0.0012389 0.00079852
0.00082904 0.0049028 -0.022498 0.0046169 0.33417 0.11442 0.0011031 -0.0010124
0.00073508 -0.00065198 -8.1189e-06 0.00026374
-0.0018087 -0.00088936 -8.4877e-05 0.002072 0.0010988 -0.0010175 0.14241 0.23688
-0.0095465 -0.017418 0.00072538 0.00064525
0.001449 0.0029019 0.0020817 0.00072565 0.00073894 -0.00065499 -0.0095873 -0.017391
0.054841 0.2301 -0.004418 -0.014564
0.00187 -0.0013339 0.0012531 0.00078206 1.8674e-05 0.00021758 0.00070595 0.00061649
-0.0043892 -0.014583 0.075044 0.31533
1400000000 0.24464 0.19971 -0.024244 -0.0074131 0.0054904 0.0036389 -0.0023019 0.00065591
0.0025715 0.0011058 0.0002767 -0.001688
-0.024204 -0.0074281 0.075772 0.3594 -0.015475 0.013198 0.0013894 0.0012775
0.001254 -0.00090394 0.0012215 0.00010105
0.0055075 0.0036234 -0.015428 0.013294 0.34692 0.061908 1.9165e-05 -0.0018076
0.00017018 -0.00041595 0.00041442 0.00022735
-0.0023051 0.00065562 0.0014007 0.0012686 1.8769e-05 -0.0018095 0.17183 0.20795
-0.015862 -0.0098669 -0.00091099 6.9606e-05
0.0025789 0.0010829 0.0012482 -0.00091262 0.00016534 -0.0004209 -0.015897 -0.0098391
0.088379 0.22577 -0.010989 -0.0091693
0.00024092 -0.0016659 0.0012148 0.00012829 0.00044526 0.00020496 -0.00088184 9.1926e-05
-0.01096 -0.0091414 0.11911 0.30446
1460000000 0.26826 0.15595 -0.020843 0.0053453 0.006117 -0.001704 -0.0015742 0.0017862
0.0024018 -0.00051971 -0.00031382 -0.0010896
-0.020833 0.0053278 0.11025 0.33744 -0.0059851 0.016307 0.0016983 0.00013379
0.00081704 -0.0013961 0.0012747 -0.00060897
0.0061112 -0.0017337 -0.0058983 0.01636 0.35377 0.0087643 -0.0013671 -0.0013389
5.8186e-05 -0.00028872 0.0007388 -0.00022332
-0.0015654 0.0017787 0.001693 0.00011075 -0.0013708 -0.0013368 0.19832 0.1786
-0.016786 -0.0023971 -0.0007649 0.0022384
0.0023955 -0.00053437 0.00081395 -0.0014169 6.0466e-05 -0.00029008 -0.016805 -0.002367
0.1184 0.21187 -0.012812 -0.0028084
-0.00035982 -0.0011322 0.0012654 -0.00063762 0.00069458 -0.00021247 -0.00075542 0.0022453
-0.012786 -0.0028433 0.15245 0.28395
1520000000 0.28116 0.11434 -0.014779 0.010909 0.0037287 -0.0045861 0.00014636 0.00265
0.002174 -0.0020259 -0.0012182 -0.00010883
-0.014778 0.010888 0.14355 0.32302 0.0021187 0.013683 0.0016113 -0.00080177
-6.4087e-05 -0.0010489 0.00028595 -0.0010986
0.0037227 -0.0046035 0.0021915 0.013688 0.3477 -0.046504 -0.0011466 -0.00032227
0.0006642 -0.00089086 0.0001016 -0.00015306
0.00016102 0.0026559 0.0016017 -0.00081025 -0.0011377 -0.00032305 0.22127 0.14011
-0.015411 0.0039741 0.0017152 0.002183
0.0021717 -0.0020584 -7.3329e-05 -0.0010488 0.00067234 -0.00088062 -0.015398 0.0040235
0.14654 0.1984 -0.012487 0.0022798
-0.0012035 -0.00011207 0.00029403 -0.0011057 0.00012771 -0.00019591 0.0016856 0.0021893
-0.012478 0.002248 0.18531 0.26372
1580000000 0.2912 0.068515 -0.0076746 0.014079 -0.0010249 -0.0054022 0.0015576 0.0019355
-0.00025069 -0.0023437 -0.00019695 0.00036926
-0.0076832 0.014063 0.17071 0.29868 0.0058751 0.0083633 0.00048186 -0.0015734
-0.00061598 -0.00095383 -0.00020928 -0.00084822
-0.0010468 -0.005399 0.0059309 0.0083478 0.32876 -0.10397 -0.0016184 0.00069458
-0.00042899 -0.0012475 0.00027543 -0.00062038
0.0015711 0.0019302 0.00048048 -0.0015775 -0.0016116 0.00068849 0.23486 0.10089
-0.011114 0.0088912 0.0024786 0.00069313
-0.0002751 -0.002343 -0.00062566 -0.00095252 -0.00043276 -0.0012371 -0.011104 0.008928
0.17123 0.18048 -0.0096453 0.00815
-0.00018254 0.00037003 -0.00021921 -0.00085137 0.00027951 -0.00065289 0.0024715 0.00071147
-0.0096799 0.0081814 0.21727 0.23775
1640000000 0.29384 0.027383 -0.0006742 0.012434 -0.0032175 -0.0029206 0.0027259 0.00098127
-0.00093426 -0.001659 -0.00028774 0.00055277
-0.00066507 0.012417 0.20021 0.2743 0.0064754 0.0031579 -0.00061888 -0.0017978
-0.0009338 -0.00035152 -0.0005799 -0.00069531
-0.0032275 -0.002905 0.0064978 0.0031121 0.30125 -0.15305 -0.00049251 0.0014942
-0.0010611 -0.00091718 -0.00033834 -0.00041797
0.0027208 0.0009513 -0.00063518 -0.0017896 -0.00050541 0.0014887 0.24704 0.052204
-0.006259 0.0096636 0.0026218 -0.00093081
-0.00094232 -0.0016583 -0.00094007 -0.00035055 -0.0010622 -0.00092373 -0.0062428 0.0096985
0.19472 0.15659 -0.0044073 0.010213
-0.00024576 0.00058531 -0.00058451 -0.0006845 -0.00028518 -0.00040651 0.0026447 -0.00095616
-0.0043591 0.010196 0.24303 0.20681
1700000000 0.287 -0.017629 0.0026829 0.0091569 -0.0039428 -5.1104e-05 0.0032036 -0.001304
-0.0020963 -0.00060303 0.00059871 0.0003557
0.0026779 0.009149 0.21836 0.24354 0.0041619 6.5501e-05 -0.0014688 -0.00058075
-0.00071541 -4.6862e-05 -0.00091915 -0.00046795
-0.0039549 -3.4458e-05 0.0041543 2.4317e-05 0.25869 -0.19316 0.00048408 0.0016177
-0.0019946 -3.7874e-05 -0.00052216 -0.00096838
0.003202 -0.0013336 -0.0014636 -0.00057355 0.00048603 0.0016167 0.24372 0.0028615
-0.0032456 0.0094854 0.0017065 -0.0023853
-0.0021127 -0.00059274 -0.00071301 -3.976e-05 -0.0019857 -2.6753e-05 -0.0032351 0.0094993
0.21207 0.13641 0.00064339 0.010283
0.00058397 0.00034308 -0.00090429 -0.00046285 -0.00053053 -0.00093206 0.0016556 -0.002402
0.00067145 0.010259 0.25968 0.17292
1760000000 0.27567 -0.065826 0.0046843 0.0055403 -0.0025349 0.0011095 0.0013171 -0.0034913
-0.0013066 0.00078246 0.00027171 -0.00046018
0.0046775 0.0055318 0.24486 0.20456 0.0015504 -0.0018594 -0.0011879 0.0001753
-0.0010051 0.00085986 -0.0005995 0.00036832
-0.002516 0.0011184 0.0015591 -0.0018615 0.21108 -0.22717 0.0010551 0.0010684
-0.0012768 0.0016153 -0.0012971 -0.00069751
0.0012904 -0.0035026 -0.0012005 0.00016679 0.001072 0.0010574 0.23519 -0.048113
-0.00027726 0.0080873 -0.000135 -0.0025858
-0.0013057 0.00079795 -0.0010091 0.00086998 -0.0012712 0.0016299 -0.00026301 0.008101
0.22724 0.10192 0.0046713 0.0074002
0.00026293 -0.00047434 -0.00059526 0.00037553 -0.0013274 -0.00070396 -0.00010348 -0.0025667
0.0046747 0.0074078 0.273 0.13563
1820000000 0.2521 -0.10306 0.0044451 0.0020978 -0.00025457 0.0026779 -0.0010161 -0.0031303
-0.0010795 0.0010699 -3.6055e-05 -7.3049e-05
0.0044368 0.0020874 0.25555 0.17502 -0.00090786 -0.00043005 -0.0012991 0.00091966
-0.00015784 0.0011652 -0.00061913 0.00053735
-0.00022512 0.0026716 -0.00091553 -0.00041584 0.15981 -0.24343 0.0015376 0.0004067
-0.00025654 0.0023525 -0.0015394 0.0004224
-0.001038 -0.0031275 -0.0012997 0.00093384 0.0015321 0.00038941 0.20583 -0.095277
0.00080409 0.0065283 -0.0015958 -0.0017261
-0.0010686 0.0010756 -0.0001586 0.0011881 -0.00025182 0.0023531 0.00082152 0.0065329
0.24439 0.07326 0.0056209 0.003513
-3.2465e-05 -0.00011341 -0.00061398 0.00053339 -0.0014652 0.00041664 -0.001643 -0.0017118
0.005624 0.0035385 0.27545 0.099121
1880000000 0.21772 -0.14346 0.0018958 -5.7464e-05 -0.0006257 0.0024087 -0.0029647 -0.0021773
-0.00011734 0.0018438 0.00014492 -0.00054136
0.001907 -4.4393e-05 0.26083 0.12895 -0.0028656 0.001705 -0.0002298 0.0017015
0.0004642 0.001347 6.3394e-05 0.00097648
-0.00064253 0.0024108 -0.0028584 0.0017171 0.10786 -0.25236 0.0017874 -0.00096593
0.0015396 0.0019887 -0.00093579 0.0015059
-0.0029655 -0.002176 -0.00021221 0.0016932 0.0018059 -0.0009707 0.16561 -0.13551
0.0011052 0.0044664 -0.0025505 -0.00011369
-0.00010357 0.0018512 0.00047126 0.0013415 0.0015398 0.0020009 0.0011262 0.0044534
0.2484 0.04207 0.0057477 0.00073968
0.00012313 -0.00055831 7.5057e-05 0.00099457 -0.0010047 0.0015226 -0.0025637 -0.00011959
0.0057655 0.00069829 0.27588 0.065215
1940000000 0.17907 -0.16984 -0.00046083 -0.0014719 0.0014807 0.0021577 -0.0038441 0.00049647
0.0012119 0.00097963 -0.00064516 -0.00055736
-0.00044511 -0.0014738 0.26244 0.097116 -0.0014735 0.0041989 0.00098901 0.0013769
0.0017572 0.0006329 0.00088485 0.00035947
0.0015129 0.0021643 -0.0014471 0.0042301 0.063012 -0.24587 0.0004425 -0.0021477
0.0023427 0.00036779 0.00031929 0.0017656
-0.0037854 0.00050268 0.001013 0.001376 0.0004324 -0.0021348 0.11365 -0.16684
0.00017347 0.0033819 -0.001846 0.0013062
0.0012349 0.00098641 0.001754 0.00062723 0.0023086 0.00035597 0.00020204 0.0033803
0.25169 0.0042394 0.0041493 -0.0028676
-0.00061392 -0.00050514 0.00089422 0.00031643 0.00028986 0.0016476 -0.0017781 0.0013745
0.0041155 -0.0027605 0.26538 0.028564
2000000000 0.13327 -0.18512 -0.0041676 0.00086874 0.0026643 0.0017777 -0.0021978 0.0037293
0.0012904 0.00032493 -0.00043012 0.00044233
-0.0041419 0.00087343 0.24884 0.061365 -0.001056 0.0059603 0.0017371 0.00055293
0.0014737 -0.00098398 0.00059629 0.00011614
0.0026208 0.0017686 -0.001014 0.0059633 0.019289 -0.23224 -0.0011337 -0.001358
0.0021421 -0.001096 0.0018277 0.0015613
-0.0021631 0.0037792 0.0017483 0.00051874 -0.0011238 -0.0013519 0.060341 -0.17723
-0.0012708 0.0035971 -0.00035214 0.0024006
0.0012759 0.00031945 0.0014805 -0.0010091 0.0021447 -0.0010855 -0.0012781 0.0035898
0.24695 -0.028524 0.00050364 -0.0035654
