!Keysight Technologies,M9804A,MY58100912,A.14.10.03
!Date: Thursday, April 27, 2023 10:28:33
!Correction: S11(C  6-Port  ) 
!S12(C  6-Port  ) 
!S13(C  6-Port  ) 
!S14(C  6-Port  ) 
!S15(C  6-Port  ) 
!S16(C  6-Port  ) 
!S21(C  6-Port  ) 
!S22(C  6-Port  ) 
!S23(C  6-Port  ) 
!S24(C  6-Port  ) 
!S25(C  6-Port  ) 
!S26(C  6-Port  ) 
!S31(C  6-Port  ) 
!S32(C  6-Port  ) 
!S33(C  6-Port  ) 
!S34(C  6-Port  ) 
!S35(C  6-Port  ) 
!S36(C  6-Port  ) 
!S41(C  6-Port  ) 
!S42(C  6-Port  ) 
!S43(C  6-Port  ) 
!S44(C  6-Port  ) 
!S45(C  6-Port  ) 
!S46(C  6-Port  ) 
!S51(C  6-Port  ) 
!S52(C  6-Port  ) 
!S53(C  6-Port  ) 
!S54(C  6-Port  ) 
!S55(C  6-Port  ) 
!S56(C  6-Port  ) 
!S61(C  6-Port  ) 
!S62(C  6-Port  ) 
!S63(C  6-Port  ) 
!S64(C  6-Port  ) 
!S65(C  6-Port  ) 
!S66(C  6-Port  ) 
!S6P File: Measurement: :
# Hz S  RI   R 50
500000000 -0.33427 -0.056437 -0.010717 -0.0014353 -0.0084525 0.013599 -0.004699 0.011406
0.013421 0.0056546 -0.0045429 0.0069608
-0.010697 -0.0015518 -0.4163 -0.065866 0.0076554 -0.010491 0.0012835 0.011853
0.0077325 0.0029184 0.0013433 0.013656
-0.0083219 0.013479 0.0076424 -0.01051 -0.26799 0.19799 0.006284 0.0038501
-0.0016315 0.0082856 -0.00017513 0.012149
-0.0046635 0.011447 0.0013276 0.011901 0.006282 0.0038415 -0.33214 0.04309
-0.018656 -0.0056717 0.016004 0.026631
0.01327 0.0055535 0.007732 0.002886 -0.0016065 0.0082898 -0.01868 -0.0056599
-0.24605 -0.199 -0.025832 0.0037698
-0.0045337 0.0069881 0.0013708 0.013704 -0.00016486 0.012145 0.016006 0.026638
-0.025826 0.0037665 -0.27089 -0.12491
560000000 -0.31986 0.11054 -0.022985 -0.065673 0.00024041 0.01341 0.0052725 0.010855
0.011404 0.0045137 0.0098173 0.0090562
-0.023042 -0.065645 -0.37603 0.097919 -0.041833 -0.037616 0.013912 0.0033222
-0.013046 -0.0037371 0.0042443 -0.00062674
0.00044622 0.013296 -0.041946 -0.037544 -0.18665 0.24977 -0.00042903 -0.004112
0.018249 0.0058908 0.0077888 -0.0051224
0.0051842 0.010839 0.013956 0.0032999 -0.0004382 -0.0041199 -0.30638 0.13466
0.0056925 -0.023711 0.0049605 -0.020858
0.011179 0.0043567 -0.013038 -0.0037654 0.018217 0.005866 0.0056688 -0.023727
-0.31052 -0.022236 0.008453 -0.047957
0.010011 0.00872 0.0041879 -0.00065354 0.0078428 -0.0051661 0.0049521 -0.020852
0.0084483 -0.047984 -0.33261 0.02119
620000000 -0.27862 0.091617 -0.023563 0.0088213 0.0037277 0.009562 0.0089779 -0.0041969
0.011069 -0.001085 0.00078102 -0.0014907
-0.023512 0.008831 -0.40374 0.047184 -0.018301 0.00086541 -0.0012729 -0.0021349
0.011792 -0.0060155 0.0011424 -0.0033956
0.003734 0.009559 -0.018334 0.00091705 -0.15604 0.25939 -0.00072905 -0.0052476
-0.003343 -0.0024787 0.0091458 -0.0031342
0.0089702 -0.0043805 -0.0012815 -0.0021213 -0.00073001 -0.0052626 -0.2662 0.14421
-0.037691 -0.018487 0.012597 0.026034
0.011088 -0.0010065 0.011848 -0.0060545 -0.0033543 -0.002463 -0.037739 -0.018479
-0.2314 -0.054371 -0.040407 0.014402
0.00094962 -0.0014777 0.0011168 -0.0033326 0.0091541 -0.0031808 0.01261 0.026025
-0.040404 0.014391 -0.2514 -0.014218
680000000 -0.24074 0.18252 -0.02625 -0.014152 0.004893 0.0052777 0.0016812 -0.0077958
-0.0020691 -0.010776 0.0063585 -0.0073312
-0.026262 -0.014235 -0.39058 0.149 -0.032103 -0.0020612 -0.0015834 -0.00018503
-0.0014645 -0.009399 -0.00087787 -0.0017959
0.0048782 0.0052157 -0.032128 -0.0019785 -0.10409 0.28034 -0.001056 -0.00017207
-0.0014403 -0.00014176 -0.0029583 -0.0091576
0.0015881 -0.007772 -0.0015788 -0.00018356 -0.0010548 -0.00016345 -0.22021 0.19676
-0.023524 -0.0079831 -0.0088209 -0.011902
-0.0021034 -0.010786 -0.00152 -0.0093911 -0.0014437 -0.00013814 -0.02354 -0.0079659
-0.27999 0.050658 -0.0069612 -0.0066603
0.0061919 -0.0073751 -0.00090356 -0.0017933 -0.0029697 -0.0091493 -0.008829 -0.011883
-0.0069516 -0.0066371 -0.25925 0.092058
740000000 -0.19338 0.17622 -0.039558 0.026925 0.014036 -0.00493 -8.8091e-05 -0.0041666
-0.0041144 -0.0034076 -0.006655 0.0026504
-0.039567 0.026906 -0.33566 0.1676 -0.036897 0.03436 -0.00027107 -0.006079
-0.012335 0.0079995 -0.0019742 -0.0065273
0.014026 -0.0049926 -0.036836 0.034514 -0.069738 0.27703 -0.0020156 0.0033405
-0.0032431 -0.0059263 -0.0010718 0.00069574
-5.5696e-05 -0.0041473 -0.00025087 -0.0060771 -0.0020058 0.0033538 -0.20333 0.20384
-0.042495 -0.0074827 0.022497 0.01546
-0.0042161 -0.0034538 -0.012238 0.008075 -0.0032598 -0.0059314 -0.0425 -0.007459
-0.18012 0.076869 -0.04253 0.0019148
-0.0066065 0.0027616 -0.0020232 -0.0064868 -0.0010917 0.00070275 0.022517 0.015432
-0.042519 0.001891 -0.24921 0.097904
800000000 -0.16255 0.21945 -0.022144 0.01614 0.0058345 -0.010812 -0.0041455 -0.0023147
-0.0050828 0.0017702 0.0049191 0.0003399
-0.022135 0.01609 -0.34156 0.23805 -0.0085403 0.033824 -0.0021119 0.0021829
-0.0016005 0.0022302 0.0011825 0.0054992
0.0058139 -0.010833 -0.0084551 0.033876 -0.031511 0.30117 0.0010007 0.0015435
-0.00026229 0.003332 -0.0015108 0.0007794
-0.0041849 -0.0023368 -0.0021219 0.0021651 0.001009 0.0015386 -0.17365 0.23158
-0.028387 0.013187 0.014861 -0.010182
-0.0050728 0.0018287 -0.0016233 0.0022697 -0.00026167 0.0033369 -0.02838 0.013249
-0.22364 0.10593 -0.017231 0.019444
0.0049532 0.00018962 0.0012418 0.0054585 -0.0015105 0.00078094 0.014872 -0.010218
-0.017245 0.019435 -0.24032 0.14812
860000000 -0.12791 0.24021 -0.017795 0.030353 -0.0029122 -0.010369 -0.0018419 0.00058784
0.0035036 0.0051759 -0.0038695 -0.0026889
-0.01781 0.030306 -0.29354 0.28096 0.0070894 0.034372 0.00014366 0.0023706
0.0030544 0.0008797 0.0028609 0.00071081
-0.0029103 -0.010344 0.0071931 0.034394 0.015766 0.30955 -0.00056259 -4.1358e-05
0.0019324 -0.0013594 0.0015369 0.0043821
-0.0018043 0.00061352 0.00015819 0.002352 -0.00056328 -4.6687e-05 -0.13691 0.24257
-0.017956 0.01802 -0.0064523 -0.008528
0.0035087 0.005078 0.0030581 0.00087718 0.0019301 -0.0013671 -0.017943 0.018063
-0.16708 0.15869 -0.025313 0.016626
-0.0037314 -0.0025779 0.0028755 0.00072629 0.0015284 0.0043691 -0.0064568 -0.0085273
-0.025323 0.016613 -0.19183 0.1927
920000000 -0.10461 0.26283 0.0046447 0.038271 -0.0092175 -0.0051496 -0.0020853 0.0016508
0.0012165 0.0021418 0.0029857 -0.0013314
0.0045995 0.038172 -0.26588 0.30203 0.02814 0.022961 0.0014279 0.0015394
0.0081903 0.00013861 0.0043815 -0.0024131
-0.0092221 -0.0051363 0.028245 0.022901 0.060988 0.31101 0.0019366 0.00012167
0.0013477 -6.221e-05 0.001104 -0.0012768
-0.0020585 0.0016596 0.001407 0.0015141 0.0019467 0.00012123 -0.11314 0.25883
-0.011241 0.030523 0.0037365 -0.0067373
0.0012045 0.0021132 0.0081813 0.0001095 0.0013455 -5.5231e-05 -0.011202 0.030558
-0.15399 0.16349 -0.00063284 0.025954
0.003059 -0.0013355 0.004366 -0.0024852 0.0011017 -0.0012893 0.0037461 -0.006746
-0.00066863 0.025955 -0.19827 0.20546
980000000 -0.058172 0.28344 0.016709 0.029847 -0.0095364 0.0040362 0.0018849 0.0036421
0.0040457 -0.001894 -0.0030779 -0.0022742
0.01666 0.029838 -0.21319 0.33686 0.033319 0.0055475 0.0020015 -4.8168e-05
0.0018199 -0.0063819 -0.00042121 -0.0023995
-0.0095037 0.0040554 0.033359 0.0054468 0.10663 0.30566 0.00074675 -0.0011834
0.00057633 -0.0021236 0.0014374 -0.00012278
0.0018804 0.003652 0.0020155 -9.2914e-05 0.00075209 -0.0011893 -0.074439 0.26963
0.0074496 0.029438 -0.0091573 -0.0071
0.0039837 -0.0018683 0.0017848 -0.0064174 0.0005764 -0.0021158 0.0075044 0.02943
-0.12222 0.19438 0.0060677 0.019467
-0.0030406 -0.0023424 -0.00038337 -0.0024307 0.0014491 -0.00012261 -0.009153 -0.0070523
0.0060585 0.019448 -0.15596 0.25044
1040000000 -0.017098 0.29246 0.032645 0.019038 -0.0018063 0.0069398 0.0025938 0.00075193
0.00021035 -0.0034089 -0.00039492 -0.0019316
0.032579 0.019053 -0.17839 0.35027 0.03011 -0.014442 0.0016224 -0.001817
-0.0019423 -0.0028192 -0.00095301 -0.0033279
-0.0017593 0.0069215 0.030068 -0.014547 0.15249 0.29285 -0.00042115 -0.0016761
-0.0016251 -0.0010409 -0.00063218 -0.0011311
0.002612 0.00077469 0.00161 -0.0018418 -0.00042755 -0.0016792 -0.047774 0.27925
0.019218 0.018875 -0.0026931 0.00068372
0.00023054 -0.0034349 -0.0019751 -0.0028221 -0.0016276 -0.0010367 0.019247 0.018845
-0.088943 0.20122 0.014644 0.018286
-0.00027067 -0.0018551 -0.0010005 -0.0033472 -0.00063459 -0.0011306 -0.0026979 0.00068495
0.014637 0.018309 -0.134 0.26913
1100000000 0.027569 0.30205 0.036246 -0.0032192 0.002687 0.00423 0.0024469 -0.00090831
-0.0023383 -0.0030991 -0.0042138 0.00013289
0.036223 -0.0031725 -0.13566 0.36893 0.016152 -0.027918 6.2691e-05 -0.0018239
-0.0038054 -0.0010091 -0.0037116 -0.00041523
0.002717 0.004221 0.016066 -0.028005 0.1985 0.27385 -0.0019825 5.2141e-05
-0.0018865 0.00042159 -0.001262 -0.00043113
0.0024199 -0.00090573 3.7776e-05 -0.0018382 -0.0019813 4.7493e-05 -0.0077743 0.28439
0.024669 0.0056334 -0.0025211 -1.6562e-05
-0.0023301 -0.0030662 -0.0038232 -0.00099692 -0.0018941 0.00043771 0.024683 0.0055956
-0.068868 0.21372 0.01919 0.0087695
-0.0042266 0.00017134 -0.003731 -0.00040682 -0.0012717 -0.00043269 -0.0025146 -1.2877e-05
0.019182 0.0087664 -0.087582 0.29995
1160000000 0.078727 0.29836 0.024629 -0.020379 0.0026852 -0.00033675 -3.94e-05 -0.0024228
-0.0040272 -0.00093613 -0.00087791 0.0040889
0.024641 -0.020343 -0.092551 0.37365 -0.0030996 -0.029681 -0.0016031 -0.0017143
-0.0028913 0.0024768 -0.0014993 0.0019571
0.0026856 -0.00035538 -0.0032299 -0.029688 0.24197 0.24393 -0.00087011 0.0017664
-0.00072788 0.0019865 -0.0010063 0.00034154
-6.462e-05 -0.0024208 -0.0016421 -0.0017186 -0.00087211 0.0017763 0.031189 0.28211
0.021222 -0.010066 -0.003281 0.0051765
-0.0040262 -0.00086598 -0.0028843 0.0025007 -0.00072534 0.0019983 0.021205 -0.010094
-0.033864 0.22135 0.018601 -0.00041759
-0.00087222 0.0041308 -0.0015366 0.0019638 -0.0010061 0.00033837 -0.00327 0.0051768
0.018585 -0.00039535 -0.040851 0.30261
1220000000 0.12258 0.28876 0.011187 -0.030113 -0.0016439 -0.00079506 0.00016367 -0.00096055
-0.0027433 0.0020902 0.00098593 0.0021897
0.011204 -0.030093 -0.048588 0.38715 -0.016921 -0.022158 -0.0027315 0.000476
-5.6029e-05 0.0032922 -0.00086551 0.0019441
-0.0016434 -0.00079645 -0.017039 -0.022109 0.28114 0.20563 0.00067364 0.0019043
0.00057009 0.0013483 0.00032355 0.00064515
0.00016645 -0.00094163 -0.002727 0.00047792 0.00067451 0.0018993 0.071267 0.274
0.011054 -0.017083 0.0019964 0.0014347
-0.0027313 0.0021011 -4.3016e-05 0.0032972 0.00057284 0.0013515 0.011032 -0.017108
-0.010619 0.23026 0.014134 -0.013192
0.00093441 0.0021618 -0.00086082 0.00195 0.00032192 0.00064737 0.0019945 0.0014509
0.014118 -0.013202 -0.0094944 0.31726
1280000000 0.17301 0.2688 -0.0075873 -0.028822 -0.002008 0.0026522 -0.00079572 -0.0022247
-0.00092183 0.003264 0.0027294 0.00137
-0.0075475 -0.028802 -0.0024882 0.37941 -0.024363 -0.0091525 -0.0010454 0.0014585
0.0017652 0.0019448 0.00069767 0.0021619
-0.0019804 0.0026687 -0.024433 -0.009047 0.31202 0.16247 0.001702 0.00011454
0.0012436 0.00035991 0.00042482 0.00032914
-0.0007733 -0.002216 -0.0010492 0.0014552 0.0017015 0.00011546 0.1083 0.25834
0.0013949 -0.019484 -5.1983e-05 0.00028872
-0.00089601 0.0032827 0.0017796 0.0019527 0.0012449 0.00035748 0.0013613 -0.019492
0.025639 0.23358 0.003181 -0.015426
0.0027353 0.0013793 0.00072422 0.0021428 0.00043715 0.00032253 -4.8535e-05 0.00028135
0.0031975 -0.015405 0.037523 0.31994
1340000000 0.21046 0.23604 -0.01751 -0.019304 0.00082398 0.0049201 -0.0018312 -0.00086002
0.0014053 0.0028196 0.0019542 -0.0013458
-0.017486 -0.019293 0.037217 0.37218 -0.02226 0.0040361 -0.00014317 0.0021149
0.0021279 0.00083205 0.0012219 0.00077318
0.00086126 0.0049172 -0.022275 0.0041542 0.33456 0.11538 0.0011688 -0.00091437
0.00059642 -0.0006078 1.8755e-05 0.00020271
-0.0018207 -0.00087696 -0.00013369 0.0021154 0.0011708 -0.00090785 0.14179 0.2379
-0.0082624 -0.016914 0.00071652 0.0006229
0.0014498 0.0027548 0.0021473 0.00081332 0.00060284 -0.00060888 -0.0082989 -0.016907
0.055324 0.22906 -0.004039 -0.014099
0.0019023 -0.0014223 0.0012304 0.00077713 2.3085e-05 0.00020922 0.00071438 0.0006336
-0.0040432 -0.014109 0.075571 0.31487
1400000000 0.24475 0.1993 -0.023488 -0.0076857 0.0055611 0.0035172 -0.0022865 0.0006275
0.0024537 0.00096601 0.00030628 -0.0016203
-0.023457 -0.007699 0.075056 0.36017 -0.015532 0.01271 0.0014345 0.0013397
0.0013615 -0.00086764 0.0012437 0.00017412
0.0055858 0.0034827 -0.015492 0.012802 0.34789 0.062495 0.00013973 -0.001704
0.00010356 -0.00045135 0.00026955 0.00022498
-0.0022827 0.00063474 0.0014496 0.0013305 0.00014541 -0.0016995 0.17171 0.20902
-0.014483 -0.010148 -0.0008616 -2.9599e-05
0.0024534 0.00096247 0.0013657 -0.00087269 0.00010691 -0.00045674 -0.014502 -0.010123
0.088391 0.2249 -0.010479 -0.0088911
0.00031829 -0.0016388 0.0012445 0.00016925 0.00026072 0.0002224 -0.00086153 -3.5975e-05
-0.010474 -0.0088893 0.11948 0.30435
1460000000 0.26846 0.15589 -0.020503 0.0046912 0.0060635 -0.0017595 -0.0015643 0.0018555
0.0021935 -0.00044329 -0.00040782 -0.0011786
-0.0205 0.004665 0.11011 0.33872 -0.0063029 0.016058 0.0017784 0.00013877
0.0009184 -0.0014638 0.0012399 -0.00062417
0.0060459 -0.0017797 -0.0062275 0.016099 0.35494 0.0087679 -0.0012124 -0.0014187
0.0001836 -0.00018485 0.00071213 -0.00021325
-0.0015562 0.0018339 0.0017848 0.00013401 -0.0012092 -0.001441 0.19873 0.17968
-0.015924 -0.0034476 -0.00083992 0.0020304
0.0021912 -0.00045437 0.00090566 -0.0014853 0.00018018 -0.00018274 -0.015945 -0.0034112
0.118 0.21121 -0.012121 -0.0028999
-0.00041767 -0.0010974 0.0012341 -0.00062261 0.00071298 -0.00020463 -0.00083567 0.0020416
-0.012137 -0.0029069 0.15311 0.28362
1520000000 0.28169 0.11439 -0.014868 0.010205 0.0036056 -0.0045547 0.00014966 0.0026168
0.0021391 -0.0019518 -0.0012657 -0.00014545
-0.014859 0.010204 0.14408 0.32439 0.0017299 0.013679 0.0016611 -0.00085823
8.0951e-06 -0.0011669 0.00035351 -0.0011076
0.0035781 -0.0045704 0.0018075 0.013684 0.34881 -0.047124 -0.0011195 -0.00044119
0.00075445 -0.00086361 0.0001374 -0.00018437
0.00013994 0.0026085 0.0016642 -0.00086514 -0.0011084 -0.00043979 0.22213 0.14091
-0.015393 0.0026144 0.001656 0.0021859
0.0021066 -0.0019614 -2.9791e-06 -0.001173 0.00075621 -0.00086985 -0.015394 0.0026467
0.1463 0.19821 -0.012089 0.0017622
-0.0012814 -0.00013132 0.00035178 -0.0010991 0.00012915 -0.00018539 0.0016565 0.0021874
-0.012075 0.001751 0.18589 0.2633
1580000000 0.29222 0.068434 -0.008096 0.013504 -0.0010055 -0.0052743 0.001504 0.0019401
-0.00013064 -0.0022527 -0.00033539 0.00032182
-0.0080898 0.013471 0.1719 0.29987 0.005615 0.0085192 0.00045527 -0.0016195
-0.00057767 -0.0010425 -0.00018478 -0.00096877
-0.0010094 -0.0052723 0.0056701 0.0085004 0.32954 -0.10489 -0.0017227 0.00061102
-0.00034622 -0.0012687 0.00018158 -0.00063439
0.0015356 0.0019453 0.00044124 -0.0016242 -0.0017262 0.00061509 0.23611 0.10133
-0.011969 0.0076526 0.0022914 0.00090702
-0.00013423 -0.0022453 -0.00058381 -0.0010374 -0.00034536 -0.0012616 -0.011958 0.0076864
0.17083 0.18085 -0.0094899 0.0075531
-0.00037829 0.00033894 -0.00019722 -0.00095907 0.00017933 -0.00064562 0.0022882 0.00089452
-0.0094969 0.0075549 0.21758 0.23713
1640000000 0.29489 0.026799 -0.0013451 0.012255 -0.0030506 -0.0027815 0.0027442 0.0010686
-0.0007986 -0.0016458 -0.00039427 0.00074296
-0.0013511 0.012246 0.20197 0.27501 0.0063403 0.0034309 -0.00065333 -0.0017717
-0.0010417 -0.00039169 -0.00060034 -0.00073331
-0.0030773 -0.0027604 0.0063728 0.0033909 0.30142 -0.15448 -0.0006698 0.0015999
-0.0011494 -0.0010046 -0.00034804 -0.00039389
0.0027536 0.0010545 -0.00067135 -0.0017654 -0.00067752 0.001599 0.24855 0.052006
-0.0075447 0.0093557 0.0026264 -0.00087518
-0.00082357 -0.0016232 -0.0010485 -0.00038164 -0.0011586 -0.0010082 -0.007527 0.0093819
0.19468 0.15723 -0.0046725 0.0096357
-0.00032449 0.00070412 -0.0006032 -0.00071641 -0.0003512 -0.00038502 0.0026173 -0.00087345
-0.0046733 0.0096224 0.24361 0.20622
1700000000 0.28806 -0.018787 0.0020783 0.0094048 -0.0037532 -6.0191e-06 0.0032081 -0.0012381
-0.0020749 -0.00068135 0.00058753 0.00044801
0.0020718 0.0094087 0.2204 0.24356 0.0042068 0.0003247 -0.0015057 -0.00054701
-0.00083806 4.5404e-06 -0.00099015 -0.00050534
-0.0037588 8.4762e-07 0.0042117 0.00031177 0.25822 -0.19403 0.0004625 0.0016791
-0.0020741 -6.8188e-05 -0.00053109 -0.00085991
0.0031983 -0.0012561 -0.0015193 -0.00053939 0.00045931 0.001677 0.2451 0.0017723
-0.0044339 0.0099302 0.0016037 -0.002214
-0.0020851 -0.00068407 -0.00084011 8.2323e-06 -0.0020716 -6.0607e-05 -0.0044208 0.0099394
0.21252 0.13719 7.1615e-05 0.0099192
0.00055401 0.00051305 -0.00099414 -0.00049455 -0.00053873 -0.00085917 0.0016057 -0.002219
7.7526e-05 0.0099231 0.2598 0.17226
1760000000 0.27659 -0.067476 0.0044586 0.0061189 -0.00251 0.00098034 0.0012974 -0.0034347
-0.001414 0.00071354 0.0003635 -0.00054647
0.0044443 0.006123 0.24688 0.20385 0.0017983 -0.0017113 -0.0012459 0.00022626
-0.0011058 0.0009772 -0.00065445 0.00039868
-0.0025029 0.00098988 0.0017975 -0.0017314 0.21072 -0.22758 0.0010857 0.0010535
-0.0013391 0.0015704 -0.0013168 -0.00064312
0.001325 -0.0034442 -0.0012444 0.00022858 0.0010738 0.0010535 0.23589 -0.049852
-0.00091278 0.0090767 -3.6252e-05 -0.0026635
-0.001428 0.00072282 -0.0010948 0.00099061 -0.0013372 0.0015894 -0.00089361 0.0090724
0.22805 0.10276 0.0041307 0.00742
0.00036079 -0.00054035 -0.00064255 0.00040514 -0.0013156 -0.00064387 -4.3517e-05 -0.0026637
0.0041254 0.0074182 0.27317 0.13483
1820000000 0.25228 -0.10503 0.0045233 0.0025528 -0.00022546 0.0026218 -0.00097189 -0.0031947
-0.0011806 0.0010171 1.582e-05 -0.00013472
0.0045277 0.0025515 0.25724 0.17362 -0.00073787 -0.0004295 -0.0012997 0.00094577
-9.8008e-05 0.0012905 -0.00059093 0.00062598
-0.00019447 0.002613 -0.00074065 -0.00041783 0.15921 -0.24387 0.0016649 0.00034974
-0.0001277 0.0024562 -0.0014143 0.00046677
-0.0010447 -0.0031667 -0.0012877 0.00096127 0.0016707 0.00035186 0.20549 -0.097177
0.00083117 0.0074852 -0.0017382 -0.0016864
-0.0011898 0.0010115 -8.4728e-05 0.0012982 -0.00011263 0.00246 0.00084565 0.0074939
0.24594 0.073741 0.0051137 0.0037116
-6.5953e-06 -0.00016398 -0.00058162 0.00063399 -0.0014072 0.00046625 -0.001732 -0.0016759
0.0051201 0.0037134 0.27543 0.098591
1880000000 0.21698 -0.1455 0.0021568 0.0001141 -0.00070322 0.0023566 -0.002942 -0.0023018
-0.00020597 0.0018106 6.5928e-05 -0.00058836
0.002167 0.00012817 0.26185 0.12697 -0.0027609 0.0015031 -0.00018501 0.0017089
0.00059968 0.0013591 7.2481e-05 0.00097113
-0.00070612 0.0023224 -0.0027567 0.0015224 0.10722 -0.25297 0.0018333 -0.0010015
0.0016577 0.0019899 -0.00094652 0.0014271
-0.0029948 -0.0023431 -0.00016706 0.0017178 0.0018349 -0.00099098 0.16458 -0.13701
0.0016773 0.0051345 -0.0025472 0.00014637
-0.00018979 0.0018188 0.00060059 0.0013592 0.0016541 0.0019994 0.0017051 0.005128
0.25026 0.042012 0.0053293 0.0013082
8.1876e-05 -0.00055949 0.00010253 0.00098094 -0.00093906 0.0014246 -0.0025468 0.00014646
0.0053152 0.0013027 0.27568 0.064874
1940000000 0.17761 -0.17136 -0.0002926 -0.0015261 0.001437 0.0020813 -0.003843 0.00045005
0.00133 0.0010344 -0.00075643 -0.0006061
-0.00029197 -0.0014692 0.26273 0.094953 -0.0014391 0.0040805 0.00098545 0.0013447
0.0018926 0.00053921 0.00099626 0.0003159
0.0014301 0.0020409 -0.0014202 0.0041027 0.062278 -0.24554 0.00040874 -0.0023243
0.0023995 0.00029898 0.0005048 0.001545
-0.0038749 0.00041871 0.00099465 0.0013459 0.00039657 -0.0023282 0.11219 -0.16745
0.00084828 0.0037554 -0.0015882 0.0013883
0.0013707 0.0010289 0.0018809 0.00052411 0.0023927 0.00029206 0.00085552 0.003757
0.25353 0.0035282 0.0040153 -0.0021305
-0.00071709 -0.00057158 0.00098919 0.00032272 0.00049382 0.0015572 -0.0015878 0.0013851
0.0040258 -0.0021322 0.26551 0.028565
2000000000 0.13142 -0.18586 -0.004157 0.00088404 0.0025915 0.001858 -0.0023811 0.003688
0.0013184 0.00032201 -0.00043062 0.00037686
-0.0041545 0.0008193 0.24835 0.059427 -0.0010765 0.006054 0.0015921 0.00039066
0.001442 -0.0012266 0.00052706 0.00010165
0.0026644 0.0018307 -0.0010388 0.006071 0.019055 -0.23187 -0.0013073 -0.001393
0.0020432 -0.0012881 0.0015415 0.0013381
-0.0022632 0.003727 0.0016052 0.00039809 -0.001294 -0.0014014 0.058462 -0.1771
-0.00063445 0.0034052 -7.0241e-05 0.0024297
0.0013417 0.00029511 0.0014459 -0.0012325 0.0020417 -0.0012873 -0.00061286 0.0034013
0.24878 -0.029888 0.00069184 -0.0030535
