!Keysight Technologies,M9804A,MY58100912,A.14.10.03
!Date: Thursday, April 27, 2023 10:28:33
!Correction: S11(C  6-Port  ) 
!S12(C  6-Port  ) 
!S13(C  6-Port  ) 
!S14(C  6-Port  ) 
!S15(C  6-Port  ) 
!S16(C  6-Port  ) 
!S21(C  6-Port  ) 
!S22(C  6-Port  ) 
!S23(C  6-Port  ) 
!S24(C  6-Port  ) 
!S25(C  6-Port  ) 
!S26(C  6-Port  ) 
!S31(C  6-Port  ) 
!S32(C  6-Port  ) 
!S33(C  6-Port  ) 
!S34(C  6-Port  ) 
!S35(C  6-Port  ) 
!S36(C  6-Port  ) 
!S41(C  6-Port  ) 
!S42(C  6-Port  ) 
!S43(C  6-Port  ) 
!S44(C  6-Port  ) 
!S45(C  6-Port  ) 
!S46(C  6-Port  ) 
!S51(C  6-Port  ) 
!S52(C  6-Port  ) 
!S53(C  6-Port  ) 
!S54(C  6-Port  ) 
!S55(C  6-Port  ) 
!S56(C  6-Port  ) 
!S61(C  6-Port  ) 
!S62(C  6-Port  ) 
!S63(C  6-Port  ) 
!S64(C  6-Port  ) 
!S65(C  6-Port  ) 
!S66(C  6-Port  ) 
!S6P File: Measurement: :
# Hz S  RI   R 50
500000000 -0.33621 -0.037089 -0.0098629 -0.0040891 -0.0086471 0.011711 -0.0018349 0.011469
0.012723 0.0048151 -0.0021542 0.0067764
-0.0098067 -0.0040908 -0.41877 -0.050091 0.0074684 -0.011478 0.0024612 0.011943
0.0074083 0.0022445 0.0018378 0.013247
-0.0086107 0.01174 0.0074757 -0.011498 -0.26494 0.2105 0.0071996 0.0030605
-0.00033975 0.0085545 0.0011598 0.012374
-0.0017991 0.011638 0.002492 0.012017 0.0071833 0.003015 -0.32602 0.047666
-0.019372 -0.0047267 0.01875 0.025695
0.012713 0.0049414 0.0073175 0.0022279 -0.00039024 0.0085928 -0.019345 -0.0046303
-0.22666 -0.18468 -0.026881 0.0043998
-0.0019209 0.007408 0.0018635 0.013531 0.0010628 0.012337 0.018834 0.025664
-0.026851 0.0044514 -0.27115 -0.11468
560000000 -0.31571 0.12389 -0.024077 -0.061815 7.9194e-06 0.011853 0.0067571 0.0099999
0.0098681 0.0039748 0.011018 0.0079821
-0.024043 -0.06174 -0.37453 0.10889 -0.042033 -0.037208 0.013608 0.0033047
-0.014147 -0.0026337 0.0045801 -0.001029
-5.5898e-05 0.011857 -0.042234 -0.037147 -0.18275 0.25838 8.8496e-05 -0.0044581
0.018624 0.0035571 0.0071462 -0.0068869
0.0068154 0.0098337 0.013616 0.0032547 9.3644e-05 -0.0043605 -0.30204 0.13584
0.003809 -0.025901 0.004527 -0.019296
0.0096748 0.0037747 -0.014438 -0.0028044 0.018684 0.0034706 0.0038322 -0.025955
-0.28623 -0.011094 0.006668 -0.04974
0.010697 0.007975 0.0046302 -0.0010009 0.0075534 -0.0067563 0.0045659 -0.019318
0.006591 -0.049893 -0.33042 0.032987
620000000 -0.27374 0.10855 -0.023126 0.0071989 0.0040525 0.0084756 0.0073519 -0.0055632
0.010788 -0.00093638 -0.00017773 -0.0023264
-0.023104 0.0071859 -0.40206 0.061758 -0.018511 -0.00048357 -0.001355 -0.0021372
0.01047 -0.0073252 0.00076204 -0.00333
0.004091 0.0083765 -0.018557 -0.00046193 -0.15278 0.26694 -0.0012568 -0.0052734
-0.0044148 -0.0038113 0.0085722 -0.0040228
0.0074057 -0.0055467 -0.0013393 -0.0020965 -0.001319 -0.0052172 -0.2614 0.14586
-0.038859 -0.01973 0.014196 0.024296
0.01101 -0.0011116 0.010401 -0.0074432 -0.0043384 -0.0039332 -0.038809 -0.019625
-0.20386 -0.048195 -0.04074 0.012385
-8.6973e-05 -0.0023484 0.0008462 -0.003344 0.0085745 -0.003954 0.014316 0.024392
-0.040715 0.012324 -0.25033 -0.0044376
680000000 -0.23305 0.19358 -0.028003 -0.01359 0.0048332 0.0053037 0.00083336 -0.0075508
-0.0037332 -0.011095 0.0044657 -0.0059666
-0.027985 -0.013598 -0.38721 0.15896 -0.03304 -0.0011737 -0.002211 -7.1558e-05
-0.0026817 -0.0087618 -0.00091039 -0.001712
0.0048627 0.0053458 -0.033063 -0.0010797 -0.10216 0.28704 -0.00095948 5.6771e-05
-0.0026205 0.001051 -0.0030685 -0.0092513
0.00077951 -0.0076084 -0.0022353 -8.7812e-05 -0.00092711 8.5274e-05 -0.21971 0.19478
-0.023522 -0.0082263 -0.0087626 -0.0096602
-0.0037956 -0.011135 -0.0027355 -0.0087702 -0.0025807 0.00099478 -0.023538 -0.0082475
-0.25213 0.047838 -0.0066225 -0.0098404
0.0044525 -0.0060571 -0.00098761 -0.0016547 -0.0030326 -0.0093659 -0.0088002 -0.0096728
-0.0066071 -0.0098387 -0.25816 0.098823
740000000 -0.19011 0.18741 -0.038441 0.026202 0.012917 -0.0049234 -0.00049891 -0.003867
-0.0047927 -0.0031716 -0.0065029 0.0032533
-0.038421 0.026151 -0.33569 0.17774 -0.035098 0.034972 -0.00069575 -0.0062787
-0.012414 0.0079029 -0.0026055 -0.0061251
0.012918 -0.0049724 -0.035034 0.035085 -0.068824 0.28589 -0.0014518 0.0036107
-0.0023962 -0.0043139 -0.0013898 0.00053034
-0.00050813 -0.0037808 -0.00069545 -0.0062785 -0.0014706 0.0036243 -0.20261 0.20211
-0.043495 -0.0080218 0.022036 0.013249
-0.0046718 -0.0031828 -0.012444 0.0079182 -0.0023784 -0.0041992 -0.0436 -0.0080553
-0.15586 0.072509 -0.041803 0.00047537
-0.0065359 0.0035719 -0.0026045 -0.0061719 -0.0013536 0.00048732 0.022143 0.013203
-0.041877 0.00050972 -0.24632 0.10362
800000000 -0.15755 0.22832 -0.022531 0.0171 0.0050674 -0.010317 -0.0052844 -0.0020144
-0.0043234 0.0030544 0.0034568 0.0012882
-0.022526 0.017079 -0.33788 0.24763 -0.0081096 0.034348 -0.0022034 0.002277
-0.00077214 0.0034044 0.00078994 0.0054632
0.00507 -0.010316 -0.0079991 0.03442 -0.027956 0.3092 0.00097233 0.0013603
0.00073848 0.0036895 -0.0022858 0.0013742
-0.0052625 -0.002032 -0.0021892 0.0022862 0.00098964 0.0013445 -0.17501 0.22956
-0.028472 0.01294 0.012556 -0.010298
-0.0044154 0.0030084 -0.00077149 0.0033754 0.00070658 0.0037185 -0.028493 0.012991
-0.20106 0.095352 -0.017466 0.018005
0.0034533 0.0010575 0.00079639 0.0053355 -0.0023227 0.0013139 0.012584 -0.01029
-0.017513 0.017985 -0.23972 0.15461
860000000 -0.12348 0.24876 -0.017259 0.031093 -0.003339 -0.010004 -0.0022443 0.0017064
0.0045409 0.0050433 -0.0029342 -0.0032368
-0.017246 0.031053 -0.29022 0.29 0.0082478 0.034483 0.00030385 0.0022773
0.0047881 -6.0516e-05 0.0031097 -5.0415e-05
-0.0033969 -0.010005 0.0083668 0.034509 0.020483 0.31731 -0.00046068 -0.00023031
0.0026416 -0.0016153 0.0017372 0.0041337
-0.0022961 0.0017607 0.00029862 0.0022933 -0.00045851 -0.0002207 -0.13961 0.24191
-0.018464 0.018888 -0.0060401 -0.0091893
0.0045547 0.0051302 0.0048559 -4.5836e-05 0.0026814 -0.0016362 -0.018421 0.018976
-0.15161 0.14427 -0.024152 0.015383
-0.0027501 -0.0030202 0.0031961 -0.00013813 0.0018109 0.0041134 -0.006029 -0.0091424
-0.024075 0.015357 -0.18829 0.19577
920000000 -0.097416 0.27226 0.0054156 0.037957 -0.0093899 -0.0043889 -0.0018081 0.0023124
0.0014194 0.0015525 0.0025194 -0.0014856
0.0053968 0.037918 -0.26107 0.31102 0.028311 0.021821 0.0015699 0.0010594
0.0067734 -0.00054449 0.0039783 -0.0031653
-0.0094123 -0.0043853 0.028414 0.021771 0.067057 0.3177 0.0017261 -0.00018453
0.0011671 -0.00049278 0.00087603 -0.0011351
-0.0017724 0.002314 0.0015807 0.0010646 0.0017261 -0.00018386 -0.11508 0.25882
-0.010566 0.030557 0.0028882 -0.0066806
0.0014584 0.001435 0.0067375 -0.00062178 0.0011871 -0.00050187 -0.010479 0.030585
-0.14186 0.15035 -0.0021836 0.027227
0.0025365 -0.0013697 0.003996 -0.0032473 0.00089625 -0.0011516 0.0029514 -0.0066393
-0.0022041 0.02721 -0.19328 0.21127
980000000 -0.050376 0.2917 0.018005 0.030076 -0.0089475 0.0047379 0.0024074 0.0036227
0.0041503 -0.0019815 -0.0029908 -0.0020442
0.017989 0.030055 -0.20806 0.34465 0.033386 0.0045527 0.0019096 -0.00021088
0.0010943 -0.0064668 -0.00083514 -0.0020668
-0.0089518 0.0047587 0.033454 0.0044499 0.1136 0.31105 0.00048501 -0.0012106
7.3963e-05 -0.0022597 0.0014165 -7.4751e-05
0.0024183 0.0036094 0.0019168 -0.00021544 0.00049457 -0.0012263 -0.076579 0.27033
0.0080779 0.029262 -0.0094368 -0.0069403
0.0041296 -0.00196 0.0011366 -0.0064881 7.0092e-05 -0.0022281 0.0081059 0.029279
-0.11003 0.17798 0.0050035 0.01866
-0.0030353 -0.0019826 -0.00089873 -0.0020355 0.0013894 -9.9088e-05 -0.0093832 -0.0070403
0.0049599 0.018724 -0.15135 0.25636
1040000000 -0.0074216 0.29998 0.033601 0.017809 -0.001056 0.006982 0.0028758 0.00046361
-0.00020715 -0.0039849 -0.00054871 -0.0016773
0.033572 0.017787 -0.17254 0.35789 0.029343 -0.015205 0.0015419 -0.0018294
-0.0024948 -0.0024991 -0.0014729 -0.0027749
-0.0010268 0.006961 0.029347 -0.01531 0.16007 0.29705 -0.00049065 -0.0014542
-0.001746 -0.00090622 -0.00041646 -0.0013113
0.0029029 0.0004735 0.0015618 -0.0017993 -0.0004992 -0.0014287 -0.048971 0.28076
0.018751 0.017311 -0.0031275 0.0019265
-0.00018777 -0.0040495 -0.0025028 -0.0024628 -0.0017107 -0.00090846 0.018845 0.0173
-0.08008 0.18628 0.013261 0.018412
-0.0005697 -0.0016481 -0.0014811 -0.0027846 -0.00035494 -0.0012434 -0.0031735 0.0020127
0.013239 0.018381 -0.1289 0.27525
1100000000 0.038314 0.30736 0.036016 -0.0046839 0.0030162 0.0038401 0.0025557 -0.0013
-0.0022766 -0.002801 -0.0037126 -3.0088e-05
0.035996 -0.0046693 -0.1288 0.37496 0.014857 -0.028114 -2.2047e-06 -0.0017346
-0.0033959 -0.00018174 -0.0033662 -0.00056541
0.003024 0.0038188 0.014759 -0.028211 0.20663 0.27629 -0.0018022 0.00030043
-0.0018061 0.00066491 -0.00097394 -0.00037425
0.0025353 -0.001319 -2.5751e-07 -0.001732 -0.0018058 0.00031086 -0.0080253 0.28604
0.023368 0.0048407 -0.002529 0.0010276
-0.0023755 -0.0028039 -0.003422 -0.00020887 -0.0017951 0.00066151 0.023377 0.0048088
-0.061585 0.20024 0.018939 0.0087714
-0.0036558 4.704e-05 -0.0033133 -0.00053908 -0.00097624 -0.00037243 -0.0024375 0.0010028
0.018979 0.0087902 -0.082029 0.30362
1160000000 0.089749 0.30193 0.023716 -0.021206 0.0027402 -0.00059162 -0.00020035 -0.0025454
-0.0039739 -0.00049445 -0.00085511 0.0036634
0.023712 -0.021181 -0.084803 0.37932 -0.0042136 -0.029264 -0.0018298 -0.0015737
-0.0023794 0.002811 -0.0011366 0.0016274
0.0027431 -0.0006061 -0.0043479 -0.029269 0.24972 0.24497 -0.00066668 0.0017719
-0.00039516 0.0019453 -0.0010816 7.4896e-05
-0.000225 -0.0025327 -0.001836 -0.0015639 -0.00065934 0.0017563 0.031938 0.283
0.019759 -0.010433 -0.0024593 0.0055879
-0.0039666 -0.00045869 -0.0023662 0.0028176 -0.00038626 0.0019552 0.019765 -0.010466
-0.028717 0.20991 0.017645 0.00046144
-0.00083407 0.0036997 -0.0010919 0.0016801 -0.0010631 8.3543e-05 -0.0024498 0.0056231
0.017601 0.00048455 -0.035254 0.30565
1220000000 0.13421 0.29033 0.0099814 -0.030288 -0.0015699 -0.00093218 -0.00026657 -0.0011062
-0.0026193 0.00261 0.0012948 0.0019536
0.010006 -0.030257 -0.040151 0.39081 -0.01728 -0.020969 -0.0024792 0.00050256
0.00026817 0.0028457 -0.000705 0.0018204
-0.0015592 -0.00093721 -0.017401 -0.02092 0.2887 0.20519 0.00093874 0.001607
0.00060072 0.0011784 0.0001635 0.00069189
-0.00026506 -0.0011196 -0.0024749 0.00051866 0.00093415 0.001617 0.071947 0.27401
0.0091027 -0.016137 0.0027564 0.0018138
-0.0026332 0.0026461 0.00030879 0.002833 0.00059622 0.0011681 0.0090645 -0.016154
-0.0047834 0.21998 0.013662 -0.012331
0.0012605 0.0019574 -0.00069581 0.0018376 0.0001996 0.00067841 0.0027451 0.0017851
0.013663 -0.012298 -0.00284 0.32144
1280000000 0.18411 0.26765 -0.0083443 -0.028489 -0.0018897 0.0024913 -0.0010995 -0.0018614
-0.00047188 0.0029943 0.0024623 0.001006
-0.0083176 -0.028464 0.0061456 0.38134 -0.023922 -0.0081246 -0.00090371 0.0015314
0.0016973 0.0015321 0.00058554 0.0019885
-0.0018869 0.0025127 -0.023995 -0.0080091 0.3188 0.16089 0.0013964 -0.0003047
0.001012 7.4733e-08 0.00022082 0.00043753
-0.0011216 -0.0018468 -0.00089535 0.0015382 0.0014041 -0.00029664 0.10852 0.25739
-1.2309e-05 -0.017795 0.00045461 8.1924e-05
-0.00041845 0.0030133 0.0016952 0.0015161 0.0010242 5.3299e-06 -2.021e-05 -0.017809
0.032657 0.22442 0.0026888 -0.014635
0.0024602 0.00099072 0.00058218 0.0019982 0.00021476 0.00044935 0.0004203 8.4092e-05
0.0026918 -0.01466 0.044477 0.3216
1340000000 0.22093 0.23337 -0.018082 -0.018801 0.00081258 0.0044098 -0.0019109 -0.00067722
0.0015887 0.0026505 0.0016833 -0.0015554
-0.018049 -0.018788 0.045585 0.37227 -0.021481 0.0045472 1.7505e-06 0.0019653
0.0016879 0.00049222 0.0013641 0.0008014
0.00082423 0.0044025 -0.021485 0.0046612 0.34011 0.11288 0.00092518 -0.00090873
0.00059493 -0.0004241 0.00017554 0.00032067
-0.0019191 -0.00067212 6.6083e-06 0.0019642 0.00093651 -0.00091643 0.14117 0.23676
-0.0084962 -0.014348 0.0012459 7.348e-06
0.0015608 0.0026371 0.0017111 0.00049946 0.00058768 -0.00041469 -0.0085551 -0.014359
0.063622 0.21982 -0.003505 -0.01312
0.0016691 -0.0015289 0.0013712 0.00081002 0.00017943 0.00033953 0.0012809 6.2177e-06
-0.003506 -0.013099 0.082948 0.31579
1400000000 0.25348 0.19443 -0.023592 -0.0071402 0.0051052 0.003045 -0.001935 0.00082069
0.0025741 0.0006643 6.8535e-05 -0.0014762
-0.023561 -0.0071345 0.082526 0.35847 -0.014535 0.01258 0.0013741 0.0011985
0.00088852 -0.00080365 0.0011171 0.00018882
0.0051185 0.0030154 -0.014487 0.012676 0.3528 0.05951 6.412e-06 -0.0014049
0.00014112 -0.00034146 0.00043695 0.00025985
-0.0019379 0.00083776 0.001392 0.0011971 1.8119e-05 -0.0014015 0.17046 0.20809
-0.013484 -0.0078015 -0.00055291 -0.00073928
0.002596 0.00064374 0.00088114 -0.00081509 0.00015171 -0.00034895 -0.013503 -0.007766
0.097751 0.21489 -0.0099735 -0.0082368
9.3981e-05 -0.0015061 0.0011049 0.0001478 0.00040397 0.00023018 -0.0005584 -0.00074064
-0.0099517 -0.0082519 0.12743 0.30397
1460000000 0.27574 0.15007 -0.020477 0.0050795 0.0055619 -0.001808 -0.0014392 0.0017071
0.0019397 -0.00076911 -0.00036612 -0.00081805
-0.020472 0.0050575 0.11611 0.33617 -0.005791 0.015232 0.0016406 0.00014465
0.00075998 -0.0011032 0.00119 -0.00070772
0.0055615 -0.0018352 -0.0057166 0.01528 0.35869 0.0054637 -0.0011451 -0.0011481
0.00015487 -0.00012703 0.00080789 -0.00047322
-0.0014216 0.0017259 0.0016471 0.00014016 -0.001159 -0.0011314 0.19687 0.17916
-0.0137 -0.0016834 -0.00097886 0.0014557
0.001942 -0.00079324 0.0007604 -0.0011167 0.00016975 -0.00014807 -0.013708 -0.0016713
0.12813 0.19956 -0.011517 -0.002674
-0.00036538 -0.0008181 0.001201 -0.00071272 0.00084525 -0.00047514 -0.00099903 0.0014437
-0.011511 -0.0026544 0.16016 0.28204
1520000000 0.28727 0.10823 -0.014623 0.010674 0.0031102 -0.004215 0.00019534 0.0025604
0.0016747 -0.0017867 -0.0011586 -5.9624e-05
-0.014614 0.010659 0.149 0.32125 0.0017375 0.012943 0.0016045 -0.00085229
6.8382e-05 -0.00083533 0.00024228 -0.0010245
0.0030902 -0.0042333 0.001811 0.012939 0.35166 -0.050482 -0.00098498 -0.00032912
0.00046825 -0.00090912 5.6197e-05 -0.00013311
0.00018441 0.0025424 0.0015994 -0.00083958 -0.00097804 -0.0003316 0.22042 0.14114
-0.012446 0.0029869 0.0011167 0.001541
0.0016466 -0.0018212 7.0173e-05 -0.00084169 0.00048009 -0.00090976 -0.012432 0.0030212
0.1564 0.18432 -0.011381 0.0018303
-0.0011412 -6.518e-06 0.00023957 -0.0010353 6.1186e-05 -0.00011762 0.0010839 0.0015682
-0.011389 0.0018062 0.19273 0.26067
1580000000 0.29588 0.061838 -0.0077937 0.013666 -0.0010257 -0.0047614 0.0014587 0.0017819
-0.00052455 -0.0020686 -0.0002315 0.00042117
-0.0077888 0.013641 0.1756 0.29646 0.0051664 0.0080898 0.00040343 -0.0015881
-0.00028986 -0.0010134 -0.00024893 -0.0008518
-0.0010473 -0.0047679 0.005215 0.0080658 0.3314 -0.10784 -0.0014501 0.0004535
-0.00035832 -0.0011821 0.00019584 -0.00066629
0.0014644 0.00178 0.00039196 -0.0015994 -0.0014437 0.00044167 0.23465 0.10168
-0.0091499 0.0067607 0.0017683 0.00047726
-0.00053155 -0.0020437 -0.00030313 -0.0010095 -0.00036004 -0.0011833 -0.0091485 0.0067784
0.18098 0.16513 -0.0088931 0.0072181
-0.00022865 0.00040913 -0.00024619 -0.00082774 0.00018877 -0.0006464 0.0017673 0.00048203
-0.0089088 0.0072194 0.22405 0.23323
1640000000 0.29725 0.020507 -0.0010727 0.012335 -0.0028087 -0.0025542 0.002488 0.00098203
-0.00095538 -0.0010697 -0.00024476 0.000564
-0.0010783 0.012333 0.20456 0.27165 0.0057056 0.0034229 -0.00073323 -0.0015916
-0.00090197 -0.00050412 -0.00056653 -0.00060519
-0.0028177 -0.0025466 0.0057188 0.0034017 0.30318 -0.15659 -0.00077809 0.0012819
-0.00098939 -0.00078801 -0.00010285 -0.00030938
0.0024926 0.00097109 -0.00074722 -0.0015927 -0.00079447 0.0012861 0.24717 0.052451
-0.0053406 0.0070451 0.0020554 -0.00073918
-0.0009664 -0.0010689 -0.00090679 -0.00052186 -0.0010085 -0.00078559 -0.0053385 0.0070521
0.20363 0.13927 -0.004184 0.0092539
-0.00025043 0.00058204 -0.00055498 -0.0006068 -0.0001046 -0.00027282 0.0020803 -0.00073912
-0.0041741 0.0092638 0.24892 0.20165
1700000000 0.28962 -0.024588 0.0023793 0.0094209 -0.0035067 0.00025887 0.0029001 -0.0011072
-0.0018199 -0.00027412 0.00054884 0.00042887
0.0023738 0.0094182 0.22231 0.24047 0.0036877 0.00059429 -0.0013914 -0.00053805
-0.00075935 -9.1089e-05 -0.00092458 -0.00032855
-0.0035061 0.00027668 0.0036996 0.00057043 0.25993 -0.19673 0.00034804 0.0016013
-0.0016567 -0.0001539 -0.00053388 -0.00088046
0.0028833 -0.0011179 -0.0013906 -0.00054351 0.00033555 0.0016135 0.24418 0.0021109
-0.0035 0.0068415 0.0011009 -0.0020169
-0.0018189 -0.00024534 -0.00076763 -8.4272e-05 -0.001679 -0.00013751 -0.0034768 0.0068753
0.22075 0.11748 0.00027961 0.0093417
0.00054817 0.00040736 -0.00093262 -0.00033716 -0.00051213 -0.00093395 0.001113 -0.0020656
0.00027912 0.0093219 0.26493 0.16693
1760000000 0.27668 -0.072931 0.0044972 0.0059824 -0.0022032 0.00083127 0.0012633 -0.0032099
-0.00092539 0.00080233 0.00040756 -0.00050009
0.0044903 0.0059857 0.24801 0.20091 0.0015446 -0.0011519 -0.0011194 0.00029991
-0.001186 0.00083261 -0.00053469 0.00059528
-0.0021916 0.00084843 0.0015387 -0.0011668 0.21142 -0.23019 0.0011553 0.0012633
-0.0010247 0.0013153 -0.0013309 -0.00034044
0.0012682 -0.0032273 -0.0011244 0.00029607 0.0011546 0.0013 0.23461 -0.049853
-0.0015649 0.0060562 -0.00047265 -0.0020423
-0.00090294 0.00079589 -0.0011784 0.00085896 -0.0010065 0.0013409 -0.0015313 0.0060569
0.23496 0.080869 0.0041462 0.0067033
0.0004067 -0.00048683 -0.00051709 0.00060022 -0.0013699 -0.00040714 -0.00049945 -0.0020651
0.0041236 0.0067043 0.27692 0.12878
1820000000 0.25155 -0.10959 0.0045709 0.0024358 4.2766e-05 0.0024605 -0.0009145 -0.0030813
-0.00060149 0.000633 1.6073e-05 -0.00012455
0.0045524 0.0024442 0.25791 0.17126 -0.00035557 0.00011913 -0.0012485 0.00087732
-0.00020807 0.0013794 -0.00042943 0.00052769
4.2857e-05 0.0024562 -0.00035281 0.00011513 0.16101 -0.24545 0.001653 0.00041596
-0.00034107 0.0022399 -0.0015269 0.00047398
-0.00092344 -0.003079 -0.0012442 0.00088058 0.0016367 0.00033389 0.20377 -0.096981
-0.00086542 0.0050047 -0.0015876 -0.0013298
-0.0005913 0.00067216 -0.00018826 0.0013827 -0.00036673 0.0021649 -0.00089648 0.0049488
0.25089 0.05003 0.0049816 0.0029635
2.5417e-06 -0.00010967 -0.00043448 0.00053728 -0.001528 0.00056045 -0.0015689 -0.0012684
0.005002 0.0029823 0.27841 0.092511
1880000000 0.2162 -0.1493 0.0023075 0.00032088 -0.00028412 0.0022332 -0.0027594 -0.0022018
-8.1121e-05 0.0012671 0.00046744 -0.00057969
0.0023088 0.00031142 0.26242 0.125 -0.0022316 0.0017705 -0.00012846 0.0016922
0.00068976 0.0014391 0.00021495 0.00092962
-0.00027705 0.0022349 -0.002216 0.0017769 0.10883 -0.25541 0.0020222 -0.0010618
0.0014995 0.001961 -0.0009412 0.0014346
-0.0027954 -0.0021814 -0.00014075 0.0016993 0.0020132 -0.0010356 0.16277 -0.13675
-0.0011592 0.0038872 -0.002314 0.00053244
-9.1695e-05 0.0012701 0.00069518 0.0014623 0.0015165 0.002 -0.0011637 0.0038937
0.25187 0.015828 0.0046413 0.00072716
0.0004138 -0.00054771 0.00023215 0.00091179 -0.00094101 0.0013924 -0.0022306 0.000572
0.0046689 0.00073163 0.27708 0.057883
1940000000 0.17697 -0.17437 0.00011581 -0.0013727 0.0013926 0.001673 -0.0037175 0.00054921
0.0010513 0.00098992 -0.00059176 -0.00067753
0.00011392 -0.0013721 0.26309 0.093402 -0.0010408 0.0038995 0.00094618 0.0012488
0.0020532 0.00059898 0.00094315 0.00023124
0.0013976 0.0016563 -0.0010152 0.003912 0.062798 -0.24899 0.00029857 -0.0024485
0.0024613 0.00045285 0.0005417 0.0018326
-0.003706 0.00057332 0.00094703 0.0012492 0.00029083 -0.0024769 0.10985 -0.16677
-0.0023523 0.0035591 -0.0012506 0.0020388
0.0010096 0.00099787 0.0020522 0.00057404 0.002453 0.00042402 -0.0023198 0.0035944
0.25127 -0.024425 0.0031826 -0.0021574
-0.00062322 -0.00066518 0.00092132 0.0002209 0.00058476 0.0018617 -0.001317 0.0019478
0.003161 -0.0021872 0.2654 0.021675
2000000000 0.13077 -0.18864 -0.0035828 0.00064055 0.0024558 0.0014436 -0.0023409 0.0037577
0.00084965 0.00040158 -0.00080771 0.00045452
-0.003583 0.00063224 0.24919 0.05792 -0.00077141 0.0056758 0.0015996 0.00040238
0.0015489 -0.0015069 0.00041625 1.0504e-05
0.0024482 0.0014329 -0.00071957 0.0056865 0.019046 -0.2344 -0.0015554 -0.0014647
0.0019544 -0.0012483 0.0015633 0.0013241
-0.0023757 0.0037705 0.0015945 0.00038444 -0.001528 -0.0014526 0.056548 -0.17555
-0.0037145 0.0048798 0.00031671 0.0022381
0.00084474 0.00040616 0.0015442 -0.0014987 0.0020175 -0.0012402 -0.0036478 0.0047629
