!Keysight Technologies,M9804A,MY58100912,A.14.10.03
!Date: Thursday, April 27, 2023 10:28:33
!Correction: S11(C  6-Port  ) 
!S12(C  6-Port  ) 
!S13(C  6-Port  ) 
!S14(C  6-Port  ) 
!S15(C  6-Port  ) 
!S16(C  6-Port  ) 
!S21(C  6-Port  ) 
!S22(C  6-Port  ) 
!S23(C  6-Port  ) 
!S24(C  6-Port  ) 
!S25(C  6-Port  ) 
!S26(C  6-Port  ) 
!S31(C  6-Port  ) 
!S32(C  6-Port  ) 
!S33(C  6-Port  ) 
!S34(C  6-Port  ) 
!S35(C  6-Port  ) 
!S36(C  6-Port  ) 
!S41(C  6-Port  ) 
!S42(C  6-Port  ) 
!S43(C  6-Port  ) 
!S44(C  6-Port  ) 
!S45(C  6-Port  ) 
!S46(C  6-Port  ) 
!S51(C  6-Port  ) 
!S52(C  6-Port  ) 
!S53(C  6-Port  ) 
!S54(C  6-Port  ) 
!S55(C  6-Port  ) 
!S56(C  6-Port  ) 
!S61(C  6-Port  ) 
!S62(C  6-Port  ) 
!S63(C  6-Port  ) 
!S64(C  6-Port  ) 
!S65(C  6-Port  ) 
!S66(C  6-Port  ) 
!S6P File: Measurement: :
# Hz S  RI   R 50
500000000 -0.33804 -0.037012 -0.0097546 -0.0031504 -0.007831 0.011939 -0.0033204 0.011553
0.01226 0.0045812 -0.0034971 0.0080551
-0.009749 -0.0031513 -0.41861 -0.05037 0.0077122 -0.011454 0.0016534 0.012088
0.0073469 0.0023699 0.0012213 0.013285
-0.0078179 0.011952 0.0078016 -0.011539 -0.26463 0.21026 0.0072989 0.0030961
-0.00018779 0.0083807 0.0010992 0.011939
-0.0032457 0.011616 0.0017733 0.012112 0.0072605 0.0030991 -0.32679 0.046202
-0.019891 -0.0043348 0.018133 0.025346
0.012174 0.0046119 0.0073073 0.0021524 -0.00016082 0.0084002 -0.01989 -0.0042988
-0.22552 -0.18545 -0.027858 0.004872
-0.0035214 0.0081511 0.0014147 0.013377 0.001076 0.011925 0.018127 0.025338
-0.027853 0.0048838 -0.27147 -0.11656
560000000 -0.31697 0.12372 -0.023928 -0.062698 0.00050876 0.012155 0.0063915 0.01003
0.010649 0.004418 0.010153 0.0077703
-0.023893 -0.062664 -0.37605 0.10793 -0.042124 -0.03742 0.013576 0.0036422
-0.013557 -0.0045147 0.0043333 -0.00098648
0.00056597 0.012136 -0.042223 -0.037362 -0.18286 0.25818 -0.0004741 -0.0048752
0.019134 0.0044211 0.0073419 -0.00599
0.0065295 0.010045 0.01379 0.0035623 -0.00038425 -0.004783 -0.3026 0.13474
0.0046988 -0.024785 0.0045395 -0.019575
0.010686 0.0043849 -0.013606 -0.0045406 0.019129 0.0044039 0.0046734 -0.024856
-0.28597 -0.010352 0.0080886 -0.050111
0.010165 0.0077996 0.0044449 -0.00094126 0.0073421 -0.0059222 0.0045875 -0.019612
0.0081126 -0.050137 -0.33092 0.029355
620000000 -0.2749 0.10922 -0.022629 0.0073902 0.0037668 0.0081773 0.0067501 -0.0055874
0.011435 -0.00066515 -0.00022027 -0.002225
-0.022614 0.0073616 -0.40234 0.061209 -0.018992 -0.00038848 -0.0011771 -0.0020671
0.010351 -0.0072455 0.0011102 -0.0027365
0.0037756 0.0081948 -0.018931 -0.00041972 -0.15319 0.26679 -0.0015841 -0.0054045
-0.003943 -0.0031729 0.0081813 -0.0037125
0.0067046 -0.0055955 -0.0011364 -0.0020081 -0.0015567 -0.0054261 -0.26156 0.14525
-0.038715 -0.018967 0.014448 0.024449
0.011475 -0.0008432 0.010289 -0.0072781 -0.0039016 -0.0031225 -0.038734 -0.018932
-0.20447 -0.050731 -0.040964 0.013696
-8.7935e-05 -0.0023181 0.0010641 -0.0027342 0.0081476 -0.003683 0.014429 0.024419
-0.040936 0.01365 -0.24948 -0.0062495
680000000 -0.2337 0.19398 -0.027588 -0.01413 0.0047108 0.0050172 0.0010255 -0.0076183
-0.0033344 -0.011076 0.0043636 -0.0067617
-0.027569 -0.01413 -0.38752 0.15809 -0.033165 -0.0015134 -0.0017973 -0.00039484
-0.0028243 -0.0089362 -0.0010664 -0.0019389
0.0047154 0.0050109 -0.033203 -0.0014251 -0.10262 0.28649 -0.00075744 0.00016621
-0.0023184 0.00086756 -0.0028699 -0.0094469
0.00098594 -0.0076054 -0.0017914 -0.00038467 -0.0007543 0.00015907 -0.2197 0.19409
-0.02368 -0.0084524 -0.0087515 -0.010375
-0.0033641 -0.011108 -0.0028604 -0.0089543 -0.002321 0.00086219 -0.023691 -0.0084527
-0.25241 0.047137 -0.0058082 -0.0098102
0.0043944 -0.0068224 -0.0011078 -0.0019558 -0.0028881 -0.0094496 -0.0087431 -0.010418
-0.005815 -0.0097986 -0.25923 0.096295
740000000 -0.18982 0.18856 -0.038583 0.026427 0.012477 -0.0051806 -0.00070556 -0.0039281
-0.0048966 -0.0028236 -0.0064087 0.0034751
-0.038578 0.026395 -0.33517 0.17671 -0.035307 0.035344 -0.00054495 -0.006317
-0.011948 0.0076276 -0.0024741 -0.0059735
0.012512 -0.0051914 -0.035217 0.035454 -0.069344 0.28576 -0.0014565 0.0034696
-0.0026294 -0.0040926 -0.0013906 0.00039266
-0.0007209 -0.0039519 -0.00055333 -0.0063457 -0.0014695 0.0034905 -0.20291 0.20197
-0.043059 -0.0087358 0.021919 0.013421
-0.0048844 -0.0028754 -0.011959 0.0076728 -0.0026578 -0.0040954 -0.043111 -0.00868
-0.15817 0.072764 -0.041694 -0.00058664
-0.0064106 0.0034487 -0.0024623 -0.0059696 -0.0014097 0.00036252 0.021905 0.013372
-0.0417 -0.00063525 -0.24757 0.10225
800000000 -0.15708 0.22807 -0.022718 0.016918 0.0051933 -0.010527 -0.0047715 -0.0017911
-0.0040465 0.0027492 0.0044271 0.0011065
-0.022714 0.0169 -0.33835 0.24751 -0.0080059 0.034377 -0.002086 0.0023136
-0.00054912 0.0034493 0.0011842 0.0053894
0.0051805 -0.01056 -0.0079134 0.034431 -0.028035 0.309 0.0012129 0.0015187
0.00067367 0.003581 -0.0019125 0.0011716
-0.0047865 -0.0017916 -0.0020916 0.002302 0.0012068 0.0015138 -0.17536 0.22973
-0.028701 0.012531 0.012971 -0.0097924
-0.004029 0.0027519 -0.00057629 0.0034352 0.00067864 0.0035745 -0.028695 0.012595
-0.20206 0.095592 -0.017446 0.017444
0.0044404 0.0011191 0.0012066 0.0053667 -0.0018961 0.0011742 0.012965 -0.009815
-0.017436 0.017431 -0.23925 0.15323
860000000 -0.12254 0.24886 -0.017577 0.030987 -0.0033994 -0.0099072 -0.002268 0.0012257
0.0040812 0.0051298 -0.0029511 -0.0027061
-0.017584 0.030953 -0.29033 0.28977 0.0082807 0.034541 0.00025084 0.00201
0.0044114 0.00029658 0.0035063 0.00063926
-0.0034035 -0.0099003 0.0083944 0.034563 0.020491 0.31713 -0.00039889 -0.00031088
0.0028639 -0.0014855 0.0016101 0.0043903
-0.0022834 0.0012318 0.00026269 0.0020188 -0.00040378 -0.00031133 -0.13976 0.24176
-0.01839 0.019026 -0.0059778 -0.0089524
0.004136 0.0051464 0.0044055 0.00029928 0.0028639 -0.0014927 -0.018387 0.019077
-0.15312 0.1445 -0.02451 0.015261
-0.0029975 -0.0026679 0.0035011 0.00063395 0.0016107 0.0044003 -0.0059948 -0.0089661
-0.024516 0.015234 -0.19009 0.19551
920000000 -0.0974 0.27185 0.0050693 0.037959 -0.0095129 -0.004283 -0.0017479 0.002204
0.0014622 0.0015208 0.0024253 -0.0015995
0.0050279 0.037909 -0.26143 0.3109 0.028247 0.021865 0.0016355 0.0011001
0.006807 -0.00073147 0.0040227 -0.0028797
-0.0095082 -0.004272 0.028356 0.021822 0.067058 0.31752 0.0017386 -0.00015425
0.0012855 -0.00039562 0.00095342 -0.00097318
-0.0017369 0.0022087 0.0016485 0.0011113 0.0017362 -0.0001542 -0.11549 0.25867
-0.010575 0.030477 0.0027057 -0.006593
0.0014704 0.0015254 0.0068231 -0.00080133 0.0012859 -0.0003933 -0.010519 0.030516
-0.14218 0.15039 -0.0025698 0.027593
0.0024144 -0.0016026 0.0039694 -0.002945 0.00095127 -0.00095983 0.0027233 -0.0065662
-0.0025858 0.027549 -0.19484 0.21005
980000000 -0.049949 0.29131 0.017829 0.030218 -0.0089077 0.0047854 0.0024483 0.0036393
0.0040172 -0.0019041 -0.0030124 -0.0020161
0.017797 0.03017 -0.20816 0.34478 0.033304 0.0046085 0.0019744 -8.6707e-05
0.0011691 -0.0062933 -0.00060944 -0.002186
-0.0088943 0.0048054 0.03334 0.0045067 0.11357 0.31072 0.00043502 -0.0011842
8.9461e-05 -0.002201 0.0015826 -8.7653e-05
0.0024457 0.0036245 0.001987 -6.8352e-05 0.00043257 -0.0011806 -0.077072 0.27071
0.0074622 0.029279 -0.0091588 -0.0066351
0.004018 -0.0019289 0.0011713 -0.0063251 8.4397e-05 -0.0022036 0.0075203 0.029292
-0.11078 0.17832 0.004699 0.019245
-0.0030187 -0.0019984 -0.00062103 -0.0022176 0.0015904 -8.47e-05 -0.0091626 -0.006604
0.0046914 0.019236 -0.15231 0.25519
1040000000 -0.0074723 0.29952 0.033431 0.018009 -0.0010941 0.0070201 0.00275 0.00061082
-0.00012415 -0.0038156 -0.00063921 -0.0015449
0.033365 0.017979 -0.17257 0.35777 0.029361 -0.015124 0.0014745 -0.0017595
-0.0026326 -0.0023465 -0.0014731 -0.0027786
-0.0010576 0.0070268 0.029316 -0.01525 0.15979 0.29672 -0.00053489 -0.0014569
-0.0015867 -0.00084893 -0.00034636 -0.0012462
0.0027509 0.00060553 0.001484 -0.0017551 -0.00052794 -0.0014615 -0.049166 0.28079
0.018831 0.017615 -0.0030596 0.0020785
-0.00015932 -0.0037767 -0.002664 -0.0023563 -0.001591 -0.00083329 0.018871 0.017578
-0.079723 0.18723 0.013461 0.018311
-0.00063907 -0.0015298 -0.0015373 -0.0027229 -0.00035115 -0.0012441 -0.0030497 0.0020863
0.013459 0.018295 -0.13045 0.27446
1100000000 0.038123 0.30676 0.036037 -0.0044662 0.0030586 0.0038111 0.0024708 -0.0014672
-0.002195 -0.0029772 -0.0039236 0.00015077
0.035999 -0.0044507 -0.12883 0.37488 0.014927 -0.027991 -4.9488e-05 -0.0018211
-0.0032126 -0.00041461 -0.0033803 -0.0005248
0.0030872 0.003796 0.014843 -0.028075 0.2062 0.27607 -0.0018007 0.00026384
-0.0017724 0.00069651 -0.00097666 -0.00048032
0.0024517 -0.0014675 -5.4865e-05 -0.0018221 -0.0017949 0.00026925 -0.0081557 0.28592
0.02335 0.0048549 -0.0022921 0.0010397
-0.0022194 -0.0029537 -0.0032056 -0.00039996 -0.0017649 0.00069989 0.023378 0.0048187
-0.060995 0.2007 0.018747 0.008692
-0.0039424 0.00017564 -0.0033915 -0.00053243 -0.00097499 -0.0004847 -0.002274 0.0010446
0.018749 0.0086907 -0.083422 0.30266
1160000000 0.089554 0.30155 0.023961 -0.020943 0.00285 -0.00057327 -0.00032708 -0.0024834
-0.0040296 -0.00044538 -0.00087014 0.0037839
0.023949 -0.020927 -0.084841 0.37892 -0.0040308 -0.029127 -0.0017882 -0.0016073
-0.0024637 0.002684 -0.0011518 0.0016024
0.0028522 -0.00057977 -0.0041764 -0.029129 0.24925 0.24489 -0.0005621 0.0017481
-0.00036304 0.0018497 -0.0011321 3.488e-05
-0.00032724 -0.0024955 -0.0017886 -0.0015744 -0.00055987 0.0017462 0.031653 0.28269
0.019762 -0.010121 -0.0025758 0.0056379
-0.0040227 -0.00041786 -0.0024112 0.0026902 -0.00037242 0.0018558 0.019761 -0.010134
-0.027707 0.21033 0.017505 0.00059646
-0.00086374 0.0038033 -0.0011577 0.0016059 -0.0011322 4.3685e-05 -0.0025598 0.0056455
0.017509 0.00059821 -0.036393 0.30554
1220000000 0.13403 0.2899 0.010282 -0.030187 -0.0015124 -0.00098477 -0.0001467 -0.00099544
-0.0025488 0.0025808 0.0013526 0.0018501
0.010288 -0.030167 -0.040281 0.39045 -0.017082 -0.020956 -0.0024834 0.00049659
0.00023757 0.002777 -0.00072638 0.001812
-0.0015084 -0.00097764 -0.017199 -0.020899 0.28828 0.20543 0.00091858 0.0015121
0.00059773 0.0011301 0.00013823 0.00075775
-0.00016847 -0.00099805 -0.0024888 0.00050938 0.00092082 0.0015105 0.071557 0.2739
0.0093429 -0.016003 0.0028001 0.0016645
-0.0025407 0.0025965 0.00025787 0.0027865 0.00059214 0.0011327 0.0093254 -0.016018
-0.0040145 0.21995 0.013672 -0.012216
0.001358 0.0018476 -0.00071866 0.0018031 0.00014057 0.0007612 0.0028041 0.0016524
0.013665 -0.012211 -0.0044513 0.32102
1280000000 0.1836 0.2673 -0.008032 -0.028489 -0.0018201 0.0023931 -0.0010427 -0.0018768
-0.00057833 0.0030394 0.0024953 0.00089811
-0.0080104 -0.028466 0.0058064 0.38099 -0.023688 -0.0081996 -0.0009397 0.0014876
0.0016133 0.0015528 0.00056037 0.0019781
-0.0018309 0.0023925 -0.023749 -0.0081031 0.31849 0.16136 0.0013554 -0.00023189
0.0009992 9.0122e-05 0.00022038 0.00047244
-0.0010438 -0.0018631 -0.00092787 0.0014856 0.0013496 -0.00022473 0.10801 0.25731
0.00030847 -0.017593 0.00053202 6.1326e-06
-0.0005535 0.0030526 0.0016225 0.0015416 0.001006 8.8904e-05 0.00027586 -0.017607
0.033444 0.22368 0.0029669 -0.014339
0.0025171 0.00087765 0.00057189 0.0019707 0.00023172 0.00047357 0.00054191 7.3266e-06
0.0029718 -0.014335 0.043111 0.32152
1340000000 0.22041 0.23293 -0.017792 -0.018952 0.00077376 0.0043079 -0.0017641 -0.00073334
0.0015017 0.0026368 0.0016766 -0.0015523
-0.017758 -0.018956 0.045133 0.3721 -0.021414 0.004402 -1.8901e-05 0.0019375
0.0016742 0.00063684 0.0013363 0.000899
0.00079456 0.0043085 -0.021408 0.0045237 0.34035 0.11329 0.00093169 -0.00083515
0.00067413 -0.00036953 0.00024314 0.00033053
-0.0017709 -0.00071862 -1.1133e-05 0.0019373 0.00092575 -0.00083107 0.14059 0.23691
-0.0080716 -0.014554 0.0012991 -6.1292e-05
0.0015102 0.0026253 0.0016802 0.00063369 0.00067323 -0.00037192 -0.0080947 -0.014537
0.064301 0.2189 -0.0032034 -0.013064
0.001668 -0.0015636 0.0013496 0.00088446 0.00024875 0.00033647 0.0012981 -6.7483e-05
-0.0031916 -0.013061 0.081736 0.31613
1400000000 0.25281 0.19427 -0.023504 -0.0074476 0.0049367 0.0030157 -0.0019027 0.00062556
0.0025743 0.00071377 0.00010755 -0.0013835
-0.023477 -0.0074637 0.082041 0.35853 -0.014549 0.012348 0.0013388 0.0012398
0.00097619 -0.00076485 0.0012256 0.00016321
0.0049577 0.0029878 -0.014505 0.012432 0.35315 0.059696 8.8623e-05 -0.0013772
0.00010047 -0.00035376 0.00043232 0.00013154
-0.0018932 0.00062457 0.0013444 0.0012266 8.2716e-05 -0.0013877 0.17005 0.20837
-0.013145 -0.0081287 -0.0005752 -0.00085196
0.0025721 0.00070488 0.00097048 -0.00076503 9.9901e-05 -0.00035644 -0.013152 -0.0081029
0.097539 0.21372 -0.0095654 -0.0084179
0.00010134 -0.0013728 0.0012193 0.00014076 0.00043793 0.00013525 -0.00058148 -0.00085614
-0.0095545 -0.0084157 0.12608 0.30454
1460000000 0.27493 0.14988 -0.020468 0.0047741 0.005386 -0.0017149 -0.0015132 0.0016608
0.0019815 -0.00074402 -0.00039825 -0.0008017
-0.020448 0.0047495 0.11567 0.33638 -0.0060109 0.015086 0.0016635 0.00017435
0.00083276 -0.0010647 0.0011916 -0.00071024
0.0053724 -0.0017377 -0.0059325 0.015119 0.35893 0.0052027 -0.0010614 -0.0011843
0.00024292 -0.00020653 0.000805 -0.00037825
-0.0015037 0.0016584 0.0016637 0.0001645 -0.001052 -0.0011881 0.19664 0.17939
-0.013556 -0.0022724 -0.001191 0.0014101
0.001977 -0.00075829 0.0008319 -0.0010717 0.00024219 -0.00021168 -0.013564 -0.0022447
0.12737 0.1985 -0.01134 -0.0029852
-0.00040242 -0.0007919 0.0011912 -0.00071667 0.00080086 -0.00037842 -0.0011912 0.0013978
-0.011332 -0.0029851 0.15932 0.28267
1520000000 0.28634 0.10832 -0.014785 0.010459 0.0030509 -0.0040511 7.5729e-05 0.002528
0.0017307 -0.0017472 -0.001128 -5.3972e-05
-0.014783 0.010438 0.14871 0.32156 0.0014625 0.012916 0.001577 -0.00078564
0.00011124 -0.0008798 0.00026339 -0.0010609
0.003037 -0.0040646 0.0015353 0.01292 0.35187 -0.050874 -0.00093853 -0.00038001
0.00049807 -0.00084167 -3.701e-05 -0.00011198
7.933e-05 0.0025248 0.0015726 -0.0007997 -0.00093338 -0.0003803 0.22023 0.14145
-0.012692 0.0025427 0.00094566 0.0017126
0.0017229 -0.001758 9.7951e-05 -0.00087993 0.00049868 -0.00084851 -0.012676 0.0025729
0.15531 0.18362 -0.011265 0.001382
-0.0011272 -3.1353e-05 0.00025345 -0.0010583 -3.9215e-05 -0.00011423 0.00095634 0.0017153
-0.01126 0.0013822 0.192 0.26146
1580000000 0.29489 0.062398 -0.0080776 0.013532 -0.00094843 -0.0046528 0.0012911 0.0018108
-0.00055427 -0.0021207 -0.00031904 0.00043022
-0.0080738 0.013528 0.1755 0.29683 0.0050001 0.0081672 0.00046572 -0.0015697
-0.00039467 -0.0010297 -0.00035584 -0.00083411
-0.00097572 -0.0046502 0.005055 0.0081559 0.33125 -0.10827 -0.0014826 0.00041591
-0.00031914 -0.0010627 0.00012371 -0.00060296
0.0013025 0.0017962 0.00045725 -0.0015733 -0.0014849 0.00041211 0.23469 0.1019
-0.0095716 0.0064269 0.0017263 0.00069749
-0.00056931 -0.0021151 -0.00039638 -0.0010271 -0.00032582 -0.0010656 -0.0095593 0.006437
0.17968 0.16494 -0.0089872 0.0068348
-0.00031032 0.00042646 -0.0003645 -0.00084321 0.00012269 -0.00060933 0.0017343 0.00068803
-0.0089948 0.0068312 0.22347 0.234
1640000000 0.29656 0.021555 -0.0013263 0.01238 -0.0026626 -0.0025047 0.0025436 0.001046
-0.00090079 -0.0011578 -0.00024286 0.00064586
-0.0013393 0.012377 0.2046 0.272 0.0056566 0.0035204 -0.00071842 -0.0016544
-0.00094653 -0.0004674 -0.00056844 -0.00057309
-0.0026769 -0.0024927 0.0056868 0.0034932 0.30305 -0.15712 -0.00080814 0.0012777
-0.0010662 -0.0008692 -0.00010318 -0.00031345
0.0025476 0.0010371 -0.00073981 -0.0016549 -0.0008094 0.0012805 0.24728 0.052571
-0.0059413 0.0070416 0.0020796 -0.0005862
-0.00090131 -0.0011487 -0.0009519 -0.00046351 -0.0010723 -0.00087201 -0.0059288 0.0070618
0.20247 0.13969 -0.0045272 0.0089199
-0.00024225 0.0006514 -0.00057975 -0.00057687 -0.00010249 -0.00031433 0.0020841 -0.00059344
-0.0045181 0.0089163 0.24864 0.20224
1700000000 0.28936 -0.0233 0.0021337 0.0095794 -0.0033816 0.000177 0.0029215 -0.0010497
-0.0019314 -0.00036199 0.00065378 0.00038671
0.0021277 0.0095691 0.22248 0.24068 0.0037478 0.00074431 -0.0013986 -0.00053648
-0.00082095 -2.9868e-05 -0.00091183 -0.00030895
-0.0033924 0.0001928 0.0037385 0.00071678 0.25941 -0.19689 0.00032498 0.0016346
-0.0017459 -0.00018961 -0.0005334 -0.0009147
0.0029242 -0.0010619 -0.00141 -0.00053701 0.00031471 0.0016423 0.24406 0.0020865
-0.0040561 0.0072701 0.0012511 -0.0019424
-0.0019284 -0.00034277 -0.00081578 -2.1293e-05 -0.0017424 -0.00018329 -0.0040339 0.0072782
0.21986 0.11833 -7.998e-05 0.0091606
0.00064977 0.00037885 -0.00091808 -0.00031172 -0.00053927 -0.00090664 0.0012487 -0.0019441
-7.5103e-05 0.0091687 0.26432 0.16756
1760000000 0.27711 -0.071602 0.0044485 0.0062494 -0.0022111 0.00094646 0.0013653 -0.0032584
-0.0010539 0.00072894 0.00039061 -0.00055892
0.0044303 0.0062473 0.24827 0.20102 0.0016248 -0.00098854 -0.0011373 0.00024486
-0.0011519 0.0008793 -0.00050318 0.00057919
-0.0021902 0.0009697 0.0016127 -0.00099642 0.21059 -0.2299 0.0011118 0.0012982
-0.0011211 0.001383 -0.0013009 -0.00036547
0.0013447 -0.0032625 -0.0011392 0.000254 0.0011045 0.0012964 0.23438 -0.049861
-0.0017396 0.0065783 -0.00032633 -0.0021496
-0.001049 0.00074641 -0.0011417 0.00089475 -0.0011207 0.001385 -0.0017263 0.006591
0.23446 0.081771 0.0037979 0.0066679
0.00038102 -0.00055787 -0.0005069 0.00058026 -0.0013083 -0.00036983 -0.00032376 -0.0021387
0.0037952 0.0066686 0.27631 0.12932
1820000000 0.25267 -0.10875 0.0046246 0.0026821 0.0001189 0.0023897 -0.00084095 -0.003104
-0.00067943 0.00071108 -2.6136e-05 -0.00017633
0.0046168 0.002682 0.25811 0.17118 -0.00025945 8.921e-05 -0.0012837 0.00090084
-0.00012489 0.0013645 -0.0003953 0.00052815
0.00012994 0.0023949 -0.00025726 8.5597e-05 0.16067 -0.24556 0.0016327 0.00036892
-0.00030545 0.0020557 -0.0014581 0.00055128
-0.00085443 -0.0031042 -0.0012827 0.00091556 0.001632 0.00036717 0.20371 -0.097105
-0.00092729 0.0053885 -0.0015092 -0.001349
-0.00067806 0.00070516 -0.0001045 0.0013647 -0.00029893 0.0020522 -0.00091442 0.0053966
0.25071 0.05095 0.0045995 0.003253
-2.7509e-05 -0.00018202 -0.0003876 0.00052684 -0.0014751 0.00055381 -0.001517 -0.0013477
0.0045929 0.0032539 0.27778 0.093044
1880000000 0.21764 -0.14896 0.0024942 0.00043633 -0.00032814 0.0019607 -0.0027835 -0.0023306
-4.0942e-05 0.0013887 0.00033069 -0.00048152
0.0024877 0.00044282 0.26262 0.12489 -0.0021022 0.001714 -8.9849e-05 0.0016709
0.00068788 0.0013848 0.00026348 0.00087285
-0.00030775 0.0019648 -0.002089 0.0017421 0.10875 -0.25518 0.0020507 -0.0010665
0.0015291 0.0019747 -0.00078852 0.0013813
-0.0027751 -0.0023188 -7.9061e-05 0.0016812 0.00205 -0.0010775 0.16239 -0.13681
-0.0007806 0.0043003 -0.0023207 0.00063479
-3.1676e-05 0.0013906 0.00069766 0.0013764 0.0015333 0.001964 -0.00076049 0.0042971
0.25208 0.016698 0.0042895 0.0012031
0.00032206 -0.0004703 0.00026404 0.00087065 -0.00079208 0.001374 -0.002311 0.00064278
0.0042917 0.0011976 0.2767 0.058659
1940000000 0.17818 -0.17492 0.00029678 -0.0013065 0.0012815 0.0017949 -0.003772 0.00045833
0.0011308 0.00087376 -0.0005846 -0.00060252
0.00029628 -0.0013042 0.26314 0.093185 -0.0010195 0.0038668 0.0010097 0.0013159
0.0019954 0.0005883 0.00081566 0.00017705
0.001302 0.0017887 -0.00097769 0.0038819 0.062451 -0.24876 0.0003541 -0.0023162
0.0023685 0.00057644 0.00035866 0.0015853
-0.0037623 0.00047796 0.0010243 0.0013176 0.00035753 -0.0023221 0.10961 -0.16656
-0.0018385 0.0037979 -0.0012312 0.0018145
0.0011437 0.00087476 0.0019957 0.00057524 0.0023701 0.00057195 -0.0018242 0.0038033
0.25159 -0.02376 0.0030627 -0.0018016
-0.00060526 -0.00059104 0.00080704 0.0001532 0.0003613 0.0015785 -0.0012419 0.0018044
0.0030482 -0.0017947 0.26473 0.022568
2000000000 0.13166 -0.1897 -0.0034748 0.0005231 0.0023957 0.0014986 -0.0024074 0.0036258
0.00085515 0.00019921 -0.00060624 0.00033174
-0.0034703 0.00053021 0.24911 0.057705 -0.00084033 0.0055694 0.0016351 0.00028612
0.0015488 -0.0014796 0.00041137 0.00015542
0.0024203 0.0014906 -0.00079662 0.0055961 0.018778 -0.23441 -0.0015594 -0.0014311
0.0020173 -0.0012343 0.0014926 0.0013406
-0.0023809 0.0036458 0.0016456 0.00027105 -0.0015549 -0.0014344 0.056457 -0.17543
-0.0030464 0.0046403 0.00028784 0.0022545
0.00085034 0.00019584 0.0015459 -0.0015016 0.002013 -0.0012306 -0.0030274 0.0046424
