!Keysight Technologies,M9804A,MY58100912,A.14.10.03
!Date: Thursday, April 27, 2023 10:28:33
!Correction: S11(C  6-Port  ) 
!S12(C  6-Port  ) 
!S13(C  6-Port  ) 
!S14(C  6-Port  ) 
!S15(C  6-Port  ) 
!S16(C  6-Port  ) 
!S21(C  6-Port  ) 
!S22(C  6-Port  ) 
!S23(C  6-Port  ) 
!S24(C  6-Port  ) 
!S25(C  6-Port  ) 
!S26(C  6-Port  ) 
!S31(C  6-Port  ) 
!S32(C  6-Port  ) 
!S33(C  6-Port  ) 
!S34(C  6-Port  ) 
!S35(C  6-Port  ) 
!S36(C  6-Port  ) 
!S41(C  6-Port  ) 
!S42(C  6-Port  ) 
!S43(C  6-Port  ) 
!S44(C  6-Port  ) 
!S45(C  6-Port  ) 
!S46(C  6-Port  ) 
!S51(C  6-Port  ) 
!S52(C  6-Port  ) 
!S53(C  6-Port  ) 
!S54(C  6-Port  ) 
!S55(C  6-Port  ) 
!S56(C  6-Port  ) 
!S61(C  6-Port  ) 
!S62(C  6-Port  ) 
!S63(C  6-Port  ) 
!S64(C  6-Port  ) 
!S65(C  6-Port  ) 
!S66(C  6-Port  ) 
!S6P File: Measurement: :
# Hz S  RI   R 50
500000000 -0.33838 -0.037269 -0.01004 -0.0027197 -0.0077825 0.01209 -0.0034817 0.011835
0.01237 0.0046544 -0.0034609 0.0082128
-0.010058 -0.0030225 -0.41874 -0.05052 0.0081782 -0.011525 0.0015695 0.011791
0.0073848 0.0023866 0.0013367 0.013287
-0.0079277 0.012454 0.007578 -0.01156 -0.26437 0.2098 0.0071112 0.0028549
-0.00012503 0.0085691 0.0010963 0.011892
-0.0029535 0.011694 0.0013555 0.011781 0.0071456 0.0028912 -0.32641 0.045898
-0.01982 -0.0042483 0.018143 0.025408
0.011141 0.0044765 0.007574 0.0026764 -0.00068797 0.0086228 -0.019906 -0.0043207
-0.22557 -0.18569 -0.02779 0.0049802
-0.0040857 0.0086478 0.00081543 0.013103 0.00058483 0.011619 0.018739 0.024967
-0.027863 0.0052287 -0.27118 -0.11675
560000000 -0.31769 0.12451 -0.023973 -0.062471 0.00046711 0.01222 0.0063068 0.010584
0.010439 0.004359 0.010105 0.0076796
-0.023242 -0.061562 -0.37597 0.10707 -0.042097 -0.037 0.013803 0.0031849
-0.013403 -0.004524 0.004167 -0.0010069
0.00019654 0.012708 -0.042076 -0.0374 -0.18262 0.25787 -0.00056312 -0.0048145
0.019049 0.0044626 0.0072754 -0.006038
0.0067175 0.010728 0.013389 0.0024553 -0.00082807 -0.0046038 -0.30266 0.13492
0.0046216 -0.024867 0.0046163 -0.01959
0.011904 0.0032106 -0.014435 -0.0032097 0.019151 0.003859 0.0048869 -0.024946
-0.28609 -0.010358 0.0080773 -0.050364
0.010734 0.0075249 0.0044005 -0.002898 0.0070802 -0.0059716 0.0044434 -0.019712
0.008117 -0.050317 -0.3307 0.028789
620000000 -0.27556 0.10797 -0.022894 0.0074852 0.0037686 0.0083505 0.006927 -0.0059694
0.011604 -0.00074224 0.0002036 -0.0022397
-0.022701 0.0073807 -0.40261 0.061063 -0.018904 -0.00032727 -0.0012067 -0.0021099
0.01034 -0.0072622 0.0010569 -0.0026748
0.003264 0.0083324 -0.018943 -0.00036251 -0.15328 0.26704 -0.0018717 -0.0052479
-0.00408 -0.0031831 0.0080946 -0.0038226
0.0058519 -0.0057694 -0.0014643 -0.0022244 -0.0017215 -0.0054272 -0.26162 0.14511
-0.038624 -0.019047 0.014364 0.02425
0.012356 0.00046411 0.01049 -0.0072287 -0.0039468 -0.0031965 -0.038654 -0.01929
-0.20424 -0.050872 -0.0408 0.013663
7.8192e-05 -0.0021181 0.00072328 -0.0028746 0.0078191 -0.0037439 0.01408 0.024334
-0.040798 0.013695 -0.24935 -0.0066383
680000000 -0.23425 0.19462 -0.02762 -0.014078 0.0047386 0.0051453 0.0012116 -0.0075197
-0.0032816 -0.011141 0.0044006 -0.0068121
-0.02774 -0.013846 -0.38759 0.15812 -0.033211 -0.0014252 -0.0017882 -0.00037452
-0.0027954 -0.0089414 -0.0011047 -0.0019203
0.0048776 0.0053267 -0.033242 -0.0013092 -0.10258 0.28638 -0.00077493 0.0001325
-0.0023697 0.00084405 -0.0028895 -0.0094749
0.0016033 -0.0074513 -0.001797 -0.00031709 -0.00055511 0.00010392 -0.21974 0.194
-0.023754 -0.0085575 -0.0088119 -0.01046
-0.0033893 -0.01136 -0.0030282 -0.0088776 -0.0020725 0.00097397 -0.02381 -0.0088341
-0.25239 0.046934 -0.005793 -0.0097787
0.0044206 -0.0070857 -0.0014555 -0.0020401 -0.0029292 -0.0094896 -0.0087358 -0.010425
-0.0057592 -0.0098115 -0.25937 0.095893
740000000 -0.18977 0.18867 -0.038795 0.026409 0.012557 -0.0052342 -0.00085722 -0.0040528
-0.0048179 -0.002909 -0.0062954 0.0033861
-0.038928 0.026071 -0.33546 0.17682 -0.035534 0.035427 -0.00053778 -0.006311
-0.012011 0.0076378 -0.0024477 -0.0059317
0.012791 -0.0050421 -0.035244 0.035121 -0.06951 0.28557 -0.0013601 0.0034336
-0.0026542 -0.0041707 -0.0013927 0.00039736
-0.0013423 -0.0039201 -0.00075758 -0.0063646 -0.0015186 0.0036697 -0.20299 0.20181
-0.043099 -0.0088535 0.02188 0.013407
-0.0044249 -0.0033024 -0.012001 0.0080002 -0.0022563 -0.0040571 -0.042755 -0.0088186
-0.15825 0.072488 -0.04156 -0.00048641
-0.0067121 0.003494 -0.0026134 -0.0058717 -0.0017347 0.00065237 0.02182 0.013275
-0.041416 -0.00050457 -0.24768 0.10168
800000000 -0.15715 0.22811 -0.02286 0.016938 0.0052472 -0.010583 -0.0048357 -0.0018185
-0.0040943 0.0027273 0.0043855 0.0011642
-0.022722 0.016964 -0.33838 0.24752 -0.0079885 0.034367 -0.0020361 0.0022752
-0.00056632 0.003407 0.0011266 0.005355
0.0052205 -0.010486 -0.0079905 0.034521 -0.028093 0.30893 0.0011693 0.001469
0.00065631 0.0036164 -0.0019193 0.0011224
-0.0048822 -0.0017578 -0.0022234 0.0024435 0.0011756 0.0014752 -0.1755 0.22963
-0.028751 0.012488 0.012949 -0.009736
-0.0041946 0.0028192 -0.00050613 0.0034431 0.00064148 0.0037907 -0.028652 0.012624
-0.20213 0.095252 -0.017513 0.01746
0.0040604 0.0010904 0.00052861 0.0056438 -0.0017737 0.001005 0.012985 -0.0097753
-0.017533 0.017342 -0.23958 0.15294
860000000 -0.12285 0.24879 -0.017578 0.031128 -0.0033369 -0.0098807 -0.0022853 0.0012013
0.0041634 0.0051853 -0.0030273 -0.0026272
-0.017676 0.031091 -0.29023 0.28992 0.0081876 0.034517 0.0002753 0.0020166
0.0044492 0.00036296 0.0034115 0.00074174
-0.0033201 -0.0097912 0.0084681 0.034567 0.02033 0.31712 -0.00041797 -0.00029627
0.0028399 -0.0014096 0.0016156 0.0044216
-0.0024244 0.0012198 8.1041e-05 0.0022692 -0.00037384 -0.00035972 -0.13973 0.24175
-0.018413 0.019001 -0.0060335 -0.008898
0.0041963 0.0049977 0.004815 0.00027815 0.002757 -0.0016095 -0.018321 0.018866
-0.15328 0.14424 -0.024673 0.015313
-0.0030811 -0.0023554 0.0035634 0.00074999 0.001724 0.0044911 -0.0060597 -0.0088049
-0.024582 0.015253 -0.19013 0.19523
920000000 -0.097838 0.272 0.0050986 0.038 -0.0094724 -0.0042707 -0.001742 0.0022509
0.0014214 0.0015245 0.0024864 -0.001586
0.0051268 0.037957 -0.26161 0.311 0.028375 0.021903 0.0016382 0.0010781
0.0067826 -0.00077593 0.0038974 -0.0029494
-0.0095141 -0.0042204 0.028395 0.021869 0.066995 0.31756 0.0017755 -0.00015676
0.0012874 -0.00041274 0.00087946 -0.0010222
-0.00156 0.0022327 0.0014918 0.00099065 0.0017754 -0.00013674 -0.11557 0.25866
-0.010639 0.030455 0.0027009 -0.0065543
0.0016586 0.0018366 0.0069127 -0.00055618 0.0013031 -0.00041774 -0.010592 0.030527
-0.14235 0.15014 -0.0025091 0.027619
0.0023082 -0.0017679 0.0037069 -0.0030152 0.0010225 -0.0010846 0.0026709 -0.006585
-0.0026556 0.027613 -0.19509 0.20969
980000000 -0.049995 0.29125 0.017887 0.030284 -0.00894 0.0047333 0.002429 0.0036269
0.0040294 -0.0019052 -0.0029957 -0.0020078
0.017682 0.030259 -0.2083 0.34464 0.033276 0.0046158 0.0020319 -4.1417e-05
0.0012306 -0.0062961 -0.00061693 -0.0022095
-0.0089285 0.0048207 0.033386 0.0045002 0.11346 0.31071 0.0004847 -0.0011563
0.0001088 -0.002204 0.001578 -9.7188e-05
0.0024724 0.0036277 0.0020576 -0.00012655 0.00048351 -0.0012147 -0.077184 0.27068
0.0074044 0.029325 -0.0091717 -0.0066253
0.0040296 -0.0019498 0.0012485 -0.0062787 8.761e-05 -0.0021518 0.0074555 0.029304
-0.11095 0.1782 0.0046914 0.019227
-0.0031418 -0.0018917 -0.00039126 -0.0022866 0.0016099 -5.141e-05 -0.009177 -0.006651
0.0046326 0.01918 -0.15264 0.25505
1040000000 -0.0078492 0.2997 0.033481 0.018102 -0.0010744 0.0070461 0.0027027 0.00059342
-0.00015378 -0.0037935 -0.00062927 -0.00155
0.033483 0.018072 -0.1728 0.35777 0.029395 -0.015115 0.0014286 -0.0017795
-0.0026317 -0.0023933 -0.0015571 -0.0027192
-0.00105 0.0069981 0.029291 -0.015177 0.15973 0.29677 -0.00050935 -0.0014633
-0.0015942 -0.00083946 -0.00036653 -0.0012359
0.0027628 0.00061652 0.0014493 -0.0017368 -0.00049146 -0.0014658 -0.049246 0.28073
0.018818 0.017648 -0.0030613 0.0020728
-0.0001915 -0.0038337 -0.0025885 -0.0022945 -0.0015867 -0.00087657 0.018893 0.017663
-0.079877 0.18717 0.013484 0.018331
-0.00049991 -0.0017159 -0.001758 -0.0027545 -0.00029405 -0.0012404 -0.0030181 0.0020779
0.013461 0.018354 -0.13073 0.27422
1100000000 0.038081 0.30668 0.036053 -0.004365 0.0030513 0.0038365 0.0024881 -0.001476
-0.0022006 -0.0029732 -0.0039739 0.0001459
0.036085 -0.004375 -0.12901 0.3748 0.014941 -0.027992 -4.3982e-05 -0.0018274
-0.0031921 -0.00044821 -0.0034094 -0.00054613
0.003098 0.0038206 0.014825 -0.028046 0.20606 0.27608 -0.0017911 0.00027848
-0.0017513 0.00072567 -0.00095898 -0.00047769
0.0025139 -0.0014905 -0.00010303 -0.0018512 -0.0017959 0.00027179 -0.0082229 0.28594
0.02337 0.0049167 -0.0022613 0.0010177
-0.0022084 -0.003075 -0.00318 -0.00046882 -0.0017916 0.00068082 0.02335 0.0049333
-0.061177 0.20062 0.018801 0.0087418
-0.0039134 0.00013888 -0.0033945 -0.00054876 -0.00096621 -0.000454 -0.0022636 0.001036
0.018731 0.0087461 -0.083831 0.30254
1160000000 0.089262 0.30161 0.024059 -0.020995 0.0028383 -0.00055508 -0.00030742 -0.0025042
-0.0040484 -0.00044679 -0.00088113 0.0038042
0.024078 -0.020909 -0.085056 0.37891 -0.004023 -0.029147 -0.0017892 -0.0016345
-0.0024357 0.0026859 -0.0011907 0.0016106
0.0028853 -0.00061867 -0.004161 -0.029123 0.24914 0.24498 -0.00059155 0.0017228
-0.00037562 0.0018363 -0.001137 3.8069e-05
-0.000276 -0.0024727 -0.0017167 -0.0016255 -0.00058096 0.0017364 0.031565 0.28272
0.019791 -0.010073 -0.0025878 0.0056628
-0.0040337 -0.00036451 -0.0023363 0.0025935 -0.00035723 0.0018407 0.019803 -0.01007
-0.027854 0.21034 0.017564 0.00066519
-0.00090511 0.0036532 -0.001307 0.0016643 -0.0010948 4.8235e-05 -0.0025145 0.0056705
0.017554 0.0006901 -0.036607 0.30545
1220000000 0.1338 0.28988 0.010331 -0.030219 -0.0014867 -0.00098719 -0.00015778 -0.0010143
-0.0025716 0.0025944 0.001353 0.00186
0.010306 -0.0302 -0.040476 0.39046 -0.017088 -0.020975 -0.0025048 0.00049225
0.00023794 0.0027816 -0.00073649 0.0018043
-0.0015149 -0.00098072 -0.017198 -0.020895 0.28815 0.20549 0.00089952 0.0015367
0.00059388 0.0011274 0.00013081 0.00074535
-0.00015811 -0.0010453 -0.0025081 0.00050754 0.00091593 0.0015462 0.071503 0.27391
0.0093702 -0.015977 0.0028183 0.0016576
-0.0026729 0.0025784 0.00033528 0.0027709 0.0005587 0.0011504 0.0093631 -0.015978
-0.0041532 0.2199 0.013727 -0.012193
0.0012355 0.0018978 -0.00074663 0.0018306 0.00022951 0.0007364 0.0028498 0.0016814
0.01369 -0.01218 -0.0048246 0.32094
1280000000 0.1834 0.26744 -0.0080581 -0.028582 -0.0017966 0.0023645 -0.0010321 -0.0018831
-0.00058263 0.0030629 0.0025097 0.00090486
-0.0079824 -0.028538 0.0056016 0.38102 -0.023703 -0.0081609 -0.00092004 0.0014841
0.0015968 0.0015465 0.00055568 0.0019725
-0.0018171 0.0023615 -0.023768 -0.0080894 0.31848 0.16141 0.0013704 -0.00019828
0.0010088 0.00011718 0.00022456 0.00048804
-0.0011158 -0.0017925 -0.00091055 0.0014817 0.0013024 -0.00024393 0.10791 0.25734
0.00033424 -0.01758 0.0005484 7.5846e-06
-0.00054292 0.003047 0.0016252 0.0015381 0.00097473 0.00010879 0.00031548 -0.017608
0.033284 0.22368 0.0030225 -0.01435
0.002624 0.000869 0.00046842 0.0019861 0.00022705 0.00050948 0.00059714 -5.2961e-06
0.0030092 -0.014347 0.042689 0.32153
1340000000 0.22019 0.23297 -0.017832 -0.018976 0.00074804 0.0043089 -0.0017558 -0.00072124
0.0015172 0.0026524 0.0016814 -0.0015559
-0.01786 -0.019014 0.044998 0.37217 -0.021403 0.0043902 -2.0863e-05 0.0019392
0.0016826 0.00063906 0.0013412 0.00089399
0.00074248 0.0043423 -0.021403 0.0045222 0.34025 0.11335 0.00093143 -0.00083384
0.00067841 -0.00036156 0.00022163 0.00034724
-0.001733 -0.00075631 -1.1208e-05 0.0019319 0.00094015 -0.00083972 0.14054 0.2369
-0.0080288 -0.014531 0.0013102 -6.0599e-05
0.0015266 0.0025921 0.0017084 0.00067407 0.00063454 -0.00033607 -0.0080549 -0.014519
0.064143 0.21888 -0.0031568 -0.013061
0.0016351 -0.0015989 0.0012948 0.00091433 0.00021933 0.00035328 0.0012981 -7.7593e-05
-0.0031428 -0.013076 0.081313 0.31621
1400000000 0.25264 0.19445 -0.023553 -0.0074702 0.0049457 0.0030447 -0.0019021 0.00063742
0.0025776 0.00071026 0.00010568 -0.001388
-0.023518 -0.0074564 0.081877 0.35855 -0.014586 0.012354 0.0013473 0.0012389
0.00098282 -0.0007605 0.0012168 0.00016499
0.0049914 0.0029673 -0.014548 0.012458 0.35307 0.059847 7.4026e-05 -0.0013827
9.971e-05 -0.00036871 0.00043399 0.00016813
-0.0019203 0.00068296 0.0013432 0.001251 0.00010634 -0.001355 0.16998 0.20839
-0.01309 -0.0081248 -0.00057395 -0.00087513
0.0026011 0.00071069 0.00098033 -0.0007658 0.00014231 -0.0003336 -0.013102 -0.008098
0.097314 0.21371 -0.0095556 -0.0084163
9.8684e-05 -0.0014006 0.001244 0.00019626 0.00043403 0.00020361 -0.00059162 -0.00087818
-0.0095452 -0.0084354 0.12573 0.30463
1460000000 0.27479 0.15019 -0.020573 0.0048409 0.0053588 -0.0016848 -0.0015125 0.0016516
0.0019898 -0.00074076 -0.00040899 -0.0007914
-0.020547 0.0048063 0.11559 0.33643 -0.0060228 0.015089 0.0016609 0.00017888
0.0008369 -0.001078 0.0012106 -0.00071709
0.0053829 -0.0017455 -0.0059432 0.015144 0.35882 0.0053628 -0.0010614 -0.0011802
0.00024807 -0.00019249 0.00078402 -0.00037418
-0.0014908 0.0016598 0.0016797 0.00016355 -0.0010122 -0.0012065 0.19654 0.17941
-0.013511 -0.0023038 -0.0011969 0.0014016
0.001939 -0.00076659 0.00081254 -0.0010997 0.000262 -0.00017403 -0.013513 -0.0022864
0.12718 0.19858 -0.011318 -0.003006
-0.00041501 -0.00086254 0.0012298 -0.00071691 0.00082794 -0.00033419 -0.0011965 0.0013914
-0.011312 -0.0030296 0.15902 0.28283
1520000000 0.28621 0.10862 -0.014846 0.0105 0.0030913 -0.0040555 8.558e-05 0.002509
0.0017376 -0.0017462 -0.0011433 -3.6522e-05
-0.014827 0.010496 0.14861 0.32153 0.0014579 0.012917 0.0015812 -0.00078891
0.00010548 -0.00087886 0.00026334 -0.00107
0.0030816 -0.0040581 0.0015388 0.012922 0.35184 -0.050686 -0.00093513 -0.00038738
0.00049055 -0.00085252 -5.6425e-05 -0.00012476
7.4289e-05 0.0024793 0.0015806 -0.00077146 -0.00094867 -0.00034063 0.22012 0.14147
-0.012672 0.0024894 0.00093665 0.0016995
0.0017558 -0.0017893 8.0152e-05 -0.00082755 0.00049821 -0.00083437 -0.012698 0.0025194
0.15512 0.18373 -0.011269 0.0013458
-0.0011734 -2.9219e-05 0.00023995 -0.0010577 -1.7785e-05 -7.5042e-05 0.00093707 0.0017129
-0.01126 0.0013408 0.19169 0.26166
1580000000 0.29481 0.06265 -0.0080177 0.013597 -0.00094022 -0.0046578 0.0013041 0.0018119
-0.00055669 -0.0021195 -0.00033447 0.00043455
-0.0080606 0.01357 0.17537 0.29682 0.0050013 0.0081802 0.00046219 -0.0015637
-0.00039385 -0.0010413 -0.00035792 -0.00084861
-0.00095159 -0.0046107 0.0050637 0.0081519 0.33131 -0.10805 -0.0015005 0.00041676
-0.00032414 -0.0010695 0.00011872 -0.00059289
0.0013669 0.0017827 0.00047424 -0.0015674 -0.0014938 0.00044204 0.23458 0.10194
-0.0095796 0.006363 0.0017242 0.00068618
-0.0005532 -0.002146 -0.00033673 -0.0010676 -0.00032215 -0.0010543 -0.0095904 0.0063958
0.17951 0.16511 -0.008993 0.0068054
-0.00037106 0.00042772 -0.00037805 -0.00084535 6.6129e-05 -0.00055962 0.001704 0.00070928
-0.0090078 0.0068015 0.22323 0.2342
1640000000 0.29657 0.021809 -0.0012753 0.012427 -0.0026277 -0.0025195 0.0025118 0.001019
-0.00089618 -0.0011502 -0.00024031 0.00064001
-0.0012931 0.01241 0.20449 0.27202 0.0056828 0.0035273 -0.00072794 -0.0016583
-0.00095842 -0.00047175 -0.00058351 -0.00057068
-0.0026374 -0.0025361 0.0057133 0.0035105 0.30304 -0.15697 -0.00083541 0.0013039
-0.0010672 -0.00087589 -0.00011873 -0.00032812
0.0024842 0.0010354 -0.00075916 -0.0016654 -0.00084223 0.0012497 0.24722 0.052644
-0.0059739 0.0069897 0.0020751 -0.0005693
-0.0009412 -0.0011293 -0.00093289 -0.00045429 -0.0010419 -0.000905 -0.0059753 0.0070207
0.20239 0.13986 -0.0045415 0.0088949
-0.00021925 0.00068153 -0.00060055 -0.00058633 -2.3242e-06 -0.00030244 0.0020704 -0.00054866
-0.0045466 0.0088975 0.24844 0.20242
1700000000 0.28936 -0.023058 0.0021829 0.0095907 -0.0034074 0.00018029 0.0029268 -0.0010766
-0.0019324 -0.00036157 0.00065041 0.00038523
0.0021622 0.0096013 0.2223 0.24073 0.0037562 0.00077331 -0.0014143 -0.00054305
-0.00082496 -2.8576e-05 -0.00091838 -0.00031055
-0.0033724 0.00019965 0.0037802 0.00071682 0.2595 -0.19678 0.00032373 0.0016187
-0.0017531 -0.00019502 -0.00056958 -0.00089628
0.0029462 -0.0010906 -0.0014357 -0.00052745 0.00035589 0.0016738 0.24401 0.0022233
-0.0041055 0.0072338 0.0012615 -0.001928
-0.0019447 -0.00034872 -0.00078157 -0.00010007 -0.0016866 -0.00017133 -0.0041081 0.007275
0.21979 0.11847 -0.00010667 0.0091591
0.0005816 0.00042785 -0.0009825 -0.00026442 -0.00055889 -0.00088279 0.0012728 -0.0019214
-0.00010863 0.0091545 0.26415 0.16777
1760000000 0.27721 -0.07144 0.0045049 0.0062116 -0.0022559 0.00099528 0.0013477 -0.0032418
-0.0010438 0.00074697 0.00039861 -0.00054464
0.0044807 0.0062171 0.2481 0.20115 0.0016185 -0.00098918 -0.0011165 0.00024684
-0.0011503 0.0008946 -0.00050903 0.00059327
-0.0022452 0.00097255 0.0016334 -0.00097952 0.21061 -0.22982 0.0011524 0.0013093
-0.0011267 0.0013896 -0.0013047 -0.00035209
0.0013312 -0.0032121 -0.0011086 0.00028159 0.0011246 0.0012722 0.23438 -0.049701
-0.001785 0.0065761 -0.0003096 -0.0021293
-0.0010645 0.00082685 -0.0011796 0.00091761 -0.0011659 0.0014021 -0.0017622 0.0066052
0.23443 0.081905 0.0037719 0.0066868
0.00047832 -0.00055285 -0.0004774 0.00057547 -0.0013718 -0.00035318 -0.0003368 -0.002113
0.0037671 0.0066868 0.27613 0.12959
1820000000 0.25272 -0.10853 0.0046307 0.002629 0.0001171 0.0024152 -0.00081142 -0.0031019
-0.00067137 0.00070925 -1.6649e-05 -0.00018251
0.0046316 0.0026306 0.25798 0.17128 -0.00026232 8.3708e-05 -0.0012807 0.00090531
-0.00012919 0.0013662 -0.00038369 0.00053468
7.9472e-05 0.0023836 -0.00026873 0.00011903 0.16083 -0.24564 0.0016213 0.00039114
-0.0003104 0.002059 -0.0014765 0.00054341
-0.000808 -0.0031265 -0.0012422 0.00094089 0.0016089 0.00040231 0.20375 -0.097004
-0.00096302 0.0054256 -0.0015059 -0.0013311
-0.0006499 0.00073305 -0.00010886 0.0014351 -0.00032528 0.0020857 -0.00094127 0.0054185
0.25065 0.051064 0.0045719 0.0032755
-6.4192e-05 -0.00017081 -0.00035684 0.00051799 -0.0013732 0.00051801 -0.0014956 -0.0013184
0.0045675 0.0032842 0.27765 0.093288
1880000000 0.2177 -0.14877 0.0024553 0.00035589 -0.00036104 0.0019683 -0.0027518 -0.0023433
-4.9933e-05 0.0013866 0.00032882 -0.0004814
0.0024998 0.00038624 0.26246 0.12503 -0.0021147 0.0016874 -9.8127e-05 0.0016764
0.00069137 0.0013836 0.00026227 0.00085628
-0.00035026 0.0019875 -0.0021082 0.0017251 0.10876 -0.25499 0.0020522 -0.0010982
0.0015196 0.0019679 -0.00078066 0.0013795
-0.0027728 -0.0023633 -8.1944e-05 0.0016786 0.0020771 -0.0011038 0.16248 -0.13672
-0.00079732 0.0043494 -0.0023119 0.00062918
4.4915e-05 0.0014274 0.0006871 0.0014238 0.0015145 0.0020177 -0.0007708 0.0043419
0.25199 0.016845 0.0042791 0.0012338
0.00029557 -0.00046082 0.00029068 0.00085306 -0.00072322 0.0013439 -0.0022632 0.00061402
0.0042801 0.0012406 0.2766 0.05893
1940000000 0.17835 -0.17464 0.00022425 -0.0013316 0.0012986 0.0018081 -0.0037789 0.00044601
0.0011416 0.00088207 -0.0005925 -0.00060505
0.00028504 -0.0012971 0.26305 0.093312 -0.001088 0.0038409 0.00099805 0.0013215
0.001997 0.00059246 0.00081492 0.00016247
0.0012653 0.0018364 -0.0010697 0.0038504 0.062551 -0.24879 0.00034228 -0.0023366
0.0023538 0.00058224 0.00033702 0.0016006
-0.0036431 0.00045743 0.0009523 0.0012981 0.00037381 -0.0023333 0.1097 -0.16649
-0.0018423 0.0038458 -0.0012458 0.0017844
0.0012648 0.00087813 0.002016 0.00053262 0.0023694 0.0005538 -0.0018219 0.0038459
0.2515 -0.02357 0.0030469 -0.0017797
-0.00065319 -0.00066591 0.00074832 9.9041e-05 0.0002796 0.0016094 -0.0012646 0.0017804
0.0030711 -0.0017623 0.26466 0.022855
2000000000 0.13184 -0.18959 -0.0035035 0.00043293 0.0024252 0.0014911 -0.0023938 0.0036256
0.00083041 0.00020726 -0.0006281 0.00034017
-0.0034373 0.00050943 0.24901 0.057794 -0.00083754 0.0055904 0.001651 0.00027525
0.0015538 -0.0014972 0.00038641 0.00014798
0.0024947 0.0015111 -0.00082384 0.0055338 0.018771 -0.23419 -0.0015198 -0.0014102
0.002034 -0.0012377 0.0014976 0.0013595
-0.0024639 0.0036886 0.0015268 0.00024746 -0.0015387 -0.0013653 0.05655 -0.1754
-0.0030152 0.0046854 0.00026963 0.002234
0.00074538 0.00023703 0.0014972 -0.0016296 0.0019842 -0.0011889 -0.0029853 0.0046869
0.24278 -0.057911 -4.8028e-05 -0.002346
