!Keysight Technologies,M9804A,MY58100912,A.14.10.03
!Date: Thursday, April 27, 2023 10:28:33
!Correction: S11(C  6-Port  ) 
!S12(C  6-Port  ) 
!S13(C  6-Port  ) 
!S14(C  6-Port  ) 
!S15(C  6-Port  ) 
!S16(C  6-Port  ) 
!S21(C  6-Port  ) 
!S22(C  6-Port  ) 
!S23(C  6-Port  ) 
!S24(C  6-Port  ) 
!S25(C  6-Port  ) 
!S26(C  6-Port  ) 
!S31(C  6-Port  ) 
!S32(C  6-Port  ) 
!S33(C  6-Port  ) 
!S34(C  6-Port  ) 
!S35(C  6-Port  ) 
!S36(C  6-Port  ) 
!S41(C  6-Port  ) 
!S42(C  6-Port  ) 
!S43(C  6-Port  ) 
!S44(C  6-Port  ) 
!S45(C  6-Port  ) 
!S46(C  6-Port  ) 
!S51(C  6-Port  ) 
!S52(C  6-Port  ) 
!S53(C  6-Port  ) 
!S54(C  6-Port  ) 
!S55(C  6-Port  ) 
!S56(C  6-Port  ) 
!S61(C  6-Port  ) 
!S62(C  6-Port  ) 
!S63(C  6-Port  ) 
!S64(C  6-Port  ) 
!S65(C  6-Port  ) 
!S66(C  6-Port  ) 
!S6P File: Measurement: :
# Hz S  RI   R 50
500000000 -0.33803 -0.037127 -0.0097332 -0.0031457 -0.0078141 0.01197 -0.0032484 0.011585
0.012215 0.0048346 -0.0034841 0.0081953
-0.0097178 -0.0031321 -0.4186 -0.050372 0.0078165 -0.011532 0.0017272 0.012109
0.007299 0.0022108 0.0013871 0.01333
-0.0078054 0.011965 0.0077982 -0.011555 -0.26459 0.21019 0.007266 0.0030806
-0.00025863 0.0082892 0.0010842 0.011886
-0.0032317 0.011603 0.0017571 0.012116 0.0072677 0.003086 -0.32678 0.046226
-0.019845 -0.0044163 0.018158 0.025402
0.012172 0.0046397 0.0073131 0.0021733 -0.0002038 0.0082753 -0.019837 -0.0044045
-0.22606 -0.18551 -0.027853 0.0047831
-0.0034396 0.0081464 0.0013793 0.013372 0.0011056 0.011901 0.018098 0.025409
-0.027877 0.0047444 -0.27153 -0.11644
560000000 -0.31699 0.12367 -0.02391 -0.062697 0.00054497 0.012154 0.006466 0.010089
0.010731 0.0044045 0.010157 0.0078298
-0.02387 -0.062639 -0.37593 0.10791 -0.042119 -0.037452 0.013784 0.0036109
-0.013603 -0.0045327 0.0043983 -0.00097131
0.00057636 0.012137 -0.042274 -0.037382 -0.18277 0.25809 -0.00062711 -0.0046888
0.019192 0.0043959 0.00725 -0.005948
0.0064861 0.010103 0.013816 0.0035793 -0.00062966 -0.0046887 -0.30228 0.13471
0.004578 -0.024947 0.0046404 -0.019583
0.010742 0.004409 -0.013625 -0.0045363 0.019161 0.0044046 0.0045552 -0.02482
-0.28591 -0.010316 0.0080842 -0.050092
0.01017 0.0077898 0.004389 -0.00094052 0.0072571 -0.0059824 0.0046284 -0.019612
0.0081069 -0.050103 -0.33088 0.029363
620000000 -0.275 0.10912 -0.022611 0.0073281 0.0037987 0.0082079 0.0067608 -0.0055251
0.011404 -0.00088996 -6.2955e-05 -0.002321
-0.022603 0.007345 -0.40236 0.061178 -0.018949 -0.00046217 -0.001147 -0.0020306
0.010391 -0.0071889 0.0010936 -0.0027362
0.0038117 0.0082085 -0.018983 -0.00041491 -0.1532 0.26663 -0.0015061 -0.0053907
-0.0039452 -0.0030319 0.0081105 -0.0037815
0.0067371 -0.0055284 -0.0011513 -0.0020336 -0.001507 -0.0053726 -0.2616 0.14522
-0.038786 -0.018858 0.014441 0.024431
0.011388 -0.00095432 0.010325 -0.0073038 -0.0040219 -0.0031273 -0.038777 -0.018889
-0.20438 -0.0509 -0.040955 0.013525
-8.1239e-05 -0.0023194 0.0011299 -0.0027719 0.0081446 -0.0037916 0.014374 0.024419
-0.041034 0.013603 -0.24928 -0.0062825
680000000 -0.23371 0.19397 -0.027593 -0.014121 0.0046945 0.0050161 0.00099741 -0.0075795
-0.0033239 -0.01111 0.0043969 -0.0067888
-0.027557 -0.014126 -0.3875 0.15805 -0.03316 -0.0015123 -0.0017936 -0.00039374
-0.0028111 -0.0089192 -0.0010792 -0.0019585
0.0047147 0.0050047 -0.033199 -0.0014259 -0.10262 0.28649 -0.00074213 0.00015328
-0.0023189 0.0008826 -0.002919 -0.0094729
0.00098497 -0.0075848 -0.0017929 -0.00038534 -0.0007416 0.00015114 -0.21968 0.19404
-0.023697 -0.0084864 -0.0087611 -0.010381
-0.003392 -0.011136 -0.0028506 -0.008927 -0.0023363 0.0008693 -0.023691 -0.0084742
-0.25237 0.047176 -0.0058111 -0.0098281
0.0043775 -0.0068075 -0.0011109 -0.0019428 -0.0029248 -0.0094728 -0.0088127 -0.01041
-0.0058101 -0.0098416 -0.25921 0.096217
740000000 -0.18979 0.18856 -0.038597 0.026437 0.01251 -0.0051505 -0.00072624 -0.0039779
-0.0048632 -0.0028612 -0.0063851 0.0034572
-0.038599 0.026388 -0.33514 0.17667 -0.035285 0.035324 -0.00054331 -0.0063256
-0.012003 0.007617 -0.0024274 -0.00601
0.012521 -0.0051686 -0.03523 0.035461 -0.069316 0.2857 -0.0014614 0.0034724
-0.0026929 -0.0041294 -0.0014049 0.00039296
-0.00074662 -0.0039669 -0.00056277 -0.0063352 -0.0014588 0.0034789 -0.20292 0.20192
-0.043077 -0.0087514 0.021925 0.013422
-0.004911 -0.0028737 -0.011995 0.0076537 -0.0027305 -0.0041855 -0.043092 -0.0087141
-0.15834 0.072757 -0.041636 -0.00054341
-0.0063417 0.0033965 -0.0024692 -0.0059522 -0.0013866 0.00038358 0.021926 0.013392
-0.041631 -0.00061587 -0.2475 0.10223
800000000 -0.1571 0.22806 -0.022708 0.016938 0.0052159 -0.010533 -0.0047727 -0.0017994
-0.0040362 0.0027006 0.0044617 0.0011368
-0.022701 0.01692 -0.33834 0.24752 -0.0080021 0.034394 -0.0021007 0.0022879
-0.00058712 0.0034037 0.0012076 0.0053922
0.0051892 -0.010547 -0.0079066 0.034447 -0.028054 0.30901 0.0012039 0.001506
0.00066558 0.0035835 -0.0018807 0.0011646
-0.0047895 -0.0017943 -0.0020823 0.0023026 0.0012041 0.0015105 -0.17537 0.22974
-0.028708 0.012517 0.012951 -0.0097857
-0.0040447 0.0027666 -0.00057867 0.0034121 0.00067115 0.003588 -0.028708 0.012575
-0.20213 0.095474 -0.017466 0.017449
0.0044084 0.0011239 0.0012067 0.0053723 -0.0018962 0.00116 0.012944 -0.0097685
-0.017478 0.017426 -0.2393 0.15328
860000000 -0.12257 0.24883 -0.01758 0.030999 -0.0033789 -0.0099074 -0.0022695 0.0012155
0.0040672 0.0051152 -0.0029813 -0.0026925
-0.017583 0.030981 -0.2903 0.28977 0.008252 0.034559 0.00025259 0.0020137
0.0044245 0.00030258 0.0035079 0.00064133
-0.0034091 -0.0098946 0.0083819 0.03456 0.020483 0.31713 -0.00040655 -0.00030023
0.002855 -0.0014617 0.0016019 0.0043923
-0.0022758 0.0012254 0.00026553 0.0020191 -0.00040801 -0.00030155 -0.13974 0.24173
-0.018464 0.019002 -0.0059741 -0.0089453
0.0041196 0.0051157 0.0044045 0.00029891 0.0028441 -0.0014801 -0.018411 0.019029
-0.15322 0.14437 -0.02456 0.015287
-0.0029884 -0.0026581 0.0035072 0.00062741 0.0016138 0.0043886 -0.0059907 -0.0089028
-0.024554 0.015266 -0.19006 0.19557
920000000 -0.097462 0.27182 0.005042 0.037951 -0.0094979 -0.0043147 -0.00174 0.0021934
0.0014473 0.0015297 0.0024332 -0.0016206
0.0050244 0.037927 -0.2614 0.31084 0.028254 0.021895 0.0016458 0.0011056
0.0067973 -0.00074442 0.0039762 -0.002894
-0.0095103 -0.0042824 0.028357 0.021829 0.067049 0.31752 0.0017482 -0.00016161
0.0012754 -0.00040723 0.00091815 -0.00098282
-0.0017415 0.0022092 0.001662 0.0011136 0.0017421 -0.00015432 -0.11548 0.25864
-0.010588 0.030485 0.0027182 -0.0065737
0.0014842 0.0015344 0.0068365 -0.00079325 0.0012846 -0.00041865 -0.01053 0.030505
-0.14219 0.15035 -0.0024941 0.027599
0.0024297 -0.0015977 0.0039492 -0.0029305 0.00090474 -0.00098414 0.0026999 -0.0065822
-0.0025156 0.027589 -0.19483 0.20992
980000000 -0.049973 0.29127 0.017825 0.030202 -0.0089006 0.0047681 0.0024285 0.0036382
0.004035 -0.0019163 -0.0030078 -0.001995
0.017799 0.030198 -0.20817 0.34481 0.033255 0.0046234 0.0019871 -7.5787e-05
0.0011829 -0.0063001 -0.00064782 -0.0022099
-0.0089039 0.0047981 0.033329 0.0045148 0.11355 0.31073 0.00043284 -0.0011764
8.8836e-05 -0.0021925 0.0015672 -7.8927e-05
0.002434 0.003624 0.0019939 -5.859e-05 0.0004273 -0.0011807 -0.077097 0.2707
0.0074479 0.029282 -0.0091661 -0.0066236
0.0040229 -0.0019178 0.0011694 -0.0063146 9.0133e-05 -0.0021945 0.0075176 0.029283
-0.11083 0.17829 0.004699 0.019208
-0.0030127 -0.0019902 -0.00060547 -0.0022295 0.0015789 -8.5257e-05 -0.009167 -0.0066196
0.0046859 0.019236 -0.1523 0.25521
1040000000 -0.0075151 0.29949 0.033412 0.018002 -0.0010727 0.0070131 0.0027515 0.00064041
-0.00013761 -0.0037883 -0.00063691 -0.0015323
0.033398 0.018014 -0.17255 0.35775 0.029332 -0.015102 0.0014637 -0.0017512
-0.0026779 -0.0023309 -0.0015258 -0.0027201
-0.0010617 0.007024 0.029319 -0.015245 0.15978 0.29671 -0.00052051 -0.0014604
-0.0015886 -0.00083618 -0.00034946 -0.0012474
0.0027502 0.00061388 0.0014754 -0.0017461 -0.00052859 -0.0014602 -0.049202 0.28078
0.018845 0.017627 -0.0030387 0.0020782
-0.0001831 -0.0037753 -0.0026802 -0.0023374 -0.0015828 -0.00083641 0.018902 0.017596
-0.079716 0.18726 0.013511 0.018297
-0.00064508 -0.0015263 -0.0015305 -0.0027215 -0.00034609 -0.0012332 -0.0030334 0.0020926
0.013482 0.018299 -0.13041 0.27441
1100000000 0.038069 0.30674 0.03603 -0.0044638 0.0030821 0.0038045 0.0024704 -0.001455
-0.0021989 -0.0029618 -0.0039499 0.00015126
0.036004 -0.0044393 -0.12885 0.37485 0.014936 -0.027982 -5.4841e-05 -0.001826
-0.0032037 -0.00041375 -0.0033905 -0.00054031
0.0030936 0.0037942 0.014843 -0.028075 0.20618 0.27609 -0.0017866 0.00026676
-0.0017689 0.00068284 -0.00098032 -0.00047825
0.0024631 -0.0014715 -5.2219e-05 -0.0018269 -0.0017841 0.00027278 -0.0081842 0.28592
0.023341 0.0048839 -0.0022813 0.0010372
-0.0022286 -0.0029634 -0.0032082 -0.00040999 -0.0017561 0.00068954 0.023355 0.0048327
-0.06106 0.20071 0.018775 0.0087186
-0.0039466 0.00017893 -0.0033878 -0.00052452 -0.00098328 -0.0004689 -0.0022797 0.0010343
0.018751 0.0087163 -0.083484 0.30269
1160000000 0.089548 0.30153 0.023953 -0.020945 0.0028721 -0.00055903 -0.0003138 -0.0024867
-0.004025 -0.00044936 -0.00087573 0.0038007
0.023978 -0.020906 -0.084826 0.37892 -0.0040547 -0.029112 -0.0017971 -0.0015973
-0.0024455 0.0026947 -0.0011707 0.0016043
0.0028618 -0.00057135 -0.0041618 -0.029127 0.24923 0.24487 -0.00057075 0.0017559
-0.00037001 0.0018421 -0.0011327 4.6532e-05
-0.00031866 -0.0024902 -0.0017869 -0.001572 -0.00057066 0.0017456 0.031654 0.2827
0.019765 -0.010118 -0.0025814 0.0056294
-0.0040323 -0.00043499 -0.0024262 0.0027047 -0.00036695 0.0018519 0.019757 -0.010144
-0.027714 0.21037 0.017524 0.00061194
-0.00086554 0.0037893 -0.0011501 0.0015969 -0.0011361 4.1777e-05 -0.00257 0.00563
0.017516 0.00062275 -0.036397 0.30552
1220000000 0.13399 0.28989 0.010283 -0.030183 -0.0015058 -0.00099009 -0.00017052 -0.0010018
-0.0025681 0.0025818 0.0013458 0.0018569
0.010297 -0.030142 -0.040292 0.39045 -0.0171 -0.020963 -0.0024974 0.00048894
0.0002205 0.002776 -0.00073865 0.0017999
-0.0015121 -0.00098175 -0.017202 -0.020906 0.28824 0.20543 0.00092629 0.001526
0.00059233 0.0011493 0.00012371 0.00076694
-0.00017122 -0.0010113 -0.0024999 0.00050403 0.00091978 0.0015225 0.071552 0.27388
0.0093542 -0.015998 0.0028011 0.0016703
-0.002543 0.0025884 0.00024706 0.0027745 0.00060014 0.0011442 0.0093345 -0.01602
-0.0040188 0.21992 0.013691 -0.012211
0.001347 0.0018463 -0.00072521 0.0018067 0.00012654 0.00076345 0.002803 0.0016694
0.013678 -0.012204 -0.0044783 0.32103
1280000000 0.18354 0.26732 -0.0080427 -0.028489 -0.0018293 0.0023779 -0.0010405 -0.0018732
-0.00057698 0.0030399 0.0025041 0.00089862
-0.0080176 -0.028466 0.0057971 0.38099 -0.02368 -0.00821 -0.00093135 0.001483
0.0016128 0.0015478 0.00055258 0.0019749
-0.0018247 0.0023858 -0.023741 -0.0081148 0.31846 0.16138 0.0013453 -0.00022454
0.00099617 9.9807e-05 0.00024035 0.00047827
-0.0010469 -0.0018664 -0.00092568 0.0014884 0.0013476 -0.00022942 0.10802 0.25732
0.00030282 -0.017592 0.00054175 6.2412e-06
-0.00054566 0.0030527 0.0016262 0.0015418 0.00099383 0.00010459 0.00027552 -0.017596
0.033416 0.22369 0.002983 -0.014344
0.0025136 0.00087833 0.00057223 0.0019684 0.00024122 0.00046423 0.00054653 1.1592e-05
0.0029833 -0.014329 0.043081 0.32151
1340000000 0.22039 0.23293 -0.017789 -0.018968 0.00077831 0.004319 -0.0017649 -0.00073094
0.0015018 0.00264 0.0016853 -0.0015566
-0.017762 -0.018963 0.045122 0.3721 -0.021399 0.0044018 -1.9447e-05 0.0019338
0.0016769 0.00063938 0.0013238 0.00090198
0.00080013 0.0043115 -0.021403 0.004521 0.34033 0.11331 0.0009147 -0.00082881
0.00066919 -0.00036045 0.00023946 0.00033207
-0.0017689 -0.00071388 -3.8916e-06 0.0019348 0.00091082 -0.00082938 0.1406 0.23689
-0.0080615 -0.014535 0.0013036 -5.5809e-05
0.0015049 0.0026376 0.001681 0.00062281 0.00066247 -0.00036951 -0.0080822 -0.014534
0.064335 0.2189 -0.003183 -0.013061
0.0016565 -0.001571 0.0013521 0.00089052 0.00023982 0.00034117 0.0013067 -5.6185e-05
-0.0031749 -0.01306 0.081684 0.31614
1400000000 0.2528 0.19428 -0.023501 -0.0074495 0.0049301 0.0030062 -0.0018983 0.00062108
0.0025667 0.00071779 0.00011057 -0.0013875
-0.023475 -0.0074615 0.082011 0.35854 -0.014543 0.012347 0.0013347 0.0012298
0.00097468 -0.00076815 0.0012158 0.00014506
0.0049522 0.00298 -0.014502 0.012436 0.35312 0.0597 8.9066e-05 -0.0013726
7.925e-05 -0.00035598 0.00043047 0.00014497
-0.0018967 0.00063291 0.0013424 0.0012279 7.7499e-05 -0.0013695 0.17005 0.20836
-0.013116 -0.0081232 -0.00056497 -0.00084478
0.0025708 0.00070887 0.00098015 -0.00078064 7.2902e-05 -0.00035786 -0.013129 -0.0081025
0.097493 0.21369 -0.0095612 -0.0083945
9.2196e-05 -0.0013771 0.0012257 0.00014216 0.00043699 0.00015285 -0.00057794 -0.00085563
-0.0095435 -0.0084092 0.12602 0.30454
1460000000 0.27493 0.14991 -0.020466 0.0047646 0.0053762 -0.0017127 -0.0014995 0.0016561
0.0019856 -0.00074066 -0.00040061 -0.00079927
-0.020456 0.004753 0.11566 0.33638 -0.0060087 0.015085 0.0016588 0.0001758
0.00083615 -0.0010694 0.0011964 -0.00070296
0.0053703 -0.0017426 -0.0059468 0.015133 0.35893 0.0052048 -0.0010498 -0.0011816
0.00023892 -0.00019552 0.00080018 -0.0003967
-0.0014995 0.0016693 0.001661 0.00017351 -0.0010578 -0.001191 0.19664 0.17936
-0.013534 -0.0022811 -0.0011953 0.0014179
0.0019764 -0.00075921 0.00083062 -0.0010698 0.00023607 -0.00019192 -0.013535 -0.0022489
0.12734 0.1985 -0.011342 -0.0029913
-0.00039445 -0.00079542 0.0011883 -0.00071904 0.00079878 -0.00037962 -0.0011875 0.0014055
-0.011329 -0.0029923 0.1593 0.28267
1520000000 0.28631 0.10835 -0.014791 0.010456 0.0030518 -0.0040534 6.8361e-05 0.0025194
0.0017324 -0.0017547 -0.0011255 -4.1523e-05
-0.014789 0.010443 0.14868 0.32154 0.0014555 0.012915 0.0015773 -0.00078862
0.00011636 -0.00088884 0.00026143 -0.0010666
0.0030312 -0.0040708 0.0015314 0.012925 0.35188 -0.050845 -0.00093064 -0.00037816
0.0004978 -0.00083304 -3.8626e-05 -0.00011379
7.3771e-05 0.0025161 0.0015739 -0.00079154 -0.00093057 -0.00037985 0.22018 0.14142
-0.012685 0.0025234 0.00095162 0.0017089
0.0017271 -0.0017575 0.00010359 -0.00088176 0.0004934 -0.00084692 -0.012683 0.0025542
0.15529 0.18362 -0.011263 0.0013905
-0.0011298 -3.7052e-05 0.00025674 -0.0010617 -4.3233e-05 -0.00011609 0.00095668 0.0017109
-0.011258 0.0013843 0.19197 0.26148
1580000000 0.29487 0.062432 -0.0080724 0.01353 -0.00095422 -0.0046542 0.0012933 0.0017986
-0.00056032 -0.0021188 -0.00031759 0.00041932
-0.0080755 0.013523 0.17545 0.29683 0.0050006 0.008171 0.00046294 -0.0015703
-0.00039838 -0.0010304 -0.00035828 -0.00084788
-0.00097106 -0.0046572 0.0050579 0.0081573 0.33124 -0.10823 -0.0014819 0.00041052
-0.00032655 -0.0010632 0.00012337 -0.00060896
0.0013032 0.0018012 0.00045552 -0.0015706 -0.0014867 0.00041386 0.23463 0.10192
-0.0095763 0.0063964 0.0017339 0.00070445
-0.00056842 -0.0021124 -0.00040964 -0.0010277 -0.00033415 -0.0010688 -0.0095683 0.0064279
0.17962 0.16496 -0.0089856 0.0068356
-0.00031563 0.00042974 -0.00036125 -0.00084515 0.00012421 -0.00060787 0.001728 0.00068866
-0.0089962 0.0068327 0.22343 0.234
1640000000 0.29657 0.02158 -0.0013236 0.012385 -0.0026655 -0.0024997 0.0025335 0.0010502
-0.00089261 -0.0011577 -0.00024024 0.00064297
-0.0013369 0.01238 0.2046 0.27198 0.0056569 0.00352 -0.00073091 -0.0016659
-0.0009463 -0.00047091 -0.00057485 -0.00057347
-0.0026816 -0.0024843 0.0056899 0.0034915 0.30306 -0.15709 -0.00081261 0.0012947
-0.0010725 -0.00088045 -0.00010527 -0.00031985
0.0025366 0.0010355 -0.00073396 -0.0016661 -0.00081875 0.0012937 0.24724 0.052571
-0.0059541 0.0070314 0.002093 -0.0005774
-0.00090152 -0.0011518 -0.00095944 -0.0004615 -0.00107 -0.00086469 -0.0059406 0.0070481
0.20248 0.13971 -0.0045121 0.008924
-0.00024174 0.00064416 -0.00057983 -0.00056847 -0.0001114 -0.0003218 0.0020952 -0.00058778
-0.0045189 0.0089164 0.24863 0.20226
1700000000 0.28934 -0.023271 0.0021366 0.0095866 -0.0033821 0.00017555 0.0029276 -0.0010484
-0.0019286 -0.0003602 0.00064133 0.00038913
0.0021169 0.0095806 0.22246 0.24068 0.0037366 0.00073272 -0.0014054 -0.00053444
-0.00081026 -3.1457e-05 -0.00091412 -0.00031839
-0.0033892 0.00019293 0.003755 0.00070937 0.25941 -0.19686 0.00032148 0.0016461
-0.0017337 -0.00018777 -0.00053583 -0.0009044
0.0029226 -0.0010694 -0.0014131 -0.00053511 0.00031194 0.0016411 0.24404 0.0021395
-0.0040693 0.0072661 0.0012571 -0.0019455
-0.0019309 -0.00033868 -0.00082053 -2.1171e-05 -0.0017349 -0.00018386 -0.0040552 0.0072763
0.21986 0.11832 -7.8101e-05 0.0091668
0.00064828 0.00038155 -0.00091383 -0.00030319 -0.00054592 -0.00089865 0.0012557 -0.0019445
-7.5379e-05 0.0091632 0.2643 0.16758
1760000000 0.27712 -0.071543 0.0044494 0.0062514 -0.0021891 0.00094552 0.0013605 -0.0032506
-0.0010448 0.00073661 0.0003923 -0.00054985
0.0044323 0.0062478 0.24824 0.20103 0.0016405 -0.00098786 -0.0011271 0.00024239
-0.0011527 0.00088783 -0.00051089 0.00058012
-0.0021869 0.00095797 0.0016272 -0.0010064 0.21062 -0.22984 0.0011189 0.0012774
-0.0011159 0.0013789 -0.0012976 -0.00037194
0.0013453 -0.0032624 -0.0011301 0.00024709 0.0011194 0.0012766 0.23437 -0.049806
-0.0017457 0.0065894 -0.00033137 -0.00213
-0.00105 0.00074931 -0.0011481 0.00088816 -0.0011032 0.0013812 -0.0017319 0.0065989
0.23444 0.081807 0.0037885 0.006671
0.00038385 -0.00055461 -0.00050401 0.00057703 -0.0012941 -0.00036795 -0.00033618 -0.0021442
0.0037831 0.0066666 0.27629 0.12933
1820000000 0.25267 -0.10872 0.0046258 0.0026911 9.9204e-05 0.0023855 -0.00084302 -0.0030953
-0.00067546 0.00070585 -2.0701e-05 -0.00018057
0.0046188 0.0026864 0.25807 0.17116 -0.00026349 8.0923e-05 -0.0012916 0.00090423
-0.00012574 0.0013596 -0.00039275 0.00052555
0.00011128 0.002381 -0.00026421 8.2902e-05 0.1607 -0.24556 0.0016437 0.00036577
-0.000299 0.0020671 -0.0014792 0.00054645
-0.00085817 -0.0030988 -0.0012933 0.00091419 0.0016435 0.00036343 0.20372 -0.097066
-0.00091185 0.005396 -0.0015091 -0.0013442
-0.00067102 0.00071166 -0.00011421 0.0013645 -0.00029418 0.0020725 -0.00090271 0.0054043
0.25072 0.050943 0.0046003 0.0032472
-3.0348e-05 -0.00017993 -0.00038601 0.00052587 -0.0014642 0.00055617 -0.0015102 -0.0013445
0.0045955 0.0032545 0.27777 0.093047
1880000000 0.21764 -0.14892 0.0025031 0.00043164 -0.00033521 0.0019572 -0.0027744 -0.0023293
-4.7418e-05 0.0013837 0.00033062 -0.00045902
0.0024939 0.00043904 0.26258 0.1249 -0.0020993 0.0017237 -9.4742e-05 0.0016808
0.00068671 0.0013785 0.0002537 0.00087358
-0.00030701 0.0019661 -0.002089 0.0017422 0.10878 -0.25515 0.0020349 -0.0010682
0.0015179 0.0019754 -0.00079877 0.0013774
-0.0027815 -0.0023133 -8.313e-05 0.0016743 0.0020439 -0.0010641 0.16243 -0.13677
-0.00077594 0.0043082 -0.002317 0.00064085
-3.7729e-05 0.0013873 0.00070079 0.0013713 0.0015207 0.0019746 -0.00076821 0.0043029
0.25208 0.016728 0.0042963 0.0011962
0.00031908 -0.00047917 0.00026368 0.00086617 -0.00079157 0.0013718 -0.0023218 0.00064564
0.0042891 0.0011942 0.27667 0.05869
1940000000 0.1782 -0.17491 0.0003019 -0.0013129 0.0012867 0.0017842 -0.0037605 0.00045573
0.0011316 0.00088149 -0.00060305 -0.00059179
0.00029081 -0.0013056 0.26311 0.09319 -0.0009988 0.0038694 0.001013 0.0013257
0.0019896 0.00058909 0.00080258 0.00016038
0.0013032 0.001781 -0.00098549 0.0038792 0.062531 -0.24875 0.0003603 -0.0023247
0.0023498 0.00059757 0.00034138 0.0015993
-0.0037556 0.00047054 0.0010277 0.0013155 0.00036182 -0.0023253 0.10964 -0.16656
-0.0018361 0.0037945 -0.0012397 0.0018092
0.0011401 0.00087443 0.0019917 0.00057688 0.0023385 0.0005819 -0.0018219 0.0037972
0.25159 -0.023758 0.0030477 -0.0017928
-0.00061558 -0.00058879 0.00080757 0.00015309 0.00034848 0.0015899 -0.0012338 0.0018106
0.00304 -0.0018016 0.26469 0.022583
2000000000 0.13166 -0.18968 -0.0034656 0.00052883 0.0024056 0.0015126 -0.0024003 0.0036322
0.00084422 0.00019387 -0.00061005 0.00033014
-0.0034649 0.00052388 0.24909 0.057722 -0.00085006 0.0055897 0.001646 0.00028462
0.0015554 -0.0014803 0.00040423 0.00016321
0.0024161 0.0014939 -0.00081053 0.0055957 0.018796 -0.23437 -0.0015577 -0.0014484
0.0020337 -0.0012227 0.0015031 0.0013452
-0.0023686 0.003647 0.0016448 0.00027152 -0.0015446 -0.0014466 0.05648 -0.17541
-0.0030475 0.0046471 0.0002785 0.0022571
0.0008422 0.00020834 0.0015376 -0.0015005 0.0020364 -0.0012376 -0.0030281 0.0046593
