!Keysight Technologies,M9804A,MY58100912,A.14.10.03
!Date: Thursday, April 27, 2023 10:28:33
!Correction: S11(C  6-Port  ) 
!S12(C  6-Port  ) 
!S13(C  6-Port  ) 
!S14(C  6-Port  ) 
!S15(C  6-Port  ) 
!S16(C  6-Port  ) 
!S21(C  6-Port  ) 
!S22(C  6-Port  ) 
!S23(C  6-Port  ) 
!S24(C  6-Port  ) 
!S25(C  6-Port  ) 
!S26(C  6-Port  ) 
!S31(C  6-Port  ) 
!S32(C  6-Port  ) 
!S33(C  6-Port  ) 
!S34(C  6-Port  ) 
!S35(C  6-Port  ) 
!S36(C  6-Port  ) 
!S41(C  6-Port  ) 
!S42(C  6-Port  ) 
!S43(C  6-Port  ) 
!S44(C  6-Port  ) 
!S45(C  6-Port  ) 
!S46(C  6-Port  ) 
!S51(C  6-Port  ) 
!S52(C  6-Port  ) 
!S53(C  6-Port  ) 
!S54(C  6-Port  ) 
!S55(C  6-Port  ) 
!S56(C  6-Port  ) 
!S61(C  6-Port  ) 
!S62(C  6-Port  ) 
!S63(C  6-Port  ) 
!S64(C  6-Port  ) 
!S65(C  6-Port  ) 
!S66(C  6-Port  ) 
!S6P File: Measurement: :
# Hz S  RI   R 50
500000000 -0.33731 -0.036183 -0.010418 -0.003514 -0.0081739 0.012395 -0.0030736 0.011092
0.012219 0.004493 -0.0034271 0.0069467
-0.010411 -0.003495 -0.41862 -0.04995 0.0077769 -0.011432 0.0020844 0.011713
0.0074825 0.0020371 0.0016083 0.013061
-0.0081421 0.012435 0.0077735 -0.011462 -0.26499 0.21039 0.0072804 0.0032992
-0.00030368 0.0085238 0.0012983 0.012339
-0.0030848 0.011125 0.0020914 0.011745 0.0072874 0.0032857 -0.32603 0.046562
-0.019732 -0.0046629 0.018551 0.0248
0.012222 0.0044797 0.0074953 0.0020174 -0.00030224 0.0085217 -0.019724 -0.0046274
-0.22658 -0.18495 -0.027345 0.0044807
-0.0034442 0.0070213 0.0016181 0.013069 0.0013113 0.012347 0.018532 0.024771
-0.027363 0.0044726 -0.27169 -0.1155
560000000 -0.31661 0.12366 -0.023404 -0.062342 -0.00064087 0.012616 0.0071408 0.010316
0.010775 0.0037309 0.011104 0.0068065
-0.023372 -0.062316 -0.37461 0.10849 -0.04235 -0.036694 0.013701 0.0038131
-0.01312 -0.0033138 0.0048093 -0.0010368
-0.00059519 0.012624 -0.042483 -0.03663 -0.18298 0.25807 -0.00025301 -0.0048427
0.018624 0.0036748 0.0063306 -0.006572
0.0071753 0.010275 0.013683 0.0038053 -0.000251 -0.0048256 -0.30239 0.13566
0.0038456 -0.025565 0.0047887 -0.019098
0.010763 0.0036545 -0.013104 -0.003287 0.018634 0.0036836 0.003802 -0.025525
-0.28662 -0.010829 0.0082683 -0.049447
0.011067 0.0066431 0.0047803 -0.0010422 0.0063281 -0.006561 0.004797 -0.019094
0.0082882 -0.049472 -0.32939 0.03233
620000000 -0.27393 0.10812 -0.023188 0.0073635 0.0034832 0.0083093 0.0068261 -0.0057445
0.010904 -0.00012508 0.00014469 -0.0021846
-0.02318 0.0073574 -0.40214 0.06188 -0.018648 -0.00033244 -0.0015805 -0.0021262
0.010611 -0.007435 0.00097506 -0.0031591
0.0035134 0.0083163 -0.018666 -0.00028084 -0.15303 0.26694 -0.001498 -0.0054938
-0.004391 -0.003714 0.0084371 -0.003757
0.0068399 -0.0057594 -0.0015875 -0.0021202 -0.0014903 -0.0055079 -0.26173 0.14551
-0.03898 -0.019457 0.013698 0.024504
0.010918 -0.00011204 0.010617 -0.0074889 -0.0043876 -0.0037122 -0.039011 -0.019435
-0.20437 -0.048858 -0.040837 0.012892
0.00017002 -0.0021911 0.0009769 -0.0031458 0.0084381 -0.0037599 0.013711 0.024511
-0.040846 0.012888 -0.25029 -0.0040701
680000000 -0.23298 0.19331 -0.027823 -0.013716 0.0050346 0.0053004 0.00096394 -0.0074407
-0.0034514 -0.01114 0.0047556 -0.0060575
-0.027774 -0.013704 -0.38702 0.15874 -0.032915 -0.0013583 -0.0018612 -3.4882e-05
-0.0026643 -0.0087316 -0.0009346 -0.0019072
0.0050468 0.0053027 -0.032948 -0.0012842 -0.1021 0.287 -0.0010536 3.3757e-05
-0.0025174 0.0011342 -0.0030167 -0.0091953
0.00093477 -0.0074224 -0.0018744 -3.2132e-05 -0.0010504 5.9373e-05 -0.21997 0.19483
-0.023234 -0.0080584 -0.0085061 -0.0099993
-0.0034877 -0.011151 -0.0026944 -0.0087565 -0.0025153 0.0011333 -0.023243 -0.008051
-0.2521 0.047957 -0.0062886 -0.0097533
0.0047312 -0.006079 -0.00095521 -0.0019085 -0.0030133 -0.0091843 -0.0084934 -0.010035
-0.0062931 -0.0097842 -0.25736 0.098338
740000000 -0.19025 0.18827 -0.038737 0.026163 0.012858 -0.00499 -0.00087698 -0.0042915
-0.0050124 -0.0026765 -0.0066391 0.0029875
-0.038691 0.026119 -0.33493 0.17764 -0.035299 0.035207 -0.00077613 -0.0058915
-0.012244 0.0078179 -0.0027619 -0.0056897
0.01284 -0.0050107 -0.035231 0.035354 -0.068829 0.28573 -0.00153 0.0034231
-0.0024048 -0.0043471 -0.001669 0.00032862
-0.00090233 -0.0042661 -0.00079304 -0.0059156 -0.0015206 0.0034192 -0.20291 0.20231
-0.043066 -0.007786 0.021745 0.013374
-0.0050073 -0.0026054 -0.012218 0.0078665 -0.0024173 -0.0043525 -0.043089 -0.0077249
-0.15537 0.07217 -0.041596 1.9806e-05
-0.0066633 0.0030298 -0.0027756 -0.0056722 -0.0016621 0.00032286 0.021766 0.013368
-0.041588 -2.8781e-05 -0.24714 0.10384
800000000 -0.15806 0.2277 -0.022665 0.017127 0.0051763 -0.010444 -0.0051016 -0.0017759
-0.0040642 0.0028918 0.0037703 0.0010888
-0.022655 0.017097 -0.33795 0.24772 -0.0080453 0.03433 -0.0022541 0.0023124
-0.00071403 0.003463 0.00089842 0.0054219
0.0051456 -0.010467 -0.0079617 0.034401 -0.027765 0.30907 0.0010923 0.0014189
0.00061305 0.0035833 -0.0020502 0.001215
-0.0051095 -0.0017729 -0.0022441 0.0023342 0.0010984 0.0014272 -0.175 0.22957
-0.028454 0.012709 0.012599 -0.010311
-0.0040439 0.0028856 -0.00068337 0.0034682 0.00061449 0.0035891 -0.028468 0.012766
-0.20104 0.095537 -0.017603 0.017621
0.0037866 0.0010505 0.00091905 0.0054428 -0.0020503 0.0012392 0.012595 -0.010339
-0.017608 0.017602 -0.2393 0.15452
860000000 -0.12324 0.24923 -0.01725 0.031206 -0.0034821 -0.0098574 -0.0023131 0.0012796
0.0043968 0.0048437 -0.0033944 -0.0030068
-0.017251 0.031191 -0.29008 0.29 0.0083056 0.034565 0.00027115 0.002411
0.004519 -3.9265e-06 0.0033881 0.00021603
-0.0035017 -0.0098534 0.008423 0.034573 0.020491 0.31734 -0.00050916 -0.00025221
0.0027871 -0.0014903 0.0016599 0.0042716
-0.0023141 0.0012863 0.00027938 0.0024197 -0.00051316 -0.00025521 -0.13958 0.24189
-0.018743 0.01902 -0.0063611 -0.0092157
0.0044071 0.0048264 0.0045333 -1.3391e-05 0.0027871 -0.0014996 -0.018712 0.019074
-0.15166 0.14458 -0.023963 0.015865
-0.0033955 -0.0029651 0.003397 0.00020259 0.0016636 0.0042731 -0.0063632 -0.0092135
-0.023963 0.015853 -0.18912 0.19635
920000000 -0.097886 0.27212 0.0054474 0.038005 -0.009598 -0.0043981 -0.0016581 0.0024025
0.00161 0.0018048 0.0024247 -0.0016207
0.0054141 0.037984 -0.26099 0.31103 0.028364 0.021869 0.0016304 0.0011056
0.0068618 -0.00075007 0.0040352 -0.003052
-0.0096111 -0.0043759 0.028462 0.021807 0.067106 0.31772 0.0017634 -0.00014685
0.0011803 -0.00044964 0.00093787 -0.0010931
-0.0016588 0.0024037 0.0016466 0.0011057 0.0017548 -0.00014681 -0.11532 0.25904
-0.010341 0.030645 0.002806 -0.0065656
0.0016218 0.0017997 0.0068804 -0.00079572 0.0011795 -0.00044153 -0.010262 0.030673
-0.14113 0.1502 -0.0023069 0.027225
0.0024219 -0.0016267 0.0040169 -0.0030761 0.00093918 -0.0010977 0.0027971 -0.0065755
-0.0023217 0.027199 -0.1934 0.21147
980000000 -0.050166 0.29196 0.017991 0.030043 -0.0088562 0.0046925 0.0024432 0.0036608
0.0040789 -0.0021165 -0.0030719 -0.0020169
0.017954 0.030047 -0.20812 0.34467 0.033374 0.004531 0.0019162 -0.0001423
0.00098255 -0.0063666 -0.00074682 -0.0020726
-0.0088413 0.0047132 0.033411 0.0044257 0.11362 0.31098 0.00048086 -0.0012385
2.909e-05 -0.0022569 0.0013707 -6.5261e-05
0.0024565 0.0036502 0.0019237 -0.00013487 0.00048708 -0.0012382 -0.076503 0.27038
0.0078713 0.029164 -0.0093131 -0.0070572
0.0040447 -0.002137 0.00096088 -0.0063582 2.4299e-05 -0.0022528 0.0079409 0.029179
-0.11005 0.17814 0.0048536 0.018627
-0.0030814 -0.0019984 -0.0007759 -0.0020896 0.0013809 -7.8251e-05 -0.009328 -0.007053
0.0048327 0.01862 -0.15112 0.25621
1040000000 -0.0077732 0.30019 0.033545 0.017714 -0.0011455 0.0069982 0.0026817 0.00065371
-0.00019127 -0.0036409 -0.00051826 -0.0016523
0.033519 0.017738 -0.17242 0.3579 0.029402 -0.015249 0.0013615 -0.001911
-0.0027528 -0.0025787 -0.0015432 -0.0026869
-0.0011035 0.0069911 0.029357 -0.015359 0.16011 0.29708 -0.00057821 -0.0014906
-0.0016669 -0.00084545 -0.00051165 -0.0012201
0.0026926 0.00063527 0.001378 -0.0019013 -0.00057459 -0.0014884 -0.049032 0.28083
0.018854 0.017535 -0.0033606 0.0019421
-0.0002053 -0.0036414 -0.0027711 -0.0025504 -0.0016681 -0.00083114 0.018917 0.017496
-0.079918 0.18648 0.013465 0.018308
-0.00051408 -0.0016573 -0.0015824 -0.0026929 -0.00050224 -0.0012183 -0.0033572 0.0019544
0.01345 0.018293 -0.12907 0.27583
1100000000 0.038518 0.30722 0.036057 -0.0047508 0.0030004 0.003775 0.0026178 -0.0014458
-0.002265 -0.0030828 -0.0038387 6.5025e-05
0.036027 -0.004726 -0.1288 0.37496 0.014857 -0.028143 -2.1484e-05 -0.0017973
-0.003307 -0.00031402 -0.0034109 -0.00041031
0.0030127 0.0037651 0.014766 -0.028237 0.20667 0.27624 -0.0018212 0.00027056
-0.0018251 0.00066392 -0.00096887 -0.00042964
0.0026089 -0.001458 -2.471e-05 -0.0017932 -0.0018177 0.0002755 -0.0079885 0.28605
0.023311 0.0047636 -0.0024038 0.0011188
-0.0023284 -0.0030786 -0.0033188 -0.00030264 -0.0018245 0.00066933 0.023321 0.0047319
-0.061756 0.19998 0.01877 0.0090304
-0.0038311 8.9448e-05 -0.0034176 -0.00039643 -0.00096046 -0.00042691 -0.0023967 0.0011166
0.018759 0.0090434 -0.081606 0.30306
1160000000 0.089559 0.30205 0.023736 -0.0212 0.0027324 -0.00056591 -0.00023748 -0.0025345
-0.0040516 -0.00036629 -0.00088056 0.0035604
0.023733 -0.02115 -0.084799 0.37923 -0.0041963 -0.029234 -0.0017811 -0.0015681
-0.0023503 0.0027699 -0.0012055 0.0016361
0.0027434 -0.00056459 -0.0043292 -0.02924 0.24977 0.24493 -0.00061075 0.0017132
-0.00033344 0.0019667 -0.0011669 0.00011933
-0.00024373 -0.0025479 -0.0017774 -0.0015586 -0.00061496 0.0017077 0.031898 0.28297
0.019706 -0.010518 -0.0026969 0.0056065
-0.0040422 -0.00035066 -0.0023408 0.0027771 -0.00033715 0.001975 0.019712 -0.010533
-0.028579 0.21011 0.017542 0.00034097
-0.00086512 0.0035842 -0.0012029 0.0016583 -0.0011655 0.0001155 -0.0026929 0.0056169
0.017538 0.00034148 -0.035026 0.30646
1220000000 0.1343 0.29033 0.010032 -0.03032 -0.0015912 -0.0009707 -0.00019658 -0.0010899
-0.0026275 0.0025162 0.0012375 0.0018613
0.010044 -0.030275 -0.040153 0.39081 -0.017318 -0.02097 -0.0025219 0.00051294
0.00031543 0.0028939 -0.00070365 0.0018191
-0.0015932 -0.00096291 -0.017441 -0.020914 0.28874 0.20515 0.00088449 0.0016485
0.00062456 0.0011768 0.00022091 0.00073792
-0.0002027 -0.0010939 -0.0025246 0.00053301 0.00087362 0.0016487 0.071981 0.27404
0.009185 -0.0162 0.0028295 0.0017869
-0.0026289 0.0025131 0.00033703 0.0028935 0.00061905 0.0011696 0.0091713 -0.016226
-0.0047199 0.21998 0.013482 -0.01232
0.0012392 0.0018657 -0.00069588 0.0018214 0.00022843 0.0007454 0.0028296 0.0017779
0.013482 -0.012312 -0.0026817 0.32129
1280000000 0.18397 0.2677 -0.008346 -0.028484 -0.0018545 0.0025725 -0.0011308 -0.0019462
-0.00057725 0.0031301 0.0025732 0.00097837
-0.0083284 -0.028458 0.0061683 0.38129 -0.023927 -0.0081478 -0.00090313 0.0015014
0.0016788 0.0014852 0.00053112 0.0018939
-0.0018453 0.0025731 -0.023992 -0.0080402 0.31883 0.16079 0.001412 -0.00026444
0.00102 2.7607e-05 0.00017916 0.00040815
-0.001127 -0.0019346 -0.00090769 0.0015014 0.00141 -0.00025407 0.10862 0.25727
-1.8608e-05 -0.017727 0.0004233 4.0525e-05
-0.00054325 0.0031377 0.001687 0.0014834 0.0010161 2.2204e-05 -5.905e-05 -0.017722
0.032715 0.22434 0.0028576 -0.014652
0.002576 0.00095584 0.00053502 0.0018932 0.00018176 0.00040631 0.00042272 4.4389e-05
0.0028651 -0.014655 0.044376 0.32156
1340000000 0.22083 0.23327 -0.018064 -0.018741 0.00081867 0.0043842 -0.0018731 -0.00065148
0.0015791 0.0025936 0.0016651 -0.0015778
-0.018034 -0.018737 0.045566 0.37226 -0.021479 0.0045743 5.9426e-05 0.0018989
0.0016917 0.00052106 0.0012906 0.00082569
0.00083634 0.004381 -0.021484 0.0046951 0.34014 0.1128 0.00090614 -0.0009432
0.00060883 -0.00045152 0.00013013 0.00037953
-0.0018882 -0.00064544 7.3857e-05 0.0018947 0.00091146 -0.0009516 0.14112 0.23679
-0.0085414 -0.014419 0.0012724 6.8928e-05
0.0015826 0.0025812 0.0016953 0.00051492 0.0006071 -0.0004526 -0.0085711 -0.014402
0.063881 0.21993 -0.0036668 -0.01314
0.0016665 -0.0015853 0.0012993 0.00081874 0.00013029 0.00038098 0.0012639 6.1248e-05
-0.0036596 -0.013128 0.083118 0.31585
1400000000 0.25354 0.19439 -0.023635 -0.0071632 0.0051287 0.003125 -0.0019289 0.00079431
0.0025296 0.0006744 6.8236e-05 -0.0013893
-0.023603 -0.0071814 0.08258 0.35849 -0.014507 0.012549 0.0013476 0.0012293
0.00089584 -0.00077699 0.0011721 0.00017074
0.0051535 0.0030939 -0.014474 0.012636 0.35278 0.05946 3.6069e-05 -0.0013588
0.00011907 -0.00035606 0.00043256 0.00021032
-0.0019358 0.0008012 0.0013502 0.001222 2.8498e-05 -0.0013506 0.17051 0.20804
-0.013441 -0.0077813 -0.00057971 -0.00076336
0.0025342 0.0006724 0.00088481 -0.00078308 0.00011438 -0.00035791 -0.013463 -0.0077628
0.09759 0.21467 -0.0098696 -0.0082283
6.0606e-05 -0.0013938 0.0011762 0.00016689 0.00043378 0.00021213 -0.00058045 -0.0007633
-0.0098646 -0.0082327 0.12722 0.30385
1460000000 0.27564 0.1501 -0.020443 0.0050779 0.0055656 -0.0018584 -0.001504 0.0017893
0.0020207 -0.00079175 -0.00037569 -0.00081462
-0.020423 0.0050459 0.11613 0.33611 -0.0057968 0.015245 0.0016998 8.2403e-05
0.00073314 -0.0010577 0.0011527 -0.00072077
0.0055575 -0.0018799 -0.0057255 0.015288 0.35865 0.0053721 -0.0011309 -0.0011227
0.00026021 -8.9839e-05 0.00075856 -0.00037938
-0.0014921 0.0017876 0.0016987 8.1965e-05 -0.0011189 -0.0011308 0.19698 0.17908
-0.013706 -0.0017521 -0.00095853 0.0014107
0.0020134 -0.00081457 0.00073584 -0.0010633 0.00025933 -9.5479e-05 -0.013732 -0.0017063
0.12826 0.19962 -0.011645 -0.0026463
-0.00038338 -0.00080747 0.0011549 -0.00072907 0.00075975 -0.00037643 -0.00094333 0.0014232
-0.011636 -0.0026613 0.16042 0.282
1520000000 0.2872 0.10819 -0.014653 0.010688 0.0031615 -0.004187 0.00022398 0.0024583
0.0016966 -0.0018072 -0.0012505 1.5434e-05
-0.014652 0.010672 0.14905 0.32126 0.0017245 0.012915 0.001586 -0.00084038
9.6813e-05 -0.00083444 0.00027312 -0.0010191
0.0031463 -0.0042024 0.0018006 0.012918 0.35164 -0.050562 -0.00096206 -0.0003462
0.00051604 -0.00090324 3.2548e-05 -0.00011883
0.0002295 0.0024552 0.0015813 -0.00085375 -0.00095866 -0.00035154 0.22045 0.14114
-0.012456 0.003039 0.0010712 0.0015568
0.0016863 -0.0018139 9.4258e-05 -0.00084545 0.00051092 -0.0009104 -0.012447 0.0030787
0.1565 0.18421 -0.011332 0.0017866
-0.0012458 2.6139e-05 0.00026615 -0.0010228 3.1917e-05 -0.00012 0.0010723 0.001556
-0.011334 0.0017791 0.19283 0.26071
1580000000 0.29591 0.061776 -0.007776 0.013647 -0.0010243 -0.0047493 0.0014281 0.0017805
-0.0005501 -0.0020153 -0.00023187 0.00038236
-0.0077767 0.013639 0.17563 0.29642 0.0051682 0.0080825 0.0004429 -0.0016119
-0.00032795 -0.0010252 -0.00028675 -0.00088032
-0.0010535 -0.0047458 0.0052192 0.0080669 0.33139 -0.10796 -0.0014268 0.00045584
-0.00036343 -0.0011643 0.00013643 -0.00064586
0.0014401 0.0017751 0.00043769 -0.0016058 -0.0014323 0.00046941 0.23474 0.1016
-0.0090666 0.0067432 0.0017089 0.00050441
-0.00055519 -0.0020161 -0.00033891 -0.0010213 -0.0003669 -0.0011614 -0.009047 0.0067694
0.18102 0.16501 -0.0088922 0.0072704
-0.00023096 0.00038695 -0.00029442 -0.00087642 0.00013619 -0.00064855 0.0017101 0.00049744
-0.008898 0.00727 0.22404 0.23335
1640000000 0.29725 0.020561 -0.0010894 0.012343 -0.0028089 -0.0025281 0.0025131 0.00094682
-0.00096483 -0.0011075 -0.00025897 0.00054779
-0.0011018 0.012344 0.2046 0.27164 0.0057228 0.0034119 -0.00077001 -0.0016089
-0.00088997 -0.00049933 -0.00054154 -0.00058649
-0.0028268 -0.0025223 0.0057586 0.0033881 0.30317 -0.15674 -0.00081351 0.0012617
-0.0010129 -0.00081204 -0.00010482 -0.00032962
0.0025151 0.00094084 -0.00078331 -0.0016067 -0.00081861 0.0012653 0.24721 0.052425
-0.0053944 0.0070246 0.0020608 -0.00075185
-0.00097382 -0.0010942 -0.00089717 -0.00048889 -0.0010201 -0.00081093 -0.0053891 0.0070436
0.20368 0.13928 -0.0042124 0.0092776
-0.0002583 0.00054802 -0.00054135 -0.00058717 -0.00010225 -0.00033081 0.002061 -0.00074804
-0.0042063 0.0092682 0.24904 0.20146
1700000000 0.28959 -0.024649 0.0023772 0.0094061 -0.0035074 0.00023769 0.0028604 -0.0012076
-0.0018337 -0.0002703 0.00054116 0.00044188
0.0023629 0.0093973 0.22234 0.24042 0.0036866 0.00061138 -0.0013558 -0.00052069
-0.00077281 -0.00010475 -0.00093559 -0.00036152
-0.0035173 0.00026009 0.0036961 0.0005917 0.25985 -0.19679 0.00035344 0.0015665
-0.0016849 -0.00015205 -0.00053025 -0.00089642
0.0028567 -0.0012161 -0.0013624 -0.00052155 0.00035408 0.0015707 0.24412 0.0020536
-0.0035364 0.0069124 0.00111 -0.0020325
-0.0018337 -0.00025546 -0.00077827 -9.711e-05 -0.0016911 -0.0001444 -0.0035172 0.0069283
0.22082 0.11739 0.00033059 0.0092621
0.00054663 0.00044011 -0.00094477 -0.00035348 -0.0005337 -0.00089447 0.0011063 -0.002047
0.00033709 0.0092554 0.26484 0.16705
1760000000 0.27665 -0.072949 0.0044847 0.0059871 -0.0022415 0.00084863 0.0012688 -0.0031818
-0.00092968 0.00080363 0.000411 -0.00052047
0.0044689 0.005986 0.24802 0.20085 0.0015454 -0.001172 -0.0011218 0.00028571
-0.0011966 0.00083924 -0.00051023 0.00060292
-0.0022365 0.00086357 0.0015386 -0.0011829 0.21131 -0.23031 0.0011756 0.0013046
-0.00099141 0.0013469 -0.0013865 -0.00045342
0.0012527 -0.0031876 -0.0011278 0.00028887 0.0011676 0.0013126 0.23445 -0.049912
-0.0015727 0.0059967 -0.00044711 -0.0020949
-0.00091158 0.00080962 -0.0011887 0.00085753 -0.00098806 0.0013531 -0.0015695 0.006
0.23497 0.080732 0.0041682 0.0067118
0.00040648 -0.00053099 -0.00050556 0.00060493 -0.0013913 -0.00044565 -0.00045302 -0.0020839
0.004178 0.0067202 0.27688 0.12862
1820000000 0.25157 -0.10959 0.0045514 0.0024576 4.9845e-05 0.0024538 -0.00089387 -0.0031142
-0.00064454 0.00059869 2.4988e-06 -8.1046e-05
0.0045411 0.0024534 0.25791 0.17124 -0.00034773 0.00013948 -0.0012312 0.00091668
-0.00017522 0.0013861 -0.00045999 0.00052145
6.6061e-05 0.0024566 -0.0003446 0.00014079 0.161 -0.24548 0.0017366 0.00041039
-0.00036947 0.0022244 -0.0015081 0.00054069
-0.00090967 -0.0031081 -0.0012249 0.00092608 0.0017435 0.00042354 0.20395 -0.09709
-0.00093235 0.0048973 -0.0015737 -0.0012697
-0.00064269 0.0005969 -0.00016424 0.0013858 -0.00036884 0.0022145 -0.00092698 0.0049037
0.2509 0.049944 0.0049845 0.0030601
2.8518e-06 -8.2626e-05 -0.00045818 0.00052689 -0.0014983 0.00053954 -0.0015785 -0.0012589
0.0049871 0.0030629 0.27855 0.092248
1880000000 0.21626 -0.14938 0.0023057 0.00029731 -0.00030483 0.00225 -0.0028499 -0.0022436
-9.9036e-05 0.0012649 0.00043318 -0.00057311
0.0023072 0.00030417 0.26247 0.12495 -0.0022393 0.0017128 -0.00015044 0.001621
0.00067104 0.0014418 0.00025158 0.00095996
-0.00028728 0.0022611 -0.0022366 0.001739 0.10868 -0.25554 0.0020197 -0.0010794
0.0014916 0.0019913 -0.00093228 0.0013527
-0.0028708 -0.0022319 -0.00013776 0.0016162 0.0020128 -0.0010792 0.16277 -0.13687
-0.0010408 0.0038725 -0.002297 0.0006002
-9.9016e-05 0.0012542 0.00068522 0.0014432 0.0014969 0.001992 -0.0010239 0.0038702
0.25195 0.015616 0.0045641 0.00076851
0.00043721 -0.00057507 0.00025965 0.00095249 -0.00093013 0.0013577 -0.0023002 0.00060546
0.0045556 0.00077 0.27721 0.057804
1940000000 0.17694 -0.17442 8.9774e-05 -0.0013806 0.0013078 0.0016954 -0.0037685 0.00051836
0.0010586 0.00095939 -0.00061113 -0.00076818
9.8736e-05 -0.0013729 0.26305 0.093377 -0.0010665 0.0039009 0.0009475 0.0012648
0.002037 0.00058561 0.00086919 0.0002115
0.0013255 0.0016845 -0.0010377 0.0039203 0.062678 -0.24904 0.00036666 -0.0023837
0.0024291 0.00043076 0.00048281 0.0018248
-0.0037605 0.00053865 0.00094979 0.0012612 0.00035875 -0.0023837 0.10965 -0.1668
-0.0022991 0.0036129 -0.001301 0.001944
0.001056 0.00095302 0.0020555 0.00057096 0.0024262 0.00043232 -0.0022994 0.0036094
0.25122 -0.024446 0.0031632 -0.0023086
-0.00063115 -0.0007607 0.0008705 0.00020812 0.00048823 0.0018196 -0.0012852 0.0019397
0.0031702 -0.0023046 0.26526 0.021624
2000000000 0.13088 -0.18862 -0.0035802 0.00061177 0.0024444 0.0015737 -0.002266 0.0036262
0.00085973 0.00045251 -0.00074606 0.00052596
-0.0035758 0.00061053 0.24924 0.057856 -0.00078577 0.0056452 0.0016172 0.00033542
0.0015424 -0.0014932 0.00042915 4.9657e-05
0.0024616 0.0015668 -0.00074757 0.0056545 0.01892 -0.23446 -0.0015272 -0.0013854
0.0019706 -0.0011741 0.0016734 0.0013545
-0.0022368 0.0036473 0.0016234 0.0003288 -0.0015283 -0.0013769 0.05673 -0.17559
-0.0036638 0.0047351 0.00033289 0.0023246
0.00087862 0.00044684 0.001536 -0.0015178 0.0019604 -0.001178 -0.0036602 0.0047639
