!Keysight Technologies,M9804A,MY58100912,A.14.10.03
!Date: Thursday, April 27, 2023 10:28:33
!Correction: S11(C  6-Port  ) 
!S12(C  6-Port  ) 
!S13(C  6-Port  ) 
!S14(C  6-Port  ) 
!S15(C  6-Port  ) 
!S16(C  6-Port  ) 
!S21(C  6-Port  ) 
!S22(C  6-Port  ) 
!S23(C  6-Port  ) 
!S24(C  6-Port  ) 
!S25(C  6-Port  ) 
!S26(C  6-Port  ) 
!S31(C  6-Port  ) 
!S32(C  6-Port  ) 
!S33(C  6-Port  ) 
!S34(C  6-Port  ) 
!S35(C  6-Port  ) 
!S36(C  6-Port  ) 
!S41(C  6-Port  ) 
!S42(C  6-Port  ) 
!S43(C  6-Port  ) 
!S44(C  6-Port  ) 
!S45(C  6-Port  ) 
!S46(C  6-Port  ) 
!S51(C  6-Port  ) 
!S52(C  6-Port  ) 
!S53(C  6-Port  ) 
!S54(C  6-Port  ) 
!S55(C  6-Port  ) 
!S56(C  6-Port  ) 
!S61(C  6-Port  ) 
!S62(C  6-Port  ) 
!S63(C  6-Port  ) 
!S64(C  6-Port  ) 
!S65(C  6-Port  ) 
!S66(C  6-Port  ) 
!S6P File: Measurement: :
# Hz S  RI   R 50
500000000 -0.33729 -0.03619 -0.010427 -0.0035796 -0.0081827 0.0124 -0.0030493 0.011067
0.012253 0.0044939 -0.0034395 0.0069282
-0.010426 -0.0035417 -0.41863 -0.049973 0.007779 -0.011433 0.0020998 0.011706
0.0075014 0.0020476 0.0016252 0.013054
-0.0081437 0.012416 0.0077538 -0.011448 -0.26499 0.2104 0.0072713 0.0032861
-0.00029156 0.008526 0.001293 0.012334
-0.0030791 0.011083 0.0021172 0.011714 0.0072776 0.0032898 -0.32603 0.046562
-0.019693 -0.0046535 0.018528 0.024781
0.012219 0.0044705 0.0075144 0.0020324 -0.00028452 0.0085064 -0.019694 -0.004633
-0.22655 -0.18496 -0.027319 0.0044771
-0.0034568 0.0069781 0.0016598 0.013051 0.001302 0.012333 0.018514 0.024759
-0.027311 0.004456 -0.27171 -0.1155
560000000 -0.31665 0.12371 -0.023373 -0.06234 -0.00066961 0.012635 0.0071388 0.010338
0.010803 0.0037252 0.011131 0.0068303
-0.023319 -0.062298 -0.37448 0.10849 -0.042365 -0.036695 0.013712 0.0038425
-0.013138 -0.0032787 0.0048884 -0.0010131
-0.00063201 0.012635 -0.042525 -0.036656 -0.18297 0.25809 -0.0002312 -0.0048371
0.018612 0.0036461 0.0063202 -0.0065926
0.0072059 0.010331 0.01371 0.0038077 -0.00023454 -0.0048426 -0.30239 0.13565
0.0038092 -0.025561 0.0047809 -0.019075
0.010851 0.0036492 -0.013149 -0.0032509 0.018619 0.0036332 0.0037761 -0.02552
-0.2866 -0.010745 0.008253 -0.049398
0.011153 0.0066988 0.0048598 -0.0010789 0.0062982 -0.0065627 0.0047826 -0.019092
0.0082396 -0.049401 -0.32942 0.032408
620000000 -0.27393 0.1082 -0.023203 0.0073546 0.0034555 0.008318 0.0068297 -0.0057773
0.010871 -0.00013123 9.0624e-05 -0.0022027
-0.023173 0.0073616 -0.40212 0.061855 -0.018643 -0.00033659 -0.0015594 -0.0021317
0.010603 -0.0074218 0.00096432 -0.0031463
0.0034767 0.008318 -0.018669 -0.00029824 -0.15304 0.26693 -0.0014814 -0.005506
-0.0043962 -0.0036988 0.0084342 -0.0037646
0.0067843 -0.005757 -0.0015671 -0.0021386 -0.0014918 -0.0055048 -0.2617 0.1455
-0.038979 -0.019455 0.013714 0.02446
0.010888 -6.2572e-05 0.010602 -0.0074609 -0.0043823 -0.0037026 -0.039009 -0.019431
-0.20433 -0.048883 -0.040833 0.012893
0.00010328 -0.0021805 0.00096017 -0.0031629 0.008437 -0.0037609 0.013722 0.024477
-0.040846 0.012885 -0.25031 -0.0039758
680000000 -0.23302 0.19334 -0.02782 -0.01369 0.0050561 0.0053149 0.00097671 -0.0073856
-0.0034649 -0.011119 0.0047772 -0.0060659
-0.02779 -0.01369 -0.387 0.15878 -0.032908 -0.0013694 -0.0018577 -3.0321e-05
-0.0026699 -0.0087516 -0.00092242 -0.0019297
0.0050758 0.0053051 -0.032936 -0.0012749 -0.10209 0.28699 -0.0010393 1.4863e-05
-0.0025302 0.0011211 -0.0030173 -0.0092118
0.00098773 -0.0074207 -0.0018655 -1.8721e-05 -0.0010515 2.1664e-05 -0.21994 0.19481
-0.023261 -0.0080659 -0.0084559 -0.0099978
-0.0034885 -0.011151 -0.0026985 -0.0087598 -0.0025189 0.0011291 -0.023256 -0.0080535
-0.25207 0.047913 -0.006288 -0.0097436
0.0047499 -0.0061771 -0.0009322 -0.0019259 -0.0030213 -0.0092066 -0.008453 -0.01003
-0.0062659 -0.009736 -0.25737 0.098348
740000000 -0.19021 0.18823 -0.038708 0.026155 0.012864 -0.0049781 -0.00086553 -0.0042623
-0.0050146 -0.0026823 -0.0066399 0.0030175
-0.038691 0.026113 -0.33492 0.1777 -0.03531 0.035205 -0.00078125 -0.0059049
-0.012259 0.0078216 -0.0027891 -0.0056925
0.012845 -0.005007 -0.035225 0.035354 -0.068836 0.28574 -0.001522 0.0034213
-0.0023883 -0.0043519 -0.0016504 0.00033343
-0.00091336 -0.0042518 -0.0008174 -0.0059088 -0.001525 0.003419 -0.20293 0.2023
-0.043068 -0.0077861 0.021737 0.013385
-0.0050324 -0.002569 -0.012233 0.0078905 -0.0024149 -0.0043493 -0.043116 -0.007739
-0.15537 0.072218 -0.041579 4.2895e-06
-0.0066424 0.0030439 -0.0027921 -0.0056881 -0.0016577 0.00032699 0.021772 0.013379
-0.041572 -1.1621e-05 -0.24713 0.10384
800000000 -0.15806 0.22774 -0.022674 0.017113 0.0051691 -0.010441 -0.0051122 -0.0017763
-0.0040416 0.002914 0.0037682 0.0010795
-0.022663 0.017094 -0.33795 0.24773 -0.0080498 0.034339 -0.0022494 0.0023151
-0.00070115 0.0034789 0.00089266 0.0054198
0.0051549 -0.01047 -0.0079516 0.034403 -0.027761 0.30908 0.0010816 0.0014147
0.00061869 0.0036026 -0.0020547 0.0012191
-0.0050999 -0.0017577 -0.0022541 0.0023196 0.0010855 0.0014228 -0.17499 0.22954
-0.028465 0.012714 0.012589 -0.010325
-0.0040273 0.0028795 -0.00068791 0.0034889 0.00061748 0.0035983 -0.028468 0.012784
-0.20102 0.095525 -0.017604 0.017631
0.0037983 0.0010258 0.00089706 0.0054267 -0.0020588 0.0012138 0.012593 -0.010349
-0.017603 0.017619 -0.23928 0.15454
860000000 -0.12319 0.24919 -0.017243 0.03123 -0.0034812 -0.0098527 -0.0023021 0.0012833
0.0043771 0.0048577 -0.0033927 -0.0030229
-0.017239 0.031187 -0.29005 0.29001 0.0083048 0.034562 0.00027733 0.0024047
0.0045365 -1.2983e-05 0.0033717 0.00022245
-0.0035055 -0.0098438 0.0084188 0.034574 0.02048 0.31733 -0.00050192 -0.0002528
0.0027806 -0.0014856 0.00166 0.0042576
-0.002329 0.0012776 0.00028136 0.0024036 -0.00050946 -0.00025347 -0.13957 0.24191
-0.018733 0.019009 -0.006322 -0.009223
0.0043627 0.0048464 0.0045416 -3.7436e-05 0.0027923 -0.0014865 -0.018716 0.019059
-0.15164 0.14461 -0.023957 0.015839
-0.0034085 -0.0029653 0.0033699 0.00020076 0.0016682 0.0042653 -0.006331 -0.0092176
-0.023971 0.015824 -0.1891 0.19638
920000000 -0.097886 0.27215 0.0054273 0.038013 -0.009592 -0.0043833 -0.0016793 0.0024249
0.001583 0.0018084 0.0024392 -0.0016107
0.0054142 0.03797 -0.26098 0.31101 0.028359 0.021864 0.0016499 0.0011191
0.0069032 -0.00073477 0.0040326 -0.0030648
-0.0096052 -0.0043674 0.028457 0.021811 0.067117 0.31776 0.0017571 -0.00013977
0.0011747 -0.00045116 0.00093795 -0.0010871
-0.0016561 0.0024215 0.0016535 0.0011086 0.0017503 -0.00013987 -0.11531 0.25902
-0.010328 0.030649 0.0027946 -0.0065748
0.0016518 0.0017853 0.0068928 -0.00077083 0.0011832 -0.00043384 -0.010267 0.030681
-0.14114 0.15021 -0.0022978 0.027206
0.0024387 -0.0016233 0.0040147 -0.0030821 0.00094153 -0.0010976 0.0027914 -0.0065826
-0.0023067 0.027202 -0.19338 0.21156
980000000 -0.050125 0.29196 0.017979 0.030048 -0.0088652 0.0046941 0.0024381 0.003636
0.0040611 -0.0021271 -0.0030698 -0.0020276
0.017946 0.030006 -0.20808 0.34465 0.033374 0.0045394 0.0019139 -0.00010451
0.0010043 -0.0063378 -0.00074962 -0.0020688
-0.0088411 0.0047102 0.033422 0.0044282 0.11361 0.31099 0.00047754 -0.0012403
2.3434e-05 -0.0022546 0.0013675 -7.6727e-05
0.0024432 0.0036352 0.001913 -0.00013582 0.00047866 -0.0012384 -0.076508 0.27039
0.0078868 0.029158 -0.0092964 -0.0070583
0.0040345 -0.0021276 0.00095472 -0.0063642 1.4838e-05 -0.0022445 0.0079403 0.029174
-0.11007 0.17812 0.004845 0.018633
-0.0030897 -0.0019957 -0.00076034 -0.0020768 0.0013723 -7.6638e-05 -0.0093201 -0.0070484
0.0048481 0.018625 -0.1511 0.25616
1040000000 -0.0077761 0.30022 0.03354 0.017723 -0.0011367 0.0069956 0.0026738 0.00063741
-0.00020838 -0.003661 -0.00050696 -0.0016447
0.033475 0.017706 -0.17238 0.35787 0.029402 -0.01525 0.0013991 -0.0018846
-0.0026994 -0.002558 -0.0015432 -0.0026953
-0.0011036 0.0069962 0.029358 -0.015358 0.16012 0.29709 -0.00057516 -0.0014885
-0.0016568 -0.00084024 -0.00050814 -0.0012228
0.0026874 0.00064938 0.0013791 -0.0019152 -0.00057188 -0.0014831 -0.049013 0.28081
0.018852 0.01754 -0.0033686 0.0019357
-0.00016393 -0.0036553 -0.0027417 -0.0025398 -0.0016606 -0.00084326 0.018907 0.017504
-0.079908 0.18647 0.013459 0.018305
-0.00049951 -0.0016435 -0.001578 -0.0026979 -0.00050673 -0.001219 -0.0033611 0.0019364
0.013452 0.018317 -0.12908 0.27583
1100000000 0.03856 0.30722 0.036057 -0.0047531 0.0029937 0.0037691 0.0026215 -0.0014593
-0.0022626 -0.0030819 -0.0038473 5.5089e-05
0.036018 -0.0047367 -0.1288 0.37494 0.014858 -0.028153 -1.231e-05 -0.0017868
-0.0032909 -0.00029985 -0.0034082 -0.0004152
0.0030135 0.0037595 0.014758 -0.028235 0.20667 0.27625 -0.0018139 0.00027162
-0.0018226 0.0006724 -0.00096235 -0.00042389
0.0026106 -0.0014743 -2.418e-05 -0.0017986 -0.0018216 0.00027524 -0.0079901 0.28604
0.023309 0.004753 -0.0023982 0.0011247
-0.0023179 -0.0030736 -0.0033105 -0.00028466 -0.0018308 0.00067577 0.023309 0.0047153
-0.061752 0.19999 0.018754 0.0090177
-0.0038527 7.8799e-05 -0.0034212 -0.00039838 -0.0009716 -0.00042641 -0.0024075 0.0011257
0.018751 0.0090195 -0.081512 0.30314
1160000000 0.089567 0.30208 0.023719 -0.021189 0.0027407 -0.00055767 -0.00024503 -0.002551
-0.0040402 -0.00039313 -0.00086327 0.0035674
0.023709 -0.021174 -0.084769 0.37923 -0.0041931 -0.029234 -0.001757 -0.0015453
-0.0023365 0.0027916 -0.0011976 0.0016309
0.0027483 -0.00056048 -0.0043402 -0.029245 0.24977 0.24493 -0.00060926 0.0017189
-0.00031806 0.0019691 -0.0011643 0.00010898
-0.00025085 -0.0025308 -0.0017836 -0.0015532 -0.00061266 0.0017144 0.031899 0.28296
0.019724 -0.010525 -0.0026904 0.005588
-0.004017 -0.00035121 -0.0023438 0.0028024 -0.00031385 0.0019699 0.019715 -0.010554
-0.028584 0.21008 0.017545 0.00034008
-0.00083461 0.0035936 -0.0011993 0.0016343 -0.0011556 0.00011355 -0.0026961 0.0056036
0.017541 0.00034347 -0.035031 0.30646
1220000000 0.13431 0.29034 0.010032 -0.030306 -0.001596 -0.00097292 -0.00019666 -0.0011006
-0.0026301 0.0025081 0.001236 0.0018604
0.010041 -0.030289 -0.040116 0.39078 -0.017319 -0.020971 -0.0025257 0.00051849
0.00032303 0.0029084 -0.00070069 0.0018242
-0.0015894 -0.00096566 -0.017443 -0.020919 0.28874 0.20515 0.00087397 0.001642
0.00062673 0.0011716 0.00022074 0.00074976
-0.00019582 -0.0010932 -0.0025203 0.00053371 0.00087724 0.0016448 0.071983 0.27401
0.0091904 -0.016199 0.0028265 0.0017859
-0.0026308 0.0025276 0.00032807 0.0029045 0.00061774 0.0011683 0.0091827 -0.01623
-0.004714 0.21994 0.013484 -0.012323
0.001241 0.0018561 -0.00068875 0.0018191 0.00022536 0.00074747 0.0028209 0.0017808
0.013471 -0.012318 -0.0026817 0.32135
1280000000 0.18399 0.26769 -0.008362 -0.028488 -0.0018559 0.0025695 -0.0011252 -0.0019426
-0.00057847 0.0031236 0.0025827 0.00098115
-0.0083383 -0.028458 0.0061873 0.3813 -0.023926 -0.0081486 -0.00090781 0.0014981
0.0016724 0.0014855 0.00053806 0.0018945
-0.0018372 0.0025779 -0.023997 -0.0080396 0.31882 0.1608 0.0014022 -0.00025452
0.001019 2.6452e-05 0.00018057 0.00040661
-0.0011389 -0.0019345 -0.00090881 0.001504 0.0014045 -0.00025557 0.10862 0.25726
-2.8671e-05 -0.017722 0.00042665 3.6905e-05
-0.00053608 0.0031446 0.0016779 0.0014807 0.0010232 2.9487e-05 -6.4748e-05 -0.01773
0.03271 0.22432 0.0028608 -0.014632
0.0025857 0.00095833 0.00054964 0.001893 0.00018142 0.00040834 0.00042591 3.8094e-05
0.0028633 -0.014638 0.04437 0.32152
1340000000 0.22085 0.23327 -0.018075 -0.01875 0.00081192 0.0043845 -0.0018756 -0.00066098
0.0015713 0.0025913 0.0016657 -0.0015742
-0.018038 -0.018742 0.045606 0.37225 -0.021478 0.0045856 6.4883e-05 0.0019026
0.0016899 0.00052432 0.0012944 0.00082067
0.00083757 0.0043826 -0.021478 0.004695 0.34013 0.1128 0.00090316 -0.00095085
0.00060966 -0.00045023 0.00012931 0.00038079
-0.0018801 -0.00064687 7.5657e-05 0.0019031 0.00090783 -0.00094399 0.14111 0.23678
-0.0085424 -0.014423 0.0012733 7.1704e-05
0.0015755 0.0025876 0.001691 0.0005027 0.00060958 -0.00045051 -0.0085728 -0.01441
0.063908 0.21993 -0.0036709 -0.013133
0.0016557 -0.0015935 0.0012946 0.00082203 0.00013266 0.00038415 0.0012666 7.1166e-05
-0.0036635 -0.013131 0.08313 0.31587
1400000000 0.25352 0.19437 -0.023629 -0.0071655 0.0051362 0.0031195 -0.0019303 0.00079962
0.002531 0.00067102 6.4802e-05 -0.001392
-0.023607 -0.0071745 0.082584 0.35848 -0.014518 0.012544 0.0013459 0.0012322
0.00089856 -0.00077326 0.0011783 0.00016925
0.0051603 0.0030906 -0.01447 0.012639 0.35281 0.059465 2.5594e-05 -0.0013503
0.00011704 -0.00035087 0.00043453 0.00021147
-0.0019363 0.00080762 0.0013534 0.0012275 2.4703e-05 -0.0013645 0.17051 0.20805
-0.01344 -0.0077852 -0.00057215 -0.00076155
0.0025424 0.00067697 0.00088497 -0.00078931 0.00011157 -0.00035023 -0.013455 -0.0077602
0.097612 0.21466 -0.0098722 -0.00822
6.5479e-05 -0.0013879 0.0011727 0.00015193 0.00043261 0.0002148 -0.00057248 -0.00076486
-0.0098708 -0.0082265 0.1273 0.30385
1460000000 0.27566 0.1501 -0.020442 0.0050694 0.0055657 -0.0018576 -0.0014935 0.0017789
0.0020197 -0.00080574 -0.00038688 -0.00082009
-0.020419 0.005048 0.11615 0.33612 -0.0057914 0.015244 0.001692 8.3135e-05
0.00073323 -0.0010608 0.0011591 -0.00071449
0.0055547 -0.0018828 -0.0057185 0.015291 0.35865 0.0053602 -0.0011317 -0.0011225
0.00025212 -9.4872e-05 0.00075713 -0.00038698
-0.0014902 0.0017925 0.0016961 7.6694e-05 -0.0011255 -0.0011223 0.19698 0.17908
-0.013701 -0.0017401 -0.00096044 0.0014145
0.002009 -0.00082717 0.00073363 -0.0010666 0.00025776 -0.00010142 -0.013723 -0.0017144
0.12828 0.19961 -0.011642 -0.0026541
-0.00038679 -0.00081811 0.0011504 -0.00072748 0.00075932 -0.00039103 -0.00095769 0.0014094
-0.011645 -0.002668 0.1604 0.282
1520000000 0.28722 0.10818 -0.014643 0.010692 0.0031612 -0.0041865 0.00023825 0.002469
0.0017043 -0.0017955 -0.0012471 6.3982e-06
-0.014649 0.010685 0.14906 0.32123 0.0017226 0.012921 0.0015874 -0.00083905
0.00010741 -0.00083454 0.0002736 -0.0010252
0.0031437 -0.0042022 0.0017948 0.012919 0.35165 -0.050557 -0.00095678 -0.00035401
0.00050993 -0.00090733 2.9913e-05 -0.00011901
0.00023901 0.0024565 0.0015884 -0.00084913 -0.00096137 -0.00035038 0.22044 0.14113
-0.012454 0.0030472 0.0010747 0.001568
0.0016931 -0.0018155 9.8971e-05 -0.00084359 0.00051283 -0.00090893 -0.012445 0.0030861
0.15652 0.18419 -0.011333 0.0017848
-0.0012508 2.6451e-05 0.00026957 -0.0010273 2.9299e-05 -0.00012016 0.0010725 0.0015601
-0.011318 0.0017861 0.19284 0.26073
1580000000 0.29591 0.061782 -0.0077767 0.013648 -0.0010277 -0.0047493 0.0014246 0.0017773
-0.00054901 -0.0020221 -0.00022959 0.00038275
-0.0077851 0.013627 0.17566 0.29641 0.0051804 0.0080781 0.00044427 -0.0016058
-0.0003324 -0.0010249 -0.00027734 -0.00087771
-0.0010532 -0.0047355 0.0052194 0.0080673 0.33138 -0.10797 -0.0014276 0.00046725
-0.00036816 -0.0011581 0.00013995 -0.00065116
0.0014356 0.0017775 0.00043412 -0.0016135 -0.0014326 0.00046375 0.23473 0.10161
-0.0090693 0.0067538 0.0017139 0.00049778
-0.00055755 -0.0020222 -0.00034904 -0.0010202 -0.00037321 -0.0011546 -0.009053 0.006769
0.18104 0.165 -0.0088931 0.0072691
-0.00022465 0.00038579 -0.00028819 -0.00087376 0.00013686 -0.00064943 0.0017128 0.00048668
-0.0089066 0.0072641 0.22408 0.23331
1640000000 0.29725 0.020527 -0.0010836 0.012341 -0.0028026 -0.0025271 0.0025086 0.00094641
-0.0009603 -0.0011124 -0.00026189 0.00054849
-0.0011021 0.012345 0.20462 0.27159 0.0057241 0.0034151 -0.00076883 -0.0016106
-0.00089102 -0.00049891 -0.00054075 -0.00058524
-0.0028221 -0.0025108 0.0057578 0.0033857 0.30317 -0.15672 -0.00080676 0.0012523
-0.0010145 -0.00082298 -0.00010437 -0.00033089
0.0025162 0.00093306 -0.00078489 -0.001606 -0.00081173 0.0012635 0.24721 0.052396
-0.0053958 0.0070239 0.0020624 -0.00074561
-0.00097085 -0.0010983 -0.00089975 -0.00049401 -0.0010176 -0.00081577 -0.0053882 0.0070431
0.20371 0.13924 -0.0042053 0.0092763
-0.00026815 0.0005497 -0.00054067 -0.00057195 -0.00010605 -0.00033141 0.0020643 -0.0007476
-0.0042109 0.009275 0.24906 0.20144
1700000000 0.28957 -0.024641 0.0023758 0.0093982 -0.0035184 0.0002383 0.0028593 -0.001205
-0.0018311 -0.00027064 0.00054145 0.00044377
0.002366 0.0093908 0.22234 0.24039 0.0036835 0.00060083 -0.0013491 -0.00051847
-0.00076999 -0.00010402 -0.00093443 -0.00036519
-0.0035101 0.00025469 0.0036933 0.0005905 0.25985 -0.19681 0.00035637 0.001566
-0.0016848 -0.00015408 -0.00052601 -0.00089751
0.0028448 -0.001209 -0.0013598 -0.00051174 0.00034872 0.0015632 0.24408 0.0020512
-0.0035362 0.0069272 0.0011134 -0.0020319
-0.0018319 -0.00025982 -0.00077478 -0.00010318 -0.00169 -0.00015347 -0.0035246 0.006929
0.22079 0.11737 0.00032874 0.0092616
0.00054884 0.00044383 -0.00095066 -0.00035561 -0.00052937 -0.00089651 0.0011106 -0.0020421
0.00033698 0.0092583 0.26487 0.16704
1760000000 0.27665 -0.072976 0.0044868 0.0059826 -0.002242 0.00085311 0.0012721 -0.0031881
-0.00092683 0.0008096 0.00041025 -0.00052296
0.004475 0.0059797 0.24805 0.20083 0.0015419 -0.0011694 -0.0011262 0.00027571
-0.0011981 0.00084672 -0.00050553 0.00060511
-0.0022339 0.00086878 0.0015381 -0.001181 0.2113 -0.23031 0.0011712 0.001307
-0.00099303 0.0013574 -0.0013889 -0.0004526
0.0012563 -0.0031919 -0.0011209 0.000289 0.0011727 0.001304 0.23447 -0.049904
-0.0015651 0.0059932 -0.00044755 -0.0020906
-0.00092343 0.00081046 -0.0011868 0.0008537 -0.00099165 0.0013596 -0.001556 0.0060085
0.23498 0.080726 0.0041717 0.0067153
0.00039924 -0.00053598 -0.00050039 0.00060806 -0.0013926 -0.00045654 -0.00045862 -0.002093
0.0041672 0.0067118 0.27689 0.1286
1820000000 0.25153 -0.10962 0.0045488 0.0024606 5.1533e-05 0.0024514 -0.0008966 -0.0031221
-0.00064077 0.00060133 1.3515e-06 -7.4435e-05
0.0045393 0.0024578 0.25792 0.17119 -0.00034837 0.00014451 -0.0012335 0.00092166
-0.00017461 0.0013927 -0.00046036 0.00052013
6.9201e-05 0.0024486 -0.00034831 0.00014361 0.16101 -0.24548 0.0017307 0.00040514
-0.00036513 0.0022103 -0.0015117 0.00054271
-0.00090937 -0.0031064 -0.0012224 0.00093436 0.0017426 0.00040419 0.20393 -0.097121
-0.00094431 0.0048922 -0.0015822 -0.0012696
-0.00063459 0.00060506 -0.00016514 0.001388 -0.00036921 0.0022179 -0.00092975 0.0049035
0.25088 0.049924 0.0049965 0.0030594
5.6282e-06 -7.2542e-05 -0.00045655 0.00052422 -0.0015092 0.00054018 -0.0015779 -0.0012586
0.0049927 0.0030543 0.27857 0.09227
1880000000 0.21626 -0.14938 0.0023148 0.00030523 -0.00030674 0.002259 -0.0028452 -0.0022422
-0.00010211 0.0012555 0.00043074 -0.00058546
0.0023116 0.00030157 0.26248 0.12493 -0.0022462 0.0017183 -0.00014621 0.0016181
0.00067557 0.0014441 0.00024908 0.00096152
-0.00029862 0.0022598 -0.002229 0.0017328 0.10868 -0.25554 0.0020153 -0.0010724
0.0014925 0.0019921 -0.00091911 0.0013376
-0.002853 -0.0022258 -0.00013653 0.0016177 0.0020078 -0.0010767 0.16274 -0.13684
-0.0010252 0.0038659 -0.0022941 0.00061181
-8.9214e-05 0.0012505 0.00067826 0.0014401 0.0014972 0.00199 -0.0010262 0.0038722
0.25193 0.015606 0.0045477 0.00077939
0.00043099 -0.00059252 0.00025817 0.00095974 -0.00092599 0.0013567 -0.0023001 0.00061474
0.0045522 0.00077892 0.27725 0.057724
1940000000 0.17691 -0.1744 0.0001004 -0.0013704 0.0013074 0.0016849 -0.0037601 0.00050769
0.0010443 0.00096087 -0.00060924 -0.00076396
9.7209e-05 -0.0013697 0.26306 0.093348 -0.0010674 0.0039013 0.00094098 0.001262
0.0020371 0.00058604 0.00086609 0.00020943
0.0013264 0.0016726 -0.0010463 0.0039098 0.062682 -0.24904 0.00036463 -0.0023884
0.0024261 0.00043481 0.00049265 0.0018184
-0.0037546 0.00052121 0.00095204 0.0012566 0.00036687 -0.0023834 0.10969 -0.16682
-0.0022943 0.003611 -0.0013082 0.0019206
0.001051 0.00095894 0.0020397 0.00056471 0.0024274 0.00043738 -0.0022932 0.003617
0.25119 -0.024445 0.003164 -0.0023086
-0.00063064 -0.00074829 0.00087321 0.00019713 0.00049369 0.00182 -0.0013034 0.0019237
0.0031564 -0.0023106 0.26526 0.02161
2000000000 0.13085 -0.18862 -0.0035784 0.00060078 0.0024499 0.0015725 -0.002274 0.0036335
0.00085139 0.00044955 -0.00074297 0.00052312
-0.0035726 0.00059798 0.24924 0.057823 -0.00078992 0.0056448 0.0016138 0.00033574
0.0015441 -0.0014946 0.00043113 5.1287e-05
0.002453 0.0015592 -0.00074019 0.0056564 0.018921 -0.23448 -0.0015347 -0.0013802
0.0019792 -0.0011765 0.0016807 0.0013524
-0.0022467 0.0036532 0.0016219 0.00032779 -0.0015301 -0.0013857 0.056701 -0.17561
-0.0036337 0.0047141 0.00033771 0.002341
0.00087485 0.00044161 0.0015316 -0.0015123 0.0019687 -0.0011833 -0.003628 0.0047491
