!Keysight Technologies,M9804A,MY58100912,A.14.10.03
!Date: Thursday, April 27, 2023 10:28:33
!Correction: S11(C  6-Port  ) 
!S12(C  6-Port  ) 
!S13(C  6-Port  ) 
!S14(C  6-Port  ) 
!S15(C  6-Port  ) 
!S16(C  6-Port  ) 
!S21(C  6-Port  ) 
!S22(C  6-Port  ) 
!S23(C  6-Port  ) 
!S24(C  6-Port  ) 
!S25(C  6-Port  ) 
!S26(C  6-Port  ) 
!S31(C  6-Port  ) 
!S32(C  6-Port  ) 
!S33(C  6-Port  ) 
!S34(C  6-Port  ) 
!S35(C  6-Port  ) 
!S36(C  6-Port  ) 
!S41(C  6-Port  ) 
!S42(C  6-Port  ) 
!S43(C  6-Port  ) 
!S44(C  6-Port  ) 
!S45(C  6-Port  ) 
!S46(C  6-Port  ) 
!S51(C  6-Port  ) 
!S52(C  6-Port  ) 
!S53(C  6-Port  ) 
!S54(C  6-Port  ) 
!S55(C  6-Port  ) 
!S56(C  6-Port  ) 
!S61(C  6-Port  ) 
!S62(C  6-Port  ) 
!S63(C  6-Port  ) 
!S64(C  6-Port  ) 
!S65(C  6-Port  ) 
!S66(C  6-Port  ) 
!S6P File: Measurement: :
# Hz S  RI   R 50
500000000 -0.33753 -0.03741 -0.009921 -0.0038485 -0.0083142 0.011857 -0.001878 0.011675
0.012653 0.0045933 -0.0020663 0.0076363
-0.0099421 -0.0038972 -0.4191 -0.050043 0.0074997 -0.011414 0.0022831 0.012101
0.0072513 0.0022293 0.00162 0.013444
-0.0083244 0.011875 0.0074901 -0.011417 -0.26509 0.21082 0.0071314 0.0030835
-0.00031285 0.0086823 0.00087391 0.012335
-0.0018942 0.011613 0.0023035 0.012085 0.0071402 0.0030852 -0.32629 0.047811
-0.019235 -0.0044967 0.018855 0.025722
0.012613 0.0045267 0.0072716 0.0022081 -0.00030067 0.00867 -0.019246 -0.0044863
-0.22719 -0.18459 -0.026702 0.0050234
-0.0021195 0.007606 0.0016397 0.013433 0.00086735 0.012338 0.018892 0.025678
-0.0267 0.0050311 -0.27079 -0.11539
560000000 -0.3165 0.12456 -0.02407 -0.061578 0.00025736 0.011804 0.0067388 0.0096632
0.0093328 0.0033021 0.010688 0.0080674
-0.024001 -0.061559 -0.37499 0.10948 -0.042179 -0.037291 0.013352 0.0032749
-0.015035 -0.0029281 0.0042725 -0.00086364
0.00026912 0.011806 -0.042319 -0.037233 -0.18261 0.25873 -6.1242e-06 -0.0042929
0.01876 0.0035332 0.0075828 -0.0067751
0.0067187 0.0097279 0.013389 0.0032666 1.2439e-06 -0.0042986 -0.30235 0.13603
0.0041645 -0.025977 0.0047401 -0.01929
0.009431 0.0033998 -0.015001 -0.0028452 0.018776 0.0035028 0.0041052 -0.025959
-0.28615 -0.010991 0.0066608 -0.05048
0.010901 0.0080415 0.004292 -0.00087511 0.0075522 -0.0068087 0.0047345 -0.019301
0.0066623 -0.050484 -0.33118 0.032353
620000000 -0.27455 0.10939 -0.02281 0.0075854 0.0040295 0.0082554 0.0072082 -0.0057691
0.011419 -0.00059389 0.0001298 -0.0022068
-0.022802 0.0075827 -0.40238 0.061993 -0.018509 -0.00043399 -0.0011714 -0.0021696
0.010323 -0.0071487 0.00085216 -0.0031798
0.0040363 0.0082488 -0.018543 -0.00038664 -0.15275 0.26735 -0.0012409 -0.0053207
-0.0040999 -0.0037022 0.0081111 -0.0040241
0.007127 -0.0058125 -0.0011687 -0.0021654 -0.0012351 -0.0053136 -0.26155 0.14582
-0.038506 -0.019492 0.01436 0.023681
0.011336 -0.000601 0.010311 -0.0071906 -0.0041203 -0.0036873 -0.038544 -0.019429
-0.20414 -0.047464 -0.040186 0.013048
0.0001275 -0.0021714 0.00084361 -0.0031777 0.0081071 -0.0040384 0.014346 0.023649
-0.040216 0.013026 -0.24976 -0.0054762
680000000 -0.23353 0.195 -0.027542 -0.013586 0.0048571 0.0051308 0.0010562 -0.0075696
-0.00393 -0.011026 0.0043709 -0.006126
-0.027513 -0.013587 -0.38734 0.15955 -0.032686 -0.0011166 -0.0020163 -0.00010884
-0.0028437 -0.00872 -0.00095793 -0.0017838
0.0048736 0.0051296 -0.032716 -0.0010381 -0.10184 0.2874 -0.00090914 0.00014889
-0.0023699 0.00082682 -0.0028259 -0.0094478
0.0010546 -0.0074934 -0.0020137 -8.3451e-05 -0.00090023 0.00014509 -0.21949 0.19536
-0.023367 -0.0084188 -0.0088922 -0.010225
-0.0038863 -0.011016 -0.0028643 -0.0087114 -0.0023673 0.00082524 -0.023371 -0.0083713
-0.25189 0.04836 -0.0058946 -0.0094407
0.0044214 -0.006193 -0.00093369 -0.0018017 -0.0028408 -0.0094588 -0.0088525 -0.010232
-0.0058995 -0.009425 -0.25894 0.098527
740000000 -0.18966 0.18863 -0.038175 0.026254 0.012844 -0.0050213 -0.00042212 -0.0038162
-0.0043442 -0.0031796 -0.0065547 0.0036237
-0.038154 0.026221 -0.33511 0.17827 -0.034881 0.034798 -0.00043811 -0.0062775
-0.012426 0.0075851 -0.0024899 -0.006131
0.01285 -0.0050614 -0.034806 0.034935 -0.067766 0.28619 -0.0014493 0.003448
-0.0027644 -0.0037381 -0.0008523 0.00037788
-0.00042988 -0.0038323 -0.00045728 -0.0062878 -0.0014459 0.0034487 -0.20219 0.20258
-0.043129 -0.0085605 0.022176 0.013155
-0.0043885 -0.0031659 -0.012415 0.0076354 -0.0027673 -0.0037353 -0.043174 -0.0084924
-0.15724 0.073075 -0.041763 0.00040926
-0.0065165 0.0035893 -0.0025158 -0.0061274 -0.00086167 0.00033801 0.022202 0.013126
-0.041743 0.00039205 -0.24557 0.1039
800000000 -0.15672 0.22939 -0.022402 0.016886 0.0049752 -0.010216 -0.0052098 -0.0021225
-0.0044915 0.0027385 0.0034865 0.0012492
-0.022381 0.016862 -0.33756 0.24821 -0.0078991 0.033953 -0.0022274 0.0021575
-0.00086137 0.0031792 0.00077154 0.0051978
0.0049405 -0.010265 -0.0078051 0.034012 -0.02709 0.30906 0.00093805 0.0014134
0.00064407 0.0037442 -0.002248 0.0011126
-0.0052255 -0.0020915 -0.0022236 0.0021678 0.00093469 0.0014121 -0.17457 0.23016
-0.028237 0.012515 0.012429 -0.010231
-0.0044574 0.0028112 -0.00084708 0.0032004 0.00064617 0.0037502 -0.028236 0.012575
-0.20053 0.095681 -0.017385 0.017431
0.0035359 0.0012754 0.00077953 0.0052131 -0.0022339 0.0011133 0.012431 -0.010238
-0.017383 0.017407 -0.23997 0.15418
860000000 -0.12233 0.24925 -0.017143 0.030713 -0.0033924 -0.0097411 -0.0023988 0.001409
0.0044036 0.0051529 -0.0029301 -0.0026947
-0.017159 0.030683 -0.28945 0.29037 0.0081266 0.033897 0.00029871 0.0021062
0.0046921 0.00032081 0.0032565 0.00026845
-0.0034322 -0.0097463 0.0082472 0.03391 0.021398 0.31665 -0.00040212 -0.00028658
0.0028268 -0.0014734 0.0015854 0.0043533
-0.002373 0.0013808 0.00029906 0.0021078 -0.0004052 -0.00028773 -0.13871 0.24188
-0.018048 0.018287 -0.0064547 -0.0089012
0.0044665 0.0050491 0.0046825 0.00029525 0.0028285 -0.0014635 -0.018046 0.018331
-0.1512 0.14444 -0.024599 0.015477
-0.0029841 -0.0027413 0.0032533 0.00026916 0.0015941 0.0043528 -0.0064541 -0.008901
-0.024597 0.015446 -0.1882 0.19613
920000000 -0.09644 0.27212 0.0052518 0.037501 -0.009246 -0.0042865 -0.0018716 0.002261
0.001264 0.001375 0.0025321 -0.0014536
0.0052046 0.037477 -0.26043 0.31091 0.027894 0.021458 0.0015457 0.00090863
0.0067141 -0.00056862 0.00384 -0.003239
-0.0092663 -0.004272 0.027994 0.0214 0.067579 0.31679 0.0017885 -0.00019128
0.0011717 -0.00041375 0.0008308 -0.00115
-0.0018856 0.0022703 0.0015419 0.00091335 0.0017853 -0.00019477 -0.1143 0.25833
-0.010653 0.029658 0.002689 -0.0062704
0.0012486 0.001419 0.0067214 -0.00060842 0.0011753 -0.00041493 -0.010615 0.02972
-0.14169 0.1502 -0.0024562 0.026977
0.0025484 -0.0014762 0.0038133 -0.0032522 0.00082159 -0.0011507 0.002684 -0.0062768
-0.0024712 0.026959 -0.19317 0.21141
980000000 -0.049339 0.29142 0.017654 0.02972 -0.0087875 0.0047211 0.0023467 0.0037461
0.0039706 -0.0018169 -0.0030263 -0.0019395
0.017594 0.029687 -0.20731 0.34469 0.03266 0.004575 0.0019095 1.5662e-05
0.001153 -0.0062388 -0.0009215 -0.0019156
-0.0087724 0.004741 0.032724 0.004471 0.11376 0.31002 0.00042095 -0.001236
0.00010708 -0.0021297 0.0013889 4.2704e-07
0.0023719 0.0037522 0.0018915 6.3517e-06 0.00041735 -0.0012408 -0.076156 0.26993
0.0068902 0.028579 -0.0092305 -0.0066685
0.0040013 -0.0018746 0.0011077 -0.0062711 0.00010722 -0.0021343 0.0069425 0.028562
-0.11 0.17769 0.0042234 0.018903
-0.0029939 -0.0019535 -0.00094805 -0.0018984 0.0013857 -2.5512e-06 -0.0092323 -0.0066526
0.0042149 0.0189 -0.15079 0.25601
1040000000 -0.0065817 0.2993 0.033043 0.017794 -0.0010122 0.0068054 0.0028558 0.00062241
-0.00013181 -0.0039668 -0.00062563 -0.0016099
0.032973 0.017818 -0.17172 0.35752 0.028841 -0.014715 0.0016459 -0.0016357
-0.0023284 -0.0022677 -0.0012903 -0.0026959
-0.00099453 0.006794 0.02884 -0.014828 0.1597 0.29591 -0.00047206 -0.001377
-0.0016719 -0.0008825 -0.00036553 -0.0011261
0.0028399 0.00060202 0.0016329 -0.0016312 -0.0004741 -0.0013751 -0.048575 0.27984
0.017813 0.017166 -0.0028567 0.0020966
-0.00018419 -0.0039233 -0.0023731 -0.0022873 -0.001664 -0.00086923 0.017849 0.017171
-0.079563 0.18649 0.01295 0.018041
-0.00062689 -0.0015839 -0.0013218 -0.0026798 -0.00037111 -0.0011348 -0.0028473 0.0021052
0.012922 0.018026 -0.12881 0.27471
1100000000 0.038786 0.30664 0.03539 -0.0044079 0.0029212 0.003737 0.0025797 -0.0012817
-0.0023247 -0.0028864 -0.0037162 3.5465e-05
0.035345 -0.0043735 -0.12824 0.37413 0.014804 -0.027357 0.00011998 -0.001741
-0.0032317 -0.00041177 -0.0032175 -0.00061993
0.0029349 0.0037224 0.014718 -0.027438 0.20564 0.27551 -0.0017574 0.00024875
-0.0016878 0.00064582 -0.00088483 -0.00028608
0.0025946 -0.0012873 0.00011282 -0.0017393 -0.001758 0.00024786 -0.0081675 0.2849
0.022206 0.0053181 -0.0022604 0.00089607
-0.0023075 -0.0028908 -0.0032362 -0.0003977 -0.0016875 0.00063726 0.022226 0.0052865
-0.060861 0.20026 0.018294 0.0086923
-0.0037118 9.3045e-06 -0.0032315 -0.00060874 -0.00088511 -0.00028473 -0.0022637 0.0009068
0.018283 0.0086839 -0.082096 0.30292
1160000000 0.090238 0.30096 0.023551 -0.020522 0.0026567 -0.00053227 -0.00011978 -0.0024654
-0.0038304 -0.00045745 -0.00085193 0.0036997
0.023526 -0.020483 -0.084533 0.37813 -0.0037775 -0.028652 -0.0016972 -0.0016243
-0.0023873 0.0027343 -0.0011134 0.0015797
0.0026561 -0.00055384 -0.0038944 -0.028652 0.24849 0.2448 -0.00068008 0.0016404
-0.00036026 0.0018309 -0.00090468 6.6486e-05
-0.00011059 -0.0024694 -0.0017113 -0.0016093 -0.00067549 0.0016377 0.031086 0.28198
0.018999 -0.009188 -0.0024974 0.0057581
-0.003851 -0.00044198 -0.0023767 0.0027402 -0.00037003 0.0018467 0.018982 -0.009214
-0.027622 0.20973 0.016707 0.00087541
-0.00084968 0.0036933 -0.0011112 0.0015835 -0.00091006 5.4218e-05 -0.0024775 0.0057614
0.016704 0.00087675 -0.035302 0.30519
1220000000 0.13425 0.28929 0.010134 -0.029556 -0.0015374 -0.0008089 -0.00020865 -0.0011693
-0.0025747 0.0025687 0.0012512 0.0019107
0.010142 -0.02952 -0.040635 0.38962 -0.016575 -0.020761 -0.0024689 0.00038474
0.00023191 0.0027624 -0.0006905 0.0017295
-0.0015348 -0.00080332 -0.016678 -0.020701 0.28751 0.20585 0.00086811 0.0015377
0.00058567 0.0011083 0.0002077 0.00062404
-0.00020687 -0.0011507 -0.0024703 0.00040239 0.00086644 0.0015415 0.070651 0.27347
0.0092054 -0.014643 0.0028085 0.0017782
-0.00255 0.0025901 0.00024292 0.0027529 0.00058873 0.0011144 0.0091877 -0.014656
-0.0039928 0.21915 0.013309 -0.011396
0.001276 0.0018968 -0.00069199 0.0017361 0.00020669 0.00063096 0.0028151 0.0017831
0.013307 -0.011394 -0.0030789 0.32082
1280000000 0.18369 0.26668 -0.007758 -0.027939 -0.0017899 0.0024585 -0.0011027 -0.0019004
-0.00047065 0.0028756 0.0024452 0.0010012
-0.0077162 -0.027909 0.0049673 0.38058 -0.023221 -0.0084077 -0.0010019 0.0014298
0.0015785 0.001537 0.00048503 0.0019232
-0.0017804 0.0024699 -0.023298 -0.0083106 0.3183 0.16214 0.0013501 -0.00018042
0.00097735 -1.1856e-05 0.00029429 0.00037831
-0.0010993 -0.0019058 -0.000992 0.001435 0.0013411 -0.00018389 0.10709 0.2577
0.0010728 -0.016451 0.00057197 1.0669e-05
-0.00047108 0.0028533 0.0015878 0.0015333 0.00097494 -1.4669e-05 0.0010384 -0.016452
0.033149 0.22332 0.0029103 -0.013721
0.0024459 0.00098649 0.00049617 0.001926 0.00029871 0.00037485 0.00057425 1.1718e-05
0.0029153 -0.013712 0.043943 0.32118
1340000000 0.22024 0.23268 -0.017338 -0.018697 0.00085935 0.0043232 -0.0018998 -0.0007684
0.0014102 0.0025406 0.0016122 -0.0014872
-0.017307 -0.018684 0.044225 0.37234 -0.021238 0.003971 -0.00010069 0.001966
0.0016942 0.00058944 0.0012697 0.00084712
0.00087755 0.0043256 -0.021246 0.00408 0.34066 0.11415 0.00098719 -0.00082483
0.00059759 -0.00034227 0.00021246 0.00025167
-0.0019041 -0.00075746 -8.7493e-05 0.0019753 0.00099086 -0.00082265 0.14009 0.23776
-0.0068497 -0.013916 0.0014571 -0.00014843
0.0014409 0.0025358 0.0016952 0.00056849 0.00059275 -0.00034571 -0.0068847 -0.013907
0.063441 0.21855 -0.0027265 -0.012299
0.001612 -0.0014877 0.0012778 0.00083569 0.00021138 0.00024809 0.0014519 -0.00015021
-0.0027189 -0.0123 0.082316 0.31544
1400000000 0.25258 0.19433 -0.022907 -0.0074446 0.0050436 0.0029363 -0.0019893 0.00071729
0.0024728 0.00067333 0.00014366 -0.0014171
-0.022874 -0.0074509 0.081232 0.35934 -0.014687 0.012018 0.0013841 0.0012984
0.00094051 -0.000715 0.0011253 0.0002204
0.0050514 0.0029141 -0.01464 0.012109 0.3539 0.060119 6.5002e-05 -0.0014233
9.491e-05 -0.00034245 0.00030018 0.00017507
-0.0019705 0.00072295 0.0013865 0.0012946 6.7568e-05 -0.0014191 0.16995 0.20947
-0.011818 -0.0083833 -0.0005601 -0.0010222
0.0024753 0.00064992 0.00092989 -0.0007251 9.6987e-05 -0.00034897 -0.01185 -0.0083534
0.096773 0.21403 -0.008927 -0.0080051
0.00012621 -0.0014287 0.0011155 0.00022172 0.00030736 0.00017978 -0.00056419 -0.001019
-0.0089196 -0.0080085 0.12674 0.30409
1460000000 0.27512 0.15043 -0.02009 0.0044117 0.0054124 -0.0017326 -0.0015107 0.0017297
0.0018051 -0.00067439 -0.00033217 -0.00089081
-0.020077 0.0044083 0.11554 0.33775 -0.0063351 0.014896 0.0016529 0.00018849
0.00082333 -0.0010983 0.001232 -0.00058675
0.0054113 -0.0017554 -0.0062558 0.01495 0.35989 0.0052508 -0.0010695 -0.0011418
0.00014581 -6.4806e-05 0.00071534 -0.00047543
-0.0015126 0.0017151 0.0016507 0.00018798 -0.0010673 -0.0011392 0.19719 0.18064
-0.012623 -0.0031731 -0.0011856 0.0012799
0.0017913 -0.00067204 0.00081607 -0.0011152 0.000147 -5.433e-05 -0.012638 -0.0031514
0.12708 0.19916 -0.010608 -0.0029488
-0.0003541 -0.00089078 0.0012291 -0.00060086 0.00073177 -0.00047712 -0.0011936 0.001274
-0.010597 -0.0029527 0.15969 0.28238
1520000000 0.28696 0.1087 -0.014625 0.0099436 0.0030487 -0.0040616 7.9782e-05 0.0025471
0.0017604 -0.0016218 -0.0011477 -7.2646e-05
-0.01463 0.0099292 0.14915 0.32283 0.0012477 0.013017 0.0016122 -0.00081305
0.00011982 -0.00089624 0.00032544 -0.00099787
0.0030175 -0.0040757 0.0013148 0.013028 0.35258 -0.051305 -0.00098628 -0.00032361
0.00049681 -0.00075359 4.3427e-05 -3.1256e-05
8.3848e-05 0.0025656 0.0016153 -0.00082181 -0.00097986 -0.00033005 0.22138 0.14235
-0.012431 0.0011566 0.00081128 0.0015666
0.0017508 -0.0016265 0.00010996 -0.00089681 0.00049931 -0.00075828 -0.012445 0.0011845
0.15508 0.18452 -0.010723 0.00089434
-0.0011406 -7.2745e-05 0.00031467 -0.0010019 4.3898e-05 -3.5117e-05 0.00080957 0.0015588
-0.010724 0.00087538 0.19247 0.26116
1580000000 0.29594 0.062458 -0.0082427 0.013021 -0.00090895 -0.004688 0.0014466 0.0019218
-0.0003835 -0.0019348 -0.00031526 0.00041158
-0.0082412 0.013004 0.17654 0.29798 0.0048998 0.0083753 0.00041978 -0.0015791
-0.0003006 -0.0010373 -0.00019545 -0.00085207
-0.00093197 -0.0046846 0.0049401 0.0083557 0.33183 -0.10876 -0.0014899 0.00043459
-0.00021432 -0.0011039 0.00019376 -0.00063163
0.001452 0.001911 0.00041037 -0.0015856 -0.001482 0.00042846 0.23626 0.10238
-0.010179 0.0052996 0.001635 0.00067673
-0.00041221 -0.0019489 -0.00030285 -0.0010345 -0.00021629 -0.0011002 -0.010173 0.0053372
0.1799 0.16603 -0.0087816 0.0062729
-0.00032193 0.00041259 -0.00019439 -0.00085027 0.00019118 -0.00064018 0.0016399 0.00066867
-0.0087921 0.0062635 0.22403 0.23368
1640000000 0.29778 0.020903 -0.0017518 0.012134 -0.0026637 -0.0025635 0.0025939 0.00098971
-0.00076481 -0.0011491 -0.0002783 0.000629
-0.0017549 0.012121 0.20616 0.27256 0.0056661 0.0037154 -0.00067785 -0.0015831
-0.0009343 -0.00053991 -0.00049719 -0.00069214
-0.0026841 -0.0025668 0.0056909 0.0036844 0.30329 -0.15794 -0.00079212 0.0012883
-0.00095451 -0.0008979 -6.676e-05 -0.00025459
0.0025902 0.00097473 -0.00068185 -0.0015791 -0.0007903 0.0012825 0.24911 0.052133
-0.0069824 0.0065252 0.0019908 -0.00058413
-0.00077359 -0.001143 -0.00095503 -0.00052787 -0.00096788 -0.00088396 -0.0069629 0.0065521
0.20319 0.14042 -0.0047115 0.0084589
-0.00027138 0.00063996 -0.00051366 -0.00068981 -6.2892e-05 -0.0002528 0.0019967 -0.0005913
-0.0047009 0.0084603 0.2492 0.2017
1700000000 0.29018 -0.024469 0.0017153 0.009661 -0.0034961 0.00015532 0.0029335 -0.0010874
-0.0017685 -0.00043959 0.00065023 0.00045691
0.0017011 0.0096515 0.22412 0.24071 0.0038027 0.00080606 -0.0013349 -0.00057824
-0.00080845 -4.5244e-05 -0.00093987 -0.00041023
-0.003498 0.00017946 0.0038096 0.00078136 0.25927 -0.1979 0.00034812 0.0016383
-0.0016722 -0.00025795 -0.00048839 -0.0009471
0.0029351 -0.0010982 -0.0013427 -0.00056938 0.00034714 0.0016381 0.2457 0.00087818
-0.0049524 0.0074363 0.0011979 -0.001973
-0.0017717 -0.00044108 -0.00081513 -4.0389e-05 -0.0016717 -0.00026419 -0.0049402 0.0074448
0.22082 0.11904 -0.00035983 0.0088123
0.00064847 0.00044663 -0.00093671 -0.00039894 -0.00050012 -0.00095017 0.0011881 -0.0019788
-0.00035511 0.0088033 0.26474 0.1669
1760000000 0.27745 -0.073098 0.0042057 0.0064849 -0.0021893 0.0008776 0.0013313 -0.0033037
-0.0010227 0.00061266 0.00040079 -0.0005476
0.0042059 0.0064898 0.24995 0.20045 0.0017598 -0.00088169 -0.0010884 0.0002231
-0.0011805 0.00090171 -0.00058013 0.00053267
-0.0021898 0.00088745 0.0017496 -0.0008931 0.21024 -0.23041 0.0011684 0.0013333
-0.0011421 0.0013064 -0.001241 -0.00045841
0.0013011 -0.003322 -0.0010918 0.00022361 0.0011737 0.0013216 0.23545 -0.051777
-0.0023069 0.0071362 -0.00049321 -0.0020553
-0.0010366 0.00061133 -0.0011822 0.00090915 -0.0011294 0.001311 -0.0022967 0.0071552
0.23585 0.082188 0.0033468 0.0064872
0.00039375 -0.0005439 -0.00058517 0.00053886 -0.0012481 -0.00045153 -0.00049396 -0.0020488
0.0033384 0.0064927 0.27681 0.12891
1820000000 0.25229 -0.11026 0.0046002 0.0029204 -6.9996e-06 0.0023844 -0.0009761 -0.0031096
-0.0008282 0.00062284 -2.6199e-05 -0.0001487
0.0045841 0.0029185 0.25943 0.16999 -0.00014879 6.3279e-05 -0.0013654 0.00082443
-0.00016056 0.0013867 -0.00053106 0.00051766
7.4511e-06 0.0023882 -0.00014272 6.1454e-05 0.1602 -0.24585 0.00149 0.00037427
-0.00053127 0.0020993 -0.0015083 0.00053704
-0.0009953 -0.0031 -0.0013603 0.00083222 0.0014896 0.00037508 0.20343 -0.099387
-0.00094276 0.0060766 -0.0017021 -0.0011332
-0.00081366 0.00063356 -0.00015016 0.001392 -0.0005254 0.0021068 -0.00091746 0.0060846
0.25239 0.050901 0.0040798 0.0032502
-2.0878e-05 -0.00016599 -0.00052541 0.00053103 -0.0015053 0.000545 -0.0016995 -0.0011201
0.0040876 0.0032613 0.2781 0.092457
1880000000 0.21656 -0.15018 0.0025843 0.000543 -0.00036368 0.0020118 -0.002818 -0.0022243
-0.00024675 0.001421 0.00030795 -0.00053061
0.0025856 0.00054626 0.26336 0.12337 -0.0020532 0.0016593 -0.00024687 0.0016948
0.00070379 0.0014134 0.00018976 0.00098459
-0.00034678 0.0020209 -0.0020542 0.0016694 0.10824 -0.25509 0.00205 -0.00089851
0.0014487 0.0021176 -0.00089636 0.0014327
-0.0028222 -0.0022095 -0.00023331 0.0017036 0.0020548 -0.00089943 0.16116 -0.13852
-0.00070354 0.0046544 -0.0020643 0.0008196
-0.00024244 0.0014114 0.00071709 0.0013995 0.0014477 0.0021051 -0.00069768 0.0046628
0.25362 0.016173 0.0040935 0.0014504
0.00029908 -0.00052544 0.00019977 0.00099431 -0.00090128 0.0014397 -0.0020627 0.00081198
0.0040989 0.0014389 0.27676 0.05798
1940000000 0.1769 -0.17546 0.00035779 -0.0013653 0.0013025 0.0018019 -0.0036564 0.0005658
0.0010546 0.0011932 -0.00060783 -0.00052778
0.00036452 -0.0013605 0.26344 0.091458 -0.0010212 0.0037366 0.0009173 0.0013719
0.0020464 0.00056738 0.0009106 0.00027819
0.0013108 0.0017857 -0.0010004 0.0037523 0.062126 -0.24886 0.0002952 -0.0023535
0.0024667 0.00058622 0.0005509 0.0017255
-0.0036497 0.0005861 0.00093499 0.0013762 0.00029174 -0.0023511 0.10784 -0.1676
-0.0016529 0.0039386 -0.000979 0.0019196
0.00108 0.0012093 0.0020556 0.00054897 0.0024779 0.00059277 -0.0016557 0.0039529
0.25314 -0.024935 0.0030421 -0.0013777
-0.00059824 -0.00051787 0.00091477 0.00026156 0.00054524 0.0017128 -0.00097888 0.0019408
0.0030438 -0.0013834 0.26496 0.022069
2000000000 0.13029 -0.18945 -0.0036297 0.0005741 0.0023501 0.0015054 -0.0024437 0.0036755
0.00095673 0.00043769 -0.00064961 0.00047683
-0.0036183 0.00056845 0.24864 0.05606 -0.00085774 0.0055539 0.0016084 0.00042173
0.0014725 -0.0015214 0.00054964 0.00012089
0.0023485 0.0015055 -0.00081967 0.0055609 0.018504 -0.23416 -0.0014531 -0.0014381
0.0021579 -0.001199 0.0016357 0.0012091
-0.0024159 0.0037276 0.0016039 0.00041256 -0.0014545 -0.0014414 0.054438 -0.17541
-0.0030131 0.0047398 0.00033868 0.0021277
0.00095939 0.00041685 0.0014557 -0.0015384 0.0021507 -0.0012045 -0.0030079 0.0047587
