!Keysight Technologies,M9804A,MY58100912,A.14.10.03
!Date: Thursday, April 27, 2023 10:28:33
!Correction: S11(C  6-Port  ) 
!S12(C  6-Port  ) 
!S13(C  6-Port  ) 
!S14(C  6-Port  ) 
!S15(C  6-Port  ) 
!S16(C  6-Port  ) 
!S21(C  6-Port  ) 
!S22(C  6-Port  ) 
!S23(C  6-Port  ) 
!S24(C  6-Port  ) 
!S25(C  6-Port  ) 
!S26(C  6-Port  ) 
!S31(C  6-Port  ) 
!S32(C  6-Port  ) 
!S33(C  6-Port  ) 
!S34(C  6-Port  ) 
!S35(C  6-Port  ) 
!S36(C  6-Port  ) 
!S41(C  6-Port  ) 
!S42(C  6-Port  ) 
!S43(C  6-Port  ) 
!S44(C  6-Port  ) 
!S45(C  6-Port  ) 
!S46(C  6-Port  ) 
!S51(C  6-Port  ) 
!S52(C  6-Port  ) 
!S53(C  6-Port  ) 
!S54(C  6-Port  ) 
!S55(C  6-Port  ) 
!S56(C  6-Port  ) 
!S61(C  6-Port  ) 
!S62(C  6-Port  ) 
!S63(C  6-Port  ) 
!S64(C  6-Port  ) 
!S65(C  6-Port  ) 
!S66(C  6-Port  ) 
!S6P File: Measurement: :
# Hz S  RI   R 50
500000000 -0.3381 -0.037219 -0.009668 -0.0030343 -0.0078087 0.011968 -0.0032593 0.011593
0.012162 0.0046651 -0.0034741 0.0081447
-0.0096908 -0.0031097 -0.41857 -0.050712 0.0078167 -0.011536 0.0017291 0.012104
0.0072946 0.0021797 0.0013396 0.013369
-0.0077187 0.011991 0.0077519 -0.011565 -0.26462 0.21017 0.0072739 0.0030891
-0.00021776 0.0082735 0.0010931 0.011907
-0.0032297 0.011726 0.0017253 0.01199 0.007271 0.0030815 -0.32679 0.046223
-0.01984 -0.0044115 0.01811 0.025441
0.012375 0.0046509 0.0073678 0.0020876 -0.00021193 0.00829 -0.019835 -0.0044168
-0.22594 -0.18548 -0.027847 0.004745
-0.0034879 0.0083388 0.0014829 0.01321 0.0010988 0.011892 0.018122 0.025428
-0.027844 0.004742 -0.27151 -0.11665
560000000 -0.31701 0.12369 -0.023932 -0.062776 0.00052158 0.012138 0.0064392 0.010114
0.010709 0.0044197 0.010146 0.0078129
-0.02379 -0.062587 -0.37568 0.10797 -0.042151 -0.037421 0.013807 0.0036054
-0.013596 -0.0045536 0.0044178 -0.00091653
0.00055241 0.012079 -0.04244 -0.037204 -0.18278 0.25806 -0.00063415 -0.00468
0.01916 0.0044073 0.0072565 -0.0059822
0.0063541 0.0099585 0.013742 0.0036425 -0.00063935 -0.0047003 -0.30229 0.13469
0.0045873 -0.024836 0.0046324 -0.019602
0.010697 0.0043289 -0.01376 -0.004631 0.019164 0.0043849 0.0045709 -0.024828
-0.2861 -0.010333 0.0081052 -0.050185
0.010216 0.0076959 0.0044843 -0.00097229 0.0072678 -0.0059867 0.004633 -0.019605
0.0081245 -0.050193 -0.33091 0.029287
620000000 -0.27489 0.10885 -0.0226 0.0073221 0.0037965 0.0081931 0.0067584 -0.0055181
0.011381 -0.00089085 -7.7052e-05 -0.0022917
-0.022596 0.0073884 -0.40239 0.061166 -0.018965 -0.00045629 -0.0011377 -0.0020426
0.010331 -0.0072512 0.0011314 -0.0027409
0.0036901 0.0083696 -0.019002 -0.0004269 -0.15324 0.26662 -0.0015087 -0.0053801
-0.0040233 -0.0031109 0.0081323 -0.0037832
0.0065468 -0.0056631 -0.001143 -0.0020309 -0.0015216 -0.0053977 -0.26161 0.1452
-0.038755 -0.018924 0.014361 0.024434
0.011677 -0.00077711 0.010275 -0.0072777 -0.0040165 -0.0031128 -0.038757 -0.018899
-0.20443 -0.050874 -0.040892 0.013549
-0.00027234 -0.002371 0.0010945 -0.0027523 0.0081375 -0.0038385 0.014398 0.024409
-0.040946 0.013549 -0.24938 -0.006487
680000000 -0.2337 0.19391 -0.027576 -0.014133 0.0047092 0.0050115 0.0010039 -0.0075756
-0.0033448 -0.011117 0.0043886 -0.0067968
-0.027575 -0.014127 -0.38751 0.15803 -0.033172 -0.0015151 -0.0017942 -0.00039993
-0.0028235 -0.0089264 -0.0010949 -0.0019391
0.0047302 0.0050232 -0.033207 -0.0014416 -0.10263 0.28648 -0.00074459 0.00015044
-0.002335 0.00086978 -0.0029169 -0.0094624
0.00097669 -0.0076055 -0.0017867 -0.00041031 -0.0007514 0.00015107 -0.21969 0.19404
-0.023664 -0.008496 -0.0087921 -0.010396
-0.0033932 -0.011109 -0.002871 -0.0089285 -0.0023384 0.00087469 -0.023683 -0.008473
-0.25238 0.047044 -0.0058036 -0.0098426
0.0043426 -0.0068041 -0.0010694 -0.0019297 -0.0029162 -0.00948 -0.0088181 -0.010408
-0.005808 -0.0098352 -0.25924 0.096145
740000000 -0.18977 0.18838 -0.03855 0.026322 0.012526 -0.0051648 -0.00072684 -0.0039797
-0.0048769 -0.0028367 -0.0063664 0.0033664
-0.038624 0.026449 -0.33523 0.17677 -0.035322 0.035319 -0.00055326 -0.0063258
-0.012014 0.0076425 -0.002433 -0.0059881
0.012382 -0.005194 -0.035285 0.035434 -0.06933 0.28565 -0.0014538 0.0034706
-0.0027447 -0.0041751 -0.0013754 0.0003845
-0.00068214 -0.0038787 -0.00056864 -0.0063004 -0.0014647 0.0034836 -0.20294 0.20191
-0.043075 -0.0087766 0.021905 0.013414
-0.0048752 -0.0028364 -0.011954 0.007766 -0.0027505 -0.004168 -0.043091 -0.0087298
-0.15839 0.072755 -0.041624 -0.0005669
-0.0063595 0.0035607 -0.0024683 -0.0059393 -0.0013634 0.00039452 0.021922 0.013392
-0.041614 -0.00060613 -0.24756 0.10204
800000000 -0.15713 0.22808 -0.022718 0.016935 0.0052144 -0.010531 -0.004774 -0.001798
-0.0040527 0.0027325 0.0044001 0.0011433
-0.022692 0.016941 -0.33835 0.24751 -0.0080118 0.034391 -0.0020995 0.0022904
-0.0005879 0.0034151 0.0011786 0.005365
0.00519 -0.010527 -0.0079064 0.034439 -0.028077 0.30898 0.0012042 0.0015079
0.00066838 0.0035793 -0.0018967 0.0011525
-0.0047682 -0.0018085 -0.0020836 0.0023104 0.0012067 0.0015123 -0.17538 0.22971
-0.02871 0.012504 0.012958 -0.0097613
-0.0040593 0.0027367 -0.00057766 0.0033987 0.00066227 0.0035886 -0.028715 0.012569
-0.20212 0.09546 -0.017452 0.017436
0.0044878 0.0010961 0.0012165 0.005384 -0.0018893 0.0011547 0.012951 -0.0097739
-0.017443 0.017414 -0.23936 0.15322
860000000 -0.12262 0.24884 -0.017582 0.031 -0.0033817 -0.0099031 -0.002265 0.0012165
0.0040893 0.0051284 -0.0029762 -0.0026665
-0.017565 0.030941 -0.29034 0.28975 0.0082575 0.034545 0.00025109 0.0020144
0.004415 0.00031689 0.0035063 0.00064578
-0.003394 -0.0099325 0.0083775 0.034558 0.020467 0.31712 -0.00040854 -0.00030018
0.0028487 -0.0014742 0.0016069 0.0043899
-0.0022471 0.001273 0.00025982 0.0020299 -0.00040934 -0.00029614 -0.13976 0.24172
-0.018451 0.018989 -0.0059824 -0.0089096
0.0041571 0.0051339 0.004411 0.00029011 0.002847 -0.0014726 -0.01843 0.019025
-0.15318 0.14433 -0.02459 0.015279
-0.0030361 -0.0027489 0.0034871 0.00065003 0.0016147 0.0043944 -0.0059913 -0.008905
-0.024595 0.015251 -0.19007 0.19548
920000000 -0.097481 0.27189 0.0050719 0.037961 -0.0094959 -0.004302 -0.0017431 0.0021913
0.0014677 0.0015367 0.0024374 -0.0015733
0.0050374 0.037915 -0.26147 0.31082 0.028249 0.021886 0.0016508 0.0011134
0.0068421 -0.00076493 0.0039538 -0.0029302
-0.0095053 -0.004264 0.028352 0.02182 0.067039 0.3175 0.00175 -0.00015421
0.0012896 -0.00040734 0.00091031 -0.00098565
-0.0017599 0.0022289 0.001652 0.0011175 0.0017401 -0.0001604 -0.1155 0.25863
-0.01059 0.03047 0.0027095 -0.0065817
0.0014484 0.0015233 0.0068401 -0.00078736 0.0012949 -0.00040724 -0.010542 0.030507
-0.14223 0.15037 -0.0025168 0.027604
0.0025004 -0.0016428 0.0039424 -0.0029204 0.00091407 -0.00098191 0.0027015 -0.0065803
-0.0025315 0.027588 -0.19497 0.20978
980000000 -0.049968 0.29129 0.017836 0.030206 -0.0089039 0.0047723 0.0024299 0.0036392
0.0040246 -0.0019051 -0.0030158 -0.0019947
0.01781 0.030187 -0.2082 0.34476 0.033276 0.0046101 0.0019923 -7.2837e-05
0.0012107 -0.0062864 -0.00057991 -0.0022365
-0.008908 0.0047986 0.03333 0.0045218 0.11354 0.31073 0.00044202 -0.0011824
9.0105e-05 -0.0021865 0.0015815 -8.4036e-05
0.0024376 0.003608 0.0019718 -6.1352e-05 0.00043208 -0.0011754 -0.077126 0.2707
0.007447 0.02929 -0.0091647 -0.0066391
0.0039926 -0.0019411 0.0011424 -0.0063124 8.9614e-05 -0.0021836 0.0075046 0.029284
-0.11083 0.17827 0.0046958 0.019228
-0.0030313 -0.0019621 -0.00062024 -0.0022368 0.0015807 -8.8827e-05 -0.0091673 -0.0066285
0.004686 0.019224 -0.15251 0.25505
1040000000 -0.0075487 0.29949 0.033433 0.018018 -0.0010786 0.0070326 0.0027528 0.00063578
-0.00016731 -0.0037706 -0.00064646 -0.0015212
0.033395 0.018007 -0.1726 0.35777 0.029326 -0.015132 0.0014631 -0.0017498
-0.0026369 -0.0023541 -0.0015064 -0.0027471
-0.0010474 0.0070026 0.029326 -0.01524 0.15975 0.29673 -0.00052515 -0.0014611
-0.0015941 -0.0008285 -0.00034703 -0.0012245
0.0027674 0.0005925 0.0014901 -0.0017571 -0.00052743 -0.0014569 -0.049206 0.28078
0.018855 0.017631 -0.0030364 0.0020923
-0.000141 -0.0038015 -0.0026576 -0.0023477 -0.0015852 -0.00083905 0.018906 0.0176
-0.079732 0.18725 0.013482 0.018309
-0.00065902 -0.001517 -0.0015413 -0.0027389 -0.00032998 -0.001226 -0.0030293 0.0020934
0.013463 0.018299 -0.13061 0.27432
1100000000 0.038025 0.30675 0.036033 -0.0044539 0.0030705 0.003813 0.0024696 -0.0014581
-0.0022097 -0.0029754 -0.0039531 0.00015725
0.036012 -0.0044219 -0.12886 0.37482 0.014933 -0.028001 -5.5664e-05 -0.0018305
-0.0031957 -0.00042813 -0.0033813 -0.00054793
0.0030792 0.0037971 0.014843 -0.028069 0.20618 0.27609 -0.0017878 0.00026624
-0.0017584 0.00069339 -0.0009792 -0.00047277
0.0024871 -0.0014714 -4.8596e-05 -0.0018298 -0.0017871 0.00026819 -0.0082116 0.28591
0.023328 0.0048648 -0.0022817 0.0010384
-0.0022247 -0.0029616 -0.0032064 -0.00040034 -0.0017547 0.00069897 0.023355 0.0048376
-0.061073 0.2007 0.018756 0.0087311
-0.0039594 0.00017307 -0.0033989 -0.00053278 -0.00097588 -0.00046362 -0.0022819 0.0010378
0.018748 0.0087252 -0.083584 0.30266
1160000000 0.08949 0.30155 0.023972 -0.020926 0.0028657 -0.00055911 -0.00031127 -0.002488
-0.0040263 -0.00045678 -0.00088992 0.0037826
0.023971 -0.020921 -0.084866 0.37892 -0.0040454 -0.029132 -0.0017982 -0.0015962
-0.0024212 0.0026883 -0.0011563 0.001581
0.0028454 -0.00058037 -0.0041635 -0.029122 0.24921 0.2449 -0.00056636 0.0017565
-0.00037214 0.0018496 -0.0011384 4.612e-05
-0.00031055 -0.0024902 -0.0017983 -0.0015911 -0.00056303 0.0017533 0.031631 0.28271
0.019761 -0.010117 -0.0025855 0.0056293
-0.0040379 -0.00043919 -0.0024305 0.0026963 -0.00036961 0.0018582 0.019763 -0.010142
-0.027758 0.21034 0.017536 0.00064254
-0.00087062 0.0037978 -0.0011583 0.0016036 -0.0011358 3.5295e-05 -0.0025689 0.005637
0.017528 0.00063657 -0.036508 0.30549
1220000000 0.13394 0.28993 0.010289 -0.030173 -0.0015164 -0.00098867 -0.00016663 -0.00099652
-0.0025592 0.0025806 0.0013381 0.0018557
0.0103 -0.030156 -0.040326 0.39046 -0.017089 -0.020961 -0.0025011 0.00048895
0.00023841 0.0027742 -0.00073452 0.0018037
-0.0015222 -0.00098131 -0.017195 -0.02091 0.28822 0.20545 0.00092712 0.0015265
0.00059245 0.0011439 0.00012416 0.00076187
-0.00017673 -0.001001 -0.002492 0.00050304 0.00091716 0.0015287 0.071528 0.27391
0.0093614 -0.016007 0.0028021 0.0016634
-0.002548 0.0025908 0.00025655 0.0027823 0.00058656 0.0011417 0.009331 -0.016013
-0.004063 0.21992 0.013692 -0.012215
0.0013641 0.001848 -0.00073324 0.0018012 0.00012983 0.00076513 0.0028004 0.0016668
0.013687 -0.012202 -0.0046014 0.32104
1280000000 0.18356 0.26733 -0.0080232 -0.0285 -0.0018446 0.0023675 -0.001039 -0.0018713
-0.00057479 0.0030474 0.0025068 0.00089377
-0.0079955 -0.028485 0.005776 0.38099 -0.023683 -0.0082151 -0.00093392 0.0014831
0.0016199 0.0015473 0.00056434 0.0019727
-0.0018192 0.0024012 -0.023734 -0.008114 0.31847 0.16139 0.0013479 -0.00022792
0.00099703 0.00010951 0.00024102 0.0004638
-0.0010501 -0.0018692 -0.00092767 0.0014873 0.0013485 -0.00022025 0.108 0.25732
0.00030876 -0.017592 0.00054635 1.2925e-05
-0.0005689 0.0030667 0.0016332 0.0015359 0.00099981 0.00011007 0.00027391 -0.017598
0.033373 0.2237 0.002986 -0.01435
0.0025152 0.00088579 0.00057843 0.0019688 0.00023764 0.00046659 0.00054646 1.2161e-05
0.0029953 -0.014343 0.042978 0.32153
1340000000 0.22035 0.23298 -0.01779 -0.018965 0.00077636 0.0043064 -0.0017663 -0.00072632
0.0014879 0.0026345 0.0016733 -0.0015598
-0.017768 -0.018954 0.045093 0.3721 -0.021408 0.0044083 -2.354e-05 0.0019364
0.0016785 0.00063764 0.0013367 0.00089555
0.00077787 0.0043079 -0.021401 0.0045192 0.34032 0.11334 0.00091708 -0.00083194
0.00066427 -0.00036855 0.00023751 0.00033938
-0.001768 -0.00072563 -9.6081e-06 0.0019293 0.0009193 -0.0008259 0.14058 0.23689
-0.0080456 -0.014541 0.0013132 -5.0851e-05
0.0015197 0.0026387 0.0016879 0.00062609 0.00067037 -0.00036766 -0.0080846 -0.014529
0.064245 0.21889 -0.0031662 -0.013056
0.0016833 -0.0015642 0.0013515 0.00089705 0.00023827 0.00033814 0.0013048 -5.4179e-05
-0.0031665 -0.013056 0.081587 0.31619
1400000000 0.2528 0.19432 -0.023507 -0.0074569 0.0049444 0.0030121 -0.0018992 0.00062035
0.0025735 0.00071929 0.00010417 -0.0013778
-0.023482 -0.0074581 0.081987 0.35851 -0.01456 0.012351 0.0013384 0.0012335
0.00097808 -0.00075618 0.0012281 0.00014853
0.0049583 0.0029977 -0.014511 0.012433 0.35313 0.059736 8.8232e-05 -0.0013726
8.1201e-05 -0.00035433 0.00043629 0.00015061
-0.0019071 0.000643 0.001344 0.0012275 9.3117e-05 -0.0013775 0.17004 0.20837
-0.013119 -0.0081313 -0.00057853 -0.00085534
0.0025878 0.00068264 0.00096822 -0.00076325 8.9789e-05 -0.00035045 -0.013134 -0.008099
0.097461 0.21371 -0.0095572 -0.0084076
0.00011266 -0.0013863 0.0012233 0.00014906 0.0004359 0.00014476 -0.00057926 -0.00085564
-0.0095596 -0.008417 0.12594 0.30459
1460000000 0.2749 0.14992 -0.020488 0.0047733 0.0053835 -0.0017116 -0.0015032 0.0016548
0.0019878 -0.0007432 -0.00040304 -0.00079579
-0.020467 0.0047435 0.11564 0.33637 -0.0060187 0.01509 0.0016613 0.00017971
0.00083357 -0.0010564 0.0011999 -0.00071604
0.0053759 -0.0017378 -0.0059655 0.015131 0.35891 0.0052361 -0.001054 -0.0011791
0.00024044 -0.00018983 0.00079353 -0.000379
-0.0015025 0.0016642 0.001666 0.00016554 -0.0010468 -0.0011867 0.19662 0.17937
-0.013533 -0.0022925 -0.0011972 0.0014105
0.0019701 -0.00076752 0.00081421 -0.0010603 0.00024186 -0.00019113 -0.013554 -0.0022501
0.12733 0.19851 -0.011333 -0.0029931
-0.00040942 -0.00079426 0.0011998 -0.00069571 0.00079654 -0.00038134 -0.0012007 0.0014115
-0.011336 -0.0029952 0.15913 0.28274
1520000000 0.28631 0.1084 -0.014795 0.010459 0.0030529 -0.0040446 6.6346e-05 0.0025208
0.0017462 -0.0017399 -0.0011318 -4.0532e-05
-0.014795 0.010445 0.14868 0.32155 0.0014553 0.012921 0.0015844 -0.00078923
0.00011239 -0.00087802 0.00026118 -0.0010612
0.0030461 -0.0040658 0.0015274 0.012916 0.35188 -0.050819 -0.00093133 -0.00037852
0.0004969 -0.00084068 -4.1334e-05 -0.00011607
7.6906e-05 0.0025212 0.0015763 -0.00080224 -0.00092938 -0.0003767 0.22017 0.14143
-0.012675 0.0025159 0.00094601 0.0017138
0.0017262 -0.001762 0.00010383 -0.0008872 0.00049793 -0.00084379 -0.012683 0.0025489
0.15526 0.18364 -0.011264 0.0013849
-0.0011271 -4.0976e-05 0.00025084 -0.0010707 -4.3552e-05 -0.00011592 0.00095383 0.0017031
-0.011259 0.0013734 0.19181 0.26158
1580000000 0.29486 0.062441 -0.0080812 0.013532 -0.00095604 -0.0046522 0.0012929 0.0018005
-0.00054735 -0.0021137 -0.00031605 0.0004252
-0.0080825 0.013523 0.17544 0.29685 0.0050071 0.0081766 0.0004632 -0.0015673
-0.0003902 -0.0010421 -0.0003565 -0.0008393
-0.00097423 -0.004654 0.0050541 0.0081689 0.33126 -0.1082 -0.0014801 0.00041807
-0.00033 -0.0010708 0.00012863 -0.00060492
0.001305 0.0017954 0.00045275 -0.0015764 -0.0014802 0.00040992 0.23464 0.10193
-0.0095826 0.0064054 0.001727 0.000694
-0.0005686 -0.0021137 -0.00040047 -0.0010308 -0.00033244 -0.0010723 -0.0095733 0.0064219
0.17963 0.16498 -0.0089906 0.0068284
-0.00031818 0.00043762 -0.00036478 -0.0008478 0.00012194 -0.00060949 0.0017233 0.0006902
-0.0089921 0.0068274 0.22335 0.23407
1640000000 0.29655 0.02161 -0.0013206 0.012392 -0.0026668 -0.0025081 0.0025306 0.0010456
-0.00089248 -0.0011479 -0.00024731 0.00064157
-0.0013329 0.012378 0.20457 0.27201 0.0056703 0.0035131 -0.00072754 -0.0016576
-0.00094676 -0.00047911 -0.00057862 -0.00057235
-0.0026766 -0.0024889 0.0056885 0.0034882 0.30306 -0.15707 -0.00081314 0.0012864
-0.0010667 -0.00086966 -0.00011134 -0.0003202
0.0025409 0.0010392 -0.00073477 -0.0016569 -0.00081573 0.0012906 0.24723 0.052586
-0.0059581 0.0070259 0.0020898 -0.00057676
-0.00090609 -0.0011461 -0.00095223 -0.0004697 -0.0010734 -0.00086968 -0.0059486 0.0070457
0.20244 0.13974 -0.0045197 0.008914
-0.00023323 0.00064761 -0.00058273 -0.00057147 -0.00011539 -0.00031745 0.0020973 -0.00058562
-0.0045167 0.0089146 0.24855 0.20234
1700000000 0.28936 -0.023221 0.0021405 0.0095857 -0.0033887 0.00016392 0.0029244 -0.0010483
-0.0019349 -0.0003568 0.00064425 0.00038851
0.0021307 0.009577 0.22243 0.2407 0.0037441 0.00073342 -0.0014082 -0.00053521
-0.00081254 -2.6143e-05 -0.00091918 -0.00031266
-0.0033901 0.0001899 0.0037511 0.0007221 0.25941 -0.19683 0.00031757 0.0016448
-0.0017334 -0.00019216 -0.00054224 -0.00089598
0.0029183 -0.001061 -0.0014088 -0.00053042 0.00032182 0.0016476 0.24403 0.0021514
-0.0040609 0.0072705 0.0012619 -0.0019348
-0.0019411 -0.00034086 -0.00081276 -1.4521e-05 -0.0017319 -0.00018996 -0.0040497 0.0072764
0.21985 0.11837 -7.7848e-05 0.0091662
0.00065026 0.00039194 -0.00091808 -0.00030417 -0.0005407 -0.00090073 0.0012512 -0.0019483
-7.0406e-05 0.0091646 0.26426 0.16767
1760000000 0.27713 -0.07153 0.004446 0.00625 -0.0021833 0.00095758 0.0013556 -0.0032445
-0.0010599 0.0007392 0.00039011 -0.00055222
0.004442 0.0062453 0.24822 0.20105 0.0016317 -0.00098842 -0.0011255 0.00024607
-0.0011481 0.000885 -0.00050666 0.00057641
-0.002186 0.00094195 0.0016387 -0.0010019 0.21064 -0.22983 0.0011184 0.0012828
-0.0011065 0.0013749 -0.0012876 -0.00037362
0.0013444 -0.0032547 -0.0011342 0.00024924 0.0011188 0.001287 0.23437 -0.04978
-0.0017472 0.0065941 -0.00032855 -0.0021436
-0.001054 0.00073647 -0.0011493 0.00088978 -0.0010981 0.0013738 -0.0017289 0.0065896
0.23445 0.081822 0.0037861 0.0066745
0.00038825 -0.00055762 -0.00050202 0.00057932 -0.0012942 -0.00037006 -0.00033731 -0.0021345
0.0037811 0.0066644 0.27626 0.12942
1820000000 0.25268 -0.10869 0.0046255 0.0026859 0.00010493 0.0023844 -0.00083099 -0.0030944
-0.00067819 0.00070782 -2.6064e-05 -0.00017949
0.0046176 0.0026844 0.25807 0.17118 -0.00026535 8.1727e-05 -0.0012904 0.00090916
-0.00012474 0.0013685 -0.00038987 0.00052422
0.0001034 0.0023909 -0.00026766 8.1384e-05 0.16074 -0.24554 0.0016446 0.00037181
-0.00030896 0.0020661 -0.0014543 0.00055445
-0.00085253 -0.0030979 -0.001283 0.00090969 0.0016362 0.00037117 0.20372 -0.097071
-0.00092089 0.0053952 -0.0015129 -0.0013493
-0.00067542 0.00071633 -0.00011503 0.0013667 -0.00030691 0.0020536 -0.00090724 0.0054014
0.2507 0.051018 0.0045942 0.0032459
-2.8051e-05 -0.00018184 -0.00038665 0.00052769 -0.0014436 0.00054845 -0.0015193 -0.0013392
0.0046004 0.0032446 0.27777 0.093135
1880000000 0.21765 -0.1489 0.0024991 0.00043367 -0.00032659 0.0019582 -0.0027696 -0.0023332
-5.1722e-05 0.0013865 0.00032322 -0.00047615
0.0024998 0.00042771 0.26255 0.12493 -0.0020993 0.001735 -9.1989e-05 0.0016806
0.00068996 0.0013785 0.00025319 0.00086556
-0.00032059 0.0019629 -0.0020858 0.0017422 0.10879 -0.25515 0.0020433 -0.0010731
0.001513 0.0019636 -0.00079303 0.0013728
-0.0027847 -0.0023212 -8.7556e-05 0.0016736 0.0020443 -0.0010645 0.16244 -0.13675
-0.00077793 0.0043075 -0.002326 0.00063437
-3.9647e-05 0.0013845 0.00070061 0.0013799 0.0015227 0.00196 -0.00077597 0.0043052
0.25208 0.016736 0.0042925 0.0011996
0.00031647 -0.00045949 0.00026294 0.00086314 -0.00079771 0.0013727 -0.0023217 0.00063473
0.0042902 0.0012046 0.2767 0.058764
1940000000 0.17821 -0.17488 0.00029541 -0.0013043 0.0012743 0.0017831 -0.0037691 0.00045204
0.0011324 0.00088414 -0.00060849 -0.00059525
0.00029563 -0.0013099 0.26311 0.093204 -0.0010123 0.0038593 0.0010182 0.0013313
0.0019824 0.00059874 0.00080492 0.00015904
0.0012935 0.0017929 -0.00098154 0.0038756 0.06255 -0.24876 0.00035702 -0.0023282
0.0023356 0.00057956 0.00034641 0.001593
-0.0037645 0.00046907 0.0010271 0.0013145 0.00035708 -0.0023301 0.10965 -0.16655
-0.0018359 0.0037934 -0.0012446 0.001812
0.0011311 0.00087321 0.0019945 0.0005697 0.0023455 0.00057833 -0.0018313 0.0037998
0.25158 -0.023708 0.0030446 -0.0017955
-0.00061196 -0.00058785 0.00081119 0.00014674 0.00034636 0.0015872 -0.0012464 0.0018133
0.0030446 -0.0017939 0.2647 0.022693
2000000000 0.13167 -0.18967 -0.0034638 0.00052958 0.0024083 0.0015118 -0.0023958 0.003631
0.00084272 0.00021058 -0.00061253 0.0003344
-0.0034606 0.0005167 0.24907 0.05773 -0.00084408 0.0055854 0.0016465 0.00028386
0.001549 -0.0014798 0.00040047 0.0001593
0.0023954 0.0014973 -0.0007986 0.0055853 0.01884 -0.23438 -0.0015601 -0.0014537
0.0020343 -0.0012235 0.0015029 0.0013412
-0.0023886 0.003638 0.0016476 0.00027217 -0.0015513 -0.0014501 0.056495 -0.17542
-0.0030438 0.0046454 0.00027615 0.0022623
0.00084731 0.00018397 0.001533 -0.0014902 0.0020271 -0.0012272 -0.0030333 0.0046592
