!Keysight Technologies,M9804A,MY58100912,A.14.10.03
!Date: Thursday, April 27, 2023 10:28:33
!Correction: S11(C  6-Port  ) 
!S12(C  6-Port  ) 
!S13(C  6-Port  ) 
!S14(C  6-Port  ) 
!S15(C  6-Port  ) 
!S16(C  6-Port  ) 
!S21(C  6-Port  ) 
!S22(C  6-Port  ) 
!S23(C  6-Port  ) 
!S24(C  6-Port  ) 
!S25(C  6-Port  ) 
!S26(C  6-Port  ) 
!S31(C  6-Port  ) 
!S32(C  6-Port  ) 
!S33(C  6-Port  ) 
!S34(C  6-Port  ) 
!S35(C  6-Port  ) 
!S36(C  6-Port  ) 
!S41(C  6-Port  ) 
!S42(C  6-Port  ) 
!S43(C  6-Port  ) 
!S44(C  6-Port  ) 
!S45(C  6-Port  ) 
!S46(C  6-Port  ) 
!S51(C  6-Port  ) 
!S52(C  6-Port  ) 
!S53(C  6-Port  ) 
!S54(C  6-Port  ) 
!S55(C  6-Port  ) 
!S56(C  6-Port  ) 
!S61(C  6-Port  ) 
!S62(C  6-Port  ) 
!S63(C  6-Port  ) 
!S64(C  6-Port  ) 
!S65(C  6-Port  ) 
!S66(C  6-Port  ) 
!S6P File: Measurement: :
# Hz S  RI   R 50
500000000 -0.3373 -0.036296 -0.010424 -0.0035624 -0.0081783 0.01241 -0.0031001 0.011085
0.012233 0.004501 -0.0034111 0.0069505
-0.010399 -0.003567 -0.41862 -0.049959 0.0077647 -0.01143 0.002085 0.011711
0.0074945 0.0020459 0.0016349 0.013044
-0.0081802 0.012402 0.0077595 -0.011457 -0.26499 0.21039 0.0072817 0.0032876
-0.00030076 0.0085238 0.0012973 0.012333
-0.0029996 0.01107 0.0021112 0.011717 0.0072804 0.0032962 -0.32603 0.046539
-0.01968 -0.0046347 0.018535 0.024773
0.012269 0.0044698 0.0075104 0.0020379 -0.00028594 0.0085198 -0.019719 -0.0046132
-0.22657 -0.18496 -0.027309 0.0044871
-0.0033898 0.006929 0.0016454 0.013064 0.0013144 0.012338 0.018526 0.024767
-0.027311 0.004485 -0.27167 -0.11555
560000000 -0.31654 0.12368 -0.023376 -0.062333 -0.00065275 0.012636 0.0071342 0.010319
0.010801 0.003691 0.011133 0.0068308
-0.023354 -0.062232 -0.37451 0.1085 -0.042382 -0.036732 0.013689 0.0038549
-0.013136 -0.0033043 0.0048852 -0.0010454
-0.00062358 0.012582 -0.042521 -0.036658 -0.18296 0.25809 -0.00025118 -0.0048402
0.018613 0.0036456 0.006325 -0.0065971
0.0070891 0.010297 0.013697 0.0038183 -0.00022543 -0.0048436 -0.3024 0.13565
0.0038008 -0.02555 0.0047997 -0.019085
0.010803 0.0037153 -0.013162 -0.003269 0.018615 0.0036198 0.0037857 -0.025524
-0.28659 -0.010697 0.0082592 -0.049434
0.011128 0.0068332 0.0048631 -0.0010553 0.0063122 -0.0065771 0.0047959 -0.019084
0.0082752 -0.04945 -0.3294 0.032361
620000000 -0.27393 0.10812 -0.023199 0.0073651 0.0034831 0.0083253 0.0068054 -0.0057604
0.010884 -0.00012958 0.00012772 -0.0021727
-0.023201 0.0073462 -0.40212 0.061871 -0.018642 -0.00034667 -0.0015665 -0.0021186
0.010603 -0.0074266 0.00096786 -0.0031616
0.0035213 0.0082924 -0.018672 -0.00029129 -0.15302 0.26694 -0.0015013 -0.0054943
-0.0043949 -0.0037082 0.0084284 -0.00376
0.0068817 -0.0058116 -0.0015783 -0.0021309 -0.0014886 -0.0054864 -0.26172 0.14552
-0.038978 -0.019445 0.013698 0.024485
0.010904 -0.00019303 0.010603 -0.0074755 -0.0044001 -0.0037065 -0.039004 -0.019442
-0.20435 -0.04894 -0.040802 0.012887
0.00013787 -0.00219 0.00096269 -0.003162 0.0084355 -0.0037419 0.013708 0.024536
-0.040816 0.012876 -0.25031 -0.0039607
680000000 -0.23295 0.19335 -0.027811 -0.013694 0.0050363 0.0053103 0.00094497 -0.007399
-0.0034552 -0.011141 0.0048025 -0.0060695
-0.027781 -0.013706 -0.38701 0.15875 -0.032898 -0.0013624 -0.0018571 -5.1218e-05
-0.0026762 -0.0087501 -0.0009238 -0.0019148
0.005052 0.0053093 -0.03294 -0.0012733 -0.10209 0.287 -0.0010494 3.6498e-05
-0.0025252 0.0011228 -0.0030116 -0.009217
0.00086929 -0.0073945 -0.0018688 -1.7595e-05 -0.0010337 1.2998e-05 -0.21997 0.19481
-0.023255 -0.0080686 -0.0084821 -0.0099861
-0.0034972 -0.01112 -0.0027002 -0.008748 -0.0025178 0.0011225 -0.023242 -0.0080359
-0.25208 0.047944 -0.0062597 -0.0097532
0.0047654 -0.006046 -0.00093046 -0.0019166 -0.003039 -0.0092272 -0.0084845 -0.010002
-0.0062528 -0.0097542 -0.25728 0.098376
740000000 -0.19031 0.18822 -0.038718 0.026152 0.012842 -0.0049809 -0.00088659 -0.004284
-0.0050147 -0.0026807 -0.0066454 0.0030036
-0.038694 0.026092 -0.33493 0.17769 -0.035277 0.035223 -0.00078843 -0.005906
-0.012264 0.0078132 -0.0027542 -0.0056766
0.012839 -0.0050215 -0.035229 0.035355 -0.068851 0.28576 -0.0015327 0.0034291
-0.0023837 -0.004353 -0.0016742 0.00032285
-0.00083755 -0.0043166 -0.00081516 -0.0059051 -0.0015417 0.0034333 -0.20291 0.2023
-0.043059 -0.0077887 0.021748 0.013384
-0.0050332 -0.0026854 -0.012246 0.0078791 -0.0023765 -0.0043605 -0.043066 -0.0077377
-0.15538 0.072173 -0.041582 4.4987e-06
-0.0066205 0.0030068 -0.0027809 -0.0056801 -0.0016938 0.00034642 0.021764 0.013379
-0.041577 -1.7822e-05 -0.24715 0.10387
800000000 -0.15799 0.22767 -0.022684 0.01712 0.0051636 -0.010459 -0.005098 -0.001774
-0.0040466 0.0029008 0.0037826 0.0010583
-0.022669 0.017085 -0.33796 0.24774 -0.0080555 0.034346 -0.0022509 0.0023177
-0.00070114 0.0034776 0.00087927 0.0054162
0.0051476 -0.010457 -0.0079552 0.034402 -0.027786 0.30908 0.0010951 0.0014165
0.00061149 0.0035956 -0.0020628 0.0012095
-0.0051362 -0.0017688 -0.0022476 0.0023177 0.0010918 0.0014067 -0.17499 0.22956
-0.028468 0.012717 0.012607 -0.010325
-0.0040433 0.0029358 -0.00068956 0.0034773 0.00061078 0.003602 -0.028483 0.012752
-0.20103 0.095473 -0.017596 0.017635
0.0037608 0.0010803 0.00091729 0.0054322 -0.0020635 0.00119 0.012589 -0.010349
-0.017608 0.017628 -0.23927 0.15452
860000000 -0.12324 0.24922 -0.017249 0.031221 -0.0034803 -0.0098665 -0.0023289 0.0012742
0.004369 0.004849 -0.0033718 -0.003017
-0.017263 0.031183 -0.29009 0.28999 0.0082946 0.034564 0.00028702 0.0024136
0.0045421 -1.2914e-05 0.0033652 0.00020629
-0.0035113 -0.0098564 0.0084232 0.03458 0.020492 0.31734 -0.00051587 -0.00024881
0.0027888 -0.0014872 0.0016681 0.0042581
-0.0022859 0.0013045 0.00027857 0.00241 -0.00050947 -0.00025094 -0.13957 0.24187
-0.018726 0.01901 -0.0063385 -0.0092171
0.0044282 0.0048328 0.0045384 -3.0168e-05 0.0027981 -0.0014932 -0.018715 0.019082
-0.15166 0.14461 -0.02395 0.015846
-0.0033889 -0.0030252 0.0033779 0.00019025 0.0016695 0.0042741 -0.0063805 -0.0092084
-0.023945 0.015827 -0.18913 0.19633
920000000 -0.097866 0.27208 0.0054402 0.038012 -0.0095876 -0.0044034 -0.0016751 0.0024017
0.0015966 0.0018097 0.0024611 -0.001604
0.0054263 0.037978 -0.26098 0.31103 0.028341 0.021885 0.0016481 0.0011015
0.0068951 -0.0007405 0.0040078 -0.0030642
-0.0096089 -0.0043864 0.028461 0.021805 0.067108 0.31775 0.0017576 -0.00014721
0.0011779 -0.00044575 0.00094356 -0.0010961
-0.0016817 0.0024011 0.0016405 0.0011092 0.0017638 -0.00014204 -0.1153 0.25906
-0.01032 0.030635 0.0028044 -0.0065845
0.0015962 0.0018048 0.0068841 -0.00077639 0.0011823 -0.00045001 -0.010286 0.03068
-0.14115 0.15018 -0.0022991 0.027221
0.002435 -0.0016308 0.004019 -0.0030812 0.00094213 -0.0011056 0.0028062 -0.0065685
-0.0023241 0.027214 -0.19342 0.21144
980000000 -0.050166 0.29199 0.017989 0.030046 -0.0088399 0.0046831 0.0024369 0.0036514
0.0040576 -0.002128 -0.0030645 -0.002012
0.017961 0.030049 -0.20809 0.34466 0.033349 0.0045345 0.0019418 -0.00013186
0.00099923 -0.0063457 -0.00076586 -0.0020964
-0.0088425 0.0047282 0.033419 0.0044228 0.11363 0.31098 0.00047736 -0.0012386
2.1494e-05 -0.0022568 0.0013811 -6.8382e-05
0.0024582 0.0036473 0.0019165 -0.00013303 0.00047938 -0.0012367 -0.076504 0.27037
0.007882 0.029174 -0.0093139 -0.0070701
0.0040645 -0.0021409 0.00095969 -0.0063587 2.0183e-05 -0.002258 0.0079234 0.029185
-0.11008 0.17811 0.0048624 0.018633
-0.0030784 -0.0020109 -0.00076553 -0.0020811 0.0013746 -6.7357e-05 -0.0093174 -0.0070628
0.004862 0.01863 -0.15118 0.25612
1040000000 -0.0077794 0.30014 0.03354 0.017727 -0.0011209 0.0069809 0.0026686 0.00064813
-0.00020233 -0.0036558 -0.00048918 -0.0016336
0.033525 0.017743 -0.17243 0.35789 0.029371 -0.015208 0.0013955 -0.0019186
-0.0027048 -0.0025534 -0.0015902 -0.0027054
-0.0011136 0.0069863 0.029359 -0.015354 0.16011 0.2971 -0.00058077 -0.001474
-0.0016566 -0.00084698 -0.00050281 -0.0012247
0.0026748 0.00059958 0.0013852 -0.0019117 -0.0005765 -0.0014822 -0.049029 0.2808
0.018862 0.017531 -0.0033649 0.0019308
-0.00023168 -0.0036567 -0.0027545 -0.0025438 -0.0016489 -0.00085526 0.018918 0.017512
-0.079902 0.18649 0.013474 0.018307
-0.00051382 -0.0016338 -0.0015816 -0.0026942 -0.00050758 -0.0012185 -0.003367 0.0019629
0.013445 0.018303 -0.12913 0.27574
1100000000 0.03856 0.30724 0.036052 -0.004749 0.0030056 0.003771 0.0026102 -0.0014451
-0.0022776 -0.0030884 -0.0038472 6.2372e-05
0.036031 -0.0047186 -0.1288 0.37496 0.014849 -0.028137 -1.5208e-05 -0.0017925
-0.0032951 -0.00029985 -0.0034225 -0.00042145
0.0030145 0.0037701 0.014765 -0.028233 0.2067 0.27626 -0.0018151 0.00026991
-0.0018195 0.00067171 -0.00096809 -0.00043107
0.0026213 -0.0014462 -2.3065e-05 -0.0017936 -0.0018112 0.00027149 -0.0079712 0.28604
0.0233 0.0047559 -0.002406 0.0011234
-0.0022776 -0.0030654 -0.0033134 -0.00028891 -0.0018284 0.00067307 0.02331 0.0047222
-0.061772 0.19998 0.018763 0.0090205
-0.0038371 7.703e-05 -0.0034221 -0.00039189 -0.00097263 -0.0004283 -0.0023872 0.0011106
0.018771 0.0090293 -0.081595 0.30308
1160000000 0.08956 0.30203 0.023723 -0.021197 0.0027571 -0.00055124 -0.00024358 -0.0025486
-0.0040342 -0.00038479 -0.00086207 0.003589
0.023734 -0.021149 -0.084783 0.37921 -0.0042176 -0.029218 -0.0017501 -0.001577
-0.0023416 0.002782 -0.0012252 0.0016116
0.002738 -0.00056817 -0.004339 -0.029238 0.24978 0.24493 -0.00061952 0.0017027
-0.0003206 0.0019646 -0.0011629 0.00011158
-0.00024592 -0.0025513 -0.0017784 -0.001558 -0.00061806 0.0017144 0.031885 0.28296
0.019723 -0.010521 -0.0026982 0.0055865
-0.0040585 -0.00036344 -0.0023435 0.0028044 -0.00030167 0.0019558 0.0197 -0.010543
-0.028575 0.21009 0.017561 0.0003484
-0.00084995 0.0035779 -0.0012019 0.001637 -0.0011664 0.00012402 -0.002695 0.0056229
0.017534 0.00034926 -0.034997 0.30647
1220000000 0.1343 0.29033 0.010029 -0.030314 -0.0015838 -0.00096515 -0.0002048 -0.0010954
-0.0026275 0.0024996 0.0012257 0.0018743
0.010047 -0.030267 -0.040122 0.39081 -0.017327 -0.020974 -0.0025196 0.00051838
0.00032047 0.0029007 -0.00070541 0.0018106
-0.0015896 -0.00096338 -0.017438 -0.020915 0.28875 0.20516 0.00087952 0.0016447
0.00062223 0.001171 0.00022121 0.0007473
-0.00020322 -0.0010831 -0.002526 0.00052811 0.00088382 0.0016485 0.071984 0.27405
0.0091905 -0.01621 0.0028305 0.0017783
-0.0026119 0.0025256 0.00034165 0.0029022 0.00062467 0.001174 0.0091676 -0.016231
-0.0047192 0.21994 0.01348 -0.012313
0.001247 0.0018627 -0.00068698 0.0018226 0.00022833 0.00073777 0.0028231 0.0017741
0.013476 -0.012311 -0.0026638 0.32132
1280000000 0.18397 0.2677 -0.0083569 -0.028485 -0.0018556 0.0025704 -0.0011216 -0.0019352
-0.00057271 0.0031398 0.0025788 0.00098565
-0.0083254 -0.028456 0.0061912 0.3813 -0.023924 -0.00815 -0.00091488 0.001493
0.0016759 0.0014809 0.00053821 0.0018988
-0.0018498 0.0025791 -0.023996 -0.0080392 0.31883 0.1608 0.0014079 -0.00025592
0.0010282 2.5616e-05 0.00018177 0.00040824
-0.0011168 -0.0019352 -0.00090157 0.0015013 0.0014064 -0.00025833 0.10862 0.25725
-2.794e-05 -0.017721 0.00042644 3.6654e-05
-0.00055586 0.0031306 0.0016848 0.0014837 0.0010247 1.3376e-05 -5.4296e-05 -0.017725
0.032671 0.22433 0.0028597 -0.014641
0.0025837 0.00095936 0.00054061 0.0019005 0.00017753 0.0004151 0.00042182 4.2044e-05
0.0028672 -0.014642 0.044373 0.32155
1340000000 0.22085 0.23326 -0.018075 -0.01875 0.00081577 0.0043838 -0.0018865 -0.00065702
0.0015667 0.0025894 0.0016682 -0.0015777
-0.018035 -0.018742 0.04559 0.37226 -0.021474 0.0045752 5.898e-05 0.0018942
0.0016858 0.00051611 0.0012888 0.0008297
0.00084273 0.0043771 -0.021482 0.0046892 0.34015 0.1128 0.00090504 -0.00094632
0.00060842 -0.00045136 0.00013068 0.00038179
-0.0018932 -0.00065398 8.1498e-05 0.001894 0.00090155 -0.0009434 0.14111 0.23678
-0.0085367 -0.014418 0.0012698 7.4059e-05
0.001585 0.002584 0.0016943 0.00050732 0.00060514 -0.00045233 -0.0085779 -0.014406
0.063913 0.21993 -0.0036702 -0.013137
0.0016629 -0.0015831 0.0012948 0.00081644 0.00013672 0.00038529 0.0012778 6.5271e-05
-0.003663 -0.013128 0.08315 0.31587
1400000000 0.25353 0.1944 -0.023636 -0.0071671 0.0051337 0.00312 -0.0019332 0.00079962
0.0025248 0.00067687 6.8437e-05 -0.0013971
-0.023593 -0.0071806 0.082593 0.35851 -0.014523 0.012543 0.0013603 0.0012206
0.00089726 -0.00077367 0.0011791 0.00016867
0.005149 0.0030928 -0.014471 0.012641 0.35278 0.059465 3.494e-05 -0.0013584
0.00011791 -0.00034973 0.00043459 0.00021188
-0.001926 0.00081308 0.0013558 0.0012248 3.8726e-05 -0.0013664 0.17051 0.20804
-0.013434 -0.0077835 -0.00057188 -0.00076689
0.0025318 0.00066296 0.00089054 -0.00078884 0.0001121 -0.00034777 -0.013463 -0.0077585
0.09757 0.21467 -0.0098697 -0.0082218
5.5408e-05 -0.0013959 0.0011755 0.00015378 0.0004292 0.00021164 -0.00058674 -0.00075783
-0.0098623 -0.0082306 0.12725 0.30385
1460000000 0.27566 0.15007 -0.020439 0.005075 0.0055617 -0.0018603 -0.0015014 0.0017765
0.0020155 -0.00080439 -0.0003841 -0.00082475
-0.020423 0.0050618 0.11614 0.33611 -0.0057947 0.015245 0.0017017 9.2431e-05
0.00074148 -0.0010606 0.0011591 -0.00071413
0.0055698 -0.0018818 -0.0057288 0.015295 0.35866 0.0053595 -0.0011289 -0.0011446
0.00025432 -9.9205e-05 0.00075719 -0.00038655
-0.0015007 0.0017733 0.0016992 8.0181e-05 -0.0011222 -0.0011245 0.19698 0.17907
-0.013713 -0.0017415 -0.00095626 0.0014133
0.0020091 -0.00081465 0.00073365 -0.0010569 0.00025289 -0.00010811 -0.013733 -0.001709
0.12825 0.19961 -0.011639 -0.0026521
-0.00039758 -0.00080953 0.0011544 -0.00072547 0.00077041 -0.00037987 -0.00095833 0.0014162
-0.011638 -0.0026501 0.16039 0.28201
1520000000 0.28721 0.10818 -0.014651 0.010686 0.0031618 -0.0041811 0.00022089 0.002466
0.0016995 -0.0018082 -0.0012539 8.9019e-06
-0.014639 0.010664 0.14905 0.32126 0.0017281 0.012922 0.0015938 -0.00083671
0.0001 -0.0008354 0.0002756 -0.0010214
0.0031382 -0.0042002 0.0017961 0.012924 0.35165 -0.050574 -0.00096168 -0.00034366
0.0005126 -0.00090487 3.1775e-05 -0.00011938
0.00024887 0.002469 0.0015838 -0.00085017 -0.00095915 -0.00035042 0.22046 0.14114
-0.012458 0.0030513 0.0010801 0.0015621
0.0016891 -0.0018173 0.00010056 -0.00084244 0.00051137 -0.00091228 -0.01245 0.0030791
0.15654 0.18423 -0.011322 0.0017812
-0.0012609 1.1761e-05 0.00027471 -0.0010279 3.136e-05 -0.00012198 0.0010719 0.0015609
-0.011321 0.0017686 0.19278 0.26074
1580000000 0.29592 0.061759 -0.0077756 0.013649 -0.0010335 -0.0047487 0.0014297 0.0017806
-0.00054128 -0.0020192 -0.00022701 0.00038506
-0.0077817 0.013638 0.17566 0.29641 0.0051665 0.0080792 0.00043449 -0.0016063
-0.00033047 -0.001018 -0.00029099 -0.00088043
-0.001053 -0.0047414 0.0052268 0.0080638 0.3314 -0.10797 -0.0014301 0.00046074
-0.00036034 -0.0011607 0.00013967 -0.00064971
0.0014429 0.0017694 0.00042724 -0.0016136 -0.0014382 0.00046037 0.23473 0.10159
-0.0090629 0.0067383 0.0017037 0.00049786
-0.00055993 -0.0020149 -0.00034581 -0.0010182 -0.00035612 -0.0011581 -0.0090516 0.0067662
0.18101 0.16501 -0.0088979 0.0072718
-0.0002265 0.00038394 -0.00029522 -0.00087573 0.00013569 -0.0006419 0.0017194 0.00050024
-0.0088999 0.0072725 0.224 0.23338
1640000000 0.29725 0.02055 -0.0010783 0.01235 -0.0028034 -0.0025244 0.0025048 0.00095851
-0.00095845 -0.0011082 -0.00026537 0.00054645
-0.001099 0.012339 0.20461 0.27164 0.0057313 0.00342 -0.00076456 -0.0016091
-0.00089045 -0.0004971 -0.00053827 -0.00058622
-0.0028195 -0.0025123 0.0057495 0.0033885 0.30317 -0.15673 -0.00081838 0.001266
-0.0010051 -0.00081874 -0.00010734 -0.00032987
0.0025121 0.00094812 -0.00078472 -0.0016027 -0.00081046 0.0012643 0.2472 0.052414
-0.0053956 0.0070244 0.002062 -0.00073467
-0.00096289 -0.0011124 -0.00090398 -0.00049359 -0.0010059 -0.00080781 -0.0053714 0.0070579
0.20372 0.13926 -0.0042112 0.0092711
-0.00025467 0.00054974 -0.00054338 -0.00058108 -0.00010942 -0.00033271 0.0020571 -0.00075931
-0.0042135 0.0092725 0.24902 0.20145
1700000000 0.28959 -0.024646 0.0023716 0.0094057 -0.0035125 0.00023911 0.0028662 -0.0012074
-0.0018381 -0.00026823 0.00054182 0.00044515
0.0023652 0.0093964 0.22236 0.24041 0.0036835 0.00060967 -0.0013622 -0.0005268
-0.00076904 -0.00010366 -0.00094003 -0.0003641
-0.0035058 0.00025034 0.0036902 0.00058526 0.25986 -0.1968 0.00034262 0.0015695
-0.0016863 -0.00015307 -0.00052723 -0.0008998
0.0028692 -0.001219 -0.0013547 -0.00051733 0.00034422 0.0015668 0.24409 0.0020563
-0.0035288 0.006917 0.0011132 -0.0020375
-0.0018329 -0.00026174 -0.00077045 -0.00010308 -0.001689 -0.00014373 -0.0035097 0.0069326
0.22082 0.11737 0.00033039 0.0092597
0.00054762 0.0004356 -0.0009373 -0.00035543 -0.00053187 -0.00089542 0.0011032 -0.002038
0.00033357 0.0092626 0.26481 0.16705
1760000000 0.27665 -0.072957 0.0044808 0.0059802 -0.0022375 0.00085185 0.0012713 -0.0031867
-0.0009282 0.00080542 0.00040865 -0.00052383
0.0044682 0.0059821 0.24804 0.20084 0.0015418 -0.0011735 -0.0011237 0.00027715
-0.0011971 0.0008456 -0.00050554 0.00060166
-0.0022411 0.00085899 0.0015352 -0.0011867 0.21131 -0.23033 0.0011718 0.0013028
-0.0009939 0.0013538 -0.0013872 -0.00045865
0.0012409 -0.0031921 -0.0011248 0.0002815 0.001165 0.0012992 0.23445 -0.049902
-0.0015829 0.0059972 -0.00044953 -0.0020882
-0.00091648 0.00081076 -0.001193 0.00085507 -0.00098909 0.0013511 -0.0015796 0.0060095
0.23496 0.080749 0.0041729 0.0067129
0.00040527 -0.00052412 -0.00050406 0.0006071 -0.0013907 -0.00044036 -0.0004469 -0.0020915
0.0041702 0.0067129 0.2769 0.1286
1820000000 0.25154 -0.10963 0.0045468 0.0024613 4.7057e-05 0.0024549 -0.00089776 -0.0031122
-0.00063782 0.00060396 2.5794e-06 -7.4942e-05
0.0045358 0.0024621 0.25792 0.17124 -0.00034539 0.00014002 -0.0012237 0.00091921
-0.00017253 0.0013779 -0.00046105 0.00052086
7.7936e-05 0.002451 -0.0003451 0.00014234 0.16102 -0.24549 0.0017422 0.00041779
-0.00037542 0.0022175 -0.0015146 0.00053769
-0.000904 -0.0030997 -0.0012205 0.00092881 0.0017411 0.00041372 0.20393 -0.097098
-0.00093496 0.0049053 -0.0015751 -0.0012656
-0.00063773 0.00060347 -0.00017124 0.0013864 -0.00036485 0.0022287 -0.00091408 0.0049053
0.25091 0.049925 0.0049923 0.0030669
-2.077e-06 -8.066e-05 -0.00045665 0.00052709 -0.0014983 0.00053639 -0.0015684 -0.0012714
0.0049908 0.0030623 0.27855 0.092233
1880000000 0.21628 -0.14936 0.0023077 0.00030545 -0.00030836 0.0022549 -0.0028439 -0.0022495
-0.00010825 0.001256 0.00043291 -0.00058433
0.0023057 0.00030196 0.2625 0.12492 -0.0022471 0.0017187 -0.00014525 0.0016113
0.00067191 0.0014462 0.00025224 0.00096148
-0.00030476 0.0022648 -0.0022392 0.0017333 0.10868 -0.25557 0.0020123 -0.0010832
0.0015004 0.0020012 -0.00092698 0.0013458
-0.0028736 -0.0022406 -0.00013225 0.0016112 0.0020147 -0.0010841 0.16277 -0.13688
-0.0010298 0.0038781 -0.0022966 0.00060843
-9.5869e-05 0.0012567 0.00068425 0.0014467 0.0015103 0.0019911 -0.0010268 0.0038775
0.25192 0.015626 0.0045499 0.00077363
0.00042614 -0.00058625 0.00025873 0.00095914 -0.00094528 0.0013635 -0.0023112 0.00060521
0.0045598 0.00078101 0.27722 0.057756
1940000000 0.17693 -0.17442 9.2023e-05 -0.0013699 0.0013134 0.0016771 -0.0037555 0.00050702
0.0010439 0.00095808 -0.00061437 -0.0007615
0.00010135 -0.001368 0.26305 0.09336 -0.0010572 0.003899 0.00094853 0.0012623
0.0020295 0.00058717 0.00087066 0.00020724
0.0013185 0.0016806 -0.0010427 0.0039171 0.062681 -0.24903 0.00036526 -0.002389
0.0024225 0.00043602 0.00048832 0.0018172
-0.0037517 0.00053444 0.00095204 0.0012539 0.00036962 -0.0023841 0.10961 -0.1668
-0.0023036 0.0036141 -0.0013109 0.0019231
0.0010653 0.00095521 0.0020452 0.00057114 0.0024286 0.00044067 -0.0023078 0.0036215
0.2512 -0.024416 0.0031612 -0.0023142
-0.00061544 -0.00076701 0.0008689 0.00020494 0.00048761 0.0018191 -0.0012765 0.0019526
0.00316 -0.0023203 0.26527 0.021606
2000000000 0.13083 -0.18859 -0.0035766 0.00061668 0.0024434 0.0015705 -0.0022555 0.003629
0.00085835 0.00044372 -0.00073369 0.0005206
-0.0035687 0.00060191 0.24924 0.057852 -0.00079427 0.0056503 0.0016182 0.00034171
0.0015438 -0.0015007 0.00043306 5.3505e-05
0.0024576 0.0015455 -0.00075122 0.0056578 0.018909 -0.23447 -0.0015197 -0.0013784
0.0019813 -0.0011711 0.0016843 0.001353
-0.0022366 0.0036415 0.0016265 0.00032765 -0.0015228 -0.0013758 0.056718 -0.17557
-0.0036496 0.0047251 0.00033023 0.0023416
0.00085189 0.00043569 0.0015287 -0.0015137 0.0019738 -0.001172 -0.0036622 0.0047744
