!Keysight Technologies,M9804A,MY58100912,A.14.10.03
!Date: Thursday, April 27, 2023 10:28:33
!Correction: S11(C  6-Port  ) 
!S12(C  6-Port  ) 
!S13(C  6-Port  ) 
!S14(C  6-Port  ) 
!S15(C  6-Port  ) 
!S16(C  6-Port  ) 
!S21(C  6-Port  ) 
!S22(C  6-Port  ) 
!S23(C  6-Port  ) 
!S24(C  6-Port  ) 
!S25(C  6-Port  ) 
!S26(C  6-Port  ) 
!S31(C  6-Port  ) 
!S32(C  6-Port  ) 
!S33(C  6-Port  ) 
!S34(C  6-Port  ) 
!S35(C  6-Port  ) 
!S36(C  6-Port  ) 
!S41(C  6-Port  ) 
!S42(C  6-Port  ) 
!S43(C  6-Port  ) 
!S44(C  6-Port  ) 
!S45(C  6-Port  ) 
!S46(C  6-Port  ) 
!S51(C  6-Port  ) 
!S52(C  6-Port  ) 
!S53(C  6-Port  ) 
!S54(C  6-Port  ) 
!S55(C  6-Port  ) 
!S56(C  6-Port  ) 
!S61(C  6-Port  ) 
!S62(C  6-Port  ) 
!S63(C  6-Port  ) 
!S64(C  6-Port  ) 
!S65(C  6-Port  ) 
!S66(C  6-Port  ) 
!S6P File: Measurement: :
# Hz S  RI   R 50
500000000 -0.33872 -0.037604 -0.010705 -0.0033085 -0.0082405 0.012572 -0.0038084 0.011771
0.012035 0.004492 -0.0039935 0.0083076
-0.010655 -0.0032898 -0.41968 -0.050752 0.0073068 -0.010748 0.0014845 0.012185
0.0073483 0.0022928 0.00093979 0.013344
-0.0081743 0.012547 0.0072861 -0.010765 -0.26619 0.21108 0.0067708 0.0035622
-0.00088685 0.0086197 0.00024223 0.012237
-0.00384 0.011709 0.0015161 0.012196 0.0067669 0.0035494 -0.32849 0.04563
-0.02125 -0.0044835 0.017986 0.025784
0.012012 0.0045663 0.0073716 0.0022798 -0.00087478 0.0085982 -0.021253 -0.0044719
-0.22691 -0.18748 -0.028936 0.0045634
-0.0040106 0.0082597 0.00098086 0.013363 0.00024122 0.012234 0.017989 0.025759
-0.02895 0.0045362 -0.27185 -0.11795
560000000 -0.31832 0.12393 -0.02427 -0.062431 0.00041322 0.012397 0.0060664 0.010442
0.010283 0.0042844 0.010438 0.0079729
-0.024165 -0.062425 -0.3768 0.10808 -0.042449 -0.036225 0.01358 0.0042453
-0.013755 -0.0044511 0.0042574 -0.00057942
0.0004414 0.012368 -0.042586 -0.036147 -0.18348 0.25923 -0.00031259 -0.0044104
0.019599 0.0046893 0.0066959 -0.0057615
0.0060665 0.010425 0.01356 0.0042119 -0.00029432 -0.0044184 -0.30414 0.13563
0.0032139 -0.024111 0.0046512 -0.019454
0.010307 0.0042703 -0.013727 -0.0044666 0.019596 0.00474 0.0031864 -0.024092
-0.28777 -0.011648 0.0071085 -0.050181
0.010459 0.0079264 0.0042311 -0.00060262 0.0067012 -0.0057703 0.0046307 -0.019504
0.007124 -0.050214 -0.33175 0.029737
620000000 -0.27516 0.10931 -0.0232 0.0081658 0.0037521 0.0084778 0.0071934 -0.0054103
0.01164 6.6857e-05 0.00062608 -0.0019041
-0.023182 0.008168 -0.40336 0.061533 -0.018698 0.00037435 -0.0010683 -0.0017749
0.010613 -0.007156 0.0012986 -0.0026511
0.0037921 0.0084795 -0.01872 0.00043275 -0.15305 0.26854 -0.0013661 -0.0051653
-0.0032667 -0.0032472 0.0083365 -0.0035865
0.0071943 -0.0054038 -0.0010586 -0.0018016 -0.0013522 -0.0051864 -0.26323 0.14623
-0.039088 -0.018379 0.01411 0.024965
0.011715 1.8408e-05 0.010578 -0.0071938 -0.0032929 -0.0032282 -0.039109 -0.018342
-0.20673 -0.050131 -0.041177 0.014774
0.00067568 -0.0018203 0.001311 -0.0026528 0.0083656 -0.0035679 0.01411 0.02497
-0.041221 0.014732 -0.25053 -0.0068707
680000000 -0.2346 0.19483 -0.027429 -0.013359 0.0049471 0.0049812 0.0013598 -0.007377
-0.0027901 -0.011163 0.0048675 -0.0069389
-0.027394 -0.013345 -0.38772 0.1594 -0.032571 -0.0011565 -0.0015963 -0.00030907
-0.0024249 -0.0092131 -0.00089095 -0.0021165
0.0049443 0.0049741 -0.032603 -0.0010775 -0.10152 0.28772 -0.00078779 -0.00017379
-0.0021455 0.00031377 -0.0028135 -0.0095091
0.0013733 -0.007391 -0.0015978 -0.0003306 -0.00078893 -0.00019014 -0.22 0.1956
-0.023772 -0.0072338 -0.0089337 -0.01027
-0.0028122 -0.011167 -0.0024499 -0.0092215 -0.0021248 0.00029691 -0.023797 -0.0071992
-0.25535 0.049084 -0.0060451 -0.0088351
0.0048484 -0.0069582 -0.00090447 -0.0021082 -0.0028316 -0.0095267 -0.0089493 -0.010265
-0.0060758 -0.0088397 -0.2594 0.096538
740000000 -0.18941 0.18939 -0.037843 0.027268 0.012905 -0.0054031 -0.00069601 -0.0039645
-0.0045942 -0.0032111 -0.0062509 0.0032278
-0.037864 0.027197 -0.33455 0.17761 -0.034639 0.035459 -0.0006266 -0.0066628
-0.012155 0.0076558 -0.0027188 -0.006292
0.012877 -0.005438 -0.034572 0.035584 -0.067921 0.28572 -0.0017017 0.0033791
-0.0028815 -0.0043725 -0.0013261 0.00020525
-0.00070909 -0.0040069 -0.00065322 -0.0066501 -0.0017069 0.0033708 -0.20266 0.20342
-0.042379 -0.0077766 0.022684 0.014018
-0.0045869 -0.0032564 -0.012101 0.0077076 -0.0028827 -0.0043608 -0.042402 -0.0077318
-0.15811 0.074522 -0.041207 0.000769
-0.006203 0.0032994 -0.0027881 -0.006285 -0.0013301 0.00020656 0.022704 0.014015
-0.041199 0.00080516 -0.24793 0.10289
800000000 -0.15628 0.22896 -0.021786 0.01692 0.0053384 -0.01064 -0.0046921 -0.001888
-0.0041863 0.0023717 0.0043175 0.00094158
-0.021806 0.016902 -0.33724 0.24807 -0.0075771 0.033946 -0.0021887 0.0021964
-0.001043 0.0032728 0.0011551 0.0053562
0.0053097 -0.010651 -0.0074778 0.034002 -0.026954 0.30842 0.00097054 0.001657
0.00054361 0.0036801 -0.0017366 0.00086978
-0.0047185 -0.0018858 -0.0022007 0.0022119 0.00098189 0.0016724 -0.1744 0.23082
-0.027669 0.012936 0.013323 -0.010113
-0.0041709 0.0024142 -0.0010392 0.0033022 0.00054232 0.0036832 -0.027664 0.013
-0.20171 0.097735 -0.01668 0.017768
0.0043147 0.00089983 0.0011738 0.0053496 -0.0017293 0.00088202 0.013329 -0.010128
-0.016706 0.017779 -0.23915 0.15375
860000000 -0.1215 0.24878 -0.016709 0.030639 -0.0031759 -0.010006 -0.0022616 0.00096326
0.0037357 0.0050374 -0.0029837 -0.0024501
-0.016732 0.030615 -0.28916 0.28981 0.0083241 0.034107 3.371e-05 0.0021849
0.0041001 0.00084924 0.0035564 0.00053555
-0.0032052 -0.010009 0.0084419 0.034115 0.020948 0.31624 -0.00045633 -0.0002209
0.0027725 -0.0014136 0.0017491 0.0042361
-0.0022612 0.00097165 3.8557e-05 0.0021881 -0.00045853 -0.00021754 -0.13828 0.24198
-0.017299 0.018347 -0.0061049 -0.0087543
0.0037417 0.005036 0.0040942 0.00083416 0.0027809 -0.0014275 -0.017278 0.018385
-0.15122 0.14565 -0.02391 0.015592
-0.003006 -0.0024335 0.0035634 0.00051837 0.0017408 0.0042425 -0.0060979 -0.0087483
-0.023919 0.015615 -0.18932 0.19575
920000000 -0.096681 0.27126 0.0055776 0.03711 -0.009444 -0.004625 -0.0019115 0.0018933
0.0015036 0.0017163 0.0025934 -0.0016638
0.0055158 0.037097 -0.26042 0.31015 0.028171 0.021478 0.0015492 0.0010305
0.0070593 -0.00066939 0.0039147 -0.0030209
-0.0094696 -0.004598 0.028278 0.021413 0.067086 0.31678 0.0018329 -0.00021128
0.0012741 -0.00043443 0.00078436 -0.0012596
-0.001916 0.0018821 0.0015606 0.0010132 0.0018332 -0.00022312 -0.11431 0.25824
-0.0099373 0.02995 0.0028908 -0.0069177
0.0015198 0.0017399 0.0070657 -0.00071681 0.0012833 -0.00043842 -0.0098937 0.029977
-0.14093 0.15124 -0.0017646 0.027144
0.0025621 -0.0016517 0.0039038 -0.0030293 0.00077616 -0.0012672 0.0028994 -0.0069356
-0.0017568 0.027183 -0.19465 0.21021
980000000 -0.049585 0.29035 0.017697 0.029469 -0.0090808 0.0045077 0.0020889 0.0035542
0.0040407 -0.0017041 -0.0031256 -0.0021368
0.01763 0.029447 -0.20782 0.34386 0.032966 0.004417 0.0020015 9.5283e-05
0.0014546 -0.0062716 -0.00061167 -0.0022964
-0.0090678 0.0045236 0.033018 0.0043188 0.11338 0.31021 0.00046013 -0.0012185
7.7609e-05 -0.0021768 0.0013371 -2.252e-05
0.0021028 0.0035636 0.0019818 6.5271e-05 0.00046306 -0.0012106 -0.07599 0.26961
0.0078069 0.028713 -0.0090401 -0.0067504
0.0040214 -0.0017141 0.0014145 -0.0063087 7.8387e-05 -0.0021726 0.0078765 0.028714
-0.10901 0.1785 0.0050948 0.01892
-0.0031277 -0.0021135 -0.00061404 -0.0022595 0.0013298 -2.5139e-05 -0.0090382 -0.0067453
0.0051076 0.018962 -0.15168 0.25502
1040000000 -0.0075186 0.29858 0.033111 0.017551 -0.0013899 0.0068493 0.0024879 0.00082257
0.00010282 -0.0036059 -0.0006293 -0.0016877
0.033042 0.017582 -0.17256 0.3569 0.029059 -0.015107 0.001541 -0.0016762
-0.0025109 -0.0025455 -0.0015074 -0.002807
-0.00137 0.0068473 0.029051 -0.015214 0.1596 0.29641 -0.00053161 -0.0014572
-0.0016405 -0.00082517 -0.00052539 -0.00108
0.0025207 0.00082675 0.0015175 -0.0016919 -0.00054053 -0.0014502 -0.048733 0.27945
0.018803 0.017005 -0.002981 0.0015491
0.00010259 -0.0036072 -0.0025538 -0.0025331 -0.0016292 -0.00082191 0.018855 0.016965
-0.077713 0.18652 0.013663 0.017765
-0.00065756 -0.0016945 -0.0014893 -0.0028157 -0.00052173 -0.0010661 -0.0029718 0.0015369
0.01369 0.017787 -0.12988 0.27416
1100000000 0.03764 0.30595 0.035554 -0.0048027 0.0027326 0.0038679 0.0025206 -0.0011974
-0.002047 -0.0030806 -0.0039946 0.00016393
0.035513 -0.0047611 -0.12909 0.37384 0.014811 -0.027949 4.9595e-05 -0.0018298
-0.0034545 -0.00060147 -0.0034853 -0.00048078
0.002748 0.003856 0.014724 -0.028028 0.20604 0.27578 -0.0018258 0.00024737
-0.0018193 0.00067583 -0.00097874 -0.00022642
0.0025232 -0.001198 3.7891e-05 -0.0018309 -0.0018378 0.0002414 -0.0084909 0.2845
0.023151 0.0043278 -0.0026665 0.00062091
-0.0020643 -0.0030672 -0.0034815 -0.00060385 -0.0018265 0.00067006 0.023174 0.0042759
-0.059668 0.19943 0.018805 0.008233
-0.0039732 0.00015422 -0.0034819 -0.00045881 -0.00098572 -0.00021313 -0.0026659 0.00060803
0.018858 0.0082306 -0.083232 0.30233
1160000000 0.08886 0.301 0.023411 -0.021059 0.002517 -0.00034198 -5.9797e-05 -0.0023208
-0.0040352 -0.00054523 -0.00093479 0.0038239
0.023389 -0.021011 -0.085545 0.37828 -0.0041568 -0.0291 -0.0017492 -0.0016982
-0.0026636 0.0027402 -0.0012102 0.0016956
0.0025268 -0.00035951 -0.0042794 -0.029093 0.24911 0.2446 -0.00064 0.0017805
-0.00035731 0.0020075 -0.00085289 0.00024324
-5.7403e-05 -0.0023126 -0.0017689 -0.0017134 -0.00064114 0.001784 0.030598 0.28177
0.019273 -0.010447 -0.0029273 0.0054535
-0.00404 -0.0005205 -0.0026517 0.0027409 -0.00036228 0.0020105 0.019262 -0.010489
-0.027033 0.20837 0.017447 0.00023805
-0.00092424 0.0038275 -0.0012101 0.0017162 -0.00084201 0.00024662 -0.002926 0.0054449
0.017541 0.00018772 -0.036365 0.30507
1220000000 0.13317 0.28972 0.0096269 -0.030042 -0.0016335 -0.00058362 8.5079e-05 -0.0011345
-0.0026296 0.0025272 0.0013519 0.0019636
0.0096286 -0.030006 -0.041291 0.39011 -0.017173 -0.020935 -0.0025384 0.00041438
0.00025579 0.0031083 -0.00067668 0.0018751
-0.0016341 -0.00057761 -0.017284 -0.02088 0.288 0.20505 0.00089282 0.0017126
0.00066326 0.0011288 0.0002823 0.00070435
8.5332e-05 -0.0011345 -0.0025251 0.00041201 0.00089058 0.0017064 0.070326 0.2736
0.0089827 -0.016216 0.002238 0.0018514
-0.0026176 0.0025502 0.00027771 0.0031237 0.00065597 0.0011355 0.0089623 -0.016251
-0.0042468 0.21772 0.013293 -0.012719
0.001348 0.0019548 -0.00066718 0.0018914 0.00029739 0.00069366 0.0022241 0.0018339
0.013347 -0.012809 -0.004611 0.3207
1280000000 0.18278 0.26745 -0.0085654 -0.028136 -0.0017596 0.002769 -0.00093881 -0.0021421
-0.00070958 0.003133 0.002606 0.0010823
-0.0085235 -0.028098 0.0047658 0.38106 -0.023836 -0.008209 -0.0010259 0.0015253
0.0018504 0.0017229 0.00061596 0.0019431
-0.0017585 0.0027863 -0.023912 -0.0081031 0.31801 0.16115 0.0015486 -0.00018537
0.0011557 3.3204e-05 0.00031781 0.0003228
-0.00094909 -0.0021301 -0.0010201 0.0015194 0.001539 -0.00017082 0.10687 0.25755
-0.00015427 -0.017748 0.00032365 0.00038542
-0.00070209 0.0031408 0.0018561 0.0017258 0.0011477 2.5831e-05 -0.0001944 -0.017768
0.032269 0.22203 0.0025852 -0.014685
0.0026016 0.0010607 0.0006303 0.0019428 0.00034094 0.00032282 0.00029949 0.00038514
0.0026182 -0.0148 0.04303 0.32107
1340000000 0.21974 0.23348 -0.018077 -0.018268 0.0010743 0.004578 -0.0019677 -0.00088816
0.0014436 0.0027175 0.0018099 -0.0015621
-0.018044 -0.01825 0.044359 0.37264 -0.021566 0.0045438 -3.0415e-05 0.0020486
0.0019126 0.00052731 0.001348 0.00085132
0.0010942 0.0045701 -0.021565 0.0046552 0.33969 0.11313 0.0010292 -0.00098845
0.0006787 -0.00047082 0.00013109 0.00023302
-0.0019597 -0.00086997 -2.2369e-05 0.002046 0.0010249 -0.00099431 0.1399 0.23761
-0.0086293 -0.01452 0.0011926 0.00036507
0.0014672 0.0027073 0.001918 0.00052061 0.00068063 -0.00047028 -0.0086631 -0.014509
0.06267 0.21783 -0.0038733 -0.013245
0.0018158 -0.0015631 0.0013434 0.00083941 0.0001342 0.00023313 0.0011665 0.00038627
-0.0039274 -0.013358 0.081432 0.31576
1400000000 0.25262 0.19501 -0.023378 -0.0066927 0.0054192 0.003077 -0.0021342 0.00071544
0.0025729 0.00081832 0.00022724 -0.0014995
-0.023351 -0.0066848 0.08146 0.35935 -0.014651 0.012624 0.0014282 0.0012612
0.0010389 -0.0010017 0.0011973 0.0001624
0.0054245 0.0030612 -0.014609 0.012712 0.35246 0.0599 1.3345e-05 -0.0015592
1.0976e-05 -0.0003376 0.00036785 0.00014892
-0.0021308 0.00073571 0.0014432 0.0012584 7.3143e-06 -0.0015662 0.16978 0.20914
-0.013686 -0.0078714 -0.0004159 -0.00039089
0.0025869 0.00080792 0.0010316 -0.0010138 1.3301e-05 -0.0003377 -0.013721 -0.0078506
0.095608 0.21341 -0.010223 -0.0082401
0.00023216 -0.0014999 0.0011898 0.00015958 0.00037836 0.00015047 -0.00042002 -0.00036563
-0.010334 -0.00832 0.12559 0.30411
1460000000 0.27511 0.15067 -0.019999 0.0053651 0.0057424 -0.0018775 -0.0015307 0.0018386
0.0021201 -0.00071831 -0.00042143 -0.00085749
-0.019997 0.0053448 0.11566 0.33732 -0.0058829 0.015425 0.0017368 0.00013172
0.00070575 -0.0012159 0.0011804 -0.00066002
0.0057326 -0.0019102 -0.0058113 0.01547 0.35844 0.0058082 -0.0012545 -0.0011771
0.00018231 -9.6565e-05 0.00076194 -0.00035298
-0.0015314 0.0018416 0.001729 0.0001152 -0.0012523 -0.0011821 0.19672 0.1801
-0.013973 -0.0016969 -0.00082511 0.0016086
0.0021157 -0.00072072 0.00070072 -0.0012318 0.00018102 -9.9021e-05 -0.013991 -0.0016644
0.12575 0.19898 -0.011758 -0.0024821
-0.00043345 -0.00086593 0.0011822 -0.00067278 0.00077258 -0.00036812 -0.00081243 0.0016174
-0.011902 -0.0024995 0.15872 0.2825
1520000000 0.28697 0.10879 -0.014065 0.010665 0.0032721 -0.0043779 0.00019224 0.0026637
0.0018626 -0.0018243 -0.0012137 -5.0926e-05
-0.014063 0.010642 0.14901 0.32236 0.0017345 0.013109 0.0015964 -0.00085138
-4.3991e-05 -0.00084084 0.00031332 -0.0010195
0.0032469 -0.004397 0.0018128 0.013113 0.35174 -0.050243 -0.0010363 -0.00025573
0.00056122 -0.00084522 -3.4906e-05 -7.1897e-05
0.00019399 0.0026607 0.0016009 -0.0008619 -0.0010365 -0.0002549 0.22059 0.14186
-0.012738 0.0032335 0.0013636 0.0017451
0.0018491 -0.0018406 -5.0395e-05 -0.00084571 0.00056513 -0.00085189 -0.012754 0.0032746
0.15418 0.18445 -0.011462 0.0020289
-0.001213 -4.6457e-05 0.00030892 -0.0010236 -2.9673e-05 -7.7527e-05 0.0013903 0.0017474
-0.011586 0.0020937 0.1914 0.26148
1580000000 0.29576 0.062381 -0.00735 0.013372 -0.00096404 -0.0050419 0.001513 0.0018337
-0.00045135 -0.0022165 -0.00033579 0.00046345
-0.0073598 0.013347 0.17608 0.29748 0.0053628 0.0082145 0.00041392 -0.0015984
-0.00041734 -0.00088675 -0.00024217 -0.00086086
-0.00099469 -0.0050389 0.0054083 0.0081863 0.3316 -0.10757 -0.0014545 0.00057347
-0.00029713 -0.0011373 0.00011241 -0.00056309
0.0015145 0.0018205 0.00040669 -0.0015968 -0.0014549 0.000572 0.23503 0.10205
-0.0093308 0.0070433 0.0021001 0.00050478
-0.00046666 -0.0022166 -0.00042445 -0.00088329 -0.00029945 -0.0011503 -0.0093055 0.007073
0.17904 0.16599 -0.0088752 0.0074502
-0.00034005 0.00046966 -0.00024428 -0.00085739 0.0001169 -0.00056148 0.0021291 0.00050256
-0.0089439 0.0075637 0.22287 0.2342
1640000000 0.29728 0.021022 -0.00081666 0.011918 -0.0029175 -0.0026854 0.0026317 0.00091346
-0.00092318 -0.0013042 -0.00020178 0.000608
-0.00082795 0.011908 0.2054 0.27232 0.0059614 0.0033585 -0.00075756 -0.0016576
-0.00082171 -0.00042053 -0.00051894 -0.00066986
-0.0029273 -0.0026802 0.005986 0.0033236 0.3036 -0.15693 -0.00064663 0.0013529
-0.00107 -0.00087617 -0.00014843 -0.00034314
0.0026348 0.00090289 -0.00076897 -0.0016563 -0.00065415 0.0013492 0.24763 0.05261
-0.0054185 0.0074954 0.002275 -0.00089037
-0.0009404 -0.0012945 -0.00082837 -0.00040121 -0.0010764 -0.00087762 -0.0054032 0.0075216
0.20238 0.14058 -0.004101 0.0093473
-0.00019907 0.00061042 -0.00052492 -0.00066197 -0.00014644 -0.00035109 0.0022837 -0.0009063
-0.0041055 0.0094905 0.24817 0.20258
1700000000 0.2895 -0.024039 0.0023382 0.0089316 -0.0036495 3.1519e-05 0.0029448 -0.0012541
-0.0019989 -0.00047402 0.00070464 0.00035689
0.0023191 0.0089235 0.22329 0.2407 0.0039551 0.00046351 -0.0014295 -0.00052013
-0.00070411 -9.845e-05 -0.00095433 -0.00041811
-0.0036553 6.0891e-05 0.0039607 0.00043955 0.25993 -0.19698 0.00041816 0.0014892
-0.0017958 -0.00014841 -0.00060221 -0.00094892
0.0029412 -0.0012696 -0.0014376 -0.00051466 0.00041286 0.0014841 0.24427 0.0019421
-0.0034458 0.0074046 0.0012829 -0.0022519
-0.0020057 -0.00045069 -0.00070912 -9.4154e-05 -0.0017955 -0.00014502 -0.0034286 0.0074228
0.21971 0.11897 0.00042351 0.0094444
0.00071766 0.00036528 -0.00096591 -0.00040871 -0.00060895 -0.00094894 0.0012793 -0.0022668
0.0004848 0.0095684 0.26407 0.16808
1760000000 0.27698 -0.072207 0.0043104 0.0056233 -0.0023923 0.00095099 0.0012041 -0.0034085
-0.001117 0.000774 0.00031082 -0.00057923
0.0043049 0.005619 0.24908 0.20081 0.0016591 -0.0012968 -0.0011159 0.00026684
-0.001176 0.00075301 -0.00063265 0.00049233
-0.0023898 0.0009584 0.0016519 -0.0013116 0.21119 -0.23015 0.0010636 0.0011422
-0.0011566 0.0013824 -0.0013708 -0.00044277
0.0011794 -0.0034054 -0.0011164 0.00026955 0.0010705 0.0011558 0.23456 -0.049992
-0.0010969 0.0064639 -0.00047916 -0.00245
-0.0011201 0.00077384 -0.0011673 0.00076466 -0.0011484 0.0013912 -0.0010761 0.0064682
0.23455 0.082383 0.0042947 0.0066778
0.00031548 -0.00059237 -0.00062451 0.00049604 -0.0013665 -0.0004406 -0.00049104 -0.0024652
0.0044017 0.006763 0.27627 0.12994
1820000000 0.25212 -0.10934 0.004257 0.0022272 -0.0001132 0.0025261 -0.0010104 -0.0030992
-0.00077106 0.00075377 -0.0001473 -0.00013783
0.0042526 0.0022413 0.2588 0.17068 -0.00042576 -0.00014723 -0.0013185 0.00084753
-0.00025967 0.0012684 -0.00054464 0.00055708
-9.3383e-05 0.0025205 -0.00042499 -0.00014645 0.16071 -0.24601 0.0014899 0.00035588
-0.00033554 0.0021382 -0.0014595 0.00056362
-0.0010242 -0.0030991 -0.0013121 0.00085536 0.0015081 0.00037271 0.20389 -0.097456
-0.00040927 0.0050733 -0.0017419 -0.0014077
-0.0007661 0.00075287 -0.00025725 0.0012722 -0.00033011 0.0021489 -0.00038792 0.0050815
0.25068 0.051463 0.0050566 0.0030862
-0.00014533 -0.000133 -0.00054483 0.00056262 -0.0014706 0.00056678 -0.001749 -0.0014122
0.0051774 0.0031108 0.27788 0.093472
1880000000 0.21686 -0.14913 0.0019424 0.00018481 -0.00045878 0.0022197 -0.002925 -0.0021699
-0.00015848 0.0014705 0.00026398 -0.00041334
0.0019348 0.00018317 0.263 0.12417 -0.002396 0.0015509 -0.00014615 0.0016492
0.00050628 0.001437 0.00019028 0.00098059
-0.00044325 0.0022215 -0.0023889 0.0015688 0.10864 -0.2556 0.0019402 -0.00089479
0.0014887 0.0019951 -0.00086399 0.0014234
-0.0029264 -0.0021557 -0.00013345 0.0016586 0.0019392 -0.00088988 0.16229 -0.13716
-0.00046542 0.0037228 -0.0024913 0.00060702
-0.00013588 0.001481 0.00051527 0.001429 0.0014921 0.001987 -0.00044694 0.0037124
0.25212 0.017323 0.0046448 0.00088961
0.00025212 -0.0004242 0.00020468 0.00098168 -0.00087228 0.0014425 -0.0024972 0.00060651
0.0047714 0.00086604 0.27693 0.059123
1940000000 0.17748 -0.17481 -0.00027251 -0.0013263 0.0012792 0.0021045 -0.0036483 0.00059013
0.0011533 0.0010412 -0.00060253 -0.0004705
-0.00026517 -0.0013305 0.26336 0.092347 -0.0012808 0.003848 0.0009743 0.0013283
0.0019292 0.00076325 0.00090658 0.00031412
0.0012853 0.0020973 -0.0012637 0.0038629 0.06254 -0.24908 0.00048649 -0.0022252
0.0023916 0.0006046 0.00048883 0.0017124
-0.0036525 0.00061058 0.00098021 0.0013243 0.00047967 -0.0022246 0.1093 -0.16697
-0.0018543 0.0031351 -0.0015204 0.0018649
0.0011637 0.0010299 0.0019379 0.00073871 0.002394 0.00059546 -0.0018403 0.0031395
0.25181 -0.023156 0.0031113 -0.0023317
-0.00061066 -0.00046934 0.00091242 0.00029602 0.00050405 0.0017102 -0.0015204 0.0018747
0.0032202 -0.0024025 0.26508 0.0229
2000000000 0.131 -0.18907 -0.0040763 0.00082473 0.0024704 0.0016079 -0.0023365 0.0037403
0.00091229 0.00028727 -0.00054877 0.00043854
-0.0040718 0.00083536 0.2489 0.056931 -0.0010022 0.0057483 0.0016572 0.00040533
0.001626 -0.0013029 0.00053765 0.00016544
0.0024911 0.0015949 -0.0009833 0.0057599 0.018815 -0.23448 -0.0013439 -0.001447
0.0020323 -0.0011577 0.001637 0.001298
-0.0023213 0.0037602 0.0016534 0.00040209 -0.0013429 -0.0014575 0.05587 -0.17557
-0.0033468 0.0040899 0.00012663 0.0023453
0.00090628 0.00027186 0.0016202 -0.0013253 0.0020249 -0.0011549 -0.0033354 0.0040895
0.24317 -0.057474 -0.00010083 -0.0028523
