!Keysight Technologies,M9804A,MY58100912,A.14.10.03
!Date: Thursday, April 27, 2023 10:28:33
!Correction: S11(C  6-Port  ) 
!S12(C  6-Port  ) 
!S13(C  6-Port  ) 
!S14(C  6-Port  ) 
!S15(C  6-Port  ) 
!S16(C  6-Port  ) 
!S21(C  6-Port  ) 
!S22(C  6-Port  ) 
!S23(C  6-Port  ) 
!S24(C  6-Port  ) 
!S25(C  6-Port  ) 
!S26(C  6-Port  ) 
!S31(C  6-Port  ) 
!S32(C  6-Port  ) 
!S33(C  6-Port  ) 
!S34(C  6-Port  ) 
!S35(C  6-Port  ) 
!S36(C  6-Port  ) 
!S41(C  6-Port  ) 
!S42(C  6-Port  ) 
!S43(C  6-Port  ) 
!S44(C  6-Port  ) 
!S45(C  6-Port  ) 
!S46(C  6-Port  ) 
!S51(C  6-Port  ) 
!S52(C  6-Port  ) 
!S53(C  6-Port  ) 
!S54(C  6-Port  ) 
!S55(C  6-Port  ) 
!S56(C  6-Port  ) 
!S61(C  6-Port  ) 
!S62(C  6-Port  ) 
!S63(C  6-Port  ) 
!S64(C  6-Port  ) 
!S65(C  6-Port  ) 
!S66(C  6-Port  ) 
!S6P File: Measurement: :
# Hz S  RI   R 50
500000000 -0.33896 -0.038819 -0.010916 -0.002202 -0.0080064 0.012668 -0.0043604 0.011872
0.011597 0.0056704 -0.0040641 0.0083539
-0.010882 -0.0037501 -0.42013 -0.050502 0.0076376 -0.010778 0.0014352 0.01205
0.0071499 0.0023295 0.0015668 0.013399
-0.0084904 0.01304 0.0067318 -0.010609 -0.26599 0.21126 0.0066762 0.003311
-0.0010694 0.0087559 0.00093868 0.012402
-0.0032172 0.011075 0.0011873 0.012058 0.007397 0.0032254 -0.3286 0.046531
-0.021076 -0.0055452 0.018424 0.025783
0.01126 0.0042734 0.0078613 0.003312 -0.0015857 0.0081562 -0.020421 -0.0058474
-0.22657 -0.18695 -0.028712 0.0032183
-0.0042472 0.0072887 0.00063313 0.013367 0.0016713 0.011424 0.017733 0.026681
-0.028658 0.0033108 -0.27047 -0.11812
560000000 -0.31861 0.1239 -0.025309 -0.062159 -0.00015564 0.01191 0.0067984 0.010378
0.0097994 0.0035502 0.010885 0.0086577
-0.024578 -0.061328 -0.37709 0.10794 -0.042208 -0.036604 0.013072 0.0044698
-0.014279 -0.0048283 0.003631 -0.0015534
3.9179e-05 0.012308 -0.042597 -0.036724 -0.18271 0.2587 -1.3584e-07 -0.0047644
0.02021 0.0049691 0.0078344 -0.0054796
0.0056159 0.010516 0.013889 0.0027389 -0.00089653 -0.0048246 -0.30466 0.13541
0.0052314 -0.023679 0.00407 -0.019992
0.011312 0.0039309 -0.01496 -0.0033152 0.020144 0.005186 0.0043621 -0.023196
-0.28737 -0.010488 0.0084691 -0.049558
0.010108 0.0086795 0.003962 -0.0030798 0.0063148 -0.0052443 0.0039636 -0.020401
0.0081568 -0.049497 -0.33181 0.028942
620000000 -0.2764 0.108 -0.023304 0.008039 0.003793 0.0088053 0.0067598 -0.0050339
0.01166 -0.00082216 0.001063 -0.0024471
-0.023088 0.0083004 -0.40331 0.061382 -0.018578 0.00042183 -0.001205 -0.0017503
0.010707 -0.0067633 0.00155 -0.0027484
0.0037369 0.0083678 -0.018715 0.00037253 -0.15302 0.26852 -0.0012412 -0.0053705
-0.0031057 -0.0027362 0.0082842 -0.0033237
0.0067826 -0.0062853 -0.0014514 -0.0018847 -0.0012791 -0.0049761 -0.26225 0.14562
-0.039407 -0.018185 0.01374 0.02489
0.011269 0.00071971 0.011286 -0.0070768 -0.0030549 -0.0036848 -0.039988 -0.017746
-0.20731 -0.050397 -0.040112 0.015047
0.00036149 -0.0027017 0.00086889 -0.0028999 0.0086792 -0.0034927 0.014859 0.025639
-0.040259 0.015406 -0.25084 -0.0076299
680000000 -0.23507 0.19547 -0.027429 -0.013396 0.0050876 0.0052653 0.0019025 -0.0074025
-0.0026969 -0.011544 0.0045 -0.0068767
-0.027348 -0.01315 -0.38785 0.15926 -0.032611 -0.00097049 -0.0013291 -0.00036419
-0.00228 -0.0089865 -0.00089948 -0.0021571
0.0053578 0.0053635 -0.032678 -0.001109 -0.10157 0.28781 -0.00088241 -4.2542e-05
-0.0021935 0.00046826 -0.0024508 -0.0095381
0.0012885 -0.0072081 -0.001494 -0.00041921 -0.0010039 -0.00019503 -0.2203 0.19567
-0.023903 -0.0074282 -0.0092343 -0.010229
-0.0031189 -0.011252 -0.0024939 -0.0093261 -0.0017946 0.00056334 -0.023651 -0.0074554
-0.25604 0.049104 -0.0060863 -0.0088223
0.0048251 -0.006469 -0.00090399 -0.0021989 -0.0022185 -0.0093259 -0.0090863 -0.01013
-0.0061978 -0.0086464 -0.25905 0.097212
740000000 -0.18919 0.19019 -0.037857 0.026836 0.013028 -0.0055275 -0.00096504 -0.0040017
-0.0044534 -0.0033099 -0.0065166 0.0035074
-0.038 0.026633 -0.33523 0.17792 -0.035296 0.035336 -0.00055382 -0.0065829
-0.012123 0.0075091 -0.0025354 -0.0064556
0.013279 -0.0051318 -0.03446 0.03515 -0.067848 0.28543 -0.0017138 0.0035834
-0.0028262 -0.0045096 -0.00098321 0.00049499
-0.00062991 -0.0044899 -0.0010811 -0.0066803 -0.0018931 0.0035252 -0.20284 0.20326
-0.042426 -0.0082199 0.022563 0.014115
-0.0048955 -0.0033282 -0.011712 0.0075534 -0.0032162 -0.0053633 -0.042333 -0.0081882
-0.15825 0.075176 -0.040468 -0.00069805
-0.006456 0.0027462 -0.0033213 -0.0063314 -0.0019787 0.00054255 0.022504 0.013998
-0.040526 -0.00032757 -0.24925 0.1037
800000000 -0.15626 0.22885 -0.021835 0.017101 0.0053779 -0.01053 -0.0046824 -0.0020338
-0.0042561 0.0022565 0.0042235 0.00090412
-0.022006 0.016864 -0.3373 0.24805 -0.0075365 0.034005 -0.0021614 0.0022
-0.00075359 0.0032064 0.0011552 0.0053576
0.0052198 -0.010679 -0.0074648 0.034114 -0.02705 0.30853 0.0010053 0.0015618
0.00065023 0.0036756 -0.0016765 0.00097992
-0.0051073 -0.0016923 -0.0022131 0.0023956 0.0010062 0.001757 -0.17436 0.23078
-0.027567 0.012902 0.013255 -0.010182
-0.0043765 0.0024426 -0.00088241 0.0033235 0.00077323 0.0038251 -0.027495 0.013078
-0.20215 0.097439 -0.016543 0.018193
0.0038224 0.0013189 0.00098579 0.0059339 -0.0016522 0.00080414 0.013338 -0.010282
-0.016651 0.018224 -0.23936 0.1534
860000000 -0.12165 0.24896 -0.016697 0.030626 -0.0031443 -0.010026 -0.0021612 0.0008681
0.0036762 0.0051599 -0.0032196 -0.0024623
-0.016878 0.030607 -0.28913 0.2897 0.0082052 0.034049 2.7158e-06 0.0022168
0.0041423 0.00087288 0.0030597 0.00059981
-0.0033176 -0.0098947 0.0083445 0.034037 0.020846 0.31617 -0.00048764 -0.00020137
0.002799 -0.0014036 0.0015978 0.0040076
-0.0020497 0.00070659 0.00010072 0.0021106 -0.00044169 -0.0002328 -0.13849 0.24166
-0.017464 0.018325 -0.0060617 -0.0088863
0.0040414 0.0049249 0.0040762 0.00062777 0.0027691 -0.001566 -0.017296 0.018262
-0.15132 0.14509 -0.023825 0.01578
-0.0035872 -0.0025649 0.003546 0.00032626 0.0016512 0.0041545 -0.0058118 -0.0087271
-0.023804 0.015874 -0.18945 0.19549
920000000 -0.096876 0.27104 0.0054504 0.037243 -0.0094588 -0.0046871 -0.001939 0.0018447
0.0014324 0.0018414 0.0026601 -0.0016224
0.0055292 0.03721 -0.26058 0.31022 0.028175 0.021401 0.0015587 0.001074
0.0071254 -0.00043559 0.0038628 -0.0028052
-0.0094997 -0.004563 0.02831 0.021496 0.067066 0.31677 0.001843 -0.00025588
0.0012208 -0.00031137 0.00073563 -0.0011649
-0.0018965 0.0018232 0.0015516 0.00096833 0.001862 -0.00029933 -0.11429 0.25824
-0.0099222 0.02989 0.0030121 -0.0069482
0.0013618 0.0021233 0.0070065 -0.0004199 0.0014497 -0.00030419 -0.009995 0.029983
-0.14088 0.15133 -0.0016476 0.027623
0.0026692 -0.0017532 0.0039053 -0.0027345 0.00092067 -0.0014284 0.0027377 -0.0069196
-0.0018568 0.027514 -0.19464 0.20992
980000000 -0.04972 0.29046 0.017822 0.029582 -0.0091759 0.0044499 0.0020752 0.0036723
0.0042186 -0.0016924 -0.0029733 -0.0020698
0.017657 0.029483 -0.20777 0.34382 0.032918 0.0043326 0.002013 7.4055e-05
0.0014584 -0.0063573 -0.00071047 -0.0021724
-0.009055 0.0045607 0.033083 0.0043413 0.1133 0.31018 0.00052035 -0.0012235
1.0726e-05 -0.0022049 0.0012539 -0.00017029
0.0021305 0.0036512 0.0020616 0.00012731 0.00039754 -0.0011472 -0.076214 0.26964
0.0078234 0.0287 -0.0090488 -0.006905
0.0041541 -0.0017913 0.0015172 -0.0062932 1.9708e-05 -0.0022131 0.0077185 0.028788
-0.10886 0.17821 0.0050468 0.019326
-0.0031897 -0.0021121 -0.00046275 -0.0021785 0.0010623 -0.0001629 -0.0090475 -0.0067611
0.0050009 0.019265 -0.15172 0.25496
1040000000 -0.0079456 0.29851 0.033043 0.017593 -0.0014013 0.0068941 0.0024844 0.00076908
0.00012109 -0.0035895 -0.0006419 -0.0015574
0.033119 0.017536 -0.17275 0.35681 0.028992 -0.015133 0.0014917 -0.0016719
-0.0025789 -0.0027013 -0.0015989 -0.0027824
-0.001362 0.0068238 0.028991 -0.015221 0.15954 0.29639 -0.00051649 -0.001471
-0.0015183 -0.0008085 -0.00062168 -0.00097778
0.0023889 0.00088971 0.0015151 -0.0017528 -0.00052283 -0.0014438 -0.048788 0.27932
0.018641 0.016926 -0.0029587 0.0013278
-5.4326e-06 -0.0036332 -0.002301 -0.0027939 -0.0016461 -0.00070933 0.018756 0.016855
-0.078051 0.18608 0.013831 0.017639
-0.00051527 -0.0017654 -0.001662 -0.0027976 -0.00059656 -0.00097286 -0.0029201 0.0014881
0.013812 0.017735 -0.13008 0.27414
1100000000 0.03765 0.30603 0.035566 -0.0046737 0.0027191 0.0038789 0.0024962 -0.0011606
-0.0020917 -0.0030876 -0.0040221 0.00010027
0.035615 -0.0047193 -0.12925 0.37385 0.014808 -0.027907 5.9749e-05 -0.0017948
-0.0035969 -0.00055137 -0.0033657 -0.00048115
0.0027044 0.0037826 0.014651 -0.028022 0.20599 0.27583 -0.0019006 0.00024946
-0.0018623 0.00069588 -0.00091113 -0.00018046
0.002636 -0.0011351 6.5671e-05 -0.0018251 -0.0018659 0.00022553 -0.008601 0.28441
0.022979 0.0043327 -0.0026635 0.00068236
-0.0020171 -0.0032662 -0.0034653 -0.00061924 -0.0018804 0.00061515 0.023093 0.0042612
-0.059863 0.19896 0.018873 0.0083121
-0.0040911 0.00014147 -0.0034981 -0.00051937 -0.0010424 -0.00017364 -0.0027996 0.00051033
0.018767 0.0083108 -0.083912 0.30191
1160000000 0.088556 0.30101 0.023513 -0.021108 0.0024951 -0.00034206 -1.1552e-05 -0.0022734
-0.0041044 -0.00051838 -0.00093797 0.0038168
0.023491 -0.020995 -0.085801 0.37825 -0.0041193 -0.029043 -0.001708 -0.0016895
-0.0027603 0.0028109 -0.0012573 0.0017276
0.0025173 -0.00036313 -0.0042797 -0.029039 0.24901 0.24462 -0.00067556 0.0018381
-0.00048997 0.0019756 -0.00084568 0.00016234
-3.6912e-05 -0.0023081 -0.0017363 -0.0017119 -0.00065165 0.0017181 0.030485 0.28174
0.019173 -0.010353 -0.0028892 0.0055389
-0.0041206 -0.00055318 -0.0025317 0.0028234 -0.00033926 0.0018876 0.019132 -0.010466
-0.027233 0.20802 0.017647 0.00037458
-0.0009266 0.0036889 -0.0013569 0.0018222 -0.00066079 0.00019904 -0.0028425 0.0055595
0.017551 0.00040628 -0.036631 0.30503
1220000000 0.13309 0.28982 0.0096863 -0.030088 -0.0015996 -0.00060118 8.9165e-05 -0.0011057
-0.0026938 0.0025754 0.0013899 0.0019871
0.0097769 -0.030044 -0.041358 0.39012 -0.01713 -0.020955 -0.0025228 0.00038506
0.00022995 0.0030621 -0.00067596 0.0019501
-0.001665 -0.00063124 -0.017229 -0.020858 0.28783 0.2052 0.00092938 0.0016765
0.0007144 0.0011627 0.00020371 0.00079034
3.717e-05 -0.001092 -0.0025779 0.00045839 0.00094265 0.0017207 0.070173 0.27362
0.0088704 -0.016087 0.0022999 0.0018845
-0.0027188 0.0024836 0.00029912 0.0030993 0.00076523 0.0011072 0.0087826 -0.016071
-0.0046827 0.21727 0.013427 -0.012837
0.0012846 0.0020347 -0.00067235 0.0018829 0.00033643 0.00066336 0.0022577 0.0019143
0.013371 -0.01281 -0.0050011 0.32081
1280000000 0.18261 0.26759 -0.0085719 -0.028174 -0.0017893 0.0027533 -0.00093558 -0.0020733
-0.00069315 0.0031915 0.0026235 0.0011635
-0.0084955 -0.028159 0.0046743 0.38121 -0.023835 -0.0082163 -0.0010482 0.0015384
0.0018569 0.0017033 0.00066945 0.0020543
-0.0017693 0.0027367 -0.023871 -0.0081145 0.31793 0.16121 0.0014889 -0.00020011
0.001151 6.386e-05 0.00028212 0.00024395
-0.00096751 -0.0021052 -0.0010068 0.0015433 0.0015182 -0.00018056 0.10669 0.25755
-0.00021874 -0.017565 0.00026555 0.00036034
-0.00064173 0.0031414 0.0018554 0.0016938 0.0010797 -5.1189e-05 -0.00019828 -0.017551
0.031641 0.22176 0.0026161 -0.014805
0.002618 0.0010652 0.00053584 0.001979 0.00032598 0.00017016 0.00031289 0.0003518
0.0026348 -0.014798 0.042782 0.32093
1340000000 0.21973 0.23353 -0.018138 -0.018319 0.0010576 0.0045213 -0.0019513 -0.00093294
0.0014722 0.0027284 0.0017846 -0.0014883
-0.018121 -0.018307 0.04435 0.37265 -0.021536 0.0045203 -1.1623e-05 0.0020688
0.0018926 0.00053593 0.0013318 0.00086583
0.0011214 0.004563 -0.021531 0.0046122 0.33967 0.11327 0.0010557 -0.00098528
0.00059235 -0.00045909 0.00017047 0.0002407
-0.0019189 -0.00086774 4.6458e-06 0.002037 0.001037 -0.00099258 0.13969 0.23767
-0.0086169 -0.014262 0.0012068 0.00035843
0.0015916 0.0027224 0.0019409 0.00050951 0.00059538 -0.00050832 -0.0085841 -0.01427
0.061908 0.21796 -0.0039639 -0.013265
0.0017638 -0.0015651 0.0013329 0.00083628 0.00010308 0.00025352 0.0012965 0.0003419
-0.0039666 -0.01326 0.081203 0.31585
1400000000 0.25257 0.19514 -0.023457 -0.0066693 0.0053931 0.0030775 -0.002101 0.00068446
0.0026483 0.00084688 0.00020035 -0.001481
-0.023427 -0.0066668 0.081422 0.35935 -0.014652 0.012567 0.0014601 0.0012453
0.0010393 -0.0010271 0.0011862 0.00013957
0.0053965 0.0030858 -0.01463 0.012674 0.35261 0.060037 2.0087e-05 -0.0015394
1.4879e-05 -0.00031854 0.00037629 0.00013622
-0.0021611 0.00071413 0.0014371 0.0012674 -6.165e-05 -0.0015447 0.16958 0.2093
-0.0136 -0.0076677 -0.00043174 -0.00042036
0.0025731 0.00087947 0.001035 -0.0010342 -3.6586e-05 -0.00037163 -0.013619 -0.0076375
0.094941 0.21369 -0.01032 -0.0082691
0.00018333 -0.0015421 0.0012364 0.00020591 0.00031778 0.0001602 -0.00046438 -0.00037112
-0.010331 -0.0082746 0.12532 0.30408
1460000000 0.27508 0.15081 -0.020046 0.0054199 0.0056772 -0.0018509 -0.0015829 0.0018719
0.0021257 -0.00076195 -0.00041044 -0.00094022
-0.020043 0.0053993 0.11562 0.33732 -0.0059415 0.015372 0.0017166 0.00013411
0.00064566 -0.0012252 0.0012004 -0.00065633
0.0057043 -0.001877 -0.0058716 0.015444 0.35845 0.0058316 -0.0012059 -0.0011965
0.00012645 -0.00011666 0.0006947 -0.00032734
-0.0015429 0.0018968 0.0017272 0.00010332 -0.0012327 -0.001098 0.19668 0.18038
-0.013784 -0.0015729 -0.00081593 0.0016123
0.0020858 -0.00073076 0.00063427 -0.0012141 0.000189 -0.00014804 -0.013768 -0.0015193
0.12518 0.19954 -0.011927 -0.0025225
-0.00034742 -0.00093294 0.0012219 -0.00063288 0.00067598 -0.0002694 -0.00082861 0.0015903
-0.011906 -0.0025202 0.15846 0.28264
1520000000 0.28689 0.10882 -0.014089 0.010725 0.0033036 -0.0043295 0.00017566 0.0026301
0.0018262 -0.0018612 -0.0011988 -3.3746e-05
-0.014104 0.010719 0.14893 0.32232 0.0016772 0.013121 0.0015999 -0.00085449
-6.2475e-05 -0.00084619 0.00029831 -0.0010034
0.0032859 -0.0043472 0.0017807 0.013133 0.35163 -0.050218 -0.001008 -0.00022038
0.00056652 -0.00080918 -0.00012887 -9.1878e-05
0.0001867 0.0026124 0.0015658 -0.00086029 -0.0010502 -0.0002793 0.22062 0.14211
-0.012483 0.0032771 0.0013768 0.0017438
0.0018148 -0.0018557 -6.2202e-05 -0.00085266 0.0005988 -0.00073053 -0.012485 0.003308
0.1538 0.1852 -0.011553 0.0021142
-0.001298 -0.00010408 0.00028122 -0.0010004 -0.00013293 -0.00011907 0.0013441 0.0017862
-0.011549 0.0021149 0.19116 0.26157
1580000000 0.29567 0.062371 -0.0073071 0.01342 -0.00089476 -0.0050111 0.0015198 0.0018408
-0.00047914 -0.0022608 -0.00036076 0.00043748
-0.0073161 0.013391 0.17596 0.29744 0.0053535 0.0082174 0.00042889 -0.001582
-0.00041588 -0.00087648 -0.0002305 -0.00086001
-0.00097914 -0.0050027 0.0053701 0.0081901 0.33164 -0.10729 -0.0014725 0.00057128
-0.00026966 -0.0012069 0.00020159 -0.00051326
0.0015669 0.0018946 0.00043114 -0.0015968 -0.0014154 0.00047331 0.23519 0.10223
-0.0090948 0.0069385 0.0020936 0.00053186
-0.00046279 -0.0021997 -0.00042135 -0.00085033 -0.00020654 -0.0011144 -0.0090264 0.0069552
0.17893 0.16672 -0.00894 0.007549
-0.00037114 0.00044852 -0.00017313 -0.00085771 0.00017611 -0.00050306 0.002082 0.00052846
-0.0089482 0.0075557 0.22262 0.23435
1640000000 0.29707 0.021034 -0.0007927 0.011968 -0.0029429 -0.0027261 0.0026408 0.00090849
-0.00098677 -0.0012512 -0.0002423 0.00064171
-0.00080573 0.011955 0.20522 0.27236 0.0059598 0.0034061 -0.00074995 -0.0016516
-0.00079159 -0.00041469 -0.00056042 -0.00065816
-0.0029281 -0.0027297 0.005972 0.0033539 0.30364 -0.15677 -0.00063706 0.0013074
-0.0010724 -0.00087271 -0.00018014 -0.00039387
0.0026602 0.00088881 -0.00075071 -0.001681 -0.00061486 0.0013702 0.24785 0.05269
-0.0052659 0.0073342 0.0022656 -0.00087958
-0.00093391 -0.0012126 -0.00077238 -0.0003961 -0.0010696 -0.00084923 -0.0052135 0.0073101
0.20252 0.14133 -0.0041356 0.0094926
-0.00022861 0.00064653 -0.00059641 -0.00066881 -0.00015218 -0.00019882 0.0023078 -0.00087281
-0.0041199 0.0094782 0.24779 0.20275
1700000000 0.28938 -0.023939 0.0024047 0.0089112 -0.0036987 5.7275e-05 0.0029608 -0.0012514
-0.0019874 -0.00038694 0.00071966 0.00036465
0.0024114 0.0089142 0.22315 0.2408 0.0039295 0.00044631 -0.0014194 -0.00050919
-0.00073085 -0.0001094 -0.00097226 -0.00040661
-0.0036402 3.9037e-05 0.0039605 0.00048765 0.26009 -0.19698 0.00035574 0.0014983
-0.0017822 -0.00017859 -0.0006129 -0.00092087
0.0029199 -0.0012777 -0.001436 -0.00054113 0.00036102 0.0014968 0.24448 0.0019687
-0.0033642 0.0071521 0.0012666 -0.0022714
-0.0019678 -0.00037797 -0.00067092 -0.00014929 -0.0018043 -0.00029115 -0.0033834 0.0071361
0.22019 0.11959 0.00048559 0.0095781
0.00070305 0.00041697 -0.0009999 -0.00041863 -0.00054966 -0.0010753 0.0012828 -0.0023273
0.00049296 0.0095806 0.26372 0.16833
1760000000 0.2768 -0.072073 0.0043469 0.005594 -0.0024188 0.00101 0.0012 -0.0033814
-0.0010849 0.0007676 0.00038264 -0.00067845
0.0043585 0.0055834 0.24895 0.20098 0.0016356 -0.0012551 -0.0011134 0.00025475
-0.0011596 0.00071038 -0.00059005 0.00050657
-0.0023629 0.00093435 0.0016631 -0.0012641 0.2112 -0.23006 0.0010599 0.0011726
-0.001163 0.0014659 -0.001298 -0.0003434
0.0011808 -0.0034157 -0.0011004 0.00026687 0.0010363 0.0011036 0.23476 -0.050131
-0.0011148 0.0062381 -0.00046776 -0.0024826
-0.0010516 0.00077845 -0.0011809 0.00073359 -0.0012148 0.0013849 -0.0011328 0.0061989
0.23517 0.082824 0.0044051 0.0067623
0.00034615 -0.00065507 -0.00059745 0.00055022 -0.0013223 -0.00049423 -0.00049308 -0.0024778
0.0043926 0.0067393 0.27606 0.13028
1820000000 0.25207 -0.10897 0.0042567 0.0022065 -8.0793e-05 0.0025535 -0.0009909 -0.0030489
-0.00075998 0.00072204 -0.00017381 -0.00017554
0.0042418 0.002187 0.25877 0.17087 -0.00037197 -0.0001254 -0.0013155 0.00085832
-0.00029371 0.0012386 -0.00054652 0.00056969
-0.00013508 0.0025268 -0.00037305 -0.00014968 0.1608 -0.246 0.0014998 0.00041414
-0.00039576 0.0020984 -0.0014282 0.00056635
-0.0010228 -0.0030297 -0.0013072 0.00084997 0.0015177 0.00058559 0.204 -0.097801
-0.00050561 0.0048277 -0.001757 -0.0013702
-0.00072979 0.00068677 -0.00027437 0.001304 -0.00040225 0.0022108 -0.00050612 0.0048149
0.25141 0.051639 0.0051828 0.0030576
-0.00012783 -0.00018599 -0.0005664 0.00053748 -0.0015749 0.00050611 -0.0017399 -0.0013529
0.0051834 0.0030554 0.27773 0.093791
1880000000 0.21695 -0.14883 0.0019113 0.00017974 -0.00043674 0.0021025 -0.0029323 -0.0021876
-0.00015748 0.0014454 0.00018069 -0.00036756
0.0019948 0.0001258 0.26298 0.12434 -0.0022976 0.0015603 -0.00013299 0.0016493
0.00047998 0.0014531 0.00016023 0.00099221
-0.00049845 0.0021634 -0.0023531 0.0015636 0.10877 -0.2554 0.0019905 -0.00095775
0.0015301 0.0020158 -0.00079906 0.0014481
-0.0029337 -0.002202 -0.00012321 0.0017017 0.0020552 -0.00094286 0.16216 -0.13739
-0.00069409 0.0035437 -0.0025021 0.00058363
-0.00016317 0.0014327 0.00050709 0.0014956 0.0015651 0.0020737 -0.00071398 0.003529
0.25285 0.017068 0.0048037 0.00084182
0.00022126 -0.0004144 0.00019811 0.0009662 -0.00083193 0.0015803 -0.0025229 0.00061623
0.0048119 0.00081647 0.27674 0.059528
1940000000 0.17775 -0.17442 -0.00029111 -0.0013529 0.0013682 0.0020917 -0.0036456 0.00057327
0.0011296 0.0010159 -0.00054453 -0.00039738
-0.00026672 -0.0013517 0.26338 0.092454 -0.0012667 0.0038367 0.0009593 0.0013419
0.0019538 0.00080651 0.00091186 0.00028956
0.001339 0.0019833 -0.0012517 0.0038467 0.062532 -0.24892 0.00042284 -0.0022898
0.0024033 0.00053868 0.00040106 0.001725
-0.0037183 0.00055502 0.000908 0.0013205 0.00052913 -0.0023217 0.1091 -0.16711
-0.0021615 0.0030304 -0.0015474 0.0018955
0.001171 0.0010684 0.001933 0.00076581 0.0024894 0.00055296 -0.0021568 0.0030825
0.25232 -0.02365 0.0032401 -0.0024343
-0.00059261 -0.00044559 0.00085153 0.00032005 0.00052315 0.0017077 -0.0016078 0.0019379
0.0032339 -0.0024503 0.26496 0.023241
2000000000 0.13134 -0.189 -0.0041356 0.0008302 0.0024437 0.0016933 -0.0023778 0.0038165
0.00086903 0.00033515 -0.00054239 0.00038617
-0.0040756 0.00080788 0.24892 0.057055 -0.0010913 0.0057023 0.0016487 0.00042349
0.0016928 -0.0013224 0.00051775 0.00013603
0.0025199 0.0016839 -0.00098158 0.0058246 0.018689 -0.23443 -0.0012951 -0.0014634
0.0020582 -0.0012171 0.0017236 0.0012933
-0.0024059 0.0038391 0.0015898 0.0004167 -0.0015486 -0.0013933 0.055652 -0.17544
-0.0036872 0.0042081 3.5161e-05 0.0023331
0.00079641 0.00033256 0.0016349 -0.0013896 0.002077 -0.0012409 -0.0037048 0.0042137
