!Keysight Technologies,M9804A,MY58100912,A.14.10.03
!Date: Thursday, April 27, 2023 10:28:33
!Correction: S11(C  6-Port  ) 
!S12(C  6-Port  ) 
!S13(C  6-Port  ) 
!S14(C  6-Port  ) 
!S15(C  6-Port  ) 
!S16(C  6-Port  ) 
!S21(C  6-Port  ) 
!S22(C  6-Port  ) 
!S23(C  6-Port  ) 
!S24(C  6-Port  ) 
!S25(C  6-Port  ) 
!S26(C  6-Port  ) 
!S31(C  6-Port  ) 
!S32(C  6-Port  ) 
!S33(C  6-Port  ) 
!S34(C  6-Port  ) 
!S35(C  6-Port  ) 
!S36(C  6-Port  ) 
!S41(C  6-Port  ) 
!S42(C  6-Port  ) 
!S43(C  6-Port  ) 
!S44(C  6-Port  ) 
!S45(C  6-Port  ) 
!S46(C  6-Port  ) 
!S51(C  6-Port  ) 
!S52(C  6-Port  ) 
!S53(C  6-Port  ) 
!S54(C  6-Port  ) 
!S55(C  6-Port  ) 
!S56(C  6-Port  ) 
!S61(C  6-Port  ) 
!S62(C  6-Port  ) 
!S63(C  6-Port  ) 
!S64(C  6-Port  ) 
!S65(C  6-Port  ) 
!S66(C  6-Port  ) 
!S6P File: Measurement: :
# Hz S  RI   R 50
500000000 -0.33726 -0.036361 -0.01043 -0.0036034 -0.0082029 0.012382 -0.0029855 0.011041
0.012208 0.0044811 -0.0034533 0.006924
-0.010394 -0.0036126 -0.41864 -0.049975 0.0077688 -0.011434 0.0021195 0.011691
0.0074934 0.0020451 0.0016256 0.01303
-0.0082153 0.012374 0.0077413 -0.011452 -0.26498 0.21041 0.0072723 0.00327
-0.00029568 0.0085158 0.0012923 0.012327
-0.002961 0.011057 0.002136 0.011711 0.0072852 0.0032661 -0.32602 0.046627
-0.019701 -0.0046496 0.018517 0.024798
0.012292 0.0044815 0.0074906 0.0020256 -0.00029389 0.0085271 -0.019668 -0.0046645
-0.22659 -0.18492 -0.027324 0.0044617
-0.0033501 0.0069077 0.0016602 0.013058 0.0013093 0.012328 0.018527 0.024771
-0.027328 0.00446 -0.27172 -0.11545
560000000 -0.31652 0.1237 -0.023401 -0.062296 -0.00067037 0.012609 0.0070461 0.010349
0.010841 0.0036912 0.011144 0.0068547
-0.023337 -0.062217 -0.37448 0.10855 -0.042368 -0.036701 0.013651 0.0038448
-0.013115 -0.0033076 0.0048902 -0.001031
-0.00064738 0.012555 -0.042524 -0.036664 -0.18298 0.2581 -0.00021466 -0.0048197
0.01863 0.0036521 0.0063108 -0.0065916
0.0070654 0.010316 0.013675 0.0038282 -0.000236 -0.0048256 -0.30237 0.13565
0.0038073 -0.025535 0.0047737 -0.019082
0.0108 0.0037309 -0.013166 -0.0032674 0.018643 0.0036644 0.0038008 -0.02559
-0.28659 -0.010722 0.0082728 -0.049387
0.011164 0.0069141 0.0048695 -0.0010212 0.0063289 -0.0065969 0.0047654 -0.01908
0.008329 -0.049418 -0.3294 0.032411
620000000 -0.2739 0.10809 -0.023214 0.0073522 0.0034663 0.0083004 0.0068852 -0.0058088
0.010888 -6.7466e-05 7.8798e-05 -0.0021746
-0.023204 0.0073292 -0.40213 0.061886 -0.018648 -0.00033719 -0.0015564 -0.0021495
0.0106 -0.007426 0.00097544 -0.0031415
0.0035263 0.0082696 -0.018664 -0.00029647 -0.15304 0.26694 -0.0014727 -0.0055183
-0.0043886 -0.0036923 0.0084273 -0.0037668
0.0069117 -0.0058296 -0.0015704 -0.0021425 -0.0014821 -0.0055143 -0.26169 0.14551
-0.039017 -0.019484 0.013704 0.024458
0.010888 -0.00021058 0.010585 -0.0074615 -0.0043807 -0.0036986 -0.039001 -0.019428
-0.20441 -0.04881 -0.040837 0.012889
0.00011386 -0.0021971 0.0009618 -0.0031624 0.0084381 -0.0037647 0.013715 0.024438
-0.040853 0.012887 -0.25031 -0.0039622
680000000 -0.23298 0.19336 -0.027823 -0.013688 0.0050558 0.0053169 0.00090293 -0.0073845
-0.0034488 -0.011123 0.0048072 -0.0060819
-0.027792 -0.013691 -0.387 0.15878 -0.032907 -0.0013484 -0.0018815 -5.6562e-06
-0.0026699 -0.0087503 -0.00093239 -0.0019233
0.0050544 0.0053221 -0.032934 -0.0012671 -0.10208 0.287 -0.0010334 4.0261e-05
-0.0025168 0.0011331 -0.0030164 -0.0092078
0.00085684 -0.0073789 -0.0018737 -1.2128e-05 -0.0010478 4.8995e-05 -0.21998 0.19477
-0.02323 -0.0080533 -0.0084734 -0.0099583
-0.0034931 -0.011116 -0.002701 -0.0087519 -0.0025184 0.0011359 -0.023316 -0.0080395
-0.25206 0.047951 -0.0062611 -0.0097663
0.0047831 -0.0060014 -0.00092965 -0.0019057 -0.0030161 -0.009204 -0.0084889 -0.0099648
-0.0062476 -0.0097504 -0.25723 0.098431
740000000 -0.19033 0.18822 -0.038697 0.026145 0.012852 -0.0049863 -0.00080946 -0.0043232
-0.0050303 -0.0026513 -0.0066452 0.0029917
-0.038678 0.026081 -0.33493 0.17771 -0.035297 0.035195 -0.00082621 -0.0059099
-0.01225 0.0078157 -0.0027844 -0.0056911
0.012845 -0.0050289 -0.035222 0.035349 -0.068829 0.28574 -0.0015136 0.0034242
-0.0024173 -0.0043496 -0.0016434 0.00031712
-0.00080521 -0.0043168 -0.00081221 -0.0059166 -0.0015214 0.0034241 -0.20292 0.20228
-0.043079 -0.0078128 0.021748 0.013377
-0.0050529 -0.0027217 -0.012256 0.0078955 -0.0024254 -0.0043605 -0.043122 -0.0077474
-0.15539 0.072211 -0.04158 3.0992e-06
-0.0066024 0.0030236 -0.0027964 -0.0056871 -0.0016453 0.00031735 0.021764 0.013359
-0.041585 -3.8734e-05 -0.24709 0.10391
800000000 -0.15796 0.22768 -0.022676 0.017112 0.0051745 -0.010448 -0.0051387 -0.001788
-0.0040458 0.0028819 0.0037819 0.0010824
-0.02267 0.017085 -0.33795 0.24774 -0.0080433 0.034336 -0.0022576 0.002301
-0.00070153 0.0034669 0.00089203 0.0054168
0.0051443 -0.010457 -0.0079572 0.034399 -0.027749 0.3091 0.0010815 0.0014146
0.00060779 0.0035976 -0.0020591 0.0012319
-0.0051626 -0.001775 -0.0022367 0.0023226 0.0010897 0.0014298 -0.175 0.22957
-0.028463 0.012715 0.012579 -0.010323
-0.0040373 0.0029517 -0.00069427 0.0034698 0.00062209 0.0035955 -0.028458 0.012784
-0.20101 0.095574 -0.017598 0.017627
0.003736 0.0010813 0.00091791 0.0054336 -0.0020514 0.0012295 0.012592 -0.010332
-0.017611 0.017618 -0.23925 0.1546
860000000 -0.12324 0.24922 -0.017256 0.031221 -0.0034872 -0.0098543 -0.002262 0.001309
0.0043625 0.0048536 -0.0033856 -0.0030147
-0.017255 0.031185 -0.29006 0.29001 0.0083112 0.034564 0.00026232 0.0024045
0.0045364 1.0726e-06 0.003362 0.00022107
-0.0035124 -0.0098688 0.0084185 0.034576 0.020474 0.31734 -0.00050124 -0.00025651
0.0027934 -0.0014885 0.0016686 0.0042593
-0.002259 0.0013199 0.00028187 0.0024076 -0.00050857 -0.00025881 -0.13957 0.24191
-0.018732 0.019025 -0.0063248 -0.0092308
0.0044339 0.0048418 0.0045335 -2.5485e-05 0.0027785 -0.0014935 -0.018721 0.019042
-0.15163 0.14461 -0.023959 0.015849
-0.0033631 -0.0030644 0.0033789 0.0002035 0.0016712 0.0042679 -0.0063278 -0.0092289
-0.023938 0.015829 -0.18911 0.19638
920000000 -0.09785 0.27208 0.0054334 0.03801 -0.009589 -0.0044037 -0.0016777 0.0024046
0.0016163 0.0017921 0.0024478 -0.0016014
0.0054156 0.037973 -0.26096 0.31102 0.028353 0.021863 0.0016298 0.0011055
0.0068905 -0.00075543 0.0040269 -0.0030802
-0.0095977 -0.004397 0.028451 0.021805 0.067119 0.31776 0.0017537 -0.00014171
0.0011733 -0.0004477 0.00095291 -0.001086
-0.0016792 0.0024156 0.0016501 0.0011107 0.0017593 -0.00014004 -0.11532 0.25901
-0.010326 0.030642 0.0027897 -0.0065654
0.0015868 0.0017891 0.0068809 -0.00078103 0.0011772 -0.00044645 -0.010283 0.030694
-0.14112 0.15022 -0.0022939 0.02722
0.0024486 -0.0016147 0.0040201 -0.0030821 0.00094428 -0.0010925 0.0027892 -0.0065858
-0.002322 0.027207 -0.19336 0.21156
980000000 -0.050164 0.292 0.017986 0.030048 -0.0088663 0.0047017 0.0024439 0.0036669
0.0040473 -0.0021188 -0.0030813 -0.0020161
0.017959 0.03005 -0.20808 0.34467 0.033375 0.0045374 0.0019105 -0.00015914
0.0010062 -0.0063157 -0.00074593 -0.00209
-0.0088429 0.0047339 0.033418 0.0044212 0.11364 0.311 0.00049548 -0.0012364
1.44e-05 -0.0022469 0.0013717 -7.4656e-05
0.0024565 0.0036579 0.0019221 -0.0001357 0.00048708 -0.0012426 -0.076489 0.27039
0.0078666 0.029172 -0.0092967 -0.0070623
0.0040767 -0.0021323 0.00095942 -0.0063648 2.0011e-05 -0.0022543 0.0079511 0.029155
-0.11004 0.17816 0.0048421 0.018634
-0.0030708 -0.0020046 -0.00077379 -0.0020852 0.0013687 -8.1843e-05 -0.0093048 -0.0070433
0.0048247 0.018631 -0.15107 0.2562
1040000000 -0.0077642 0.30011 0.033539 0.01772 -0.0011481 0.006991 0.0026631 0.00061146
-0.00017665 -0.0036603 -0.00050177 -0.0016281
0.033529 0.017734 -0.1724 0.35789 0.029399 -0.015248 0.0013781 -0.0019234
-0.0027213 -0.0025457 -0.0015661 -0.0027239
-0.0011127 0.0069788 0.02936 -0.015362 0.16013 0.2971 -0.00057226 -0.0014938
-0.0016652 -0.00084424 -0.00049978 -0.0012162
0.0026718 0.000591 0.0013906 -0.0019099 -0.0005729 -0.0014842 -0.04905 0.28079
0.018874 0.017539 -0.0033699 0.0019384
-0.00024791 -0.0036594 -0.0027443 -0.0025518 -0.0016641 -0.00084122 0.018888 0.017514
-0.079904 0.18646 0.013466 0.018312
-0.00051909 -0.001635 -0.0015814 -0.0026943 -0.00050224 -0.0012213 -0.0033535 0.001936
0.013445 0.018291 -0.12905 0.27582
1100000000 0.038575 0.30727 0.036057 -0.0047506 0.0030011 0.0037767 0.0026308 -0.0014286
-0.0022927 -0.0030964 -0.0038463 6.2565e-05
0.036034 -0.0047211 -0.12877 0.37496 0.014856 -0.02815 -1.8868e-05 -0.0017997
-0.0033014 -0.00031903 -0.0034106 -0.00042352
0.0030174 0.0037639 0.014761 -0.028239 0.20669 0.27625 -0.0018104 0.00027396
-0.0018225 0.0006684 -0.00096343 -0.00042656
0.0026284 -0.0014391 -2.3603e-05 -0.0017968 -0.0018151 0.00027537 -0.0079909 0.28606
0.023302 0.0047603 -0.0023999 0.0011264
-0.0022623 -0.0030663 -0.0033094 -0.00028758 -0.0018186 0.00067441 0.023338 0.0047218
-0.061743 0.20001 0.018754 0.0090171
-0.0038467 6.8212e-05 -0.003413 -0.00039738 -0.00096267 -0.00042504 -0.0024002 0.0011366
0.018757 0.0090335 -0.081503 0.30313
1160000000 0.089581 0.30202 0.023715 -0.021185 0.0027364 -0.0005613 -0.00024166 -0.0025323
-0.0040321 -0.00038777 -0.0008669 0.0035773
0.023726 -0.021147 -0.084761 0.37923 -0.004202 -0.02924 -0.0017739 -0.0015633
-0.002336 0.00278 -0.0011916 0.0016174
0.0027437 -0.00057163 -0.0043389 -0.029245 0.24978 0.24492 -0.00060713 0.0017112
-0.00032089 0.0019608 -0.0011665 0.00010334
-0.00025137 -0.0025464 -0.0017822 -0.0015554 -0.00060845 0.0017085 0.031903 0.28296
0.019711 -0.010511 -0.0026913 0.0055823
-0.004066 -0.00037945 -0.0023434 0.0028001 -0.0003343 0.0019769 0.019724 -0.010539
-0.028589 0.21009 0.017533 0.00034912
-0.00084242 0.00358 -0.0012026 0.0016356 -0.0011642 0.00011263 -0.002682 0.0055819
0.017531 0.00034902 -0.03499 0.30647
1220000000 0.13432 0.29035 0.010031 -0.030312 -0.0015911 -0.00096999 -0.00019787 -0.0010874
-0.0026361 0.002507 0.0012355 0.0018664
0.010046 -0.030264 -0.040108 0.39081 -0.01732 -0.020964 -0.0025198 0.00050572
0.00032652 0.0029032 -0.00069624 0.0018175
-0.0015889 -0.00096572 -0.017446 -0.020918 0.28875 0.20516 0.00087669 0.0016363
0.00062107 0.0011691 0.0002212 0.00075019
-0.00019509 -0.001089 -0.0025171 0.000526 0.00087413 0.0016411 0.071974 0.27402
0.0091946 -0.016205 0.002822 0.0017914
-0.002607 0.0025269 0.00032738 0.0029032 0.00061651 0.0011696 0.0091781 -0.016209
-0.0047059 0.21995 0.013484 -0.012315
0.0012451 0.0018665 -0.00069195 0.0018197 0.00021904 0.00074825 0.0028225 0.0017878
0.01348 -0.012301 -0.0026404 0.32132
1280000000 0.18398 0.26767 -0.0083551 -0.028481 -0.0018585 0.0025696 -0.0011212 -0.0019386
-0.00057535 0.0031269 0.002578 0.00098012
-0.0083244 -0.028457 0.0062026 0.3813 -0.023923 -0.0081432 -0.00090414 0.0014957
0.0016693 0.0014905 0.00052697 0.0018935
-0.0018517 0.0025845 -0.023994 -0.0080401 0.31885 0.16077 0.0014077 -0.00025134
0.0010209 2.469e-05 0.00018168 0.00040463
-0.0011134 -0.0019248 -0.00089878 0.0015074 0.0014049 -0.00024911 0.10864 0.25728
-1.6876e-05 -0.017727 0.00042702 3.5051e-05
-0.0005612 0.0031207 0.0016772 0.0014778 0.0010162 2.5908e-05 -5.1903e-05 -0.017737
0.032728 0.22433 0.0028574 -0.014646
0.0025839 0.00097151 0.00054445 0.0018962 0.00018013 0.00040404 0.00043273 3.1944e-05
0.0028619 -0.01465 0.044412 0.32154
1340000000 0.22088 0.23324 -0.018071 -0.018741 0.00082346 0.0043813 -0.0018965 -0.00066533
0.0015653 0.002587 0.0016685 -0.0015687
-0.018045 -0.018731 0.045604 0.37228 -0.021475 0.0045815 7.1321e-05 0.001911
0.001692 0.0005159 0.0012822 0.00081977
0.00083876 0.0043803 -0.021487 0.0046928 0.34014 0.11281 0.00090947 -0.00095033
0.00060836 -0.00044737 0.00012756 0.00038048
-0.0018956 -0.00065623 7.8813e-05 0.0018985 0.00090952 -0.00095235 0.14111 0.23679
-0.0085405 -0.014414 0.001271 6.5995e-05
0.0015887 0.002592 0.0016917 0.00050238 0.00060847 -0.00045052 -0.0085761 -0.014416
0.063923 0.21993 -0.0036639 -0.013135
0.0016569 -0.0015813 0.0012942 0.00081438 0.00012904 0.0003809 0.0012676 6.9708e-05
-0.0036582 -0.013122 0.083175 0.31585
1400000000 0.25352 0.19439 -0.023636 -0.007174 0.0051239 0.0031239 -0.0019238 0.00080323
0.002529 0.00067618 7.828e-05 -0.0013887
-0.023595 -0.0071863 0.082616 0.3585 -0.014513 0.012546 0.00135 0.0012247
0.00090222 -0.00077378 0.0011678 0.00016588
0.0051402 0.0031052 -0.014473 0.012642 0.35281 0.059464 1.9241e-05 -0.001342
0.00011918 -0.0003506 0.00043027 0.00021379
-0.0019187 0.00082048 0.0013524 0.0012179 2.2972e-05 -0.0013503 0.17052 0.20805
-0.013438 -0.0077867 -0.00057676 -0.00076414
0.0025368 0.00065917 0.00088649 -0.00078915 0.00011274 -0.00035444 -0.013464 -0.0077523
0.097622 0.21467 -0.0098744 -0.0082096
5.8566e-05 -0.0013961 0.0011691 0.00016189 0.00043415 0.00021287 -0.00057807 -0.00076723
-0.0098631 -0.0082272 0.12729 0.30383
1460000000 0.27567 0.15006 -0.020437 0.0050778 0.0055694 -0.0018608 -0.0015044 0.0017628
0.0020187 -0.00080784 -0.0003848 -0.00081286
-0.020421 0.0050567 0.11617 0.33612 -0.0057859 0.015243 0.001697 9.4416e-05
0.00074031 -0.001051 0.0011571 -0.00072113
0.0055598 -0.0018875 -0.0057201 0.015295 0.35866 0.0053477 -0.0011266 -0.0011228
0.00025183 -0.0001005 0.00075505 -0.00038834
-0.0015023 0.0017676 0.0017091 8.3432e-05 -0.0011217 -0.0011289 0.19699 0.17908
-0.013705 -0.0017377 -0.00096586 0.0014123
0.0020119 -0.00081413 0.00073816 -0.0010658 0.00025303 -9.4283e-05 -0.013712 -0.0017176
0.12828 0.19961 -0.011648 -0.0026515
-0.0003959 -0.00080494 0.0011412 -0.00073983 0.0007525 -0.00038717 -0.00096075 0.0014119
-0.011623 -0.0026445 0.16045 0.28197
1520000000 0.28724 0.10815 -0.01465 0.010695 0.0031546 -0.0041804 0.00024234 0.002477
0.0017022 -0.0018027 -0.0012592 1.0713e-05
-0.014641 0.010671 0.14908 0.32124 0.0017252 0.012915 0.0015889 -0.000843
0.00010157 -0.00083746 0.00027185 -0.0010186
0.0031357 -0.0042073 0.0017982 0.012923 0.35165 -0.050557 -0.00095863 -0.00034711
0.00051403 -0.00090388 3.0774e-05 -0.0001196
0.00025996 0.0024777 0.0015811 -0.00084752 -0.0009591 -0.00034829 0.22044 0.14113
-0.012448 0.003044 0.0010753 0.0015588
0.0016902 -0.0018161 9.6996e-05 -0.00083826 0.00051042 -0.00091159 -0.012462 0.0030753
0.15652 0.18418 -0.01133 0.0017913
-0.001259 6.218e-06 0.00027505 -0.0010257 2.9831e-05 -0.00011917 0.0010843 0.0015623
-0.011333 0.0017738 0.19283 0.26067
1580000000 0.29592 0.06175 -0.0077747 0.013649 -0.0010319 -0.0047455 0.0014313 0.0017716
-0.0005429 -0.0020183 -0.00022909 0.00037942
-0.0077844 0.013643 0.17568 0.2964 0.0051802 0.0080813 0.00044314 -0.0016002
-0.00033236 -0.0010232 -0.00028299 -0.0008785
-0.0010563 -0.0047431 0.0052321 0.0080667 0.33139 -0.10798 -0.0014328 0.00046993
-0.00036372 -0.0011557 0.00014246 -0.00065089
0.0014362 0.0017645 0.00043673 -0.0016016 -0.0014268 0.00046688 0.23474 0.10162
-0.0090656 0.0067417 0.0017107 0.00050217
-0.00056195 -0.0020258 -0.00034242 -0.001029 -0.00037008 -0.0011606 -0.0090606 0.0067825
0.18105 0.16499 -0.0089053 0.0072657
-0.00022434 0.00038278 -0.00029001 -0.00088094 0.00014053 -0.00065519 0.0017158 0.00048519
-0.0088924 0.0072706 0.22405 0.23332
1640000000 0.29727 0.020517 -0.0010851 0.012344 -0.0028088 -0.0025314 0.0025003 0.00095836
-0.00096258 -0.0011094 -0.00026002 0.00054868
-0.0011001 0.01234 0.20463 0.27161 0.005729 0.0034194 -0.00076713 -0.0016204
-0.00088825 -0.00049639 -0.00054226 -0.00058092
-0.0028226 -0.0025168 0.0057562 0.003387 0.30316 -0.15673 -0.00081514 0.0012497
-0.0010142 -0.00081483 -0.00010555 -0.00033162
0.0025073 0.00094256 -0.00078097 -0.0016106 -0.00081597 0.0012626 0.2472 0.052397
-0.0053962 0.0070334 0.0020636 -0.00074639
-0.00096293 -0.0011103 -0.00090332 -0.00049289 -0.0010161 -0.00080645 -0.0053721 0.0070405
0.20371 0.13924 -0.0042043 0.0092722
-0.0002535 0.00055139 -0.00054556 -0.00057967 -0.00010373 -0.00033278 0.0020654 -0.0007515
-0.0042081 0.0092652 0.24906 0.20141
1700000000 0.28956 -0.024672 0.0023696 0.0094057 -0.0035066 0.00023716 0.0028715 -0.0012036
-0.001828 -0.00026754 0.00054245 0.00044114
0.0023625 0.0093942 0.22238 0.24038 0.0036853 0.0006022 -0.0013559 -0.00051504
-0.00076999 -0.00010295 -0.00094618 -0.00036849
-0.0035111 0.00024329 0.0036873 0.00058469 0.25986 -0.19681 0.00036457 0.0015713
-0.0016862 -0.00015336 -0.00053152 -0.00089611
0.0028772 -0.0012221 -0.0013599 -0.00051488 0.00035182 0.0015674 0.24408 0.0020603
-0.003525 0.0069228 0.0011164 -0.0020241
-0.0018303 -0.00026878 -0.00077149 -0.00010068 -0.0016883 -0.00015383 -0.0035232 0.0069362
0.2208 0.11736 0.00033905 0.0092553
0.00054819 0.00043459 -0.00094462 -0.00035876 -0.00053649 -0.00089555 0.0011096 -0.0020292
0.00032895 0.0092617 0.26484 0.16702
1760000000 0.27665 -0.072959 0.0044816 0.0059782 -0.0022408 0.00084669 0.0012586 -0.0031936
-0.00092574 0.00080696 0.00041029 -0.00052242
0.0044645 0.0059744 0.24805 0.20082 0.0015318 -0.0011669 -0.0011282 0.00027555
-0.0011955 0.00084159 -0.00050964 0.00060422
-0.0022357 0.00084941 0.0015319 -0.0011838 0.21129 -0.23032 0.0011681 0.0013243
-0.00099244 0.0013443 -0.0013898 -0.00045541
0.0012425 -0.003201 -0.0011265 0.0002845 0.0011745 0.001317 0.23445 -0.049884
-0.001588 0.0060044 -0.00043862 -0.0020966
-0.00091695 0.000808 -0.0011912 0.00085797 -0.00098411 0.0013645 -0.0015534 0.0060055
0.23497 0.080718 0.0041698 0.0067151
0.00040529 -0.00052087 -0.00050425 0.00061112 -0.0013873 -0.00045345 -0.00044691 -0.0020887
0.0041789 0.0067186 0.27691 0.12858
1820000000 0.25152 -0.10966 0.0045478 0.0024571 5.7051e-05 0.0024585 -0.00088399 -0.0031064
-0.00064054 0.00060308 -3.2461e-07 -8.173e-05
0.0045441 0.0024638 0.25793 0.1712 -0.00035212 0.00014237 -0.0012386 0.00092283
-0.00018032 0.0013871 -0.00046105 0.00051713
8.3262e-05 0.0024593 -0.0003511 0.00014432 0.16101 -0.24549 0.001735 0.00040666
-0.00037811 0.0022244 -0.0015232 0.00053974
-0.00090379 -0.0031029 -0.0012313 0.00093585 0.00174 0.00040186 0.20395 -0.097125
-0.00093654 0.0049064 -0.0015883 -0.0012679
-0.00063568 0.0006003 -0.00016948 0.001388 -0.0003752 0.0022165 -0.00092617 0.0049083
0.25089 0.049917 0.0049924 0.0030481
-1.294e-06 -7.9784e-05 -0.0004544 0.00052303 -0.0015099 0.00054321 -0.0015794 -0.0012711
0.0049894 0.0030602 0.27854 0.092176
1880000000 0.21626 -0.14934 0.0023159 0.00030539 -0.00031341 0.0022578 -0.0028545 -0.0022464
-0.00010095 0.0012578 0.00043342 -0.00058453
0.0023087 0.00029416 0.26249 0.12492 -0.0022421 0.0017124 -0.00013833 0.0016222
0.00067923 0.0014492 0.00024488 0.0009589
-0.00030487 0.0022587 -0.0022305 0.001729 0.10868 -0.25557 0.0020167 -0.0010706
0.0014957 0.0019873 -0.00091777 0.0013453
-0.0028693 -0.0022398 -0.00013481 0.0016227 0.002012 -0.0010721 0.16277 -0.13688
-0.0010352 0.003872 -0.0022808 0.00061042
-9.2345e-05 0.0012662 0.00068428 0.0014432 0.0014996 0.0019953 -0.0010197 0.0038668
0.25192 0.015596 0.0045598 0.00078134
0.00042491 -0.00059379 0.00025675 0.00095905 -0.00091585 0.0013444 -0.0022864 0.00062008
0.0045518 0.00077141 0.27722 0.057732
1940000000 0.17692 -0.17443 8.9335e-05 -0.001372 0.0012991 0.0016855 -0.0037661 0.00051995
0.0010503 0.00096811 -0.0006067 -0.00076634
9.8909e-05 -0.0013686 0.26307 0.093332 -0.0010651 0.0038988 0.00093626 0.0012607
0.0020318 0.00058624 0.00087247 0.00020379
0.0013199 0.0016714 -0.0010428 0.003913 0.062667 -0.24904 0.00035291 -0.0023842
0.0024183 0.0004341 0.00048419 0.0018217
-0.0037583 0.00054749 0.00094867 0.0012543 0.00035714 -0.0023859 0.10967 -0.16681
-0.002313 0.0036041 -0.0013157 0.0019212
0.0010627 0.00095787 0.0020383 0.00056655 0.0024243 0.00043762 -0.0022854 0.0036207
0.25121 -0.024472 0.0031574 -0.0023148
-0.00060552 -0.00076742 0.00087382 0.00020132 0.00048702 0.001819 -0.0013161 0.0019319
0.0031586 -0.0022977 0.26527 0.021557
2000000000 0.13079 -0.1886 -0.0035722 0.00060445 0.0024456 0.0015645 -0.0022613 0.0036284
0.00086833 0.00045892 -0.00074392 0.00051365
-0.0035782 0.00059941 0.24922 0.057823 -0.00078377 0.005643 0.0016242 0.00033916
0.0015469 -0.0014924 0.00043105 5.2556e-05
0.0024447 0.0015414 -0.0007412 0.0056496 0.01893 -0.23449 -0.0015326 -0.0013851
0.0019667 -0.0011785 0.0016783 0.001356
-0.0022504 0.0036469 0.001629 0.00032716 -0.0015349 -0.0013916 0.056703 -0.17558
-0.0036605 0.0047458 0.00033398 0.00236
0.00083933 0.00043161 0.0015342 -0.0015114 0.0019738 -0.001188 -0.0036086 0.0047304
