!Keysight Technologies,M9804A,MY58100912,A.14.10.03
!Date: Thursday, April 27, 2023 10:28:33
!Correction: S11(C  6-Port  ) 
!S12(C  6-Port  ) 
!S13(C  6-Port  ) 
!S14(C  6-Port  ) 
!S15(C  6-Port  ) 
!S16(C  6-Port  ) 
!S21(C  6-Port  ) 
!S22(C  6-Port  ) 
!S23(C  6-Port  ) 
!S24(C  6-Port  ) 
!S25(C  6-Port  ) 
!S26(C  6-Port  ) 
!S31(C  6-Port  ) 
!S32(C  6-Port  ) 
!S33(C  6-Port  ) 
!S34(C  6-Port  ) 
!S35(C  6-Port  ) 
!S36(C  6-Port  ) 
!S41(C  6-Port  ) 
!S42(C  6-Port  ) 
!S43(C  6-Port  ) 
!S44(C  6-Port  ) 
!S45(C  6-Port  ) 
!S46(C  6-Port  ) 
!S51(C  6-Port  ) 
!S52(C  6-Port  ) 
!S53(C  6-Port  ) 
!S54(C  6-Port  ) 
!S55(C  6-Port  ) 
!S56(C  6-Port  ) 
!S61(C  6-Port  ) 
!S62(C  6-Port  ) 
!S63(C  6-Port  ) 
!S64(C  6-Port  ) 
!S65(C  6-Port  ) 
!S66(C  6-Port  ) 
!S6P File: Measurement: :
# Hz S  RI   R 50
500000000 -0.3388 -0.037653 -0.010279 -0.0035099 -0.0080982 0.01282 -0.0036701 0.011778
0.011748 0.0044121 -0.0041652 0.0081512
-0.010557 -0.0032989 -0.41973 -0.050641 0.0072657 -0.010915 0.0013878 0.011869
0.0072974 0.0028657 0.00055525 0.013083
-0.0081859 0.012575 0.00734 -0.010614 -0.26624 0.21093 0.0064454 0.0035862
-0.00079474 0.0084589 -0.00024864 0.012226
-0.0036774 0.011768 0.0016265 0.012204 0.0067593 0.0033744 -0.32835 0.045379
-0.020913 -0.0044891 0.0183 0.026172
0.011928 0.0044302 0.0073616 0.0024932 -0.00094551 0.0086169 -0.020812 -0.0041955
-0.22671 -0.18687 -0.028316 0.0049908
-0.0037879 0.0083414 0.0012565 0.0134 0.00020994 0.012054 0.01835 0.025891
-0.028603 0.0048909 -0.27169 -0.11664
560000000 -0.31825 0.12372 -0.024361 -0.061987 0.00055585 0.012311 0.0062922 0.01078
0.010752 0.0036973 0.010662 0.0088914
-0.024115 -0.062346 -0.37694 0.10831 -0.042204 -0.036334 0.0133 0.0040696
-0.013097 -0.0038325 0.0043494 -0.001439
0.00039877 0.012364 -0.042612 -0.036345 -0.18391 0.25923 -0.00028178 -0.0041941
0.018989 0.0045133 0.0067868 -0.0056219
0.0061936 0.010431 0.013602 0.0038984 3.0161e-05 -0.0041033 -0.30381 0.1354
0.0032521 -0.024888 0.0050147 -0.019301
0.010173 0.0042107 -0.013784 -0.0041846 0.019724 0.0048412 0.0032327 -0.024823
-0.28886 -0.011209 0.0070933 -0.050954
0.010475 0.0081625 0.0043305 -0.00093917 0.0068638 -0.0056775 0.0047679 -0.019154
0.0076749 -0.050949 -0.33102 0.03055
620000000 -0.27541 0.10923 -0.023241 0.008083 0.0036025 0.0085071 0.0070563 -0.005176
0.011571 -0.0004041 2.4748e-05 -0.001866
-0.023212 0.0081898 -0.40331 0.061706 -0.018589 0.00036801 -0.0011903 -0.0019174
0.010601 -0.0072323 0.00096572 -0.0025157
0.0037939 0.0085368 -0.018711 0.00056907 -0.15308 0.26854 -0.001437 -0.0051227
-0.0033357 -0.0034215 0.0083761 -0.0034345
0.0071915 -0.0053813 -0.0011717 -0.0017608 -0.0012214 -0.0054292 -0.26306 0.14624
-0.038964 -0.018505 0.014202 0.025054
0.011537 -0.00013401 0.010761 -0.0072406 -0.0032105 -0.0028062 -0.039134 -0.018851
-0.20739 -0.049513 -0.040497 0.014268
0.00059687 -0.002036 0.0012977 -0.002612 0.0085667 -0.003466 0.013763 0.02487
-0.04052 0.014888 -0.25113 -0.0060596
680000000 -0.23467 0.19496 -0.027341 -0.013427 0.0051615 0.005081 0.0016382 -0.0072686
-0.0027505 -0.011592 0.0045698 -0.0066491
-0.027419 -0.013347 -0.38776 0.1595 -0.032495 -0.0011145 -0.0016689 -0.00028458
-0.0020348 -0.0091355 -0.0012535 -0.0020864
0.0050007 0.0049798 -0.032607 -0.001068 -0.10135 0.2878 -0.00083472 -0.00026017
-0.0018708 0.00042333 -0.0028319 -0.0091867
0.0014027 -0.0073547 -0.0016137 -0.00038372 -0.00089942 -0.00036175 -0.21952 0.19536
-0.024104 -0.0073098 -0.0083146 -0.0095971
-0.0028595 -0.011194 -0.0024771 -0.0090615 -0.0021887 0.0006035 -0.024031 -0.0073252
-0.25577 0.048718 -0.0057178 -0.0090468
0.0047165 -0.0069153 -0.00078771 -0.0021489 -0.002536 -0.0095542 -0.0082007 -0.0096993
-0.0059886 -0.0092476 -0.25948 0.098628
740000000 -0.18946 0.18933 -0.03789 0.027255 0.012967 -0.0053648 -0.00072789 -0.0039114
-0.004482 -0.0033456 -0.0062417 0.003205
-0.037832 0.027217 -0.33455 0.17748 -0.034723 0.035338 -0.00054582 -0.0065099
-0.012066 0.0080567 -0.002813 -0.0060977
0.01288 -0.0054666 -0.03435 0.035544 -0.06762 0.28571 -0.0018552 0.003364
-0.0029282 -0.0043608 -0.0015118 4.0762e-05
-0.00069195 -0.0039258 -0.00062102 -0.0066475 -0.0016792 0.0033331 -0.20269 0.20345
-0.042157 -0.0078186 0.022545 0.013721
-0.0046743 -0.0031321 -0.011987 0.0076487 -0.0026303 -0.0042852 -0.042251 -0.0079611
-0.15775 0.07492 -0.040774 0.00029429
-0.0063186 0.0033434 -0.0026582 -0.0061841 -0.0013505 0.00018197 0.022763 0.014033
-0.041012 0.00074541 -0.24853 0.10289
800000000 -0.15626 0.22899 -0.021765 0.016885 0.0054022 -0.010703 -0.0046804 -0.0019236
-0.0041828 0.0024277 0.0043831 0.00098936
-0.021795 0.016932 -0.33729 0.24805 -0.0075189 0.033911 -0.002286 0.0022948
-0.00097258 0.0033336 0.0011158 0.0053368
0.0052826 -0.010653 -0.0074619 0.034042 -0.026877 0.3084 0.00094412 0.0016819
0.00052751 0.0037354 -0.0017761 0.00091745
-0.004684 -0.0018816 -0.0022212 0.0022118 0.00097015 0.0016339 -0.1744 0.23087
-0.027612 0.013089 0.013461 -0.0099377
-0.0041713 0.002351 -0.0009744 0.0031812 0.00047506 0.0037393 -0.027649 0.013136
-0.20144 0.097693 -0.016557 0.018066
0.0043969 0.00089661 0.0010813 0.0052535 -0.0017014 0.00078821 0.013335 -0.010158
-0.01657 0.018188 -0.23923 0.15357
860000000 -0.1214 0.2488 -0.016735 0.030653 -0.0032064 -0.010031 -0.0022598 0.00094036
0.0037897 0.005104 -0.0028247 -0.0026258
-0.016656 0.030584 -0.28911 0.28974 0.008282 0.034053 1.9149e-06 0.0020823
0.004072 0.00068899 0.0035052 0.00030372
-0.0032236 -0.01003 0.0084617 0.034129 0.020945 0.31626 -0.0004387 -0.00024805
0.0026307 -0.0014844 0.0018153 0.0041343
-0.0022284 0.00096488 2.9975e-05 0.0021582 -0.00051361 -0.00020966 -0.13827 0.24202
-0.017183 0.018308 -0.0062826 -0.0086871
0.003765 0.0049987 0.0042061 0.00062041 0.0026793 -0.0015234 -0.017087 0.018252
-0.15124 0.14572 -0.024018 0.01548
-0.0030657 -0.0024393 0.0036349 0.00053076 0.0017382 0.004203 -0.0059911 -0.0089389
-0.024142 0.015824 -0.1891 0.1954
920000000 -0.096673 0.27121 0.0055083 0.037118 -0.0094403 -0.0045907 -0.0019799 0.0019485
0.0015213 0.0015531 0.002457 -0.0016902
0.0055218 0.037072 -0.26051 0.3102 0.028194 0.021479 0.0014582 0.0011
0.0070435 -0.00060545 0.0038243 -0.0029412
-0.0094736 -0.0046045 0.028223 0.021427 0.067064 0.3168 0.0018415 -0.00019668
0.0012265 -0.00040241 0.00071122 -0.0012494
-0.001936 0.0018945 0.0015976 0.0010686 0.0018639 -0.00024889 -0.11439 0.25836
-0.0098959 0.029916 0.002794 -0.0067404
0.0014732 0.0017603 0.0070763 -0.00070847 0.0012855 -0.00039032 -0.0098821 0.029996
-0.14086 0.15106 -0.0018812 0.027306
0.0025683 -0.0016609 0.0038876 -0.0030183 0.0007563 -0.0012845 0.0027667 -0.0068004
-0.0019059 0.027222 -0.19508 0.21018
980000000 -0.049574 0.29036 0.017683 0.029506 -0.0091231 0.0045028 0.0020903 0.0035781
0.0040132 -0.0015971 -0.0031245 -0.0020427
0.017608 0.02945 -0.20778 0.34389 0.033003 0.004414 0.0019305 1.5003e-05
0.0014548 -0.0064022 -0.0007165 -0.0021933
-0.0090715 0.0045343 0.033029 0.0043542 0.11343 0.31021 0.00049416 -0.0012426
7.608e-05 -0.0021847 0.0013596 1.5896e-05
0.002101 0.0035528 0.0019686 4.4658e-05 0.00048663 -0.0011971 -0.075965 0.26968
0.0076761 0.028802 -0.0089512 -0.0067001
0.0040457 -0.0017132 0.0013155 -0.0063663 9.9041e-05 -0.0021942 0.0077963 0.028836
-0.10907 0.17832 0.0046729 0.018963
-0.0031309 -0.0021367 -0.00064954 -0.0022427 0.0012837 -6.4385e-05 -0.0090718 -0.0068342
0.0047544 0.018815 -0.1514 0.25525
1040000000 -0.0074683 0.29855 0.033107 0.017498 -0.0014 0.0068982 0.0025782 0.00079577
0.00013328 -0.003718 -0.00062008 -0.0016551
0.033027 0.017562 -0.17244 0.35692 0.029098 -0.015125 0.0014881 -0.001711
-0.0025648 -0.0025653 -0.0014768 -0.0028451
-0.0013809 0.0068561 0.029056 -0.015274 0.15962 0.29644 -0.00054604 -0.0014572
-0.0016342 -0.00082961 -0.00056883 -0.0011218
0.0025109 0.00082243 0.0014982 -0.0017176 -0.00053415 -0.0014755 -0.048706 0.2795
0.018737 0.016997 -0.0029183 0.0016136
0.00010379 -0.0035815 -0.0025748 -0.0025963 -0.0015791 -0.00090625 0.018827 0.01695
-0.077973 0.18667 0.013379 0.017695
-0.00067953 -0.0016978 -0.0014516 -0.0028291 -0.00055685 -0.0011053 -0.0029553 0.0014767
0.01342 0.017722 -0.12997 0.27408
1100000000 0.037697 0.30595 0.035577 -0.0048027 0.0027415 0.0038586 0.0024673 -0.0011947
-0.0020799 -0.0031288 -0.0040439 7.9228e-05
0.035511 -0.0047715 -0.12906 0.37386 0.014816 -0.027958 4.9849e-05 -0.001836
-0.0035531 -0.00063455 -0.0035028 -0.00058184
0.0027531 0.0038462 0.014708 -0.028001 0.2061 0.2758 -0.0018113 0.00026038
-0.0018162 0.00073392 -0.00098135 -0.00022515
0.0025217 -0.0011962 6.2957e-05 -0.001803 -0.001847 0.00024643 -0.0084104 0.28454
0.023214 0.0043563 -0.0026117 0.00061311
-0.0020707 -0.003073 -0.0034652 -0.00058368 -0.0018589 0.0006787 0.023253 0.0043214
-0.059632 0.19964 0.018864 0.0083517
-0.0039645 0.00017541 -0.0034378 -0.0004694 -0.00098189 -0.00021303 -0.0026437 0.00066096
0.018783 0.0083233 -0.083203 0.30249
1160000000 0.088913 0.30096 0.023392 -0.021078 0.0025094 -0.00034272 -0.00011191 -0.0023525
-0.0040528 -0.00049812 -0.00091461 0.0038672
0.02336 -0.021032 -0.085527 0.37825 -0.0041477 -0.029117 -0.0017594 -0.0017298
-0.0026924 0.0027288 -0.0012774 0.0017782
0.0025264 -0.00037113 -0.0042993 -0.029118 0.24914 0.24462 -0.00065902 0.0017613
-0.0003605 0.0020018 -0.00082747 0.00023876
-8.3952e-05 -0.0023329 -0.0017678 -0.0017133 -0.00063354 0.001773 0.030624 0.2818
0.01921 -0.010393 -0.0029149 0.0054594
-0.0040289 -0.00051027 -0.0026477 0.0027947 -0.00037665 0.0020082 0.019214 -0.010464
-0.027033 0.20853 0.017422 0.00023893
-0.00093072 0.0038175 -0.0012464 0.0017108 -0.0007985 0.0002424 -0.0029022 0.0054486
0.017415 0.00021925 -0.036078 0.30508
1220000000 0.13319 0.2897 0.0096595 -0.03003 -0.0016154 -0.00059845 5.2925e-05 -0.0011395
-0.0026846 0.0024687 0.0013654 0.0019308
0.0096306 -0.029993 -0.041244 0.39013 -0.017169 -0.020926 -0.0025657 0.00042075
0.00024546 0.0031226 -0.00068392 0.0018111
-0.0016442 -0.00057634 -0.01727 -0.020874 0.28801 0.20504 0.00088954 0.0017125
0.00063974 0.0011386 0.00026388 0.00071148
6.7463e-05 -0.0011325 -0.0025333 0.00043797 0.00090572 0.0017351 0.070428 0.2736
0.0089415 -0.016218 0.0022213 0.0019331
-0.0026255 0.0025314 0.00026578 0.0030991 0.00064491 0.001163 0.0089278 -0.016231
-0.0041779 0.21789 0.013239 -0.012712
0.0013447 0.0019393 -0.00066971 0.0019263 0.00030879 0.00074565 0.0022261 0.0018928
0.013241 -0.012742 -0.0048263 0.32058
1280000000 0.1828 0.26742 -0.0085557 -0.02811 -0.0017224 0.0027855 -0.00094944 -0.0021148
-0.00071804 0.0031661 0.0026491 0.0010704
-0.0085178 -0.028078 0.0047814 0.38108 -0.023847 -0.0081751 -0.0010471 0.0014941
0.001825 0.0017525 0.00065329 0.0019838
-0.0017321 0.0028017 -0.02389 -0.0080629 0.31803 0.16106 0.0014995 -0.00018546
0.0011237 3.2868e-05 0.00031272 0.0002932
-0.00095696 -0.0021088 -0.0010124 0.0015259 0.0015294 -0.00020135 0.10693 0.25753
-0.00011858 -0.017747 0.00033381 0.00035544
-0.00071727 0.0031477 0.0018589 0.0017159 0.0011614 -1.2379e-06 -0.00016679 -0.017676
0.03246 0.22208 0.0025866 -0.01469
0.0026006 0.0010466 0.00063694 0.0019256 0.0003214 0.00033074 0.000321 0.00036801
0.0025995 -0.014588 0.043118 0.3211
1340000000 0.21974 0.23344 -0.018095 -0.018245 0.0010995 0.0045887 -0.0019291 -0.00086344
0.001477 0.0027524 0.0017937 -0.0016004
-0.018052 -0.018242 0.044388 0.37263 -0.02154 0.0045212 -4.9079e-05 0.0020493
0.0018983 0.00052928 0.001349 0.00078194
0.0010966 0.0045747 -0.021577 0.0046577 0.33975 0.11309 0.0010182 -0.00096215
0.00065164 -0.00045499 8.5149e-05 0.00021277
-0.0019609 -0.00087119 -3.3605e-05 0.0020384 0.0010444 -0.00097373 0.13995 0.23754
-0.0085806 -0.014472 0.0011325 0.00039874
0.0014742 0.0027171 0.001942 0.00051294 0.00063465 -0.00045247 -0.008591 -0.014426
0.062756 0.21774 -0.0039161 -0.013136
0.0017865 -0.00157 0.0013295 0.00083726 0.00010529 0.00020088 0.0011782 0.00039014
-0.0039347 -0.013138 0.081513 0.31555
1400000000 0.25262 0.19499 -0.023361 -0.006672 0.0053958 0.003092 -0.0021328 0.00072404
0.0026027 0.00083282 0.00027323 -0.0015379
-0.02335 -0.0066721 0.081517 0.35937 -0.014664 0.012639 0.0014165 0.001275
0.0010528 -0.0010304 0.0011896 0.00014413
0.0054299 0.0030541 -0.014602 0.012722 0.35248 0.059855 -7.7779e-06 -0.0015705
5.1818e-05 -0.00033607 0.00035674 0.00013974
-0.0021205 0.00073562 0.0014373 0.0012614 1.0745e-05 -0.0015643 0.1698 0.20907
-0.013688 -0.0078631 -0.00039089 -0.00034843
0.0026058 0.00081048 0.001039 -0.0010088 -2.1254e-05 -0.00032075 -0.013722 -0.007826
0.095762 0.21333 -0.010158 -0.0082316
0.00020025 -0.0014994 0.0011909 0.00016363 0.00039796 0.00021123 -0.00043115 -0.00035224
-0.010207 -0.0082259 0.12548 0.3042
1460000000 0.27513 0.15063 -0.020002 0.0053787 0.0057517 -0.0019204 -0.001511 0.0018547
0.0021025 -0.00074404 -0.00044274 -0.00085461
-0.019994 0.005362 0.11566 0.33731 -0.0058662 0.015421 0.001729 0.00013405
0.00072307 -0.0012209 0.0012148 -0.00070252
0.0057233 -0.0019105 -0.0057899 0.015465 0.35845 0.0058113 -0.0012225 -0.0011882
0.00019523 -0.00013014 0.00078064 -0.00034498
-0.0015356 0.001855 0.0017395 0.00011044 -0.0012271 -0.0012027 0.19676 0.18003
-0.013922 -0.0017227 -0.00087835 0.0016175
0.0021092 -0.00072211 0.0007023 -0.0012272 0.00019648 -0.00011263 -0.013913 -0.0016487
0.12584 0.19879 -0.011746 -0.0025574
-0.00042985 -0.00083971 0.0011751 -0.00067911 0.00077387 -0.00029012 -0.00087559 0.0015826
-0.011689 -0.0024906 0.1587 0.28244
1520000000 0.28696 0.10877 -0.014047 0.010672 0.0032824 -0.0043767 0.00018262 0.0026552
0.0018728 -0.0018307 -0.0011805 -4.9478e-05
-0.01405 0.010654 0.14904 0.32237 0.0017398 0.013115 0.0016059 -0.00085524
-3.5159e-05 -0.00083965 0.00031678 -0.0010421
0.0032501 -0.0044021 0.0018231 0.01312 0.35174 -0.050252 -0.0010132 -0.00023114
0.0005769 -0.00084146 9.2051e-06 -0.00011383
0.00019913 0.002663 0.0015939 -0.00086129 -0.0010163 -0.000275 0.22054 0.14174
-0.012706 0.0031986 0.0014095 0.0017319
0.001848 -0.0018362 -3.2518e-05 -0.00084984 0.00056424 -0.00083887 -0.012687 0.0032256
0.15422 0.18435 -0.011424 0.0019912
-0.0011987 -4.64e-05 0.00030543 -0.0010241 -3.1468e-05 -8.2993e-05 0.0013874 0.0017462
-0.011412 0.0019774 0.1914 0.26151
1580000000 0.29575 0.06237 -0.0073464 0.01337 -0.00097477 -0.0050384 0.0015208 0.0018502
-0.00045217 -0.0022072 -0.00035732 0.00042453
-0.0073452 0.013353 0.17613 0.29747 0.0053564 0.0082027 0.00041805 -0.0015796
-0.00040731 -0.00088515 -0.00024228 -0.00087233
-0.00097835 -0.0050255 0.0054232 0.0081582 0.33161 -0.10755 -0.0014713 0.0005842
-0.00030995 -0.0011444 0.00014903 -0.00054024
0.001517 0.0018392 0.00041048 -0.0016029 -0.0014837 0.00058306 0.23497 0.10201
-0.0092911 0.0070163 0.0021087 0.00051076
-0.00047602 -0.0022077 -0.00041516 -0.00087345 -0.00032892 -0.0011576 -0.0092813 0.0070495
0.17908 0.16586 -0.0088865 0.0073773
-0.00031807 0.0004571 -0.00026252 -0.00086308 0.00015441 -0.0006074 0.0020846 0.00050204
-0.0088843 0.00741 0.22288 0.23426
1640000000 0.29729 0.020988 -0.00080606 0.011916 -0.0028907 -0.0027086 0.0026436 0.00089241
-0.00092188 -0.0012863 -0.00016683 0.00065596
-0.00080781 0.011899 0.20543 0.27231 0.0059896 0.0033545 -0.00076624 -0.0016569
-0.00081648 -0.0004148 -0.00052671 -0.00065812
-0.0029184 -0.0026952 0.0060117 0.0033257 0.30359 -0.15697 -0.00066535 0.0013631
-0.0010582 -0.00086032 -0.00017026 -0.00030069
0.0026345 0.00090471 -0.00077191 -0.001653 -0.00068275 0.00137 0.24754 0.052549
-0.0054407 0.0074729 0.002273 -0.00087657
-0.00094509 -0.0012861 -0.00082814 -0.00041851 -0.0010561 -0.00089202 -0.0054149 0.0075111
0.20225 0.14055 -0.0041617 0.0093104
-0.00017789 0.000618 -0.0005345 -0.00065682 -0.00014756 -0.00032998 0.0022719 -0.00091034
-0.0041136 0.009312 0.24813 0.20261
1700000000 0.28951 -0.024069 0.0023349 0.0089167 -0.003644 1.3372e-05 0.0029366 -0.0012575
-0.0019704 -0.00046944 0.00068836 0.00034381
0.002338 0.0089058 0.22333 0.24069 0.0039636 0.00045208 -0.0014301 -0.00050745
-0.00070538 -9.4947e-05 -0.00095273 -0.0004222
-0.003649 7.0551e-05 0.0039666 0.00041997 0.2599 -0.19698 0.00040693 0.0014777
-0.0017847 -0.000205 -0.00063587 -0.00095097
0.00293 -0.0012652 -0.0014357 -0.00051449 0.00047744 0.0014416 0.24419 0.0020263
-0.0034694 0.0073738 0.001227 -0.0022887
-0.0019994 -0.000442 -0.00071766 -0.00010552 -0.0017327 -0.00018382 -0.0034805 0.0073777
0.21967 0.11889 0.00041169 0.0093829
0.00068828 0.00035026 -0.00096038 -0.00040886 -0.00061846 -0.00090802 0.0012264 -0.0022854
0.00040899 0.0094217 0.26414 0.16816
1760000000 0.27701 -0.072234 0.004316 0.0056212 -0.002439 0.000968 0.0011704 -0.0034134
-0.0011377 0.00075882 0.00031041 -0.00062326
0.0043 0.0056104 0.2491 0.20078 0.0016623 -0.0013172 -0.0011247 0.00027328
-0.0011936 0.00076662 -0.00064458 0.00049133
-0.0024169 0.00093331 0.0016544 -0.001335 0.21115 -0.23019 0.0010795 0.0011433
-0.0011521 0.0014308 -0.0013979 -0.00039719
0.0011762 -0.003401 -0.0011309 0.00025904 0.0010728 0.0011659 0.23452 -0.04995
-0.0011301 0.0064541 -0.00045558 -0.0024075
-0.0011112 0.00077394 -0.0011648 0.00075104 -0.0011293 0.0013998 -0.0010708 0.0064734
0.2345 0.082409 0.0042055 0.0067204
0.00032643 -0.00058734 -0.000634 0.00051877 -0.0013585 -0.00046412 -0.00048604 -0.0023845
0.0042199 0.0066865 0.27629 0.13002
1820000000 0.25215 -0.10938 0.0042482 0.0022201 -0.00011016 0.0025226 -0.001004 -0.0030762
-0.00077556 0.00070678 -0.00013828 -0.00010664
0.0042556 0.0022283 0.25882 0.17064 -0.00042227 -0.00014557 -0.0013056 0.00085986
-0.00025034 0.0012611 -0.00054441 0.00056241
-8.8722e-05 0.0025309 -0.00043684 -0.00018128 0.16073 -0.24604 0.001559 0.00037937
-0.00032543 0.0020906 -0.0014368 0.00057236
-0.0010242 -0.0030868 -0.0012997 0.00086104 0.0015178 0.00034266 0.20394 -0.097383
-0.00042128 0.0050984 -0.00174 -0.0014323
-0.00077191 0.00073321 -0.00024561 0.0012761 -0.0003193 0.0021716 -0.00039683 0.0050918
0.25066 0.051567 0.0050775 0.0030725
-0.00014567 -0.00012303 -0.00054735 0.00056278 -0.001399 0.00062175 -0.0017614 -0.0013732
0.0050424 0.0031239 0.27796 0.093482
1880000000 0.21687 -0.1492 0.0019358 0.00018651 -0.00048236 0.0022337 -0.002923 -0.0022147
-0.0001447 0.0014445 0.00027443 -0.00045236
0.0019296 0.00017196 0.26303 0.12412 -0.0023927 0.0015603 -0.00015711 0.0016489
0.00049168 0.0014314 0.0001622 0.00099581
-0.00044894 0.0022044 -0.002384 0.0015803 0.10855 -0.25553 0.0018693 -0.00087352
0.0014593 0.002007 -0.0009343 0.0014445
-0.0029256 -0.0021648 -0.00013064 0.0016445 0.0019739 -0.0009066 0.16222 -0.13707
-0.00052181 0.0037074 -0.0025273 0.00060261
-0.00016153 0.0014839 0.00052166 0.0014461 0.001493 0.0020282 -0.00049478 0.0036984
0.25212 0.01731 0.0046143 0.00088479
0.0002462 -0.00040815 0.00019342 0.00099523 -0.00087157 0.001397 -0.0024906 0.00058885
0.0046078 0.00089819 0.27693 0.059062
1940000000 0.17746 -0.17489 -0.00028088 -0.0013317 0.0013184 0.0020828 -0.0036689 0.00060466
0.0011912 0.0010488 -0.00062461 -0.00039609
-0.00027298 -0.0013323 0.26336 0.092315 -0.0012924 0.0038761 0.00095478 0.0013003
0.0019593 0.00074069 0.00085326 0.00031948
0.001318 0.0021001 -0.0012838 0.0038638 0.062531 -0.24907 0.00050796 -0.0022815
0.0024328 0.00052959 0.0005463 0.001677
-0.0036711 0.00058472 0.00097182 0.0013303 0.00047908 -0.0022744 0.10938 -0.16692
-0.0018439 0.0031553 -0.0014397 0.0018868
0.0011544 0.0010141 0.0019472 0.00074202 0.0024172 0.00059154 -0.0018621 0.003201
0.25183 -0.023105 0.0031009 -0.0022014
-0.00056215 -0.00047469 0.00090808 0.00031401 0.00048628 0.0017465 -0.0015658 0.0019488
0.0030933 -0.0022985 0.2649 0.022985
2000000000 0.13096 -0.18915 -0.0040675 0.00082287 0.0024838 0.0016628 -0.0023735 0.0037158
0.00087325 0.00032368 -0.00050805 0.00046214
-0.0040878 0.00081904 0.24894 0.056907 -0.001007 0.00581 0.00162 0.00038316
0.0016109 -0.0013215 0.00058999 0.00015681
0.0025192 0.001602 -0.00094897 0.0057844 0.018857 -0.23441 -0.0013778 -0.0014012
0.0019751 -0.0011675 0.0016047 0.0013123
-0.0023335 0.00374 0.0016559 0.00039596 -0.0013523 -0.0014299 0.056027 -0.17559
-0.0033643 0.0041517 6.2837e-05 0.0024114
0.0009102 0.00027151 0.0016059 -0.0013273 0.0020406 -0.0012024 -0.0033218 0.0041785
