!Keysight Technologies,M9804A,MY58100912,A.14.10.03
!Date: Thursday, April 27, 2023 10:28:33
!Correction: S11(C  6-Port  ) 
!S12(C  6-Port  ) 
!S13(C  6-Port  ) 
!S14(C  6-Port  ) 
!S15(C  6-Port  ) 
!S16(C  6-Port  ) 
!S21(C  6-Port  ) 
!S22(C  6-Port  ) 
!S23(C  6-Port  ) 
!S24(C  6-Port  ) 
!S25(C  6-Port  ) 
!S26(C  6-Port  ) 
!S31(C  6-Port  ) 
!S32(C  6-Port  ) 
!S33(C  6-Port  ) 
!S34(C  6-Port  ) 
!S35(C  6-Port  ) 
!S36(C  6-Port  ) 
!S41(C  6-Port  ) 
!S42(C  6-Port  ) 
!S43(C  6-Port  ) 
!S44(C  6-Port  ) 
!S45(C  6-Port  ) 
!S46(C  6-Port  ) 
!S51(C  6-Port  ) 
!S52(C  6-Port  ) 
!S53(C  6-Port  ) 
!S54(C  6-Port  ) 
!S55(C  6-Port  ) 
!S56(C  6-Port  ) 
!S61(C  6-Port  ) 
!S62(C  6-Port  ) 
!S63(C  6-Port  ) 
!S64(C  6-Port  ) 
!S65(C  6-Port  ) 
!S66(C  6-Port  ) 
!S6P File: Measurement: :
# Hz S  RI   R 50
500000000 -0.33793 -0.036445 -0.0098508 -0.0032317 -0.0078201 0.01188 -0.0035291 0.011533
0.012196 0.0043775 -0.0036609 0.0079005
-0.009844 -0.0032237 -0.41897 -0.049956 0.0078899 -0.011336 0.0016489 0.012088
0.0072805 0.0023718 0.0009608 0.013215
-0.0077978 0.011888 0.0078627 -0.011358 -0.2644 0.21057 0.0072156 0.0032024
-0.00064408 0.0082986 0.00070036 0.012105
-0.0035507 0.011565 0.001689 0.012062 0.0072175 0.003171 -0.32706 0.046455
-0.020172 -0.0046563 0.01816 0.025492
0.012309 0.0043544 0.0072524 0.0023861 -0.00061496 0.0083548 -0.020165 -0.0046373
-0.22642 -0.18466 -0.028019 0.004513
-0.003629 0.007917 0.0010226 0.013185 0.00072747 0.012074 0.018168 0.025496
-0.028014 0.0044728 -0.27187 -0.1157
560000000 -0.31694 0.12441 -0.023644 -0.062643 0.00033359 0.012045 0.0065379 0.010007
0.010468 0.0043527 0.010283 0.0076283
-0.023608 -0.062571 -0.37561 0.10828 -0.04249 -0.036892 0.013336 0.0036003
-0.013204 -0.0046591 0.004202 -0.00064786
0.00036848 0.012051 -0.042635 -0.036816 -0.18244 0.25793 -0.00059588 -0.0046477
0.01909 0.0044175 0.0070216 -0.0062141
0.0064383 0.010039 0.01349 0.0037095 -0.00062157 -0.0047128 -0.30291 0.13505
0.0043091 -0.024888 0.0045246 -0.019651
0.010448 0.0042874 -0.013385 -0.0046814 0.019128 0.0043957 0.0043003 -0.024887
-0.28651 -0.010014 0.0078456 -0.050186
0.010284 0.0075838 0.0041354 -0.00069624 0.0070625 -0.006171 0.0045003 -0.019653
0.0078372 -0.05019 -0.33087 0.030709
620000000 -0.27443 0.10929 -0.022716 0.0073197 0.0034566 0.0080917 0.0069356 -0.0056006
0.011312 -0.00038751 0.00010357 -0.0020222
-0.022711 0.0073191 -0.40263 0.061538 -0.018989 -0.00029272 -0.0011952 -0.0020471
0.01044 -0.0071678 0.0010654 -0.0026539
0.0034726 0.0080951 -0.019017 -0.00024119 -0.1531 0.26717 -0.0016707 -0.00513
-0.0036071 -0.0031698 0.0081138 -0.003497
0.0069234 -0.0055849 -0.0012115 -0.0020077 -0.0016691 -0.0051241 -0.26237 0.14576
-0.038724 -0.019115 0.013984 0.024232
0.011319 -0.00048399 0.010416 -0.0072856 -0.0036644 -0.0031886 -0.038721 -0.0191
-0.2054 -0.04902 -0.040406 0.01419
0.00026794 -0.0020696 0.0011132 -0.0027296 0.0080671 -0.0035913 0.014007 0.024227
-0.040445 0.014139 -0.25006 -0.0050257
680000000 -0.23355 0.1941 -0.027557 -0.014035 0.004795 0.0049699 0.0011996 -0.0073565
-0.0031692 -0.011091 0.0046096 -0.0067199
-0.027523 -0.01405 -0.38741 0.15865 -0.033011 -0.0013932 -0.0017752 -0.0002492
-0.0027396 -0.0089319 -0.0010872 -0.0019624
0.0048083 0.0049604 -0.033045 -0.0013091 -0.10239 0.28681 -0.00066542 0.00020506
-0.0023198 0.00069081 -0.0029279 -0.0095691
0.0011827 -0.0073834 -0.0017966 -0.00023565 -0.00068133 0.00020554 -0.21996 0.19466
-0.023778 -0.0083408 -0.0088218 -0.01012
-0.0032371 -0.011146 -0.0027679 -0.0088991 -0.0023261 0.00067592 -0.023786 -0.0083379
-0.25339 0.048776 -0.0058681 -0.0094912
0.0046191 -0.0066968 -0.0010699 -0.0019753 -0.0029167 -0.0095687 -0.00881 -0.010082
-0.0058658 -0.0095041 -0.25848 0.096744
740000000 -0.1895 0.18881 -0.038572 0.026506 0.012519 -0.0052386 -0.00072727 -0.0039536
-0.0045768 -0.0029326 -0.0062424 0.0035649
-0.038534 0.026467 -0.33513 0.17738 -0.035073 0.035316 -0.00057389 -0.0064049
-0.011967 0.0078788 -0.0024581 -0.0058774
0.012489 -0.0052668 -0.034996 0.035432 -0.068962 0.28582 -0.00146 0.0034807
-0.0024924 -0.0041649 -0.0014703 0.00028276
-0.00077132 -0.0039638 -0.00060872 -0.0063986 -0.0014531 0.003461 -0.20298 0.20255
-0.042843 -0.0082652 0.021914 0.01373
-0.0045912 -0.0029523 -0.011923 0.0080172 -0.0025263 -0.0041714 -0.042859 -0.008239
-0.15854 0.074121 -0.04126 0.00024446
-0.0062554 0.0035287 -0.0024039 -0.005951 -0.0014383 0.00032148 0.021939 0.013723
-0.041254 0.00021634 -0.24717 0.10299
800000000 -0.15688 0.22851 -0.022558 0.016893 0.005199 -0.010519 -0.00483 -0.0019303
-0.0039685 0.0027123 0.0044287 0.00097228
-0.022551 0.01686 -0.33797 0.24804 -0.0078902 0.034203 -0.0020775 0.0022384
-0.00071226 0.0033443 0.0012166 0.0053116
0.0051762 -0.010535 -0.0078033 0.034262 -0.027755 0.30905 0.0010938 0.0014458
0.00068159 0.0035736 -0.0018477 0.00092545
-0.0048396 -0.0019075 -0.0020688 0.0022468 0.001087 0.0014552 -0.17513 0.23025
-0.028479 0.012681 0.012917 -0.0098064
-0.0039109 0.0027364 -0.00065964 0.0033762 0.00072014 0.0035706 -0.028484 0.012747
-0.20174 0.097476 -0.017237 0.017625
0.0044465 0.00098522 0.0012291 0.005352 -0.0018726 0.00092081 0.012918 -0.0098201
-0.01725 0.0176 -0.23866 0.15425
860000000 -0.12217 0.24896 -0.017462 0.030965 -0.0034412 -0.0098532 -0.0023756 0.0010893
0.0040566 0.0050097 -0.0029963 -0.0026787
-0.017467 0.030944 -0.29005 0.29006 0.008139 0.034271 0.00012786 0.0020658
0.0042783 0.00027063 0.0035741 0.00042644
-0.0034673 -0.0098469 0.0082465 0.034284 0.020739 0.31701 -0.00049013 -0.00034365
0.0028439 -0.0015261 0.0017093 0.0043762
-0.0023586 0.0011111 0.00012502 0.0021104 -0.00049662 -0.00034314 -0.13922 0.24206
-0.01815 0.01871 -0.0061091 -0.008815
0.0041049 0.0050394 0.0042781 0.00031845 0.0028207 -0.0015374 -0.018138 0.018737
-0.15233 0.14595 -0.024264 0.015608
-0.0029871 -0.0026906 0.0035645 0.00038601 0.0017159 0.0043773 -0.0060998 -0.0087842
-0.024252 0.015617 -0.18909 0.19646
920000000 -0.097059 0.27202 0.0051713 0.037849 -0.0094391 -0.0042205 -0.0017916 0.0022222
0.0014471 0.0016491 0.0023701 -0.0016306
0.0051545 0.037823 -0.26082 0.31107 0.028136 0.021807 0.0016205 0.0010859
0.0067897 -0.000757 0.0038268 -0.0030249
-0.0094537 -0.0041982 0.028225 0.021747 0.067301 0.3174 0.0017683 -0.00013402
0.0012338 -0.00040158 0.00092514 -0.0010536
-0.0017825 0.0022009 0.0016245 0.0010782 0.0017782 -0.00014143 -0.11514 0.25871
-0.010465 0.030339 0.002661 -0.0066041
0.0014542 0.0016214 0.0067733 -0.00077745 0.0012384 -0.00041106 -0.010435 0.030388
-0.14142 0.15189 -0.0022508 0.027398
0.0024007 -0.0015916 0.0037924 -0.0030283 0.00091745 -0.001055 0.002687 -0.0066049
-0.0022451 0.027383 -0.19421 0.21099
980000000 -0.04956 0.2914 0.017729 0.030092 -0.0089001 0.0047696 0.0023551 0.0036484
0.0039888 -0.0018184 -0.0030981 -0.0020664
0.017706 0.030097 -0.20785 0.34485 0.033044 0.0046106 0.0019466 4.1209e-06
0.0012428 -0.006113 -0.00062245 -0.0021729
-0.0088779 0.0048002 0.03307 0.0044988 0.11373 0.31055 0.00046876 -0.001167
0.00013215 -0.0020861 0.0015397 -2.0007e-05
0.0023755 0.0036608 0.0019368 -1.8943e-05 0.00046721 -0.0011609 -0.076591 0.27068
0.0074849 0.029266 -0.0090715 -0.0065389
0.0039714 -0.0018323 0.0011966 -0.0061752 0.00012435 -0.0020978 0.0075271 0.029261
-0.10956 0.17948 0.0049188 0.019257
-0.0031029 -0.0020492 -0.00064521 -0.0022035 0.0015467 -2.2356e-05 -0.0090767 -0.0065302
0.0049246 0.01922 -0.15111 0.25583
1040000000 -0.0069919 0.29944 0.033277 0.017953 -0.0010631 0.0069686 0.0026921 0.00064701
-5.5279e-05 -0.0036297 -0.00059353 -0.0015482
0.033255 0.017973 -0.1722 0.35777 0.029178 -0.014965 0.0014999 -0.0017144
-0.0025701 -0.0023226 -0.0013866 -0.0027159
-0.0010334 0.0069626 0.02913 -0.015066 0.15986 0.2965 -0.00049733 -0.0014334
-0.0015487 -0.00080501 -0.00032833 -0.0011899
0.0027125 0.00063658 0.0014801 -0.0017329 -0.00051037 -0.0014218 -0.048761 0.28058
0.018799 0.017628 -0.0028924 0.00202
-4.7304e-05 -0.0036203 -0.0025799 -0.0022952 -0.0015502 -0.00080896 0.018836 0.017599
-0.077989 0.18803 0.013523 0.018183
-0.00059486 -0.0015397 -0.0014224 -0.0027337 -0.00032197 -0.0011901 -0.0028932 0.0020192
0.013512 0.018182 -0.12919 0.27508
1100000000 0.038539 0.30659 0.035869 -0.0044512 0.003051 0.0038106 0.0025029 -0.0014438
-0.002154 -0.0030161 -0.0038536 0.00016952
0.035846 -0.0044217 -0.12851 0.37472 0.014902 -0.027758 -6.7213e-06 -0.0017889
-0.0031813 -0.00047436 -0.0033381 -0.00049436
0.0030795 0.0038025 0.014798 -0.027836 0.2061 0.27589 -0.0017487 0.00024882
-0.0017224 0.00063565 -0.00096736 -0.00043458
0.0024966 -0.0014302 -2.6657e-05 -0.0017999 -0.0017615 0.00024083 -0.0080184 0.28564
0.023343 0.0049621 -0.002236 0.00086506
-0.0021704 -0.0030159 -0.003204 -0.00047071 -0.0017284 0.00063058 0.023354 0.0049238
-0.059377 0.20125 0.018902 0.0085181
-0.0038405 0.00016922 -0.0033418 -0.00049921 -0.00095442 -0.0004259 -0.0022523 0.00085592
0.018896 0.0085251 -0.082325 0.30308
1160000000 0.089966 0.30125 0.023878 -0.020887 0.002854 -0.00057194 -0.00024598 -0.0024871
-0.0039827 -0.00050794 -0.00089961 0.0037272
0.023888 -0.020841 -0.084532 0.3787 -0.0038806 -0.02893 -0.0017096 -0.0016155
-0.0024373 0.0025838 -0.0011425 0.0016538
0.0028608 -0.00058346 -0.0040213 -0.028935 0.24911 0.2449 -0.00059686 0.0016895
-0.00039868 0.0018113 -0.0010475 8.7228e-05
-0.00027139 -0.0024712 -0.001739 -0.0016327 -0.00058926 0.0016821 0.031713 0.28253
0.019814 -0.0099521 -0.002569 0.0054648
-0.0039983 -0.00048342 -0.0024348 0.0025937 -0.00041216 0.0018188 0.019798 -0.0099891
-0.026038 0.21038 0.017517 0.00045228
-0.00086306 0.0037496 -0.0011289 0.0016456 -0.0010478 8.6871e-05 -0.0025563 0.0054785
0.017512 0.00045194 -0.035453 0.30572
1220000000 0.13422 0.28948 0.010242 -0.030012 -0.0014713 -0.00095189 -0.00011227 -0.0010473
-0.0025302 0.0025325 0.0013325 0.0018163
0.010262 -0.029972 -0.040249 0.39028 -0.016858 -0.02088 -0.0024473 0.00047282
0.00021131 0.0028582 -0.00071339 0.0017836
-0.0014699 -0.00094914 -0.016966 -0.020823 0.28816 0.20566 0.00084712 0.0015532
0.0005355 0.001094 0.00019689 0.00077757
-0.00011321 -0.0010424 -0.002453 0.00047262 0.00084914 0.0015478 0.071491 0.27378
0.0095917 -0.015932 0.0026662 0.0016095
-0.0025168 0.0025523 0.00023544 0.0028575 0.00052759 0.0010873 0.0095794 -0.015961
-0.0025894 0.21932 0.013567 -0.012399
0.0013305 0.0018172 -0.00070216 0.0017746 0.00018155 0.00076022 0.0026625 0.0016112
0.013554 -0.012399 -0.0034901 0.32107
1280000000 0.18368 0.26704 -0.0079427 -0.028353 -0.0018599 0.0023487 -0.0010289 -0.0019058
-0.00063408 0.0030027 0.0024486 0.00093691
-0.0079206 -0.028335 0.0057074 0.3809 -0.023491 -0.0082918 -0.00092517 0.0014358
0.0016094 0.0015849 0.00055679 0.0019177
-0.0018596 0.0023581 -0.023551 -0.0081969 0.31862 0.16165 0.0013798 -0.00019211
0.0010409 0.00010771 0.00025508 0.00044865
-0.0010289 -0.0018983 -0.0009286 0.0014433 0.0013747 -0.000187 0.10797 0.25733
0.00062008 -0.017725 0.00041582 2.7895e-05
-0.00061186 0.0030169 0.0016106 0.001583 0.0010505 0.00011336 0.00058905 -0.017722
0.034549 0.22292 0.0029141 -0.014512
0.0024379 0.00092562 0.000569 0.0019157 0.00026673 0.00044299 0.00041842 2.9738e-05
0.0029149 -0.01452 0.044031 0.32137
1340000000 0.22042 0.23273 -0.017646 -0.018906 0.00073388 0.0043019 -0.0017997 -0.00076465
0.0014512 0.0026132 0.0016682 -0.0015008
-0.017612 -0.018892 0.045068 0.37223 -0.02132 0.0042363 -6.3136e-05 0.0019373
0.0017144 0.00067603 0.0013094 0.00088183
0.00075148 0.0042958 -0.021319 0.0043397 0.34067 0.11337 0.00094728 -0.00085321
0.00065116 -0.00038905 0.00016225 0.000288
-0.001804 -0.00075268 -5.2909e-05 0.0019282 0.00094472 -0.00085174 0.14067 0.23693
-0.0078612 -0.014922 0.0011674 4.7613e-05
0.0014657 0.0026084 0.0017081 0.00066136 0.00065252 -0.00039019 -0.0078877 -0.01491
0.06507 0.21787 -0.0033757 -0.013172
0.001673 -0.0015152 0.0013157 0.00088128 0.00016424 0.00028636 0.0011747 4.4958e-05
-0.0033837 -0.013161 0.082491 0.31583
1400000000 0.25284 0.19413 -0.02335 -0.0074586 0.0049795 0.0030446 -0.0019539 0.00065017
0.0025072 0.00074405 0.00018147 -0.0013887
-0.023318 -0.0074663 0.08193 0.35883 -0.014601 0.012175 0.0012925 0.0012509
0.0010035 -0.00078666 0.0011739 0.00017888
0.0049962 0.0030193 -0.01457 0.012259 0.35359 0.059684 5.7562e-05 -0.0013925
5.2664e-05 -0.00035367 0.00039667 0.0001804
-0.0019556 0.00066416 0.0012997 0.0012504 5.7579e-05 -0.0013915 0.17015 0.20843
-0.013128 -0.0086126 -0.00062416 -0.00069788
0.0025093 0.00073683 0.00099917 -0.0007914 3.3922e-05 -0.0003511 -0.013145 -0.0085872
0.097889 0.21271 -0.0097087 -0.0084814
0.00017469 -0.001378 0.00118 0.00017413 0.00040202 0.00017437 -0.00062599 -0.00069466
-0.009692 -0.0084873 0.1266 0.30409
1460000000 0.27501 0.14997 -0.020424 0.0046567 0.0054435 -0.0017076 -0.001494 0.0016926
0.0020003 -0.00072354 -0.00036771 -0.00082048
-0.020411 0.0046308 0.11586 0.33679 -0.0061033 0.015015 0.0016534 0.00018907
0.00088374 -0.001138 0.0011916 -0.0006908
0.005433 -0.0017271 -0.0060416 0.015066 0.35927 0.0050227 -0.0011062 -0.0012052
0.00017977 -0.00013526 0.00078587 -0.00034617
-0.0014819 0.0016984 0.0016569 0.00017103 -0.0011016 -0.0012053 0.19687 0.17936
-0.013827 -0.0027469 -0.0011425 0.0015072
0.0019886 -0.0007371 0.0008815 -0.0011443 0.00018927 -0.00013857 -0.013838 -0.0027122
0.12753 0.19759 -0.011465 -0.002937
-0.00037153 -0.00081727 0.0011865 -0.00068855 0.00077672 -0.00035644 -0.0011539 0.0015073
-0.01148 -0.0029396 0.15984 0.28231
1520000000 0.28661 0.10837 -0.014781 0.010315 0.0030695 -0.0040858 9.0574e-05 0.0025339
0.0017793 -0.0016898 -0.001131 -5.442e-05
-0.014773 0.010299 0.14907 0.32192 0.0013654 0.012929 0.0015919 -0.00076063
6.2465e-05 -0.00089995 0.00027531 -0.0010279
0.0030521 -0.0040983 0.0014283 0.01294 0.35223 -0.051203 -0.00094523 -0.00036412
0.0005144 -0.00083135 -2.6578e-05 -7.4175e-05
8.8391e-05 0.0025424 0.0015894 -0.00077087 -0.00094657 -0.00035865 0.22044 0.14129
-0.013226 0.0022543 0.0010551 0.0017875
0.0017631 -0.0017015 6.1025e-05 -0.00091497 0.00051424 -0.00083899 -0.013234 0.0022869
0.15518 0.18281 -0.011401 0.0014451
-0.0011355 -5.2843e-05 0.00026776 -0.0010366 -2.2545e-05 -8.2542e-05 0.0010601 0.0017757
-0.011409 0.001436 0.19246 0.26102
1580000000 0.2955 0.062355 -0.0081199 0.013433 -0.00095768 -0.0046571 0.0013462 0.0018308
-0.00041365 -0.0021056 -0.00033132 0.00038348
-0.0081313 0.013424 0.17602 0.29717 0.0049446 0.0082343 0.00047357 -0.0015533
-0.00043177 -0.0010217 -0.00027593 -0.0008385
-0.00098511 -0.0046422 0.0049955 0.0082259 0.33152 -0.10859 -0.001485 0.00040462
-0.00027483 -0.0010901 0.00016872 -0.00056417
0.0013625 0.0018271 0.00047216 -0.0015553 -0.0015006 0.00041253 0.23485 0.10166
-0.010213 0.0064393 0.0018546 0.0006869
-0.00043545 -0.0021019 -0.00044411 -0.0010172 -0.00027826 -0.0010815 -0.010202 0.0064757
0.17947 0.16434 -0.0091019 0.0069075
-0.00033024 0.00038797 -0.00027533 -0.00083563 0.00017197 -0.00056684 0.0018661 0.0006835
-0.0091075 0.006899 0.22385 0.23363
1640000000 0.2973 0.021112 -0.0014206 0.01234 -0.0027087 -0.0023943 0.0025782 0.0010206
-0.00077775 -0.0012321 -0.00026343 0.00064326
-0.0014214 0.012335 0.20535 0.27208 0.0056344 0.0035636 -0.00069105 -0.001651
-0.00095909 -0.00042681 -0.00054074 -0.00060721
-0.0027136 -0.0023879 0.0056629 0.0035307 0.30324 -0.15789 -0.00078379 0.001322
-0.0010368 -0.00090908 -0.00011978 -0.00033084
0.0025904 0.0010206 -0.000703 -0.0016537 -0.00077919 0.0013176 0.24737 0.052224
-0.0065242 0.0074234 0.0021915 -0.00063449
-0.00078902 -0.0012376 -0.00096469 -0.00041523 -0.0010387 -0.00089758 -0.0065074 0.0074448
0.2022 0.13922 -0.0045347 0.0089778
-0.00025524 0.00064221 -0.00053642 -0.00059511 -0.00011304 -0.0003328 0.0021885 -0.0006465
-0.004527 0.0089737 0.24905 0.2018
1700000000 0.28978 -0.023992 0.0020386 0.0095732 -0.003307 0.00014785 0.0029538 -0.001127
-0.0019307 -0.0005065 0.00062816 0.0004313
0.0020269 0.0095683 0.22322 0.2406 0.0037543 0.00080913 -0.0013676 -0.00057162
-0.00076633 1.0059e-05 -0.00091308 -0.00039287
-0.0033057 0.00016701 0.0037628 0.00079152 0.25916 -0.19753 0.00036659 0.0016053
-0.0016964 -0.00021113 -0.00053947 -0.00098337
0.0029391 -0.0011456 -0.0013761 -0.00056317 0.00036454 0.0016038 0.24394 0.0017105
-0.0043758 0.007874 0.001278 -0.0020132
-0.001943 -0.00049234 -0.00076739 1.1441e-05 -0.0016964 -0.00020261 -0.0043567 0.0078791
0.2194 0.1179 -0.00011457 0.0093054
0.00064461 0.00043318 -0.00092458 -0.00037762 -0.00053866 -0.00097271 0.0012724 -0.0020214
-0.00010681 0.0093058 0.26469 0.16711
1760000000 0.27742 -0.072363 0.0043586 0.0063182 -0.0021684 0.00089806 0.0012864 -0.0033089
-0.0011265 0.00068295 0.00039844 -0.00051626
0.0043531 0.0063124 0.24901 0.20069 0.0016799 -0.00091412 -0.0011254 0.00018125
-0.0010737 0.0008727 -0.0005492 0.00053583
-0.0021637 0.00090283 0.0016676 -0.00092563 0.21012 -0.23017 0.0011561 0.0012452
-0.0011116 0.0013585 -0.0013209 -0.0003924
0.0012756 -0.0033124 -0.0011275 0.00018955 0.0011716 0.0012496 0.23415 -0.050082
-0.0016772 0.0072834 -0.00036461 -0.0022306
-0.0011141 0.00068241 -0.0010724 0.00087249 -0.0011234 0.001349 -0.0016648 0.0072912
0.23405 0.081659 0.0037149 0.0067942
0.00040184 -0.00052239 -0.00054044 0.00054432 -0.0013168 -0.00038402 -0.00037144 -0.0022322
0.0037181 0.006797 0.27668 0.12897
1820000000 0.25254 -0.10975 0.0045923 0.0027739 2.5234e-05 0.0023398 -0.0008751 -0.0030875
-0.00083178 0.00076384 -3.2301e-05 -0.0001932
0.0045921 0.002769 0.25869 0.17061 -0.00023195 7.4116e-05 -0.0013573 0.0008536
-0.00010233 0.0012739 -0.0004641 0.00051133
3.8044e-05 0.0023344 -0.00022895 7.5861e-05 0.1603 -0.24579 0.0015744 0.00034764
-0.00035543 0.0020741 -0.0014425 0.00048824
-0.0008908 -0.003093 -0.0013548 0.00086341 0.001577 0.00035755 0.20343 -0.097289
-0.00054945 0.0060131 -0.0015536 -0.0013028
-0.00082043 0.00076785 -0.00010339 0.0012783 -0.00034698 0.0020817 -0.00053874 0.0060214
0.25023 0.051075 0.0046007 0.0034365
-2.7303e-05 -0.00019497 -0.00045948 0.00051836 -0.0014483 0.00049084 -0.0015602 -0.0013082
0.0046012 0.0034323 0.27805 0.092455
1880000000 0.21715 -0.14978 0.0025061 0.00049743 -0.00036547 0.0019934 -0.0028303 -0.0022897
-0.00012445 0.0015097 0.00027278 -0.00046033
0.0024989 0.00049571 0.26298 0.12424 -0.0020958 0.0016962 -0.00015554 0.001679
0.00063542 0.0013023 0.00021928 0.00089755
-0.00035772 0.0019928 -0.0020929 0.0017128 0.1084 -0.25524 0.001948 -0.00095386
0.0014505 0.0020035 -0.0008687 0.001356
-0.0028463 -0.0022639 -0.00015194 0.0016729 0.0019509 -0.00096227 0.16216 -0.13675
-0.00017693 0.0046946 -0.0022505 0.00061669
-0.00010717 0.0015068 0.00065059 0.0013044 0.0014559 0.0020079 -0.00016676 0.0046941
0.25175 0.017197 0.0043937 0.0014016
0.00027959 -0.00047398 0.00023037 0.00089816 -0.00086353 0.0013603 -0.0022408 0.00062281
0.0043931 0.0014114 0.27689 0.058295
1940000000 0.17747 -0.17555 0.00033134 -0.0013122 0.0013256 0.0018974 -0.0037417 0.00049323
0.0011989 0.0010238 -0.00059912 -0.00050382
0.00032737 -0.0013136 0.26337 0.092461 -0.0010317 0.0038833 0.00095222 0.0013691
0.0018607 0.00057305 0.00082671 0.00026041
0.0013309 0.0018894 -0.001004 0.0038985 0.062241 -0.2488 0.0003946 -0.0022395
0.0023493 0.00058765 0.00037396 0.0016755
-0.003739 0.00052781 0.00096362 0.0013621 0.00039264 -0.0022425 0.10948 -0.16655
-0.0011535 0.003854 -0.0013107 0.0017479
0.0012059 0.0010161 0.0018582 0.00055501 0.0023504 0.00057491 -0.0011462 0.0038602
0.25171 -0.023192 0.003207 -0.001733
-0.00060304 -0.00050756 0.00082953 0.00024769 0.00038587 0.0016484 -0.001314 0.001743
0.0032089 -0.0017375 0.26496 0.022101
2000000000 0.13087 -0.18985 -0.0034996 0.00054081 0.0023968 0.0014324 -0.0023926 0.0036352
0.00095366 0.00019972 -0.00056885 0.00038042
-0.003498 0.00053659 0.2491 0.057043 -0.0007535 0.0056296 0.001683 0.00038547
0.0014389 -0.0013465 0.00044814 0.00019323
0.0024029 0.0014252 -0.00072198 0.0056392 0.018761 -0.23415 -0.0014555 -0.0013609
0.0020477 -0.0011555 0.0015846 0.0013432
-0.0023662 0.003668 0.0016819 0.00038944 -0.0014277 -0.0013622 0.056214 -0.17545
-0.0023866 0.0043542 0.00025374 0.0021471
0.00094649 0.00019558 0.0014225 -0.0013609 0.0020567 -0.0011519 -0.0023772 0.0043556
