!Keysight Technologies,M9804A,MY58100912,A.14.10.03
!Date: Thursday, April 27, 2023 10:28:33
!Correction: S11(C  6-Port  ) 
!S12(C  6-Port  ) 
!S13(C  6-Port  ) 
!S14(C  6-Port  ) 
!S15(C  6-Port  ) 
!S16(C  6-Port  ) 
!S21(C  6-Port  ) 
!S22(C  6-Port  ) 
!S23(C  6-Port  ) 
!S24(C  6-Port  ) 
!S25(C  6-Port  ) 
!S26(C  6-Port  ) 
!S31(C  6-Port  ) 
!S32(C  6-Port  ) 
!S33(C  6-Port  ) 
!S34(C  6-Port  ) 
!S35(C  6-Port  ) 
!S36(C  6-Port  ) 
!S41(C  6-Port  ) 
!S42(C  6-Port  ) 
!S43(C  6-Port  ) 
!S44(C  6-Port  ) 
!S45(C  6-Port  ) 
!S46(C  6-Port  ) 
!S51(C  6-Port  ) 
!S52(C  6-Port  ) 
!S53(C  6-Port  ) 
!S54(C  6-Port  ) 
!S55(C  6-Port  ) 
!S56(C  6-Port  ) 
!S61(C  6-Port  ) 
!S62(C  6-Port  ) 
!S63(C  6-Port  ) 
!S64(C  6-Port  ) 
!S65(C  6-Port  ) 
!S66(C  6-Port  ) 
!S6P File: Measurement: :
# Hz S  RI   R 50
500000000 -0.33813 -0.037225 -0.0097703 -0.0030889 -0.0078323 0.011934 -0.0032308 0.011622
0.012224 0.0047164 -0.0034766 0.0082509
-0.009754 -0.0030809 -0.41863 -0.050504 0.0078132 -0.011498 0.0017011 0.012038
0.0072764 0.002219 0.0013968 0.013244
-0.0078196 0.011964 0.0077945 -0.011524 -0.26464 0.21014 0.0072669 0.0030907
-0.00016927 0.0084071 0.00108 0.011876
-0.0031994 0.011648 0.0017692 0.01207 0.0072891 0.0030982 -0.32684 0.04613
-0.0198 -0.0043898 0.01818 0.025332
0.012109 0.0047036 0.0073492 0.0021066 -0.00017635 0.0082997 -0.019792 -0.0043847
-0.22602 -0.18545 -0.027899 0.004907
-0.0034251 0.0082637 0.001426 0.013268 0.0010959 0.011885 0.018168 0.025313
-0.027916 0.0049093 -0.27118 -0.1166
560000000 -0.31697 0.12364 -0.02406 -0.062767 0.00050998 0.012122 0.0064746 0.010119
0.010662 0.0043664 0.010139 0.007763
-0.024013 -0.062762 -0.37602 0.1078 -0.042127 -0.037361 0.013721 0.003669
-0.013674 -0.0045626 0.0042578 -0.001095
0.00056366 0.012147 -0.042272 -0.037306 -0.18281 0.25797 -0.0004921 -0.0047195
0.019111 0.0044463 0.0072275 -0.0059472
0.0064672 0.010139 0.013825 0.0036816 -0.00057686 -0.0046811 -0.30233 0.13447
0.0045486 -0.024699 0.0046606 -0.019533
0.010697 0.0043782 -0.013745 -0.0045564 0.019167 0.004458 0.0045215 -0.024649
-0.28577 -0.010522 0.0080179 -0.050309
0.01008 0.0077713 0.0042722 -0.0010705 0.0071977 -0.0059837 0.0046454 -0.019567
0.008028 -0.050308 -0.33082 0.028962
620000000 -0.27504 0.10902 -0.02261 0.0073901 0.0037718 0.0082493 0.0067038 -0.0055765
0.011553 -0.00088465 6.7062e-05 -0.0023216
-0.022612 0.0073905 -0.40242 0.061136 -0.018936 -0.00044717 -0.0011257 -0.0019843
0.010326 -0.0072342 0.001062 -0.0027098
0.0037906 0.0082473 -0.018963 -0.00040951 -0.1532 0.26655 -0.0014804 -0.005321
-0.0041287 -0.0031416 0.0080889 -0.0037874
0.0066567 -0.0056383 -0.0011232 -0.002002 -0.0014703 -0.0053086 -0.26163 0.14521
-0.038732 -0.019054 0.014354 0.024383
0.011634 -0.00093893 0.010298 -0.0072695 -0.0041252 -0.0031582 -0.038766 -0.018994
-0.20425 -0.05086 -0.040886 0.013575
0.00012388 -0.0023589 0.0010335 -0.0026943 0.0080807 -0.0037943 0.01431 0.024341
-0.040888 0.013565 -0.2494 -0.0066114
680000000 -0.23375 0.19381 -0.027605 -0.014151 0.0047151 0.0050448 0.0010509 -0.0075835
-0.0033865 -0.011135 0.0043576 -0.0068033
-0.027568 -0.014137 -0.38753 0.158 -0.03318 -0.0015365 -0.0017592 -0.00039178
-0.0028331 -0.00896 -0.0010654 -0.0019292
0.0047207 0.0050311 -0.033208 -0.0014602 -0.10269 0.28646 -0.00073405 0.00015655
-0.0023596 0.00081238 -0.0028564 -0.0094481
0.0010198 -0.0075973 -0.001759 -0.00039442 -0.00073287 0.000152 -0.2197 0.19393
-0.023683 -0.0085303 -0.0087809 -0.010444
-0.0033947 -0.011159 -0.0028666 -0.0089657 -0.0023639 0.00082457 -0.023709 -0.0085108
-0.25249 0.046978 -0.0058611 -0.0097058
0.0043192 -0.0068296 -0.0010848 -0.0019211 -0.0028777 -0.0094549 -0.0088033 -0.010419
-0.0058428 -0.0097023 -0.25922 0.09605
740000000 -0.18983 0.18844 -0.03861 0.026404 0.012544 -0.0051082 -0.00076771 -0.003937
-0.0048783 -0.002933 -0.006417 0.0034263
-0.038606 0.026393 -0.33517 0.17659 -0.035338 0.035307 -0.00051964 -0.0063637
-0.011998 0.0076434 -0.0023772 -0.0059357
0.012527 -0.0051311 -0.035268 0.03546 -0.069388 0.2857 -0.0014897 0.0034809
-0.0027517 -0.0041256 -0.0012969 0.00044152
-0.00076642 -0.0039572 -0.00051775 -0.0063699 -0.0014932 0.0034819 -0.20297 0.20189
-0.043066 -0.0087262 0.021911 0.013434
-0.0048783 -0.0029502 -0.011954 0.0076672 -0.0027554 -0.0041136 -0.043087 -0.0087145
-0.15824 0.072738 -0.041516 -0.00054818
-0.0063904 0.003387 -0.0024593 -0.0058969 -0.0013045 0.00041429 0.021912 0.013424
-0.041486 -0.00055717 -0.24774 0.10173
800000000 -0.15718 0.22799 -0.022702 0.016914 0.0052144 -0.010536 -0.0047954 -0.0018154
-0.0040648 0.0027766 0.0044297 0.0011523
-0.022718 0.016889 -0.33831 0.24748 -0.0079885 0.034389 -0.0020843 0.0022912
-0.00059923 0.0034269 0.0011428 0.0053665
0.0051927 -0.010555 -0.0079026 0.034444 -0.028116 0.30898 0.0011944 0.0015006
0.00065649 0.0035921 -0.001906 0.0011422
-0.0047954 -0.0018049 -0.002078 0.0023011 0.0011959 0.0015081 -0.17544 0.22965
-0.028712 0.012533 0.012939 -0.0097528
-0.0040593 0.0027926 -0.00057359 0.0034388 0.00066949 0.0035836 -0.0287 0.012595
-0.20214 0.095366 -0.017482 0.017422
0.0044401 0.0011309 0.0011696 0.0053744 -0.0019006 0.0011261 0.012949 -0.00978
-0.017497 0.017401 -0.2395 0.15295
860000000 -0.12263 0.24875 -0.017576 0.031016 -0.0033878 -0.0098879 -0.0022886 0.0012214
0.0041005 0.0052173 -0.0029633 -0.0027079
-0.017591 0.030984 -0.29036 0.28973 0.0082371 0.034563 0.00024987 0.0020073
0.0043681 0.00034022 0.0034917 0.00071151
-0.0034173 -0.0098952 0.0083505 0.034573 0.020431 0.31711 -0.00039485 -0.00029935
0.002841 -0.0014625 0.0016034 0.0044177
-0.0022717 0.0012346 0.00027248 0.0020175 -0.00040335 -0.0002939 -0.13978 0.24171
-0.018388 0.019028 -0.0059665 -0.0089686
0.00412 0.0051783 0.0043975 0.00031374 0.0028488 -0.0014641 -0.018373 0.01906
-0.15314 0.14436 -0.024633 0.015303
-0.0029973 -0.0026542 0.0034658 0.00071454 0.0016134 0.0044045 -0.005988 -0.0089619
-0.02463 0.015277 -0.19012 0.19533
920000000 -0.097566 0.2718 0.0050672 0.037975 -0.0095004 -0.0042873 -0.0017474 0.0022219
0.0014572 0.0015196 0.0024289 -0.0016227
0.005037 0.037952 -0.26146 0.31078 0.028278 0.02186 0.0016472 0.0011133
0.0067993 -0.00075664 0.0039675 -0.0028859
-0.0095103 -0.0042681 0.028368 0.02181 0.067001 0.31749 0.0017622 -0.00015147
0.0013001 -0.0004267 0.00090455 -0.00098966
-0.0017364 0.0022112 0.0016509 0.0011233 0.0017594 -0.0001535 -0.11553 0.25861
-0.010624 0.030452 0.0027108 -0.0065745
0.0014631 0.0015101 0.0068174 -0.00078917 0.0012946 -0.00042011 -0.010586 0.030494
-0.14229 0.15023 -0.002537 0.027595
0.0024429 -0.0016352 0.0039259 -0.0029278 0.0008976 -0.0010004 0.0026958 -0.0065705
-0.0025583 0.027573 -0.19501 0.20978
980000000 -0.05003 0.29124 0.017855 0.030242 -0.0089253 0.0047558 0.0024205 0.0036285
0.0040341 -0.0019175 -0.0030133 -0.002042
0.017796 0.030225 -0.20825 0.3447 0.033302 0.0046152 0.0019955 -5.8438e-05
0.0011944 -0.0063516 -0.00059701 -0.002209
-0.0089072 0.0047833 0.033336 0.0045059 0.11347 0.31073 0.00043151 -0.0011771
9.7887e-05 -0.0022026 0.0015725 -7.7934e-05
0.0024362 0.0036311 0.0019939 -5.7662e-05 0.00043679 -0.0011803 -0.077179 0.27067
0.00742 0.029296 -0.0091662 -0.0066088
0.0040412 -0.0019505 0.0011868 -0.0063409 9.3299e-05 -0.0021986 0.007477 0.029297
-0.11087 0.17824 0.0046402 0.019217
-0.0030144 -0.0020149 -0.00060439 -0.002233 0.0015712 -8.4693e-05 -0.0091867 -0.0065983
0.0046381 0.019216 -0.15248 0.2551
1040000000 -0.0076056 0.29952 0.033457 0.018003 -0.0011025 0.0070215 0.002728 0.00062013
-0.00012046 -0.0037872 -0.00063807 -0.0015748
0.033393 0.018022 -0.17267 0.35774 0.029372 -0.015146 0.0015102 -0.0017779
-0.0026464 -0.0023817 -0.0015044 -0.0027531
-0.0010701 0.0070142 0.029333 -0.015252 0.15971 0.29674 -0.00050999 -0.001476
-0.0015762 -0.00082928 -0.00035908 -0.0012405
0.002739 0.00061695 0.0014925 -0.0017448 -0.00050378 -0.0014739 -0.049241 0.28078
0.01882 0.017623 -0.0030488 0.0020827
-0.00016167 -0.0037954 -0.0026444 -0.0023556 -0.0015919 -0.00081777 0.018865 0.017606
-0.079769 0.18719 0.013474 0.018336
-0.00063998 -0.0015538 -0.0015475 -0.0027513 -0.00036232 -0.0012365 -0.003047 0.0020811
0.013467 0.01834 -0.13063 0.27431
1100000000 0.038012 0.30673 0.036056 -0.0044741 0.003066 0.0038167 0.0024772 -0.0014706
-0.0021978 -0.0029847 -0.0039652 0.00015129
0.036012 -0.0044471 -0.12894 0.37477 0.014946 -0.027998 -1.597e-05 -0.001832
-0.0032118 -0.0004237 -0.0033921 -0.00054726
0.0030853 0.0038088 0.014845 -0.028086 0.20611 0.27612 -0.0017861 0.00028325
-0.0017688 0.00068872 -0.00097338 -0.00047728
0.002485 -0.0014822 -3.1049e-05 -0.0018302 -0.0017888 0.00027214 -0.0082243 0.28594
0.023342 0.0048886 -0.0022792 0.0010229
-0.0022133 -0.0029786 -0.0032046 -0.00041015 -0.0017639 0.00069423 0.023353 0.0048596
-0.061155 0.20062 0.018778 0.0087133
-0.0039798 0.00017012 -0.003405 -0.00053306 -0.00096004 -0.00047715 -0.0022774 0.0010283
0.018773 0.0087104 -0.083678 0.30259
1160000000 0.0894 0.30151 0.023998 -0.020977 0.0028538 -0.00056338 -0.00031715 -0.0024966
-0.0040269 -0.00043761 -0.00088897 0.0037887
0.023974 -0.020932 -0.085018 0.3789 -0.0040283 -0.029131 -0.001774 -0.0016036
-0.0024496 0.0026763 -0.0011743 0.001613
0.0028622 -0.00056985 -0.0041658 -0.029132 0.24916 0.24491 -0.00057455 0.0017438
-0.00037112 0.0018521 -0.0011341 4.9536e-05
-0.00030734 -0.0025073 -0.0017985 -0.0015964 -0.00056987 0.0017429 0.031588 0.28272
0.019769 -0.010102 -0.0025998 0.0056302
-0.0040226 -0.00042995 -0.0024222 0.0026954 -0.0003799 0.0018555 0.019761 -0.010131
-0.027827 0.21031 0.017524 0.00063985
-0.00086369 0.0038134 -0.0011692 0.0016059 -0.0011293 4.9619e-05 -0.0025813 0.0056377
0.017523 0.00063738 -0.03648 0.3055
1220000000 0.13389 0.28992 0.010296 -0.030229 -0.0015064 -0.00098559 -0.00015351 -0.0010207
-0.002554 0.002586 0.0013386 0.0018669
0.010301 -0.03019 -0.040425 0.39048 -0.017073 -0.02096 -0.0024807 0.00049259
0.00024637 0.0027796 -0.00073741 0.0018097
-0.0015001 -0.00097917 -0.017192 -0.020907 0.28818 0.20547 0.00091463 0.0015176
0.00058866 0.0011376 0.00012604 0.00075083
-0.00016331 -0.0010151 -0.0024941 0.00049977 0.00092173 0.0015187 0.071502 0.2739
0.0093536 -0.015982 0.0028042 0.001655
-0.0025332 0.0025986 0.00027042 0.0027857 0.00058276 0.0011481 0.0093335 -0.015995
-0.0042185 0.21989 0.013698 -0.012221
0.0013429 0.0018583 -0.00072987 0.0018116 0.00013465 0.00075136 0.0028087 0.0016556
0.013688 -0.012216 -0.0047072 0.32097
1280000000 0.1834 0.26731 -0.0080614 -0.02854 -0.0018315 0.0023736 -0.0010399 -0.0018721
-0.00058 0.0030631 0.0024962 0.00091281
-0.0080232 -0.028517 0.0056564 0.38102 -0.023685 -0.0082035 -0.00094066 0.0014831
0.001612 0.0015461 0.00056857 0.0019575
-0.0018372 0.0023895 -0.023754 -0.0081058 0.3184 0.16144 0.0013437 -0.00022769
0.00098658 9.9311e-05 0.00021577 0.00047173
-0.0010486 -0.0018648 -0.00093284 0.0014954 0.0013532 -0.00021958 0.10799 0.25732
0.00032267 -0.017588 0.00053695 3.9627e-06
-0.00057841 0.0030681 0.0016244 0.001542 0.00099376 0.00011606 0.00029525 -0.017596
0.033247 0.22367 0.0029935 -0.014343
0.0025175 0.00088194 0.00058109 0.0019679 0.00022719 0.00047478 0.00053873 -2.8237e-06
0.0029954 -0.014341 0.04283 0.32149
1340000000 0.22025 0.23301 -0.017828 -0.018991 0.00076312 0.0043295 -0.0017744 -0.0007119
0.0014956 0.002646 0.0016702 -0.0015513
-0.0178 -0.01898 0.045041 0.37218 -0.021404 0.0044058 -2.5198e-05 0.0019343
0.0016852 0.00062978 0.0013392 0.00090505
0.00078293 0.00433 -0.021408 0.0045186 0.3403 0.11336 0.00091531 -0.0008292
0.00066833 -0.00037475 0.00023111 0.00033621
-0.0017765 -0.00070645 -1.7825e-05 0.0019403 0.00091161 -0.00082244 0.14054 0.2369
-0.0080406 -0.014545 0.0012985 -5.3624e-05
0.0015208 0.0026421 0.0016829 0.00062545 0.00065827 -0.00037639 -0.0080729 -0.014537
0.064158 0.2189 -0.0031709 -0.013077
0.0016656 -0.0015585 0.0013501 0.00089611 0.00023209 0.00033945 0.0012955 -5.0492e-05
-0.0031619 -0.013066 0.081432 0.31617
1400000000 0.25268 0.19435 -0.023557 -0.0074423 0.0049287 0.0030145 -0.0019085 0.00064003
0.0025696 0.00072205 0.00011025 -0.0013821
-0.023527 -0.0074447 0.081938 0.35858 -0.014547 0.012349 0.001339 0.0012472
0.00098335 -0.00075793 0.0012271 0.00015693
0.0049436 0.0029904 -0.01451 0.012444 0.35309 0.059782 9.6824e-05 -0.0013787
8.7865e-05 -0.00035137 0.00043906 0.00014987
-0.0019036 0.00064341 0.001352 0.0012332 8.9346e-05 -0.0013869 0.17001 0.20839
-0.013094 -0.0081326 -0.00058026 -0.00085968
0.0025778 0.00070258 0.00099215 -0.00077168 7.7442e-05 -0.00035821 -0.013122 -0.0081072
0.097292 0.21371 -0.0095546 -0.0084184
0.00010288 -0.0013883 0.0012241 0.00015127 0.00044273 0.00015643 -0.00058155 -0.00085988
-0.0095517 -0.0084166 0.12578 0.3046
1460000000 0.27478 0.15005 -0.020509 0.0047984 0.005372 -0.0017025 -0.0015065 0.0016663
0.001986 -0.00074898 -0.0004048 -0.00079552
-0.020489 0.0047915 0.11562 0.33643 -0.0060128 0.015082 0.0016638 0.00017761
0.00083533 -0.0010655 0.0012001 -0.00070259
0.00538 -0.0017357 -0.0059476 0.015128 0.3589 0.0053052 -0.0010559 -0.0011892
0.0002403 -0.00019883 0.00080484 -0.00037636
-0.0014929 0.0016605 0.0016667 0.00016589 -0.0010514 -0.0011862 0.19657 0.17939
-0.013528 -0.002302 -0.0011992 0.0014078
0.0019795 -0.00076314 0.00082254 -0.0010729 0.00023891 -0.00019713 -0.013534 -0.0022711
0.1272 0.19857 -0.011328 -0.0029938
-0.00040196 -0.00078988 0.0011968 -0.00071122 0.00081189 -0.00037635 -0.0011847 0.0014163
-0.011321 -0.0029932 0.1591 0.28275
1520000000 0.28624 0.10853 -0.014801 0.01051 0.0030733 -0.0040578 7.9235e-05 0.0025135
0.0017406 -0.0017602 -0.0011421 -4.21e-05
-0.014801 0.010497 0.14866 0.32157 0.0014528 0.012905 0.0015877 -0.00079645
0.00010812 -0.00087701 0.00025636 -0.0010688
0.0030635 -0.0040729 0.0015178 0.012911 0.35184 -0.050726 -0.00093367 -0.00037695
0.0004986 -0.00084743 -4.4164e-05 -0.00011228
8.7586e-05 0.0025232 0.0015795 -0.00079802 -0.0009343 -0.0003845 0.22015 0.14147
-0.012686 0.0025106 0.00094263 0.0017127
0.0017375 -0.0017601 0.00010369 -0.00087985 0.00050126 -0.00085733 -0.012685 0.002545
0.15517 0.1837 -0.011262 0.0013691
-0.0011435 -4.2622e-05 0.00025487 -0.001071 -4.6577e-05 -0.00011486 0.00095183 0.0017094
-0.011261 0.0013651 0.1918 0.26157
1580000000 0.29481 0.062597 -0.0080521 0.01358 -0.0009314 -0.0046622 0.0013102 0.0017946
-0.00054762 -0.0021164 -0.00033391 0.00043344
-0.0080575 0.01356 0.17543 0.29685 0.0050053 0.008171 0.00046468 -0.0015724
-0.00039005 -0.0010365 -0.00034828 -0.00085056
-0.00096662 -0.0046545 0.0050565 0.0081549 0.33123 -0.10815 -0.0014868 0.00041617
-0.00032562 -0.0010721 0.0001302 -0.00060052
0.0013135 0.0017857 0.00045663 -0.0015733 -0.0014813 0.0004227 0.2346 0.10196
-0.009589 0.0063946 0.0017264 0.00069278
-0.00056085 -0.0021154 -0.00040353 -0.0010326 -0.00032413 -0.0010715 -0.0095784 0.0064166
0.17951 0.16508 -0.0089938 0.0068192
-0.0003318 0.00043524 -0.00035935 -0.00084162 0.00012851 -0.00059643 0.0017256 0.00068825
-0.0090013 0.0068129 0.22333 0.23412
1640000000 0.29657 0.021776 -0.0012823 0.012408 -0.0026621 -0.0025145 0.0025289 0.0010416
-0.00089741 -0.0011494 -0.00024068 0.00064122
-0.0012894 0.012395 0.20454 0.27201 0.0056655 0.0035228 -0.00073587 -0.0016588
-0.00095007 -0.00047475 -0.00057715 -0.00057425
-0.0026725 -0.0025077 0.0056873 0.0034926 0.30307 -0.15693 -0.00081602 0.0013035
-0.0010623 -0.0008827 -0.00010638 -0.00032289
0.00253 0.0010314 -0.00073841 -0.0016657 -0.00082054 0.0012923 0.24722 0.052636
-0.005964 0.0070179 0.0020891 -0.00057389
-0.00090922 -0.0011475 -0.00096489 -0.00046804 -0.0010647 -0.00087793 -0.0059464 0.0070465
0.20242 0.13982 -0.0045274 0.008909
-0.00023014 0.0006462 -0.00058137 -0.00056932 -0.00011243 -0.00032067 0.0020882 -0.00058686
-0.00453 0.0089083 0.24851 0.20238
1700000000 0.28938 -0.023106 0.0021747 0.0095849 -0.0033911 0.00016068 0.0029158 -0.0010464
-0.0019312 -0.00035884 0.00064737 0.00039303
0.0021718 0.0095833 0.22238 0.2407 0.003734 0.00073581 -0.0014085 -0.00053967
-0.00081247 -2.9673e-05 -0.00091768 -0.00031345
-0.003396 0.00018009 0.0037503 0.00072027 0.25945 -0.19678 0.00031185 0.0016327
-0.0017334 -0.00018914 -0.00055298 -0.00089378
0.0029076 -0.0010685 -0.0014111 -0.00053025 0.00031252 0.0016324 0.24402 0.0021602
-0.0040753 0.0072741 0.0012542 -0.0019395
-0.0019403 -0.00035273 -0.00082283 -3.3205e-05 -0.0017297 -0.00018328 -0.0040604 0.0072907
0.21979 0.11847 -8.5959e-05 0.0091585
0.00065236 0.00037793 -0.0009236 -0.00030338 -0.00056467 -0.00088862 0.0012508 -0.001949
-7.6841e-05 0.0091637 0.26422 0.16772
1760000000 0.27719 -0.071406 0.0044773 0.0062241 -0.0022066 0.00092631 0.0013626 -0.003247
-0.0010477 0.00073518 0.0003996 -0.00054464
0.0044569 0.0062219 0.24815 0.20108 0.0016491 -0.00098959 -0.0011249 0.00024579
-0.0011534 0.00087975 -0.00050784 0.00058745
-0.0022003 0.00093425 0.0016401 -0.00099876 0.2107 -0.22972 0.0011342 0.0012908
-0.0011054 0.0013894 -0.0013047 -0.00036842
0.0013362 -0.0032542 -0.0011225 0.00025564 0.0011379 0.0012809 0.23437 -0.049748
-0.0017616 0.0065821 -0.00031847 -0.0021348
-0.0010508 0.00074256 -0.0011442 0.00088822 -0.0011065 0.0013888 -0.0017408 0.0065974
0.23442 0.081914 0.0037796 0.006671
0.00038547 -0.00054623 -0.0005059 0.00059052 -0.0013006 -0.00036454 -0.00032054 -0.0021339
0.0037843 0.0066696 0.27619 0.12948
1820000000 0.25275 -0.10861 0.0046428 0.0026413 0.00010362 0.0023731 -0.00083341 -0.0031024
-0.00067492 0.0007096 -3.1913e-05 -0.00018021
0.0046358 0.0026365 0.25802 0.17124 -0.00026836 7.5403e-05 -0.0012844 0.00090136
-0.00012707 0.001368 -0.00038869 0.00052755
0.00011748 0.0023825 -0.00027121 7.5667e-05 0.16075 -0.24551 0.0016493 0.00038217
-0.00030473 0.0020691 -0.0014602 0.00055634
-0.00084515 -0.0031024 -0.00128 0.00090506 0.0016371 0.00038363 0.20375 -0.097028
-0.00092638 0.005403 -0.0015089 -0.0013408
-0.0006694 0.00071243 -0.00011925 0.0013727 -0.00029863 0.0020638 -0.0009227 0.0054006
0.25071 0.051085 0.0045692 0.003268
-2.912e-05 -0.0001794 -0.00038123 0.00053111 -0.0014696 0.00056516 -0.0015148 -0.0013289
0.004577 0.003259 0.27767 0.093214
1880000000 0.21771 -0.14881 0.0024882 0.00039416 -0.00033124 0.0019742 -0.002747 -0.0023305
-4.9189e-05 0.0013946 0.00032095 -0.00047922
0.0024833 0.00040387 0.26251 0.125 -0.0021117 0.0017138 -9.6708e-05 0.0016705
0.00069203 0.0013831 0.00026262 0.00086834
-0.00032027 0.0019778 -0.0020964 0.0017292 0.10885 -0.25507 0.0020427 -0.0010798
0.0015033 0.0019734 -0.00078436 0.0013744
-0.0027521 -0.0023073 -9.2602e-05 0.0016733 0.0020492 -0.0010652 0.16245 -0.13673
-0.00078548 0.0043076 -0.0023056 0.00064441
-4.9071e-05 0.001381 0.0007081 0.0013767 0.0015078 0.0019805 -0.00078269 0.0043198
0.25206 0.016819 0.0042794 0.0012111
0.00031462 -0.00047603 0.0002685 0.00086687 -0.00078003 0.001368 -0.0023002 0.00064817
0.0042742 0.0012205 0.27661 0.058888
1940000000 0.17826 -0.17479 0.00026609 -0.0013337 0.0012983 0.001823 -0.0037558 0.00045186
0.00113 0.0008812 -0.00059393 -0.00059494
0.00026427 -0.0013282 0.26308 0.093288 -0.0010193 0.0038902 0.0010145 0.001319
0.0019954 0.00059073 0.00080573 0.00017349
0.0013105 0.0018222 -0.00099226 0.0039095 0.062573 -0.24875 0.00037208 -0.002329
0.0023477 0.0005739 0.00035517 0.0016106
-0.0037535 0.00047985 0.0010197 0.0013175 0.00035959 -0.0023323 0.10969 -0.16652
-0.0018407 0.0037986 -0.0012441 0.0018064
0.0011421 0.00087514 0.0019975 0.00057667 0.0023371 0.00057081 -0.0018267 0.0038128
0.25155 -0.023637 0.0030468 -0.0017866
-0.00060614 -0.00058975 0.00080565 0.00015761 0.00034415 0.0016219 -0.0012426 0.0018102
0.003038 -0.0017855 0.26466 0.022788
2000000000 0.13176 -0.18959 -0.0035044 0.0005152 0.0024091 0.0015065 -0.002403 0.0036393
0.00085436 0.00019488 -0.0006091 0.00034835
-0.0035018 0.00051663 0.24906 0.05782 -0.00085235 0.0055882 0.0016341 0.00028181
0.0015531 -0.0014899 0.00038984 0.00015519
0.0024147 0.0014903 -0.00081139 0.0055951 0.018918 -0.23437 -0.0015477 -0.0014545
0.0020299 -0.0012433 0.0015025 0.0013561
-0.0023852 0.0036383 0.0016421 0.00026781 -0.001557 -0.0014658 0.056495 -0.17541
-0.0030396 0.0046563 0.00026836 0.0022465
0.00085073 0.00018897 0.0015357 -0.0014963 0.0020497 -0.0012403 -0.0030367 0.0046667
