!Keysight Technologies,M9804A,MY58100912,A.14.10.03
!Date: Thursday, April 27, 2023 10:28:33
!Correction: S11(C  6-Port  ) 
!S12(C  6-Port  ) 
!S13(C  6-Port  ) 
!S14(C  6-Port  ) 
!S15(C  6-Port  ) 
!S16(C  6-Port  ) 
!S21(C  6-Port  ) 
!S22(C  6-Port  ) 
!S23(C  6-Port  ) 
!S24(C  6-Port  ) 
!S25(C  6-Port  ) 
!S26(C  6-Port  ) 
!S31(C  6-Port  ) 
!S32(C  6-Port  ) 
!S33(C  6-Port  ) 
!S34(C  6-Port  ) 
!S35(C  6-Port  ) 
!S36(C  6-Port  ) 
!S41(C  6-Port  ) 
!S42(C  6-Port  ) 
!S43(C  6-Port  ) 
!S44(C  6-Port  ) 
!S45(C  6-Port  ) 
!S46(C  6-Port  ) 
!S51(C  6-Port  ) 
!S52(C  6-Port  ) 
!S53(C  6-Port  ) 
!S54(C  6-Port  ) 
!S55(C  6-Port  ) 
!S56(C  6-Port  ) 
!S61(C  6-Port  ) 
!S62(C  6-Port  ) 
!S63(C  6-Port  ) 
!S64(C  6-Port  ) 
!S65(C  6-Port  ) 
!S66(C  6-Port  ) 
!S6P File: Measurement: :
# Hz S  RI   R 50
500000000 -0.33791 -0.036426 -0.0098418 -0.0032035 -0.007826 0.011912 -0.003573 0.011584
0.012342 0.0043079 -0.0036029 0.0079552
-0.0098286 -0.0031886 -0.41897 -0.049848 0.0078899 -0.011361 0.0016643 0.012047
0.0072301 0.0024582 0.00095172 0.013169
-0.0078188 0.011938 0.0078871 -0.011381 -0.26438 0.21055 0.0072095 0.0031294
-0.00060594 0.0084573 0.00071237 0.012037
-0.0035473 0.011597 0.0016796 0.012048 0.0072124 0.0031299 -0.32706 0.04646
-0.020217 -0.0045567 0.018161 0.025434
0.012345 0.0043038 0.0072534 0.0024327 -0.00059696 0.008449 -0.020214 -0.0045573
-0.2264 -0.18459 -0.028041 0.004668
-0.0035844 0.0079559 0.00097358 0.013179 0.00071404 0.012039 0.018169 0.025427
-0.028044 0.0046551 -0.2719 -0.11554
560000000 -0.31687 0.12446 -0.023589 -0.062569 0.00028199 0.012046 0.0064366 0.010086
0.010526 0.0042875 0.010219 0.0075988
-0.023537 -0.0625 -0.37572 0.10801 -0.042394 -0.036753 0.013574 0.0037159
-0.01348 -0.0047 0.0041452 -0.00060848
0.00031056 0.012013 -0.042524 -0.036697 -0.18254 0.25793 -0.00062162 -0.0046928
0.019198 0.0043334 0.0070263 -0.0061964
0.0064663 0.010093 0.013582 0.0036961 -0.00062148 -0.0046862 -0.30313 0.13506
0.0042092 -0.024823 0.0046629 -0.019667
0.010513 0.0043128 -0.013503 -0.0046493 0.0192 0.0043309 0.004188 -0.024821
-0.28643 -0.0098818 0.0078174 -0.050195
0.010263 0.0075617 0.004114 -0.00059942 0.0070344 -0.0062103 0.004647 -0.01968
0.0078348 -0.050188 -0.33088 0.031045
620000000 -0.2743 0.10938 -0.022771 0.0073725 0.0033734 0.0081354 0.0068972 -0.0055889
0.011277 -0.00033191 0.00020199 -0.0021184
-0.022738 0.007361 -0.4026 0.061641 -0.018981 -0.00027151 -0.0012167 -0.0019728
0.010464 -0.0072807 0.0010758 -0.0026976
0.0034153 0.0081263 -0.019009 -0.00022831 -0.15308 0.26724 -0.0017113 -0.0050635
-0.0036123 -0.0031955 0.007985 -0.0036257
0.0068963 -0.005601 -0.0012264 -0.0019725 -0.0017161 -0.0050607 -0.26234 0.14583
-0.038668 -0.018946 0.013941 0.024319
0.011287 -0.00037391 0.010452 -0.0073027 -0.0036014 -0.003197 -0.03869 -0.018928
-0.20553 -0.049051 -0.040441 0.014002
0.00019972 -0.002124 0.0010702 -0.002705 0.0079837 -0.0036334 0.013941 0.024322
-0.040467 0.014 -0.24974 -0.0051373
680000000 -0.23349 0.19419 -0.027539 -0.014046 0.0047858 0.0049758 0.0011755 -0.0073471
-0.0032146 -0.011134 0.004664 -0.0066693
-0.027515 -0.014042 -0.38738 0.15868 -0.033028 -0.0013664 -0.0017962 -0.00023124
-0.0027575 -0.0089195 -0.001045 -0.0019681
0.0048097 0.0049683 -0.033061 -0.0012856 -0.10236 0.28683 -0.00067116 0.00020332
-0.0023352 0.00067808 -0.0028548 -0.0095386
0.0011599 -0.0073473 -0.0018051 -0.00022582 -0.00067386 0.00020118 -0.21994 0.19474
-0.023788 -0.0083341 -0.0087339 -0.010079
-0.003239 -0.011126 -0.0027945 -0.008925 -0.002333 0.00068142 -0.023815 -0.0083156
-0.25331 0.048786 -0.005907 -0.0095107
0.0046455 -0.0066523 -0.0010548 -0.0019805 -0.0028831 -0.0095466 -0.008759 -0.010096
-0.0059091 -0.0095004 -0.25847 0.096755
740000000 -0.18951 0.18889 -0.038587 0.026464 0.012536 -0.0052342 -0.00076853 -0.0039243
-0.0045311 -0.0029872 -0.0063182 0.003495
-0.03859 0.026406 -0.33518 0.17743 -0.035064 0.035266 -0.00058739 -0.0064351
-0.011983 0.0079031 -0.0023817 -0.005931
0.012531 -0.0052558 -0.034984 0.035404 -0.068875 0.28583 -0.0014536 0.0034835
-0.0024934 -0.0041868 -0.0014343 0.00028659
-0.00078086 -0.0039253 -0.00061225 -0.0064215 -0.0014588 0.0034792 -0.20293 0.20263
-0.042801 -0.0082339 0.021996 0.013653
-0.0045699 -0.0029602 -0.011964 0.0079602 -0.002498 -0.0041894 -0.042843 -0.0081651
-0.15849 0.074244 -0.04119 0.00022388
-0.0063164 0.0035259 -0.0023914 -0.00593 -0.0014515 0.00030388 0.022003 0.013611
-0.041172 0.00022326 -0.24733 0.10313
800000000 -0.15684 0.22854 -0.022558 0.016836 0.0051916 -0.010532 -0.0048286 -0.0019217
-0.003936 0.0026942 0.0044629 0.0010023
-0.022538 0.016822 -0.33795 0.24807 -0.0078681 0.034201 -0.0020516 0.0022259
-0.00069329 0.0033468 0.0012294 0.0053363
0.0051718 -0.010559 -0.0077853 0.034251 -0.027699 0.30905 0.0010949 0.0014508
0.00069199 0.0035559 -0.0018698 0.00093142
-0.0048473 -0.0019047 -0.002048 0.0022369 0.0010959 0.0014531 -0.17508 0.23031
-0.028449 0.012679 0.012938 -0.009835
-0.0039309 0.0027242 -0.00067103 0.0033519 0.00069299 0.0035613 -0.028449 0.012737
-0.20172 0.097563 -0.017229 0.017569
0.004444 0.00098609 0.0012573 0.0053481 -0.0018725 0.00093468 0.012915 -0.009856
-0.017245 0.01755 -0.23866 0.15422
860000000 -0.12209 0.24903 -0.017465 0.03094 -0.0034548 -0.0098618 -0.002357 0.0010995
0.0041084 0.0050074 -0.0029724 -0.0027176
-0.017458 0.030911 -0.29004 0.2901 0.0081458 0.034265 0.00015413 0.0021219
0.0043009 0.00035131 0.0035423 0.00036261
-0.0034851 -0.0098591 0.0082492 0.03427 0.020762 0.31701 -0.00049987 -0.00035069
0.002823 -0.0015176 0.0016938 0.00436
-0.0023426 0.0011134 0.00014938 0.0021223 -0.00049843 -0.00035184 -0.13911 0.24211
-0.018046 0.01872 -0.0061175 -0.0088533
0.00414 0.0050154 0.0043133 0.00033393 0.0028221 -0.0015228 -0.018028 0.018758
-0.15218 0.14598 -0.024294 0.015579
-0.0029815 -0.0027151 0.003555 0.00035096 0.0017069 0.0043689 -0.0061292 -0.0088539
-0.024291 0.015557 -0.18906 0.19655
920000000 -0.097023 0.2721 0.0051604 0.037858 -0.0094491 -0.0042036 -0.0018251 0.002172
0.0014686 0.0016028 0.0024278 -0.0015875
0.0051519 0.037814 -0.26079 0.31115 0.028127 0.021795 0.0016232 0.0010811
0.0067778 -0.00073965 0.0038028 -0.0030386
-0.0094573 -0.0041772 0.028218 0.021741 0.067345 0.31741 0.0017684 -0.00014142
0.0012455 -0.00039223 0.00091212 -0.0010636
-0.0018201 0.0021827 0.0016191 0.001076 0.0017733 -0.00014792 -0.11503 0.25873
-0.010468 0.030352 0.0026669 -0.0065568
0.0014591 0.0016095 0.0067928 -0.00076221 0.0012459 -0.00039344 -0.010417 0.03038
-0.14139 0.15203 -0.0022186 0.027466
0.0024295 -0.0016066 0.0037988 -0.0030512 0.00091282 -0.0010631 0.0026661 -0.0065569
-0.0022366 0.027444 -0.19423 0.21112
980000000 -0.049468 0.2914 0.017736 0.030076 -0.0088982 0.0047801 0.0023641 0.0036444
0.0039958 -0.0018067 -0.0030854 -0.002071
0.017727 0.030058 -0.20783 0.34493 0.033023 0.004606 0.0019483 1.3044e-05
0.0012195 -0.0061813 -0.00061752 -0.0022234
-0.0088641 0.0048067 0.033053 0.0045067 0.11376 0.31054 0.00045941 -0.0011718
0.00014965 -0.0021016 0.0015541 -3.7775e-05
0.0023827 0.0036468 0.0019441 -1.6449e-05 0.00045681 -0.0011694 -0.076476 0.27068
0.007505 0.029248 -0.0090427 -0.0065486
0.0039762 -0.0018351 0.0012025 -0.0061701 0.00014519 -0.0020908 0.0075572 0.029244
-0.1095 0.17957 0.0049115 0.01927
-0.0030759 -0.002064 -0.00064979 -0.0022097 0.0015537 -4.0121e-05 -0.0090522 -0.0065335
0.0049088 0.019259 -0.15103 0.2559
1040000000 -0.0069635 0.29942 0.033256 0.017952 -0.0010595 0.0069689 0.0027002 0.00062005
-3.1341e-05 -0.0036013 -0.00057982 -0.001529
0.033234 0.017938 -0.17215 0.35785 0.02917 -0.014958 0.00149 -0.0017224
-0.0025909 -0.0023336 -0.0013945 -0.0027301
-0.0010283 0.0069631 0.029123 -0.015065 0.1599 0.29649 -0.00050029 -0.0014297
-0.0015354 -0.00081512 -0.00032516 -0.0011778
0.0027144 0.00062827 0.001472 -0.0017493 -0.00050264 -0.0014277 -0.048676 0.28061
0.018795 0.0176 -0.0028917 0.0020167
-5.3345e-05 -0.0036097 -0.0025831 -0.0023051 -0.0015412 -0.00081054 0.018831 0.017573
-0.07788 0.1881 0.01353 0.018167
-0.00059082 -0.0015477 -0.0014111 -0.0027062 -0.00032664 -0.0011842 -0.0028882 0.0020324
0.013516 0.018149 -0.12911 0.27518
1100000000 0.038596 0.30657 0.035846 -0.0044589 0.0030639 0.0038058 0.0024984 -0.0014384
-0.0021519 -0.0030172 -0.0038685 0.00014301
0.035822 -0.0044401 -0.12843 0.37477 0.014904 -0.027756 -1.1991e-05 -0.0017931
-0.0032082 -0.00047568 -0.0033422 -0.00053647
0.0030928 0.0037944 0.014801 -0.027835 0.20613 0.27587 -0.0017612 0.00024942
-0.0017136 0.00061976 -0.00094591 -0.00045602
0.002497 -0.001441 -2.0427e-05 -0.0017954 -0.0017612 0.00025239 -0.0078905 0.28562
0.023349 0.0049502 -0.0022526 0.00085835
-0.0021723 -0.0030118 -0.0032049 -0.00045017 -0.0017188 0.00062388 0.023366 0.0049112
-0.059274 0.2013 0.018914 0.0085127
-0.003859 0.00017013 -0.0033546 -0.00051453 -0.00094961 -0.00045333 -0.0022523 0.00086135
0.018899 0.0085169 -0.082322 0.3032
1160000000 0.089977 0.30122 0.023852 -0.020853 0.0028454 -0.0005792 -0.00026813 -0.0024802
-0.0039914 -0.00048484 -0.00087825 0.0037294
0.023859 -0.020835 -0.084425 0.37873 -0.003895 -0.028933 -0.001719 -0.0016167
-0.0024364 0.0025678 -0.0011057 0.0016203
0.0028501 -0.00058556 -0.0040258 -0.028938 0.24912 0.24485 -0.00058598 0.0016932
-0.00040551 0.0018101 -0.0010846 8.2836e-05
-0.00029014 -0.002485 -0.0017345 -0.0016282 -0.00059506 0.0016908 0.031771 0.28248
0.019801 -0.0099804 -0.0025727 0.0054891
-0.0040082 -0.00046761 -0.002422 0.0026023 -0.000411 0.0018108 0.019796 -0.010016
-0.025923 0.2104 0.017502 0.0004265
-0.00084807 0.003741 -0.0011065 0.0016415 -0.0010793 9.2646e-05 -0.0025598 0.0054949
0.017498 0.00042186 -0.035397 0.30583
1220000000 0.13426 0.2895 0.01025 -0.029977 -0.001475 -0.00095659 -0.00010913 -0.0010454
-0.0025275 0.0025373 0.0013092 0.0018179
0.010267 -0.029948 -0.040152 0.39026 -0.016869 -0.020887 -0.0024504 0.00047351
0.00021466 0.0028318 -0.00070529 0.0017649
-0.001474 -0.00095074 -0.016977 -0.020832 0.28819 0.20562 0.00085227 0.0015566
0.00053306 0.0010918 0.00017337 0.00076468
-0.00011239 -0.0010444 -0.002448 0.00048516 0.00084961 0.0015575 0.071526 0.27374
0.0095777 -0.015954 0.002646 0.0016212
-0.0025281 0.0025446 0.00023069 0.0028408 0.00053271 0.0010905 0.0095667 -0.015975
-0.002467 0.21935 0.013535 -0.012398
0.0013317 0.0018158 -0.00070312 0.0017847 0.0001732 0.00076178 0.0026455 0.0016145
0.013533 -0.012396 -0.00337 0.32116
1280000000 0.1837 0.26706 -0.0079225 -0.028309 -0.0018602 0.0023389 -0.0010265 -0.0018998
-0.00062829 0.0030024 0.0024424 0.0009564
-0.0078875 -0.028292 0.0058056 0.38087 -0.023497 -0.0082926 -0.00092816 0.0014369
0.0016082 0.0015866 0.00054519 0.0019314
-0.0018539 0.0023421 -0.023561 -0.0081872 0.31865 0.16163 0.0013804 -0.00018859
0.0010595 0.00012148 0.00024162 0.00045091
-0.0010308 -0.0018892 -0.00093135 0.0014389 0.001381 -0.00018469 0.108 0.25727
0.00060814 -0.017743 0.00041776 4.4937e-05
-0.00061194 0.0030043 0.0016155 0.0015796 0.0010604 0.00012276 0.00058298 -0.017747
0.034611 0.22287 0.0028939 -0.014495
0.0024474 0.0009486 0.00055849 0.0019315 0.00024175 0.00045157 0.00041377 4.3992e-05
0.0028945 -0.014478 0.044128 0.32141
1340000000 0.22048 0.23276 -0.017614 -0.018886 0.0007401 0.0042959 -0.0017912 -0.00076646
0.0014367 0.0025887 0.0016827 -0.0015022
-0.017582 -0.018877 0.045104 0.3722 -0.021313 0.0042472 -5.799e-05 0.0019208
0.0017026 0.00067833 0.0013091 0.00088547
0.00075926 0.0042878 -0.02132 0.0043591 0.34067 0.11334 0.0009465 -0.00085758
0.00065805 -0.00038632 0.00016128 0.00028618
-0.0017994 -0.00074927 -4.5419e-05 0.0019134 0.00093978 -0.00084717 0.14065 0.23692
-0.0078801 -0.014921 0.0011791 6.056e-05
0.0014651 0.0025829 0.0017085 0.00065218 0.00065694 -0.00038672 -0.0079176 -0.014911
0.065131 0.21786 -0.003395 -0.013171
0.0016682 -0.0015217 0.0013187 0.00088501 0.00016342 0.00028629 0.0011769 5.5072e-05
-0.0033842 -0.013173 0.082651 0.31585
1400000000 0.25295 0.19413 -0.023314 -0.0074718 0.0049717 0.0030415 -0.0019434 0.00064916
0.002493 0.00075354 0.00017238 -0.0013684
-0.023284 -0.0074787 0.081971 0.35882 -0.014596 0.012196 0.0012767 0.0012439
0.0010079 -0.00078395 0.001173 0.00018584
0.0049965 0.003018 -0.01456 0.012286 0.35361 0.059664 4.4332e-05 -0.0013879
2.8135e-05 -0.00036325 0.00039203 0.00016518
-0.0019477 0.00065583 0.0012942 0.0012382 4.6785e-05 -0.0013965 0.17019 0.20842
-0.013141 -0.0086 -0.00061617 -0.00069644
0.0025101 0.00074265 0.0010054 -0.00079031 2.2136e-05 -0.00036208 -0.013168 -0.0085781
0.097971 0.21268 -0.0096919 -0.0084594
0.00016116 -0.0013719 0.0011759 0.00017339 0.00039157 0.00016449 -0.00061781 -0.00069791
-0.0096806 -0.0084816 0.12678 0.30408
1460000000 0.27514 0.14993 -0.020393 0.0046158 0.0054454 -0.0017125 -0.0014983 0.0016868
0.0019866 -0.00073845 -0.0003653 -0.00081642
-0.020386 0.0045991 0.11586 0.33679 -0.0061059 0.015025 0.0016577 0.00020436
0.00088951 -0.0011364 0.0011838 -0.00068593
0.0054414 -0.0017282 -0.0060349 0.01507 0.35924 0.0049875 -0.0011042 -0.0011911
0.00018422 -0.00013417 0.00076813 -0.00034478
-0.0015016 0.0016889 0.0016547 0.00019201 -0.001105 -0.0011953 0.19689 0.17937
-0.01385 -0.002723 -0.0011399 0.0015113
0.002003 -0.00074336 0.00088749 -0.0011389 0.00017839 -0.00013205 -0.013869 -0.0026901
0.12757 0.19756 -0.011471 -0.002932
-0.00036659 -0.00082017 0.0011861 -0.00069114 0.00077669 -0.00033842 -0.0011327 0.0015119
-0.011472 -0.0029364 0.15995 0.28225
1520000000 0.28673 0.10828 -0.014777 0.010283 0.0030632 -0.0040857 7.9625e-05 0.0025381
0.0017802 -0.0016883 -0.0011229 -6.252e-05
-0.014778 0.010254 0.14911 0.32197 0.0013706 0.01293 0.0015882 -0.00075404
6.9025e-05 -0.00090965 0.00027873 -0.0010313
0.0030424 -0.0040965 0.001438 0.012936 0.35227 -0.051232 -0.00094956 -0.00036018
0.00050711 -0.00083023 -2.6979e-05 -8.2636e-05
8.4402e-05 0.0025388 0.0015849 -0.00075703 -0.00094443 -0.00035862 0.22051 0.14132
-0.013233 0.002297 0.0010563 0.0017932
0.001772 -0.0017091 6.2945e-05 -0.00091047 0.0005047 -0.00083558 -0.013235 0.0023338
0.15529 0.1828 -0.011389 0.0014504
-0.0011281 -5.2595e-05 0.00026761 -0.0010302 -2.7647e-05 -8.2597e-05 0.0010533 0.0017905
-0.011393 0.0014348 0.19258 0.26094
1580000000 0.29556 0.062249 -0.0081509 0.013399 -0.00097789 -0.0046582 0.0013428 0.0018391
-0.00041169 -0.0020994 -0.00033129 0.00038786
-0.0081488 0.013383 0.1761 0.29719 0.0049522 0.0082329 0.00048705 -0.001545
-0.00043127 -0.0010224 -0.00028022 -0.00082956
-0.0009949 -0.0046509 0.0050012 0.0082127 0.33151 -0.10866 -0.0014836 0.00041195
-0.00027238 -0.0010844 0.00017777 -0.00058667
0.0013478 0.00183 0.00047377 -0.0015519 -0.0014868 0.0004157 0.23493 0.10162
-0.010177 0.0064886 0.0018646 0.00069196
-0.00042983 -0.0021038 -0.0004373 -0.0010187 -0.00027658 -0.0010806 -0.010175 0.0065051
0.17953 0.16429 -0.0090915 0.0069044
-0.00032615 0.00039226 -0.00028351 -0.0008334 0.00017584 -0.00058782 0.00186 0.00068169
-0.0091037 0.0068986 0.22397 0.23353
1640000000 0.29734 0.021008 -0.0014618 0.012327 -0.002697 -0.002396 0.0025847 0.001037
-0.00078179 -0.0012349 -0.00025877 0.00063194
-0.0014697 0.012327 0.20545 0.27209 0.0056399 0.003557 -0.00069304 -0.0016528
-0.00095733 -0.00042718 -0.00052922 -0.00060071
-0.0027042 -0.0023821 0.0056717 0.0035237 0.30324 -0.15792 -0.00078545 0.0013159
-0.0010329 -0.00090436 -9.8072e-05 -0.0003331
0.0025857 0.0010241 -0.00070166 -0.0016535 -0.00077946 0.0013124 0.24745 0.05218
-0.0064875 0.00745 0.0021967 -0.00064002
-0.00080213 -0.0012278 -0.00096489 -0.00041461 -0.0010319 -0.00090061 -0.0064768 0.0074648
0.20225 0.13918 -0.0045266 0.0089729
-0.00025352 0.00063722 -0.00053351 -0.00059608 -9.9682e-05 -0.00033525 0.0021931 -0.00064976
-0.0045431 0.008974 0.24913 0.20171
1700000000 0.28975 -0.024103 0.0020002 0.0095882 -0.0032936 0.00014724 0.0029501 -0.0011286
-0.0019335 -0.00051113 0.00064222 0.00043382
0.0019911 0.0095751 0.22333 0.24056 0.0037504 0.00081925 -0.0013679 -0.00056982
-0.00076519 1.2068e-05 -0.00091861 -0.00038362
-0.0032924 0.00016531 0.0037536 0.00078939 0.25915 -0.19754 0.00036214 0.0016091
-0.0016975 -0.00021242 -0.00054526 -0.00097472
0.0029447 -0.00114 -0.0013727 -0.00056862 0.00036159 0.0016121 0.24402 0.0016195
-0.0043247 0.0078675 0.0012862 -0.0020128
-0.0019361 -0.00049727 -0.00076891 1.6283e-05 -0.001693 -0.00020948 -0.0043189 0.0078815
0.21951 0.11785 -0.00011032 0.009302
0.00064449 0.00042951 -0.00091952 -0.00037438 -0.00054798 -0.00097659 0.0012799 -0.0020245
-0.00010941 0.0093103 0.26475 0.16706
1760000000 0.27737 -0.072438 0.0043399 0.0063417 -0.002163 0.00088919 0.0012921 -0.0033058
-0.0011234 0.00067993 0.00041109 -0.00050293
0.0043272 0.0063355 0.24912 0.20064 0.0016692 -0.00092032 -0.0011359 0.00017542
-0.0010786 0.00086496 -0.00054889 0.00053299
-0.0021536 0.00089983 0.0016678 -0.00092191 0.21013 -0.23019 0.0011695 0.0012521
-0.0011263 0.0013525 -0.0013296 -0.0003888
0.0012745 -0.0033118 -0.0011415 0.00018587 0.0011614 0.0012596 0.23417 -0.05019
-0.0016449 0.0072564 -0.00036206 -0.0022438
-0.0011155 0.00069408 -0.0010687 0.00087307 -0.0011263 0.0013519 -0.001633 0.0072614
0.23412 0.081601 0.0037321 0.0067874
0.00040665 -0.00050369 -0.00054151 0.00054286 -0.0013287 -0.00038703 -0.00037149 -0.0022392
0.0037326 0.0067989 0.27673 0.12891
1820000000 0.25247 -0.10982 0.0045904 0.0027971 3.3364e-05 0.0023357 -0.00087818 -0.0030993
-0.00083096 0.00075531 -2.1753e-05 -0.00019343
0.0045765 0.0027985 0.25876 0.17053 -0.0002375 9.8642e-05 -0.0013532 0.00085217
-0.00010589 0.0012759 -0.00047681 0.00051437
5.0708e-05 0.0023398 -0.00024097 0.0001049 0.16024 -0.24579 0.0015956 0.00036415
-0.0003602 0.0020682 -0.0014531 0.00048156
-0.00089322 -0.0030899 -0.0013481 0.00086664 0.0015974 0.00036327 0.20339 -0.097378
-0.0005459 0.0059788 -0.0015672 -0.0013173
-0.00082529 0.00076461 -0.00010316 0.0012768 -0.00035272 0.0020774 -0.00053165 0.0059884
0.25033 0.050993 0.0045974 0.0034255
-2.2818e-05 -0.00019183 -0.00047141 0.00051847 -0.0014503 0.00049186 -0.0015672 -0.0013069
0.004597 0.0034304 0.27812 0.092415
1880000000 0.21708 -0.14981 0.0025215 0.00052223 -0.00037169 0.0019829 -0.0028434 -0.0022847
-0.00011962 0.0015151 0.00027134 -0.00047582
0.0025136 0.0005212 0.26302 0.12413 -0.0020952 0.0017073 -0.00015874 0.0016699
0.00064044 0.001303 0.00021969 0.00089359
-0.00036462 0.0019835 -0.0020889 0.0017224 0.10837 -0.25528 0.0019765 -0.00098389
0.0014581 0.001999 -0.00085744 0.0013577
-0.0028546 -0.0022731 -0.00014711 0.00167 0.001973 -0.00097633 0.16208 -0.13686
-0.00019425 0.0046608 -0.0022393 0.00061215
-0.00011088 0.0015062 0.00064668 0.001303 0.0014538 0.0019979 -0.00018268 0.0046642
0.25182 0.017064 0.0044051 0.0013995
0.0002674 -0.00047825 0.00023053 0.00089291 -0.00085764 0.0013515 -0.0022436 0.0006156
0.0044109 0.0014022 0.27697 0.058231
1940000000 0.17744 -0.17557 0.00035449 -0.0012796 0.0013238 0.0018846 -0.0037391 0.00051701
0.0011916 0.0010117 -0.00060277 -0.00050938
0.00036555 -0.0012864 0.26336 0.092386 -0.0010185 0.0038882 0.00094889 0.0013682
0.001856 0.00057631 0.00082786 0.00025327
0.0013303 0.001882 -0.00099234 0.003893 0.062209 -0.24881 0.00039161 -0.0022528
0.0023407 0.00059387 0.00037315 0.0016586
-0.0037385 0.00053449 0.00097069 0.001366 0.00039608 -0.0022545 0.10938 -0.1666
-0.0011734 0.0038292 -0.0013107 0.0017464
0.0012018 0.00099166 0.0018612 0.00055132 0.002342 0.00059455 -0.0011625 0.0038428
0.25173 -0.023332 0.0031901 -0.0017401
-0.00060663 -0.000505 0.00082824 0.00024699 0.00037697 0.0016595 -0.0013037 0.0017498
0.0031906 -0.0017386 0.26496 0.022005
2000000000 0.13083 -0.18984 -0.0034891 0.00056146 0.002401 0.0014457 -0.0023838 0.0036597
0.00095958 0.00021586 -0.00058667 0.00037754
-0.0034863 0.00055519 0.24908 0.05698 -0.00076157 0.0056252 0.0016787 0.00039315
0.001427 -0.0013302 0.0004433 0.00018721
0.0024077 0.0014297 -0.0007226 0.005634 0.018695 -0.23412 -0.0014269 -0.0013712
0.0020676 -0.0011418 0.0015761 0.0013419
-0.0023656 0.0036718 0.0016738 0.0003815 -0.0014281 -0.0013741 0.056152 -0.17545
-0.0024159 0.0043498 0.00025609 0.0021489
0.00096033 0.00021021 0.0014254 -0.001351 0.0020656 -0.0011469 -0.002403 0.0043559
