!Keysight Technologies,M9804A,MY58100912,A.14.10.03
!Date: Thursday, April 27, 2023 10:28:33
!Correction: S11(C  6-Port  ) 
!S12(C  6-Port  ) 
!S13(C  6-Port  ) 
!S14(C  6-Port  ) 
!S15(C  6-Port  ) 
!S16(C  6-Port  ) 
!S21(C  6-Port  ) 
!S22(C  6-Port  ) 
!S23(C  6-Port  ) 
!S24(C  6-Port  ) 
!S25(C  6-Port  ) 
!S26(C  6-Port  ) 
!S31(C  6-Port  ) 
!S32(C  6-Port  ) 
!S33(C  6-Port  ) 
!S34(C  6-Port  ) 
!S35(C  6-Port  ) 
!S36(C  6-Port  ) 
!S41(C  6-Port  ) 
!S42(C  6-Port  ) 
!S43(C  6-Port  ) 
!S44(C  6-Port  ) 
!S45(C  6-Port  ) 
!S46(C  6-Port  ) 
!S51(C  6-Port  ) 
!S52(C  6-Port  ) 
!S53(C  6-Port  ) 
!S54(C  6-Port  ) 
!S55(C  6-Port  ) 
!S56(C  6-Port  ) 
!S61(C  6-Port  ) 
!S62(C  6-Port  ) 
!S63(C  6-Port  ) 
!S64(C  6-Port  ) 
!S65(C  6-Port  ) 
!S66(C  6-Port  ) 
!S6P File: Measurement: :
# Hz S  RI   R 50
500000000 -0.33806 -0.037252 -0.0097614 -0.0031473 -0.0078952 0.011967 -0.0032309 0.011628
0.012105 0.004738 -0.0034728 0.0082182
-0.0097487 -0.0031442 -0.41865 -0.050461 0.0078301 -0.011464 0.0016971 0.012091
0.0073845 0.0021312 0.0013586 0.013286
-0.0078799 0.011962 0.007805 -0.011491 -0.26464 0.21012 0.0072736 0.0030953
-0.00014826 0.0083153 0.0010973 0.011884
-0.0032123 0.011627 0.0017168 0.012111 0.0072642 0.0030991 -0.32684 0.046169
-0.019762 -0.004364 0.018168 0.025387
0.012109 0.0046794 0.0074426 0.0021414 -0.00013136 0.0082723 -0.019742 -0.0043732
-0.22598 -0.18578 -0.02781 0.0049638
-0.0033841 0.0082119 0.0013341 0.01331 0.0010813 0.011915 0.018116 0.025376
-0.027828 0.0049633 -0.27118 -0.11666
560000000 -0.31711 0.12353 -0.024027 -0.062762 0.00051649 0.012141 0.0063783 0.010186
0.010616 0.0043874 0.010113 0.0077513
-0.023987 -0.062684 -0.37602 0.10775 -0.042121 -0.037381 0.013796 0.0037736
-0.013667 -0.0045747 0.0042206 -0.0010344
0.00056036 0.012138 -0.042268 -0.037315 -0.18278 0.25796 -0.00066864 -0.0047331
0.01913 0.0045177 0.0072464 -0.0060062
0.0064125 0.010181 0.013839 0.0037511 -0.00066885 -0.0047288 -0.30229 0.1345
0.0045961 -0.024857 0.0046349 -0.019523
0.010698 0.0043827 -0.013699 -0.0046535 0.019162 0.0044547 0.0045946 -0.024823
-0.28586 -0.010368 0.0080647 -0.050346
0.0101 0.0076846 0.004168 -0.00098644 0.0072635 -0.0060127 0.0045982 -0.019574
0.0080708 -0.05039 -0.33079 0.028875
620000000 -0.27507 0.10897 -0.022604 0.0073923 0.0037524 0.008262 0.0066822 -0.005617
0.011659 -0.00080237 0.00011193 -0.0022766
-0.022601 0.0074049 -0.40242 0.061124 -0.018925 -0.00045719 -0.0011228 -0.0020299
0.010352 -0.0072156 0.001086 -0.0026948
0.0037744 0.0082633 -0.018955 -0.00041901 -0.15315 0.26656 -0.0014843 -0.0052954
-0.0040968 -0.003149 0.0081005 -0.0038454
0.0066565 -0.0056574 -0.001133 -0.0020259 -0.0014811 -0.0052776 -0.26168 0.14524
-0.038652 -0.019147 0.014367 0.024294
0.011585 -0.00093596 0.010315 -0.0072793 -0.0040954 -0.0032115 -0.038697 -0.019052
-0.2042 -0.050697 -0.040848 0.013671
0.00012075 -0.0022964 0.0011102 -0.002694 0.0081377 -0.0038012 0.014346 0.024296
-0.040866 0.013673 -0.24936 -0.0065817
680000000 -0.23373 0.19385 -0.027591 -0.014128 0.0047188 0.0050212 0.001022 -0.00759
-0.0033363 -0.01114 0.0043855 -0.0068146
-0.027558 -0.014139 -0.38753 0.15797 -0.033169 -0.0015248 -0.0017427 -0.00040167
-0.0028366 -0.0089713 -0.0010759 -0.0019158
0.0047141 0.0050206 -0.033197 -0.0014394 -0.10268 0.28647 -0.00073199 0.00014732
-0.0023541 0.00082778 -0.0028777 -0.0094522
0.0010077 -0.0075837 -0.0017468 -0.00040753 -0.00072923 0.00014192 -0.21973 0.19394
-0.023692 -0.0085651 -0.0088205 -0.01045
-0.0034027 -0.011153 -0.0028726 -0.0089772 -0.0023585 0.00082313 -0.023684 -0.0085389
-0.25247 0.046951 -0.0058314 -0.009793
0.0043234 -0.0068158 -0.0010943 -0.0019158 -0.0028882 -0.009475 -0.0088336 -0.01045
-0.0058143 -0.0097918 -0.25928 0.09603
740000000 -0.18985 0.18843 -0.038576 0.02646 0.012538 -0.0050755 -0.00071414 -0.0039731
-0.0049051 -0.0029602 -0.0063421 0.0033846
-0.038562 0.026431 -0.33528 0.17659 -0.035296 0.035309 -0.00051708 -0.006337
-0.011968 0.0076045 -0.0024323 -0.0059602
0.012514 -0.005103 -0.035226 0.035455 -0.069361 0.28568 -0.0014656 0.0034847
-0.0027692 -0.0041694 -0.0013635 0.00040034
-0.00072277 -0.0039845 -0.0005487 -0.0063378 -0.0014639 0.0034733 -0.20298 0.20187
-0.043047 -0.0087346 0.021882 0.013387
-0.0048899 -0.0029021 -0.011939 0.0076782 -0.0027931 -0.0041632 -0.043065 -0.0086931
-0.15829 0.072607 -0.041586 -0.0004679
-0.0063117 0.0033811 -0.0024754 -0.0059403 -0.0013674 0.00039323 0.021898 0.013372
-0.041537 -0.00053355 -0.24762 0.10178
800000000 -0.15717 0.228 -0.022703 0.016923 0.005241 -0.01053 -0.0047746 -0.001798
-0.0040659 0.0027375 0.0044148 0.0011663
-0.022692 0.01689 -0.33833 0.24747 -0.0080079 0.034415 -0.0020917 0.002311
-0.00059865 0.0033691 0.0011508 0.0053556
0.005212 -0.010544 -0.0079078 0.034467 -0.028108 0.30899 0.0011971 0.0015099
0.00067718 0.0035659 -0.0019023 0.001127
-0.0047819 -0.0017987 -0.0020926 0.0023151 0.0011962 0.0015074 -0.17541 0.22968
-0.028718 0.01251 0.01295 -0.0097615
-0.0040786 0.0027726 -0.00058876 0.0033948 0.00066612 0.003587 -0.028727 0.01257
-0.20217 0.095296 -0.017485 0.017436
0.0043915 0.0011629 0.001152 0.0053549 -0.0019002 0.0011492 0.012959 -0.0097636
-0.017493 0.017432 -0.23952 0.15296
860000000 -0.12268 0.24869 -0.017598 0.030999 -0.0034033 -0.0099081 -0.0022606 0.0011924
0.0040975 0.0051674 -0.0030038 -0.0026607
-0.017592 0.030956 -0.29034 0.28967 0.0082449 0.034543 0.00025663 0.0020391
0.0044025 0.00032839 0.0034553 0.00072784
-0.0034355 -0.0099109 0.0083532 0.034554 0.020427 0.31711 -0.00042374 -0.00030171
0.0028364 -0.0014577 0.0016124 0.0044167
-0.0022701 0.0012132 0.00026709 0.0020382 -0.00042751 -0.00030245 -0.13978 0.24167
-0.018441 0.018973 -0.005994 -0.0089123
0.0041099 0.0050997 0.0044117 0.00031159 0.0028322 -0.0014628 -0.018408 0.018984
-0.15318 0.14429 -0.024661 0.015321
-0.0030276 -0.0026203 0.0034449 0.00070439 0.0016253 0.0044088 -0.0060274 -0.0088878
-0.024673 0.01528 -0.19013 0.19527
920000000 -0.097622 0.27182 0.0050295 0.037971 -0.0095045 -0.0043101 -0.0017566 0.0021855
0.001447 0.0015423 0.0024659 -0.0015866
0.0050229 0.037926 -0.26145 0.31074 0.028274 0.021869 0.001642 0.0011488
0.0068207 -0.00076946 0.0039507 -0.0029154
-0.0095121 -0.0042942 0.028373 0.021809 0.066997 0.31751 0.0017483 -0.00014905
0.0012924 -0.00041147 0.00090438 -0.00099967
-0.0017504 0.0021967 0.0016631 0.0011278 0.0017598 -0.00015128 -0.11555 0.25862
-0.010625 0.030483 0.002724 -0.0065798
0.0014724 0.0015473 0.0068378 -0.00078173 0.0012958 -0.00041616 -0.010572 0.030512
-0.14228 0.15029 -0.0025345 0.0276
0.0024606 -0.0015966 0.0039096 -0.0029523 0.00088139 -0.0010144 0.0027041 -0.0065749
-0.0025378 0.027588 -0.19506 0.20968
980000000 -0.050067 0.29125 0.017829 0.030243 -0.0089204 0.0047531 0.0024251 0.0036377
0.0040319 -0.0018872 -0.0030227 -0.0020223
0.01782 0.030223 -0.20824 0.34466 0.033306 0.0046248 0.0019645 -3.3523e-05
0.0012129 -0.0063013 -0.00059893 -0.0022091
-0.0089061 0.0047816 0.033343 0.0045108 0.11348 0.31072 0.00043573 -0.001174
8.7553e-05 -0.0022055 0.0015661 -9.244e-05
0.0024324 0.0036323 0.00199 -5.5196e-05 0.000442 -0.0011793 -0.077183 0.2707
0.0074217 0.029294 -0.009153 -0.0066168
0.004043 -0.0019026 0.0011717 -0.0063179 8.9144e-05 -0.0022017 0.0074856 0.029301
-0.11085 0.1782 0.0046924 0.019229
-0.0030129 -0.0019997 -0.00058825 -0.0022209 0.0015734 -9.0341e-05 -0.0091602 -0.0066073
0.0046882 0.019211 -0.15257 0.25507
1040000000 -0.0076845 0.29952 0.033424 0.018027 -0.0011113 0.0070147 0.0027516 0.00062086
-0.00016102 -0.0037714 -0.00063782 -0.0015577
0.033404 0.018002 -0.17268 0.35766 0.02938 -0.015147 0.0014762 -0.0017127
-0.0026223 -0.0023767 -0.0015102 -0.0027392
-0.0010788 0.0070163 0.02934 -0.015254 0.1597 0.29675 -0.0005093 -0.0014654
-0.0015937 -0.0008372 -0.00035558 -0.0012296
0.0027445 0.00062127 0.0014868 -0.0017398 -0.00051622 -0.0014693 -0.049264 0.28079
0.018823 0.017648 -0.0030552 0.0020854
-0.00016775 -0.0037752 -0.0026515 -0.0023554 -0.0015964 -0.00082533 0.018873 0.017618
-0.079806 0.18718 0.013481 0.018355
-0.00063151 -0.0015356 -0.0015514 -0.0027365 -0.00035803 -0.0012296 -0.0030503 0.0020822
0.013476 0.018342 -0.1307 0.27425
1100000000 0.03797 0.30673 0.036062 -0.0044544 0.003074 0.0038165 0.0024945 -0.0014674
-0.0022205 -0.0029751 -0.0039769 0.000154
0.036042 -0.0044404 -0.12896 0.37474 0.014956 -0.027995 -3.6505e-05 -0.0018254
-0.0032098 -0.0004294 -0.0033897 -0.00054689
0.003099 0.0038132 0.014854 -0.028082 0.20611 0.27612 -0.0017862 0.0002695
-0.0017632 0.00069944 -0.00096833 -0.00047255
0.0024852 -0.001479 -3.7823e-05 -0.001833 -0.0017918 0.00028287 -0.0082272 0.28593
0.023348 0.0048889 -0.0022635 0.0010261
-0.0022242 -0.002981 -0.0032216 -0.00040703 -0.0017708 0.00069553 0.023367 0.0048506
-0.061154 0.20061 0.018779 0.0087169
-0.0039709 0.00016837 -0.0034017 -0.00052687 -0.00096694 -0.00047519 -0.0022597 0.0010233
0.018771 0.0087315 -0.083779 0.30257
1160000000 0.089357 0.30151 0.024006 -0.020974 0.0028635 -0.00055482 -0.00029693 -0.0024911
-0.0040404 -0.00043985 -0.0008855 0.0037867
0.024012 -0.020952 -0.085014 0.37885 -0.0040261 -0.029132 -0.0018067 -0.0015952
-0.002433 0.0026797 -0.0011648 0.0016097
0.0028728 -0.00056115 -0.0041772 -0.029146 0.24916 0.24491 -0.00058508 0.0017451
-0.00037391 0.0018451 -0.0011285 5.524e-05
-0.00030882 -0.002495 -0.0018034 -0.001597 -0.00058624 0.0017415 0.031595 0.28272
0.019784 -0.010093 -0.0025859 0.0056336
-0.0040258 -0.00040715 -0.0024443 0.0027149 -0.00039313 0.001856 0.019791 -0.010124
-0.027862 0.2103 0.01754 0.00064751
-0.00086465 0.0038039 -0.0011611 0.0016146 -0.0011335 5.5359e-05 -0.0025792 0.0056528
0.017539 0.00064971 -0.036548 0.30547
1220000000 0.13384 0.28995 0.010298 -0.030224 -0.0015049 -0.00098119 -0.00014939 -0.0010222
-0.0025548 0.0025883 0.00134 0.0018553
0.010312 -0.030191 -0.040441 0.39047 -0.01708 -0.020962 -0.0025043 0.00048707
0.0002514 0.0027736 -0.00073047 0.0018112
-0.0015112 -0.00097597 -0.0172 -0.020908 0.2882 0.20549 0.00091597 0.0015292
0.0005893 0.0011316 0.00012242 0.00074771
-0.00016323 -0.001025 -0.0024981 0.00050149 0.000921 0.0015261 0.071501 0.27391
0.0093619 -0.015987 0.0028124 0.0016566
-0.0025447 0.0025964 0.00025999 0.0027781 0.00057301 0.0011467 0.009356 -0.015995
-0.0041985 0.2199 0.013694 -0.012201
0.0013461 0.0018397 -0.0007207 0.0017987 0.00012818 0.00074783 0.0028203 0.0016541
0.0137 -0.012179 -0.0047388 0.32098
1280000000 0.18338 0.26733 -0.008055 -0.028551 -0.0018314 0.0023673 -0.0010332 -0.0018758
-0.00057054 0.0030529 0.0025152 0.00089978
-0.0080173 -0.028525 0.0056359 0.38101 -0.023689 -0.0082098 -0.000944 0.0014795
0.0016128 0.0015558 0.00056324 0.0019823
-0.0018289 0.0023697 -0.023758 -0.008109 0.31842 0.16142 0.0013572 -0.00021593
0.0010056 0.0001243 0.00022664 0.00048585
-0.0010454 -0.0018718 -0.00093093 0.0014856 0.0013584 -0.00021361 0.10799 0.25733
0.00033628 -0.017595 0.00054158 9.1795e-06
-0.00055971 0.003069 0.0016289 0.0015473 0.0010048 0.00011833 0.00031145 -0.017604
0.033241 0.22367 0.0029916 -0.014341
0.0025168 0.00089118 0.00056642 0.0019771 0.00023119 0.00048124 0.00054841 5.2488e-06
0.003002 -0.014339 0.042799 0.32154
1340000000 0.22021 0.23303 -0.017835 -0.019003 0.00077235 0.004329 -0.0017629 -0.00072313
0.0015038 0.0026479 0.0016747 -0.0015586
-0.017798 -0.018985 0.045011 0.37218 -0.021404 0.0044029 -2.9513e-05 0.0019269
0.0016805 0.00063283 0.0013519 0.00089851
0.00078116 0.0043327 -0.021408 0.0045215 0.34029 0.11334 0.00089779 -0.00083781
0.00066339 -0.00038486 0.00022873 0.00034025
-0.0017648 -0.00071571 -1.835e-05 0.0019321 0.00090642 -0.00083445 0.14053 0.2369
-0.008042 -0.014543 0.0013004 -5.1174e-05
0.0015288 0.0026345 0.0016978 0.00061896 0.00066056 -0.0003846 -0.0080659 -0.014539
0.064148 0.21891 -0.0031713 -0.013053
0.0016609 -0.0015631 0.0013551 0.0008919 0.00022588 0.00033935 0.0013071 -6.3861e-05
-0.0031616 -0.01305 0.0814 0.3162
1400000000 0.25268 0.19439 -0.023555 -0.0074529 0.0049393 0.0030142 -0.0019092 0.00063235
0.0025823 0.00071805 0.00010273 -0.001391
-0.023524 -0.0074554 0.081929 0.35859 -0.014546 0.012356 0.0013497 0.0012342
0.00098581 -0.00076469 0.0012183 0.00016315
0.0049639 0.0029961 -0.01451 0.012444 0.3531 0.059766 9.2469e-05 -0.0013867
8.9159e-05 -0.00036268 0.00044158 0.00015538
-0.0019072 0.00064562 0.0013523 0.0012328 9.3617e-05 -0.0013872 0.16999 0.20839
-0.013103 -0.008136 -0.00058189 -0.00086302
0.0025812 0.00069617 0.00098528 -0.00076812 8.3475e-05 -0.00036382 -0.013125 -0.0081169
0.097343 0.21376 -0.0095502 -0.0084146
0.00010914 -0.0013982 0.0012219 0.00015044 0.00043833 0.0001682 -0.00058835 -0.00086657
-0.0095539 -0.0084216 0.12575 0.30462
1460000000 0.27477 0.15006 -0.020517 0.0048014 0.0053847 -0.0017154 -0.0014977 0.0016508
0.0019886 -0.00074334 -0.00040621 -0.00078764
-0.0205 0.0047898 0.11559 0.33643 -0.0060106 0.015089 0.0016666 0.00017422
0.00083352 -0.0010625 0.0012048 -0.00070712
0.0053764 -0.0017336 -0.0059408 0.015128 0.3589 0.0052855 -0.0010593 -0.0011882
0.00023977 -0.00019155 0.00079849 -0.0003685
-0.001486 0.0016576 0.001672 0.00017243 -0.0010456 -0.0011881 0.19656 0.17939
-0.01353 -0.0023003 -0.001204 0.0014079
0.0019843 -0.00076258 0.00082617 -0.0010806 0.00024396 -0.00019076 -0.013546 -0.0022784
0.1272 0.19857 -0.011324 -0.0029918
-0.00040414 -0.00080172 0.0011911 -0.00071703 0.0007893 -0.00039241 -0.0012023 0.00141
-0.011311 -0.0030022 0.15906 0.28279
1520000000 0.28624 0.10855 -0.014808 0.010515 0.0030723 -0.0040538 6.7055e-05 0.00252
0.0017393 -0.0017418 -0.001137 -3.9451e-05
-0.014805 0.010498 0.14864 0.32158 0.0014522 0.0129 0.0015827 -0.00079573
0.00011141 -0.00088812 0.00025676 -0.0010673
0.0030626 -0.0040693 0.0015267 0.012911 0.35183 -0.050702 -0.00092813 -0.00037864
0.00050425 -0.00083818 -5.4111e-05 -0.00011748
8.437e-05 0.0025171 0.0015751 -0.0008009 -0.00093889 -0.00037656 0.22013 0.14149
-0.012691 0.0025069 0.00094453 0.0017105
0.0017326 -0.0017641 0.00011106 -0.00089352 0.00050314 -0.00084917 -0.012697 0.0025343
0.15517 0.18373 -0.011266 0.0013643
-0.0011452 -3.5882e-05 0.00026035 -0.0010726 -5.3583e-05 -0.00012501 0.00094608 0.0017033
-0.011261 0.0013594 0.19176 0.26163
1580000000 0.29479 0.062623 -0.008057 0.013582 -0.00093954 -0.0046611 0.0013101 0.0017862
-0.00054625 -0.0021105 -0.00032815 0.00043638
-0.0080522 0.013569 0.1754 0.29684 0.0049993 0.0081716 0.00045571 -0.0015633
-0.00039015 -0.0010373 -0.00035711 -0.0008528
-0.00095787 -0.0046566 0.0050526 0.0081611 0.33122 -0.10814 -0.0014796 0.00042134
-0.000328 -0.0010717 0.00012629 -0.00059996
0.0013173 0.0017925 0.00045415 -0.0015715 -0.0014947 0.00041461 0.2346 0.10198
-0.009594 0.0063888 0.0017206 0.00069112
-0.00056564 -0.002107 -0.00040583 -0.0010349 -0.00033047 -0.0010741 -0.0095861 0.0064272
0.17953 0.16508 -0.0089953 0.0068091
-0.00033205 0.00043888 -0.00036343 -0.00085081 0.00012316 -0.00059056 0.0017245 0.00069019
-0.0089884 0.0068039 0.22328 0.23418
1640000000 0.29655 0.021799 -0.0012812 0.012423 -0.002663 -0.0025156 0.002529 0.0010464
-0.00088793 -0.0011544 -0.00024257 0.00064375
-0.0012965 0.012407 0.2045 0.27202 0.0056579 0.0035195 -0.00073447 -0.001664
-0.00095347 -0.00047729 -0.0005813 -0.00056681
-0.0026785 -0.0025021 0.0056906 0.0034919 0.30303 -0.15689 -0.00082746 0.0012838
-0.0010686 -0.00088037 -0.00012057 -0.000319
0.0025297 0.0010291 -0.00073929 -0.0016612 -0.0008246 0.0012854 0.24721 0.052661
-0.0059632 0.0070275 0.002093 -0.0005823
-0.00090603 -0.0011483 -0.00096078 -0.00046464 -0.0010715 -0.00087492 -0.005951 0.0070528
0.20238 0.13985 -0.0045291 0.0089137
-0.00023416 0.00064615 -0.0005844 -0.00056825 -0.00012065 -0.00032784 0.002091 -0.00057924
-0.0045304 0.0089091 0.24844 0.20244
1700000000 0.28938 -0.023068 0.0021775 0.0095871 -0.003396 0.00017032 0.002918 -0.0010437
-0.0019301 -0.00035616 0.00064844 0.00038888
0.0021749 0.0095817 0.22236 0.24072 0.0037427 0.00073444 -0.001409 -0.00054074
-0.00082591 -2.7041e-05 -0.00091722 -0.00031607
-0.0033921 0.00018168 0.0037557 0.00071664 0.25949 -0.1968 0.0003274 0.0016265
-0.0017351 -0.00018906 -0.00055481 -0.00088203
0.0029135 -0.0010609 -0.0014106 -0.0005304 0.000324 0.0016249 0.24404 0.0022016
-0.0040812 0.0072717 0.0012548 -0.0019425
-0.0019319 -0.00034667 -0.00082011 -2.3102e-05 -0.001732 -0.00019107 -0.0040629 0.0072962
0.21981 0.11847 -8.6181e-05 0.0091567
0.00065277 0.00038325 -0.00092472 -0.00030073 -0.00057639 -0.00089878 0.0012561 -0.0019403
-8.1101e-05 0.0091648 0.26418 0.16775
1760000000 0.27716 -0.07138 0.0044753 0.0062218 -0.0022033 0.00092294 0.0013586 -0.0032441
-0.0010491 0.00073401 0.00040086 -0.00055162
0.0044728 0.006219 0.24813 0.2011 0.0016508 -0.00098754 -0.0011215 0.00024572
-0.0011499 0.00088275 -0.00050748 0.0005852
-0.0021922 0.00093142 0.0016454 -0.00099238 0.21068 -0.22967 0.0011405 0.0012771
-0.0011144 0.0013947 -0.0012905 -0.00034959
0.0013397 -0.0032487 -0.0011266 0.00025111 0.0011392 0.0012813 0.23436 -0.04973
-0.0017533 0.0065779 -0.00031809 -0.0021343
-0.0010466 0.00074656 -0.0011413 0.00089517 -0.0011063 0.0014014 -0.0017377 0.0065959
0.23442 0.081921 0.0037823 0.0066823
0.00039524 -0.00054666 -0.00050448 0.00059175 -0.0012961 -0.00035317 -0.00032082 -0.0021361
0.0037857 0.0066711 0.27618 0.12952
1820000000 0.25275 -0.10857 0.004642 0.0026425 9.6944e-05 0.0023726 -0.00082188 -0.0031023
-0.00067066 0.00071171 -2.5823e-05 -0.00018545
0.004637 0.002638 0.258 0.17126 -0.000272 6.4759e-05 -0.0012896 0.00090293
-0.00012048 0.0013679 -0.00038139 0.00052939
0.00011332 0.0023721 -0.00027052 6.9209e-05 0.1608 -0.24555 0.0016392 0.00037706
-0.0002863 0.0020805 -0.0014588 0.0005551
-0.0008441 -0.0031038 -0.0012881 0.00091089 0.0016363 0.00037861 0.20376 -0.097012
-0.00093277 0.0053993 -0.0015025 -0.0013336
-0.00066193 0.00071203 -0.00011702 0.0013673 -0.00028838 0.0020719 -0.00090503 0.005403
0.25068 0.051102 0.0045778 0.0032652
-2.1516e-05 -0.00017818 -0.00037924 0.00053471 -0.0014682 0.00055395 -0.0015098 -0.0013277
0.0045735 0.0032572 0.27765 0.093241
1880000000 0.21771 -0.14881 0.0024906 0.00039316 -0.00033971 0.0019825 -0.0027726 -0.0023149
-5.8556e-05 0.0013855 0.00031748 -0.00048922
0.0024823 0.00039479 0.26251 0.12499 -0.002105 0.0017128 -0.00010206 0.0016621
0.00069068 0.0013837 0.0002683 0.00086227
-0.00032215 0.0019865 -0.0020944 0.0017318 0.10886 -0.25505 0.0020364 -0.0010485
0.0015071 0.0019709 -0.00078222 0.0013714
-0.0027789 -0.0023085 -8.5957e-05 0.0016717 0.0020453 -0.0010602 0.16246 -0.13673
-0.00079617 0.0043053 -0.0023117 0.00063982
-5.2357e-05 0.0013716 0.00070877 0.0013761 0.0014964 0.0019707 -0.00077722 0.0043095
0.25207 0.016831 0.0042768 0.0012162
0.00032198 -0.00048055 0.00027194 0.00085866 -0.00078089 0.0013702 -0.002312 0.00064016
0.0042827 0.0012156 0.27662 0.058907
1940000000 0.17825 -0.17477 0.00026667 -0.0013496 0.0012997 0.0018312 -0.003765 0.00044788
0.0011318 0.00087513 -0.00059999 -0.00061124
0.00026662 -0.0013494 0.26306 0.093306 -0.0010341 0.0038856 0.0010078 0.0013178
0.0019933 0.00059201 0.00081887 0.00016484
0.0012935 0.0018418 -0.0010225 0.0038902 0.062614 -0.2488 0.00037275 -0.0023487
0.002346 0.00055724 0.00033945 0.0015888
-0.0037576 0.00047339 0.0010178 0.0013108 0.00037284 -0.0023456 0.10969 -0.1665
-0.0018352 0.0038084 -0.0012574 0.0017897
0.0011439 0.00086989 0.0019957 0.00056978 0.002344 0.00054774 -0.001823 0.0038165
0.25154 -0.0236 0.0030393 -0.0017848
-0.00060511 -0.0005993 0.00081515 0.00015855 0.00033667 0.0015965 -0.0012468 0.0017885
0.0030361 -0.0017769 0.26466 0.022857
2000000000 0.13178 -0.18957 -0.0035014 0.00051509 0.0024234 0.0015073 -0.0023963 0.0036323
0.00083785 0.00020168 -0.00062176 0.00034066
-0.0034856 0.00051578 0.24904 0.057845 -0.00085188 0.0055911 0.0016361 0.00029211
0.0015423 -0.0014904 0.00039161 0.00014833
0.0024212 0.0014977 -0.00081958 0.0056006 0.018896 -0.23437 -0.001532 -0.0014528
0.0020378 -0.0012251 0.0015014 0.0013558
-0.0023849 0.003648 0.0016447 0.00027909 -0.0015313 -0.0014572 0.056539 -0.1754
-0.0030229 0.0046629 0.00027686 0.0022613
0.0008444 0.00018875 0.0015405 -0.0015121 0.0020437 -0.0012401 -0.0030183 0.0046659
