!Keysight Technologies,M9804A,MY58100912,A.14.10.03
!Date: Thursday, April 27, 2023 10:28:33
!Correction: S11(C  6-Port  ) 
!S12(C  6-Port  ) 
!S13(C  6-Port  ) 
!S14(C  6-Port  ) 
!S15(C  6-Port  ) 
!S16(C  6-Port  ) 
!S21(C  6-Port  ) 
!S22(C  6-Port  ) 
!S23(C  6-Port  ) 
!S24(C  6-Port  ) 
!S25(C  6-Port  ) 
!S26(C  6-Port  ) 
!S31(C  6-Port  ) 
!S32(C  6-Port  ) 
!S33(C  6-Port  ) 
!S34(C  6-Port  ) 
!S35(C  6-Port  ) 
!S36(C  6-Port  ) 
!S41(C  6-Port  ) 
!S42(C  6-Port  ) 
!S43(C  6-Port  ) 
!S44(C  6-Port  ) 
!S45(C  6-Port  ) 
!S46(C  6-Port  ) 
!S51(C  6-Port  ) 
!S52(C  6-Port  ) 
!S53(C  6-Port  ) 
!S54(C  6-Port  ) 
!S55(C  6-Port  ) 
!S56(C  6-Port  ) 
!S61(C  6-Port  ) 
!S62(C  6-Port  ) 
!S63(C  6-Port  ) 
!S64(C  6-Port  ) 
!S65(C  6-Port  ) 
!S66(C  6-Port  ) 
!S6P File: Measurement: :
# Hz S  RI   R 50
500000000 -0.33913 -0.037784 -0.010455 -0.0031847 -0.0081187 0.012649 -0.0036807 0.011727
0.01203 0.0046543 -0.0038437 0.0084712
-0.010745 -0.0030701 -0.41994 -0.050857 0.0072492 -0.010831 0.0016432 0.012204
0.0071412 0.0024554 0.00097246 0.01333
-0.008092 0.012619 0.0071279 -0.010873 -0.2664 0.21115 0.0068794 0.0035471
-0.00083563 0.0087562 0.00034847 0.012287
-0.0039295 0.011818 0.001458 0.012105 0.0068852 0.0035367 -0.32838 0.045731
-0.021283 -0.0044789 0.01808 0.025721
0.01207 0.004604 0.0074148 0.0026182 -0.00061093 0.0086471 -0.021153 -0.0045214
-0.22673 -0.18766 -0.029079 0.0046123
-0.0041115 0.0082948 0.0011168 0.013216 0.00050784 0.012201 0.018103 0.025773
-0.029104 0.0045056 -0.27185 -0.11766
560000000 -0.31821 0.12396 -0.024405 -0.062101 0.00040196 0.012181 0.0060024 0.010412
0.01012 0.0041412 0.010416 0.0080569
-0.024707 -0.062396 -0.37728 0.10826 -0.042739 -0.036427 0.013528 0.0039808
-0.013559 -0.0040033 0.0042073 -0.00074928
0.00034754 0.01228 -0.042426 -0.036294 -0.18321 0.25924 -0.00010925 -0.0043413
0.019647 0.0046681 0.0066743 -0.0058768
0.0061209 0.010531 0.01356 0.0036506 -0.0002704 -0.0041851 -0.30431 0.13541
0.0034645 -0.024163 0.0044947 -0.019359
0.010127 0.0040955 -0.013662 -0.0039223 0.01987 0.0047785 0.0036182 -0.024016
-0.28794 -0.011418 0.0074213 -0.050309
0.010494 0.0080941 0.0044476 -0.0011256 0.0066077 -0.005787 0.0046947 -0.019501
0.0070421 -0.050237 -0.33161 0.029347
620000000 -0.27535 0.10923 -0.023184 0.0081647 0.0039607 0.0086446 0.0068772 -0.0056015
0.011727 -8.0806e-05 0.00068173 -0.0018358
-0.023179 0.0080975 -0.40327 0.061729 -0.018587 0.00025535 -0.00098164 -0.0018786
0.010817 -0.0070939 0.0012463 -0.0026124
0.0036848 0.0085207 -0.018705 0.00053538 -0.1526 0.26831 -0.0011947 -0.0052604
-0.0030572 -0.0030719 0.0082565 -0.0035712
0.0070582 -0.0053554 -0.0010723 -0.0018129 -0.001159 -0.0051031 -0.26305 0.14631
-0.039192 -0.018341 0.014152 0.024825
0.011862 -3.8915e-05 0.010673 -0.0071595 -0.003605 -0.0032353 -0.03919 -0.018394
-0.20678 -0.050531 -0.040899 0.01496
0.00081466 -0.0024834 0.0012727 -0.0024684 0.008346 -0.0034174 0.014256 0.02497
-0.041262 0.01484 -0.25065 -0.0063464
680000000 -0.23455 0.19498 -0.027376 -0.013441 0.0049946 0.0049663 0.0014028 -0.0074198
-0.002811 -0.011216 0.0046684 -0.0069156
-0.027448 -0.013317 -0.38783 0.1595 -0.032617 -0.001129 -0.0015926 -0.00042683
-0.0023848 -0.0090461 -0.00088405 -0.002049
0.0050788 0.0050649 -0.032658 -0.0010187 -0.10152 0.2878 -0.00076727 -0.0001927
-0.0021028 0.00045547 -0.0027529 -0.0094676
0.0014744 -0.0074586 -0.0016153 -0.00042028 -0.00075246 -0.00019412 -0.21988 0.19549
-0.023664 -0.0072782 -0.0089033 -0.010191
-0.0026387 -0.01134 -0.0025477 -0.0090889 -0.002112 0.00034138 -0.023745 -0.0072388
-0.25522 0.049006 -0.0060969 -0.0088322
0.0046537 -0.0067936 -0.00080286 -0.0021581 -0.0027275 -0.0094122 -0.0090703 -0.010272
-0.0061871 -0.0088085 -0.25927 0.096837
740000000 -0.1892 0.18957 -0.037879 0.027097 0.012948 -0.0053661 -0.00066387 -0.0039301
-0.0046596 -0.0032124 -0.0062747 0.003302
-0.037835 0.027142 -0.33452 0.17774 -0.034638 0.035324 -0.00063864 -0.006608
-0.012128 0.007668 -0.002776 -0.0060544
0.012922 -0.0053113 -0.034485 0.035549 -0.067728 0.28571 -0.0016951 0.003269
-0.0028643 -0.0044499 -0.0013921 0.000158
-0.00081719 -0.0039558 -0.00056614 -0.0066139 -0.0016724 0.0032901 -0.2027 0.2034
-0.042481 -0.0078988 0.022708 0.013887
-0.004443 -0.0031139 -0.011886 0.0076902 -0.002894 -0.0044386 -0.042488 -0.0078987
-0.15839 0.074577 -0.041376 0.00080278
-0.0064256 0.0034774 -0.002668 -0.0062008 -0.0013877 0.00024955 0.022497 0.013805
-0.041159 0.00024276 -0.24752 0.10297
800000000 -0.15629 0.22905 -0.021846 0.016832 0.0053106 -0.010664 -0.0046949 -0.0018383
-0.0042469 0.0022695 0.0042342 0.0010059
-0.021754 0.016887 -0.33727 0.24799 -0.0075614 0.033959 -0.0022454 0.002204
-0.0010325 0.0032186 0.001105 0.0052092
0.0053087 -0.010698 -0.0074605 0.033992 -0.026872 0.30844 0.00099195 0.0016723
0.00047213 0.0036084 -0.0017349 0.00093144
-0.0046766 -0.0018496 -0.0022206 0.0022098 0.0010067 0.0016841 -0.17438 0.2307
-0.027797 0.012908 0.013291 -0.010093
-0.004355 0.0022596 -0.00093477 0.0032525 0.00056915 0.003636 -0.027764 0.013004
-0.20161 0.09759 -0.016725 0.017764
0.0042767 0.00091907 0.0011827 0.005281 -0.0017503 0.00091807 0.013328 -0.010087
-0.016595 0.017774 -0.23914 0.15373
860000000 -0.12131 0.24887 -0.016717 0.03065 -0.0031905 -0.010044 -0.0022593 0.00098994
0.0037265 0.0051129 -0.0030792 -0.0024699
-0.016805 0.030759 -0.28904 0.28976 0.0083232 0.034139 4.6203e-05 0.0021148
0.0040102 0.0006845 0.003541 0.00051014
-0.003256 -0.0099773 0.008417 0.03411 0.021002 0.31625 -0.00046739 -0.00018516
0.0028006 -0.0014824 0.001789 0.0042198
-0.0022759 0.0010802 -1.8919e-05 0.0021788 -0.00047753 -0.00020717 -0.13853 0.24187
-0.017386 0.018534 -0.0061404 -0.0087811
0.0037904 0.0050509 0.0042106 0.00063173 0.002826 -0.0014534 -0.017517 0.018461
-0.15135 0.14583 -0.024039 0.015588
-0.0029891 -0.0025515 0.0036005 0.00063965 0.0017412 0.0041941 -0.0059883 -0.0088019
-0.024079 0.015471 -0.18915 0.19547
920000000 -0.096637 0.27126 0.0055475 0.037138 -0.0094639 -0.0046161 -0.0019413 0.0018796
0.0014822 0.0017137 0.0024652 -0.0017065
0.0055813 0.037046 -0.26044 0.3102 0.028135 0.021492 0.0015315 0.0010524
0.0070663 -0.00061459 0.0039231 -0.0030307
-0.0094575 -0.0045755 0.028229 0.021421 0.06711 0.31678 0.0018204 -0.00019458
0.0013061 -0.0004329 0.00075471 -0.0012503
-0.0018766 0.0019104 0.0016116 0.0010403 0.0018347 -0.00019155 -0.11439 0.2582
-0.0099775 0.029963 0.0028538 -0.0069167
0.0013761 0.0018758 0.0070208 -0.00072471 0.00128 -0.00043388 -0.0099142 0.030015
-0.1411 0.15129 -0.0017055 0.027089
0.0025683 -0.0017313 0.0038181 -0.0029787 0.00075817 -0.0012666 0.0029237 -0.0068571
-0.0018575 0.027122 -0.19474 0.20999
980000000 -0.049517 0.29042 0.017679 0.029473 -0.0090755 0.0045031 0.0021102 0.0035916
0.0040697 -0.001683 -0.0030629 -0.0022006
0.017585 0.029521 -0.20775 0.34395 0.032989 0.0044131 0.0020149 2.2428e-05
0.0013829 -0.0063314 -0.00063207 -0.0023037
-0.0090796 0.0045322 0.033005 0.0043238 0.11343 0.31021 0.00047236 -0.001196
8.2259e-05 -0.0021912 0.0013141 -3.5249e-05
0.0020819 0.0035909 0.002019 2.8246e-05 0.00043928 -0.0012076 -0.076114 0.2697
0.0077323 0.02874 -0.0090486 -0.0066817
0.0039401 -0.0016772 0.0014054 -0.0063766 8.7984e-05 -0.0021877 0.0077854 0.028739
-0.10907 0.17867 0.0051461 0.018961
-0.0030857 -0.0020611 -0.0006313 -0.0022808 0.0013412 -2.1219e-05 -0.0090867 -0.0067207
0.0050597 0.018972 -0.15166 0.25503
1040000000 -0.0075156 0.29855 0.033089 0.017532 -0.0013849 0.006871 0.0025681 0.00083445
0.00011453 -0.0035992 -0.00061368 -0.0016814
0.033083 0.017572 -0.17238 0.35691 0.02909 -0.01513 0.0015564 -0.0017133
-0.0025526 -0.0025673 -0.0014635 -0.0027417
-0.0013873 0.0068665 0.029044 -0.015258 0.15965 0.29639 -0.00054362 -0.0014939
-0.0016283 -0.00080768 -0.00051435 -0.0010305
0.002546 0.00081488 0.0015282 -0.0017053 -0.00051691 -0.0014826 -0.048804 0.27958
0.01873 0.01705 -0.0029611 0.0015727
4.9839e-05 -0.0036361 -0.0025877 -0.0025357 -0.0016232 -0.00083161 0.018746 0.01699
-0.077889 0.18667 0.013608 0.017782
-0.00060606 -0.0016863 -0.0015283 -0.0028068 -0.0005603 -0.0010755 -0.002915 0.0015346
0.013676 0.017757 -0.1299 0.27419
1100000000 0.037738 0.306 0.035566 -0.0047736 0.0027276 0.0038615 0.0025504 -0.001195
-0.0020711 -0.0030469 -0.0039831 0.00017981
0.035529 -0.004733 -0.12903 0.37386 0.014802 -0.027952 3.3991e-05 -0.0018278
-0.0035038 -0.00057974 -0.0034554 -0.0004518
0.0027465 0.0038838 0.014708 -0.028015 0.20607 0.27584 -0.0018256 0.00023064
-0.0018275 0.00067367 -0.00101 -0.00021557
0.002509 -0.0012143 3.5907e-05 -0.0018367 -0.0018237 0.00023688 -0.0085127 0.28463
0.023118 0.004389 -0.002635 0.00061709
-0.0020883 -0.0030805 -0.003495 -0.00057885 -0.0017871 0.00069062 0.023166 0.0043592
-0.059582 0.19956 0.018771 0.0082282
-0.003927 0.00015816 -0.0034639 -0.00042835 -0.0009956 -0.00022937 -0.0026327 0.00067228
0.018776 0.0082215 -0.083209 0.30239
1160000000 0.088915 0.30094 0.02338 -0.021028 0.0025055 -0.00033867 -9.3632e-05 -0.0023106
-0.0040246 -0.00054629 -0.00095967 0.0038372
0.023393 -0.021027 -0.08551 0.37824 -0.0041608 -0.029093 -0.0017655 -0.001702
-0.0026839 0.0027656 -0.0012307 0.0017004
0.002516 -0.00037278 -0.0042896 -0.029085 0.24916 0.24456 -0.00062634 0.0017856
-0.00032418 0.0020341 -0.00087238 0.00023541
-6.2607e-05 -0.0023139 -0.0017856 -0.0016871 -0.00064576 0.0017837 0.030648 0.28188
0.019313 -0.010391 -0.0029294 0.0054084
-0.0040308 -0.00050265 -0.0026846 0.0028211 -0.00032433 0.0020421 0.019324 -0.010423
-0.026883 0.20851 0.017493 0.0001831
-0.0009238 0.0038395 -0.0012171 0.001741 -0.00082287 0.00023885 -0.0029385 0.0054421
0.017444 0.00019679 -0.036353 0.30498
1220000000 0.13326 0.28967 0.0096307 -0.030046 -0.0016286 -0.00059177 7.0068e-05 -0.0011178
-0.0026209 0.0025378 0.001361 0.0019472
0.0096679 -0.029971 -0.04123 0.39009 -0.017176 -0.020964 -0.0025433 0.00041953
0.00024454 0.0030993 -0.00067419 0.00188
-0.0016281 -0.00056782 -0.017279 -0.020895 0.28809 0.20504 0.00090501 0.0016708
0.00063555 0.0011245 0.00032948 0.00071194
6.3665e-05 -0.0011454 -0.0025363 0.00043223 0.00091249 0.0016901 0.070431 0.27368
0.0090277 -0.016148 0.0023066 0.0018318
-0.002666 0.0025391 0.00025087 0.0031036 0.00065399 0.0011407 0.0090048 -0.016175
-0.0040947 0.21787 0.013321 -0.012666
0.0013478 0.0019492 -0.00068278 0.0019193 0.00029124 0.0007296 0.0022482 0.0018319
0.013327 -0.012649 -0.0044948 0.32069
1280000000 0.18282 0.26744 -0.0085531 -0.028115 -0.0017455 0.0027865 -0.00097509 -0.0021141
-0.0007369 0.0031388 0.0025856 0.0010715
-0.008531 -0.028089 0.004778 0.3811 -0.02382 -0.0081927 -0.0010292 0.0015152
0.0018375 0.0016977 0.00061429 0.0019367
-0.0017358 0.0027818 -0.02391 -0.0080803 0.31805 0.16108 0.0015341 -0.00018841
0.0011592 6.7039e-06 0.00034826 0.00030445
-0.00097506 -0.0021229 -0.001029 0.0015277 0.0015211 -0.00018936 0.10699 0.25763
-9.4346e-05 -0.017719 0.00032836 0.00036483
-0.00070722 0.0031594 0.0018538 0.0017041 0.0011309 -1.1185e-05 -0.00011794 -0.01773
0.03249 0.22194 0.0026015 -0.014699
0.0025998 0.0010652 0.00065816 0.0019392 0.0003253 0.00029266 0.00031362 0.00036846
0.0026089 -0.014709 0.042986 0.32106
1340000000 0.21975 0.23344 -0.018102 -0.018251 0.0010763 0.0045623 -0.0019751 -0.00088933
0.0014669 0.0027238 0.0018025 -0.0015547
-0.018065 -0.018244 0.044405 0.37263 -0.021561 0.0045596 -2.8018e-05 0.00205
0.0019225 0.00052338 0.0013385 0.00085255
0.0011145 0.0045502 -0.021571 0.0046514 0.3397 0.11306 0.0010406 -0.00096506
0.00063669 -0.00044793 0.00015585 0.00023853
-0.0019525 -0.00088349 -3.4345e-05 0.0020408 0.0010283 -0.00096852 0.14003 0.23762
-0.0085247 -0.014535 0.0011771 0.00035729
0.0014837 0.0027112 0.0019311 0.00050397 0.0006395 -0.00045094 -0.0085587 -0.014496
0.062851 0.21777 -0.0038551 -0.013241
0.0018201 -0.0015718 0.001349 0.00083224 0.00013738 0.00023201 0.0011695 0.00035201
-0.0038057 -0.013227 0.081385 0.31575
1400000000 0.25265 0.19496 -0.023367 -0.0066667 0.0053752 0.0030923 -0.0021231 0.00072876
0.0025844 0.00084253 0.00021296 -0.0015223
-0.023335 -0.006671 0.08151 0.35938 -0.014666 0.012637 0.0014195 0.0012591
0.001036 -0.00099708 0.0011856 0.00015922
0.0054281 0.0030756 -0.0146 0.01273 0.3524 0.059823 4.3063e-05 -0.0015687
2.7059e-05 -0.00033202 0.00037705 0.00016046
-0.0021332 0.00074106 0.0014273 0.0012542 4.5991e-05 -0.0015726 0.16988 0.20908
-0.013607 -0.0079157 -0.00042828 -0.00040978
0.0025738 0.00081062 0.0010328 -0.0010229 7.0274e-06 -0.00033025 -0.013624 -0.007889
0.095813 0.21332 -0.010168 -0.0082349
0.0001951 -0.0015274 0.0011995 0.00017606 0.00036617 0.00014247 -0.0004473 -0.00040594
-0.010162 -0.0082417 0.12551 0.30412
1460000000 0.2752 0.15067 -0.019996 0.0053852 0.0057476 -0.0018805 -0.0015149 0.0018403
0.0021136 -0.00072002 -0.00042751 -0.00085155
-0.019996 0.0053425 0.11567 0.33732 -0.0058576 0.015421 0.0017296 0.00013465
0.00072244 -0.0012195 0.001187 -0.0006638
0.0057105 -0.0019548 -0.005803 0.015476 0.35844 0.0057633 -0.0012297 -0.0011829
0.00019173 -9.232e-05 0.00076151 -0.00036004
-0.0015091 0.0018644 0.001737 0.00012726 -0.0012407 -0.0011973 0.19683 0.18001
-0.013909 -0.0018039 -0.00085098 0.0016215
0.0021231 -0.00071335 0.00069751 -0.0012201 0.00018 -0.00013016 -0.013913 -0.0017543
0.12587 0.19887 -0.011742 -0.0024894
-0.00045907 -0.00089391 0.0012048 -0.0006838 0.00072533 -0.00036176 -0.00085521 0.0016149
-0.011731 -0.0025008 0.1587 0.28248
1520000000 0.28701 0.10874 -0.014046 0.010664 0.0032869 -0.0044106 0.00019933 0.0026485
0.0018591 -0.0018262 -0.0012129 -5.6426e-05
-0.014054 0.01064 0.14906 0.32236 0.0017637 0.013108 0.0016047 -0.00084523
-3.0477e-05 -0.00083638 0.00029959 -0.0010255
0.0032412 -0.0043904 0.0018177 0.013124 0.35172 -0.050295 -0.0010267 -0.00025912
0.00056615 -0.0008381 -3.4726e-05 -7.9692e-05
0.00019539 0.0026522 0.0015958 -0.00084954 -0.0010128 -0.00026792 0.22062 0.14176
-0.012746 0.0031057 0.0013531 0.0017533
0.0018548 -0.0018447 -3.8333e-05 -0.00083731 0.00055882 -0.00083 -0.01275 0.0031466
0.15428 0.18435 -0.011453 0.0019776
-0.0011868 -6.5483e-05 0.00030005 -0.0010374 -4.7765e-05 -0.00011278 0.0013452 0.0017545
-0.011456 0.001979 0.19144 0.26145
1580000000 0.29582 0.062341 -0.0073355 0.01336 -0.00097807 -0.0050365 0.0015028 0.0018318
-0.000462 -0.0022126 -0.00035176 0.00043913
-0.0073368 0.013346 0.17615 0.29745 0.005377 0.0082066 0.00041123 -0.0015851
-0.00039979 -0.00088895 -0.00025215 -0.00087045
-0.00099136 -0.0050448 0.0054233 0.0081708 0.33166 -0.10759 -0.0014707 0.0005578
-0.00030727 -0.0011392 0.00011228 -0.00057047
0.0015022 0.0018259 0.00041711 -0.0015928 -0.0014698 0.00056779 0.23506 0.10196
-0.0094032 0.0069421 0.0021024 0.00052188
-0.00047617 -0.0022331 -0.00041839 -0.00088109 -0.0003138 -0.0011367 -0.0093844 0.0069665
0.17906 0.16583 -0.0088903 0.007426
-0.00031705 0.00045216 -0.00026174 -0.00085991 0.0001126 -0.00056069 0.0020965 0.00052882
-0.0088914 0.0074044 0.22286 0.23423
1640000000 0.29728 0.020995 -0.00081132 0.011907 -0.0028966 -0.0027146 0.0026419 0.0009092
-0.00092158 -0.0012901 -0.00019476 0.00061779
-0.00083135 0.0119 0.20545 0.2723 0.0059831 0.0033473 -0.00075461 -0.001659
-0.0008219 -0.00042937 -0.00052972 -0.00066719
-0.0028997 -0.0026938 0.006004 0.0033202 0.3036 -0.15695 -0.00065562 0.0013524
-0.0010754 -0.00089442 -0.0001659 -0.00036903
0.0026495 0.00089316 -0.00076865 -0.0016617 -0.00065516 0.0013569 0.2476 0.052489
-0.005553 0.0074495 0.0022804 -0.00085472
-0.00094258 -0.0012878 -0.00084277 -0.00041323 -0.0010818 -0.00089856 -0.0055333 0.0074665
0.20231 0.14045 -0.0041417 0.0093375
-0.00019807 0.00062778 -0.00052458 -0.00065626 -0.00012729 -0.00036612 0.0022732 -0.00088347
-0.0041443 0.0093379 0.24809 0.20267
1700000000 0.28956 -0.024073 0.0023447 0.008922 -0.0037008 5.1889e-05 0.0029409 -0.0012524
-0.0019923 -0.00046463 0.0006821 0.00034458
0.0023232 0.0089143 0.22335 0.24067 0.0039506 0.00042893 -0.0014284 -0.0005246
-0.00071931 -0.00010879 -0.00096667 -0.00042965
-0.0036767 4.5804e-05 0.0039572 0.00041263 0.26003 -0.19692 0.00043418 0.0014807
-0.0017899 -0.00017952 -0.00060441 -0.00097736
0.0029257 -0.0012808 -0.0014302 -0.00051267 0.00041785 0.0014905 0.24418 0.0018626
-0.0035805 0.007447 0.001291 -0.0022342
-0.0019703 -0.0004483 -0.00071847 -0.00011012 -0.0017853 -0.00019374 -0.0035758 0.0074512
0.21968 0.11887 0.00040131 0.0094487
0.00072031 0.00036542 -0.00096792 -0.00042184 -0.00061406 -0.00096508 0.0012771 -0.0022519
0.00040286 0.009454 0.26404 0.16808
1760000000 0.27703 -0.072287 0.0043056 0.0056214 -0.0023854 0.00092643 0.0011937 -0.0033693
-0.0011235 0.00075795 0.0002987 -0.00058974
0.0043173 0.005618 0.24911 0.20075 0.0016485 -0.0013142 -0.0011223 0.00024522
-0.0011778 0.00075651 -0.0006336 0.00049975
-0.0024157 0.00095168 0.0016679 -0.0013296 0.21111 -0.23019 0.0010375 0.0011251
-0.0011672 0.0014023 -0.001359 -0.0004445
0.0011665 -0.0034043 -0.0011202 0.00026294 0.0010505 0.0011501 0.23446 -0.05007
-0.0011976 0.0065752 -0.00049827 -0.0024485
-0.001097 0.00079521 -0.0011602 0.00075587 -0.0011364 0.0013747 -0.0011816 0.0065614
0.2344 0.082322 0.004244 0.0066619
0.00033998 -0.00059325 -0.00062633 0.00050632 -0.0013087 -0.00042413 -0.00050065 -0.0024288
0.0042708 0.0066741 0.27631 0.12991
1820000000 0.25211 -0.10938 0.0042507 0.0022186 -0.00011444 0.0025177 -0.00099432 -0.0030776
-0.00077508 0.00073145 -0.00014626 -0.00013886
0.0042358 0.0022211 0.25882 0.17063 -0.00042471 -0.00016637 -0.0013078 0.00086236
-0.00025622 0.0012792 -0.00054888 0.00056614
-0.00012372 0.0025404 -0.00046254 -0.00015267 0.16072 -0.24603 0.001505 0.0003947
-0.00035402 0.0021569 -0.0014451 0.00057304
-0.0010389 -0.0030811 -0.0013095 0.00086117 0.001508 0.00040127 0.20375 -0.097437
-0.00043704 0.0051967 -0.0017217 -0.0014345
-0.0007674 0.00074006 -0.0002411 0.0012677 -0.00033729 0.0021409 -0.00042419 0.0052267
0.2506 0.051501 0.0050461 0.0031087
-0.00013794 -0.00011038 -0.0005516 0.00057009 -0.0014919 0.00059622 -0.0017421 -0.0014313
0.005047 0.0031084 0.27794 0.093419
1880000000 0.21684 -0.14922 0.0019279 0.0001829 -0.00045489 0.0022425 -0.0029159 -0.0021909
-0.00016357 0.0014761 0.00026683 -0.0004191
0.0019388 0.00018723 0.26303 0.1241 -0.002394 0.0015643 -0.00013816 0.0016535
0.00051698 0.0014324 0.000188 0.00099603
-0.00040026 0.0022021 -0.0023681 0.0015777 0.10866 -0.25561 0.001964 -0.00088227
0.0014932 0.0020127 -0.00084866 0.0014227
-0.0029145 -0.0021356 -0.00013164 0.0016514 0.0019609 -0.00087319 0.16221 -0.13711
-0.00043602 0.0038346 -0.0025129 0.00059691
-0.00015247 0.0014913 0.00053813 0.0014387 0.0014867 0.0019955 -0.0004144 0.0038539
0.25207 0.01734 0.0046579 0.00091292
0.00028221 -0.00041419 0.00020938 0.00098632 -0.00089113 0.0014347 -0.0025 0.00062274
0.0046457 0.00089553 0.27701 0.05919
1940000000 0.17736 -0.17489 -0.00029236 -0.0013396 0.0013299 0.0021191 -0.0036833 0.00057436
0.0011613 0.0010429 -0.00057759 -0.00044812
-0.00030934 -0.0013441 0.26336 0.092322 -0.0012802 0.0038774 0.00097363 0.0013362
0.0019429 0.00075504 0.00090543 0.00033086
0.0013025 0.0020899 -0.0012505 0.0038994 0.062503 -0.24913 0.00048401 -0.0022115
0.0024181 0.00058635 0.00052111 0.0017246
-0.0036722 0.00061868 0.00098337 0.0013248 0.00049615 -0.0022445 0.10922 -0.16688
-0.001777 0.0032032 -0.0015129 0.001835
0.0011555 0.0010314 0.0019426 0.00074132 0.0024561 0.00059759 -0.0017698 0.0031973
0.25181 -0.023114 0.003141 -0.0023037
-0.00057612 -0.00048813 0.00089352 0.00032584 0.00048002 0.0017075 -0.0014856 0.0018421
0.0031533 -0.0023137 0.26514 0.022922
2000000000 0.13096 -0.18914 -0.0040948 0.00082961 0.0025165 0.0016615 -0.0023514 0.0036937
0.00089403 0.00029592 -0.00054915 0.0004385
-0.004093 0.00083775 0.24894 0.056898 -0.0010032 0.0057628 0.0016378 0.00040958
0.0016064 -0.0013265 0.00052424 0.00014393
0.0024992 0.001634 -0.00094898 0.0057797 0.018777 -0.23453 -0.0013468 -0.0014502
0.0020538 -0.001186 0.0016511 0.0012966
-0.0022857 0.0037846 0.0016637 0.00040108 -0.0013504 -0.0014833 0.055839 -0.17551
-0.0032594 0.0041112 0.00011546 0.0023287
0.00090385 0.00029792 0.0016112 -0.0013261 0.002045 -0.0011782 -0.0032337 0.0040966
