!Keysight Technologies,M9804A,MY58100912,A.14.10.03
!Date: Thursday, April 27, 2023 10:28:33
!Correction: S11(C  6-Port  ) 
!S12(C  6-Port  ) 
!S13(C  6-Port  ) 
!S14(C  6-Port  ) 
!S15(C  6-Port  ) 
!S16(C  6-Port  ) 
!S21(C  6-Port  ) 
!S22(C  6-Port  ) 
!S23(C  6-Port  ) 
!S24(C  6-Port  ) 
!S25(C  6-Port  ) 
!S26(C  6-Port  ) 
!S31(C  6-Port  ) 
!S32(C  6-Port  ) 
!S33(C  6-Port  ) 
!S34(C  6-Port  ) 
!S35(C  6-Port  ) 
!S36(C  6-Port  ) 
!S41(C  6-Port  ) 
!S42(C  6-Port  ) 
!S43(C  6-Port  ) 
!S44(C  6-Port  ) 
!S45(C  6-Port  ) 
!S46(C  6-Port  ) 
!S51(C  6-Port  ) 
!S52(C  6-Port  ) 
!S53(C  6-Port  ) 
!S54(C  6-Port  ) 
!S55(C  6-Port  ) 
!S56(C  6-Port  ) 
!S61(C  6-Port  ) 
!S62(C  6-Port  ) 
!S63(C  6-Port  ) 
!S64(C  6-Port  ) 
!S65(C  6-Port  ) 
!S66(C  6-Port  ) 
!S6P File: Measurement: :
# Hz S  RI   R 50
500000000 -0.33878 -0.037761 -0.010466 -0.0032813 -0.0079524 0.012498 -0.0037863 0.011753
0.01195 0.0046786 -0.0038586 0.0084662
-0.01043 -0.0032252 -0.4198 -0.051005 0.0070747 -0.010733 0.0014693 0.012175
0.0074865 0.0022347 0.00094943 0.013316
-0.0080653 0.012623 0.0070589 -0.010853 -0.2663 0.21122 0.0068074 0.0035339
-0.00085213 0.0085269 0.00019862 0.012241
-0.0035604 0.011807 0.0015467 0.012024 0.0068347 0.0035266 -0.32862 0.045569
-0.021136 -0.0045921 0.017928 0.025702
0.012194 0.0046924 0.0072983 0.002548 -0.00078274 0.0088197 -0.021142 -0.0045702
-0.22659 -0.18758 -0.028862 0.0046237
-0.0036908 0.0085432 0.0013157 0.013075 0.00043149 0.012138 0.01777 0.025694
-0.028769 0.0045922 -0.27193 -0.1179
560000000 -0.31804 0.12371 -0.024492 -0.062367 0.00029356 0.012331 0.0061794 0.010543
0.010233 0.0041854 0.010331 0.0079722
-0.02446 -0.062347 -0.37714 0.10842 -0.042512 -0.036253 0.013795 0.0041078
-0.013759 -0.0046117 0.0042865 -0.00063332
0.00035351 0.012236 -0.0427 -0.036445 -0.18351 0.25904 -0.0004271 -0.0042062
0.01981 0.0045948 0.0066585 -0.0058798
0.0060112 0.010498 0.013868 0.0040913 -0.00028502 -0.0044801 -0.30386 0.1357
0.0032433 -0.024088 0.0045374 -0.019403
0.010204 0.0038879 -0.013924 -0.0041369 0.019807 0.0045745 0.0030838 -0.024205
-0.28763 -0.011583 0.0072798 -0.050383
0.010137 0.0082521 0.0043403 -0.00095013 0.0067486 -0.0056356 0.0045497 -0.019373
0.0072467 -0.050377 -0.33163 0.029367
620000000 -0.27535 0.1089 -0.02304 0.0080864 0.0039296 0.0084441 0.0069682 -0.0054134
0.011687 3.0941e-05 0.00065719 -0.0017593
-0.023089 0.008059 -0.40339 0.061576 -0.018722 0.00048812 -0.0010528 -0.0017733
0.010651 -0.0070672 0.0012476 -0.0026217
0.0039551 0.0085641 -0.018764 0.00051159 -0.15297 0.26879 -0.0012384 -0.0051865
-0.0032019 -0.0032142 0.0083255 -0.0036036
0.0070088 -0.0054429 -0.0010842 -0.0018714 -0.0014116 -0.0053264 -0.26316 0.14619
-0.039136 -0.018454 0.014123 0.024919
0.011674 -0.00019251 0.010785 -0.007213 -0.0030391 -0.0031427 -0.039016 -0.018351
-0.20668 -0.050421 -0.040968 0.014946
0.00046887 -0.0018874 0.0013886 -0.0026069 0.0082022 -0.0037124 0.014042 0.025106
-0.04095 0.014936 -0.2509 -0.0062147
680000000 -0.23458 0.19492 -0.027394 -0.013309 0.0050365 0.0050025 0.0013731 -0.007329
-0.0027143 -0.011219 0.0047965 -0.0071069
-0.027344 -0.013309 -0.38789 0.15934 -0.03261 -0.0011934 -0.0016233 -0.00037152
-0.0024379 -0.0092553 -0.00091497 -0.0020622
0.0050383 0.0049956 -0.032669 -0.0011072 -0.10153 0.28772 -0.00082725 -0.00019561
-0.0021164 0.00029368 -0.0028322 -0.0094929
0.0013776 -0.0074707 -0.0016557 -0.00042783 -0.00078865 -0.00019428 -0.21992 0.19551
-0.023662 -0.0072372 -0.0090048 -0.010229
-0.0029114 -0.011238 -0.0024004 -0.0091005 -0.0020044 0.00048099 -0.023701 -0.0071738
-0.2552 0.049117 -0.0059929 -0.0088898
0.0049107 -0.0069982 -0.00071457 -0.0020516 -0.0026847 -0.0094166 -0.0090348 -0.010227
-0.00596 -0.0089009 -0.2593 0.096278
740000000 -0.18929 0.18933 -0.03792 0.027226 0.012867 -0.0055065 -0.00074117 -0.0039875
-0.0044436 -0.0031609 -0.0062426 0.0031617
-0.037894 0.027204 -0.33443 0.17759 -0.034608 0.03558 -0.00063756 -0.0066807
-0.012147 0.0076287 -0.0028048 -0.0061294
0.012848 -0.0055166 -0.034619 0.035668 -0.067969 0.28578 -0.0016825 0.0033311
-0.0028318 -0.0043841 -0.001352 0.00015496
-0.00064404 -0.0039609 -0.00064893 -0.0066117 -0.0017496 0.003345 -0.2027 0.20338
-0.04245 -0.0077896 0.022728 0.014068
-0.0044654 -0.0031604 -0.012262 0.0076483 -0.0027961 -0.0045377 -0.042453 -0.0077122
-0.15812 0.074609 -0.041435 0.00056473
-0.0064772 0.0032054 -0.0027722 -0.0062241 -0.001413 0.0001019 0.022748 0.014069
-0.041374 0.00055115 -0.24777 0.10305
800000000 -0.15628 0.22893 -0.0218 0.016889 0.0053074 -0.010628 -0.0046726 -0.0019105
-0.0042059 0.0023032 0.004327 0.00085751
-0.0218 0.016879 -0.33724 0.24789 -0.0075526 0.033948 -0.0022414 0.002199
-0.0010082 0.0032396 0.0011047 0.0052455
0.0052782 -0.01068 -0.0074263 0.033981 -0.02694 0.30845 0.00099295 0.0016473
0.00050524 0.0036917 -0.0017477 0.00087339
-0.004661 -0.0018723 -0.002213 0.0022313 0.00096067 0.0016724 -0.17441 0.23074
-0.027657 0.012942 0.013349 -0.010079
-0.0041867 0.002168 -0.00099593 0.0031461 0.00049499 0.0036333 -0.027709 0.01301
-0.20169 0.09769 -0.016717 0.017855
0.0043135 0.00091813 0.0011406 0.0053188 -0.0017332 0.00090508 0.013381 -0.010137
-0.016759 0.0178 -0.23918 0.15377
860000000 -0.12142 0.24876 -0.016706 0.030639 -0.0031755 -0.010033 -0.0022073 0.00095621
0.0037243 0.0050374 -0.0030752 -0.0024012
-0.016748 0.030622 -0.28912 0.28976 0.0083365 0.034134 2.6856e-05 0.0022297
0.0040807 0.00078326 0.0035217 0.00053093
-0.0032473 -0.010035 0.0084211 0.03414 0.020921 0.31625 -0.00048845 -0.0002148
0.0027941 -0.0014485 0.0017573 0.0042391
-0.0021873 0.00097131 -2.3322e-05 0.0021467 -0.00044929 -0.00019817 -0.13831 0.2419
-0.017303 0.018323 -0.0061155 -0.0086988
0.0038301 0.0050864 0.0041119 0.00063699 0.0028074 -0.0014682 -0.017271 0.018379
-0.15107 0.1458 -0.024026 0.015635
-0.0031484 -0.0024154 0.0036044 0.00046611 0.0017309 0.0042193 -0.0060991 -0.008739
-0.024025 0.015642 -0.18928 0.19559
920000000 -0.096727 0.27113 0.0055396 0.037144 -0.0094455 -0.0046031 -0.00195 0.001879
0.0015402 0.0017634 0.0025068 -0.0016577
0.0055198 0.037143 -0.26043 0.31025 0.028116 0.021527 0.0015769 0.001046
0.0070546 -0.00061662 0.0039399 -0.0030015
-0.0094785 -0.0045918 0.028225 0.021487 0.067061 0.31682 0.0018329 -0.00019748
0.0012461 -0.00043003 0.00078608 -0.001257
-0.0019364 0.0018637 0.001588 0.0010581 0.0018428 -0.0001794 -0.11433 0.25824
-0.0099357 0.029909 0.0028719 -0.0069562
0.0014366 0.0017742 0.0070881 -0.00065604 0.0013066 -0.00046039 -0.0099256 0.029975
-0.14107 0.15116 -0.0016985 0.027243
0.0026162 -0.001572 0.0040011 -0.0030596 0.00078895 -0.0012551 0.0029491 -0.0068958
-0.0016826 0.027256 -0.19461 0.21015
980000000 -0.049642 0.29038 0.017651 0.029467 -0.0090821 0.0044852 0.0020488 0.0035228
0.0040345 -0.0016924 -0.0031106 -0.0021172
0.017617 0.029469 -0.20783 0.34383 0.032974 0.004424 0.0020044 4.9739e-05
0.0014419 -0.0063064 -0.00061764 -0.0022646
-0.0090669 0.0045072 0.033025 0.0043446 0.11339 0.31022 0.00047439 -0.0012174
8.2932e-05 -0.0021503 0.0013336 -3.4075e-05
0.0020873 0.0035797 0.0020032 5.2471e-05 0.00045255 -0.0012081 -0.076016 0.26962
0.0077897 0.028697 -0.0090286 -0.0067431
0.0040618 -0.0016859 0.0013827 -0.006378 8.1611e-05 -0.0022012 0.0078557 0.028694
-0.10901 0.17852 0.0051029 0.018964
-0.0031454 -0.0020595 -0.00067362 -0.0022652 0.0013384 -6.7159e-05 -0.0090946 -0.0067507
0.0050934 0.018984 -0.15185 0.255
1040000000 -0.007599 0.29856 0.033093 0.017521 -0.0013777 0.0068684 0.0025028 0.00082399
0.00010053 -0.0036431 -0.00064343 -0.001689
0.033076 0.017562 -0.17247 0.35687 0.029073 -0.015107 0.0015456 -0.0016627
-0.0024646 -0.0025444 -0.0014878 -0.0027685
-0.001375 0.0068634 0.029075 -0.015218 0.15959 0.2964 -0.00054525 -0.001472
-0.0016473 -0.00081559 -0.00051094 -0.0010551
0.0025241 0.00081327 0.001561 -0.0017043 -0.0005137 -0.0014811 -0.048786 0.27943
0.018768 0.016961 -0.0029589 0.0015273
0.00010555 -0.0036643 -0.002557 -0.0025888 -0.0016099 -0.00083337 0.018783 0.016935
-0.077733 0.18649 0.013732 0.017808
-0.00066378 -0.0017197 -0.0015446 -0.002808 -0.00054198 -0.0010733 -0.0029509 0.0015064
0.013707 0.017817 -0.12996 0.27415
1100000000 0.037575 0.30594 0.035578 -0.0047837 0.0027358 0.0038562 0.0025081 -0.0011827
-0.0020351 -0.0030697 -0.0039885 0.00012619
0.035555 -0.0047589 -0.12909 0.37385 0.014801 -0.027926 3.7842e-05 -0.0018045
-0.0034463 -0.0006185 -0.0034722 -0.00048807
0.0027356 0.0038419 0.014717 -0.028011 0.206 0.27581 -0.0018288 0.00022886
-0.0018183 0.00068207 -0.00099146 -0.00020246
0.0025249 -0.0011826 4.6191e-05 -0.0018111 -0.0018328 0.00024882 -0.0085424 0.28448
0.023108 0.0043191 -0.0026444 0.00057006
-0.002073 -0.0030485 -0.0034919 -0.00058659 -0.001843 0.00066572 0.023144 0.0042673
-0.059601 0.19931 0.018915 0.0082695
-0.0040155 0.00018171 -0.0034587 -0.00047109 -0.00099513 -0.00019796 -0.0026338 0.00060777
0.018916 0.008266 -0.083317 0.30233
1160000000 0.088836 0.30102 0.023422 -0.021059 0.0024849 -0.00034794 -5.3274e-05 -0.0023211
-0.0040534 -0.0005421 -0.00096157 0.0038114
0.023433 -0.021007 -0.085607 0.37825 -0.0041747 -0.029097 -0.0017293 -0.0016815
-0.0026919 0.0027667 -0.0012478 0.0017401
0.002499 -0.00035553 -0.0043044 -0.029097 0.24908 0.2446 -0.0006454 0.0017829
-0.00034924 0.0020032 -0.00084868 0.00025245
-7.0191e-05 -0.0023034 -0.0017376 -0.0017047 -0.00066003 0.0017764 0.030571 0.28177
0.019249 -0.010452 -0.0029407 0.0054015
-0.004073 -0.00053576 -0.0026555 0.0028062 -0.00034629 0.0020255 0.01924 -0.01046
-0.027002 0.20822 0.017625 0.00017157
-0.00089321 0.0037869 -0.0012114 0.0017557 -0.00084095 0.00027744 -0.0029465 0.0054577
0.017595 0.00018841 -0.036452 0.30503
1220000000 0.13309 0.28969 0.0096535 -0.030089 -0.0016484 -0.00060987 9.9294e-05 -0.0011257
-0.0026406 0.0025302 0.0013349 0.0019438
0.0096536 -0.030043 -0.041242 0.39005 -0.017168 -0.020973 -0.0025306 0.00041772
0.00024663 0.0031389 -0.00068676 0.0018826
-0.0016371 -0.00061297 -0.017266 -0.020907 0.28803 0.20511 0.00091047 0.001699
0.00065628 0.0011289 0.00032817 0.0006963
0.0001039 -0.0011172 -0.0025325 0.00042774 0.00090628 0.0016956 0.070291 0.27355
0.0089386 -0.016187 0.0022095 0.0018412
-0.0026176 0.0025543 0.00024324 0.0031522 0.00064883 0.0011456 0.0089194 -0.016209
-0.0043 0.21758 0.013385 -0.012835
0.0013706 0.0019474 -0.00069695 0.0019266 0.00029514 0.00071243 0.0021965 0.0018522
0.01338 -0.012828 -0.0047121 0.32067
1280000000 0.18274 0.26745 -0.0085432 -0.028146 -0.0017496 0.002776 -0.00093576 -0.0021362
-0.00071809 0.0031649 0.002602 0.0010805
-0.0085333 -0.028141 0.0047008 0.38107 -0.0238 -0.0082146 -0.0010309 0.0015187
0.0018477 0.0017381 0.00061332 0.0019458
-0.001718 0.0028083 -0.02386 -0.0081028 0.31801 0.16121 0.0015314 -0.00018296
0.0011679 -2.5852e-06 0.00035165 0.00031266
-0.0009387 -0.002119 -0.0010269 0.0015235 0.0015521 -0.00016928 0.1068 0.25756
-0.00018065 -0.017714 0.00028276 0.00039311
-0.00069072 0.0031559 0.0018814 0.0017279 0.0011444 1.8392e-05 -0.00023247 -0.017714
0.032129 0.22184 0.0026242 -0.01485
0.0026088 0.0010283 0.00066625 0.0019103 0.00032278 0.00031769 0.00029322 0.0003881
0.0026232 -0.014837 0.042913 0.32111
1340000000 0.21975 0.23349 -0.018109 -0.018275 0.0010693 0.0045542 -0.0019524 -0.00089522
0.001482 0.0027148 0.0018144 -0.0015421
-0.018088 -0.018277 0.044363 0.3726 -0.021564 0.0045209 -4.0911e-05 0.0020435
0.0019348 0.0005242 0.0013447 0.00085014
0.0010764 0.0045673 -0.02156 0.0046297 0.33968 0.11318 0.0010319 -0.00098129
0.00066705 -0.00045558 0.00014208 0.00024536
-0.0019557 -0.0008805 -3.09e-05 0.0020539 0.0010324 -0.0009714 0.13984 0.2376
-0.0086247 -0.014444 0.0011576 0.00040372
0.0014854 0.0027213 0.0019344 0.00052734 0.0006484 -0.00044114 -0.008661 -0.014458
0.062483 0.21774 -0.0039573 -0.013401
0.0018123 -0.0015385 0.0013466 0.00086095 0.0001385 0.00025264 0.0011694 0.00041369
-0.0039403 -0.013416 0.081405 0.31572
1400000000 0.25258 0.19501 -0.023405 -0.0066807 0.0053742 0.0030977 -0.0021304 0.00071053
0.0025812 0.00082988 0.00024388 -0.0014916
-0.023375 -0.0066857 0.081458 0.35932 -0.014674 0.012619 0.0014308 0.0012662
0.0010572 -0.0010062 0.0011991 0.00016051
0.0053878 0.0030797 -0.014625 0.012691 0.35247 0.059958 1.7406e-05 -0.0015749
1.4811e-05 -0.00032477 0.00036522 0.0001753
-0.0021353 0.0007153 0.0014509 0.0012531 2.5447e-05 -0.0015653 0.16972 0.20917
-0.013672 -0.007804 -0.00043034 -0.00034602
0.0026011 0.0008433 0.0010447 -0.0010042 2.3446e-05 -0.00030936 -0.013703 -0.0077836
0.095442 0.21338 -0.010351 -0.0083463
0.00019115 -0.0015078 0.0011927 0.00013603 0.00036184 0.00018146 -0.00043214 -0.00034797
-0.010351 -0.008357 0.12556 0.3041
1460000000 0.27509 0.15067 -0.020018 0.0053916 0.0057538 -0.0018742 -0.0015395 0.0018639
0.0021321 -0.00072768 -0.00040171 -0.00087786
-0.020003 0.0053691 0.11562 0.33733 -0.0058787 0.015423 0.0017415 0.00012466
0.00072072 -0.001238 0.0011961 -0.00067204
0.0057475 -0.0019049 -0.0058051 0.015469 0.35843 0.005822 -0.0012414 -0.0011953
0.00019097 -0.00010511 0.00077894 -0.00035143
-0.0015247 0.0018505 0.0017333 0.00011442 -0.0012508 -0.0011929 0.19669 0.18015
-0.01392 -0.0016589 -0.00083247 0.0016497
0.0021139 -0.00075437 0.00069715 -0.0012576 0.00017634 -0.00011898 -0.013917 -0.0016335
0.12547 0.19904 -0.011956 -0.0025246
-0.00042641 -0.00087722 0.0011811 -0.00065158 0.00074921 -0.00032628 -0.00082422 0.0016539
-0.011962 -0.0025363 0.15868 0.28244
1520000000 0.28692 0.10876 -0.014065 0.01069 0.0032925 -0.0043891 0.00018532 0.0026596
0.0018526 -0.0018263 -0.0012246 -5.8974e-05
-0.014059 0.010682 0.14898 0.32235 0.0017159 0.01312 0.0016052 -0.00086128
-4.9657e-05 -0.00084778 0.00029969 -0.0010186
0.0032669 -0.0044012 0.0017969 0.013115 0.35176 -0.050232 -0.0010433 -0.00025075
0.00055977 -0.00083916 -3.5436e-05 -8.7821e-05
0.00018361 0.0026665 0.0015956 -0.00085777 -0.0010464 -0.0002652 0.22056 0.14189
-0.012668 0.0032451 0.0013872 0.0017741
0.0018509 -0.0018409 -6.3397e-05 -0.00083837 0.00055803 -0.00084168 -0.012669 0.0032759
0.15401 0.1846 -0.011659 0.0020905
-0.0012164 -4.9356e-05 0.00030886 -0.0010137 -3.8691e-05 -9.917e-05 0.0013847 0.0017554
-0.011639 0.0020795 0.19129 0.26138
1580000000 0.29568 0.062404 -0.0073421 0.013389 -0.00096196 -0.0050306 0.0014944 0.0018356
-0.00046847 -0.0022339 -0.00035326 0.00044112
-0.0073465 0.013377 0.17603 0.29749 0.0053556 0.0082075 0.00041558 -0.0015956
-0.00041745 -0.00087685 -0.00024435 -0.00086421
-0.00097056 -0.0050289 0.0054117 0.008184 0.33166 -0.10761 -0.00145 0.00058555
-0.00032057 -0.0011369 0.00011701 -0.00057296
0.0015172 0.0018302 0.00041125 -0.0016 -0.0014433 0.00057315 0.23502 0.10211
-0.0092522 0.0070255 0.0021426 0.00052272
-0.00048066 -0.0021988 -0.00042147 -0.00085934 -0.00031553 -0.0011279 -0.0092457 0.0070462
0.17881 0.16621 -0.0090103 0.0075639
-0.00034053 0.00048226 -0.0002713 -0.00085234 9.009e-05 -0.00058078 0.0021342 0.00050897
-0.0090168 0.0075584 0.22272 0.23418
1640000000 0.29722 0.021027 -0.00080451 0.011921 -0.0029143 -0.0027048 0.0026409 0.00091008
-0.00093271 -0.0012936 -0.00020042 0.00061787
-0.00081359 0.011921 0.20535 0.27233 0.0059713 0.0033463 -0.00075852 -0.0016652
-0.00082179 -0.00041218 -0.00052333 -0.00065973
-0.0029221 -0.0027081 0.0059902 0.0033102 0.30363 -0.15688 -0.00066793 0.0013405
-0.0010858 -0.00087335 -0.00016628 -0.00036162
0.0026497 0.00089958 -0.00076051 -0.0016613 -0.0006477 0.0013511 0.24762 0.052641
-0.0053642 0.007446 0.0023006 -0.00090584
-0.0009501 -0.0012763 -0.00081137 -0.00040665 -0.0010919 -0.00089804 -0.0053473 0.0074669
0.20225 0.14083 -0.0041389 0.0095287
-0.00017613 0.0006355 -0.00053 -0.0006505 -0.00016212 -0.0003537 0.0023061 -0.00092235
-0.0041419 0.0095347 0.24802 0.20262
1700000000 0.28945 -0.024059 0.0023623 0.0089179 -0.0036755 4.1431e-05 0.0029403 -0.0012407
-0.0020031 -0.00045833 0.00069454 0.00037279
0.0023499 0.008913 0.22328 0.24074 0.003957 0.00046005 -0.0014374 -0.00052164
-0.00069672 -0.00010604 -0.00095774 -0.00042633
-0.0036593 3.7854e-05 0.0039747 0.00043799 0.26006 -0.19687 0.00042966 0.0014668
-0.0017681 -0.0001795 -0.00059612 -0.00096207
0.0029375 -0.0012426 -0.0014393 -0.00050988 0.00040182 0.0014656 0.24429 0.0019772
-0.0034218 0.0073481 0.0012873 -0.0022855
-0.0020068 -0.00043889 -0.00071071 -0.00010716 -0.0018098 -0.00020448 -0.0034123 0.0073498
0.21973 0.1192 0.00047104 0.0096173
0.00069039 0.00034627 -0.00096016 -0.00043819 -0.00058648 -0.00094472 0.0012796 -0.0022952
0.00046489 0.0096252 0.26388 0.16814
1760000000 0.27696 -0.072161 0.0043175 0.0056232 -0.0024037 0.00092785 0.0011907 -0.0033964
-0.0011407 0.00076836 0.00032865 -0.00058691
0.0043131 0.0056261 0.24906 0.20085 0.0016713 -0.0013262 -0.0011246 0.0002519
-0.001162 0.00073573 -0.00063551 0.00050422
-0.0024227 0.00094147 0.0016503 -0.0013262 0.21113 -0.23008 0.0010693 0.0011536
-0.001158 0.0013989 -0.0013802 -0.00045608
0.0011629 -0.0033929 -0.0011281 0.00026348 0.0010362 0.0011519 0.23459 -0.049977
-0.0011165 0.0064016 -0.00049815 -0.0024842
-0.0011412 0.00075563 -0.0011542 0.00074627 -0.0011493 0.0014041 -0.0011106 0.0063876
0.23459 0.082631 0.004389 0.0068036
0.00033697 -0.00061819 -0.00062524 0.00050748 -0.0013672 -0.0004209 -0.00048355 -0.0024855
0.0043937 0.0067888 0.27616 0.13005
1820000000 0.25209 -0.10929 0.0042764 0.0022174 -0.00010014 0.0025331 -0.0010093 -0.0030887
-0.00076823 0.00072918 -0.00011964 -0.0001475
0.0042733 0.0022163 0.25881 0.17073 -0.00042126 -0.00015062 -0.0013204 0.00085989
-0.00025823 0.0012541 -0.00055265 0.00056845
-7.3864e-05 0.0025069 -0.00042509 -0.00015732 0.16079 -0.24597 0.0014761 0.00038539
-0.00033455 0.0021337 -0.0014693 0.00054818
-0.0010083 -0.0030684 -0.0013122 0.00087541 0.0015035 0.00038369 0.2039 -0.097461
-0.0004435 0.0050247 -0.0017767 -0.0014458
-0.0007593 0.00072609 -0.00025238 0.0012528 -0.0003382 0.0021589 -0.0004434 0.0050155
0.25088 0.051627 0.0051971 0.0031579
-0.00013859 -0.00014708 -0.0005403 0.0005714 -0.0014818 0.00060433 -0.0017545 -0.0014261
0.0051899 0.0031474 0.2778 0.0936
1880000000 0.21683 -0.14903 0.0019412 0.00017035 -0.00043085 0.0022106 -0.0029378 -0.0021693
-0.00015116 0.0014662 0.0002635 -0.00042085
0.0019456 0.00017358 0.26302 0.12417 -0.0023929 0.0015436 -0.00014387 0.0016579
0.00049969 0.0014447 0.00017812 0.00099189
-0.0004132 0.0022187 -0.0023701 0.0015731 0.10869 -0.25556 0.0019394 -0.00085962
0.0014545 0.0020042 -0.0009091 0.0014126
-0.0029455 -0.0021718 -0.00012788 0.0016618 0.0019504 -0.00082847 0.16228 -0.13717
-0.00055785 0.0036929 -0.0025353 0.00057884
-0.00014323 0.0014468 0.00050834 0.0014317 0.001473 0.0020162 -0.00054187 0.0036903
0.2523 0.017353 0.0048363 0.00086105
0.00025912 -0.00042651 0.00018338 0.00099497 -0.00087666 0.0014232 -0.0025198 0.00058503
0.004823 0.00086053 0.27689 0.059318
1940000000 0.17749 -0.17472 -0.00029444 -0.0013667 0.0012983 0.0020731 -0.0036758 0.0005731
0.0011618 0.0010314 -0.00059405 -0.00043822
-0.0002928 -0.0013534 0.26335 0.092361 -0.0012688 0.0038482 0.00097091 0.0013327
0.001935 0.00077414 0.00090094 0.00032697
0.0013341 0.0020832 -0.0012369 0.003849 0.062608 -0.24906 0.00049388 -0.0022216
0.0024289 0.00057396 0.00051008 0.0016987
-0.0036906 0.0005802 0.0010006 0.0013135 0.00049518 -0.0022533 0.10928 -0.16696
-0.0019343 0.0031426 -0.0015522 0.0018461
0.0011698 0.0010155 0.0019482 0.00077036 0.0024306 0.00056148 -0.0019226 0.0031414
0.25203 -0.023209 0.0032844 -0.0024185
-0.00060144 -0.00048048 0.00091092 0.00033588 0.00050033 0.001705 -0.0015369 0.0018633
0.0032816 -0.0024152 0.26507 0.023047
2000000000 0.13106 -0.18903 -0.0040908 0.0008114 0.0025063 0.0016656 -0.0023679 0.003713
0.00090321 0.00030001 -0.00055065 0.00047178
-0.004095 0.00080278 0.24893 0.056929 -0.0010035 0.0057664 0.001644 0.00041601
0.0016296 -0.0012761 0.00052199 0.00014876
0.0025125 0.0016159 -0.00094723 0.0057755 0.018987 -0.23438 -0.0013642 -0.0014441
0.0020488 -0.0011561 0.0016874 0.0013008
-0.0023272 0.0037317 0.0016525 0.00039771 -0.0013871 -0.0014633 0.055789 -0.17554
-0.0034239 0.0041077 0.00012697 0.002361
0.00090348 0.00028996 0.0016092 -0.0012977 0.0020373 -0.0011856 -0.0034104 0.0041057
