!Keysight Technologies,M9804A,MY58100912,A.14.10.03
!Date: Thursday, April 27, 2023 10:28:33
!Correction: S11(C  6-Port  ) 
!S12(C  6-Port  ) 
!S13(C  6-Port  ) 
!S14(C  6-Port  ) 
!S15(C  6-Port  ) 
!S16(C  6-Port  ) 
!S21(C  6-Port  ) 
!S22(C  6-Port  ) 
!S23(C  6-Port  ) 
!S24(C  6-Port  ) 
!S25(C  6-Port  ) 
!S26(C  6-Port  ) 
!S31(C  6-Port  ) 
!S32(C  6-Port  ) 
!S33(C  6-Port  ) 
!S34(C  6-Port  ) 
!S35(C  6-Port  ) 
!S36(C  6-Port  ) 
!S41(C  6-Port  ) 
!S42(C  6-Port  ) 
!S43(C  6-Port  ) 
!S44(C  6-Port  ) 
!S45(C  6-Port  ) 
!S46(C  6-Port  ) 
!S51(C  6-Port  ) 
!S52(C  6-Port  ) 
!S53(C  6-Port  ) 
!S54(C  6-Port  ) 
!S55(C  6-Port  ) 
!S56(C  6-Port  ) 
!S61(C  6-Port  ) 
!S62(C  6-Port  ) 
!S63(C  6-Port  ) 
!S64(C  6-Port  ) 
!S65(C  6-Port  ) 
!S66(C  6-Port  ) 
!S6P File: Measurement: :
# Hz S  RI   R 50
500000000 -0.33807 -0.037107 -0.0097714 -0.0031494 -0.0078295 0.011957 -0.0032551 0.011628
0.012189 0.0046738 -0.0034838 0.0081789
-0.009751 -0.0031517 -0.41859 -0.050322 0.0078303 -0.011565 0.0017484 0.012091
0.0072343 0.0022027 0.0014335 0.013284
-0.0078183 0.011955 0.0078083 -0.011559 -0.26455 0.21023 0.0072756 0.0030317
-0.00018236 0.008253 0.0011843 0.011883
-0.0032338 0.011645 0.001766 0.012108 0.0072924 0.003029 -0.32681 0.046219
-0.019909 -0.0044496 0.018132 0.025309
0.012144 0.0046573 0.0073201 0.0021397 -0.00018453 0.0082299 -0.019872 -0.0044257
-0.2261 -0.1853 -0.02784 0.0046528
-0.0034766 0.0081612 0.0014182 0.013372 0.0011986 0.011889 0.018138 0.025342
-0.027881 0.0046522 -0.27153 -0.11629
560000000 -0.31694 0.12368 -0.023962 -0.062718 0.0005381 0.012106 0.0064793 0.010114
0.010741 0.0044071 0.01018 0.0078131
-0.023885 -0.062645 -0.37605 0.10801 -0.042153 -0.037439 0.013805 0.0035499
-0.013639 -0.0045521 0.004446 -0.00099431
0.00059878 0.012121 -0.042272 -0.037415 -0.18274 0.25812 -0.00062731 -0.0046597
0.019149 0.0043636 0.0072464 -0.0059356
0.0064736 0.010109 0.013826 0.0035581 -0.00061517 -0.0046762 -0.30221 0.13473
0.0045231 -0.024813 0.0046335 -0.019561
0.010691 0.0044027 -0.013614 -0.0046014 0.019162 0.0043854 0.0045699 -0.024817
-0.28604 -0.010211 0.0080538 -0.050138
0.01015 0.0077863 0.004453 -0.00093808 0.00724 -0.0059769 0.004594 -0.019545
0.0080688 -0.050146 -0.33088 0.029565
620000000 -0.27489 0.10913 -0.022653 0.0073671 0.0037898 0.0081873 0.0067853 -0.0055132
0.011357 -0.00085861 -8.9223e-05 -0.0021823
-0.022638 0.007379 -0.40234 0.061244 -0.01894 -0.000446 -0.0011298 -0.0020132
0.010287 -0.0072532 0.0010988 -0.0027636
0.0038062 0.0082267 -0.018944 -0.00039577 -0.1532 0.26669 -0.0015177 -0.005359
-0.0040345 -0.0030824 0.0081401 -0.0038255
0.0067252 -0.0055417 -0.0011447 -0.0020025 -0.0015225 -0.0053734 -0.26162 0.1452
-0.038711 -0.018818 0.014417 0.024448
0.011458 -0.00094088 0.010295 -0.0072964 -0.0040345 -0.0031338 -0.038745 -0.018821
-0.20446 -0.05081 -0.040966 0.013626
-8.1942e-05 -0.0023103 0.0010834 -0.0027567 0.0081603 -0.0038207 0.01441 0.024456
-0.040984 0.013591 -0.24943 -0.0061338
680000000 -0.2337 0.19399 -0.027567 -0.014128 0.0047234 0.0050196 0.0010047 -0.0075686
-0.0033329 -0.011123 0.0043373 -0.0067568
-0.027542 -0.014129 -0.3875 0.15813 -0.033161 -0.0015071 -0.0018082 -0.00038263
-0.0028208 -0.0089268 -0.0010796 -0.0019563
0.0047329 0.0050125 -0.033196 -0.0014078 -0.10259 0.28652 -0.00075003 0.0001494
-0.002347 0.00086949 -0.0029237 -0.0094677
0.00099794 -0.0075684 -0.001813 -0.00037233 -0.00074792 0.00015569 -0.21968 0.19407
-0.023692 -0.0084683 -0.0087529 -0.010386
-0.0033611 -0.011113 -0.0028649 -0.0089482 -0.0023357 0.00086639 -0.023698 -0.0084544
-0.25235 0.047187 -0.0058178 -0.0098279
0.0043585 -0.006807 -0.0010999 -0.0019753 -0.0029332 -0.0094884 -0.008818 -0.010392
-0.0058151 -0.0098282 -0.25916 0.09639
740000000 -0.18973 0.18858 -0.038591 0.026404 0.012537 -0.0051552 -0.00075089 -0.0039845
-0.0048592 -0.0028343 -0.0064165 0.0034392
-0.038593 0.026394 -0.33514 0.17676 -0.035291 0.035315 -0.00053869 -0.0063086
-0.012032 0.007624 -0.0024018 -0.005974
0.012506 -0.0051755 -0.035223 0.035452 -0.069282 0.28571 -0.0014707 0.0034679
-0.0027432 -0.0041258 -0.0013399 0.00041474
-0.00075093 -0.0039598 -0.00055927 -0.0063018 -0.0014761 0.0034743 -0.20288 0.20197
-0.043086 -0.0087291 0.021951 0.013417
-0.0048616 -0.0028687 -0.011953 0.0076994 -0.0027616 -0.0041492 -0.043092 -0.0086931
-0.15834 0.072904 -0.041598 -0.00055421
-0.006352 0.0034648 -0.0024505 -0.0059803 -0.0013696 0.00041937 0.021961 0.01339
-0.041567 -0.00060072 -0.24755 0.10226
800000000 -0.15706 0.22816 -0.022701 0.016963 0.005207 -0.010533 -0.0047811 -0.0018125
-0.0040386 0.0027643 0.0044061 0.0011049
-0.022702 0.01693 -0.33834 0.24758 -0.0079958 0.03439 -0.0020985 0.0022844
-0.00060372 0.0034434 0.0011791 0.0053923
0.0051868 -0.010553 -0.0079031 0.034448 -0.028033 0.30901 0.0012039 0.0015071
0.00066754 0.0035994 -0.0018833 0.0011533
-0.0047927 -0.0018013 -0.0020841 0.0022881 0.0012083 0.0015123 -0.17536 0.22976
-0.02868 0.012542 0.012961 -0.0097809
-0.0040493 0.0027807 -0.00060011 0.0034459 0.00067418 0.0035946 -0.028703 0.012601
-0.2021 0.095619 -0.017438 0.017437
0.0044202 0.0010852 0.0012175 0.0053668 -0.0018764 0.0011626 0.012971 -0.0097858
-0.017445 0.017422 -0.23921 0.15336
860000000 -0.1225 0.24889 -0.017575 0.030997 -0.0033785 -0.0098992 -0.002263 0.0012352
0.0041302 0.0051589 -0.0029776 -0.002741
-0.017591 0.030958 -0.29028 0.2898 0.0082861 0.034548 0.00024697 0.002033
0.0043952 0.00031858 0.0035145 0.00062949
-0.0034103 -0.0098995 0.008387 0.03456 0.020525 0.31715 -0.00040389 -0.00029817
0.0028428 -0.0014846 0.0015958 0.0043995
-0.002268 0.0012438 0.00025708 0.0020277 -0.00040431 -0.00030045 -0.13969 0.2418
-0.018407 0.019018 -0.0059735 -0.0089523
0.0041348 0.005143 0.0044011 0.00032052 0.0028445 -0.001474 -0.018402 0.01903
-0.15308 0.1445 -0.024578 0.015232
-0.0029986 -0.0026949 0.0035099 0.00059029 0.0016118 0.0043935 -0.0059961 -0.0089105
-0.024569 0.015215 -0.18998 0.1957
920000000 -0.097382 0.27185 0.0050772 0.037935 -0.009498 -0.004293 -0.0017266 0.0022108
0.0014481 0.001526 0.0024157 -0.001602
0.0050425 0.037888 -0.26139 0.31092 0.028258 0.021883 0.0016466 0.0011026
0.0068153 -0.00074936 0.003993 -0.0028913
-0.0094961 -0.0042707 0.028342 0.021819 0.0671 0.31751 0.0017527 -0.0001599
0.001271 -0.00040829 0.00093362 -0.00099265
-0.0017352 0.0022239 0.0016612 0.0011091 0.0017459 -0.00016279 -0.11543 0.2587
-0.010579 0.03046 0.002713 -0.0065903
0.0014669 0.0015285 0.0068074 -0.00080376 0.0012693 -0.00040479 -0.010524 0.030505
-0.14215 0.15041 -0.0025374 0.027598
0.002393 -0.0016267 0.0039657 -0.0029567 0.00091734 -0.0009829 0.0026906 -0.0066079
-0.0025643 0.027571 -0.19474 0.2101
980000000 -0.049923 0.29131 0.01783 0.030211 -0.0089118 0.0047707 0.0024409 0.0036306
0.0040199 -0.0019107 -0.0030214 -0.0020172
0.01779 0.030169 -0.20816 0.34482 0.03329 0.0046141 0.0019956 -8.1408e-05
0.0012044 -0.0062929 -0.00061184 -0.0022035
-0.0088903 0.0048021 0.03332 0.00451 0.11359 0.31073 0.00044077 -0.0011801
8.5914e-05 -0.0021822 0.0015783 -8.5187e-05
0.0024428 0.0036091 0.0019997 -6.3375e-05 0.00043222 -0.001181 -0.07705 0.27072
0.0074575 0.029281 -0.0091641 -0.0066245
0.0040334 -0.0019149 0.001178 -0.0062976 8.0293e-05 -0.0021752 0.0075093 0.029265
-0.11079 0.17837 0.0046967 0.019213
-0.0030224 -0.0019799 -0.0006023 -0.002203 0.0015729 -7.9865e-05 -0.0091772 -0.0066253
0.0046815 0.019215 -0.15217 0.25527
1040000000 -0.0074449 0.2995 0.033433 0.01799 -0.0010869 0.007023 0.0027381 0.00062938
-0.00015914 -0.0037867 -0.00063784 -0.0015479
0.033366 0.017962 -0.17251 0.35779 0.029352 -0.015139 0.0014481 -0.0017607
-0.0026436 -0.0023476 -0.0015162 -0.0027185
-0.0010581 0.0070134 0.029315 -0.015251 0.15983 0.2967 -0.000528 -0.0014545
-0.0015912 -0.00083482 -0.00033324 -0.0012361
0.0027331 0.00061016 0.0014669 -0.0017523 -0.00052668 -0.0014525 -0.04912 0.28078
0.01885 0.017612 -0.0030494 0.0020771
-0.000171 -0.0037781 -0.0026822 -0.0023494 -0.0015972 -0.00083095 0.018911 0.017589
-0.079645 0.18733 0.013472 0.018269
-0.00065125 -0.0015219 -0.0015316 -0.0027248 -0.00033788 -0.0012301 -0.0030325 0.0020904
0.013465 0.018273 -0.13033 0.27452
1100000000 0.038154 0.30678 0.036027 -0.0044816 0.003068 0.0038098 0.0024509 -0.001454
-0.0021972 -0.0029794 -0.0039304 0.00015248
0.035995 -0.004464 -0.12881 0.37488 0.014929 -0.027996 -5.923e-05 -0.0018233
-0.0031878 -0.00042406 -0.0033839 -0.00053063
0.0031016 0.0037985 0.014844 -0.02808 0.20624 0.27606 -0.0017918 0.0002717
-0.0017648 0.00069358 -0.00098138 -0.00046124
0.0024499 -0.0014715 -5.3505e-05 -0.0018268 -0.0017924 0.00026777 -0.00813 0.2859
0.023343 0.0048582 -0.0022894 0.0010404
-0.0022051 -0.0029601 -0.0031992 -0.00041484 -0.0017634 0.00069737 0.023357 0.004829
-0.060992 0.20072 0.018758 0.0086853
-0.0039507 0.00018076 -0.0033855 -0.00052027 -0.00099369 -0.00046312 -0.0022895 0.0010456
0.018758 0.0086968 -0.08331 0.30273
1160000000 0.089597 0.30154 0.023958 -0.020938 0.0028464 -0.00056555 -0.00031627 -0.0024844
-0.0040291 -0.00045773 -0.00085741 0.0037991
0.023936 -0.020928 -0.084779 0.37892 -0.0040377 -0.029126 -0.0017872 -0.0015867
-0.0024246 0.0026803 -0.0011835 0.0016241
0.0028484 -0.00056511 -0.0041755 -0.029119 0.24927 0.24487 -0.00055797 0.0017538
-0.00036987 0.0018546 -0.0011224 3.9743e-05
-0.00031738 -0.0024939 -0.001783 -0.0015707 -0.00056407 0.0017549 0.031679 0.28267
0.019749 -0.010133 -0.0025799 0.0056257
-0.0040321 -0.00042982 -0.0024188 0.0027 -0.00037478 0.0018514 0.019744 -0.010155
-0.027657 0.21039 0.017554 0.0006093
-0.00085687 0.0038061 -0.0011572 0.00161 -0.0011244 3.971e-05 -0.002564 0.0056171
0.017524 0.00061366 -0.036257 0.30558
1220000000 0.13406 0.28992 0.010265 -0.030172 -0.0015101 -0.00098946 -0.0001684 -0.00098867
-0.0025674 0.0025851 0.0013405 0.0018582
0.010269 -0.030162 -0.040265 0.39045 -0.017094 -0.020952 -0.0024881 0.00048667
0.00023667 0.0027837 -0.00074338 0.0018046
-0.0015103 -0.00098161 -0.017194 -0.020905 0.28828 0.20539 0.00091496 0.0015157
0.0005888 0.0011258 0.0001308 0.00075961
-0.00017152 -0.0010006 -0.0024883 0.00050744 0.00092251 0.0015262 0.071579 0.27386
0.0093529 -0.016012 0.002795 0.0016693
-0.0025504 0.0026034 0.00024743 0.0027866 0.00059154 0.0011292 0.0093389 -0.016021
-0.0039399 0.21994 0.013678 -0.012218
0.0013484 0.0018328 -0.00072961 0.0017986 0.00012943 0.00076906 0.0027948 0.0016745
0.01366 -0.012221 -0.0043735 0.32103
1280000000 0.18363 0.26728 -0.0080326 -0.02849 -0.001831 0.0023796 -0.0010394 -0.0018729
-0.00057617 0.0030471 0.0024983 0.0008983
-0.0080164 -0.028472 0.0058454 0.38098 -0.023686 -0.0082071 -0.0009277 0.0014843
0.0016156 0.0015407 0.00056138 0.0019678
-0.0018266 0.0023962 -0.023747 -0.0081024 0.3185 0.16135 0.0013478 -0.00022854
0.0010059 0.00010938 0.00022992 0.00046237
-0.0010427 -0.0018621 -0.00092962 0.0014858 0.0013544 -0.00021861 0.10803 0.25729
0.00030723 -0.017596 0.00053619 1.5558e-05
-0.0005569 0.0030607 0.0016243 0.0015461 0.0010092 0.00010621 0.00026718 -0.01761
0.033492 0.22369 0.0029768 -0.01435
0.0025115 0.00088506 0.00057424 0.0019686 0.00023315 0.00046133 0.00053147 1.2246e-05
0.0029808 -0.014344 0.043171 0.32149
1340000000 0.22043 0.23295 -0.017795 -0.018945 0.00077876 0.0043154 -0.0017678 -0.00073061
0.0014917 0.0026351 0.0016766 -0.0015479
-0.017772 -0.018949 0.045171 0.3721 -0.021399 0.0043994 -1.9233e-05 0.001944
0.0016795 0.00062806 0.0013321 0.00089954
0.00078835 0.0043072 -0.021407 0.0045075 0.34038 0.11326 0.00091268 -0.00083024
0.00066947 -0.000364 0.00023711 0.00033123
-0.0017727 -0.00072211 -1.5923e-05 0.001935 0.00091329 -0.00082625 0.1406 0.23689
-0.0080587 -0.014554 0.0013031 -4.989e-05
0.0015047 0.0026225 0.0016785 0.00062539 0.00066813 -0.00036809 -0.0080955 -0.014538
0.0644 0.21889 -0.0032096 -0.013069
0.0016626 -0.0015567 0.0013447 0.00088384 0.00024172 0.00033428 0.001301 -5.0046e-05
-0.0031939 -0.013069 0.08176 0.31612
1400000000 0.25289 0.19424 -0.023505 -0.0074287 0.0049415 0.0030043 -0.0019023 0.0006209
0.0025768 0.0007137 0.00011145 -0.0013681
-0.023475 -0.0074388 0.082057 0.35851 -0.014549 0.012343 0.0013334 0.0012394
0.00098197 -0.00075747 0.0012197 0.00014926
0.0049663 0.0029847 -0.014506 0.012429 0.35312 0.05966 8.8927e-05 -0.0013855
9.4215e-05 -0.0003431 0.00042776 0.00014995
-0.0019047 0.00063115 0.0013476 0.0012251 8.5449e-05 -0.001378 0.17007 0.20836
-0.013129 -0.0081276 -0.00057308 -0.00085027
0.0025604 0.00070101 0.00097215 -0.0007721 8.9384e-05 -0.00035062 -0.013147 -0.0080958
0.097562 0.21366 -0.0095592 -0.0084027
0.00010814 -0.0013693 0.0012193 0.00014365 0.00042669 0.00015118 -0.00057411 -0.00084684
-0.0095537 -0.0084138 0.12613 0.30451
1460000000 0.27499 0.14986 -0.020469 0.0047861 0.0053863 -0.0017209 -0.0014977 0.001662
0.0019787 -0.00074785 -0.00040315 -0.00079328
-0.020444 0.0047628 0.1157 0.33636 -0.0060075 0.015075 0.0016569 0.00018133
0.00083324 -0.001056 0.0011882 -0.00071046
0.0053691 -0.0017411 -0.0059402 0.015121 0.35894 0.0051688 -0.0010406 -0.0011811
0.00024433 -0.00019211 0.00080121 -0.00038113
-0.0015075 0.0016647 0.0016676 0.00017929 -0.0010459 -0.0011894 0.19665 0.17937
-0.013552 -0.002275 -0.0011842 0.0014141
0.00198 -0.00075688 0.00082422 -0.0010674 0.00023965 -0.00019724 -0.013561 -0.0022476
0.12745 0.19846 -0.011331 -0.0029822
-0.00040134 -0.00078524 0.0011982 -0.00071871 0.00079897 -0.00038228 -0.0011922 0.0014008
-0.011329 -0.0029876 0.15939 0.28263
1520000000 0.28637 0.10831 -0.014775 0.010466 0.0030468 -0.0040423 6.9468e-05 0.0025239
0.0017436 -0.0017458 -0.0011329 -4.213e-05
-0.014771 0.010441 0.14875 0.32156 0.0014638 0.012912 0.0015792 -0.00078455
0.00010394 -0.00087961 0.00025789 -0.001056
0.0030382 -0.0040682 0.0015362 0.012919 0.35188 -0.050942 -0.00092914 -0.00037635
0.00049354 -0.00084182 -3.3e-05 -0.00011312
7.0807e-05 0.0025212 0.0015785 -0.0008018 -0.0009342 -0.00037794 0.22024 0.14144
-0.012687 0.002535 0.00095029 0.001706
0.001726 -0.0017418 9.8336e-05 -0.00088181 0.0004906 -0.00084799 -0.012682 0.0025755
0.15538 0.18356 -0.011268 0.0013909
-0.0011411 -3.7737e-05 0.00024436 -0.0010595 -3.819e-05 -0.00011617 0.00095032 0.0017062
-0.011259 0.0013852 0.19207 0.26144
1580000000 0.29491 0.062355 -0.0080619 0.013534 -0.00095227 -0.0046457 0.0012966 0.0018108
-0.00054859 -0.0021096 -0.00032005 0.00041934
-0.0080708 0.013517 0.17552 0.2968 0.0050061 0.0081636 0.00046235 -0.0015709
-0.00038894 -0.0010335 -0.00036018 -0.00084116
-0.0009794 -0.0046489 0.0050498 0.008153 0.33126 -0.10828 -0.0014808 0.00041372
-0.00032712 -0.0010758 0.00012051 -0.00060254
0.0013025 0.0018046 0.00045107 -0.0015718 -0.0014728 0.00041444 0.23469 0.1019
-0.0095725 0.0064209 0.0017345 0.00069633
-0.0005713 -0.0021166 -0.00040079 -0.0010244 -0.00032797 -0.0010689 -0.0095621 0.0064431
0.17967 0.16491 -0.0089823 0.0068396
-0.00031025 0.00042413 -0.00036124 -0.00084634 0.00011727 -0.00060844 0.0017329 0.00068989
-0.0089856 0.0068424 0.22354 0.23393
1640000000 0.2966 0.021514 -0.0013246 0.012376 -0.0026713 -0.002508 0.0025388 0.0010606
-0.00089388 -0.0011547 -0.00024672 0.0006446
-0.0013342 0.012373 0.20463 0.27197 0.0056607 0.0035159 -0.00072483 -0.0016554
-0.00094373 -0.00047922 -0.00057925 -0.00057187
-0.0026795 -0.0025053 0.0056872 0.0034871 0.30303 -0.15718 -0.00081107 0.0012873
-0.0010662 -0.00087691 -0.0001113 -0.00031484
0.0025485 0.0010352 -0.00074231 -0.0016557 -0.00080876 0.0012809 0.2473 0.052552
-0.0059431 0.0070436 0.0020918 -0.0005797
-0.00089952 -0.0011516 -0.00095503 -0.00046296 -0.0010728 -0.00085836 -0.0059323 0.0070562
0.20251 0.13964 -0.0045143 0.0089188
-0.00023846 0.00064325 -0.00057805 -0.00056771 -0.00011221 -0.00031828 0.0020942 -0.00058284
-0.0045182 0.0089198 0.24874 0.20216
1700000000 0.28936 -0.023347 0.0021333 0.0095734 -0.0033945 0.00017023 0.0029248 -0.0010498
-0.0019395 -0.00035103 0.00064953 0.00039082
0.0021222 0.0095625 0.22252 0.24067 0.0037423 0.00072799 -0.0014043 -0.00053703
-0.00081714 -2.69e-05 -0.00091865 -0.00031386
-0.003398 0.0001938 0.0037537 0.00070942 0.25939 -0.19692 0.00031579 0.0016443
-0.0017324 -0.00018212 -0.00053313 -0.00091355
0.0029319 -0.0010671 -0.00141 -0.00052725 0.00032374 0.0016445 0.24407 0.0020631
-0.004051 0.0072699 0.0012483 -0.0019423
-0.001932 -0.00033982 -0.0008192 -2.2816e-05 -0.0017371 -0.00018602 -0.0040398 0.0072801
0.21986 0.11827 -7.5817e-05 0.0091655
0.00064514 0.00038209 -0.00092272 -0.00030925 -0.00053954 -0.00091599 0.0012482 -0.0019474
-6.845e-05 0.0091708 0.26436 0.16748
1760000000 0.27712 -0.071631 0.004444 0.0062338 -0.0021863 0.00095488 0.0013618 -0.0032614
-0.0010473 0.00073041 0.00039071 -0.00055295
0.0044341 0.0062377 0.24827 0.201 0.0016248 -0.00097649 -0.0011223 0.00024443
-0.0011439 0.00088302 -0.00050845 0.00057702
-0.0021925 0.00096009 0.0016195 -0.00098745 0.21056 -0.22989 0.0011178 0.0012772
-0.0011111 0.0013789 -0.0012952 -0.00038237
0.0013496 -0.0032641 -0.0011273 0.00025709 0.0011141 0.0012809 0.23438 -0.049888
-0.0017307 0.0065836 -0.00032565 -0.0021442
-0.0010528 0.0007474 -0.0011439 0.0008942 -0.0010994 0.0013758 -0.0017238 0.0065888
0.23446 0.081739 0.0037907 0.006666
0.00037935 -0.0005528 -0.00050406 0.00058095 -0.0012883 -0.0003682 -0.00032892 -0.0021401
0.0037936 0.0066668 0.27635 0.12927
1820000000 0.25264 -0.10879 0.0046107 0.0026786 0.00010957 0.0023969 -0.000838 -0.003102
-0.00067978 0.00070939 -3.0448e-05 -0.00017775
0.0046067 0.0026822 0.25812 0.17115 -0.00026288 8.2756e-05 -0.0012888 0.00090216
-0.00012077 0.001365 -0.00039708 0.00052009
0.00012366 0.0023892 -0.00025789 8.5978e-05 0.16068 -0.2456 0.0016349 0.00036457
-0.00031186 0.0020661 -0.0014628 0.00056003
-0.0008544 -0.003102 -0.0012833 0.0009105 0.0016374 0.0003672 0.20372 -0.097156
-0.00091846 0.0053923 -0.0015167 -0.0013507
-0.00066813 0.00071435 -0.000118 0.0013642 -0.00029118 0.0020627 -0.00089651 0.0053927
0.25073 0.050889 0.0045991 0.0032525
-3.036e-05 -0.00017759 -0.0003928 0.00052377 -0.0014575 0.00055279 -0.0015057 -0.0013393
0.0046004 0.0032455 0.2778 0.092965
1880000000 0.21761 -0.14897 0.0024868 0.00042333 -0.0003224 0.0019534 -0.0027719 -0.0023337
-5.0901e-05 0.001388 0.00033435 -0.00047834
0.0024843 0.00043925 0.26262 0.12485 -0.0021001 0.001734 -8.1949e-05 0.0016778
0.00068282 0.0013787 0.00025705 0.00087066
-0.00031464 0.0019601 -0.0020831 0.001741 0.10869 -0.25517 0.002042 -0.0010745
0.0015168 0.0019572 -0.00079156 0.0013858
-0.0027813 -0.0023127 -7.1539e-05 0.0016772 0.0020402 -0.0010664 0.1624 -0.13685
-0.00076916 0.0042988 -0.0023102 0.00063439
-4.4702e-05 0.0013883 0.0007005 0.0013792 0.0015177 0.0019599 -0.00076023 0.0042983
0.25209 0.016677 0.0042971 0.0012045
0.00031286 -0.00046711 0.00026315 0.00086702 -0.0007775 0.0013782 -0.002313 0.00064466
0.0043024 0.0012005 0.2767 0.058648
1940000000 0.17815 -0.17494 0.00028791 -0.0013006 0.0012725 0.0017807 -0.00376 0.00045822
0.0011301 0.00088947 -0.00059486 -0.00058817
0.0002914 -0.0012991 0.26312 0.093166 -0.0010091 0.0038604 0.0010183 0.0013147
0.0019845 0.00059277 0.0008046 0.00017351
0.0012991 0.0017844 -0.00097671 0.003867 0.06252 -0.24883 0.00037329 -0.0023299
0.0023674 0.00058746 0.00036836 0.0015974
-0.0037457 0.0004731 0.0010372 0.0013151 0.00037056 -0.0023272 0.10961 -0.1666
-0.0018446 0.0037885 -0.0012457 0.0018039
0.0011464 0.00088429 0.0019969 0.00058626 0.0023592 0.00057675 -0.0018296 0.0038034
0.2516 -0.0238 0.0030599 -0.0017942
-0.00061096 -0.00057724 0.00080434 0.00016763 0.00036229 0.0016024 -0.0012338 0.0018169
0.0030539 -0.0017961 0.26474 0.022521
2000000000 0.13163 -0.18972 -0.0034751 0.0005346 0.0024159 0.0014924 -0.0024022 0.003639
0.0008538 0.00021409 -0.0006174 0.00033166
-0.0034684 0.00052788 0.24911 0.057669 -0.0008259 0.0055831 0.0016387 0.00026956
0.0015486 -0.0014807 0.00040676 0.00015941
0.0024169 0.0014809 -0.00078992 0.0055914 0.018747 -0.23439 -0.0015522 -0.0014432
0.0020273 -0.0012352 0.0014993 0.0013406
-0.0023804 0.0036437 0.0016376 0.00026163 -0.0015495 -0.0014493 0.056446 -0.17543
-0.0030322 0.0046527 0.00027645 0.0022567
0.00086063 0.00019219 0.001535 -0.0014883 0.0020374 -0.0012345 -0.0030295 0.0046646
0.24286 -0.058195 -7.9153e-05 -0.0023722
