!Keysight Technologies,M9804A,MY58100912,A.14.10.03
!Date: Thursday, April 27, 2023 10:28:33
!Correction: S11(C  6-Port  ) 
!S12(C  6-Port  ) 
!S13(C  6-Port  ) 
!S14(C  6-Port  ) 
!S15(C  6-Port  ) 
!S16(C  6-Port  ) 
!S21(C  6-Port  ) 
!S22(C  6-Port  ) 
!S23(C  6-Port  ) 
!S24(C  6-Port  ) 
!S25(C  6-Port  ) 
!S26(C  6-Port  ) 
!S31(C  6-Port  ) 
!S32(C  6-Port  ) 
!S33(C  6-Port  ) 
!S34(C  6-Port  ) 
!S35(C  6-Port  ) 
!S36(C  6-Port  ) 
!S41(C  6-Port  ) 
!S42(C  6-Port  ) 
!S43(C  6-Port  ) 
!S44(C  6-Port  ) 
!S45(C  6-Port  ) 
!S46(C  6-Port  ) 
!S51(C  6-Port  ) 
!S52(C  6-Port  ) 
!S53(C  6-Port  ) 
!S54(C  6-Port  ) 
!S55(C  6-Port  ) 
!S56(C  6-Port  ) 
!S61(C  6-Port  ) 
!S62(C  6-Port  ) 
!S63(C  6-Port  ) 
!S64(C  6-Port  ) 
!S65(C  6-Port  ) 
!S66(C  6-Port  ) 
!S6P File: Measurement: :
# Hz S  RI   R 50
500000000 -0.33769 -0.037466 -0.010045 -0.0038527 -0.0083226 0.011996 -0.0019839 0.011441
0.012667 0.0044657 -0.0021524 0.0072765
-0.010013 -0.0038579 -0.41909 -0.050004 0.0075106 -0.011366 0.0022719 0.012036
0.0073188 0.0021776 0.0016597 0.013319
-0.0083027 0.011981 0.0074987 -0.011397 -0.26506 0.21084 0.007156 0.0031227
-0.00024375 0.0086508 0.00092142 0.01233
-0.0019548 0.01145 0.0022894 0.012024 0.0071531 0.0031208 -0.32638 0.047781
-0.01929 -0.0046468 0.01877 0.025648
0.012652 0.0044514 0.0073323 0.0021596 -0.00025248 0.008661 -0.019265 -0.0046349
-0.22708 -0.18458 -0.026765 0.0048765
-0.0021299 0.0073253 0.0016799 0.013311 0.00092867 0.012341 0.018781 0.02563
-0.026792 0.0048658 -0.27093 -0.11538
560000000 -0.31648 0.12439 -0.023994 -0.061741 8.8201e-05 0.011785 0.0066415 0.0097078
0.0095568 0.0035212 0.010808 0.0080567
-0.023956 -0.061648 -0.37499 0.1095 -0.042339 -0.037207 0.013398 0.0032832
-0.014827 -0.0028111 0.0043956 -0.00091767
0.00014015 0.011798 -0.042482 -0.037159 -0.18257 0.25866 9.7672e-06 -0.0043821
0.018731 0.0035453 0.0074274 -0.006875
0.006679 0.0097551 0.013418 0.0032877 2.1765e-05 -0.0043927 -0.30235 0.13592
0.0040172 -0.025867 0.0045865 -0.019324
0.0095391 0.0034599 -0.014852 -0.0027907 0.018725 0.0035379 0.0040353 -0.025905
-0.28605 -0.011066 0.006685 -0.050143
0.010867 0.0080729 0.0044228 -0.00092859 0.0074404 -0.0068749 0.0046018 -0.019299
0.0067444 -0.050075 -0.33113 0.032451
620000000 -0.2744 0.10928 -0.022868 0.0076091 0.0040109 0.0081178 0.0072845 -0.005802
0.011196 -0.00056718 9.7727e-05 -0.0021909
-0.022848 0.0075952 -0.4024 0.062034 -0.018542 -0.00043612 -0.0012191 -0.0021943
0.010351 -0.0070885 0.0007751 -0.0031949
0.0040314 0.0081399 -0.018566 -0.00039571 -0.15273 0.26728 -0.0012145 -0.0053862
-0.0041638 -0.0035982 0.0081068 -0.0040815
0.007212 -0.0058129 -0.0012449 -0.002196 -0.0012045 -0.0053945 -0.26148 0.14581
-0.038537 -0.01944 0.0143 0.023566
0.011224 -0.000617 0.010349 -0.0071196 -0.0041622 -0.0036099 -0.038543 -0.019427
-0.20397 -0.047681 -0.040175 0.013128
8.1197e-05 -0.0021926 0.00075531 -0.0031939 0.0080969 -0.0040723 0.014324 0.02356
-0.040204 0.013137 -0.24972 -0.0054867
680000000 -0.2334 0.19502 -0.0275 -0.013554 0.0048887 0.0051767 0.0010112 -0.0076001
-0.0038504 -0.010957 0.0043331 -0.0060587
-0.027484 -0.013553 -0.38731 0.15955 -0.032652 -0.0011174 -0.0019972 -8.562e-05
-0.002835 -0.0086887 -0.00089688 -0.0017861
0.0048998 0.0051543 -0.032686 -0.0010341 -0.10182 0.28742 -0.00090995 0.00010664
-0.0023565 0.00085003 -0.0028362 -0.0093841
0.0010178 -0.0075649 -0.0019944 -6.7841e-05 -0.00091312 9.5629e-05 -0.21936 0.1953
-0.023388 -0.0083454 -0.0088562 -0.010207
-0.0038997 -0.010973 -0.0028729 -0.0086904 -0.0023793 0.00084077 -0.023434 -0.0083573
-0.25187 0.048348 -0.0058817 -0.0094521
0.0043509 -0.0061055 -0.00090113 -0.001795 -0.0028377 -0.009388 -0.0089045 -0.010215
-0.0058795 -0.0094234 -0.25892 0.098828
740000000 -0.18982 0.18865 -0.03817 0.026285 0.012814 -0.0050742 -0.00029402 -0.003881
-0.0045006 -0.0032684 -0.0064392 0.0035183
-0.038146 0.026239 -0.33517 0.17831 -0.034811 0.034763 -0.00047746 -0.0062721
-0.012402 0.0075669 -0.0024862 -0.00608
0.01281 -0.0050958 -0.034763 0.034918 -0.067751 0.28621 -0.0014723 0.0034501
-0.0026862 -0.0038052 -0.00097003 0.0003634
-0.00034041 -0.0038951 -0.0004816 -0.0062633 -0.0014805 0.0034466 -0.20222 0.20261
-0.043058 -0.0083752 0.022108 0.013088
-0.0044796 -0.003264 -0.012394 0.0076316 -0.0027056 -0.0038074 -0.043071 -0.0083477
-0.15704 0.073055 -0.041572 0.00052892
-0.0064377 0.0035516 -0.0024927 -0.0060728 -0.00098327 0.00035181 0.022117 0.013071
-0.041553 0.0005022 -0.24572 0.10368
800000000 -0.15667 0.22941 -0.0224 0.016893 0.0050067 -0.010198 -0.005252 -0.0020789
-0.0044102 0.0027938 0.00347 0.00139
-0.022392 0.016881 -0.33754 0.24827 -0.007876 0.033973 -0.0022581 0.0021873
-0.00081584 0.0032173 0.00075161 0.0052766
0.0049794 -0.010218 -0.0077886 0.034026 -0.027066 0.30906 0.00093129 0.0014316
0.00067461 0.0037313 -0.002217 0.0011346
-0.0052579 -0.002067 -0.0022575 0.0021939 0.00092891 0.0014366 -0.17455 0.23016
-0.028232 0.012528 0.012433 -0.01021
-0.0044152 0.0028161 -0.0008148 0.0032366 0.00069132 0.0037457 -0.028242 0.012601
-0.2005 0.095713 -0.017404 0.017505
0.0034924 0.0013587 0.00076769 0.0052835 -0.0022126 0.0011453 0.012419 -0.010217
-0.017407 0.017484 -0.23995 0.15429
860000000 -0.1224 0.24931 -0.017156 0.030762 -0.0034458 -0.0097478 -0.0023551 0.0013675
0.0044991 0.0051041 -0.0029657 -0.0028186
-0.017152 0.030715 -0.28945 0.29041 0.0081319 0.03391 0.00029926 0.0021005
0.0046574 0.00026923 0.0032363 0.00027509
-0.0034596 -0.0097359 0.0082359 0.033913 0.021412 0.31664 -0.00039603 -0.00028983
0.0028032 -0.0014525 0.0015673 0.0043311
-0.0023394 0.001343 0.00030517 0.0021 -0.00039544 -0.00029246 -0.13872 0.24193
-0.018001 0.018224 -0.0064134 -0.0089091
0.0045071 0.0050827 0.0046556 0.00024494 0.0028059 -0.0014605 -0.017975 0.018269
-0.15111 0.14448 -0.02455 0.015333
-0.0029822 -0.0028083 0.0032296 0.00027676 0.0015719 0.004322 -0.0064066 -0.0089009
-0.02458 0.015342 -0.18835 0.19602
920000000 -0.09647 0.27215 0.0052539 0.037506 -0.0092688 -0.0043205 -0.0018837 0.0022854
0.0011872 0.001488 0.0025627 -0.0014834
0.005234 0.037468 -0.26046 0.31098 0.027905 0.021483 0.0015355 0.00090605
0.0067392 -0.00051097 0.0038315 -0.0032074
-0.0092715 -0.0042859 0.028004 0.021404 0.067587 0.31677 0.0017961 -0.00019657
0.0011378 -0.00040069 0.00083105 -0.0011522
-0.0018871 0.0022842 0.0015287 0.00091088 0.0017884 -0.00019872 -0.11426 0.2583
-0.010716 0.029723 0.0026926 -0.0063223
0.0012092 0.0014624 0.0067386 -0.00055163 0.001142 -0.00041087 -0.010668 0.029736
-0.14161 0.1504 -0.0024822 0.026968
0.0025782 -0.0014967 0.0038195 -0.0032233 0.00083688 -0.0011563 0.0027087 -0.0063361
-0.002485 0.026951 -0.19317 0.21132
980000000 -0.049372 0.29149 0.017654 0.029723 -0.0087838 0.0047017 0.0023598 0.0037536
0.0039922 -0.001826 -0.0029922 -0.0019845
0.017629 0.029706 -0.20729 0.34471 0.032666 0.0045984 0.0019396 3.8266e-05
0.0011067 -0.0062429 -0.00087673 -0.0018987
-0.0087682 0.0047438 0.03272 0.0044667 0.11377 0.31001 0.00040854 -0.0012146
0.00010131 -0.0021482 0.001386 3.1153e-05
0.0023756 0.0037603 0.0019221 2.7258e-05 0.00040788 -0.0012139 -0.076193 0.26991
0.00695 0.028591 -0.0093408 -0.0066372
0.0039873 -0.0018364 0.0010788 -0.0062859 0.00011316 -0.0021468 0.0070179 0.028607
-0.11003 0.17771 0.0043711 0.018879
-0.0029833 -0.0019652 -0.00088239 -0.0019044 0.0013872 2.5552e-05 -0.0093413 -0.0066369
0.0043523 0.018884 -0.15091 0.25613
1040000000 -0.0065868 0.29932 0.033053 0.01776 -0.0010107 0.0067615 0.0028401 0.00060168
-0.00019639 -0.0039338 -0.00061803 -0.0016074
0.033014 0.017753 -0.17173 0.35758 0.028892 -0.014686 0.0016452 -0.001647
-0.0023237 -0.0023182 -0.0012697 -0.0026486
-0.00099617 0.0067761 0.02885 -0.014825 0.15972 0.2959 -0.00045383 -0.0013855
-0.0016949 -0.00087669 -0.00037475 -0.0011533
0.0028373 0.00057377 0.0016329 -0.0016465 -0.00045163 -0.0013877 -0.048567 0.27985
0.017774 0.017149 -0.0028061 0.0020938
-0.00018692 -0.003929 -0.0023476 -0.0023193 -0.0016988 -0.0008848 0.017818 0.017105
-0.079549 0.18661 0.012861 0.018037
-0.00061603 -0.0015818 -0.0013188 -0.0026557 -0.00037204 -0.0011552 -0.0028069 0.0021044
0.012865 0.018039 -0.12873 0.27465
1100000000 0.038827 0.3067 0.035399 -0.0044086 0.002917 0.0037208 0.0025955 -0.0012781
-0.0022684 -0.0028747 -0.003727 -2.8393e-05
0.035365 -0.004391 -0.1282 0.37416 0.014802 -0.027355 0.00013723 -0.0017487
-0.0032319 -0.00039719 -0.0032277 -0.00062736
0.0029299 0.0037072 0.01471 -0.027449 0.20566 0.2755 -0.0017542 0.00024677
-0.0016948 0.00064112 -0.00088216 -0.0002827
0.0026045 -0.0012833 0.00012731 -0.0017447 -0.0017575 0.0002446 -0.0081488 0.28488
0.022238 0.0053283 -0.0022951 0.00087962
-0.0022886 -0.0028597 -0.0032434 -0.00038526 -0.001696 0.0006479 0.022242 0.005305
-0.060833 0.20022 0.018287 0.0086425
-0.0037223 -1.3837e-05 -0.0032449 -0.00061482 -0.00089013 -0.00027942 -0.0022939 0.00088317
0.018266 0.008641 -0.082077 0.30298
1160000000 0.090225 0.30095 0.023548 -0.020529 0.0026577 -0.00054736 -0.00011775 -0.0024858
-0.0038441 -0.00047876 -0.00085578 0.0036843
0.023533 -0.020509 -0.084543 0.37809 -0.0037656 -0.028618 -0.0016917 -0.0016388
-0.002357 0.0027365 -0.0011367 0.0015614
0.0026433 -0.00055222 -0.0038971 -0.02864 0.24851 0.24478 -0.00068594 0.0016531
-0.00037251 0.001838 -0.00091785 5.5413e-05
-0.00011215 -0.002489 -0.0017129 -0.0016315 -0.00068661 0.001655 0.031134 0.28196
0.018998 -0.0091757 -0.0024799 0.0057311
-0.0038413 -0.00043932 -0.002358 0.0027365 -0.00037152 0.0018295 0.018986 -0.0091906
-0.027614 0.20977 0.016709 0.00094223
-0.00084062 0.0037065 -0.0011454 0.0015566 -0.00092087 6.0883e-05 -0.0024647 0.0057388
0.016711 0.0009521 -0.035157 0.30515
1220000000 0.13428 0.28933 0.010144 -0.029549 -0.0015251 -0.00082129 -0.00020992 -0.0011457
-0.0025611 0.0025717 0.0012771 0.0018908
0.010151 -0.029518 -0.040619 0.38967 -0.016573 -0.020758 -0.0024617 0.00038794
0.00020602 0.0027455 -0.00069939 0.0017314
-0.0015298 -0.00080473 -0.01669 -0.020718 0.28751 0.20583 0.00086831 0.0015388
0.00058537 0.0011157 0.00020526 0.00063373
-0.00020612 -0.001136 -0.0024693 0.00039214 0.00087468 0.0015319 0.070667 0.27349
0.0092375 -0.014606 0.0028091 0.0017941
-0.0025555 0.0025845 0.00022775 0.0027491 0.00058627 0.0011051 0.0092112 -0.014636
-0.0039157 0.21918 0.013358 -0.011429
0.0012811 0.0018931 -0.00069591 0.0017336 0.0002029 0.00063791 0.0028194 0.0017915
0.013345 -0.01143 -0.0030324 0.32083
1280000000 0.18373 0.26668 -0.0077637 -0.027929 -0.0018033 0.0024639 -0.0010993 -0.0019134
-0.00048851 0.00283 0.0024444 0.001018
-0.007727 -0.027903 0.0050071 0.38057 -0.023218 -0.0083935 -0.0010075 0.001419
0.0015661 0.0015405 0.00049006 0.0019229
-0.001789 0.002481 -0.023296 -0.0083012 0.3183 0.16212 0.0013392 -0.00019416
0.00096398 -9.581e-06 0.00029789 0.00036799
-0.0011032 -0.0019081 -0.0010004 0.0014284 0.0013377 -0.00018904 0.10709 0.2577
0.0010805 -0.016464 0.00055173 4.4011e-05
-0.00046679 0.0028336 0.0015738 0.0015354 0.00097158 -1.1771e-05 0.001058 -0.016479
0.033153 0.22324 0.0029156 -0.013744
0.002447 0.00099922 0.00051441 0.0019335 0.00030582 0.00037059 0.00055727 4.4986e-05
0.0029162 -0.013734 0.044058 0.32117
1340000000 0.22026 0.23266 -0.017352 -0.018694 0.00086015 0.0043243 -0.0018955 -0.00075246
0.0014468 0.0025628 0.0016256 -0.001493
-0.017315 -0.018682 0.044213 0.37235 -0.021234 0.0039727 -8.2174e-05 0.0019868
0.0016934 0.00057983 0.0012935 0.00083638
0.00088453 0.0043326 -0.02124 0.004081 0.34069 0.11412 0.0009702 -0.00081348
0.00060824 -0.00035415 0.00020984 0.00024101
-0.0019117 -0.00075215 -7.5191e-05 0.0019989 0.00097748 -0.00081875 0.14013 0.23776
-0.0068441 -0.01391 0.0014648 -0.00016277
0.0014602 0.0025548 0.0017027 0.00056334 0.00061142 -0.00035934 -0.0068824 -0.013888
0.063432 0.21855 -0.0027303 -0.012316
0.0016182 -0.0015012 0.0012878 0.00082823 0.00020949 0.00023854 0.0014564 -0.00016993
-0.0027141 -0.012324 0.082283 0.3154
1400000000 0.25263 0.19434 -0.022904 -0.0074514 0.0050417 0.0029337 -0.0019808 0.00070467
0.002456 0.00065481 0.00013838 -0.0014165
-0.022872 -0.007449 0.081238 0.35935 -0.014676 0.012019 0.0013679 0.0012772
0.00094541 -0.00071776 0.0011026 0.00024957
0.0050469 0.0029175 -0.014628 0.012114 0.35388 0.060096 4.8847e-05 -0.0014223
9.1825e-05 -0.0003561 0.00029886 0.00021035
-0.0019837 0.00072069 0.0013684 0.0012665 5.7531e-05 -0.0014198 0.16999 0.20949
-0.011814 -0.0083756 -0.00053556 -0.001013
0.0024757 0.00063876 0.00094238 -0.00073616 9.2522e-05 -0.00035345 -0.011843 -0.0083627
0.096846 0.21396 -0.0089464 -0.0079909
0.00013313 -0.001412 0.0010991 0.00023839 0.00030181 0.00020932 -0.00054503 -0.0010145
-0.0089444 -0.0079872 0.12676 0.30402
1460000000 0.27517 0.15039 -0.020088 0.0044309 0.0054137 -0.0017357 -0.001512 0.001706
0.0017998 -0.00066968 -0.00036609 -0.00087487
-0.020079 0.0044225 0.11554 0.33773 -0.0063342 0.014902 0.0016635 0.00021017
0.00081209 -0.0010962 0.0012432 -0.00058751
0.0054095 -0.0017604 -0.0062688 0.014952 0.35989 0.0052619 -0.0010512 -0.0011562
0.00013169 -4.9294e-05 0.00071464 -0.00047437
-0.0015017 0.0017045 0.0016626 0.00020869 -0.0010487 -0.0011535 0.1972 0.18062
-0.012609 -0.0031851 -0.0012156 0.0012939
0.001798 -0.00067686 0.00080513 -0.0010985 0.00013474 -5.5327e-05 -0.01264 -0.0031622
0.12704 0.19908 -0.010569 -0.0029687
-0.00036944 -0.00088261 0.0012552 -0.00059216 0.000711 -0.00047597 -0.0012165 0.0012871
-0.010553 -0.0029707 0.15967 0.28241
1520000000 0.28696 0.10866 -0.014626 0.0099487 0.0030321 -0.0040631 8.392e-05 0.0025751
0.0017553 -0.0016092 -0.0011287 -8.8315e-05
-0.014624 0.0099246 0.14916 0.32285 0.001252 0.013016 0.0016214 -0.00082691
0.00011278 -0.00089399 0.00030941 -0.0010007
0.0030148 -0.0040814 0.0013254 0.013023 0.35256 -0.051337 -0.00098767 -0.00032562
0.0004955 -0.00075851 3.0893e-05 -4.6808e-05
8.7914e-05 0.0025757 0.0016136 -0.00083695 -0.00098642 -0.00032283 0.22138 0.14234
-0.012459 0.001119 0.00079735 0.0015667
0.0017475 -0.001619 0.00010857 -0.00090248 0.00049657 -0.00076399 -0.012465 0.0011479
0.15513 0.18449 -0.010769 0.00091038
-0.0011219 -8.5243e-05 0.00030958 -0.001004 3.1271e-05 -4.8642e-05 0.00081155 0.001565
-0.010768 0.0009142 0.19248 0.26112
1580000000 0.29598 0.062413 -0.0082424 0.013024 -0.00090735 -0.0046846 0.0014478 0.0018957
-0.00039056 -0.0019587 -0.00033672 0.00040437
-0.0082395 0.013011 0.17657 0.29797 0.0049047 0.0083785 0.00042444 -0.001581
-0.00029595 -0.0010354 -0.00017792 -0.00085281
-0.00093164 -0.004681 0.0049451 0.0083579 0.33183 -0.10877 -0.0014791 0.00043654
-0.00021148 -0.0011091 0.00021602 -0.00062803
0.0014642 0.0018887 0.00041739 -0.0015797 -0.0014854 0.0004362 0.23629 0.10236
-0.01021 0.0053049 0.0016446 0.00068334
-0.0004055 -0.0019533 -0.00030593 -0.0010323 -0.00020837 -0.0011083 -0.010195 0.0053366
0.17987 0.16601 -0.0087992 0.0063066
-0.00033431 0.00041005 -0.00018364 -0.00084877 0.00021213 -0.00062822 0.0016508 0.00067995
-0.0088002 0.006303 0.22405 0.23364
1640000000 0.29776 0.020859 -0.0017518 0.012132 -0.0026813 -0.002567 0.0025867 0.0009979
-0.00076594 -0.0011404 -0.00028087 0.00063683
-0.0017641 0.012114 0.20614 0.27257 0.005675 0.0037157 -0.00067013 -0.0016029
-0.00094281 -0.00055093 -0.00049974 -0.00068865
-0.002689 -0.0025592 0.0056969 0.0036917 0.3033 -0.15795 -0.00078204 0.0012955
-0.00096986 -0.00086567 -2.9237e-05 -0.00024834
0.0025976 0.00097902 -0.0006738 -0.001601 -0.00078049 0.0012848 0.24912 0.052116
-0.0069963 0.0065553 0.0020122 -0.00061204
-0.00077372 -0.0011354 -0.00095299 -0.00053464 -0.00097659 -0.00086838 -0.0069837 0.0065851
0.20312 0.14046 -0.0046555 0.0084519
-0.00027567 0.00064212 -0.00051995 -0.00067852 -3.3475e-05 -0.00024906 0.0020143 -0.00060983
-0.0046511 0.0084479 0.24917 0.20166
1700000000 0.29018 -0.024496 0.0017152 0.0096595 -0.0034988 0.00017236 0.0029517 -0.0010859
-0.0017662 -0.00045453 0.00065239 0.00045516
0.001706 0.0096525 0.22415 0.24072 0.0037981 0.00080511 -0.0013391 -0.00056692
-0.00080683 -3.9894e-05 -0.00092546 -0.00040579
-0.0035009 0.00019369 0.0038048 0.00077964 0.25926 -0.19793 0.00036134 0.0016236
-0.001649 -0.00028229 -0.00051901 -0.00095178
0.0029451 -0.0011071 -0.0013443 -0.00055674 0.00036396 0.0016192 0.24574 0.00079654
-0.004944 0.0074157 0.001138 -0.0019746
-0.0017703 -0.00043638 -0.00081471 -3.69e-05 -0.0016482 -0.00027452 -0.0049354 0.0074348
0.22086 0.11905 -0.00038428 0.0087881
0.0006602 0.00045022 -0.00092742 -0.00039777 -0.00051987 -0.00094532 0.0011323 -0.0019793
-0.00037347 0.0087896 0.26478 0.16686
1760000000 0.27742 -0.073182 0.0042185 0.0064988 -0.0021893 0.00090463 0.0012905 -0.003284
-0.0010597 0.00060495 0.00044162 -0.00053978
0.0042145 0.0064938 0.24996 0.20042 0.0017532 -0.00088957 -0.0010926 0.00021397
-0.0011799 0.00087841 -0.00059967 0.00053398
-0.002189 0.00091561 0.0017461 -0.0009079 0.2102 -0.23048 0.0011766 0.0012772
-0.0011119 0.0012831 -0.0012836 -0.00044869
0.0012712 -0.0032924 -0.0010834 0.000213 0.0011792 0.0012852 0.23543 -0.051884
-0.0023354 0.007137 -0.00052311 -0.0019976
-0.0010575 0.00061512 -0.0011748 0.00089452 -0.0011017 0.0012766 -0.0023225 0.0071401
0.2358 0.082211 0.0033167 0.0065313
0.00043768 -0.00054739 -0.00059258 0.00053711 -0.0012789 -0.0004498 -0.00052181 -0.0019963
0.0033182 0.00653 0.27689 0.12882
1820000000 0.25223 -0.11023 0.0045936 0.0029127 -1.3178e-05 0.0023864 -0.00095161 -0.0031179
-0.0008164 0.00062534 -3.7695e-05 -0.00015853
0.0045874 0.0029081 0.25947 0.17001 -0.00014658 5.1041e-05 -0.0013736 0.0008268
-0.0001749 0.0013914 -0.0005276 0.00052581
5.9605e-07 0.0023982 -0.00014671 4.3843e-05 0.16017 -0.24582 0.00154 0.00045991
-0.00049745 0.0021605 -0.0014807 0.00049837
-0.00097161 -0.0031079 -0.0013711 0.00083781 0.0015236 0.00045231 0.20336 -0.099302
-0.00096637 0.0061077 -0.0016393 -0.0011432
-0.00081795 0.00062703 -0.00016204 0.0013915 -0.0005045 0.0021593 -0.00095752 0.0061144
0.25234 0.050883 0.0041251 0.0033004
-3.9241e-05 -0.0001629 -0.00052424 0.00053336 -0.0014781 0.00050531 -0.0016426 -0.0011299
0.0041224 0.0033084 0.27813 0.092348
1880000000 0.21651 -0.15018 0.0025892 0.00054629 -0.00036539 0.0020179 -0.002822 -0.0021961
-0.00026367 0.0014403 0.00035933 -0.00052941
0.0025901 0.00054332 0.26341 0.12335 -0.0020461 0.0016632 -0.00022289 0.0017207
0.00070408 0.0014176 0.00019673 0.00098871
-0.00034602 0.0020184 -0.0020384 0.0016798 0.10829 -0.25508 0.0020564 -0.00091706
0.0014466 0.0020932 -0.00089878 0.001469
-0.0028238 -0.0021857 -0.00020743 0.0017172 0.0020607 -0.00091078 0.16121 -0.13847
-0.00065397 0.0047468 -0.0020803 0.00071212
-0.00025653 0.0014377 0.00071175 0.0014205 0.0014578 0.0020974 -0.00064467 0.0047601
0.25367 0.016232 0.004108 0.0013537
0.00034635 -0.00053115 0.00020144 0.00098846 -0.0008997 0.0014738 -0.0020794 0.00072008
0.0041052 0.0013472 0.27666 0.058026
1940000000 0.17686 -0.17545 0.00036146 -0.0013774 0.0012881 0.001799 -0.0036383 0.00054378
0.0010918 0.0012195 -0.00060549 -0.00053714
0.00036118 -0.0013722 0.26343 0.091445 -0.0010268 0.0037522 0.00092794 0.0013834
0.0020528 0.00057955 0.00089222 0.00028052
0.001292 0.0017886 -0.0010034 0.0037541 0.062114 -0.24887 0.00033136 -0.0023174
0.0024973 0.0006121 0.00051572 0.0016643
-0.0036318 0.00057297 0.00094783 0.0013853 0.00033485 -0.002307 0.10776 -0.16766
-0.0016234 0.0039194 -0.001041 0.00196
0.0010944 0.0012005 0.0020553 0.00056514 0.0024942 0.00061027 -0.0016028 0.0039079
0.25321 -0.024973 0.0030152 -0.0014454
-0.00060745 -0.00053089 0.00089345 0.00027362 0.00052824 0.001659 -0.001036 0.0019735
0.0030257 -0.0014277 0.26495 0.022005
2000000000 0.1303 -0.18946 -0.0036242 0.00057678 0.0023604 0.0015352 -0.0023984 0.0036834
0.00097113 0.00041557 -0.0006649 0.0004308
-0.0036263 0.00057148 0.24867 0.056045 -0.00085062 0.0055616 0.0016211 0.00040607
0.0014689 -0.0015292 0.00054979 9.8805e-05
0.0023677 0.0015293 -0.00080654 0.0055746 0.018494 -0.23415 -0.0015017 -0.0014524
0.0021087 -0.0012188 0.0016731 0.0012113
-0.0023765 0.0037174 0.0016134 0.00039437 -0.0015003 -0.0014611 0.054274 -0.17537
-0.0030812 0.0047716 0.00035815 0.0021909
0.00098008 0.00041248 0.0014615 -0.0015464 0.0021109 -0.001233 -0.0030767 0.0047789
