!Keysight Technologies,M9804A,MY58100912,A.14.10.03
!Date: Thursday, April 27, 2023 10:28:33
!Correction: S11(C  6-Port  ) 
!S12(C  6-Port  ) 
!S13(C  6-Port  ) 
!S14(C  6-Port  ) 
!S15(C  6-Port  ) 
!S16(C  6-Port  ) 
!S21(C  6-Port  ) 
!S22(C  6-Port  ) 
!S23(C  6-Port  ) 
!S24(C  6-Port  ) 
!S25(C  6-Port  ) 
!S26(C  6-Port  ) 
!S31(C  6-Port  ) 
!S32(C  6-Port  ) 
!S33(C  6-Port  ) 
!S34(C  6-Port  ) 
!S35(C  6-Port  ) 
!S36(C  6-Port  ) 
!S41(C  6-Port  ) 
!S42(C  6-Port  ) 
!S43(C  6-Port  ) 
!S44(C  6-Port  ) 
!S45(C  6-Port  ) 
!S46(C  6-Port  ) 
!S51(C  6-Port  ) 
!S52(C  6-Port  ) 
!S53(C  6-Port  ) 
!S54(C  6-Port  ) 
!S55(C  6-Port  ) 
!S56(C  6-Port  ) 
!S61(C  6-Port  ) 
!S62(C  6-Port  ) 
!S63(C  6-Port  ) 
!S64(C  6-Port  ) 
!S65(C  6-Port  ) 
!S66(C  6-Port  ) 
!S6P File: Measurement: :
# Hz S  RI   R 50
500000000 -0.3377 -0.043464 -0.0097687 -0.0026129 -0.0081017 0.012743 -0.0043804 0.012609
0.012234 0.0035703 -0.0057073 0.0091034
-0.009983 -0.0025241 -0.41824 -0.055258 0.0081292 -0.011589 0.0021261 0.013248
0.0062983 0.0017905 0.00124 0.014405
-0.008127 0.013002 0.0081684 -0.011567 -0.26614 0.20686 0.0074816 0.0036848
-0.0026214 0.0084335 0.00075194 0.012204
-0.0046472 0.012367 0.0020162 0.013121 0.0073667 0.0036546 -0.33285 0.036591
-0.021618 -0.0053838 0.018464 0.027723
0.012126 0.0034143 0.0062091 0.0018467 -0.0026853 0.0084139 -0.021615 -0.0054498
-0.21605 -0.21224 -0.029132 0.0066557
-0.0058532 0.0089686 0.0013556 0.014514 0.00086504 0.012103 0.018424 0.027755
-0.029067 0.0068785 -0.25131 -0.17219
560000000 -0.31834 0.12111 -0.024305 -0.062682 0.00076606 0.012779 0.0056794 0.011859
0.01081 0.0049066 0.012273 0.0080057
-0.024071 -0.062911 -0.37427 0.10609 -0.041741 -0.03733 0.014238 0.0030977
-0.014123 -0.0053665 0.0043432 -0.0014122
0.00046142 0.01277 -0.041992 -0.037146 -0.18402 0.25671 0.00011364 -0.0044147
0.01931 0.005259 0.0068579 -0.0059758
0.0056057 0.01159 0.014148 0.0031001 0.00032273 -0.0045387 -0.31037 0.12991
0.0049969 -0.024095 0.0050716 -0.022645
0.010947 0.0050203 -0.014017 -0.0051976 0.019314 0.0052593 0.0048408 -0.024035
-0.28943 -0.036135 0.010375 -0.051223
0.012153 0.0080582 0.0039621 -0.0012451 0.0069858 -0.0058917 0.0049409 -0.022681
0.010327 -0.051728 -0.32821 -0.013638
620000000 -0.27622 0.10181 -0.023222 0.0080294 0.0032699 0.0086597 0.0078275 -0.004438
0.011536 0.00055935 0.0012948 -0.0015555
-0.023286 0.0081388 -0.40306 0.057089 -0.018622 0.00017091 -0.0013233 -0.0021239
0.011473 -0.0054231 0.0012717 -0.0026691
0.0031899 0.0088783 -0.018653 0.00025406 -0.15479 0.26587 -0.0011269 -0.0053203
-0.0027476 -0.0020665 0.0084625 -0.0028597
0.007685 -0.0051043 -0.0013483 -0.0020981 -0.0010671 -0.0054939 -0.27005 0.14003
-0.040019 -0.018985 0.012056 0.028577
0.011464 0.00079103 0.011435 -0.0055021 -0.0027609 -0.0020375 -0.039724 -0.018695
-0.20471 -0.07248 -0.045101 0.016585
0.0010106 -0.001568 0.0011063 -0.0027095 0.0084762 -0.0029826 0.01223 0.028795
-0.045057 0.016668 -0.24537 -0.058759
680000000 -0.23695 0.19199 -0.027307 -0.013784 0.0054645 0.0056329 0.0023911 -0.0074164
-0.0031038 -0.011238 0.0072901 -0.0063994
-0.027226 -0.013713 -0.38873 0.15585 -0.032838 -0.0015144 -0.0011939 -0.00048002
-0.0017685 -0.0091078 -0.00066515 -0.0016399
0.0054386 0.005671 -0.032868 -0.0013946 -0.10271 0.28546 -0.00068448 -0.00049782
-0.0016731 0.00061541 -0.0023668 -0.0095861
0.002322 -0.0072978 -0.0012793 -0.00040767 -0.00069993 -0.00048387 -0.2239 0.19292
-0.024351 -0.0065398 -0.0098081 -0.012578
-0.0033755 -0.011319 -0.001831 -0.0091813 -0.0016912 0.0006023 -0.024476 -0.0065823
-0.26168 0.02832 -0.0050472 -0.0075569
0.0067433 -0.0061768 -0.00075747 -0.0016748 -0.0023172 -0.0095581 -0.0099871 -0.012826
-0.0050805 -0.0074817 -0.26429 0.054252
740000000 -0.19266 0.18555 -0.039526 0.026613 0.012999 -0.0047542 -0.00045474 -0.004615
-0.004981 -0.0022992 -0.0071313 0.0032817
-0.03937 0.026863 -0.33464 0.17421 -0.035863 0.035573 -0.00052587 -0.0061125
-0.012692 0.0063204 -0.001751 -0.0065612
0.012881 -0.0046988 -0.035788 0.035771 -0.069556 0.28394 -0.0024956 0.0031914
-0.0021113 -0.0053006 -0.0016425 0.00059978
-0.00036644 -0.0048769 -0.00051917 -0.006181 -0.0024736 0.0031947 -0.20723 0.20118
-0.045231 -0.0063143 0.025052 0.016511
-0.0048713 -0.0021885 -0.012611 0.0063732 -0.0021071 -0.0052804 -0.045186 -0.0062765
-0.15754 0.054364 -0.046733 0.00044662
-0.0068844 0.0030715 -0.0018308 -0.0064029 -0.0017905 0.00068615 0.02485 0.016608
-0.046701 0.00049628 -0.25818 0.058866
800000000 -0.15908 0.22673 -0.022243 0.017004 0.0055932 -0.010647 -0.0047112 -0.0019108
-0.0041179 0.0025492 0.0042281 0.00011766
-0.022275 0.017005 -0.33911 0.24508 -0.0079202 0.034191 -0.0023103 0.0020119
-0.00069271 0.0028234 0.0010347 0.005234
0.0056367 -0.010616 -0.0077635 0.034301 -0.028836 0.3069 0.00091173 0.0013952
0.00019324 0.0035522 -0.0015152 0.00041963
-0.0047508 -0.001751 -0.0023017 0.0020905 0.00091706 0.0014058 -0.17818 0.23023
-0.028869 0.014868 0.01511 -0.010746
-0.0039984 0.0025359 -0.0006867 0.0028406 0.00017918 0.0035526 -0.028931 0.014928
-0.21021 0.080471 -0.018101 0.020273
0.0041157 0.00010454 0.0010608 0.0052563 -0.0015834 0.00034817 0.015231 -0.010998
-0.018078 0.020243 -0.2594 0.11336
860000000 -0.12447 0.24656 -0.017467 0.030722 -0.0031386 -0.009933 -0.0022271 0.00077612
0.0040354 0.0045786 -0.0045529 -0.0030384
-0.017486 0.03069 -0.29106 0.28704 0.0081233 0.034489 0.00024747 0.0022237
0.0046962 0.00020308 0.0030116 0.00090515
-0.0031233 -0.0098794 0.0082291 0.034525 0.019194 0.31536 -0.00072928 -0.00011752
0.0027904 -0.0015123 0.0013388 0.0044788
-0.0022141 0.00065519 0.0002138 0.0022733 -0.00074927 -0.00012522 -0.14057 0.24097
-0.017918 0.019135 -0.0067833 -0.009644
0.0040284 0.0047659 0.0046895 0.00020681 0.0027939 -0.0015529 -0.01797 0.019256
-0.1577 0.13253 -0.027756 0.016793
-0.0043893 -0.0029731 0.0030223 0.00088806 0.0014061 0.0044869 -0.00689 -0.0095922
-0.027813 0.016741 -0.20774 0.16368
920000000 -0.099927 0.26911 0.0050884 0.038122 -0.0097229 -0.0047171 -0.0016612 0.0016425
0.00085422 0.0020636 0.0027289 -0.0018031
0.0049848 0.038156 -0.26311 0.30854 0.02825 0.022164 0.0014504 0.0011222
0.0070506 0.00016036 0.0041431 -0.0031854
-0.009713 -0.0046437 0.028339 0.022122 0.065207 0.31612 0.0019214 2.5675e-05
0.0011802 -0.00011495 0.00080424 -0.0015134
-0.0016167 0.0017798 0.0014005 0.0011105 0.0019278 1.1572e-05 -0.11646 0.25892
-0.010569 0.031904 0.0047202 -0.0067814
0.00093557 0.0020897 0.0070774 0.00023273 0.0012074 -7.5037e-05 -0.010477 0.031884
-0.14785 0.14052 -0.0027142 0.02851
0.0027915 -0.0019843 0.0042128 -0.0031259 0.00081169 -0.0015149 0.0047879 -0.0069313
-0.0027678 0.028424 -0.22194 0.17812
980000000 -0.05249 0.28902 0.017508 0.030196 -0.0092652 0.0045763 0.0019829 0.0031787
0.0040182 -0.0013813 -0.0032865 -0.0020586
0.01745 0.030214 -0.21013 0.34282 0.033485 0.0048954 0.0021568 -0.00014301
0.0015666 -0.0058113 6.2147e-06 -0.0023287
-0.0092405 0.0046503 0.033522 0.0048119 0.11175 0.30984 0.00065782 -0.0012462
0.00037793 -0.0022591 0.0013829 -0.00015508
0.0020129 0.0031749 0.0021517 -0.00015035 0.00065351 -0.0012409 -0.077422 0.26925
0.0087198 0.031386 -0.01 -0.0085257
0.004119 -0.001438 0.0015062 -0.0058784 0.00034355 -0.0022568 0.0087042 0.03141
-0.11873 0.16993 0.0046034 0.020421
-0.0031432 -0.0021383 -7.4494e-05 -0.0023937 0.0014396 -0.00022742 -0.0099855 -0.0084092
0.0046558 0.020332 -0.18074 0.22929
1040000000 -0.010982 0.2975 0.033393 0.018181 -0.001404 0.0070678 0.0024147 0.00063773
0.00017377 -0.0036103 -0.00020635 -0.0013893
0.033301 0.018222 -0.17454 0.356 0.029758 -0.014986 0.001579 -0.0018579
-0.0022716 -0.0027067 -0.0015388 -0.0028646
-0.0013519 0.007036 0.029699 -0.015107 0.15797 0.29622 -0.0005605 -0.0017083
-0.0016554 -0.00091767 -0.00071335 -0.0012131
0.0024511 0.0006414 0.0015295 -0.0018883 -0.00055729 -0.0017208 -0.050099 0.27972
0.020814 0.018937 -0.0019788 0.0008498
0.00015942 -0.0035693 -0.0022637 -0.0027919 -0.0016391 -0.00091487 0.020924 0.018884
-0.086383 0.17796 0.013238 0.020972
-5.0755e-05 -0.00142 -0.0014179 -0.0028852 -0.00071145 -0.0012119 -0.0018989 0.00078527
0.013254 0.020909 -0.16108 0.25224
1100000000 0.034636 0.3056 0.036161 -0.004221 0.0029348 0.0039747 0.0021696 -0.0012915
-0.0017902 -0.0031478 -0.0041916 -0.00024902
0.03612 -0.0042276 -0.13129 0.37349 0.015242 -0.028248 -4.5547e-05 -0.0017819
-0.0033242 -0.00095954 -0.0037083 -0.00063006
0.002959 0.0039471 0.015148 -0.028323 0.20462 0.27587 -0.0020263 0.00022993
-0.001838 0.0004056 -0.0011781 -0.00027051
0.0021863 -0.0012865 -3.7229e-05 -0.0018047 -0.0020288 0.00022249 -0.0091944 0.28473
0.026711 0.0052615 -0.0029998 -0.00062503
-0.0018107 -0.0031074 -0.0033518 -0.00092601 -0.0018658 0.00040493 0.026749 0.0052061
-0.069433 0.19147 0.020038 0.010062
-0.0041602 -0.00013729 -0.003758 -0.00059094 -0.0011615 -0.00027437 -0.0030272 -0.00062266
0.020067 0.01006 -0.11671 0.28801
1160000000 0.085605 0.3012 0.024119 -0.020927 0.0028079 -0.00046355 -0.00040364 -0.0020954
-0.004123 -0.00092005 -0.00098248 0.0040693
0.02409 -0.020873 -0.087321 0.37797 -0.0039414 -0.029508 -0.0016114 -0.0016711
-0.0029473 0.0024259 -0.0016681 0.0018366
0.0028159 -0.00050353 -0.0040672 -0.029516 0.24792 0.24485 -0.0008565 0.0018258
-0.00069206 0.0020964 -0.0012208 0.00031257
-0.00040698 -0.0020747 -0.0016215 -0.001661 -0.00086196 0.0018232 0.030546 0.28154
0.023036 -0.012064 -0.0038762 0.0054589
-0.0041584 -0.00083514 -0.0028999 0.0024801 -0.00068485 0.0021115 0.022939 -0.012068
-0.03576 0.20178 0.019045 0.001581
-0.00099612 0.0040161 -0.0016657 0.0018768 -0.0011795 0.0003424 -0.003771 0.0055099
0.019058 0.0015926 -0.068002 0.29328
1220000000 0.13027 0.29006 0.01045 -0.030412 -0.0016276 -0.00092142 7.9656e-06 -0.00065616
-0.0027405 0.0023637 0.0011229 0.0021801
0.010467 -0.030398 -0.042712 0.39021 -0.017238 -0.021325 -0.0026188 0.00047877
-5.17e-05 0.0031205 -0.00095878 0.0020447
-0.001617 -0.00089014 -0.017364 -0.021249 0.28692 0.20536 0.00081825 0.0018588
0.00069612 0.001464 0.00044696 0.00080224
4.6789e-05 -0.00066197 -0.0026341 0.00045198 0.00082727 0.0018557 0.070646 0.2724
0.011525 -0.019109 0.0016468 0.0013334
-0.0027713 0.0024044 -9.0084e-05 0.0031446 0.00065598 0.001482 0.011494 -0.019149
-0.01367 0.21165 0.015733 -0.012819
0.0011906 0.0022386 -0.00094045 0.0020722 0.00042154 0.0007793 0.0015994 0.0013239
0.015713 -0.012806 -0.039313 0.31499
1280000000 0.18026 0.26852 -0.0080954 -0.028759 -0.001848 0.0025128 -0.00079106 -0.001805
-0.0008059 0.0030258 0.0026792 0.001307
-0.0080675 -0.028717 0.0036556 0.38115 -0.024135 -0.008357 -0.00093381 0.0013843
0.0017262 0.0020005 0.00074761 0.0021372
-0.0018355 0.0025377 -0.024204 -0.0082312 0.31702 0.16133 0.0017385 3.7614e-05
0.0012583 0.00034971 0.00045857 0.00045006
-0.0008126 -0.0018251 -0.00091691 0.0014282 0.0017197 3.3341e-05 0.10753 0.25519
0.0010287 -0.021441 -0.00070411 0.00044609
-0.00079339 0.0030194 0.0017711 0.002005 0.0012365 0.00032839 0.0010236 -0.021419
0.022901 0.21634 0.0037341 -0.015526
0.0026573 0.0012986 0.00075452 0.0021463 0.0004644 0.00040401 -0.00066082 0.00048031
0.0038052 -0.015583 0.010817 0.3208
1340000000 0.21753 0.23439 -0.018014 -0.019003 0.00091099 0.0045455 -0.0014605 -0.00095923
0.0014995 0.0028553 0.0018938 -0.0013847
-0.01797 -0.019005 0.04332 0.37263 -0.021806 0.004491 -0.00021241 0.0020413
0.0020109 0.0008718 0.0014049 0.00083441
0.00092432 0.0045605 -0.021799 0.0046131 0.33879 0.11346 0.0012968 -0.0010153
0.00093133 -0.00052148 0.00029098 0.0004408
-0.0014416 -0.00093093 -0.00021301 0.0020127 0.0013027 -0.0010274 0.13928 0.234
-0.0097036 -0.018476 0.00062738 0.00083351
0.0015653 0.0028324 0.0020217 0.00084429 0.0009444 -0.000522 -0.0097115 -0.018404
0.052429 0.21217 -0.0030368 -0.014188
0.0019239 -0.0013768 0.0014226 0.00079473 0.00030738 0.00043743 0.00061666 0.00085319
-0.0030133 -0.014195 0.050313 0.31983
1400000000 0.25055 0.19627 -0.023708 -0.0072769 0.0051956 0.0030612 -0.0020575 0.0004975
0.0024444 0.00094511 0.00051213 -0.0014329
-0.023673 -0.0072899 0.080567 0.35919 -0.014831 0.012711 0.0014136 0.0013808
0.0012594 -0.00077177 0.0013353 0.00017109
0.0052205 0.0030548 -0.014778 0.012791 0.35147 0.06004 0.00023236 -0.0018844
0.00013082 -0.00051871 0.00037168 0.0002606
-0.0020802 0.00048666 0.0014309 0.0013971 0.00023395 -0.001874 0.16747 0.20481
-0.016227 -0.010992 -0.0011106 -6.1715e-05
0.0024769 0.00091438 0.0012767 -0.00079028 0.00014777 -0.00051696 -0.016225 -0.01099
0.085239 0.20895 -0.0097519 -0.0097973
0.00048843 -0.0014329 0.001336 0.00020386 0.00037355 0.00028216 -0.0011136 -4.2748e-05
-0.0097055 -0.0097567 0.097628 0.31159
1460000000 0.27328 0.15193 -0.0206 0.005119 0.0056474 -0.0018913 -0.0016318 0.0016011
0.0020713 -0.00036176 -0.00030967 -0.0011597
-0.020597 0.0050993 0.11447 0.33692 -0.005984 0.015445 0.0017784 0.00026647
0.00094236 -0.0013943 0.0012823 -0.00078032
0.0056495 -0.001911 -0.0058842 0.015501 0.3575 0.0062318 -0.0014381 -0.0015225
0.00016545 -0.00033342 0.00076424 -0.00045363
-0.001582 0.0016217 0.0017492 0.00024876 -0.0014276 -0.0015284 0.19226 0.17598
-0.017888 -0.0033359 -0.00078174 0.0026523
0.0021085 -0.00039297 0.00092348 -0.0014184 0.00015524 -0.000329 -0.017907 -0.0033086
0.11389 0.19468 -0.011968 -0.0030934
-0.00027631 -0.0011455 0.0012798 -0.00078318 0.00073309 -0.00046875 -0.00073776 0.0027351
-0.011987 -0.0031442 0.13169 0.29213
1520000000 0.28504 0.11033 -0.014718 0.01067 0.0033819 -0.0041806 -8.6018e-06 0.0026858
0.0022397 -0.0017134 -0.0011548 -0.00023658
-0.01471 0.01065 0.14759 0.32218 0.0017592 0.013113 0.0018353 -0.00082224
-1.3261e-05 -0.0011228 0.00033996 -0.00105
0.0033514 -0.0042043 0.001827 0.013118 0.35079 -0.049743 -0.0013793 -0.00035702
0.00057701 -0.00085992 0.00013078 -0.00028434
-1.4389e-05 0.0026608 0.0018436 -0.00083658 -0.0013812 -0.00036343 0.21412 0.13921
-0.016978 0.0035201 0.0017539 0.0023393
0.0022228 -0.0017198 -3.0162e-05 -0.0011339 0.00056936 -0.0008539 -0.016975 0.0035434
0.14142 0.18167 -0.012268 0.0012285
-0.0011346 -0.00022602 0.00032019 -0.0010718 0.00013375 -0.00025443 0.0018389 0.0022854
-0.01229 0.0012237 0.16759 0.2751
1580000000 0.29407 0.064031 -0.0078448 0.013725 -0.00097527 -0.0049104 0.0014924 0.0020158
-0.00016116 -0.0022271 -0.00042068 0.00042822
-0.007852 0.013715 0.17443 0.29737 0.0053013 0.0081984 0.00052293 -0.0017907
-0.00057603 -0.0011287 -0.0003385 -0.00076768
-0.00098597 -0.0048899 0.0053621 0.0081797 0.33078 -0.10689 -0.0017508 0.0008765
-0.00038755 -0.0011101 5.7006e-05 -0.00056092
0.0015152 0.00204 0.00049801 -0.001807 -0.0017551 0.00087441 0.22685 0.10177
-0.012709 0.0091626 0.0026432 0.00090057
-0.00015011 -0.0022041 -0.00058821 -0.0011173 -0.0004297 -0.0011404 -0.012748 0.0092114
0.1655 0.16464 -0.0098157 0.0076567
-0.00044393 0.00040853 -0.00032267 -0.00077269 4.9365e-05 -0.00060122 0.0026365 0.00089768
-0.0098016 0.0076239 0.20298 0.24951
1640000000 0.29591 0.023264 -0.00097515 0.01241 -0.0026713 -0.002583 0.0028659 0.0010641
-0.0005781 -0.0017057 -0.00028045 0.0005214
-0.00098274 0.012381 0.20365 0.27279 0.0060315 0.0034231 -0.00076761 -0.0019035
-0.0010677 -0.00035725 -0.00050343 -0.00075209
-0.0027054 -0.0025727 0.006064 0.0033981 0.30307 -0.15611 -0.00051181 0.0017078
-0.0010562 -0.001109 -9.731e-05 -0.00041376
0.0028529 0.0010699 -0.00077587 -0.0018984 -0.00052648 0.0016982 0.23887 0.055618
-0.0076094 0.010685 0.0028182 -0.00095023
-0.00059591 -0.0017129 -0.0010618 -0.00035271 -0.0010388 -0.0011087 -0.0075757 0.010713
0.1873 0.14134 -0.0045284 0.0098428
-0.00025715 0.00051865 -0.00050465 -0.00074208 -0.00010854 -0.00039653 0.0028463 -0.00095336
-0.0045373 0.0098303 0.23 0.21971
1700000000 0.28866 -0.021608 0.0024117 0.0093404 -0.0035061 8.2853e-05 0.0031176 -0.0013647
-0.0021201 -0.00078857 0.00072237 0.00045015
0.0024081 0.0093642 0.22156 0.24159 0.0039037 0.00057728 -0.0016585 -0.00061161
-0.00076465 0.00010278 -0.00093566 -0.00040345
-0.0035175 0.00012876 0.0039104 0.00056099 0.25959 -0.19598 0.00075961 0.0016887
-0.0020836 -0.00023606 -0.00042967 -0.00086066
0.0031063 -0.001363 -0.0016486 -0.00060087 0.00075076 0.0016764 0.23701 0.0087047
-0.0040545 0.011121 0.0017198 -0.0023604
-0.0021461 -0.00077036 -0.00077325 0.00011212 -0.0020768 -0.00020939 -0.0040546 0.011169
0.20451 0.12218 0.00021435 0.010148
0.00072327 0.00040897 -0.00094152 -0.00039461 -0.00044178 -0.00087078 0.0017354 -0.002444
0.00020159 0.010153 0.24952 0.18553
1760000000 0.27662 -0.069832 0.0044974 0.0059525 -0.0023367 0.0011125 0.0012049 -0.0035734
-0.0014651 0.00065721 0.00047509 -0.00068984
0.0044961 0.0059355 0.24746 0.20221 0.0015377 -0.0012353 -0.0012878 0.00034527
-0.00090348 0.00094958 -0.00055056 0.00039762
-0.0022945 0.0011457 0.0015309 -0.0012404 0.21069 -0.22967 0.0014019 0.0008728
-0.0011218 0.001498 -0.0014028 -0.00063156
0.0011928 -0.003561 -0.0012994 0.00035089 0.001406 0.00087281 0.23062 -0.040428
-0.00017589 0.0099802 -8.013e-05 -0.0028386
-0.0014663 0.0006706 -0.00088066 0.00095193 -0.0011239 0.0015083 -0.00014646 0.010007
0.21918 0.08868 0.0046888 0.0073205
0.0004397 -0.00072908 -0.00052208 0.00039704 -0.0013549 -0.00060939 -0.00013942 -0.0028164
0.0046807 0.0073205 0.26363 0.14881
1820000000 0.25248 -0.10682 0.0045475 0.0023528 -4.0854e-05 0.0025007 -0.0011975 -0.0030426
-0.0012572 0.0010765 -6.6249e-05 -0.0001328
0.0045212 0.0023665 0.25774 0.17245 -0.00036067 -7.2222e-05 -0.0012973 0.0011559
5.806e-05 0.0012169 -0.00052647 0.00047841
-7.1337e-05 0.0024821 -0.00035889 -4.4766e-05 0.16078 -0.24517 0.0014457 0.00015368
-0.00016963 0.0025099 -0.0014537 0.00028009
-0.0012597 -0.0030434 -0.0012822 0.0011614 0.0014427 0.00015746 0.20431 -0.086842
0.0018514 0.0081023 -0.0018691 -0.001885
-0.0012266 0.0010971 7.1752e-05 0.0012206 -0.00015489 0.0024898 0.0018625 0.0080815
0.23689 0.061235 0.0053674 0.0033947
-5.9965e-05 -0.00012771 -0.00051924 0.00048488 -0.001456 0.00031965 -0.0018063 -0.0018362
0.0053518 0.0033918 0.26888 0.11305
1880000000 0.21774 -0.14703 0.002281 0.00020975 -0.0003316 0.0019983 -0.0029991 -0.0021896
-0.00014034 0.0018766 0.00024289 -0.00056533
0.0022586 0.00020388 0.2624 0.12613 -0.0023332 0.0016634 -5.3387e-05 0.0016769
0.00051387 0.0010193 6.7393e-05 0.00090016
-0.00028097 0.0019744 -0.0023186 0.0016974 0.10872 -0.25462 0.0014914 -0.00084843
0.0015863 0.0019019 -0.00098013 0.0013979
-0.0029713 -0.0022066 -4.1906e-05 0.0016455 0.0014586 -0.0008555 0.16748 -0.1285
0.0028297 0.005575 -0.0026692 0.00030737
-8.0096e-05 0.001889 0.00054308 0.0010169 0.0015613 0.0018906 0.0029045 0.005568
0.2403 0.030059 0.0057001 0.0010603
0.00023383 -0.00057651 5.5615e-05 0.00089652 -0.00098489 0.0013829 -0.0026528 0.00025922
0.0056732 0.0010358 0.27013 0.078293
1940000000 0.17889 -0.17305 -2.1054e-05 -0.0013105 0.001219 0.0018901 -0.003578 0.0006672
0.0014883 0.0011244 -0.00070097 -0.00050389
-3.1413e-05 -0.0013018 0.26324 0.094353 -0.0011525 0.0037343 0.0010671 0.0012055
0.0016928 0.00044429 0.00078448 0.00021663
0.0012376 0.0019037 -0.0011312 0.0037516 0.062519 -0.24845 0.00025809 -0.0017943
0.0024121 0.00043814 0.00031589 0.0016906
-0.0035685 0.00068089 0.001088 0.0012337 0.00025962 -0.001786 0.11695 -0.16195
0.0022415 0.003406 -0.0016284 0.001648
0.0015087 0.0011013 0.0016991 0.00043618 0.0023949 0.00041798 0.0022424 0.0034217
0.24387 -0.0077952 0.0041515 -0.0027117
-0.00078091 -0.00050659 0.00073531 0.0002214 0.00033899 0.0017507 -0.0017294 0.0016689
0.0041619 -0.0026958 0.2605 0.042755
2000000000 0.13256 -0.18833 -0.0037717 0.00067555 0.0024846 0.0018904 -0.0023104 0.0034334
0.0010989 2.2978e-05 -0.00081841 0.00057264
-0.0038017 0.00066924 0.24939 0.058727 -0.0010412 0.005604 0.0014795 0.00033393
0.0011443 -0.0012597 0.00036157 0.0001946
0.0024167 0.0017929 -0.0010207 0.0055949 0.018931 -0.23407 -0.0010545 -0.0013198
0.0020291 -0.001221 0.0016756 0.001499
-0.0023052 0.0033785 0.0014912 0.000302 -0.0010337 -0.0013129 0.063758 -0.17525
0.00040597 0.0025682 -0.00016649 0.002076
0.001123 6.1457e-06 0.0011575 -0.0012466 0.0020401 -0.0012404 0.00044197 0.0025259
0.23906 -0.041536 0.0006646 -0.0036321
