!Keysight Technologies,M9804A,MY58100912,A.14.10.03
!Date: Thursday, April 27, 2023 10:28:33
!Correction: S11(C  6-Port  ) 
!S12(C  6-Port  ) 
!S13(C  6-Port  ) 
!S14(C  6-Port  ) 
!S15(C  6-Port  ) 
!S16(C  6-Port  ) 
!S21(C  6-Port  ) 
!S22(C  6-Port  ) 
!S23(C  6-Port  ) 
!S24(C  6-Port  ) 
!S25(C  6-Port  ) 
!S26(C  6-Port  ) 
!S31(C  6-Port  ) 
!S32(C  6-Port  ) 
!S33(C  6-Port  ) 
!S34(C  6-Port  ) 
!S35(C  6-Port  ) 
!S36(C  6-Port  ) 
!S41(C  6-Port  ) 
!S42(C  6-Port  ) 
!S43(C  6-Port  ) 
!S44(C  6-Port  ) 
!S45(C  6-Port  ) 
!S46(C  6-Port  ) 
!S51(C  6-Port  ) 
!S52(C  6-Port  ) 
!S53(C  6-Port  ) 
!S54(C  6-Port  ) 
!S55(C  6-Port  ) 
!S56(C  6-Port  ) 
!S61(C  6-Port  ) 
!S62(C  6-Port  ) 
!S63(C  6-Port  ) 
!S64(C  6-Port  ) 
!S65(C  6-Port  ) 
!S66(C  6-Port  ) 
!S6P File: Measurement: :
# Hz S  RI   R 50
500000000 -0.33736 -0.042336 -0.0099001 -0.0023811 -0.0080252 0.012738 -0.0048317 0.011838
0.012724 0.0049086 -0.0048338 0.0083627
-0.0099012 -0.0023886 -0.41869 -0.054017 0.0078508 -0.010682 0.0015874 0.012323
0.007681 0.0018759 0.0016236 0.013479
-0.0080156 0.012768 0.0078244 -0.010713 -0.26599 0.20828 0.0073824 0.0039523
-0.0024043 0.007692 0.0012563 0.012142
-0.0048294 0.011818 0.0016408 0.012392 0.0074158 0.0039583 -0.33422 0.036982
-0.020448 -0.0063379 0.0166 0.027251
0.012695 0.0046272 0.0076075 0.0019508 -0.0024616 0.0077471 -0.020309 -0.0063127
-0.21719 -0.20923 -0.027014 0.0056804
-0.0045692 0.0085877 0.0017566 0.013607 0.0010084 0.012336 0.016568 0.027137
-0.02708 0.0058826 -0.2556 -0.1634
560000000 -0.31691 0.11951 -0.023823 -0.062765 -0.00032787 0.012033 0.0050401 0.011268
0.010202 0.0049467 0.011234 0.0082665
-0.023748 -0.06273 -0.37751 0.10676 -0.041037 -0.037431 0.014011 0.0042147
-0.012312 -0.0046795 0.0024589 -0.00019989
-0.00031465 0.011985 -0.041149 -0.037378 -0.18406 0.2568 -0.00024443 -0.003967
0.019395 0.0058603 0.0070226 -0.0058084
0.0050897 0.011353 0.014063 0.004087 -0.00024247 -0.003965 -0.30957 0.12992
0.0039406 -0.022991 0.0049979 -0.021951
0.010358 0.0051154 -0.012356 -0.0048303 0.019552 0.0059611 0.0041815 -0.022946
-0.28915 -0.03217 0.011029 -0.050332
0.01098 0.0080499 0.0021478 -0.00026057 0.0070255 -0.0059479 0.0048765 -0.021786
0.010643 -0.050246 -0.32913 -0.0071915
620000000 -0.27611 0.10433 -0.023273 0.0080181 0.0033498 0.0081971 0.0083873 -0.0049521
0.011249 0.00018453 0.0013362 -0.00226
-0.023284 0.0080244 -0.40293 0.058051 -0.01842 5.3733e-05 -0.0010347 -0.0020882
0.011501 -0.0059145 0.0018249 -0.0028667
0.0033934 0.0081877 -0.018441 0.0001249 -0.1544 0.26599 -0.00096602 -0.0052224
-0.0024946 -0.0025665 0.0085985 -0.0035703
0.0083876 -0.0047776 -0.001066 -0.0021198 -0.00094892 -0.0052258 -0.26994 0.1414
-0.038944 -0.019428 0.013215 0.028497
0.011157 2.6387e-05 0.011654 -0.0059091 -0.0024465 -0.0024875 -0.038956 -0.019584
-0.20748 -0.070529 -0.04407 0.015545
0.0011497 -0.0024434 0.0018181 -0.003026 0.0084599 -0.0035103 0.012652 0.028295
-0.043699 0.015482 -0.24555 -0.049093
680000000 -0.23592 0.19072 -0.027243 -0.014304 0.004791 0.0051754 0.0022344 -0.0070334
-0.0027193 -0.011054 0.0061081 -0.0072376
-0.027214 -0.014306 -0.38821 0.15645 -0.032491 -0.0016764 -0.0014441 -0.00052959
-0.0017456 -0.0091172 -0.00077587 -0.0017584
0.0047992 0.0051788 -0.032516 -0.0016051 -0.10246 0.28574 -0.00061617 -0.00050876
-0.001557 0.00023695 -0.0023366 -0.0093419
0.0022304 -0.006985 -0.0014586 -0.00048919 -0.00061597 -0.00050498 -0.22345 0.19434
-0.024206 -0.0068106 -0.010094 -0.012684
-0.0029375 -0.01123 -0.0017704 -0.0091609 -0.0015401 0.00023994 -0.024265 -0.006801
-0.26125 0.030293 -0.0049013 -0.0081707
0.0060554 -0.0070828 -0.00092395 -0.0018605 -0.0025385 -0.009427 -0.010065 -0.012405
-0.0044812 -0.0084586 -0.26474 0.062592
740000000 -0.19153 0.18519 -0.038654 0.02675 0.012617 -0.0050497 -8.5953e-06 -0.0043555
-0.0033793 -0.0027101 -0.0064204 0.0022001
-0.038638 0.026717 -0.33541 0.17541 -0.03548 0.034912 -0.00075196 -0.0066001
-0.011148 0.0074694 -0.0022884 -0.0068903
0.012581 -0.005111 -0.035366 0.035084 -0.068672 0.28424 -0.0023468 0.002791
-0.0023838 -0.0049775 -0.0017708 -0.00032697
-5.7274e-05 -0.004321 -0.00071438 -0.0066353 -0.0023469 0.0027818 -0.20691 0.20211
-0.044099 -0.0070447 0.024258 0.016352
-0.0035017 -0.0026603 -0.01103 0.0076491 -0.0023545 -0.0049889 -0.044175 -0.0066366
-0.159 0.058176 -0.046068 -0.00062884
-0.0063447 0.0023093 -0.0018658 -0.0074502 -0.001468 -3.652e-05 0.02446 0.015917
-0.045978 -0.00083249 -0.2559 0.066645
800000000 -0.15876 0.22632 -0.022403 0.016699 0.0052788 -0.010599 -0.0043823 -0.002171
-0.0036353 0.0019638 0.0049611 9.4749e-05
-0.022394 0.016675 -0.33856 0.2457 -0.0079356 0.033756 -0.0023989 0.0022539
-0.00062388 0.0026808 0.0010627 0.0052823
0.0052588 -0.010619 -0.0078407 0.033815 -0.028134 0.30715 0.00087683 0.0016448
0.00011648 0.0035059 -0.0016524 0.00075673
-0.0043842 -0.0021843 -0.0023919 0.0022431 0.00087535 0.0016501 -0.17747 0.23091
-0.028546 0.014515 0.0153 -0.01064
-0.0036516 0.0021705 -0.00069385 0.0027601 9.6192e-05 0.0035359 -0.028498 0.014662
-0.20935 0.081759 -0.017706 0.019648
0.0048627 8.9756e-06 0.0010028 0.0052486 -0.0016786 0.00069925 0.015184 -0.01094
-0.017681 0.019387 -0.25436 0.12046
860000000 -0.12382 0.24664 -0.017614 0.030503 -0.0032748 -0.0098657 -0.0022753 0.00076618
0.0038657 0.004469 -0.0038293 -0.003254
-0.01762 0.030463 -0.29097 0.28742 0.0076866 0.034025 -0.00013767 0.0021382
0.0038398 0.00018675 0.0031381 0.00046948
-0.0032898 -0.0098743 0.0078075 0.034027 0.019821 0.31495 -0.00057955 2.8825e-05
0.002764 -0.0012862 0.001253 0.0041672
-0.0022796 0.00074749 -0.00015038 0.0021253 -0.00058041 2.5503e-05 -0.13992 0.24166
-0.017594 0.01883 -0.0068257 -0.0092669
0.003862 0.0044224 0.0038419 0.00019941 0.0027389 -0.0013065 -0.017636 0.018903
-0.15701 0.13465 -0.027832 0.015091
-0.0039857 -0.0032392 0.0028154 0.00039084 0.0012215 0.0041476 -0.0069595 -0.0091419
-0.027785 0.015362 -0.20206 0.16942
920000000 -0.099823 0.2698 0.0049256 0.037743 -0.0092925 -0.0044413 -0.0018141 0.0017274
0.00097936 0.0018699 0.0029866 -0.0015454
0.0049021 0.037729 -0.2622 0.30873 0.027856 0.021882 0.0013508 0.0011806
0.0072276 -9.011e-05 0.0041755 -0.0026366
-0.009309 -0.0044201 0.027958 0.021814 0.065849 0.31552 0.0019608 7.5439e-05
0.0011556 -0.00016377 0.00080557 -0.0010633
-0.001823 0.0017345 0.0013617 0.001179 0.0019535 6.4703e-05 -0.11566 0.25838
-0.01067 0.031465 0.0047144 -0.007176
0.0009355 0.0018375 0.0072163 -0.0001223 0.0011805 -0.00016912 -0.010727 0.031504
-0.14809 0.14042 -0.0028658 0.028149
0.0028623 -0.0015903 0.00405 -0.0026043 0.00081262 -0.0010418 0.004671 -0.0071716
-0.0029168 0.028239 -0.2165 0.18328
980000000 -0.05218 0.28919 0.017318 0.029949 -0.0089837 0.0045046 0.0019018 0.0034424
0.0038593 -0.0012542 -0.0034176 -0.0023484
0.017298 0.029949 -0.20919 0.34289 0.032803 0.005046 0.0020846 3.2983e-05
0.0016493 -0.0057492 -0.00027988 -0.0024315
-0.0089592 0.0045372 0.03284 0.0049436 0.11191 0.30901 0.00065351 -0.0011748
0.00041978 -0.0021039 0.0014118 -0.00012978
0.0019034 0.0034489 0.0020532 2.2787e-05 0.00065476 -0.0011789 -0.076709 0.26907
0.0082332 0.03075 -0.0094173 -0.0079613
0.0038468 -0.0012588 0.0016374 -0.00584 0.00042645 -0.0021565 0.0082604 0.030763
-0.11725 0.17089 0.004434 0.020152
-0.0034217 -0.0022743 -0.0002526 -0.002379 0.0014433 -0.00010318 -0.0093516 -0.0078614
0.0045042 0.020068 -0.17439 0.23374
1040000000 -0.010239 0.29767 0.032982 0.018339 -0.0012615 0.0068723 0.0023567 0.00069753
0.00021186 -0.0036753 -0.00021875 -0.001413
0.03297 0.018348 -0.17368 0.35581 0.029317 -0.014583 0.0015363 -0.0016971
-0.0022814 -0.0025055 -0.0011902 -0.0027467
-0.0012312 0.0068713 0.029267 -0.014691 0.15767 0.29533 -0.0004875 -0.0016465
-0.001609 -0.001027 -0.00051899 -0.0011336
0.0023833 0.00070373 0.0015299 -0.0016862 -0.00048726 -0.0016519 -0.049517 0.27913
0.019994 0.018558 -0.0020977 0.0011645
0.00019387 -0.003686 -0.0022984 -0.0024626 -0.0016133 -0.00099364 0.020061 0.018572
-0.084764 0.17836 0.013309 0.019803
-9.1915e-05 -0.0014637 -0.0012164 -0.0026356 -0.00052737 -0.0011282 -0.001977 0.0010447
0.013292 0.019685 -0.15602 0.25522
1100000000 0.035087 0.30568 0.035587 -0.0040142 0.0027773 0.0038254 0.0021982 -0.0011146
-0.0020452 -0.0031534 -0.0039989 -4.7192e-06
0.035553 -0.0039853 -0.13036 0.3729 0.015192 -0.027556 -4.9051e-05 -0.0017813
-0.0033186 -0.0010488 -0.0035766 -0.00065079
0.0028075 0.0038174 0.015102 -0.027641 0.20377 0.27528 -0.0019694 0.00011002
-0.0018607 0.00037663 -0.0011881 -0.00031281
0.0022077 -0.0011379 -5.0068e-05 -0.0017748 -0.0019741 0.00010125 -0.0090537 0.28381
0.025628 0.005406 -0.0027939 -0.00051676
-0.0020299 -0.0031641 -0.0032995 -0.0010493 -0.0018559 0.0003723 0.02566 0.0053609
-0.067492 0.19244 0.019337 0.0095748
-0.0039666 -1.6226e-05 -0.0035707 -0.00064328 -0.0011892 -0.00032938 -0.0028076 -0.00057326
0.019267 0.0095594 -0.11016 0.29004
1160000000 0.086447 0.30068 0.023833 -0.020398 0.0026753 -0.000509 -0.00035759 -0.0022637
-0.0041813 -0.00090825 -0.0010814 0.0041696
0.023846 -0.020352 -0.087029 0.37695 -0.0034075 -0.028966 -0.0016007 -0.0017624
-0.0029268 0.0023277 -0.0014184 0.0019184
0.0026845 -0.00051458 -0.0035606 -0.028965 0.24674 0.24476 -0.00088135 0.0018175
-0.00076546 0.0020127 -0.0009137 0.00024858
-0.00036479 -0.0022597 -0.0016223 -0.0017559 -0.00087955 0.0018196 0.030194 0.2807
0.02239 -0.010799 -0.0036434 0.0051273
-0.0041931 -0.00087248 -0.0029488 0.0023383 -0.00081543 0.0020034 0.022382 -0.010833
-0.033754 0.20178 0.018765 0.0018214
-0.0010386 0.0041949 -0.0014352 0.0018957 -0.00090953 0.00026097 -0.0036365 0.0051505
0.018605 0.0017468 -0.062975 0.2939
1220000000 0.13075 0.28963 0.010541 -0.029668 -0.0016031 -0.00080484 0.00012038 -0.00075197
-0.0027234 0.002342 0.0012378 0.0021098
0.010554 -0.029635 -0.042889 0.3892 -0.016604 -0.021141 -0.0025214 0.00034533
-0.0001935 0.0030654 -0.00087558 0.0019261
-0.0016041 -0.00079428 -0.016721 -0.021087 0.286 0.20621 0.00074027 0.001804
0.00057684 0.0013844 0.0003699 0.00066985
0.00011711 -0.00076831 -0.0025359 0.00035279 0.00073672 0.0018061 0.069963 0.27209
0.011546 -0.017825 0.0017525 0.0013355
-0.0027325 0.0023744 -0.00017466 0.003071 0.00057881 0.0013904 0.011526 -0.017868
-0.012446 0.21119 0.015407 -0.011977
0.0012335 0.0020624 -0.00085862 0.0019154 0.00036982 0.00064552 0.001757 0.0013725
0.015401 -0.012053 -0.03286 0.31491
1280000000 0.18036 0.26764 -0.0075628 -0.028229 -0.0018171 0.0024372 -0.00075412 -0.0019909
-0.00088644 0.0030941 0.002488 0.0013145
-0.0075483 -0.028203 0.0027966 0.38042 -0.023471 -0.0087142 -0.0011059 0.0013963
0.0015439 0.0019887 0.00061454 0.0022362
-0.0018062 0.0024452 -0.023532 -0.0086064 0.31691 0.16252 0.0017562 0.00019722
0.0012216 0.00040734 0.0004916 0.00030147
-0.00075807 -0.0019825 -0.0010899 0.0014124 0.001762 0.00020668 0.10671 0.2552
0.0018736 -0.020391 -0.00054487 0.0002487
-0.00087845 0.0030938 0.0015483 0.0019957 0.0012462 0.00040347 0.0018361 -0.020395
0.023963 0.21538 0.004008 -0.014831
0.0024634 0.001298 0.00065956 0.0022489 0.00048085 0.00031813 -0.00055129 0.00024427
0.0039733 -0.014709 0.016387 0.32038
1340000000 0.2172 0.2341 -0.017196 -0.018974 0.00087493 0.0044583 -0.0015654 -0.00090839
0.0013714 0.0027351 0.0018352 -0.0013217
-0.017173 -0.018969 0.04217 0.37263 -0.021571 0.0039262 -0.00025936 0.0020351
0.0019553 0.0010132 0.0013986 0.00081622
0.0009 0.0044469 -0.021572 0.0040402 0.33919 0.11472 0.0013925 -0.00086348
0.00080823 -0.00051579 0.00023322 0.00032286
-0.0015614 -0.00091534 -0.00025017 0.0020491 0.0013956 -0.00086167 0.13848 0.23462
-0.0082285 -0.018008 0.00077009 0.0007539
0.001402 0.0027357 0.0019553 0.0010201 0.00081894 -0.00050355 -0.0082487 -0.018003
0.052763 0.2113 -0.0023035 -0.013897
0.0018731 -0.0013244 0.0014033 0.0008034 0.00023223 0.00029605 0.00075037 0.000735
-0.0024028 -0.013821 0.05443 0.31849
1400000000 0.25009 0.19614 -0.023011 -0.0076898 0.0050938 0.0030637 -0.0020579 0.00042726
0.0023183 0.00092139 0.00051834 -0.0013485
-0.02299 -0.0076956 0.079546 0.3599 -0.014932 0.01211 0.0013422 0.0015109
0.0013139 -0.00068347 0.0013823 0.00030123
0.0051102 0.0030348 -0.014896 0.0122 0.35272 0.060852 0.00030267 -0.0018181
3.7408e-05 -0.00049721 0.00042115 0.00020741
-0.0020546 0.00043193 0.0013681 0.0015055 0.000312 -0.0018074 0.16724 0.20569
-0.01474 -0.011432 -0.0010832 -0.00030699
0.0023453 0.00090426 0.0013141 -0.0006885 3.5224e-05 -0.00050223 -0.014783 -0.011396
0.085164 0.20822 -0.0089526 -0.0094911
0.00048473 -0.0013371 0.001364 0.00027387 0.00042139 0.00020304 -0.0010712 -0.00029587
-0.0089715 -0.0095186 0.1018 0.31002
1460000000 0.27294 0.15249 -0.020276 0.0043191 0.0055139 -0.0018122 -0.0017104 0.0016752
0.002123 -0.00038055 -0.00029053 -0.0010882
-0.02026 0.0043038 0.11397 0.3383 -0.0064076 0.015089 0.0018924 0.0002347
0.0010455 -0.0014431 0.0012324 -0.00070034
0.0055105 -0.0018345 -0.006346 0.015145 0.35875 0.0062473 -0.0012805 -0.0015338
0.00017924 -0.00035528 0.00060521 -0.00043634
-0.0016968 0.0016707 0.0018681 0.00023897 -0.001294 -0.0015436 0.19239 0.17691
-0.016942 -0.0045098 -0.00094876 0.0024601
0.0021187 -0.00039014 0.00104 -0.0014421 0.00018594 -0.00037163 -0.016956 -0.0044665
0.11358 0.19436 -0.01134 -0.0035908
-0.00028777 -0.0010709 0.0012334 -0.00070862 0.00060139 -0.00041683 -0.0009925 0.0024606
-0.011299 -0.003555 0.13601 0.29063
1520000000 0.28529 0.11088 -0.014839 0.0098664 0.0032826 -0.0041207 -1.6345e-05 0.0026821
0.0022654 -0.0015946 -0.0011482 -0.00027346
-0.014838 0.0098456 0.14784 0.32361 0.0012935 0.013121 0.0018295 -0.0008565
0.00011314 -0.001229 0.00039846 -0.0010579
0.0032586 -0.0041261 0.0013643 0.013113 0.35189 -0.050163 -0.0013642 -0.00048773
0.00061411 -0.00085359 7.2546e-05 -0.00014497
1.1916e-05 0.0026804 0.0018337 -0.00086601 -0.0013637 -0.00049023 0.21467 0.14008
-0.016964 0.0019533 0.0015403 0.0023241
0.0022465 -0.0016066 9.3175e-05 -0.0012365 0.00060199 -0.00087743 -0.016985 0.0020075
0.1409 0.18162 -0.011947 0.00056214
-0.0011364 -0.00026105 0.00039379 -0.0010524 5.9536e-05 -0.00012373 0.0015802 0.0023153
-0.011874 0.00059371 0.17147 0.27304
1580000000 0.29483 0.06474 -0.0083831 0.013121 -0.00093219 -0.0048353 0.0014028 0.0020923
-9.2005e-05 -0.0021227 -0.0004356 0.00044597
-0.0083858 0.013109 0.17541 0.29878 0.0049866 0.008436 0.00050284 -0.001797
-0.00067167 -0.0012093 -0.00023973 -0.00080538
-0.00094684 -0.0048341 0.0050386 0.008416 0.33135 -0.10788 -0.0018715 0.00080633
-0.0003171 -0.0011347 6.2672e-05 -0.00050324
0.001415 0.0020822 0.00049624 -0.001801 -0.0018585 0.00080116 0.22801 0.10243
-0.013649 0.0079602 0.0025137 0.0010877
-0.00010417 -0.0021297 -0.0006814 -0.0012213 -0.00031629 -0.0011441 -0.013636 0.0080167
0.16529 0.16504 -0.0097168 0.006806
-0.00043285 0.00043098 -0.0002661 -0.00081111 7.9328e-05 -0.0005045 0.0025687 0.0010999
-0.0096636 0.0067677 0.20637 0.24681
1640000000 0.29723 0.023378 -0.0017264 0.012301 -0.0026734 -0.0025807 0.0028708 0.0011052
-0.00050886 -0.0016715 -0.00031757 0.00065404
-0.0017402 0.012293 0.2052 0.27362 0.0058749 0.0036969 -0.00077449 -0.0018829
-0.0011864 -0.00041345 -0.00047667 -0.0007711
-0.0026904 -0.0025555 0.0059044 0.0036593 0.30296 -0.15707 -0.00064428 0.0017364
-0.0010514 -0.0012235 -0.00012786 -0.00035271
0.0028823 0.0010783 -0.00077894 -0.0018834 -0.00063317 0.0017421 0.24047 0.05561
-0.0090264 0.010328 0.0028194 -0.00084889
-0.00052372 -0.0016519 -0.0011968 -0.00040793 -0.0010452 -0.0012151 -0.0090165 0.010371
0.18753 0.14205 -0.0051206 0.0089766
-0.00030427 0.00062811 -0.00049269 -0.00075758 -0.00013285 -0.00033843 0.002821 -0.00086576
-0.005128 0.008972 0.23326 0.21655
1700000000 0.28987 -0.022295 0.0017769 0.0096428 -0.0034524 8.5941e-05 0.0031625 -0.0013254
-0.0020905 -0.00096753 0.00070499 0.00045516
0.0017595 0.0096373 0.22345 0.24174 0.0039817 0.00076083 -0.001631 -0.00059908
-0.00088959 0.00018858 -0.00095347 -0.00050471
-0.0034364 9.6081e-05 0.0039906 0.00073691 0.25929 -0.19698 0.0007437 0.0017363
-0.0020193 -0.00025849 -0.00043564 -0.00077227
0.0031534 -0.0013492 -0.0016372 -0.00059955 0.0007397 0.0017257 0.23855 0.0078634
-0.0053616 0.011743 0.0017398 -0.0023283
-0.0020948 -0.00094572 -0.00089345 0.00018901 -0.0020137 -0.00026225 -0.0053429 0.011777
0.20518 0.12289 -0.00048302 0.0097274
0.00072044 0.00044798 -0.00094746 -0.00048325 -0.00042243 -0.00078196 0.0017419 -0.0023507
-0.00049694 0.009686 0.2517 0.18228
1760000000 0.27756 -0.071023 0.0042259 0.0064943 -0.0022351 0.00099526 0.0012651 -0.003547
-0.0015722 0.00057158 0.00053258 -0.00066074
0.0042167 0.0064932 0.24933 0.20153 0.0017259 -0.0010489 -0.0012851 0.00030116
-0.00095607 0.0010821 -0.00059035 0.00040842
-0.0022302 0.001008 0.0017302 -0.0010493 0.2099 -0.23002 0.0014515 0.0010038
-0.0012416 0.0015354 -0.0013065 -0.00059331
0.0012428 -0.0035557 -0.0012784 0.0003168 0.0014392 0.00099058 0.23156 -0.04206
-0.0007243 0.011083 -6.8917e-05 -0.0027556
-0.0015713 0.00059059 -0.0009653 0.0010897 -0.0012474 0.0015444 -0.0006933 0.011096
0.22028 0.089194 0.003723 0.0073105
0.0005248 -0.00064862 -0.0005941 0.00043158 -0.001306 -0.00057057 -3.193e-05 -0.0027711
0.0037429 0.0072953 0.26565 0.14474
1820000000 0.25267 -0.10833 0.0045709 0.002892 -9.3125e-05 0.0024338 -0.0011216 -0.0031565
-0.0013741 0.00096854 2.0004e-05 -0.00013336
0.0045739 0.0028868 0.2592 0.17113 -0.00015767 -6.782e-05 -0.0012568 0.0010739
0.00017035 0.0013574 -0.00061167 0.00057787
-7.7639e-05 0.0024354 -0.00014749 -6.6655e-05 0.1602 -0.24511 0.0014944 8.4611e-05
-0.00022899 0.002508 -0.0014178 0.00028852
-0.0011465 -0.0031568 -0.0012523 0.0010938 0.0015026 9.671e-05 0.20431 -0.08899
0.0018838 0.0089869 -0.0017261 -0.0017446
-0.0013491 0.00097484 0.00018346 0.0013608 -0.00022577 0.00251 0.0019207 0.0089845
0.2382 0.061268 0.0047094 0.0038412
-1.1664e-05 -0.00011506 -0.0006149 0.00056495 -0.0014352 0.00030951 -0.0016822 -0.0017457
0.0047219 0.0038345 0.26944 0.10945
1880000000 0.21729 -0.14873 0.0024774 0.00047795 -0.00033458 0.0019944 -0.0030317 -0.0021617
-0.00024688 0.0019439 0.00022318 -0.00070953
0.0024769 0.0004877 0.26321 0.12433 -0.0022163 0.001639 -7.1773e-05 0.001656
0.00068683 0.0010585 0.00014027 0.00095657
-0.0003051 0.0020115 -0.0022073 0.0016624 0.10792 -0.25452 0.0015109 -0.0009644
0.0016257 0.0020679 -0.0010709 0.0014297
-0.0030393 -0.0021514 -5.2451e-05 0.0016578 0.0015236 -0.00096584 0.16632 -0.13019
0.0033827 0.0061887 -0.0024318 0.00036938
-0.00023444 0.0019299 0.00068379 0.0010464 0.0016244 0.0020585 0.0034026 0.006196
0.24204 0.029698 0.0051895 0.0018035
0.00015696 -0.00070624 0.00015295 0.0009572 -0.0010309 0.0014475 -0.0024272 0.00038534
0.005187 0.0017915 0.27039 0.074944
1940000000 0.17763 -0.17431 0.00024822 -0.0013087 0.0012193 0.0019403 -0.0035738 0.00062814
0.0014855 0.0012085 -0.00089722 -0.00054015
0.00024814 -0.0013111 0.26335 0.09251 -0.0011003 0.0037949 0.0010723 0.001232
0.0017579 0.00027658 0.00082013 0.00027206
0.0012465 0.0019467 -0.001081 0.003805 0.062262 -0.24793 0.00025031 -0.001815
0.0025162 0.00039119 0.0003085 0.0017134
-0.0035636 0.00064253 0.0010706 0.0012193 0.00024085 -0.0018273 0.11544 -0.16281
0.0026856 0.0037249 -0.0015718 0.0013954
0.0015017 0.0011744 0.0017556 0.00025305 0.0025268 0.00038239 0.0026907 0.0037058
0.24521 -0.0088674 0.0041102 -0.0020088
-0.00089455 -0.00052936 0.00082948 0.00026111 0.0003369 0.001667 -0.0015755 0.0014241
0.0040628 -0.0019962 0.26071 0.03982
2000000000 0.13099 -0.1887 -0.0036815 0.00066065 0.002372 0.0017836 -0.0023971 0.003319
0.0012414 4.9636e-05 -0.0007477 0.00042633
-0.0036667 0.00065405 0.24875 0.057053 -0.00099463 0.0056358 0.0014938 0.00035365
0.0010682 -0.0013946 0.00045681 4.6311e-05
0.0023805 0.0017472 -0.00095518 0.0056253 0.018824 -0.23351 -0.0011903 -0.0011506
0.0020209 -0.0013825 0.0016447 0.0012511
-0.0023441 0.0033224 0.001501 0.00033208 -0.0011904 -0.0011645 0.061876 -0.17512
0.0007343 0.0024954 -9.8377e-05 0.0021849
0.0012354 6.8883e-05 0.0010542 -0.0013965 0.0020195 -0.0013821 0.00074216 0.0025002
0.24037 -0.042969 0.00089193 -0.0028858
