!Keysight Technologies,M9804A,MY58100912,A.14.10.03
!Date: Thursday, April 27, 2023 10:28:33
!Correction: S11(C  6-Port  ) 
!S12(C  6-Port  ) 
!S13(C  6-Port  ) 
!S14(C  6-Port  ) 
!S15(C  6-Port  ) 
!S16(C  6-Port  ) 
!S21(C  6-Port  ) 
!S22(C  6-Port  ) 
!S23(C  6-Port  ) 
!S24(C  6-Port  ) 
!S25(C  6-Port  ) 
!S26(C  6-Port  ) 
!S31(C  6-Port  ) 
!S32(C  6-Port  ) 
!S33(C  6-Port  ) 
!S34(C  6-Port  ) 
!S35(C  6-Port  ) 
!S36(C  6-Port  ) 
!S41(C  6-Port  ) 
!S42(C  6-Port  ) 
!S43(C  6-Port  ) 
!S44(C  6-Port  ) 
!S45(C  6-Port  ) 
!S46(C  6-Port  ) 
!S51(C  6-Port  ) 
!S52(C  6-Port  ) 
!S53(C  6-Port  ) 
!S54(C  6-Port  ) 
!S55(C  6-Port  ) 
!S56(C  6-Port  ) 
!S61(C  6-Port  ) 
!S62(C  6-Port  ) 
!S63(C  6-Port  ) 
!S64(C  6-Port  ) 
!S65(C  6-Port  ) 
!S66(C  6-Port  ) 
!S6P File: Measurement: :
# Hz S  RI   R 50
500000000 -0.33802 -0.043017 -0.010437 -0.0028318 -0.0080233 0.012933 -0.0049214 0.011748
0.011625 0.0045476 -0.0058122 0.0084149
-0.010428 -0.0025354 -0.41864 -0.054877 0.0080217 -0.011267 0.0021171 0.012771
0.0064221 0.0019895 0.0017082 0.014247
-0.0083659 0.013272 0.0078643 -0.011257 -0.26632 0.20717 0.0075113 0.0035538
-0.0023495 0.0084231 0.0013426 0.012507
-0.0049652 0.011766 0.0020162 0.012662 0.0074812 0.0035661 -0.33232 0.036586
-0.021726 -0.0056167 0.019212 0.027812
0.011972 0.0039112 0.0062038 0.0020737 -0.0022201 0.0089275 -0.021437 -0.0055276
-0.21638 -0.21191 -0.028463 0.0051718
-0.0057468 0.008375 0.001231 0.014308 0.0011098 0.012542 0.018838 0.02837
-0.029364 0.0059161 -0.25024 -0.17084
560000000 -0.31801 0.12093 -0.02367 -0.063926 0.00045645 0.013088 0.0058561 0.011658
0.011029 0.004459 0.011692 0.0080474
-0.023538 -0.064049 -0.37556 0.10518 -0.041238 -0.037585 0.01503 0.0032559
-0.013661 -0.004817 0.0034275 -0.0022464
0.00039894 0.013291 -0.041275 -0.037657 -0.18412 0.25694 1.261e-05 -0.0041272
0.019334 0.0052616 0.007183 -0.0057446
0.0059842 0.011744 0.015198 0.0032079 1.8908e-05 -0.0042527 -0.30943 0.12873
0.0047994 -0.023399 0.0052437 -0.022486
0.011496 0.0046749 -0.01352 -0.0049402 0.019466 0.0055219 0.004132 -0.023648
-0.28894 -0.03483 0.010716 -0.051399
0.011767 0.0074036 0.0037348 -0.0018675 0.0068602 -0.0058083 0.0052853 -0.022333
0.010199 -0.050646 -0.32957 -0.01332
620000000 -0.27625 0.10226 -0.023077 0.0085946 0.0030595 0.0092855 0.0073207 -0.0050372
0.011236 0.00087168 0.0020754 -0.0011405
-0.022979 0.0086724 -0.40288 0.057217 -0.01829 9.5151e-05 -0.0009746 -0.0018919
0.011403 -0.0053649 0.001275 -0.0025327
0.0030597 0.0094765 -0.018422 0.00010447 -0.15419 0.2661 -0.0006609 -0.0052813
-0.0032359 -0.002414 0.008493 -0.0031101
0.007198 -0.0045746 -0.0010848 -0.0018973 -0.00080516 -0.0052072 -0.27029 0.14015
-0.039618 -0.019131 0.012313 0.027425
0.011636 0.00064205 0.010976 -0.0056893 -0.0034054 -0.0027124 -0.039473 -0.019558
-0.20607 -0.07259 -0.044553 0.017823
0.0014848 -0.0015322 0.00090238 -0.0026803 0.0087465 -0.0029987 0.012112 0.027653
-0.044994 0.016731 -0.2456 -0.05716
680000000 -0.23686 0.19154 -0.027167 -0.013944 0.0055212 0.0054967 0.0023672 -0.0073644
-0.0030271 -0.011722 0.0067018 -0.0068474
-0.027174 -0.013885 -0.38879 0.1561 -0.032929 -0.0014784 -0.0012618 -0.00034909
-0.0016418 -0.0092643 -0.00092434 -0.0019163
0.0054134 0.005397 -0.032953 -0.0014382 -0.10275 0.28547 -0.00067926 -0.00048652
-0.0017559 0.00044486 -0.0026145 -0.0096189
0.0026392 -0.007628 -0.0014045 -0.00036208 -0.00072009 -0.00040852 -0.22399 0.19295
-0.023741 -0.0062834 -0.010182 -0.012852
-0.0030713 -0.011445 -0.0016855 -0.0092065 -0.0016751 0.00053091 -0.024323 -0.0063622
-0.26101 0.029168 -0.0052639 -0.0076179
0.0062909 -0.007309 -0.0010101 -0.0019062 -0.0028224 -0.009593 -0.0099126 -0.012753
-0.0045326 -0.0082292 -0.26385 0.054766
740000000 -0.19211 0.18521 -0.039415 0.026444 0.013145 -0.0047548 -0.00064576 -0.0047807
-0.0048004 -0.0021075 -0.0069363 0.0033358
-0.039322 0.026458 -0.33469 0.17478 -0.035912 0.035548 -0.00045302 -0.0061867
-0.012621 0.007083 -0.0019568 -0.0062118
0.012969 -0.0048087 -0.035889 0.035745 -0.069465 0.28386 -0.0022611 0.0030149
-0.0021363 -0.0051474 -0.0019679 2.9901e-05
-0.00074889 -0.004722 -0.00040681 -0.0061904 -0.0022788 0.0030506 -0.2072 0.20096
-0.044907 -0.0060561 0.024623 0.01616
-0.0045966 -0.0017445 -0.012554 0.0070347 -0.0021818 -0.005412 -0.04503 -0.0058577
-0.15781 0.055571 -0.046984 -0.0007572
-0.0065684 0.0028762 -0.0022508 -0.0067973 -0.0018391 0.0004696 0.024925 0.016338
-0.046896 0.00040815 -0.25704 0.058681
800000000 -0.1592 0.22699 -0.022365 0.017027 0.0055717 -0.01055 -0.0046357 -0.00182
-0.0040865 0.0022863 0.004229 0.000176
-0.022336 0.017003 -0.33925 0.24508 -0.0079934 0.034235 -0.0023479 0.0020654
-0.00078537 0.00305 0.00083959 0.0054723
0.0055452 -0.010552 -0.0078967 0.034319 -0.028767 0.30692 0.00087268 0.0014834
-1.2502e-05 0.0035546 -0.0015425 0.00051993
-0.004764 -0.001731 -0.0023883 0.0020836 0.00087632 0.0014755 -0.1782 0.23025
-0.028964 0.014832 0.015141 -0.010894
-0.0036916 0.0023922 -0.00076679 0.0030616 2.4121e-05 0.0036836 -0.029011 0.014835
-0.20931 0.080773 -0.018544 0.020107
0.0040728 -2.1411e-05 0.0009013 0.0052118 -0.0017077 0.00047048 0.014998 -0.010933
-0.018152 0.019942 -0.25855 0.11327
860000000 -0.12424 0.24636 -0.017455 0.030792 -0.0031426 -0.0099502 -0.0022995 0.00056142
0.0039318 0.0044549 -0.0042836 -0.0029834
-0.017462 0.030741 -0.29113 0.28704 0.0081604 0.034531 0.00017053 0.0021845
0.0045329 0.00030312 0.0031457 0.0011509
-0.0032111 -0.0099969 0.0082541 0.034546 0.019309 0.31536 -0.00074282 -5.8106e-05
0.0027891 -0.0014679 0.0015726 0.0044671
-0.0022226 0.00044441 0.00017818 0.0021234 -0.00072185 -1.9151e-05 -0.14071 0.24081
-0.018027 0.019177 -0.0069359 -0.0093945
0.0036854 0.0048262 0.0042519 0.00024819 0.0027813 -0.0013956 -0.018052 0.019191
-0.15766 0.13348 -0.028072 0.017259
-0.0044247 -0.0033565 0.0031661 0.00080604 0.0014958 0.004571 -0.0069773 -0.0096356
-0.027432 0.016574 -0.20718 0.16432
920000000 -0.099875 0.26957 0.0050931 0.038194 -0.0096719 -0.0045646 -0.0016164 0.0018072
0.00095251 0.0020198 0.0026155 -0.0016692
0.0050646 0.038105 -0.26321 0.30859 0.028165 0.02211 0.0013252 0.0011421
0.0069045 4.2537e-05 0.0039236 -0.0030083
-0.0096392 -0.004601 0.028311 0.022029 0.065302 0.31613 0.0019923 1.7404e-05
0.0011981 -0.00011402 0.00056681 -0.0014548
-0.0015564 0.001858 0.0014035 0.001207 0.0019446 3.0362e-05 -0.11662 0.25918
-0.010504 0.031864 0.0048293 -0.0069683
0.0013685 0.0018914 0.0070061 -0.00011876 0.0012377 -0.00022327 -0.010448 0.031836
-0.14792 0.14071 -0.0029393 0.028523
0.0026479 -0.0018204 0.0042227 -0.0030103 0.00085477 -0.0015071 0.0049763 -0.0068692
-0.0026004 0.02807 -0.22129 0.17874
980000000 -0.052323 0.28869 0.017402 0.030226 -0.0092644 0.0045152 0.0020258 0.0031691
0.003856 -0.0014788 -0.0030985 -0.0021366
0.017421 0.030227 -0.21005 0.34294 0.033411 0.0048785 0.0020895 -0.00011437
0.0017009 -0.0058385 -9.6063e-05 -0.0024083
-0.0092761 0.0045641 0.033463 0.0047641 0.11178 0.30983 0.00058993 -0.0012947
0.00027051 -0.0021417 0.0013093 -0.00018169
0.0019743 0.0031259 0.0020893 -8.3365e-05 0.00060576 -0.0012901 -0.07744 0.2693
0.0087121 0.031528 -0.010028 -0.0083386
0.0038987 -0.0014439 0.0016963 -0.0058225 0.00032145 -0.0022239 0.0088668 0.031564
-0.11858 0.17027 0.0045467 0.020602
-0.0032683 -0.0021866 -7.8649e-05 -0.00251 0.0013821 -0.00016556 -0.0099582 -0.0084025
0.0045815 0.020577 -0.18056 0.22987
1040000000 -0.010658 0.29767 0.033317 0.018198 -0.0013278 0.0070646 0.0024286 0.00071706
0.00021073 -0.003527 -0.00013751 -0.001503
0.033259 0.018215 -0.17458 0.35594 0.029719 -0.015048 0.0014104 -0.0019445
-0.002431 -0.0026905 -0.001374 -0.0028276
-0.0013136 0.0070709 0.029703 -0.015154 0.15804 0.29619 -0.00056306 -0.0017163
-0.0016313 -0.00095175 -0.00057479 -0.0012218
0.0024139 0.00070027 0.0014356 -0.0018823 -0.0005653 -0.0017267 -0.0501 0.27993
0.020997 0.019011 -0.0019628 0.00096714
0.00027729 -0.0036321 -0.002263 -0.002577 -0.0016688 -0.00091253 0.020953 0.018971
-0.086114 0.17766 0.013056 0.020955
-0.00024101 -0.0012623 -0.0014155 -0.0026586 -0.00062204 -0.0011872 -0.0020432 0.0010595
0.012989 0.020738 -0.16085 0.25199
1100000000 0.034506 0.30553 0.036103 -0.0042068 0.0028629 0.0039884 0.0021802 -0.0012556
-0.0019217 -0.0031563 -0.0041176 -0.00020891
0.036041 -0.0042013 -0.13117 0.37361 0.015148 -0.028272 -4.3698e-05 -0.0018285
-0.0034501 -0.00098941 -0.0036605 -0.00070757
0.0028654 0.0039506 0.015061 -0.028351 0.20473 0.27589 -0.0020482 0.00019274
-0.0019178 0.00040764 -0.0012361 -0.00036159
0.0021844 -0.0012452 -3.5882e-05 -0.0018315 -0.0020588 0.00017285 -0.0091291 0.28482
0.026642 0.0051653 -0.0028915 -0.000783
-0.0020266 -0.0030212 -0.0033985 -0.00092077 -0.001901 0.0004438 0.026658 0.0050879
-0.069665 0.1916 0.020103 0.009975
-0.0041596 -0.00023963 -0.0036441 -0.00066635 -0.0012538 -0.00029498 -0.0029811 -0.00062835
0.02004 0.010086 -0.11679 0.28824
1160000000 0.085889 0.30113 0.024147 -0.021046 0.0028017 -0.00045427 -0.00039908 -0.0021099
-0.0040582 -0.00084733 -0.0011173 0.0038602
0.024152 -0.021009 -0.087305 0.378 -0.0039613 -0.029515 -0.0016169 -0.0017253
-0.002891 0.0024286 -0.0015225 0.0018783
0.0028018 -0.00052875 -0.0040817 -0.029499 0.24798 0.24478 -0.00085521 0.0018942
-0.00062867 0.0021284 -0.0010076 0.00026922
-0.0004231 -0.0021067 -0.0016474 -0.0017267 -0.00085091 0.0018935 0.030639 0.28157
0.022952 -0.011935 -0.0037843 0.0056732
-0.0040747 -0.000894 -0.002908 0.0025006 -0.00061404 0.0020935 0.02293 -0.011992
-0.035903 0.20171 0.019109 0.0019038
-0.0010651 0.0041035 -0.0017133 0.0019066 -0.0010937 0.00022658 -0.003751 0.0055252
0.019111 0.0016906 -0.067639 0.29292
1220000000 0.13035 0.29017 0.010444 -0.030394 -0.0015984 -0.0008454 -6.2372e-06 -0.00065157
-0.0028074 0.0024201 0.0012212 0.0022622
0.010445 -0.03033 -0.042657 0.3903 -0.017273 -0.021302 -0.0026241 0.00046287
-5.3614e-05 0.0031496 -0.00094248 0.0020498
-0.0016005 -0.00084917 -0.017407 -0.021255 0.28703 0.2053 0.00081573 0.0018221
0.00066221 0.0014697 0.00031825 0.00082625
1.7546e-05 -0.00063139 -0.0026162 0.00049835 0.0008168 0.0018226 0.070744 0.27251
0.011445 -0.019079 0.0017956 0.0013093
-0.0028043 0.0024393 1.56e-05 0.0031504 0.00069236 0.0014255 0.011426 -0.019039
-0.013695 0.2115 0.015651 -0.012819
0.0011747 0.0020515 -0.00087684 0.0020121 0.00034112 0.00070691 0.0016652 0.0012919
0.015703 -0.012835 -0.038766 0.31518
1280000000 0.18046 0.26839 -0.0081198 -0.028776 -0.0018642 0.0025354 -0.00079814 -0.0018278
-0.00079038 0.0030883 0.0026431 0.0014065
-0.008142 -0.028729 0.0036859 0.38117 -0.024099 -0.0083344 -0.00094091 0.0014152
0.0017238 0.0020055 0.00067243 0.002276
-0.0018288 0.00252 -0.024176 -0.0081968 0.31712 0.16123 0.001676 4.1162e-05
0.001253 0.0003704 0.00032516 0.00043205
-0.00081152 -0.0018572 -0.00094966 0.001414 0.0016892 5.0567e-05 0.10771 0.25511
0.00092228 -0.02135 -0.00056934 0.00039058
-0.0007903 0.003077 0.0016794 0.0020295 0.0012304 0.00036876 0.00090689 -0.021371
0.022981 0.21648 0.0037559 -0.015323
0.0027465 0.0012898 0.00072004 0.0022472 0.00045569 0.00043996 -0.00065751 0.00033931
0.0037924 -0.015324 0.011319 0.32084
1340000000 0.21759 0.23437 -0.017991 -0.01894 0.00091783 0.0045331 -0.0014617 -0.00095912
0.0014892 0.0027098 0.0018373 -0.0014345
-0.017954 -0.018954 0.043413 0.37265 -0.0218 0.0045307 -0.00021431 0.0020283
0.0019516 0.00086348 0.0014197 0.0007908
0.00092819 0.0045218 -0.021808 0.0046385 0.33884 0.11336 0.0013353 -0.0010521
0.00091198 -0.00057855 0.00027177 0.0004034
-0.001479 -0.000916 -0.00018414 0.002035 0.0013386 -0.001055 0.13926 0.23396
-0.0096167 -0.018338 0.00066105 0.00085843
0.0015233 0.0028426 0.0020095 0.00086016 0.00094331 -0.00057974 -0.0096728 -0.018364
0.052309 0.21225 -0.0029516 -0.014202
0.0018381 -0.0013991 0.0014703 0.00081901 0.00037514 0.00036161 0.00061258 0.00082981
-0.0029387 -0.014185 0.050551 0.31997
1400000000 0.25063 0.1962 -0.023725 -0.0072723 0.0052428 0.0030778 -0.0020162 0.00047677
0.0024832 0.00099778 0.00041822 -0.0014469
-0.023696 -0.0072889 0.080691 0.35924 -0.014813 0.012757 0.0014328 0.0013805
0.0012757 -0.00075502 0.0012808 0.00017895
0.0052448 0.0030394 -0.014755 0.012831 0.35155 0.06005 0.00021825 -0.0019091
0.00011346 -0.00052902 0.00034662 0.00029034
-0.0020264 0.00044337 0.0013913 0.0013802 0.00020697 -0.0019083 0.16749 0.20478
-0.016119 -0.011013 -0.0011017 -4.188e-05
0.0024782 0.00095248 0.0012515 -0.00076507 9.3976e-05 -0.00053917 -0.016139 -0.010979
0.085127 0.20927 -0.0097764 -0.0097992
0.00043393 -0.0014292 0.0013079 0.00017417 0.00036518 0.00029062 -0.0011023 -8.4846e-05
-0.009795 -0.0097654 0.098072 0.31185
1460000000 0.27331 0.15183 -0.020544 0.0051349 0.0056679 -0.0018761 -0.0016305 0.0016381
0.002125 -0.00039918 -0.00034675 -0.001169
-0.020531 0.0051305 0.11452 0.33689 -0.0059717 0.015452 0.001757 0.00026099
0.00090903 -0.001387 0.0012615 -0.00077343
0.0056807 -0.0018843 -0.0058984 0.015515 0.35753 0.0060877 -0.0014117 -0.0014907
0.0001134 -0.00033219 0.00065897 -0.00054892
-0.0016556 0.0016741 0.0017874 0.00023699 -0.0014383 -0.0014659 0.19234 0.17588
-0.017867 -0.0033391 -0.00077602 0.0026224
0.0021119 -0.00042664 0.0009186 -0.0013889 8.7363e-05 -0.00034581 -0.017878 -0.0033068
0.11411 0.195 -0.011803 -0.003143
-0.00028054 -0.001075 0.0012737 -0.00077022 0.00073159 -0.00055477 -0.00082376 0.0026377
-0.011854 -0.0031663 0.13186 0.29217
1520000000 0.28511 0.11016 -0.014708 0.010696 0.0033858 -0.0041889 -3.1477e-05 0.0027169
0.0022085 -0.0017208 -0.001106 -0.00020021
-0.014694 0.010676 0.14768 0.32217 0.0017769 0.013098 0.0018547 -0.00080728
4.9007e-05 -0.001138 0.00033954 -0.0010414
0.0033743 -0.0042355 0.001849 0.013116 0.35082 -0.049756 -0.0013433 -0.00038527
0.00058173 -0.00084301 6.962e-05 -0.00035069
2.2009e-05 0.0027053 0.0018413 -0.00082995 -0.0013344 -0.00038356 0.21404 0.13909
-0.016902 0.0034611 0.0016929 0.0023611
0.0022367 -0.0017009 2.3611e-05 -0.0011361 0.00056412 -0.00085063 -0.016894 0.0034872
0.14158 0.18191 -0.012192 0.0011515
-0.0011689 -0.0002114 0.00031027 -0.0010623 0.00010913 -0.00030742 0.0017221 0.0023391
-0.012272 0.001155 0.16803 0.27507
1580000000 0.29408 0.064049 -0.0078181 0.013715 -0.00099363 -0.004894 0.0014873 0.0020333
-7.7442e-05 -0.0021947 -0.00045287 0.00044816
-0.0078231 0.013679 0.17453 0.29732 0.0053238 0.0081932 0.00049731 -0.0017968
-0.00061229 -0.0011529 -0.00033561 -0.00078161
-0.0010047 -0.0048719 0.0053899 0.0081861 0.33074 -0.10704 -0.0018119 0.00088867
-0.00044652 -0.0011007 0.00018 -0.00055887
0.0015056 0.0020575 0.00049639 -0.0017986 -0.0018214 0.00087918 0.2269 0.10182
-0.012791 0.0090687 0.0026128 0.0009416
-0.00013634 -0.0022083 -0.00059957 -0.0011128 -0.0004905 -0.0010998 -0.012781 0.0090865
0.16594 0.16458 -0.0097731 0.0077462
-0.00041926 0.00046952 -0.0003839 -0.00078221 7.9459e-05 -0.00063626 0.0026546 0.00090609
-0.0097168 0.0077141 0.20349 0.24926
1640000000 0.29592 0.023143 -0.00094024 0.01241 -0.0027217 -0.0025549 0.0028471 0.0010933
-0.00059573 -0.0016774 -0.00030739 0.00046692
-0.0009473 0.01239 0.20373 0.27275 0.0060148 0.0034116 -0.000763 -0.0019145
-0.0010629 -0.00040104 -0.00048566 -0.00074249
-0.0027352 -0.0025542 0.0060539 0.0033883 0.30297 -0.15625 -0.00049788 0.0017119
-0.0010635 -0.0011331 -0.00019046 -0.00044652
0.0028407 0.0010833 -0.00078828 -0.0019059 -0.0004714 0.0016583 0.23895 0.055567
-0.0076178 0.010614 0.0028888 -0.00092394
-0.00056354 -0.0016783 -0.0010556 -0.00038984 -0.0010605 -0.0011615 -0.0075756 0.010652
0.18783 0.14122 -0.0046109 0.0097692
-0.00033019 0.00051641 -0.00050183 -0.00074545 -0.00020995 -0.00039115 0.0028591 -0.00094508
-0.0046418 0.0097302 0.23039 0.21941
1700000000 0.28872 -0.021728 0.0023803 0.0093221 -0.0035406 0.00013577 0.003105 -0.001395
-0.0020843 -0.00080095 0.00067161 0.00048262
0.0023987 0.009315 0.22164 0.24154 0.0039075 0.0005764 -0.0016432 -0.00057129
-0.00079118 0.00011492 -0.00093605 -0.00042821
-0.0035444 0.00012511 0.0039351 0.00054854 0.25967 -0.19612 0.00073551 0.0016649
-0.0020681 -0.00020527 -0.00045701 -0.00087035
0.0031012 -0.0014022 -0.0016223 -0.00059376 0.00075336 0.0016539 0.23697 0.008639
-0.0041887 0.011149 0.0016952 -0.0023981
-0.0021317 -0.00077472 -0.00079778 0.00013552 -0.0020146 -0.00017633 -0.0041516 0.011145
0.20485 0.1219 0.00022113 0.010172
0.0006247 0.00039213 -0.00093315 -0.00042535 -0.00048802 -0.00082967 0.0016754 -0.0024105
0.00021799 0.010179 0.24973 0.1852
1760000000 0.27664 -0.069951 0.0044928 0.0059438 -0.0023774 0.0010866 0.0011993 -0.0034989
-0.0014538 0.00069881 0.00052457 -0.00081187
0.0044861 0.0059309 0.24751 0.20212 0.0015408 -0.0012469 -0.0013058 0.00030584
-0.00089416 0.00093295 -0.00047441 0.00044309
-0.0023615 0.0011303 0.0015301 -0.0012646 0.21052 -0.22973 0.0013945 0.00076991
-0.0011404 0.0015188 -0.0012898 -0.00050545
0.0011901 -0.003547 -0.0012958 0.00033975 0.0013899 0.00080999 0.23069 -0.040486
-0.00022336 0.010093 -0.00014862 -0.0028066
-0.0014572 0.00068406 -0.00090765 0.0009458 -0.0011062 0.001451 -0.00019873 0.010099
0.21946 0.08835 0.0045982 0.0072904
0.0004528 -0.00070429 -0.00049665 0.0004252 -0.0013173 -0.00051959 -0.00010026 -0.0028088
0.0046173 0.0073191 0.26394 0.14833
1820000000 0.25241 -0.10694 0.0045347 0.0023255 -9.8446e-06 0.0024994 -0.001215 -0.0031065
-0.0012648 0.00099359 -6.5891e-05 -9.1703e-05
0.0045097 0.0023182 0.25782 0.17241 -0.0003942 -6.6405e-05 -0.0012583 0.0011757
7.3511e-05 0.0012363 -0.00054559 0.00047547
-1.4201e-05 0.0024739 -0.0003721 -6.1409e-05 0.16076 -0.24525 0.0015198 0.00016765
-0.00014427 0.00246 -0.0014211 0.00020991
-0.0012197 -0.0031145 -0.0012447 0.001151 0.0015503 0.00014983 0.20431 -0.086929
0.0018049 0.0080924 -0.0017439 -0.0018778
-0.0012059 0.0010066 9.3811e-05 0.0012315 -0.00011262 0.0025106 0.001839 0.0081183
0.23693 0.060645 0.0053294 0.0034919
-7.5992e-05 -0.00011646 -0.00055327 0.00050439 -0.0014469 0.00028395 -0.0017838 -0.001879
0.0053934 0.0035123 0.26886 0.11254
1880000000 0.21763 -0.14726 0.0022339 0.00017272 -0.00028968 0.0020208 -0.0030149 -0.0021507
-0.00015224 0.0018776 0.00031044 -0.00056595
0.0022491 0.00019882 0.26249 0.126 -0.0022884 0.0017193 -5.9079e-05 0.0016487
0.00056221 0.0010455 9.5082e-05 0.00091133
-0.00027747 0.0020596 -0.0022925 0.0017442 0.10861 -0.25468 0.0014797 -0.00087803
0.0015802 0.0018891 -0.0010012 0.0014272
-0.0029859 -0.0021717 -3.5091e-05 0.0016798 0.0014381 -0.00087395 0.16736 -0.12854
0.0029047 0.0056137 -0.0027385 0.00033452
-0.00011685 0.0018452 0.00056488 0.0010387 0.0015232 0.0018702 0.0029091 0.0056268
0.24022 0.029607 0.0055803 0.00095989
0.0002016 -0.00058528 0.00011348 0.00090985 -0.00098783 0.0014444 -0.002689 0.00030833
0.005639 0.0010052 0.27019 0.077981
1940000000 0.1788 -0.17312 -4.9059e-05 -0.0013367 0.0011854 0.0019162 -0.0036315 0.00062072
0.0014591 0.0010783 -0.00086389 -0.00054048
-6.5744e-05 -0.0013603 0.26329 0.094294 -0.0011514 0.0037142 0.0010802 0.0012277
0.0016921 0.00037914 0.00079428 0.00019665
0.0011998 0.0019734 -0.0011296 0.0037293 0.062623 -0.24868 0.00036534 -0.0017944
0.0023789 0.00043727 0.0001709 0.0017353
-0.0036303 0.00067548 0.0010767 0.0011816 0.00035347 -0.0018025 0.11703 -0.16183
0.0022863 0.0034923 -0.001591 0.0016399
0.0014774 0.0010758 0.0016703 0.00039388 0.0023646 0.00040415 0.0022847 0.003468
0.24354 -0.0081228 0.004056 -0.0027339
-0.0007752 -0.0005382 0.00070778 0.0001834 0.00015706 0.0015779 -0.0015402 0.0016487
0.0040713 -0.0026659 0.26053 0.042197
2000000000 0.13253 -0.18837 -0.0037613 0.00066988 0.0025087 0.0017612 -0.0023053 0.0033103
0.0011071 -5.7366e-05 -0.0006449 0.00052228
-0.0037794 0.00069492 0.24944 0.058662 -0.0010128 0.0055348 0.001533 0.00030925
0.0012218 -0.0012467 0.00032456 0.00019142
0.0024209 0.0017868 -0.0010048 0.0055561 0.018497 -0.23421 -0.0011775 -0.0013091
0.0020202 -0.0013003 0.0016051 0.0016027
-0.0022473 0.003313 0.0015398 0.00031069 -0.0012472 -0.001343 0.06362 -0.17519
0.00039871 0.0025796 -1.0517e-05 0.0019461
0.0011447 -3.514e-05 0.0011627 -0.0012441 0.0019531 -0.0012815 0.00033729 0.0026146
0.23869 -0.041563 0.00069407 -0.0035769
