!Keysight Technologies,M9804A,MY58100912,A.14.10.03
!Date: Thursday, April 27, 2023 10:28:33
!Correction: S11(C  6-Port  ) 
!S12(C  6-Port  ) 
!S13(C  6-Port  ) 
!S14(C  6-Port  ) 
!S15(C  6-Port  ) 
!S16(C  6-Port  ) 
!S21(C  6-Port  ) 
!S22(C  6-Port  ) 
!S23(C  6-Port  ) 
!S24(C  6-Port  ) 
!S25(C  6-Port  ) 
!S26(C  6-Port  ) 
!S31(C  6-Port  ) 
!S32(C  6-Port  ) 
!S33(C  6-Port  ) 
!S34(C  6-Port  ) 
!S35(C  6-Port  ) 
!S36(C  6-Port  ) 
!S41(C  6-Port  ) 
!S42(C  6-Port  ) 
!S43(C  6-Port  ) 
!S44(C  6-Port  ) 
!S45(C  6-Port  ) 
!S46(C  6-Port  ) 
!S51(C  6-Port  ) 
!S52(C  6-Port  ) 
!S53(C  6-Port  ) 
!S54(C  6-Port  ) 
!S55(C  6-Port  ) 
!S56(C  6-Port  ) 
!S61(C  6-Port  ) 
!S62(C  6-Port  ) 
!S63(C  6-Port  ) 
!S64(C  6-Port  ) 
!S65(C  6-Port  ) 
!S66(C  6-Port  ) 
!S6P File: Measurement: :
# Hz S  RI   R 50
500000000 -0.33695 -0.042535 -0.009836 -0.002478 -0.0081858 0.012685 -0.0047196 0.011797
0.012778 0.0048477 -0.0044365 0.0089044
-0.0098176 -0.0025342 -0.41856 -0.054079 0.0077935 -0.010846 0.0014016 0.012345
0.0075673 0.0021468 0.0015427 0.013453
-0.0082044 0.012712 0.0078162 -0.010839 -0.26606 0.20819 0.0072797 0.003962
-0.0024467 0.0079821 0.00084735 0.012309
-0.0047993 0.011804 0.0016666 0.012197 0.0074539 0.0038878 -0.33415 0.036692
-0.020412 -0.0062035 0.016527 0.026825
0.012693 0.0049625 0.0075293 0.0018113 -0.0023723 0.0079265 -0.020337 -0.0061661
-0.21683 -0.20949 -0.026877 0.006214
-0.0047647 0.0084098 0.001888 0.013279 0.0010328 0.012317 0.016761 0.026927
-0.026863 0.006215 -0.25577 -0.16418
560000000 -0.31681 0.12009 -0.023621 -0.063024 -0.00021815 0.012127 0.0051519 0.011147
0.010244 0.0050224 0.010708 0.0083041
-0.023621 -0.062915 -0.37769 0.10726 -0.041035 -0.037765 0.013926 0.004185
-0.012447 -0.0050102 0.0023223 -0.00025201
-0.0002405 0.012168 -0.04114 -0.037828 -0.18405 0.25686 -0.00012425 -0.0038248
0.019628 0.0059423 0.0069949 -0.0059134
0.0054212 0.011283 0.013989 0.0038627 -0.00027088 -0.0038607 -0.30992 0.1303
0.00437 -0.022553 0.00469 -0.021891
0.010621 0.0048221 -0.012389 -0.0053713 0.01959 0.0061407 0.0043545 -0.022838
-0.28832 -0.032713 0.010737 -0.049787
0.011172 0.0084859 0.0024992 -0.00027201 0.0070993 -0.0059875 0.0047044 -0.02185
0.010853 -0.049501 -0.32987 -0.0072243
620000000 -0.27624 0.10417 -0.023258 0.0080793 0.0034005 0.0080951 0.0086024 -0.0048338
0.011054 7.1065e-06 0.001219 -0.0020838
-0.02322 0.0080969 -0.40285 0.058035 -0.018418 1.7492e-05 -0.0011248 -0.0021207
0.011738 -0.0058973 0.001897 -0.0032404
0.0034533 0.0081149 -0.018454 5.5653e-05 -0.15429 0.26597 -0.00095643 -0.0052746
-0.0024989 -0.0024672 0.0086616 -0.0035891
0.0084991 -0.0049468 -0.0010773 -0.0020155 -0.00094476 -0.0051626 -0.26965 0.14131
-0.039402 -0.019512 0.012675 0.028493
0.010907 0.00012562 0.011685 -0.0059448 -0.0023852 -0.0025609 -0.039356 -0.019428
-0.20685 -0.07076 -0.043962 0.015043
0.0016414 -0.0025765 0.0018079 -0.0032126 0.0084601 -0.0033876 0.012466 0.028708
-0.04387 0.014511 -0.24607 -0.050542
680000000 -0.23585 0.19062 -0.02722 -0.01423 0.0047481 0.0052081 0.0022883 -0.0070474
-0.0031448 -0.011281 0.0059996 -0.0072619
-0.027184 -0.014255 -0.38821 0.15648 -0.032513 -0.0016577 -0.0014221 -0.00061003
-0.0018306 -0.0091558 -0.00088681 -0.0018572
0.0047527 0.0052048 -0.032522 -0.001556 -0.10245 0.28577 -0.00067554 -0.00052164
-0.0016138 0.00021836 -0.0025805 -0.0094158
0.0021395 -0.007256 -0.0014357 -0.00055052 -0.00057999 -0.0004834 -0.22363 0.19447
-0.024155 -0.0067767 -0.010151 -0.012306
-0.0031415 -0.011141 -0.0018521 -0.0092047 -0.0016603 0.00023637 -0.024204 -0.0067012
-0.26138 0.030257 -0.0050195 -0.0085642
0.0061496 -0.0070763 -0.0009263 -0.0018285 -0.0026776 -0.0094725 -0.010066 -0.012467
-0.0050541 -0.0085067 -0.26476 0.061861
740000000 -0.1914 0.18512 -0.038707 0.026826 0.012663 -0.0051692 3.2511e-05 -0.0043102
-0.0033642 -0.0028103 -0.0062736 0.0025596
-0.038677 0.026757 -0.33547 0.1756 -0.035647 0.034894 -0.00074014 -0.0066164
-0.011362 0.0077029 -0.0019576 -0.0076041
0.012658 -0.0051259 -0.03555 0.035059 -0.068631 0.28413 -0.0023613 0.0027702
-0.0024643 -0.0049137 -0.0014455 -2.1003e-05
3.3176e-06 -0.004365 -0.00085942 -0.0065219 -0.002339 0.00274 -0.2069 0.20206
-0.044135 -0.0066151 0.024581 0.01603
-0.0035485 -0.0024579 -0.010898 0.0076296 -0.002289 -0.0047502 -0.044293 -0.0066793
-0.15911 0.057377 -0.0461 -0.00020055
-0.0062943 0.0021497 -0.0024271 -0.0073087 -0.0015651 -0.00023176 0.024511 0.01601
-0.04605 -0.00012767 -0.25545 0.065453
800000000 -0.15873 0.22632 -0.022416 0.016754 0.0052915 -0.010594 -0.004402 -0.0021755
-0.0037386 0.0019838 0.0049005 9.9949e-05
-0.022418 0.016737 -0.33852 0.24574 -0.007919 0.033794 -0.0023949 0.002219
-0.00065796 0.0027068 0.00099729 0.0053357
0.0052426 -0.010613 -0.007822 0.033856 -0.028137 0.30714 0.00088749 0.001635
6.0092e-05 0.0034653 -0.0016437 0.00076694
-0.0043673 -0.0021999 -0.0023747 0.0022747 0.00086547 0.0016186 -0.17741 0.23085
-0.02856 0.014595 0.015176 -0.01086
-0.0036978 0.0021425 -0.00063716 0.00283 5.0226e-05 0.003537 -0.028542 0.014636
-0.20931 0.081923 -0.017794 0.019625
0.0049361 3.0751e-05 0.0011054 0.0053554 -0.0016341 0.00072244 0.01531 -0.010875
-0.01795 0.019517 -0.25468 0.1198
860000000 -0.12375 0.24669 -0.017625 0.030568 -0.0032421 -0.0098491 -0.0022552 0.00078807
0.0037656 0.0043578 -0.003961 -0.0031909
-0.017615 0.03054 -0.29098 0.28753 0.0076839 0.034061 -0.00018203 0.0021213
0.003816 0.00020614 0.0028862 0.00040936
-0.0033026 -0.0098528 0.0078113 0.034062 0.019852 0.31495 -0.00056653 3.3487e-05
0.0027069 -0.0013229 0.0012118 0.004141
-0.0022165 0.00075489 -0.00016027 0.0021874 -0.00056028 1.3791e-05 -0.13992 0.24163
-0.017675 0.018681 -0.0068398 -0.0091955
0.0039 0.0044771 0.0037828 0.00027667 0.0026753 -0.0013067 -0.017617 0.018809
-0.15708 0.13468 -0.027665 0.015338
-0.0040589 -0.0032626 0.0029033 0.00038243 0.0012836 0.004094 -0.0068775 -0.0090581
-0.027712 0.015483 -0.20267 0.16872
920000000 -0.099798 0.26973 0.00493 0.037728 -0.0093028 -0.0044225 -0.0018327 0.0017027
0.00085961 0.0019119 0.0029128 -0.0015281
0.0049138 0.037705 -0.26222 0.30884 0.027842 0.021891 0.0013585 0.0011684
0.007175 -2.055e-05 0.0040802 -0.0025672
-0.00932 -0.0044049 0.027939 0.021859 0.065882 0.31548 0.0019415 7.9036e-05
0.0011484 -0.00014882 0.00084087 -0.0010362
-0.001831 0.001695 0.0013395 0.0011781 0.001934 9.866e-05 -0.11571 0.25834
-0.010741 0.031474 0.0047056 -0.0071525
0.00096198 0.0019401 0.0073028 -0.00010263 0.0012002 -0.00012696 -0.010671 0.031513
-0.14809 0.14011 -0.0028204 0.028137
0.0029463 -0.0014892 0.0040473 -0.0026398 0.00083857 -0.0010341 0.0047265 -0.0072216
-0.0028467 0.028086 -0.21676 0.1828
980000000 -0.052222 0.28922 0.017305 0.02998 -0.0089833 0.0045268 0.0018842 0.0034499
0.003854 -0.0013287 -0.0033942 -0.0022793
0.017302 0.029966 -0.20922 0.34294 0.0328 0.0050489 0.0020705 1.699e-05
0.0017133 -0.0058516 -0.00022967 -0.0024004
-0.008954 0.0045607 0.032844 0.0049435 0.1119 0.30901 0.00065421 -0.0011801
0.00044159 -0.002168 0.0014568 -9.8016e-05
0.0019031 0.0034388 0.0020337 4.1502e-05 0.00064382 -0.0011752 -0.07677 0.26912
0.0082584 0.03074 -0.0092827 -0.0079108
0.0039024 -0.001296 0.0016363 -0.0058206 0.00042144 -0.0021606 0.0083235 0.030778
-0.11731 0.17081 0.0044 0.019845
-0.0033906 -0.0023309 -0.00016721 -0.0024043 0.0014607 -8.1538e-05 -0.0093706 -0.0078707
0.0043594 0.019907 -0.17477 0.23376
1040000000 -0.010212 0.29768 0.032999 0.018296 -0.0012613 0.0068444 0.0023828 0.0007149
0.00015275 -0.0036846 -0.0001334 -0.0014634
0.03298 0.018287 -0.17365 0.35585 0.029329 -0.014595 0.0015168 -0.0016955
-0.0022881 -0.0025086 -0.0011487 -0.0027456
-0.0012163 0.0068558 0.029278 -0.014707 0.1577 0.29532 -0.00049706 -0.0016531
-0.0016123 -0.0010261 -0.00048258 -0.0011257
0.0024163 0.00069205 0.0014779 -0.0017068 -0.00048059 -0.0016735 -0.049489 0.27907
0.020092 0.018562 -0.001973 0.0010176
0.00014856 -0.0037507 -0.0023292 -0.0024717 -0.0016021 -0.00097014 0.020119 0.018599
-0.084651 0.17833 0.013241 0.019754
-0.00014974 -0.0015419 -0.0011922 -0.0027374 -0.00051537 -0.0011609 -0.0019689 0.001036
0.013207 0.019721 -0.15587 0.25507
1100000000 0.035094 0.30563 0.035566 -0.0040237 0.0027816 0.0038283 0.0021946 -0.0011279
-0.0020241 -0.0032004 -0.0039509 -4.5899e-05
0.035559 -0.0040035 -0.13037 0.37295 0.015194 -0.027586 -3.8555e-05 -0.0017857
-0.0032917 -0.001107 -0.0035427 -0.00066141
0.002804 0.0038178 0.01511 -0.027684 0.20376 0.27528 -0.0019719 0.0001081
-0.0018601 0.00034971 -0.0011811 -0.0003567
0.0021902 -0.0010878 -5.5618e-05 -0.0017717 -0.0019671 9.8109e-05 -0.0090544 0.28379
0.025656 0.0053798 -0.002821 -0.00060169
-0.0020509 -0.0031445 -0.0033463 -0.0010387 -0.001862 0.00037987 0.025693 0.0053461
-0.067469 0.19237 0.019322 0.0095837
-0.0040039 3.1898e-05 -0.0036158 -0.00061603 -0.0011492 -0.00029956 -0.0027986 -0.00058832
0.019356 0.0095521 -0.11032 0.2898
1160000000 0.08646 0.30066 0.023866 -0.020394 0.0026802 -0.00051508 -0.00036916 -0.0022451
-0.004169 -0.00088723 -0.0010491 0.004155
0.023866 -0.020364 -0.086997 0.37698 -0.0034079 -0.028984 -0.0016222 -0.0017595
-0.0029646 0.0022854 -0.0014326 0.0018397
0.002681 -0.00052442 -0.0035574 -0.028995 0.2468 0.24475 -0.00088828 0.0018051
-0.00081405 0.0020147 -0.00089852 0.00025384
-0.0003625 -0.0022647 -0.0016195 -0.0017458 -0.00088493 0.0018178 0.030189 0.28071
0.022402 -0.010807 -0.003675 0.0051314
-0.0041754 -0.00089727 -0.0029688 0.0022919 -0.00081748 0.002017 0.022388 -0.010839
-0.033786 0.20182 0.018686 0.0017623
-0.0010282 0.0041728 -0.001435 0.0018854 -0.00094881 0.00024665 -0.0036729 0.0051431
0.018686 0.0017156 -0.063179 0.29385
1220000000 0.13073 0.2896 0.010559 -0.029675 -0.0015882 -0.00079294 0.0001157 -0.00075736
-0.0027193 0.0023835 0.0012361 0.0021165
0.010578 -0.029644 -0.042854 0.38921 -0.016624 -0.02114 -0.0025251 0.00034649
-0.00017772 0.003081 -0.00087013 0.0019352
-0.0016117 -0.00079196 -0.016732 -0.021095 0.28604 0.20614 0.00074146 0.0018186
0.00059164 0.0014222 0.00038004 0.00068448
0.00013645 -0.00076611 -0.0025163 0.00035359 0.00074352 0.0018295 0.069957 0.27206
0.011569 -0.017878 0.001783 0.0013339
-0.0027105 0.0023636 -0.00016539 0.0030666 0.00058298 0.0013999 0.011543 -0.017916
-0.012509 0.21106 0.015384 -0.012034
0.0012515 0.0021053 -0.0008438 0.0019337 0.00037942 0.00068195 0.0017749 0.0013643
0.015406 -0.012 -0.033188 0.31498
1280000000 0.18038 0.26761 -0.0075324 -0.028253 -0.0018107 0.0024437 -0.00075327 -0.0019888
-0.00090061 0.0030679 0.0024693 0.0012959
-0.0074992 -0.02823 0.0028308 0.38039 -0.023483 -0.0086945 -0.0011086 0.0013925
0.0015079 0.0020142 0.00064856 0.002258
-0.0018158 0.0024478 -0.023543 -0.0085979 0.31693 0.16245 0.0017457 0.00020491
0.0012452 0.00039499 0.00047609 0.00032683
-0.0007808 -0.0019874 -0.0010884 0.0014197 0.0017544 0.00020978 0.10671 0.25518
0.0018639 -0.020407 -0.00055085 0.00026018
-0.00085879 0.003087 0.00156 0.0020028 0.0012455 0.00037831 0.0018214 -0.020429
0.023831 0.2153 0.003986 -0.014722
0.0024924 0.0012364 0.00065691 0.0022388 0.00050305 0.00030452 -0.00057941 0.00027728
0.0040016 -0.014736 0.016302 0.32038
1340000000 0.21724 0.23407 -0.017207 -0.018977 0.00088121 0.0044601 -0.0015522 -0.0009301
0.0013982 0.0027597 0.0018911 -0.0013306
-0.017165 -0.018968 0.042191 0.37259 -0.021571 0.0039168 -0.00025874 0.0020349
0.0019433 0.0010352 0.0013732 0.00082971
0.00090247 0.0044597 -0.021575 0.0040393 0.33919 0.11462 0.0013976 -0.00085664
0.00085023 -0.00048765 0.00024786 0.00026974
-0.0015493 -0.00091362 -0.00026492 0.0020359 0.0013879 -0.00085927 0.13841 0.23462
-0.0082516 -0.018027 0.00071437 0.00073261
0.0014099 0.0027491 0.001957 0.0010331 0.00083884 -0.00051415 -0.0082976 -0.018019
0.052664 0.21123 -0.0023735 -0.013847
0.0018382 -0.0013474 0.0014133 0.00078008 0.00023473 0.00030318 0.00072956 0.00071739
-0.0023725 -0.01386 0.054463 0.31858
1400000000 0.25007 0.1961 -0.023036 -0.0077091 0.0051117 0.0030572 -0.0020485 0.0004274
0.0023425 0.0009112 0.00047867 -0.001346
-0.022991 -0.00771 0.07956 0.35989 -0.014949 0.012135 0.0013551 0.0015017
0.0013301 -0.00067829 0.0013698 0.00029744
0.0051295 0.00302 -0.014913 0.012233 0.35265 0.060791 0.00031893 -0.0018166
5.6042e-05 -0.00048248 0.00042449 0.00021749
-0.0020515 0.00042168 0.0013517 0.0014877 0.00031388 -0.0018346 0.16719 0.20567
-0.014758 -0.011451 -0.0010801 -0.00029324
0.0023415 0.0009127 0.001318 -0.00069429 4.8041e-05 -0.00050209 -0.014811 -0.011414
0.08512 0.20813 -0.0089421 -0.0094796
0.00048941 -0.001342 0.0013705 0.00027826 0.00044586 0.00022365 -0.0010836 -0.00027852
-0.0089144 -0.0094709 0.10167 0.30998
1460000000 0.27295 0.15245 -0.020289 0.004318 0.005538 -0.0018277 -0.001702 0.001645
0.0021204 -0.00039231 -0.00026918 -0.0010675
-0.020279 0.0043127 0.11397 0.3383 -0.0064176 0.015121 0.0018773 0.00023933
0.0010568 -0.0014413 0.001231 -0.00069715
0.0055217 -0.00184 -0.0063584 0.015165 0.35871 0.0062136 -0.0012956 -0.0015529
0.0001838 -0.00033619 0.00058239 -0.00043553
-0.0017063 0.0016577 0.001902 0.00021632 -0.0012907 -0.0015546 0.19237 0.17691
-0.016981 -0.0044923 -0.00096633 0.0024907
0.0021404 -0.00036985 0.00105 -0.0014545 0.00016559 -0.00035225 -0.016995 -0.0044634
0.11349 0.19432 -0.011287 -0.0035349
-0.00026189 -0.0010864 0.0012269 -0.00066742 0.00061091 -0.00039349 -0.00098541 0.0024838
-0.01127 -0.0035717 0.1359 0.29061
1520000000 0.28528 0.11086 -0.014868 0.0098702 0.0032819 -0.0041146 1.8684e-06 0.0026702
0.002253 -0.0015964 -0.0011717 -0.00026795
-0.014862 0.0098574 0.14785 0.32359 0.0013143 0.013121 0.0018383 -0.00085558
9.7866e-05 -0.0012447 0.00040928 -0.0010444
0.0032611 -0.0041171 0.001383 0.013137 0.35177 -0.050181 -0.0013703 -0.00049489
0.00060535 -0.00088964 6.3998e-05 -0.00010126
-3.3111e-06 0.0026776 0.0018246 -0.00087667 -0.0013625 -0.00051091 0.21464 0.14008
-0.016991 0.0019939 0.0015984 0.0023405
0.0022406 -0.0016142 9.6518e-05 -0.0012422 0.0006119 -0.000885 -0.017001 0.0020406
0.14075 0.18165 -0.011859 0.00064142
-0.0011682 -0.00026888 0.00042396 -0.0010664 6.1526e-05 -0.00013048 0.0015917 0.0023345
-0.011875 0.00061763 0.1714 0.27304
1580000000 0.29484 0.064704 -0.0083834 0.013128 -0.00091045 -0.0048395 0.001418 0.0020932
-7.6103e-05 -0.0021407 -0.00043867 0.00040866
-0.0083954 0.013118 0.17542 0.2988 0.0050112 0.0084379 0.00051252 -0.0017903
-0.00066364 -0.0012179 -0.00025071 -0.00082191
-0.0009593 -0.0048446 0.0050593 0.0084191 0.33124 -0.10789 -0.0018699 0.00081646
-0.00028746 -0.0011423 6.2863e-05 -0.00048471
0.0014157 0.0020786 0.00049748 -0.0017982 -0.0018703 0.00081161 0.22799 0.10248
-0.013665 0.0080147 0.0025575 0.0011309
-8.8939e-05 -0.0021276 -0.00068559 -0.0012013 -0.00029007 -0.0011399 -0.01367 0.0080444
0.1652 0.16507 -0.0096496 0.0067947
-0.00042602 0.00042341 -0.0002562 -0.00081824 6.2622e-05 -0.00048078 0.0025787 0.0011323
-0.0096366 0.0067947 0.20624 0.24681
1640000000 0.29724 0.023353 -0.0017365 0.012317 -0.002678 -0.0025733 0.0028804 0.0011128
-0.00051939 -0.0016603 -0.00031263 0.00061895
-0.001741 0.012306 0.20521 0.27361 0.0059072 0.0036843 -0.00077736 -0.0018703
-0.0011951 -0.00042009 -0.00048661 -0.00075386
-0.0026875 -0.0025619 0.0059323 0.0036583 0.30298 -0.15702 -0.00061813 0.0017283
-0.0010267 -0.0012353 -0.00011028 -0.00033518
0.0028641 0.0010983 -0.0007847 -0.0018667 -0.00064714 0.0017514 0.2405 0.055609
-0.0090139 0.010385 0.0028416 -0.00084731
-0.00053899 -0.0016815 -0.0011907 -0.00041126 -0.0010508 -0.0011895 -0.0089982 0.010412
0.18743 0.14213 -0.0051216 0.0089765
-0.00030167 0.00063661 -0.00048993 -0.00074792 -0.00013721 -0.00037545 0.0028575 -0.00083894
-0.0051297 0.0089489 0.23323 0.2166
1700000000 0.28989 -0.022318 0.0017832 0.0096518 -0.003445 6.391e-05 0.0031688 -0.0013245
-0.0020974 -0.00096989 0.00072086 0.0004438
0.0017765 0.0096471 0.22346 0.24173 0.0040079 0.00074552 -0.0016346 -0.00060145
-0.00089812 0.00018868 -0.00095863 -0.00049127
-0.0034394 8.7378e-05 0.0040074 0.00072451 0.25927 -0.19696 0.00073933 0.0017404
-0.0019947 -0.00025614 -0.00045715 -0.00081574
0.0031594 -0.0013322 -0.0016353 -0.00059123 0.00074625 0.0017391 0.23851 0.0078688
-0.0053483 0.011796 0.0017534 -0.0023559
-0.0021085 -0.00096424 -0.00088068 0.00018302 -0.0020156 -0.00025883 -0.0053262 0.011803
0.20507 0.12296 -0.00048075 0.0097116
0.00072526 0.0004323 -0.0009632 -0.00048246 -0.00043491 -0.00078944 0.0017372 -0.0023769
-0.00047631 0.0096983 0.25155 0.18229
1760000000 0.27758 -0.071065 0.0042323 0.0065111 -0.0022574 0.0010053 0.0012741 -0.0035465
-0.0015781 0.00057485 0.00052969 -0.00062704
0.0042234 0.0065063 0.24937 0.20152 0.001739 -0.0010683 -0.0012741 0.00030304
-0.00094997 0.0010858 -0.00058181 0.00041833
-0.0022261 0.0010228 0.0017257 -0.0010702 0.20992 -0.23 0.0014365 0.0010023
-0.0012337 0.0015591 -0.0012792 -0.0005754
0.0012429 -0.0035541 -0.0012791 0.00030083 0.0014619 0.0010061 0.23157 -0.042017
-0.00071464 0.011108 -7.4971e-06 -0.0027846
-0.0015697 0.00058484 -0.00094684 0.0010897 -0.0012434 0.0015817 -0.00067031 0.011087
0.22022 0.089296 0.0037392 0.0073117
0.00050811 -0.00064216 -0.00059001 0.00042978 -0.0013053 -0.0005823 -2.7008e-05 -0.0027926
0.0037325 0.0073228 0.26558 0.14486
1820000000 0.25266 -0.1084 0.0045832 0.002882 -7.9155e-05 0.0024618 -0.0011365 -0.0031506
-0.001356 0.00097987 8.5123e-06 -0.00013783
0.0045824 0.0028817 0.25923 0.1711 -0.00017541 -6.6698e-05 -0.0012647 0.0010759
0.00016577 0.0013673 -0.00061389 0.00056825
-7.6757e-05 0.0024574 -0.00017517 -6.8458e-05 0.16016 -0.24515 0.0014804 0.00010555
-0.00023669 0.0025367 -0.0014632 0.00033807
-0.0011443 -0.0031402 -0.0012622 0.0010749 0.0014986 5.4994e-05 0.2043 -0.088982
0.0019189 0.0090121 -0.001663 -0.0017579
-0.0013367 0.001002 0.0001855 0.00135 -0.00021082 0.0025093 0.0019448 0.0089983
0.23813 0.06139 0.0047266 0.0038301
4.4051e-06 -0.00014986 -0.00060066 0.00058262 -0.0014024 0.00036355 -0.0016632 -0.0017703
0.0047144 0.0038328 0.26939 0.10956
1880000000 0.21723 -0.14873 0.0024755 0.00047206 -0.00034547 0.0019727 -0.0030349 -0.002151
-0.00023371 0.0019449 0.0001857 -0.00071693
0.0024779 0.00046998 0.26324 0.12432 -0.0022183 0.001637 -6.9285e-05 0.0016702
0.00067106 0.0010488 0.00016673 0.000955
-0.00034171 0.0019846 -0.0022217 0.0016511 0.10792 -0.2546 0.0015377 -0.00096018
0.0016179 0.0020668 -0.0010165 0.001436
-0.0030403 -0.002154 -6.3184e-05 0.0016692 0.0015076 -0.00096769 0.1663 -0.13016
0.003397 0.0061875 -0.0024544 0.00033069
-0.00021016 0.0019484 0.00069602 0.0010599 0.0016452 0.0020542 0.0034239 0.0061902
0.24202 0.029825 0.0051984 0.0017978
0.00015955 -0.00070887 0.00017536 0.0009525 -0.0010347 0.0014318 -0.0024355 0.00034817
0.0051971 0.0018008 0.27041 0.075038
1940000000 0.17758 -0.17436 0.00026373 -0.0013191 0.0011987 0.0019333 -0.0035923 0.00063951
0.0014817 0.001181 -0.00086379 -0.0005373
0.00026277 -0.0013205 0.2634 0.092465 -0.0011201 0.0037765 0.001055 0.0012213
0.0017566 0.00028025 0.00083267 0.00026973
0.0012019 0.0019516 -0.0010793 0.0038084 0.062204 -0.24802 0.00025504 -0.0018278
0.0025115 0.00038476 0.0003201 0.0016357
-0.0035819 0.00064026 0.0010857 0.0012129 0.00023601 -0.0018388 0.11541 -0.1628
0.002682 0.0036892 -0.0016204 0.0013906
0.0014979 0.0011587 0.0017572 0.00026621 0.002495 0.00039977 0.0026738 0.0036842
0.24523 -0.0088081 0.0040928 -0.0020277
-0.00089049 -0.00057565 0.00083686 0.00025214 0.00033843 0.0016808 -0.0015795 0.0013844
0.0040927 -0.00204 0.26068 0.039979
2000000000 0.13097 -0.18875 -0.0036573 0.00067508 0.0023755 0.001859 -0.0023931 0.0032976
0.001257 4.543e-05 -0.00068231 0.00040677
-0.0036564 0.00066419 0.24875 0.057026 -0.00098825 0.0056316 0.0014937 0.00035124
0.001065 -0.0013645 0.00048813 6.4584e-05
0.0023946 0.001824 -0.00094478 0.0056472 0.018884 -0.23348 -0.0011523 -0.0011487
0.0020378 -0.0013412 0.0016625 0.0012742
-0.0023847 0.0033257 0.0015001 0.00033923 -0.001171 -0.0011135 0.061877 -0.17516
0.00074292 0.0024675 -0.0001315 0.0021857
0.0012402 2.3444e-05 0.0010624 -0.001399 0.0019965 -0.0013344 0.00076312 0.0024813
0.24045 -0.042864 0.00097008 -0.0028395
