!Keysight Technologies,M9804A,MY58100912,A.14.10.03
!Date: Thursday, April 27, 2023 10:28:33
!Correction: S11(C  6-Port  ) 
!S12(C  6-Port  ) 
!S13(C  6-Port  ) 
!S14(C  6-Port  ) 
!S15(C  6-Port  ) 
!S16(C  6-Port  ) 
!S21(C  6-Port  ) 
!S22(C  6-Port  ) 
!S23(C  6-Port  ) 
!S24(C  6-Port  ) 
!S25(C  6-Port  ) 
!S26(C  6-Port  ) 
!S31(C  6-Port  ) 
!S32(C  6-Port  ) 
!S33(C  6-Port  ) 
!S34(C  6-Port  ) 
!S35(C  6-Port  ) 
!S36(C  6-Port  ) 
!S41(C  6-Port  ) 
!S42(C  6-Port  ) 
!S43(C  6-Port  ) 
!S44(C  6-Port  ) 
!S45(C  6-Port  ) 
!S46(C  6-Port  ) 
!S51(C  6-Port  ) 
!S52(C  6-Port  ) 
!S53(C  6-Port  ) 
!S54(C  6-Port  ) 
!S55(C  6-Port  ) 
!S56(C  6-Port  ) 
!S61(C  6-Port  ) 
!S62(C  6-Port  ) 
!S63(C  6-Port  ) 
!S64(C  6-Port  ) 
!S65(C  6-Port  ) 
!S66(C  6-Port  ) 
!S6P File: Measurement: :
# Hz S  RI   R 50
500000000 -0.32909 -0.06639 -0.0098875 -0.0016105 -0.0082713 0.012606 -0.0044457 0.011803
0.013418 0.005357 -0.0051458 0.008591
-0.010352 -0.0010595 -0.4098 -0.075418 0.0089818 -0.010986 0.0013173 0.011898
0.0090419 0.0034802 0.00063247 0.013521
-0.0084709 0.0129 0.0084357 -0.010722 -0.25872 0.18865 0.0067369 0.0031658
-0.002063 0.0080832 0.00037601 0.012445
-0.0038336 0.011831 0.0010671 0.012198 0.0069122 0.0034769 -0.32809 0.039334
-0.020465 -0.0047532 0.016151 0.026486
0.012704 0.0056146 0.0089902 0.0029985 -0.002431 0.0082069 -0.01978 -0.0048117
-0.21948 -0.23231 -0.02887 0.0045466
-0.0039038 0.0093652 0.00086078 0.014391 0.0011652 0.012622 0.015138 0.026758
-0.029007 0.0038493 -0.2637 -0.14584
560000000 -0.3184 0.10121 -0.021274 -0.068311 0.00049407 0.013143 0.0060731 0.010115
0.011572 0.0053886 0.011152 0.0093919
-0.021485 -0.068731 -0.3725 0.088239 -0.040355 -0.039721 0.01389 0.0046386
-0.012802 -0.0056271 0.0043697 -0.0015612
0.00097967 0.013208 -0.04036 -0.039657 -0.18362 0.24067 -0.00068275 -0.0060946
0.018291 0.0072229 0.0078074 -0.0052833
0.0061308 0.010486 0.013431 0.0033961 -0.00031836 -0.0060989 -0.30604 0.13026
0.0059456 -0.02248 0.0058207 -0.021839
0.011482 0.0043183 -0.012649 -0.0063282 0.01763 0.0071891 0.006899 -0.022767
-0.30115 -0.046861 0.011088 -0.052014
0.011176 0.0078587 0.0050062 -0.0012319 0.0078409 -0.0063825 0.0056088 -0.021575
0.010901 -0.05062 -0.33087 0.0061247
620000000 -0.27651 0.080873 -0.023353 0.0090822 0.0035907 0.0091141 0.0088707 -0.0048844
0.011853 -0.00076204 0.00065881 -0.0019026
-0.023045 0.0089435 -0.40052 0.035252 -0.018887 -8.5048e-05 -0.0017053 -0.0022469
0.012734 -0.005517 0.00066387 -0.0028095
0.0031432 0.0094503 -0.019057 3.0621e-05 -0.15618 0.24983 -0.001023 -0.0055782
-0.0040816 -0.0027862 0.0090331 -0.0030069
0.0079137 -0.0036041 -0.0020084 -0.0021831 -0.0010318 -0.0055505 -0.26308 0.14004
-0.038727 -0.021095 0.013152 0.028624
0.011958 -0.00056485 0.012904 -0.005192 -0.0042525 -0.0024721 -0.038697 -0.020729
-0.21779 -0.086634 -0.043641 0.010878
0.0012861 -0.0010287 0.0011229 -0.0026812 0.0094622 -0.0034723 0.013173 0.027036
-0.042006 0.012366 -0.24549 -0.030396
680000000 -0.24186 0.17369 -0.026389 -0.015452 0.0048939 0.005422 0.0015211 -0.0073263
-0.0019346 -0.011544 0.0057772 -0.0073291
-0.026403 -0.015664 -0.3909 0.13684 -0.032783 -0.0025261 -0.0016548 -0.00047278
-0.0017003 -0.0096856 -0.0012009 -0.0018913
0.0045121 0.0052615 -0.032914 -0.0025081 -0.10853 0.27214 -0.00090435 0.00019371
-0.0013079 0.00074056 -0.0027825 -0.0090524
0.00093027 -0.0075744 -0.0016224 -0.00043346 -0.0008624 0.00015623 -0.21965 0.19216
-0.022808 -0.0072741 -0.0086381 -0.011215
-0.0015726 -0.011717 -0.0016437 -0.0093172 -0.0015373 0.0011049 -0.023115 -0.0074358
-0.28223 0.015576 -0.0056238 -0.0072299
0.0051138 -0.007925 -0.0010218 -0.0021498 -0.0026208 -0.0091936 -0.0092722 -0.011165
-0.0052995 -0.0066039 -0.26247 0.075449
740000000 -0.19634 0.1669 -0.040971 0.026586 0.013866 -0.0039489 0.0003592 -0.0040034
-0.0042638 -0.0021644 -0.0063229 0.0031451
-0.040655 0.026609 -0.33655 0.15681 -0.037567 0.034394 0.00029373 -0.005917
-0.013145 0.0064436 -0.00095152 -0.005622
0.013852 -0.0039818 -0.037407 0.034464 -0.075288 0.27241 -0.0020681 0.0034133
-0.00086766 -0.0051052 -0.0019655 0.00079507
0.00043565 -0.0037472 0.00027833 -0.0061243 -0.0018812 0.003257 -0.20396 0.19936
-0.042212 -0.0099187 0.022233 0.016668
-0.0043372 -0.0023629 -0.012584 0.0065267 -0.0013155 -0.0056237 -0.042385 -0.010109
-0.18221 0.050547 -0.0436 0.0003193
-0.0059158 0.0031213 -0.00084776 -0.0059942 -0.0016586 0.0012198 0.022691 0.01656
-0.043486 -0.00089035 -0.25291 0.080437
800000000 -0.16673 0.21278 -0.022836 0.015794 0.005744 -0.010194 -0.004554 -0.0022942
-0.0044531 0.0015431 0.0044836 0.00031267
-0.023188 0.015937 -0.34529 0.22807 -0.0091941 0.034376 -0.0023165 0.0020338
-0.00032709 0.00248 0.00079847 0.0051751
0.0055195 -0.010228 -0.0090597 0.034424 -0.03703 0.29842 0.00094718 0.0011932
9.6056e-05 0.0034051 -0.0017091 0.0006141
-0.0047037 -0.0028429 -0.0023952 0.0020702 0.0009733 0.00127 -0.17476 0.22709
-0.029345 0.012518 0.014769 -0.010645
-0.004495 0.0016424 -0.00032393 0.0025351 0.0001957 0.0034244 -0.028874 0.012661
-0.23186 0.073488 -0.018279 0.020307
0.0038773 0.00034921 0.00053297 0.0053766 -0.0016572 0.00059675 0.014418 -0.010583
-0.01875 0.020511 -0.24817 0.13026
860000000 -0.13321 0.23375 -0.018751 0.030452 -0.003168 -0.010219 -0.0022014 0.00041382
0.0044458 0.0054931 -0.0037696 -0.0030902
-0.018542 0.030312 -0.29897 0.27228 0.0069637 0.034543 0.00029424 0.0019077
0.0038909 0.00056668 0.0036573 0.00019127
-0.0030769 -0.010202 0.0070717 0.034485 0.010654 0.30855 -0.00055669 -0.00035855
0.0025621 -0.001786 0.0017114 0.0042878
-0.0020067 0.00064888 0.00033899 0.0017543 -0.0005179 -0.00052782 -0.13939 0.23862
-0.018416 0.016905 -0.0064662 -0.0090015
0.0042035 0.0056687 0.0036733 0.00060653 0.0023926 -0.0019188 -0.018048 0.016583
-0.17772 0.13261 -0.025837 0.015718
-0.003452 -0.0029082 0.0035728 0.00037795 0.0017139 0.0044343 -0.0063353 -0.008965
-0.026342 0.016008 -0.1982 0.17871
920000000 -0.11061 0.25784 0.0039439 0.039493 -0.0093105 -0.0047224 -0.0019444 0.0018108
0.000207 0.0016232 0.0029969 -0.0012627
0.0038867 0.039301 -0.27197 0.2951 0.027895 0.023344 0.0014157 0.00099951
0.0072671 0.0001105 0.0040063 -0.0028497
-0.0093846 -0.0046425 0.027934 0.023327 0.057011 0.31109 0.001704 -7.4481e-05
0.00062849 -0.00029225 0.00090967 -0.0013876
-0.0020864 0.0016933 0.0013468 0.0010656 0.0017553 -7.0396e-05 -0.11471 0.25591
-0.012742 0.030489 0.0040745 -0.0066918
0.00028709 0.0016096 0.0072929 0.00029443 0.00059622 -0.00032707 -0.012456 0.03061
-0.17019 0.13825 -0.0031673 0.028404
0.0031047 -0.0012757 0.0041228 -0.0030877 0.00094567 -0.0015666 0.0042271 -0.0067494
-0.003623 0.028627 -0.20796 0.19163
980000000 -0.064348 0.27923 0.016092 0.030931 -0.0095561 0.0046665 0.0018386 0.0035799
0.0039002 -0.0014627 -0.0037141 -0.0026599
0.016201 0.030773 -0.22006 0.33184 0.033084 0.0058412 0.0019321 -0.000247
0.001787 -0.0060048 -0.00051139 -0.0025929
-0.0096076 0.0046135 0.033156 0.0056869 0.10328 0.30587 0.00050126 -0.0011587
0.00015138 -0.0016967 0.0015253 -0.00028039
0.0017721 0.0035482 0.0018423 -0.00016241 0.00049628 -0.0011425 -0.076914 0.26719
0.0064114 0.030009 -0.0093502 -0.0076843
0.0038305 -0.0014761 0.0016201 -0.0061073 0.00023125 -0.0016514 0.0066136 0.030055
-0.14057 0.17292 0.0050059 0.020717
-0.0034227 -0.0029233 -0.00065823 -0.0026017 0.0015388 -0.00040415 -0.0095191 -0.0077872
0.0047769 0.020485 -0.16552 0.23951
1040000000 -0.023613 0.28949 0.033111 0.020287 -0.0012709 0.0075268 0.0026518 0.00090416
0.00037823 -0.0033494 -0.00021735 -0.0014309
0.033076 0.020293 -0.18525 0.3465 0.030085 -0.014007 0.0015515 -0.0015863
-0.0021896 -0.0023414 -0.001435 -0.0028149
-0.0011635 0.0075293 0.030063 -0.014143 0.14939 0.29384 -0.00048552 -0.0013675
-0.0014698 -0.00084869 -0.00064252 -0.0011033
0.0026173 0.00085817 0.001539 -0.0015979 -0.00047847 -0.0013765 -0.049892 0.27756
0.018275 0.019349 -0.0022315 0.0013318
0.00048102 -0.0035932 -0.0023972 -0.0025331 -0.0015805 -0.00088963 0.01842 0.019504
-0.10863 0.1828 0.013418 0.020202
-0.00023549 -0.0010403 -0.001529 -0.0028697 -0.0005496 -0.0010502 -0.0021482 0.0013244
0.013778 0.020282 -0.14558 0.26083
1100000000 0.021298 0.30016 0.036855 -0.0024603 0.0034569 0.0042268 0.0023972 -0.00090116
-0.0021089 -0.0031986 -0.0042948 -0.00011392
0.036907 -0.0024573 -0.14173 0.3663 0.015975 -0.02754 -0.00010507 -0.0017256
-0.0033929 -0.00099079 -0.0038832 -0.00055775
0.0034567 0.0041977 0.015835 -0.027638 0.19619 0.27497 -0.0017682 0.00029501
-0.0016114 0.00065624 -0.0010916 -0.00055044
0.0025385 -0.0010441 -6.1968e-05 -0.0018424 -0.0017532 0.00028541 -0.0096484 0.28276
0.024474 0.0066105 -0.0026236 -1.2838e-05
-0.0021557 -0.0030293 -0.0033852 -0.00099138 -0.001568 0.00064869 0.024412 0.0066108
-0.089974 0.19873 0.019589 0.010323
-0.0043053 -0.00015758 -0.0036369 -0.00059577 -0.0011252 -0.00047913 -0.0027289 -0.00017159
0.019635 0.010256 -0.10013 0.29262
1160000000 0.072074 0.29726 0.025586 -0.019887 0.0034163 -0.00062104 -3.6268e-05 -0.002459
-0.0039645 -0.00091737 -0.0012749 0.0042648
0.025495 -0.019833 -0.098342 0.37156 -0.0031377 -0.02896 -0.0014374 -0.0015657
-0.0026613 0.0024917 -0.0018013 0.0017685
0.0034383 -0.00060468 -0.0032659 -0.028985 0.23958 0.24537 -0.00060755 0.001643
-0.00042871 0.0017915 -0.00098137 0.00037652
-0.00010721 -0.0024661 -0.0014564 -0.0015544 -0.00057936 0.0016474 0.02912 0.28041
0.021415 -0.0093695 -0.0035312 0.0053093
-0.0039992 -0.00088973 -0.0027283 0.0025448 -0.0003554 0.0017192 0.021454 -0.0095254
-0.055546 0.2097 0.019384 0.0012895
-0.0011549 0.004203 -0.0016144 0.0019213 -0.00096762 0.00017017 -0.0035067 0.0051426
0.019392 0.0011065 -0.053458 0.29662
1220000000 0.11615 0.28903 0.012433 -0.030034 -0.001164 -0.0015048 -5.1568e-05 -0.00096507
-0.00276 0.0022308 0.0011126 0.0020506
0.012428 -0.030049 -0.053998 0.38653 -0.016495 -0.021365 -0.0025491 0.00049851
5.095e-05 0.0030933 -0.00077552 0.001879
-0.0011786 -0.0014874 -0.01661 -0.021353 0.2796 0.20772 0.00085954 0.0015136
0.00060113 0.0010833 0.00025994 0.00058983
9.4976e-06 -0.0010573 -0.0025637 0.00051838 0.00088742 0.0015194 0.068866 0.27302
0.010985 -0.016283 0.0021592 0.0017176
-0.0027636 0.0022825 7.5214e-05 0.0030997 0.00054815 0.0011665 0.011126 -0.01626
-0.033335 0.22167 0.014914 -0.012344
0.0011228 0.0020677 -0.0007005 0.0018186 0.00026519 0.00058711 0.0021689 0.0016847
0.014946 -0.012333 -0.022928 0.31529
1280000000 0.16681 0.26944 -0.0066002 -0.029465 -0.0019414 0.0016514 -0.0009001 -0.002102
-0.00088159 0.0033458 0.0026313 0.0013306
-0.0065797 -0.029395 -0.0073468 0.37851 -0.023698 -0.008491 -0.00086758 0.0013826
0.0017159 0.0017665 0.00063303 0.0020123
-0.0019032 0.0017475 -0.023739 -0.0083775 0.31129 0.16441 0.0014169 -0.00015792
0.001022 0.00029373 0.00033734 0.00039156
-0.00090345 -0.0020811 -0.00082693 0.0013867 0.0014387 -0.00013055 0.10553 0.2573
0.0018415 -0.018805 8.2319e-06 0.00016602
-0.00089209 0.0033729 0.0016481 0.0017684 0.0010161 0.00033657 0.0018768 -0.018778
0.0038396 0.22721 0.0040685 -0.015349
0.0026383 0.0013664 0.00057674 0.0021913 0.00027231 0.00040761 6.0041e-06 0.00018389
0.0038944 -0.015311 0.024954 0.31838
1340000000 0.20431 0.23804 -0.016758 -0.02031 0.00039642 0.0041947 -0.0018885 -0.00083348
0.0015534 0.0028236 0.0018215 -0.0013725
-0.01676 -0.020255 0.031773 0.37214 -0.021067 0.0042527 -0.000215 0.0019633
0.0018872 0.00084565 0.0012124 0.00077958
0.00036216 0.0042023 -0.021087 0.0043388 0.33437 0.11735 0.00083485 -0.00095766
0.00053596 -0.00053324 4.2031e-05 0.00018974
-0.0018669 -0.00087482 -0.00016013 0.0019659 0.00083608 -0.00094812 0.13884 0.23812
-0.0074964 -0.016357 0.0011391 0.00051988
0.001399 0.0028679 0.0018495 0.00082549 0.00059661 -0.00049515 -0.0075289 -0.016321
0.033059 0.22581 -0.0029566 -0.014057
0.0017393 -0.0013956 0.0011698 0.00077932 0.00014088 0.0002106 0.0011959 0.00050031
-0.0029711 -0.014045 0.062821 0.31526
1400000000 0.23942 0.2018 -0.023537 -0.008905 0.0047347 0.0031193 -0.0022202 0.00076527
0.0025906 0.0010212 0.00037208 -0.0014273
-0.023496 -0.0088952 0.07062 0.36026 -0.014431 0.012341 0.0012625 0.0013472
0.0012068 -0.00067342 0.0011253 0.00021344
0.0047984 0.003106 -0.014395 0.012444 0.34889 0.063535 -9.4722e-05 -0.0014064
0.00011845 -0.00014944 0.00040465 0.00015571
-0.0022212 0.00076096 0.0012823 0.0013794 -9.7234e-05 -0.0013849 0.16928 0.20985
-0.013658 -0.0099127 -0.00083773 -0.0004715
0.0026422 0.00098136 0.0012089 -0.0006705 9.5278e-05 -0.00020337 -0.013706 -0.0098605
0.067326 0.22454 -0.0094694 -0.0094997
0.00040046 -0.0012969 0.0011902 0.00027968 0.0003175 0.0001597 -0.00080277 -0.00042091
-0.0094175 -0.009586 0.10825 0.30603
1460000000 0.26315 0.15878 -0.020885 0.0037936 0.0051951 -0.0015589 -0.0015513 0.0017784
0.0021916 -0.00039902 -0.00020628 -0.00097284
-0.020889 0.0038536 0.10521 0.33887 -0.0053907 0.015038 0.0016078 0.00028525
0.00098924 -0.0012176 0.0012823 -0.00053935
0.0052424 -0.0015903 -0.0053786 0.015088 0.35534 0.0085421 -0.0010445 -0.001056
0.0003278 -0.00017283 0.00062805 -0.00025863
-0.0015734 0.0017554 0.0015934 0.00025779 -0.0010289 -0.0010805 0.19633 0.18109
-0.014748 -0.0036668 -0.00098675 0.0018105
0.0021645 -0.00043143 0.00094398 -0.0012584 0.00027508 -0.00021916 -0.014815 -0.003638
0.096525 0.21254 -0.011624 -0.0032246
-0.00025748 -0.00088976 0.0012507 -0.00048302 0.00063173 -0.0001654 -0.00095775 0.0018439
-0.011648 -0.0032007 0.14171 0.2861
1520000000 0.27718 0.11845 -0.015624 0.0096181 0.0032382 -0.003969 0.00013785 0.0026763
0.0023971 -0.0019477 -0.0011002 -0.00015439
-0.015608 0.0096579 0.13964 0.32577 0.0020499 0.012369 0.0017011 -0.00066143
0.00016806 -0.00097569 0.00039775 -0.0010136
0.0032144 -0.0039848 0.0021303 0.012393 0.34863 -0.047849 -0.00075655 -0.00028365
0.00069876 -0.00087248 5.6901e-05 -0.00010672
0.00019769 0.0026568 0.0017203 -0.00064887 -0.00074881 -0.00031885 0.22077 0.14338
-0.014573 0.0018898 0.0013352 0.0020394
0.0023913 -0.0019166 0.00014773 -0.00098928 0.0007138 -0.00091608 -0.014625 0.0019176
0.12555 0.20221 -0.011794 0.0011183
-0.0011505 -0.00022421 0.00038374 -0.001036 9.4608e-05 -0.00012659 0.0013423 0.0020729
-0.011733 0.0011385 0.17553 0.26793
1580000000 0.28801 0.072677 -0.0090542 0.013357 -0.0010194 -0.0046039 0.0015159 0.001876
-0.00030551 -0.0022078 -0.00024051 0.00028888
-0.0090277 0.01339 0.1679 0.30094 0.005423 0.0072481 0.00060774 -0.0015498
-0.00045481 -0.0011411 -0.00021464 -0.00077708
-0.0010428 -0.0046125 0.0055129 0.0071896 0.32832 -0.10596 -0.0014558 0.00026505
-0.00033277 -0.0013929 0.00019356 -0.00068098
0.001558 0.0018811 0.00059364 -0.0015547 -0.001464 0.00024529 0.23566 0.10351
-0.011429 0.0069559 0.002145 0.0007582
-0.0002823 -0.0022325 -0.00044012 -0.0011586 -0.00034462 -0.0013309 -0.011383 0.0069786
0.15107 0.18667 -0.009419 0.0072428
-0.00022767 0.00033957 -0.00024354 -0.00075884 0.00021221 -0.00062071 0.0020818 0.00077607
-0.0094604 0.0072216 0.20911 0.24222
1640000000 0.29142 0.032041 -0.0020786 0.012538 -0.0027957 -0.0022402 0.0027654 0.0010195
-0.00067009 -0.0017001 -0.0003087 0.00052063
-0.0020423 0.012515 0.19758 0.27729 0.0055427 0.002333 -0.00045448 -0.0018492
-0.00090236 -0.0005604 -0.0004838 -0.00069827
-0.0028002 -0.0022712 0.0055745 0.0022859 0.2992 -0.15469 -0.00074085 0.0012129
-0.0010912 -0.0011144 -0.00023407 -0.00037246
0.002799 0.00099229 -0.00047005 -0.0018655 -0.00072693 0.0012 0.2487 0.054548
-0.0074953 0.0081957 0.0025329 -0.00061807
-0.00067709 -0.001669 -0.00089172 -0.000523 -0.0010918 -0.0011229 -0.0074694 0.0082033
0.17478 0.16576 -0.0046797 0.0094221
-0.00027567 0.00052642 -0.0004784 -0.0006954 -0.00017908 -0.00033787 0.0024644 -0.00065375
-0.0046217 0.0093601 0.23491 0.21247
1700000000 0.28631 -0.012901 0.0015617 0.0098858 -0.0033586 0.00031686 0.0031088 -0.0012648
-0.0021593 -0.0006742 0.00058951 0.00047694
0.0015871 0.009858 0.21706 0.24591 0.0028743 -0.00031342 -0.001483 -0.00074556
-0.0008458 -0.00016079 -0.00081108 -0.00044106
-0.0033622 0.0003144 0.0029015 -0.00033172 0.25584 -0.19371 2.6551e-05 0.0016055
-0.0020982 -0.00023509 -0.00036046 -0.0008112
0.0031312 -0.0013218 -0.001485 -0.00074173 4.146e-05 0.0016424 0.24623 0.0039216
-0.0048684 0.0091209 0.0017613 -0.0021548
-0.0021603 -0.00070069 -0.00086165 -0.00018243 -0.0021308 -0.0002176 -0.0049017 0.00916
0.19505 0.14811 4.5724e-05 0.0096731
0.00062104 0.00035743 -0.00079386 -0.00043812 -0.00029074 -0.00078691 0.0017788 -0.0021693
9.3577e-05 0.009662 0.25307 0.17908
1760000000 0.27544 -0.061767 0.004205 0.0067482 -0.0021119 0.0012424 0.0012995 -0.0035361
-0.0012742 0.0005366 0.0003286 -0.00053564
0.0041925 0.0067031 0.24316 0.20643 0.00022327 -0.0016869 -0.0012139 9.3856e-06
-0.0011834 0.00089653 -0.0005695 0.00031756
-0.002149 0.0012096 0.00024256 -0.0017351 0.20678 -0.22623 0.0010756 0.0013401
-0.0012461 0.0014391 -0.0011746 -0.00064954
0.0013561 -0.0035542 -0.0012527 2.0507e-05 0.0010552 0.0013645 0.23713 -0.048783
-0.0013607 0.0084186 -0.00024416 -0.0024515
-0.0011964 0.00055613 -0.0011893 0.00091817 -0.0012155 0.0015093 -0.0013559 0.0083647
0.21161 0.11568 0.0040641 0.0071999
0.0003149 -0.00057912 -0.00056886 0.00028253 -0.0011896 -0.00076872 -0.00018633 -0.002437
0.0040505 0.0072004 0.26665 0.14201
1820000000 0.2528 -0.099347 0.0045777 0.0030766 0.00022626 0.0023009 -0.0009305 -0.0031353
-0.0011941 0.00083358 -0.00020294 -6.6503e-05
0.0045614 0.0030551 0.25451 0.17714 -0.0018754 7.866e-05 -0.0015041 0.00092736
-0.00011016 0.0012666 -0.00072797 0.00043221
0.0002248 0.0023561 -0.0019205 0.00010487 0.15723 -0.24069 0.0015633 0.00080626
-0.00029754 0.0023557 -0.0016188 9.8201e-05
-0.00098252 -0.0031294 -0.0015234 0.00092356 0.0015497 0.00073306 0.20745 -0.096304
0.00017975 0.0071549 -0.0016592 -0.0018557
-0.0011798 0.00082935 -0.00013184 0.0012702 -0.00030871 0.0024183 0.00025302 0.0071461
0.23189 0.089022 0.0051281 0.0035156
-0.00015647 -0.0001438 -0.00070279 0.00041185 -0.0015753 0.00020543 -0.0016827 -0.0018018
0.0051099 0.0034757 0.27067 0.10714
1880000000 0.21871 -0.14091 0.0025092 0.00073396 -0.00024491 0.0022584 -0.0029153 -0.002249
-0.00027318 0.0016393 0.00031687 -0.0006281
0.0024505 0.00069624 0.2592 0.13033 -0.0037711 0.0027798 -0.00027651 0.0018553
0.00057853 0.0014422 0.00014315 0.0010036
-0.00022809 0.0022753 -0.0038074 0.0028079 0.10582 -0.24913 0.0021603 -0.0010232
0.0016252 0.002127 -0.0010336 0.001448
-0.0028672 -0.0023488 -0.00026808 0.0018241 0.0021115 -0.0010528 0.16657 -0.13703
0.0012118 0.0050783 -0.0024351 0.00038671
-0.00022026 0.0017439 0.00056799 0.0014323 0.0015671 0.0021102 0.0011952 0.0051423
0.23862 0.058467 0.0052731 0.0014156
0.00029909 -0.00060477 0.00012363 0.001018 -0.0010565 0.0014893 -0.0023762 0.00045263
0.0053183 0.0014331 0.27207 0.072795
1940000000 0.1796 -0.1672 0.00026023 -0.0011104 0.0017119 0.0020217 -0.0039661 0.00036115
0.0011608 0.00097884 -0.00062649 -0.00052896
0.00029621 -0.0011496 0.26047 0.099264 -0.0019664 0.0055959 0.0010491 0.00143
0.002094 0.00054666 0.00093103 0.00036924
0.0016739 0.001912 -0.0018607 0.0055556 0.061287 -0.24132 0.00073169 -0.0025337
0.0023965 0.00048138 0.00020049 0.0016174
-0.0039167 0.00031353 0.00112 0.001446 0.00072838 -0.0024674 0.11322 -0.16728
0.00033646 0.0036246 -0.0014579 0.0013784
0.0011022 0.00095242 0.0020925 0.00047243 0.0024145 0.00045891 0.00027721 0.0036087
0.24419 0.021923 0.0041196 -0.0025115
-0.00067073 -0.00060394 0.00089743 0.0003057 9.4001e-05 0.0016255 -0.0015158 0.0014433
0.0041451 -0.0024197 0.26167 0.037094
2000000000 0.13443 -0.18281 -0.003453 0.00076873 0.0030269 0.0012375 -0.0025391 0.0037875
0.00087849 0.00054511 -0.00072565 0.00036352
-0.0034588 0.00081768 0.24751 0.063966 -0.0005333 0.0077792 0.0016237 0.00043649
0.0012722 -0.0013985 0.00057105 7.3335e-05
0.0029836 0.0012917 -0.00052987 0.0077643 0.020362 -0.22726 -0.0015318 -0.0016305
0.0021372 -0.0010902 0.0017048 0.0015332
-0.002469 0.0037145 0.0016075 0.00033301 -0.0016139 -0.0016709 0.06009 -0.17737
-0.0012976 0.0033907 -0.0001425 0.0021133
0.00094902 0.00045465 0.0012864 -0.0014413 0.0021523 -0.0010973 -0.0012078 0.0033723
0.24246 -0.011507 0.00064992 -0.0034976
