!Keysight Technologies,M9804A,MY58100912,A.14.10.03
!Date: Thursday, April 27, 2023 10:28:33
!Correction: S11(C  6-Port  ) 
!S12(C  6-Port  ) 
!S13(C  6-Port  ) 
!S14(C  6-Port  ) 
!S15(C  6-Port  ) 
!S16(C  6-Port  ) 
!S21(C  6-Port  ) 
!S22(C  6-Port  ) 
!S23(C  6-Port  ) 
!S24(C  6-Port  ) 
!S25(C  6-Port  ) 
!S26(C  6-Port  ) 
!S31(C  6-Port  ) 
!S32(C  6-Port  ) 
!S33(C  6-Port  ) 
!S34(C  6-Port  ) 
!S35(C  6-Port  ) 
!S36(C  6-Port  ) 
!S41(C  6-Port  ) 
!S42(C  6-Port  ) 
!S43(C  6-Port  ) 
!S44(C  6-Port  ) 
!S45(C  6-Port  ) 
!S46(C  6-Port  ) 
!S51(C  6-Port  ) 
!S52(C  6-Port  ) 
!S53(C  6-Port  ) 
!S54(C  6-Port  ) 
!S55(C  6-Port  ) 
!S56(C  6-Port  ) 
!S61(C  6-Port  ) 
!S62(C  6-Port  ) 
!S63(C  6-Port  ) 
!S64(C  6-Port  ) 
!S65(C  6-Port  ) 
!S66(C  6-Port  ) 
!S6P File: Measurement: :
# Hz S  RI   R 50
500000000 -0.3282 -0.067062 -0.010081 -0.0016866 -0.0084092 0.012336 -0.0044493 0.01234
0.013406 0.0054372 -0.0050472 0.008485
-0.010277 -0.001741 -0.4102 -0.075556 0.0084291 -0.010714 0.0017121 0.012252
0.0086431 0.0038831 0.00060917 0.01456
-0.0084181 0.012606 0.0086522 -0.010638 -0.25885 0.1896 0.0069491 0.0033738
-0.0019182 0.0086953 0.00028945 0.012038
-0.0045639 0.011918 0.00085531 0.012147 0.0069469 0.0031137 -0.32726 0.037473
-0.018823 -0.004029 0.016046 0.027224
0.013127 0.0055325 0.0086102 0.0030077 -0.0023187 0.0081822 -0.020037 -0.0041148
-0.22151 -0.23299 -0.027367 0.0053169
-0.0056807 0.0087662 0.00066563 0.014401 0.00093857 0.012674 0.016674 0.024621
-0.027056 0.0051987 -0.26327 -0.14333
560000000 -0.31683 0.10285 -0.021439 -0.067373 0.00041432 0.012623 0.0048976 0.010952
0.010115 0.0042448 0.011069 0.008977
-0.021225 -0.068655 -0.37279 0.088721 -0.040872 -0.039572 0.013618 0.0043761
-0.012588 -0.0054425 0.003743 -0.0012458
0.00092187 0.013548 -0.040727 -0.039525 -0.18312 0.24023 -0.00034623 -0.0055903
0.018162 0.0067108 0.0081454 -0.0054477
0.0058131 0.010485 0.013504 0.0039511 -0.00042443 -0.0056616 -0.30566 0.12952
0.0056008 -0.021876 0.0065737 -0.022627
0.010719 0.0056485 -0.012952 -0.0056444 0.017934 0.0069213 0.0075346 -0.021588
-0.30055 -0.047926 0.010916 -0.051744
0.011364 0.0096054 0.0031858 -0.0010613 0.0080748 -0.0061573 0.0050305 -0.021973
0.010138 -0.051016 -0.33035 0.0052334
620000000 -0.27748 0.080785 -0.023444 0.0090228 0.0033238 0.0092789 0.0088899 -0.0043896
0.012396 -0.00093828 0.00044016 -0.0013582
-0.023321 0.0092236 -0.40056 0.035701 -0.018787 0.00011163 -0.0014117 -0.0019614
0.01289 -0.0060366 0.00025987 -0.0030982
0.0034002 0.0092177 -0.018778 0.00017078 -0.15593 0.24976 -0.00084352 -0.0053845
-0.0036722 -0.0024016 0.0088548 -0.0028099
0.0085814 -0.0048442 -0.0017317 -0.0022668 -0.0011483 -0.0055684 -0.26365 0.13936
-0.039585 -0.020456 0.013787 0.029361
0.012016 -0.00034111 0.012662 -0.0051278 -0.004049 -0.0025017 -0.037833 -0.019737
-0.21557 -0.087933 -0.043559 0.011653
0.00072479 -0.0017618 0.0011117 -0.0031144 0.0094046 -0.0033727 0.014275 0.026745
-0.044048 0.012529 -0.24602 -0.028921
680000000 -0.24285 0.17376 -0.026354 -0.015625 0.0045047 0.0054176 0.0016242 -0.0069486
-0.0016815 -0.011662 0.0058312 -0.0072953
-0.026433 -0.015214 -0.39085 0.13708 -0.032739 -0.0026554 -0.0017733 -0.00036415
-0.0015532 -0.0097032 -0.00073589 -0.0019566
0.0046881 0.0056288 -0.032906 -0.0024827 -0.1085 0.27212 -0.00095525 7.9929e-05
-0.0014619 0.00076773 -0.0027908 -0.0090031
0.0014804 -0.007268 -0.0019191 -0.00034955 -0.00083045 0.00011421 -0.22081 0.1919
-0.023209 -0.0078703 -0.0097301 -0.011163
-0.0020802 -0.011326 -0.0015393 -0.0096127 -0.0014673 0.00070278 -0.023052 -0.0080167
-0.2818 0.015678 -0.0050078 -0.0079386
0.005375 -0.0074487 -0.0011886 -0.001931 -0.0029052 -0.0091021 -0.0097779 -0.010454
-0.0048291 -0.0081903 -0.26275 0.074237
740000000 -0.19606 0.16686 -0.041315 0.026753 0.013821 -0.0039519 0.00028681 -0.0042177
-0.0038571 -0.0023481 -0.0066848 0.0024598
-0.040991 0.026676 -0.33701 0.15675 -0.037462 0.034474 0.00039001 -0.0059237
-0.01333 0.0066934 -0.0010095 -0.0050047
0.013807 -0.0041526 -0.037546 0.034461 -0.075524 0.27235 -0.0020428 0.0031545
-0.0012016 -0.0053106 -0.0020812 0.00091912
0.00039785 -0.003926 0.00039681 -0.0060987 -0.0020927 0.0035244 -0.20385 0.19921
-0.041652 -0.0087691 0.022308 0.016026
-0.0045905 -0.002027 -0.012889 0.0074239 -0.0013299 -0.0053297 -0.042467 -0.0095593
-0.18002 0.049467 -0.043852 0.0011804
-0.0063371 0.0028883 -0.0010859 -0.0059325 -0.0018423 0.00099287 0.022661 0.015985
-0.043823 0.0011175 -0.25157 0.079577
800000000 -0.16664 0.21319 -0.022936 0.015729 0.0056498 -0.010228 -0.0045827 -0.0024644
-0.0045863 0.0018724 0.0044753 0.00092896
-0.022931 0.016016 -0.34545 0.22795 -0.0092401 0.034391 -0.0021509 0.0019971
-0.00042154 0.0023663 0.00057828 0.0056622
0.0056781 -0.010186 -0.0090673 0.034456 -0.037181 0.29846 0.0009708 0.0013001
-6.4897e-05 0.0033604 -0.0017794 0.00060514
-0.004587 -0.0025833 -0.0021049 0.0020756 0.00096987 0.0012271 -0.17477 0.22707
-0.029 0.013101 0.014859 -0.010537
-0.0045143 0.0015573 -0.00039009 0.0022033 2.5764e-05 0.0034021 -0.028586 0.012847
-0.23233 0.073283 -0.019071 0.020823
0.0042419 0.00067589 0.00081348 0.0052989 -0.0018155 0.00067982 0.014585 -0.010386
-0.019054 0.021373 -0.24833 0.13176
860000000 -0.13323 0.2339 -0.018584 0.0302 -0.0030978 -0.01021 -0.0021575 0.00026211
0.0043194 0.0054762 -0.0038515 -0.0033477
-0.018625 0.030367 -0.29896 0.27261 0.006987 0.034586 0.00011504 0.0018359
0.0037988 0.0004168 0.0034627 -0.00016253
-0.0031634 -0.010172 0.0070253 0.034591 0.01066 0.30854 -0.00055208 -0.00054431
0.0025492 -0.001867 0.0017594 0.0041169
-0.0019871 0.0004362 5.5907e-05 0.0017944 -0.00036097 -0.00051712 -0.13879 0.2383
-0.018597 0.017087 -0.0066069 -0.0085226
0.0041758 0.0054676 0.0038349 0.00047068 0.0023864 -0.0018767 -0.01852 0.017121
-0.17701 0.13281 -0.027143 0.015949
-0.0040362 -0.0033715 0.0037123 -1.6821e-05 0.0016964 0.0042728 -0.0062328 -0.0092924
-0.027044 0.015712 -0.19738 0.17769
920000000 -0.11044 0.25777 0.0039513 0.03926 -0.0092865 -0.0046756 -0.0018723 0.0017752
0.00021012 0.0016204 0.0029752 -0.0013827
0.0038577 0.039306 -0.27193 0.29506 0.027885 0.023368 0.0014555 0.0010499
0.0073001 0.00028553 0.0040416 -0.0027331
-0.0093887 -0.0046823 0.027974 0.023262 0.056974 0.31115 0.0017898 -0.00011467
0.00052016 -0.00035208 0.0010015 -0.0013912
-0.0019327 0.0018165 0.0014113 0.0012114 0.0017351 -7.4078e-05 -0.11475 0.25592
-0.012807 0.030341 0.0041015 -0.0067453
0.00019795 0.0015468 0.0073737 0.00013374 0.0004588 -0.00017294 -0.012294 0.03063
-0.17023 0.139 -0.0037324 0.028387
0.0031196 -0.0014837 0.0041302 -0.0028318 0.00082434 -0.0014206 0.0044266 -0.0064072
-0.0037463 0.028201 -0.20763 0.19248
980000000 -0.064335 0.27939 0.016157 0.030873 -0.0095899 0.0046371 0.0017878 0.0037287
0.0038989 -0.0015225 -0.0035249 -0.0024438
0.016078 0.030863 -0.21994 0.33189 0.033127 0.0058536 0.0019825 -0.00013574
0.0017116 -0.0060305 -0.00054702 -0.0027356
-0.0095276 0.0046695 0.033163 0.0057275 0.10327 0.30587 0.00046627 -0.0011093
0.00014064 -0.0017293 0.0014499 -0.00031568
0.0017429 0.0036522 0.0018808 -0.00019872 0.00044336 -0.0011598 -0.077017 0.26707
0.0065327 0.029922 -0.0093052 -0.0075349
0.0039752 -0.0015773 0.0017924 -0.0059864 0.00026093 -0.0017351 0.0063754 0.030054
-0.14028 0.1736 0.0048148 0.020597
-0.0037273 -0.0028261 -0.00037905 -0.0025709 0.0014859 -0.00031852 -0.009595 -0.0077363
0.0049912 0.020495 -0.16596 0.2392
1040000000 -0.023624 0.28972 0.033004 0.020296 -0.0011707 0.0074745 0.0026246 0.0009195
0.00036222 -0.0034004 -0.00019082 -0.0016879
0.033014 0.020246 -0.18531 0.34658 0.030075 -0.014015 0.0015121 -0.0016089
-0.002243 -0.0023575 -0.0012492 -0.0030932
-0.0012416 0.0074641 0.030047 -0.014136 0.1494 0.29384 -0.00049305 -0.0013871
-0.0015458 -0.00084273 -0.00064652 -0.0011216
0.0026119 0.00092002 0.0014865 -0.0016097 -0.00049976 -0.0013361 -0.049966 0.27758
0.018255 0.019594 -0.0023574 0.0013694
0.00031858 -0.0032774 -0.0023787 -0.0023749 -0.0015423 -0.00089824 0.018468 0.019486
-0.1084 0.18277 0.013887 0.019823
-8.6075e-05 -0.0014794 -0.0013523 -0.0027518 -0.00068945 -0.0010404 -0.0024093 0.0013957
0.013678 0.019987 -0.14559 0.26037
1100000000 0.021142 0.29999 0.03687 -0.0024612 0.0035081 0.0042675 0.0023475 -0.0010123
-0.0021404 -0.003141 -0.0042452 -3.0906e-05
0.03679 -0.0024704 -0.14153 0.36625 0.015962 -0.027485 -0.00014361 -0.001826
-0.0032864 -0.0010138 -0.0037333 -0.00060186
0.0034912 0.0041735 0.015873 -0.027637 0.19623 0.27493 -0.0017749 0.00031863
-0.0016674 0.00065838 -0.001152 -0.00055654
0.0024247 -0.00098374 -7.0823e-05 -0.0017746 -0.0017489 0.00028383 -0.0096178 0.28282
0.024323 0.0067051 -0.0026106 -5.7411e-05
-0.0021184 -0.0032188 -0.0033977 -0.00096673 -0.0016214 0.00067729 0.024362 0.0066414
-0.089691 0.19866 0.019743 0.010508
-0.0042516 4.1564e-05 -0.0037536 -0.00050292 -0.0011384 -0.00050244 -0.0025255 1.7895e-05
0.019689 0.010411 -0.099857 0.29259
1160000000 0.072112 0.29725 0.025528 -0.019859 0.0034383 -0.00059956 -0.00010261 -0.0024662
-0.0040186 -0.00095673 -0.0013407 0.0041979
0.025503 -0.01981 -0.09841 0.37153 -0.0031504 -0.028953 -0.0014858 -0.0016315
-0.0026493 0.0025141 -0.0017833 0.0017972
0.003481 -0.00062148 -0.0032636 -0.028971 0.23958 0.24538 -0.00062328 0.0016311
-0.00038359 0.0018034 -0.00090857 0.00034748
-1.0934e-05 -0.002454 -0.0015452 -0.0015888 -0.00058315 0.0016478 0.029009 0.28042
0.021674 -0.0094215 -0.0038724 0.005238
-0.004054 -0.00084964 -0.0026952 0.0024963 -0.00040468 0.0018053 0.021436 -0.0096108
-0.055162 0.21015 0.019339 0.00083146
-0.0012775 0.0041538 -0.0016059 0.0020413 -0.00093449 0.00027253 -0.0035013 0.0052537
0.019339 0.00090904 -0.053059 0.2967
1220000000 0.11606 0.28903 0.012433 -0.02995 -0.0011589 -0.0015155 -2.2631e-05 -0.0009837
-0.002765 0.0021793 0.0011648 0.0019964
0.012411 -0.029964 -0.053909 0.3864 -0.016534 -0.02142 -0.0025068 0.0004862
3.9149e-05 0.0030688 -0.00070321 0.0018761
-0.0011865 -0.0014977 -0.01666 -0.021387 0.27956 0.20777 0.00087764 0.0014802
0.00056541 0.0010597 0.00017915 0.0005933
-3.1492e-05 -0.0010063 -0.0025156 0.00048464 0.00087384 0.001495 0.068861 0.27313
0.011025 -0.016278 0.0021869 0.0016373
-0.002741 0.00222 3.3403e-05 0.0030492 0.00050174 0.0010982 0.011129 -0.016256
-0.033201 0.22162 0.015151 -0.012218
0.0011673 0.0020434 -0.00075786 0.0019148 0.00026048 0.00062452 0.0021678 0.0017689
0.014995 -0.012285 -0.022608 0.31485
1280000000 0.16678 0.26942 -0.0065137 -0.02935 -0.001952 0.0016783 -0.00088359 -0.002068
-0.00093936 0.0033509 0.002582 0.001277
-0.0065221 -0.029368 -0.0072588 0.3785 -0.02374 -0.0084778 -0.00078702 0.0013811
0.0016358 0.0018292 0.00065809 0.0020388
-0.001916 0.001709 -0.023776 -0.0083756 0.31129 0.16438 0.0014191 -8.1584e-05
0.0010167 0.00024629 0.00024442 0.00037312
-0.00090836 -0.0020596 -0.00085961 0.0013839 0.0014151 -7.9805e-05 0.10548 0.25726
0.0020207 -0.018714 4.9109e-05 9.4121e-05
-0.00095333 0.0033808 0.0017273 0.0017615 0.00097518 0.00031024 0.0018711 -0.018823
0.0040239 0.2275 0.0038952 -0.015388
0.0026086 0.0013063 0.0006903 0.0020668 0.00036456 0.00035658 3.3272e-06 0.00018515
0.0038564 -0.01544 0.025363 0.31876
1340000000 0.20426 0.23814 -0.016658 -0.020269 0.00032862 0.0041772 -0.0018764 -0.00076462
0.0014753 0.0027716 0.0018406 -0.0013775
-0.016632 -0.020293 0.031783 0.37203 -0.021136 0.0042611 -0.00016684 0.0019481
0.0019015 0.00085816 0.0011013 0.00077551
0.00035161 0.0041889 -0.021144 0.0043612 0.33432 0.11738 0.0008339 -0.00093619
0.00057247 -0.0005174 4.8277e-06 0.00023145
-0.0018728 -0.00080138 -0.00016671 0.0019248 0.00083869 -0.00094499 0.13879 0.23809
-0.0074748 -0.016368 0.001178 0.00061292
0.001516 0.0027393 0.0018651 0.00078893 0.00056105 -0.00056643 -0.0075454 -0.016364
0.033429 0.22572 -0.0030646 -0.01407
0.0017995 -0.0014136 0.0011971 0.00077736 6.7855e-05 0.00023796 0.0011939 0.00048799
-0.0029585 -0.014009 0.062819 0.31524
1400000000 0.23936 0.20187 -0.023419 -0.0089059 0.0047774 0.0031268 -0.0022139 0.00070409
0.0025032 0.0010211 0.00039776 -0.0013957
-0.023388 -0.0088676 0.070662 0.36027 -0.014463 0.01237 0.0012561 0.0013879
0.0011779 -0.00062911 0.0012368 0.00026971
0.0047978 0.0031349 -0.014392 0.012461 0.34884 0.063557 -0.00010754 -0.0013572
6.2696e-05 -0.00019285 0.00047955 0.00021262
-0.0021964 0.00073396 0.0012736 0.0013845 -6.5733e-05 -0.0013332 0.16923 0.20986
-0.013598 -0.0099945 -0.00086396 -0.00053344
0.0026043 0.00097089 0.0011553 -0.00066453 9.1755e-05 -0.00019242 -0.013694 -0.009983
0.067346 0.22452 -0.0094468 -0.0094434
0.00037596 -0.001419 0.0011505 0.00020464 0.00038587 0.00029535 -0.0009283 -0.00038167
-0.0095178 -0.0094997 0.1084 0.30614
1460000000 0.26317 0.15888 -0.020851 0.0036926 0.0052093 -0.0015808 -0.0015458 0.0017184
0.0021486 -0.00038965 -0.00034288 -0.00082459
-0.020837 0.0036861 0.10523 0.33889 -0.0054151 0.015066 0.0016035 0.00026271
0.0010322 -0.0012171 0.0012461 -0.00052783
0.0051893 -0.0016036 -0.0053658 0.015118 0.35539 0.0084344 -0.0010128 -0.0010846
0.00035519 -0.00017532 0.00064229 -0.00022432
-0.0015424 0.0017897 0.0016016 0.00027988 -0.0010425 -0.0010744 0.19626 0.18107
-0.014782 -0.0036432 -0.00088249 0.0017663
0.0022296 -0.00038307 0.0010384 -0.001215 0.00028372 -0.00023636 -0.01478 -0.0036179
0.096859 0.21253 -0.011695 -0.0032906
-0.00021129 -0.00085273 0.0012241 -0.0005316 0.0006479 -0.00024987 -0.0010539 0.0018716
-0.011738 -0.0032967 0.14188 0.28631
1520000000 0.27717 0.1185 -0.01561 0.0095159 0.0031967 -0.0039547 0.00015904 0.0026617
0.0023046 -0.0019055 -0.0010737 -0.00015874
-0.015595 0.0095454 0.13968 0.32577 0.0020748 0.01243 0.0016813 -0.00066318
0.00018793 -0.0009515 0.00037813 -0.0010094
0.003192 -0.0039764 0.0021461 0.012443 0.34854 -0.047783 -0.00081564 -0.00027323
0.00061411 -0.00086507 8.6895e-05 -7.6824e-05
0.00015163 0.0026281 0.0016957 -0.0006619 -0.00075407 -0.00029258 0.22078 0.14338
-0.014608 0.0018182 0.001372 0.0020669
0.0023611 -0.0019212 0.00018726 -0.0009923 0.00061188 -0.00086593 -0.014632 0.0018977
0.12585 0.20208 -0.011806 0.001225
-0.0011429 -0.00011608 0.0003441 -0.0010032 7.7474e-05 -0.00011636 0.001397 0.0019647
-0.011761 0.0011987 0.17557 0.26788
1580000000 0.28804 0.072691 -0.009099 0.013324 -0.0010401 -0.0046472 0.0015159 0.0018671
-0.00030314 -0.0022425 -0.00023216 0.00032275
-0.0090875 0.01327 0.16796 0.30094 0.0054769 0.0072219 0.00059614 -0.0015599
-0.00044109 -0.0011338 -0.0001554 -0.00076571
-0.001047 -0.0046622 0.0054979 0.007205 0.32849 -0.10594 -0.0014758 0.00025271
-0.00033364 -0.0013704 0.00019452 -0.00063347
0.0015321 0.0018764 0.00061285 -0.0015243 -0.0014891 0.00024866 0.23568 0.10349
-0.011503 0.0069547 0.0021275 0.00083357
-0.00029628 -0.0022171 -0.00043597 -0.0011228 -0.00032265 -0.0013895 -0.011476 0.0069447
0.15118 0.18653 -0.009329 0.0072188
-0.00025225 0.00029828 -0.00021128 -0.00079083 0.00018776 -0.00065007 0.0020204 0.00088333
-0.0093171 0.0072032 0.20909 0.24212
1640000000 0.2915 0.032101 -0.0021254 0.012469 -0.0027979 -0.0022912 0.0028003 0.0010119
-0.00064422 -0.0016805 -0.00033575 0.00053646
-0.0021626 0.012483 0.19762 0.27725 0.0055687 0.0023482 -0.00044 -0.0018548
-0.00090687 -0.00058534 -0.00049632 -0.00068422
-0.002818 -0.0022311 0.005583 0.0022948 0.29925 -0.15463 -0.00073729 0.0011737
-0.0011191 -0.0010775 -0.00013477 -0.0004108
0.0027459 0.0010185 -0.00046592 -0.0018481 -0.00066909 0.0011895 0.2487 0.054624
-0.0074949 0.008236 0.0025563 -0.00067262
-0.00066116 -0.0016986 -0.00090916 -0.00054299 -0.0010777 -0.001046 -0.0075015 0.0082812
0.17499 0.16573 -0.0046993 0.0094986
-0.00033983 0.00051976 -0.00044049 -0.00069031 -0.00024815 -0.00040206 0.0025106 -0.00065289
-0.0047259 0.0095071 0.23508 0.21244
1700000000 0.28639 -0.012955 0.0014949 0.0099066 -0.003365 0.00032507 0.003173 -0.001214
-0.0021612 -0.00071546 0.00064109 0.00051562
0.0014895 0.0098883 0.21713 0.24585 0.0029057 -0.00037876 -0.0014529 -0.00074712
-0.00085002 -0.00020374 -0.0008272 -0.00044597
-0.0033651 0.00035324 0.0028898 -0.00036095 0.25584 -0.19387 0.00014991 0.0015944
-0.0021391 -0.0002035 -0.00026943 -0.000683
0.0031153 -0.0012668 -0.0014776 -0.00075096 7.4027e-05 0.0016079 0.24632 0.0038494
-0.004861 0.0091014 0.0016439 -0.0021644
-0.002173 -0.00062828 -0.00083357 -0.00016516 -0.0020918 -0.00022489 -0.004771 0.0091005
0.19528 0.14791 0.00010898 0.0096082
0.0006385 0.00047278 -0.00083326 -0.0004433 -0.00030984 -0.00084028 0.0017709 -0.0020908
7.0909e-05 0.0096165 0.25301 0.17887
1760000000 0.27545 -0.061882 0.0041262 0.0067742 -0.0021168 0.0012325 0.0013507 -0.0035184
-0.0012605 0.00050919 0.0003415 -0.00052489
0.0041276 0.0067749 0.24317 0.20634 0.00021291 -0.0017517 -0.0012592 4.3877e-07
-0.001184 0.0008876 -0.00060337 0.00028925
-0.0020954 0.0012144 0.00020226 -0.0017528 0.20689 -0.22629 0.0010562 0.0013036
-0.0012012 0.0014149 -0.0013399 -0.00077181
0.001312 -0.003472 -0.0012552 1.1019e-05 0.001085 0.001345 0.23711 -0.048596
-0.0013541 0.0084386 -0.00014335 -0.002496
-0.0012613 0.00054725 -0.0011669 0.00091593 -0.0012127 0.0014941 -0.0014146 0.0085137
0.21187 0.11554 0.004086 0.0071432
0.00029802 -0.00057769 -0.00055396 0.00031626 -0.0012229 -0.00056703 -0.00016919 -0.0024882
0.0040875 0.0070392 0.26645 0.14148
1820000000 0.25282 -0.099442 0.0045754 0.0031395 0.00016103 0.0023096 -0.00095117 -0.0031347
-0.0012034 0.00084543 -0.00014379 -7.6784e-05
0.0045592 0.0031268 0.2545 0.17708 -0.0019242 9.7728e-05 -0.0015232 0.00093409
-9.9463e-05 0.0012614 -0.00070633 0.00039411
0.00024242 0.0023577 -0.0018938 9.3204e-05 0.15722 -0.24067 0.0016721 0.00079357
-0.00027787 0.0023706 -0.0016134 0.00012074
-0.0010118 -0.003154 -0.0015351 0.00096614 0.0015385 0.00085531 0.20742 -0.096339
0.00023714 0.0071893 -0.0016763 -0.0018666
-0.0011683 0.00081157 -0.00013077 0.0012699 -0.00040851 0.0024111 0.00030913 0.0071599
0.23206 0.088894 0.0051194 0.0034926
-0.00016124 -7.9468e-05 -0.00068514 0.00043543 -0.001665 0.0001221 -0.0016611 -0.0017407
0.0051693 0.0035051 0.27081 0.10703
1880000000 0.2187 -0.14099 0.0024767 0.00075743 -0.0002482 0.0022302 -0.0029226 -0.0023429
-0.00024401 0.0016691 0.0002711 -0.00059915
0.0024551 0.00078426 0.25922 0.13019 -0.0037322 0.0027659 -0.0003184 0.001847
0.00059142 0.0014436 0.00011503 0.0010131
-0.00030002 0.0022324 -0.0037464 0.0028078 0.10592 -0.24919 0.0021796 -0.00092622
0.0015052 0.0021086 -0.0010254 0.0014888
-0.0029219 -0.0023402 -0.00027041 0.0018705 0.0021686 -0.0010401 0.16629 -0.13698
0.0012839 0.0051616 -0.0024851 0.00047958
-0.00026032 0.0016832 0.00057435 0.0014532 0.0015923 0.0020788 0.0011471 0.0051921
0.23875 0.058198 0.005226 0.001482
0.00035102 -0.00061984 0.00012095 0.0010325 -0.0010478 0.0014459 -0.0023518 0.00037463
0.0052174 0.0015112 0.27168 0.072566
1940000000 0.17953 -0.16728 0.00037408 -0.0011041 0.001745 0.0019123 -0.0038435 0.00034712
0.0011349 0.00097246 -0.00059496 -0.00043285
0.00036457 -0.0010769 0.26046 0.099261 -0.0019042 0.0055384 0.0011093 0.0015134
0.0020471 0.00051205 0.00089907 0.00042762
0.0017295 0.0019345 -0.0019072 0.0055714 0.061301 -0.24135 0.00070387 -0.0025278
0.0024166 0.00045323 0.00011353 0.0017026
-0.0038389 0.00029566 0.0011323 0.0014296 0.00069752 -0.0025763 0.11333 -0.16741
0.00029398 0.0036139 -0.001605 0.0013849
0.0011346 0.00095019 0.0020785 0.00047933 0.0023781 0.00042847 0.00042622 0.0035931
0.24424 0.021606 0.004063 -0.0025357
-0.00057518 -0.00049478 0.00090402 0.00036192 0.00017966 0.001647 -0.0016175 0.0015183
0.0040421 -0.0025918 0.26177 0.037178
2000000000 0.13431 -0.18274 -0.0034099 0.00089313 0.0030066 0.0012736 -0.0024258 0.0037993
0.00085804 0.00050318 -0.00081942 0.00043655
-0.0034065 0.00082573 0.24739 0.063905 -0.00057599 0.0077589 0.001623 0.00037431
0.0013054 -0.0014408 0.0005784 8.9736e-05
0.0029232 0.0012512 -0.00059856 0.0078158 0.020426 -0.2272 -0.001618 -0.0016318
0.0021427 -0.0011285 0.0015746 0.0014942
-0.0024563 0.0037405 0.0016595 0.00036295 -0.0015756 -0.0017718 0.059814 -0.17727
-0.0013095 0.0034587 -0.00012289 0.0019966
0.00088017 0.00056011 0.0012658 -0.0013871 0.0021443 -0.0011365 -0.0013805 0.0034321
