!Keysight Technologies,M9804A,MY58100912,A.14.10.03
!Date: Thursday, April 27, 2023 10:28:33
!Correction: S11(C  6-Port  ) 
!S12(C  6-Port  ) 
!S13(C  6-Port  ) 
!S14(C  6-Port  ) 
!S15(C  6-Port  ) 
!S16(C  6-Port  ) 
!S21(C  6-Port  ) 
!S22(C  6-Port  ) 
!S23(C  6-Port  ) 
!S24(C  6-Port  ) 
!S25(C  6-Port  ) 
!S26(C  6-Port  ) 
!S31(C  6-Port  ) 
!S32(C  6-Port  ) 
!S33(C  6-Port  ) 
!S34(C  6-Port  ) 
!S35(C  6-Port  ) 
!S36(C  6-Port  ) 
!S41(C  6-Port  ) 
!S42(C  6-Port  ) 
!S43(C  6-Port  ) 
!S44(C  6-Port  ) 
!S45(C  6-Port  ) 
!S46(C  6-Port  ) 
!S51(C  6-Port  ) 
!S52(C  6-Port  ) 
!S53(C  6-Port  ) 
!S54(C  6-Port  ) 
!S55(C  6-Port  ) 
!S56(C  6-Port  ) 
!S61(C  6-Port  ) 
!S62(C  6-Port  ) 
!S63(C  6-Port  ) 
!S64(C  6-Port  ) 
!S65(C  6-Port  ) 
!S66(C  6-Port  ) 
!S6P File: Measurement: :
# Hz S  RI   R 50
500000000 -0.32846 -0.06602 -0.0099113 -0.0013703 -0.0082117 0.01239 -0.0040581 0.012708
0.013354 0.0047917 -0.0051187 0.0092545
-0.010085 -0.0012074 -0.40975 -0.076007 0.0089477 -0.010835 0.0012712 0.012111
0.0087417 0.0035238 0.00046642 0.013995
-0.0082692 0.012644 0.0089022 -0.010837 -0.25876 0.18892 0.0069033 0.0031578
-0.0019856 0.0083462 0.00065343 0.012235
-0.004236 0.012298 0.00098067 0.011993 0.0067382 0.0030576 -0.32751 0.039553
-0.020227 -0.0042428 0.015481 0.027284
0.013085 0.0053678 0.0089126 0.0037003 -0.0019563 0.008432 -0.020147 -0.0041557
-0.22043 -0.23149 -0.02899 0.0050064
-0.0045126 0.009603 0.00073035 0.013861 0.00083711 0.011789 0.016264 0.027645
-0.029625 0.0048959 -0.26395 -0.14374
560000000 -0.31937 0.10287 -0.021155 -0.066962 -0.00013255 0.013369 0.0053496 0.01102
0.010991 0.0056719 0.010448 0.0081902
-0.021339 -0.066681 -0.37288 0.090013 -0.040931 -0.039848 0.013716 0.0036513
-0.011714 -0.0068003 0.0044171 -0.00095635
-0.00017575 0.013187 -0.041313 -0.039828 -0.18358 0.24053 -0.00069304 -0.0058895
0.018683 0.0083301 0.0080067 -0.0063488
0.0054398 0.010961 0.013989 0.0033201 -0.00049153 -0.0058123 -0.30535 0.12996
0.0067475 -0.023423 0.006523 -0.021631
0.010292 0.0051749 -0.012434 -0.0068095 0.01856 0.0080623 0.0066226 -0.023219
-0.30419 -0.046083 0.012315 -0.051884
0.0097575 0.0091036 0.004789 -0.0003499 0.0073941 -0.0065743 0.0061816 -0.021259
0.012169 -0.052105 -0.33154 0.0059499
620000000 -0.27649 0.079986 -0.023286 0.0087138 0.0033971 0.0090972 0.0085528 -0.004994
0.011596 -0.00026143 0.00053163 -0.0020816
-0.023368 0.0087906 -0.40073 0.035682 -0.018914 4.4973e-05 -0.0014007 -0.002382
0.012137 -0.005289 0.00084228 -0.0025779
0.0035309 0.0089325 -0.018946 8.3043e-05 -0.1564 0.24958 -0.0013312 -0.0055877
-0.0043792 -0.0022283 0.0090906 -0.0034565
0.0085458 -0.0048663 -0.0013882 -0.0024256 -0.0015491 -0.0055582 -0.26266 0.13984
-0.03922 -0.020764 0.01283 0.028513
0.011852 -0.00047489 0.012209 -0.0052739 -0.0041111 -0.0023446 -0.039337 -0.020566
-0.21719 -0.084954 -0.04272 0.013203
0.00032146 -0.0023059 0.00094803 -0.0027871 0.0087749 -0.0030953 0.012927 0.028385
-0.04306 0.013252 -0.24593 -0.030468
680000000 -0.24203 0.17302 -0.025938 -0.015371 0.00487 0.0054661 0.001282 -0.0069034
-0.0014397 -0.011874 0.0067293 -0.0075896
-0.025938 -0.015451 -0.39072 0.13728 -0.032682 -0.0025287 -0.0018085 -0.00038809
-0.0017037 -0.0099526 -0.00065072 -0.0024571
0.0049084 0.0054269 -0.032737 -0.0024282 -0.1084 0.2721 -0.0008682 0.0002527
-0.0011001 0.00063171 -0.0025881 -0.0093915
0.0013041 -0.0068659 -0.0017329 -0.00044538 -0.00079325 0.00022811 -0.22084 0.19198
-0.02226 -0.0079003 -0.0094733 -0.012077
-0.0014978 -0.011819 -0.0018132 -0.0099952 -0.0011914 0.00070634 -0.022389 -0.008013
-0.28179 0.016254 -0.0052127 -0.007724
0.0066502 -0.0073881 -0.00091041 -0.0023452 -0.0027497 -0.0095528 -0.0098281 -0.011816
-0.0047763 -0.0073411 -0.26182 0.074624
740000000 -0.19658 0.16625 -0.040867 0.026455 0.013658 -0.0037573 -0.00016299 -0.0043415
-0.0041523 -0.0011569 -0.006725 0.0026621
-0.040954 0.026523 -0.33681 0.15718 -0.037776 0.034391 0.00027136 -0.0059266
-0.013191 0.0067173 -0.00079174 -0.0054815
0.013555 -0.004011 -0.037594 0.034493 -0.0756 0.2725 -0.0021439 0.0031102
-0.00095654 -0.0051091 -0.0022868 0.00073638
-1.109e-06 -0.0042645 0.00035094 -0.0057614 -0.0021808 0.0030914 -0.2035 0.19904
-0.042688 -0.010198 0.022265 0.016693
-0.0040336 -0.0016346 -0.012984 0.0066544 -0.0010807 -0.0051511 -0.042811 -0.010157
-0.18094 0.050868 -0.042897 -0.00086188
-0.0067853 0.0027615 -0.0010086 -0.005961 -0.0019479 0.00046921 0.023052 0.016018
-0.044127 -0.0011046 -0.25303 0.080791
800000000 -0.16657 0.21344 -0.022789 0.016034 0.005635 -0.010277 -0.0044065 -0.0025597
-0.0042762 0.0017226 0.0044869 0.0010922
-0.022733 0.016007 -0.34541 0.22826 -0.0093188 0.034363 -0.0021878 0.0019029
-0.00056647 0.0024738 0.0010586 0.0055205
0.0057109 -0.010283 -0.0091919 0.034454 -0.037087 0.2983 0.0011511 0.0011374
-1.8464e-05 0.0034463 -0.0017378 0.00076367
-0.0045148 -0.0024083 -0.0021627 0.0019969 0.0011583 0.0011576 -0.17478 0.22698
-0.028744 0.012618 0.01441 -0.010761
-0.004168 0.0019303 -0.00047343 0.0024684 -0.00011951 0.0034864 -0.028906 0.012618
-0.23268 0.074191 -0.01813 0.020701
0.0045777 0.00075797 0.0010937 0.0056131 -0.0014432 0.00066163 0.014527 -0.010338
-0.018229 0.020545 -0.24777 0.13036
860000000 -0.13321 0.2339 -0.018583 0.030324 -0.0029445 -0.010097 -0.0021256 0.00066006
0.0042903 0.0053581 -0.0035616 -0.0029858
-0.018614 0.030413 -0.2988 0.27265 0.0068925 0.034607 0.00039866 0.0018164
0.003836 0.00014458 0.0036033 0.00059382
-0.0029618 -0.010107 0.0070377 0.034631 0.010581 0.30856 -0.0005375 -0.00036662
0.0025247 -0.0017707 0.0016832 0.0044161
-0.001987 0.00059137 0.00033694 0.0018869 -0.00052017 -0.00037798 -0.13917 0.23841
-0.018542 0.01674 -0.0066141 -0.0089874
0.0043969 0.0052543 0.0037954 0.00020172 0.0026333 -0.0018265 -0.018371 0.016886
-0.17681 0.13355 -0.026563 0.016377
-0.0036315 -0.0030716 0.0039844 0.00026774 0.0016417 0.0044239 -0.0064768 -0.0092111
-0.027516 0.016036 -0.1983 0.17914
920000000 -0.1102 0.25793 0.0040924 0.039415 -0.0093266 -0.0046347 -0.0020051 0.00187
0.00063733 0.0014997 0.002895 -0.0014201
0.0040987 0.039332 -0.27192 0.29516 0.027943 0.023368 0.00132 0.0012035
0.0074705 0.00019204 0.0038439 -0.0030132
-0.00929 -0.0046005 0.028027 0.023265 0.05699 0.31117 0.0016576 8.0978e-06
0.00061527 -0.00030142 0.00094116 -0.0015365
-0.0019914 0.0019265 0.0013232 0.0012573 0.0016938 -3.2234e-05 -0.11508 0.25597
-0.012343 0.030075 0.0040351 -0.0067689
0.00067278 0.0015193 0.0073442 7.1995e-05 0.00069311 -0.00034483 -0.012412 0.030261
-0.16991 0.13853 -0.0035233 0.028105
0.0029871 -0.0012043 0.0039279 -0.0027998 0.00099633 -0.0015253 0.0040744 -0.0066198
-0.0033323 0.027935 -0.20753 0.19196
980000000 -0.064492 0.27944 0.016072 0.030805 -0.0095443 0.004572 0.0017301 0.0037708
0.0040871 -0.001498 -0.003618 -0.0028469
0.01601 0.030816 -0.21996 0.33183 0.033101 0.0058151 0.001924 -0.00023484
0.0016931 -0.0059645 -0.00040735 -0.0028145
-0.0095506 0.0046262 0.033158 0.0056848 0.10325 0.30579 0.00044954 -0.0011165
0.00021868 -0.0016179 0.0015201 -0.00030028
0.0018043 0.0037962 0.0018721 -0.00024556 0.00045095 -0.0011421 -0.077115 0.26708
0.0065087 0.030036 -0.0095284 -0.0077726
0.0039282 -0.0015029 0.001702 -0.0059678 0.00021421 -0.0016159 0.0066544 0.03006
-0.14017 0.17407 0.0050541 0.021141
-0.0037089 -0.0027403 -0.00041366 -0.002803 0.0014833 -0.00034068 -0.0097248 -0.0078592
0.0049963 0.021064 -0.16579 0.23873
1040000000 -0.023756 0.28977 0.033027 0.020329 -0.0012251 0.0075339 0.0025491 0.00075615
0.00012175 -0.0035057 4.1323e-05 -0.0014827
0.032986 0.020347 -0.18533 0.34657 0.030096 -0.013978 0.0016604 -0.0016084
-0.0025069 -0.002431 -0.0011957 -0.0026688
-0.0012078 0.0075181 0.03007 -0.014105 0.14936 0.29386 -0.00048987 -0.0013801
-0.0015332 -0.00094283 -0.00055618 -0.0010878
0.0026172 0.00076295 0.0016085 -0.0016617 -0.00047856 -0.0013995 -0.050058 0.27759
0.018415 0.019515 -0.0022721 0.0012309
0.00027434 -0.0034257 -0.0025199 -0.0024495 -0.001513 -0.00092702 0.018383 0.019542
-0.10815 0.18284 0.013316 0.019928
-7.4583e-05 -0.0016162 -0.0010893 -0.0026684 -0.00053054 -0.0011091 -0.0020891 0.0011978
0.013709 0.019888 -0.14464 0.26092
1100000000 0.021252 0.30007 0.036922 -0.0024822 0.003436 0.0041995 0.0024859 -0.00098323
-0.0021747 -0.0032808 -0.0043172 -6.5551e-05
0.036869 -0.0025114 -0.14148 0.36614 0.015928 -0.027581 -4.929e-05 -0.0017627
-0.0035021 -0.00095713 -0.0037205 -0.00062719
0.0034826 0.0041916 0.015845 -0.027667 0.1962 0.27494 -0.00175 0.00022066
-0.0015898 0.00070259 -0.0011207 -0.00052866
0.0024756 -0.00094134 -3.233e-05 -0.0017319 -0.0017465 0.0002566 -0.0097375 0.28286
0.024434 0.0066286 -0.002597 5.2764e-05
-0.0023365 -0.0032218 -0.0035258 -0.0009016 -0.0016074 0.00072682 0.024446 0.0065831
-0.089478 0.19944 0.019664 0.010226
-0.0042431 -2.1376e-05 -0.0036431 -0.00063012 -0.0011573 -0.00058116 -0.0028059 3.2327e-05
0.019536 0.0099598 -0.10039 0.29282
1160000000 0.072254 0.29735 0.025444 -0.019831 0.0034119 -0.00059888 -3.3398e-05 -0.002453
-0.004027 -0.00093097 -0.0013781 0.0043409
0.025456 -0.019766 -0.098286 0.37155 -0.003149 -0.028955 -0.0015718 -0.0016068
-0.0025802 0.0025901 -0.0016943 0.0018181
0.0034128 -0.00060715 -0.0032942 -0.028966 0.23951 0.24538 -0.00062489 0.0016245
-0.00036649 0.0017607 -0.00090018 0.00031729
-2.1741e-05 -0.0025115 -0.001596 -0.0015845 -0.00059882 0.0016219 0.029042 0.28057
0.0214 -0.0094709 -0.0036548 0.0050674
-0.0039699 -0.00097326 -0.0025666 0.0026112 -0.00039795 0.0017755 0.021339 -0.0094728
-0.054756 0.20965 0.019712 0.0009328
-0.0014235 0.0043802 -0.0015694 0.0018182 -0.00086739 0.00029202 -0.0034131 0.005121
0.019608 0.0012122 -0.0527 0.29609
1220000000 0.11609 0.28905 0.012435 -0.030023 -0.0011546 -0.0014955 -1.0714e-05 -0.0009374
-0.0027925 0.0023685 0.0012563 0.0020297
0.012441 -0.029974 -0.053944 0.38643 -0.016508 -0.021406 -0.0025191 0.00049945
7.8819e-05 0.003047 -0.00071007 0.001942
-0.0011748 -0.0014707 -0.016647 -0.02137 0.27957 0.20778 0.00085155 0.0014673
0.0005636 0.0011128 0.00026592 0.00058886
-2.7988e-05 -0.00095225 -0.0025156 0.0005447 0.00084825 0.0014712 0.068809 0.27311
0.011198 -0.016217 0.0021089 0.0016482
-0.0027946 0.0023685 0.00011033 0.0030545 0.00056592 0.0011081 0.01117 -0.016238
-0.032535 0.22215 0.014852 -0.012165
0.0013448 0.001902 -0.00073877 0.0018294 0.00018955 0.00064721 0.0021269 0.0016594
0.01477 -0.012383 -0.022565 0.31499
1280000000 0.16676 0.26932 -0.0065526 -0.029323 -0.001897 0.0017128 -0.00096624 -0.0021167
-0.00088783 0.0034286 0.0024913 0.0013312
-0.0065285 -0.029328 -0.0073617 0.37846 -0.023731 -0.0084871 -0.00089061 0.0014187
0.001734 0.0017094 0.00050048 0.001993
-0.0019193 0.0016982 -0.023775 -0.0083905 0.31127 0.16444 0.0014041 -0.00015564
0.0011043 0.00027031 0.00028258 0.00043505
-0.00098596 -0.0020869 -0.00086836 0.0014362 0.0014161 -0.00015283 0.10554 0.25734
0.0018886 -0.018757 6.572e-05 0.00014087
-0.00083787 0.0034084 0.0017333 0.0017344 0.0010716 0.00027998 0.0018671 -0.018815
0.0044361 0.2273 0.0039525 -0.015334
0.0024514 0.0013738 0.0005834 0.0020181 0.00027364 0.00042206 3.1049e-05 0.00018924
0.0040127 -0.015117 0.025142 0.31867
1340000000 0.20418 0.23811 -0.016656 -0.020217 0.00034777 0.0042388 -0.0018628 -0.00076164
0.0015168 0.0028411 0.0017208 -0.0013861
-0.016616 -0.020201 0.031741 0.37207 -0.021125 0.0042512 -0.00019699 0.0019852
0.0018393 0.00089705 0.0011704 0.00077628
0.0003919 0.0042181 -0.021158 0.0043522 0.33428 0.11739 0.00080198 -0.00091454
0.00056442 -0.00048375 0.00012035 0.00015164
-0.00188 -0.00077807 -0.00020622 0.0019863 0.00080576 -0.00092454 0.13884 0.23818
-0.0074084 -0.016313 0.0011337 0.00046499
0.0015472 0.0028434 0.0018179 0.00085985 0.00058244 -0.00047665 -0.007441 -0.016292
0.033583 0.2259 -0.0029042 -0.014053
0.0017085 -0.0013849 0.0011732 0.00078563 0.00010172 0.00013519 0.0011026 0.0004436
-0.0027811 -0.014085 0.062907 0.31534
1400000000 0.23928 0.20186 -0.023396 -0.0088869 0.0047562 0.0031195 -0.0021512 0.00075713
0.0026 0.0009991 0.00037942 -0.0013955
-0.023356 -0.0088859 0.070629 0.3603 -0.014464 0.012363 0.0012454 0.0013744
0.0011879 -0.00069082 0.0011582 0.00027981
0.0047768 0.0031407 -0.014425 0.012454 0.34878 0.063606 -9.4167e-05 -0.001358
7.2993e-05 -0.00014159 0.00047161 0.00017661
-0.002159 0.00078316 0.0012663 0.001371 -8.2455e-05 -0.0013606 0.16933 0.20989
-0.013656 -0.0099193 -0.00078343 -0.00051966
0.0026202 0.0010319 0.0011984 -0.00068677 8.1806e-05 -0.00015897 -0.013695 -0.0099186
0.067668 0.22442 -0.0094162 -0.0095379
0.00029369 -0.0014327 0.0011676 0.00023213 0.00047045 0.0001966 -0.00072554 -0.0003994
-0.0095507 -0.0093506 0.10827 0.30607
1460000000 0.26305 0.1589 -0.020831 0.0037318 0.0052099 -0.0015554 -0.0015193 0.0017581
0.0021787 -0.00032809 -0.00030856 -0.00093594
-0.020824 0.0036978 0.10524 0.33896 -0.0054485 0.015086 0.0016022 0.00025402
0.00099802 -0.0012269 0.0012431 -0.00059859
0.0052042 -0.0016165 -0.005341 0.015136 0.35528 0.0085565 -0.0010137 -0.0010313
0.00025718 -0.00022012 0.00054533 -0.00019903
-0.0015201 0.0017746 0.0016094 0.00025351 -0.0010035 -0.0010207 0.19641 0.18105
-0.014743 -0.0036714 -0.0010132 0.001918
0.0021779 -0.00035706 0.00096354 -0.0012536 0.00025656 -0.00019741 -0.014721 -0.0036186
0.097042 0.21255 -0.011564 -0.0032244
-0.00028248 -0.0010184 0.0012661 -0.00053628 0.00056866 -0.00025443 -0.0010727 0.0018829
-0.011586 -0.0032403 0.14167 0.28605
1520000000 0.27707 0.11855 -0.01559 0.0095 0.0032465 -0.0039782 0.00016655 0.0026354
0.0023565 -0.001902 -0.001101 -0.00013925
-0.015576 0.00949 0.13967 0.32582 0.0020903 0.012423 0.0017067 -0.00064034
0.00021043 -0.00099464 0.00035323 -0.00099334
0.0032333 -0.0040257 0.0021577 0.012428 0.34853 -0.047658 -0.00074179 -0.00029026
0.00069722 -0.00078707 0.00010443 -0.00012372
0.00016361 0.0026206 0.0017108 -0.00064548 -0.0007544 -0.00029505 0.22076 0.1433
-0.014593 0.0018023 0.0012987 0.0020818
0.0023173 -0.0018982 0.00020012 -0.0010061 0.00066834 -0.00081637 -0.014649 0.0017945
0.12613 0.20232 -0.011753 0.0010743
-0.0010597 -0.00016165 0.00030837 -0.0010305 0.00012295 -0.00012355 0.0013696 0.002063
-0.011723 0.0010365 0.17585 0.268
1580000000 0.28807 0.072808 -0.0090741 0.013279 -0.0010231 -0.0046648 0.0015115 0.0017982
-0.00029834 -0.0022442 -0.00021158 0.00033353
-0.0090774 0.013263 0.16799 0.30091 0.0054736 0.0072136 0.00058732 -0.0015278
-0.00044073 -0.0011584 -0.00019044 -0.00071356
-0.001055 -0.0046449 0.0055095 0.0071839 0.32835 -0.10592 -0.0014746 0.000247
-0.00030024 -0.0013529 0.00014069 -0.00061754
0.0015047 0.0017973 0.00058354 -0.0015439 -0.0014481 0.0002535 0.23567 0.10335
-0.011389 0.0068617 0.0021696 0.00079994
-0.00029896 -0.0022046 -0.00046225 -0.0011496 -0.00029672 -0.0013292 -0.011362 0.0069326
0.1516 0.18654 -0.0092924 0.0072077
-0.00028665 0.00034387 -0.00021735 -0.0007085 0.00016348 -0.00065372 0.0020751 0.00075048
-0.0093837 0.0072095 0.20914 0.24218
1640000000 0.29152 0.032271 -0.0021901 0.01245 -0.0028585 -0.0022931 0.0027583 0.0010555
-0.00062404 -0.0016836 -0.00036969 0.0004731
-0.0021991 0.012456 0.19757 0.27726 0.0055507 0.0023219 -0.00045379 -0.0018543
-0.00086217 -0.00055455 -0.0004719 -0.00067626
-0.0028814 -0.0022724 0.0055704 0.0022847 0.2992 -0.15458 -0.00076275 0.0011585
-0.0010587 -0.0011569 -0.00015997 -0.00036019
0.0027614 0.0010407 -0.00044939 -0.0018646 -0.0007571 0.0011824 0.24863 0.054452
-0.0075893 0.0081661 0.0025702 -0.00065435
-0.00066619 -0.0016494 -0.00087054 -0.00056201 -0.0010531 -0.0011344 -0.0075635 0.0081313
0.17557 0.16562 -0.0046016 0.0092787
-0.00030331 0.00049876 -0.00048368 -0.00072759 -0.00016367 -0.0004009 0.002503 -0.00058615
-0.0046798 0.0092492 0.23521 0.21247
1700000000 0.28646 -0.012906 0.0014903 0.0099324 -0.0033773 0.00032966 0.0031431 -0.0013077
-0.0020867 -0.00073085 0.00059097 0.00050197
0.0014782 0.0099048 0.21711 0.24583 0.0028937 -0.0003494 -0.0014561 -0.00074968
-0.00087772 -0.00015934 -0.00082503 -0.00046908
-0.0033453 0.0003786 0.0028764 -0.0003835 0.25584 -0.19379 8.2526e-05 0.001655
-0.0020617 -0.0002049 -0.00031089 -0.00083131
0.0031271 -0.0013027 -0.0014463 -0.00074955 5.7586e-05 0.0016611 0.24615 0.0038323
-0.0049199 0.0090417 0.0016927 -0.0020916
-0.0021251 -0.00075604 -0.0008529 -0.00016372 -0.0021151 -0.00019798 -0.0049679 0.0091106
0.19562 0.14786 0.00012329 0.0096759
0.00054346 0.00040338 -0.00078251 -0.00050612 -0.0002741 -0.0008441 0.0017811 -0.0021406
7.6309e-05 0.0096367 0.25337 0.17883
1760000000 0.27563 -0.061815 0.0041096 0.0067896 -0.0021487 0.0012236 0.0013258 -0.0035035
-0.0012428 0.00049811 0.00032656 -0.00049802
0.0041044 0.0067885 0.24313 0.2063 0.00020746 -0.0017669 -0.0012382 -1.8007e-05
-0.0011714 0.00091673 -0.00053273 0.00026573
-0.0021573 0.0011949 0.00019716 -0.0017556 0.20688 -0.22631 0.0010187 0.0013625
-0.0012571 0.0014492 -0.0011591 -0.00069672
0.0012821 -0.0034766 -0.0012336 8.1657e-06 0.001039 0.0013386 0.23707 -0.048655
-0.0014039 0.0085238 -7.2602e-05 -0.0025218
-0.0012767 0.00056962 -0.0011739 0.00092121 -0.0012787 0.0014093 -0.0013123 0.0084745
0.21216 0.11522 0.0039667 0.0070007
0.00038962 -0.00050631 -0.00053491 0.0002894 -0.0011971 -0.00062054 -0.00019307 -0.002403
0.0040572 0.007076 0.26675 0.14171
1820000000 0.2529 -0.099495 0.0045655 0.0031574 0.00018937 0.0023005 -0.00095718 -0.0031169
-0.0012312 0.00083475 -0.00013871 -0.00012383
0.0045492 0.0031385 0.25441 0.17709 -0.0019405 6.1025e-05 -0.0015279 0.00095253
-0.00015074 0.0013023 -0.00072083 0.0004257
0.00022108 0.0022725 -0.0019573 7.3974e-05 0.15728 -0.2407 0.0016221 0.0007266
-0.0003432 0.0023407 -0.0016648 0.00017978
-0.0009469 -0.0031422 -0.0015534 0.000963 0.0015882 0.00076036 0.2072 -0.096103
0.00025694 0.0071578 -0.0017559 -0.0017881
-0.0011958 0.00082207 -0.00013214 0.0012985 -0.00031515 0.002356 0.00015411 0.0071768
0.23244 0.088456 0.0050251 0.0034353
-0.00016746 -7.2998e-05 -0.00070443 0.00042132 -0.0016678 0.00024645 -0.0016833 -0.0017693
0.005002 0.0034179 0.27075 0.10671
1880000000 0.21871 -0.14113 0.0024711 0.00076292 -0.00023837 0.002194 -0.0028253 -0.0022941
-0.00018796 0.0016825 0.0002619 -0.0004645
0.0024942 0.00080802 0.25914 0.13023 -0.0037291 0.002766 -0.0002746 0.0019128
0.00056926 0.0015327 0.0001365 0.0010375
-0.00019223 0.0022339 -0.0037422 0.0027728 0.10595 -0.2493 0.0021459 -0.0010145
0.0015511 0.002095 -0.0010247 0.0014359
-0.0029006 -0.0022701 -0.00024254 0.0019195 0.002164 -0.0010204 0.16626 -0.13702
0.001101 0.0052037 -0.0024508 0.00031105
-0.00031723 0.0017128 0.00058034 0.0015033 0.0015374 0.0020752 0.0011925 0.0051604
0.23886 0.057914 0.0053599 0.0012984
0.00032219 -0.00049132 0.00017515 0.00099453 -0.0010832 0.001398 -0.0024413 0.00038041
0.0054206 0.0013468 0.27203 0.072406
1940000000 0.17954 -0.16745 0.00034067 -0.0010846 0.0016812 0.0020772 -0.0039179 0.00029779
0.0010729 0.0010136 -0.00065311 -0.00057807
0.00037827 -0.001079 0.26035 0.099274 -0.0019552 0.0055912 0.0010849 0.0014601
0.0020762 0.00048898 0.00089942 0.0003678
0.0017288 0.0020321 -0.0019126 0.0055911 0.061341 -0.24135 0.0006449 -0.0025001
0.0023742 0.00040539 0.00015937 0.0016926
-0.0038175 0.00024126 0.0010401 0.0014747 0.00061566 -0.00254 0.11348 -0.16719
0.00049839 0.0035645 -0.0014221 0.0015259
0.001154 0.00099297 0.0020818 0.00047544 0.0023751 0.0004162 0.00048313 0.0035754
0.2445 0.021029 0.0039572 -0.0023587
-0.00068159 -0.00059577 0.00089604 0.00034883 0.00013568 0.0016333 -0.0015306 0.0015304
0.0038239 -0.0023721 0.26185 0.036583
2000000000 0.13417 -0.18271 -0.0033934 0.00088028 0.002925 0.0012614 -0.0024531 0.0037599
0.0009118 0.00048763 -0.0007591 0.00037347
-0.0034078 0.00084349 0.24738 0.06402 -0.00056142 0.007815 0.0017178 0.00032766
0.0013706 -0.0014176 0.00062494 0.00010991
0.0028743 0.0012651 -0.00049798 0.0078101 0.020461 -0.227 -0.0016029 -0.0017628
0.0021978 -0.001114 0.0017433 0.001443
-0.0024776 0.0038008 0.0017115 0.00033843 -0.0015739 -0.0017114 0.060067 -0.17706
-0.0013637 0.0035723 -7.8376e-05 0.0020513
0.0009164 0.00050119 0.0013418 -0.001416 0.0022134 -0.0010806 -0.0013021 0.0035774
0.24246 -0.012048 0.00075353 -0.0033984
