!Keysight Technologies,M9804A,MY58100912,A.14.10.03
!Date: Thursday, April 27, 2023 10:28:33
!Correction: S11(C  6-Port  ) 
!S12(C  6-Port  ) 
!S13(C  6-Port  ) 
!S14(C  6-Port  ) 
!S15(C  6-Port  ) 
!S16(C  6-Port  ) 
!S21(C  6-Port  ) 
!S22(C  6-Port  ) 
!S23(C  6-Port  ) 
!S24(C  6-Port  ) 
!S25(C  6-Port  ) 
!S26(C  6-Port  ) 
!S31(C  6-Port  ) 
!S32(C  6-Port  ) 
!S33(C  6-Port  ) 
!S34(C  6-Port  ) 
!S35(C  6-Port  ) 
!S36(C  6-Port  ) 
!S41(C  6-Port  ) 
!S42(C  6-Port  ) 
!S43(C  6-Port  ) 
!S44(C  6-Port  ) 
!S45(C  6-Port  ) 
!S46(C  6-Port  ) 
!S51(C  6-Port  ) 
!S52(C  6-Port  ) 
!S53(C  6-Port  ) 
!S54(C  6-Port  ) 
!S55(C  6-Port  ) 
!S56(C  6-Port  ) 
!S61(C  6-Port  ) 
!S62(C  6-Port  ) 
!S63(C  6-Port  ) 
!S64(C  6-Port  ) 
!S65(C  6-Port  ) 
!S66(C  6-Port  ) 
!S6P File: Measurement: :
# Hz S  RI   R 50
500000000 -0.32774 -0.065638 -0.0093109 -0.0013703 -0.0081626 0.012459 -0.0041428 0.012788
0.012367 0.0045368 -0.0053152 0.0090043
-0.0095843 -0.00084735 -0.40903 -0.074991 0.008984 -0.010954 0.002103 0.012532
0.0078983 0.0032949 0.0017398 0.014593
-0.0079685 0.012768 0.0090284 -0.010931 -0.25883 0.18903 0.0072435 0.003295
-0.0023436 0.0083159 0.0011144 0.012603
-0.0046637 0.011796 0.0018231 0.012202 0.0073182 0.0032904 -0.32627 0.038024
-0.020109 -0.0024071 0.018138 0.026243
0.013252 0.005869 0.0084228 0.0030559 -0.0022929 0.0083623 -0.019952 -0.0025106
-0.21981 -0.23455 -0.028552 0.0074524
-0.0057008 0.0081176 0.0016936 0.014541 0.0012709 0.012592 0.018291 0.026347
-0.02872 0.0074874 -0.26039 -0.1437
560000000 -0.31951 0.10155 -0.021112 -0.068058 0.0010631 0.01296 0.0049877 0.012173
0.011402 0.0042522 0.010706 0.0098513
-0.021015 -0.067971 -0.37306 0.088699 -0.040172 -0.040168 0.013368 0.0042503
-0.013264 -0.0051256 0.0038473 -0.0012125
0.00088429 0.013295 -0.040395 -0.039558 -0.18357 0.24049 -0.000611 -0.0059993
0.018429 0.0058125 0.0080419 -0.0055774
0.0053971 0.011269 0.01397 0.003885 -0.00064398 -0.00592 -0.30398 0.1304
0.0065073 -0.023677 0.0059457 -0.020639
0.011046 0.0047216 -0.012885 -0.0059954 0.018518 0.0059312 0.006605 -0.023799
-0.30361 -0.045727 0.0096823 -0.053887
0.010481 0.0085884 0.0041089 -0.0013082 0.0080019 -0.005519 0.0057509 -0.020731
0.0097997 -0.054087 -0.33012 0.0073591
620000000 -0.27668 0.08106 -0.023071 0.0086687 0.0034799 0.0094823 0.0077022 -0.0042657
0.012783 -0.00058686 9.915e-05 -0.0026497
-0.023141 0.0090061 -0.40051 0.035578 -0.01881 0.00020762 -0.0017822 -0.0021476
0.0127 -0.0052653 0.00073878 -0.0034288
0.0030778 0.0092847 -0.018995 0.00012756 -0.15626 0.24998 -0.00082756 -0.0050155
-0.0047984 -0.0025356 0.0095064 -0.0026049
0.007975 -0.0051087 -0.0017002 -0.0020622 -0.00075696 -0.0049985 -0.26319 0.1409
-0.03844 -0.021601 0.012721 0.029978
0.012539 -0.00028588 0.012893 -0.0056812 -0.0048667 -0.0026451 -0.038693 -0.021473
-0.21782 -0.085222 -0.04198 0.010397
0.0010172 -0.0027283 0.00088507 -0.0034489 0.00938 -0.0023301 0.012664 0.029962
-0.041585 0.010298 -0.24561 -0.029068
680000000 -0.2423 0.17368 -0.026256 -0.015466 0.0046028 0.0053534 0.001273 -0.0070436
-0.0024563 -0.011318 0.0056893 -0.0073304
-0.026012 -0.015478 -0.39059 0.13709 -0.032717 -0.002482 -0.0021632 -0.00071467
-0.0016755 -0.0096239 -0.00077252 -0.0020637
0.0048287 0.005589 -0.032732 -0.0024418 -0.10843 0.27209 -0.0011326 0.0001159
-0.0014506 0.00051702 -0.0030856 -0.0091513
0.0009609 -0.0067841 -0.0021277 -0.00060231 -0.0012182 1.6557e-05 -0.22023 0.19192
-0.022731 -0.0079429 -0.0095794 -0.011799
-0.0020432 -0.011329 -0.0016422 -0.009499 -0.0014803 0.00053562 -0.022813 -0.0079633
-0.28167 0.016917 -0.0057002 -0.006616
0.006334 -0.007135 -0.00073971 -0.0024117 -0.0030911 -0.0091184 -0.0097732 -0.011826
-0.0057221 -0.0066673 -0.26115 0.073292
740000000 -0.19629 0.16656 -0.040826 0.026823 0.013956 -0.0040917 0.00016219 -0.0042451
-0.0037327 -0.001595 -0.0059975 0.0025345
-0.040614 0.02687 -0.33725 0.15712 -0.037689 0.034296 0.00066818 -0.0060625
-0.013102 0.0066811 -0.0010335 -0.0055804
0.013677 -0.0037728 -0.037715 0.034294 -0.075441 0.2722 -0.0020769 0.0034434
-0.00053361 -0.0049177 -0.0023105 0.00060768
-0.00019086 -0.0040382 0.00024574 -0.0058848 -0.0020904 0.0034767 -0.20375 0.19872
-0.042556 -0.009654 0.023162 0.016227
-0.0039124 -0.0016274 -0.012594 0.0063133 -0.00066957 -0.0047517 -0.042524 -0.0095385
-0.18173 0.052937 -0.044674 -0.00083468
-0.0065209 0.003028 -0.0010871 -0.0054604 -0.0025164 0.00062401 0.023172 0.016279
-0.0445 -0.00096516 -0.25126 0.080192
800000000 -0.16639 0.21303 -0.023038 0.015886 0.0058152 -0.010106 -0.0046801 -0.0025473
-0.004331 0.0016738 0.0040552 0.00072369
-0.022967 0.015942 -0.34549 0.22808 -0.0092014 0.034388 -0.0022272 0.0021635
-0.00028329 0.0023694 0.00069117 0.0053537
0.0057688 -0.010241 -0.0092291 0.034458 -0.036958 0.29853 0.00099702 0.0012681
8.7803e-05 0.0033105 -0.0016362 0.00073988
-0.0045649 -0.0026957 -0.0023755 0.0021103 0.00092739 0.0012224 -0.17466 0.22677
-0.029177 0.012728 0.014823 -0.010405
-0.0044555 0.0018834 -0.00024722 0.002223 0.00010189 0.0033794 -0.02921 0.01282
-0.2321 0.073454 -0.019124 0.020788
0.0044033 0.00011448 9.6952e-05 0.0052625 -0.001687 0.00078 0.014995 -0.010567
-0.019155 0.020544 -0.24775 0.13116
860000000 -0.13313 0.23404 -0.01852 0.030433 -0.0031427 -0.010228 -0.0018207 0.00086111
0.0044022 0.0053751 -0.0039009 -0.0029083
-0.018712 0.030533 -0.29848 0.27264 0.0069556 0.034703 0.00022786 0.0021419
0.003689 0.00048626 0.0038619 0.00032052
-0.0030631 -0.010194 0.0071475 0.034723 0.010597 0.30855 -0.00041171 -0.00041762
0.0026061 -0.0017733 0.0018952 0.0042739
-0.0018764 0.00090702 0.00032172 0.0019914 -0.00039432 -0.00043614 -0.13906 0.2388
-0.01834 0.017302 -0.0066274 -0.0089741
0.0045151 0.0054121 0.003908 0.00036471 0.0026304 -0.0017314 -0.01839 0.017291
-0.17614 0.13379 -0.026865 0.014736
-0.0039219 -0.0027362 0.0040415 0.0007396 0.0018 0.0043497 -0.0068174 -0.0089602
-0.02656 0.014955 -0.19583 0.18027
920000000 -0.11029 0.25781 0.0039921 0.039454 -0.009244 -0.0046849 -0.0018857 0.0017432
0.00026109 0.0013944 0.0033148 -0.0012534
0.0038485 0.039311 -0.27191 0.29529 0.027925 0.02331 0.0013636 0.0012248
0.0069716 3.747e-05 0.0038331 -0.0028129
-0.009337 -0.0047086 0.027981 0.023264 0.056969 0.31106 0.0017307 -1.0603e-05
0.00051457 -0.00036385 0.0007652 -0.0013684
-0.0019768 0.0017293 0.0014556 0.0011223 0.0017597 -8.9727e-06 -0.11506 0.25586
-0.012444 0.029997 0.0042069 -0.0065242
0.00016383 0.00148 0.0071411 0.00025251 0.00054027 -0.00037505 -0.012379 0.030008
-0.17074 0.13901 -0.0029379 0.027614
0.0034219 -0.001465 0.0037219 -0.002798 0.00071987 -0.0014829 0.004342 -0.0065278
-0.0029734 0.027689 -0.20785 0.19249
980000000 -0.064504 0.27931 0.01607 0.03076 -0.0095603 0.0045814 0.001804 0.0037809
0.0038277 -0.0014482 -0.0034273 -0.0024827
0.016077 0.030773 -0.21985 0.33186 0.033063 0.0058398 0.001905 -0.00026487
0.0017754 -0.0060376 -0.00048693 -0.0028344
-0.009556 0.0046679 0.033159 0.005688 0.10325 0.30577 0.00047349 -0.0011193
0.00022064 -0.0017346 0.0014956 -0.00047026
0.0016582 0.0036537 0.0018642 -0.00027936 0.00044153 -0.0011029 -0.077271 0.26702
0.006439 0.030082 -0.0095423 -0.0076154
0.0037946 -0.0014658 0.0015406 -0.0062031 0.00018968 -0.0017329 0.0064757 0.030136
-0.14044 0.17343 0.0050436 0.020704
-0.0032856 -0.0024112 -0.0003883 -0.0027091 0.0015243 -0.00041317 -0.0096194 -0.0076106
0.0050499 0.020661 -0.1662 0.23872
1040000000 -0.02376 0.28961 0.032965 0.020317 -0.0012024 0.0074894 0.0025771 0.00075108
0.00038326 -0.0034062 9.9128e-05 -0.0014603
0.032998 0.020335 -0.18528 0.34661 0.030082 -0.013996 0.0015455 -0.0016165
-0.0025703 -0.0022452 -0.00095141 -0.0029172
-0.0012137 0.0075107 0.030053 -0.014109 0.14936 0.29384 -0.00049336 -0.0013755
-0.0016116 -0.00085714 -0.00057601 -0.0010406
0.0026651 0.00074554 0.0014779 -0.0016683 -0.0004905 -0.0013923 -0.050084 0.27755
0.018348 0.019287 -0.0021929 0.0013533
0.00036941 -0.0034356 -0.0023628 -0.0023176 -0.001625 -0.00086973 0.018377 0.019217
-0.10761 0.18327 0.013692 0.019464
4.8752e-06 -0.0012459 -0.0011917 -0.0028604 -0.00059235 -0.0010798 -0.0021683 0.0014921
0.013578 0.019407 -0.14542 0.26174
1100000000 0.021279 0.30014 0.036848 -0.0024447 0.0034742 0.0042231 0.0025631 -0.0010045
-0.0022544 -0.0030557 -0.0042014 -0.00010521
0.036761 -0.0024601 -0.14163 0.36628 0.015943 -0.027527 -3.3745e-05 -0.0017519
-0.0034059 -0.00097748 -0.0037319 -0.00058285
0.0034555 0.0042032 0.015858 -0.027614 0.19617 0.27494 -0.0017674 0.0002425
-0.0015824 0.0007904 -0.0011166 -0.00061639
0.0025512 -0.0010643 -6.3783e-05 -0.001854 -0.0017565 0.0002485 -0.0097985 0.2829
0.024297 0.0065471 -0.0027837 -4.2691e-05
-0.0020826 -0.0030168 -0.0033352 -0.00096805 -0.0015625 0.00078856 0.024272 0.0065095
-0.089258 0.199 0.01953 0.0098213
-0.0041681 -0.00016948 -0.0038537 -0.00062703 -0.0011404 -0.00057372 -0.0027268 -0.0001302
0.019606 0.0097732 -0.10035 0.29256
1160000000 0.072135 0.29744 0.02545 -0.019757 0.0034587 -0.00061247 -0.0001225 -0.0024417
-0.0041326 -0.00094283 -0.0014403 0.0043246
0.025399 -0.019754 -0.098249 0.37147 -0.0031631 -0.028982 -0.0016147 -0.0016578
-0.0026946 0.0023026 -0.001555 0.0018936
0.0034581 -0.00061993 -0.0033024 -0.029002 0.23952 0.24538 -0.00062929 0.0016595
-0.00046246 0.001815 -0.00089485 0.00022186
-0.00017706 -0.0024335 -0.0015335 -0.0016527 -0.00062722 0.0016445 0.028903 0.2805
0.021556 -0.0093803 -0.0035959 0.0052494
-0.0041546 -0.00093644 -0.0026175 0.00248 -0.00045696 0.0017928 0.021572 -0.009392
-0.054886 0.21051 0.019439 0.00057077
-0.0011484 0.003907 -0.0015616 0.0016311 -0.00088945 0.00019852 -0.0036333 0.0052022
0.019468 0.00049991 -0.053015 0.29632
1220000000 0.11616 0.28905 0.012366 -0.029978 -0.0011759 -0.0014884 1.1175e-05 -0.00102
-0.0027661 0.0023137 0.0012615 0.0019431
0.012402 -0.029971 -0.054016 0.38641 -0.016545 -0.021396 -0.0025026 0.00049177
6.984e-05 0.0030731 -0.00082256 0.0019015
-0.0011963 -0.0014779 -0.01667 -0.021334 0.27955 0.2078 0.00086058 0.0014962
0.00059553 0.0010553 0.00015913 0.00069543
-5.0001e-05 -0.0010402 -0.0024509 0.00051538 0.0008552 0.0014811 0.068986 0.27316
0.011097 -0.016088 0.002416 0.0016152
-0.0027496 0.0022558 4.8759e-05 0.0031024 0.00061043 0.0010408 0.011075 -0.016097
-0.033153 0.222 0.015025 -0.011955
0.0012103 0.0021209 -0.00072808 0.0019861 0.00011717 0.0006655 0.0024151 0.0016977
0.015085 -0.011944 -0.022394 0.31474
1280000000 0.16681 0.26927 -0.006533 -0.029414 -0.0019123 0.0017571 -0.00098937 -0.0021182
-0.0008651 0.0032729 0.0025274 0.001339
-0.0064671 -0.029378 -0.007301 0.37843 -0.023712 -0.0084547 -0.00087239 0.0013748
0.0017777 0.0017426 0.00061532 0.0020234
-0.0018965 0.0017381 -0.023768 -0.0083899 0.31122 0.16443 0.0013488 -0.00015084
0.0010545 0.00025706 0.00031485 0.00031958
-0.00097789 -0.0021717 -0.00083355 0.001354 0.0013359 -0.00014828 0.10564 0.25735
0.0018915 -0.018776 -4.2133e-05 0.00015814
-0.00079772 0.0033536 0.0017515 0.0017312 0.0010524 0.00025371 0.0018382 -0.01876
0.0044488 0.22761 0.0040104 -0.015541
0.0025982 0.0012841 0.0005704 0.0020845 0.00031071 0.00037538 8.6823e-06 0.00012877
0.0039303 -0.015474 0.024915 0.31894
1340000000 0.20416 0.23806 -0.016644 -0.020231 0.00031949 0.0041863 -0.0018179 -0.00078764
0.0015116 0.0028136 0.0017211 -0.0013621
-0.016662 -0.020245 0.031721 0.37209 -0.021166 0.0042837 -0.00019271 0.0019495
0.0018818 0.00076738 0.0011505 0.00077958
0.00035333 0.0041788 -0.021148 0.0044296 0.33425 0.11741 0.00087568 -0.00090442
0.00059606 -0.00053097 7.1595e-05 0.00022681
-0.0018749 -0.00070649 -0.0001709 0.0019483 0.00088171 -0.00090285 0.13879 0.23822
-0.0074434 -0.016357 0.0011507 0.00039407
0.0014626 0.0027538 0.0018635 0.00080952 0.00062008 -0.00054514 -0.0074542 -0.016385
0.033472 0.22569 -0.0027615 -0.013952
0.0017118 -0.001466 0.0011436 0.00072285 4.8377e-05 0.00021972 0.0011368 0.0004442
-0.00271 -0.014011 0.062734 0.31507
1400000000 0.23924 0.20186 -0.023408 -0.0088963 0.0048066 0.003164 -0.0021729 0.00075104
0.0025646 0.0011005 0.00039313 -0.0014195
-0.023375 -0.0088841 0.070648 0.36028 -0.014406 0.012355 0.0012555 0.0013526
0.001179 -0.00068621 0.0011536 0.00020539
0.0048093 0.0031578 -0.014389 0.012426 0.34883 0.063585 -6.9369e-05 -0.001384
0.00011674 -0.00018782 0.00034306 0.00016946
-0.0022104 0.00076376 0.0012329 0.0013516 -8.8709e-05 -0.0013849 0.16931 0.20984
-0.01357 -0.0099232 -0.00077403 -0.00040981
0.0025539 0.0010263 0.0011834 -0.00070524 0.00012148 -0.00019044 -0.013611 -0.0099049
0.067422 0.22454 -0.0092772 -0.0092365
0.00039039 -0.0013364 0.0011509 0.00024054 0.00033835 0.00022655 -0.00079136 -0.00040424
-0.0092844 -0.0092434 0.10868 0.30628
1460000000 0.26296 0.15895 -0.02082 0.0036879 0.0051974 -0.0015427 -0.0015048 0.0017395
0.0021324 -0.00036077 -0.00010258 -0.00091302
-0.020796 0.0036863 0.10523 0.33893 -0.0054167 0.015068 0.0015791 0.0002351
0.0010208 -0.0011897 0.0013463 -0.00054925
0.0051737 -0.0015517 -0.0053365 0.015138 0.35532 0.0084906 -0.0010301 -0.0010417
0.00027688 -0.00014376 0.00068347 -0.00033051
-0.0014926 0.0016954 0.0015835 0.0002491 -0.0010218 -0.00104 0.19638 0.18103
-0.014676 -0.0036412 -0.0010684 0.0018581
0.0021363 -0.00039333 0.00099154 -0.0012329 0.00027483 -0.0001626 -0.014706 -0.0036022
0.097005 0.21242 -0.011641 -0.0032339
-0.00017522 -0.00083729 0.0013066 -0.00058367 0.00062633 -0.00036866 -0.0010309 0.0018548
-0.011646 -0.0031328 0.14172 0.2861
1520000000 0.27709 0.11865 -0.015581 0.0095397 0.003185 -0.0039859 0.00014694 0.0026339
0.0023423 -0.0018988 -0.0010241 -7.6392e-05
-0.015595 0.0095119 0.13967 0.32579 0.0020622 0.01244 0.0017014 -0.00064391
0.00016263 -0.00097382 0.00035279 -0.00096819
0.0031903 -0.0040073 0.002158 0.012431 0.34852 -0.047724 -0.00075626 -0.00027823
0.0006817 -0.00084672 5.8757e-05 -0.00013188
0.00018632 0.0026169 0.001714 -0.00065274 -0.0007748 -0.00028061 0.22077 0.14326
-0.01457 0.0016756 0.0012867 0.0020061
0.0023284 -0.0019044 0.00017103 -0.0009749 0.00068176 -0.00084823 -0.014558 0.0016867
0.12616 0.20214 -0.011693 0.0010958
-0.0010771 -0.00015155 0.00037602 -0.00097904 9.8103e-05 -0.00013211 0.0012512 0.0020575
-0.011676 0.0010766 0.17545 0.26803
1580000000 0.28806 0.072876 -0.0090865 0.013268 -0.0010341 -0.0046302 0.0014788 0.001861
-0.00024676 -0.0022037 -0.00025802 0.00036095
-0.0090967 0.013238 0.16798 0.30095 0.0054497 0.0072285 0.00060246 -0.0015198
-0.00045059 -0.0011341 -0.00015303 -0.00077068
-0.0010698 -0.0046757 0.0054916 0.0072146 0.32837 -0.10595 -0.0014852 0.00018493
-0.0004227 -0.0013719 0.00026254 -0.00051567
0.0015125 0.001858 0.00059696 -0.0015217 -0.0014839 0.00019336 0.2357 0.10339
-0.011463 0.0069196 0.0020723 0.00083596
-0.00031001 -0.0021982 -0.00042954 -0.0011235 -0.0004068 -0.0013883 -0.011468 0.0069304
0.15143 0.1867 -0.0093269 0.0071843
-0.0002642 0.00032352 -0.00022776 -0.00073096 0.00020367 -0.00048265 0.0020603 0.00084019
-0.0093481 0.0072409 0.20921 0.24221
1640000000 0.29147 0.032234 -0.0021692 0.012485 -0.0028447 -0.002265 0.0027551 0.0010495
-0.00059836 -0.0017074 -0.0003572 0.0005842
-0.0022002 0.012443 0.19758 0.27724 0.0055456 0.0023276 -0.00047011 -0.0018638
-0.00089645 -0.00058267 -0.0004468 -0.0007095
-0.0028843 -0.0022401 0.0055793 0.0023053 0.29918 -0.15457 -0.00074033 0.0011833
-0.0011398 -0.0010836 -0.00012425 -0.0004232
0.0027758 0.0010297 -0.00046011 -0.0018596 -0.00073579 0.0011757 0.24862 0.054515
-0.007584 0.008132 0.0024679 -0.00056485
-0.00060827 -0.0016583 -0.00088426 -0.00054456 -0.0010932 -0.0010766 -0.0075686 0.0081569
0.17538 0.16562 -0.0047539 0.0092976
-0.0003324 0.00052207 -0.0004713 -0.00075251 -0.00018183 -0.00043612 0.0024753 -0.00056953
-0.0047962 0.0092933 0.23519 0.21258
1700000000 0.28659 -0.012874 0.0014767 0.0098764 -0.0034331 0.00033897 0.003184 -0.0012276
-0.0020683 -0.00064228 0.00063277 0.00035705
0.0014834 0.009875 0.2171 0.24583 0.0028706 -0.00040873 -0.0014339 -0.00078027
-0.00082749 -0.00020132 -0.00078496 -0.00047161
-0.0033694 0.0003176 0.0028759 -0.00039995 0.25598 -0.19384 0.00012995 0.0015915
-0.0020951 -0.0001703 -0.00032775 -0.00070731
0.0031257 -0.0012699 -0.0014232 -0.00074264 0.00013428 0.0016148 0.24616 0.0037284
-0.0049318 0.0090498 0.0017461 -0.0020273
-0.0021375 -0.00067194 -0.00084193 -0.00016294 -0.0021118 -0.00015648 -0.0049247 0.0090551
0.19556 0.14788 0.00010772 0.0096326
0.00069822 0.00042305 -0.00076178 -0.0004632 -0.00026878 -0.0006979 0.0017301 -0.0020387
0.0002029 0.0096606 0.25317 0.17878
1760000000 0.27564 -0.061781 0.004123 0.0067769 -0.0021284 0.0012533 0.0013314 -0.0035674
-0.0012162 0.00050105 0.00033594 -0.00047256
0.004084 0.006789 0.24312 0.20634 0.00019766 -0.0017239 -0.0012616 -3.8569e-05
-0.0011847 0.00091781 -0.00059647 0.00032987
-0.0021547 0.0012344 0.00019727 -0.0017451 0.20693 -0.22632 0.00099674 0.0013209
-0.0012855 0.0013563 -0.0011085 -0.00060915
0.0013695 -0.0035553 -0.0012687 -1.952e-05 0.0010075 0.0013295 0.23702 -0.04859
-0.0013351 0.0084842 -0.00029235 -0.0026236
-0.001257 0.00055373 -0.0011825 0.00093429 -0.0012793 0.0013423 -0.001298 0.0084841
0.21212 0.11531 0.0039612 0.0070782
0.00035034 -0.00055102 -0.00057291 0.00031455 -0.0011683 -0.00058948 -0.00029636 -0.0026259
0.0039048 0.0071206 0.26683 0.14176
1820000000 0.25282 -0.099408 0.0045784 0.0031543 0.0001557 0.0022747 -0.00096712 -0.0031409
-0.0011883 0.00086661 -0.00014025 -0.00020507
0.004515 0.0031469 0.25439 0.17706 -0.0019288 6.4679e-05 -0.0015072 0.00091984
-0.0001375 0.0013069 -0.00072148 0.00038749
0.00021485 0.0022809 -0.0019442 7.8747e-05 0.15724 -0.24067 0.0016163 0.00084982
-0.00034711 0.002415 -0.0016894 0.00017481
-0.00098533 -0.0031604 -0.0015373 0.00096421 0.0016158 0.00086119 0.20738 -0.096156
0.00028325 0.0072444 -0.0016752 -0.0018124
-0.0011856 0.00085767 -0.00011097 0.0013233 -0.00033996 0.0024288 0.00030325 0.0072629
0.23252 0.088629 0.0050567 0.0034126
-0.00010167 -7.5192e-05 -0.00060966 0.00038202 -0.0016146 0.00013227 -0.0016531 -0.0018252
0.0050641 0.0033716 0.27072 0.10674
1880000000 0.21864 -0.14119 0.0024077 0.0008251 -0.0003242 0.0021845 -0.0028734 -0.0023513
-0.00036263 0.0016587 0.0003281 -0.00048824
0.0024565 0.0007671 0.2591 0.13024 -0.0038409 0.0027081 -0.00028707 0.0018576
0.00058926 0.0014251 0.00012011 0.0010532
-0.00029305 0.0021962 -0.0037942 0.0027958 0.10573 -0.24924 0.0021182 -0.0010483
0.001551 0.002013 -0.0011473 0.0015216
-0.002855 -0.0023844 -0.00031459 0.0018445 0.0021236 -0.0010334 0.1662 -0.13691
0.0011505 0.0051889 -0.0023699 0.00036652
-0.00025611 0.0016111 0.00053589 0.0014483 0.0015767 0.0020482 0.0011612 0.0051833
0.23872 0.057928 0.0052109 0.0014355
0.00026531 -0.0006103 4.5823e-05 0.0010352 -0.0012157 0.0014194 -0.0024305 0.00038915
0.0053025 0.0013665 0.27187 0.072578
1940000000 0.17949 -0.16735 0.00032867 -0.0010699 0.0016919 0.0019174 -0.0037962 0.00035909
0.0010592 0.0011108 -0.00055066 -0.00057467
0.00032529 -0.0010786 0.26035 0.099285 -0.0019186 0.0055367 0.0010387 0.001467
0.0019813 0.00053858 0.00090072 0.00044673
0.0017096 0.0019002 -0.0018866 0.0055033 0.061477 -0.2413 0.00066211 -0.0026289
0.0024065 0.00044973 0.00012591 0.0017323
-0.0037733 0.00038816 0.0011001 0.001496 0.00065367 -0.0026338 0.11326 -0.1673
0.00039776 0.0036124 -0.0015895 0.0015244
0.0011034 0.0010007 0.002078 0.00051622 0.00237 0.00043388 0.00040436 0.0036028
0.24448 0.021295 0.0039411 -0.002319
-0.00063919 -0.00051494 0.00088685 0.00035725 0.00016454 0.0016837 -0.001477 0.0015514
0.003934 -0.0023654 0.26199 0.036882
2000000000 0.13429 -0.18267 -0.0033576 0.00083383 0.0028993 0.0012534 -0.0024576 0.0037493
0.0010064 0.00056184 -0.00063844 0.00042421
-0.0033912 0.00087775 0.24741 0.06397 -0.00058985 0.007785 0.0016613 0.00040869
0.0013472 -0.0013884 0.00054853 7.3641e-05
0.0029122 0.0011663 -0.00050903 0.0078361 0.020481 -0.22708 -0.001592 -0.0015511
0.0020719 -0.0010752 0.0016205 0.0014365
-0.0024386 0.0036053 0.0016155 0.00030952 -0.0015886 -0.0015582 0.060384 -0.17717
-0.0011599 0.003388 -8.7143e-05 0.0021495
0.00095049 0.0005502 0.0013096 -0.0015262 0.0021128 -0.0010914 -0.0011528 0.0034251
0.24257 -0.012069 0.00084386 -0.0033213
