!Keysight Technologies,M9804A,MY58100912,A.14.10.03
!Date: Thursday, April 27, 2023 10:28:33
!Correction: S11(C  6-Port  ) 
!S12(C  6-Port  ) 
!S13(C  6-Port  ) 
!S14(C  6-Port  ) 
!S15(C  6-Port  ) 
!S16(C  6-Port  ) 
!S21(C  6-Port  ) 
!S22(C  6-Port  ) 
!S23(C  6-Port  ) 
!S24(C  6-Port  ) 
!S25(C  6-Port  ) 
!S26(C  6-Port  ) 
!S31(C  6-Port  ) 
!S32(C  6-Port  ) 
!S33(C  6-Port  ) 
!S34(C  6-Port  ) 
!S35(C  6-Port  ) 
!S36(C  6-Port  ) 
!S41(C  6-Port  ) 
!S42(C  6-Port  ) 
!S43(C  6-Port  ) 
!S44(C  6-Port  ) 
!S45(C  6-Port  ) 
!S46(C  6-Port  ) 
!S51(C  6-Port  ) 
!S52(C  6-Port  ) 
!S53(C  6-Port  ) 
!S54(C  6-Port  ) 
!S55(C  6-Port  ) 
!S56(C  6-Port  ) 
!S61(C  6-Port  ) 
!S62(C  6-Port  ) 
!S63(C  6-Port  ) 
!S64(C  6-Port  ) 
!S65(C  6-Port  ) 
!S66(C  6-Port  ) 
!S6P File: Measurement: :
# Hz S  RI   R 50
500000000 -0.3281 -0.066989 -0.010096 -0.0012426 -0.0084808 0.012984 -0.0043297 0.01189
0.013499 0.0058144 -0.0049542 0.0086952
-0.010113 -0.0013891 -0.4098 -0.075273 0.0088258 -0.010687 0.00074968 0.011903
0.0090278 0.0034541 0.00063701 0.013939
-0.0084365 0.012967 0.0088227 -0.010716 -0.25871 0.18882 0.0067565 0.0032663
-0.001992 0.0082727 0.00091311 0.012493
-0.0043179 0.011904 0.00081729 0.011882 0.0067554 0.0032668 -0.32803 0.03879
-0.019975 -0.0043698 0.015392 0.026514
0.013531 0.0057002 0.0089943 0.0034702 -0.0019799 0.0082984 -0.019936 -0.0043418
-0.22044 -0.2325 -0.028366 0.0046121
-0.0049524 0.0087345 0.00070671 0.013887 0.00091367 0.01247 0.01537 0.026546
-0.028486 0.0046632 -0.26346 -0.14547
560000000 -0.31729 0.10265 -0.021223 -0.068141 0.00076776 0.013576 0.0052747 0.010623
0.011256 0.006577 0.010924 0.0093596
-0.021051 -0.068067 -0.3719 0.08862 -0.040746 -0.039133 0.013854 0.0036171
-0.012997 -0.0058087 0.0042112 -0.001035
0.00085597 0.013618 -0.040934 -0.039027 -0.18356 0.2399 -0.00029086 -0.0050922
0.018494 0.0066286 0.0078413 -0.0054751
0.0054242 0.010639 0.013877 0.0035367 -0.00030986 -0.0051281 -0.3056 0.12981
0.0066074 -0.021749 0.0057102 -0.022239
0.01123 0.0063496 -0.013122 -0.0058452 0.018436 0.0066542 0.006562 -0.02175
-0.30122 -0.048244 0.010754 -0.049929
0.011107 0.0093832 0.00429 -0.0010395 0.007835 -0.0055282 0.0057679 -0.022249
0.010781 -0.049988 -0.33218 0.0052774
620000000 -0.27762 0.080853 -0.02329 0.0091785 0.0032653 0.0092135 0.0085534 -0.0049505
0.011798 -0.00046405 0.00093186 -0.0019366
-0.02327 0.0091807 -0.40056 0.035536 -0.018855 9.2678e-05 -0.0020875 -0.0019681
0.012921 -0.005414 0.00052812 -0.0029074
0.0033372 0.0092505 -0.018887 0.00014653 -0.15595 0.24973 -0.0012109 -0.0053101
-0.0040435 -0.0026905 0.0090443 -0.0029607
0.0085196 -0.0049405 -0.0020994 -0.0019814 -0.0011869 -0.0053116 -0.26281 0.13936
-0.039096 -0.020661 0.01294 0.028247
0.01191 -0.00047889 0.012935 -0.0054648 -0.0040508 -0.0027308 -0.039042 -0.020671
-0.21694 -0.086703 -0.042821 0.011411
0.00090157 -0.001836 0.0004614 -0.0029049 0.0090606 -0.0029713 0.013004 0.028227
-0.04294 0.011308 -0.24635 -0.031053
680000000 -0.24286 0.17365 -0.026448 -0.015307 0.0045902 0.0056361 0.0015002 -0.007211
-0.0018369 -0.011387 0.0056593 -0.0072265
-0.026424 -0.015276 -0.39089 0.13701 -0.032848 -0.002558 -0.0017956 -0.00043858
-0.0016474 -0.009518 -0.00096885 -0.0019558
0.0046217 0.0056545 -0.032898 -0.0024729 -0.10867 0.27216 -0.0010398 4.0388e-05
-0.0014707 0.00090175 -0.002791 -0.0092177
0.0014798 -0.0072595 -0.0018073 -0.0004411 -0.0010573 6.2943e-05 -0.22038 0.1918
-0.022945 -0.0075001 -0.0092118 -0.011517
-0.0018856 -0.011405 -0.0016784 -0.0095182 -0.0014635 0.00090034 -0.022943 -0.0074825
-0.28189 0.015237 -0.0049403 -0.0068271
0.0056128 -0.0073186 -0.0010181 -0.0019842 -0.0028322 -0.0092225 -0.0092207 -0.011507
-0.0048651 -0.0068571 -0.26121 0.07416
740000000 -0.19615 0.16697 -0.040923 0.026746 0.013749 -0.0039715 0.00041323 -0.0039997
-0.0045198 -0.0018969 -0.006265 0.0027259
-0.040931 0.026706 -0.33706 0.157 -0.037437 0.034185 0.00014081 -0.0060744
-0.012626 0.0062622 -0.0010027 -0.0058698
0.013745 -0.0040119 -0.037358 0.03435 -0.075323 0.2725 -0.0019114 0.0032874
-0.0011667 -0.0047564 -0.0017235 0.00066711
0.00040301 -0.0039817 0.00010315 -0.0060859 -0.0019373 0.0032933 -0.20396 0.19926
-0.042446 -0.0097944 0.02223 0.016618
-0.0045269 -0.0019821 -0.01265 0.0063309 -0.0011442 -0.0047965 -0.042482 -0.0097646
-0.18124 0.050075 -0.043989 -0.0003395
-0.0062831 0.0027332 -0.00099267 -0.0058303 -0.0017134 0.00067177 0.022237 0.016541
-0.043972 -0.00039021 -0.25284 0.080489
800000000 -0.16648 0.21307 -0.022824 0.015951 0.005786 -0.010283 -0.0045119 -0.0026341
-0.0045524 0.0016074 0.0043807 0.00056503
-0.022837 0.01594 -0.34537 0.22804 -0.0092111 0.034301 -0.0022277 0.0019475
-0.00034753 0.002269 0.00041451 0.0053576
0.0057125 -0.010291 -0.0091187 0.034376 -0.037148 0.29841 0.0010399 0.0011798
-6.7536e-05 0.0031818 -0.001863 0.00068641
-0.0045306 -0.0026354 -0.002228 0.0019729 0.0010461 0.0011657 -0.17474 0.22696
-0.029009 0.012793 0.01483 -0.010813
-0.0046043 0.0016668 -0.00034834 0.0022661 -6.8227e-05 0.0031801 -0.029025 0.01284
-0.23201 0.073088 -0.018851 0.020937
0.004288 0.00053027 0.00047193 0.0053637 -0.0018789 0.00067445 0.014734 -0.010791
-0.018819 0.02092 -0.24797 0.1309
860000000 -0.1333 0.23388 -0.01862 0.030455 -0.0030665 -0.010174 -0.002137 0.00051998
0.0041115 0.0055324 -0.0039556 -0.0032316
-0.018625 0.030424 -0.29889 0.27274 0.0070004 0.034579 0.00020271 0.0019175
0.0039597 0.00048188 0.0036126 0.00020408
-0.0031003 -0.010173 0.0071253 0.034592 0.010659 0.30859 -0.00047851 -0.00041705
0.0025069 -0.0017814 0.0017529 0.0042919
-0.0020885 0.0005102 0.0002096 0.0019266 -0.00047935 -0.0004164 -0.13915 0.23858
-0.018472 0.017037 -0.0065097 -0.0089826
0.0041394 0.0055972 0.0039474 0.00048803 0.0025212 -0.0017681 -0.018458 0.017077
-0.17807 0.13344 -0.02622 0.01604
-0.0039454 -0.0032954 0.0036253 0.00015695 0.0017458 0.0042648 -0.0064862 -0.0090044
-0.026253 0.016024 -0.19811 0.17816
920000000 -0.11039 0.25778 0.0039491 0.039258 -0.0093619 -0.0047346 -0.0019545 0.00176
0.00017315 0.0015318 0.0030066 -0.0014547
0.0039122 0.039211 -0.2719 0.29516 0.027849 0.023305 0.0013014 0.001072
0.0073036 0.00012499 0.0039397 -0.0029764
-0.0093958 -0.0047108 0.02797 0.023242 0.056968 0.31107 0.001745 -7.1434e-05
0.00057137 -0.000353 0.00093065 -0.0014814
-0.0019485 0.0017869 0.0013072 0.0010718 0.001742 -7.5614e-05 -0.11481 0.25595
-0.012601 0.030297 0.0041639 -0.0067346
0.00016968 0.0015266 0.0072901 8.6147e-05 0.00058069 -0.0003465 -0.012565 0.030359
-0.17082 0.13837 -0.003477 0.028399
0.0030258 -0.0014529 0.003914 -0.0030176 0.00093339 -0.0014938 0.0042052 -0.0067364
-0.0035058 0.028387 -0.20749 0.19198
980000000 -0.064376 0.27945 0.016082 0.030844 -0.0095411 0.0046364 0.001705 0.0037006
0.0039579 -0.0015649 -0.0035675 -0.0028016
0.016075 0.030828 -0.2199 0.33191 0.033077 0.0057979 0.0019009 -0.00025763
0.0018522 -0.0061301 -0.00042211 -0.0028713
-0.0095399 0.0046567 0.033153 0.0057074 0.10329 0.30584 0.0004623 -0.0011305
0.0001931 -0.001753 0.0014972 -0.00035629
0.0017479 0.0036931 0.0018874 -0.00025463 0.00047208 -0.0011442 -0.076941 0.26707
0.0064019 0.02994 -0.0094824 -0.007551
0.0039357 -0.0015654 0.0018297 -0.0061701 0.00019948 -0.0017648 0.0064567 0.029933
-0.14027 0.17315 0.0048265 0.020522
-0.0035981 -0.002846 -0.00046018 -0.0028864 0.0014981 -0.00034292 -0.0094971 -0.0075503
0.0047767 0.020505 -0.1658 0.23931
1040000000 -0.023722 0.28972 0.033015 0.020344 -0.0012422 0.0074787 0.0025315 0.0008892
0.00022777 -0.0033334 -0.00017239 -0.0014402
0.032994 0.020311 -0.18525 0.34653 0.030054 -0.01402 0.0015009 -0.0017004
-0.0022721 -0.0023748 -0.0012293 -0.0028636
-0.001215 0.0074758 0.030058 -0.01413 0.14939 0.29383 -0.00046288 -0.0014114
-0.0015278 -0.00087231 -0.00060067 -0.0011251
0.0025179 0.00090523 0.001481 -0.0016789 -0.00045379 -0.0014162 -0.049921 0.27758
0.018365 0.019387 -0.0022729 0.0013909
0.00022076 -0.0033184 -0.002317 -0.0023843 -0.0015149 -0.00086083 0.018391 0.019366
-0.10843 0.18243 0.013584 0.019959
-0.00013107 -0.0013908 -0.0012586 -0.0028648 -0.00060541 -0.0011253 -0.0022688 0.0013908
0.013577 0.019979 -0.14564 0.26056
1100000000 0.021281 0.30002 0.036907 -0.0025369 0.0034664 0.0042015 0.0024941 -0.0010311
-0.0021317 -0.0031838 -0.0042377 -8.703e-05
0.036878 -0.0025319 -0.14151 0.36624 0.015945 -0.027546 -5.053e-05 -0.0018216
-0.0033747 -0.00097987 -0.0037346 -0.00054215
0.0034844 0.0041832 0.015856 -0.027649 0.19618 0.27497 -0.0017663 0.00030745
-0.0016115 0.00067079 -0.0011082 -0.00053608
0.0024785 -0.0010353 -6.8669e-05 -0.0018222 -0.0017627 0.00030005 -0.0096356 0.28277
0.024374 0.0065883 -0.0026887 -3.9935e-05
-0.0021374 -0.0031845 -0.0033791 -0.00095781 -0.0015984 0.00067536 0.024387 0.0065568
-0.089671 0.19873 0.019668 0.010304
-0.004259 -6.5803e-05 -0.0037548 -0.00051963 -0.0011112 -0.0005432 -0.002693 -3.0084e-05
0.019649 0.010304 -0.099995 0.29259
1160000000 0.072084 0.29736 0.025521 -0.019791 0.003482 -0.00060101 -1.3613e-05 -0.0024523
-0.0040086 -0.00095951 -0.0013533 0.0041664
0.025535 -0.019777 -0.098304 0.37152 -0.0031559 -0.028972 -0.0014536 -0.0015555
-0.002619 0.0025194 -0.0017687 0.0018466
0.003479 -0.00062778 -0.0032808 -0.028984 0.23961 0.24538 -0.00063601 0.0016273
-0.0003821 0.0017374 -0.00095645 0.00037858
-2.4298e-05 -0.0024353 -0.0014713 -0.0015449 -0.00063896 0.0016253 0.029164 0.28044
0.021429 -0.0094031 -0.0035194 0.0051953
-0.0040223 -0.00092096 -0.0026296 0.0025428 -0.00037976 0.0017506 0.021424 -0.0094112
-0.055517 0.20986 0.019454 0.0012278
-0.0013124 0.0041692 -0.0017636 0.0018355 -0.00096082 0.00036834 -0.0035085 0.0051923
0.019463 0.0012223 -0.053642 0.2967
1220000000 0.11608 0.28907 0.012414 -0.030037 -0.0011827 -0.0014907 -4.8016e-06 -0.00099958
-0.0027647 0.0021931 0.0011333 0.0020464
0.012428 -0.030003 -0.053947 0.38649 -0.016509 -0.021404 -0.0025237 0.00047874
1.4494e-05 0.0030606 -0.00080767 0.0018776
-0.0011858 -0.0014988 -0.016626 -0.021346 0.27959 0.20778 0.00087894 0.0015112
0.00055755 0.0010714 0.00022955 0.00058455
-1.6061e-06 -0.0010048 -0.0025375 0.0004907 0.00087768 0.0015119 0.068826 0.27306
0.011046 -0.016227 0.0021826 0.0016811
-0.0027532 0.0022013 2.7361e-05 0.0030531 0.00056508 0.0010809 0.011023 -0.016244
-0.033009 0.22172 0.014911 -0.012303
0.0011497 0.0020594 -0.00080296 0.0018931 0.00023993 0.00059895 0.0021762 0.0016665
0.014904 -0.012277 -0.022787 0.31535
1280000000 0.16683 0.26948 -0.0065654 -0.029441 -0.0019489 0.0016896 -0.00090503 -0.002064
-0.00091447 0.0034178 0.0025855 0.0013797
-0.0065281 -0.029415 -0.00724 0.37841 -0.023714 -0.0085302 -0.00084192 0.0014132
0.0016834 0.0017446 0.00063704 0.0020592
-0.001943 0.0016962 -0.0238 -0.0084313 0.31129 0.16442 0.0014259 -0.00011673
0.0010184 0.00029387 0.00035391 0.00039056
-0.00090885 -0.002062 -0.00082956 0.0014248 0.0014275 -0.00010909 0.10553 0.25729
0.0019029 -0.018761 -2.6169e-05 0.00019014
-0.00087687 0.0034099 0.0017039 0.0017539 0.0010216 0.00029819 0.0018786 -0.018776
0.0040467 0.22729 0.0039129 -0.01539
0.0026166 0.0013615 0.00063389 0.0020556 0.00035 0.00038625 -1.7673e-05 0.00018547
0.0039271 -0.015383 0.025118 0.31846
1340000000 0.20435 0.23817 -0.016712 -0.020285 0.00035551 0.0041788 -0.0019061 -0.00078361
0.0014784 0.0027998 0.0018152 -0.0014043
-0.016677 -0.02028 0.03181 0.37208 -0.021084 0.0042918 -0.00019932 0.0019953
0.0018959 0.00085772 0.0012237 0.00082897
0.00037563 0.0041813 -0.021096 0.0043917 0.33438 0.11737 0.00082188 -0.00093408
0.0005628 -0.00054036 9.8378e-05 0.00023413
-0.0019067 -0.00077286 -0.00019415 0.0019985 0.00082544 -0.00092931 0.13878 0.23809
-0.0075399 -0.016374 0.0011918 0.00045891
0.0014916 0.0027928 0.0018989 0.00084088 0.00055957 -0.00055201 -0.0075595 -0.016363
0.033101 0.2258 -0.0028946 -0.014109
0.0018058 -0.0014062 0.0012133 0.00081427 0.00010659 0.0002439 0.0011973 0.00044635
-0.0028891 -0.014107 0.063055 0.31539
1400000000 0.23943 0.20188 -0.02349 -0.008854 0.0047755 0.0031569 -0.0021996 0.00072996
0.0025897 0.0010098 0.000356 -0.0014019
-0.023455 -0.0088652 0.07068 0.36026 -0.014433 0.012369 0.0012485 0.0013445
0.001181 -0.00062095 0.0011286 0.00023572
0.0047972 0.0031398 -0.014393 0.012456 0.34882 0.063546 -0.00010739 -0.0013598
0.00010218 -0.00014335 0.00040317 0.00015928
-0.0022046 0.00073936 0.0012498 0.0013479 -9.8418e-05 -0.001366 0.16925 0.20987
-0.013589 -0.0098846 -0.00082493 -0.00044445
0.0026018 0.0010001 0.001188 -0.00063146 0.00010551 -0.00014904 -0.013611 -0.0098589
0.067391 0.22454 -0.0094599 -0.0094672
0.00035564 -0.001412 0.0011241 0.00023368 0.00040303 0.00016523 -0.00081511 -0.00043681
-0.0094448 -0.0094664 0.10835 0.30613
1460000000 0.26325 0.15884 -0.020858 0.003753 0.0051836 -0.0015849 -0.0015604 0.0017587
0.0021966 -0.00036933 -0.00026228 -0.0009216
-0.020849 0.0037264 0.10521 0.33885 -0.005431 0.01504 0.0015998 0.00026328
0.00098338 -0.0012276 0.0012838 -0.00053075
0.0051817 -0.0016124 -0.0053566 0.015084 0.35538 0.0084586 -0.0010384 -0.0010526
0.00026596 -0.00015805 0.0006487 -0.00029381
-0.0015574 0.0017735 0.0016065 0.00026207 -0.001036 -0.0010567 0.1963 0.1811
-0.014751 -0.0036656 -0.00098457 0.0018244
0.0021935 -0.00038091 0.00097621 -0.0012355 0.00026835 -0.00016671 -0.014766 -0.0036307
0.096758 0.21256 -0.01168 -0.0032609
-0.00026392 -0.00091284 0.0012938 -0.00053227 0.00064223 -0.00029946 -0.00098194 0.0018092
-0.011668 -0.0032677 0.14181 0.28615
1520000000 0.2772 0.11841 -0.01561 0.009618 0.0032183 -0.0039562 0.00014876 0.0026449
0.0023817 -0.0019194 -0.0011341 -0.00017693
-0.015597 0.0095945 0.13966 0.32578 0.0020609 0.01241 0.0017079 -0.00066651
0.00014704 -0.0009677 0.00038516 -0.0010123
0.0031997 -0.0039729 0.0021372 0.012399 0.34855 -0.047817 -0.00077585 -0.00032361
0.00066405 -0.00088945 0.00010387 -7.8699e-05
0.00015905 0.0026374 0.0017093 -0.00068367 -0.00077546 -0.00032163 0.22075 0.14342
-0.014645 0.0019038 0.0013655 0.0020134
0.0023677 -0.0019333 0.00014434 -0.00097315 0.00066299 -0.00088792 -0.014645 0.0019246
0.12569 0.20212 -0.011758 0.0010926
-0.0011336 -0.00017592 0.00038264 -0.0010105 0.00010841 -8.0943e-05 0.0013653 0.0020073
-0.011764 0.0010892 0.17554 0.26789
1580000000 0.28802 0.072591 -0.0090558 0.013338 -0.001048 -0.0046863 0.0015276 0.0018856
-0.00025345 -0.0022529 -0.0002818 0.00031639
-0.0090602 0.01332 0.16791 0.30093 0.0054502 0.0072203 0.00059822 -0.0015453
-0.00043574 -0.0011556 -0.00019354 -0.00074252
-0.0010775 -0.0046679 0.00549 0.0071985 0.32841 -0.10594 -0.0014799 0.0002573
-0.00030371 -0.0013831 0.00015032 -0.00058128
0.0015374 0.0018874 0.00058926 -0.0015431 -0.0014704 0.00025417 0.23569 0.10353
-0.011446 0.0069276 0.002121 0.00080433
-0.00026972 -0.0022548 -0.00044918 -0.0011519 -0.00030966 -0.0013884 -0.011438 0.0069627
0.15127 0.18656 -0.0094862 0.0072507
-0.00028437 0.00033082 -0.00020732 -0.00074311 0.00013354 -0.00057827 0.0021245 0.0008009
-0.0095038 0.0072497 0.20916 0.24208
1640000000 0.29141 0.032033 -0.0021086 0.012524 -0.0028466 -0.0022437 0.0027715 0.0010425
-0.00063815 -0.001698 -0.00032764 0.00051036
-0.0021221 0.012513 0.1976 0.2773 0.0055371 0.0023557 -0.00043807 -0.0018537
-0.00088425 -0.00056626 -0.00048505 -0.00068402
-0.0028606 -0.0022265 0.005551 0.0023363 0.29916 -0.15466 -0.00071248 0.0011823
-0.0011168 -0.0011023 -0.000225 -0.00037429
0.00276 0.0010323 -0.00043832 -0.0018664 -0.00071333 0.0011762 0.24874 0.054586
-0.0075109 0.0081863 0.0025449 -0.00063474
-0.00065403 -0.0016925 -0.00089412 -0.00056407 -0.0011208 -0.0011142 -0.0074973 0.0081993
0.17492 0.16563 -0.0046703 0.0093708
-0.00031999 0.00051789 -0.00049995 -0.00068006 -0.00023085 -0.00037113 0.0025463 -0.00063446
-0.0046654 0.0093769 0.2349 0.21241
1700000000 0.28632 -0.012982 0.0015453 0.0098888 -0.0033552 0.00031837 0.0031387 -0.0012713
-0.0021835 -0.00066912 0.00061334 0.00046449
0.0015359 0.0098836 0.2171 0.24588 0.0028922 -0.00034954 -0.0014645 -0.00074677
-0.00085351 -0.00016516 -0.0007924 -0.00044424
-0.003358 0.00034443 0.0028946 -0.0003702 0.25585 -0.19379 9.7624e-05 0.0015921
-0.002103 -0.00022103 -0.00030452 -0.00083914
0.0031346 -0.0012841 -0.0014753 -0.00074176 0.00010342 0.0015929 0.24632 0.0039318
-0.0048296 0.0091299 0.0017417 -0.0021677
-0.0021812 -0.00066214 -0.00085131 -0.00016401 -0.0021043 -0.00021907 -0.0048246 0.0091517
0.19524 0.14808 4.4423e-05 0.0096505
0.00061372 0.00045266 -0.00079746 -0.00043424 -0.00030477 -0.00083478 0.0017364 -0.0021714
4.5752e-05 0.0096468 0.25315 0.17904
1760000000 0.2754 -0.061845 0.0041657 0.0067416 -0.0021284 0.0012111 0.0013266 -0.0035154
-0.0012684 0.00053894 0.00032124 -0.00057296
0.0041469 0.0067423 0.24319 0.20638 0.00025048 -0.0017185 -0.0012415 -7.7688e-07
-0.0011791 0.00089934 -0.00056408 0.00032652
-0.0021246 0.0012141 0.00023794 -0.0017331 0.20685 -0.22624 0.0011156 0.0013551
-0.001217 0.001422 -0.0012018 -0.00061493
0.0012995 -0.0035259 -0.0012487 9.9612e-06 0.0011065 0.0013496 0.2372 -0.048687
-0.0013608 0.0084672 -0.00016285 -0.0025023
-0.0012655 0.00054315 -0.0011752 0.00090803 -0.0012215 0.0014236 -0.0013333 0.0084676
0.21167 0.11559 0.0041366 0.0071051
0.00033179 -0.00056456 -0.00055704 0.00033347 -0.0011855 -0.0006001 -0.00017329 -0.0024839
0.0041322 0.0071053 0.26642 0.14188
1820000000 0.2527 -0.099426 0.0045981 0.0030712 0.00022457 0.0023448 -0.001014 -0.003182
-0.0011581 0.00082186 -0.00014405 -7.6069e-05
0.0045849 0.0030609 0.25454 0.1771 -0.0019324 0.00010036 -0.0015174 0.00089897
-0.00011689 0.0012814 -0.00074341 0.00043379
0.00024183 0.0023298 -0.0019365 0.00010533 0.15718 -0.24071 0.0015989 0.000792
-0.00032715 0.0023406 -0.0016778 0.0001458
-0.0010338 -0.003177 -0.0015113 0.0009107 0.0015954 0.00079134 0.20733 -0.096278
0.00015908 0.0071208 -0.0016509 -0.0017723
-0.0011502 0.00083508 -0.00010414 0.001274 -0.00033088 0.0023496 0.00017426 0.0071264
0.23203 0.088849 0.0051036 0.0035393
-0.00014965 -7.3795e-05 -0.00073666 0.00044977 -0.0016713 0.00014792 -0.0016392 -0.0017618
0.005117 0.0035208 0.27069 0.10707
1880000000 0.21866 -0.14089 0.0024606 0.00074081 -0.00030924 0.0022237 -0.0029182 -0.0023627
-0.00030713 0.001659 0.00031564 -0.00061775
0.0024677 0.00073825 0.25922 0.13022 -0.0037313 0.0027416 -0.00030151 0.0018259
0.00056914 0.0014435 0.00011393 0.0010011
-0.00029822 0.0022194 -0.0037212 0.002767 0.1058 -0.24919 0.0021155 -0.00099981
0.0015995 0.0020814 -0.0010295 0.0014589
-0.0029447 -0.0023521 -0.00029694 0.0018402 0.002117 -0.0010049 0.16643 -0.13704
0.0012388 0.0051472 -0.002413 0.00030387
-0.00031978 0.0016633 0.00057266 0.0014382 0.0016082 0.0020847 0.00125 0.005149
0.23867 0.058318 0.0053233 0.0013487
0.00032768 -0.00060512 0.00012925 0.00099742 -0.0010299 0.0014618 -0.0024299 0.00030054
0.0053194 0.0013474 0.27203 0.072774
1940000000 0.17955 -0.16715 0.00028778 -0.0010957 0.0016705 0.001919 -0.0038612 0.00031369
0.0011267 0.00093002 -0.00057406 -0.00053262
0.00028427 -0.0010954 0.26047 0.099246 -0.0019296 0.0055406 0.001093 0.0014676
0.002093 0.00048254 0.00097555 0.00037984
0.0016883 0.001907 -0.0018999 0.005563 0.061312 -0.24139 0.000677 -0.0025111
0.002439 0.00046122 0.0002503 0.0016719
-0.0038689 0.00034333 0.0011075 0.0014675 0.00067832 -0.0025052 0.11319 -0.16729
0.00023679 0.0036737 -0.0014611 0.0014382
0.0011419 0.00093363 0.002101 0.00046913 0.0024343 0.00045791 0.00024484 0.0036648
0.24416 0.021764 0.004169 -0.0024755
-0.00058723 -0.00052544 0.0009799 0.00036453 0.00025334 0.0016725 -0.0014608 0.0014236
0.004168 -0.002474 0.26184 0.037008
2000000000 0.13435 -0.18275 -0.0034372 0.00082063 0.0029279 0.0012588 -0.002456 0.0036927
0.00087274 0.00053979 -0.0007198 0.00039552
-0.0034407 0.00081838 0.24744 0.063877 -0.00057973 0.0077968 0.001668 0.00038173
0.0012681 -0.0013985 0.00056892 5.9478e-05
0.0029404 0.0012403 -0.00052127 0.0078135 0.020364 -0.22712 -0.0016234 -0.001633
0.0021196 -0.00109 0.0016838 0.0015127
-0.0024685 0.0037372 0.0016747 0.00038466 -0.0016108 -0.0016354 0.060024 -0.17729
-0.0013006 0.0033722 -0.00023206 0.0021168
0.00086767 0.00054056 0.0012516 -0.001408 0.0021226 -0.0010905 -0.0012926 0.0033922
0.24248 -0.011664 0.00065654 -0.0034887
