!Keysight Technologies,M9804A,MY58100912,A.14.10.03
!Date: Thursday, April 27, 2023 10:28:33
!Correction: S11(C  6-Port  ) 
!S12(C  6-Port  ) 
!S13(C  6-Port  ) 
!S14(C  6-Port  ) 
!S15(C  6-Port  ) 
!S16(C  6-Port  ) 
!S21(C  6-Port  ) 
!S22(C  6-Port  ) 
!S23(C  6-Port  ) 
!S24(C  6-Port  ) 
!S25(C  6-Port  ) 
!S26(C  6-Port  ) 
!S31(C  6-Port  ) 
!S32(C  6-Port  ) 
!S33(C  6-Port  ) 
!S34(C  6-Port  ) 
!S35(C  6-Port  ) 
!S36(C  6-Port  ) 
!S41(C  6-Port  ) 
!S42(C  6-Port  ) 
!S43(C  6-Port  ) 
!S44(C  6-Port  ) 
!S45(C  6-Port  ) 
!S46(C  6-Port  ) 
!S51(C  6-Port  ) 
!S52(C  6-Port  ) 
!S53(C  6-Port  ) 
!S54(C  6-Port  ) 
!S55(C  6-Port  ) 
!S56(C  6-Port  ) 
!S61(C  6-Port  ) 
!S62(C  6-Port  ) 
!S63(C  6-Port  ) 
!S64(C  6-Port  ) 
!S65(C  6-Port  ) 
!S66(C  6-Port  ) 
!S6P File: Measurement: :
# Hz S  RI   R 50
500000000 -0.33232 -0.067481 -0.011433 -0.0009265 -0.0093016 0.013943 -0.0042045 0.012021
0.012828 0.0056459 -0.0040912 0.0075972
-0.011384 -0.00092043 -0.41355 -0.07533 0.0072899 -0.0097482 0.00084014 0.012416
0.0080292 0.0035558 0.00090105 0.013906
-0.0092755 0.013948 0.0072858 -0.0097777 -0.26655 0.19099 0.0064365 0.0040214
-0.0022758 0.0091854 0.00016065 0.012171
-0.0041837 0.012039 0.00087918 0.012433 0.0064378 0.0040186 -0.33101 0.036458
-0.021105 -0.0032826 0.016433 0.02532
0.012897 0.0055996 0.0080537 0.0035346 -0.0022693 0.0091895 -0.021112 -0.0032927
-0.23259 -0.22272 -0.029694 0.0060838
-0.0040554 0.0075871 0.0009317 0.013917 0.00016003 0.012171 0.016416 0.025296
-0.029678 0.0060676 -0.26231 -0.14556
560000000 -0.32039 0.10336 -0.02227 -0.066852 -3.5857e-05 0.014583 0.005095 0.012087
0.01039 0.005305 0.010932 0.0097673
-0.022215 -0.066791 -0.37423 0.092061 -0.042105 -0.038661 0.013955 0.0046103
-0.012723 -0.0040528 0.0031716 -7.3768e-05
1.9395e-05 0.014597 -0.042259 -0.038617 -0.18696 0.24392 -0.00031344 -0.004577
0.019113 0.0080854 0.0075784 -0.0061152
0.0051222 0.012071 0.013975 0.0046082 -0.00032002 -0.0045797 -0.30805 0.13047
0.0044335 -0.022573 0.0049586 -0.021782
0.01042 0.0053705 -0.012756 -0.004075 0.019126 0.0080826 0.0044176 -0.022575
-0.30853 -0.036633 0.0099043 -0.052176
0.010958 0.0097186 0.0031335 -0.00010343 0.0075919 -0.0061294 0.0049628 -0.021786
0.0099287 -0.052188 -0.33436 0.0086777
620000000 -0.27986 0.081203 -0.023822 0.010122 0.0044566 0.0098408 0.0086579 -0.0044224
0.012835 -0.00060605 0.00042455 -0.0024381
-0.023801 0.010097 -0.40321 0.037909 -0.017985 0.0013195 -0.0013733 -0.0021582
0.013406 -0.0051873 0.00084236 -0.0029423
0.0044984 0.00982 -0.018002 0.0013535 -0.15726 0.25385 -0.00038496 -0.0053237
-0.0025905 -0.0025376 0.0099442 -0.0032282
0.0086915 -0.0044293 -0.0013944 -0.0021719 -0.00037605 -0.0053314 -0.26424 0.14103
-0.040411 -0.01898 0.015203 0.028678
0.012831 -0.00062719 0.013416 -0.0052315 -0.0025969 -0.0025291 -0.040415 -0.018977
-0.22468 -0.076133 -0.045085 0.013148
0.00042211 -0.0024326 0.00082512 -0.0029552 0.0099758 -0.0032227 0.015207 0.028681
-0.045083 0.013123 -0.24604 -0.029588
680000000 -0.2452 0.17736 -0.026481 -0.01409 0.0052993 0.0055473 0.0017849 -0.0071247
-0.0010037 -0.011578 0.0062206 -0.0070083
-0.026461 -0.01408 -0.39158 0.14081 -0.031936 -0.0023573 -0.0013405 -0.00048442
-0.00099528 -0.009769 -0.00056492 -0.0023503
0.0053169 0.0055437 -0.03198 -0.0022868 -0.10701 0.27572 -0.0010101 -0.00069761
-0.001094 4.7365e-05 -0.0027034 -0.0094784
0.0017462 -0.0071348 -0.0013507 -0.00049206 -0.0010098 -0.00070639 -0.22058 0.19343
-0.023756 -0.0060181 -0.0093945 -0.010969
-0.0010328 -0.011612 -0.0010329 -0.0097704 -0.0010932 4.8211e-05 -0.023766 -0.0060094
-0.28481 0.030837 -0.006714 -0.0060929
0.0061902 -0.0070212 -0.00057326 -0.0023313 -0.0027048 -0.0094676 -0.0093822 -0.010972
-0.0067102 -0.0061028 -0.26272 0.078212
740000000 -0.19628 0.16992 -0.040378 0.027847 0.01454 -0.0045051 0.00028206 -0.0041512
-0.004626 -0.003075 -0.0066633 0.0023509
-0.040344 0.027808 -0.33614 0.15902 -0.037172 0.035044 0.00014688 -0.0065582
-0.013661 0.0065933 -0.00062611 -0.0062324
0.014557 -0.0045259 -0.037129 0.035201 -0.073513 0.27284 -0.0022188 0.0031207
-0.0020174 -0.005894 -0.0021648 0.0010518
0.00026557 -0.0041421 0.00013277 -0.0065582 -0.0022277 0.0031382 -0.2041 0.20141
-0.043468 -0.009629 0.024074 0.017272
-0.004654 -0.0030676 -0.013678 0.0066706 -0.0020287 -0.0059099 -0.043488 -0.0095795
-0.181 0.06499 -0.045375 0.00010724
-0.0066669 0.0023751 -0.00065052 -0.0062083 -0.0021611 0.001057 0.024082 0.017257
-0.045368 8.3818e-05 -0.2519 0.085349
800000000 -0.16559 0.21582 -0.021679 0.016303 0.0060866 -0.010635 -0.0046899 -0.0024355
-0.0048289 0.0010769 0.0032914 0.00069741
-0.021687 0.01627 -0.34401 0.23051 -0.0087475 0.034165 -0.0023844 0.0018767
-0.001232 0.0022624 0.00019508 0.0052882
0.0060557 -0.010647 -0.0086551 0.034239 -0.035301 0.29807 0.00061874 0.0015995
-0.00024925 0.0032116 -0.00196 0.0010382
-0.0047133 -0.0024211 -0.002376 0.0018961 0.00061704 0.0016053 -0.17493 0.22859
-0.028303 0.013533 0.014817 -0.010619
-0.0048132 0.001091 -0.0012198 0.0022639 -0.00023872 0.0032022 -0.028305 0.013584
-0.22911 0.089486 -0.017613 0.021207
0.0032514 0.00068007 0.00020189 0.0053142 -0.0019553 0.0010595 0.014806 -0.010626
-0.017631 0.021175 -0.2477 0.13628
860000000 -0.13101 0.23554 -0.017739 0.030237 -0.0026035 -0.010629 -0.0018254 0.00024486
0.0035113 0.0057303 -0.0041462 -0.002925
-0.017722 0.030208 -0.29693 0.27431 0.0072319 0.034839 -0.00018021 0.0020731
0.0032298 0.0013519 0.0031932 0.00017756
-0.0026339 -0.010624 0.0073557 0.03486 0.011604 0.30761 -0.0005906 -0.00012505
0.0024634 -0.0013412 0.0016743 0.0040508
-0.0018281 0.00025885 -0.00017018 0.0020814 -0.00058909 -0.00011203 -0.1383 0.23938
-0.017881 0.017937 -0.0063092 -0.0093134
0.0035515 0.0057085 0.0032307 0.0013238 0.0024636 -0.0013322 -0.017863 0.017978
-0.17122 0.14495 -0.025608 0.017136
-0.0041472 -0.0029057 0.0031842 0.00016145 0.0016972 0.004035 -0.0063068 -0.0092982
-0.02561 0.01713 -0.19712 0.18207
920000000 -0.10816 0.25814 0.0048819 0.038338 -0.0093988 -0.0057694 -0.0020441 0.0012488
0.00048122 0.0017667 0.003126 -0.0011671
0.0048531 0.038326 -0.26999 0.29585 0.028383 0.02314 0.0013139 0.0011547
0.0080244 0.00019975 0.0046712 -0.0029955
-0.0094151 -0.0057223 0.0285 0.023065 0.056936 0.3102 0.00193 8.2514e-05
0.00078142 -0.00034928 0.00082263 -0.0019022
-0.0020535 0.0012644 0.0013258 0.0011594 0.0019261 8.3358e-05 -0.11424 0.25645
-0.011331 0.030733 0.0046257 -0.0069851
0.00049902 0.0017541 0.0080166 0.0001637 0.00078314 -0.00035612 -0.011274 0.030763
-0.16324 0.14975 -0.0012934 0.027799
0.0031283 -0.0011649 0.0046472 -0.0030079 0.00082544 -0.0019081 0.0046018 -0.0069883
-0.0013039 0.027784 -0.2057 0.19508
980000000 -0.062636 0.27924 0.016406 0.02994 -0.01005 0.0039561 0.0013798 0.00359
0.0040562 -0.0014242 -0.0032782 -0.0027864
0.016388 0.029928 -0.21839 0.3318 0.033688 0.0055991 0.0020999 -0.00016401
0.0022576 -0.0062959 -0.00014292 -0.0029146
-0.01005 0.0039855 0.03376 0.0054907 0.10315 0.30544 0.00074215 -0.001189
0.00056031 -0.0019095 0.0011746 -0.00051401
0.0013854 0.0035873 0.0021106 -0.00015735 0.00073835 -0.0011893 -0.076165 0.26672
0.0079455 0.029494 -0.009773 -0.0082497
0.0040566 -0.0014438 0.0022231 -0.0063289 0.00056187 -0.0019186 0.0080132 0.029492
-0.13092 0.18312 0.0063727 0.020417
-0.0032773 -0.002758 -0.00017048 -0.0029266 0.0011703 -0.00051745 -0.0097717 -0.0082376
0.0063634 0.020424 -0.16437 0.24173
1040000000 -0.02265 0.28868 0.033035 0.019341 -0.0019996 0.0071416 0.0022159 0.00093228
0.00041368 -0.0032044 -0.0001426 -0.0019657
0.033016 0.019342 -0.18434 0.34622 0.030466 -0.014685 0.0015503 -0.0017145
-0.0022747 -0.0028411 -0.001396 -0.0030484
-0.0019878 0.0071523 0.030464 -0.014832 0.14949 0.29361 -0.00049326 -0.0016582
-0.001711 -0.00096883 -0.00089641 -0.00092269
0.0022137 0.00092686 0.0015745 -0.001714 -0.00049123 -0.0016609 -0.049797 0.27667
0.019425 0.019054 -0.002337 0.00061435
0.00039718 -0.0031996 -0.0023084 -0.0028342 -0.0017022 -0.00098024 0.019477 0.019019
-0.098745 0.19021 0.014752 0.01945
-0.00011845 -0.0019433 -0.0014252 -0.0030433 -0.00089558 -0.00092597 -0.0023478 0.00061239
0.01474 0.019435 -0.14363 0.2635
1100000000 0.021976 0.29913 0.036874 -0.0034329 0.0027411 0.0043267 0.0023604 -0.00059969
-0.0022168 -0.0030465 -0.0042964 4.7511e-05
0.036859 -0.0034095 -0.14146 0.36584 0.016098 -0.028605 8.4328e-05 -0.0019019
-0.0039135 -0.0011849 -0.003724 -0.00046733
0.0027471 0.0043221 0.016019 -0.028702 0.19666 0.27468 -0.0020188 0.00017058
-0.0020247 0.00061995 -0.0012966 -0.00022127
0.0023604 -0.00061198 7.3967e-05 -0.0018951 -0.0020258 0.00016858 -0.010131 0.28215
0.025268 0.0055414 -0.0029239 -0.00046957
-0.0022234 -0.0030453 -0.0039412 -0.0011603 -0.0020228 0.00062271 0.025284 0.0055093
-0.079268 0.2045 0.020709 0.0097076
-0.0042972 6.4143e-05 -0.003728 -0.00045693 -0.0013011 -0.0002158 -0.0029152 -0.00046218
0.020705 0.0097219 -0.096627 0.29444
1160000000 0.072384 0.29668 0.024991 -0.020813 0.0028563 -0.00037712 5.7083e-05 -0.0020272
-0.0042153 -0.0010056 -0.0014943 0.0042745
0.024993 -0.020783 -0.098546 0.37205 -0.0038026 -0.029996 -0.0015386 -0.0017712
-0.0031733 0.0028589 -0.0018414 0.0020255
0.002847 -0.00038941 -0.0039232 -0.030023 0.24045 0.2445 -0.00090296 0.0018356
-0.000483 0.002138 -0.00096259 0.00061408
4.5957e-05 -0.002039 -0.001542 -0.001763 -0.00090466 0.0018346 0.028247 0.28007
0.021875 -0.0111 -0.0038817 0.0048188
-0.0042238 -0.00097845 -0.0031727 0.0028894 -0.00047745 0.002132 0.021871 -0.011129
-0.044769 0.21313 0.019862 -0.00042703
-0.0014693 0.004288 -0.0018463 0.0020287 -0.00096298 0.00061605 -0.003876 0.0048227
0.019851 -0.00042523 -0.050474 0.2984
1220000000 0.11598 0.28846 0.011242 -0.030872 -0.0015956 -0.00085637 0.00043978 -0.00096305
-0.0029421 0.0022073 0.0011057 0.0023759
0.011261 -0.030832 -0.054133 0.38725 -0.017644 -0.021982 -0.0027195 0.00040737
-0.00010539 0.0035459 -0.00082014 0.0022417
-0.0016102 -0.00085702 -0.017756 -0.021945 0.28001 0.20579 0.00087534 0.0019529
0.00073307 0.0013487 0.00053114 0.00071925
0.00043074 -0.00097644 -0.0027218 0.00042041 0.0008682 0.0019567 0.067971 0.27309
0.010811 -0.017828 0.0015324 0.001611
-0.0029248 0.0022288 -9.3091e-05 0.0035438 0.0007449 0.0013452 0.010789 -0.017844
-0.023322 0.22352 0.015148 -0.013924
0.0011093 0.0023735 -0.00080666 0.0022472 0.00053273 0.00071385 0.0015385 0.0016002
0.015143 -0.013906 -0.020061 0.31584
1280000000 0.16685 0.26956 -0.0080731 -0.0296 -0.0020485 0.0026908 -0.00076173 -0.0023788
-0.0010089 0.0034827 0.0027701 0.0016572
-0.0080565 -0.029566 -0.0069246 0.38014 -0.025118 -0.0084348 -0.0010856 0.0015856
0.0021101 0.0021317 0.00085983 0.0021472
-0.0020448 0.002684 -0.025189 -0.008333 0.31058 0.16216 0.0018628 4.3135e-05
0.0013811 0.00015567 0.00046419 0.00016521
-0.0007698 -0.0023676 -0.0010895 0.0015927 0.001864 4.5837e-05 0.10492 0.25769
0.00048883 -0.020233 -0.00054098 0.00064249
-0.00098636 0.0034856 0.0021264 0.0021272 0.0013819 0.00015172 0.00045256 -0.020237
0.012748 0.22826 0.0034798 -0.017171
0.0027812 0.0016398 0.00087303 0.0021491 0.00046505 0.00016273 -0.00054547 0.00064673
0.0034739 -0.017165 0.027678 0.31898
1340000000 0.20447 0.2382 -0.018335 -0.019335 0.00081315 0.0050306 -0.0020105 -0.0012611
0.0015965 0.0029585 0.0022434 -0.0015263
-0.018302 -0.019326 0.033404 0.3733 -0.022195 0.0051469 -0.00013016 0.002222
0.0024018 0.00074935 0.0013991 0.00084373
0.00083737 0.0050368 -0.0222 0.0052658 0.33227 0.11516 0.0011199 -0.001133
0.00062872 -0.00063176 0.00015354 0.00011973
-0.0020137 -0.0012529 -0.00011701 0.0022225 0.0011133 -0.0011317 0.13844 0.23862
-0.0096784 -0.016965 0.00071213 0.001014
0.0016258 0.0029571 0.0024055 0.0007329 0.00062821 -0.00063276 -0.0097141 -0.01695
0.041545 0.22561 -0.0045381 -0.015511
0.0022385 -0.0015358 0.0014016 0.00082779 0.00015579 0.00012021 0.00071091 0.0010136
-0.004532 -0.015495 0.066257 0.3152
1400000000 0.2399 0.20207 -0.024345 -0.0071834 0.0057063 0.0036505 -0.0024844 0.00067163
0.0027606 0.0012185 0.00053543 -0.0018224
-0.024305 -0.0071932 0.072416 0.36112 -0.014878 0.013645 0.001577 0.0013925
0.0013876 -0.0010722 0.0012832 4.1222e-05
0.0057177 0.0036288 -0.014827 0.013738 0.34572 0.062807 -1.75e-05 -0.0018002
0.0001337 -0.00035741 0.00037125 0.00021137
-0.0024799 0.00068432 0.0015908 0.0013903 -1.6104e-05 -0.0018008 0.16891 0.21015
-0.015887 -0.009537 -0.00089409 0.00041362
0.0027695 0.0012042 0.001381 -0.0010888 0.00013235 -0.00035931 -0.015909 -0.0095015
0.074871 0.2236 -0.011491 -0.0098834
0.00052422 -0.0018236 0.001284 2.8769e-05 0.0003736 0.00021445 -0.00089156 0.00041221
-0.011496 -0.0098871 0.11116 0.30515
1460000000 0.26417 0.15907 -0.020722 0.0057374 0.006227 -0.0017669 -0.001737 0.0019383
0.0024776 -0.00041842 -0.00041816 -0.0012222
-0.020703 0.0057248 0.10757 0.33896 -0.0050317 0.016488 0.0017952 0.00012848
0.00086983 -0.0015865 0.0012263 -0.00062665
0.0062229 -0.0017877 -0.0049556 0.016531 0.35242 0.009407 -0.0014188 -0.0012386
0.00020973 -0.00013679 0.00073521 -0.0003009
-0.001725 0.0019465 0.0018097 0.0001205 -0.0014198 -0.0012307 0.19626 0.18131
-0.016674 -0.001814 -0.00047464 0.0023998
0.0024778 -0.00042779 0.00086916 -0.0015927 0.00020992 -0.00013725 -0.016686 -0.0017843
0.10414 0.2118 -0.013731 -0.0029481
-0.00042551 -0.0012297 0.0012329 -0.00063669 0.00072207 -0.0002978 -0.00046364 0.0023972
-0.013732 -0.0029671 0.1445 0.28502
1520000000 0.27852 0.11802 -0.014423 0.011131 0.0039316 -0.0046859 0.00019241 0.002888
0.0024571 -0.0021597 -0.0013756 -0.00014373
-0.014417 0.011109 0.14161 0.32484 0.0031035 0.013198 0.0017142 -0.00091653
-0.00015312 -0.0010551 0.00037216 -0.001114
0.0039138 -0.004701 0.0031723 0.013194 0.34648 -0.045665 -0.0011297 -0.00022996
0.00077053 -0.0010299 0.00017726 -0.00028861
0.00020357 0.0028893 0.0017121 -0.00092003 -0.0011332 -0.00023071 0.22055 0.14321
-0.015294 0.0043439 0.0019066 0.0024533
0.0024465 -0.0021666 -0.00015999 -0.0010576 0.00077025 -0.001038 -0.015291 0.0043721
0.1329 0.20075 -0.013401 0.0025051
-0.0013679 -0.00014378 0.00036805 -0.0011159 0.00017617 -0.00028939 0.001918 0.0024548
-0.013397 0.0024991 0.17732 0.26615
1580000000 0.28946 0.071777 -0.007235 0.014079 -0.00084457 -0.0055293 0.0017279 0.0018822
-0.00026299 -0.002567 -0.00035734 0.00058936
-0.0072401 0.014065 0.16931 0.2998 0.0066237 0.0074598 0.0004194 -0.001695
-0.00060527 -0.000947 -0.00022222 -0.00085092
-0.00087009 -0.0055346 0.0066701 0.0074395 0.32792 -0.10325 -0.0015156 0.00056656
-0.00045409 -0.0014981 0.00023487 -0.0005976
0.0017381 0.0018848 0.0004133 -0.0017017 -0.0015192 0.00055987 0.23514 0.10347
-0.0106 0.0092608 0.0028219 0.00060653
-0.00027891 -0.0025623 -0.00061946 -0.00094364 -0.00045028 -0.0015017 -0.010587 0.0092869
0.15866 0.18501 -0.010128 0.0088195
-0.00035649 0.0005921 -0.00023208 -0.00084843 0.00023497 -0.00060057 0.002817 0.0006025
-0.010127 0.0088137 0.2102 0.24058
1640000000 0.29243 0.030461 -0.00031414 0.012153 -0.0032662 -0.003097 0.0029668 0.0010007
-0.00095885 -0.0018168 -0.00029849 0.00058226
-0.00031666 0.01215 0.19848 0.27569 0.0064679 0.0020498 -0.00063817 -0.0018273
-0.00083898 -0.00036706 -0.00056454 -0.00074211
-0.0032809 -0.0030777 0.0064877 0.0020097 0.2997 -0.15226 -0.00060493 0.0014672
-0.0012932 -0.0010937 -0.00033317 -0.00052174
0.0029777 0.00099377 -0.00065455 -0.0018367 -0.00061939 0.001467 0.24809 0.054515
-0.0056767 0.0098302 0.0028366 -0.00095959
-0.00097258 -0.0018231 -0.00084047 -0.00036143 -0.0012922 -0.001083 -0.005656 0.0098467
0.18289 0.16294 -0.0046351 0.011331
-0.00029693 0.00058669 -0.00056628 -0.00073396 -0.00033669 -0.00052259 0.0028406 -0.00096653
-0.0046332 0.011329 0.23593 0.21077
1700000000 0.28635 -0.014861 0.0028872 0.0087475 -0.0041156 -4.4964e-05 0.0032326 -0.0013846
-0.0023368 -0.00059531 0.00063423 0.00039079
0.0028738 0.0087342 0.21714 0.24458 0.0035702 -0.0010944 -0.0015781 -0.0005923
-0.0007216 -0.0001728 -0.00099405 -0.00041687
-0.0041122 -3.6538e-05 0.0035751 -0.0011122 0.25748 -0.19252 0.0002854 0.0015013
-0.0022735 -4.5362e-05 -0.00058703 -0.0007337
0.003234 -0.0013999 -0.0015828 -0.00058975 0.00028694 0.0015061 0.24543 0.0041556
-0.0026716 0.0093615 0.0019162 -0.0024048
-0.0023343 -0.00057815 -0.00073542 -0.00016939 -0.002279 -3.5353e-05 -0.0026533 0.0093702
0.20243 0.14407 0.00071217 0.011188
0.0006397 0.00038798 -0.00099552 -0.00040975 -0.00059026 -0.00073543 0.0019118 -0.002411
0.00071757 0.01119 0.25376 0.17771
1760000000 0.2751 -0.06327 0.0046828 0.0050861 -0.002762 0.001181 0.0012899 -0.0036916
-0.0013405 0.00082674 0.00034876 -0.00066028
0.0046788 0.0050837 0.24321 0.20555 0.00054546 -0.0026577 -0.0012487 0.00014391
-0.0011244 0.0007308 -0.0006555 0.00039221
-0.0027641 0.0011921 0.00052843 -0.0026674 0.20941 -0.22587 0.0011542 0.0010883
-0.0012044 0.0016389 -0.0015349 -0.0004654
0.0012701 -0.003705 -0.0012598 0.00015475 0.0011582 0.0010917 0.23663 -0.047825
0.00038532 0.0076531 -4.3141e-05 -0.0029035
-0.0013478 0.00082714 -0.0011236 0.0007384 -0.0011963 0.0016495 0.00039754 0.0076599
0.219 0.11037 0.0053064 0.008291
0.00034739 -0.00066804 -0.00065201 0.00040092 -0.0015407 -0.00046597 -4.5797e-05 -0.0029035
0.0053141 0.0082927 0.26742 0.14077
1820000000 0.25188 -0.10054 0.0042188 0.0015625 -0.00029478 0.0026588 -0.0011247 -0.0032588
-0.0010157 0.001095 -0.00019309 -0.00021082
0.0042141 0.0015608 0.25437 0.17638 -0.0020813 -0.00073819 -0.0014202 0.00099138
-0.00025883 0.0011648 -0.0006516 0.00052576
-0.00027951 0.0026653 -0.0020822 -0.0007222 0.15875 -0.24159 0.0016025 0.00050233
-4.2472e-05 0.0025588 -0.0015737 0.00048015
-0.0011369 -0.0032554 -0.0014087 0.0010016 0.0016046 0.00050542 0.20713 -0.095576
0.0012849 0.0058191 -0.0016002 -0.0021605
-0.0010004 0.0011064 -0.0002477 0.0011735 -2.1785e-05 0.0025534 0.001293 0.0058083
0.23818 0.082472 0.0066719 0.0039558
-0.00019332 -0.00020506 -0.00065501 0.00053821 -0.0015624 0.00048289 -0.0015981 -0.0021575
0.006675 0.003944 0.27122 0.10573
1880000000 0.21786 -0.14155 0.001481 -0.00030253 -0.00072349 0.0027504 -0.0031097 -0.002202
-0.00014766 0.0016804 -4.338e-05 -0.00055047
0.001474 -0.00030466 0.25927 0.1301 -0.0043359 0.0020953 -0.00023238 0.0018518
0.00031057 0.0014706 0.00012613 0.0010037
-0.00071142 0.0027466 -0.0043263 0.0021247 0.10643 -0.25053 0.0020196 -0.00096578
0.0018175 0.001912 -0.0007383 0.0015919
-0.0031126 -0.0021927 -0.00022 0.0018568 0.0020223 -0.00097284 0.16632 -0.13648
0.0014316 0.0035538 -0.0025917 -0.00034072
-0.00012629 0.0016791 0.00032202 0.0014705 0.0018229 0.0019095 0.0014437 0.0035537
0.24376 0.051001 0.0070048 0.00091894
-5.3792e-05 -0.00055677 0.00013346 0.0010067 -0.00074129 0.001587 -0.0025902 -0.00032841
0.0069958 0.00092948 0.27266 0.071537
1940000000 0.17925 -0.16756 -0.00091964 -0.0014521 0.0016099 0.0026484 -0.0039293 0.0004351
0.0012039 0.00079953 -0.00078486 -0.00026041
-0.00091697 -0.0014473 0.26086 0.098901 -0.0025802 0.0053492 0.0010896 0.0014455
0.0019154 0.00080015 0.00090748 0.0003575
0.001632 0.0026454 -0.0025493 0.0053776 0.062135 -0.24323 0.00059762 -0.0022744
0.0024593 0.00023015 0.00058623 0.0015237
-0.0039318 0.00046988 0.0011046 0.001442 0.00059429 -0.0022714 0.11354 -0.16712
-0.00018851 0.0024016 -0.0022761 0.0013098
0.0012062 0.000797 0.001924 0.00078135 0.0024616 0.00023371 -0.00018076 0.0023969
0.24786 0.013403 0.0053101 -0.0033663
-0.00079154 -0.00025748 0.00091284 0.00034355 0.00058746 0.0015363 -0.0022722 0.0013139
0.0053074 -0.0033716 0.26268 0.035556
2000000000 0.13399 -0.18311 -0.0044767 0.0011317 0.003145 0.0017469 -0.0024834 0.0038744
0.0008803 0.00042361 -0.00041681 0.00073714
-0.0044764 0.0011201 0.24778 0.063592 -0.0013726 0.0078587 0.0017321 0.0002913
0.001494 -0.0010025 0.00051496 0.00010157
0.0031547 0.0017296 -0.0013244 0.0078828 0.019384 -0.22923 -0.001385 -0.0017504
0.0020089 -0.0013134 0.0017237 0.0011975
-0.0024626 0.0038779 0.0017366 0.00028667 -0.0013872 -0.0017405 0.059793 -0.17702
-0.0022057 0.0028988 -0.00071158 0.002439
0.00087705 0.00041144 0.0014902 -0.0010277 0.0019975 -0.0013089 -0.0022034 0.0029082
0.2442 -0.019748 0.001164 -0.0048154
