!Keysight Technologies,M9804A,MY58100912,A.14.10.03
!Date: Thursday, April 27, 2023 10:28:33
!Correction: S11(C  6-Port  ) 
!S12(C  6-Port  ) 
!S13(C  6-Port  ) 
!S14(C  6-Port  ) 
!S15(C  6-Port  ) 
!S16(C  6-Port  ) 
!S21(C  6-Port  ) 
!S22(C  6-Port  ) 
!S23(C  6-Port  ) 
!S24(C  6-Port  ) 
!S25(C  6-Port  ) 
!S26(C  6-Port  ) 
!S31(C  6-Port  ) 
!S32(C  6-Port  ) 
!S33(C  6-Port  ) 
!S34(C  6-Port  ) 
!S35(C  6-Port  ) 
!S36(C  6-Port  ) 
!S41(C  6-Port  ) 
!S42(C  6-Port  ) 
!S43(C  6-Port  ) 
!S44(C  6-Port  ) 
!S45(C  6-Port  ) 
!S46(C  6-Port  ) 
!S51(C  6-Port  ) 
!S52(C  6-Port  ) 
!S53(C  6-Port  ) 
!S54(C  6-Port  ) 
!S55(C  6-Port  ) 
!S56(C  6-Port  ) 
!S61(C  6-Port  ) 
!S62(C  6-Port  ) 
!S63(C  6-Port  ) 
!S64(C  6-Port  ) 
!S65(C  6-Port  ) 
!S66(C  6-Port  ) 
!S6P File: Measurement: :
# Hz S  RI   R 50
500000000 -0.33142 -0.068259 -0.011438 -0.0010436 -0.0095475 0.013984 -0.0041487 0.012247
0.012675 0.0051564 -0.00487 0.0075425
-0.011485 -0.0010502 -0.413 -0.075239 0.0073196 -0.0097727 0.0006762 0.012039
0.0080462 0.0031733 0.0010041 0.014001
-0.0093979 0.014076 0.0075671 -0.0096062 -0.26646 0.19092 0.0061811 0.0036776
-0.0020851 0.0092363 0.00069289 0.012034
-0.0044636 0.011804 0.00093665 0.011877 0.0062721 0.0041491 -0.33088 0.036135
-0.021168 -0.0033013 0.016252 0.025279
0.013727 0.0061502 0.0077665 0.0037511 -0.0022591 0.0089556 -0.020983 -0.0029347
-0.23295 -0.22358 -0.029437 0.0056964
-0.0045279 0.0075573 0.0010866 0.01289 -0.00015701 0.012418 0.017056 0.024931
-0.029377 0.0060667 -0.26257 -0.14555
560000000 -0.32066 0.10272 -0.022268 -0.066422 -0.00023515 0.014291 0.0048761 0.011853
0.010502 0.0056332 0.011283 0.0096828
-0.022164 -0.066622 -0.37449 0.092294 -0.041901 -0.038055 0.014261 0.0044734
-0.013043 -0.0041587 0.0030193 -0.00055422
2.6974e-05 0.014822 -0.042467 -0.038818 -0.187 0.24393 -0.00015286 -0.0043066
0.019416 0.007904 0.0078477 -0.0061421
0.0047045 0.011321 0.014549 0.0049094 -0.0003707 -0.0045453 -0.30775 0.13034
0.0048326 -0.022836 0.0047471 -0.021213
0.010591 0.0055033 -0.012612 -0.0033507 0.019203 0.0073486 0.0051236 -0.022649
-0.30916 -0.035927 0.010237 -0.051701
0.011774 0.0098792 0.0025862 0.0003578 0.0081766 -0.0063041 0.0046162 -0.021229
0.0099804 -0.052059 -0.33457 0.0082875
620000000 -0.2795 0.08126 -0.023897 0.010074 0.0041213 0.0097796 0.008826 -0.0044586
0.013046 -0.0002759 0.00044615 -0.0017235
-0.023911 0.0099873 -0.40311 0.037924 -0.018006 0.0012733 -0.0013102 -0.0023783
0.013699 -0.0053228 0.00097667 -0.0030869
0.0043036 0.0096652 -0.01818 0.00135 -0.15739 0.25363 -0.00050058 -0.0057855
-0.0019062 -0.0022589 0.0097896 -0.0037041
0.008563 -0.0046001 -0.0013195 -0.0024393 -0.00034321 -0.0051187 -0.26414 0.14087
-0.040775 -0.0189 0.015059 0.029037
0.012471 -0.00057645 0.013119 -0.004751 -0.0024824 -0.0027742 -0.040074 -0.019006
-0.2244 -0.07719 -0.045339 0.013423
0.00068475 -0.0026867 0.0013208 -0.0029779 0.01025 -0.0036602 0.015318 0.029065
-0.045055 0.012765 -0.24714 -0.029387
680000000 -0.24555 0.17704 -0.026286 -0.014139 0.0053516 0.0054312 0.0019658 -0.0072286
-0.0011348 -0.011628 0.0061851 -0.0068539
-0.026367 -0.014136 -0.39144 0.14087 -0.031832 -0.0023899 -0.0012003 -0.00052083
-0.001008 -0.0097689 -0.00063578 -0.0024312
0.0054402 0.0054157 -0.031848 -0.0022221 -0.10693 0.2757 -0.00099355 -0.00078236
-0.0012053 -8.4638e-07 -0.002775 -0.0096406
0.0019952 -0.0070162 -0.0012763 -0.00039842 -0.0010495 -0.00067802 -0.22057 0.19343
-0.023511 -0.0058792 -0.0095574 -0.010635
-0.00056088 -0.01204 -0.0010931 -0.010141 -0.0010871 -8.4005e-05 -0.023576 -0.0059675
-0.28446 0.030945 -0.0067749 -0.0065385
0.0069671 -0.0071222 -0.00050316 -0.0021145 -0.0027735 -0.0096635 -0.0096443 -0.010923
-0.0067208 -0.0065337 -0.26318 0.078242
740000000 -0.19666 0.17002 -0.040114 0.028069 0.014598 -0.0045241 7.7913e-05 -0.004172
-0.0043826 -0.0030476 -0.0067251 0.0025151
-0.040064 0.028021 -0.3363 0.15933 -0.03742 0.035204 0.00010004 -0.0065051
-0.013328 0.006423 -0.00047645 -0.0060898
0.014344 -0.0045222 -0.037169 0.035379 -0.073527 0.27271 -0.0023318 0.0030797
-0.0019953 -0.0058156 -0.0021784 0.0011
0.00020364 -0.0043412 -3.6981e-06 -0.0062336 -0.0024226 0.0031195 -0.2042 0.20136
-0.043236 -0.0095826 0.024234 0.01741
-0.0044206 -0.0028543 -0.013303 0.0062245 -0.0018533 -0.0057948 -0.043322 -0.0094565
-0.18112 0.065614 -0.045535 -8.6485e-05
-0.0062202 0.0022453 -0.001437 -0.0054742 -0.0020316 0.00086479 0.023813 0.017324
-0.045094 0.00046834 -0.25268 0.0864
800000000 -0.16536 0.21587 -0.021536 0.016182 0.0061899 -0.010737 -0.0047451 -0.0023369
-0.004763 0.0011094 0.0030873 0.00069635
-0.021637 0.016157 -0.34405 0.23054 -0.0086855 0.034153 -0.0023748 0.0018125
-0.0011854 0.0020912 0.00019932 0.0051768
0.0060772 -0.010726 -0.0086495 0.034226 -0.03521 0.29798 0.00064073 0.0016147
-0.00024444 0.0032205 -0.001942 0.001004
-0.0045369 -0.0024459 -0.0023751 0.0018195 0.00060823 0.0016314 -0.17485 0.22852
-0.028291 0.013608 0.014906 -0.010567
-0.0046998 0.001255 -0.0015222 0.0023697 -0.00031158 0.0034072 -0.028358 0.013625
-0.22901 0.089844 -0.017724 0.021135
0.0034631 0.00035877 0.00052056 0.0052737 -0.0017187 0.00096023 0.014831 -0.01059
-0.017819 0.021409 -0.24732 0.13658
860000000 -0.13095 0.23563 -0.017698 0.030174 -0.0026113 -0.010638 -0.0019304 0.00024098
0.003428 0.0054943 -0.0040319 -0.0026828
-0.017796 0.030091 -0.29715 0.27429 0.0072009 0.034717 -0.00020094 0.0019099
0.003365 0.001122 0.0029317 0.00022112
-0.002598 -0.010644 0.0073246 0.034823 0.011526 0.30752 -0.00060268 -0.00011172
0.0024196 -0.0013285 0.00178 0.0038752
-0.001809 0.00033522 1.2796e-05 0.0021883 -0.00060026 -8.1147e-05 -0.13847 0.23913
-0.018026 0.017783 -0.0064114 -0.0089589
0.0035002 0.005786 0.0030197 0.0010759 0.0024064 -0.001507 -0.018059 0.018041
-0.17147 0.14476 -0.024936 0.017783
-0.0039128 -0.0029137 0.0031238 0.0003395 0.001678 0.0039905 -0.0061067 -0.0092047
-0.025237 0.017331 -0.1969 0.18177
920000000 -0.10814 0.25837 0.0048784 0.038363 -0.0093676 -0.0057288 -0.0020467 0.0013006
0.00054082 0.0018278 0.0032957 -0.0013818
0.0048919 0.038291 -0.27005 0.2958 0.028415 0.023081 0.0013032 0.0011573
0.0081029 0.0002102 0.0045305 -0.0031212
-0.0094014 -0.0057235 0.028526 0.02307 0.056893 0.31019 0.0019474 9.8141e-05
0.00082329 -0.00031415 0.0007838 -0.0018341
-0.0020964 0.0012952 0.0013066 0.0012457 0.0019354 0.00011346 -0.11426 0.25645
-0.011313 0.030628 0.0045022 -0.0069654
0.00057033 0.0017262 0.008109 0.00021755 0.00079036 -0.00037148 -0.01127 0.030682
-0.16312 0.14982 -0.0011988 0.027935
0.0029568 -0.0012953 0.0044701 -0.0030332 0.00085195 -0.0019738 0.0045691 -0.0070178
-0.0013853 0.0278 -0.20518 0.1947
980000000 -0.062569 0.27912 0.016371 0.029971 -0.010063 0.0039662 0.0012583 0.0036106
0.0040255 -0.0014032 -0.0033568 -0.0026128
0.016343 0.029954 -0.21848 0.33173 0.033717 0.0055905 0.0020833 -0.00015618
0.0021798 -0.0062514 -0.0002643 -0.0028248
-0.010034 0.0039974 0.033737 0.0055058 0.10307 0.3054 0.00073038 -0.0011688
0.00055098 -0.0018866 0.0010664 -0.00043538
0.0012941 0.0035389 0.002147 -0.00018027 0.00075546 -0.0011631 -0.076218 0.2667
0.0080135 0.029531 -0.0098283 -0.0082662
0.0042036 -0.0013855 0.0022467 -0.0062352 0.00056135 -0.0019035 0.0080059 0.029531
-0.13083 0.18326 0.0063897 0.020527
-0.0031312 -0.0028509 -0.00012094 -0.0030104 0.0011193 -0.0004559 -0.0097485 -0.0082207
0.0064059 0.020347 -0.16389 0.24196
1040000000 -0.022415 0.2887 0.033108 0.019366 -0.002068 0.0071631 0.0021652 0.0009396
0.0005261 -0.0031561 -0.00018382 -0.0019908
0.033053 0.01934 -0.18451 0.3462 0.030536 -0.014743 0.0015635 -0.0017428
-0.002279 -0.0027833 -0.0013784 -0.003046
-0.0020193 0.0071725 0.030467 -0.014856 0.14939 0.2937 -0.00048149 -0.0016552
-0.0017194 -0.00095572 -0.0008351 -0.00089671
0.0022974 0.00087937 0.0016242 -0.0017741 -0.00049221 -0.0016668 -0.04985 0.27662
0.019517 0.01901 -0.0022839 0.0006315
0.00044478 -0.0031857 -0.002253 -0.0027975 -0.0016758 -0.0010824 0.019475 0.018994
-0.098494 0.19046 0.014648 0.019503
-0.0002754 -0.0020061 -0.0015262 -0.0030754 -0.00085371 -0.00095406 -0.0022658 0.00060074
0.014671 0.0194 -0.14329 0.26354
1100000000 0.021928 0.29914 0.036883 -0.0034016 0.0027426 0.0043186 0.00233 -0.000601
-0.0021547 -0.0030316 -0.0042899 -9.2379e-06
0.036881 -0.003381 -0.14151 0.36577 0.016126 -0.028615 5.1972e-05 -0.0018605
-0.0038966 -0.0012357 -0.0037331 -0.00054027
0.0027165 0.0043247 0.016006 -0.028694 0.19661 0.27472 -0.0020104 0.00018728
-0.0019602 0.00062147 -0.0013242 -0.0002313
0.0023114 -0.00053818 0.00012155 -0.0018162 -0.0020398 0.00013232 -0.010164 0.28217
0.025259 0.005565 -0.0028529 -0.0004732
-0.0022825 -0.0029839 -0.0039853 -0.0011091 -0.0020215 0.00059334 0.025287 0.0054943
-0.079071 0.20447 0.020655 0.0097671
-0.0043038 4.0153e-06 -0.0037293 -0.00049408 -0.0013015 -0.00016346 -0.0028716 -0.00046575
0.020635 0.0096851 -0.096356 0.29448
1160000000 0.072276 0.29646 0.024995 -0.020849 0.0028009 -0.00037538 6.2781e-05 -0.0020559
-0.004176 -0.0010169 -0.0014446 0.0043382
0.024982 -0.020871 -0.09869 0.37204 -0.0037886 -0.029992 -0.0015353 -0.0018051
-0.0031892 0.002861 -0.0018908 0.0020578
0.0028358 -0.00034692 -0.0038997 -0.030003 0.24036 0.24457 -0.00090799 0.001847
-0.00050737 0.0021224 -0.00095775 0.00061527
5.6464e-05 -0.0021222 -0.0015147 -0.0018417 -0.00088949 0.0018196 0.028139 0.28002
0.021902 -0.011085 -0.0038856 0.0047767
-0.0041078 -0.00099142 -0.0031007 0.0029035 -0.00048489 0.0021411 0.0219 -0.011143
-0.044698 0.21308 0.019847 -0.00042572
-0.001412 0.0042676 -0.0018668 0.0021685 -0.00090836 0.000597 -0.0038704 0.004816
0.019856 -0.00042761 -0.050177 0.29849
1220000000 0.11583 0.28856 0.011287 -0.030828 -0.0015645 -0.00086376 0.00043641 -0.00095157
-0.0029245 0.0022278 0.0011125 0.002399
0.011273 -0.030789 -0.05418 0.38726 -0.017615 -0.022 -0.0027173 0.00042009
-6.3607e-05 0.0035566 -0.00081789 0.0022502
-0.0015979 -0.0008601 -0.017738 -0.021957 0.27996 0.20589 0.00085506 0.0019673
0.00079796 0.0013513 0.0005243 0.00072346
0.00046016 -0.00092622 -0.0026992 0.00045323 0.0008964 0.0019576 0.067899 0.27311
0.010826 -0.017829 0.0015416 0.0016389
-0.0028817 0.0022987 -7.4977e-05 0.0035877 0.00075663 0.0013728 0.01077 -0.017879
-0.02322 0.2236 0.015138 -0.014036
0.0012611 0.002292 -0.00070909 0.0022516 0.00057175 0.00075965 0.0015614 0.0015892
0.015145 -0.013959 -0.019702 0.31589
1280000000 0.16673 0.26953 -0.0081112 -0.029567 -0.0020858 0.0026711 -0.00072067 -0.002388
-0.0010318 0.0034924 0.0027907 0.001591
-0.0080631 -0.029548 -0.0070859 0.38011 -0.025143 -0.008444 -0.0010453 0.0015659
0.002075 0.0021554 0.00089301 0.0021167
-0.0020499 0.002656 -0.025193 -0.0083718 0.31049 0.16219 0.0018428 2.4741e-05
0.0013771 0.00015367 0.00045201 0.0001087
-0.00077188 -0.0023547 -0.0011135 0.001596 0.0018198 4.0021e-05 0.10484 0.25769
0.00044734 -0.020218 -0.00057387 0.00060969
-0.0010054 0.0035437 0.002068 0.0021484 0.0013726 0.00017259 0.00041196 -0.020215
0.012693 0.22802 0.0035263 -0.017138
0.0028049 0.0016712 0.00086269 0.0021933 0.00046192 0.00014759 -0.00052942 0.00055467
0.0035558 -0.017139 0.027836 0.31902
1340000000 0.20435 0.23833 -0.018314 -0.019323 0.00080955 0.0050276 -0.0020139 -0.0012919
0.001579 0.0029593 0.0022487 -0.0015114
-0.01829 -0.0193 0.033229 0.37323 -0.022233 0.0051453 -0.00013253 0.0022336
0.0023781 0.00073442 0.0014103 0.00080242
0.00080008 0.0050092 -0.02223 0.005258 0.33219 0.11523 0.0011269 -0.0011657
0.00062937 -0.00059834 0.00013491 6.5895e-05
-0.0020473 -0.0012521 -0.00012582 0.0022195 0.0011403 -0.0011445 0.13835 0.23867
-0.0096904 -0.017017 0.00068094 0.0010144
0.0015998 0.0029186 0.002353 0.00074915 0.00061579 -0.00062544 -0.0097134 -0.016974
0.041592 0.22555 -0.0045665 -0.015485
0.0022012 -0.0014732 0.0013819 0.00074427 0.00011347 7.1783e-05 0.00071531 0.0010269
-0.0045737 -0.015469 0.066391 0.31521
1400000000 0.23981 0.20221 -0.024293 -0.0071732 0.0056693 0.0036674 -0.0024716 0.00069364
0.0027848 0.0012019 0.00052334 -0.0018504
-0.02428 -0.0071629 0.072347 0.36113 -0.014886 0.013653 0.0015816 0.0013759
0.0013814 -0.001051 0.0012576 2.2019e-05
0.0057195 0.0036622 -0.014858 0.013744 0.34569 0.062908 -1.7967e-05 -0.0017965
0.0001549 -0.00032273 0.00038858 0.00024294
-0.0024747 0.00065715 0.0015436 0.0014037 -4.0671e-05 -0.0018032 0.16891 0.21022
-0.015877 -0.0094922 -0.00090252 0.00038934
0.0027717 0.0012079 0.0014232 -0.0011206 0.00013001 -0.00034695 -0.015895 -0.0094748
0.074826 0.22352 -0.011445 -0.0098185
0.00050655 -0.0018614 0.0012661 6.3408e-05 0.00038963 0.00021734 -0.00086594 0.00036519
-0.011406 -0.0098242 0.11126 0.30503
1460000000 0.26406 0.15923 -0.020708 0.0057241 0.00625 -0.0017796 -0.0017578 0.0019332
0.0024719 -0.00041507 -0.00045177 -0.0011841
-0.020713 0.0057005 0.1074 0.33898 -0.0050566 0.016498 0.0018264 0.00013203
0.0008571 -0.0015883 0.0012757 -0.000643
0.0062143 -0.0017782 -0.0049924 0.016558 0.35239 0.0094646 -0.0014289 -0.0012304
0.00026147 -0.00018113 0.00072366 -0.00031121
-0.0017116 0.0019695 0.0018169 0.00010441 -0.0014016 -0.0011876 0.19618 0.18137
-0.016671 -0.0018169 -0.00045522 0.0024072
0.0024814 -0.00041386 0.00085191 -0.0015692 0.00018144 -0.00016407 -0.01667 -0.0017901
0.10408 0.2118 -0.013724 -0.0029552
-0.00043562 -0.0012039 0.0012288 -0.00063715 0.00067676 -0.00034667 -0.0004295 0.0024117
-0.013734 -0.0029912 0.14464 0.28502
1520000000 0.27849 0.1182 -0.014389 0.011092 0.0039501 -0.0046739 0.00022586 0.0028782
0.0024629 -0.0021342 -0.0013779 -0.00018133
-0.014392 0.011083 0.14147 0.32489 0.0031026 0.013196 0.0017254 -0.00092612
-0.00014311 -0.0010532 0.00037456 -0.0011246
0.0039536 -0.0047051 0.003176 0.013232 0.34649 -0.04548 -0.0011293 -0.00022478
0.00081357 -0.0010404 0.0001491 -0.00028768
0.00022031 0.0028545 0.0017139 -0.00091492 -0.0011046 -0.00024161 0.22052 0.14332
-0.015292 0.0043985 0.0019171 0.0024372
0.0024494 -0.0021589 -0.00016031 -0.0010649 0.0007829 -0.0010559 -0.015274 0.0044133
0.13285 0.20091 -0.013352 0.0025039
-0.0012995 -9.0761e-05 0.00037712 -0.0010829 0.00018055 -0.00030955 0.0019043 0.0024341
-0.013371 0.0024982 0.17736 0.26608
1580000000 0.28941 0.071928 -0.0072468 0.014039 -0.00082812 -0.0055318 0.0017038 0.0018855
-0.00026895 -0.0025806 -0.00033106 0.00057304
-0.0072524 0.014008 0.16917 0.29985 0.0066182 0.0074784 0.00041312 -0.001688
-0.00059116 -0.00092902 -0.00020116 -0.00084183
-0.00085617 -0.0055708 0.0066919 0.0074546 0.32791 -0.10316 -0.0015294 0.00055348
-0.00048379 -0.0014636 0.00021423 -0.00060135
0.0017015 0.0019008 0.00041365 -0.0016834 -0.0014703 0.00058638 0.23516 0.10349
-0.010599 0.0092513 0.002822 0.00059864
-0.00032449 -0.0025992 -0.00060901 -0.00096057 -0.00044746 -0.0014845 -0.010561 0.0092775
0.15863 0.18515 -0.010129 0.0087939
-0.00031641 0.00057403 -0.00025328 -0.00083471 0.000238 -0.00062312 0.0028231 0.00062087
-0.010085 0.0087957 0.21035 0.24054
1640000000 0.29243 0.030648 -0.00032025 0.012125 -0.0032587 -0.0031092 0.0029623 0.0010151
-0.0009938 -0.0018373 -0.00030553 0.00060772
-0.00033936 0.012112 0.19835 0.27579 0.0064992 0.0020418 -0.00063945 -0.0018341
-0.00083659 -0.00037871 -0.00056498 -0.00072946
-0.0032887 -0.0030779 0.0064973 0.0020268 0.29982 -0.15216 -0.00059722 0.0014636
-0.0013019 -0.0010794 -0.00032531 -0.00052041
0.002978 0.0010083 -0.00064034 -0.0018103 -0.00061837 0.0014963 0.24807 0.054576
-0.005672 0.0097983 0.0028485 -0.00094681
-0.00096026 -0.0018258 -0.00082411 -0.00033768 -0.0012569 -0.0011039 -0.0056523 0.0098515
0.18286 0.16306 -0.0046382 0.01131
-0.00028521 0.00057137 -0.00059681 -0.00071999 -0.0003441 -0.00052226 0.0028615 -0.00095033
-0.0046248 0.011322 0.236 0.21067
1700000000 0.28642 -0.014683 0.0028448 0.0087248 -0.0041079 -5.1865e-05 0.0032535 -0.0013851
-0.0023356 -0.00058006 0.00063652 0.00037882
0.0028453 0.0087218 0.21706 0.24469 0.0035918 -0.0011086 -0.001566 -0.00058756
-0.00073233 -0.00016862 -0.0010086 -0.00041144
-0.0041733 -0.00012378 0.0035806 -0.0011384 0.25759 -0.19237 0.00028446 0.0015034
-0.0023103 -6.6371e-05 -0.00060727 -0.00077315
0.0032105 -0.0014077 -0.0015897 -0.0005742 0.00030245 0.0014828 0.24547 0.0041826
-0.0026435 0.0093429 0.001907 -0.0024099
-0.0023036 -0.00056249 -0.00073103 -0.00016789 -0.0022511 -9.1912e-05 -0.0026345 0.0093505
0.20258 0.14415 0.00070997 0.011167
0.00065838 0.0003824 -0.00098126 -0.00039781 -0.00058672 -0.0007092 0.001886 -0.0023975
0.00067721 0.011157 0.25386 0.17762
1760000000 0.27512 -0.063176 0.0046556 0.0050986 -0.0027619 0.0011661 0.0012984 -0.0036952
-0.0013462 0.00081005 0.00036184 -0.00063654
0.0046622 0.0050944 0.24308 0.20564 0.00054252 -0.0026573 -0.0012516 0.00015299
-0.001123 0.00071671 -0.00066388 0.0003958
-0.0026936 0.0012444 0.00057445 -0.0026561 0.20945 -0.22573 0.0011087 0.0010892
-0.0012048 0.0016193 -0.0015118 -0.00055034
0.0012734 -0.0036842 -0.0012604 0.00015636 0.0011836 0.001049 0.23662 -0.047774
0.00037844 0.0076484 -6.9005e-05 -0.0029295
-0.0013199 0.00082969 -0.0011009 0.0007521 -0.0011489 0.001697 0.00039561 0.007634
0.21899 0.11038 0.0052479 0.0083025
0.00036593 -0.00067714 -0.00063956 0.0003904 -0.0015254 -0.0004742 -6.6316e-05 -0.002891
0.0052582 0.0082737 0.26747 0.14069
1820000000 0.25192 -0.10035 0.0041675 0.0016271 -0.00028436 0.0026586 -0.0011438 -0.0032471
-0.0010038 0.0010768 -0.00020326 -0.00021489
0.0041539 0.0016014 0.25427 0.17648 -0.0020725 -0.00078233 -0.0014116 0.00099637
-0.00026575 0.0011785 -0.00066655 0.00051279
-0.00032523 0.0026337 -0.0021072 -0.00073729 0.15888 -0.24156 0.0016122 0.0005066
-5.4193e-05 0.002549 -0.0015721 0.0004619
-0.001124 -0.0032311 -0.0013919 0.0010019 0.0015684 0.00056992 0.20717 -0.095476
0.0012842 0.0057983 -0.001619 -0.0021423
-0.0010318 0.001061 -0.00024097 0.0011734 -3.1434e-05 0.0025614 0.0012617 0.005822
0.23821 0.082519 0.0066134 0.0039326
-0.00017375 -0.00021502 -0.00067307 0.00052848 -0.0015062 0.00046646 -0.0016268 -0.0021464
0.0066209 0.0039477 0.27132 0.10559
1880000000 0.21788 -0.14148 0.0014631 -0.00031063 -0.00071592 0.0027207 -0.0031072 -0.0022147
-0.00015056 0.0016958 -5.1406e-05 -0.00059156
0.0014655 -0.00030916 0.25922 0.1302 -0.0043641 0.0020755 -0.00022013 0.0018478
0.0003139 0.0014767 0.00013603 0.001009
-0.0006442 0.0027448 -0.0043252 0.0021224 0.1065 -0.25043 0.0019982 -0.00094044
0.0018048 0.001925 -0.00066665 0.0016044
-0.0030408 -0.0021629 -0.0001905 0.0018429 0.0020449 -0.0010098 0.16637 -0.13636
0.001424 0.0035885 -0.0026584 -0.00035551
-9.5961e-05 0.0016561 0.00032809 0.0014843 0.0018274 0.001949 0.0014357 0.0035663
0.24379 0.050997 0.0069218 0.00090722
-7.1969e-05 -0.00057672 0.00015122 0.0010343 -0.0007806 0.0015619 -0.0026097 -0.00040232
0.0069127 0.00094314 0.27274 0.071354
1940000000 0.17932 -0.16746 -0.00090423 -0.0013857 0.0016497 0.0027494 -0.0039294 0.00046533
0.0011723 0.00080512 -0.00075991 -0.0002728
-0.00090613 -0.0014069 0.26076 0.09908 -0.0026055 0.0054177 0.0010978 0.0014575
0.0019041 0.00081547 0.00090606 0.00031848
0.0016788 0.0027249 -0.0025739 0.0054438 0.062192 -0.24316 0.00053811 -0.002292
0.0024278 0.00026782 0.00051901 0.0015365
-0.0038796 0.00045693 0.0011315 0.0014283 0.00059753 -0.0022862 0.11359 -0.16706
-0.00016614 0.0023976 -0.0022499 0.0013256
0.0011905 0.00082009 0.001937 0.00076787 0.0024637 0.00025914 -0.00015212 0.0023976
0.24779 0.013457 0.0053189 -0.0033089
-0.00082881 -0.00021738 0.00085958 0.00036516 0.00059266 0.0016025 -0.0022739 0.0013399
0.0053269 -0.0032704 0.26269 0.035434
2000000000 0.13419 -0.18301 -0.0044927 0.0011407 0.0030942 0.0017823 -0.0024788 0.0038739
0.00087044 0.00043265 -0.000372 0.00073885
-0.0044625 0.0011525 0.24773 0.063736 -0.0013609 0.0078628 0.0017279 0.00025712
0.0015248 -0.0010113 0.00051982 0.00012507
0.0031331 0.0017861 -0.0013016 0.0078721 0.019581 -0.22923 -0.0013709 -0.0017504
0.0020265 -0.001356 0.001748 0.0012218
-0.002396 0.0038972 0.0017315 0.00028455 -0.0013892 -0.0017355 0.059964 -0.17701
-0.0021584 0.0029171 -0.00064406 0.0023108
0.00090867 0.00038726 0.0015243 -0.00099906 0.0020212 -0.0013172 -0.0021861 0.0028864
0.2442 -0.019647 0.0011681 -0.0047505
