!Keysight Technologies,M9804A,MY58100912,A.14.10.03
!Date: Thursday, April 27, 2023 10:28:33
!Correction: S11(C  6-Port  ) 
!S12(C  6-Port  ) 
!S13(C  6-Port  ) 
!S14(C  6-Port  ) 
!S15(C  6-Port  ) 
!S16(C  6-Port  ) 
!S21(C  6-Port  ) 
!S22(C  6-Port  ) 
!S23(C  6-Port  ) 
!S24(C  6-Port  ) 
!S25(C  6-Port  ) 
!S26(C  6-Port  ) 
!S31(C  6-Port  ) 
!S32(C  6-Port  ) 
!S33(C  6-Port  ) 
!S34(C  6-Port  ) 
!S35(C  6-Port  ) 
!S36(C  6-Port  ) 
!S41(C  6-Port  ) 
!S42(C  6-Port  ) 
!S43(C  6-Port  ) 
!S44(C  6-Port  ) 
!S45(C  6-Port  ) 
!S46(C  6-Port  ) 
!S51(C  6-Port  ) 
!S52(C  6-Port  ) 
!S53(C  6-Port  ) 
!S54(C  6-Port  ) 
!S55(C  6-Port  ) 
!S56(C  6-Port  ) 
!S61(C  6-Port  ) 
!S62(C  6-Port  ) 
!S63(C  6-Port  ) 
!S64(C  6-Port  ) 
!S65(C  6-Port  ) 
!S66(C  6-Port  ) 
!S6P File: Measurement: :
# Hz S  RI   R 50
500000000 -0.33208 -0.066087 -0.010297 -0.001273 -0.008324 0.013342 -0.0038713 0.012112
0.011934 0.0051342 -0.0038689 0.0078551
-0.010306 -0.0012833 -0.41184 -0.073968 0.0087351 -0.010568 0.00081667 0.011553
0.0085641 0.0038011 0.0008554 0.013234
-0.0082888 0.013335 0.00871 -0.010627 -0.26453 0.19061 0.0072352 0.0034653
-0.0021376 0.0084608 0.00075926 0.012189
-0.00381 0.012174 0.00083557 0.011631 0.0072966 0.003475 -0.33266 0.036625
-0.017934 -0.0035024 0.013824 0.024956
0.011933 0.0049223 0.0085993 0.0036483 -0.0021338 0.0084157 -0.017919 -0.0034452
-0.23569 -0.21513 -0.026431 0.0059221
-0.003838 0.0078136 0.00088609 0.013228 0.00073659 0.01222 0.013794 0.024908
-0.026461 0.0059169 -0.26677 -0.14346
560000000 -0.31989 0.10314 -0.021935 -0.066777 -0.00031903 0.013516 0.0053331 0.011509
0.010791 0.0036401 0.010504 0.008604
-0.021923 -0.066721 -0.37293 0.090894 -0.041344 -0.039255 0.014577 0.0036311
-0.012978 -0.0044155 0.0038664 -0.0010083
-0.0002854 0.013513 -0.041501 -0.039191 -0.18639 0.2423 -0.0010186 -0.0046177
0.018827 0.0067861 0.0070439 -0.0064974
0.0053774 0.011509 0.014453 0.0035123 -0.0008672 -0.0047025 -0.30596 0.12952
0.0063664 -0.023515 0.0055507 -0.021838
0.010967 0.0035744 -0.012866 -0.0042963 0.018804 0.0068961 0.0063541 -0.023582
-0.30607 -0.034496 0.0099818 -0.050469
0.010619 0.0086104 0.0038123 -0.00094298 0.0070679 -0.0066359 0.005479 -0.021879
0.010042 -0.050541 -0.33012 0.0080737
620000000 -0.27851 0.081635 -0.023063 0.0088708 0.0033644 0.0096953 0.007773 -0.0035728
0.013062 -0.0016271 -0.00023517 -0.0013936
-0.023045 0.0088611 -0.40183 0.037811 -0.018318 0.00011009 -0.00194 -0.0018355
0.01309 -0.0061428 0.00052522 -0.0029304
0.0034089 0.0096493 -0.018343 0.00015067 -0.15783 0.25265 -0.00075671 -0.004979
-0.0035024 -0.0030555 0.010158 -0.0029031
0.0077754 -0.003723 -0.0019671 -0.0018098 -0.00078862 -0.0050101 -0.26504 0.13968
-0.038578 -0.019644 0.014327 0.027917
0.013043 -0.0014504 0.013127 -0.0061684 -0.0034479 -0.002857 -0.038526 -0.019475
-0.22499 -0.070793 -0.044208 0.011963
-0.00037573 -0.0014289 0.000478 -0.0029377 0.010082 -0.002878 0.014298 0.027935
-0.044175 0.011894 -0.24451 -0.026141
680000000 -0.2438 0.17611 -0.026456 -0.015144 0.0049683 0.0056296 0.0015403 -0.0077082
-0.0021499 -0.011237 0.0059888 -0.0067429
-0.026438 -0.015145 -0.39121 0.13939 -0.03292 -0.0028833 -0.0018593 -0.00075531
-0.0015867 -0.0091616 -0.001292 -0.0019652
0.0049971 0.0056328 -0.032952 -0.002789 -0.10838 0.2747 -0.00093576 -0.00034918
-0.001515 0.00073966 -0.0032287 -0.009412
0.0014833 -0.0076452 -0.0018544 -0.00071616 -0.00090445 -0.00031252 -0.22123 0.19243
-0.023316 -0.0081193 -0.0096414 -0.011143
-0.0021216 -0.011207 -0.0016162 -0.0091793 -0.0015133 0.0007086 -0.023351 -0.0081241
-0.28082 0.035565 -0.0054709 -0.0072331
0.0060555 -0.0067162 -0.0011977 -0.0019951 -0.0031058 -0.0094481 -0.009587 -0.011196
-0.0054479 -0.0072266 -0.2622 0.078098
740000000 -0.19666 0.16823 -0.041114 0.026325 0.014297 -0.0041817 0.00015338 -0.0039006
-0.0041133 -0.0027884 -0.0068148 0.0029772
-0.041081 0.026243 -0.33766 0.15879 -0.037527 0.034364 -0.00021116 -0.0062174
-0.012311 0.0070325 -0.0016693 -0.0063094
0.014294 -0.004223 -0.03748 0.034507 -0.074785 0.27326 -0.0014702 0.0035036
-0.0023764 -0.0058168 -0.0012033 0.0010254
0.00010925 -0.0040022 -0.00029613 -0.0063026 -0.0014909 0.0034671 -0.20535 0.19921
-0.042708 -0.009053 0.02294 0.016084
-0.0042157 -0.0027049 -0.012344 0.0071637 -0.0023505 -0.0057947 -0.042696 -0.0089833
-0.18297 0.065204 -0.043703 -0.00030803
-0.0069998 0.0029175 -0.0017229 -0.0063303 -0.0013032 0.0010236 0.022909 0.0161
-0.04369 -0.00036169 -0.2521 0.085904
800000000 -0.16585 0.2145 -0.022665 0.015943 0.0061163 -0.010517 -0.0044353 -0.0027372
-0.0046485 0.0022441 0.0041543 -0.00038343
-0.022646 0.015921 -0.34513 0.23017 -0.0094055 0.034522 -0.0021347 0.0017886
-0.0007537 0.0027768 0.00070068 0.0048843
0.0060817 -0.010535 -0.0093101 0.034601 -0.036422 0.29889 0.00088737 0.0011299
0.00027098 0.0035085 -0.0021197 0.00076627
-0.0044475 -0.002619 -0.002121 0.0018542 0.00090692 0.0011448 -0.17631 0.22729
-0.029139 0.012454 0.014328 -0.010939
-0.0045531 0.0022361 -0.00071058 0.0027899 0.00028496 0.0034777 -0.029133 0.012492
-0.22734 0.091458 -0.018117 0.020507
0.0043868 -0.00032651 0.00087909 0.0049314 -0.0020004 0.00070812 0.014375 -0.010923
-0.018106 0.020476 -0.24691 0.13399
860000000 -0.13245 0.23534 -0.018767 0.03037 -0.0028133 -0.010421 -0.0019937 0.00081656
0.003898 0.005706 -0.0035933 -0.0031237
-0.018767 0.030339 -0.29853 0.27453 0.0068918 0.035248 8.312e-05 0.0024626
0.0039757 0.00056472 0.0036194 6.5041e-05
-0.0028498 -0.010415 0.0070387 0.03528 0.011104 0.30874 -0.00063279 -0.00013399
0.0022377 -0.0015376 0.0019519 0.0041813
-0.0020416 0.00073809 5.7682e-05 0.0024724 -0.000659 -0.00016498 -0.14042 0.2387
-0.019423 0.018192 -0.0062453 -0.0087262
0.0039384 0.0056915 0.0040105 0.00055243 0.0022518 -0.0015207 -0.019397 0.018249
-0.17222 0.14724 -0.025671 0.015595
-0.003782 -0.0030127 0.0036243 0.00010071 0.0018813 0.004248 -0.0063846 -0.0087506
-0.025674 0.015601 -0.1959 0.18364
920000000 -0.10928 0.25923 0.0040237 0.039151 -0.0094367 -0.0051909 -0.001977 0.001689
0.00066456 0.0015436 0.0030771 -0.0010406
0.0039755 0.039114 -0.27149 0.297 0.028226 0.023775 0.001301 0.0011453
0.0076767 -0.00010372 0.0043115 -0.0028516
-0.0094599 -0.0051601 0.028353 0.023714 0.057027 0.31115 0.0018309 0.00016482
0.00075662 -0.00016009 0.0010805 -0.001567
-0.0018974 0.0017082 0.0013158 0.0011367 0.0018296 0.00016274 -0.11627 0.25657
-0.012118 0.030559 0.0041481 -0.0067505
0.00070171 0.0015584 0.0076681 -0.0001469 0.00075474 -0.00015926 -0.012068 0.030589
-0.16277 0.15276 -0.0024403 0.027754
0.0031281 -0.0011432 0.004305 -0.0029011 0.0010891 -0.0015907 0.0041564 -0.0067309
-0.0024626 0.027743 -0.20504 0.19559
980000000 -0.063458 0.28033 0.016151 0.031081 -0.0098387 0.0044534 0.0017441 0.00388
0.004293 -0.0014492 -0.0034622 -0.0024633
0.016119 0.031054 -0.21919 0.33333 0.033814 0.0061359 0.0020207 -0.00029371
0.0020406 -0.006307 -0.00058676 -0.0026031
-0.0098254 0.0044731 0.033902 0.00604 0.10335 0.30591 0.00065732 -0.0011363
0.00057501 -0.0018887 0.0012818 -0.00024776
0.0016984 0.0038874 0.0020553 -0.00024695 0.00066892 -0.00113 -0.077993 0.26746
0.0073158 0.030552 -0.0097848 -0.0078956
0.0042738 -0.0015054 0.0020292 -0.0063336 0.00057151 -0.0018894 0.0073713 0.030537
-0.13036 0.18419 0.0049141 0.02017
-0.0035559 -0.002318 -0.00053343 -0.0026175 0.0012967 -0.00026974 -0.009788 -0.0079264
0.0049038 0.020183 -0.16449 0.24233
1040000000 -0.022583 0.2903 0.033407 0.020366 -0.0015458 0.0075886 0.0025694 0.00079693
0.00035067 -0.0034556 -0.00031036 -0.0015268
0.033338 0.020357 -0.18448 0.34789 0.030807 -0.014266 0.0015167 -0.0017971
-0.0023038 -0.0022419 -0.0012243 -0.0032026
-0.0015291 0.0075887 0.030815 -0.014398 0.14955 0.2939 -0.00044097 -0.0016107
-0.0015591 -0.00090303 -0.00053549 -0.0012555
0.002614 0.0007607 0.0015172 -0.0017891 -0.00044603 -0.0016179 -0.051208 0.27825
0.019043 0.019475 -0.0024529 0.001322
0.00034565 -0.0034377 -0.0023512 -0.0022358 -0.0015529 -0.0009045 0.019089 0.019467
-0.098319 0.19198 0.01305 0.019322
-0.00031238 -0.0016604 -0.0012692 -0.0032182 -0.00053532 -0.0012437 -0.0024719 0.0013533
0.013036 0.019322 -0.14283 0.26413
1100000000 0.022229 0.30069 0.03739 -0.0024177 0.0032506 0.0044337 0.0025483 -0.0010863
-0.0021366 -0.0029276 -0.0040883 -0.00010689
0.037342 -0.0023904 -0.14091 0.36773 0.016488 -0.028311 -4.3771e-05 -0.0018321
-0.003657 -0.00075085 -0.0035165 -0.00038554
0.0032576 0.0044174 0.016402 -0.028417 0.19652 0.27488 -0.0018833 0.00022371
-0.0017958 0.00059731 -0.0010941 -0.00049853
0.0025262 -0.0010768 -5.1591e-05 -0.0018237 -0.0018945 0.00024145 -0.01062 0.28393
0.025189 0.0060625 -0.0028633 0.00031145
-0.0021378 -0.0028954 -0.0036536 -0.00072917 -0.0017919 0.00058651 0.025213 0.0060249
-0.078805 0.20754 0.019834 0.0097701
-0.0040313 -2.3824e-05 -0.0035005 -0.00036363 -0.0010873 -0.0004841 -0.0028537 0.00031544
0.019827 0.0097758 -0.097362 0.29553
1160000000 0.072958 0.29759 0.025745 -0.020396 0.0034082 -0.00051693 -0.00019807 -0.0025129
-0.0040591 -0.00097136 -0.0011608 0.0041928
0.025718 -0.020365 -0.09756 0.37305 -0.0031681 -0.029913 -0.0015713 -0.0016508
-0.0027258 0.0025644 -0.0017481 0.0020029
0.0034068 -0.00053869 -0.003303 -0.029933 0.24004 0.24484 -0.00078726 0.0018803
-0.00064611 0.0018972 -0.001197 0.00030925
-0.00018068 -0.0025328 -0.0015571 -0.0016529 -0.00079047 0.0018731 0.028767 0.28164
0.022188 -0.010257 -0.0033907 0.0052872
-0.0040836 -0.00094612 -0.0027309 0.0025719 -0.00063701 0.001898 0.022187 -0.010279
-0.045075 0.21661 0.019884 -4.4734e-05
-0.0011537 0.0042245 -0.0017639 0.0020162 -0.0011987 0.00031008 -0.0033799 0.0052853
0.019867 -4.8714e-05 -0.050586 0.29892
1220000000 0.11683 0.28939 0.012353 -0.03073 -0.0012122 -0.001425 -4.3565e-06 -0.00090946
-0.0027553 0.0022584 0.0011704 0.0021062
0.012359 -0.030693 -0.052589 0.3877 -0.017153 -0.022107 -0.0026258 0.00052081
9.4268e-05 0.0031203 -0.00081182 0.0020097
-0.0012128 -0.0014229 -0.017277 -0.022049 0.2797 0.20659 0.00084765 0.0017044
0.00056909 0.0012581 0.00025465 0.00075659
-1.1533e-05 -0.0009065 -0.002618 0.00055036 0.00085348 0.0017144 0.068978 0.27414
0.011045 -0.01735 0.0024306 0.0016555
-0.0027393 0.0022656 0.00010207 0.0030958 0.00055937 0.0012559 0.011041 -0.017365
-0.021716 0.22733 0.01471 -0.012841
0.0011715 0.0021017 -0.0008121 0.0020075 0.00026298 0.00074435 0.0024211 0.0016661
0.014724 -0.012819 -0.019385 0.31615
1280000000 0.16765 0.26986 -0.0070847 -0.029919 -0.0020446 0.0019975 -0.0008628 -0.0020348
-0.00082314 0.0033188 0.00257 0.0013851
-0.0070684 -0.029894 -0.0056203 0.37973 -0.024581 -0.0087268 -0.00091301 0.0014765
0.0018479 0.0016844 0.00071335 0.0021849
-0.0020377 0.0020055 -0.024674 -0.0086189 0.31067 0.16302 0.001674 -8.5808e-05
0.001144 0.00025209 0.0002769 0.00047514
-0.00086038 -0.0020334 -0.00091397 0.0014562 0.0016624 -8.9093e-05 0.10616 0.25773
0.0011412 -0.019895 -0.0002866 1.4921e-05
-0.00082958 0.0033295 0.0018749 0.0016907 0.0011545 0.00025609 0.0011015 -0.019902
0.015279 0.23181 0.0037641 -0.016059
0.002592 0.0013762 0.00070111 0.00217 0.00027382 0.00047768 -0.00027078 8.6722e-06
0.0037661 -0.016065 0.027562 0.31974
1340000000 0.2055 0.2382 -0.017522 -0.020356 0.00045729 0.0043901 -0.0018481 -0.00085427
0.001537 0.0028013 0.0018452 -0.0014301
-0.017496 -0.020347 0.034089 0.37241 -0.021943 0.0046 -3.3331e-05 0.0020117
0.0019524 0.00081405 0.001243 0.00080934
0.00047849 0.0043986 -0.021951 0.0047184 0.33276 0.11621 0.00098639 -0.00099599
0.00070942 -0.00054278 0.00019922 0.00032115
-0.001841 -0.00082464 -2.9115e-05 0.0020092 0.00096981 -0.0010072 0.13922 0.23778
-0.008795 -0.017017 0.0010064 0.00035611
0.0015774 0.0027983 0.0019625 0.00080431 0.00073665 -0.00054605 -0.0088207 -0.017009
0.04538 0.22913 -0.0034998 -0.014774
0.0018759 -0.0014566 0.0012648 0.00080388 0.00019787 0.00033025 0.0010056 0.00036751
-0.0034811 -0.014766 0.066198 0.31568
1400000000 0.24046 0.20153 -0.024214 -0.0084929 0.0050284 0.0033247 -0.002189 0.00075503
0.0026876 0.0010735 0.00035847 -0.0016543
-0.024177 -0.0085056 0.072792 0.35983 -0.014956 0.012929 0.0013109 0.0012724
0.0011446 -0.0007893 0.0012016 0.00017782
0.0050522 0.0033077 -0.014911 0.013023 0.34642 0.06323 -4.7719e-05 -0.0015848
0.00013094 -0.00033102 0.00048985 0.0002875
-0.0021901 0.00075041 0.0013146 0.0012717 -4.2904e-05 -0.0015796 0.16922 0.20914
-0.015242 -0.0098992 -0.00083823 -0.00010204
0.0026805 0.0010784 0.0011572 -0.00078531 0.0001317 -0.00033078 -0.015271 -0.0098849
0.079568 0.22579 -0.010509 -0.0094234
0.00032053 -0.0016599 0.0012028 0.0001673 0.0004627 0.00027329 -0.00083617 -0.00010995
-0.010488 -0.0094519 0.1118 0.30609
1460000000 0.26419 0.15834 -0.021237 0.0045657 0.0056059 -0.0016983 -0.0015667 0.0017807
0.0022405 -0.00045644 -0.00034207 -0.0010124
-0.021212 0.0045528 0.10699 0.33785 -0.0054892 0.01586 0.0016381 0.00022783
0.00091504 -0.001339 0.0011733 -0.00059836
0.0055921 -0.0017293 -0.0054193 0.015923 0.35314 0.0095907 -0.0012117 -0.0011672
0.0002927 -0.00025504 0.00072037 -0.00029994
-0.0015573 0.0018023 0.0016321 0.00021527 -0.0011981 -0.0011689 0.19567 0.18026
-0.016094 -0.0025756 -0.00089274 0.0020376
0.0022302 -0.00047106 0.00091529 -0.0013316 0.00031278 -0.00026063 -0.01611 -0.0025418
0.1091 0.21258 -0.012357 -0.002924
-0.00032516 -0.0010083 0.0011922 -0.00058543 0.00072707 -0.00030425 -0.00090869 0.00206
-0.01236 -0.0029455 0.14509 0.28588
1520000000 0.27795 0.11756 -0.015497 0.010452 0.003385 -0.0041836 0.00021067 0.0026663
0.0022415 -0.0019909 -0.0011319 -0.00016276
-0.0155 0.010434 0.14072 0.32412 0.0023458 0.012981 0.0016753 -0.00067874
4.135e-05 -0.00090442 0.00035557 -0.0011195
0.0033628 -0.0042002 0.002423 0.01298 0.34682 -0.045734 -0.00087714 -0.00030171
0.00066745 -0.0008935 0.00019824 -0.00033623
0.00022923 0.0026661 0.0016802 -0.00068403 -0.00088731 -0.00030706 0.21955 0.14245
-0.015017 0.0035385 0.001512 0.0021116
0.0022277 -0.0020064 2.6528e-05 -0.00090687 0.00066882 -0.00088658 -0.015017 0.0035815
0.13825 0.20041 -0.012282 0.0017795
-0.0011258 -0.00016122 0.00034329 -0.0011257 0.00020954 -0.00033904 0.0015214 0.0021104
-0.012277 0.001771 0.17837 0.26707
1580000000 0.28849 0.071812 -0.0084378 0.014013 -0.0010138 -0.0048645 0.001546 0.0018136
-0.00026002 -0.0022791 -0.00029784 0.00045145
-0.0084458 0.014002 0.16824 0.29937 0.00586 0.0076374 0.00059934 -0.0015368
-0.00045532 -0.001052 -0.00023764 -0.00081175
-0.001036 -0.0048569 0.0059043 0.0076222 0.32778 -0.1034 -0.0014335 0.0004304
-0.00036249 -0.0012513 0.00030171 -0.00060997
0.0015536 0.0018193 0.00058298 -0.0015579 -0.001434 0.00041235 0.23384 0.10314
-0.010877 0.0083658 0.002323 0.00069796
-0.00028024 -0.00229 -0.00046051 -0.0010461 -0.0003558 -0.0012497 -0.010867 0.0083752
0.16315 0.18319 -0.0095692 0.0078586
-0.00026622 0.00045166 -0.0002431 -0.00079622 0.00030284 -0.00061247 0.0023187 0.00070841
-0.0095769 0.0078406 0.2117 0.24125
1640000000 0.29146 0.031183 -0.0013411 0.012666 -0.0029834 -0.0026231 0.0027835 0.0010192
-0.00083376 -0.001675 -0.00028269 0.00053261
-0.0013423 0.012657 0.19727 0.27574 0.0059704 0.002544 -0.00042298 -0.0018367
-0.00083703 -0.00044513 -0.00048595 -0.0006743
-0.0030027 -0.002607 0.0059892 0.0025138 0.2994 -0.1517 -0.00061333 0.001375
-0.0010817 -0.00094799 -0.00010868 -0.00054069
0.0027917 0.00098399 -0.00044153 -0.0018486 -0.00060716 0.0013759 0.24662 0.054755
-0.0062131 0.009041 0.0025275 -0.00079351
-0.00084343 -0.0016826 -0.00085591 -0.00044139 -0.0010806 -0.00094703 -0.0061932 0.0090777
0.18658 0.16035 -0.0044919 0.010088
-0.00031271 0.00054523 -0.00051368 -0.0006734 -0.00012783 -0.00054615 0.0025292 -0.00079918
-0.004486 0.010093 0.23747 0.21119
1700000000 0.28618 -0.013665 0.00227 0.0095904 -0.0036978 0.00013903 0.0031467 -0.0012143
-0.002128 -0.00053337 0.00059504 0.00042982
0.0022526 0.0095869 0.2162 0.24478 0.0034446 -0.00049663 -0.0014732 -0.000754
-0.00077647 -0.00015695 -0.00089612 -0.00039788
-0.0037044 0.00016198 0.0034533 -0.00051647 0.25777 -0.19153 0.00030907 0.0015318
-0.002015 -4.8584e-05 -0.00046904 -0.00086552
0.0031403 -0.0012337 -0.0014894 -0.00075216 0.00032266 0.0015393 0.24409 0.0048841
-0.0035165 0.0089464 0.0015027 -0.0021019
-0.0021369 -0.00054175 -0.00078924 -0.00014861 -0.0020193 -4.782e-05 -0.0034959 0.0089454
0.2053 0.1408 0.00031031 0.010047
0.00060637 0.00044201 -0.00088543 -0.00037941 -0.00047344 -0.00088252 0.0014791 -0.0021075
0.00031745 0.010042 0.25513 0.17768
1760000000 0.27512 -0.062164 0.0044847 0.0061194 -0.0024317 0.0012712 0.0012917 -0.0035087
-0.0013745 0.00061736 0.00029833 -0.00051303
0.0044718 0.0061229 0.24209 0.20593 0.00063222 -0.0021624 -0.0013311 3.1755e-05
-0.0011373 0.00077723 -0.00052823 0.0004332
-0.0024229 0.0012873 0.00061504 -0.0021651 0.2101 -0.22555 0.0010809 0.0010915
-0.0011702 0.0014073 -0.0013303 -0.00042362
0.0012704 -0.0035099 -0.0013222 3.2945e-05 0.0010671 0.0010789 0.23553 -0.046485
-0.00072524 0.007819 -0.00019346 -0.0025096
-0.0013749 0.00063485 -0.001127 0.00079413 -0.0011716 0.0013892 -0.00071371 0.0078156
0.22031 0.10718 0.0044381 0.0073805
0.00032108 -0.00052105 -0.00054407 0.00043031 -0.0013487 -0.00040223 -0.00018984 -0.0024884
0.0044445 0.0073914 0.26884 0.14005
1820000000 0.25243 -0.099404 0.0045034 0.0025553 9.4611e-05 0.0026095 -0.00095327 -0.0031816
-0.0010707 0.00097116 -0.00014049 -0.00021174
0.0045021 0.0025564 0.25333 0.17711 -0.0018787 -0.00031846 -0.0014557 0.00104
-0.00021358 0.0012699 -0.0005455 0.00048456
0.00010905 0.0026094 -0.0018943 -0.00030293 0.15923 -0.24157 0.0016657 0.00061143
-0.00019519 0.0023298 -0.0015775 0.0004056
-0.00098445 -0.0031607 -0.0014742 0.0010357 0.0016488 0.00064659 0.20682 -0.094057
0.00048251 0.0062093 -0.0015595 -0.0018424
-0.0010765 0.00097629 -0.00020657 0.0012592 -0.00022009 0.002343 0.0005065 0.0062444
0.23873 0.07942 0.0056618 0.0035344
-0.00016479 -0.00021734 -0.00053441 0.00051096 -0.0015777 0.00039824 -0.0015533 -0.0018783
0.0056815 0.0035175 0.27217 0.1045
1880000000 0.21852 -0.14103 0.0021618 0.00035168 -0.00032934 0.00238 -0.0030136 -0.002266
-0.00016018 0.0016527 0.00012727 -0.00049601
0.0021547 0.00035962 0.25846 0.1309 -0.0038354 0.0023492 -0.0002598 0.0018679
0.00048718 0.0014175 0.00013048 0.0009395
-0.00032478 0.0023817 -0.0038277 0.0023805 0.10702 -0.25063 0.0019303 -0.0010824
0.0015999 0.0018723 -0.00098965 0.001312
-0.0030478 -0.002264 -0.00024224 0.001881 0.0019538 -0.0010676 0.16657 -0.13493
0.000799 0.0044321 -0.0026016 -5.2683e-06
-0.00016598 0.0016338 0.00051689 0.0014285 0.0016224 0.0018701 0.00080529 0.0044057
0.24361 0.048571 0.0054772 0.00079198
0.00016008 -0.00049243 0.00014318 0.00091214 -0.00094622 0.0013103 -0.0026373 4.7666e-05
0.0054608 0.00079179 0.27324 0.070363
1940000000 0.17981 -0.16706 -7.157e-05 -0.001122 0.0016545 0.0020912 -0.0039853 0.00025568
0.001198 0.0007978 -0.0007469 -0.00059806
-6.8891e-05 -0.0011282 0.26009 0.10011 -0.0020611 0.0054015 0.0010666 0.0014462
0.0018922 0.00056687 0.00083627 0.00026512
0.001671 0.0020744 -0.0020264 0.005424 0.062467 -0.24285 0.00061362 -0.0021563
0.0022827 0.00058253 0.00032526 0.001518
-0.0039641 0.00027319 0.001063 0.0014337 0.00055422 -0.0021385 0.1145 -0.16568
-0.00011392 0.0035422 -0.0017628 0.0014276
0.0012267 0.00079014 0.0018916 0.00054559 0.0022413 0.00055136 -0.00013804 0.0035412
0.24739 0.011778 0.0040238 -0.0027748
-0.00075257 -0.00058824 0.00084569 0.00027431 0.00036618 0.0015561 -0.0017452 0.0014444
0.0040282 -0.0027596 0.26296 0.034148
2000000000 0.13479 -0.18289 -0.003522 0.00093583 0.0029666 0.0012718 -0.0022517 0.0039644
0.0010046 0.00045992 -0.00051067 0.00050135
-0.0035195 0.00093867 0.2476 0.064803 -0.0008244 0.0074707 0.0018767 0.00031857
0.0014842 -0.0011986 0.00032911 0.00010156
0.002979 0.0012425 -0.00078102 0.0074912 0.019944 -0.2293 -0.0013554 -0.0017066
0.0020817 -0.001225 0.001329 0.0016726
-0.0022666 0.0039945 0.0018718 0.00032343 -0.0013533 -0.0017115 0.061134 -0.17666
-0.0014875 0.0036397 -6.6315e-05 0.0023853
0.00096101 0.00047375 0.0014637 -0.0012037 0.0021028 -0.0012554 -0.0014472 0.0036483
0.24448 -0.020831 0.00061321 -0.0038154
