!Keysight Technologies,M9804A,MY58100912,A.14.10.03
!Date: Thursday, April 27, 2023 10:28:33
!Correction: S11(C  6-Port  ) 
!S12(C  6-Port  ) 
!S13(C  6-Port  ) 
!S14(C  6-Port  ) 
!S15(C  6-Port  ) 
!S16(C  6-Port  ) 
!S21(C  6-Port  ) 
!S22(C  6-Port  ) 
!S23(C  6-Port  ) 
!S24(C  6-Port  ) 
!S25(C  6-Port  ) 
!S26(C  6-Port  ) 
!S31(C  6-Port  ) 
!S32(C  6-Port  ) 
!S33(C  6-Port  ) 
!S34(C  6-Port  ) 
!S35(C  6-Port  ) 
!S36(C  6-Port  ) 
!S41(C  6-Port  ) 
!S42(C  6-Port  ) 
!S43(C  6-Port  ) 
!S44(C  6-Port  ) 
!S45(C  6-Port  ) 
!S46(C  6-Port  ) 
!S51(C  6-Port  ) 
!S52(C  6-Port  ) 
!S53(C  6-Port  ) 
!S54(C  6-Port  ) 
!S55(C  6-Port  ) 
!S56(C  6-Port  ) 
!S61(C  6-Port  ) 
!S62(C  6-Port  ) 
!S63(C  6-Port  ) 
!S64(C  6-Port  ) 
!S65(C  6-Port  ) 
!S66(C  6-Port  ) 
!S6P File: Measurement: :
# Hz S  RI   R 50
500000000 -0.33207 -0.062971 -0.0099996 -0.00045139 -0.0085207 0.013108 -0.0036621 0.012077
0.012607 0.005133 -0.0039967 0.0078943
-0.0099188 -0.00036827 -0.413 -0.07174 0.0080166 -0.010501 0.0016094 0.012743
0.0083219 0.0028775 0.0015687 0.014342
-0.0084532 0.013115 0.0079994 -0.010452 -0.26623 0.19221 0.0067047 0.0039819
-0.0019875 0.0087831 -0.000146 0.012468
-0.0032748 0.012423 0.0018246 0.012769 0.0066269 0.0039552 -0.32978 0.03804
-0.019365 -0.0039131 0.018796 0.025922
0.012289 0.0057606 0.0083512 0.0029652 -0.0019133 0.0086165 -0.019067 -0.0039594
-0.2367 -0.21496 -0.027266 0.0065649
-0.003035 0.0081884 0.0018326 0.014124 -0.00028754 0.012336 0.018539 0.025688
-0.027364 0.0065617 -0.26149 -0.13967
560000000 -0.31993 0.10402 -0.021909 -0.066885 3.4511e-05 0.013844 0.0044949 0.012424
0.011068 0.0049432 0.010994 0.0092765
-0.021703 -0.066953 -0.3746 0.092965 -0.041483 -0.039578 0.013873 0.0039535
-0.012156 -0.0047265 0.0038311 -0.00076153
0.0001595 0.013878 -0.041465 -0.039492 -0.18601 0.24471 -0.0004326 -0.0049587
0.019228 0.006498 0.0075192 -0.0053715
0.0044645 0.012303 0.013913 0.0039877 -0.00053407 -0.0050141 -0.30673 0.13084
0.0055177 -0.023436 0.0055062 -0.021201
0.010794 0.0050796 -0.01234 -0.0047289 0.019263 0.0061788 0.0051225 -0.023365
-0.31006 -0.030688 0.010033 -0.051774
0.010472 0.0091372 0.0037304 -0.00052822 0.0071794 -0.0050434 0.0056397 -0.021364
0.010195 -0.051773 -0.3321 0.014464
620000000 -0.27982 0.084474 -0.023714 0.0090039 0.0035952 0.0099242 0.008053 -0.004201
0.011812 -0.0015649 -0.00026048 -0.0014682
-0.023732 0.0090715 -0.40246 0.040498 -0.018449 0.00068667 -0.0014755 -0.0021484
0.012198 -0.0052582 0.0013282 -0.0029569
0.0036542 0.0099434 -0.018462 0.00070501 -0.15727 0.25431 -0.00054101 -0.005326
-0.0035384 -0.002298 0.01017 -0.0026204
0.0081782 -0.0040457 -0.0013184 -0.0021596 -0.00035682 -0.0053798 -0.26495 0.14113
-0.038766 -0.019679 0.013509 0.028182
0.012013 -0.0013545 0.012135 -0.0054172 -0.0035615 -0.0024411 -0.038815 -0.019668
-0.22591 -0.067117 -0.042254 0.012113
0.00029253 -0.0014942 0.0013666 -0.0031659 0.010269 -0.0028118 0.013343 0.028305
-0.04207 0.011998 -0.24803 -0.025229
680000000 -0.24304 0.17806 -0.026429 -0.014605 0.0048616 0.0055227 0.0017244 -0.0070293
-0.00099041 -0.011467 0.0062741 -0.0076099
-0.026366 -0.01459 -0.39077 0.14218 -0.032605 -0.002432 -0.0017242 -0.00051095
-0.0012307 -0.0091927 -0.0004836 -0.002383
0.004851 0.0055366 -0.032655 -0.0023188 -0.10696 0.2765 -0.00086235 -0.00026653
-0.0012993 -1.6282e-05 -0.003035 -0.0092627
0.0017177 -0.0072438 -0.001901 -0.00046906 -0.00095794 -0.00022081 -0.22021 0.19359
-0.023185 -0.007385 -0.0095338 -0.011713
-0.0010826 -0.011501 -0.001157 -0.0091924 -0.0012829 5.4409e-06 -0.023138 -0.0073061
-0.28145 0.036093 -0.0077682 -0.0066164
0.0063434 -0.0078678 -0.00061395 -0.0022309 -0.0031792 -0.0092178 -0.0094524 -0.011713
-0.0077095 -0.0065706 -0.26 0.080787
740000000 -0.19567 0.17051 -0.040078 0.026798 0.014118 -0.0043189 2.4674e-05 -0.0038835
-0.0040574 -0.0030635 -0.0067875 0.0033577
-0.039945 0.026771 -0.33618 0.16103 -0.037734 0.034713 0.00021527 -0.0061847
-0.01356 0.0071416 -8.3371e-05 -0.0061748
0.014114 -0.004323 -0.037641 0.034822 -0.073094 0.27381 -0.0021773 0.003285
-0.0021132 -0.0065541 -0.0015472 0.001591
0.0001224 -0.0039504 0.0002171 -0.0062107 -0.0021561 0.0032874 -0.20409 0.20106
-0.043851 -0.009059 0.023934 0.016418
-0.0039146 -0.0035133 -0.013349 0.0072818 -0.0020921 -0.0063833 -0.043687 -0.0088452
-0.17927 0.068897 -0.043973 -0.00027691
-0.0066287 0.0034252 -0.00024297 -0.0062096 -0.0015526 0.001367 0.023891 0.01643
-0.043949 -0.00038315 -0.25007 0.088175
800000000 -0.16464 0.21587 -0.022461 0.015971 0.0060323 -0.010619 -0.0044102 -0.0023831
-0.0048199 0.0016095 0.0043066 0.00029516
-0.02249 0.01594 -0.34402 0.23178 -0.0092463 0.034152 -0.0021648 0.0019734
-0.0013223 0.0020995 0.00086653 0.0055305
0.0060173 -0.010634 -0.0091276 0.034237 -0.034989 0.29922 0.00094985 0.0013478
-4.0092e-05 0.0031844 -0.001853 0.00055807
-0.0043791 -0.0024984 -0.002194 0.0019685 0.0008989 0.0013636 -0.17521 0.22864
-0.028421 0.012625 0.014376 -0.010164
-0.0050062 0.0018323 -0.0013857 0.0021517 -9.4664e-05 0.003313 -0.028486 0.012704
-0.22759 0.094302 -0.017268 0.019861
0.0045411 0.00015916 0.00084221 0.0055693 -0.0018845 0.0006929 0.014454 -0.01034
-0.017203 0.019855 -0.2469 0.13775
860000000 -0.13058 0.23627 -0.018265 0.03039 -0.002991 -0.010485 -0.0018085 0.00044219
0.0037659 0.0055624 -0.0040558 -0.0030177
-0.018222 0.030345 -0.29676 0.27608 0.0069721 0.034923 0.00029198 0.0022715
0.0037078 0.0010637 0.0031621 0.00041793
-0.0030398 -0.010477 0.0070935 0.034951 0.012337 0.30858 -0.00056831 -0.00012924
0.002145 -0.0013 0.0016202 0.0042935
-0.001858 0.00052019 0.00026327 0.0021981 -0.00052977 -0.00015247 -0.13886 0.23921
-0.017984 0.017833 -0.0062623 -0.0089597
0.0040168 0.0055196 0.0037141 0.0010049 0.0021505 -0.0013134 -0.017943 0.017867
-0.17031 0.14924 -0.025484 0.017767
-0.0042457 -0.0029744 0.0030111 0.00050454 0.0015831 0.0041709 -0.0062432 -0.0089003
-0.025473 0.017734 -0.19556 0.1842
920000000 -0.108 0.2594 0.0043239 0.038647 -0.0094013 -0.0053735 -0.0020616 0.0014358
0.0015717 0.0018644 0.002937 -0.0015719
0.0043734 0.038625 -0.2698 0.29775 0.028167 0.023324 0.0014363 0.0011509
0.0082417 -2.1339e-05 0.0045048 -0.0030376
-0.0094297 -0.0053701 0.028282 0.023276 0.058004 0.31084 0.0018886 -0.00014736
0.0012068 -0.00025223 0.00081269 -0.0017362
-0.0020385 0.0014555 0.0013901 0.0010536 0.0019028 -0.00010418 -0.11487 0.25654
-0.011631 0.030091 0.0039154 -0.0068897
0.0016858 0.0019414 0.0081262 -5.1885e-05 0.0011995 -0.00034289 -0.011755 0.030184
-0.16065 0.15209 -0.0023349 0.026946
0.002896 -0.0017542 0.0042952 -0.0030244 0.00081986 -0.0017196 0.0038834 -0.0069705
-0.0023564 0.026926 -0.20475 0.19822
980000000 -0.061762 0.28056 0.016287 0.030548 -0.0098735 0.00423 0.0015608 0.0034679
0.0038126 -0.0013362 -0.0034793 -0.0023784
0.016254 0.030507 -0.21768 0.33389 0.033486 0.0058289 0.0020381 -0.00013922
0.0016755 -0.0059892 -0.0002974 -0.0025434
-0.009864 0.004268 0.033567 0.0057521 0.10401 0.30573 0.00067563 -0.0011633
0.00038886 -0.0017757 0.0013643 -0.00020051
0.0015459 0.0034303 0.0020625 -0.00016578 0.00066279 -0.0012103 -0.077172 0.26741
0.0067156 0.030075 -0.0095861 -0.0071036
0.0038034 -0.0014544 0.001681 -0.0060228 0.00042987 -0.0017898 0.0068044 0.030049
-0.12859 0.18671 0.0059759 0.020363
-0.0034551 -0.0024282 -0.00034362 -0.002595 0.0012946 -0.00021875 -0.0095283 -0.0071471
0.0059508 0.020311 -0.16225 0.24343
1040000000 -0.021567 0.29008 0.03298 0.01983 -0.0017348 0.0074126 0.0026028 0.00091281
0.00028079 -0.0033431 -9.2545e-05 -0.001714
0.03295 0.019847 -0.18311 0.34815 0.030376 -0.014385 0.0015626 -0.001627
-0.0023582 -0.0027519 -0.0011918 -0.0032145
-0.0017267 0.0073976 0.030398 -0.014505 0.15028 0.29361 -0.00048109 -0.0014982
-0.0016239 -0.00093326 -0.0007465 -0.00099933
0.0026039 0.00089615 0.0015764 -0.0016245 -0.00047951 -0.0015035 -0.050044 0.2777
0.019219 0.019037 -0.0027572 0.0008414
0.0001991 -0.0033536 -0.002293 -0.0027553 -0.0016259 -0.00094725 0.019186 0.019019
-0.096084 0.1936 0.014019 0.018765
3.2479e-05 -0.0016848 -0.0011981 -0.0032367 -0.00070784 -0.001032 -0.0027983 0.00088728
0.014089 0.018662 -0.14164 0.26463
1100000000 0.023357 0.30037 0.036917 -0.0027962 0.003067 0.0044592 0.002398 -0.00082586
-0.0022638 -0.0029833 -0.0041967 -0.00023831
0.036883 -0.0027396 -0.1398 0.36779 0.016238 -0.028137 1.205e-05 -0.0017499
-0.0038417 -0.00084748 -0.0037737 -0.00056146
0.0030813 0.0044368 0.016154 -0.028241 0.19707 0.27455 -0.0019649 0.0001556
-0.0017832 0.0006103 -0.001205 -0.00049441
0.0024067 -0.00089087 1.9626e-05 -0.0017866 -0.001963 0.00016189 -0.010236 0.28325
0.02499 0.0058315 -0.002673 -0.00022678
-0.0022964 -0.0030224 -0.0038079 -0.00085448 -0.0018415 0.00064314 0.025069 0.0057961
-0.076661 0.2079 0.020047 0.0089846
-0.0042935 -0.00021222 -0.003859 -0.00051535 -0.001234 -0.00045477 -0.0026404 -0.00023331
0.019982 0.0090746 -0.09525 0.29531
1160000000 0.07402 0.29749 0.025226 -0.020327 0.0031195 -0.0003226 -6.7757e-05 -0.0023516
-0.004167 -0.0010804 -0.0013899 0.0041721
0.025246 -0.020309 -0.096311 0.37333 -0.0033454 -0.02973 -0.0015765 -0.0018235
-0.0028289 0.0026181 -0.0017191 0.0018745
0.0031149 -0.00036058 -0.0034668 -0.029747 0.24078 0.24451 -0.00080362 0.0017894
-0.00049639 0.0019397 -0.00096864 0.00044979
-0.00010827 -0.0023259 -0.0015675 -0.0017711 -0.00081169 0.0018115 0.028828 0.28115
0.021739 -0.010493 -0.0037382 0.0051805
-0.0042114 -0.0010712 -0.002888 0.0026352 -0.00053026 0.0019877 0.021756 -0.010524
-0.042511 0.21614 0.019172 5.4156e-06
-0.0012791 0.0041941 -0.0016364 0.0018496 -0.00099178 0.00039616 -0.0037784 0.0051983
0.019213 2.8498e-05 -0.048316 0.29922
1220000000 0.1178 0.28882 0.011831 -0.030533 -0.0012643 -0.0011158 0.00017627 -0.00096665
-0.002923 0.0021006 0.0010432 0.0022057
0.011847 -0.030467 -0.051716 0.38771 -0.017232 -0.021979 -0.0026089 0.00049519
2.1614e-05 0.0032226 -0.00084297 0.0021668
-0.0012613 -0.0011101 -0.017352 -0.021908 0.28022 0.20594 0.00082148 0.0018362
0.00054241 0.0012273 0.00022738 0.00069773
0.0001946 -0.00099553 -0.002623 0.00048962 0.00080814 0.0018333 0.068838 0.27349
0.011001 -0.017346 0.0019699 0.0014906
-0.002911 0.0021192 5.371e-05 0.0032363 0.00054168 0.0011977 0.010954 -0.017329
-0.019901 0.2269 0.014907 -0.013519
0.001015 0.0021746 -0.00087094 0.0021685 0.00021255 0.0007122 0.0019944 0.0014889
0.014858 -0.013534 -0.017949 0.31645
1280000000 0.16847 0.26941 -0.0072932 -0.029562 -0.0019429 0.0023067 -0.00083645 -0.0022525
-0.00095518 0.0033478 0.0027269 0.0014313
-0.0072907 -0.029533 -0.0047502 0.3799 -0.0246 -0.0086174 -0.00096107 0.0014838
0.0018752 0.0017645 0.0007242 0.002187
-0.0019374 0.0023102 -0.024683 -0.0085196 0.311 0.16247 0.001688 -8.4335e-05
0.0011938 0.00019651 0.0003466 0.00023976
-0.00082827 -0.0022088 -0.00092088 0.0014954 0.0016891 -4.5656e-05 0.10586 0.25796
0.00096605 -0.019644 -4.0785e-05 0.00059815
-0.00084877 0.0033873 0.0018654 0.0017658 0.0011525 0.00018876 0.0009396 -0.019664
0.01676 0.23119 0.0034201 -0.0161
0.0027957 0.0013144 0.00074548 0.0021299 0.00037153 0.00024726 -3.7555e-05 0.00061312
0.00352 -0.016061 0.029766 0.31977
1340000000 0.20627 0.23777 -0.017643 -0.019812 0.00064858 0.0046152 -0.001986 -0.00098619
0.0014219 0.0029053 0.0019264 -0.0014065
-0.017595 -0.019816 0.035184 0.37262 -0.021955 0.0046484 -7.9034e-05 0.0020499
0.0021123 0.00071456 0.001213 0.00074106
0.00069528 0.0046143 -0.021952 0.0047508 0.33291 0.11559 0.0010072 -0.0010336
0.00057808 -0.0005941 -1.1319e-05 0.00026305
-0.0019512 -0.00097874 -9.3532e-05 0.002071 0.00098788 -0.001038 0.13931 0.23819
-0.0089694 -0.016823 0.00088699 0.00068136
0.0014512 0.0029494 0.0021241 0.00067571 0.00059953 -0.00066253 -0.0090082 -0.016791
0.046334 0.22809 -0.003961 -0.01478
0.0019729 -0.0014099 0.0012387 0.00080362 -6.6e-06 0.00032184 0.00087661 0.00068089
-0.0039871 -0.014813 0.067775 0.31517
1400000000 0.24125 0.20124 -0.023984 -0.0080074 0.005329 0.0033516 -0.0024269 0.00068499
0.0026749 0.0011127 0.00038785 -0.0017104
-0.023953 -0.0080149 0.073642 0.36022 -0.014898 0.013079 0.0013357 0.0012772
0.001274 -0.00088202 0.0011745 7.6474e-05
0.005337 0.0033288 -0.014856 0.013192 0.34639 0.062841 -4.7852e-05 -0.0016281
0.00017772 -0.00032415 0.0004093 0.00023633
-0.002418 0.00076275 0.0013871 0.001266 -6.4032e-05 -0.001617 0.16942 0.20973
-0.015125 -0.0095455 -0.00075984 -7.5979e-05
0.0026768 0.0011119 0.0012759 -0.00089971 0.00021087 -0.00034975 -0.015163 -0.009541
0.079782 0.22519 -0.010724 -0.0092085
0.00043321 -0.0016837 0.0011898 1.1363e-05 0.00036216 0.00024587 -0.00077353 -5.1967e-05
-0.010673 -0.0091689 0.11317 0.30533
1460000000 0.26519 0.15805 -0.020883 0.0047768 0.0057307 -0.0018073 -0.0015933 0.001906
0.0023649 -0.00038936 -0.00020801 -0.0010286
-0.020866 0.004772 0.10836 0.33815 -0.0054082 0.015952 0.0016622 0.00019367
0.00084899 -0.0013594 0.0012163 -0.00058327
0.0057419 -0.0018332 -0.0053408 0.015987 0.35327 0.0092756 -0.0013389 -0.0011983
0.0001483 -0.00013512 0.00086539 -0.00020865
-0.0016063 0.0018356 0.0016624 0.00021955 -0.0013361 -0.0012042 0.19649 0.18077
-0.016073 -0.0024413 -0.00072507 0.0020741
0.0023881 -0.00040872 0.00084535 -0.0013643 0.00016894 -0.00014014 -0.016095 -0.0024157
0.10972 0.21229 -0.012939 -0.0028355
-0.00024683 -0.0010423 0.0012277 -0.00059198 0.00085505 -0.00025752 -0.000726 0.002065
-0.012949 -0.0028586 0.14625 0.28516
1520000000 0.27904 0.11691 -0.015061 0.010469 0.0035271 -0.0043575 0.00018934 0.0027673
0.0022358 -0.0020671 -0.0012486 -9.3405e-05
-0.015066 0.010451 0.14213 0.32411 0.0025069 0.013018 0.0016402 -0.00074362
-3.9176e-05 -0.00099008 0.00037691 -0.0010666
0.0034957 -0.0043828 0.0025952 0.013017 0.34701 -0.046 -0.00096791 -0.00018124
0.00073785 -0.00090787 0.00015737 -0.00024317
0.00021509 0.0027944 0.0016276 -0.00074054 -0.00095858 -0.00019822 0.22049 0.14268
-0.014893 0.0035773 0.0017232 0.0021268
0.0022578 -0.0020598 -5.6881e-05 -0.0010104 0.00074747 -0.00094412 -0.014879 0.0036136
0.13855 0.20026 -0.012503 0.0020921
-0.0012554 -0.0001143 0.00036333 -0.0010578 0.00016183 -0.0002264 0.0017127 0.0021252
-0.012503 0.0021467 0.17926 0.2662
1580000000 0.28973 0.071045 -0.0081091 0.013832 -0.0010711 -0.0052084 0.0016448 0.0018882
-0.00018465 -0.0023711 -0.00016395 0.00033635
-0.0081169 0.013811 0.16969 0.29932 0.006013 0.007595 0.00055669 -0.0015177
-0.00047183 -0.00095458 -0.0001437 -0.00089376
-0.0010973 -0.0052053 0.0060328 0.0075462 0.32807 -0.10368 -0.0014468 0.00049746
-0.00043268 -0.0013226 0.0003104 -0.00057479
0.001645 0.0018474 0.0005382 -0.0015192 -0.0014467 0.00049037 0.23493 0.10297
-0.01084 0.0084443 0.00238 0.00080847
-0.00021879 -0.0023834 -0.00045829 -0.00095217 -0.00045565 -0.0013185 -0.010833 0.0084443
0.16368 0.1836 -0.0096806 0.0082903
-0.00019327 0.00033945 -0.00014051 -0.00089381 0.00031079 -0.00060194 0.0023884 0.00080445
-0.0096393 0.0082193 0.21208 0.24017
1640000000 0.2927 0.029824 -0.0010985 0.012396 -0.0031542 -0.0026917 0.0028485 0.0010485
-0.00088913 -0.0017079 -0.0003561 0.00054773
-0.0011053 0.012388 0.19903 0.27513 0.0061334 0.0023779 -0.00049597 -0.0017888
-0.0008727 -0.00042297 -0.00052427 -0.00072593
-0.0031734 -0.0026618 0.0061603 0.0023335 0.30023 -0.15255 -0.00058615 0.0013497
-0.0011109 -0.00098735 -0.00027566 -0.00054699
0.0028659 0.0010316 -0.00051265 -0.0017992 -0.0005617 0.001362 0.24776 0.054129
-0.0061723 0.0091263 0.0026311 -0.00087774
-0.00088981 -0.0016953 -0.00086233 -0.00040752 -0.0011013 -0.00096713 -0.006144 0.0091721
0.18761 0.16062 -0.0044347 0.010197
-0.00036832 0.00054533 -0.0005441 -0.00071583 -0.00028775 -0.00056578 0.0026422 -0.00089278
-0.004468 0.010266 0.23819 0.21013
1700000000 0.2867 -0.015327 0.0023737 0.0093311 -0.0037851 0.0002388 0.0032264 -0.0013235
-0.0021361 -0.00049222 0.00059596 0.00031799
0.002368 0.0093084 0.21763 0.2441 0.0034412 -0.00058106 -0.0014307 -0.00069506
-0.00072343 -0.00012494 -0.00088224 -0.000472
-0.0037922 0.00025976 0.0034363 -0.00059488 0.25788 -0.19249 0.00031996 0.0014145
-0.002075 -0.00010465 -0.00050696 -0.00079021
0.0032049 -0.0013617 -0.0014226 -0.00067323 0.00030572 0.0014535 0.24493 0.0038484
-0.0033438 0.0090824 0.0017768 -0.0022646
-0.0021407 -0.00047801 -0.00073755 -0.00011035 -0.002111 -8.4546e-05 -0.003369 0.0090612
0.20641 0.14125 0.0005092 0.010423
0.0006034 0.00032302 -0.00089968 -0.00049021 -0.00051661 -0.00083328 0.001756 -0.0022395
0.00054143 0.010384 0.25586 0.1766
1760000000 0.27547 -0.06394 0.0044622 0.0058035 -0.0023294 0.0013107 0.0012649 -0.0035317
-0.0013562 0.00078062 0.00023324 -0.00051601
0.0044679 0.0058097 0.24368 0.20493 0.00058606 -0.0020993 -0.0012887 4.9859e-05
-0.0011707 0.00079169 -0.0006233 0.00036643
-0.0023339 0.0013241 0.00059788 -0.0020966 0.20982 -0.22616 0.00091121 0.0011038
-0.0011956 0.0014592 -0.0013688 -0.00062457
0.0012549 -0.0035595 -0.0013078 4.989e-05 0.00091194 0.0011291 0.23612 -0.047861
-0.00049621 0.0077383 -0.00020572 -0.0027436
-0.0013268 0.00075077 -0.0011512 0.00079031 -0.0011937 0.0014356 -0.00046389 0.0077345
0.22226 0.10713 0.0047536 0.0075183
0.00027754 -0.0005265 -0.00062272 0.00039378 -0.001307 -0.00061867 -0.00020205 -0.0027709
0.0047316 0.0075321 0.26939 0.13953
1820000000 0.2522 -0.10121 0.0042735 0.0023504 -5.5577e-05 0.0026938 -0.0010458 -0.0031371
-0.0010379 0.00098078 -5.4385e-05 -5.8434e-05
0.0042835 0.0023606 0.25449 0.17568 -0.0018964 -0.00024588 -0.0014905 0.0009691
-0.00019445 0.0011945 -0.00060786 0.00052436
-2.7081e-05 0.0026762 -0.0019059 -0.00023492 0.15917 -0.24194 0.0015217 0.00043304
-0.00025251 0.0023259 -0.0015796 0.00050579
-0.0010234 -0.0031875 -0.0014813 0.00098431 0.0015387 0.00048494 0.20659 -0.095452
0.00063142 0.0062001 -0.0017608 -0.001932
-0.00099218 0.00094836 -0.00018995 0.0012163 -0.0002242 0.0023767 0.00068002 0.0062169
0.24057 0.078854 0.0057482 0.0034719
-8.5801e-05 -6.6372e-05 -0.00060931 0.00049294 -0.0016164 0.00049071 -0.0017473 -0.0018979
0.0057789 0.0034704 0.27283 0.10373
1880000000 0.21767 -0.14218 0.001763 0.0002767 -0.00042489 0.0023673 -0.0030037 -0.0022876
-0.00010222 0.0016495 8.5304e-05 -0.00043335
0.0017773 0.00027634 0.2593 0.12935 -0.0037461 0.0023116 -0.0002929 0.0018943
0.00045598 0.0014831 8.4283e-06 0.001044
-0.00039997 0.00237 -0.0037529 0.0023298 0.10731 -0.2511 0.0018757 -0.0008111
0.0015916 0.0020088 -0.0010235 0.001561
-0.0029547 -0.0022265 -0.00030137 0.0018869 0.0019084 -0.00077249 0.16568 -0.1361
0.0010263 0.0043131 -0.0025613 5.8652e-05
-5.7714e-05 0.0016568 0.00045735 0.0014788 0.0015918 0.0020491 0.00095718 0.0043138
0.24553 0.047571 0.0059474 0.00090866
0.00015724 -0.00050338 2.775e-05 0.0010752 -0.00099876 0.0015052 -0.0025496 7.5427e-05
0.0059007 0.00086127 0.27357 0.069565
1940000000 0.17908 -0.16854 -0.0002656 -0.0011481 0.0017198 0.0021553 -0.0039914 0.00043739
0.001151 0.00091143 -0.00052422 -0.000515
-0.00025806 -0.0011575 0.26078 0.098239 -0.0020294 0.0052284 0.0010711 0.0014596
0.0019388 0.00071622 0.0010158 0.00040341
0.0017194 0.0021495 -0.0020348 0.0052562 0.062266 -0.24399 0.00073629 -0.0022895
0.0024285 0.00055619 0.00035619 0.0017549
-0.0039778 0.0004642 0.001117 0.0014527 0.00071576 -0.0023225 0.11347 -0.16657
-0.00016611 0.003328 -0.0018225 0.0015436
0.0011381 0.00088458 0.0019485 0.00068427 0.002433 0.00050435 -6.8504e-05 0.0033325
0.24911 0.0099862 0.0042513 -0.0028743
-0.00051916 -0.00051644 0.00099558 0.00034119 0.00039086 0.0016959 -0.0017992 0.0015458
0.004343 -0.0028195 0.26316 0.033426
2000000000 0.13358 -0.18357 -0.0039032 0.001067 0.0030517 0.0014445 -0.0021505 0.0037303
0.00109 0.00051226 -0.00055241 0.00069153
-0.0038764 0.0010496 0.24762 0.063006 -0.00093945 0.0073813 0.0018639 0.0004171
0.0014862 -0.0011499 0.00052903 3.1586e-05
0.0030684 0.0014386 -0.00086035 0.0073705 0.019346 -0.23005 -0.0011995 -0.0016939
0.0021003 -0.0011179 0.0016001 0.0013621
-0.0021577 0.0038266 0.0018305 0.00038118 -0.001334 -0.0016642 0.059841 -0.17707
-0.0017956 0.0034589 -0.00029227 0.002384
0.0011096 0.00052375 0.0014925 -0.0011678 0.0020815 -0.0011199 -0.0018247 0.0034116
0.24521 -0.022915 0.00083508 -0.0036614
