!Keysight Technologies,M9804A,MY58100912,A.14.10.03
!Date: Thursday, April 27, 2023 10:28:33
!Correction: S11(C  6-Port  ) 
!S12(C  6-Port  ) 
!S13(C  6-Port  ) 
!S14(C  6-Port  ) 
!S15(C  6-Port  ) 
!S16(C  6-Port  ) 
!S21(C  6-Port  ) 
!S22(C  6-Port  ) 
!S23(C  6-Port  ) 
!S24(C  6-Port  ) 
!S25(C  6-Port  ) 
!S26(C  6-Port  ) 
!S31(C  6-Port  ) 
!S32(C  6-Port  ) 
!S33(C  6-Port  ) 
!S34(C  6-Port  ) 
!S35(C  6-Port  ) 
!S36(C  6-Port  ) 
!S41(C  6-Port  ) 
!S42(C  6-Port  ) 
!S43(C  6-Port  ) 
!S44(C  6-Port  ) 
!S45(C  6-Port  ) 
!S46(C  6-Port  ) 
!S51(C  6-Port  ) 
!S52(C  6-Port  ) 
!S53(C  6-Port  ) 
!S54(C  6-Port  ) 
!S55(C  6-Port  ) 
!S56(C  6-Port  ) 
!S61(C  6-Port  ) 
!S62(C  6-Port  ) 
!S63(C  6-Port  ) 
!S64(C  6-Port  ) 
!S65(C  6-Port  ) 
!S66(C  6-Port  ) 
!S6P File: Measurement: :
# Hz S  RI   R 50
500000000 -0.33244 -0.06623 -0.010805 -0.0012674 -0.0083821 0.013598 -0.0040292 0.011651
0.011637 0.0045626 -0.0043933 0.0074647
-0.010708 -0.0013097 -0.41237 -0.073361 0.0086708 -0.010352 0.00076183 0.011572
0.0080132 0.0035503 0.00047462 0.013415
-0.0083542 0.01359 0.0086277 -0.010389 -0.26425 0.191 0.0071218 0.0032828
-0.0022334 0.0085525 0.00048264 0.012297
-0.0039124 0.011648 0.00082318 0.011584 0.0071013 0.0032927 -0.3322 0.036998
-0.018433 -0.003594 0.014263 0.024775
0.012012 0.0043683 0.0080276 0.0034826 -0.0022099 0.0085191 -0.018435 -0.0035974
-0.2358 -0.21614 -0.02708 0.0056763
-0.0043425 0.0072994 0.00047628 0.01336 0.00050414 0.012257 0.014327 0.02507
-0.027233 0.0056562 -0.26677 -0.14344
560000000 -0.31927 0.10364 -0.021834 -0.066728 -0.00029312 0.013349 0.0056791 0.011531
0.011339 0.0040876 0.011007 0.0085463
-0.021774 -0.066594 -0.37248 0.091562 -0.041695 -0.039457 0.014398 0.0038621
-0.012839 -0.0045659 0.0038623 -0.001019
-0.00027841 0.013353 -0.04183 -0.039434 -0.1859 0.24226 -0.001001 -0.0048189
0.019175 0.007032 0.0071817 -0.0067209
0.0056534 0.011433 0.01442 0.0039024 -0.0010285 -0.0048361 -0.30609 0.12982
0.0059505 -0.023802 0.0056729 -0.021738
0.011409 0.0043861 -0.012777 -0.004494 0.019214 0.0069785 0.0058944 -0.023814
-0.30662 -0.034459 0.0095547 -0.050595
0.011141 0.0085835 0.0037965 -0.0010401 0.0072932 -0.0068817 0.0056521 -0.021866
0.009481 -0.050539 -0.3294 0.007937
620000000 -0.27865 0.082454 -0.023041 0.0089097 0.0033585 0.0096562 0.0074502 -0.0037913
0.012959 -0.0010228 -0.00061835 -0.0015021
-0.023007 0.0089501 -0.40174 0.038141 -0.018338 0.00011398 -0.0020877 -0.0018898
0.013136 -0.006019 0.00013381 -0.0029632
0.0033177 0.0096172 -0.018361 0.00018048 -0.15772 0.25274 -0.00068078 -0.0051278
-0.0039142 -0.0026357 0.01019 -0.0027921
0.0074568 -0.0038821 -0.0020907 -0.0018936 -0.00066672 -0.0051336 -0.26488 0.13942
-0.039328 -0.019411 0.014192 0.027807
0.012793 -0.0011488 0.013143 -0.0060509 -0.0039465 -0.0026117 -0.039449 -0.019361
-0.22442 -0.070762 -0.044232 0.012228
-0.00082178 -0.0017009 0.00011411 -0.0030035 0.010143 -0.0027145 0.01426 0.027891
-0.044465 0.012248 -0.24452 -0.02533
680000000 -0.24414 0.17619 -0.026651 -0.015132 0.0048674 0.00562 0.0018495 -0.0078356
-0.002021 -0.011228 0.0060876 -0.006888
-0.026616 -0.015155 -0.39108 0.13987 -0.032945 -0.0028103 -0.0017839 -0.00064688
-0.001395 -0.0090997 -0.00097226 -0.0020854
0.0049013 0.0056048 -0.032999 -0.0027165 -0.10833 0.27487 -0.00094595 -0.00026843
-0.0014339 0.00068925 -0.0030974 -0.0095483
0.0018779 -0.007771 -0.0018006 -0.00065501 -0.00093721 -0.00026841 -0.22125 0.19338
-0.023245 -0.0079462 -0.0091414 -0.010955
-0.0019917 -0.011189 -0.0014753 -0.0091381 -0.0014685 0.0006754 -0.023287 -0.0078701
-0.28145 0.035529 -0.0055994 -0.0073471
0.0062492 -0.0070095 -0.00095955 -0.002101 -0.0030057 -0.0095265 -0.0090853 -0.010757
-0.0053927 -0.0074331 -0.26178 0.077784
740000000 -0.19669 0.16825 -0.041109 0.026253 0.014254 -0.0043119 5.5774e-05 -0.0041864
-0.0040476 -0.0025248 -0.0070318 0.0025271
-0.041028 0.026258 -0.33746 0.15926 -0.037607 0.034445 -0.0003512 -0.0062755
-0.012291 0.0073657 -0.00176 -0.0062889
0.01424 -0.0043281 -0.037541 0.034601 -0.07474 0.27334 -0.0015231 0.0032956
-0.0025771 -0.0057241 -0.001309 0.00099332
9.2182e-05 -0.0042332 -0.00040348 -0.0062812 -0.0015119 0.0032912 -0.20523 0.19938
-0.042987 -0.008509 0.022944 0.015932
-0.0041376 -0.0025271 -0.012271 0.00745 -0.0025892 -0.0057206 -0.043083 -0.0083781
-0.18199 0.065558 -0.043905 -0.00017087
-0.0068896 0.002455 -0.0016899 -0.0062838 -0.0013487 0.00097426 0.023009 0.015888
-0.044056 -3.2717e-05 -0.25219 0.086044
800000000 -0.16575 0.215 -0.02265 0.015962 0.0061178 -0.010472 -0.004579 -0.0026127
-0.0046016 0.0023638 0.0043544 -0.00026878
-0.022652 0.015974 -0.34498 0.23051 -0.0093568 0.034543 -0.0021482 0.0018473
-0.00065106 0.0028571 0.00085973 0.0049501
0.0061066 -0.010482 -0.0092617 0.034619 -0.036326 0.29903 0.00089458 0.0012344
0.00030794 0.0034448 -0.001993 0.00075045
-0.0046139 -0.0025643 -0.0021376 0.0018489 0.00089079 0.0012262 -0.17623 0.22763
-0.028911 0.012582 0.014381 -0.010747
-0.0045584 0.002469 -0.00062763 0.0029048 0.00035541 0.0034384 -0.028866 0.0127
-0.22735 0.09184 -0.017603 0.020631
0.0043548 -2.0874e-05 0.00096628 0.0050758 -0.0019561 0.00080457 0.014338 -0.010707
-0.017537 0.02062 -0.24625 0.13404
860000000 -0.13221 0.2355 -0.018811 0.030389 -0.0028669 -0.01045 -0.0019942 0.00062492
0.0036915 0.0056873 -0.0039556 -0.0030816
-0.018813 0.030359 -0.29836 0.27498 0.0069662 0.035243 7.7414e-05 0.0024552
0.0038879 0.0006388 0.003505 0.00012192
-0.0029078 -0.010449 0.0070974 0.035275 0.011333 0.3089 -0.00060264 -0.00025188
0.002217 -0.0015084 0.0018191 0.0041904
-0.0019632 0.00060587 8.6362e-05 0.0024252 -0.00060149 -0.00025414 -0.13975 0.23889
-0.019443 0.018205 -0.0062327 -0.0090686
0.0036821 0.0056888 0.0038756 0.00062863 0.0022199 -0.0015223 -0.019365 0.018264
-0.17221 0.14789 -0.02594 0.015774
-0.0039269 -0.0031797 0.0035107 0.00014772 0.0018092 0.0042024 -0.0062178 -0.0091585
-0.025882 0.015716 -0.19646 0.18376
920000000 -0.10885 0.25925 0.004102 0.039147 -0.0093949 -0.0051763 -0.0018806 0.0018303
0.00065839 0.0015198 0.0032115 -0.0010693
0.0041074 0.039101 -0.27132 0.29732 0.028283 0.023738 0.0013545 0.0012015
0.007651 -8.7406e-05 0.0043564 -0.0027997
-0.0094268 -0.0051541 0.028419 0.023696 0.057249 0.31122 0.0018711 0.00019413
0.0008185 -0.00020886 0.0010554 -0.0015477
-0.0018748 0.0018916 0.0013589 0.0011917 0.0018672 0.00019597 -0.11612 0.25678
-0.011801 0.030649 0.004104 -0.0066631
0.00067884 0.0015535 0.0076911 -0.00010055 0.00083174 -0.0001875 -0.011712 0.030693
-0.16251 0.15311 -0.0021358 0.027726
0.0032327 -0.00108 0.0043122 -0.0028081 0.0010598 -0.0015589 0.0041034 -0.006633
-0.0021371 0.027765 -0.20515 0.19574
980000000 -0.063132 0.28049 0.016179 0.031069 -0.0098329 0.0044775 0.0016606 0.0037614
0.0042956 -0.0015002 -0.0035675 -0.0023267
0.016145 0.031058 -0.21887 0.33363 0.033818 0.0060677 0.0020775 -0.00019216
0.0020821 -0.0063344 -0.00051556 -0.0025555
-0.0098339 0.0045109 0.033894 0.0059741 0.10358 0.30603 0.00068577 -0.0011371
0.00059291 -0.001855 0.0013218 -0.00028302
0.0016779 0.003747 0.0020691 -0.00022694 0.00069288 -0.0011466 -0.077595 0.26768
0.0073453 0.03056 -0.0096352 -0.0080215
0.0042443 -0.0014939 0.0020666 -0.0063527 0.00059499 -0.0018545 0.0074464 0.030531
-0.12966 0.18434 0.004919 0.020582
-0.0036632 -0.0024587 -0.00051846 -0.0025769 0.0013599 -0.00029676 -0.0096103 -0.0080059
0.0048889 0.020561 -0.16441 0.24211
1040000000 -0.022333 0.29031 0.03338 0.020349 -0.0015497 0.0075656 0.0025759 0.00079413
0.00026143 -0.0034306 -0.00016917 -0.0016019
0.03335 0.020351 -0.18406 0.34815 0.030756 -0.014295 0.001514 -0.0017571
-0.0023385 -0.0023165 -0.0012254 -0.0030936
-0.0015257 0.0075667 0.030764 -0.014424 0.14988 0.29388 -0.00045737 -0.0016185
-0.0015835 -0.00095428 -0.00049276 -0.0012303
0.0025855 0.00080677 0.0015004 -0.0017851 -0.00045306 -0.0016162 -0.050823 0.27822
0.019337 0.019494 -0.0026056 0.0012755
0.00021626 -0.0034626 -0.0023593 -0.0023332 -0.0015771 -0.00095546 0.019393 0.019431
-0.097863 0.19226 0.013505 0.019295
-0.00016306 -0.0016229 -0.0012405 -0.003109 -0.00050913 -0.0012196 -0.0025841 0.0012536
0.013425 0.019321 -0.14295 0.26431
1100000000 0.022528 0.30063 0.03738 -0.0024752 0.0032661 0.0044777 0.0024512 -0.001091
-0.0020273 -0.0029954 -0.0041073 9.3996e-05
0.037349 -0.0024503 -0.14057 0.36795 0.016426 -0.028324 -5.7774e-05 -0.0018581
-0.0036179 -0.00076806 -0.0036082 -0.00037163
0.0032766 0.0044726 0.016346 -0.028428 0.19673 0.27487 -0.0018926 0.00024088
-0.0018101 0.00056978 -0.0011201 -0.00050179
0.0024536 -0.0010927 -7.4751e-05 -0.001862 -0.0018922 0.00023728 -0.010359 0.28393
0.025254 0.0060023 -0.0026958 0.00030535
-0.0020448 -0.0029342 -0.0036244 -0.00073785 -0.0018045 0.00057543 0.02526 0.0059122
-0.078238 0.20722 0.019842 0.0098914
-0.0041554 9.3266e-05 -0.0036237 -0.00040441 -0.0010952 -0.00051802 -0.0027407 0.00029039
0.019862 0.0099235 -0.097083 0.29527
1160000000 0.073357 0.29764 0.025779 -0.020346 0.0034383 -0.00052321 -0.00018186 -0.002437
-0.0041251 -0.00092716 -0.001105 0.004112
0.025785 -0.020295 -0.097022 0.37327 -0.0032282 -0.029886 -0.0015342 -0.0016325
-0.0027273 0.0026075 -0.0017376 0.0019132
0.0034502 -0.00055901 -0.0033474 -0.029906 0.24037 0.2448 -0.00078726 0.0018522
-0.00064064 0.0018879 -0.0012074 0.00031661
-0.00020015 -0.0024283 -0.0015664 -0.0016322 -0.000789 0.0018576 0.02906 0.2816
0.022286 -0.010396 -0.0034664 0.0052417
-0.0041688 -0.00092574 -0.0027168 0.0026343 -0.00062591 0.0019114 0.022263 -0.010454
-0.044615 0.21638 0.020123 -0.00010888
-0.0010737 0.0041651 -0.001691 0.0019227 -0.0012369 0.000294 -0.0034361 0.005278
0.020062 -5.6657e-05 -0.050393 0.29916
1220000000 0.11718 0.28918 0.012308 -0.030741 -0.0011928 -0.0014271 2.2114e-05 -0.00095241
-0.0027561 0.0022431 0.0011122 0.0021555
0.012325 -0.030698 -0.052193 0.38782 -0.017163 -0.022057 -0.0026403 0.00050062
0.00012069 0.0031141 -0.00084772 0.0020204
-0.0011924 -0.0014297 -0.017298 -0.022008 0.27992 0.20639 0.00086109 0.0017143
0.00061053 0.0012589 0.00023983 0.00073172
3.5486e-05 -0.00095284 -0.0026434 0.00051001 0.00085162 0.0017187 0.069134 0.27397
0.011018 -0.017586 0.0023388 0.0017056
-0.0027496 0.0022567 0.00014774 0.0031195 0.00060946 0.0012568 0.010949 -0.017633
-0.021366 0.22668 0.01466 -0.013029
0.0010662 0.0020949 -0.00083672 0.0020296 0.00026423 0.00073614 0.0023085 0.0016856
0.014706 -0.013013 -0.019091 0.31634
1280000000 0.16808 0.26976 -0.007098 -0.029944 -0.0020459 0.0019758 -0.00083147 -0.0020365
-0.00083729 0.0033844 0.0025187 0.0013901
-0.0070825 -0.029907 -0.0051842 0.37984 -0.024567 -0.0086667 -0.0008701 0.0014817
0.0018664 0.0017542 0.0007302 0.0021719
-0.0020364 0.0019934 -0.024651 -0.0085716 0.3109 0.16291 0.0016788 -0.00010276
0.001199 0.00023114 0.00021794 0.00047503
-0.00085702 -0.0020319 -0.00087008 0.0014847 0.0016856 -0.00010251 0.10625 0.25771
0.001017 -0.019991 -0.0002615 4.3941e-06
-0.00083166 0.0033849 0.0018713 0.0017456 0.0011945 0.00023464 0.00093959 -0.019996
0.01525 0.23149 0.0039723 -0.016183
0.0025827 0.0013763 0.00075771 0.0021173 0.00019746 0.00048159 -0.00020468 8.9504e-05
0.0039806 -0.016177 0.027621 0.31958
1340000000 0.20594 0.23802 -0.017532 -0.020359 0.00046048 0.0043678 -0.0018793 -0.0009046
0.0015581 0.0027638 0.0018524 -0.001388
-0.017498 -0.020337 0.034617 0.37242 -0.021903 0.0046163 -7.8948e-05 0.0020356
0.0019462 0.0008557 0.0012865 0.00083213
0.00047689 0.004368 -0.021908 0.0047314 0.33301 0.11597 0.001 -0.0010453
0.00074821 -0.00051171 0.0001969 0.00028653
-0.0018896 -0.00089795 -6.5846e-05 0.0020374 0.00099841 -0.0010435 0.13932 0.23764
-0.0089888 -0.017155 0.00092788 0.00041327
0.0015804 0.0027605 0.0019609 0.00084419 0.00075073 -0.0005158 -0.0090652 -0.01713
0.045521 0.22871 -0.0036751 -0.014861
0.0018135 -0.0013608 0.0012857 0.00084738 0.00018935 0.00027898 0.00090148 0.0004172
-0.0036684 -0.014862 0.066554 0.31573
1400000000 0.24087 0.20129 -0.024218 -0.0084881 0.0050037 0.0033232 -0.0021727 0.00070679
0.002675 0.0010974 0.00032805 -0.0016453
-0.024188 -0.0084899 0.073173 0.35979 -0.014896 0.012942 0.001335 0.0012608
0.0011619 -0.00079025 0.0012111 0.0001583
0.0050052 0.003301 -0.014852 0.013047 0.34659 0.062973 -5.2709e-05 -0.0015904
9.0295e-05 -0.00030054 0.00051791 0.00029706
-0.002167 0.00073001 0.0013466 0.0012531 -5.2739e-05 -0.0015908 0.16918 0.20911
-0.015491 -0.0098722 -0.00084855 -1.8006e-05
0.0026822 0.0010779 0.0011545 -0.00080334 8.3953e-05 -0.00030851 -0.015534 -0.0098248
0.079263 0.22549 -0.010457 -0.0094487
0.00035589 -0.0016627 0.0012137 0.00012891 0.00052563 0.00028027 -0.00085973 2.2534e-05
-0.010463 -0.0094458 0.11197 0.30592
1460000000 0.26471 0.15798 -0.02125 0.0045652 0.0055821 -0.0016729 -0.0015664 0.0017605
0.0023321 -0.00043961 -0.00035473 -0.0010314
-0.021226 0.0045518 0.10748 0.3378 -0.0054754 0.015835 0.0016296 0.00020325
0.00090823 -0.0013297 0.0011847 -0.00060019
0.0055823 -0.0017093 -0.0053989 0.015891 0.35334 0.0093025 -0.0012056 -0.0011602
0.00032262 -0.00026619 0.00069477 -0.00030362
-0.001565 0.0017738 0.0016302 0.00019738 -0.0012092 -0.0011551 0.19577 0.18022
-0.016281 -0.0024366 -0.00093033 0.0021382
0.0023419 -0.00044702 0.00091253 -0.0013334 0.00033325 -0.0002634 -0.016295 -0.0023774
0.10897 0.21263 -0.012631 -0.0030464
-0.00040922 -0.0010041 0.0012021 -0.00062055 0.00068879 -0.00034254 -0.0009344 0.0021416
-0.012596 -0.0031098 0.14545 0.28597
1520000000 0.27836 0.11701 -0.015501 0.010443 0.0033408 -0.0041747 0.00021761 0.0027416
0.0022943 -0.002005 -0.0011647 -0.00018907
-0.015502 0.010422 0.14114 0.32393 0.0023435 0.012932 0.0016764 -0.00066518
1.691e-05 -0.00093787 0.00033668 -0.001107
0.0033122 -0.0042004 0.0024141 0.012938 0.34691 -0.046209 -0.00090187 -0.00031008
0.0006606 -0.00091629 0.00020802 -0.00031231
0.00021693 0.002748 0.001674 -0.00067781 -0.00090564 -0.00030205 0.21962 0.14244
-0.015164 0.0037566 0.0015591 0.0021136
0.0022795 -0.0020185 9.1382e-06 -0.00094347 0.00065986 -0.00091508 -0.015144 0.0038062
0.13801 0.20039 -0.012319 0.0018484
-0.0011204 -0.00015975 0.0003387 -0.0011032 0.00021112 -0.00031469 0.0015938 0.0020852
-0.012343 0.0018393 0.17845 0.26678
1580000000 0.28873 0.071258 -0.0084644 0.014037 -0.00099646 -0.0048451 0.0015479 0.0017986
-0.00027452 -0.0023002 -0.00023349 0.00044203
-0.0084613 0.014025 0.16861 0.29924 0.0058355 0.0076067 0.00060601 -0.0015635
-0.00047202 -0.0010141 -0.00025651 -0.00077891
-0.0010129 -0.0048469 0.0058843 0.0075862 0.32776 -0.10372 -0.001408 0.00047043
-0.0003444 -0.0012214 0.00030393 -0.00062566
0.0015735 0.0017868 0.00059704 -0.0015643 -0.0014123 0.00048448 0.23399 0.10319
-0.010768 0.0085772 0.0023004 0.00073931
-0.00027732 -0.0023244 -0.0004931 -0.0010047 -0.00036567 -0.0012105 -0.010727 0.0086315
0.16313 0.18338 -0.0097653 0.0077535
-0.00025612 0.0004608 -0.00025355 -0.00080592 0.00030895 -0.00065862 0.0023051 0.00073656
-0.0097303 0.0077516 0.21178 0.24126
1640000000 0.29163 0.030507 -0.0013607 0.012686 -0.0029857 -0.0025699 0.0028013 0.0010485
-0.00087742 -0.0016879 -0.00032518 0.00055532
-0.0013759 0.012677 0.19773 0.27549 0.0059314 0.0025106 -0.00044865 -0.0018307
-0.00085425 -0.00043123 -0.00053812 -0.00066194
-0.0030017 -0.0025518 0.0059577 0.0024724 0.29934 -0.15218 -0.00062908 0.0013658
-0.0010767 -0.00093532 -0.00014224 -0.00054798
0.0028143 0.0010319 -0.00045736 -0.0018396 -0.00063452 0.0013624 0.24677 0.054685
-0.0061369 0.0092372 0.0026529 -0.00073216
-0.00086619 -0.0016898 -0.00085286 -0.000431 -0.0010841 -0.0009507 -0.0061115 0.0092354
0.18673 0.16047 -0.0045101 0.010293
-0.00030598 0.00054359 -0.00053358 -0.00065202 -0.00014631 -0.00056018 0.0026345 -0.00071688
-0.0045285 0.010261 0.23767 0.21098
1700000000 0.28608 -0.014306 0.0022607 0.0096295 -0.0036902 0.00015476 0.0031297 -0.0012642
-0.0021828 -0.00056368 0.0006169 0.00045142
0.0022434 0.0096175 0.21648 0.24455 0.003407 -0.00048305 -0.0014734 -0.00077304
-0.00078578 -0.00014116 -0.00088741 -0.00037429
-0.0036924 0.00018125 0.0034096 -0.00050838 0.25756 -0.19184 0.00028003 0.0015891
-0.0020801 -1.152e-05 -0.00043691 -0.00084715
0.0031388 -0.0012709 -0.0014728 -0.00076584 0.00029249 0.0015932 0.24428 0.0048844
-0.0032764 0.0090955 0.0014952 -0.0022112
-0.0021847 -0.00055193 -0.00077495 -0.00013227 -0.0020862 -1.9539e-05 -0.0032454 0.0090933
0.20547 0.14094 0.00025638 0.010068
0.00059484 0.0004351 -0.00090429 -0.00035571 -0.00040372 -0.00082933 0.0015417 -0.0022452
0.00027174 0.010094 0.25518 0.17754
1760000000 0.27504 -0.062687 0.0045051 0.0061472 -0.0024112 0.0012752 0.0013033 -0.0034946
-0.0013625 0.00065289 0.00031883 -0.00049229
0.0044903 0.00615 0.24251 0.20568 0.00061025 -0.002143 -0.001336 4.039e-05
-0.0011135 0.00079073 -0.00053732 0.00041686
-0.0024062 0.0012975 0.00060629 -0.0021578 0.20995 -0.22578 0.0010902 0.0011088
-0.0011178 0.0014297 -0.0013676 -0.00040775
0.0012868 -0.0034985 -0.0013297 4.3065e-05 0.0010928 0.0011149 0.2358 -0.046743
-0.00054563 0.0076863 -0.00013529 -0.0024438
-0.0013422 0.00068576 -0.0011137 0.00081412 -0.0011164 0.001431 -0.00051532 0.0076491
0.2207 0.10708 0.0044614 0.0076339
0.00031022 -0.00050012 -0.00051321 0.0004145 -0.0013789 -0.00041773 -0.00016806 -0.0024275
0.0044623 0.0076007 0.26891 0.13998
1820000000 0.2522 -0.099859 0.0045253 0.0025697 0.00012898 0.0025929 -0.00096899 -0.0032125
-0.0010637 0.00098043 -0.00013946 -0.00018997
0.004525 0.0025832 0.25364 0.17676 -0.0018408 -0.00028813 -0.001475 0.001001
-0.00023032 0.0012014 -0.00054641 0.00052167
0.00015716 0.0025931 -0.0018541 -0.00028346 0.15896 -0.24187 0.0015612 0.00064089
-0.00026517 0.0023402 -0.0015477 0.00040206
-0.00099909 -0.0032162 -0.0014837 0.0010043 0.0015569 0.00064213 0.20689 -0.094294
0.0006139 0.006195 -0.0014734 -0.0019581
-0.00105 0.00098984 -0.00022034 0.0011895 -0.00025851 0.0023329 0.00061362 0.0062263
0.23905 0.079267 0.0057765 0.0035867
-0.00015237 -0.00019035 -0.00055548 0.00053694 -0.0015116 0.00043214 -0.0014748 -0.0019509
0.0057648 0.0036129 0.27231 0.10439
1880000000 0.21827 -0.14126 0.0021848 0.00040961 -0.00034675 0.0024016 -0.0030807 -0.0022851
-0.00013986 0.001628 0.00013287 -0.00052907
0.0021741 0.00041222 0.25872 0.13063 -0.0038165 0.0023961 -0.00029149 0.0019132
0.00045842 0.0014154 0.00015468 0.00089149
-0.00033199 0.0024054 -0.0038028 0.0024215 0.10676 -0.25073 0.002 -0.0010015
0.0016319 0.0019391 -0.00090767 0.0012965
-0.0030775 -0.0022864 -0.00027329 0.0019102 0.0020017 -0.0010008 0.16674 -0.13514
0.00096553 0.0043098 -0.0026344 -9.5942e-05
-0.00010644 0.0016202 0.00047917 0.0014204 0.001643 0.001969 0.00096467 0.0042776
0.24388 0.048291 0.0056498 0.00087165
9.7013e-05 -0.00049788 0.00018452 0.00092265 -0.00089927 0.0012976 -0.0026152 -0.00010875
0.0056782 0.00085788 0.27313 0.070216
1940000000 0.17963 -0.16738 -3.2033e-05 -0.0011125 0.0016508 0.0020697 -0.0039353 0.00023162
0.0012359 0.00079517 -0.00069055 -0.00064195
-3.8891e-05 -0.0011102 0.26041 0.099694 -0.0019931 0.0053941 0.001071 0.0014071
0.0018807 0.00054439 0.00082568 0.00025512
0.0016643 0.0020616 -0.0019547 0.0054101 0.062348 -0.24308 0.00053934 -0.0022361
0.0022379 0.00049293 0.0003767 0.0015915
-0.00392 0.00026127 0.0010752 0.0014072 0.00052926 -0.00223 0.1144 -0.16618
-0.00020937 0.0032839 -0.0018044 0.0014558
0.0012433 0.00077343 0.0019021 0.0005268 0.0022307 0.00045485 -0.00021645 0.0033202
0.24758 0.011237 0.0041008 -0.0027322
-0.00067157 -0.0006351 0.00083881 0.00023479 0.00034728 0.0015965 -0.0018529 0.0014808
0.0040356 -0.0027358 0.26304 0.034067
2000000000 0.13461 -0.18318 -0.0034916 0.00091442 0.0029021 0.001237 -0.0024294 0.0038849
0.00088345 0.00042568 -0.00048264 0.00059613
-0.0034799 0.00090608 0.24781 0.064375 -0.00082822 0.0074267 0.0018545 0.00039268
0.0014161 -0.0011019 0.00040566 0.00016293
0.0028973 0.0012117 -0.00077289 0.0074494 0.019693 -0.22937 -0.0012353 -0.0016446
0.0021655 -0.0011531 0.001296 0.0015949
-0.0023993 0.0039197 0.0018605 0.00039951 -0.0012155 -0.0016531 0.060758 -0.17666
-0.0016589 0.0036501 -3.976e-05 0.0023313
0.00088277 0.00043468 0.0013891 -0.0010941 0.0021958 -0.0011179 -0.0016217 0.0036672
