!Keysight Technologies,M9804A,MY58100912,A.14.10.03
!Date: Thursday, April 27, 2023 10:28:33
!Correction: S11(C  6-Port  ) 
!S12(C  6-Port  ) 
!S13(C  6-Port  ) 
!S14(C  6-Port  ) 
!S15(C  6-Port  ) 
!S16(C  6-Port  ) 
!S21(C  6-Port  ) 
!S22(C  6-Port  ) 
!S23(C  6-Port  ) 
!S24(C  6-Port  ) 
!S25(C  6-Port  ) 
!S26(C  6-Port  ) 
!S31(C  6-Port  ) 
!S32(C  6-Port  ) 
!S33(C  6-Port  ) 
!S34(C  6-Port  ) 
!S35(C  6-Port  ) 
!S36(C  6-Port  ) 
!S41(C  6-Port  ) 
!S42(C  6-Port  ) 
!S43(C  6-Port  ) 
!S44(C  6-Port  ) 
!S45(C  6-Port  ) 
!S46(C  6-Port  ) 
!S51(C  6-Port  ) 
!S52(C  6-Port  ) 
!S53(C  6-Port  ) 
!S54(C  6-Port  ) 
!S55(C  6-Port  ) 
!S56(C  6-Port  ) 
!S61(C  6-Port  ) 
!S62(C  6-Port  ) 
!S63(C  6-Port  ) 
!S64(C  6-Port  ) 
!S65(C  6-Port  ) 
!S66(C  6-Port  ) 
!S6P File: Measurement: :
# Hz S  RI   R 50
500000000 -0.33238 -0.065632 -0.01044 -0.0011041 -0.0083615 0.01336 -0.0039045 0.012139
0.012053 0.0052182 -0.0038386 0.0077183
-0.01041 -0.0010975 -0.41177 -0.073826 0.0088 -0.010552 0.00075138 0.011555
0.008686 0.0038611 0.00088978 0.013239
-0.0083092 0.013355 0.0088098 -0.010593 -0.2645 0.19064 0.0072753 0.0033874
-0.0020089 0.0084558 0.00076068 0.012244
-0.0038197 0.012153 0.00078302 0.011558 0.0072813 0.0033891 -0.33269 0.036907
-0.017954 -0.0034907 0.01386 0.025054
0.011847 0.0050802 0.0085873 0.0037575 -0.0020268 0.0084397 -0.018033 -0.0034594
-0.2358 -0.21507 -0.026456 0.0059968
-0.0037586 0.0078098 0.00088433 0.013162 0.00077922 0.012081 0.013726 0.025138
-0.026385 0.0059109 -0.26664 -0.14327
560000000 -0.31979 0.10308 -0.021952 -0.066871 -0.00031235 0.013473 0.0053998 0.011323
0.010552 0.0037627 0.010398 0.0086163
-0.02187 -0.066785 -0.37296 0.091029 -0.041511 -0.039298 0.014457 0.0035577
-0.013186 -0.0042924 0.0036209 -0.00096012
-0.00028134 0.013507 -0.041598 -0.039248 -0.18628 0.24221 -0.00093916 -0.0046725
0.018992 0.0068078 0.0070625 -0.0068373
0.0054325 0.011381 0.014503 0.0035037 -0.0010117 -0.0045924 -0.30614 0.12955
0.0061845 -0.023434 0.0055846 -0.021862
0.010757 0.0036764 -0.013276 -0.0042821 0.019067 0.0067082 0.0062669 -0.023464
-0.30531 -0.034548 0.0095359 -0.05042
0.010514 0.0085803 0.0039498 -0.00092961 0.0069798 -0.0065142 0.0057694 -0.021826
0.0097016 -0.050434 -0.32985 0.0079191
620000000 -0.27847 0.081661 -0.023041 0.0088167 0.0034981 0.0097733 0.0078858 -0.0035866
0.013163 -0.0017374 -0.00024904 -0.0016398
-0.022997 0.00881 -0.40184 0.03781 -0.018275 9.2746e-05 -0.0018469 -0.0017805
0.013016 -0.0061674 0.00036632 -0.0030286
0.0035891 0.0097103 -0.018308 0.0001279 -0.15776 0.25266 -0.00069487 -0.0049449
-0.0036029 -0.0030593 0.010212 -0.0028989
0.0079905 -0.0036053 -0.0018279 -0.0017915 -0.00071111 -0.0049408 -0.26486 0.13979
-0.038707 -0.019841 0.014522 0.028054
0.013009 -0.0016253 0.012937 -0.0062317 -0.0035393 -0.0029593 -0.0387 -0.019613
-0.22485 -0.070394 -0.044425 0.011791
-0.00013093 -0.0015144 0.00061633 -0.0028819 0.010045 -0.0029306 0.014194 0.027953
-0.044227 0.011927 -0.24447 -0.025586
680000000 -0.24376 0.17603 -0.026515 -0.015124 0.0048275 0.0056813 0.0015166 -0.0076252
-0.002195 -0.011167 0.0060949 -0.00662
-0.02648 -0.015127 -0.39127 0.13947 -0.033011 -0.0028202 -0.0019258 -0.00073255
-0.0015321 -0.0091493 -0.0012355 -0.0019729
0.0048584 0.0056793 -0.03304 -0.0027209 -0.10844 0.2748 -0.00095611 -0.00028965
-0.0014946 0.00073537 -0.0032303 -0.0094383
0.0014192 -0.0076307 -0.0019246 -0.00072852 -0.0009634 -0.00032609 -0.22125 0.1924
-0.023278 -0.0081589 -0.0095667 -0.011165
-0.0021793 -0.011177 -0.0015809 -0.0091674 -0.0015047 0.00073307 -0.023256 -0.0081772
-0.28091 0.035509 -0.0054083 -0.0072912
0.0059075 -0.0067787 -0.0012886 -0.002027 -0.0032384 -0.0094361 -0.0096345 -0.011093
-0.0053067 -0.0072921 -0.26195 0.077929
740000000 -0.19666 0.16826 -0.041197 0.026337 0.014314 -0.0042745 0.00022758 -0.0039512
-0.0042999 -0.0028979 -0.0068774 0.0029263
-0.041168 0.026315 -0.33771 0.1588 -0.037541 0.034361 -0.00017828 -0.00623
-0.012384 0.0069657 -0.0016277 -0.0063699
0.014289 -0.0042867 -0.03747 0.034519 -0.074779 0.27327 -0.001413 0.0034698
-0.0024563 -0.0058429 -0.0012296 0.00096807
0.00019683 -0.0039891 -0.00017202 -0.0062534 -0.0014201 0.0034702 -0.20525 0.19918
-0.042853 -0.0089421 0.02277 0.016137
-0.0044503 -0.0026638 -0.012579 0.0071208 -0.0024658 -0.0058596 -0.042841 -0.0088012
-0.18283 0.064791 -0.043409 -0.00028853
-0.0067262 0.00291 -0.0014794 -0.0062233 -0.0011954 0.0010318 0.023094 0.015943
-0.044181 1.2911e-05 -0.25246 0.085869
800000000 -0.1659 0.21454 -0.022724 0.015882 0.0061475 -0.010449 -0.00448 -0.0027266
-0.0047115 0.0021911 0.0042082 -0.00025564
-0.022713 0.015879 -0.34518 0.23013 -0.0094003 0.034539 -0.0021613 0.0018015
-0.00074905 0.0027499 0.00078995 0.0049716
0.0061123 -0.010489 -0.0093322 0.034621 -0.036383 0.29896 0.00086844 0.0011505
0.0002432 0.0035163 -0.0021357 0.00077713
-0.0044898 -0.0026591 -0.0021681 0.0018368 0.00085065 0.0011724 -0.17631 0.22729
-0.029156 0.012473 0.014383 -0.011074
-0.004648 0.0020732 -0.00069654 0.0026988 0.00026595 0.0034597 -0.029126 0.012477
-0.22723 0.091463 -0.01807 0.020831
0.0041499 -0.00024773 0.00063267 0.0049 -0.0020983 0.00087665 0.014286 -0.010847
-0.018188 0.020343 -0.24668 0.13378
860000000 -0.13235 0.23533 -0.01872 0.030371 -0.00281 -0.010458 -0.0019573 0.00084077
0.0039556 0.0056123 -0.0035899 -0.0031432
-0.01874 0.030358 -0.29846 0.27458 0.006928 0.035269 0.00015732 0.0024586
0.0040226 0.00050529 0.0035765 -2.4001e-05
-0.0028533 -0.010448 0.0070636 0.035293 0.011126 0.30872 -0.00060268 -0.00014337
0.0022211 -0.0015601 0.0019399 0.004139
-0.0019762 0.00082835 0.00015114 0.0024611 -0.00061905 -0.00015183 -0.14039 0.23878
-0.019489 0.018225 -0.0062466 -0.0086704
0.0040316 0.005613 0.0040153 0.00051212 0.0022421 -0.0015698 -0.019485 0.018264
-0.17213 0.14714 -0.025525 0.015365
-0.0036316 -0.0030323 0.0038419 7.8639e-05 0.0019485 0.0041987 -0.0061918 -0.0087723
-0.025674 0.015598 -0.19608 0.18377
920000000 -0.10916 0.25912 0.004004 0.039169 -0.0094167 -0.0051876 -0.0020287 0.0017249
0.00066221 0.001568 0.0030964 -0.00099232
0.0039675 0.039141 -0.27146 0.29707 0.028237 0.023777 0.0012947 0.0012159
0.0077227 -0.00015757 0.0043511 -0.0028447
-0.0094506 -0.0051689 0.028367 0.023724 0.05706 0.31116 0.0018331 0.00019134
0.00076878 -0.00019327 0.0010703 -0.0015673
-0.0019709 0.0017062 0.00126 0.001221 0.0018301 0.00017944 -0.11632 0.25647
-0.012078 0.030524 0.0041195 -0.0068545
0.00071371 0.0015311 0.0077543 -0.0001804 0.000774 -0.00018948 -0.012008 0.030508
-0.16283 0.15287 -0.0024059 0.027799
0.0030928 -0.0011515 0.0042291 -0.0027388 0.0010687 -0.0015558 0.0040455 -0.0067498
-0.0023023 0.027664 -0.20505 0.19556
980000000 -0.063465 0.28038 0.016181 0.031086 -0.0098372 0.004453 0.00175 0.0038639
0.0043277 -0.0014475 -0.0034447 -0.0023957
0.016122 0.031054 -0.21922 0.33332 0.033807 0.0061211 0.0020485 -0.00026224
0.0020661 -0.0063224 -0.00058441 -0.0026198
-0.0098272 0.0044654 0.033892 0.0060167 0.10338 0.30593 0.00066755 -0.001121
0.00058405 -0.0018622 0.0013204 -0.00024942
0.001748 0.003868 0.0020266 -0.00027076 0.0006672 -0.0011218 -0.078005 0.26752
0.0073202 0.030608 -0.0097661 -0.0078047
0.0043096 -0.0014301 0.0020378 -0.0063813 0.00057715 -0.0018685 0.0073606 0.03062
-0.13022 0.18424 0.0048831 0.020228
-0.0034619 -0.0024209 -0.00060235 -0.0026582 0.001285 -0.00026392 -0.009729 -0.0078518
0.004797 0.020244 -0.16442 0.24252
1040000000 -0.022601 0.29015 0.033439 0.02033 -0.0015445 0.0075737 0.0025391 0.00077469
0.00028606 -0.0034477 -0.00029764 -0.0015235
0.033366 0.020341 -0.18444 0.34792 0.030812 -0.014282 0.001557 -0.0018161
-0.0022923 -0.0023194 -0.0012364 -0.0031992
-0.0015262 0.0075673 0.030818 -0.014421 0.14959 0.29391 -0.00043898 -0.0016342
-0.0015817 -0.00092001 -0.00052549 -0.0012392
0.0025446 0.00075386 0.0015339 -0.0018032 -0.000438 -0.0016286 -0.051153 0.27822
0.019051 0.01946 -0.0024642 0.0013026
0.00024468 -0.0034518 -0.0023149 -0.0023202 -0.0015524 -0.00090451 0.019111 0.019455
-0.098594 0.19199 0.013122 0.019262
-0.00031399 -0.0015924 -0.0012729 -0.0031887 -0.00052666 -0.0012307 -0.0024323 0.0012693
0.013171 0.019395 -0.14286 0.26413
1100000000 0.022328 0.30072 0.03743 -0.0023942 0.003247 0.004447 0.0025532 -0.0010988
-0.0021532 -0.0029574 -0.0040663 -8.7813e-05
0.037374 -0.0023582 -0.14088 0.36777 0.016473 -0.028313 -3.4295e-05 -0.0018406
-0.0036281 -0.00075941 -0.0035414 -0.00037678
0.003269 0.0044316 0.016389 -0.028418 0.19654 0.27488 -0.0018891 0.00021675
-0.0017809 0.00058418 -0.0011198 -0.0004945
0.0025434 -0.0010993 -4.3832e-05 -0.0018327 -0.0018908 0.00022126 -0.010632 0.28394
0.025143 0.0060668 -0.0028105 0.00025053
-0.0021234 -0.0029391 -0.0036334 -0.00073503 -0.001778 0.0005764 0.025157 0.0060342
-0.078727 0.20753 0.019764 0.0098566
-0.0040657 -2.3195e-05 -0.0035169 -0.00036951 -0.0010852 -0.00049584 -0.0028418 0.00035781
0.019763 0.0097796 -0.097245 0.29536
1160000000 0.072977 0.29756 0.025727 -0.020363 0.0034248 -0.00051546 -0.00018347 -0.0025241
-0.0040759 -0.00098326 -0.0011971 0.0042597
0.025698 -0.020321 -0.097535 0.37306 -0.0031877 -0.029908 -0.0015379 -0.0016563
-0.002708 0.00258 -0.0017041 0.0019733
0.0034259 -0.00053299 -0.0033109 -0.029936 0.24007 0.24484 -0.00077372 0.0018932
-0.00066566 0.0018835 -0.0011478 0.00029865
-0.00017599 -0.0025345 -0.0015572 -0.0016381 -0.00077644 0.0018833 0.028785 0.28165
0.022212 -0.010261 -0.0034175 0.0052634
-0.0040651 -0.00095372 -0.0027106 0.0025962 -0.00064525 0.0018876 0.022206 -0.010254
-0.045148 0.21659 0.019899 -2.8682e-05
-0.0011691 0.0042267 -0.0017074 0.0020102 -0.001204 0.00030315 -0.0034113 0.0052911
0.019877 -4.221e-05 -0.050726 0.299
1220000000 0.1169 0.28932 0.012354 -0.030756 -0.0012184 -0.0014042 -9.8879e-07 -0.00091456
-0.0027445 0.0022512 0.0011406 0.0020911
0.012358 -0.030709 -0.052569 0.3877 -0.01716 -0.022081 -0.0026149 0.0005256
0.00011625 0.0031447 -0.0008303 0.0019899
-0.0012134 -0.0014089 -0.017285 -0.022033 0.27975 0.20658 0.00084029 0.0017102
0.00059585 0.0012799 0.00020847 0.00074896
6.7541e-06 -0.00089977 -0.0026113 0.00053792 0.00083558 0.0017083 0.069011 0.27413
0.011048 -0.017358 0.0024819 0.0016461
-0.0027352 0.0022651 0.00011323 0.0031287 0.00058232 0.0012847 0.01102 -0.017384
-0.021671 0.22729 0.014686 -0.012806
0.0011841 0.0020884 -0.00078379 0.0019777 0.0002465 0.00072007 0.0024316 0.0016553
0.014739 -0.01286 -0.019206 0.31617
1280000000 0.1677 0.26985 -0.0071043 -0.029911 -0.0020497 0.002 -0.00085501 -0.0020352
-0.00081979 0.0033126 0.0025804 0.0013869
-0.0070661 -0.029882 -0.0055656 0.37976 -0.024581 -0.0087136 -0.00092016 0.0014943
0.001836 0.0016423 0.00072156 0.0021734
-0.0020399 0.002012 -0.024663 -0.0086081 0.31068 0.16302 0.0016637 -8.2495e-05
0.0011312 0.00024785 0.00028352 0.00044958
-0.00086449 -0.0020256 -0.00091351 0.0015037 0.0016692 -8.029e-05 0.10616 0.2577
0.0011802 -0.01989 -0.00028511 4.4726e-05
-0.00082395 0.0033196 0.0018531 0.0016506 0.001133 0.00024564 0.0011633 -0.019883
0.015267 0.23181 0.0037806 -0.016085
0.0025827 0.0014017 0.00074659 0.0022277 0.00025816 0.00049894 -0.00028631 -7.9377e-06
0.003781 -0.016056 0.027557 0.3198
1340000000 0.20557 0.23815 -0.017532 -0.020371 0.00044903 0.0043932 -0.0018526 -0.00082397
0.0015034 0.0027856 0.0018655 -0.0014798
-0.017493 -0.020354 0.034079 0.37242 -0.021927 0.0045865 -3.8776e-05 0.0019918
0.0019447 0.00082236 0.001241 0.00079694
0.00045947 0.0043929 -0.021948 0.004712 0.33278 0.11618 0.0009938 -0.0010119
0.0007283 -0.00052752 0.00022182 0.00031524
-0.0018537 -0.00082373 -2.5347e-05 0.0019979 0.00098667 -0.001006 0.13925 0.23784
-0.0087999 -0.017016 0.0010238 0.00036514
0.0015313 0.0027814 0.0019526 0.00080237 0.00073882 -0.00053532 -0.0088455 -0.017018
0.045424 0.22908 -0.0035195 -0.014714
0.0018615 -0.0014282 0.0012411 0.00081101 0.00020961 0.00029286 0.0010451 0.00037956
-0.0035066 -0.01475 0.066252 0.3156
1400000000 0.2405 0.20153 -0.024198 -0.008484 0.0050136 0.0033287 -0.0021934 0.00075508
0.0026852 0.001074 0.0003318 -0.0016471
-0.024171 -0.0084923 0.072806 0.3598 -0.014933 0.012959 0.0012991 0.0012803
0.001146 -0.00079621 0.0012075 0.00018696
0.0050339 0.0033149 -0.014892 0.013054 0.34644 0.063216 -5.7511e-05 -0.0015709
0.00012616 -0.00031793 0.00048538 0.00030978
-0.0021915 0.0007493 0.0013035 0.0012723 -6.3721e-05 -0.0015752 0.16922 0.20912
-0.015242 -0.0098577 -0.00090367 -0.00012106
0.0026974 0.0010652 0.0011522 -0.00080539 0.00013378 -0.00031663 -0.015272 -0.009838
0.079563 0.22581 -0.010409 -0.0094069
0.00028911 -0.0016782 0.0011775 0.00016913 0.00048115 0.00027985 -0.00080465 -9.0109e-05
-0.01049 -0.0094527 0.11173 0.30607
1460000000 0.26426 0.15831 -0.02125 0.0045491 0.0056091 -0.0016966 -0.0015714 0.0017854
0.0022368 -0.00042887 -0.00034962 -0.001021
-0.021237 0.0045374 0.10705 0.33785 -0.0054877 0.015861 0.0016256 0.00021619
0.00090471 -0.0013253 0.0011952 -0.00061583
0.0055993 -0.0017359 -0.0054151 0.015915 0.35318 0.0095631 -0.0011873 -0.0011587
0.00027723 -0.00023674 0.00071955 -0.00033642
-0.0015557 0.0018018 0.001628 0.0002173 -0.0011996 -0.0011567 0.1957 0.18023
-0.01609 -0.0025851 -0.00086326 0.0020486
0.0022199 -0.00044158 0.00091073 -0.00132 0.00027881 -0.00024108 -0.016111 -0.0025454
0.10913 0.21261 -0.01244 -0.002996
-0.00031825 -0.0010006 0.0011897 -0.00059382 0.00076088 -0.00027609 -0.00092659 0.0020293
-0.012344 -0.0029707 0.14521 0.28601
1520000000 0.27798 0.11749 -0.015503 0.01044 0.0033936 -0.0041781 0.00020196 0.0026738
0.0022526 -0.001998 -0.0011546 -0.00014523
-0.015488 0.010424 0.14072 0.32409 0.0023447 0.012966 0.001674 -0.00065959
3.8978e-05 -0.00091541 0.00036194 -0.0011006
0.0033788 -0.0041922 0.0024333 0.012973 0.34685 -0.045795 -0.00089781 -0.00031404
0.00067606 -0.00091107 0.00025733 -0.00032021
0.00020533 0.0026643 0.0016747 -0.00067809 -0.00089383 -0.00032358 0.21954 0.14244
-0.015021 0.0035483 0.0015524 0.0020447
0.0022425 -0.0020064 2.932e-05 -0.0009125 0.0006836 -0.0009163 -0.015025 0.0035937
0.13817 0.20037 -0.01227 0.0018248
-0.0011581 -0.00015236 0.00033571 -0.0011279 0.0001649 -0.00033215 0.0015658 0.0020884
-0.012256 0.0018091 0.17832 0.26691
1580000000 0.28848 0.071769 -0.0084464 0.014018 -0.00101 -0.0048434 0.0015711 0.0017888
-0.00026332 -0.0022915 -0.00026976 0.0004288
-0.0084451 0.013999 0.16826 0.29936 0.0058582 0.007617 0.00059331 -0.0015552
-0.00046155 -0.001048 -0.0002249 -0.0008304
-0.0010365 -0.0048391 0.0059082 0.0075942 0.32782 -0.10345 -0.0014211 0.00042781
-0.00035285 -0.0012288 0.00030555 -0.00062223
0.0015726 0.0018142 0.00058636 -0.0015551 -0.0014252 0.00042033 0.23387 0.10313
-0.010836 0.0083599 0.002265 0.0007016
-0.00027708 -0.0022998 -0.00047466 -0.0010427 -0.00034594 -0.0012291 -0.01082 0.008389
0.1632 0.18314 -0.0094531 0.0078346
-0.00031077 0.00044684 -0.00024349 -0.0007847 0.00031568 -0.00062801 0.0023052 0.00068989
-0.0095604 0.0078717 0.21143 0.24118
1640000000 0.29149 0.031136 -0.0013428 0.012675 -0.0030158 -0.0026153 0.0027901 0.0010377
-0.00085244 -0.0016524 -0.00030153 0.00052758
-0.0013516 0.012653 0.19729 0.27571 0.0059614 0.0025296 -0.00043015 -0.0018359
-0.00083359 -0.0004592 -0.00052714 -0.00066929
-0.0030272 -0.0026006 0.0059781 0.0024969 0.29941 -0.15178 -0.00062411 0.0013731
-0.0010898 -0.00096688 -0.00017788 -0.00055961
0.0027822 0.0010042 -0.00042819 -0.0018364 -0.0006213 0.0013804 0.24659 0.054724
-0.0062483 0.0090565 0.0025241 -0.00072133
-0.00087335 -0.0016521 -0.0008375 -0.0004402 -0.0010783 -0.00094302 -0.0062078 0.0090706
0.18661 0.16037 -0.0046265 0.010027
-0.00025868 0.00054026 -0.00051567 -0.0006841 -0.00013724 -0.00055475 0.0025123 -0.00077857
-0.0045093 0.010053 0.2376 0.21133
1700000000 0.28618 -0.013727 0.002272 0.0095975 -0.0036979 0.00015555 0.0031509 -0.0012245
-0.0021102 -0.00054941 0.00058854 0.00043914
0.0022617 0.0095897 0.21619 0.24477 0.0034438 -0.00049861 -0.0014691 -0.0007821
-0.00077514 -0.00015648 -0.00089938 -0.00037356
-0.003702 0.00016932 0.0034444 -0.00051396 0.25779 -0.19159 0.00027418 0.0015257
-0.0020511 -4.0162e-05 -0.00047923 -0.00082058
0.0031405 -0.0012421 -0.0014837 -0.00074962 0.00026782 0.0015194 0.24406 0.0049152
-0.0035136 0.0089596 0.0016147 -0.0021332
-0.0021266 -0.0005384 -0.00077666 -0.0001508 -0.0020592 -5.9717e-05 -0.0035095 0.0089797
0.20525 0.14075 0.00038462 0.010186
0.00059888 0.00042084 -0.00090117 -0.00037773 -0.0004912 -0.00081991 0.0015201 -0.0021238
0.00031459 0.010098 0.25524 0.17744
1760000000 0.27515 -0.062221 0.0044782 0.0061194 -0.0024632 0.0012591 0.0012583 -0.003485
-0.0014168 0.00062319 0.00034141 -0.00050611
0.0044733 0.0061171 0.24214 0.20592 0.0006266 -0.0021558 -0.0013188 3.6829e-05
-0.0011365 0.00078114 -0.00053637 0.00041012
-0.0024572 0.0012625 0.00061167 -0.0021575 0.21013 -0.22552 0.0010979 0.0010813
-0.001157 0.0014178 -0.0013756 -0.00046194
0.0012444 -0.0035064 -0.0013148 3.6236e-05 0.001103 0.0010806 0.23556 -0.046532
-0.00071735 0.0078046 -0.00024778 -0.0025348
-0.0014218 0.00064595 -0.0011443 0.0007854 -0.0011571 0.0014349 -0.0006902 0.0078067
0.22034 0.10722 0.0045017 0.0072625
0.00034625 -0.00048807 -0.00052619 0.00046057 -0.0013318 -0.00041055 -0.00021115 -0.0024908
0.0044941 0.0073551 0.26876 0.14014
1820000000 0.25241 -0.099451 0.0045142 0.0025526 9.9826e-05 0.0026219 -0.00095617 -0.0031879
-0.0010415 0.00094824 -0.00020578 -0.00021494
0.004503 0.0025523 0.25334 0.17713 -0.0018569 -0.00029911 -0.0014337 0.0010109
-0.00019609 0.0012633 -0.00056928 0.00049757
0.00012711 0.0026265 -0.0018615 -0.00028658 0.15919 -0.24156 0.0016143 0.00065855
-0.00022864 0.002364 -0.0015869 0.00043056
-0.00097169 -0.003178 -0.001439 0.0010285 0.0016323 0.00063183 0.20669 -0.094005
0.00046831 0.0062294 -0.0015521 -0.0017206
-0.001052 0.00095781 -0.00017439 0.0012612 -0.00022761 0.0023535 0.00045629 0.0062278
0.23876 0.079432 0.005568 0.0035755
-0.00017426 -0.00022184 -0.00054356 0.00048052 -0.001548 0.00042557 -0.0014936 -0.0018197
0.0056359 0.0035123 0.27235 0.10463
1880000000 0.21845 -0.14107 0.0021448 0.00036587 -0.00034146 0.0023782 -0.0030356 -0.0022997
-0.0001764 0.0016471 0.00018614 -0.00052574
0.002145 0.00036767 0.25848 0.13091 -0.0038297 0.0023766 -0.00029279 0.0018506
0.00047856 0.0014181 0.00017682 0.00094898
-0.00033499 0.0023863 -0.0038219 0.0024054 0.107 -0.2506 0.0019104 -0.0010541
0.0015682 0.0018893 -0.00088021 0.0013769
-0.003006 -0.0022578 -0.00025448 0.0018612 0.0019206 -0.001048 0.16667 -0.13484
0.00084589 0.0044887 -0.0025542 -0.00011428
-0.00015207 0.001659 0.00049616 0.0014158 0.0015978 0.0018925 0.00086295 0.0044846
0.24355 0.048624 0.0055778 0.00080894
0.00015777 -0.00047168 0.0001334 0.00095596 -0.00096192 0.001353 -0.0026621 -2.2627e-05
0.005519 0.00083547 0.27325 0.070153
1940000000 0.17981 -0.16714 -5.5796e-05 -0.0011178 0.0016581 0.0020765 -0.0039764 0.00026881
0.0011837 0.00081084 -0.00071525 -0.00057752
-6.5764e-05 -0.0011185 0.26012 0.10009 -0.0020388 0.0054182 0.0010715 0.0014441
0.0018827 0.00057152 0.00082737 0.00027481
0.0016759 0.0020736 -0.0019955 0.0054408 0.062505 -0.24285 0.00063822 -0.0022015
0.0022882 0.00054288 0.00022125 0.0015803
-0.0040078 0.00030295 0.0010654 0.0014659 0.00062136 -0.0021808 0.11447 -0.16571
-0.00013593 0.0034644 -0.0018552 0.0014797
0.0011611 0.00080755 0.0018798 0.00056337 0.0022797 0.00053984 -0.00015213 0.0034706
0.24748 0.011707 0.0039202 -0.0027963
-0.00077694 -0.00053026 0.00084968 0.00027265 0.00030536 0.0015423 -0.0017009 0.0015121
0.0039795 -0.00278 0.26304 0.034246
2000000000 0.13476 -0.18289 -0.0035032 0.00095829 0.0029751 0.0012164 -0.0022557 0.0039319
0.0010039 0.00046263 -0.00047121 0.00056737
-0.0035014 0.0009501 0.24761 0.064815 -0.0008232 0.0074566 0.0018342 0.00035342
0.0014506 -0.0012061 0.00035196 0.00012765
0.0029694 0.0012077 -0.00077146 0.0074762 0.019984 -0.22932 -0.0013321 -0.0016928
0.0020968 -0.0012087 0.0013937 0.0015949
-0.0022201 0.0039624 0.0018524 0.00034018 -0.0013387 -0.0017 0.061016 -0.1765
-0.0015702 0.0036908 -5.4631e-05 0.0022814
0.0010172 0.00045757 0.0014366 -0.001225 0.0020809 -0.001199 -0.0015605 0.0037078
0.24435 -0.020836 0.00070237 -0.0037646
