!Keysight Technologies,M9804A,MY58100912,A.14.10.03
!Date: Thursday, April 27, 2023 10:28:33
!Correction: S11(C  6-Port  ) 
!S12(C  6-Port  ) 
!S13(C  6-Port  ) 
!S14(C  6-Port  ) 
!S15(C  6-Port  ) 
!S16(C  6-Port  ) 
!S21(C  6-Port  ) 
!S22(C  6-Port  ) 
!S23(C  6-Port  ) 
!S24(C  6-Port  ) 
!S25(C  6-Port  ) 
!S26(C  6-Port  ) 
!S31(C  6-Port  ) 
!S32(C  6-Port  ) 
!S33(C  6-Port  ) 
!S34(C  6-Port  ) 
!S35(C  6-Port  ) 
!S36(C  6-Port  ) 
!S41(C  6-Port  ) 
!S42(C  6-Port  ) 
!S43(C  6-Port  ) 
!S44(C  6-Port  ) 
!S45(C  6-Port  ) 
!S46(C  6-Port  ) 
!S51(C  6-Port  ) 
!S52(C  6-Port  ) 
!S53(C  6-Port  ) 
!S54(C  6-Port  ) 
!S55(C  6-Port  ) 
!S56(C  6-Port  ) 
!S61(C  6-Port  ) 
!S62(C  6-Port  ) 
!S63(C  6-Port  ) 
!S64(C  6-Port  ) 
!S65(C  6-Port  ) 
!S66(C  6-Port  ) 
!S6P File: Measurement: :
# Hz S  RI   R 50
500000000 -0.33251 -0.065932 -0.010657 -0.0012102 -0.008228 0.013469 -0.0037768 0.011585
0.011905 0.004757 -0.0041137 0.0073644
-0.01071 -0.0011111 -0.41209 -0.073512 0.0086665 -0.010581 0.0011578 0.011537
0.0081009 0.0034115 0.00072931 0.013237
-0.0083413 0.01356 0.0086687 -0.010475 -0.26433 0.19087 0.0071792 0.0031998
-0.0023214 0.008423 0.00047857 0.012097
-0.0038709 0.011665 0.00088835 0.011598 0.0073781 0.0032627 -0.33208 0.036849
-0.018058 -0.0034262 0.01456 0.024762
0.01184 0.0046115 0.0081446 0.0033896 -0.0024171 0.0084375 -0.018065 -0.0035255
-0.23581 -0.21607 -0.026851 0.0056345
-0.004243 0.007445 0.00066683 0.013328 0.00071262 0.012091 0.01448 0.02481
-0.026819 0.0055727 -0.2664 -0.14381
560000000 -0.32004 0.10391 -0.021723 -0.066515 -0.00037214 0.013647 0.0060224 0.011869
0.011266 0.0041676 0.010874 0.008884
-0.021722 -0.066394 -0.37229 0.091343 -0.04171 -0.039384 0.01449 0.0041158
-0.01289 -0.0045771 0.0040245 -0.00098348
-0.00040528 0.013517 -0.04188 -0.039342 -0.18583 0.24226 -0.0010015 -0.0050066
0.019292 0.006936 0.0071825 -0.0066034
0.0056799 0.011814 0.014636 0.0039342 -0.0009375 -0.0047499 -0.3061 0.12985
0.0059289 -0.023804 0.0055767 -0.021556
0.011447 0.0041336 -0.012873 -0.004598 0.019141 0.0069928 0.0059269 -0.02373
-0.30676 -0.034437 0.0097398 -0.050428
0.010964 0.0086917 0.0039811 -0.0011183 0.0071742 -0.0068082 0.0056294 -0.021418
0.0096489 -0.050427 -0.32974 0.0086275
620000000 -0.27851 0.082021 -0.023074 0.0087738 0.0033263 0.0096269 0.0073341 -0.0039281
0.013065 -0.0011496 -0.00066023 -0.0017136
-0.023017 0.0087775 -0.40171 0.038022 -0.018344 7.1021e-05 -0.0020142 -0.0019222
0.013167 -0.0061205 0.00028717 -0.0030618
0.0033724 0.0096271 -0.018324 0.00014142 -0.15765 0.25282 -0.00061179 -0.005129
-0.0037781 -0.0027235 0.010184 -0.0028517
0.0074694 -0.0039099 -0.0020129 -0.0018948 -0.00064406 -0.0050688 -0.26476 0.13892
-0.038995 -0.019134 0.014505 0.027474
0.01303 -0.0010811 0.013159 -0.0061148 -0.003648 -0.0027791 -0.039235 -0.018944
-0.22433 -0.071142 -0.044264 0.012464
-0.00070885 -0.0016449 0.00020362 -0.0030953 0.010293 -0.0028657 0.014532 0.027411
-0.04433 0.012402 -0.24436 -0.025553
680000000 -0.24409 0.17623 -0.026604 -0.015081 0.0049991 0.0056873 0.0017174 -0.0078549
-0.0021143 -0.010995 0.0060932 -0.0067647
-0.026572 -0.015129 -0.39112 0.13984 -0.032927 -0.0027398 -0.0018629 -0.00065389
-0.0015156 -0.0090867 -0.0010817 -0.0019983
0.0048911 0.0056537 -0.032999 -0.0026712 -0.10833 0.27491 -0.00091775 -0.00025936
-0.0014818 0.00073688 -0.0030308 -0.0094933
0.0017789 -0.0078023 -0.001879 -0.00063975 -0.00097087 -0.00029102 -0.2212 0.19325
-0.02341 -0.0080706 -0.0092385 -0.01078
-0.0020714 -0.011052 -0.0015445 -0.0091018 -0.0014704 0.00078224 -0.023349 -0.0080822
-0.28108 0.035415 -0.005606 -0.0073735
0.0060622 -0.0068621 -0.0010682 -0.0019945 -0.0030659 -0.0094584 -0.0093724 -0.010815
-0.0056521 -0.0073691 -0.2618 0.077992
740000000 -0.19676 0.16835 -0.041076 0.026443 0.014179 -0.0041603 9.6738e-05 -0.0041807
-0.0039746 -0.0024331 -0.0070392 0.0025127
-0.041074 0.026327 -0.33762 0.15942 -0.037687 0.03435 -0.00039906 -0.006217
-0.012108 0.0075482 -0.0018666 -0.0063922
0.014183 -0.004307 -0.037658 0.034536 -0.074636 0.2733 -0.0014404 0.0033161
-0.0026272 -0.0057657 -0.0012073 0.00091966
-9.8786e-05 -0.0041924 -0.00048889 -0.006357 -0.0014422 0.003308 -0.20526 0.1993
-0.042995 -0.008587 0.02306 0.015828
-0.0039131 -0.0023052 -0.012281 0.0075581 -0.0026267 -0.005859 -0.042967 -0.0083424
-0.18188 0.065533 -0.043994 -0.00024547
-0.0070666 0.0024324 -0.001858 -0.0064797 -0.0011163 0.00094919 0.023117 0.015753
-0.044087 -0.00020818 -0.25197 0.085804
800000000 -0.16577 0.21489 -0.022669 0.015993 0.0060809 -0.010592 -0.0045882 -0.0027651
-0.0046523 0.0024493 0.0045261 -0.0001086
-0.022633 0.016007 -0.34501 0.23045 -0.0093971 0.034531 -0.0022054 0.0017851
-0.00070489 0.0029446 0.00094974 0.0050387
0.0061477 -0.010534 -0.0092616 0.034624 -0.036326 0.299 0.00092962 0.0011748
0.000306 0.003421 -0.0019257 0.00086916
-0.0045258 -0.0026119 -0.0020903 0.0018587 0.00097047 0.0012367 -0.17617 0.2275
-0.02894 0.012453 0.014331 -0.010609
-0.004623 0.002451 -0.00070613 0.0028712 0.00024305 0.0034453 -0.029066 0.012553
-0.22741 0.091644 -0.017528 0.02045
0.0044762 -0.00011008 0.0010158 0.0050543 -0.0019296 0.00083512 0.014408 -0.010664
-0.017556 0.020471 -0.24639 0.13455
860000000 -0.13219 0.23568 -0.018767 0.03034 -0.0029009 -0.010412 -0.0019168 0.00058331
0.0038723 0.0058184 -0.0041341 -0.0031183
-0.018749 0.030387 -0.2983 0.27483 0.0069793 0.03526 7.3774e-05 0.0023918
0.0039718 0.00061088 0.0035709 0.00022822
-0.0029196 -0.010401 0.0070928 0.035269 0.011325 0.3089 -0.00061975 -0.00022136
0.0022114 -0.0014916 0.0017999 0.0042049
-0.0020447 0.00057352 2.8049e-05 0.002506 -0.00064997 -0.00023831 -0.13991 0.23891
-0.019437 0.018199 -0.0063544 -0.0091869
0.0038203 0.0057493 0.0039963 0.00058392 0.0021645 -0.0014755 -0.019446 0.018136
-0.17204 0.14748 -0.026028 0.015758
-0.0041831 -0.0031033 0.003563 0.00019394 0.0018617 0.0042483 -0.006137 -0.0090419
-0.026085 0.015764 -0.19645 0.18368
920000000 -0.10896 0.2594 0.0041281 0.03916 -0.0094621 -0.0051856 -0.001896 0.0017649
0.00071755 0.0015747 0.0032408 -0.0011292
0.004119 0.039134 -0.2713 0.29722 0.028275 0.023781 0.0013304 0.0010965
0.0077376 -8.4027e-05 0.0042443 -0.0027836
-0.009432 -0.0051179 0.02841 0.023708 0.057214 0.3112 0.0018862 0.00018697
0.00080489 -0.00017876 0.0010511 -0.0015726
-0.00186 0.0018277 0.0013222 0.001117 0.0018695 0.0001723 -0.11624 0.25658
-0.01185 0.03054 0.004088 -0.0066318
0.00072991 0.0015344 0.0076928 -7.4715e-05 0.00079388 -0.00017999 -0.011837 0.030592
-0.16259 0.15285 -0.0021797 0.027756
0.0032304 -0.0010912 0.0042643 -0.0028283 0.0010644 -0.0015606 0.0039778 -0.0065807
-0.0021721 0.027792 -0.20527 0.19566
980000000 -0.063195 0.2805 0.016144 0.031071 -0.009833 0.0044513 0.0017527 0.0037396
0.0042835 -0.0014984 -0.0036706 -0.0023901
0.016133 0.031046 -0.21892 0.33359 0.033824 0.0061008 0.0020819 -0.00023359
0.0020813 -0.0063152 -0.00048736 -0.0026341
-0.0098273 0.0045024 0.033902 0.0059785 0.10356 0.30603 0.00066471 -0.0011444
0.00057861 -0.0018582 0.0013236 -0.00028796
0.0016794 0.0038 0.002079 -0.00021652 0.00066955 -0.0011497 -0.077616 0.26767
0.0072956 0.030484 -0.0096949 -0.0080322
0.004261 -0.0015164 0.0020658 -0.006357 0.00056173 -0.0018589 0.0073323 0.030513
-0.12988 0.18415 0.004794 0.020393
-0.003671 -0.0023685 -0.00049562 -0.0025907 0.0013237 -0.00029793 -0.0095426 -0.0080682
0.0047936 0.020453 -0.16438 0.24208
1040000000 -0.022388 0.29032 0.033379 0.020338 -0.0015603 0.0075712 0.0026091 0.00084247
0.00023797 -0.0034706 -0.00023181 -0.0016087
0.03335 0.020299 -0.18412 0.34807 0.030819 -0.014262 0.0014867 -0.0017318
-0.0022854 -0.0022896 -0.0012374 -0.0030976
-0.0015267 0.0075784 0.030769 -0.014412 0.14985 0.29387 -0.0004425 -0.0016007
-0.0015593 -0.00093966 -0.00051079 -0.0011931
0.0025795 0.00081085 0.0014785 -0.0017687 -0.0004807 -0.0016117 -0.050962 0.27825
0.019183 0.019547 -0.0026028 0.0012851
0.00022862 -0.0034486 -0.0023083 -0.0023041 -0.001578 -0.00097687 0.019232 0.019534
-0.098156 0.19215 0.013427 0.019352
-0.00020568 -0.0016123 -0.0012366 -0.0030852 -0.00051552 -0.0011876 -0.0026197 0.0013702
0.013474 0.019413 -0.14307 0.2642
1100000000 0.02244 0.30059 0.037373 -0.0024983 0.0032618 0.004466 0.0024458 -0.0010929
-0.0020356 -0.0029724 -0.0041597 0.000104
0.037348 -0.0024696 -0.14063 0.3679 0.01644 -0.028314 -6.8405e-05 -0.0018781
-0.0036084 -0.00074352 -0.0036201 -0.00039605
0.0032705 0.0044677 0.016344 -0.028424 0.19671 0.27489 -0.0018836 0.00021774
-0.001795 0.00060085 -0.0010832 -0.00053354
0.0024538 -0.0010826 -7.1425e-05 -0.0018636 -0.0018859 0.00023348 -0.010442 0.28398
0.025151 0.0060052 -0.002772 0.00040998
-0.0020493 -0.0029645 -0.0036076 -0.00075205 -0.0018084 0.00058939 0.0252 0.0059848
-0.078479 0.20723 0.019657 0.0097872
-0.0041485 0.00011753 -0.0036313 -0.00038214 -0.001098 -0.0005209 -0.0027481 0.00036273
0.019719 0.0098048 -0.097017 0.2955
1160000000 0.073359 0.29763 0.025782 -0.020367 0.0034274 -0.0005252 -0.0001908 -0.0024411
-0.0041493 -0.00091622 -0.0011475 0.0041582
0.025793 -0.020338 -0.097127 0.37322 -0.0031869 -0.029872 -0.0015706 -0.0016536
-0.0027148 0.0026252 -0.001696 0.0019573
0.0034318 -0.00054989 -0.0033305 -0.029919 0.24034 0.24478 -0.00078424 0.0018575
-0.00061351 0.0018777 -0.0012561 0.00030071
-0.00020135 -0.002452 -0.0015661 -0.0016483 -0.00078343 0.0018697 0.02897 0.28164
0.022185 -0.010273 -0.0034059 0.0053057
-0.0041615 -0.0009008 -0.0026978 0.0026361 -0.00063507 0.0018758 0.022165 -0.010346
-0.044847 0.21649 0.020014 -8.4964e-05
-0.0010759 0.0041578 -0.001698 0.0019786 -0.0012308 0.00027533 -0.0034187 0.0052802
0.020125 -7.6532e-05 -0.050372 0.29901
1220000000 0.11711 0.28921 0.012295 -0.030749 -0.0011727 -0.0014379 2.5972e-05 -0.0009482
-0.0027573 0.0022375 0.0010717 0.0021088
0.012323 -0.030712 -0.052269 0.3878 -0.017165 -0.022058 -0.002638 0.00048483
0.00012818 0.0031107 -0.00086337 0.0020068
-0.0011949 -0.0014303 -0.017293 -0.022009 0.27991 0.20646 0.00087925 0.0017033
0.00059995 0.0012707 0.00025904 0.00073916
1.8411e-05 -0.00094266 -0.0026334 0.00051404 0.00086587 0.001717 0.069073 0.27401
0.010991 -0.017451 0.0023314 0.0017071
-0.0027765 0.0022464 0.00012554 0.0031233 0.00059565 0.0012638 0.011001 -0.017462
-0.021479 0.22694 0.014618 -0.01295
0.00108 0.0021169 -0.0008581 0.0020097 0.00023636 0.00075425 0.0023126 0.0016994
0.014717 -0.013012 -0.019269 0.31644
1280000000 0.16802 0.26979 -0.0071043 -0.029949 -0.0020378 0.0019994 -0.00082463 -0.0020484
-0.00083222 0.003344 0.0025595 0.0014086
-0.0070661 -0.029915 -0.0052587 0.37981 -0.024572 -0.008678 -0.00089105 0.0014805
0.0018674 0.001715 0.00074859 0.0021386
-0.0020309 0.0019927 -0.024669 -0.0085703 0.31091 0.16291 0.0016594 -0.00010656
0.0011557 0.00023631 0.00023552 0.00049718
-0.00085034 -0.0020299 -0.00089139 0.0014893 0.0016411 -8.9355e-05 0.10625 0.25777
0.0010373 -0.019878 -0.00014988 6.643e-05
-0.0008317 0.0033733 0.0018881 0.0017193 0.0011731 0.0002372 0.0010161 -0.019945
0.015173 0.23163 0.0038916 -0.015951
0.0025731 0.0013972 0.00077295 0.0021566 0.00022933 0.00052019 -0.00021931 7.8782e-05
0.0039772 -0.016038 0.027737 0.3195
1340000000 0.20593 0.23802 -0.017527 -0.020349 0.00047731 0.004368 -0.0018761 -0.00090164
0.0015914 0.0027687 0.001837 -0.001403
-0.017501 -0.020348 0.034513 0.37241 -0.021915 0.0046084 -8.4056e-05 0.0020454
0.0019292 0.00081667 0.0012671 0.00085421
0.00047054 0.0043749 -0.021935 0.0047332 0.33297 0.11601 0.00099214 -0.0010069
0.00073169 -0.00051916 0.00015905 0.00030413
-0.0018825 -0.00088955 -6.1603e-05 0.0020358 0.00098426 -0.0010062 0.13941 0.2377
-0.00884 -0.016999 0.00097615 0.0004002
0.0016147 0.0027692 0.0019558 0.00083047 0.00073073 -0.00051531 -0.0088981 -0.017024
0.045523 0.22902 -0.0036294 -0.014769
0.0018215 -0.0013909 0.0012707 0.00081952 0.0001589 0.00031223 0.00098008 0.000407
-0.0036013 -0.014902 0.066465 0.3158
1400000000 0.24083 0.20134 -0.024228 -0.0084753 0.0050038 0.0033191 -0.0021767 0.00070275
0.0027008 0.0010785 0.00031392 -0.0016782
-0.024178 -0.0084912 0.073119 0.35983 -0.014899 0.01295 0.0013209 0.0012544
0.0011584 -0.00078915 0.0011994 0.00015458
0.0050319 0.0032937 -0.014857 0.013051 0.34658 0.062991 -5.5429e-05 -0.0016131
0.00011796 -0.00029729 0.00050113 0.00029282
-0.0021928 0.00072606 0.0013349 0.0012458 -5.1326e-05 -0.0015889 0.16924 0.20912
-0.015325 -0.0098618 -0.00080188 -5.4907e-05
0.0026975 0.0010764 0.001155 -0.00081714 0.00012087 -0.00029518 -0.015372 -0.0098434
0.079374 0.22566 -0.010451 -0.0093281
0.00033303 -0.0016814 0.0012201 0.00014779 0.00050888 0.00027706 -0.00085507 -7.018e-06
-0.010509 -0.0094695 0.1119 0.30605
1460000000 0.26466 0.15802 -0.021255 0.004565 0.0056034 -0.0017017 -0.0015806 0.0017625
0.0022878 -0.00045884 -0.00034279 -0.00099063
-0.021246 0.0045478 0.10738 0.33783 -0.005486 0.015843 0.0016317 0.0002253
0.00091389 -0.0013154 0.0011844 -0.00059515
0.0055859 -0.0017147 -0.005399 0.015884 0.35333 0.0093408 -0.0011933 -0.0011554
0.00033211 -0.00027332 0.00069524 -0.00030656
-0.0015513 0.0017831 0.0016353 0.0002068 -0.0011865 -0.0011456 0.19581 0.18018
-0.016065 -0.0024951 -0.00098683 0.0020759
0.0023142 -0.00045584 0.00092044 -0.0013412 0.00032287 -0.00027173 -0.01612 -0.0024627
0.10913 0.21269 -0.0124 -0.0029384
-0.0003394 -0.0010038 0.0011708 -0.00062057 0.00073057 -0.00031823 -0.00098932 0.0020957
-0.012486 -0.0030726 0.14537 0.28596
1520000000 0.27832 0.11704 -0.015495 0.010445 0.0033395 -0.0041828 0.00021479 0.0027213
0.002262 -0.0019949 -0.0011469 -0.00018714
-0.0155 0.010426 0.14106 0.32397 0.002347 0.012938 0.0016778 -0.0006802
2.9079e-05 -0.00091932 0.00032543 -0.0011174
0.0033179 -0.0042056 0.0024247 0.012942 0.34692 -0.04616 -0.00091547 -0.00030417
0.0006719 -0.00091227 0.00017132 -0.00030107
0.00022775 0.0027396 0.0016724 -0.00068804 -0.00090501 -0.00031077 0.21965 0.1424
-0.015016 0.0036111 0.0015568 0.002069
0.0022742 -0.0020208 8.4747e-06 -0.00094633 0.00067482 -0.00092366 -0.015042 0.0036886
0.13817 0.20032 -0.012196 0.0018344
-0.0011433 -0.00018701 0.00031979 -0.0010881 0.0001932 -0.0003141 0.001589 0.002102
-0.012353 0.0018203 0.17842 0.26698
1580000000 0.2887 0.071295 -0.008454 0.01404 -0.00099584 -0.0048371 0.0015108 0.0018293
-0.00028446 -0.0023048 -0.00023486 0.00047518
-0.0084582 0.014026 0.16854 0.29929 0.0058542 0.0076044 0.00060449 -0.0015534
-0.00046705 -0.0010081 -0.00025262 -0.00079502
-0.0010211 -0.0048387 0.0058848 0.0075787 0.32779 -0.10371 -0.0014198 0.00046713
-0.00033021 -0.0012059 0.00029224 -0.00064372
0.0015433 0.0017963 0.00059019 -0.0015491 -0.0014277 0.00047495 0.23402 0.10314
-0.010715 0.0084189 0.002254 0.00068135
-0.00028688 -0.0023085 -0.00048746 -0.0010109 -0.0003591 -0.0012098 -0.010747 0.0084564
0.16313 0.18328 -0.0095927 0.0076933
-0.00023799 0.00046874 -0.00024773 -0.00078877 0.00029799 -0.00064825 0.0022899 0.00070315
-0.0097339 0.0077219 0.21182 0.24133
1640000000 0.29162 0.030563 -0.0013617 0.012682 -0.0029964 -0.0025705 0.0028154 0.0010376
-0.00086631 -0.0016296 -0.00029522 0.00050965
-0.001368 0.012661 0.19765 0.27554 0.0059403 0.0025125 -0.00044392 -0.0018467
-0.00085374 -0.00043629 -0.00052573 -0.00067263
-0.0030103 -0.0025647 0.0059589 0.0024764 0.29937 -0.15213 -0.00062468 0.0013516
-0.0010721 -0.00093836 -0.00013434 -0.00055737
0.0028081 0.0010301 -0.00045063 -0.0018406 -0.00060633 0.0013558 0.24671 0.054642
-0.006217 0.0090542 0.0025588 -0.00072275
-0.00089143 -0.0016565 -0.00085497 -0.00041892 -0.0010643 -0.00091197 -0.0061814 0.009103
0.18671 0.16029 -0.0043823 0.010184
-0.00031085 0.00053413 -0.00053169 -0.00066393 -0.00015456 -0.00055522 0.0025804 -0.00072588
-0.0045194 0.010276 0.23764 0.21103
1700000000 0.28608 -0.014242 0.002262 0.0096285 -0.0036864 0.00016464 0.003136 -0.0012647
-0.002165 -0.0005679 0.00061657 0.00043468
0.0022616 0.0096093 0.21643 0.2446 0.0034188 -0.00048406 -0.0014712 -0.00076991
-0.00077191 -0.00015391 -0.00091037 -0.00037291
-0.0036941 0.0001816 0.0034199 -0.00050995 0.25762 -0.19182 0.00030947 0.0015772
-0.0020692 -2.871e-05 -0.00042344 -0.000869
0.0031371 -0.0012864 -0.00147 -0.0007636 0.00028217 0.0015834 0.24424 0.0049081
-0.0034294 0.0089932 0.0014586 -0.0021888
-0.0022043 -0.00055878 -0.00076805 -0.00013433 -0.0020793 -2.8646e-05 -0.0034085 0.0090204
0.20535 0.14084 0.000288 0.0098882
0.00061626 0.00045562 -0.00090198 -0.00036979 -0.00042441 -0.0008643 0.0015152 -0.0022065
0.00023144 0.010029 0.25523 0.17769
1760000000 0.27504 -0.062631 0.0044976 0.0061503 -0.0024341 0.0012889 0.0013099 -0.0034736
-0.0013279 0.00066395 0.00027747 -0.00050511
0.0044906 0.0061411 0.24244 0.20575 0.00061455 -0.0021446 -0.0013395 4.1349e-05
-0.001133 0.00079688 -0.00052975 0.00041414
-0.0024247 0.0012959 0.00059816 -0.0021629 0.20996 -0.22576 0.0010972 0.0011337
-0.0011557 0.0014448 -0.0013322 -0.00040668
0.0012983 -0.0034976 -0.0013334 4.8549e-05 0.0010953 0.0011104 0.23573 -0.046722
-0.00069953 0.0076501 -0.00014201 -0.0023806
-0.0013097 0.00067062 -0.001102 0.00080162 -0.0011368 0.0014238 -0.00066394 0.0076944
0.22052 0.10704 0.0044726 0.0075164
0.00028386 -0.00049121 -0.0005325 0.00040459 -0.0013696 -0.00042525 -0.00012466 -0.0023978
0.0044668 0.0076509 0.26897 0.1399
1820000000 0.25222 -0.099825 0.0045276 0.0025775 0.00014407 0.0026056 -0.00098262 -0.0032151
-0.0010854 0.00095787 -0.0001374 -0.0002015
0.0045133 0.0025684 0.25357 0.17683 -0.0018615 -0.00029023 -0.001458 0.001002
-0.00022655 0.0012307 -0.00054402 0.0005221
0.00014454 0.0025856 -0.0018556 -0.00028033 0.15899 -0.24181 0.0016011 0.00065307
-0.00025901 0.0023593 -0.0014929 0.00041757
-0.0010033 -0.0031965 -0.0014824 0.0010086 0.0016166 0.00064604 0.20686 -0.09424
0.00049342 0.0062797 -0.001452 -0.0019071
-0.0010785 0.00097941 -0.00022578 0.0012048 -0.00024057 0.0023438 0.00053602 0.0062578
0.2389 0.079349 0.0057642 0.0034395
-0.00014215 -0.00020172 -0.00053917 0.00053439 -0.0015139 0.00042343 -0.0014574 -0.0019857
0.0058394 0.0035763 0.27227 0.10432
1880000000 0.21825 -0.1412 0.002168 0.0003933 -0.00034397 0.0023974 -0.003033 -0.0022444
-0.00015161 0.0016309 0.00011913 -0.00047658
0.0021718 0.00039025 0.25868 0.13069 -0.003815 0.0023847 -0.00029229 0.0019152
0.00047571 0.0014241 0.00012993 0.00092381
-0.00031717 0.0023787 -0.0038091 0.0023993 0.10679 -0.25075 0.0019671 -0.0010477
0.0016271 0.0019061 -0.00095504 0.001336
-0.0030848 -0.0022594 -0.00029501 0.0019241 0.0019687 -0.0010551 0.16667 -0.13515
0.00080139 0.0043211 -0.002627 1.8037e-05
-0.00012079 0.0016457 0.00047325 0.0014324 0.0016411 0.0019343 0.00084699 0.0043151
0.2437 0.048386 0.0054715 0.00081072
0.00011879 -0.00050528 0.00014344 0.0009084 -0.00095939 0.0013307 -0.0026761 1.6361e-05
0.0055986 0.00089584 0.2732 0.070331
1940000000 0.17967 -0.16735 -3.223e-05 -0.0011405 0.0016566 0.0020944 -0.0039928 0.00024578
0.0011936 0.00077863 -0.00067294 -0.0005733
-3.2495e-05 -0.001121 0.26038 0.099774 -0.0020024 0.0053982 0.0010555 0.0013965
0.0018807 0.00053998 0.00082661 0.00028047
0.0016654 0.0020568 -0.0019548 0.0054022 0.062348 -0.24305 0.00054355 -0.0022193
0.0022406 0.00050796 0.0003571 0.0015925
-0.0039785 0.00025093 0.0010889 0.0013863 0.00056534 -0.0021868 0.11441 -0.16601
-0.00027373 0.0035119 -0.001739 0.0014584
0.00122 0.00076236 0.0018893 0.00052426 0.0022446 0.00052298 -0.00023706 0.0035163
0.24753 0.011434 0.0039676 -0.0027837
-0.00068675 -0.0005991 0.00082994 0.00026706 0.00035915 0.0015639 -0.0017256 0.0014006
0.0040972 -0.0027575 0.26303 0.033918
2000000000 0.13461 -0.18316 -0.0034983 0.00092311 0.0029188 0.0012182 -0.0023514 0.003927
0.00092875 0.00043975 -0.0004953 0.00064058
-0.003487 0.00093449 0.24772 0.064454 -0.00082564 0.0074185 0.0018542 0.00037658
0.0014403 -0.0011325 0.00036648 0.00015853
0.0029385 0.0012177 -0.00077318 0.0074512 0.019727 -0.22936 -0.0012955 -0.0016462
0.0021267 -0.0011657 0.0012726 0.0015719
-0.0023608 0.0039292 0.0018619 0.00036598 -0.0013298 -0.0017157 0.060836 -0.17658
-0.0016682 0.0037385 6.4259e-05 0.0023479
0.00090598 0.0004124 0.0014253 -0.0011124 0.0021367 -0.0011894 -0.0015826 0.0037135
0.24435 -0.021018 0.00070544 -0.003751
