!Keysight Technologies,M9804A,MY58100912,A.14.10.03
!Date: Thursday, April 27, 2023 10:28:33
!Correction: S11(C  6-Port  ) 
!S12(C  6-Port  ) 
!S13(C  6-Port  ) 
!S14(C  6-Port  ) 
!S15(C  6-Port  ) 
!S16(C  6-Port  ) 
!S21(C  6-Port  ) 
!S22(C  6-Port  ) 
!S23(C  6-Port  ) 
!S24(C  6-Port  ) 
!S25(C  6-Port  ) 
!S26(C  6-Port  ) 
!S31(C  6-Port  ) 
!S32(C  6-Port  ) 
!S33(C  6-Port  ) 
!S34(C  6-Port  ) 
!S35(C  6-Port  ) 
!S36(C  6-Port  ) 
!S41(C  6-Port  ) 
!S42(C  6-Port  ) 
!S43(C  6-Port  ) 
!S44(C  6-Port  ) 
!S45(C  6-Port  ) 
!S46(C  6-Port  ) 
!S51(C  6-Port  ) 
!S52(C  6-Port  ) 
!S53(C  6-Port  ) 
!S54(C  6-Port  ) 
!S55(C  6-Port  ) 
!S56(C  6-Port  ) 
!S61(C  6-Port  ) 
!S62(C  6-Port  ) 
!S63(C  6-Port  ) 
!S64(C  6-Port  ) 
!S65(C  6-Port  ) 
!S66(C  6-Port  ) 
!S6P File: Measurement: :
# Hz S  RI   R 50
500000000 -0.33195 -0.067646 -0.011462 -0.001098 -0.009558 0.014005 -0.0043076 0.012145
0.012646 0.0057714 -0.0042404 0.0072233
-0.011299 -0.00096963 -0.41358 -0.075066 0.0071721 -0.0097658 0.00070572 0.01245
0.0080507 0.0031311 0.00083015 0.013057
-0.0093586 0.013865 0.0072638 -0.0097096 -0.26677 0.19107 0.0065485 0.004169
-0.0021458 0.0089782 -0.0004383 0.011848
-0.0043597 0.012099 0.00053757 0.012842 0.0067217 0.0043428 -0.33111 0.036363
-0.020779 -0.0041511 0.016711 0.024996
0.012911 0.0057972 0.0080114 0.003355 -0.0024674 0.0090658 -0.021046 -0.0033298
-0.233 -0.22288 -0.029235 0.0046033
-0.0042837 0.0075012 0.0006299 0.01448 0.00057053 0.01238 0.016211 0.025346
-0.029142 0.0047732 -0.26169 -0.14629
560000000 -0.32088 0.10351 -0.022546 -0.067493 0.00011842 0.014556 0.0047052 0.012214
0.0111 0.0051724 0.012119 0.010118
-0.022094 -0.066534 -0.37443 0.09177 -0.041686 -0.038519 0.013938 0.0047408
-0.012841 -0.0045851 0.0032663 -0.0002085
-0.00010669 0.014519 -0.04201 -0.038689 -0.18669 0.24407 -0.00033293 -0.0047253
0.019048 0.0076889 0.0074674 -0.0061553
0.0051899 0.012018 0.013772 0.0044603 -0.00017536 -0.0047007 -0.30806 0.13087
0.0037971 -0.022116 0.0052439 -0.021392
0.010268 0.0051477 -0.012574 -0.0040153 0.018914 0.0081716 0.0051011 -0.022629
-0.30817 -0.035847 0.010544 -0.051233
0.010855 0.010035 0.0031807 -0.00090678 0.007493 -0.0061659 0.0047492 -0.021416
0.010283 -0.052016 -0.33271 0.0096566
620000000 -0.27996 0.081255 -0.023888 0.010282 0.004189 0.010159 0.0087156 -0.0041584
0.013242 -0.00066922 0.00040847 -0.0019614
-0.023856 0.010074 -0.40324 0.038082 -0.018134 0.0015107 -0.0013637 -0.0021334
0.013346 -0.0053826 0.00096917 -0.002295
0.0044602 0.0098149 -0.01807 0.0015325 -0.1574 0.2541 -0.00032629 -0.0052815
-0.0023878 -0.0027868 0.0095825 -0.0028982
0.0085621 -0.0044883 -0.0014551 -0.0020752 -0.00071313 -0.0048638 -0.2644 0.14105
-0.040237 -0.018352 0.014076 0.02956
0.012938 -0.00055104 0.01327 -0.0052979 -0.0024468 -0.0027221 -0.040461 -0.018791
-0.22534 -0.075634 -0.045055 0.012578
0.00013575 -0.002482 0.00091138 -0.002817 0.0098141 -0.002348 0.014992 0.028562
-0.045497 0.013166 -0.24752 -0.028774
680000000 -0.2451 0.17738 -0.026395 -0.014275 0.005419 0.0053078 0.0017137 -0.0071823
-0.0016938 -0.011692 0.0061292 -0.0067941
-0.026372 -0.014055 -0.39147 0.14075 -0.03194 -0.0024326 -0.0012428 -0.00054658
-0.001165 -0.0097399 -0.00067157 -0.002336
0.0053121 0.0055869 -0.031946 -0.0023483 -0.10697 0.27556 -0.00096707 -0.00063642
-0.0012106 5.4668e-05 -0.0026719 -0.0094327
0.0018149 -0.0070263 -0.0013669 -0.00055062 -0.00072788 -0.00088376 -0.2211 0.19344
-0.023349 -0.0059811 -0.008523 -0.011042
-0.0011761 -0.011688 -0.00098636 -0.0097309 -0.0012157 -5.8639e-05 -0.023665 -0.0058901
-0.28524 0.031284 -0.0069991 -0.0062669
0.0063128 -0.0068892 -0.00060048 -0.0023527 -0.0028095 -0.0096944 -0.0092659 -0.011064
-0.0071579 -0.0055273 -0.2631 0.077999
740000000 -0.19633 0.17007 -0.040282 0.027503 0.014756 -0.0043783 0.00035176 -0.0041733
-0.0045403 -0.0035989 -0.0068057 0.0027111
-0.040257 0.027679 -0.33628 0.15893 -0.037368 0.035155 0.00018178 -0.0067586
-0.013155 0.0057914 -0.000811 -0.0060491
0.014582 -0.0045531 -0.03704 0.035216 -0.073553 0.27265 -0.0021165 0.0031937
-0.0016954 -0.0057321 -0.0025997 0.0010694
0.00022334 -0.0041422 0.0001798 -0.0065106 -0.0024842 0.0032179 -0.20398 0.20132
-0.042108 -0.0097171 0.023874 0.017798
-0.00456 -0.002997 -0.013614 0.0063226 -0.0011457 -0.0055375 -0.043653 -0.0095375
-0.182 0.064201 -0.043835 0.00096782
-0.006754 0.0024294 -0.00066224 -0.0059919 -0.0025994 0.00083906 0.024366 0.017129
-0.04383 0.00089318 -0.25297 0.085254
800000000 -0.16547 0.21581 -0.021715 0.016161 0.0060333 -0.010664 -0.0047447 -0.0023812
-0.0047474 0.0010891 0.0034865 7.1935e-05
-0.021662 0.016174 -0.34399 0.2305 -0.0087509 0.03414 -0.0024046 0.0019121
-0.0011933 0.002011 0.00027738 0.0052837
0.0060407 -0.010668 -0.0086368 0.034236 -0.035253 0.29798 0.000619 0.0016358
-0.00029747 0.0033682 -0.0019653 0.00078506
-0.0046996 -0.0023927 -0.0024213 0.0018935 0.00065611 0.0014544 -0.17501 0.22858
-0.028434 0.013663 0.014663 -0.010841
-0.0048793 0.0010287 -0.0013202 0.0021787 -0.00021525 0.0034509 -0.02826 0.013494
-0.22923 0.088842 -0.017561 0.021893
0.0032926 0.00067004 0.0001802 0.005383 -0.0018343 0.00090079 0.014608 -0.010584
-0.017815 0.021621 -0.249 0.1351
860000000 -0.13102 0.23554 -0.017741 0.030185 -0.0025046 -0.010606 -0.0017454 0.00021381
0.0034607 0.0057409 -0.0039782 -0.0030988
-0.017745 0.030164 -0.29705 0.27413 0.0072551 0.034871 -0.00016122 0.0021372
0.0031689 0.001395 0.0032531 -2.8588e-05
-0.0026499 -0.010648 0.0073568 0.034849 0.011508 0.30758 -0.00062274 -0.00013774
0.0024964 -0.0013928 0.0017784 0.0039866
-0.0018259 0.00022921 -0.00010871 0.0021422 -0.0005983 -7.8982e-05 -0.13828 0.2394
-0.017954 0.017681 -0.0062777 -0.0092043
0.0035709 0.0057684 0.0032314 0.0012424 0.0025582 -0.0013015 -0.017942 0.018015
-0.17099 0.14521 -0.025729 0.016876
-0.0040777 -0.0030131 0.0034016 -1.7528e-05 0.0016602 0.0040223 -0.0062533 -0.0094613
-0.025731 0.017004 -0.19679 0.18223
920000000 -0.1082 0.25816 0.0048342 0.038381 -0.0094377 -0.0056896 -0.0020233 0.0013323
0.00058879 0.0019561 0.0030233 -0.0012025
0.0048438 0.038336 -0.27003 0.29587 0.028396 0.023225 0.0013349 0.0011621
0.0080896 0.00015131 0.0046706 -0.002836
-0.0094002 -0.005729 0.028528 0.023102 0.056901 0.31023 0.0019206 0.00010016
0.00089952 -0.00016967 0.00077476 -0.0019312
-0.002063 0.001284 0.001397 0.0012224 0.0019699 0.00010184 -0.11434 0.25645
-0.011402 0.030891 0.0046247 -0.0069648
0.00053531 0.0017421 0.007804 4.305e-05 0.00070628 -0.00024361 -0.011218 0.030859
-0.16335 0.14984 -0.001178 0.027662
0.0031987 -0.0011026 0.0048096 -0.0027575 0.00087115 -0.0019429 0.004578 -0.0069482
-0.0013397 0.027957 -0.20569 0.19507
980000000 -0.062632 0.27926 0.016421 0.030038 -0.010016 0.0039628 0.0013591 0.0035638
0.0040307 -0.0013837 -0.0033555 -0.002831
0.016352 0.029957 -0.21846 0.33181 0.033688 0.0056415 0.0021489 -0.00014549
0.002215 -0.0061944 -0.00021573 -0.0028976
-0.010051 0.0040016 0.033753 0.0055157 0.1031 0.30545 0.00076071 -0.0011797
0.00063767 -0.0018951 0.001159 -0.00048158
0.0013885 0.0035727 0.0021066 -0.00015622 0.00069451 -0.0011793 -0.07621 0.26673
0.0078981 0.029555 -0.0097708 -0.0082485
0.0040554 -0.0014446 0.0024109 -0.0062033 0.00060759 -0.0019254 0.0079054 0.029422
-0.13097 0.18348 0.0061915 0.020311
-0.003255 -0.0027592 -0.0002428 -0.0030012 0.0011248 -0.00043626 -0.0098139 -0.0082212
0.0063273 0.020431 -0.16431 0.24167
1040000000 -0.022688 0.2887 0.033057 0.019353 -0.0020279 0.0072092 0.0022335 0.00096115
0.00050894 -0.0033576 -0.00048086 -0.0021301
0.033017 0.019337 -0.18442 0.3462 0.030513 -0.014654 0.0015999 -0.0016817
-0.002223 -0.0028628 -0.0014912 -0.0031245
-0.0019802 0.0071484 0.030484 -0.014827 0.14943 0.29366 -0.00049688 -0.0016689
-0.0017241 -0.0010004 -0.00085544 -0.00094061
0.0021954 0.00093117 0.0015757 -0.0017173 -0.00049149 -0.0016824 -0.049833 0.2767
0.01935 0.018985 -0.0024917 0.00064356
0.00039957 -0.0032289 -0.0023505 -0.0028422 -0.001697 -0.00095478 0.019454 0.019029
-0.098502 0.18991 0.014727 0.019335
-0.00014796 -0.0019612 -0.0014142 -0.0031122 -0.00087147 -0.00098352 -0.0023576 0.00062196
0.01463 0.019407 -0.14346 0.26335
1100000000 0.021928 0.29912 0.036877 -0.0034199 0.0027562 0.0043092 0.0023311 -0.00060453
-0.0022155 -0.0030093 -0.0041548 -0.00012075
0.036841 -0.0034111 -0.14147 0.36577 0.016121 -0.02863 8.7946e-05 -0.0019082
-0.0039436 -0.0010965 -0.0037346 -0.00062317
0.0027546 0.0043177 0.016005 -0.028728 0.19661 0.27472 -0.0020382 0.00018438
-0.0019868 0.00065557 -0.0013313 -0.00018002
0.0023606 -0.00062285 0.0001001 -0.0018341 -0.0020068 0.00016854 -0.010126 0.28218
0.025398 0.0054252 -0.0029877 -0.00039687
-0.0022416 -0.0030379 -0.0039204 -0.0011751 -0.0019878 0.00061123 0.025315 0.0054501
-0.078802 0.20497 0.020666 0.0095698
-0.0042883 8.9268e-05 -0.0037494 -0.00049406 -0.0013216 -0.00019375 -0.0029174 -0.00043236
0.020644 0.0096025 -0.096867 0.29488
1160000000 0.072336 0.29668 0.024926 -0.020826 0.0028538 -0.00038015 7.3696e-05 -0.0020368
-0.0041176 -0.0011738 -0.0014313 0.0043692
0.024995 -0.020778 -0.098655 0.37203 -0.0038087 -0.029982 -0.0015087 -0.0017951
-0.0031979 0.0029058 -0.0018072 0.0020658
0.0028554 -0.00039622 -0.0039257 -0.030022 0.24038 0.24456 -0.00090952 0.0018188
-0.00050261 0.0021117 -0.00091451 0.00051855
4.0528e-05 -0.0020377 -0.0015806 -0.0018171 -0.00089795 0.0018446 0.028201 0.28009
0.021816 -0.011042 -0.0039453 0.0048276
-0.0042205 -0.0010025 -0.0032378 0.0028883 -0.00052982 0.0021431 0.021792 -0.011146
-0.044921 0.21277 0.020159 -0.00033217
-0.0014587 0.0042973 -0.0017972 0.0020865 -0.00095544 0.00060563 -0.0038112 0.0048282
0.02011 -0.00039079 -0.050626 0.29814
1220000000 0.1159 0.28851 0.011259 -0.030883 -0.0016339 -0.00089058 0.00040214 -0.00097272
-0.0028656 0.0022072 0.001111 0.0023325
0.011257 -0.030828 -0.05421 0.3872 -0.017667 -0.02199 -0.0027138 0.00043345
-0.00010909 0.003568 -0.00086915 0.0022474
-0.0016109 -0.00086075 -0.017773 -0.021931 0.27996 0.20586 0.00089167 0.0019487
0.00074131 0.0013404 0.00049206 0.00071849
0.00043683 -0.00097488 -0.0027219 0.00042719 0.0008755 0.0019565 0.067902 0.27308
0.010691 -0.017752 0.0016131 0.001634
-0.0029157 0.0022445 -4.0067e-05 0.0035257 0.00073881 0.0013218 0.010788 -0.017863
-0.023347 0.22348 0.015203 -0.014064
0.0011338 0.0023237 -0.00084733 0.0021886 0.00044262 0.00068333 0.0015495 0.0016098
0.015212 -0.013964 -0.019928 0.31583
1280000000 0.16678 0.26958 -0.0080754 -0.029565 -0.0020648 0.00268 -0.0007488 -0.0023784
-0.0011103 0.0034932 0.0027178 0.0016254
-0.0080486 -0.029569 -0.0069754 0.38009 -0.0251 -0.0084459 -0.0010684 0.0015338
0.002081 0.0021245 0.0008469 0.0022072
-0.0020522 0.0026826 -0.025182 -0.0083484 0.31055 0.16221 0.001854 4.1274e-05
0.0013731 0.0001748 0.00053731 0.00018958
-0.00075807 -0.0023745 -0.0011458 0.0016022 0.0018346 5.5034e-05 0.10486 0.2577
0.00041416 -0.020316 -0.00061395 0.00058916
-0.00099606 0.0034745 0.0021234 0.0021194 0.001421 0.00016827 0.00037848 -0.020237
0.012798 0.22792 0.0034321 -0.017075
0.0028024 0.0016179 0.00092628 0.0021762 0.00042596 0.00015982 -0.00050287 0.00057612
0.0034505 -0.017015 0.027907 0.31881
1340000000 0.20435 0.23824 -0.018363 -0.019335 0.00080041 0.0050076 -0.0020018 -0.0012686
0.0016261 0.0029073 0.0022641 -0.0014849
-0.018293 -0.019322 0.033266 0.37335 -0.022226 0.005147 -0.00011876 0.0022395
0.002391 0.00072402 0.001366 0.00080881
0.000825 0.00503 -0.022229 0.0052737 0.33223 0.11521 0.0011291 -0.0011283
0.0006485 -0.00067385 7.8333e-05 0.00016826
-0.0020134 -0.0012653 -0.00011821 0.0022159 0.0011427 -0.0011361 0.13839 0.23865
-0.0095978 -0.016984 0.00065136 0.0010187
0.0016172 0.002951 0.0023934 0.0007457 0.000609 -0.00062035 -0.0097053 -0.016929
0.041485 0.22576 -0.0043955 -0.015541
0.002253 -0.0015462 0.0013872 0.0007998 0.00017579 0.00013898 0.00067258 0.0010321
-0.0044 -0.015604 0.066034 0.31498
1400000000 0.23987 0.20216 -0.024315 -0.0071949 0.0057067 0.0036688 -0.0024736 0.00066869
0.0027514 0.0011673 0.00047847 -0.0017818
-0.024305 -0.0071804 0.072301 0.36112 -0.014888 0.013649 0.0015751 0.0013758
0.0014159 -0.0011117 0.0012432 5.8116e-05
0.005713 0.0036574 -0.014857 0.013735 0.34567 0.062858 -2.7306e-05 -0.0018059
0.00011669 -0.00034128 0.00037911 0.00022747
-0.0024923 0.00068853 0.0015329 0.0014144 -2.0809e-05 -0.0017619 0.16893 0.2102
-0.015862 -0.0095129 -0.00092491 0.00035273
0.0027477 0.0012042 0.0014061 -0.0011124 0.00014105 -0.00038634 -0.015906 -0.0095032
0.074819 0.22359 -0.011565 -0.0098101
0.00051762 -0.001819 0.0012971 9.5038e-05 0.00042639 0.00025742 -0.00085727 0.00042243
-0.011538 -0.00986 0.11136 0.30503
1460000000 0.26407 0.15915 -0.020695 0.0057316 0.0062451 -0.0017837 -0.0017518 0.0019275
0.0024768 -0.000493 -0.00038232 -0.0012019
-0.020675 0.0057219 0.10747 0.339 -0.0050613 0.016505 0.0018295 0.00012414
0.00085496 -0.001594 0.0012279 -0.00058798
0.0062175 -0.0017907 -0.0049834 0.016548 0.35238 0.0094814 -0.0014122 -0.0012177
0.00023679 -0.00016012 0.00074012 -0.00028612
-0.0017177 0.0019495 0.0018169 0.00011561 -0.001411 -0.0012184 0.19621 0.18131
-0.016679 -0.0018206 -0.0004427 0.0024237
0.0024608 -0.00042054 0.00084318 -0.0015852 0.00024803 -0.00015652 -0.016672 -0.0017865
0.10391 0.21173 -0.013569 -0.0029179
-0.00042625 -0.0012216 0.0012083 -0.00063244 0.00068832 -0.00030932 -0.00049233 0.0024066
-0.013655 -0.002899 0.14442 0.28491
1520000000 0.27846 0.11816 -0.014408 0.011125 0.003948 -0.0046816 0.00021046 0.0028854
0.0024668 -0.0021174 -0.0014482 -0.00012476
-0.014406 0.011112 0.1415 0.32489 0.0030824 0.01322 0.0017129 -0.00091472
-0.00013406 -0.0010402 0.00033839 -0.0010875
0.0039139 -0.0047003 0.0031561 0.013218 0.34645 -0.045521 -0.0011386 -0.00023472
0.00075642 -0.0010391 0.00013825 -0.00028928
0.00020852 0.0028804 0.001705 -0.00089057 -0.0011498 -0.00023477 0.22054 0.14326
-0.015265 0.0042909 0.001913 0.0024623
0.0024374 -0.0021712 -0.00016956 -0.001043 0.00078536 -0.0010297 -0.015287 0.0043662
0.13293 0.20082 -0.013474 0.0024418
-0.0013618 -0.00013666 0.00038572 -0.0011079 0.0001709 -0.00029935 0.0019026 0.0024593
-0.01345 0.002453 0.17738 0.26607
1580000000 0.28945 0.071903 -0.0072152 0.014054 -0.00082782 -0.0055363 0.0017314 0.0019047
-0.00028833 -0.002544 -0.00031095 0.00060539
-0.007221 0.014047 0.1692 0.29982 0.0066265 0.0074791 0.00042324 -0.0016959
-0.00062768 -0.0009362 -0.00021543 -0.00085489
-0.00085693 -0.0055379 0.0066814 0.0074409 0.32796 -0.10319 -0.001532 0.00057123
-0.00046875 -0.0014903 0.00024008 -0.00061188
0.0017338 0.0018837 0.00041617 -0.0016982 -0.0015046 0.00054158 0.23514 0.1035
-0.010659 0.0092565 0.0028396 0.00057215
-0.0002779 -0.0025664 -0.00061858 -0.00091738 -0.00044505 -0.001509 -0.010588 0.0092702
0.15858 0.18508 -0.010121 0.0088351
-0.00033277 0.00060039 -0.00023812 -0.00082372 0.00021447 -0.00066718 0.0028215 0.00057213
-0.010129 0.0088473 0.2102 0.24058
1640000000 0.29242 0.030565 -0.00030815 0.012114 -0.0032685 -0.0031355 0.0029595 0.001009
-0.00094961 -0.001827 -0.00035366 0.00058025
-0.00032258 0.012135 0.19839 0.27578 0.0064861 0.0020601 -0.00065396 -0.0018191
-0.00085575 -0.00036148 -0.00058113 -0.00075799
-0.0032845 -0.0030869 0.0065166 0.0020252 0.29977 -0.15215 -0.00060339 0.0014764
-0.0012829 -0.0011007 -0.00033756 -0.00051035
0.0029812 0.00097112 -0.00064003 -0.0018313 -0.00059633 0.0014358 0.24808 0.054543
-0.0056378 0.0097744 0.0028448 -0.00091873
-0.00097016 -0.0018153 -0.00083905 -0.00037424 -0.0012615 -0.0010981 -0.0056447 0.0098272
0.18298 0.16306 -0.0046354 0.011222
-0.00030254 0.00058089 -0.0005867 -0.00074544 -0.00036576 -0.00050581 0.002839 -0.00096394
-0.0046887 0.011171 0.23601 0.21102
1700000000 0.2864 -0.014747 0.0028903 0.0087091 -0.0041386 -7.6092e-05 0.0032502 -0.0013868
-0.0023541 -0.00054022 0.00063832 0.00036703
0.0028736 0.008713 0.21707 0.24467 0.0035872 -0.0011001 -0.0015695 -0.00059135
-0.00072001 -0.00014403 -0.00096779 -0.00044479
-0.0041208 -5.053e-05 0.0035886 -0.0011165 0.2576 -0.19237 0.00031049 0.0015051
-0.0023137 -3.4068e-05 -0.00058351 -0.00079515
0.0032235 -0.0014041 -0.001584 -0.00060009 0.00031132 0.0015134 0.24545 0.0042188
-0.0026134 0.0093608 0.0019155 -0.0024974
-0.0023457 -0.00056176 -0.00074127 -0.00015675 -0.0022666 -1.709e-05 -0.0026509 0.009352
0.20258 0.14405 0.00067576 0.011226
0.0006507 0.00036778 -0.00098995 -0.00044047 -0.00064876 -0.00079248 0.0019195 -0.002424
0.00071363 0.011241 0.25381 0.1776
1760000000 0.27513 -0.063197 0.004648 0.0050674 -0.0027863 0.0011657 0.0012733 -0.0036688
-0.0013738 0.00073951 0.00028556 -0.00065213
0.0046622 0.0050709 0.2431 0.20562 0.00054557 -0.0026827 -0.0012613 0.0001415
-0.0011155 0.00071166 -0.00064281 0.00038083
-0.002775 0.0011729 0.00054318 -0.0026763 0.20947 -0.22586 0.0011604 0.0010509
-0.0011792 0.0016722 -0.0015173 -0.00046905
0.0012872 -0.0037041 -0.0012418 0.00016352 0.0011299 0.0010737 0.23665 -0.047803
0.00032198 0.0076817 -4.4974e-05 -0.0029338
-0.0013339 0.00081524 -0.0011107 0.00071244 -0.0012239 0.0016494 0.00039686 0.0076215
0.21898 0.11045 0.0052974 0.0082144
0.00032286 -0.00064671 -0.0006687 0.00040869 -0.0015738 -0.0004649 -8.5595e-05 -0.0029344
0.0052943 0.0081994 0.26741 0.14095
1820000000 0.25194 -0.10043 0.0042085 0.0015651 -0.00029785 0.0026754 -0.0011365 -0.0032746
-0.0010027 0.0011042 -0.00025474 -0.00020202
0.0041906 0.0015723 0.2543 0.1765 -0.0020705 -0.00075145 -0.0013917 0.00099431
-0.00023984 0.0011733 -0.00067188 0.00051028
-0.00029363 0.0026669 -0.0020785 -0.00072952 0.15889 -0.24151 0.0016149 0.00055499
-4.1364e-05 0.0025307 -0.0015678 0.00039567
-0.0011492 -0.0032262 -0.0014125 0.000986 0.0015954 0.00052288 0.20717 -0.095497
0.0013471 0.0057718 -0.0016135 -0.0021001
-0.0010174 0.0011184 -0.0002531 0.001163 -7.0175e-05 0.0025811 0.0012995 0.0058301
0.23829 0.082335 0.0065467 0.0040028
-0.00018556 -0.00020805 -0.0006496 0.00053356 -0.0015393 0.00039126 -0.0015441 -0.0021066
0.0066644 0.004007 0.27124 0.10553
1880000000 0.21796 -0.14152 0.0014569 -0.00030638 -0.00074688 0.0027391 -0.003093 -0.0022204
-0.00011214 0.0016224 5.2187e-06 -0.000566
0.0014771 -0.00029662 0.25921 0.13016 -0.0043665 0.0020924 -0.00023088 0.001837
0.0003284 0.0014389 7.6488e-05 0.0010143
-0.00071529 0.0027643 -0.0043462 0.0021003 0.10654 -0.25045 0.0020121 -0.001004
0.0018794 0.0019138 -0.000842 0.0016655
-0.0030873 -0.0022055 -0.00023296 0.0018313 0.0020116 -0.00095107 0.16636 -0.13642
0.0014248 0.0035189 -0.0027227 -0.00030957
-0.00010394 0.001658 0.00034662 0.001452 0.0018514 0.0019181 0.0014255 0.0035717
0.24369 0.051073 0.0069256 0.00093469
-0.00010111 -0.00055925 0.00016909 0.0010077 -0.00080198 0.001641 -0.0026762 -0.00038553
0.0069327 0.00093433 0.27272 0.07146
1940000000 0.1793 -0.16748 -0.00091207 -0.001415 0.0016099 0.0026597 -0.0039201 0.00045236
0.0012226 0.00083857 -0.00074387 -0.00029575
-0.00091695 -0.0014485 0.26082 0.099014 -0.002584 0.0053539 0.0011193 0.0014244
0.0019316 0.00079983 0.00093259 0.00036667
0.0016163 0.0026403 -0.0025554 0.0053815 0.062267 -0.24319 0.00061375 -0.0022918
0.0024454 0.00028564 0.00057929 0.0015316
-0.0039067 0.00046936 0.0011462 0.0013543 0.000563 -0.0023269 0.11349 -0.16708
-0.00010347 0.0024277 -0.0021721 0.0012468
0.0012199 0.00082828 0.0019236 0.00073867 0.0024552 0.00025527 -0.00015723 0.0023938
0.24789 0.013392 0.0052489 -0.0033127
-0.00077292 -0.00028027 0.00094897 0.00043819 0.00062369 0.001556 -0.0021141 0.0013153
0.0052298 -0.0033405 0.26262 0.035688
2000000000 0.1341 -0.1831 -0.0044817 0.0011129 0.0030801 0.0017249 -0.0024598 0.0038659
0.00094049 0.00040127 -0.00048773 0.00071224
-0.0044706 0.0011389 0.24774 0.063695 -0.0014058 0.0078582 0.0017239 0.00033268
0.0015402 -0.00097224 0.0005166 6.2911e-05
0.0031216 0.0017402 -0.0013549 0.0078714 0.019494 -0.22922 -0.0013763 -0.0017828
0.0019971 -0.0012668 0.0017415 0.0012269
-0.0024553 0.0038775 0.0017569 0.00038337 -0.0013198 -0.0016729 0.059943 -0.17707
-0.002216 0.0027643 -0.00069424 0.0026038
0.00090381 0.00037168 0.0015277 -0.00096464 0.0020456 -0.0012809 -0.0021502 0.0028952
0.24413 -0.019755 0.0011944 -0.0046803
