!Keysight Technologies,M9804A,MY58100912,A.14.10.03
!Date: Thursday, April 27, 2023 10:28:33
!Correction: S11(C  6-Port  ) 
!S12(C  6-Port  ) 
!S13(C  6-Port  ) 
!S14(C  6-Port  ) 
!S15(C  6-Port  ) 
!S16(C  6-Port  ) 
!S21(C  6-Port  ) 
!S22(C  6-Port  ) 
!S23(C  6-Port  ) 
!S24(C  6-Port  ) 
!S25(C  6-Port  ) 
!S26(C  6-Port  ) 
!S31(C  6-Port  ) 
!S32(C  6-Port  ) 
!S33(C  6-Port  ) 
!S34(C  6-Port  ) 
!S35(C  6-Port  ) 
!S36(C  6-Port  ) 
!S41(C  6-Port  ) 
!S42(C  6-Port  ) 
!S43(C  6-Port  ) 
!S44(C  6-Port  ) 
!S45(C  6-Port  ) 
!S46(C  6-Port  ) 
!S51(C  6-Port  ) 
!S52(C  6-Port  ) 
!S53(C  6-Port  ) 
!S54(C  6-Port  ) 
!S55(C  6-Port  ) 
!S56(C  6-Port  ) 
!S61(C  6-Port  ) 
!S62(C  6-Port  ) 
!S63(C  6-Port  ) 
!S64(C  6-Port  ) 
!S65(C  6-Port  ) 
!S66(C  6-Port  ) 
!S6P File: Measurement: :
# Hz S  RI   R 50
500000000 -0.33185 -0.062646 -0.010191 -0.00045602 -0.008543 0.013034 -0.0033314 0.012267
0.012474 0.0055507 -0.0034899 0.0079227
-0.0099356 -0.00049498 -0.41314 -0.071832 0.0080273 -0.010449 0.0017368 0.012706
0.0083407 0.0028786 0.0015622 0.014034
-0.0085632 0.012978 0.0080185 -0.010476 -0.26619 0.19236 0.0066289 0.003949
-0.0019645 0.0085921 -0.00035637 0.012337
-0.0033222 0.012216 0.0016429 0.012811 0.0065813 0.0040125 -0.32964 0.038112
-0.018871 -0.0038635 0.018701 0.025752
0.012384 0.0057511 0.0083408 0.0029612 -0.0019266 0.0086109 -0.01893 -0.0038623
-0.23691 -0.21497 -0.026888 0.0063712
-0.0031596 0.0078499 0.0016833 0.014153 -0.00033429 0.012389 0.018692 0.025604
-0.026752 0.006374 -0.26171 -0.14014
560000000 -0.31992 0.10391 -0.022193 -0.066905 3.7965e-06 0.01368 0.0041715 0.012451
0.011189 0.0047365 0.01086 0.0095566
-0.02172 -0.066737 -0.37452 0.092984 -0.041367 -0.039485 0.014029 0.004105
-0.012174 -0.0046793 0.0038585 -0.00063412
1.536e-06 0.013755 -0.041511 -0.039383 -0.18623 0.24484 -0.00048232 -0.004936
0.019294 0.0063099 0.0074473 -0.0053345
0.0043543 0.012339 0.014012 0.004108 -0.00045982 -0.0049835 -0.30676 0.13105
0.0049949 -0.023285 0.0056924 -0.021242
0.011153 0.0045724 -0.012233 -0.0044589 0.019282 0.006434 0.0050467 -0.023308
-0.30976 -0.031019 0.010095 -0.05145
0.010675 0.0097772 0.0035416 -0.00083103 0.007536 -0.0052254 0.0056965 -0.021158
0.01008 -0.051375 -0.3318 0.014496
620000000 -0.27968 0.084371 -0.023647 0.0089675 0.0037071 0.0097681 0.0082319 -0.0042134
0.011723 -0.0012405 -7.8805e-05 -0.0014283
-0.02375 0.0089421 -0.40242 0.040526 -0.018394 0.0005852 -0.0014076 -0.0022434
0.012246 -0.0051525 0.0013332 -0.0030083
0.0036781 0.0096856 -0.018397 0.00062641 -0.15728 0.25427 -0.0004259 -0.0053947
-0.0035285 -0.0022308 0.010085 -0.0026858
0.0084245 -0.0040536 -0.0012811 -0.0022232 -0.00029348 -0.0053424 -0.26484 0.14111
-0.038809 -0.019776 0.013314 0.028249
0.011709 -0.001367 0.012149 -0.0052595 -0.0035659 -0.0023135 -0.038805 -0.019751
-0.22597 -0.066859 -0.041766 0.012043
4.7244e-05 -0.0012635 0.0013627 -0.0031556 0.010193 -0.002809 0.013253 0.028155
-0.041836 0.01209 -0.24848 -0.02468
680000000 -0.24324 0.17806 -0.026422 -0.014555 0.0048434 0.0055673 0.0016542 -0.0070643
-0.0010251 -0.011542 0.0061492 -0.0077964
-0.026316 -0.014493 -0.39082 0.14226 -0.032607 -0.0023712 -0.0018063 -0.00050349
-0.0011888 -0.0092093 -0.00056811 -0.0024192
0.004922 0.0056324 -0.032676 -0.0022761 -0.10694 0.2765 -0.00092054 -0.0002405
-0.0013506 3.5563e-06 -0.0030252 -0.0093689
0.0015198 -0.0070738 -0.0018104 -0.00051241 -0.001044 -0.00014448 -0.22037 0.19358
-0.02302 -0.00735 -0.0094181 -0.011668
-0.0010617 -0.01151 -0.0012612 -0.0092117 -0.0013094 1.8068e-05 -0.023049 -0.0073446
-0.28162 0.036203 -0.0079844 -0.0064975
0.0060886 -0.0078537 -0.00054819 -0.0022278 -0.0030072 -0.0092552 -0.0094901 -0.011595
-0.0079701 -0.0064993 -0.26003 0.080893
740000000 -0.19556 0.17044 -0.040338 0.026637 0.014128 -0.0043887 1.8687e-05 -0.0039461
-0.0037428 -0.0033077 -0.0068726 0.0034044
-0.040044 0.026839 -0.33617 0.16089 -0.037673 0.034691 0.00021757 -0.0063077
-0.013438 0.0075022 -0.00015812 -0.0063551
0.014043 -0.0043291 -0.037584 0.034818 -0.073012 0.27391 -0.002152 0.0032833
-0.0021562 -0.0064725 -0.0014692 0.0015787
2.3047e-06 -0.003947 0.00030861 -0.0062943 -0.002179 0.0032915 -0.20398 0.20108
-0.043645 -0.0088627 0.024016 0.016334
-0.003809 -0.003401 -0.013699 0.0073407 -0.0020408 -0.0064725 -0.043665 -0.0088015
-0.17958 0.068488 -0.043714 0.00015395
-0.0069553 0.0033954 -3.9155e-05 -0.0061947 -0.0015964 0.0014337 0.023991 0.016219
-0.043741 0.00024905 -0.25015 0.087979
800000000 -0.1648 0.21613 -0.02245 0.016014 0.0060502 -0.01055 -0.0043828 -0.0023742
-0.0049648 0.0017409 0.0044348 0.00024389
-0.022521 0.015956 -0.34398 0.23176 -0.0092058 0.034181 -0.002185 0.0019944
-0.0013662 0.0021161 0.00079792 0.0054508
0.0060222 -0.010616 -0.0090829 0.034247 -0.034924 0.2993 0.00092504 0.0013906
-7.993e-05 0.0032743 -0.0018983 0.00062821
-0.00439 -0.0024365 -0.002247 0.0020397 0.0008921 0.0014231 -0.17519 0.22864
-0.028508 0.012722 0.014456 -0.01034
-0.0050003 0.0018661 -0.0013335 0.0020962 -8.8536e-05 0.0032467 -0.02851 0.012765
-0.22745 0.093972 -0.017485 0.020091
0.0045679 7.4919e-05 0.00079929 0.0055583 -0.0018294 0.00078521 0.014497 -0.010252
-0.017446 0.020061 -0.24689 0.13768
860000000 -0.13051 0.23627 -0.018244 0.030429 -0.0029944 -0.010478 -0.0018149 0.00046477
0.003853 0.0056953 -0.0040606 -0.0030081
-0.018217 0.03034 -0.2967 0.27612 0.0069796 0.034935 0.00021627 0.0022377
0.0037442 0.00115 0.0031166 0.0004156
-0.0030538 -0.010477 0.0071199 0.034959 0.012389 0.30863 -0.00053612 -0.00013492
0.0021109 -0.0012734 0.0017151 0.0041908
-0.001854 0.00055814 0.00023341 0.0022019 -0.0005149 -0.00013915 -0.13875 0.23927
-0.018054 0.017757 -0.0061163 -0.0087577
0.0039458 0.0055594 0.0037392 0.0011964 0.0021061 -0.0012244 -0.018026 0.01779
-0.17011 0.14928 -0.025641 0.017864
-0.0041172 -0.0028763 0.0031529 0.0004907 0.0016076 0.004151 -0.0061277 -0.0089245
-0.025573 0.017915 -0.19521 0.18399
920000000 -0.10792 0.25939 0.0043585 0.038597 -0.0093892 -0.0053801 -0.0020657 0.0014717
0.0016083 0.0019831 0.002919 -0.0016033
0.0043744 0.038583 -0.26977 0.2978 0.028171 0.023314 0.0014251 0.001092
0.0081119 3.9272e-05 0.004359 -0.00303
-0.0094364 -0.0053713 0.028282 0.023252 0.058044 0.31085 0.0019178 -0.00012382
0.0011759 -0.00026605 0.00080903 -0.001744
-0.0020773 0.0014723 0.0014249 0.0011422 0.0019166 -0.0001217 -0.11493 0.25655
-0.011964 0.03018 0.003807 -0.0069461
0.0016088 0.0019151 0.0080904 5.909e-05 0.001164 -0.00028288 -0.011889 0.030225
-0.16088 0.15201 -0.0025549 0.027042
0.0029106 -0.0017425 0.0044516 -0.0029844 0.0008442 -0.0017657 0.0038194 -0.006873
-0.0025887 0.027031 -0.20487 0.19819
980000000 -0.061788 0.28056 0.016276 0.030533 -0.0098897 0.0042669 0.0015715 0.0034216
0.0038653 -0.0014191 -0.0034512 -0.0024431
0.01622 0.030501 -0.21765 0.33394 0.033498 0.0058227 0.0020183 -0.00014904
0.0016667 -0.0060968 -0.00033761 -0.0024863
-0.0098696 0.0042751 0.033571 0.0057341 0.10406 0.30574 0.00065578 -0.0012074
0.00041952 -0.0017673 0.001337 -0.00022719
0.0015665 0.0034018 0.002028 -0.00018342 0.0006556 -0.0012065 -0.07705 0.2675
0.0067329 0.030057 -0.009415 -0.0071309
0.0038024 -0.0014747 0.0016072 -0.0061874 0.00040919 -0.001774 0.0067795 0.030046
-0.12869 0.18648 0.0058791 0.020458
-0.0033659 -0.0023975 -0.00034865 -0.0024781 0.0013199 -0.00022232 -0.0094326 -0.0071735
0.0058513 0.020478 -0.16216 0.24356
1040000000 -0.021458 0.2902 0.03297 0.019833 -0.0017221 0.0074067 0.0026083 0.00093915
0.00027543 -0.0033934 -3.8424e-05 -0.0017596
0.032927 0.019825 -0.18305 0.34814 0.03039 -0.014388 0.0015642 -0.0016268
-0.002288 -0.0028412 -0.0012173 -0.0032643
-0.0017188 0.0073899 0.030402 -0.014499 0.15036 0.2936 -0.00048067 -0.0015144
-0.0016129 -0.00098639 -0.00073344 -0.00099691
0.002598 0.00092529 0.0015754 -0.0016656 -0.00050565 -0.0015269 -0.050002 0.27771
0.019182 0.019134 -0.0027786 0.00078467
0.00027407 -0.0033643 -0.0023365 -0.0027738 -0.0016097 -0.00098165 0.019244 0.01911
-0.09593 0.19348 0.014029 0.018812
-1.6533e-05 -0.0017845 -0.0012734 -0.0032435 -0.00076677 -0.0010035 -0.0028162 0.00082503
0.014064 0.018743 -0.14184 0.26489
1100000000 0.023435 0.30044 0.036899 -0.0027939 0.0030479 0.0044492 0.0023826 -0.00082472
-0.0022471 -0.0030324 -0.0043089 -0.00025338
0.036867 -0.002732 -0.13979 0.36783 0.016227 -0.028136 2.2413e-05 -0.0017317
-0.0038217 -0.00088941 -0.0037772 -0.00058705
0.0030663 0.0044305 0.016134 -0.028228 0.19714 0.27453 -0.0019545 0.00016067
-0.0018311 0.00063204 -0.0012102 -0.00046417
0.0023863 -0.0008611 1.5592e-05 -0.0017587 -0.0019746 0.00015788 -0.010222 0.28327
0.025057 0.0057905 -0.0026414 -0.00016829
-0.0022914 -0.0030536 -0.0038775 -0.00083474 -0.0018452 0.0006218 0.02506 0.0057462
-0.076505 0.20817 0.020193 0.0089225
-0.0043201 -0.0001548 -0.0038288 -0.00059651 -0.0012415 -0.00044867 -0.0025822 -0.00018215
0.020181 0.0089667 -0.094952 0.29519
1160000000 0.074212 0.29753 0.025238 -0.020366 0.0031226 -0.00037636 -4.3229e-05 -0.0023689
-0.0041759 -0.0010523 -0.0013571 0.0041884
0.025267 -0.020338 -0.096225 0.37344 -0.0033621 -0.029744 -0.0015927 -0.0018469
-0.002847 0.0025838 -0.0016891 0.0018799
0.0031194 -0.0003895 -0.0034793 -0.029757 0.24086 0.24447 -0.00079392 0.0018083
-0.00051584 0.0019851 -0.0010369 0.00041674
-7.28e-05 -0.002323 -0.0015709 -0.0017734 -0.00081029 0.0017965 0.028868 0.28114
0.021748 -0.01048 -0.0037895 0.0051187
-0.0041784 -0.0010232 -0.0028373 0.0025951 -0.00051609 0.002001 0.021752 -0.010506
-0.042602 0.2162 0.019147 0.00011812
-0.001418 0.0041273 -0.0016519 0.0018208 -0.0010248 0.00045821 -0.0038262 0.0051603
0.019099 0.00010829 -0.048415 0.29933
1220000000 0.11788 0.28876 0.011829 -0.030554 -0.0012661 -0.0011118 0.00016628 -0.00094546
-0.0029599 0.002092 0.00097924 0.0022239
0.011828 -0.030478 -0.051646 0.38772 -0.017214 -0.021957 -0.0025899 0.00050607
5.7943e-06 0.0032148 -0.0008806 0.0021516
-0.0012704 -0.0011162 -0.017336 -0.021893 0.28029 0.20585 0.00081599 0.0018318
0.00053034 0.0012014 0.00023057 0.00072769
0.00015501 -0.00099055 -0.0026255 0.00049395 0.00081262 0.0018475 0.068851 0.27351
0.010918 -0.017326 0.0020045 0.0014896
-0.0029396 0.0021196 3.4384e-05 0.003237 0.00053961 0.0011936 0.010905 -0.017339
-0.019942 0.2268 0.014911 -0.013424
0.0009946 0.0022042 -0.00087968 0.002199 0.00022496 0.00073022 0.0020294 0.0014791
0.01491 -0.013423 -0.017741 0.31631
1280000000 0.1686 0.26934 -0.0073117 -0.02959 -0.0019591 0.0023047 -0.00083825 -0.0022661
-0.00091826 0.0033681 0.0027748 0.0013797
-0.007293 -0.029558 -0.0046741 0.3799 -0.024601 -0.00861 -0.00096448 0.0014665
0.0018713 0.0017698 0.00070843 0.0021382
-0.0019425 0.0023075 -0.024682 -0.0085139 0.31107 0.16242 0.0016861 -6.2776e-05
0.0011754 0.00017864 0.00033213 0.00021651
-0.0008366 -0.0022056 -0.00091118 0.0015294 0.0016747 -6.477e-05 0.10593 0.25795
0.00093895 -0.019614 -4.2692e-05 0.0005608
-0.00086405 0.0034118 0.0018811 0.0017549 0.001179 0.00018733 0.00090992 -0.019616
0.016692 0.23137 0.0034668 -0.016119
0.0027699 0.0013451 0.00077954 0.0021167 0.00032797 0.00024001 -6.782e-05 0.00054388
0.0034639 -0.016116 0.029581 0.31979
1340000000 0.20643 0.23769 -0.017636 -0.019837 0.00065885 0.0046117 -0.001951 -0.00093914
0.0014531 0.0029277 0.0019805 -0.0014073
-0.017586 -0.01983 0.035293 0.37264 -0.021926 0.004628 -6.0946e-05 0.002048
0.0021211 0.00071243 0.0012089 0.00078839
0.00068076 0.0046039 -0.021939 0.0047365 0.33299 0.11549 0.00099411 -0.0010373
0.00060183 -0.00063207 6.4245e-06 0.00030213
-0.0019512 -0.00096606 -8.885e-05 0.0020704 0.00098961 -0.0010339 0.13937 0.23822
-0.0089552 -0.016763 0.00087016 0.00068783
0.0014631 0.0029342 0.0021345 0.00071584 0.00061313 -0.00064707 -0.008996 -0.016748
0.046278 0.22812 -0.0039261 -0.014775
0.0019949 -0.0014253 0.0012107 0.00081589 8.5268e-06 0.00029898 0.00086165 0.0006963
-0.0039285 -0.014786 0.067837 0.31513
1400000000 0.24133 0.20113 -0.023988 -0.0080108 0.0053101 0.0033372 -0.0024213 0.00068679
0.0027039 0.0011445 0.00041464 -0.0017208
-0.02395 -0.0080082 0.073702 0.3602 -0.014887 0.013096 0.0013313 0.001283
0.0012784 -0.00088286 0.0012168 5.78e-05
0.0053291 0.0033115 -0.014849 0.013194 0.34644 0.062729 -4.4346e-05 -0.0016271
0.00019245 -0.00032652 0.00037613 0.00023488
-0.0024278 0.00074929 0.0013831 0.0012607 -5.9388e-05 -0.001636 0.16944 0.20968
-0.015084 -0.0095436 -0.00077218 -7.0728e-05
0.0027085 0.0011126 0.0012418 -0.00089255 0.00018931 -0.00031784 -0.015111 -0.0095138
0.079803 0.22529 -0.010696 -0.0092054
0.00042518 -0.0017078 0.0012295 -2.5017e-06 0.00037279 0.00022293 -0.00077323 -7.4167e-05
-0.010686 -0.0092154 0.11331 0.30539
1460000000 0.2653 0.15794 -0.020904 0.0047624 0.0057408 -0.0018006 -0.0015894 0.0018876
0.0023913 -0.00038442 -0.00019861 -0.0010021
-0.020883 0.0047564 0.10846 0.3382 -0.0054106 0.015933 0.0016789 0.00020413
0.00084866 -0.0013486 0.0012191 -0.00057268
0.0057313 -0.0018331 -0.0053425 0.015991 0.35336 0.0092023 -0.0013463 -0.0012142
0.00015597 -0.00018849 0.00083478 -0.00020283
-0.0015854 0.0018304 0.0016647 0.00020353 -0.0013245 -0.0012261 0.19652 0.18074
-0.016041 -0.0024007 -0.00071027 0.0021099
0.0024132 -0.00039448 0.00085577 -0.0013852 0.00015988 -0.00017469 -0.016048 -0.0023656
0.10977 0.21235 -0.012914 -0.002776
-0.00025388 -0.0009516 0.0012248 -0.00056179 0.00087381 -0.0002382 -0.00070948 0.0021097
-0.0129 -0.0028031 0.14638 0.28516
1520000000 0.2791 0.11676 -0.015063 0.010482 0.0035299 -0.004351 0.00018655 0.0027627
0.0022435 -0.0020448 -0.0012454 -7.55e-05
-0.015079 0.010443 0.14221 0.32409 0.0025105 0.013015 0.0016346 -0.00071526
-4.093e-05 -0.00099673 0.00037743 -0.0010659
0.0034892 -0.0043688 0.0025832 0.013025 0.34699 -0.046091 -0.0009773 -0.00017908
0.00073256 -0.0009118 0.00015322 -0.0002582
0.00020626 0.0028087 0.0016346 -0.00074493 -0.00098335 -0.00016729 0.22054 0.14257
-0.014853 0.0035315 0.0016988 0.00211
0.0022589 -0.0020591 -3.309e-05 -0.00098917 0.00073366 -0.00090115 -0.014843 0.0035683
0.13861 0.20032 -0.012528 0.0020519
-0.001208 -0.00011153 0.00035382 -0.0010861 0.00017054 -0.00024751 0.0017016 0.0021209
-0.012533 0.0020678 0.17932 0.26619
1580000000 0.28979 0.070868 -0.0081167 0.013845 -0.0010479 -0.0051969 0.0016363 0.0018884
-0.00023583 -0.0023941 -0.00020495 0.00035564
-0.0081289 0.013827 0.16979 0.29932 0.0059955 0.0075702 0.00054785 -0.0015394
-0.0004549 -0.00097039 -0.00015538 -0.00088935
-0.0010862 -0.0051956 0.0060522 0.0075426 0.32803 -0.10383 -0.0014542 0.00048136
-0.00043233 -0.0013474 0.00029808 -0.00056317
0.0016606 0.0018765 0.00053843 -0.0015361 -0.0014336 0.00048916 0.23494 0.10296
-0.010839 0.0083845 0.0023892 0.00081715
-0.00026403 -0.002392 -0.00045678 -0.00096589 -0.00041919 -0.0013595 -0.010827 0.0084139
0.16374 0.18352 -0.0096467 0.0083124
-0.00021791 0.00034857 -0.00015311 -0.00086887 0.00030792 -0.0005743 0.0024063 0.00081133
-0.0096544 0.0083027 0.21213 0.24008
1640000000 0.29274 0.029697 -0.0011063 0.012396 -0.0031739 -0.0026772 0.0028392 0.0010398
-0.00089808 -0.00171 -0.00040512 0.00056476
-0.0011279 0.012384 0.19919 0.27511 0.006143 0.0023659 -0.00051271 -0.0017914
-0.00088434 -0.0004266 -0.00053275 -0.00071675
-0.0031856 -0.0026651 0.0061691 0.0023362 0.30022 -0.15269 -0.00059293 0.0013456
-0.0011084 -0.00096005 -0.00028354 -0.00052797
0.0028197 0.0010543 -0.00053036 -0.0018029 -0.00060229 0.0013501 0.24783 0.054083
-0.006141 0.0091556 0.0026569 -0.00090742
-0.00091504 -0.0016832 -0.00089412 -0.00042936 -0.0011274 -0.00097911 -0.0061214 0.0091623
0.18769 0.1606 -0.0044347 0.010152
-0.00035861 0.00051983 -0.0005236 -0.00069216 -0.00027773 -0.00053707 0.0026242 -0.00091699
-0.0044565 0.010152 0.23826 0.21016
1700000000 0.28669 -0.015449 0.0023708 0.0093259 -0.0037995 0.00022936 0.0032152 -0.0013161
-0.0021335 -0.00048386 0.00062914 0.00031879
0.0023535 0.0093156 0.2177 0.24405 0.0034294 -0.00059381 -0.0014535 -0.00069756
-0.00076477 -0.00012244 -0.00090709 -0.00044776
-0.0037885 0.00024791 0.0034358 -0.00060426 0.25779 -0.19261 0.00027915 0.0014289
-0.0021045 -7.6332e-05 -0.00050563 -0.00077994
0.0032062 -0.0013261 -0.0014508 -0.00068927 0.00031182 0.0014259 0.2449 0.0037699
-0.0034054 0.0089819 0.0017098 -0.002279
-0.0021299 -0.00045525 -0.00075539 -0.0001361 -0.0020686 -9.5361e-05 -0.0033921 0.0090075
0.20642 0.14109 0.00045078 0.010456
0.00064363 0.00032901 -0.00089663 -0.00046793 -0.00052232 -0.00079705 0.001747 -0.0022911
0.00048573 0.01047 0.25592 0.1765
1760000000 0.27547 -0.064077 0.0044785 0.0058122 -0.0023448 0.0013094 0.001265 -0.0035178
-0.0013489 0.00078066 0.0002263 -0.00054041
0.0044661 0.0058027 0.24383 0.20487 0.00060715 -0.0021002 -0.001324 6.0424e-05
-0.0011945 0.00079288 -0.00061095 0.00036059
-0.0023335 0.0013255 0.000585 -0.0021099 0.2098 -0.22626 0.00089514 0.0011133
-0.0012075 0.001463 -0.0012817 -0.00061282
0.0012425 -0.0035321 -0.0013242 7.0311e-05 0.00090213 0.0011182 0.23624 -0.047913
-0.00046237 0.0077498 -0.00018825 -0.0027834
-0.0013283 0.00077188 -0.0011727 0.00081126 -0.0012222 0.0014634 -0.00043939 0.007736
0.2223 0.10709 0.0047688 0.0074468
0.00024762 -0.00053402 -0.00059321 0.00037122 -0.0012963 -0.00064349 -0.00023078 -0.0027759
0.0047365 0.0074399 0.26929 0.13951
1820000000 0.25215 -0.10136 0.0042678 0.0023579 -3.9248e-05 0.0026983 -0.001022 -0.0031249
-0.0010305 0.00097092 -0.00010956 -5.0615e-05
0.0042779 0.0023668 0.25456 0.17557 -0.0018915 -0.00021496 -0.0014739 0.00098672
-0.00019756 0.0012393 -0.00059573 0.00049225
-1.0411e-05 0.0026482 -0.0018934 -0.00022319 0.15908 -0.24201 0.0015467 0.00045681
-0.00023029 0.0023591 -0.0016584 0.00046943
-0.00099723 -0.0031478 -0.0014978 0.0010071 0.0015039 0.00047579 0.20655 -0.095603
0.00063863 0.0061171 -0.0017701 -0.0018732
-0.00098232 0.00096267 -0.00019704 0.0012591 -0.0002641 0.0023658 0.00065083 0.0061424
0.24056 0.078775 0.0056861 0.0035866
-0.00014776 -5.0282e-05 -0.00060859 0.00049339 -0.0016056 0.00052783 -0.0017614 -0.0018645
0.0057205 0.0035875 0.27291 0.10364
1880000000 0.2176 -0.14226 0.0017608 0.0002819 -0.00042085 0.0024105 -0.0029817 -0.0022849
-8.3609e-05 0.0016639 0.00016722 -0.00044136
0.0017672 0.00029414 0.25936 0.12929 -0.003764 0.0023567 -0.00028651 0.0018751
0.00046148 0.0015029 2.7695e-05 0.0010753
-0.00037731 0.0024093 -0.003755 0.0023617 0.10723 -0.25113 0.0018846 -0.00081854
0.0015905 0.0020296 -0.00093971 0.0015859
-0.0029774 -0.0022818 -0.00025583 0.0018778 0.0019211 -0.0008677 0.16567 -0.13612
0.00091127 0.004292 -0.002634 5.9728e-06
-5.3883e-05 0.0016856 0.00048126 0.0015128 0.0016196 0.0020078 0.00093407 0.0042864
0.24545 0.047556 0.0059491 0.00082845
0.00013421 -0.00042648 3.2709e-05 0.001067 -0.00099125 0.0015847 -0.0026399 -3.082e-06
0.0059144 0.00081892 0.27363 0.069719
1940000000 0.17901 -0.16868 -0.00025717 -0.0011629 0.0017337 0.0021611 -0.0039649 0.00041855
0.0011475 0.00091578 -0.00051805 -0.00049823
-0.00026178 -0.0011556 0.26087 0.098162 -0.0020556 0.0052484 0.001105 0.0014407
0.0019604 0.00066925 0.0010201 0.00037057
0.0017323 0.0021651 -0.0020216 0.0052737 0.062162 -0.24404 0.00072348 -0.0023421
0.0024388 0.00045807 0.00034104 0.0017095
-0.003945 0.00046292 0.0010944 0.0014376 0.00073863 -0.0023284 0.11348 -0.16668
-9.4257e-05 0.0032772 -0.001807 0.0016155
0.0011739 0.0008943 0.0019691 0.00066703 0.002444 0.00045762 -9.5498e-05 0.0032752
0.24922 0.0098986 0.0042243 -0.0028076
-0.00055638 -0.0005576 0.00098359 0.00032921 0.00034427 0.0017152 -0.0018002 0.0015972
0.0042323 -0.0028026 0.26315 0.033214
2000000000 0.13341 -0.18361 -0.0038583 0.0010607 0.0030921 0.0014564 -0.0021869 0.0037112
0.0010851 0.00048405 -0.00059681 0.00067457
-0.0038625 0.0010776 0.24766 0.062914 -0.00091376 0.0073667 0.0018407 0.00037012
0.001527 -0.0011725 0.00055791 6.7056e-05
0.0030936 0.0014471 -0.00086679 0.007389 0.019199 -0.23011 -0.0012456 -0.0016598
0.0020838 -0.0011492 0.0016864 0.0013928
-0.002173 0.0038297 0.0018614 0.00035662 -0.0012428 -0.0016703 0.059691 -0.17698
-0.001952 0.0034318 -0.00020683 0.0023414
0.0010923 0.00055422 0.001524 -0.0011937 0.0021273 -0.0011458 -0.001927 0.0034311
0.24507 -0.023013 0.00086501 -0.0036524
