!Keysight Technologies,M9804A,MY58100912,A.14.10.03
!Date: Thursday, April 27, 2023 10:28:33
!Correction: S11(C  6-Port  ) 
!S12(C  6-Port  ) 
!S13(C  6-Port  ) 
!S14(C  6-Port  ) 
!S15(C  6-Port  ) 
!S16(C  6-Port  ) 
!S21(C  6-Port  ) 
!S22(C  6-Port  ) 
!S23(C  6-Port  ) 
!S24(C  6-Port  ) 
!S25(C  6-Port  ) 
!S26(C  6-Port  ) 
!S31(C  6-Port  ) 
!S32(C  6-Port  ) 
!S33(C  6-Port  ) 
!S34(C  6-Port  ) 
!S35(C  6-Port  ) 
!S36(C  6-Port  ) 
!S41(C  6-Port  ) 
!S42(C  6-Port  ) 
!S43(C  6-Port  ) 
!S44(C  6-Port  ) 
!S45(C  6-Port  ) 
!S46(C  6-Port  ) 
!S51(C  6-Port  ) 
!S52(C  6-Port  ) 
!S53(C  6-Port  ) 
!S54(C  6-Port  ) 
!S55(C  6-Port  ) 
!S56(C  6-Port  ) 
!S61(C  6-Port  ) 
!S62(C  6-Port  ) 
!S63(C  6-Port  ) 
!S64(C  6-Port  ) 
!S65(C  6-Port  ) 
!S66(C  6-Port  ) 
!S6P File: Measurement: :
# Hz S  RI   R 50
500000000 -0.33067 -0.067558 -0.010083 -0.001425 -0.0089944 0.013107 -0.003897 0.012526
0.013941 0.0051079 -0.0041462 0.008581
-0.010087 -0.0013698 -0.41145 -0.075473 0.0088239 -0.010331 0.00088326 0.011883
0.00883 0.002893 0.0017758 0.013025
-0.0089628 0.013137 0.0087822 -0.010392 -0.26445 0.18954 0.0068147 0.0030305
-0.0019521 0.0090446 0.0003938 0.011599
-0.003848 0.01253 0.0009539 0.011914 0.0068485 0.0030272 -0.32917 0.036448
-0.020095 -0.0033013 0.017463 0.026566
0.013946 0.0046643 0.0087558 0.0029296 -0.001978 0.0092262 -0.020446 -0.0031985
-0.23324 -0.21867 -0.029083 0.0063407
-0.0038012 0.0086701 0.0018398 0.013073 0.0004275 0.011559 0.017504 0.026486
-0.029141 0.0063224 -0.26248 -0.14553
560000000 -0.31977 0.10184 -0.022095 -0.066798 -0.00045716 0.013656 0.0047512 0.011616
0.011583 0.0050714 0.011122 0.0097138
-0.02195 -0.066785 -0.37344 0.090649 -0.040875 -0.040215 0.014368 0.0042188
-0.011973 -0.0044348 0.0038857 -0.00043003
-0.00043267 0.013667 -0.041079 -0.040091 -0.18656 0.24237 -0.0006894 -0.0052041
0.017508 0.0075468 0.0080265 -0.0070249
0.0048069 0.011544 0.014405 0.0041814 -0.00066901 -0.0051693 -0.30722 0.12972
0.0060644 -0.024008 0.0045619 -0.021721
0.011501 0.0050298 -0.012056 -0.0044439 0.017587 0.0076352 0.0062409 -0.024113
-0.30866 -0.035691 0.011835 -0.05246
0.010913 0.0093711 0.0037809 -0.00032899 0.0077798 -0.0071181 0.0051483 -0.021324
0.01186 -0.052434 -0.3338 0.0077875
620000000 -0.27789 0.080514 -0.023434 0.0090258 0.0036973 0.009214 0.0082411 -0.004377
0.01147 -0.0012432 2.1982e-06 -0.002688
-0.023408 0.0090751 -0.40232 0.036468 -0.018498 0.00023444 -0.0015577 -0.0024477
0.01251 -0.0049524 0.0015744 -0.0036203
0.0037266 0.0092277 -0.018528 0.00028952 -0.15803 0.25173 -0.0012395 -0.0054842
-0.0025772 -0.002226 0.0095007 -0.0039812
0.0081957 -0.0043031 -0.0015244 -0.0024369 -0.0012367 -0.005456 -0.26485 0.14055
-0.038603 -0.021602 0.01225 0.028613
0.011973 -0.0016118 0.012598 -0.0050942 -0.0026656 -0.0023566 -0.03875 -0.021999
-0.22522 -0.070414 -0.040374 0.011606
0.00016396 -0.0026503 0.0014737 -0.003594 0.0092531 -0.0039832 0.011998 0.028974
-0.040326 0.011621 -0.24836 -0.032938
680000000 -0.24395 0.17497 -0.026281 -0.015176 0.0047936 0.0057196 0.001704 -0.0073877
-0.0016293 -0.012037 0.0063087 -0.0066424
-0.026232 -0.015219 -0.39171 0.13859 -0.032729 -0.0028834 -0.0015159 -0.00037032
-0.0016574 -0.0097034 -0.0011932 -0.0018897
0.0047867 0.0057054 -0.032772 -0.0027984 -0.10841 0.27389 -0.00086227 -0.00016066
-0.0016122 0.00045638 -0.002904 -0.0094622
0.0016207 -0.0074115 -0.0015265 -0.00037314 -0.00086465 -0.00017208 -0.22247 0.19122
-0.022861 -0.0084149 -0.0094082 -0.011883
-0.001729 -0.011929 -0.0016 -0.0097219 -0.0015688 0.00050161 -0.022801 -0.0082066
-0.28238 0.031744 -0.0062671 -0.0069915
0.0061309 -0.0067271 -0.0010476 -0.0018435 -0.0029225 -0.0094601 -0.0095339 -0.011486
-0.00626 -0.0070033 -0.26247 0.077081
740000000 -0.19728 0.16788 -0.040885 0.026779 0.014209 -0.0043836 -4.4721e-05 -0.0047077
-0.0047819 -0.0024331 -0.0058095 0.0025234
-0.04096 0.026701 -0.33771 0.15792 -0.037932 0.034948 0.00037889 -0.0061926
-0.013181 0.0077999 -0.00093798 -0.0062882
0.014236 -0.0044142 -0.037922 0.035072 -0.075469 0.27205 -0.0020513 0.0034284
-0.0017927 -0.0059044 -0.0013864 0.0011351
-3.2292e-05 -0.0047571 0.0003641 -0.0061629 -0.0020481 0.0034246 -0.20528 0.19897
-0.043302 -0.010151 0.022936 0.016895
-0.0050268 -0.0020049 -0.013083 0.0076983 -0.0016497 -0.0057268 -0.043234 -0.010132
-0.17989 0.064459 -0.043737 -0.0021376
-0.0059303 0.0023288 -0.00097951 -0.0061962 -0.0016195 0.0012082 0.022647 0.016843
-0.043726 -0.0021456 -0.25529 0.083279
800000000 -0.16591 0.21441 -0.022566 0.016137 0.0063097 -0.010468 -0.0044769 -0.0022962
-0.0044367 0.0018423 0.0045697 0.00020381
-0.022573 0.016145 -0.3458 0.22976 -0.0093323 0.034654 -0.0022064 0.0020074
-0.00067319 0.0026886 0.00093908 0.0050566
0.0062956 -0.010478 -0.0092398 0.034687 -0.036605 0.2982 0.00092783 0.0012986
7.3353e-05 0.0033079 -0.0018393 0.00076146
-0.0045034 -0.002273 -0.0022229 0.0020203 0.00092165 0.001313 -0.17637 0.22685
-0.028919 0.012825 0.014666 -0.010444
-0.0043677 0.001993 -0.00070949 0.0026772 0.00016474 0.0032845 -0.028897 0.012714
-0.22865 0.089575 -0.017896 0.019997
0.0045441 0.00043243 0.0011409 0.0052297 -0.0017853 0.00082367 0.014621 -0.010227
-0.017901 0.019949 -0.2483 0.13235
860000000 -0.1329 0.23441 -0.018917 0.030313 -0.0029193 -0.010567 -0.00209 0.00041061
0.0036265 0.0052343 -0.0036545 -0.0033923
-0.018908 0.030318 -0.29894 0.27399 0.006929 0.035263 4.3443e-05 0.0020162
0.0032066 0.00067253 0.0034442 -2.1953e-05
-0.0029566 -0.010564 0.0070621 0.035301 0.01065 0.30821 -0.00061561 -0.00026949
0.0022717 -0.0017664 0.0015674 0.004206
-0.0020713 0.00039337 -1.5897e-05 0.0020147 -0.00061187 -0.00027971 -0.14062 0.23818
-0.018953 0.017675 -0.0065451 -0.009252
0.0036924 0.0050785 0.0031922 0.0006017 0.0022536 -0.0018267 -0.018821 0.017698
-0.17362 0.14342 -0.025837 0.017006
-0.0039939 -0.0033815 0.0035212 0.00013743 0.0015547 0.004324 -0.0066557 -0.0094052
-0.025824 0.016953 -0.19744 0.17912
920000000 -0.11001 0.2585 0.003925 0.039211 -0.0095304 -0.0052755 -0.0020538 0.0017099
0.00071604 0.0019548 0.0028859 -0.0014763
0.0039692 0.039209 -0.27188 0.29599 0.028207 0.023719 0.0012736 0.0010054
0.0075108 -0.00016541 0.0040517 -0.0029192
-0.0095498 -0.0052484 0.02831 0.023673 0.056663 0.31071 0.0017666 4.8914e-05
0.00072274 -0.00028723 0.00083569 -0.0015628
-0.0020219 0.001738 0.0012693 0.0010002 0.0017731 5.0105e-05 -0.11657 0.25593
-0.012351 0.031003 0.0040801 -0.0069595
0.00070659 0.0017943 0.0075238 -0.00017946 0.00070103 -0.00026534 -0.012311 0.031046
-0.16482 0.14916 -0.0027754 0.028159
0.0029391 -0.0013225 0.0040459 -0.0028853 0.00082136 -0.0015883 0.0042216 -0.0069833
-0.0027869 0.028172 -0.20789 0.19408
980000000 -0.064082 0.27998 0.016017 0.031058 -0.0098779 0.0044231 0.0017361 0.0039283
0.0040268 -0.0011655 -0.0033387 -0.0024824
0.015994 0.031047 -0.21963 0.3328 0.03381 0.006097 0.0019707 -5.5585e-05
0.0017531 -0.0058618 -0.00015353 -0.0027827
-0.0098819 0.0044435 0.033877 0.0060168 0.10297 0.30553 0.00065596 -0.0010892
0.00041045 -0.0017634 0.0014336 -0.00037016
0.0017512 0.0039164 0.0019833 -5.8427e-05 0.00065652 -0.001085 -0.078358 0.26742
0.0071225 0.030788 -0.0094268 -0.0077539
0.0040293 -0.0011168 0.0017164 -0.005845 0.0004133 -0.0017207 0.0071868 0.030709
-0.1312 0.18381 0.0061668 0.019962
-0.003335 -0.0024636 -0.00012868 -0.0028538 0.0014591 -0.00039796 -0.0094337 -0.0076613
0.0061293 0.019989 -0.16668 0.24029
1040000000 -0.023418 0.28998 0.033338 0.020488 -0.0016321 0.0076411 0.0027318 0.00089457
0.00053561 -0.0036514 -0.00013723 -0.0016739
0.033299 0.020497 -0.18495 0.34744 0.030776 -0.014291 0.0017085 -0.0016526
-0.0023233 -0.00263 -0.0011648 -0.0029286
-0.0016232 0.0076252 0.03078 -0.014394 0.14918 0.29362 -0.0004159 -0.0016253
-0.0014978 -0.0010509 -0.0005085 -0.0011084
0.0027468 0.00090124 0.0016596 -0.0016713 -0.00041246 -0.0016331 -0.051305 0.27782
0.019207 0.019676 -0.0021964 0.00096924
0.00053432 -0.0036268 -0.002451 -0.0025946 -0.0015037 -0.00099005 0.019307 0.019597
-0.09973 0.19112 0.014531 0.019857
-0.00013236 -0.0017295 -0.0011173 -0.0029364 -0.00050912 -0.0011631 -0.0022062 0.0010639
0.014538 0.019874 -0.14522 0.26175
1100000000 0.021442 0.30014 0.037286 -0.0025224 0.0032243 0.0044158 0.0023736 -0.0011056
-0.002275 -0.0030305 -0.0041682 -0.0003482
0.037289 -0.0024999 -0.14149 0.36707 0.016397 -0.028325 -4.4151e-06 -0.001872
-0.0036798 -0.00090635 -0.0036632 -0.00067721
0.0032368 0.0044012 0.016332 -0.028406 0.19618 0.27461 -0.0019138 0.00018595
-0.0017685 0.00059711 -0.00126 -0.00061171
0.0023728 -0.0011047 -2.7683e-05 -0.0018973 -0.0019107 0.00018576 -0.010889 0.2835
0.025324 0.006147 -0.0026846 3.781e-05
-0.0022511 -0.0030448 -0.0037196 -0.00094666 -0.0018014 0.00059945 0.025432 0.0061106
-0.079683 0.20548 0.019601 0.0098035
-0.0042918 -0.00023544 -0.0036828 -0.00060398 -0.0012336 -0.0006108 -0.0027077 -1.5115e-05
0.019576 0.0098298 -0.099271 0.29399
1160000000 0.072281 0.29741 0.025768 -0.020211 0.0034313 -0.00047691 -0.00017193 -0.0026255
-0.004126 -0.0010575 -0.0013213 0.004315
0.025799 -0.020178 -0.098047 0.37267 -0.0031641 -0.029893 -0.0015305 -0.0017073
-0.0026784 0.0027388 -0.001704 0.0019123
0.0034227 -0.00049612 -0.0032733 -0.029887 0.23962 0.24465 -0.00074106 0.0018084
-0.00043303 0.0018502 -0.0011386 0.00030239
-0.00016353 -0.0026044 -0.0015327 -0.0017336 -0.00074097 0.0018201 0.028212 0.28119
0.021988 -0.010468 -0.0036193 0.0053809
-0.004155 -0.001021 -0.0027005 0.0027157 -0.00044833 0.0019259 0.021908 -0.010417
-0.045855 0.21524 0.019302 0.00012144
-0.0012224 0.0042534 -0.0016766 0.0019997 -0.0011121 0.00027476 -0.0035562 0.0053354
0.019307 0.00013048 -0.052858 0.29783
1220000000 0.11627 0.28933 0.012438 -0.030651 -0.0011942 -0.0013918 6.0399e-05 -0.00093803
-0.0028659 0.0022592 0.0012277 0.0021515
0.012464 -0.030625 -0.053223 0.38751 -0.017159 -0.022109 -0.0025998 0.00053334
7.8964e-05 0.0031394 -0.00076126 0.0019414
-0.0011999 -0.0013903 -0.017268 -0.022058 0.27943 0.20656 0.00088357 0.0016306
0.00064672 0.001232 0.00020817 0.00066313
4.3147e-05 -0.00094625 -0.002598 0.00053487 0.00087779 0.0016271 0.068443 0.27384
0.011247 -0.017291 0.0021447 0.0016712
-0.0028674 0.0023015 8.489e-05 0.0031562 0.00063333 0.0012024 0.011232 -0.017355
-0.023339 0.22649 0.015023 -0.013095
0.0011642 0.0021165 -0.00075706 0.0019396 0.00021319 0.00070823 0.0021301 0.0016934
0.015045 -0.01311 -0.022433 0.31619
1280000000 0.16721 0.26971 -0.0069676 -0.029952 -0.0019851 0.0020045 -0.00088564 -0.0020368
-0.00079638 0.0034164 0.0026542 0.0015378
-0.0069454 -0.029921 -0.0060844 0.37953 -0.024579 -0.0086853 -0.00090126 0.0015021
0.0017603 0.0017002 0.0006817 0.0022466
-0.0019717 0.0020214 -0.024659 -0.0085991 0.31046 0.1629 0.0016303 -0.00012281
0.0011099 0.00024309 0.00037669 0.00038926
-0.00089071 -0.0020355 -0.00088732 0.0015105 0.0016336 -0.00011876 0.10544 0.25767
0.0011388 -0.019888 -6.9137e-05 0.0002512
-0.00078125 0.0034648 0.0017595 0.0017223 0.0011501 0.00028069 0.0011535 -0.019879
0.013746 0.23089 0.0036577 -0.0158
0.0026481 0.0014541 0.00073964 0.002201 0.00036299 0.00035946 -9.854e-05 0.00018375
0.0036643 -0.015777 0.026378 0.31933
1340000000 0.20492 0.23836 -0.017468 -0.020362 0.00046323 0.0043972 -0.0018684 -0.00093509
0.0015339 0.0027865 0.0018551 -0.0015349
-0.017433 -0.020361 0.03354 0.37247 -0.021913 0.0045527 -8.1124e-05 0.0020191
0.0019944 0.00076201 0.0011793 0.00088174
0.00048037 0.0044007 -0.021921 0.0046555 0.33257 0.11608 0.00088997 -0.00099903
0.00063194 -0.00052825 5.0359e-05 0.00026495
-0.0018759 -0.0009233 -7.6385e-05 0.0019997 0.00088492 -0.00098472 0.13874 0.23797
-0.0087623 -0.017009 0.0011327 0.00042357
0.001586 0.0027688 0.0019888 0.00073519 0.00059483 -0.00053192 -0.0087946 -0.01696
0.043612 0.22821 -0.0036477 -0.014627
0.0018006 -0.0015499 0.0011912 0.00087943 2.8533e-05 0.00028626 0.0012196 0.00049087
-0.0036371 -0.014634 0.064088 0.31624
1400000000 0.24015 0.20166 -0.024139 -0.0085505 0.0050457 0.0033367 -0.0022567 0.00068593
0.0027265 0.0010324 0.00031605 -0.0016132
-0.024114 -0.0085454 0.072334 0.35995 -0.014897 0.012942 0.001285 0.0012962
0.0011929 -0.00081769 0.0011664 0.00010713
0.0050552 0.0033209 -0.014854 0.013039 0.3464 0.062988 -9.8751e-05 -0.0014968
0.00011301 -0.00032716 0.00047738 0.00021755
-0.0022414 0.0006982 0.0012978 0.0012941 -0.00010062 -0.0014961 0.16879 0.20935
-0.015138 -0.0098687 -0.00091429 -0.00015322
0.0026821 0.0010403 0.0011942 -0.00084755 0.00014707 -0.00033085 -0.015174 -0.0098518
0.077863 0.22535 -0.010496 -0.0095511
0.00036768 -0.0016477 0.001179 0.00011989 0.00045365 0.00024489 -0.00093596 -0.00014064
-0.010487 -0.0095782 0.10964 0.30646
1460000000 0.26381 0.15846 -0.021262 0.0044632 0.005553 -0.0016842 -0.0015761 0.0017939
0.0022981 -0.00042164 -0.00032242 -0.0010451
-0.021252 0.0044471 0.10665 0.33804 -0.0054974 0.01586 0.0016418 0.00022371
0.00091234 -0.0012861 0.001232 -0.00057576
0.0055513 -0.0017004 -0.0054261 0.0159 0.35292 0.0092912 -0.0012299 -0.0010995
0.00022745 -0.00018467 0.00081552 -0.00021309
-0.0015719 0.0017943 0.0016423 0.00022527 -0.0012196 -0.0011059 0.19552 0.18049
-0.01604 -0.0026045 -0.00086595 0.0020258
0.0022948 -0.00041904 0.000912 -0.001293 0.00026065 -0.00015261 -0.01599 -0.0025695
0.10719 0.21262 -0.012372 -0.0030785
-0.00031055 -0.00098004 0.0012216 -0.00058297 0.0008109 -0.00028484 -0.00089908 0.0019948
-0.012362 -0.0030822 0.14312 0.2864
1520000000 0.27772 0.11781 -0.015546 0.010382 0.0033571 -0.0041868 0.0002023 0.0026798
0.0023672 -0.0020029 -0.0011243 -0.00010648
-0.015547 0.010368 0.14052 0.32441 0.0023562 0.012982 0.0017043 -0.00065317
6.0817e-05 -0.00096603 0.00034226 -0.0010546
0.0033475 -0.0042061 0.0024216 0.012981 0.34667 -0.046105 -0.00082889 -0.00024026
0.00069904 -0.00093897 0.00013408 -9.7464e-05
0.00021319 0.002678 0.0016976 -0.00066099 -0.00081822 -0.000243 0.21942 0.14278
-0.015048 0.00341 0.0015012 0.0021567
0.0023503 -0.002007 6.2153e-05 -0.00098324 0.00072457 -0.00095476 -0.015083 0.0034693
0.13627 0.20065 -0.012466 0.0018334
-0.0011566 -8.9904e-05 0.00032567 -0.0010669 0.0001261 -9.275e-05 0.001564 0.0021583
-0.01247 0.0018238 0.17691 0.26817
1580000000 0.28823 0.071875 -0.0085131 0.013965 -0.0009756 -0.0049489 0.0015816 0.0018247
-0.00030146 -0.0023387 -0.00022038 0.00044914
-0.0085131 0.013943 0.16812 0.29958 0.0059048 0.007541 0.00060598 -0.0015247
-0.00047933 -0.0010759 -0.00025179 -0.00075227
-0.00099205 -0.004952 0.0059627 0.0075165 0.3276 -0.10393 -0.0014467 0.00043176
-0.00032392 -0.001338 0.00021215 -0.00060657
0.0015983 0.0018224 0.00060299 -0.0015309 -0.0014513 0.00042516 0.23389 0.10327
-0.010947 0.0083168 0.0024156 0.00086995
-0.00031557 -0.0023589 -0.00050328 -0.0010733 -0.00034747 -0.0013298 -0.010904 0.0083241
0.16145 0.18361 -0.0095841 0.0079689
-0.00023353 0.00041649 -0.00026748 -0.00076014 0.00020827 -0.00064559 0.0023648 0.00085399
-0.0095839 0.007976 0.20992 0.24198
1640000000 0.29122 0.031346 -0.0013765 0.012662 -0.0029671 -0.0026038 0.002799 0.00094019
-0.00070078 -0.0017408 -0.00034411 0.00050834
-0.0013935 0.012658 0.19737 0.27591 0.0059748 0.0024362 -0.00048355 -0.0019055
-0.00084195 -0.00050614 -0.00051507 -0.00067748
-0.002977 -0.0025867 0.0059935 0.0023956 0.29899 -0.15254 -0.00073172 0.0012241
-0.0010841 -0.00096206 -7.6212e-05 -0.00049726
0.0027973 0.00094022 -0.00049314 -0.0019075 -0.00072138 0.0012188 0.24653 0.054961
-0.0064594 0.0090406 0.0025344 -0.00077037
-0.00072641 -0.0017118 -0.00083835 -0.00049826 -0.0010885 -0.00096672 -0.0064568 0.0090744
0.18494 0.16125 -0.0044891 0.010035
-0.00030643 0.00050574 -0.00050991 -0.0006776 -0.00010741 -0.00048787 0.0025803 -0.0007561
-0.0044741 0.010034 0.23613 0.21236
1700000000 0.28595 -0.013532 0.0021807 0.0096781 -0.0036918 8.6861e-05 0.0030723 -0.0013007
-0.0021868 -0.00061332 0.0007077 0.00043071
0.0021619 0.0096684 0.21624 0.24498 0.0033601 -0.00052369 -0.0015017 -0.00077138
-0.00075475 -0.00017145 -0.00085365 -0.00044765
-0.0036849 0.00010079 0.0033547 -0.00054399 0.25708 -0.19213 0.00011979 0.0014742
-0.0020135 -0.00024229 -0.0005003 -0.00077705
0.0030698 -0.0013076 -0.0015056 -0.00076473 8.0915e-05 0.0014782 0.24436 0.0050328
-0.0035505 0.0090782 0.0017307 -0.0022631
-0.0021871 -0.00065372 -0.00077946 -0.00018681 -0.0020982 -0.00021541 -0.0035638 0.0091189
0.20383 0.142 0.00049954 0.010175
0.00060972 0.00038544 -0.00087857 -0.00043942 -0.00043888 -0.00075182 0.0017321 -0.0022236
0.00049694 0.010191 0.25429 0.17877
1760000000 0.27495 -0.062151 0.0045001 0.0062577 -0.0024316 0.0012717 0.0012904 -0.003419
-0.0013326 0.00065573 0.0003222 -0.00061775
0.0044854 0.0062557 0.24226 0.20602 0.00048725 -0.0020896 -0.0013456 3.5266e-05
-0.0011595 0.00076644 -0.00055574 0.00035276
-0.002417 0.0012881 0.00047311 -0.0021027 0.20896 -0.22579 0.0010519 0.0011188
-0.0011778 0.00138 -0.001213 -0.00059092
0.0012711 -0.0034296 -0.0013462 3.2274e-05 0.0010615 0.0010901 0.23572 -0.046726
-0.00063515 0.007935 -9.2253e-05 -0.002641
-0.0013477 0.00068906 -0.0011486 0.0007952 -0.0011403 0.0013411 -0.0005888 0.0078716
0.21939 0.10836 0.0046192 0.0072639
0.00041556 -0.00063142 -0.00052812 0.00032953 -0.0013085 -0.00053917 -0.00013713 -0.0026353
0.0046411 0.007247 0.26787 0.14124
1820000000 0.25233 -0.099433 0.0045575 0.0025877 1.5987e-05 0.0025643 -0.001006 -0.003196
-0.0011623 0.00094496 -0.00024836 -0.00017497
0.004567 0.0025803 0.2536 0.17713 -0.0018223 -0.00030697 -0.0015252 0.00096793
-0.0001916 0.0012063 -0.00062741 0.00038558
1.9648e-05 0.0025521 -0.0018253 -0.000306 0.15861 -0.24138 0.0015466 0.00069197
-0.00034714 0.0022887 -0.0017743 0.00010207
-0.0010222 -0.0031875 -0.001519 0.00098673 0.0015415 0.0006817 0.20681 -0.094006
0.00053902 0.0064271 -0.001746 -0.0017985
-0.0011483 0.00095202 -0.00018605 0.0012109 -0.00033468 0.0023369 0.00057513 0.0065495
0.23797 0.08084 0.0055431 0.0033588
-0.0002564 -0.0001479 -0.00062641 0.00040264 -0.0017248 3.8428e-05 -0.0017059 -0.0018566
0.005557 0.0033617 0.27171 0.10589
1880000000 0.21827 -0.14096 0.0022364 0.0003829 -0.00030628 0.0024308 -0.0029715 -0.0022965
-0.00020155 0.0017801 0.0001171 -0.00058238
0.0022358 0.0003817 0.2587 0.13086 -0.0038096 0.0024401 -0.00035421 0.0018842
0.00045296 0.0014377 8.9092e-05 0.00096911
-0.00029424 0.002428 -0.0037934 0.0024455 0.10651 -0.25037 0.0020534 -0.00093507
0.0015882 0.0019701 -0.00098989 0.0016077
-0.0029954 -0.0022736 -0.00033211 0.0018852 0.0020405 -0.00091249 0.16631 -0.13518
0.0009863 0.0045436 -0.0025364 0.00016838
-0.00019179 0.0017786 0.00043201 0.0014282 0.0015409 0.0020097 0.00097226 0.0045135
0.24304 0.049915 0.0056116 0.00090783
0.00013661 -0.00055163 0.00012106 0.0010156 -0.00093742 0.0016323 -0.0026103 0.00025693
0.0056133 0.00090375 0.27268 0.071388
1940000000 0.17961 -0.16698 4.978e-05 -0.0012379 0.0017058 0.0019849 -0.0039694 0.00047997
0.001166 0.00098351 -0.00063485 -0.0004154
5.8032e-05 -0.001248 0.26043 0.099906 -0.0020233 0.005341 0.0010965 0.0014804
0.0019465 0.00063974 0.00084635 0.00026785
0.0017368 0.0019921 -0.001987 0.0053537 0.061633 -0.24283 0.00077945 -0.0023593
0.0023742 0.00052037 0.00019711 0.0017258
-0.0039336 0.00048263 0.0010962 0.001478 0.00075585 -0.0023627 0.11412 -0.16589
2.7733e-05 0.0034452 -0.0017889 0.0014701
0.0012203 0.0010067 0.0019444 0.00060877 0.0024014 0.00049903 9.3643e-06 0.0034529
0.24709 0.012891 0.0040676 -0.0028833
-0.00062321 -0.00037067 0.00088177 0.00029198 0.00023149 0.001749 -0.001772 0.0013989
0.0040611 -0.002887 0.26237 0.035579
2000000000 0.1346 -0.18279 -0.0036331 0.0008527 0.0030049 0.00139 -0.0025036 0.0037266
0.0010488 0.00035627 -0.0005691 0.00038999
-0.0036162 0.00084872 0.24783 0.064379 -0.00090843 0.0074274 0.0017921 0.00034547
0.0014226 -0.0011818 0.00041204 6.7511e-05
0.003014 0.0013777 -0.00087122 0.0074432 0.019075 -0.22916 -0.0015049 -0.0016483
0.0020622 -0.0012254 0.0015109 0.0014092
-0.0024994 0.0037748 0.0017865 0.00034256 -0.0015091 -0.0016911 0.060764 -0.17658
-0.0014563 0.0034758 -7.8681e-05 0.0022638
0.0010056 0.0003793 0.0013804 -0.0011443 0.0020455 -0.0012021 -0.0014593 0.0034865
0.24404 -0.019791 0.00054189 -0.0036133
