!Keysight Technologies,M9804A,MY58100912,A.14.10.03
!Date: Thursday, April 27, 2023 10:28:33
!Correction: S11(C  6-Port  ) 
!S12(C  6-Port  ) 
!S13(C  6-Port  ) 
!S14(C  6-Port  ) 
!S15(C  6-Port  ) 
!S16(C  6-Port  ) 
!S21(C  6-Port  ) 
!S22(C  6-Port  ) 
!S23(C  6-Port  ) 
!S24(C  6-Port  ) 
!S25(C  6-Port  ) 
!S26(C  6-Port  ) 
!S31(C  6-Port  ) 
!S32(C  6-Port  ) 
!S33(C  6-Port  ) 
!S34(C  6-Port  ) 
!S35(C  6-Port  ) 
!S36(C  6-Port  ) 
!S41(C  6-Port  ) 
!S42(C  6-Port  ) 
!S43(C  6-Port  ) 
!S44(C  6-Port  ) 
!S45(C  6-Port  ) 
!S46(C  6-Port  ) 
!S51(C  6-Port  ) 
!S52(C  6-Port  ) 
!S53(C  6-Port  ) 
!S54(C  6-Port  ) 
!S55(C  6-Port  ) 
!S56(C  6-Port  ) 
!S61(C  6-Port  ) 
!S62(C  6-Port  ) 
!S63(C  6-Port  ) 
!S64(C  6-Port  ) 
!S65(C  6-Port  ) 
!S66(C  6-Port  ) 
!S6P File: Measurement: :
# Hz S  RI   R 50
500000000 -0.33135 -0.063679 -0.0096765 -0.00081321 -0.0086026 0.01283 -0.0035462 0.012018
0.012922 0.0055021 -0.0034022 0.0080478
-0.0097026 -0.001006 -0.41195 -0.07213 0.0086919 -0.010715 0.002064 0.012499
0.0081438 0.002991 0.0021595 0.014062
-0.0086588 0.01281 0.008652 -0.01068 -0.26481 0.1914 0.0069615 0.0035884
-0.0020109 0.0085726 0.00035588 0.012192
-0.003438 0.01215 0.0020247 0.012478 0.0069291 0.0035977 -0.32937 0.038486
-0.019279 -0.0045204 0.018003 0.026639
0.012774 0.0055758 0.0082013 0.0028612 -0.0020457 0.0085068 -0.018944 -0.0046532
-0.23475 -0.2152 -0.027353 0.0047668
-0.0031958 0.0079728 0.0022275 0.014233 0.00029636 0.012257 0.017861 0.026842
-0.027302 0.0047644 -0.2638 -0.13946
560000000 -0.31908 0.1033 -0.021742 -0.067221 -0.0001459 0.013601 0.0046759 0.011728
0.010693 0.0048752 0.010868 0.009147
-0.021802 -0.067314 -0.37356 0.092355 -0.040924 -0.039848 0.013748 0.0040629
-0.011548 -0.0054419 0.0034616 -6.8721e-05
-3.7609e-05 0.013605 -0.040984 -0.039822 -0.1863 0.24366 -0.00065985 -0.0047582
0.018418 0.0068809 0.0074996 -0.0062275
0.0046775 0.011621 0.013824 0.0040191 -0.00074121 -0.0046606 -0.30684 0.12929
0.0063544 -0.023531 0.0049316 -0.021897
0.010695 0.0048728 -0.011871 -0.0054834 0.018757 0.0066722 0.0056699 -0.023675
-0.30964 -0.031187 0.010362 -0.051333
0.010977 0.0092149 0.0036654 1.5438e-05 0.0072764 -0.0057364 0.0052681 -0.022657
0.010168 -0.05122 -0.33133 0.011793
620000000 -0.2785 0.083129 -0.023509 0.0087641 0.0033194 0.009502 0.008576 -0.0045844
0.011416 -0.0020901 0.00077578 -0.0020385
-0.023305 0.0088436 -0.40232 0.039193 -0.018403 0.00016932 -0.0017697 -0.0019161
0.01222 -0.0057893 0.00090481 -0.0029084
0.0034476 0.009501 -0.018415 0.00021773 -0.15737 0.25317 -0.00070823 -0.005409
-0.003693 -0.0023914 0.0098862 -0.0036725
0.008655 -0.0044858 -0.0017962 -0.0019096 -0.0007297 -0.0054079 -0.26405 0.1402
-0.039295 -0.02011 0.013725 0.027261
0.011321 -0.0021204 0.01218 -0.0058368 -0.003634 -0.0023604 -0.039046 -0.019734
-0.22516 -0.067512 -0.043554 0.012757
0.00075622 -0.0021339 0.00068014 -0.0028703 0.0097172 -0.003545 0.013947 0.026964
-0.043628 0.012726 -0.24717 -0.027711
680000000 -0.2429 0.1763 -0.026338 -0.0152 0.0047529 0.0055955 0.00099911 -0.0071301
-0.0013281 -0.011376 0.005664 -0.0074318
-0.026381 -0.015177 -0.39109 0.14109 -0.03262 -0.0027022 -0.0017597 -0.00028616
-0.0013405 -0.0091914 -0.00060901 -0.0022028
0.0046435 0.0056111 -0.032665 -0.002619 -0.10742 0.27558 -0.00096046 3.002e-05
-0.0012156 0.00060862 -0.0026001 -0.0092504
0.00091715 -0.0072484 -0.0017232 -0.00031783 -0.00086498 -1.1539e-05 -0.2204 0.19262
-0.023536 -0.0074481 -0.0093543 -0.011644
-0.0013474 -0.011383 -0.0013423 -0.009277 -0.0012997 0.00047484 -0.02363 -0.0074785
-0.28043 0.03533 -0.0069606 -0.0077775
0.0056951 -0.0074875 -0.00067853 -0.0022131 -0.00254 -0.0093545 -0.0087867 -0.011642
-0.0070076 -0.007791 -0.26255 0.08017
740000000 -0.196 0.16889 -0.040502 0.026409 0.013879 -0.004231 0.00035075 -0.0041117
-0.0046981 -0.0030574 -0.0062796 0.0032096
-0.040485 0.026252 -0.33692 0.16064 -0.038037 0.034186 6.4778e-05 -0.0058321
-0.012655 0.0069758 -0.00085651 -0.0060608
0.013856 -0.0042772 -0.037912 0.034259 -0.073481 0.27366 -0.001947 0.0033993
-0.002033 -0.0059636 -0.0015626 0.0010118
0.00038538 -0.0041579 2.031e-05 -0.0058271 -0.0020428 0.0033782 -0.20427 0.20064
-0.043123 -0.010003 0.023013 0.016624
-0.0047415 -0.0029527 -0.012225 0.0068187 -0.0017623 -0.0058208 -0.042809 -0.009813
-0.18274 0.0674 -0.042315 -0.00041846
-0.006422 0.0032281 -0.0013381 -0.0059943 -0.0017169 0.0010165 0.022736 0.016665
-0.042324 -0.00042145 -0.25202 0.085474
800000000 -0.16571 0.21507 -0.022856 0.015432 0.0058239 -0.010585 -0.0044744 -0.002732
-0.0045207 0.0018974 0.0043745 0.00034915
-0.022746 0.015565 -0.34441 0.23122 -0.0093157 0.033957 -0.0020588 0.0017586
-0.00092435 0.0020951 0.0010415 0.0053981
0.0058484 -0.010423 -0.0092084 0.034025 -0.035116 0.29906 0.00093491 0.0011598
0.00016125 0.0032839 -0.0018464 0.00070047
-0.0045921 -0.002604 -0.0020731 0.0017833 0.0009738 0.0011577 -0.1757 0.22782
-0.028135 0.012767 0.013955 -0.010771
-0.0045796 0.0018824 -0.0010582 0.0022433 -2.1403e-05 0.0033102 -0.028325 0.012677
-0.22841 0.091613 -0.016991 0.020825
0.0043211 0.00022875 0.0012497 0.0050125 -0.0016775 0.00050345 0.014311 -0.010866
-0.017046 0.020853 -0.24677 0.13586
860000000 -0.13158 0.23592 -0.018661 0.030365 -0.0030239 -0.010212 -0.0019395 0.00053643
0.0035287 0.0053937 -0.0040877 -0.0032357
-0.018696 0.030433 -0.2975 0.27593 0.0066896 0.034822 0.00030102 0.0022015
0.0032444 0.00093906 0.0031648 0.00088708
-0.0030536 -0.010238 0.0068083 0.034832 0.012354 0.30848 -0.00046455 -0.00032933
0.0020395 -0.0012071 0.0013047 0.0045018
-0.0019183 0.00050467 0.00033154 0.0022403 -0.00046407 -0.00035981 -0.13899 0.23868
-0.018246 0.017913 -0.0057534 -0.0093366
0.0035796 0.0053927 0.0033153 0.00086635 0.0020824 -0.0012423 -0.018296 0.017939
-0.17223 0.1476 -0.026642 0.016667
-0.0038908 -0.0032133 0.0033237 0.0011083 0.0012692 0.0045294 -0.0058861 -0.0092506
-0.02661 0.016597 -0.19555 0.18403
920000000 -0.10885 0.25936 0.0040997 0.039125 -0.0093875 -0.0049407 -0.0020973 0.0017688
0.0011833 0.0021563 0.0031557 -0.0012192
0.0040488 0.039111 -0.27017 0.29786 0.02787 0.023517 0.0014236 0.0012015
0.007848 0.00046738 0.0044919 -0.0028152
-0.0093842 -0.0049136 0.027987 0.023454 0.058053 0.31056 0.0018617 2.511e-05
0.0010377 3.7947e-05 0.0010979 -0.001581
-0.0021249 0.0018103 0.0014155 0.0012048 0.0018734 7.5759e-06 -0.11549 0.25604
-0.01211 0.030429 0.0040464 -0.0066737
0.0010811 0.0021813 0.0078203 0.00034027 0.001001 2.885e-05 -0.012105 0.030363
-0.15984 0.15149 -0.0021903 0.026516
0.0031699 -0.0012836 0.0045407 -0.0028449 0.0010331 -0.0016121 0.0040387 -0.006657
-0.0022781 0.026474 -0.20536 0.19664
980000000 -0.062424 0.28088 0.016103 0.030791 -0.0095646 0.0043626 0.001814 0.0037893
0.0037016 -0.0012698 -0.0034176 -0.0026012
0.016138 0.030803 -0.21782 0.33405 0.033204 0.0060381 0.0019566 -0.00017308
0.0014771 -0.005854 -0.00034024 -0.0026877
-0.0095619 0.0044037 0.033263 0.0059496 0.10407 0.30516 0.00070735 -0.0012006
0.00039382 -0.0016999 0.0014757 -0.00028239
0.001826 0.0037804 0.0019726 -0.00013819 0.00069577 -0.0011925 -0.077133 0.26736
0.0064007 0.029796 -0.0095481 -0.0070344
0.0037618 -0.001388 0.0015332 -0.0059218 0.00044106 -0.001708 0.0063969 0.029862
-0.13023 0.18603 0.0060639 0.02008
-0.0034395 -0.0025581 -0.00041799 -0.0026544 0.0014501 -0.00018429 -0.0095042 -0.007064
0.0061122 0.02012 -0.16342 0.24275
1040000000 -0.022026 0.29035 0.032802 0.020068 -0.0014677 0.0073832 0.0026992 0.00085292
0.00061622 -0.0034421 0.00010219 -0.0017782
0.032744 0.020107 -0.18299 0.34814 0.030216 -0.013957 0.0015411 -0.0017409
-0.0021241 -0.0025123 -0.0010598 -0.0034321
-0.0014443 0.0073234 0.030216 -0.014064 0.14993 0.29286 -0.00046778 -0.0015327
-0.0014983 -0.00097875 -0.0005866 -0.0011429
0.0026783 0.00084789 0.0015512 -0.001726 -0.0004548 -0.001544 -0.050464 0.27755
0.018523 0.019333 -0.00266 0.001009
0.00063298 -0.0034258 -0.0020205 -0.0024966 -0.0015222 -0.00099005 0.018588 0.019275
-0.097773 0.19279 0.014075 0.01902
0.00013417 -0.0018554 -0.0011137 -0.0034427 -0.00061172 -0.0011894 -0.0027304 0.0010478
0.013984 0.018965 -0.14238 0.26333
1100000000 0.023133 0.30056 0.036872 -0.0023684 0.0032076 0.0043377 0.0025139 -0.0010642
-0.0023905 -0.0030292 -0.0042144 -7.8847e-05
0.036845 -0.0024092 -0.13948 0.36766 0.016326 -0.027594 1.6885e-05 -0.0018124
-0.0036657 -0.00091105 -0.00368 -0.00035285
0.0032441 0.0043272 0.016247 -0.027679 0.19633 0.27398 -0.0019158 0.00014833
-0.0017056 0.00063549 -0.0011177 -0.00057631
0.0025213 -0.0010799 3.5903e-05 -0.0017912 -0.0019239 0.00016286 -0.010501 0.28327
0.024394 0.0064611 -0.0025657 2.478e-05
-0.0023681 -0.0030221 -0.0036624 -0.0009287 -0.0016891 0.00057718 0.024324 0.0063417
-0.078414 0.20736 0.019528 0.00974
-0.0041983 -6.6741e-05 -0.0036547 -0.0003796 -0.0010665 -0.00051249 -0.0025277 7.9059e-05
0.019554 0.0097753 -0.095909 0.29489
1160000000 0.074056 0.29751 0.025467 -0.01984 0.0032691 -0.00044552 -7.7736e-05 -0.0025207
-0.0040194 -0.00080952 -0.0011205 0.004037
0.025466 -0.019739 -0.096094 0.37269 -0.0028451 -0.029312 -0.0015222 -0.0017821
-0.0026847 0.002342 -0.0016481 0.001814
0.0032926 -0.00048246 -0.0029606 -0.029322 0.23964 0.2444 -0.00075195 0.0017395
-0.00053351 0.0018997 -0.0010525 0.00031876
-0.0001147 -0.0025356 -0.0015586 -0.0018049 -0.0007742 0.0017334 0.028462 0.28115
0.021454 -0.0094382 -0.0034172 0.0052727
-0.0040108 -0.0007992 -0.0027159 0.0023557 -0.00057959 0.0018315 0.021528 -0.0093831
-0.043019 0.21652 0.018584 0.00050159
-0.0010936 0.0040527 -0.0016422 0.0018733 -0.0010032 0.00030922 -0.003529 0.0052748
0.018557 0.0004383 -0.049064 0.2987
1220000000 0.11789 0.2888 0.01235 -0.03003 -0.0012385 -0.0013053 1.813e-05 -0.00096908
-0.0029493 0.0021737 0.0010501 0.0021264
0.012337 -0.030012 -0.051825 0.38699 -0.016563 -0.021868 -0.0026161 0.00047619
-2.5743e-05 0.0030021 -0.00083532 0.0019891
-0.0012485 -0.0013136 -0.016671 -0.021808 0.27936 0.20663 0.00075254 0.0017146
0.00054548 0.0011905 0.00015982 0.0005632
1.1682e-05 -0.00098052 -0.0025971 0.00049215 0.00074175 0.0017187 0.0685 0.27367
0.0113 -0.016312 0.002284 0.0015451
-0.0029137 0.0021831 5.7826e-06 0.0030022 0.00056516 0.0011796 0.011251 -0.016306
-0.020418 0.22704 0.01493 -0.012698
0.0010365 0.002124 -0.00085585 0.0019611 0.00015751 0.00059094 0.0023327 0.0015299
0.014943 -0.012683 -0.019027 0.31611
1280000000 0.16843 0.26914 -0.0065987 -0.029393 -0.0019257 0.0019948 -0.00097906 -0.0021707
-0.00088434 0.0032353 0.0027349 0.0014464
-0.006532 -0.029363 -0.0053305 0.3792 -0.023975 -0.0088705 -0.00094942 0.0013856
0.0016904 0.0016953 0.00071704 0.0021414
-0.0019309 0.0020043 -0.024045 -0.008773 0.31076 0.16336 0.0015857 -3.7117e-05
0.0010746 0.00025155 0.00024372 0.00025932
-0.00098839 -0.0021464 -0.00095938 0.0013883 0.0015879 -3.8418e-05 0.1056 0.25809
0.001915 -0.018875 0.00020575 0.00035672
-0.00085972 0.0032439 0.0016866 0.0017212 0.0010641 0.0002325 0.0018354 -0.018835
0.016287 0.23129 0.0037645 -0.015102
0.0027623 0.0014303 0.00070065 0.002199 0.00026352 0.00026741 0.00022597 0.00033594
0.0037872 -0.015123 0.029136 0.31946
1340000000 0.20597 0.23744 -0.016796 -0.020226 0.00048757 0.0043376 -0.0019229 -0.00083108
0.0014148 0.0027673 0.0017748 -0.0012687
-0.016779 -0.0202 0.034178 0.3724 -0.021637 0.0040884 -0.00018574 0.0019748
0.0019594 0.00078093 0.0010827 0.00079957
0.00049899 0.0043524 -0.021639 0.0041896 0.33345 0.11651 0.0009284 -0.00093995
0.00062506 -0.00056194 2.7014e-05 0.00027818
-0.0019455 -0.00083436 -0.00017889 0.0019668 0.00093315 -0.00093283 0.13908 0.23855
-0.0076681 -0.016574 0.00096041 0.000338
0.0014319 0.00276 0.0019611 0.00075806 0.00062151 -0.00054354 -0.007662 -0.016584
0.045845 0.2277 -0.0033368 -0.014039
0.0017897 -0.0012941 0.0010893 0.00079384 1.3922e-05 0.00029843 0.00096424 0.00037814
-0.0033349 -0.014031 0.066799 0.31537
1400000000 0.24082 0.20108 -0.023505 -0.0087574 0.0049466 0.0032521 -0.0022515 0.00071929
0.0025713 0.0010112 0.00042458 -0.0016755
-0.023487 -0.0087696 0.072751 0.36045 -0.014915 0.012404 0.0012375 0.001313
0.0012399 -0.00072259 0.0011927 0.00011046
0.0049592 0.0032225 -0.014878 0.012484 0.34748 0.063089 4.3752e-05 -0.001502
0.00014149 -0.00035122 0.00037061 0.00029756
-0.002249 0.00072546 0.0012373 0.0013219 4.725e-05 -0.0014975 0.16937 0.20996
-0.013949 -0.010095 -0.00078435 -0.00037258
0.0025879 0.00099906 0.001259 -0.0007298 0.00012775 -0.00033467 -0.013943 -0.010063
0.079484 0.22478 -0.0098767 -0.0091484
0.00043342 -0.0016771 0.0012154 0.0001111 0.00037876 0.00028832 -0.00082545 -0.0004165
-0.0098498 -0.0091654 0.1121 0.30605
1460000000 0.26462 0.1581 -0.020911 0.003826 0.0054493 -0.0016575 -0.0015605 0.0018362
0.0021794 -0.00029057 -0.00022622 -0.0009423
-0.020884 0.0038175 0.10759 0.33888 -0.0058892 0.015464 0.0016579 0.00026846
0.0009669 -0.0012858 0.0012136 -0.00052295
0.0054308 -0.0017161 -0.0058241 0.015516 0.35417 0.0087244 -0.0011201 -0.0011322
0.00019671 -9.4605e-05 0.00078216 -0.00021965
-0.0015533 0.0018414 0.001654 0.00026684 -0.0011574 -0.0011226 0.19647 0.18105
-0.01517 -0.0036122 -0.0010236 0.0018428
0.0021832 -0.000323 0.00095012 -0.0012209 0.00021784 -0.0001187 -0.015182 -0.0035876
0.10928 0.2119 -0.012038 -0.0032135
-0.00022193 -0.00095966 0.0012197 -0.00054845 0.00074245 -0.0002202 -0.00098105 0.001863
-0.012058 -0.0032033 0.14543 0.28573
1520000000 0.27846 0.11729 -0.015602 0.0097041 0.0032871 -0.0041263 0.00018971 0.002671
0.0022681 -0.0018759 -0.0011744 -0.00015445
-0.0156 0.0096866 0.14187 0.32509 0.0019425 0.012885 0.0017004 -0.00066379
0.00010521 -0.0009824 0.00038723 -0.0010661
0.003266 -0.0041439 0.0020051 0.012888 0.34762 -0.047089 -0.0009187 -0.00032816
0.00072899 -0.00088015 0.00012415 -0.00022113
0.00020614 0.0026738 0.0016937 -0.00065802 -0.00089567 -0.00034012 0.22075 0.14291
-0.01495 0.0020775 0.0014598 0.0021508
0.0022652 -0.0018854 9.1132e-05 -0.0010014 0.00072535 -0.00088223 -0.014924 0.0021115
0.13765 0.1998 -0.011918 0.0013031
-0.0011686 -0.00015541 0.00039848 -0.0010563 0.00012355 -0.00022516 0.0014583 0.0021037
-0.011896 0.0012949 0.17898 0.26701
1580000000 0.28942 0.071463 -0.0089914 0.013414 -0.0010691 -0.0048279 0.0015586 0.0017978
-0.00010897 -0.0022342 -0.00027705 0.00036514
-0.0089779 0.013405 0.16996 0.30029 0.0055732 0.00777 0.00064328 -0.001527
-0.00042028 -0.0011 -0.00015766 -0.00084364
-0.0010878 -0.0048347 0.0056069 0.0077455 0.32809 -0.10481 -0.0014912 0.00039923
-0.000287 -0.0012784 0.00044741 -0.00064864
0.0015528 0.0017808 0.0006347 -0.0015302 -0.0015279 0.00040549 0.23525 0.10313
-0.011614 0.0072069 0.0021619 0.00074439
-0.00013634 -0.0022327 -0.00042736 -0.0010867 -0.00026981 -0.0012773 -0.011617 0.0071921
0.16281 0.18318 -0.0094915 0.0072744
-0.00027248 0.00037642 -0.000183 -0.00082391 0.00042948 -0.0006137 0.0021682 0.00077702
-0.0095027 0.0072807 0.21204 0.24076
1640000000 0.29269 0.030513 -0.0019896 0.012524 -0.0028857 -0.0025539 0.0027429 0.001037
-0.00070697 -0.0017111 -0.0004081 0.00055462
-0.0020019 0.012516 0.19971 0.27588 0.0058771 0.0027356 -0.00044399 -0.0018551
-0.00094594 -0.00050646 -0.00049142 -0.00067837
-0.0029115 -0.0025163 0.0058989 0.0027025 0.2996 -0.15345 -0.00067327 0.0012476
-0.0010415 -0.0010786 -0.00022168 -0.00037267
0.0027517 0.0010202 -0.00045775 -0.001857 -0.00064518 0.0012597 0.24819 0.053964
-0.0075361 0.0085997 0.0025033 -0.00078103
-0.00073408 -0.0017241 -0.00097236 -0.00050996 -0.0010461 -0.0010503 -0.0075546 0.0086299
0.18635 0.16058 -0.0046541 0.0093347
-0.00040241 0.00060225 -0.0004889 -0.00068078 -0.00021375 -0.00041139 0.002509 -0.0007778
-0.0046698 0.0093314 0.23802 0.21046
1700000000 0.28722 -0.014913 0.0016699 0.0099511 -0.0036363 0.00030088 0.0031819 -0.001178
-0.0020706 -0.00070683 0.00057319 0.00037126
0.0016507 0.0099457 0.21861 0.24442 0.0033768 -0.00029694 -0.0014353 -0.00076524
-0.00081791 -0.00012956 -0.00090887 -0.00046885
-0.0036544 0.0003151 0.0033714 -0.0003259 0.25725 -0.19348 0.0001425 0.0015154
-0.0020436 -0.0002428 -0.00049112 -0.00083689
0.0031811 -0.0011955 -0.0014474 -0.00075629 0.00013204 0.0015489 0.24544 0.0033775
-0.0047349 0.0093781 0.0016702 -0.0021387
-0.0020534 -0.0006865 -0.00082244 -0.00010562 -0.0020334 -0.0002033 -0.0046914 0.0093613
0.20514 0.14149 -0.00011902 0.0097898
0.00056343 0.00037681 -0.00090738 -0.00047881 -0.00050556 -0.00092972 0.0016476 -0.0021563
-0.00011254 0.0097837 0.25589 0.17679
1760000000 0.276 -0.064133 0.0043143 0.0066466 -0.0021575 0.0012781 0.0013419 -0.0034726
-0.0013683 0.00057724 0.0004181 -0.00053486
0.0043069 0.0066558 0.2447 0.20475 0.00076895 -0.0017766 -0.0013124 -3.7075e-05
-0.0011679 0.00090692 -0.00056721 0.00039079
-0.0021272 0.0012979 0.00075719 -0.0017777 0.20883 -0.22659 0.0010424 0.0011381
-0.0012604 0.0014201 -0.0012982 -0.00053733
0.0013296 -0.0034789 -0.0013321 -2.3324e-05 0.0010259 0.0011909 0.23617 -0.048586
-0.0013494 0.0086907 -0.0002284 -0.0023821
-0.0013757 0.00061184 -0.0011799 0.00092628 -0.0012365 0.0014452 -0.001353 0.0087443
0.22101 0.10778 0.0038908 0.0072607
0.0003971 -0.00055605 -0.00054951 0.00040774 -0.0012486 -0.00055257 -0.00021403 -0.0023994
0.0038987 0.0072482 0.26915 0.13931
1820000000 0.2526 -0.10166 0.0045482 0.003053 0.00018296 0.0025535 -0.00088646 -0.0031457
-0.0012485 0.00097999 -7.3412e-05 -6.4154e-05
0.0045444 0.0030488 0.25531 0.17505 -0.0016368 -9.7033e-05 -0.001552 0.00096203
-0.00014728 0.001255 -0.0006621 0.00053793
0.00014952 0.0025431 -0.001649 -9.943e-05 0.15828 -0.24191 0.0015653 0.00046803
-0.00033526 0.0023603 -0.0015473 0.0004246
-0.00090768 -0.0031412 -0.0015724 0.00094265 0.0015059 0.00043845 0.20618 -0.096247
0.00033175 0.0072587 -0.0016786 -0.0017538
-0.0012362 0.00095484 -0.0001438 0.0012349 -0.00032463 0.0023117 0.00036437 0.0072492
0.23979 0.079943 0.0048908 0.0036064
-9.7589e-05 -6.0824e-05 -0.00065416 0.0005552 -0.001582 0.00046925 -0.0017103 -0.001747
0.0048968 0.0036199 0.27227 0.10376
1880000000 0.21774 -0.1429 0.002347 0.00067967 -0.00045127 0.0022378 -0.0029642 -0.002229
-0.00026612 0.0018287 8.177e-05 -0.00052452
0.0023483 0.00067223 0.25978 0.12848 -0.003602 0.0023805 -0.00033093 0.001921
0.00055856 0.0014093 2.7643e-05 0.0010472
-0.00042859 0.0022112 -0.0035899 0.0023981 0.10621 -0.25082 0.0019483 -0.00083407
0.0014901 0.002024 -0.0010864 0.0015889
-0.0029683 -0.0022228 -0.00031771 0.0019355 0.0020288 -0.00077556 0.16504 -0.13658
0.0012296 0.0052355 -0.0024415 0.00016275
-0.00027686 0.0018315 0.00055213 0.001438 0.001552 0.002049 0.0012248 0.0052193
0.24498 0.04881 0.0052273 0.0013628
9.6606e-05 -0.00053927 6.7912e-05 0.0010355 -0.0011029 0.0015009 -0.0024197 0.00021122
0.0052342 0.001341 0.27323 0.06964
1940000000 0.17849 -0.16897 0.00024291 -0.001067 0.0016229 0.0020346 -0.003939 0.00029933
0.0011926 0.0010286 -0.000621 -0.00051905
0.00026162 -0.0010689 0.26083 0.097362 -0.001743 0.0052807 0.0010826 0.001471
0.0019636 0.00052083 0.00088381 0.0002797
0.0015949 0.0020065 -0.0017087 0.0052975 0.061582 -0.24314 0.00073251 -0.0024363
0.0024623 0.00050586 0.00024614 0.0015099
-0.0039361 0.00034416 0.0010926 0.0014552 0.00073714 -0.0024646 0.11252 -0.16662
0.0004771 0.003973 -0.0013473 0.0014987
0.0012099 0.0010045 0.0019707 0.00048035 0.002449 0.00046554 0.00049097 0.0039026
0.24927 0.01139 0.0040632 -0.0021162
-0.00063837 -0.00051518 0.00094818 0.00025857 0.0002819 0.0015101 -0.0014811 0.0015113
0.0040379 -0.0020954 0.26269 0.034184
2000000000 0.13296 -0.18399 -0.0034379 0.00093408 0.0028949 0.0014003 -0.0022583 0.0036927
0.0012764 0.00044572 -0.0005173 0.00051755
-0.0034418 0.00093218 0.24731 0.062072 -0.00074879 0.0072801 0.001855 0.00036473
0.0013823 -0.0012346 0.00051206 8.4774e-05
0.0029204 0.0013136 -0.00070055 0.007295 0.018984 -0.22949 -0.0012102 -0.0016513
0.0021719 -0.0010177 0.0016128 0.0014131
-0.0022508 0.0036875 0.0018772 0.00036915 -0.0011926 -0.0016242 0.059081 -0.17672
-0.0011551 0.0037371 -0.00030602 0.0021997
0.0012312 0.00044162 0.0013577 -0.0012406 0.0021372 -0.00098754 -0.0011102 0.003653
0.24569 -0.021969 0.00068716 -0.0032257
