!Keysight Technologies,M9804A,MY58100912,A.14.10.03
!Date: Thursday, April 27, 2023 10:28:33
!Correction: S11(C  6-Port  ) 
!S12(C  6-Port  ) 
!S13(C  6-Port  ) 
!S14(C  6-Port  ) 
!S15(C  6-Port  ) 
!S16(C  6-Port  ) 
!S21(C  6-Port  ) 
!S22(C  6-Port  ) 
!S23(C  6-Port  ) 
!S24(C  6-Port  ) 
!S25(C  6-Port  ) 
!S26(C  6-Port  ) 
!S31(C  6-Port  ) 
!S32(C  6-Port  ) 
!S33(C  6-Port  ) 
!S34(C  6-Port  ) 
!S35(C  6-Port  ) 
!S36(C  6-Port  ) 
!S41(C  6-Port  ) 
!S42(C  6-Port  ) 
!S43(C  6-Port  ) 
!S44(C  6-Port  ) 
!S45(C  6-Port  ) 
!S46(C  6-Port  ) 
!S51(C  6-Port  ) 
!S52(C  6-Port  ) 
!S53(C  6-Port  ) 
!S54(C  6-Port  ) 
!S55(C  6-Port  ) 
!S56(C  6-Port  ) 
!S61(C  6-Port  ) 
!S62(C  6-Port  ) 
!S63(C  6-Port  ) 
!S64(C  6-Port  ) 
!S65(C  6-Port  ) 
!S66(C  6-Port  ) 
!S6P File: Measurement: :
# Hz S  RI   R 50
500000000 -0.33264 -0.067486 -0.011302 -0.0012543 -0.0093881 0.013927 -0.0041272 0.011516
0.01284 0.0060617 -0.003783 0.0070973
-0.011294 -0.0012501 -0.41334 -0.075104 0.0077209 -0.0096899 0.00087376 0.012355
0.0083577 0.0035766 0.0010572 0.013661
-0.0093626 0.013941 0.0076971 -0.0097043 -0.26631 0.19082 0.0063769 0.0038193
-0.0020113 0.0092616 0.00022368 0.011615
-0.0040962 0.011527 0.00087795 0.012357 0.0063676 0.0037981 -0.33091 0.037079
-0.021009 -0.0042689 0.01643 0.026204
0.012858 0.0060446 0.0083762 0.0035767 -0.0019945 0.0092563 -0.020995 -0.0042766
-0.23264 -0.22116 -0.02907 0.005218
-0.0036985 0.007113 0.0010933 0.013621 0.00022141 0.011589 0.016399 0.026147
-0.029057 0.0052358 -0.2626 -0.14433
560000000 -0.3206 0.10278 -0.022504 -0.066759 1.4122e-05 0.014159 0.0052195 0.011781
0.0097502 0.0044924 0.011793 0.01032
-0.022453 -0.066648 -0.37393 0.091606 -0.042132 -0.038779 0.013758 0.0044217
-0.013043 -0.0043144 0.003229 -0.0011829
6.8055e-05 0.014136 -0.042281 -0.038727 -0.18679 0.24419 2.214e-05 -0.0046823
0.019486 0.00764 0.0077362 -0.0051917
0.0052915 0.011771 0.013781 0.004401 2.1868e-05 -0.0046783 -0.30806 0.13086
0.0053632 -0.023039 0.0050136 -0.021788
0.0097709 0.0045541 -0.013054 -0.0042634 0.019497 0.0076257 0.0053462 -0.023044
-0.3082 -0.03725 0.0099429 -0.051781
0.011847 0.010346 0.0032896 -0.0011871 0.0077123 -0.005155 0.0050059 -0.021778
0.0099153 -0.051767 -0.33365 0.0094118
620000000 -0.2798 0.081389 -0.023916 0.01019 0.0043848 0.0099442 0.0079892 -0.0040913
0.01356 -0.0010479 -0.0002736 -0.0027089
-0.023907 0.010188 -0.40299 0.037904 -0.018011 0.0012431 -0.0013053 -0.0019763
0.013284 -0.0054156 0.001323 -0.0030049
0.0044118 0.009942 -0.018034 0.0012931 -0.15737 0.25384 -0.00055024 -0.005217
-0.0023451 -0.0027118 0.0097789 -0.0032167
0.0079866 -0.0041153 -0.0013347 -0.001993 -0.00055381 -0.0052247 -0.2649 0.1408
-0.039974 -0.018927 0.014238 0.028891
0.013495 -0.0011111 0.013289 -0.0054539 -0.0023686 -0.0027289 -0.04 -0.018888
-0.22456 -0.076066 -0.044815 0.013208
-0.00031394 -0.0026407 0.0013431 -0.0030201 0.0097756 -0.0031855 0.014268 0.028844
-0.044846 0.013217 -0.24697 -0.028058
680000000 -0.24502 0.17718 -0.026243 -0.013963 0.0052815 0.0057439 0.0017533 -0.0072272
-0.0011762 -0.011831 0.0067193 -0.0072088
-0.026213 -0.013967 -0.3916 0.14087 -0.031968 -0.0024186 -0.0013105 -0.00049357
-0.00087103 -0.010001 -0.0004044 -0.0019032
0.0052865 0.005741 -0.032009 -0.0023318 -0.10693 0.27556 -0.00093103 -0.0005463
-0.00093876 -8.6419e-05 -0.0027141 -0.0091093
0.0017355 -0.0072123 -0.0012971 -0.0004932 -0.00092187 -0.00055407 -0.22075 0.19321
-0.02392 -0.0059585 -0.0093776 -0.010626
-0.0012035 -0.01182 -0.00090039 -0.010023 -0.00093476 -8.5567e-05 -0.023931 -0.005953
-0.28443 0.03208 -0.0071817 -0.0067389
0.0066965 -0.0072633 -0.00039734 -0.001873 -0.0027078 -0.009114 -0.0093475 -0.010647
-0.007186 -0.0067208 -0.26261 0.078132
740000000 -0.19635 0.17007 -0.040359 0.027822 0.014502 -0.0046907 0.00017341 -0.004232
-0.0048334 -0.0027207 -0.0068821 0.0022447
-0.040322 0.027759 -0.33611 0.15917 -0.037275 0.035203 -1.7551e-05 -0.0066778
-0.013499 0.0067901 -0.0010492 -0.0067211
0.014505 -0.0046986 -0.037224 0.03534 -0.073545 0.27259 -0.0022637 0.0031139
-0.0018518 -0.0062373 -0.0019117 0.00083428
0.00016242 -0.0042287 -3.4687e-05 -0.0066734 -0.0022746 0.0031241 -0.20438 0.20091
-0.043631 -0.0087286 0.023697 0.0164
-0.0047711 -0.0026923 -0.013503 0.006838 -0.0018545 -0.0062111 -0.043634 -0.0086921
-0.18086 0.064181 -0.044831 -0.0002392
-0.0068704 0.0022885 -0.0010907 -0.0067105 -0.0019342 0.00082675 0.023716 0.016378
-0.044932 -0.00025435 -0.25204 0.084781
800000000 -0.16534 0.21587 -0.021553 0.016216 0.0062039 -0.010607 -0.0045137 -0.0024449
-0.0047505 0.0011412 0.00348 0.00074667
-0.021537 0.016214 -0.34386 0.23047 -0.0086931 0.0342 -0.0023373 0.0018904
-0.0011913 0.0023302 0.00027263 0.005337
0.0061653 -0.010622 -0.0085992 0.034263 -0.035263 0.29806 0.0006058 0.0015563
-0.00017013 0.0033291 -0.001939 0.00093718
-0.0045301 -0.0024384 -0.0023408 0.0019144 0.00061064 0.0015604 -0.17502 0.22874
-0.028258 0.013291 0.014699 -0.010376
-0.0047244 0.0011592 -0.0011644 0.002342 -0.00015832 0.0033306 -0.028274 0.013334
-0.2287 0.090133 -0.017602 0.020964
0.003453 0.00071915 0.00025347 0.005343 -0.001935 0.00092264 0.014687 -0.01039
-0.017602 0.020974 -0.24785 0.13692
860000000 -0.13087 0.23547 -0.017638 0.030081 -0.002524 -0.010656 -0.0016503 0.00023159
0.0038579 0.0053951 -0.0040308 -0.0026085
-0.017636 0.030055 -0.29701 0.27409 0.0072145 0.034765 -0.00020763 0.0020941
0.0032939 0.0013707 0.0032231 0.00024845
-0.0025593 -0.010656 0.0073429 0.034788 0.011501 0.30752 -0.00059875 -0.00010594
0.002388 -0.0013644 0.001811 0.0040651
-0.0016577 0.0002272 -0.0001898 0.0021067 -0.0005972 -0.0001005 -0.13826 0.23947
-0.017506 0.018192 -0.0066976 -0.0093844
0.003893 0.0053909 0.003304 0.0013588 0.002381 -0.0013553 -0.017492 0.018241
-0.17114 0.14522 -0.025347 0.017509
-0.0040682 -0.0026253 0.0032004 0.00025514 0.001789 0.0040688 -0.0067098 -0.0094075
-0.025381 0.017496 -0.19697 0.18169
920000000 -0.10804 0.25816 0.0049068 0.038345 -0.0093879 -0.0057853 -0.0019513 0.0012016
0.00061222 0.0017788 0.0034491 -0.0010599
0.0048868 0.038325 -0.27012 0.29579 0.028352 0.023144 0.0013766 0.0012183
0.0079869 0.00030364 0.0046328 -0.0027674
-0.0094149 -0.0057559 0.028471 0.023085 0.056874 0.31022 0.0019619 0.00010964
0.00075225 -0.0003347 0.00088934 -0.0018002
-0.0019526 0.0012042 0.0013837 0.0012228 0.0019667 0.00010774 -0.11412 0.25635
-0.011419 0.03074 0.0049456 -0.007088
0.00062859 0.0017834 0.0080019 0.00024928 0.00075867 -0.00034227 -0.01136 0.030783
-0.16361 0.15024 -0.0013241 0.027921
0.0034534 -0.0010896 0.0046239 -0.0027779 0.00087684 -0.0018109 0.0049374 -0.0070982
-0.0013442 0.027899 -0.20443 0.1956
980000000 -0.062657 0.27912 0.016384 0.029873 -0.010041 0.0039178 0.0013868 0.0034698
0.0040222 -0.0014971 -0.003081 -0.0027185
0.01635 0.029873 -0.21855 0.33162 0.033682 0.0055652 0.002073 -0.00021286
0.0021796 -0.0063386 -0.00017847 -0.0028027
-0.010033 0.0039362 0.033752 0.0054749 0.10305 0.30539 0.00075071 -0.0012014
0.00048688 -0.0019149 0.0011561 -0.00043047
0.0014042 0.0034614 0.0020799 -0.00019948 0.00074604 -0.0012078 -0.075964 0.26655
0.0078491 0.029694 -0.009565 -0.0079126
0.0040139 -0.0015093 0.0021554 -0.0063764 0.00048861 -0.0019085 0.0079089 0.02969
-0.13079 0.18287 0.0060858 0.020363
-0.003085 -0.0027065 -0.00018279 -0.0028221 0.0011643 -0.00042825 -0.0095733 -0.007928
0.0060709 0.020365 -0.16486 0.24213
1040000000 -0.02262 0.28862 0.033006 0.019293 -0.0019801 0.0071581 0.002254 0.00089152
0.0005217 -0.0033746 -0.00023515 -0.0018872
0.03298 0.01932 -0.18453 0.34619 0.03049 -0.014686 0.0015924 -0.0017367
-0.0022119 -0.0027812 -0.0013687 -0.0030468
-0.0019712 0.0071536 0.03049 -0.014803 0.14939 0.29375 -0.00049108 -0.0016812
-0.0016305 -0.00094857 -0.0009196 -0.00094012
0.0022496 0.00087184 0.0016128 -0.0017261 -0.0004929 -0.001688 -0.049812 0.27673
0.019423 0.018912 -0.0023689 0.00079493
0.00047259 -0.0033749 -0.0022333 -0.0027975 -0.0016281 -0.00093869 0.019475 0.018866
-0.098009 0.19027 0.014625 0.019327
-0.00022281 -0.0018969 -0.0013922 -0.003049 -0.0009119 -0.00093841 -0.0023504 0.00080785
0.014611 0.019317 -0.14349 0.26391
1100000000 0.021893 0.29918 0.036817 -0.0033825 0.0027451 0.004381 0.0023593 -0.00059058
-0.0021329 -0.003097 -0.0043292 2.4123e-05
0.036785 -0.003356 -0.14159 0.36578 0.016131 -0.028576 3.5788e-05 -0.0019093
-0.003942 -0.0012253 -0.0037159 -0.00053908
0.0027588 0.0043656 0.016042 -0.028669 0.19658 0.27475 -0.0020244 0.00019302
-0.002002 0.00064028 -0.0013199 -0.00027032
0.0023502 -0.00060929 4.2634e-05 -0.001909 -0.00203 0.00020122 -0.010117 0.28215
0.025189 0.0056138 -0.0029526 -0.00035818
-0.0021559 -0.0030887 -0.0039464 -0.0012206 -0.0019985 0.00064872 0.025221 0.0055866
-0.078938 0.20435 0.020632 0.0095631
-0.0043277 5.3522e-05 -0.0037371 -0.00051651 -0.0013148 -0.0002744 -0.0029631 -0.00034816
0.02061 0.0095687 -0.096858 0.29446
1160000000 0.072276 0.29661 0.024966 -0.020798 0.0028174 -0.00036162 2.3058e-05 -0.0020616
-0.0041745 -0.00090618 -0.0013758 0.0041053
0.024966 -0.020754 -0.09874 0.37201 -0.0038116 -0.029998 -0.0015131 -0.0017861
-0.0032222 0.0028665 -0.0018583 0.0021023
0.0028204 -0.00038439 -0.0039287 -0.030007 0.24035 0.24459 -0.00088545 0.0018352
-0.00050447 0.0021429 -0.00091122 0.00063641
2.6657e-05 -0.0020686 -0.0015056 -0.0017772 -0.00087866 0.001835 0.028129 0.27997
0.021724 -0.011213 -0.0038333 0.0049372
-0.0041906 -0.00089116 -0.0032092 0.00288 -0.00049237 0.0021503 0.021725 -0.011235
-0.044603 0.21303 0.019807 -0.00043036
-0.0013716 0.0041082 -0.0018793 0.0021068 -0.00090485 0.00063623 -0.0038253 0.0049465
0.01979 -0.0004242 -0.050115 0.29861
1220000000 0.11587 0.28844 0.01128 -0.030865 -0.0015742 -0.00086776 0.00041475 -0.00090415
-0.0029477 0.0021312 0.001033 0.0024352
0.011299 -0.030817 -0.054251 0.38723 -0.01761 -0.022001 -0.0027126 0.00044079
-0.00010984 0.003524 -0.00084475 0.002338
-0.0015836 -0.0008607 -0.017731 -0.021941 0.27991 0.20588 0.00085955 0.0019472
0.00078426 0.0014145 0.00053953 0.00069635
0.00041496 -0.00091574 -0.0027157 0.0004588 0.0008534 0.0019454 0.067789 0.27311
0.010845 -0.017837 0.0015612 0.001614
-0.0029432 0.0021431 -8.801e-05 0.0035186 0.00078496 0.0014126 0.010829 -0.017853
-0.023261 0.22342 0.015088 -0.013844
0.0010553 0.0024401 -0.00083457 0.0023357 0.00054599 0.00069567 0.0015623 0.0016097
0.015072 -0.013835 -0.019661 0.31598
1280000000 0.16677 0.26948 -0.0080153 -0.029566 -0.0020688 0.0027373 -0.00074898 -0.0023422
-0.0010069 0.003477 0.0028763 0.0016303
-0.0079919 -0.02954 -0.0071055 0.38011 -0.025081 -0.0084088 -0.0010594 0.0015959
0.0020408 0.0021425 0.00089551 0.0022189
-0.0020612 0.002745 -0.025166 -0.0083098 0.31051 0.1622 0.001829 3.0671e-06
0.0013846 0.00017726 0.00055213 0.00012722
-0.00075294 -0.0023355 -0.00106 0.0015967 0.0018277 1.1088e-05 0.10475 0.25768
0.00048628 -0.020217 -0.00058228 0.00053088
-0.00098766 0.0034862 0.0020655 0.0021256 0.0013782 0.00018345 0.0004466 -0.02022
0.01267 0.22807 0.0036004 -0.017247
0.0028802 0.0016078 0.00091181 0.0022165 0.00055147 0.00011848 -0.00058099 0.00053626
0.0036137 -0.017224 0.027832 0.3189
1340000000 0.20431 0.2382 -0.018304 -0.019285 0.00078022 0.0050274 -0.0020029 -0.0012122
0.0015521 0.0030058 0.0022479 -0.0014186
-0.018268 -0.019287 0.033207 0.37329 -0.022193 0.0051467 -0.00011342 0.0022
0.0023735 0.00072099 0.0013804 0.00080088
0.00080106 0.0050362 -0.022202 0.0052512 0.33219 0.11529 0.0011631 -0.0011597
0.00062653 -0.00060086 0.00018164 7.8738e-05
-0.0020053 -0.0012051 -9.7902e-05 0.002202 0.0011599 -0.0011533 0.1383 0.23863
-0.0096855 -0.016989 0.00069805 0.001051
0.0015658 0.0029938 0.0023854 0.00071329 0.00062616 -0.00059354 -0.0097273 -0.016981
0.041539 0.22553 -0.0045172 -0.015514
0.0022323 -0.0014297 0.0013865 0.00078365 0.00017687 8.0643e-05 0.00070084 0.0010555
-0.0044973 -0.015505 0.066329 0.3151
1400000000 0.23976 0.20218 -0.024303 -0.0071821 0.0056569 0.0036728 -0.0025038 0.00067361
0.0027869 0.0011934 0.0004746 -0.0018344
-0.024264 -0.0071939 0.07228 0.36117 -0.014859 0.013683 0.0015441 0.0013821
0.0013694 -0.0010936 0.0012408 2.0535e-05
0.0056715 0.0036567 -0.014817 0.013779 0.34565 0.06298 -1.0267e-05 -0.0018049
7.5334e-05 -0.00040864 0.00028111 0.00027391
-0.0025019 0.00069323 0.0015516 0.0013864 -7.0088e-06 -0.0018 0.16891 0.2102
-0.015865 -0.0094954 -0.00089981 0.00040476
0.0027873 0.0011818 0.0013615 -0.0010978 7.3769e-05 -0.00041003 -0.015897 -0.0094564
0.074762 0.22348 -0.011477 -0.0098532
0.00046045 -0.0018378 0.0012431 1.0244e-05 0.00028394 0.00027671 -0.00089474 0.00040951
-0.011475 -0.0098481 0.11116 0.30494
1460000000 0.26398 0.15927 -0.020647 0.0057141 0.0062155 -0.0017616 -0.0017144 0.0018794
0.0024384 -0.00038835 -0.00033342 -0.001229
-0.020626 0.0056957 0.10739 0.33899 -0.0050409 0.016488 0.0018114 0.0001284
0.00087194 -0.0015902 0.0012056 -0.00061055
0.0062112 -0.001793 -0.004962 0.016525 0.35242 0.0095857 -0.001425 -0.0012479
0.000282 -0.00011556 0.0007261 -0.00038232
-0.0017023 0.0018848 0.0018195 0.00012265 -0.0014297 -0.0012485 0.19616 0.18144
-0.016695 -0.0018693 -0.00061299 0.0024654
0.0024365 -0.00041972 0.00084391 -0.0016023 0.00028661 -0.00011174 -0.016706 -0.0018393
0.10398 0.21181 -0.013715 -0.0029717
-0.00034886 -0.0012381 0.0012078 -0.00060904 0.00072133 -0.00038694 -0.00059444 0.0024694
-0.013711 -0.0029767 0.14439 0.28486
1520000000 0.27837 0.11827 -0.014409 0.01107 0.003935 -0.0047289 0.00020791 0.0028717
0.0024293 -0.0021574 -0.0013467 -0.00015373
-0.014399 0.011045 0.14147 0.32494 0.0030796 0.013206 0.0017119 -0.00088674
-0.00015226 -0.0010588 0.00036062 -0.0011033
0.0039137 -0.0047481 0.0031513 0.013202 0.34635 -0.045361 -0.0010921 -0.00019681
0.00077804 -0.0010428 0.00010316 -0.00023231
0.00022545 0.0028698 0.0017055 -0.00089593 -0.0010973 -0.00019332 0.22045 0.14331
-0.01526 0.0043799 0.0019495 0.0023457
0.0024165 -0.0021739 -0.00016837 -0.0010657 0.00077568 -0.0010474 -0.015258 0.0044163
0.13289 0.20094 -0.013366 0.0024543
-0.0013472 -0.00015681 0.00035925 -0.0011016 0.00010836 -0.00023492 0.0019452 0.0023524
-0.013377 0.0024531 0.17738 0.26618
1580000000 0.28941 0.072 -0.0072207 0.014004 -0.00084052 -0.0055659 0.001708 0.0019092
-0.00022989 -0.0025471 -0.00035171 0.0005491
-0.0072222 0.01399 0.16918 0.29985 0.0066443 0.007438 0.00041521 -0.0016718
-0.00060957 -0.00095493 -0.0002295 -0.00084921
-0.00087163 -0.0055718 0.006693 0.0074128 0.32792 -0.10309 -0.0015585 0.00057641
-0.00051303 -0.0015223 0.000252 -0.0006061
0.0017233 0.0019044 0.00041059 -0.0016738 -0.0015551 0.00057672 0.23517 0.10358
-0.01064 0.0093063 0.0028188 0.00070918
-0.0002518 -0.002559 -0.00062167 -0.00095552 -0.00051638 -0.0015148 -0.010624 0.0093315
0.15858 0.1851 -0.010167 0.0088193
-0.00034197 0.00056579 -0.00023637 -0.00084925 0.0002456 -0.00061021 0.0028219 0.00069986
-0.010177 0.0088095 0.21013 0.24052
1640000000 0.29235 0.030679 -0.00033941 0.012086 -0.0032892 -0.0031266 0.0029566 0.0010252
-0.00097374 -0.0018214 -0.00034421 0.00065528
-0.00035216 0.012076 0.19835 0.2758 0.0064902 0.0020199 -0.00063642 -0.0018385
-0.00080577 -0.00037051 -0.00056711 -0.00076178
-0.0033033 -0.0031132 0.0064955 0.0019897 0.29978 -0.15191 -0.00056167 0.0014573
-0.0012369 -0.0010979 -0.00031446 -0.00056443
0.002964 0.0010089 -0.00065433 -0.0018358 -0.00056985 0.0014516 0.24805 0.054585
-0.0056858 0.0098029 0.0028563 -0.00095554
-0.00098238 -0.0018202 -0.00080855 -0.0003752 -0.0012424 -0.0011011 -0.0056731 0.0098149
0.18292 0.16297 -0.0046476 0.011255
-0.000346 0.00066097 -0.00057869 -0.0007571 -0.00032206 -0.00055798 0.0028565 -0.00095776
-0.004643 0.011258 0.23591 0.21065
1700000000 0.28641 -0.014586 0.002825 0.0087013 -0.0041248 -6.4908e-05 0.0032533 -0.0013758
-0.0023247 -0.00059541 0.00063138 0.00037338
0.002818 0.0087004 0.21708 0.24466 0.0035681 -0.0011244 -0.0015472 -0.00059979
-0.00071556 -0.00015972 -0.00095531 -0.00041701
-0.0041223 -4.2953e-05 0.003567 -0.0011409 0.25753 -0.19223 0.00032095 0.0015412
-0.0023068 3.5933e-05 -0.00056986 -0.00070327
0.0032513 -0.0013907 -0.0015486 -0.00059317 0.00032904 0.0015415 0.24541 0.0042317
-0.002628 0.0093231 0.001897 -0.0024606
-0.00233 -0.00058429 -0.00071299 -0.00015605 -0.0023014 3.6808e-05 -0.0026084 0.0093322
0.20261 0.14414 0.00071264 0.011106
0.00063862 0.00037693 -0.00095964 -0.00040836 -0.0005754 -0.00070516 0.0018952 -0.0024801
0.00070952 0.011104 0.2537 0.17775
1760000000 0.27514 -0.063107 0.0046252 0.0050615 -0.0027578 0.0011945 0.0012838 -0.0036617
-0.001369 0.00081512 0.00035107 -0.00065547
0.0046133 0.0050665 0.24305 0.2056 0.00049206 -0.0027019 -0.0012583 0.00012422
-0.0011431 0.00073859 -0.00061342 0.0003592
-0.0027464 0.0012101 0.00047765 -0.0027078 0.20952 -0.22578 0.0011 0.0010613
-0.0012285 0.0016684 -0.0015151 -0.00051203
0.0012756 -0.0036644 -0.00126 0.00013992 0.0011044 0.0010696 0.23666 -0.047722
0.00039216 0.0076644 -7.0087e-05 -0.0028975
-0.001354 0.0008283 -0.0011389 0.00075599 -0.0012293 0.001677 0.00040244 0.0076564
0.21905 0.11045 0.0052933 0.0082773
0.00034677 -0.0006673 -0.00061154 0.00036294 -0.0015211 -0.00050441 -8.0177e-05 -0.0028869
0.0052989 0.0082848 0.26736 0.14067
1820000000 0.252 -0.10034 0.004166 0.0016141 -0.00030305 0.0027002 -0.0011048 -0.0032369
-0.0010038 0.0011007 -0.00016578 -0.00019179
0.004157 0.0016127 0.25426 0.17647 -0.0021202 -0.00074667 -0.0013951 0.00097769
-0.00024943 0.0011729 -0.00064906 0.0004936
-0.00029391 0.0026924 -0.00213 -0.00073667 0.15896 -0.2414 0.0016287 0.000507
-2.7889e-05 0.0025844 -0.0015613 0.00048982
-0.0011272 -0.0032273 -0.0013955 0.00097592 0.0016291 0.00050088 0.20718 -0.095379
0.0012554 0.0058634 -0.001658 -0.002141
-0.00099689 0.0010962 -0.00024089 0.001171 -2.2212e-05 0.0025804 0.001268 0.0058593
0.23815 0.082558 0.0065999 0.0039474
-0.00016542 -0.00019137 -0.0006479 0.00050038 -0.0015711 0.00049536 -0.0016677 -0.0021424
0.0066055 0.0039401 0.27133 0.10557
1880000000 0.21798 -0.14134 0.0014202 -0.00024078 -0.00072793 0.0027503 -0.0031469 -0.0022569
-0.00012842 0.0016544 -2.1128e-05 -0.00057199
0.0014162 -0.00023745 0.25911 0.13016 -0.0043629 0.0021072 -0.00025721 0.0018523
0.00032237 0.001474 0.00013483 0.00097972
-0.00071298 0.0027547 -0.0043621 0.0021285 0.10681 -0.25048 0.0020103 -0.00099748
0.0018418 0.0019201 -0.00061472 0.0015992
-0.0031553 -0.0022376 -0.00024574 0.0018615 0.0020067 -0.00099206 0.16637 -0.13637
0.0013802 0.0035203 -0.0026209 -0.00031045
-0.00011195 0.0016583 0.00034245 0.0014769 0.0018445 0.0019039 0.0013867 0.0035107
0.24378 0.051005 0.0068695 0.00097254
-2.1134e-05 -0.00058389 0.00014149 0.00098185 -0.00061401 0.0016006 -0.0026158 -0.00029618
0.0068685 0.00097541 0.27261 0.071481
1940000000 0.17934 -0.16742 -0.00097094 -0.0013859 0.0016702 0.0026041 -0.0039534 0.00044473
0.0011848 0.00079549 -0.00071012 -0.00022502
-0.00096194 -0.0013789 0.26066 0.099026 -0.002585 0.0053978 0.0010609 0.0014623
0.0019153 0.00077736 0.00090774 0.000371
0.0016869 0.0025977 -0.0025572 0.0054209 0.062367 -0.24318 0.00056034 -0.0022692
0.0024386 0.00027586 0.00051602 0.0016232
-0.0039425 0.00046843 0.001058 0.001459 0.0005682 -0.0022688 0.11347 -0.16696
-0.00023593 0.0024158 -0.0022405 0.0012738
0.0011919 0.00079047 0.0019214 0.00075789 0.0024429 0.00025785 -0.00022606 0.0024279
0.24776 0.013482 0.0053063 -0.0033752
-0.00071004 -0.00021656 0.0009075 0.00035782 0.00050717 0.0016277 -0.0022361 0.0012849
0.0052996 -0.0033613 0.26273 0.035475
2000000000 0.13408 -0.18301 -0.0044849 0.0011664 0.003188 0.0017339 -0.002484 0.0038659
0.00084784 0.00042967 -0.00032171 0.00073228
-0.0044738 0.0011646 0.24764 0.063749 -0.0012941 0.0078599 0.0016999 0.00027043
0.0014945 -0.0010334 0.00052453 0.00014293
0.0031963 0.0017157 -0.0012407 0.0078827 0.019769 -0.22935 -0.0013782 -0.0017472
0.0019958 -0.001244 0.001643 0.001296
-0.002461 0.0038778 0.0017164 0.00025252 -0.0013867 -0.001748 0.060077 -0.17713
-0.0020618 0.0028861 -0.00054131 0.0024123
0.0008521 0.000416 0.0014827 -0.0010437 0.0019911 -0.0012512 -0.0020474 0.0028899
0.24426 -0.019531 0.001201 -0.0047072
