!Keysight Technologies,M9804A,MY58100912,A.14.10.03
!Date: Thursday, April 27, 2023 10:28:33
!Correction: S11(C  6-Port  ) 
!S12(C  6-Port  ) 
!S13(C  6-Port  ) 
!S14(C  6-Port  ) 
!S15(C  6-Port  ) 
!S16(C  6-Port  ) 
!S21(C  6-Port  ) 
!S22(C  6-Port  ) 
!S23(C  6-Port  ) 
!S24(C  6-Port  ) 
!S25(C  6-Port  ) 
!S26(C  6-Port  ) 
!S31(C  6-Port  ) 
!S32(C  6-Port  ) 
!S33(C  6-Port  ) 
!S34(C  6-Port  ) 
!S35(C  6-Port  ) 
!S36(C  6-Port  ) 
!S41(C  6-Port  ) 
!S42(C  6-Port  ) 
!S43(C  6-Port  ) 
!S44(C  6-Port  ) 
!S45(C  6-Port  ) 
!S46(C  6-Port  ) 
!S51(C  6-Port  ) 
!S52(C  6-Port  ) 
!S53(C  6-Port  ) 
!S54(C  6-Port  ) 
!S55(C  6-Port  ) 
!S56(C  6-Port  ) 
!S61(C  6-Port  ) 
!S62(C  6-Port  ) 
!S63(C  6-Port  ) 
!S64(C  6-Port  ) 
!S65(C  6-Port  ) 
!S66(C  6-Port  ) 
!S6P File: Measurement: :
# Hz S  RI   R 50
500000000 -0.33066 -0.063978 -0.0099022 -0.00093443 -0.0088514 0.012762 -0.0039434 0.011618
0.012642 0.0050726 -0.0040763 0.006989
-0.0099025 -0.00095367 -0.41207 -0.072679 0.0087584 -0.010477 0.0021166 0.012354
0.0076998 0.0023495 0.0020615 0.014037
-0.0088726 0.012841 0.0088737 -0.010523 -0.26467 0.19114 0.0072058 0.0034262
-0.0024037 0.0087565 0.00081052 0.012281
-0.0038748 0.012029 0.002033 0.012727 0.0071688 0.0034529 -0.32888 0.038213
-0.019352 -0.0053166 0.018417 0.026327
0.013109 0.0053954 0.0079418 0.0026818 -0.0022596 0.0088137 -0.019383 -0.0052641
-0.23387 -0.21487 -0.027581 0.0038288
-0.0038476 0.0077042 0.0024066 0.014461 0.00070178 0.012286 0.018354 0.026301
-0.027436 0.0036863 -0.26291 -0.14146
560000000 -0.31943 0.10237 -0.021648 -0.067002 3.6867e-05 0.01364 0.0046829 0.012178
0.011214 0.0042251 0.011371 0.0093111
-0.021475 -0.066879 -0.37375 0.091958 -0.040595 -0.039737 0.013645 0.0036931
-0.012797 -0.005384 0.003281 -0.00094029
0.00033443 0.013542 -0.040671 -0.039745 -0.18667 0.2439 -0.0004421 -0.0052784
0.018703 0.0061426 0.0079695 -0.0060771
0.0042589 0.01181 0.013681 0.0039346 -0.00045974 -0.0056198 -0.30719 0.12987
0.0056366 -0.022379 0.0048684 -0.021886
0.01118 0.0046851 -0.011613 -0.0049471 0.018202 0.0067518 0.0055479 -0.022747
-0.30851 -0.029793 0.0098501 -0.049801
0.010466 0.0098438 0.0030376 -0.00033867 0.0077414 -0.0065704 0.0048811 -0.021864
0.0091261 -0.050442 -0.33087 0.011576
620000000 -0.27883 0.082673 -0.023373 0.0087708 0.0035081 0.0094637 0.008386 -0.0041609
0.011725 -0.0022978 0.00086265 -0.00092902
-0.023341 0.0087372 -0.40235 0.038832 -0.018566 8.8305e-05 -0.0015591 -0.0020427
0.012315 -0.0056475 0.0010583 -0.0027358
0.0036298 0.009458 -0.018517 0.00011858 -0.15766 0.25295 -0.00063593 -0.0052415
-0.0037478 -0.0025916 0.0099648 -0.0029655
0.008618 -0.0042167 -0.0014097 -0.0022315 -0.00058984 -0.0052283 -0.26472 0.14075
-0.039124 -0.019845 0.013728 0.026862
0.011316 -0.0022959 0.011957 -0.0056141 -0.0038438 -0.0024584 -0.038604 -0.01999
-0.22493 -0.068932 -0.043074 0.013681
0.00073595 -0.001851 0.00085522 -0.0032679 0.0097104 -0.0032123 0.013012 0.027401
-0.043196 0.012921 -0.24652 -0.029033
680000000 -0.24338 0.1761 -0.026414 -0.015348 0.0047219 0.0054303 0.0012303 -0.0070885
-0.0010816 -0.011419 0.0058792 -0.007235
-0.026415 -0.015327 -0.39108 0.14061 -0.032571 -0.0028775 -0.0016485 -0.00023859
-0.0011761 -0.0091536 -0.00085584 -0.0022839
0.0046917 0.0054921 -0.032653 -0.002758 -0.10758 0.27527 -0.00070804 -0.00010348
-0.0012984 0.00053829 -0.0025946 -0.0095797
0.001067 -0.007206 -0.0016288 -0.00026345 -0.00078775 7.3099e-05 -0.22099 0.19269
-0.023227 -0.0078779 -0.0090244 -0.011304
-0.0010842 -0.011399 -0.0010549 -0.0092049 -0.00099776 0.00050878 -0.023261 -0.0077879
-0.28148 0.035031 -0.0060136 -0.0079458
0.0060423 -0.0071847 -0.0005053 -0.001992 -0.0024605 -0.0094995 -0.0088877 -0.011488
-0.0062847 -0.0078475 -0.26309 0.079168
740000000 -0.19625 0.16887 -0.040855 0.026375 0.0138 -0.0042701 0.00022935 -0.0042347
-0.0046433 -0.0028861 -0.006352 0.0034421
-0.040781 0.026336 -0.33676 0.15974 -0.037921 0.034282 0.00030581 -0.0061279
-0.011711 0.0068713 -0.00097098 -0.0060935
0.013787 -0.0043467 -0.037798 0.034431 -0.073618 0.27346 -0.0019095 0.0034511
-0.0020287 -0.005879 -0.001465 0.0014384
0.00016793 -0.0043213 0.00041117 -0.006401 -0.0018272 0.003468 -0.20442 0.20046
-0.042415 -0.0095367 0.023001 0.016674
-0.0047728 -0.0028522 -0.012402 0.0072375 -0.00232 -0.0058271 -0.04234 -0.0094031
-0.18373 0.066431 -0.042159 -5.6769e-05
-0.0066567 0.0030475 -0.0008603 -0.0064594 -0.001522 0.0013027 0.022945 0.016576
-0.042224 -2.0772e-05 -0.25248 0.085477
800000000 -0.16589 0.21498 -0.022701 0.015563 0.0058673 -0.010472 -0.0043486 -0.0026277
-0.0046318 0.0019695 0.0044273 -0.00021073
-0.02274 0.015568 -0.34417 0.23097 -0.009259 0.034035 -0.0023214 0.001891
-0.00071411 0.0021623 0.00084235 0.0052126
0.0058841 -0.010441 -0.0091488 0.03411 -0.035296 0.29898 0.00095616 0.0012455
-2.3915e-05 0.0034048 -0.0018514 0.00053067
-0.0045162 -0.0025345 -0.0023068 0.0019475 0.00092045 0.0012921 -0.1753 0.22788
-0.028931 0.012607 0.014603 -0.0099761
-0.004593 0.0019897 -0.00059998 0.0021378 -2.7557e-05 0.0033209 -0.028911 0.012698
-0.22717 0.091686 -0.018321 0.019673
0.0046586 0.00018924 0.00097343 0.0052426 -0.0018016 0.00063788 0.014885 -0.010249
-0.018448 0.020039 -0.24691 0.13645
860000000 -0.1319 0.23555 -0.018702 0.03041 -0.002981 -0.010278 -0.0021122 0.0005969
0.0035223 0.0057963 -0.0037947 -0.0032616
-0.018726 0.030378 -0.29778 0.27558 0.0066644 0.034837 0.00029537 0.0022864
0.0034531 0.00103 0.0030603 0.00079601
-0.0030573 -0.010262 0.0067872 0.034867 0.01207 0.30836 -0.0004904 -0.00030304
0.0021843 -0.0012602 0.0011375 0.0043993
-0.0020927 0.00048841 0.00028607 0.0022156 -0.00047325 -0.00034467 -0.13906 0.23848
-0.018531 0.017312 -0.006357 -0.009059
0.0034749 0.0053974 0.0035272 0.0010236 0.002092 -0.0012118 -0.018533 0.017236
-0.1716 0.14893 -0.025809 0.016446
-0.0038142 -0.003319 0.0030864 0.0006716 0.0012273 0.0043802 -0.0062916 -0.0089672
-0.02621 0.015843 -0.19825 0.18298
920000000 -0.10897 0.2593 0.0040804 0.039198 -0.0092982 -0.0049392 -0.0020363 0.0017557
0.0010236 0.0021967 0.0026938 -0.0012192
0.0040582 0.03914 -0.2706 0.29755 0.02785 0.023535 0.0013639 0.0011145
0.0079732 0.00013268 0.0042293 -0.0028121
-0.0093067 -0.0049562 0.027972 0.023482 0.057828 0.31051 0.0018468 -2.7725e-05
0.0010445 -2.4842e-05 0.00081964 -0.0015324
-0.0020477 0.002004 0.0013122 0.0011278 0.0018836 2.4816e-05 -0.11536 0.25609
-0.011975 0.030404 0.0040848 -0.0067043
0.00091349 0.0020496 0.008002 0.00018913 0.00098137 -0.00012223 -0.011911 0.03048
-0.161 0.15208 -0.0017732 0.026947
0.0030329 -0.0011462 0.0043135 -0.0028287 0.00085394 -0.001523 0.0040524 -0.0067225
-0.0016648 0.026944 -0.20613 0.1956
980000000 -0.062723 0.28063 0.016184 0.030813 -0.0095759 0.0044201 0.0018416 0.0037651
0.0037301 -0.0015106 -0.0033843 -0.0026414
0.016137 0.030778 -0.2181 0.33378 0.033202 0.0060856 0.0019984 -0.00022485
0.001414 -0.0059569 -0.00013089 -0.0029471
-0.0095672 0.0044251 0.033271 0.0059847 0.10384 0.30509 0.00074017 -0.0011548
0.00044844 -0.0016797 0.0014934 -0.00022609
0.0017678 0.0037082 0.0019653 -0.00027374 0.00073037 -0.0011668 -0.077415 0.26734
0.0064244 0.030002 -0.0096684 -0.0071679
0.0038437 -0.0014685 0.00147 -0.0060907 0.00045794 -0.0016526 0.0064205 0.029987
-0.13038 0.18587 0.005713 0.020436
-0.0033828 -0.0024777 -0.00026282 -0.0026406 0.0014264 -0.00019718 -0.0098893 -0.0072931
0.0060515 0.020355 -0.16346 0.24276
1040000000 -0.022425 0.29033 0.032934 0.020266 -0.0014382 0.0073603 0.0026519 0.00078216
0.00069203 -0.0034432 -0.00010051 -0.0015949
0.032873 0.020245 -0.18329 0.348 0.030253 -0.013903 0.0015984 -0.0016747
-0.0021223 -0.0025773 -0.0011834 -0.0033746
-0.001403 0.0073569 0.030259 -0.014004 0.14968 0.2929 -0.00044766 -0.0015012
-0.0015489 -0.0010909 -0.00064526 -0.0011485
0.0027238 0.0009303 0.0016353 -0.0016741 -0.00044548 -0.0015181 -0.05069 0.27752
0.018612 0.019204 -0.0027102 0.0010376
0.00050026 -0.0034056 -0.002287 -0.0025071 -0.0015178 -0.0010261 0.018634 0.019188
-0.097222 0.19256 0.013344 0.019033
0.00019683 -0.001651 -0.0011827 -0.003259 -0.00063928 -0.0011256 -0.002721 0.00093433
0.013473 0.01909 -0.14257 0.26349
1100000000 0.022741 0.30052 0.036886 -0.002325 0.0032333 0.0043304 0.002581 -0.0010076
-0.0023923 -0.0028638 -0.0040007 -0.00037163
0.036856 -0.0023109 -0.13972 0.36742 0.01637 -0.027584 4.3773e-05 -0.0017649
-0.003721 -0.00075102 -0.0036197 -0.00060954
0.0032568 0.0043195 0.016281 -0.027668 0.19604 0.27402 -0.0018639 0.00015302
-0.0016849 0.00060728 -0.0010162 -0.00050274
0.0024633 -0.0010722 -4.5808e-05 -0.0017869 -0.0018874 0.00012706 -0.010559 0.28312
0.024496 0.0064183 -0.0026408 7.9164e-05
-0.0023348 -0.0029119 -0.0036695 -0.00081034 -0.0016845 0.00061813 0.024483 0.0063967
-0.077918 0.20745 0.019412 0.0094518
-0.0041872 -6.7339e-05 -0.0037506 -0.00041058 -0.001044 -0.00047693 -0.002608 0.00012717
0.019369 0.0095786 -0.096804 0.29511
1160000000 0.073635 0.29749 0.025574 -0.019736 0.0032594 -0.0005018 -0.00015192 -0.0025485
-0.0039661 -0.001172 -0.0013429 0.0042806
0.025551 -0.019727 -0.096418 0.37262 -0.0027993 -0.029317 -0.0016109 -0.0018521
-0.0025776 0.0023309 -0.0016634 0.0018302
0.003291 -0.00054316 -0.0028947 -0.029322 0.23938 0.2445 -0.00078004 0.0017819
-0.00057832 0.001824 -0.00098288 0.0003504
-5.0463e-05 -0.0024811 -0.0015434 -0.0018198 -0.00078819 0.0017455 0.028276 0.28118
0.021589 -0.0094747 -0.0034655 0.0052296
-0.0040645 -0.00087086 -0.0025327 0.002344 -0.00053961 0.0018779 0.02157 -0.0094751
-0.042954 0.21627 0.018996 0.00043766
-0.0013521 0.0041284 -0.0016227 0.0016952 -0.0010391 0.00035636 -0.0035499 0.0052305
0.018888 0.00019028 -0.049861 0.29805
1220000000 0.11748 0.28886 0.012414 -0.030091 -0.0012072 -0.0013004 9.741e-05 -0.0009802
-0.0027046 0.0022771 0.0010813 0.0019933
0.012404 -0.03008 -0.052192 0.38694 -0.016557 -0.021905 -0.0025468 0.00047354
-4.0455e-05 0.0030665 -0.000924 0.001984
-0.0012168 -0.0013049 -0.016658 -0.02184 0.27909 0.20675 0.0007238 0.0017127
0.00055506 0.0011642 0.00015842 0.00064582
3.6803e-06 -0.00098017 -0.0026152 0.00051449 0.00072168 0.0017418 0.06845 0.27353
0.011229 -0.016282 0.0022458 0.0016377
-0.0028077 0.0022345 -1.7501e-05 0.0030541 0.00052921 0.0011697 0.011256 -0.016349
-0.020689 0.22666 0.014749 -0.012851
0.0010704 0.0020587 -0.0007933 0.002059 0.00020936 0.00060984 0.0023672 0.0015549
0.014822 -0.01272 -0.019397 0.31639
1280000000 0.16805 0.2692 -0.0065378 -0.02945 -0.0018954 0.0020115 -0.00089604 -0.0021896
-0.0008837 0.0031944 0.0027027 0.0014819
-0.0065235 -0.029412 -0.0057022 0.37913 -0.023937 -0.0089053 -0.00098834 0.0014117
0.0016945 0.0016739 0.00069786 0.0021631
-0.0019141 0.0020216 -0.024024 -0.0088041 0.3106 0.16355 0.0015594 -5.6172e-05
0.0010864 0.00021819 0.00034214 0.00026025
-0.00088906 -0.0021505 -0.00091571 0.001367 0.001548 -5.3874e-05 0.10534 0.25812
0.0017653 -0.019093 3.0362e-06 0.00028849
-0.00082383 0.0032396 0.0017102 0.0016849 0.0010944 0.00022829 0.0017546 -0.019059
0.01642 0.23087 0.0036887 -0.015228
0.0027053 0.0014412 0.00066602 0.0021489 0.00028398 0.00024667 2.0248e-05 0.00031893
0.0036913 -0.015238 0.028683 0.31912
1340000000 0.20572 0.23766 -0.016797 -0.02031 0.00045531 0.0043396 -0.001861 -0.00080446
0.0014789 0.0028811 0.0018192 -0.0013086
-0.016786 -0.020305 0.033826 0.37243 -0.021654 0.0040641 -0.00016624 0.0019622
0.0019219 0.00080686 0.0011201 0.00083374
0.00045699 0.0043584 -0.021656 0.004159 0.33329 0.11674 0.00093591 -0.0010187
0.00061585 -0.00052645 9.1298e-05 0.00028252
-0.0019513 -0.00080239 -0.00014394 0.0020002 0.00095355 -0.00098235 0.13889 0.23849
-0.0076867 -0.016755 0.00090572 0.00039285
0.0014074 0.0027806 0.0019125 0.00079536 0.00061394 -0.00052026 -0.0077156 -0.01675
0.045491 0.22766 -0.003297 -0.014219
0.0018182 -0.0013274 0.0010919 0.00081656 0.0001285 0.00021395 0.00083975 0.00044794
-0.0033659 -0.014172 0.066354 0.31532
1400000000 0.24063 0.20135 -0.023542 -0.0088379 0.0049356 0.0032328 -0.0022829 0.00067457
0.0025743 0.0010393 0.00049094 -0.0016168
-0.023505 -0.0088479 0.072403 0.3604 -0.014938 0.012399 0.0012273 0.0013405
0.0012773 -0.00073314 0.00118 0.00013754
0.0049521 0.0032115 -0.01491 0.012505 0.34733 0.06328 1.9625e-05 -0.0014709
9.2134e-05 -0.00031135 0.0003851 0.00029792
-0.0022624 0.00068878 0.0012503 0.001291 1.6251e-05 -0.0014931 0.16916 0.21001
-0.013988 -0.010145 -0.00085999 -0.0004367
0.0026093 0.0010302 0.0012382 -0.00075272 7.9154e-05 -0.00035761 -0.014021 -0.01012
0.079201 0.22484 -0.0097655 -0.0091079
0.00042616 -0.0016835 0.001189 8.5188e-05 0.00035922 0.00023664 -0.00086517 -0.00043693
-0.0097286 -0.0091773 0.11189 0.30565
1460000000 0.26441 0.15837 -0.020988 0.0038557 0.0054404 -0.0016493 -0.0015502 0.0018048
0.0021968 -0.00030846 -0.00016083 -0.00096034
-0.020974 0.0038342 0.10723 0.33893 -0.0058894 0.015468 0.0016504 0.00026702
0.00094621 -0.0012413 0.0012612 -0.00049972
0.0054191 -0.0016679 -0.0058359 0.015519 0.35413 0.009047 -0.0011863 -0.0011551
0.00021328 -0.00011714 0.00082131 -0.00026776
-0.0015551 0.0017941 0.0016534 0.00026112 -0.0011662 -0.001166 0.19634 0.18114
-0.015356 -0.0036594 -0.0010132 0.0019886
0.0021815 -0.00028415 0.00092656 -0.0012797 0.00023791 -5.0836e-05 -0.015357 -0.0035969
0.1086 0.21175 -0.011994 -0.0032461
-0.00017267 -0.00098322 0.0012626 -0.00049184 0.00081501 -0.00025652 -0.0010555 0.0020195
-0.011943 -0.0032562 0.14519 0.2857
1520000000 0.27831 0.11757 -0.015637 0.0097219 0.0032702 -0.0041422 0.0001805 0.0026675
0.0022949 -0.0018747 -0.0011841 -0.00014411
-0.015635 0.0097095 0.14154 0.32518 0.0019402 0.012901 0.0016829 -0.00064832
0.00011359 -0.0010232 0.00032847 -0.0010092
0.003256 -0.0041696 0.0020202 0.012905 0.34755 -0.046803 -0.00093064 -0.00034958
0.00072155 -0.00087087 8.7845e-05 -0.00018573
0.00020057 0.0026669 0.0016999 -0.00067817 -0.00091563 -0.00034292 0.22049 0.14301
-0.015031 0.0021275 0.0014531 0.0021908
0.0022881 -0.0018761 9.3199e-05 -0.0010263 0.00071672 -0.00089204 -0.015028 0.0021403
0.13722 0.19996 -0.011942 0.0013551
-0.0011466 -0.00011864 0.00033532 -0.0010461 0.0001154 -0.00017554 0.0014763 0.0022153
-0.011937 0.0013687 0.17868 0.26708
1580000000 0.28924 0.071663 -0.0089944 0.01343 -0.0010216 -0.0047913 0.0015735 0.0018388
-9.9582e-05 -0.0022847 -0.00028144 0.00038624
-0.0089965 0.013425 0.16959 0.30037 0.005572 0.0077933 0.00065768 -0.0015203
-0.00044212 -0.001113 -0.00013532 -0.00081963
-0.0010306 -0.0048008 0.0055964 0.0077656 0.328 -0.10449 -0.0014895 0.00040497
-0.00028484 -0.0012922 0.0004107 -0.00064493
0.0015791 0.0018119 0.00064974 -0.0015169 -0.0014714 0.00045863 0.23511 0.10336
-0.011782 0.0073303 0.002218 0.00082975
-0.00014875 -0.0023001 -0.00044064 -0.0011165 -0.00026574 -0.0012949 -0.011786 0.0073668
0.16236 0.1834 -0.0095447 0.0074211
-0.00029406 0.00035276 -0.00019306 -0.00081384 0.00033847 -0.00066667 0.0021816 0.0007913
-0.0095294 0.007382 0.21184 0.24086
1640000000 0.29253 0.030777 -0.0019978 0.01256 -0.0029371 -0.0025229 0.0027337 0.0010292
-0.00074353 -0.0017402 -0.00046256 0.00056948
-0.002012 0.012563 0.19938 0.27612 0.0058557 0.0027355 -0.0004525 -0.0018494
-0.00097012 -0.0005143 -0.00050909 -0.00068471
-0.0029503 -0.0025061 0.0058672 0.002705 0.29968 -0.15325 -0.00070171 0.0013074
-0.0010542 -0.0010654 -0.00026022 -0.00043861
0.0027609 0.0010451 -0.00047207 -0.0018562 -0.00070859 0.0012631 0.24817 0.054196
-0.0075179 0.0087364 0.0025114 -0.00072653
-0.0007223 -0.0017588 -0.00097502 -0.00051322 -0.0010715 -0.0010845 -0.0075114 0.008752
0.186 0.1609 -0.0047447 0.0093428
-0.00035788 0.00059029 -0.00049393 -0.00064015 -0.00023809 -0.00036697 0.0025265 -0.00068535
-0.0047378 0.0093817 0.2378 0.21083
1700000000 0.28707 -0.014603 0.0016657 0.0099511 -0.0035852 0.00031988 0.003199 -0.0011896
-0.0020533 -0.00070239 0.00062937 0.00034297
0.0016603 0.0099469 0.21833 0.24463 0.0033557 -0.00028274 -0.0014017 -0.00078209
-0.0008279 -9.3584e-05 -0.00086736 -0.00050991
-0.0036072 0.00033868 0.0033667 -0.0002911 0.25724 -0.19323 0.00024061 0.0015132
-0.0020679 -0.00026353 -0.00049486 -0.00086732
0.0031704 -0.0012064 -0.0014103 -0.00078589 0.0001853 0.0015307 0.2454 0.0035032
-0.0046522 0.0094642 0.0017132 -0.0021262
-0.002081 -0.00070054 -0.0008221 -0.00011275 -0.0020589 -0.00021006 -0.0046288 0.0094414
0.20498 0.14182 -7.2724e-05 0.009856
0.00051292 0.00039026 -0.00092385 -0.00044521 -0.00052654 -0.00084938 0.0016896 -0.0022034
-5.9982e-05 0.0098241 0.2555 0.1768
1760000000 0.27592 -0.063803 0.0043539 0.0066687 -0.0021377 0.0012933 0.0013628 -0.0035294
-0.0013849 0.00057357 0.00030091 -0.00060881
0.0043404 0.0066726 0.24442 0.20497 0.00075863 -0.0017763 -0.0013283 -1.9457e-05
-0.0011475 0.00089273 -0.00060229 0.00037421
-0.0021145 0.0013201 0.00074761 -0.001786 0.20889 -0.22638 0.0010693 0.0012003
-0.0012145 0.0014472 -0.001277 -0.00062465
0.0013042 -0.0034771 -0.0013293 -1.4281e-05 0.0010561 0.0011513 0.23633 -0.048516
-0.0011379 0.0088366 -0.0001982 -0.0024566
-0.0013847 0.00059437 -0.0011305 0.00091479 -0.0012302 0.0014908 -0.0011168 0.0088577
0.22089 0.1082 0.003876 0.0072339
0.00041198 -0.00057689 -0.00056644 0.00036211 -0.0012854 -0.0005223 -0.00016275 -0.0024579
0.003845 0.0073127 0.26888 0.13976
1820000000 0.25251 -0.10119 0.0045414 0.0030557 0.00014531 0.0025949 -0.0009568 -0.0031163
-0.0012435 0.00095639 -0.00012161 -0.00016081
0.0045351 0.0030549 0.25516 0.17532 -0.0016419 -8.7511e-05 -0.001585 0.00095699
-0.00014068 0.0012248 -0.00067425 0.00049665
0.00015567 0.0025719 -0.001643 -7.5587e-05 0.15843 -0.24169 0.0014479 0.00042434
-0.00034015 0.0022421 -0.0016321 0.00042577
-0.00096467 -0.0031242 -0.0015417 0.00097544 0.0014713 0.0004667 0.2061 -0.096065
0.00042369 0.007247 -0.0017373 -0.0016663
-0.0012381 0.00095674 -0.00010228 0.0012498 -0.00033918 0.002275 0.00046794 0.0072441
0.23971 0.080164 0.0049019 0.0037082
-0.00012043 -9.192e-05 -0.00066454 0.00051231 -0.0016221 0.00035792 -0.0016959 -0.0016899
0.0048969 0.0036974 0.27205 0.104
1880000000 0.21777 -0.14252 0.00236 0.00064591 -0.00042417 0.0022063 -0.002918 -0.0023069
-0.00024732 0.0017779 0.00017375 -0.00059614
0.0023491 0.00064197 0.25963 0.12872 -0.0035848 0.0023923 -0.0003106 0.0019135
0.00056979 0.0013956 3.8335e-05 0.0010283
-0.00039618 0.0021887 -0.0035583 0.0024154 0.10627 -0.2506 0.0020122 -0.00084304
0.0014888 0.002019 -0.00099858 0.0015485
-0.0029204 -0.0022466 -0.00031543 0.0019428 0.0019694 -0.00080128 0.16535 -0.13645
0.0014875 0.0052782 -0.0023789 0.00024376
-0.0002517 0.0018125 0.00054604 0.0013892 0.001485 0.0020019 0.0014629 0.0052853
0.24501 0.049269 0.0053662 0.0015202
0.00012629 -0.00055696 4.7371e-05 0.0010711 -0.0011163 0.0016088 -0.0023875 0.00024956
0.005275 0.0014687 0.27319 0.070091
1940000000 0.17868 -0.16854 0.0002548 -0.0011053 0.0016436 0.0020259 -0.0039094 0.00041588
0.0012014 0.0010793 -0.0005538 -0.00048031
0.00026355 -0.0011177 0.26071 0.097626 -0.0017498 0.0052494 0.0010337 0.0015193
0.0019334 0.0005268 0.00098932 0.0002923
0.0016177 0.0020423 -0.00173 0.005285 0.061819 -0.2431 0.00057312 -0.0023889
0.0023943 0.00043107 0.00026503 0.0015614
-0.0038703 0.00039328 0.0011034 0.0015333 0.00066888 -0.0023752 0.11255 -0.16673
0.0005159 0.0037634 -0.0016465 0.0015387
0.0012433 0.0011154 0.0019306 0.00053441 0.002399 0.0004582 0.00054879 0.0037362
0.24929 0.011582 0.0040665 -0.00198
-0.00071905 -0.0004296 0.00086836 0.00027132 0.00022469 0.0015402 -0.0015635 0.0016042
0.0041152 -0.0019444 0.26291 0.034634
2000000000 0.13332 -0.18385 -0.003446 0.00088861 0.0030269 0.0014452 -0.0023187 0.0036593
0.0011876 0.00052091 -0.00073583 0.00048776
-0.003447 0.00089278 0.24722 0.062364 -0.00076188 0.0072814 0.0019066 0.00035471
0.0013064 -0.0012266 0.00046067 4.2951e-05
0.0029919 0.0013923 -0.00070967 0.0072943 0.019161 -0.22932 -0.0012826 -0.0015823
0.0021204 -0.0011318 0.0016782 0.0014271
-0.0022932 0.0037181 0.0018457 0.00034036 -0.001255 -0.0016301 0.059078 -0.17667
-0.0010752 0.0035974 -0.00018718 0.0023603
0.0012248 0.00048397 0.0013042 -0.0012333 0.0021111 -0.0010923 -0.0010775 0.0036411
0.24573 -0.021779 0.00080537 -0.0031315
