!Keysight Technologies,M9804A,MY58100912,A.14.10.03
!Date: Thursday, April 27, 2023 10:28:33
!Correction: S11(C  6-Port  ) 
!S12(C  6-Port  ) 
!S13(C  6-Port  ) 
!S14(C  6-Port  ) 
!S15(C  6-Port  ) 
!S16(C  6-Port  ) 
!S21(C  6-Port  ) 
!S22(C  6-Port  ) 
!S23(C  6-Port  ) 
!S24(C  6-Port  ) 
!S25(C  6-Port  ) 
!S26(C  6-Port  ) 
!S31(C  6-Port  ) 
!S32(C  6-Port  ) 
!S33(C  6-Port  ) 
!S34(C  6-Port  ) 
!S35(C  6-Port  ) 
!S36(C  6-Port  ) 
!S41(C  6-Port  ) 
!S42(C  6-Port  ) 
!S43(C  6-Port  ) 
!S44(C  6-Port  ) 
!S45(C  6-Port  ) 
!S46(C  6-Port  ) 
!S51(C  6-Port  ) 
!S52(C  6-Port  ) 
!S53(C  6-Port  ) 
!S54(C  6-Port  ) 
!S55(C  6-Port  ) 
!S56(C  6-Port  ) 
!S61(C  6-Port  ) 
!S62(C  6-Port  ) 
!S63(C  6-Port  ) 
!S64(C  6-Port  ) 
!S65(C  6-Port  ) 
!S66(C  6-Port  ) 
!S6P File: Measurement: :
# Hz S  RI   R 50
500000000 -0.33076 -0.067625 -0.0097208 -0.0013257 -0.0091552 0.012577 -0.0048698 0.012428
0.013689 0.0049664 -0.0059826 0.0079179
-0.0097803 -0.0011816 -0.41111 -0.076328 0.0084358 -0.010688 0.0015581 0.012259
0.0091628 0.0028799 0.002189 0.014061
-0.009173 0.012732 0.008537 -0.010845 -0.26487 0.18928 0.0072745 0.0032251
-0.0020651 0.0088061 0.00062102 0.012033
-0.0044532 0.012583 0.0017335 0.012291 0.0074116 0.0032354 -0.32959 0.036306
-0.01954 -0.0039068 0.017192 0.026169
0.013849 0.0050564 0.0083102 0.0034429 -0.0018538 0.0090635 -0.0192 -0.0037199
-0.23285 -0.21974 -0.027365 0.0047406
-0.0046499 0.0088938 0.0022157 0.013909 0.00080937 0.012076 0.018041 0.026682
-0.028065 0.0054091 -0.26129 -0.14645
560000000 -0.31993 0.10084 -0.022353 -0.066864 -0.00024465 0.013504 0.0046426 0.01163
0.010901 0.0056032 0.01089 0.0083748
-0.022564 -0.066822 -0.37369 0.090953 -0.04157 -0.040464 0.013926 0.0035469
-0.012641 -0.0044742 0.0033571 -0.00066015
-0.00024706 0.013421 -0.041717 -0.040206 -0.18658 0.24231 -0.0003422 -0.0050057
0.017156 0.0069382 0.0079032 -0.0067496
0.004614 0.011343 0.014098 0.0035264 -0.0005076 -0.0050926 -0.30741 0.12867
0.0061313 -0.023748 0.0044919 -0.022511
0.011028 0.0045118 -0.012443 -0.0050468 0.018511 0.007209 0.0059089 -0.023409
-0.30847 -0.035884 0.010399 -0.05202
0.011263 0.0090495 0.0034713 -2.8628e-05 0.0077643 -0.0067929 0.004459 -0.023226
0.0098432 -0.050452 -0.33342 0.0070203
620000000 -0.27869 0.080621 -0.023436 0.0091594 0.0033759 0.0092242 0.0089032 -0.0045275
0.011618 -0.0017325 0.00018946 -0.0025939
-0.023483 0.0091704 -0.40232 0.035989 -0.018646 0.00043275 -0.0017013 -0.0022372
0.012601 -0.0056131 0.0011146 -0.003535
0.0036493 0.0092311 -0.018751 0.00044677 -0.15846 0.25152 -0.0011884 -0.0053639
-0.0031767 -0.0018608 0.0095686 -0.0031475
0.008894 -0.0046938 -0.0017026 -0.0022554 -0.00091604 -0.0055199 -0.26427 0.14064
-0.039387 -0.020624 0.013852 0.030068
0.011303 -0.0012796 0.013147 -0.0054193 -0.0034637 -0.001956 -0.040099 -0.020557
-0.22363 -0.073393 -0.043786 0.010407
0.00063473 -0.0026118 0.001382 -0.0032644 0.0099087 -0.0033354 0.01338 0.030019
-0.043268 0.012108 -0.24647 -0.032387
680000000 -0.24394 0.17469 -0.026388 -0.015398 0.0047526 0.0055914 0.0015484 -0.0076127
-0.0017487 -0.012044 0.0059648 -0.0070518
-0.026291 -0.0154 -0.39182 0.13812 -0.032841 -0.0028949 -0.0016315 -0.00046173
-0.001569 -0.0096254 -0.0011921 -0.0023137
0.0047173 0.005629 -0.032933 -0.0028054 -0.10872 0.27366 -0.00057329 -0.00025419
-0.0015538 0.00044132 -0.0027957 -0.0094535
0.0016206 -0.0075852 -0.0015912 -0.00049732 -0.00074937 -0.00032136 -0.2219 0.19155
-0.023058 -0.0078937 -0.01017 -0.011477
-0.0019692 -0.012206 -0.0016344 -0.0095388 -0.0016266 0.00051781 -0.023107 -0.0082466
-0.28198 0.031777 -0.0054373 -0.0070307
0.0060832 -0.0071874 -0.0012403 -0.0019538 -0.0029803 -0.0095947 -0.010327 -0.012053
-0.0059046 -0.0077915 -0.26244 0.075985
740000000 -0.19769 0.16821 -0.040836 0.026609 0.014426 -0.0041202 6.3045e-06 -0.0044307
-0.0049573 -0.0026925 -0.0056969 0.0026514
-0.04077 0.026705 -0.33779 0.15749 -0.038438 0.035135 0.00053684 -0.0060471
-0.01324 0.006714 -0.00099483 -0.006357
0.01418 -0.004048 -0.038443 0.035172 -0.075613 0.27181 -0.0020416 0.0034681
-0.0014479 -0.0060023 -0.0017224 0.0007616
0.00017847 -0.0044055 0.00043043 -0.0060366 -0.0020133 0.0034545 -0.20526 0.19894
-0.042888 -0.0095975 0.022983 0.016308
-0.0046775 -0.003157 -0.013037 0.0071089 -0.0012427 -0.0061843 -0.0429 -0.0093733
-0.18025 0.063928 -0.043374 -0.0014329
-0.0058473 0.002632 -0.0011879 -0.0060048 -0.0018117 0.0010103 0.023314 0.016433
-0.042978 -0.0019173 -0.25456 0.080986
800000000 -0.16626 0.21381 -0.022565 0.015914 0.0061596 -0.010626 -0.0045265 -0.0025305
-0.0044833 0.001535 0.0042583 0.00030355
-0.022606 0.015934 -0.34594 0.22926 -0.0093627 0.034601 -0.0021922 0.0020824
-0.00080596 0.0025515 0.00091841 0.0055101
0.0061214 -0.010519 -0.0092988 0.034737 -0.03679 0.29806 0.00094157 0.0012027
0.0001205 0.0032901 -0.0017577 0.00072393
-0.0046065 -0.0024588 -0.0022412 0.0020833 0.00095262 0.0011976 -0.17656 0.22666
-0.028823 0.012929 0.014487 -0.010533
-0.0044444 0.0015726 -0.00044961 0.0025161 0.0001411 0.0033635 -0.0287 0.013144
-0.22913 0.088256 -0.018043 0.020781
0.0040093 0.00031839 0.00078503 0.0054121 -0.0018601 0.00069152 0.014792 -0.010711
-0.018052 0.02054 -0.24785 0.13175
860000000 -0.13312 0.23413 -0.01897 0.030186 -0.0029331 -0.010681 -0.0018936 0.00050747
0.0039153 0.0050277 -0.0037235 -0.0034755
-0.019056 0.030226 -0.29939 0.27361 0.0068043 0.03532 6.4913e-05 0.0021162
0.0032079 0.00045599 0.003779 0.00031277
-0.0029737 -0.010693 0.0069169 0.035284 0.01029 0.30807 -0.00061182 -0.00039191
0.0023678 -0.0018566 0.0015851 0.004142
-0.0019616 0.00050686 6.8489e-05 0.0021067 -0.00068619 -0.00039136 -0.14012 0.23829
-0.018882 0.017773 -0.0061634 -0.010013
0.0037263 0.0050782 0.0033553 0.00069449 0.0023202 -0.0017258 -0.018797 0.017814
-0.17363 0.14262 -0.026058 0.01646
-0.0034683 -0.0034999 0.0035509 0.00014554 0.0015618 0.004093 -0.0067222 -0.0095886
-0.025917 0.016779 -0.1987 0.1791
920000000 -0.11023 0.25817 0.004019 0.039296 -0.0095197 -0.005197 -0.0020662 0.0015564
0.0007773 0.0019578 0.0029045 -0.0015115
0.0039678 0.039253 -0.27198 0.29585 0.028268 0.023777 0.001346 0.00098948
0.0074458 -0.0003252 0.0038858 -0.002984
-0.0095326 -0.0051926 0.028384 0.02375 0.056394 0.31073 0.0018009 -1.874e-05
0.00081024 -0.0001883 0.00077316 -0.0017104
-0.0020717 0.0015444 0.0013762 0.0010448 0.0018155 -3.0159e-05 -0.11651 0.25594
-0.012429 0.030984 0.0039975 -0.0067453
0.00057747 0.0017148 0.0074273 -0.00029584 0.00066498 -0.00014585 -0.012494 0.030871
-0.16414 0.14913 -0.0023838 0.028058
0.00267 -0.0013018 0.004061 -0.0029934 0.00087136 -0.0015615 0.004106 -0.0068294
-0.0025902 0.028092 -0.20824 0.19281
980000000 -0.064473 0.27959 0.015992 0.03113 -0.0098872 0.0044218 0.0016173 0.0039945
0.0040808 -0.0013467 -0.0030768 -0.0024412
0.015942 0.031149 -0.22 0.33247 0.0338 0.0061463 0.0019928 -2.9154e-05
0.0017097 -0.0059372 -4.079e-05 -0.0026257
-0.0098958 0.0043885 0.03387 0.0060034 0.10274 0.30547 0.00065859 -0.001072
0.00042913 -0.0017431 0.0015437 -0.00023251
0.0017021 0.0039015 0.0020009 -3.6053e-05 0.00065216 -0.0010898 -0.078326 0.26718
0.0070675 0.030811 -0.0095893 -0.0077486
0.0040385 -0.0012119 0.0016779 -0.0059173 0.00040546 -0.0017538 0.007293 0.030783
-0.13207 0.18322 0.0059674 0.020414
-0.0031377 -0.0024859 -0.00018702 -0.0026263 0.001506 -0.00024717 -0.0096647 -0.0079083
0.0058577 0.020562 -0.16645 0.23989
1040000000 -0.023841 0.28976 0.033311 0.020442 -0.0015738 0.0077032 0.0027151 0.00067526
0.00050943 -0.0033118 -3.4103e-05 -0.0016394
0.033297 0.020486 -0.18533 0.34722 0.030826 -0.014197 0.001664 -0.0017571
-0.0022353 -0.002618 -0.001103 -0.0027813
-0.0015344 0.0076929 0.030826 -0.014329 0.14886 0.29367 -0.00044214 -0.0016313
-0.0015044 -0.0010141 -0.00052886 -0.0010544
0.0027411 0.00070801 0.0016449 -0.0017408 -0.00045153 -0.0016433 -0.051381 0.27774
0.019346 0.019556 -0.0021721 0.00094754
0.00054416 -0.0033781 -0.0022106 -0.0025415 -0.0014678 -0.0010288 0.019224 0.019484
-0.10016 0.19021 0.013926 0.020153
-0.00023698 -0.0015752 -0.0012038 -0.0029027 -0.00059032 -0.001054 -0.0020611 0.0010894
0.013529 0.020174 -0.14549 0.2622
1100000000 0.020925 0.29994 0.03736 -0.0024317 0.0032359 0.0044337 0.002379 -0.00102
-0.0022773 -0.0030685 -0.0043321 -0.00027336
0.037322 -0.0023966 -0.14165 0.36698 0.01647 -0.028315 1.6605e-06 -0.0018598
-0.0037135 -0.0010252 -0.0037245 -0.0007508
0.0032502 0.0044492 0.016399 -0.028401 0.19595 0.27468 -0.00193 0.00019246
-0.0017746 0.00059273 -0.0012042 -0.0006194
0.0023784 -0.0010547 -2.6469e-05 -0.001883 -0.001913 0.00021249 -0.01102 0.28337
0.025238 0.0061341 -0.0028535 6.9414e-05
-0.0023074 -0.003041 -0.0037567 -0.00097588 -0.0017844 0.00063473 0.025325 0.0060519
-0.080262 0.20543 0.019748 0.009494
-0.0042342 -0.00028679 -0.0037705 -0.00067913 -0.0011541 -0.00060127 -0.002758 2.7443e-05
0.019773 0.0094691 -0.10005 0.29368
1160000000 0.071773 0.29757 0.025863 -0.020147 0.0034828 -0.00050219 -0.00017777 -0.0026034
-0.0041127 -0.00096886 -0.0011741 0.0042354
0.025855 -0.020115 -0.09852 0.37258 -0.0030903 -0.029838 -0.0015217 -0.001798
-0.0026969 0.0026037 -0.001595 0.0020032
0.0034441 -0.00051867 -0.0032193 -0.029909 0.23934 0.2448 -0.00079437 0.0018056
-0.00048195 0.0018286 -0.001133 0.00035836
-0.00022686 -0.0025588 -0.0015085 -0.0017736 -0.00079849 0.0017938 0.028037 0.28113
0.022055 -0.010527 -0.003532 0.005232
-0.0040996 -0.0010187 -0.0027173 0.0026866 -0.00046615 0.0018372 0.022078 -0.01058
-0.046086 0.21525 0.019499 0.00032792
-0.0012301 0.004287 -0.0016927 0.0019922 -0.0011292 0.00034434 -0.003601 0.0054465
0.019293 0.00019358 -0.052969 0.29725
1220000000 0.11548 0.28942 0.012388 -0.030683 -0.0011975 -0.0014204 2.1059e-05 -0.00094873
-0.0028838 0.0023761 0.0011561 0.002095
0.012421 -0.030636 -0.053605 0.38743 -0.017125 -0.022154 -0.0026163 0.00058156
4.6076e-05 0.0031565 -0.00074018 0.0020337
-0.0011997 -0.0013881 -0.017248 -0.02209 0.27913 0.2067 0.00086017 0.0016986
0.00060985 0.0012572 0.00026347 0.00064458
1.4554e-05 -0.00096066 -0.0026269 0.00057355 0.00088344 0.0016853 0.068243 0.27367
0.011199 -0.01742 0.0020292 0.0016289
-0.0028594 0.0023778 5.7436e-05 0.00313 0.00061008 0.0012544 0.011168 -0.017379
-0.023665 0.22636 0.015032 -0.012881
0.0011728 0.0021576 -0.00073585 0.0019763 0.00021885 0.00067505 0.0019899 0.0016228
0.015132 -0.012875 -0.022619 0.31647
1280000000 0.16682 0.26995 -0.0068799 -0.030038 -0.002023 0.0019377 -0.00080504 -0.0019923
-0.00085087 0.0034141 0.0026846 0.0014538
-0.0068599 -0.030016 -0.0065234 0.37932 -0.024591 -0.0087588 -0.00082854 0.0015021
0.0017921 0.001746 0.00067647 0.0021554
-0.0020097 0.001953 -0.024696 -0.0086755 0.31023 0.16315 0.0016208 -0.00011891
0.0011235 0.00024313 0.0002895 0.00037377
-0.00088153 -0.0020016 -0.00082951 0.001517 0.0015887 -7.4836e-05 0.10527 0.2577
0.0010497 -0.019867 -0.00017566 0.00024891
-0.00082031 0.0034042 0.0018199 0.0017998 0.0011115 0.00021616 0.0010031 -0.0199
0.01362 0.23089 0.0036539 -0.015787
0.0026806 0.0013695 0.00069012 0.0021862 0.00030316 0.00040956 -0.00019657 0.00018799
0.0037218 -0.015917 0.025619 0.31938
1340000000 0.20448 0.23877 -0.017433 -0.020378 0.00045243 0.004381 -0.0018954 -0.00096929
0.0015036 0.0028619 0.0018745 -0.0015492
-0.017406 -0.020375 0.033091 0.37244 -0.021936 0.0045077 -0.00013613 0.0020359
0.0019539 0.00078117 0.001224 0.00086536
0.00045512 0.0044134 -0.021948 0.0046265 0.33236 0.11635 0.00088649 -0.0010297
0.00071398 -0.00051399 0.00011921 0.00028649
-0.0018787 -0.00094441 -0.00012505 0.0020382 0.0008963 -0.001017 0.13855 0.23796
-0.0088939 -0.017001 0.0010804 0.00054658
0.0015461 0.002793 0.0019723 0.00078209 0.00064425 -0.00054046 -0.008909 -0.016986
0.043334 0.22823 -0.0034239 -0.014583
0.0017855 -0.0015829 0.0012555 0.00084871 0.00014992 0.00027904 0.0010439 0.00057001
-0.0035012 -0.014633 0.063798 0.31621
1400000000 0.23989 0.20206 -0.024209 -0.0085786 0.0050385 0.0033352 -0.0022841 0.00072812
0.0027534 0.0010422 0.0004278 -0.0016411
-0.024171 -0.0085949 0.071921 0.35994 -0.01492 0.012954 0.0013431 0.0012654
0.0011981 -0.00081824 0.0012361 9.4368e-05
0.0050503 0.0033111 -0.014915 0.013047 0.34622 0.063342 -5.9034e-05 -0.0015139
0.0001044 -0.00031882 0.0005006 0.0003203
-0.0022897 0.00072735 0.0013665 0.0012706 -4.1378e-05 -0.0015188 0.16859 0.20939
-0.015264 -0.0098082 -0.00089008 -0.00024655
0.0027245 0.0010447 0.001177 -0.00080913 7.681e-05 -0.00031464 -0.015293 -0.0097581
0.077461 0.22541 -0.010442 -0.0094793
0.00037856 -0.001587 0.0011963 0.00010917 0.00048963 0.0003153 -0.00088746 -0.00020789
-0.01038 -0.0094999 0.1093 0.30664
1460000000 0.26357 0.15888 -0.021327 0.0044549 0.0055468 -0.0016661 -0.0015101 0.0017696
0.0022923 -0.00036992 -0.00043458 -0.0010392
-0.021329 0.0044203 0.10618 0.33801 -0.0055143 0.015831 0.0016127 0.00025014
0.00091949 -0.0013336 0.0011969 -0.00058904
0.0055388 -0.0016731 -0.0054433 0.015916 0.35289 0.0095543 -0.001237 -0.0011062
0.00021331 -0.00019775 0.00071093 -0.00027168
-0.0015241 0.0017579 0.0016225 0.00023901 -0.0012752 -0.0010936 0.19523 0.18054
-0.016132 -0.0025302 -0.00083794 0.0021613
0.0023112 -0.00038182 0.00090764 -0.0013505 0.00026732 -0.00020082 -0.016136 -0.0025032
0.10682 0.21259 -0.01237 -0.0031429
-0.00042597 -0.0010764 0.0012116 -0.00055736 0.00077836 -0.00028032 -0.00084574 0.0020517
-0.012344 -0.0031091 0.14256 0.28656
1520000000 0.27752 0.11817 -0.015597 0.010374 0.00341 -0.0041726 0.00018406 0.0027151
0.0023348 -0.0019968 -0.0011499 -4.8267e-05
-0.015599 0.010347 0.14007 0.32455 0.0023361 0.012961 0.0017068 -0.00065288
7.4767e-05 -0.0010074 0.00032882 -0.0010208
0.0033839 -0.0042018 0.0024111 0.012974 0.34664 -0.045832 -0.00082576 -0.00025112
0.00077056 -0.00094086 9.6964e-05 -0.00020052
0.00022769 0.0026953 0.0017123 -0.00067033 -0.00083688 -0.00027552 0.2192 0.14289
-0.015116 0.0034784 0.0015218 0.0021444
0.0023492 -0.0019893 7.1162e-05 -0.00099238 0.00074213 -0.00095383 -0.015107 0.003552
0.13588 0.20074 -0.012365 0.0018261
-0.0011413 -7.7106e-05 0.00031399 -0.0010512 0.00010749 -0.00019285 0.0015325 0.0021986
-0.012379 0.0017832 0.17637 0.2684
1580000000 0.28813 0.07215 -0.0085493 0.01398 -0.00097986 -0.0049016 0.0015766 0.0018732
-0.00028256 -0.002372 -0.00025369 0.00042603
-0.0085571 0.013975 0.16773 0.29973 0.0059187 0.0075629 0.00060677 -0.0015384
-0.00051768 -0.0010813 -0.00025484 -0.00075462
-0.00097986 -0.0049143 0.0059855 0.0075714 0.32759 -0.10369 -0.0015055 0.00039386
-0.00039158 -0.0013318 0.00029227 -0.00063181
0.0015727 0.0018727 0.0006084 -0.0015481 -0.0014886 0.00048274 0.23356 0.10344
-0.010888 0.0084713 0.0023761 0.00083492
-0.00030359 -0.0023649 -0.00052304 -0.0010678 -0.000431 -0.0013084 -0.010825 0.008483
0.16115 0.18387 -0.0095432 0.0078611
-0.00019422 0.00048616 -0.00024735 -0.00073967 0.00024991 -0.0006642 0.0023991 0.00080366
-0.0096443 0.0078643 0.20976 0.24225
1640000000 0.291 0.031702 -0.0013984 0.012695 -0.0029473 -0.0025907 0.0028171 0.00095443
-0.00072186 -0.0017358 -0.00028046 0.00057556
-0.0014067 0.012694 0.19685 0.27617 0.0059537 0.0024657 -0.00047889 -0.001905
-0.00083631 -0.00047499 -0.00047448 -0.00066222
-0.0029545 -0.002547 0.0060154 0.0024433 0.29906 -0.15208 -0.00062206 0.0012835
-0.0010443 -0.00090948 -0.00023142 -0.00047673
0.0028278 0.00094383 -0.00049676 -0.0019039 -0.00064704 0.0012514 0.24631 0.055204
-0.0063086 0.0091279 0.0026088 -0.00075929
-0.00075021 -0.0017401 -0.0008523 -0.00048669 -0.0010317 -0.00097657 -0.0063076 0.0091506
0.18447 0.16149 -0.0044219 0.010062
-0.0002992 0.00059942 -0.00050271 -0.00066686 -0.00024228 -0.0004851 0.0026492 -0.00083299
-0.0044421 0.010027 0.23568 0.21261
1700000000 0.28581 -0.01305 0.0021809 0.0097032 -0.0036791 8.2449e-05 0.003087 -0.001268
-0.0021709 -0.00064021 0.00065709 0.00042031
0.0021778 0.0097058 0.21588 0.24529 0.0033445 -0.00051588 -0.0015303 -0.00075317
-0.00077096 -0.00018392 -0.00085002 -0.00039549
-0.0036393 9.7597e-05 0.0033639 -0.00054066 0.25721 -0.19192 0.00010587 0.0014387
-0.0021197 -0.00024744 -0.0003901 -0.00077869
0.0030709 -0.0012842 -0.001539 -0.00074792 0.00011209 0.0014896 0.24432 0.005349
-0.0033893 0.0090561 0.0016764 -0.0022296
-0.0021931 -0.00062036 -0.00076079 -0.00017177 -0.0021048 -0.00021266 -0.0034078 0.0090918
0.20354 0.14229 0.00042928 0.01007
0.00069165 0.00041508 -0.00088957 -0.00039074 -0.00040659 -0.00086535 0.0016302 -0.0021759
0.00041829 0.010144 0.25416 0.17914
1760000000 0.27474 -0.061643 0.0045009 0.0062736 -0.0023899 0.0012997 0.0012862 -0.0035204
-0.0013548 0.00067586 0.00030942 -0.0006093
0.004487 0.0062541 0.24185 0.20634 0.00053379 -0.0020857 -0.0013261 1.7473e-05
-0.0011515 0.00078168 -0.00058214 0.00032173
-0.0023951 0.0012364 0.00052861 -0.0020997 0.20919 -0.22551 0.0010285 0.0011462
-0.0011321 0.0013422 -0.0012943 -0.00062326
0.0012569 -0.0035275 -0.0013278 3.6612e-05 0.001097 0.0011213 0.23563 -0.046309
-0.00049421 0.0078264 -0.00013554 -0.0025594
-0.001358 0.00063705 -0.0011382 0.00079927 -0.0011257 0.0013957 -0.00047956 0.0077859
0.21909 0.10865 0.0045533 0.0073574
0.00029135 -0.00064092 -0.00056822 0.00032888 -0.001322 -0.00053137 -0.00013555 -0.0025987
0.0045914 0.0073418 0.26759 0.14151
1820000000 0.2524 -0.09878 0.0046095 0.0026038 -7.7167e-06 0.0025719 -0.0010054 -0.0031551
-0.0011437 0.0009662 -0.00016063 -0.00022461
0.0045992 0.0025905 0.25333 0.17756 -0.0018389 -0.0002716 -0.0015428 0.00096913
-0.00019796 0.0012195 -0.00054479 0.0004378
1.8084e-05 0.0025384 -0.0018218 -0.00029257 0.15879 -0.24101 0.0015312 0.00071816
-0.00031551 0.0023889 -0.0017172 0.00022057
-0.0010145 -0.0031837 -0.0015458 0.0010016 0.0015674 0.00064746 0.20696 -0.093522
0.00062608 0.0063955 -0.0017766 -0.001872
-0.0011484 0.00099304 -0.00020708 0.0012139 -0.00025894 0.0023713 0.00063319 0.0063431
0.23779 0.081237 0.005468 0.0032605
-0.00021418 -0.00021105 -0.00058554 0.00042874 -0.0016518 0.0001427 -0.0018055 -0.001869
0.0054448 0.0032795 0.27153 0.10645
1880000000 0.21858 -0.14032 0.0022767 0.00041186 -0.00030803 0.0024207 -0.0029655 -0.0023201
-0.00020391 0.0017945 0.00011965 -0.00046621
0.0023045 0.00042784 0.25852 0.13121 -0.0038154 0.0024566 -0.00027513 0.0018564
0.00043007 0.0014126 6.5138e-05 0.00094587
-0.00027311 0.0024205 -0.0038348 0.0023942 0.10664 -0.25022 0.002007 -0.0009221
0.0015043 0.0019434 -0.001069 0.0015453
-0.0030073 -0.0022966 -0.00026974 0.0018677 0.0020402 -0.00087094 0.16676 -0.13496
0.00097723 0.0043738 -0.0026236 0.00022988
-0.00016014 0.0017208 0.00045821 0.0014011 0.0014564 0.0019662 0.00099108 0.0044279
0.24281 0.050253 0.0056217 0.00097971
0.0001414 -0.00052522 0.00011123 0.00097453 -0.001079 0.0016089 -0.0025938 0.00025554
0.0055762 0.0010338 0.27272 0.071512
1940000000 0.17981 -0.1663 9.5615e-05 -0.0012822 0.0018051 0.001908 -0.0039779 0.00046051
0.0011665 0.0010492 -0.00061375 -0.00035503
5.6585e-05 -0.0012439 0.26024 0.10036 -0.0019972 0.0053334 0.0011262 0.0014885
0.0019445 0.0006496 0.00082409 0.00035093
0.0017195 0.0019744 -0.0019447 0.0053449 0.062022 -0.24268 0.00080452 -0.0023855
0.0023973 0.00053075 0.00024062 0.0017547
-0.0039934 0.00043816 0.0011488 0.0014651 0.00082653 -0.0024499 0.11431 -0.16577
2.216e-05 0.0033537 -0.0016091 0.0014457
0.0011939 0.000987 0.0019661 0.00064995 0.0023971 0.00053237 4.4435e-05 0.0033213
0.24703 0.013345 0.0040572 -0.0028701
-0.00066972 -0.0003469 0.00081956 0.0003674 0.00018372 0.0018242 -0.0016252 0.0015031
0.0040258 -0.0028553 0.26206 0.03613
2000000000 0.13506 -0.18246 -0.003559 0.00078462 0.0030193 0.0013741 -0.0024419 0.0036561
0.0010174 0.00025141 -0.00055311 0.00039258
-0.003555 0.00077093 0.24781 0.064782 -0.00092412 0.0074342 0.0017997 0.00030472
0.0014346 -0.0011966 0.00046532 8.1226e-05
0.0030101 0.0014324 -0.00088826 0.0073832 0.019456 -0.2289 -0.0014299 -0.0017326
0.0021958 -0.0011987 0.0016302 0.0015634
-0.0023933 0.0036715 0.001787 0.00028191 -0.0014383 -0.0017262 0.061241 -0.17659
-0.0015957 0.0034119 -0.00020951 0.0023298
0.0010084 0.00034418 0.0013987 -0.0012148 0.0020903 -0.0011596 -0.0015711 0.0034853
0.24391 -0.019478 0.00056419 -0.0035784
