!Keysight Technologies,M9804A,MY58100912,A.14.10.03
!Date: Thursday, April 27, 2023 10:28:33
!Correction: S11(C  6-Port  ) 
!S12(C  6-Port  ) 
!S13(C  6-Port  ) 
!S14(C  6-Port  ) 
!S15(C  6-Port  ) 
!S16(C  6-Port  ) 
!S21(C  6-Port  ) 
!S22(C  6-Port  ) 
!S23(C  6-Port  ) 
!S24(C  6-Port  ) 
!S25(C  6-Port  ) 
!S26(C  6-Port  ) 
!S31(C  6-Port  ) 
!S32(C  6-Port  ) 
!S33(C  6-Port  ) 
!S34(C  6-Port  ) 
!S35(C  6-Port  ) 
!S36(C  6-Port  ) 
!S41(C  6-Port  ) 
!S42(C  6-Port  ) 
!S43(C  6-Port  ) 
!S44(C  6-Port  ) 
!S45(C  6-Port  ) 
!S46(C  6-Port  ) 
!S51(C  6-Port  ) 
!S52(C  6-Port  ) 
!S53(C  6-Port  ) 
!S54(C  6-Port  ) 
!S55(C  6-Port  ) 
!S56(C  6-Port  ) 
!S61(C  6-Port  ) 
!S62(C  6-Port  ) 
!S63(C  6-Port  ) 
!S64(C  6-Port  ) 
!S65(C  6-Port  ) 
!S66(C  6-Port  ) 
!S6P File: Measurement: :
# Hz S  RI   R 50
500000000 -0.33197 -0.065586 -0.010149 -0.0011876 -0.0083986 0.013253 -0.0037377 0.01179
0.01195 0.0053841 -0.0038311 0.0078058
-0.010293 -0.001179 -0.41174 -0.073831 0.0088013 -0.010692 0.00073689 0.011446
0.0085802 0.0039162 0.00088326 0.013216
-0.0082814 0.013302 0.0087498 -0.010829 -0.26441 0.19052 0.0072005 0.0034168
-0.0021267 0.0084856 0.0007685 0.012112
-0.0038668 0.012023 0.00089041 0.011495 0.007251 0.0034164 -0.33281 0.03712
-0.017767 -0.0036271 0.013544 0.025001
0.012096 0.0052113 0.0085547 0.003903 -0.0021314 0.0084867 -0.017794 -0.0040342
-0.23583 -0.2148 -0.026315 0.005932
-0.0039152 0.007764 0.00077502 0.013245 0.00074429 0.012091 0.013573 0.025396
-0.02627 0.0058365 -0.26721 -0.14334
560000000 -0.31985 0.10326 -0.021871 -0.066715 -0.00019153 0.013532 0.0055793 0.011314
0.010586 0.0036494 0.010466 0.0085899
-0.021965 -0.066766 -0.37241 0.091563 -0.041506 -0.039326 0.014736 0.0032951
-0.013496 -0.0042653 0.0040833 -0.0011494
-0.00015051 0.013563 -0.041907 -0.039281 -0.18623 0.2423 -0.00061687 -0.0043513
0.018934 0.0063701 0.0071361 -0.006229
0.0054174 0.011352 0.014898 0.0037267 -0.00085499 -0.0045217 -0.30621 0.12958
0.0062282 -0.023336 0.0057399 -0.021925
0.01081 0.0037027 -0.012907 -0.0042185 0.018763 0.006382 0.0068124 -0.023373
-0.30582 -0.034407 0.010048 -0.050937
0.010565 0.008587 0.0041239 -0.0012879 0.0071671 -0.0062588 0.0056005 -0.021863
0.010212 -0.05087 -0.33036 0.0078321
620000000 -0.27844 0.081859 -0.022996 0.0087901 0.003557 0.0096896 0.0081352 -0.0036271
0.012867 -0.0019229 -1.2209e-05 -0.0013895
-0.022966 0.0088536 -0.40185 0.03789 -0.018301 6.0195e-05 -0.0018764 -0.0019767
0.012885 -0.0061006 0.00070532 -0.0030016
0.0035176 0.0097647 -0.018322 5.5898e-05 -0.15769 0.2526 -0.00065712 -0.0048792
-0.0036033 -0.0031873 0.010244 -0.002998
0.0078673 -0.0035373 -0.0018854 -0.0018633 -0.00073345 -0.0049115 -0.26511 0.14003
-0.038314 -0.019863 0.014264 0.027783
0.012996 -0.0016935 0.012902 -0.00612 -0.0035605 -0.0031623 -0.038467 -0.019863
-0.22547 -0.070534 -0.044207 0.012106
-0.0002044 -0.0014337 0.00072305 -0.0030931 0.010061 -0.0029397 0.013832 0.027985
-0.04391 0.012014 -0.24465 -0.026331
680000000 -0.24343 0.17631 -0.026359 -0.015135 0.0049334 0.0056466 0.001626 -0.0075288
-0.0021399 -0.011195 0.005774 -0.0067128
-0.026392 -0.015119 -0.39118 0.13953 -0.032969 -0.0028081 -0.0017875 -0.00066575
-0.0015495 -0.0091392 -0.0013988 -0.00188
0.0049846 0.0056194 -0.032968 -0.0027219 -0.10837 0.27485 -0.00095941 -0.00034743
-0.0014823 0.00074782 -0.0032652 -0.0093114
0.0014991 -0.0076779 -0.0017884 -0.00067181 -0.00097258 -0.00034343 -0.2214 0.19258
-0.023332 -0.0080971 -0.0098184 -0.011216
-0.0021751 -0.011251 -0.0015765 -0.0092277 -0.001483 0.00075571 -0.023232 -0.0081554
-0.28083 0.035369 -0.0052985 -0.0071773
0.0059549 -0.0068551 -0.0012446 -0.0019034 -0.0032124 -0.0094127 -0.0095769 -0.010898
-0.0053492 -0.0073134 -0.26212 0.07847
740000000 -0.19643 0.16855 -0.041053 0.026355 0.014375 -0.0042347 0.00027925 -0.0039217
-0.0042535 -0.0027916 -0.0065848 0.0028607
-0.041091 0.026286 -0.33766 0.15884 -0.037471 0.034435 -0.00010442 -0.0062356
-0.012368 0.0069684 -0.0014309 -0.0063845
0.014341 -0.0042671 -0.037445 0.034573 -0.074722 0.27329 -0.0014584 0.0034956
-0.0024499 -0.0058298 -0.001118 0.0010427
0.00026377 -0.0039103 -0.00020881 -0.0062381 -0.0014422 0.0034883 -0.20509 0.19917
-0.042816 -0.0089784 0.023296 0.016022
-0.0044555 -0.0027848 -0.012258 0.0071608 -0.00243 -0.0058399 -0.042903 -0.0089723
-0.18274 0.064431 -0.044332 -9.2745e-05
-0.006605 0.0030209 -0.0015954 -0.0062727 -0.0011731 0.0010539 0.023087 0.015881
-0.044155 9.8581e-05 -0.25143 0.085699
800000000 -0.16594 0.21449 -0.022743 0.015874 0.0060478 -0.010482 -0.0045612 -0.002779
-0.0047511 0.0021814 0.0040342 -0.00017657
-0.022718 0.015846 -0.34513 0.23024 -0.0094347 0.034545 -0.002246 0.0018263
-0.00078303 0.0027673 0.00053043 0.0049789
0.0060012 -0.01053 -0.009319 0.0346 -0.036398 0.299 0.00085849 0.001144
0.00021847 0.0034784 -0.0021162 0.000913
-0.004523 -0.0027586 -0.0021832 0.001772 0.00086686 0.0011481 -0.17629 0.22732
-0.029207 0.012449 0.014122 -0.01077
-0.0046851 0.0021687 -0.00076778 0.0027923 0.0002147 0.0034861 -0.029265 0.012609
-0.22724 0.091507 -0.01823 0.020273
0.0040591 -0.00031712 0.0006602 0.0049099 -0.0021336 0.00088677 0.014254 -0.010745
-0.018336 0.0202 -0.24729 0.13463
860000000 -0.1323 0.2354 -0.018737 0.03042 -0.0028125 -0.010444 -0.0018628 0.00096295
0.0040563 0.0056188 -0.0036277 -0.0030987
-0.018742 0.03038 -0.29842 0.27471 0.006936 0.035262 0.00019144 0.0024754
0.0039704 0.00054847 0.0036989 0.00010129
-0.0028501 -0.010436 0.0070618 0.035279 0.011198 0.30876 -0.00052985 -0.00011722
0.0022637 -0.0015558 0.0019503 0.0041577
-0.001961 0.00086879 0.00015099 0.0025157 -0.00059144 -0.0001248 -0.14034 0.23907
-0.01938 0.018353 -0.0061148 -0.008844
0.0039684 0.0056937 0.0038954 0.0005467 0.0022419 -0.0015759 -0.019169 0.018248
-0.17222 0.1468 -0.02547 0.015935
-0.0036409 -0.0030754 0.0037181 0.00018302 0.001966 0.0041999 -0.0062842 -0.0085655
-0.025492 0.015909 -0.19588 0.18304
920000000 -0.10912 0.25921 0.0039138 0.03914 -0.0094287 -0.0051952 -0.0021219 0.0016614
0.00067481 0.0015696 0.0031371 -0.0010271
0.0039373 0.039096 -0.27136 0.29713 0.028233 0.023786 0.0012376 0.0012045
0.0077604 -0.00015145 0.0042265 -0.0027504
-0.0094482 -0.0051649 0.028364 0.023753 0.057114 0.31115 0.0017877 0.00012653
0.00077681 -0.000188 0.0010783 -0.0015394
-0.0020242 0.0017224 0.0012425 0.0011597 0.001849 0.00016516 -0.11628 0.25641
-0.012092 0.030468 0.0041615 -0.0067191
0.00067151 0.0015512 0.0077406 -0.00018392 0.00078295 -0.00020533 -0.012083 0.030632
-0.16281 0.15277 -0.002307 0.027689
0.0031269 -0.0010552 0.0041628 -0.002741 0.0010877 -0.0015467 0.003993 -0.0069091
-0.0023176 0.027694 -0.20522 0.19555
980000000 -0.063395 0.28041 0.01622 0.031051 -0.0098475 0.0044503 0.0017697 0.0037652
0.0042993 -0.0014113 -0.0034782 -0.0025537
0.016168 0.031049 -0.21912 0.3334 0.033795 0.0061092 0.0020487 -0.00029196
0.0020554 -0.0063124 -0.0005971 -0.0026008
-0.0098421 0.0044733 0.033879 0.0059986 0.10344 0.30597 0.0006514 -0.0011094
0.00057695 -0.0018617 0.0012654 -0.00019499
0.0017897 0.0038388 0.0020644 -0.00026012 0.00064088 -0.001126 -0.078023 0.26756
0.0072848 0.03057 -0.0097948 -0.0079184
0.0042853 -0.0013963 0.001942 -0.0063092 0.00056935 -0.0018707 0.0072616 0.030631
-0.13032 0.18412 0.0048516 0.020197
-0.0034397 -0.0025097 -0.00050705 -0.0026586 0.0012676 -0.00023139 -0.0097828 -0.0077192
0.0047728 0.020185 -0.16461 0.2425
1040000000 -0.022498 0.29008 0.03343 0.020266 -0.001531 0.0075713 0.0025612 0.00078909
0.00031735 -0.0034135 -0.00023809 -0.0015122
0.033407 0.020299 -0.1843 0.34791 0.03081 -0.014292 0.0015812 -0.0018281
-0.002221 -0.0023108 -0.0012363 -0.0031925
-0.0015174 0.0075754 0.030811 -0.014439 0.14968 0.29388 -0.00042908 -0.0016529
-0.0015628 -0.00090905 -0.0005596 -0.0012589
0.0025699 0.0008021 0.0015624 -0.0017908 -0.00042937 -0.0016275 -0.051056 0.27826
0.01909 0.019473 -0.0024337 0.0012437
0.00032208 -0.0034704 -0.0022569 -0.0023282 -0.0015305 -0.00090598 0.019202 0.019395
-0.09839 0.19199 0.013161 0.019401
-0.00029971 -0.0014662 -0.0013065 -0.0031164 -0.00055411 -0.0012374 -0.0024244 0.0012902
0.013158 0.019411 -0.14293 0.26387
1100000000 0.02242 0.30072 0.037429 -0.0024437 0.0032531 0.0044401 0.0025272 -0.0011263
-0.0021569 -0.0029419 -0.0041325 -2.1252e-05
0.037387 -0.0024143 -0.14077 0.36779 0.016455 -0.028315 -5.9675e-05 -0.0018296
-0.0036534 -0.00071083 -0.0035414 -0.00040673
0.0032667 0.004426 0.016367 -0.028434 0.19659 0.27487 -0.0019137 0.00022091
-0.0017816 0.00060547 -0.0010942 -0.00050564
0.0025402 -0.0011177 -6.7824e-05 -0.0018494 -0.0018887 0.00020426 -0.010573 0.28391
0.025118 0.0060266 -0.0028153 0.0004309
-0.0021476 -0.0029528 -0.0036783 -0.0006618 -0.0017757 0.00061968 0.025121 0.0060916
-0.078791 0.2075 0.019784 0.0096573
-0.0041023 -5.744e-05 -0.0035627 -0.00043257 -0.0010795 -0.00053475 -0.0027813 0.00032207
0.019758 0.0096519 -0.097349 0.29578
1160000000 0.07304 0.29758 0.025708 -0.020378 0.0034269 -0.00050275 -0.00020192 -0.0025451
-0.0040527 -0.00096411 -0.0012105 0.0041846
0.025704 -0.020357 -0.097381 0.3731 -0.0031879 -0.029917 -0.0015427 -0.0016482
-0.0027132 0.0025618 -0.0017456 0.0020105
0.0034209 -0.00053259 -0.0033232 -0.029939 0.24017 0.24482 -0.00075834 0.0018719
-0.00066048 0.0018928 -0.0012482 0.00033639
-0.00019685 -0.0025132 -0.0015561 -0.0016276 -0.0007798 0.0018932 0.028833 0.28173
0.022206 -0.010251 -0.0034157 0.0052932
-0.0040692 -0.00089411 -0.0026789 0.0025498 -0.00063722 0.001907 0.022169 -0.01029
-0.045175 0.21657 0.019861 3.9523e-05
-0.0011645 0.0041673 -0.0017568 0.0020895 -0.0012248 0.00033011 -0.0033467 0.0053322
0.019861 -3.1519e-06 -0.050422 0.29864
1220000000 0.11699 0.28931 0.01234 -0.030749 -0.0012101 -0.00141 2.0845e-05 -0.00091665
-0.0027491 0.0022584 0.0012072 0.0021111
0.01234 -0.030715 -0.052507 0.38774 -0.017164 -0.022066 -0.0026135 0.0005208
0.00012779 0.003158 -0.00080306 0.001948
-0.0012217 -0.0014063 -0.017283 -0.022027 0.2798 0.20651 0.00083515 0.0016949
0.00058079 0.0012834 0.00026621 0.00075678
-7.0015e-06 -0.00090669 -0.0026223 0.00054161 0.00083706 0.0017063 0.069043 0.27414
0.011048 -0.017362 0.0023823 0.001665
-0.0027429 0.0022806 0.00010974 0.0031606 0.00057817 0.0012785 0.011059 -0.017362
-0.021677 0.22727 0.014754 -0.012911
0.0012023 0.0021169 -0.00081866 0.0019594 0.00026763 0.00072951 0.0024172 0.0016797
0.014748 -0.012892 -0.019619 0.31627
1280000000 0.16783 0.26984 -0.007087 -0.029915 -0.0020469 0.002 -0.00089348 -0.002051
-0.00085754 0.0032838 0.0025361 0.0013967
-0.0070582 -0.029884 -0.0054912 0.37976 -0.024588 -0.0087069 -0.00092374 0.0014905
0.0018167 0.0016363 0.00074877 0.0022446
-0.0020349 0.0020125 -0.024681 -0.0086014 0.31072 0.163 0.0016606 -9.2072e-05
0.0011061 0.00025463 0.00027156 0.00049008
-0.00086381 -0.0020253 -0.00090379 0.0014878 0.0016711 -9.7082e-05 0.10622 0.25771
0.0011892 -0.019856 -0.00032177 3.2504e-05
-0.0008166 0.003319 0.0018466 0.0016437 0.0011169 0.00026342 0.0011585 -0.019875
0.015178 0.23181 0.0038169 -0.015985
0.0025644 0.0014039 0.00074007 0.0022255 0.00026697 0.00048932 -0.00027708 8.6084e-06
0.0038337 -0.015971 0.027714 0.31976
1340000000 0.20565 0.2381 -0.017531 -0.020366 0.00045136 0.0043866 -0.0018365 -0.00081939
0.0015192 0.002789 0.0018529 -0.0014287
-0.0175 -0.020349 0.034202 0.37244 -0.021927 0.0045901 -1.9231e-05 0.0019896
0.0019562 0.00081957 0.0012036 0.0008461
0.00048462 0.0043959 -0.021946 0.0047142 0.33286 0.11607 0.0010054 -0.00099178
0.00073471 -0.00053364 0.00018967 0.00034868
-0.0018622 -0.00083074 -1.2204e-05 0.0020031 0.00097684 -0.00099425 0.13934 0.23776
-0.0088149 -0.017033 0.0010443 0.000334
0.0015411 0.0027849 0.0019536 0.00079197 0.0007446 -0.00052902 -0.008858 -0.016984
0.045396 0.22908 -0.0035032 -0.014767
0.0018164 -0.0014483 0.0012571 0.00082035 0.00019743 0.00034663 0.0010192 0.0002681
-0.0035504 -0.014766 0.066171 0.31569
1400000000 0.24059 0.20146 -0.024203 -0.0084793 0.0050095 0.0033309 -0.0021991 0.0007644
0.0026858 0.0010676 0.00031323 -0.0017028
-0.02416 -0.0084908 0.072886 0.3598 -0.014931 0.012954 0.0013055 0.001275
0.0011451 -0.00079311 0.0011809 0.00017359
0.0050297 0.0032998 -0.014892 0.013056 0.34645 0.063132 -5.9268e-05 -0.0015726
0.00013719 -0.00032176 0.00050221 0.00026147
-0.0021985 0.00077507 0.001314 0.0012692 -5.5721e-05 -0.0015615 0.16923 0.20912
-0.015243 -0.00985 -0.00085465 -0.00010067
0.0027063 0.0010554 0.0011511 -0.00080842 0.00013569 -0.00031714 -0.015286 -0.0098263
0.079517 0.22578 -0.010577 -0.009432
0.00033652 -0.001683 0.0012176 0.000165 0.00052585 0.00028935 -0.00081822 -4.1015e-05
-0.010525 -0.0094025 0.11184 0.30624
1460000000 0.26433 0.15822 -0.021247 0.0045563 0.0055913 -0.0017041 -0.0015782 0.0018035
0.0022251 -0.00044302 -0.0003079 -0.0010075
-0.021222 0.0045397 0.10716 0.33785 -0.0054814 0.015856 0.001611 0.00022387
0.00088785 -0.0013192 0.0011718 -0.00057962
0.0055829 -0.0017227 -0.0054 0.015906 0.35326 0.0094882 -0.0012043 -0.0011518
0.00026627 -0.00026206 0.00076247 -0.00026596
-0.0015485 0.0017946 0.0016265 0.0002108 -0.0012035 -0.0011655 0.1958 0.18026
-0.016065 -0.0025703 -0.00091884 0.002072
0.0022371 -0.00047329 0.00090562 -0.0013108 0.00028415 -0.00028466 -0.016071 -0.0025525
0.10913 0.21269 -0.012249 -0.0029986
-0.00034698 -0.00098274 0.0011784 -0.00059991 0.00072222 -0.0002595 -0.00082133 0.0020238
-0.012254 -0.0030302 0.14497 0.28595
1520000000 0.27806 0.1174 -0.015491 0.01045 0.0033935 -0.0041878 0.0001765 0.0026715
0.0022586 -0.0019945 -0.0011683 -0.00015156
-0.015489 0.010426 0.14085 0.32409 0.0023544 0.012952 0.0016685 -0.00064837
4.0129e-05 -0.00092014 0.00031879 -0.0011233
0.0033682 -0.0042102 0.0024254 0.012958 0.34684 -0.045907 -0.00086184 -0.000313
0.00068488 -0.00092796 0.00014303 -0.00030414
0.00020966 0.0026628 0.0016615 -0.00066127 -0.0008764 -0.00026174 0.21957 0.14239
-0.015036 0.0035451 0.0015705 0.002101
0.0022511 -0.0020075 2.8401e-05 -0.00093378 0.00067948 -0.00093229 -0.01501 0.0035858
0.1381 0.20032 -0.012286 0.0018307
-0.0011626 -0.0001768 0.00030598 -0.0010943 0.00019241 -0.00028258 0.0015099 0.0020881
-0.012278 0.0018421 0.17847 0.26703
1580000000 0.28854 0.071638 -0.0084502 0.014019 -0.00099637 -0.0048422 0.0015773 0.0017995
-0.00027498 -0.0022836 -0.00029301 0.00048426
-0.0084414 0.014 0.16829 0.2993 0.0058617 0.0076042 0.00059181 -0.0015383
-0.00046182 -0.0010491 -0.00022822 -0.00077325
-0.0010129 -0.0048424 0.0058987 0.0075788 0.32782 -0.10351 -0.0014389 0.00044657
-0.00034489 -0.001223 0.00029924 -0.00058611
0.0015726 0.0018169 0.00061203 -0.0015447 -0.0014399 0.00041836 0.23389 0.10313
-0.010819 0.008385 0.0023399 0.00066465
-0.00028848 -0.0022864 -0.00047176 -0.0010397 -0.00034143 -0.0012347 -0.010832 0.0084034
0.16314 0.1832 -0.0095169 0.0078866
-0.00026419 0.00048059 -0.00020005 -0.00081422 0.00026938 -0.00062782 0.0023312 0.00067557
-0.0095143 0.0078518 0.2117 0.24117
1640000000 0.29154 0.031002 -0.0013341 0.012678 -0.0030311 -0.0025951 0.0027633 0.0010376
-0.00086088 -0.0016487 -0.00029221 0.00047286
-0.0013508 0.012666 0.19743 0.27565 0.0059614 0.0025123 -0.00043365 -0.0018347
-0.00083315 -0.00044242 -0.00050994 -0.00073231
-0.0030331 -0.0025829 0.0059727 0.0024801 0.29939 -0.15191 -0.00063076 0.0013788
-0.0010899 -0.00093416 -0.00013906 -0.00058412
0.0027738 0.0010139 -0.0004489 -0.0018436 -0.00063321 0.0013708 0.24667 0.054656
-0.0062236 0.0090596 0.0024987 -0.00074398
-0.0008814 -0.0016462 -0.0008237 -0.00043191 -0.0010685 -0.00092572 -0.0061653 0.0090547
0.18665 0.16035 -0.0044727 0.010029
-0.00028212 0.0005133 -0.00053592 -0.00068523 -0.0001444 -0.00054011 0.0025043 -0.00080045
-0.0044909 0.010027 0.23742 0.21126
1700000000 0.28616 -0.013837 0.0022751 0.0095904 -0.0036707 0.00013764 0.0031627 -0.0012334
-0.0020973 -0.00054035 0.00057865 0.00041419
0.0022734 0.009587 0.21625 0.24471 0.0034442 -0.00050411 -0.0014756 -0.00076688
-0.00078206 -0.00016425 -0.00089319 -0.00036078
-0.0036751 0.00017282 0.0034413 -0.00052913 0.25772 -0.19169 0.00025417 0.0015188
-0.0020601 -7.0073e-05 -0.00049282 -0.00083056
0.0031529 -0.0012516 -0.0014697 -0.0007523 0.00026426 0.0015295 0.24405 0.0048556
-0.0035599 0.0089719 0.0015629 -0.0020697
-0.0021055 -0.00052056 -0.00078696 -0.00014688 -0.002057 -7.3883e-05 -0.0035504 0.0089841
0.20518 0.14078 0.00028313 0.010096
0.00059171 0.00040589 -0.00089994 -0.00038168 -0.00052157 -0.00082698 0.0015423 -0.0021159
0.00030511 0.010094 0.25531 0.1777
1760000000 0.27516 -0.062333 0.0044817 0.0061261 -0.002461 0.0012739 0.0012478 -0.0034878
-0.001412 0.00063378 0.0003691 -0.00046798
0.0044759 0.0061242 0.2422 0.20585 0.00062297 -0.0021429 -0.0013228 5.1461e-05
-0.0011451 0.00078218 -0.00051847 0.00044348
-0.0024497 0.0012782 0.00060521 -0.0021588 0.21011 -0.22559 0.0011215 0.0010937
-0.0011282 0.001446 -0.0012938 -0.00045638
0.0012501 -0.0035033 -0.0013229 4.4026e-05 0.0011029 0.0010874 0.23565 -0.046545
-0.00068567 0.0078139 -0.0002181 -0.0025272
-0.0013958 0.00061554 -0.0011459 0.00078946 -0.0011434 0.0014343 -0.0006409 0.0078659
0.22038 0.10723 0.0044849 0.0073542
0.00031727 -0.0004725 -0.00052066 0.00043733 -0.0013091 -0.00047524 -0.0002078 -0.0025521
0.0044869 0.0073628 0.26885 0.14001
1820000000 0.25239 -0.099574 0.0045017 0.002552 0.00010461 0.0026202 -0.00094362 -0.0032214
-0.001055 0.00097548 -0.00016186 -0.00026367
0.0044967 0.0025513 0.25344 0.177 -0.0018657 -0.00030761 -0.0014363 0.00097776
-0.000173 0.0012567 -0.00056755 0.00045506
0.00013806 0.0026063 -0.0018656 -0.00028899 0.15911 -0.24163 0.0016407 0.00061884
-0.00021734 0.0023413 -0.0015481 0.00039953
-0.00094669 -0.0032005 -0.0014305 0.0010124 0.0016286 0.00060869 0.20661 -0.094048
0.0004571 0.006249 -0.0015022 -0.0018693
-0.0010399 0.00099026 -0.00016444 0.0012499 -0.00022355 0.0023126 0.00042929 0.0061707
0.23868 0.079432 0.0057068 0.0034794
-0.00017561 -0.00026947 -0.00056688 0.00046355 -0.0015738 0.00046647 -0.0015695 -0.0017509
0.0057041 0.0034954 0.27215 0.10446
1880000000 0.21842 -0.14113 0.0021721 0.00037581 -0.00033144 0.0023849 -0.003027 -0.0023141
-0.00020839 0.0016634 0.00024628 -0.00042474
0.0021527 0.0003633 0.2585 0.13085 -0.0038306 0.0024036 -0.00028984 0.0018613
0.00046774 0.0014137 0.00016729 0.00099894
-0.00032225 0.0023845 -0.0038142 0.0024287 0.10691 -0.25059 0.0018684 -0.0010383
0.0015465 0.0018844 -0.0009425 0.0014428
-0.0030517 -0.0022516 -0.00023561 0.0018877 0.0019115 -0.0010241 0.16674 -0.13485
0.00086295 0.004465 -0.0026518 4.9552e-05
-0.00019949 0.0016721 0.00048778 0.0014268 0.0015818 0.0019001 0.00087328 0.0045567
0.24363 0.048619 0.0054622 0.00086495
0.00020516 -0.00044175 0.00019433 0.00095992 -0.00092555 0.0014006 -0.0025587 -7.633e-05
0.0054188 0.00084261 0.27347 0.070461
1940000000 0.17972 -0.16721 -6.6198e-05 -0.0011222 0.0016581 0.0020867 -0.003925 0.00030912
0.0011471 0.00080582 -0.00077701 -0.00050071
-6.1076e-05 -0.0011197 0.26018 0.1 -0.0020253 0.0054253 0.0010823 0.0014544
0.0018744 0.00057014 0.00085446 0.00030817
0.0016609 0.0020663 -0.00199 0.0054476 0.06245 -0.24293 0.00062931 -0.0022806
0.0022892 0.00051243 0.00031494 0.0015514
-0.0040116 0.00030855 0.0010893 0.0014654 0.00062669 -0.0022711 0.11449 -0.16593
-0.00019941 0.0035208 -0.0016613 0.0015012
0.0011467 0.0008063 0.0018814 0.00058364 0.0022891 0.00051326 -5.3542e-05 0.0034226
0.24742 0.011683 0.0040648 -0.0027131
-0.00077743 -0.00055058 0.00084004 0.00030239 0.00026067 0.0015607 -0.0018144 0.0014312
0.0040466 -0.0027195 0.26298 0.034058
2000000000 0.1347 -0.18292 -0.0035131 0.00094451 0.0029442 0.001233 -0.0022365 0.003913
0.00099821 0.0004327 -0.00049549 0.00053916
-0.0035051 0.00095085 0.24767 0.064689 -0.00082102 0.0074609 0.0018516 0.00033547
0.0014313 -0.0012166 0.00030839 0.00019638
0.0029672 0.0012196 -0.00077216 0.0074933 0.019913 -0.22934 -0.0013337 -0.0016746
0.0020631 -0.0011945 0.0014107 0.0017051
-0.0021785 0.0039488 0.0018475 0.00035318 -0.0013379 -0.0016885 0.060894 -0.17641
-0.0014945 0.0036883 -0.00015285 0.0023645
0.0010317 0.00047635 0.0014257 -0.0012445 0.002063 -0.0012048 -0.0016806 0.0037235
0.24432 -0.020799 0.00052725 -0.0038044
