!Keysight Technologies,M9804A,MY58100912,A.14.10.03
!Date: Thursday, April 27, 2023 10:28:33
!Correction: S11(C  6-Port  ) 
!S12(C  6-Port  ) 
!S13(C  6-Port  ) 
!S14(C  6-Port  ) 
!S15(C  6-Port  ) 
!S16(C  6-Port  ) 
!S21(C  6-Port  ) 
!S22(C  6-Port  ) 
!S23(C  6-Port  ) 
!S24(C  6-Port  ) 
!S25(C  6-Port  ) 
!S26(C  6-Port  ) 
!S31(C  6-Port  ) 
!S32(C  6-Port  ) 
!S33(C  6-Port  ) 
!S34(C  6-Port  ) 
!S35(C  6-Port  ) 
!S36(C  6-Port  ) 
!S41(C  6-Port  ) 
!S42(C  6-Port  ) 
!S43(C  6-Port  ) 
!S44(C  6-Port  ) 
!S45(C  6-Port  ) 
!S46(C  6-Port  ) 
!S51(C  6-Port  ) 
!S52(C  6-Port  ) 
!S53(C  6-Port  ) 
!S54(C  6-Port  ) 
!S55(C  6-Port  ) 
!S56(C  6-Port  ) 
!S61(C  6-Port  ) 
!S62(C  6-Port  ) 
!S63(C  6-Port  ) 
!S64(C  6-Port  ) 
!S65(C  6-Port  ) 
!S66(C  6-Port  ) 
!S6P File: Measurement: :
# Hz S  RI   R 50
500000000 -0.33286 -0.06689 -0.011117 -0.0014513 -0.0095369 0.013497 -0.0043273 0.011831
0.012828 0.0055009 -0.0033155 0.0075276
-0.011056 -0.0014118 -0.4135 -0.075548 0.0073084 -0.0097 0.0016151 0.011942
0.0080015 0.0033272 0.0016934 0.014652
-0.0096402 0.013436 0.0072083 -0.0096739 -0.26624 0.19123 0.0063541 0.0030022
-0.0028012 0.009314 4.2529e-05 0.012119
-0.0037393 0.012135 0.00060192 0.013045 0.0068932 0.0032613 -0.33045 0.036745
-0.019935 -0.0037512 0.016577 0.026843
0.012936 0.0052361 0.0084837 0.0026819 -0.002835 0.0096268 -0.020017 -0.0034986
-0.23201 -0.22326 -0.02757 0.0044499
-0.0031929 0.0076357 -9.2249e-05 0.014244 0.00060026 0.011234 0.017332 0.026368
-0.028336 0.005257 -0.26246 -0.14375
560000000 -0.31998 0.10085 -0.023049 -0.066872 -0.00031668 0.014103 0.0044653 0.012958
0.010607 0.0050541 0.011379 0.0098927
-0.022969 -0.066861 -0.37322 0.090893 -0.041487 -0.038095 0.014787 0.0043664
-0.01199 -0.0038712 0.002749 -0.00021861
-0.00025838 0.014228 -0.041848 -0.037904 -0.18737 0.2442 0.00022287 -0.0042656
0.018693 0.0082926 0.007666 -0.00629
0.0047457 0.012032 0.013813 0.0035857 0.0004686 -0.0042759 -0.30691 0.13126
0.0043041 -0.023285 0.0042422 -0.022096
0.010105 0.0053583 -0.01348 -0.0026514 0.017773 0.0073604 0.0042971 -0.023553
-0.30952 -0.037746 0.0092592 -0.050605
0.012226 0.009645 0.0031818 -0.001299 0.0076631 -0.0057859 0.0046883 -0.021776
0.010074 -0.051764 -0.33478 0.0093864
620000000 -0.28002 0.081927 -0.023493 0.0097004 0.0046274 0.0097302 0.008558 -0.0045824
0.01173 -0.00055302 0.0010081 -0.0021694
-0.023557 0.0097761 -0.40313 0.037595 -0.018006 0.0011835 -0.0013147 -0.0022709
0.012978 -0.0047775 0.0011968 -0.0028915
0.0046287 0.0099432 -0.017958 0.0012944 -0.15735 0.25378 -0.00048259 -0.0049528
-0.0027903 -0.0028303 0.010022 -0.0033045
0.0081361 -0.0035245 -0.0014334 -0.0013695 -0.00057094 -0.0051155 -0.26592 0.1418
-0.039646 -0.018644 0.014668 0.027512
0.012044 -0.0015665 0.013161 -0.0062244 -0.0025705 -0.002785 -0.039179 -0.019575
-0.22496 -0.076467 -0.04486 0.014094
-0.00055224 -0.0020604 0.00056498 -0.0023697 0.0094086 -0.0030975 0.012847 0.029095
-0.043559 0.013504 -0.24622 -0.032584
680000000 -0.24515 0.17693 -0.026768 -0.013976 0.0050247 0.0056814 0.0014752 -0.0071648
-0.0013094 -0.011885 0.0061708 -0.0074567
-0.026856 -0.014111 -0.39166 0.14085 -0.03203 -0.0022344 -0.001074 -0.00060203
-0.0010547 -0.0097054 -0.00057967 -0.0022117
0.0049698 0.0056247 -0.032155 -0.0021785 -0.10698 0.27561 -0.00073995 -0.00080651
-0.00095238 0.00021158 -0.0026963 -0.0093071
0.0019915 -0.0069533 -0.0017393 -0.00075253 -0.00092023 -0.00087248 -0.22146 0.19284
-0.022951 -0.005962 -0.0085011 -0.010318
-0.001156 -0.011621 -0.00074016 -0.0093947 -0.00097147 0.00039422 -0.023561 -0.0059508
-0.28497 0.030959 -0.0074281 -0.0075147
0.0063468 -0.0061787 -0.00027849 -0.0021212 -0.0026095 -0.009601 -0.0083564 -0.010802
-0.007694 -0.0065002 -0.26386 0.078593
740000000 -0.19653 0.16973 -0.040206 0.02743 0.015062 -0.0047539 0.00020904 -0.0041695
-0.0043537 -0.0031461 -0.0064748 0.002
-0.040168 0.027562 -0.33634 0.15957 -0.037298 0.034738 -0.00022476 -0.0063558
-0.013385 0.0057799 -0.0017188 -0.0065624
0.015016 -0.0046889 -0.037189 0.035125 -0.073267 0.27248 -0.0019104 0.0032736
-0.0017415 -0.0059177 -0.0017315 0.00049863
0.00020119 -0.0042911 1.291e-05 -0.0065656 -0.0015588 0.0032347 -0.20485 0.20083
-0.041718 -0.0089021 0.023307 0.016957
-0.0042471 -0.0033172 -0.013199 0.0067476 -0.0027307 -0.0063 -0.041164 -0.0083247
-0.18434 0.064247 -0.042061 0.00044396
-0.0063168 0.0019125 -0.0010908 -0.0066721 -0.0012875 0.00078727 0.023121 0.016898
-0.042499 0.00050419 -0.25286 0.083505
800000000 -0.16547 0.21552 -0.021889 0.016085 0.0061864 -0.010561 -0.0045308 -0.0029539
-0.0047383 0.0016302 0.0034834 0.00075922
-0.021879 0.016068 -0.34415 0.23044 -0.0088327 0.034166 -0.0022386 0.001608
-0.001175 0.0024245 0.00047184 0.0055213
0.0060771 -0.01055 -0.0087174 0.034264 -0.035228 0.29815 0.00070164 0.0013109
1.9102e-05 0.0034661 -0.0018614 0.00098965
-0.0049191 -0.0029996 -0.0025329 0.0015852 0.00057411 0.0013973 -0.17484 0.22784
-0.028435 0.013602 0.014877 -0.01072
-0.0045843 0.0017631 -0.0010926 0.0030488 8.0082e-06 0.0034358 -0.028255 0.014201
-0.22905 0.089719 -0.017195 0.02183
0.002947 -0.00022589 0.00072135 0.0048977 -0.0016774 0.00071618 0.015291 -0.011532
-0.01744 0.021871 -0.24796 0.1359
860000000 -0.13126 0.23546 -0.01773 0.030122 -0.0026851 -0.010768 -0.0013745 0.00034472
0.0033699 0.0056243 -0.0040411 -0.0030791
-0.017709 0.030162 -0.29702 0.27424 0.0071293 0.034681 -5.6567e-05 0.0022521
0.0027489 0.001422 0.003172 0.00048642
-0.0026681 -0.010755 0.0072703 0.034657 0.011571 0.30749 -0.00040269 -5.6977e-05
0.0020891 -0.0014469 0.0018011 0.0041259
-0.001324 0.00026482 0.00010759 0.0022538 -0.00040235 -0.00012293 -0.13806 0.23944
-0.017545 0.018052 -0.0060011 -0.0090884
0.0032107 0.0054037 0.0029575 0.00054075 0.002111 -0.0014857 -0.017681 0.017743
-0.17202 0.14513 -0.026004 0.018352
-0.003622 -0.0024746 0.0027044 0.00050382 0.0018162 0.004024 -0.0062742 -0.0084637
-0.025704 0.017411 -0.19653 0.18111
920000000 -0.10819 0.25818 0.0046549 0.038358 -0.0094904 -0.0057623 -0.0019889 0.0012113
0.00057595 0.0017263 0.0031427 -0.0011105
0.004685 0.038255 -0.27022 0.29592 0.028356 0.023089 0.0014034 0.00099888
0.0077871 0.00043072 0.0046893 -0.0028185
-0.0094685 -0.0057323 0.028457 0.023063 0.056985 0.31024 0.0019647 1.8757e-05
0.00087267 -0.0001854 0.00087851 -0.0019313
-0.0022733 0.0013288 0.0012559 0.0010794 0.0019541 0.00012069 -0.11382 0.25637
-0.011656 0.030659 0.0052016 -0.0072283
0.00052443 0.0020237 0.0083755 0.00059085 0.00087024 -0.00021456 -0.011285 0.030882
-0.16313 0.15002 -0.0016169 0.027651
0.0027757 -0.0011833 0.0047483 -0.0030235 0.00079987 -0.0017346 0.0049599 -0.0072714
-0.0019473 0.027529 -0.20441 0.195
980000000 -0.062719 0.27934 0.01647 0.030025 -0.010018 0.0038972 0.001431 0.0035185
0.0040102 -0.0011883 -0.0030498 -0.0026656
0.016398 0.030108 -0.21836 0.33185 0.033743 0.0055084 0.0020011 -0.00010326
0.0022966 -0.0062553 -7.3654e-05 -0.002685
-0.010034 0.0039404 0.033777 0.0054157 0.10321 0.30535 0.00070392 -0.0012157
0.00054931 -0.0018688 0.0012083 -0.00042924
0.0014353 0.0035535 0.0021149 -0.00013147 0.0007131 -0.0012218 -0.076019 0.2666
0.0077709 0.029732 -0.0097326 -0.0081581
0.0040176 -0.0014151 0.0021696 -0.0063074 0.00047989 -0.0018457 0.0079836 0.029703
-0.13063 0.18312 0.0063746 0.020019
-0.0030836 -0.002414 -0.00011861 -0.0026639 0.0013155 -0.00038784 -0.0098953 -0.0081621
0.0065087 0.020075 -0.16528 0.24214
1040000000 -0.022342 0.28861 0.033108 0.019338 -0.0020447 0.0072987 0.0022901 0.00079294
0.00039372 -0.0033655 -0.00059903 -0.0017447
0.033051 0.019352 -0.18448 0.34635 0.030496 -0.014676 0.0016008 -0.0017188
-0.0020453 -0.0028143 -0.0014051 -0.003093
-0.0019916 0.0072422 0.030451 -0.014791 0.14952 0.29362 -0.00051536 -0.0017168
-0.0016722 -0.0010524 -0.00087893 -0.00094966
0.0022433 0.00077054 0.0016552 -0.0016777 -0.00047806 -0.0017173 -0.049686 0.27701
0.019273 0.018923 -0.0023742 0.00063421
0.00044125 -0.0034213 -0.0020607 -0.0028549 -0.001677 -0.00092982 0.019142 0.018756
-0.098863 0.18989 0.014601 0.019073
-0.00050138 -0.0018754 -0.0014633 -0.003009 -0.0008643 -0.0010097 -0.0024271 0.00076901
0.014858 0.019531 -0.14367 0.26331
1100000000 0.021956 0.29939 0.036939 -0.0032263 0.0027672 0.0043274 0.0023511 -0.0006207
-0.0019675 -0.0029865 -0.0042667 -0.00016867
0.036913 -0.0031968 -0.14139 0.36599 0.016126 -0.028605 0.00011836 -0.0018908
-0.0038125 -0.0012456 -0.0037011 -0.00066788
0.0027774 0.0043405 0.016015 -0.028687 0.19672 0.27462 -0.001992 0.00013407
-0.0019882 0.00065165 -0.0012597 -0.00024779
0.0023128 -0.00067189 7.227e-05 -0.0018386 -0.0020169 0.00013326 -0.010131 0.28219
0.025238 0.0055609 -0.0031595 -0.00031934
-0.0019348 -0.0030327 -0.0038007 -0.0013187 -0.0019133 0.00060521 0.02525 0.005531
-0.079164 0.20415 0.020634 0.0094677
-0.0041906 -0.000293 -0.00377 -0.00068453 -0.0012409 -0.00029414 -0.003051 -0.00039835
0.020367 0.0096387 -0.097091 0.29486
1160000000 0.072466 0.29645 0.02503 -0.020855 0.0028845 -0.00033518 9.3888e-05 -0.002122
-0.0042345 -0.0010279 -0.0011157 0.0044331
0.02503 -0.020857 -0.098559 0.37215 -0.0037777 -0.029955 -0.0016214 -0.0018087
-0.0031026 0.0027718 -0.001793 0.0019611
0.0028828 -0.00033283 -0.0039154 -0.029962 0.24046 0.24444 -0.00083699 0.0019148
-0.00061133 0.0021365 -0.00087714 0.00062254
8.7574e-05 -0.0021082 -0.001595 -0.001777 -0.000827 0.0019076 0.028427 0.2801
0.021861 -0.011202 -0.0038219 0.0049198
-0.0042758 -0.0011667 -0.0031312 0.0028629 -0.00055514 0.0021058 0.022066 -0.011293
-0.044844 0.21285 0.020175 -0.00041005
-0.001385 0.0045351 -0.0016897 0.0019895 -0.0010404 0.00068155 -0.00414 0.0048931
0.019958 -0.00096596 -0.050479 0.2982
1220000000 0.11602 0.28847 0.011286 -0.030877 -0.0016279 -0.00089139 0.00039488 -0.00095565
-0.0029805 0.0022179 0.0010207 0.0024547
0.011322 -0.030816 -0.054034 0.38731 -0.017644 -0.021976 -0.002723 0.00040746
-9.0395e-05 0.0035157 -0.00086067 0.0022004
-0.0016082 -0.00087539 -0.017772 -0.021928 0.28004 0.20575 0.00080643 0.0019112
0.00076944 0.0013339 0.00047461 0.0006167
0.00046794 -0.0009495 -0.0027077 0.00048849 0.00085116 0.0019564 0.068114 0.27311
0.010768 -0.017765 0.0013982 0.0015907
-0.0030527 0.002224 -0.00012356 0.0035261 0.00064922 0.0013365 0.010814 -0.017731
-0.023445 0.22341 0.015253 -0.013964
0.0010128 0.0024951 -0.00078268 0.0022918 0.00047535 0.00077952 0.0015389 0.0014485
0.015437 -0.014016 -0.019994 0.31576
1280000000 0.16694 0.26951 -0.0080269 -0.029635 -0.0020556 0.0026498 -0.00076098 -0.0023826
-0.0010279 0.00347 0.0028511 0.0016137
-0.0080143 -0.029586 -0.0068327 0.38015 -0.025094 -0.0084108 -0.0010981 0.0015692
0.0020624 0.0021226 0.00081951 0.0021558
-0.0020369 0.0026767 -0.025169 -0.0083025 0.31064 0.16209 0.0017565 1.5832e-05
0.0013475 0.00019556 0.00041418 0.00024785
-0.00071124 -0.0023125 -0.0010896 0.0015515 0.0017994 -3.9678e-06 0.10512 0.25766
0.00043803 -0.020286 -0.00040238 0.00059113
-0.0010577 0.0034939 0.0020184 0.0020938 0.0012991 0.00018199 0.00047386 -0.020269
0.012593 0.22818 0.0034314 -0.017085
0.0028819 0.0017118 0.00081257 0.0022001 0.00045433 0.00022345 -0.00047824 0.00052686
0.003687 -0.017189 0.027862 0.31926
1340000000 0.20466 0.23812 -0.018295 -0.019378 0.00074104 0.0049846 -0.0020412 -0.0012051
0.0015286 0.0029741 0.0022233 -0.0014386
-0.018257 -0.019393 0.033505 0.37325 -0.022218 0.0051344 -9.4604e-05 0.0022289
0.0024128 0.0007506 0.0013017 0.00075449
0.00077607 0.0049512 -0.022208 0.0052522 0.33226 0.11515 0.001189 -0.0011187
0.00061617 -0.00063303 9.9218e-05 7.8637e-05
-0.0020984 -0.0011419 -0.00013164 0.0022536 0.001145 -0.0010773 0.13854 0.23843
-0.0095801 -0.017107 0.0006644 0.0010321
0.0015372 0.0029271 0.0024627 0.00071357 0.00072633 -0.00059209 -0.0096219 -0.017062
0.041532 0.22556 -0.0043929 -0.015644
0.0022233 -0.0015542 0.0013255 0.00073143 9.4604e-05 5.6506e-05 0.00051902 0.0011232
-0.0045063 -0.015509 0.066176 0.31525
1400000000 0.24005 0.20204 -0.024344 -0.0072302 0.005666 0.003589 -0.0025133 0.00070557
0.002789 0.001152 0.00062303 -0.0018229
-0.024297 -0.0072247 0.072541 0.36109 -0.01489 0.013645 0.0015325 0.001418
0.0013777 -0.0010486 0.0013417 6.8823e-05
0.0056928 0.003622 -0.014832 0.013739 0.34584 0.06279 -8.4181e-05 -0.0018301
8.8929e-05 -0.00033211 0.00030904 0.00030024
-0.0025295 0.00065623 0.0015556 0.0013815 -6.2842e-05 -0.0017772 0.16901 0.21002
-0.015852 -0.0095902 -0.00089672 0.00038023
0.0027695 0.0011618 0.0013781 -0.0010661 0.00011332 -0.00043789 -0.01593 -0.0095594
0.074934 0.22364 -0.011578 -0.0099392
0.00050965 -0.0018604 0.0013269 0.00011177 0.00025543 0.00025376 -0.00070728 0.00040626
-0.011672 -0.0099743 0.11126 0.30507
1460000000 0.26426 0.15891 -0.020821 0.0056987 0.0061515 -0.0017762 -0.0016704 0.0019344
0.0024686 -0.00046549 -0.00049303 -0.0012145
-0.020798 0.0056567 0.10767 0.33895 -0.0050221 0.016438 0.0018122 0.0001255
0.00081908 -0.0016008 0.0012898 -0.00062368
0.0061714 -0.0017675 -0.0049444 0.016482 0.35252 0.0092376 -0.0014161 -0.0012777
0.00024669 -0.0001819 0.00077419 -0.00034197
-0.0016773 0.0019321 0.0018102 9.7008e-05 -0.001419 -0.0012592 0.19634 0.18119
-0.016729 -0.0018378 -0.00054155 0.0023487
0.0025533 -0.00048342 0.00082442 -0.0016237 0.0002097 -0.00015828 -0.016728 -0.0017995
0.10411 0.21171 -0.013602 -0.0028724
-0.00050069 -0.0012879 0.0012417 -0.00057681 0.00072627 -0.00024278 -0.00059271 0.0024136
-0.013737 -0.0029418 0.14435 0.28493
1520000000 0.27854 0.11785 -0.014477 0.011141 0.0039599 -0.0046606 0.00021872 0.0028541
0.0024877 -0.0021277 -0.0013539 -0.00012434
-0.014508 0.011109 0.14171 0.32484 0.0030787 0.013205 0.001728 -0.00091333
-0.00014497 -0.0010539 0.00037266 -0.0011267
0.0039014 -0.004711 0.0031411 0.013201 0.34653 -0.045805 -0.0011043 -0.00018254
0.0007775 -0.00099549 0.00010227 -0.00025667
0.00022589 0.0028276 0.001709 -0.00091368 -0.0011131 -0.00021705 0.22058 0.1431
-0.015276 0.0043694 0.001972 0.0024116
0.0024594 -0.0021341 -0.00013242 -0.0010853 0.00078037 -0.0010486 -0.015229 0.0044028
0.1329 0.20089 -0.013419 0.0025504
-0.0014084 -7.0827e-05 0.00032358 -0.0010841 9.1647e-05 -0.00025117 0.0020011 0.0024331
-0.013526 0.0026567 0.17739 0.26605
1580000000 0.28948 0.071633 -0.0072783 0.01411 -0.00086625 -0.0054322 0.0016978 0.0019161
-0.00026652 -0.0025426 -0.00028785 0.00057675
-0.0072915 0.014108 0.1694 0.29976 0.006639 0.0074732 0.00043196 -0.0017155
-0.00062348 -0.00094588 -0.00020762 -0.00085595
-0.00089736 -0.0054665 0.0066805 0.0074221 0.32792 -0.10347 -0.0015427 0.00047408
-0.0004859 -0.0016055 0.00029943 -0.00062308
0.0016985 0.0019117 0.00042799 -0.0017248 -0.0015845 0.00053083 0.23506 0.10345
-0.010739 0.0092977 0.0028123 0.00063301
-0.00030383 -0.0025468 -0.00062896 -0.00097011 -0.00041341 -0.001511 -0.010716 0.0093772
0.15855 0.18497 -0.010226 0.0088779
-0.00017963 0.0006158 -0.00017386 -0.00086506 0.00039556 -0.00066535 0.0028411 0.00069112
-0.010273 0.008914 0.21007 0.24039
1640000000 0.29252 0.030288 -0.00030271 0.012195 -0.0032651 -0.0030962 0.0030079 0.00099423
-0.00092293 -0.0018071 -0.00034176 0.00070131
-0.00031087 0.012197 0.19864 0.27564 0.0064212 0.002047 -0.0006469 -0.0018046
-0.00081958 -0.00038161 -0.00055607 -0.0007278
-0.003254 -0.0030599 0.0064513 0.0020144 0.29954 -0.15243 -0.00056004 0.0014834
-0.0012337 -0.0010986 -0.0003171 -0.00054646
0.0029707 0.0010125 -0.00068546 -0.0018035 -0.00055518 0.0014768 0.24806 0.054443
-0.0056556 0.0098722 0.0028914 -0.00097236
-0.00099869 -0.0017674 -0.00087328 -0.00033548 -0.0012462 -0.0010549 -0.0056361 0.0098384
0.18286 0.1629 -0.0046901 0.011319
-0.00027454 0.00067374 -0.00055054 -0.00071747 -0.00031297 -0.00052305 0.0028098 -0.00099654
-0.004646 0.011359 0.23598 0.21102
1700000000 0.28636 -0.015007 0.002946 0.0087855 -0.0040732 -9.2303e-05 0.0032339 -0.0014226
-0.0023435 -0.0005471 0.00077008 0.00043583
0.0029273 0.0087642 0.21728 0.24453 0.0035424 -0.0010758 -0.0015669 -0.00060444
-0.00069314 -0.00011726 -0.00094681 -0.00042388
-0.0040322 -7.2887e-05 0.0035395 -0.0010954 0.25726 -0.19261 0.0002829 0.0015498
-0.0023298 7.9721e-05 -0.00060014 -0.00077937
0.0032047 -0.0014051 -0.0015784 -0.00057918 0.00028137 0.0015181 0.24545 0.0042043
-0.0025445 0.0093217 0.0018378 -0.0024498
-0.0023759 -0.00052493 -0.00070606 -0.0001017 -0.0023177 3.6068e-05 -0.0025356 0.0093915
0.20254 0.1439 0.0007106 0.011227
0.00067515 0.00039086 -0.00093332 -0.00040874 -0.00058519 -0.00071805 0.0018107 -0.0025261
0.00064596 0.01134 0.2535 0.17749
1760000000 0.27503 -0.063477 0.0046744 0.0051097 -0.0027317 0.0011732 0.0012239 -0.0037042
-0.0014002 0.00079083 0.00028152 -0.00065778
0.0047042 0.0050898 0.2433 0.2055 0.00052498 -0.0026421 -0.0012876 0.0001226
-0.0011087 0.00075634 -0.00068585 0.00040538
-0.0027295 0.00115 0.00049185 -0.0026423 0.20925 -0.22618 0.0011073 0.0010158
-0.0011601 0.0016442 -0.0015468 -0.00044532
0.0012492 -0.0036954 -0.0012681 0.00016285 0.0011044 0.0010756 0.23665 -0.047858
0.0004493 0.0077006 -9.3351e-05 -0.0028163
-0.0014729 0.00085887 -0.0011152 0.00072935 -0.0011743 0.0016121 0.00042677 0.0076927
0.21894 0.11043 0.005323 0.0082496
0.0002301 -0.00058415 -0.00075339 0.00036261 -0.0014958 -0.00048179 5.1389e-07 -0.0026725
0.0054113 0.0082931 0.26722 0.14073
1820000000 0.25177 -0.10061 0.0042054 0.0015695 -0.00037235 0.0027052 -0.0011248 -0.0032376
-0.0010197 0.0010759 -0.00021853 -0.00020796
0.0042126 0.0016161 0.25448 0.17622 -0.0021445 -0.00072686 -0.0014366 0.0010286
-0.00027117 0.0011631 -0.00059047 0.00048313
-0.00037474 0.0027113 -0.0021017 -0.00073203 0.15852 -0.24179 0.0016357 0.00056961
-4.6886e-05 0.0026579 -0.0015313 0.00031655
-0.001169 -0.0032412 -0.0014277 0.00098044 0.0016325 0.00062208 0.20709 -0.095502
0.0013227 0.0058756 -0.0016426 -0.0022358
-0.00096558 0.0010696 -0.00026247 0.0011619 -3.9008e-05 0.0026159 0.0012899 0.0058455
0.23813 0.082494 0.0067895 0.0039562
-0.00010161 -0.00023501 -0.00060846 0.00057414 -0.0015856 0.00033425 -0.001777 -0.0022763
0.0066864 0.0040803 0.27138 0.10553
1880000000 0.21774 -0.14167 0.001487 -0.00027573 -0.00071702 0.0026795 -0.0031368 -0.0022837
-9.1998e-05 0.0016098 -2.0623e-06 -0.00068487
0.0014809 -0.00032149 0.25934 0.12997 -0.0043243 0.0020592 -0.000197 0.0017812
0.00037587 0.0014247 0.00013232 0.0010348
-0.00073846 0.0026892 -0.004311 0.0020935 0.10625 -0.25062 0.0019455 -0.00098526
0.0018047 0.0018651 -0.00073734 0.0017031
-0.0031936 -0.0022252 -0.0002389 0.0018158 0.0019302 -0.0010605 0.16648 -0.13655
0.0015232 0.0034648 -0.0027938 -0.00023785
-0.00010938 0.0016483 0.00037354 0.0014791 0.0018059 0.0018851 0.0015345 0.0035224
0.24378 0.051125 0.0068921 0.00096545
-1.4384e-06 -0.0006159 0.00019036 0.0010727 -0.00071266 0.0016457 -0.0028059 -0.00024138
0.0071436 0.00099485 0.27248 0.071549
1940000000 0.17919 -0.16757 -0.000837 -0.0014686 0.0015959 0.0025746 -0.0038936 0.00057228
0.0011798 0.00086961 -0.00078319 -0.00022844
-0.00091261 -0.0013988 0.26098 0.098779 -0.0026017 0.0053444 0.0011115 0.0014561
0.0018822 0.00081013 0.00084752 0.00041402
0.001589 0.0026806 -0.002582 0.0053867 0.062058 -0.2433 0.00058415 -0.0022671
0.0024914 0.00025515 0.0005631 0.0015837
-0.0040112 0.00049858 0.0010987 0.0013075 0.00069226 -0.0023465 0.1134 -0.16737
-0.00016755 0.0022983 -0.002063 0.0011151
0.0011738 0.00083004 0.001901 0.00070517 0.0024166 0.00031554 -0.00012255 0.0022755
0.24792 0.013247 0.0054707 -0.0035568
-0.000719 -0.000174 0.00095341 0.00030205 0.00049939 0.0017283 -0.002029 0.0012119
0.0054064 -0.0035261 0.26256 0.035536
2000000000 0.13383 -0.18329 -0.0046058 0.0010121 0.0030455 0.0016858 -0.0023318 0.0038754
0.00089904 0.00040883 -0.00051754 0.00065148
-0.0045122 0.001084 0.24777 0.063388 -0.0013357 0.0078547 0.0017613 0.0003668
0.0014868 -0.001024 0.00044128 -1.4014e-06
0.0031306 0.0017224 -0.0013023 0.007899 0.019127 -0.22929 -0.0015476 -0.001662
0.0019061 -0.0013248 0.0015114 0.0012072
-0.0023364 0.0039353 0.0018211 0.00044595 -0.0015862 -0.0017532 0.059978 -0.17709
-0.0020987 0.0028098 -0.00063963 0.0025353
0.00083723 0.00031052 0.0014385 -0.00099734 0.0020072 -0.0014142 -0.0021645 0.0028164
0.24443 -0.019522 0.0013995 -0.0047898
