!Keysight Technologies,M9804A,MY58100912,A.14.10.03
!Date: Thursday, April 27, 2023 10:28:33
!Correction: S11(C  6-Port  ) 
!S12(C  6-Port  ) 
!S13(C  6-Port  ) 
!S14(C  6-Port  ) 
!S15(C  6-Port  ) 
!S16(C  6-Port  ) 
!S21(C  6-Port  ) 
!S22(C  6-Port  ) 
!S23(C  6-Port  ) 
!S24(C  6-Port  ) 
!S25(C  6-Port  ) 
!S26(C  6-Port  ) 
!S31(C  6-Port  ) 
!S32(C  6-Port  ) 
!S33(C  6-Port  ) 
!S34(C  6-Port  ) 
!S35(C  6-Port  ) 
!S36(C  6-Port  ) 
!S41(C  6-Port  ) 
!S42(C  6-Port  ) 
!S43(C  6-Port  ) 
!S44(C  6-Port  ) 
!S45(C  6-Port  ) 
!S46(C  6-Port  ) 
!S51(C  6-Port  ) 
!S52(C  6-Port  ) 
!S53(C  6-Port  ) 
!S54(C  6-Port  ) 
!S55(C  6-Port  ) 
!S56(C  6-Port  ) 
!S61(C  6-Port  ) 
!S62(C  6-Port  ) 
!S63(C  6-Port  ) 
!S64(C  6-Port  ) 
!S65(C  6-Port  ) 
!S66(C  6-Port  ) 
!S6P File: Measurement: :
# Hz S  RI   R 50
500000000 -0.33022 -0.064334 -0.0096322 -0.00055827 -0.0087276 0.012745 -0.004322 0.012046
0.012553 0.005732 -0.0043797 0.0075608
-0.0093784 -0.00077231 -0.412 -0.072277 0.0088139 -0.010413 0.0020365 0.012795
0.0078727 0.0025568 0.0022536 0.014263
-0.0086363 0.012722 0.008798 -0.010457 -0.26469 0.19123 0.00731 0.0034118
-0.0024331 0.0086346 0.00095548 0.012109
-0.0040024 0.011639 0.0019466 0.012847 0.0073253 0.003449 -0.32877 0.038757
-0.019209 -0.0047945 0.017766 0.026547
0.012714 0.0054869 0.0078693 0.0025187 -0.0023529 0.0087225 -0.019596 -0.0046955
-0.23377 -0.21517 -0.02652 0.0044863
-0.0044105 0.0067778 0.0020985 0.014555 0.00095646 0.012311 0.018537 0.026948
-0.026763 0.0045109 -0.26354 -0.1406
560000000 -0.31991 0.10381 -0.021526 -0.067412 1.7272e-05 0.013559 0.0051374 0.011564
0.010751 0.004546 0.011104 0.0094065
-0.021245 -0.067035 -0.37333 0.09213 -0.040406 -0.039796 0.013044 0.0041688
-0.012482 -0.0045852 0.0034461 -0.0012223
-8.237e-05 0.013615 -0.040721 -0.039647 -0.18676 0.24399 -0.00046852 -0.0056031
0.018137 0.0064322 0.0078352 -0.0059795
0.0052774 0.012087 0.013104 0.0039426 -0.00056248 -0.0055597 -0.30755 0.12974
0.0061415 -0.023124 0.0049941 -0.0222
0.011172 0.0045168 -0.012426 -0.0049555 0.018185 0.0067087 0.0063312 -0.023324
-0.30816 -0.029944 0.0091778 -0.049642
0.011206 0.01001 0.0034203 -0.0009053 0.0080278 -0.0064936 0.004788 -0.02204
0.0088988 -0.050033 -0.3307 0.011176
620000000 -0.27929 0.082748 -0.023425 0.0087487 0.0035254 0.0095953 0.0084066 -0.0036824
0.011047 -0.0027511 0.00087918 -0.0010259
-0.023395 0.008891 -0.40239 0.038828 -0.018501 0.00025826 -0.0014687 -0.0020226
0.011911 -0.0056473 0.00098013 -0.0026998
0.0036431 0.0095633 -0.018524 0.00032337 -0.15756 0.25317 -0.00057784 -0.0052509
-0.0037929 -0.0025144 0.010128 -0.0031632
0.0083317 -0.0038231 -0.0014898 -0.002149 -0.00051749 -0.0052372 -0.26416 0.14024
-0.038691 -0.02 0.013892 0.026379
0.01112 -0.0025561 0.011853 -0.0057141 -0.0038082 -0.0024924 -0.038593 -0.019934
-0.2255 -0.069086 -0.043307 0.014154
0.00055573 -0.00088031 0.00088147 -0.0030014 0.010199 -0.0031032 0.014284 0.026737
-0.04316 0.013719 -0.24595 -0.028629
680000000 -0.24326 0.17614 -0.026507 -0.015409 0.0046249 0.0053707 0.0013762 -0.0072101
-0.0010336 -0.011407 0.0056072 -0.0073328
-0.026374 -0.015365 -0.39113 0.14059 -0.032605 -0.0028517 -0.0015427 -0.00016281
-0.0013057 -0.0091469 -0.00092304 -0.002257
0.0047528 0.0053565 -0.032622 -0.0027732 -0.10763 0.27536 -0.00073554 -0.00016498
-0.0013167 0.00064881 -0.00257 -0.0093719
0.0014078 -0.0070221 -0.00174 -4.3402e-05 -0.00077642 -0.00010741 -0.22046 0.19209
-0.023525 -0.0075069 -0.0090178 -0.010541
-0.00083361 -0.011386 -0.0012559 -0.0092068 -0.0014512 0.00069195 -0.023704 -0.0075015
-0.28148 0.035006 -0.0065615 -0.0082047
0.0056837 -0.0075209 -0.00096421 -0.0023348 -0.0025778 -0.0092601 -0.008934 -0.011516
-0.0071992 -0.0078964 -0.26307 0.079522
740000000 -0.19602 0.16906 -0.040442 0.026475 0.013815 -0.0042003 0.00027034 -0.0038078
-0.0043742 -0.0029458 -0.0066411 0.0033048
-0.040381 0.026581 -0.33668 0.16018 -0.037793 0.034377 0.00013759 -0.0062165
-0.012324 0.0075999 -0.00096853 -0.0065648
0.013867 -0.0042486 -0.037702 0.034522 -0.073725 0.27347 -0.0016624 0.0036067
-0.0023664 -0.0059161 -0.0013138 0.0012091
0.00034153 -0.0039236 4.9041e-05 -0.0062637 -0.001668 0.0036388 -0.20451 0.20038
-0.042469 -0.009591 0.023086 0.016464
-0.0045138 -0.0030145 -0.012385 0.0075642 -0.0025461 -0.0061301 -0.04275 -0.0093875
-0.18514 0.065715 -0.042454 5.6972e-05
-0.0066633 0.0035945 -0.00091248 -0.0065469 -0.0011596 0.0014715 0.023075 0.016567
-0.042405 -9.3167e-05 -0.2516 0.08545
800000000 -0.16628 0.21469 -0.022743 0.015407 0.0058939 -0.010353 -0.0046069 -0.0025426
-0.0046711 0.0018084 0.0049361 -0.0002201
-0.022853 0.015394 -0.34419 0.23101 -0.0091928 0.034092 -0.0022671 0.0017709
-0.00090683 0.0021991 0.00094539 0.0051853
0.0057116 -0.010546 -0.0091247 0.034098 -0.035317 0.29901 0.00086626 0.0012267
3.8385e-05 0.0033349 -0.0017418 0.00071461
-0.004478 -0.0027382 -0.0022495 0.0017972 0.000826 0.0012412 -0.17541 0.22797
-0.028947 0.012219 0.014461 -0.0096478
-0.0044852 0.0020129 -0.00085665 0.0021925 0.00011935 0.0033944 -0.028952 0.01235
-0.22691 0.092378 -0.01811 0.019454
0.0045539 -0.00066841 0.0009698 0.0049763 -0.0019152 0.00062359 0.01439 -0.010085
-0.018258 0.019405 -0.24731 0.13706
860000000 -0.132 0.2355 -0.018724 0.030443 -0.0030052 -0.010219 -0.0019599 0.00057812
0.0035713 0.0054688 -0.0040536 -0.0029511
-0.018776 0.030312 -0.29763 0.27556 0.0067019 0.034805 0.00039974 0.0021148
0.0033678 0.00097764 0.0031301 0.0010796
-0.0030536 -0.010253 0.0068054 0.034858 0.01215 0.30841 -0.00045521 -0.00029779
0.0021064 -0.001181 0.0011313 0.0044523
-0.0019907 0.00064331 0.00038199 0.0022301 -0.00046631 -0.00028905 -0.13933 0.23874
-0.018354 0.017274 -0.0060907 -0.0091483
0.0034856 0.0057188 0.0034001 0.00093936 0.0020713 -0.0011944 -0.018255 0.017358
-0.17242 0.14871 -0.025673 0.016262
-0.0039836 -0.0031791 0.00308 0.0011326 0.0013496 0.0044588 -0.0064197 -0.00846
-0.025539 0.016431 -0.1984 0.1831
920000000 -0.10894 0.25918 0.004051 0.039181 -0.0093596 -0.004915 -0.0021086 0.0018779
0.00080424 0.0021562 0.0029631 -0.0012866
0.0041154 0.039078 -0.27051 0.29763 0.027849 0.023568 0.0013318 0.0011286
0.0080378 0.0002309 0.0042379 -0.0028524
-0.0093719 -0.004962 0.027953 0.023494 0.057858 0.31051 0.0018624 4.8838e-05
0.00096249 -8.0594e-05 0.00090947 -0.0015141
-0.0019489 0.0018239 0.0013083 0.0010834 0.0018678 3.6123e-05 -0.1155 0.25589
-0.011945 0.0305 0.0038869 -0.006691
0.00097169 0.0021291 0.0080928 0.00019927 0.0010007 -3.5619e-05 -0.011956 0.030435
-0.16097 0.15238 -0.0016269 0.026821
0.0028817 -0.0012538 0.0042163 -0.0028952 0.00090889 -0.0015128 0.0039754 -0.0067779
-0.0016631 0.026796 -0.20622 0.19571
980000000 -0.062748 0.28054 0.016082 0.03082 -0.0095533 0.0043962 0.0017789 0.00381
0.0038059 -0.001485 -0.0034199 -0.0024332
0.016093 0.030793 -0.21799 0.33387 0.033237 0.0060823 0.0020029 -0.0002273
0.0014638 -0.00613 -0.00030725 -0.0027496
-0.009527 0.0044275 0.033255 0.0060021 0.10387 0.30512 0.0007519 -0.0011852
0.00044176 -0.0017098 0.0014421 -0.00022432
0.0017593 0.0037163 0.0019776 -0.00020564 0.00076158 -0.0011855 -0.077401 0.26735
0.0063477 0.030093 -0.0095117 -0.0073498
0.0036305 -0.00154 0.0014711 -0.0061603 0.00041784 -0.0017123 0.0065169 0.030154
-0.12998 0.18529 0.005544 0.020751
-0.0034419 -0.0025098 -0.00046848 -0.0027823 0.0014875 -0.00028583 -0.0095395 -0.0070951
0.0054314 0.020761 -0.16335 0.24312
1040000000 -0.022138 0.29025 0.032828 0.020156 -0.0014483 0.0073821 0.0026476 0.00078615
0.00051623 -0.0034067 9.1876e-05 -0.0018469
0.032904 0.020154 -0.1832 0.348 0.030279 -0.0139 0.0016414 -0.0016957
-0.0021159 -0.0026387 -0.0011514 -0.0033636
-0.0013625 0.0073986 0.030237 -0.014023 0.14973 0.2929 -0.00042744 -0.001493
-0.0015164 -0.0010574 -0.0007048 -0.0011322
0.0026927 0.00077649 0.0016307 -0.0016709 -0.0004402 -0.0014863 -0.050662 0.27752
0.018518 0.019061 -0.0027379 0.00099519
0.00055239 -0.0034304 -0.0021126 -0.002608 -0.0015058 -0.001016 0.018589 0.019094
-0.096636 0.19311 0.013582 0.01876
0.00013974 -0.0016801 -0.0012263 -0.0033707 -0.00065798 -0.0011273 -0.0025361 0.00099802
0.013488 0.018545 -0.14273 0.26378
1100000000 0.022756 0.30073 0.036929 -0.0022679 0.0032212 0.0043324 0.0024756 -0.0010317
-0.0022967 -0.0029229 -0.0039629 -0.00021885
0.036863 -0.0021836 -0.13963 0.36755 0.016362 -0.02758 1.7334e-05 -0.0018056
-0.0035998 -0.00081609 -0.0035509 -0.00049502
0.0032498 0.0043475 0.016274 -0.027679 0.19611 0.27401 -0.0018736 0.00015688
-0.0017348 0.00058817 -0.0010613 -0.0005024
0.0025521 -0.0010445 1.7935e-05 -0.0018047 -0.0018926 0.00014627 -0.010578 0.28312
0.024426 0.0064035 -0.0025046 0.00010124
-0.0023102 -0.0029349 -0.0035755 -0.0007802 -0.0017677 0.00061291 0.024363 0.0064322
-0.077732 0.20741 0.019435 0.0096039
-0.004075 -0.00019296 -0.0036763 -0.00045136 -0.0010412 -0.00053087 -0.002547 0.00011743
0.019358 0.0097086 -0.096395 0.2952
1160000000 0.073789 0.29738 0.025473 -0.019765 0.0032724 -0.00049008 -0.00011328 -0.0026505
-0.003995 -0.0010549 -0.0012902 0.0043453
0.02547 -0.019836 -0.096434 0.37249 -0.0027913 -0.029297 -0.0015599 -0.0017409
-0.0026682 0.002448 -0.0016654 0.0018034
0.0032868 -0.00051363 -0.0029462 -0.029348 0.23943 0.24445 -0.00077128 0.0017734
-0.00057152 0.0018448 -0.0010169 0.00034487
-0.00013223 -0.0025662 -0.0015776 -0.0017111 -0.00077298 0.0017781 0.028364 0.28101
0.021636 -0.0094279 -0.0036218 0.0053438
-0.0040108 -0.0010363 -0.0026993 0.0024643 -0.00055521 0.0019276 0.021674 -0.0095497
-0.043244 0.21652 0.018841 0.00042849
-0.001239 0.0042943 -0.0015601 0.0018285 -0.0010507 0.00036597 -0.0036004 0.0053702
0.018763 0.0002715 -0.04985 0.29838
1220000000 0.11758 0.28889 0.012426 -0.030117 -0.0012239 -0.0013173 5.3967e-05 -0.00095315
-0.0027592 0.0022013 0.001075 0.0020261
0.01248 -0.030064 -0.052082 0.38694 -0.016559 -0.021871 -0.0025863 0.00050189
-3.7841e-05 0.0030267 -0.00087308 0.0019832
-0.0012195 -0.0013011 -0.01665 -0.021832 0.27918 0.20674 0.00072973 0.0017111
0.00056814 0.0011412 0.00018214 0.00061734
8.7873e-05 -0.0010015 -0.0026075 0.00046604 0.00073014 0.0017036 0.068417 0.27362
0.011164 -0.016357 0.0023662 0.0015632
-0.0027646 0.0022732 1.2321e-06 0.0030194 0.0005392 0.0011451 0.011173 -0.016358
-0.0203 0.22637 0.014672 -0.012816
0.00097783 0.0020795 -0.00083263 0.0020495 0.00019495 0.00060497 0.0023799 0.0015241
0.014593 -0.012734 -0.019147 0.31647
1280000000 0.16805 0.26917 -0.0065452 -0.02939 -0.0018758 0.0020352 -0.00089543 -0.0022329
-0.00085489 0.003285 0.0026416 0.0014028
-0.006543 -0.029349 -0.0055729 0.37917 -0.02395 -0.0088848 -0.00095748 0.0014181
0.00171 0.0017628 0.00065484 0.0021206
-0.0018916 0.0020163 -0.024033 -0.0087947 0.31063 0.16353 0.0015662 -4.8041e-05
0.0010698 0.00027663 0.00029727 0.00028349
-0.00089485 -0.0021839 -0.00092037 0.0014095 0.0015768 -4.902e-05 0.10531 0.25817
0.0017719 -0.019052 -5.294e-05 0.00027632
-0.00088902 0.0032884 0.0016983 0.0017295 0.0010641 0.00025324 0.0018217 -0.019048
0.016253 0.23101 0.0036916 -0.01541
0.0026594 0.0013364 0.00064943 0.0021145 0.00027665 0.00025791 -3.429e-05 0.0002587
0.0037465 -0.015426 0.028797 0.31931
1340000000 0.2058 0.2376 -0.016856 -0.020264 0.00042113 0.0043671 -0.0019206 -0.00080349
0.0014089 0.0028051 0.0018531 -0.0013736
-0.016805 -0.020275 0.033915 0.37245 -0.021634 0.0040572 -0.00016762 0.0019526
0.0018974 0.00080154 0.0011521 0.00084
0.00047184 0.0043702 -0.021621 0.0041658 0.33334 0.11665 0.00094577 -0.00098153
0.00061915 -0.00047665 0.00014652 0.00024732
-0.0018375 -0.00078803 -0.00017678 0.0019601 0.00095004 -0.00099611 0.1389 0.23852
-0.0076655 -0.016741 0.00087159 0.00043504
0.0013874 0.0027608 0.0018952 0.00077409 0.00061002 -0.00049717 -0.0077111 -0.016716
0.045642 0.22756 -0.0033417 -0.014159
0.0019129 -0.0013268 0.0011352 0.00083454 0.00013038 0.00023142 0.00098889 0.00037244
-0.003317 -0.014082 0.066551 0.31543
1400000000 0.2407 0.20129 -0.02352 -0.0088139 0.0049317 0.0032432 -0.002283 0.00066995
0.0026067 0.0010815 0.00044202 -0.0016039
-0.023513 -0.0088179 0.072512 0.36042 -0.014943 0.012407 0.0012424 0.0013261
0.0012737 -0.00073863 0.0011655 0.000162
0.0049569 0.0032085 -0.014915 0.012518 0.34738 0.063209 1.3959e-05 -0.001516
9.0871e-05 -0.00032713 0.00034456 0.00031172
-0.0022873 0.00070153 0.0012686 0.0013242 1.8989e-05 -0.0015183 0.16924 0.21
-0.014035 -0.010132 -0.0009283 -0.00042934
0.0026063 0.0010156 0.0012888 -0.00075903 9.4069e-05 -0.00033534 -0.014056 -0.010107
0.079262 0.2248 -0.0097563 -0.0091601
0.00045459 -0.0016354 0.0011791 9.2091e-05 0.00037302 0.00027736 -0.000906 -0.00043156
-0.0097683 -0.0091673 0.11199 0.30569
1460000000 0.26443 0.15835 -0.020977 0.0038539 0.0054008 -0.0016567 -0.0015383 0.0018569
0.0021803 -0.00028785 -0.00017838 -0.00099185
-0.020971 0.0038098 0.10732 0.33888 -0.005894 0.015487 0.0016493 0.00024389
0.00095582 -0.0012422 0.0012782 -0.00051434
0.0053971 -0.0016314 -0.0058227 0.015502 0.35416 0.0089635 -0.0011632 -0.0011521
0.00020468 -9.3181e-05 0.0007681 -0.00026467
-0.0015026 0.0018182 0.0016552 0.00026316 -0.0011692 -0.0011536 0.19635 0.18113
-0.015383 -0.0036311 -0.00099084 0.0019891
0.0021955 -0.0003555 0.00093657 -0.0012708 0.00016752 -5.4462e-05 -0.015374 -0.0036182
0.10881 0.21167 -0.012035 -0.0031812
-0.00012869 -0.0010042 0.0012527 -0.0005092 0.00082387 -0.00027791 -0.00099712 0.001979
-0.012061 -0.0032221 0.14517 0.28574
1520000000 0.27837 0.11752 -0.015636 0.0097201 0.0032631 -0.0041543 0.00019802 0.0026601
0.0022923 -0.0018738 -0.001217 -0.00011152
-0.015631 0.0097057 0.14161 0.32519 0.0019356 0.01292 0.0017091 -0.00065264
0.00011227 -0.0010568 0.00032318 -0.0010392
0.0032534 -0.0041731 0.0020102 0.01292 0.34758 -0.046842 -0.00089311 -0.00034317
0.00072914 -0.00087247 9.3537e-05 -0.00020594
0.00017161 0.0026719 0.0016989 -0.00066163 -0.00088397 -0.00035459 0.22055 0.14305
-0.015002 0.0021206 0.0014362 0.0022051
0.0023008 -0.0018867 0.00010673 -0.0010499 0.00073598 -0.0008647 -0.015055 0.002189
0.13733 0.19998 -0.011925 0.0014519
-0.0012003 -0.00011052 0.00033368 -0.0010331 0.00011925 -0.00018386 0.00147 0.0021426
-0.011868 0.0014007 0.17885 0.26689
1580000000 0.28931 0.071572 -0.0089933 0.013418 -0.0010235 -0.004835 0.0015468 0.0018138
-0.00015684 -0.0022588 -0.00021841 0.00033819
-0.0089906 0.013409 0.16971 0.30033 0.005546 0.0077702 0.00064273 -0.0015197
-0.00044577 -0.0011018 -0.00015121 -0.00083248
-0.001048 -0.004832 0.0055913 0.0077529 0.32805 -0.10463 -0.0014994 0.0004266
-0.000294 -0.0013095 0.00042379 -0.00064483
0.001581 0.0018308 0.00063587 -0.0015078 -0.0014971 0.00042424 0.23523 0.10325
-0.011791 0.0073179 0.002217 0.00081311
-0.00018014 -0.0022573 -0.00046406 -0.0011101 -0.00027587 -0.0013177 -0.011711 0.0073633
0.16239 0.18331 -0.0094891 0.007404
-0.00025691 0.00032359 -0.00018137 -0.00083609 0.00038825 -0.00063128 0.0021624 0.00082042
-0.0094844 0.0073997 0.2118 0.2407
1640000000 0.29258 0.030715 -0.002003 0.012554 -0.0029406 -0.0025139 0.0027542 0.0010345
-0.00073828 -0.001779 -0.00045056 0.00065784
-0.0020009 0.012537 0.19943 0.27603 0.0058547 0.0027375 -0.00044877 -0.0018648
-0.00097374 -0.00052885 -0.00049685 -0.00068852
-0.0029453 -0.0025302 0.0058896 0.002703 0.29964 -0.15324 -0.00066823 0.0012788
-0.0010753 -0.0010943 -0.00026293 -0.00038714
0.0027118 0.0010367 -0.000453 -0.0018682 -0.00070989 0.0013139 0.24809 0.054117
-0.0075139 0.0087292 0.002527 -0.00071104
-0.00074859 -0.0017727 -0.00097217 -0.00051237 -0.0010405 -0.0010894 -0.0075492 0.0087537
0.18609 0.16081 -0.0047143 0.0094178
-0.0004592 0.00063814 -0.00053625 -0.00066773 -0.0003091 -0.00039694 0.0025892 -0.00069423
-0.0047083 0.009329 0.23792 0.2108
1700000000 0.28712 -0.014692 0.0016804 0.009946 -0.0036206 0.00028332 0.0031868 -0.0011932
-0.002047 -0.00065067 0.0005678 0.00036266
0.0016705 0.0099402 0.21841 0.24459 0.0033718 -0.00028353 -0.0014186 -0.00078408
-0.00084683 -8.6866e-05 -0.0009009 -0.00051206
-0.0036199 0.00032298 0.0033454 -0.00029324 0.25731 -0.19333 0.00019562 0.0015179
-0.0020944 -0.00025017 -0.00054539 -0.00087136
0.0032207 -0.0012195 -0.0014193 -0.0007476 0.00018037 0.0015055 0.24544 0.0035017
-0.0046573 0.0094781 0.0017622 -0.0021923
-0.0020901 -0.00064484 -0.0008291 -9.9518e-05 -0.0020551 -0.00026403 -0.0045919 0.0095106
0.20506 0.14174 9.0108e-05 0.0098148
0.0005649 0.00037699 -0.00089256 -0.00050399 -0.00048389 -0.00075289 0.0017037 -0.0022046
2.5097e-05 0.0098188 0.25556 0.17683
1760000000 0.27588 -0.063865 0.0043124 0.0066613 -0.0020757 0.0012806 0.0013498 -0.0035049
-0.0013753 0.00054423 0.00034938 -0.0005924
0.0042969 0.0066518 0.24445 0.20491 0.00074882 -0.0017636 -0.0013165 -1.9908e-05
-0.0011367 0.00087505 -0.0005809 0.00039096
-0.0021395 0.0012907 0.00071414 -0.0017692 0.20885 -0.22638 0.0010342 0.001172
-0.0012095 0.0014446 -0.0012067 -0.00062799
0.0013045 -0.0035128 -0.0013149 -3.2761e-05 0.0010588 0.0011422 0.23624 -0.048508
-0.0011743 0.0087425 -0.00016654 -0.0024108
-0.0013489 0.00054019 -0.0011238 0.00090136 -0.0011843 0.0014578 -0.0011847 0.0087515
0.22098 0.10801 0.0039035 0.0072515
0.00036025 -0.00063542 -0.00058398 0.00041085 -0.0013092 -0.00055198 -0.00012268 -0.0024583
0.0038935 0.007266 0.26896 0.13959
1820000000 0.2525 -0.10129 0.0045378 0.0030525 0.0001547 0.0026188 -0.00090333 -0.0031031
-0.0012445 0.00095379 -0.00014259 -0.00012578
0.0045517 0.0030351 0.25517 0.17527 -0.0016423 -0.00012531 -0.0015696 0.00096298
-0.00012483 0.0012277 -0.00067405 0.0005359
0.00017505 0.0025763 -0.0016461 -0.00010363 0.15836 -0.24181 0.0014811 0.00046898
-0.00028171 0.0023024 -0.0016024 0.00048268
-0.00094608 -0.0031495 -0.0015763 0.00098811 0.001493 0.00047499 0.20621 -0.096144
0.00043185 0.0072709 -0.0017002 -0.0016555
-0.0012545 0.00095562 -0.00012325 0.001226 -0.00028568 0.0023172 0.00047283 0.0072997
0.23977 0.080134 0.0049571 0.003616
-0.00015258 -0.00011603 -0.00065777 0.00051753 -0.0015402 0.00043421 -0.0016941 -0.0016507
0.0049065 0.0036999 0.27193 0.10406
1880000000 0.21781 -0.14264 0.0023376 0.00064758 -0.00041178 0.0021727 -0.0029589 -0.0022959
-0.00025266 0.0017807 0.00019008 -0.00063838
0.0023589 0.00061041 0.25968 0.12864 -0.0035914 0.0023803 -0.00030842 0.0019019
0.0005495 0.0014099 2.1711e-05 0.0010381
-0.00037696 0.0022123 -0.0035872 0.0024001 0.10624 -0.25064 0.0019248 -0.00077345
0.0014908 0.002011 -0.0011119 0.0015144
-0.0029864 -0.002299 -0.00031121 0.0019084 0.0019272 -0.00074385 0.16521 -0.13651
0.0014853 0.005216 -0.0024407 0.0003536
-0.00021195 0.0017754 0.00057689 0.0014116 0.0014634 0.0020067 0.001444 0.0052184
0.24505 0.049091 0.0053368 0.0014326
0.00021948 -0.00066813 3.0687e-06 0.0010843 -0.0010544 0.0015219 -0.0024405 0.00020768
0.0052346 0.0014502 0.27308 0.069715
1940000000 0.17868 -0.16852 0.00022093 -0.0010986 0.0015702 0.0020046 -0.0038922 0.00036926
0.0011688 0.0010131 -0.00058655 -0.00050683
0.00020937 -0.001079 0.26066 0.097569 -0.0017787 0.0052559 0.0010572 0.0014821
0.0019409 0.00049648 0.00098984 0.0002532
0.0016488 0.001977 -0.0017382 0.0052659 0.061785 -0.24308 0.00064581 -0.0023697
0.002435 0.00047612 0.00027694 0.001543
-0.0038893 0.00035669 0.0010957 0.0014707 0.00065285 -0.0023535 0.11257 -0.16656
0.00049286 0.0038421 -0.0015945 0.0015801
0.0012317 0.0010532 0.0019506 0.00048274 0.0024146 0.00050622 0.00054052 0.0038686
0.24926 0.011563 0.0040453 -0.0020539
-0.000663 -0.00046497 0.00096667 0.00028471 0.00023152 0.0015271 -0.0015602 0.0015698
0.0041044 -0.0020475 0.26286 0.03446
2000000000 0.13332 -0.18373 -0.0034561 0.00094473 0.0029871 0.0014125 -0.0023192 0.0036585
0.0012604 0.00047997 -0.00061787 0.00053981
-0.0034986 0.00091488 0.24726 0.062298 -0.00074299 0.0072467 0.0018577 0.00040237
0.0013282 -0.0012137 0.00046399 7.4407e-05
0.0029942 0.0014318 -0.00069075 0.0072782 0.019178 -0.2294 -0.0012883 -0.0016296
0.0021433 -0.001098 0.0015435 0.0013122
-0.0023404 0.0037313 0.0018416 0.00038926 -0.001282 -0.0016675 0.058825 -0.17688
-0.0010152 0.0034835 -0.00029673 0.002357
0.0012485 0.0005042 0.0013377 -0.0011908 0.0021525 -0.0011086 -0.0011458 0.0034573
0.24577 -0.021936 0.00075553 -0.0031615
