!Keysight Technologies,M9804A,MY58100912,A.14.10.03
!Date: Thursday, April 27, 2023 10:28:33
!Correction: S11(C  6-Port  ) 
!S12(C  6-Port  ) 
!S13(C  6-Port  ) 
!S14(C  6-Port  ) 
!S15(C  6-Port  ) 
!S16(C  6-Port  ) 
!S21(C  6-Port  ) 
!S22(C  6-Port  ) 
!S23(C  6-Port  ) 
!S24(C  6-Port  ) 
!S25(C  6-Port  ) 
!S26(C  6-Port  ) 
!S31(C  6-Port  ) 
!S32(C  6-Port  ) 
!S33(C  6-Port  ) 
!S34(C  6-Port  ) 
!S35(C  6-Port  ) 
!S36(C  6-Port  ) 
!S41(C  6-Port  ) 
!S42(C  6-Port  ) 
!S43(C  6-Port  ) 
!S44(C  6-Port  ) 
!S45(C  6-Port  ) 
!S46(C  6-Port  ) 
!S51(C  6-Port  ) 
!S52(C  6-Port  ) 
!S53(C  6-Port  ) 
!S54(C  6-Port  ) 
!S55(C  6-Port  ) 
!S56(C  6-Port  ) 
!S61(C  6-Port  ) 
!S62(C  6-Port  ) 
!S63(C  6-Port  ) 
!S64(C  6-Port  ) 
!S65(C  6-Port  ) 
!S66(C  6-Port  ) 
!S6P File: Measurement: :
# Hz S  RI   R 50
500000000 -0.33194 -0.067528 -0.011581 -0.00097052 -0.0094169 0.013954 -0.0041754 0.011537
0.012862 0.0060327 -0.0036682 0.0070847
-0.011471 -0.0014061 -0.41361 -0.075048 0.0076919 -0.0096023 0.00083921 0.012347
0.0083653 0.0035431 0.0010422 0.01364
-0.0095942 0.013866 0.0074494 -0.0097367 -0.26631 0.19087 0.0063523 0.0037785
-0.002022 0.0092687 0.00019697 0.011637
-0.004072 0.011937 0.0011223 0.012788 0.0064102 0.0037978 -0.33088 0.037086
-0.02101 -0.0042638 0.01642 0.026161
0.012632 0.0058594 0.0077002 0.0031683 -0.0020468 0.0093058 -0.021006 -0.0041955
-0.2326 -0.22117 -0.029017 0.00527
-0.0043831 0.0076032 0.0011002 0.014229 0.00026691 0.011645 0.016426 0.026164
-0.029034 0.005248 -0.26264 -0.14438
560000000 -0.31979 0.10189 -0.022724 -0.067163 0.00013385 0.014199 0.0051473 0.011754
0.009766 0.0045662 0.011814 0.010426
-0.0217 -0.066887 -0.37379 0.091544 -0.042058 -0.03871 0.013763 0.0044071
-0.013003 -0.0043251 0.0032724 -0.0011737
0.00011463 0.01445 -0.042236 -0.038227 -0.18683 0.24422 1.0214e-05 -0.0046954
0.019539 0.0076667 0.0077199 -0.0051756
0.0054187 0.011709 0.014065 0.0042066 3.0759e-05 -0.0046677 -0.30809 0.13082
0.00536 -0.023052 0.0050599 -0.021779
0.010173 0.0044709 -0.012759 -0.0039701 0.019408 0.0076784 0.0053149 -0.023015
-0.30808 -0.037231 0.0098648 -0.051755
0.012041 0.010039 0.003347 -0.00095307 0.0076953 -0.0051417 0.0049981 -0.021844
0.0098921 -0.051735 -0.33356 0.0094484
620000000 -0.28009 0.082063 -0.02402 0.01001 0.0043876 0.00993 0.0080547 -0.0041725
0.013489 -0.0010162 -0.00030328 -0.0026821
-0.02383 0.010099 -0.403 0.037869 -0.018034 0.0012468 -0.0012836 -0.0020017
0.013272 -0.0053767 0.0013581 -0.0030074
0.0042727 0.0099086 -0.018017 0.0012881 -0.15734 0.25382 -0.00056664 -0.0052289
-0.0023511 -0.0026999 0.0097357 -0.0031942
0.0082003 -0.0045171 -0.0013286 -0.0019587 -0.00054638 -0.0052071 -0.26494 0.14071
-0.039998 -0.018793 0.014184 0.028782
0.013179 -0.00070608 0.013434 -0.0055191 -0.0022702 -0.0026719 -0.039917 -0.018734
-0.22448 -0.076244 -0.044776 0.013281
0.0002582 -0.0025853 0.0011912 -0.0029619 0.0096784 -0.0031923 0.014124 0.028736
-0.044811 0.013341 -0.2471 -0.02814
680000000 -0.24504 0.17745 -0.026277 -0.013944 0.0052921 0.0057611 0.0017397 -0.0071684
-0.0011921 -0.011851 0.0067113 -0.0072245
-0.026141 -0.013901 -0.39165 0.14098 -0.031927 -0.002382 -0.0012754 -0.00050167
-0.00086851 -0.010016 -0.00035812 -0.0018507
0.0051697 0.0055739 -0.031951 -0.0022562 -0.1069 0.27555 -0.00091124 -0.00054567
-0.00094377 -0.00010378 -0.0026826 -0.0091161
0.0018244 -0.0072842 -0.0013269 -0.00050364 -0.00093298 -0.00054544 -0.22082 0.19319
-0.023905 -0.0060069 -0.0093084 -0.010644
-0.0011697 -0.011785 -0.00091473 -0.010023 -0.00097022 -8.8914e-05 -0.023836 -0.0059372
-0.28434 0.032104 -0.007154 -0.0067227
0.0068459 -0.0073788 -0.00050638 -0.0019637 -0.0026668 -0.0091446 -0.009376 -0.010698
-0.0071584 -0.0067355 -0.2626 0.078161
740000000 -0.19633 0.1701 -0.040431 0.027938 0.014516 -0.0046889 0.00019966 -0.0042057
-0.0047099 -0.0026961 -0.006932 0.0022523
-0.040003 0.027882 -0.33619 0.15913 -0.037261 0.035177 -2.1701e-05 -0.006648
-0.013503 0.0067513 -0.001087 -0.0066403
0.014425 -0.0045113 -0.037159 0.035286 -0.07342 0.27258 -0.0022963 0.0031383
-0.0018307 -0.0062346 -0.0019716 0.00081473
0.00021971 -0.0041158 5.4766e-05 -0.0068525 -0.0022096 0.0030532 -0.2043 0.20091
-0.04359 -0.0087338 0.023653 0.016395
-0.0048044 -0.002807 -0.013979 0.0071583 -0.001773 -0.0061331 -0.043714 -0.0086399
-0.181 0.064235 -0.0449 -0.0002372
-0.00692 0.0023928 -0.00091535 -0.0068056 -0.0018471 0.00081054 0.023764 0.016434
-0.044911 -0.00022938 -0.25215 0.0848
800000000 -0.16548 0.21592 -0.02163 0.016328 0.0061764 -0.010616 -0.0044979 -0.0024844
-0.0047537 0.0011783 0.0034662 0.00072194
-0.02163 0.016385 -0.34394 0.23058 -0.0086634 0.034213 -0.0023316 0.0019079
-0.0011875 0.0023216 0.00026546 0.005336
0.0061576 -0.010605 -0.0085765 0.034283 -0.035253 0.29806 0.00060648 0.0015417
-0.00017841 0.0033273 -0.0019334 0.00091677
-0.0045852 -0.0024858 -0.0022673 0.0019146 0.00060531 0.0015435 -0.17502 0.22874
-0.028263 0.013293 0.014688 -0.010364
-0.0047001 0.001229 -0.0012047 0.002226 -0.00013575 0.0033574 -0.028292 0.01335
-0.22872 0.090191 -0.017581 0.020933
0.0035164 0.00068024 0.0003887 0.0053715 -0.0019265 0.00088201 0.014707 -0.010411
-0.017591 0.020932 -0.24787 0.13688
860000000 -0.13096 0.23544 -0.017571 0.03025 -0.0025012 -0.010652 -0.001671 0.00023161
0.003841 0.0054144 -0.0040606 -0.0026618
-0.017611 0.030197 -0.29698 0.27419 0.0072786 0.034777 -0.00018005 0.0021119
0.0032936 0.0013816 0.0031914 0.00024134
-0.0025572 -0.010646 0.007389 0.034797 0.011534 0.30753 -0.00058785 -9.2195e-05
0.0023947 -0.0013539 0.0017945 0.0040764
-0.0017535 0.00020674 -4.0783e-05 0.0021089 -0.00058243 -8.9442e-05 -0.13823 0.23946
-0.017482 0.018203 -0.006715 -0.0093711
0.0036724 0.0055816 0.0031199 0.0012183 0.0024252 -0.0013774 -0.017447 0.018242
-0.17108 0.14522 -0.02541 0.017579
-0.0040403 -0.0025098 0.0034295 0.00051669 0.0017692 0.0041236 -0.0067248 -0.009333
-0.025427 0.01754 -0.197 0.18168
920000000 -0.10819 0.25806 0.0048883 0.038401 -0.009394 -0.0057809 -0.0019568 0.0012003
0.00061703 0.0017793 0.0034768 -0.0010778
0.0047749 0.038265 -0.27012 0.29588 0.028392 0.023148 0.0013819 0.0012288
0.0080131 0.00028797 0.0046223 -0.0027619
-0.0094047 -0.0057451 0.028505 0.02309 0.056889 0.3102 0.0019509 0.00011161
0.00075959 -0.00032527 0.00089101 -0.001805
-0.0020359 0.0011818 0.0013869 0.0011909 0.0019726 0.00011219 -0.11412 0.25635
-0.011418 0.030758 0.0049674 -0.007069
0.0005604 0.0017219 0.0079633 0.0003178 0.00076568 -0.00034074 -0.011373 0.030793
-0.16357 0.15024 -0.0013353 0.02792
0.0032631 -0.0011781 0.004512 -0.0028682 0.0008799 -0.0017664 0.0049738 -0.0070824
-0.0013549 0.027923 -0.20441 0.19556
980000000 -0.062799 0.27913 0.01639 0.029919 -0.010049 0.0038954 0.0014079 0.0034707
0.0040118 -0.0015026 -0.0030912 -0.0027066
0.016304 0.029919 -0.21851 0.33173 0.033707 0.0055837 0.0020874 -0.00016688
0.0022186 -0.0063336 -0.00019354 -0.0028334
-0.010064 0.0039738 0.033744 0.0054816 0.10306 0.30539 0.00075621 -0.0012041
0.00048341 -0.0019134 0.0011664 -0.00041213
0.001281 0.0035139 0.0020939 -0.00024059 0.00074153 -0.0012085 -0.075976 0.26658
0.0078469 0.029672 -0.0095606 -0.0079427
0.0038289 -0.001437 0.0022839 -0.0063134 0.0004743 -0.0019087 0.0079071 0.029678
-0.13076 0.1829 0.0060868 0.020391
-0.0030833 -0.0025323 -0.00010246 -0.0029736 0.001159 -0.00042482 -0.0095636 -0.0078937
0.0060506 0.020381 -0.1649 0.24214
1040000000 -0.022805 0.28868 0.033002 0.019271 -0.0020163 0.0071242 0.0022357 0.00086206
0.00050004 -0.0033833 -0.00021557 -0.0018799
0.032971 0.019343 -0.18447 0.3462 0.03054 -0.014684 0.0016268 -0.0016934
-0.0021867 -0.0028187 -0.0013926 -0.0030462
-0.0019765 0.0071753 0.030497 -0.014832 0.1494 0.2937 -0.00048623 -0.0016947
-0.0016426 -0.00095604 -0.00090088 -0.00093971
0.0022086 0.00083375 0.0015437 -0.0017483 -0.00048721 -0.0016825 -0.049789 0.27672
0.019429 0.018909 -0.0023652 0.00078684
0.00048519 -0.0032747 -0.0022417 -0.0029515 -0.001648 -0.0009622 0.019439 0.018888
-0.098027 0.19027 0.014636 0.019299
-0.00017377 -0.0019106 -0.0014885 -0.00312 -0.00091794 -0.0009428 -0.0023782 0.00078646
0.014628 0.019327 -0.14341 0.26391
1100000000 0.021927 0.29917 0.03686 -0.0033806 0.0027305 0.0043557 0.0023635 -0.00062523
-0.0021268 -0.0030897 -0.0043379 3.5589e-05
0.036825 -0.0033551 -0.14154 0.36578 0.016141 -0.028598 6.3211e-05 -0.0018993
-0.0039209 -0.0012313 -0.0037432 -0.00054812
0.0027716 0.0043453 0.016068 -0.028701 0.1966 0.27471 -0.0020262 0.00019274
-0.0019969 0.00064107 -0.001318 -0.00026091
0.0023211 -0.00058969 4.4788e-05 -0.0018674 -0.0020286 0.00019255 -0.010089 0.28213
0.0252 0.0056147 -0.0029467 -0.00035262
-0.0021372 -0.0030745 -0.0039085 -0.0012588 -0.0020015 0.00065479 0.02521 0.005574
-0.078909 0.20436 0.020619 0.0095718
-0.0043158 2.5504e-06 -0.0038239 -0.00050922 -0.0012849 -0.00027722 -0.0029347 -0.00034174
0.020584 0.0095651 -0.096833 0.29443
1160000000 0.072249 0.29659 0.024963 -0.020801 0.0028166 -0.00038149 3.0743e-05 -0.002072
-0.0041862 -0.00090129 -0.0013729 0.0041209
0.024995 -0.020809 -0.098662 0.37199 -0.0037975 -0.029997 -0.0015138 -0.0017576
-0.0032142 0.0028561 -0.0018894 0.0020936
0.0028221 -0.00037309 -0.0039402 -0.030045 0.24038 0.24456 -0.00087756 0.0018335
-0.00050356 0.0021507 -0.00091659 0.00063794
8.0939e-05 -0.0020744 -0.0015568 -0.0017533 -0.00088456 0.0018362 0.028156 0.27999
0.021729 -0.011197 -0.003849 0.0049562
-0.0042152 -0.00093833 -0.003168 0.0028724 -0.00051532 0.0021444 0.021718 -0.011246
-0.044611 0.21304 0.01981 -0.00044746
-0.001359 0.0042961 -0.0018904 0.002041 -0.00093019 0.00063449 -0.0038619 0.0049596
0.019804 -0.00043885 -0.050082 0.2986
1220000000 0.11583 0.28847 0.011236 -0.030864 -0.001593 -0.00087601 0.00040772 -0.00091833
-0.0029462 0.002135 0.0010484 0.0024528
0.011259 -0.030808 -0.054214 0.38718 -0.01763 -0.022014 -0.0027178 0.00044418
-0.00010595 0.0035266 -0.00084785 0.0023277
-0.0015922 -0.00084672 -0.017763 -0.021987 0.27992 0.20586 0.00085998 0.0019371
0.00078013 0.0014103 0.00054465 0.00069628
0.00041845 -0.00096078 -0.0027035 0.00043395 0.00085443 0.0019438 0.067788 0.27309
0.010854 -0.017846 0.0015811 0.0016109
-0.0029449 0.0021554 -6.586e-05 0.0035255 0.00076798 0.0013971 0.010858 -0.017871
-0.023224 0.22344 0.015079 -0.013811
0.0011141 0.0023541 -0.00081082 0.0023264 0.00053519 0.00070611 0.0015662 0.0015868
0.015052 -0.013812 -0.019689 0.31595
1280000000 0.16671 0.26948 -0.0080777 -0.029545 -0.0020918 0.002739 -0.00073852 -0.0023415
-0.0010004 0.003486 0.002878 0.0016245
-0.0080403 -0.029534 -0.0070755 0.38009 -0.02512 -0.0084351 -0.0010685 0.0016083
0.0020514 0.0021481 0.00089883 0.0022147
-0.0020896 0.0027043 -0.025206 -0.0083478 0.31051 0.16218 0.0018394 1.6866e-05
0.0013849 0.0001806 0.00054259 0.00011678
-0.00073099 -0.0023545 -0.00108 0.0015946 0.0018207 2.6735e-05 0.1048 0.25768
0.000484 -0.020212 -0.00058222 0.00054159
-0.00096696 0.0034876 0.0020526 0.0021436 0.0013934 0.00017397 0.00047417 -0.020198
0.012699 0.22806 0.0036154 -0.017232
0.0029232 0.0015924 0.00090688 0.0021551 0.00050745 0.00014346 -0.00058786 0.00052029
0.0036354 -0.017219 0.027857 0.31886
1340000000 0.20433 0.23824 -0.01833 -0.019283 0.00076844 0.0050636 -0.0020038 -0.0011961
0.0015491 0.0029939 0.002236 -0.001415
-0.018295 -0.019293 0.033227 0.37328 -0.022231 0.0051575 -0.00010652 0.0022102
0.0023798 0.00072128 0.0013917 0.00079823
0.00078909 0.005019 -0.022244 0.0052688 0.33217 0.11527 0.0011599 -0.0011417
0.00062545 -0.00060312 0.00017771 8.8727e-05
-0.0020619 -0.001169 -0.00011463 0.002212 0.0011468 -0.0011565 0.13832 0.23859
-0.0096841 -0.016994 0.00072043 0.0010391
0.0016296 0.0029028 0.0024079 0.00069722 0.00063542 -0.000636 -0.0097016 -0.016986
0.041559 0.22553 -0.0045131 -0.015491
0.0021018 -0.0015231 0.0013621 0.00081383 0.00014642 7.4788e-05 0.00070353 0.0010383
-0.004515 -0.015495 0.066346 0.31508
1400000000 0.23977 0.20225 -0.024323 -0.0071612 0.0056597 0.0036882 -0.0025025 0.00067362
0.0027774 0.0011907 0.00048062 -0.0018487
-0.024298 -0.0071807 0.072285 0.36112 -0.01491 0.013698 0.0015489 0.0013888
0.0013735 -0.0010927 0.0012301 2.2306e-05
0.0056927 0.0036334 -0.01486 0.013772 0.34565 0.062982 -1.0747e-05 -0.0018133
8.0372e-05 -0.00041157 0.0002784 0.0002773
-0.0025071 0.00068565 0.0015737 0.0013738 -5.5057e-06 -0.0018074 0.16891 0.21019
-0.015859 -0.0094849 -0.00089971 0.00040565
0.0028049 0.0012099 0.0013693 -0.0010821 0.00010444 -0.00041749 -0.015872 -0.0094408
0.074762 0.22346 -0.011472 -0.0098491
0.00052045 -0.0017867 0.0013003 3.0418e-05 0.00030149 0.00024453 -0.00088913 0.00038488
-0.011451 -0.0098432 0.11115 0.30493
1460000000 0.26401 0.1593 -0.020642 0.0057472 0.0062404 -0.0017591 -0.0017144 0.001894
0.0024402 -0.00039589 -0.00035017 -0.001236
-0.020654 0.005723 0.10738 0.33898 -0.0050515 0.01651 0.0018299 0.00012657
0.00085836 -0.0016042 0.0012146 -0.00061137
0.0062095 -0.001804 -0.0049948 0.016565 0.3524 0.0095669 -0.0014172 -0.001261
0.00028018 -0.00010161 0.00071742 -0.00038082
-0.0016871 0.0018766 0.0018256 0.00010111 -0.0014318 -0.0012514 0.19616 0.18142
-0.016702 -0.0018713 -0.00059131 0.00245
0.0024492 -0.00041852 0.00083941 -0.0016091 0.00028132 -9.8597e-05 -0.016693 -0.0018495
0.10401 0.21181 -0.013698 -0.0029574
-0.00035498 -0.0011947 0.0012674 -0.00059192 0.00071376 -0.00041038 -0.00060755 0.0024464
-0.013707 -0.0029849 0.14439 0.28486
1520000000 0.27839 0.11827 -0.014388 0.011099 0.0039639 -0.0047206 0.00020405 0.0028768
0.0024304 -0.0021492 -0.0013497 -0.0001623
-0.014392 0.011078 0.14146 0.32494 0.0030723 0.013256 0.0017124 -0.00089652
-0.00016849 -0.0010572 0.00036926 -0.0011011
0.0039487 -0.0046981 0.0031437 0.013256 0.34639 -0.045398 -0.0011064 -0.00019503
0.00077078 -0.0010393 0.00010738 -0.00023766
0.00023096 0.002868 0.0017147 -0.00090949 -0.0011153 -0.00019077 0.22047 0.14328
-0.015263 0.0043732 0.0019392 0.0023474
0.0024641 -0.0021 -0.00014174 -0.0010526 0.00078029 -0.0010314 -0.015261 0.0044178
0.13288 0.20092 -0.013363 0.002461
-0.0012697 -0.00018328 0.00038364 -0.0011273 0.00013221 -0.00025236 0.0019556 0.0023509
-0.013365 0.0024508 0.17741 0.26616
1580000000 0.2894 0.072017 -0.0072101 0.014035 -0.00082742 -0.0055675 0.0017014 0.001915
-0.00023333 -0.002546 -0.00034479 0.00056176
-0.0072182 0.014026 0.16918 0.29985 0.0066611 0.0074902 0.00040134 -0.0016771
-0.00061667 -0.00094987 -0.00022554 -0.00085539
-0.00086463 -0.0055389 0.0066827 0.0074705 0.32792 -0.10314 -0.0015603 0.00057889
-0.00051746 -0.0015112 0.00024947 -0.00060886
0.0017313 0.0018963 0.00039118 -0.0016857 -0.001562 0.00057612 0.23518 0.10357
-0.010649 0.0093014 0.0028205 0.00070289
-0.00027182 -0.0025609 -0.0006085 -0.00095589 -0.00050624 -0.0015355 -0.010637 0.0093067
0.1586 0.18509 -0.010162 0.0088225
-0.00036127 0.00060102 -0.00023 -0.00087046 0.00023728 -0.00059642 0.0028061 0.00071103
-0.010169 0.0088005 0.21013 0.2405
1640000000 0.29235 0.030636 -0.00030797 0.012089 -0.0032674 -0.0031651 0.0029571 0.0010249
-0.00097774 -0.0018191 -0.00035119 0.00066865
-0.00034299 0.0121 0.19835 0.27579 0.0065221 0.0020538 -0.00065652 -0.0018374
-0.00080298 -0.00037889 -0.0005696 -0.00076561
-0.0032821 -0.0031217 0.0065163 0.0020154 0.29981 -0.152 -0.00057551 0.00147
-0.0012266 -0.0011054 -0.00031807 -0.0005542
0.0029778 0.00099226 -0.0006661 -0.0018375 -0.00057458 0.0014566 0.24807 0.054574
-0.0056836 0.0098062 0.0028584 -0.00094939
-0.00095024 -0.0018038 -0.00082855 -0.00036299 -0.0012525 -0.0010704 -0.0056626 0.0098298
0.18293 0.16296 -0.0046446 0.011252
-0.00034928 0.00062644 -0.00059035 -0.00075674 -0.00031051 -0.00055085 0.0028696 -0.00096758
-0.0046336 0.011258 0.23594 0.21064
1700000000 0.28639 -0.01467 0.0028666 0.0087098 -0.0041238 -8.4491e-05 0.0032748 -0.0013661
-0.0023311 -0.00060183 0.0006282 0.0003779
0.0028544 0.008705 0.21705 0.24468 0.0036154 -0.0011009 -0.0015537 -0.00059673
-0.00070454 -0.00015981 -0.00095812 -0.00041898
-0.0041142 -4.7867e-05 0.0035883 -0.001136 0.25749 -0.19234 0.00033748 0.0015375
-0.0023112 3.5399e-05 -0.00057333 -0.00069868
0.0032821 -0.0014073 -0.0015587 -0.00059902 0.00032096 0.0015465 0.2454 0.0042104
-0.0026231 0.0093236 0.0018933 -0.0024635
-0.002332 -0.00056823 -0.00070621 -0.00015894 -0.0023086 1.133e-05 -0.0026214 0.0093325
0.20261 0.14412 0.0007091 0.011091
0.00065664 0.00043875 -0.00095882 -0.00042135 -0.00060406 -0.00070517 0.00188 -0.0024571
0.00071217 0.011104 0.25371 0.17769
1760000000 0.27517 -0.063087 0.0046639 0.0050508 -0.0027787 0.0011874 0.0013065 -0.0036721
-0.0013651 0.00082964 0.00036002 -0.00064731
0.0046402 0.0050761 0.24309 0.20565 0.00055462 -0.002698 -0.0012488 0.00014615
-0.0011354 0.00074152 -0.00061243 0.00035949
-0.0027847 0.0011832 0.00051192 -0.0026933 0.20946 -0.22581 0.0011091 0.0010753
-0.0012297 0.0016753 -0.0015309 -0.00050011
0.0012452 -0.003672 -0.0012495 0.00016172 0.0010961 0.0010596 0.23667 -0.047728
0.00039089 0.0076677 -7.2602e-05 -0.0028938
-0.0014061 0.00083864 -0.001135 0.00076373 -0.0012256 0.0016705 0.00040447 0.0076812
0.21908 0.11043 0.0053065 0.008279
0.00033122 -0.00062901 -0.00062492 0.0003778 -0.0015454 -0.00054182 -5.7465e-05 -0.0028925
0.0053004 0.0082791 0.26739 0.14064
1820000000 0.25191 -0.10038 0.0041557 0.0015695 -0.00033934 0.0026786 -0.0011051 -0.0032347
-0.0010038 0.0010963 -0.00015915 -0.00019449
0.0041872 0.0015568 0.25428 0.1765 -0.0020743 -0.00078229 -0.0013856 0.00097659
-0.00024741 0.0011592 -0.00064805 0.00049306
-0.00028872 0.0026516 -0.0020933 -0.00077176 0.15887 -0.24145 0.0016291 0.00048769
-3.4088e-05 0.0025785 -0.0015637 0.00048841
-0.0011653 -0.0032676 -0.0013801 0.00099065 0.0016258 0.00050734 0.20717 -0.095396
0.0012512 0.0058703 -0.001657 -0.0021409
-0.0010132 0.0010647 -0.00026206 0.0011811 -3.9603e-05 0.0025872 0.0012641 0.0058787
0.23817 0.08254 0.0065905 0.0039452
-0.00018541 -0.00023921 -0.00064981 0.00053053 -0.0015439 0.00054593 -0.0016753 -0.0021132
0.0065925 0.0039311 0.27137 0.10554
1880000000 0.21793 -0.14141 0.0014474 -0.00030554 -0.00073625 0.002765 -0.0031542 -0.0022397
-0.00012598 0.0016594 -2.116e-05 -0.00057195
0.0014432 -0.00027838 0.25918 0.13016 -0.0043526 0.0020735 -0.00025388 0.0018366
0.00032856 0.0014778 0.00013113 0.00098889
-0.00071326 0.0027969 -0.004347 0.0020949 0.10669 -0.25048 0.0020107 -0.00099965
0.0018421 0.0019115 -0.00060944 0.0015936
-0.0031184 -0.0022227 -0.00023523 0.0018475 0.0020079 -0.00099405 0.16636 -0.13636
0.0013812 0.0035323 -0.0025971 -0.00032701
-0.00010063 0.0016791 0.00032441 0.0014524 0.0018525 0.0019247 0.0014156 0.003532
0.2438 0.050967 0.0068575 0.00095879
-2.2031e-05 -0.00062295 0.00010942 0.0010001 -0.00063819 0.0016134 -0.002594 -0.00031514
0.0068633 0.00096446 0.27262 0.07149
1940000000 0.17932 -0.16742 -0.0009713 -0.0014242 0.0016465 0.0026269 -0.0039517 0.00047115
0.0011951 0.00081093 -0.00071169 -0.00022734
-0.00096288 -0.0014223 0.26073 0.09903 -0.00258 0.0053471 0.0010467 0.0014642
0.0019163 0.00079438 0.0008922 0.00036554
0.00161 0.0026827 -0.0025489 0.0053943 0.062321 -0.24313 0.00054527 -0.0022509
0.0024502 0.00026384 0.00051127 0.0016194
-0.0039738 0.00053616 0.0010667 0.0014592 0.00053624 -0.0022587 0.11352 -0.16702
-0.00020887 0.0024182 -0.0022364 0.0013075
0.0011543 0.00078773 0.0019096 0.00078862 0.0024398 0.00029739 -0.0001923 0.0024284
0.24778 0.013449 0.0052957 -0.0033506
-0.00081085 -0.00023066 0.00091031 0.00038719 0.00052503 0.0016378 -0.0022166 0.0012983
0.0052924 -0.0033536 0.26271 0.035443
2000000000 0.13404 -0.18307 -0.0044799 0.0011127 0.0031833 0.0017434 -0.0024741 0.0038639
0.00084791 0.00041745 -0.00032573 0.00072989
-0.0044867 0.0011171 0.24771 0.063731 -0.0013207 0.0078278 0.0017023 0.00028055
0.0014953 -0.0010256 0.00051824 0.00015012
0.0031313 0.0018134 -0.0013235 0.0078926 0.019675 -0.22926 -0.0013688 -0.001725
0.001998 -0.0012353 0.0016412 0.0012922
-0.0024856 0.003869 0.0017098 0.00027024 -0.0013315 -0.001743 0.060025 -0.17715
-0.002062 0.002897 -0.00054684 0.0023742
0.00090779 0.00039362 0.0014855 -0.0010435 0.0019953 -0.0012561 -0.002059 0.0028843
0.24428 -0.019579 0.0011878 -0.0047185
