!Keysight Technologies,M9804A,MY58100912,A.14.10.03
!Date: Thursday, April 27, 2023 10:28:33
!Correction: S11(C  6-Port  ) 
!S12(C  6-Port  ) 
!S13(C  6-Port  ) 
!S14(C  6-Port  ) 
!S15(C  6-Port  ) 
!S16(C  6-Port  ) 
!S21(C  6-Port  ) 
!S22(C  6-Port  ) 
!S23(C  6-Port  ) 
!S24(C  6-Port  ) 
!S25(C  6-Port  ) 
!S26(C  6-Port  ) 
!S31(C  6-Port  ) 
!S32(C  6-Port  ) 
!S33(C  6-Port  ) 
!S34(C  6-Port  ) 
!S35(C  6-Port  ) 
!S36(C  6-Port  ) 
!S41(C  6-Port  ) 
!S42(C  6-Port  ) 
!S43(C  6-Port  ) 
!S44(C  6-Port  ) 
!S45(C  6-Port  ) 
!S46(C  6-Port  ) 
!S51(C  6-Port  ) 
!S52(C  6-Port  ) 
!S53(C  6-Port  ) 
!S54(C  6-Port  ) 
!S55(C  6-Port  ) 
!S56(C  6-Port  ) 
!S61(C  6-Port  ) 
!S62(C  6-Port  ) 
!S63(C  6-Port  ) 
!S64(C  6-Port  ) 
!S65(C  6-Port  ) 
!S66(C  6-Port  ) 
!S6P File: Measurement: :
# Hz S  RI   R 50
500000000 -0.33235 -0.06576 -0.010379 -0.0012499 -0.0083307 0.013251 -0.0039395 0.012408
0.0119 0.0050868 -0.0039892 0.0078503
-0.010301 -0.0012583 -0.41181 -0.07377 0.0086609 -0.010729 0.0010959 0.011784
0.0084995 0.0038015 0.00094708 0.013321
-0.0082992 0.013264 0.0086203 -0.010755 -0.26453 0.19067 0.0074426 0.0034212
-0.0021158 0.0084421 0.00079864 0.012168
-0.0039135 0.012492 0.0011385 0.011798 0.0074225 0.0034116 -0.33257 0.03659
-0.017723 -0.0033598 0.01388 0.024915
0.011916 0.0050849 0.0084683 0.0037683 -0.0021577 0.0083866 -0.01768 -0.0033379
-0.23602 -0.21517 -0.026354 0.0060251
-0.0039017 0.0083702 0.0011982 0.013554 0.00088606 0.012193 0.013949 0.024543
-0.02623 0.0059582 -0.26658 -0.14358
560000000 -0.31996 0.10315 -0.021986 -0.066637 -0.00030636 0.013604 0.0054397 0.011441
0.010996 0.0034999 0.010537 0.0086283
-0.021934 -0.066582 -0.37251 0.091335 -0.041687 -0.039312 0.014628 0.0036894
-0.013471 -0.0043621 0.0040199 -0.00082366
-0.00023679 0.01358 -0.041875 -0.039292 -0.18602 0.24217 -0.0010751 -0.0045937
0.019 0.0067564 0.0069819 -0.0063592
0.0054574 0.011378 0.014671 0.0036985 -0.0011198 -0.004575 -0.3057 0.1296
0.0062487 -0.023795 0.0057083 -0.021843
0.011066 0.0034837 -0.013613 -0.0044025 0.019104 0.0065626 0.0061761 -0.023718
-0.30594 -0.034162 0.010105 -0.050626
0.010619 0.0083797 0.0038791 -0.0009575 0.0070805 -0.0065282 0.0055781 -0.02198
0.0098925 -0.050084 -0.33021 0.0081156
620000000 -0.27832 0.081945 -0.023033 0.0089028 0.0035169 0.0096489 0.0078801 -0.0037004
0.013006 -0.0014743 -0.00028029 -0.0014147
-0.02302 0.0089218 -0.40176 0.038093 -0.018303 9.7971e-05 -0.0019315 -0.0017954
0.01315 -0.0061122 0.00063985 -0.0028899
0.0035735 0.0096692 -0.018319 0.00015237 -0.15758 0.25269 -0.0006225 -0.0050426
-0.0035789 -0.0029506 0.010185 -0.0029518
0.0079461 -0.0037193 -0.001947 -0.0018081 -0.00063041 -0.0050433 -0.26496 0.13965
-0.038761 -0.019478 0.014076 0.027824
0.012817 -0.001525 0.013064 -0.0061785 -0.0035414 -0.0029535 -0.038616 -0.019331
-0.22467 -0.070838 -0.043893 0.012144
-0.00022247 -0.0015476 0.00054001 -0.0029387 0.010276 -0.0029418 0.014257 0.027793
-0.044206 0.012092 -0.24477 -0.026332
680000000 -0.24372 0.17635 -0.026501 -0.015042 0.0050047 0.0056702 0.0015187 -0.0077548
-0.0022968 -0.011187 0.0059023 -0.0069475
-0.026495 -0.015057 -0.39115 0.13968 -0.032917 -0.0028195 -0.0018922 -0.00075929
-0.0015664 -0.0090812 -0.001316 -0.0020807
0.0049856 0.0056782 -0.032987 -0.0027065 -0.10831 0.27485 -0.0010108 -0.00034788
-0.0014954 0.00077718 -0.0032383 -0.0095173
0.0014985 -0.0077507 -0.0019128 -0.00073702 -0.0010076 -0.00035189 -0.22115 0.19252
-0.023327 -0.0081855 -0.0096349 -0.011262
-0.0023385 -0.011186 -0.001614 -0.0090834 -0.0015302 0.00080535 -0.02335 -0.0081689
-0.28096 0.035595 -0.0054389 -0.0072468
0.0059298 -0.0067781 -0.0012915 -0.0019982 -0.0032198 -0.0094987 -0.0096759 -0.011228
-0.0054475 -0.0071988 -0.26212 0.077991
740000000 -0.19667 0.16842 -0.0411 0.02641 0.014287 -0.0041913 0.00011881 -0.0039991
-0.0041796 -0.0028253 -0.0066948 0.0029401
-0.04109 0.026335 -0.33759 0.159 -0.037547 0.034412 -0.00028963 -0.0062375
-0.012343 0.0070912 -0.0015561 -0.0063085
0.014293 -0.0042466 -0.037482 0.034582 -0.074728 0.27334 -0.0014528 0.0034016
-0.0024201 -0.0058346 -0.0011452 0.0010778
7.089e-05 -0.0040279 -0.00030752 -0.0062719 -0.0014537 0.0034172 -0.20521 0.19926
-0.042836 -0.0089906 0.023111 0.016093
-0.0041531 -0.0026141 -0.012389 0.0072199 -0.0024298 -0.0058369 -0.042877 -0.0088819
-0.18265 0.06517 -0.044076 -0.00015864
-0.0068688 0.0026893 -0.0016638 -0.006411 -0.0011919 0.0010115 0.023111 0.016007
-0.043861 -0.00044434 -0.25178 0.085981
800000000 -0.16581 0.2144 -0.022775 0.015884 0.006034 -0.010566 -0.0044612 -0.0026874
-0.0047035 0.002277 0.0040554 -0.00031451
-0.022758 0.015841 -0.34512 0.23032 -0.0094201 0.034537 -0.002144 0.0018203
-0.00077956 0.002756 0.00061553 0.0048915
0.0060383 -0.010594 -0.0093128 0.034624 -0.036384 0.29897 0.00092069 0.0011533
0.00025013 0.0034791 -0.0021684 0.00084841
-0.0044618 -0.0026615 -0.0021377 0.0018485 0.00090263 0.0011555 -0.17629 0.22734
-0.029068 0.012458 0.014194 -0.010852
-0.0046671 0.0022609 -0.00077755 0.0027589 0.00024467 0.0034696 -0.029045 0.01248
-0.22732 0.091518 -0.018104 0.020366
0.0043671 -0.00021317 0.00079455 0.0050013 -0.0020205 0.00073944 0.014314 -0.010774
-0.018043 0.020399 -0.24728 0.13439
860000000 -0.13217 0.23562 -0.018761 0.030407 -0.0028476 -0.010399 -0.0019712 0.00072699
0.0038391 0.0056634 -0.0036676 -0.0030614
-0.018759 0.030367 -0.29836 0.27474 0.0069441 0.035226 0.00014336 0.0024358
0.0040293 0.0005298 0.0036659 0.00012676
-0.0028867 -0.010418 0.0070607 0.035255 0.011254 0.30882 -0.00061599 -0.00018329
0.0022228 -0.0015382 0.0019458 0.0041759
-0.0019644 0.00071564 0.00011996 0.0024492 -0.00061911 -0.00018873 -0.14022 0.23883
-0.01952 0.018226 -0.0061839 -0.0088231
0.0038758 0.0056324 0.0040594 0.00051502 0.0022373 -0.0015569 -0.019458 0.018289
-0.17203 0.14741 -0.025703 0.015708
-0.0038867 -0.0031764 0.0035458 0.00012244 0.0018827 0.0042214 -0.0062717 -0.008933
-0.025707 0.015602 -0.19594 0.18346
920000000 -0.10911 0.25927 0.0040201 0.039162 -0.0094452 -0.0051962 -0.0018889 0.001778
0.00074508 0.0015484 0.0030746 -0.0010604
0.003999 0.039115 -0.2713 0.29719 0.028261 0.023745 0.0013472 0.0011563
0.0076804 -0.00011522 0.0042828 -0.0027819
-0.0094611 -0.0051743 0.028379 0.023697 0.05717 0.31119 0.001836 0.00016433
0.00077838 -0.00017531 0.0010736 -0.0015213
-0.0019025 0.0018261 0.0013594 0.001169 0.0018344 0.00016066 -0.11614 0.25667
-0.011988 0.03046 0.0040805 -0.006773
0.0007827 0.0015502 0.007691 -0.00016169 0.00077826 -0.00016836 -0.011944 0.030502
-0.16266 0.15279 -0.0022687 0.02773
0.0031941 -0.0011169 0.0043093 -0.0028661 0.0010897 -0.0015615 0.004103 -0.0067372
-0.0023779 0.027703 -0.2053 0.19558
980000000 -0.063188 0.28047 0.016178 0.031069 -0.0098519 0.0044351 0.0016698 0.0038131
0.0042763 -0.0014413 -0.0034992 -0.0025693
0.016171 0.031042 -0.219 0.33343 0.033822 0.0060959 0.0020279 -0.00027557
0.0020687 -0.0063352 -0.00057058 -0.0026132
-0.0098495 0.004475 0.033894 0.005983 0.1035 0.306 0.00066471 -0.0011489
0.00058048 -0.0018641 0.0012795 -0.00027573
0.0017009 0.0037866 0.0020185 -0.00025813 0.00067054 -0.0011506 -0.07791 0.2676
0.0073236 0.030543 -0.0097701 -0.0078839
0.00429 -0.0014376 0.002055 -0.0063363 0.00056678 -0.0018557 0.0073897 0.030522
-0.13016 0.18431 0.0047518 0.020273
-0.0036546 -0.0024781 -0.00058765 -0.0026052 0.0012696 -0.00029372 -0.0097629 -0.0079415
0.0048349 0.020211 -0.16446 0.24225
1040000000 -0.022393 0.29022 0.033353 0.020354 -0.0016012 0.0076014 0.0026118 0.00084408
0.00031566 -0.0034385 -0.00022731 -0.0015181
0.033324 0.020318 -0.18423 0.34796 0.030815 -0.014312 0.001537 -0.0018001
-0.0023577 -0.0023222 -0.001227 -0.0031986
-0.0015632 0.0075998 0.030785 -0.014435 0.14976 0.29388 -0.00046109 -0.001606
-0.0015898 -0.00092695 -0.00051731 -0.001243
0.0026112 0.00083473 0.0015311 -0.0017748 -0.00045981 -0.0016018 -0.051015 0.27826
0.01908 0.019451 -0.0024451 0.0012876
0.00028304 -0.0034311 -0.0023538 -0.0022693 -0.0015823 -0.00090242 0.019122 0.019469
-0.098303 0.19205 0.013185 0.019313
-0.00020527 -0.001587 -0.0012105 -0.0031875 -0.0005086 -0.0012216 -0.0024696 0.0012854
0.013126 0.019314 -0.14292 0.26394
1100000000 0.02246 0.3006 0.037385 -0.0024668 0.0032377 0.0044352 0.0025149 -0.0010785
-0.0021094 -0.0029137 -0.0041282 -9.7377e-05
0.03735 -0.002453 -0.14073 0.36781 0.016451 -0.028335 -5.6281e-05 -0.0018489
-0.003652 -0.00073896 -0.0035276 -0.0004133
0.003266 0.0044391 0.016359 -0.028427 0.19665 0.27487 -0.0018785 0.00022357
-0.0017941 0.00061118 -0.0010858 -0.00050763
0.0025088 -0.0011183 -7.4145e-05 -0.0018573 -0.0018737 0.00022889 -0.01053 0.284
0.025146 0.0060331 -0.0028402 0.00038561
-0.002089 -0.0029012 -0.0036578 -0.00070753 -0.0017986 0.00061435 0.025173 0.0059756
-0.078736 0.20754 0.019785 0.009693
-0.0040996 -1.2363e-05 -0.0035231 -0.00037531 -0.0010853 -0.00051538 -0.0028226 0.00034364
0.019765 0.0097598 -0.097481 0.29568
1160000000 0.073187 0.29761 0.025759 -0.020381 0.0034037 -0.00051809 -0.00017319 -0.0024813
-0.0040769 -0.00095601 -0.0011318 0.0041828
0.025752 -0.020363 -0.097293 0.3731 -0.0031925 -0.029909 -0.0015281 -0.0016447
-0.0027185 0.0025302 -0.001717 0.002019
0.0034153 -0.00054776 -0.0033445 -0.029927 0.24025 0.2448 -0.00078809 0.0018842
-0.00066137 0.0018884 -0.0012082 0.00032744
-0.00017972 -0.0024737 -0.0015333 -0.0016311 -0.00078731 0.0018792 0.028945 0.28169
0.022171 -0.010282 -0.0034642 0.005272
-0.0041102 -0.00089583 -0.0027023 0.0025835 -0.00066082 0.0019003 0.022153 -0.010292
-0.044921 0.21656 0.019878 -1.794e-05
-0.0010988 0.0042114 -0.0017298 0.0020223 -0.0011993 0.00031739 -0.0034508 0.0052872
0.019909 -8.3826e-06 -0.050541 0.29893
1220000000 0.11701 0.28924 0.012307 -0.030737 -0.0011941 -0.0014118 -4.0688e-06 -0.00094326
-0.0027796 0.0022937 0.0011669 0.0021195
0.012336 -0.030707 -0.052387 0.38774 -0.017158 -0.022069 -0.0026299 0.0005071
8.9829e-05 0.0031285 -0.00080151 0.0019917
-0.0011963 -0.0014083 -0.017289 -0.022022 0.27987 0.20647 0.00085597 0.0017084
0.00057842 0.0012879 0.0002517 0.00074634
6.8233e-06 -0.00095108 -0.0026417 0.00052477 0.00085493 0.0017033 0.069094 0.27412
0.011027 -0.017373 0.0023905 0.0016905
-0.0027683 0.0022591 0.00010453 0.0031261 0.00057965 0.0012779 0.011022 -0.017401
-0.021574 0.22734 0.014745 -0.01292
0.0011507 0.0020922 -0.00082353 0.0020047 0.00026321 0.00075458 0.0023634 0.001679
0.014717 -0.0129 -0.019551 0.31626
1280000000 0.16791 0.26981 -0.007094 -0.029936 -0.0020318 0.001992 -0.0008576 -0.0020112
-0.00085139 0.003305 0.0025726 0.0014013
-0.0070638 -0.029905 -0.0053882 0.37976 -0.024588 -0.0086925 -0.00089327 0.001498
0.0018396 0.0016768 0.00073378 0.0022308
-0.0020302 0.0020017 -0.024665 -0.008585 0.3108 0.16295 0.0016551 -8.1723e-05
0.0011394 0.00024767 0.00025823 0.0004961
-0.00086674 -0.0020065 -0.00088443 0.0015025 0.0016551 -8.6854e-05 0.10629 0.25775
0.0011155 -0.019873 -0.00026048 -8.8455e-06
-0.00082767 0.0033208 0.0018486 0.0016718 0.0011427 0.00024406 0.0010708 -0.019867
0.015365 0.23178 0.0038052 -0.015977
0.002606 0.0013734 0.00073544 0.0022069 0.00025365 0.00049262 -0.00023317 -1.391e-05
0.0038034 -0.016016 0.027665 0.31968
1340000000 0.20574 0.23807 -0.017531 -0.020375 0.00046668 0.0043904 -0.0018718 -0.00086052
0.0015464 0.0028001 0.0018387 -0.0014097
-0.017488 -0.020366 0.034341 0.37241 -0.021935 0.0046037 -3.5278e-05 0.0020056
0.0019462 0.00081721 0.0012377 0.00080948
0.00048877 0.0043873 -0.021939 0.0047268 0.33291 0.11605 0.00097829 -0.0010095
0.00072904 -0.00052258 0.00018137 0.000291
-0.0018751 -0.00086028 -3.0811e-05 0.002017 0.00098146 -0.0010066 0.13939 0.23773
-0.0088099 -0.016983 0.0010178 0.00037161
0.0015603 0.0027829 0.0019653 0.00079853 0.00073801 -0.00051806 -0.0088482 -0.016988
0.045592 0.22908 -0.003537 -0.014759
0.0018163 -0.0014163 0.0012621 0.00079574 0.00018587 0.00031144 0.0009899 0.00037144
-0.0034957 -0.014738 0.066224 0.31574
1400000000 0.24069 0.20139 -0.024217 -0.0084709 0.005022 0.0033221 -0.0021982 0.00074461
0.0026981 0.0010591 0.00034416 -0.0016723
-0.024191 -0.0084744 0.072996 0.35979 -0.014922 0.012946 0.0012931 0.001253
0.0011492 -0.00078391 0.0012294 0.00017626
0.0050452 0.0033041 -0.014873 0.013058 0.34651 0.063048 -4.8399e-05 -0.0015787
0.0001383 -0.00031228 0.00052384 0.00029572
-0.0022029 0.00075206 0.0013164 0.0012499 -4.9966e-05 -0.0015723 0.16928 0.20909
-0.015256 -0.0099009 -0.00084406 -9.0494e-05
0.002727 0.0010473 0.0011387 -0.00079284 0.00013023 -0.00030663 -0.015275 -0.0098651
0.079661 0.22573 -0.010544 -0.0094
0.00032688 -0.00165 0.0012076 0.00016935 0.00050039 0.00029842 -0.00082629 -5.524e-05
-0.010541 -0.0094112 0.1119 0.30622
1460000000 0.2645 0.15815 -0.021262 0.0045654 0.0056095 -0.0017067 -0.0015581 0.0017822
0.0022543 -0.00045053 -0.00034563 -0.0010104
-0.021238 0.0045432 0.10726 0.33784 -0.0054695 0.015854 0.0016336 0.00022171
0.00091295 -0.0013398 0.0011859 -0.00059969
0.0055988 -0.0017256 -0.0053928 0.015912 0.35328 0.00942 -0.0011842 -0.0011844
0.00029902 -0.00025908 0.00070143 -0.00027414
-0.0015389 0.0017875 0.001631 0.00021197 -0.0011827 -0.0011866 0.19581 0.18018
-0.016073 -0.0025658 -0.00091922 0.0020173
0.0022624 -0.00045515 0.00091091 -0.0013373 0.00030645 -0.00026713 -0.016094 -0.0025216
0.10918 0.21261 -0.012297 -0.002928
-0.00037833 -0.0010392 0.0011942 -0.00061293 0.00069343 -0.00029155 -0.00089389 0.0020508
-0.012307 -0.0029708 0.1451 0.28585
1520000000 0.27815 0.11727 -0.015492 0.010462 0.0033646 -0.0041905 0.00020178 0.0027003
0.0022487 -0.0020077 -0.0011476 -0.00014625
-0.015487 0.010451 0.14093 0.32401 0.0023595 0.012958 0.0016768 -0.00068173
4.3431e-05 -0.00091349 0.00034487 -0.0011078
0.0033439 -0.0042122 0.0024371 0.012972 0.34687 -0.046014 -0.00088275 -0.00030681
0.0006677 -0.00092411 0.00016514 -0.00034133
0.00020373 0.0027038 0.0016745 -0.00069554 -0.00089555 -0.00030665 0.21962 0.14238
-0.015033 0.0035542 0.0015317 0.0021118
0.002236 -0.002021 4.0944e-05 -0.00091339 0.00067752 -0.0009265 -0.015048 0.00358
0.13833 0.20033 -0.012309 0.0018066
-0.0011369 -0.0001268 0.00032471 -0.0011084 0.00018607 -0.00034653 0.0015351 0.0021172
-0.01231 0.0017933 0.17841 0.26704
1580000000 0.28867 0.071519 -0.0084285 0.014042 -0.0010032 -0.0048397 0.0015414 0.0018105
-0.00025369 -0.0022733 -0.00027994 0.00045218
-0.0084393 0.014023 0.16841 0.29927 0.0058642 0.0076041 0.00060023 -0.0015381
-0.00045924 -0.001047 -0.00022907 -0.00081052
-0.0010354 -0.00484 0.0059195 0.0075853 0.32783 -0.10362 -0.0014385 0.00044426
-0.00035959 -0.0012507 0.0003039 -0.00064096
0.0015497 0.0018098 0.00059482 -0.0015463 -0.0014321 0.00043385 0.23393 0.10306
-0.010839 0.0083772 0.0023233 0.00068256
-0.00028519 -0.0022738 -0.00047465 -0.0010374 -0.00035846 -0.0012394 -0.010809 0.0084006
0.16322 0.18309 -0.009545 0.0078915
-0.00024871 0.00046715 -0.00023415 -0.000804 0.00032133 -0.00063516 0.0022905 0.00068772
-0.0095459 0.0078644 0.21166 0.24127
1640000000 0.2916 0.030828 -0.0013378 0.012676 -0.0030112 -0.0026052 0.0028014 0.0010322
-0.00086868 -0.0016811 -0.00026323 0.00054424
-0.0013434 0.012662 0.19751 0.27559 0.0059458 0.0025075 -0.00043781 -0.0018358
-0.00083912 -0.0004407 -0.00049614 -0.00067466
-0.0030217 -0.002601 0.0059687 0.0024694 0.29938 -0.15199 -0.00063299 0.0013894
-0.0010593 -0.0009445 -0.00011085 -0.00054497
0.0027928 0.0010055 -0.00044664 -0.0018359 -0.00063889 0.0013866 0.24668 0.054634
-0.0062117 0.0090518 0.0025034 -0.0007521
-0.00088285 -0.0016923 -0.00085288 -0.00043841 -0.001067 -0.00093576 -0.0061933 0.0090713
0.18677 0.16028 -0.004478 0.010025
-0.00027097 0.0005586 -0.00051559 -0.00068036 -0.00012071 -0.00054129 0.0025268 -0.0007783
-0.0045005 0.010043 0.23747 0.21121
1700000000 0.28618 -0.014034 0.002294 0.0096047 -0.003696 0.00016124 0.0031489 -0.0012347
-0.0021158 -0.00055933 0.00057445 0.00041732
0.0022876 0.0095911 0.21629 0.24464 0.0034239 -0.00049234 -0.0014886 -0.00075548
-0.00078214 -0.00016067 -0.00091137 -0.00037779
-0.0036934 0.00017569 0.0034198 -0.00052746 0.25772 -0.19176 0.00028359 0.0015311
-0.0020247 -5.4489e-05 -0.00047005 -0.00085013
0.0031425 -0.0012394 -0.0014946 -0.00074913 0.00029273 0.0015357 0.24411 0.004836
-0.0034991 0.0089521 0.0015161 -0.0021031
-0.0021277 -0.00052837 -0.00078939 -0.00015476 -0.0020357 -4.6951e-05 -0.0034843 0.0089714
0.20534 0.14064 0.00028901 0.010076
0.00058769 0.000445 -0.00089568 -0.00037519 -0.00047304 -0.00087831 0.0014973 -0.0021417
0.00029842 0.010066 0.25519 0.17766
1760000000 0.27512 -0.062505 0.0044872 0.0061246 -0.0024364 0.0012652 0.0012977 -0.0035102
-0.0013645 0.00061169 0.0003133 -0.00046155
0.0044767 0.0061193 0.24228 0.20578 0.00061434 -0.0021583 -0.0013098 2.5597e-05
-0.0011355 0.00078609 -0.00053335 0.00043807
-0.002429 0.0012888 0.00059377 -0.0021733 0.20999 -0.22568 0.0010897 0.0011076
-0.0011609 0.0014312 -0.0013375 -0.0004101
0.0012824 -0.0035202 -0.0013104 3.5043e-05 0.0010801 0.001113 0.2356 -0.046579
-0.00071755 0.0077975 -0.00018187 -0.0024901
-0.0013553 0.00062838 -0.0011204 0.00080143 -0.0011573 0.0014397 -0.00069385 0.007805
0.2204 0.10712 0.004515 0.0073606
0.00028903 -0.00051905 -0.00053896 0.00043513 -0.0013183 -0.00039024 -0.00016353 -0.0024753
0.0045216 0.0073645 0.26888 0.14003
1820000000 0.25229 -0.09975 0.0045043 0.0025393 0.00013259 0.0026315 -0.00097424 -0.0031426
-0.0010627 0.00097131 -0.00015066 -0.0001973
0.0044976 0.00254 0.25346 0.17691 -0.0018758 -0.00029757 -0.0014591 0.0010135
-0.00019702 0.0012529 -0.00055334 0.00048937
0.00014585 0.0026319 -0.0018886 -0.00028586 0.15907 -0.24171 0.0017033 0.00061677
-0.00020896 0.0023384 -0.0015415 0.00044913
-0.00099195 -0.0031355 -0.0014576 0.0010243 0.0016952 0.00062246 0.20686 -0.094135
0.00052535 0.0062091 -0.0014872 -0.0017979
-0.001072 0.00098347 -0.00019626 0.0012536 -0.00018677 0.0023497 0.00055049 0.0062458
0.23887 0.079243 0.0056873 0.0035456
-0.00015394 -0.00020506 -0.00054523 0.00049841 -0.0016013 0.00040406 -0.0015772 -0.0018676
0.0056425 0.0035165 0.27229 0.10443
1880000000 0.21836 -0.14126 0.0021527 0.00037446 -0.00032846 0.002406 -0.0030846 -0.0022527
-0.00018068 0.0016488 0.00015099 -0.00044572
0.0021528 0.00037235 0.25857 0.13078 -0.0038144 0.0023653 -0.00028899 0.0018857
0.00048726 0.0014216 0.0001218 0.00096811
-0.00031609 0.002413 -0.0038007 0.0023964 0.10689 -0.25075 0.0019428 -0.0010345
0.0016014 0.0019082 -0.00095516 0.001365
-0.0031101 -0.0022659 -0.00027695 0.0018834 0.0019371 -0.0010401 0.16659 -0.13489
0.00081364 0.0045036 -0.0026576 2.1012e-05
-0.00018679 0.0016371 0.00049399 0.001426 0.0016046 0.0019282 0.00084947 0.0044811
0.24358 0.048507 0.0054776 0.00077841
0.0001765 -0.00050317 0.00015438 0.00093613 -0.00089159 0.0013381 -0.0025884 8.7345e-05
0.0055165 0.00078996 0.27332 0.070447
1940000000 0.17967 -0.16726 -6.14e-05 -0.0011448 0.0016311 0.0020642 -0.004035 0.00022871
0.0011744 0.00080954 -0.00076663 -0.00056714
-5.5192e-05 -0.0011393 0.26025 0.099889 -0.0020024 0.0053919 0.0010569 0.0014532
0.0018879 0.00057387 0.00081156 0.00028838
0.0016513 0.0020524 -0.0019731 0.0054154 0.062387 -0.243 0.00059212 -0.0021612
0.0022842 0.00054348 0.00029831 0.0015718
-0.0040006 0.00025987 0.0010606 0.0014431 0.00058085 -0.00216 0.1145 -0.16575
-0.00013131 0.0035139 -0.0017529 0.0015685
0.0011831 0.00079922 0.00188 0.00054483 0.002259 0.00054607 -0.00016237 0.0035501
0.24748 0.011572 0.0039732 -0.0027364
-0.00072995 -0.00058472 0.00082426 0.00026942 0.00036812 0.0015637 -0.0017885 0.001488
0.0039946 -0.0027691 0.26301 0.034123
2000000000 0.13461 -0.18303 -0.0035161 0.00097779 0.0029829 0.0012349 -0.0022616 0.0039454
0.0010057 0.00045036 -0.00048531 0.00053699
-0.0035248 0.00097286 0.24768 0.064605 -0.00080945 0.0074509 0.0018762 0.00034317
0.0014578 -0.0011963 0.00033297 0.00016295
0.0029907 0.0012197 -0.00075573 0.0074669 0.019815 -0.22937 -0.0013683 -0.0017158
0.0020927 -0.0012241 0.0013371 0.0016822
-0.0022643 0.0039793 0.0018895 0.00034072 -0.0013567 -0.0017209 0.060966 -0.17674
-0.0016051 0.0036402 -4.3157e-05 0.0023642
0.00096632 0.0004626 0.0014521 -0.0011844 0.0020972 -0.0012223 -0.0015459 0.0036398
0.24433 -0.02102 0.00066677 -0.0037428
