!Keysight Technologies,M9804A,MY58100912,A.14.10.03
!Date: Thursday, April 27, 2023 10:28:33
!Correction: S11(C  6-Port  ) 
!S12(C  6-Port  ) 
!S13(C  6-Port  ) 
!S14(C  6-Port  ) 
!S15(C  6-Port  ) 
!S16(C  6-Port  ) 
!S21(C  6-Port  ) 
!S22(C  6-Port  ) 
!S23(C  6-Port  ) 
!S24(C  6-Port  ) 
!S25(C  6-Port  ) 
!S26(C  6-Port  ) 
!S31(C  6-Port  ) 
!S32(C  6-Port  ) 
!S33(C  6-Port  ) 
!S34(C  6-Port  ) 
!S35(C  6-Port  ) 
!S36(C  6-Port  ) 
!S41(C  6-Port  ) 
!S42(C  6-Port  ) 
!S43(C  6-Port  ) 
!S44(C  6-Port  ) 
!S45(C  6-Port  ) 
!S46(C  6-Port  ) 
!S51(C  6-Port  ) 
!S52(C  6-Port  ) 
!S53(C  6-Port  ) 
!S54(C  6-Port  ) 
!S55(C  6-Port  ) 
!S56(C  6-Port  ) 
!S61(C  6-Port  ) 
!S62(C  6-Port  ) 
!S63(C  6-Port  ) 
!S64(C  6-Port  ) 
!S65(C  6-Port  ) 
!S66(C  6-Port  ) 
!S6P File: Measurement: :
# Hz S  RI   R 50
500000000 -0.33142 -0.063308 -0.010147 -0.0010053 -0.0086952 0.013058 -0.0037738 0.012389
0.012788 0.0054901 -0.0036329 0.0078876
-0.010313 -0.0010704 -0.413 -0.071656 0.0080915 -0.010547 0.0015057 0.01288
0.0083601 0.0028604 0.0012189 0.014253
-0.0090433 0.01319 0.0080448 -0.010367 -0.26604 0.19228 0.0066591 0.0039809
-0.0019392 0.0086221 -0.00014237 0.012482
-0.003764 0.012207 0.001736 0.012962 0.00665 0.0040507 -0.33003 0.038522
-0.019261 -0.0042167 0.017847 0.02612
0.012914 0.0057933 0.0085449 0.0030121 -0.002032 0.0086046 -0.019001 -0.0043931
-0.23685 -0.21425 -0.027011 0.006187
-0.0035572 0.0079077 0.0016189 0.014521 -0.00021311 0.012511 0.01819 0.026051
-0.027166 0.0061715 -0.26268 -0.13959
560000000 -0.31877 0.10426 -0.021965 -0.066245 0.00021185 0.013707 0.004415 0.012403
0.010877 0.0048574 0.011032 0.0095733
-0.022029 -0.066245 -0.37337 0.093253 -0.041524 -0.03924 0.013913 0.0041762
-0.01175 -0.004401 0.0034382 -0.00068538
-0.00020523 0.013625 -0.041668 -0.039251 -0.18635 0.24474 -0.0003374 -0.0049877
0.019043 0.0067437 0.0075728 -0.0056075
0.004814 0.011807 0.014018 0.0041448 -0.00046067 -0.0048906 -0.30653 0.13075
0.0053992 -0.023465 0.0056777 -0.02064
0.010863 0.0048092 -0.012206 -0.0048416 0.01928 0.0065445 0.0045235 -0.023465
-0.31031 -0.030432 0.010432 -0.051603
0.01093 0.0096516 0.0041843 -0.0004538 0.0075427 -0.0047932 0.0057615 -0.021606
0.01022 -0.051635 -0.33259 0.015249
620000000 -0.27912 0.084619 -0.023639 0.0091561 0.0037323 0.0099518 0.0081573 -0.0043366
0.011678 -0.0015618 -5.5299e-06 -0.0017611
-0.023509 0.0092706 -0.40246 0.040367 -0.018507 0.00060671 -0.0017206 -0.0021488
0.012344 -0.0051749 0.0012886 -0.0031936
0.0037521 0.0098532 -0.018506 0.00066499 -0.15729 0.25424 -0.00059414 -0.0053669
-0.0033838 -0.0023171 0.0099139 -0.0027914
0.0083625 -0.0040833 -0.0016589 -0.0023047 -0.00054741 -0.0053749 -0.2649 0.14142
-0.03905 -0.020232 0.012866 0.02834
0.012001 -0.0013475 0.012616 -0.0051748 -0.0035106 -0.0024152 -0.038817 -0.020292
-0.22571 -0.066131 -0.042171 0.011734
0.00025058 -0.0014698 0.0010687 -0.0031205 0.010039 -0.0026608 0.013137 0.028611
-0.041885 0.011794 -0.24852 -0.024357
680000000 -0.24259 0.17873 -0.026506 -0.014444 0.0048377 0.0055929 0.0018133 -0.0071657
-0.0012419 -0.011668 0.0062043 -0.0073077
-0.026441 -0.014333 -0.39078 0.14225 -0.032612 -0.0025461 -0.0017507 -0.00043859
-0.0011553 -0.0093963 -0.00032774 -0.002092
0.0048629 0.0054689 -0.03257 -0.0024294 -0.10695 0.27645 -0.00092751 -0.00027434
-0.0012908 -6.9436e-05 -0.003184 -0.0092178
0.0018655 -0.0071513 -0.0018393 -0.00020527 -0.00089255 -0.00029902 -0.21994 0.19351
-0.02302 -0.0072133 -0.0094105 -0.012089
-0.0012965 -0.011512 -0.0010423 -0.0092913 -0.0012521 -1.4696e-05 -0.023141 -0.007145
-0.28156 0.03639 -0.0079767 -0.0066655
0.0059066 -0.006654 -0.00083627 -0.0023887 -0.0031892 -0.0092966 -0.0090631 -0.012254
-0.007893 -0.0065972 -0.26006 0.081343
740000000 -0.19575 0.17058 -0.040013 0.026797 0.014139 -0.0041041 0.00013004 -0.0038747
-0.0042568 -0.0034883 -0.0069869 0.0032078
-0.040182 0.026844 -0.33638 0.16157 -0.037853 0.034757 0.00013502 -0.00585
-0.013343 0.0071766 -0.00028818 -0.0056639
0.014016 -0.0043516 -0.037699 0.034722 -0.07296 0.27383 -0.0022743 0.0032647
-0.001977 -0.0064629 -0.0018453 0.0014769
-4.3617e-05 -0.0040349 -0.00013443 -0.0057926 -0.0023524 0.0032974 -0.20428 0.20143
-0.043706 -0.0093287 0.023704 0.016603
-0.0042484 -0.0036265 -0.012783 0.006589 -0.0016258 -0.006219 -0.042973 -0.0093775
-0.17965 0.069491 -0.043579 -0.00081522
-0.0070155 0.0031956 -0.0012528 -0.00584 -0.0019611 0.0013201 0.023503 0.016735
-0.043714 -0.00080552 -0.25101 0.088916
800000000 -0.16488 0.21622 -0.022527 0.015907 0.0060235 -0.010656 -0.0044081 -0.0025624
-0.0046762 0.001906 0.0042323 0.0004338
-0.0225 0.015953 -0.34395 0.23188 -0.0091844 0.03414 -0.0021756 0.0019628
-0.001211 0.0021576 0.00076498 0.0055922
0.0060128 -0.010616 -0.0090596 0.034234 -0.034905 0.29922 0.00094837 0.0013106
3.9232e-05 0.0032675 -0.0019051 0.00069086
-0.0045588 -0.0023403 -0.0022065 0.0019825 0.00098372 0.0013285 -0.17506 0.22861
-0.028551 0.012761 0.014233 -0.010147
-0.0048792 0.0020083 -0.0014082 0.0024219 -0.0001388 0.0033181 -0.028776 0.012766
-0.22711 0.093971 -0.016843 0.020151
0.004206 0.0003971 0.00089317 0.0053544 -0.0018175 0.00052284 0.014592 -0.010357
-0.016975 0.020095 -0.24697 0.13786
860000000 -0.13044 0.23645 -0.018205 0.030478 -0.0029814 -0.010475 -0.0018411 0.00053382
0.0036711 0.0055566 -0.0042657 -0.0030601
-0.018204 0.030382 -0.29664 0.27637 0.0070267 0.034931 0.00026993 0.0022986
0.0037126 0.0011251 0.0032476 0.00049714
-0.0030028 -0.01049 0.0071123 0.034969 0.012454 0.30864 -0.00053578 -8.8565e-05
0.0020833 -0.001261 0.0016556 0.0043138
-0.0017401 0.0001667 0.00020249 0.0022781 -0.00055038 -8.5818e-05 -0.13884 0.23933
-0.01793 0.017811 -0.0061681 -0.0092165
0.0038193 0.0055241 0.0036706 0.00099851 0.0021241 -0.0013632 -0.017936 0.017829
-0.17031 0.1494 -0.025569 0.017529
-0.0040109 -0.0029281 0.0032709 0.00054136 0.0016368 0.0043091 -0.0063535 -0.0089736
-0.025428 0.017495 -0.19573 0.18378
920000000 -0.10771 0.25942 0.0043103 0.038614 -0.0094428 -0.0054033 -0.0021413 0.0014374
0.0017684 0.0018405 0.0030761 -0.0014943
0.0044064 0.038575 -0.26972 0.29779 0.028184 0.023282 0.0014865 0.0011039
0.0082334 0.00015892 0.0045272 -0.0029591
-0.0093621 -0.0053335 0.028318 0.023223 0.05812 0.31086 0.0018895 -9.6887e-05
0.0012351 -0.00033312 0.00090774 -0.0016419
-0.0021529 0.0015402 0.0014696 0.0010334 0.0018964 -0.00013963 -0.11487 0.25657
-0.011769 0.030343 0.0039284 -0.0068214
0.0016971 0.0018051 0.0081836 0.00016471 0.0011709 -0.00028775 -0.011772 0.030181
-0.16011 0.15151 -0.0024532 0.027127
0.0030298 -0.001478 0.0045513 -0.0031135 0.00084215 -0.0017092 0.0038984 -0.0068297
-0.0024759 0.027133 -0.20466 0.19863
980000000 -0.061761 0.28066 0.016193 0.030537 -0.0098743 0.0042371 0.0015606 0.0034806
0.0037239 -0.0013045 -0.0034254 -0.0024954
0.016194 0.030466 -0.21762 0.33405 0.033497 0.0058477 0.0020283 -0.00014787
0.0017484 -0.0059788 -0.0003157 -0.0025475
-0.0099215 0.0042805 0.03356 0.0057022 0.10413 0.30574 0.00068643 -0.001195
0.0004072 -0.0017714 0.0013161 -0.00024097
0.0015899 0.0034357 0.0020171 -0.00011805 0.00068982 -0.0011817 -0.077067 0.26755
0.0067717 0.029937 -0.0094836 -0.0072924
0.0038245 -0.001395 0.001734 -0.0059945 0.00044532 -0.0018146 0.0067692 0.030074
-0.12866 0.18675 0.0058661 0.020252
-0.0034298 -0.0024705 -0.00033706 -0.0025167 0.0013281 -0.00023215 -0.009523 -0.0072988
0.0058444 0.020202 -0.16216 0.24339
1040000000 -0.021346 0.29016 0.032976 0.019812 -0.0017604 0.0074195 0.0025493 0.00084264
0.0003122 -0.0033856 -8.6846e-05 -0.0016873
0.032973 0.019844 -0.18295 0.34823 0.030407 -0.014362 0.0015535 -0.0016442
-0.0023971 -0.0027847 -0.0013342 -0.0031912
-0.0017061 0.0073877 0.03038 -0.014501 0.15044 0.29356 -0.00049367 -0.00151
-0.0016901 -0.00098352 -0.00075527 -0.0010271
0.0025979 0.00098056 0.0015741 -0.0016475 -0.00048899 -0.0015173 -0.049967 0.27779
0.019262 0.019154 -0.0027106 0.001014
0.00030351 -0.003499 -0.0024432 -0.0028041 -0.0016469 -0.0009993 0.019219 0.018995
-0.096075 0.19356 0.014195 0.018602
-0.00010748 -0.001601 -0.0013107 -0.00323 -0.00077591 -0.0010233 -0.0027611 0.0010268
0.014182 0.018665 -0.14191 0.26495
1100000000 0.023479 0.30044 0.036908 -0.002729 0.0030575 0.0044468 0.002447 -0.00084229
-0.0022962 -0.0029964 -0.0042764 -0.00022004
0.036878 -0.0027967 -0.13962 0.36792 0.016226 -0.028145 6.28e-06 -0.0017428
-0.0038618 -0.00092933 -0.0038342 -0.00054745
0.0030737 0.0044427 0.016162 -0.02824 0.19717 0.27449 -0.0019412 0.00015664
-0.0018244 0.00067458 -0.0012465 -0.0004652
0.0023821 -0.00083567 -1.7042e-05 -0.0017912 -0.0019438 0.00015678 -0.010125 0.28325
0.025043 0.0058944 -0.0025512 -0.00025918
-0.0023719 -0.0029678 -0.0038423 -0.00089417 -0.0018482 0.00058934 0.025083 0.0058525
-0.076925 0.20795 0.020229 0.0090919
-0.0043617 -0.00020951 -0.0037915 -0.00050067 -0.0011825 -0.00047777 -0.0025742 -0.00026479
0.020125 0.0091752 -0.094781 0.29502
1160000000 0.074295 0.29744 0.025201 -0.020367 0.003167 -0.00035668 -7.6771e-05 -0.0023314
-0.0041979 -0.0010601 -0.0013318 0.0042453
0.025232 -0.020316 -0.096071 0.37345 -0.0033314 -0.029685 -0.0015908 -0.0018283
-0.0027684 0.0025563 -0.0016875 0.001866
0.0031597 -0.00036721 -0.0034772 -0.02972 0.24094 0.24442 -0.00078725 0.0018064
-0.00049052 0.0019877 -0.0010294 0.00041774
-8.6982e-05 -0.0023827 -0.0015479 -0.0018271 -0.00081713 0.0018246 0.028929 0.28119
0.021621 -0.010543 -0.003807 0.005251
-0.0042595 -0.00099435 -0.0028564 0.0026274 -0.00055528 0.0019482 0.021762 -0.010518
-0.042169 0.21606 0.019069 0.00011648
-0.0012016 0.0043178 -0.0016438 0.0020312 -0.00097019 0.00040308 -0.003843 0.0052241
0.018971 0.00011439 -0.048647 0.29924
1220000000 0.11806 0.28875 0.011869 -0.03053 -0.0012658 -0.0011368 0.00015635 -0.00097506
-0.0029784 0.0021106 0.00099486 0.0021827
0.011876 -0.030515 -0.051468 0.38771 -0.017229 -0.021957 -0.0026477 0.00049961
-6.0498e-06 0.0032313 -0.00083601 0.0021607
-0.0012494 -0.0011129 -0.017351 -0.021919 0.28037 0.20581 0.00081596 0.0018231
0.00054816 0.0012332 0.00026561 0.00070381
0.00016601 -0.00098229 -0.0026505 0.00051439 0.00081854 0.0018154 0.068909 0.27347
0.011 -0.01738 0.0019925 0.0014517
-0.0029455 0.0021578 4.0676e-05 0.0032245 0.00053811 0.0012088 0.010902 -0.017342
-0.019707 0.22695 0.014974 -0.013549
0.0010059 0.0022294 -0.00085227 0.0021791 0.00024187 0.00070809 0.0020827 0.0014429
0.014898 -0.013546 -0.017769 0.3163
1280000000 0.16874 0.26932 -0.0073428 -0.029573 -0.0019356 0.0022752 -0.00084913 -0.0022601
-0.00096404 0.003373 0.0028215 0.0014226
-0.0072973 -0.029533 -0.0045562 0.38 -0.024575 -0.0085781 -0.00094378 0.0015089
0.0018864 0.0018144 0.00073486 0.0021072
-0.0019518 0.0023183 -0.024664 -0.0084774 0.31113 0.16234 0.0016822 -8.0676e-05
0.0011978 0.00024306 0.00033298 0.00016658
-0.00085305 -0.0022217 -0.00093582 0.0015007 0.0016872 -7.1445e-05 0.10597 0.258
0.00094615 -0.019602 -5.5659e-05 0.00059818
-0.00096841 0.0034165 0.0018711 0.0018445 0.0011853 0.00021813 0.00090123 -0.019592
0.016783 0.23142 0.0033777 -0.016098
0.0028094 0.0014482 0.00070918 0.002097 0.0003937 0.00018792 -6.6914e-05 0.00061148
0.003418 -0.016052 0.029732 0.31963
1340000000 0.20659 0.23756 -0.01764 -0.01985 0.00063861 0.0046159 -0.0019222 -0.00095408
0.001474 0.0028981 0.0019624 -0.0013489
-0.017609 -0.019816 0.035413 0.37262 -0.021936 0.0046396 -8.1395e-05 0.002045
0.002081 0.00070684 0.001193 0.00076754
0.00065894 0.0046014 -0.02194 0.0047529 0.33304 0.11537 0.0010039 -0.0010556
0.00060367 -0.00058745 2.4956e-05 0.00029462
-0.0019749 -0.00097804 -6.7912e-05 0.0020399 0.00099448 -0.001049 0.13941 0.2382
-0.0089864 -0.016722 0.00085265 0.00069598
0.0014555 0.0028321 0.0021213 0.00067337 0.0006226 -0.00058417 -0.009028 -0.016773
0.046318 0.22807 -0.0039444 -0.014751
0.0018761 -0.0013442 0.0012012 0.00077503 1.1465e-05 0.00031456 0.00087635 0.00070769
-0.0039842 -0.014731 0.067865 0.31525
1400000000 0.2415 0.20108 -0.023991 -0.007994 0.0053044 0.0033374 -0.0024092 0.00069671
0.0027128 0.0011377 0.00038323 -0.0017171
-0.023948 -0.0079993 0.073838 0.3602 -0.014894 0.013073 0.0013269 0.0012963
0.0012675 -0.00086975 0.0012323 6.6064e-05
0.0053514 0.0033041 -0.014842 0.013189 0.3465 0.062634 -4.5118e-05 -0.0016303
0.00018939 -0.00033614 0.00038282 0.00022251
-0.0024097 0.00072793 0.0013513 0.0012884 -4.5589e-05 -0.0016195 0.16954 0.20964
-0.01511 -0.0095837 -0.00080243 -3.3665e-05
0.0027206 0.0011093 0.0012529 -0.00088765 0.00020103 -0.00030558 -0.015124 -0.0095205
0.079944 0.22515 -0.01075 -0.0092859
0.00036852 -0.0017431 0.0012156 4.8047e-05 0.00037044 0.00023094 -0.00077395 -7.7268e-05
-0.010718 -0.0092809 0.11318 0.30561
1460000000 0.26545 0.15783 -0.020902 0.0047597 0.0057185 -0.001799 -0.0015899 0.0018822
0.002362 -0.0004039 -0.00027287 -0.00095798
-0.0209 0.0047472 0.10863 0.33814 -0.0053797 0.015904 0.0016762 0.00018894
0.0008647 -0.001366 0.0012169 -0.00056997
0.0057088 -0.0018466 -0.0053188 0.015961 0.35333 0.0090299 -0.0013317 -0.0012042
0.00018656 -0.00013749 0.00079125 -0.00023429
-0.0015466 0.001858 0.0016775 0.00018879 -0.0013325 -0.0012022 0.1966 0.18069
-0.015991 -0.0024183 -0.0007464 0.0020661
0.0023726 -0.00040861 0.00086566 -0.0013535 0.00017918 -0.00016101 -0.016037 -0.0023845
0.11005 0.21232 -0.012956 -0.0029344
-0.00028522 -0.00094575 0.0011846 -0.00057546 0.00082009 -0.0002375 -0.00073704 0.0021227
-0.01297 -0.0028694 0.14636 0.28526
1520000000 0.27911 0.11659 -0.015078 0.010489 0.003517 -0.0043349 0.00018897 0.0027678
0.0022405 -0.0020887 -0.0012499 -0.00014649
-0.015085 0.010459 0.14234 0.32403 0.0025157 0.01301 0.0016557 -0.00074145
-2.0407e-05 -0.00098712 0.00032811 -0.0010752
0.0034776 -0.0043754 0.0025782 0.013008 0.34701 -0.046258 -0.00094913 -0.00019952
0.0007536 -0.00093056 0.00013134 -0.00022954
0.00019343 0.0027488 0.0016367 -0.0007399 -0.00095531 -0.00020662 0.22053 0.14252
-0.014881 0.003551 0.0017548 0.0021606
0.0022446 -0.002093 -1.4878e-05 -0.0010067 0.00074582 -0.00095491 -0.01487 0.0035579
0.13867 0.20017 -0.0124 0.0020623
-0.0012593 -9.8751e-05 0.00032725 -0.0010877 0.00015169 -0.00023247 0.0017364 0.002116
-0.012428 0.002081 0.17938 0.26616
1580000000 0.28985 0.070737 -0.008107 0.013845 -0.0010447 -0.0051785 0.0016305 0.0018788
-0.00020592 -0.0023765 -0.00021539 0.00034233
-0.0081078 0.013846 0.1699 0.29929 0.0060184 0.0075422 0.00054962 -0.0015213
-0.00045739 -0.00097981 -0.00018044 -0.00084595
-0.0010835 -0.0051829 0.0060806 0.0075334 0.32806 -0.10395 -0.0014348 0.00050319
-0.00042615 -0.0013259 0.00031193 -0.00058437
0.0016667 0.0019007 0.00052403 -0.0015463 -0.0014402 0.00049745 0.23499 0.10292
-0.010798 0.0083887 0.0023333 0.0007725
-0.00021912 -0.0023675 -0.00047371 -0.00099348 -0.00041204 -0.0013283 -0.010806 0.0084278
0.1639 0.18344 -0.0096712 0.008222
-0.0002292 0.00035285 -0.00017974 -0.00082934 0.00031584 -0.00054621 0.0023452 0.00074162
-0.0097006 0.0082124 0.21233 0.23997
1640000000 0.29276 0.029533 -0.0011111 0.012386 -0.0031741 -0.0026778 0.0028391 0.0010331
-0.00087872 -0.0017247 -0.00040452 0.00052188
-0.0011161 0.012378 0.19934 0.27502 0.0061402 0.0023827 -0.0005043 -0.0018115
-0.00086621 -0.00043671 -0.00054523 -0.00067254
-0.003205 -0.0026649 0.0061605 0.0023512 0.30014 -0.15282 -0.0006059 0.0013181
-0.0011126 -0.0010184 -0.00027996 -0.00047438
0.0028285 0.0010158 -0.00051601 -0.0018122 -0.00060192 0.0013137 0.2478 0.053966
-0.0061786 0.0091586 0.0027003 -0.00087139
-0.00089515 -0.0017042 -0.00089305 -0.00045952 -0.0011498 -0.0010252 -0.0061766 0.009143
0.18775 0.16046 -0.0044015 0.010248
-0.00038818 0.00055162 -0.00056631 -0.000665 -0.00030058 -0.00049877 0.0026918 -0.00083732
-0.0044014 0.010236 0.23812 0.21014
1700000000 0.28663 -0.015609 0.0023698 0.0093262 -0.0038193 0.00020628 0.0032139 -0.0013316
-0.0021633 -0.00051046 0.00054494 0.00034297
0.0023658 0.0093162 0.21778 0.24393 0.0034376 -0.00061492 -0.001456 -0.00070438
-0.00076426 -0.00013782 -0.00092494 -0.00045355
-0.0038309 0.00026376 0.0034229 -0.00064735 0.25778 -0.19281 0.00026215 0.0014235
-0.0021242 -9.3853e-05 -0.00054227 -0.00078527
0.0031866 -0.0013153 -0.0014649 -0.00070542 0.00029768 0.0014355 0.24494 0.0037668
-0.0033433 0.0090049 0.0016977 -0.0023388
-0.0022054 -0.00050156 -0.00078315 -0.0001306 -0.002106 -9.7497e-05 -0.0033426 0.009032
0.20653 0.14095 0.0004708 0.010367
0.00056346 0.00036399 -0.00090635 -0.00043657 -0.00050789 -0.00083562 0.0017275 -0.0023486
0.00045615 0.010388 0.25599 0.17645
1760000000 0.27541 -0.064225 0.0044839 0.005829 -0.0023439 0.0012983 0.0012793 -0.0035191
-0.0013281 0.00080447 0.00025964 -0.00054817
0.0044627 0.0058068 0.24392 0.20478 0.00058781 -0.0020882 -0.0013258 5.9468e-05
-0.0011783 0.00080439 -0.00062103 0.00036118
-0.0023389 0.0013027 0.0005751 -0.002105 0.2097 -0.22637 0.00091416 0.0011219
-0.0012366 0.0014457 -0.0013263 -0.0006514
0.0012656 -0.0035328 -0.0013333 6.8635e-05 0.00093685 0.0011516 0.2362 -0.047984
-0.00051819 0.0077353 -0.0001631 -0.0027067
-0.0013195 0.00078748 -0.0011883 0.0008114 -0.001213 0.0014492 -0.00044529 0.0077278
0.22229 0.10699 0.0047742 0.007463
0.00025894 -0.00052191 -0.00057732 0.00040176 -0.001298 -0.00061599 -0.00022707 -0.0026813
0.0047868 0.0074663 0.26928 0.13934
1820000000 0.25202 -0.10158 0.0042733 0.0023539 -2.9589e-05 0.0026868 -0.0010119 -0.0031513
-0.0010565 0.00098656 -0.00013779 -6.065e-05
0.0042581 0.002347 0.25464 0.17541 -0.0019019 -0.0002266 -0.001494 0.00095502
-0.00021747 0.0012235 -0.00065765 0.00050392
-4.7243e-05 0.002661 -0.0019003 -0.00023368 0.15901 -0.24213 0.0015035 0.00046287
-0.00025103 0.0023829 -0.0015691 0.00042096
-0.0010561 -0.0031206 -0.0014882 0.00094805 0.0015323 0.00045391 0.20647 -0.095691
0.00063819 0.0062144 -0.0017631 -0.0018838
-0.0010032 0.00097077 -0.00019341 0.0012084 -0.00022967 0.0023503 0.00059548 0.0061813
0.24065 0.078633 0.0056994 0.0035068
-0.00011426 -7.155e-05 -0.00061276 0.000512 -0.0016327 0.00047441 -0.0017832 -0.0019125
0.005685 0.0034885 0.27277 0.10374
1880000000 0.21754 -0.14236 0.0017976 0.00032202 -0.00042709 0.0023654 -0.0030094 -0.0022682
-1.814e-05 0.0016722 0.00018587 -0.00053093
0.0018138 0.0003009 0.25944 0.12919 -0.0037525 0.0022962 -0.00029755 0.0018839
0.00049283 0.0014949 2.9735e-05 0.0010551
-0.0004151 0.0023746 -0.0037518 0.0023241 0.10716 -0.25122 0.001881 -0.00081499
0.0016346 0.0020275 -0.0010349 0.0016611
-0.0029226 -0.0022247 -0.0002833 0.0019102 0.0019492 -0.00076878 0.16577 -0.13621
0.00090033 0.0042005 -0.0026078 -2.9241e-05
5.667e-06 0.0017029 0.0004924 0.0015326 0.0016566 0.0020758 0.00099967 0.0042332
0.24539 0.047371 0.0059399 0.00086288
0.00012168 -0.00052717 4.8781e-05 0.0010299 -0.001007 0.0015313 -0.0026257 7.9724e-05
0.005929 0.00090577 0.27359 0.069426
1940000000 0.17893 -0.16875 -0.00023891 -0.0011231 0.0017513 0.0021419 -0.0039412 0.00039601
0.0011805 0.00088 -0.00052236 -0.00059062
-0.00024027 -0.0011377 0.26096 0.098045 -0.0020114 0.0052543 0.0010978 0.0014134
0.0019799 0.00066626 0.00099928 0.00036201
0.0017281 0.0022008 -0.0019836 0.0052895 0.061997 -0.24403 0.00074343 -0.0023556
0.0024285 0.00049083 0.00038757 0.0017081
-0.0039455 0.00043618 0.0011179 0.001368 0.00071196 -0.0023922 0.11332 -0.16671
-0.00016364 0.0033989 -0.0016953 0.001651
0.0011583 0.00086587 0.001981 0.00063576 0.0024362 0.00046497 -0.00018808 0.003286
0.2492 0.0098102 0.0042956 -0.0027937
-0.00049283 -0.00050772 0.0010076 0.00041057 0.00035362 0.0017139 -0.0017558 0.0016109
0.0042881 -0.0028595 0.26319 0.033291
2000000000 0.13334 -0.18378 -0.0038302 0.001037 0.0030612 0.0014495 -0.0022375 0.0037721
0.0010789 0.00052221 -0.00063958 0.00066568
-0.0038664 0.0010485 0.2477 0.062763 -0.00093764 0.0073944 0.0018468 0.00037442
0.0015106 -0.0011338 0.00054751 5.565e-06
0.0030478 0.0014569 -0.00088761 0.0074144 0.019137 -0.23008 -0.0012751 -0.0016935
0.0021273 -0.0011443 0.0015555 0.0014154
-0.0022289 0.0038006 0.0018607 0.00039065 -0.0012513 -0.0016706 0.059637 -0.17709
-0.0018648 0.0035576 -0.00029351 0.0022758
0.0010667 0.00046475 0.0015048 -0.0011702 0.0020665 -0.0011739 -0.0018413 0.0034518
0.24502 -0.023138 0.00075357 -0.0037047
