!Keysight Technologies,M9804A,MY58100912,A.14.10.03
!Date: Thursday, April 27, 2023 10:28:33
!Correction: S11(C  6-Port  ) 
!S12(C  6-Port  ) 
!S13(C  6-Port  ) 
!S14(C  6-Port  ) 
!S15(C  6-Port  ) 
!S16(C  6-Port  ) 
!S21(C  6-Port  ) 
!S22(C  6-Port  ) 
!S23(C  6-Port  ) 
!S24(C  6-Port  ) 
!S25(C  6-Port  ) 
!S26(C  6-Port  ) 
!S31(C  6-Port  ) 
!S32(C  6-Port  ) 
!S33(C  6-Port  ) 
!S34(C  6-Port  ) 
!S35(C  6-Port  ) 
!S36(C  6-Port  ) 
!S41(C  6-Port  ) 
!S42(C  6-Port  ) 
!S43(C  6-Port  ) 
!S44(C  6-Port  ) 
!S45(C  6-Port  ) 
!S46(C  6-Port  ) 
!S51(C  6-Port  ) 
!S52(C  6-Port  ) 
!S53(C  6-Port  ) 
!S54(C  6-Port  ) 
!S55(C  6-Port  ) 
!S56(C  6-Port  ) 
!S61(C  6-Port  ) 
!S62(C  6-Port  ) 
!S63(C  6-Port  ) 
!S64(C  6-Port  ) 
!S65(C  6-Port  ) 
!S66(C  6-Port  ) 
!S6P File: Measurement: :
# Hz S  RI   R 50
500000000 -0.33162 -0.062826 -0.0099509 -0.0011745 -0.0087574 0.012859 -0.0039218 0.012374
0.012746 0.0056232 -0.0042637 0.0077934
-0.0101 -0.0010459 -0.41316 -0.071742 0.0080815 -0.010464 0.0015762 0.012952
0.0085001 0.0030783 0.0010686 0.014267
-0.0089129 0.012926 0.0080569 -0.010555 -0.26583 0.19239 0.0066823 0.0038844
-0.0018463 0.0086364 -0.00019736 0.012392
-0.0039665 0.012436 0.0017099 0.01277 0.0066909 0.0038671 -0.32999 0.03885
-0.019094 -0.0045923 0.01822 0.026481
0.012768 0.0056048 0.0084799 0.0031844 -0.001856 0.0086763 -0.019159 -0.0045976
-0.23699 -0.21438 -0.02703 0.005488
-0.0039935 0.0080716 0.0016641 0.014349 -8.5156e-05 0.012456 0.018316 0.026344
-0.026821 0.0053157 -0.26187 -0.13882
560000000 -0.31922 0.10351 -0.022191 -0.066378 0.00023796 0.013593 0.0045463 0.011892
0.010308 0.0046422 0.011403 0.0095813
-0.022104 -0.066893 -0.37402 0.092891 -0.041128 -0.039473 0.013817 0.0044552
-0.01184 -0.0042236 0.0034088 -0.00084707
0.00032187 0.013888 -0.041258 -0.039523 -0.18646 0.24519 -0.00035436 -0.0053068
0.01874 0.0067146 0.0078781 -0.0053445
0.0046539 0.011795 0.013915 0.0044107 -0.00048396 -0.0052984 -0.30706 0.1312
0.0051022 -0.023368 0.0053957 -0.021143
0.010505 0.0046335 -0.012221 -0.0040537 0.018769 0.0067685 0.004958 -0.023306
-0.30876 -0.030494 0.0094459 -0.0511
0.011132 0.0093811 0.0035255 -0.00071386 0.0077549 -0.0055172 0.0053651 -0.021077
0.0094503 -0.050617 -0.33239 0.013797
620000000 -0.27936 0.084206 -0.023588 0.0089919 0.0038388 0.0097441 0.0084792 -0.0038927
0.011555 -0.0019133 -0.00035961 -0.0015419
-0.023516 0.0090058 -0.40245 0.040573 -0.018464 0.00057624 -0.001428 -0.0020384
0.012153 -0.0054859 0.00093841 -0.0028639
0.0038836 0.0097894 -0.018453 0.00061679 -0.15715 0.25413 -0.00047835 -0.0054753
-0.0035593 -0.0021335 0.010131 -0.0028787
0.0083996 -0.0038868 -0.0014944 -0.0021177 -0.0005908 -0.0054904 -0.26479 0.14107
-0.039123 -0.020196 0.013781 0.027962
0.011685 -0.0019476 0.012284 -0.0053478 -0.0035043 -0.0021381 -0.03906 -0.020058
-0.22579 -0.066766 -0.043093 0.012177
-0.00021096 -0.0013917 0.0010935 -0.0029544 0.010151 -0.003205 0.0138 0.027687
-0.043125 0.01244 -0.24649 -0.024504
680000000 -0.24301 0.17837 -0.026542 -0.01438 0.004868 0.0056251 0.0015072 -0.007209
-0.0009436 -0.011712 0.0060393 -0.0073086
-0.02646 -0.014572 -0.3908 0.1424 -0.032613 -0.0024303 -0.0018021 -0.00026792
-0.0009795 -0.0093628 -0.0005868 -0.0021389
0.0048121 0.0056299 -0.032704 -0.0023743 -0.10695 0.27653 -0.0010508 -0.00017207
-0.0011124 2.2397e-05 -0.003132 -0.0091604
0.0013266 -0.0073584 -0.0017298 -0.00016251 -0.0010693 -0.0001891 -0.22006 0.19326
-0.023317 -0.0071676 -0.0093129 -0.01175
-0.001012 -0.011595 -0.00096898 -0.0092901 -0.001088 3.7098e-05 -0.023178 -0.007234
-0.28186 0.036193 -0.0079609 -0.0066535
0.0057956 -0.0077344 -0.00083435 -0.002126 -0.0031787 -0.0091754 -0.0094169 -0.011626
-0.0080179 -0.0067764 -0.26099 0.081234
740000000 -0.1957 0.17047 -0.040147 0.026559 0.014091 -0.0042909 -1.3451e-06 -0.0041654
-0.0041287 -0.0033881 -0.0072591 0.0032579
-0.040166 0.026534 -0.3364 0.16106 -0.037754 0.034603 -9.4487e-05 -0.0059045
-0.013315 0.0070212 -0.00068527 -0.0059927
0.014092 -0.0043097 -0.037561 0.034767 -0.072864 0.27382 -0.0022171 0.0031095
-0.001854 -0.0061533 -0.0018278 0.0011483
3.0938e-05 -0.004214 9.0515e-05 -0.0058207 -0.0022462 0.0031631 -0.20445 0.20127
-0.043352 -0.0094667 0.023381 0.016633
-0.0041339 -0.0035429 -0.013357 0.007081 -0.0019328 -0.0061283 -0.043266 -0.0093909
-0.18013 0.069385 -0.043462 -0.00025927
-0.0069038 0.0029908 -0.0010303 -0.0059869 -0.0018657 0.0011085 0.02326 0.016461
-0.043055 -0.00021376 -0.25067 0.087799
800000000 -0.16457 0.2166 -0.022537 0.016067 0.0060565 -0.010471 -0.0044447 -0.002304
-0.0047255 0.0019562 0.0044852 0.00062542
-0.022329 0.016101 -0.34398 0.23199 -0.0091224 0.034242 -0.0021784 0.0020623
-0.0013085 0.0022409 0.00085459 0.005599
0.0060424 -0.010397 -0.0090548 0.034289 -0.034863 0.29933 0.00086671 0.0014616
7.0931e-05 0.0033492 -0.0017933 0.00082618
-0.0045517 -0.0023973 -0.0022008 0.0021153 0.00084219 0.0014668 -0.17522 0.22853
-0.02845 0.01291 0.014388 -0.010174
-0.0047257 0.0020421 -0.0013829 0.0022759 4.1791e-05 0.0033364 -0.02843 0.013005
-0.22751 0.094096 -0.017094 0.020532
0.0046339 0.00054722 0.00084244 0.0057589 -0.0018535 0.00090486 0.014318 -0.010252
-0.017002 0.020739 -0.24664 0.13795
860000000 -0.13049 0.23658 -0.018181 0.030526 -0.0029918 -0.010487 -0.0018842 0.00038315
0.0037333 0.0054887 -0.0043081 -0.0028504
-0.01819 0.030459 -0.29644 0.27652 0.0069883 0.034931 0.00011819 0.0022033
0.0038217 0.0010091 0.003029 0.00050943
-0.0030123 -0.010452 0.0071208 0.034964 0.01248 0.30866 -0.00057168 -0.00014728
0.0020651 -0.0013078 0.0016479 0.0041609
-0.0018798 0.00035477 0.00015671 0.002184 -0.00055169 -0.00015997 -0.13875 0.23931
-0.017904 0.017934 -0.0064521 -0.0088803
0.0037261 0.0054966 0.003771 0.0011323 0.0020492 -0.0012519 -0.017978 0.018069
-0.17035 0.14912 -0.025964 0.017567
-0.004193 -0.0029583 0.0030401 0.00049501 0.0016139 0.004136 -0.0062765 -0.0092029
-0.02567 0.017767 -0.19574 0.18331
920000000 -0.10772 0.25945 0.0044668 0.038574 -0.0094028 -0.0053882 -0.0020736 0.0015323
0.0016582 0.0017231 0.0033019 -0.0015448
0.0043698 0.038645 -0.26949 0.29782 0.028187 0.023318 0.001414 0.00098667
0.0081902 0.00027757 0.004708 -0.0030102
-0.0094266 -0.0053309 0.028309 0.023279 0.058187 0.31082 0.0019162 -7.5212e-05
0.0011078 -0.00034483 0.00096545 -0.0016299
-0.0021447 0.0015256 0.0015015 0.00095865 0.0019248 -6.3672e-05 -0.11482 0.25654
-0.011606 0.030282 0.0041065 -0.0068132
0.0016809 0.00172 0.0082314 0.00032455 0.0011364 -0.00036699 -0.011545 0.030262
-0.16036 0.15186 -0.0026048 0.027339
0.0030805 -0.001673 0.0046252 -0.0030133 0.00089237 -0.0017442 0.0040618 -0.0067607
-0.0024719 0.027331 -0.20442 0.19858
980000000 -0.061706 0.28075 0.016241 0.030548 -0.0098922 0.0042699 0.0015637 0.0034325
0.0037371 -0.0014081 -0.0034342 -0.0022208
0.016295 0.030524 -0.21747 0.33409 0.033493 0.0058258 0.0020386 -0.0001835
0.0017187 -0.0061167 -0.00043893 -0.0024467
-0.0098736 0.0042949 0.033562 0.0057165 0.10422 0.30577 0.00067255 -0.0012001
0.00038675 -0.0018419 0.0012547 -0.00017813
0.0014972 0.0034034 0.0020342 -0.00011128 0.00067564 -0.0012147 -0.077139 0.26748
0.0068643 0.030168 -0.0094715 -0.0072864
0.0037513 -0.001368 0.0018082 -0.0060966 0.00040236 -0.001822 0.0069272 0.030184
-0.12877 0.18682 0.0059968 0.020528
-0.0034054 -0.0025134 -0.00045921 -0.0025473 0.0013407 -0.00020447 -0.0095377 -0.0072821
0.0060379 0.020485 -0.16233 0.2434
1040000000 -0.021312 0.29022 0.032992 0.01985 -0.0017352 0.007393 0.0026377 0.0009477
0.00031442 -0.0033975 -0.00013672 -0.0016731
0.032994 0.019847 -0.1827 0.34829 0.030375 -0.014365 0.0015542 -0.0016162
-0.0024006 -0.0027903 -0.0013288 -0.0032676
-0.0017 0.0073992 0.030365 -0.014522 0.15053 0.29352 -0.00049669 -0.001497
-0.0016698 -0.00097953 -0.00076662 -0.0010304
0.0025615 0.00090114 0.0015555 -0.0016206 -0.00049221 -0.0014951 -0.049848 0.27775
0.019198 0.019222 -0.0026577 0.0010762
0.00030658 -0.003382 -0.0024571 -0.0027994 -0.0016525 -0.00095679 0.019267 0.019203
-0.095934 0.19372 0.014119 0.018695
0.00012867 -0.0016154 -0.001306 -0.003272 -0.00074732 -0.00099761 -0.00266 0.0010225
0.014227 0.018944 -0.1417 0.26475
1100000000 0.023614 0.30042 0.036867 -0.0028589 0.0030799 0.0044312 0.0023863 -0.00084724
-0.0023215 -0.0029923 -0.0042887 -0.00012726
0.036842 -0.0028233 -0.13956 0.36789 0.016203 -0.028149 -2.6651e-05 -0.0017734
-0.0038461 -0.00090736 -0.0038028 -0.00046789
0.0030815 0.0044412 0.016139 -0.02826 0.19725 0.27446 -0.0019429 0.00015717
-0.001876 0.00062214 -0.0012274 -0.00048537
0.0024132 -0.00085367 -5.1832e-05 -0.0017965 -0.0019424 0.00014828 -0.010123 0.2833
0.024996 0.0059106 -0.0025905 -0.00024394
-0.0023338 -0.0030172 -0.003829 -0.0009298 -0.0018316 0.00063082 0.025 0.0058355
-0.076928 0.20789 0.020372 0.0092428
-0.0043746 -0.00021836 -0.0037775 -0.00051625 -0.0012345 -0.00048243 -0.0025958 -0.00021757
0.020223 0.0091641 -0.094956 0.29498
1160000000 0.074476 0.29758 0.025297 -0.02038 0.0031662 -0.0003679 -3.4208e-05 -0.002271
-0.0042432 -0.00092194 -0.0014043 0.004101
0.025267 -0.020287 -0.095884 0.37354 -0.0033513 -0.029701 -0.0015108 -0.0018667
-0.0028438 0.0026194 -0.0016852 0.001945
0.0031744 -0.00037911 -0.003472 -0.029735 0.241 0.24439 -0.00079498 0.0018054
-0.00049044 0.0020397 -0.0010552 0.00042454
-5.9166e-05 -0.0022882 -0.0014482 -0.00185 -0.00080562 0.001796 0.028922 0.28127
0.021753 -0.010561 -0.0038981 0.0050499
-0.004216 -0.00092707 -0.0028016 0.0026207 -0.00049248 0.0020229 0.021701 -0.0106
-0.042164 0.21629 0.018952 -0.00010508
-0.0013441 0.0041252 -0.0017049 0.0020377 -0.0010266 0.00043265 -0.0039057 0.0050561
0.019069 -8.0648e-05 -0.047873 0.29957
1220000000 0.11822 0.28874 0.011839 -0.030546 -0.0012548 -0.001161 0.0001168 -0.00097371
-0.0029829 0.0021411 0.0011088 0.0022528
0.011835 -0.030534 -0.051377 0.38771 -0.017248 -0.021932 -0.0026559 0.00053123
-1.0902e-05 0.0032245 -0.00085814 0.0021441
-0.0012624 -0.0011333 -0.01736 -0.021888 0.28042 0.20576 0.00083341 0.001827
0.00054963 0.0012384 0.00024571 0.00067437
0.00012763 -0.00096778 -0.0026652 0.00055057 0.00083358 0.0018278 0.068972 0.27337
0.010975 -0.017371 0.0021017 0.001531
-0.0029816 0.0021264 1.0488e-05 0.0032282 0.00055573 0.0012484 0.010965 -0.017394
-0.019735 0.22681 0.014914 -0.013522
0.0010283 0.0022495 -0.0008698 0.0021558 0.00028816 0.00067225 0.0020898 0.0014909
0.014959 -0.013494 -0.017917 0.31643
1280000000 0.16895 0.26932 -0.0073125 -0.029621 -0.001982 0.0023004 -0.00082515 -0.0022062
-0.00091551 0.0033842 0.0027792 0.0014463
-0.0072648 -0.029586 -0.0044384 0.37996 -0.02459 -0.0085579 -0.00089653 0.0014942
0.001873 0.0017942 0.00073305 0.0021299
-0.0019858 0.0022889 -0.024654 -0.0084494 0.3112 0.16228 0.0016681 -7.634e-05
0.0011964 0.00023868 0.00038234 0.00023856
-0.00083622 -0.0021951 -0.00091512 0.0014984 0.0016677 -8.625e-05 0.10604 0.25803
0.0009396 -0.019662 -4.4534e-05 0.00051576
-0.00091582 0.0033922 0.0018743 0.0017804 0.0011924 0.00024595 0.00089656 -0.019668
0.01668 0.23137 0.0035642 -0.01629
0.0028236 0.0014617 0.00074387 0.0020937 0.00039501 0.00024864 -3.9705e-05 0.00053156
0.0034997 -0.016267 0.029686 0.31951
1340000000 0.20671 0.23751 -0.017648 -0.019857 0.00064169 0.0045972 -0.0019842 -0.00097919
0.001508 0.0029121 0.0018758 -0.0013247
-0.017606 -0.019845 0.035577 0.37256 -0.021942 0.0046562 -8.2665e-05 0.0020642
0.0021348 0.00070963 0.0011664 0.00077676
0.00065673 0.0045882 -0.02196 0.0047583 0.33309 0.11531 0.0010014 -0.0010403
0.00064641 -0.00057201 -2.9488e-05 0.00023404
-0.001987 -0.00098151 -8.7788e-05 0.0020637 0.00099715 -0.0010435 0.13947 0.23813
-0.0090243 -0.016755 0.00084783 0.00068259
0.0014745 0.0028825 0.0021335 0.00071184 0.00062849 -0.00055921 -0.0090875 -0.016734
0.046359 0.22791 -0.0040517 -0.014628
0.0018712 -0.0013578 0.0012 0.0007696 -2.9132e-05 0.00025878 0.00084765 0.00067626
-0.0039947 -0.014665 0.068178 0.31505
1400000000 0.24167 0.20093 -0.024011 -0.0080032 0.005322 0.0033501 -0.0024164 0.00071777
0.0027172 0.0011228 0.00040448 -0.0017933
-0.023967 -0.0080114 0.073943 0.36016 -0.014864 0.013097 0.0013454 0.001269
0.0012563 -0.00088128 0.0012101 8.6176e-05
0.005319 0.0033109 -0.014809 0.013175 0.34653 0.062515 -8.0706e-05 -0.0016357
0.00017753 -0.00034787 0.00046635 0.00021519
-0.0023798 0.00075006 0.0013618 0.0012574 -6.2947e-05 -0.0016199 0.16953 0.20958
-0.015162 -0.0096015 -0.00073713 -6.4039e-05
0.0027192 0.0011142 0.0012309 -0.00087518 0.00016358 -0.00035514 -0.015189 -0.0095621
0.079908 0.22523 -0.010723 -0.0093593
0.00039912 -0.0017135 0.0012138 2.2635e-05 0.00042406 0.00018987 -0.00074272 -5.7408e-05
-0.010703 -0.0093875 0.11298 0.30562
1460000000 0.26556 0.15769 -0.020935 0.0047779 0.0057305 -0.0018583 -0.0015959 0.0018704
0.0023652 -0.00041301 -0.00030931 -0.00094511
-0.020922 0.0047472 0.1087 0.3381 -0.005395 0.015925 0.0016861 0.00021509
0.0008808 -0.0013867 0.0012054 -0.00057502
0.0056907 -0.0018529 -0.0053263 0.015976 0.35338 0.0089089 -0.0012884 -0.0011736
0.00017265 -0.00013835 0.00084095 -0.00023421
-0.0015924 0.0018656 0.0016773 0.00021336 -0.0012971 -0.0011714 0.19664 0.1806
-0.016044 -0.0023847 -0.00076392 0.0020961
0.00235 -0.00042514 0.00087419 -0.0014042 0.00016877 -0.00014674 -0.01607 -0.002349
0.10991 0.21237 -0.012971 -0.0029584
-0.00031162 -0.0010115 0.0012084 -0.00054722 0.00087242 -0.00027401 -0.00077178 0.0020903
-0.013038 -0.0029632 0.14656 0.28488
1520000000 0.27922 0.11641 -0.015107 0.010499 0.0035034 -0.0043303 0.00016781 0.0027683
0.0022203 -0.0020876 -0.0012411 -0.00013451
-0.015089 0.010484 0.14243 0.32395 0.0025198 0.013001 0.0016639 -0.000745
-1.2631e-05 -0.0010108 0.0003423 -0.0010872
0.0034822 -0.0043673 0.0025879 0.013019 0.34703 -0.04644 -0.00096604 -0.00021239
0.00076978 -0.00093732 0.00012108 -0.00021085
0.00020376 0.0027642 0.0016609 -0.0007556 -0.00096078 -0.00020404 0.22053 0.14248
-0.014895 0.0035666 0.0017413 0.0021744
0.0021996 -0.0021098 -1.418e-05 -0.00099112 0.00077712 -0.00094523 -0.01489 0.0036231
0.13862 0.20023 -0.012462 0.0021408
-0.0012645 -6.8521e-05 0.00031971 -0.0011203 0.00010809 -0.0001976 0.0017439 0.002181
-0.012519 0.0021282 0.17943 0.266
1580000000 0.28993 0.070512 -0.0081323 0.013877 -0.0010638 -0.0051932 0.0016277 0.0018851
-0.00018923 -0.0023677 -0.00021764 0.00032087
-0.0081289 0.013857 0.16995 0.29924 0.0060005 0.0075559 0.00055636 -0.0015454
-0.00046277 -0.0010022 -0.0001839 -0.00086959
-0.0010609 -0.0051947 0.0060506 0.0075215 0.32801 -0.10406 -0.0014529 0.00049933
-0.00043441 -0.0013389 0.0003853 -0.00056745
0.0016418 0.0018681 0.00053649 -0.0015526 -0.0014516 0.00050691 0.23497 0.10288
-0.010773 0.0084875 0.0023942 0.000728
-0.00020825 -0.0023694 -0.00047195 -0.00099875 -0.0004257 -0.0013264 -0.010769 0.0085152
0.16388 0.18355 -0.0097039 0.0081782
-0.0002315 0.00037632 -0.00019278 -0.00084862 0.00034265 -0.00058122 0.0023882 0.00070241
-0.0097693 0.0081621 0.21223 0.24029
1640000000 0.29276 0.029304 -0.0010884 0.012418 -0.0031511 -0.002668 0.002858 0.001028
-0.00090444 -0.0017448 -0.00033746 0.00060583
-0.0010994 0.012404 0.19942 0.27495 0.0061424 0.0023935 -0.0005066 -0.0017985
-0.0008899 -0.00043299 -0.00054225 -0.00064922
-0.0031535 -0.0026599 0.0061584 0.0023513 0.30011 -0.15295 -0.00061656 0.0013623
-0.0011146 -0.0010128 -0.00029241 -0.00049694
0.0028731 0.0010125 -0.00052972 -0.0018036 -0.00061317 0.0013666 0.24782 0.053961
-0.0061759 0.0092021 0.0026955 -0.00083125
-0.00091833 -0.0017436 -0.00090143 -0.00042514 -0.0011071 -0.0010114 -0.0061614 0.0091998
0.18773 0.16059 -0.0044129 0.010233
-0.00035415 0.00061831 -0.00055609 -0.00063868 -0.00032542 -0.00046582 0.0026736 -0.00081371
-0.0044955 0.010285 0.23825 0.20988
1700000000 0.2866 -0.015788 0.0023712 0.0093348 -0.0038451 0.00021933 0.0031696 -0.0013129
-0.002163 -0.00052644 0.00054544 0.00033986
0.0023639 0.0093329 0.21788 0.24388 0.0034169 -0.00062803 -0.0014452 -0.00072429
-0.00075485 -0.00015116 -0.00094085 -0.000429
-0.0038325 0.00024041 0.0034282 -0.00063731 0.25765 -0.19295 0.00028447 0.0014319
-0.0021165 -0.00010004 -0.00052741 -0.00078429
0.0031725 -0.0013289 -0.0014421 -0.00071082 0.00027618 0.0014487 0.24495 0.0037412
-0.0033367 0.0090352 0.0017041 -0.0023498
-0.0021689 -0.00051114 -0.00075689 -0.00015647 -0.0021081 -9.7679e-05 -0.0033158 0.0090347
0.20662 0.14103 0.00055439 0.010363
0.00057332 0.00033353 -0.00093667 -0.00042214 -0.00054656 -0.000796 0.0017191 -0.0023274
0.00050855 0.010426 0.25593 0.17637
1760000000 0.27538 -0.064379 0.0045039 0.0058195 -0.0023178 0.0012759 0.0012518 -0.0035051
-0.001358 0.00079615 0.00028774 -0.00053349
0.0044902 0.0058299 0.24403 0.20473 0.00057642 -0.0021049 -0.0013298 7.9673e-05
-0.0011814 0.00079877 -0.0005983 0.00034402
-0.0023275 0.0012917 0.00058206 -0.0021053 0.20958 -0.22643 0.00091523 0.0011496
-0.0012282 0.0014391 -0.0013565 -0.00065429
0.0012403 -0.0035289 -0.0013271 8.823e-05 0.00093049 0.0011511 0.23623 -0.048018
-0.00043001 0.007735 -0.00017435 -0.0026604
-0.0013419 0.00080037 -0.0011469 0.00081786 -0.0012286 0.0014441 -0.00040605 0.0077579
0.22239 0.10697 0.0047373 0.0075429
0.00029369 -0.00050136 -0.00058964 0.00035755 -0.0013824 -0.00066913 -0.00018473 -0.0027204
0.0047437 0.0076086 0.26943 0.13931
1820000000 0.25197 -0.10167 0.0042919 0.0023521 -6.0517e-05 0.0026684 -0.0010301 -0.0031405
-0.0010052 0.00098563 -9.9036e-05 -8.4673e-05
0.0042822 0.0023484 0.25476 0.17529 -0.0018927 -0.00026144 -0.0014705 0.00096222
-0.00019071 0.001235 -0.00064767 0.00052377
-3.0425e-05 0.0026479 -0.0018878 -0.00024038 0.15878 -0.24226 0.0015462 0.00048546
-0.00023466 0.0023762 -0.0015291 0.00046986
-0.0010664 -0.0031526 -0.0014719 0.00097057 0.0015606 0.00048923 0.20643 -0.095655
0.00062083 0.0062284 -0.0017693 -0.001964
-0.0010146 0.0009748 -0.00017549 0.0012397 -0.00021416 0.0023937 0.00061858 0.0062312
0.24077 0.078593 0.0057828 0.0034679
-0.00010264 -0.00010197 -0.00062791 0.00051943 -0.0015253 0.00044185 -0.0017615 -0.0019196
0.005767 0.0035715 0.27273 0.10352
1880000000 0.21741 -0.14254 0.0018375 0.00027579 -0.00041396 0.0023811 -0.0029464 -0.0022764
-6.3841e-05 0.0016514 0.00015125 -0.000472
0.001827 0.00028207 0.25954 0.1291 -0.0037708 0.0023018 -0.00028469 0.0018836
0.00047474 0.0014746 4.6587e-05 0.001065
-0.00041929 0.0024173 -0.0037725 0.0023395 0.10693 -0.25123 0.001874 -0.00077418
0.0015883 0.0020357 -0.00099988 0.0016596
-0.0029306 -0.0022468 -0.00025748 0.0018699 0.0018708 -0.00078495 0.16579 -0.13621
0.0010047 0.0042403 -0.0026465 9.0973e-05
-3.0341e-05 0.0016605 0.00048385 0.0014632 0.001574 0.0020136 0.00097986 0.0042298
0.24554 0.047348 0.0058993 0.00089872
0.00012534 -0.00046974 3.2849e-05 0.0010706 -0.0010252 0.0016388 -0.0026688 9.8906e-05
0.0059194 0.0009258 0.27371 0.069428
1940000000 0.17884 -0.16885 -0.00021128 -0.0011559 0.001731 0.0021831 -0.0039274 0.00041355
0.001177 0.00089247 -0.0005204 -0.00049059
-0.0002094 -0.0011455 0.26101 0.097884 -0.0020067 0.0052884 0.0011392 0.001387
0.0019698 0.00068348 0.00092742 0.00040655
0.0017401 0.0021861 -0.0019928 0.0052973 0.061917 -0.24408 0.00081633 -0.002334
0.0024923 0.00050254 0.0002956 0.0017102
-0.0039609 0.00046543 0.0011672 0.0013873 0.00082224 -0.002347 0.11327 -0.16669
-0.00017334 0.0033377 -0.001655 0.0014579
0.0011421 0.00088633 0.0019809 0.00066691 0.0024881 0.00050198 -0.00015326 0.0033111
0.2492 0.0097057 0.0043794 -0.002823
-0.00054575 -0.00052179 0.00093715 0.00036868 0.00032313 0.0016838 -0.001655 0.0015475
0.0044576 -0.0027648 0.2631 0.033266
2000000000 0.1333 -0.18388 -0.0038588 0.0010373 0.003066 0.0014512 -0.0022751 0.0037303
0.0010563 0.00044622 -0.00064037 0.00065232
-0.0038712 0.001029 0.2477 0.062611 -0.0009396 0.0073992 0.0018008 0.00037416
0.0014845 -0.0011813 0.00056756 2.2763e-05
0.0030382 0.0014382 -0.00090286 0.0074023 0.018898 -0.23011 -0.001284 -0.001664
0.0020728 -0.0011342 0.0016243 0.0013908
-0.0022952 0.0037533 0.0018039 0.00037481 -0.0012932 -0.0016578 0.059543 -0.17708
-0.0018671 0.0034722 -0.00031184 0.0024044
0.0010982 0.00039888 0.0014727 -0.001209 0.0020545 -0.0011721 -0.0018545 0.0034925
0.24508 -0.02322 0.00076376 -0.003809
