!Keysight Technologies,M9804A,MY58100912,A.14.10.03
!Date: Thursday, April 27, 2023 10:28:33
!Correction: S11(C  6-Port  ) 
!S12(C  6-Port  ) 
!S13(C  6-Port  ) 
!S14(C  6-Port  ) 
!S15(C  6-Port  ) 
!S16(C  6-Port  ) 
!S21(C  6-Port  ) 
!S22(C  6-Port  ) 
!S23(C  6-Port  ) 
!S24(C  6-Port  ) 
!S25(C  6-Port  ) 
!S26(C  6-Port  ) 
!S31(C  6-Port  ) 
!S32(C  6-Port  ) 
!S33(C  6-Port  ) 
!S34(C  6-Port  ) 
!S35(C  6-Port  ) 
!S36(C  6-Port  ) 
!S41(C  6-Port  ) 
!S42(C  6-Port  ) 
!S43(C  6-Port  ) 
!S44(C  6-Port  ) 
!S45(C  6-Port  ) 
!S46(C  6-Port  ) 
!S51(C  6-Port  ) 
!S52(C  6-Port  ) 
!S53(C  6-Port  ) 
!S54(C  6-Port  ) 
!S55(C  6-Port  ) 
!S56(C  6-Port  ) 
!S61(C  6-Port  ) 
!S62(C  6-Port  ) 
!S63(C  6-Port  ) 
!S64(C  6-Port  ) 
!S65(C  6-Port  ) 
!S66(C  6-Port  ) 
!S6P File: Measurement: :
# Hz S  RI   R 50
500000000 -0.331 -0.06455 -0.010073 -0.0010553 -0.008791 0.012748 -0.003644 0.011788
0.013101 0.0051906 -0.0040063 0.0079089
-0.010107 -0.0011347 -0.41235 -0.072802 0.0085656 -0.010497 0.001666 0.012529
0.0077265 0.0024061 0.0016306 0.014624
-0.008871 0.012897 0.0087822 -0.010395 -0.26483 0.19104 0.0071539 0.0037259
-0.0023256 0.0087754 0.00099688 0.012672
-0.0036603 0.011551 0.0020151 0.01247 0.0069981 0.0038065 -0.3293 0.038432
-0.020058 -0.0045404 0.017601 0.026207
0.013021 0.0052734 0.0077916 0.0023756 -0.0021501 0.0085066 -0.019556 -0.0047096
-0.23377 -0.21393 -0.028644 0.0051312
-0.003972 0.0070526 0.0021964 0.014104 0.00038222 0.012537 0.0178 0.026858
-0.028488 0.0048402 -0.26348 -0.14204
560000000 -0.32023 0.1027 -0.021446 -0.067025 -0.00014192 0.013694 0.0044016 0.011632
0.011379 0.0046354 0.010243 0.0087259
-0.021409 -0.067024 -0.37354 0.092047 -0.040711 -0.039895 0.013517 0.0040081
-0.011742 -0.0051033 0.0028911 -0.00069138
1.9394e-05 0.013584 -0.04061 -0.039731 -0.1869 0.2437 -0.00054476 -0.0054728
0.018498 0.0070105 0.0076053 -0.0062272
0.0048057 0.012298 0.013375 0.0039729 -0.00056896 -0.005526 -0.3075 0.13025
0.0069107 -0.023425 0.0054887 -0.021189
0.011274 0.0047023 -0.012498 -0.0049428 0.01876 0.0067472 0.0065408 -0.022906
-0.31069 -0.032362 0.011595 -0.051665
0.010834 0.0097676 0.0033589 -0.00047175 0.0076794 -0.0062839 0.0048019 -0.022136
0.010991 -0.051431 -0.33162 0.010534
620000000 -0.27879 0.082215 -0.023295 0.0088104 0.0035748 0.0095001 0.0086325 -0.0038046
0.011386 -0.0020094 0.0013578 -0.0011068
-0.023242 0.0087824 -0.40224 0.038704 -0.018558 0.00012842 -0.0012962 -0.0018624
0.012158 -0.0054675 0.0010624 -0.0032006
0.0035612 0.0094385 -0.018505 0.00017305 -0.15774 0.25291 -0.00051095 -0.0050537
-0.0039928 -0.0026183 0.010048 -0.0030297
0.0083772 -0.0039787 -0.001517 -0.0020552 -0.00049249 -0.0050863 -0.26509 0.14016
-0.038822 -0.02025 0.013483 0.028333
0.011563 -0.0025432 0.01222 -0.0057207 -0.0037512 -0.0026979 -0.03837 -0.019668
-0.22539 -0.068149 -0.04308 0.012375
0.00043031 -0.0017458 0.0010254 -0.0032652 0.0097306 -0.0028821 0.013611 0.026605
-0.042914 0.013236 -0.24645 -0.027929
680000000 -0.24331 0.17647 -0.026532 -0.015322 0.0047136 0.005617 0.00082848 -0.0071827
-0.0013016 -0.011189 0.0054959 -0.0077095
-0.026483 -0.015325 -0.39122 0.14042 -0.032671 -0.0028137 -0.0018556 -0.00035475
-0.0012029 -0.0091152 -0.00085817 -0.0020891
0.0046772 0.0054874 -0.032649 -0.0027885 -0.10765 0.27539 -0.00094996 -2.7587e-06
-0.0011588 0.00060625 -0.0030462 -0.0095502
0.0012336 -0.0070739 -0.0017802 -7.7227e-05 -0.00093129 -8.4681e-05 -0.22052 0.19291
-0.023174 -0.0079255 -0.0089643 -0.012225
-0.0010813 -0.011343 -0.0012593 -0.0091391 -0.0011986 0.00047252 -0.023173 -0.0078671
-0.28132 0.034844 -0.0072371 -0.007659
0.0055769 -0.0070177 -0.00089346 -0.002186 -0.002648 -0.0091906 -0.0090984 -0.012194
-0.0070823 -0.0076408 -0.2629 0.079603
740000000 -0.19629 0.16875 -0.040818 0.026634 0.013709 -0.0042525 7.3024e-05 -0.0040849
-0.0047335 -0.0028327 -0.0064264 0.0032945
-0.040795 0.026559 -0.33674 0.15958 -0.038022 0.034471 0.00051426 -0.0061058
-0.012482 0.007196 -0.0010692 -0.0062036
0.013766 -0.004304 -0.037769 0.034557 -0.073748 0.27346 -0.0018501 0.0035837
-0.0024198 -0.006065 -0.0014597 0.0011502
0.00017762 -0.0040573 0.00021108 -0.0064452 -0.0018271 0.0034488 -0.20431 0.20053
-0.04275 -0.0096253 0.022851 0.016556
-0.0046715 -0.002673 -0.01291 0.007189 -0.0021798 -0.0061808 -0.043139 -0.010286
-0.1842 0.066176 -0.042452 -4.5969e-05
-0.0069756 0.0034929 -0.00042501 -0.0066836 -0.0016136 0.0015824 0.0232 0.017045
-0.042901 -0.00041371 -0.25283 0.086141
800000000 -0.16588 0.21504 -0.022723 0.015582 0.0059862 -0.010389 -0.0045357 -0.0025028
-0.0044643 0.0018665 0.00419 1.7449e-05
-0.022729 0.015542 -0.34429 0.2309 -0.0092461 0.034039 -0.0022772 0.0018742
-0.00070488 0.0021521 0.0007161 0.0052543
0.0059009 -0.010415 -0.0091668 0.034152 -0.03528 0.29891 0.00089394 0.0012861
5.7662e-05 0.0033014 -0.0019078 0.00061263
-0.0044587 -0.0024056 -0.0022016 0.0019575 0.00090422 0.0013397 -0.17595 0.22799
-0.028865 0.012754 0.014662 -0.010553
-0.0044182 0.0017024 -0.00072315 0.0020186 0.00024585 0.0033519 -0.028488 0.012308
-0.22758 0.091627 -0.018472 0.020693
0.0044848 0.00019011 0.00081265 0.0052909 -0.001794 0.00059721 0.013694 -0.010086
-0.017875 0.020425 -0.24662 0.13554
860000000 -0.1321 0.23574 -0.018744 0.030469 -0.0030228 -0.010234 -0.0021423 0.00036722
0.0034596 0.0055622 -0.0035996 -0.0032632
-0.018734 0.030441 -0.29774 0.27552 0.0067199 0.034845 0.00018553 0.0022072
0.0034589 0.0011237 0.0033149 0.0003363
-0.0030414 -0.01021 0.006832 0.034879 0.012048 0.30833 -0.00055756 -0.00035105
0.0021274 -0.0011606 0.001273 0.004306
-0.0021978 0.00051477 0.00028884 0.0022285 -0.00058113 -0.00033669 -0.13926 0.23837
-0.018445 0.017485 -0.0060344 -0.0088407
0.0035283 0.0056216 0.0035652 0.0010203 0.0021522 -0.0011728 -0.018211 0.017591
-0.17194 0.14852 -0.026447 0.016325
-0.0040236 -0.0032873 0.0029791 0.00076737 0.0012049 0.0043765 -0.0060583 -0.0089685
-0.026437 0.015928 -0.19685 0.18393
920000000 -0.10903 0.25929 0.0040047 0.03918 -0.0093625 -0.0050246 -0.0021579 0.0018305
0.00095893 0.0021336 0.0029632 -0.0012215
0.0039589 0.039116 -0.27066 0.29756 0.027862 0.023581 0.0012122 0.0012161
0.0079499 0.00032617 0.0044863 -0.0026875
-0.0093753 -0.0049428 0.027962 0.023506 0.057773 0.31051 0.0017723 4.1169e-07
0.0010144 -7.6503e-05 0.00098443 -0.0014736
-0.0020413 0.0019039 0.0013703 0.0011406 0.001827 -1.625e-05 -0.11562 0.25604
-0.011938 0.030413 0.0038483 -0.0066182
0.00097323 0.0020531 0.0079693 0.00011119 0.001053 -3.8327e-05 -0.01189 0.030316
-0.16101 0.15193 -0.0019135 0.02675
0.0028635 -0.0012044 0.0044181 -0.0028203 0.00095545 -0.0015192 0.0037522 -0.0066908
-0.0015029 0.026985 -0.20585 0.19579
980000000 -0.062729 0.28043 0.016157 0.03085 -0.0096054 0.0044054 0.0017641 0.003717
0.0039123 -0.0013935 -0.0031357 -0.0025166
0.016111 0.030819 -0.21813 0.33374 0.033215 0.0061252 0.0019093 -0.00017285
0.0015501 -0.0060434 -0.00033293 -0.0026667
-0.0095781 0.0044551 0.033272 0.0059988 0.10377 0.30507 0.00075079 -0.0011344
0.00046613 -0.001632 0.0014742 -0.00019612
0.0017139 0.0037068 0.0019542 -0.00019325 0.00069748 -0.0011464 -0.077335 0.26727
0.0063722 0.030004 -0.009369 -0.0073393
0.0038103 -0.0014278 0.0015448 -0.006096 0.00039602 -0.0017303 0.0062468 0.029994
-0.13054 0.18571 0.0059151 0.020593
-0.0032435 -0.0023336 -0.0002597 -0.0027049 0.0014154 -0.00020479 -0.0094911 -0.0071353
0.0057405 0.020394 -0.16353 0.24158
1040000000 -0.022432 0.29035 0.032909 0.020255 -0.0015055 0.0073681 0.0027515 0.00087094
0.00043424 -0.0033073 7.4521e-05 -0.001557
0.032846 0.020229 -0.18335 0.34797 0.030273 -0.013853 0.0015917 -0.0016506
-0.0022624 -0.0025005 -0.001041 -0.0032987
-0.0014595 0.0074432 0.03024 -0.013987 0.14962 0.29292 -0.00045156 -0.0015374
-0.0015326 -0.001049 -0.00064852 -0.0011576
0.0027352 0.00083474 0.0016324 -0.0016512 -0.00042857 -0.0015398 -0.050714 0.27753
0.018636 0.01932 -0.0028115 0.0010242
0.00046726 -0.0033876 -0.0022419 -0.0025613 -0.0015548 -0.00097285 0.01876 0.019208
-0.097515 0.19281 0.013791 0.018814
7.2993e-05 -0.0016517 -0.0012739 -0.0032769 -0.00059191 -0.0011527 -0.0027732 0.0010044
0.013911 0.018924 -0.14279 0.26278
1100000000 0.022587 0.30052 0.036902 -0.0022953 0.0032258 0.0043358 0.0024552 -0.00093537
-0.0023123 -0.0029315 -0.0040798 -0.00013336
0.036857 -0.002261 -0.13978 0.36738 0.016343 -0.027556 -3.8123e-05 -0.0017094
-0.0036641 -0.00084802 -0.0036804 -0.00045516
0.0032444 0.0043257 0.016282 -0.027672 0.19599 0.27403 -0.0018685 0.00015903
-0.0017001 0.0006223 -0.0010574 -0.00054605
0.0024518 -0.00095335 -1.315e-05 -0.0017437 -0.0018814 0.00016098 -0.010553 0.2831
0.024399 0.0065331 -0.0023648 0.00014879
-0.0023489 -0.0029676 -0.0036665 -0.00082602 -0.0017011 0.00061981 0.024406 0.0065519
-0.078531 0.20707 0.019372 0.0099218
-0.0039911 -7.1673e-05 -0.0036602 -0.00041967 -0.0010894 -0.00048618 -0.0024262 0.0001279
0.019336 0.0097637 -0.09687 0.29486
1160000000 0.073551 0.29747 0.02557 -0.019799 0.0033399 -0.00051065 1.7105e-05 -0.0025082
-0.004027 -0.00093045 -0.0013582 0.0042428
0.025542 -0.019773 -0.09655 0.37252 -0.0027647 -0.029296 -0.0015519 -0.0018098
-0.0025719 0.0023196 -0.0016005 0.0017502
0.0033272 -0.00051727 -0.0029153 -0.029312 0.23929 0.24453 -0.00078111 0.0017432
-0.00051761 0.0019 -0.0011198 0.00031441
-6.9259e-05 -0.0025081 -0.0015621 -0.0018273 -0.0007755 0.0017335 0.02828 0.28112
0.021564 -0.0094916 -0.0036208 0.0052573
-0.0040296 -0.00094195 -0.0025886 0.002365 -0.00052891 0.0018426 0.021529 -0.00947
-0.042896 0.21647 0.019053 2.9825e-05
-0.0014672 0.00418 -0.0016187 0.0017726 -0.0011099 0.00031697 -0.0035981 0.0053503
0.018642 8.1536e-05 -0.050268 0.2979
1220000000 0.11736 0.28891 0.01245 -0.030113 -0.0011957 -0.0013227 0.00013815 -0.00092069
-0.0028193 0.0022097 0.0010426 0.0020419
0.012464 -0.030091 -0.052267 0.38694 -0.016532 -0.021871 -0.0025888 0.00049724
-1.8411e-05 0.0030625 -0.00085452 0.0019637
-0.0012047 -0.0013206 -0.016645 -0.021835 0.27909 0.20681 0.00073287 0.0016954
0.00053549 0.0011787 0.0001713 0.00066737
9.1606e-05 -0.00093762 -0.0025765 0.00049038 0.00073163 0.0016827 0.06834 0.27363
0.011296 -0.016346 0.0025079 0.0015167
-0.0028316 0.0022447 -2.0942e-05 0.0030141 0.00056049 0.0011997 0.011262 -0.016448
-0.020731 0.22668 0.014691 -0.012556
0.0011212 0.0020383 -0.00078739 0.0020365 0.00020258 0.00060665 0.0022319 0.0015195
0.014879 -0.012656 -0.019461 0.316
1280000000 0.16795 0.26922 -0.006588 -0.029473 -0.0019036 0.0019953 -0.00093634 -0.0021555
-0.00082883 0.0031908 0.0026219 0.0014612
-0.0065636 -0.029438 -0.0058086 0.3792 -0.023928 -0.0088851 -0.00095831 0.0013789
0.0017222 0.0016805 0.00072072 0.0021076
-0.0019047 0.0020433 -0.024007 -0.0088098 0.31054 0.16363 0.0015732 -6.823e-05
0.0010838 0.00022257 0.00025187 0.00023106
-0.00091245 -0.0021911 -0.00096526 0.0013943 0.0015543 -7.2174e-05 0.10523 0.25815
0.0018967 -0.01903 -1.1281e-05 0.00033179
-0.00083359 0.0032187 0.00172 0.0016969 0.0010871 0.00024763 0.0019115 -0.018957
0.016171 0.2311 0.0039257 -0.015273
0.0026423 0.0014304 0.0006809 0.0021216 0.00036837 0.00022702 7.3573e-05 0.00018161
0.0037986 -0.015256 0.028628 0.31918
1340000000 0.20571 0.23776 -0.01683 -0.020315 0.00043538 0.004321 -0.0019614 -0.00081166
0.0013956 0.0028277 0.0018352 -0.001349
-0.016818 -0.02033 0.03377 0.37244 -0.021639 0.0040477 -0.00015419 0.0019792
0.0019008 0.00079705 0.0010815 0.00083372
0.00043772 0.0043602 -0.021631 0.0041494 0.33327 0.11677 0.00095989 -0.00096319
0.00061333 -0.00051672 0.00013199 0.00021145
-0.0019108 -0.00081023 -0.00014554 0.001978 0.00095304 -0.00096022 0.13886 0.23849
-0.0076649 -0.016704 0.00092633 0.00044604
0.0014219 0.0027899 0.0019177 0.00077783 0.00062118 -0.00051629 -0.0076659 -0.016662
0.045473 0.22755 -0.0033967 -0.014118
0.0018235 -0.0013601 0.0010891 0.00082676 6.8168e-05 0.00028059 0.0010412 0.00043729
-0.0033125 -0.01408 0.06613 0.31537
1400000000 0.24056 0.20141 -0.023566 -0.0088212 0.004935 0.0032611 -0.0022974 0.00063099
0.0026271 0.001051 0.00038438 -0.0016745
-0.023533 -0.0088219 0.072372 0.36041 -0.014963 0.012391 0.0012329 0.0013171
0.0012428 -0.00074318 0.001209 0.00015731
0.0049355 0.003191 -0.014922 0.012481 0.34738 0.063415 1.0055e-05 -0.0014834
9.989e-05 -0.0003624 0.0003859 0.00025301
-0.0023033 0.00067422 0.0012587 0.0013164 2.8883e-05 -0.0015046 0.16917 0.2101
-0.013964 -0.010163 -0.00081635 -0.00038221
0.0026024 0.0010258 0.001255 -0.00073611 9.65e-05 -0.00031466 -0.014014 -0.010165
0.079076 0.22486 -0.0096375 -0.0091809
0.00037734 -0.0016925 0.0011723 7.4322e-05 0.00033776 0.00023179 -0.0009205 -0.00044036
-0.0096026 -0.0092775 0.1116 0.30581
1460000000 0.26439 0.15844 -0.020998 0.0038744 0.0053907 -0.0016589 -0.001594 0.0018466
0.0021877 -0.00027414 -9.9407e-05 -0.00098846
-0.020988 0.0038487 0.10721 0.33895 -0.005888 0.015463 0.00166 0.00027577
0.00096344 -0.0012686 0.0012317 -0.00047968
0.0054104 -0.001666 -0.0058306 0.015505 0.35411 0.00902 -0.0011516 -0.0011788
0.00021602 -5.6418e-05 0.00076501 -0.00020973
-0.0015546 0.0018389 0.0016591 0.00025929 -0.001144 -0.0011483 0.1963 0.18113
-0.01532 -0.0036587 -0.0011312 0.00196
0.0021966 -0.00032321 0.00096202 -0.0012834 0.00019717 -0.00010433 -0.015269 -0.003642
0.10861 0.21176 -0.012139 -0.00331
-0.00013802 -0.001003 0.001241 -0.00048578 0.00082791 -0.000251 -0.001069 0.0019209
-0.012124 -0.0032432 0.14502 0.28599
1520000000 0.27827 0.11762 -0.015649 0.0097552 0.0032755 -0.0041319 0.00017812 0.0026811
0.002303 -0.0018631 -0.0012018 -0.00015567
-0.01564 0.0097413 0.14145 0.32516 0.0019165 0.012896 0.0017067 -0.00068183
0.0001097 -0.0010262 0.00034974 -0.0010269
0.0032585 -0.0041548 0.0020069 0.01292 0.34753 -0.046748 -0.00091986 -0.00031517
0.00074272 -0.00088662 0.00011875 -0.00015584
0.000181 0.0026795 0.0017085 -0.00067278 -0.00092925 -0.00031478 0.2205 0.14308
-0.015066 0.002111 0.0014978 0.0021225
0.0022778 -0.0018921 0.0001226 -0.0010308 0.00071056 -0.00090494 -0.015037 0.00213
0.13711 0.20002 -0.011796 0.0014882
-0.0011809 -8.9957e-05 0.00033249 -0.0010644 0.00010541 -0.00013006 0.0014746 0.0020923
-0.011769 0.0013771 0.17845 0.26709
1580000000 0.28921 0.071641 -0.0089749 0.01345 -0.0010289 -0.0048344 0.001566 0.0018269
-0.00012873 -0.0023121 -0.0002613 0.00034302
-0.0089794 0.013441 0.16958 0.30039 0.0055465 0.0077625 0.00062481 -0.0015286
-0.00043892 -0.0011169 -0.00018554 -0.00081498
-0.0010507 -0.0048197 0.0055943 0.0077557 0.32804 -0.10453 -0.0014717 0.00043002
-0.00026699 -0.0012668 0.00033021 -0.0006902
0.0015778 0.0018237 0.00063607 -0.001539 -0.001493 0.00041586 0.23518 0.10333
-0.011752 0.0072903 0.0021518 0.00087501
-0.00016402 -0.0023144 -0.00044911 -0.0011193 -0.00025334 -0.0012906 -0.01172 0.0072829
0.16221 0.18335 -0.0095331 0.0072727
-0.0002584 0.0003835 -0.00016831 -0.00082752 0.00034105 -0.00065113 0.0021311 0.0008514
-0.0095607 0.007358 0.2116 0.24112
1640000000 0.29241 0.030827 -0.0019801 0.012557 -0.0029121 -0.0025392 0.002794 0.0010475
-0.00071524 -0.0017717 -0.00041816 0.00057305
-0.001991 0.012553 0.19926 0.27611 0.0058435 0.002753 -0.00045143 -0.001851
-0.00096887 -0.00051264 -0.00050388 -0.00064985
-0.0029544 -0.0025122 0.0058574 0.0027042 0.29957 -0.15312 -0.00069423 0.0012979
-0.0010594 -0.0011091 -0.00024311 -0.000358
0.002784 0.0010338 -0.00047329 -0.0018632 -0.0006767 0.0012799 0.2481 0.054251
-0.0076116 0.0087104 0.0025955 -0.00068034
-0.0007485 -0.0017651 -0.00098391 -0.00051995 -0.0010365 -0.0011172 -0.0075857 0.0087234
0.18578 0.16101 -0.0047025 0.0095045
-0.00037268 0.00060133 -0.00049278 -0.00064722 -0.0003231 -0.00046424 0.0025186 -0.00076612
-0.0046981 0.0093891 0.23751 0.21093
1700000000 0.28698 -0.014469 0.0016845 0.0099584 -0.0036053 0.00031356 0.0031865 -0.0012272
-0.0020729 -0.00072672 0.00054095 0.00038955
0.0016795 0.0099655 0.21821 0.24468 0.0033529 -0.00026681 -0.0014137 -0.00079384
-0.00083251 -0.00010482 -0.0009382 -0.0004637
-0.0036202 0.00036456 0.003351 -0.00026097 0.25735 -0.19321 0.00021291 0.0015064
-0.0021053 -0.00022437 -0.00058544 -0.00083634
0.0032014 -0.0012349 -0.0014346 -0.00077133 0.00016747 0.0015185 0.24551 0.0036244
-0.0046279 0.0094377 0.001635 -0.0021737
-0.0021056 -0.00070615 -0.00083882 -0.00012076 -0.0021319 -0.00020929 -0.0046401 0.0094761
0.20492 0.14192 -5.2614e-05 0.0097184
0.00052046 0.00038908 -0.00093389 -0.00044514 -0.00048299 -0.00080106 0.0016458 -0.0021216
-0.00013087 0.0097449 0.25542 0.17728
1760000000 0.27577 -0.063654 0.0043511 0.0066573 -0.0020848 0.0012855 0.0013581 -0.003497
-0.001385 0.0006134 0.00038845 -0.00067747
0.0043401 0.0066681 0.24435 0.20508 0.00073283 -0.0017408 -0.0013188 -7.3529e-06
-0.0011345 0.0009048 -0.00056455 0.00032631
-0.0020844 0.0013321 0.00072039 -0.001734 0.20896 -0.22622 0.00099164 0.0011296
-0.001253 0.0014598 -0.0013224 -0.0005248
0.0013054 -0.0035103 -0.0013097 -1.2083e-05 0.00099491 0.0011209 0.2362 -0.048463
-0.0012227 0.0087792 -0.00017904 -0.0023756
-0.0013715 0.00059535 -0.0011398 0.00092928 -0.0012001 0.0013742 -0.001262 0.0087466
0.22069 0.10825 0.0037912 0.00735
0.00040761 -0.00059186 -0.00057281 0.00037424 -0.0013369 -0.00058837 -0.00011446 -0.0024473
0.0039011 0.0072862 0.26861 0.13977
1820000000 0.25254 -0.10101 0.0045666 0.0030466 0.00013958 0.0025971 -0.00096242 -0.0031137
-0.0012314 0.00092741 -0.00012113 -6.2186e-05
0.0045592 0.0030476 0.25506 0.17546 -0.0016607 -8.8657e-05 -0.0015636 0.00094886
-0.00011526 0.0012381 -0.00065169 0.00053755
0.00017095 0.0026 -0.001616 -5.5533e-05 0.15841 -0.24157 0.001559 0.00048023
-0.00030127 0.0022852 -0.0015545 0.00035878
-0.00094991 -0.0030891 -0.0015322 0.00097775 0.0015527 0.00050065 0.20634 -0.096127
0.00046902 0.0072806 -0.0016136 -0.0018538
-0.0012381 0.00095553 -0.00011398 0.0012515 -0.00032798 0.0022746 0.00054002 0.0072876
0.2397 0.08034 0.004932 0.0035374
-0.00015202 -9.4869e-05 -0.0006723 0.00050914 -0.0016341 0.00037693 -0.0017143 -0.0017697
0.0048703 0.0036257 0.27205 0.10446
1880000000 0.21784 -0.14229 0.0023732 0.00061027 -0.00040861 0.0021639 -0.0029106 -0.0022683
-0.00027256 0.0018118 0.00015227 -0.00060903
0.0023686 0.00062187 0.25967 0.12882 -0.003552 0.0023856 -0.00033488 0.0019295
0.00052971 0.0013941 0.00010761 0.0010516
-0.00035759 0.0021887 -0.0035314 0.0024499 0.10634 -0.25061 0.0018791 -0.00077222
0.0014783 0.0020195 -0.0010744 0.0015825
-0.0029521 -0.0022559 -0.00030772 0.0019231 0.001927 -0.00081786 0.16521 -0.13652
0.0014167 0.0052193 -0.0025189 0.0002607
-0.00025293 0.0017983 0.00054499 0.0013986 0.001446 0.0020575 0.0013526 0.0052365
0.24486 0.049346 0.005151 0.0015731
0.00016383 -0.00056063 3.5364e-05 0.0010731 -0.0010077 0.0016149 -0.0023654 0.00023448
0.0052249 0.0014493 0.27297 0.070222
1940000000 0.17879 -0.16841 0.00024211 -0.0011517 0.0015445 0.002015 -0.0038153 0.00036126
0.0012514 0.0011254 -0.00071042 -0.00043342
0.00025096 -0.0011439 0.26074 0.097734 -0.0017608 0.0052555 0.0011167 0.0014965
0.001935 0.00056144 0.00095206 0.00032784
0.0015976 0.0019808 -0.0016612 0.005231 0.061838 -0.24308 0.00070245 -0.0024082
0.0023792 0.00047858 0.00031675 0.0015761
-0.0039003 0.0003723 0.0010974 0.0014609 0.00072986 -0.0023929 0.11256 -0.16663
0.00056571 0.0038783 -0.0014741 0.0015039
0.0012159 0.0011002 0.0019786 0.00051058 0.0024024 0.00045921 0.00055826 0.0038578
0.24926 0.011819 0.0041126 -0.0019768
-0.00065457 -0.0003957 0.00088505 0.00029383 0.00023576 0.0015738 -0.0014081 0.0014533
0.004199 -0.0020153 0.26286 0.034936
2000000000 0.13345 -0.18375 -0.0034823 0.00085843 0.002895 0.0013044 -0.002353 0.0037349
0.0011988 0.00049254 -0.0004939 0.00041276
-0.003464 0.00085965 0.24731 0.062423 -0.00075627 0.0071598 0.0018135 0.00040404
0.0013032 -0.0012195 0.00051693 7.6698e-05
0.0030097 0.0013346 -0.00066708 0.0072382 0.019211 -0.22952 -0.0012443 -0.0017867
0.0021121 -0.0011222 0.0014557 0.0013241
-0.0022768 0.0036604 0.0018472 0.00039199 -0.001264 -0.0016607 0.059016 -0.17673
-0.0011315 0.0036866 -0.00046753 0.0022916
0.0011856 0.0005238 0.0012822 -0.0012278 0.0021156 -0.0010634 -0.0010644 0.0036627
0.24564 -0.021514 0.00066536 -0.0033326
