!Keysight Technologies,M9804A,MY58100912,A.14.10.03
!Date: Thursday, April 27, 2023 10:28:33
!Correction: S11(C  6-Port  ) 
!S12(C  6-Port  ) 
!S13(C  6-Port  ) 
!S14(C  6-Port  ) 
!S15(C  6-Port  ) 
!S16(C  6-Port  ) 
!S21(C  6-Port  ) 
!S22(C  6-Port  ) 
!S23(C  6-Port  ) 
!S24(C  6-Port  ) 
!S25(C  6-Port  ) 
!S26(C  6-Port  ) 
!S31(C  6-Port  ) 
!S32(C  6-Port  ) 
!S33(C  6-Port  ) 
!S34(C  6-Port  ) 
!S35(C  6-Port  ) 
!S36(C  6-Port  ) 
!S41(C  6-Port  ) 
!S42(C  6-Port  ) 
!S43(C  6-Port  ) 
!S44(C  6-Port  ) 
!S45(C  6-Port  ) 
!S46(C  6-Port  ) 
!S51(C  6-Port  ) 
!S52(C  6-Port  ) 
!S53(C  6-Port  ) 
!S54(C  6-Port  ) 
!S55(C  6-Port  ) 
!S56(C  6-Port  ) 
!S61(C  6-Port  ) 
!S62(C  6-Port  ) 
!S63(C  6-Port  ) 
!S64(C  6-Port  ) 
!S65(C  6-Port  ) 
!S66(C  6-Port  ) 
!S6P File: Measurement: :
# Hz S  RI   R 50
500000000 -0.33016 -0.06713 -0.0099015 -0.0014924 -0.0089866 0.012858 -0.0045211 0.012692
0.013991 0.0049798 -0.0047065 0.008311
-0.0097904 -0.0013102 -0.41148 -0.075314 0.0086057 -0.01033 0.0013774 0.012059
0.0088778 0.0031217 0.0011809 0.01349
-0.0089203 0.013022 0.0085673 -0.010386 -0.26441 0.18973 0.0069788 0.0032622
-0.0017112 0.0090975 0.00064629 0.011901
-0.0042382 0.012173 0.00068497 0.011981 0.0068613 0.0031546 -0.32945 0.03626
-0.019444 -0.0035048 0.017935 0.02612
0.013464 0.0049145 0.0089497 0.0029148 -0.001856 0.0092306 -0.020035 -0.0041945
-0.23306 -0.21787 -0.028646 0.0065389
-0.0047663 0.0079406 0.00095431 0.013237 0.00036976 0.011799 0.017595 0.026159
-0.028309 0.0067164 -0.26166 -0.14627
560000000 -0.31997 0.10198 -0.021852 -0.066576 0.00033662 0.013623 0.0049663 0.012236
0.011355 0.0053192 0.011267 0.0091635
-0.02158 -0.066952 -0.37327 0.091105 -0.04082 -0.039753 0.014284 0.0034778
-0.01291 -0.0056224 0.0050426 0.0001172
-0.00023941 0.01364 -0.04157 -0.040286 -0.18731 0.24236 -0.00032967 -0.0046957
0.018603 0.0074078 0.0074018 -0.0067016
0.0047567 0.011968 0.014459 0.0042094 -0.00031069 -0.0052773 -0.30735 0.1283
0.0058383 -0.023424 0.0046951 -0.021917
0.011294 0.0048871 -0.012139 -0.0054266 0.018122 0.0068621 0.0052512 -0.022973
-0.30799 -0.034598 0.010912 -0.052535
0.011239 0.0092444 0.0044932 -7.2044e-05 0.0083461 -0.00614 0.0050436 -0.022474
0.010358 -0.052188 -0.3332 0.007518
620000000 -0.27845 0.080196 -0.02353 0.0089785 0.0034197 0.0092207 0.0080209 -0.0045102
0.011803 -0.0015665 -0.00032881 -0.0027466
-0.02368 0.0089712 -0.40223 0.03643 -0.01857 0.00034819 -0.0018267 -0.002221
0.012953 -0.0054513 0.0011349 -0.0033141
0.0034186 0.0091812 -0.018549 0.0003545 -0.15809 0.25184 -0.0012836 -0.0055278
-0.0029015 -0.0023621 0.0095961 -0.0034182
0.0082647 -0.0044982 -0.0015925 -0.0022404 -0.0012175 -0.0052962 -0.26349 0.13983
-0.039993 -0.020534 0.013282 0.028383
0.011373 -0.0013861 0.012725 -0.005301 -0.0028772 -0.0026706 -0.040236 -0.020668
-0.22202 -0.071979 -0.042227 0.012084
-0.00040722 -0.0023215 0.0013856 -0.0036399 0.0094915 -0.0033109 0.014185 0.028958
-0.043284 0.011414 -0.24688 -0.031552
680000000 -0.24416 0.17511 -0.026244 -0.015142 0.0048731 0.0057979 0.0019668 -0.0074518
-0.0016858 -0.01211 0.006571 -0.0068688
-0.026187 -0.015187 -0.39168 0.13857 -0.032796 -0.0028112 -0.001736 -0.00030339
-0.0014849 -0.009688 -0.00095539 -0.0018015
0.0049727 0.005842 -0.032747 -0.0027909 -0.10833 0.27389 -0.00078045 -0.00030611
-0.0014573 0.00056471 -0.0028865 -0.0092361
0.0018251 -0.007415 -0.0014152 -0.00018661 -0.00074859 -0.00014755 -0.22154 0.19179
-0.023173 -0.0084121 -0.0099547 -0.011567
-0.0017872 -0.011552 -0.0014974 -0.0095348 -0.0012906 0.00044599 -0.023272 -0.0082934
-0.28229 0.032829 -0.0055251 -0.0074891
0.0066174 -0.0070279 -0.00089609 -0.0021607 -0.0029346 -0.009485 -0.010023 -0.011639
-0.005327 -0.0078202 -0.26339 0.076234
740000000 -0.19709 0.16848 -0.040762 0.026815 0.014021 -0.0040684 -0.00018037 -0.0044597
-0.0047233 -0.0026957 -0.0059647 0.0024917
-0.040799 0.026692 -0.33767 0.15791 -0.038206 0.034811 0.00054411 -0.0061929
-0.013221 0.0078236 -0.00081463 -0.0065215
0.014115 -0.0043203 -0.038128 0.035124 -0.07525 0.27224 -0.0019983 0.0033941
-0.0018546 -0.0057728 -0.0015005 0.00085021
-8.7797e-05 -0.0044054 0.00047853 -0.0061108 -0.0019432 0.0033519 -0.20504 0.1991
-0.042864 -0.009573 0.02309 0.016715
-0.0047222 -0.0027314 -0.013723 0.0076259 -0.0015944 -0.0061166 -0.043231 -0.0095408
-0.18087 0.065063 -0.043594 -0.0015659
-0.0062002 0.0023844 -0.0010805 -0.0063083 -0.0016003 0.00096495 0.02309 0.016811
-0.042873 -0.0013507 -0.25366 0.083643
800000000 -0.16568 0.21428 -0.022599 0.015953 0.0062504 -0.010564 -0.0043613 -0.0024302
-0.0044356 0.0017739 0.0046736 0.00034278
-0.022555 0.016105 -0.34586 0.22964 -0.009346 0.034564 -0.0020974 0.0019641
-0.00095634 0.0025295 0.00092373 0.0052202
0.0063055 -0.010566 -0.009242 0.03463 -0.036577 0.29825 0.00099862 0.0012576
2.5854e-05 0.003248 -0.0018163 0.00077456
-0.0045422 -0.0024773 -0.0021945 0.0019167 0.00095596 0.0012199 -0.17642 0.22687
-0.028733 0.012776 0.014496 -0.010488
-0.0042567 0.0016315 -0.00081777 0.0024637 9.0508e-05 0.0033075 -0.028558 0.012769
-0.22929 0.08906 -0.017739 0.019965
0.0045228 0.00016891 0.00097383 0.0051718 -0.0018483 0.00073533 0.014534 -0.010637
-0.017854 0.020405 -0.24865 0.13254
860000000 -0.13266 0.23461 -0.018885 0.030243 -0.0028961 -0.010623 -0.0019929 0.00053882
0.0037627 0.0053304 -0.0037777 -0.0035171
-0.018986 0.030349 -0.29891 0.27411 0.0069122 0.035272 0.00010467 0.002021
0.0032362 0.00064269 0.0033038 -6.7987e-05
-0.002974 -0.010591 0.0070135 0.035316 0.010722 0.3082 -0.00068846 -0.00030415
0.0022825 -0.0017224 0.0015958 0.0040832
-0.0019474 0.00053594 9.1015e-05 0.0019668 -0.00069929 -0.00036977 -0.14048 0.2382
-0.018951 0.01779 -0.0064942 -0.0091082
0.0038907 0.0051579 0.0032946 0.00059515 0.0022504 -0.0017521 -0.019054 0.017849
-0.17351 0.14327 -0.025973 0.017239
-0.0037156 -0.0033567 0.003584 2.4022e-05 0.0016893 0.0041203 -0.0065773 -0.0089463
-0.025879 0.017326 -0.19754 0.17904
920000000 -0.10987 0.25846 0.00399 0.03923 -0.0095367 -0.0053106 -0.0021113 0.001777
0.00065137 0.0021378 0.0029808 -0.0013684
0.0040488 0.039158 -0.27188 0.2961 0.028233 0.023704 0.0014412 0.0010259
0.0073764 -0.00023073 0.0042205 -0.0028717
-0.009531 -0.0052895 0.028338 0.023675 0.056728 0.31073 0.0018125 3.3042e-05
0.00071604 -0.00025352 0.00093731 -0.0015759
-0.00201 0.0017324 0.0012936 0.00094812 0.0018041 3.3405e-05 -0.11644 0.25586
-0.012467 0.030925 0.0041315 -0.0067906
0.00072083 0.0020473 0.0074974 -0.00020148 0.00067509 -0.00020998 -0.012265 0.030805
-0.16407 0.14967 -0.0023617 0.028026
0.0028462 -0.0013112 0.003997 -0.0030746 0.00092398 -0.0015344 0.0040137 -0.0066063
-0.0025432 0.027792 -0.20765 0.19402
980000000 -0.06402 0.28011 0.016071 0.031151 -0.0099121 0.0044265 0.0017914 0.0038906
0.0039841 -0.0012346 -0.0032082 -0.0025808
0.016046 0.031129 -0.2196 0.33287 0.033819 0.0061352 0.002001 5.3926e-05
0.0016965 -0.0059063 -0.00015594 -0.0027267
-0.0098636 0.0044532 0.033836 0.0059867 0.10306 0.30555 0.00062976 -0.0010521
0.00040525 -0.001787 0.0014485 -0.00035095
0.0017259 0.0039299 0.001995 1.8236e-05 0.00063647 -0.0010484 -0.07827 0.26746
0.0071679 0.030827 -0.0094693 -0.0078147
0.0039905 -0.0012275 0.0017524 -0.0059522 0.00039101 -0.0017287 0.0071295 0.030846
-0.13158 0.18396 0.0061601 0.020124
-0.0032774 -0.0024913 -0.0001044 -0.0027124 0.001454 -0.0002721 -0.0094883 -0.0077842
0.0060491 0.020333 -0.16615 0.24013
1040000000 -0.023231 0.2898 0.03335 0.02047 -0.0016449 0.0076045 0.00272 0.00088245
0.00048082 -0.0036897 2.3981e-06 -0.001447
0.033367 0.020407 -0.18492 0.3475 0.03081 -0.014239 0.0016226 -0.0016519
-0.0022324 -0.0026439 -0.0012764 -0.0027835
-0.0016049 0.0075983 0.030782 -0.014345 0.14925 0.29359 -0.00044206 -0.0015864
-0.0014981 -0.0010137 -0.00054851 -0.0010812
0.0026871 0.00078675 0.0016217 -0.001737 -0.0004332 -0.0015946 -0.051236 0.27785
0.019276 0.019627 -0.0020772 0.0011217
0.00037537 -0.003552 -0.0022691 -0.0026121 -0.0015273 -0.0010616 0.019334 0.019667
-0.099358 0.19045 0.014121 0.019835
-1.8584e-05 -0.0015321 -0.0012129 -0.0028839 -0.00053453 -0.0010728 -0.0022627 0.0010392
0.013967 0.019832 -0.1454 0.26238
1100000000 0.021508 0.30012 0.037298 -0.0025425 0.0032322 0.004428 0.0024401 -0.0011171
-0.0022806 -0.0030778 -0.0041744 -0.00036475
0.037256 -0.0025486 -0.14137 0.36718 0.016452 -0.028308 -7.6407e-05 -0.0018705
-0.0036642 -0.00089647 -0.0037862 -0.00068138
0.0032374 0.0044031 0.016352 -0.028416 0.19627 0.27458 -0.0019453 0.00019695
-0.0017376 0.00058563 -0.0012296 -0.00060422
0.0023818 -0.0010923 -5.0483e-05 -0.0018728 -0.0019408 0.00020038 -0.010833 0.28352
0.025206 0.0061643 -0.002665 -4.4838e-05
-0.0023354 -0.0030654 -0.0036908 -0.00088059 -0.0017574 0.00059151 0.02527 0.0061109
-0.079439 0.20552 0.019554 0.0095076
-0.0042066 -0.00030442 -0.0037384 -0.00070326 -0.0012705 -0.00058965 -0.0027246 1.6131e-05
0.019536 0.0095765 -0.099077 0.29393
1160000000 0.072295 0.29735 0.0257 -0.020238 0.0034339 -0.00047067 -0.00026832 -0.0025994
-0.0040869 -0.00099014 -0.001279 0.0043478
0.025728 -0.020193 -0.098016 0.37281 -0.003104 -0.029824 -0.0015414 -0.0018017
-0.0027079 0.0026927 -0.0017457 0.0018565
0.0034364 -0.00050228 -0.0032438 -0.029844 0.2397 0.24463 -0.00074545 0.0018209
-0.00046034 0.001824 -0.0011559 0.00035375
-0.00023679 -0.0026221 -0.0016098 -0.0017426 -0.00072976 0.0017766 0.028154 0.28121
0.022011 -0.010461 -0.0036577 0.0054361
-0.0041406 -0.0010071 -0.0027074 0.002674 -0.00044569 0.0018093 0.021955 -0.010447
-0.04572 0.21538 0.019286 0.00016153
-0.0012998 0.0043409 -0.0017298 0.0019886 -0.0010701 0.00035093 -0.0034784 0.0053058
0.019207 0.00015565 -0.052705 0.29778
1220000000 0.11637 0.28929 0.012414 -0.030651 -0.0012177 -0.0014053 5.9833e-05 -0.00088625
-0.002917 0.0022861 0.0013016 0.0021128
0.01243 -0.030609 -0.053134 0.38754 -0.017163 -0.02208 -0.0026301 0.00053243
6.1795e-05 0.0031404 -0.00078259 0.0019417
-0.0011813 -0.0013892 -0.017272 -0.02205 0.27951 0.20648 0.00089589 0.0016636
0.00063947 0.0012348 0.00021223 0.00064245
7.7191e-05 -0.00091642 -0.0026126 0.00054932 0.00086882 0.0016493 0.068513 0.27372
0.011279 -0.017317 0.0021968 0.0017061
-0.0028718 0.0023406 0.00015587 0.0031364 0.00066784 0.0012406 0.011242 -0.017358
-0.023256 0.22648 0.014982 -0.012984
0.001209 0.0020938 -0.00078606 0.001955 0.00016786 0.00068313 0.0021606 0.0016496
0.015023 -0.012963 -0.022313 0.31632
1280000000 0.16731 0.26969 -0.0070085 -0.029921 -0.0020357 0.0020178 -0.00093005 -0.0020621
-0.0007863 0.0033508 0.0026319 0.0014772
-0.0069948 -0.029878 -0.006006 0.37955 -0.024587 -0.0087137 -0.0009091 0.0015518
0.0017524 0.0017223 0.00071189 0.0022393
-0.0019955 0.0020205 -0.024656 -0.008592 0.31051 0.16287 0.0015731 -0.00010527
0.0010857 0.00024713 0.00034286 0.00040165
-0.00088524 -0.0020429 -0.00088044 0.0015296 0.0015906 -0.00010143 0.10552 0.25773
0.0011554 -0.019827 -9.2529e-05 0.0002384
-0.00079175 0.0033818 0.001783 0.0017338 0.0010616 0.00022499 0.0011262 -0.019806
0.01397 0.23085 0.0035819 -0.015887
0.0026042 0.0014892 0.00072109 0.0022004 0.000298 0.00029407 -2.0035e-06 0.00034055
0.0035856 -0.015889 0.026476 0.31947
1340000000 0.20509 0.2382 -0.017473 -0.020357 0.00041745 0.0044098 -0.0018671 -0.00091538
0.001565 0.0027832 0.0018202 -0.0015152
-0.017433 -0.020331 0.033623 0.37248 -0.02195 0.0045699 -0.00010924 0.0020123
0.0019908 0.0007578 0.0011647 0.00083179
0.00044971 0.0044114 -0.021934 0.0046693 0.33261 0.11602 0.00090881 -0.00099418
0.00065264 -0.0005308 4.4284e-05 0.0002363
-0.0018646 -0.00088171 -9.114e-05 0.002012 0.00091869 -0.0010013 0.13877 0.23796
-0.0087949 -0.017014 0.0011055 0.00044354
0.0015767 0.0027745 0.0020311 0.0007446 0.00065528 -0.00052121 -0.0088225 -0.017041
0.04377 0.2282 -0.0036268 -0.014654
0.0018478 -0.0015937 0.0011911 0.00084377 9.9694e-05 0.00026107 0.0010176 0.000404
-0.0036148 -0.014661 0.06408 0.31616
1400000000 0.24023 0.20159 -0.02413 -0.008547 0.0050652 0.0033224 -0.0022891 0.00072484
0.0027137 0.0010621 0.00036306 -0.0016065
-0.024102 -0.0085401 0.072436 0.35997 -0.014899 0.012972 0.0013179 0.0012731
0.0011697 -0.00079382 0.001198 0.00011128
0.0050761 0.0032799 -0.014869 0.013051 0.34648 0.062951 -3.1978e-05 -0.001483
0.00011078 -0.00037784 0.00052402 0.00024454
-0.0023236 0.00069805 0.0013217 0.0012486 -3.8112e-05 -0.0014888 0.16885 0.20932
-0.015138 -0.0098578 -0.0008999 -0.0002044
0.0027294 0.0010375 0.0012113 -0.00081977 0.00011131 -0.00030392 -0.015129 -0.0098675
0.077934 0.22536 -0.010513 -0.0094894
0.00033567 -0.0016064 0.0012252 5.7829e-05 0.0005191 0.00031445 -0.0008871 -0.00023155
-0.010504 -0.0095002 0.10991 0.3065
1460000000 0.26393 0.15841 -0.021304 0.0044763 0.0055225 -0.001661 -0.0015545 0.0017842
0.0022788 -0.00039456 -0.0003904 -0.0010302
-0.021269 0.0044627 0.10674 0.33804 -0.0054969 0.015845 0.0016279 0.00025506
0.00089484 -0.001286 0.0012011 -0.00063375
0.0055303 -0.0017243 -0.0054175 0.015911 0.35294 0.0092081 -0.0012599 -0.0010897
0.00022182 -0.00011961 0.00078041 -0.00027921
-0.0015354 0.0018186 0.0016497 0.00023213 -0.0012621 -0.0011066 0.1956 0.18052
-0.016038 -0.0025834 -0.00087594 0.0020593
0.0022929 -0.00044333 0.00086737 -0.0013219 0.00022868 -0.00016722 -0.016038 -0.0025678
0.10735 0.21249 -0.012455 -0.0030562
-0.000392 -0.0010482 0.0011523 -0.00059838 0.00079109 -0.00028922 -0.00086013 0.0021174
-0.012448 -0.0030829 0.14311 0.28643
1520000000 0.27776 0.11771 -0.015558 0.010397 0.003408 -0.004174 0.00025124 0.0027179
0.0023502 -0.0019819 -0.0011119 -0.0001115
-0.01554 0.010371 0.1406 0.32438 0.0023724 0.012998 0.001723 -0.00068074
6.7083e-05 -0.00098055 0.00035892 -0.0010299
0.0033824 -0.0041901 0.0024205 0.012991 0.34664 -0.046224 -0.00080031 -0.00026307
0.00071687 -0.00095824 0.00014723 -9.1941e-05
0.00023826 0.0027172 0.0017165 -0.00066837 -0.00083143 -0.00024606 0.21944 0.1427
-0.015061 0.0033946 0.0015221 0.0021961
0.0023449 -0.0020148 5.5318e-05 -0.00097191 0.00071456 -0.00090796 -0.015013 0.0034104
0.13642 0.20057 -0.012452 0.00183
-0.0010999 -0.00011444 0.00035376 -0.0010464 0.00015206 -0.00015166 0.0015265 0.002123
-0.012412 0.0017886 0.17687 0.26818
1580000000 0.28824 0.071726 -0.0085212 0.01396 -0.0010057 -0.004963 0.0015615 0.0018464
-0.00027997 -0.0023223 -0.00020936 0.0004047
-0.0085161 0.013955 0.16823 0.29956 0.0059467 0.0075496 0.00064103 -0.0015293
-0.00047837 -0.0010545 -0.00023809 -0.00075174
-0.0010162 -0.0049355 0.0059896 0.0075172 0.32768 -0.10395 -0.0014893 0.00038384
-0.00033768 -0.0013238 0.00027946 -0.00065747
0.0015502 0.0018382 0.00060605 -0.0015339 -0.0014667 0.00041535 0.2339 0.10326
-0.010905 0.0082982 0.0023607 0.00083677
-0.00031799 -0.0023484 -0.00048585 -0.0010718 -0.0003482 -0.0013416 -0.010913 0.0083034
0.16152 0.18356 -0.0095622 0.007991
-0.00024922 0.00043122 -0.0002588 -0.00075458 0.00023394 -0.00060819 0.0023422 0.00081665
-0.0095685 0.0079735 0.21003 0.24195
1640000000 0.29132 0.031204 -0.001352 0.012673 -0.002954 -0.0025364 0.0028393 0.00092996
-0.00069642 -0.0017287 -0.00027326 0.00054524
-0.0013569 0.012673 0.19744 0.27587 0.0059638 0.0024139 -0.00047029 -0.0018932
-0.00084512 -0.00050146 -0.0005014 -0.00065663
-0.0029456 -0.0025901 0.0059974 0.0023781 0.29894 -0.15273 -0.0006646 0.0012616
-0.0010589 -0.00099186 -0.00017454 -0.00044765
0.0028477 0.00093304 -0.00047649 -0.001902 -0.00068618 0.0012655 0.24659 0.054821
-0.0064614 0.009015 0.0025882 -0.0007481
-0.00071435 -0.0017019 -0.00086252 -0.00048912 -0.0010839 -0.00095579 -0.0064238 0.0090639
0.18505 0.1611 -0.0044806 0.010065
-0.00030909 0.00053476 -0.00053501 -0.00064896 -0.0001906 -0.00041677 0.0026414 -0.00074984
-0.0044753 0.010087 0.23625 0.2123
1700000000 0.28591 -0.013636 0.0021754 0.0096849 -0.0036745 9.0852e-05 0.0030743 -0.0012261
-0.0021562 -0.00061657 0.00071989 0.0004317
0.0021468 0.0096641 0.2163 0.24493 0.0033835 -0.00052528 -0.0014973 -0.00074917
-0.00077005 -0.00015973 -0.0008325 -0.00045228
-0.0036864 0.00010561 0.0033373 -0.00056574 0.25707 -0.19216 0.00015208 0.0014138
-0.0020216 -0.00021709 -0.00047068 -0.00085009
0.0030459 -0.0012355 -0.0015069 -0.00074504 0.00018873 0.001426 0.2444 0.0049612
-0.0035537 0.0090892 0.0017285 -0.0022661
-0.0021913 -0.00060255 -0.00075824 -0.00013933 -0.0020573 -0.0001767 -0.0035343 0.0090908
0.204 0.14194 0.00052706 0.010133
0.000716 0.00043951 -0.00083466 -0.00045906 -0.00045989 -0.00078522 0.0016919 -0.0022814
0.00051789 0.010124 0.25435 0.1787
1760000000 0.27493 -0.062309 0.0044954 0.006212 -0.0023858 0.0012093 0.001274 -0.0035348
-0.0013363 0.00062717 0.00027767 -0.00060333
0.0045114 0.0062106 0.24237 0.20596 0.00053664 -0.0021264 -0.0013512 1.1128e-05
-0.0011586 0.00076405 -0.00056517 0.00034074
-0.0023816 0.0012209 0.00052849 -0.0021168 0.209 -0.22595 0.0010773 0.001172
-0.0012085 0.0013804 -0.0012559 -0.00060907
0.0012844 -0.0035185 -0.0013597 1.7363e-05 0.0010873 0.0011729 0.23571 -0.046754
-0.00063169 0.0079339 -0.00011964 -0.0026028
-0.0013338 0.00061975 -0.0011712 0.00077302 -0.0011811 0.0014136 -0.00062963 0.0079169
0.21943 0.10828 0.0046491 0.0072384
0.00027996 -0.00060461 -0.00055376 0.00037205 -0.0012451 -0.00058928 -0.00012752 -0.0026311
0.0046397 0.0072604 0.26794 0.1411
1820000000 0.25238 -0.09955 0.0046018 0.0025752 8.5451e-05 0.0025669 -0.00095872 -0.0031403
-0.0011375 0.00096057 -0.00022909 -0.00018345
0.0045836 0.0026008 0.25365 0.17706 -0.0017756 -0.00031964 -0.0015067 0.0010236
-0.00020891 0.0012287 -0.00060703 0.00039569
7.695e-05 0.0026277 -0.0018104 -0.00027666 0.15857 -0.24154 0.0015254 0.00056496
-0.00036392 0.0023316 -0.0017642 0.00014535
-0.00096585 -0.0031855 -0.0014962 0.0010231 0.0015957 0.00053851 0.20678 -0.094135
0.00053659 0.0064139 -0.0017079 -0.0018267
-0.0011637 0.00098876 -0.00020391 0.00124 -0.00032519 0.0022764 0.00055388 0.0064218
0.2381 0.080657 0.0055492 0.0033976
-0.00022725 -0.00018598 -0.00060006 0.00038727 -0.0017273 0.00026358 -0.0017206 -0.0017832
0.0055373 0.0033886 0.27187 0.10578
1880000000 0.21829 -0.14106 0.0022502 0.00039823 -0.00030001 0.0024533 -0.0029658 -0.0022754
-0.00018332 0.0017842 0.0001391 -0.0006038
0.0022169 0.0004053 0.25877 0.13074 -0.0038418 0.0024198 -0.00030713 0.0018918
0.00044983 0.0014512 0.000101 0.00093808
-0.00029347 0.0024685 -0.0037938 0.002436 0.10624 -0.2506 0.0020404 -0.00090955
0.0015442 0.0019679 -0.0010751 0.0015541
-0.0029572 -0.0022986 -0.00029471 0.0018771 0.0020083 -0.00085772 0.16639 -0.13519
0.00099115 0.0045612 -0.0025439 0.00013734
-0.00019129 0.0017785 0.00046379 0.001457 0.0015549 0.0019404 0.0010372 0.0045555
0.24312 0.049743 0.0056363 0.00081697
9.1577e-05 -0.00056738 9.4951e-05 0.00097568 -0.00097957 0.0014522 -0.0025137 0.00010193
0.005661 0.00081728 0.2727 0.071216
1940000000 0.17948 -0.16722 4.6216e-05 -0.0012482 0.0017594 0.0019874 -0.0039448 0.00035628
0.0011537 0.0010074 -0.00062925 -0.00045789
4.8846e-05 -0.0012897 0.26045 0.099814 -0.0020118 0.0052859 0.0011273 0.0015118
0.0019428 0.00065877 0.00085805 0.00028867
0.0017851 0.0019483 -0.0020021 0.0053486 0.061625 -0.24302 0.00068763 -0.0023229
0.0023912 0.0005384 0.0001941 0.0017646
-0.0039726 0.00047163 0.0011126 0.0015686 0.00065844 -0.0023206 0.11401 -0.16595
3.4515e-05 0.0034581 -0.0017687 0.0015637
0.0011487 0.0010015 0.0019487 0.00067189 0.0024039 0.00054992 -3.2364e-05 0.0034042
0.24713 0.012763 0.0039908 -0.0028429
-0.00069752 -0.00039962 0.00088831 0.00027962 0.00026915 0.0016892 -0.0017154 0.0015323
0.0039871 -0.0028587 0.2624 0.035428
2000000000 0.1345 -0.18284 -0.0036517 0.00084968 0.0029804 0.0013966 -0.0024894 0.0036634
0.0010682 0.00037235 -0.00066299 0.00042836
-0.0036133 0.00087723 0.24781 0.06427 -0.0008777 0.0074751 0.0017732 0.0002947
0.0014122 -0.0011552 0.00037406 3.3619e-05
0.0029409 0.0013668 -0.00085303 0.0074187 0.019096 -0.22906 -0.0014707 -0.0017234
0.0020995 -0.0011792 0.0015764 0.0013786
-0.0025371 0.0038226 0.0017571 0.00029674 -0.0014503 -0.0017381 0.060851 -0.17653
-0.0014699 0.0034898 -0.00015342 0.0022673
0.0010099 0.00035166 0.0014119 -0.0011704 0.0020915 -0.0012251 -0.0014519 0.0035396
0.24404 -0.020074 0.00058468 -0.0036394
