!Keysight Technologies,M9804A,MY58100912,A.14.10.03
!Date: Thursday, April 27, 2023 10:28:33
!Correction: S11(C  6-Port  ) 
!S12(C  6-Port  ) 
!S13(C  6-Port  ) 
!S14(C  6-Port  ) 
!S15(C  6-Port  ) 
!S16(C  6-Port  ) 
!S21(C  6-Port  ) 
!S22(C  6-Port  ) 
!S23(C  6-Port  ) 
!S24(C  6-Port  ) 
!S25(C  6-Port  ) 
!S26(C  6-Port  ) 
!S31(C  6-Port  ) 
!S32(C  6-Port  ) 
!S33(C  6-Port  ) 
!S34(C  6-Port  ) 
!S35(C  6-Port  ) 
!S36(C  6-Port  ) 
!S41(C  6-Port  ) 
!S42(C  6-Port  ) 
!S43(C  6-Port  ) 
!S44(C  6-Port  ) 
!S45(C  6-Port  ) 
!S46(C  6-Port  ) 
!S51(C  6-Port  ) 
!S52(C  6-Port  ) 
!S53(C  6-Port  ) 
!S54(C  6-Port  ) 
!S55(C  6-Port  ) 
!S56(C  6-Port  ) 
!S61(C  6-Port  ) 
!S62(C  6-Port  ) 
!S63(C  6-Port  ) 
!S64(C  6-Port  ) 
!S65(C  6-Port  ) 
!S66(C  6-Port  ) 
!S6P File: Measurement: :
# Hz S  RI   R 50
500000000 -0.33235 -0.067444 -0.011428 -0.00092526 -0.0092918 0.013946 -0.004194 0.012058
0.012883 0.0056349 -0.0051109 0.0081613
-0.011412 -0.00092274 -0.41355 -0.075278 0.0072752 -0.0097496 0.00083801 0.01244
0.0080406 0.0035497 0.00044757 0.014577
-0.0092703 0.013961 0.0072647 -0.009775 -0.26657 0.191 0.0064403 0.0040709
-0.0022531 0.0091992 0.00054609 0.012676
-0.0041738 0.012026 0.0009077 0.012453 0.0064331 0.0040479 -0.33116 0.036439
-0.021093 -0.003335 0.015994 0.026467
0.012878 0.005619 0.0080398 0.0035411 -0.0022539 0.0091675 -0.021082 -0.0033621
-0.23263 -0.22262 -0.030132 0.00544
-0.0040321 0.0075582 0.00095899 0.013916 0.00016632 0.012187 0.016222 0.025309
-0.02969 0.0060575 -0.26288 -0.14393
560000000 -0.3205 0.10327 -0.022339 -0.066884 2.4408e-05 0.014559 0.0050575 0.012087
0.010285 0.0053901 0.010767 0.0085353
-0.022273 -0.066796 -0.37421 0.092135 -0.042221 -0.038621 0.014056 0.0046035
-0.012563 -0.0041476 0.0027772 -0.00078563
5.4087e-05 0.014552 -0.042341 -0.038573 -0.18698 0.24388 -0.00034417 -0.004529
0.019102 0.0080656 0.0076006 -0.0063335
0.0051139 0.012093 0.01403 0.0046214 -0.00031942 -0.0045415 -0.30793 0.13038
0.00476 -0.022574 0.0051855 -0.021795
0.010384 0.0053385 -0.012826 -0.0039959 0.019102 0.0080021 0.0043413 -0.022588
-0.30879 -0.036575 0.010098 -0.0523
0.01101 0.0096687 0.0032086 -0.00013887 0.007631 -0.0060976 0.0050316 -0.021906
0.010199 -0.052311 -0.33356 0.0079748
620000000 -0.2799 0.081177 -0.023847 0.010091 0.0044484 0.0098406 0.0086853 -0.0044273
0.012814 -0.00060887 0.00048719 -0.0014158
-0.023844 0.010084 -0.40322 0.037921 -0.017996 0.0013213 -0.0013671 -0.0021849
0.013363 -0.0052064 0.00084205 -0.0025647
0.004465 0.0098374 -0.018021 0.0013673 -0.15726 0.25388 -0.00036471 -0.0053336
-0.0026613 -0.0025319 0.0099148 -0.0025497
0.0086489 -0.0044286 -0.0013768 -0.0021831 -0.00037514 -0.0053392 -0.26419 0.14118
-0.040422 -0.018926 0.014551 0.030375
0.012852 -0.00063499 0.0134 -0.005235 -0.0025677 -0.0025203 -0.040309 -0.019046
-0.22481 -0.076181 -0.044691 0.012369
0.00037684 -0.0023939 0.00085958 -0.0029688 0.0099539 -0.0032377 0.015286 0.028712
-0.045161 0.0131 -0.24616 -0.027227
680000000 -0.24518 0.17738 -0.026487 -0.014062 0.0053142 0.0055653 0.0017637 -0.0071334
-0.0010331 -0.011586 0.0062203 -0.0073468
-0.026454 -0.014063 -0.39161 0.1408 -0.031921 -0.0023667 -0.0013307 -0.0004967
-0.0010023 -0.009801 -0.00067025 -0.0025113
0.0053208 0.0055542 -0.031973 -0.0022746 -0.10698 0.27572 -0.0010074 -0.00070152
-0.0010905 9.8114e-06 -0.0028795 -0.009739
0.0017554 -0.0071369 -0.0013314 -0.00046637 -0.0010013 -0.00069846 -0.22053 0.19333
-0.023717 -0.0059851 -0.00891 -0.011302
-0.0010556 -0.011608 -0.0010284 -0.0098081 -0.001101 2.58e-05 -0.023818 -0.0059699
-0.28481 0.031006 -0.0070434 -0.0067108
0.0061871 -0.0070366 -0.00052912 -0.0023004 -0.0026721 -0.009456 -0.0093682 -0.011082
-0.0066659 -0.0061494 -0.26289 0.077661
740000000 -0.19631 0.1699 -0.040382 0.027889 0.014556 -0.004487 0.00027817 -0.0041408
-0.0046347 -0.0030702 -0.0063993 0.0025462
-0.040346 0.027855 -0.33617 0.15906 -0.037198 0.035039 8.2249e-05 -0.0065468
-0.013658 0.0067575 -0.00091661 -0.0057375
0.01453 -0.0045515 -0.037137 0.035183 -0.073523 0.27285 -0.0022231 0.0031144
-0.002107 -0.0059212 -0.0024557 0.00073099
0.00025233 -0.0041371 0.00010789 -0.0065415 -0.0022483 0.00311 -0.20416 0.20145
-0.043484 -0.0096059 0.02337 0.017699
-0.0046394 -0.0031015 -0.013622 0.0065764 -0.0020016 -0.00587 -0.043385 -0.0096405
-0.18107 0.064904 -0.04401 0.00081796
-0.0066756 0.0023876 -0.0007003 -0.0061569 -0.0022004 0.0010174 0.024065 0.017342
-0.045439 0.00018574 -0.25319 0.085737
800000000 -0.16555 0.21586 -0.021671 0.016286 0.0060793 -0.010632 -0.0047159 -0.0024294
-0.0049049 0.001047 0.0030707 0.00013513
-0.021683 0.01627 -0.34398 0.23052 -0.0087544 0.034163 -0.0023908 0.001872
-0.0012763 0.0021969 0.00023668 0.0054082
0.006065 -0.010646 -0.0086498 0.034224 -0.035299 0.29807 0.00060311 0.0016091
-0.00028095 0.0031847 -0.0017648 0.00088776
-0.0047046 -0.0024249 -0.0023693 0.001882 0.00061377 0.0015985 -0.17494 0.22858
-0.028266 0.013541 0.015365 -0.011058
-0.0048167 0.0010957 -0.0012367 0.0022524 -0.00024332 0.0032065 -0.028328 0.013587
-0.22904 0.089625 -0.018499 0.02146
0.0032613 0.00066694 0.00020292 0.0052655 -0.0019604 0.0010471 0.014799 -0.010687
-0.017634 0.021049 -0.24653 0.13583
860000000 -0.13097 0.23552 -0.017701 0.030203 -0.0026056 -0.010635 -0.0017969 0.00024566
0.0035611 0.0057677 -0.0037476 -0.0027405
-0.017721 0.030184 -0.297 0.2743 0.0072354 0.034842 -0.00013165 0.0020759
0.0032161 0.001336 0.0033629 0.00012228
-0.0026359 -0.010626 0.0073532 0.034854 0.011591 0.3076 -0.00058277 -0.00010341
0.0024694 -0.0013525 0.00168 0.0039412
-0.0018168 0.00025074 -0.00014163 0.0020952 -0.00058665 -0.00010497 -0.13836 0.23935
-0.017885 0.017908 -0.0064351 -0.0092022
0.0035516 0.0056446 0.0032506 0.0013212 0.0024523 -0.0013421 -0.01787 0.017946
-0.17115 0.1451 -0.025183 0.017381
-0.0041582 -0.0028959 0.003206 0.00013415 0.0017271 0.0040436 -0.0063391 -0.009189
-0.025691 0.01708 -0.19713 0.18182
920000000 -0.10817 0.25814 0.0048788 0.038353 -0.0094122 -0.0057476 -0.0020728 0.0012652
0.00049386 0.0016916 0.0027741 -0.0010629
0.0048406 0.03832 -0.27003 0.29585 0.028392 0.023134 0.0013204 0.0011577
0.0080703 0.00013566 0.0045991 -0.0026734
-0.0094212 -0.0057249 0.028491 0.023064 0.056926 0.31022 0.0019302 9.2882e-05
0.00079504 -0.00035402 0.00086971 -0.0018981
-0.0020493 0.0012486 0.0013227 0.0011601 0.0019181 7.7976e-05 -0.11425 0.25647
-0.01129 0.030786 0.0047732 -0.0069895
0.00049257 0.0017498 0.0080412 0.00017158 0.00076201 -0.00036146 -0.011315 0.030734
-0.16328 0.14971 -0.0015746 0.027693
0.0031386 -0.0011722 0.0046662 -0.0030297 0.00082787 -0.0018931 0.0046022 -0.0069763
-0.0011965 0.027754 -0.2051 0.19517
980000000 -0.062626 0.2792 0.016426 0.029928 -0.010061 0.0039554 0.0013605 0.0035925
0.0040665 -0.0013864 -0.003194 -0.0027636
0.016396 0.029915 -0.2184 0.33176 0.033718 0.0056189 0.0021089 -0.00015412
0.0022517 -0.0062991 -6.3858e-05 -0.0029573
-0.010047 0.0039954 0.033777 0.0055035 0.10312 0.30542 0.00073238 -0.0011899
0.00055639 -0.0018898 0.0011091 -0.00038548
0.0013729 0.0035897 0.0020934 -0.00016534 0.00073725 -0.0011896 -0.076167 0.2667
0.0079227 0.029439 -0.0098193 -0.0083363
0.0040685 -0.001457 0.0022638 -0.006326 0.00054935 -0.0019182 0.0080009 0.029498
-0.13078 0.18328 0.0062262 0.020514
-0.0032701 -0.0027308 -0.00017543 -0.0029082 0.0011698 -0.00050931 -0.0097802 -0.0082403
0.006239 0.020336 -0.1644 0.24171
1040000000 -0.022678 0.28867 0.033051 0.019345 -0.0020168 0.007128 0.0021978 0.00093988
0.00041219 -0.0031971 -0.00022616 -0.0020006
0.033009 0.019338 -0.18441 0.34622 0.030508 -0.01469 0.0015947 -0.0017176
-0.0022944 -0.0029059 -0.0014032 -0.0029446
-0.0019919 0.0071438 0.030467 -0.014831 0.14945 0.29363 -0.0005007 -0.0016632
-0.0017142 -0.00096977 -0.00090695 -0.00096012
0.0022151 0.00093209 0.0015717 -0.0017212 -0.00048948 -0.0016573 -0.049807 0.27668
0.01945 0.019048 -0.0023705 0.00070021
0.00040364 -0.0031931 -0.0023354 -0.0028388 -0.0017161 -0.00096743 0.01945 0.019046
-0.098817 0.19042 0.014776 0.019361
-0.00013554 -0.0019535 -0.0014231 -0.0030433 -0.00089597 -0.00092321 -0.0023278 0.00061103
0.014867 0.019395 -0.14331 0.26394
1100000000 0.021937 0.29912 0.036886 -0.0034184 0.002735 0.004316 0.0023598 -0.00060261
-0.0022057 -0.0030264 -0.0043115 5.2695e-05
0.036844 -0.0034037 -0.14146 0.36584 0.016121 -0.028606 9.0315e-05 -0.0019003
-0.0039308 -0.0011809 -0.0036972 -0.00053039
0.0027473 0.0043218 0.016025 -0.02871 0.19664 0.27469 -0.0020227 0.00016913
-0.0020113 0.00063098 -0.0013136 -0.00022123
0.0023575 -0.00061824 7.6398e-05 -0.0018996 -0.0020264 0.00017406 -0.010144 0.28216
0.025309 0.0055229 -0.0028517 -0.00041762
-0.0022102 -0.0030404 -0.0039203 -0.0011806 -0.0020237 0.00061637 0.025243 0.0055124
-0.079151 0.20471 0.02055 0.009772
-0.0042989 7.7223e-05 -0.0037448 -0.00045194 -0.0012997 -0.00021291 -0.0029114 -0.00045658
0.02069 0.0096152 -0.096619 0.29436
1160000000 0.072337 0.29666 0.024983 -0.0208 0.0028384 -0.00038531 5.0164e-05 -0.0020353
-0.004229 -0.001016 -0.0015153 0.0042752
0.024994 -0.020775 -0.098592 0.37203 -0.00378 -0.03 -0.0015121 -0.0017751
-0.0031723 0.0028161 -0.0019155 0.0021305
0.0028333 -0.00039601 -0.0039239 -0.030023 0.24042 0.24452 -0.00090623 0.0018283
-0.00049118 0.0021177 -0.00094432 0.00058162
5.6663e-05 -0.0020327 -0.001535 -0.0017577 -0.00089419 0.0018246 0.028213 0.28008
0.021771 -0.011073 -0.0038706 0.0048851
-0.0042283 -0.00097417 -0.0031843 0.0029003 -0.00049544 0.0021432 0.021875 -0.011118
-0.044776 0.21298 0.020126 -0.00056521
-0.001462 0.0042929 -0.0018351 0.0019921 -0.00096279 0.00060981 -0.0038651 0.0048338
0.019916 -0.0002762 -0.050202 0.29858
1220000000 0.11593 0.28849 0.011251 -0.030862 -0.0016126 -0.00086332 0.00043248 -0.0009735
-0.0029428 0.0022318 0.0011277 0.0023993
0.011257 -0.030825 -0.054164 0.38724 -0.017636 -0.021988 -0.0027182 0.00041509
-0.00010671 0.0035519 -0.00081208 0.0021802
-0.0016102 -0.00085085 -0.017755 -0.02195 0.28 0.2058 0.00086968 0.0019633
0.00074291 0.00134 0.00046596 0.00066735
0.0004353 -0.00097711 -0.002729 0.00041813 0.00087736 0.0019586 0.067961 0.27309
0.010845 -0.017862 0.0015372 0.0015918
-0.0029251 0.0022267 -7.4818e-05 0.0035513 0.00074077 0.0013409 0.01079 -0.017831
-0.023187 0.22367 0.015167 -0.013984
0.0011026 0.002377 -0.00081125 0.0022407 0.00054121 0.00072563 0.0015293 0.0016076
0.015122 -0.014029 -0.019905 0.31592
1280000000 0.16682 0.26956 -0.0080638 -0.029591 -0.0020514 0.002681 -0.00074859 -0.0023829
-0.001034 0.0034954 0.0027072 0.0015771
-0.0080466 -0.029565 -0.0069759 0.38011 -0.025118 -0.0084391 -0.0010995 0.0015816
0.0021113 0.002147 0.00086092 0.0022048
-0.0020448 0.0026953 -0.025194 -0.0083423 0.31056 0.16217 0.0018663 4.0758e-05
0.0013743 0.00015722 0.00045995 0.00016821
-0.00075996 -0.0023713 -0.0010905 0.0015956 0.001871 4.6221e-05 0.1049 0.25767
0.00048783 -0.02022 -0.00057442 0.00061856
-0.000983 0.0034848 0.0021046 0.002128 0.0013764 0.00015668 0.00047033 -0.020226
0.01283 0.22815 0.0035758 -0.017007
0.0027603 0.0016126 0.00088233 0.0021623 0.00046763 0.00016128 -0.00054909 0.00062866
0.0034911 -0.01709 0.027994 0.31913
1340000000 0.2044 0.23825 -0.01832 -0.019323 0.00081165 0.0050337 -0.0020107 -0.0012595
0.0016009 0.0029574 0.0022829 -0.0014259
-0.018298 -0.019318 0.03333 0.3733 -0.022201 0.0051619 -0.00013032 0.0022111
0.0023804 0.00074533 0.0013852 0.00081477
0.00082791 0.0050382 -0.022204 0.0052634 0.33225 0.11518 0.0011182 -0.0011346
0.00062736 -0.00064283 0.00013859 0.00014842
-0.00202 -0.0012718 -0.00011692 0.0022108 0.0011196 -0.0011308 0.13841 0.23864
-0.0096576 -0.016913 0.0006979 0.00097392
0.0016185 0.0029557 0.0024052 0.00073352 0.00062427 -0.00064622 -0.0097037 -0.016953
0.041489 0.22565 -0.0044766 -0.015611
0.0022486 -0.001539 0.001401 0.00082407 0.00015704 0.00011219 0.00070667 0.0010291
-0.0044648 -0.015511 0.066328 0.31525
1400000000 0.23987 0.20213 -0.024346 -0.0071812 0.0057007 0.0036573 -0.0024844 0.00067196
0.0027544 0.0012093 0.00051256 -0.0018173
-0.024311 -0.0071859 0.072385 0.36113 -0.014884 0.013654 0.0015742 0.0013949
0.0013845 -0.0010844 0.0012782 0.0001171
0.0057183 0.0036353 -0.014835 0.013739 0.3457 0.062843 -2.5264e-05 -0.001802
0.00014264 -0.00036761 0.00044382 0.00027974
-0.002479 0.00068292 0.0015876 0.0013834 -2.6595e-05 -0.0017971 0.16892 0.21016
-0.015901 -0.0095621 -0.00079862 0.00039129
0.0027593 0.0012144 0.0013736 -0.0010809 0.00013039 -0.00035564 -0.015898 -0.009516
0.074965 0.22357 -0.011581 -0.0098284
0.00052872 -0.0018249 0.0012947 3.7506e-05 0.00036776 0.0002144 -0.00088964 0.00039885
-0.011611 -0.0098976 0.1115 0.30513
1460000000 0.26413 0.15912 -0.020705 0.0057433 0.0062394 -0.0017636 -0.0017389 0.0019336
0.0024781 -0.00041064 -0.00041099 -0.0011859
-0.020688 0.0057374 0.10751 0.33897 -0.0050348 0.016496 0.0018013 0.00012574
0.00087475 -0.0015804 0.0012458 -0.00064521
0.0062346 -0.0018002 -0.0049599 0.016539 0.3524 0.0094579 -0.0014167 -0.0012264
0.00021209 -0.00012063 0.0006691 -0.00032129
-0.0017256 0.0019372 0.0018116 0.00010567 -0.0014257 -0.0012324 0.19623 0.18132
-0.016664 -0.0018288 -0.00050762 0.0024635
0.0024732 -0.00042346 0.00085816 -0.0015944 0.00020812 -0.00013714 -0.016684 -0.0017977
0.10414 0.21175 -0.013699 -0.002945
-0.00043078 -0.0012226 0.0012309 -0.00063028 0.00072302 -0.00028868 -0.00045889 0.0024098
-0.013696 -0.0029585 0.14445 0.28498
1520000000 0.27849 0.11808 -0.014417 0.01112 0.0039352 -0.0046845 0.00019996 0.0028913
0.0024585 -0.0021504 -0.0013808 -0.00020981
-0.014412 0.011104 0.14156 0.32489 0.003094 0.0132 0.0017117 -0.00090795
-0.00016016 -0.0010553 0.00036634 -0.0011038
0.0039107 -0.0047002 0.0031717 0.013198 0.34648 -0.045596 -0.0011275 -0.00022126
0.00075484 -0.001033 0.00019011 -0.00025242
0.00019998 0.0028974 0.0017155 -0.00091883 -0.0011341 -0.00022385 0.22054 0.14325
-0.015276 0.0043486 0.0019381 0.0024512
0.0024428 -0.0021647 -0.00016289 -0.0010557 0.00076782 -0.0010362 -0.015291 0.0043608
0.13298 0.20077 -0.013432 0.0024945
-0.0013795 -0.00014477 0.00037124 -0.0011177 0.00017539 -0.00028875 0.0019017 0.0024562
-0.013437 0.0024984 0.1774 0.26603
1580000000 0.28946 0.071849 -0.0072284 0.014066 -0.00084894 -0.0055457 0.001739 0.0018833
-0.00028295 -0.0025463 -0.00034392 0.00058846
-0.0072299 0.014054 0.16925 0.29979 0.0066279 0.0074667 0.00041875 -0.0016957
-0.00061881 -0.0009372 -0.00021283 -0.00085072
-0.00087007 -0.0055402 0.0066701 0.0074423 0.32794 -0.10323 -0.0015167 0.00056132
-0.00044541 -0.0015009 0.00021937 -0.00065613
0.0017393 0.0018785 0.00040697 -0.0017036 -0.0015155 0.00055841 0.23513 0.1035
-0.010636 0.009247 0.0028087 0.00059831
-0.00028214 -0.0025602 -0.00060977 -0.00095146 -0.00045246 -0.0015116 -0.010588 0.0092884
0.15862 0.18489 -0.010047 0.0088474
-0.00035183 0.0005824 -0.00024013 -0.00085409 0.00023046 -0.0005924 0.0028274 0.000601
-0.01011 0.008918 0.21026 0.24045
1640000000 0.29241 0.030529 -0.00031129 0.012142 -0.003282 -0.0030943 0.0029731 0.00099786
-0.00095268 -0.0018294 -0.00029767 0.00057614
-0.00031666 0.012142 0.19841 0.27574 0.0064757 0.002055 -0.00064937 -0.0018396
-0.00084518 -0.0003679 -0.00054474 -0.00077255
-0.0032967 -0.0030816 0.0064824 0.002013 0.29971 -0.15221 -0.00060955 0.0014709
-0.0012984 -0.001078 -0.00031976 -0.00053324
0.0029697 0.00099659 -0.0006606 -0.0018321 -0.00059456 0.0014718 0.24809 0.054551
-0.0056538 0.0098506 0.0028847 -0.00092905
-0.00096957 -0.0018232 -0.00084273 -0.00035976 -0.0012849 -0.0010878 -0.0056644 0.0098308
0.183 0.16295 -0.0047573 0.011303
-0.0002999 0.00059449 -0.0005717 -0.00072975 -0.00032647 -0.00052048 0.0028496 -0.00096591
-0.0046784 0.011229 0.23603 0.21071
1700000000 0.28637 -0.014799 0.0028862 0.0087233 -0.0041314 -6.6156e-05 0.0032366 -0.0013791
-0.0023533 -0.00057796 0.00064448 0.00036296
0.002871 0.0087258 0.21711 0.24462 0.0035796 -0.0010899 -0.0015748 -0.00059697
-0.00073064 -0.00016815 -0.00099723 -0.000419
-0.0041228 -3.7779e-05 0.0035803 -0.0011087 0.25753 -0.19247 0.00029478 0.0014956
-0.0022741 -4.3514e-05 -0.00057871 -0.00072716
0.0032396 -0.0013999 -0.0015826 -0.00058585 0.00030425 0.0015059 0.24544 0.0041869
-0.0027077 0.0093245 0.001907 -0.0023908
-0.0023395 -0.00058052 -0.0007232 -0.00017161 -0.0022695 -5.0539e-05 -0.0026675 0.0093707
0.20242 0.14398 0.00073279 0.011309
0.0006307 0.00037593 -0.0010092 -0.00041458 -0.00060261 -0.00072159 0.0019163 -0.0024137
0.00071344 0.011291 0.25382 0.17747
1760000000 0.27509 -0.063223 0.0046696 0.0050799 -0.0027724 0.0011729 0.0012957 -0.0036863
-0.0013363 0.00079715 0.00036372 -0.00065327
0.0046665 0.0050782 0.24314 0.20559 0.00054366 -0.0026611 -0.0012564 0.00014301
-0.001126 0.00070948 -0.00063544 0.00038735
-0.0027606 0.0011896 0.00053437 -0.002666 0.20944 -0.22583 0.0011461 0.0010903
-0.0012095 0.0016512 -0.0015822 -0.0005036
0.0012763 -0.0037002 -0.0012571 0.00015512 0.0011521 0.0010979 0.23663 -0.047787
0.00035537 0.0076847 -0.00011531 -0.002896
-0.0013401 0.00082649 -0.0011257 0.00073145 -0.0011897 0.0016518 0.00038423 0.0076582
0.21897 0.11039 0.0051863 0.0081939
0.00034382 -0.00065582 -0.00064758 0.00039757 -0.0015422 -0.00047578 -5.2199e-05 -0.0029085
0.005289 0.0081949 0.26758 0.14069
1820000000 0.2519 -0.10048 0.0042101 0.0015668 -0.00029396 0.0026584 -0.0011323 -0.0032511
-0.001031 0.0011137 -0.00019427 -0.00017583
0.0042099 0.0015653 0.25435 0.17643 -0.0020787 -0.00075703 -0.0014165 0.00099641
-0.00025239 0.0011824 -0.00065777 0.00054108
-0.00027373 0.0026544 -0.0020858 -0.0007472 0.15879 -0.24155 0.0016041 0.00050152
1.5029e-06 0.0025578 -0.0015454 0.00038631
-0.0011377 -0.0032543 -0.00141 0.001005 0.0015984 0.00049602 0.20715 -0.095552
0.0013357 0.0057871 -0.0016782 -0.0022118
-0.0010079 0.0010953 -0.00023807 0.0011694 -3.6948e-05 0.0025479 0.0012926 0.0058212
0.2382 0.082408 0.0066127 0.0039562
-0.00019499 -0.00019713 -0.00066066 0.00053586 -0.0015687 0.00048311 -0.0016098 -0.0021509
0.0066044 0.0039776 0.27126 0.10551
1880000000 0.21789 -0.14154 0.0014738 -0.00029894 -0.00073167 0.0027491 -0.0031056 -0.0022153
-0.00010194 0.0016332 -6.2927e-05 -0.00060117
0.0014663 -0.00030393 0.25923 0.13014 -0.0043432 0.0020835 -0.00023148 0.0018443
0.00031234 0.0014567 0.00014433 0.0010132
-0.0007055 0.002754 -0.0043385 0.0021215 0.10648 -0.25052 0.0020072 -0.00096123
0.0018187 0.0019357 -0.00078143 0.0016157
-0.0031217 -0.0022026 -0.00022358 0.0018492 0.0020169 -0.00096433 0.16632 -0.13644
0.0013449 0.0035748 -0.0026251 -0.0003839
-0.00014254 0.0016597 0.00033122 0.0014709 0.0018182 0.0019185 0.0014265 0.0035837
0.24365 0.051064 0.0070299 0.00092337
-5.9035e-05 -0.00054792 0.00013182 0.0010054 -0.00074003 0.0016023 -0.0025859 -0.00033086
0.0070543 0.00093349 0.27268 0.071403
1940000000 0.17926 -0.16752 -0.0009336 -0.001446 0.0016025 0.0026596 -0.0039255 0.00044982
0.0011957 0.00081908 -0.00072343 -0.00028017
-0.00093032 -0.001442 0.26081 0.09895 -0.0025854 0.0053575 0.001095 0.0014487
0.0019093 0.00077353 0.00093186 0.00038275
0.0016265 0.0026449 -0.0025561 0.0053778 0.062186 -0.24317 0.00060129 -0.0022768
0.0024653 0.00020406 0.00065036 0.0014983
-0.003933 0.00046725 0.0010958 0.0014548 0.00058912 -0.0022652 0.11358 -0.16707
-6.8726e-05 0.0024126 -0.0022307 0.0011986
0.0012082 0.00078931 0.0019246 0.00078591 0.0024561 0.00024801 -0.00015122 0.0024088
0.24797 0.013414 0.0052484 -0.003408
-0.00080203 -0.00026098 0.00091851 0.00034294 0.00059959 0.0015349 -0.00229 0.0013017
0.0052414 -0.0034218 0.26272 0.035647
2000000000 0.13405 -0.18309 -0.0044771 0.0011301 0.0031426 0.001753 -0.0024725 0.0038514
0.00090017 0.00039273 -0.00042908 0.0006568
-0.0044678 0.0011296 0.24778 0.063652 -0.0013808 0.0078617 0.0017464 0.00029384
0.0015398 -0.001018 0.00050955 7.8401e-05
0.0031572 0.0017376 -0.0013313 0.0078764 0.019437 -0.22922 -0.0013698 -0.00174
0.0019889 -0.0013153 0.0017938 0.0012558
-0.0024552 0.0038833 0.0017422 0.00027327 -0.0013618 -0.0017405 0.059827 -0.17709
-0.0022588 0.002815 -0.00083424 0.002474
0.00086958 0.00041967 0.0014942 -0.0010231 0.0020089 -0.001305 -0.002207 0.0028854
0.24417 -0.019763 0.0012059 -0.0047364
