!Keysight Technologies,M9804A,MY58100912,A.14.10.03
!Date: Thursday, April 27, 2023 10:28:33
!Correction: S11(C  6-Port  ) 
!S12(C  6-Port  ) 
!S13(C  6-Port  ) 
!S14(C  6-Port  ) 
!S15(C  6-Port  ) 
!S16(C  6-Port  ) 
!S21(C  6-Port  ) 
!S22(C  6-Port  ) 
!S23(C  6-Port  ) 
!S24(C  6-Port  ) 
!S25(C  6-Port  ) 
!S26(C  6-Port  ) 
!S31(C  6-Port  ) 
!S32(C  6-Port  ) 
!S33(C  6-Port  ) 
!S34(C  6-Port  ) 
!S35(C  6-Port  ) 
!S36(C  6-Port  ) 
!S41(C  6-Port  ) 
!S42(C  6-Port  ) 
!S43(C  6-Port  ) 
!S44(C  6-Port  ) 
!S45(C  6-Port  ) 
!S46(C  6-Port  ) 
!S51(C  6-Port  ) 
!S52(C  6-Port  ) 
!S53(C  6-Port  ) 
!S54(C  6-Port  ) 
!S55(C  6-Port  ) 
!S56(C  6-Port  ) 
!S61(C  6-Port  ) 
!S62(C  6-Port  ) 
!S63(C  6-Port  ) 
!S64(C  6-Port  ) 
!S65(C  6-Port  ) 
!S66(C  6-Port  ) 
!S6P File: Measurement: :
# Hz S  RI   R 50
500000000 -0.33031 -0.067622 -0.009904 -0.0014507 -0.0090135 0.013103 -0.0037472 0.01268
0.013928 0.0046972 -0.0040048 0.0086311
-0.0098172 -0.001444 -0.41148 -0.07577 0.0088084 -0.010326 0.00087917 0.011769
0.0087195 0.0030173 0.0018498 0.012922
-0.0089839 0.012964 0.0087153 -0.010457 -0.2645 0.18949 0.0070088 0.0029623
-0.0019602 0.0092321 0.00037322 0.011471
-0.0039667 0.012397 0.001124 0.011946 0.0068518 0.002895 -0.32941 0.036295
-0.020439 -0.003139 0.017439 0.026517
0.014053 0.004935 0.0086443 0.0028904 -0.0019239 0.0091889 -0.020352 -0.0030007
-0.23267 -0.21876 -0.029243 0.0064206
-0.004041 0.0084994 0.0018415 0.013073 0.00045671 0.011381 0.017349 0.026064
-0.029406 0.0067601 -0.26251 -0.14576
560000000 -0.31966 0.10201 -0.022084 -0.066716 -0.00045812 0.013644 0.0050737 0.011213
0.011522 0.0050322 0.01113 0.0096693
-0.021934 -0.066589 -0.37343 0.090501 -0.040818 -0.040168 0.014111 0.0037754
-0.012144 -0.0044492 0.0038784 -0.00032265
-0.0003402 0.013728 -0.041145 -0.040204 -0.18675 0.24245 -0.00052094 -0.0049401
0.017546 0.0076217 0.0080125 -0.0071126
0.0045089 0.011819 0.01437 0.0041688 -0.00063242 -0.0051637 -0.30697 0.12907
0.0062246 -0.024111 0.0044617 -0.021709
0.01149 0.0049373 -0.011961 -0.0045289 0.017429 0.0074544 0.0060655 -0.024377
-0.30901 -0.03533 0.011857 -0.052293
0.01144 0.0097559 0.0038 -0.00036658 0.0077706 -0.0070649 0.0053549 -0.022049
0.012135 -0.052234 -0.33402 0.0080073
620000000 -0.27815 0.080114 -0.023552 0.0089807 0.0036257 0.009184 0.0080466 -0.0041971
0.011983 -0.0015183 3.6109e-05 -0.0027714
-0.023558 0.0089814 -0.4023 0.036306 -0.018472 0.00020785 -0.0017251 -0.0023475
0.012637 -0.0050186 0.0015649 -0.0035748
0.0035781 0.0090985 -0.018592 0.00031066 -0.15811 0.25163 -0.0012533 -0.0054687
-0.0026588 -0.0023731 0.0093958 -0.0040649
0.0082201 -0.0047704 -0.0015566 -0.0024141 -0.0011932 -0.0054926 -0.26467 0.14095
-0.038853 -0.021969 0.012127 0.028835
0.01145 -0.0011561 0.012728 -0.0050202 -0.0026617 -0.0022626 -0.038523 -0.022146
-0.22529 -0.069909 -0.040301 0.011419
-2.7713e-05 -0.0028714 0.0015328 -0.0035782 0.0093207 -0.0040763 0.012459 0.029524
-0.040713 0.011542 -0.24836 -0.032815
680000000 -0.24402 0.17516 -0.026217 -0.015207 0.0048165 0.00565 0.0018574 -0.0075412
-0.0016749 -0.011993 0.0062371 -0.0066526
-0.026176 -0.015222 -0.39177 0.13849 -0.032716 -0.0029248 -0.0013938 -0.00039399
-0.0015523 -0.0096805 -0.0010627 -0.0018745
0.0048859 0.0057671 -0.032774 -0.002812 -0.10844 0.27384 -0.00086544 -0.00026027
-0.0016003 0.00045803 -0.0028658 -0.0094503
0.0018093 -0.0074123 -0.0015356 -0.00036919 -0.00080231 -0.00020742 -0.22206 0.19093
-0.022827 -0.0082284 -0.0094985 -0.011737
-0.0016953 -0.012116 -0.0016618 -0.009637 -0.0015639 0.00048126 -0.022882 -0.0083651
-0.28238 0.031789 -0.0060266 -0.0071617
0.0063663 -0.0067942 -0.00099439 -0.0019014 -0.0029719 -0.0095995 -0.0096541 -0.012014
-0.006001 -0.0072261 -0.26294 0.07744
740000000 -0.1975 0.16805 -0.040967 0.026711 0.014188 -0.004361 8.448e-05 -0.0044336
-0.0048821 -0.0020084 -0.0058337 0.0023523
-0.040962 0.026693 -0.33758 0.1578 -0.037934 0.034969 0.00023428 -0.0061033
-0.013045 0.0075172 -0.0010241 -0.0062472
0.014172 -0.0042619 -0.037991 0.035175 -0.075501 0.27204 -0.0019548 0.0033392
-0.0016003 -0.0058024 -0.0015347 0.0011425
-4.9522e-05 -0.0045297 0.0004074 -0.0061135 -0.0020242 0.0034272 -0.20537 0.19896
-0.043232 -0.010187 0.022833 0.016788
-0.0046513 -0.0024246 -0.013256 0.0078148 -0.001694 -0.0057498 -0.042907 -0.010156
-0.18081 0.065287 -0.043448 -0.0021678
-0.0060509 0.0024304 -0.00091813 -0.0062296 -0.0015943 0.0012396 0.022821 0.016726
-0.043506 -0.0024193 -0.25553 0.082985
800000000 -0.16578 0.2142 -0.022593 0.016084 0.0063156 -0.0105 -0.0045563 -0.0025021
-0.0043669 0.001907 0.0046639 0.00033023
-0.022597 0.016057 -0.34588 0.22958 -0.0093218 0.034642 -0.0021866 0.0019704
-0.00072149 0.0027227 0.0010368 0.0051377
0.0062321 -0.010535 -0.0092751 0.034684 -0.03664 0.29819 0.00092919 0.0012432
0.00017044 0.0032933 -0.0018188 0.00075643
-0.0044983 -0.0024 -0.002276 0.0019344 0.0009435 0.0012742 -0.17629 0.22668
-0.028906 0.012711 0.014654 -0.010301
-0.004239 0.0017753 -0.00058198 0.0026626 0.00014692 0.0032534 -0.029111 0.012958
-0.22843 0.089368 -0.017894 0.019947
0.0044328 0.0001605 0.00097811 0.005081 -0.0017484 0.00078186 0.014766 -0.010513
-0.017993 0.019785 -0.24836 0.13244
860000000 -0.13305 0.23441 -0.018962 0.030301 -0.0029118 -0.010558 -0.0019566 0.00049158
0.0035803 0.0050913 -0.0037879 -0.0033228
-0.018995 0.03028 -0.29913 0.27388 0.0069059 0.035276 6.6544e-05 0.0020755
0.0031919 0.00058141 0.0035498 0.00022984
-0.002945 -0.0106 0.0070372 0.035312 0.010581 0.30818 -0.00055263 -0.00026926
0.0022517 -0.0018092 0.0015581 0.0043272
-0.0020135 0.00053968 -4.6878e-05 0.0020525 -0.00060074 -0.00027077 -0.14068 0.23833
-0.018794 0.017689 -0.0067046 -0.0092414
0.0036933 0.005252 0.0031938 0.00062109 0.0022474 -0.0018073 -0.018718 0.017839
-0.17392 0.1437 -0.0257 0.016663
-0.0037295 -0.0033677 0.0035356 8.5328e-05 0.0015431 0.0043133 -0.0065177 -0.0093423
-0.025685 0.016539 -0.19782 0.17929
920000000 -0.11008 0.25849 0.0039198 0.039211 -0.0094958 -0.0052847 -0.0020953 0.0018123
0.00066776 0.0017272 0.0028654 -0.0014169
0.003936 0.0392 -0.27199 0.29595 0.028234 0.023735 0.0012608 0.001091
0.0074835 -0.00012933 0.0040431 -0.0029255
-0.0095406 -0.0052562 0.028313 0.023687 0.056602 0.31071 0.0017532 8.4757e-05
0.00068789 -0.00026911 0.00084867 -0.0015733
-0.0021321 0.0016881 0.0012586 0.00097702 0.0017698 6.2526e-05 -0.11662 0.25593
-0.012352 0.031039 0.0041391 -0.0069833
0.00066644 0.0018638 0.0076021 -0.00024394 0.00073643 -0.00027507 -0.012332 0.030999
-0.16499 0.14922 -0.0026881 0.028181
0.0027774 -0.0013723 0.0040451 -0.0029496 0.0007893 -0.0016391 0.0041466 -0.007004
-0.0026385 0.028073 -0.20786 0.19376
980000000 -0.064181 0.2799 0.016036 0.031071 -0.0098716 0.0044343 0.0017688 0.0039099
0.0040752 -0.001099 -0.0032234 -0.0024897
0.015988 0.031057 -0.21967 0.33268 0.033809 0.0061213 0.0019628 -2.6456e-05
0.0017534 -0.0058458 -7.5174e-05 -0.0028079
-0.0098776 0.0044265 0.033899 0.0060177 0.10292 0.30552 0.00066241 -0.0010886
0.00041808 -0.0017367 0.0014625 -0.00039129
0.0017645 0.0038962 0.0019822 -3.1231e-05 0.00066753 -0.0010877 -0.07832 0.26737
0.0071802 0.030738 -0.0094446 -0.0076726
0.0040453 -0.0012359 0.0017414 -0.0058802 0.00041575 -0.0017278 0.0072206 0.030783
-0.13126 0.1837 0.0060855 0.019876
-0.0032117 -0.0025036 -0.00015198 -0.0027777 0.0014584 -0.00038966 -0.0093542 -0.0078196
0.0059437 0.019937 -0.16666 0.24024
1040000000 -0.02341 0.28979 0.033365 0.020493 -0.0016309 0.0076313 0.0027129 0.00088709
0.00058593 -0.0035917 -0.00016196 -0.0016884
0.033322 0.02049 -0.18509 0.34738 0.030772 -0.014282 0.0016946 -0.0016893
-0.0024646 -0.0025503 -0.001164 -0.0029163
-0.0016145 0.007637 0.030798 -0.014389 0.14909 0.29364 -0.00041174 -0.0016405
-0.0015232 -0.0010167 -0.00050845 -0.0011033
0.0027549 0.00084808 0.0016371 -0.0017062 -0.00039745 -0.0016329 -0.051449 0.27786
0.019277 0.019595 -0.0022023 0.00098243
0.00050747 -0.0035976 -0.0024111 -0.002551 -0.0014873 -0.00097872 0.019213 0.019546
-0.099898 0.19169 0.014643 0.019759
-0.00014517 -0.0015326 -0.0011666 -0.0029002 -0.00052321 -0.00116 -0.0022011 0.0011318
0.014625 0.019588 -0.14533 0.26178
1100000000 0.021345 0.3001 0.037309 -0.0025181 0.0032389 0.0044173 0.0023928 -0.0010915
-0.002219 -0.0030285 -0.0042078 -0.00034354
0.037275 -0.0025103 -0.14154 0.36704 0.016424 -0.028331 -9.0625e-06 -0.0018641
-0.003716 -0.00095237 -0.0036872 -0.00063629
0.0032367 0.0044346 0.016362 -0.028407 0.19613 0.27464 -0.0019117 0.00017477
-0.0017854 0.00059994 -0.0012521 -0.00060727
0.0023739 -0.0011063 -4.1268e-05 -0.0018961 -0.0019184 0.00018808 -0.010922 0.28353
0.025464 0.006132 -0.0026823 -1.114e-07
-0.0023133 -0.0030371 -0.0037104 -0.00089335 -0.0018083 0.0006022 0.025495 0.0060614
-0.080055 0.20562 0.019732 0.0098634
-0.0042116 -0.00034155 -0.0036883 -0.0006257 -0.0012157 -0.0006498 -0.0027086 1.4921e-05
0.01982 0.0098279 -0.099482 0.29387
1160000000 0.072119 0.29736 0.02577 -0.020184 0.0034124 -0.00045242 -0.00016906 -0.0025825
-0.0040991 -0.0010274 -0.0012809 0.0042559
0.025762 -0.020152 -0.098211 0.37269 -0.0031558 -0.029875 -0.001552 -0.001734
-0.0027208 0.0026723 -0.0016886 0.0019432
0.0034504 -0.00049915 -0.003257 -0.029875 0.23953 0.24467 -0.00076445 0.0018002
-0.00044329 0.0019029 -0.0011243 0.00029096
-0.00023555 -0.0026287 -0.0015432 -0.0017435 -0.00073088 0.001821 0.028177 0.2812
0.02193 -0.010441 -0.0036036 0.0053849
-0.00412 -0.0010001 -0.0027113 0.0027384 -0.00045249 0.001926 0.021964 -0.010453
-0.046063 0.21513 0.019258 0.00021531
-0.0012918 0.0042448 -0.00167 0.0019832 -0.0010827 0.00029315 -0.0035242 0.0053593
0.019416 0.0003936 -0.052815 0.29757
1220000000 0.11614 0.28936 0.012438 -0.030649 -0.0011974 -0.00139 3.443e-05 -0.00094825
-0.0028771 0.0023017 0.0012139 0.0021395
0.012456 -0.030618 -0.053327 0.38751 -0.017149 -0.022113 -0.0026292 0.00054119
8.4929e-05 0.0031579 -0.0007231 0.0019352
-0.0011865 -0.0013832 -0.017263 -0.022043 0.27939 0.20662 0.00088008 0.0016288
0.00065158 0.0012003 0.00022256 0.00066265
0.00010082 -0.00094157 -0.0026039 0.00053215 0.00086485 0.0016167 0.068444 0.27383
0.011238 -0.017394 0.0021219 0.001673
-0.002852 0.0023387 8.2393e-05 0.0031699 0.00064818 0.0011888 0.011162 -0.017353
-0.02323 0.22654 0.015014 -0.013122
0.0012592 0.0020961 -0.00071876 0.0019478 0.00020662 0.00069306 0.0021626 0.0016308
0.014969 -0.01312 -0.022574 0.3162
1280000000 0.16707 0.26974 -0.0069567 -0.029948 -0.0020028 0.0019918 -0.00092208 -0.0020112
-0.00078568 0.0034586 0.0026592 0.0015114
-0.0069305 -0.029931 -0.0061787 0.37949 -0.024581 -0.008698 -0.00088918 0.0014523
0.0017645 0.001739 0.00071175 0.0021973
-0.0019893 0.0020043 -0.024665 -0.0086111 0.31041 0.16297 0.0016293 -0.00011646
0.0011233 0.00029001 0.00037596 0.00036528
-0.00091622 -0.0020473 -0.00086569 0.0015223 0.0016591 -0.00010073 0.1054 0.25763
0.001198 -0.019913 -0.00010344 0.0002238
-0.00077124 0.0034145 0.0017857 0.0017273 0.001142 0.00029399 0.0011699 -0.019986
0.013502 0.23088 0.0037363 -0.015813
0.0026403 0.0014868 0.00071956 0.0021894 0.00036091 0.00034256 -0.000158 0.0001988
0.0038096 -0.015782 0.026167 0.31932
1340000000 0.20484 0.23838 -0.01746 -0.020369 0.00047577 0.0044016 -0.0018738 -0.00093334
0.0015812 0.0027638 0.0018203 -0.0015402
-0.017424 -0.02035 0.033392 0.3725 -0.021904 0.0045505 -0.00010213 0.0020322
0.0019601 0.00077423 0.0012076 0.00088704
0.00045609 0.0043913 -0.021934 0.0046508 0.33252 0.11615 0.00088845 -0.00096942
0.00059754 -0.0005232 5.8233e-05 0.0002924
-0.0018701 -0.00091632 -9.9145e-05 0.0020196 0.00088462 -0.00095964 0.13871 0.23794
-0.0087771 -0.016984 0.001184 0.00042607
0.0015728 0.0027456 0.0019858 0.00075704 0.00060126 -0.00052041 -0.0087968 -0.016985
0.043484 0.22831 -0.0036102 -0.014582
0.0018026 -0.0015547 0.0012008 0.00088789 6.2816e-05 0.00034944 0.0011246 0.00046403
-0.0035964 -0.01457 0.063977 0.31619
1400000000 0.24007 0.20177 -0.024126 -0.0085692 0.0050258 0.0033429 -0.0022672 0.00071833
0.0026957 0.0010555 0.00029444 -0.0016542
-0.024094 -0.0085767 0.072237 0.35997 -0.014889 0.012941 0.0012995 0.0012638
0.0011992 -0.00083749 0.0011468 0.00010049
0.0050676 0.0032846 -0.01486 0.013031 0.34635 0.063068 -9.7082e-05 -0.0015235
0.00012415 -0.00033581 0.00045841 0.00022624
-0.002301 0.00069345 0.001316 0.0012769 -9.1986e-05 -0.0015154 0.16878 0.20934
-0.015208 -0.009883 -0.00092261 -0.00012682
0.0027275 0.0010428 0.0012032 -0.00083575 0.00015106 -0.00036089 -0.015216 -0.0098513
0.077813 0.2254 -0.010526 -0.0096178
0.00030709 -0.0016205 0.0011548 8.3036e-05 0.00050098 0.00024309 -0.0008652 -0.00012744
-0.010538 -0.0095903 0.10954 0.30666
1460000000 0.26372 0.1586 -0.021274 0.0044538 0.0055517 -0.001675 -0.0015538 0.0017758
0.0023188 -0.00038599 -0.00030984 -0.0010277
-0.02127 0.0044337 0.10652 0.33803 -0.0054926 0.015849 0.0016489 0.00023781
0.00090807 -0.001306 0.0012355 -0.00057433
0.0055524 -0.0017095 -0.0054239 0.015908 0.35289 0.0093518 -0.0012235 -0.0011177
0.00024976 -0.00015456 0.00081996 -0.00026369
-0.0015589 0.0018023 0.0016232 0.00024435 -0.0012215 -0.0011203 0.19545 0.18048
-0.016025 -0.0025911 -0.00088824 0.0019852
0.0022942 -0.000417 0.00089235 -0.0013228 0.0002948 -0.00012324 -0.016027 -0.0025559
0.10712 0.21267 -0.012336 -0.003157
-0.00033083 -0.0010226 0.0012321 -0.00058823 0.00078632 -0.00024377 -0.00089159 0.0020006
-0.01233 -0.0032311 0.14278 0.28641
1520000000 0.27767 0.1179 -0.015555 0.010374 0.0033713 -0.0041804 0.00021982 0.0027061
0.0023669 -0.0019826 -0.0011405 -9.0349e-05
-0.015556 0.010353 0.14041 0.32444 0.002344 0.012963 0.0017015 -0.00063541
5.5771e-05 -0.00097661 0.00032876 -0.0010406
0.0033595 -0.0042142 0.0024227 0.012974 0.34666 -0.046024 -0.00079955 -0.00025639
0.00069567 -0.00095004 0.00013955 -8.2267e-05
0.00023863 0.0027099 0.0017039 -0.00067256 -0.00082942 -0.00024776 0.2194 0.14281
-0.015119 0.0034713 0.0015345 0.0021507
0.0023583 -0.0020235 5.8582e-05 -0.00097737 0.00071324 -0.00095545 -0.01504 0.0034652
0.13625 0.20072 -0.012462 0.0018119
-0.0011342 -9.9099e-05 0.00031658 -0.0010458 0.00010691 -0.00013969 0.0015402 0.0021254
-0.012432 0.0018626 0.17682 0.26817
1580000000 0.28817 0.071899 -0.0085214 0.013968 -0.00097519 -0.0049396 0.0015858 0.0018229
-0.00030073 -0.0023644 -0.00022374 0.00045801
-0.0085249 0.013949 0.16802 0.2996 0.0059206 0.007533 0.00061392 -0.0015064
-0.00049848 -0.0010751 -0.00025445 -0.00073426
-0.0010031 -0.0049504 0.0059503 0.0075215 0.32764 -0.10385 -0.0014979 0.00039959
-0.000335 -0.0013155 0.0002221 -0.00060142
0.0015664 0.0018341 0.00059983 -0.0015247 -0.0014483 0.00042055 0.23377 0.10333
-0.010927 0.0083684 0.0024132 0.00088093
-0.0003218 -0.0023666 -0.00050244 -0.0010651 -0.00034797 -0.0013253 -0.010966 0.0084287
0.16141 0.18358 -0.0096018 0.007959
-0.00023718 0.00046249 -0.00025486 -0.00074569 0.00023024 -0.00065903 0.002439 0.00083613
-0.0096061 0.0079365 0.20984 0.24195
1640000000 0.29121 0.031477 -0.0013862 0.012671 -0.0029788 -0.0026137 0.0027868 0.00093906
-0.00070823 -0.0017171 -0.00032582 0.00052042
-0.0013741 0.012663 0.19725 0.27599 0.005982 0.0024233 -0.00049103 -0.0019076
-0.00083848 -0.0005036 -0.00050421 -0.00066897
-0.002965 -0.0025647 0.0059933 0.002404 0.29902 -0.15249 -0.00069925 0.0012101
-0.0011051 -0.00096076 -6.1672e-05 -0.00049702
0.0027973 0.00094183 -0.00051208 -0.0019106 -0.00073228 0.0012397 0.2465 0.055032
-0.0064312 0.0091012 0.0025954 -0.00075324
-0.00072357 -0.0017197 -0.00085855 -0.00048827 -0.0010962 -0.00097302 -0.0064094 0.009079
0.18489 0.16127 -0.0044142 0.0099946
-0.00029889 0.00053528 -0.00051293 -0.00065351 -0.00011832 -0.00045092 0.0025223 -0.00076412
-0.0044525 0.010028 0.23609 0.21237
1700000000 0.28591 -0.013386 0.0021668 0.00968 -0.0036838 0.00010865 0.0030705 -0.0012555
-0.0021827 -0.00066689 0.00067272 0.00044246
0.0021656 0.0096648 0.21615 0.24504 0.0033525 -0.00054111 -0.0015 -0.00077966
-0.00077487 -0.00017941 -0.00086136 -0.00042607
-0.0036695 0.00012966 0.0033457 -0.00054203 0.25716 -0.19204 6.8866e-05 0.0014558
-0.0020904 -0.00021733 -0.00049314 -0.00073347
0.003064 -0.0012743 -0.0015003 -0.00076254 6.2174e-05 0.0014722 0.2443 0.005122
-0.00351 0.0091571 0.0017562 -0.0022105
-0.0022052 -0.00062782 -0.00077647 -0.00017883 -0.0020998 -0.00016062 -0.0035049 0.0091591
0.2038 0.14205 0.00051566 0.010205
0.00066023 0.00045384 -0.0008574 -0.00043014 -0.0004293 -0.00078586 0.0018164 -0.0022184
0.00053677 0.010148 0.25429 0.17872
1760000000 0.2749 -0.06204 0.0044891 0.0062564 -0.0024085 0.0012374 0.0013135 -0.0034886
-0.0013368 0.00067965 0.00036023 -0.00065695
0.0044851 0.0062438 0.24216 0.20608 0.0005124 -0.0020854 -0.0013384 8.2903e-06
-0.001147 0.00077784 -0.00055264 0.00032582
-0.0023939 0.0012553 0.00047997 -0.0021093 0.20895 -0.22566 0.0010378 0.0011259
-0.0011684 0.0013845 -0.0012207 -0.0005611
0.0012871 -0.0034897 -0.0013532 2.6936e-05 0.0010404 0.0010856 0.23563 -0.046579
-0.00058427 0.0078641 -6.8542e-05 -0.0026146
-0.0013194 0.00066599 -0.0011308 0.00078316 -0.0011667 0.001377 -0.00058191 0.0079281
0.21919 0.10831 0.0046405 0.0072778
0.00034276 -0.00064478 -0.0005591 0.00034053 -0.0012697 -0.00048547 -0.00015131 -0.0026395
0.0046228 0.007289 0.26783 0.14134
1820000000 0.25242 -0.099278 0.0045664 0.0025883 2.8085e-05 0.0025747 -0.0010122 -0.0031389
-0.0011484 0.00095663 -0.00022818 -0.00017245
0.0045751 0.0025904 0.25351 0.17723 -0.0018083 -0.00031135 -0.0015167 0.00098878
-0.00019304 0.0012148 -0.00061625 0.00038623
5.1912e-05 0.0025888 -0.0018152 -0.00029533 0.15868 -0.24138 0.0015375 0.0006633
-0.00033869 0.0023532 -0.0017828 9.4893e-05
-0.0010116 -0.003179 -0.0015263 0.00099668 0.0015547 0.00065624 0.20694 -0.094065
0.00061426 0.0064686 -0.001772 -0.0018568
-0.0011729 0.00096818 -0.00018405 0.001213 -0.00033277 0.0023399 0.00060935 0.006413
0.23791 0.080933 0.005503 0.0033138
-0.00026423 -0.00018523 -0.00060145 0.00038166 -0.0017556 4.2431e-05 -0.001788 -0.0018151
0.0055383 0.0032968 0.27166 0.10596
1880000000 0.21839 -0.14083 0.0022443 0.00039294 -0.00030388 0.0024461 -0.0029088 -0.0023435
-0.00021755 0.0017548 0.0001192 -0.00058911
0.0022368 0.00041453 0.25864 0.1309 -0.0038252 0.0024163 -0.00034127 0.0018423
0.000418 0.0014113 9.7068e-05 0.00098323
-0.0003096 0.0023919 -0.0038062 0.0024261 0.10661 -0.25036 0.0020144 -0.00091318
0.0015449 0.0019774 -0.00093815 0.0016344
-0.0029752 -0.0022863 -0.00031035 0.0018791 0.0020263 -0.0009165 0.16631 -0.13501
0.00097286 0.0044856 -0.0025186 0.00022525
-0.00020777 0.001765 0.00044413 0.0014415 0.0015717 0.0019634 0.00098605 0.0045111
0.2429 0.049989 0.0056491 0.00095109
0.00010939 -0.00058413 9.7104e-05 0.00097601 -0.00096956 0.0016474 -0.0026211 9.5642e-05
0.0056098 0.00095008 0.27268 0.071451
1940000000 0.17955 -0.1669 5.4241e-05 -0.0012543 0.0017126 0.0019631 -0.0039663 0.0004809
0.0011887 0.0010118 -0.00060146 -0.00040036
3.2648e-05 -0.0012645 0.26033 0.10004 -0.0020144 0.0053319 0.0011426 0.0014764
0.0019439 0.00063937 0.0008626 0.00028734
0.0017378 0.0019533 -0.0020024 0.0053547 0.061645 -0.24278 0.00083846 -0.002326
0.0023887 0.00051538 0.00020946 0.0017059
-0.0039494 0.00052136 0.0011033 0.0015064 0.0007369 -0.0023423 0.1142 -0.16592
4.039e-05 0.0034192 -0.0018204 0.0014082
0.0011478 0.0010039 0.001943 0.00061572 0.0024091 0.00052628 5.8929e-05 0.0033868
0.24698 0.013015 0.0040604 -0.0029015
-0.00066173 -0.0003859 0.00084444 0.00027095 0.00027026 0.0016425 -0.0017648 0.0015293
0.0040614 -0.0028686 0.26239 0.035732
2000000000 0.13475 -0.18275 -0.0036254 0.00085623 0.002996 0.0014524 -0.0024127 0.0036771
0.001043 0.00035744 -0.00057723 0.00039076
-0.0035799 0.00086717 0.24778 0.064469 -0.00097049 0.0074069 0.0018074 0.00034769
0.0014116 -0.0011404 0.00039638 7.1194e-05
0.0029915 0.0013804 -0.00088221 0.0074692 0.019223 -0.22917 -0.0015196 -0.0016878
0.0021125 -0.0011806 0.0015211 0.0014143
-0.0025159 0.0037578 0.0017833 0.00029923 -0.0014984 -0.001772 0.060842 -0.17649
-0.0015138 0.0033784 -9.1187e-05 0.0023387
0.0010021 0.00037408 0.0013971 -0.0011561 0.002107 -0.0011976 -0.0015199 0.0034557
0.24398 -0.019741 0.00049019 -0.0035264
