!Keysight Technologies,M9804A,MY58100912,A.14.10.03
!Date: Thursday, April 27, 2023 10:28:33
!Correction: S11(C  6-Port  ) 
!S12(C  6-Port  ) 
!S13(C  6-Port  ) 
!S14(C  6-Port  ) 
!S15(C  6-Port  ) 
!S16(C  6-Port  ) 
!S21(C  6-Port  ) 
!S22(C  6-Port  ) 
!S23(C  6-Port  ) 
!S24(C  6-Port  ) 
!S25(C  6-Port  ) 
!S26(C  6-Port  ) 
!S31(C  6-Port  ) 
!S32(C  6-Port  ) 
!S33(C  6-Port  ) 
!S34(C  6-Port  ) 
!S35(C  6-Port  ) 
!S36(C  6-Port  ) 
!S41(C  6-Port  ) 
!S42(C  6-Port  ) 
!S43(C  6-Port  ) 
!S44(C  6-Port  ) 
!S45(C  6-Port  ) 
!S46(C  6-Port  ) 
!S51(C  6-Port  ) 
!S52(C  6-Port  ) 
!S53(C  6-Port  ) 
!S54(C  6-Port  ) 
!S55(C  6-Port  ) 
!S56(C  6-Port  ) 
!S61(C  6-Port  ) 
!S62(C  6-Port  ) 
!S63(C  6-Port  ) 
!S64(C  6-Port  ) 
!S65(C  6-Port  ) 
!S66(C  6-Port  ) 
!S6P File: Measurement: :
# Hz S  RI   R 50
500000000 -0.33089 -0.067717 -0.0098088 -0.0010759 -0.0090244 0.013074 -0.0041294 0.012284
0.013886 0.0054816 -0.0042168 0.0085344
-0.0098506 -0.0010246 -0.41141 -0.075689 0.0087469 -0.010392 0.0012033 0.012072
0.008564 0.0030572 0.0013983 0.013078
-0.0089504 0.013098 0.0087235 -0.010411 -0.26451 0.18937 0.0069106 0.0031621
-0.0020275 0.0091018 0.00065542 0.011662
-0.0041651 0.01264 0.0011471 0.011972 0.0068869 0.0031839 -0.32898 0.036066
-0.020002 -0.003312 0.016917 0.025917
0.013791 0.004683 0.0087002 0.00292 -0.0020287 0.0090519 -0.01985 -0.003204
-0.23342 -0.21902 -0.028344 0.0061366
-0.0040774 0.0088547 0.0018369 0.013227 0.00042601 0.011875 0.017923 0.026459
-0.02913 0.0061739 -0.26262 -0.14738
560000000 -0.3191 0.1017 -0.02233 -0.066714 -0.00038151 0.013478 0.0044329 0.011655
0.011563 0.0052363 0.01026 0.0096
-0.021772 -0.066816 -0.37334 0.090229 -0.04095 -0.040155 0.014452 0.0041739
-0.012258 -0.0045239 0.0044468 -0.00071868
-0.00042294 0.013831 -0.040998 -0.040008 -0.18676 0.24217 -0.00061453 -0.0050878
0.017483 0.0074018 0.0076969 -0.0067148
0.004855 0.010934 0.014281 0.0043317 -0.0007039 -0.0051409 -0.30754 0.12934
0.0060702 -0.023954 0.0045358 -0.021539
0.011159 0.0046854 -0.012389 -0.0045159 0.017536 0.0075922 0.0060449 -0.023876
-0.30858 -0.036178 0.011999 -0.051549
0.011326 0.0085567 0.0037908 -0.00041935 0.0079876 -0.0071059 0.0046501 -0.021971
0.011981 -0.052025 -0.33478 0.0073488
620000000 -0.2784 0.080443 -0.023473 0.0090177 0.0036516 0.0092115 0.0085165 -0.0048146
0.011593 -0.0012965 0.00073171 -0.0026432
-0.02345 0.0092589 -0.40225 0.036174 -0.018513 0.0002234 -0.0014609 -0.0023917
0.012647 -0.0051313 0.0016839 -0.0038177
0.0036869 0.009499 -0.018521 0.00026544 -0.15809 0.25159 -0.00092697 -0.0054325
-0.0027671 -0.002516 0.0093474 -0.0041383
0.0081031 -0.0042561 -0.0013976 -0.0023874 -0.0010206 -0.0054635 -0.26455 0.14037
-0.038758 -0.022166 0.01232 0.027887
0.012563 -0.0012181 0.012648 -0.0051674 -0.0027765 -0.002565 -0.0392 -0.022095
-0.22509 -0.069742 -0.040731 0.012457
0.0004225 -0.0025993 0.0015413 -0.0038066 0.0095693 -0.0040756 0.012288 0.028747
-0.040605 0.011383 -0.24915 -0.034541
680000000 -0.24409 0.17457 -0.026427 -0.015153 0.004858 0.0058781 0.001742 -0.0075707
-0.0015855 -0.012005 0.0059815 -0.0067509
-0.026281 -0.015461 -0.39184 0.13848 -0.032742 -0.0027948 -0.0016776 -0.00030996
-0.0016001 -0.0095208 -0.0010535 -0.0015998
0.004763 0.0056938 -0.032766 -0.0027283 -0.10845 0.27387 -0.00084434 -2.6447e-05
-0.001645 0.00048049 -0.0030026 -0.0091835
0.0018364 -0.007757 -0.0016268 -0.00036535 -0.00094475 -0.00013708 -0.22265 0.19136
-0.022921 -0.0081965 -0.0095307 -0.011583
-0.0020773 -0.011882 -0.0016304 -0.0095673 -0.0016434 0.00047528 -0.023065 -0.008154
-0.28275 0.031501 -0.0062212 -0.0075405
0.0060811 -0.0071357 -0.0011455 -0.0018526 -0.0028039 -0.0092794 -0.0097656 -0.01173
-0.0062189 -0.0066909 -0.26314 0.076728
740000000 -0.1975 0.16776 -0.041071 0.026741 0.014139 -0.0042343 -0.00011159 -0.004574
-0.0046899 -0.0023196 -0.0056922 0.0021218
-0.040811 0.026437 -0.33758 0.15784 -0.038175 0.035035 0.00044513 -0.0062642
-0.013404 0.0077933 -0.0011669 -0.0064252
0.014169 -0.0042826 -0.03814 0.035151 -0.075517 0.27192 -0.0020005 0.0034724
-0.0017489 -0.0060858 -0.0015507 0.000771
-8.7562e-05 -0.0046328 0.00040135 -0.0061226 -0.0020764 0.0034485 -0.20498 0.19897
-0.043417 -0.01008 0.0231 0.0167
-0.0047466 -0.0026715 -0.01321 0.0077774 -0.0017406 -0.0060485 -0.043619 -0.0096515
-0.18001 0.064364 -0.044315 -0.0020273
-0.0062352 0.0025229 -0.00098037 -0.0063707 -0.0014831 0.0012168 0.023506 0.016677
-0.044125 -0.0022081 -0.2544 0.082445
800000000 -0.16602 0.21424 -0.022649 0.015991 0.0062738 -0.010566 -0.0044263 -0.0024904
-0.0044578 0.0017704 0.004751 0.00019777
-0.022579 0.016085 -0.34593 0.22953 -0.0093982 0.034612 -0.0022413 0.0019028
-0.00066135 0.0027575 0.0010187 0.0051397
0.0062091 -0.01054 -0.009327 0.034689 -0.03675 0.29819 0.00093778 0.0012691
9.4397e-05 0.0033404 -0.0017142 0.00079921
-0.0044482 -0.0024802 -0.0022865 0.0018562 0.00092586 0.001242 -0.17637 0.22688
-0.029016 0.012761 0.014724 -0.010419
-0.0042697 0.0019875 -0.0006884 0.0028081 0.00010739 0.0033486 -0.029025 0.012881
-0.22846 0.08954 -0.017915 0.019732
0.0042924 4.0419e-05 0.001014 0.0050438 -0.0018816 0.00076692 0.014538 -0.010247
-0.01785 0.019701 -0.24897 0.13311
860000000 -0.13303 0.23423 -0.018958 0.030274 -0.0028971 -0.010597 -0.0019851 0.00047288
0.0036193 0.0051861 -0.0038262 -0.0032519
-0.019011 0.030271 -0.29923 0.27379 0.0069052 0.035282 -9.3421e-05 0.0021722
0.0031641 0.0006705 0.0036306 0.00033702
-0.0029064 -0.010595 0.0070119 0.035307 0.010532 0.30816 -0.00063644 -0.00029003
0.0023547 -0.0017767 0.001675 0.0044047
-0.0019831 0.00061009 -3.3556e-06 0.0020584 -0.00061502 -0.00026726 -0.14052 0.23833
-0.018714 0.01782 -0.0066984 -0.0090261
0.0036631 0.0050594 0.0031674 0.00065933 0.0023357 -0.001808 -0.018649 0.017853
-0.17379 0.14371 -0.025409 0.01686
-0.0035311 -0.003325 0.0035299 9.1442e-05 0.0016747 0.0042141 -0.0065964 -0.0091233
-0.025542 0.016659 -0.19748 0.17844
920000000 -0.1099 0.25832 0.0038835 0.039233 -0.0095208 -0.0052955 -0.0020753 0.001752
0.0007197 0.0019178 0.0029137 -0.0013264
0.0040322 0.03919 -0.27207 0.29595 0.028207 0.02373 0.0012669 0.0010668
0.0075971 -0.00010571 0.0038892 -0.0028832
-0.0094764 -0.0052164 0.028297 0.023678 0.056522 0.31071 0.0017458 4.8625e-05
0.00070231 -0.00027588 0.00078487 -0.0014631
-0.0021576 0.0017612 0.0012524 0.0010055 0.0017522 4.7669e-05 -0.11668 0.25589
-0.012295 0.031084 0.0041477 -0.0070125
0.00073585 0.0017089 0.0076295 -0.00012456 0.00068363 -0.00027099 -0.012161 0.031046
-0.16486 0.14922 -0.0024758 0.028464
0.0027702 -0.0010863 0.0040481 -0.0029351 0.00086935 -0.0014985 0.0038607 -0.0068946
-0.0025252 0.028276 -0.20805 0.19383
980000000 -0.064358 0.27975 0.016074 0.031053 -0.0099012 0.0044002 0.0017187 0.0038785
0.0041033 -0.0011573 -0.0032697 -0.0026219
0.016014 0.031115 -0.21978 0.33261 0.033837 0.0061344 0.0019622 -5.341e-05
0.0017709 -0.0058822 -0.00016614 -0.0028325
-0.0098928 0.0044307 0.033892 0.0060428 0.10285 0.30551 0.00066272 -0.0010752
0.00042876 -0.0017651 0.001444 -0.00043468
0.001777 0.0038286 0.0019622 -4.1749e-05 0.00066017 -0.0010889 -0.07835 0.26737
0.0072 0.030732 -0.0093894 -0.0077741
0.0040449 -0.0011655 0.0017541 -0.0059064 0.00040745 -0.001773 0.0072288 0.030734
-0.13132 0.18365 0.0060213 0.020019
-0.0031745 -0.0025016 -0.00015024 -0.0027507 0.001452 -0.00035331 -0.0094024 -0.0077642
0.0060506 0.019898 -0.16671 0.24025
1040000000 -0.023624 0.28972 0.033381 0.020512 -0.0016382 0.0076392 0.0027357 0.00084445
0.00056969 -0.0035917 2.8755e-05 -0.0016815
0.033293 0.020487 -0.18516 0.34738 0.030832 -0.014257 0.0016223 -0.0017227
-0.0023985 -0.0026017 -0.0011302 -0.0029018
-0.0016167 0.0076732 0.030808 -0.014365 0.14903 0.29365 -0.00042954 -0.0016117
-0.0015262 -0.0010578 -0.00054493 -0.0010922
0.0027169 0.00081907 0.0016264 -0.0017226 -0.00041927 -0.0016184 -0.051354 0.27772
0.019269 0.019593 -0.0021697 0.0010127
0.00062659 -0.0034707 -0.0023757 -0.0026197 -0.0015192 -0.0010327 0.019348 0.019596
-0.099854 0.19135 0.014658 0.019711
-0.00020558 -0.0014432 -0.0011879 -0.0028378 -0.00050904 -0.0010845 -0.0022402 0.001046
0.014491 0.01982 -0.1459 0.26191
1100000000 0.021303 0.30019 0.037339 -0.002533 0.0032266 0.0044309 0.0023855 -0.0011081
-0.0022921 -0.0029793 -0.0042272 -0.00029359
0.037334 -0.0024719 -0.14159 0.36699 0.016466 -0.028316 -3.748e-05 -0.0019075
-0.0037484 -0.00088733 -0.0037116 -0.00057043
0.0032533 0.0044283 0.016378 -0.028405 0.19606 0.27466 -0.0019309 0.00019383
-0.0017876 0.00061989 -0.0012421 -0.00059684
0.0024025 -0.0010475 -3.2367e-05 -0.0018989 -0.0019465 0.00018896 -0.011005 0.28341
0.025428 0.0061135 -0.0026935 -8.4835e-05
-0.0022976 -0.0030671 -0.0037356 -0.00089738 -0.0017972 0.00063175 0.025401 0.0059531
-0.080021 0.2055 0.01974 0.0098963
-0.0042582 -0.0002338 -0.0037239 -0.00060365 -0.0012634 -0.00060107 -0.0027669 1.8119e-05
0.019748 0.0098256 -0.099353 0.29373
1160000000 0.07193 0.29743 0.025806 -0.020142 0.0034516 -0.00049415 -0.00025485 -0.0025985
-0.0041388 -0.0010687 -0.0013693 0.0042345
0.025756 -0.020185 -0.098298 0.37267 -0.0030884 -0.02988 -0.0015832 -0.0017609
-0.0027397 0.0026807 -0.0016407 0.001867
0.0034263 -0.00048111 -0.0032209 -0.02988 0.23947 0.24473 -0.00076393 0.0018244
-0.00048444 0.0018643 -0.0011362 0.00034743
-0.0002128 -0.0025789 -0.0015369 -0.0016845 -0.00076209 0.0018123 0.028107 0.28113
0.022018 -0.010593 -0.0036587 0.005412
-0.0041547 -0.0010223 -0.0027042 0.0027276 -0.00047582 0.0018613 0.022027 -0.010577
-0.045965 0.21527 0.019284 0.00020115
-0.0011978 0.0042613 -0.0016924 0.0019436 -0.0011253 0.00030124 -0.0035987 0.005315
0.019224 0.0002389 -0.053182 0.2976
1220000000 0.11603 0.28938 0.012451 -0.030644 -0.0011878 -0.0013678 7.028e-05 -0.00096811
-0.0028309 0.0023206 0.0012361 0.0020861
0.012512 -0.030665 -0.053401 0.38747 -0.017114 -0.02211 -0.0026211 0.0005287
8.0868e-05 0.0031565 -0.00071341 0.0019913
-0.0011922 -0.0013952 -0.017246 -0.022064 0.27931 0.20665 0.0008751 0.0016697
0.00067492 0.0012252 0.00025919 0.00064486
4.5206e-05 -0.00094921 -0.0026217 0.00054221 0.00086963 0.001665 0.068381 0.27372
0.01124 -0.017395 0.0021536 0.0016291
-0.0028637 0.0023588 9.5097e-05 0.0031403 0.00067231 0.0012294 0.011221 -0.017415
-0.023593 0.22657 0.015063 -0.013022
0.0012164 0.0020647 -0.00073913 0.0019942 0.00020428 0.00066626 0.0021527 0.0016232
0.015124 -0.013041 -0.022533 0.31619
1280000000 0.16693 0.2698 -0.0069172 -0.029961 -0.0019878 0.0019682 -0.00093489 -0.0020642
-0.00083002 0.0034237 0.0026011 0.0014676
-0.0068899 -0.029936 -0.0062779 0.37944 -0.024595 -0.0087183 -0.00085876 0.0014985
0.0018069 0.0017386 0.000719 0.0021655
-0.0019704 0.0019716 -0.024651 -0.008607 0.31038 0.16301 0.0015976 -0.00010951
0.001094 0.00027565 0.00031689 0.00037336
-0.0009128 -0.0020981 -0.00084159 0.001512 0.0016017 -0.00012004 0.10538 0.25777
0.0011331 -0.019955 -0.00015816 0.00016834
-0.00078171 0.0034146 0.0018053 0.0017396 0.00109 0.0002732 0.0010632 -0.019941
0.013708 0.23094 0.0036698 -0.015819
0.0025488 0.0014429 0.00071723 0.0021485 0.00033978 0.00036997 -0.00014239 0.00032584
0.0037027 -0.015832 0.026236 0.31931
1340000000 0.20468 0.23849 -0.017435 -0.02038 0.00044857 0.0044048 -0.0018472 -0.00091881
0.0015389 0.0027696 0.0018497 -0.001511
-0.017423 -0.020379 0.033327 0.37243 -0.021927 0.0045406 -0.00012003 0.0020454
0.0019776 0.00078113 0.001182 0.00089476
0.00044269 0.0044155 -0.021939 0.0046389 0.33243 0.11625 0.00087012 -0.0010226
0.00059777 -0.00053519 2.039e-05 0.00028983
-0.0018788 -0.00090334 -9.0824e-05 0.0020536 0.00087968 -0.0010278 0.13865 0.23797
-0.0088571 -0.016986 0.0011541 0.00047016
0.00158 0.002726 0.0019809 0.00076679 0.00062138 -0.00052228 -0.0088966 -0.016978
0.043506 0.22833 -0.0036157 -0.014573
0.0017722 -0.0015548 0.0012283 0.00087847 9.6347e-05 0.00028104 0.0010746 0.0004841
-0.0035925 -0.014567 0.063893 0.31637
1400000000 0.24 0.20188 -0.024131 -0.0086047 0.0050414 0.0033198 -0.0022912 0.00070534
0.0027338 0.0010742 0.00034509 -0.001629
-0.02411 -0.0085814 0.072158 0.35995 -0.014904 0.012934 0.0013027 0.0012676
0.0012219 -0.00082434 0.001163 7.665e-05
0.0050481 0.0033253 -0.014858 0.013022 0.34632 0.06315 -6.2128e-05 -0.0014857
9.6724e-05 -0.000327 0.00047596 0.00023912
-0.0022559 0.00069132 0.0013172 0.0012613 -7.8399e-05 -0.0015058 0.16869 0.20933
-0.015244 -0.009853 -0.00096236 -0.00014142
0.0027203 0.0010942 0.0012007 -0.0008394 0.00010594 -0.00032177 -0.015246 -0.0098258
0.07779 0.22549 -0.010426 -0.0095893
0.00035403 -0.0016576 0.0011623 7.4604e-05 0.00043454 0.00024354 -0.0009053 -0.00014395
-0.01043 -0.0096136 0.10955 0.30667
1460000000 0.26362 0.15867 -0.021295 0.0044149 0.0055751 -0.0016987 -0.0015863 0.0017685
0.0023223 -0.00040738 -0.00037393 -0.0010061
-0.021293 0.0044032 0.10641 0.33803 -0.005512 0.015858 0.0016582 0.00023474
0.00088558 -0.0013164 0.001243 -0.00057771
0.0055355 -0.0017206 -0.0054561 0.015881 0.35293 0.0094055 -0.0012367 -0.001099
0.00021101 -0.00016587 0.00077782 -0.00030568
-0.0015649 0.0017891 0.0016475 0.0002513 -0.0012466 -0.0011056 0.19541 0.18046
-0.016118 -0.0025251 -0.00087173 0.0020134
0.0022704 -0.00040363 0.00088586 -0.001325 0.00019744 -0.0001596 -0.01615 -0.0025035
0.10711 0.21261 -0.012337 -0.0030868
-0.0002897 -0.0010229 0.0012445 -0.00058242 0.00079795 -0.00026612 -0.0008805 0.0020569
-0.012325 -0.0030768 0.14278 0.28636
1520000000 0.27755 0.11801 -0.015569 0.01037 0.0033731 -0.0041701 0.00024621 0.0027056
0.0023537 -0.0020035 -0.0011398 -0.00010404
-0.015584 0.010346 0.14033 0.32448 0.002346 0.01297 0.0017032 -0.00067245
5.5958e-05 -0.00098497 0.0003314 -0.0010108
0.0033425 -0.0041949 0.0024152 0.012964 0.34665 -0.045919 -0.00083423 -0.00025759
0.00067977 -0.00094854 0.00017126 -9.4623e-05
0.00023754 0.0027278 0.0017061 -0.00068249 -0.00082769 -0.0002608 0.21924 0.14282
-0.015106 0.0035492 0.0015453 0.002175
0.0023303 -0.0019814 4.7921e-05 -0.00097296 0.00069894 -0.00094291 -0.015111 0.0035603
0.13617 0.20067 -0.012414 0.0018371
-0.0011055 -8.4321e-05 0.00031899 -0.0010198 0.00014531 -9.7651e-05 0.0015224 0.0021472
-0.012438 0.0018167 0.17679 0.26826
1580000000 0.28818 0.071993 -0.0085415 0.013954 -0.00097 -0.0049632 0.0015458 0.0018677
-0.00030482 -0.0023771 -0.00023503 0.00045064
-0.0085502 0.013916 0.16796 0.29965 0.0059016 0.0075542 0.0006161 -0.0015272
-0.00048818 -0.0010736 -0.00022447 -0.00075179
-0.0009965 -0.0049387 0.0059436 0.0075257 0.32767 -0.10379 -0.0014415 0.00042552
-0.00033763 -0.0013328 0.00026298 -0.00062284
0.0015595 0.0018336 0.00060457 -0.0015117 -0.0014603 0.00043564 0.23372 0.10334
-0.010909 0.0084219 0.0024147 0.00088639
-0.00029975 -0.0023793 -0.00049464 -0.0010618 -0.00034523 -0.0013372 -0.010888 0.0084635
0.16134 0.18358 -0.0095821 0.0079931
-0.00025436 0.0004349 -0.0002513 -0.00074501 0.00023138 -0.00063614 0.0024253 0.00080969
-0.009567 0.0079637 0.20986 0.24204
1640000000 0.29116 0.031577 -0.0013768 0.012689 -0.0029469 -0.0025647 0.0028287 0.00094745
-0.00072008 -0.00169 -0.00032789 0.00053663
-0.0014113 0.012674 0.19713 0.27604 0.0059625 0.0024406 -0.00048344 -0.0019142
-0.00084944 -0.00050563 -0.00050338 -0.0006509
-0.0029856 -0.0025573 0.0059962 0.0024116 0.29897 -0.15237 -0.00071143 0.0012345
-0.0010832 -0.00099815 -0.00014114 -0.00045588
0.0028175 0.00094009 -0.00050715 -0.0019026 -0.00069244 0.001227 0.24631 0.055089
-0.0063438 0.0091574 0.0026173 -0.00078919
-0.00072646 -0.0016914 -0.00086282 -0.0004965 -0.0010798 -0.00096465 -0.0063375 0.0091811
0.18475 0.16133 -0.004414 0.010042
-0.0003034 0.00051047 -0.0005225 -0.00064306 -0.00012352 -0.00047218 0.0026552 -0.0007455
-0.0044066 0.010005 0.23594 0.2125
1700000000 0.28591 -0.013241 0.0021581 0.009689 -0.0036447 0.00011452 0.0030424 -0.0012711
-0.0022112 -0.00065605 0.00070516 0.00043729
0.0021535 0.0096987 0.21608 0.24511 0.0033632 -0.00048079 -0.0014984 -0.00076725
-0.00076781 -0.00018681 -0.00082939 -0.00042469
-0.0036513 0.00013157 0.0033347 -0.00052076 0.25715 -0.19201 0.00016732 0.0014214
-0.0020434 -0.00024733 -0.00041897 -0.00073357
0.003104 -0.0012741 -0.0014985 -0.00076664 0.00015326 0.0014087 0.24429 0.0052049
-0.0034229 0.009094 0.0017364 -0.0022003
-0.0021917 -0.00060635 -0.00076764 -0.00017407 -0.0020543 -0.00024888 -0.0034263 0.0090961
0.20367 0.14206 0.00045816 0.010125
0.00063358 0.00037454 -0.00083337 -0.0004376 -0.00041664 -0.00076132 0.0017076 -0.0022789
0.00049075 0.010158 0.25424 0.17876
1760000000 0.27491 -0.06189 0.0044857 0.0062621 -0.0023961 0.0012402 0.0013098 -0.0034911
-0.0013341 0.00068224 0.00028523 -0.00062769
0.0044893 0.006241 0.24207 0.20614 0.00050025 -0.002108 -0.0013341 3.4224e-05
-0.0011337 0.0007781 -0.00057687 0.00034347
-0.0023935 0.0012076 0.00048514 -0.002103 0.20911 -0.2257 0.0010589 0.0011511
-0.001155 0.00137 -0.0013015 -0.00058122
0.0012869 -0.0035095 -0.0013521 3.9398e-05 0.0010301 0.0011694 0.23561 -0.046458
-0.00053686 0.0078323 -0.00011525 -0.0026407
-0.0013395 0.0006459 -0.0011337 0.00078398 -0.0011486 0.0013579 -0.00054093 0.0078421
0.21918 0.10843 0.0046073 0.0072454
0.00034215 -0.00062693 -0.00055056 0.00034524 -0.0012985 -0.00062022 -0.0001281 -0.0026063
0.0046103 0.0072262 0.26773 0.14137
1820000000 0.25246 -0.099156 0.0045734 0.0025914 3.5177e-05 0.0025893 -0.00098456 -0.00322
-0.0011522 0.00096343 -0.00024918 -0.00018152
0.0045938 0.0025967 0.25344 0.17729 -0.0018155 -0.00029246 -0.0015435 0.0010006
-0.00019568 0.0012155 -0.00060334 0.00039657
4.4854e-05 0.0025756 -0.001796 -0.00028127 0.15874 -0.24131 0.0014752 0.0006435
-0.00032584 0.002385 -0.0017363 8.1338e-05
-0.0010039 -0.0031342 -0.0015468 0.00099796 0.0015327 0.00060712 0.20689 -0.093803
0.00062935 0.0063629 -0.0017327 -0.0019376
-0.0011104 0.00097812 -0.00019425 0.0012166 -0.00031026 0.0023721 0.00065926 0.0063289
0.23788 0.081022 0.0055607 0.0032576
-0.00029379 -0.00021803 -0.0005979 0.00039923 -0.0017118 0.00016161 -0.0017645 -0.0018846
0.0055488 0.0032828 0.27162 0.10605
1880000000 0.21835 -0.14073 0.0022628 0.00041698 -0.00030286 0.0023762 -0.0029963 -0.0023024
-0.00022403 0.0017758 0.00014004 -0.00058449
0.0022612 0.00039756 0.2586 0.13098 -0.0038104 0.0023914 -0.00031182 0.0018704
0.00045694 0.0014392 8.8206e-05 0.00097206
-0.00031393 0.0024008 -0.0038056 0.0024409 0.10658 -0.25025 0.0021051 -0.00095032
0.0015379 0.0019847 -0.00097308 0.0015953
-0.0029794 -0.0023289 -0.00029981 0.0018631 0.0020418 -0.00096125 0.16665 -0.13498
0.00098604 0.0044143 -0.0024862 0.00019493
-0.00019069 0.0017621 0.00045955 0.0014323 0.0015244 0.0019577 0.00094805 0.0044516
0.24288 0.050078 0.0056846 0.00094179
0.00013338 -0.00050724 8.7979e-05 0.00097766 -0.0010212 0.0015855 -0.0025845 0.00014999
0.0056546 0.00092824 0.27262 0.071512
1940000000 0.17964 -0.16678 5.8163e-05 -0.0012697 0.0016838 0.0019521 -0.0039634 0.00044986
0.0011703 0.00096206 -0.0006406 -0.00035127
4.3798e-05 -0.0012714 0.26028 0.10011 -0.0020016 0.0053266 0.0010901 0.0015198
0.001947 0.00063147 0.00084442 0.00029187
0.0017086 0.001965 -0.001986 0.0053629 0.061757 -0.24279 0.00069416 -0.0023194
0.0023261 0.00049926 0.00028023 0.0017016
-0.0038996 0.00051084 0.0011179 0.0014888 0.00074777 -0.0022617 0.11425 -0.16576
-4.1152e-05 0.0033827 -0.0018267 0.0014238
0.0012117 0.0010102 0.0019467 0.00062915 0.0023116 0.00056939 2.4581e-05 0.0033999
0.24703 0.013117 0.0040839 -0.0029019
-0.00067064 -0.00038187 0.00083316 0.00026047 0.00024059 0.0016726 -0.001751 0.0014605
0.004086 -0.0028963 0.26234 0.035813
2000000000 0.13486 -0.18268 -0.0036141 0.00083999 0.003007 0.0014045 -0.0024499 0.003819
0.0010281 0.00035022 -0.00054637 0.00036873
-0.0035497 0.00084914 0.24776 0.06457 -0.00090354 0.0074557 0.0017888 0.00033893
0.0014112 -0.0011324 0.00039915 3.8065e-05
0.0030156 0.0013668 -0.00088688 0.0074901 0.019314 -0.22891 -0.001424 -0.0016699
0.002078 -0.0011524 0.0014358 0.001407
-0.002538 0.0037683 0.0017892 0.00033218 -0.0014662 -0.0017017 0.061144 -0.1766
-0.0014442 0.0034502 -0.00018136 0.002305
0.00097371 0.0003415 0.001401 -0.0011448 0.0020774 -0.0012022 -0.0014893 0.0034126
0.24406 -0.019681 0.00053846 -0.0036558
