!Keysight Technologies,M9804A,MY58100912,A.14.10.03
!Date: Thursday, April 27, 2023 10:28:33
!Correction: S11(C  6-Port  ) 
!S12(C  6-Port  ) 
!S13(C  6-Port  ) 
!S14(C  6-Port  ) 
!S15(C  6-Port  ) 
!S16(C  6-Port  ) 
!S21(C  6-Port  ) 
!S22(C  6-Port  ) 
!S23(C  6-Port  ) 
!S24(C  6-Port  ) 
!S25(C  6-Port  ) 
!S26(C  6-Port  ) 
!S31(C  6-Port  ) 
!S32(C  6-Port  ) 
!S33(C  6-Port  ) 
!S34(C  6-Port  ) 
!S35(C  6-Port  ) 
!S36(C  6-Port  ) 
!S41(C  6-Port  ) 
!S42(C  6-Port  ) 
!S43(C  6-Port  ) 
!S44(C  6-Port  ) 
!S45(C  6-Port  ) 
!S46(C  6-Port  ) 
!S51(C  6-Port  ) 
!S52(C  6-Port  ) 
!S53(C  6-Port  ) 
!S54(C  6-Port  ) 
!S55(C  6-Port  ) 
!S56(C  6-Port  ) 
!S61(C  6-Port  ) 
!S62(C  6-Port  ) 
!S63(C  6-Port  ) 
!S64(C  6-Port  ) 
!S65(C  6-Port  ) 
!S66(C  6-Port  ) 
!S6P File: Measurement: :
# Hz S  RI   R 50
500000000 -0.33135 -0.063546 -0.0096887 -0.0008269 -0.0086539 0.012828 -0.0036102 0.012087
0.012698 0.0057357 -0.0035578 0.0077361
-0.0097418 -0.00068877 -0.41199 -0.072024 0.0086636 -0.010563 0.0019466 0.012513
0.0082585 0.002884 0.0021576 0.014119
-0.0085525 0.01292 0.0086529 -0.010587 -0.26482 0.19157 0.0068837 0.0036366
-0.0019816 0.0084578 0.00029563 0.012256
-0.0035447 0.01189 0.0021762 0.012489 0.006947 0.0035905 -0.32937 0.038487
-0.01863 -0.0048365 0.018154 0.026668
0.012655 0.0053633 0.0081981 0.0027979 -0.0019611 0.0085108 -0.01888 -0.0047397
-0.23505 -0.21492 -0.02702 0.0046271
-0.0034835 0.0077602 0.0024215 0.014243 0.00033569 0.012266 0.017969 0.026752
-0.026612 0.0042297 -0.26362 -0.13936
560000000 -0.3196 0.1034 -0.021822 -0.067245 -5.1954e-05 0.013552 0.0047001 0.011669
0.01083 0.0049458 0.01094 0.0093611
-0.021571 -0.066991 -0.3734 0.092397 -0.040869 -0.039898 0.01387 0.0040579
-0.011468 -0.0054423 0.0035715 -0.00016173
-0.00013089 0.013632 -0.040981 -0.039844 -0.18636 0.24385 -0.0006819 -0.0047163
0.018602 0.0066483 0.0076921 -0.005991
0.0048248 0.011896 0.013798 0.004078 -0.00060893 -0.0048633 -0.30682 0.12937
0.0056984 -0.023665 0.0050048 -0.022624
0.010895 0.0049446 -0.011649 -0.0054201 0.018413 0.0067642 0.0058654 -0.023666
-0.30852 -0.030168 0.0097556 -0.050953
0.01104 0.0092288 0.003578 -7.7798e-05 0.0076472 -0.0060703 0.0052045 -0.02264
0.0096027 -0.050823 -0.3313 0.011215
620000000 -0.27893 0.083392 -0.0234 0.0086997 0.0034017 0.0095276 0.0086204 -0.0045444
0.011351 -0.0018494 0.00046968 -0.0020187
-0.023519 0.0088698 -0.40226 0.039254 -0.018364 0.00020156 -0.0017468 -0.0018905
0.012174 -0.005794 0.00078659 -0.0027924
0.0033307 0.0095542 -0.018417 0.00025419 -0.15739 0.25328 -0.0007036 -0.0053865
-0.0036193 -0.0023303 0.0097996 -0.0035591
0.0085107 -0.0045606 -0.00181 -0.0019101 -0.00073076 -0.0054152 -0.26405 0.14028
-0.039021 -0.019679 0.013797 0.027043
0.011277 -0.0017432 0.012188 -0.0057998 -0.0036547 -0.002291 -0.039069 -0.01984
-0.2254 -0.067623 -0.043247 0.013126
0.0007914 -0.0017462 0.00069889 -0.0029244 0.0098802 -0.0036515 0.01386 0.027019
-0.043255 0.013226 -0.24692 -0.02768
680000000 -0.24292 0.17641 -0.026376 -0.015124 0.004657 0.0056817 0.00099063 -0.0070449
-0.0013063 -0.011317 0.0056787 -0.0075849
-0.026307 -0.015196 -0.39108 0.14115 -0.032645 -0.0026359 -0.0017698 -0.00036253
-0.001237 -0.0092105 -0.00065249 -0.0023544
0.0047425 0.0055808 -0.03265 -0.0025869 -0.10743 0.27569 -0.0009296 -3.6734e-05
-0.0013363 0.00045644 -0.0024976 -0.0093314
0.0011587 -0.007084 -0.0017692 -0.00031612 -0.00099481 -9.7462e-05 -0.22032 0.19264
-0.023663 -0.0075508 -0.008991 -0.011775
-0.0013505 -0.011402 -0.0012797 -0.0091611 -0.0012611 0.0005821 -0.023638 -0.0075492
-0.28067 0.035546 -0.0073823 -0.0078322
0.0057154 -0.0076454 -0.00068035 -0.0022303 -0.0025246 -0.0092576 -0.0088586 -0.011631
-0.0075246 -0.0079733 -0.26258 0.07938
740000000 -0.19584 0.16924 -0.040488 0.026371 0.013824 -0.0042205 0.0003606 -0.0040316
-0.0045715 -0.0030726 -0.0065146 0.0032905
-0.040459 0.026448 -0.33689 0.16059 -0.037818 0.034133 -6.0763e-06 -0.005874
-0.012343 0.0068275 -0.0010364 -0.0061124
0.013863 -0.004264 -0.037878 0.034258 -0.07349 0.27374 -0.0019356 0.0034205
-0.0018595 -0.0058077 -0.0015299 0.0010609
0.00045759 -0.004076 2.1516e-05 -0.005839 -0.0019041 0.0034358 -0.2042 0.2007
-0.042677 -0.010106 0.022906 0.016705
-0.0046635 -0.0030839 -0.012474 0.0068659 -0.0020602 -0.0058674 -0.042782 -0.010005
-0.1837 0.067334 -0.042034 -0.00020942
-0.0063767 0.0034348 -0.0011845 -0.0060626 -0.0015442 0.0010385 0.022799 0.016736
-0.041532 -0.00010078 -0.25182 0.085807
800000000 -0.16602 0.21458 -0.022785 0.015464 0.0059167 -0.010467 -0.0044266 -0.0027228
-0.0048745 0.0020137 0.0043967 3.0358e-05
-0.022897 0.015455 -0.34435 0.23126 -0.0092721 0.033984 -0.0020441 0.0017803
-0.0010909 0.002218 0.0010692 0.0051749
0.0057604 -0.010584 -0.0091873 0.034026 -0.035121 0.29908 0.00094928 0.0011727
-2.3578e-05 0.0032731 -0.0018494 0.0006287
-0.0044097 -0.0028382 -0.0020395 0.0017684 0.00090324 0.001183 -0.17566 0.22781
-0.028397 0.012568 0.014212 -0.010901
-0.0047883 0.002045 -0.0010682 0.0021773 0.00013425 0.0032927 -0.028364 0.012713
-0.22783 0.092206 -0.017452 0.020808
0.0046206 -0.00038994 0.0012297 0.0050515 -0.00183 0.00065124 0.014271 -0.010862
-0.017828 0.020458 -0.24663 0.13546
860000000 -0.13152 0.23571 -0.018646 0.030437 -0.0030089 -0.010209 -0.0019577 0.00054479
0.0036479 0.0055181 -0.0037665 -0.0031369
-0.018716 0.030383 -0.29751 0.27602 0.0067286 0.034759 0.00029842 0.0022482
0.0032956 0.00088363 0.0031608 0.00095273
-0.0030733 -0.010186 0.0068152 0.034809 0.012409 0.30849 -0.00047455 -0.00029111
0.0020642 -0.0012696 0.0013215 0.0044187
-0.0019272 0.000529 0.00032211 0.0022286 -0.0004869 -0.00030224 -0.139 0.23873
-0.018399 0.017878 -0.0059077 -0.0091112
0.0037503 0.005693 0.0033605 0.00086597 0.0020252 -0.0012232 -0.01837 0.017907
-0.17209 0.14798 -0.026543 0.01662
-0.0037981 -0.0031381 0.0032538 0.0011025 0.0013473 0.0044769 -0.0058964 -0.009178
-0.026356 0.01665 -0.19519 0.18463
920000000 -0.10885 0.25947 0.0040517 0.039173 -0.009373 -0.0049166 -0.0020925 0.0017779
0.0010673 0.0023623 0.0031631 -0.0012805
0.004054 0.03914 -0.27015 0.29794 0.027878 0.023507 0.0014423 0.0011892
0.0078568 0.00040604 0.0045901 -0.0028982
-0.0094236 -0.004917 0.027985 0.02346 0.058098 0.31055 0.0018544 3.2846e-05
0.00099539 -7.5711e-06 0.0010814 -0.001597
-0.0020301 0.001745 0.0014221 0.0011833 0.0018127 3.0346e-05 -0.11544 0.25602
-0.012054 0.030388 0.0040613 -0.0067307
0.0010964 0.0022956 0.0078194 0.00038645 0.0010376 3.0814e-05 -0.012018 0.030386
-0.16003 0.15188 -0.0022971 0.02637
0.003064 -0.0014983 0.0045123 -0.0029398 0.0010653 -0.0015864 0.0040461 -0.0066704
-0.0022791 0.02626 -0.2054 0.19662
980000000 -0.062459 0.28085 0.016136 0.030791 -0.0095753 0.0043825 0.0017984 0.0037739
0.0037696 -0.0014512 -0.0034034 -0.00254
0.01606 0.030784 -0.21775 0.33412 0.033223 0.0060407 0.0019831 -0.00017943
0.0015206 -0.0059009 -0.00037303 -0.0026021
-0.0095598 0.0044023 0.033274 0.0059514 0.10411 0.30518 0.0007256 -0.0012059
0.00044566 -0.0017092 0.0014704 -0.00021309
0.0017725 0.0037612 0.0019451 -0.0001979 0.00072692 -0.0012025 -0.077124 0.26737
0.0062764 0.029806 -0.0095107 -0.0070607
0.0037039 -0.0014355 0.0015044 -0.005977 0.00037846 -0.0017154 0.0063811 0.029818
-0.12998 0.18566 0.006204 0.020376
-0.003414 -0.0024063 -0.0004156 -0.0026197 0.0014774 -0.00025158 -0.0094995 -0.0071029
0.0059914 0.020486 -0.16321 0.24261
1040000000 -0.021833 0.29046 0.032813 0.020055 -0.0015045 0.007345 0.0026887 0.00081932
0.00067032 -0.0033303 -3.0713e-05 -0.0018236
0.032797 0.020078 -0.18294 0.34813 0.030254 -0.01396 0.0015559 -0.0017436
-0.0020305 -0.0024924 -0.0010988 -0.0034438
-0.0014537 0.0073687 0.030218 -0.014075 0.14999 0.29285 -0.00045894 -0.0015349
-0.0015076 -0.00098426 -0.00058587 -0.0011677
0.0027173 0.00071343 0.00155 -0.0017489 -0.00046846 -0.0015289 -0.050392 0.27755
0.018612 0.019196 -0.0026734 0.0010032
0.00060258 -0.003336 -0.002048 -0.0025087 -0.001487 -0.00098219 0.018633 0.019213
-0.097357 0.1932 0.013849 0.018961
-3.8338e-05 -0.0020333 -0.0010918 -0.0034428 -0.00058235 -0.0011578 -0.0026658 0.0010249
0.013764 0.018756 -0.14219 0.26342
1100000000 0.023121 0.30069 0.036868 -0.0024044 0.0032012 0.0043531 0.0025435 -0.001036
-0.0023633 -0.0031117 -0.0042083 -0.00010927
0.036838 -0.002317 -0.13942 0.36768 0.016317 -0.027578 2.2464e-05 -0.0018148
-0.0036838 -0.00092962 -0.0036868 -0.00038899
0.003217 0.0043208 0.016231 -0.027672 0.19634 0.27396 -0.0019128 0.00015538
-0.0017172 0.00057961 -0.0010926 -0.00056543
0.0025729 -0.0010181 2.2497e-05 -0.0018056 -0.0019076 0.00016182 -0.010467 0.28327
0.024361 0.006374 -0.0025564 7.2467e-05
-0.0023986 -0.0031036 -0.0036512 -0.00089485 -0.0017345 0.00061632 0.02434 0.006343
-0.077781 0.20738 0.019476 0.0097096
-0.0040596 -4.358e-05 -0.0036401 -0.00036249 -0.0011049 -0.0005682 -0.0025599 7.7132e-05
0.019493 0.0097833 -0.095733 0.29497
1160000000 0.074191 0.29745 0.025477 -0.019829 0.0032753 -0.00047444 -0.00010473 -0.0025494
-0.003952 -0.00088341 -0.0010995 0.0040394
0.025446 -0.019839 -0.096052 0.37272 -0.0028227 -0.029297 -0.0015412 -0.0017831
-0.0027153 0.0023585 -0.0016101 0.0017997
0.0032719 -0.0004651 -0.0029754 -0.029322 0.23969 0.24435 -0.00075288 0.0017312
-0.00055405 0.0018406 -0.0010592 0.00029272
-0.00013879 -0.0026405 -0.0015274 -0.0017833 -0.00074985 0.001722 0.028512 0.28113
0.021525 -0.0093575 -0.0035132 0.005295
-0.0039699 -0.00090898 -0.0026865 0.0024111 -0.00052043 0.001921 0.021505 -0.0093853
-0.043207 0.21674 0.018568 0.00028372
-0.001175 0.0041037 -0.0016294 0.0018531 -0.0010689 0.0003132 -0.003522 0.0052559
0.01868 0.000352 -0.048868 0.29901
1220000000 0.11796 0.28885 0.012333 -0.030051 -0.0012514 -0.0013165 3.2087e-05 -0.00097061
-0.0028885 0.0021576 0.0010307 0.0021484
0.012369 -0.029991 -0.051802 0.38701 -0.016573 -0.021834 -0.0026172 0.00045696
1.6317e-05 0.0029986 -0.00085275 0.0020054
-0.0012396 -0.0013004 -0.016668 -0.021781 0.27942 0.20663 0.00075136 0.0017154
0.0005707 0.0011786 0.00018148 0.00059629
3.4124e-05 -0.00094346 -0.0026124 0.0004797 0.00075866 0.0017104 0.068512 0.27368
0.011211 -0.016299 0.0023202 0.0015101
-0.0029286 0.0021598 1.873e-05 0.0029979 0.00055652 0.0011842 0.011241 -0.016312
-0.020149 0.22686 0.014946 -0.012614
0.0010577 0.0021281 -0.00083292 0.0019828 0.00017579 0.00058465 0.0023435 0.0015527
0.014908 -0.012545 -0.019011 0.31599
1280000000 0.16848 0.26902 -0.0065968 -0.029385 -0.001926 0.0020059 -0.00099407 -0.0021829
-0.00087363 0.003283 0.0027266 0.0014225
-0.0066109 -0.029347 -0.0052671 0.37922 -0.023986 -0.0088783 -0.00094679 0.0014247
0.0016827 0.0017371 0.00075101 0.0021414
-0.0019246 0.0020118 -0.024057 -0.0087738 0.31081 0.16332 0.0016057 -5.6569e-05
0.0010735 0.00023288 0.00023384 0.00025072
-0.00098747 -0.0021881 -0.00096515 0.001407 0.0016144 -4.6672e-05 0.10558 0.25811
0.0018582 -0.018811 0.00023759 0.00034732
-0.00081948 0.0032627 0.0017025 0.0017095 0.001083 0.00024437 0.001813 -0.018823
0.016265 0.23122 0.0038008 -0.015085
0.0026688 0.0013703 0.00072462 0.0021664 0.00024513 0.00025532 0.00024437 0.00035722
0.0038323 -0.015085 0.029027 0.31955
1340000000 0.20612 0.2374 -0.01681 -0.020213 0.00047871 0.0043689 -0.0019121 -0.00082324
0.001433 0.0027357 0.0018359 -0.0012741
-0.016784 -0.020235 0.034253 0.37242 -0.021624 0.0040924 -0.00020725 0.0019658
0.0019315 0.00076127 0.001049 0.00079263
0.00050447 0.0043505 -0.021625 0.0041981 0.33347 0.11648 0.00091493 -0.00093778
0.00062875 -0.00053251 1.7729e-05 0.00028337
-0.0018838 -0.00078075 -0.00018438 0.0019526 0.00093158 -0.00092517 0.13914 0.23851
-0.0076216 -0.016611 0.00096271 0.00036659
0.0014446 0.0027926 0.0019548 0.00074371 0.0006327 -0.0005398 -0.0076448 -0.016598
0.046111 0.2277 -0.0033936 -0.014082
0.0018651 -0.0013266 0.0010884 0.00077786 2.6222e-05 0.00026983 0.00094881 0.00036845
-0.0033857 -0.014112 0.066815 0.31536
1400000000 0.24086 0.20106 -0.023506 -0.008748 0.0049539 0.0032462 -0.0022674 0.00069481
0.0025857 0.0010339 0.00040618 -0.0016531
-0.023485 -0.0087426 0.072798 0.36042 -0.014908 0.012413 0.0012422 0.0013302
0.0012586 -0.00072468 0.0012345 0.00011289
0.0049648 0.0032271 -0.014874 0.012501 0.3475 0.063035 5.1286e-05 -0.0015103
0.00012293 -0.00033195 0.00037948 0.00024157
-0.0022658 0.00070913 0.0012433 0.0013142 3.1602e-05 -0.0015112 0.16934 0.20991
-0.013937 -0.010073 -0.0008321 -0.00040626
0.0025645 0.0010208 0.0012464 -0.0007201 0.00013497 -0.00033666 -0.013949 -0.010044
0.079605 0.22481 -0.0097881 -0.009136
0.00045316 -0.0016529 0.0012245 0.00010428 0.00038541 0.00026525 -0.00079303 -0.0004083
-0.0098125 -0.0091464 0.1121 0.30591
1460000000 0.26472 0.15806 -0.020913 0.0038243 0.0054369 -0.0016854 -0.0015298 0.0018371
0.0021986 -0.00030098 -0.00020212 -0.00098595
-0.020918 0.0038023 0.10764 0.33889 -0.0058773 0.015482 0.0016285 0.00025585
0.00095402 -0.0012421 0.0012106 -0.00050573
0.0054356 -0.0016731 -0.0058031 0.015509 0.35419 0.0086999 -0.0011549 -0.0011351
0.00020226 -0.00011444 0.00080085 -0.00017923
-0.001496 0.0018534 0.0016483 0.00024891 -0.0011169 -0.0011198 0.19653 0.18105
-0.015183 -0.0035897 -0.00096974 0.0018575
0.0021598 -0.00033617 0.00094602 -0.001261 0.00019005 -0.00010538 -0.01519 -0.0035741
0.10937 0.21188 -0.012079 -0.0032089
-0.00021135 -0.00099463 0.0012192 -0.00054313 0.00080396 -0.00019536 -0.00097276 0.001865
-0.01209 -0.003244 0.14555 0.28569
1520000000 0.27851 0.11726 -0.015599 0.009709 0.0032943 -0.004141 0.00018946 0.0026851
0.0023095 -0.0018378 -0.0011598 -0.00014389
-0.015596 0.0096875 0.14192 0.32507 0.0019421 0.012892 0.0016976 -0.00066213
0.00010122 -0.00099924 0.00038909 -0.0010751
0.0032735 -0.0041397 0.0020116 0.012884 0.3476 -0.047136 -0.00089093 -0.00031655
0.00072708 -0.00088815 0.00011115 -0.00022571
0.00018592 0.0026662 0.001695 -0.00066441 -0.0009011 -0.00033016 0.22074 0.14284
-0.01492 0.0020414 0.0014511 0.0021381
0.0022805 -0.0018658 0.0001021 -0.0010082 0.00073431 -0.00088759 -0.014923 0.002088
0.13785 0.19974 -0.011946 0.001331
-0.0012223 -0.00013216 0.00039019 -0.0010621 0.00012008 -0.00021977 0.0014499 0.002137
-0.01193 0.0013094 0.1791 0.26696
1580000000 0.28946 0.071358 -0.0089811 0.013431 -0.0010392 -0.0048502 0.0015503 0.0017853
-0.00013439 -0.0022238 -0.00028786 0.00036829
-0.0089851 0.013413 0.16999 0.30024 0.0055464 0.0077624 0.00063131 -0.0015217
-0.00043138 -0.0010729 -0.00016205 -0.00082729
-0.001089 -0.0048135 0.0056161 0.0077391 0.32804 -0.10484 -0.0015152 0.0004136
-0.00027197 -0.0012694 0.00042165 -0.00063954
0.0015627 0.00183 0.00061951 -0.0015326 -0.0014996 0.0004273 0.23525 0.10317
-0.011638 0.0071872 0.0021607 0.00075435
-0.00015751 -0.0022207 -0.00043521 -0.0010779 -0.0002727 -0.0012596 -0.011632 0.0072083
0.16282 0.18312 -0.0094774 0.0072609
-0.00024993 0.0003297 -0.0001698 -0.00083458 0.00043489 -0.00066181 0.0022026 0.00074969
-0.0094519 0.0073214 0.2121 0.24073
1640000000 0.29273 0.030455 -0.0019868 0.012521 -0.0029064 -0.0025361 0.0027418 0.0010387
-0.00068478 -0.0017393 -0.00039943 0.00057785
-0.0019962 0.012525 0.19977 0.27586 0.0058809 0.0027294 -0.00044657 -0.0018786
-0.00096497 -0.00052029 -0.00050395 -0.00067983
-0.0029082 -0.0025402 0.0059022 0.0027039 0.29958 -0.15354 -0.00065776 0.0012535
-0.0010507 -0.0010666 -0.00019872 -0.00037441
0.0027279 0.0010182 -0.0004515 -0.0018646 -0.00068554 0.0012648 0.24822 0.053881
-0.0075372 0.0085825 0.0025196 -0.00076893
-0.00072801 -0.0017144 -0.00095966 -0.00051521 -0.0010449 -0.0010627 -0.0075365 0.0086051
0.18644 0.16051 -0.004661 0.0093456
-0.00041561 0.00060862 -0.00051167 -0.00066983 -0.00020687 -0.00037589 0.0024806 -0.00079945
-0.0046617 0.0093117 0.23816 0.21043
1700000000 0.28722 -0.014998 0.0016742 0.0099449 -0.0036516 0.00030671 0.003197 -0.0011884
-0.0020463 -0.00069179 0.00057861 0.00037248
0.0016628 0.0099419 0.21862 0.24436 0.003379 -0.00029144 -0.0014293 -0.00074644
-0.00082661 -0.00010828 -0.00089307 -0.00047
-0.0036481 0.00031163 0.0033825 -0.00032012 0.25727 -0.19351 0.00012463 0.0015285
-0.0020379 -0.00020668 -0.00049025 -0.00085625
0.0031865 -0.0012084 -0.0014473 -0.00074905 0.00013124 0.0015251 0.24537 0.0033464
-0.0047456 0.0093688 0.0016276 -0.0021468
-0.0020644 -0.00068366 -0.00082318 -0.00011765 -0.0020394 -0.00025503 -0.0047116 0.0093605
0.20521 0.14137 -0.00011871 0.0097714
0.00059132 0.00039741 -0.00090312 -0.00046938 -0.00048209 -0.00085404 0.0016685 -0.0021446
-5.6445e-05 0.0098435 0.2559 0.17667
1760000000 0.27602 -0.064186 0.0043214 0.0066545 -0.0021084 0.0012961 0.0013848 -0.0035015
-0.0013502 0.00056528 0.00039666 -0.00056713
0.0042993 0.0066524 0.24474 0.20468 0.00076552 -0.0017685 -0.0013124 -3.2195e-05
-0.0011814 0.00090743 -0.00057893 0.00039766
-0.0021532 0.0012791 0.00075894 -0.0017787 0.20881 -0.22664 0.0010074 0.0011542
-0.0012675 0.0014457 -0.0012702 -0.00051468
0.0013335 -0.0035131 -0.0013187 -3.5236e-05 0.0010285 0.001141 0.23621 -0.048614
-0.0013252 0.008717 -0.00020134 -0.0023701
-0.0013619 0.00057187 -0.0011694 0.00092258 -0.0012428 0.0014087 -0.0013242 0.008743
0.22108 0.1077 0.0038923 0.007315
0.00035116 -0.0005741 -0.00057043 0.00040029 -0.0013138 -0.00050943 -0.00020837 -0.0024387
0.0039029 0.0072527 0.26922 0.13929
1820000000 0.25258 -0.10173 0.0045471 0.003047 0.0001315 0.0025311 -0.0008502 -0.0031514
-0.0012475 0.00097938 -0.00012519 -5.6893e-05
0.0045422 0.0030455 0.25534 0.17498 -0.0016564 -0.00012718 -0.0015603 0.00095812
-0.00015695 0.0012308 -0.00066352 0.00052504
0.00018743 0.002556 -0.0016614 -9.5941e-05 0.15822 -0.24194 0.0015554 0.00042015
-0.00028526 0.0023053 -0.0015571 0.0004267
-0.00089957 -0.0031612 -0.0015555 0.00096279 0.0015647 0.00049525 0.20616 -0.09636
0.00033306 0.007191 -0.0017097 -0.0017621
-0.0012248 0.00097191 -0.00014899 0.0012425 -0.00029556 0.0023487 0.00035967 0.0071946
0.23985 0.079792 0.0048528 0.0036053
-9.6006e-05 -8.7475e-05 -0.00064403 0.00053419 -0.0015467 0.00043232 -0.0017386 -0.0016983
0.0048891 0.0036899 0.27228 0.10385
1880000000 0.2177 -0.14296 0.0023424 0.00067714 -0.00041801 0.0022242 -0.0029846 -0.0022065
-0.00028943 0.0018384 0.00012111 -0.000607
0.0023412 0.00066318 0.25978 0.12844 -0.003609 0.002393 -0.0003464 0.0019039
0.00055837 0.0014321 4.9036e-05 0.0010368
-0.00041871 0.0022419 -0.0035858 0.0024236 0.10608 -0.25084 0.0019348 -0.00082922
0.0015155 0.0020359 -0.0010611 0.0015788
-0.0029548 -0.0022335 -0.00030741 0.0019152 0.00196 -0.00084061 0.16506 -0.13657
0.0012685 0.0052604 -0.0024307 0.00021935
-0.00027402 0.0018227 0.00055694 0.0014286 0.001498 0.0020156 0.0012491 0.0052294
0.24504 0.048728 0.0052786 0.0013467
0.00014075 -0.00055869 4.5697e-05 0.0010692 -0.0010681 0.0015808 -0.0024287 0.00018927
0.005299 0.0013284 0.27318 0.069545
1940000000 0.17846 -0.16898 0.00025563 -0.0010778 0.0015708 0.0020432 -0.0039471 0.00029483
0.0011716 0.0009947 -0.00062316 -0.00053413
0.00023876 -0.0010528 0.26085 0.097294 -0.0017562 0.0052952 0.0010748 0.0014642
0.0019521 0.00049655 0.00092695 0.00027879
0.0016228 0.0020141 -0.0017136 0.0052929 0.061589 -0.24314 0.00073813 -0.0024748
0.0024462 0.00047016 0.00025304 0.0015145
-0.0039284 0.00031564 0.0010896 0.0014667 0.00075773 -0.0024255 0.11248 -0.16669
0.00050197 0.003876 -0.0014745 0.0014467
0.0012098 0.00097558 0.0019633 0.00049129 0.002466 0.00048135 0.00051003 0.0039038
0.24933 0.011174 0.0040274 -0.0021189
-0.00066478 -0.0005355 0.00094226 0.00027239 0.00027317 0.0015004 -0.0014863 0.0015028
0.0039686 -0.0021236 0.26284 0.034105
2000000000 0.13294 -0.18409 -0.0034403 0.00095093 0.0028874 0.0013364 -0.0022628 0.0037207
0.0012882 0.00047328 -0.0005018 0.00051063
-0.0034447 0.0009262 0.24733 0.06205 -0.00071292 0.0072519 0.0018523 0.00037031
0.001387 -0.0012231 0.00050336 6.0961e-05
0.002916 0.0013938 -0.0006725 0.0072549 0.01899 -0.22957 -0.0012566 -0.0016441
0.0021121 -0.00098652 0.0015844 0.001433
-0.0022408 0.0036965 0.0018697 0.00036319 -0.001209 -0.0016667 0.059063 -0.17673
-0.0011229 0.0036591 -0.00021564 0.0022683
0.0012437 0.00044218 0.0013694 -0.001247 0.0021574 -0.0010114 -0.0011059 0.0036174
0.24573 -0.022147 0.00072335 -0.0032198
