!Keysight Technologies,M9804A,MY58100912,A.14.10.03
!Date: Thursday, April 27, 2023 10:28:33
!Correction: S11(C  6-Port  ) 
!S12(C  6-Port  ) 
!S13(C  6-Port  ) 
!S14(C  6-Port  ) 
!S15(C  6-Port  ) 
!S16(C  6-Port  ) 
!S21(C  6-Port  ) 
!S22(C  6-Port  ) 
!S23(C  6-Port  ) 
!S24(C  6-Port  ) 
!S25(C  6-Port  ) 
!S26(C  6-Port  ) 
!S31(C  6-Port  ) 
!S32(C  6-Port  ) 
!S33(C  6-Port  ) 
!S34(C  6-Port  ) 
!S35(C  6-Port  ) 
!S36(C  6-Port  ) 
!S41(C  6-Port  ) 
!S42(C  6-Port  ) 
!S43(C  6-Port  ) 
!S44(C  6-Port  ) 
!S45(C  6-Port  ) 
!S46(C  6-Port  ) 
!S51(C  6-Port  ) 
!S52(C  6-Port  ) 
!S53(C  6-Port  ) 
!S54(C  6-Port  ) 
!S55(C  6-Port  ) 
!S56(C  6-Port  ) 
!S61(C  6-Port  ) 
!S62(C  6-Port  ) 
!S63(C  6-Port  ) 
!S64(C  6-Port  ) 
!S65(C  6-Port  ) 
!S66(C  6-Port  ) 
!S6P File: Measurement: :
# Hz S  RI   R 50
500000000 -0.33084 -0.065008 -0.010562 -0.00098232 -0.0090811 0.013269 -0.0042993 0.012072
0.013035 0.0055535 -0.003976 0.0085098
-0.010554 -0.0010313 -0.412 -0.073529 0.0085244 -0.0107 0.0018071 0.011856
0.0080586 0.0035698 0.00030853 0.013826
-0.0090632 0.013288 0.008518 -0.010738 -0.2647 0.19082 0.0076364 0.0031294
-0.0022001 0.0088201 0.00025947 0.012706
-0.004098 0.012426 0.0016096 0.011617 0.0073187 0.0031346 -0.32998 0.037084
-0.020313 -0.0048183 0.015839 0.024883
0.012899 0.0050403 0.0081072 0.0035278 -0.0023208 0.0092736 -0.019966 -0.0047001
-0.23402 -0.21546 -0.027125 0.0050858
-0.0046672 0.0087309 0.0020096 0.013231 0.0010339 0.011768 0.017324 0.02508
-0.028564 0.0045469 -0.26495 -0.14344
560000000 -0.31974 0.10357 -0.021646 -0.067355 9.1402e-05 0.013714 0.0054493 0.011569
0.011014 0.0041694 0.01122 0.0084834
-0.021616 -0.067253 -0.37287 0.09252 -0.041215 -0.039811 0.014193 0.0045892
-0.01255 -0.0042368 0.0036509 -0.0019932
0.00011478 0.013725 -0.041359 -0.03972 -0.18643 0.24343 -0.00077917 -0.0055541
0.01848 0.0069846 0.0084326 -0.0058536
0.0052015 0.011958 0.014053 0.0038243 -0.00060479 -0.0052212 -0.3074 0.13
0.0071054 -0.023589 0.0055353 -0.022094
0.011307 0.0058046 -0.013802 -0.0038769 0.01793 0.006564 0.0069058 -0.024317
-0.31013 -0.033871 0.010479 -0.050139
0.010581 0.0085459 0.003738 -0.0016615 0.0078264 -0.0064528 0.0050514 -0.021459
0.011017 -0.052072 -0.33027 0.0091025
620000000 -0.27804 0.081908 -0.023455 0.0086927 0.0037448 0.0094087 0.0076532 -0.0041713
0.013026 -0.00095784 -0.00016872 -0.0021988
-0.023446 0.0086278 -0.40207 0.038237 -0.018515 3.506e-05 -0.0017153 -0.0022244
0.012794 -0.0057961 0.00034719 -0.0039302
0.0037883 0.0094051 -0.018558 9.2281e-05 -0.15775 0.25235 -0.00071583 -0.0054604
-0.0028071 -0.0030459 0.01008 -0.0025966
0.0081276 -0.0039831 -0.0014915 -0.0021098 -0.00089962 -0.0054098 -0.26465 0.141
-0.039857 -0.020799 0.014074 0.028764
0.012541 -0.0022564 0.012801 -0.0059818 -0.0030666 -0.0022087 -0.039928 -0.02117
-0.22369 -0.069383 -0.04369 0.01157
-0.00040066 -0.0015936 0.00091459 -0.0032944 0.0094771 -0.0035981 0.014644 0.028708
-0.043047 0.0094747 -0.24521 -0.023995
680000000 -0.24347 0.17646 -0.026542 -0.015179 0.0048852 0.0056915 0.0011028 -0.0071412
-0.0022125 -0.011919 0.0061652 -0.0063445
-0.026509 -0.015189 -0.39138 0.13989 -0.032848 -0.0027876 -0.0018209 -0.00063943
-0.0012223 -0.0095857 -0.00066174 -0.0016847
0.0049076 0.0056607 -0.032888 -0.0027188 -0.1081 0.2749 -0.00089865 -0.00042139
-0.0011164 0.00042571 -0.0027931 -0.009338
0.0016067 -0.0073192 -0.0014732 -0.00014408 -0.00066696 -0.00019426 -0.22122 0.19338
-0.023661 -0.0081021 -0.0090799 -0.011334
-0.0016953 -0.011612 -0.0017267 -0.0095315 -0.0017015 0.00051165 -0.023834 -0.0079334
-0.28145 0.036806 -0.0058592 -0.0071221
0.0057301 -0.0069819 -0.00114 -0.0018112 -0.0026895 -0.0094045 -0.010056 -0.010708
-0.0056917 -0.0073794 -0.25986 0.07789
740000000 -0.19622 0.16906 -0.041141 0.026908 0.013798 -0.004378 0.00010648 -0.0041253
-0.0049221 -0.0032316 -0.0068465 0.0022962
-0.04115 0.026861 -0.3373 0.1584 -0.037729 0.034863 0.00014797 -0.0061119
-0.01239 0.0084458 -0.0016658 -0.0062685
0.013813 -0.0044505 -0.037662 0.035036 -0.074848 0.27317 -0.0019417 0.003241
-0.0023064 -0.005438 -0.0018683 0.00067653
0.00023969 -0.0042114 -1.2414e-05 -0.0060466 -0.0020167 0.0032205 -0.20499 0.19998
-0.043426 -0.0086396 0.02256 0.016163
-0.0049611 -0.0027774 -0.012903 0.0072188 -0.0017971 -0.0059326 -0.043184 -0.0099059
-0.1821 0.065686 -0.042981 -0.00038444
-0.0057605 0.002541 -0.0016331 -0.0061058 -0.0020188 0.00079699 0.02332 0.016569
-0.043699 0.00099918 -0.2537 0.085304
800000000 -0.16606 0.21493 -0.022875 0.016045 0.0059722 -0.010341 -0.0046591 -0.0026328
-0.0046124 0.001754 0.0041991 0.00092891
-0.022879 0.016011 -0.34527 0.23054 -0.0095339 0.034568 -0.0023369 0.0019781
-0.0008555 0.0024364 0.00057695 0.005754
0.0059115 -0.010379 -0.009445 0.034633 -0.036351 0.29908 0.00080614 0.0012384
0.00019259 0.0031992 -0.0017616 0.0010329
-0.0046167 -0.0024598 -0.0021907 0.0019203 0.00084713 0.0012031 -0.17622 0.2275
-0.028716 0.012502 0.015083 -0.010943
-0.0050082 0.001674 -0.00092701 0.0022561 4.2061e-05 0.0032878 -0.028801 0.012916
-0.22845 0.091253 -0.018685 0.021346
0.0042935 0.00066117 0.00076203 0.0055101 -0.0017699 0.00097934 0.01453 -0.010356
-0.017675 0.020068 -0.24474 0.13571
860000000 -0.13185 0.23557 -0.018798 0.030344 -0.0028843 -0.010455 -0.0018223 0.00047801
0.0041577 0.0058356 -0.0038889 -0.0034649
-0.018802 0.030293 -0.29848 0.27485 0.0068664 0.035212 0.00017629 0.0019163
0.0033939 0.0012301 0.0036814 -0.00032574
-0.0029047 -0.01048 0.0070001 0.035217 0.011355 0.30893 -0.00052746 -0.000355
0.0023081 -0.0012441 0.0018229 0.0040613
-0.0019366 0.00049379 0.00016192 0.0020347 -0.00061838 -0.0003096 -0.13959 0.23943
-0.019093 0.018464 -0.0064751 -0.0091492
0.003965 0.0053451 0.0035946 0.00073575 0.0023362 -0.0014481 -0.01875 0.01762
-0.17174 0.14717 -0.025906 0.015683
-0.0041982 -0.0031162 0.0030988 0.00028941 0.001527 0.0043382 -0.0059826 -0.0092743
-0.02723 0.016815 -0.19746 0.18182
920000000 -0.10895 0.25928 0.003963 0.039168 -0.0094776 -0.0052317 -0.0019635 0.0016297
0.00071784 0.0015709 0.0030975 -0.00081291
0.003919 0.039114 -0.27108 0.29731 0.028229 0.023745 0.0013913 0.0011743
0.0073163 -7.6533e-05 0.004266 -0.0026877
-0.0095005 -0.0051951 0.028373 0.023696 0.057246 0.31124 0.0018064 5.9589e-05
0.00067416 -0.00029334 0.00094446 -0.0015361
-0.0019187 0.001733 0.0013224 0.0011609 0.0017816 1.6914e-05 -0.11597 0.25656
-0.011482 0.030869 0.0040001 -0.0065289
0.00073639 0.0019355 0.0075789 -4.2755e-05 0.00085965 -6.0611e-05 -0.011842 0.031135
-0.16249 0.15248 -0.0020237 0.027518
0.0031799 -0.0014365 0.0044026 -0.0029982 0.0010274 -0.001668 0.0046448 -0.0068113
-0.0015374 0.027423 -0.20574 0.19645
980000000 -0.063177 0.28069 0.016319 0.031167 -0.0098429 0.0044932 0.0016252 0.0038821
0.0038581 -0.001298 -0.003298 -0.0025058
0.01628 0.031118 -0.21885 0.33375 0.033832 0.006072 0.0021142 -0.00023227
0.0018299 -0.0059636 -0.00033931 -0.0026696
-0.0098351 0.0045194 0.033917 0.0059772 0.10364 0.30603 0.00070632 -0.0010899
0.00051388 -0.0017395 0.0013846 -0.00031507
0.001599 0.0038236 0.0020738 -0.00013967 0.00069827 -0.0010532 -0.077781 0.26789
0.0069544 0.030368 -0.0094883 -0.0078136
0.0039774 -0.0013717 0.0017498 -0.0061392 0.00048894 -0.0017575 0.0072987 0.030468
-0.12974 0.18458 0.0052212 0.020672
-0.0034493 -0.0025791 -0.00026422 -0.0027613 0.0014724 -0.000386 -0.0099458 -0.0080245
0.004591 0.019984 -0.16428 0.24215
1040000000 -0.022611 0.29021 0.033284 0.02026 -0.0015123 0.0075653 0.0025937 0.00072278
0.00056865 -0.0034776 -0.00040185 -0.0015414
0.033211 0.020209 -0.18413 0.34812 0.030755 -0.01434 0.0015994 -0.0017483
-0.0023651 -0.0025673 -0.0013678 -0.0029583
-0.0014944 0.0075585 0.030764 -0.014469 0.14995 0.29389 -0.00049124 -0.0016372
-0.0015812 -0.00094168 -0.0005056 -0.0012899
0.0026188 0.00063397 0.0015617 -0.0017942 -0.00049855 -0.001663 -0.050609 0.27816
0.019501 0.01949 -0.0026242 0.0011148
0.00042502 -0.0034066 -0.0023858 -0.0025471 -0.0014957 -0.0010221 0.019465 0.019559
-0.097559 0.19222 0.013549 0.019013
0.00019782 -0.0016834 -0.0013963 -0.0029461 -0.00059609 -0.0011348 -0.0023508 0.0012175
0.013573 0.018994 -0.14337 0.26442
1100000000 0.022698 0.30061 0.037494 -0.0026217 0.0032751 0.0043943 0.0023837 -0.0010666
-0.0022258 -0.0029515 -0.0040466 0.00021346
0.037446 -0.0026015 -0.14045 0.3677 0.016445 -0.028321 -9.4957e-05 -0.0018484
-0.0035765 -0.00081037 -0.0035425 -0.00041941
0.0032966 0.0043787 0.016362 -0.02844 0.1968 0.27481 -0.00189 0.00021477
-0.0019031 0.00061951 -0.0011704 -0.00040792
0.0023656 -0.0010604 -0.00012962 -0.0018282 -0.0019212 0.00021487 -0.010343 0.2839
0.025282 0.0058772 -0.0028901 0.00048339
-0.0022682 -0.0029025 -0.0036445 -0.00081775 -0.0018393 0.00066183 0.02536 0.0059915
-0.078449 0.20751 0.020103 0.009871
-0.0040438 -3.8193e-06 -0.0037197 -0.00046538 -0.0010502 -0.00052925 -0.0027493 9.6087e-05
0.02014 0.0096153 -0.097584 0.29495
1160000000 0.073362 0.29776 0.025798 -0.020325 0.0034602 -0.00052245 -0.00017675 -0.0024279
-0.0040957 -0.00070617 -0.0011872 0.004196
0.025763 -0.020311 -0.096837 0.37342 -0.0032266 -0.029881 -0.0014578 -0.0016875
-0.0027376 0.0025964 -0.0016886 0.0019305
0.0034481 -0.00053789 -0.0033478 -0.029903 0.24041 0.24478 -0.00078313 0.0018372
-0.00059749 0.0019466 -0.0011693 0.00022707
-0.00015274 -0.0024174 -0.001581 -0.001643 -0.00076656 0.001807 0.028916 0.28168
0.021982 -0.010437 -0.003442 0.0051152
-0.0041 -0.00080502 -0.0026601 0.0026596 -0.00051794 0.0019481 0.022083 -0.010681
-0.044485 0.21616 0.019907 0.00012754
-0.0012122 0.004213 -0.0016867 0.0018347 -0.0012338 0.00042807 -0.0035311 0.0052544
0.019745 4.0314e-05 -0.049553 0.29902
1220000000 0.11727 0.28916 0.012296 -0.030756 -0.001191 -0.0013771 9.9241e-05 -0.0009165
-0.0028271 0.0021876 0.0011103 0.0020421
0.012299 -0.030734 -0.052168 0.3878 -0.017159 -0.022061 -0.0026456 0.00058043
0.00012557 0.0031341 -0.0009322 0.0019117
-0.0012002 -0.0013793 -0.017279 -0.022008 0.28004 0.20633 0.00087452 0.0017218
0.00065397 0.0012713 0.0001031 0.00066405
0.00011148 -0.00087081 -0.0025879 0.00055771 0.00088974 0.0017187 0.069179 0.27383
0.011165 -0.017661 0.002207 0.0015987
-0.0028147 0.0022875 0.00015115 0.0031711 0.00063585 0.0013652 0.011171 -0.017775
-0.021448 0.22689 0.014663 -0.013106
0.001189 0.0020084 -0.00085822 0.0020163 0.00030625 0.0006919 0.0021731 0.0016787
0.014825 -0.012938 -0.019419 0.31634
1280000000 0.16821 0.26979 -0.0070462 -0.029932 -0.0019903 0.0020164 -0.00091575 -0.00203
-0.00089112 0.0033771 0.0026159 0.0014149
-0.0070233 -0.029892 -0.0050428 0.37985 -0.024574 -0.0086921 -0.00088201 0.0015131
0.0017926 0.0016761 0.00073086 0.0021511
-0.0019826 0.0020201 -0.024659 -0.0085861 0.3109 0.16292 0.0017001 -0.00010406
0.0011619 0.00018712 0.00028896 0.00033619
-0.00091631 -0.0020511 -0.00085877 0.0014891 0.0017035 -7.7072e-05 0.10625 0.25764
0.00099345 -0.020193 -0.00023699 0.00022935
-0.00084988 0.0033705 0.0017938 0.001721 0.0011352 0.00023897 0.0008839 -0.020183
0.015246 0.23171 0.003966 -0.016139
0.0025983 0.0013743 0.00071702 0.0020686 0.00023195 0.00040642 -4.4456e-05 0.00027832
0.0038289 -0.016285 0.027548 0.31949
1340000000 0.2061 0.23796 -0.017577 -0.020317 0.00042545 0.0043857 -0.0018709 -0.00096539
0.0015102 0.0028763 0.0018144 -0.0014488
-0.017541 -0.0203 0.034721 0.37242 -0.02192 0.0045827 -6.8962e-05 0.0019761
0.0019604 0.00080805 0.0012501 0.00080286
0.00046037 0.0043888 -0.021922 0.0046912 0.33307 0.11591 0.00096557 -0.0010118
0.00070651 -0.00047192 0.00014969 0.00026999
-0.0018813 -0.00091167 -9.9065e-05 0.0020271 0.0009927 -0.0010303 0.13957 0.23766
-0.0091603 -0.01711 0.0010039 0.0004519
0.0014757 0.002832 0.0019651 0.00075729 0.00072947 -0.00056406 -0.0091459 -0.017093
0.045259 0.22831 -0.0038462 -0.014754
0.00181 -0.0015007 0.0012242 0.00081229 7.9839e-05 0.00025386 0.00095925 0.00051413
-0.0039664 -0.014714 0.066953 0.31586
1400000000 0.24103 0.20117 -0.024189 -0.0084848 0.005027 0.0032912 -0.0022991 0.00076658
0.0026554 0.0010909 0.00042139 -0.0016563
-0.02415 -0.0084897 0.07322 0.35975 -0.014886 0.012946 0.0012987 0.001274
0.0011733 -0.00084277 0.0012683 0.00019842
0.0050341 0.0032763 -0.014848 0.013043 0.34666 0.063008 -7.8967e-05 -0.001561
9.4668e-05 -0.00040449 0.00046583 0.00039036
-0.0022698 0.00070721 0.0013231 0.0012657 -9.3681e-05 -0.0015944 0.16917 0.20893
-0.015527 -0.0097448 -0.00094959 1.2251e-05
0.0027408 0.0010984 0.0011876 -0.00081274 0.00010464 -0.00039187 -0.015613 -0.0097128
0.079153 0.2255 -0.010328 -0.0094855
0.00039141 -0.001576 0.001224 8.8749e-05 0.00047027 0.00033646 -0.00092037 -0.00013521
-0.010411 -0.0094896 0.11158 0.30605
1460000000 0.26474 0.15789 -0.021315 0.0045445 0.0055496 -0.0016669 -0.0015808 0.0017681
0.0023278 -0.00060174 -0.00041254 -0.00091617
-0.0213 0.0045407 0.10754 0.33775 -0.0055405 0.015815 0.0016315 0.00022568
0.00090282 -0.0013376 0.0011671 -0.00064498
0.0055641 -0.0016981 -0.0054677 0.015873 0.35323 0.0092449 -0.001276 -0.0011984
0.0002723 -0.00019072 0.00062822 -0.00036166
-0.0015654 0.0017851 0.001638 0.00021919 -0.0012295 -0.0011255 0.19599 0.18008
-0.016306 -0.0023166 -0.00086737 0.002112
0.0022486 -0.00049406 0.00091454 -0.0013075 0.00018851 -0.00014616 -0.016346 -0.0023024
0.10906 0.21245 -0.012608 -0.0031966
-0.00030504 -0.0010138 0.0012047 -0.00053682 0.00082012 -0.00020403 -0.00092466 0.0021376
-0.01273 -0.0031265 0.14535 0.28624
1520000000 0.2783 0.11691 -0.015487 0.01045 0.0033697 -0.0042077 0.00015922 0.0027009
0.0022599 -0.0018663 -0.0011821 -0.000197
-0.01548 0.010431 0.14118 0.32387 0.0023715 0.012925 0.0016662 -0.00068399
1.7044e-05 -0.0009147 0.00032768 -0.0011109
0.003346 -0.004223 0.0024465 0.012918 0.34694 -0.046163 -0.00088726 -0.00029384
0.00057433 -0.0009108 0.00024963 -0.00023851
0.00018922 0.0027176 0.0016742 -0.0006972 -0.00085893 -0.00030317 0.2196 0.14228
-0.015095 0.0039256 0.0017116 0.002062
0.0022602 -0.0019933 2.4734e-05 -0.00096696 0.00071433 -0.00099046 -0.015112 0.0039212
0.1378 0.20036 -0.012319 0.0019457
-0.0010867 -9.0564e-05 0.00030356 -0.0010673 0.00015658 -0.00021836 0.0016544 0.0022452
-0.012559 0.0017933 0.17861 0.26669
1580000000 0.28874 0.071129 -0.0084586 0.014 -0.001013 -0.0049011 0.0016312 0.0018209
-0.00033556 -0.0023159 -0.00024626 0.00055167
-0.0084604 0.013987 0.16862 0.2992 0.0058622 0.0076201 0.00060086 -0.0015609
-0.00051022 -0.0010579 -0.00025728 -0.00082712
-0.0010294 -0.0048842 0.0059196 0.0075917 0.32772 -0.10379 -0.001522 0.0004414
-0.00039444 -0.0013627 0.0002958 -0.00063657
0.0016057 0.0018055 0.0005997 -0.0015387 -0.0015318 0.00053743 0.23383 0.10304
-0.01073 0.0087252 0.002241 0.00073941
-0.00029397 -0.0024038 -0.00052034 -0.0010561 -0.00043925 -0.0012741 -0.010702 0.0087666
0.16279 0.18361 -0.0097031 0.0076755
-0.00024478 0.000504 -0.00025264 -0.00073709 0.00030625 -0.00059151 0.0023749 0.0006989
-0.0095118 0.0080458 0.21158 0.24106
1640000000 0.29166 0.030525 -0.0012986 0.012681 -0.0029638 -0.0025852 0.0028295 0.0010258
-0.00078216 -0.0016826 -0.00035747 0.00058932
-0.0013103 0.012676 0.1978 0.27543 0.0059746 0.002546 -0.00047801 -0.0018519
-0.00085606 -0.00044564 -0.00051411 -0.00066655
-0.0029688 -0.002585 0.006002 0.0024954 0.29934 -0.15215 -0.00063063 0.0013268
-0.0010858 -0.00096351 -0.00020909 -0.00051652
0.0028183 0.0010228 -0.00051359 -0.0018588 -0.0005633 0.0013183 0.24678 0.054597
-0.0060038 0.0092858 0.0026116 -0.00078723
-0.00081659 -0.0016909 -0.00086667 -0.000442 -0.0010704 -0.000915 -0.0059374 0.0092722
0.18659 0.16032 -0.0045425 0.010341
-0.00032284 0.00048403 -0.00055533 -0.00064735 -0.00024895 -0.0005244 0.0024429 -0.00076652
-0.0047077 0.010101 0.23758 0.21076
1700000000 0.28592 -0.014304 0.002286 0.0095909 -0.0036398 0.00013221 0.0031335 -0.0012383
-0.0022376 -0.00054451 0.00058428 0.0003946
0.0022754 0.0095858 0.21646 0.24453 0.0034357 -0.00046879 -0.0014731 -0.00077556
-0.00077551 -0.00013898 -0.00095349 -0.00035646
-0.0036404 0.00016393 0.0034403 -0.00050839 0.25761 -0.192 0.00028592 0.0014875
-0.0020693 -6.9051e-05 -0.00044743 -0.00086909
0.003132 -0.001266 -0.0014883 -0.00073955 0.00020699 0.0014993 0.24413 0.0048507
-0.0031273 0.0090043 0.0016373 -0.0020803
-0.0021773 -0.00054317 -0.00077983 -0.00013495 -0.0021439 -0.00017609 -0.0031725 0.0090246
0.20524 0.14118 0.00030754 0.010164
0.00061393 0.00031702 -0.00085528 -0.00040687 -0.00045985 -0.00081224 0.0017299 -0.0021717
0.00034994 0.010172 0.2552 0.17762
1760000000 0.27503 -0.062744 0.0044877 0.0061457 -0.00242 0.0012931 0.0013004 -0.003537
-0.001301 0.00062226 0.00032193 -0.0005691
0.0044812 0.0061392 0.24253 0.20567 0.00056739 -0.0021303 -0.0013173 3.3027e-05
-0.0010849 0.00074799 -0.00059044 0.00035686
-0.002413 0.0013133 0.00056467 -0.0021386 0.20987 -0.22582 0.0011103 0.0010724
-0.0010624 0.0013565 -0.0014236 -0.00040354
0.0012966 -0.0035322 -0.0013174 4.8355e-05 0.0011248 0.0011732 0.23578 -0.046599
-0.00045927 0.0075813 -0.00026308 -0.0024682
-0.0013272 0.00067549 -0.0011082 0.00082673 -0.0011074 0.001485 -0.00031785 0.0076238
0.22059 0.1073 0.004316 0.0075023
0.00030386 -0.00053998 -0.00057061 0.00038602 -0.0012602 -0.00048467 -0.00018602 -0.0025473
0.0044478 0.0076021 0.26878 0.14003
1820000000 0.25217 -0.099963 0.0044873 0.0025033 0.00012179 0.0025416 -0.00094359 -0.0031385
-0.0010764 0.0009677 -0.00015204 -0.00023402
0.0044856 0.0025087 0.25366 0.17668 -0.0018505 -0.00033902 -0.0014553 0.0010563
-0.00019809 0.0012455 -0.00055664 0.00046432
0.0001457 0.0025579 -0.0018166 -0.0003094 0.15902 -0.24183 0.0015651 0.00048702
-0.00023451 0.0023629 -0.0015083 0.00043717
-0.0009306 -0.0031352 -0.0014707 0.0010201 0.0015608 0.00050836 0.20682 -0.094186
0.0007717 0.0060423 -0.0017108 -0.0018478
-0.0010657 0.0010329 -0.00016721 0.0011831 -0.00019578 0.0022679 0.00053778 0.0060266
0.2391 0.079482 0.0056831 0.0035614
-0.00017596 -0.00029056 -0.00049117 0.00042217 -0.0015021 0.00036481 -0.0016157 -0.0017989
0.0056775 0.0035965 0.27221 0.1044
1880000000 0.21827 -0.14124 0.0021646 0.00044091 -0.00031123 0.0023661 -0.0029377 -0.0022651
-0.00018775 0.0017124 2.3004e-05 -0.00054853
0.0021565 0.00044948 0.25874 0.13066 -0.0038416 0.0024715 -0.00022153 0.0018818
0.00045596 0.001409 0.00017127 0.0008805
-0.00027845 0.0023884 -0.0038253 0.0024563 0.10651 -0.25055 0.0020044 -0.0009826
0.0015853 0.0019198 -0.00092538 0.0013314
-0.0029698 -0.0022265 -0.00022682 0.0018942 0.0019068 -0.0008905 0.16687 -0.13513
0.00082773 0.0040916 -0.002461 -7.3752e-05
-0.00013907 0.0016637 0.00046117 0.0014082 0.0015198 0.0019485 0.00096461 0.0043064
0.24383 0.048501 0.0058115 0.00096935
5.2671e-05 -0.00050035 9.1551e-05 0.00091197 -0.00093583 0.001347 -0.0025709 -2.17e-05
0.0058269 0.00093847 0.27331 0.070079
1940000000 0.17976 -0.16745 1.7461e-05 -0.0010565 0.0016698 0.0021341 -0.0039579 0.0003703
0.0011819 0.00089182 -0.00054158 -0.00042492
2.3196e-05 -0.0010498 0.26053 0.099681 -0.001977 0.005354 0.0010982 0.001523
0.0018424 0.00058293 0.00088048 0.00024099
0.0017121 0.0021018 -0.001925 0.0054086 0.062356 -0.2432 0.00061737 -0.0022131
0.0022853 0.00044214 0.00027013 0.0016644
-0.0039576 0.00047206 0.0011034 0.0015013 0.0006582 -0.002312 0.11442 -0.16643
-0.00012663 0.0033002 -0.002097 0.0014765
0.001205 0.00089088 0.0018858 0.00058044 0.0022809 0.00044436 -9.955e-05 0.0031475
0.24778 0.011379 0.0039399 -0.0028528
-0.00065502 -0.00033656 0.00077825 0.00030222 0.00015993 0.0015825 -0.0017534 0.0014137
0.0040611 -0.0028405 0.26314 0.034115
2000000000 0.13449 -0.18328 -0.0035296 0.0009201 0.0030256 0.0013194 -0.0023884 0.0038585
0.00092042 0.0004354 -0.00052342 0.0006541
-0.0035253 0.00091009 0.24784 0.064259 -0.00076563 0.007393 0.0018116 0.00027719
0.0013656 -0.00116 0.00042957 0.0002351
0.0029499 0.0012877 -0.00074388 0.0073637 0.019704 -0.22934 -0.0012488 -0.0017343
0.0019846 -0.0010971 0.0014583 0.0015829
-0.0022529 0.0038793 0.0018262 0.00034334 -0.0012498 -0.0016458 0.06079 -0.17693
-0.0018111 0.0033763 5.7097e-05 0.0024392
0.0010925 0.00043537 0.001427 -0.0011206 0.0021004 -0.0010994 -0.0017613 0.0034953
0.24411 -0.021263 0.00072101 -0.0034485
