!Keysight Technologies,M9804A,MY58100912,A.14.10.03
!Date: Thursday, April 27, 2023 10:28:33
!Correction: S11(C  6-Port  ) 
!S12(C  6-Port  ) 
!S13(C  6-Port  ) 
!S14(C  6-Port  ) 
!S15(C  6-Port  ) 
!S16(C  6-Port  ) 
!S21(C  6-Port  ) 
!S22(C  6-Port  ) 
!S23(C  6-Port  ) 
!S24(C  6-Port  ) 
!S25(C  6-Port  ) 
!S26(C  6-Port  ) 
!S31(C  6-Port  ) 
!S32(C  6-Port  ) 
!S33(C  6-Port  ) 
!S34(C  6-Port  ) 
!S35(C  6-Port  ) 
!S36(C  6-Port  ) 
!S41(C  6-Port  ) 
!S42(C  6-Port  ) 
!S43(C  6-Port  ) 
!S44(C  6-Port  ) 
!S45(C  6-Port  ) 
!S46(C  6-Port  ) 
!S51(C  6-Port  ) 
!S52(C  6-Port  ) 
!S53(C  6-Port  ) 
!S54(C  6-Port  ) 
!S55(C  6-Port  ) 
!S56(C  6-Port  ) 
!S61(C  6-Port  ) 
!S62(C  6-Port  ) 
!S63(C  6-Port  ) 
!S64(C  6-Port  ) 
!S65(C  6-Port  ) 
!S66(C  6-Port  ) 
!S6P File: Measurement: :
# Hz S  RI   R 50
500000000 -0.33717 -0.034451 -0.0097372 -0.0035466 -0.0077759 0.011746 -0.0035973 0.011631
0.011781 0.0042178 -0.0042879 0.0083824
-0.0097472 -0.0035326 -0.41942 -0.049387 0.0072653 -0.011433 0.0015276 0.011843
0.0075907 0.0026679 0.00067471 0.013636
-0.0077415 0.011766 0.0072431 -0.011452 -0.26491 0.2117 0.0069482 0.0033071
-0.00010361 0.0087295 0.00024674 0.012324
-0.0035889 0.011624 0.0015396 0.01185 0.0069516 0.0033046 -0.32746 0.048129
-0.019645 -0.0044586 0.018107 0.02681
0.011801 0.0042354 0.0076045 0.0026442 -9.0973e-05 0.0087244 -0.019637 -0.0044494
-0.22639 -0.18432 -0.028836 0.0054378
-0.0042851 0.0084084 0.00070487 0.01365 0.00025869 0.012326 0.018113 0.026807
-0.028847 0.0054273 -0.26347 -0.1547
560000000 -0.31579 0.12495 -0.023695 -0.062854 0.0001847 0.01222 0.0061345 0.0097245
0.01089 0.0045509 0.010018 0.0076935
-0.02367 -0.062833 -0.37719 0.10804 -0.041403 -0.036061 0.013322 0.0038862
-0.013302 -0.0043578 0.0043732 -0.00081371
0.00023791 0.01223 -0.04154 -0.036012 -0.18287 0.25921 -0.00033586 -0.0049472
0.018826 0.0042438 0.0071788 -0.0057305
0.0061333 0.0097147 0.013325 0.003879 -0.00034503 -0.0049486 -0.30304 0.13636
0.00408 -0.024511 0.0052958 -0.020052
0.010868 0.004584 -0.013307 -0.0043573 0.018832 0.0042368 0.0040593 -0.02452
-0.28552 -0.0091241 0.0082203 -0.051259
0.010074 0.0076272 0.0043563 -0.00082222 0.0071887 -0.005738 0.0052922 -0.020054
0.008243 -0.051263 -0.33476 -0.0014822
620000000 -0.27302 0.10946 -0.023246 0.0074501 0.0035024 0.0082375 0.0067007 -0.0053956
0.01147 -0.00085283 0.000293 -0.001863
-0.02323 0.0074091 -0.40254 0.063124 -0.018759 9.3257e-05 -0.0013513 -0.0020271
0.010401 -0.0070678 0.0011528 -0.0024653
0.0035283 0.0082234 -0.018787 0.0001388 -0.1525 0.26838 -0.0015696 -0.0051441
-0.0037605 -0.0033524 0.0086237 -0.0032202
0.0067011 -0.0054121 -0.0013633 -0.0020291 -0.0015669 -0.0051436 -0.2613 0.14665
-0.038731 -0.018925 0.014168 0.024868
0.01141 -0.00089321 0.010397 -0.0071075 -0.0037606 -0.0033596 -0.038745 -0.018882
-0.20477 -0.048424 -0.041939 0.015835
0.00031187 -0.0019132 0.0011386 -0.0024705 0.0086273 -0.0032289 0.014175 0.024869
-0.041959 0.015827 -0.24846 -0.044662
680000000 -0.23302 0.19358 -0.027886 -0.013794 0.0047691 0.0048965 0.001225 -0.007402
-0.0032645 -0.010874 0.0049606 -0.0070824
-0.027856 -0.01379 -0.3869 0.15996 -0.032616 -0.0012621 -0.0015985 -0.00018421
-0.0028015 -0.0089776 -0.00089496 -0.0020437
0.0047804 0.0048946 -0.032649 -0.0011796 -0.10159 0.28775 -0.00068811 9.1088e-05
-0.0023614 0.00074497 -0.0027655 -0.0097429
0.0012029 -0.0074223 -0.001588 -0.00017643 -0.00068688 8.5451e-05 -0.21811 0.19609
-0.023491 -0.0079415 -0.010871 -0.011134
-0.0032802 -0.010884 -0.0028327 -0.0089779 -0.0023533 0.00074078 -0.023506 -0.0079255
-0.25241 0.049521 -0.0049801 -0.0096608
0.0049539 -0.0070945 -0.00089418 -0.0020508 -0.0027711 -0.0097533 -0.010875 -0.011142
-0.00498 -0.0096639 -0.26587 0.067924
740000000 -0.18942 0.18827 -0.03812 0.026822 0.012465 -0.0052455 -0.00054062 -0.0038925
-0.0045923 -0.0028633 -0.0062064 0.0034021
-0.038121 0.026775 -0.33462 0.17861 -0.034719 0.034951 -0.00097293 -0.0063778
-0.011494 0.008163 -0.0031454 -0.006764
0.012443 -0.0052732 -0.034634 0.035087 -0.068057 0.28643 -0.0014761 0.0032927
-0.0025851 -0.0040334 -0.00093146 -0.00010769
-0.00056254 -0.0038921 -0.0009952 -0.0063635 -0.0014764 0.0032877 -0.20196 0.20346
-0.042457 -0.0074556 0.022849 0.014111
-0.0045973 -0.0029052 -0.011506 0.0082298 -0.00258 -0.0040323 -0.042483 -0.007401
-0.15569 0.072743 -0.043222 0.00088424
-0.0062072 0.0034092 -0.0031868 -0.006796 -0.00092451 -0.00010947 0.022869 0.014101
-0.043197 0.00083372 -0.26012 0.072483
800000000 -0.15712 0.2286 -0.022262 0.017304 0.0051317 -0.01049 -0.0048328 -0.0020761
-0.0039718 0.0026778 0.0046338 0.00068059
-0.02226 0.017298 -0.33705 0.24882 -0.0077548 0.033936 -0.0021964 0.0021672
-0.00059682 0.0034546 0.0012135 0.0053195
0.005119 -0.01052 -0.00767 0.033989 -0.026871 0.30938 0.0011401 0.0015752
0.0006391 0.0035328 -0.0018293 0.00072582
-0.0048532 -0.0020486 -0.0022 0.0021868 0.0011387 0.001567 -0.17376 0.23097
-0.028222 0.012739 0.013767 -0.010305
-0.0039536 0.0027101 -0.00058931 0.0034588 0.00064074 0.0035373 -0.028228 0.012795
-0.19986 0.097354 -0.017942 0.018258
0.0046219 0.00067179 0.0012249 0.0053305 -0.0018305 0.00071266 0.013772 -0.010322
-0.017971 0.018243 -0.25474 0.12888
860000000 -0.12248 0.24962 -0.017031 0.031185 -0.0034187 -0.0096931 -0.0025644 0.001301
0.0041154 0.0050835 -0.0032656 -0.0031864
-0.017039 0.031151 -0.28913 0.29078 0.0081892 0.034022 0.00020368 0.0021124
0.0042842 0.00041852 0.0031432 0.00024475
-0.0034379 -0.0096825 0.0082989 0.034027 0.02155 0.31708 -0.0003621 -0.00029653
0.0027734 -0.0016281 0.0015976 0.0045319
-0.0025659 0.0013074 0.00020445 0.0021234 -0.0003627 -0.0002982 -0.13802 0.24276
-0.017627 0.018607 -0.0063339 -0.0095438
0.00414 0.0050879 0.0042873 0.00040541 0.0027739 -0.0016353 -0.017609 0.018653
-0.15062 0.14549 -0.025278 0.015534
-0.0032655 -0.0031725 0.0031472 0.00023651 0.0016018 0.0045327 -0.0063375 -0.0095382
-0.025287 0.015517 -0.20279 0.17612
920000000 -0.097021 0.27272 0.0054855 0.037634 -0.0092712 -0.0041435 -0.0018049 0.0022529
0.0012583 0.001613 0.0026023 -0.0014707
0.005455 0.037612 -0.2599 0.31126 0.027991 0.021517 0.0016456 0.0010272
0.0068774 -0.00056816 0.0038779 -0.0031015
-0.0092827 -0.004116 0.028083 0.021459 0.067926 0.31729 0.0018019 -0.00013117
0.0011988 -0.00047643 0.00068893 -0.0011999
-0.0018031 0.002251 0.0016434 0.0010287 0.0018056 -0.00013606 -0.1137 0.25887
-0.010252 0.029758 0.0030456 -0.0067052
0.0012651 0.0016015 0.0068931 -0.00061509 0.0012003 -0.00047196 -0.0102 0.029802
-0.14046 0.15136 -0.0015168 0.02822
0.0026105 -0.001487 0.0038782 -0.0031068 0.00068314 -0.0012014 0.0030383 -0.0067137
-0.0015402 0.028202 -0.21542 0.18891
980000000 -0.049417 0.292 0.017978 0.029637 -0.0086983 0.0046787 0.0024342 0.0036299
0.0039527 -0.0017066 -0.0031238 -0.0020892
0.01794 0.029629 -0.20713 0.34485 0.032687 0.004478 0.0020146 -7.9124e-05
0.0011246 -0.0060712 -0.00046746 -0.0021278
-0.0086766 0.0047081 0.032717 0.004374 0.11416 0.31032 0.00043201 -0.0012036
3.325e-05 -0.0021061 0.0014755 -1.1003e-05
0.0024635 0.0036135 0.0020017 -8.981e-05 0.00043688 -0.001203 -0.075408 0.27015
0.0074723 0.028493 -0.0095352 -0.0069213
0.003935 -0.0017283 0.0011192 -0.0060889 3.0254e-05 -0.0020956 0.007538 0.028491
-0.10845 0.17873 0.0048775 0.019027
-0.0031349 -0.0020888 -0.00049639 -0.0021272 0.0014784 -1.5261e-05 -0.0095375 -0.006908
0.0048689 0.019017 -0.17189 0.23873
1040000000 -0.0065473 0.30007 0.033213 0.017538 -0.0011043 0.006742 0.0027813 0.00072501
6.5464e-06 -0.0036374 -0.00051164 -0.0016142
0.033189 0.017546 -0.17155 0.35772 0.028816 -0.01488 0.001483 -0.0017413
-0.0025762 -0.0023128 -0.0014448 -0.0028771
-0.001075 0.0067409 0.028772 -0.014978 0.16018 0.29628 -0.0005083 -0.001404
-0.001552 -0.00083405 -0.00048853 -0.0011719
0.0027957 0.00070645 0.0014633 -0.0017346 -0.00050917 -0.0014041 -0.047945 0.28023
0.018115 0.016971 -0.0028895 0.0020772
-2.4008e-05 -0.0036359 -0.0025802 -0.0023263 -0.0015483 -0.00082409 0.018153 0.016949
-0.077867 0.18725 0.013449 0.018227
-0.0005038 -0.0016261 -0.0014685 -0.0028459 -0.00048032 -0.0011776 -0.0028821 0.0020847
0.01343 0.018226 -0.15392 0.2616
1100000000 0.03905 0.30731 0.035461 -0.0047446 0.0028566 0.0036585 0.0025227 -0.0014357
-0.0020624 -0.0030614 -0.0040899 7.9178e-05
0.035437 -0.0047148 -0.12799 0.37446 0.014671 -0.027466 1.8167e-05 -0.0018321
-0.0031194 -0.00045053 -0.0035277 -0.00047832
0.0028701 0.0036512 0.014581 -0.027544 0.20629 0.27568 -0.0017698 0.00024294
-0.0016632 0.00066389 -0.0010722 -0.00030607
0.0025233 -0.001449 1.8805e-06 -0.0018365 -0.0017729 0.00024426 -0.0074558 0.28504
0.022588 0.0050155 -0.0023647 0.00072437
-0.0020803 -0.0030463 -0.0031247 -0.00043438 -0.0016567 0.00066703 0.022607 0.00499
-0.059642 0.20023 0.019196 0.0088386
-0.0041022 9.532e-05 -0.0035416 -0.00045368 -0.0010669 -0.00030743 -0.0023612 0.00073246
0.019182 0.0088367 -0.10693 0.29405
1160000000 0.090652 0.30178 0.023453 -0.020843 0.0025859 -0.00053018 -0.00011392 -0.0025742
-0.0040084 -0.00052778 -0.0010332 0.0041151
0.023463 -0.020814 -0.084235 0.37839 -0.0038502 -0.028584 -0.0017542 -0.0016687
-0.0023823 0.0026111 -0.0013506 0.0016203
0.0026058 -0.00054271 -0.0039913 -0.028585 0.24912 0.24471 -0.00061981 0.0017211
-0.00037032 0.0018189 -0.0010385 0.00015994
-0.00010786 -0.0025735 -0.0017735 -0.0016498 -0.0006126 0.0017262 0.031885 0.28219
0.019189 -0.009577 -0.002953 0.0056016
-0.0040252 -0.00051425 -0.0023625 0.0026136 -0.00037469 0.0018199 0.019173 -0.0096037
-0.026489 0.20938 0.017698 0.0010777
-0.00099957 0.0041331 -0.0013523 0.0016288 -0.0010355 0.000169 -0.0029433 0.0056142
0.017694 0.0010623 -0.059335 0.29809
1220000000 0.13513 0.28981 0.009888 -0.029757 -0.0015762 -0.00074208 -0.00012458 -0.0011669
-0.0025058 0.002526 0.0012767 0.0018847
0.0099003 -0.029718 -0.040194 0.38987 -0.01664 -0.020666 -0.0024767 0.00042662
0.00026949 0.002876 -0.000701 0.0017572
-0.0015784 -0.00073489 -0.016758 -0.020616 0.28807 0.2057 0.00085818 0.0015816
0.00059678 0.0011089 0.00036739 0.00080532
-0.0001274 -0.0011654 -0.002486 0.00043844 0.00085697 0.0015858 0.071401 0.27367
0.009238 -0.015213 0.0027295 0.0017338
-0.0025019 0.0025361 0.00028622 0.0028766 0.0005951 0.0011022 0.0092121 -0.015235
-0.0033072 0.21878 0.013903 -0.012479
0.0012899 0.0018847 -0.00069925 0.0017682 0.00037198 0.00080357 0.0027308 0.0017339
0.013902 -0.012475 -0.028842 0.31885
1280000000 0.18451 0.26717 -0.0080802 -0.027957 -0.0018102 0.002532 -0.0011004 -0.0020033
-0.00057037 0.003056 0.0026077 0.0010703
-0.0080497 -0.027936 0.0054586 0.38071 -0.023279 -0.0083052 -0.001002 0.0014864
0.0016399 0.001599 0.00052419 0.0020673
-0.0018056 0.0025397 -0.02334 -0.0082076 0.31868 0.16188 0.0014098 -0.00016201
0.001001 6.5573e-05 0.0003672 0.00045471
-0.0011195 -0.0019956 -0.00099991 0.0014911 0.001414 -0.00016703 0.10785 0.25762
0.00061041 -0.016938 0.00041124 0.00016497
-0.00055105 0.0030647 0.0016611 0.0015916 0.00099977 7.3002e-05 0.00058159 -0.016948
0.033483 0.22266 0.0030215 -0.014393
0.002617 0.0010638 0.0005419 0.0020594 0.00036854 0.00045338 0.00041067 0.00016229
0.003021 -0.014385 0.020227 0.32236
1340000000 0.2212 0.23276 -0.017597 -0.01853 0.00090905 0.0043609 -0.0019469 -0.00075623
0.0014846 0.0025502 0.0017279 -0.0015382
-0.017561 -0.018532 0.044762 0.37231 -0.021176 0.0041215 -2.9511e-05 0.0019569
0.0017251 0.00062923 0.0013516 0.00093402
0.00093599 0.0043504 -0.021181 0.0042286 0.34083 0.11377 0.00092506 -0.00087462
0.00062162 -0.00039737 0.0002101 0.00022676
-0.0019544 -0.00075215 -2.9727e-05 0.001961 0.00093067 -0.00088272 0.14082 0.2376
-0.0074855 -0.014169 0.0013608 7.5795e-05
0.0014926 0.0025462 0.001732 0.00061222 0.00061947 -0.00039717 -0.0075176 -0.014157
0.063865 0.21817 -0.003223 -0.013005
0.0017181 -0.0015468 0.0013628 0.00092338 0.00021268 0.00022664 0.0013611 7.5685e-05
-0.0032178 -0.013 0.059602 0.32032
1400000000 0.25363 0.19413 -0.023095 -0.0072067 0.0050411 0.0029859 -0.0020308 0.00074398
0.0023953 0.00065574 0.00025574 -0.0013307
-0.023063 -0.0072198 0.08169 0.35926 -0.014594 0.012092 0.0013536 0.0012589
0.00093928 -0.00083788 0.0012333 0.0003359
0.0050567 0.0029698 -0.014556 0.01218 0.35392 0.059857 0.00011303 -0.001393
3.2102e-05 -0.00034758 0.00032152 0.00018992
-0.0020298 0.00075356 0.001356 0.0012584 0.00011543 -0.0013919 0.17074 0.20921
-0.012367 -0.0082953 -0.00060745 -0.00084779
0.0023976 0.00064814 0.00093687 -0.00083913 2.8398e-05 -0.00034876 -0.0124 -0.00827
0.0971 0.21355 -0.0094958 -0.0082816
0.00025402 -0.0013272 0.0012365 0.00033023 0.00032327 0.00019291 -0.00061288 -0.00084638
-0.0094887 -0.0082887 0.10638 0.31105
1460000000 0.27603 0.14987 -0.02014 0.0046768 0.0054505 -0.0016914 -0.001523 0.0017449
0.0019393 -0.00073462 -0.00027065 -0.00087898
-0.020128 0.0046603 0.11591 0.33752 -0.0061639 0.014928 0.0017253 0.00013242
0.00081371 -0.0011746 0.001252 -0.00061712
0.0054501 -0.001722 -0.0061026 0.014977 0.35979 0.0051439 -0.0010876 -0.0012484
0.00026344 -7.2688e-05 0.0007097 -0.00048966
-0.0015248 0.0017592 0.0017226 0.0001241 -0.0010891 -0.0012615 0.1979 0.18013
-0.013132 -0.0027797 -0.001081 0.0015638
0.0019315 -0.00074806 0.00080441 -0.0011779 0.00026526 -7.6451e-05 -0.013159 -0.0027577
0.12714 0.19877 -0.01103 -0.0027967
-0.00024766 -0.00088798 0.0012459 -0.00062161 0.00070367 -0.00048358 -0.0010902 0.0015683
-0.011026 -0.0028193 0.14061 0.29078
1520000000 0.28775 0.10803 -0.014535 0.010184 0.0031267 -0.0040908 0.00014385 0.0025549
0.0017349 -0.0016752 -0.0011911 -0.0002216
-0.014532 0.01017 0.14944 0.32263 0.001307 0.012893 0.001595 -0.00082766
7.2553e-05 -0.00088527 0.00035548 -0.0010669
0.0031025 -0.0041058 0.0013766 0.0129 0.35271 -0.051311 -0.00094899 -0.00038293
0.0005586 -0.00080117 -3.8615e-05 -0.00011228
0.00015639 0.002564 0.0015923 -0.00083737 -0.00094665 -0.00039215 0.22181 0.14181
-0.012655 0.0018514 0.0010857 0.0018182
0.0017336 -0.0016879 6.57e-05 -0.00088481 0.00055642 -0.00080363 -0.012672 0.0018832
0.15548 0.18414 -0.011184 0.0012891
-0.00119 -0.00021805 0.00034884 -0.0010655 -3.9053e-05 -0.00011069 0.0010899 0.0018196
-0.011187 0.0012775 0.1753 0.2726
1580000000 0.29666 0.061632 -0.0080285 0.013208 -0.00094875 -0.0047866 0.001411 0.0018176
-0.00047328 -0.0020565 -0.0003921 0.00038698
-0.0080291 0.013194 0.1768 0.29777 0.0049343 0.0082528 0.00042395 -0.0015589
-0.00038361 -0.00098863 -0.00022459 -0.00089617
-0.00096982 -0.0047839 0.0049873 0.0082341 0.33198 -0.10893 -0.0015169 0.00043623
-0.00024694 -0.0011364 0.00013103 -0.0005452
0.0014162 0.0018212 0.00041954 -0.0015651 -0.001524 0.00043939 0.23655 0.10175
-0.010009 0.0059436 0.0018981 0.00064333
-0.00049097 -0.0020519 -0.00039064 -0.00099101 -0.00025416 -0.0011353 -0.009989 0.0059771
0.18021 0.1657 -0.0088969 0.0066221
-0.00039073 0.00039237 -0.00023013 -0.00089689 0.00012936 -0.00054963 0.0018975 0.00063522
-0.0089113 0.0066214 0.20922 0.24633
1640000000 0.29819 0.019916 -0.0014746 0.012187 -0.0026619 -0.0025312 0.0025559 0.00098591
-0.00080024 -0.0011502 -0.00035104 0.00068326
-0.0014883 0.012179 0.20631 0.27238 0.0056642 0.0035993 -0.00075279 -0.0016239
-0.00092815 -0.0004955 -0.0005306 -0.00069638
-0.0026801 -0.0025258 0.0056925 0.0035667 0.30343 -0.15816 -0.0008656 0.0013485
-0.0010381 -0.00084718 -0.00011177 -0.00035067
0.0025611 0.0009792 -0.00075965 -0.0016244 -0.00087013 0.0013528 0.24925 0.051628
-0.0065909 0.0069721 0.0022603 -0.00073193
-0.00081292 -0.0011451 -0.0009341 -0.0004824 -0.0010425 -0.00084169 -0.0065697 0.0069936
0.20337 0.14018 -0.0043304 0.0088591
-0.00034903 0.00068514 -0.00053528 -0.00069982 -0.00011316 -0.0003535 0.0022546 -0.00074132
-0.0043366 0.0088517 0.23637 0.21579
1700000000 0.29023 -0.025522 0.0019684 0.0095084 -0.0034295 0.00012119 0.0029136 -0.0010951
-0.0018305 -0.00042536 0.00067988 0.00046478
0.0019586 0.0094952 0.22435 0.24053 0.0038186 0.00079463 -0.0013871 -0.00053692
-0.0007973 -3.0923e-05 -0.00098744 -0.0004473
-0.003432 0.00013823 0.0038315 0.00078158 0.25962 -0.19773 0.00032007 0.0015842
-0.001744 -0.0002192 -0.00060619 -0.00094906
0.002906 -0.0011082 -0.0013891 -0.00052921 0.00031833 0.0015845 0.24557 0.00052453
-0.0045577 0.0075151 0.001335 -0.0020918
-0.0018352 -0.00041082 -0.00080132 -2.048e-05 -0.0017534 -0.00021697 -0.0045453 0.0075317
0.22099 0.1184 5.2871e-05 0.0092454
0.00068529 0.00045777 -0.00098351 -0.00044292 -0.0006076 -0.00095584 0.0013348 -0.0020922
5.7358e-05 0.0092455 0.25454 0.18158
1760000000 0.27718 -0.074036 0.0043238 0.0063012 -0.0022466 0.00085651 0.0013632 -0.0033572
-0.00097685 0.00064969 0.00035126 -0.00049632
0.0043154 0.0062931 0.25011 0.20025 0.001692 -0.00095182 -0.0010907 0.00019731
-0.0011653 0.00084708 -0.00064789 0.00051719
-0.002239 0.00087225 0.0016837 -0.00095715 0.21043 -0.23062 0.0010894 0.0012837
-0.0011988 0.0013354 -0.0013717 -0.00039568
0.0013468 -0.0033697 -0.0010943 0.00020487 0.0010886 0.0012838 0.23517 -0.051902
-0.0019372 0.007073 -0.00045118 -0.002257
-0.00097303 0.00065926 -0.0011586 0.000867 -0.0011975 0.0013484 -0.0019149 0.0070834
0.23597 0.081758 0.0038042 0.0065108
0.00034806 -0.00049762 -0.00063872 0.00052221 -0.0013758 -0.00039805 -0.00045291 -0.0022576
0.003809 0.0065072 0.26792 0.14415
1820000000 0.25168 -0.11119 0.0046362 0.0027069 -4.3756e-05 0.0024146 -0.00092655 -0.0030689
-0.00082348 0.00062722 3.0814e-05 -0.00017524
0.0046288 0.0027048 0.25962 0.1698 -0.00023784 7.1992e-05 -0.001261 0.00084458
-0.0001317 0.0014089 -0.0005576 0.00055365
-2.8923e-05 0.0024161 -0.00023942 7.401e-05 0.16017 -0.24619 0.0016148 0.00050819
-0.00037901 0.002165 -0.001473 0.00047907
-0.00093334 -0.0030626 -0.0012615 0.00086302 0.0016208 0.00050455 0.20356 -0.099277
-0.00077579 0.0057524 -0.0017425 -0.0014232
-0.00080857 0.00062991 -0.00012576 0.0014106 -0.00038274 0.0021638 -0.00075737 0.0057561
0.25205 0.050443 0.0047143 0.0031205
2.7794e-05 -0.00017812 -0.00055222 0.00055829 -0.0014854 0.00048558 -0.0017499 -0.0014153
0.0047086 0.0031173 0.27184 0.10838
1880000000 0.21576 -0.15064 0.002439 0.00038977 -0.00041642 0.0021303 -0.0028134 -0.0022289
-0.0002534 0.0013712 0.00029565 -0.00058468
0.00243 0.00039131 0.26352 0.12307 -0.0021191 0.0016637 -0.00015847 0.0016784
0.00063879 0.0014191 0.00022375 0.0010332
-0.00039945 0.0021343 -0.0021167 0.0016776 0.10827 -0.25541 0.0019743 -0.00094997
0.0014626 0.0020844 -0.0008895 0.0014978
-0.0028335 -0.0022208 -0.00015275 0.0016791 0.00197 -0.00095007 0.16161 -0.13847
-0.0004715 0.0044743 -0.0023722 0.00077409
-0.0002321 0.0013743 0.00065549 0.0014288 0.0014649 0.0020772 -0.00046732 0.0044831
0.25341 0.015806 0.0043961 0.0012689
0.00028847 -0.00058885 0.0002384 0.0010379 -0.00088637 0.0015027 -0.0023743 0.00078162
0.0043872 0.0012755 0.2729 0.074272
1940000000 0.17591 -0.1757 0.00015028 -0.0014344 0.0013573 0.0019315 -0.0037444 0.00051952
0.0011292 0.0010552 -0.00073379 -0.00067086
0.00014507 -0.0014363 0.26342 0.091192 -0.0010572 0.0038758 0.00093039 0.0013103
0.0020391 0.00057574 0.00091307 0.00022811
0.0013712 0.001918 -0.0010314 0.003884 0.062216 -0.24886 0.00029219 -0.0024304
0.0024784 0.00051189 0.00040571 0.0016395
-0.0037339 0.00054217 0.00094371 0.0013092 0.00029286 -0.0024376 0.10836 -0.1674
-0.0016293 0.0038974 -0.0012591 0.00182
0.0011508 0.0010494 0.0020463 0.00056461 0.0024797 0.00050432 -0.0016223 0.0039038
0.2528 -0.024828 0.0031755 -0.0020199
-0.00073954 -0.00066755 0.00092037 0.00021984 0.0004119 0.0016428 -0.0012493 0.0018234
0.0031733 -0.0020209 0.26305 0.03865
2000000000 0.12958 -0.18935 -0.0037821 0.00058743 0.0023806 0.0015609 -0.0023098 0.0035803
0.00097588 0.00033256 -0.00067786 0.0004709
-0.0037773 0.00058009 0.24858 0.055954 -0.00085503 0.0056819 0.0016214 0.00027196
0.0015829 -0.0015137 0.00053106 0.00013773
0.0023993 0.0015424 -0.00081777 0.0056899 0.01881 -0.23419 -0.0014611 -0.0014948
0.0021148 -0.0012059 0.0017096 0.0013068
-0.0022901 0.003588 0.0016189 0.00025511 -0.0014611 -0.001482 0.055052 -0.1758
-0.0030555 0.0044947 0.00015735 0.0023584
0.00097902 0.00032184 0.0015699 -0.0015265 0.0021209 -0.0012179 -0.0030466 0.004504
0.24372 -0.059831 -8.3701e-05 -0.0026806
