!Keysight Technologies,M9804A,MY58100912,A.14.10.03
!Date: Thursday, April 27, 2023 10:28:33
!Correction: S11(C  6-Port  ) 
!S12(C  6-Port  ) 
!S13(C  6-Port  ) 
!S14(C  6-Port  ) 
!S15(C  6-Port  ) 
!S16(C  6-Port  ) 
!S21(C  6-Port  ) 
!S22(C  6-Port  ) 
!S23(C  6-Port  ) 
!S24(C  6-Port  ) 
!S25(C  6-Port  ) 
!S26(C  6-Port  ) 
!S31(C  6-Port  ) 
!S32(C  6-Port  ) 
!S33(C  6-Port  ) 
!S34(C  6-Port  ) 
!S35(C  6-Port  ) 
!S36(C  6-Port  ) 
!S41(C  6-Port  ) 
!S42(C  6-Port  ) 
!S43(C  6-Port  ) 
!S44(C  6-Port  ) 
!S45(C  6-Port  ) 
!S46(C  6-Port  ) 
!S51(C  6-Port  ) 
!S52(C  6-Port  ) 
!S53(C  6-Port  ) 
!S54(C  6-Port  ) 
!S55(C  6-Port  ) 
!S56(C  6-Port  ) 
!S61(C  6-Port  ) 
!S62(C  6-Port  ) 
!S63(C  6-Port  ) 
!S64(C  6-Port  ) 
!S65(C  6-Port  ) 
!S66(C  6-Port  ) 
!S6P File: Measurement: :
# Hz S  RI   R 50
500000000 -0.33712 -0.034313 -0.0097276 -0.0035372 -0.007751 0.011776 -0.003583 0.011639
0.011808 0.0042216 -0.004258 0.0084214
-0.0097297 -0.0035184 -0.41948 -0.049282 0.0072348 -0.01145 0.0015318 0.011837
0.0075641 0.0026185 0.0007378 0.013618
-0.0077204 0.011776 0.0072181 -0.011476 -0.26494 0.21175 0.0069504 0.0032993
-0.00010896 0.0087267 0.00026563 0.012312
-0.00357 0.011638 0.0015591 0.011843 0.0069513 0.0032951 -0.32741 0.048223
-0.019643 -0.0045009 0.018114 0.026781
0.01182 0.0042346 0.0075699 0.0025989 -9.9656e-05 0.0087274 -0.019643 -0.004484
-0.22647 -0.18427 -0.028758 0.0053873
-0.0042602 0.0084288 0.00076096 0.013632 0.00027959 0.012301 0.01811 0.02677
-0.028755 0.0053833 -0.2637 -0.15384
560000000 -0.3158 0.12507 -0.023593 -0.062874 0.00021156 0.01225 0.0061394 0.0097101
0.010814 0.0045776 0.01004 0.0076374
-0.023557 -0.06282 -0.3772 0.10808 -0.041456 -0.03607 0.013345 0.003921
-0.013255 -0.0043517 0.0043455 -0.0008127
0.00023574 0.012252 -0.041573 -0.036003 -0.18289 0.25927 -0.0003813 -0.0049319
0.01883 0.0042264 0.0072045 -0.0057824
0.0061152 0.0096367 0.01338 0.0039268 -0.00038101 -0.0049366 -0.30298 0.13641
0.0040274 -0.024557 0.0053182 -0.020038
0.010826 0.0045785 -0.013287 -0.0043208 0.018832 0.0042087 0.0040056 -0.024561
-0.2855 -0.0090954 0.0082278 -0.051211
0.010082 0.0076401 0.0043303 -0.00084117 0.0072022 -0.00577 0.0053209 -0.020044
0.0082371 -0.051214 -0.33465 -0.00083564
620000000 -0.2729 0.10956 -0.023186 0.0073959 0.0035217 0.0082502 0.0067105 -0.0054019
0.011396 -0.00087995 0.00029465 -0.0019376
-0.023163 0.0073716 -0.40254 0.063223 -0.018792 0.00011682 -0.0013551 -0.0020403
0.010394 -0.007073 0.0011378 -0.0025037
0.0035358 0.0082162 -0.018807 0.00016859 -0.15247 0.2685 -0.0015524 -0.005148
-0.0037954 -0.0033396 0.0086205 -0.0032292
0.006697 -0.0054167 -0.0013708 -0.0020361 -0.0015386 -0.0051524 -0.26117 0.14669
-0.03884 -0.018894 0.014139 0.024794
0.01142 -0.00094437 0.010381 -0.0071139 -0.0037893 -0.0033349 -0.03885 -0.018872
-0.2047 -0.04839 -0.041872 0.015807
0.00037986 -0.0019268 0.0011298 -0.0025186 0.0086291 -0.0032376 0.014146 0.024789
-0.041884 0.01579 -0.24839 -0.043919
680000000 -0.23296 0.19361 -0.027859 -0.013831 0.0047603 0.0049112 0.0011774 -0.0074124
-0.0032673 -0.010859 0.0049473 -0.0070459
-0.027821 -0.013824 -0.38688 0.15999 -0.032613 -0.0012374 -0.0015933 -0.00018039
-0.002814 -0.0089913 -0.0009199 -0.0020547
0.0047774 0.0048947 -0.032636 -0.0011487 -0.10156 0.28782 -0.00068902 0.0001028
-0.0023592 0.00073936 -0.0027729 -0.0097401
0.0011598 -0.0074383 -0.0015991 -0.00016281 -0.00068578 0.00010306 -0.21805 0.19608
-0.023545 -0.0079367 -0.010848 -0.011096
-0.0033052 -0.010873 -0.0028503 -0.0089857 -0.0023598 0.00074019 -0.02356 -0.0079182
-0.25238 0.049652 -0.0049618 -0.0096656
0.0049338 -0.0070664 -0.00093487 -0.0020444 -0.0027758 -0.0097382 -0.010864 -0.011096
-0.0049515 -0.0096525 -0.26567 0.068415
740000000 -0.18934 0.18832 -0.038148 0.026721 0.012462 -0.0052512 -0.00056549 -0.0039083
-0.0045824 -0.0028253 -0.006176 0.0034087
-0.038139 0.026685 -0.33458 0.17867 -0.034675 0.034968 -0.00097503 -0.0063631
-0.011504 0.0081409 -0.0031754 -0.0067393
0.012462 -0.0052953 -0.03462 0.035113 -0.068009 0.2865 -0.0014727 0.0032855
-0.0025736 -0.0040371 -0.00096541 -0.00010948
-0.00056614 -0.003922 -0.0009965 -0.006354 -0.0014774 0.0032814 -0.20194 0.20348
-0.042476 -0.0074256 0.022808 0.014115
-0.0046127 -0.0028483 -0.011494 0.0082027 -0.0025821 -0.0040322 -0.04252 -0.0073681
-0.15566 0.072925 -0.043215 0.0008726
-0.0061467 0.0034106 -0.0031945 -0.0067353 -0.00096256 -0.00011491 0.022824 0.014076
-0.043214 0.00083642 -0.25992 0.073014
800000000 -0.15708 0.22862 -0.022307 0.017264 0.0051452 -0.010504 -0.0048414 -0.0020737
-0.0039535 0.0026889 0.0046491 0.00069594
-0.022307 0.017266 -0.33709 0.2489 -0.0077388 0.033932 -0.0021891 0.00219
-0.00057318 0.0034344 0.0012551 0.0053297
0.0051272 -0.010515 -0.0076505 0.03398 -0.026789 0.3094 0.0011424 0.0015638
0.00062608 0.0035287 -0.0018392 0.00073792
-0.0048543 -0.0020559 -0.0021855 0.0021967 0.0011413 0.0015617 -0.17372 0.23093
-0.02824 0.012782 0.013743 -0.010293
-0.0039532 0.0027152 -0.0005675 0.0034406 0.00062851 0.0035227 -0.028233 0.01284
-0.19982 0.097477 -0.017961 0.018262
0.004641 0.00067369 0.0012636 0.0053213 -0.001852 0.00072689 0.013746 -0.010305
-0.017972 0.018234 -0.25451 0.12927
860000000 -0.12245 0.24969 -0.017095 0.031154 -0.0034325 -0.0097105 -0.002568 0.0013097
0.0041487 0.0050912 -0.0032687 -0.0032178
-0.017093 0.031123 -0.28912 0.29088 0.0081885 0.034027 0.00021961 0.0021311
0.0042841 0.00039716 0.0031572 0.00024577
-0.003445 -0.0096945 0.0082977 0.034019 0.0216 0.31709 -0.00035891 -0.00030348
0.0027743 -0.0016281 0.0016041 0.0045473
-0.0025584 0.00132 0.00021984 0.0021312 -0.0003566 -0.00030356 -0.13801 0.24274
-0.017617 0.018675 -0.006306 -0.0095455
0.0041802 0.0050912 0.0042896 0.00037788 0.0027709 -0.0016324 -0.017607 0.018709
-0.15055 0.14566 -0.025249 0.015532
-0.0032582 -0.0032099 0.0031593 0.00023467 0.0016121 0.004551 -0.0063133 -0.00954
-0.025243 0.015518 -0.20256 0.17654
920000000 -0.096977 0.27274 0.0054292 0.037635 -0.0092889 -0.0041313 -0.0017953 0.0022466
0.0012414 0.001599 0.0025826 -0.0014932
0.0054091 0.037616 -0.25989 0.31136 0.028003 0.021533 0.0016594 0.0010296
0.006885 -0.0005853 0.0038826 -0.0030614
-0.0093069 -0.004102 0.028081 0.021463 0.06799 0.31731 0.0017964 -0.00013863
0.0012055 -0.00048736 0.00069719 -0.0011893
-0.0017888 0.0022582 0.0016513 0.0010251 0.0018004 -0.00013622 -0.11371 0.25886
-0.01022 0.029788 0.0030435 -0.0066933
0.0012602 0.0016156 0.0068785 -0.0006216 0.0011983 -0.00048987 -0.010175 0.029827
-0.14035 0.15149 -0.0015219 0.028191
0.0026026 -0.0014837 0.003865 -0.0030747 0.00070201 -0.001185 0.0030418 -0.0066916
-0.0015467 0.028179 -0.21515 0.18931
980000000 -0.049351 0.29203 0.017953 0.029635 -0.0086769 0.0046845 0.0024581 0.0035977
0.0039321 -0.0017178 -0.0031219 -0.0020921
0.017925 0.029636 -0.20708 0.34498 0.032678 0.0044895 0.0019984 -7.6076e-05
0.0011446 -0.0060633 -0.00045633 -0.0021185
-0.008666 0.0047261 0.032725 0.0043616 0.11421 0.31031 0.00042672 -0.0012029
4.0235e-05 -0.0021064 0.0015026 -8.9374e-06
0.0024712 0.0036064 0.0019964 -0.00010393 0.00043475 -0.001201 -0.075442 0.27015
0.0075371 0.028502 -0.0095128 -0.0069247
0.0039299 -0.0017306 0.0010973 -0.0060916 3.3328e-05 -0.00212 0.0075963 0.028502
-0.10832 0.17888 0.0048631 0.018997
-0.0031293 -0.0020749 -0.00048064 -0.0021293 0.0015064 -1.265e-06 -0.0095182 -0.0069003
0.0048504 0.018993 -0.17158 0.23909
1040000000 -0.0064663 0.30006 0.033176 0.017543 -0.0010894 0.0067276 0.0027864 0.00068355
-1.5058e-05 -0.003633 -0.00050221 -0.0016286
0.033164 0.017566 -0.17146 0.3578 0.028827 -0.014856 0.0014823 -0.0017196
-0.0025616 -0.0023233 -0.0014262 -0.0028549
-0.0010641 0.0067332 0.028777 -0.014996 0.16024 0.29627 -0.00051642 -0.001402
-0.0015656 -0.0008286 -0.00048013 -0.0011892
0.0027947 0.00067901 0.0014517 -0.0017316 -0.00050796 -0.0014007 -0.047945 0.28029
0.018174 0.016945 -0.0028914 0.0020822
-2.8625e-05 -0.0036318 -0.0026054 -0.0023147 -0.0015684 -0.00083227 0.018195 0.016921
-0.077689 0.18737 0.013441 0.018191
-0.00050167 -0.0016172 -0.0014637 -0.0028491 -0.00047317 -0.0011834 -0.0028828 0.0020865
0.013431 0.018185 -0.15346 0.26191
1100000000 0.039071 0.30731 0.035439 -0.004705 0.0028663 0.0036548 0.0025183 -0.0014467
-0.0020707 -0.0030577 -0.0040849 6.9435e-05
0.035413 -0.0046765 -0.1279 0.37455 0.014673 -0.027473 -3.2003e-06 -0.0018295
-0.0031024 -0.00044275 -0.0035185 -0.00047752
0.0028704 0.0036465 0.014578 -0.027556 0.20635 0.27564 -0.0017702 0.00024945
-0.0016673 0.00066687 -0.0010805 -0.00033277
0.0025222 -0.0014545 -1.3741e-05 -0.0018364 -0.0017713 0.00024441 -0.0074455 0.28509
0.022629 0.0049741 -0.0023564 0.00073215
-0.0020821 -0.0030376 -0.0031216 -0.0004323 -0.0016685 0.00066501 0.022637 0.0049339
-0.059498 0.20025 0.019172 0.0087983
-0.0040861 9.2267e-05 -0.003533 -0.00046507 -0.0010801 -0.00033238 -0.0023562 0.00073895
0.019161 0.0088144 -0.10643 0.29425
1160000000 0.090703 0.30175 0.023441 -0.020801 0.0026102 -0.00053188 -9.3268e-05 -0.0025946
-0.0040209 -0.00053174 -0.0010257 0.0041116
0.023438 -0.02076 -0.084127 0.37842 -0.0038694 -0.02857 -0.0017625 -0.0016245
-0.0023501 0.0026027 -0.001353 0.0016271
0.0026085 -0.0005416 -0.0040106 -0.028599 0.24918 0.24467 -0.0005997 0.0017219
-0.00037237 0.0018264 -0.0010574 0.00015077
-0.00010411 -0.0025831 -0.0017776 -0.001633 -0.00061304 0.001726 0.031902 0.28226
0.019188 -0.009651 -0.0029464 0.0055994
-0.0040327 -0.00050953 -0.0023581 0.0026029 -0.00037445 0.0018201 0.019176 -0.0096877
-0.026325 0.20939 0.017651 0.0010763
-0.0010045 0.0041482 -0.0013563 0.0016296 -0.0010627 0.00015605 -0.0029433 0.005612
0.017647 0.0010832 -0.058844 0.29817
1220000000 0.13513 0.2898 0.0099116 -0.029692 -0.0015753 -0.0007404 -0.00013637 -0.0011619
-0.0025113 0.0025177 0.0012842 0.0018778
0.0099252 -0.029654 -0.04011 0.38989 -0.016676 -0.020665 -0.0024837 0.00044705
0.00028296 0.0028672 -0.00069988 0.0017508
-0.0015791 -0.00073017 -0.016778 -0.020616 0.28813 0.20562 0.00086264 0.0015826
0.00060971 0.0011118 0.00034256 0.00080989
-0.00013671 -0.0011639 -0.002478 0.00045079 0.00086688 0.0015789 0.071488 0.27375
0.0092061 -0.015264 0.0027276 0.0017412
-0.0025117 0.0025322 0.00029986 0.0028571 0.00060404 0.0011036 0.0091864 -0.015285
-0.0031471 0.21871 0.013858 -0.012428
0.0012885 0.0018811 -0.00069257 0.0017573 0.00034157 0.00081352 0.0027337 0.0017385
0.013848 -0.012421 -0.028398 0.31881
1280000000 0.18454 0.26717 -0.0079964 -0.027898 -0.0018109 0.0025414 -0.0011181 -0.0019945
-0.00056722 0.0030635 0.0025943 0.0010724
-0.0079884 -0.02787 0.0055513 0.3807 -0.023305 -0.0082861 -0.00098434 0.0014905
0.0016334 0.0015852 0.00052469 0.0020541
-0.0018025 0.0025435 -0.023368 -0.0081867 0.31871 0.16181 0.0014057 -0.00016669
0.00099977 7.5551e-05 0.0003602 0.00045378
-0.0011172 -0.0019866 -0.00098382 0.0014915 0.0014073 -0.00016366 0.10795 0.25766
0.00054968 -0.016971 0.00042245 0.00015904
-0.00054112 0.0030697 0.0016499 0.0015773 0.00099308 7.286e-05 0.00052073 -0.016971
0.033561 0.22259 0.0030351 -0.0143
0.0025945 0.0010705 0.00053054 0.0020517 0.00036402 0.00045541 0.00042421 0.00015824
0.0030413 -0.014303 0.0206 0.32229
1340000000 0.22121 0.23281 -0.017495 -0.018531 0.00091755 0.0043486 -0.0019395 -0.00074773
0.0014777 0.0025352 0.0017015 -0.0015346
-0.017463 -0.018532 0.04481 0.3723 -0.02118 0.0041614 -2.6488e-05 0.0019423
0.0017145 0.00062648 0.0013578 0.00092585
0.00093461 0.0043471 -0.021184 0.004262 0.34083 0.11366 0.00092915 -0.00087642
0.00062045 -0.00039511 0.00021218 0.0002329
-0.00195 -0.00074525 -2.4003e-05 0.0019427 0.00093142 -0.00087749 0.14095 0.23763
-0.0075396 -0.014141 0.0013651 6.105e-05
0.0014992 0.0025311 0.0017289 0.00061051 0.00062619 -0.00040045 -0.0075696 -0.01413
0.063928 0.21811 -0.0031663 -0.01296
0.0017127 -0.0015451 0.0013679 0.00091184 0.00021216 0.00023365 0.0013543 6.1929e-05
-0.0031645 -0.012955 0.059927 0.32024
1400000000 0.25371 0.1942 -0.023003 -0.0072552 0.0050498 0.0029826 -0.0020164 0.00074473
0.0023888 0.00065628 0.00024361 -0.0013154
-0.022976 -0.0072636 0.081739 0.35925 -0.014591 0.012122 0.0013379 0.0012446
0.00094011 -0.00081862 0.0012438 0.00033789
0.0050591 0.0029659 -0.014545 0.012203 0.35387 0.059773 0.00011476 -0.0013963
3.2767e-05 -0.00035208 0.00033863 0.00020364
-0.0020125 0.00075651 0.0013505 0.0012428 0.00011566 -0.0013898 0.1709 0.20918
-0.012391 -0.0082492 -0.00062133 -0.00086738
0.0023899 0.00065185 0.00092968 -0.00082928 3.4797e-05 -0.00035412 -0.012416 -0.0082253
0.097093 0.21351 -0.0094216 -0.0082837
0.00024249 -0.0013195 0.0012423 0.00032992 0.00034099 0.00020089 -0.00061864 -0.00085982
-0.0094152 -0.0082933 0.10659 0.31096
1460000000 0.27617 0.1499 -0.020093 0.0045774 0.0054497 -0.0016931 -0.0015222 0.001733
0.0019281 -0.0007521 -0.00025796 -0.00087694
-0.020066 0.0045552 0.11596 0.3375 -0.0061493 0.014946 0.0017029 0.00013199
0.00081416 -0.0011584 0.0012544 -0.0006127
0.0054336 -0.0017181 -0.0060874 0.014988 0.35971 0.0050939 -0.0010847 -0.001254
0.00027313 -7.1026e-05 0.00071187 -0.00048401
-0.0015139 0.0017385 0.0017133 0.00012893 -0.001086 -0.0012532 0.19801 0.18007
-0.013135 -0.0027404 -0.0011041 0.0015653
0.0019352 -0.00075441 0.00080189 -0.0011593 0.00027333 -7.234e-05 -0.01315 -0.0027117
0.12717 0.19879 -0.010997 -0.0028529
-0.00025107 -0.00086944 0.0012452 -0.00063427 0.00072094 -0.00048979 -0.0011043 0.0015688
-0.010993 -0.0028541 0.14084 0.2908
1520000000 0.2879 0.10802 -0.014555 0.010079 0.003113 -0.0040917 0.00014771 0.0025524
0.0017281 -0.0016784 -0.0011681 -0.00023136
-0.014541 0.010051 0.1495 0.32261 0.0013224 0.012903 0.0015864 -0.00081677
7.8672e-05 -0.00087946 0.00034913 -0.0010639
0.0030986 -0.0041067 0.0013881 0.012901 0.35264 -0.051342 -0.00095129 -0.0003891
0.00056605 -0.0007958 -3.2509e-05 -0.00012052
0.00015277 0.0025566 0.001581 -0.0008264 -0.00094718 -0.0003893 0.22189 0.14171
-0.012638 0.0018644 0.0010739 0.001838
0.001717 -0.0016845 7.2495e-05 -0.00088558 0.00056716 -0.00080132 -0.012639 0.0019027
0.15557 0.18417 -0.011195 0.0012268
-0.0011741 -0.00022525 0.00034022 -0.0010706 -3.2453e-05 -0.00012102 0.0010843 0.0018423
-0.011187 0.0012232 0.17559 0.27254
1580000000 0.29681 0.061529 -0.0081016 0.013115 -0.0009542 -0.0047763 0.0013987 0.0018215
-0.00047909 -0.0020484 -0.00039131 0.00036792
-0.0081065 0.013111 0.17684 0.29773 0.0049541 0.0082424 0.00043493 -0.0015376
-0.00038292 -0.0010015 -0.00022521 -0.00088722
-0.00098292 -0.0047645 0.0050045 0.0082196 0.33194 -0.10894 -0.0015209 0.00043035
-0.00025067 -0.0011373 0.00011078 -0.00054959
0.0014037 0.0018153 0.0004212 -0.001541 -0.0015258 0.00043034 0.2366 0.10162
-0.009981 0.0059526 0.0019043 0.00065962
-0.00048656 -0.0020453 -0.00038887 -0.0010009 -0.00025553 -0.0011429 -0.0099733 0.0059799
0.1803 0.16572 -0.0089321 0.0065798
-0.00038864 0.00037484 -0.00022554 -0.00088706 0.00011059 -0.00055195 0.0019081 0.00065818
-0.0089317 0.0065765 0.20953 0.24632
1640000000 0.29828 0.019774 -0.0015924 0.012159 -0.002682 -0.0025159 0.0025494 0.00098845
-0.00079848 -0.0011521 -0.00036365 0.00067206
-0.0015982 0.012148 0.20637 0.27235 0.0056689 0.0035811 -0.0007351 -0.0016228
-0.0009308 -0.00049515 -0.00053425 -0.00069307
-0.0027044 -0.0025084 0.0056955 0.0035513 0.30342 -0.15817 -0.00087207 0.0013482
-0.0010474 -0.00084682 -0.00011945 -0.00034768
0.0025633 0.00097726 -0.00074831 -0.0016185 -0.00087847 0.0013429 0.24925 0.051513
-0.006573 0.0069632 0.0022762 -0.00072499
-0.00079895 -0.0011429 -0.00092944 -0.0004888 -0.0010496 -0.00084971 -0.0065683 0.0069821
0.20352 0.14018 -0.0043654 0.0088368
-0.00035579 0.00067522 -0.00053934 -0.00069338 -0.00012152 -0.00034437 0.002276 -0.00072865
-0.0043693 0.0088339 0.23678 0.21568
1700000000 0.29027 -0.025688 0.0018564 0.0095382 -0.003434 0.00012112 0.0029135 -0.0010891
-0.0018286 -0.00042207 0.0006545 0.00046786
0.0018546 0.0095347 0.2244 0.24048 0.0038237 0.00078409 -0.0013726 -0.00054605
-0.00079304 -3.4772e-05 -0.00096594 -0.00044561
-0.0034289 0.00012894 0.0038315 0.00076991 0.25958 -0.19771 0.00033674 0.0015786
-0.0017425 -0.0002262 -0.00059866 -0.00094259
0.0029077 -0.001098 -0.0013778 -0.00054016 0.00032928 0.0015788 0.24554 0.00042798
-0.0045552 0.0075133 0.001359 -0.0020928
-0.0018376 -0.00041821 -0.00079691 -3.214e-05 -0.0017397 -0.00022517 -0.0045393 0.0075298
0.22114 0.11835 1.2287e-05 0.0092419
0.00066354 0.00045757 -0.0009746 -0.0004372 -0.00060435 -0.00094316 0.0013538 -0.0020966
1.9161e-05 0.0092496 0.2549 0.18135
1760000000 0.27715 -0.074207 0.0042515 0.0063852 -0.0022253 0.00086157 0.0013657 -0.0033552
-0.00097295 0.00064108 0.00035427 -0.00047767
0.0042406 0.0063747 0.25015 0.20018 0.0017009 -0.00095572 -0.0010895 0.00018866
-0.0011751 0.00084742 -0.00064091 0.00050927
-0.0022262 0.00086834 0.0016919 -0.00096278 0.21048 -0.23062 0.0011018 0.0012824
-0.0012092 0.0013358 -0.001364 -0.00040414
0.0013532 -0.003358 -0.0010931 0.0001916 0.0010964 0.0012802 0.2351 -0.051981
-0.0019241 0.0070787 -0.00044407 -0.0022656
-0.00097393 0.00064936 -0.0011648 0.00086152 -0.0012099 0.0013379 -0.0019098 0.0070877
0.23611 0.081662 0.0037773 0.0065126
0.00034082 -0.00048879 -0.00063444 0.00051265 -0.001359 -0.00039261 -0.00045818 -0.002265
0.0037857 0.0065089 0.26832 0.14382
1820000000 0.25161 -0.11131 0.0046216 0.0028097 -2.6178e-05 0.00241 -0.00092673 -0.003064
-0.00082721 0.00063163 3.9534e-05 -0.0001704
0.0046106 0.0028156 0.25964 0.16975 -0.00024469 7.0167e-05 -0.0012767 0.00083829
-0.00013364 0.0014052 -0.00056091 0.00054335
-5.5535e-06 0.0024176 -0.00025008 6.957e-05 0.1602 -0.24622 0.0016181 0.00049122
-0.00039578 0.0021713 -0.0014826 0.0004679
-0.00094024 -0.0030644 -0.0012724 0.00085074 0.0016165 0.0005005 0.20346 -0.099305
-0.00076103 0.0057492 -0.001745 -0.0014409
-0.00082634 0.00062741 -0.00012667 0.0014067 -0.00039205 0.0021728 -0.00075152 0.0057625
0.25218 0.05028 0.0046817 0.0031173
3.4422e-05 -0.00017898 -0.00055866 0.00054119 -0.0014773 0.00047196 -0.0017534 -0.00143
0.004679 0.0031224 0.27207 0.10786
1880000000 0.21564 -0.15074 0.0024591 0.00046823 -0.00040191 0.0021252 -0.0028329 -0.0022383
-0.00026111 0.0013759 0.00030063 -0.00059035
0.0024673 0.00046703 0.26353 0.12301 -0.0021302 0.0016671 -0.00017334 0.0016881
0.0006474 0.0014294 0.00021651 0.0010377
-0.00039027 0.0021219 -0.0021267 0.0016721 0.10831 -0.25546 0.0019556 -0.0009627
0.0014635 0.0020769 -0.00090048 0.0014826
-0.0028381 -0.0022179 -0.00016035 0.0016865 0.0019603 -0.0009598 0.16153 -0.13847
-0.00046973 0.0044723 -0.0023851 0.00075307
-0.00025275 0.0013829 0.00066404 0.0014211 0.0014702 0.0020815 -0.00045755 0.004477
0.25344 0.015629 0.0043522 0.0012822
0.00029068 -0.00059085 0.00022167 0.001035 -0.00089432 0.0014861 -0.0023869 0.00076197
0.0043563 0.0012818 0.27298 0.073809
1940000000 0.17582 -0.17576 0.00021516 -0.0013712 0.0013597 0.0019102 -0.0037323 0.00052941
0.0011321 0.0010692 -0.00073348 -0.00067858
0.00021731 -0.0013804 0.26341 0.091162 -0.0010605 0.0038686 0.00094535 0.0013344
0.0020394 0.00057994 0.00091384 0.00023321
0.0013718 0.001906 -0.0010414 0.0038791 0.062221 -0.24896 0.00029942 -0.0024287
0.0024886 0.00051896 0.00038069 0.0016424
-0.0037302 0.000562 0.00095359 0.001321 0.00029553 -0.0024212 0.10828 -0.16737
-0.0016213 0.0038892 -0.0012727 0.001814
0.0011434 0.0010538 0.0020528 0.0005556 0.0024934 0.00050613 -0.001612 0.003902
0.2528 -0.025008 0.0031415 -0.001996
-0.00073884 -0.00066802 0.00091312 0.00022267 0.00038875 0.0016384 -0.0012722 0.0018211
0.0031457 -0.0019897 0.26302 0.038217
2000000000 0.12946 -0.18932 -0.0037032 0.0006121 0.0023766 0.0015517 -0.002301 0.0035823
0.00098785 0.00034064 -0.00068543 0.000481
-0.0037041 0.00060502 0.24858 0.055902 -0.00086365 0.0056946 0.0016264 0.00026562
0.0015721 -0.0015094 0.00053377 0.00015065
0.002375 0.0015508 -0.00081838 0.0057071 0.018759 -0.2343 -0.0014613 -0.0014853
0.002127 -0.0012164 0.0016951 0.001318
-0.0022731 0.0035986 0.0016257 0.00026033 -0.0014621 -0.0014873 0.055028 -0.17574
-0.0030431 0.0044801 0.00013832 0.0023842
0.00099174 0.00033497 0.0015665 -0.0015291 0.0021245 -0.0012218 -0.0030344 0.0044993
