!Keysight Technologies,M9804A,MY58100912,A.14.10.03
!Date: Thursday, April 27, 2023 10:28:33
!Correction: S11(C  6-Port  ) 
!S12(C  6-Port  ) 
!S13(C  6-Port  ) 
!S14(C  6-Port  ) 
!S15(C  6-Port  ) 
!S16(C  6-Port  ) 
!S21(C  6-Port  ) 
!S22(C  6-Port  ) 
!S23(C  6-Port  ) 
!S24(C  6-Port  ) 
!S25(C  6-Port  ) 
!S26(C  6-Port  ) 
!S31(C  6-Port  ) 
!S32(C  6-Port  ) 
!S33(C  6-Port  ) 
!S34(C  6-Port  ) 
!S35(C  6-Port  ) 
!S36(C  6-Port  ) 
!S41(C  6-Port  ) 
!S42(C  6-Port  ) 
!S43(C  6-Port  ) 
!S44(C  6-Port  ) 
!S45(C  6-Port  ) 
!S46(C  6-Port  ) 
!S51(C  6-Port  ) 
!S52(C  6-Port  ) 
!S53(C  6-Port  ) 
!S54(C  6-Port  ) 
!S55(C  6-Port  ) 
!S56(C  6-Port  ) 
!S61(C  6-Port  ) 
!S62(C  6-Port  ) 
!S63(C  6-Port  ) 
!S64(C  6-Port  ) 
!S65(C  6-Port  ) 
!S66(C  6-Port  ) 
!S6P File: Measurement: :
# Hz S  RI   R 50
500000000 -0.33711 -0.034352 -0.009735 -0.0035691 -0.0077871 0.01177 -0.0036013 0.011637
0.011791 0.0042132 -0.0042529 0.0084047
-0.0097372 -0.0035671 -0.41945 -0.049312 0.0072511 -0.011455 0.0015415 0.011832
0.0075616 0.0026286 0.0007161 0.013607
-0.0077555 0.011773 0.0072371 -0.011475 -0.26493 0.21172 0.0069397 0.0032855
-0.00011215 0.0087339 0.00027209 0.0123
-0.0035794 0.011653 0.0015561 0.011853 0.0069472 0.0032966 -0.32742 0.048179
-0.019643 -0.0044679 0.018089 0.026782
0.011819 0.0041673 0.0075605 0.0026071 -0.0001013 0.0087372 -0.019644 -0.0044472
-0.22642 -0.18433 -0.028787 0.0054002
-0.0042409 0.0084193 0.00073458 0.013631 0.00026473 0.012306 0.018098 0.02677
-0.02879 0.0053961 -0.26367 -0.15403
560000000 -0.31583 0.12494 -0.02366 -0.06287 0.00019801 0.012243 0.006126 0.0097099
0.010828 0.0045804 0.01001 0.0077026
-0.023614 -0.062818 -0.37718 0.10804 -0.041411 -0.036071 0.013345 0.0039095
-0.013244 -0.0043758 0.0043612 -0.00082524
0.00022829 0.012224 -0.041553 -0.036002 -0.18287 0.25926 -0.00037243 -0.0049412
0.018823 0.004247 0.0071966 -0.0057698
0.0061584 0.0097043 0.013354 0.0038612 -0.00035579 -0.0049464 -0.30301 0.13639
0.0040554 -0.024537 0.0052953 -0.020035
0.01087 0.0045394 -0.013287 -0.0043348 0.018832 0.0042433 0.004044 -0.024533
-0.28553 -0.0089969 0.008188 -0.05128
0.010027 0.0076711 0.0043427 -0.00084522 0.0071951 -0.0057801 0.005281 -0.020043
0.0081979 -0.051292 -0.33467 -0.00096196
620000000 -0.27298 0.10953 -0.023222 0.0074187 0.0035157 0.0082397 0.0067058 -0.005402
0.011417 -0.00082904 0.00026834 -0.0018617
-0.023212 0.0074176 -0.40253 0.063206 -0.01878 0.00010863 -0.0013553 -0.0020231
0.010403 -0.0070793 0.0011408 -0.0025011
0.0035448 0.0082328 -0.0188 0.00016762 -0.15251 0.26847 -0.0015606 -0.00513
-0.0037643 -0.0033476 0.0086198 -0.0032369
0.0067033 -0.0054112 -0.0013714 -0.0020226 -0.0015596 -0.0051318 -0.26123 0.14668
-0.038795 -0.018895 0.014139 0.024828
0.011422 -0.00086991 0.010389 -0.0071187 -0.0037665 -0.0033485 -0.038818 -0.018868
-0.20473 -0.048361 -0.041929 0.015827
0.00027754 -0.0018767 0.001132 -0.0025073 0.0086197 -0.0032344 0.014142 0.024815
-0.041938 0.015808 -0.24846 -0.044148
680000000 -0.23298 0.19361 -0.027889 -0.013809 0.0047642 0.0048868 0.0011836 -0.007397
-0.0032418 -0.010866 0.0049575 -0.0070607
-0.027862 -0.013811 -0.38689 0.15999 -0.03262 -0.0012424 -0.0015936 -0.00018097
-0.0028171 -0.0089997 -0.00089961 -0.0020268
0.0047728 0.0048867 -0.032644 -0.001161 -0.10157 0.28779 -0.00068977 9.0358e-05
-0.0023609 0.000728 -0.0027554 -0.0097401
0.0011699 -0.0074134 -0.0016012 -0.00017475 -0.00069076 9.1483e-05 -0.21806 0.19606
-0.023504 -0.0079455 -0.010838 -0.011096
-0.0032828 -0.010857 -0.0028398 -0.0090038 -0.0023542 0.0007424 -0.023522 -0.0079153
-0.25234 0.049625 -0.0049913 -0.0096357
0.0049427 -0.0070738 -0.00091636 -0.0020323 -0.0027632 -0.009741 -0.010859 -0.011096
-0.0049859 -0.0096503 -0.26582 0.068253
740000000 -0.18937 0.18835 -0.038152 0.026764 0.012476 -0.0052585 -0.00056623 -0.0038909
-0.0045745 -0.0028441 -0.0062176 0.0033642
-0.03815 0.026728 -0.33466 0.17862 -0.034693 0.034966 -0.00097722 -0.0063794
-0.011472 0.008162 -0.0031428 -0.0067062
0.012464 -0.005281 -0.034617 0.035092 -0.068011 0.28648 -0.0014676 0.0032847
-0.0025751 -0.0040338 -0.00095656 -0.000118
-0.00058482 -0.0038998 -0.00099802 -0.0063576 -0.0014656 0.0032838 -0.20195 0.20347
-0.042457 -0.0074126 0.02282 0.014111
-0.0045815 -0.0028307 -0.011454 0.0082155 -0.0025703 -0.0040291 -0.042483 -0.007363
-0.15565 0.072867 -0.043202 0.00091102
-0.0061913 0.00339 -0.0031706 -0.0067217 -0.00095532 -0.00011164 0.022858 0.014104
-0.043192 0.00090686 -0.25998 0.072933
800000000 -0.15711 0.22865 -0.02228 0.017296 0.0051481 -0.010518 -0.0048367 -0.0020695
-0.0039616 0.0026799 0.0046297 0.00065714
-0.022276 0.017276 -0.33708 0.24888 -0.0077537 0.033923 -0.0021856 0.0021953
-0.00060169 0.003432 0.0012176 0.0053208
0.0051167 -0.010523 -0.0076583 0.033978 -0.02681 0.3094 0.0011407 0.0015615
0.00062874 0.0035235 -0.0018472 0.00073573
-0.0048397 -0.0020693 -0.00218 0.0021896 0.0011383 0.001572 -0.17374 0.23093
-0.028225 0.012768 0.013765 -0.010292
-0.0039543 0.002699 -0.00058335 0.0034493 0.00063492 0.0035279 -0.028232 0.012831
-0.19981 0.097428 -0.017924 0.018297
0.0046554 0.00064683 0.0012567 0.0053251 -0.0018464 0.00073783 0.013763 -0.010312
-0.01793 0.018277 -0.25456 0.12929
860000000 -0.12245 0.24969 -0.017053 0.031188 -0.0034206 -0.0097044 -0.0025669 0.0012999
0.0041471 0.0051038 -0.0032659 -0.0032013
-0.017052 0.031151 -0.28913 0.29087 0.0081873 0.034015 0.00021321 0.0021286
0.00429 0.00041191 0.0031226 0.00024189
-0.0034545 -0.0097041 0.0083039 0.034018 0.021601 0.31708 -0.00036211 -0.00029727
0.0027728 -0.001626 0.0015963 0.004537
-0.0025529 0.0012973 0.00021017 0.0021276 -0.000363 -0.00029873 -0.13803 0.24274
-0.017632 0.018652 -0.0063056 -0.0095432
0.0041714 0.0050857 0.0042868 0.0003856 0.0027671 -0.0016345 -0.017609 0.018696
-0.15052 0.1456 -0.025208 0.01557
-0.0032894 -0.0031929 0.0031301 0.00022932 0.0016028 0.0045334 -0.0063104 -0.0095413
-0.02523 0.015539 -0.20263 0.17651
920000000 -0.096947 0.27278 0.0054663 0.037635 -0.0092613 -0.0041411 -0.001783 0.0022463
0.0012671 0.001603 0.0026062 -0.0014801
0.0054467 0.037605 -0.25988 0.31137 0.027977 0.021514 0.0016529 0.0010368
0.0068843 -0.0006038 0.0038611 -0.0030698
-0.0092828 -0.0041198 0.028084 0.021459 0.067973 0.31729 0.0018003 -0.0001393
0.0012055 -0.00048467 0.00069434 -0.0011945
-0.0017802 0.0022557 0.0016522 0.0010229 0.0017993 -0.00014173 -0.11371 0.2589
-0.01022 0.029793 0.003053 -0.0066942
0.0012722 0.0015804 0.0068849 -0.00062177 0.0012052 -0.00048171 -0.010177 0.029828
-0.14036 0.15147 -0.0014511 0.028196
0.0025884 -0.0014854 0.0038596 -0.0030921 0.00069378 -0.0011897 0.0030498 -0.0067019
-0.0014774 0.028188 -0.21514 0.1893
980000000 -0.049351 0.29204 0.017959 0.029623 -0.0086775 0.0046973 0.0024466 0.0036027
0.0039299 -0.001705 -0.0030987 -0.0020799
0.017929 0.02962 -0.20706 0.34494 0.032675 0.0044593 0.0019896 -6.8264e-05
0.001146 -0.0060935 -0.00047731 -0.0021339
-0.0086668 0.0047025 0.032725 0.004368 0.11421 0.31031 0.00043312 -0.0012046
3.9639e-05 -0.0021105 0.0015046 -2.8044e-06
0.0024566 0.0036132 0.0019884 -9.1737e-05 0.00042652 -0.0012067 -0.075435 0.27015
0.0075242 0.02848 -0.0095074 -0.0069257
0.0039303 -0.0017311 0.0010973 -0.0060942 3.602e-05 -0.0021087 0.0075759 0.028486
-0.10838 0.17879 0.0049309 0.018992
-0.0031146 -0.0020756 -0.00048087 -0.0021154 0.0015019 -1.0462e-05 -0.0095126 -0.0069167
0.0049123 0.018984 -0.17157 0.23904
1040000000 -0.006462 0.30006 0.033187 0.017532 -0.0010798 0.0067407 0.0027789 0.00068801
-1.876e-05 -0.0036119 -0.00048851 -0.001622
0.033155 0.017542 -0.17147 0.35779 0.02878 -0.014886 0.0014858 -0.0017118
-0.0025756 -0.0023585 -0.0014643 -0.0028607
-0.0010743 0.006733 0.028773 -0.014991 0.16023 0.29627 -0.000516 -0.0013976
-0.0015559 -0.00082082 -0.00046653 -0.0011948
0.002789 0.00069799 0.0014538 -0.0017368 -0.00050693 -0.0014031 -0.047956 0.28028
0.018146 0.016947 -0.0028929 0.0020684
-3.2708e-05 -0.0036262 -0.0025995 -0.0023232 -0.0015458 -0.00081929 0.01818 0.016925
-0.077741 0.18734 0.013482 0.01816
-0.00050467 -0.0016321 -0.0014586 -0.0028569 -0.00047874 -0.0011984 -0.0028779 0.0020726
0.013463 0.018155 -0.15351 0.26192
1100000000 0.039081 0.30731 0.035428 -0.0047156 0.0028486 0.0036572 0.0025166 -0.0014494
-0.0020661 -0.0030534 -0.0040855 7.7851e-05
0.035408 -0.0046996 -0.12789 0.37452 0.014666 -0.027477 6.9184e-06 -0.0018276
-0.0031001 -0.00045719 -0.0035403 -0.00048335
0.0028623 0.0036477 0.01458 -0.02756 0.20632 0.27566 -0.0017725 0.00025131
-0.0016663 0.0006702 -0.0010787 -0.00033299
0.0025123 -0.0014457 -5.3935e-06 -0.0018358 -0.0017667 0.00025101 -0.0074422 0.28508
0.022608 0.0049957 -0.0023794 0.00071599
-0.0020878 -0.0030543 -0.0031163 -0.00042552 -0.0016604 0.00067519 0.022618 0.004963
-0.059572 0.20025 0.019188 0.0087579
-0.0040843 8.3609e-05 -0.003541 -0.00046455 -0.0010783 -0.00033579 -0.0023692 0.00072344
0.019173 0.0087675 -0.10643 0.29425
1160000000 0.090731 0.30176 0.02343 -0.020809 0.0025872 -0.00051085 -9.9559e-05 -0.0025814
-0.004021 -0.00051841 -0.0010317 0.0041327
0.023436 -0.020782 -0.08413 0.37838 -0.0038921 -0.028605 -0.0017643 -0.0016369
-0.0023517 0.0025913 -0.0013691 0.0016068
0.0025857 -0.00053055 -0.0040085 -0.028606 0.24916 0.24469 -0.00061658 0.001716
-0.0003669 0.0018202 -0.0010548 0.00015343
-0.00010458 -0.0025675 -0.0017811 -0.0016331 -0.0006125 0.0017272 0.031905 0.28223
0.019189 -0.0096119 -0.0029773 0.0056065
-0.0040176 -0.00050384 -0.002352 0.0026133 -0.00036022 0.0018281 0.019185 -0.009648
-0.0264 0.20942 0.017657 0.001028
-0.0010209 0.0041313 -0.0013502 0.0016249 -0.001047 0.00015833 -0.0029656 0.0056154
0.017643 0.0010254 -0.058892 0.29813
1220000000 0.13515 0.28978 0.0098916 -0.029712 -0.0015741 -0.00072714 -0.00012967 -0.0011691
-0.002518 0.0025226 0.0012801 0.0018977
0.0099015 -0.029685 -0.040134 0.38985 -0.016672 -0.020678 -0.0024754 0.00044654
0.00028943 0.0028737 -0.00070972 0.0017526
-0.0015761 -0.00072534 -0.016785 -0.020618 0.2881 0.20562 0.0008623 0.0015766
0.00061312 0.0011134 0.00034489 0.0008085
-0.00012739 -0.0011567 -0.0024748 0.0004505 0.00085441 0.0015742 0.071476 0.27373
0.0092249 -0.015245 0.0027109 0.0017493
-0.0024972 0.002533 0.00029372 0.0028722 0.00060855 0.0011177 0.0092065 -0.015254
-0.0031885 0.21878 0.013833 -0.012471
0.0012902 0.0018838 -0.0006952 0.0017651 0.00035244 0.00081138 0.0027147 0.0017439
0.013828 -0.012469 -0.028413 0.31882
1280000000 0.18454 0.26716 -0.0080363 -0.027918 -0.0018081 0.0025418 -0.0011151 -0.0019951
-0.00057195 0.0030466 0.002604 0.0010769
-0.0080219 -0.0279 0.0055006 0.38066 -0.0233 -0.0082935 -0.00099136 0.0014819
0.0016321 0.001595 0.00052684 0.0020598
-0.0017892 0.0025514 -0.023367 -0.0081968 0.31868 0.16185 0.0014077 -0.00016192
0.00099855 6.2983e-05 0.0003653 0.00046576
-0.0011131 -0.0019985 -0.00099084 0.0014861 0.0013973 -0.00016343 0.10792 0.25764
0.0005813 -0.016959 0.00041319 0.00017736
-0.00054922 0.0030573 0.0016427 0.0015891 0.00099604 5.9097e-05 0.00054137 -0.016966
0.03355 0.22264 0.0029864 -0.014353
0.0026128 0.001058 0.00053507 0.0020644 0.00037117 0.00046551 0.00041534 0.00017662
0.0029974 -0.014347 0.020595 0.32226
1340000000 0.2212 0.23277 -0.017526 -0.018538 0.00093353 0.0043547 -0.0019421 -0.00075202
0.0014793 0.0025428 0.0017167 -0.0015409
-0.01751 -0.018519 0.044757 0.37231 -0.021188 0.0041608 -3.1836e-05 0.0019465
0.0017211 0.00062399 0.0013593 0.00092849
0.00094413 0.0043542 -0.021184 0.0042591 0.34083 0.11369 0.00093234 -0.00088221
0.00061925 -0.00039566 0.00021711 0.00023922
-0.0019457 -0.00074359 -2.1167e-05 0.0019466 0.00093405 -0.00088161 0.14091 0.2376
-0.0075175 -0.014162 0.0013593 8.6176e-05
0.0014829 0.0025367 0.0017301 0.00060997 0.00061337 -0.00040055 -0.0075488 -0.014151
0.063969 0.21816 -0.0032524 -0.012966
0.0017149 -0.0015456 0.0013644 0.00092467 0.00021819 0.00023986 0.0013596 8.5695e-05
-0.0032354 -0.012964 0.059896 0.32017
1400000000 0.25366 0.19417 -0.023026 -0.0072426 0.0050453 0.0029752 -0.0020144 0.00074736
0.0023904 0.00066952 0.00023982 -0.0013261
-0.023013 -0.0072249 0.081691 0.35928 -0.01459 0.012122 0.0013421 0.0012563
0.00094118 -0.00083203 0.0012379 0.0003397
0.0050635 0.0029587 -0.014545 0.012202 0.35389 0.059797 0.00011103 -0.0013939
3.1913e-05 -0.00034827 0.00033411 0.00020111
-0.0020142 0.00075502 0.0013516 0.0012417 0.00011041 -0.0013894 0.17085 0.20918
-0.012387 -0.0082824 -0.0005998 -0.00084869
0.0023922 0.0006463 0.00093764 -0.0008401 3.511e-05 -0.00034951 -0.012404 -0.0082568
0.097176 0.21351 -0.0094944 -0.0082556
0.00023234 -0.0013252 0.0012439 0.00032951 0.00033724 0.0001966 -0.00060235 -0.00085058
-0.0094781 -0.0082625 0.10656 0.31088
1460000000 0.2761 0.14988 -0.020111 0.0046151 0.0054539 -0.0017082 -0.0015257 0.0017326
0.0019296 -0.00074381 -0.00026285 -0.00088427
-0.020085 0.0046222 0.11591 0.33753 -0.006155 0.014957 0.0017119 0.00012737
0.00081753 -0.001168 0.0012418 -0.00062113
0.0054534 -0.0017187 -0.0060876 0.014992 0.35973 0.0051099 -0.0010842 -0.0012627
0.00026952 -7.8226e-05 0.00072262 -0.0004878
-0.0015153 0.0017339 0.0017147 0.00012376 -0.0010827 -0.0012517 0.19796 0.18008
-0.013152 -0.002755 -0.0010825 0.0015647
0.0019293 -0.00075077 0.00080597 -0.0011656 0.00027089 -7.6242e-05 -0.013161 -0.00273
0.12718 0.19872 -0.011029 -0.0027775
-0.00027047 -0.00087604 0.0012491 -0.00062531 0.00072292 -0.00049207 -0.0010773 0.0015668
-0.011035 -0.0027715 0.14075 0.29072
1520000000 0.28784 0.10806 -0.014551 0.010112 0.0031256 -0.0040973 0.00013939 0.0025594
0.0017394 -0.0016761 -0.0011807 -0.0002275
-0.014535 0.01012 0.1495 0.32267 0.0013163 0.012902 0.0015953 -0.00082217
7.2291e-05 -0.0008791 0.00035467 -0.0010626
0.0031013 -0.0041129 0.0013959 0.012907 0.35264 -0.05134 -0.00095628 -0.00039192
0.00055945 -0.00080179 -3.0787e-05 -0.00012148
0.00014636 0.0025577 0.0015914 -0.00082931 -0.00094918 -0.00039268 0.22186 0.14174
-0.01266 0.0018652 0.0010925 0.0018333
0.0017333 -0.0016848 6.8896e-05 -0.00088028 0.00056037 -0.00080372 -0.012658 0.0018929
0.15558 0.1841 -0.011178 0.0013141
-0.0011764 -0.00021444 0.00034441 -0.0010698 -3.096e-05 -0.00012354 0.0010987 0.0018259
-0.011185 0.0013013 0.17546 0.27251
1580000000 0.29678 0.061594 -0.0080752 0.013154 -0.00095084 -0.0047736 0.0013932 0.0018182
-0.00047595 -0.0020561 -0.00038595 0.00038201
-0.0080597 0.013151 0.17686 0.29777 0.0049501 0.0082448 0.00042864 -0.0015471
-0.00038092 -0.00099449 -0.00022324 -0.00088813
-0.00096983 -0.0047699 0.0049966 0.008225 0.33192 -0.10892 -0.0015223 0.00044038
-0.00024631 -0.0011381 0.00012023 -0.00055415
0.0014032 0.0018137 0.00041888 -0.0015564 -0.0015201 0.00043533 0.23659 0.10165
-0.0099949 0.0059625 0.0019033 0.00064165
-0.00048641 -0.0020423 -0.00039257 -0.00099872 -0.00025692 -0.0011404 -0.0099858 0.0059901
0.18026 0.16565 -0.0088978 0.0066463
-0.00038188 0.00038717 -0.00022773 -0.00089049 0.0001192 -0.00055458 0.0019047 0.00063106
-0.0088945 0.0066379 0.20939 0.2463
1640000000 0.29826 0.019847 -0.0015449 0.012173 -0.0026783 -0.0025175 0.0025502 0.0009877
-0.00080173 -0.0011545 -0.00035391 0.00068154
-0.0015392 0.012153 0.20639 0.27235 0.0056725 0.0035887 -0.0007374 -0.0016249
-0.00092841 -0.00048937 -0.00052921 -0.0006949
-0.002695 -0.0025064 0.0056885 0.0035538 0.30343 -0.15813 -0.00088491 0.0013541
-0.0010486 -0.0008448 -0.0001233 -0.0003501
0.0025616 0.00097273 -0.00074988 -0.0016237 -0.00088195 0.0013536 0.24924 0.051545
-0.0065742 0.0069755 0.002266 -0.00074222
-0.00081032 -0.0011498 -0.00093572 -0.00048665 -0.0010504 -0.00085196 -0.0065627 0.0069961
0.20343 0.14015 -0.0043027 0.0088704
-0.00034629 0.00068323 -0.00053247 -0.00068742 -0.00012667 -0.00034894 0.0022635 -0.00074286
-0.0043111 0.0088648 0.23662 0.21574
1700000000 0.29029 -0.025625 0.0019062 0.0095305 -0.0034352 0.00010846 0.0029194 -0.0010906
-0.0018243 -0.00042561 0.00066477 0.00046279
0.0019153 0.0095048 0.22443 0.24049 0.0038161 0.0007894 -0.0013854 -0.00054384
-0.00079753 -3.4689e-05 -0.00097093 -0.00044631
-0.0034378 0.00013066 0.0038267 0.00076882 0.25959 -0.19768 0.00032696 0.0015818
-0.0017339 -0.00021483 -0.00060472 -0.00094241
0.0029149 -0.0011036 -0.0013867 -0.00053764 0.00032906 0.0015798 0.24555 0.00044862
-0.0045488 0.0075212 0.0013396 -0.002094
-0.0018371 -0.00041064 -0.00079783 -2.7736e-05 -0.0017483 -0.00022406 -0.0045394 0.0075305
0.22106 0.11836 8.1861e-05 0.0092433
0.00067226 0.00045444 -0.00097535 -0.00044351 -0.00061492 -0.00094136 0.0013351 -0.0021018
8.3798e-05 0.0092477 0.25478 0.18148
1760000000 0.27719 -0.074169 0.0042919 0.0063481 -0.0022424 0.00085491 0.0013695 -0.0033527
-0.00097418 0.00064012 0.0003522 -0.00049308
0.0042847 0.0063299 0.25015 0.20014 0.0016993 -0.00095721 -0.0010912 0.00019189
-0.0011719 0.00084783 -0.00063827 0.0005061
-0.0022434 0.00086757 0.0016886 -0.00096317 0.21046 -0.23058 0.0011034 0.0012715
-0.0012057 0.0013401 -0.0013668 -0.00040659
0.0013436 -0.0033664 -0.0010906 0.00019286 0.0010944 0.0012789 0.23512 -0.05197
-0.0019215 0.0070763 -0.00045483 -0.0022605
-0.0009756 0.00065089 -0.001167 0.00085898 -0.0012011 0.0013401 -0.0019046 0.0070857
0.23603 0.081732 0.0038271 0.0064928
0.00034846 -0.00050206 -0.00063247 0.0005197 -0.0013735 -0.00039854 -0.00045851 -0.0022576
0.0038421 0.0064869 0.26823 0.14397
1820000000 0.25165 -0.1113 0.0046323 0.0027646 -3.7011e-05 0.0024217 -0.00093015 -0.0030714
-0.00083077 0.00062559 3.3272e-05 -0.00017887
0.0046194 0.0027544 0.25962 0.16972 -0.0002518 6.7775e-05 -0.0012687 0.00084105
-0.00014006 0.001406 -0.00055919 0.00053904
-2.2696e-05 0.0024236 -0.00025217 7.1141e-05 0.16018 -0.24624 0.001614 0.00048571
-0.00038979 0.0021648 -0.0014722 0.00048093
-0.00094173 -0.00307 -0.0012773 0.00085455 0.0016043 0.0004857 0.20348 -0.0993
-0.00075785 0.0057452 -0.0017409 -0.0014361
-0.00081757 0.00063991 -0.00012398 0.0014147 -0.00038251 0.0021632 -0.00074529 0.005751
0.25214 0.050362 0.0047247 0.0030844
3.1392e-05 -0.00018231 -0.00055486 0.00054787 -0.0014634 0.00048191 -0.0017473 -0.001425
0.0047244 0.0030785 0.27204 0.10803
1880000000 0.21569 -0.15075 0.0024548 0.00042356 -0.00041164 0.0021277 -0.0028282 -0.0022269
-0.00025843 0.0013712 0.00029082 -0.00058321
0.0024407 0.00041799 0.26349 0.12298 -0.0021286 0.0016621 -0.00015873 0.001682
0.00063517 0.0014213 0.00021509 0.0010422
-0.00039778 0.0021342 -0.0021225 0.001671 0.10833 -0.25546 0.0019605 -0.00095308
0.0014666 0.0020809 -0.00090146 0.0014893
-0.0028391 -0.0022095 -0.00015398 0.0016808 0.0019614 -0.00094935 0.16156 -0.13847
-0.00047176 0.0044696 -0.0023788 0.00075828
-0.00025569 0.0013824 0.0006498 0.0014208 0.0014712 0.0020751 -0.00046348 0.0044668
0.25347 0.015712 0.0043814 0.0012318
0.00028861 -0.00058815 0.0002223 0.0010312 -0.00089578 0.0014894 -0.0023788 0.00076108
0.0043821 0.0012362 0.27301 0.073945
1940000000 0.17583 -0.17575 0.00018369 -0.0014076 0.0013609 0.0019162 -0.003745 0.00052675
0.0011258 0.0010588 -0.00073296 -0.0006649
0.00016655 -0.0014132 0.26336 0.091146 -0.0010676 0.0038609 0.00092954 0.0013157
0.0020294 0.00058156 0.00091444 0.00024087
0.0013661 0.001915 -0.0010377 0.0038668 0.062232 -0.24896 0.00029783 -0.002422
0.0024741 0.00051139 0.00038223 0.0016365
-0.0037359 0.00055227 0.00094916 0.0013162 0.00029901 -0.0024172 0.10829 -0.16738
-0.0016296 0.0038897 -0.0012724 0.0018095
0.0011352 0.0010554 0.0020471 0.00056524 0.0024775 0.00051128 -0.0016133 0.0038959
0.25282 -0.024932 0.0031437 -0.002053
-0.00074243 -0.00065849 0.00091463 0.00023299 0.00038611 0.0016499 -0.0012752 0.0018224
0.0031445 -0.0020443 0.26307 0.038332
2000000000 0.12949 -0.18935 -0.0037412 0.00059549 0.0023836 0.0015472 -0.0023083 0.0035779
0.00098498 0.00033238 -0.00067414 0.00047946
-0.0037545 0.00059546 0.24854 0.055921 -0.00087183 0.0056906 0.0016187 0.00026174
0.0015753 -0.0015049 0.00053649 0.00014689
0.002393 0.0015351 -0.00083183 0.0056954 0.018759 -0.23428 -0.0014676 -0.001482
0.0021244 -0.0012187 0.0016922 0.0013133
-0.0022802 0.0035926 0.0016181 0.0002583 -0.0014639 -0.0014831 0.055048 -0.17577
-0.0030466 0.0044883 0.00014937 0.0023736
0.00098332 0.0003314 0.0015649 -0.0015175 0.00212 -0.0012213 -0.0030418 0.0044946
