!Keysight Technologies,M9804A,MY58100912,A.14.10.03
!Date: Thursday, April 27, 2023 10:28:33
!Correction: S11(C  6-Port  ) 
!S12(C  6-Port  ) 
!S13(C  6-Port  ) 
!S14(C  6-Port  ) 
!S15(C  6-Port  ) 
!S16(C  6-Port  ) 
!S21(C  6-Port  ) 
!S22(C  6-Port  ) 
!S23(C  6-Port  ) 
!S24(C  6-Port  ) 
!S25(C  6-Port  ) 
!S26(C  6-Port  ) 
!S31(C  6-Port  ) 
!S32(C  6-Port  ) 
!S33(C  6-Port  ) 
!S34(C  6-Port  ) 
!S35(C  6-Port  ) 
!S36(C  6-Port  ) 
!S41(C  6-Port  ) 
!S42(C  6-Port  ) 
!S43(C  6-Port  ) 
!S44(C  6-Port  ) 
!S45(C  6-Port  ) 
!S46(C  6-Port  ) 
!S51(C  6-Port  ) 
!S52(C  6-Port  ) 
!S53(C  6-Port  ) 
!S54(C  6-Port  ) 
!S55(C  6-Port  ) 
!S56(C  6-Port  ) 
!S61(C  6-Port  ) 
!S62(C  6-Port  ) 
!S63(C  6-Port  ) 
!S64(C  6-Port  ) 
!S65(C  6-Port  ) 
!S66(C  6-Port  ) 
!S6P File: Measurement: :
# Hz S  RI   R 50
500000000 -0.33782 -0.034663 -0.0097367 -0.0029465 -0.0075627 0.01188 -0.0036421 0.011632
0.011693 0.0044749 -0.0041148 0.0084369
-0.010192 -0.0031648 -0.41958 -0.049028 0.0073305 -0.011644 0.0015548 0.011555
0.0077214 0.0026523 0.00053174 0.013508
-0.0076215 0.012278 0.0071068 -0.011072 -0.26496 0.21153 0.00673 0.0028864
-6.9426e-05 0.0086954 0.00028935 0.012109
-0.0027146 0.011808 0.0019587 0.011666 0.0068857 0.0030064 -0.32721 0.048279
-0.019488 -0.0043663 0.017905 0.026757
0.010592 0.0051938 0.0078852 0.0029908 -0.00034869 0.008557 -0.019525 -0.0044724
-0.22669 -0.18478 -0.028447 0.0052955
-0.0035034 0.0092915 0.0014708 0.013892 0.00036678 0.011687 0.01855 0.026899
-0.028477 0.0053625 -0.26338 -0.15526
560000000 -0.31595 0.1262 -0.023834 -0.06244 0.00037163 0.012428 0.0060728 0.010077
0.010546 0.00437 0.010002 0.0075222
-0.02268 -0.06274 -0.37639 0.10825 -0.041669 -0.0359 0.013209 0.0033714
-0.0129 -0.0043367 0.0041465 -0.00062583
3.0857e-05 0.012562 -0.041997 -0.035983 -0.18297 0.25926 -0.00025859 -0.0051808
0.018762 0.0043716 0.0072002 -0.0057238
0.0073202 0.009974 0.01331 0.0031442 -0.00039359 -0.0049775 -0.30341 0.13656
0.0037978 -0.02441 0.0053313 -0.019995
0.01102 0.0024809 -0.013936 -0.00304 0.019299 0.0035601 0.0040135 -0.024584
-0.28634 -0.0089109 0.0078647 -0.051325
0.010473 0.0067472 0.0037801 -0.0018959 0.0070952 -0.0053848 0.0048917 -0.020482
0.00819 -0.05155 -0.33504 -0.0014516
620000000 -0.27364 0.10953 -0.023101 0.0072872 0.0037859 0.0085851 0.0069363 -0.0058306
0.011463 -0.0011885 0.0005332 -0.0020155
-0.022903 0.0075095 -0.40252 0.063137 -0.018693 2.2725e-05 -0.0013825 -0.002145
0.010523 -0.0069503 0.0013478 -0.002462
0.003666 0.008846 -0.018517 0.00016332 -0.15234 0.26838 -0.0018693 -0.00529
-0.0037665 -0.0030682 0.0086927 -0.0032164
0.0062136 -0.0045489 -0.0013153 -0.002077 -0.0017057 -0.0052181 -0.26167 0.14624
-0.03867 -0.018842 0.014273 0.024696
0.01276 -0.00011013 0.010521 -0.0069999 -0.0036854 -0.0032344 -0.038459 -0.018554
-0.20479 -0.048549 -0.041624 0.016039
0.00083701 -0.0018092 0.0011366 -0.0023054 0.0083104 -0.0033169 0.013964 0.024656
-0.041645 0.015977 -0.24818 -0.044488
680000000 -0.23242 0.19483 -0.027905 -0.013903 0.0046707 0.0050442 0.0013296 -0.0074225
-0.0031701 -0.01098 0.0049212 -0.0070505
-0.02794 -0.013673 -0.38707 0.15994 -0.032736 -0.0012138 -0.0016375 -0.00028154
-0.0026464 -0.00893 -0.00073542 -0.0020752
0.0049869 0.0048273 -0.032768 -0.0011076 -0.10166 0.28761 -0.00075118 5.2473e-05
-0.0022901 0.00073635 -0.0027197 -0.0097445
0.0011988 -0.0084691 -0.001763 -0.00026434 -0.0006334 -4.1454e-06 -0.21832 0.19594
-0.023497 -0.0078592 -0.010857 -0.010887
-0.0037738 -0.011037 -0.0028683 -0.0089346 -0.0018465 0.00077422 -0.023687 -0.0077897
-0.25244 0.049518 -0.0049113 -0.0096294
0.0035396 -0.006743 -0.00088604 -0.0023086 -0.0025288 -0.0098886 -0.010841 -0.011023
-0.0051426 -0.009582 -0.26566 0.067504
740000000 -0.18885 0.18855 -0.038459 0.026443 0.012436 -0.0052582 -0.00067123 -0.0039508
-0.0045784 -0.0027422 -0.0061888 0.0034293
-0.038457 0.026505 -0.3347 0.17849 -0.034605 0.035057 -0.00085199 -0.0062747
-0.011387 0.0083134 -0.0030153 -0.0067234
0.012948 -0.005285 -0.034517 0.034899 -0.067924 0.28641 -0.0013586 0.0032653
-0.0027071 -0.0040049 -0.00094278 1.7374e-05
-0.0005732 -0.0035546 -0.0010106 -0.0062064 -0.0015668 0.0034397 -0.20192 0.20344
-0.042424 -0.0076204 0.022871 0.014271
-0.0048073 -0.0029203 -0.011532 0.0074735 -0.0020785 -0.0037064 -0.042174 -0.0074596
-0.15606 0.073382 -0.043374 0.00065814
-0.0061553 0.0034674 -0.0028564 -0.0063141 -0.0012985 2.4776e-05 0.022783 0.013962
-0.043064 0.00042486 -0.25976 0.072088
800000000 -0.15726 0.22892 -0.022401 0.017313 0.0051961 -0.01047 -0.0048766 -0.0020712
-0.0040098 0.0027617 0.0045629 0.00067317
-0.022385 0.017116 -0.33716 0.24878 -0.0077639 0.033988 -0.0020892 0.0021606
-0.00066871 0.0034456 0.0011257 0.0053612
0.0049545 -0.010421 -0.0076948 0.034143 -0.026883 0.30939 0.0010869 0.0015757
0.00057151 0.0035801 -0.0018165 0.00074064
-0.0051829 -0.0022838 -0.0023553 0.0023425 0.0011122 0.0015642 -0.17373 0.23093
-0.028226 0.012722 0.013855 -0.010261
-0.0043489 0.0027461 -0.00043038 0.0032504 0.00053375 0.0037042 -0.028173 0.012812
-0.20005 0.097207 -0.017968 0.018207
0.0038341 0.00067825 0.00043107 0.0057042 -0.0017242 0.00069071 0.013946 -0.010259
-0.017964 0.018102 -0.25461 0.1287
860000000 -0.12245 0.24952 -0.016995 0.031308 -0.0033397 -0.0097025 -0.002549 0.0012346
0.0041591 0.0050549 -0.0033636 -0.0031629
-0.016997 0.031194 -0.28891 0.29079 0.0081448 0.034059 0.00023905 0.0020687
0.0042794 0.00036669 0.0032532 0.00020138
-0.0034549 -0.0097252 0.0083933 0.033987 0.021532 0.31712 -0.00043361 -0.00027819
0.0027914 -0.0016711 0.0015878 0.0045057
-0.0026557 0.0013375 -1.9579e-05 0.0022713 -0.00035109 -0.00021722 -0.13788 0.24279
-0.017537 0.018687 -0.006257 -0.0095994
0.0042013 0.0051842 0.0045696 0.00017581 0.0027062 -0.0017749 -0.017532 0.018528
-0.15063 0.14567 -0.025367 0.015547
-0.003188 -0.0032099 0.0036098 0.00041404 0.0015624 0.0045319 -0.0064028 -0.0094196
-0.025445 0.01541 -0.20301 0.17582
920000000 -0.096771 0.2729 0.0054427 0.037468 -0.0093023 -0.0041681 -0.0017858 0.0022615
0.0012395 0.0016227 0.0026065 -0.0013455
0.0054259 0.037598 -0.26013 0.31143 0.027966 0.021586 0.0016188 0.0010155
0.0068547 -0.00054512 0.0039021 -0.0030744
-0.0092536 -0.0040334 0.028045 0.021523 0.067902 0.31728 0.0018289 -0.00012838
0.0012107 -0.00046554 0.00069573 -0.0011841
-0.0017276 0.002179 0.0014621 0.00094145 0.0018132 -0.00013929 -0.11365 0.25887
-0.010287 0.029813 0.0030079 -0.0066919
0.0013391 0.0014136 0.0067065 -0.00049056 0.0012977 -0.00050112 -0.010228 0.029834
-0.14042 0.15129 -0.0014916 0.028116
0.0024016 -0.0013885 0.0034557 -0.0030763 0.00088191 -0.0012368 0.002899 -0.0066478
-0.0015932 0.028162 -0.2156 0.18883
980000000 -0.049624 0.29182 0.017964 0.029624 -0.0086965 0.0046359 0.0024158 0.0036623
0.0039729 -0.0017318 -0.0031436 -0.0021267
0.017855 0.029687 -0.20709 0.34485 0.032623 0.0044568 0.0020398 -9.1204e-05
0.001085 -0.0061256 -0.00050289 -0.0021888
-0.008676 0.0046936 0.032726 0.0043653 0.11416 0.31031 0.00045569 -0.0011687
2.1041e-05 -0.0020945 0.0014849 6.6215e-06
0.0024867 0.0037075 0.0019667 -0.00016895 0.00044927 -0.0011744 -0.075431 0.27022
0.0074787 0.028436 -0.0095628 -0.0068918
0.0038654 -0.00182 0.0014555 -0.0062217 1.6194e-06 -0.0021306 0.0074554 0.028416
-0.1084 0.17874 0.00489 0.019146
-0.0029515 -0.0019973 -0.00065115 -0.0022902 0.0014376 7.3374e-06 -0.0095885 -0.0069959
0.0049 0.019083 -0.17209 0.23851
1040000000 -0.0065335 0.30001 0.033178 0.017524 -0.001055 0.0067726 0.0027625 0.00071086
3.677e-05 -0.0036116 -0.00055736 -0.0015924
0.033153 0.017475 -0.17158 0.35783 0.02878 -0.014813 0.0014678 -0.0017063
-0.0025945 -0.002353 -0.0014417 -0.0028855
-0.00099481 0.0067542 0.028742 -0.01494 0.16022 0.29627 -0.00050464 -0.001422
-0.001579 -0.00083613 -0.00049378 -0.0011759
0.0027046 0.00067341 0.0015397 -0.0017652 -0.00052663 -0.0014076 -0.047988 0.28022
0.018041 0.016922 -0.0028498 0.0020497
-4.6645e-05 -0.0035737 -0.002406 -0.0022516 -0.0016143 -0.00084809 0.018179 0.01696
-0.078046 0.1872 0.0135 0.018254
-0.00054451 -0.0014872 -0.0016745 -0.0028616 -0.00052729 -0.0011242 -0.0028279 0.0020524
0.013561 0.018215 -0.15407 0.26152
1100000000 0.039026 0.30734 0.035435 -0.0046525 0.0028389 0.0036507 0.0025635 -0.0014329
-0.0020481 -0.0030291 -0.0040411 6.8527e-05
0.035478 -0.004654 -0.12804 0.37453 0.014631 -0.027461 1.6401e-05 -0.0018364
-0.0031247 -0.00042729 -0.0034797 -0.00050011
0.002868 0.0036093 0.014549 -0.027509 0.20627 0.27565 -0.0017479 0.00027518
-0.0016524 0.00066564 -0.001066 -0.00030052
0.0026192 -0.0014127 -2.6907e-05 -0.0018293 -0.0017923 0.0002764 -0.0074862 0.28508
0.022556 0.0050131 -0.0023864 0.00072675
-0.0021702 -0.0030017 -0.0031025 -0.00055536 -0.0016931 0.00063957 0.022522 0.0049946
-0.059676 0.20013 0.0192 0.0088293
-0.0039836 -2.8975e-05 -0.0034698 -0.00051491 -0.0010719 -0.00031027 -0.0024416 0.00073782
0.019179 0.0088317 -0.10703 0.29409
1160000000 0.090643 0.30176 0.023489 -0.020857 0.0025848 -0.00052898 -0.00012474 -0.0025681
-0.0040268 -0.0004972 -0.0010578 0.0041499
0.023392 -0.020903 -0.084297 0.37845 -0.0038666 -0.028577 -0.0017691 -0.0016686
-0.0023718 0.0026201 -0.0013089 0.0016336
0.0025909 -0.00057249 -0.003997 -0.028589 0.24909 0.24473 -0.0006486 0.0017091
-0.00036219 0.0018045 -0.0010492 0.00017229
-5.4245e-05 -0.0026173 -0.0017061 -0.0016547 -0.00065465 0.0017127 0.031817 0.28221
0.019201 -0.009574 -0.0029689 0.0056022
-0.0039273 -0.0004347 -0.0022539 0.0025772 -0.00035413 0.0017671 0.019196 -0.0096135
-0.026543 0.20939 0.017724 0.0010811
-0.0012231 0.0040268 -0.0013879 0.0016249 -0.00099197 0.00013134 -0.0029245 0.0056469
0.017721 0.0011123 -0.059533 0.29801
1220000000 0.13505 0.28998 0.0099117 -0.029801 -0.0015694 -0.00074043 -0.0001266 -0.0011419
-0.0025221 0.0025396 0.0012843 0.0019048
0.0099691 -0.029704 -0.04016 0.38987 -0.016653 -0.020692 -0.0024916 0.00044106
0.00027348 0.0028762 -0.00069465 0.0017767
-0.0015521 -0.00078565 -0.016752 -0.020611 0.28805 0.20573 0.00084259 0.0015644
0.00059253 0.0011552 0.00035663 0.00078057
-0.00020887 -0.0010691 -0.0025055 0.00048983 0.00087646 0.0015781 0.07138 0.27368
0.0092396 -0.015218 0.0027409 0.0016878
-0.0026384 0.0025566 0.00030007 0.0029201 0.00056244 0.0011207 0.0092045 -0.015273
-0.0033846 0.21875 0.01393 -0.012508
0.0011974 0.0019665 -0.00069921 0.0018635 0.00043145 0.00082771 0.0027301 0.0017073
0.013956 -0.012477 -0.0291 0.31879
1280000000 0.18458 0.26719 -0.0080979 -0.02798 -0.0017681 0.0025224 -0.0011264 -0.0019796
-0.00059894 0.0030416 0.0026183 0.0010809
-0.0080501 -0.028006 0.0054596 0.38077 -0.023249 -0.0082795 -0.0010147 0.0014669
0.00164 0.0015992 0.00049791 0.0020675
-0.0018316 0.0025219 -0.023347 -0.0082202 0.31862 0.16195 0.0013815 -0.00015129
0.00099047 7.5645e-05 0.0003883 0.0004302
-0.0011038 -0.0019687 -0.000997 0.0014897 0.0013599 -0.00021071 0.10781 0.25767
0.00061846 -0.016913 0.00041202 0.00016618
-0.00048307 0.0030299 0.0016264 0.001616 0.00099344 2.1141e-05 0.00058266 -0.01695
0.033409 0.2227 0.0030403 -0.0144
0.0025509 0.0010295 0.00045679 0.002065 0.00038794 0.00046848 0.00046862 0.00019005
0.0029971 -0.014388 0.020007 0.32237
1340000000 0.2213 0.23278 -0.0176 -0.018562 0.00092335 0.0043701 -0.0019467 -0.00074567
0.0014957 0.0025638 0.0017279 -0.0015172
-0.017559 -0.018595 0.044762 0.37233 -0.021193 0.0040955 -3.023e-05 0.0019472
0.0017305 0.00063229 0.0013525 0.00092649
0.00095318 0.004355 -0.021204 0.0042193 0.34084 0.1138 0.00092641 -0.00087853
0.00061557 -0.00040671 0.00018518 0.00024118
-0.0019736 -0.00070608 -3.0713e-05 0.0019121 0.00095076 -0.00086266 0.14083 0.23761
-0.0074721 -0.014162 0.0013355 7.6464e-05
0.0014718 0.0025663 0.0017429 0.00063351 0.0005735 -0.00037027 -0.0074969 -0.014136
0.063815 0.21824 -0.0032208 -0.012989
0.001717 -0.001564 0.0012711 0.00088477 0.00013669 0.00027076 0.0013377 6.7998e-05
-0.0031813 -0.013005 0.059454 0.32032
1400000000 0.25372 0.19409 -0.02309 -0.0072297 0.00505 0.0030109 -0.0020509 0.0007653
0.0024207 0.00070526 0.00028125 -0.0013073
-0.023085 -0.0072078 0.081684 0.35929 -0.014595 0.01209 0.0013571 0.0012717
0.0009479 -0.00081996 0.0012456 0.00035061
0.0051165 0.0029943 -0.014549 0.01219 0.35391 0.059878 7.9397e-05 -0.0014021
2.5065e-05 -0.00035668 0.00032169 0.0002251
-0.0020254 0.00076262 0.0013763 0.0012902 3.6214e-05 -0.0013941 0.17076 0.20923
-0.012363 -0.0083296 -0.00061858 -0.00085408
0.0024423 0.00068559 0.00098709 -0.00081511 7.2775e-06 -0.00034613 -0.012364 -0.0082572
0.097066 0.21355 -0.0094899 -0.0082953
0.00022438 -0.0013197 0.0013067 0.00032942 0.00030137 0.0001786 -0.00063861 -0.00085022
-0.0094738 -0.0082852 0.10627 0.3111
1460000000 0.27602 0.14992 -0.020165 0.0046973 0.0054418 -0.0016751 -0.0015189 0.0017539
0.0019619 -0.00071669 -0.00024002 -0.00087424
-0.02014 0.0046224 0.11587 0.33752 -0.0061878 0.014925 0.0017101 0.00014893
0.00082207 -0.0011655 0.0012634 -0.00061815
0.00546 -0.0017792 -0.0061259 0.014974 0.35978 0.0052266 -0.0010943 -0.00128
0.00025592 -8.4157e-05 0.00073188 -0.00050967
-0.0015296 0.0017738 0.0017583 0.00011912 -0.0010545 -0.0012403 0.19789 0.18016
-0.013138 -0.0028028 -0.0010937 0.0015778
0.0019414 -0.00068499 0.00083291 -0.0011531 0.00025977 -8.623e-05 -0.01314 -0.002755
0.12713 0.19879 -0.011019 -0.0028267
-0.00029259 -0.00093148 0.0012799 -0.00062837 0.00071815 -0.00048594 -0.0010885 0.001584
-0.011034 -0.0028265 0.14047 0.29081
1520000000 0.28777 0.10793 -0.014532 0.010198 0.0031437 -0.004081 0.00015575 0.0025612
0.0017394 -0.001681 -0.0011994 -0.00024329
-0.014547 0.010181 0.14946 0.32264 0.0013225 0.012918 0.0015931 -0.0008301
8.3616e-05 -0.00088379 0.00034725 -0.0010588
0.0031629 -0.0040879 0.0013563 0.012921 0.35268 -0.051275 -0.00094006 -0.0003838
0.00057374 -0.00079733 -2.4847e-05 -8.9359e-05
0.00023816 0.002587 0.0015632 -0.0008259 -0.00094534 -0.00038135 0.22182 0.14183
-0.012663 0.0018318 0.0010899 0.0018202
0.0017979 -0.0016627 7.504e-05 -0.00087376 0.00059738 -0.0007927 -0.012663 0.0018691
0.15546 0.18416 -0.011184 0.0012747
-0.0012306 -0.00031946 0.0002989 -0.0010322 -3.266e-05 -0.00011573 0.0010701 0.001838
-0.011199 0.0012601 0.1751 0.27267
1580000000 0.2966 0.061579 -0.0080267 0.013238 -0.00094814 -0.0047819 0.0013982 0.0018103
-0.00047306 -0.0020418 -0.00041745 0.00038521
-0.0080417 0.013187 0.1768 0.29775 0.0049316 0.0082511 0.00042141 -0.001566
-0.00039594 -0.0009925 -0.00022753 -0.00088931
-0.00095592 -0.0047536 0.0049834 0.0082248 0.33208 -0.10892 -0.0015317 0.00043455
-0.00027583 -0.001135 0.00016111 -0.00053955
0.0014117 0.00183 0.00043505 -0.0015693 -0.0015558 0.00043038 0.23657 0.10173
-0.010007 0.0059236 0.0018954 0.00063744
-0.00048674 -0.0020487 -0.00033841 -0.001033 -0.00029077 -0.0011464 -0.010004 0.0059712
0.18022 0.1657 -0.0088978 0.0066124
-0.00042208 0.00038422 -0.00021539 -0.00083157 0.00015416 -0.00060308 0.0019003 0.00063574
-0.008887 0.0066168 0.20905 0.24646
1640000000 0.29808 0.01987 -0.0014999 0.012198 -0.0026598 -0.0025549 0.0025554 0.00098005
-0.00080632 -0.0011613 -0.00034208 0.00068324
-0.0014898 0.012205 0.2063 0.27241 0.0056776 0.0036071 -0.00074902 -0.0016365
-0.00093639 -0.00049567 -0.00055226 -0.00070584
-0.0026856 -0.0025582 0.0056924 0.0035626 0.30332 -0.15808 -0.00084183 0.001327
-0.0010479 -0.00084926 -0.00013623 -0.00034994
0.0025674 0.00097608 -0.00072369 -0.0016168 -0.00082953 0.001303 0.24925 0.051633
-0.0065847 0.0069666 0.0022766 -0.00073396
-0.00079588 -0.0011047 -0.00096224 -0.00050671 -0.0010026 -0.00088217 -0.0065653 0.0069877
0.20339 0.14019 -0.0043301 0.0088887
-0.0003085 0.00067635 -0.0005523 -0.00071623 -0.0001254 -0.00032587 0.0022641 -0.00073852
-0.0043537 0.0088685 0.23626 0.21584
1700000000 0.29015 -0.025472 0.0019763 0.009505 -0.0034298 0.00011012 0.0029395 -0.0011119
-0.0018282 -0.00041502 0.00066294 0.00045994
0.0019566 0.0095002 0.22439 0.24053 0.0038138 0.00083317 -0.0013968 -0.00054319
-0.00079088 -2.8577e-05 -0.00097382 -0.00045564
-0.0034148 0.0001226 0.0038624 0.00078521 0.2595 -0.19768 0.00029556 0.0015862
-0.0017727 -0.00020197 -0.00059052 -0.00097867
0.0028598 -0.0011881 -0.0013762 -0.00054337 0.00033151 0.0016317 0.24558 0.00051014
-0.0045553 0.0074954 0.0013274 -0.0020894
-0.0018363 -0.00040249 -0.00076536 -3.2373e-05 -0.0018104 -0.00021538 -0.0045605 0.0075131
0.22101 0.1184 5.2856e-05 0.009244
0.00065816 0.00056629 -0.0010397 -0.00047593 -0.00056016 -0.00088038 0.0013238 -0.0020848
7.1829e-05 0.0092383 0.25444 0.18162
1760000000 0.27707 -0.074101 0.0043372 0.0063042 -0.0023071 0.00083325 0.0013526 -0.0033301
-0.00099585 0.00063067 0.00034607 -0.00052633
0.0043328 0.0062986 0.2501 0.20027 0.001685 -0.00095989 -0.0011021 0.00019618
-0.0011687 0.00085308 -0.00063264 0.00052675
-0.0022416 0.00089133 0.0016902 -0.00097243 0.21044 -0.23068 0.0010977 0.0012885
-0.0012038 0.0013381 -0.0013726 -0.00042948
0.0013424 -0.0033036 -0.0011237 0.00024067 0.0010322 0.0012861 0.23519 -0.051872
-0.0019223 0.0070923 -0.00048488 -0.0022299
-0.0009793 0.00066755 -0.0011917 0.00086925 -0.0011686 0.0013389 -0.0019142 0.0070917
0.23596 0.08179 0.0037776 0.0064702
0.00035878 -0.00057326 -0.00062906 0.00057606 -0.0013827 -0.00045615 -0.00047925 -0.0022244
0.003773 0.0064858 0.26789 0.1442
1820000000 0.25165 -0.11106 0.0046296 0.0027225 -3.26e-05 0.0023993 -0.00091546 -0.0030484
-0.00081202 0.00062943 3.8391e-05 -0.00019883
0.0046075 0.0026914 0.25963 0.16982 -0.00023155 0.00010019 -0.0012762 0.00084568
-0.00013937 0.0013948 -0.00053116 0.00055738
-6.3131e-05 0.002447 -0.00026669 9.3368e-05 0.1602 -0.2461 0.0016971 0.000508
-0.00035669 0.0021532 -0.0014511 0.00051071
-0.0009457 -0.0030752 -0.0013357 0.00087231 0.00165 0.00050338 0.20357 -0.09926
-0.00077336 0.0057433 -0.0017373 -0.0014284
-0.00082774 0.00061199 -0.00018825 0.0014115 -0.00035305 0.0022183 -0.00076619 0.0057441
0.25206 0.050442 0.0047411 0.0031065
5.8424e-05 -0.00015473 -0.00053763 0.00063043 -0.0013782 0.00059186 -0.0017696 -0.0014065
0.0047369 0.0031052 0.27177 0.10847
1880000000 0.21572 -0.15066 0.002466 0.00037486 -0.00043645 0.0021059 -0.0027965 -0.0022517
-0.0002587 0.0013896 0.00030373 -0.0005784
0.0024783 0.00038931 0.26354 0.12308 -0.0021505 0.0016231 -0.00014231 0.0016909
0.00063647 0.0014172 0.00024616 0.0010414
-0.00037826 0.0021277 -0.0020996 0.0016692 0.10823 -0.25533 0.0020085 -0.00093775
0.0014605 0.002087 -0.00085764 0.0014709
-0.0028473 -0.0021857 -0.00020356 0.0017264 0.0019729 -0.00096881 0.16163 -0.13843
-0.00050281 0.0044997 -0.0023815 0.00075991
-0.00025768 0.0014099 0.00062929 0.0014464 0.0014781 0.0020751 -0.00048009 0.0045029
0.2534 0.015794 0.0043803 0.0012423
0.0002733 -0.00065224 0.00024055 0.001035 -0.00085827 0.0015558 -0.0023636 0.00079152
0.0043762 0.0012365 0.2729 0.074389
1940000000 0.17594 -0.17557 0.00013613 -0.001408 0.0014038 0.0019288 -0.003761 0.00050528
0.0011315 0.0010676 -0.00070709 -0.00067391
0.00016208 -0.0014334 0.26343 0.091177 -0.0010365 0.0038812 0.00092248 0.0013198
0.0020447 0.0005686 0.00091015 0.00021776
0.0013773 0.001848 -0.0010498 0.0038927 0.062318 -0.24881 0.00024844 -0.0024194
0.0024951 0.00050941 0.00039625 0.001649
-0.0038532 0.00051403 0.00098855 0.0012746 0.00028187 -0.0023947 0.10834 -0.16732
-0.0016453 0.0039239 -0.0013365 0.001798
0.0010861 0.00099518 0.0020519 0.00058643 0.0024515 0.00050341 -0.0016788 0.0039022
0.25279 -0.02483 0.0031902 -0.0020615
-0.00070416 -0.00060328 0.00091108 0.00023971 0.00035444 0.001607 -0.0012929 0.001825
0.0031585 -0.0020568 0.26307 0.038759
2000000000 0.12961 -0.18928 -0.0037624 0.00055162 0.0024065 0.0015839 -0.002344 0.0035721
0.00096315 0.00031722 -0.00068399 0.00046246
-0.0036941 0.00060084 0.24857 0.055961 -0.00084377 0.0057012 0.0016192 0.00024738
0.0015848 -0.0015014 0.00052253 0.00014072
0.0024454 0.0015789 -0.00083037 0.0057569 0.018869 -0.23407 -0.001481 -0.0014549
0.0020816 -0.0012233 0.0016891 0.0013306
-0.0022926 0.0036201 0.0015805 0.00036982 -0.0014357 -0.0014878 0.055092 -0.17574
-0.0030476 0.0044987 0.0001274 0.0023472
0.00095524 0.00033212 0.0015347 -0.0015061 0.0020426 -0.0012337 -0.0030315 0.0045281
