!Keysight Technologies,M9804A,MY58100912,A.14.10.03
!Date: Thursday, April 27, 2023 10:28:33
!Correction: S11(C  6-Port  ) 
!S12(C  6-Port  ) 
!S13(C  6-Port  ) 
!S14(C  6-Port  ) 
!S15(C  6-Port  ) 
!S16(C  6-Port  ) 
!S21(C  6-Port  ) 
!S22(C  6-Port  ) 
!S23(C  6-Port  ) 
!S24(C  6-Port  ) 
!S25(C  6-Port  ) 
!S26(C  6-Port  ) 
!S31(C  6-Port  ) 
!S32(C  6-Port  ) 
!S33(C  6-Port  ) 
!S34(C  6-Port  ) 
!S35(C  6-Port  ) 
!S36(C  6-Port  ) 
!S41(C  6-Port  ) 
!S42(C  6-Port  ) 
!S43(C  6-Port  ) 
!S44(C  6-Port  ) 
!S45(C  6-Port  ) 
!S46(C  6-Port  ) 
!S51(C  6-Port  ) 
!S52(C  6-Port  ) 
!S53(C  6-Port  ) 
!S54(C  6-Port  ) 
!S55(C  6-Port  ) 
!S56(C  6-Port  ) 
!S61(C  6-Port  ) 
!S62(C  6-Port  ) 
!S63(C  6-Port  ) 
!S64(C  6-Port  ) 
!S65(C  6-Port  ) 
!S66(C  6-Port  ) 
!S6P File: Measurement: :
# Hz S  RI   R 50
500000000 -0.33712 -0.034282 -0.0097504 -0.0035191 -0.0077441 0.011777 -0.0035861 0.01163
0.011822 0.0042332 -0.0042376 0.0083925
-0.009734 -0.0035159 -0.41944 -0.049287 0.0072417 -0.011465 0.0015378 0.011828
0.0075723 0.0026012 0.00070734 0.013647
-0.0077363 0.011782 0.0072228 -0.011486 -0.26497 0.21176 0.0069631 0.0032985
-0.00011087 0.0087311 0.00026956 0.012329
-0.0035788 0.011635 0.0015647 0.011843 0.0069595 0.003305 -0.32743 0.048225
-0.019652 -0.0045177 0.018098 0.026767
0.011818 0.0042075 0.0075781 0.0025953 -0.00010069 0.0087308 -0.019646 -0.0045019
-0.22645 -0.1843 -0.028714 0.0054164
-0.0042406 0.0084189 0.00076765 0.013621 0.00028278 0.012309 0.0181 0.026764
-0.028751 0.0053611 -0.26377 -0.15367
560000000 -0.31578 0.12509 -0.023595 -0.062897 0.00019756 0.01227 0.0060978 0.0096891
0.010805 0.0046081 0.010108 0.0075742
-0.023542 -0.062794 -0.37715 0.10816 -0.041436 -0.036089 0.013351 0.0039636
-0.01323 -0.004379 0.0043821 -0.00086411
0.00024058 0.012241 -0.041579 -0.036012 -0.18288 0.25929 -0.00040405 -0.0049463
0.018851 0.004231 0.0071856 -0.0057421
0.0061119 0.0096629 0.013366 0.0039659 -0.00039608 -0.0049411 -0.30296 0.13642
0.0040062 -0.024566 0.0053678 -0.019967
0.010832 0.0045612 -0.013267 -0.0043346 0.018852 0.0042197 0.003986 -0.024558
-0.28549 -0.0090399 0.008215 -0.051242
0.010065 0.0076282 0.0043242 -0.0008447 0.0072117 -0.0057835 0.0053392 -0.020023
0.0082366 -0.051213 -0.33462 -0.00068323
620000000 -0.2729 0.10957 -0.023163 0.0073974 0.0035121 0.0082489 0.0066993 -0.0053888
0.011397 -0.00089308 0.00050201 -0.0017996
-0.023158 0.0073895 -0.40253 0.063229 -0.018784 0.00013147 -0.0013588 -0.0020454
0.010393 -0.0070662 0.0011782 -0.0024648
0.003538 0.0082265 -0.018817 0.00017602 -0.15247 0.26851 -0.0015317 -0.0051651
-0.0037957 -0.0032967 0.0086228 -0.0032637
0.0066956 -0.0054093 -0.0013689 -0.0020423 -0.0015352 -0.0051662 -0.26119 0.14669
-0.038847 -0.018894 0.014102 0.024655
0.011405 -0.00095362 0.010378 -0.0071005 -0.0037932 -0.0033052 -0.038869 -0.018872
-0.20468 -0.048355 -0.041641 0.015879
0.00034621 -0.0019261 0.0011452 -0.0025179 0.0086453 -0.0032303 0.01416 0.024765
-0.041857 0.015787 -0.24813 -0.043373
680000000 -0.23293 0.19361 -0.027842 -0.013837 0.004773 0.0049006 0.0011655 -0.0074298
-0.0032711 -0.010873 0.0049102 -0.0070489
-0.027818 -0.013832 -0.38688 0.15999 -0.032601 -0.0012283 -0.0015929 -0.00017739
-0.0028151 -0.0089745 -0.00092606 -0.0020486
0.0047747 0.0048987 -0.03264 -0.0011501 -0.10156 0.28783 -0.00069575 0.00010818
-0.0023574 0.00074039 -0.0027822 -0.009693
0.0011552 -0.0074345 -0.0015985 -0.00017895 -0.00069796 0.00010782 -0.21805 0.19608
-0.02356 -0.0079424 -0.010853 -0.011109
-0.0033046 -0.010869 -0.0028586 -0.0089703 -0.0023655 0.00075014 -0.023577 -0.0079263
-0.25237 0.049648 -0.0050433 -0.0096805
0.0049334 -0.007065 -0.00092513 -0.0020472 -0.0027774 -0.0097353 -0.010862 -0.0111
-0.004971 -0.0096568 -0.26556 0.068487
740000000 -0.18932 0.18831 -0.038144 0.0267 0.012462 -0.0052555 -0.00057104 -0.0039152
-0.0045868 -0.0028409 -0.0061711 0.0033623
-0.038134 0.026663 -0.33457 0.17868 -0.034679 0.034988 -0.00097408 -0.0063339
-0.011483 0.008172 -0.0031456 -0.0066717
0.012455 -0.0052923 -0.034597 0.035102 -0.068005 0.2865 -0.0014718 0.0032834
-0.0025634 -0.0040407 -0.00095672 -0.00010483
-0.00058291 -0.0039226 -0.00098731 -0.0063395 -0.001467 0.0032932 -0.20191 0.2035
-0.042467 -0.0074199 0.022815 0.014114
-0.0045875 -0.0028321 -0.01146 0.0081904 -0.0025755 -0.0040258 -0.042493 -0.0073817
-0.15569 0.072966 -0.043286 0.00082168
-0.0061817 0.0033862 -0.0032111 -0.0067103 -0.00098695 -0.00012992 0.022804 0.014097
-0.043244 0.00086609 -0.25989 0.072955
800000000 -0.1571 0.22861 -0.022316 0.01727 0.0051606 -0.010505 -0.0048518 -0.0020678
-0.0039511 0.0026948 0.0046436 0.0006581
-0.022304 0.017241 -0.33708 0.24888 -0.007743 0.033924 -0.0021858 0.0021949
-0.00057557 0.0034191 0.0012453 0.0053093
0.0051253 -0.010515 -0.0076428 0.033969 -0.026771 0.30942 0.0011425 0.0015613
0.00062152 0.0035223 -0.001836 0.00075127
-0.0048493 -0.0020561 -0.0021791 0.002203 0.0011429 0.0015676 -0.17372 0.23093
-0.028233 0.012785 0.013763 -0.010292
-0.0039516 0.0027038 -0.00056072 0.0034296 0.00062248 0.0035184 -0.028225 0.01285
-0.1998 0.097502 -0.01799 0.018185
0.0046568 0.00067907 0.0012692 0.0053309 -0.0018578 0.00073465 0.013744 -0.010317
-0.017968 0.018227 -0.25444 0.12933
860000000 -0.12244 0.2497 -0.017092 0.031145 -0.0034161 -0.0097095 -0.0025548 0.0013052
0.0041616 0.0050977 -0.0032432 -0.0032157
-0.017097 0.031121 -0.28914 0.29086 0.008183 0.034012 0.00021363 0.0021401
0.0042704 0.00040116 0.0031558 0.00024356
-0.0034456 -0.0097054 0.0082976 0.034013 0.021599 0.31708 -0.00035656 -0.00030343
0.0027788 -0.0016337 0.0015962 0.0045425
-0.0025563 0.0013203 0.00023059 0.0021288 -0.00035778 -0.00030325 -0.13802 0.24276
-0.017624 0.018687 -0.0063153 -0.0095445
0.0041837 0.0050926 0.0042844 0.00038172 0.0027822 -0.001637 -0.017598 0.018723
-0.15052 0.14568 -0.025243 0.01552
-0.0032598 -0.0032148 0.003168 0.00023011 0.0016123 0.0045537 -0.0063132 -0.0095505
-0.025239 0.015523 -0.20261 0.1766
920000000 -0.096952 0.27274 0.0054194 0.037643 -0.0092794 -0.0041236 -0.0017942 0.002253
0.0012614 0.0016074 0.0025762 -0.00147
0.0053965 0.037618 -0.25991 0.31135 0.027983 0.021514 0.0016365 0.001028
0.0068488 -0.00058535 0.0038531 -0.0030578
-0.0093015 -0.0041062 0.028079 0.021455 0.067992 0.31733 0.0017869 -0.00014054
0.0012108 -0.00048581 0.00070769 -0.0011809
-0.0017874 0.002259 0.0016466 0.0010221 0.0017996 -0.00013568 -0.11371 0.25889
-0.010222 0.029789 0.0030381 -0.0066574
0.0012542 0.0015981 0.0068799 -0.00059508 0.0012053 -0.00048593 -0.010168 0.029817
-0.14032 0.15155 -0.0014849 0.028183
0.0026019 -0.0014806 0.0038751 -0.0030624 0.00070276 -0.0011877 0.0030386 -0.0066855
-0.0015231 0.028174 -0.21511 0.18934
980000000 -0.04934 0.29203 0.01795 0.02965 -0.0086741 0.0046989 0.0024642 0.0036038
0.0039378 -0.0017057 -0.0031028 -0.0020839
0.017904 0.029636 -0.20706 0.34495 0.032675 0.0044553 0.0019718 -8.9421e-05
0.001122 -0.0061027 -0.00043859 -0.0021414
-0.0086666 0.004717 0.03273 0.0043682 0.11423 0.31032 0.00042712 -0.0012084
4.1947e-05 -0.0021157 0.0015103 -1.3879e-06
0.0024707 0.0036095 0.0019952 -0.00010232 0.00042977 -0.0012049 -0.075439 0.27016
0.0075456 0.028497 -0.0094999 -0.006918
0.003925 -0.0017325 0.0010999 -0.0060992 4.502e-05 -0.0021117 0.0076058 0.028496
-0.10832 0.17887 0.0048718 0.019025
-0.0031261 -0.0020667 -0.0004844 -0.0021334 0.0015062 -6.649e-06 -0.0095116 -0.0068998
0.0048623 0.018995 -0.17156 0.23913
1040000000 -0.0064315 0.30005 0.033185 0.017566 -0.001083 0.0067493 0.0028016 0.00068338
2.5979e-06 -0.0036211 -0.00050187 -0.0016045
0.033154 0.017575 -0.17151 0.3578 0.028785 -0.014885 0.0014469 -0.0017164
-0.002613 -0.0023371 -0.0014312 -0.0028782
-0.0010549 0.0067372 0.028775 -0.014986 0.16025 0.29629 -0.00050628 -0.0014055
-0.0015534 -0.00082889 -0.00046373 -0.0011922
0.0027914 0.00068618 0.0014558 -0.0017411 -0.00051212 -0.0014029 -0.047942 0.28031
0.018173 0.016947 -0.0028931 0.0020743
-3.1905e-05 -0.003638 -0.002601 -0.0023127 -0.0015607 -0.00082578 0.018208 0.016917
-0.07767 0.18738 0.013439 0.018155
-0.00049873 -0.0016139 -0.0014619 -0.002867 -0.00047083 -0.0011967 -0.0028863 0.0020784
0.013441 0.018165 -0.15339 0.26198
1100000000 0.039063 0.30729 0.035438 -0.0046882 0.0028654 0.0036638 0.0025187 -0.0014484
-0.0020656 -0.0030449 -0.0040838 7.1858e-05
0.035405 -0.0046626 -0.1279 0.37455 0.014669 -0.027479 -1.049e-05 -0.0018321
-0.003124 -0.00044591 -0.0035039 -0.00048854
0.0028791 0.0036466 0.014585 -0.027555 0.20636 0.27566 -0.0017608 0.00025358
-0.001666 0.00066549 -0.0010874 -0.00033722
0.0025206 -0.0014556 -8.3093e-06 -0.0018381 -0.0017636 0.00024889 -0.0074296 0.2851
0.022622 0.004974 -0.002369 0.00071939
-0.002088 -0.00304 -0.0031217 -0.00042872 -0.0016654 0.00067239 0.02264 0.0049373
-0.059474 0.20028 0.019178 0.0087969
-0.0040776 9.6361e-05 -0.0035279 -0.00047084 -0.0010781 -0.00033672 -0.0023655 0.00073443
0.019155 0.0087943 -0.10633 0.29432
1160000000 0.090713 0.30174 0.023435 -0.02077 0.0026073 -0.00052189 -9.0575e-05 -0.0025744
-0.0040193 -0.000514 -0.0010181 0.0041171
0.023433 -0.020745 -0.084142 0.3784 -0.0038973 -0.028599 -0.001784 -0.0016234
-0.0023734 0.0025871 -0.0013458 0.0016094
0.0026104 -0.00053642 -0.0040107 -0.028599 0.2492 0.24468 -0.00059932 0.0017256
-0.00036824 0.0018278 -0.0010477 0.00014143
-0.00010407 -0.0025854 -0.0017798 -0.0016314 -0.00061402 0.001731 0.031922 0.28225
0.01918 -0.0096446 -0.0029548 0.0056127
-0.0040339 -0.00051104 -0.002341 0.0026249 -0.00036946 0.0018333 0.019191 -0.0096778
-0.026323 0.20938 0.017616 0.0010712
-0.00099518 0.0041319 -0.0013557 0.0016249 -0.00106 0.00013545 -0.0029491 0.0056094
0.017643 0.0010663 -0.058781 0.29822
1220000000 0.13513 0.28978 0.0099192 -0.029673 -0.0015782 -0.00073443 -0.00013101 -0.0011622
-0.002515 0.0025272 0.0012849 0.0018813
0.0099292 -0.029641 -0.040116 0.38987 -0.016675 -0.020673 -0.0024861 0.00044551
0.0002857 0.0028554 -0.00069523 0.0017483
-0.0015792 -0.00073641 -0.016781 -0.02062 0.28813 0.20562 0.00086638 0.0015787
0.00059688 0.0011143 0.00034081 0.00080665
-0.00014075 -0.0011609 -0.0024818 0.00044824 0.0008626 0.0015777 0.071485 0.27373
0.0092022 -0.015266 0.0027221 0.0017476
-0.0025062 0.0025343 0.00030079 0.0028682 0.00060109 0.0011265 0.0091864 -0.015282
-0.0031262 0.21873 0.01385 -0.012424
0.0012934 0.0018807 -0.00068994 0.0017587 0.00034158 0.00081037 0.0027305 0.001733
0.013847 -0.012422 -0.028324 0.31885
1280000000 0.18453 0.26718 -0.0079905 -0.027875 -0.0018101 0.0025484 -0.0011109 -0.0019894
-0.00056646 0.0030668 0.002588 0.001075
-0.0079733 -0.027858 0.0055333 0.38068 -0.023304 -0.0082872 -0.0009977 0.0014775
0.0016397 0.0015804 0.00052008 0.0020624
-0.0017972 0.0025535 -0.023372 -0.0081852 0.31871 0.1618 0.0014016 -0.00015855
0.00098845 6.9388e-05 0.00034874 0.00044649
-0.0011217 -0.0019833 -0.00097998 0.0014838 0.0014067 -0.00016733 0.10795 0.25766
0.0005439 -0.016962 0.00041461 0.00016394
-0.00054086 0.0030688 0.0016541 0.0015746 0.00098826 7.7607e-05 0.00052246 -0.016966
0.033557 0.22256 0.0030288 -0.014308
0.0025991 0.0010629 0.00052642 0.0020514 0.00036177 0.00045309 0.00042157 0.00015965
0.0030363 -0.014308 0.020632 0.32227
1340000000 0.22121 0.23281 -0.017477 -0.018524 0.00092209 0.0043501 -0.0019354 -0.000748
0.0014795 0.0025345 0.0017128 -0.0015327
-0.017439 -0.018524 0.044787 0.3723 -0.021188 0.0041614 -2.3679e-05 0.0019341
0.0017188 0.00062125 0.0013643 0.00092779
0.00094075 0.0043453 -0.021188 0.0042679 0.34083 0.11366 0.00093636 -0.00087601
0.00062173 -0.00039691 0.00021563 0.00023586
-0.0019459 -0.00073717 -1.5627e-05 0.0019374 0.00093139 -0.00087729 0.14095 0.23761
-0.00754 -0.014144 0.0013689 7.5084e-05
0.0015012 0.0025317 0.0017259 0.00060758 0.00062372 -0.00039915 -0.0075754 -0.014137
0.063908 0.21811 -0.0031494 -0.01294
0.0017082 -0.0015426 0.0013749 0.00091978 0.00021221 0.00023624 0.0013679 6.6253e-05
-0.0031562 -0.012951 0.059954 0.32022
1400000000 0.25371 0.19423 -0.022988 -0.0072607 0.0050499 0.0029775 -0.0020178 0.00074779
0.002389 0.00065935 0.00025221 -0.0013066
-0.022953 -0.0072721 0.081744 0.35926 -0.014589 0.012118 0.0013463 0.001237
0.00093715 -0.00082497 0.0012392 0.00032606
0.0050612 0.0029536 -0.014545 0.012204 0.35386 0.059775 0.00011057 -0.0013953
3.1652e-05 -0.00035236 0.00034615 0.00020636
-0.0020164 0.00075066 0.0013449 0.0012329 0.00010984 -0.0013949 0.17088 0.20916
-0.012389 -0.0082452 -0.00061749 -0.0008568
0.0023923 0.00064994 0.00092795 -0.00083293 3.4433e-05 -0.00035399 -0.012423 -0.0082278
0.097161 0.21354 -0.0094339 -0.0082705
0.00023825 -0.0013151 0.0012367 0.00033294 0.00034645 0.00020115 -0.00061476 -0.00085667
-0.0094205 -0.0082893 0.10664 0.3109
1460000000 0.27617 0.14993 -0.020068 0.0045586 0.0054464 -0.0017016 -0.0015206 0.0017315
0.001927 -0.00075172 -0.00025081 -0.00086572
-0.020054 0.0045459 0.11595 0.33749 -0.0061475 0.014949 0.0017096 0.00013041
0.00081328 -0.0011518 0.0012534 -0.00063404
0.0054324 -0.001728 -0.0060839 0.014992 0.35972 0.0050865 -0.001077 -0.0012545
0.00027213 -6.8867e-05 0.00071875 -0.00049391
-0.0015172 0.0017372 0.0016987 0.00012458 -0.0010885 -0.0012527 0.198 0.18005
-0.013131 -0.0027428 -0.0011143 0.0015706
0.001928 -0.00075458 0.00080175 -0.0011689 0.00027265 -7.2177e-05 -0.013147 -0.0027098
0.12715 0.19877 -0.010995 -0.0028528
-0.00025651 -0.00087265 0.0012477 -0.00062485 0.00072038 -0.00048534 -0.0011166 0.0015828
-0.010986 -0.0028496 0.14085 0.29078
1520000000 0.28793 0.10804 -0.014547 0.010058 0.0031071 -0.0040918 0.00013852 0.0025525
0.0017353 -0.0016753 -0.0011719 -0.00023693
-0.01455 0.010027 0.14952 0.32263 0.001323 0.012896 0.0015787 -0.0008217
7.6755e-05 -0.00087705 0.00035493 -0.0010724
0.0030846 -0.0041054 0.0013968 0.0129 0.35264 -0.051336 -0.00095069 -0.00039247
0.00056781 -0.00079648 -2.938e-05 -0.00012255
0.00015443 0.002555 0.001581 -0.00082599 -0.00094042 -0.00039372 0.22187 0.14169
-0.012642 0.0018695 0.0010841 0.0018376
0.0017219 -0.0016861 7.0429e-05 -0.00088109 0.00056901 -0.00080021 -0.012644 0.001899
0.15558 0.18417 -0.011189 0.0012325
-0.0011715 -0.0002194 0.00033803 -0.0010737 -3.2511e-05 -0.00012397 0.0010769 0.001842
-0.011189 0.0012265 0.17561 0.27255
1580000000 0.29686 0.061527 -0.0081164 0.013098 -0.00095603 -0.0047709 0.0014024 0.0018155
-0.00047971 -0.0020461 -0.00039116 0.0003608
-0.0081196 0.013089 0.17686 0.29773 0.0049611 0.0082404 0.00043623 -0.0015419
-0.00037575 -0.00099843 -0.00022579 -0.0008924
-0.00097526 -0.0047624 0.0050048 0.0082219 0.33193 -0.10893 -0.0015218 0.00043415
-0.00025171 -0.0011417 0.0001178 -0.00056011
0.0014089 0.0018101 0.0004213 -0.0015375 -0.0015198 0.00043261 0.23658 0.10161
-0.009986 0.0059605 0.0019064 0.00065468
-0.00048927 -0.0020465 -0.00038921 -0.00099915 -0.00025727 -0.0011408 -0.0099708 0.0059882
0.18032 0.16571 -0.0089401 0.0065786
-0.0003871 0.00037232 -0.0002363 -0.00088613 0.00010451 -0.0005532 0.0019045 0.00065327
-0.0089422 0.0065744 0.20956 0.24629
1640000000 0.29831 0.019775 -0.001609 0.012153 -0.0026863 -0.0025187 0.0025476 0.00098815
-0.0007969 -0.001156 -0.00037012 0.00066976
-0.0016132 0.012141 0.20636 0.27235 0.0056684 0.0035737 -0.00073258 -0.0016243
-0.0009212 -0.00049517 -0.00053137 -0.00068996
-0.0026976 -0.0025031 0.005695 0.0035414 0.30342 -0.15817 -0.00086772 0.0013465
-0.0010422 -0.00084753 -0.00013212 -0.00033572
0.0025573 0.00097418 -0.00074067 -0.0016258 -0.00086789 0.0013465 0.24923 0.051515
-0.0065756 0.0069642 0.0022846 -0.0007196
-0.00080558 -0.0011486 -0.00093149 -0.00049057 -0.0010512 -0.00084152 -0.0065637 0.0069945
0.20351 0.14018 -0.0043654 0.0088478
-0.00035969 0.00067268 -0.0005369 -0.00068985 -0.00012398 -0.00033906 0.0022765 -0.00073197
-0.0043718 0.0088416 0.23681 0.21567
1700000000 0.29033 -0.025712 0.0018408 0.0095403 -0.00343 0.00011684 0.0029134 -0.0010855
-0.0018258 -0.00042389 0.00065355 0.00047592
0.0018328 0.0095354 0.22441 0.24048 0.0038208 0.00078311 -0.0013706 -0.00055086
-0.00079456 -2.9949e-05 -0.00096953 -0.00045258
-0.0034296 0.00013385 0.0038301 0.00076616 0.25957 -0.1977 0.00034054 0.001579
-0.0017402 -0.00021995 -0.00060333 -0.00093959
0.0029105 -0.0011003 -0.0013777 -0.00054545 0.00033482 0.0015823 0.24553 0.00041819
-0.0045475 0.0075185 0.0013607 -0.0020906
-0.0018291 -0.00041124 -0.00079205 -3.4373e-05 -0.0017414 -0.00021724 -0.0045409 0.0075321
0.22119 0.11834 2.075e-05 0.0092477
0.00065966 0.00046144 -0.00096638 -0.00043883 -0.0006073 -0.00093696 0.001357 -0.0020962
1.7471e-05 0.0092534 0.25496 0.18135
1760000000 0.27718 -0.07424 0.004238 0.0063883 -0.0022255 0.00085794 0.0013671 -0.0033475
-0.00096987 0.00064823 0.00034639 -0.00047924
0.0042262 0.0063822 0.25014 0.20015 0.0017005 -0.00094931 -0.001091 0.00018056
-0.0011646 0.0008508 -0.00064279 0.00050356
-0.0022209 0.00087364 0.0016941 -0.00095747 0.21049 -0.23061 0.0010988 0.0012863
-0.001211 0.0013374 -0.0013526 -0.00040767
0.0013477 -0.0033503 -0.0010905 0.00019131 0.0011018 0.0012759 0.23511 -0.051972
-0.001917 0.0070785 -0.00044327 -0.0022772
-0.00097127 0.00065182 -0.0011688 0.00086183 -0.0012098 0.0013372 -0.0019061 0.0070797
0.23611 0.081652 0.0037812 0.0065004
0.0003447 -0.00048357 -0.00064101 0.00051295 -0.001362 -0.00039812 -0.00045253 -0.0022658
0.0037841 0.0065137 0.26837 0.14383
1820000000 0.25162 -0.11135 0.0046089 0.0028206 -1.8964e-05 0.0024168 -0.0009266 -0.0030659
-0.00082719 0.00062938 4.5591e-05 -0.00017945
0.0046031 0.0028229 0.25963 0.16975 -0.00024767 7.1364e-05 -0.0012813 0.00084547
-0.00013513 0.001411 -0.00055425 0.00054282
-1.1064e-05 0.0024186 -0.00025323 6.8426e-05 0.16018 -0.24622 0.0016207 0.00048219
-0.00039015 0.0021639 -0.0014756 0.00046813
-0.00093887 -0.0030599 -0.0012818 0.00085274 0.0016151 0.00049367 0.20346 -0.099313
-0.00076422 0.0057483 -0.0017431 -0.0014436
-0.00082387 0.00062937 -0.00012768 0.0014177 -0.00039368 0.0021766 -0.00074426 0.0057645
0.25218 0.050292 0.0046895 0.0031184
3.6008e-05 -0.00017824 -0.00055186 0.00054633 -0.0014829 0.00046913 -0.0017451 -0.0014325
0.004687 0.0031167 0.27213 0.10787
1880000000 0.21563 -0.15081 0.0024652 0.00048953 -0.00040635 0.0021341 -0.0028272 -0.0022358
-0.00027091 0.001381 0.00029257 -0.00058701
0.0024602 0.00049745 0.2635 0.123 -0.0021301 0.0016642 -0.00017081 0.0016803
0.00064243 0.0014206 0.00021015 0.0010365
-0.00038888 0.0021269 -0.0021225 0.0016745 0.10832 -0.25544 0.001959 -0.00096017
0.0014616 0.0020789 -0.0009051 0.0014859
-0.0028396 -0.0022167 -0.000162 0.0016866 0.0019587 -0.00096081 0.16154 -0.13848
-0.00046222 0.0044712 -0.0023896 0.00075462
-0.00026067 0.0013793 0.00065765 0.0014139 0.0014752 0.0020762 -0.00046496 0.0044741
0.25348 0.015586 0.0043604 0.0012667
0.00029144 -0.0005943 0.00022276 0.0010367 -0.00089592 0.0014749 -0.002377 0.00076134
0.0043548 0.0012782 0.27304 0.073739
1940000000 0.17579 -0.17579 0.00022544 -0.0013649 0.0013644 0.0019092 -0.0037319 0.00053483
0.0011302 0.0010627 -0.00073687 -0.00067458
0.00022664 -0.0013622 0.26339 0.091165 -0.001062 0.0038697 0.0009468 0.0013263
0.0020435 0.00057527 0.00090675 0.00023041
0.0013768 0.0018957 -0.0010358 0.0038756 0.062215 -0.24896 0.00028598 -0.002424
0.0024804 0.00051743 0.00035388 0.0016462
-0.0037292 0.00055618 0.00094847 0.0013228 0.00029178 -0.0024267 0.10829 -0.16738
-0.0016292 0.0038918 -0.0012895 0.0018338
0.0011388 0.0010684 0.0020592 0.00055938 0.0024834 0.00051571 -0.0016106 0.0038999
0.25279 -0.024997 0.0031404 -0.0019885
-0.00074222 -0.00066938 0.00091516 0.0002239 0.00037908 0.0016417 -0.0012788 0.0018206
0.0031372 -0.001991 0.26304 0.038143
2000000000 0.12945 -0.18935 -0.0036872 0.00061828 0.0023708 0.0015588 -0.0022902 0.0035816
0.00098586 0.00033987 -0.0006796 0.00049044
-0.0036895 0.000614 0.2486 0.05592 -0.00087012 0.0056975 0.0016304 0.00026676
0.0015729 -0.0015084 0.00053125 0.00015338
0.0023804 0.001546 -0.00083878 0.0057054 0.018775 -0.23429 -0.0014685 -0.0014814
0.0021255 -0.0012143 0.0016953 0.0013126
-0.0022753 0.003599 0.0016296 0.00025716 -0.0014659 -0.001486 0.055029 -0.17576
-0.0030429 0.0044834 0.00013522 0.0023809
0.00098483 0.00034326 0.001556 -0.001523 0.0021147 -0.0012282 -0.0030261 0.0044987
