!Keysight Technologies,M9804A,MY58100912,A.14.10.03
!Date: Thursday, April 27, 2023 10:28:33
!Correction: S11(C  6-Port  ) 
!S12(C  6-Port  ) 
!S13(C  6-Port  ) 
!S14(C  6-Port  ) 
!S15(C  6-Port  ) 
!S16(C  6-Port  ) 
!S21(C  6-Port  ) 
!S22(C  6-Port  ) 
!S23(C  6-Port  ) 
!S24(C  6-Port  ) 
!S25(C  6-Port  ) 
!S26(C  6-Port  ) 
!S31(C  6-Port  ) 
!S32(C  6-Port  ) 
!S33(C  6-Port  ) 
!S34(C  6-Port  ) 
!S35(C  6-Port  ) 
!S36(C  6-Port  ) 
!S41(C  6-Port  ) 
!S42(C  6-Port  ) 
!S43(C  6-Port  ) 
!S44(C  6-Port  ) 
!S45(C  6-Port  ) 
!S46(C  6-Port  ) 
!S51(C  6-Port  ) 
!S52(C  6-Port  ) 
!S53(C  6-Port  ) 
!S54(C  6-Port  ) 
!S55(C  6-Port  ) 
!S56(C  6-Port  ) 
!S61(C  6-Port  ) 
!S62(C  6-Port  ) 
!S63(C  6-Port  ) 
!S64(C  6-Port  ) 
!S65(C  6-Port  ) 
!S66(C  6-Port  ) 
!S6P File: Measurement: :
# Hz S  RI   R 50
500000000 -0.33954 -0.017266 -0.010899 -0.0030858 -0.0071407 0.012731 -0.0032878 0.012151
0.011319 0.0036615 -0.0029536 0.0085182
-0.01089 -0.0030787 -0.41957 -0.035425 0.0063702 -0.011695 0.0020563 0.012554
0.0063847 0.0023308 0.002305 0.013752
-0.0071368 0.012721 0.0063608 -0.011696 -0.26275 0.22322 0.0073883 0.0036799
-0.00088256 0.008522 0.0025025 0.01217
-0.003276 0.01215 0.0020744 0.012565 0.0073859 0.0036843 -0.33035 0.063428
-0.019236 -0.0066356 0.015263 0.023667
0.01131 0.0036566 0.006405 0.0023248 -0.00087898 0.0084969 -0.019234 -0.0066203
-0.23722 -0.16262 -0.025117 0.0038319
-0.0029509 0.0084935 0.0023145 0.013753 0.0025095 0.012175 0.015261 0.023652
-0.025117 0.0038323 -0.28515 -0.0789
560000000 -0.31159 0.13796 -0.027209 -0.060319 0.0010252 0.01135 0.0053734 0.0095393
0.0091292 0.0040528 0.010525 0.0064182
-0.027141 -0.060264 -0.37526 0.11904 -0.042217 -0.034357 0.013839 0.0032802
-0.01247 -0.0037668 0.0031823 -0.00055476
0.0010475 0.011326 -0.042302 -0.03433 -0.18043 0.26774 -0.00042881 -0.0044801
0.018445 0.0035784 0.0066638 -0.0065092
0.0053799 0.009528 0.013841 0.0032558 -0.00043966 -0.0044968 -0.30393 0.14895
0.00044353 -0.024337 0.0031325 -0.018212
0.0091247 0.0040673 -0.012473 -0.0037821 0.018438 0.0036063 0.00042445 -0.024326
-0.2873 0.010505 0.0029263 -0.046846
0.010544 0.006407 0.0031865 -0.00056715 0.0066774 -0.0065094 0.0031116 -0.018213
0.0029506 -0.046842 -0.33051 0.059859
620000000 -0.26976 0.12375 -0.023431 0.0071345 0.0037443 0.0079133 0.0078523 -0.0056866
0.010503 -0.0011421 0.0010215 -0.0024626
-0.023408 0.0071278 -0.40124 0.074532 -0.019469 0.00043903 -0.00093036 -0.002269
0.010004 -0.0064114 0.0015118 -0.0030508
0.003755 0.0079184 -0.019481 0.00045662 -0.14889 0.27751 -0.0011527 -0.0046522
-0.0034175 -0.0030272 0.0082845 -0.0038755
0.0078404 -0.0056953 -0.00094887 -0.0022694 -0.0011697 -0.0046575 -0.26245 0.16076
-0.039077 -0.017385 0.011976 0.022963
0.010493 -0.0011515 0.010011 -0.0064451 -0.0033885 -0.0030369 -0.039094 -0.017352
-0.21091 -0.027255 -0.038503 0.014434
0.0010252 -0.0024529 0.0015036 -0.0030512 0.0082915 -0.0038878 0.011996 0.022964
-0.038509 0.014415 -0.25608 0.032113
680000000 -0.22698 0.20526 -0.027857 -0.011816 0.0054811 0.004436 0.0012514 -0.0071522
-0.0028301 -0.011082 0.0036325 -0.0069045
-0.02784 -0.011819 -0.38414 0.16849 -0.03218 0.00051429 -0.0015055 -0.00051493
-0.0024323 -0.0087046 -0.0015149 -0.0021964
0.0054749 0.0044412 -0.032177 0.0005582 -0.098011 0.29505 -0.00092416 -0.00041232
-0.0017803 0.00012951 -0.0036292 -0.00844
0.0012423 -0.0071537 -0.0014937 -0.00051715 -0.00092139 -0.0004213 -0.21648 0.20774
-0.025714 -0.0053215 -0.0088993 -0.0082548
-0.0028458 -0.011071 -0.0024559 -0.0087082 -0.0017854 0.0001272 -0.025738 -0.0052907
-0.24954 0.068823 -0.0072799 -0.006636
0.0036089 -0.0068967 -0.0015184 -0.002204 -0.0036361 -0.0084348 -0.0089185 -0.0082536
-0.0072841 -0.006653 -0.25319 0.12733
740000000 -0.18364 0.2001 -0.036496 0.026279 0.01183 -0.0059291 -0.00081376 -0.004076
-0.0051115 -0.0026096 -0.0057929 0.0033061
-0.03646 0.026264 -0.33238 0.18823 -0.03249 0.035148 -0.001014 -0.0061716
-0.011256 0.0082632 -0.0017732 -0.004763
0.011812 -0.0059229 -0.032425 0.035175 -0.064236 0.29455 -0.0017911 0.0029628
-0.0034201 -0.0042129 -0.0018182 0.0010893
-0.00082338 -0.0040621 -0.0010303 -0.0061789 -0.001781 0.0029715 -0.1984 0.21665
-0.041988 -0.0033721 0.02181 0.012116
-0.0050995 -0.0025626 -0.011262 0.0082925 -0.0034283 -0.0042258 -0.042015 -0.0033088
-0.15696 0.090763 -0.037988 0.0028363
-0.0058047 0.0033199 -0.00177 -0.0047716 -0.0018255 0.0011046 0.021828 0.012081
-0.037986 0.0028228 -0.24134 0.13726
800000000 -0.15004 0.23702 -0.021436 0.017551 0.0043554 -0.010375 -0.0043509 -0.0016239
-0.0037478 0.0031061 0.00376 0.00090303
-0.021444 0.017531 -0.33236 0.2561 -0.0065183 0.033473 -0.0023 0.0023442
-0.00067967 0.0034532 0.0011001 0.0053969
0.0043315 -0.010369 -0.0064658 0.033489 -0.021383 0.31605 0.00085921 0.0016137
0.0004096 0.0036804 -0.0017428 0.0013038
-0.0043604 -0.0016134 -0.0022971 0.002356 0.00086099 0.0016047 -0.16834 0.24271
-0.026694 0.016268 0.012344 -0.0099924
-0.0037307 0.0031114 -0.00066206 0.0034575 0.00041529 0.0036926 -0.026687 0.01631
-0.19379 0.11701 -0.015521 0.018735
0.0037662 0.00089819 0.0011107 0.0054154 -0.0017415 0.0013153 0.012337 -0.010013
-0.015526 0.01873 -0.22806 0.18218
860000000 -0.11476 0.25682 -0.01549 0.030855 -0.0038763 -0.0093442 -0.0020994 0.0012188
0.0048698 0.0047734 -0.0025608 -0.0023573
-0.015508 0.030838 -0.28471 0.29679 0.0093844 0.032809 0.00034911 0.0020971
0.005169 0.00015805 0.0032527 0.00065511
-0.0038769 -0.0093353 0.0094465 0.032806 0.027003 0.32272 -0.00028749 -6.0424e-05
0.0027169 -0.0012902 0.0017161 0.0040862
-0.0020933 0.0012163 0.00035586 0.0020991 -0.00029151 -6.1354e-05 -0.13171 0.25328
-0.014907 0.020758 -0.0055251 -0.0089496
0.0048702 0.0047633 0.0051776 0.00013363 0.0027233 -0.0012959 -0.014882 0.020788
-0.14114 0.16133 -0.021314 0.016522
-0.0025629 -0.0023494 0.0032512 0.00065462 0.0017192 0.004084 -0.0055262 -0.0089507
-0.021312 0.016497 -0.17866 0.22147
920000000 -0.088103 0.27819 0.0064966 0.036485 -0.0092096 -0.003828 -0.0013647 0.0017667
0.0016749 0.0012734 0.0027332 -0.0018399
0.0064633 0.036474 -0.25434 0.31719 0.028203 0.019839 0.0018707 0.00084682
0.0070249 -0.00094204 0.0033968 -0.0030307
-0.0092221 -0.0038002 0.028255 0.019797 0.074403 0.32255 0.0019864 -0.00015397
0.0015561 -0.00078123 0.00071819 -0.0012552
-0.0013712 0.0017739 0.0018801 0.00085407 0.0019918 -0.00015456 -0.10542 0.2689
-0.0070524 0.030213 0.00204 -0.0062828
0.0016754 0.0012613 0.0070499 -0.00098132 0.0015554 -0.00078524 -0.0069924 0.03025
-0.1278 0.16709 -0.00064307 0.025087
0.0027318 -0.0018537 0.0033805 -0.0030274 0.00070776 -0.0012578 0.0020405 -0.0062912
-0.00065295 0.025082 -0.17776 0.237
980000000 -0.041001 0.29591 0.018661 0.028222 -0.0083097 0.0047428 0.0019575 0.0029956
0.0036863 -0.001976 -0.0032914 -0.0018657
0.018618 0.028228 -0.20241 0.34948 0.032271 0.0029663 0.0019815 -0.00031516
0.0013162 -0.0061553 -0.00070387 -0.0023528
-0.0083066 0.0047452 0.032294 0.0029108 0.12105 0.31447 0.00044811 -0.0013171
4.3553e-05 -0.0022199 0.0013483 -0.00017149
0.0019593 0.0029848 0.0019803 -0.00029901 0.00044457 -0.0013163 -0.066674 0.27842
0.010538 0.028097 -0.0083285 -0.0057233
0.0036775 -0.0019981 0.0013208 -0.0061672 4.4965e-05 -0.0022097 0.010594 0.028089
-0.09612 0.19158 0.0064255 0.018317
-0.0032832 -0.0018637 -0.00073071 -0.00234 0.0013469 -0.00017626 -0.0083348 -0.0057156
0.0064183 0.018308 -0.13319 0.2743
1040000000 0.0022092 0.30303 0.03287 0.015545 -0.0010548 0.006574 0.0024316 0.00055863
-9.0559e-05 -0.003143 -0.00077502 -0.0012742
0.032838 0.015575 -0.16636 0.36246 0.027384 -0.015733 0.001329 -0.0017357
-0.0025106 -0.0023871 -0.0016306 -0.0026719
-0.001048 0.0065549 0.027376 -0.01579 0.1677 0.29961 -0.00065412 -0.0014089
-0.001639 -0.00077588 -0.00051687 -0.0010168
0.0024259 0.00054874 0.0013518 -0.001724 -0.00065762 -0.0014084 -0.03736 0.28742
0.02081 0.015426 -0.0027461 0.0013472
-0.00012204 -0.0031438 -0.0024958 -0.0024016 -0.001636 -0.0007743 0.020854 0.015397
-0.063956 0.19755 0.013744 0.015593
-0.00077054 -0.0012764 -0.0016449 -0.0026417 -0.00051417 -0.001023 -0.0027419 0.0013606
0.013735 0.015588 -0.10764 0.29363
1100000000 0.047646 0.3088 0.034198 -0.0060835 0.002708 0.0035849 0.0022669 -0.0010958
-0.0020832 -0.002754 -0.0035597 0.00043814
0.034182 -0.0060575 -0.12287 0.37829 0.013211 -0.027489 -9.7706e-05 -0.0018014
-0.0033337 -0.00048364 -0.0032853 -0.0002329
0.0027141 0.0035695 0.013154 -0.027527 0.21446 0.27719 -0.0017963 0.00021435
-0.0017115 0.00071442 -0.00085989 -0.00013051
0.0022602 -0.0011093 -9.1396e-05 -0.0017983 -0.0017888 0.00021729 0.0040202 0.28986
0.024419 0.0021982 -0.0023664 0.00018688
-0.0021053 -0.0027446 -0.003329 -0.00047334 -0.0017082 0.00071351 0.024431 0.002161
-0.044411 0.209 0.018328 0.0059545
-0.0035602 0.00045075 -0.00329 -0.00021509 -0.00086352 -0.00012509 -0.0023664 0.00019224
0.018323 0.0059534 -0.060681 0.31653
1160000000 0.098534 0.30248 0.02176 -0.021481 0.0022481 -0.00033602 -8.5602e-05 -0.0021058
-0.003876 -0.00049608 -0.00055728 0.0037295
0.021761 -0.021443 -0.078255 0.38196 -0.0051777 -0.027834 -0.0016952 -0.0015141
-0.0025264 0.0024739 -0.0012423 0.0017553
0.0022641 -0.00035163 -0.0052487 -0.027808 0.25681 0.24452 -0.00067113 0.0017736
-0.0003692 0.0018956 -0.00072341 0.00021631
-8.4857e-05 -0.002113 -0.0016939 -0.0014955 -0.00067648 0.0017672 0.043635 0.28463
0.019718 -0.012692 -0.0029883 0.0044547
-0.0038915 -0.00049291 -0.0024978 0.0024798 -0.00036442 0.0018947 0.01972 -0.01272
-0.011074 0.21578 0.016561 -0.0021368
-0.00054038 0.0037341 -0.0012499 0.0017677 -0.00072046 0.00021461 -0.002979 0.0044608
0.016565 -0.0021428 -0.014028 0.31701
1220000000 0.14324 0.28915 0.0080399 -0.029324 -0.0015407 -0.00031617 8.574e-05 -0.00097558
-0.0023632 0.0023036 0.0013665 0.0018358
0.0080492 -0.029283 -0.034167 0.39233 -0.017167 -0.019445 -0.0024333 0.0004455
0.00020265 0.0028044 -0.00048037 0.0018571
-0.0015352 -0.00031983 -0.017233 -0.01939 0.29534 0.20397 0.00086665 0.0017721
0.00069605 0.0011672 0.00035509 0.00049771
9.1858e-05 -0.00097476 -0.0024373 0.00045675 0.00085539 0.0017681 0.083733 0.27355
0.0086539 -0.018411 0.0014762 0.0014617
-0.0023641 0.0022917 0.00022424 0.0028083 0.00069764 0.0011736 0.0086376 -0.018422
0.013085 0.22249 0.011373 -0.01338
0.0013725 0.0018258 -0.00047721 0.0018562 0.00035904 0.00049981 0.0014869 0.0014653
0.011377 -0.013383 0.0198 0.32807
1280000000 0.19184 0.26543 -0.0092952 -0.026704 -0.0014249 0.0028265 -0.0009661 -0.0020027
-0.00056635 0.0028655 0.0023445 0.00078791
-0.0092692 -0.026682 0.011499 0.38245 -0.023115 -0.0071615 -0.00090344 0.0013894
0.0017231 0.0015796 0.00074556 0.0016746
-0.0014112 0.0028342 -0.023158 -0.007096 0.32453 0.15876 0.0016217 -5.3932e-05
0.0010895 0.00014637 0.00025348 0.00014266
-0.00096879 -0.0019977 -0.00090505 0.001396 0.0016282 -5.9398e-05 0.11952 0.2546
-0.0010433 -0.019454 -0.00040076 0.00043953
-0.00055672 0.002864 0.0017307 0.0015816 0.0010827 0.00014412 -0.0010784 -0.019459
0.049302 0.22364 0.0011241 -0.014815
0.0023413 0.00078617 0.00075125 0.0016685 0.00025478 0.00014365 -0.00039917 0.00043959
0.0011313 -0.014814 0.065418 0.32542
1340000000 0.22826 0.23015 -0.017983 -0.016819 0.0014455 0.0042349 -0.0017117 -0.00084398
0.0014506 0.0024513 0.001425 -0.0014344
-0.017947 -0.016817 0.050914 0.37302 -0.02044 0.0050227 -0.00011899 0.0019763
0.0018636 0.00058104 0.0012932 0.00062285
0.0014536 0.0042395 -0.020439 0.0050863 0.34522 0.11043 0.0011596 -0.0010364
0.00056753 -0.00048871 6.0763e-05 0.00022096
-0.0017146 -0.00083949 -0.00011454 0.0019781 0.0011637 -0.0010296 0.15089 0.23232
-0.010129 -0.015812 0.00066124 0.0010926
0.0014608 0.0024436 0.0018686 0.00057403 0.00057179 -0.00049033 -0.010166 -0.015805
0.078987 0.21706 -0.0053219 -0.01256
0.0014088 -0.0014333 0.0013015 0.00061992 6.2946e-05 0.00022214 0.00066069 0.0010912
-0.0053248 -0.012562 0.10417 0.31676
1400000000 0.25989 0.19066 -0.022462 -0.0056482 0.0053191 0.0025501 -0.0020879 0.00065315
0.0022952 0.00074936 0.00011938 -0.0013455
-0.022423 -0.0056555 0.087446 0.35918 -0.013607 0.012363 0.0013216 0.0013137
0.0011008 -0.00087782 0.00107 8.5338e-05
0.0053239 0.0025255 -0.013561 0.012419 0.35755 0.056516 9.8043e-05 -0.001837
5.337e-05 -0.00039439 0.00031085 0.00018099
-0.0020961 0.00065214 0.0013301 0.00131 9.7021e-05 -0.0018368 0.17895 0.20144
-0.015426 -0.008869 -0.00030286 0.00035503
0.0022961 0.00073871 0.001098 -0.00088742 5.7704e-05 -0.00039332 -0.015453 -0.0088404
0.11113 0.21015 -0.010799 -0.0073253
0.00011774 -0.0013474 0.0010775 8.1251e-05 0.00031473 0.00017911 -0.00029979 0.00035458
-0.010796 -0.0073346 0.14654 0.30183
1460000000 0.2813 0.146 -0.018963 0.0056115 0.0053532 -0.0023244 -0.0015242 0.0017379
0.0019447 -0.00065158 -0.00043978 -0.00081103
-0.018957 0.0055756 0.12133 0.33671 -0.0053712 0.014648 0.001737 0.00013236
0.00070827 -0.0012489 0.0010163 -0.00056229
0.0053459 -0.0023281 -0.0053133 0.014668 0.36227 0.0020689 -0.0014985 -0.0012956
9.4367e-05 -0.00016984 0.00059746 -0.00030848
-0.0015346 0.0017372 0.0017327 0.00012797 -0.0014911 -0.0012884 0.203 0.17094
-0.016199 -0.0019996 -0.00020429 0.0020346
0.0019457 -0.00065696 0.00070733 -0.0012582 9.1716e-05 -0.00016519 -0.016214 -0.0019667
0.13936 0.19371 -0.011761 -0.0015066
-0.00043055 -0.00080387 0.0010102 -0.00057248 0.00060448 -0.00030647 -0.00020091 0.0020364
-0.011756 -0.0015115 0.17835 0.27887
1520000000 0.29235 0.10327 -0.013103 0.010392 0.002808 -0.0042219 0.00015398 0.0026224
0.0018464 -0.0016477 -0.0010166 -2.1801e-05
-0.013099 0.01037 0.15439 0.32119 0.0017213 0.012404 0.0016483 -0.00087007
-2.9784e-05 -0.0010039 0.00025993 -0.00088215
0.002781 -0.0042289 0.0017683 0.012407 0.35486 -0.054364 -0.0013246 -0.00022084
0.00048225 -0.00084602 -6.5396e-05 -0.00013928
0.00015198 0.0026236 0.0016417 -0.00087971 -0.0013151 -0.00022761 0.22381 0.13241
-0.014988 0.0036911 0.001882 0.0017358
0.0018475 -0.0016542 -3.2898e-05 -0.0010048 0.00047991 -0.00085271 -0.014991 0.0037284
0.16677 0.17776 -0.011222 0.0026983
-0.0010252 -1.5881e-05 0.00025111 -0.00088455 -6.65e-05 -0.00014109 0.0018904 0.0017354
-0.011227 0.0026887 0.20996 0.25524
1580000000 0.30011 0.056741 -0.0068711 0.012728 -0.0012027 -0.0046094 0.0015623 0.0018429
-0.00017637 -0.0020271 -0.00021385 0.00040341
-0.0068753 0.01271 0.18109 0.2958 0.0050377 0.0077157 0.00041301 -0.0016785
-0.0005203 -0.00093667 -0.00021847 -0.00076172
-0.0012107 -0.0046024 0.0050557 0.0076973 0.33406 -0.11179 -0.0016427 0.00094119
-0.00029648 -0.0010694 0.00019863 -0.0005343
0.0015665 0.0018436 0.0004055 -0.0016788 -0.0016453 0.00093703 0.23522 0.093032
-0.011398 0.008343 0.0023577 0.00021342
-0.00018394 -0.002033 -0.00052404 -0.000929 -0.00029421 -0.0010628 -0.011383 0.0083752
0.18975 0.15766 -0.008565 0.0076022
-0.00021274 0.00040589 -0.00022337 -0.00076249 0.00019819 -0.00053773 0.0023622 0.0002102
-0.0085727 0.0075996 0.23928 0.22641
1640000000 0.3008 0.015051 -0.00077165 0.011283 -0.002767 -0.0023324 0.0027774 0.0008365
-0.00075698 -0.0014492 -0.00021138 0.00049512
-0.00078006 0.011284 0.21015 0.2701 0.0055425 0.0033488 -0.00083811 -0.001658
-0.00099181 -0.0003194 -0.00050575 -0.00056981
-0.0027732 -0.0023131 0.0055552 0.003325 0.30467 -0.16044 -0.00050262 0.0015573
-0.0011612 -0.00075615 -0.00017981 -0.0001884
0.002778 0.00082275 -0.00085533 -0.0016529 -0.00050881 0.0015689 0.24516 0.04523
-0.0069892 0.0097036 0.0023568 -0.0011997
-0.00076883 -0.0014531 -0.00099533 -0.00031073 -0.0011565 -0.00076257 -0.0069705 0.0097281
0.21103 0.13172 -0.0039883 0.0092671
-0.00021021 0.00049667 -0.00050399 -0.0005696 -0.00018069 -0.00019034 0.0023545 -0.0012084
-0.0039995 0.0092632 0.26281 0.19349
1700000000 0.29201 -0.030551 0.0021513 0.0084545 -0.0033349 0.00020961 0.0029086 -0.0014137
-0.0019184 -0.00062663 0.00062333 0.00035691
0.0021372 0.0084522 0.2276 0.23818 0.0036858 0.00056197 -0.0014843 -0.00045639
-0.00071456 0.00014783 -0.00086102 -0.00041043
-0.0033374 0.00022607 0.0036913 0.00055031 0.26137 -0.20048 0.00072448 0.0014147
-0.001727 -0.0001313 -0.00059167 -0.00081742
0.0028999 -0.0014189 -0.0014799 -0.00044705 0.00072261 0.001412 0.24055 -0.0030381
-0.0038742 0.0102 0.0012613 -0.0022985
-0.0019179 -0.00061451 -0.00071558 0.00015283 -0.0017233 -0.00012944 -0.0038642 0.010216
0.22672 0.10978 0.00041614 0.0094172
0.0006242 0.00035474 -0.00085761 -0.00040459 -0.00059883 -0.00082057 0.0012557 -0.0023044
0.00041694 0.0094193 0.2769 0.15771
1760000000 0.27831 -0.078882 0.0039463 0.0053443 -0.0021496 0.00093487 0.00093786 -0.0034847
-0.0013602 0.00070257 0.00040925 -0.0004295
0.0039405 0.0053409 0.25285 0.19757 0.0015797 -0.0012123 -0.0011668 0.00028985
-0.00093415 0.00082903 -0.00058755 0.00045864
-0.002153 0.0009635 0.0015699 -0.0012159 0.21227 -0.23386 0.0012979 0.00079095
-0.0010884 0.0015503 -0.001222 -0.00025471
0.00092863 -0.0034856 -0.0011661 0.00029023 0.0012898 0.00079467 0.23055 -0.052268
-0.00040445 0.009352 -0.0005224 -0.002471
-0.0013613 0.00071035 -0.00092598 0.0008378 -0.0010923 0.0015525 -0.00039001 0.0093584
0.23952 0.073344 0.0039233 0.0067045
0.00040673 -0.00043393 -0.00058296 0.0004633 -0.0012316 -0.00025579 -0.00052263 -0.002469
0.0039288 0.0067006 0.28727 0.11911
1820000000 0.25216 -0.11565 0.0038921 0.0021273 3.4697e-05 0.0024095 -0.001315 -0.0028184
-0.0010373 0.0010341 6.6414e-06 -0.00013199
0.0038871 0.0021288 0.26188 0.16729 -0.00025417 -6.0947e-05 -0.0011576 0.00099966
-4.274e-06 0.0012338 -0.00050949 0.0005406
2.2138e-05 0.002409 -0.00025243 -5.53e-05 0.16156 -0.24904 0.0012809 8.1288e-05
-8.3902e-05 0.002099 -0.0013231 0.00049634
-0.001318 -0.0028091 -0.0011581 0.0010049 0.0012901 8.2118e-05 0.20083 -0.09727
0.0013795 0.0075289 -0.0016724 -0.0013297
-0.0010285 0.0010433 7.4304e-06 0.0012365 -8.3244e-05 0.0021 0.0013925 0.0075244
0.25446 0.043162 0.004808 0.0032815
2.2364e-06 -0.0001363 -0.00050705 0.00054335 -0.0013246 0.00050811 -0.001673 -0.0013285
0.0048156 0.0032789 0.28737 0.081752
1880000000 0.21557 -0.15491 0.0015623 0.00017778 -0.00037346 0.0019247 -0.0029291 -0.001793
-0.00017551 0.0016899 0.00020883 -0.00037356
0.0015654 0.00017424 0.2655 0.12043 -0.0023376 0.0016252 -5.0591e-05 0.0016344
0.00057724 0.001067 0.00016753 0.0009634
-0.00036798 0.0019377 -0.0023303 0.0016248 0.10844 -0.25887 0.0013344 -0.00097967
0.0014734 0.0016106 -0.00075089 0.0014172
-0.0029392 -0.0017784 -4.5846e-05 0.001634 0.0013271 -0.00097278 0.16139 -0.13649
0.0022231 0.0051424 -0.0022413 0.00041565
-0.00015672 0.0016925 0.00057935 0.0010698 0.0014814 0.001602 0.0022374 0.0051394
0.25503 0.0093488 0.0045087 0.0012426
0.00020618 -0.00037442 0.00017482 0.00096407 -0.00074505 0.0014169 -0.0022366 0.00041811
0.0045153 0.0012465 0.28482 0.047265
1940000000 0.17549 -0.17974 -0.00053423 -0.0011113 0.0015128 0.0019231 -0.0034941 0.00083368
0.0014658 0.001163 -0.00053536 -0.00058368
-0.00053038 -0.0011019 0.2649 0.088789 -0.0011356 0.0039661 0.0010054 0.0011422
0.0016614 0.00045484 0.00085671 0.00042867
0.0015089 0.0019139 -0.001104 0.0039852 0.061985 -0.25165 0.00016876 -0.0016573
0.0022421 0.00030625 0.00044952 0.0016838
-0.0034849 0.00084848 0.0010156 0.0011378 0.0001699 -0.0016442 0.11005 -0.16631
0.0014291 0.0034354 -0.0013577 0.001407
0.0014702 0.0011595 0.0016602 0.00044438 0.0022551 0.00029556 0.0014302 0.0034346
0.25436 -0.030207 0.0033567 -0.0016281
-0.00054815 -0.00057986 0.00085867 0.00042293 0.00044827 0.0016915 -0.001359 0.001416
0.0033597 -0.0016298 0.27205 0.010713
2000000000 0.1288 -0.19354 -0.0042039 0.001118 0.0024242 0.0014023 -0.0020344 0.0033146
0.0012727 4.5436e-05 -0.00056618 0.00036179
-0.0042027 0.0011012 0.2501 0.053366 -0.00089076 0.0057174 0.0015478 0.00019758
0.001237 -0.0012051 0.00046019 1.9158e-05
0.0024347 0.0013968 -0.00085947 0.0057256 0.018302 -0.23664 -0.0010183 -0.0010143
0.0018434 -0.0010759 0.0017526 0.0010028
-0.002016 0.0033241 0.0015439 0.00019173 -0.0010241 -0.0010039 0.057673 -0.17688
-0.00029589 0.0028223 2.0168e-05 0.0021226
0.0012675 3.3353e-05 0.0012357 -0.0012161 0.0018405 -0.0010741 -0.00028488 0.0028311
0.24593 -0.064371 0.00032316 -0.0026204
