!Keysight Technologies,M9804A,MY58100912,A.14.10.03
!Date: Thursday, April 27, 2023 10:28:33
!Correction: S11(C  6-Port  ) 
!S12(C  6-Port  ) 
!S13(C  6-Port  ) 
!S14(C  6-Port  ) 
!S15(C  6-Port  ) 
!S16(C  6-Port  ) 
!S21(C  6-Port  ) 
!S22(C  6-Port  ) 
!S23(C  6-Port  ) 
!S24(C  6-Port  ) 
!S25(C  6-Port  ) 
!S26(C  6-Port  ) 
!S31(C  6-Port  ) 
!S32(C  6-Port  ) 
!S33(C  6-Port  ) 
!S34(C  6-Port  ) 
!S35(C  6-Port  ) 
!S36(C  6-Port  ) 
!S41(C  6-Port  ) 
!S42(C  6-Port  ) 
!S43(C  6-Port  ) 
!S44(C  6-Port  ) 
!S45(C  6-Port  ) 
!S46(C  6-Port  ) 
!S51(C  6-Port  ) 
!S52(C  6-Port  ) 
!S53(C  6-Port  ) 
!S54(C  6-Port  ) 
!S55(C  6-Port  ) 
!S56(C  6-Port  ) 
!S61(C  6-Port  ) 
!S62(C  6-Port  ) 
!S63(C  6-Port  ) 
!S64(C  6-Port  ) 
!S65(C  6-Port  ) 
!S66(C  6-Port  ) 
!S6P File: Measurement: :
# Hz S  RI   R 50
500000000 -0.33814 -0.017183 -0.010867 -0.0032771 -0.0071918 0.012916 -0.0030574 0.01234
0.011057 0.0039337 -0.0030697 0.0086492
-0.010753 -0.0032026 -0.42009 -0.035531 0.0057887 -0.011849 0.0018936 0.012497
0.0065691 0.0023603 0.0025375 0.013611
-0.0072662 0.012854 0.005807 -0.011814 -0.26266 0.22307 0.0073624 0.0037343
-0.00088838 0.0086669 0.0026985 0.012062
-0.0038007 0.011949 0.0022802 0.012226 0.0073195 0.0032963 -0.3305 0.06329
-0.019429 -0.0065168 0.015415 0.023652
0.010988 0.0052965 0.007353 0.0024386 -0.0012626 0.0083778 -0.01924 -0.0072193
-0.23655 -0.16292 -0.025426 0.0038392
-0.0040681 0.008087 0.0026757 0.014138 0.0025819 0.011889 0.014952 0.023567
-0.025236 0.0042882 -0.28471 -0.079688
560000000 -0.31301 0.13799 -0.027269 -0.061012 0.0011588 0.011579 0.0051634 0.0094166
0.0091675 0.0041289 0.010717 0.0063789
-0.027359 -0.06104 -0.374 0.11823 -0.041817 -0.033872 0.012719 0.0032862
-0.012145 -0.003733 0.0029811 -0.0010074
0.0013179 0.011564 -0.041848 -0.033932 -0.18091 0.26777 -1.0345e-05 -0.0046714
0.018318 0.0038707 0.0072001 -0.006511
0.0069661 0.010637 0.012725 0.0027594 0.00042543 -0.0041633 -0.30335 0.14829
0.00052208 -0.024406 0.0032444 -0.0182
0.009185 0.0045138 -0.013086 -0.0056436 0.019575 0.0034127 0.0012366 -0.024583
-0.2876 0.010352 0.0031577 -0.04714
0.0092896 0.0074681 0.004216 -0.0012633 0.0062681 -0.0056351 0.0031254 -0.018003
0.0034034 -0.047045 -0.33027 0.059618
620000000 -0.27003 0.12385 -0.023253 0.0072101 0.0043573 0.0078931 0.0078688 -0.0053799
0.010644 -0.0013115 0.00093534 -0.0022687
-0.023189 0.0071489 -0.40132 0.074442 -0.019629 0.00039021 -0.00091432 -0.0021761
0.010033 -0.0062088 0.0014664 -0.0030266
0.0043906 0.0078884 -0.019648 0.00042501 -0.1492 0.27713 -0.0010651 -0.0046412
-0.0034602 -0.0024697 0.0081515 -0.0038756
0.0068091 -0.0048932 -0.0013298 -0.0024738 -0.00121 -0.0046355 -0.26249 0.16073
-0.039215 -0.018091 0.012297 0.023004
0.011523 -0.0015613 0.010903 -0.0063343 -0.0031441 -0.0026281 -0.039133 -0.017157
-0.21071 -0.026189 -0.038854 0.01479
0.00068796 -0.0026643 0.0017771 -0.0030893 0.0070354 -0.0042751 0.011027 0.022743
-0.038525 0.015029 -0.2557 0.031851
680000000 -0.2267 0.20518 -0.027745 -0.011844 0.0052404 0.0045312 0.0011614 -0.0071235
-0.0030794 -0.011208 0.00395 -0.0067538
-0.02773 -0.011911 -0.38402 0.16838 -0.032335 0.0006689 -0.0014279 -0.00053622
-0.0023984 -0.0087491 -0.0015435 -0.0021071
0.0051921 0.0044992 -0.032332 0.00068715 -0.097956 0.29491 -0.00092397 -0.00028525
-0.0017789 9.4757e-05 -0.0037336 -0.008406
0.0006657 -0.0073746 -0.0013076 -0.00062552 -0.00068405 -0.00036586 -0.21636 0.20786
-0.025735 -0.0050951 -0.0088576 -0.0081676
-0.0029987 -0.011627 -0.0026857 -0.0089329 -0.0016026 0.00035015 -0.025982 -0.0049447
-0.24927 0.068627 -0.0073679 -0.0065676
0.004412 -0.0072347 -0.0016829 -0.0021829 -0.0035094 -0.0081621 -0.0088157 -0.0081939
-0.0074277 -0.0065885 -0.25307 0.12688
740000000 -0.18419 0.20016 -0.036297 0.026466 0.01197 -0.0058791 -0.00061425 -0.0040194
-0.005192 -0.0024655 -0.0057305 0.0031997
-0.036382 0.026365 -0.33231 0.18807 -0.03276 0.035197 -0.00096813 -0.005855
-0.011525 0.0077997 -0.0015644 -0.0048467
0.011947 -0.0058416 -0.032662 0.035228 -0.06434 0.29435 -0.0018832 0.0030504
-0.0033581 -0.0041752 -0.0017613 0.0013735
-0.00066334 -0.0039855 -0.001428 -0.0059296 -0.001712 0.0030926 -0.19849 0.21666
-0.042168 -0.0032382 0.02189 0.012269
-0.0052972 -0.0024722 -0.011333 0.0076367 -0.0035835 -0.0042579 -0.042251 -0.0038103
-0.15707 0.089664 -0.037907 0.0033074
-0.0058658 0.0034423 -0.0024625 -0.0045262 -0.0019986 0.0011897 0.022069 0.012361
-0.038565 0.0030501 -0.24172 0.13693
800000000 -0.15002 0.23693 -0.021209 0.017713 0.0045347 -0.010421 -0.0044006 -0.0017119
-0.0038203 0.0031475 0.0036485 0.00085814
-0.021195 0.017648 -0.33244 0.25641 -0.0065832 0.033555 -0.0022026 0.0023339
-0.00069772 0.0033755 0.0011435 0.0053125
0.00449 -0.010422 -0.00651 0.033574 -0.021337 0.31604 0.00090226 0.0015508
0.00032326 0.0036328 -0.0017806 0.0012387
-0.004472 -0.0015881 -0.0022356 0.0021435 0.00085374 0.0015271 -0.16831 0.24282
-0.026545 0.016245 0.012449 -0.0099909
-0.0036373 0.0034091 -0.00087665 0.003941 0.00026777 0.0038875 -0.02646 0.016361
-0.19379 0.11634 -0.015449 0.018633
0.0041069 0.00032181 0.0015271 0.0055691 -0.0015257 0.0013375 0.012246 -0.010063
-0.015369 0.018567 -0.22832 0.18169
860000000 -0.11484 0.25689 -0.015575 0.030961 -0.0039282 -0.0094501 -0.0019645 0.0013984
0.0046669 0.0048328 -0.0025836 -0.0023173
-0.015622 0.03096 -0.28513 0.29697 0.0092895 0.032776 0.00025948 0.0022609
0.0051994 0.00033686 0.0032069 0.00063905
-0.0039947 -0.0094294 0.0093323 0.032768 0.026936 0.32265 -0.00038451 -7.7408e-05
0.0026921 -0.001218 0.0017128 0.0040756
-0.0020949 0.00096543 0.00020893 0.0023966 -0.00050872 -6.5056e-05 -0.13159 0.25327
-0.014905 0.020647 -0.0055778 -0.0089825
0.0051596 0.0048081 0.0050224 5.1266e-05 0.0027244 -0.0011684 -0.014635 0.020838
-0.14082 0.16145 -0.021412 0.016428
-0.0024707 -0.0017699 0.0030248 0.00071783 0.0018375 0.0038305 -0.005654 -0.009022
-0.021211 0.016507 -0.17889 0.22121
920000000 -0.088101 0.27814 0.0065865 0.036445 -0.0091284 -0.0039392 -0.0013526 0.0017298
0.001639 0.0012093 0.0026654 -0.0018847
0.0065325 0.03644 -0.25426 0.31741 0.028278 0.019942 0.0017845 0.00083598
0.0071496 -0.00095569 0.0033899 -0.0031427
-0.0091201 -0.0039331 0.028351 0.019887 0.074449 0.32259 0.0019079 -0.00020437
0.0015768 -0.00082326 0.00075066 -0.0013075
-0.0013691 0.0018089 0.0019649 0.0008579 0.0020378 -0.00024498 -0.10539 0.26896
-0.0070839 0.030261 0.0020836 -0.0063408
0.0018678 0.0014156 0.0071156 -0.00087042 0.0015628 -0.00077913 -0.006965 0.030387
-0.12755 0.1671 -0.0004164 0.025223
0.0025252 -0.0019943 0.0037024 -0.0029247 0.00085671 -0.0010817 0.0022878 -0.0061634
-0.00044352 0.024919 -0.17794 0.23665
980000000 -0.040908 0.29575 0.018639 0.02831 -0.0083581 0.0047884 0.0019915 0.0030182
0.0036418 -0.0019697 -0.003327 -0.0018628
0.018623 0.028293 -0.20237 0.34933 0.032333 0.0029116 0.0020787 -0.00031366
0.0013148 -0.0061388 -0.00068919 -0.0023105
-0.0083412 0.0047693 0.032348 0.0028524 0.1211 0.31443 0.00050181 -0.0013757
7.7697e-05 -0.0021981 0.0012806 -0.00016588
0.0019321 0.0030046 0.0019253 -0.00017167 0.00043313 -0.0013073 -0.066675 0.27853
0.010541 0.028127 -0.0083326 -0.0058253
0.0034833 -0.0022026 0.0012139 -0.0063589 6.8748e-05 -0.0022785 0.010632 0.028121
-0.096185 0.19142 0.0065246 0.018343
-0.0031757 -0.0021838 -0.00083991 -0.0025072 0.0012823 -0.00029934 -0.008382 -0.0059818
0.0065455 0.018431 -0.1336 0.27385
1040000000 0.0019827 0.30307 0.032713 0.015549 -0.001123 0.0065796 0.002463 0.00057625
-5.03e-05 -0.0031212 -0.00079626 -0.0012825
0.032675 0.015573 -0.1663 0.36219 0.02748 -0.0158 0.0013423 -0.0017647
-0.0024319 -0.0023082 -0.0016254 -0.0026545
-0.0010925 0.0065512 0.027467 -0.015859 0.16776 0.29958 -0.00063583 -0.0014407
-0.0015995 -0.00077767 -0.00051201 -0.0010302
0.0024751 0.0005309 0.0013125 -0.0017771 -0.00069129 -0.0014365 -0.037369 0.28742
0.020875 0.015489 -0.0026891 0.0013412
8.1928e-05 -0.0030681 -0.0025874 -0.0023716 -0.0016376 -0.00090774 0.020931 0.015456
-0.06408 0.19733 0.013732 0.015565
-0.00068424 -0.0012769 -0.0015641 -0.0026153 -0.00042986 -0.0010754 -0.0027069 0.0013237
0.013756 0.015582 -0.10809 0.29336
1100000000 0.047659 0.30879 0.034271 -0.0059865 0.0026934 0.0035611 0.0022514 -0.0011196
-0.0020817 -0.0027156 -0.0035441 0.00043847
0.03424 -0.005967 -0.12279 0.37821 0.013262 -0.027577 -5.9483e-05 -0.0018187
-0.0033189 -0.00046838 -0.0032838 -0.00024826
0.0026982 0.0035369 0.013184 -0.027606 0.21446 0.2771 -0.0018083 0.00019712
-0.0017595 0.00073746 -0.00089427 -0.00015968
0.0022194 -0.0010597 -7.5075e-05 -0.0017634 -0.0018 0.00020807 0.0040764 0.28992
0.024412 0.002198 -0.0023863 0.00011502
-0.0021394 -0.0026732 -0.0033589 -0.00051854 -0.0017613 0.00076788 0.024516 0.0022378
-0.044608 0.20878 0.018418 0.0059472
-0.0034687 0.00033456 -0.003283 -0.00032683 -0.00094667 -0.00021616 -0.0024217 8.7028e-05
0.018327 0.0059576 -0.061102 0.31642
1160000000 0.098465 0.30248 0.021793 -0.02149 0.0022525 -0.0003343 -6.8205e-05 -0.0021197
-0.0038864 -0.00041551 -0.00057714 0.0037666
0.021819 -0.021417 -0.078327 0.38188 -0.0051609 -0.027875 -0.0016845 -0.0015547
-0.0025229 0.0024887 -0.0012808 0.0017481
0.0022603 -0.00033953 -0.0052427 -0.027866 0.25673 0.24447 -0.00071683 0.0017672
-0.00041479 0.0019032 -0.00075535 0.00025617
-6.3212e-05 -0.0021127 -0.0016854 -0.0015686 -0.00075882 0.0017973 0.043564 0.28462
0.019757 -0.012714 -0.0030213 0.0044719
-0.0038359 -0.00041241 -0.0025671 0.0025342 -0.00045084 0.0019577 0.019732 -0.012708
-0.011262 0.21568 0.016595 -0.0021388
-0.0005104 0.0039018 -0.0010383 0.0018601 -0.00068632 0.00014704 -0.0030415 0.0044237
0.016675 -0.0021266 -0.014497 0.31682
1220000000 0.14316 0.28924 0.0081174 -0.029377 -0.0015686 -0.00029928 7.9296e-05 -0.00092843
-0.002379 0.0023112 0.0013633 0.0018031
0.0081218 -0.029362 -0.034163 0.39236 -0.017202 -0.019499 -0.0024478 0.00045226
0.00020022 0.0028497 -0.00046245 0.0018469
-0.0015652 -0.00031647 -0.017259 -0.019441 0.29529 0.20398 0.00086483 0.0018142
0.00071139 0.0011691 0.00037358 0.00048447
6.7707e-05 -0.00093602 -0.0024005 0.00047721 0.00090543 0.0017997 0.083783 0.27356
0.0087394 -0.018435 0.0014367 0.0014645
-0.0024842 0.0022925 0.00020975 0.0028238 0.00071159 0.001136 0.0086444 -0.018432
0.012909 0.22246 0.011398 -0.013454
0.0014025 0.0018158 -0.00050416 0.0020018 0.00033442 0.00049332 0.001477 0.0014958
0.011364 -0.013466 0.019316 0.32805
1280000000 0.19181 0.26551 -0.0093092 -0.026732 -0.0014062 0.0028447 -0.00096616 -0.0020178
-0.00056448 0.0028105 0.0023446 0.00082535
-0.0092842 -0.02672 0.011387 0.38239 -0.023156 -0.0071815 -0.00091757 0.0014166
0.0016795 0.0016056 0.00073193 0.0017023
-0.0013945 0.0028511 -0.023203 -0.0071219 0.32444 0.15874 0.0016054 -8.1282e-05
0.0011301 0.0001181 0.00022295 0.00014285
-0.00095213 -0.001982 -0.0009602 0.0014106 0.0015901 -7.9521e-05 0.11954 0.25457
-0.0010244 -0.019516 -0.00042975 0.00044493
-0.00053782 0.0027867 0.0017466 0.0015691 0.0010679 0.00013638 -0.001045 -0.019526
0.049224 0.22372 0.0011039 -0.014906
0.002297 0.00080592 0.00078808 0.0017106 0.0002849 0.00015078 -0.0004459 0.00047804
0.0011142 -0.014834 0.065126 0.3254
1340000000 0.22826 0.23039 -0.018052 -0.016821 0.0013774 0.0042396 -0.001737 -0.00087649
0.0014388 0.0024551 0.0014526 -0.0014389
-0.018016 -0.016815 0.050795 0.37299 -0.020555 0.005016 -9.8241e-05 0.0019999
0.0018905 0.00059333 0.0012863 0.00063602
0.0013986 0.004246 -0.020534 0.0050753 0.34515 0.11055 0.0011889 -0.0010016
0.00056785 -0.00051454 7.4763e-05 0.0002362
-0.0016931 -0.00087278 -7.0827e-05 0.002001 0.0012401 -0.00098948 0.15087 0.23231
-0.010177 -0.015892 0.00064729 0.0011159
0.0014835 0.0025391 0.0017995 0.0006248 0.00044421 -0.00048077 -0.010202 -0.015919
0.079047 0.21714 -0.0053698 -0.012629
0.0014176 -0.0013942 0.0012458 0.0006336 -6.5453e-06 0.00023324 0.00066054 0.0011054
-0.0053497 -0.012654 0.10398 0.31683
1400000000 0.26006 0.19071 -0.022456 -0.005643 0.0053233 0.0026455 -0.0020781 0.00059974
0.0022966 0.00074691 0.00012722 -0.0013312
-0.022426 -0.0056435 0.087445 0.35915 -0.013696 0.012428 0.0013385 0.0013186
0.0011323 -0.00088043 0.0010625 7.9713e-05
0.0053234 0.0026048 -0.013639 0.012482 0.35757 0.056609 8.9075e-05 -0.0018345
4.9219e-05 -0.0004142 0.00032749 0.00016808
-0.0021162 0.00062887 0.0013395 0.0013655 9.3004e-05 -0.001798 0.17896 0.2014
-0.015541 -0.0088962 -0.00030296 0.00038327
0.0022973 0.00075016 0.0011532 -0.00088662 7.2548e-05 -0.00039877 -0.0156 -0.0088368
0.11116 0.21012 -0.010895 -0.0073239
3.9225e-05 -0.0012896 0.00098948 4.9484e-05 0.00024556 0.00011383 -0.00028659 0.00040089
-0.010852 -0.0073345 0.14635 0.30189
1460000000 0.28139 0.14596 -0.019024 0.0055896 0.0053681 -0.002296 -0.0015558 0.0017144
0.0019435 -0.00063226 -0.00042686 -0.00080808
-0.019017 0.0055865 0.12122 0.33668 -0.005376 0.014693 0.0017209 0.00013935
0.00072135 -0.0012631 0.0010158 -0.0005582
0.0053624 -0.0023202 -0.0053281 0.014705 0.36234 0.0021067 -0.0014394 -0.0012956
9.2454e-05 -0.00014771 0.00059418 -0.00033193
-0.0015632 0.0017152 0.001735 0.00012909 -0.0014909 -0.0013435 0.2029 0.17092
-0.016319 -0.0020139 -0.00016412 0.0020321
0.0019673 -0.0006151 0.00068769 -0.0012937 0.00014243 -0.00022896 -0.016309 -0.0019775
0.13939 0.19353 -0.011846 -0.001492
-0.00041668 -0.00092417 0.0010577 -0.00054284 0.00072418 -0.00026776 -0.00019783 0.0020644
-0.011838 -0.0015199 0.17801 0.27891
1520000000 0.29244 0.10316 -0.013155 0.0104 0.0028288 -0.0041772 0.00015379 0.0026298
0.001866 -0.0016865 -0.0010401 -3.6487e-05
-0.013146 0.010389 0.15436 0.32119 0.0017508 0.012488 0.0016573 -0.00088058
-4.6017e-05 -0.001026 0.00026461 -0.0008789
0.0027771 -0.0041683 0.0017934 0.012486 0.35496 -0.054213 -0.0013524 -0.00023009
0.00050206 -0.00083605 -5.3905e-05 -0.00014547
0.00011934 0.0026092 0.0016571 -0.00090227 -0.0013249 -0.00022257 0.22378 0.13245
-0.015105 0.0037629 0.0019186 0.0017257
0.001857 -0.0016436 -3.78e-05 -0.0010379 0.00052399 -0.000851 -0.01512 0.0037769
0.16664 0.17755 -0.011267 0.0027567
-0.0010507 8.2699e-05 0.00025436 -0.00088705 -8.9285e-05 -0.00014031 0.0019194 0.0017323
-0.011256 0.0027381 0.2096 0.25532
1580000000 0.30008 0.056595 -0.0068537 0.012732 -0.0011017 -0.0045617 0.0015543 0.001838
-0.00017623 -0.0020397 -0.00024557 0.0004119
-0.006854 0.012715 0.18105 0.29576 0.0050488 0.0077803 0.00042059 -0.0016781
-0.00053446 -0.00093289 -0.00021797 -0.00076819
-0.0011214 -0.0045742 0.0050917 0.007743 0.33402 -0.112 -0.0016101 0.00094501
-0.00025261 -0.0010398 0.00020598 -0.0005234
0.0015571 0.0018646 0.00038804 -0.0016938 -0.0016377 0.0009255 0.23515 0.093014
-0.011419 0.0084396 0.002387 0.00021541
-0.00019998 -0.0020263 -0.00056345 -0.00091369 -0.00038646 -0.0010208 -0.011449 0.0084745
0.18957 0.15747 -0.008567 0.0077008
-0.00021729 0.00032885 -0.00018214 -0.00079464 0.00031208 -0.00060749 0.0023766 0.00021925
-0.0085909 0.0077188 0.23893 0.22655
1640000000 0.30067 0.01493 -0.00074609 0.011309 -0.0027814 -0.0023848 0.0027779 0.00087355
-0.00076376 -0.001454 -0.00021462 0.00049754
-0.00075361 0.011314 0.21007 0.27014 0.0055967 0.0033856 -0.00085961 -0.0016546
-0.0010057 -0.00029483 -0.00049352 -0.00058531
-0.002761 -0.0023566 0.0056036 0.0033498 0.3048 -0.16031 -0.0005315 0.0015755
-0.00118 -0.00077649 -0.0001525 -0.00021617
0.0028117 0.00084232 -0.00086289 -0.0016518 -0.00047142 0.001593 0.2451 0.045331
-0.0069593 0.0098092 0.0023671 -0.0011942
-0.00076904 -0.0014514 -0.0010073 -0.00030753 -0.0011694 -0.00082078 -0.0069463 0.0098362
0.2107 0.13163 -0.0039803 0.0093543
-0.00017504 0.00056884 -0.00054491 -0.00059604 -0.00029581 -0.00025721 0.0023462 -0.0012101
-0.0039546 0.0093705 0.26242 0.19371
1700000000 0.29181 -0.030593 0.0021729 0.0084518 -0.0033568 0.00013399 0.0029521 -0.0014251
-0.0019477 -0.00065865 0.00062973 0.0003532
0.0021594 0.0084641 0.22759 0.2382 0.0037666 0.00054545 -0.0014833 -0.00045027
-0.00069488 0.00014378 -0.00085591 -0.00041126
-0.0033131 0.00011591 0.0037899 0.00054531 0.26141 -0.20049 0.000709 0.0014218
-0.0017443 -0.00017404 -0.00055216 -0.00080822
0.0028693 -0.001487 -0.001477 -0.00047452 0.00068965 0.0014564 0.24057 -0.0029226
-0.0038057 0.01029 0.0012567 -0.0022998
-0.0019035 -0.00067433 -0.00065861 0.00016408 -0.0016087 -0.00010396 -0.0037853 0.010283
0.22635 0.10984 0.00047854 0.0094763
0.00069227 0.00035986 -0.00080948 -0.00035604 -0.00060654 -0.00072016 0.0012704 -0.0022961
0.00047578 0.0094749 0.27665 0.15803
1760000000 0.27807 -0.07875 0.0039755 0.0053957 -0.0021464 0.00089711 0.00092842 -0.0034809
-0.0013924 0.00072469 0.00042755 -0.00044354
0.0039633 0.0053817 0.25274 0.19763 0.0016186 -0.0012293 -0.001178 0.00030543
-0.0009251 0.00082265 -0.00058676 0.00045774
-0.0022096 0.00089413 0.0016284 -0.0012752 0.21212 -0.23407 0.0012728 0.00073788
-0.0010729 0.0015377 -0.0012439 -0.0002597
0.000955 -0.003503 -0.0011775 0.00031408 0.0013357 0.00073002 0.23061 -0.052157
-0.000305 0.0093422 -0.00050348 -0.0024568
-0.0013458 0.00069557 -0.00092062 0.00083738 -0.0010875 0.001547 -0.00030544 0.0093638
0.23916 0.073515 0.0039952 0.0067095
0.00048631 -0.00039671 -0.00061287 0.000465 -0.0012026 -0.00036879 -0.00051135 -0.0024503
0.0039969 0.006727 0.28701 0.11954
1820000000 0.25205 -0.1154 0.0038983 0.0021826 -0.00014353 0.0024733 -0.0013074 -0.0027988
-0.0010271 0.0010254 1.3137e-05 -0.00010296
0.0039133 0.0021915 0.26184 0.16742 -0.00021245 -9.9504e-05 -0.0011674 0.0010129
1.4643e-05 0.0012131 -0.00052154 0.00055522
-0.00016244 0.0025107 -0.00024278 -8.9648e-05 0.1614 -0.24889 0.001271 6.6356e-05
-6.0321e-05 0.0021082 -0.0013783 0.00048766
-0.001348 -0.002773 -0.001139 0.00098352 0.0012486 6.114e-05 0.20098 -0.097196
0.0014665 0.0075037 -0.0016736 -0.0013643
-0.0010799 0.00096344 2.3743e-05 0.001205 -1.5163e-05 0.002229 0.0014508 0.0075266
0.25426 0.043479 0.0049385 0.003294
2.8952e-05 -0.00016751 -0.00045712 0.00061977 -0.0011514 0.00051688 -0.0017106 -0.0013479
0.0049575 0.0032959 0.28721 0.082263
1880000000 0.2155 -0.15478 0.0016945 0.00013705 -0.00040812 0.002004 -0.0029329 -0.0017882
-0.00019158 0.0016998 0.00019327 -0.00036239
0.0016812 0.00013149 0.2655 0.12054 -0.002293 0.0015528 -4.72e-05 0.0015983
0.00054795 0.0010578 0.00016977 0.00092814
-0.0003919 0.0019279 -0.0023482 0.0016176 0.10856 -0.259 0.0013578 -0.00099667
0.001446 0.0016625 -0.00073259 0.0014215
-0.0029235 -0.0017073 -1.8165e-05 0.0016722 0.0014967 -0.0010717 0.16148 -0.13655
0.0022757 0.0050918 -0.0022588 0.00043094
-0.00024999 0.0017418 0.00051915 0.0010271 0.0014807 0.0017138 0.0022819 0.0050794
0.25495 0.0096365 0.0046012 0.001191
0.00011766 -0.00042475 0.00020146 0.00093976 -0.0008133 0.0013955 -0.0021864 0.00039325
0.0045797 0.0012165 0.28477 0.047611
1940000000 0.1755 -0.17936 -0.00059219 -0.0011988 0.0015405 0.0019619 -0.0035074 0.00082428
0.001504 0.0011385 -0.00056442 -0.0005262
-0.00056695 -0.0011729 0.26492 0.088865 -0.0011899 0.0039331 0.0010108 0.0011173
0.0016229 0.0004366 0.00085517 0.00043631
0.001534 0.0018971 -0.0010892 0.0039213 0.061812 -0.25163 0.00014034 -0.0016558
0.0022856 0.00030193 0.00038907 0.0016803
-0.0033749 0.00082297 0.0010177 0.0011427 0.00019963 -0.0016265 0.11016 -0.16643
0.0014398 0.0033764 -0.001397 0.0014387
0.0015093 0.0012678 0.0015981 0.00046072 0.0022069 0.00029198 0.001459 0.0033928
0.25441 -0.029857 0.0034046 -0.0017395
-0.00066652 -0.00058377 0.00080345 0.00032976 0.00041545 0.0016219 -0.0013675 0.0014523
0.0033859 -0.0016687 0.27212 0.011039
2000000000 0.12909 -0.19343 -0.0042521 0.0011039 0.0024255 0.0015515 -0.0020313 0.0034388
0.0012014 3.1743e-05 -0.00052997 0.00037665
-0.004235 0.0010876 0.25015 0.053379 -0.00089468 0.0057 0.0015167 0.00018661
0.0012257 -0.001167 0.00046042 4.0923e-05
0.0023178 0.0015909 -0.00093898 0.0056418 0.018338 -0.23666 -0.00097498 -0.00089944
0.0017846 -0.0010523 0.0017389 0.0010417
-0.0021538 0.0033847 0.0014658 0.00015269 -0.0010434 -0.00086218 0.057774 -0.17693
-0.0003684 0.0028187 4.1306e-06 0.0020971
0.0013626 -7.5699e-05 0.0012726 -0.001183 0.0016982 -0.0010256 -0.00038081 0.0028005
0.24609 -0.064155 0.00037008 -0.0026991
